hour,t(sec),"P1 (kW)","Q1 (kvar)","P2 (kW)","Q2 (kvar)","P3 (kW)","Q3 (kvar)","P4 (kW)","Q4 (kvar)"
1, 0.00000, 511.754, 238.19, 635.65, 92.8027, 699.611, 272.794, 0, 0
2, 0.00000, 402.335, 140.163, 480.485, 21.1193, 544.505, 148.321, 0, 0
3, 0.00000, 382.798, 118.539, 448.188, 6.87604, 512.196, 119.337, 0, 0
4, 0.00000, 398.58, 122.595, 457.493, 14.7878, 521.4, 119.711, 0, 0
5, 0.00000, 503.82, 197.169, 593.995, 72.4787, 656.893, 212.917, 0, 0
6, 0.00000, 700.254, 363.091, 865.651, 194.99, 928.532, 422.278, 0, 0
7, 0.00000, 885.727, 523.015, 1104.32, 330.139, 1162.06, 615.885, 0, 0
8, 0.00000, 962.948, 542.173, 1124.18, 380.886, 1183.24, 601.163, 0, 0
9, 0.00000, 1277.17, 794.07, 1475.22, 614.121, 1532.04, 875.611, 0, 0
10, 0.00000, 1254.58, 797.331, 1453.9, 617.354, 1510.11, 879.96, 0, 0
11, 0.00000, 1315.47, 888.538, 1552.67, 695.973, 1600.84, 997.674, 0, 0
12, 0.00000, 1319.02, 904.208, 1555.91, 708.202, 1607.21, 1011.36, 0, 0
13, 0.00000, 1143.26, 800.206, 1394.14, 596.252, 1445.33, 915.5, 0, 0
14, 0.00000, 1129.23, 769.148, 1343.85, 582.822, 1397.9, 861.851, 0, 0
15, 0.00000, 1210.02, 820.122, 1415.96, 638.885, 1469.95, 907.853, 0, 0
16, 0.00000, 1178.14, 793.59, 1383.21, 612.293, 1437.68, 880.536, 0, 0
17, 0.00000, 1164.27, 834.915, 1390.88, 644.433, 1442.54, 935.928, 0, 0
18, 0.00000, 1109.15, 818.432, 1402.03, 594.324, 1449.67, 960.025, 0, 0
19, 0.00000, 1149.21, 869.113, 1512.25, 605.037, 1559.42, 1051.48, 0, 0
20, 0.00000, 1143.94, 874.745, 1525.58, 599.221, 1573.37, 1067.49, 0, 0
21, 0.00000, 1197.91, 945.011, 1631.96, 638.449, 1680.43, 1167.63, 0, 0
22, 0.00000, 1106.08, 777.808, 1480.89, 504.604, 1530.08, 965.803, 0, 0
23, 0.00000, 930.648, 615.118, 1231.55, 376.92, 1287.39, 756.612, 0, 0
24, 0.00000, 662.638, 364.567, 843.766, 189.651, 904.684, 433.97, 0, 0
25, 0.00000, 511.738, 239.098, 635.662, 93.727, 699.595, 273.734, 0, 0
26, 0.00000, 402.329, 140.666, 480.49, 21.629, 544.499, 148.837, 0, 0
27, 0.00000, 499.139, 124.465, 566.6, 11.2107, 630.951, 126.26, 0, 0
28, 0.00000, 515.194, 128.815, 575.874, 19.5054, 640.199, 126.711, 0, 0
29, 0.00000, 620.164, 205.507, 713.112, 78.1378, 776.943, 222.318, 0, 0
30, 0.00000, 814.243, 376.959, 989.069, 203.732, 1051.68, 441.75, 0, 0
31, 0.00000, 1000.47, 542.244, 1227.5, 340.889, 1288.36, 638.183, 0, 0
32, 0.00000, 963.152, 550.066, 1124.76, 385.949, 1186.08, 607.962, 0, 0
33, 0.00000, 1277.17, 793.8, 1475.21, 613.846, 1532.03, 875.326, 0, 0
34, 0.00000, 1254.58, 797.07, 1453.89, 617.087, 1510.11, 879.684, 0, 0
35, 0.00000, 1315.47, 888.244, 1552.65, 695.672, 1600.83, 997.36, 0, 0
36, 0.00000, 1319.02, 904.358, 1555.91, 708.357, 1607.21, 1011.52, 0, 0
37, 0.00000, 1143.25, 800.494, 1394.15, 596.546, 1445.33, 915.808, 0, 0
38, 0.00000, 1129.22, 769.394, 1343.86, 583.074, 1397.9, 862.11, 0, 0
39, 0.00000, 1210.03, 819.412, 1415.93, 638.158, 1469.95, 907.104, 0, 0
40, 0.00000, 1178.13, 794.538, 1383.25, 613.262, 1437.68, 881.536, 0, 0
41, 0.00000, 1164.27, 834.847, 1390.88, 644.362, 1442.54, 935.857, 0, 0
42, 0.00000, 1109.14, 818.669, 1402.04, 594.566, 1449.67, 960.282, 0, 0
43, 0.00000, 1149.21, 869.03, 1512.25, 604.95, 1559.43, 1051.39, 0, 0
44, 0.00000, 1143.94, 874.713, 1525.58, 599.19, 1573.37, 1067.46, 0, 0
45, 0.00000, 1197.88, 945.426, 1631.95, 638.858, 1680.41, 1168.05, 0, 0
46, 0.00000, 1106.08, 777.661, 1480.88, 504.454, 1530.09, 965.64, 0, 0
47, 0.00000, 930.661, 614.813, 1231.54, 376.607, 1287.39, 756.281, 0, 0
48, 0.00000, 662.643, 364.399, 843.763, 189.479, 904.687, 433.793, 0, 0
49, 0.00000, 511.747, 238.58, 635.656, 93.2, 699.604, 273.198, 0, 0
50, 0.00000, 402.332, 140.399, 480.488, 21.3578, 544.502, 148.563, 0, 0
51, 0.00000, 499.141, 124.324, 566.599, 11.0684, 630.952, 126.117, 0, 0
52, 0.00000, 515.194, 128.798, 575.873, 19.4884, 640.199, 126.694, 0, 0
53, 0.00000, 620.164, 205.507, 713.112, 78.1376, 776.943, 222.318, 0, 0
54, 0.00000, 814.243, 376.959, 989.069, 203.732, 1051.68, 441.75, 0, 0
55, 0.00000, 1000.47, 542.244, 1227.5, 340.889, 1288.36, 638.183, 0, 0
56, 0.00000, 963.152, 550.066, 1124.76, 385.949, 1186.08, 607.962, 0, 0
57, 0.00000, 1277.17, 793.8, 1475.21, 613.846, 1532.03, 875.326, 0, 0
58, 0.00000, 1254.58, 797.07, 1453.89, 617.087, 1510.11, 879.684, 0, 0
59, 0.00000, 1315.47, 888.244, 1552.65, 695.672, 1600.83, 997.36, 0, 0
60, 0.00000, 1319.02, 904.358, 1555.91, 708.357, 1607.21, 1011.52, 0, 0
61, 0.00000, 1143.25, 800.494, 1394.15, 596.546, 1445.33, 915.808, 0, 0
62, 0.00000, 1129.22, 769.394, 1343.86, 583.074, 1397.9, 862.11, 0, 0
63, 0.00000, 1210.03, 819.412, 1415.93, 638.158, 1469.95, 907.104, 0, 0
64, 0.00000, 1178.13, 794.538, 1383.25, 613.262, 1437.68, 881.536, 0, 0
65, 0.00000, 1164.27, 834.847, 1390.88, 644.362, 1442.54, 935.857, 0, 0
66, 0.00000, 1109.14, 818.669, 1402.04, 594.566, 1449.67, 960.282, 0, 0
67, 0.00000, 1149.21, 869.03, 1512.25, 604.95, 1559.43, 1051.39, 0, 0
68, 0.00000, 1143.94, 874.713, 1525.58, 599.19, 1573.37, 1067.46, 0, 0
69, 0.00000, 1197.88, 945.426, 1631.95, 638.858, 1680.41, 1168.05, 0, 0
70, 0.00000, 1106.08, 777.661, 1480.88, 504.454, 1530.09, 965.64, 0, 0
71, 0.00000, 930.661, 614.813, 1231.54, 376.607, 1287.39, 756.281, 0, 0
72, 0.00000, 662.643, 364.399, 843.763, 189.479, 904.687, 433.793, 0, 0
73, 0.00000, 511.747, 238.58, 635.656, 93.2, 699.604, 273.198, 0, 0
74, 0.00000, 402.332, 140.399, 480.488, 21.3578, 544.502, 148.563, 0, 0
75, 0.00000, 499.141, 124.324, 566.599, 11.0684, 630.952, 126.117, 0, 0
76, 0.00000, 515.194, 128.798, 575.873, 19.4884, 640.199, 126.694, 0, 0
77, 0.00000, 620.164, 205.507, 713.112, 78.1376, 776.943, 222.318, 0, 0
78, 0.00000, 814.243, 376.959, 989.069, 203.732, 1051.68, 441.75, 0, 0
79, 0.00000, 1000.47, 542.244, 1227.5, 340.889, 1288.36, 638.183, 0, 0
80, 0.00000, 963.152, 550.066, 1124.76, 385.949, 1186.08, 607.962, 0, 0
81, 0.00000, 1277.17, 793.8, 1475.21, 613.846, 1532.03, 875.326, 0, 0
82, 0.00000, 1254.58, 797.07, 1453.89, 617.087, 1510.11, 879.684, 0, 0
83, 0.00000, 1315.47, 888.244, 1552.65, 695.672, 1600.83, 997.36, 0, 0
84, 0.00000, 1319.02, 904.358, 1555.91, 708.357, 1607.21, 1011.52, 0, 0
85, 0.00000, 1143.25, 800.494, 1394.15, 596.546, 1445.33, 915.808, 0, 0
86, 0.00000, 1129.22, 769.394, 1343.86, 583.074, 1397.9, 862.11, 0, 0
87, 0.00000, 1210.03, 819.412, 1415.93, 638.158, 1469.95, 907.104, 0, 0
88, 0.00000, 1178.13, 794.538, 1383.25, 613.262, 1437.68, 881.536, 0, 0
89, 0.00000, 1164.27, 834.847, 1390.88, 644.362, 1442.54, 935.857, 0, 0
90, 0.00000, 1109.14, 818.669, 1402.04, 594.566, 1449.67, 960.282, 0, 0
91, 0.00000, 1149.21, 869.03, 1512.25, 604.95, 1559.43, 1051.39, 0, 0
92, 0.00000, 1143.94, 874.713, 1525.58, 599.19, 1573.37, 1067.46, 0, 0
93, 0.00000, 1197.88, 945.426, 1631.95, 638.858, 1680.41, 1168.05, 0, 0
94, 0.00000, 1106.08, 777.661, 1480.88, 504.454, 1530.09, 965.64, 0, 0
95, 0.00000, 930.661, 614.813, 1231.54, 376.607, 1287.39, 756.281, 0, 0
96, 0.00000, 662.643, 364.399, 843.763, 189.479, 904.687, 433.793, 0, 0
97, 0.00000, 511.747, 238.58, 635.656, 93.2, 699.604, 273.198, 0, 0
98, 0.00000, 402.332, 140.399, 480.488, 21.3578, 544.502, 148.563, 0, 0
99, 0.00000, 499.141, 124.324, 566.599, 11.0684, 630.952, 126.117, 0, 0
100, 0.00000, 515.194, 128.798, 575.873, 19.4884, 640.199, 126.694, 0, 0
101, 0.00000, 620.164, 205.507, 713.112, 78.1376, 776.943, 222.318, 0, 0
102, 0.00000, 814.243, 376.959, 989.069, 203.732, 1051.68, 441.75, 0, 0
103, 0.00000, 1000.47, 542.244, 1227.5, 340.889, 1288.36, 638.183, 0, 0
104, 0.00000, 963.152, 550.066, 1124.76, 385.949, 1186.08, 607.962, 0, 0
105, 0.00000, 1277.17, 793.8, 1475.21, 613.846, 1532.03, 875.326, 0, 0
106, 0.00000, 1254.58, 797.07, 1453.89, 617.087, 1510.11, 879.684, 0, 0
107, 0.00000, 1315.47, 888.244, 1552.65, 695.672, 1600.83, 997.36, 0, 0
108, 0.00000, 1319.02, 904.358, 1555.91, 708.357, 1607.21, 1011.52, 0, 0
109, 0.00000, 1143.25, 800.494, 1394.15, 596.546, 1445.33, 915.808, 0, 0
110, 0.00000, 1129.22, 769.394, 1343.86, 583.074, 1397.9, 862.11, 0, 0
111, 0.00000, 1210.03, 819.412, 1415.93, 638.158, 1469.95, 907.104, 0, 0
112, 0.00000, 1178.13, 794.538, 1383.25, 613.262, 1437.68, 881.536, 0, 0
113, 0.00000, 1164.27, 834.847, 1390.88, 644.362, 1442.54, 935.857, 0, 0
114, 0.00000, 1109.14, 818.669, 1402.04, 594.566, 1449.67, 960.282, 0, 0
115, 0.00000, 1149.21, 869.03, 1512.25, 604.95, 1559.43, 1051.39, 0, 0
116, 0.00000, 1143.94, 874.713, 1525.58, 599.19, 1573.37, 1067.46, 0, 0
117, 0.00000, 1197.88, 945.426, 1631.95, 638.858, 1680.41, 1168.05, 0, 0
118, 0.00000, 1106.08, 777.661, 1480.88, 504.454, 1530.09, 965.64, 0, 0
119, 0.00000, 930.661, 614.813, 1231.54, 376.607, 1287.39, 756.281, 0, 0
120, 0.00000, 662.643, 364.399, 843.763, 189.479, 904.687, 433.793, 0, 0
