hour,t(sec),V1,VAngle1,V2,VAngle2,V3,VAngle3,V4,VAngle4,I1,IAngle1,I2,IAngle2,I3,IAngle3,I4,IAngle4
0, 60.00000, 127.899, -30.1624, 127.854, -150.256, 127.695, 89.8082, 0, 0, 0.629873, -53.2363, 0.630096, -173.33, 0.630879, 66.7343, 0.00182378, -101.141
0, 120.00000, 127.899, -30.1624, 127.854, -150.256, 127.695, 89.8082, 0, 0, 0.629873, -53.2363, 0.630096, -173.33, 0.630879, 66.7343, 0.00182392, -101.144
0, 180.00000, 127.899, -30.1624, 127.854, -150.256, 127.695, 89.8082, 0, 0, 0.629873, -53.2363, 0.630096, -173.33, 0.630879, 66.7343, 0.00182392, -101.144
0, 240.00000, 127.899, -30.1624, 127.854, -150.256, 127.695, 89.8082, 0, 0, 0.629873, -53.2363, 0.630096, -173.33, 0.630879, 66.7343, 0.00182392, -101.144
0, 300.00000, 127.899, -30.1624, 127.854, -150.256, 127.695, 89.8082, 0, 0, 0.629873, -53.2363, 0.630096, -173.33, 0.630879, 66.7343, 0.00182392, -101.144
0, 360.00000, 127.899, -30.1624, 127.854, -150.256, 127.695, 89.8082, 0, 0, 0.629873, -53.2363, 0.630096, -173.33, 0.630879, 66.7343, 0.00182392, -101.144
0, 420.00000, 127.899, -30.1624, 127.854, -150.256, 127.695, 89.8082, 0, 0, 0.629873, -53.2363, 0.630096, -173.33, 0.630879, 66.7343, 0.00182392, -101.144
0, 480.00000, 127.899, -30.1624, 127.854, -150.256, 127.695, 89.8082, 0, 0, 0.629873, -53.2363, 0.630096, -173.33, 0.630879, 66.7343, 0.00182392, -101.144
0, 540.00000, 127.899, -30.1624, 127.854, -150.256, 127.695, 89.8082, 0, 0, 0.629873, -53.2363, 0.630096, -173.33, 0.630879, 66.7343, 0.00182392, -101.144
0, 600.00000, 127.899, -30.1624, 127.854, -150.256, 127.695, 89.8082, 0, 0, 0.629873, -53.2363, 0.630096, -173.33, 0.630879, 66.7343, 0.00182392, -101.144
0, 660.00000, 127.899, -30.1624, 127.854, -150.256, 127.695, 89.8082, 0, 0, 0.629873, -53.2363, 0.630096, -173.33, 0.630879, 66.7343, 0.00182392, -101.144
0, 720.00000, 127.899, -30.1624, 127.854, -150.256, 127.695, 89.8082, 0, 0, 0.629873, -53.2363, 0.630096, -173.33, 0.630879, 66.7343, 0.00182392, -101.144
0, 780.00000, 127.899, -30.1624, 127.854, -150.256, 127.695, 89.8082, 0, 0, 0.629873, -53.2363, 0.630096, -173.33, 0.630879, 66.7343, 0.00182392, -101.144
0, 840.00000, 127.899, -30.1624, 127.854, -150.256, 127.695, 89.8082, 0, 0, 0.629873, -53.2363, 0.630096, -173.33, 0.630879, 66.7343, 0.00182392, -101.144
0, 900.00000, 127.899, -30.1624, 127.854, -150.256, 127.695, 89.8082, 0, 0, 0.629873, -53.2363, 0.630096, -173.33, 0.630879, 66.7343, 0.00182392, -101.144
0, 960.00000, 127.879, -30.1705, 127.834, -150.264, 127.675, 89.8001, 0, 0, 0.671469, -53.2443, 0.671707, -173.338, 0.672541, 66.7263, 0.0019445, -101.155
0, 1020.00000, 127.879, -30.1705, 127.834, -150.264, 127.675, 89.8001, 0, 0, 0.67147, -53.2444, 0.671709, -173.338, 0.672543, 66.7262, 0.00194523, -101.155
0, 1080.00000, 127.879, -30.1705, 127.834, -150.264, 127.675, 89.8001, 0, 0, 0.67147, -53.2444, 0.671709, -173.338, 0.672543, 66.7262, 0.00194523, -101.155
0, 1140.00000, 127.879, -30.1705, 127.834, -150.264, 127.675, 89.8001, 0, 0, 0.67147, -53.2444, 0.671709, -173.338, 0.672543, 66.7262, 0.00194523, -101.155
0, 1200.00000, 127.879, -30.1705, 127.834, -150.264, 127.675, 89.8001, 0, 0, 0.67147, -53.2444, 0.671709, -173.338, 0.672543, 66.7262, 0.00194523, -101.155
0, 1260.00000, 127.879, -30.1705, 127.834, -150.264, 127.675, 89.8001, 0, 0, 0.67147, -53.2444, 0.671709, -173.338, 0.672543, 66.7262, 0.00194523, -101.155
0, 1320.00000, 127.879, -30.1705, 127.834, -150.264, 127.675, 89.8001, 0, 0, 0.67147, -53.2444, 0.671709, -173.338, 0.672543, 66.7262, 0.00194523, -101.155
0, 1380.00000, 127.879, -30.1705, 127.834, -150.264, 127.675, 89.8001, 0, 0, 0.67147, -53.2444, 0.671709, -173.338, 0.672543, 66.7262, 0.00194523, -101.155
0, 1440.00000, 127.879, -30.1705, 127.834, -150.264, 127.675, 89.8001, 0, 0, 0.67147, -53.2444, 0.671709, -173.338, 0.672543, 66.7262, 0.00194523, -101.155
0, 1500.00000, 127.879, -30.1705, 127.834, -150.264, 127.675, 89.8001, 0, 0, 0.67147, -53.2444, 0.671709, -173.338, 0.672543, 66.7262, 0.00194523, -101.155
0, 1560.00000, 127.879, -30.1705, 127.834, -150.264, 127.675, 89.8001, 0, 0, 0.67147, -53.2444, 0.671709, -173.338, 0.672543, 66.7262, 0.00194523, -101.155
0, 1620.00000, 127.879, -30.1705, 127.834, -150.264, 127.675, 89.8001, 0, 0, 0.67147, -53.2444, 0.671709, -173.338, 0.672543, 66.7262, 0.00194523, -101.155
0, 1680.00000, 127.879, -30.1705, 127.834, -150.264, 127.675, 89.8001, 0, 0, 0.67147, -53.2444, 0.671709, -173.338, 0.672543, 66.7262, 0.00194523, -101.155
0, 1740.00000, 127.879, -30.1705, 127.834, -150.264, 127.675, 89.8001, 0, 0, 0.67147, -53.2444, 0.671709, -173.338, 0.672543, 66.7262, 0.00194523, -101.155
0, 1800.00000, 127.879, -30.1705, 127.834, -150.264, 127.675, 89.8001, 0, 0, 0.67147, -53.2444, 0.671709, -173.338, 0.672543, 66.7262, 0.00194523, -101.155
0, 1860.00000, 127.879, -30.1708, 127.833, -150.264, 127.675, 89.7997, 0, 0, 0.648706, -53.2448, 0.648936, -173.338, 0.649742, 66.7258, 0.00187917, -101.154
0, 1920.00000, 127.879, -30.1708, 127.833, -150.264, 127.675, 89.7997, 0, 0, 0.648706, -53.2448, 0.648936, -173.338, 0.649743, 66.7258, 0.0018792, -101.154
0, 1980.00000, 127.879, -30.1708, 127.833, -150.264, 127.675, 89.7997, 0, 0, 0.648706, -53.2448, 0.648936, -173.338, 0.649743, 66.7258, 0.0018792, -101.154
0, 2040.00000, 127.879, -30.1708, 127.833, -150.264, 127.675, 89.7997, 0, 0, 0.648706, -53.2448, 0.648936, -173.338, 0.649743, 66.7258, 0.0018792, -101.154
0, 2100.00000, 127.879, -30.1708, 127.833, -150.264, 127.675, 89.7997, 0, 0, 0.648706, -53.2448, 0.648936, -173.338, 0.649743, 66.7258, 0.0018792, -101.154
0, 2160.00000, 127.879, -30.1708, 127.833, -150.264, 127.675, 89.7997, 0, 0, 0.648706, -53.2448, 0.648936, -173.338, 0.649743, 66.7258, 0.0018792, -101.154
0, 2220.00000, 127.879, -30.1708, 127.833, -150.264, 127.675, 89.7997, 0, 0, 0.648706, -53.2448, 0.648936, -173.338, 0.649743, 66.7258, 0.0018792, -101.154
0, 2280.00000, 127.879, -30.1708, 127.833, -150.264, 127.675, 89.7997, 0, 0, 0.648706, -53.2448, 0.648936, -173.338, 0.649743, 66.7258, 0.0018792, -101.154
0, 2340.00000, 127.879, -30.1708, 127.833, -150.264, 127.675, 89.7997, 0, 0, 0.648706, -53.2448, 0.648936, -173.338, 0.649743, 66.7258, 0.0018792, -101.154
0, 2400.00000, 127.879, -30.1708, 127.833, -150.264, 127.675, 89.7997, 0, 0, 0.648706, -53.2448, 0.648936, -173.338, 0.649743, 66.7258, 0.0018792, -101.154
0, 2460.00000, 127.879, -30.1708, 127.833, -150.264, 127.675, 89.7997, 0, 0, 0.648706, -53.2448, 0.648936, -173.338, 0.649743, 66.7258, 0.0018792, -101.154
0, 2520.00000, 127.879, -30.1708, 127.833, -150.264, 127.675, 89.7997, 0, 0, 0.648706, -53.2448, 0.648936, -173.338, 0.649743, 66.7258, 0.0018792, -101.154
0, 2580.00000, 127.879, -30.1708, 127.833, -150.264, 127.675, 89.7997, 0, 0, 0.648706, -53.2448, 0.648936, -173.338, 0.649743, 66.7258, 0.0018792, -101.154
0, 2640.00000, 127.879, -30.1708, 127.833, -150.264, 127.675, 89.7997, 0, 0, 0.648706, -53.2448, 0.648936, -173.338, 0.649743, 66.7258, 0.0018792, -101.154
0, 2700.00000, 127.879, -30.1708, 127.833, -150.264, 127.675, 89.7997, 0, 0, 0.648706, -53.2448, 0.648936, -173.338, 0.649743, 66.7258, 0.0018792, -101.154
0, 2760.00000, 127.896, -30.1637, 127.851, -150.257, 127.692, 89.8069, 0, 0, 0.625796, -53.2377, 0.626019, -173.331, 0.626796, 66.7329, 0.0018128, -101.145
0, 2820.00000, 127.896, -30.1637, 127.851, -150.257, 127.692, 89.8069, 0, 0, 0.625795, -53.2376, 0.626017, -173.331, 0.626795, 66.733, 0.00181219, -101.145
0, 2880.00000, 127.896, -30.1637, 127.851, -150.257, 127.692, 89.8069, 0, 0, 0.625795, -53.2376, 0.626017, -173.331, 0.626795, 66.733, 0.00181219, -101.145
0, 2940.00000, 127.896, -30.1637, 127.851, -150.257, 127.692, 89.8069, 0, 0, 0.625795, -53.2376, 0.626017, -173.331, 0.626795, 66.733, 0.00181219, -101.145
0, 3000.00000, 127.896, -30.1637, 127.851, -150.257, 127.692, 89.8069, 0, 0, 0.625795, -53.2376, 0.626017, -173.331, 0.626795, 66.733, 0.00181219, -101.145
0, 3060.00000, 127.896, -30.1637, 127.851, -150.257, 127.692, 89.8069, 0, 0, 0.625795, -53.2376, 0.626017, -173.331, 0.626795, 66.733, 0.00181219, -101.145
0, 3120.00000, 127.896, -30.1637, 127.851, -150.257, 127.692, 89.8069, 0, 0, 0.625795, -53.2376, 0.626017, -173.331, 0.626795, 66.733, 0.00181219, -101.145
0, 3180.00000, 127.896, -30.1637, 127.851, -150.257, 127.692, 89.8069, 0, 0, 0.625795, -53.2376, 0.626017, -173.331, 0.626795, 66.733, 0.00181219, -101.145
0, 3240.00000, 127.896, -30.1637, 127.851, -150.257, 127.692, 89.8069, 0, 0, 0.625795, -53.2376, 0.626017, -173.331, 0.626795, 66.733, 0.00181219, -101.145
0, 3300.00000, 127.896, -30.1637, 127.851, -150.257, 127.692, 89.8069, 0, 0, 0.625795, -53.2376, 0.626017, -173.331, 0.626795, 66.733, 0.00181219, -101.145
0, 3360.00000, 127.896, -30.1637, 127.851, -150.257, 127.692, 89.8069, 0, 0, 0.625795, -53.2376, 0.626017, -173.331, 0.626795, 66.733, 0.00181219, -101.145
0, 3420.00000, 127.896, -30.1637, 127.851, -150.257, 127.692, 89.8069, 0, 0, 0.625795, -53.2376, 0.626017, -173.331, 0.626795, 66.733, 0.00181219, -101.145
0, 3480.00000, 127.896, -30.1637, 127.851, -150.257, 127.692, 89.8069, 0, 0, 0.625795, -53.2376, 0.626017, -173.331, 0.626795, 66.733, 0.00181219, -101.145
0, 3540.00000, 127.896, -30.1637, 127.851, -150.257, 127.692, 89.8069, 0, 0, 0.625795, -53.2376, 0.626017, -173.331, 0.626795, 66.733, 0.00181219, -101.145
1, 0.00000, 127.896, -30.1637, 127.851, -150.257, 127.692, 89.8069, 0, 0, 0.625795, -53.2376, 0.626017, -173.331, 0.626795, 66.733, 0.00181219, -101.145
1, 60.00000, 127.9, -30.162, 127.855, -150.255, 127.696, 89.8086, 0, 0, 0.621687, -53.236, 0.621908, -173.329, 0.62268, 66.7346, 0.00180029, -101.143
1, 120.00000, 127.9, -30.162, 127.855, -150.255, 127.696, 89.8086, 0, 0, 0.621687, -53.2359, 0.621908, -173.329, 0.62268, 66.7346, 0.00180015, -101.143
1, 180.00000, 127.9, -30.162, 127.855, -150.255, 127.696, 89.8086, 0, 0, 0.621687, -53.2359, 0.621908, -173.329, 0.62268, 66.7346, 0.00180015, -101.143
1, 240.00000, 127.9, -30.162, 127.855, -150.255, 127.696, 89.8086, 0, 0, 0.621687, -53.2359, 0.621908, -173.329, 0.62268, 66.7346, 0.00180015, -101.143
1, 300.00000, 127.9, -30.162, 127.855, -150.255, 127.696, 89.8086, 0, 0, 0.621687, -53.2359, 0.621908, -173.329, 0.62268, 66.7346, 0.00180015, -101.143
1, 360.00000, 127.9, -30.162, 127.855, -150.255, 127.696, 89.8086, 0, 0, 0.621687, -53.2359, 0.621908, -173.329, 0.62268, 66.7346, 0.00180015, -101.143
1, 420.00000, 127.9, -30.162, 127.855, -150.255, 127.696, 89.8086, 0, 0, 0.621687, -53.2359, 0.621908, -173.329, 0.62268, 66.7346, 0.00180015, -101.143
1, 480.00000, 127.9, -30.162, 127.855, -150.255, 127.696, 89.8086, 0, 0, 0.621687, -53.2359, 0.621908, -173.329, 0.62268, 66.7346, 0.00180015, -101.143
1, 540.00000, 127.9, -30.162, 127.855, -150.255, 127.696, 89.8086, 0, 0, 0.621687, -53.2359, 0.621908, -173.329, 0.62268, 66.7346, 0.00180015, -101.143
1, 600.00000, 127.9, -30.162, 127.855, -150.255, 127.696, 89.8086, 0, 0, 0.621687, -53.2359, 0.621908, -173.329, 0.62268, 66.7346, 0.00180015, -101.143
1, 660.00000, 127.9, -30.162, 127.855, -150.255, 127.696, 89.8086, 0, 0, 0.621687, -53.2359, 0.621908, -173.329, 0.62268, 66.7346, 0.00180015, -101.143
1, 720.00000, 127.9, -30.162, 127.855, -150.255, 127.696, 89.8086, 0, 0, 0.621687, -53.2359, 0.621908, -173.329, 0.62268, 66.7346, 0.00180015, -101.143
1, 780.00000, 127.9, -30.162, 127.855, -150.255, 127.696, 89.8086, 0, 0, 0.621687, -53.2359, 0.621908, -173.329, 0.62268, 66.7346, 0.00180015, -101.143
1, 840.00000, 127.9, -30.162, 127.855, -150.255, 127.696, 89.8086, 0, 0, 0.621687, -53.2359, 0.621908, -173.329, 0.62268, 66.7346, 0.00180015, -101.143
1, 900.00000, 127.9, -30.162, 127.855, -150.255, 127.696, 89.8086, 0, 0, 0.621687, -53.2359, 0.621908, -173.329, 0.62268, 66.7346, 0.00180015, -101.143
1, 960.00000, 127.902, -30.1614, 127.856, -150.255, 127.698, 89.8092, 0, 0, 0.623303, -53.2353, 0.623524, -173.329, 0.624299, 66.7353, 0.00180484, -101.142
1, 1020.00000, 127.902, -30.1614, 127.856, -150.255, 127.698, 89.8092, 0, 0, 0.623303, -53.2353, 0.623524, -173.329, 0.624298, 66.7353, 0.00180479, -101.142
1, 1080.00000, 127.902, -30.1614, 127.856, -150.255, 127.698, 89.8092, 0, 0, 0.623303, -53.2353, 0.623524, -173.329, 0.624298, 66.7353, 0.00180479, -101.142
1, 1140.00000, 127.902, -30.1614, 127.856, -150.255, 127.698, 89.8092, 0, 0, 0.623303, -53.2353, 0.623524, -173.329, 0.624298, 66.7353, 0.00180479, -101.142
1, 1200.00000, 127.902, -30.1614, 127.856, -150.255, 127.698, 89.8092, 0, 0, 0.623303, -53.2353, 0.623524, -173.329, 0.624298, 66.7353, 0.00180479, -101.142
1, 1260.00000, 127.902, -30.1614, 127.856, -150.255, 127.698, 89.8092, 0, 0, 0.623303, -53.2353, 0.623524, -173.329, 0.624298, 66.7353, 0.00180479, -101.142
1, 1320.00000, 127.902, -30.1614, 127.856, -150.255, 127.698, 89.8092, 0, 0, 0.623303, -53.2353, 0.623524, -173.329, 0.624298, 66.7353, 0.00180479, -101.142
1, 1380.00000, 127.902, -30.1614, 127.856, -150.255, 127.698, 89.8092, 0, 0, 0.623303, -53.2353, 0.623524, -173.329, 0.624298, 66.7353, 0.00180479, -101.142
1, 1440.00000, 127.902, -30.1614, 127.856, -150.255, 127.698, 89.8092, 0, 0, 0.623303, -53.2353, 0.623524, -173.329, 0.624298, 66.7353, 0.00180479, -101.142
1, 1500.00000, 127.902, -30.1614, 127.856, -150.255, 127.698, 89.8092, 0, 0, 0.623303, -53.2353, 0.623524, -173.329, 0.624298, 66.7353, 0.00180479, -101.142
1, 1560.00000, 127.902, -30.1614, 127.856, -150.255, 127.698, 89.8092, 0, 0, 0.623303, -53.2353, 0.623524, -173.329, 0.624298, 66.7353, 0.00180479, -101.142
1, 1620.00000, 127.902, -30.1614, 127.856, -150.255, 127.698, 89.8092, 0, 0, 0.623303, -53.2353, 0.623524, -173.329, 0.624298, 66.7353, 0.00180479, -101.142
1, 1680.00000, 127.902, -30.1614, 127.856, -150.255, 127.698, 89.8092, 0, 0, 0.623303, -53.2353, 0.623524, -173.329, 0.624298, 66.7353, 0.00180479, -101.142
1, 1740.00000, 127.902, -30.1614, 127.856, -150.255, 127.698, 89.8092, 0, 0, 0.623303, -53.2353, 0.623524, -173.329, 0.624298, 66.7353, 0.00180479, -101.142
1, 1800.00000, 127.902, -30.1614, 127.856, -150.255, 127.698, 89.8092, 0, 0, 0.623303, -53.2353, 0.623524, -173.329, 0.624298, 66.7353, 0.00180479, -101.142
1, 1860.00000, 127.894, -30.1647, 127.848, -150.258, 127.69, 89.8059, 0, 0, 0.626241, -53.2386, 0.626464, -173.332, 0.627241, 66.732, 0.00181328, -101.146
1, 1920.00000, 127.894, -30.1647, 127.848, -150.258, 127.69, 89.8059, 0, 0, 0.626242, -53.2386, 0.626464, -173.332, 0.627242, 66.732, 0.00181356, -101.146
1, 1980.00000, 127.894, -30.1647, 127.848, -150.258, 127.69, 89.8059, 0, 0, 0.626242, -53.2386, 0.626464, -173.332, 0.627242, 66.732, 0.00181356, -101.146
1, 2040.00000, 127.894, -30.1647, 127.848, -150.258, 127.69, 89.8059, 0, 0, 0.626242, -53.2386, 0.626464, -173.332, 0.627242, 66.732, 0.00181356, -101.146
1, 2100.00000, 127.894, -30.1647, 127.848, -150.258, 127.69, 89.8059, 0, 0, 0.626242, -53.2386, 0.626464, -173.332, 0.627242, 66.732, 0.00181356, -101.146
1, 2160.00000, 127.894, -30.1647, 127.848, -150.258, 127.69, 89.8059, 0, 0, 0.626242, -53.2386, 0.626464, -173.332, 0.627242, 66.732, 0.00181356, -101.146
1, 2220.00000, 127.894, -30.1647, 127.848, -150.258, 127.69, 89.8059, 0, 0, 0.626242, -53.2386, 0.626464, -173.332, 0.627242, 66.732, 0.00181356, -101.146
1, 2280.00000, 127.894, -30.1647, 127.848, -150.258, 127.69, 89.8059, 0, 0, 0.626242, -53.2386, 0.626464, -173.332, 0.627242, 66.732, 0.00181356, -101.146
1, 2340.00000, 127.894, -30.1647, 127.848, -150.258, 127.69, 89.8059, 0, 0, 0.626242, -53.2386, 0.626464, -173.332, 0.627242, 66.732, 0.00181356, -101.146
1, 2400.00000, 127.894, -30.1647, 127.848, -150.258, 127.69, 89.8059, 0, 0, 0.626242, -53.2386, 0.626464, -173.332, 0.627242, 66.732, 0.00181356, -101.146
1, 2460.00000, 127.894, -30.1647, 127.848, -150.258, 127.69, 89.8059, 0, 0, 0.626242, -53.2386, 0.626464, -173.332, 0.627242, 66.732, 0.00181356, -101.146
1, 2520.00000, 127.894, -30.1647, 127.848, -150.258, 127.69, 89.8059, 0, 0, 0.626242, -53.2386, 0.626464, -173.332, 0.627242, 66.732, 0.00181356, -101.146
1, 2580.00000, 127.894, -30.1647, 127.848, -150.258, 127.69, 89.8059, 0, 0, 0.626242, -53.2386, 0.626464, -173.332, 0.627242, 66.732, 0.00181356, -101.146
1, 2640.00000, 127.894, -30.1647, 127.848, -150.258, 127.69, 89.8059, 0, 0, 0.626242, -53.2386, 0.626464, -173.332, 0.627242, 66.732, 0.00181356, -101.146
1, 2700.00000, 127.894, -30.1647, 127.848, -150.258, 127.69, 89.8059, 0, 0, 0.626242, -53.2386, 0.626464, -173.332, 0.627242, 66.732, 0.00181356, -101.146
1, 2760.00000, 127.913, -30.1566, 127.868, -150.25, 127.709, 89.814, 0, 0, 0.620581, -53.2306, 0.620801, -173.324, 0.621572, 66.74, 0.00179722, -101.137
1, 2820.00000, 127.913, -30.1566, 127.868, -150.25, 127.709, 89.814, 0, 0, 0.62058, -53.2305, 0.6208, -173.324, 0.621571, 66.7401, 0.00179654, -101.137
1, 2880.00000, 127.913, -30.1566, 127.868, -150.25, 127.709, 89.814, 0, 0, 0.62058, -53.2305, 0.6208, -173.324, 0.621571, 66.7401, 0.00179654, -101.137
1, 2940.00000, 127.913, -30.1566, 127.868, -150.25, 127.709, 89.814, 0, 0, 0.62058, -53.2305, 0.6208, -173.324, 0.621571, 66.7401, 0.00179654, -101.137
1, 3000.00000, 127.913, -30.1566, 127.868, -150.25, 127.709, 89.814, 0, 0, 0.62058, -53.2305, 0.6208, -173.324, 0.621571, 66.7401, 0.00179654, -101.137
1, 3060.00000, 127.913, -30.1566, 127.868, -150.25, 127.709, 89.814, 0, 0, 0.62058, -53.2305, 0.6208, -173.324, 0.621571, 66.7401, 0.00179654, -101.137
1, 3120.00000, 127.913, -30.1566, 127.868, -150.25, 127.709, 89.814, 0, 0, 0.62058, -53.2305, 0.6208, -173.324, 0.621571, 66.7401, 0.00179654, -101.137
1, 3180.00000, 127.913, -30.1566, 127.868, -150.25, 127.709, 89.814, 0, 0, 0.62058, -53.2305, 0.6208, -173.324, 0.621571, 66.7401, 0.00179654, -101.137
1, 3240.00000, 127.913, -30.1566, 127.868, -150.25, 127.709, 89.814, 0, 0, 0.62058, -53.2305, 0.6208, -173.324, 0.621571, 66.7401, 0.00179654, -101.137
1, 3300.00000, 127.913, -30.1566, 127.868, -150.25, 127.709, 89.814, 0, 0, 0.62058, -53.2305, 0.6208, -173.324, 0.621571, 66.7401, 0.00179654, -101.137
1, 3360.00000, 127.913, -30.1566, 127.868, -150.25, 127.709, 89.814, 0, 0, 0.62058, -53.2305, 0.6208, -173.324, 0.621571, 66.7401, 0.00179654, -101.137
1, 3420.00000, 127.913, -30.1566, 127.868, -150.25, 127.709, 89.814, 0, 0, 0.62058, -53.2305, 0.6208, -173.324, 0.621571, 66.7401, 0.00179654, -101.137
1, 3480.00000, 127.913, -30.1566, 127.868, -150.25, 127.709, 89.814, 0, 0, 0.62058, -53.2305, 0.6208, -173.324, 0.621571, 66.7401, 0.00179654, -101.137
1, 3540.00000, 127.913, -30.1566, 127.868, -150.25, 127.709, 89.814, 0, 0, 0.62058, -53.2305, 0.6208, -173.324, 0.621571, 66.7401, 0.00179654, -101.137
2, 0.00000, 127.913, -30.1566, 127.868, -150.25, 127.709, 89.814, 0, 0, 0.62058, -53.2305, 0.6208, -173.324, 0.621571, 66.7401, 0.00179654, -101.137
2, 60.00000, 127.905, -30.1601, 127.859, -150.253, 127.701, 89.8105, 0, 0, 0.605886, -53.234, 0.606101, -173.327, 0.606853, 66.7366, 0.0017539, -101.139
2, 120.00000, 127.905, -30.1601, 127.859, -150.253, 127.701, 89.8105, 0, 0, 0.605886, -53.234, 0.606101, -173.327, 0.606853, 66.7366, 0.00175418, -101.139
2, 180.00000, 127.905, -30.1601, 127.859, -150.253, 127.701, 89.8105, 0, 0, 0.605886, -53.234, 0.606101, -173.327, 0.606853, 66.7366, 0.00175418, -101.139
2, 240.00000, 127.905, -30.1601, 127.859, -150.253, 127.701, 89.8105, 0, 0, 0.605886, -53.234, 0.606101, -173.327, 0.606853, 66.7366, 0.00175418, -101.139
2, 300.00000, 127.905, -30.1601, 127.859, -150.253, 127.701, 89.8105, 0, 0, 0.605886, -53.234, 0.606101, -173.327, 0.606853, 66.7366, 0.00175418, -101.139
2, 360.00000, 127.905, -30.1601, 127.859, -150.253, 127.701, 89.8105, 0, 0, 0.605886, -53.234, 0.606101, -173.327, 0.606853, 66.7366, 0.00175418, -101.139
2, 420.00000, 127.905, -30.1601, 127.859, -150.253, 127.701, 89.8105, 0, 0, 0.605886, -53.234, 0.606101, -173.327, 0.606853, 66.7366, 0.00175418, -101.139
2, 480.00000, 127.905, -30.1601, 127.859, -150.253, 127.701, 89.8105, 0, 0, 0.605886, -53.234, 0.606101, -173.327, 0.606853, 66.7366, 0.00175418, -101.139
