hour,t(sec),V1,VAngle1,V2,VAngle2,V3,VAngle3,V4,VAngle4,I1,IAngle1,I2,IAngle2,I3,IAngle3,I4,IAngle4
0, 60.00000, 128.329, -30.6105, 127.758, -150.213, 128.834, 89.8158, 0, 0, 2.76428, -53.6841, 2.77665, -173.287, 2.75347, 66.7421, 0.0399802, 33.749
0, 120.00000, 128.335, -30.6151, 127.758, -150.213, 128.846, 89.8158, 0, 0, 2.76415, -53.6887, 2.77665, -173.287, 2.75321, 66.7421, 0.0404273, 33.788
0, 180.00000, 128.34, -30.6192, 127.758, -150.213, 128.857, 89.8158, 0, 0, 2.76404, -53.6929, 2.77665, -173.287, 2.75297, 66.7421, 0.04083, 33.823
0, 240.00000, 128.345, -30.623, 127.758, -150.213, 128.867, 89.8158, 0, 0, 2.76394, -53.6967, 2.77665, -173.287, 2.75276, 66.742, 0.0411925, 33.8545
0, 300.00000, 128.349, -30.6264, 127.758, -150.213, 128.876, 89.8158, 0, 0, 2.76385, -53.7001, 2.77665, -173.287, 2.75257, 66.742, 0.0415189, 33.8829
0, 360.00000, 128.353, -30.6294, 127.758, -150.213, 128.884, 89.8157, 0, 0, 2.76377, -53.7031, 2.77665, -173.287, 2.7524, 66.742, 0.0418128, 33.9085
0, 420.00000, 128.356, -30.6321, 127.758, -150.213, 128.891, 89.8157, 0, 0, 2.76369, -53.7059, 2.77665, -173.287, 2.75224, 66.7419, 0.0420773, 33.9315
0, 480.00000, 128.359, -30.6346, 127.758, -150.213, 128.897, 89.8157, 0, 0, 2.76363, -53.7084, 2.77665, -173.287, 2.75211, 66.7419, 0.0423154, 33.9522
0, 540.00000, 128.362, -30.6368, 127.758, -150.213, 128.903, 89.8157, 0, 0, 2.76357, -53.7106, 2.77665, -173.287, 2.75198, 66.7419, 0.0425297, 33.9708
0, 600.00000, 128.365, -30.6388, 127.758, -150.213, 128.908, 89.8157, 0, 0, 2.76352, -53.7126, 2.77665, -173.287, 2.75187, 66.7418, 0.0427227, 33.9876
0, 660.00000, 128.367, -30.6406, 127.758, -150.213, 128.913, 89.8157, 0, 0, 2.76347, -53.7144, 2.77665, -173.287, 2.75177, 66.7418, 0.0428963, 34.0027
0, 720.00000, 128.369, -30.6422, 127.758, -150.213, 128.917, 89.8156, 0, 0, 2.76342, -53.7161, 2.77665, -173.287, 2.75168, 66.7418, 0.0430527, 34.0163
0, 780.00000, 128.371, -30.6437, 127.758, -150.213, 128.921, 89.8156, 0, 0, 2.76339, -53.7175, 2.77665, -173.287, 2.7516, 66.7418, 0.0431934, 34.0286
0, 840.00000, 128.372, -30.645, 127.758, -150.213, 128.925, 89.8156, 0, 0, 2.76335, -53.7189, 2.77665, -173.287, 2.75152, 66.7417, 0.04332, 34.0396
0, 900.00000, 128.374, -30.6462, 127.758, -150.213, 128.928, 89.8156, 0, 0, 2.76332, -53.7201, 2.77665, -173.287, 2.75146, 66.7417, 0.043434, 34.0495
0, 960.00000, 128.286, -30.7542, 127.516, -150.254, 128.899, 89.8022, 0, 0, 2.94737, -53.828, 2.96517, -173.328, 2.93335, 66.7284, 0.0549154, 31.9878
0, 1020.00000, 128.287, -30.7551, 127.516, -150.254, 128.902, 89.8022, 0, 0, 2.94735, -53.829, 2.96517, -173.328, 2.93329, 66.7283, 0.0550136, 31.9989
0, 1080.00000, 128.288, -30.756, 127.516, -150.254, 128.904, 89.8022, 0, 0, 2.94732, -53.8299, 2.96517, -173.328, 2.93324, 66.7283, 0.0551021, 32.0089
0, 1140.00000, 128.289, -30.7568, 127.516, -150.254, 128.906, 89.8022, 0, 0, 2.9473, -53.8306, 2.96517, -173.328, 2.9332, 66.7283, 0.0551817, 32.018
0, 1200.00000, 128.29, -30.7575, 127.516, -150.254, 128.908, 89.8022, 0, 0, 2.94728, -53.8313, 2.96517, -173.328, 2.93315, 66.7283, 0.0552534, 32.0261
0, 1260.00000, 128.291, -30.7581, 127.516, -150.254, 128.91, 89.8021, 0, 0, 2.94727, -53.832, 2.96517, -173.328, 2.93312, 66.7283, 0.0553179, 32.0335
0, 1320.00000, 128.291, -30.7587, 127.516, -150.254, 128.911, 89.8021, 0, 0, 2.94725, -53.8326, 2.96517, -173.328, 2.93308, 66.7282, 0.0553759, 32.0401
0, 1380.00000, 128.292, -30.7592, 127.516, -150.254, 128.912, 89.8021, 0, 0, 2.94724, -53.8331, 2.96517, -173.328, 2.93305, 66.7282, 0.0554282, 32.046
0, 1440.00000, 128.292, -30.7596, 127.516, -150.254, 128.914, 89.8021, 0, 0, 2.94722, -53.8335, 2.96518, -173.328, 2.93302, 66.7282, 0.0554752, 32.0513
0, 1500.00000, 128.293, -30.7601, 127.516, -150.254, 128.915, 89.8021, 0, 0, 2.94721, -53.834, 2.96518, -173.328, 2.933, 66.7282, 0.0555175, 32.0561
0, 1560.00000, 128.293, -30.7604, 127.516, -150.254, 128.916, 89.8021, 0, 0, 2.9472, -53.8343, 2.96518, -173.328, 2.93298, 66.7282, 0.0555556, 32.0604
0, 1620.00000, 128.294, -30.7608, 127.516, -150.254, 128.916, 89.8021, 0, 0, 2.94719, -53.8347, 2.96518, -173.328, 2.93296, 66.7282, 0.0555899, 32.0643
0, 1680.00000, 128.294, -30.7611, 127.516, -150.254, 128.917, 89.8021, 0, 0, 2.94718, -53.835, 2.96518, -173.328, 2.93294, 66.7282, 0.0556208, 32.0678
0, 1740.00000, 128.294, -30.7613, 127.516, -150.254, 128.918, 89.8021, 0, 0, 2.94718, -53.8352, 2.96518, -173.328, 2.93292, 66.7282, 0.0556486, 32.071
0, 1800.00000, 128.295, -30.7616, 127.516, -150.254, 128.919, 89.8021, 0, 0, 2.94717, -53.8355, 2.96518, -173.328, 2.93291, 66.7282, 0.0556736, 32.0738
0, 1860.00000, 128.295, -30.7621, 127.516, -150.254, 128.919, 89.8018, 0, 0, 2.84723, -53.836, 2.86463, -173.328, 2.83344, 66.7279, 0.0538084, 32.0765
0, 1920.00000, 128.295, -30.7623, 127.516, -150.254, 128.92, 89.8018, 0, 0, 2.84722, -53.8362, 2.86463, -173.328, 2.83343, 66.7279, 0.0538279, 32.0788
0, 1980.00000, 128.296, -30.7625, 127.516, -150.254, 128.92, 89.8018, 0, 0, 2.84722, -53.8364, 2.86463, -173.328, 2.83342, 66.7279, 0.0538455, 32.0809
0, 2040.00000, 128.296, -30.7626, 127.516, -150.254, 128.921, 89.8018, 0, 0, 2.84722, -53.8365, 2.86463, -173.328, 2.83341, 66.7279, 0.0538614, 32.0827
0, 2100.00000, 128.296, -30.7628, 127.516, -150.254, 128.921, 89.8018, 0, 0, 2.84721, -53.8367, 2.86463, -173.328, 2.83341, 66.7279, 0.0538756, 32.0844
0, 2160.00000, 128.296, -30.7629, 127.516, -150.254, 128.922, 89.8018, 0, 0, 2.84721, -53.8368, 2.86463, -173.328, 2.8334, 66.7279, 0.0538885, 32.0859
0, 2220.00000, 128.296, -30.763, 127.516, -150.254, 128.922, 89.8018, 0, 0, 2.84721, -53.8369, 2.86463, -173.328, 2.83339, 66.7279, 0.0539, 32.0872
0, 2280.00000, 128.296, -30.7631, 127.516, -150.254, 128.922, 89.8018, 0, 0, 2.8472, -53.837, 2.86463, -173.328, 2.83339, 66.7279, 0.0539104, 32.0885
0, 2340.00000, 128.297, -30.7632, 127.516, -150.254, 128.922, 89.8018, 0, 0, 2.8472, -53.8371, 2.86463, -173.328, 2.83338, 66.7279, 0.0539198, 32.0896
0, 2400.00000, 128.297, -30.7633, 127.516, -150.254, 128.923, 89.8018, 0, 0, 2.8472, -53.8372, 2.86463, -173.328, 2.83338, 66.7279, 0.0539282, 32.0905
0, 2460.00000, 128.357, -30.6669, 127.729, -150.225, 128.925, 89.8045, 0, 0, 2.84587, -53.7408, 2.85984, -173.299, 2.83333, 66.7306, 0.0456945, 34.121
0, 2520.00000, 128.357, -30.667, 127.729, -150.225, 128.925, 89.8045, 0, 0, 2.84587, -53.7409, 2.85984, -173.299, 2.83332, 66.7306, 0.0457014, 34.1217
0, 2580.00000, 128.357, -30.6671, 127.729, -150.225, 128.925, 89.8045, 0, 0, 2.84586, -53.741, 2.85984, -173.299, 2.83332, 66.7306, 0.0457075, 34.1222
0, 2640.00000, 128.357, -30.6671, 127.729, -150.225, 128.925, 89.8045, 0, 0, 2.84586, -53.741, 2.85984, -173.299, 2.83332, 66.7306, 0.045713, 34.1227
0, 2700.00000, 128.357, -30.6672, 127.729, -150.225, 128.925, 89.8045, 0, 0, 2.84586, -53.7411, 2.85984, -173.299, 2.83331, 66.7306, 0.045718, 34.1231
0, 2760.00000, 128.383, -30.658, 127.754, -150.215, 128.951, 89.8139, 0, 0, 2.74518, -53.7319, 2.75869, -173.289, 2.73309, 66.74, 0.0441303, 34.1337
0, 2820.00000, 128.383, -30.6581, 127.754, -150.215, 128.951, 89.8139, 0, 0, 2.74518, -53.732, 2.75869, -173.289, 2.73309, 66.74, 0.0441343, 34.1343
0, 2880.00000, 128.383, -30.6581, 127.754, -150.215, 128.951, 89.8139, 0, 0, 2.74518, -53.732, 2.75869, -173.289, 2.73309, 66.74, 0.0441378, 34.1346
0, 2940.00000, 128.383, -30.6581, 127.754, -150.215, 128.951, 89.8139, 0, 0, 2.74518, -53.732, 2.75869, -173.289, 2.73308, 66.74, 0.0441409, 34.1348
0, 3000.00000, 128.383, -30.6582, 127.754, -150.215, 128.951, 89.8139, 0, 0, 2.74518, -53.7321, 2.75869, -173.289, 2.73308, 66.74, 0.0441438, 34.1351
0, 3060.00000, 128.383, -30.6582, 127.754, -150.215, 128.951, 89.8139, 0, 0, 2.74518, -53.7321, 2.75869, -173.289, 2.73308, 66.74, 0.0441463, 34.1353
0, 3120.00000, 128.383, -30.6582, 127.754, -150.215, 128.951, 89.8139, 0, 0, 2.74518, -53.7321, 2.75869, -173.289, 2.73308, 66.74, 0.0441486, 34.1355
0, 3180.00000, 128.383, -30.6582, 127.754, -150.215, 128.951, 89.8139, 0, 0, 2.74518, -53.7321, 2.75869, -173.289, 2.73308, 66.74, 0.0441507, 34.1357
0, 3240.00000, 128.383, -30.6582, 127.754, -150.215, 128.951, 89.8139, 0, 0, 2.74517, -53.7322, 2.75869, -173.289, 2.73308, 66.74, 0.0441526, 34.1359
0, 3300.00000, 128.383, -30.6583, 127.754, -150.215, 128.951, 89.8139, 0, 0, 2.74517, -53.7322, 2.75869, -173.289, 2.73308, 66.74, 0.0441542, 34.136
0, 3360.00000, 128.383, -30.6583, 127.754, -150.215, 128.951, 89.8139, 0, 0, 2.74517, -53.7322, 2.75869, -173.289, 2.73308, 66.74, 0.0441557, 34.1361
0, 3420.00000, 128.383, -30.6583, 127.754, -150.215, 128.951, 89.8139, 0, 0, 2.74517, -53.7322, 2.75869, -173.289, 2.73307, 66.74, 0.0441571, 34.1363
0, 3480.00000, 128.383, -30.6583, 127.754, -150.215, 128.951, 89.8139, 0, 0, 2.74517, -53.7322, 2.75869, -173.289, 2.73307, 66.74, 0.0441583, 34.1364
0, 3540.00000, 128.383, -30.6583, 127.754, -150.215, 128.951, 89.8139, 0, 0, 2.74517, -53.7322, 2.75869, -173.289, 2.73307, 66.74, 0.0441594, 34.1365
1, 0.00000, 128.383, -30.6583, 127.754, -150.215, 128.951, 89.8139, 0, 0, 2.74517, -53.7322, 2.75869, -173.289, 2.73307, 66.74, 0.0441604, 34.1365
1, 60.00000, 128.389, -30.6563, 127.759, -150.213, 128.957, 89.816, 0, 0, 2.72711, -53.7302, 2.74055, -173.287, 2.7151, 66.7421, 0.0438764, 34.1389
1, 120.00000, 128.389, -30.6563, 127.759, -150.213, 128.957, 89.816, 0, 0, 2.72711, -53.7302, 2.74055, -173.287, 2.7151, 66.7421, 0.0438773, 34.139
1, 180.00000, 128.389, -30.6563, 127.759, -150.213, 128.957, 89.816, 0, 0, 2.72711, -53.7302, 2.74055, -173.287, 2.7151, 66.7421, 0.043878, 34.1391
1, 240.00000, 128.389, -30.6563, 127.759, -150.213, 128.957, 89.816, 0, 0, 2.72711, -53.7302, 2.74055, -173.287, 2.71509, 66.7421, 0.0438786, 34.1391
1, 300.00000, 128.389, -30.6563, 127.759, -150.213, 128.957, 89.816, 0, 0, 2.72711, -53.7302, 2.74055, -173.287, 2.71509, 66.7421, 0.0438792, 34.1392
1, 360.00000, 128.389, -30.6563, 127.759, -150.213, 128.957, 89.816, 0, 0, 2.72711, -53.7302, 2.74055, -173.287, 2.71509, 66.7421, 0.0438797, 34.1392
1, 420.00000, 128.389, -30.6563, 127.759, -150.213, 128.957, 89.816, 0, 0, 2.72711, -53.7302, 2.74055, -173.287, 2.71509, 66.7421, 0.0438802, 34.1393
1, 480.00000, 128.389, -30.6563, 127.759, -150.213, 128.957, 89.816, 0, 0, 2.72711, -53.7302, 2.74055, -173.287, 2.71509, 66.7421, 0.0438806, 34.1393
1, 540.00000, 128.389, -30.6563, 127.759, -150.213, 128.957, 89.816, 0, 0, 2.72711, -53.7302, 2.74055, -173.287, 2.71509, 66.7421, 0.043881, 34.1394
1, 600.00000, 128.389, -30.6563, 127.759, -150.213, 128.957, 89.816, 0, 0, 2.72711, -53.7302, 2.74055, -173.287, 2.71509, 66.7421, 0.0438813, 34.1394
1, 660.00000, 128.389, -30.6563, 127.759, -150.213, 128.957, 89.816, 0, 0, 2.72711, -53.7302, 2.74055, -173.287, 2.71509, 66.7421, 0.0438816, 34.1394
1, 720.00000, 128.389, -30.6563, 127.759, -150.213, 128.957, 89.816, 0, 0, 2.72711, -53.7302, 2.74055, -173.287, 2.71509, 66.7421, 0.0438819, 34.1394
1, 780.00000, 128.389, -30.6563, 127.759, -150.213, 128.957, 89.816, 0, 0, 2.72711, -53.7302, 2.74055, -173.287, 2.71509, 66.7421, 0.0438822, 34.1395
1, 840.00000, 128.389, -30.6563, 127.759, -150.213, 128.957, 89.816, 0, 0, 2.72711, -53.7302, 2.74055, -173.287, 2.71509, 66.7421, 0.0438824, 34.1395
1, 900.00000, 128.389, -30.6563, 127.759, -150.213, 128.957, 89.816, 0, 0, 2.72711, -53.7302, 2.74055, -173.287, 2.71509, 66.7421, 0.0438826, 34.1395
1, 960.00000, 128.391, -30.6555, 127.761, -150.212, 128.959, 89.8168, 0, 0, 2.73419, -53.7295, 2.74766, -173.286, 2.72214, 66.7429, 0.0439986, 34.1403
1, 1020.00000, 128.391, -30.6555, 127.761, -150.212, 128.959, 89.8168, 0, 0, 2.73419, -53.7295, 2.74766, -173.286, 2.72214, 66.7429, 0.0439988, 34.1403
1, 1080.00000, 128.391, -30.6555, 127.761, -150.212, 128.959, 89.8168, 0, 0, 2.73419, -53.7295, 2.74766, -173.286, 2.72214, 66.7429, 0.0439989, 34.1403
1, 1140.00000, 128.391, -30.6555, 127.761, -150.212, 128.959, 89.8168, 0, 0, 2.73419, -53.7295, 2.74766, -173.286, 2.72214, 66.7429, 0.0439991, 34.1403
1, 1200.00000, 128.391, -30.6555, 127.761, -150.212, 128.959, 89.8168, 0, 0, 2.73419, -53.7295, 2.74766, -173.286, 2.72214, 66.7429, 0.0439992, 34.1403
1, 1260.00000, 128.391, -30.6555, 127.761, -150.212, 128.959, 89.8168, 0, 0, 2.73419, -53.7295, 2.74766, -173.286, 2.72214, 66.7429, 0.0439993, 34.1404
1, 1320.00000, 128.391, -30.6555, 127.761, -150.212, 128.959, 89.8168, 0, 0, 2.73419, -53.7295, 2.74766, -173.286, 2.72214, 66.7429, 0.0439994, 34.1404
1, 1380.00000, 128.391, -30.6555, 127.761, -150.212, 128.959, 89.8168, 0, 0, 2.73419, -53.7295, 2.74766, -173.286, 2.72214, 66.7429, 0.0439995, 34.1404
1, 1440.00000, 128.391, -30.6555, 127.761, -150.212, 128.959, 89.8168, 0, 0, 2.73419, -53.7295, 2.74766, -173.286, 2.72214, 66.7429, 0.0439996, 34.1404
1, 1500.00000, 128.391, -30.6556, 127.761, -150.212, 128.959, 89.8168, 0, 0, 2.73419, -53.7295, 2.74766, -173.286, 2.72214, 66.7429, 0.0439996, 34.1404
1, 1560.00000, 128.391, -30.6556, 127.761, -150.212, 128.959, 89.8168, 0, 0, 2.73419, -53.7295, 2.74766, -173.286, 2.72214, 66.7429, 0.0439997, 34.1404
1, 1620.00000, 128.391, -30.6556, 127.761, -150.212, 128.959, 89.8168, 0, 0, 2.73419, -53.7295, 2.74766, -173.286, 2.72214, 66.7429, 0.0439998, 34.1404
1, 1680.00000, 128.391, -30.6556, 127.761, -150.212, 128.959, 89.8168, 0, 0, 2.73419, -53.7295, 2.74766, -173.286, 2.72214, 66.7429, 0.0439998, 34.1404
1, 1740.00000, 128.391, -30.6556, 127.761, -150.212, 128.959, 89.8168, 0, 0, 2.73419, -53.7295, 2.74766, -173.286, 2.72214, 66.7429, 0.0439999, 34.1404
1, 1800.00000, 128.391, -30.6556, 127.761, -150.212, 128.959, 89.8168, 0, 0, 2.73419, -53.7295, 2.74766, -173.286, 2.72214, 66.7429, 0.0439999, 34.1404
1, 1860.00000, 128.38, -30.6597, 127.751, -150.216, 128.948, 89.8126, 0, 0, 2.74715, -53.7336, 2.76068, -173.29, 2.73504, 66.7386, 0.0441974, 34.136
1, 1920.00000, 128.38, -30.6597, 127.751, -150.216, 128.948, 89.8126, 0, 0, 2.74715, -53.7336, 2.76068, -173.29, 2.73504, 66.7386, 0.0441974, 34.1359
1, 1980.00000, 128.38, -30.6597, 127.751, -150.216, 128.948, 89.8126, 0, 0, 2.74715, -53.7336, 2.76068, -173.29, 2.73504, 66.7386, 0.0441975, 34.1359
1, 2040.00000, 128.38, -30.6597, 127.751, -150.216, 128.948, 89.8126, 0, 0, 2.74715, -53.7336, 2.76068, -173.29, 2.73504, 66.7386, 0.0441975, 34.1359
1, 2100.00000, 128.38, -30.6597, 127.751, -150.216, 128.948, 89.8126, 0, 0, 2.74715, -53.7336, 2.76068, -173.29, 2.73504, 66.7386, 0.0441975, 34.1359
1, 2160.00000, 128.38, -30.6597, 127.751, -150.216, 128.948, 89.8126, 0, 0, 2.74715, -53.7336, 2.76068, -173.29, 2.73504, 66.7386, 0.0441975, 34.1359
1, 2220.00000, 128.38, -30.6597, 127.751, -150.216, 128.948, 89.8126, 0, 0, 2.74715, -53.7336, 2.76068, -173.29, 2.73504, 66.7386, 0.0441976, 34.1359
1, 2280.00000, 128.38, -30.6597, 127.751, -150.216, 128.948, 89.8126, 0, 0, 2.74715, -53.7336, 2.76068, -173.29, 2.73504, 66.7386, 0.0441976, 34.1359
1, 2340.00000, 128.38, -30.6597, 127.751, -150.216, 128.948, 89.8126, 0, 0, 2.74715, -53.7336, 2.76068, -173.29, 2.73504, 66.7386, 0.0441976, 34.1359
1, 2400.00000, 128.38, -30.6597, 127.751, -150.216, 128.948, 89.8126, 0, 0, 2.74715, -53.7336, 2.76068, -173.29, 2.73504, 66.7386, 0.0441976, 34.1359
1, 2460.00000, 128.38, -30.6597, 127.751, -150.216, 128.948, 89.8126, 0, 0, 2.74715, -53.7336, 2.76068, -173.29, 2.73504, 66.7386, 0.0441976, 34.1359
1, 2520.00000, 128.38, -30.6597, 127.751, -150.216, 128.948, 89.8126, 0, 0, 2.74715, -53.7336, 2.76068, -173.29, 2.73504, 66.7386, 0.0441976, 34.1359
1, 2580.00000, 128.38, -30.6597, 127.751, -150.216, 128.948, 89.8126, 0, 0, 2.74715, -53.7336, 2.76068, -173.29, 2.73504, 66.7386, 0.0441976, 34.1359
1, 2640.00000, 128.38, -30.6597, 127.751, -150.216, 128.948, 89.8126, 0, 0, 2.74715, -53.7336, 2.76068, -173.29, 2.73504, 66.7386, 0.0441977, 34.1359
1, 2700.00000, 128.38, -30.6597, 127.751, -150.216, 128.948, 89.8126, 0, 0, 2.74715, -53.7336, 2.76068, -173.29, 2.73504, 66.7386, 0.0441977, 34.1359
1, 2760.00000, 128.407, -30.6496, 127.777, -150.206, 128.975, 89.8229, 0, 0, 2.72215, -53.7235, 2.73557, -173.279, 2.71016, 66.749, 0.0438222, 34.1466
1, 2820.00000, 128.407, -30.6496, 127.777, -150.206, 128.975, 89.8229, 0, 0, 2.72215, -53.7235, 2.73557, -173.279, 2.71016, 66.749, 0.0438223, 34.1469
1, 2880.00000, 128.407, -30.6496, 127.777, -150.206, 128.975, 89.8229, 0, 0, 2.72215, -53.7235, 2.73557, -173.279, 2.71016, 66.749, 0.0438223, 34.1469
1, 2940.00000, 128.407, -30.6496, 127.777, -150.206, 128.975, 89.8229, 0, 0, 2.72215, -53.7235, 2.73557, -173.279, 2.71016, 66.749, 0.0438223, 34.1469
1, 3000.00000, 128.407, -30.6496, 127.777, -150.206, 128.975, 89.8229, 0, 0, 2.72215, -53.7235, 2.73557, -173.279, 2.71016, 66.749, 0.0438223, 34.1469
1, 3060.00000, 128.407, -30.6496, 127.777, -150.206, 128.975, 89.8229, 0, 0, 2.72215, -53.7235, 2.73557, -173.279, 2.71016, 66.749, 0.0438223, 34.1469
1, 3120.00000, 128.407, -30.6496, 127.777, -150.206, 128.975, 89.8229, 0, 0, 2.72215, -53.7235, 2.73557, -173.279, 2.71016, 66.749, 0.0438223, 34.1469
1, 3180.00000, 128.407, -30.6496, 127.777, -150.206, 128.975, 89.8229, 0, 0, 2.72215, -53.7235, 2.73557, -173.279, 2.71016, 66.749, 0.0438223, 34.1469
1, 3240.00000, 128.407, -30.6496, 127.777, -150.206, 128.975, 89.8229, 0, 0, 2.72215, -53.7235, 2.73557, -173.279, 2.71016, 66.749, 0.0438223, 34.1469
1, 3300.00000, 128.407, -30.6496, 127.777, -150.206, 128.975, 89.8229, 0, 0, 2.72215, -53.7235, 2.73557, -173.279, 2.71016, 66.749, 0.0438223, 34.1469
1, 3360.00000, 128.407, -30.6496, 127.777, -150.206, 128.975, 89.8229, 0, 0, 2.72215, -53.7235, 2.73557, -173.279, 2.71016, 66.749, 0.0438223, 34.1469
1, 3420.00000, 128.407, -30.6496, 127.777, -150.206, 128.975, 89.8229, 0, 0, 2.72215, -53.7235, 2.73557, -173.279, 2.71016, 66.749, 0.0438223, 34.1469
1, 3480.00000, 128.407, -30.6496, 127.777, -150.206, 128.975, 89.8229, 0, 0, 2.72215, -53.7235, 2.73557, -173.279, 2.71016, 66.749, 0.0438223, 34.1469
1, 3540.00000, 128.407, -30.6496, 127.777, -150.206, 128.975, 89.8229, 0, 0, 2.72215, -53.7235, 2.73557, -173.279, 2.71016, 66.749, 0.0438223, 34.1469
2, 0.00000, 128.407, -30.6496, 127.777, -150.206, 128.975, 89.8229, 0, 0, 2.72215, -53.7235, 2.73557, -173.279, 2.71016, 66.749, 0.0438223, 34.1469
2, 60.00000, 128.396, -30.6538, 127.767, -150.21, 128.965, 89.8186, 0, 0, 2.65774, -53.7277, 2.67084, -173.284, 2.64603, 66.7447, 0.0427755, 34.1429
2, 120.00000, 128.396, -30.6538, 127.767, -150.21, 128.965, 89.8186, 0, 0, 2.65774, -53.7277, 2.67084, -173.284, 2.64603, 66.7447, 0.0427755, 34.1428
2, 180.00000, 128.396, -30.6538, 127.767, -150.21, 128.965, 89.8186, 0, 0, 2.65774, -53.7277, 2.67084, -173.284, 2.64603, 66.7447, 0.0427755, 34.1428
2, 240.00000, 128.396, -30.6538, 127.767, -150.21, 128.965, 89.8186, 0, 0, 2.65774, -53.7277, 2.67084, -173.284, 2.64603, 66.7447, 0.0427755, 34.1428
2, 300.00000, 128.396, -30.6538, 127.767, -150.21, 128.965, 89.8186, 0, 0, 2.65774, -53.7277, 2.67084, -173.284, 2.64603, 66.7447, 0.0427755, 34.1428
2, 360.00000, 128.396, -30.6538, 127.767, -150.21, 128.965, 89.8186, 0, 0, 2.65774, -53.7277, 2.67084, -173.284, 2.64603, 66.7447, 0.0427755, 34.1428
2, 420.00000, 128.396, -30.6538, 127.767, -150.21, 128.965, 89.8186, 0, 0, 2.65774, -53.7277, 2.67084, -173.284, 2.64603, 66.7447, 0.0427755, 34.1428
2, 480.00000, 128.396, -30.6538, 127.767, -150.21, 128.965, 89.8186, 0, 0, 2.65774, -53.7277, 2.67084, -173.284, 2.64603, 66.7447, 0.0427755, 34.1428
2, 540.00000, 128.396, -30.6538, 127.767, -150.21, 128.965, 89.8186, 0, 0, 2.65774, -53.7277, 2.67084, -173.284, 2.64603, 66.7447, 0.0427755, 34.1428
2, 600.00000, 128.396, -30.6538, 127.767, -150.21, 128.965, 89.8186, 0, 0, 2.65774, -53.7277, 2.67084, -173.284, 2.64603, 66.7447, 0.0427755, 34.1428
2, 660.00000, 128.396, -30.6538, 127.767, -150.21, 128.965, 89.8186, 0, 0, 2.65774, -53.7277, 2.67084, -173.284, 2.64603, 66.7447, 0.0427755, 34.1428
2, 720.00000, 128.396, -30.6538, 127.767, -150.21, 128.965, 89.8186, 0, 0, 2.65774, -53.7277, 2.67084, -173.284, 2.64603, 66.7447, 0.0427755, 34.1428
