hour,t(sec),V1,VAngle1,V2,VAngle2,V3,VAngle3,V4,VAngle4,I1,IAngle1,I2,IAngle2,I3,IAngle3,I4,IAngle4
0, 60.00000, 127.698, -31.3832, 127.542, -150.211, 129.878, 89.255, 0, 0, 6.99547, -54.457, 7.00405, -173.285, 6.87809, 66.1814, 0.245708, 62.9419
0, 120.00000, 127.699, -31.3969, 127.542, -150.211, 129.906, 89.2487, 0, 0, 6.9954, -54.4707, 7.00405, -173.284, 6.87664, 66.1751, 0.248598, 62.9497
0, 180.00000, 127.7, -31.4092, 127.542, -150.21, 129.93, 89.243, 0, 0, 6.99534, -54.483, 7.00404, -173.284, 6.87533, 66.1694, 0.251198, 62.9566
0, 240.00000, 127.702, -31.4203, 127.542, -150.21, 129.952, 89.2379, 0, 0, 6.99528, -54.4941, 7.00404, -173.284, 6.87416, 66.1643, 0.253539, 62.9627
0, 300.00000, 127.702, -31.4303, 127.542, -150.21, 129.972, 89.2333, 0, 0, 6.99523, -54.5041, 7.00404, -173.284, 6.87311, 66.1596, 0.255645, 62.9681
0, 360.00000, 127.703, -31.4392, 127.542, -150.209, 129.99, 89.2292, 0, 0, 6.99518, -54.5131, 7.00404, -173.283, 6.87216, 66.1555, 0.257542, 62.9729
0, 420.00000, 127.704, -31.4473, 127.542, -150.209, 130.006, 89.2255, 0, 0, 6.99514, -54.5211, 7.00404, -173.283, 6.8713, 66.1517, 0.259248, 62.9772
0, 480.00000, 127.705, -31.4546, 127.542, -150.209, 130.021, 89.2221, 0, 0, 6.99511, -54.5284, 7.00404, -173.283, 6.87053, 66.1484, 0.260784, 62.981
0, 540.00000, 127.705, -31.4611, 127.542, -150.209, 130.034, 89.2191, 0, 0, 6.99507, -54.535, 7.00404, -173.283, 6.86984, 66.1453, 0.262166, 62.9844
0, 600.00000, 127.706, -31.467, 127.542, -150.209, 130.046, 89.2164, 0, 0, 6.99504, -54.5409, 7.00404, -173.283, 6.86922, 66.1426, 0.26341, 62.9875
0, 660.00000, 127.707, -31.4723, 127.542, -150.209, 130.056, 89.2139, 0, 0, 6.99502, -54.5462, 7.00403, -173.282, 6.86866, 66.1401, 0.26453, 62.9902
0, 720.00000, 127.707, -31.4771, 127.542, -150.208, 130.066, 89.2117, 0, 0, 6.99499, -54.551, 7.00403, -173.282, 6.86816, 66.1379, 0.265538, 62.9926
0, 780.00000, 127.707, -31.4814, 127.542, -150.208, 130.074, 89.2097, 0, 0, 6.99497, -54.5553, 7.00403, -173.282, 6.8677, 66.1359, 0.266445, 62.9948
0, 840.00000, 127.708, -31.4853, 127.542, -150.208, 130.082, 89.208, 0, 0, 6.99495, -54.5592, 7.00403, -173.282, 6.86729, 66.1341, 0.267261, 62.9967
0, 900.00000, 127.708, -31.4888, 127.542, -150.208, 130.089, 89.2063, 0, 0, 6.99494, -54.5626, 7.00403, -173.282, 6.86693, 66.1325, 0.267996, 62.9985
0, 960.00000, 127.669, -31.4988, 127.505, -150.216, 130.059, 89.1972, 0, 0, 7.40199, -54.5726, 7.41151, -173.29, 7.26599, 66.1233, 0.284345, 63.0266
0, 1020.00000, 127.67, -31.5016, 127.505, -150.216, 130.065, 89.1959, 0, 0, 7.40198, -54.5755, 7.41151, -173.289, 7.26568, 66.122, 0.284975, 63.028
0, 1080.00000, 127.67, -31.5041, 127.505, -150.215, 130.07, 89.1947, 0, 0, 7.40196, -54.578, 7.41151, -173.289, 7.26539, 66.1208, 0.285541, 63.0291
0, 1140.00000, 127.67, -31.5064, 127.505, -150.215, 130.074, 89.1937, 0, 0, 7.40195, -54.5803, 7.41151, -173.289, 7.26514, 66.1198, 0.286051, 63.0302
0, 1200.00000, 127.67, -31.5085, 127.505, -150.215, 130.078, 89.1927, 0, 0, 7.40194, -54.5824, 7.41151, -173.289, 7.26491, 66.1188, 0.28651, 63.0312
0, 1260.00000, 127.67, -31.5103, 127.505, -150.215, 130.082, 89.1918, 0, 0, 7.40193, -54.5842, 7.41151, -173.289, 7.2647, 66.118, 0.286924, 63.032
0, 1320.00000, 127.67, -31.512, 127.505, -150.215, 130.085, 89.1911, 0, 0, 7.40192, -54.5859, 7.41151, -173.289, 7.26452, 66.1172, 0.287295, 63.0328
0, 1380.00000, 127.671, -31.5135, 127.505, -150.215, 130.088, 89.1904, 0, 0, 7.40192, -54.5874, 7.41151, -173.289, 7.26435, 66.1165, 0.28763, 63.0335
0, 1440.00000, 127.671, -31.5148, 127.505, -150.215, 130.091, 89.1898, 0, 0, 7.40191, -54.5887, 7.41151, -173.289, 7.2642, 66.1159, 0.287931, 63.0341
0, 1500.00000, 127.671, -31.516, 127.505, -150.215, 130.094, 89.1892, 0, 0, 7.4019, -54.5899, 7.41151, -173.289, 7.26406, 66.1153, 0.288202, 63.0347
0, 1560.00000, 127.671, -31.5171, 127.505, -150.215, 130.096, 89.1887, 0, 0, 7.4019, -54.591, 7.41151, -173.289, 7.26394, 66.1148, 0.288446, 63.0352
0, 1620.00000, 127.671, -31.5181, 127.505, -150.215, 130.098, 89.1882, 0, 0, 7.40189, -54.592, 7.41151, -173.289, 7.26383, 66.1143, 0.288666, 63.0356
0, 1680.00000, 127.671, -31.519, 127.505, -150.215, 130.099, 89.1878, 0, 0, 7.40189, -54.5929, 7.41151, -173.289, 7.26373, 66.1139, 0.288864, 63.036
0, 1740.00000, 127.671, -31.5198, 127.505, -150.215, 130.101, 89.1875, 0, 0, 7.40188, -54.5937, 7.41151, -173.289, 7.26364, 66.1136, 0.289041, 63.0364
0, 1800.00000, 127.671, -31.5205, 127.505, -150.215, 130.103, 89.1871, 0, 0, 7.40188, -54.5944, 7.41151, -173.289, 7.26356, 66.1132, 0.289202, 63.0367
0, 1860.00000, 127.669, -31.5214, 127.504, -150.215, 130.102, 89.1865, 0, 0, 7.42447, -54.5954, 7.43412, -173.289, 7.28565, 66.1126, 0.290232, 63.0386
0, 1920.00000, 127.669, -31.522, 127.504, -150.215, 130.103, 89.1862, 0, 0, 7.42447, -54.5959, 7.43412, -173.289, 7.28559, 66.1123, 0.290362, 63.0388
0, 1980.00000, 127.669, -31.5225, 127.504, -150.215, 130.104, 89.186, 0, 0, 7.42446, -54.5965, 7.43412, -173.289, 7.28553, 66.1121, 0.290479, 63.0391
0, 2040.00000, 127.67, -31.523, 127.504, -150.215, 130.105, 89.1858, 0, 0, 7.42446, -54.5969, 7.43412, -173.289, 7.28547, 66.1119, 0.290584, 63.0393
0, 2100.00000, 127.67, -31.5234, 127.504, -150.215, 130.106, 89.1856, 0, 0, 7.42446, -54.5974, 7.43412, -173.289, 7.28543, 66.1117, 0.290679, 63.0395
0, 2160.00000, 127.67, -31.5238, 127.504, -150.215, 130.107, 89.1854, 0, 0, 7.42446, -54.5977, 7.43412, -173.289, 7.28538, 66.1115, 0.290764, 63.0396
0, 2220.00000, 127.67, -31.5242, 127.504, -150.215, 130.107, 89.1852, 0, 0, 7.42446, -54.5981, 7.43412, -173.289, 7.28535, 66.1113, 0.290841, 63.0398
0, 2280.00000, 127.67, -31.5245, 127.504, -150.215, 130.108, 89.1851, 0, 0, 7.42445, -54.5984, 7.43412, -173.289, 7.28531, 66.1112, 0.29091, 63.0399
0, 2340.00000, 127.67, -31.5248, 127.504, -150.215, 130.109, 89.185, 0, 0, 7.42445, -54.5987, 7.43412, -173.289, 7.28528, 66.1111, 0.290973, 63.0401
0, 2400.00000, 127.67, -31.525, 127.504, -150.215, 130.109, 89.1849, 0, 0, 7.42445, -54.5989, 7.43412, -173.289, 7.28525, 66.1109, 0.291028, 63.0402
0, 2460.00000, 127.67, -31.5252, 127.504, -150.215, 130.11, 89.1848, 0, 0, 7.42445, -54.5991, 7.43412, -173.289, 7.28523, 66.1108, 0.291079, 63.0403
0, 2520.00000, 127.67, -31.5254, 127.504, -150.215, 130.11, 89.1847, 0, 0, 7.42445, -54.5993, 7.43412, -173.289, 7.2852, 66.1107, 0.291124, 63.0404
0, 2580.00000, 127.67, -31.5256, 127.504, -150.215, 130.11, 89.1846, 0, 0, 7.42445, -54.5995, 7.43412, -173.289, 7.28518, 66.1107, 0.291165, 63.0405
0, 2640.00000, 127.67, -31.5258, 127.504, -150.215, 130.111, 89.1845, 0, 0, 7.42445, -54.5997, 7.43412, -173.289, 7.28517, 66.1106, 0.291202, 63.0405
0, 2700.00000, 127.67, -31.5259, 127.504, -150.215, 130.111, 89.1844, 0, 0, 7.42445, -54.5998, 7.43412, -173.289, 7.28515, 66.1105, 0.291235, 63.0406
0, 2760.00000, 127.705, -31.52, 127.537, -150.208, 130.143, 89.1912, 0, 0, 7.05978, -54.5939, 7.06909, -173.282, 6.92749, 66.1173, 0.276913, 63.0174
0, 2820.00000, 127.705, -31.5201, 127.537, -150.208, 130.144, 89.1912, 0, 0, 7.05978, -54.594, 7.06909, -173.282, 6.92748, 66.1173, 0.276938, 63.0175
0, 2880.00000, 127.705, -31.5202, 127.537, -150.208, 130.144, 89.1911, 0, 0, 7.05978, -54.5941, 7.06909, -173.282, 6.92747, 66.1172, 0.276961, 63.0175
0, 2940.00000, 127.705, -31.5203, 127.537, -150.208, 130.144, 89.1911, 0, 0, 7.05978, -54.5942, 7.06909, -173.282, 6.92746, 66.1172, 0.276982, 63.0176
0, 3000.00000, 127.705, -31.5204, 127.537, -150.208, 130.144, 89.191, 0, 0, 7.05978, -54.5943, 7.06909, -173.282, 6.92745, 66.1171, 0.277001, 63.0176
0, 3060.00000, 127.705, -31.5205, 127.537, -150.208, 130.144, 89.191, 0, 0, 7.05978, -54.5944, 7.06909, -173.282, 6.92744, 66.1171, 0.277017, 63.0177
0, 3120.00000, 127.705, -31.5205, 127.537, -150.208, 130.145, 89.191, 0, 0, 7.05978, -54.5944, 7.06909, -173.282, 6.92743, 66.1171, 0.277032, 63.0177
0, 3180.00000, 127.705, -31.5206, 127.537, -150.208, 130.145, 89.1909, 0, 0, 7.05978, -54.5945, 7.06909, -173.282, 6.92743, 66.117, 0.277046, 63.0177
0, 3240.00000, 127.705, -31.5206, 127.537, -150.208, 130.145, 89.1909, 0, 0, 7.05978, -54.5946, 7.06909, -173.282, 6.92742, 66.117, 0.277058, 63.0178
0, 3300.00000, 127.705, -31.5207, 127.537, -150.208, 130.145, 89.1909, 0, 0, 7.05978, -54.5946, 7.06909, -173.282, 6.92741, 66.117, 0.277069, 63.0178
0, 3360.00000, 127.705, -31.5207, 127.537, -150.208, 130.145, 89.1909, 0, 0, 7.05978, -54.5947, 7.06909, -173.282, 6.92741, 66.1169, 0.277079, 63.0178
0, 3420.00000, 127.705, -31.5208, 127.537, -150.208, 130.145, 89.1908, 0, 0, 7.05978, -54.5947, 7.06909, -173.282, 6.9274, 66.1169, 0.277088, 63.0178
0, 3480.00000, 127.705, -31.5208, 127.537, -150.208, 130.145, 89.1908, 0, 0, 7.05978, -54.5947, 7.06909, -173.282, 6.9274, 66.1169, 0.277096, 63.0178
0, 3540.00000, 127.705, -31.5209, 127.537, -150.208, 130.145, 89.1908, 0, 0, 7.05978, -54.5948, 7.06909, -173.282, 6.9274, 66.1169, 0.277103, 63.0179
1, 0.00000, 127.705, -31.5209, 127.537, -150.208, 130.145, 89.1908, 0, 0, 7.05978, -54.5948, 7.06909, -173.282, 6.92739, 66.1169, 0.277109, 63.0179
1, 60.00000, 127.713, -31.5195, 127.544, -150.207, 130.153, 89.1923, 0, 0, 6.97681, -54.5935, 6.98604, -173.281, 6.84602, 66.1184, 0.273848, 63.0126
1, 120.00000, 127.713, -31.5196, 127.544, -150.207, 130.153, 89.1923, 0, 0, 6.97681, -54.5935, 6.98604, -173.281, 6.84602, 66.1184, 0.273854, 63.0126
1, 180.00000, 127.713, -31.5196, 127.544, -150.207, 130.153, 89.1923, 0, 0, 6.97681, -54.5935, 6.98604, -173.281, 6.84602, 66.1184, 0.273858, 63.0126
1, 240.00000, 127.713, -31.5196, 127.544, -150.207, 130.153, 89.1923, 0, 0, 6.97681, -54.5935, 6.98604, -173.281, 6.84602, 66.1184, 0.273862, 63.0126
1, 300.00000, 127.713, -31.5196, 127.544, -150.207, 130.153, 89.1923, 0, 0, 6.97681, -54.5935, 6.98604, -173.281, 6.84601, 66.1184, 0.273866, 63.0126
1, 360.00000, 127.713, -31.5196, 127.544, -150.207, 130.153, 89.1923, 0, 0, 6.97681, -54.5936, 6.98604, -173.281, 6.84601, 66.1184, 0.27387, 63.0126
1, 420.00000, 127.713, -31.5196, 127.544, -150.207, 130.153, 89.1923, 0, 0, 6.97681, -54.5936, 6.98604, -173.281, 6.84601, 66.1184, 0.273873, 63.0127
1, 480.00000, 127.713, -31.5197, 127.544, -150.207, 130.153, 89.1923, 0, 0, 6.97681, -54.5936, 6.98604, -173.281, 6.84601, 66.1184, 0.273875, 63.0127
1, 540.00000, 127.713, -31.5197, 127.544, -150.207, 130.153, 89.1923, 0, 0, 6.97681, -54.5936, 6.98604, -173.281, 6.84601, 66.1184, 0.273878, 63.0127
1, 600.00000, 127.713, -31.5197, 127.544, -150.207, 130.153, 89.1923, 0, 0, 6.97681, -54.5936, 6.98604, -173.281, 6.84601, 66.1184, 0.27388, 63.0127
1, 660.00000, 127.713, -31.5197, 127.544, -150.207, 130.153, 89.1923, 0, 0, 6.97681, -54.5936, 6.98604, -173.281, 6.84601, 66.1183, 0.273882, 63.0127
1, 720.00000, 127.713, -31.5197, 127.544, -150.207, 130.153, 89.1923, 0, 0, 6.97681, -54.5936, 6.98604, -173.281, 6.846, 66.1183, 0.273884, 63.0127
1, 780.00000, 127.713, -31.5197, 127.544, -150.207, 130.153, 89.1923, 0, 0, 6.97681, -54.5936, 6.98604, -173.281, 6.846, 66.1183, 0.273885, 63.0127
1, 840.00000, 127.713, -31.5197, 127.544, -150.207, 130.153, 89.1923, 0, 0, 6.97681, -54.5936, 6.98604, -173.281, 6.846, 66.1183, 0.273887, 63.0127
1, 900.00000, 127.713, -31.5197, 127.544, -150.207, 130.153, 89.1923, 0, 0, 6.97681, -54.5936, 6.98604, -173.281, 6.846, 66.1183, 0.273888, 63.0127
1, 960.00000, 127.716, -31.5192, 127.547, -150.206, 130.156, 89.1929, 0, 0, 6.94399, -54.5931, 6.95318, -173.28, 6.81381, 66.1189, 0.272597, 63.0106
1, 1020.00000, 127.716, -31.5192, 127.547, -150.206, 130.156, 89.1928, 0, 0, 6.94399, -54.5931, 6.95318, -173.28, 6.81381, 66.1189, 0.272598, 63.0106
1, 1080.00000, 127.716, -31.5192, 127.547, -150.206, 130.156, 89.1928, 0, 0, 6.94399, -54.5931, 6.95318, -173.28, 6.81381, 66.1189, 0.272599, 63.0106
1, 1140.00000, 127.716, -31.5192, 127.547, -150.206, 130.156, 89.1928, 0, 0, 6.94399, -54.5931, 6.95318, -173.28, 6.81381, 66.1189, 0.2726, 63.0106
1, 1200.00000, 127.716, -31.5192, 127.547, -150.206, 130.156, 89.1928, 0, 0, 6.94399, -54.5931, 6.95318, -173.28, 6.81381, 66.1189, 0.2726, 63.0106
1, 1260.00000, 127.716, -31.5192, 127.547, -150.206, 130.156, 89.1928, 0, 0, 6.94399, -54.5931, 6.95318, -173.28, 6.81381, 66.1189, 0.272601, 63.0106
1, 1320.00000, 127.716, -31.5192, 127.547, -150.206, 130.156, 89.1928, 0, 0, 6.94399, -54.5931, 6.95318, -173.28, 6.81381, 66.1189, 0.272602, 63.0106
1, 1380.00000, 127.716, -31.5192, 127.547, -150.206, 130.156, 89.1928, 0, 0, 6.94399, -54.5931, 6.95318, -173.28, 6.81381, 66.1189, 0.272602, 63.0106
1, 1440.00000, 127.716, -31.5192, 127.547, -150.206, 130.156, 89.1928, 0, 0, 6.94399, -54.5931, 6.95318, -173.28, 6.81381, 66.1189, 0.272603, 63.0106
1, 1500.00000, 127.716, -31.5192, 127.547, -150.206, 130.156, 89.1928, 0, 0, 6.94399, -54.5931, 6.95318, -173.28, 6.8138, 66.1189, 0.272603, 63.0106
1, 1560.00000, 127.716, -31.5192, 127.547, -150.206, 130.156, 89.1928, 0, 0, 6.94399, -54.5931, 6.95318, -173.28, 6.8138, 66.1189, 0.272604, 63.0106
1, 1620.00000, 127.716, -31.5192, 127.547, -150.206, 130.156, 89.1928, 0, 0, 6.94399, -54.5931, 6.95318, -173.28, 6.8138, 66.1189, 0.272604, 63.0106
1, 1680.00000, 127.716, -31.5192, 127.547, -150.206, 130.156, 89.1928, 0, 0, 6.94399, -54.5932, 6.95318, -173.28, 6.8138, 66.1189, 0.272604, 63.0106
1, 1740.00000, 127.716, -31.5192, 127.547, -150.206, 130.156, 89.1928, 0, 0, 6.94399, -54.5932, 6.95318, -173.28, 6.8138, 66.1189, 0.272605, 63.0106
1, 1800.00000, 127.716, -31.5192, 127.547, -150.206, 130.156, 89.1928, 0, 0, 6.94399, -54.5932, 6.95318, -173.28, 6.8138, 66.1189, 0.272605, 63.0106
1, 1860.00000, 127.7, -31.522, 127.532, -150.209, 130.141, 89.1897, 0, 0, 7.11236, -54.5959, 7.12172, -173.283, 6.97893, 66.1158, 0.279236, 63.0214
1, 1920.00000, 127.7, -31.522, 127.532, -150.209, 130.141, 89.1897, 0, 0, 7.11236, -54.5959, 7.12172, -173.283, 6.97893, 66.1158, 0.279236, 63.0214
1, 1980.00000, 127.7, -31.522, 127.532, -150.209, 130.141, 89.1897, 0, 0, 7.11236, -54.5959, 7.12172, -173.283, 6.97893, 66.1158, 0.279237, 63.0214
1, 2040.00000, 127.7, -31.522, 127.532, -150.209, 130.141, 89.1897, 0, 0, 7.11236, -54.5959, 7.12172, -173.283, 6.97893, 66.1158, 0.279237, 63.0214
1, 2100.00000, 127.7, -31.522, 127.532, -150.209, 130.141, 89.1897, 0, 0, 7.11236, -54.5959, 7.12172, -173.283, 6.97893, 66.1158, 0.279237, 63.0214
1, 2160.00000, 127.7, -31.522, 127.532, -150.209, 130.141, 89.1897, 0, 0, 7.11236, -54.5959, 7.12172, -173.283, 6.97893, 66.1158, 0.279237, 63.0214
1, 2220.00000, 127.7, -31.522, 127.532, -150.209, 130.141, 89.1897, 0, 0, 7.11236, -54.5959, 7.12172, -173.283, 6.97893, 66.1158, 0.279237, 63.0214
1, 2280.00000, 127.7, -31.522, 127.532, -150.209, 130.141, 89.1897, 0, 0, 7.11236, -54.5959, 7.12172, -173.283, 6.97893, 66.1158, 0.279237, 63.0214
1, 2340.00000, 127.7, -31.522, 127.532, -150.209, 130.141, 89.1897, 0, 0, 7.11236, -54.5959, 7.12172, -173.283, 6.97893, 66.1158, 0.279237, 63.0214
1, 2400.00000, 127.7, -31.522, 127.532, -150.209, 130.141, 89.1897, 0, 0, 7.11236, -54.5959, 7.12172, -173.283, 6.97893, 66.1158, 0.279238, 63.0214
1, 2460.00000, 127.7, -31.522, 127.532, -150.209, 130.141, 89.1897, 0, 0, 7.11236, -54.5959, 7.12172, -173.283, 6.97893, 66.1158, 0.279238, 63.0214
1, 2520.00000, 127.7, -31.522, 127.532, -150.209, 130.141, 89.1897, 0, 0, 7.11236, -54.5959, 7.12172, -173.283, 6.97893, 66.1158, 0.279238, 63.0214
1, 2580.00000, 127.7, -31.522, 127.532, -150.209, 130.141, 89.1897, 0, 0, 7.11236, -54.5959, 7.12172, -173.283, 6.97893, 66.1158, 0.279238, 63.0214
1, 2640.00000, 127.7, -31.522, 127.532, -150.209, 130.141, 89.1897, 0, 0, 7.11236, -54.5959, 7.12172, -173.283, 6.97893, 66.1158, 0.279238, 63.0214
1, 2700.00000, 127.7, -31.522, 127.532, -150.209, 130.141, 89.1897, 0, 0, 7.11236, -54.5959, 7.12172, -173.283, 6.97893, 66.1158, 0.279238, 63.0214
1, 2760.00000, 127.739, -31.5152, 127.569, -150.202, 130.178, 89.1974, 0, 0, 6.69993, -54.5891, 6.70886, -173.276, 6.57443, 66.1235, 0.262997, 62.995
1, 2820.00000, 127.739, -31.5152, 127.569, -150.202, 130.178, 89.1974, 0, 0, 6.69993, -54.5891, 6.70886, -173.276, 6.57443, 66.1235, 0.262997, 62.995
1, 2880.00000, 127.739, -31.5152, 127.569, -150.202, 130.178, 89.1974, 0, 0, 6.69993, -54.5891, 6.70886, -173.276, 6.57443, 66.1235, 0.262997, 62.995
1, 2940.00000, 127.739, -31.5152, 127.569, -150.202, 130.178, 89.1974, 0, 0, 6.69993, -54.5891, 6.70886, -173.276, 6.57443, 66.1235, 0.262997, 62.995
1, 3000.00000, 127.739, -31.5152, 127.569, -150.202, 130.178, 89.1974, 0, 0, 6.69993, -54.5891, 6.70886, -173.276, 6.57443, 66.1235, 0.262997, 62.995
1, 3060.00000, 127.739, -31.5152, 127.569, -150.202, 130.178, 89.1974, 0, 0, 6.69993, -54.5891, 6.70886, -173.276, 6.57443, 66.1235, 0.262997, 62.995
1, 3120.00000, 127.739, -31.5152, 127.569, -150.202, 130.178, 89.1974, 0, 0, 6.69993, -54.5891, 6.70886, -173.276, 6.57443, 66.1235, 0.262997, 62.995
1, 3180.00000, 127.739, -31.5152, 127.569, -150.202, 130.178, 89.1974, 0, 0, 6.69993, -54.5891, 6.70886, -173.276, 6.57443, 66.1235, 0.262997, 62.995
1, 3240.00000, 127.739, -31.5152, 127.569, -150.202, 130.178, 89.1974, 0, 0, 6.69993, -54.5891, 6.70886, -173.276, 6.57443, 66.1235, 0.262997, 62.995
1, 3300.00000, 127.739, -31.5152, 127.569, -150.202, 130.178, 89.1974, 0, 0, 6.69993, -54.5891, 6.70886, -173.276, 6.57443, 66.1235, 0.262997, 62.995
1, 3360.00000, 127.739, -31.5152, 127.569, -150.202, 130.178, 89.1974, 0, 0, 6.69993, -54.5891, 6.70886, -173.276, 6.57443, 66.1235, 0.262997, 62.995
1, 3420.00000, 127.739, -31.5152, 127.569, -150.202, 130.178, 89.1974, 0, 0, 6.69993, -54.5891, 6.70886, -173.276, 6.57443, 66.1235, 0.262997, 62.995
1, 3480.00000, 127.739, -31.5152, 127.569, -150.202, 130.178, 89.1974, 0, 0, 6.69993, -54.5891, 6.70886, -173.276, 6.57443, 66.1235, 0.262997, 62.995
1, 3540.00000, 127.739, -31.5152, 127.569, -150.202, 130.178, 89.1974, 0, 0, 6.69993, -54.5891, 6.70886, -173.276, 6.57443, 66.1235, 0.262997, 62.995
2, 0.00000, 127.739, -31.5152, 127.569, -150.202, 130.178, 89.1974, 0, 0, 6.69993, -54.5891, 6.70886, -173.276, 6.57443, 66.1235, 0.262997, 62.995
2, 60.00000, 127.722, -31.5181, 127.553, -150.205, 130.162, 89.1941, 0, 0, 6.88064, -54.5921, 6.88977, -173.279, 6.75168, 66.1201, 0.270113, 63.0066
2, 120.00000, 127.722, -31.5181, 127.553, -150.205, 130.162, 89.1941, 0, 0, 6.88064, -54.5921, 6.88977, -173.279, 6.75168, 66.1201, 0.270113, 63.0066
2, 180.00000, 127.722, -31.5181, 127.553, -150.205, 130.162, 89.1941, 0, 0, 6.88064, -54.5921, 6.88977, -173.279, 6.75168, 66.1201, 0.270113, 63.0066
2, 240.00000, 127.722, -31.5181, 127.553, -150.205, 130.162, 89.1941, 0, 0, 6.88064, -54.5921, 6.88977, -173.279, 6.75168, 66.1201, 0.270113, 63.0066
2, 300.00000, 127.722, -31.5181, 127.553, -150.205, 130.162, 89.1941, 0, 0, 6.88064, -54.5921, 6.88977, -173.279, 6.75168, 66.1201, 0.270113, 63.0066
2, 360.00000, 127.722, -31.5181, 127.553, -150.205, 130.162, 89.1941, 0, 0, 6.88064, -54.5921, 6.88977, -173.279, 6.75168, 66.1201, 0.270113, 63.0066
2, 420.00000, 127.722, -31.5181, 127.553, -150.205, 130.162, 89.1941, 0, 0, 6.88064, -54.5921, 6.88977, -173.279, 6.75168, 66.1201, 0.270113, 63.0066
2, 480.00000, 127.722, -31.5181, 127.553, -150.205, 130.162, 89.1941, 0, 0, 6.88064, -54.5921, 6.88977, -173.279, 6.75168, 66.1201, 0.270113, 63.0066
2, 540.00000, 127.722, -31.5181, 127.553, -150.205, 130.162, 89.1941, 0, 0, 6.88064, -54.5921, 6.88977, -173.279, 6.75168, 66.1201, 0.270113, 63.0066
2, 600.00000, 127.722, -31.5181, 127.553, -150.205, 130.162, 89.1941, 0, 0, 6.88064, -54.5921, 6.88977, -173.279, 6.75168, 66.1201, 0.270113, 63.0066
2, 660.00000, 127.722, -31.5181, 127.553, -150.205, 130.162, 89.1941, 0, 0, 6.88064, -54.5921, 6.88977, -173.279, 6.75168, 66.1201, 0.270113, 63.0066
2, 720.00000, 127.722, -31.5181, 127.553, -150.205, 130.162, 89.1941, 0, 0, 6.88064, -54.5921, 6.88977, -173.279, 6.75168, 66.1201, 0.270113, 63.0066
2, 780.00000, 127.722, -31.5181, 127.553, -150.205, 130.162, 89.1941, 0, 0, 6.88064, -54.5921, 6.88977, -173.279, 6.75168, 66.1201, 0.270113, 63.0066
