hour,t(sec),V1,VAngle1,V2,VAngle2,V3,VAngle3,V4,VAngle4,I1,IAngle1,I2,IAngle2,I3,IAngle3,I4,IAngle4
0, 60.00000, 126.929, -30.1378, 126.984, -150.226, 126.831, 89.8143, 0, 0, 8.36443, -53.2117, 8.36077, -173.3, 8.37086, 66.7404, 0.0198165, -123.969
0, 120.00000, 126.929, -30.1378, 126.984, -150.226, 126.831, 89.8143, 0, 0, 8.36442, -53.2117, 8.36077, -173.3, 8.37087, 66.7404, 0.019823, -123.966
0, 180.00000, 126.929, -30.1378, 126.984, -150.226, 126.831, 89.8143, 0, 0, 8.36442, -53.2117, 8.36077, -173.3, 8.37087, 66.7404, 0.019823, -123.966
0, 240.00000, 126.929, -30.1378, 126.984, -150.226, 126.831, 89.8143, 0, 0, 8.36442, -53.2117, 8.36077, -173.3, 8.37087, 66.7404, 0.019823, -123.966
0, 300.00000, 126.929, -30.1378, 126.984, -150.226, 126.831, 89.8143, 0, 0, 8.36442, -53.2117, 8.36077, -173.3, 8.37087, 66.7404, 0.019823, -123.966
0, 360.00000, 126.929, -30.1378, 126.984, -150.226, 126.831, 89.8143, 0, 0, 8.36442, -53.2117, 8.36077, -173.3, 8.37087, 66.7404, 0.019823, -123.966
0, 420.00000, 126.929, -30.1378, 126.984, -150.226, 126.831, 89.8143, 0, 0, 8.36442, -53.2117, 8.36077, -173.3, 8.37087, 66.7404, 0.019823, -123.966
0, 480.00000, 126.929, -30.1378, 126.984, -150.226, 126.831, 89.8143, 0, 0, 8.36442, -53.2117, 8.36077, -173.3, 8.37087, 66.7404, 0.019823, -123.966
0, 540.00000, 126.929, -30.1378, 126.984, -150.226, 126.831, 89.8143, 0, 0, 8.36442, -53.2117, 8.36077, -173.3, 8.37087, 66.7404, 0.019823, -123.966
0, 600.00000, 126.929, -30.1378, 126.984, -150.226, 126.831, 89.8143, 0, 0, 8.36442, -53.2117, 8.36077, -173.3, 8.37087, 66.7404, 0.019823, -123.966
0, 660.00000, 126.929, -30.1378, 126.984, -150.226, 126.831, 89.8143, 0, 0, 8.36442, -53.2117, 8.36077, -173.3, 8.37087, 66.7404, 0.019823, -123.966
0, 720.00000, 126.929, -30.1378, 126.984, -150.226, 126.831, 89.8143, 0, 0, 8.36442, -53.2117, 8.36077, -173.3, 8.37087, 66.7404, 0.019823, -123.966
0, 780.00000, 126.929, -30.1378, 126.984, -150.226, 126.831, 89.8143, 0, 0, 8.36442, -53.2117, 8.36077, -173.3, 8.37087, 66.7404, 0.019823, -123.966
0, 840.00000, 126.929, -30.1378, 126.984, -150.226, 126.831, 89.8143, 0, 0, 8.36442, -53.2117, 8.36077, -173.3, 8.37087, 66.7404, 0.019823, -123.966
0, 900.00000, 126.929, -30.1378, 126.984, -150.226, 126.831, 89.8143, 0, 0, 8.36442, -53.2117, 8.36077, -173.3, 8.37087, 66.7404, 0.019823, -123.966
0, 960.00000, 126.855, -30.1445, 126.916, -150.233, 126.762, 89.8068, 0, 0, 8.85353, -53.2183, 8.84933, -173.307, 8.86001, 66.733, 0.02088, -125.246
0, 1020.00000, 126.855, -30.1445, 126.916, -150.233, 126.762, 89.8068, 0, 0, 8.85363, -53.2184, 8.8494, -173.307, 8.86009, 66.7329, 0.0208853, -125.274
0, 1080.00000, 126.855, -30.1445, 126.916, -150.233, 126.762, 89.8068, 0, 0, 8.85363, -53.2184, 8.8494, -173.307, 8.86009, 66.7329, 0.0208853, -125.274
0, 1140.00000, 126.855, -30.1445, 126.916, -150.233, 126.762, 89.8068, 0, 0, 8.85363, -53.2184, 8.8494, -173.307, 8.86009, 66.7329, 0.0208853, -125.274
0, 1200.00000, 126.855, -30.1445, 126.916, -150.233, 126.762, 89.8068, 0, 0, 8.85363, -53.2184, 8.8494, -173.307, 8.86009, 66.7329, 0.0208853, -125.274
0, 1260.00000, 126.855, -30.1445, 126.916, -150.233, 126.762, 89.8068, 0, 0, 8.85363, -53.2184, 8.8494, -173.307, 8.86009, 66.7329, 0.0208853, -125.274
0, 1320.00000, 126.855, -30.1445, 126.916, -150.233, 126.762, 89.8068, 0, 0, 8.85363, -53.2184, 8.8494, -173.307, 8.86009, 66.7329, 0.0208853, -125.274
0, 1380.00000, 126.855, -30.1445, 126.916, -150.233, 126.762, 89.8068, 0, 0, 8.85363, -53.2184, 8.8494, -173.307, 8.86009, 66.7329, 0.0208853, -125.274
0, 1440.00000, 126.855, -30.1445, 126.916, -150.233, 126.762, 89.8068, 0, 0, 8.85363, -53.2184, 8.8494, -173.307, 8.86009, 66.7329, 0.0208853, -125.274
0, 1500.00000, 126.855, -30.1445, 126.916, -150.233, 126.762, 89.8068, 0, 0, 8.85363, -53.2184, 8.8494, -173.307, 8.86009, 66.7329, 0.0208853, -125.274
0, 1560.00000, 126.855, -30.1445, 126.916, -150.233, 126.762, 89.8068, 0, 0, 8.85363, -53.2184, 8.8494, -173.307, 8.86009, 66.7329, 0.0208853, -125.274
0, 1620.00000, 126.855, -30.1445, 126.916, -150.233, 126.762, 89.8068, 0, 0, 8.85363, -53.2184, 8.8494, -173.307, 8.86009, 66.7329, 0.0208853, -125.274
0, 1680.00000, 126.855, -30.1445, 126.916, -150.233, 126.762, 89.8068, 0, 0, 8.85363, -53.2184, 8.8494, -173.307, 8.86009, 66.7329, 0.0208853, -125.274
0, 1740.00000, 126.855, -30.1445, 126.916, -150.233, 126.762, 89.8068, 0, 0, 8.85363, -53.2184, 8.8494, -173.307, 8.86009, 66.7329, 0.0208853, -125.274
0, 1800.00000, 126.855, -30.1445, 126.916, -150.233, 126.762, 89.8068, 0, 0, 8.85363, -53.2184, 8.8494, -173.307, 8.86009, 66.7329, 0.0208853, -125.274
0, 1860.00000, 126.851, -30.1448, 126.912, -150.233, 126.759, 89.8065, 0, 0, 8.88078, -53.2187, 8.87653, -173.307, 8.88725, 66.7326, 0.020944, -125.345
0, 1920.00000, 126.851, -30.1448, 126.912, -150.233, 126.759, 89.8065, 0, 0, 8.88079, -53.2187, 8.87653, -173.307, 8.88725, 66.7326, 0.0209442, -125.347
0, 1980.00000, 126.851, -30.1448, 126.912, -150.233, 126.759, 89.8065, 0, 0, 8.88079, -53.2187, 8.87653, -173.307, 8.88725, 66.7326, 0.0209442, -125.347
0, 2040.00000, 126.851, -30.1448, 126.912, -150.233, 126.759, 89.8065, 0, 0, 8.88079, -53.2187, 8.87653, -173.307, 8.88725, 66.7326, 0.0209442, -125.347
0, 2100.00000, 126.851, -30.1448, 126.912, -150.233, 126.759, 89.8065, 0, 0, 8.88079, -53.2187, 8.87653, -173.307, 8.88725, 66.7326, 0.0209442, -125.347
0, 2160.00000, 126.851, -30.1448, 126.912, -150.233, 126.759, 89.8065, 0, 0, 8.88079, -53.2187, 8.87653, -173.307, 8.88725, 66.7326, 0.0209442, -125.347
0, 2220.00000, 126.851, -30.1448, 126.912, -150.233, 126.759, 89.8065, 0, 0, 8.88079, -53.2187, 8.87653, -173.307, 8.88725, 66.7326, 0.0209442, -125.347
0, 2280.00000, 126.851, -30.1448, 126.912, -150.233, 126.759, 89.8065, 0, 0, 8.88079, -53.2187, 8.87653, -173.307, 8.88725, 66.7326, 0.0209442, -125.347
0, 2340.00000, 126.851, -30.1448, 126.912, -150.233, 126.759, 89.8065, 0, 0, 8.88079, -53.2187, 8.87653, -173.307, 8.88725, 66.7326, 0.0209442, -125.347
0, 2400.00000, 126.851, -30.1448, 126.912, -150.233, 126.759, 89.8065, 0, 0, 8.88079, -53.2187, 8.87653, -173.307, 8.88725, 66.7326, 0.0209442, -125.347
0, 2460.00000, 126.851, -30.1448, 126.912, -150.233, 126.759, 89.8065, 0, 0, 8.88079, -53.2187, 8.87653, -173.307, 8.88725, 66.7326, 0.0209442, -125.347
0, 2520.00000, 126.851, -30.1448, 126.912, -150.233, 126.759, 89.8065, 0, 0, 8.88079, -53.2187, 8.87653, -173.307, 8.88725, 66.7326, 0.0209442, -125.347
0, 2580.00000, 126.851, -30.1448, 126.912, -150.233, 126.759, 89.8065, 0, 0, 8.88079, -53.2187, 8.87653, -173.307, 8.88725, 66.7326, 0.0209442, -125.347
0, 2640.00000, 126.851, -30.1448, 126.912, -150.233, 126.759, 89.8065, 0, 0, 8.88079, -53.2187, 8.87653, -173.307, 8.88725, 66.7326, 0.0209442, -125.347
0, 2700.00000, 126.851, -30.1448, 126.912, -150.233, 126.759, 89.8065, 0, 0, 8.88079, -53.2187, 8.87653, -173.307, 8.88725, 66.7326, 0.0209442, -125.347
0, 2760.00000, 126.917, -30.1388, 126.973, -150.227, 126.82, 89.8131, 0, 0, 8.44259, -53.2128, 8.43884, -173.301, 8.44903, 66.7392, 0.019997, -124.198
0, 2820.00000, 126.917, -30.1388, 126.973, -150.227, 126.82, 89.8131, 0, 0, 8.44251, -53.2128, 8.43877, -173.301, 8.44896, 66.7392, 0.0199926, -124.174
0, 2880.00000, 126.917, -30.1388, 126.973, -150.227, 126.82, 89.8131, 0, 0, 8.44251, -53.2128, 8.43877, -173.301, 8.44896, 66.7392, 0.0199926, -124.174
0, 2940.00000, 126.917, -30.1388, 126.973, -150.227, 126.82, 89.8131, 0, 0, 8.44251, -53.2128, 8.43877, -173.301, 8.44896, 66.7392, 0.0199926, -124.174
0, 3000.00000, 126.917, -30.1388, 126.973, -150.227, 126.82, 89.8131, 0, 0, 8.44251, -53.2128, 8.43877, -173.301, 8.44896, 66.7392, 0.0199926, -124.174
0, 3060.00000, 126.917, -30.1388, 126.973, -150.227, 126.82, 89.8131, 0, 0, 8.44251, -53.2128, 8.43877, -173.301, 8.44896, 66.7392, 0.0199926, -124.174
0, 3120.00000, 126.917, -30.1388, 126.973, -150.227, 126.82, 89.8131, 0, 0, 8.44251, -53.2128, 8.43877, -173.301, 8.44896, 66.7392, 0.0199926, -124.174
0, 3180.00000, 126.917, -30.1388, 126.973, -150.227, 126.82, 89.8131, 0, 0, 8.44251, -53.2128, 8.43877, -173.301, 8.44896, 66.7392, 0.0199926, -124.174
0, 3240.00000, 126.917, -30.1388, 126.973, -150.227, 126.82, 89.8131, 0, 0, 8.44251, -53.2128, 8.43877, -173.301, 8.44896, 66.7392, 0.0199926, -124.174
0, 3300.00000, 126.917, -30.1388, 126.973, -150.227, 126.82, 89.8131, 0, 0, 8.44251, -53.2128, 8.43877, -173.301, 8.44896, 66.7392, 0.0199926, -124.174
0, 3360.00000, 126.917, -30.1388, 126.973, -150.227, 126.82, 89.8131, 0, 0, 8.44251, -53.2128, 8.43877, -173.301, 8.44896, 66.7392, 0.0199926, -124.174
0, 3420.00000, 126.917, -30.1388, 126.973, -150.227, 126.82, 89.8131, 0, 0, 8.44251, -53.2128, 8.43877, -173.301, 8.44896, 66.7392, 0.0199926, -124.174
0, 3480.00000, 126.917, -30.1388, 126.973, -150.227, 126.82, 89.8131, 0, 0, 8.44251, -53.2128, 8.43877, -173.301, 8.44896, 66.7392, 0.0199926, -124.174
0, 3540.00000, 126.917, -30.1388, 126.973, -150.227, 126.82, 89.8131, 0, 0, 8.44251, -53.2128, 8.43877, -173.301, 8.44896, 66.7392, 0.0199926, -124.174
1, 0.00000, 126.917, -30.1388, 126.973, -150.227, 126.82, 89.8131, 0, 0, 8.44251, -53.2128, 8.43877, -173.301, 8.44896, 66.7392, 0.0199926, -124.174
1, 60.00000, 126.932, -30.1375, 126.987, -150.226, 126.834, 89.8147, 0, 0, 8.34285, -53.2114, 8.33922, -173.3, 8.34929, 66.7407, 0.019777, -123.914
1, 120.00000, 126.932, -30.1375, 126.987, -150.226, 126.834, 89.8147, 0, 0, 8.34283, -53.2114, 8.3392, -173.3, 8.34927, 66.7407, 0.0197761, -123.909
1, 180.00000, 126.932, -30.1375, 126.987, -150.226, 126.834, 89.8147, 0, 0, 8.34283, -53.2114, 8.3392, -173.3, 8.34927, 66.7407, 0.0197761, -123.909
1, 240.00000, 126.932, -30.1375, 126.987, -150.226, 126.834, 89.8147, 0, 0, 8.34283, -53.2114, 8.3392, -173.3, 8.34927, 66.7407, 0.0197761, -123.909
1, 300.00000, 126.932, -30.1375, 126.987, -150.226, 126.834, 89.8147, 0, 0, 8.34283, -53.2114, 8.3392, -173.3, 8.34927, 66.7407, 0.0197761, -123.909
1, 360.00000, 126.932, -30.1375, 126.987, -150.226, 126.834, 89.8147, 0, 0, 8.34283, -53.2114, 8.3392, -173.3, 8.34927, 66.7407, 0.0197761, -123.909
1, 420.00000, 126.932, -30.1375, 126.987, -150.226, 126.834, 89.8147, 0, 0, 8.34283, -53.2114, 8.3392, -173.3, 8.34927, 66.7407, 0.0197761, -123.909
1, 480.00000, 126.932, -30.1375, 126.987, -150.226, 126.834, 89.8147, 0, 0, 8.34283, -53.2114, 8.3392, -173.3, 8.34927, 66.7407, 0.0197761, -123.909
1, 540.00000, 126.932, -30.1375, 126.987, -150.226, 126.834, 89.8147, 0, 0, 8.34283, -53.2114, 8.3392, -173.3, 8.34927, 66.7407, 0.0197761, -123.909
1, 600.00000, 126.932, -30.1375, 126.987, -150.226, 126.834, 89.8147, 0, 0, 8.34283, -53.2114, 8.3392, -173.3, 8.34927, 66.7407, 0.0197761, -123.909
1, 660.00000, 126.932, -30.1375, 126.987, -150.226, 126.834, 89.8147, 0, 0, 8.34283, -53.2114, 8.3392, -173.3, 8.34927, 66.7407, 0.0197761, -123.909
1, 720.00000, 126.932, -30.1375, 126.987, -150.226, 126.834, 89.8147, 0, 0, 8.34283, -53.2114, 8.3392, -173.3, 8.34927, 66.7407, 0.0197761, -123.909
1, 780.00000, 126.932, -30.1375, 126.987, -150.226, 126.834, 89.8147, 0, 0, 8.34283, -53.2114, 8.3392, -173.3, 8.34927, 66.7407, 0.0197761, -123.909
1, 840.00000, 126.932, -30.1375, 126.987, -150.226, 126.834, 89.8147, 0, 0, 8.34283, -53.2114, 8.3392, -173.3, 8.34927, 66.7407, 0.0197761, -123.909
1, 900.00000, 126.932, -30.1375, 126.987, -150.226, 126.834, 89.8147, 0, 0, 8.34283, -53.2114, 8.3392, -173.3, 8.34927, 66.7407, 0.0197761, -123.909
1, 960.00000, 126.938, -30.137, 126.993, -150.226, 126.84, 89.8152, 0, 0, 8.3034, -53.2109, 8.29982, -173.3, 8.30984, 66.7413, 0.0196908, -123.806
1, 1020.00000, 126.938, -30.137, 126.993, -150.226, 126.84, 89.8152, 0, 0, 8.30339, -53.2109, 8.29981, -173.3, 8.30983, 66.7413, 0.0196904, -123.804
1, 1080.00000, 126.938, -30.137, 126.993, -150.226, 126.84, 89.8152, 0, 0, 8.30339, -53.2109, 8.29981, -173.3, 8.30983, 66.7413, 0.0196904, -123.804
1, 1140.00000, 126.938, -30.137, 126.993, -150.226, 126.84, 89.8152, 0, 0, 8.30339, -53.2109, 8.29981, -173.3, 8.30983, 66.7413, 0.0196904, -123.804
1, 1200.00000, 126.938, -30.137, 126.993, -150.226, 126.84, 89.8152, 0, 0, 8.30339, -53.2109, 8.29981, -173.3, 8.30983, 66.7413, 0.0196904, -123.804
1, 1260.00000, 126.938, -30.137, 126.993, -150.226, 126.84, 89.8152, 0, 0, 8.30339, -53.2109, 8.29981, -173.3, 8.30983, 66.7413, 0.0196904, -123.804
1, 1320.00000, 126.938, -30.137, 126.993, -150.226, 126.84, 89.8152, 0, 0, 8.30339, -53.2109, 8.29981, -173.3, 8.30983, 66.7413, 0.0196904, -123.804
1, 1380.00000, 126.938, -30.137, 126.993, -150.226, 126.84, 89.8152, 0, 0, 8.30339, -53.2109, 8.29981, -173.3, 8.30983, 66.7413, 0.0196904, -123.804
1, 1440.00000, 126.938, -30.137, 126.993, -150.226, 126.84, 89.8152, 0, 0, 8.30339, -53.2109, 8.29981, -173.3, 8.30983, 66.7413, 0.0196904, -123.804
1, 1500.00000, 126.938, -30.137, 126.993, -150.226, 126.84, 89.8152, 0, 0, 8.30339, -53.2109, 8.29981, -173.3, 8.30983, 66.7413, 0.0196904, -123.804
1, 1560.00000, 126.938, -30.137, 126.993, -150.226, 126.84, 89.8152, 0, 0, 8.30339, -53.2109, 8.29981, -173.3, 8.30983, 66.7413, 0.0196904, -123.804
1, 1620.00000, 126.938, -30.137, 126.993, -150.226, 126.84, 89.8152, 0, 0, 8.30339, -53.2109, 8.29981, -173.3, 8.30983, 66.7413, 0.0196904, -123.804
1, 1680.00000, 126.938, -30.137, 126.993, -150.226, 126.84, 89.8152, 0, 0, 8.30339, -53.2109, 8.29981, -173.3, 8.30983, 66.7413, 0.0196904, -123.804
1, 1740.00000, 126.938, -30.137, 126.993, -150.226, 126.84, 89.8152, 0, 0, 8.30339, -53.2109, 8.29981, -173.3, 8.30983, 66.7413, 0.0196904, -123.804
1, 1800.00000, 126.938, -30.137, 126.993, -150.226, 126.84, 89.8152, 0, 0, 8.30339, -53.2109, 8.29981, -173.3, 8.30983, 66.7413, 0.0196904, -123.804
1, 1860.00000, 126.908, -30.1397, 126.965, -150.228, 126.811, 89.8122, 0, 0, 8.50565, -53.2136, 8.50185, -173.302, 8.51211, 66.7383, 0.0201277, -124.331
1, 1920.00000, 126.908, -30.1397, 126.965, -150.228, 126.811, 89.8122, 0, 0, 8.50569, -53.2136, 8.50188, -173.302, 8.51215, 66.7383, 0.0201298, -124.342
1, 1980.00000, 126.908, -30.1397, 126.965, -150.228, 126.811, 89.8122, 0, 0, 8.50569, -53.2136, 8.50188, -173.302, 8.51215, 66.7383, 0.0201298, -124.342
1, 2040.00000, 126.908, -30.1397, 126.965, -150.228, 126.811, 89.8122, 0, 0, 8.50569, -53.2136, 8.50188, -173.302, 8.51215, 66.7383, 0.0201298, -124.342
1, 2100.00000, 126.908, -30.1397, 126.965, -150.228, 126.811, 89.8122, 0, 0, 8.50569, -53.2136, 8.50188, -173.302, 8.51215, 66.7383, 0.0201298, -124.342
1, 2160.00000, 126.908, -30.1397, 126.965, -150.228, 126.811, 89.8122, 0, 0, 8.50569, -53.2136, 8.50188, -173.302, 8.51215, 66.7383, 0.0201298, -124.342
1, 2220.00000, 126.908, -30.1397, 126.965, -150.228, 126.811, 89.8122, 0, 0, 8.50569, -53.2136, 8.50188, -173.302, 8.51215, 66.7383, 0.0201298, -124.342
1, 2280.00000, 126.908, -30.1397, 126.965, -150.228, 126.811, 89.8122, 0, 0, 8.50569, -53.2136, 8.50188, -173.302, 8.51215, 66.7383, 0.0201298, -124.342
1, 2340.00000, 126.908, -30.1397, 126.965, -150.228, 126.811, 89.8122, 0, 0, 8.50569, -53.2136, 8.50188, -173.302, 8.51215, 66.7383, 0.0201298, -124.342
1, 2400.00000, 126.908, -30.1397, 126.965, -150.228, 126.811, 89.8122, 0, 0, 8.50569, -53.2136, 8.50188, -173.302, 8.51215, 66.7383, 0.0201298, -124.342
1, 2460.00000, 126.908, -30.1397, 126.965, -150.228, 126.811, 89.8122, 0, 0, 8.50569, -53.2136, 8.50188, -173.302, 8.51215, 66.7383, 0.0201298, -124.342
1, 2520.00000, 126.908, -30.1397, 126.965, -150.228, 126.811, 89.8122, 0, 0, 8.50569, -53.2136, 8.50188, -173.302, 8.51215, 66.7383, 0.0201298, -124.342
1, 2580.00000, 126.908, -30.1397, 126.965, -150.228, 126.811, 89.8122, 0, 0, 8.50569, -53.2136, 8.50188, -173.302, 8.51215, 66.7383, 0.0201298, -124.342
1, 2640.00000, 126.908, -30.1397, 126.965, -150.228, 126.811, 89.8122, 0, 0, 8.50569, -53.2136, 8.50188, -173.302, 8.51215, 66.7383, 0.0201298, -124.342
1, 2700.00000, 126.908, -30.1397, 126.965, -150.228, 126.811, 89.8122, 0, 0, 8.50569, -53.2136, 8.50188, -173.302, 8.51215, 66.7383, 0.0201298, -124.342
1, 2760.00000, 126.982, -30.1331, 127.034, -150.222, 126.881, 89.8197, 0, 0, 8.01031, -53.2071, 8.00704, -173.296, 8.01671, 66.7456, 0.0190577, -123.055
1, 2820.00000, 126.982, -30.1331, 127.034, -150.222, 126.881, 89.8197, 0, 0, 8.01023, -53.207, 8.00697, -173.296, 8.01664, 66.7457, 0.0190532, -123.028
1, 2880.00000, 126.982, -30.1331, 127.034, -150.222, 126.881, 89.8197, 0, 0, 8.01023, -53.207, 8.00697, -173.296, 8.01664, 66.7457, 0.0190532, -123.028
1, 2940.00000, 126.982, -30.1331, 127.034, -150.222, 126.881, 89.8197, 0, 0, 8.01023, -53.207, 8.00697, -173.296, 8.01664, 66.7457, 0.0190532, -123.028
1, 3000.00000, 126.982, -30.1331, 127.034, -150.222, 126.881, 89.8197, 0, 0, 8.01023, -53.207, 8.00697, -173.296, 8.01664, 66.7457, 0.0190532, -123.028
1, 3060.00000, 126.982, -30.1331, 127.034, -150.222, 126.881, 89.8197, 0, 0, 8.01023, -53.207, 8.00697, -173.296, 8.01664, 66.7457, 0.0190532, -123.028
1, 3120.00000, 126.982, -30.1331, 127.034, -150.222, 126.881, 89.8197, 0, 0, 8.01023, -53.207, 8.00697, -173.296, 8.01664, 66.7457, 0.0190532, -123.028
1, 3180.00000, 126.982, -30.1331, 127.034, -150.222, 126.881, 89.8197, 0, 0, 8.01023, -53.207, 8.00697, -173.296, 8.01664, 66.7457, 0.0190532, -123.028
1, 3240.00000, 126.982, -30.1331, 127.034, -150.222, 126.881, 89.8197, 0, 0, 8.01023, -53.207, 8.00697, -173.296, 8.01664, 66.7457, 0.0190532, -123.028
1, 3300.00000, 126.982, -30.1331, 127.034, -150.222, 126.881, 89.8197, 0, 0, 8.01023, -53.207, 8.00697, -173.296, 8.01664, 66.7457, 0.0190532, -123.028
1, 3360.00000, 126.982, -30.1331, 127.034, -150.222, 126.881, 89.8197, 0, 0, 8.01023, -53.207, 8.00697, -173.296, 8.01664, 66.7457, 0.0190532, -123.028
1, 3420.00000, 126.982, -30.1331, 127.034, -150.222, 126.881, 89.8197, 0, 0, 8.01023, -53.207, 8.00697, -173.296, 8.01664, 66.7457, 0.0190532, -123.028
1, 3480.00000, 126.982, -30.1331, 127.034, -150.222, 126.881, 89.8197, 0, 0, 8.01023, -53.207, 8.00697, -173.296, 8.01664, 66.7457, 0.0190532, -123.028
1, 3540.00000, 126.982, -30.1331, 127.034, -150.222, 126.881, 89.8197, 0, 0, 8.01023, -53.207, 8.00697, -173.296, 8.01664, 66.7457, 0.0190532, -123.028
2, 0.00000, 126.982, -30.1331, 127.034, -150.222, 126.881, 89.8197, 0, 0, 8.01023, -53.207, 8.00697, -173.296, 8.01664, 66.7457, 0.0190532, -123.028
2, 60.00000, 126.95, -30.1359, 127.004, -150.225, 126.85, 89.8165, 0, 0, 8.22726, -53.2098, 8.22377, -173.298, 8.2337, 66.7426, 0.019523, -123.59
2, 120.00000, 126.95, -30.1359, 127.004, -150.225, 126.85, 89.8165, 0, 0, 8.22729, -53.2098, 8.2238, -173.298, 8.23373, 66.7425, 0.019525, -123.602
2, 180.00000, 126.95, -30.1359, 127.004, -150.225, 126.85, 89.8165, 0, 0, 8.22729, -53.2098, 8.2238, -173.298, 8.23373, 66.7425, 0.019525, -123.602
2, 240.00000, 126.95, -30.1359, 127.004, -150.225, 126.85, 89.8165, 0, 0, 8.22729, -53.2098, 8.2238, -173.298, 8.23373, 66.7425, 0.019525, -123.602
2, 300.00000, 126.95, -30.1359, 127.004, -150.225, 126.85, 89.8165, 0, 0, 8.22729, -53.2098, 8.2238, -173.298, 8.23373, 66.7425, 0.019525, -123.602
2, 360.00000, 126.95, -30.1359, 127.004, -150.225, 126.85, 89.8165, 0, 0, 8.22729, -53.2098, 8.2238, -173.298, 8.23373, 66.7425, 0.019525, -123.602
2, 420.00000, 126.95, -30.1359, 127.004, -150.225, 126.85, 89.8165, 0, 0, 8.22729, -53.2098, 8.2238, -173.298, 8.23373, 66.7425, 0.019525, -123.602
2, 480.00000, 126.95, -30.1359, 127.004, -150.225, 126.85, 89.8165, 0, 0, 8.22729, -53.2098, 8.2238, -173.298, 8.23373, 66.7425, 0.019525, -123.602
2, 540.00000, 126.95, -30.1359, 127.004, -150.225, 126.85, 89.8165, 0, 0, 8.22729, -53.2098, 8.2238, -173.298, 8.23373, 66.7425, 0.019525, -123.602
2, 600.00000, 126.95, -30.1359, 127.004, -150.225, 126.85, 89.8165, 0, 0, 8.22729, -53.2098, 8.2238, -173.298, 8.23373, 66.7425, 0.019525, -123.602
2, 660.00000, 126.95, -30.1359, 127.004, -150.225, 126.85, 89.8165, 0, 0, 8.22729, -53.2098, 8.2238, -173.298, 8.23373, 66.7425, 0.019525, -123.602
2, 720.00000, 126.95, -30.1359, 127.004, -150.225, 126.85, 89.8165, 0, 0, 8.22729, -53.2098, 8.2238, -173.298, 8.23373, 66.7425, 0.019525, -123.602
