hour,t(sec),V1,VAngle1,V2,VAngle2,V3,VAngle3,V4,VAngle4,I1,IAngle1,I2,IAngle2,I3,IAngle3,I4,IAngle4
0, 60.00000, 127.548, -30.1494, 127.541, -150.244, 127.392, 89.8109, 0, 0, 7.0037, -53.2233, 7.00413, -173.318, 7.0123, 66.737, 0.0184001, -109.289
0, 120.00000, 127.548, -30.1494, 127.541, -150.244, 127.392, 89.8109, 0, 0, 7.0037, -53.2233, 7.00413, -173.318, 7.0123, 66.737, 0.0184029, -109.291
0, 180.00000, 127.548, -30.1494, 127.541, -150.244, 127.392, 89.8109, 0, 0, 7.0037, -53.2233, 7.00413, -173.318, 7.0123, 66.737, 0.0184029, -109.291
0, 240.00000, 127.548, -30.1494, 127.541, -150.244, 127.392, 89.8109, 0, 0, 7.0037, -53.2233, 7.00413, -173.318, 7.0123, 66.737, 0.0184029, -109.291
0, 300.00000, 127.548, -30.1494, 127.541, -150.244, 127.392, 89.8109, 0, 0, 7.0037, -53.2233, 7.00413, -173.318, 7.0123, 66.737, 0.0184029, -109.291
0, 360.00000, 127.548, -30.1494, 127.541, -150.244, 127.392, 89.8109, 0, 0, 7.0037, -53.2233, 7.00413, -173.318, 7.0123, 66.737, 0.0184029, -109.291
0, 420.00000, 127.548, -30.1494, 127.541, -150.244, 127.392, 89.8109, 0, 0, 7.0037, -53.2233, 7.00413, -173.318, 7.0123, 66.737, 0.0184029, -109.291
0, 480.00000, 127.548, -30.1494, 127.541, -150.244, 127.392, 89.8109, 0, 0, 7.0037, -53.2233, 7.00413, -173.318, 7.0123, 66.737, 0.0184029, -109.291
0, 540.00000, 127.548, -30.1494, 127.541, -150.244, 127.392, 89.8109, 0, 0, 7.0037, -53.2233, 7.00413, -173.318, 7.0123, 66.737, 0.0184029, -109.291
0, 600.00000, 127.548, -30.1494, 127.541, -150.244, 127.392, 89.8109, 0, 0, 7.0037, -53.2233, 7.00413, -173.318, 7.0123, 66.737, 0.0184029, -109.291
0, 660.00000, 127.548, -30.1494, 127.541, -150.244, 127.392, 89.8109, 0, 0, 7.0037, -53.2233, 7.00413, -173.318, 7.0123, 66.737, 0.0184029, -109.291
0, 720.00000, 127.548, -30.1494, 127.541, -150.244, 127.392, 89.8109, 0, 0, 7.0037, -53.2233, 7.00413, -173.318, 7.0123, 66.737, 0.0184029, -109.291
0, 780.00000, 127.548, -30.1494, 127.541, -150.244, 127.392, 89.8109, 0, 0, 7.0037, -53.2233, 7.00413, -173.318, 7.0123, 66.737, 0.0184029, -109.291
0, 840.00000, 127.548, -30.1494, 127.541, -150.244, 127.392, 89.8109, 0, 0, 7.0037, -53.2233, 7.00413, -173.318, 7.0123, 66.737, 0.0184029, -109.291
0, 900.00000, 127.548, -30.1494, 127.541, -150.244, 127.392, 89.8109, 0, 0, 7.0037, -53.2233, 7.00413, -173.318, 7.0123, 66.737, 0.0184029, -109.291
0, 960.00000, 127.51, -30.1567, 127.504, -150.251, 127.356, 89.803, 0, 0, 7.41123, -53.2306, 7.41157, -173.325, 7.42019, 66.7292, 0.0193877, -109.772
0, 1020.00000, 127.51, -30.1567, 127.504, -150.251, 127.356, 89.803, 0, 0, 7.41126, -53.2307, 7.4116, -173.325, 7.42023, 66.729, 0.0193932, -109.779
0, 1080.00000, 127.51, -30.1567, 127.504, -150.251, 127.356, 89.803, 0, 0, 7.41126, -53.2307, 7.4116, -173.325, 7.42023, 66.729, 0.0193932, -109.779
0, 1140.00000, 127.51, -30.1567, 127.504, -150.251, 127.356, 89.803, 0, 0, 7.41126, -53.2307, 7.4116, -173.325, 7.42023, 66.729, 0.0193932, -109.779
0, 1200.00000, 127.51, -30.1567, 127.504, -150.251, 127.356, 89.803, 0, 0, 7.41126, -53.2307, 7.4116, -173.325, 7.42023, 66.729, 0.0193932, -109.779
0, 1260.00000, 127.51, -30.1567, 127.504, -150.251, 127.356, 89.803, 0, 0, 7.41126, -53.2307, 7.4116, -173.325, 7.42023, 66.729, 0.0193932, -109.779
0, 1320.00000, 127.51, -30.1567, 127.504, -150.251, 127.356, 89.803, 0, 0, 7.41126, -53.2307, 7.4116, -173.325, 7.42023, 66.729, 0.0193932, -109.779
0, 1380.00000, 127.51, -30.1567, 127.504, -150.251, 127.356, 89.803, 0, 0, 7.41126, -53.2307, 7.4116, -173.325, 7.42023, 66.729, 0.0193932, -109.779
0, 1440.00000, 127.51, -30.1567, 127.504, -150.251, 127.356, 89.803, 0, 0, 7.41126, -53.2307, 7.4116, -173.325, 7.42023, 66.729, 0.0193932, -109.779
0, 1500.00000, 127.51, -30.1567, 127.504, -150.251, 127.356, 89.803, 0, 0, 7.41126, -53.2307, 7.4116, -173.325, 7.42023, 66.729, 0.0193932, -109.779
0, 1560.00000, 127.51, -30.1567, 127.504, -150.251, 127.356, 89.803, 0, 0, 7.41126, -53.2307, 7.4116, -173.325, 7.42023, 66.729, 0.0193932, -109.779
0, 1620.00000, 127.51, -30.1567, 127.504, -150.251, 127.356, 89.803, 0, 0, 7.41126, -53.2307, 7.4116, -173.325, 7.42023, 66.729, 0.0193932, -109.779
0, 1680.00000, 127.51, -30.1567, 127.504, -150.251, 127.356, 89.803, 0, 0, 7.41126, -53.2307, 7.4116, -173.325, 7.42023, 66.729, 0.0193932, -109.779
0, 1740.00000, 127.51, -30.1567, 127.504, -150.251, 127.356, 89.803, 0, 0, 7.41126, -53.2307, 7.4116, -173.325, 7.42023, 66.729, 0.0193932, -109.779
0, 1800.00000, 127.51, -30.1567, 127.504, -150.251, 127.356, 89.803, 0, 0, 7.41126, -53.2307, 7.4116, -173.325, 7.42023, 66.729, 0.0193932, -109.779
0, 1860.00000, 127.508, -30.1571, 127.502, -150.251, 127.354, 89.8026, 0, 0, 7.43388, -53.231, 7.43422, -173.325, 7.44286, 66.7287, 0.0194477, -109.806
0, 1920.00000, 127.508, -30.1571, 127.502, -150.251, 127.354, 89.8026, 0, 0, 7.43388, -53.231, 7.43422, -173.325, 7.44287, 66.7287, 0.0194479, -109.806
0, 1980.00000, 127.508, -30.1571, 127.502, -150.251, 127.354, 89.8026, 0, 0, 7.43388, -53.231, 7.43422, -173.325, 7.44287, 66.7287, 0.0194479, -109.806
0, 2040.00000, 127.508, -30.1571, 127.502, -150.251, 127.354, 89.8026, 0, 0, 7.43388, -53.231, 7.43422, -173.325, 7.44287, 66.7287, 0.0194479, -109.806
0, 2100.00000, 127.508, -30.1571, 127.502, -150.251, 127.354, 89.8026, 0, 0, 7.43388, -53.231, 7.43422, -173.325, 7.44287, 66.7287, 0.0194479, -109.806
0, 2160.00000, 127.508, -30.1571, 127.502, -150.251, 127.354, 89.8026, 0, 0, 7.43388, -53.231, 7.43422, -173.325, 7.44287, 66.7287, 0.0194479, -109.806
0, 2220.00000, 127.508, -30.1571, 127.502, -150.251, 127.354, 89.8026, 0, 0, 7.43388, -53.231, 7.43422, -173.325, 7.44287, 66.7287, 0.0194479, -109.806
0, 2280.00000, 127.508, -30.1571, 127.502, -150.251, 127.354, 89.8026, 0, 0, 7.43388, -53.231, 7.43422, -173.325, 7.44287, 66.7287, 0.0194479, -109.806
0, 2340.00000, 127.508, -30.1571, 127.502, -150.251, 127.354, 89.8026, 0, 0, 7.43388, -53.231, 7.43422, -173.325, 7.44287, 66.7287, 0.0194479, -109.806
0, 2400.00000, 127.508, -30.1571, 127.502, -150.251, 127.354, 89.8026, 0, 0, 7.43388, -53.231, 7.43422, -173.325, 7.44287, 66.7287, 0.0194479, -109.806
0, 2460.00000, 127.508, -30.1571, 127.502, -150.251, 127.354, 89.8026, 0, 0, 7.43388, -53.231, 7.43422, -173.325, 7.44287, 66.7287, 0.0194479, -109.806
0, 2520.00000, 127.508, -30.1571, 127.502, -150.251, 127.354, 89.8026, 0, 0, 7.43388, -53.231, 7.43422, -173.325, 7.44287, 66.7287, 0.0194479, -109.806
0, 2580.00000, 127.508, -30.1571, 127.502, -150.251, 127.354, 89.8026, 0, 0, 7.43388, -53.231, 7.43422, -173.325, 7.44287, 66.7287, 0.0194479, -109.806
0, 2640.00000, 127.508, -30.1571, 127.502, -150.251, 127.354, 89.8026, 0, 0, 7.43388, -53.231, 7.43422, -173.325, 7.44287, 66.7287, 0.0194479, -109.806
0, 2700.00000, 127.508, -30.1571, 127.502, -150.251, 127.354, 89.8026, 0, 0, 7.43388, -53.231, 7.43422, -173.325, 7.44287, 66.7287, 0.0194479, -109.806
0, 2760.00000, 127.542, -30.1505, 127.535, -150.245, 127.386, 89.8096, 0, 0, 7.0688, -53.2245, 7.06921, -173.319, 7.07746, 66.7356, 0.0185662, -109.375
0, 2820.00000, 127.542, -30.1505, 127.535, -150.245, 127.386, 89.8096, 0, 0, 7.06877, -53.2245, 7.06919, -173.319, 7.07743, 66.7357, 0.0185615, -109.369
0, 2880.00000, 127.542, -30.1505, 127.535, -150.245, 127.386, 89.8096, 0, 0, 7.06877, -53.2245, 7.06919, -173.319, 7.07743, 66.7357, 0.0185615, -109.369
0, 2940.00000, 127.542, -30.1505, 127.535, -150.245, 127.386, 89.8096, 0, 0, 7.06877, -53.2245, 7.06919, -173.319, 7.07743, 66.7357, 0.0185615, -109.369
0, 3000.00000, 127.542, -30.1505, 127.535, -150.245, 127.386, 89.8096, 0, 0, 7.06877, -53.2245, 7.06919, -173.319, 7.07743, 66.7357, 0.0185615, -109.369
0, 3060.00000, 127.542, -30.1505, 127.535, -150.245, 127.386, 89.8096, 0, 0, 7.06877, -53.2245, 7.06919, -173.319, 7.07743, 66.7357, 0.0185615, -109.369
0, 3120.00000, 127.542, -30.1505, 127.535, -150.245, 127.386, 89.8096, 0, 0, 7.06877, -53.2245, 7.06919, -173.319, 7.07743, 66.7357, 0.0185615, -109.369
0, 3180.00000, 127.542, -30.1505, 127.535, -150.245, 127.386, 89.8096, 0, 0, 7.06877, -53.2245, 7.06919, -173.319, 7.07743, 66.7357, 0.0185615, -109.369
0, 3240.00000, 127.542, -30.1505, 127.535, -150.245, 127.386, 89.8096, 0, 0, 7.06877, -53.2245, 7.06919, -173.319, 7.07743, 66.7357, 0.0185615, -109.369
0, 3300.00000, 127.542, -30.1505, 127.535, -150.245, 127.386, 89.8096, 0, 0, 7.06877, -53.2245, 7.06919, -173.319, 7.07743, 66.7357, 0.0185615, -109.369
0, 3360.00000, 127.542, -30.1505, 127.535, -150.245, 127.386, 89.8096, 0, 0, 7.06877, -53.2245, 7.06919, -173.319, 7.07743, 66.7357, 0.0185615, -109.369
0, 3420.00000, 127.542, -30.1505, 127.535, -150.245, 127.386, 89.8096, 0, 0, 7.06877, -53.2245, 7.06919, -173.319, 7.07743, 66.7357, 0.0185615, -109.369
0, 3480.00000, 127.542, -30.1505, 127.535, -150.245, 127.386, 89.8096, 0, 0, 7.06877, -53.2245, 7.06919, -173.319, 7.07743, 66.7357, 0.0185615, -109.369
0, 3540.00000, 127.542, -30.1505, 127.535, -150.245, 127.386, 89.8096, 0, 0, 7.06877, -53.2245, 7.06919, -173.319, 7.07743, 66.7357, 0.0185615, -109.369
1, 0.00000, 127.542, -30.1505, 127.535, -150.245, 127.386, 89.8096, 0, 0, 7.06877, -53.2245, 7.06919, -173.319, 7.07743, 66.7357, 0.0185615, -109.369
1, 60.00000, 127.55, -30.1491, 127.542, -150.243, 127.394, 89.8112, 0, 0, 6.98571, -53.223, 6.98615, -173.317, 6.9943, 66.7373, 0.01836, -109.271
1, 120.00000, 127.55, -30.1491, 127.542, -150.243, 127.394, 89.8112, 0, 0, 6.9857, -53.223, 6.98614, -173.317, 6.99429, 66.7373, 0.018359, -109.27
1, 180.00000, 127.55, -30.1491, 127.542, -150.243, 127.394, 89.8112, 0, 0, 6.9857, -53.223, 6.98614, -173.317, 6.99429, 66.7373, 0.018359, -109.27
1, 240.00000, 127.55, -30.1491, 127.542, -150.243, 127.394, 89.8112, 0, 0, 6.9857, -53.223, 6.98614, -173.317, 6.99429, 66.7373, 0.018359, -109.27
1, 300.00000, 127.55, -30.1491, 127.542, -150.243, 127.394, 89.8112, 0, 0, 6.9857, -53.223, 6.98614, -173.317, 6.99429, 66.7373, 0.018359, -109.27
1, 360.00000, 127.55, -30.1491, 127.542, -150.243, 127.394, 89.8112, 0, 0, 6.9857, -53.223, 6.98614, -173.317, 6.99429, 66.7373, 0.018359, -109.27
1, 420.00000, 127.55, -30.1491, 127.542, -150.243, 127.394, 89.8112, 0, 0, 6.9857, -53.223, 6.98614, -173.317, 6.99429, 66.7373, 0.018359, -109.27
1, 480.00000, 127.55, -30.1491, 127.542, -150.243, 127.394, 89.8112, 0, 0, 6.9857, -53.223, 6.98614, -173.317, 6.99429, 66.7373, 0.018359, -109.27
1, 540.00000, 127.55, -30.1491, 127.542, -150.243, 127.394, 89.8112, 0, 0, 6.9857, -53.223, 6.98614, -173.317, 6.99429, 66.7373, 0.018359, -109.27
1, 600.00000, 127.55, -30.1491, 127.542, -150.243, 127.394, 89.8112, 0, 0, 6.9857, -53.223, 6.98614, -173.317, 6.99429, 66.7373, 0.018359, -109.27
1, 660.00000, 127.55, -30.1491, 127.542, -150.243, 127.394, 89.8112, 0, 0, 6.9857, -53.223, 6.98614, -173.317, 6.99429, 66.7373, 0.018359, -109.27
1, 720.00000, 127.55, -30.1491, 127.542, -150.243, 127.394, 89.8112, 0, 0, 6.9857, -53.223, 6.98614, -173.317, 6.99429, 66.7373, 0.018359, -109.27
1, 780.00000, 127.55, -30.1491, 127.542, -150.243, 127.394, 89.8112, 0, 0, 6.9857, -53.223, 6.98614, -173.317, 6.99429, 66.7373, 0.018359, -109.27
1, 840.00000, 127.55, -30.1491, 127.542, -150.243, 127.394, 89.8112, 0, 0, 6.9857, -53.223, 6.98614, -173.317, 6.99429, 66.7373, 0.018359, -109.27
1, 900.00000, 127.55, -30.1491, 127.542, -150.243, 127.394, 89.8112, 0, 0, 6.9857, -53.223, 6.98614, -173.317, 6.99429, 66.7373, 0.018359, -109.27
1, 960.00000, 127.553, -30.1485, 127.545, -150.243, 127.397, 89.8119, 0, 0, 6.95284, -53.2224, 6.95328, -173.317, 6.9614, 66.7379, 0.0182792, -109.231
1, 1020.00000, 127.553, -30.1485, 127.545, -150.243, 127.397, 89.8119, 0, 0, 6.95284, -53.2224, 6.95328, -173.317, 6.96139, 66.7379, 0.0182787, -109.23
1, 1080.00000, 127.553, -30.1485, 127.545, -150.243, 127.397, 89.8119, 0, 0, 6.95284, -53.2224, 6.95328, -173.317, 6.96139, 66.7379, 0.0182787, -109.23
1, 1140.00000, 127.553, -30.1485, 127.545, -150.243, 127.397, 89.8119, 0, 0, 6.95284, -53.2224, 6.95328, -173.317, 6.96139, 66.7379, 0.0182787, -109.23
1, 1200.00000, 127.553, -30.1485, 127.545, -150.243, 127.397, 89.8119, 0, 0, 6.95284, -53.2224, 6.95328, -173.317, 6.96139, 66.7379, 0.0182787, -109.23
1, 1260.00000, 127.553, -30.1485, 127.545, -150.243, 127.397, 89.8119, 0, 0, 6.95284, -53.2224, 6.95328, -173.317, 6.96139, 66.7379, 0.0182787, -109.23
1, 1320.00000, 127.553, -30.1485, 127.545, -150.243, 127.397, 89.8119, 0, 0, 6.95284, -53.2224, 6.95328, -173.317, 6.96139, 66.7379, 0.0182787, -109.23
1, 1380.00000, 127.553, -30.1485, 127.545, -150.243, 127.397, 89.8119, 0, 0, 6.95284, -53.2224, 6.95328, -173.317, 6.96139, 66.7379, 0.0182787, -109.23
1, 1440.00000, 127.553, -30.1485, 127.545, -150.243, 127.397, 89.8119, 0, 0, 6.95284, -53.2224, 6.95328, -173.317, 6.96139, 66.7379, 0.0182787, -109.23
1, 1500.00000, 127.553, -30.1485, 127.545, -150.243, 127.397, 89.8119, 0, 0, 6.95284, -53.2224, 6.95328, -173.317, 6.96139, 66.7379, 0.0182787, -109.23
1, 1560.00000, 127.553, -30.1485, 127.545, -150.243, 127.397, 89.8119, 0, 0, 6.95284, -53.2224, 6.95328, -173.317, 6.96139, 66.7379, 0.0182787, -109.23
1, 1620.00000, 127.553, -30.1485, 127.545, -150.243, 127.397, 89.8119, 0, 0, 6.95284, -53.2224, 6.95328, -173.317, 6.96139, 66.7379, 0.0182787, -109.23
1, 1680.00000, 127.553, -30.1485, 127.545, -150.243, 127.397, 89.8119, 0, 0, 6.95284, -53.2224, 6.95328, -173.317, 6.96139, 66.7379, 0.0182787, -109.23
1, 1740.00000, 127.553, -30.1485, 127.545, -150.243, 127.397, 89.8119, 0, 0, 6.95284, -53.2224, 6.95328, -173.317, 6.96139, 66.7379, 0.0182787, -109.23
1, 1800.00000, 127.553, -30.1485, 127.545, -150.243, 127.397, 89.8119, 0, 0, 6.95284, -53.2224, 6.95328, -173.317, 6.96139, 66.7379, 0.0182787, -109.23
1, 1860.00000, 127.537, -30.1515, 127.53, -150.246, 127.382, 89.8086, 0, 0, 7.1214, -53.2253, 7.12181, -173.32, 7.13011, 66.7348, 0.0186875, -109.429
1, 1920.00000, 127.537, -30.1515, 127.53, -150.246, 127.382, 89.8086, 0, 0, 7.12141, -53.2254, 7.12182, -173.32, 7.13012, 66.7347, 0.0186897, -109.431
1, 1980.00000, 127.537, -30.1515, 127.53, -150.246, 127.382, 89.8086, 0, 0, 7.12141, -53.2254, 7.12182, -173.32, 7.13012, 66.7347, 0.0186897, -109.431
1, 2040.00000, 127.537, -30.1515, 127.53, -150.246, 127.382, 89.8086, 0, 0, 7.12141, -53.2254, 7.12182, -173.32, 7.13012, 66.7347, 0.0186897, -109.431
1, 2100.00000, 127.537, -30.1515, 127.53, -150.246, 127.382, 89.8086, 0, 0, 7.12141, -53.2254, 7.12182, -173.32, 7.13012, 66.7347, 0.0186897, -109.431
1, 2160.00000, 127.537, -30.1515, 127.53, -150.246, 127.382, 89.8086, 0, 0, 7.12141, -53.2254, 7.12182, -173.32, 7.13012, 66.7347, 0.0186897, -109.431
1, 2220.00000, 127.537, -30.1515, 127.53, -150.246, 127.382, 89.8086, 0, 0, 7.12141, -53.2254, 7.12182, -173.32, 7.13012, 66.7347, 0.0186897, -109.431
1, 2280.00000, 127.537, -30.1515, 127.53, -150.246, 127.382, 89.8086, 0, 0, 7.12141, -53.2254, 7.12182, -173.32, 7.13012, 66.7347, 0.0186897, -109.431
1, 2340.00000, 127.537, -30.1515, 127.53, -150.246, 127.382, 89.8086, 0, 0, 7.12141, -53.2254, 7.12182, -173.32, 7.13012, 66.7347, 0.0186897, -109.431
1, 2400.00000, 127.537, -30.1515, 127.53, -150.246, 127.382, 89.8086, 0, 0, 7.12141, -53.2254, 7.12182, -173.32, 7.13012, 66.7347, 0.0186897, -109.431
1, 2460.00000, 127.537, -30.1515, 127.53, -150.246, 127.382, 89.8086, 0, 0, 7.12141, -53.2254, 7.12182, -173.32, 7.13012, 66.7347, 0.0186897, -109.431
1, 2520.00000, 127.537, -30.1515, 127.53, -150.246, 127.382, 89.8086, 0, 0, 7.12141, -53.2254, 7.12182, -173.32, 7.13012, 66.7347, 0.0186897, -109.431
1, 2580.00000, 127.537, -30.1515, 127.53, -150.246, 127.382, 89.8086, 0, 0, 7.12141, -53.2254, 7.12182, -173.32, 7.13012, 66.7347, 0.0186897, -109.431
1, 2640.00000, 127.537, -30.1515, 127.53, -150.246, 127.382, 89.8086, 0, 0, 7.12141, -53.2254, 7.12182, -173.32, 7.13012, 66.7347, 0.0186897, -109.431
1, 2700.00000, 127.537, -30.1515, 127.53, -150.246, 127.382, 89.8086, 0, 0, 7.12141, -53.2254, 7.12182, -173.32, 7.13012, 66.7347, 0.0186897, -109.431
1, 2760.00000, 127.576, -30.1442, 127.567, -150.238, 127.418, 89.8165, 0, 0, 6.7085, -53.2182, 6.70899, -173.312, 6.71684, 66.7425, 0.0176858, -108.947
1, 2820.00000, 127.576, -30.1442, 127.567, -150.238, 127.418, 89.8165, 0, 0, 6.70848, -53.2181, 6.70897, -173.312, 6.71681, 66.7426, 0.0176807, -108.94
1, 2880.00000, 127.576, -30.1442, 127.567, -150.238, 127.418, 89.8165, 0, 0, 6.70848, -53.2181, 6.70897, -173.312, 6.71681, 66.7426, 0.0176807, -108.94
1, 2940.00000, 127.576, -30.1442, 127.567, -150.238, 127.418, 89.8165, 0, 0, 6.70848, -53.2181, 6.70897, -173.312, 6.71681, 66.7426, 0.0176807, -108.94
1, 3000.00000, 127.576, -30.1442, 127.567, -150.238, 127.418, 89.8165, 0, 0, 6.70848, -53.2181, 6.70897, -173.312, 6.71681, 66.7426, 0.0176807, -108.94
1, 3060.00000, 127.576, -30.1442, 127.567, -150.238, 127.418, 89.8165, 0, 0, 6.70848, -53.2181, 6.70897, -173.312, 6.71681, 66.7426, 0.0176807, -108.94
1, 3120.00000, 127.576, -30.1442, 127.567, -150.238, 127.418, 89.8165, 0, 0, 6.70848, -53.2181, 6.70897, -173.312, 6.71681, 66.7426, 0.0176807, -108.94
1, 3180.00000, 127.576, -30.1442, 127.567, -150.238, 127.418, 89.8165, 0, 0, 6.70848, -53.2181, 6.70897, -173.312, 6.71681, 66.7426, 0.0176807, -108.94
1, 3240.00000, 127.576, -30.1442, 127.567, -150.238, 127.418, 89.8165, 0, 0, 6.70848, -53.2181, 6.70897, -173.312, 6.71681, 66.7426, 0.0176807, -108.94
1, 3300.00000, 127.576, -30.1442, 127.567, -150.238, 127.418, 89.8165, 0, 0, 6.70848, -53.2181, 6.70897, -173.312, 6.71681, 66.7426, 0.0176807, -108.94
1, 3360.00000, 127.576, -30.1442, 127.567, -150.238, 127.418, 89.8165, 0, 0, 6.70848, -53.2181, 6.70897, -173.312, 6.71681, 66.7426, 0.0176807, -108.94
1, 3420.00000, 127.576, -30.1442, 127.567, -150.238, 127.418, 89.8165, 0, 0, 6.70848, -53.2181, 6.70897, -173.312, 6.71681, 66.7426, 0.0176807, -108.94
1, 3480.00000, 127.576, -30.1442, 127.567, -150.238, 127.418, 89.8165, 0, 0, 6.70848, -53.2181, 6.70897, -173.312, 6.71681, 66.7426, 0.0176807, -108.94
1, 3540.00000, 127.576, -30.1442, 127.567, -150.238, 127.418, 89.8165, 0, 0, 6.70848, -53.2181, 6.70897, -173.312, 6.71681, 66.7426, 0.0176807, -108.94
2, 0.00000, 127.576, -30.1442, 127.567, -150.238, 127.418, 89.8165, 0, 0, 6.70848, -53.2181, 6.70897, -173.312, 6.71681, 66.7426, 0.0176807, -108.94
2, 60.00000, 127.559, -30.1473, 127.551, -150.241, 127.402, 89.8131, 0, 0, 6.8894, -53.2212, 6.88986, -173.315, 6.8979, 66.7393, 0.0181215, -109.152
2, 120.00000, 127.559, -30.1473, 127.551, -150.241, 127.402, 89.8131, 0, 0, 6.88941, -53.2212, 6.88987, -173.315, 6.89791, 66.7392, 0.0181238, -109.155
2, 180.00000, 127.559, -30.1473, 127.551, -150.241, 127.402, 89.8131, 0, 0, 6.88941, -53.2212, 6.88987, -173.315, 6.89791, 66.7392, 0.0181238, -109.155
2, 240.00000, 127.559, -30.1473, 127.551, -150.241, 127.402, 89.8131, 0, 0, 6.88941, -53.2212, 6.88987, -173.315, 6.89791, 66.7392, 0.0181238, -109.155
2, 300.00000, 127.559, -30.1473, 127.551, -150.241, 127.402, 89.8131, 0, 0, 6.88941, -53.2212, 6.88987, -173.315, 6.89791, 66.7392, 0.0181238, -109.155
2, 360.00000, 127.559, -30.1473, 127.551, -150.241, 127.402, 89.8131, 0, 0, 6.88941, -53.2212, 6.88987, -173.315, 6.89791, 66.7392, 0.0181238, -109.155
2, 420.00000, 127.559, -30.1473, 127.551, -150.241, 127.402, 89.8131, 0, 0, 6.88941, -53.2212, 6.88987, -173.315, 6.89791, 66.7392, 0.0181238, -109.155
2, 480.00000, 127.559, -30.1473, 127.551, -150.241, 127.402, 89.8131, 0, 0, 6.88941, -53.2212, 6.88987, -173.315, 6.89791, 66.7392, 0.0181238, -109.155
2, 540.00000, 127.559, -30.1473, 127.551, -150.241, 127.402, 89.8131, 0, 0, 6.88941, -53.2212, 6.88987, -173.315, 6.89791, 66.7392, 0.0181238, -109.155
2, 600.00000, 127.559, -30.1473, 127.551, -150.241, 127.402, 89.8131, 0, 0, 6.88941, -53.2212, 6.88987, -173.315, 6.89791, 66.7392, 0.0181238, -109.155
2, 660.00000, 127.559, -30.1473, 127.551, -150.241, 127.402, 89.8131, 0, 0, 6.88941, -53.2212, 6.88987, -173.315, 6.89791, 66.7392, 0.0181238, -109.155
2, 720.00000, 127.559, -30.1473, 127.551, -150.241, 127.402, 89.8131, 0, 0, 6.88941, -53.2212, 6.88987, -173.315, 6.89791, 66.7392, 0.0181238, -109.155
