hour,t(sec),V1,VAngle1,V2,VAngle2,V3,VAngle3,V4,VAngle4,I1,IAngle1,I2,IAngle2,I3,IAngle3,I4,IAngle4
0, 60.00000, 128.384, -30.5403, 127.655, -150.281, 128.553, 89.8772, 0, 0, 5.41611, -53.6141, 5.44705, -173.355, 5.40899, 66.8034, 0.0695594, 15.6411
0, 120.00000, 128.391, -30.5447, 127.655, -150.281, 128.565, 89.8776, 0, 0, 5.41583, -53.6185, 5.44705, -173.355, 5.40849, 66.8037, 0.0703818, 15.8493
0, 180.00000, 128.396, -30.5486, 127.655, -150.281, 128.576, 89.8779, 0, 0, 5.41558, -53.6224, 5.44705, -173.355, 5.40804, 66.804, 0.0711227, 16.0328
0, 240.00000, 128.402, -30.5521, 127.655, -150.281, 128.585, 89.8782, 0, 0, 5.41535, -53.6259, 5.44705, -173.355, 5.40763, 66.8043, 0.0717901, 16.1949
0, 300.00000, 128.407, -30.5552, 127.655, -150.281, 128.594, 89.8784, 0, 0, 5.41515, -53.6291, 5.44705, -173.355, 5.40727, 66.8046, 0.0723913, 16.3384
0, 360.00000, 128.411, -30.5581, 127.655, -150.281, 128.602, 89.8786, 0, 0, 5.41497, -53.6319, 5.44705, -173.355, 5.40694, 66.8048, 0.0729328, 16.4657
0, 420.00000, 128.415, -30.5607, 127.655, -150.281, 128.609, 89.8788, 0, 0, 5.4148, -53.6345, 5.44705, -173.355, 5.40664, 66.805, 0.0734204, 16.5787
0, 480.00000, 128.418, -30.563, 127.655, -150.281, 128.615, 89.879, 0, 0, 5.41466, -53.6368, 5.44705, -173.355, 5.40638, 66.8051, 0.0738595, 16.6793
0, 540.00000, 128.421, -30.565, 127.655, -150.281, 128.621, 89.8792, 0, 0, 5.41452, -53.6389, 5.44705, -173.355, 5.40614, 66.8053, 0.0742549, 16.7688
0, 600.00000, 128.424, -30.5669, 127.655, -150.281, 128.626, 89.8793, 0, 0, 5.41441, -53.6408, 5.44705, -173.355, 5.40592, 66.8054, 0.0746109, 16.8487
0, 660.00000, 128.427, -30.5686, 127.655, -150.281, 128.631, 89.8795, 0, 0, 5.4143, -53.6425, 5.44705, -173.355, 5.40573, 66.8056, 0.0749314, 16.9199
0, 720.00000, 128.429, -30.5701, 127.655, -150.281, 128.635, 89.8796, 0, 0, 5.4142, -53.644, 5.44705, -173.355, 5.40555, 66.8057, 0.07522, 16.9836
0, 780.00000, 128.431, -30.5715, 127.655, -150.281, 128.638, 89.8797, 0, 0, 5.41411, -53.6454, 5.44705, -173.355, 5.40539, 66.8058, 0.0754798, 17.0405
0, 840.00000, 128.433, -30.5727, 127.655, -150.281, 128.642, 89.8798, 0, 0, 5.41404, -53.6466, 5.44705, -173.355, 5.40525, 66.8059, 0.0757137, 17.0914
0, 900.00000, 128.435, -30.5738, 127.655, -150.281, 128.645, 89.8799, 0, 0, 5.41397, -53.6477, 5.44705, -173.355, 5.40513, 66.806, 0.0759242, 17.1369
0, 960.00000, 128.41, -30.5823, 127.629, -150.289, 128.622, 89.8721, 0, 0, 5.72837, -53.6562, 5.76342, -173.363, 5.71893, 66.7982, 0.0805026, 17.1834
0, 1020.00000, 128.412, -30.5832, 127.629, -150.289, 128.625, 89.8722, 0, 0, 5.72831, -53.6571, 5.76342, -173.363, 5.71882, 66.7983, 0.0806831, 17.2199
0, 1080.00000, 128.413, -30.584, 127.629, -150.289, 128.627, 89.8723, 0, 0, 5.72826, -53.6579, 5.76342, -173.363, 5.71872, 66.7983, 0.0808456, 17.2527
0, 1140.00000, 128.414, -30.5848, 127.629, -150.289, 128.629, 89.8723, 0, 0, 5.72821, -53.6587, 5.76342, -173.363, 5.71863, 66.7984, 0.0809919, 17.2821
0, 1200.00000, 128.415, -30.5854, 127.629, -150.289, 128.631, 89.8724, 0, 0, 5.72816, -53.6593, 5.76342, -173.363, 5.71855, 66.7985, 0.0811236, 17.3084
0, 1260.00000, 128.416, -30.586, 127.629, -150.289, 128.632, 89.8724, 0, 0, 5.72812, -53.6599, 5.76342, -173.363, 5.71848, 66.7985, 0.0812421, 17.3321
0, 1320.00000, 128.417, -30.5865, 127.629, -150.289, 128.634, 89.8724, 0, 0, 5.72809, -53.6604, 5.76342, -173.363, 5.71841, 66.7985, 0.0813487, 17.3533
0, 1380.00000, 128.417, -30.587, 127.629, -150.289, 128.635, 89.8725, 0, 0, 5.72806, -53.6609, 5.76342, -173.363, 5.71836, 66.7986, 0.0814448, 17.3724
0, 1440.00000, 128.418, -30.5874, 127.629, -150.289, 128.636, 89.8725, 0, 0, 5.72803, -53.6614, 5.76342, -173.363, 5.7183, 66.7986, 0.0815312, 17.3895
0, 1500.00000, 128.418, -30.5878, 127.629, -150.289, 128.637, 89.8725, 0, 0, 5.728, -53.6617, 5.76342, -173.363, 5.71826, 66.7986, 0.081609, 17.4049
0, 1560.00000, 128.419, -30.5882, 127.629, -150.289, 128.638, 89.8726, 0, 0, 5.72798, -53.6621, 5.76342, -173.363, 5.71821, 66.7987, 0.081679, 17.4187
0, 1620.00000, 128.419, -30.5885, 127.629, -150.289, 128.639, 89.8726, 0, 0, 5.72796, -53.6624, 5.76342, -173.363, 5.71818, 66.7987, 0.081742, 17.4311
0, 1680.00000, 128.42, -30.5888, 127.629, -150.289, 128.64, 89.8726, 0, 0, 5.72794, -53.6627, 5.76342, -173.363, 5.71814, 66.7987, 0.0817987, 17.4423
0, 1740.00000, 128.42, -30.589, 127.629, -150.289, 128.641, 89.8726, 0, 0, 5.72792, -53.6629, 5.76342, -173.363, 5.71811, 66.7987, 0.0818497, 17.4523
0, 1800.00000, 128.421, -30.5893, 127.629, -150.289, 128.641, 89.8727, 0, 0, 5.72791, -53.6632, 5.76342, -173.363, 5.71808, 66.7987, 0.0818957, 17.4614
0, 1860.00000, 128.42, -30.5898, 127.628, -150.29, 128.641, 89.8723, 0, 0, 5.74534, -53.6637, 5.78097, -173.363, 5.73548, 66.7984, 0.0821849, 17.4699
0, 1920.00000, 128.42, -30.59, 127.628, -150.29, 128.641, 89.8723, 0, 0, 5.74533, -53.6639, 5.78097, -173.363, 5.73545, 66.7984, 0.0822222, 17.4772
0, 1980.00000, 128.42, -30.5901, 127.628, -150.29, 128.642, 89.8724, 0, 0, 5.74532, -53.664, 5.78097, -173.363, 5.73543, 66.7984, 0.0822558, 17.4838
0, 2040.00000, 128.42, -30.5903, 127.628, -150.29, 128.642, 89.8724, 0, 0, 5.74531, -53.6642, 5.78097, -173.363, 5.73541, 66.7984, 0.0822861, 17.4897
0, 2100.00000, 128.421, -30.5904, 127.628, -150.29, 128.642, 89.8724, 0, 0, 5.7453, -53.6643, 5.78097, -173.363, 5.7354, 66.7985, 0.0823133, 17.495
0, 2160.00000, 128.421, -30.5905, 127.628, -150.29, 128.643, 89.8724, 0, 0, 5.74529, -53.6645, 5.78097, -173.363, 5.73538, 66.7985, 0.0823378, 17.4998
0, 2220.00000, 128.421, -30.5906, 127.628, -150.29, 128.643, 89.8724, 0, 0, 5.74528, -53.6646, 5.78097, -173.363, 5.73537, 66.7985, 0.0823598, 17.5041
0, 2280.00000, 128.421, -30.5907, 127.628, -150.29, 128.643, 89.8724, 0, 0, 5.74528, -53.6647, 5.78097, -173.363, 5.73536, 66.7985, 0.0823797, 17.5079
0, 2340.00000, 128.421, -30.5908, 127.628, -150.29, 128.644, 89.8724, 0, 0, 5.74527, -53.6648, 5.78097, -173.363, 5.73535, 66.7985, 0.0823975, 17.5114
0, 2400.00000, 128.421, -30.5909, 127.628, -150.29, 128.644, 89.8724, 0, 0, 5.74527, -53.6648, 5.78097, -173.363, 5.73534, 66.7985, 0.0824136, 17.5145
0, 2460.00000, 128.422, -30.591, 127.628, -150.29, 128.644, 89.8724, 0, 0, 5.74526, -53.6649, 5.78097, -173.363, 5.73533, 66.7985, 0.0824281, 17.5173
0, 2520.00000, 128.422, -30.5911, 127.628, -150.29, 128.644, 89.8724, 0, 0, 5.74526, -53.665, 5.78097, -173.363, 5.73532, 66.7985, 0.0824411, 17.5199
0, 2580.00000, 128.422, -30.5911, 127.628, -150.29, 128.644, 89.8724, 0, 0, 5.74525, -53.665, 5.78097, -173.363, 5.73531, 66.7985, 0.0824528, 17.5221
0, 2640.00000, 128.422, -30.5912, 127.628, -150.29, 128.644, 89.8724, 0, 0, 5.74525, -53.6651, 5.78097, -173.363, 5.73531, 66.7985, 0.0824633, 17.5242
0, 2700.00000, 128.422, -30.5912, 127.628, -150.29, 128.645, 89.8724, 0, 0, 5.74525, -53.6651, 5.78097, -173.363, 5.7353, 66.7985, 0.0824728, 17.526
0, 2760.00000, 128.445, -30.5846, 127.651, -150.283, 128.667, 89.8794, 0, 0, 5.46356, -53.6585, 5.49757, -173.356, 5.45414, 66.8055, 0.078465, 17.5227
0, 2820.00000, 128.445, -30.5846, 127.651, -150.283, 128.667, 89.8794, 0, 0, 5.46356, -53.6585, 5.49757, -173.356, 5.45413, 66.8055, 0.0784723, 17.5242
0, 2880.00000, 128.445, -30.5846, 127.651, -150.283, 128.667, 89.8794, 0, 0, 5.46356, -53.6586, 5.49757, -173.356, 5.45413, 66.8055, 0.0784789, 17.5255
0, 2940.00000, 128.445, -30.5847, 127.651, -150.283, 128.667, 89.8794, 0, 0, 5.46356, -53.6586, 5.49757, -173.356, 5.45413, 66.8055, 0.0784849, 17.5268
0, 3000.00000, 128.445, -30.5847, 127.651, -150.283, 128.667, 89.8794, 0, 0, 5.46356, -53.6586, 5.49757, -173.356, 5.45412, 66.8055, 0.0784902, 17.5278
0, 3060.00000, 128.445, -30.5847, 127.651, -150.283, 128.668, 89.8794, 0, 0, 5.46355, -53.6586, 5.49757, -173.356, 5.45412, 66.8055, 0.078495, 17.5288
0, 3120.00000, 128.445, -30.5847, 127.651, -150.283, 128.668, 89.8794, 0, 0, 5.46355, -53.6587, 5.49757, -173.356, 5.45412, 66.8055, 0.0784993, 17.5297
0, 3180.00000, 128.445, -30.5848, 127.651, -150.283, 128.668, 89.8794, 0, 0, 5.46355, -53.6587, 5.49757, -173.356, 5.45411, 66.8055, 0.0785032, 17.5305
0, 3240.00000, 128.445, -30.5848, 127.651, -150.283, 128.668, 89.8794, 0, 0, 5.46355, -53.6587, 5.49757, -173.356, 5.45411, 66.8055, 0.0785067, 17.5312
0, 3300.00000, 128.445, -30.5848, 127.651, -150.283, 128.668, 89.8794, 0, 0, 5.46355, -53.6587, 5.49757, -173.356, 5.45411, 66.8055, 0.0785098, 17.5319
0, 3360.00000, 128.445, -30.5848, 127.651, -150.283, 128.668, 89.8794, 0, 0, 5.46355, -53.6587, 5.49757, -173.356, 5.45411, 66.8055, 0.0785127, 17.5324
0, 3420.00000, 128.446, -30.5848, 127.651, -150.283, 128.668, 89.8794, 0, 0, 5.46355, -53.6587, 5.49757, -173.356, 5.45411, 66.8055, 0.0785152, 17.5329
0, 3480.00000, 128.446, -30.5848, 127.651, -150.283, 128.668, 89.8794, 0, 0, 5.46355, -53.6588, 5.49757, -173.356, 5.45411, 66.8055, 0.0785175, 17.5334
0, 3540.00000, 128.446, -30.5848, 127.651, -150.283, 128.668, 89.8794, 0, 0, 5.46355, -53.6588, 5.49757, -173.356, 5.4541, 66.8055, 0.0785196, 17.5338
1, 0.00000, 128.446, -30.5849, 127.651, -150.283, 128.668, 89.8794, 0, 0, 5.46355, -53.6588, 5.49757, -173.356, 5.4541, 66.8055, 0.0785214, 17.5342
1, 60.00000, 128.451, -30.5834, 127.656, -150.281, 128.673, 89.881, 0, 0, 5.39945, -53.6573, 5.43308, -173.355, 5.39013, 66.8071, 0.0776082, 17.5334
1, 120.00000, 128.451, -30.5834, 127.656, -150.281, 128.673, 89.881, 0, 0, 5.39945, -53.6573, 5.43308, -173.355, 5.39013, 66.8071, 0.0776097, 17.5337
1, 180.00000, 128.451, -30.5834, 127.656, -150.281, 128.673, 89.881, 0, 0, 5.39945, -53.6573, 5.43308, -173.355, 5.39013, 66.8071, 0.077611, 17.534
1, 240.00000, 128.451, -30.5834, 127.656, -150.281, 128.673, 89.881, 0, 0, 5.39945, -53.6573, 5.43308, -173.355, 5.39013, 66.8071, 0.0776122, 17.5343
1, 300.00000, 128.451, -30.5834, 127.656, -150.281, 128.673, 89.881, 0, 0, 5.39945, -53.6573, 5.43308, -173.355, 5.39013, 66.8071, 0.0776133, 17.5345
1, 360.00000, 128.451, -30.5834, 127.656, -150.281, 128.673, 89.881, 0, 0, 5.39945, -53.6573, 5.43308, -173.355, 5.39012, 66.8071, 0.0776143, 17.5347
1, 420.00000, 128.451, -30.5834, 127.656, -150.281, 128.673, 89.881, 0, 0, 5.39945, -53.6573, 5.43308, -173.355, 5.39012, 66.8071, 0.0776151, 17.5349
1, 480.00000, 128.451, -30.5834, 127.656, -150.281, 128.673, 89.881, 0, 0, 5.39945, -53.6573, 5.43308, -173.355, 5.39012, 66.8071, 0.0776159, 17.535
1, 540.00000, 128.451, -30.5834, 127.656, -150.281, 128.673, 89.881, 0, 0, 5.39945, -53.6573, 5.43308, -173.355, 5.39012, 66.8071, 0.0776166, 17.5352
1, 600.00000, 128.451, -30.5834, 127.656, -150.281, 128.673, 89.881, 0, 0, 5.39945, -53.6573, 5.43308, -173.355, 5.39012, 66.8071, 0.0776173, 17.5353
1, 660.00000, 128.451, -30.5834, 127.656, -150.281, 128.673, 89.881, 0, 0, 5.39945, -53.6573, 5.43308, -173.355, 5.39012, 66.8071, 0.0776179, 17.5354
1, 720.00000, 128.451, -30.5834, 127.656, -150.281, 128.673, 89.881, 0, 0, 5.39945, -53.6573, 5.43308, -173.355, 5.39012, 66.8071, 0.0776184, 17.5355
1, 780.00000, 128.451, -30.5834, 127.656, -150.281, 128.673, 89.881, 0, 0, 5.39945, -53.6573, 5.43308, -173.355, 5.39012, 66.8071, 0.0776188, 17.5356
1, 840.00000, 128.451, -30.5834, 127.656, -150.281, 128.673, 89.881, 0, 0, 5.39945, -53.6573, 5.43308, -173.355, 5.39012, 66.8071, 0.0776193, 17.5357
1, 900.00000, 128.451, -30.5834, 127.656, -150.281, 128.673, 89.881, 0, 0, 5.39945, -53.6573, 5.43308, -173.355, 5.39012, 66.8071, 0.0776196, 17.5358
1, 960.00000, 128.453, -30.5828, 127.658, -150.28, 128.675, 89.8816, 0, 0, 5.37409, -53.6567, 5.40757, -173.354, 5.36481, 66.8077, 0.0772579, 17.5354
1, 1020.00000, 128.453, -30.5828, 127.658, -150.28, 128.675, 89.8816, 0, 0, 5.37409, -53.6567, 5.40757, -173.354, 5.36481, 66.8077, 0.0772582, 17.5355
1, 1080.00000, 128.453, -30.5828, 127.658, -150.28, 128.675, 89.8816, 0, 0, 5.37409, -53.6567, 5.40757, -173.354, 5.36481, 66.8077, 0.0772584, 17.5355
1, 1140.00000, 128.453, -30.5828, 127.658, -150.28, 128.675, 89.8816, 0, 0, 5.37409, -53.6567, 5.40757, -173.354, 5.36481, 66.8077, 0.0772587, 17.5356
1, 1200.00000, 128.453, -30.5828, 127.658, -150.28, 128.675, 89.8816, 0, 0, 5.37409, -53.6567, 5.40757, -173.354, 5.36481, 66.8077, 0.0772589, 17.5356
1, 1260.00000, 128.453, -30.5828, 127.658, -150.28, 128.675, 89.8816, 0, 0, 5.37409, -53.6567, 5.40757, -173.354, 5.36481, 66.8077, 0.0772591, 17.5357
1, 1320.00000, 128.453, -30.5828, 127.658, -150.28, 128.675, 89.8816, 0, 0, 5.37409, -53.6567, 5.40757, -173.354, 5.36481, 66.8077, 0.0772593, 17.5357
1, 1380.00000, 128.453, -30.5828, 127.658, -150.28, 128.675, 89.8816, 0, 0, 5.37409, -53.6567, 5.40757, -173.354, 5.36481, 66.8077, 0.0772595, 17.5357
1, 1440.00000, 128.453, -30.5828, 127.658, -150.28, 128.675, 89.8816, 0, 0, 5.37409, -53.6568, 5.40757, -173.354, 5.36481, 66.8077, 0.0772596, 17.5358
1, 1500.00000, 128.453, -30.5828, 127.658, -150.28, 128.675, 89.8816, 0, 0, 5.37409, -53.6568, 5.40757, -173.354, 5.36481, 66.8077, 0.0772597, 17.5358
1, 1560.00000, 128.453, -30.5828, 127.658, -150.28, 128.675, 89.8816, 0, 0, 5.37409, -53.6568, 5.40757, -173.354, 5.36481, 66.8077, 0.0772599, 17.5358
1, 1620.00000, 128.453, -30.5828, 127.658, -150.28, 128.675, 89.8816, 0, 0, 5.37409, -53.6568, 5.40757, -173.354, 5.36481, 66.8077, 0.07726, 17.5358
1, 1680.00000, 128.453, -30.5828, 127.658, -150.28, 128.675, 89.8816, 0, 0, 5.37409, -53.6568, 5.40757, -173.354, 5.36481, 66.8077, 0.0772601, 17.5358
1, 1740.00000, 128.453, -30.5828, 127.658, -150.28, 128.675, 89.8816, 0, 0, 5.37409, -53.6568, 5.40757, -173.354, 5.36481, 66.8077, 0.0772601, 17.5359
1, 1800.00000, 128.453, -30.5828, 127.658, -150.28, 128.675, 89.8816, 0, 0, 5.37409, -53.6568, 5.40757, -173.354, 5.36481, 66.8077, 0.0772602, 17.5359
1, 1860.00000, 128.442, -30.5859, 127.647, -150.284, 128.665, 89.8784, 0, 0, 5.50416, -53.6598, 5.53843, -173.357, 5.49463, 66.8045, 0.0791174, 17.5382
1, 1920.00000, 128.442, -30.5859, 127.647, -150.284, 128.665, 89.8784, 0, 0, 5.50416, -53.6598, 5.53843, -173.357, 5.49463, 66.8045, 0.0791174, 17.5382
1, 1980.00000, 128.442, -30.5859, 127.647, -150.284, 128.665, 89.8784, 0, 0, 5.50416, -53.6598, 5.53843, -173.357, 5.49463, 66.8045, 0.0791175, 17.5383
1, 2040.00000, 128.442, -30.5859, 127.647, -150.284, 128.665, 89.8784, 0, 0, 5.50416, -53.6598, 5.53843, -173.357, 5.49463, 66.8045, 0.0791175, 17.5383
1, 2100.00000, 128.442, -30.5859, 127.647, -150.284, 128.665, 89.8784, 0, 0, 5.50416, -53.6598, 5.53843, -173.357, 5.49463, 66.8045, 0.0791176, 17.5383
1, 2160.00000, 128.442, -30.5859, 127.647, -150.284, 128.665, 89.8784, 0, 0, 5.50416, -53.6598, 5.53843, -173.357, 5.49463, 66.8045, 0.0791176, 17.5383
1, 2220.00000, 128.442, -30.5859, 127.647, -150.284, 128.665, 89.8784, 0, 0, 5.50416, -53.6598, 5.53843, -173.357, 5.49463, 66.8045, 0.0791177, 17.5383
1, 2280.00000, 128.442, -30.5859, 127.647, -150.284, 128.665, 89.8784, 0, 0, 5.50416, -53.6598, 5.53843, -173.357, 5.49463, 66.8045, 0.0791177, 17.5383
1, 2340.00000, 128.442, -30.5859, 127.647, -150.284, 128.665, 89.8784, 0, 0, 5.50416, -53.6598, 5.53843, -173.357, 5.49463, 66.8045, 0.0791177, 17.5383
1, 2400.00000, 128.442, -30.5859, 127.647, -150.284, 128.665, 89.8784, 0, 0, 5.50416, -53.6598, 5.53843, -173.357, 5.49463, 66.8045, 0.0791178, 17.5383
1, 2460.00000, 128.442, -30.5859, 127.647, -150.284, 128.665, 89.8784, 0, 0, 5.50416, -53.6598, 5.53843, -173.357, 5.49463, 66.8045, 0.0791178, 17.5383
1, 2520.00000, 128.442, -30.5859, 127.647, -150.284, 128.665, 89.8784, 0, 0, 5.50416, -53.6598, 5.53843, -173.357, 5.49463, 66.8045, 0.0791178, 17.5383
1, 2580.00000, 128.442, -30.5859, 127.647, -150.284, 128.665, 89.8784, 0, 0, 5.50416, -53.6598, 5.53843, -173.357, 5.49463, 66.8045, 0.0791178, 17.5383
1, 2640.00000, 128.442, -30.5859, 127.647, -150.284, 128.665, 89.8784, 0, 0, 5.50416, -53.6598, 5.53843, -173.357, 5.49463, 66.8045, 0.0791178, 17.5383
1, 2700.00000, 128.442, -30.5859, 127.647, -150.284, 128.665, 89.8784, 0, 0, 5.50416, -53.6598, 5.53843, -173.357, 5.49463, 66.8045, 0.0791179, 17.5383
1, 2760.00000, 128.468, -30.5784, 127.673, -150.276, 128.69, 89.8862, 0, 0, 5.18553, -53.6523, 5.21785, -173.35, 5.17659, 66.8123, 0.0745674, 17.5326
1, 2820.00000, 128.468, -30.5784, 127.673, -150.276, 128.69, 89.8862, 0, 0, 5.18553, -53.6523, 5.21785, -173.35, 5.17659, 66.8123, 0.0745675, 17.5326
1, 2880.00000, 128.468, -30.5784, 127.673, -150.276, 128.69, 89.8862, 0, 0, 5.18553, -53.6523, 5.21785, -173.35, 5.17659, 66.8123, 0.0745675, 17.5326
1, 2940.00000, 128.468, -30.5784, 127.673, -150.276, 128.69, 89.8862, 0, 0, 5.18553, -53.6523, 5.21785, -173.35, 5.17659, 66.8123, 0.0745675, 17.5326
1, 3000.00000, 128.468, -30.5784, 127.673, -150.276, 128.69, 89.8862, 0, 0, 5.18553, -53.6523, 5.21785, -173.35, 5.17659, 66.8123, 0.0745675, 17.5326
1, 3060.00000, 128.468, -30.5784, 127.673, -150.276, 128.69, 89.8862, 0, 0, 5.18553, -53.6523, 5.21785, -173.35, 5.17659, 66.8123, 0.0745675, 17.5326
1, 3120.00000, 128.468, -30.5784, 127.673, -150.276, 128.69, 89.8862, 0, 0, 5.18553, -53.6523, 5.21785, -173.35, 5.17659, 66.8123, 0.0745675, 17.5326
1, 3180.00000, 128.468, -30.5784, 127.673, -150.276, 128.69, 89.8862, 0, 0, 5.18553, -53.6523, 5.21785, -173.35, 5.17659, 66.8123, 0.0745675, 17.5326
1, 3240.00000, 128.468, -30.5784, 127.673, -150.276, 128.69, 89.8862, 0, 0, 5.18553, -53.6523, 5.21785, -173.35, 5.17659, 66.8123, 0.0745675, 17.5326
1, 3300.00000, 128.468, -30.5784, 127.673, -150.276, 128.69, 89.8862, 0, 0, 5.18553, -53.6523, 5.21785, -173.35, 5.17659, 66.8123, 0.0745675, 17.5326
1, 3360.00000, 128.468, -30.5784, 127.673, -150.276, 128.69, 89.8862, 0, 0, 5.18553, -53.6523, 5.21785, -173.35, 5.17659, 66.8123, 0.0745675, 17.5326
1, 3420.00000, 128.468, -30.5784, 127.673, -150.276, 128.69, 89.8862, 0, 0, 5.18553, -53.6523, 5.21785, -173.35, 5.17659, 66.8123, 0.0745675, 17.5326
1, 3480.00000, 128.468, -30.5784, 127.673, -150.276, 128.69, 89.8862, 0, 0, 5.18553, -53.6523, 5.21785, -173.35, 5.17659, 66.8123, 0.0745675, 17.5326
1, 3540.00000, 128.468, -30.5784, 127.673, -150.276, 128.69, 89.8862, 0, 0, 5.18553, -53.6523, 5.21785, -173.35, 5.17659, 66.8123, 0.0745676, 17.5326
2, 0.00000, 128.468, -30.5784, 127.673, -150.276, 128.69, 89.8862, 0, 0, 5.18553, -53.6523, 5.21785, -173.35, 5.17659, 66.8123, 0.0745676, 17.5326
2, 60.00000, 128.457, -30.5816, 127.662, -150.279, 128.679, 89.8829, 0, 0, 5.32515, -53.6555, 5.35833, -173.353, 5.31596, 66.8089, 0.076562, 17.5353
2, 120.00000, 128.457, -30.5816, 127.662, -150.279, 128.679, 89.8829, 0, 0, 5.32515, -53.6555, 5.35833, -173.353, 5.31596, 66.8089, 0.076562, 17.5352
2, 180.00000, 128.457, -30.5816, 127.662, -150.279, 128.679, 89.8829, 0, 0, 5.32515, -53.6555, 5.35833, -173.353, 5.31596, 66.8089, 0.076562, 17.5352
2, 240.00000, 128.457, -30.5816, 127.662, -150.279, 128.679, 89.8829, 0, 0, 5.32515, -53.6555, 5.35833, -173.353, 5.31596, 66.8089, 0.076562, 17.5352
2, 300.00000, 128.457, -30.5816, 127.662, -150.279, 128.679, 89.8829, 0, 0, 5.32515, -53.6555, 5.35833, -173.353, 5.31596, 66.8089, 0.076562, 17.5352
2, 360.00000, 128.457, -30.5816, 127.662, -150.279, 128.679, 89.8829, 0, 0, 5.32515, -53.6555, 5.35833, -173.353, 5.31596, 66.8089, 0.076562, 17.5352
2, 420.00000, 128.457, -30.5816, 127.662, -150.279, 128.679, 89.8829, 0, 0, 5.32515, -53.6555, 5.35833, -173.353, 5.31596, 66.8089, 0.076562, 17.5352
2, 480.00000, 128.457, -30.5816, 127.662, -150.279, 128.679, 89.8829, 0, 0, 5.32515, -53.6555, 5.35833, -173.353, 5.31596, 66.8089, 0.076562, 17.5352
2, 540.00000, 128.457, -30.5816, 127.662, -150.279, 128.679, 89.8829, 0, 0, 5.32515, -53.6555, 5.35833, -173.353, 5.31596, 66.8089, 0.076562, 17.5352
2, 600.00000, 128.457, -30.5816, 127.662, -150.279, 128.679, 89.8829, 0, 0, 5.32515, -53.6555, 5.35833, -173.353, 5.31596, 66.8089, 0.076562, 17.5352
2, 660.00000, 128.457, -30.5816, 127.662, -150.279, 128.679, 89.8829, 0, 0, 5.32515, -53.6555, 5.35833, -173.353, 5.31596, 66.8089, 0.076562, 17.5352
2, 720.00000, 128.457, -30.5816, 127.662, -150.279, 128.679, 89.8829, 0, 0, 5.32515, -53.6555, 5.35833, -173.353, 5.31596, 66.8089, 0.076562, 17.5352
