hour,t(sec),V1,VAngle1,V2,VAngle2,V3,VAngle3,V4,VAngle4,I1,IAngle1,I2,IAngle2,I3,IAngle3,I4,IAngle4
0, 60.00000, 127.598, -30.9391, 127.083, -150.241, 128.789, 89.6213, 0, 0, 1.89, -54.0129, 1.89765, -173.315, 1.87253, 66.5475, 0.0434207, 48.2091
0, 120.00000, 127.604, -30.9479, 127.083, -150.241, 128.81, 89.6191, 0, 0, 1.88991, -54.0217, 1.89765, -173.315, 1.87223, 66.5454, 0.0439431, 48.2257
0, 180.00000, 127.609, -30.9558, 127.083, -150.241, 128.828, 89.6172, 0, 0, 1.88983, -54.0296, 1.89765, -173.315, 1.87196, 66.5434, 0.0444133, 48.2404
0, 240.00000, 127.614, -30.9628, 127.083, -150.241, 128.844, 89.6154, 0, 0, 1.88976, -54.0367, 1.89765, -173.315, 1.87172, 66.5417, 0.0448365, 48.2535
0, 300.00000, 127.618, -30.9692, 127.083, -150.241, 128.859, 89.6139, 0, 0, 1.8897, -54.043, 1.89765, -173.315, 1.87151, 66.5401, 0.0452173, 48.2652
0, 360.00000, 127.622, -30.975, 127.083, -150.241, 128.872, 89.6124, 0, 0, 1.88964, -54.0488, 1.89765, -173.315, 1.87131, 66.5386, 0.0455601, 48.2756
0, 420.00000, 127.625, -30.9801, 127.083, -150.241, 128.884, 89.6112, 0, 0, 1.88959, -54.054, 1.89765, -173.315, 1.87114, 66.5374, 0.0458686, 48.2849
0, 480.00000, 127.628, -30.9848, 127.083, -150.241, 128.895, 89.61, 0, 0, 1.88955, -54.0586, 1.89766, -173.315, 1.87098, 66.5362, 0.0461463, 48.2932
0, 540.00000, 127.631, -30.989, 127.083, -150.241, 128.905, 89.609, 0, 0, 1.8895, -54.0628, 1.89766, -173.315, 1.87084, 66.5351, 0.0463962, 48.3006
0, 600.00000, 127.634, -30.9927, 127.083, -150.241, 128.914, 89.608, 0, 0, 1.88947, -54.0666, 1.89766, -173.315, 1.87071, 66.5342, 0.0466212, 48.3073
0, 660.00000, 127.636, -30.9961, 127.083, -150.241, 128.922, 89.6072, 0, 0, 1.88943, -54.07, 1.89766, -173.315, 1.8706, 66.5333, 0.0468236, 48.3132
0, 720.00000, 127.638, -30.9992, 127.083, -150.241, 128.929, 89.6064, 0, 0, 1.8894, -54.0731, 1.89766, -173.315, 1.87049, 66.5326, 0.0470058, 48.3186
0, 780.00000, 127.64, -31.0019, 127.083, -150.241, 128.935, 89.6058, 0, 0, 1.88938, -54.0758, 1.89766, -173.315, 1.8704, 66.5319, 0.0471698, 48.3234
0, 840.00000, 127.642, -31.0044, 127.083, -150.241, 128.941, 89.6051, 0, 0, 1.88935, -54.0783, 1.89766, -173.315, 1.87032, 66.5313, 0.0473174, 48.3276
0, 900.00000, 127.643, -31.0066, 127.083, -150.241, 128.946, 89.6046, 0, 0, 1.88933, -54.0805, 1.89766, -173.315, 1.87024, 66.5307, 0.0474502, 48.3315
0, 960.00000, 127.577, -31.0156, 127.02, -150.249, 128.89, 89.596, 0, 0, 1.99971, -54.0895, 2.00847, -173.322, 1.97934, 66.5221, 0.0503829, 48.45
0, 1020.00000, 127.578, -31.0174, 127.02, -150.249, 128.894, 89.5956, 0, 0, 1.99969, -54.0913, 2.00847, -173.322, 1.97927, 66.5217, 0.0504967, 48.4528
0, 1080.00000, 127.579, -31.019, 127.02, -150.249, 128.898, 89.5951, 0, 0, 1.99967, -54.0929, 2.00847, -173.322, 1.97922, 66.5213, 0.0505993, 48.4554
0, 1140.00000, 127.58, -31.0205, 127.02, -150.249, 128.901, 89.5948, 0, 0, 1.99966, -54.0944, 2.00847, -173.322, 1.97916, 66.5209, 0.0506915, 48.4576
0, 1200.00000, 127.581, -31.0218, 127.02, -150.249, 128.904, 89.5945, 0, 0, 1.99964, -54.0957, 2.00847, -173.322, 1.97912, 66.5206, 0.0507746, 48.4597
0, 1260.00000, 127.582, -31.023, 127.02, -150.249, 128.907, 89.5942, 0, 0, 1.99963, -54.0969, 2.00847, -173.322, 1.97907, 66.5203, 0.0508493, 48.4615
0, 1320.00000, 127.582, -31.024, 127.02, -150.249, 128.909, 89.5939, 0, 0, 1.99962, -54.0979, 2.00847, -173.322, 1.97904, 66.52, 0.0509166, 48.4632
0, 1380.00000, 127.583, -31.025, 127.02, -150.249, 128.912, 89.5937, 0, 0, 1.99961, -54.0989, 2.00847, -173.322, 1.979, 66.5198, 0.0509771, 48.4647
0, 1440.00000, 127.583, -31.0259, 127.02, -150.249, 128.914, 89.5934, 0, 0, 1.9996, -54.0998, 2.00847, -173.322, 1.97897, 66.5195, 0.0510316, 48.466
0, 1500.00000, 127.584, -31.0266, 127.02, -150.249, 128.915, 89.5932, 0, 0, 1.99959, -54.1006, 2.00847, -173.322, 1.97894, 66.5193, 0.0510806, 48.4672
0, 1560.00000, 127.584, -31.0273, 127.02, -150.249, 128.917, 89.5931, 0, 0, 1.99959, -54.1013, 2.00847, -173.322, 1.97892, 66.5192, 0.0511248, 48.4683
0, 1620.00000, 127.585, -31.028, 127.02, -150.249, 128.919, 89.5929, 0, 0, 1.99958, -54.1019, 2.00847, -173.322, 1.97889, 66.519, 0.0511645, 48.4693
0, 1680.00000, 127.585, -31.0285, 127.02, -150.249, 128.92, 89.5928, 0, 0, 1.99957, -54.1025, 2.00847, -173.322, 1.97887, 66.5189, 0.0512003, 48.4701
0, 1740.00000, 127.586, -31.029, 127.02, -150.249, 128.921, 89.5926, 0, 0, 1.99957, -54.103, 2.00847, -173.323, 1.97886, 66.5187, 0.0512324, 48.4709
0, 1800.00000, 127.586, -31.0295, 127.02, -150.249, 128.922, 89.5925, 0, 0, 1.99956, -54.1034, 2.00847, -173.323, 1.97884, 66.5186, 0.0512614, 48.4716
0, 1860.00000, 127.583, -31.0302, 127.017, -150.249, 128.92, 89.5921, 0, 0, 2.00569, -54.1041, 2.01463, -173.323, 1.98488, 66.5182, 0.0514465, 48.4786
0, 1920.00000, 127.583, -31.0306, 127.017, -150.249, 128.921, 89.592, 0, 0, 2.00568, -54.1045, 2.01463, -173.323, 1.98487, 66.5181, 0.0514701, 48.4792
0, 1980.00000, 127.583, -31.0309, 127.017, -150.249, 128.922, 89.5919, 0, 0, 2.00568, -54.1048, 2.01463, -173.323, 1.98486, 66.518, 0.0514912, 48.4797
0, 2040.00000, 127.583, -31.0312, 127.017, -150.249, 128.922, 89.5918, 0, 0, 2.00568, -54.1051, 2.01463, -173.323, 1.98485, 66.5179, 0.0515103, 48.4802
0, 2100.00000, 127.583, -31.0315, 127.017, -150.249, 128.923, 89.5918, 0, 0, 2.00567, -54.1054, 2.01463, -173.323, 1.98484, 66.5178, 0.0515274, 48.4806
0, 2160.00000, 127.584, -31.0317, 127.017, -150.249, 128.923, 89.5917, 0, 0, 2.00567, -54.1056, 2.01463, -173.323, 1.98483, 66.5178, 0.0515429, 48.481
0, 2220.00000, 127.584, -31.032, 127.017, -150.249, 128.924, 89.5916, 0, 0, 2.00567, -54.1059, 2.01463, -173.323, 1.98482, 66.5177, 0.0515568, 48.4813
0, 2280.00000, 127.584, -31.0322, 127.017, -150.249, 128.924, 89.5916, 0, 0, 2.00567, -54.1061, 2.01463, -173.323, 1.98481, 66.5177, 0.0515693, 48.4816
0, 2340.00000, 127.584, -31.0323, 127.017, -150.249, 128.925, 89.5915, 0, 0, 2.00567, -54.1062, 2.01463, -173.323, 1.98481, 66.5176, 0.0515805, 48.4819
0, 2400.00000, 127.584, -31.0325, 127.017, -150.249, 128.925, 89.5915, 0, 0, 2.00566, -54.1064, 2.01463, -173.323, 1.9848, 66.5176, 0.0515906, 48.4821
0, 2460.00000, 127.584, -31.0326, 127.017, -150.249, 128.926, 89.5915, 0, 0, 2.00566, -54.1065, 2.01463, -173.323, 1.9848, 66.5176, 0.0515998, 48.4823
0, 2520.00000, 127.584, -31.0328, 127.017, -150.249, 128.926, 89.5914, 0, 0, 2.00566, -54.1067, 2.01463, -173.323, 1.98479, 66.5175, 0.051608, 48.4825
0, 2580.00000, 127.584, -31.0329, 127.017, -150.249, 128.926, 89.5914, 0, 0, 2.00566, -54.1068, 2.01463, -173.323, 1.98479, 66.5175, 0.0516153, 48.4827
0, 2640.00000, 127.584, -31.033, 127.017, -150.249, 128.926, 89.5914, 0, 0, 2.00566, -54.1069, 2.01463, -173.323, 1.98478, 66.5175, 0.051622, 48.4829
0, 2700.00000, 127.585, -31.0331, 127.017, -150.249, 128.927, 89.5914, 0, 0, 2.00566, -54.107, 2.01463, -173.323, 1.98478, 66.5174, 0.051628, 48.483
0, 2760.00000, 127.645, -31.027, 127.073, -150.242, 128.981, 89.5985, 0, 0, 1.90676, -54.1009, 1.91535, -173.316, 1.88701, 66.5246, 0.0490586, 48.3824
0, 2820.00000, 127.645, -31.0271, 127.073, -150.242, 128.981, 89.5985, 0, 0, 1.90676, -54.101, 1.91535, -173.316, 1.88701, 66.5246, 0.0490633, 48.3825
0, 2880.00000, 127.645, -31.0271, 127.073, -150.242, 128.982, 89.5985, 0, 0, 1.90676, -54.1011, 1.91535, -173.316, 1.88701, 66.5246, 0.0490674, 48.3826
0, 2940.00000, 127.645, -31.0272, 127.073, -150.242, 128.982, 89.5985, 0, 0, 1.90676, -54.1011, 1.91535, -173.316, 1.887, 66.5246, 0.0490711, 48.3827
0, 3000.00000, 127.645, -31.0273, 127.073, -150.242, 128.982, 89.5985, 0, 0, 1.90676, -54.1012, 1.91535, -173.316, 1.887, 66.5245, 0.0490745, 48.3828
0, 3060.00000, 127.645, -31.0273, 127.073, -150.242, 128.982, 89.5984, 0, 0, 1.90676, -54.1012, 1.91535, -173.316, 1.887, 66.5245, 0.0490775, 48.3829
0, 3120.00000, 127.645, -31.0274, 127.073, -150.242, 128.982, 89.5984, 0, 0, 1.90676, -54.1013, 1.91535, -173.316, 1.887, 66.5245, 0.0490802, 48.383
0, 3180.00000, 127.645, -31.0274, 127.073, -150.242, 128.982, 89.5984, 0, 0, 1.90676, -54.1013, 1.91535, -173.316, 1.887, 66.5245, 0.0490827, 48.3831
0, 3240.00000, 127.645, -31.0274, 127.073, -150.242, 128.982, 89.5984, 0, 0, 1.90676, -54.1013, 1.91535, -173.316, 1.887, 66.5245, 0.0490849, 48.3831
0, 3300.00000, 127.646, -31.0275, 127.073, -150.242, 128.982, 89.5984, 0, 0, 1.90676, -54.1014, 1.91535, -173.316, 1.887, 66.5245, 0.0490869, 48.3832
0, 3360.00000, 127.646, -31.0275, 127.073, -150.242, 128.982, 89.5984, 0, 0, 1.90676, -54.1014, 1.91535, -173.316, 1.88699, 66.5245, 0.0490886, 48.3832
0, 3420.00000, 127.646, -31.0275, 127.073, -150.242, 128.982, 89.5984, 0, 0, 1.90676, -54.1014, 1.91535, -173.316, 1.88699, 66.5245, 0.0490903, 48.3833
0, 3480.00000, 127.646, -31.0275, 127.073, -150.242, 128.982, 89.5984, 0, 0, 1.90676, -54.1015, 1.91535, -173.316, 1.88699, 66.5245, 0.0490917, 48.3833
0, 3540.00000, 127.646, -31.0276, 127.073, -150.242, 128.983, 89.5984, 0, 0, 1.90676, -54.1015, 1.91535, -173.316, 1.88699, 66.5245, 0.049093, 48.3833
1, 0.00000, 127.646, -31.0276, 127.073, -150.242, 128.983, 89.5984, 0, 0, 1.90676, -54.1015, 1.91535, -173.316, 1.88699, 66.5245, 0.0490942, 48.3834
1, 60.00000, 127.659, -31.0262, 127.086, -150.241, 128.995, 89.6, 0, 0, 1.88426, -54.1001, 1.89277, -173.315, 1.86475, 66.5261, 0.0485096, 48.3605
1, 120.00000, 127.659, -31.0262, 127.086, -150.241, 128.995, 89.6, 0, 0, 1.88426, -54.1001, 1.89277, -173.315, 1.86475, 66.5261, 0.0485106, 48.3605
1, 180.00000, 127.659, -31.0262, 127.086, -150.241, 128.995, 89.6, 0, 0, 1.88426, -54.1002, 1.89277, -173.315, 1.86475, 66.5261, 0.0485114, 48.3605
1, 240.00000, 127.659, -31.0262, 127.086, -150.241, 128.995, 89.6, 0, 0, 1.88426, -54.1002, 1.89277, -173.315, 1.86475, 66.5261, 0.0485122, 48.3606
1, 300.00000, 127.659, -31.0263, 127.086, -150.241, 128.995, 89.6, 0, 0, 1.88426, -54.1002, 1.89277, -173.315, 1.86475, 66.5261, 0.0485128, 48.3606
1, 360.00000, 127.659, -31.0263, 127.086, -150.241, 128.995, 89.6, 0, 0, 1.88426, -54.1002, 1.89277, -173.315, 1.86475, 66.5261, 0.0485135, 48.3606
1, 420.00000, 127.659, -31.0263, 127.086, -150.241, 128.995, 89.6, 0, 0, 1.88426, -54.1002, 1.89277, -173.315, 1.86475, 66.5261, 0.048514, 48.3606
1, 480.00000, 127.659, -31.0263, 127.086, -150.241, 128.995, 89.6, 0, 0, 1.88426, -54.1002, 1.89277, -173.315, 1.86475, 66.5261, 0.0485145, 48.3606
1, 540.00000, 127.659, -31.0263, 127.086, -150.241, 128.995, 89.6, 0, 0, 1.88426, -54.1002, 1.89277, -173.315, 1.86475, 66.5261, 0.048515, 48.3606
1, 600.00000, 127.659, -31.0263, 127.086, -150.241, 128.995, 89.6, 0, 0, 1.88426, -54.1002, 1.89277, -173.315, 1.86475, 66.5261, 0.0485154, 48.3607
1, 660.00000, 127.659, -31.0263, 127.086, -150.241, 128.995, 89.6, 0, 0, 1.88426, -54.1002, 1.89277, -173.315, 1.86475, 66.5261, 0.0485157, 48.3607
1, 720.00000, 127.659, -31.0263, 127.086, -150.241, 128.995, 89.6, 0, 0, 1.88426, -54.1002, 1.89277, -173.315, 1.86475, 66.5261, 0.048516, 48.3607
1, 780.00000, 127.659, -31.0263, 127.086, -150.241, 128.995, 89.6, 0, 0, 1.88426, -54.1002, 1.89277, -173.315, 1.86475, 66.5261, 0.0485163, 48.3607
1, 840.00000, 127.659, -31.0263, 127.086, -150.241, 128.995, 89.6, 0, 0, 1.88426, -54.1002, 1.89277, -173.315, 1.86475, 66.5261, 0.0485166, 48.3607
1, 900.00000, 127.659, -31.0263, 127.086, -150.241, 128.995, 89.6, 0, 0, 1.88426, -54.1002, 1.89277, -173.315, 1.86475, 66.5261, 0.0485168, 48.3607
1, 960.00000, 127.665, -31.0258, 127.091, -150.24, 129, 89.6006, 0, 0, 1.87536, -54.0997, 1.88383, -173.314, 1.85595, 66.5267, 0.0482854, 48.3516
1, 1020.00000, 127.665, -31.0258, 127.091, -150.24, 129, 89.6006, 0, 0, 1.87536, -54.0997, 1.88383, -173.314, 1.85595, 66.5267, 0.0482856, 48.3516
1, 1080.00000, 127.665, -31.0258, 127.091, -150.24, 129, 89.6006, 0, 0, 1.87536, -54.0997, 1.88383, -173.314, 1.85595, 66.5267, 0.0482857, 48.3516
1, 1140.00000, 127.665, -31.0258, 127.091, -150.24, 129, 89.6006, 0, 0, 1.87536, -54.0997, 1.88383, -173.314, 1.85595, 66.5267, 0.0482859, 48.3517
1, 1200.00000, 127.665, -31.0258, 127.091, -150.24, 129, 89.6006, 0, 0, 1.87536, -54.0997, 1.88383, -173.314, 1.85595, 66.5267, 0.048286, 48.3517
1, 1260.00000, 127.665, -31.0258, 127.091, -150.24, 129, 89.6006, 0, 0, 1.87536, -54.0997, 1.88383, -173.314, 1.85595, 66.5267, 0.0482862, 48.3517
1, 1320.00000, 127.665, -31.0258, 127.091, -150.24, 129, 89.6006, 0, 0, 1.87536, -54.0997, 1.88383, -173.314, 1.85595, 66.5267, 0.0482863, 48.3517
1, 1380.00000, 127.665, -31.0258, 127.091, -150.24, 129, 89.6006, 0, 0, 1.87536, -54.0997, 1.88383, -173.314, 1.85595, 66.5267, 0.0482864, 48.3517
1, 1440.00000, 127.665, -31.0258, 127.091, -150.24, 129, 89.6006, 0, 0, 1.87536, -54.0997, 1.88383, -173.314, 1.85595, 66.5267, 0.0482865, 48.3517
1, 1500.00000, 127.665, -31.0258, 127.091, -150.24, 129, 89.6006, 0, 0, 1.87536, -54.0997, 1.88383, -173.314, 1.85595, 66.5267, 0.0482866, 48.3517
1, 1560.00000, 127.665, -31.0258, 127.091, -150.24, 129, 89.6006, 0, 0, 1.87536, -54.0997, 1.88383, -173.314, 1.85595, 66.5267, 0.0482866, 48.3517
1, 1620.00000, 127.665, -31.0258, 127.091, -150.24, 129, 89.6006, 0, 0, 1.87536, -54.0997, 1.88383, -173.314, 1.85595, 66.5267, 0.0482867, 48.3517
1, 1680.00000, 127.665, -31.0258, 127.091, -150.24, 129, 89.6006, 0, 0, 1.87536, -54.0997, 1.88383, -173.314, 1.85595, 66.5267, 0.0482868, 48.3517
1, 1740.00000, 127.665, -31.0258, 127.091, -150.24, 129, 89.6006, 0, 0, 1.87536, -54.0997, 1.88383, -173.314, 1.85595, 66.5267, 0.0482868, 48.3517
1, 1800.00000, 127.665, -31.0258, 127.091, -150.24, 129, 89.6006, 0, 0, 1.87536, -54.0997, 1.88383, -173.314, 1.85595, 66.5267, 0.0482869, 48.3517
1, 1860.00000, 127.637, -31.0286, 127.065, -150.243, 128.975, 89.5973, 0, 0, 1.92101, -54.1026, 1.92966, -173.317, 1.90108, 66.5234, 0.0494756, 48.3982
1, 1920.00000, 127.637, -31.0286, 127.065, -150.243, 128.975, 89.5973, 0, 0, 1.92101, -54.1026, 1.92966, -173.317, 1.90108, 66.5234, 0.0494756, 48.3982
1, 1980.00000, 127.637, -31.0286, 127.065, -150.243, 128.975, 89.5973, 0, 0, 1.92101, -54.1026, 1.92966, -173.317, 1.90108, 66.5234, 0.0494757, 48.3982
1, 2040.00000, 127.637, -31.0286, 127.065, -150.243, 128.975, 89.5973, 0, 0, 1.92101, -54.1026, 1.92966, -173.317, 1.90108, 66.5234, 0.0494757, 48.3982
1, 2100.00000, 127.637, -31.0286, 127.065, -150.243, 128.975, 89.5973, 0, 0, 1.92101, -54.1026, 1.92966, -173.317, 1.90108, 66.5234, 0.0494757, 48.3982
1, 2160.00000, 127.637, -31.0286, 127.065, -150.243, 128.975, 89.5973, 0, 0, 1.92101, -54.1026, 1.92966, -173.317, 1.90108, 66.5234, 0.0494758, 48.3982
1, 2220.00000, 127.637, -31.0286, 127.065, -150.243, 128.975, 89.5973, 0, 0, 1.92101, -54.1026, 1.92966, -173.317, 1.90108, 66.5234, 0.0494758, 48.3982
1, 2280.00000, 127.637, -31.0286, 127.065, -150.243, 128.975, 89.5973, 0, 0, 1.92101, -54.1026, 1.92966, -173.317, 1.90108, 66.5234, 0.0494758, 48.3982
1, 2340.00000, 127.637, -31.0286, 127.065, -150.243, 128.975, 89.5973, 0, 0, 1.92101, -54.1026, 1.92966, -173.317, 1.90108, 66.5234, 0.0494758, 48.3982
1, 2400.00000, 127.637, -31.0286, 127.065, -150.243, 128.975, 89.5973, 0, 0, 1.92101, -54.1026, 1.92966, -173.317, 1.90108, 66.5234, 0.0494759, 48.3982
1, 2460.00000, 127.637, -31.0286, 127.065, -150.243, 128.975, 89.5973, 0, 0, 1.92101, -54.1026, 1.92966, -173.317, 1.90108, 66.5234, 0.0494759, 48.3982
1, 2520.00000, 127.637, -31.0286, 127.065, -150.243, 128.975, 89.5973, 0, 0, 1.92101, -54.1026, 1.92966, -173.317, 1.90108, 66.5234, 0.0494759, 48.3982
1, 2580.00000, 127.637, -31.0286, 127.065, -150.243, 128.975, 89.5973, 0, 0, 1.92101, -54.1026, 1.92966, -173.317, 1.90108, 66.5234, 0.0494759, 48.3982
1, 2640.00000, 127.637, -31.0286, 127.065, -150.243, 128.975, 89.5973, 0, 0, 1.92101, -54.1026, 1.92966, -173.317, 1.90108, 66.5234, 0.0494759, 48.3982
1, 2700.00000, 127.637, -31.0286, 127.065, -150.243, 128.975, 89.5973, 0, 0, 1.92101, -54.1026, 1.92966, -173.317, 1.90108, 66.5234, 0.0494759, 48.3982
1, 2760.00000, 127.705, -31.0217, 127.128, -150.236, 129.037, 89.6054, 0, 0, 1.8092, -54.0957, 1.81742, -173.31, 1.79054, 66.5314, 0.0465657, 48.2843
1, 2820.00000, 127.705, -31.0217, 127.128, -150.236, 129.037, 89.6054, 0, 0, 1.8092, -54.0957, 1.81742, -173.31, 1.79054, 66.5314, 0.0465657, 48.2843
1, 2880.00000, 127.705, -31.0217, 127.128, -150.236, 129.037, 89.6054, 0, 0, 1.8092, -54.0957, 1.81742, -173.31, 1.79054, 66.5314, 0.0465657, 48.2843
1, 2940.00000, 127.705, -31.0217, 127.128, -150.236, 129.037, 89.6054, 0, 0, 1.8092, -54.0957, 1.81742, -173.31, 1.79054, 66.5314, 0.0465657, 48.2843
1, 3000.00000, 127.705, -31.0217, 127.128, -150.236, 129.037, 89.6054, 0, 0, 1.8092, -54.0957, 1.81742, -173.31, 1.79054, 66.5314, 0.0465657, 48.2843
1, 3060.00000, 127.705, -31.0217, 127.128, -150.236, 129.037, 89.6054, 0, 0, 1.8092, -54.0957, 1.81742, -173.31, 1.79054, 66.5314, 0.0465657, 48.2843
1, 3120.00000, 127.705, -31.0217, 127.128, -150.236, 129.037, 89.6054, 0, 0, 1.8092, -54.0957, 1.81742, -173.31, 1.79054, 66.5314, 0.0465657, 48.2843
1, 3180.00000, 127.705, -31.0217, 127.128, -150.236, 129.037, 89.6054, 0, 0, 1.8092, -54.0957, 1.81742, -173.31, 1.79054, 66.5314, 0.0465658, 48.2843
1, 3240.00000, 127.705, -31.0217, 127.128, -150.236, 129.037, 89.6054, 0, 0, 1.8092, -54.0957, 1.81742, -173.31, 1.79054, 66.5314, 0.0465658, 48.2843
1, 3300.00000, 127.705, -31.0217, 127.128, -150.236, 129.037, 89.6054, 0, 0, 1.8092, -54.0957, 1.81742, -173.31, 1.79054, 66.5314, 0.0465658, 48.2843
1, 3360.00000, 127.705, -31.0217, 127.128, -150.236, 129.037, 89.6054, 0, 0, 1.8092, -54.0957, 1.81742, -173.31, 1.79054, 66.5314, 0.0465658, 48.2843
1, 3420.00000, 127.705, -31.0217, 127.128, -150.236, 129.037, 89.6054, 0, 0, 1.8092, -54.0957, 1.81742, -173.31, 1.79054, 66.5314, 0.0465658, 48.2843
1, 3480.00000, 127.705, -31.0217, 127.128, -150.236, 129.037, 89.6054, 0, 0, 1.8092, -54.0957, 1.81742, -173.31, 1.79054, 66.5314, 0.0465658, 48.2843
1, 3540.00000, 127.705, -31.0217, 127.128, -150.236, 129.037, 89.6054, 0, 0, 1.8092, -54.0957, 1.81742, -173.31, 1.79054, 66.5314, 0.0465658, 48.2843
2, 0.00000, 127.705, -31.0217, 127.128, -150.236, 129.037, 89.6054, 0, 0, 1.8092, -54.0957, 1.81742, -173.31, 1.79054, 66.5314, 0.0465658, 48.2843
2, 60.00000, 127.676, -31.0247, 127.101, -150.239, 129.01, 89.6019, 0, 0, 1.85819, -54.0986, 1.86659, -173.313, 1.83897, 66.528, 0.0478403, 48.3343
2, 120.00000, 127.676, -31.0247, 127.101, -150.239, 129.01, 89.6019, 0, 0, 1.85819, -54.0986, 1.86659, -173.313, 1.83897, 66.528, 0.0478403, 48.3343
2, 180.00000, 127.676, -31.0247, 127.101, -150.239, 129.01, 89.6019, 0, 0, 1.85819, -54.0986, 1.86659, -173.313, 1.83897, 66.528, 0.0478403, 48.3343
2, 240.00000, 127.676, -31.0247, 127.101, -150.239, 129.01, 89.6019, 0, 0, 1.85819, -54.0986, 1.86659, -173.313, 1.83897, 66.528, 0.0478403, 48.3343
2, 300.00000, 127.676, -31.0247, 127.101, -150.239, 129.01, 89.6019, 0, 0, 1.85819, -54.0986, 1.86659, -173.313, 1.83897, 66.528, 0.0478403, 48.3343
2, 360.00000, 127.676, -31.0247, 127.101, -150.239, 129.01, 89.6019, 0, 0, 1.85819, -54.0986, 1.86659, -173.313, 1.83897, 66.528, 0.0478403, 48.3343
2, 420.00000, 127.676, -31.0247, 127.101, -150.239, 129.01, 89.6019, 0, 0, 1.85819, -54.0986, 1.86659, -173.313, 1.83897, 66.528, 0.0478403, 48.3343
2, 480.00000, 127.676, -31.0247, 127.101, -150.239, 129.01, 89.6019, 0, 0, 1.85819, -54.0986, 1.86659, -173.313, 1.83897, 66.528, 0.0478403, 48.3343
2, 540.00000, 127.676, -31.0247, 127.101, -150.239, 129.01, 89.6019, 0, 0, 1.85819, -54.0986, 1.86659, -173.313, 1.83897, 66.528, 0.0478403, 48.3343
2, 600.00000, 127.676, -31.0247, 127.101, -150.239, 129.01, 89.6019, 0, 0, 1.85819, -54.0986, 1.86659, -173.313, 1.83897, 66.528, 0.0478403, 48.3343
2, 660.00000, 127.676, -31.0247, 127.101, -150.239, 129.01, 89.6019, 0, 0, 1.85819, -54.0986, 1.86659, -173.313, 1.83897, 66.528, 0.0478403, 48.3343
2, 720.00000, 127.676, -31.0247, 127.101, -150.239, 129.01, 89.6019, 0, 0, 1.85819, -54.0986, 1.86659, -173.313, 1.83897, 66.528, 0.0478403, 48.3343
2, 780.00000, 127.676, -31.0247, 127.101, -150.239, 129.01, 89.6019, 0, 0, 1.85819, -54.0986, 1.86659, -173.313, 1.83897, 66.528, 0.0478403, 48.3343
