hour,t(sec),"P1 (kW)","Q1 (kvar)","P2 (kW)","Q2 (kvar)","P3 (kW)","Q3 (kvar)","P4 (kW)","Q4 (kvar)"
0, 60.00000, 0.976749, 0.416093, 0.976751, 0.416094, 0.97675, 0.416094, 0, 0
0, 120.00000, 0.976751, 0.416094, 0.976751, 0.416094, 0.976751, 0.416094, 0, 0
0, 180.00000, 0.976751, 0.416094, 0.976751, 0.416094, 0.976751, 0.416094, 0, 0
0, 240.00000, 0.976751, 0.416094, 0.976751, 0.416094, 0.976751, 0.416094, 0, 0
0, 300.00000, 0.976751, 0.416094, 0.976751, 0.416094, 0.976751, 0.416094, 0, 0
0, 360.00000, 0.976751, 0.416094, 0.976751, 0.416094, 0.976751, 0.416094, 0, 0
0, 420.00000, 0.976751, 0.416094, 0.976751, 0.416094, 0.976751, 0.416094, 0, 0
0, 480.00000, 0.976751, 0.416094, 0.976751, 0.416094, 0.976751, 0.416094, 0, 0
0, 540.00000, 0.976751, 0.416094, 0.976751, 0.416094, 0.976751, 0.416094, 0, 0
0, 600.00000, 0.976751, 0.416094, 0.976751, 0.416094, 0.976751, 0.416094, 0, 0
0, 660.00000, 0.976751, 0.416094, 0.976751, 0.416094, 0.976751, 0.416094, 0, 0
0, 720.00000, 0.976751, 0.416094, 0.976751, 0.416094, 0.976751, 0.416094, 0, 0
0, 780.00000, 0.976751, 0.416094, 0.976751, 0.416094, 0.976751, 0.416094, 0, 0
0, 840.00000, 0.976751, 0.416094, 0.976751, 0.416094, 0.976751, 0.416094, 0, 0
0, 900.00000, 0.976751, 0.416094, 0.976751, 0.416094, 0.976751, 0.416094, 0, 0
0, 960.00000, 1.03328, 0.440177, 1.03326, 0.440168, 1.03326, 0.440165, 0, 0
0, 1020.00000, 1.03328, 0.440174, 1.03328, 0.440174, 1.03328, 0.440174, 0, 0
0, 1080.00000, 1.03328, 0.440174, 1.03328, 0.440174, 1.03328, 0.440174, 0, 0
0, 1140.00000, 1.03328, 0.440174, 1.03328, 0.440174, 1.03328, 0.440174, 0, 0
0, 1200.00000, 1.03328, 0.440174, 1.03328, 0.440174, 1.03328, 0.440174, 0, 0
0, 1260.00000, 1.03328, 0.440174, 1.03328, 0.440174, 1.03328, 0.440174, 0, 0
0, 1320.00000, 1.03328, 0.440174, 1.03328, 0.440174, 1.03328, 0.440174, 0, 0
0, 1380.00000, 1.03328, 0.440174, 1.03328, 0.440174, 1.03328, 0.440174, 0, 0
0, 1440.00000, 1.03328, 0.440174, 1.03328, 0.440174, 1.03328, 0.440174, 0, 0
0, 1500.00000, 1.03328, 0.440174, 1.03328, 0.440174, 1.03328, 0.440174, 0, 0
0, 1560.00000, 1.03328, 0.440174, 1.03328, 0.440174, 1.03328, 0.440174, 0, 0
0, 1620.00000, 1.03328, 0.440174, 1.03328, 0.440174, 1.03328, 0.440174, 0, 0
0, 1680.00000, 1.03328, 0.440174, 1.03328, 0.440174, 1.03328, 0.440174, 0, 0
0, 1740.00000, 1.03328, 0.440174, 1.03328, 0.440174, 1.03328, 0.440174, 0, 0
0, 1800.00000, 1.03328, 0.440174, 1.03328, 0.440174, 1.03328, 0.440174, 0, 0
0, 1860.00000, 1.03641, 0.44151, 1.03641, 0.44151, 1.03641, 0.44151, 0, 0
0, 1920.00000, 1.03641, 0.441511, 1.03641, 0.441511, 1.03641, 0.441511, 0, 0
0, 1980.00000, 1.03641, 0.441511, 1.03641, 0.441511, 1.03641, 0.441511, 0, 0
0, 2040.00000, 1.03641, 0.441511, 1.03641, 0.441511, 1.03641, 0.441511, 0, 0
0, 2100.00000, 1.03641, 0.441511, 1.03641, 0.441511, 1.03641, 0.441511, 0, 0
0, 2160.00000, 1.03641, 0.441511, 1.03641, 0.441511, 1.03641, 0.441511, 0, 0
0, 2220.00000, 1.03641, 0.441511, 1.03641, 0.441511, 1.03641, 0.441511, 0, 0
0, 2280.00000, 1.03641, 0.441511, 1.03641, 0.441511, 1.03641, 0.441511, 0, 0
0, 2340.00000, 1.03641, 0.441511, 1.03641, 0.441511, 1.03641, 0.441511, 0, 0
0, 2400.00000, 1.03641, 0.441511, 1.03641, 0.441511, 1.03641, 0.441511, 0, 0
0, 2460.00000, 1.03641, 0.441508, 1.03642, 0.441513, 1.03642, 0.441517, 0, 0
0, 2520.00000, 1.03641, 0.441511, 1.03641, 0.441511, 1.03641, 0.441511, 0, 0
0, 2580.00000, 1.03641, 0.441511, 1.03641, 0.441511, 1.03641, 0.441511, 0, 0
0, 2640.00000, 1.03641, 0.441511, 1.03641, 0.441511, 1.03641, 0.441511, 0, 0
0, 2700.00000, 1.03641, 0.441511, 1.03641, 0.441511, 1.03641, 0.441511, 0, 0
0, 2760.00000, 0.985798, 0.419951, 0.985794, 0.41995, 0.985795, 0.419949, 0, 0
0, 2820.00000, 0.98578, 0.41994, 0.98578, 0.41994, 0.98578, 0.41994, 0, 0
0, 2880.00000, 0.98578, 0.41994, 0.98578, 0.41994, 0.98578, 0.41994, 0, 0
0, 2940.00000, 0.98578, 0.41994, 0.98578, 0.41994, 0.98578, 0.41994, 0, 0
0, 3000.00000, 0.98578, 0.41994, 0.98578, 0.41994, 0.98578, 0.41994, 0, 0
0, 3060.00000, 0.98578, 0.41994, 0.98578, 0.41994, 0.98578, 0.41994, 0, 0
0, 3120.00000, 0.98578, 0.41994, 0.98578, 0.41994, 0.98578, 0.41994, 0, 0
0, 3180.00000, 0.98578, 0.41994, 0.98578, 0.41994, 0.98578, 0.41994, 0, 0
0, 3240.00000, 0.98578, 0.41994, 0.98578, 0.41994, 0.98578, 0.41994, 0, 0
0, 3300.00000, 0.98578, 0.41994, 0.98578, 0.41994, 0.98578, 0.41994, 0, 0
0, 3360.00000, 0.98578, 0.41994, 0.98578, 0.41994, 0.98578, 0.41994, 0, 0
0, 3420.00000, 0.98578, 0.41994, 0.98578, 0.41994, 0.98578, 0.41994, 0, 0
0, 3480.00000, 0.98578, 0.41994, 0.98578, 0.41994, 0.98578, 0.41994, 0, 0
0, 3540.00000, 0.98578, 0.41994, 0.98578, 0.41994, 0.98578, 0.41994, 0, 0
1, 0.00000, 0.98578, 0.41994, 0.98578, 0.41994, 0.98578, 0.41994, 0, 0
1, 60.00000, 0.97426, 0.415034, 0.974259, 0.415033, 0.974259, 0.415033, 0, 0
1, 120.00000, 0.974255, 0.415031, 0.974255, 0.415031, 0.974255, 0.415031, 0, 0
1, 180.00000, 0.974255, 0.415031, 0.974255, 0.415031, 0.974255, 0.415031, 0, 0
1, 240.00000, 0.974255, 0.415031, 0.974255, 0.415031, 0.974255, 0.415031, 0, 0
1, 300.00000, 0.974255, 0.415031, 0.974255, 0.415031, 0.974255, 0.415031, 0, 0
1, 360.00000, 0.974255, 0.415031, 0.974255, 0.415031, 0.974255, 0.415031, 0, 0
1, 420.00000, 0.974255, 0.415031, 0.974255, 0.415031, 0.974255, 0.415031, 0, 0
1, 480.00000, 0.974255, 0.415031, 0.974255, 0.415031, 0.974255, 0.415031, 0, 0
1, 540.00000, 0.974255, 0.415031, 0.974255, 0.415031, 0.974255, 0.415031, 0, 0
1, 600.00000, 0.974255, 0.415031, 0.974255, 0.415031, 0.974255, 0.415031, 0, 0
1, 660.00000, 0.974255, 0.415031, 0.974255, 0.415031, 0.974255, 0.415031, 0, 0
1, 720.00000, 0.974255, 0.415031, 0.974255, 0.415031, 0.974255, 0.415031, 0, 0
1, 780.00000, 0.974255, 0.415031, 0.974255, 0.415031, 0.974255, 0.415031, 0, 0
1, 840.00000, 0.974255, 0.415031, 0.974255, 0.415031, 0.974255, 0.415031, 0, 0
1, 900.00000, 0.974255, 0.415031, 0.974255, 0.415031, 0.974255, 0.415031, 0, 0
1, 960.00000, 0.969697, 0.413089, 0.969697, 0.413089, 0.969697, 0.413089, 0, 0
1, 1020.00000, 0.969695, 0.413088, 0.969695, 0.413088, 0.969695, 0.413088, 0, 0
1, 1080.00000, 0.969695, 0.413088, 0.969695, 0.413088, 0.969695, 0.413088, 0, 0
1, 1140.00000, 0.969695, 0.413088, 0.969695, 0.413088, 0.969695, 0.413088, 0, 0
1, 1200.00000, 0.969695, 0.413088, 0.969695, 0.413088, 0.969695, 0.413088, 0, 0
1, 1260.00000, 0.969695, 0.413088, 0.969695, 0.413088, 0.969695, 0.413088, 0, 0
1, 1320.00000, 0.969695, 0.413088, 0.969695, 0.413088, 0.969695, 0.413088, 0, 0
1, 1380.00000, 0.969695, 0.413088, 0.969695, 0.413088, 0.969695, 0.413088, 0, 0
1, 1440.00000, 0.969695, 0.413088, 0.969695, 0.413088, 0.969695, 0.413088, 0, 0
1, 1500.00000, 0.969695, 0.413088, 0.969695, 0.413088, 0.969695, 0.413088, 0, 0
1, 1560.00000, 0.969695, 0.413088, 0.969695, 0.413088, 0.969695, 0.413088, 0, 0
1, 1620.00000, 0.969695, 0.413088, 0.969695, 0.413088, 0.969695, 0.413088, 0, 0
1, 1680.00000, 0.969695, 0.413088, 0.969695, 0.413088, 0.969695, 0.413088, 0, 0
1, 1740.00000, 0.969695, 0.413088, 0.969695, 0.413088, 0.969695, 0.413088, 0, 0
1, 1800.00000, 0.969695, 0.413088, 0.969695, 0.413088, 0.969695, 0.413088, 0, 0
1, 1860.00000, 0.993074, 0.423046, 0.993075, 0.423047, 0.993075, 0.423047, 0, 0
1, 1920.00000, 0.993082, 0.423051, 0.993082, 0.423051, 0.993082, 0.423051, 0, 0
1, 1980.00000, 0.993082, 0.423051, 0.993082, 0.423051, 0.993082, 0.423051, 0, 0
1, 2040.00000, 0.993082, 0.423051, 0.993082, 0.423051, 0.993082, 0.423051, 0, 0
1, 2100.00000, 0.993082, 0.423051, 0.993082, 0.423051, 0.993082, 0.423051, 0, 0
1, 2160.00000, 0.993082, 0.423051, 0.993082, 0.423051, 0.993082, 0.423051, 0, 0
1, 2220.00000, 0.993082, 0.423051, 0.993082, 0.423051, 0.993082, 0.423051, 0, 0
1, 2280.00000, 0.993082, 0.423051, 0.993082, 0.423051, 0.993082, 0.423051, 0, 0
1, 2340.00000, 0.993082, 0.423051, 0.993082, 0.423051, 0.993082, 0.423051, 0, 0
1, 2400.00000, 0.993082, 0.423051, 0.993082, 0.423051, 0.993082, 0.423051, 0, 0
1, 2460.00000, 0.993082, 0.423051, 0.993082, 0.423051, 0.993082, 0.423051, 0, 0
1, 2520.00000, 0.993082, 0.423051, 0.993082, 0.423051, 0.993082, 0.423051, 0, 0
1, 2580.00000, 0.993082, 0.423051, 0.993082, 0.423051, 0.993082, 0.423051, 0, 0
1, 2640.00000, 0.993082, 0.423051, 0.993082, 0.423051, 0.993082, 0.423051, 0, 0
1, 2700.00000, 0.993082, 0.423051, 0.993082, 0.423051, 0.993082, 0.423051, 0, 0
1, 2760.00000, 0.935803, 0.398654, 0.935799, 0.398652, 0.935799, 0.398652, 0, 0
1, 2820.00000, 0.935784, 0.398642, 0.935784, 0.398642, 0.935784, 0.398642, 0, 0
1, 2880.00000, 0.935784, 0.398642, 0.935784, 0.398642, 0.935784, 0.398642, 0, 0
1, 2940.00000, 0.935784, 0.398642, 0.935784, 0.398642, 0.935784, 0.398642, 0, 0
1, 3000.00000, 0.935784, 0.398642, 0.935784, 0.398642, 0.935784, 0.398642, 0, 0
1, 3060.00000, 0.935784, 0.398642, 0.935784, 0.398642, 0.935784, 0.398642, 0, 0
1, 3120.00000, 0.935784, 0.398642, 0.935784, 0.398642, 0.935784, 0.398642, 0, 0
1, 3180.00000, 0.935784, 0.398642, 0.935784, 0.398642, 0.935784, 0.398642, 0, 0
1, 3240.00000, 0.935784, 0.398642, 0.935784, 0.398642, 0.935784, 0.398642, 0, 0
1, 3300.00000, 0.935784, 0.398642, 0.935784, 0.398642, 0.935784, 0.398642, 0, 0
1, 3360.00000, 0.935784, 0.398642, 0.935784, 0.398642, 0.935784, 0.398642, 0, 0
1, 3420.00000, 0.935784, 0.398642, 0.935784, 0.398642, 0.935784, 0.398642, 0, 0
1, 3480.00000, 0.935784, 0.398642, 0.935784, 0.398642, 0.935784, 0.398642, 0, 0
1, 3540.00000, 0.935784, 0.398642, 0.935784, 0.398642, 0.935784, 0.398642, 0, 0
2, 0.00000, 0.935784, 0.398642, 0.935784, 0.398642, 0.935784, 0.398642, 0, 0
2, 60.00000, 0.960887, 0.409335, 0.960889, 0.409336, 0.960889, 0.409336, 0, 0
2, 120.00000, 0.960896, 0.40934, 0.960896, 0.40934, 0.960896, 0.40934, 0, 0
2, 180.00000, 0.960896, 0.40934, 0.960896, 0.40934, 0.960896, 0.40934, 0, 0
2, 240.00000, 0.960896, 0.40934, 0.960896, 0.40934, 0.960896, 0.40934, 0, 0
2, 300.00000, 0.960896, 0.40934, 0.960896, 0.40934, 0.960896, 0.40934, 0, 0
2, 360.00000, 0.960896, 0.40934, 0.960896, 0.40934, 0.960896, 0.40934, 0, 0
2, 420.00000, 0.960896, 0.40934, 0.960896, 0.40934, 0.960896, 0.40934, 0, 0
2, 480.00000, 0.960896, 0.40934, 0.960896, 0.40934, 0.960896, 0.40934, 0, 0
2, 540.00000, 0.960896, 0.40934, 0.960896, 0.40934, 0.960896, 0.40934, 0, 0
2, 600.00000, 0.960896, 0.40934, 0.960896, 0.40934, 0.960896, 0.40934, 0, 0
2, 660.00000, 0.960896, 0.40934, 0.960896, 0.40934, 0.960896, 0.40934, 0, 0
2, 720.00000, 0.960896, 0.40934, 0.960896, 0.40934, 0.960896, 0.40934, 0, 0
2, 780.00000, 0.960896, 0.40934, 0.960896, 0.40934, 0.960896, 0.40934, 0, 0
2, 840.00000, 0.960896, 0.40934, 0.960896, 0.40934, 0.960896, 0.40934, 0, 0
2, 900.00000, 0.960896, 0.40934, 0.960896, 0.40934, 0.960896, 0.40934, 0, 0
2, 960.00000, 0.91047, 0.387862, 0.910467, 0.38786, 0.910467, 0.38786, 0, 0
2, 1020.00000, 0.910455, 0.387852, 0.910455, 0.387852, 0.910455, 0.387852, 0, 0
2, 1080.00000, 0.910455, 0.387852, 0.910455, 0.387852, 0.910455, 0.387852, 0, 0
2, 1140.00000, 0.910455, 0.387852, 0.910455, 0.387852, 0.910455, 0.387852, 0, 0
2, 1200.00000, 0.910455, 0.387852, 0.910455, 0.387852, 0.910455, 0.387852, 0, 0
2, 1260.00000, 0.910455, 0.387852, 0.910455, 0.387852, 0.910455, 0.387852, 0, 0
2, 1320.00000, 0.910455, 0.387852, 0.910455, 0.387852, 0.910455, 0.387852, 0, 0
2, 1380.00000, 0.910455, 0.387852, 0.910455, 0.387852, 0.910455, 0.387852, 0, 0
2, 1440.00000, 0.910455, 0.387852, 0.910455, 0.387852, 0.910455, 0.387852, 0, 0
2, 1500.00000, 0.910455, 0.387852, 0.910455, 0.387852, 0.910455, 0.387852, 0, 0
2, 1560.00000, 0.910455, 0.387852, 0.910455, 0.387852, 0.910455, 0.387852, 0, 0
2, 1620.00000, 0.910455, 0.387852, 0.910455, 0.387852, 0.910455, 0.387852, 0, 0
2, 1680.00000, 0.910455, 0.387852, 0.910455, 0.387852, 0.910455, 0.387852, 0, 0
2, 1740.00000, 0.910455, 0.387852, 0.910455, 0.387852, 0.910455, 0.387852, 0, 0
2, 1800.00000, 0.910455, 0.387852, 0.910455, 0.387852, 0.910455, 0.387852, 0, 0
2, 1860.00000, 0.909957, 0.38764, 0.909957, 0.38764, 0.909957, 0.38764, 0, 0
2, 1920.00000, 0.909957, 0.38764, 0.909957, 0.38764, 0.909957, 0.38764, 0, 0
2, 1980.00000, 0.909957, 0.38764, 0.909957, 0.38764, 0.909957, 0.38764, 0, 0
2, 2040.00000, 0.909957, 0.38764, 0.909957, 0.38764, 0.909957, 0.38764, 0, 0
2, 2100.00000, 0.909957, 0.38764, 0.909957, 0.38764, 0.909957, 0.38764, 0, 0
2, 2160.00000, 0.909957, 0.38764, 0.909957, 0.38764, 0.909957, 0.38764, 0, 0
2, 2220.00000, 0.909957, 0.38764, 0.909957, 0.38764, 0.909957, 0.38764, 0, 0
2, 2280.00000, 0.909957, 0.38764, 0.909957, 0.38764, 0.909957, 0.38764, 0, 0
2, 2340.00000, 0.909957, 0.38764, 0.909957, 0.38764, 0.909957, 0.38764, 0, 0
2, 2400.00000, 0.909957, 0.38764, 0.909957, 0.38764, 0.909957, 0.38764, 0, 0
2, 2460.00000, 0.909957, 0.38764, 0.909957, 0.38764, 0.909957, 0.38764, 0, 0
2, 2520.00000, 0.909957, 0.38764, 0.909957, 0.38764, 0.909957, 0.38764, 0, 0
2, 2580.00000, 0.909957, 0.38764, 0.909957, 0.38764, 0.909957, 0.38764, 0, 0
2, 2640.00000, 0.909957, 0.38764, 0.909957, 0.38764, 0.909957, 0.38764, 0, 0
2, 2700.00000, 0.909957, 0.38764, 0.909957, 0.38764, 0.909957, 0.38764, 0, 0
2, 2760.00000, 0.870623, 0.370886, 0.87062, 0.370885, 0.87062, 0.370885, 0, 0
2, 2820.00000, 0.870611, 0.370879, 0.870611, 0.370879, 0.870611, 0.370879, 0, 0
2, 2880.00000, 0.870611, 0.370879, 0.870611, 0.370879, 0.870611, 0.370879, 0, 0
2, 2940.00000, 0.870611, 0.370879, 0.870611, 0.370879, 0.870611, 0.370879, 0, 0
2, 3000.00000, 0.870611, 0.370879, 0.870611, 0.370879, 0.870611, 0.370879, 0, 0
2, 3060.00000, 0.870611, 0.370879, 0.870611, 0.370879, 0.870611, 0.370879, 0, 0
2, 3120.00000, 0.870611, 0.370879, 0.870611, 0.370879, 0.870611, 0.370879, 0, 0
2, 3180.00000, 0.870611, 0.370879, 0.870611, 0.370879, 0.870611, 0.370879, 0, 0
2, 3240.00000, 0.870611, 0.370879, 0.870611, 0.370879, 0.870611, 0.370879, 0, 0
2, 3300.00000, 0.870611, 0.370879, 0.870611, 0.370879, 0.870611, 0.370879, 0, 0
2, 3360.00000, 0.870611, 0.370879, 0.870611, 0.370879, 0.870611, 0.370879, 0, 0
2, 3420.00000, 0.870611, 0.370879, 0.870611, 0.370879, 0.870611, 0.370879, 0, 0
2, 3480.00000, 0.870611, 0.370879, 0.870611, 0.370879, 0.870611, 0.370879, 0, 0
2, 3540.00000, 0.870611, 0.370879, 0.870611, 0.370879, 0.870611, 0.370879, 0, 0
3, 0.00000, 0.870611, 0.370879, 0.870611, 0.370879, 0.870611, 0.370879, 0, 0
3, 60.00000, 0.892742, 0.380305, 0.892743, 0.380306, 0.892743, 0.380306, 0, 0
3, 120.00000, 0.892749, 0.380309, 0.892749, 0.380309, 0.892749, 0.380309, 0, 0
3, 180.00000, 0.892749, 0.380309, 0.892749, 0.380309, 0.892749, 0.380309, 0, 0
3, 240.00000, 0.892749, 0.380309, 0.892749, 0.380309, 0.892749, 0.380309, 0, 0
3, 300.00000, 0.892749, 0.380309, 0.892749, 0.380309, 0.892749, 0.380309, 0, 0
3, 360.00000, 0.892749, 0.380309, 0.892749, 0.380309, 0.892749, 0.380309, 0, 0
3, 420.00000, 0.892749, 0.380309, 0.892749, 0.380309, 0.892749, 0.380309, 0, 0
3, 480.00000, 0.892749, 0.380309, 0.892749, 0.380309, 0.892749, 0.380309, 0, 0
3, 540.00000, 0.892749, 0.380309, 0.892749, 0.380309, 0.892749, 0.380309, 0, 0
3, 600.00000, 0.892749, 0.380309, 0.892749, 0.380309, 0.892749, 0.380309, 0, 0
3, 660.00000, 0.892749, 0.380309, 0.892749, 0.380309, 0.892749, 0.380309, 0, 0
3, 720.00000, 0.892749, 0.380309, 0.892749, 0.380309, 0.892749, 0.380309, 0, 0
3, 780.00000, 0.892749, 0.380309, 0.892749, 0.380309, 0.892749, 0.380309, 0, 0
3, 840.00000, 0.892749, 0.380309, 0.892749, 0.380309, 0.892749, 0.380309, 0, 0
3, 900.00000, 0.892749, 0.380309, 0.892749, 0.380309, 0.892749, 0.380309, 0, 0
3, 960.00000, 0.91727, 0.390754, 0.917272, 0.390755, 0.917272, 0.390755, 0, 0
3, 1020.00000, 0.917278, 0.390759, 0.917278, 0.390759, 0.917278, 0.390759, 0, 0
3, 1080.00000, 0.917278, 0.390759, 0.917278, 0.390759, 0.917278, 0.390759, 0, 0
3, 1140.00000, 0.917278, 0.390759, 0.917278, 0.390759, 0.917278, 0.390759, 0, 0
3, 1200.00000, 0.917278, 0.390759, 0.917278, 0.390759, 0.917278, 0.390759, 0, 0
3, 1260.00000, 0.917278, 0.390759, 0.917278, 0.390759, 0.917278, 0.390759, 0, 0
3, 1320.00000, 0.917278, 0.390759, 0.917278, 0.390759, 0.917278, 0.390759, 0, 0
3, 1380.00000, 0.917278, 0.390759, 0.917278, 0.390759, 0.917278, 0.390759, 0, 0
3, 1440.00000, 0.917278, 0.390759, 0.917278, 0.390759, 0.917278, 0.390759, 0, 0
3, 1500.00000, 0.917278, 0.390759, 0.917278, 0.390759, 0.917278, 0.390759, 0, 0
3, 1560.00000, 0.917278, 0.390759, 0.917278, 0.390759, 0.917278, 0.390759, 0, 0
3, 1620.00000, 0.917278, 0.390759, 0.917278, 0.390759, 0.917278, 0.390759, 0, 0
3, 1680.00000, 0.917278, 0.390759, 0.917278, 0.390759, 0.917278, 0.390759, 0, 0
3, 1740.00000, 0.917278, 0.390759, 0.917278, 0.390759, 0.917278, 0.390759, 0, 0
3, 1800.00000, 0.917278, 0.390759, 0.917278, 0.390759, 0.917278, 0.390759, 0, 0
3, 1860.00000, 0.92849, 0.395535, 0.928491, 0.395535, 0.928491, 0.395535, 0, 0
3, 1920.00000, 0.928494, 0.395537, 0.928494, 0.395537, 0.928494, 0.395537, 0, 0
3, 1980.00000, 0.928494, 0.395537, 0.928494, 0.395537, 0.928494, 0.395537, 0, 0
3, 2040.00000, 0.928494, 0.395537, 0.928494, 0.395537, 0.928494, 0.395537, 0, 0
3, 2100.00000, 0.928494, 0.395537, 0.928494, 0.395537, 0.928494, 0.395537, 0, 0
3, 2160.00000, 0.928494, 0.395537, 0.928494, 0.395537, 0.928494, 0.395537, 0, 0
3, 2220.00000, 0.928494, 0.395537, 0.928494, 0.395537, 0.928494, 0.395537, 0, 0
3, 2280.00000, 0.928494, 0.395537, 0.928494, 0.395537, 0.928494, 0.395537, 0, 0
3, 2340.00000, 0.928494, 0.395537, 0.928494, 0.395537, 0.928494, 0.395537, 0, 0
3, 2400.00000, 0.928494, 0.395537, 0.928494, 0.395537, 0.928494, 0.395537, 0, 0
3, 2460.00000, 0.928494, 0.395537, 0.928494, 0.395537, 0.928494, 0.395537, 0, 0
3, 2520.00000, 0.928494, 0.395537, 0.928494, 0.395537, 0.928494, 0.395537, 0, 0
3, 2580.00000, 0.928494, 0.395537, 0.928494, 0.395537, 0.928494, 0.395537, 0, 0
3, 2640.00000, 0.928494, 0.395537, 0.928494, 0.395537, 0.928494, 0.395537, 0, 0
3, 2700.00000, 0.928494, 0.395537, 0.928494, 0.395537, 0.928494, 0.395537, 0, 0
3, 2760.00000, 0.849664, 0.36196, 0.84966, 0.361958, 0.84966, 0.361957, 0, 0
3, 2820.00000, 0.849642, 0.361946, 0.849642, 0.361946, 0.849642, 0.361946, 0, 0
3, 2880.00000, 0.849642, 0.361946, 0.849642, 0.361946, 0.849642, 0.361946, 0, 0
3, 2940.00000, 0.849642, 0.361946, 0.849642, 0.361946, 0.849642, 0.361946, 0, 0
3, 3000.00000, 0.849642, 0.361946, 0.849642, 0.361946, 0.849642, 0.361946, 0, 0
3, 3060.00000, 0.849642, 0.361946, 0.849642, 0.361946, 0.849642, 0.361946, 0, 0
3, 3120.00000, 0.849642, 0.361946, 0.849642, 0.361946, 0.849642, 0.361946, 0, 0
3, 3180.00000, 0.849642, 0.361946, 0.849642, 0.361946, 0.849642, 0.361946, 0, 0
3, 3240.00000, 0.849642, 0.361946, 0.849642, 0.361946, 0.849642, 0.361946, 0, 0
3, 3300.00000, 0.849642, 0.361946, 0.849642, 0.361946, 0.849642, 0.361946, 0, 0
3, 3360.00000, 0.849642, 0.361946, 0.849642, 0.361946, 0.849642, 0.361946, 0, 0
3, 3420.00000, 0.849642, 0.361946, 0.849642, 0.361946, 0.849642, 0.361946, 0, 0
3, 3480.00000, 0.849642, 0.361946, 0.849642, 0.361946, 0.849642, 0.361946, 0, 0
3, 3540.00000, 0.849642, 0.361946, 0.849642, 0.361946, 0.849642, 0.361946, 0, 0
4, 0.00000, 0.849642, 0.361946, 0.849642, 0.361946, 0.849642, 0.361946, 0, 0
4, 60.00000, 0.908902, 0.387187, 0.908906, 0.387189, 0.908906, 0.387189, 0, 0
4, 120.00000, 0.908921, 0.387199, 0.908921, 0.387199, 0.908921, 0.387199, 0, 0
4, 180.00000, 0.908921, 0.387199, 0.908921, 0.387199, 0.908921, 0.387199, 0, 0
4, 240.00000, 0.908921, 0.387199, 0.908921, 0.387199, 0.908921, 0.387199, 0, 0
4, 300.00000, 0.908921, 0.387199, 0.908921, 0.387199, 0.908921, 0.387199, 0, 0
4, 360.00000, 0.908921, 0.387199, 0.908921, 0.387199, 0.908921, 0.387199, 0, 0
4, 420.00000, 0.908921, 0.387199, 0.908921, 0.387199, 0.908921, 0.387199, 0, 0
4, 480.00000, 0.908921, 0.387199, 0.908921, 0.387199, 0.908921, 0.387199, 0, 0
4, 540.00000, 0.908921, 0.387199, 0.908921, 0.387199, 0.908921, 0.387199, 0, 0
4, 600.00000, 0.908921, 0.387199, 0.908921, 0.387199, 0.908921, 0.387199, 0, 0
4, 660.00000, 0.908921, 0.387199, 0.908921, 0.387199, 0.908921, 0.387199, 0, 0
4, 720.00000, 0.908921, 0.387199, 0.908921, 0.387199, 0.908921, 0.387199, 0, 0
4, 780.00000, 0.908921, 0.387199, 0.908921, 0.387199, 0.908921, 0.387199, 0, 0
