hour,t(sec),V1,VAngle1,V2,VAngle2,V3,VAngle3,V4,VAngle4,I1,IAngle1,I2,IAngle2,I3,IAngle3,I4,IAngle4
0, 60.00000, 127.899, -30.1621, 128.967, -150.12, 128.51, 89.4494, 0, 0, 0.629873, -53.2361, 0.624658, -173.194, 0.626879, 66.3756, 0.00903104, 151.696
0, 120.00000, 127.899, -30.1621, 128.979, -150.12, 128.516, 89.445, 0, 0, 0.629873, -53.236, 0.6246, -173.194, 0.626847, 66.3712, 0.00913034, 151.707
0, 180.00000, 127.899, -30.1621, 128.99, -150.119, 128.522, 89.4411, 0, 0, 0.629873, -53.236, 0.624548, -173.193, 0.626818, 66.3673, 0.00921972, 151.718
0, 240.00000, 127.899, -30.1621, 128.999, -150.119, 128.528, 89.4376, 0, 0, 0.629873, -53.236, 0.624502, -173.193, 0.626792, 66.3638, 0.00930018, 151.727
0, 300.00000, 127.899, -30.1621, 129.008, -150.119, 128.532, 89.4344, 0, 0, 0.629873, -53.236, 0.62446, -173.193, 0.626769, 66.3606, 0.00937259, 151.736
0, 360.00000, 127.899, -30.1621, 129.016, -150.119, 128.537, 89.4316, 0, 0, 0.629874, -53.236, 0.624422, -173.193, 0.626748, 66.3577, 0.00943777, 151.743
0, 420.00000, 127.899, -30.1621, 129.023, -150.118, 128.541, 89.429, 0, 0, 0.629874, -53.236, 0.624388, -173.192, 0.626729, 66.3552, 0.00949644, 151.75
0, 480.00000, 127.899, -30.1621, 129.029, -150.118, 128.544, 89.4267, 0, 0, 0.629874, -53.236, 0.624358, -173.192, 0.626712, 66.3528, 0.00954924, 151.756
0, 540.00000, 127.899, -30.1621, 129.035, -150.118, 128.547, 89.4246, 0, 0, 0.629874, -53.236, 0.62433, -173.192, 0.626697, 66.3508, 0.00959677, 151.762
0, 600.00000, 127.899, -30.1621, 129.04, -150.118, 128.55, 89.4227, 0, 0, 0.629874, -53.236, 0.624305, -173.192, 0.626683, 66.3489, 0.00963954, 151.767
0, 660.00000, 127.899, -30.1621, 129.044, -150.118, 128.553, 89.4211, 0, 0, 0.629874, -53.236, 0.624283, -173.192, 0.62667, 66.3472, 0.00967804, 151.771
0, 720.00000, 127.899, -30.1621, 129.049, -150.118, 128.555, 89.4195, 0, 0, 0.629874, -53.236, 0.624263, -173.192, 0.626659, 66.3457, 0.00971269, 151.776
0, 780.00000, 127.899, -30.1621, 129.052, -150.118, 128.557, 89.4182, 0, 0, 0.629874, -53.236, 0.624245, -173.192, 0.626649, 66.3443, 0.00974388, 151.779
0, 840.00000, 127.899, -30.1621, 129.056, -150.118, 128.559, 89.4169, 0, 0, 0.629874, -53.236, 0.624229, -173.191, 0.62664, 66.3431, 0.00977195, 151.782
0, 900.00000, 127.899, -30.1621, 129.059, -150.117, 128.561, 89.4158, 0, 0, 0.629874, -53.236, 0.624214, -173.191, 0.626632, 66.3419, 0.00979721, 151.785
0, 960.00000, 127.879, -30.1702, 129.041, -150.125, 128.542, 89.407, 0, 0, 0.671471, -53.2441, 0.665423, -173.199, 0.668009, 66.3331, 0.0104673, 151.781
0, 1020.00000, 127.879, -30.1702, 129.044, -150.125, 128.543, 89.4061, 0, 0, 0.671471, -53.2441, 0.665411, -173.199, 0.668002, 66.3322, 0.0104892, 151.783
0, 1080.00000, 127.879, -30.1702, 129.046, -150.125, 128.544, 89.4053, 0, 0, 0.671471, -53.2441, 0.665399, -173.199, 0.667995, 66.3314, 0.0105088, 151.785
0, 1140.00000, 127.879, -30.1702, 129.048, -150.125, 128.546, 89.4045, 0, 0, 0.671471, -53.2441, 0.665389, -173.199, 0.66799, 66.3306, 0.0105265, 151.787
0, 1200.00000, 127.879, -30.1702, 129.05, -150.125, 128.546, 89.4039, 0, 0, 0.671471, -53.2441, 0.66538, -173.199, 0.667985, 66.33, 0.0105424, 151.789
0, 1260.00000, 127.879, -30.1702, 129.051, -150.125, 128.547, 89.4033, 0, 0, 0.671471, -53.2441, 0.665371, -173.199, 0.66798, 66.3294, 0.0105567, 151.79
0, 1320.00000, 127.879, -30.1702, 129.053, -150.125, 128.548, 89.4028, 0, 0, 0.671471, -53.2441, 0.665364, -173.199, 0.667976, 66.3289, 0.0105696, 151.792
0, 1380.00000, 127.879, -30.1702, 129.054, -150.125, 128.549, 89.4023, 0, 0, 0.671471, -53.2441, 0.665357, -173.199, 0.667972, 66.3284, 0.0105812, 151.793
0, 1440.00000, 127.879, -30.1702, 129.055, -150.125, 128.55, 89.4019, 0, 0, 0.671471, -53.2441, 0.665351, -173.199, 0.667969, 66.328, 0.0105916, 151.794
0, 1500.00000, 127.879, -30.1702, 129.056, -150.125, 128.55, 89.4015, 0, 0, 0.671471, -53.2441, 0.665346, -173.199, 0.667966, 66.3276, 0.010601, 151.795
0, 1560.00000, 127.879, -30.1702, 129.057, -150.125, 128.551, 89.4011, 0, 0, 0.671471, -53.2441, 0.665341, -173.199, 0.667963, 66.3272, 0.0106094, 151.796
0, 1620.00000, 127.879, -30.1702, 129.058, -150.125, 128.551, 89.4008, 0, 0, 0.671471, -53.2441, 0.665336, -173.199, 0.667961, 66.3269, 0.010617, 151.797
0, 1680.00000, 127.879, -30.1702, 129.059, -150.125, 128.552, 89.4005, 0, 0, 0.671471, -53.2441, 0.665333, -173.199, 0.667958, 66.3266, 0.0106239, 151.798
0, 1740.00000, 127.879, -30.1702, 129.06, -150.125, 128.552, 89.4003, 0, 0, 0.671471, -53.2441, 0.665329, -173.199, 0.667956, 66.3264, 0.01063, 151.798
0, 1800.00000, 127.879, -30.1702, 129.06, -150.125, 128.552, 89.4001, 0, 0, 0.671471, -53.2441, 0.665326, -173.199, 0.667955, 66.3261, 0.0106356, 151.799
0, 1860.00000, 127.878, -30.1706, 129.06, -150.125, 128.552, 89.3995, 0, 0, 0.648707, -53.2445, 0.642767, -173.199, 0.645308, 66.3256, 0.0102797, 151.798
0, 1920.00000, 127.878, -30.1706, 129.061, -150.125, 128.552, 89.3993, 0, 0, 0.648707, -53.2445, 0.642765, -173.199, 0.645307, 66.3254, 0.0102841, 151.799
0, 1980.00000, 127.878, -30.1706, 129.061, -150.125, 128.552, 89.3991, 0, 0, 0.648707, -53.2445, 0.642762, -173.199, 0.645305, 66.3252, 0.010288, 151.799
0, 2040.00000, 127.878, -30.1706, 129.061, -150.125, 128.553, 89.399, 0, 0, 0.648707, -53.2445, 0.64276, -173.199, 0.645304, 66.3251, 0.0102915, 151.8
0, 2100.00000, 127.878, -30.1706, 129.062, -150.125, 128.553, 89.3988, 0, 0, 0.648707, -53.2445, 0.642759, -173.199, 0.645303, 66.3249, 0.0102947, 151.8
0, 2160.00000, 127.878, -30.1706, 129.062, -150.125, 128.553, 89.3987, 0, 0, 0.648707, -53.2445, 0.642757, -173.199, 0.645302, 66.3248, 0.0102975, 151.8
0, 2220.00000, 127.878, -30.1706, 129.062, -150.125, 128.553, 89.3986, 0, 0, 0.648707, -53.2445, 0.642755, -173.199, 0.645302, 66.3247, 0.0103001, 151.801
0, 2280.00000, 127.878, -30.1706, 129.063, -150.125, 128.553, 89.3985, 0, 0, 0.648707, -53.2445, 0.642754, -173.199, 0.645301, 66.3246, 0.0103024, 151.801
0, 2340.00000, 127.878, -30.1706, 129.063, -150.125, 128.553, 89.3984, 0, 0, 0.648707, -53.2445, 0.642753, -173.199, 0.6453, 66.3245, 0.0103045, 151.801
0, 2400.00000, 127.878, -30.1706, 129.063, -150.125, 128.554, 89.3983, 0, 0, 0.648707, -53.2445, 0.642752, -173.199, 0.6453, 66.3244, 0.0103063, 151.801
0, 2460.00000, 127.878, -30.1706, 129.063, -150.125, 128.554, 89.3983, 0, 0, 0.648707, -53.2445, 0.642751, -173.199, 0.645299, 66.3244, 0.010308, 151.802
0, 2520.00000, 127.878, -30.1706, 129.064, -150.125, 128.554, 89.3982, 0, 0, 0.648707, -53.2445, 0.64275, -173.199, 0.645299, 66.3243, 0.0103095, 151.802
0, 2580.00000, 127.878, -30.1706, 129.064, -150.125, 128.554, 89.3982, 0, 0, 0.648707, -53.2445, 0.642749, -173.199, 0.645298, 66.3242, 0.0103109, 151.802
0, 2640.00000, 127.878, -30.1706, 129.064, -150.125, 128.554, 89.3981, 0, 0, 0.648707, -53.2445, 0.642748, -173.199, 0.645298, 66.3242, 0.0103121, 151.802
0, 2700.00000, 127.878, -30.1706, 129.064, -150.125, 128.554, 89.3981, 0, 0, 0.648707, -53.2445, 0.642748, -173.199, 0.645297, 66.3241, 0.0103132, 151.802
0, 2760.00000, 127.896, -30.1634, 129.082, -150.118, 128.572, 89.405, 0, 0, 0.625796, -53.2373, 0.620047, -173.192, 0.622506, 66.3311, 0.00995091, 151.81
0, 2820.00000, 127.896, -30.1634, 129.082, -150.118, 128.572, 89.405, 0, 0, 0.625796, -53.2373, 0.620047, -173.192, 0.622505, 66.3311, 0.00995178, 151.81
0, 2880.00000, 127.896, -30.1634, 129.082, -150.118, 128.572, 89.4049, 0, 0, 0.625796, -53.2373, 0.620046, -173.192, 0.622505, 66.331, 0.00995255, 151.81
0, 2940.00000, 127.896, -30.1634, 129.082, -150.118, 128.572, 89.4049, 0, 0, 0.625796, -53.2373, 0.620046, -173.192, 0.622505, 66.331, 0.00995325, 151.81
0, 3000.00000, 127.896, -30.1634, 129.082, -150.118, 128.572, 89.4049, 0, 0, 0.625796, -53.2373, 0.620046, -173.192, 0.622505, 66.331, 0.00995388, 151.81
0, 3060.00000, 127.896, -30.1634, 129.082, -150.118, 128.572, 89.4049, 0, 0, 0.625796, -53.2373, 0.620045, -173.192, 0.622505, 66.3309, 0.00995444, 151.81
0, 3120.00000, 127.896, -30.1634, 129.082, -150.118, 128.572, 89.4048, 0, 0, 0.625796, -53.2373, 0.620045, -173.192, 0.622504, 66.3309, 0.00995495, 151.81
0, 3180.00000, 127.896, -30.1634, 129.082, -150.118, 128.572, 89.4048, 0, 0, 0.625796, -53.2373, 0.620045, -173.192, 0.622504, 66.3309, 0.00995541, 151.81
0, 3240.00000, 127.896, -30.1634, 129.082, -150.118, 128.572, 89.4048, 0, 0, 0.625796, -53.2373, 0.620045, -173.192, 0.622504, 66.3309, 0.00995582, 151.81
0, 3300.00000, 127.896, -30.1634, 129.082, -150.118, 128.572, 89.4048, 0, 0, 0.625796, -53.2373, 0.620044, -173.192, 0.622504, 66.3309, 0.00995619, 151.81
0, 3360.00000, 127.896, -30.1634, 129.082, -150.118, 128.572, 89.4048, 0, 0, 0.625796, -53.2373, 0.620044, -173.192, 0.622504, 66.3308, 0.00995653, 151.81
0, 3420.00000, 127.896, -30.1634, 129.082, -150.118, 128.572, 89.4048, 0, 0, 0.625796, -53.2373, 0.620044, -173.192, 0.622504, 66.3308, 0.00995683, 151.81
0, 3480.00000, 127.896, -30.1634, 129.082, -150.118, 128.572, 89.4047, 0, 0, 0.625796, -53.2373, 0.620044, -173.192, 0.622504, 66.3308, 0.0099571, 151.81
0, 3540.00000, 127.896, -30.1634, 129.082, -150.118, 128.572, 89.4047, 0, 0, 0.625796, -53.2373, 0.620044, -173.192, 0.622504, 66.3308, 0.00995734, 151.81
1, 0.00000, 127.896, -30.1634, 129.083, -150.118, 128.572, 89.4047, 0, 0, 0.625796, -53.2373, 0.620044, -173.192, 0.622504, 66.3308, 0.00995756, 151.81
1, 60.00000, 127.9, -30.1617, 129.087, -150.116, 128.576, 89.4063, 0, 0, 0.621688, -53.2356, 0.615973, -173.19, 0.618417, 66.3324, 0.00989261, 151.812
1, 120.00000, 127.9, -30.1617, 129.087, -150.116, 128.576, 89.4063, 0, 0, 0.621688, -53.2356, 0.615973, -173.19, 0.618417, 66.3324, 0.00989279, 151.812
1, 180.00000, 127.9, -30.1617, 129.087, -150.116, 128.576, 89.4063, 0, 0, 0.621688, -53.2356, 0.615973, -173.19, 0.618417, 66.3324, 0.00989295, 151.812
1, 240.00000, 127.9, -30.1617, 129.087, -150.116, 128.576, 89.4063, 0, 0, 0.621688, -53.2356, 0.615973, -173.19, 0.618416, 66.3324, 0.00989309, 151.812
1, 300.00000, 127.9, -30.1617, 129.087, -150.116, 128.577, 89.4063, 0, 0, 0.621688, -53.2356, 0.615973, -173.19, 0.618416, 66.3324, 0.00989322, 151.812
1, 360.00000, 127.9, -30.1617, 129.087, -150.116, 128.577, 89.4063, 0, 0, 0.621688, -53.2356, 0.615973, -173.19, 0.618416, 66.3324, 0.00989334, 151.812
1, 420.00000, 127.9, -30.1617, 129.087, -150.116, 128.577, 89.4063, 0, 0, 0.621688, -53.2356, 0.615973, -173.19, 0.618416, 66.3323, 0.00989344, 151.812
1, 480.00000, 127.9, -30.1617, 129.087, -150.116, 128.577, 89.4063, 0, 0, 0.621688, -53.2356, 0.615973, -173.19, 0.618416, 66.3323, 0.00989353, 151.812
1, 540.00000, 127.9, -30.1617, 129.087, -150.116, 128.577, 89.4063, 0, 0, 0.621688, -53.2356, 0.615972, -173.19, 0.618416, 66.3323, 0.00989362, 151.812
1, 600.00000, 127.9, -30.1617, 129.087, -150.116, 128.577, 89.4063, 0, 0, 0.621688, -53.2356, 0.615972, -173.19, 0.618416, 66.3323, 0.00989369, 151.812
1, 660.00000, 127.9, -30.1617, 129.087, -150.116, 128.577, 89.4063, 0, 0, 0.621688, -53.2356, 0.615972, -173.19, 0.618416, 66.3323, 0.00989376, 151.812
1, 720.00000, 127.9, -30.1617, 129.087, -150.116, 128.577, 89.4062, 0, 0, 0.621688, -53.2356, 0.615972, -173.19, 0.618416, 66.3323, 0.00989382, 151.812
1, 780.00000, 127.9, -30.1617, 129.087, -150.116, 128.577, 89.4062, 0, 0, 0.621688, -53.2356, 0.615972, -173.19, 0.618416, 66.3323, 0.00989388, 151.812
1, 840.00000, 127.9, -30.1617, 129.087, -150.116, 128.577, 89.4062, 0, 0, 0.621688, -53.2356, 0.615972, -173.19, 0.618416, 66.3323, 0.00989393, 151.812
1, 900.00000, 127.9, -30.1617, 129.087, -150.116, 128.577, 89.4062, 0, 0, 0.621688, -53.2356, 0.615972, -173.19, 0.618416, 66.3323, 0.00989397, 151.812
1, 960.00000, 127.901, -30.1611, 129.088, -150.116, 128.578, 89.4069, 0, 0, 0.623304, -53.235, 0.617573, -173.19, 0.620024, 66.3329, 0.00991983, 151.813
1, 1020.00000, 127.901, -30.1611, 129.088, -150.116, 128.578, 89.4069, 0, 0, 0.623304, -53.235, 0.617573, -173.19, 0.620024, 66.3329, 0.00991986, 151.813
1, 1080.00000, 127.901, -30.1611, 129.088, -150.116, 128.578, 89.4069, 0, 0, 0.623304, -53.235, 0.617573, -173.19, 0.620024, 66.3329, 0.0099199, 151.813
1, 1140.00000, 127.901, -30.1611, 129.088, -150.116, 128.578, 89.4069, 0, 0, 0.623304, -53.235, 0.617573, -173.19, 0.620024, 66.3329, 0.00991993, 151.813
1, 1200.00000, 127.901, -30.1611, 129.088, -150.116, 128.578, 89.4069, 0, 0, 0.623304, -53.235, 0.617573, -173.19, 0.620024, 66.3329, 0.00991995, 151.813
1, 1260.00000, 127.901, -30.1611, 129.088, -150.116, 128.578, 89.4069, 0, 0, 0.623304, -53.235, 0.617573, -173.19, 0.620024, 66.3329, 0.00991998, 151.813
1, 1320.00000, 127.901, -30.1611, 129.088, -150.116, 128.578, 89.4069, 0, 0, 0.623304, -53.235, 0.617573, -173.19, 0.620024, 66.3329, 0.00992, 151.813
1, 1380.00000, 127.901, -30.1611, 129.088, -150.116, 128.578, 89.4068, 0, 0, 0.623304, -53.235, 0.617573, -173.19, 0.620024, 66.3329, 0.00992002, 151.813
1, 1440.00000, 127.901, -30.1611, 129.088, -150.116, 128.578, 89.4068, 0, 0, 0.623304, -53.235, 0.617573, -173.19, 0.620024, 66.3329, 0.00992004, 151.813
1, 1500.00000, 127.901, -30.1611, 129.088, -150.116, 128.578, 89.4068, 0, 0, 0.623304, -53.235, 0.617573, -173.19, 0.620024, 66.3329, 0.00992005, 151.813
1, 1560.00000, 127.901, -30.1611, 129.088, -150.116, 128.578, 89.4068, 0, 0, 0.623304, -53.235, 0.617573, -173.19, 0.620024, 66.3329, 0.00992007, 151.813
1, 1620.00000, 127.901, -30.1611, 129.088, -150.116, 128.578, 89.4068, 0, 0, 0.623304, -53.235, 0.617573, -173.19, 0.620024, 66.3329, 0.00992008, 151.813
1, 1680.00000, 127.901, -30.1611, 129.088, -150.116, 128.578, 89.4068, 0, 0, 0.623304, -53.235, 0.617573, -173.19, 0.620024, 66.3329, 0.00992009, 151.813
1, 1740.00000, 127.901, -30.1611, 129.088, -150.116, 128.578, 89.4068, 0, 0, 0.623304, -53.235, 0.617573, -173.19, 0.620024, 66.3329, 0.0099201, 151.813
1, 1800.00000, 127.901, -30.1611, 129.088, -150.116, 128.578, 89.4068, 0, 0, 0.623304, -53.235, 0.617573, -173.19, 0.620024, 66.3329, 0.00992011, 151.813
1, 1860.00000, 127.893, -30.1644, 129.08, -150.119, 128.57, 89.4036, 0, 0, 0.626243, -53.2383, 0.620485, -173.193, 0.622947, 66.3297, 0.00996642, 151.81
1, 1920.00000, 127.893, -30.1644, 129.08, -150.119, 128.57, 89.4036, 0, 0, 0.626243, -53.2383, 0.620485, -173.193, 0.622947, 66.3297, 0.00996643, 151.81
1, 1980.00000, 127.893, -30.1644, 129.08, -150.119, 128.57, 89.4036, 0, 0, 0.626243, -53.2383, 0.620485, -173.193, 0.622947, 66.3297, 0.00996643, 151.81
1, 2040.00000, 127.893, -30.1644, 129.08, -150.119, 128.57, 89.4036, 0, 0, 0.626243, -53.2383, 0.620485, -173.193, 0.622947, 66.3297, 0.00996644, 151.81
1, 2100.00000, 127.893, -30.1644, 129.08, -150.119, 128.57, 89.4036, 0, 0, 0.626243, -53.2383, 0.620485, -173.193, 0.622947, 66.3297, 0.00996644, 151.81
1, 2160.00000, 127.893, -30.1644, 129.08, -150.119, 128.57, 89.4036, 0, 0, 0.626243, -53.2383, 0.620485, -173.193, 0.622947, 66.3297, 0.00996645, 151.81
1, 2220.00000, 127.893, -30.1644, 129.08, -150.119, 128.57, 89.4036, 0, 0, 0.626243, -53.2383, 0.620485, -173.193, 0.622947, 66.3297, 0.00996645, 151.81
1, 2280.00000, 127.893, -30.1644, 129.08, -150.119, 128.57, 89.4036, 0, 0, 0.626243, -53.2383, 0.620485, -173.193, 0.622947, 66.3297, 0.00996646, 151.81
1, 2340.00000, 127.893, -30.1644, 129.08, -150.119, 128.57, 89.4036, 0, 0, 0.626243, -53.2383, 0.620485, -173.193, 0.622947, 66.3297, 0.00996646, 151.81
1, 2400.00000, 127.893, -30.1644, 129.08, -150.119, 128.57, 89.4036, 0, 0, 0.626243, -53.2383, 0.620485, -173.193, 0.622947, 66.3297, 0.00996646, 151.81
1, 2460.00000, 127.893, -30.1644, 129.08, -150.119, 128.57, 89.4036, 0, 0, 0.626243, -53.2383, 0.620485, -173.193, 0.622947, 66.3297, 0.00996647, 151.81
1, 2520.00000, 127.893, -30.1644, 129.08, -150.119, 128.57, 89.4036, 0, 0, 0.626243, -53.2383, 0.620485, -173.193, 0.622947, 66.3297, 0.00996647, 151.81
1, 2580.00000, 127.893, -30.1644, 129.08, -150.119, 128.57, 89.4036, 0, 0, 0.626243, -53.2383, 0.620485, -173.193, 0.622947, 66.3297, 0.00996647, 151.81
1, 2640.00000, 127.893, -30.1644, 129.08, -150.119, 128.57, 89.4036, 0, 0, 0.626243, -53.2383, 0.620485, -173.193, 0.622947, 66.3297, 0.00996647, 151.81
1, 2700.00000, 127.893, -30.1644, 129.08, -150.119, 128.57, 89.4036, 0, 0, 0.626243, -53.2383, 0.620485, -173.193, 0.622947, 66.3297, 0.00996648, 151.81
1, 2760.00000, 127.913, -30.1563, 129.1, -150.111, 128.59, 89.4115, 0, 0, 0.620581, -53.2302, 0.614875, -173.185, 0.617314, 66.3376, 0.00987751, 151.818
1, 2820.00000, 127.913, -30.1563, 129.1, -150.111, 128.59, 89.4115, 0, 0, 0.620581, -53.2302, 0.614875, -173.185, 0.617314, 66.3376, 0.00987751, 151.818
1, 2880.00000, 127.913, -30.1563, 129.1, -150.111, 128.59, 89.4115, 0, 0, 0.620581, -53.2302, 0.614875, -173.185, 0.617314, 66.3376, 0.00987752, 151.818
1, 2940.00000, 127.913, -30.1563, 129.1, -150.111, 128.59, 89.4115, 0, 0, 0.620581, -53.2302, 0.614875, -173.185, 0.617314, 66.3376, 0.00987752, 151.818
1, 3000.00000, 127.913, -30.1563, 129.1, -150.111, 128.59, 89.4115, 0, 0, 0.620581, -53.2302, 0.614875, -173.185, 0.617314, 66.3376, 0.00987752, 151.818
1, 3060.00000, 127.913, -30.1563, 129.1, -150.111, 128.59, 89.4115, 0, 0, 0.620581, -53.2302, 0.614875, -173.185, 0.617314, 66.3376, 0.00987752, 151.818
1, 3120.00000, 127.913, -30.1563, 129.1, -150.111, 128.59, 89.4115, 0, 0, 0.620581, -53.2302, 0.614875, -173.185, 0.617314, 66.3376, 0.00987752, 151.818
1, 3180.00000, 127.913, -30.1563, 129.1, -150.111, 128.59, 89.4115, 0, 0, 0.620581, -53.2302, 0.614875, -173.185, 0.617314, 66.3376, 0.00987752, 151.818
1, 3240.00000, 127.913, -30.1563, 129.1, -150.111, 128.59, 89.4115, 0, 0, 0.620581, -53.2302, 0.614875, -173.185, 0.617314, 66.3376, 0.00987752, 151.818
1, 3300.00000, 127.913, -30.1563, 129.1, -150.111, 128.59, 89.4115, 0, 0, 0.620581, -53.2302, 0.614875, -173.185, 0.617314, 66.3376, 0.00987752, 151.818
1, 3360.00000, 127.913, -30.1563, 129.1, -150.111, 128.59, 89.4115, 0, 0, 0.620581, -53.2302, 0.614875, -173.185, 0.617314, 66.3376, 0.00987752, 151.818
1, 3420.00000, 127.913, -30.1563, 129.1, -150.111, 128.59, 89.4115, 0, 0, 0.620581, -53.2302, 0.614875, -173.185, 0.617314, 66.3376, 0.00987752, 151.818
1, 3480.00000, 127.913, -30.1563, 129.1, -150.111, 128.59, 89.4115, 0, 0, 0.620581, -53.2302, 0.614875, -173.185, 0.617314, 66.3376, 0.00987752, 151.818
1, 3540.00000, 127.913, -30.1563, 129.1, -150.111, 128.59, 89.4115, 0, 0, 0.620581, -53.2302, 0.614875, -173.185, 0.617314, 66.3376, 0.00987752, 151.818
2, 0.00000, 127.913, -30.1563, 129.1, -150.111, 128.59, 89.4115, 0, 0, 0.620581, -53.2302, 0.614875, -173.185, 0.617314, 66.3376, 0.00987752, 151.818
2, 60.00000, 127.905, -30.1598, 129.092, -150.114, 128.581, 89.4081, 0, 0, 0.605887, -53.2337, 0.600316, -173.188, 0.602698, 66.3342, 0.00964313, 151.814
2, 120.00000, 127.905, -30.1598, 129.092, -150.114, 128.581, 89.4081, 0, 0, 0.605887, -53.2337, 0.600316, -173.188, 0.602698, 66.3342, 0.00964313, 151.814
2, 180.00000, 127.905, -30.1598, 129.092, -150.114, 128.581, 89.4081, 0, 0, 0.605887, -53.2337, 0.600316, -173.188, 0.602698, 66.3342, 0.00964313, 151.814
2, 240.00000, 127.905, -30.1598, 129.092, -150.114, 128.581, 89.4081, 0, 0, 0.605887, -53.2337, 0.600316, -173.188, 0.602698, 66.3342, 0.00964313, 151.814
2, 300.00000, 127.905, -30.1598, 129.092, -150.114, 128.581, 89.4081, 0, 0, 0.605887, -53.2337, 0.600316, -173.188, 0.602698, 66.3342, 0.00964313, 151.814
2, 360.00000, 127.905, -30.1598, 129.092, -150.114, 128.581, 89.4081, 0, 0, 0.605887, -53.2337, 0.600316, -173.188, 0.602698, 66.3342, 0.00964313, 151.814
2, 420.00000, 127.905, -30.1598, 129.092, -150.114, 128.581, 89.4081, 0, 0, 0.605887, -53.2337, 0.600316, -173.188, 0.602698, 66.3342, 0.00964313, 151.814
2, 480.00000, 127.905, -30.1598, 129.092, -150.114, 128.581, 89.4081, 0, 0, 0.605887, -53.2337, 0.600316, -173.188, 0.602698, 66.3342, 0.00964313, 151.814
2, 540.00000, 127.905, -30.1598, 129.092, -150.114, 128.581, 89.4081, 0, 0, 0.605887, -53.2337, 0.600316, -173.188, 0.602698, 66.3342, 0.00964313, 151.814
