hour,t(sec),V1,VAngle1,V2,VAngle2,V3,VAngle3,V4,VAngle4,I1,IAngle1,I2,IAngle2,I3,IAngle3,I4,IAngle4
0, 60.00000, 128.903, -30.1122, 128.451, -150.544, 127.833, 89.845, 0, 0, 6.39934, -53.186, 6.42185, -173.618, 6.45287, 66.7711, 0.0927909, -88.5219
0, 120.00000, 128.915, -30.1118, 128.458, -150.549, 127.833, 89.845, 0, 0, 6.39875, -53.1857, 6.42152, -173.623, 6.45288, 66.7711, 0.0938066, -88.5079
0, 180.00000, 128.926, -30.1115, 128.464, -150.553, 127.833, 89.845, 0, 0, 6.39822, -53.1854, 6.42122, -173.626, 6.45288, 66.7711, 0.0947208, -88.4954
0, 240.00000, 128.935, -30.1112, 128.469, -150.556, 127.833, 89.845, 0, 0, 6.39774, -53.1851, 6.42096, -173.63, 6.45288, 66.7711, 0.0955437, -88.4842
0, 300.00000, 128.944, -30.111, 128.474, -150.559, 127.833, 89.845, 0, 0, 6.39731, -53.1848, 6.42072, -173.633, 6.45288, 66.7711, 0.0962843, -88.4741
0, 360.00000, 128.952, -30.1107, 128.478, -150.562, 127.833, 89.845, 0, 0, 6.39693, -53.1846, 6.4205, -173.636, 6.45288, 66.7711, 0.0969509, -88.465
0, 420.00000, 128.959, -30.1105, 128.482, -150.565, 127.833, 89.845, 0, 0, 6.39658, -53.1844, 6.42031, -173.639, 6.45288, 66.7711, 0.0975509, -88.4569
0, 480.00000, 128.965, -30.1104, 128.485, -150.567, 127.833, 89.845, 0, 0, 6.39627, -53.1842, 6.42013, -173.641, 6.45288, 66.7711, 0.0980909, -88.4496
0, 540.00000, 128.971, -30.1102, 128.489, -150.569, 127.833, 89.845, 0, 0, 6.39599, -53.1841, 6.41998, -173.643, 6.45288, 66.7711, 0.0985769, -88.443
0, 600.00000, 128.976, -30.11, 128.491, -150.571, 127.833, 89.845, 0, 0, 6.39573, -53.1839, 6.41983, -173.645, 6.45288, 66.7711, 0.0990144, -88.4371
0, 660.00000, 128.98, -30.1099, 128.494, -150.573, 127.833, 89.845, 0, 0, 6.3955, -53.1838, 6.41971, -173.647, 6.45288, 66.7711, 0.0994081, -88.4318
0, 720.00000, 128.984, -30.1098, 128.496, -150.574, 127.833, 89.845, 0, 0, 6.3953, -53.1837, 6.41959, -173.648, 6.45288, 66.7711, 0.0997625, -88.427
0, 780.00000, 128.988, -30.1097, 128.498, -150.576, 127.833, 89.845, 0, 0, 6.39511, -53.1836, 6.41949, -173.649, 6.45288, 66.7711, 0.100081, -88.4227
0, 840.00000, 128.992, -30.1096, 128.5, -150.577, 127.833, 89.845, 0, 0, 6.39495, -53.1835, 6.4194, -173.651, 6.45288, 66.7711, 0.100369, -88.4189
0, 900.00000, 128.995, -30.1095, 128.502, -150.578, 127.833, 89.845, 0, 0, 6.3948, -53.1834, 6.41931, -173.652, 6.45288, 66.7711, 0.100627, -88.4154
0, 960.00000, 128.974, -30.1169, 128.48, -150.586, 127.81, 89.8373, 0, 0, 6.76596, -53.1908, 6.79197, -173.66, 6.82757, 66.7634, 0.106725, -88.4313
0, 1020.00000, 128.976, -30.1168, 128.481, -150.587, 127.81, 89.8373, 0, 0, 6.76584, -53.1908, 6.7919, -173.661, 6.82757, 66.7634, 0.106947, -88.4285
0, 1080.00000, 128.978, -30.1168, 128.482, -150.588, 127.81, 89.8373, 0, 0, 6.76572, -53.1907, 6.79184, -173.662, 6.82757, 66.7634, 0.107146, -88.4259
0, 1140.00000, 128.98, -30.1167, 128.483, -150.589, 127.81, 89.8373, 0, 0, 6.76562, -53.1906, 6.79178, -173.663, 6.82757, 66.7634, 0.107325, -88.4236
0, 1200.00000, 128.982, -30.1167, 128.484, -150.589, 127.81, 89.8373, 0, 0, 6.76552, -53.1906, 6.79173, -173.663, 6.82757, 66.7634, 0.107487, -88.4215
0, 1260.00000, 128.984, -30.1166, 128.485, -150.59, 127.81, 89.8373, 0, 0, 6.76544, -53.1905, 6.79168, -173.664, 6.82757, 66.7634, 0.107632, -88.4197
0, 1320.00000, 128.985, -30.1166, 128.486, -150.591, 127.81, 89.8373, 0, 0, 6.76536, -53.1905, 6.79164, -173.665, 6.82757, 66.7634, 0.107763, -88.418
0, 1380.00000, 128.986, -30.1166, 128.487, -150.591, 127.81, 89.8373, 0, 0, 6.76529, -53.1905, 6.7916, -173.665, 6.82757, 66.7634, 0.10788, -88.4165
0, 1440.00000, 128.988, -30.1165, 128.487, -150.592, 127.81, 89.8373, 0, 0, 6.76523, -53.1904, 6.79157, -173.665, 6.82757, 66.7634, 0.107986, -88.4152
0, 1500.00000, 128.989, -30.1165, 128.488, -150.592, 127.81, 89.8373, 0, 0, 6.76518, -53.1904, 6.79153, -173.666, 6.82757, 66.7634, 0.108082, -88.4139
0, 1560.00000, 128.99, -30.1165, 128.489, -150.592, 127.81, 89.8373, 0, 0, 6.76513, -53.1904, 6.79151, -173.666, 6.82757, 66.7634, 0.108167, -88.4129
0, 1620.00000, 128.99, -30.1164, 128.489, -150.593, 127.81, 89.8373, 0, 0, 6.76508, -53.1904, 6.79148, -173.666, 6.82757, 66.7634, 0.108245, -88.4119
0, 1680.00000, 128.991, -30.1164, 128.489, -150.593, 127.81, 89.8373, 0, 0, 6.76504, -53.1903, 6.79146, -173.667, 6.82757, 66.7634, 0.108314, -88.411
0, 1740.00000, 128.992, -30.1164, 128.49, -150.593, 127.81, 89.8373, 0, 0, 6.76501, -53.1903, 6.79144, -173.667, 6.82757, 66.7634, 0.108377, -88.4102
0, 1800.00000, 128.992, -30.1164, 128.49, -150.593, 127.81, 89.8373, 0, 0, 6.76497, -53.1903, 6.79142, -173.667, 6.82757, 66.7634, 0.108433, -88.4095
0, 1860.00000, 128.992, -30.1167, 128.489, -150.594, 127.809, 89.837, 0, 0, 6.78555, -53.1906, 6.81209, -173.668, 6.84837, 66.7631, 0.108814, -88.4098
0, 1920.00000, 128.992, -30.1167, 128.49, -150.594, 127.809, 89.837, 0, 0, 6.78552, -53.1906, 6.81207, -173.668, 6.84837, 66.7631, 0.10886, -88.4092
0, 1980.00000, 128.993, -30.1167, 128.49, -150.594, 127.809, 89.837, 0, 0, 6.7855, -53.1906, 6.81206, -173.668, 6.84837, 66.7631, 0.108901, -88.4087
0, 2040.00000, 128.993, -30.1167, 128.49, -150.594, 127.809, 89.837, 0, 0, 6.78547, -53.1906, 6.81205, -173.668, 6.84837, 66.7631, 0.108938, -88.4082
0, 2100.00000, 128.994, -30.1166, 128.49, -150.594, 127.809, 89.837, 0, 0, 6.78546, -53.1906, 6.81204, -173.668, 6.84837, 66.7631, 0.108972, -88.4078
0, 2160.00000, 128.994, -30.1166, 128.49, -150.595, 127.809, 89.837, 0, 0, 6.78544, -53.1905, 6.81203, -173.669, 6.84837, 66.7631, 0.109002, -88.4074
0, 2220.00000, 128.994, -30.1166, 128.491, -150.595, 127.809, 89.837, 0, 0, 6.78542, -53.1905, 6.81202, -173.669, 6.84837, 66.7631, 0.109029, -88.4071
0, 2280.00000, 128.995, -30.1166, 128.491, -150.595, 127.809, 89.837, 0, 0, 6.78541, -53.1905, 6.81201, -173.669, 6.84837, 66.7631, 0.109053, -88.4067
0, 2340.00000, 128.995, -30.1166, 128.491, -150.595, 127.809, 89.837, 0, 0, 6.7854, -53.1905, 6.812, -173.669, 6.84837, 66.7631, 0.109075, -88.4065
0, 2400.00000, 128.995, -30.1166, 128.491, -150.595, 127.809, 89.837, 0, 0, 6.78538, -53.1905, 6.812, -173.669, 6.84837, 66.7631, 0.109095, -88.4062
0, 2460.00000, 128.995, -30.1166, 128.491, -150.595, 127.809, 89.837, 0, 0, 6.78537, -53.1905, 6.81199, -173.669, 6.84837, 66.7631, 0.109112, -88.406
0, 2520.00000, 128.995, -30.1166, 128.491, -150.595, 127.809, 89.837, 0, 0, 6.78536, -53.1905, 6.81199, -173.669, 6.84837, 66.7631, 0.109128, -88.4058
0, 2580.00000, 128.996, -30.1166, 128.491, -150.595, 127.809, 89.837, 0, 0, 6.78536, -53.1905, 6.81198, -173.669, 6.84837, 66.7631, 0.109143, -88.4056
0, 2640.00000, 128.996, -30.1166, 128.491, -150.595, 127.809, 89.837, 0, 0, 6.78535, -53.1905, 6.81198, -173.669, 6.84837, 66.7631, 0.109155, -88.4054
0, 2700.00000, 128.996, -30.1166, 128.492, -150.595, 127.809, 89.837, 0, 0, 6.78534, -53.1905, 6.81198, -173.669, 6.84837, 66.7631, 0.109167, -88.4053
0, 2760.00000, 129.017, -30.1099, 128.513, -150.589, 127.83, 89.8438, 0, 0, 6.45278, -53.1838, 6.47811, -173.663, 6.51271, 66.7699, 0.103819, -88.3884
0, 2820.00000, 129.017, -30.1099, 128.513, -150.589, 127.83, 89.8438, 0, 0, 6.45277, -53.1838, 6.4781, -173.663, 6.51271, 66.7699, 0.103828, -88.3882
0, 2880.00000, 129.017, -30.1099, 128.513, -150.589, 127.83, 89.8438, 0, 0, 6.45277, -53.1838, 6.4781, -173.663, 6.51271, 66.7699, 0.103836, -88.3881
0, 2940.00000, 129.017, -30.1099, 128.513, -150.589, 127.83, 89.8438, 0, 0, 6.45276, -53.1838, 6.4781, -173.663, 6.51271, 66.7699, 0.103843, -88.388
0, 3000.00000, 129.017, -30.1099, 128.513, -150.589, 127.83, 89.8438, 0, 0, 6.45276, -53.1838, 6.4781, -173.663, 6.51271, 66.7699, 0.10385, -88.3879
0, 3060.00000, 129.017, -30.1099, 128.513, -150.589, 127.83, 89.8438, 0, 0, 6.45276, -53.1838, 6.47809, -173.663, 6.51271, 66.7699, 0.103855, -88.3879
0, 3120.00000, 129.017, -30.1099, 128.513, -150.589, 127.83, 89.8438, 0, 0, 6.45275, -53.1838, 6.47809, -173.663, 6.51271, 66.7699, 0.103861, -88.3878
0, 3180.00000, 129.017, -30.1099, 128.513, -150.589, 127.83, 89.8438, 0, 0, 6.45275, -53.1838, 6.47809, -173.663, 6.51271, 66.7699, 0.103866, -88.3877
0, 3240.00000, 129.018, -30.1099, 128.513, -150.589, 127.83, 89.8438, 0, 0, 6.45275, -53.1838, 6.47809, -173.663, 6.51271, 66.7699, 0.10387, -88.3877
0, 3300.00000, 129.018, -30.1099, 128.513, -150.589, 127.83, 89.8438, 0, 0, 6.45275, -53.1838, 6.47809, -173.663, 6.51271, 66.7699, 0.103874, -88.3876
0, 3360.00000, 129.018, -30.1099, 128.513, -150.589, 127.83, 89.8438, 0, 0, 6.45274, -53.1838, 6.47809, -173.663, 6.51271, 66.7699, 0.103877, -88.3876
0, 3420.00000, 129.018, -30.1099, 128.513, -150.589, 127.83, 89.8438, 0, 0, 6.45274, -53.1838, 6.47809, -173.663, 6.51271, 66.7699, 0.10388, -88.3875
0, 3480.00000, 129.018, -30.1099, 128.513, -150.589, 127.83, 89.8438, 0, 0, 6.45274, -53.1838, 6.47809, -173.663, 6.51271, 66.7699, 0.103883, -88.3875
0, 3540.00000, 129.018, -30.1099, 128.513, -150.589, 127.83, 89.8438, 0, 0, 6.45274, -53.1838, 6.47808, -173.663, 6.51271, 66.7699, 0.103886, -88.3875
1, 0.00000, 129.018, -30.1099, 128.513, -150.589, 127.83, 89.8438, 0, 0, 6.45274, -53.1838, 6.47808, -173.663, 6.51271, 66.7699, 0.103888, -88.3874
1, 60.00000, 129.023, -30.1084, 128.518, -150.587, 127.835, 89.8453, 0, 0, 6.37707, -53.1823, 6.40212, -173.661, 6.43633, 66.7714, 0.10267, -88.3836
1, 120.00000, 129.023, -30.1084, 128.518, -150.587, 127.835, 89.8453, 0, 0, 6.37707, -53.1823, 6.40211, -173.661, 6.43633, 66.7714, 0.102672, -88.3836
1, 180.00000, 129.023, -30.1084, 128.518, -150.587, 127.835, 89.8453, 0, 0, 6.37707, -53.1823, 6.40211, -173.661, 6.43633, 66.7714, 0.102673, -88.3835
1, 240.00000, 129.023, -30.1084, 128.518, -150.587, 127.835, 89.8453, 0, 0, 6.37706, -53.1823, 6.40211, -173.661, 6.43633, 66.7714, 0.102675, -88.3835
1, 300.00000, 129.023, -30.1084, 128.518, -150.587, 127.835, 89.8453, 0, 0, 6.37706, -53.1823, 6.40211, -173.661, 6.43633, 66.7714, 0.102676, -88.3835
1, 360.00000, 129.023, -30.1084, 128.518, -150.587, 127.835, 89.8453, 0, 0, 6.37706, -53.1823, 6.40211, -173.661, 6.43633, 66.7714, 0.102677, -88.3835
1, 420.00000, 129.023, -30.1084, 128.518, -150.587, 127.835, 89.8453, 0, 0, 6.37706, -53.1823, 6.40211, -173.661, 6.43633, 66.7714, 0.102678, -88.3835
1, 480.00000, 129.023, -30.1084, 128.518, -150.587, 127.835, 89.8453, 0, 0, 6.37706, -53.1823, 6.40211, -173.661, 6.43633, 66.7714, 0.102679, -88.3835
1, 540.00000, 129.023, -30.1084, 128.518, -150.587, 127.835, 89.8453, 0, 0, 6.37706, -53.1823, 6.40211, -173.661, 6.43633, 66.7714, 0.10268, -88.3834
1, 600.00000, 129.023, -30.1084, 128.518, -150.587, 127.835, 89.8453, 0, 0, 6.37706, -53.1823, 6.40211, -173.661, 6.43633, 66.7714, 0.102681, -88.3834
1, 660.00000, 129.023, -30.1084, 128.518, -150.587, 127.835, 89.8453, 0, 0, 6.37706, -53.1823, 6.40211, -173.661, 6.43633, 66.7714, 0.102682, -88.3834
1, 720.00000, 129.023, -30.1084, 128.518, -150.587, 127.835, 89.8453, 0, 0, 6.37706, -53.1823, 6.40211, -173.661, 6.43633, 66.7714, 0.102682, -88.3834
1, 780.00000, 129.023, -30.1084, 128.518, -150.587, 127.835, 89.8453, 0, 0, 6.37706, -53.1823, 6.40211, -173.661, 6.43633, 66.7714, 0.102683, -88.3834
1, 840.00000, 129.023, -30.1084, 128.518, -150.587, 127.835, 89.8453, 0, 0, 6.37706, -53.1823, 6.40211, -173.661, 6.43633, 66.7714, 0.102683, -88.3834
1, 900.00000, 129.023, -30.1084, 128.518, -150.587, 127.835, 89.8453, 0, 0, 6.37706, -53.1823, 6.40211, -173.661, 6.43633, 66.7714, 0.102684, -88.3834
1, 960.00000, 129.025, -30.1078, 128.52, -150.587, 127.836, 89.8459, 0, 0, 6.34712, -53.1817, 6.37205, -173.661, 6.40611, 66.772, 0.102202, -88.3819
1, 1020.00000, 129.025, -30.1078, 128.52, -150.587, 127.836, 89.8459, 0, 0, 6.34712, -53.1817, 6.37205, -173.661, 6.40611, 66.772, 0.102202, -88.3819
1, 1080.00000, 129.025, -30.1078, 128.52, -150.587, 127.836, 89.8459, 0, 0, 6.34712, -53.1817, 6.37205, -173.661, 6.40611, 66.772, 0.102202, -88.3819
1, 1140.00000, 129.025, -30.1078, 128.52, -150.587, 127.836, 89.8459, 0, 0, 6.34712, -53.1817, 6.37205, -173.661, 6.40611, 66.772, 0.102203, -88.3819
1, 1200.00000, 129.025, -30.1078, 128.52, -150.587, 127.836, 89.8459, 0, 0, 6.34712, -53.1817, 6.37205, -173.661, 6.40611, 66.772, 0.102203, -88.3819
1, 1260.00000, 129.025, -30.1078, 128.52, -150.587, 127.836, 89.8459, 0, 0, 6.34712, -53.1817, 6.37205, -173.661, 6.40611, 66.772, 0.102203, -88.3819
1, 1320.00000, 129.025, -30.1078, 128.52, -150.587, 127.836, 89.8459, 0, 0, 6.34712, -53.1817, 6.37205, -173.661, 6.40611, 66.772, 0.102203, -88.3819
1, 1380.00000, 129.025, -30.1078, 128.52, -150.587, 127.836, 89.8459, 0, 0, 6.34712, -53.1817, 6.37205, -173.661, 6.40611, 66.772, 0.102203, -88.3819
1, 1440.00000, 129.025, -30.1078, 128.52, -150.587, 127.836, 89.8459, 0, 0, 6.34712, -53.1817, 6.37205, -173.661, 6.40611, 66.772, 0.102204, -88.3819
1, 1500.00000, 129.025, -30.1078, 128.52, -150.587, 127.836, 89.8459, 0, 0, 6.34712, -53.1817, 6.37205, -173.661, 6.40611, 66.772, 0.102204, -88.3819
1, 1560.00000, 129.025, -30.1078, 128.52, -150.587, 127.836, 89.8459, 0, 0, 6.34712, -53.1817, 6.37205, -173.661, 6.40611, 66.772, 0.102204, -88.3819
1, 1620.00000, 129.025, -30.1078, 128.52, -150.587, 127.836, 89.8459, 0, 0, 6.34712, -53.1817, 6.37205, -173.661, 6.40611, 66.772, 0.102204, -88.3819
1, 1680.00000, 129.025, -30.1078, 128.52, -150.587, 127.836, 89.8459, 0, 0, 6.34712, -53.1817, 6.37205, -173.661, 6.40611, 66.772, 0.102204, -88.3819
1, 1740.00000, 129.025, -30.1078, 128.52, -150.587, 127.836, 89.8459, 0, 0, 6.34712, -53.1817, 6.37205, -173.661, 6.40611, 66.772, 0.102204, -88.3819
1, 1800.00000, 129.025, -30.1078, 128.52, -150.587, 127.836, 89.8459, 0, 0, 6.34712, -53.1817, 6.37205, -173.661, 6.40611, 66.772, 0.102204, -88.3819
1, 1860.00000, 129.015, -30.1109, 128.51, -150.59, 127.827, 89.8428, 0, 0, 6.50068, -53.1848, 6.52622, -173.664, 6.56111, 66.7689, 0.104681, -88.3896
1, 1920.00000, 129.015, -30.1109, 128.51, -150.59, 127.827, 89.8428, 0, 0, 6.50068, -53.1848, 6.52622, -173.664, 6.56111, 66.7689, 0.104681, -88.3896
1, 1980.00000, 129.015, -30.1109, 128.51, -150.59, 127.827, 89.8428, 0, 0, 6.50068, -53.1848, 6.52622, -173.664, 6.56111, 66.7689, 0.104681, -88.3896
1, 2040.00000, 129.015, -30.1109, 128.51, -150.59, 127.827, 89.8428, 0, 0, 6.50068, -53.1848, 6.52622, -173.664, 6.56111, 66.7689, 0.104681, -88.3896
1, 2100.00000, 129.015, -30.1109, 128.51, -150.59, 127.827, 89.8428, 0, 0, 6.50068, -53.1848, 6.52622, -173.664, 6.56111, 66.7689, 0.104681, -88.3896
1, 2160.00000, 129.015, -30.1109, 128.51, -150.59, 127.827, 89.8428, 0, 0, 6.50068, -53.1848, 6.52622, -173.664, 6.56111, 66.7689, 0.104681, -88.3896
1, 2220.00000, 129.015, -30.1109, 128.51, -150.59, 127.827, 89.8428, 0, 0, 6.50068, -53.1848, 6.52622, -173.664, 6.56111, 66.7689, 0.104681, -88.3896
1, 2280.00000, 129.015, -30.1109, 128.51, -150.59, 127.827, 89.8428, 0, 0, 6.50068, -53.1848, 6.52622, -173.664, 6.56111, 66.7689, 0.104681, -88.3896
1, 2340.00000, 129.015, -30.1109, 128.51, -150.59, 127.827, 89.8428, 0, 0, 6.50068, -53.1848, 6.52622, -173.664, 6.56111, 66.7689, 0.104681, -88.3896
1, 2400.00000, 129.015, -30.1109, 128.51, -150.59, 127.827, 89.8428, 0, 0, 6.50068, -53.1848, 6.52622, -173.664, 6.56111, 66.7689, 0.104681, -88.3896
1, 2460.00000, 129.015, -30.1109, 128.51, -150.59, 127.827, 89.8428, 0, 0, 6.50068, -53.1848, 6.52622, -173.664, 6.56111, 66.7689, 0.104681, -88.3896
1, 2520.00000, 129.015, -30.1109, 128.51, -150.59, 127.827, 89.8428, 0, 0, 6.50068, -53.1848, 6.52622, -173.664, 6.56111, 66.7689, 0.104681, -88.3896
1, 2580.00000, 129.015, -30.1109, 128.51, -150.59, 127.827, 89.8428, 0, 0, 6.50068, -53.1848, 6.52622, -173.664, 6.56111, 66.7689, 0.104681, -88.3896
1, 2640.00000, 129.015, -30.1109, 128.51, -150.59, 127.827, 89.8428, 0, 0, 6.50068, -53.1848, 6.52622, -173.664, 6.56111, 66.7689, 0.104681, -88.3896
1, 2700.00000, 129.015, -30.1109, 128.51, -150.59, 127.827, 89.8428, 0, 0, 6.50068, -53.1848, 6.52622, -173.664, 6.56111, 66.7689, 0.104682, -88.3896
1, 2760.00000, 129.039, -30.1034, 128.534, -150.582, 127.85, 89.8504, 0, 0, 6.12449, -53.1773, 6.14855, -173.656, 6.18141, 66.7765, 0.0986152, -88.3707
1, 2820.00000, 129.039, -30.1034, 128.534, -150.582, 127.85, 89.8504, 0, 0, 6.12449, -53.1773, 6.14855, -173.656, 6.18141, 66.7765, 0.0986153, -88.3706
1, 2880.00000, 129.039, -30.1034, 128.534, -150.582, 127.85, 89.8504, 0, 0, 6.12449, -53.1773, 6.14855, -173.656, 6.18141, 66.7765, 0.0986153, -88.3706
1, 2940.00000, 129.039, -30.1034, 128.534, -150.582, 127.85, 89.8504, 0, 0, 6.12449, -53.1773, 6.14855, -173.656, 6.18141, 66.7765, 0.0986153, -88.3706
1, 3000.00000, 129.039, -30.1034, 128.534, -150.582, 127.85, 89.8504, 0, 0, 6.12449, -53.1773, 6.14855, -173.656, 6.18141, 66.7765, 0.0986153, -88.3706
1, 3060.00000, 129.039, -30.1034, 128.534, -150.582, 127.85, 89.8504, 0, 0, 6.12449, -53.1773, 6.14855, -173.656, 6.18141, 66.7765, 0.0986153, -88.3706
1, 3120.00000, 129.039, -30.1034, 128.534, -150.582, 127.85, 89.8504, 0, 0, 6.12449, -53.1773, 6.14855, -173.656, 6.18141, 66.7765, 0.0986153, -88.3706
1, 3180.00000, 129.039, -30.1034, 128.534, -150.582, 127.85, 89.8504, 0, 0, 6.12449, -53.1773, 6.14855, -173.656, 6.18141, 66.7765, 0.0986153, -88.3706
1, 3240.00000, 129.039, -30.1034, 128.534, -150.582, 127.85, 89.8504, 0, 0, 6.12449, -53.1773, 6.14855, -173.656, 6.18141, 66.7765, 0.0986153, -88.3706
1, 3300.00000, 129.039, -30.1034, 128.534, -150.582, 127.85, 89.8504, 0, 0, 6.12449, -53.1773, 6.14855, -173.656, 6.18141, 66.7765, 0.0986154, -88.3706
1, 3360.00000, 129.039, -30.1034, 128.534, -150.582, 127.85, 89.8504, 0, 0, 6.12449, -53.1773, 6.14855, -173.656, 6.18141, 66.7765, 0.0986154, -88.3706
1, 3420.00000, 129.039, -30.1034, 128.534, -150.582, 127.85, 89.8504, 0, 0, 6.12449, -53.1773, 6.14855, -173.656, 6.18141, 66.7765, 0.0986154, -88.3706
1, 3480.00000, 129.039, -30.1034, 128.534, -150.582, 127.85, 89.8504, 0, 0, 6.12449, -53.1773, 6.14855, -173.656, 6.18141, 66.7765, 0.0986154, -88.3706
1, 3540.00000, 129.039, -30.1034, 128.534, -150.582, 127.85, 89.8504, 0, 0, 6.12449, -53.1773, 6.14855, -173.656, 6.18141, 66.7765, 0.0986154, -88.3706
2, 0.00000, 129.039, -30.1034, 128.534, -150.582, 127.85, 89.8504, 0, 0, 6.12449, -53.1773, 6.14855, -173.656, 6.18141, 66.7765, 0.0986154, -88.3706
2, 60.00000, 129.028, -30.1066, 128.523, -150.586, 127.84, 89.8472, 0, 0, 6.28934, -53.1805, 6.31404, -173.66, 6.34779, 66.7733, 0.101274, -88.3789
2, 120.00000, 129.028, -30.1066, 128.523, -150.586, 127.84, 89.8472, 0, 0, 6.28934, -53.1805, 6.31404, -173.66, 6.34779, 66.7733, 0.101274, -88.3789
2, 180.00000, 129.028, -30.1066, 128.523, -150.586, 127.84, 89.8472, 0, 0, 6.28934, -53.1805, 6.31404, -173.66, 6.34779, 66.7733, 0.101274, -88.3789
2, 240.00000, 129.028, -30.1066, 128.523, -150.586, 127.84, 89.8472, 0, 0, 6.28934, -53.1805, 6.31404, -173.66, 6.34779, 66.7733, 0.101274, -88.3789
2, 300.00000, 129.028, -30.1066, 128.523, -150.586, 127.84, 89.8472, 0, 0, 6.28934, -53.1805, 6.31404, -173.66, 6.34779, 66.7733, 0.101274, -88.3789
2, 360.00000, 129.028, -30.1066, 128.523, -150.586, 127.84, 89.8472, 0, 0, 6.28934, -53.1805, 6.31404, -173.66, 6.34779, 66.7733, 0.101274, -88.3789
2, 420.00000, 129.028, -30.1066, 128.523, -150.586, 127.84, 89.8472, 0, 0, 6.28934, -53.1805, 6.31404, -173.66, 6.34779, 66.7733, 0.101274, -88.3789
2, 480.00000, 129.028, -30.1066, 128.523, -150.586, 127.84, 89.8472, 0, 0, 6.28934, -53.1805, 6.31404, -173.66, 6.34779, 66.7733, 0.101274, -88.3789
2, 540.00000, 129.028, -30.1066, 128.523, -150.586, 127.84, 89.8472, 0, 0, 6.28934, -53.1805, 6.31404, -173.66, 6.34779, 66.7733, 0.101274, -88.3789
2, 600.00000, 129.028, -30.1066, 128.523, -150.586, 127.84, 89.8472, 0, 0, 6.28934, -53.1805, 6.31404, -173.66, 6.34779, 66.7733, 0.101274, -88.3789
2, 660.00000, 129.028, -30.1066, 128.523, -150.586, 127.84, 89.8472, 0, 0, 6.28934, -53.1805, 6.31404, -173.66, 6.34779, 66.7733, 0.101274, -88.3789
2, 720.00000, 129.028, -30.1066, 128.523, -150.586, 127.84, 89.8472, 0, 0, 6.28934, -53.1805, 6.31404, -173.66, 6.34779, 66.7733, 0.101274, -88.3789
