hour,t(sec),V1,VAngle1,V2,VAngle2,V3,VAngle3,V4,VAngle4,I1,IAngle1,I2,IAngle2,I3,IAngle3,I4,IAngle4
0, 60.00000, 127.787, -30.1548, 128.87, -150.118, 128.404, 89.4523, 0, 0, 5.44141, -53.2287, 5.39571, -173.192, 5.41526, 66.3785, 0.0787132, 152.07
0, 120.00000, 127.787, -30.1548, 128.882, -150.117, 128.411, 89.448, 0, 0, 5.44141, -53.2287, 5.39521, -173.191, 5.41498, 66.3742, 0.0795719, 152.077
0, 180.00000, 127.787, -30.1548, 128.892, -150.117, 128.417, 89.4441, 0, 0, 5.44141, -53.2287, 5.39476, -173.191, 5.41473, 66.3702, 0.0803448, 152.084
0, 240.00000, 127.787, -30.1548, 128.902, -150.117, 128.422, 89.4406, 0, 0, 5.44141, -53.2287, 5.39436, -173.191, 5.41451, 66.3667, 0.0810404, 152.09
0, 300.00000, 127.787, -30.1548, 128.91, -150.117, 128.427, 89.4374, 0, 0, 5.44141, -53.2287, 5.39399, -173.19, 5.4143, 66.3635, 0.0816666, 152.096
0, 360.00000, 127.787, -30.1548, 128.918, -150.116, 128.431, 89.4345, 0, 0, 5.44141, -53.2287, 5.39367, -173.19, 5.41412, 66.3607, 0.0822302, 152.101
0, 420.00000, 127.787, -30.1548, 128.925, -150.116, 128.435, 89.432, 0, 0, 5.44141, -53.2287, 5.39337, -173.19, 5.41396, 66.3581, 0.0827375, 152.106
0, 480.00000, 127.787, -30.1548, 128.932, -150.116, 128.438, 89.4297, 0, 0, 5.44141, -53.2287, 5.39311, -173.19, 5.41381, 66.3558, 0.083194, 152.11
0, 540.00000, 127.787, -30.1548, 128.937, -150.116, 128.442, 89.4276, 0, 0, 5.44141, -53.2287, 5.39287, -173.19, 5.41368, 66.3537, 0.083605, 152.114
0, 600.00000, 127.787, -30.1548, 128.942, -150.116, 128.444, 89.4257, 0, 0, 5.44141, -53.2287, 5.39266, -173.19, 5.41356, 66.3518, 0.0839748, 152.117
0, 660.00000, 127.787, -30.1548, 128.947, -150.116, 128.447, 89.424, 0, 0, 5.44141, -53.2287, 5.39246, -173.189, 5.41345, 66.3501, 0.0843077, 152.12
0, 720.00000, 127.787, -30.1548, 128.951, -150.115, 128.449, 89.4225, 0, 0, 5.44141, -53.2287, 5.39229, -173.189, 5.41335, 66.3486, 0.0846074, 152.123
0, 780.00000, 127.787, -30.1548, 128.955, -150.115, 128.451, 89.4211, 0, 0, 5.44141, -53.2287, 5.39213, -173.189, 5.41327, 66.3473, 0.084877, 152.125
0, 840.00000, 127.787, -30.1548, 128.958, -150.115, 128.453, 89.4199, 0, 0, 5.44141, -53.2287, 5.39199, -173.189, 5.41319, 66.346, 0.0851197, 152.128
0, 900.00000, 127.787, -30.1548, 128.961, -150.115, 128.455, 89.4188, 0, 0, 5.44141, -53.2287, 5.39187, -173.189, 5.41312, 66.3449, 0.0853382, 152.13
0, 960.00000, 127.761, -30.1626, 128.939, -150.123, 128.431, 89.4101, 0, 0, 5.75747, -53.2365, 5.70489, -173.197, 5.72745, 66.3362, 0.0905332, 152.12
0, 1020.00000, 127.761, -30.1626, 128.941, -150.123, 128.432, 89.4092, 0, 0, 5.75747, -53.2365, 5.70478, -173.197, 5.72739, 66.3353, 0.0907204, 152.121
0, 1080.00000, 127.761, -30.1626, 128.944, -150.123, 128.433, 89.4084, 0, 0, 5.75747, -53.2365, 5.70468, -173.197, 5.72733, 66.3345, 0.0908889, 152.123
0, 1140.00000, 127.761, -30.1626, 128.945, -150.123, 128.435, 89.4077, 0, 0, 5.75747, -53.2365, 5.70459, -173.196, 5.72728, 66.3338, 0.0910405, 152.124
0, 1200.00000, 127.761, -30.1626, 128.947, -150.123, 128.436, 89.407, 0, 0, 5.75747, -53.2365, 5.70451, -173.196, 5.72724, 66.3331, 0.091177, 152.126
0, 1260.00000, 127.761, -30.1626, 128.949, -150.122, 128.436, 89.4065, 0, 0, 5.75747, -53.2365, 5.70444, -173.196, 5.7272, 66.3326, 0.0912998, 152.127
0, 1320.00000, 127.761, -30.1626, 128.95, -150.122, 128.437, 89.4059, 0, 0, 5.75747, -53.2365, 5.70438, -173.196, 5.72716, 66.332, 0.0914104, 152.128
0, 1380.00000, 127.761, -30.1626, 128.952, -150.122, 128.438, 89.4054, 0, 0, 5.75747, -53.2365, 5.70432, -173.196, 5.72713, 66.3315, 0.0915099, 152.129
0, 1440.00000, 127.761, -30.1626, 128.953, -150.122, 128.439, 89.405, 0, 0, 5.75747, -53.2365, 5.70427, -173.196, 5.7271, 66.3311, 0.0915995, 152.129
0, 1500.00000, 127.761, -30.1626, 128.954, -150.122, 128.439, 89.4046, 0, 0, 5.75747, -53.2365, 5.70422, -173.196, 5.72708, 66.3307, 0.0916801, 152.13
0, 1560.00000, 127.761, -30.1626, 128.955, -150.122, 128.44, 89.4043, 0, 0, 5.75747, -53.2365, 5.70418, -173.196, 5.72705, 66.3304, 0.0917526, 152.131
0, 1620.00000, 127.761, -30.1626, 128.956, -150.122, 128.44, 89.404, 0, 0, 5.75747, -53.2365, 5.70414, -173.196, 5.72703, 66.3301, 0.0918179, 152.131
0, 1680.00000, 127.761, -30.1626, 128.956, -150.122, 128.441, 89.4037, 0, 0, 5.75747, -53.2365, 5.70411, -173.196, 5.72701, 66.3298, 0.0918767, 152.132
0, 1740.00000, 127.761, -30.1626, 128.957, -150.122, 128.441, 89.4034, 0, 0, 5.75747, -53.2365, 5.70408, -173.196, 5.727, 66.3295, 0.0919295, 152.132
0, 1800.00000, 127.761, -30.1626, 128.958, -150.122, 128.441, 89.4032, 0, 0, 5.75748, -53.2365, 5.70405, -173.196, 5.72698, 66.3293, 0.0919771, 152.133
0, 1860.00000, 127.76, -30.1629, 128.957, -150.123, 128.44, 89.4027, 0, 0, 5.77501, -53.2369, 5.7214, -173.196, 5.74441, 66.3288, 0.092302, 152.133
0, 1920.00000, 127.76, -30.1629, 128.958, -150.123, 128.441, 89.4025, 0, 0, 5.77501, -53.2369, 5.72138, -173.196, 5.7444, 66.3286, 0.0923406, 152.133
0, 1980.00000, 127.76, -30.1629, 128.958, -150.123, 128.441, 89.4023, 0, 0, 5.77501, -53.2369, 5.72136, -173.196, 5.74439, 66.3284, 0.0923754, 152.133
0, 2040.00000, 127.76, -30.1629, 128.958, -150.123, 128.441, 89.4022, 0, 0, 5.77502, -53.2369, 5.72134, -173.196, 5.74438, 66.3283, 0.0924068, 152.134
0, 2100.00000, 127.76, -30.1629, 128.959, -150.122, 128.441, 89.402, 0, 0, 5.77502, -53.2369, 5.72132, -173.196, 5.74437, 66.3281, 0.092435, 152.134
0, 2160.00000, 127.76, -30.1629, 128.959, -150.122, 128.442, 89.4019, 0, 0, 5.77502, -53.2369, 5.72131, -173.196, 5.74436, 66.328, 0.0924603, 152.134
0, 2220.00000, 127.76, -30.1629, 128.959, -150.122, 128.442, 89.4018, 0, 0, 5.77502, -53.2369, 5.72129, -173.196, 5.74435, 66.3279, 0.0924832, 152.134
0, 2280.00000, 127.76, -30.1629, 128.96, -150.122, 128.442, 89.4017, 0, 0, 5.77502, -53.2369, 5.72128, -173.196, 5.74435, 66.3278, 0.0925037, 152.135
0, 2340.00000, 127.76, -30.1629, 128.96, -150.122, 128.442, 89.4016, 0, 0, 5.77502, -53.2369, 5.72127, -173.196, 5.74434, 66.3277, 0.0925222, 152.135
0, 2400.00000, 127.76, -30.1629, 128.96, -150.122, 128.442, 89.4015, 0, 0, 5.77502, -53.2369, 5.72126, -173.196, 5.74434, 66.3276, 0.0925389, 152.135
0, 2460.00000, 127.76, -30.1629, 128.96, -150.122, 128.442, 89.4015, 0, 0, 5.77502, -53.2369, 5.72125, -173.196, 5.74433, 66.3276, 0.0925538, 152.135
0, 2520.00000, 127.76, -30.1629, 128.961, -150.122, 128.442, 89.4014, 0, 0, 5.77502, -53.2369, 5.72125, -173.196, 5.74433, 66.3275, 0.0925673, 152.135
0, 2580.00000, 127.76, -30.1629, 128.961, -150.122, 128.442, 89.4014, 0, 0, 5.77502, -53.2369, 5.72124, -173.196, 5.74432, 66.3274, 0.0925795, 152.135
0, 2640.00000, 127.76, -30.1629, 128.961, -150.122, 128.443, 89.4013, 0, 0, 5.77502, -53.2369, 5.72123, -173.196, 5.74432, 66.3274, 0.0925904, 152.135
0, 2700.00000, 127.76, -30.1629, 128.961, -150.122, 128.443, 89.4013, 0, 0, 5.77502, -53.2369, 5.72123, -173.196, 5.74432, 66.3273, 0.0926002, 152.135
0, 2760.00000, 127.783, -30.156, 128.983, -150.116, 128.465, 89.408, 0, 0, 5.49188, -53.2299, 5.44076, -173.19, 5.46271, 66.3341, 0.0880431, 152.146
0, 2820.00000, 127.783, -30.156, 128.984, -150.116, 128.465, 89.408, 0, 0, 5.49188, -53.2299, 5.44076, -173.19, 5.4627, 66.3341, 0.0880507, 152.146
0, 2880.00000, 127.783, -30.156, 128.984, -150.116, 128.465, 89.408, 0, 0, 5.49188, -53.2299, 5.44075, -173.19, 5.4627, 66.334, 0.0880575, 152.146
0, 2940.00000, 127.783, -30.156, 128.984, -150.116, 128.465, 89.4079, 0, 0, 5.49188, -53.2299, 5.44075, -173.189, 5.4627, 66.334, 0.0880636, 152.146
0, 3000.00000, 127.783, -30.156, 128.984, -150.116, 128.465, 89.4079, 0, 0, 5.49188, -53.2299, 5.44075, -173.189, 5.4627, 66.334, 0.0880691, 152.146
0, 3060.00000, 127.783, -30.156, 128.984, -150.116, 128.466, 89.4079, 0, 0, 5.49188, -53.2299, 5.44074, -173.189, 5.4627, 66.334, 0.0880741, 152.146
0, 3120.00000, 127.783, -30.156, 128.984, -150.116, 128.466, 89.4079, 0, 0, 5.49188, -53.2299, 5.44074, -173.189, 5.46269, 66.3339, 0.0880786, 152.146
0, 3180.00000, 127.783, -30.156, 128.984, -150.116, 128.466, 89.4078, 0, 0, 5.49188, -53.2299, 5.44074, -173.189, 5.46269, 66.3339, 0.0880826, 152.146
0, 3240.00000, 127.783, -30.156, 128.984, -150.116, 128.466, 89.4078, 0, 0, 5.49188, -53.2299, 5.44074, -173.189, 5.46269, 66.3339, 0.0880862, 152.146
0, 3300.00000, 127.783, -30.156, 128.984, -150.116, 128.466, 89.4078, 0, 0, 5.49188, -53.2299, 5.44073, -173.189, 5.46269, 66.3339, 0.0880895, 152.146
0, 3360.00000, 127.783, -30.156, 128.984, -150.116, 128.466, 89.4078, 0, 0, 5.49188, -53.2299, 5.44073, -173.189, 5.46269, 66.3339, 0.0880924, 152.147
0, 3420.00000, 127.783, -30.156, 128.984, -150.116, 128.466, 89.4078, 0, 0, 5.49188, -53.2299, 5.44073, -173.189, 5.46269, 66.3338, 0.0880951, 152.147
0, 3480.00000, 127.783, -30.156, 128.984, -150.116, 128.466, 89.4078, 0, 0, 5.49188, -53.2299, 5.44073, -173.189, 5.46269, 66.3338, 0.0880974, 152.147
0, 3540.00000, 127.783, -30.156, 128.984, -150.116, 128.466, 89.4077, 0, 0, 5.49188, -53.2299, 5.44073, -173.189, 5.46269, 66.3338, 0.0880996, 152.147
1, 0.00000, 127.783, -30.156, 128.984, -150.116, 128.466, 89.4077, 0, 0, 5.49188, -53.2299, 5.44073, -173.189, 5.46269, 66.3338, 0.0881015, 152.147
1, 60.00000, 127.788, -30.1545, 128.989, -150.114, 128.471, 89.4093, 0, 0, 5.42746, -53.2284, 5.37691, -173.188, 5.39861, 66.3354, 0.087064, 152.149
1, 120.00000, 127.788, -30.1545, 128.989, -150.114, 128.471, 89.4093, 0, 0, 5.42746, -53.2284, 5.37691, -173.188, 5.39861, 66.3354, 0.0870655, 152.149
1, 180.00000, 127.788, -30.1545, 128.989, -150.114, 128.471, 89.4093, 0, 0, 5.42746, -53.2284, 5.37691, -173.188, 5.39861, 66.3353, 0.0870669, 152.149
1, 240.00000, 127.788, -30.1545, 128.989, -150.114, 128.471, 89.4093, 0, 0, 5.42746, -53.2284, 5.37691, -173.188, 5.39861, 66.3353, 0.0870681, 152.149
1, 300.00000, 127.788, -30.1545, 128.989, -150.114, 128.471, 89.4092, 0, 0, 5.42746, -53.2284, 5.37691, -173.188, 5.39861, 66.3353, 0.0870693, 152.149
1, 360.00000, 127.788, -30.1545, 128.989, -150.114, 128.471, 89.4092, 0, 0, 5.42746, -53.2284, 5.37691, -173.188, 5.39861, 66.3353, 0.0870703, 152.149
1, 420.00000, 127.788, -30.1545, 128.989, -150.114, 128.471, 89.4092, 0, 0, 5.42746, -53.2284, 5.37691, -173.188, 5.39861, 66.3353, 0.0870712, 152.149
1, 480.00000, 127.788, -30.1545, 128.99, -150.114, 128.471, 89.4092, 0, 0, 5.42746, -53.2284, 5.37691, -173.188, 5.39861, 66.3353, 0.087072, 152.149
1, 540.00000, 127.788, -30.1545, 128.99, -150.114, 128.471, 89.4092, 0, 0, 5.42746, -53.2284, 5.3769, -173.188, 5.39861, 66.3353, 0.0870727, 152.149
1, 600.00000, 127.788, -30.1545, 128.99, -150.114, 128.471, 89.4092, 0, 0, 5.42746, -53.2284, 5.3769, -173.188, 5.39861, 66.3353, 0.0870734, 152.149
1, 660.00000, 127.788, -30.1545, 128.99, -150.114, 128.471, 89.4092, 0, 0, 5.42746, -53.2284, 5.3769, -173.188, 5.39861, 66.3353, 0.087074, 152.149
1, 720.00000, 127.788, -30.1545, 128.99, -150.114, 128.471, 89.4092, 0, 0, 5.42746, -53.2284, 5.3769, -173.188, 5.39861, 66.3353, 0.0870745, 152.149
1, 780.00000, 127.788, -30.1545, 128.99, -150.114, 128.471, 89.4092, 0, 0, 5.42746, -53.2284, 5.3769, -173.188, 5.39861, 66.3353, 0.087075, 152.149
1, 840.00000, 127.788, -30.1545, 128.99, -150.114, 128.471, 89.4092, 0, 0, 5.42746, -53.2284, 5.3769, -173.188, 5.39861, 66.3353, 0.0870755, 152.149
1, 900.00000, 127.788, -30.1545, 128.99, -150.114, 128.471, 89.4092, 0, 0, 5.42746, -53.2284, 5.3769, -173.188, 5.39861, 66.3353, 0.0870759, 152.149
1, 960.00000, 127.79, -30.1539, 128.992, -150.113, 128.473, 89.4098, 0, 0, 5.40197, -53.2278, 5.35165, -173.187, 5.37325, 66.3359, 0.086665, 152.15
1, 1020.00000, 127.79, -30.1539, 128.992, -150.113, 128.473, 89.4098, 0, 0, 5.40197, -53.2278, 5.35165, -173.187, 5.37325, 66.3359, 0.0866653, 152.15
1, 1080.00000, 127.79, -30.1539, 128.992, -150.113, 128.473, 89.4098, 0, 0, 5.40197, -53.2278, 5.35165, -173.187, 5.37325, 66.3359, 0.0866656, 152.15
1, 1140.00000, 127.79, -30.1539, 128.992, -150.113, 128.473, 89.4098, 0, 0, 5.40197, -53.2278, 5.35165, -173.187, 5.37325, 66.3359, 0.0866658, 152.15
1, 1200.00000, 127.79, -30.1539, 128.992, -150.113, 128.473, 89.4098, 0, 0, 5.40197, -53.2278, 5.35165, -173.187, 5.37325, 66.3359, 0.0866661, 152.15
1, 1260.00000, 127.79, -30.1539, 128.992, -150.113, 128.473, 89.4098, 0, 0, 5.40197, -53.2278, 5.35165, -173.187, 5.37325, 66.3359, 0.0866663, 152.15
1, 1320.00000, 127.79, -30.1539, 128.992, -150.113, 128.473, 89.4098, 0, 0, 5.40197, -53.2278, 5.35165, -173.187, 5.37325, 66.3359, 0.0866665, 152.15
1, 1380.00000, 127.79, -30.1539, 128.992, -150.113, 128.473, 89.4098, 0, 0, 5.40197, -53.2278, 5.35165, -173.187, 5.37325, 66.3359, 0.0866666, 152.15
1, 1440.00000, 127.79, -30.1539, 128.992, -150.113, 128.473, 89.4098, 0, 0, 5.40197, -53.2278, 5.35165, -173.187, 5.37325, 66.3359, 0.0866668, 152.15
1, 1500.00000, 127.79, -30.1539, 128.992, -150.113, 128.473, 89.4098, 0, 0, 5.40197, -53.2278, 5.35165, -173.187, 5.37325, 66.3359, 0.0866669, 152.15
1, 1560.00000, 127.79, -30.1539, 128.992, -150.113, 128.473, 89.4098, 0, 0, 5.40197, -53.2278, 5.35165, -173.187, 5.37325, 66.3359, 0.086667, 152.15
1, 1620.00000, 127.79, -30.1539, 128.992, -150.113, 128.473, 89.4098, 0, 0, 5.40197, -53.2278, 5.35165, -173.187, 5.37325, 66.3359, 0.0866672, 152.15
1, 1680.00000, 127.79, -30.1539, 128.992, -150.113, 128.473, 89.4098, 0, 0, 5.40197, -53.2278, 5.35165, -173.187, 5.37325, 66.3359, 0.0866673, 152.15
1, 1740.00000, 127.79, -30.1539, 128.992, -150.113, 128.473, 89.4098, 0, 0, 5.40197, -53.2278, 5.35165, -173.187, 5.37325, 66.3359, 0.0866673, 152.15
1, 1800.00000, 127.79, -30.1539, 128.992, -150.113, 128.473, 89.4098, 0, 0, 5.40197, -53.2278, 5.35165, -173.187, 5.37325, 66.3359, 0.0866674, 152.15
1, 1860.00000, 127.78, -30.157, 128.981, -150.117, 128.463, 89.4067, 0, 0, 5.53271, -53.2309, 5.48116, -173.19, 5.50329, 66.3328, 0.0887769, 152.145
1, 1920.00000, 127.78, -30.157, 128.981, -150.117, 128.463, 89.4067, 0, 0, 5.53271, -53.2309, 5.48116, -173.19, 5.50329, 66.3328, 0.088777, 152.145
1, 1980.00000, 127.78, -30.157, 128.981, -150.117, 128.463, 89.4067, 0, 0, 5.53271, -53.2309, 5.48116, -173.19, 5.50329, 66.3328, 0.0887771, 152.145
1, 2040.00000, 127.78, -30.157, 128.981, -150.117, 128.463, 89.4067, 0, 0, 5.53271, -53.2309, 5.48116, -173.19, 5.50329, 66.3328, 0.0887771, 152.145
1, 2100.00000, 127.78, -30.157, 128.981, -150.117, 128.463, 89.4067, 0, 0, 5.53271, -53.2309, 5.48116, -173.19, 5.50329, 66.3328, 0.0887772, 152.145
1, 2160.00000, 127.78, -30.157, 128.981, -150.117, 128.463, 89.4067, 0, 0, 5.53271, -53.2309, 5.48116, -173.19, 5.50329, 66.3328, 0.0887772, 152.145
1, 2220.00000, 127.78, -30.157, 128.981, -150.117, 128.463, 89.4067, 0, 0, 5.53271, -53.2309, 5.48116, -173.19, 5.50329, 66.3328, 0.0887772, 152.145
1, 2280.00000, 127.78, -30.157, 128.981, -150.117, 128.463, 89.4067, 0, 0, 5.53271, -53.2309, 5.48116, -173.19, 5.50329, 66.3328, 0.0887773, 152.145
1, 2340.00000, 127.78, -30.157, 128.981, -150.117, 128.463, 89.4067, 0, 0, 5.53271, -53.2309, 5.48116, -173.19, 5.50329, 66.3328, 0.0887773, 152.145
1, 2400.00000, 127.78, -30.157, 128.981, -150.117, 128.463, 89.4067, 0, 0, 5.53271, -53.2309, 5.48116, -173.19, 5.50329, 66.3328, 0.0887773, 152.145
1, 2460.00000, 127.78, -30.157, 128.981, -150.117, 128.463, 89.4067, 0, 0, 5.53271, -53.2309, 5.48116, -173.19, 5.50329, 66.3328, 0.0887774, 152.145
1, 2520.00000, 127.78, -30.157, 128.981, -150.117, 128.463, 89.4067, 0, 0, 5.53271, -53.2309, 5.48116, -173.19, 5.50329, 66.3328, 0.0887774, 152.145
1, 2580.00000, 127.78, -30.157, 128.981, -150.117, 128.463, 89.4067, 0, 0, 5.53271, -53.2309, 5.48116, -173.19, 5.50329, 66.3328, 0.0887774, 152.145
1, 2640.00000, 127.78, -30.157, 128.981, -150.117, 128.463, 89.4067, 0, 0, 5.53271, -53.2309, 5.48116, -173.19, 5.50329, 66.3328, 0.0887774, 152.145
1, 2700.00000, 127.78, -30.157, 128.981, -150.117, 128.463, 89.4067, 0, 0, 5.53271, -53.2309, 5.48116, -173.19, 5.50329, 66.3328, 0.0887774, 152.145
1, 2760.00000, 127.805, -30.1493, 129.006, -150.109, 128.488, 89.4143, 0, 0, 5.21243, -53.2232, 5.1639, -173.183, 5.18474, 66.3404, 0.0836109, 152.157
1, 2820.00000, 127.805, -30.1493, 129.006, -150.109, 128.488, 89.4143, 0, 0, 5.21243, -53.2232, 5.1639, -173.183, 5.18474, 66.3404, 0.0836109, 152.157
1, 2880.00000, 127.805, -30.1493, 129.006, -150.109, 128.488, 89.4143, 0, 0, 5.21243, -53.2232, 5.1639, -173.183, 5.18474, 66.3404, 0.0836109, 152.157
1, 2940.00000, 127.805, -30.1493, 129.006, -150.109, 128.488, 89.4143, 0, 0, 5.21243, -53.2232, 5.1639, -173.183, 5.18474, 66.3404, 0.0836109, 152.157
1, 3000.00000, 127.805, -30.1493, 129.006, -150.109, 128.488, 89.4143, 0, 0, 5.21243, -53.2232, 5.1639, -173.183, 5.18474, 66.3404, 0.0836109, 152.157
1, 3060.00000, 127.805, -30.1493, 129.006, -150.109, 128.488, 89.4143, 0, 0, 5.21243, -53.2232, 5.1639, -173.183, 5.18474, 66.3404, 0.0836109, 152.157
1, 3120.00000, 127.805, -30.1493, 129.006, -150.109, 128.488, 89.4143, 0, 0, 5.21243, -53.2232, 5.1639, -173.183, 5.18474, 66.3404, 0.083611, 152.157
1, 3180.00000, 127.805, -30.1493, 129.006, -150.109, 128.488, 89.4143, 0, 0, 5.21243, -53.2232, 5.1639, -173.183, 5.18474, 66.3404, 0.083611, 152.157
1, 3240.00000, 127.805, -30.1493, 129.006, -150.109, 128.488, 89.4143, 0, 0, 5.21243, -53.2232, 5.1639, -173.183, 5.18474, 66.3404, 0.083611, 152.157
1, 3300.00000, 127.805, -30.1493, 129.006, -150.109, 128.488, 89.4143, 0, 0, 5.21243, -53.2232, 5.1639, -173.183, 5.18474, 66.3404, 0.083611, 152.157
1, 3360.00000, 127.805, -30.1493, 129.006, -150.109, 128.488, 89.4143, 0, 0, 5.21243, -53.2232, 5.1639, -173.183, 5.18474, 66.3404, 0.083611, 152.157
1, 3420.00000, 127.805, -30.1493, 129.006, -150.109, 128.488, 89.4143, 0, 0, 5.21243, -53.2232, 5.1639, -173.183, 5.18474, 66.3404, 0.083611, 152.157
1, 3480.00000, 127.805, -30.1493, 129.006, -150.109, 128.488, 89.4143, 0, 0, 5.21243, -53.2232, 5.1639, -173.183, 5.18474, 66.3404, 0.083611, 152.157
1, 3540.00000, 127.805, -30.1493, 129.006, -150.109, 128.488, 89.4143, 0, 0, 5.21243, -53.2232, 5.1639, -173.183, 5.18474, 66.3404, 0.083611, 152.157
2, 0.00000, 127.805, -30.1493, 129.006, -150.109, 128.488, 89.4143, 0, 0, 5.21243, -53.2232, 5.1639, -173.183, 5.18474, 66.3404, 0.083611, 152.157
2, 60.00000, 127.794, -30.1526, 128.996, -150.112, 128.477, 89.411, 0, 0, 5.35278, -53.2265, 5.30293, -173.186, 5.32433, 66.3371, 0.0858746, 152.152
2, 120.00000, 127.794, -30.1526, 128.996, -150.112, 128.477, 89.411, 0, 0, 5.35278, -53.2265, 5.30293, -173.186, 5.32433, 66.3371, 0.0858746, 152.152
2, 180.00000, 127.794, -30.1526, 128.996, -150.112, 128.477, 89.411, 0, 0, 5.35278, -53.2265, 5.30293, -173.186, 5.32433, 66.3371, 0.0858746, 152.152
2, 240.00000, 127.794, -30.1526, 128.996, -150.112, 128.477, 89.411, 0, 0, 5.35278, -53.2265, 5.30293, -173.186, 5.32433, 66.3371, 0.0858746, 152.152
2, 300.00000, 127.794, -30.1526, 128.996, -150.112, 128.477, 89.411, 0, 0, 5.35278, -53.2265, 5.30293, -173.186, 5.32433, 66.3371, 0.0858746, 152.152
2, 360.00000, 127.794, -30.1526, 128.996, -150.112, 128.477, 89.411, 0, 0, 5.35278, -53.2265, 5.30293, -173.186, 5.32433, 66.3371, 0.0858746, 152.152
2, 420.00000, 127.794, -30.1526, 128.996, -150.112, 128.477, 89.411, 0, 0, 5.35278, -53.2265, 5.30293, -173.186, 5.32433, 66.3371, 0.0858746, 152.152
2, 480.00000, 127.794, -30.1526, 128.996, -150.112, 128.477, 89.411, 0, 0, 5.35278, -53.2265, 5.30293, -173.186, 5.32433, 66.3371, 0.0858746, 152.152
2, 540.00000, 127.794, -30.1526, 128.996, -150.112, 128.477, 89.411, 0, 0, 5.35278, -53.2265, 5.30293, -173.186, 5.32433, 66.3371, 0.0858746, 152.152
2, 600.00000, 127.794, -30.1526, 128.996, -150.112, 128.477, 89.411, 0, 0, 5.35278, -53.2265, 5.30293, -173.186, 5.32433, 66.3371, 0.0858746, 152.152
2, 660.00000, 127.794, -30.1526, 128.996, -150.112, 128.477, 89.411, 0, 0, 5.35278, -53.2265, 5.30293, -173.186, 5.32433, 66.3371, 0.0858746, 152.152
2, 720.00000, 127.794, -30.1526, 128.996, -150.112, 128.477, 89.411, 0, 0, 5.35278, -53.2265, 5.30293, -173.186, 5.32433, 66.3371, 0.0858746, 152.152
