hour,t(sec),V1,VAngle1,V2,VAngle2,V3,VAngle3,V4,VAngle4,I1,IAngle1,I2,IAngle2,I3,IAngle3,I4,IAngle4
0, 60.00000, 127.706, -30.1428, 127.748, -150.156, 127.716, 89.8366, 0, 0, 2.76231, -53.2167, 2.76139, -173.23, 2.7621, 66.7627, 0.00167415, -175.256
0, 120.00000, 127.706, -30.1428, 127.748, -150.156, 127.716, 89.8366, 0, 0, 2.76231, -53.2167, 2.76139, -173.23, 2.7621, 66.7627, 0.00167394, -175.262
0, 180.00000, 127.706, -30.1428, 127.748, -150.156, 127.716, 89.8366, 0, 0, 2.76231, -53.2167, 2.76139, -173.23, 2.7621, 66.7627, 0.00167394, -175.262
0, 240.00000, 127.706, -30.1428, 127.748, -150.156, 127.716, 89.8366, 0, 0, 2.76231, -53.2167, 2.76139, -173.23, 2.7621, 66.7627, 0.00167394, -175.262
0, 300.00000, 127.706, -30.1428, 127.748, -150.156, 127.716, 89.8366, 0, 0, 2.76231, -53.2167, 2.76139, -173.23, 2.7621, 66.7627, 0.00167394, -175.262
0, 360.00000, 127.706, -30.1428, 127.748, -150.156, 127.716, 89.8366, 0, 0, 2.76231, -53.2167, 2.76139, -173.23, 2.7621, 66.7627, 0.00167394, -175.262
0, 420.00000, 127.706, -30.1428, 127.748, -150.156, 127.716, 89.8366, 0, 0, 2.76231, -53.2167, 2.76139, -173.23, 2.7621, 66.7627, 0.00167394, -175.262
0, 480.00000, 127.706, -30.1428, 127.748, -150.156, 127.716, 89.8366, 0, 0, 2.76231, -53.2167, 2.76139, -173.23, 2.7621, 66.7627, 0.00167394, -175.262
0, 540.00000, 127.706, -30.1428, 127.748, -150.156, 127.716, 89.8366, 0, 0, 2.76231, -53.2167, 2.76139, -173.23, 2.7621, 66.7627, 0.00167394, -175.262
0, 600.00000, 127.706, -30.1428, 127.748, -150.156, 127.716, 89.8366, 0, 0, 2.76231, -53.2167, 2.76139, -173.23, 2.7621, 66.7627, 0.00167394, -175.262
0, 660.00000, 127.706, -30.1428, 127.748, -150.156, 127.716, 89.8366, 0, 0, 2.76231, -53.2167, 2.76139, -173.23, 2.7621, 66.7627, 0.00167394, -175.262
0, 720.00000, 127.706, -30.1428, 127.748, -150.156, 127.716, 89.8366, 0, 0, 2.76231, -53.2167, 2.76139, -173.23, 2.7621, 66.7627, 0.00167394, -175.262
0, 780.00000, 127.706, -30.1428, 127.748, -150.156, 127.716, 89.8366, 0, 0, 2.76231, -53.2167, 2.76139, -173.23, 2.7621, 66.7627, 0.00167394, -175.262
0, 840.00000, 127.706, -30.1428, 127.748, -150.156, 127.716, 89.8366, 0, 0, 2.76231, -53.2167, 2.76139, -173.23, 2.7621, 66.7627, 0.00167394, -175.262
0, 900.00000, 127.706, -30.1428, 127.748, -150.156, 127.716, 89.8366, 0, 0, 2.76231, -53.2167, 2.76139, -173.23, 2.7621, 66.7627, 0.00167394, -175.262
0, 960.00000, 127.677, -30.1504, 127.72, -150.163, 127.688, 89.8288, 0, 0, 2.92283, -53.2242, 2.92183, -173.237, 2.92258, 66.755, 0.00178957, -176.099
0, 1020.00000, 127.677, -30.1504, 127.72, -150.163, 127.688, 89.8288, 0, 0, 2.92283, -53.2243, 2.92184, -173.237, 2.92258, 66.7549, 0.00179023, -176.119
0, 1080.00000, 127.677, -30.1504, 127.72, -150.163, 127.688, 89.8288, 0, 0, 2.92283, -53.2243, 2.92184, -173.237, 2.92258, 66.7549, 0.00179023, -176.119
0, 1140.00000, 127.677, -30.1504, 127.72, -150.163, 127.688, 89.8288, 0, 0, 2.92283, -53.2243, 2.92184, -173.237, 2.92258, 66.7549, 0.00179023, -176.119
0, 1200.00000, 127.677, -30.1504, 127.72, -150.163, 127.688, 89.8288, 0, 0, 2.92283, -53.2243, 2.92184, -173.237, 2.92258, 66.7549, 0.00179023, -176.119
0, 1260.00000, 127.677, -30.1504, 127.72, -150.163, 127.688, 89.8288, 0, 0, 2.92283, -53.2243, 2.92184, -173.237, 2.92258, 66.7549, 0.00179023, -176.119
0, 1320.00000, 127.677, -30.1504, 127.72, -150.163, 127.688, 89.8288, 0, 0, 2.92283, -53.2243, 2.92184, -173.237, 2.92258, 66.7549, 0.00179023, -176.119
0, 1380.00000, 127.677, -30.1504, 127.72, -150.163, 127.688, 89.8288, 0, 0, 2.92283, -53.2243, 2.92184, -173.237, 2.92258, 66.7549, 0.00179023, -176.119
0, 1440.00000, 127.677, -30.1504, 127.72, -150.163, 127.688, 89.8288, 0, 0, 2.92283, -53.2243, 2.92184, -173.237, 2.92258, 66.7549, 0.00179023, -176.119
0, 1500.00000, 127.677, -30.1504, 127.72, -150.163, 127.688, 89.8288, 0, 0, 2.92283, -53.2243, 2.92184, -173.237, 2.92258, 66.7549, 0.00179023, -176.119
0, 1560.00000, 127.677, -30.1504, 127.72, -150.163, 127.688, 89.8288, 0, 0, 2.92283, -53.2243, 2.92184, -173.237, 2.92258, 66.7549, 0.00179023, -176.119
0, 1620.00000, 127.677, -30.1504, 127.72, -150.163, 127.688, 89.8288, 0, 0, 2.92283, -53.2243, 2.92184, -173.237, 2.92258, 66.7549, 0.00179023, -176.119
0, 1680.00000, 127.677, -30.1504, 127.72, -150.163, 127.688, 89.8288, 0, 0, 2.92283, -53.2243, 2.92184, -173.237, 2.92258, 66.7549, 0.00179023, -176.119
0, 1740.00000, 127.677, -30.1504, 127.72, -150.163, 127.688, 89.8288, 0, 0, 2.92283, -53.2243, 2.92184, -173.237, 2.92258, 66.7549, 0.00179023, -176.119
0, 1800.00000, 127.677, -30.1504, 127.72, -150.163, 127.688, 89.8288, 0, 0, 2.92283, -53.2243, 2.92184, -173.237, 2.92258, 66.7549, 0.00179023, -176.119
0, 1860.00000, 127.675, -30.1507, 127.719, -150.164, 127.686, 89.8285, 0, 0, 2.93174, -53.2246, 2.93075, -173.238, 2.93149, 66.7546, 0.00179672, -176.165
0, 1920.00000, 127.675, -30.1507, 127.719, -150.164, 127.686, 89.8285, 0, 0, 2.93174, -53.2246, 2.93075, -173.238, 2.93149, 66.7545, 0.00179675, -176.166
0, 1980.00000, 127.675, -30.1507, 127.719, -150.164, 127.686, 89.8285, 0, 0, 2.93174, -53.2246, 2.93075, -173.238, 2.93149, 66.7545, 0.00179675, -176.166
0, 2040.00000, 127.675, -30.1507, 127.719, -150.164, 127.686, 89.8285, 0, 0, 2.93174, -53.2246, 2.93075, -173.238, 2.93149, 66.7545, 0.00179675, -176.166
0, 2100.00000, 127.675, -30.1507, 127.719, -150.164, 127.686, 89.8285, 0, 0, 2.93174, -53.2246, 2.93075, -173.238, 2.93149, 66.7545, 0.00179675, -176.166
0, 2160.00000, 127.675, -30.1507, 127.719, -150.164, 127.686, 89.8285, 0, 0, 2.93174, -53.2246, 2.93075, -173.238, 2.93149, 66.7545, 0.00179675, -176.166
0, 2220.00000, 127.675, -30.1507, 127.719, -150.164, 127.686, 89.8285, 0, 0, 2.93174, -53.2246, 2.93075, -173.238, 2.93149, 66.7545, 0.00179675, -176.166
0, 2280.00000, 127.675, -30.1507, 127.719, -150.164, 127.686, 89.8285, 0, 0, 2.93174, -53.2246, 2.93075, -173.238, 2.93149, 66.7545, 0.00179675, -176.166
0, 2340.00000, 127.675, -30.1507, 127.719, -150.164, 127.686, 89.8285, 0, 0, 2.93174, -53.2246, 2.93075, -173.238, 2.93149, 66.7545, 0.00179675, -176.166
0, 2400.00000, 127.675, -30.1507, 127.719, -150.164, 127.686, 89.8285, 0, 0, 2.93174, -53.2246, 2.93075, -173.238, 2.93149, 66.7545, 0.00179675, -176.166
0, 2460.00000, 127.675, -30.1507, 127.719, -150.164, 127.686, 89.8285, 0, 0, 2.93174, -53.2246, 2.93075, -173.238, 2.93149, 66.7545, 0.00179675, -176.166
0, 2520.00000, 127.675, -30.1507, 127.719, -150.164, 127.686, 89.8285, 0, 0, 2.93174, -53.2246, 2.93075, -173.238, 2.93149, 66.7545, 0.00179675, -176.166
0, 2580.00000, 127.675, -30.1507, 127.719, -150.164, 127.686, 89.8285, 0, 0, 2.93174, -53.2246, 2.93075, -173.238, 2.93149, 66.7545, 0.00179675, -176.166
0, 2640.00000, 127.675, -30.1507, 127.719, -150.164, 127.686, 89.8285, 0, 0, 2.93174, -53.2246, 2.93075, -173.238, 2.93149, 66.7545, 0.00179675, -176.166
0, 2700.00000, 127.675, -30.1507, 127.719, -150.164, 127.686, 89.8285, 0, 0, 2.93174, -53.2246, 2.93075, -173.238, 2.93149, 66.7545, 0.00179675, -176.166
0, 2760.00000, 127.701, -30.144, 127.744, -150.157, 127.711, 89.8354, 0, 0, 2.78795, -53.218, 2.78702, -173.231, 2.78773, 66.7614, 0.0016929, -175.418
0, 2820.00000, 127.701, -30.144, 127.744, -150.157, 127.711, 89.8354, 0, 0, 2.78794, -53.2179, 2.78701, -173.231, 2.78773, 66.7615, 0.00169234, -175.4
0, 2880.00000, 127.701, -30.144, 127.744, -150.157, 127.711, 89.8354, 0, 0, 2.78794, -53.2179, 2.78701, -173.231, 2.78773, 66.7615, 0.00169234, -175.4
0, 2940.00000, 127.701, -30.144, 127.744, -150.157, 127.711, 89.8354, 0, 0, 2.78794, -53.2179, 2.78701, -173.231, 2.78773, 66.7615, 0.00169234, -175.4
0, 3000.00000, 127.701, -30.144, 127.744, -150.157, 127.711, 89.8354, 0, 0, 2.78794, -53.2179, 2.78701, -173.231, 2.78773, 66.7615, 0.00169234, -175.4
0, 3060.00000, 127.701, -30.144, 127.744, -150.157, 127.711, 89.8354, 0, 0, 2.78794, -53.2179, 2.78701, -173.231, 2.78773, 66.7615, 0.00169234, -175.4
0, 3120.00000, 127.701, -30.144, 127.744, -150.157, 127.711, 89.8354, 0, 0, 2.78794, -53.2179, 2.78701, -173.231, 2.78773, 66.7615, 0.00169234, -175.4
0, 3180.00000, 127.701, -30.144, 127.744, -150.157, 127.711, 89.8354, 0, 0, 2.78794, -53.2179, 2.78701, -173.231, 2.78773, 66.7615, 0.00169234, -175.4
0, 3240.00000, 127.701, -30.144, 127.744, -150.157, 127.711, 89.8354, 0, 0, 2.78794, -53.2179, 2.78701, -173.231, 2.78773, 66.7615, 0.00169234, -175.4
0, 3300.00000, 127.701, -30.144, 127.744, -150.157, 127.711, 89.8354, 0, 0, 2.78794, -53.2179, 2.78701, -173.231, 2.78773, 66.7615, 0.00169234, -175.4
0, 3360.00000, 127.701, -30.144, 127.744, -150.157, 127.711, 89.8354, 0, 0, 2.78794, -53.2179, 2.78701, -173.231, 2.78773, 66.7615, 0.00169234, -175.4
0, 3420.00000, 127.701, -30.144, 127.744, -150.157, 127.711, 89.8354, 0, 0, 2.78794, -53.2179, 2.78701, -173.231, 2.78773, 66.7615, 0.00169234, -175.4
0, 3480.00000, 127.701, -30.144, 127.744, -150.157, 127.711, 89.8354, 0, 0, 2.78794, -53.2179, 2.78701, -173.231, 2.78773, 66.7615, 0.00169234, -175.4
0, 3540.00000, 127.701, -30.144, 127.744, -150.157, 127.711, 89.8354, 0, 0, 2.78794, -53.2179, 2.78701, -173.231, 2.78773, 66.7615, 0.00169234, -175.4
1, 0.00000, 127.701, -30.144, 127.744, -150.157, 127.711, 89.8354, 0, 0, 2.78794, -53.2179, 2.78701, -173.231, 2.78773, 66.7615, 0.00169234, -175.4
1, 60.00000, 127.707, -30.1424, 127.75, -150.155, 127.717, 89.837, 0, 0, 2.75523, -53.2164, 2.75431, -173.229, 2.75502, 66.763, 0.00166899, -175.228
1, 120.00000, 127.707, -30.1424, 127.75, -150.155, 127.717, 89.837, 0, 0, 2.75523, -53.2164, 2.75431, -173.229, 2.75501, 66.763, 0.00166886, -175.224
1, 180.00000, 127.707, -30.1424, 127.75, -150.155, 127.717, 89.837, 0, 0, 2.75523, -53.2164, 2.75431, -173.229, 2.75501, 66.763, 0.00166886, -175.224
1, 240.00000, 127.707, -30.1424, 127.75, -150.155, 127.717, 89.837, 0, 0, 2.75523, -53.2164, 2.75431, -173.229, 2.75501, 66.763, 0.00166886, -175.224
1, 300.00000, 127.707, -30.1424, 127.75, -150.155, 127.717, 89.837, 0, 0, 2.75523, -53.2164, 2.75431, -173.229, 2.75501, 66.763, 0.00166886, -175.224
1, 360.00000, 127.707, -30.1424, 127.75, -150.155, 127.717, 89.837, 0, 0, 2.75523, -53.2164, 2.75431, -173.229, 2.75501, 66.763, 0.00166886, -175.224
1, 420.00000, 127.707, -30.1424, 127.75, -150.155, 127.717, 89.837, 0, 0, 2.75523, -53.2164, 2.75431, -173.229, 2.75501, 66.763, 0.00166886, -175.224
1, 480.00000, 127.707, -30.1424, 127.75, -150.155, 127.717, 89.837, 0, 0, 2.75523, -53.2164, 2.75431, -173.229, 2.75501, 66.763, 0.00166886, -175.224
1, 540.00000, 127.707, -30.1424, 127.75, -150.155, 127.717, 89.837, 0, 0, 2.75523, -53.2164, 2.75431, -173.229, 2.75501, 66.763, 0.00166886, -175.224
1, 600.00000, 127.707, -30.1424, 127.75, -150.155, 127.717, 89.837, 0, 0, 2.75523, -53.2164, 2.75431, -173.229, 2.75501, 66.763, 0.00166886, -175.224
1, 660.00000, 127.707, -30.1424, 127.75, -150.155, 127.717, 89.837, 0, 0, 2.75523, -53.2164, 2.75431, -173.229, 2.75501, 66.763, 0.00166886, -175.224
1, 720.00000, 127.707, -30.1424, 127.75, -150.155, 127.717, 89.837, 0, 0, 2.75523, -53.2164, 2.75431, -173.229, 2.75501, 66.763, 0.00166886, -175.224
1, 780.00000, 127.707, -30.1424, 127.75, -150.155, 127.717, 89.837, 0, 0, 2.75523, -53.2164, 2.75431, -173.229, 2.75501, 66.763, 0.00166886, -175.224
1, 840.00000, 127.707, -30.1424, 127.75, -150.155, 127.717, 89.837, 0, 0, 2.75523, -53.2164, 2.75431, -173.229, 2.75501, 66.763, 0.00166886, -175.224
1, 900.00000, 127.707, -30.1424, 127.75, -150.155, 127.717, 89.837, 0, 0, 2.75523, -53.2164, 2.75431, -173.229, 2.75501, 66.763, 0.00166886, -175.224
1, 960.00000, 127.709, -30.1419, 127.752, -150.155, 127.719, 89.8376, 0, 0, 2.74228, -53.2158, 2.74137, -173.229, 2.74207, 66.7636, 0.00165965, -175.156
1, 1020.00000, 127.709, -30.1419, 127.752, -150.155, 127.719, 89.8376, 0, 0, 2.74228, -53.2158, 2.74137, -173.229, 2.74207, 66.7636, 0.0016596, -175.154
1, 1080.00000, 127.709, -30.1419, 127.752, -150.155, 127.719, 89.8376, 0, 0, 2.74228, -53.2158, 2.74137, -173.229, 2.74207, 66.7636, 0.0016596, -175.154
1, 1140.00000, 127.709, -30.1419, 127.752, -150.155, 127.719, 89.8376, 0, 0, 2.74228, -53.2158, 2.74137, -173.229, 2.74207, 66.7636, 0.0016596, -175.154
1, 1200.00000, 127.709, -30.1419, 127.752, -150.155, 127.719, 89.8376, 0, 0, 2.74228, -53.2158, 2.74137, -173.229, 2.74207, 66.7636, 0.0016596, -175.154
1, 1260.00000, 127.709, -30.1419, 127.752, -150.155, 127.719, 89.8376, 0, 0, 2.74228, -53.2158, 2.74137, -173.229, 2.74207, 66.7636, 0.0016596, -175.154
1, 1320.00000, 127.709, -30.1419, 127.752, -150.155, 127.719, 89.8376, 0, 0, 2.74228, -53.2158, 2.74137, -173.229, 2.74207, 66.7636, 0.0016596, -175.154
1, 1380.00000, 127.709, -30.1419, 127.752, -150.155, 127.719, 89.8376, 0, 0, 2.74228, -53.2158, 2.74137, -173.229, 2.74207, 66.7636, 0.0016596, -175.154
1, 1440.00000, 127.709, -30.1419, 127.752, -150.155, 127.719, 89.8376, 0, 0, 2.74228, -53.2158, 2.74137, -173.229, 2.74207, 66.7636, 0.0016596, -175.154
1, 1500.00000, 127.709, -30.1419, 127.752, -150.155, 127.719, 89.8376, 0, 0, 2.74228, -53.2158, 2.74137, -173.229, 2.74207, 66.7636, 0.0016596, -175.154
1, 1560.00000, 127.709, -30.1419, 127.752, -150.155, 127.719, 89.8376, 0, 0, 2.74228, -53.2158, 2.74137, -173.229, 2.74207, 66.7636, 0.0016596, -175.154
1, 1620.00000, 127.709, -30.1419, 127.752, -150.155, 127.719, 89.8376, 0, 0, 2.74228, -53.2158, 2.74137, -173.229, 2.74207, 66.7636, 0.0016596, -175.154
1, 1680.00000, 127.709, -30.1419, 127.752, -150.155, 127.719, 89.8376, 0, 0, 2.74228, -53.2158, 2.74137, -173.229, 2.74207, 66.7636, 0.0016596, -175.154
1, 1740.00000, 127.709, -30.1419, 127.752, -150.155, 127.719, 89.8376, 0, 0, 2.74228, -53.2158, 2.74137, -173.229, 2.74207, 66.7636, 0.0016596, -175.154
1, 1800.00000, 127.709, -30.1419, 127.752, -150.155, 127.719, 89.8376, 0, 0, 2.74228, -53.2158, 2.74137, -173.229, 2.74207, 66.7636, 0.0016596, -175.154
1, 1860.00000, 127.698, -30.1449, 127.74, -150.158, 127.708, 89.8344, 0, 0, 2.80868, -53.2188, 2.80774, -173.232, 2.80845, 66.7605, 0.00170702, -175.503
1, 1920.00000, 127.698, -30.1449, 127.74, -150.158, 127.708, 89.8344, 0, 0, 2.80868, -53.2188, 2.80774, -173.232, 2.80846, 66.7605, 0.00170727, -175.511
1, 1980.00000, 127.698, -30.1449, 127.74, -150.158, 127.708, 89.8344, 0, 0, 2.80868, -53.2188, 2.80774, -173.232, 2.80846, 66.7605, 0.00170727, -175.511
1, 2040.00000, 127.698, -30.1449, 127.74, -150.158, 127.708, 89.8344, 0, 0, 2.80868, -53.2188, 2.80774, -173.232, 2.80846, 66.7605, 0.00170727, -175.511
1, 2100.00000, 127.698, -30.1449, 127.74, -150.158, 127.708, 89.8344, 0, 0, 2.80868, -53.2188, 2.80774, -173.232, 2.80846, 66.7605, 0.00170727, -175.511
1, 2160.00000, 127.698, -30.1449, 127.74, -150.158, 127.708, 89.8344, 0, 0, 2.80868, -53.2188, 2.80774, -173.232, 2.80846, 66.7605, 0.00170727, -175.511
1, 2220.00000, 127.698, -30.1449, 127.74, -150.158, 127.708, 89.8344, 0, 0, 2.80868, -53.2188, 2.80774, -173.232, 2.80846, 66.7605, 0.00170727, -175.511
1, 2280.00000, 127.698, -30.1449, 127.74, -150.158, 127.708, 89.8344, 0, 0, 2.80868, -53.2188, 2.80774, -173.232, 2.80846, 66.7605, 0.00170727, -175.511
1, 2340.00000, 127.698, -30.1449, 127.74, -150.158, 127.708, 89.8344, 0, 0, 2.80868, -53.2188, 2.80774, -173.232, 2.80846, 66.7605, 0.00170727, -175.511
1, 2400.00000, 127.698, -30.1449, 127.74, -150.158, 127.708, 89.8344, 0, 0, 2.80868, -53.2188, 2.80774, -173.232, 2.80846, 66.7605, 0.00170727, -175.511
1, 2460.00000, 127.698, -30.1449, 127.74, -150.158, 127.708, 89.8344, 0, 0, 2.80868, -53.2188, 2.80774, -173.232, 2.80846, 66.7605, 0.00170727, -175.511
1, 2520.00000, 127.698, -30.1449, 127.74, -150.158, 127.708, 89.8344, 0, 0, 2.80868, -53.2188, 2.80774, -173.232, 2.80846, 66.7605, 0.00170727, -175.511
1, 2580.00000, 127.698, -30.1449, 127.74, -150.158, 127.708, 89.8344, 0, 0, 2.80868, -53.2188, 2.80774, -173.232, 2.80846, 66.7605, 0.00170727, -175.511
1, 2640.00000, 127.698, -30.1449, 127.74, -150.158, 127.708, 89.8344, 0, 0, 2.80868, -53.2188, 2.80774, -173.232, 2.80846, 66.7605, 0.00170727, -175.511
1, 2700.00000, 127.698, -30.1449, 127.74, -150.158, 127.708, 89.8344, 0, 0, 2.80868, -53.2188, 2.80774, -173.232, 2.80846, 66.7605, 0.00170727, -175.511
1, 2760.00000, 127.727, -30.1374, 127.768, -150.15, 127.736, 89.8422, 0, 0, 2.64603, -53.2114, 2.64516, -173.224, 2.64584, 66.7681, 0.00159181, -174.651
1, 2820.00000, 127.727, -30.1374, 127.768, -150.15, 127.736, 89.8422, 0, 0, 2.64602, -53.2113, 2.64516, -173.224, 2.64584, 66.7682, 0.00159123, -174.631
1, 2880.00000, 127.727, -30.1374, 127.768, -150.15, 127.736, 89.8422, 0, 0, 2.64602, -53.2113, 2.64516, -173.224, 2.64584, 66.7682, 0.00159123, -174.631
1, 2940.00000, 127.727, -30.1374, 127.768, -150.15, 127.736, 89.8422, 0, 0, 2.64602, -53.2113, 2.64516, -173.224, 2.64584, 66.7682, 0.00159123, -174.631
1, 3000.00000, 127.727, -30.1374, 127.768, -150.15, 127.736, 89.8422, 0, 0, 2.64602, -53.2113, 2.64516, -173.224, 2.64584, 66.7682, 0.00159123, -174.631
1, 3060.00000, 127.727, -30.1374, 127.768, -150.15, 127.736, 89.8422, 0, 0, 2.64602, -53.2113, 2.64516, -173.224, 2.64584, 66.7682, 0.00159123, -174.631
1, 3120.00000, 127.727, -30.1374, 127.768, -150.15, 127.736, 89.8422, 0, 0, 2.64602, -53.2113, 2.64516, -173.224, 2.64584, 66.7682, 0.00159123, -174.631
1, 3180.00000, 127.727, -30.1374, 127.768, -150.15, 127.736, 89.8422, 0, 0, 2.64602, -53.2113, 2.64516, -173.224, 2.64584, 66.7682, 0.00159123, -174.631
1, 3240.00000, 127.727, -30.1374, 127.768, -150.15, 127.736, 89.8422, 0, 0, 2.64602, -53.2113, 2.64516, -173.224, 2.64584, 66.7682, 0.00159123, -174.631
1, 3300.00000, 127.727, -30.1374, 127.768, -150.15, 127.736, 89.8422, 0, 0, 2.64602, -53.2113, 2.64516, -173.224, 2.64584, 66.7682, 0.00159123, -174.631
1, 3360.00000, 127.727, -30.1374, 127.768, -150.15, 127.736, 89.8422, 0, 0, 2.64602, -53.2113, 2.64516, -173.224, 2.64584, 66.7682, 0.00159123, -174.631
1, 3420.00000, 127.727, -30.1374, 127.768, -150.15, 127.736, 89.8422, 0, 0, 2.64602, -53.2113, 2.64516, -173.224, 2.64584, 66.7682, 0.00159123, -174.631
1, 3480.00000, 127.727, -30.1374, 127.768, -150.15, 127.736, 89.8422, 0, 0, 2.64602, -53.2113, 2.64516, -173.224, 2.64584, 66.7682, 0.00159123, -174.631
1, 3540.00000, 127.727, -30.1374, 127.768, -150.15, 127.736, 89.8422, 0, 0, 2.64602, -53.2113, 2.64516, -173.224, 2.64584, 66.7682, 0.00159123, -174.631
2, 0.00000, 127.727, -30.1374, 127.768, -150.15, 127.736, 89.8422, 0, 0, 2.64602, -53.2113, 2.64516, -173.224, 2.64584, 66.7682, 0.00159123, -174.631
2, 60.00000, 127.714, -30.1406, 127.756, -150.154, 127.723, 89.8388, 0, 0, 2.71729, -53.2145, 2.7164, -173.227, 2.71709, 66.7649, 0.00164151, -175.01
2, 120.00000, 127.714, -30.1406, 127.756, -150.154, 127.723, 89.8388, 0, 0, 2.7173, -53.2146, 2.7164, -173.227, 2.7171, 66.7649, 0.00164177, -175.019
2, 180.00000, 127.714, -30.1406, 127.756, -150.154, 127.723, 89.8388, 0, 0, 2.7173, -53.2146, 2.7164, -173.227, 2.7171, 66.7649, 0.00164177, -175.019
2, 240.00000, 127.714, -30.1406, 127.756, -150.154, 127.723, 89.8388, 0, 0, 2.7173, -53.2146, 2.7164, -173.227, 2.7171, 66.7649, 0.00164177, -175.019
2, 300.00000, 127.714, -30.1406, 127.756, -150.154, 127.723, 89.8388, 0, 0, 2.7173, -53.2146, 2.7164, -173.227, 2.7171, 66.7649, 0.00164177, -175.019
2, 360.00000, 127.714, -30.1406, 127.756, -150.154, 127.723, 89.8388, 0, 0, 2.7173, -53.2146, 2.7164, -173.227, 2.7171, 66.7649, 0.00164177, -175.019
2, 420.00000, 127.714, -30.1406, 127.756, -150.154, 127.723, 89.8388, 0, 0, 2.7173, -53.2146, 2.7164, -173.227, 2.7171, 66.7649, 0.00164177, -175.019
2, 480.00000, 127.714, -30.1406, 127.756, -150.154, 127.723, 89.8388, 0, 0, 2.7173, -53.2146, 2.7164, -173.227, 2.7171, 66.7649, 0.00164177, -175.019
2, 540.00000, 127.714, -30.1406, 127.756, -150.154, 127.723, 89.8388, 0, 0, 2.7173, -53.2146, 2.7164, -173.227, 2.7171, 66.7649, 0.00164177, -175.019
2, 600.00000, 127.714, -30.1406, 127.756, -150.154, 127.723, 89.8388, 0, 0, 2.7173, -53.2146, 2.7164, -173.227, 2.7171, 66.7649, 0.00164177, -175.019
