hour,t(sec),V1,VAngle1,V2,VAngle2,V3,VAngle3,V4,VAngle4,I1,IAngle1,I2,IAngle2,I3,IAngle3,I4,IAngle4
0, 60.00000, 127.788, -30.1548, 127.8, -150.16, 127.793, 89.8402, 0, 0, 5.44137, -53.2288, 5.44084, -173.234, 5.44116, 66.7663, 0.000834806, -168.755
0, 120.00000, 127.788, -30.1548, 127.8, -150.16, 127.793, 89.8402, 0, 0, 5.44137, -53.2287, 5.44084, -173.234, 5.44116, 66.7663, 0.000834573, -168.776
0, 180.00000, 127.788, -30.1548, 127.8, -150.16, 127.793, 89.8402, 0, 0, 5.44137, -53.2287, 5.44084, -173.234, 5.44116, 66.7663, 0.000834573, -168.776
0, 240.00000, 127.788, -30.1548, 127.8, -150.16, 127.793, 89.8402, 0, 0, 5.44137, -53.2287, 5.44084, -173.234, 5.44116, 66.7663, 0.000834573, -168.776
0, 300.00000, 127.788, -30.1548, 127.8, -150.16, 127.793, 89.8402, 0, 0, 5.44137, -53.2287, 5.44084, -173.234, 5.44116, 66.7663, 0.000834573, -168.776
0, 360.00000, 127.788, -30.1548, 127.8, -150.16, 127.793, 89.8402, 0, 0, 5.44137, -53.2287, 5.44084, -173.234, 5.44116, 66.7663, 0.000834573, -168.776
0, 420.00000, 127.788, -30.1548, 127.8, -150.16, 127.793, 89.8402, 0, 0, 5.44137, -53.2287, 5.44084, -173.234, 5.44116, 66.7663, 0.000834573, -168.776
0, 480.00000, 127.788, -30.1548, 127.8, -150.16, 127.793, 89.8402, 0, 0, 5.44137, -53.2287, 5.44084, -173.234, 5.44116, 66.7663, 0.000834573, -168.776
0, 540.00000, 127.788, -30.1548, 127.8, -150.16, 127.793, 89.8402, 0, 0, 5.44137, -53.2287, 5.44084, -173.234, 5.44116, 66.7663, 0.000834573, -168.776
0, 600.00000, 127.788, -30.1548, 127.8, -150.16, 127.793, 89.8402, 0, 0, 5.44137, -53.2287, 5.44084, -173.234, 5.44116, 66.7663, 0.000834573, -168.776
0, 660.00000, 127.788, -30.1548, 127.8, -150.16, 127.793, 89.8402, 0, 0, 5.44137, -53.2287, 5.44084, -173.234, 5.44116, 66.7663, 0.000834573, -168.776
0, 720.00000, 127.788, -30.1548, 127.8, -150.16, 127.793, 89.8402, 0, 0, 5.44137, -53.2287, 5.44084, -173.234, 5.44116, 66.7663, 0.000834573, -168.776
0, 780.00000, 127.788, -30.1548, 127.8, -150.16, 127.793, 89.8402, 0, 0, 5.44137, -53.2287, 5.44084, -173.234, 5.44116, 66.7663, 0.000834573, -168.776
0, 840.00000, 127.788, -30.1548, 127.8, -150.16, 127.793, 89.8402, 0, 0, 5.44137, -53.2287, 5.44084, -173.234, 5.44116, 66.7663, 0.000834573, -168.776
0, 900.00000, 127.788, -30.1548, 127.8, -150.16, 127.793, 89.8402, 0, 0, 5.44137, -53.2287, 5.44084, -173.234, 5.44116, 66.7663, 0.000834573, -168.776
0, 960.00000, 127.762, -30.1626, 127.775, -150.168, 127.768, 89.8323, 0, 0, 5.75741, -53.2364, 5.75682, -173.242, 5.75716, 66.7585, 0.000908281, -170.503
0, 1020.00000, 127.762, -30.1626, 127.775, -150.168, 127.768, 89.8323, 0, 0, 5.75742, -53.2365, 5.75683, -173.242, 5.75717, 66.7584, 0.000908326, -170.575
0, 1080.00000, 127.762, -30.1626, 127.775, -150.168, 127.768, 89.8323, 0, 0, 5.75742, -53.2365, 5.75683, -173.242, 5.75717, 66.7584, 0.000908325, -170.575
0, 1140.00000, 127.762, -30.1626, 127.775, -150.168, 127.768, 89.8323, 0, 0, 5.75742, -53.2365, 5.75683, -173.242, 5.75717, 66.7584, 0.000908325, -170.575
0, 1200.00000, 127.762, -30.1626, 127.775, -150.168, 127.768, 89.8323, 0, 0, 5.75742, -53.2365, 5.75683, -173.242, 5.75717, 66.7584, 0.000908325, -170.575
0, 1260.00000, 127.762, -30.1626, 127.775, -150.168, 127.768, 89.8323, 0, 0, 5.75742, -53.2365, 5.75683, -173.242, 5.75717, 66.7584, 0.000908325, -170.575
0, 1320.00000, 127.762, -30.1626, 127.775, -150.168, 127.768, 89.8323, 0, 0, 5.75742, -53.2365, 5.75683, -173.242, 5.75717, 66.7584, 0.000908325, -170.575
0, 1380.00000, 127.762, -30.1626, 127.775, -150.168, 127.768, 89.8323, 0, 0, 5.75742, -53.2365, 5.75683, -173.242, 5.75717, 66.7584, 0.000908325, -170.575
0, 1440.00000, 127.762, -30.1626, 127.775, -150.168, 127.768, 89.8323, 0, 0, 5.75742, -53.2365, 5.75683, -173.242, 5.75717, 66.7584, 0.000908325, -170.575
0, 1500.00000, 127.762, -30.1626, 127.775, -150.168, 127.768, 89.8323, 0, 0, 5.75742, -53.2365, 5.75683, -173.242, 5.75717, 66.7584, 0.000908325, -170.575
0, 1560.00000, 127.762, -30.1626, 127.775, -150.168, 127.768, 89.8323, 0, 0, 5.75742, -53.2365, 5.75683, -173.242, 5.75717, 66.7584, 0.000908325, -170.575
0, 1620.00000, 127.762, -30.1626, 127.775, -150.168, 127.768, 89.8323, 0, 0, 5.75742, -53.2365, 5.75683, -173.242, 5.75717, 66.7584, 0.000908325, -170.575
0, 1680.00000, 127.762, -30.1626, 127.775, -150.168, 127.768, 89.8323, 0, 0, 5.75742, -53.2365, 5.75683, -173.242, 5.75717, 66.7584, 0.000908325, -170.575
0, 1740.00000, 127.762, -30.1626, 127.775, -150.168, 127.768, 89.8323, 0, 0, 5.75742, -53.2365, 5.75683, -173.242, 5.75717, 66.7584, 0.000908325, -170.575
0, 1800.00000, 127.762, -30.1626, 127.775, -150.168, 127.768, 89.8323, 0, 0, 5.75742, -53.2365, 5.75683, -173.242, 5.75717, 66.7584, 0.000908325, -170.575
0, 1860.00000, 127.761, -30.1629, 127.774, -150.168, 127.767, 89.832, 0, 0, 5.77496, -53.2368, 5.77437, -173.242, 5.77471, 66.758, 0.000912523, -170.668
0, 1920.00000, 127.761, -30.1629, 127.774, -150.168, 127.767, 89.832, 0, 0, 5.77496, -53.2368, 5.77437, -173.242, 5.77471, 66.758, 0.000912522, -170.672
0, 1980.00000, 127.761, -30.1629, 127.774, -150.168, 127.767, 89.832, 0, 0, 5.77496, -53.2368, 5.77437, -173.242, 5.77471, 66.758, 0.000912522, -170.672
0, 2040.00000, 127.761, -30.1629, 127.774, -150.168, 127.767, 89.832, 0, 0, 5.77496, -53.2368, 5.77437, -173.242, 5.77471, 66.758, 0.000912522, -170.672
0, 2100.00000, 127.761, -30.1629, 127.774, -150.168, 127.767, 89.832, 0, 0, 5.77496, -53.2368, 5.77437, -173.242, 5.77471, 66.758, 0.000912522, -170.672
0, 2160.00000, 127.761, -30.1629, 127.774, -150.168, 127.767, 89.832, 0, 0, 5.77496, -53.2368, 5.77437, -173.242, 5.77471, 66.758, 0.000912522, -170.672
0, 2220.00000, 127.761, -30.1629, 127.774, -150.168, 127.767, 89.832, 0, 0, 5.77496, -53.2368, 5.77437, -173.242, 5.77471, 66.758, 0.000912522, -170.672
0, 2280.00000, 127.761, -30.1629, 127.774, -150.168, 127.767, 89.832, 0, 0, 5.77496, -53.2368, 5.77437, -173.242, 5.77471, 66.758, 0.000912522, -170.672
0, 2340.00000, 127.761, -30.1629, 127.774, -150.168, 127.767, 89.832, 0, 0, 5.77496, -53.2368, 5.77437, -173.242, 5.77471, 66.758, 0.000912522, -170.672
0, 2400.00000, 127.761, -30.1629, 127.774, -150.168, 127.767, 89.832, 0, 0, 5.77496, -53.2368, 5.77437, -173.242, 5.77471, 66.758, 0.000912522, -170.672
0, 2460.00000, 127.761, -30.1629, 127.774, -150.168, 127.767, 89.832, 0, 0, 5.77496, -53.2368, 5.77437, -173.242, 5.77471, 66.758, 0.000912522, -170.672
0, 2520.00000, 127.761, -30.1629, 127.774, -150.168, 127.767, 89.832, 0, 0, 5.77496, -53.2368, 5.77437, -173.242, 5.77471, 66.758, 0.000912522, -170.672
0, 2580.00000, 127.761, -30.1629, 127.774, -150.168, 127.767, 89.832, 0, 0, 5.77496, -53.2368, 5.77437, -173.242, 5.77471, 66.758, 0.000912522, -170.672
0, 2640.00000, 127.761, -30.1629, 127.774, -150.168, 127.767, 89.832, 0, 0, 5.77496, -53.2368, 5.77437, -173.242, 5.77471, 66.758, 0.000912522, -170.672
0, 2700.00000, 127.761, -30.1629, 127.774, -150.168, 127.767, 89.832, 0, 0, 5.77496, -53.2368, 5.77437, -173.242, 5.77471, 66.758, 0.000912522, -170.672
0, 2760.00000, 127.784, -30.156, 127.796, -150.161, 127.789, 89.839, 0, 0, 5.49185, -53.23, 5.49131, -173.235, 5.49163, 66.765, 0.00084612, -169.135
0, 2820.00000, 127.784, -30.156, 127.796, -150.161, 127.789, 89.839, 0, 0, 5.49184, -53.2299, 5.4913, -173.235, 5.49162, 66.7651, 0.000846107, -169.07
0, 2880.00000, 127.784, -30.156, 127.796, -150.161, 127.789, 89.839, 0, 0, 5.49184, -53.2299, 5.4913, -173.235, 5.49162, 66.7651, 0.000846107, -169.07
0, 2940.00000, 127.784, -30.156, 127.796, -150.161, 127.789, 89.839, 0, 0, 5.49184, -53.2299, 5.4913, -173.235, 5.49162, 66.7651, 0.000846107, -169.07
0, 3000.00000, 127.784, -30.156, 127.796, -150.161, 127.789, 89.839, 0, 0, 5.49184, -53.2299, 5.4913, -173.235, 5.49162, 66.7651, 0.000846107, -169.07
0, 3060.00000, 127.784, -30.156, 127.796, -150.161, 127.789, 89.839, 0, 0, 5.49184, -53.2299, 5.4913, -173.235, 5.49162, 66.7651, 0.000846107, -169.07
0, 3120.00000, 127.784, -30.156, 127.796, -150.161, 127.789, 89.839, 0, 0, 5.49184, -53.2299, 5.4913, -173.235, 5.49162, 66.7651, 0.000846107, -169.07
0, 3180.00000, 127.784, -30.156, 127.796, -150.161, 127.789, 89.839, 0, 0, 5.49184, -53.2299, 5.4913, -173.235, 5.49162, 66.7651, 0.000846107, -169.07
0, 3240.00000, 127.784, -30.156, 127.796, -150.161, 127.789, 89.839, 0, 0, 5.49184, -53.2299, 5.4913, -173.235, 5.49162, 66.7651, 0.000846107, -169.07
0, 3300.00000, 127.784, -30.156, 127.796, -150.161, 127.789, 89.839, 0, 0, 5.49184, -53.2299, 5.4913, -173.235, 5.49162, 66.7651, 0.000846107, -169.07
0, 3360.00000, 127.784, -30.156, 127.796, -150.161, 127.789, 89.839, 0, 0, 5.49184, -53.2299, 5.4913, -173.235, 5.49162, 66.7651, 0.000846107, -169.07
0, 3420.00000, 127.784, -30.156, 127.796, -150.161, 127.789, 89.839, 0, 0, 5.49184, -53.2299, 5.4913, -173.235, 5.49162, 66.7651, 0.000846107, -169.07
0, 3480.00000, 127.784, -30.156, 127.796, -150.161, 127.789, 89.839, 0, 0, 5.49184, -53.2299, 5.4913, -173.235, 5.49162, 66.7651, 0.000846107, -169.07
0, 3540.00000, 127.784, -30.156, 127.796, -150.161, 127.789, 89.839, 0, 0, 5.49184, -53.2299, 5.4913, -173.235, 5.49162, 66.7651, 0.000846107, -169.07
1, 0.00000, 127.784, -30.156, 127.796, -150.161, 127.789, 89.839, 0, 0, 5.49184, -53.2299, 5.4913, -173.235, 5.49162, 66.7651, 0.000846107, -169.07
1, 60.00000, 127.789, -30.1545, 127.802, -150.16, 127.794, 89.8406, 0, 0, 5.42742, -53.2284, 5.42689, -173.233, 5.42721, 66.7666, 0.0008314, -168.71
1, 120.00000, 127.789, -30.1545, 127.802, -150.16, 127.794, 89.8406, 0, 0, 5.42741, -53.2284, 5.42689, -173.233, 5.4272, 66.7667, 0.000831399, -168.695
1, 180.00000, 127.789, -30.1545, 127.802, -150.16, 127.794, 89.8406, 0, 0, 5.42741, -53.2284, 5.42689, -173.233, 5.4272, 66.7667, 0.000831399, -168.695
1, 240.00000, 127.789, -30.1545, 127.802, -150.16, 127.794, 89.8406, 0, 0, 5.42741, -53.2284, 5.42689, -173.233, 5.4272, 66.7667, 0.000831399, -168.695
1, 300.00000, 127.789, -30.1545, 127.802, -150.16, 127.794, 89.8406, 0, 0, 5.42741, -53.2284, 5.42689, -173.233, 5.4272, 66.7667, 0.000831399, -168.695
1, 360.00000, 127.789, -30.1545, 127.802, -150.16, 127.794, 89.8406, 0, 0, 5.42741, -53.2284, 5.42689, -173.233, 5.4272, 66.7667, 0.000831399, -168.695
1, 420.00000, 127.789, -30.1545, 127.802, -150.16, 127.794, 89.8406, 0, 0, 5.42741, -53.2284, 5.42689, -173.233, 5.4272, 66.7667, 0.000831399, -168.695
1, 480.00000, 127.789, -30.1545, 127.802, -150.16, 127.794, 89.8406, 0, 0, 5.42741, -53.2284, 5.42689, -173.233, 5.4272, 66.7667, 0.000831399, -168.695
1, 540.00000, 127.789, -30.1545, 127.802, -150.16, 127.794, 89.8406, 0, 0, 5.42741, -53.2284, 5.42689, -173.233, 5.4272, 66.7667, 0.000831399, -168.695
1, 600.00000, 127.789, -30.1545, 127.802, -150.16, 127.794, 89.8406, 0, 0, 5.42741, -53.2284, 5.42689, -173.233, 5.4272, 66.7667, 0.000831399, -168.695
1, 660.00000, 127.789, -30.1545, 127.802, -150.16, 127.794, 89.8406, 0, 0, 5.42741, -53.2284, 5.42689, -173.233, 5.4272, 66.7667, 0.000831399, -168.695
1, 720.00000, 127.789, -30.1545, 127.802, -150.16, 127.794, 89.8406, 0, 0, 5.42741, -53.2284, 5.42689, -173.233, 5.4272, 66.7667, 0.000831399, -168.695
1, 780.00000, 127.789, -30.1545, 127.802, -150.16, 127.794, 89.8406, 0, 0, 5.42741, -53.2284, 5.42689, -173.233, 5.4272, 66.7667, 0.000831399, -168.695
1, 840.00000, 127.789, -30.1545, 127.802, -150.16, 127.794, 89.8406, 0, 0, 5.42741, -53.2284, 5.42689, -173.233, 5.4272, 66.7667, 0.000831399, -168.695
1, 900.00000, 127.789, -30.1545, 127.802, -150.16, 127.794, 89.8406, 0, 0, 5.42741, -53.2284, 5.42689, -173.233, 5.4272, 66.7667, 0.000831399, -168.695
1, 960.00000, 127.791, -30.1539, 127.804, -150.159, 127.796, 89.8412, 0, 0, 5.40193, -53.2278, 5.4014, -173.233, 5.40172, 66.7673, 0.000825621, -168.551
1, 1020.00000, 127.791, -30.1539, 127.804, -150.159, 127.796, 89.8412, 0, 0, 5.40192, -53.2278, 5.4014, -173.233, 5.40172, 66.7673, 0.000825621, -168.545
1, 1080.00000, 127.791, -30.1539, 127.804, -150.159, 127.796, 89.8412, 0, 0, 5.40192, -53.2278, 5.4014, -173.233, 5.40172, 66.7673, 0.000825621, -168.545
1, 1140.00000, 127.791, -30.1539, 127.804, -150.159, 127.796, 89.8412, 0, 0, 5.40192, -53.2278, 5.4014, -173.233, 5.40172, 66.7673, 0.000825621, -168.545
1, 1200.00000, 127.791, -30.1539, 127.804, -150.159, 127.796, 89.8412, 0, 0, 5.40192, -53.2278, 5.4014, -173.233, 5.40172, 66.7673, 0.000825621, -168.545
1, 1260.00000, 127.791, -30.1539, 127.804, -150.159, 127.796, 89.8412, 0, 0, 5.40192, -53.2278, 5.4014, -173.233, 5.40172, 66.7673, 0.000825621, -168.545
1, 1320.00000, 127.791, -30.1539, 127.804, -150.159, 127.796, 89.8412, 0, 0, 5.40192, -53.2278, 5.4014, -173.233, 5.40172, 66.7673, 0.000825621, -168.545
1, 1380.00000, 127.791, -30.1539, 127.804, -150.159, 127.796, 89.8412, 0, 0, 5.40192, -53.2278, 5.4014, -173.233, 5.40172, 66.7673, 0.000825621, -168.545
1, 1440.00000, 127.791, -30.1539, 127.804, -150.159, 127.796, 89.8412, 0, 0, 5.40192, -53.2278, 5.4014, -173.233, 5.40172, 66.7673, 0.000825621, -168.545
1, 1500.00000, 127.791, -30.1539, 127.804, -150.159, 127.796, 89.8412, 0, 0, 5.40192, -53.2278, 5.4014, -173.233, 5.40172, 66.7673, 0.000825621, -168.545
1, 1560.00000, 127.791, -30.1539, 127.804, -150.159, 127.796, 89.8412, 0, 0, 5.40192, -53.2278, 5.4014, -173.233, 5.40172, 66.7673, 0.000825621, -168.545
1, 1620.00000, 127.791, -30.1539, 127.804, -150.159, 127.796, 89.8412, 0, 0, 5.40192, -53.2278, 5.4014, -173.233, 5.40172, 66.7673, 0.000825621, -168.545
1, 1680.00000, 127.791, -30.1539, 127.804, -150.159, 127.796, 89.8412, 0, 0, 5.40192, -53.2278, 5.4014, -173.233, 5.40172, 66.7673, 0.000825621, -168.545
1, 1740.00000, 127.791, -30.1539, 127.804, -150.159, 127.796, 89.8412, 0, 0, 5.40192, -53.2278, 5.4014, -173.233, 5.40172, 66.7673, 0.000825621, -168.545
1, 1800.00000, 127.791, -30.1539, 127.804, -150.159, 127.796, 89.8412, 0, 0, 5.40192, -53.2278, 5.4014, -173.233, 5.40172, 66.7673, 0.000825621, -168.545
1, 1860.00000, 127.781, -30.157, 127.793, -150.162, 127.786, 89.838, 0, 0, 5.53266, -53.2309, 5.53211, -173.236, 5.53243, 66.7641, 0.000855498, -169.276
1, 1920.00000, 127.781, -30.157, 127.793, -150.162, 127.786, 89.838, 0, 0, 5.53266, -53.2309, 5.53211, -173.236, 5.53244, 66.7641, 0.000855504, -169.306
1, 1980.00000, 127.781, -30.157, 127.793, -150.162, 127.786, 89.838, 0, 0, 5.53266, -53.2309, 5.53211, -173.236, 5.53244, 66.7641, 0.000855504, -169.306
1, 2040.00000, 127.781, -30.157, 127.793, -150.162, 127.786, 89.838, 0, 0, 5.53266, -53.2309, 5.53211, -173.236, 5.53244, 66.7641, 0.000855504, -169.306
1, 2100.00000, 127.781, -30.157, 127.793, -150.162, 127.786, 89.838, 0, 0, 5.53266, -53.2309, 5.53211, -173.236, 5.53244, 66.7641, 0.000855504, -169.306
1, 2160.00000, 127.781, -30.157, 127.793, -150.162, 127.786, 89.838, 0, 0, 5.53266, -53.2309, 5.53211, -173.236, 5.53244, 66.7641, 0.000855504, -169.306
1, 2220.00000, 127.781, -30.157, 127.793, -150.162, 127.786, 89.838, 0, 0, 5.53266, -53.2309, 5.53211, -173.236, 5.53244, 66.7641, 0.000855504, -169.306
1, 2280.00000, 127.781, -30.157, 127.793, -150.162, 127.786, 89.838, 0, 0, 5.53266, -53.2309, 5.53211, -173.236, 5.53244, 66.7641, 0.000855504, -169.306
1, 2340.00000, 127.781, -30.157, 127.793, -150.162, 127.786, 89.838, 0, 0, 5.53266, -53.2309, 5.53211, -173.236, 5.53244, 66.7641, 0.000855504, -169.306
1, 2400.00000, 127.781, -30.157, 127.793, -150.162, 127.786, 89.838, 0, 0, 5.53266, -53.2309, 5.53211, -173.236, 5.53244, 66.7641, 0.000855504, -169.306
1, 2460.00000, 127.781, -30.157, 127.793, -150.162, 127.786, 89.838, 0, 0, 5.53266, -53.2309, 5.53211, -173.236, 5.53244, 66.7641, 0.000855504, -169.306
1, 2520.00000, 127.781, -30.157, 127.793, -150.162, 127.786, 89.838, 0, 0, 5.53266, -53.2309, 5.53211, -173.236, 5.53244, 66.7641, 0.000855504, -169.306
1, 2580.00000, 127.781, -30.157, 127.793, -150.162, 127.786, 89.838, 0, 0, 5.53266, -53.2309, 5.53211, -173.236, 5.53244, 66.7641, 0.000855504, -169.306
1, 2640.00000, 127.781, -30.157, 127.793, -150.162, 127.786, 89.838, 0, 0, 5.53266, -53.2309, 5.53211, -173.236, 5.53244, 66.7641, 0.000855504, -169.306
1, 2700.00000, 127.781, -30.157, 127.793, -150.162, 127.786, 89.838, 0, 0, 5.53266, -53.2309, 5.53211, -173.236, 5.53244, 66.7641, 0.000855504, -169.306
1, 2760.00000, 127.806, -30.1493, 127.818, -150.154, 127.811, 89.8459, 0, 0, 5.2124, -53.2233, 5.21191, -173.228, 5.21222, 66.7719, 0.000783365, -167.485
1, 2820.00000, 127.806, -30.1493, 127.818, -150.154, 127.811, 89.8459, 0, 0, 5.21239, -53.2232, 5.2119, -173.228, 5.21221, 66.7719, 0.000783379, -167.411
1, 2880.00000, 127.806, -30.1493, 127.818, -150.154, 127.811, 89.8459, 0, 0, 5.21239, -53.2232, 5.2119, -173.228, 5.21221, 66.7719, 0.000783379, -167.411
1, 2940.00000, 127.806, -30.1493, 127.818, -150.154, 127.811, 89.8459, 0, 0, 5.21239, -53.2232, 5.2119, -173.228, 5.21221, 66.7719, 0.000783379, -167.411
1, 3000.00000, 127.806, -30.1493, 127.818, -150.154, 127.811, 89.8459, 0, 0, 5.21239, -53.2232, 5.2119, -173.228, 5.21221, 66.7719, 0.000783379, -167.411
1, 3060.00000, 127.806, -30.1493, 127.818, -150.154, 127.811, 89.8459, 0, 0, 5.21239, -53.2232, 5.2119, -173.228, 5.21221, 66.7719, 0.000783379, -167.411
1, 3120.00000, 127.806, -30.1493, 127.818, -150.154, 127.811, 89.8459, 0, 0, 5.21239, -53.2232, 5.2119, -173.228, 5.21221, 66.7719, 0.000783379, -167.411
1, 3180.00000, 127.806, -30.1493, 127.818, -150.154, 127.811, 89.8459, 0, 0, 5.21239, -53.2232, 5.2119, -173.228, 5.21221, 66.7719, 0.000783379, -167.411
1, 3240.00000, 127.806, -30.1493, 127.818, -150.154, 127.811, 89.8459, 0, 0, 5.21239, -53.2232, 5.2119, -173.228, 5.21221, 66.7719, 0.000783379, -167.411
1, 3300.00000, 127.806, -30.1493, 127.818, -150.154, 127.811, 89.8459, 0, 0, 5.21239, -53.2232, 5.2119, -173.228, 5.21221, 66.7719, 0.000783379, -167.411
1, 3360.00000, 127.806, -30.1493, 127.818, -150.154, 127.811, 89.8459, 0, 0, 5.21239, -53.2232, 5.2119, -173.228, 5.21221, 66.7719, 0.000783379, -167.411
1, 3420.00000, 127.806, -30.1493, 127.818, -150.154, 127.811, 89.8459, 0, 0, 5.21239, -53.2232, 5.2119, -173.228, 5.21221, 66.7719, 0.000783379, -167.411
1, 3480.00000, 127.806, -30.1493, 127.818, -150.154, 127.811, 89.8459, 0, 0, 5.21239, -53.2232, 5.2119, -173.228, 5.21221, 66.7719, 0.000783379, -167.411
1, 3540.00000, 127.806, -30.1493, 127.818, -150.154, 127.811, 89.8459, 0, 0, 5.21239, -53.2232, 5.2119, -173.228, 5.21221, 66.7719, 0.000783379, -167.411
2, 0.00000, 127.806, -30.1493, 127.818, -150.154, 127.811, 89.8459, 0, 0, 5.21239, -53.2232, 5.2119, -173.228, 5.21221, 66.7719, 0.000783379, -167.411
2, 60.00000, 127.795, -30.1526, 127.808, -150.158, 127.8, 89.8425, 0, 0, 5.35273, -53.2265, 5.35221, -173.232, 5.35253, 66.7686, 0.000814537, -168.222
2, 120.00000, 127.795, -30.1526, 127.808, -150.158, 127.8, 89.8425, 0, 0, 5.35273, -53.2265, 5.35222, -173.232, 5.35253, 66.7686, 0.000814534, -168.254
2, 180.00000, 127.795, -30.1526, 127.808, -150.158, 127.8, 89.8425, 0, 0, 5.35273, -53.2265, 5.35222, -173.232, 5.35253, 66.7686, 0.000814534, -168.254
2, 240.00000, 127.795, -30.1526, 127.808, -150.158, 127.8, 89.8425, 0, 0, 5.35273, -53.2265, 5.35222, -173.232, 5.35253, 66.7686, 0.000814534, -168.254
2, 300.00000, 127.795, -30.1526, 127.808, -150.158, 127.8, 89.8425, 0, 0, 5.35273, -53.2265, 5.35222, -173.232, 5.35253, 66.7686, 0.000814534, -168.254
2, 360.00000, 127.795, -30.1526, 127.808, -150.158, 127.8, 89.8425, 0, 0, 5.35273, -53.2265, 5.35222, -173.232, 5.35253, 66.7686, 0.000814534, -168.254
2, 420.00000, 127.795, -30.1526, 127.808, -150.158, 127.8, 89.8425, 0, 0, 5.35273, -53.2265, 5.35222, -173.232, 5.35253, 66.7686, 0.000814534, -168.254
2, 480.00000, 127.795, -30.1526, 127.808, -150.158, 127.8, 89.8425, 0, 0, 5.35273, -53.2265, 5.35222, -173.232, 5.35253, 66.7686, 0.000814534, -168.254
2, 540.00000, 127.795, -30.1526, 127.808, -150.158, 127.8, 89.8425, 0, 0, 5.35273, -53.2265, 5.35222, -173.232, 5.35253, 66.7686, 0.000814534, -168.254
2, 600.00000, 127.795, -30.1526, 127.808, -150.158, 127.8, 89.8425, 0, 0, 5.35273, -53.2265, 5.35222, -173.232, 5.35253, 66.7686, 0.000814534, -168.254
