hour,t(sec),V1,VAngle1,V2,VAngle2,V3,VAngle3,V4,VAngle4,I1,IAngle1,I2,IAngle2,I3,IAngle3,I4,IAngle4
0, 60.00000, 119.114, -30.976, 119.639, -150.83, 120.141, 88.9457, 0, 0, 4.55072, -54.0495, 4.573, -173.904, 4.59438, 65.8723, 0.0235594, -96.2762
0, 120.00000, 119.114, -30.976, 119.639, -150.83, 120.141, 88.9457, 0, 0, 4.55066, -54.0499, 4.57294, -173.904, 4.59424, 65.8718, 0.0234549, -96.2601
0, 180.00000, 119.114, -30.976, 119.639, -150.83, 120.141, 88.9457, 0, 0, 4.55066, -54.0499, 4.57294, -173.904, 4.59424, 65.8718, 0.0234544, -96.2597
0, 240.00000, 119.114, -30.976, 119.639, -150.83, 120.141, 88.9457, 0, 0, 4.55066, -54.0499, 4.57294, -173.904, 4.59424, 65.8718, 0.0234544, -96.2597
0, 300.00000, 119.114, -30.976, 119.639, -150.83, 120.141, 88.9457, 0, 0, 4.55066, -54.0499, 4.57294, -173.904, 4.59424, 65.8718, 0.0234544, -96.2597
0, 360.00000, 119.114, -30.976, 119.639, -150.83, 120.141, 88.9457, 0, 0, 4.55066, -54.0499, 4.57294, -173.904, 4.59424, 65.8718, 0.0234544, -96.2597
0, 420.00000, 119.114, -30.976, 119.639, -150.83, 120.141, 88.9457, 0, 0, 4.55066, -54.0499, 4.57294, -173.904, 4.59424, 65.8718, 0.0234544, -96.2597
0, 480.00000, 119.114, -30.976, 119.639, -150.83, 120.141, 88.9457, 0, 0, 4.55066, -54.0499, 4.57294, -173.904, 4.59424, 65.8718, 0.0234544, -96.2597
0, 540.00000, 119.114, -30.976, 119.639, -150.83, 120.141, 88.9457, 0, 0, 4.55066, -54.0499, 4.57294, -173.904, 4.59424, 65.8718, 0.0234544, -96.2597
0, 600.00000, 119.114, -30.976, 119.639, -150.83, 120.141, 88.9457, 0, 0, 4.55066, -54.0499, 4.57294, -173.904, 4.59424, 65.8718, 0.0234544, -96.2597
0, 660.00000, 119.114, -30.976, 119.639, -150.83, 120.141, 88.9457, 0, 0, 4.55066, -54.0499, 4.57294, -173.904, 4.59424, 65.8718, 0.0234544, -96.2597
0, 720.00000, 119.114, -30.976, 119.639, -150.83, 120.141, 88.9457, 0, 0, 4.55066, -54.0499, 4.57294, -173.904, 4.59424, 65.8718, 0.0234544, -96.2597
0, 780.00000, 119.114, -30.976, 119.639, -150.83, 120.141, 88.9457, 0, 0, 4.55066, -54.0499, 4.57294, -173.904, 4.59424, 65.8718, 0.0234544, -96.2597
0, 840.00000, 119.114, -30.976, 119.639, -150.83, 120.141, 88.9457, 0, 0, 4.55066, -54.0499, 4.57294, -173.904, 4.59424, 65.8718, 0.0234544, -96.2597
0, 900.00000, 119.114, -30.976, 119.639, -150.83, 120.141, 88.9457, 0, 0, 4.55066, -54.0499, 4.57294, -173.904, 4.59424, 65.8718, 0.0234544, -96.2597
0, 960.00000, 118.309, -31.2522, 118.673, -150.731, 119.998, 88.9082, 0, 0, 4.77799, -54.3257, 4.79431, -173.805, 4.8537, 65.8344, 0.030454, -103.461
0, 1020.00000, 118.309, -31.2522, 118.673, -150.731, 119.998, 88.9082, 0, 0, 4.77793, -54.3261, 4.79423, -173.805, 4.85369, 65.8343, 0.030468, -103.48
0, 1080.00000, 118.309, -31.2522, 118.673, -150.731, 119.998, 88.9082, 0, 0, 4.77793, -54.3261, 4.79423, -173.805, 4.85369, 65.8343, 0.0304681, -103.48
0, 1140.00000, 118.309, -31.2522, 118.673, -150.731, 119.998, 88.9082, 0, 0, 4.77793, -54.3261, 4.79423, -173.805, 4.85369, 65.8343, 0.0304681, -103.48
0, 1200.00000, 118.309, -31.2522, 118.673, -150.731, 119.998, 88.9082, 0, 0, 4.77793, -54.3261, 4.79423, -173.805, 4.85369, 65.8343, 0.0304681, -103.48
0, 1260.00000, 118.309, -31.2522, 118.673, -150.731, 119.998, 88.9082, 0, 0, 4.77793, -54.3261, 4.79423, -173.805, 4.85369, 65.8343, 0.0304681, -103.48
0, 1320.00000, 118.309, -31.2522, 118.673, -150.731, 119.998, 88.9082, 0, 0, 4.77793, -54.3261, 4.79423, -173.805, 4.85369, 65.8343, 0.0304681, -103.48
0, 1380.00000, 118.309, -31.2522, 118.673, -150.731, 119.998, 88.9082, 0, 0, 4.77793, -54.3261, 4.79423, -173.805, 4.85369, 65.8343, 0.0304681, -103.48
0, 1440.00000, 118.309, -31.2522, 118.673, -150.731, 119.998, 88.9082, 0, 0, 4.77793, -54.3261, 4.79423, -173.805, 4.85369, 65.8343, 0.0304681, -103.48
0, 1500.00000, 118.309, -31.2522, 118.673, -150.731, 119.998, 88.9082, 0, 0, 4.77793, -54.3261, 4.79423, -173.805, 4.85369, 65.8343, 0.0304681, -103.48
0, 1560.00000, 118.309, -31.2522, 118.673, -150.731, 119.998, 88.9082, 0, 0, 4.77793, -54.3261, 4.79423, -173.805, 4.85369, 65.8343, 0.0304681, -103.48
0, 1620.00000, 118.309, -31.2522, 118.673, -150.731, 119.998, 88.9082, 0, 0, 4.77793, -54.3261, 4.79423, -173.805, 4.85369, 65.8343, 0.0304681, -103.48
0, 1680.00000, 118.309, -31.2522, 118.673, -150.731, 119.998, 88.9082, 0, 0, 4.77793, -54.3261, 4.79423, -173.805, 4.85369, 65.8343, 0.0304681, -103.48
0, 1740.00000, 118.309, -31.2522, 118.673, -150.731, 119.998, 88.9082, 0, 0, 4.77793, -54.3261, 4.79423, -173.805, 4.85369, 65.8343, 0.0304681, -103.48
0, 1800.00000, 118.309, -31.2522, 118.673, -150.731, 119.998, 88.9082, 0, 0, 4.77793, -54.3261, 4.79423, -173.805, 4.85369, 65.8343, 0.0304681, -103.48
0, 1860.00000, 118.514, -31.2414, 118.871, -150.72, 120.198, 88.9236, 0, 0, 4.80168, -54.3155, 4.81762, -173.795, 4.8771, 65.8482, 0.0301387, -103.465
0, 1920.00000, 118.514, -31.2413, 118.872, -150.72, 120.198, 88.9237, 0, 0, 4.80165, -54.3153, 4.81774, -173.794, 4.87743, 65.8498, 0.0304592, -103.121
0, 1980.00000, 118.514, -31.2413, 118.872, -150.72, 120.198, 88.9237, 0, 0, 4.80165, -54.3153, 4.81774, -173.794, 4.87743, 65.8498, 0.0304606, -103.12
0, 2040.00000, 118.514, -31.2413, 118.872, -150.72, 120.198, 88.9237, 0, 0, 4.80165, -54.3153, 4.81774, -173.794, 4.87743, 65.8498, 0.0304606, -103.12
0, 2100.00000, 118.514, -31.2413, 118.872, -150.72, 120.198, 88.9237, 0, 0, 4.80165, -54.3153, 4.81774, -173.794, 4.87743, 65.8498, 0.0304606, -103.12
0, 2160.00000, 118.514, -31.2413, 118.872, -150.72, 120.198, 88.9237, 0, 0, 4.80165, -54.3153, 4.81774, -173.794, 4.87743, 65.8498, 0.0304606, -103.12
0, 2220.00000, 118.514, -31.2413, 118.872, -150.72, 120.198, 88.9237, 0, 0, 4.80165, -54.3153, 4.81774, -173.794, 4.87743, 65.8498, 0.0304606, -103.12
0, 2280.00000, 118.514, -31.2413, 118.872, -150.72, 120.198, 88.9237, 0, 0, 4.80165, -54.3153, 4.81774, -173.794, 4.87743, 65.8498, 0.0304606, -103.12
0, 2340.00000, 118.514, -31.2413, 118.872, -150.72, 120.198, 88.9237, 0, 0, 4.80165, -54.3153, 4.81774, -173.794, 4.87743, 65.8498, 0.0304606, -103.12
0, 2400.00000, 118.514, -31.2413, 118.872, -150.72, 120.198, 88.9237, 0, 0, 4.80165, -54.3153, 4.81774, -173.794, 4.87743, 65.8498, 0.0304606, -103.12
0, 2460.00000, 118.514, -31.2413, 118.872, -150.72, 120.198, 88.9237, 0, 0, 4.80165, -54.3153, 4.81774, -173.794, 4.87743, 65.8498, 0.0304606, -103.12
0, 2520.00000, 118.514, -31.2413, 118.872, -150.72, 120.198, 88.9237, 0, 0, 4.80165, -54.3153, 4.81774, -173.794, 4.87743, 65.8498, 0.0304606, -103.12
0, 2580.00000, 118.514, -31.2413, 118.872, -150.72, 120.198, 88.9237, 0, 0, 4.80165, -54.3153, 4.81774, -173.794, 4.87743, 65.8498, 0.0304606, -103.12
0, 2640.00000, 118.514, -31.2413, 118.872, -150.72, 120.198, 88.9237, 0, 0, 4.80165, -54.3153, 4.81774, -173.794, 4.87743, 65.8498, 0.0304606, -103.12
0, 2700.00000, 118.514, -31.2413, 118.872, -150.72, 120.198, 88.9237, 0, 0, 4.80165, -54.3153, 4.81774, -173.794, 4.87743, 65.8498, 0.0304606, -103.12
0, 2760.00000, 118.838, -31.2098, 119.186, -150.69, 120.518, 88.9624, 0, 0, 4.58092, -54.2839, 4.59581, -173.764, 4.65275, 65.8882, 0.0289352, -102.612
0, 2820.00000, 118.838, -31.2098, 119.186, -150.69, 120.518, 88.9625, 0, 0, 4.58093, -54.2837, 4.59583, -173.764, 4.65284, 65.8885, 0.029035, -102.602
0, 2880.00000, 118.838, -31.2098, 119.186, -150.69, 120.518, 88.9625, 0, 0, 4.58093, -54.2837, 4.59583, -173.764, 4.65284, 65.8885, 0.0290366, -102.602
0, 2940.00000, 118.838, -31.2098, 119.186, -150.69, 120.518, 88.9625, 0, 0, 4.58093, -54.2837, 4.59583, -173.764, 4.65284, 65.8885, 0.0290366, -102.602
0, 3000.00000, 118.838, -31.2098, 119.186, -150.69, 120.518, 88.9625, 0, 0, 4.58093, -54.2837, 4.59583, -173.764, 4.65284, 65.8885, 0.0290366, -102.602
0, 3060.00000, 118.838, -31.2098, 119.186, -150.69, 120.518, 88.9625, 0, 0, 4.58093, -54.2837, 4.59583, -173.764, 4.65284, 65.8885, 0.0290366, -102.602
0, 3120.00000, 118.838, -31.2098, 119.186, -150.69, 120.518, 88.9625, 0, 0, 4.58093, -54.2837, 4.59583, -173.764, 4.65284, 65.8885, 0.0290366, -102.602
0, 3180.00000, 118.838, -31.2098, 119.186, -150.69, 120.518, 88.9625, 0, 0, 4.58093, -54.2837, 4.59583, -173.764, 4.65284, 65.8885, 0.0290366, -102.602
0, 3240.00000, 118.838, -31.2098, 119.186, -150.69, 120.518, 88.9625, 0, 0, 4.58093, -54.2837, 4.59583, -173.764, 4.65284, 65.8885, 0.0290366, -102.602
0, 3300.00000, 118.838, -31.2098, 119.186, -150.69, 120.518, 88.9625, 0, 0, 4.58093, -54.2837, 4.59583, -173.764, 4.65284, 65.8885, 0.0290366, -102.602
0, 3360.00000, 118.838, -31.2098, 119.186, -150.69, 120.518, 88.9625, 0, 0, 4.58093, -54.2837, 4.59583, -173.764, 4.65284, 65.8885, 0.0290366, -102.602
0, 3420.00000, 118.838, -31.2098, 119.186, -150.69, 120.518, 88.9625, 0, 0, 4.58093, -54.2837, 4.59583, -173.764, 4.65284, 65.8885, 0.0290366, -102.602
0, 3480.00000, 118.838, -31.2098, 119.186, -150.69, 120.518, 88.9625, 0, 0, 4.58093, -54.2837, 4.59583, -173.764, 4.65284, 65.8885, 0.0290366, -102.602
0, 3540.00000, 118.838, -31.2098, 119.186, -150.69, 120.518, 88.9625, 0, 0, 4.58093, -54.2837, 4.59583, -173.764, 4.65284, 65.8885, 0.0290366, -102.602
1, 0.00000, 118.838, -31.2098, 119.186, -150.69, 120.518, 88.9625, 0, 0, 4.58093, -54.2837, 4.59583, -173.764, 4.65284, 65.8885, 0.0290366, -102.602
1, 60.00000, 119.075, -31.1868, 119.412, -150.669, 120.753, 88.9899, 0, 0, 4.5374, -54.261, 4.55163, -173.743, 4.60149, 65.9157, 0.0221517, -99.1751
1, 120.00000, 119.075, -31.1868, 119.412, -150.669, 120.753, 88.9899, 0, 0, 4.5374, -54.2607, 4.55164, -173.743, 4.60139, 65.916, 0.0220879, -99.0714
1, 180.00000, 119.075, -31.1868, 119.412, -150.669, 120.753, 88.9899, 0, 0, 4.5374, -54.2607, 4.55164, -173.743, 4.60139, 65.916, 0.0220872, -99.0695
1, 240.00000, 119.075, -31.1868, 119.412, -150.669, 120.753, 88.9899, 0, 0, 4.5374, -54.2607, 4.55164, -173.743, 4.60139, 65.916, 0.0220872, -99.0695
1, 300.00000, 119.075, -31.1868, 119.412, -150.669, 120.753, 88.9899, 0, 0, 4.5374, -54.2607, 4.55164, -173.743, 4.60139, 65.916, 0.0220872, -99.0695
1, 360.00000, 119.075, -31.1868, 119.412, -150.669, 120.753, 88.9899, 0, 0, 4.5374, -54.2607, 4.55164, -173.743, 4.60139, 65.916, 0.0220872, -99.0695
1, 420.00000, 119.075, -31.1868, 119.412, -150.669, 120.753, 88.9899, 0, 0, 4.5374, -54.2607, 4.55164, -173.743, 4.60139, 65.916, 0.0220872, -99.0695
1, 480.00000, 119.075, -31.1868, 119.412, -150.669, 120.753, 88.9899, 0, 0, 4.5374, -54.2607, 4.55164, -173.743, 4.60139, 65.916, 0.0220872, -99.0695
1, 540.00000, 119.075, -31.1868, 119.412, -150.669, 120.753, 88.9899, 0, 0, 4.5374, -54.2607, 4.55164, -173.743, 4.60139, 65.916, 0.0220872, -99.0695
1, 600.00000, 119.075, -31.1868, 119.412, -150.669, 120.753, 88.9899, 0, 0, 4.5374, -54.2607, 4.55164, -173.743, 4.60139, 65.916, 0.0220872, -99.0695
1, 660.00000, 119.075, -31.1868, 119.412, -150.669, 120.753, 88.9899, 0, 0, 4.5374, -54.2607, 4.55164, -173.743, 4.60139, 65.916, 0.0220872, -99.0695
1, 720.00000, 119.075, -31.1868, 119.412, -150.669, 120.753, 88.9899, 0, 0, 4.5374, -54.2607, 4.55164, -173.743, 4.60139, 65.916, 0.0220872, -99.0695
1, 780.00000, 119.075, -31.1868, 119.412, -150.669, 120.753, 88.9899, 0, 0, 4.5374, -54.2607, 4.55164, -173.743, 4.60139, 65.916, 0.0220872, -99.0695
1, 840.00000, 119.075, -31.1868, 119.412, -150.669, 120.753, 88.9899, 0, 0, 4.5374, -54.2607, 4.55164, -173.743, 4.60139, 65.916, 0.0220872, -99.0695
1, 900.00000, 119.075, -31.1868, 119.412, -150.669, 120.753, 88.9899, 0, 0, 4.5374, -54.2607, 4.55164, -173.743, 4.60139, 65.916, 0.0220872, -99.0695
1, 960.00000, 119.127, -31.1847, 119.461, -150.667, 120.805, 88.9928, 0, 0, 4.51831, -54.2589, 4.53238, -173.741, 4.57805, 65.9185, 0.0182204, -95.9607
1, 1020.00000, 119.127, -31.1846, 119.461, -150.667, 120.806, 88.9929, 0, 0, 4.51834, -54.2586, 4.53242, -173.741, 4.57786, 65.919, 0.0180666, -95.6686
1, 1080.00000, 119.127, -31.1846, 119.461, -150.667, 120.806, 88.9929, 0, 0, 4.51834, -54.2586, 4.53242, -173.741, 4.57786, 65.919, 0.0180656, -95.6652
1, 1140.00000, 119.127, -31.1846, 119.461, -150.667, 120.806, 88.9929, 0, 0, 4.51834, -54.2586, 4.53242, -173.741, 4.57786, 65.919, 0.0180655, -95.6652
1, 1200.00000, 119.127, -31.1846, 119.461, -150.667, 120.806, 88.9929, 0, 0, 4.51834, -54.2586, 4.53242, -173.741, 4.57786, 65.919, 0.0180655, -95.6652
1, 1260.00000, 119.127, -31.1846, 119.461, -150.667, 120.806, 88.9929, 0, 0, 4.51834, -54.2586, 4.53242, -173.741, 4.57786, 65.919, 0.0180655, -95.6652
1, 1320.00000, 119.127, -31.1846, 119.461, -150.667, 120.806, 88.9929, 0, 0, 4.51834, -54.2586, 4.53242, -173.741, 4.57786, 65.919, 0.0180655, -95.6652
1, 1380.00000, 119.127, -31.1846, 119.461, -150.667, 120.806, 88.9929, 0, 0, 4.51834, -54.2586, 4.53242, -173.741, 4.57786, 65.919, 0.0180655, -95.6652
1, 1440.00000, 119.127, -31.1846, 119.461, -150.667, 120.806, 88.9929, 0, 0, 4.51834, -54.2586, 4.53242, -173.741, 4.57786, 65.919, 0.0180655, -95.6652
1, 1500.00000, 119.127, -31.1846, 119.461, -150.667, 120.806, 88.9929, 0, 0, 4.51834, -54.2586, 4.53242, -173.741, 4.57786, 65.919, 0.0180655, -95.6652
1, 1560.00000, 119.127, -31.1846, 119.461, -150.667, 120.806, 88.9929, 0, 0, 4.51834, -54.2586, 4.53242, -173.741, 4.57786, 65.919, 0.0180655, -95.6652
1, 1620.00000, 119.127, -31.1846, 119.461, -150.667, 120.806, 88.9929, 0, 0, 4.51834, -54.2586, 4.53242, -173.741, 4.57786, 65.919, 0.0180655, -95.6652
1, 1680.00000, 119.127, -31.1846, 119.461, -150.667, 120.806, 88.9929, 0, 0, 4.51834, -54.2586, 4.53242, -173.741, 4.57786, 65.919, 0.0180655, -95.6652
1, 1740.00000, 119.127, -31.1846, 119.461, -150.667, 120.806, 88.9929, 0, 0, 4.51834, -54.2586, 4.53242, -173.741, 4.57786, 65.919, 0.0180655, -95.6652
1, 1800.00000, 119.127, -31.1846, 119.461, -150.667, 120.806, 88.9929, 0, 0, 4.51834, -54.2586, 4.53242, -173.741, 4.57786, 65.919, 0.0180655, -95.6652
1, 1860.00000, 118.942, -31.2093, 119.286, -150.69, 120.619, 88.9648, 0, 0, 4.61938, -54.283, 4.63417, -173.764, 4.69172, 65.8911, 0.0292514, -102.632
1, 1920.00000, 118.942, -31.2093, 119.286, -150.69, 120.619, 88.9648, 0, 0, 4.61937, -54.2832, 4.63416, -173.764, 4.69164, 65.8909, 0.0291597, -102.616
1, 1980.00000, 118.942, -31.2093, 119.286, -150.69, 120.619, 88.9648, 0, 0, 4.61937, -54.2832, 4.63416, -173.764, 4.69164, 65.8909, 0.0291582, -102.616
1, 2040.00000, 118.942, -31.2093, 119.286, -150.69, 120.619, 88.9648, 0, 0, 4.61937, -54.2832, 4.63416, -173.764, 4.69164, 65.8909, 0.0291582, -102.616
1, 2100.00000, 118.942, -31.2093, 119.286, -150.69, 120.619, 88.9648, 0, 0, 4.61937, -54.2832, 4.63416, -173.764, 4.69164, 65.8909, 0.0291582, -102.616
1, 2160.00000, 118.942, -31.2093, 119.286, -150.69, 120.619, 88.9648, 0, 0, 4.61937, -54.2832, 4.63416, -173.764, 4.69164, 65.8909, 0.0291582, -102.616
1, 2220.00000, 118.942, -31.2093, 119.286, -150.69, 120.619, 88.9648, 0, 0, 4.61937, -54.2832, 4.63416, -173.764, 4.69164, 65.8909, 0.0291582, -102.616
1, 2280.00000, 118.942, -31.2093, 119.286, -150.69, 120.619, 88.9648, 0, 0, 4.61937, -54.2832, 4.63416, -173.764, 4.69164, 65.8909, 0.0291582, -102.616
1, 2340.00000, 118.942, -31.2093, 119.286, -150.69, 120.619, 88.9648, 0, 0, 4.61937, -54.2832, 4.63416, -173.764, 4.69164, 65.8909, 0.0291582, -102.616
1, 2400.00000, 118.942, -31.2093, 119.286, -150.69, 120.619, 88.9648, 0, 0, 4.61937, -54.2832, 4.63416, -173.764, 4.69164, 65.8909, 0.0291582, -102.616
1, 2460.00000, 118.942, -31.2093, 119.286, -150.69, 120.619, 88.9648, 0, 0, 4.61937, -54.2832, 4.63416, -173.764, 4.69164, 65.8909, 0.0291582, -102.616
1, 2520.00000, 118.942, -31.2093, 119.286, -150.69, 120.619, 88.9648, 0, 0, 4.61937, -54.2832, 4.63416, -173.764, 4.69164, 65.8909, 0.0291582, -102.616
1, 2580.00000, 118.942, -31.2093, 119.286, -150.69, 120.619, 88.9648, 0, 0, 4.61937, -54.2832, 4.63416, -173.764, 4.69164, 65.8909, 0.0291582, -102.616
1, 2640.00000, 118.942, -31.2093, 119.286, -150.69, 120.619, 88.9648, 0, 0, 4.61937, -54.2832, 4.63416, -173.764, 4.69164, 65.8909, 0.0291582, -102.616
1, 2700.00000, 118.913, -31.2047, 118.937, -150.891, 120.038, 88.9905, 0, 0, 4.61808, -54.2785, 4.61916, -173.965, 4.66669, 65.917, 0.026508, -105.272
1, 2760.00000, 119.374, -31.1638, 119.37, -150.851, 120.471, 89.0394, 0, 0, 4.37032, -54.2379, 4.3702, -173.925, 4.4149, 65.9653, 0.0242491, -105.773
1, 2820.00000, 119.374, -31.1638, 119.37, -150.851, 120.471, 89.0394, 0, 0, 4.37036, -54.2377, 4.37021, -173.925, 4.41494, 65.9654, 0.0242739, -105.824
1, 2880.00000, 119.374, -31.1638, 119.37, -150.851, 120.471, 89.0394, 0, 0, 4.37036, -54.2377, 4.37021, -173.925, 4.41494, 65.9655, 0.0242741, -105.824
1, 2940.00000, 119.374, -31.1638, 119.37, -150.851, 120.471, 89.0394, 0, 0, 4.37036, -54.2377, 4.37021, -173.925, 4.41494, 65.9655, 0.0242741, -105.824
1, 3000.00000, 119.374, -31.1638, 119.37, -150.851, 120.471, 89.0394, 0, 0, 4.37036, -54.2377, 4.37021, -173.925, 4.41494, 65.9655, 0.0242741, -105.824
1, 3060.00000, 119.374, -31.1638, 119.37, -150.851, 120.471, 89.0394, 0, 0, 4.37036, -54.2377, 4.37021, -173.925, 4.41494, 65.9655, 0.0242741, -105.824
1, 3120.00000, 119.374, -31.1638, 119.37, -150.851, 120.471, 89.0394, 0, 0, 4.37036, -54.2377, 4.37021, -173.925, 4.41494, 65.9655, 0.0242741, -105.824
1, 3180.00000, 119.374, -31.1638, 119.37, -150.851, 120.471, 89.0394, 0, 0, 4.37036, -54.2377, 4.37021, -173.925, 4.41494, 65.9655, 0.0242741, -105.824
1, 3240.00000, 119.374, -31.1638, 119.37, -150.851, 120.471, 89.0394, 0, 0, 4.37036, -54.2377, 4.37021, -173.925, 4.41494, 65.9655, 0.0242741, -105.824
1, 3300.00000, 119.374, -31.1638, 119.37, -150.851, 120.471, 89.0394, 0, 0, 4.37036, -54.2377, 4.37021, -173.925, 4.41494, 65.9655, 0.0242741, -105.824
1, 3360.00000, 119.374, -31.1638, 119.37, -150.851, 120.471, 89.0394, 0, 0, 4.37036, -54.2377, 4.37021, -173.925, 4.41494, 65.9655, 0.0242741, -105.824
1, 3420.00000, 119.374, -31.1638, 119.37, -150.851, 120.471, 89.0394, 0, 0, 4.37036, -54.2377, 4.37021, -173.925, 4.41494, 65.9655, 0.0242741, -105.824
1, 3480.00000, 119.374, -31.1638, 119.37, -150.851, 120.471, 89.0394, 0, 0, 4.37036, -54.2377, 4.37021, -173.925, 4.41494, 65.9655, 0.0242741, -105.824
1, 3540.00000, 119.374, -31.1638, 119.37, -150.851, 120.471, 89.0394, 0, 0, 4.37036, -54.2377, 4.37021, -173.925, 4.41494, 65.9655, 0.0242741, -105.824
2, 0.00000, 119.374, -31.1638, 119.37, -150.851, 120.471, 89.0394, 0, 0, 4.37036, -54.2377, 4.37021, -173.925, 4.41494, 65.9655, 0.0242741, -105.824
2, 60.00000, 119.122, -31.1912, 119.134, -150.878, 120.235, 89.0076, 0, 0, 4.47718, -54.2649, 4.47766, -173.952, 4.52358, 65.9338, 0.0252459, -105.596
2, 120.00000, 119.122, -31.1912, 119.134, -150.878, 120.235, 89.0076, 0, 0, 4.47716, -54.2651, 4.47765, -173.952, 4.52355, 65.9337, 0.0252296, -105.564
2, 180.00000, 119.122, -31.1912, 119.134, -150.878, 120.235, 89.0076, 0, 0, 4.47716, -54.2651, 4.47765, -173.952, 4.52355, 65.9337, 0.0252294, -105.564
2, 240.00000, 119.122, -31.1912, 119.134, -150.878, 120.235, 89.0076, 0, 0, 4.47716, -54.2651, 4.47765, -173.952, 4.52355, 65.9337, 0.0252294, -105.564
2, 300.00000, 119.122, -31.1912, 119.134, -150.878, 120.235, 89.0076, 0, 0, 4.47716, -54.2651, 4.47765, -173.952, 4.52355, 65.9337, 0.0252294, -105.564
2, 360.00000, 119.122, -31.1912, 119.134, -150.878, 120.235, 89.0076, 0, 0, 4.47716, -54.2651, 4.47765, -173.952, 4.52355, 65.9337, 0.0252294, -105.564
2, 420.00000, 119.122, -31.1912, 119.134, -150.878, 120.235, 89.0076, 0, 0, 4.47716, -54.2651, 4.47765, -173.952, 4.52355, 65.9337, 0.0252294, -105.564
2, 480.00000, 119.122, -31.1912, 119.134, -150.878, 120.235, 89.0076, 0, 0, 4.47716, -54.2651, 4.47765, -173.952, 4.52355, 65.9337, 0.0252294, -105.564
2, 540.00000, 119.755, -30.9393, 119.923, -151.002, 120.193, 89.0142, 0, 0, 4.50351, -54.0132, 4.5105, -174.077, 4.52186, 65.9403, 0.0197855, -99.7528
2, 600.00000, 119.755, -30.9393, 119.923, -151.002, 120.193, 89.0142, 0, 0, 4.50354, -54.0132, 4.51057, -174.076, 4.52183, 65.9402, 0.0196756, -99.6319
2, 660.00000, 119.755, -30.9393, 119.923, -151.002, 120.193, 89.0142, 0, 0, 4.50355, -54.0133, 4.51057, -174.076, 4.52183, 65.9402, 0.0196749, -99.6313
