hour,t(sec),"P1 (kW)","Q1 (kvar)","P2 (kW)","Q2 (kvar)","P3 (kW)","Q3 (kvar)","P4 (kW)","Q4 (kvar)"
0, 60.00000, 0.506127, 0.215606, 0.504752, 0.215021, 0.526891, 0.224453, 0, 0
0, 120.00000, 0.506122, 0.215607, 0.504747, 0.215021, 0.526886, 0.224453, 0, 0
0, 180.00000, 0.506122, 0.215607, 0.504747, 0.215021, 0.526886, 0.224453, 0, 0
0, 240.00000, 0.506122, 0.215607, 0.504747, 0.215021, 0.526886, 0.224453, 0, 0
0, 300.00000, 0.506122, 0.215607, 0.504747, 0.215021, 0.526886, 0.224453, 0, 0
0, 360.00000, 0.506122, 0.215607, 0.504747, 0.215021, 0.526886, 0.224453, 0, 0
0, 420.00000, 0.506122, 0.215607, 0.504747, 0.215021, 0.526886, 0.224453, 0, 0
0, 480.00000, 0.493233, 0.21012, 0.4915, 0.209381, 0.512859, 0.218479, 0, 0
0, 540.00000, 0.493238, 0.210119, 0.491506, 0.209381, 0.512864, 0.218479, 0, 0
0, 600.00000, 0.493238, 0.210119, 0.491506, 0.209381, 0.512864, 0.218479, 0, 0
0, 660.00000, 0.493238, 0.210119, 0.491506, 0.209381, 0.512864, 0.218479, 0, 0
0, 720.00000, 0.493238, 0.210119, 0.491506, 0.209381, 0.512864, 0.218479, 0, 0
0, 780.00000, 0.493238, 0.210119, 0.491506, 0.209381, 0.512864, 0.218479, 0, 0
0, 840.00000, 0.493238, 0.210119, 0.491506, 0.209381, 0.512864, 0.218479, 0, 0
0, 900.00000, 0.493238, 0.210119, 0.491506, 0.209381, 0.512864, 0.218479, 0, 0
0, 960.00000, 0.489851, 0.208671, 0.479681, 0.204342, 0.498863, 0.212513, 0, 0
0, 1020.00000, 0.489842, 0.208672, 0.479677, 0.204341, 0.498854, 0.212511, 0, 0
0, 1080.00000, 0.489842, 0.208672, 0.479677, 0.204341, 0.498854, 0.212511, 0, 0
0, 1140.00000, 0.492609, 0.209854, 0.479673, 0.20434, 0.499875, 0.212947, 0, 0
0, 1200.00000, 0.492615, 0.209853, 0.479673, 0.20434, 0.499878, 0.212947, 0, 0
0, 1260.00000, 0.492615, 0.209853, 0.479673, 0.20434, 0.499878, 0.212947, 0, 0
0, 1320.00000, 0.492615, 0.209853, 0.479673, 0.20434, 0.499878, 0.212947, 0, 0
0, 1380.00000, 0.492615, 0.209853, 0.479673, 0.20434, 0.499878, 0.212947, 0, 0
0, 1440.00000, 0.492615, 0.209853, 0.479673, 0.20434, 0.499878, 0.212947, 0, 0
0, 1500.00000, 0.492615, 0.209853, 0.479673, 0.20434, 0.499878, 0.212947, 0, 0
0, 1560.00000, 0.492615, 0.209853, 0.479673, 0.20434, 0.499878, 0.212947, 0, 0
0, 1620.00000, 0.492615, 0.209853, 0.479673, 0.20434, 0.499878, 0.212947, 0, 0
0, 1680.00000, 0.492615, 0.209853, 0.479673, 0.20434, 0.499878, 0.212947, 0, 0
0, 1740.00000, 0.492615, 0.209853, 0.479673, 0.20434, 0.499878, 0.212947, 0, 0
0, 1800.00000, 0.485966, 0.207019, 0.471963, 0.201056, 0.500316, 0.213135, 0, 0
0, 1860.00000, 0.485963, 0.207019, 0.47196, 0.201054, 0.500317, 0.213134, 0, 0
0, 1920.00000, 0.485963, 0.207019, 0.47196, 0.201054, 0.500317, 0.213134, 0, 0
0, 1980.00000, 0.485963, 0.207019, 0.47196, 0.201054, 0.500317, 0.213134, 0, 0
0, 2040.00000, 0.485963, 0.207019, 0.47196, 0.201054, 0.500317, 0.213134, 0, 0
0, 2100.00000, 0.485963, 0.207019, 0.47196, 0.201054, 0.500317, 0.213134, 0, 0
0, 2160.00000, 0.485963, 0.207019, 0.47196, 0.201054, 0.500317, 0.213134, 0, 0
0, 2220.00000, 0.485963, 0.207019, 0.47196, 0.201054, 0.500317, 0.213134, 0, 0
0, 2280.00000, 0.485963, 0.207019, 0.47196, 0.201054, 0.500317, 0.213134, 0, 0
0, 2340.00000, 0.485963, 0.207019, 0.47196, 0.201054, 0.500317, 0.213134, 0, 0
0, 2400.00000, 0.485963, 0.207019, 0.47196, 0.201054, 0.500317, 0.213134, 0, 0
0, 2460.00000, 0.485963, 0.207019, 0.47196, 0.201054, 0.500317, 0.213134, 0, 0
0, 2520.00000, 0.485963, 0.207019, 0.47196, 0.201054, 0.500317, 0.213134, 0, 0
0, 2580.00000, 0.485963, 0.207019, 0.47196, 0.201054, 0.500317, 0.213134, 0, 0
0, 2640.00000, 0.485963, 0.207019, 0.47196, 0.201054, 0.500317, 0.213134, 0, 0
0, 2700.00000, 0.485963, 0.207019, 0.47196, 0.201054, 0.500317, 0.213134, 0, 0
0, 2760.00000, 0.487277, 0.20758, 0.474962, 0.202336, 0.500203, 0.213085, 0, 0
0, 2820.00000, 0.48728, 0.20758, 0.474967, 0.202335, 0.500201, 0.213085, 0, 0
0, 2880.00000, 0.48728, 0.20758, 0.474967, 0.202335, 0.500201, 0.213085, 0, 0
0, 2940.00000, 0.48728, 0.20758, 0.474967, 0.202335, 0.500201, 0.213085, 0, 0
0, 3000.00000, 0.48728, 0.20758, 0.474967, 0.202335, 0.500201, 0.213085, 0, 0
0, 3060.00000, 0.48728, 0.20758, 0.474967, 0.202335, 0.500201, 0.213085, 0, 0
0, 3120.00000, 0.48728, 0.20758, 0.474967, 0.202335, 0.500201, 0.213085, 0, 0
0, 3180.00000, 0.48728, 0.20758, 0.474967, 0.202335, 0.500201, 0.213085, 0, 0
0, 3240.00000, 0.48728, 0.20758, 0.474967, 0.202335, 0.500201, 0.213085, 0, 0
0, 3300.00000, 0.48728, 0.20758, 0.474967, 0.202335, 0.500201, 0.213085, 0, 0
0, 3360.00000, 0.48728, 0.20758, 0.474967, 0.202335, 0.500201, 0.213085, 0, 0
0, 3420.00000, 0.48728, 0.20758, 0.474967, 0.202335, 0.500201, 0.213085, 0, 0
0, 3480.00000, 0.48728, 0.20758, 0.474967, 0.202335, 0.500201, 0.213085, 0, 0
0, 3540.00000, 0.48728, 0.20758, 0.474967, 0.202335, 0.500201, 0.213085, 0, 0
1, 0.00000, 0.48728, 0.20758, 0.474967, 0.202335, 0.500201, 0.213085, 0, 0
1, 60.00000, 0.488188, 0.207968, 0.477539, 0.203433, 0.500151, 0.213064, 0, 0
1, 120.00000, 0.48819, 0.207968, 0.477543, 0.203432, 0.50015, 0.213063, 0, 0
1, 180.00000, 0.48819, 0.207968, 0.477543, 0.203432, 0.50015, 0.213063, 0, 0
1, 240.00000, 0.48819, 0.207968, 0.477543, 0.203432, 0.50015, 0.213063, 0, 0
1, 300.00000, 0.48819, 0.207968, 0.477543, 0.203432, 0.50015, 0.213063, 0, 0
1, 360.00000, 0.48819, 0.207968, 0.477543, 0.203432, 0.50015, 0.213063, 0, 0
1, 420.00000, 0.48819, 0.207968, 0.477543, 0.203432, 0.50015, 0.213063, 0, 0
1, 480.00000, 0.48819, 0.207968, 0.477543, 0.203432, 0.50015, 0.213063, 0, 0
1, 540.00000, 0.48819, 0.207968, 0.477543, 0.203432, 0.50015, 0.213063, 0, 0
1, 600.00000, 0.48819, 0.207968, 0.477543, 0.203432, 0.50015, 0.213063, 0, 0
1, 660.00000, 0.48819, 0.207968, 0.477543, 0.203432, 0.50015, 0.213063, 0, 0
1, 720.00000, 0.48819, 0.207968, 0.477543, 0.203432, 0.50015, 0.213063, 0, 0
1, 780.00000, 0.488458, 0.208082, 0.480284, 0.204601, 0.504721, 0.215012, 0, 0
1, 840.00000, 0.488457, 0.208082, 0.480286, 0.204601, 0.504726, 0.215012, 0, 0
1, 900.00000, 0.488457, 0.208082, 0.480286, 0.204601, 0.504726, 0.215012, 0, 0
1, 960.00000, 0.488457, 0.208082, 0.480286, 0.204601, 0.504726, 0.215012, 0, 0
1, 1020.00000, 0.488457, 0.208082, 0.480286, 0.204601, 0.504726, 0.215012, 0, 0
1, 1080.00000, 0.488457, 0.208082, 0.480286, 0.204601, 0.504726, 0.215012, 0, 0
1, 1140.00000, 0.488457, 0.208082, 0.480286, 0.204601, 0.504726, 0.215012, 0, 0
1, 1200.00000, 0.488457, 0.208082, 0.480286, 0.204601, 0.504726, 0.215012, 0, 0
1, 1260.00000, 0.488457, 0.208082, 0.480286, 0.204601, 0.504726, 0.215012, 0, 0
1, 1320.00000, 0.488457, 0.208082, 0.480286, 0.204601, 0.504726, 0.215012, 0, 0
1, 1380.00000, 0.488457, 0.208082, 0.480286, 0.204601, 0.504726, 0.215012, 0, 0
1, 1440.00000, 0.488457, 0.208082, 0.480286, 0.204601, 0.504726, 0.215012, 0, 0
1, 1500.00000, 0.488457, 0.208082, 0.480286, 0.204601, 0.504726, 0.215012, 0, 0
1, 1560.00000, 0.488457, 0.208082, 0.480286, 0.204601, 0.504726, 0.215012, 0, 0
1, 1620.00000, 0.488457, 0.208082, 0.480286, 0.204601, 0.504726, 0.215012, 0, 0
1, 1680.00000, 0.488457, 0.208082, 0.480286, 0.204601, 0.504726, 0.215012, 0, 0
1, 1740.00000, 0.488457, 0.208082, 0.480286, 0.204601, 0.504726, 0.215012, 0, 0
1, 1800.00000, 0.488457, 0.208082, 0.480286, 0.204601, 0.504726, 0.215012, 0, 0
1, 1860.00000, 0.488457, 0.208082, 0.480286, 0.204601, 0.504726, 0.215012, 0, 0
1, 1920.00000, 0.488457, 0.208082, 0.480286, 0.204601, 0.504726, 0.215012, 0, 0
1, 1980.00000, 0.488457, 0.208082, 0.480286, 0.204601, 0.504726, 0.215012, 0, 0
1, 2040.00000, 0.488457, 0.208082, 0.480286, 0.204601, 0.504726, 0.215012, 0, 0
1, 2100.00000, 0.488457, 0.208082, 0.480286, 0.204601, 0.504726, 0.215012, 0, 0
1, 2160.00000, 0.488457, 0.208082, 0.480286, 0.204601, 0.504726, 0.215012, 0, 0
1, 2220.00000, 0.495145, 0.210931, 0.488133, 0.207945, 0.504288, 0.214825, 0, 0
1, 2280.00000, 0.495146, 0.210931, 0.488137, 0.207946, 0.504287, 0.214825, 0, 0
1, 2340.00000, 0.495146, 0.210931, 0.488137, 0.207946, 0.504287, 0.214825, 0, 0
1, 2400.00000, 0.495146, 0.210931, 0.488137, 0.207946, 0.504287, 0.214825, 0, 0
1, 2460.00000, 0.495146, 0.210931, 0.488137, 0.207946, 0.504287, 0.214825, 0, 0
1, 2520.00000, 0.495146, 0.210931, 0.488137, 0.207946, 0.504287, 0.214825, 0, 0
1, 2580.00000, 0.495146, 0.210931, 0.488137, 0.207946, 0.504287, 0.214825, 0, 0
1, 2640.00000, 0.495146, 0.210931, 0.488137, 0.207946, 0.504287, 0.214825, 0, 0
1, 2700.00000, 0.495146, 0.210931, 0.488137, 0.207946, 0.504287, 0.214825, 0, 0
1, 2760.00000, 0.495146, 0.210931, 0.488137, 0.207946, 0.504287, 0.214825, 0, 0
1, 2820.00000, 0.495146, 0.210931, 0.488137, 0.207946, 0.504287, 0.214825, 0, 0
1, 2880.00000, 0.495146, 0.210931, 0.488137, 0.207946, 0.504287, 0.214825, 0, 0
1, 2940.00000, 0.495146, 0.210931, 0.488137, 0.207946, 0.504287, 0.214825, 0, 0
1, 3000.00000, 0.495146, 0.210931, 0.488137, 0.207946, 0.504287, 0.214825, 0, 0
1, 3060.00000, 0.495146, 0.210931, 0.488137, 0.207946, 0.504287, 0.214825, 0, 0
1, 3120.00000, 0.495146, 0.210931, 0.488137, 0.207946, 0.504287, 0.214825, 0, 0
1, 3180.00000, 0.495146, 0.210931, 0.488137, 0.207946, 0.504287, 0.214825, 0, 0
1, 3240.00000, 0.495146, 0.210931, 0.488137, 0.207946, 0.504287, 0.214825, 0, 0
1, 3300.00000, 0.495146, 0.210931, 0.488137, 0.207946, 0.504287, 0.214825, 0, 0
1, 3360.00000, 0.495146, 0.210931, 0.488137, 0.207946, 0.504287, 0.214825, 0, 0
1, 3420.00000, 0.495146, 0.210931, 0.488137, 0.207946, 0.504287, 0.214825, 0, 0
1, 3480.00000, 0.495146, 0.210931, 0.488137, 0.207946, 0.504287, 0.214825, 0, 0
1, 3540.00000, 0.495146, 0.210931, 0.488137, 0.207946, 0.504287, 0.214825, 0, 0
2, 0.00000, 0.495146, 0.210931, 0.488137, 0.207946, 0.504287, 0.214825, 0, 0
2, 60.00000, 0.495146, 0.210931, 0.488137, 0.207946, 0.504287, 0.214825, 0, 0
2, 120.00000, 0.495146, 0.210931, 0.488137, 0.207946, 0.504287, 0.214825, 0, 0
2, 180.00000, 0.495146, 0.210931, 0.488137, 0.207946, 0.504287, 0.214825, 0, 0
2, 240.00000, 0.495146, 0.210931, 0.488137, 0.207946, 0.504287, 0.214825, 0, 0
2, 300.00000, 0.495146, 0.210931, 0.488137, 0.207946, 0.504287, 0.214825, 0, 0
2, 360.00000, 0.495146, 0.210931, 0.488137, 0.207946, 0.504287, 0.214825, 0, 0
2, 420.00000, 0.495146, 0.210931, 0.488137, 0.207946, 0.504287, 0.214825, 0, 0
2, 480.00000, 0.495146, 0.210931, 0.488137, 0.207946, 0.504287, 0.214825, 0, 0
2, 540.00000, 0.495146, 0.210931, 0.488137, 0.207946, 0.504287, 0.214825, 0, 0
2, 600.00000, 0.495146, 0.210931, 0.488137, 0.207946, 0.504287, 0.214825, 0, 0
2, 660.00000, 0.495146, 0.210931, 0.488137, 0.207946, 0.504287, 0.214825, 0, 0
2, 720.00000, 0.495146, 0.210931, 0.488137, 0.207946, 0.504287, 0.214825, 0, 0
2, 780.00000, 0.495146, 0.210931, 0.488137, 0.207946, 0.504287, 0.214825, 0, 0
2, 840.00000, 0.495749, 0.211189, 0.500236, 0.213099, 0.517578, 0.22049, 0, 0
2, 900.00000, 0.495747, 0.211188, 0.500238, 0.2131, 0.517589, 0.220492, 0, 0
2, 960.00000, 0.495747, 0.211188, 0.500238, 0.2131, 0.517589, 0.220492, 0, 0
2, 1020.00000, 0.495747, 0.211188, 0.500238, 0.2131, 0.517589, 0.220492, 0, 0
2, 1080.00000, 0.495747, 0.211188, 0.500238, 0.2131, 0.517589, 0.220492, 0, 0
2, 1140.00000, 0.495747, 0.211188, 0.500238, 0.2131, 0.517589, 0.220492, 0, 0
2, 1200.00000, 0.495747, 0.211188, 0.500238, 0.2131, 0.517589, 0.220492, 0, 0
2, 1260.00000, 0.495747, 0.211188, 0.500238, 0.2131, 0.517589, 0.220492, 0, 0
2, 1320.00000, 0.495747, 0.211188, 0.500238, 0.2131, 0.517589, 0.220492, 0, 0
2, 1380.00000, 0.495747, 0.211188, 0.500238, 0.2131, 0.517589, 0.220492, 0, 0
2, 1440.00000, 0.495747, 0.211188, 0.500238, 0.2131, 0.517589, 0.220492, 0, 0
2, 1500.00000, 0.495747, 0.211188, 0.500238, 0.2131, 0.517589, 0.220492, 0, 0
2, 1560.00000, 0.495747, 0.211188, 0.500238, 0.2131, 0.517589, 0.220492, 0, 0
2, 1620.00000, 0.495747, 0.211188, 0.500238, 0.2131, 0.517589, 0.220492, 0, 0
2, 1680.00000, 0.495747, 0.211188, 0.500238, 0.2131, 0.517589, 0.220492, 0, 0
2, 1740.00000, 0.495747, 0.211188, 0.500238, 0.2131, 0.517589, 0.220492, 0, 0
2, 1800.00000, 0.495747, 0.211188, 0.500238, 0.2131, 0.517589, 0.220492, 0, 0
2, 1860.00000, 0.495747, 0.211188, 0.500238, 0.2131, 0.517589, 0.220492, 0, 0
2, 1920.00000, 0.495747, 0.211188, 0.500238, 0.2131, 0.517589, 0.220492, 0, 0
2, 1980.00000, 0.495747, 0.211188, 0.500238, 0.2131, 0.517589, 0.220492, 0, 0
2, 2040.00000, 0.495747, 0.211188, 0.500238, 0.2131, 0.517589, 0.220492, 0, 0
2, 2100.00000, 0.495747, 0.211188, 0.500238, 0.2131, 0.517589, 0.220492, 0, 0
2, 2160.00000, 0.495747, 0.211188, 0.500238, 0.2131, 0.517589, 0.220492, 0, 0
2, 2220.00000, 0.495747, 0.211188, 0.500238, 0.2131, 0.517589, 0.220492, 0, 0
2, 2280.00000, 0.495747, 0.211188, 0.500238, 0.2131, 0.517589, 0.220492, 0, 0
2, 2340.00000, 0.495747, 0.211188, 0.500238, 0.2131, 0.517589, 0.220492, 0, 0
2, 2400.00000, 0.500664, 0.213286, 0.500211, 0.213088, 0.520616, 0.221785, 0, 0
2, 2460.00000, 0.500671, 0.213285, 0.500208, 0.213088, 0.520628, 0.221786, 0, 0
2, 2520.00000, 0.500671, 0.213285, 0.500208, 0.213088, 0.520628, 0.221786, 0, 0
2, 2580.00000, 0.500671, 0.213285, 0.500208, 0.213088, 0.520628, 0.221786, 0, 0
2, 2640.00000, 0.500671, 0.213285, 0.500208, 0.213088, 0.520628, 0.221786, 0, 0
2, 2700.00000, 0.500164, 0.213068, 0.493296, 0.210144, 0.511851, 0.218044, 0, 0
2, 2760.00000, 0.500164, 0.213069, 0.493295, 0.210143, 0.511842, 0.218044, 0, 0
2, 2820.00000, 0.500164, 0.213069, 0.493295, 0.210143, 0.511842, 0.218044, 0, 0
2, 2880.00000, 0.500164, 0.213069, 0.493295, 0.210143, 0.511842, 0.218044, 0, 0
2, 2940.00000, 0.500164, 0.213069, 0.493295, 0.210143, 0.511842, 0.218044, 0, 0
2, 3000.00000, 0.500164, 0.213069, 0.493295, 0.210143, 0.511842, 0.218044, 0, 0
2, 3060.00000, 0.500237, 0.213101, 0.49444, 0.21063, 0.514872, 0.219339, 0, 0
2, 3120.00000, 0.500236, 0.2131, 0.494441, 0.210631, 0.514883, 0.219339, 0, 0
2, 3180.00000, 0.500236, 0.2131, 0.494441, 0.210631, 0.514883, 0.219339, 0, 0
2, 3240.00000, 0.500236, 0.2131, 0.494441, 0.210631, 0.514883, 0.219339, 0, 0
2, 3300.00000, 0.500236, 0.2131, 0.494441, 0.210631, 0.514883, 0.219339, 0, 0
2, 3360.00000, 0.500236, 0.2131, 0.494441, 0.210631, 0.514883, 0.219339, 0, 0
2, 3420.00000, 0.500236, 0.2131, 0.494441, 0.210631, 0.514883, 0.219339, 0, 0
2, 3480.00000, 0.500236, 0.2131, 0.494441, 0.210631, 0.514883, 0.219339, 0, 0
2, 3540.00000, 0.500236, 0.2131, 0.494441, 0.210631, 0.514883, 0.219339, 0, 0
3, 0.00000, 0.500236, 0.2131, 0.494441, 0.210631, 0.514883, 0.219339, 0, 0
3, 60.00000, 0.500236, 0.2131, 0.494441, 0.210631, 0.514883, 0.219339, 0, 0
3, 120.00000, 0.500236, 0.2131, 0.494441, 0.210631, 0.514883, 0.219339, 0, 0
3, 180.00000, 0.500236, 0.2131, 0.494441, 0.210631, 0.514883, 0.219339, 0, 0
3, 240.00000, 0.500236, 0.2131, 0.494441, 0.210631, 0.514883, 0.219339, 0, 0
3, 300.00000, 0.500236, 0.2131, 0.494441, 0.210631, 0.514883, 0.219339, 0, 0
3, 360.00000, 0.500236, 0.2131, 0.494441, 0.210631, 0.514883, 0.219339, 0, 0
3, 420.00000, 0.500236, 0.2131, 0.494441, 0.210631, 0.514883, 0.219339, 0, 0
3, 480.00000, 0.500236, 0.2131, 0.494441, 0.210631, 0.514883, 0.219339, 0, 0
3, 540.00000, 0.500236, 0.2131, 0.494441, 0.210631, 0.514883, 0.219339, 0, 0
3, 600.00000, 0.500236, 0.2131, 0.494441, 0.210631, 0.514883, 0.219339, 0, 0
3, 660.00000, 0.500236, 0.2131, 0.494441, 0.210631, 0.514883, 0.219339, 0, 0
3, 720.00000, 0.500236, 0.2131, 0.494441, 0.210631, 0.514883, 0.219339, 0, 0
3, 780.00000, 0.500236, 0.2131, 0.494441, 0.210631, 0.514883, 0.219339, 0, 0
3, 840.00000, 0.500236, 0.2131, 0.494441, 0.210631, 0.514883, 0.219339, 0, 0
3, 900.00000, 0.500236, 0.2131, 0.494441, 0.210631, 0.514883, 0.219339, 0, 0
3, 960.00000, 0.500236, 0.2131, 0.494441, 0.210631, 0.514883, 0.219339, 0, 0
3, 1020.00000, 0.500236, 0.2131, 0.494441, 0.210631, 0.514883, 0.219339, 0, 0
3, 1080.00000, 0.500236, 0.2131, 0.494441, 0.210631, 0.514883, 0.219339, 0, 0
3, 1140.00000, 0.500236, 0.2131, 0.494441, 0.210631, 0.514883, 0.219339, 0, 0
3, 1200.00000, 0.500236, 0.2131, 0.494441, 0.210631, 0.514883, 0.219339, 0, 0
3, 1260.00000, 0.500236, 0.2131, 0.494441, 0.210631, 0.514883, 0.219339, 0, 0
3, 1320.00000, 0.500236, 0.2131, 0.494441, 0.210631, 0.514883, 0.219339, 0, 0
3, 1380.00000, 0.500236, 0.2131, 0.494441, 0.210631, 0.514883, 0.219339, 0, 0
3, 1440.00000, 0.500236, 0.2131, 0.494441, 0.210631, 0.514883, 0.219339, 0, 0
3, 1500.00000, 0.500236, 0.2131, 0.494441, 0.210631, 0.514883, 0.219339, 0, 0
3, 1560.00000, 0.500236, 0.2131, 0.494441, 0.210631, 0.514883, 0.219339, 0, 0
3, 1620.00000, 0.500236, 0.2131, 0.494441, 0.210631, 0.514883, 0.219339, 0, 0
3, 1680.00000, 0.500236, 0.2131, 0.494441, 0.210631, 0.514883, 0.219339, 0, 0
3, 1740.00000, 0.500236, 0.2131, 0.494441, 0.210631, 0.514883, 0.219339, 0, 0
3, 1800.00000, 0.500236, 0.2131, 0.494441, 0.210631, 0.514883, 0.219339, 0, 0
3, 1860.00000, 0.500236, 0.2131, 0.494441, 0.210631, 0.514883, 0.219339, 0, 0
3, 1920.00000, 0.500236, 0.2131, 0.494441, 0.210631, 0.514883, 0.219339, 0, 0
3, 1980.00000, 0.500236, 0.2131, 0.494441, 0.210631, 0.514883, 0.219339, 0, 0
3, 2040.00000, 0.500236, 0.2131, 0.494441, 0.210631, 0.514883, 0.219339, 0, 0
3, 2100.00000, 0.500236, 0.2131, 0.494441, 0.210631, 0.514883, 0.219339, 0, 0
3, 2160.00000, 0.500236, 0.2131, 0.494441, 0.210631, 0.514883, 0.219339, 0, 0
3, 2220.00000, 0.500236, 0.2131, 0.494441, 0.210631, 0.514883, 0.219339, 0, 0
3, 2280.00000, 0.500236, 0.2131, 0.494441, 0.210631, 0.514883, 0.219339, 0, 0
3, 2340.00000, 0.500236, 0.2131, 0.494441, 0.210631, 0.514883, 0.219339, 0, 0
3, 2400.00000, 0.500236, 0.2131, 0.494441, 0.210631, 0.514883, 0.219339, 0, 0
3, 2460.00000, 0.500236, 0.2131, 0.494441, 0.210631, 0.514883, 0.219339, 0, 0
3, 2520.00000, 0.500236, 0.2131, 0.494441, 0.210631, 0.514883, 0.219339, 0, 0
3, 2580.00000, 0.500236, 0.2131, 0.494441, 0.210631, 0.514883, 0.219339, 0, 0
3, 2640.00000, 0.500236, 0.2131, 0.494441, 0.210631, 0.514883, 0.219339, 0, 0
3, 2700.00000, 0.500236, 0.2131, 0.494441, 0.210631, 0.514883, 0.219339, 0, 0
3, 2760.00000, 0.500236, 0.2131, 0.494441, 0.210631, 0.514883, 0.219339, 0, 0
3, 2820.00000, 0.500236, 0.2131, 0.494441, 0.210631, 0.514883, 0.219339, 0, 0
3, 2880.00000, 0.500236, 0.2131, 0.494441, 0.210631, 0.514883, 0.219339, 0, 0
3, 2940.00000, 0.500236, 0.2131, 0.494441, 0.210631, 0.514883, 0.219339, 0, 0
3, 3000.00000, 0.500236, 0.2131, 0.494441, 0.210631, 0.514883, 0.219339, 0, 0
3, 3060.00000, 0.500236, 0.2131, 0.494441, 0.210631, 0.514883, 0.219339, 0, 0
3, 3120.00000, 0.500236, 0.2131, 0.494441, 0.210631, 0.514883, 0.219339, 0, 0
3, 3180.00000, 0.413075, 0.175968, 0.408355, 0.173958, 0.42524, 0.18115, 0, 0
3, 3240.00000, 0.413073, 0.175969, 0.408354, 0.173958, 0.425237, 0.18115, 0, 0
3, 3300.00000, 0.413073, 0.175969, 0.408354, 0.173958, 0.425237, 0.18115, 0, 0
3, 3360.00000, 0.413073, 0.175969, 0.408354, 0.173958, 0.425237, 0.18115, 0, 0
3, 3420.00000, 0.413073, 0.175969, 0.408354, 0.173958, 0.425237, 0.18115, 0, 0
3, 3480.00000, 0.413073, 0.175969, 0.408354, 0.173958, 0.425237, 0.18115, 0, 0
3, 3540.00000, 0.413073, 0.175969, 0.408354, 0.173958, 0.425237, 0.18115, 0, 0
4, 0.00000, 0.412871, 0.175882, 0.404982, 0.17252, 0.420447, 0.179109, 0, 0
4, 60.00000, 0.412871, 0.175882, 0.404979, 0.17252, 0.420442, 0.179107, 0, 0
4, 120.00000, 0.412871, 0.175882, 0.404979, 0.17252, 0.420442, 0.179107, 0, 0
4, 180.00000, 0.412871, 0.175882, 0.404979, 0.17252, 0.420442, 0.179107, 0, 0
4, 240.00000, 0.412871, 0.175882, 0.404979, 0.17252, 0.420442, 0.179107, 0, 0
4, 300.00000, 0.412871, 0.175882, 0.404979, 0.17252, 0.420442, 0.179107, 0, 0
4, 360.00000, 0.412871, 0.175882, 0.404979, 0.17252, 0.420442, 0.179107, 0, 0
4, 420.00000, 0.412871, 0.175882, 0.404979, 0.17252, 0.420442, 0.179107, 0, 0
4, 480.00000, 0.412871, 0.175882, 0.404979, 0.17252, 0.420442, 0.179107, 0, 0
4, 540.00000, 0.412871, 0.175882, 0.404979, 0.17252, 0.420442, 0.179107, 0, 0
4, 600.00000, 0.412871, 0.175882, 0.404979, 0.17252, 0.420442, 0.179107, 0, 0
4, 660.00000, 0.412871, 0.175882, 0.404979, 0.17252, 0.420442, 0.179107, 0, 0
4, 720.00000, 0.412871, 0.175882, 0.404979, 0.17252, 0.420442, 0.179107, 0, 0
4, 780.00000, 0.412871, 0.175882, 0.404979, 0.17252, 0.420442, 0.179107, 0, 0
