hour,t(sec),V1,VAngle1,V2,VAngle2,V3,VAngle3,V4,VAngle4,I1,IAngle1,I2,IAngle2,I3,IAngle3,I4,IAngle4
0, 60.00000, 120.49, -31.4882, 124.727, -151.355, 123.023, 87.0481, 0, 0, 3.71942, -54.5619, 3.60422, -174.429, 3.65404, 63.9742, 0.197957, 150.746
0, 120.00000, 120.49, -31.4885, 124.745, -151.356, 123.029, 87.0414, 0, 0, 3.71941, -54.5622, 3.60369, -174.43, 3.65387, 63.9675, 0.198774, 150.802
0, 180.00000, 120.489, -31.4887, 124.761, -151.357, 123.034, 87.0354, 0, 0, 3.7194, -54.5625, 3.60321, -174.431, 3.65372, 63.9616, 0.199509, 150.852
0, 240.00000, 120.489, -31.4889, 124.776, -151.358, 123.039, 87.03, 0, 0, 3.71939, -54.5627, 3.60278, -174.432, 3.65359, 63.9561, 0.20017, 150.897
0, 300.00000, 120.489, -31.4891, 124.789, -151.359, 123.043, 87.0252, 0, 0, 3.71938, -54.5629, 3.6024, -174.433, 3.65346, 63.9513, 0.200766, 150.938
0, 360.00000, 120.489, -31.4893, 124.801, -151.359, 123.047, 87.0208, 0, 0, 3.71937, -54.5631, 3.60205, -174.433, 3.65335, 63.9469, 0.201304, 150.974
0, 420.00000, 120.489, -31.4895, 124.812, -151.36, 123.05, 87.0168, 0, 0, 3.71937, -54.5633, 3.60173, -174.434, 3.65326, 63.943, 0.20179, 151.007
0, 480.00000, 121.065, -31.3722, 125.45, -151.23, 123.626, 87.1443, 0, 0, 3.23047, -54.446, 3.11758, -174.304, 3.16355, 64.0705, 0.184437, 149.887
0, 540.00000, 121.065, -31.3723, 125.459, -151.231, 123.628, 87.1411, 0, 0, 3.23048, -54.4461, 3.11735, -174.305, 3.16348, 64.0672, 0.184793, 149.914
0, 600.00000, 121.064, -31.3724, 125.467, -151.231, 123.631, 87.1382, 0, 0, 3.23048, -54.4463, 3.11715, -174.305, 3.16342, 64.0643, 0.185112, 149.938
0, 660.00000, 121.064, -31.3726, 125.475, -151.232, 123.633, 87.1356, 0, 0, 3.23048, -54.4464, 3.11696, -174.305, 3.16336, 64.0617, 0.185399, 149.96
0, 720.00000, 121.064, -31.3727, 125.481, -151.232, 123.635, 87.1332, 0, 0, 3.23049, -54.4465, 3.11679, -174.306, 3.16331, 64.0594, 0.185658, 149.98
0, 780.00000, 121.064, -31.3728, 125.487, -151.232, 123.637, 87.1311, 0, 0, 3.23049, -54.4466, 3.11664, -174.306, 3.16327, 64.0573, 0.18589, 149.997
0, 840.00000, 121.064, -31.3729, 125.493, -151.232, 123.638, 87.1292, 0, 0, 3.23049, -54.4467, 3.11651, -174.306, 3.16323, 64.0553, 0.1861, 150.013
0, 900.00000, 121.064, -31.3729, 125.497, -151.233, 123.64, 87.1275, 0, 0, 3.2305, -54.4468, 3.11639, -174.307, 3.16319, 64.0536, 0.186288, 150.027
0, 960.00000, 121.058, -31.3685, 125.272, -151.381, 123.276, 87.1136, 0, 0, 3.23065, -54.4424, 3.12198, -174.455, 3.17251, 64.0397, 0.177867, 154.16
0, 1020.00000, 121.058, -31.3686, 125.276, -151.381, 123.278, 87.1122, 0, 0, 3.23065, -54.4425, 3.12189, -174.455, 3.17248, 64.0383, 0.178017, 154.168
0, 1080.00000, 121.058, -31.3687, 125.28, -151.381, 123.279, 87.111, 0, 0, 3.23065, -54.4425, 3.1218, -174.455, 3.17246, 64.0371, 0.178153, 154.176
0, 1140.00000, 121.058, -31.3687, 125.283, -151.381, 123.279, 87.1098, 0, 0, 3.23065, -54.4426, 3.12172, -174.455, 3.17243, 64.0359, 0.178276, 154.183
0, 1200.00000, 121.058, -31.3687, 125.285, -151.381, 123.28, 87.1088, 0, 0, 3.23065, -54.4426, 3.12165, -174.455, 3.17241, 64.0349, 0.178387, 154.189
0, 1260.00000, 121.058, -31.3688, 125.288, -151.382, 123.281, 87.108, 0, 0, 3.23066, -54.4427, 3.12159, -174.455, 3.1724, 64.034, 0.178486, 154.194
0, 1320.00000, 121.058, -31.3688, 125.29, -151.382, 123.282, 87.1071, 0, 0, 3.23066, -54.4427, 3.12154, -174.456, 3.17238, 64.0332, 0.178576, 154.199
0, 1380.00000, 121.058, -31.3688, 125.292, -151.382, 123.282, 87.1064, 0, 0, 3.23066, -54.4427, 3.12148, -174.456, 3.17236, 64.0325, 0.178657, 154.204
0, 1440.00000, 121.058, -31.3689, 125.294, -151.382, 123.283, 87.1058, 0, 0, 3.23066, -54.4428, 3.12144, -174.456, 3.17235, 64.0318, 0.178729, 154.208
0, 1500.00000, 121.058, -31.3689, 125.296, -151.382, 123.283, 87.1052, 0, 0, 3.23066, -54.4428, 3.1214, -174.456, 3.17234, 64.0313, 0.178795, 154.211
0, 1560.00000, 121.058, -31.3689, 125.297, -151.382, 123.284, 87.1046, 0, 0, 3.23066, -54.4428, 3.12136, -174.456, 3.17233, 64.0307, 0.178854, 154.214
0, 1620.00000, 121.058, -31.3689, 125.298, -151.382, 123.284, 87.1042, 0, 0, 3.23066, -54.4429, 3.12133, -174.456, 3.17232, 64.0303, 0.178907, 154.217
0, 1680.00000, 121.058, -31.369, 125.3, -151.382, 123.285, 87.1037, 0, 0, 3.23066, -54.4429, 3.1213, -174.456, 3.17231, 64.0298, 0.178954, 154.22
0, 1740.00000, 121.058, -31.369, 125.301, -151.382, 123.285, 87.1033, 0, 0, 3.23066, -54.4429, 3.12127, -174.456, 3.1723, 64.0294, 0.178997, 154.222
0, 1800.00000, 120.949, -31.5026, 124.936, -151.41, 123.298, 87.1021, 0, 0, 3.23357, -54.5765, 3.13037, -174.483, 3.17197, 64.0282, 0.169851, 150.24
0, 1860.00000, 120.949, -31.5026, 124.937, -151.41, 123.298, 87.1018, 0, 0, 3.23357, -54.5765, 3.13035, -174.484, 3.17196, 64.0279, 0.169884, 150.243
0, 1920.00000, 120.949, -31.5026, 124.938, -151.41, 123.298, 87.1015, 0, 0, 3.23358, -54.5765, 3.13033, -174.484, 3.17196, 64.0276, 0.169915, 150.245
0, 1980.00000, 120.949, -31.5026, 124.938, -151.41, 123.298, 87.1013, 0, 0, 3.23358, -54.5765, 3.13032, -174.484, 3.17195, 64.0274, 0.169942, 150.247
0, 2040.00000, 120.949, -31.5026, 124.939, -151.41, 123.299, 87.101, 0, 0, 3.23358, -54.5766, 3.1303, -174.484, 3.17195, 64.0271, 0.169966, 150.249
0, 2100.00000, 120.949, -31.5027, 124.94, -151.41, 123.299, 87.1008, 0, 0, 3.23358, -54.5766, 3.13029, -174.484, 3.17194, 64.0269, 0.169988, 150.251
0, 2160.00000, 120.949, -31.5027, 124.94, -151.41, 123.299, 87.1007, 0, 0, 3.23358, -54.5766, 3.13028, -174.484, 3.17194, 64.0267, 0.170008, 150.252
0, 2220.00000, 120.949, -31.5027, 124.94, -151.41, 123.299, 87.1005, 0, 0, 3.23358, -54.5766, 3.13026, -174.484, 3.17193, 64.0266, 0.170026, 150.254
0, 2280.00000, 120.949, -31.5027, 124.941, -151.41, 123.299, 87.1003, 0, 0, 3.23358, -54.5766, 3.13025, -174.484, 3.17193, 64.0264, 0.170042, 150.255
0, 2340.00000, 120.949, -31.5027, 124.941, -151.41, 123.299, 87.1002, 0, 0, 3.23358, -54.5766, 3.13024, -174.484, 3.17193, 64.0263, 0.170056, 150.256
0, 2400.00000, 120.949, -31.5027, 124.942, -151.41, 123.299, 87.1001, 0, 0, 3.23358, -54.5766, 3.13024, -174.484, 3.17193, 64.0262, 0.170069, 150.257
0, 2460.00000, 120.949, -31.5027, 124.942, -151.41, 123.299, 87.1, 0, 0, 3.23358, -54.5766, 3.13023, -174.484, 3.17192, 64.0261, 0.170081, 150.258
0, 2520.00000, 120.949, -31.5027, 124.942, -151.41, 123.3, 87.0999, 0, 0, 3.23358, -54.5766, 3.13022, -174.484, 3.17192, 64.026, 0.170091, 150.259
0, 2580.00000, 120.949, -31.5027, 124.942, -151.41, 123.3, 87.0998, 0, 0, 3.23358, -54.5766, 3.13022, -174.484, 3.17192, 64.0259, 0.170101, 150.26
0, 2640.00000, 120.949, -31.5027, 124.943, -151.41, 123.3, 87.0997, 0, 0, 3.23358, -54.5766, 3.13021, -174.484, 3.17192, 64.0258, 0.17011, 150.261
0, 2700.00000, 120.949, -31.5027, 124.943, -151.41, 123.3, 87.0996, 0, 0, 3.23358, -54.5766, 3.13021, -174.484, 3.17192, 64.0257, 0.170117, 150.261
0, 2760.00000, 121.733, -31.5653, 124.938, -151.41, 123.817, 87.382, 0, 0, 3.21274, -54.6392, 3.13033, -174.484, 3.15865, 64.3081, 0.135262, 146.528
0, 2820.00000, 121.733, -31.5653, 124.938, -151.41, 123.817, 87.382, 0, 0, 3.21274, -54.6392, 3.13033, -174.484, 3.15865, 64.3081, 0.135268, 146.529
0, 2880.00000, 121.733, -31.5653, 124.938, -151.41, 123.818, 87.3819, 0, 0, 3.21274, -54.6392, 3.13032, -174.484, 3.15865, 64.308, 0.135274, 146.53
0, 2940.00000, 121.733, -31.5653, 124.938, -151.41, 123.818, 87.3819, 0, 0, 3.21274, -54.6392, 3.13032, -174.484, 3.15865, 64.308, 0.135279, 146.53
0, 3000.00000, 121.733, -31.5653, 124.938, -151.41, 123.818, 87.3818, 0, 0, 3.21274, -54.6392, 3.13032, -174.484, 3.15865, 64.3079, 0.135283, 146.531
0, 3060.00000, 121.733, -31.5653, 124.938, -151.41, 123.818, 87.3818, 0, 0, 3.21274, -54.6392, 3.13031, -174.484, 3.15865, 64.3079, 0.135287, 146.531
0, 3120.00000, 121.733, -31.5653, 124.939, -151.41, 123.818, 87.3818, 0, 0, 3.21274, -54.6392, 3.13031, -174.484, 3.15865, 64.3078, 0.135291, 146.532
0, 3180.00000, 121.733, -31.5653, 124.939, -151.41, 123.818, 87.3817, 0, 0, 3.21274, -54.6392, 3.13031, -174.484, 3.15865, 64.3078, 0.135294, 146.532
0, 3240.00000, 121.733, -31.5653, 124.939, -151.41, 123.818, 87.3817, 0, 0, 3.21274, -54.6392, 3.13031, -174.484, 3.15865, 64.3078, 0.135297, 146.533
0, 3300.00000, 121.733, -31.5653, 124.939, -151.41, 123.818, 87.3817, 0, 0, 3.21274, -54.6392, 3.13031, -174.484, 3.15865, 64.3078, 0.1353, 146.533
0, 3360.00000, 121.733, -31.5653, 124.939, -151.41, 123.818, 87.3817, 0, 0, 3.21274, -54.6392, 3.1303, -174.484, 3.15865, 64.3077, 0.135302, 146.533
0, 3420.00000, 121.733, -31.5653, 124.939, -151.41, 123.818, 87.3816, 0, 0, 3.21274, -54.6392, 3.1303, -174.484, 3.15865, 64.3077, 0.135304, 146.534
0, 3480.00000, 121.733, -31.5653, 124.939, -151.41, 123.818, 87.3816, 0, 0, 3.21274, -54.6392, 3.1303, -174.484, 3.15865, 64.3077, 0.135306, 146.534
0, 3540.00000, 121.733, -31.5653, 124.939, -151.41, 123.818, 87.3816, 0, 0, 3.21274, -54.6392, 3.1303, -174.484, 3.15865, 64.3077, 0.135308, 146.534
1, 0.00000, 121.733, -31.5653, 124.939, -151.41, 123.818, 87.3816, 0, 0, 3.21274, -54.6392, 3.1303, -174.484, 3.15864, 64.3077, 0.135309, 146.534
1, 60.00000, 122.213, -31.5666, 124.934, -151.408, 124.064, 87.5641, 0, 0, 3.20012, -54.6406, 3.13042, -174.482, 3.15238, 64.4902, 0.114431, 144.907
1, 120.00000, 122.213, -31.5666, 124.934, -151.408, 124.064, 87.5641, 0, 0, 3.20012, -54.6406, 3.13042, -174.482, 3.15238, 64.4902, 0.114432, 144.908
1, 180.00000, 122.213, -31.5666, 124.934, -151.408, 124.064, 87.5641, 0, 0, 3.20012, -54.6406, 3.13042, -174.482, 3.15238, 64.4902, 0.114434, 144.908
1, 240.00000, 122.213, -31.5666, 124.934, -151.408, 124.064, 87.5641, 0, 0, 3.20012, -54.6406, 3.13042, -174.482, 3.15238, 64.4901, 0.114435, 144.908
1, 300.00000, 122.213, -31.5666, 124.934, -151.408, 124.064, 87.564, 0, 0, 3.20012, -54.6406, 3.13042, -174.482, 3.15238, 64.4901, 0.114435, 144.908
1, 360.00000, 122.213, -31.5666, 124.934, -151.408, 124.064, 87.564, 0, 0, 3.20012, -54.6406, 3.13042, -174.482, 3.15238, 64.4901, 0.114436, 144.908
1, 420.00000, 122.213, -31.5666, 124.934, -151.408, 124.064, 87.564, 0, 0, 3.20012, -54.6406, 3.13042, -174.482, 3.15238, 64.4901, 0.114437, 144.908
1, 480.00000, 122.213, -31.5666, 124.934, -151.408, 124.064, 87.564, 0, 0, 3.20012, -54.6406, 3.13042, -174.482, 3.15238, 64.4901, 0.114438, 144.908
1, 540.00000, 122.213, -31.5666, 124.934, -151.408, 124.064, 87.564, 0, 0, 3.20012, -54.6406, 3.13041, -174.482, 3.15238, 64.4901, 0.114438, 144.909
1, 600.00000, 122.213, -31.5666, 124.934, -151.408, 124.064, 87.564, 0, 0, 3.20012, -54.6406, 3.13041, -174.482, 3.15238, 64.4901, 0.114439, 144.909
1, 660.00000, 122.213, -31.5666, 124.934, -151.408, 124.064, 87.564, 0, 0, 3.20012, -54.6406, 3.13041, -174.482, 3.15238, 64.4901, 0.114439, 144.909
1, 720.00000, 122.213, -31.5666, 124.934, -151.408, 124.064, 87.564, 0, 0, 3.20012, -54.6406, 3.13041, -174.482, 3.15238, 64.4901, 0.11444, 144.909
1, 780.00000, 122.505, -31.5381, 124.932, -151.404, 124.164, 87.6886, 0, 0, 3.19249, -54.612, 3.13048, -174.478, 3.14984, 64.6147, 0.101539, 145.031
1, 840.00000, 122.505, -31.5381, 124.932, -151.404, 124.164, 87.6886, 0, 0, 3.19249, -54.612, 3.13048, -174.478, 3.14984, 64.6147, 0.101539, 145.031
1, 900.00000, 122.505, -31.5381, 124.932, -151.404, 124.164, 87.6886, 0, 0, 3.19249, -54.612, 3.13048, -174.478, 3.14984, 64.6147, 0.101539, 145.031
1, 960.00000, 122.505, -31.5381, 124.932, -151.404, 124.164, 87.6886, 0, 0, 3.19249, -54.612, 3.13047, -174.478, 3.14984, 64.6147, 0.101539, 145.031
1, 1020.00000, 122.505, -31.5381, 124.932, -151.404, 124.164, 87.6886, 0, 0, 3.19249, -54.612, 3.13047, -174.478, 3.14984, 64.6147, 0.10154, 145.031
1, 1080.00000, 122.505, -31.5381, 124.932, -151.404, 124.164, 87.6886, 0, 0, 3.19249, -54.612, 3.13047, -174.478, 3.14984, 64.6147, 0.10154, 145.031
1, 1140.00000, 122.505, -31.5381, 124.932, -151.404, 124.164, 87.6886, 0, 0, 3.19249, -54.612, 3.13047, -174.478, 3.14984, 64.6147, 0.10154, 145.031
1, 1200.00000, 122.505, -31.5381, 124.932, -151.404, 124.164, 87.6886, 0, 0, 3.19249, -54.612, 3.13047, -174.478, 3.14984, 64.6147, 0.10154, 145.031
1, 1260.00000, 122.505, -31.5381, 124.932, -151.404, 124.164, 87.6886, 0, 0, 3.19249, -54.612, 3.13047, -174.478, 3.14984, 64.6147, 0.101541, 145.031
1, 1320.00000, 122.505, -31.5381, 124.932, -151.404, 124.164, 87.6886, 0, 0, 3.19249, -54.612, 3.13047, -174.478, 3.14984, 64.6147, 0.101541, 145.031
1, 1380.00000, 122.505, -31.5381, 124.932, -151.404, 124.164, 87.6886, 0, 0, 3.19249, -54.612, 3.13047, -174.478, 3.14984, 64.6146, 0.101541, 145.031
1, 1440.00000, 122.505, -31.5381, 124.932, -151.404, 124.164, 87.6886, 0, 0, 3.19249, -54.612, 3.13047, -174.478, 3.14984, 64.6146, 0.101541, 145.031
1, 1500.00000, 122.505, -31.5381, 124.932, -151.404, 124.164, 87.6886, 0, 0, 3.19249, -54.612, 3.13047, -174.478, 3.14984, 64.6146, 0.101541, 145.031
1, 1560.00000, 122.505, -31.5381, 124.932, -151.404, 124.164, 87.6886, 0, 0, 3.19249, -54.612, 3.13047, -174.478, 3.14984, 64.6146, 0.101541, 145.031
1, 1620.00000, 122.505, -31.5381, 124.932, -151.404, 124.164, 87.6886, 0, 0, 3.19249, -54.612, 3.13047, -174.478, 3.14984, 64.6146, 0.101541, 145.031
1, 1680.00000, 122.505, -31.5381, 124.932, -151.404, 124.164, 87.6886, 0, 0, 3.19249, -54.612, 3.13047, -174.478, 3.14984, 64.6146, 0.101541, 145.031
1, 1740.00000, 122.505, -31.5381, 124.932, -151.404, 124.164, 87.6886, 0, 0, 3.19249, -54.612, 3.13047, -174.478, 3.14984, 64.6146, 0.101541, 145.031
1, 1800.00000, 122.505, -31.5381, 124.932, -151.404, 124.164, 87.6886, 0, 0, 3.19249, -54.612, 3.13047, -174.478, 3.14984, 64.6146, 0.101541, 145.031
1, 1860.00000, 122.505, -31.5381, 124.932, -151.404, 124.164, 87.6886, 0, 0, 3.19249, -54.612, 3.13047, -174.478, 3.14984, 64.6146, 0.101541, 145.031
1, 1920.00000, 122.505, -31.5381, 124.932, -151.404, 124.164, 87.6886, 0, 0, 3.19249, -54.612, 3.13047, -174.478, 3.14984, 64.6146, 0.101542, 145.031
1, 1980.00000, 122.505, -31.5381, 124.932, -151.404, 124.164, 87.6886, 0, 0, 3.19249, -54.612, 3.13047, -174.478, 3.14984, 64.6146, 0.101542, 145.031
1, 2040.00000, 122.505, -31.5381, 124.932, -151.404, 124.164, 87.6886, 0, 0, 3.19249, -54.612, 3.13047, -174.478, 3.14984, 64.6146, 0.101542, 145.031
1, 2100.00000, 122.505, -31.5381, 124.932, -151.404, 124.164, 87.6886, 0, 0, 3.19249, -54.612, 3.13047, -174.478, 3.14984, 64.6146, 0.101542, 145.031
1, 2160.00000, 122.505, -31.5381, 124.932, -151.404, 124.164, 87.6886, 0, 0, 3.19249, -54.612, 3.13047, -174.478, 3.14984, 64.6146, 0.101542, 145.031
1, 2220.00000, 122.619, -31.4044, 125.297, -151.377, 124.149, 87.6898, 0, 0, 3.18952, -54.4783, 3.12137, -174.451, 3.15023, 64.6159, 0.109782, 151.921
1, 2280.00000, 122.619, -31.4044, 125.297, -151.377, 124.148, 87.6898, 0, 0, 3.18952, -54.4783, 3.12136, -174.451, 3.15023, 64.6159, 0.109782, 151.921
1, 2340.00000, 122.619, -31.4044, 125.297, -151.377, 124.148, 87.6898, 0, 0, 3.18952, -54.4783, 3.12136, -174.451, 3.15023, 64.6159, 0.109782, 151.921
1, 2400.00000, 122.619, -31.4044, 125.297, -151.377, 124.148, 87.6898, 0, 0, 3.18952, -54.4783, 3.12136, -174.451, 3.15023, 64.6159, 0.109782, 151.921
1, 2460.00000, 122.619, -31.4044, 125.297, -151.377, 124.149, 87.6898, 0, 0, 3.18952, -54.4783, 3.12136, -174.451, 3.15023, 64.6159, 0.109782, 151.921
1, 2520.00000, 122.619, -31.4044, 125.297, -151.377, 124.149, 87.6898, 0, 0, 3.18952, -54.4783, 3.12136, -174.451, 3.15023, 64.6159, 0.109782, 151.921
1, 2580.00000, 122.619, -31.4044, 125.297, -151.377, 124.149, 87.6898, 0, 0, 3.18952, -54.4783, 3.12136, -174.451, 3.15023, 64.6159, 0.109782, 151.921
1, 2640.00000, 122.619, -31.4044, 125.297, -151.377, 124.149, 87.6898, 0, 0, 3.18952, -54.4783, 3.12136, -174.451, 3.15023, 64.6159, 0.109782, 151.921
1, 2700.00000, 122.619, -31.4044, 125.297, -151.377, 124.149, 87.6898, 0, 0, 3.18952, -54.4783, 3.12136, -174.451, 3.15023, 64.6159, 0.109782, 151.921
1, 2760.00000, 122.619, -31.4044, 125.297, -151.377, 124.149, 87.6898, 0, 0, 3.18952, -54.4783, 3.12136, -174.451, 3.15023, 64.6159, 0.109782, 151.921
1, 2820.00000, 122.619, -31.4044, 125.297, -151.377, 124.149, 87.6898, 0, 0, 3.18952, -54.4783, 3.12136, -174.451, 3.15023, 64.6159, 0.109782, 151.921
1, 2880.00000, 122.619, -31.4044, 125.297, -151.377, 124.149, 87.6898, 0, 0, 3.18952, -54.4783, 3.12136, -174.451, 3.15023, 64.6159, 0.109782, 151.921
1, 2940.00000, 122.619, -31.4044, 125.297, -151.377, 124.149, 87.6898, 0, 0, 3.18952, -54.4783, 3.12136, -174.451, 3.15023, 64.6159, 0.109782, 151.921
1, 3000.00000, 122.619, -31.4044, 125.297, -151.377, 124.149, 87.6898, 0, 0, 3.18952, -54.4783, 3.12136, -174.451, 3.15023, 64.6159, 0.109782, 151.921
1, 3060.00000, 122.619, -31.4044, 125.297, -151.377, 124.149, 87.6898, 0, 0, 3.18952, -54.4783, 3.12136, -174.451, 3.15023, 64.6159, 0.109782, 151.921
1, 3120.00000, 122.619, -31.4044, 125.297, -151.377, 124.149, 87.6898, 0, 0, 3.18952, -54.4783, 3.12136, -174.451, 3.15023, 64.6159, 0.109782, 151.921
1, 3180.00000, 122.619, -31.4044, 125.297, -151.377, 124.149, 87.6898, 0, 0, 3.18952, -54.4783, 3.12136, -174.451, 3.15023, 64.6159, 0.109782, 151.921
1, 3240.00000, 122.619, -31.4044, 125.297, -151.377, 124.149, 87.6898, 0, 0, 3.18952, -54.4783, 3.12136, -174.451, 3.15023, 64.6159, 0.109782, 151.921
1, 3300.00000, 122.619, -31.4044, 125.297, -151.377, 124.149, 87.6898, 0, 0, 3.18952, -54.4783, 3.12136, -174.451, 3.15023, 64.6159, 0.109782, 151.921
1, 3360.00000, 122.619, -31.4044, 125.297, -151.377, 124.149, 87.6898, 0, 0, 3.18952, -54.4783, 3.12136, -174.451, 3.15023, 64.6159, 0.109782, 151.921
1, 3420.00000, 122.619, -31.4044, 125.297, -151.377, 124.149, 87.6898, 0, 0, 3.18952, -54.4783, 3.12136, -174.451, 3.15023, 64.6159, 0.109782, 151.921
1, 3480.00000, 122.619, -31.4044, 125.297, -151.377, 124.149, 87.6898, 0, 0, 3.18952, -54.4783, 3.12136, -174.451, 3.15023, 64.6159, 0.109782, 151.921
1, 3540.00000, 122.619, -31.4044, 125.297, -151.377, 124.149, 87.6898, 0, 0, 3.18952, -54.4783, 3.12136, -174.451, 3.15023, 64.6159, 0.109782, 151.921
2, 0.00000, 122.619, -31.4044, 125.297, -151.377, 124.149, 87.6898, 0, 0, 3.18952, -54.4783, 3.12136, -174.451, 3.15023, 64.6159, 0.109782, 151.921
2, 60.00000, 122.619, -31.4044, 125.297, -151.377, 124.149, 87.6898, 0, 0, 3.18952, -54.4783, 3.12136, -174.451, 3.15023, 64.6159, 0.109782, 151.921
2, 120.00000, 122.619, -31.4044, 125.297, -151.377, 124.149, 87.6898, 0, 0, 3.18952, -54.4783, 3.12136, -174.451, 3.15023, 64.6159, 0.109782, 151.921
2, 180.00000, 122.619, -31.4044, 125.297, -151.377, 124.149, 87.6898, 0, 0, 3.18952, -54.4783, 3.12136, -174.451, 3.15023, 64.6159, 0.109782, 151.921
2, 240.00000, 122.619, -31.4044, 125.297, -151.377, 124.149, 87.6898, 0, 0, 3.18952, -54.4783, 3.12136, -174.451, 3.15023, 64.6159, 0.109782, 151.921
2, 300.00000, 122.619, -31.4044, 125.297, -151.377, 124.149, 87.6898, 0, 0, 3.18952, -54.4783, 3.12136, -174.451, 3.15023, 64.6159, 0.109782, 151.921
2, 360.00000, 122.619, -31.4044, 125.297, -151.377, 124.149, 87.6898, 0, 0, 3.18952, -54.4783, 3.12136, -174.451, 3.15023, 64.6159, 0.109782, 151.921
2, 420.00000, 122.619, -31.4044, 125.297, -151.377, 124.149, 87.6898, 0, 0, 3.18952, -54.4783, 3.12136, -174.451, 3.15023, 64.6159, 0.109782, 151.921
2, 480.00000, 122.619, -31.4044, 125.297, -151.377, 124.149, 87.6898, 0, 0, 3.18952, -54.4783, 3.12136, -174.451, 3.15023, 64.6159, 0.109782, 151.921
2, 540.00000, 122.619, -31.4044, 125.297, -151.377, 124.149, 87.6898, 0, 0, 3.18952, -54.4783, 3.12136, -174.451, 3.15023, 64.6159, 0.109782, 151.921
2, 600.00000, 122.619, -31.4044, 125.297, -151.377, 124.149, 87.6898, 0, 0, 3.18952, -54.4783, 3.12136, -174.451, 3.15023, 64.6159, 0.109782, 151.921
2, 660.00000, 122.619, -31.4044, 125.297, -151.377, 124.149, 87.6898, 0, 0, 3.18952, -54.4783, 3.12136, -174.451, 3.15023, 64.6159, 0.109782, 151.921
2, 720.00000, 122.619, -31.4044, 125.297, -151.377, 124.149, 87.6898, 0, 0, 3.18952, -54.4783, 3.12136, -174.451, 3.15023, 64.6159, 0.109782, 151.921
2, 780.00000, 122.619, -31.4044, 125.297, -151.377, 124.149, 87.6898, 0, 0, 3.18952, -54.4783, 3.12136, -174.451, 3.15023, 64.6159, 0.109782, 151.921
