hour,t(sec),V1,VAngle1,V2,VAngle2,V3,VAngle3,V4,VAngle4,I1,IAngle1,I2,IAngle2,I3,IAngle3,I4,IAngle4
0, 60.00000, 116.897, -31.491, 122.177, -151.365, 119.895, 86.6278, 0, 0, 1.17469, -54.5646, 1.20179, -174.438, 1.20821, 63.5539, 0.024433, -160.383
0, 120.00000, 116.896, -31.4922, 122.205, -151.371, 119.897, 86.6144, 0, 0, 1.17468, -54.5658, 1.20151, -174.444, 1.20823, 63.5405, 0.0249229, -160.696
0, 180.00000, 116.896, -31.4933, 122.231, -151.376, 119.899, 86.6023, 0, 0, 1.17467, -54.5669, 1.20126, -174.45, 1.20825, 63.5284, 0.0253641, -160.967
0, 240.00000, 116.895, -31.4942, 122.254, -151.381, 119.9, 86.5914, 0, 0, 1.17467, -54.5679, 1.20103, -174.455, 1.20826, 63.5175, 0.0257615, -161.203
0, 300.00000, 116.895, -31.4951, 122.275, -151.386, 119.901, 86.5816, 0, 0, 1.17466, -54.5688, 1.20082, -174.459, 1.20828, 63.5077, 0.0261196, -161.41
0, 360.00000, 116.895, -31.4959, 122.294, -151.39, 119.903, 86.5728, 0, 0, 1.17466, -54.5696, 1.20063, -174.463, 1.20829, 63.4989, 0.0264423, -161.592
0, 420.00000, 116.894, -31.4967, 122.311, -151.393, 119.904, 86.5648, 0, 0, 1.17465, -54.5704, 1.20047, -174.467, 1.2083, 63.4909, 0.0267333, -161.753
0, 480.00000, 117.723, -31.412, 123.305, -151.288, 120.704, 86.6723, 0, 0, 1.23947, -54.4856, 1.24667, -174.362, 1.2735, 63.5983, 0.0465957, -168.494
0, 540.00000, 117.723, -31.4127, 123.32, -151.291, 120.704, 86.6659, 0, 0, 1.23947, -54.4864, 1.24652, -174.364, 1.2735, 63.5919, 0.046847, -168.552
0, 600.00000, 117.722, -31.4134, 123.333, -151.293, 120.705, 86.6601, 0, 0, 1.23947, -54.487, 1.24638, -174.367, 1.27349, 63.5862, 0.0470725, -168.603
0, 660.00000, 117.722, -31.414, 123.345, -151.296, 120.705, 86.6549, 0, 0, 1.23946, -54.4877, 1.24626, -174.369, 1.27349, 63.581, 0.0472754, -168.649
0, 720.00000, 117.722, -31.4145, 123.356, -151.298, 120.706, 86.6502, 0, 0, 1.23946, -54.4882, 1.24614, -174.372, 1.27349, 63.5763, 0.0474582, -168.69
0, 780.00000, 117.722, -31.415, 123.366, -151.3, 120.706, 86.646, 0, 0, 1.23946, -54.4887, 1.24604, -174.373, 1.27348, 63.5721, 0.0476227, -168.726
0, 840.00000, 117.722, -31.4154, 123.375, -151.301, 120.706, 86.6422, 0, 0, 1.23945, -54.4892, 1.24595, -174.375, 1.27348, 63.5683, 0.0477707, -168.759
0, 900.00000, 117.721, -31.4158, 123.382, -151.303, 120.707, 86.6388, 0, 0, 1.23945, -54.4896, 1.24587, -174.377, 1.27348, 63.5649, 0.047904, -168.788
0, 960.00000, 117.701, -31.398, 122.915, -151.499, 120.182, 86.6723, 0, 0, 1.23921, -54.4718, 1.25061, -174.573, 1.26825, 63.5983, 0.0401097, -166.764
0, 1020.00000, 117.7, -31.3983, 122.921, -151.5, 120.182, 86.6695, 0, 0, 1.23921, -54.4721, 1.25055, -174.574, 1.26825, 63.5956, 0.0402172, -166.792
0, 1080.00000, 117.7, -31.3985, 122.926, -151.501, 120.183, 86.6671, 0, 0, 1.23921, -54.4724, 1.25049, -174.575, 1.26825, 63.5932, 0.0403141, -166.817
0, 1140.00000, 117.7, -31.3988, 122.931, -151.502, 120.183, 86.6649, 0, 0, 1.2392, -54.4726, 1.25044, -174.576, 1.26826, 63.591, 0.0404013, -166.84
0, 1200.00000, 117.7, -31.399, 122.936, -151.503, 120.183, 86.6629, 0, 0, 1.2392, -54.4728, 1.25039, -174.577, 1.26826, 63.589, 0.0404799, -166.86
0, 1260.00000, 117.7, -31.3992, 122.94, -151.504, 120.183, 86.6611, 0, 0, 1.2392, -54.473, 1.25035, -174.578, 1.26826, 63.5872, 0.0405507, -166.878
0, 1320.00000, 117.7, -31.3994, 122.944, -151.505, 120.183, 86.6595, 0, 0, 1.2392, -54.4732, 1.25031, -174.579, 1.26826, 63.5856, 0.0406143, -166.895
0, 1380.00000, 117.7, -31.3995, 122.947, -151.505, 120.183, 86.6581, 0, 0, 1.2392, -54.4734, 1.25028, -174.579, 1.26826, 63.5841, 0.0406716, -166.91
0, 1440.00000, 117.7, -31.3997, 122.95, -151.506, 120.183, 86.6568, 0, 0, 1.2392, -54.4736, 1.25025, -174.58, 1.26826, 63.5828, 0.0407232, -166.923
0, 1500.00000, 117.7, -31.3998, 122.953, -151.507, 120.183, 86.6556, 0, 0, 1.2392, -54.4737, 1.25022, -174.58, 1.26826, 63.5817, 0.0407696, -166.935
0, 1560.00000, 117.7, -31.3999, 122.955, -151.507, 120.184, 86.6545, 0, 0, 1.2392, -54.4738, 1.2502, -174.581, 1.26826, 63.5806, 0.0408114, -166.946
0, 1620.00000, 117.7, -31.4001, 122.957, -151.507, 120.184, 86.6536, 0, 0, 1.2392, -54.4739, 1.25017, -174.581, 1.26826, 63.5797, 0.040849, -166.955
0, 1680.00000, 117.7, -31.4002, 122.959, -151.508, 120.184, 86.6527, 0, 0, 1.2392, -54.474, 1.25015, -174.582, 1.26826, 63.5788, 0.0408828, -166.964
0, 1740.00000, 117.7, -31.4002, 122.961, -151.508, 120.184, 86.652, 0, 0, 1.2392, -54.4741, 1.25014, -174.582, 1.26826, 63.578, 0.0409133, -166.972
0, 1800.00000, 117.356, -31.6003, 122.301, -151.472, 120.25, 86.6425, 0, 0, 1.23518, -54.6742, 1.25688, -174.545, 1.26904, 63.5685, 0.0293659, -161.835
0, 1860.00000, 117.356, -31.6004, 122.302, -151.472, 120.25, 86.6418, 0, 0, 1.23518, -54.6743, 1.25687, -174.546, 1.26904, 63.5679, 0.0293897, -161.847
0, 1920.00000, 117.356, -31.6004, 122.303, -151.472, 120.25, 86.6413, 0, 0, 1.23518, -54.6743, 1.25686, -174.546, 1.26904, 63.5674, 0.0294112, -161.858
0, 1980.00000, 117.356, -31.6005, 122.304, -151.472, 120.25, 86.6408, 0, 0, 1.23518, -54.6744, 1.25685, -174.546, 1.26904, 63.5668, 0.0294306, -161.867
0, 2040.00000, 117.356, -31.6005, 122.305, -151.472, 120.25, 86.6403, 0, 0, 1.23518, -54.6744, 1.25684, -174.546, 1.26904, 63.5664, 0.029448, -161.876
0, 2100.00000, 117.356, -31.6005, 122.306, -151.473, 120.25, 86.6399, 0, 0, 1.23518, -54.6744, 1.25683, -174.547, 1.26904, 63.566, 0.0294636, -161.884
0, 2160.00000, 117.356, -31.6006, 122.307, -151.473, 120.25, 86.6395, 0, 0, 1.23518, -54.6745, 1.25682, -174.547, 1.26904, 63.5656, 0.0294777, -161.891
0, 2220.00000, 117.356, -31.6006, 122.308, -151.473, 120.25, 86.6392, 0, 0, 1.23517, -54.6745, 1.25681, -174.547, 1.26904, 63.5653, 0.0294904, -161.897
0, 2280.00000, 117.356, -31.6006, 122.308, -151.473, 120.25, 86.6389, 0, 0, 1.23517, -54.6745, 1.2568, -174.547, 1.26904, 63.565, 0.0295018, -161.903
0, 2340.00000, 117.356, -31.6007, 122.309, -151.473, 120.25, 86.6386, 0, 0, 1.23517, -54.6746, 1.2568, -174.547, 1.26904, 63.5647, 0.0295121, -161.908
0, 2400.00000, 117.356, -31.6007, 122.31, -151.473, 120.25, 86.6384, 0, 0, 1.23517, -54.6746, 1.25679, -174.547, 1.26904, 63.5645, 0.0295214, -161.913
0, 2460.00000, 117.356, -31.6007, 122.31, -151.473, 120.25, 86.6382, 0, 0, 1.23517, -54.6746, 1.25679, -174.547, 1.26904, 63.5642, 0.0295297, -161.917
0, 2520.00000, 117.356, -31.6007, 122.31, -151.474, 120.25, 86.638, 0, 0, 1.23517, -54.6746, 1.25678, -174.547, 1.26904, 63.564, 0.0295372, -161.921
0, 2580.00000, 117.356, -31.6007, 122.311, -151.474, 120.25, 86.6378, 0, 0, 1.23517, -54.6747, 1.25678, -174.548, 1.26904, 63.5639, 0.029544, -161.924
0, 2640.00000, 117.356, -31.6008, 122.311, -151.474, 120.25, 86.6376, 0, 0, 1.23517, -54.6747, 1.25678, -174.548, 1.26904, 63.5637, 0.0295501, -161.927
0, 2700.00000, 117.356, -31.6008, 122.311, -151.474, 120.25, 86.6375, 0, 0, 1.23517, -54.6747, 1.25677, -174.548, 1.26904, 63.5636, 0.0295556, -161.93
0, 2760.00000, 117.65, -31.5708, 122.311, -151.472, 120.351, 86.7751, 0, 0, 1.23862, -54.6447, 1.25677, -174.545, 1.27022, 63.7011, 0.0298315, -162.262
0, 2820.00000, 117.65, -31.5708, 122.312, -151.472, 120.351, 86.775, 0, 0, 1.23862, -54.6447, 1.25677, -174.545, 1.27022, 63.701, 0.029836, -162.264
0, 2880.00000, 117.65, -31.5708, 122.312, -151.472, 120.351, 86.7748, 0, 0, 1.23862, -54.6447, 1.25677, -174.546, 1.27022, 63.7009, 0.02984, -162.266
0, 2940.00000, 117.65, -31.5708, 122.312, -151.472, 120.351, 86.7748, 0, 0, 1.23862, -54.6447, 1.25677, -174.546, 1.27022, 63.7008, 0.0298436, -162.267
0, 3000.00000, 117.65, -31.5708, 122.312, -151.472, 120.351, 86.7747, 0, 0, 1.23862, -54.6447, 1.25676, -174.546, 1.27022, 63.7008, 0.0298468, -162.269
0, 3060.00000, 117.65, -31.5708, 122.313, -151.472, 120.351, 86.7746, 0, 0, 1.23862, -54.6447, 1.25676, -174.546, 1.27022, 63.7007, 0.0298498, -162.27
0, 3120.00000, 117.65, -31.5708, 122.313, -151.472, 120.351, 86.7745, 0, 0, 1.23862, -54.6447, 1.25676, -174.546, 1.27022, 63.7006, 0.0298524, -162.272
0, 3180.00000, 117.65, -31.5708, 122.313, -151.472, 120.351, 86.7745, 0, 0, 1.23862, -54.6447, 1.25676, -174.546, 1.27022, 63.7005, 0.0298547, -162.273
0, 3240.00000, 117.65, -31.5708, 122.313, -151.472, 120.351, 86.7744, 0, 0, 1.23862, -54.6447, 1.25676, -174.546, 1.27022, 63.7005, 0.0298569, -162.274
0, 3300.00000, 117.65, -31.5708, 122.313, -151.472, 120.351, 86.7744, 0, 0, 1.23862, -54.6447, 1.25676, -174.546, 1.27022, 63.7004, 0.0298588, -162.275
0, 3360.00000, 117.65, -31.5708, 122.313, -151.472, 120.351, 86.7743, 0, 0, 1.23862, -54.6447, 1.25676, -174.546, 1.27022, 63.7004, 0.0298605, -162.276
0, 3420.00000, 117.65, -31.5708, 122.313, -151.472, 120.351, 86.7743, 0, 0, 1.23862, -54.6447, 1.25675, -174.546, 1.27022, 63.7004, 0.029862, -162.276
0, 3480.00000, 117.65, -31.5708, 122.313, -151.472, 120.351, 86.7742, 0, 0, 1.23862, -54.6448, 1.25675, -174.546, 1.27022, 63.7003, 0.0298634, -162.277
0, 3540.00000, 117.65, -31.5708, 122.313, -151.472, 120.351, 86.7742, 0, 0, 1.23862, -54.6448, 1.25675, -174.546, 1.27022, 63.7003, 0.0298647, -162.278
1, 0.00000, 117.65, -31.5708, 122.313, -151.472, 120.351, 86.7742, 0, 0, 1.23862, -54.6448, 1.25675, -174.546, 1.27022, 63.7003, 0.0298658, -162.278
1, 60.00000, 117.932, -31.5387, 122.314, -151.47, 120.438, 86.9047, 0, 0, 1.24192, -54.6126, 1.25674, -174.544, 1.27124, 63.8308, 0.0301477, -162.739
1, 120.00000, 117.932, -31.5387, 122.314, -151.47, 120.438, 86.9047, 0, 0, 1.24192, -54.6126, 1.25674, -174.544, 1.27124, 63.8308, 0.0301487, -162.74
1, 180.00000, 117.932, -31.5387, 122.314, -151.47, 120.438, 86.9047, 0, 0, 1.24192, -54.6126, 1.25674, -174.544, 1.27124, 63.8308, 0.0301496, -162.74
1, 240.00000, 117.932, -31.5387, 122.314, -151.47, 120.438, 86.9047, 0, 0, 1.24192, -54.6126, 1.25674, -174.544, 1.27124, 63.8307, 0.0301503, -162.74
1, 300.00000, 117.932, -31.5387, 122.314, -151.47, 120.438, 86.9046, 0, 0, 1.24192, -54.6126, 1.25674, -174.544, 1.27124, 63.8307, 0.030151, -162.741
1, 360.00000, 117.932, -31.5387, 122.314, -151.47, 120.438, 86.9046, 0, 0, 1.24192, -54.6126, 1.25674, -174.544, 1.27124, 63.8307, 0.0301516, -162.741
1, 420.00000, 117.932, -31.5387, 122.314, -151.47, 120.438, 86.9046, 0, 0, 1.24192, -54.6126, 1.25674, -174.544, 1.27124, 63.8307, 0.0301522, -162.741
1, 480.00000, 117.932, -31.5387, 122.314, -151.47, 120.438, 86.9046, 0, 0, 1.24192, -54.6126, 1.25674, -174.544, 1.27124, 63.8307, 0.0301527, -162.742
1, 540.00000, 117.932, -31.5387, 122.315, -151.47, 120.438, 86.9046, 0, 0, 1.24192, -54.6126, 1.25674, -174.544, 1.27124, 63.8307, 0.0301531, -162.742
1, 600.00000, 117.932, -31.5387, 122.315, -151.47, 120.438, 86.9046, 0, 0, 1.24192, -54.6126, 1.25674, -174.544, 1.27124, 63.8307, 0.0301535, -162.742
1, 660.00000, 117.932, -31.5387, 122.315, -151.47, 120.438, 86.9046, 0, 0, 1.24192, -54.6126, 1.25674, -174.544, 1.27124, 63.8307, 0.0301539, -162.742
1, 720.00000, 117.932, -31.5387, 122.315, -151.47, 120.438, 86.9046, 0, 0, 1.24192, -54.6126, 1.25674, -174.544, 1.27124, 63.8306, 0.0301542, -162.742
1, 780.00000, 119.053, -31.745, 122.3, -151.467, 121.422, 87.2619, 0, 0, 1.25503, -54.8189, 1.25689, -174.541, 1.26598, 64.188, 0.0238301, 166.222
1, 840.00000, 119.053, -31.745, 122.3, -151.467, 121.422, 87.2619, 0, 0, 1.25503, -54.8189, 1.25689, -174.541, 1.26598, 64.188, 0.0238304, 166.223
1, 900.00000, 119.053, -31.745, 122.3, -151.467, 121.422, 87.2619, 0, 0, 1.25503, -54.8189, 1.25689, -174.541, 1.26598, 64.188, 0.0238307, 166.223
1, 960.00000, 119.053, -31.745, 122.3, -151.467, 121.422, 87.2619, 0, 0, 1.25503, -54.8189, 1.25689, -174.541, 1.26598, 64.188, 0.0238309, 166.223
1, 1020.00000, 119.053, -31.745, 122.3, -151.467, 121.422, 87.2619, 0, 0, 1.25503, -54.8189, 1.25689, -174.541, 1.26598, 64.188, 0.023831, 166.223
1, 1080.00000, 119.053, -31.745, 122.3, -151.467, 121.422, 87.2619, 0, 0, 1.25503, -54.8189, 1.25689, -174.541, 1.26598, 64.188, 0.0238312, 166.223
1, 1140.00000, 119.053, -31.745, 122.3, -151.467, 121.422, 87.2619, 0, 0, 1.25503, -54.8189, 1.25689, -174.541, 1.26598, 64.188, 0.0238314, 166.223
1, 1200.00000, 119.053, -31.745, 122.3, -151.467, 121.422, 87.2619, 0, 0, 1.25503, -54.8189, 1.25689, -174.541, 1.26598, 64.188, 0.0238315, 166.223
1, 1260.00000, 119.053, -31.745, 122.3, -151.467, 121.422, 87.2619, 0, 0, 1.25503, -54.8189, 1.25689, -174.541, 1.26598, 64.188, 0.0238316, 166.223
1, 1320.00000, 119.053, -31.745, 122.3, -151.467, 121.422, 87.2619, 0, 0, 1.25503, -54.8189, 1.25689, -174.541, 1.26598, 64.188, 0.0238317, 166.223
1, 1380.00000, 119.053, -31.745, 122.3, -151.467, 121.422, 87.2619, 0, 0, 1.25503, -54.8189, 1.25689, -174.541, 1.26598, 64.188, 0.0238318, 166.223
1, 1440.00000, 119.053, -31.745, 122.3, -151.467, 121.422, 87.2619, 0, 0, 1.25503, -54.8189, 1.25689, -174.541, 1.26598, 64.188, 0.0238319, 166.224
1, 1500.00000, 119.053, -31.745, 122.3, -151.467, 121.422, 87.2619, 0, 0, 1.25503, -54.8189, 1.25689, -174.541, 1.26598, 64.188, 0.023832, 166.224
1, 1560.00000, 119.053, -31.745, 122.3, -151.467, 121.422, 87.2619, 0, 0, 1.25503, -54.8189, 1.25689, -174.541, 1.26598, 64.1879, 0.0238321, 166.224
1, 1620.00000, 119.053, -31.745, 122.3, -151.467, 121.422, 87.2619, 0, 0, 1.25503, -54.8189, 1.25689, -174.541, 1.26598, 64.1879, 0.0238321, 166.224
1, 1680.00000, 119.053, -31.745, 122.3, -151.467, 121.422, 87.2619, 0, 0, 1.25503, -54.8189, 1.25689, -174.541, 1.26598, 64.1879, 0.0238322, 166.224
1, 1740.00000, 119.053, -31.745, 122.3, -151.467, 121.422, 87.2619, 0, 0, 1.25503, -54.8189, 1.25689, -174.541, 1.26598, 64.1879, 0.0238322, 166.224
1, 1800.00000, 119.053, -31.745, 122.3, -151.467, 121.422, 87.2619, 0, 0, 1.25503, -54.8189, 1.25689, -174.541, 1.26598, 64.1879, 0.0238323, 166.224
1, 1860.00000, 119.053, -31.745, 122.3, -151.467, 121.422, 87.2619, 0, 0, 1.25503, -54.8189, 1.25689, -174.541, 1.26598, 64.1879, 0.0238323, 166.224
1, 1920.00000, 119.053, -31.745, 122.3, -151.467, 121.422, 87.2619, 0, 0, 1.25503, -54.8189, 1.25689, -174.541, 1.26598, 64.1879, 0.0238324, 166.224
1, 1980.00000, 119.053, -31.745, 122.3, -151.467, 121.422, 87.2619, 0, 0, 1.25503, -54.8189, 1.25689, -174.541, 1.26598, 64.1879, 0.0238324, 166.224
1, 2040.00000, 119.053, -31.745, 122.3, -151.467, 121.422, 87.2619, 0, 0, 1.25503, -54.8189, 1.25689, -174.541, 1.26598, 64.1879, 0.0238324, 166.224
1, 2100.00000, 119.053, -31.745, 122.3, -151.467, 121.422, 87.2619, 0, 0, 1.25503, -54.8189, 1.25689, -174.541, 1.26598, 64.1879, 0.0238324, 166.224
1, 2160.00000, 119.053, -31.745, 122.3, -151.467, 121.422, 87.2619, 0, 0, 1.25503, -54.8189, 1.25689, -174.541, 1.26598, 64.1879, 0.0238325, 166.224
1, 2220.00000, 119.405, -31.5454, 122.959, -151.504, 121.351, 87.2716, 0, 0, 1.25915, -54.6193, 1.25016, -174.578, 1.26672, 64.1976, 0.0361136, 173.155
1, 2280.00000, 119.405, -31.5454, 122.959, -151.504, 121.351, 87.2716, 0, 0, 1.25915, -54.6193, 1.25016, -174.578, 1.26672, 64.1977, 0.0361139, 173.156
1, 2340.00000, 119.405, -31.5454, 122.959, -151.504, 121.351, 87.2716, 0, 0, 1.25915, -54.6193, 1.25016, -174.578, 1.26672, 64.1976, 0.036114, 173.156
1, 2400.00000, 119.405, -31.5454, 122.959, -151.504, 121.351, 87.2716, 0, 0, 1.25915, -54.6193, 1.25016, -174.578, 1.26672, 64.1976, 0.036114, 173.156
1, 2460.00000, 119.405, -31.5454, 122.959, -151.504, 121.351, 87.2716, 0, 0, 1.25915, -54.6193, 1.25016, -174.578, 1.26672, 64.1976, 0.036114, 173.156
1, 2520.00000, 119.405, -31.5454, 122.959, -151.504, 121.351, 87.2716, 0, 0, 1.25915, -54.6193, 1.25016, -174.578, 1.26672, 64.1976, 0.036114, 173.156
1, 2580.00000, 119.405, -31.5454, 122.959, -151.504, 121.351, 87.2716, 0, 0, 1.25915, -54.6193, 1.25016, -174.578, 1.26672, 64.1976, 0.036114, 173.156
1, 2640.00000, 119.405, -31.5454, 122.959, -151.504, 121.351, 87.2716, 0, 0, 1.25915, -54.6193, 1.25016, -174.578, 1.26672, 64.1976, 0.036114, 173.156
1, 2700.00000, 119.405, -31.5454, 122.959, -151.504, 121.351, 87.2716, 0, 0, 1.25915, -54.6193, 1.25016, -174.578, 1.26672, 64.1976, 0.036114, 173.156
1, 2760.00000, 119.405, -31.5454, 122.959, -151.504, 121.351, 87.2716, 0, 0, 1.25915, -54.6193, 1.25016, -174.578, 1.26672, 64.1976, 0.036114, 173.156
1, 2820.00000, 119.405, -31.5454, 122.959, -151.504, 121.351, 87.2716, 0, 0, 1.25915, -54.6193, 1.25016, -174.578, 1.26672, 64.1976, 0.0361141, 173.156
1, 2880.00000, 119.405, -31.5454, 122.959, -151.504, 121.351, 87.2716, 0, 0, 1.25915, -54.6193, 1.25016, -174.578, 1.26672, 64.1976, 0.0361141, 173.156
1, 2940.00000, 119.405, -31.5454, 122.959, -151.504, 121.351, 87.2716, 0, 0, 1.25915, -54.6193, 1.25016, -174.578, 1.26672, 64.1976, 0.0361141, 173.156
1, 3000.00000, 119.405, -31.5454, 122.959, -151.504, 121.351, 87.2716, 0, 0, 1.25915, -54.6193, 1.25016, -174.578, 1.26672, 64.1976, 0.0361141, 173.156
1, 3060.00000, 119.405, -31.5454, 122.959, -151.504, 121.351, 87.2716, 0, 0, 1.25915, -54.6193, 1.25016, -174.578, 1.26672, 64.1976, 0.0361141, 173.156
1, 3120.00000, 119.405, -31.5454, 122.959, -151.504, 121.351, 87.2716, 0, 0, 1.25915, -54.6193, 1.25016, -174.578, 1.26672, 64.1976, 0.0361141, 173.156
1, 3180.00000, 119.405, -31.5454, 122.959, -151.504, 121.351, 87.2716, 0, 0, 1.25915, -54.6193, 1.25016, -174.578, 1.26672, 64.1976, 0.0361141, 173.156
1, 3240.00000, 119.405, -31.5454, 122.959, -151.504, 121.351, 87.2716, 0, 0, 1.25915, -54.6193, 1.25016, -174.578, 1.26672, 64.1976, 0.0361141, 173.156
1, 3300.00000, 119.405, -31.5454, 122.959, -151.504, 121.351, 87.2716, 0, 0, 1.25915, -54.6193, 1.25016, -174.578, 1.26672, 64.1976, 0.0361141, 173.156
1, 3360.00000, 119.405, -31.5454, 122.959, -151.504, 121.351, 87.2716, 0, 0, 1.25915, -54.6193, 1.25016, -174.578, 1.26672, 64.1976, 0.0361141, 173.156
1, 3420.00000, 119.405, -31.5454, 122.959, -151.504, 121.351, 87.2716, 0, 0, 1.25915, -54.6193, 1.25016, -174.578, 1.26672, 64.1976, 0.0361141, 173.156
1, 3480.00000, 119.405, -31.5454, 122.959, -151.504, 121.351, 87.2716, 0, 0, 1.25915, -54.6193, 1.25016, -174.578, 1.26672, 64.1976, 0.0361141, 173.156
1, 3540.00000, 119.405, -31.5454, 122.959, -151.504, 121.351, 87.2716, 0, 0, 1.25915, -54.6193, 1.25016, -174.578, 1.26672, 64.1976, 0.0361141, 173.156
2, 0.00000, 119.405, -31.5454, 122.959, -151.504, 121.351, 87.2716, 0, 0, 1.25915, -54.6193, 1.25016, -174.578, 1.26672, 64.1976, 0.0361141, 173.156
2, 60.00000, 119.405, -31.5454, 122.959, -151.504, 121.351, 87.2716, 0, 0, 1.25915, -54.6193, 1.25016, -174.578, 1.26672, 64.1976, 0.0361141, 173.156
2, 120.00000, 119.405, -31.5454, 122.959, -151.504, 121.351, 87.2716, 0, 0, 1.25915, -54.6193, 1.25016, -174.578, 1.26672, 64.1976, 0.0361141, 173.156
2, 180.00000, 119.405, -31.5454, 122.959, -151.504, 121.351, 87.2716, 0, 0, 1.25915, -54.6193, 1.25016, -174.578, 1.26672, 64.1976, 0.0361141, 173.156
2, 240.00000, 119.405, -31.5454, 122.959, -151.504, 121.351, 87.2716, 0, 0, 1.25915, -54.6193, 1.25016, -174.578, 1.26672, 64.1976, 0.0361141, 173.156
2, 300.00000, 119.405, -31.5454, 122.959, -151.504, 121.351, 87.2716, 0, 0, 1.25915, -54.6193, 1.25016, -174.578, 1.26672, 64.1976, 0.0361141, 173.156
2, 360.00000, 119.405, -31.5454, 122.959, -151.504, 121.351, 87.2716, 0, 0, 1.25915, -54.6193, 1.25016, -174.578, 1.26672, 64.1976, 0.0361141, 173.156
2, 420.00000, 119.405, -31.5454, 122.959, -151.504, 121.351, 87.2716, 0, 0, 1.25915, -54.6193, 1.25016, -174.578, 1.26672, 64.1976, 0.0361141, 173.156
2, 480.00000, 119.405, -31.5454, 122.959, -151.504, 121.351, 87.2716, 0, 0, 1.25915, -54.6193, 1.25016, -174.578, 1.26672, 64.1976, 0.0361141, 173.156
2, 540.00000, 119.405, -31.5454, 122.959, -151.504, 121.351, 87.2716, 0, 0, 1.25915, -54.6193, 1.25016, -174.578, 1.26672, 64.1976, 0.0361141, 173.156
2, 600.00000, 119.405, -31.5454, 122.959, -151.504, 121.351, 87.2716, 0, 0, 1.25915, -54.6193, 1.25016, -174.578, 1.26672, 64.1976, 0.0361141, 173.156
2, 660.00000, 119.405, -31.5454, 122.959, -151.504, 121.351, 87.2716, 0, 0, 1.25915, -54.6193, 1.25016, -174.578, 1.26672, 64.1976, 0.0361141, 173.156
2, 720.00000, 119.405, -31.5454, 122.959, -151.504, 121.351, 87.2716, 0, 0, 1.25915, -54.6193, 1.25016, -174.578, 1.26672, 64.1976, 0.0361141, 173.156
