hour,t(sec),V1,VAngle1,V2,VAngle2,V3,VAngle3,V4,VAngle4,I1,IAngle1,I2,IAngle2,I3,IAngle3,I4,IAngle4
0, 60.00000, 117.504, -31.2356, 116.57, -151.55, 117.074, 89.0895, 0, 0, 8.87276, -54.3093, 8.79436, -174.624, 8.83659, 66.0158, 0.0452573, -106.309
0, 120.00000, 117.504, -31.2356, 116.57, -151.55, 117.074, 89.0894, 0, 0, 8.87269, -54.3095, 8.79428, -174.624, 8.83652, 66.0155, 0.0452534, -106.33
0, 180.00000, 117.504, -31.2356, 116.57, -151.55, 117.074, 89.0894, 0, 0, 8.87269, -54.3095, 8.79428, -174.624, 8.83652, 66.0155, 0.0452535, -106.33
0, 240.00000, 117.504, -31.2356, 116.57, -151.55, 117.074, 89.0894, 0, 0, 8.87269, -54.3095, 8.79428, -174.624, 8.83652, 66.0155, 0.0452535, -106.33
0, 300.00000, 117.504, -31.2356, 116.57, -151.55, 117.074, 89.0894, 0, 0, 8.87269, -54.3095, 8.79428, -174.624, 8.83652, 66.0155, 0.0452535, -106.33
0, 360.00000, 117.504, -31.2356, 116.57, -151.55, 117.074, 89.0894, 0, 0, 8.87269, -54.3095, 8.79428, -174.624, 8.83652, 66.0155, 0.0452535, -106.33
0, 420.00000, 117.504, -31.2356, 116.57, -151.55, 117.074, 89.0894, 0, 0, 8.87269, -54.3095, 8.79428, -174.624, 8.83652, 66.0155, 0.0452535, -106.33
0, 480.00000, 118.506, -31.1414, 117.507, -151.464, 117.988, 89.2034, 0, 0, 7.7923, -54.2157, 7.71937, -174.538, 7.75454, 66.1291, 0.0366434, -106.144
0, 540.00000, 118.506, -31.1414, 117.507, -151.464, 117.988, 89.2034, 0, 0, 7.79239, -54.2153, 7.71945, -174.538, 7.7546, 66.1295, 0.036635, -106.133
0, 600.00000, 118.506, -31.1414, 117.507, -151.464, 117.988, 89.2034, 0, 0, 7.79239, -54.2153, 7.71945, -174.538, 7.7546, 66.1295, 0.0366349, -106.133
0, 660.00000, 118.506, -31.1414, 117.507, -151.464, 117.988, 89.2034, 0, 0, 7.79239, -54.2153, 7.71945, -174.538, 7.7546, 66.1295, 0.0366349, -106.133
0, 720.00000, 118.506, -31.1414, 117.507, -151.464, 117.988, 89.2034, 0, 0, 7.79239, -54.2153, 7.71945, -174.538, 7.7546, 66.1295, 0.0366349, -106.133
0, 780.00000, 118.506, -31.1414, 117.507, -151.464, 117.988, 89.2034, 0, 0, 7.79239, -54.2153, 7.71945, -174.538, 7.7546, 66.1295, 0.0366349, -106.133
0, 840.00000, 118.506, -31.1414, 117.507, -151.464, 117.988, 89.2034, 0, 0, 7.79239, -54.2153, 7.71945, -174.538, 7.7546, 66.1295, 0.0366349, -106.133
0, 900.00000, 118.506, -31.1414, 117.507, -151.464, 117.988, 89.2034, 0, 0, 7.79239, -54.2153, 7.71945, -174.538, 7.7546, 66.1295, 0.0366349, -106.133
0, 960.00000, 117.139, -31.5599, 116.086, -151.104, 118.065, 89.1839, 0, 0, 7.69266, -54.6337, 7.61573, -174.178, 7.76016, 66.1099, 0.0531353, -110.732
0, 1020.00000, 117.139, -31.5599, 116.086, -151.104, 118.065, 89.1839, 0, 0, 7.6926, -54.6339, 7.61565, -174.178, 7.76018, 66.11, 0.0531966, -110.74
0, 1080.00000, 117.139, -31.5599, 116.086, -151.104, 118.065, 89.1839, 0, 0, 7.6926, -54.6339, 7.61565, -174.178, 7.76018, 66.11, 0.0531968, -110.74
0, 1140.00000, 117.139, -31.5599, 116.086, -151.104, 118.065, 89.1839, 0, 0, 7.6926, -54.6339, 7.61565, -174.178, 7.76018, 66.11, 0.0531968, -110.74
0, 1200.00000, 117.139, -31.5599, 116.086, -151.104, 118.065, 89.1839, 0, 0, 7.6926, -54.6339, 7.61565, -174.178, 7.76018, 66.11, 0.0531968, -110.74
0, 1260.00000, 117.139, -31.5599, 116.086, -151.104, 118.065, 89.1839, 0, 0, 7.6926, -54.6339, 7.61565, -174.178, 7.76018, 66.11, 0.0531968, -110.74
0, 1320.00000, 117.139, -31.5599, 116.086, -151.104, 118.065, 89.1839, 0, 0, 7.6926, -54.6339, 7.61565, -174.178, 7.76018, 66.11, 0.0531968, -110.74
0, 1380.00000, 117.139, -31.5599, 116.086, -151.104, 118.065, 89.1839, 0, 0, 7.6926, -54.6339, 7.61565, -174.178, 7.76018, 66.11, 0.0531968, -110.74
0, 1440.00000, 117.139, -31.5599, 116.086, -151.104, 118.065, 89.1839, 0, 0, 7.6926, -54.6339, 7.61565, -174.178, 7.76018, 66.11, 0.0531968, -110.74
0, 1500.00000, 117.139, -31.5599, 116.086, -151.104, 118.065, 89.1839, 0, 0, 7.6926, -54.6339, 7.61565, -174.178, 7.76018, 66.11, 0.0531968, -110.74
0, 1560.00000, 117.139, -31.5599, 116.086, -151.104, 118.065, 89.1839, 0, 0, 7.6926, -54.6339, 7.61565, -174.178, 7.76018, 66.11, 0.0531968, -110.74
0, 1620.00000, 117.139, -31.5599, 116.086, -151.104, 118.065, 89.1839, 0, 0, 7.6926, -54.6339, 7.61565, -174.178, 7.76018, 66.11, 0.0531968, -110.74
0, 1680.00000, 117.139, -31.5599, 116.086, -151.104, 118.065, 89.1839, 0, 0, 7.6926, -54.6339, 7.61565, -174.178, 7.76018, 66.11, 0.0531968, -110.74
0, 1740.00000, 117.139, -31.5599, 116.086, -151.104, 118.065, 89.1839, 0, 0, 7.6926, -54.6339, 7.61565, -174.178, 7.76018, 66.11, 0.0531968, -110.74
0, 1800.00000, 117.139, -31.5599, 116.086, -151.104, 118.065, 89.1839, 0, 0, 7.6926, -54.6339, 7.61565, -174.178, 7.76018, 66.11, 0.0531968, -110.74
0, 1860.00000, 117.139, -31.5599, 116.086, -151.104, 118.065, 89.1839, 0, 0, 7.6926, -54.6339, 7.61565, -174.178, 7.76018, 66.11, 0.0531968, -110.74
0, 1920.00000, 117.139, -31.5599, 116.086, -151.104, 118.065, 89.1839, 0, 0, 7.6926, -54.6339, 7.61565, -174.178, 7.76018, 66.11, 0.0531968, -110.74
0, 1980.00000, 117.139, -31.5599, 116.086, -151.104, 118.065, 89.1839, 0, 0, 7.6926, -54.6339, 7.61565, -174.178, 7.76018, 66.11, 0.0531968, -110.74
0, 2040.00000, 117.139, -31.5599, 116.086, -151.104, 118.065, 89.1839, 0, 0, 7.6926, -54.6339, 7.61565, -174.178, 7.76018, 66.11, 0.0531968, -110.74
0, 2100.00000, 117.139, -31.5599, 116.086, -151.104, 118.065, 89.1839, 0, 0, 7.6926, -54.6339, 7.61565, -174.178, 7.76018, 66.11, 0.0531968, -110.74
0, 2160.00000, 117.139, -31.5599, 116.086, -151.104, 118.065, 89.1839, 0, 0, 7.6926, -54.6339, 7.61565, -174.178, 7.76018, 66.11, 0.0531968, -110.74
0, 2220.00000, 117.139, -31.5599, 116.086, -151.104, 118.065, 89.1839, 0, 0, 7.6926, -54.6339, 7.61565, -174.178, 7.76018, 66.11, 0.0531968, -110.74
0, 2280.00000, 117.139, -31.5599, 116.086, -151.104, 118.065, 89.1839, 0, 0, 7.6926, -54.6339, 7.61565, -174.178, 7.76018, 66.11, 0.0531968, -110.74
0, 2340.00000, 117.139, -31.5599, 116.086, -151.104, 118.065, 89.1839, 0, 0, 7.6926, -54.6339, 7.61565, -174.178, 7.76018, 66.11, 0.0531968, -110.74
0, 2400.00000, 117.139, -31.5599, 116.086, -151.104, 118.065, 89.1839, 0, 0, 7.6926, -54.6339, 7.61565, -174.178, 7.76018, 66.11, 0.0531968, -110.74
0, 2460.00000, 117.139, -31.5599, 116.086, -151.104, 118.065, 89.1839, 0, 0, 7.6926, -54.6339, 7.61565, -174.178, 7.76018, 66.11, 0.0531968, -110.74
0, 2520.00000, 117.139, -31.5599, 116.086, -151.104, 118.065, 89.1839, 0, 0, 7.6926, -54.6339, 7.61565, -174.178, 7.76018, 66.11, 0.0531968, -110.74
0, 2580.00000, 117.139, -31.5599, 116.086, -151.104, 118.065, 89.1839, 0, 0, 7.6926, -54.6339, 7.61565, -174.178, 7.76018, 66.11, 0.0531968, -110.74
0, 2640.00000, 117.139, -31.5599, 116.086, -151.104, 118.065, 89.1839, 0, 0, 7.6926, -54.6339, 7.61565, -174.178, 7.76018, 66.11, 0.0531968, -110.74
0, 2700.00000, 117.139, -31.5599, 116.086, -151.104, 118.065, 89.1839, 0, 0, 7.6926, -54.6339, 7.61565, -174.178, 7.76018, 66.11, 0.0531968, -110.74
0, 2760.00000, 117.288, -31.4093, 116.434, -151.087, 118.052, 89.1881, 0, 0, 7.70339, -54.4833, 7.64105, -174.161, 7.75924, 66.1142, 0.0497437, -108.315
0, 2820.00000, 117.288, -31.4093, 116.434, -151.087, 118.051, 89.1881, 0, 0, 7.70343, -54.4833, 7.64112, -174.161, 7.75921, 66.1142, 0.0496354, -108.294
0, 2880.00000, 117.288, -31.4093, 116.434, -151.087, 118.051, 89.1881, 0, 0, 7.70343, -54.4833, 7.64112, -174.161, 7.75921, 66.1142, 0.0496348, -108.294
0, 2940.00000, 117.288, -31.4093, 116.434, -151.087, 118.051, 89.1881, 0, 0, 7.70343, -54.4833, 7.64112, -174.161, 7.75921, 66.1142, 0.0496348, -108.294
0, 3000.00000, 117.288, -31.4093, 116.434, -151.087, 118.051, 89.1881, 0, 0, 7.70343, -54.4833, 7.64112, -174.161, 7.75921, 66.1142, 0.0496348, -108.294
0, 3060.00000, 117.288, -31.4093, 116.434, -151.087, 118.051, 89.1881, 0, 0, 7.70343, -54.4833, 7.64112, -174.161, 7.75921, 66.1142, 0.0496348, -108.294
0, 3120.00000, 117.288, -31.4093, 116.434, -151.087, 118.051, 89.1881, 0, 0, 7.70343, -54.4833, 7.64112, -174.161, 7.75921, 66.1142, 0.0496348, -108.294
0, 3180.00000, 117.288, -31.4093, 116.434, -151.087, 118.051, 89.1881, 0, 0, 7.70343, -54.4833, 7.64112, -174.161, 7.75921, 66.1142, 0.0496348, -108.294
0, 3240.00000, 117.288, -31.4093, 116.434, -151.087, 118.051, 89.1881, 0, 0, 7.70343, -54.4833, 7.64112, -174.161, 7.75921, 66.1142, 0.0496348, -108.294
0, 3300.00000, 117.288, -31.4093, 116.434, -151.087, 118.051, 89.1881, 0, 0, 7.70343, -54.4833, 7.64112, -174.161, 7.75921, 66.1142, 0.0496348, -108.294
0, 3360.00000, 117.288, -31.4093, 116.434, -151.087, 118.051, 89.1881, 0, 0, 7.70343, -54.4833, 7.64112, -174.161, 7.75921, 66.1142, 0.0496348, -108.294
0, 3420.00000, 117.288, -31.4093, 116.434, -151.087, 118.051, 89.1881, 0, 0, 7.70343, -54.4833, 7.64112, -174.161, 7.75921, 66.1142, 0.0496348, -108.294
0, 3480.00000, 117.288, -31.4093, 116.434, -151.087, 118.051, 89.1881, 0, 0, 7.70343, -54.4833, 7.64112, -174.161, 7.75921, 66.1142, 0.0496348, -108.294
0, 3540.00000, 117.288, -31.4093, 116.434, -151.087, 118.051, 89.1881, 0, 0, 7.70343, -54.4833, 7.64112, -174.161, 7.75921, 66.1142, 0.0496348, -108.294
1, 0.00000, 117.288, -31.4093, 116.434, -151.087, 118.051, 89.1881, 0, 0, 7.70343, -54.4833, 7.64112, -174.161, 7.75921, 66.1142, 0.0496348, -108.294
1, 60.00000, 117.597, -31.3793, 116.433, -151.087, 118.163, 89.3257, 0, 0, 7.72594, -54.4535, 7.64105, -174.161, 7.76732, 66.2517, 0.0495267, -111.605
1, 120.00000, 117.597, -31.3793, 116.433, -151.087, 118.163, 89.3257, 0, 0, 7.72602, -54.4532, 7.64103, -174.161, 7.76734, 66.2518, 0.0495479, -111.707
1, 180.00000, 117.597, -31.3793, 116.433, -151.087, 118.163, 89.3257, 0, 0, 7.72602, -54.4532, 7.64103, -174.161, 7.76734, 66.2518, 0.0495481, -111.708
1, 240.00000, 117.597, -31.3793, 116.433, -151.087, 118.163, 89.3257, 0, 0, 7.72602, -54.4532, 7.64103, -174.161, 7.76734, 66.2518, 0.0495481, -111.708
1, 300.00000, 117.597, -31.3793, 116.433, -151.087, 118.163, 89.3257, 0, 0, 7.72602, -54.4532, 7.64103, -174.161, 7.76734, 66.2518, 0.0495481, -111.708
1, 360.00000, 117.597, -31.3793, 116.433, -151.087, 118.163, 89.3257, 0, 0, 7.72602, -54.4532, 7.64103, -174.161, 7.76734, 66.2518, 0.0495481, -111.708
1, 420.00000, 117.597, -31.3793, 116.433, -151.087, 118.163, 89.3257, 0, 0, 7.72602, -54.4532, 7.64103, -174.161, 7.76734, 66.2518, 0.0495481, -111.708
1, 480.00000, 117.597, -31.3793, 116.433, -151.087, 118.163, 89.3257, 0, 0, 7.72602, -54.4532, 7.64103, -174.161, 7.76734, 66.2518, 0.0495481, -111.708
1, 540.00000, 117.597, -31.3793, 116.433, -151.087, 118.163, 89.3257, 0, 0, 7.72602, -54.4532, 7.64103, -174.161, 7.76734, 66.2518, 0.0495481, -111.708
1, 600.00000, 117.597, -31.3793, 116.433, -151.087, 118.163, 89.3257, 0, 0, 7.72602, -54.4532, 7.64103, -174.161, 7.76734, 66.2518, 0.0495481, -111.708
1, 660.00000, 117.597, -31.3793, 116.433, -151.087, 118.163, 89.3257, 0, 0, 7.72602, -54.4532, 7.64103, -174.161, 7.76734, 66.2518, 0.0495481, -111.708
1, 720.00000, 117.597, -31.3793, 116.433, -151.087, 118.163, 89.3257, 0, 0, 7.72602, -54.4532, 7.64103, -174.161, 7.76734, 66.2518, 0.0495481, -111.708
1, 780.00000, 117.597, -31.3793, 116.433, -151.087, 118.163, 89.3257, 0, 0, 7.72602, -54.4532, 7.64103, -174.161, 7.76734, 66.2518, 0.0495481, -111.708
1, 840.00000, 117.597, -31.3793, 116.433, -151.087, 118.163, 89.3257, 0, 0, 7.72602, -54.4532, 7.64103, -174.161, 7.76734, 66.2518, 0.0495481, -111.708
1, 900.00000, 117.597, -31.3793, 116.433, -151.087, 118.163, 89.3257, 0, 0, 7.72602, -54.4532, 7.64103, -174.161, 7.76734, 66.2518, 0.0495481, -111.708
1, 960.00000, 117.597, -31.3793, 116.433, -151.087, 118.163, 89.3257, 0, 0, 7.72602, -54.4532, 7.64103, -174.161, 7.76734, 66.2518, 0.0495481, -111.708
1, 1020.00000, 117.597, -31.3793, 116.433, -151.087, 118.163, 89.3257, 0, 0, 7.72602, -54.4532, 7.64103, -174.161, 7.76734, 66.2518, 0.0495481, -111.708
1, 1080.00000, 117.597, -31.3793, 116.433, -151.087, 118.163, 89.3257, 0, 0, 7.72602, -54.4532, 7.64103, -174.161, 7.76734, 66.2518, 0.0495481, -111.708
1, 1140.00000, 117.597, -31.3793, 116.433, -151.087, 118.163, 89.3257, 0, 0, 7.72602, -54.4532, 7.64103, -174.161, 7.76734, 66.2518, 0.0495481, -111.708
1, 1200.00000, 117.597, -31.3793, 116.433, -151.087, 118.163, 89.3257, 0, 0, 7.72602, -54.4532, 7.64103, -174.161, 7.76734, 66.2518, 0.0495481, -111.708
1, 1260.00000, 117.597, -31.3793, 116.433, -151.087, 118.163, 89.3257, 0, 0, 7.72602, -54.4532, 7.64103, -174.161, 7.76734, 66.2518, 0.0495481, -111.708
1, 1320.00000, 117.597, -31.3793, 116.433, -151.087, 118.163, 89.3257, 0, 0, 7.72602, -54.4532, 7.64103, -174.161, 7.76734, 66.2518, 0.0495481, -111.708
1, 1380.00000, 117.597, -31.3793, 116.433, -151.087, 118.163, 89.3257, 0, 0, 7.72602, -54.4532, 7.64103, -174.161, 7.76734, 66.2518, 0.0495481, -111.708
1, 1440.00000, 117.597, -31.3793, 116.433, -151.087, 118.163, 89.3257, 0, 0, 7.72602, -54.4532, 7.64103, -174.161, 7.76734, 66.2518, 0.0495481, -111.708
1, 1500.00000, 117.597, -31.3793, 116.433, -151.087, 118.163, 89.3257, 0, 0, 7.72602, -54.4532, 7.64103, -174.161, 7.76734, 66.2518, 0.0495481, -111.708
1, 1560.00000, 117.597, -31.3793, 116.433, -151.087, 118.163, 89.3257, 0, 0, 7.72602, -54.4532, 7.64103, -174.161, 7.76734, 66.2518, 0.0495481, -111.708
1, 1620.00000, 117.597, -31.3793, 116.433, -151.087, 118.163, 89.3257, 0, 0, 7.72602, -54.4532, 7.64103, -174.161, 7.76734, 66.2518, 0.0495481, -111.708
1, 1680.00000, 117.597, -31.3793, 116.433, -151.087, 118.163, 89.3257, 0, 0, 7.72602, -54.4532, 7.64103, -174.161, 7.76734, 66.2518, 0.0495481, -111.708
1, 1740.00000, 117.597, -31.3793, 116.433, -151.087, 118.163, 89.3257, 0, 0, 7.72602, -54.4532, 7.64103, -174.161, 7.76734, 66.2518, 0.0495481, -111.708
1, 1800.00000, 117.597, -31.3793, 116.433, -151.087, 118.163, 89.3257, 0, 0, 7.72602, -54.4532, 7.64103, -174.161, 7.76734, 66.2518, 0.0495481, -111.708
1, 1860.00000, 117.597, -31.3793, 116.433, -151.087, 118.163, 89.3257, 0, 0, 7.72602, -54.4532, 7.64103, -174.161, 7.76734, 66.2518, 0.0495481, -111.708
1, 1920.00000, 117.597, -31.3793, 116.433, -151.087, 118.163, 89.3257, 0, 0, 7.72602, -54.4532, 7.64103, -174.161, 7.76734, 66.2518, 0.0495481, -111.708
1, 1980.00000, 117.597, -31.3793, 116.433, -151.087, 118.163, 89.3257, 0, 0, 7.72602, -54.4532, 7.64103, -174.161, 7.76734, 66.2518, 0.0495481, -111.708
1, 2040.00000, 117.597, -31.3793, 116.433, -151.087, 118.163, 89.3257, 0, 0, 7.72602, -54.4532, 7.64103, -174.161, 7.76734, 66.2518, 0.0495481, -111.708
1, 2100.00000, 117.597, -31.3793, 116.433, -151.087, 118.163, 89.3257, 0, 0, 7.72602, -54.4532, 7.64103, -174.161, 7.76734, 66.2518, 0.0495481, -111.708
1, 2160.00000, 117.597, -31.3793, 116.433, -151.087, 118.163, 89.3257, 0, 0, 7.72602, -54.4532, 7.64103, -174.161, 7.76734, 66.2518, 0.0495481, -111.708
1, 2220.00000, 117.597, -31.3793, 116.433, -151.087, 118.163, 89.3257, 0, 0, 7.72602, -54.4532, 7.64103, -174.161, 7.76734, 66.2518, 0.0495481, -111.708
1, 2280.00000, 117.597, -31.3793, 116.433, -151.087, 118.163, 89.3257, 0, 0, 7.72602, -54.4532, 7.64103, -174.161, 7.76734, 66.2518, 0.0495481, -111.708
1, 2340.00000, 117.597, -31.3793, 116.433, -151.087, 118.163, 89.3257, 0, 0, 7.72602, -54.4532, 7.64103, -174.161, 7.76734, 66.2518, 0.0495481, -111.708
1, 2400.00000, 117.597, -31.3793, 116.433, -151.087, 118.163, 89.3257, 0, 0, 7.72602, -54.4532, 7.64103, -174.161, 7.76734, 66.2518, 0.0495481, -111.708
1, 2460.00000, 117.597, -31.3793, 116.433, -151.087, 118.163, 89.3257, 0, 0, 7.72602, -54.4532, 7.64103, -174.161, 7.76734, 66.2518, 0.0495481, -111.708
1, 2520.00000, 117.597, -31.3793, 116.433, -151.087, 118.163, 89.3257, 0, 0, 7.72602, -54.4532, 7.64103, -174.161, 7.76734, 66.2518, 0.0495481, -111.708
1, 2580.00000, 117.597, -31.3793, 116.433, -151.087, 118.163, 89.3257, 0, 0, 7.72602, -54.4532, 7.64103, -174.161, 7.76734, 66.2518, 0.0495481, -111.708
1, 2640.00000, 117.597, -31.3793, 116.433, -151.087, 118.163, 89.3257, 0, 0, 7.72602, -54.4532, 7.64103, -174.161, 7.76734, 66.2518, 0.0495481, -111.708
1, 2700.00000, 117.597, -31.3793, 116.433, -151.087, 118.163, 89.3257, 0, 0, 7.72602, -54.4532, 7.64103, -174.161, 7.76734, 66.2518, 0.0495481, -111.708
1, 2760.00000, 117.597, -31.3793, 116.433, -151.087, 118.163, 89.3257, 0, 0, 7.72602, -54.4532, 7.64103, -174.161, 7.76734, 66.2518, 0.0495481, -111.708
1, 2820.00000, 117.597, -31.3793, 116.433, -151.087, 118.163, 89.3257, 0, 0, 7.72602, -54.4532, 7.64103, -174.161, 7.76734, 66.2518, 0.0495481, -111.708
1, 2880.00000, 117.597, -31.3793, 116.433, -151.087, 118.163, 89.3257, 0, 0, 7.72602, -54.4532, 7.64103, -174.161, 7.76734, 66.2518, 0.0495481, -111.708
1, 2940.00000, 117.597, -31.3793, 116.433, -151.087, 118.163, 89.3257, 0, 0, 7.72602, -54.4532, 7.64103, -174.161, 7.76734, 66.2518, 0.0495481, -111.708
1, 3000.00000, 117.597, -31.3793, 116.433, -151.087, 118.163, 89.3257, 0, 0, 7.72602, -54.4532, 7.64103, -174.161, 7.76734, 66.2518, 0.0495481, -111.708
1, 3060.00000, 117.597, -31.3793, 116.433, -151.087, 118.163, 89.3257, 0, 0, 7.72602, -54.4532, 7.64103, -174.161, 7.76734, 66.2518, 0.0495481, -111.708
1, 3120.00000, 117.597, -31.3793, 116.433, -151.087, 118.163, 89.3257, 0, 0, 7.72602, -54.4532, 7.64103, -174.161, 7.76734, 66.2518, 0.0495481, -111.708
1, 3180.00000, 117.597, -31.3793, 116.433, -151.087, 118.163, 89.3257, 0, 0, 7.72602, -54.4532, 7.64103, -174.161, 7.76734, 66.2518, 0.0495481, -111.708
1, 3240.00000, 117.597, -31.3793, 116.433, -151.087, 118.163, 89.3257, 0, 0, 7.72602, -54.4532, 7.64103, -174.161, 7.76734, 66.2518, 0.0495481, -111.708
1, 3300.00000, 117.597, -31.3793, 116.433, -151.087, 118.163, 89.3257, 0, 0, 7.72602, -54.4532, 7.64103, -174.161, 7.76734, 66.2518, 0.0495481, -111.708
1, 3360.00000, 117.597, -31.3793, 116.433, -151.087, 118.163, 89.3257, 0, 0, 7.72602, -54.4532, 7.64103, -174.161, 7.76734, 66.2518, 0.0495481, -111.708
1, 3420.00000, 117.597, -31.3793, 116.433, -151.087, 118.163, 89.3257, 0, 0, 7.72602, -54.4532, 7.64103, -174.161, 7.76734, 66.2518, 0.0495481, -111.708
1, 3480.00000, 117.597, -31.3793, 116.433, -151.087, 118.163, 89.3257, 0, 0, 7.72602, -54.4532, 7.64103, -174.161, 7.76734, 66.2518, 0.0495481, -111.708
1, 3540.00000, 117.597, -31.3793, 116.433, -151.087, 118.163, 89.3257, 0, 0, 7.72602, -54.4532, 7.64103, -174.161, 7.76734, 66.2518, 0.0495481, -111.708
2, 0.00000, 117.597, -31.3793, 116.433, -151.087, 118.163, 89.3257, 0, 0, 7.72602, -54.4532, 7.64103, -174.161, 7.76734, 66.2518, 0.0495481, -111.708
2, 60.00000, 117.597, -31.3793, 116.433, -151.087, 118.163, 89.3257, 0, 0, 7.72602, -54.4532, 7.64103, -174.161, 7.76734, 66.2518, 0.0495481, -111.708
2, 120.00000, 117.597, -31.3793, 116.433, -151.087, 118.163, 89.3257, 0, 0, 7.72602, -54.4532, 7.64103, -174.161, 7.76734, 66.2518, 0.0495481, -111.708
2, 180.00000, 117.597, -31.3793, 116.433, -151.087, 118.163, 89.3257, 0, 0, 7.72602, -54.4532, 7.64103, -174.161, 7.76734, 66.2518, 0.0495481, -111.708
2, 240.00000, 117.597, -31.3793, 116.433, -151.087, 118.163, 89.3257, 0, 0, 7.72602, -54.4532, 7.64103, -174.161, 7.76734, 66.2518, 0.0495481, -111.708
2, 300.00000, 117.597, -31.3793, 116.433, -151.087, 118.163, 89.3257, 0, 0, 7.72602, -54.4532, 7.64103, -174.161, 7.76734, 66.2518, 0.0495481, -111.708
2, 360.00000, 117.597, -31.3793, 116.433, -151.087, 118.163, 89.3257, 0, 0, 7.72602, -54.4532, 7.64103, -174.161, 7.76734, 66.2518, 0.0495481, -111.708
2, 420.00000, 117.597, -31.3793, 116.433, -151.087, 118.163, 89.3257, 0, 0, 7.72602, -54.4532, 7.64103, -174.161, 7.76734, 66.2518, 0.0495481, -111.708
2, 480.00000, 117.597, -31.3793, 116.433, -151.087, 118.163, 89.3257, 0, 0, 7.72602, -54.4532, 7.64103, -174.161, 7.76734, 66.2518, 0.0495481, -111.708
2, 540.00000, 117.597, -31.3793, 116.433, -151.087, 118.163, 89.3257, 0, 0, 7.72602, -54.4532, 7.64103, -174.161, 7.76734, 66.2518, 0.0495481, -111.708
2, 600.00000, 117.597, -31.3793, 116.433, -151.087, 118.163, 89.3257, 0, 0, 7.72602, -54.4532, 7.64103, -174.161, 7.76734, 66.2518, 0.0495481, -111.708
2, 660.00000, 117.597, -31.3793, 116.433, -151.087, 118.163, 89.3257, 0, 0, 7.72602, -54.4532, 7.64103, -174.161, 7.76734, 66.2518, 0.0495481, -111.708
