hour,t(sec),V1,VAngle1,V2,VAngle2,V3,VAngle3,V4,VAngle4,I1,IAngle1,I2,IAngle2,I3,IAngle3,I4,IAngle4
0, 60.00000, 118.927, -32.4997, 118.928, -150.925, 122.859, 88.3011, 0, 0, 3.95096, -55.5737, 3.95094, -173.998, 3.94354, 65.2274, 0.101128, 64.701
0, 120.00000, 118.93, -32.5112, 118.928, -150.925, 122.888, 88.2966, 0, 0, 3.95105, -55.5852, 3.95093, -173.999, 3.9426, 65.223, 0.102763, 64.6957
0, 180.00000, 118.932, -32.5216, 118.928, -150.925, 122.914, 88.2926, 0, 0, 3.95113, -55.5956, 3.95092, -173.999, 3.94176, 65.2189, 0.104231, 64.6918
0, 240.00000, 118.934, -32.5309, 118.927, -150.926, 122.937, 88.289, 0, 0, 3.95121, -55.6049, 3.95091, -173.999, 3.941, 65.2153, 0.105551, 64.6883
0, 300.00000, 118.936, -32.5393, 118.927, -150.926, 122.958, 88.2857, 0, 0, 3.95127, -55.6133, 3.9509, -174, 3.94032, 65.212, 0.10674, 64.685
0, 360.00000, 118.938, -32.5469, 118.927, -150.926, 122.976, 88.2828, 0, 0, 3.95133, -55.6209, 3.95089, -174, 3.93971, 65.209, 0.10781, 64.6821
0, 420.00000, 118.939, -32.5537, 118.927, -150.926, 122.993, 88.2801, 0, 0, 3.95138, -55.6277, 3.95088, -174, 3.93916, 65.2063, 0.108773, 64.6795
0, 480.00000, 119.758, -32.4606, 119.707, -150.827, 123.893, 88.4026, 0, 0, 4.17801, -55.5344, 4.17603, -173.901, 4.1035, 65.3289, 0.176234, 64.7529
0, 540.00000, 119.759, -32.4662, 119.707, -150.827, 123.906, 88.4004, 0, 0, 4.17806, -55.54, 4.17602, -173.901, 4.10304, 65.3267, 0.177056, 64.7517
0, 600.00000, 119.76, -32.4712, 119.707, -150.827, 123.918, 88.3984, 0, 0, 4.1781, -55.5451, 4.17601, -173.901, 4.10263, 65.3247, 0.177793, 64.7509
0, 660.00000, 119.761, -32.4758, 119.707, -150.828, 123.929, 88.3966, 0, 0, 4.17814, -55.5496, 4.17601, -173.901, 4.10226, 65.3228, 0.178457, 64.7501
0, 720.00000, 119.762, -32.4798, 119.707, -150.828, 123.939, 88.395, 0, 0, 4.17817, -55.5537, 4.176, -173.901, 4.10192, 65.3212, 0.179054, 64.7494
0, 780.00000, 119.763, -32.4835, 119.707, -150.828, 123.948, 88.3935, 0, 0, 4.1782, -55.5574, 4.176, -173.902, 4.10162, 65.3197, 0.179591, 64.7488
0, 840.00000, 119.764, -32.4868, 119.706, -150.828, 123.956, 88.3922, 0, 0, 4.17823, -55.5607, 4.176, -173.902, 4.10135, 65.3184, 0.180074, 64.7482
0, 900.00000, 119.764, -32.4898, 119.706, -150.828, 123.964, 88.391, 0, 0, 4.17825, -55.5637, 4.17599, -173.902, 4.10111, 65.3172, 0.180509, 64.7477
0, 960.00000, 119.765, -32.4925, 119.706, -150.828, 123.97, 88.39, 0, 0, 4.17827, -55.5664, 4.17599, -173.902, 4.10089, 65.3161, 0.180901, 64.7472
0, 1020.00000, 119.765, -32.4949, 119.706, -150.828, 123.976, 88.389, 0, 0, 4.17829, -55.5688, 4.17599, -173.902, 4.10069, 65.3152, 0.181253, 64.7468
0, 1080.00000, 119.766, -32.4971, 119.706, -150.828, 123.981, 88.3881, 0, 0, 4.17831, -55.571, 4.17599, -173.902, 4.10052, 65.3143, 0.18157, 64.7464
0, 1140.00000, 119.766, -32.499, 119.706, -150.828, 123.986, 88.3874, 0, 0, 4.17833, -55.5729, 4.17598, -173.902, 4.10036, 65.3135, 0.181856, 64.7461
0, 1200.00000, 119.767, -32.5008, 119.706, -150.828, 123.99, 88.3867, 0, 0, 4.17834, -55.5747, 4.17598, -173.902, 4.10021, 65.3128, 0.182112, 64.7457
0, 1260.00000, 119.767, -32.5024, 119.706, -150.828, 123.994, 88.386, 0, 0, 4.17835, -55.5763, 4.17598, -173.902, 4.10009, 65.3122, 0.182344, 64.7455
0, 1320.00000, 119.767, -32.5038, 119.706, -150.828, 123.997, 88.3855, 0, 0, 4.17836, -55.5777, 4.17598, -173.902, 4.09997, 65.3116, 0.182552, 64.7452
0, 1380.00000, 119.768, -32.5051, 119.706, -150.828, 124.001, 88.385, 0, 0, 4.17837, -55.579, 4.17598, -173.902, 4.09986, 65.3111, 0.182739, 64.7449
0, 1440.00000, 119.768, -32.5062, 119.706, -150.828, 124.003, 88.3845, 0, 0, 4.17838, -55.5801, 4.17598, -173.902, 4.09977, 65.3106, 0.182907, 64.7447
0, 1500.00000, 119.768, -32.5073, 119.706, -150.828, 124.006, 88.3841, 0, 0, 4.17839, -55.5812, 4.17598, -173.902, 4.09969, 65.3102, 0.183059, 64.7445
0, 1560.00000, 119.768, -32.5082, 119.706, -150.828, 124.008, 88.3837, 0, 0, 4.1784, -55.5821, 4.17598, -173.902, 4.09961, 65.3098, 0.183195, 64.7444
0, 1620.00000, 119.769, -32.5091, 119.706, -150.828, 124.01, 88.3834, 0, 0, 4.1784, -55.583, 4.17597, -173.902, 4.09954, 65.3095, 0.183318, 64.7442
0, 1680.00000, 119.769, -32.5098, 119.706, -150.828, 124.012, 88.3831, 0, 0, 4.17841, -55.5837, 4.17597, -173.902, 4.09948, 65.3092, 0.183429, 64.7441
0, 1740.00000, 119.769, -32.5105, 119.706, -150.828, 124.014, 88.3828, 0, 0, 4.17842, -55.5844, 4.17597, -173.902, 4.09942, 65.3089, 0.183528, 64.7439
0, 1800.00000, 119.769, -32.5111, 119.706, -150.828, 124.015, 88.3825, 0, 0, 4.17842, -55.585, 4.17597, -173.902, 4.09937, 65.3086, 0.183618, 64.7438
0, 1860.00000, 119.769, -32.5117, 119.706, -150.828, 124.016, 88.3823, 0, 0, 4.17843, -55.5856, 4.17597, -173.902, 4.09933, 65.3084, 0.183698, 64.7437
0, 1920.00000, 119.769, -32.5122, 119.706, -150.829, 124.018, 88.3821, 0, 0, 4.17843, -55.5861, 4.17597, -173.902, 4.09929, 65.3082, 0.183771, 64.7436
0, 1980.00000, 119.769, -32.5126, 119.706, -150.829, 124.019, 88.3819, 0, 0, 4.17843, -55.5865, 4.17597, -173.902, 4.09925, 65.308, 0.183836, 64.7435
0, 2040.00000, 119.769, -32.513, 119.706, -150.829, 124.02, 88.3818, 0, 0, 4.17844, -55.5869, 4.17597, -173.902, 4.09922, 65.3079, 0.183895, 64.7434
0, 2100.00000, 119.77, -32.5134, 119.706, -150.829, 124.021, 88.3816, 0, 0, 4.17844, -55.5873, 4.17597, -173.902, 4.09919, 65.3077, 0.183947, 64.7434
0, 2160.00000, 119.77, -32.5137, 119.706, -150.829, 124.021, 88.3815, 0, 0, 4.17844, -55.5876, 4.17597, -173.902, 4.09916, 65.3076, 0.183995, 64.7433
0, 2220.00000, 119.77, -32.514, 119.706, -150.829, 124.022, 88.3814, 0, 0, 4.17844, -55.5879, 4.17597, -173.902, 4.09914, 65.3075, 0.184038, 64.7433
0, 2280.00000, 119.77, -32.5143, 119.706, -150.829, 124.023, 88.3813, 0, 0, 4.17845, -55.5882, 4.17597, -173.902, 4.09912, 65.3074, 0.184076, 64.7432
0, 2340.00000, 119.77, -32.5145, 119.706, -150.829, 124.023, 88.3812, 0, 0, 4.17845, -55.5884, 4.17597, -173.902, 4.0991, 65.3073, 0.184111, 64.7432
0, 2400.00000, 119.77, -32.5147, 119.706, -150.829, 124.024, 88.3811, 0, 0, 4.17845, -55.5886, 4.17597, -173.902, 4.09908, 65.3072, 0.184142, 64.7431
0, 2460.00000, 119.77, -32.5149, 119.706, -150.829, 124.024, 88.381, 0, 0, 4.17845, -55.5888, 4.17597, -173.902, 4.09907, 65.3071, 0.18417, 64.7431
0, 2520.00000, 119.77, -32.5151, 119.706, -150.829, 124.025, 88.381, 0, 0, 4.17845, -55.589, 4.17597, -173.902, 4.09905, 65.307, 0.184196, 64.743
0, 2580.00000, 119.77, -32.5152, 119.706, -150.829, 124.025, 88.3809, 0, 0, 4.17845, -55.5892, 4.17597, -173.902, 4.09904, 65.307, 0.184218, 64.743
0, 2640.00000, 119.77, -32.5154, 119.706, -150.829, 124.025, 88.3808, 0, 0, 4.17845, -55.5893, 4.17597, -173.902, 4.09903, 65.3069, 0.184239, 64.743
0, 2700.00000, 119.77, -32.5155, 119.706, -150.829, 124.026, 88.3808, 0, 0, 4.17846, -55.5894, 4.17597, -173.902, 4.09902, 65.3069, 0.184257, 64.743
0, 2760.00000, 119.77, -32.5156, 119.706, -150.829, 124.026, 88.3807, 0, 0, 4.17846, -55.5895, 4.17597, -173.902, 4.09901, 65.3068, 0.184274, 64.743
0, 2820.00000, 119.77, -32.5157, 119.706, -150.829, 124.026, 88.3807, 0, 0, 4.17846, -55.5896, 4.17597, -173.903, 4.099, 65.3068, 0.184289, 64.7429
0, 2880.00000, 119.77, -32.5158, 119.706, -150.829, 124.026, 88.3807, 0, 0, 4.17846, -55.5897, 4.17597, -173.903, 4.09899, 65.3067, 0.184302, 64.7429
0, 2940.00000, 119.77, -32.5159, 119.706, -150.829, 124.027, 88.3806, 0, 0, 4.17846, -55.5898, 4.17597, -173.903, 4.09898, 65.3067, 0.184314, 64.7429
0, 3000.00000, 119.77, -32.516, 119.706, -150.829, 124.027, 88.3806, 0, 0, 4.17846, -55.5899, 4.17597, -173.903, 4.09898, 65.3067, 0.184325, 64.7429
0, 3060.00000, 119.77, -32.516, 119.706, -150.829, 124.027, 88.3806, 0, 0, 4.17846, -55.59, 4.17597, -173.903, 4.09897, 65.3067, 0.184335, 64.7429
0, 3120.00000, 119.77, -32.5161, 119.706, -150.829, 124.027, 88.3805, 0, 0, 4.17846, -55.59, 4.17597, -173.903, 4.09897, 65.3066, 0.184344, 64.7429
0, 3180.00000, 119.77, -32.5162, 119.706, -150.829, 124.027, 88.3805, 0, 0, 4.17846, -55.5901, 4.17597, -173.903, 4.09896, 65.3066, 0.184352, 64.7428
0, 3240.00000, 119.77, -32.5162, 119.706, -150.829, 124.027, 88.3805, 0, 0, 4.17846, -55.5901, 4.17597, -173.903, 4.09896, 65.3066, 0.184359, 64.7428
0, 3300.00000, 119.77, -32.5162, 119.706, -150.829, 124.027, 88.3805, 0, 0, 4.17846, -55.5902, 4.17597, -173.903, 4.09896, 65.3066, 0.184365, 64.7428
0, 3360.00000, 119.77, -32.5163, 119.706, -150.829, 124.028, 88.3805, 0, 0, 4.17846, -55.5902, 4.17597, -173.903, 4.09895, 65.3066, 0.184371, 64.7428
0, 3420.00000, 119.77, -32.5163, 119.706, -150.829, 124.028, 88.3805, 0, 0, 4.17846, -55.5902, 4.17597, -173.903, 4.09895, 65.3065, 0.184376, 64.7428
0, 3480.00000, 119.77, -32.5164, 119.706, -150.829, 124.028, 88.3804, 0, 0, 4.17846, -55.5903, 4.17597, -173.903, 4.09895, 65.3065, 0.184381, 64.7428
0, 3540.00000, 119.77, -32.5164, 119.706, -150.829, 124.028, 88.3804, 0, 0, 4.17846, -55.5903, 4.17597, -173.903, 4.09895, 65.3065, 0.184385, 64.7428
1, 0.00000, 119.77, -32.5164, 119.706, -150.829, 124.028, 88.3804, 0, 0, 4.17846, -55.5903, 4.17597, -173.903, 4.09894, 65.3065, 0.184389, 64.7428
1, 60.00000, 119.974, -32.3538, 120.118, -150.826, 124.008, 88.3853, 0, 0, 4.18635, -55.4277, 4.19193, -173.9, 4.09959, 65.3114, 0.185911, 64.4033
1, 120.00000, 119.974, -32.3538, 120.118, -150.826, 124.008, 88.3853, 0, 0, 4.18635, -55.4277, 4.19193, -173.9, 4.09959, 65.3114, 0.185915, 64.4033
1, 180.00000, 119.974, -32.3538, 120.118, -150.826, 124.008, 88.3853, 0, 0, 4.18635, -55.4277, 4.19193, -173.9, 4.09959, 65.3113, 0.185918, 64.4033
1, 240.00000, 119.974, -32.3538, 120.118, -150.826, 124.008, 88.3853, 0, 0, 4.18635, -55.4277, 4.19193, -173.9, 4.09959, 65.3113, 0.18592, 64.4033
1, 300.00000, 119.974, -32.3538, 120.118, -150.826, 124.008, 88.3853, 0, 0, 4.18635, -55.4278, 4.19193, -173.9, 4.09959, 65.3113, 0.185922, 64.4033
1, 360.00000, 119.974, -32.3539, 120.118, -150.826, 124.008, 88.3852, 0, 0, 4.18635, -55.4278, 4.19193, -173.9, 4.09959, 65.3113, 0.185924, 64.4033
1, 420.00000, 119.974, -32.3539, 120.118, -150.826, 124.008, 88.3852, 0, 0, 4.18635, -55.4278, 4.19193, -173.9, 4.09959, 65.3113, 0.185926, 64.4033
1, 480.00000, 119.974, -32.3539, 120.118, -150.826, 124.008, 88.3852, 0, 0, 4.18635, -55.4278, 4.19193, -173.9, 4.09959, 65.3113, 0.185928, 64.4033
1, 540.00000, 119.974, -32.3539, 120.118, -150.826, 124.008, 88.3852, 0, 0, 4.18635, -55.4278, 4.19193, -173.9, 4.09958, 65.3113, 0.185929, 64.4033
1, 600.00000, 119.974, -32.3539, 120.118, -150.826, 124.008, 88.3852, 0, 0, 4.18635, -55.4278, 4.19193, -173.9, 4.09958, 65.3113, 0.185931, 64.4033
1, 660.00000, 119.974, -32.3539, 120.118, -150.826, 124.009, 88.3852, 0, 0, 4.18635, -55.4278, 4.19193, -173.9, 4.09958, 65.3113, 0.185932, 64.4033
1, 720.00000, 119.974, -32.3539, 120.118, -150.826, 124.009, 88.3852, 0, 0, 4.18635, -55.4278, 4.19193, -173.9, 4.09958, 65.3113, 0.185933, 64.4033
1, 780.00000, 119.974, -32.3539, 120.118, -150.826, 124.009, 88.3852, 0, 0, 4.18635, -55.4278, 4.19193, -173.9, 4.09958, 65.3113, 0.185934, 64.4033
1, 840.00000, 119.974, -32.3539, 120.118, -150.826, 124.009, 88.3852, 0, 0, 4.18635, -55.4278, 4.19193, -173.9, 4.09958, 65.3113, 0.185935, 64.4033
1, 900.00000, 119.974, -32.3539, 120.118, -150.826, 124.009, 88.3852, 0, 0, 4.18635, -55.4278, 4.19193, -173.9, 4.09958, 65.3113, 0.185935, 64.4033
1, 960.00000, 119.974, -32.3539, 120.118, -150.826, 124.009, 88.3852, 0, 0, 4.18635, -55.4279, 4.19193, -173.9, 4.09958, 65.3113, 0.185936, 64.4033
1, 1020.00000, 119.974, -32.3539, 120.118, -150.826, 124.009, 88.3852, 0, 0, 4.18635, -55.4279, 4.19193, -173.9, 4.09958, 65.3113, 0.185937, 64.4033
1, 1080.00000, 119.974, -32.3539, 120.118, -150.826, 124.009, 88.3852, 0, 0, 4.18635, -55.4279, 4.19193, -173.9, 4.09958, 65.3113, 0.185937, 64.4033
1, 1140.00000, 119.974, -32.3539, 120.118, -150.826, 124.009, 88.3852, 0, 0, 4.18635, -55.4279, 4.19193, -173.9, 4.09958, 65.3113, 0.185938, 64.4033
1, 1200.00000, 119.974, -32.354, 120.118, -150.826, 124.009, 88.3852, 0, 0, 4.18635, -55.4279, 4.19193, -173.9, 4.09958, 65.3113, 0.185938, 64.4033
1, 1260.00000, 119.974, -32.354, 120.118, -150.826, 124.009, 88.3852, 0, 0, 4.18635, -55.4279, 4.19193, -173.9, 4.09958, 65.3113, 0.185939, 64.4033
1, 1320.00000, 119.974, -32.354, 120.118, -150.826, 124.009, 88.3852, 0, 0, 4.18635, -55.4279, 4.19193, -173.9, 4.09958, 65.3113, 0.185939, 64.4033
1, 1380.00000, 119.974, -32.354, 120.118, -150.826, 124.009, 88.3852, 0, 0, 4.18635, -55.4279, 4.19193, -173.9, 4.09958, 65.3113, 0.185939, 64.4033
1, 1440.00000, 119.974, -32.354, 120.118, -150.826, 124.009, 88.3852, 0, 0, 4.18635, -55.4279, 4.19193, -173.9, 4.09958, 65.3113, 0.18594, 64.4033
1, 1500.00000, 119.974, -32.354, 120.118, -150.826, 124.009, 88.3852, 0, 0, 4.18635, -55.4279, 4.19193, -173.9, 4.09958, 65.3113, 0.18594, 64.4033
1, 1560.00000, 119.974, -32.354, 120.118, -150.826, 124.009, 88.3852, 0, 0, 4.18635, -55.4279, 4.19193, -173.9, 4.09958, 65.3113, 0.18594, 64.4033
1, 1620.00000, 119.974, -32.354, 120.118, -150.826, 124.009, 88.3852, 0, 0, 4.18635, -55.4279, 4.19193, -173.9, 4.09958, 65.3113, 0.18594, 64.4033
1, 1680.00000, 119.974, -32.354, 120.118, -150.826, 124.009, 88.3852, 0, 0, 4.18635, -55.4279, 4.19193, -173.9, 4.09958, 65.3113, 0.185941, 64.4033
1, 1740.00000, 119.974, -32.354, 120.118, -150.826, 124.009, 88.3852, 0, 0, 4.18635, -55.4279, 4.19193, -173.9, 4.09958, 65.3113, 0.185941, 64.4033
1, 1800.00000, 119.974, -32.354, 120.118, -150.826, 124.009, 88.3852, 0, 0, 4.18635, -55.4279, 4.19193, -173.9, 4.09958, 65.3113, 0.185941, 64.4033
1, 1860.00000, 119.974, -32.354, 120.118, -150.826, 124.009, 88.3852, 0, 0, 4.18635, -55.4279, 4.19193, -173.9, 4.09958, 65.3113, 0.185941, 64.4033
1, 1920.00000, 119.974, -32.354, 120.118, -150.826, 124.009, 88.3852, 0, 0, 4.18635, -55.4279, 4.19193, -173.9, 4.09958, 65.3113, 0.185941, 64.4033
1, 1980.00000, 119.974, -32.354, 120.118, -150.826, 124.009, 88.3852, 0, 0, 4.18635, -55.4279, 4.19193, -173.9, 4.09958, 65.3113, 0.185941, 64.4033
1, 2040.00000, 119.974, -32.354, 120.118, -150.826, 124.009, 88.3852, 0, 0, 4.18635, -55.4279, 4.19193, -173.9, 4.09958, 65.3113, 0.185941, 64.4033
1, 2100.00000, 119.974, -32.354, 120.118, -150.826, 124.009, 88.3852, 0, 0, 4.18635, -55.4279, 4.19193, -173.9, 4.09958, 65.3113, 0.185942, 64.4033
1, 2160.00000, 119.974, -32.354, 120.118, -150.826, 124.009, 88.3852, 0, 0, 4.18635, -55.4279, 4.19193, -173.9, 4.09958, 65.3113, 0.185942, 64.4033
1, 2220.00000, 119.974, -32.354, 120.118, -150.826, 124.009, 88.3852, 0, 0, 4.18635, -55.4279, 4.19193, -173.9, 4.09958, 65.3113, 0.185942, 64.4033
1, 2280.00000, 119.974, -32.354, 120.118, -150.826, 124.009, 88.3852, 0, 0, 4.18635, -55.4279, 4.19193, -173.9, 4.09958, 65.3113, 0.185942, 64.4033
1, 2340.00000, 119.974, -32.354, 120.118, -150.826, 124.009, 88.3852, 0, 0, 4.18635, -55.4279, 4.19193, -173.9, 4.09958, 65.3113, 0.185942, 64.4033
1, 2400.00000, 119.974, -32.354, 120.118, -150.826, 124.009, 88.3852, 0, 0, 4.18635, -55.4279, 4.19193, -173.9, 4.09958, 65.3113, 0.185942, 64.4033
1, 2460.00000, 119.974, -32.354, 120.118, -150.826, 124.009, 88.3852, 0, 0, 4.18635, -55.4279, 4.19193, -173.9, 4.09958, 65.3113, 0.185942, 64.4033
1, 2520.00000, 119.974, -32.354, 120.118, -150.826, 124.009, 88.3852, 0, 0, 4.18635, -55.4279, 4.19193, -173.9, 4.09958, 65.3113, 0.185942, 64.4033
1, 2580.00000, 119.974, -32.354, 120.118, -150.826, 124.009, 88.3852, 0, 0, 4.18635, -55.4279, 4.19193, -173.9, 4.09958, 65.3113, 0.185942, 64.4033
1, 2640.00000, 119.974, -32.354, 120.118, -150.826, 124.009, 88.3852, 0, 0, 4.18635, -55.4279, 4.19193, -173.9, 4.09958, 65.3113, 0.185942, 64.4033
1, 2700.00000, 119.974, -32.354, 120.118, -150.826, 124.009, 88.3852, 0, 0, 4.18635, -55.4279, 4.19193, -173.9, 4.09958, 65.3113, 0.185942, 64.4033
1, 2760.00000, 119.974, -32.354, 120.118, -150.826, 124.009, 88.3852, 0, 0, 4.18635, -55.4279, 4.19193, -173.9, 4.09958, 65.3113, 0.185942, 64.4033
1, 2820.00000, 119.974, -32.354, 120.118, -150.826, 124.009, 88.3852, 0, 0, 4.18635, -55.4279, 4.19193, -173.9, 4.09958, 65.3113, 0.185942, 64.4033
1, 2880.00000, 119.974, -32.354, 120.118, -150.826, 124.009, 88.3852, 0, 0, 4.18635, -55.4279, 4.19193, -173.9, 4.09958, 65.3113, 0.185942, 64.4033
1, 2940.00000, 119.974, -32.354, 120.118, -150.826, 124.009, 88.3852, 0, 0, 4.18635, -55.4279, 4.19193, -173.9, 4.09958, 65.3113, 0.185942, 64.4033
1, 3000.00000, 119.974, -32.354, 120.118, -150.826, 124.009, 88.3852, 0, 0, 4.18635, -55.4279, 4.19193, -173.9, 4.09958, 65.3113, 0.185942, 64.4033
1, 3060.00000, 119.974, -32.354, 120.118, -150.826, 124.009, 88.3852, 0, 0, 4.18635, -55.4279, 4.19193, -173.9, 4.09958, 65.3113, 0.185942, 64.4033
1, 3120.00000, 119.974, -32.354, 120.118, -150.826, 124.009, 88.3852, 0, 0, 4.18635, -55.4279, 4.19193, -173.9, 4.09958, 65.3113, 0.185942, 64.4033
1, 3180.00000, 119.974, -32.354, 120.118, -150.826, 124.009, 88.3852, 0, 0, 4.18635, -55.4279, 4.19193, -173.9, 4.09958, 65.3113, 0.185942, 64.4033
1, 3240.00000, 119.974, -32.354, 120.118, -150.826, 124.009, 88.3852, 0, 0, 4.18635, -55.4279, 4.19193, -173.9, 4.09958, 65.3113, 0.185942, 64.4033
1, 3300.00000, 119.974, -32.354, 120.118, -150.826, 124.009, 88.3852, 0, 0, 4.18635, -55.4279, 4.19193, -173.9, 4.09958, 65.3113, 0.185942, 64.4033
1, 3360.00000, 119.974, -32.354, 120.118, -150.826, 124.009, 88.3852, 0, 0, 4.18635, -55.4279, 4.19193, -173.9, 4.09958, 65.3113, 0.185942, 64.4033
1, 3420.00000, 119.974, -32.354, 120.118, -150.826, 124.009, 88.3852, 0, 0, 4.18635, -55.4279, 4.19193, -173.9, 4.09958, 65.3113, 0.185942, 64.4033
1, 3480.00000, 119.974, -32.354, 120.118, -150.826, 124.009, 88.3852, 0, 0, 4.18635, -55.4279, 4.19193, -173.9, 4.09958, 65.3113, 0.185942, 64.4033
1, 3540.00000, 119.974, -32.354, 120.118, -150.826, 124.009, 88.3852, 0, 0, 4.18635, -55.4279, 4.19193, -173.9, 4.09958, 65.3113, 0.185942, 64.4033
2, 0.00000, 119.974, -32.354, 120.118, -150.826, 124.009, 88.3852, 0, 0, 4.18635, -55.4279, 4.19193, -173.9, 4.09958, 65.3113, 0.185942, 64.4033
2, 60.00000, 119.974, -32.354, 120.118, -150.826, 124.009, 88.3852, 0, 0, 4.18635, -55.4279, 4.19193, -173.9, 4.09958, 65.3113, 0.185942, 64.4033
2, 120.00000, 119.974, -32.354, 120.118, -150.826, 124.009, 88.3852, 0, 0, 4.18635, -55.4279, 4.19193, -173.9, 4.09958, 65.3113, 0.185942, 64.4033
2, 180.00000, 119.974, -32.354, 120.118, -150.826, 124.009, 88.3852, 0, 0, 4.18635, -55.4279, 4.19193, -173.9, 4.09958, 65.3113, 0.185942, 64.4033
2, 240.00000, 119.974, -32.354, 120.118, -150.826, 124.009, 88.3852, 0, 0, 4.18635, -55.4279, 4.19193, -173.9, 4.09958, 65.3113, 0.185942, 64.4033
2, 300.00000, 119.974, -32.354, 120.118, -150.826, 124.009, 88.3852, 0, 0, 4.18635, -55.4279, 4.19193, -173.9, 4.09958, 65.3113, 0.185942, 64.4033
2, 360.00000, 119.974, -32.354, 120.118, -150.826, 124.009, 88.3852, 0, 0, 4.18635, -55.4279, 4.19193, -173.9, 4.09958, 65.3113, 0.185942, 64.4033
2, 420.00000, 119.974, -32.354, 120.118, -150.826, 124.009, 88.3852, 0, 0, 4.18635, -55.4279, 4.19193, -173.9, 4.09958, 65.3113, 0.185942, 64.4033
2, 480.00000, 119.974, -32.354, 120.118, -150.826, 124.009, 88.3852, 0, 0, 4.18635, -55.4279, 4.19193, -173.9, 4.09958, 65.3113, 0.185942, 64.4033
2, 540.00000, 119.974, -32.354, 120.118, -150.826, 124.009, 88.3852, 0, 0, 4.18635, -55.4279, 4.19193, -173.9, 4.09958, 65.3113, 0.185942, 64.4033
2, 600.00000, 119.974, -32.354, 120.118, -150.826, 124.009, 88.3852, 0, 0, 4.18635, -55.4279, 4.19193, -173.9, 4.09958, 65.3113, 0.185942, 64.4033
2, 660.00000, 119.974, -32.354, 120.118, -150.826, 124.009, 88.3852, 0, 0, 4.18635, -55.4279, 4.19193, -173.9, 4.09958, 65.3113, 0.185942, 64.4033
2, 720.00000, 119.974, -32.354, 120.118, -150.826, 124.009, 88.3852, 0, 0, 4.18635, -55.4279, 4.19193, -173.9, 4.09958, 65.3113, 0.185942, 64.4033
2, 780.00000, 119.974, -32.354, 120.118, -150.826, 124.009, 88.3852, 0, 0, 4.18635, -55.4279, 4.19193, -173.9, 4.09958, 65.3113, 0.185942, 64.4033
2, 840.00000, 119.974, -32.354, 120.118, -150.826, 124.009, 88.3852, 0, 0, 4.18635, -55.4279, 4.19193, -173.9, 4.09958, 65.3113, 0.185942, 64.4033
