hour,t(sec),V1,VAngle1,V2,VAngle2,V3,VAngle3,V4,VAngle4,I1,IAngle1,I2,IAngle2,I3,IAngle3,I4,IAngle4
0, 60.00000, 116.252, -31.2561, 116.106, -151.158, 117.06, 88.8914, 0, 0, 4.7338, -54.3297, 4.72722, -174.232, 4.77042, 65.8178, 0.0330309, -109.885
0, 120.00000, 116.252, -31.2561, 116.106, -151.158, 117.06, 88.8914, 0, 0, 4.73376, -54.33, 4.72717, -174.232, 4.77037, 65.8175, 0.0330217, -109.919
0, 180.00000, 116.252, -31.2561, 116.106, -151.158, 117.06, 88.8914, 0, 0, 4.73376, -54.33, 4.72717, -174.232, 4.77037, 65.8175, 0.0330216, -109.919
0, 240.00000, 116.252, -31.2561, 116.106, -151.158, 117.06, 88.8914, 0, 0, 4.73376, -54.33, 4.72717, -174.232, 4.77037, 65.8175, 0.0330216, -109.919
0, 300.00000, 116.252, -31.2561, 116.106, -151.158, 117.06, 88.8914, 0, 0, 4.73376, -54.33, 4.72717, -174.232, 4.77037, 65.8175, 0.0330216, -109.919
0, 360.00000, 116.252, -31.2561, 116.106, -151.158, 117.06, 88.8914, 0, 0, 4.73376, -54.33, 4.72717, -174.232, 4.77037, 65.8175, 0.0330216, -109.919
0, 420.00000, 116.252, -31.2561, 116.106, -151.158, 117.06, 88.8914, 0, 0, 4.73376, -54.33, 4.72717, -174.232, 4.77037, 65.8175, 0.0330216, -109.919
0, 480.00000, 117.253, -31.1659, 117.057, -151.074, 117.989, 89.0033, 0, 0, 4.31818, -54.2402, 4.31015, -174.148, 4.34833, 65.929, 0.0282717, -109.326
0, 540.00000, 117.253, -31.1659, 117.057, -151.074, 117.989, 89.0033, 0, 0, 4.31824, -54.2398, 4.3102, -174.148, 4.34837, 65.9294, 0.0282668, -109.306
0, 600.00000, 117.253, -31.1659, 117.057, -151.074, 117.989, 89.0033, 0, 0, 4.31824, -54.2398, 4.3102, -174.148, 4.34837, 65.9294, 0.0282667, -109.306
0, 660.00000, 117.253, -31.1659, 117.057, -151.074, 117.989, 89.0033, 0, 0, 4.31824, -54.2398, 4.3102, -174.148, 4.34837, 65.9294, 0.0282667, -109.306
0, 720.00000, 117.253, -31.1659, 117.057, -151.074, 117.989, 89.0033, 0, 0, 4.31824, -54.2398, 4.3102, -174.148, 4.34837, 65.9294, 0.0282667, -109.306
0, 780.00000, 117.253, -31.1659, 117.057, -151.074, 117.989, 89.0033, 0, 0, 4.31824, -54.2398, 4.3102, -174.148, 4.34837, 65.9294, 0.0282667, -109.306
0, 840.00000, 117.253, -31.1659, 117.057, -151.074, 117.989, 89.0033, 0, 0, 4.31824, -54.2398, 4.3102, -174.148, 4.34837, 65.9294, 0.0282667, -109.306
0, 900.00000, 117.253, -31.1659, 117.057, -151.074, 117.989, 89.0033, 0, 0, 4.31824, -54.2398, 4.3102, -174.148, 4.34837, 65.9294, 0.0282667, -109.306
0, 960.00000, 116.338, -31.4864, 116.037, -150.849, 118.041, 88.9894, 0, 0, 4.28081, -54.5602, 4.26847, -173.923, 4.3505, 65.9155, 0.0347401, -112.171
0, 1020.00000, 116.338, -31.4864, 116.037, -150.849, 118.042, 88.9894, 0, 0, 4.28078, -54.5603, 4.26842, -173.923, 4.35052, 65.9155, 0.0347828, -112.185
0, 1080.00000, 116.338, -31.4864, 116.037, -150.849, 118.042, 88.9894, 0, 0, 4.28078, -54.5603, 4.26842, -173.923, 4.35052, 65.9155, 0.034783, -112.185
0, 1140.00000, 116.338, -31.4864, 116.037, -150.849, 118.042, 88.9894, 0, 0, 4.28078, -54.5603, 4.26842, -173.923, 4.35052, 65.9155, 0.034783, -112.185
0, 1200.00000, 116.338, -31.4864, 116.037, -150.849, 118.042, 88.9894, 0, 0, 4.28078, -54.5603, 4.26842, -173.923, 4.35052, 65.9155, 0.034783, -112.185
0, 1260.00000, 116.338, -31.4864, 116.037, -150.849, 118.042, 88.9894, 0, 0, 4.28078, -54.5603, 4.26842, -173.923, 4.35052, 65.9155, 0.034783, -112.185
0, 1320.00000, 116.338, -31.4864, 116.037, -150.849, 118.042, 88.9894, 0, 0, 4.28078, -54.5603, 4.26842, -173.923, 4.35052, 65.9155, 0.034783, -112.185
0, 1380.00000, 116.338, -31.4864, 116.037, -150.849, 118.042, 88.9894, 0, 0, 4.28078, -54.5603, 4.26842, -173.923, 4.35052, 65.9155, 0.034783, -112.185
0, 1440.00000, 116.338, -31.4864, 116.037, -150.849, 118.042, 88.9894, 0, 0, 4.28078, -54.5603, 4.26842, -173.923, 4.35052, 65.9155, 0.034783, -112.185
0, 1500.00000, 116.338, -31.4864, 116.037, -150.849, 118.042, 88.9894, 0, 0, 4.28078, -54.5603, 4.26842, -173.923, 4.35052, 65.9155, 0.034783, -112.185
0, 1560.00000, 116.338, -31.4864, 116.037, -150.849, 118.042, 88.9894, 0, 0, 4.28078, -54.5603, 4.26842, -173.923, 4.35052, 65.9155, 0.034783, -112.185
0, 1620.00000, 116.338, -31.4864, 116.037, -150.849, 118.042, 88.9894, 0, 0, 4.28078, -54.5603, 4.26842, -173.923, 4.35052, 65.9155, 0.034783, -112.185
0, 1680.00000, 116.338, -31.4864, 116.037, -150.849, 118.042, 88.9894, 0, 0, 4.28078, -54.5603, 4.26842, -173.923, 4.35052, 65.9155, 0.034783, -112.185
0, 1740.00000, 116.338, -31.4864, 116.037, -150.849, 118.042, 88.9894, 0, 0, 4.28078, -54.5603, 4.26842, -173.923, 4.35052, 65.9155, 0.034783, -112.185
0, 1800.00000, 116.338, -31.4864, 116.037, -150.849, 118.042, 88.9894, 0, 0, 4.28078, -54.5603, 4.26842, -173.923, 4.35052, 65.9155, 0.034783, -112.185
0, 1860.00000, 116.338, -31.4864, 116.037, -150.849, 118.042, 88.9894, 0, 0, 4.28078, -54.5603, 4.26842, -173.923, 4.35052, 65.9155, 0.034783, -112.185
0, 1920.00000, 116.338, -31.4864, 116.037, -150.849, 118.042, 88.9894, 0, 0, 4.28078, -54.5603, 4.26842, -173.923, 4.35052, 65.9155, 0.034783, -112.185
0, 1980.00000, 116.338, -31.4864, 116.037, -150.849, 118.042, 88.9894, 0, 0, 4.28078, -54.5603, 4.26842, -173.923, 4.35052, 65.9155, 0.034783, -112.185
0, 2040.00000, 116.338, -31.4864, 116.037, -150.849, 118.042, 88.9894, 0, 0, 4.28078, -54.5603, 4.26842, -173.923, 4.35052, 65.9155, 0.034783, -112.185
0, 2100.00000, 116.338, -31.4864, 116.037, -150.849, 118.042, 88.9894, 0, 0, 4.28078, -54.5603, 4.26842, -173.923, 4.35052, 65.9155, 0.034783, -112.185
0, 2160.00000, 116.338, -31.4864, 116.037, -150.849, 118.042, 88.9894, 0, 0, 4.28078, -54.5603, 4.26842, -173.923, 4.35052, 65.9155, 0.034783, -112.185
0, 2220.00000, 116.338, -31.4864, 116.037, -150.849, 118.042, 88.9894, 0, 0, 4.28078, -54.5603, 4.26842, -173.923, 4.35052, 65.9155, 0.034783, -112.185
0, 2280.00000, 116.338, -31.4864, 116.037, -150.849, 118.042, 88.9894, 0, 0, 4.28078, -54.5603, 4.26842, -173.923, 4.35052, 65.9155, 0.034783, -112.185
0, 2340.00000, 116.338, -31.4864, 116.037, -150.849, 118.042, 88.9894, 0, 0, 4.28078, -54.5603, 4.26842, -173.923, 4.35052, 65.9155, 0.034783, -112.185
0, 2400.00000, 116.338, -31.4864, 116.037, -150.849, 118.042, 88.9894, 0, 0, 4.28078, -54.5603, 4.26842, -173.923, 4.35052, 65.9155, 0.034783, -112.185
0, 2460.00000, 116.338, -31.4864, 116.037, -150.849, 118.042, 88.9894, 0, 0, 4.28078, -54.5603, 4.26842, -173.923, 4.35052, 65.9155, 0.034783, -112.185
0, 2520.00000, 116.338, -31.4864, 116.037, -150.849, 118.042, 88.9894, 0, 0, 4.28078, -54.5603, 4.26842, -173.923, 4.35052, 65.9155, 0.034783, -112.185
0, 2580.00000, 116.338, -31.4864, 116.037, -150.849, 118.042, 88.9894, 0, 0, 4.28078, -54.5603, 4.26842, -173.923, 4.35052, 65.9155, 0.034783, -112.185
0, 2640.00000, 116.338, -31.4864, 116.037, -150.849, 118.042, 88.9894, 0, 0, 4.28078, -54.5603, 4.26842, -173.923, 4.35052, 65.9155, 0.034783, -112.185
0, 2700.00000, 116.338, -31.4864, 116.037, -150.849, 118.042, 88.9894, 0, 0, 4.28078, -54.5603, 4.26842, -173.923, 4.35052, 65.9155, 0.034783, -112.185
0, 2760.00000, 116.607, -31.3003, 116.512, -150.864, 118.011, 88.9958, 0, 0, 4.29175, -54.3742, 4.28782, -173.938, 4.34927, 65.9219, 0.0313305, -109.537
0, 2820.00000, 116.607, -31.3003, 116.512, -150.864, 118.01, 88.9958, 0, 0, 4.29178, -54.3742, 4.28788, -173.938, 4.34925, 65.9219, 0.0312403, -109.502
0, 2880.00000, 116.607, -31.3003, 116.512, -150.864, 118.01, 88.9958, 0, 0, 4.29178, -54.3742, 4.28788, -173.938, 4.34925, 65.9219, 0.0312399, -109.502
0, 2940.00000, 116.607, -31.3003, 116.512, -150.864, 118.01, 88.9958, 0, 0, 4.29178, -54.3742, 4.28788, -173.938, 4.34925, 65.9219, 0.0312399, -109.502
0, 3000.00000, 116.607, -31.3003, 116.512, -150.864, 118.01, 88.9958, 0, 0, 4.29178, -54.3742, 4.28788, -173.938, 4.34925, 65.9219, 0.0312399, -109.502
0, 3060.00000, 116.607, -31.3003, 116.512, -150.864, 118.01, 88.9958, 0, 0, 4.29178, -54.3742, 4.28788, -173.938, 4.34925, 65.9219, 0.0312399, -109.502
0, 3120.00000, 116.607, -31.3003, 116.512, -150.864, 118.01, 88.9958, 0, 0, 4.29178, -54.3742, 4.28788, -173.938, 4.34925, 65.9219, 0.0312399, -109.502
0, 3180.00000, 116.607, -31.3003, 116.512, -150.864, 118.01, 88.9958, 0, 0, 4.29178, -54.3742, 4.28788, -173.938, 4.34925, 65.9219, 0.0312399, -109.502
0, 3240.00000, 116.607, -31.3003, 116.512, -150.864, 118.01, 88.9958, 0, 0, 4.29178, -54.3742, 4.28788, -173.938, 4.34925, 65.9219, 0.0312399, -109.502
0, 3300.00000, 116.607, -31.3003, 116.512, -150.864, 118.01, 88.9958, 0, 0, 4.29178, -54.3742, 4.28788, -173.938, 4.34925, 65.9219, 0.0312399, -109.502
0, 3360.00000, 116.607, -31.3003, 116.512, -150.864, 118.01, 88.9958, 0, 0, 4.29178, -54.3742, 4.28788, -173.938, 4.34925, 65.9219, 0.0312399, -109.502
0, 3420.00000, 116.607, -31.3003, 116.512, -150.864, 118.01, 88.9958, 0, 0, 4.29178, -54.3742, 4.28788, -173.938, 4.34925, 65.9219, 0.0312399, -109.502
0, 3480.00000, 116.607, -31.3003, 116.512, -150.864, 118.01, 88.9958, 0, 0, 4.29178, -54.3742, 4.28788, -173.938, 4.34925, 65.9219, 0.0312399, -109.502
0, 3540.00000, 116.607, -31.3003, 116.512, -150.864, 118.01, 88.9958, 0, 0, 4.29178, -54.3742, 4.28788, -173.938, 4.34925, 65.9219, 0.0312399, -109.502
1, 0.00000, 116.607, -31.3003, 116.512, -150.864, 118.01, 88.9958, 0, 0, 4.29178, -54.3742, 4.28788, -173.938, 4.34925, 65.9219, 0.0312399, -109.502
1, 60.00000, 116.969, -31.2802, 116.509, -150.863, 118.166, 89.1494, 0, 0, 4.30656, -54.3544, 4.28778, -173.937, 4.3556, 66.0754, 0.0312981, -113.107
1, 120.00000, 116.97, -31.2802, 116.509, -150.863, 118.166, 89.1494, 0, 0, 4.30662, -54.3541, 4.28777, -173.937, 4.35562, 66.0755, 0.0313127, -113.239
1, 180.00000, 116.97, -31.2802, 116.509, -150.863, 118.166, 89.1494, 0, 0, 4.30662, -54.3541, 4.28777, -173.937, 4.35562, 66.0755, 0.0313127, -113.24
1, 240.00000, 116.97, -31.2802, 116.509, -150.863, 118.166, 89.1494, 0, 0, 4.30662, -54.3541, 4.28777, -173.937, 4.35562, 66.0755, 0.0313127, -113.24
1, 300.00000, 116.97, -31.2802, 116.509, -150.863, 118.166, 89.1494, 0, 0, 4.30662, -54.3541, 4.28777, -173.937, 4.35562, 66.0755, 0.0313127, -113.24
1, 360.00000, 116.97, -31.2802, 116.509, -150.863, 118.166, 89.1494, 0, 0, 4.30662, -54.3541, 4.28777, -173.937, 4.35562, 66.0755, 0.0313127, -113.24
1, 420.00000, 116.97, -31.2802, 116.509, -150.863, 118.166, 89.1494, 0, 0, 4.30662, -54.3541, 4.28777, -173.937, 4.35562, 66.0755, 0.0313127, -113.24
1, 480.00000, 116.97, -31.2802, 116.509, -150.863, 118.166, 89.1494, 0, 0, 4.30662, -54.3541, 4.28777, -173.937, 4.35562, 66.0755, 0.0313127, -113.24
1, 540.00000, 116.97, -31.2802, 116.509, -150.863, 118.166, 89.1494, 0, 0, 4.30662, -54.3541, 4.28777, -173.937, 4.35562, 66.0755, 0.0313127, -113.24
1, 600.00000, 116.97, -31.2802, 116.509, -150.863, 118.166, 89.1494, 0, 0, 4.30662, -54.3541, 4.28777, -173.937, 4.35562, 66.0755, 0.0313127, -113.24
1, 660.00000, 116.97, -31.2802, 116.509, -150.863, 118.166, 89.1494, 0, 0, 4.30662, -54.3541, 4.28777, -173.937, 4.35562, 66.0755, 0.0313127, -113.24
1, 720.00000, 116.97, -31.2802, 116.509, -150.863, 118.166, 89.1494, 0, 0, 4.30662, -54.3541, 4.28777, -173.937, 4.35562, 66.0755, 0.0313127, -113.24
1, 780.00000, 116.97, -31.2802, 116.509, -150.863, 118.166, 89.1494, 0, 0, 4.30662, -54.3541, 4.28777, -173.937, 4.35562, 66.0755, 0.0313127, -113.24
1, 840.00000, 116.97, -31.2802, 116.509, -150.863, 118.166, 89.1494, 0, 0, 4.30662, -54.3541, 4.28777, -173.937, 4.35562, 66.0755, 0.0313127, -113.24
1, 900.00000, 116.97, -31.2802, 116.509, -150.863, 118.166, 89.1494, 0, 0, 4.30662, -54.3541, 4.28777, -173.937, 4.35562, 66.0755, 0.0313127, -113.24
1, 960.00000, 116.97, -31.2802, 116.509, -150.863, 118.166, 89.1494, 0, 0, 4.30662, -54.3541, 4.28777, -173.937, 4.35562, 66.0755, 0.0313127, -113.24
1, 1020.00000, 116.97, -31.2802, 116.509, -150.863, 118.166, 89.1494, 0, 0, 4.30662, -54.3541, 4.28777, -173.937, 4.35562, 66.0755, 0.0313127, -113.24
1, 1080.00000, 116.97, -31.2802, 116.509, -150.863, 118.166, 89.1494, 0, 0, 4.30662, -54.3541, 4.28777, -173.937, 4.35562, 66.0755, 0.0313127, -113.24
1, 1140.00000, 116.97, -31.2802, 116.509, -150.863, 118.166, 89.1494, 0, 0, 4.30662, -54.3541, 4.28777, -173.937, 4.35562, 66.0755, 0.0313127, -113.24
1, 1200.00000, 116.97, -31.2802, 116.509, -150.863, 118.166, 89.1494, 0, 0, 4.30662, -54.3541, 4.28777, -173.937, 4.35562, 66.0755, 0.0313127, -113.24
1, 1260.00000, 116.97, -31.2802, 116.509, -150.863, 118.166, 89.1494, 0, 0, 4.30662, -54.3541, 4.28777, -173.937, 4.35562, 66.0755, 0.0313127, -113.24
1, 1320.00000, 116.97, -31.2802, 116.509, -150.863, 118.166, 89.1494, 0, 0, 4.30662, -54.3541, 4.28777, -173.937, 4.35562, 66.0755, 0.0313127, -113.24
1, 1380.00000, 116.97, -31.2802, 116.509, -150.863, 118.166, 89.1494, 0, 0, 4.30662, -54.3541, 4.28777, -173.937, 4.35562, 66.0755, 0.0313127, -113.24
1, 1440.00000, 116.97, -31.2802, 116.509, -150.863, 118.166, 89.1494, 0, 0, 4.30662, -54.3541, 4.28777, -173.937, 4.35562, 66.0755, 0.0313127, -113.24
1, 1500.00000, 116.97, -31.2802, 116.509, -150.863, 118.166, 89.1494, 0, 0, 4.30662, -54.3541, 4.28777, -173.937, 4.35562, 66.0755, 0.0313127, -113.24
1, 1560.00000, 116.97, -31.2802, 116.509, -150.863, 118.166, 89.1494, 0, 0, 4.30662, -54.3541, 4.28777, -173.937, 4.35562, 66.0755, 0.0313127, -113.24
1, 1620.00000, 116.97, -31.2802, 116.509, -150.863, 118.166, 89.1494, 0, 0, 4.30662, -54.3541, 4.28777, -173.937, 4.35562, 66.0755, 0.0313127, -113.24
1, 1680.00000, 116.97, -31.2802, 116.509, -150.863, 118.166, 89.1494, 0, 0, 4.30662, -54.3541, 4.28777, -173.937, 4.35562, 66.0755, 0.0313127, -113.24
1, 1740.00000, 116.97, -31.2802, 116.509, -150.863, 118.166, 89.1494, 0, 0, 4.30662, -54.3541, 4.28777, -173.937, 4.35562, 66.0755, 0.0313127, -113.24
1, 1800.00000, 116.97, -31.2802, 116.509, -150.863, 118.166, 89.1494, 0, 0, 4.30662, -54.3541, 4.28777, -173.937, 4.35562, 66.0755, 0.0313127, -113.24
1, 1860.00000, 116.97, -31.2802, 116.509, -150.863, 118.166, 89.1494, 0, 0, 4.30662, -54.3541, 4.28777, -173.937, 4.35562, 66.0755, 0.0313127, -113.24
1, 1920.00000, 116.97, -31.2802, 116.509, -150.863, 118.166, 89.1494, 0, 0, 4.30662, -54.3541, 4.28777, -173.937, 4.35562, 66.0755, 0.0313127, -113.24
1, 1980.00000, 116.97, -31.2802, 116.509, -150.863, 118.166, 89.1494, 0, 0, 4.30662, -54.3541, 4.28777, -173.937, 4.35562, 66.0755, 0.0313127, -113.24
1, 2040.00000, 116.97, -31.2802, 116.509, -150.863, 118.166, 89.1494, 0, 0, 4.30662, -54.3541, 4.28777, -173.937, 4.35562, 66.0755, 0.0313127, -113.24
1, 2100.00000, 116.97, -31.2802, 116.509, -150.863, 118.166, 89.1494, 0, 0, 4.30662, -54.3541, 4.28777, -173.937, 4.35562, 66.0755, 0.0313127, -113.24
1, 2160.00000, 116.97, -31.2802, 116.509, -150.863, 118.166, 89.1494, 0, 0, 4.30662, -54.3541, 4.28777, -173.937, 4.35562, 66.0755, 0.0313127, -113.24
1, 2220.00000, 116.97, -31.2802, 116.509, -150.863, 118.166, 89.1494, 0, 0, 4.30662, -54.3541, 4.28777, -173.937, 4.35562, 66.0755, 0.0313127, -113.24
1, 2280.00000, 116.97, -31.2802, 116.509, -150.863, 118.166, 89.1494, 0, 0, 4.30662, -54.3541, 4.28777, -173.937, 4.35562, 66.0755, 0.0313127, -113.24
1, 2340.00000, 116.97, -31.2802, 116.509, -150.863, 118.166, 89.1494, 0, 0, 4.30662, -54.3541, 4.28777, -173.937, 4.35562, 66.0755, 0.0313127, -113.24
1, 2400.00000, 116.97, -31.2802, 116.509, -150.863, 118.166, 89.1494, 0, 0, 4.30662, -54.3541, 4.28777, -173.937, 4.35562, 66.0755, 0.0313127, -113.24
1, 2460.00000, 116.97, -31.2802, 116.509, -150.863, 118.166, 89.1494, 0, 0, 4.30662, -54.3541, 4.28777, -173.937, 4.35562, 66.0755, 0.0313127, -113.24
1, 2520.00000, 116.97, -31.2802, 116.509, -150.863, 118.166, 89.1494, 0, 0, 4.30662, -54.3541, 4.28777, -173.937, 4.35562, 66.0755, 0.0313127, -113.24
1, 2580.00000, 116.97, -31.2802, 116.509, -150.863, 118.166, 89.1494, 0, 0, 4.30662, -54.3541, 4.28777, -173.937, 4.35562, 66.0755, 0.0313127, -113.24
1, 2640.00000, 116.97, -31.2802, 116.509, -150.863, 118.166, 89.1494, 0, 0, 4.30662, -54.3541, 4.28777, -173.937, 4.35562, 66.0755, 0.0313127, -113.24
1, 2700.00000, 116.97, -31.2802, 116.509, -150.863, 118.166, 89.1494, 0, 0, 4.30662, -54.3541, 4.28777, -173.937, 4.35562, 66.0755, 0.0313127, -113.24
1, 2760.00000, 116.97, -31.2802, 116.509, -150.863, 118.166, 89.1494, 0, 0, 4.30662, -54.3541, 4.28777, -173.937, 4.35562, 66.0755, 0.0313127, -113.24
1, 2820.00000, 116.97, -31.2802, 116.509, -150.863, 118.166, 89.1494, 0, 0, 4.30662, -54.3541, 4.28777, -173.937, 4.35562, 66.0755, 0.0313127, -113.24
1, 2880.00000, 116.97, -31.2802, 116.509, -150.863, 118.166, 89.1494, 0, 0, 4.30662, -54.3541, 4.28777, -173.937, 4.35562, 66.0755, 0.0313127, -113.24
1, 2940.00000, 116.97, -31.2802, 116.509, -150.863, 118.166, 89.1494, 0, 0, 4.30662, -54.3541, 4.28777, -173.937, 4.35562, 66.0755, 0.0313127, -113.24
1, 3000.00000, 116.97, -31.2802, 116.509, -150.863, 118.166, 89.1494, 0, 0, 4.30662, -54.3541, 4.28777, -173.937, 4.35562, 66.0755, 0.0313127, -113.24
1, 3060.00000, 116.97, -31.2802, 116.509, -150.863, 118.166, 89.1494, 0, 0, 4.30662, -54.3541, 4.28777, -173.937, 4.35562, 66.0755, 0.0313127, -113.24
1, 3120.00000, 116.97, -31.2802, 116.509, -150.863, 118.166, 89.1494, 0, 0, 4.30662, -54.3541, 4.28777, -173.937, 4.35562, 66.0755, 0.0313127, -113.24
1, 3180.00000, 116.97, -31.2802, 116.509, -150.863, 118.166, 89.1494, 0, 0, 4.30662, -54.3541, 4.28777, -173.937, 4.35562, 66.0755, 0.0313127, -113.24
1, 3240.00000, 116.97, -31.2802, 116.509, -150.863, 118.166, 89.1494, 0, 0, 4.30662, -54.3541, 4.28777, -173.937, 4.35562, 66.0755, 0.0313127, -113.24
1, 3300.00000, 116.97, -31.2802, 116.509, -150.863, 118.166, 89.1494, 0, 0, 4.30662, -54.3541, 4.28777, -173.937, 4.35562, 66.0755, 0.0313127, -113.24
1, 3360.00000, 116.97, -31.2802, 116.509, -150.863, 118.166, 89.1494, 0, 0, 4.30662, -54.3541, 4.28777, -173.937, 4.35562, 66.0755, 0.0313127, -113.24
1, 3420.00000, 116.97, -31.2802, 116.509, -150.863, 118.166, 89.1494, 0, 0, 4.30662, -54.3541, 4.28777, -173.937, 4.35562, 66.0755, 0.0313127, -113.24
1, 3480.00000, 116.97, -31.2802, 116.509, -150.863, 118.166, 89.1494, 0, 0, 4.30662, -54.3541, 4.28777, -173.937, 4.35562, 66.0755, 0.0313127, -113.24
1, 3540.00000, 116.97, -31.2802, 116.509, -150.863, 118.166, 89.1494, 0, 0, 4.30662, -54.3541, 4.28777, -173.937, 4.35562, 66.0755, 0.0313127, -113.24
2, 0.00000, 116.97, -31.2802, 116.509, -150.863, 118.166, 89.1494, 0, 0, 4.30662, -54.3541, 4.28777, -173.937, 4.35562, 66.0755, 0.0313127, -113.24
2, 60.00000, 116.97, -31.2802, 116.509, -150.863, 118.166, 89.1494, 0, 0, 4.30662, -54.3541, 4.28777, -173.937, 4.35562, 66.0755, 0.0313127, -113.24
2, 120.00000, 116.97, -31.2802, 116.509, -150.863, 118.166, 89.1494, 0, 0, 4.30662, -54.3541, 4.28777, -173.937, 4.35562, 66.0755, 0.0313127, -113.24
2, 180.00000, 116.97, -31.2802, 116.509, -150.863, 118.166, 89.1494, 0, 0, 4.30662, -54.3541, 4.28777, -173.937, 4.35562, 66.0755, 0.0313127, -113.24
2, 240.00000, 116.97, -31.2802, 116.509, -150.863, 118.166, 89.1494, 0, 0, 4.30662, -54.3541, 4.28777, -173.937, 4.35562, 66.0755, 0.0313127, -113.24
2, 300.00000, 116.97, -31.2802, 116.509, -150.863, 118.166, 89.1494, 0, 0, 4.30662, -54.3541, 4.28777, -173.937, 4.35562, 66.0755, 0.0313127, -113.24
2, 360.00000, 116.97, -31.2802, 116.509, -150.863, 118.166, 89.1494, 0, 0, 4.30662, -54.3541, 4.28777, -173.937, 4.35562, 66.0755, 0.0313127, -113.24
2, 420.00000, 116.97, -31.2802, 116.509, -150.863, 118.166, 89.1494, 0, 0, 4.30662, -54.3541, 4.28777, -173.937, 4.35562, 66.0755, 0.0313127, -113.24
2, 480.00000, 116.97, -31.2802, 116.509, -150.863, 118.166, 89.1494, 0, 0, 4.30662, -54.3541, 4.28777, -173.937, 4.35562, 66.0755, 0.0313127, -113.24
2, 540.00000, 116.97, -31.2802, 116.509, -150.863, 118.166, 89.1494, 0, 0, 4.30662, -54.3541, 4.28777, -173.937, 4.35562, 66.0755, 0.0313127, -113.24
2, 600.00000, 116.97, -31.2802, 116.509, -150.863, 118.166, 89.1494, 0, 0, 4.30662, -54.3541, 4.28777, -173.937, 4.35562, 66.0755, 0.0313127, -113.24
2, 660.00000, 116.97, -31.2802, 116.509, -150.863, 118.166, 89.1494, 0, 0, 4.30662, -54.3541, 4.28777, -173.937, 4.35562, 66.0755, 0.0313127, -113.24
