hour,t(sec),"P1 (kW)","Q1 (kvar)","P2 (kW)","Q2 (kvar)","P3 (kW)","Q3 (kvar)","P4 (kW)","Q4 (kvar)"
0, 60.00000, 0.959117, 0.408577, 0.959946, 0.408931, 0.95391, 0.40636, 0, 0
0, 120.00000, 0.959109, 0.408579, 0.959936, 0.408931, 0.953902, 0.406361, 0, 0
0, 180.00000, 0.959109, 0.408579, 0.959936, 0.408931, 0.953902, 0.406361, 0, 0
0, 240.00000, 0.959109, 0.408579, 0.959936, 0.408931, 0.953902, 0.406361, 0, 0
0, 300.00000, 0.959109, 0.408579, 0.959936, 0.408931, 0.953902, 0.406361, 0, 0
0, 360.00000, 0.959109, 0.408579, 0.959936, 0.408931, 0.953902, 0.406361, 0, 0
0, 420.00000, 0.959109, 0.408579, 0.959936, 0.408931, 0.953902, 0.406361, 0, 0
0, 480.00000, 0.882826, 0.376089, 0.882593, 0.375987, 0.876777, 0.37351, 0, 0
0, 540.00000, 0.882835, 0.376086, 0.882602, 0.375987, 0.876786, 0.373509, 0, 0
0, 600.00000, 0.882835, 0.376086, 0.882602, 0.375987, 0.876786, 0.373509, 0, 0
0, 660.00000, 0.882835, 0.376086, 0.882602, 0.375987, 0.876786, 0.373509, 0, 0
0, 720.00000, 0.882835, 0.376086, 0.882602, 0.375987, 0.876786, 0.373509, 0, 0
0, 780.00000, 0.882835, 0.376086, 0.882602, 0.375987, 0.876786, 0.373509, 0, 0
0, 840.00000, 0.882835, 0.376086, 0.882602, 0.375987, 0.876786, 0.373509, 0, 0
0, 900.00000, 0.882835, 0.376086, 0.882602, 0.375987, 0.876786, 0.373509, 0, 0
0, 960.00000, 0.877865, 0.373961, 0.87778, 0.37393, 0.867446, 0.369525, 0, 0
0, 1020.00000, 0.877851, 0.373963, 0.877775, 0.373931, 0.867433, 0.369525, 0, 0
0, 1080.00000, 0.877851, 0.373963, 0.877775, 0.373931, 0.867433, 0.369525, 0, 0
0, 1140.00000, 0.882359, 0.375889, 0.877816, 0.373949, 0.868815, 0.370116, 0, 0
0, 1200.00000, 0.882368, 0.375887, 0.877817, 0.373949, 0.868819, 0.370115, 0, 0
0, 1260.00000, 0.882368, 0.375887, 0.877817, 0.373949, 0.868819, 0.370115, 0, 0
0, 1320.00000, 0.882368, 0.375887, 0.877817, 0.373949, 0.868819, 0.370115, 0, 0
0, 1380.00000, 0.882368, 0.375887, 0.877817, 0.373949, 0.868819, 0.370115, 0, 0
0, 1440.00000, 0.882368, 0.375887, 0.877817, 0.373949, 0.868819, 0.370115, 0, 0
0, 1500.00000, 0.882368, 0.375887, 0.877817, 0.373949, 0.868819, 0.370115, 0, 0
0, 1560.00000, 0.882368, 0.375887, 0.877817, 0.373949, 0.868819, 0.370115, 0, 0
0, 1620.00000, 0.882368, 0.375887, 0.877817, 0.373949, 0.868819, 0.370115, 0, 0
0, 1680.00000, 0.882368, 0.375887, 0.877817, 0.373949, 0.868819, 0.370115, 0, 0
0, 1740.00000, 0.882368, 0.375887, 0.877817, 0.373949, 0.868819, 0.370115, 0, 0
0, 1800.00000, 0.876841, 0.373531, 0.869279, 0.37031, 0.869421, 0.370373, 0, 0
0, 1860.00000, 0.876838, 0.373531, 0.869274, 0.370309, 0.869422, 0.370372, 0, 0
0, 1920.00000, 0.876838, 0.373531, 0.869274, 0.370309, 0.869422, 0.370372, 0, 0
0, 1980.00000, 0.876838, 0.373531, 0.869274, 0.370309, 0.869422, 0.370372, 0, 0
0, 2040.00000, 0.876838, 0.373531, 0.869274, 0.370309, 0.869422, 0.370372, 0, 0
0, 2100.00000, 0.876838, 0.373531, 0.869274, 0.370309, 0.869422, 0.370372, 0, 0
0, 2160.00000, 0.876838, 0.373531, 0.869274, 0.370309, 0.869422, 0.370372, 0, 0
0, 2220.00000, 0.876838, 0.373531, 0.869274, 0.370309, 0.869422, 0.370372, 0, 0
0, 2280.00000, 0.876838, 0.373531, 0.869274, 0.370309, 0.869422, 0.370372, 0, 0
0, 2340.00000, 0.876838, 0.373531, 0.869274, 0.370309, 0.869422, 0.370372, 0, 0
0, 2400.00000, 0.876838, 0.373531, 0.869274, 0.370309, 0.869422, 0.370372, 0, 0
0, 2460.00000, 0.876838, 0.373531, 0.869274, 0.370309, 0.869422, 0.370372, 0, 0
0, 2520.00000, 0.876838, 0.373531, 0.869274, 0.370309, 0.869422, 0.370372, 0, 0
0, 2580.00000, 0.876838, 0.373531, 0.869274, 0.370309, 0.869422, 0.370372, 0, 0
0, 2640.00000, 0.876838, 0.373531, 0.869274, 0.370309, 0.869422, 0.370372, 0, 0
0, 2700.00000, 0.876838, 0.373531, 0.869274, 0.370309, 0.869422, 0.370372, 0, 0
0, 2760.00000, 0.878368, 0.374186, 0.873855, 0.372265, 0.86937, 0.37035, 0, 0
0, 2820.00000, 0.878373, 0.374185, 0.873864, 0.372265, 0.869368, 0.370349, 0, 0
0, 2880.00000, 0.878373, 0.374185, 0.873864, 0.372265, 0.869368, 0.370349, 0, 0
0, 2940.00000, 0.878373, 0.374185, 0.873864, 0.372265, 0.869368, 0.370349, 0, 0
0, 3000.00000, 0.878373, 0.374185, 0.873864, 0.372265, 0.869368, 0.370349, 0, 0
0, 3060.00000, 0.878373, 0.374185, 0.873864, 0.372265, 0.869368, 0.370349, 0, 0
0, 3120.00000, 0.878373, 0.374185, 0.873864, 0.372265, 0.869368, 0.370349, 0, 0
0, 3180.00000, 0.878373, 0.374185, 0.873864, 0.372265, 0.869368, 0.370349, 0, 0
0, 3240.00000, 0.878373, 0.374185, 0.873864, 0.372265, 0.869368, 0.370349, 0, 0
0, 3300.00000, 0.878373, 0.374185, 0.873864, 0.372265, 0.869368, 0.370349, 0, 0
0, 3360.00000, 0.878373, 0.374185, 0.873864, 0.372265, 0.869368, 0.370349, 0, 0
0, 3420.00000, 0.878373, 0.374185, 0.873864, 0.372265, 0.869368, 0.370349, 0, 0
0, 3480.00000, 0.878373, 0.374185, 0.873864, 0.372265, 0.869368, 0.370349, 0, 0
0, 3540.00000, 0.878373, 0.374185, 0.873864, 0.372265, 0.869368, 0.370349, 0, 0
1, 0.00000, 0.878373, 0.374185, 0.873864, 0.372265, 0.869368, 0.370349, 0, 0
1, 60.00000, 0.879739, 0.374769, 0.878236, 0.374131, 0.86935, 0.370342, 0, 0
1, 120.00000, 0.879742, 0.374768, 0.878243, 0.37413, 0.869349, 0.370341, 0, 0
1, 180.00000, 0.879742, 0.374768, 0.878243, 0.37413, 0.869349, 0.370341, 0, 0
1, 240.00000, 0.879742, 0.374768, 0.878243, 0.37413, 0.869349, 0.370341, 0, 0
1, 300.00000, 0.879742, 0.374768, 0.878243, 0.37413, 0.869349, 0.370341, 0, 0
1, 360.00000, 0.879742, 0.374768, 0.878243, 0.37413, 0.869349, 0.370341, 0, 0
1, 420.00000, 0.879742, 0.374768, 0.878243, 0.37413, 0.869349, 0.370341, 0, 0
1, 480.00000, 0.879742, 0.374768, 0.878243, 0.37413, 0.869349, 0.370341, 0, 0
1, 540.00000, 0.879742, 0.374768, 0.878243, 0.37413, 0.869349, 0.370341, 0, 0
1, 600.00000, 0.879742, 0.374768, 0.878243, 0.37413, 0.869349, 0.370341, 0, 0
1, 660.00000, 0.879742, 0.374768, 0.878243, 0.37413, 0.869349, 0.370341, 0, 0
1, 720.00000, 0.879742, 0.374768, 0.878243, 0.37413, 0.869349, 0.370341, 0, 0
1, 780.00000, 0.881488, 0.375513, 0.901494, 0.384039, 0.893447, 0.380608, 0, 0
1, 840.00000, 0.881487, 0.375512, 0.9015, 0.384037, 0.893457, 0.380611, 0, 0
1, 900.00000, 0.881487, 0.375512, 0.9015, 0.384037, 0.893457, 0.380611, 0, 0
1, 960.00000, 0.881487, 0.375512, 0.9015, 0.384037, 0.893457, 0.380611, 0, 0
1, 1020.00000, 0.881487, 0.375512, 0.9015, 0.384037, 0.893457, 0.380611, 0, 0
1, 1080.00000, 0.881487, 0.375512, 0.9015, 0.384037, 0.893457, 0.380611, 0, 0
1, 1140.00000, 0.881487, 0.375512, 0.9015, 0.384037, 0.893457, 0.380611, 0, 0
1, 1200.00000, 0.881487, 0.375512, 0.9015, 0.384037, 0.893457, 0.380611, 0, 0
1, 1260.00000, 0.881487, 0.375512, 0.9015, 0.384037, 0.893457, 0.380611, 0, 0
1, 1320.00000, 0.881487, 0.375512, 0.9015, 0.384037, 0.893457, 0.380611, 0, 0
1, 1380.00000, 0.881487, 0.375512, 0.9015, 0.384037, 0.893457, 0.380611, 0, 0
1, 1440.00000, 0.881487, 0.375512, 0.9015, 0.384037, 0.893457, 0.380611, 0, 0
1, 1500.00000, 0.881487, 0.375512, 0.9015, 0.384037, 0.893457, 0.380611, 0, 0
1, 1560.00000, 0.881487, 0.375512, 0.9015, 0.384037, 0.893457, 0.380611, 0, 0
1, 1620.00000, 0.881487, 0.375512, 0.9015, 0.384037, 0.893457, 0.380611, 0, 0
1, 1680.00000, 0.881487, 0.375512, 0.9015, 0.384037, 0.893457, 0.380611, 0, 0
1, 1740.00000, 0.881487, 0.375512, 0.9015, 0.384037, 0.893457, 0.380611, 0, 0
1, 1800.00000, 0.881487, 0.375512, 0.9015, 0.384037, 0.893457, 0.380611, 0, 0
1, 1860.00000, 0.881487, 0.375512, 0.9015, 0.384037, 0.893457, 0.380611, 0, 0
1, 1920.00000, 0.881487, 0.375512, 0.9015, 0.384037, 0.893457, 0.380611, 0, 0
1, 1980.00000, 0.881487, 0.375512, 0.9015, 0.384037, 0.893457, 0.380611, 0, 0
1, 2040.00000, 0.881487, 0.375512, 0.9015, 0.384037, 0.893457, 0.380611, 0, 0
1, 2100.00000, 0.881487, 0.375512, 0.9015, 0.384037, 0.893457, 0.380611, 0, 0
1, 2160.00000, 0.881487, 0.375512, 0.9015, 0.384037, 0.893457, 0.380611, 0, 0
1, 2220.00000, 0.887035, 0.377876, 0.910316, 0.387796, 0.892868, 0.380359, 0, 0
1, 2280.00000, 0.887036, 0.377876, 0.910323, 0.387796, 0.892867, 0.38036, 0, 0
1, 2340.00000, 0.887036, 0.377876, 0.910323, 0.387796, 0.892867, 0.38036, 0, 0
1, 2400.00000, 0.887036, 0.377876, 0.910323, 0.387796, 0.892867, 0.38036, 0, 0
1, 2460.00000, 0.887036, 0.377876, 0.910323, 0.387796, 0.892867, 0.38036, 0, 0
1, 2520.00000, 0.887036, 0.377876, 0.910323, 0.387796, 0.892867, 0.38036, 0, 0
1, 2580.00000, 0.887036, 0.377876, 0.910323, 0.387796, 0.892867, 0.38036, 0, 0
1, 2640.00000, 0.887036, 0.377876, 0.910323, 0.387796, 0.892867, 0.38036, 0, 0
1, 2700.00000, 0.887036, 0.377876, 0.910323, 0.387796, 0.892867, 0.38036, 0, 0
1, 2760.00000, 0.887036, 0.377876, 0.910323, 0.387796, 0.892867, 0.38036, 0, 0
1, 2820.00000, 0.887036, 0.377876, 0.910323, 0.387796, 0.892867, 0.38036, 0, 0
1, 2880.00000, 0.887036, 0.377876, 0.910323, 0.387796, 0.892867, 0.38036, 0, 0
1, 2940.00000, 0.887036, 0.377876, 0.910323, 0.387796, 0.892867, 0.38036, 0, 0
1, 3000.00000, 0.887036, 0.377876, 0.910323, 0.387796, 0.892867, 0.38036, 0, 0
1, 3060.00000, 0.887036, 0.377876, 0.910323, 0.387796, 0.892867, 0.38036, 0, 0
1, 3120.00000, 0.887036, 0.377876, 0.910323, 0.387796, 0.892867, 0.38036, 0, 0
1, 3180.00000, 0.887036, 0.377876, 0.910323, 0.387796, 0.892867, 0.38036, 0, 0
1, 3240.00000, 0.887036, 0.377876, 0.910323, 0.387796, 0.892867, 0.38036, 0, 0
1, 3300.00000, 0.887036, 0.377876, 0.910323, 0.387796, 0.892867, 0.38036, 0, 0
1, 3360.00000, 0.887036, 0.377876, 0.910323, 0.387796, 0.892867, 0.38036, 0, 0
1, 3420.00000, 0.887036, 0.377876, 0.910323, 0.387796, 0.892867, 0.38036, 0, 0
1, 3480.00000, 0.887036, 0.377876, 0.910323, 0.387796, 0.892867, 0.38036, 0, 0
1, 3540.00000, 0.887036, 0.377876, 0.910323, 0.387796, 0.892867, 0.38036, 0, 0
2, 0.00000, 0.887036, 0.377876, 0.910323, 0.387796, 0.892867, 0.38036, 0, 0
2, 60.00000, 0.887036, 0.377876, 0.910323, 0.387796, 0.892867, 0.38036, 0, 0
2, 120.00000, 0.887036, 0.377876, 0.910323, 0.387796, 0.892867, 0.38036, 0, 0
2, 180.00000, 0.887036, 0.377876, 0.910323, 0.387796, 0.892867, 0.38036, 0, 0
2, 240.00000, 0.887036, 0.377876, 0.910323, 0.387796, 0.892867, 0.38036, 0, 0
2, 300.00000, 0.887036, 0.377876, 0.910323, 0.387796, 0.892867, 0.38036, 0, 0
2, 360.00000, 0.887036, 0.377876, 0.910323, 0.387796, 0.892867, 0.38036, 0, 0
2, 420.00000, 0.887036, 0.377876, 0.910323, 0.387796, 0.892867, 0.38036, 0, 0
2, 480.00000, 0.887036, 0.377876, 0.910323, 0.387796, 0.892867, 0.38036, 0, 0
2, 540.00000, 0.887036, 0.377876, 0.910323, 0.387796, 0.892867, 0.38036, 0, 0
2, 600.00000, 0.887036, 0.377876, 0.910323, 0.387796, 0.892867, 0.38036, 0, 0
2, 660.00000, 0.887036, 0.377876, 0.910323, 0.387796, 0.892867, 0.38036, 0, 0
2, 720.00000, 0.887036, 0.377876, 0.910323, 0.387796, 0.892867, 0.38036, 0, 0
2, 780.00000, 0.887036, 0.377876, 0.910323, 0.387796, 0.892867, 0.38036, 0, 0
2, 840.00000, 0.887493, 0.378071, 0.91546, 0.389987, 0.901248, 0.383935, 0, 0
2, 900.00000, 0.887491, 0.37807, 0.915465, 0.389987, 0.901263, 0.383937, 0, 0
2, 960.00000, 0.887491, 0.37807, 0.915465, 0.389987, 0.901263, 0.383937, 0, 0
2, 1020.00000, 0.887491, 0.37807, 0.915465, 0.389987, 0.901263, 0.383937, 0, 0
2, 1080.00000, 0.887491, 0.37807, 0.915465, 0.389987, 0.901263, 0.383937, 0, 0
2, 1140.00000, 0.887491, 0.37807, 0.915465, 0.389987, 0.901263, 0.383937, 0, 0
2, 1200.00000, 0.887491, 0.37807, 0.915465, 0.389987, 0.901263, 0.383937, 0, 0
2, 1260.00000, 0.887491, 0.37807, 0.915465, 0.389987, 0.901263, 0.383937, 0, 0
2, 1320.00000, 0.887491, 0.37807, 0.915465, 0.389987, 0.901263, 0.383937, 0, 0
2, 1380.00000, 0.887491, 0.37807, 0.915465, 0.389987, 0.901263, 0.383937, 0, 0
2, 1440.00000, 0.887491, 0.37807, 0.915465, 0.389987, 0.901263, 0.383937, 0, 0
2, 1500.00000, 0.887491, 0.37807, 0.915465, 0.389987, 0.901263, 0.383937, 0, 0
2, 1560.00000, 0.887491, 0.37807, 0.915465, 0.389987, 0.901263, 0.383937, 0, 0
2, 1620.00000, 0.887491, 0.37807, 0.915465, 0.389987, 0.901263, 0.383937, 0, 0
2, 1680.00000, 0.887491, 0.37807, 0.915465, 0.389987, 0.901263, 0.383937, 0, 0
2, 1740.00000, 0.887491, 0.37807, 0.915465, 0.389987, 0.901263, 0.383937, 0, 0
2, 1800.00000, 0.887491, 0.37807, 0.915465, 0.389987, 0.901263, 0.383937, 0, 0
2, 1860.00000, 0.887491, 0.37807, 0.915465, 0.389987, 0.901263, 0.383937, 0, 0
2, 1920.00000, 0.887491, 0.37807, 0.915465, 0.389987, 0.901263, 0.383937, 0, 0
2, 1980.00000, 0.887491, 0.37807, 0.915465, 0.389987, 0.901263, 0.383937, 0, 0
2, 2040.00000, 0.887491, 0.37807, 0.915465, 0.389987, 0.901263, 0.383937, 0, 0
2, 2100.00000, 0.887491, 0.37807, 0.915465, 0.389987, 0.901263, 0.383937, 0, 0
2, 2160.00000, 0.887491, 0.37807, 0.915465, 0.389987, 0.901263, 0.383937, 0, 0
2, 2220.00000, 0.887491, 0.37807, 0.915465, 0.389987, 0.901263, 0.383937, 0, 0
2, 2280.00000, 0.887491, 0.37807, 0.915465, 0.389987, 0.901263, 0.383937, 0, 0
2, 2340.00000, 0.887491, 0.37807, 0.915465, 0.389987, 0.901263, 0.383937, 0, 0
2, 2400.00000, 0.913575, 0.389188, 0.91485, 0.389727, 0.926038, 0.394501, 0, 0
2, 2460.00000, 0.913595, 0.38919, 0.914845, 0.389722, 0.92607, 0.394504, 0, 0
2, 2520.00000, 0.913596, 0.38919, 0.914845, 0.389722, 0.92607, 0.394504, 0, 0
2, 2580.00000, 0.913596, 0.38919, 0.914845, 0.389722, 0.92607, 0.394504, 0, 0
2, 2640.00000, 0.913596, 0.38919, 0.914845, 0.389722, 0.92607, 0.394504, 0, 0
2, 2700.00000, 0.913067, 0.388965, 0.909079, 0.387266, 0.916472, 0.390409, 0, 0
2, 2760.00000, 0.913068, 0.388965, 0.909077, 0.387265, 0.916447, 0.390405, 0, 0
2, 2820.00000, 0.913068, 0.388965, 0.909077, 0.387265, 0.916447, 0.390405, 0, 0
2, 2880.00000, 0.913068, 0.388965, 0.909077, 0.387265, 0.916447, 0.390405, 0, 0
2, 2940.00000, 0.913068, 0.388965, 0.909077, 0.387265, 0.916447, 0.390405, 0, 0
2, 3000.00000, 0.913068, 0.388965, 0.909077, 0.387265, 0.916447, 0.390405, 0, 0
2, 3060.00000, 0.913084, 0.388973, 0.910513, 0.387878, 0.921214, 0.392443, 0, 0
2, 3120.00000, 0.913083, 0.388972, 0.910516, 0.387878, 0.921237, 0.392445, 0, 0
2, 3180.00000, 0.913083, 0.388972, 0.910516, 0.387878, 0.921237, 0.392445, 0, 0
2, 3240.00000, 0.913083, 0.388972, 0.910516, 0.387878, 0.921237, 0.392445, 0, 0
2, 3300.00000, 0.913083, 0.388972, 0.910516, 0.387878, 0.921237, 0.392445, 0, 0
2, 3360.00000, 0.913083, 0.388972, 0.910516, 0.387878, 0.921237, 0.392445, 0, 0
2, 3420.00000, 0.913083, 0.388972, 0.910516, 0.387878, 0.921237, 0.392445, 0, 0
2, 3480.00000, 0.913083, 0.388972, 0.910516, 0.387878, 0.921237, 0.392445, 0, 0
2, 3540.00000, 0.913083, 0.388972, 0.910516, 0.387878, 0.921237, 0.392445, 0, 0
3, 0.00000, 0.913083, 0.388972, 0.910516, 0.387878, 0.921237, 0.392445, 0, 0
3, 60.00000, 0.913083, 0.388972, 0.910516, 0.387878, 0.921237, 0.392445, 0, 0
3, 120.00000, 0.913083, 0.388972, 0.910516, 0.387878, 0.921237, 0.392445, 0, 0
3, 180.00000, 0.913083, 0.388972, 0.910516, 0.387878, 0.921237, 0.392445, 0, 0
3, 240.00000, 0.913083, 0.388972, 0.910516, 0.387878, 0.921237, 0.392445, 0, 0
3, 300.00000, 0.913083, 0.388972, 0.910516, 0.387878, 0.921237, 0.392445, 0, 0
3, 360.00000, 0.913083, 0.388972, 0.910516, 0.387878, 0.921237, 0.392445, 0, 0
3, 420.00000, 0.913083, 0.388972, 0.910516, 0.387878, 0.921237, 0.392445, 0, 0
3, 480.00000, 0.913083, 0.388972, 0.910516, 0.387878, 0.921237, 0.392445, 0, 0
3, 540.00000, 0.913083, 0.388972, 0.910516, 0.387878, 0.921237, 0.392445, 0, 0
3, 600.00000, 0.913083, 0.388972, 0.910516, 0.387878, 0.921237, 0.392445, 0, 0
3, 660.00000, 0.913083, 0.388972, 0.910516, 0.387878, 0.921237, 0.392445, 0, 0
3, 720.00000, 0.913083, 0.388972, 0.910516, 0.387878, 0.921237, 0.392445, 0, 0
3, 780.00000, 0.913083, 0.388972, 0.910516, 0.387878, 0.921237, 0.392445, 0, 0
3, 840.00000, 0.913083, 0.388972, 0.910516, 0.387878, 0.921237, 0.392445, 0, 0
3, 900.00000, 0.913083, 0.388972, 0.910516, 0.387878, 0.921237, 0.392445, 0, 0
3, 960.00000, 0.913083, 0.388972, 0.910516, 0.387878, 0.921237, 0.392445, 0, 0
3, 1020.00000, 0.913083, 0.388972, 0.910516, 0.387878, 0.921237, 0.392445, 0, 0
3, 1080.00000, 0.913083, 0.388972, 0.910516, 0.387878, 0.921237, 0.392445, 0, 0
3, 1140.00000, 0.913083, 0.388972, 0.910516, 0.387878, 0.921237, 0.392445, 0, 0
3, 1200.00000, 0.913083, 0.388972, 0.910516, 0.387878, 0.921237, 0.392445, 0, 0
3, 1260.00000, 0.913083, 0.388972, 0.910516, 0.387878, 0.921237, 0.392445, 0, 0
3, 1320.00000, 0.913083, 0.388972, 0.910516, 0.387878, 0.921237, 0.392445, 0, 0
3, 1380.00000, 0.913083, 0.388972, 0.910516, 0.387878, 0.921237, 0.392445, 0, 0
3, 1440.00000, 0.913083, 0.388972, 0.910516, 0.387878, 0.921237, 0.392445, 0, 0
3, 1500.00000, 0.913083, 0.388972, 0.910516, 0.387878, 0.921237, 0.392445, 0, 0
3, 1560.00000, 0.913083, 0.388972, 0.910516, 0.387878, 0.921237, 0.392445, 0, 0
3, 1620.00000, 0.913083, 0.388972, 0.910516, 0.387878, 0.921237, 0.392445, 0, 0
3, 1680.00000, 0.913083, 0.388972, 0.910516, 0.387878, 0.921237, 0.392445, 0, 0
3, 1740.00000, 0.913083, 0.388972, 0.910516, 0.387878, 0.921237, 0.392445, 0, 0
3, 1800.00000, 0.913083, 0.388972, 0.910516, 0.387878, 0.921237, 0.392445, 0, 0
3, 1860.00000, 0.913083, 0.388972, 0.910516, 0.387878, 0.921237, 0.392445, 0, 0
3, 1920.00000, 0.913083, 0.388972, 0.910516, 0.387878, 0.921237, 0.392445, 0, 0
3, 1980.00000, 0.913083, 0.388972, 0.910516, 0.387878, 0.921237, 0.392445, 0, 0
3, 2040.00000, 0.913083, 0.388972, 0.910516, 0.387878, 0.921237, 0.392445, 0, 0
3, 2100.00000, 0.913083, 0.388972, 0.910516, 0.387878, 0.921237, 0.392445, 0, 0
3, 2160.00000, 0.913083, 0.388972, 0.910516, 0.387878, 0.921237, 0.392445, 0, 0
3, 2220.00000, 0.913083, 0.388972, 0.910516, 0.387878, 0.921237, 0.392445, 0, 0
3, 2280.00000, 0.913083, 0.388972, 0.910516, 0.387878, 0.921237, 0.392445, 0, 0
3, 2340.00000, 0.913083, 0.388972, 0.910516, 0.387878, 0.921237, 0.392445, 0, 0
3, 2400.00000, 0.913083, 0.388972, 0.910516, 0.387878, 0.921237, 0.392445, 0, 0
3, 2460.00000, 0.913083, 0.388972, 0.910516, 0.387878, 0.921237, 0.392445, 0, 0
3, 2520.00000, 0.913083, 0.388972, 0.910516, 0.387878, 0.921237, 0.392445, 0, 0
3, 2580.00000, 0.913083, 0.388972, 0.910516, 0.387878, 0.921237, 0.392445, 0, 0
3, 2640.00000, 0.913083, 0.388972, 0.910516, 0.387878, 0.921237, 0.392445, 0, 0
3, 2700.00000, 0.913083, 0.388972, 0.910516, 0.387878, 0.921237, 0.392445, 0, 0
3, 2760.00000, 0.913083, 0.388972, 0.910516, 0.387878, 0.921237, 0.392445, 0, 0
3, 2820.00000, 0.913083, 0.388972, 0.910516, 0.387878, 0.921237, 0.392445, 0, 0
3, 2880.00000, 0.913083, 0.388972, 0.910516, 0.387878, 0.921237, 0.392445, 0, 0
3, 2940.00000, 0.913083, 0.388972, 0.910516, 0.387878, 0.921237, 0.392445, 0, 0
3, 3000.00000, 0.913083, 0.388972, 0.910516, 0.387878, 0.921237, 0.392445, 0, 0
3, 3060.00000, 0.913083, 0.388972, 0.910516, 0.387878, 0.921237, 0.392445, 0, 0
3, 3120.00000, 0.913083, 0.388972, 0.910516, 0.387878, 0.921237, 0.392445, 0, 0
3, 3180.00000, 0.889811, 0.379056, 0.887604, 0.378116, 0.897981, 0.382536, 0, 0
3, 3240.00000, 0.889806, 0.379056, 0.887601, 0.378117, 0.897973, 0.382535, 0, 0
3, 3300.00000, 0.889806, 0.379056, 0.887601, 0.378117, 0.897973, 0.382535, 0, 0
3, 3360.00000, 0.889806, 0.379056, 0.887601, 0.378117, 0.897973, 0.382535, 0, 0
3, 3420.00000, 0.889806, 0.379056, 0.887601, 0.378117, 0.897973, 0.382535, 0, 0
3, 3480.00000, 0.889806, 0.379056, 0.887601, 0.378117, 0.897973, 0.382535, 0, 0
3, 3540.00000, 0.889806, 0.379056, 0.887601, 0.378117, 0.897973, 0.382535, 0, 0
4, 0.00000, 0.889651, 0.378989, 0.885325, 0.377144, 0.892398, 0.380157, 0, 0
4, 60.00000, 0.889651, 0.37899, 0.885321, 0.377145, 0.892386, 0.380155, 0, 0
4, 120.00000, 0.889651, 0.37899, 0.885321, 0.377145, 0.892386, 0.380155, 0, 0
4, 180.00000, 0.889651, 0.37899, 0.885321, 0.377145, 0.892386, 0.380155, 0, 0
4, 240.00000, 0.889651, 0.37899, 0.885321, 0.377145, 0.892386, 0.380155, 0, 0
4, 300.00000, 0.889651, 0.37899, 0.885321, 0.377145, 0.892386, 0.380155, 0, 0
4, 360.00000, 0.889651, 0.37899, 0.885321, 0.377145, 0.892386, 0.380155, 0, 0
4, 420.00000, 0.889651, 0.37899, 0.885321, 0.377145, 0.892386, 0.380155, 0, 0
4, 480.00000, 0.889651, 0.37899, 0.885321, 0.377145, 0.892386, 0.380155, 0, 0
4, 540.00000, 0.889651, 0.37899, 0.885321, 0.377145, 0.892386, 0.380155, 0, 0
4, 600.00000, 0.889651, 0.37899, 0.885321, 0.377145, 0.892386, 0.380155, 0, 0
4, 660.00000, 0.889651, 0.37899, 0.885321, 0.377145, 0.892386, 0.380155, 0, 0
