hour,t(sec),V1,VAngle1,V2,VAngle2,V3,VAngle3,V4,VAngle4,I1,IAngle1,I2,IAngle2,I3,IAngle3,I4,IAngle4
0, 60.00000, 121.307, -31.7775, 121.042, -151.682, 121.846, 88.3953, 0, 0, 4.53334, -54.8512, 4.54326, -174.755, 4.51331, 65.3216, 0.0365585, 34.9415
0, 120.00000, 121.307, -31.7775, 121.042, -151.682, 121.846, 88.3953, 0, 0, 4.53337, -54.8515, 4.5433, -174.756, 4.51334, 65.3214, 0.0365698, 34.9296
0, 180.00000, 121.307, -31.7775, 121.042, -151.682, 121.846, 88.3953, 0, 0, 4.53337, -54.8515, 4.5433, -174.756, 4.51334, 65.3214, 0.0365698, 34.9295
0, 240.00000, 121.307, -31.7775, 121.042, -151.682, 121.846, 88.3953, 0, 0, 4.53337, -54.8515, 4.5433, -174.756, 4.51334, 65.3214, 0.0365698, 34.9295
0, 300.00000, 121.307, -31.7775, 121.042, -151.682, 121.846, 88.3953, 0, 0, 4.53337, -54.8515, 4.5433, -174.756, 4.51334, 65.3214, 0.0365698, 34.9295
0, 360.00000, 121.307, -31.7775, 121.042, -151.682, 121.846, 88.3953, 0, 0, 4.53337, -54.8515, 4.5433, -174.756, 4.51334, 65.3214, 0.0365698, 34.9295
0, 420.00000, 121.307, -31.7775, 121.042, -151.682, 121.846, 88.3953, 0, 0, 4.53337, -54.8515, 4.5433, -174.756, 4.51334, 65.3214, 0.0365698, 34.9295
0, 480.00000, 121.974, -31.6535, 121.672, -151.561, 122.459, 88.5309, 0, 0, 3.92252, -54.7277, 3.93224, -174.635, 3.907, 65.4568, 0.0314542, 30.7858
0, 540.00000, 121.974, -31.6535, 121.672, -151.561, 122.459, 88.5309, 0, 0, 3.92249, -54.7274, 3.93221, -174.634, 3.90697, 65.457, 0.0314439, 30.79
0, 600.00000, 121.974, -31.6535, 121.672, -151.561, 122.459, 88.5309, 0, 0, 3.92249, -54.7274, 3.93221, -174.634, 3.90697, 65.457, 0.0314438, 30.7901
0, 660.00000, 121.974, -31.6535, 121.672, -151.561, 122.459, 88.5309, 0, 0, 3.92249, -54.7274, 3.93221, -174.634, 3.90697, 65.457, 0.0314438, 30.7901
0, 720.00000, 121.974, -31.6535, 121.672, -151.561, 122.459, 88.5309, 0, 0, 3.92249, -54.7274, 3.93221, -174.634, 3.90697, 65.457, 0.0314438, 30.7901
0, 780.00000, 121.974, -31.6535, 121.672, -151.561, 122.459, 88.5309, 0, 0, 3.92249, -54.7274, 3.93221, -174.634, 3.90697, 65.457, 0.0314438, 30.7901
0, 840.00000, 121.974, -31.6535, 121.672, -151.561, 122.459, 88.5309, 0, 0, 3.92249, -54.7274, 3.93221, -174.634, 3.90697, 65.457, 0.0314438, 30.7901
0, 900.00000, 121.974, -31.6535, 121.672, -151.561, 122.459, 88.5309, 0, 0, 3.92249, -54.7274, 3.93221, -174.634, 3.90697, 65.457, 0.0314438, 30.7901
0, 960.00000, 121.644, -31.683, 121.354, -151.755, 121.834, 88.4264, 0, 0, 3.93309, -54.7565, 3.94253, -174.829, 3.92696, 65.3528, 0.0192893, -4.97935
0, 1020.00000, 121.644, -31.683, 121.354, -151.755, 121.834, 88.4264, 0, 0, 3.93314, -54.7569, 3.94254, -174.829, 3.92701, 65.3525, 0.0192621, -4.92622
0, 1080.00000, 121.644, -31.683, 121.354, -151.755, 121.834, 88.4264, 0, 0, 3.93314, -54.7569, 3.94254, -174.829, 3.92701, 65.3525, 0.0192619, -4.92591
0, 1140.00000, 121.941, -31.6466, 121.354, -151.755, 121.927, 88.5583, 0, 0, 3.92357, -54.7208, 3.94252, -174.829, 3.92402, 65.4843, 0.0342588, -20.3379
0, 1200.00000, 121.941, -31.6466, 121.354, -151.755, 121.927, 88.5583, 0, 0, 3.92354, -54.7205, 3.94251, -174.829, 3.924, 65.4844, 0.0342767, -20.3719
0, 1260.00000, 121.941, -31.6466, 121.354, -151.755, 121.927, 88.5583, 0, 0, 3.92354, -54.7205, 3.94251, -174.829, 3.924, 65.4844, 0.0342767, -20.3721
0, 1320.00000, 121.941, -31.6466, 121.354, -151.755, 121.927, 88.5583, 0, 0, 3.92354, -54.7205, 3.94251, -174.829, 3.924, 65.4844, 0.0342767, -20.3721
0, 1380.00000, 121.941, -31.6466, 121.354, -151.755, 121.927, 88.5583, 0, 0, 3.92354, -54.7205, 3.94251, -174.829, 3.924, 65.4844, 0.0342767, -20.3721
0, 1440.00000, 121.941, -31.6466, 121.354, -151.755, 121.927, 88.5583, 0, 0, 3.92354, -54.7205, 3.94251, -174.829, 3.924, 65.4844, 0.0342767, -20.3721
0, 1500.00000, 121.941, -31.6466, 121.354, -151.755, 121.927, 88.5583, 0, 0, 3.92354, -54.7205, 3.94251, -174.829, 3.924, 65.4844, 0.0342767, -20.3721
0, 1560.00000, 121.941, -31.6466, 121.354, -151.755, 121.927, 88.5583, 0, 0, 3.92354, -54.7205, 3.94251, -174.829, 3.924, 65.4844, 0.0342767, -20.3721
0, 1620.00000, 121.941, -31.6466, 121.354, -151.755, 121.927, 88.5583, 0, 0, 3.92354, -54.7205, 3.94251, -174.829, 3.924, 65.4844, 0.0342767, -20.3721
0, 1680.00000, 121.941, -31.6466, 121.354, -151.755, 121.927, 88.5583, 0, 0, 3.92354, -54.7205, 3.94251, -174.829, 3.924, 65.4844, 0.0342767, -20.3721
0, 1740.00000, 121.941, -31.6466, 121.354, -151.755, 121.927, 88.5583, 0, 0, 3.92354, -54.7205, 3.94251, -174.829, 3.924, 65.4844, 0.0342767, -20.3721
0, 1800.00000, 121.58, -31.8513, 120.793, -151.716, 121.969, 88.5504, 0, 0, 3.9352, -54.9251, 3.96083, -174.79, 3.92265, 65.4764, 0.0561357, 11.8059
0, 1860.00000, 121.58, -31.8513, 120.793, -151.716, 121.969, 88.5504, 0, 0, 3.93521, -54.9252, 3.96085, -174.79, 3.92265, 65.4765, 0.0561593, 11.8124
0, 1920.00000, 121.58, -31.8513, 120.793, -151.716, 121.969, 88.5504, 0, 0, 3.93521, -54.9252, 3.96085, -174.79, 3.92265, 65.4765, 0.0561594, 11.8124
0, 1980.00000, 121.58, -31.8513, 120.793, -151.716, 121.969, 88.5504, 0, 0, 3.93521, -54.9252, 3.96085, -174.79, 3.92265, 65.4765, 0.0561594, 11.8124
0, 2040.00000, 121.58, -31.8513, 120.793, -151.716, 121.969, 88.5504, 0, 0, 3.93521, -54.9252, 3.96085, -174.79, 3.92265, 65.4765, 0.0561594, 11.8124
0, 2100.00000, 121.58, -31.8513, 120.793, -151.716, 121.969, 88.5504, 0, 0, 3.93521, -54.9252, 3.96085, -174.79, 3.92265, 65.4765, 0.0561594, 11.8124
0, 2160.00000, 121.58, -31.8513, 120.793, -151.716, 121.969, 88.5504, 0, 0, 3.93521, -54.9252, 3.96085, -174.79, 3.92265, 65.4765, 0.0561594, 11.8124
0, 2220.00000, 121.58, -31.8513, 120.793, -151.716, 121.969, 88.5504, 0, 0, 3.93521, -54.9252, 3.96085, -174.79, 3.92265, 65.4765, 0.0561594, 11.8124
0, 2280.00000, 121.58, -31.8513, 120.793, -151.716, 121.969, 88.5504, 0, 0, 3.93521, -54.9252, 3.96085, -174.79, 3.92265, 65.4765, 0.0561594, 11.8124
0, 2340.00000, 121.58, -31.8513, 120.793, -151.716, 121.969, 88.5504, 0, 0, 3.93521, -54.9252, 3.96085, -174.79, 3.92265, 65.4765, 0.0561594, 11.8124
0, 2400.00000, 121.58, -31.8513, 120.793, -151.716, 121.969, 88.5504, 0, 0, 3.93521, -54.9252, 3.96085, -174.79, 3.92265, 65.4765, 0.0561594, 11.8124
0, 2460.00000, 121.58, -31.8513, 120.793, -151.716, 121.969, 88.5504, 0, 0, 3.93521, -54.9252, 3.96085, -174.79, 3.92265, 65.4765, 0.0561594, 11.8124
0, 2520.00000, 121.58, -31.8513, 120.793, -151.716, 121.969, 88.5504, 0, 0, 3.93521, -54.9252, 3.96085, -174.79, 3.92265, 65.4765, 0.0561594, 11.8124
0, 2580.00000, 121.58, -31.8513, 120.793, -151.716, 121.969, 88.5504, 0, 0, 3.93521, -54.9252, 3.96085, -174.79, 3.92265, 65.4765, 0.0561594, 11.8124
0, 2640.00000, 121.58, -31.8513, 120.793, -151.716, 121.969, 88.5504, 0, 0, 3.93521, -54.9252, 3.96085, -174.79, 3.92265, 65.4765, 0.0561594, 11.8124
0, 2700.00000, 121.58, -31.8513, 120.793, -151.716, 121.969, 88.5504, 0, 0, 3.93521, -54.9252, 3.96085, -174.79, 3.92265, 65.4765, 0.0561594, 11.8124
0, 2760.00000, 121.679, -31.7174, 121.096, -151.684, 121.965, 88.5521, 0, 0, 3.932, -54.7914, 3.95097, -174.758, 3.92279, 65.4782, 0.0395968, 6.77228
0, 2820.00000, 121.68, -31.7174, 121.096, -151.684, 121.964, 88.5521, 0, 0, 3.93198, -54.7913, 3.95094, -174.758, 3.92279, 65.4782, 0.03956, 6.76592
0, 2880.00000, 121.68, -31.7174, 121.096, -151.684, 121.964, 88.5521, 0, 0, 3.93198, -54.7913, 3.95094, -174.758, 3.92279, 65.4782, 0.0395598, 6.76586
0, 2940.00000, 121.68, -31.7174, 121.096, -151.684, 121.964, 88.5521, 0, 0, 3.93198, -54.7913, 3.95094, -174.758, 3.92279, 65.4782, 0.0395598, 6.76586
0, 3000.00000, 121.68, -31.7174, 121.096, -151.684, 121.964, 88.5521, 0, 0, 3.93198, -54.7913, 3.95094, -174.758, 3.92279, 65.4782, 0.0395598, 6.76586
0, 3060.00000, 121.68, -31.7174, 121.096, -151.684, 121.964, 88.5521, 0, 0, 3.93198, -54.7913, 3.95094, -174.758, 3.92279, 65.4782, 0.0395598, 6.76586
0, 3120.00000, 121.68, -31.7174, 121.096, -151.684, 121.964, 88.5521, 0, 0, 3.93198, -54.7913, 3.95094, -174.758, 3.92279, 65.4782, 0.0395598, 6.76586
0, 3180.00000, 121.68, -31.7174, 121.096, -151.684, 121.964, 88.5521, 0, 0, 3.93198, -54.7913, 3.95094, -174.758, 3.92279, 65.4782, 0.0395598, 6.76586
0, 3240.00000, 121.68, -31.7174, 121.096, -151.684, 121.964, 88.5521, 0, 0, 3.93198, -54.7913, 3.95094, -174.758, 3.92279, 65.4782, 0.0395598, 6.76586
0, 3300.00000, 121.68, -31.7174, 121.096, -151.684, 121.964, 88.5521, 0, 0, 3.93198, -54.7913, 3.95094, -174.758, 3.92279, 65.4782, 0.0395598, 6.76586
0, 3360.00000, 121.68, -31.7174, 121.096, -151.684, 121.964, 88.5521, 0, 0, 3.93198, -54.7913, 3.95094, -174.758, 3.92279, 65.4782, 0.0395598, 6.76586
0, 3420.00000, 121.68, -31.7174, 121.096, -151.684, 121.964, 88.5521, 0, 0, 3.93198, -54.7913, 3.95094, -174.758, 3.92279, 65.4782, 0.0395598, 6.76586
0, 3480.00000, 121.68, -31.7174, 121.096, -151.684, 121.964, 88.5521, 0, 0, 3.93198, -54.7913, 3.95094, -174.758, 3.92279, 65.4782, 0.0395598, 6.76586
0, 3540.00000, 121.68, -31.7174, 121.096, -151.684, 121.964, 88.5521, 0, 0, 3.93198, -54.7913, 3.95094, -174.758, 3.92279, 65.4782, 0.0395598, 6.76586
1, 0.00000, 121.68, -31.7174, 121.096, -151.684, 121.964, 88.5521, 0, 0, 3.93198, -54.7913, 3.95094, -174.758, 3.92279, 65.4782, 0.0395598, 6.76586
1, 60.00000, 121.768, -31.5888, 121.384, -151.651, 121.962, 88.5533, 0, 0, 3.92912, -54.6628, 3.94157, -174.725, 3.92286, 65.4793, 0.0242991, -3.44902
1, 120.00000, 121.768, -31.5888, 121.384, -151.651, 121.962, 88.5533, 0, 0, 3.92911, -54.6627, 3.94155, -174.725, 3.92286, 65.4793, 0.0242715, -3.45399
1, 180.00000, 121.768, -31.5888, 121.384, -151.651, 121.962, 88.5533, 0, 0, 3.92911, -54.6627, 3.94155, -174.725, 3.92286, 65.4793, 0.0242714, -3.45404
1, 240.00000, 121.768, -31.5888, 121.384, -151.651, 121.962, 88.5533, 0, 0, 3.92911, -54.6627, 3.94155, -174.725, 3.92286, 65.4793, 0.0242714, -3.45404
1, 300.00000, 121.768, -31.5888, 121.384, -151.651, 121.962, 88.5533, 0, 0, 3.92911, -54.6627, 3.94155, -174.725, 3.92286, 65.4793, 0.0242714, -3.45404
1, 360.00000, 121.768, -31.5888, 121.384, -151.651, 121.962, 88.5533, 0, 0, 3.92911, -54.6627, 3.94155, -174.725, 3.92286, 65.4793, 0.0242714, -3.45404
1, 420.00000, 121.768, -31.5888, 121.384, -151.651, 121.962, 88.5533, 0, 0, 3.92911, -54.6627, 3.94155, -174.725, 3.92286, 65.4793, 0.0242714, -3.45404
1, 480.00000, 121.768, -31.5888, 121.384, -151.651, 121.962, 88.5533, 0, 0, 3.92911, -54.6627, 3.94155, -174.725, 3.92286, 65.4793, 0.0242714, -3.45404
1, 540.00000, 121.768, -31.5888, 121.384, -151.651, 121.962, 88.5533, 0, 0, 3.92911, -54.6627, 3.94155, -174.725, 3.92286, 65.4793, 0.0242714, -3.45404
1, 600.00000, 121.768, -31.5888, 121.384, -151.651, 121.962, 88.5533, 0, 0, 3.92911, -54.6627, 3.94155, -174.725, 3.92286, 65.4793, 0.0242714, -3.45404
1, 660.00000, 121.768, -31.5888, 121.384, -151.651, 121.962, 88.5533, 0, 0, 3.92911, -54.6627, 3.94155, -174.725, 3.92286, 65.4793, 0.0242714, -3.45404
1, 720.00000, 121.768, -31.5888, 121.384, -151.651, 121.962, 88.5533, 0, 0, 3.92911, -54.6627, 3.94155, -174.725, 3.92286, 65.4793, 0.0242714, -3.45404
1, 780.00000, 121.805, -31.594, 121.756, -151.444, 122.538, 88.5116, 0, 0, 3.92792, -54.668, 3.92954, -174.518, 3.90446, 65.4375, 0.0333775, 59.4605
1, 840.00000, 121.805, -31.594, 121.756, -151.444, 122.538, 88.5116, 0, 0, 3.92793, -54.668, 3.92952, -174.517, 3.90443, 65.4377, 0.0334077, 59.4748
1, 900.00000, 121.805, -31.594, 121.756, -151.444, 122.538, 88.5116, 0, 0, 3.92793, -54.668, 3.92952, -174.517, 3.90443, 65.4377, 0.0334078, 59.4749
1, 960.00000, 121.805, -31.594, 121.756, -151.444, 122.538, 88.5116, 0, 0, 3.92793, -54.668, 3.92952, -174.517, 3.90443, 65.4377, 0.0334078, 59.4749
1, 1020.00000, 121.805, -31.594, 121.756, -151.444, 122.538, 88.5116, 0, 0, 3.92793, -54.668, 3.92952, -174.517, 3.90443, 65.4377, 0.0334078, 59.4749
1, 1080.00000, 121.805, -31.594, 121.756, -151.444, 122.538, 88.5116, 0, 0, 3.92793, -54.668, 3.92952, -174.517, 3.90443, 65.4377, 0.0334078, 59.4749
1, 1140.00000, 121.805, -31.594, 121.756, -151.444, 122.538, 88.5116, 0, 0, 3.92793, -54.668, 3.92952, -174.517, 3.90443, 65.4377, 0.0334078, 59.4749
1, 1200.00000, 121.805, -31.594, 121.756, -151.444, 122.538, 88.5116, 0, 0, 3.92793, -54.668, 3.92952, -174.517, 3.90443, 65.4377, 0.0334078, 59.4749
1, 1260.00000, 121.805, -31.594, 121.756, -151.444, 122.538, 88.5116, 0, 0, 3.92793, -54.668, 3.92952, -174.517, 3.90443, 65.4377, 0.0334078, 59.4749
1, 1320.00000, 121.805, -31.594, 121.756, -151.444, 122.538, 88.5116, 0, 0, 3.92793, -54.668, 3.92952, -174.517, 3.90443, 65.4377, 0.0334078, 59.4749
1, 1380.00000, 121.805, -31.594, 121.756, -151.444, 122.538, 88.5116, 0, 0, 3.92793, -54.668, 3.92952, -174.517, 3.90443, 65.4377, 0.0334078, 59.4749
1, 1440.00000, 121.805, -31.594, 121.756, -151.444, 122.538, 88.5116, 0, 0, 3.92793, -54.668, 3.92952, -174.517, 3.90443, 65.4377, 0.0334078, 59.4749
1, 1500.00000, 121.805, -31.594, 121.756, -151.444, 122.538, 88.5116, 0, 0, 3.92793, -54.668, 3.92952, -174.517, 3.90443, 65.4377, 0.0334078, 59.4749
1, 1560.00000, 121.805, -31.594, 121.756, -151.444, 122.538, 88.5116, 0, 0, 3.92793, -54.668, 3.92952, -174.517, 3.90443, 65.4377, 0.0334078, 59.4749
1, 1620.00000, 121.805, -31.594, 121.756, -151.444, 122.538, 88.5116, 0, 0, 3.92793, -54.668, 3.92952, -174.517, 3.90443, 65.4377, 0.0334078, 59.4749
1, 1680.00000, 121.805, -31.594, 121.756, -151.444, 122.538, 88.5116, 0, 0, 3.92793, -54.668, 3.92952, -174.517, 3.90443, 65.4377, 0.0334078, 59.4749
1, 1740.00000, 121.805, -31.594, 121.756, -151.444, 122.538, 88.5116, 0, 0, 3.92793, -54.668, 3.92952, -174.517, 3.90443, 65.4377, 0.0334078, 59.4749
1, 1800.00000, 121.805, -31.594, 121.756, -151.444, 122.538, 88.5116, 0, 0, 3.92793, -54.668, 3.92952, -174.517, 3.90443, 65.4377, 0.0334078, 59.4749
1, 1860.00000, 121.805, -31.594, 121.756, -151.444, 122.538, 88.5116, 0, 0, 3.92793, -54.668, 3.92952, -174.517, 3.90443, 65.4377, 0.0334078, 59.4749
1, 1920.00000, 121.805, -31.594, 121.756, -151.444, 122.538, 88.5116, 0, 0, 3.92793, -54.668, 3.92952, -174.517, 3.90443, 65.4377, 0.0334078, 59.4749
1, 1980.00000, 121.805, -31.594, 121.756, -151.444, 122.538, 88.5116, 0, 0, 3.92793, -54.668, 3.92952, -174.517, 3.90443, 65.4377, 0.0334078, 59.4749
1, 2040.00000, 121.805, -31.594, 121.756, -151.444, 122.538, 88.5116, 0, 0, 3.92793, -54.668, 3.92952, -174.517, 3.90443, 65.4377, 0.0334078, 59.4749
1, 2100.00000, 121.805, -31.594, 121.756, -151.444, 122.538, 88.5116, 0, 0, 3.92793, -54.668, 3.92952, -174.517, 3.90443, 65.4377, 0.0334078, 59.4749
1, 2160.00000, 121.805, -31.594, 121.756, -151.444, 122.538, 88.5116, 0, 0, 3.92793, -54.668, 3.92952, -174.517, 3.90443, 65.4377, 0.0334078, 59.4749
1, 2220.00000, 122.167, -31.3885, 122.322, -151.481, 122.497, 88.5189, 0, 0, 3.9163, -54.4625, 3.91134, -174.555, 3.90575, 65.445, 0.00787658, 136.362
1, 2280.00000, 122.167, -31.3885, 122.322, -151.481, 122.497, 88.5189, 0, 0, 3.91629, -54.4624, 3.91132, -174.555, 3.90575, 65.4449, 0.00789739, 136.459
1, 2340.00000, 122.167, -31.3885, 122.322, -151.481, 122.497, 88.5189, 0, 0, 3.91629, -54.4624, 3.91132, -174.555, 3.90575, 65.4449, 0.00789747, 136.459
1, 2400.00000, 122.167, -31.3885, 122.322, -151.481, 122.497, 88.5189, 0, 0, 3.91629, -54.4624, 3.91132, -174.555, 3.90575, 65.4449, 0.00789747, 136.459
1, 2460.00000, 122.167, -31.3885, 122.322, -151.481, 122.497, 88.5189, 0, 0, 3.91629, -54.4624, 3.91132, -174.555, 3.90575, 65.4449, 0.00789747, 136.459
1, 2520.00000, 122.167, -31.3885, 122.322, -151.481, 122.497, 88.5189, 0, 0, 3.91629, -54.4624, 3.91132, -174.555, 3.90575, 65.4449, 0.00789747, 136.459
1, 2580.00000, 122.167, -31.3885, 122.322, -151.481, 122.497, 88.5189, 0, 0, 3.91629, -54.4624, 3.91132, -174.555, 3.90575, 65.4449, 0.00789747, 136.459
1, 2640.00000, 122.167, -31.3885, 122.322, -151.481, 122.497, 88.5189, 0, 0, 3.91629, -54.4624, 3.91132, -174.555, 3.90575, 65.4449, 0.00789747, 136.459
1, 2700.00000, 122.167, -31.3885, 122.322, -151.481, 122.497, 88.5189, 0, 0, 3.91629, -54.4624, 3.91132, -174.555, 3.90575, 65.4449, 0.00789747, 136.459
1, 2760.00000, 122.167, -31.3885, 122.322, -151.481, 122.497, 88.5189, 0, 0, 3.91629, -54.4624, 3.91132, -174.555, 3.90575, 65.4449, 0.00789747, 136.459
1, 2820.00000, 122.167, -31.3885, 122.322, -151.481, 122.497, 88.5189, 0, 0, 3.91629, -54.4624, 3.91132, -174.555, 3.90575, 65.4449, 0.00789747, 136.459
1, 2880.00000, 122.167, -31.3885, 122.322, -151.481, 122.497, 88.5189, 0, 0, 3.91629, -54.4624, 3.91132, -174.555, 3.90575, 65.4449, 0.00789747, 136.459
1, 2940.00000, 122.167, -31.3885, 122.322, -151.481, 122.497, 88.5189, 0, 0, 3.91629, -54.4624, 3.91132, -174.555, 3.90575, 65.4449, 0.00789747, 136.459
1, 3000.00000, 122.167, -31.3885, 122.322, -151.481, 122.497, 88.5189, 0, 0, 3.91629, -54.4624, 3.91132, -174.555, 3.90575, 65.4449, 0.00789747, 136.459
1, 3060.00000, 122.167, -31.3885, 122.322, -151.481, 122.497, 88.5189, 0, 0, 3.91629, -54.4624, 3.91132, -174.555, 3.90575, 65.4449, 0.00789747, 136.459
1, 3120.00000, 122.167, -31.3885, 122.322, -151.481, 122.497, 88.5189, 0, 0, 3.91629, -54.4624, 3.91132, -174.555, 3.90575, 65.4449, 0.00789747, 136.459
1, 3180.00000, 122.167, -31.3885, 122.322, -151.481, 122.497, 88.5189, 0, 0, 3.91629, -54.4624, 3.91132, -174.555, 3.90575, 65.4449, 0.00789747, 136.459
1, 3240.00000, 122.167, -31.3885, 122.322, -151.481, 122.497, 88.5189, 0, 0, 3.91629, -54.4624, 3.91132, -174.555, 3.90575, 65.4449, 0.00789747, 136.459
1, 3300.00000, 122.167, -31.3885, 122.322, -151.481, 122.497, 88.5189, 0, 0, 3.91629, -54.4624, 3.91132, -174.555, 3.90575, 65.4449, 0.00789747, 136.459
1, 3360.00000, 122.167, -31.3885, 122.322, -151.481, 122.497, 88.5189, 0, 0, 3.91629, -54.4624, 3.91132, -174.555, 3.90575, 65.4449, 0.00789747, 136.459
1, 3420.00000, 122.167, -31.3885, 122.322, -151.481, 122.497, 88.5189, 0, 0, 3.91629, -54.4624, 3.91132, -174.555, 3.90575, 65.4449, 0.00789747, 136.459
1, 3480.00000, 122.167, -31.3885, 122.322, -151.481, 122.497, 88.5189, 0, 0, 3.91629, -54.4624, 3.91132, -174.555, 3.90575, 65.4449, 0.00789747, 136.459
1, 3540.00000, 122.167, -31.3885, 122.322, -151.481, 122.497, 88.5189, 0, 0, 3.91629, -54.4624, 3.91132, -174.555, 3.90575, 65.4449, 0.00789747, 136.459
2, 0.00000, 122.167, -31.3885, 122.322, -151.481, 122.497, 88.5189, 0, 0, 3.91629, -54.4624, 3.91132, -174.555, 3.90575, 65.4449, 0.00789747, 136.459
2, 60.00000, 122.167, -31.3885, 122.322, -151.481, 122.497, 88.5189, 0, 0, 3.91629, -54.4624, 3.91132, -174.555, 3.90575, 65.4449, 0.00789747, 136.459
2, 120.00000, 122.167, -31.3885, 122.322, -151.481, 122.497, 88.5189, 0, 0, 3.91629, -54.4624, 3.91132, -174.555, 3.90575, 65.4449, 0.00789747, 136.459
2, 180.00000, 122.167, -31.3885, 122.322, -151.481, 122.497, 88.5189, 0, 0, 3.91629, -54.4624, 3.91132, -174.555, 3.90575, 65.4449, 0.00789747, 136.459
2, 240.00000, 122.167, -31.3885, 122.322, -151.481, 122.497, 88.5189, 0, 0, 3.91629, -54.4624, 3.91132, -174.555, 3.90575, 65.4449, 0.00789747, 136.459
2, 300.00000, 122.167, -31.3885, 122.322, -151.481, 122.497, 88.5189, 0, 0, 3.91629, -54.4624, 3.91132, -174.555, 3.90575, 65.4449, 0.00789747, 136.459
2, 360.00000, 122.167, -31.3885, 122.322, -151.481, 122.497, 88.5189, 0, 0, 3.91629, -54.4624, 3.91132, -174.555, 3.90575, 65.4449, 0.00789747, 136.459
2, 420.00000, 122.167, -31.3885, 122.322, -151.481, 122.497, 88.5189, 0, 0, 3.91629, -54.4624, 3.91132, -174.555, 3.90575, 65.4449, 0.00789747, 136.459
2, 480.00000, 122.167, -31.3885, 122.322, -151.481, 122.497, 88.5189, 0, 0, 3.91629, -54.4624, 3.91132, -174.555, 3.90575, 65.4449, 0.00789747, 136.459
2, 540.00000, 122.167, -31.3885, 122.322, -151.481, 122.497, 88.5189, 0, 0, 3.91629, -54.4624, 3.91132, -174.555, 3.90575, 65.4449, 0.00789747, 136.459
2, 600.00000, 122.167, -31.3885, 122.322, -151.481, 122.497, 88.5189, 0, 0, 3.91629, -54.4624, 3.91132, -174.555, 3.90575, 65.4449, 0.00789747, 136.459
2, 660.00000, 122.167, -31.3885, 122.322, -151.481, 122.497, 88.5189, 0, 0, 3.91629, -54.4624, 3.91132, -174.555, 3.90575, 65.4449, 0.00789747, 136.459
