hour,t(sec),V1,VAngle1,V2,VAngle2,V3,VAngle3,V4,VAngle4,I1,IAngle1,I2,IAngle2,I3,IAngle3,I4,IAngle4
0, 60.00000, 121.238, -31.5062, 121.63, -151.135, 122.657, 88.5461, 0, 0, 0.821103, -54.58, 0.818455, -174.209, 0.811613, 65.4724, 0.0134282, 83.7229
0, 120.00000, 121.238, -31.5062, 121.63, -151.135, 122.657, 88.5461, 0, 0, 0.821119, -54.5801, 0.818471, -174.209, 0.811622, 65.4722, 0.013434, 83.715
0, 180.00000, 121.238, -31.5062, 121.63, -151.135, 122.657, 88.5461, 0, 0, 0.821119, -54.5801, 0.818471, -174.209, 0.811622, 65.4722, 0.0134341, 83.715
0, 240.00000, 121.238, -31.5062, 121.63, -151.135, 122.657, 88.5461, 0, 0, 0.821119, -54.5801, 0.818471, -174.209, 0.811622, 65.4722, 0.0134341, 83.715
0, 300.00000, 121.238, -31.5062, 121.63, -151.135, 122.657, 88.5461, 0, 0, 0.821119, -54.5801, 0.818471, -174.209, 0.811622, 65.4722, 0.0134341, 83.715
0, 360.00000, 121.238, -31.5062, 121.63, -151.135, 122.657, 88.5461, 0, 0, 0.821119, -54.5801, 0.818471, -174.209, 0.811622, 65.4722, 0.0134341, 83.715
0, 420.00000, 121.238, -31.5062, 121.63, -151.135, 122.657, 88.5461, 0, 0, 0.821119, -54.5801, 0.818471, -174.209, 0.811622, 65.4722, 0.0134341, 83.715
0, 480.00000, 122.05, -31.3987, 122.412, -151.027, 123.414, 88.6668, 0, 0, 0.413623, -54.4729, 0.412401, -174.101, 0.409053, 65.5925, 0.00656808, 82.6955
0, 540.00000, 122.05, -31.3987, 122.412, -151.027, 123.414, 88.6668, 0, 0, 0.413615, -54.4726, 0.412391, -174.1, 0.409043, 65.5929, 0.00656794, 82.6995
0, 600.00000, 122.05, -31.3987, 122.412, -151.027, 123.414, 88.6668, 0, 0, 0.413615, -54.4726, 0.412391, -174.1, 0.409043, 65.5929, 0.00656795, 82.6996
0, 660.00000, 122.05, -31.3987, 122.412, -151.027, 123.414, 88.6668, 0, 0, 0.413615, -54.4726, 0.412391, -174.1, 0.409043, 65.5929, 0.00656795, 82.6996
0, 720.00000, 122.05, -31.3987, 122.412, -151.027, 123.414, 88.6668, 0, 0, 0.413615, -54.4726, 0.412391, -174.1, 0.409043, 65.5929, 0.00656795, 82.6996
0, 780.00000, 122.05, -31.3987, 122.412, -151.027, 123.414, 88.6668, 0, 0, 0.413615, -54.4726, 0.412391, -174.1, 0.409043, 65.5929, 0.00656795, 82.6996
0, 840.00000, 122.05, -31.3987, 122.412, -151.027, 123.414, 88.6668, 0, 0, 0.413615, -54.4726, 0.412391, -174.1, 0.409043, 65.5929, 0.00656795, 82.6996
0, 900.00000, 122.05, -31.3987, 122.412, -151.027, 123.414, 88.6668, 0, 0, 0.413615, -54.4726, 0.412391, -174.1, 0.409043, 65.5929, 0.00656795, 82.6996
0, 960.00000, 122.05, -31.3987, 122.412, -151.027, 123.414, 88.6668, 0, 0, 0.413615, -54.4726, 0.412391, -174.1, 0.409043, 65.5929, 0.00656795, 82.6996
0, 1020.00000, 122.05, -31.3987, 122.412, -151.027, 123.414, 88.6668, 0, 0, 0.413615, -54.4726, 0.412391, -174.1, 0.409043, 65.5929, 0.00656795, 82.6996
0, 1080.00000, 122.05, -31.3987, 122.412, -151.027, 123.414, 88.6668, 0, 0, 0.413615, -54.4726, 0.412391, -174.1, 0.409043, 65.5929, 0.00656795, 82.6996
0, 1140.00000, 122.05, -31.3987, 122.412, -151.027, 123.414, 88.6668, 0, 0, 0.413615, -54.4726, 0.412391, -174.1, 0.409043, 65.5929, 0.00656795, 82.6996
0, 1200.00000, 122.05, -31.3987, 122.412, -151.027, 123.414, 88.6668, 0, 0, 0.413615, -54.4726, 0.412391, -174.1, 0.409043, 65.5929, 0.00656795, 82.6996
0, 1260.00000, 122.05, -31.3987, 122.412, -151.027, 123.414, 88.6668, 0, 0, 0.413615, -54.4726, 0.412391, -174.1, 0.409043, 65.5929, 0.00656795, 82.6996
0, 1320.00000, 122.05, -31.3987, 122.412, -151.027, 123.414, 88.6668, 0, 0, 0.413615, -54.4726, 0.412391, -174.1, 0.409043, 65.5929, 0.00656795, 82.6996
0, 1380.00000, 122.05, -31.3987, 122.412, -151.027, 123.414, 88.6668, 0, 0, 0.413615, -54.4726, 0.412391, -174.1, 0.409043, 65.5929, 0.00656795, 82.6996
0, 1440.00000, 122.05, -31.3987, 122.412, -151.027, 123.414, 88.6668, 0, 0, 0.413615, -54.4726, 0.412391, -174.1, 0.409043, 65.5929, 0.00656795, 82.6996
0, 1500.00000, 122.05, -31.3987, 122.412, -151.027, 123.414, 88.6668, 0, 0, 0.413615, -54.4726, 0.412391, -174.1, 0.409043, 65.5929, 0.00656795, 82.6996
0, 1560.00000, 122.05, -31.3987, 122.412, -151.027, 123.414, 88.6668, 0, 0, 0.413615, -54.4726, 0.412391, -174.1, 0.409043, 65.5929, 0.00656795, 82.6996
0, 1620.00000, 122.05, -31.3987, 122.412, -151.027, 123.414, 88.6668, 0, 0, 0.413615, -54.4726, 0.412391, -174.1, 0.409043, 65.5929, 0.00656795, 82.6996
0, 1680.00000, 122.05, -31.3987, 122.412, -151.027, 123.414, 88.6668, 0, 0, 0.413615, -54.4726, 0.412391, -174.1, 0.409043, 65.5929, 0.00656795, 82.6996
0, 1740.00000, 122.05, -31.3987, 122.412, -151.027, 123.414, 88.6668, 0, 0, 0.413615, -54.4726, 0.412391, -174.1, 0.409043, 65.5929, 0.00656795, 82.6996
0, 1800.00000, 122.05, -31.3987, 122.412, -151.027, 123.414, 88.6668, 0, 0, 0.413615, -54.4726, 0.412391, -174.1, 0.409043, 65.5929, 0.00656795, 82.6996
0, 1860.00000, 122.05, -31.3987, 122.412, -151.027, 123.414, 88.6668, 0, 0, 0.413615, -54.4726, 0.412391, -174.1, 0.409043, 65.5929, 0.00656795, 82.6996
0, 1920.00000, 122.05, -31.3987, 122.412, -151.027, 123.414, 88.6668, 0, 0, 0.413615, -54.4726, 0.412391, -174.1, 0.409043, 65.5929, 0.00656795, 82.6996
0, 1980.00000, 122.05, -31.3987, 122.412, -151.027, 123.414, 88.6668, 0, 0, 0.413615, -54.4726, 0.412391, -174.1, 0.409043, 65.5929, 0.00656795, 82.6996
0, 2040.00000, 122.05, -31.3987, 122.412, -151.027, 123.414, 88.6668, 0, 0, 0.413615, -54.4726, 0.412391, -174.1, 0.409043, 65.5929, 0.00656795, 82.6996
0, 2100.00000, 122.05, -31.3987, 122.412, -151.027, 123.414, 88.6668, 0, 0, 0.413615, -54.4726, 0.412391, -174.1, 0.409043, 65.5929, 0.00656795, 82.6996
0, 2160.00000, 122.05, -31.3987, 122.412, -151.027, 123.414, 88.6668, 0, 0, 0.413615, -54.4726, 0.412391, -174.1, 0.409043, 65.5929, 0.00656795, 82.6996
0, 2220.00000, 122.05, -31.3987, 122.412, -151.027, 123.414, 88.6668, 0, 0, 0.413615, -54.4726, 0.412391, -174.1, 0.409043, 65.5929, 0.00656795, 82.6996
0, 2280.00000, 122.05, -31.3987, 122.412, -151.027, 123.414, 88.6668, 0, 0, 0.413615, -54.4726, 0.412391, -174.1, 0.409043, 65.5929, 0.00656795, 82.6996
0, 2340.00000, 122.05, -31.3987, 122.412, -151.027, 123.414, 88.6668, 0, 0, 0.413615, -54.4726, 0.412391, -174.1, 0.409043, 65.5929, 0.00656795, 82.6996
0, 2400.00000, 122.05, -31.3987, 122.412, -151.027, 123.414, 88.6668, 0, 0, 0.413615, -54.4726, 0.412391, -174.1, 0.409043, 65.5929, 0.00656795, 82.6996
0, 2460.00000, 122.05, -31.3987, 122.412, -151.027, 123.414, 88.6668, 0, 0, 0.413615, -54.4726, 0.412391, -174.1, 0.409043, 65.5929, 0.00656795, 82.6996
0, 2520.00000, 122.05, -31.3987, 122.412, -151.027, 123.414, 88.6668, 0, 0, 0.413615, -54.4726, 0.412391, -174.1, 0.409043, 65.5929, 0.00656795, 82.6996
0, 2580.00000, 122.05, -31.3987, 122.412, -151.027, 123.414, 88.6668, 0, 0, 0.413615, -54.4726, 0.412391, -174.1, 0.409043, 65.5929, 0.00656795, 82.6996
0, 2640.00000, 122.05, -31.3987, 122.412, -151.027, 123.414, 88.6668, 0, 0, 0.413615, -54.4726, 0.412391, -174.1, 0.409043, 65.5929, 0.00656795, 82.6996
0, 2700.00000, 122.05, -31.3987, 122.412, -151.027, 123.414, 88.6668, 0, 0, 0.413615, -54.4726, 0.412391, -174.1, 0.409043, 65.5929, 0.00656795, 82.6996
0, 2760.00000, 122.05, -31.3987, 122.412, -151.027, 123.414, 88.6668, 0, 0, 0.413615, -54.4726, 0.412391, -174.1, 0.409043, 65.5929, 0.00656795, 82.6996
0, 2820.00000, 122.05, -31.3987, 122.412, -151.027, 123.414, 88.6668, 0, 0, 0.413615, -54.4726, 0.412391, -174.1, 0.409043, 65.5929, 0.00656795, 82.6996
0, 2880.00000, 122.05, -31.3987, 122.412, -151.027, 123.414, 88.6668, 0, 0, 0.413615, -54.4726, 0.412391, -174.1, 0.409043, 65.5929, 0.00656795, 82.6996
0, 2940.00000, 122.05, -31.3987, 122.412, -151.027, 123.414, 88.6668, 0, 0, 0.413615, -54.4726, 0.412391, -174.1, 0.409043, 65.5929, 0.00656795, 82.6996
0, 3000.00000, 122.05, -31.3987, 122.412, -151.027, 123.414, 88.6668, 0, 0, 0.413615, -54.4726, 0.412391, -174.1, 0.409043, 65.5929, 0.00656795, 82.6996
0, 3060.00000, 122.05, -31.3987, 122.412, -151.027, 123.414, 88.6668, 0, 0, 0.413615, -54.4726, 0.412391, -174.1, 0.409043, 65.5929, 0.00656795, 82.6996
0, 3120.00000, 122.05, -31.3987, 122.412, -151.027, 123.414, 88.6668, 0, 0, 0.413615, -54.4726, 0.412391, -174.1, 0.409043, 65.5929, 0.00656795, 82.6996
0, 3180.00000, 122.05, -31.3987, 122.412, -151.027, 123.414, 88.6668, 0, 0, 0.413615, -54.4726, 0.412391, -174.1, 0.409043, 65.5929, 0.00656795, 82.6996
0, 3240.00000, 122.05, -31.3987, 122.412, -151.027, 123.414, 88.6668, 0, 0, 0.413615, -54.4726, 0.412391, -174.1, 0.409043, 65.5929, 0.00656795, 82.6996
0, 3300.00000, 122.05, -31.3987, 122.412, -151.027, 123.414, 88.6668, 0, 0, 0.413615, -54.4726, 0.412391, -174.1, 0.409043, 65.5929, 0.00656795, 82.6996
0, 3360.00000, 122.05, -31.3987, 122.412, -151.027, 123.414, 88.6668, 0, 0, 0.413615, -54.4726, 0.412391, -174.1, 0.409043, 65.5929, 0.00656795, 82.6996
0, 3420.00000, 122.05, -31.3987, 122.412, -151.027, 123.414, 88.6668, 0, 0, 0.413615, -54.4726, 0.412391, -174.1, 0.409043, 65.5929, 0.00656795, 82.6996
0, 3480.00000, 122.05, -31.3987, 122.412, -151.027, 123.414, 88.6668, 0, 0, 0.413615, -54.4726, 0.412391, -174.1, 0.409043, 65.5929, 0.00656795, 82.6996
0, 3540.00000, 122.05, -31.3987, 122.412, -151.027, 123.414, 88.6668, 0, 0, 0.413615, -54.4726, 0.412391, -174.1, 0.409043, 65.5929, 0.00656795, 82.6996
1, 0.00000, 122.05, -31.3987, 122.412, -151.027, 123.414, 88.6668, 0, 0, 0.413615, -54.4726, 0.412391, -174.1, 0.409043, 65.5929, 0.00656795, 82.6996
1, 60.00000, 122.05, -31.3987, 122.412, -151.027, 123.414, 88.6668, 0, 0, 0.413615, -54.4726, 0.412391, -174.1, 0.409043, 65.5929, 0.00656795, 82.6996
1, 120.00000, 122.05, -31.3987, 122.412, -151.027, 123.414, 88.6668, 0, 0, 0.413615, -54.4726, 0.412391, -174.1, 0.409043, 65.5929, 0.00656795, 82.6996
1, 180.00000, 122.05, -31.3987, 122.412, -151.027, 123.414, 88.6668, 0, 0, 0.413615, -54.4726, 0.412391, -174.1, 0.409043, 65.5929, 0.00656795, 82.6996
1, 240.00000, 122.05, -31.3987, 122.412, -151.027, 123.414, 88.6668, 0, 0, 0.413615, -54.4726, 0.412391, -174.1, 0.409043, 65.5929, 0.00656795, 82.6996
1, 300.00000, 122.05, -31.3987, 122.412, -151.027, 123.414, 88.6668, 0, 0, 0.413615, -54.4726, 0.412391, -174.1, 0.409043, 65.5929, 0.00656795, 82.6996
1, 360.00000, 122.05, -31.3987, 122.412, -151.027, 123.414, 88.6668, 0, 0, 0.413615, -54.4726, 0.412391, -174.1, 0.409043, 65.5929, 0.00656795, 82.6996
1, 420.00000, 122.05, -31.3987, 122.412, -151.027, 123.414, 88.6668, 0, 0, 0.413615, -54.4726, 0.412391, -174.1, 0.409043, 65.5929, 0.00656795, 82.6996
1, 480.00000, 122.05, -31.3987, 122.412, -151.027, 123.414, 88.6668, 0, 0, 0.413615, -54.4726, 0.412391, -174.1, 0.409043, 65.5929, 0.00656795, 82.6996
1, 540.00000, 122.05, -31.3987, 122.412, -151.027, 123.414, 88.6668, 0, 0, 0.413615, -54.4726, 0.412391, -174.1, 0.409043, 65.5929, 0.00656795, 82.6996
1, 600.00000, 122.05, -31.3987, 122.412, -151.027, 123.414, 88.6668, 0, 0, 0.413615, -54.4726, 0.412391, -174.1, 0.409043, 65.5929, 0.00656795, 82.6996
1, 660.00000, 122.05, -31.3987, 122.412, -151.027, 123.414, 88.6668, 0, 0, 0.413615, -54.4726, 0.412391, -174.1, 0.409043, 65.5929, 0.00656795, 82.6996
1, 720.00000, 122.05, -31.3987, 122.412, -151.027, 123.414, 88.6668, 0, 0, 0.413615, -54.4726, 0.412391, -174.1, 0.409043, 65.5929, 0.00656795, 82.6996
1, 780.00000, 122.05, -31.3987, 122.412, -151.027, 123.414, 88.6668, 0, 0, 0.413615, -54.4726, 0.412391, -174.1, 0.409043, 65.5929, 0.00656795, 82.6996
1, 840.00000, 122.05, -31.3987, 122.412, -151.027, 123.414, 88.6668, 0, 0, 0.413615, -54.4726, 0.412391, -174.1, 0.409043, 65.5929, 0.00656795, 82.6996
1, 900.00000, 122.05, -31.3987, 122.412, -151.027, 123.414, 88.6668, 0, 0, 0.413615, -54.4726, 0.412391, -174.1, 0.409043, 65.5929, 0.00656795, 82.6996
1, 960.00000, 122.05, -31.3987, 122.412, -151.027, 123.414, 88.6668, 0, 0, 0.413615, -54.4726, 0.412391, -174.1, 0.409043, 65.5929, 0.00656795, 82.6996
1, 1020.00000, 122.05, -31.3987, 122.412, -151.027, 123.414, 88.6668, 0, 0, 0.413615, -54.4726, 0.412391, -174.1, 0.409043, 65.5929, 0.00656795, 82.6996
1, 1080.00000, 122.05, -31.3987, 122.412, -151.027, 123.414, 88.6668, 0, 0, 0.413615, -54.4726, 0.412391, -174.1, 0.409043, 65.5929, 0.00656795, 82.6996
1, 1140.00000, 122.05, -31.3987, 122.412, -151.027, 123.414, 88.6668, 0, 0, 0.413615, -54.4726, 0.412391, -174.1, 0.409043, 65.5929, 0.00656795, 82.6996
1, 1200.00000, 122.05, -31.3987, 122.412, -151.027, 123.414, 88.6668, 0, 0, 0.413615, -54.4726, 0.412391, -174.1, 0.409043, 65.5929, 0.00656795, 82.6996
1, 1260.00000, 122.05, -31.3987, 122.412, -151.027, 123.414, 88.6668, 0, 0, 0.413615, -54.4726, 0.412391, -174.1, 0.409043, 65.5929, 0.00656795, 82.6996
1, 1320.00000, 122.05, -31.3987, 122.412, -151.027, 123.414, 88.6668, 0, 0, 0.413615, -54.4726, 0.412391, -174.1, 0.409043, 65.5929, 0.00656795, 82.6996
1, 1380.00000, 122.05, -31.3987, 122.412, -151.027, 123.414, 88.6668, 0, 0, 0.413615, -54.4726, 0.412391, -174.1, 0.409043, 65.5929, 0.00656795, 82.6996
1, 1440.00000, 122.05, -31.3987, 122.412, -151.027, 123.414, 88.6668, 0, 0, 0.413615, -54.4726, 0.412391, -174.1, 0.409043, 65.5929, 0.00656795, 82.6996
1, 1500.00000, 122.05, -31.3987, 122.412, -151.027, 123.414, 88.6668, 0, 0, 0.413615, -54.4726, 0.412391, -174.1, 0.409043, 65.5929, 0.00656795, 82.6996
1, 1560.00000, 122.05, -31.3987, 122.412, -151.027, 123.414, 88.6668, 0, 0, 0.413615, -54.4726, 0.412391, -174.1, 0.409043, 65.5929, 0.00656795, 82.6996
1, 1620.00000, 122.05, -31.3987, 122.412, -151.027, 123.414, 88.6668, 0, 0, 0.413615, -54.4726, 0.412391, -174.1, 0.409043, 65.5929, 0.00656795, 82.6996
1, 1680.00000, 122.05, -31.3987, 122.412, -151.027, 123.414, 88.6668, 0, 0, 0.413615, -54.4726, 0.412391, -174.1, 0.409043, 65.5929, 0.00656795, 82.6996
1, 1740.00000, 122.05, -31.3987, 122.412, -151.027, 123.414, 88.6668, 0, 0, 0.413615, -54.4726, 0.412391, -174.1, 0.409043, 65.5929, 0.00656795, 82.6996
1, 1800.00000, 122.05, -31.3987, 122.412, -151.027, 123.414, 88.6668, 0, 0, 0.413615, -54.4726, 0.412391, -174.1, 0.409043, 65.5929, 0.00656795, 82.6996
1, 1860.00000, 122.05, -31.3987, 122.412, -151.027, 123.414, 88.6668, 0, 0, 0.413615, -54.4726, 0.412391, -174.1, 0.409043, 65.5929, 0.00656795, 82.6996
1, 1920.00000, 122.05, -31.3987, 122.412, -151.027, 123.414, 88.6668, 0, 0, 0.413615, -54.4726, 0.412391, -174.1, 0.409043, 65.5929, 0.00656795, 82.6996
1, 1980.00000, 122.05, -31.3987, 122.412, -151.027, 123.414, 88.6668, 0, 0, 0.413615, -54.4726, 0.412391, -174.1, 0.409043, 65.5929, 0.00656795, 82.6996
1, 2040.00000, 122.05, -31.3987, 122.412, -151.027, 123.414, 88.6668, 0, 0, 0.413615, -54.4726, 0.412391, -174.1, 0.409043, 65.5929, 0.00656795, 82.6996
1, 2100.00000, 122.05, -31.3987, 122.412, -151.027, 123.414, 88.6668, 0, 0, 0.413615, -54.4726, 0.412391, -174.1, 0.409043, 65.5929, 0.00656795, 82.6996
1, 2160.00000, 122.05, -31.3987, 122.412, -151.027, 123.414, 88.6668, 0, 0, 0.413615, -54.4726, 0.412391, -174.1, 0.409043, 65.5929, 0.00656795, 82.6996
1, 2220.00000, 122.05, -31.3987, 122.412, -151.027, 123.414, 88.6668, 0, 0, 0.413615, -54.4726, 0.412391, -174.1, 0.409043, 65.5929, 0.00656795, 82.6996
1, 2280.00000, 122.05, -31.3987, 122.412, -151.027, 123.414, 88.6668, 0, 0, 0.413615, -54.4726, 0.412391, -174.1, 0.409043, 65.5929, 0.00656795, 82.6996
1, 2340.00000, 122.05, -31.3987, 122.412, -151.027, 123.414, 88.6668, 0, 0, 0.413615, -54.4726, 0.412391, -174.1, 0.409043, 65.5929, 0.00656795, 82.6996
1, 2400.00000, 122.05, -31.3987, 122.412, -151.027, 123.414, 88.6668, 0, 0, 0.413615, -54.4726, 0.412391, -174.1, 0.409043, 65.5929, 0.00656795, 82.6996
1, 2460.00000, 122.05, -31.3987, 122.412, -151.027, 123.414, 88.6668, 0, 0, 0.413615, -54.4726, 0.412391, -174.1, 0.409043, 65.5929, 0.00656795, 82.6996
1, 2520.00000, 122.05, -31.3987, 122.412, -151.027, 123.414, 88.6668, 0, 0, 0.413615, -54.4726, 0.412391, -174.1, 0.409043, 65.5929, 0.00656795, 82.6996
1, 2580.00000, 122.05, -31.3987, 122.412, -151.027, 123.414, 88.6668, 0, 0, 0.413615, -54.4726, 0.412391, -174.1, 0.409043, 65.5929, 0.00656795, 82.6996
1, 2640.00000, 122.05, -31.3987, 122.412, -151.027, 123.414, 88.6668, 0, 0, 0.413615, -54.4726, 0.412391, -174.1, 0.409043, 65.5929, 0.00656795, 82.6996
1, 2700.00000, 122.05, -31.3987, 122.412, -151.027, 123.414, 88.6668, 0, 0, 0.413615, -54.4726, 0.412391, -174.1, 0.409043, 65.5929, 0.00656795, 82.6996
1, 2760.00000, 122.05, -31.3987, 122.412, -151.027, 123.414, 88.6668, 0, 0, 0.413615, -54.4726, 0.412391, -174.1, 0.409043, 65.5929, 0.00656795, 82.6996
1, 2820.00000, 122.05, -31.3987, 122.412, -151.027, 123.414, 88.6668, 0, 0, 0.413615, -54.4726, 0.412391, -174.1, 0.409043, 65.5929, 0.00656795, 82.6996
1, 2880.00000, 122.05, -31.3987, 122.412, -151.027, 123.414, 88.6668, 0, 0, 0.413615, -54.4726, 0.412391, -174.1, 0.409043, 65.5929, 0.00656795, 82.6996
1, 2940.00000, 122.05, -31.3987, 122.412, -151.027, 123.414, 88.6668, 0, 0, 0.413615, -54.4726, 0.412391, -174.1, 0.409043, 65.5929, 0.00656795, 82.6996
1, 3000.00000, 122.05, -31.3987, 122.412, -151.027, 123.414, 88.6668, 0, 0, 0.413615, -54.4726, 0.412391, -174.1, 0.409043, 65.5929, 0.00656795, 82.6996
1, 3060.00000, 122.05, -31.3987, 122.412, -151.027, 123.414, 88.6668, 0, 0, 0.413615, -54.4726, 0.412391, -174.1, 0.409043, 65.5929, 0.00656795, 82.6996
1, 3120.00000, 122.05, -31.3987, 122.412, -151.027, 123.414, 88.6668, 0, 0, 0.413615, -54.4726, 0.412391, -174.1, 0.409043, 65.5929, 0.00656795, 82.6996
1, 3180.00000, 122.05, -31.3987, 122.412, -151.027, 123.414, 88.6668, 0, 0, 0.413615, -54.4726, 0.412391, -174.1, 0.409043, 65.5929, 0.00656795, 82.6996
1, 3240.00000, 122.05, -31.3987, 122.412, -151.027, 123.414, 88.6668, 0, 0, 0.413615, -54.4726, 0.412391, -174.1, 0.409043, 65.5929, 0.00656795, 82.6996
1, 3300.00000, 122.05, -31.3987, 122.412, -151.027, 123.414, 88.6668, 0, 0, 0.413615, -54.4726, 0.412391, -174.1, 0.409043, 65.5929, 0.00656795, 82.6996
1, 3360.00000, 122.05, -31.3987, 122.412, -151.027, 123.414, 88.6668, 0, 0, 0.413615, -54.4726, 0.412391, -174.1, 0.409043, 65.5929, 0.00656795, 82.6996
1, 3420.00000, 122.05, -31.3987, 122.412, -151.027, 123.414, 88.6668, 0, 0, 0.413615, -54.4726, 0.412391, -174.1, 0.409043, 65.5929, 0.00656795, 82.6996
1, 3480.00000, 122.05, -31.3987, 122.412, -151.027, 123.414, 88.6668, 0, 0, 0.413615, -54.4726, 0.412391, -174.1, 0.409043, 65.5929, 0.00656795, 82.6996
1, 3540.00000, 122.05, -31.3987, 122.412, -151.027, 123.414, 88.6668, 0, 0, 0.413615, -54.4726, 0.412391, -174.1, 0.409043, 65.5929, 0.00656795, 82.6996
2, 0.00000, 122.05, -31.3987, 122.412, -151.027, 123.414, 88.6668, 0, 0, 0.413615, -54.4726, 0.412391, -174.1, 0.409043, 65.5929, 0.00656795, 82.6996
2, 60.00000, 122.05, -31.3987, 122.412, -151.027, 123.414, 88.6668, 0, 0, 0.413615, -54.4726, 0.412391, -174.1, 0.409043, 65.5929, 0.00656795, 82.6996
2, 120.00000, 122.05, -31.3987, 122.412, -151.027, 123.414, 88.6668, 0, 0, 0.413615, -54.4726, 0.412391, -174.1, 0.409043, 65.5929, 0.00656795, 82.6996
2, 180.00000, 122.05, -31.3987, 122.412, -151.027, 123.414, 88.6668, 0, 0, 0.413615, -54.4726, 0.412391, -174.1, 0.409043, 65.5929, 0.00656795, 82.6996
2, 240.00000, 122.05, -31.3987, 122.412, -151.027, 123.414, 88.6668, 0, 0, 0.413615, -54.4726, 0.412391, -174.1, 0.409043, 65.5929, 0.00656795, 82.6996
2, 300.00000, 122.05, -31.3987, 122.412, -151.027, 123.414, 88.6668, 0, 0, 0.413615, -54.4726, 0.412391, -174.1, 0.409043, 65.5929, 0.00656795, 82.6996
2, 360.00000, 122.05, -31.3987, 122.412, -151.027, 123.414, 88.6668, 0, 0, 0.413615, -54.4726, 0.412391, -174.1, 0.409043, 65.5929, 0.00656795, 82.6996
2, 420.00000, 122.05, -31.3987, 122.412, -151.027, 123.414, 88.6668, 0, 0, 0.413615, -54.4726, 0.412391, -174.1, 0.409043, 65.5929, 0.00656795, 82.6996
2, 480.00000, 122.05, -31.3987, 122.412, -151.027, 123.414, 88.6668, 0, 0, 0.413615, -54.4726, 0.412391, -174.1, 0.409043, 65.5929, 0.00656795, 82.6996
2, 540.00000, 122.05, -31.3987, 122.412, -151.027, 123.414, 88.6668, 0, 0, 0.413615, -54.4726, 0.412391, -174.1, 0.409043, 65.5929, 0.00656795, 82.6996
2, 600.00000, 122.05, -31.3987, 122.412, -151.027, 123.414, 88.6668, 0, 0, 0.413615, -54.4726, 0.412391, -174.1, 0.409043, 65.5929, 0.00656795, 82.6996
