hour,t(sec),V1,VAngle1,V2,VAngle2,V3,VAngle3,V4,VAngle4,I1,IAngle1,I2,IAngle2,I3,IAngle3,I4,IAngle4
0, 60.00000, 119.876, -32.6253, 118.129, -152.015, 120.708, 88.5961, 0, 0, 8.32099, -55.699, 8.18636, -175.088, 8.37895, 65.5228, 0.051302, -95.1181
0, 120.00000, 119.879, -32.6394, 118.128, -152.015, 120.738, 88.5905, 0, 0, 8.32123, -55.7132, 8.18632, -175.089, 8.37687, 65.5172, 0.0476744, -93.5217
0, 180.00000, 119.882, -32.6522, 118.128, -152.015, 120.764, 88.5855, 0, 0, 8.32145, -55.726, 8.18629, -175.089, 8.37501, 65.5121, 0.044447, -91.8629
0, 240.00000, 119.885, -32.6637, 118.127, -152.016, 120.788, 88.581, 0, 0, 8.32164, -55.7375, 8.18626, -175.09, 8.37333, 65.5076, 0.0415799, -90.1507
0, 300.00000, 119.887, -32.6741, 118.127, -152.016, 120.81, 88.5769, 0, 0, 8.32181, -55.7479, 8.18623, -175.09, 8.37182, 65.5034, 0.0390367, -88.3958
0, 360.00000, 119.889, -32.6834, 118.127, -152.017, 120.829, 88.5733, 0, 0, 8.32196, -55.7572, 8.1862, -175.09, 8.37046, 65.4997, 0.0367832, -86.6088
0, 420.00000, 119.891, -32.6918, 118.126, -152.017, 120.847, 88.57, 0, 0, 8.3221, -55.7656, 8.18618, -175.091, 8.36924, 65.4964, 0.0347884, -84.8002
0, 480.00000, 120.803, -32.5963, 118.945, -151.932, 121.756, 88.6907, 0, 0, 7.56474, -55.6701, 7.45361, -175.005, 7.50566, 65.6171, 0.0850437, 44.6134
0, 540.00000, 120.804, -32.6031, 118.944, -151.932, 121.771, 88.6881, 0, 0, 7.56465, -55.6769, 7.45359, -175.006, 7.50473, 65.6144, 0.0866089, 44.875
0, 600.00000, 120.806, -32.6092, 118.944, -151.932, 121.784, 88.6857, 0, 0, 7.56457, -55.6831, 7.45356, -175.006, 7.5039, 65.612, 0.0880215, 45.1033
0, 660.00000, 120.807, -32.6147, 118.944, -151.932, 121.797, 88.6835, 0, 0, 7.56449, -55.6886, 7.45355, -175.006, 7.50314, 65.6098, 0.0892939, 45.3031
0, 720.00000, 120.808, -32.6197, 118.944, -151.933, 121.807, 88.6815, 0, 0, 7.56443, -55.6936, 7.45353, -175.006, 7.50246, 65.6078, 0.09044, 45.4783
0, 780.00000, 120.809, -32.6242, 118.943, -151.933, 121.817, 88.6798, 0, 0, 7.56437, -55.698, 7.45351, -175.007, 7.50185, 65.6061, 0.0914722, 45.6325
0, 840.00000, 120.81, -32.6282, 118.943, -151.933, 121.826, 88.6782, 0, 0, 7.56432, -55.7021, 7.4535, -175.007, 7.50131, 65.6045, 0.0924017, 45.7686
0, 900.00000, 120.811, -32.6318, 118.943, -151.933, 121.834, 88.6768, 0, 0, 7.56427, -55.7057, 7.45349, -175.007, 7.50081, 65.603, 0.0932387, 45.8888
0, 960.00000, 120.387, -32.9604, 118.149, -151.936, 121.875, 88.6571, 0, 0, 7.55393, -56.0343, 7.39827, -175.01, 7.4983, 65.5833, 0.0951965, 58.0925
0, 1020.00000, 120.387, -32.9633, 118.149, -151.937, 121.881, 88.656, 0, 0, 7.55397, -56.0372, 7.39827, -175.01, 7.49791, 65.5822, 0.0959209, 58.1403
0, 1080.00000, 120.388, -32.966, 118.149, -151.937, 121.887, 88.6549, 0, 0, 7.554, -56.0399, 7.39826, -175.011, 7.49755, 65.5811, 0.0965736, 58.1827
0, 1140.00000, 120.477, -32.8341, 118.439, -151.901, 121.889, 88.6578, 0, 0, 7.56023, -55.908, 7.41842, -174.975, 7.49741, 65.584, 0.0992217, 57.6538
0, 1200.00000, 120.478, -32.8362, 118.439, -151.901, 121.894, 88.6569, 0, 0, 7.56026, -55.9101, 7.41841, -174.975, 7.49712, 65.5831, 0.0997505, 57.6898
0, 1260.00000, 120.478, -32.8381, 118.439, -151.901, 121.898, 88.6562, 0, 0, 7.56029, -55.912, 7.41841, -174.975, 7.49686, 65.5823, 0.100226, 57.7217
0, 1320.00000, 120.479, -32.8399, 118.439, -151.901, 121.902, 88.6555, 0, 0, 7.56031, -55.9138, 7.4184, -174.975, 7.49663, 65.5816, 0.100654, 57.7502
0, 1380.00000, 120.479, -32.8414, 118.439, -151.901, 121.905, 88.6549, 0, 0, 7.56033, -55.9153, 7.4184, -174.975, 7.49642, 65.581, 0.10104, 57.7756
0, 1440.00000, 120.479, -32.8428, 118.439, -151.901, 121.908, 88.6543, 0, 0, 7.56035, -55.9167, 7.41839, -174.975, 7.49623, 65.5804, 0.101387, 57.7983
0, 1500.00000, 120.479, -32.8441, 118.439, -151.901, 121.911, 88.6538, 0, 0, 7.56037, -55.918, 7.41839, -174.975, 7.49605, 65.5799, 0.101699, 57.8185
0, 1560.00000, 120.48, -32.8452, 118.438, -151.901, 121.913, 88.6534, 0, 0, 7.56038, -55.9191, 7.41839, -174.975, 7.4959, 65.5795, 0.10198, 57.8367
0, 1620.00000, 120.48, -32.8462, 118.438, -151.901, 121.915, 88.6529, 0, 0, 7.56039, -55.9201, 7.41838, -174.975, 7.49576, 65.5791, 0.102232, 57.8529
0, 1680.00000, 120.48, -32.8472, 118.438, -151.901, 121.917, 88.6526, 0, 0, 7.56041, -55.9211, 7.41838, -174.975, 7.49564, 65.5787, 0.10246, 57.8675
0, 1740.00000, 120.48, -32.848, 118.438, -151.901, 121.919, 88.6522, 0, 0, 7.56042, -55.9219, 7.41838, -174.975, 7.49552, 65.5784, 0.102665, 57.8805
0, 1800.00000, 119.869, -32.8035, 118.438, -151.893, 121.466, 88.4304, 0, 0, 7.51788, -55.8774, 7.41836, -174.967, 7.52351, 65.3565, 0.050599, 45.6127
0, 1860.00000, 119.869, -32.8041, 118.438, -151.893, 121.467, 88.4301, 0, 0, 7.51789, -55.878, 7.41836, -174.967, 7.52343, 65.3562, 0.0507541, 45.6724
0, 1920.00000, 119.869, -32.8047, 118.438, -151.893, 121.468, 88.4299, 0, 0, 7.51789, -55.8786, 7.41836, -174.967, 7.52335, 65.356, 0.0508942, 45.7258
0, 1980.00000, 119.869, -32.8053, 118.438, -151.893, 121.469, 88.4297, 0, 0, 7.5179, -55.8792, 7.41836, -174.967, 7.52327, 65.3558, 0.0510203, 45.7737
0, 2040.00000, 119.869, -32.8057, 118.438, -151.893, 121.47, 88.4295, 0, 0, 7.51791, -55.8796, 7.41836, -174.967, 7.52321, 65.3556, 0.0511338, 45.8165
0, 2100.00000, 119.869, -32.8062, 118.438, -151.893, 121.471, 88.4293, 0, 0, 7.51792, -55.8801, 7.41836, -174.967, 7.52315, 65.3554, 0.051236, 45.8549
0, 2160.00000, 119.869, -32.8066, 118.438, -151.893, 121.472, 88.4291, 0, 0, 7.51792, -55.8805, 7.41836, -174.967, 7.5231, 65.3552, 0.051328, 45.8893
0, 2220.00000, 119.869, -32.8069, 118.438, -151.893, 121.473, 88.429, 0, 0, 7.51793, -55.8808, 7.41836, -174.967, 7.52305, 65.3551, 0.0514108, 45.9201
0, 2280.00000, 119.869, -32.8072, 118.438, -151.893, 121.474, 88.4289, 0, 0, 7.51793, -55.8811, 7.41835, -174.967, 7.52301, 65.355, 0.0514853, 45.9478
0, 2340.00000, 119.87, -32.8075, 118.438, -151.893, 121.474, 88.4288, 0, 0, 7.51793, -55.8814, 7.41835, -174.967, 7.52297, 65.3549, 0.0515524, 45.9727
0, 2400.00000, 119.87, -32.8078, 118.438, -151.893, 121.475, 88.4287, 0, 0, 7.51794, -55.8817, 7.41835, -174.967, 7.52294, 65.3548, 0.0516128, 45.995
0, 2460.00000, 119.87, -32.808, 118.438, -151.893, 121.475, 88.4286, 0, 0, 7.51794, -55.8819, 7.41835, -174.967, 7.52291, 65.3547, 0.0516672, 46.015
0, 2520.00000, 119.87, -32.8082, 118.438, -151.893, 121.476, 88.4285, 0, 0, 7.51794, -55.8821, 7.41835, -174.967, 7.52288, 65.3546, 0.0517161, 46.033
0, 2580.00000, 119.87, -32.8084, 118.438, -151.893, 121.476, 88.4284, 0, 0, 7.51795, -55.8823, 7.41835, -174.967, 7.52285, 65.3545, 0.0517601, 46.0492
0, 2640.00000, 119.87, -32.8086, 118.438, -151.893, 121.477, 88.4284, 0, 0, 7.51795, -55.8825, 7.41835, -174.967, 7.52283, 65.3544, 0.0517998, 46.0637
0, 2700.00000, 119.87, -32.8087, 118.438, -151.893, 121.477, 88.4283, 0, 0, 7.51795, -55.8826, 7.41835, -174.967, 7.52281, 65.3544, 0.0518354, 46.0768
0, 2760.00000, 120.179, -32.7762, 118.439, -151.895, 121.599, 88.5632, 0, 0, 7.53944, -55.8501, 7.41839, -174.969, 7.51524, 65.4893, 0.06541, 52.6654
0, 2820.00000, 120.179, -32.7763, 118.439, -151.895, 121.6, 88.5632, 0, 0, 7.53944, -55.8502, 7.41839, -174.969, 7.51522, 65.4893, 0.0654422, 52.6708
0, 2880.00000, 120.179, -32.7764, 118.439, -151.895, 121.6, 88.5631, 0, 0, 7.53945, -55.8503, 7.41839, -174.969, 7.51521, 65.4892, 0.0654691, 52.6757
0, 2940.00000, 120.179, -32.7765, 118.439, -151.895, 121.6, 88.5631, 0, 0, 7.53945, -55.8504, 7.41839, -174.969, 7.51519, 65.4892, 0.0654933, 52.6802
0, 3000.00000, 120.179, -32.7766, 118.439, -151.895, 121.6, 88.5631, 0, 0, 7.53945, -55.8505, 7.41839, -174.969, 7.51518, 65.4892, 0.0655151, 52.6841
0, 3060.00000, 120.179, -32.7767, 118.439, -151.895, 121.6, 88.563, 0, 0, 7.53945, -55.8506, 7.41839, -174.969, 7.51517, 65.4891, 0.0655347, 52.6877
0, 3120.00000, 120.179, -32.7768, 118.439, -151.895, 121.601, 88.563, 0, 0, 7.53945, -55.8507, 7.41839, -174.969, 7.51516, 65.4891, 0.0655524, 52.6909
0, 3180.00000, 120.179, -32.7768, 118.439, -151.895, 121.601, 88.563, 0, 0, 7.53945, -55.8507, 7.41839, -174.969, 7.51515, 65.4891, 0.0655682, 52.6938
0, 3240.00000, 120.179, -32.7769, 118.439, -151.895, 121.601, 88.563, 0, 0, 7.53945, -55.8508, 7.41839, -174.969, 7.51514, 65.489, 0.0655825, 52.6964
0, 3300.00000, 120.179, -32.7769, 118.439, -151.895, 121.601, 88.5629, 0, 0, 7.53945, -55.8508, 7.41839, -174.969, 7.51514, 65.489, 0.0655954, 52.6988
0, 3360.00000, 120.179, -32.777, 118.439, -151.895, 121.601, 88.5629, 0, 0, 7.53945, -55.8509, 7.41839, -174.969, 7.51513, 65.489, 0.065607, 52.7009
0, 3420.00000, 120.179, -32.777, 118.439, -151.895, 121.601, 88.5629, 0, 0, 7.53945, -55.8509, 7.41839, -174.969, 7.51513, 65.489, 0.0656174, 52.7028
0, 3480.00000, 120.179, -32.7771, 118.438, -151.895, 121.601, 88.5629, 0, 0, 7.53945, -55.851, 7.41839, -174.969, 7.51512, 65.489, 0.0656268, 52.7045
0, 3540.00000, 120.179, -32.7771, 118.438, -151.895, 121.601, 88.5629, 0, 0, 7.53946, -55.851, 7.41839, -174.969, 7.51512, 65.489, 0.0656352, 52.706
1, 0.00000, 120.179, -32.7771, 118.438, -151.895, 121.601, 88.5629, 0, 0, 7.53946, -55.851, 7.41839, -174.969, 7.51511, 65.4889, 0.0656428, 52.7074
1, 60.00000, 120.265, -32.6467, 118.721, -151.861, 121.599, 88.5664, 0, 0, 7.54542, -55.7206, 7.43801, -174.935, 7.51528, 65.4925, 0.0676499, 51.8995
1, 120.00000, 120.265, -32.6468, 118.721, -151.861, 121.599, 88.5664, 0, 0, 7.54542, -55.7207, 7.43801, -174.935, 7.51527, 65.4925, 0.0676562, 51.9007
1, 180.00000, 120.265, -32.6468, 118.721, -151.861, 121.599, 88.5664, 0, 0, 7.54542, -55.7207, 7.43801, -174.935, 7.51527, 65.4925, 0.0676617, 51.9017
1, 240.00000, 120.265, -32.6468, 118.721, -151.861, 121.599, 88.5664, 0, 0, 7.54542, -55.7207, 7.43801, -174.935, 7.51527, 65.4925, 0.0676667, 51.9027
1, 300.00000, 120.265, -32.6468, 118.721, -151.861, 121.599, 88.5664, 0, 0, 7.54542, -55.7207, 7.43801, -174.935, 7.51527, 65.4924, 0.0676711, 51.9035
1, 360.00000, 120.265, -32.6468, 118.721, -151.861, 121.599, 88.5664, 0, 0, 7.54542, -55.7208, 7.43801, -174.935, 7.51526, 65.4924, 0.0676752, 51.9043
1, 420.00000, 120.265, -32.6469, 118.721, -151.861, 121.599, 88.5664, 0, 0, 7.54542, -55.7208, 7.43801, -174.935, 7.51526, 65.4924, 0.0676788, 51.905
1, 480.00000, 120.265, -32.6469, 118.721, -151.861, 121.599, 88.5663, 0, 0, 7.54542, -55.7208, 7.43801, -174.935, 7.51526, 65.4924, 0.0676821, 51.9056
1, 540.00000, 120.265, -32.6469, 118.721, -151.861, 121.599, 88.5663, 0, 0, 7.54542, -55.7208, 7.43801, -174.935, 7.51526, 65.4924, 0.067685, 51.9061
1, 600.00000, 120.265, -32.6469, 118.721, -151.861, 121.599, 88.5663, 0, 0, 7.54542, -55.7208, 7.43801, -174.935, 7.51526, 65.4924, 0.0676876, 51.9066
1, 660.00000, 120.265, -32.6469, 118.721, -151.861, 121.599, 88.5663, 0, 0, 7.54542, -55.7208, 7.43801, -174.935, 7.51526, 65.4924, 0.06769, 51.9071
1, 720.00000, 120.265, -32.6469, 118.721, -151.861, 121.599, 88.5663, 0, 0, 7.54542, -55.7208, 7.43801, -174.935, 7.51525, 65.4924, 0.0676922, 51.9075
1, 780.00000, 120.326, -32.6501, 119.649, -151.536, 122.767, 88.3452, 0, 0, 7.54971, -55.724, 7.50261, -174.609, 7.44379, 65.2713, 0.209654, 60.3605
1, 840.00000, 120.326, -32.6501, 119.649, -151.536, 122.767, 88.3452, 0, 0, 7.5497, -55.724, 7.50261, -174.609, 7.44378, 65.2713, 0.209659, 60.3602
1, 900.00000, 120.326, -32.6501, 119.649, -151.536, 122.767, 88.3452, 0, 0, 7.5497, -55.724, 7.50261, -174.609, 7.44378, 65.2713, 0.20966, 60.3603
1, 960.00000, 120.326, -32.6501, 119.649, -151.536, 122.767, 88.3452, 0, 0, 7.5497, -55.724, 7.50261, -174.609, 7.44378, 65.2713, 0.209662, 60.3603
1, 1020.00000, 120.326, -32.6501, 119.649, -151.536, 122.767, 88.3452, 0, 0, 7.5497, -55.724, 7.50261, -174.609, 7.44378, 65.2713, 0.209663, 60.3603
1, 1080.00000, 120.326, -32.6501, 119.649, -151.536, 122.767, 88.3452, 0, 0, 7.54971, -55.724, 7.50261, -174.609, 7.44378, 65.2713, 0.209664, 60.3603
1, 1140.00000, 120.326, -32.6501, 119.649, -151.536, 122.767, 88.3452, 0, 0, 7.54971, -55.724, 7.50261, -174.609, 7.44378, 65.2713, 0.209665, 60.3603
1, 1200.00000, 120.326, -32.6501, 119.649, -151.536, 122.767, 88.3452, 0, 0, 7.54971, -55.724, 7.50261, -174.609, 7.44378, 65.2713, 0.209666, 60.3603
1, 1260.00000, 120.326, -32.6501, 119.649, -151.536, 122.767, 88.3452, 0, 0, 7.54971, -55.724, 7.50261, -174.609, 7.44378, 65.2713, 0.209667, 60.3604
1, 1320.00000, 120.326, -32.6501, 119.649, -151.536, 122.767, 88.3452, 0, 0, 7.54971, -55.7241, 7.50261, -174.609, 7.44378, 65.2713, 0.209668, 60.3604
1, 1380.00000, 120.326, -32.6501, 119.649, -151.536, 122.767, 88.3452, 0, 0, 7.54971, -55.7241, 7.50261, -174.609, 7.44378, 65.2713, 0.209669, 60.3604
1, 1440.00000, 120.326, -32.6501, 119.649, -151.536, 122.767, 88.3452, 0, 0, 7.54971, -55.7241, 7.50261, -174.609, 7.44378, 65.2713, 0.209669, 60.3604
1, 1500.00000, 120.326, -32.6501, 119.649, -151.536, 122.767, 88.3452, 0, 0, 7.54971, -55.7241, 7.50261, -174.609, 7.44378, 65.2713, 0.20967, 60.3604
1, 1560.00000, 120.326, -32.6501, 119.649, -151.536, 122.767, 88.3452, 0, 0, 7.54971, -55.7241, 7.50261, -174.609, 7.44378, 65.2713, 0.20967, 60.3604
1, 1620.00000, 120.326, -32.6501, 119.649, -151.536, 122.767, 88.3452, 0, 0, 7.54971, -55.7241, 7.50261, -174.609, 7.44378, 65.2713, 0.209671, 60.3604
1, 1680.00000, 120.326, -32.6501, 119.649, -151.536, 122.767, 88.3452, 0, 0, 7.54971, -55.7241, 7.50261, -174.609, 7.44377, 65.2713, 0.209671, 60.3604
1, 1740.00000, 120.326, -32.6501, 119.649, -151.536, 122.767, 88.3452, 0, 0, 7.54971, -55.7241, 7.50261, -174.609, 7.44377, 65.2713, 0.209672, 60.3604
1, 1800.00000, 120.326, -32.6502, 119.649, -151.536, 122.767, 88.3452, 0, 0, 7.54971, -55.7241, 7.50261, -174.609, 7.44377, 65.2713, 0.209672, 60.3604
1, 1860.00000, 120.326, -32.6502, 119.649, -151.536, 122.767, 88.3452, 0, 0, 7.54971, -55.7241, 7.50261, -174.609, 7.44377, 65.2713, 0.209672, 60.3604
1, 1920.00000, 120.326, -32.6502, 119.649, -151.536, 122.767, 88.3452, 0, 0, 7.54971, -55.7241, 7.50261, -174.609, 7.44377, 65.2713, 0.209673, 60.3604
1, 1980.00000, 120.326, -32.6502, 119.649, -151.536, 122.767, 88.3452, 0, 0, 7.54971, -55.7241, 7.50261, -174.609, 7.44377, 65.2713, 0.209673, 60.3604
1, 2040.00000, 120.326, -32.6502, 119.649, -151.536, 122.767, 88.3452, 0, 0, 7.54971, -55.7241, 7.50261, -174.609, 7.44377, 65.2713, 0.209673, 60.3604
1, 2100.00000, 120.326, -32.6502, 119.649, -151.536, 122.767, 88.3452, 0, 0, 7.54971, -55.7241, 7.50261, -174.609, 7.44377, 65.2713, 0.209673, 60.3604
1, 2160.00000, 120.326, -32.6502, 119.649, -151.536, 122.767, 88.3452, 0, 0, 7.54971, -55.7241, 7.50261, -174.609, 7.44377, 65.2713, 0.209673, 60.3604
1, 2220.00000, 120.935, -32.6916, 119.644, -151.547, 123.255, 88.5666, 0, 0, 7.55652, -55.7656, 7.50222, -174.621, 7.41429, 65.4926, 0.249054, 55.096
1, 2280.00000, 120.935, -32.6916, 119.644, -151.547, 123.255, 88.5666, 0, 0, 7.55652, -55.7656, 7.50222, -174.621, 7.41429, 65.4927, 0.249058, 55.0962
1, 2340.00000, 120.935, -32.6916, 119.644, -151.547, 123.255, 88.5666, 0, 0, 7.55652, -55.7656, 7.50222, -174.621, 7.41429, 65.4927, 0.249059, 55.0962
1, 2400.00000, 120.935, -32.6916, 119.644, -151.547, 123.255, 88.5666, 0, 0, 7.55652, -55.7656, 7.50222, -174.621, 7.41429, 65.4927, 0.249059, 55.0962
1, 2460.00000, 120.935, -32.6916, 119.644, -151.547, 123.255, 88.5666, 0, 0, 7.55652, -55.7656, 7.50222, -174.621, 7.41429, 65.4927, 0.249059, 55.0962
1, 2520.00000, 120.935, -32.6916, 119.644, -151.547, 123.255, 88.5666, 0, 0, 7.55652, -55.7656, 7.50222, -174.621, 7.41429, 65.4927, 0.249059, 55.0962
1, 2580.00000, 120.935, -32.6916, 119.644, -151.547, 123.255, 88.5666, 0, 0, 7.55652, -55.7656, 7.50222, -174.621, 7.41429, 65.4927, 0.249059, 55.0962
1, 2640.00000, 120.935, -32.6916, 119.644, -151.547, 123.255, 88.5666, 0, 0, 7.55652, -55.7656, 7.50222, -174.621, 7.41429, 65.4927, 0.249059, 55.0962
1, 2700.00000, 120.935, -32.6916, 119.644, -151.547, 123.255, 88.5666, 0, 0, 7.55652, -55.7656, 7.50222, -174.621, 7.41429, 65.4927, 0.249059, 55.0962
1, 2760.00000, 120.935, -32.6916, 119.644, -151.547, 123.255, 88.5666, 0, 0, 7.55652, -55.7656, 7.50222, -174.621, 7.41429, 65.4927, 0.249059, 55.0962
1, 2820.00000, 120.935, -32.6916, 119.644, -151.547, 123.255, 88.5666, 0, 0, 7.55652, -55.7656, 7.50222, -174.621, 7.41429, 65.4927, 0.249059, 55.0962
1, 2880.00000, 120.935, -32.6916, 119.644, -151.547, 123.255, 88.5666, 0, 0, 7.55652, -55.7656, 7.50222, -174.621, 7.41429, 65.4927, 0.249059, 55.0962
1, 2940.00000, 120.935, -32.6916, 119.644, -151.547, 123.255, 88.5666, 0, 0, 7.55652, -55.7656, 7.50222, -174.621, 7.41429, 65.4927, 0.249059, 55.0962
1, 3000.00000, 120.935, -32.6916, 119.644, -151.547, 123.255, 88.5666, 0, 0, 7.55652, -55.7656, 7.50222, -174.621, 7.41429, 65.4927, 0.249059, 55.0962
1, 3060.00000, 120.935, -32.6916, 119.644, -151.547, 123.255, 88.5666, 0, 0, 7.55652, -55.7656, 7.50222, -174.621, 7.41429, 65.4927, 0.249059, 55.0962
1, 3120.00000, 120.935, -32.6916, 119.644, -151.547, 123.255, 88.5666, 0, 0, 7.55652, -55.7656, 7.50222, -174.621, 7.41429, 65.4927, 0.249059, 55.0962
1, 3180.00000, 120.935, -32.6916, 119.644, -151.547, 123.255, 88.5666, 0, 0, 7.55652, -55.7656, 7.50222, -174.621, 7.41429, 65.4927, 0.249059, 55.0962
1, 3240.00000, 120.935, -32.6916, 119.644, -151.547, 123.255, 88.5666, 0, 0, 7.55652, -55.7656, 7.50222, -174.621, 7.41429, 65.4927, 0.24906, 55.0962
1, 3300.00000, 120.935, -32.6916, 119.644, -151.547, 123.255, 88.5666, 0, 0, 7.55652, -55.7656, 7.50222, -174.621, 7.41429, 65.4927, 0.24906, 55.0962
1, 3360.00000, 120.935, -32.6916, 119.644, -151.547, 123.255, 88.5666, 0, 0, 7.55652, -55.7656, 7.50222, -174.621, 7.41429, 65.4927, 0.24906, 55.0962
1, 3420.00000, 120.935, -32.6916, 119.644, -151.547, 123.255, 88.5666, 0, 0, 7.55652, -55.7656, 7.50222, -174.621, 7.41429, 65.4927, 0.24906, 55.0962
1, 3480.00000, 120.935, -32.6916, 119.644, -151.547, 123.255, 88.5666, 0, 0, 7.55652, -55.7656, 7.50222, -174.621, 7.41429, 65.4927, 0.24906, 55.0962
1, 3540.00000, 120.935, -32.6916, 119.644, -151.547, 123.255, 88.5666, 0, 0, 7.55652, -55.7656, 7.50222, -174.621, 7.41429, 65.4927, 0.24906, 55.0962
2, 0.00000, 120.935, -32.6916, 119.644, -151.547, 123.255, 88.5666, 0, 0, 7.55652, -55.7656, 7.50222, -174.621, 7.41429, 65.4927, 0.24906, 55.0962
2, 60.00000, 120.935, -32.6916, 119.644, -151.547, 123.255, 88.5666, 0, 0, 7.55652, -55.7656, 7.50222, -174.621, 7.41429, 65.4927, 0.24906, 55.0962
2, 120.00000, 120.935, -32.6916, 119.644, -151.547, 123.255, 88.5666, 0, 0, 7.55652, -55.7656, 7.50222, -174.621, 7.41429, 65.4927, 0.24906, 55.0962
2, 180.00000, 120.935, -32.6916, 119.644, -151.547, 123.255, 88.5666, 0, 0, 7.55652, -55.7656, 7.50222, -174.621, 7.41429, 65.4927, 0.24906, 55.0962
2, 240.00000, 120.935, -32.6916, 119.644, -151.547, 123.255, 88.5666, 0, 0, 7.55652, -55.7656, 7.50222, -174.621, 7.41429, 65.4927, 0.24906, 55.0962
2, 300.00000, 120.935, -32.6916, 119.644, -151.547, 123.255, 88.5666, 0, 0, 7.55652, -55.7656, 7.50222, -174.621, 7.41429, 65.4927, 0.24906, 55.0962
2, 360.00000, 120.935, -32.6916, 119.644, -151.547, 123.255, 88.5666, 0, 0, 7.55652, -55.7656, 7.50222, -174.621, 7.41429, 65.4927, 0.24906, 55.0962
2, 420.00000, 120.935, -32.6916, 119.644, -151.547, 123.255, 88.5666, 0, 0, 7.55652, -55.7656, 7.50222, -174.621, 7.41429, 65.4927, 0.24906, 55.0962
2, 480.00000, 120.935, -32.6916, 119.644, -151.547, 123.255, 88.5666, 0, 0, 7.55652, -55.7656, 7.50222, -174.621, 7.41429, 65.4927, 0.24906, 55.0962
2, 540.00000, 120.935, -32.6916, 119.644, -151.547, 123.255, 88.5666, 0, 0, 7.55652, -55.7656, 7.50222, -174.621, 7.41429, 65.4927, 0.24906, 55.0962
2, 600.00000, 120.935, -32.6916, 119.644, -151.547, 123.255, 88.5666, 0, 0, 7.55652, -55.7656, 7.50222, -174.621, 7.41429, 65.4927, 0.24906, 55.0962
2, 660.00000, 120.935, -32.6916, 119.644, -151.547, 123.255, 88.5666, 0, 0, 7.55652, -55.7656, 7.50222, -174.621, 7.41429, 65.4927, 0.24906, 55.0962
2, 720.00000, 120.935, -32.6916, 119.644, -151.547, 123.255, 88.5666, 0, 0, 7.55652, -55.7656, 7.50222, -174.621, 7.41429, 65.4927, 0.24906, 55.0962
