hour,t(sec),V1,VAngle1,V2,VAngle2,V3,VAngle3,V4,VAngle4,I1,IAngle1,I2,IAngle2,I3,IAngle3,I4,IAngle4
0, 60.00000, 124.09, -31.1505, 125.82, -151.085, 125.082, 88.3224, 0, 0, 4.59471, -54.2243, 4.53163, -174.158, 4.55823, 65.2487, 0.0996267, 150.22
0, 120.00000, 124.09, -31.1507, 125.838, -151.085, 125.088, 88.3159, 0, 0, 4.59472, -54.2246, 4.53097, -174.159, 4.55804, 65.2422, 0.100664, 150.373
0, 180.00000, 124.089, -31.1509, 125.855, -151.086, 125.092, 88.3101, 0, 0, 4.59473, -54.2248, 4.53038, -174.16, 4.55787, 65.2363, 0.101597, 150.509
0, 240.00000, 124.089, -31.1511, 125.869, -151.087, 125.097, 88.3048, 0, 0, 4.59474, -54.225, 4.52984, -174.161, 4.55771, 65.231, 0.102437, 150.63
0, 300.00000, 124.089, -31.1513, 125.882, -151.087, 125.101, 88.3, 0, 0, 4.59475, -54.2251, 4.52936, -174.161, 4.55758, 65.2262, 0.103193, 150.737
0, 360.00000, 124.089, -31.1514, 125.894, -151.088, 125.104, 88.2957, 0, 0, 4.59475, -54.2253, 4.52893, -174.162, 4.55745, 65.2219, 0.103873, 150.833
0, 420.00000, 124.089, -31.1516, 125.905, -151.088, 125.107, 88.2919, 0, 0, 4.59476, -54.2254, 4.52854, -174.162, 4.55734, 65.2181, 0.104486, 150.919
0, 480.00000, 124.088, -31.1517, 125.914, -151.089, 125.11, 88.2884, 0, 0, 4.59477, -54.2256, 4.52819, -174.163, 4.55724, 65.2146, 0.105038, 150.996
0, 540.00000, 124.088, -31.1518, 125.923, -151.089, 125.112, 88.2853, 0, 0, 4.59477, -54.2257, 4.52787, -174.163, 4.55715, 65.2114, 0.105534, 151.064
0, 600.00000, 124.088, -31.1519, 125.931, -151.09, 125.115, 88.2824, 0, 0, 4.59478, -54.2258, 4.52759, -174.164, 4.55707, 65.2086, 0.105981, 151.126
0, 660.00000, 124.088, -31.152, 125.938, -151.09, 125.117, 88.2799, 0, 0, 4.59478, -54.2259, 4.52733, -174.164, 4.557, 65.2061, 0.106384, 151.181
0, 720.00000, 124.088, -31.1521, 125.944, -151.09, 125.118, 88.2776, 0, 0, 4.59479, -54.226, 4.5271, -174.164, 4.55694, 65.2038, 0.106746, 151.23
0, 780.00000, 124.088, -31.1521, 125.95, -151.091, 125.12, 88.2756, 0, 0, 4.59479, -54.226, 4.5269, -174.165, 4.55688, 65.2017, 0.107072, 151.274
0, 840.00000, 124.088, -31.1522, 125.955, -151.091, 125.121, 88.2737, 0, 0, 4.59479, -54.2261, 4.52671, -174.165, 4.55683, 65.1999, 0.107365, 151.314
0, 900.00000, 124.088, -31.1523, 125.959, -151.091, 125.123, 88.272, 0, 0, 4.5948, -54.2262, 4.52654, -174.165, 4.55678, 65.1982, 0.10763, 151.349
0, 960.00000, 123.954, -31.1821, 125.829, -151.122, 124.994, 88.2405, 0, 0, 4.86593, -54.256, 4.79345, -174.195, 4.82544, 65.1666, 0.114276, 151.283
0, 1020.00000, 123.954, -31.1822, 125.833, -151.122, 124.995, 88.2391, 0, 0, 4.86593, -54.2561, 4.79331, -174.196, 4.8254, 65.1653, 0.1145, 151.311
0, 1080.00000, 123.954, -31.1822, 125.836, -151.122, 124.996, 88.2379, 0, 0, 4.86593, -54.2561, 4.79318, -174.196, 4.82536, 65.1641, 0.114704, 151.337
0, 1140.00000, 123.954, -31.1823, 125.839, -151.122, 124.997, 88.2368, 0, 0, 4.86593, -54.2562, 4.79306, -174.196, 4.82533, 65.163, 0.114887, 151.36
0, 1200.00000, 123.954, -31.1823, 125.842, -151.122, 124.998, 88.2359, 0, 0, 4.86594, -54.2562, 4.79296, -174.196, 4.8253, 65.162, 0.115052, 151.381
0, 1260.00000, 123.954, -31.1823, 125.844, -151.122, 124.999, 88.235, 0, 0, 4.86594, -54.2562, 4.79287, -174.196, 4.82528, 65.1611, 0.115201, 151.4
0, 1320.00000, 123.954, -31.1823, 125.847, -151.122, 124.999, 88.2342, 0, 0, 4.86594, -54.2563, 4.79278, -174.196, 4.82525, 65.1603, 0.115335, 151.417
0, 1380.00000, 123.954, -31.1824, 125.849, -151.122, 125, 88.2335, 0, 0, 4.86594, -54.2563, 4.7927, -174.196, 4.82523, 65.1596, 0.115455, 151.432
0, 1440.00000, 123.954, -31.1824, 125.85, -151.123, 125, 88.2328, 0, 0, 4.86594, -54.2563, 4.79263, -174.196, 4.82521, 65.1589, 0.115564, 151.445
0, 1500.00000, 123.954, -31.1824, 125.852, -151.123, 125.001, 88.2322, 0, 0, 4.86594, -54.2563, 4.79257, -174.197, 4.8252, 65.1583, 0.115661, 151.458
0, 1560.00000, 123.954, -31.1824, 125.853, -151.123, 125.001, 88.2317, 0, 0, 4.86594, -54.2563, 4.79252, -174.197, 4.82518, 65.1578, 0.115749, 151.469
0, 1620.00000, 123.954, -31.1825, 125.855, -151.123, 125.001, 88.2312, 0, 0, 4.86595, -54.2564, 4.79247, -174.197, 4.82517, 65.1573, 0.115828, 151.478
0, 1680.00000, 123.954, -31.1825, 125.856, -151.123, 125.002, 88.2308, 0, 0, 4.86595, -54.2564, 4.79242, -174.197, 4.82515, 65.1569, 0.115899, 151.487
0, 1740.00000, 123.954, -31.1825, 125.857, -151.123, 125.002, 88.2304, 0, 0, 4.86595, -54.2564, 4.79238, -174.197, 4.82514, 65.1565, 0.115963, 151.495
0, 1800.00000, 123.954, -31.1825, 125.858, -151.123, 125.002, 88.2301, 0, 0, 4.86595, -54.2564, 4.79234, -174.197, 4.82513, 65.1562, 0.116021, 151.503
0, 1860.00000, 124.059, -31.1655, 125.966, -151.106, 125.106, 88.2461, 0, 0, 4.8766, -54.2395, 4.80276, -174.18, 4.83578, 65.1722, 0.116414, 151.585
0, 1920.00000, 124.059, -31.1656, 125.967, -151.106, 125.106, 88.2458, 0, 0, 4.8766, -54.2395, 4.80273, -174.18, 4.83577, 65.1719, 0.116462, 151.591
0, 1980.00000, 124.059, -31.1656, 125.968, -151.106, 125.106, 88.2455, 0, 0, 4.8766, -54.2395, 4.8027, -174.18, 4.83577, 65.1716, 0.116505, 151.597
0, 2040.00000, 124.059, -31.1656, 125.968, -151.106, 125.106, 88.2453, 0, 0, 4.8766, -54.2395, 4.80268, -174.18, 4.83576, 65.1714, 0.116542, 151.601
0, 2100.00000, 124.059, -31.1656, 125.969, -151.106, 125.107, 88.2451, 0, 0, 4.8766, -54.2395, 4.80265, -174.18, 4.83575, 65.1712, 0.116577, 151.606
0, 2160.00000, 124.059, -31.1656, 125.969, -151.106, 125.107, 88.2449, 0, 0, 4.8766, -54.2395, 4.80264, -174.18, 4.83575, 65.171, 0.116607, 151.609
0, 2220.00000, 124.059, -31.1656, 125.97, -151.106, 125.107, 88.2448, 0, 0, 4.8766, -54.2395, 4.80262, -174.18, 4.83574, 65.1709, 0.116635, 151.613
0, 2280.00000, 124.059, -31.1656, 125.97, -151.106, 125.107, 88.2446, 0, 0, 4.8766, -54.2395, 4.8026, -174.18, 4.83574, 65.1707, 0.11666, 151.616
0, 2340.00000, 124.059, -31.1656, 125.971, -151.106, 125.107, 88.2445, 0, 0, 4.8766, -54.2395, 4.80259, -174.18, 4.83574, 65.1706, 0.116682, 151.619
0, 2400.00000, 124.059, -31.1656, 125.971, -151.106, 125.107, 88.2444, 0, 0, 4.8766, -54.2395, 4.80258, -174.18, 4.83573, 65.1705, 0.116702, 151.621
0, 2460.00000, 124.059, -31.1656, 125.971, -151.106, 125.107, 88.2443, 0, 0, 4.8766, -54.2395, 4.80256, -174.18, 4.83573, 65.1703, 0.116721, 151.623
0, 2520.00000, 124.059, -31.1656, 125.972, -151.106, 125.107, 88.2442, 0, 0, 4.8766, -54.2395, 4.80255, -174.18, 4.83573, 65.1702, 0.116737, 151.625
0, 2580.00000, 124.059, -31.1656, 125.972, -151.106, 125.107, 88.2441, 0, 0, 4.8766, -54.2395, 4.80254, -174.18, 4.83572, 65.1702, 0.116752, 151.627
0, 2640.00000, 124.059, -31.1656, 125.972, -151.106, 125.108, 88.244, 0, 0, 4.8766, -54.2395, 4.80254, -174.18, 4.83572, 65.1701, 0.116765, 151.629
0, 2700.00000, 124.059, -31.1656, 125.972, -151.106, 125.108, 88.2439, 0, 0, 4.8766, -54.2395, 4.80253, -174.18, 4.83572, 65.17, 0.116777, 151.63
0, 2760.00000, 124.254, -31.1265, 126.17, -151.067, 125.299, 88.2825, 0, 0, 4.63105, -54.2004, 4.56073, -174.141, 4.59244, 65.2086, 0.110906, 151.774
0, 2820.00000, 124.254, -31.1265, 126.17, -151.067, 125.299, 88.2824, 0, 0, 4.63105, -54.2004, 4.56073, -174.141, 4.59244, 65.2085, 0.110919, 151.775
0, 2880.00000, 124.254, -31.1265, 126.17, -151.067, 125.299, 88.2824, 0, 0, 4.63105, -54.2004, 4.56072, -174.141, 4.59244, 65.2085, 0.110927, 151.776
0, 2940.00000, 124.254, -31.1265, 126.171, -151.067, 125.299, 88.2823, 0, 0, 4.63105, -54.2004, 4.56072, -174.141, 4.59244, 65.2084, 0.110934, 151.777
0, 3000.00000, 124.254, -31.1265, 126.171, -151.067, 125.299, 88.2823, 0, 0, 4.63105, -54.2004, 4.56071, -174.141, 4.59244, 65.2084, 0.110941, 151.778
0, 3060.00000, 124.254, -31.1265, 126.171, -151.067, 125.299, 88.2823, 0, 0, 4.63105, -54.2004, 4.56071, -174.141, 4.59244, 65.2084, 0.110947, 151.779
0, 3120.00000, 124.254, -31.1265, 126.171, -151.067, 125.299, 88.2822, 0, 0, 4.63105, -54.2004, 4.5607, -174.141, 4.59244, 65.2083, 0.110952, 151.78
0, 3180.00000, 124.254, -31.1265, 126.171, -151.067, 125.299, 88.2822, 0, 0, 4.63105, -54.2004, 4.5607, -174.141, 4.59243, 65.2083, 0.110957, 151.78
0, 3240.00000, 124.254, -31.1265, 126.171, -151.067, 125.299, 88.2822, 0, 0, 4.63105, -54.2004, 4.5607, -174.141, 4.59243, 65.2083, 0.110962, 151.781
0, 3300.00000, 124.254, -31.1265, 126.171, -151.067, 125.299, 88.2822, 0, 0, 4.63105, -54.2004, 4.5607, -174.141, 4.59243, 65.2082, 0.110965, 151.781
0, 3360.00000, 124.254, -31.1265, 126.171, -151.067, 125.299, 88.2821, 0, 0, 4.63105, -54.2004, 4.56069, -174.141, 4.59243, 65.2082, 0.110969, 151.782
0, 3420.00000, 124.254, -31.1265, 126.171, -151.067, 125.299, 88.2821, 0, 0, 4.63105, -54.2004, 4.56069, -174.141, 4.59243, 65.2082, 0.110972, 151.782
0, 3480.00000, 124.254, -31.1265, 126.171, -151.067, 125.299, 88.2821, 0, 0, 4.63105, -54.2004, 4.56069, -174.141, 4.59243, 65.2082, 0.110975, 151.783
0, 3540.00000, 124.254, -31.1265, 126.171, -151.067, 125.299, 88.2821, 0, 0, 4.63105, -54.2004, 4.56069, -174.141, 4.59243, 65.2082, 0.110978, 151.783
1, 0.00000, 124.254, -31.1265, 126.171, -151.067, 125.299, 88.2821, 0, 0, 4.63105, -54.2004, 4.56069, -174.141, 4.59243, 65.2081, 0.11098, 151.783
1, 60.00000, 124.413, -31.102, 126.33, -151.043, 125.454, 88.3061, 0, 0, 4.57108, -54.1759, 4.5017, -174.117, 4.53315, 65.2322, 0.109506, 151.884
1, 120.00000, 124.413, -31.102, 126.33, -151.043, 125.454, 88.3061, 0, 0, 4.57108, -54.176, 4.5017, -174.117, 4.53315, 65.2321, 0.10951, 151.884
1, 180.00000, 124.413, -31.102, 126.33, -151.043, 125.454, 88.3061, 0, 0, 4.57108, -54.176, 4.5017, -174.117, 4.53315, 65.2321, 0.109512, 151.885
1, 240.00000, 124.413, -31.102, 126.33, -151.043, 125.454, 88.306, 0, 0, 4.57108, -54.176, 4.5017, -174.117, 4.53315, 65.2321, 0.109513, 151.885
1, 300.00000, 124.413, -31.102, 126.33, -151.043, 125.454, 88.306, 0, 0, 4.57108, -54.176, 4.5017, -174.117, 4.53315, 65.2321, 0.109515, 151.885
1, 360.00000, 124.413, -31.102, 126.33, -151.043, 125.454, 88.306, 0, 0, 4.57108, -54.176, 4.5017, -174.117, 4.53315, 65.2321, 0.109516, 151.885
1, 420.00000, 124.413, -31.102, 126.33, -151.043, 125.454, 88.306, 0, 0, 4.57108, -54.176, 4.5017, -174.117, 4.53315, 65.2321, 0.109517, 151.885
1, 480.00000, 124.413, -31.102, 126.33, -151.043, 125.454, 88.306, 0, 0, 4.57108, -54.176, 4.50169, -174.117, 4.53315, 65.2321, 0.109518, 151.885
1, 540.00000, 124.413, -31.102, 126.33, -151.043, 125.454, 88.306, 0, 0, 4.57108, -54.176, 4.50169, -174.117, 4.53315, 65.2321, 0.109519, 151.886
1, 600.00000, 124.413, -31.102, 126.33, -151.043, 125.454, 88.306, 0, 0, 4.57108, -54.176, 4.50169, -174.117, 4.53314, 65.2321, 0.10952, 151.886
1, 660.00000, 124.413, -31.102, 126.33, -151.043, 125.454, 88.306, 0, 0, 4.57108, -54.176, 4.50169, -174.117, 4.53314, 65.2321, 0.10952, 151.886
1, 720.00000, 124.413, -31.102, 126.33, -151.043, 125.454, 88.306, 0, 0, 4.57108, -54.176, 4.50169, -174.117, 4.53314, 65.2321, 0.109521, 151.886
1, 780.00000, 124.413, -31.102, 126.33, -151.043, 125.454, 88.306, 0, 0, 4.57108, -54.176, 4.50169, -174.117, 4.53314, 65.2321, 0.109522, 151.886
1, 840.00000, 124.413, -31.102, 126.33, -151.043, 125.454, 88.306, 0, 0, 4.57108, -54.176, 4.50169, -174.117, 4.53314, 65.2321, 0.109522, 151.886
1, 900.00000, 124.413, -31.102, 126.33, -151.043, 125.454, 88.306, 0, 0, 4.57108, -54.176, 4.50169, -174.117, 4.53314, 65.2321, 0.109523, 151.886
1, 960.00000, 124.428, -31.097, 126.347, -151.038, 125.469, 88.3107, 0, 0, 4.54912, -54.1709, 4.48005, -174.112, 4.51137, 65.2368, 0.109016, 151.907
1, 1020.00000, 124.428, -31.097, 126.347, -151.038, 125.469, 88.3107, 0, 0, 4.54912, -54.1709, 4.48005, -174.112, 4.51137, 65.2368, 0.109018, 151.908
1, 1080.00000, 124.428, -31.097, 126.347, -151.038, 125.469, 88.3107, 0, 0, 4.54912, -54.1709, 4.48005, -174.112, 4.51137, 65.2368, 0.109019, 151.908
1, 1140.00000, 124.428, -31.097, 126.347, -151.038, 125.469, 88.3107, 0, 0, 4.54912, -54.1709, 4.48005, -174.112, 4.51137, 65.2368, 0.109019, 151.908
1, 1200.00000, 124.428, -31.097, 126.347, -151.038, 125.469, 88.3107, 0, 0, 4.54912, -54.1709, 4.48005, -174.112, 4.51137, 65.2368, 0.109019, 151.908
1, 1260.00000, 124.428, -31.097, 126.347, -151.038, 125.469, 88.3107, 0, 0, 4.54912, -54.1709, 4.48005, -174.112, 4.51137, 65.2368, 0.109019, 151.908
1, 1320.00000, 124.428, -31.097, 126.347, -151.038, 125.469, 88.3107, 0, 0, 4.54912, -54.1709, 4.48005, -174.112, 4.51137, 65.2368, 0.10902, 151.908
1, 1380.00000, 124.428, -31.097, 126.347, -151.038, 125.469, 88.3107, 0, 0, 4.54912, -54.1709, 4.48005, -174.112, 4.51137, 65.2368, 0.10902, 151.908
1, 1440.00000, 124.428, -31.097, 126.347, -151.038, 125.469, 88.3107, 0, 0, 4.54912, -54.1709, 4.48005, -174.112, 4.51137, 65.2368, 0.10902, 151.908
1, 1500.00000, 124.428, -31.097, 126.347, -151.038, 125.469, 88.3107, 0, 0, 4.54912, -54.1709, 4.48005, -174.112, 4.51137, 65.2368, 0.10902, 151.908
1, 1560.00000, 124.428, -31.097, 126.347, -151.038, 125.469, 88.3107, 0, 0, 4.54912, -54.1709, 4.48005, -174.112, 4.51137, 65.2368, 0.10902, 151.908
1, 1620.00000, 124.428, -31.097, 126.347, -151.038, 125.469, 88.3107, 0, 0, 4.54912, -54.1709, 4.48005, -174.112, 4.51137, 65.2368, 0.109021, 151.908
1, 1680.00000, 124.428, -31.097, 126.347, -151.038, 125.469, 88.3107, 0, 0, 4.54912, -54.1709, 4.48005, -174.112, 4.51137, 65.2368, 0.109021, 151.908
1, 1740.00000, 124.428, -31.097, 126.347, -151.038, 125.469, 88.3107, 0, 0, 4.54912, -54.1709, 4.48005, -174.112, 4.51137, 65.2368, 0.109021, 151.908
1, 1800.00000, 124.428, -31.097, 126.347, -151.038, 125.469, 88.3107, 0, 0, 4.54912, -54.1709, 4.48005, -174.112, 4.51137, 65.2368, 0.109021, 151.908
1, 1860.00000, 124.281, -31.1204, 126.2, -151.061, 125.326, 88.2873, 0, 0, 4.66436, -54.1944, 4.59341, -174.135, 4.62545, 65.2134, 0.111904, 151.815
1, 1920.00000, 124.281, -31.1204, 126.2, -151.061, 125.326, 88.2873, 0, 0, 4.66436, -54.1944, 4.59341, -174.135, 4.62545, 65.2134, 0.111902, 151.814
1, 1980.00000, 124.281, -31.1204, 126.2, -151.061, 125.326, 88.2873, 0, 0, 4.66436, -54.1944, 4.59341, -174.135, 4.62545, 65.2134, 0.111902, 151.814
1, 2040.00000, 124.281, -31.1204, 126.2, -151.061, 125.326, 88.2873, 0, 0, 4.66436, -54.1944, 4.59341, -174.135, 4.62545, 65.2134, 0.111903, 151.814
1, 2100.00000, 124.281, -31.1204, 126.2, -151.061, 125.326, 88.2873, 0, 0, 4.66436, -54.1944, 4.59341, -174.135, 4.62545, 65.2134, 0.111903, 151.814
1, 2160.00000, 124.281, -31.1204, 126.2, -151.061, 125.326, 88.2873, 0, 0, 4.66436, -54.1944, 4.59341, -174.135, 4.62545, 65.2134, 0.111903, 151.814
1, 2220.00000, 124.281, -31.1204, 126.2, -151.061, 125.326, 88.2873, 0, 0, 4.66436, -54.1944, 4.59341, -174.135, 4.62545, 65.2134, 0.111903, 151.814
1, 2280.00000, 124.281, -31.1204, 126.2, -151.061, 125.326, 88.2873, 0, 0, 4.66436, -54.1944, 4.59341, -174.135, 4.62545, 65.2134, 0.111903, 151.814
1, 2340.00000, 124.281, -31.1204, 126.2, -151.061, 125.326, 88.2873, 0, 0, 4.66436, -54.1944, 4.59341, -174.135, 4.62545, 65.2134, 0.111903, 151.814
1, 2400.00000, 124.281, -31.1204, 126.2, -151.061, 125.326, 88.2873, 0, 0, 4.66436, -54.1944, 4.59341, -174.135, 4.62545, 65.2134, 0.111903, 151.814
1, 2460.00000, 124.281, -31.1204, 126.2, -151.061, 125.326, 88.2873, 0, 0, 4.66436, -54.1944, 4.59341, -174.135, 4.62545, 65.2134, 0.111903, 151.814
1, 2520.00000, 124.281, -31.1204, 126.2, -151.061, 125.326, 88.2873, 0, 0, 4.66436, -54.1944, 4.59341, -174.135, 4.62545, 65.2134, 0.111903, 151.814
1, 2580.00000, 124.281, -31.1204, 126.2, -151.061, 125.326, 88.2873, 0, 0, 4.66436, -54.1944, 4.59341, -174.135, 4.62545, 65.2134, 0.111903, 151.814
1, 2640.00000, 124.281, -31.1204, 126.2, -151.061, 125.326, 88.2873, 0, 0, 4.66436, -54.1944, 4.59341, -174.135, 4.62545, 65.2134, 0.111903, 151.814
1, 2700.00000, 124.281, -31.1204, 126.2, -151.061, 125.326, 88.2873, 0, 0, 4.66436, -54.1944, 4.59341, -174.135, 4.62545, 65.2134, 0.111903, 151.814
1, 2760.00000, 124.55, -31.069, 126.469, -151.011, 125.588, 88.3373, 0, 0, 4.38573, -54.1429, 4.31918, -174.084, 4.34949, 65.2633, 0.105145, 152.034
1, 2820.00000, 124.55, -31.069, 126.469, -151.011, 125.588, 88.3373, 0, 0, 4.38573, -54.1429, 4.31918, -174.084, 4.34949, 65.2633, 0.105145, 152.034
1, 2880.00000, 124.55, -31.069, 126.469, -151.011, 125.588, 88.3373, 0, 0, 4.38573, -54.1429, 4.31918, -174.084, 4.34949, 65.2633, 0.105145, 152.034
1, 2940.00000, 124.55, -31.069, 126.469, -151.011, 125.588, 88.3373, 0, 0, 4.38573, -54.1429, 4.31918, -174.084, 4.34949, 65.2633, 0.105145, 152.034
1, 3000.00000, 124.55, -31.069, 126.469, -151.011, 125.588, 88.3373, 0, 0, 4.38573, -54.1429, 4.31918, -174.084, 4.34949, 65.2633, 0.105145, 152.034
1, 3060.00000, 124.55, -31.069, 126.469, -151.011, 125.588, 88.3373, 0, 0, 4.38573, -54.1429, 4.31918, -174.084, 4.34949, 65.2633, 0.105145, 152.034
1, 3120.00000, 124.55, -31.069, 126.469, -151.011, 125.588, 88.3373, 0, 0, 4.38573, -54.1429, 4.31918, -174.084, 4.34949, 65.2633, 0.105145, 152.034
1, 3180.00000, 124.55, -31.069, 126.469, -151.011, 125.588, 88.3373, 0, 0, 4.38573, -54.1429, 4.31918, -174.084, 4.34949, 65.2633, 0.105146, 152.034
1, 3240.00000, 124.55, -31.069, 126.469, -151.011, 125.588, 88.3373, 0, 0, 4.38573, -54.1429, 4.31918, -174.084, 4.34949, 65.2633, 0.105146, 152.034
1, 3300.00000, 124.55, -31.069, 126.469, -151.011, 125.588, 88.3373, 0, 0, 4.38573, -54.1429, 4.31918, -174.084, 4.34949, 65.2633, 0.105146, 152.034
1, 3360.00000, 124.55, -31.069, 126.469, -151.011, 125.588, 88.3373, 0, 0, 4.38573, -54.1429, 4.31918, -174.084, 4.34949, 65.2633, 0.105146, 152.034
1, 3420.00000, 124.55, -31.069, 126.469, -151.011, 125.588, 88.3373, 0, 0, 4.38573, -54.1429, 4.31918, -174.084, 4.34949, 65.2633, 0.105146, 152.034
1, 3480.00000, 124.55, -31.069, 126.469, -151.011, 125.588, 88.3373, 0, 0, 4.38573, -54.1429, 4.31918, -174.084, 4.34949, 65.2633, 0.105146, 152.034
1, 3540.00000, 124.55, -31.069, 126.469, -151.011, 125.588, 88.3373, 0, 0, 4.38573, -54.1429, 4.31918, -174.084, 4.34949, 65.2633, 0.105146, 152.034
2, 0.00000, 124.55, -31.069, 126.469, -151.011, 125.588, 88.3373, 0, 0, 4.38573, -54.1429, 4.31918, -174.084, 4.34949, 65.2633, 0.105146, 152.034
2, 60.00000, 124.376, -31.099, 126.298, -151.04, 125.42, 88.3079, 0, 0, 4.50973, -54.1729, 4.44112, -174.114, 4.47219, 65.234, 0.108242, 151.895
2, 120.00000, 124.376, -31.099, 126.298, -151.04, 125.42, 88.3079, 0, 0, 4.50973, -54.1729, 4.44112, -174.114, 4.47219, 65.234, 0.10824, 151.894
2, 180.00000, 124.376, -31.099, 126.298, -151.04, 125.42, 88.3079, 0, 0, 4.50973, -54.1729, 4.44112, -174.114, 4.47219, 65.234, 0.10824, 151.894
2, 240.00000, 124.376, -31.099, 126.298, -151.04, 125.42, 88.3079, 0, 0, 4.50973, -54.1729, 4.44112, -174.114, 4.47219, 65.234, 0.10824, 151.894
2, 300.00000, 124.376, -31.099, 126.298, -151.04, 125.42, 88.3079, 0, 0, 4.50973, -54.1729, 4.44112, -174.114, 4.47219, 65.234, 0.10824, 151.894
2, 360.00000, 124.376, -31.099, 126.298, -151.04, 125.42, 88.3079, 0, 0, 4.50973, -54.1729, 4.44112, -174.114, 4.47219, 65.234, 0.10824, 151.894
2, 420.00000, 124.376, -31.099, 126.298, -151.04, 125.42, 88.3079, 0, 0, 4.50973, -54.1729, 4.44112, -174.114, 4.47219, 65.234, 0.10824, 151.894
2, 480.00000, 124.376, -31.099, 126.298, -151.04, 125.42, 88.3079, 0, 0, 4.50973, -54.1729, 4.44112, -174.114, 4.47219, 65.234, 0.10824, 151.894
2, 540.00000, 124.376, -31.099, 126.298, -151.04, 125.42, 88.3079, 0, 0, 4.50973, -54.1729, 4.44112, -174.114, 4.47219, 65.234, 0.10824, 151.894
2, 600.00000, 124.376, -31.099, 126.298, -151.04, 125.42, 88.3079, 0, 0, 4.50973, -54.1729, 4.44112, -174.114, 4.47219, 65.234, 0.10824, 151.894
2, 660.00000, 124.376, -31.099, 126.298, -151.04, 125.42, 88.3079, 0, 0, 4.50973, -54.1729, 4.44112, -174.114, 4.47219, 65.234, 0.10824, 151.894
2, 720.00000, 124.376, -31.099, 126.298, -151.04, 125.42, 88.3079, 0, 0, 4.50973, -54.1729, 4.44112, -174.114, 4.47219, 65.234, 0.10824, 151.894
2, 780.00000, 124.376, -31.099, 126.298, -151.04, 125.42, 88.3079, 0, 0, 4.50973, -54.1729, 4.44112, -174.114, 4.47219, 65.234, 0.10824, 151.894
2, 840.00000, 124.376, -31.099, 126.298, -151.04, 125.42, 88.3079, 0, 0, 4.50973, -54.1729, 4.44112, -174.114, 4.47219, 65.234, 0.10824, 151.894
