hour,t(sec),"P1 (kW)","Q1 (kvar)","P2 (kW)","Q2 (kvar)","P3 (kW)","Q3 (kvar)","P4 (kW)","Q4 (kvar)"
0, 60.00000, 0.854044, 0.36382, 0.849795, 0.362007, 0.849739, 0.361983, 0, 0
0, 120.00000, 0.854041, 0.36382, 0.849782, 0.362006, 0.849734, 0.361985, 0, 0
0, 180.00000, 0.854041, 0.36382, 0.849782, 0.362006, 0.849734, 0.361985, 0, 0
0, 240.00000, 0.854041, 0.36382, 0.849782, 0.362006, 0.849734, 0.361985, 0, 0
0, 300.00000, 0.854041, 0.36382, 0.849782, 0.362006, 0.849734, 0.361985, 0, 0
0, 360.00000, 0.854041, 0.36382, 0.849782, 0.362006, 0.849734, 0.361985, 0, 0
0, 420.00000, 0.854041, 0.36382, 0.849782, 0.362006, 0.849734, 0.361985, 0, 0
0, 480.00000, 0.854041, 0.36382, 0.849782, 0.362006, 0.849734, 0.361985, 0, 0
0, 540.00000, 0.854041, 0.36382, 0.849782, 0.362006, 0.849734, 0.361985, 0, 0
0, 600.00000, 0.854041, 0.36382, 0.849782, 0.362006, 0.849734, 0.361985, 0, 0
0, 660.00000, 0.854041, 0.36382, 0.849782, 0.362006, 0.849734, 0.361985, 0, 0
0, 720.00000, 0.854041, 0.36382, 0.849782, 0.362006, 0.849734, 0.361985, 0, 0
0, 780.00000, 0.854041, 0.36382, 0.849782, 0.362006, 0.849734, 0.361985, 0, 0
0, 840.00000, 0.854041, 0.36382, 0.849782, 0.362006, 0.849734, 0.361985, 0, 0
0, 900.00000, 0.854041, 0.36382, 0.849782, 0.362006, 0.849734, 0.361985, 0, 0
0, 960.00000, 0.899158, 0.383039, 0.891654, 0.379839, 0.896113, 0.381741, 0, 0
0, 1020.00000, 0.899155, 0.383038, 0.891645, 0.379839, 0.896112, 0.381742, 0, 0
0, 1080.00000, 0.899155, 0.383038, 0.891645, 0.379839, 0.896112, 0.381742, 0, 0
0, 1140.00000, 0.899155, 0.383038, 0.891645, 0.379839, 0.896112, 0.381742, 0, 0
0, 1200.00000, 0.899155, 0.383038, 0.891645, 0.379839, 0.896112, 0.381742, 0, 0
0, 1260.00000, 0.899155, 0.383038, 0.891645, 0.379839, 0.896112, 0.381742, 0, 0
0, 1320.00000, 0.899155, 0.383038, 0.891645, 0.379839, 0.896112, 0.381742, 0, 0
0, 1380.00000, 0.899155, 0.383038, 0.891645, 0.379839, 0.896112, 0.381742, 0, 0
0, 1440.00000, 0.899155, 0.383038, 0.891645, 0.379839, 0.896112, 0.381742, 0, 0
0, 1500.00000, 0.899155, 0.383038, 0.891645, 0.379839, 0.896112, 0.381742, 0, 0
0, 1560.00000, 0.899155, 0.383038, 0.891645, 0.379839, 0.896112, 0.381742, 0, 0
0, 1620.00000, 0.899155, 0.383038, 0.891645, 0.379839, 0.896112, 0.381742, 0, 0
0, 1680.00000, 0.899155, 0.383038, 0.891645, 0.379839, 0.896112, 0.381742, 0, 0
0, 1740.00000, 0.899155, 0.383038, 0.891645, 0.379839, 0.896112, 0.381742, 0, 0
0, 1800.00000, 0.899155, 0.383038, 0.891645, 0.379839, 0.896112, 0.381742, 0, 0
0, 1860.00000, 0.905181, 0.385615, 0.897462, 0.38233, 0.901858, 0.384203, 0, 0
0, 1920.00000, 0.905194, 0.385611, 0.897486, 0.382327, 0.90187, 0.384195, 0, 0
0, 1980.00000, 0.905194, 0.385611, 0.897486, 0.382327, 0.90187, 0.384195, 0, 0
0, 2040.00000, 0.905194, 0.385611, 0.897486, 0.382327, 0.90187, 0.384195, 0, 0
0, 2100.00000, 0.905194, 0.385611, 0.897486, 0.382327, 0.90187, 0.384195, 0, 0
0, 2160.00000, 0.905194, 0.385611, 0.897486, 0.382327, 0.90187, 0.384195, 0, 0
0, 2220.00000, 0.905194, 0.385611, 0.897486, 0.382327, 0.90187, 0.384195, 0, 0
0, 2280.00000, 0.905194, 0.385611, 0.897486, 0.382327, 0.90187, 0.384195, 0, 0
0, 2340.00000, 0.905194, 0.385611, 0.897486, 0.382327, 0.90187, 0.384195, 0, 0
0, 2400.00000, 0.905194, 0.385611, 0.897486, 0.382327, 0.90187, 0.384195, 0, 0
0, 2460.00000, 0.905194, 0.385611, 0.897486, 0.382327, 0.90187, 0.384195, 0, 0
0, 2520.00000, 0.905194, 0.385611, 0.897486, 0.382327, 0.90187, 0.384195, 0, 0
0, 2580.00000, 0.905194, 0.385611, 0.897486, 0.382327, 0.90187, 0.384195, 0, 0
0, 2640.00000, 0.905194, 0.385611, 0.897486, 0.382327, 0.90187, 0.384195, 0, 0
0, 2700.00000, 0.905194, 0.385611, 0.897486, 0.382327, 0.90187, 0.384195, 0, 0
0, 2760.00000, 0.865984, 0.368909, 0.858409, 0.365683, 0.862413, 0.367388, 0, 0
0, 2820.00000, 0.865987, 0.368909, 0.858414, 0.365683, 0.862415, 0.367387, 0, 0
0, 2880.00000, 0.865987, 0.368909, 0.858414, 0.365683, 0.862415, 0.367387, 0, 0
0, 2940.00000, 0.865987, 0.368909, 0.858414, 0.365683, 0.862415, 0.367387, 0, 0
0, 3000.00000, 0.865987, 0.368909, 0.858414, 0.365683, 0.862415, 0.367387, 0, 0
0, 3060.00000, 0.865987, 0.368909, 0.858414, 0.365683, 0.862415, 0.367387, 0, 0
0, 3120.00000, 0.865987, 0.368909, 0.858414, 0.365683, 0.862415, 0.367387, 0, 0
0, 3180.00000, 0.865987, 0.368909, 0.858414, 0.365683, 0.862415, 0.367387, 0, 0
0, 3240.00000, 0.865987, 0.368909, 0.858414, 0.365683, 0.862415, 0.367387, 0, 0
0, 3300.00000, 0.865987, 0.368909, 0.858414, 0.365683, 0.862415, 0.367387, 0, 0
0, 3360.00000, 0.865987, 0.368909, 0.858414, 0.365683, 0.862415, 0.367387, 0, 0
0, 3420.00000, 0.865987, 0.368909, 0.858414, 0.365683, 0.862415, 0.367387, 0, 0
0, 3480.00000, 0.86607, 0.368945, 0.860393, 0.366526, 0.867506, 0.369561, 0, 0
0, 3540.00000, 0.867286, 0.369461, 0.864701, 0.368365, 0.867481, 0.369547, 0, 0
1, 0.00000, 0.867286, 0.369462, 0.864712, 0.368366, 0.867479, 0.369545, 0, 0
1, 60.00000, 0.860699, 0.366674, 0.857969, 0.365514, 0.860611, 0.366643, 0, 0
1, 120.00000, 0.860754, 0.366679, 0.858045, 0.365526, 0.860674, 0.366646, 0, 0
1, 180.00000, 0.860754, 0.36668, 0.858046, 0.365526, 0.860674, 0.366646, 0, 0
1, 240.00000, 0.860754, 0.36668, 0.858046, 0.365526, 0.860674, 0.366646, 0, 0
1, 300.00000, 0.860754, 0.36668, 0.858046, 0.365526, 0.860674, 0.366646, 0, 0
1, 360.00000, 0.860754, 0.36668, 0.858046, 0.365526, 0.860674, 0.366646, 0, 0
1, 420.00000, 0.860754, 0.36668, 0.858046, 0.365526, 0.860674, 0.366646, 0, 0
1, 480.00000, 0.860754, 0.36668, 0.858046, 0.365526, 0.860674, 0.366646, 0, 0
1, 540.00000, 0.860754, 0.36668, 0.858046, 0.365526, 0.860674, 0.366646, 0, 0
1, 600.00000, 0.861402, 0.366954, 0.872328, 0.371617, 0.877084, 0.373647, 0, 0
1, 660.00000, 0.861394, 0.366952, 0.872364, 0.371625, 0.877124, 0.373654, 0, 0
1, 720.00000, 0.861394, 0.366952, 0.872364, 0.371626, 0.877125, 0.373654, 0, 0
1, 780.00000, 0.861394, 0.366952, 0.872364, 0.371626, 0.877125, 0.373654, 0, 0
1, 840.00000, 0.861394, 0.366952, 0.872364, 0.371626, 0.877125, 0.373654, 0, 0
1, 900.00000, 0.861394, 0.366952, 0.872364, 0.371626, 0.877125, 0.373654, 0, 0
1, 960.00000, 0.858146, 0.365571, 0.86904, 0.370216, 0.873757, 0.372224, 0, 0
1, 1020.00000, 0.858155, 0.365572, 0.869064, 0.37022, 0.873774, 0.372226, 0, 0
1, 1080.00000, 0.858155, 0.365572, 0.869064, 0.37022, 0.873774, 0.372226, 0, 0
1, 1140.00000, 0.858155, 0.365572, 0.869064, 0.37022, 0.873774, 0.372226, 0, 0
1, 1200.00000, 0.858155, 0.365572, 0.869064, 0.37022, 0.873774, 0.372226, 0, 0
1, 1260.00000, 0.858155, 0.365572, 0.869064, 0.37022, 0.873774, 0.372226, 0, 0
1, 1320.00000, 0.858155, 0.365572, 0.869064, 0.37022, 0.873774, 0.372226, 0, 0
1, 1380.00000, 0.858155, 0.365572, 0.869064, 0.37022, 0.873774, 0.372226, 0, 0
1, 1440.00000, 0.858155, 0.365572, 0.869064, 0.37022, 0.873774, 0.372226, 0, 0
1, 1500.00000, 0.858155, 0.365572, 0.869064, 0.37022, 0.873774, 0.372226, 0, 0
1, 1560.00000, 0.858155, 0.365572, 0.869064, 0.37022, 0.873774, 0.372226, 0, 0
1, 1620.00000, 0.858155, 0.365572, 0.869064, 0.37022, 0.873774, 0.372226, 0, 0
1, 1680.00000, 0.858155, 0.365572, 0.869064, 0.37022, 0.873774, 0.372226, 0, 0
1, 1740.00000, 0.858155, 0.365572, 0.869064, 0.37022, 0.873774, 0.372226, 0, 0
1, 1800.00000, 0.858155, 0.365572, 0.869064, 0.37022, 0.873774, 0.372226, 0, 0
1, 1860.00000, 0.884949, 0.377002, 0.887017, 0.377858, 0.897352, 0.382272, 0, 0
1, 1920.00000, 0.884968, 0.376995, 0.886983, 0.377853, 0.897326, 0.382259, 0, 0
1, 1980.00000, 0.884968, 0.376995, 0.886983, 0.377853, 0.897325, 0.382259, 0, 0
1, 2040.00000, 0.884968, 0.376995, 0.886983, 0.377853, 0.897325, 0.382259, 0, 0
1, 2100.00000, 0.884968, 0.376995, 0.886983, 0.377853, 0.897325, 0.382259, 0, 0
1, 2160.00000, 0.884968, 0.376995, 0.886983, 0.377853, 0.897325, 0.382259, 0, 0
1, 2220.00000, 0.884968, 0.376995, 0.886983, 0.377853, 0.897325, 0.382259, 0, 0
1, 2280.00000, 0.884968, 0.376995, 0.886983, 0.377853, 0.897325, 0.382259, 0, 0
1, 2340.00000, 0.884968, 0.376995, 0.886983, 0.377853, 0.897325, 0.382259, 0, 0
1, 2400.00000, 0.884968, 0.376995, 0.886983, 0.377853, 0.897325, 0.382259, 0, 0
1, 2460.00000, 0.884968, 0.376995, 0.886983, 0.377853, 0.897325, 0.382259, 0, 0
1, 2520.00000, 0.884968, 0.376995, 0.886983, 0.377853, 0.897325, 0.382259, 0, 0
1, 2580.00000, 0.884968, 0.376995, 0.886983, 0.377853, 0.897325, 0.382259, 0, 0
1, 2640.00000, 0.884968, 0.376995, 0.886983, 0.377853, 0.897325, 0.382259, 0, 0
1, 2700.00000, 0.884968, 0.376995, 0.886983, 0.377853, 0.897325, 0.382259, 0, 0
1, 2760.00000, 0.840752, 0.358167, 0.842541, 0.358921, 0.845591, 0.360232, 0, 0
1, 2820.00000, 0.84076, 0.358162, 0.842565, 0.358931, 0.845552, 0.360204, 0, 0
1, 2880.00000, 0.840759, 0.358162, 0.842565, 0.358931, 0.845552, 0.360203, 0, 0
1, 2940.00000, 0.840759, 0.358162, 0.842565, 0.358931, 0.845552, 0.360203, 0, 0
1, 3000.00000, 0.840759, 0.358162, 0.842565, 0.358931, 0.845552, 0.360203, 0, 0
1, 3060.00000, 0.840759, 0.358162, 0.842565, 0.358931, 0.845552, 0.360203, 0, 0
1, 3120.00000, 0.840759, 0.358162, 0.842565, 0.358931, 0.845552, 0.360203, 0, 0
1, 3180.00000, 0.840759, 0.358162, 0.842565, 0.358931, 0.845552, 0.360203, 0, 0
1, 3240.00000, 0.840759, 0.358162, 0.842565, 0.358931, 0.845552, 0.360203, 0, 0
1, 3300.00000, 0.840759, 0.358162, 0.842565, 0.358931, 0.845552, 0.360203, 0, 0
1, 3360.00000, 0.840759, 0.358162, 0.842565, 0.358931, 0.845552, 0.360203, 0, 0
1, 3420.00000, 0.840759, 0.358162, 0.842565, 0.358931, 0.845552, 0.360203, 0, 0
1, 3480.00000, 0.840759, 0.358162, 0.842565, 0.358931, 0.845552, 0.360203, 0, 0
1, 3540.00000, 0.840759, 0.358162, 0.842565, 0.358931, 0.845552, 0.360203, 0, 0
2, 0.00000, 0.840759, 0.358162, 0.842565, 0.358931, 0.845552, 0.360203, 0, 0
2, 60.00000, 0.859462, 0.366125, 0.861407, 0.366958, 0.868219, 0.369852, 0, 0
2, 120.00000, 0.859459, 0.366128, 0.861392, 0.366952, 0.868242, 0.369869, 0, 0
2, 180.00000, 0.859459, 0.366128, 0.861392, 0.366951, 0.868242, 0.36987, 0, 0
2, 240.00000, 0.859459, 0.366128, 0.861392, 0.366951, 0.868242, 0.36987, 0, 0
2, 300.00000, 0.859459, 0.366128, 0.861392, 0.366951, 0.868242, 0.36987, 0, 0
2, 360.00000, 0.859459, 0.366128, 0.861392, 0.366951, 0.868242, 0.36987, 0, 0
2, 420.00000, 0.859459, 0.366128, 0.861392, 0.366951, 0.868242, 0.36987, 0, 0
2, 480.00000, 0.859459, 0.366128, 0.861392, 0.366951, 0.868242, 0.36987, 0, 0
2, 540.00000, 0.859459, 0.366128, 0.861392, 0.366951, 0.868242, 0.36987, 0, 0
2, 600.00000, 0.859459, 0.366128, 0.861392, 0.366951, 0.868242, 0.36987, 0, 0
2, 660.00000, 0.859459, 0.366128, 0.861392, 0.366951, 0.868242, 0.36987, 0, 0
2, 720.00000, 0.859459, 0.366128, 0.861392, 0.366951, 0.868242, 0.36987, 0, 0
2, 780.00000, 0.859459, 0.366128, 0.861392, 0.366951, 0.868242, 0.36987, 0, 0
2, 840.00000, 0.859459, 0.366128, 0.861392, 0.366951, 0.868242, 0.36987, 0, 0
2, 900.00000, 0.859459, 0.366128, 0.861392, 0.366951, 0.868242, 0.36987, 0, 0
2, 960.00000, 0.819117, 0.348949, 0.820834, 0.349674, 0.822693, 0.350474, 0, 0
2, 1020.00000, 0.819126, 0.348947, 0.820849, 0.34968, 0.822665, 0.350454, 0, 0
2, 1080.00000, 0.819127, 0.348946, 0.820849, 0.34968, 0.822665, 0.350454, 0, 0
2, 1140.00000, 0.819127, 0.348946, 0.820849, 0.34968, 0.822665, 0.350454, 0, 0
2, 1200.00000, 0.819127, 0.348946, 0.820849, 0.34968, 0.822665, 0.350454, 0, 0
2, 1260.00000, 0.819127, 0.348946, 0.820849, 0.34968, 0.822665, 0.350454, 0, 0
2, 1320.00000, 0.819127, 0.348946, 0.820849, 0.34968, 0.822665, 0.350454, 0, 0
2, 1380.00000, 0.819127, 0.348946, 0.820849, 0.34968, 0.822665, 0.350454, 0, 0
2, 1440.00000, 0.819127, 0.348946, 0.820849, 0.34968, 0.822665, 0.350454, 0, 0
2, 1500.00000, 0.819127, 0.348946, 0.820849, 0.34968, 0.822665, 0.350454, 0, 0
2, 1560.00000, 0.819127, 0.348946, 0.820849, 0.34968, 0.822665, 0.350454, 0, 0
2, 1620.00000, 0.819127, 0.348946, 0.820849, 0.34968, 0.822665, 0.350454, 0, 0
2, 1680.00000, 0.819127, 0.348946, 0.820849, 0.34968, 0.822665, 0.350454, 0, 0
2, 1740.00000, 0.819127, 0.348946, 0.820849, 0.34968, 0.822665, 0.350454, 0, 0
2, 1800.00000, 0.819127, 0.348946, 0.820849, 0.34968, 0.822665, 0.350454, 0, 0
2, 1860.00000, 0.816692, 0.347906, 0.818482, 0.348672, 0.822203, 0.350254, 0, 0
2, 1920.00000, 0.816687, 0.347907, 0.818477, 0.34867, 0.822215, 0.350262, 0, 0
2, 1980.00000, 0.816687, 0.347907, 0.818477, 0.34867, 0.822215, 0.350262, 0, 0
2, 2040.00000, 0.816687, 0.347907, 0.818477, 0.34867, 0.822215, 0.350262, 0, 0
2, 2100.00000, 0.816687, 0.347907, 0.818477, 0.34867, 0.822215, 0.350262, 0, 0
2, 2160.00000, 0.816687, 0.347907, 0.818477, 0.34867, 0.822215, 0.350262, 0, 0
2, 2220.00000, 0.816687, 0.347907, 0.818477, 0.34867, 0.822215, 0.350262, 0, 0
2, 2280.00000, 0.816687, 0.347907, 0.818477, 0.34867, 0.822215, 0.350262, 0, 0
2, 2340.00000, 0.816687, 0.347907, 0.818477, 0.34867, 0.822215, 0.350262, 0, 0
2, 2400.00000, 0.816687, 0.347907, 0.818477, 0.34867, 0.822215, 0.350262, 0, 0
2, 2460.00000, 0.816687, 0.347907, 0.818477, 0.34867, 0.822215, 0.350262, 0, 0
2, 2520.00000, 0.816687, 0.347907, 0.818477, 0.34867, 0.822215, 0.350262, 0, 0
2, 2580.00000, 0.816687, 0.347907, 0.818477, 0.34867, 0.822215, 0.350262, 0, 0
2, 2640.00000, 0.816687, 0.347907, 0.818477, 0.34867, 0.822215, 0.350262, 0, 0
2, 2700.00000, 0.816687, 0.347907, 0.818477, 0.34867, 0.822215, 0.350262, 0, 0
2, 2760.00000, 0.786496, 0.335052, 0.786682, 0.335128, 0.786693, 0.335139, 0, 0
2, 2820.00000, 0.786515, 0.335054, 0.786663, 0.335117, 0.786663, 0.335117, 0, 0
2, 2880.00000, 0.786515, 0.335054, 0.786663, 0.335117, 0.786663, 0.335117, 0, 0
2, 2940.00000, 0.786515, 0.335054, 0.786663, 0.335117, 0.786663, 0.335117, 0, 0
2, 3000.00000, 0.786515, 0.335054, 0.786663, 0.335117, 0.786663, 0.335117, 0, 0
2, 3060.00000, 0.786515, 0.335054, 0.786663, 0.335117, 0.786663, 0.335117, 0, 0
2, 3120.00000, 0.786515, 0.335054, 0.786663, 0.335117, 0.786663, 0.335117, 0, 0
2, 3180.00000, 0.786515, 0.335054, 0.786663, 0.335117, 0.786663, 0.335117, 0, 0
2, 3240.00000, 0.786515, 0.335054, 0.786663, 0.335117, 0.786663, 0.335117, 0, 0
2, 3300.00000, 0.786515, 0.335054, 0.786663, 0.335117, 0.786663, 0.335117, 0, 0
2, 3360.00000, 0.786515, 0.335054, 0.786663, 0.335117, 0.786663, 0.335117, 0, 0
2, 3420.00000, 0.786515, 0.335054, 0.786663, 0.335117, 0.786663, 0.335117, 0, 0
2, 3480.00000, 0.786515, 0.335054, 0.786663, 0.335117, 0.786663, 0.335117, 0, 0
2, 3540.00000, 0.786515, 0.335054, 0.786663, 0.335117, 0.786663, 0.335117, 0, 0
3, 0.00000, 0.786515, 0.335054, 0.786663, 0.335117, 0.786663, 0.335117, 0, 0
3, 60.00000, 0.803744, 0.342389, 0.805415, 0.343104, 0.806649, 0.343626, 0, 0
3, 120.00000, 0.803734, 0.342389, 0.805403, 0.3431, 0.806666, 0.343638, 0, 0
3, 180.00000, 0.803734, 0.342389, 0.805403, 0.3431, 0.806666, 0.343638, 0, 0
3, 240.00000, 0.803734, 0.342389, 0.805403, 0.3431, 0.806666, 0.343638, 0, 0
3, 300.00000, 0.803734, 0.342389, 0.805403, 0.3431, 0.806666, 0.343638, 0, 0
3, 360.00000, 0.803734, 0.342389, 0.805403, 0.3431, 0.806666, 0.343638, 0, 0
3, 420.00000, 0.803734, 0.342389, 0.805403, 0.3431, 0.806666, 0.343638, 0, 0
3, 480.00000, 0.803734, 0.342389, 0.805403, 0.3431, 0.806666, 0.343638, 0, 0
3, 540.00000, 0.803734, 0.342389, 0.805403, 0.3431, 0.806666, 0.343638, 0, 0
3, 600.00000, 0.803734, 0.342389, 0.805403, 0.3431, 0.806666, 0.343638, 0, 0
3, 660.00000, 0.803734, 0.342389, 0.805403, 0.3431, 0.806666, 0.343638, 0, 0
3, 720.00000, 0.803734, 0.342389, 0.805403, 0.3431, 0.806666, 0.343638, 0, 0
3, 780.00000, 0.803734, 0.342389, 0.805403, 0.3431, 0.806666, 0.343638, 0, 0
3, 840.00000, 0.803734, 0.342389, 0.805403, 0.3431, 0.806666, 0.343638, 0, 0
3, 900.00000, 0.803734, 0.342389, 0.805403, 0.3431, 0.806666, 0.343638, 0, 0
3, 960.00000, 0.826691, 0.352178, 0.82837, 0.352889, 0.828873, 0.353106, 0, 0
3, 1020.00000, 0.826716, 0.35218, 0.828406, 0.352899, 0.828831, 0.353081, 0, 0
3, 1080.00000, 0.826716, 0.35218, 0.828406, 0.352899, 0.82883, 0.35308, 0, 0
3, 1140.00000, 0.826716, 0.35218, 0.828406, 0.352899, 0.82883, 0.35308, 0, 0
3, 1200.00000, 0.826716, 0.35218, 0.828406, 0.352899, 0.82883, 0.35308, 0, 0
3, 1260.00000, 0.826716, 0.35218, 0.828406, 0.352899, 0.82883, 0.35308, 0, 0
3, 1320.00000, 0.826716, 0.35218, 0.828406, 0.352899, 0.82883, 0.35308, 0, 0
3, 1380.00000, 0.826716, 0.35218, 0.828406, 0.352899, 0.82883, 0.35308, 0, 0
3, 1440.00000, 0.826716, 0.35218, 0.828406, 0.352899, 0.82883, 0.35308, 0, 0
3, 1500.00000, 0.826716, 0.35218, 0.828406, 0.352899, 0.82883, 0.35308, 0, 0
3, 1560.00000, 0.826716, 0.35218, 0.828406, 0.352899, 0.82883, 0.35308, 0, 0
3, 1620.00000, 0.826716, 0.35218, 0.828406, 0.352899, 0.82883, 0.35308, 0, 0
3, 1680.00000, 0.826716, 0.35218, 0.828406, 0.352899, 0.82883, 0.35308, 0, 0
3, 1740.00000, 0.826716, 0.35218, 0.828406, 0.352899, 0.82883, 0.35308, 0, 0
3, 1800.00000, 0.826716, 0.35218, 0.828406, 0.352899, 0.82883, 0.35308, 0, 0
3, 1860.00000, 0.836851, 0.356504, 0.838561, 0.357233, 0.838981, 0.357413, 0, 0
3, 1920.00000, 0.836875, 0.356508, 0.838585, 0.357236, 0.838965, 0.357398, 0, 0
3, 1980.00000, 0.836876, 0.356508, 0.838585, 0.357236, 0.838965, 0.357398, 0, 0
3, 2040.00000, 0.836876, 0.356508, 0.838585, 0.357236, 0.838965, 0.357398, 0, 0
3, 2100.00000, 0.836876, 0.356508, 0.838585, 0.357236, 0.838965, 0.357398, 0, 0
3, 2160.00000, 0.836876, 0.356508, 0.838585, 0.357236, 0.838965, 0.357398, 0, 0
3, 2220.00000, 0.836876, 0.356508, 0.838585, 0.357236, 0.838965, 0.357398, 0, 0
3, 2280.00000, 0.836876, 0.356508, 0.838585, 0.357236, 0.838965, 0.357398, 0, 0
3, 2340.00000, 0.836876, 0.356508, 0.838585, 0.357236, 0.838965, 0.357398, 0, 0
3, 2400.00000, 0.836876, 0.356508, 0.838585, 0.357236, 0.838965, 0.357398, 0, 0
3, 2460.00000, 0.836876, 0.356508, 0.838585, 0.357236, 0.838965, 0.357398, 0, 0
3, 2520.00000, 0.836876, 0.356508, 0.838585, 0.357236, 0.838965, 0.357398, 0, 0
3, 2580.00000, 0.836876, 0.356508, 0.838585, 0.357236, 0.838965, 0.357398, 0, 0
3, 2640.00000, 0.836876, 0.356508, 0.838585, 0.357236, 0.838965, 0.357398, 0, 0
3, 2700.00000, 0.836876, 0.356508, 0.838585, 0.357236, 0.838965, 0.357398, 0, 0
3, 2760.00000, 0.767732, 0.327059, 0.767734, 0.327057, 0.767745, 0.327065, 0, 0
3, 2820.00000, 0.767716, 0.327046, 0.767716, 0.327046, 0.767716, 0.327046, 0, 0
3, 2880.00000, 0.767716, 0.327046, 0.767716, 0.327046, 0.767716, 0.327046, 0, 0
3, 2940.00000, 0.767716, 0.327046, 0.767716, 0.327046, 0.767716, 0.327046, 0, 0
3, 3000.00000, 0.767716, 0.327046, 0.767716, 0.327046, 0.767716, 0.327046, 0, 0
3, 3060.00000, 0.767716, 0.327046, 0.767716, 0.327046, 0.767716, 0.327046, 0, 0
3, 3120.00000, 0.767716, 0.327046, 0.767716, 0.327046, 0.767716, 0.327046, 0, 0
3, 3180.00000, 0.767716, 0.327046, 0.767716, 0.327046, 0.767716, 0.327046, 0, 0
3, 3240.00000, 0.767716, 0.327046, 0.767716, 0.327046, 0.767716, 0.327046, 0, 0
3, 3300.00000, 0.767716, 0.327046, 0.767716, 0.327046, 0.767716, 0.327046, 0, 0
3, 3360.00000, 0.767716, 0.327046, 0.767716, 0.327046, 0.767716, 0.327046, 0, 0
3, 3420.00000, 0.767716, 0.327046, 0.767716, 0.327046, 0.767716, 0.327046, 0, 0
3, 3480.00000, 0.767716, 0.327046, 0.767716, 0.327046, 0.767716, 0.327046, 0, 0
3, 3540.00000, 0.767716, 0.327046, 0.767716, 0.327046, 0.767716, 0.327046, 0, 0
4, 0.00000, 0.767716, 0.327046, 0.767716, 0.327046, 0.767716, 0.327046, 0, 0
4, 60.00000, 0.821097, 0.349782, 0.821266, 0.349856, 0.821258, 0.34985, 0, 0
4, 120.00000, 0.82108, 0.349779, 0.821279, 0.349863, 0.821278, 0.349863, 0, 0
4, 180.00000, 0.82108, 0.349779, 0.821279, 0.349863, 0.821279, 0.349863, 0, 0
4, 240.00000, 0.82108, 0.349779, 0.821279, 0.349863, 0.821279, 0.349863, 0, 0
4, 300.00000, 0.82108, 0.349779, 0.821279, 0.349863, 0.821279, 0.349863, 0, 0
4, 360.00000, 0.82108, 0.349779, 0.821279, 0.349863, 0.821279, 0.349863, 0, 0
4, 420.00000, 0.82108, 0.349779, 0.821279, 0.349863, 0.821279, 0.349863, 0, 0
4, 480.00000, 0.82108, 0.349779, 0.821279, 0.349863, 0.821279, 0.349863, 0, 0
4, 540.00000, 0.82108, 0.349779, 0.821279, 0.349863, 0.821279, 0.349863, 0, 0
4, 600.00000, 0.82108, 0.349779, 0.821279, 0.349863, 0.821279, 0.349863, 0, 0
4, 660.00000, 0.82108, 0.349779, 0.821279, 0.349863, 0.821279, 0.349863, 0, 0
4, 720.00000, 0.82108, 0.349779, 0.821279, 0.349863, 0.821279, 0.349863, 0, 0
