hour,t(sec),V1,VAngle1,V2,VAngle2,V3,VAngle3,V4,VAngle4,I1,IAngle1,I2,IAngle2,I3,IAngle3,I4,IAngle4
0, 60.00000, 117.761, -31.9749, 119.345, -151.109, 120.659, 88.0007, 0, 0, 5.27722, -55.0489, 5.35602, -174.182, 5.42127, 64.9274, 0.0428234, -79.4022
0, 120.00000, 117.764, -31.9889, 119.345, -151.109, 120.691, 87.9955, 0, 0, 5.27735, -55.0629, 5.35601, -174.183, 5.42085, 64.922, 0.0415999, -78.1079
0, 180.00000, 117.766, -32.0014, 119.345, -151.11, 120.72, 87.9907, 0, 0, 5.27745, -55.0755, 5.35599, -174.183, 5.41955, 64.9172, 0.0398125, -76.0518
0, 240.00000, 117.767, -32.0127, 119.344, -151.11, 120.747, 87.9865, 0, 0, 5.27753, -55.0867, 5.35598, -174.184, 5.41834, 64.9129, 0.0382483, -74
0, 300.00000, 117.769, -32.0227, 119.344, -151.111, 120.772, 87.9827, 0, 0, 5.27759, -55.0968, 5.35597, -174.184, 5.41721, 64.9091, 0.0368845, -71.9811
0, 360.00000, 117.77, -32.0318, 119.344, -151.112, 120.794, 87.9793, 0, 0, 5.27764, -55.1058, 5.35596, -174.185, 5.4162, 64.9056, 0.0356996, -70.0333
0, 420.00000, 117.771, -32.04, 119.344, -151.112, 120.814, 87.9762, 0, 0, 5.27769, -55.114, 5.35595, -174.186, 5.41529, 64.9025, 0.034671, -68.1685
0, 480.00000, 118.785, -31.9518, 120.36, -151.047, 121.984, 88.0815, 0, 0, 4.63553, -55.0258, 4.70373, -174.12, 4.66612, 65.0079, 0.0717565, 45.3229
0, 540.00000, 118.786, -31.9585, 120.36, -151.047, 122.001, 88.079, 0, 0, 4.63556, -55.0324, 4.70372, -174.121, 4.66548, 65.0053, 0.0728003, 45.578
0, 600.00000, 118.787, -31.9645, 120.36, -151.048, 122.016, 88.0767, 0, 0, 4.63559, -55.0384, 4.70371, -174.121, 4.6649, 65.003, 0.073738, 45.8018
0, 660.00000, 118.787, -31.9699, 120.36, -151.048, 122.029, 88.0746, 0, 0, 4.63562, -55.0438, 4.70371, -174.122, 4.66439, 65.0009, 0.0745828, 45.9984
0, 720.00000, 118.788, -31.9748, 120.36, -151.048, 122.041, 88.0728, 0, 0, 4.63564, -55.0487, 4.7037, -174.122, 4.66392, 64.999, 0.0753438, 46.1715
0, 780.00000, 118.789, -31.9792, 120.36, -151.049, 122.052, 88.0711, 0, 0, 4.63566, -55.0531, 4.7037, -174.122, 4.6635, 64.9973, 0.0760292, 46.3242
0, 840.00000, 118.789, -31.9831, 120.36, -151.049, 122.061, 88.0696, 0, 0, 4.63568, -55.057, 4.70369, -174.122, 4.66313, 64.9958, 0.0766465, 46.4592
0, 900.00000, 118.79, -31.9867, 120.359, -151.049, 122.07, 88.0682, 0, 0, 4.6357, -55.0606, 4.70369, -174.123, 4.66279, 64.9944, 0.0772023, 46.5789
0, 960.00000, 118.79, -31.9899, 120.359, -151.049, 122.078, 88.067, 0, 0, 4.63571, -55.0638, 4.70369, -174.123, 4.66248, 64.9932, 0.0777028, 46.6851
0, 1020.00000, 118.79, -31.9928, 120.359, -151.049, 122.085, 88.0659, 0, 0, 4.63573, -55.0667, 4.70368, -174.123, 4.66221, 64.9921, 0.0781534, 46.7795
0, 1080.00000, 118.791, -31.9954, 120.359, -151.049, 122.091, 88.0649, 0, 0, 4.63574, -55.0693, 4.70368, -174.123, 4.66196, 64.9911, 0.0785592, 46.8635
0, 1140.00000, 118.791, -31.9977, 120.359, -151.05, 122.097, 88.064, 0, 0, 4.63575, -55.0716, 4.70368, -174.123, 4.66174, 64.9901, 0.0789244, 46.9383
0, 1200.00000, 118.791, -31.9998, 120.359, -151.05, 122.102, 88.0632, 0, 0, 4.63576, -55.0737, 4.70368, -174.124, 4.66154, 64.9893, 0.0792533, 47.0051
0, 1260.00000, 118.792, -32.0017, 120.359, -151.05, 122.107, 88.0624, 0, 0, 4.63577, -55.0756, 4.70367, -174.124, 4.66136, 64.9886, 0.0795493, 47.0647
0, 1320.00000, 118.792, -32.0034, 120.359, -151.05, 122.111, 88.0618, 0, 0, 4.63578, -55.0773, 4.70367, -174.124, 4.6612, 64.9879, 0.0798158, 47.118
0, 1380.00000, 118.792, -32.0049, 120.359, -151.05, 122.115, 88.0612, 0, 0, 4.63578, -55.0788, 4.70367, -174.124, 4.66105, 64.9873, 0.0800557, 47.1656
0, 1440.00000, 118.792, -32.0063, 120.359, -151.05, 122.118, 88.0607, 0, 0, 4.63579, -55.0802, 4.70367, -174.124, 4.66092, 64.9868, 0.0802717, 47.2082
0, 1500.00000, 118.792, -32.0075, 120.359, -151.05, 122.121, 88.0602, 0, 0, 4.6358, -55.0815, 4.70367, -174.124, 4.6608, 64.9863, 0.0804661, 47.2463
0, 1560.00000, 118.792, -32.0087, 120.359, -151.05, 122.124, 88.0598, 0, 0, 4.6358, -55.0826, 4.70367, -174.124, 4.66069, 64.9859, 0.080641, 47.2805
0, 1620.00000, 118.793, -32.0097, 120.359, -151.05, 122.126, 88.0594, 0, 0, 4.63581, -55.0836, 4.70367, -174.124, 4.6606, 64.9855, 0.0807985, 47.3111
0, 1680.00000, 118.793, -32.0106, 120.359, -151.05, 122.128, 88.059, 0, 0, 4.63581, -55.0845, 4.70366, -174.124, 4.66051, 64.9851, 0.0809403, 47.3386
0, 1740.00000, 118.793, -32.0114, 120.359, -151.05, 122.13, 88.0587, 0, 0, 4.63581, -55.0853, 4.70366, -174.124, 4.66043, 64.9848, 0.0810679, 47.3632
0, 1800.00000, 118.793, -32.0121, 120.359, -151.051, 122.132, 88.0584, 0, 0, 4.63582, -55.086, 4.70366, -174.124, 4.66037, 64.9845, 0.0811827, 47.3853
0, 1860.00000, 118.793, -32.0128, 120.359, -151.051, 122.134, 88.0582, 0, 0, 4.63582, -55.0867, 4.70366, -174.124, 4.6603, 64.9843, 0.0812861, 47.4051
0, 1920.00000, 118.793, -32.0134, 120.359, -151.051, 122.135, 88.0579, 0, 0, 4.63582, -55.0873, 4.70366, -174.124, 4.66025, 64.984, 0.0813792, 47.4229
0, 1980.00000, 118.793, -32.0139, 120.359, -151.051, 122.137, 88.0577, 0, 0, 4.63583, -55.0878, 4.70366, -174.124, 4.66019, 64.9838, 0.0814629, 47.4389
0, 2040.00000, 118.793, -32.0144, 120.359, -151.051, 122.138, 88.0575, 0, 0, 4.63583, -55.0883, 4.70366, -174.125, 4.66015, 64.9836, 0.0815383, 47.4533
0, 2100.00000, 118.793, -32.0148, 120.359, -151.051, 122.139, 88.0574, 0, 0, 4.63583, -55.0887, 4.70366, -174.125, 4.66011, 64.9835, 0.0816061, 47.4662
0, 2160.00000, 118.793, -32.0152, 120.359, -151.051, 122.14, 88.0572, 0, 0, 4.63583, -55.0891, 4.70366, -174.125, 4.66007, 64.9833, 0.0816672, 47.4778
0, 2220.00000, 118.793, -32.0156, 120.359, -151.051, 122.141, 88.0571, 0, 0, 4.63583, -55.0895, 4.70366, -174.125, 4.66004, 64.9832, 0.0817221, 47.4882
0, 2280.00000, 118.793, -32.0159, 120.359, -151.051, 122.141, 88.057, 0, 0, 4.63583, -55.0898, 4.70366, -174.125, 4.66001, 64.9831, 0.0817716, 47.4976
0, 2340.00000, 118.793, -32.0162, 120.359, -151.051, 122.142, 88.0569, 0, 0, 4.63584, -55.0901, 4.70366, -174.125, 4.65998, 64.983, 0.0818161, 47.506
0, 2400.00000, 118.793, -32.0164, 120.359, -151.051, 122.143, 88.0568, 0, 0, 4.63584, -55.0903, 4.70366, -174.125, 4.65996, 64.9828, 0.0818562, 47.5135
0, 2460.00000, 118.793, -32.0166, 120.359, -151.051, 122.143, 88.0567, 0, 0, 4.63584, -55.0906, 4.70366, -174.125, 4.65993, 64.9828, 0.0818922, 47.5203
0, 2520.00000, 118.793, -32.0168, 120.359, -151.051, 122.144, 88.0566, 0, 0, 4.63584, -55.0908, 4.70366, -174.125, 4.65991, 64.9827, 0.0819247, 47.5265
0, 2580.00000, 118.793, -32.017, 120.359, -151.051, 122.144, 88.0565, 0, 0, 4.63584, -55.091, 4.70366, -174.125, 4.6599, 64.9826, 0.0819539, 47.532
0, 2640.00000, 118.793, -32.0172, 120.359, -151.051, 122.145, 88.0565, 0, 0, 4.63584, -55.0911, 4.70366, -174.125, 4.65988, 64.9825, 0.0819802, 47.5369
0, 2700.00000, 118.794, -32.0173, 120.359, -151.051, 122.145, 88.0564, 0, 0, 4.63584, -55.0913, 4.70366, -174.125, 4.65987, 64.9825, 0.0820039, 47.5414
0, 2760.00000, 118.794, -32.0175, 120.359, -151.051, 122.145, 88.0563, 0, 0, 4.63584, -55.0914, 4.70366, -174.125, 4.65985, 64.9824, 0.0820251, 47.5454
0, 2820.00000, 118.794, -32.0176, 120.359, -151.051, 122.146, 88.0563, 0, 0, 4.63584, -55.0915, 4.70366, -174.125, 4.65984, 64.9824, 0.0820443, 47.549
0, 2880.00000, 118.794, -32.0177, 120.359, -151.051, 122.146, 88.0563, 0, 0, 4.63584, -55.0916, 4.70366, -174.125, 4.65983, 64.9823, 0.0820616, 47.5522
0, 2940.00000, 118.794, -32.0178, 120.359, -151.051, 122.146, 88.0562, 0, 0, 4.63584, -55.0917, 4.70366, -174.125, 4.65982, 64.9823, 0.0820771, 47.5551
0, 3000.00000, 118.794, -32.0179, 120.359, -151.051, 122.146, 88.0562, 0, 0, 4.63584, -55.0918, 4.70366, -174.125, 4.65981, 64.9823, 0.0820911, 47.5577
0, 3060.00000, 118.794, -32.018, 120.359, -151.051, 122.147, 88.0562, 0, 0, 4.63584, -55.0919, 4.70366, -174.125, 4.65981, 64.9822, 0.0821036, 47.5601
0, 3120.00000, 118.794, -32.0181, 120.359, -151.051, 122.147, 88.0561, 0, 0, 4.63584, -55.092, 4.70366, -174.125, 4.6598, 64.9822, 0.082115, 47.5622
0, 3180.00000, 118.794, -32.0181, 120.359, -151.051, 122.147, 88.0561, 0, 0, 4.63584, -55.092, 4.70366, -174.125, 4.65979, 64.9822, 0.0821251, 47.5641
0, 3240.00000, 118.794, -32.0182, 120.359, -151.051, 122.147, 88.0561, 0, 0, 4.63584, -55.0921, 4.70366, -174.125, 4.65979, 64.9822, 0.0821343, 47.5659
0, 3300.00000, 118.794, -32.0182, 120.359, -151.051, 122.147, 88.0561, 0, 0, 4.63584, -55.0922, 4.70366, -174.125, 4.65978, 64.9821, 0.0821426, 47.5674
0, 3360.00000, 118.794, -32.0183, 120.359, -151.051, 122.147, 88.056, 0, 0, 4.63585, -55.0922, 4.70366, -174.125, 4.65978, 64.9821, 0.08215, 47.5688
0, 3420.00000, 118.794, -32.0183, 120.359, -151.051, 122.147, 88.056, 0, 0, 4.63585, -55.0922, 4.70366, -174.125, 4.65977, 64.9821, 0.0821567, 47.57
0, 3480.00000, 118.794, -32.0184, 120.359, -151.051, 122.148, 88.056, 0, 0, 4.63585, -55.0923, 4.70366, -174.125, 4.65977, 64.9821, 0.0821627, 47.5712
0, 3540.00000, 118.794, -32.0184, 120.359, -151.051, 122.148, 88.056, 0, 0, 4.63585, -55.0923, 4.70366, -174.125, 4.65977, 64.9821, 0.0821681, 47.5722
1, 0.00000, 118.794, -32.0184, 120.359, -151.051, 122.148, 88.056, 0, 0, 4.63585, -55.0923, 4.70366, -174.125, 4.65976, 64.9821, 0.082173, 47.5731
1, 60.00000, 118.794, -32.0185, 120.359, -151.051, 122.148, 88.056, 0, 0, 4.63585, -55.0924, 4.70366, -174.125, 4.65976, 64.9821, 0.0821774, 47.5739
1, 120.00000, 118.794, -32.0185, 120.359, -151.051, 122.148, 88.056, 0, 0, 4.63585, -55.0924, 4.70366, -174.125, 4.65976, 64.982, 0.0821813, 47.5747
1, 180.00000, 118.794, -32.0185, 120.359, -151.051, 122.148, 88.056, 0, 0, 4.63585, -55.0924, 4.70366, -174.125, 4.65976, 64.982, 0.0821849, 47.5753
1, 240.00000, 118.794, -32.0185, 120.359, -151.051, 122.148, 88.0559, 0, 0, 4.63585, -55.0924, 4.70366, -174.125, 4.65976, 64.982, 0.0821881, 47.5759
1, 300.00000, 118.794, -32.0185, 120.359, -151.051, 122.148, 88.0559, 0, 0, 4.63585, -55.0925, 4.70366, -174.125, 4.65975, 64.982, 0.0821909, 47.5765
1, 360.00000, 118.794, -32.0186, 120.359, -151.051, 122.148, 88.0559, 0, 0, 4.63585, -55.0925, 4.70366, -174.125, 4.65975, 64.982, 0.0821935, 47.5769
1, 420.00000, 118.794, -32.0186, 120.359, -151.051, 122.148, 88.0559, 0, 0, 4.63585, -55.0925, 4.70366, -174.125, 4.65975, 64.982, 0.0821959, 47.5774
1, 480.00000, 118.794, -32.0186, 120.359, -151.051, 122.148, 88.0559, 0, 0, 4.63585, -55.0925, 4.70366, -174.125, 4.65975, 64.982, 0.0821979, 47.5778
1, 540.00000, 118.794, -32.0186, 120.359, -151.051, 122.148, 88.0559, 0, 0, 4.63585, -55.0925, 4.70366, -174.125, 4.65975, 64.982, 0.0821998, 47.5781
1, 600.00000, 118.794, -32.0186, 120.359, -151.051, 122.148, 88.0559, 0, 0, 4.63585, -55.0925, 4.70366, -174.125, 4.65975, 64.982, 0.0822015, 47.5784
1, 660.00000, 118.794, -32.0186, 120.359, -151.051, 122.148, 88.0559, 0, 0, 4.63585, -55.0925, 4.70366, -174.125, 4.65975, 64.982, 0.0822031, 47.5787
1, 720.00000, 118.794, -32.0186, 120.359, -151.051, 122.148, 88.0559, 0, 0, 4.63585, -55.0925, 4.70366, -174.125, 4.65975, 64.982, 0.0822044, 47.579
1, 780.00000, 118.794, -32.0186, 120.359, -151.051, 122.148, 88.0559, 0, 0, 4.63585, -55.0926, 4.70366, -174.125, 4.65974, 64.982, 0.0822057, 47.5792
1, 840.00000, 118.794, -32.0186, 120.359, -151.051, 122.148, 88.0559, 0, 0, 4.63585, -55.0926, 4.70366, -174.125, 4.65974, 64.982, 0.0822068, 47.5794
1, 900.00000, 118.794, -32.0187, 120.359, -151.051, 122.148, 88.0559, 0, 0, 4.63585, -55.0926, 4.70366, -174.125, 4.65974, 64.982, 0.0822078, 47.5796
1, 960.00000, 118.794, -32.0187, 120.359, -151.051, 122.148, 88.0559, 0, 0, 4.63585, -55.0926, 4.70366, -174.125, 4.65974, 64.982, 0.0822087, 47.5798
1, 1020.00000, 118.794, -32.0187, 120.359, -151.051, 122.148, 88.0559, 0, 0, 4.63585, -55.0926, 4.70366, -174.125, 4.65974, 64.982, 0.0822095, 47.5799
1, 1080.00000, 118.794, -32.0187, 120.359, -151.051, 122.148, 88.0559, 0, 0, 4.63585, -55.0926, 4.70366, -174.125, 4.65974, 64.982, 0.0822102, 47.5801
1, 1140.00000, 118.794, -32.0187, 120.359, -151.051, 122.148, 88.0559, 0, 0, 4.63585, -55.0926, 4.70366, -174.125, 4.65974, 64.982, 0.0822109, 47.5802
1, 1200.00000, 118.794, -32.0187, 120.359, -151.051, 122.148, 88.0559, 0, 0, 4.63585, -55.0926, 4.70366, -174.125, 4.65974, 64.982, 0.0822115, 47.5803
1, 1260.00000, 118.794, -32.0187, 120.359, -151.051, 122.148, 88.0559, 0, 0, 4.63585, -55.0926, 4.70366, -174.125, 4.65974, 64.982, 0.082212, 47.5804
1, 1320.00000, 118.794, -32.0187, 120.359, -151.051, 122.148, 88.0559, 0, 0, 4.63585, -55.0926, 4.70366, -174.125, 4.65974, 64.982, 0.0822125, 47.5805
1, 1380.00000, 118.794, -32.0187, 120.359, -151.051, 122.148, 88.0559, 0, 0, 4.63585, -55.0926, 4.70366, -174.125, 4.65974, 64.982, 0.0822129, 47.5806
1, 1440.00000, 118.794, -32.0187, 120.359, -151.051, 122.148, 88.0559, 0, 0, 4.63585, -55.0926, 4.70366, -174.125, 4.65974, 64.982, 0.0822133, 47.5807
1, 1500.00000, 118.794, -32.0187, 120.359, -151.051, 122.148, 88.0559, 0, 0, 4.63585, -55.0926, 4.70366, -174.125, 4.65974, 64.982, 0.0822137, 47.5807
1, 1560.00000, 118.794, -32.0187, 120.359, -151.051, 122.148, 88.0559, 0, 0, 4.63585, -55.0926, 4.70366, -174.125, 4.65974, 64.982, 0.082214, 47.5808
1, 1620.00000, 118.794, -32.0187, 120.359, -151.051, 122.148, 88.0559, 0, 0, 4.63585, -55.0926, 4.70366, -174.125, 4.65974, 64.982, 0.0822143, 47.5808
1, 1680.00000, 118.794, -32.0187, 120.359, -151.051, 122.148, 88.0559, 0, 0, 4.63585, -55.0926, 4.70366, -174.125, 4.65974, 64.982, 0.0822145, 47.5809
1, 1740.00000, 118.794, -32.0187, 120.359, -151.051, 122.148, 88.0559, 0, 0, 4.63585, -55.0926, 4.70366, -174.125, 4.65974, 64.982, 0.0822148, 47.5809
1, 1800.00000, 118.794, -32.0187, 120.359, -151.051, 122.148, 88.0559, 0, 0, 4.63585, -55.0926, 4.70366, -174.125, 4.65974, 64.982, 0.082215, 47.581
1, 1860.00000, 118.794, -32.0187, 120.359, -151.051, 122.148, 88.0559, 0, 0, 4.63585, -55.0926, 4.70366, -174.125, 4.65974, 64.982, 0.0822152, 47.581
1, 1920.00000, 118.794, -32.0187, 120.359, -151.051, 122.148, 88.0559, 0, 0, 4.63585, -55.0926, 4.70366, -174.125, 4.65974, 64.982, 0.0822153, 47.581
1, 1980.00000, 118.794, -32.0187, 120.359, -151.051, 122.148, 88.0559, 0, 0, 4.63585, -55.0926, 4.70366, -174.125, 4.65974, 64.982, 0.0822155, 47.5811
1, 2040.00000, 118.794, -32.0187, 120.359, -151.051, 122.148, 88.0559, 0, 0, 4.63585, -55.0926, 4.70366, -174.125, 4.65974, 64.982, 0.0822156, 47.5811
1, 2100.00000, 118.794, -32.0187, 120.359, -151.051, 122.148, 88.0559, 0, 0, 4.63585, -55.0926, 4.70366, -174.125, 4.65974, 64.982, 0.0822157, 47.5811
1, 2160.00000, 118.794, -32.0187, 120.359, -151.051, 122.148, 88.0559, 0, 0, 4.63585, -55.0926, 4.70366, -174.125, 4.65974, 64.982, 0.0822158, 47.5811
1, 2220.00000, 118.794, -32.0187, 120.359, -151.051, 122.148, 88.0559, 0, 0, 4.63585, -55.0926, 4.70366, -174.125, 4.65974, 64.982, 0.0822159, 47.5811
1, 2280.00000, 118.794, -32.0187, 120.359, -151.051, 122.148, 88.0559, 0, 0, 4.63585, -55.0926, 4.70366, -174.125, 4.65974, 64.982, 0.082216, 47.5812
1, 2340.00000, 118.794, -32.0187, 120.359, -151.051, 122.148, 88.0559, 0, 0, 4.63585, -55.0926, 4.70366, -174.125, 4.65974, 64.982, 0.0822161, 47.5812
1, 2400.00000, 118.794, -32.0187, 120.359, -151.051, 122.148, 88.0559, 0, 0, 4.63585, -55.0926, 4.70366, -174.125, 4.65974, 64.982, 0.0822162, 47.5812
1, 2460.00000, 118.794, -32.0187, 120.359, -151.051, 122.148, 88.0559, 0, 0, 4.63585, -55.0926, 4.70366, -174.125, 4.65974, 64.982, 0.0822162, 47.5812
1, 2520.00000, 118.794, -32.0187, 120.359, -151.051, 122.148, 88.0559, 0, 0, 4.63585, -55.0926, 4.70366, -174.125, 4.65974, 64.982, 0.0822163, 47.5812
1, 2580.00000, 118.794, -32.0187, 120.359, -151.051, 122.148, 88.0559, 0, 0, 4.63585, -55.0926, 4.70366, -174.125, 4.65974, 64.982, 0.0822164, 47.5812
1, 2640.00000, 118.794, -32.0187, 120.359, -151.051, 122.148, 88.0559, 0, 0, 4.63585, -55.0926, 4.70366, -174.125, 4.65974, 64.982, 0.0822164, 47.5812
1, 2700.00000, 118.794, -32.0187, 120.359, -151.051, 122.148, 88.0559, 0, 0, 4.63585, -55.0926, 4.70366, -174.125, 4.65974, 64.982, 0.0822164, 47.5812
1, 2760.00000, 118.794, -32.0187, 120.359, -151.051, 122.148, 88.0559, 0, 0, 4.63585, -55.0926, 4.70366, -174.125, 4.65974, 64.982, 0.0822165, 47.5812
1, 2820.00000, 118.794, -32.0187, 120.359, -151.051, 122.148, 88.0559, 0, 0, 4.63585, -55.0926, 4.70366, -174.125, 4.65974, 64.982, 0.0822165, 47.5812
1, 2880.00000, 118.794, -32.0187, 120.359, -151.051, 122.148, 88.0559, 0, 0, 4.63585, -55.0926, 4.70366, -174.125, 4.65974, 64.982, 0.0822165, 47.5813
1, 2940.00000, 118.794, -32.0187, 120.359, -151.051, 122.148, 88.0559, 0, 0, 4.63585, -55.0926, 4.70366, -174.125, 4.65974, 64.982, 0.0822166, 47.5813
1, 3000.00000, 118.794, -32.0187, 120.359, -151.051, 122.148, 88.0559, 0, 0, 4.63585, -55.0926, 4.70366, -174.125, 4.65974, 64.982, 0.0822166, 47.5813
1, 3060.00000, 118.794, -32.0187, 120.359, -151.051, 122.148, 88.0559, 0, 0, 4.63585, -55.0926, 4.70366, -174.125, 4.65974, 64.982, 0.0822166, 47.5813
1, 3120.00000, 118.794, -32.0187, 120.359, -151.051, 122.148, 88.0559, 0, 0, 4.63585, -55.0926, 4.70366, -174.125, 4.65974, 64.982, 0.0822166, 47.5813
1, 3180.00000, 118.794, -32.0187, 120.359, -151.051, 122.148, 88.0559, 0, 0, 4.63585, -55.0926, 4.70366, -174.125, 4.65974, 64.982, 0.0822167, 47.5813
1, 3240.00000, 118.794, -32.0187, 120.359, -151.051, 122.148, 88.0559, 0, 0, 4.63585, -55.0926, 4.70366, -174.125, 4.65974, 64.982, 0.0822167, 47.5813
1, 3300.00000, 118.794, -32.0187, 120.359, -151.051, 122.148, 88.0559, 0, 0, 4.63585, -55.0926, 4.70366, -174.125, 4.65974, 64.982, 0.0822167, 47.5813
1, 3360.00000, 118.794, -32.0187, 120.359, -151.051, 122.148, 88.0559, 0, 0, 4.63585, -55.0926, 4.70366, -174.125, 4.65974, 64.982, 0.0822167, 47.5813
1, 3420.00000, 118.794, -32.0187, 120.359, -151.051, 122.148, 88.0559, 0, 0, 4.63585, -55.0926, 4.70366, -174.125, 4.65974, 64.982, 0.0822167, 47.5813
1, 3480.00000, 118.794, -32.0187, 120.359, -151.051, 122.148, 88.0559, 0, 0, 4.63585, -55.0926, 4.70366, -174.125, 4.65974, 64.982, 0.0822167, 47.5813
1, 3540.00000, 118.794, -32.0187, 120.359, -151.051, 122.148, 88.0559, 0, 0, 4.63585, -55.0926, 4.70366, -174.125, 4.65974, 64.982, 0.0822167, 47.5813
2, 0.00000, 118.794, -32.0187, 120.359, -151.051, 122.148, 88.0559, 0, 0, 4.63585, -55.0926, 4.70366, -174.125, 4.65974, 64.982, 0.0822167, 47.5813
2, 60.00000, 118.794, -32.0187, 120.359, -151.051, 122.148, 88.0559, 0, 0, 4.63585, -55.0926, 4.70366, -174.125, 4.65974, 64.982, 0.0822168, 47.5813
2, 120.00000, 118.794, -32.0187, 120.359, -151.051, 122.148, 88.0559, 0, 0, 4.63585, -55.0926, 4.70366, -174.125, 4.65974, 64.982, 0.0822168, 47.5813
2, 180.00000, 118.794, -32.0187, 120.359, -151.051, 122.148, 88.0559, 0, 0, 4.63585, -55.0926, 4.70366, -174.125, 4.65974, 64.982, 0.0822168, 47.5813
2, 240.00000, 118.794, -32.0187, 120.359, -151.051, 122.148, 88.0559, 0, 0, 4.63585, -55.0926, 4.70366, -174.125, 4.65974, 64.982, 0.0822168, 47.5813
2, 300.00000, 118.794, -32.0187, 120.359, -151.051, 122.148, 88.0559, 0, 0, 4.63585, -55.0926, 4.70366, -174.125, 4.65974, 64.982, 0.0822168, 47.5813
2, 360.00000, 118.794, -32.0187, 120.359, -151.051, 122.148, 88.0559, 0, 0, 4.63585, -55.0926, 4.70366, -174.125, 4.65974, 64.982, 0.0822168, 47.5813
2, 420.00000, 118.794, -32.0187, 120.359, -151.051, 122.148, 88.0559, 0, 0, 4.63585, -55.0926, 4.70366, -174.125, 4.65974, 64.982, 0.0822168, 47.5813
2, 480.00000, 118.794, -32.0187, 120.359, -151.051, 122.148, 88.0559, 0, 0, 4.63585, -55.0926, 4.70366, -174.125, 4.65974, 64.982, 0.0822168, 47.5813
2, 540.00000, 118.794, -32.0187, 120.359, -151.051, 122.148, 88.0559, 0, 0, 4.63585, -55.0926, 4.70366, -174.125, 4.65974, 64.982, 0.0822168, 47.5813
2, 600.00000, 118.794, -32.0187, 120.359, -151.051, 122.148, 88.0559, 0, 0, 4.63585, -55.0926, 4.70366, -174.125, 4.65974, 64.982, 0.0822168, 47.5813
2, 660.00000, 118.794, -32.0187, 120.359, -151.051, 122.148, 88.0559, 0, 0, 4.63585, -55.0926, 4.70366, -174.125, 4.65974, 64.982, 0.0822168, 47.5813
2, 720.00000, 118.794, -32.0187, 120.359, -151.051, 122.148, 88.0559, 0, 0, 4.63585, -55.0926, 4.70366, -174.125, 4.65974, 64.982, 0.0822168, 47.5813
