hour,t(sec),V1,VAngle1,V2,VAngle2,V3,VAngle3,V4,VAngle4,I1,IAngle1,I2,IAngle2,I3,IAngle3,I4,IAngle4
0, 60.00000, 122.301, -31.3459, 122.483, -151.298, 122.893, 88.6334, 0, 0, 10.1514, -54.4196, 10.1364, -174.372, 10.1024, 65.5598, 0.0530683, 88.792
0, 120.00000, 122.301, -31.3459, 122.482, -151.298, 122.893, 88.6334, 0, 0, 10.1515, -54.4198, 10.1364, -174.372, 10.1026, 65.5595, 0.0530251, 88.8212
0, 180.00000, 122.301, -31.3459, 122.482, -151.298, 122.893, 88.6334, 0, 0, 10.1515, -54.4198, 10.1364, -174.372, 10.1026, 65.5595, 0.0530249, 88.8214
0, 240.00000, 122.301, -31.3459, 122.482, -151.298, 122.893, 88.6334, 0, 0, 10.1515, -54.4198, 10.1364, -174.372, 10.1026, 65.5595, 0.0530249, 88.8214
0, 300.00000, 122.301, -31.3459, 122.482, -151.298, 122.893, 88.6334, 0, 0, 10.1515, -54.4198, 10.1364, -174.372, 10.1026, 65.5595, 0.0530249, 88.8214
0, 360.00000, 122.301, -31.3459, 122.482, -151.298, 122.893, 88.6334, 0, 0, 10.1515, -54.4198, 10.1364, -174.372, 10.1026, 65.5595, 0.0530249, 88.8214
0, 420.00000, 122.301, -31.3459, 122.482, -151.298, 122.893, 88.6334, 0, 0, 10.1515, -54.4198, 10.1364, -174.372, 10.1026, 65.5595, 0.0530249, 88.8214
0, 480.00000, 123.012, -31.2198, 123.16, -151.175, 123.559, 88.7731, 0, 0, 8.78086, -54.2942, 8.77033, -174.249, 8.74215, 65.6986, 0.0416987, 84.8217
0, 540.00000, 123.012, -31.2197, 123.16, -151.175, 123.559, 88.7732, 0, 0, 8.78076, -54.2936, 8.77021, -174.249, 8.74189, 65.6993, 0.041781, 84.7411
0, 600.00000, 123.012, -31.2197, 123.16, -151.175, 123.559, 88.7732, 0, 0, 8.78076, -54.2936, 8.77021, -174.249, 8.74189, 65.6993, 0.0417829, 84.7391
0, 660.00000, 123.012, -31.2197, 123.16, -151.175, 123.559, 88.7732, 0, 0, 8.78076, -54.2936, 8.77021, -174.249, 8.74189, 65.6993, 0.0417829, 84.7391
0, 720.00000, 123.012, -31.2197, 123.16, -151.175, 123.559, 88.7732, 0, 0, 8.78076, -54.2936, 8.77021, -174.249, 8.74189, 65.6993, 0.0417829, 84.7391
0, 780.00000, 123.012, -31.2197, 123.16, -151.175, 123.559, 88.7732, 0, 0, 8.78076, -54.2936, 8.77021, -174.249, 8.74189, 65.6993, 0.0417829, 84.7391
0, 840.00000, 123.012, -31.2197, 123.16, -151.175, 123.559, 88.7732, 0, 0, 8.78076, -54.2936, 8.77021, -174.249, 8.74189, 65.6993, 0.0417829, 84.7391
0, 900.00000, 123.012, -31.2197, 123.16, -151.175, 123.559, 88.7732, 0, 0, 8.78076, -54.2936, 8.77021, -174.249, 8.74189, 65.6993, 0.0417829, 84.7391
0, 960.00000, 123.012, -31.2197, 123.16, -151.175, 123.559, 88.7732, 0, 0, 8.78076, -54.2936, 8.77021, -174.249, 8.74189, 65.6993, 0.0417829, 84.7391
0, 1020.00000, 123.012, -31.2197, 123.16, -151.175, 123.559, 88.7732, 0, 0, 8.78076, -54.2936, 8.77021, -174.249, 8.74189, 65.6993, 0.0417829, 84.7391
0, 1080.00000, 123.012, -31.2197, 123.16, -151.175, 123.559, 88.7732, 0, 0, 8.78076, -54.2936, 8.77021, -174.249, 8.74189, 65.6993, 0.0417829, 84.7391
0, 1140.00000, 123.012, -31.2197, 123.16, -151.175, 123.559, 88.7732, 0, 0, 8.78076, -54.2936, 8.77021, -174.249, 8.74189, 65.6993, 0.0417829, 84.7391
0, 1200.00000, 123.012, -31.2197, 123.16, -151.175, 123.559, 88.7732, 0, 0, 8.78076, -54.2936, 8.77021, -174.249, 8.74189, 65.6993, 0.0417829, 84.7391
0, 1260.00000, 123.012, -31.2197, 123.16, -151.175, 123.559, 88.7732, 0, 0, 8.78076, -54.2936, 8.77021, -174.249, 8.74189, 65.6993, 0.0417829, 84.7391
0, 1320.00000, 123.012, -31.2197, 123.16, -151.175, 123.559, 88.7732, 0, 0, 8.78076, -54.2936, 8.77021, -174.249, 8.74189, 65.6993, 0.0417829, 84.7391
0, 1380.00000, 123.012, -31.2197, 123.16, -151.175, 123.559, 88.7732, 0, 0, 8.78076, -54.2936, 8.77021, -174.249, 8.74189, 65.6993, 0.0417829, 84.7391
0, 1440.00000, 123.012, -31.2197, 123.16, -151.175, 123.559, 88.7732, 0, 0, 8.78076, -54.2936, 8.77021, -174.249, 8.74189, 65.6993, 0.0417829, 84.7391
0, 1500.00000, 123.012, -31.2197, 123.16, -151.175, 123.559, 88.7732, 0, 0, 8.78076, -54.2936, 8.77021, -174.249, 8.74189, 65.6993, 0.0417829, 84.7391
0, 1560.00000, 123.012, -31.2197, 123.16, -151.175, 123.559, 88.7732, 0, 0, 8.78076, -54.2936, 8.77021, -174.249, 8.74189, 65.6993, 0.0417829, 84.7391
0, 1620.00000, 123.012, -31.2197, 123.16, -151.175, 123.559, 88.7732, 0, 0, 8.78076, -54.2936, 8.77021, -174.249, 8.74189, 65.6993, 0.0417829, 84.7391
0, 1680.00000, 123.012, -31.2197, 123.16, -151.175, 123.559, 88.7732, 0, 0, 8.78076, -54.2936, 8.77021, -174.249, 8.74189, 65.6993, 0.0417829, 84.7391
0, 1740.00000, 123.012, -31.2197, 123.16, -151.175, 123.559, 88.7732, 0, 0, 8.78076, -54.2936, 8.77021, -174.249, 8.74189, 65.6993, 0.0417829, 84.7391
0, 1800.00000, 123.012, -31.2197, 123.16, -151.175, 123.559, 88.7732, 0, 0, 8.78076, -54.2936, 8.77021, -174.249, 8.74189, 65.6993, 0.0417829, 84.7391
0, 1860.00000, 123.012, -31.2197, 123.16, -151.175, 123.559, 88.7732, 0, 0, 8.78076, -54.2936, 8.77021, -174.249, 8.74189, 65.6993, 0.0417829, 84.7391
0, 1920.00000, 123.012, -31.2197, 123.16, -151.175, 123.559, 88.7732, 0, 0, 8.78076, -54.2936, 8.77021, -174.249, 8.74189, 65.6993, 0.0417829, 84.7391
0, 1980.00000, 123.012, -31.2197, 123.16, -151.175, 123.559, 88.7732, 0, 0, 8.78076, -54.2936, 8.77021, -174.249, 8.74189, 65.6993, 0.0417829, 84.7391
0, 2040.00000, 123.012, -31.2197, 123.16, -151.175, 123.559, 88.7732, 0, 0, 8.78076, -54.2936, 8.77021, -174.249, 8.74189, 65.6993, 0.0417829, 84.7391
0, 2100.00000, 123.012, -31.2197, 123.16, -151.175, 123.559, 88.7732, 0, 0, 8.78076, -54.2936, 8.77021, -174.249, 8.74189, 65.6993, 0.0417829, 84.7391
0, 2160.00000, 123.012, -31.2197, 123.16, -151.175, 123.559, 88.7732, 0, 0, 8.78076, -54.2936, 8.77021, -174.249, 8.74189, 65.6993, 0.0417829, 84.7391
0, 2220.00000, 123.012, -31.2197, 123.16, -151.175, 123.559, 88.7732, 0, 0, 8.78076, -54.2936, 8.77021, -174.249, 8.74189, 65.6993, 0.0417829, 84.7391
0, 2280.00000, 123.012, -31.2197, 123.16, -151.175, 123.559, 88.7732, 0, 0, 8.78076, -54.2936, 8.77021, -174.249, 8.74189, 65.6993, 0.0417829, 84.7391
0, 2340.00000, 123.012, -31.2197, 123.16, -151.175, 123.559, 88.7732, 0, 0, 8.78076, -54.2936, 8.77021, -174.249, 8.74189, 65.6993, 0.0417829, 84.7391
0, 2400.00000, 123.012, -31.2197, 123.16, -151.175, 123.559, 88.7732, 0, 0, 8.78076, -54.2936, 8.77021, -174.249, 8.74189, 65.6993, 0.0417829, 84.7391
0, 2460.00000, 123.012, -31.2197, 123.16, -151.175, 123.559, 88.7732, 0, 0, 8.78076, -54.2936, 8.77021, -174.249, 8.74189, 65.6993, 0.0417829, 84.7391
0, 2520.00000, 123.012, -31.2197, 123.16, -151.175, 123.559, 88.7732, 0, 0, 8.78076, -54.2936, 8.77021, -174.249, 8.74189, 65.6993, 0.0417829, 84.7391
0, 2580.00000, 123.012, -31.2197, 123.16, -151.175, 123.559, 88.7732, 0, 0, 8.78076, -54.2936, 8.77021, -174.249, 8.74189, 65.6993, 0.0417829, 84.7391
0, 2640.00000, 123.012, -31.2197, 123.16, -151.175, 123.559, 88.7732, 0, 0, 8.78076, -54.2936, 8.77021, -174.249, 8.74189, 65.6993, 0.0417829, 84.7391
0, 2700.00000, 123.012, -31.2197, 123.16, -151.175, 123.559, 88.7732, 0, 0, 8.78076, -54.2936, 8.77021, -174.249, 8.74189, 65.6993, 0.0417829, 84.7391
0, 2760.00000, 123.012, -31.2197, 123.16, -151.175, 123.559, 88.7732, 0, 0, 8.78076, -54.2936, 8.77021, -174.249, 8.74189, 65.6993, 0.0417829, 84.7391
0, 2820.00000, 123.012, -31.2197, 123.16, -151.175, 123.559, 88.7732, 0, 0, 8.78076, -54.2936, 8.77021, -174.249, 8.74189, 65.6993, 0.0417829, 84.7391
0, 2880.00000, 123.012, -31.2197, 123.16, -151.175, 123.559, 88.7732, 0, 0, 8.78076, -54.2936, 8.77021, -174.249, 8.74189, 65.6993, 0.0417829, 84.7391
0, 2940.00000, 123.012, -31.2197, 123.16, -151.175, 123.559, 88.7732, 0, 0, 8.78076, -54.2936, 8.77021, -174.249, 8.74189, 65.6993, 0.0417829, 84.7391
0, 3000.00000, 123.012, -31.2197, 123.16, -151.175, 123.559, 88.7732, 0, 0, 8.78076, -54.2936, 8.77021, -174.249, 8.74189, 65.6993, 0.0417829, 84.7391
0, 3060.00000, 123.012, -31.2197, 123.16, -151.175, 123.559, 88.7732, 0, 0, 8.78076, -54.2936, 8.77021, -174.249, 8.74189, 65.6993, 0.0417829, 84.7391
0, 3120.00000, 123.012, -31.2197, 123.16, -151.175, 123.559, 88.7732, 0, 0, 8.78076, -54.2936, 8.77021, -174.249, 8.74189, 65.6993, 0.0417829, 84.7391
0, 3180.00000, 123.012, -31.2197, 123.16, -151.175, 123.559, 88.7732, 0, 0, 8.78076, -54.2936, 8.77021, -174.249, 8.74189, 65.6993, 0.0417829, 84.7391
0, 3240.00000, 123.012, -31.2197, 123.16, -151.175, 123.559, 88.7732, 0, 0, 8.78076, -54.2936, 8.77021, -174.249, 8.74189, 65.6993, 0.0417829, 84.7391
0, 3300.00000, 123.012, -31.2197, 123.16, -151.175, 123.559, 88.7732, 0, 0, 8.78076, -54.2936, 8.77021, -174.249, 8.74189, 65.6993, 0.0417829, 84.7391
0, 3360.00000, 123.012, -31.2197, 123.16, -151.175, 123.559, 88.7732, 0, 0, 8.78076, -54.2936, 8.77021, -174.249, 8.74189, 65.6993, 0.0417829, 84.7391
0, 3420.00000, 123.012, -31.2197, 123.16, -151.175, 123.559, 88.7732, 0, 0, 8.78076, -54.2936, 8.77021, -174.249, 8.74189, 65.6993, 0.0417829, 84.7391
0, 3480.00000, 123.012, -31.2197, 123.16, -151.175, 123.559, 88.7732, 0, 0, 8.78076, -54.2936, 8.77021, -174.249, 8.74189, 65.6993, 0.0417829, 84.7391
0, 3540.00000, 123.012, -31.2197, 123.16, -151.175, 123.559, 88.7732, 0, 0, 8.78076, -54.2936, 8.77021, -174.249, 8.74189, 65.6993, 0.0417829, 84.7391
1, 0.00000, 123.012, -31.2197, 123.16, -151.175, 123.559, 88.7732, 0, 0, 8.78076, -54.2936, 8.77021, -174.249, 8.74189, 65.6993, 0.0417829, 84.7391
1, 60.00000, 123.012, -31.2197, 123.16, -151.175, 123.559, 88.7732, 0, 0, 8.78076, -54.2936, 8.77021, -174.249, 8.74189, 65.6993, 0.0417829, 84.7391
1, 120.00000, 123.012, -31.2197, 123.16, -151.175, 123.559, 88.7732, 0, 0, 8.78076, -54.2936, 8.77021, -174.249, 8.74189, 65.6993, 0.0417829, 84.7391
1, 180.00000, 123.012, -31.2197, 123.16, -151.175, 123.559, 88.7732, 0, 0, 8.78076, -54.2936, 8.77021, -174.249, 8.74189, 65.6993, 0.0417829, 84.7391
1, 240.00000, 123.012, -31.2197, 123.16, -151.175, 123.559, 88.7732, 0, 0, 8.78076, -54.2936, 8.77021, -174.249, 8.74189, 65.6993, 0.0417829, 84.7391
1, 300.00000, 123.012, -31.2197, 123.16, -151.175, 123.559, 88.7732, 0, 0, 8.78076, -54.2936, 8.77021, -174.249, 8.74189, 65.6993, 0.0417829, 84.7391
1, 360.00000, 123.012, -31.2197, 123.16, -151.175, 123.559, 88.7732, 0, 0, 8.78076, -54.2936, 8.77021, -174.249, 8.74189, 65.6993, 0.0417829, 84.7391
1, 420.00000, 123.012, -31.2197, 123.16, -151.175, 123.559, 88.7732, 0, 0, 8.78076, -54.2936, 8.77021, -174.249, 8.74189, 65.6993, 0.0417829, 84.7391
1, 480.00000, 123.012, -31.2197, 123.16, -151.175, 123.559, 88.7732, 0, 0, 8.78076, -54.2936, 8.77021, -174.249, 8.74189, 65.6993, 0.0417829, 84.7391
1, 540.00000, 123.012, -31.2197, 123.16, -151.175, 123.559, 88.7732, 0, 0, 8.78076, -54.2936, 8.77021, -174.249, 8.74189, 65.6993, 0.0417829, 84.7391
1, 600.00000, 123.012, -31.2197, 123.16, -151.175, 123.559, 88.7732, 0, 0, 8.78076, -54.2936, 8.77021, -174.249, 8.74189, 65.6993, 0.0417829, 84.7391
1, 660.00000, 123.012, -31.2197, 123.16, -151.175, 123.559, 88.7732, 0, 0, 8.78076, -54.2936, 8.77021, -174.249, 8.74189, 65.6993, 0.0417829, 84.7391
1, 720.00000, 123.012, -31.2197, 123.16, -151.175, 123.559, 88.7732, 0, 0, 8.78076, -54.2936, 8.77021, -174.249, 8.74189, 65.6993, 0.0417829, 84.7391
1, 780.00000, 123.012, -31.2197, 123.16, -151.175, 123.559, 88.7732, 0, 0, 8.78076, -54.2936, 8.77021, -174.249, 8.74189, 65.6993, 0.0417829, 84.7391
1, 840.00000, 123.012, -31.2197, 123.16, -151.175, 123.559, 88.7732, 0, 0, 8.78076, -54.2936, 8.77021, -174.249, 8.74189, 65.6993, 0.0417829, 84.7391
1, 900.00000, 123.012, -31.2197, 123.16, -151.175, 123.559, 88.7732, 0, 0, 8.78076, -54.2936, 8.77021, -174.249, 8.74189, 65.6993, 0.0417829, 84.7391
1, 960.00000, 123.012, -31.2197, 123.16, -151.175, 123.559, 88.7732, 0, 0, 8.78076, -54.2936, 8.77021, -174.249, 8.74189, 65.6993, 0.0417829, 84.7391
1, 1020.00000, 123.012, -31.2197, 123.16, -151.175, 123.559, 88.7732, 0, 0, 8.78076, -54.2936, 8.77021, -174.249, 8.74189, 65.6993, 0.0417829, 84.7391
1, 1080.00000, 123.012, -31.2197, 123.16, -151.175, 123.559, 88.7732, 0, 0, 8.78076, -54.2936, 8.77021, -174.249, 8.74189, 65.6993, 0.0417829, 84.7391
1, 1140.00000, 123.012, -31.2197, 123.16, -151.175, 123.559, 88.7732, 0, 0, 8.78076, -54.2936, 8.77021, -174.249, 8.74189, 65.6993, 0.0417829, 84.7391
1, 1200.00000, 123.012, -31.2197, 123.16, -151.175, 123.559, 88.7732, 0, 0, 8.78076, -54.2936, 8.77021, -174.249, 8.74189, 65.6993, 0.0417829, 84.7391
1, 1260.00000, 123.012, -31.2197, 123.16, -151.175, 123.559, 88.7732, 0, 0, 8.78076, -54.2936, 8.77021, -174.249, 8.74189, 65.6993, 0.0417829, 84.7391
1, 1320.00000, 123.012, -31.2197, 123.16, -151.175, 123.559, 88.7732, 0, 0, 8.78076, -54.2936, 8.77021, -174.249, 8.74189, 65.6993, 0.0417829, 84.7391
1, 1380.00000, 123.012, -31.2197, 123.16, -151.175, 123.559, 88.7732, 0, 0, 8.78076, -54.2936, 8.77021, -174.249, 8.74189, 65.6993, 0.0417829, 84.7391
1, 1440.00000, 123.012, -31.2197, 123.16, -151.175, 123.559, 88.7732, 0, 0, 8.78076, -54.2936, 8.77021, -174.249, 8.74189, 65.6993, 0.0417829, 84.7391
1, 1500.00000, 123.012, -31.2197, 123.16, -151.175, 123.559, 88.7732, 0, 0, 8.78076, -54.2936, 8.77021, -174.249, 8.74189, 65.6993, 0.0417829, 84.7391
1, 1560.00000, 123.012, -31.2197, 123.16, -151.175, 123.559, 88.7732, 0, 0, 8.78076, -54.2936, 8.77021, -174.249, 8.74189, 65.6993, 0.0417829, 84.7391
1, 1620.00000, 123.012, -31.2197, 123.16, -151.175, 123.559, 88.7732, 0, 0, 8.78076, -54.2936, 8.77021, -174.249, 8.74189, 65.6993, 0.0417829, 84.7391
1, 1680.00000, 123.012, -31.2197, 123.16, -151.175, 123.559, 88.7732, 0, 0, 8.78076, -54.2936, 8.77021, -174.249, 8.74189, 65.6993, 0.0417829, 84.7391
1, 1740.00000, 123.012, -31.2197, 123.16, -151.175, 123.559, 88.7732, 0, 0, 8.78076, -54.2936, 8.77021, -174.249, 8.74189, 65.6993, 0.0417829, 84.7391
1, 1800.00000, 123.012, -31.2197, 123.16, -151.175, 123.559, 88.7732, 0, 0, 8.78076, -54.2936, 8.77021, -174.249, 8.74189, 65.6993, 0.0417829, 84.7391
1, 1860.00000, 123.012, -31.2197, 123.16, -151.175, 123.559, 88.7732, 0, 0, 8.78076, -54.2936, 8.77021, -174.249, 8.74189, 65.6993, 0.0417829, 84.7391
1, 1920.00000, 123.012, -31.2197, 123.16, -151.175, 123.559, 88.7732, 0, 0, 8.78076, -54.2936, 8.77021, -174.249, 8.74189, 65.6993, 0.0417829, 84.7391
1, 1980.00000, 123.012, -31.2197, 123.16, -151.175, 123.559, 88.7732, 0, 0, 8.78076, -54.2936, 8.77021, -174.249, 8.74189, 65.6993, 0.0417829, 84.7391
1, 2040.00000, 123.012, -31.2197, 123.16, -151.175, 123.559, 88.7732, 0, 0, 8.78076, -54.2936, 8.77021, -174.249, 8.74189, 65.6993, 0.0417829, 84.7391
1, 2100.00000, 123.012, -31.2197, 123.16, -151.175, 123.559, 88.7732, 0, 0, 8.78076, -54.2936, 8.77021, -174.249, 8.74189, 65.6993, 0.0417829, 84.7391
1, 2160.00000, 123.012, -31.2197, 123.16, -151.175, 123.559, 88.7732, 0, 0, 8.78076, -54.2936, 8.77021, -174.249, 8.74189, 65.6993, 0.0417829, 84.7391
1, 2220.00000, 123.012, -31.2197, 123.16, -151.175, 123.559, 88.7732, 0, 0, 8.78076, -54.2936, 8.77021, -174.249, 8.74189, 65.6993, 0.0417829, 84.7391
1, 2280.00000, 123.012, -31.2197, 123.16, -151.175, 123.559, 88.7732, 0, 0, 8.78076, -54.2936, 8.77021, -174.249, 8.74189, 65.6993, 0.0417829, 84.7391
1, 2340.00000, 123.012, -31.2197, 123.16, -151.175, 123.559, 88.7732, 0, 0, 8.78076, -54.2936, 8.77021, -174.249, 8.74189, 65.6993, 0.0417829, 84.7391
1, 2400.00000, 123.012, -31.2197, 123.16, -151.175, 123.559, 88.7732, 0, 0, 8.78076, -54.2936, 8.77021, -174.249, 8.74189, 65.6993, 0.0417829, 84.7391
1, 2460.00000, 123.012, -31.2197, 123.16, -151.175, 123.559, 88.7732, 0, 0, 8.78076, -54.2936, 8.77021, -174.249, 8.74189, 65.6993, 0.0417829, 84.7391
1, 2520.00000, 123.012, -31.2197, 123.16, -151.175, 123.559, 88.7732, 0, 0, 8.78076, -54.2936, 8.77021, -174.249, 8.74189, 65.6993, 0.0417829, 84.7391
1, 2580.00000, 123.012, -31.2197, 123.16, -151.175, 123.559, 88.7732, 0, 0, 8.78076, -54.2936, 8.77021, -174.249, 8.74189, 65.6993, 0.0417829, 84.7391
1, 2640.00000, 123.012, -31.2197, 123.16, -151.175, 123.559, 88.7732, 0, 0, 8.78076, -54.2936, 8.77021, -174.249, 8.74189, 65.6993, 0.0417829, 84.7391
1, 2700.00000, 123.012, -31.2197, 123.16, -151.175, 123.559, 88.7732, 0, 0, 8.78076, -54.2936, 8.77021, -174.249, 8.74189, 65.6993, 0.0417829, 84.7391
1, 2760.00000, 123.012, -31.2197, 123.16, -151.175, 123.559, 88.7732, 0, 0, 8.78076, -54.2936, 8.77021, -174.249, 8.74189, 65.6993, 0.0417829, 84.7391
1, 2820.00000, 123.012, -31.2197, 123.16, -151.175, 123.559, 88.7732, 0, 0, 8.78076, -54.2936, 8.77021, -174.249, 8.74189, 65.6993, 0.0417829, 84.7391
1, 2880.00000, 123.012, -31.2197, 123.16, -151.175, 123.559, 88.7732, 0, 0, 8.78076, -54.2936, 8.77021, -174.249, 8.74189, 65.6993, 0.0417829, 84.7391
1, 2940.00000, 123.012, -31.2197, 123.16, -151.175, 123.559, 88.7732, 0, 0, 8.78076, -54.2936, 8.77021, -174.249, 8.74189, 65.6993, 0.0417829, 84.7391
1, 3000.00000, 123.012, -31.2197, 123.16, -151.175, 123.559, 88.7732, 0, 0, 8.78076, -54.2936, 8.77021, -174.249, 8.74189, 65.6993, 0.0417829, 84.7391
1, 3060.00000, 123.012, -31.2197, 123.16, -151.175, 123.559, 88.7732, 0, 0, 8.78076, -54.2936, 8.77021, -174.249, 8.74189, 65.6993, 0.0417829, 84.7391
1, 3120.00000, 123.012, -31.2197, 123.16, -151.175, 123.559, 88.7732, 0, 0, 8.78076, -54.2936, 8.77021, -174.249, 8.74189, 65.6993, 0.0417829, 84.7391
1, 3180.00000, 123.012, -31.2197, 123.16, -151.175, 123.559, 88.7732, 0, 0, 8.78076, -54.2936, 8.77021, -174.249, 8.74189, 65.6993, 0.0417829, 84.7391
1, 3240.00000, 123.012, -31.2197, 123.16, -151.175, 123.559, 88.7732, 0, 0, 8.78076, -54.2936, 8.77021, -174.249, 8.74189, 65.6993, 0.0417829, 84.7391
1, 3300.00000, 123.012, -31.2197, 123.16, -151.175, 123.559, 88.7732, 0, 0, 8.78076, -54.2936, 8.77021, -174.249, 8.74189, 65.6993, 0.0417829, 84.7391
1, 3360.00000, 123.012, -31.2197, 123.16, -151.175, 123.559, 88.7732, 0, 0, 8.78076, -54.2936, 8.77021, -174.249, 8.74189, 65.6993, 0.0417829, 84.7391
1, 3420.00000, 123.012, -31.2197, 123.16, -151.175, 123.559, 88.7732, 0, 0, 8.78076, -54.2936, 8.77021, -174.249, 8.74189, 65.6993, 0.0417829, 84.7391
1, 3480.00000, 123.012, -31.2197, 123.16, -151.175, 123.559, 88.7732, 0, 0, 8.78076, -54.2936, 8.77021, -174.249, 8.74189, 65.6993, 0.0417829, 84.7391
1, 3540.00000, 123.012, -31.2197, 123.16, -151.175, 123.559, 88.7732, 0, 0, 8.78076, -54.2936, 8.77021, -174.249, 8.74189, 65.6993, 0.0417829, 84.7391
2, 0.00000, 123.012, -31.2197, 123.16, -151.175, 123.559, 88.7732, 0, 0, 8.78076, -54.2936, 8.77021, -174.249, 8.74189, 65.6993, 0.0417829, 84.7391
2, 60.00000, 123.012, -31.2197, 123.16, -151.175, 123.559, 88.7732, 0, 0, 8.78076, -54.2936, 8.77021, -174.249, 8.74189, 65.6993, 0.0417829, 84.7391
2, 120.00000, 123.012, -31.2197, 123.16, -151.175, 123.559, 88.7732, 0, 0, 8.78076, -54.2936, 8.77021, -174.249, 8.74189, 65.6993, 0.0417829, 84.7391
2, 180.00000, 123.012, -31.2197, 123.16, -151.175, 123.559, 88.7732, 0, 0, 8.78076, -54.2936, 8.77021, -174.249, 8.74189, 65.6993, 0.0417829, 84.7391
2, 240.00000, 123.012, -31.2197, 123.16, -151.175, 123.559, 88.7732, 0, 0, 8.78076, -54.2936, 8.77021, -174.249, 8.74189, 65.6993, 0.0417829, 84.7391
2, 300.00000, 123.012, -31.2197, 123.16, -151.175, 123.559, 88.7732, 0, 0, 8.78076, -54.2936, 8.77021, -174.249, 8.74189, 65.6993, 0.0417829, 84.7391
2, 360.00000, 123.012, -31.2197, 123.16, -151.175, 123.559, 88.7732, 0, 0, 8.78076, -54.2936, 8.77021, -174.249, 8.74189, 65.6993, 0.0417829, 84.7391
2, 420.00000, 123.012, -31.2197, 123.16, -151.175, 123.559, 88.7732, 0, 0, 8.78076, -54.2936, 8.77021, -174.249, 8.74189, 65.6993, 0.0417829, 84.7391
2, 480.00000, 123.012, -31.2197, 123.16, -151.175, 123.559, 88.7732, 0, 0, 8.78076, -54.2936, 8.77021, -174.249, 8.74189, 65.6993, 0.0417829, 84.7391
2, 540.00000, 123.012, -31.2197, 123.16, -151.175, 123.559, 88.7732, 0, 0, 8.78076, -54.2936, 8.77021, -174.249, 8.74189, 65.6993, 0.0417829, 84.7391
2, 600.00000, 123.012, -31.2197, 123.16, -151.175, 123.559, 88.7732, 0, 0, 8.78076, -54.2936, 8.77021, -174.249, 8.74189, 65.6993, 0.0417829, 84.7391
2, 660.00000, 123.012, -31.2197, 123.16, -151.175, 123.559, 88.7732, 0, 0, 8.78076, -54.2936, 8.77021, -174.249, 8.74189, 65.6993, 0.0417829, 84.7391
2, 720.00000, 123.012, -31.2197, 123.16, -151.175, 123.559, 88.7732, 0, 0, 8.78076, -54.2936, 8.77021, -174.249, 8.74189, 65.6993, 0.0417829, 84.7391
