hour,t(sec),V1,VAngle1,V2,VAngle2,V3,VAngle3,V4,VAngle4,I1,IAngle1,I2,IAngle2,I3,IAngle3,I4,IAngle4
0, 60.00000, 122.449, -31.6224, 122.816, -151.232, 123.765, 88.4619, 0, 0, 3.67116, -54.6961, 3.66018, -174.306, 3.63213, 65.3882, 0.0575808, 82.1717
0, 120.00000, 122.449, -31.6224, 122.816, -151.232, 123.765, 88.4619, 0, 0, 3.67121, -54.6963, 3.66023, -174.306, 3.63215, 65.388, 0.0575996, 82.163
0, 180.00000, 122.449, -31.6224, 122.816, -151.232, 123.765, 88.4619, 0, 0, 3.67121, -54.6963, 3.66023, -174.306, 3.63215, 65.388, 0.0575997, 82.1629
0, 240.00000, 122.449, -31.6224, 122.816, -151.232, 123.765, 88.4619, 0, 0, 3.67121, -54.6963, 3.66023, -174.306, 3.63215, 65.388, 0.0575997, 82.1629
0, 300.00000, 122.449, -31.6224, 122.816, -151.232, 123.765, 88.4619, 0, 0, 3.67121, -54.6963, 3.66023, -174.306, 3.63215, 65.388, 0.0575997, 82.1629
0, 360.00000, 122.449, -31.6224, 122.816, -151.232, 123.765, 88.4619, 0, 0, 3.67121, -54.6963, 3.66023, -174.306, 3.63215, 65.388, 0.0575997, 82.1629
0, 420.00000, 122.449, -31.6224, 122.816, -151.232, 123.765, 88.4619, 0, 0, 3.67121, -54.6963, 3.66023, -174.306, 3.63215, 65.388, 0.0575997, 82.1629
0, 480.00000, 123.053, -31.4951, 123.396, -151.107, 124.333, 88.5972, 0, 0, 3.17833, -54.5694, 3.1695, -174.181, 3.14561, 65.5228, 0.0487565, 81.3647
0, 540.00000, 123.053, -31.4951, 123.396, -151.107, 124.333, 88.5972, 0, 0, 3.17828, -54.569, 3.16945, -174.181, 3.14556, 65.5233, 0.0487569, 81.3692
0, 600.00000, 123.053, -31.4951, 123.396, -151.107, 124.333, 88.5972, 0, 0, 3.17828, -54.569, 3.16945, -174.181, 3.14556, 65.5233, 0.048757, 81.3692
0, 660.00000, 123.053, -31.4951, 123.396, -151.107, 124.333, 88.5972, 0, 0, 3.17828, -54.569, 3.16945, -174.181, 3.14556, 65.5233, 0.048757, 81.3692
0, 720.00000, 123.053, -31.4951, 123.396, -151.107, 124.333, 88.5972, 0, 0, 3.17828, -54.569, 3.16945, -174.181, 3.14556, 65.5233, 0.048757, 81.3692
0, 780.00000, 123.053, -31.4951, 123.396, -151.107, 124.333, 88.5972, 0, 0, 3.17828, -54.569, 3.16945, -174.181, 3.14556, 65.5233, 0.048757, 81.3692
0, 840.00000, 123.053, -31.4951, 123.396, -151.107, 124.333, 88.5972, 0, 0, 3.17828, -54.569, 3.16945, -174.181, 3.14556, 65.5233, 0.048757, 81.3692
0, 900.00000, 123.053, -31.4951, 123.396, -151.107, 124.333, 88.5972, 0, 0, 3.17828, -54.569, 3.16945, -174.181, 3.14556, 65.5233, 0.048757, 81.3692
0, 960.00000, 123.053, -31.4951, 123.396, -151.107, 124.333, 88.5972, 0, 0, 3.17828, -54.569, 3.16945, -174.181, 3.14556, 65.5233, 0.048757, 81.3692
0, 1020.00000, 123.053, -31.4951, 123.396, -151.107, 124.333, 88.5972, 0, 0, 3.17828, -54.569, 3.16945, -174.181, 3.14556, 65.5233, 0.048757, 81.3692
0, 1080.00000, 123.053, -31.4951, 123.396, -151.107, 124.333, 88.5972, 0, 0, 3.17828, -54.569, 3.16945, -174.181, 3.14556, 65.5233, 0.048757, 81.3692
0, 1140.00000, 123.053, -31.4951, 123.396, -151.107, 124.333, 88.5972, 0, 0, 3.17828, -54.569, 3.16945, -174.181, 3.14556, 65.5233, 0.048757, 81.3692
0, 1200.00000, 123.053, -31.4951, 123.396, -151.107, 124.333, 88.5972, 0, 0, 3.17828, -54.569, 3.16945, -174.181, 3.14556, 65.5233, 0.048757, 81.3692
0, 1260.00000, 123.053, -31.4951, 123.396, -151.107, 124.333, 88.5972, 0, 0, 3.17828, -54.569, 3.16945, -174.181, 3.14556, 65.5233, 0.048757, 81.3692
0, 1320.00000, 123.053, -31.4951, 123.396, -151.107, 124.333, 88.5972, 0, 0, 3.17828, -54.569, 3.16945, -174.181, 3.14556, 65.5233, 0.048757, 81.3692
0, 1380.00000, 123.053, -31.4951, 123.396, -151.107, 124.333, 88.5972, 0, 0, 3.17828, -54.569, 3.16945, -174.181, 3.14556, 65.5233, 0.048757, 81.3692
0, 1440.00000, 123.053, -31.4951, 123.396, -151.107, 124.333, 88.5972, 0, 0, 3.17828, -54.569, 3.16945, -174.181, 3.14556, 65.5233, 0.048757, 81.3692
0, 1500.00000, 123.053, -31.4951, 123.396, -151.107, 124.333, 88.5972, 0, 0, 3.17828, -54.569, 3.16945, -174.181, 3.14556, 65.5233, 0.048757, 81.3692
0, 1560.00000, 123.053, -31.4951, 123.396, -151.107, 124.333, 88.5972, 0, 0, 3.17828, -54.569, 3.16945, -174.181, 3.14556, 65.5233, 0.048757, 81.3692
0, 1620.00000, 123.053, -31.4951, 123.396, -151.107, 124.333, 88.5972, 0, 0, 3.17828, -54.569, 3.16945, -174.181, 3.14556, 65.5233, 0.048757, 81.3692
0, 1680.00000, 123.053, -31.4951, 123.396, -151.107, 124.333, 88.5972, 0, 0, 3.17828, -54.569, 3.16945, -174.181, 3.14556, 65.5233, 0.048757, 81.3692
0, 1740.00000, 123.053, -31.4951, 123.396, -151.107, 124.333, 88.5972, 0, 0, 3.17828, -54.569, 3.16945, -174.181, 3.14556, 65.5233, 0.048757, 81.3692
0, 1800.00000, 123.053, -31.4951, 123.396, -151.107, 124.333, 88.5972, 0, 0, 3.17828, -54.569, 3.16945, -174.181, 3.14556, 65.5233, 0.048757, 81.3692
0, 1860.00000, 123.053, -31.4951, 123.396, -151.107, 124.333, 88.5972, 0, 0, 3.17828, -54.569, 3.16945, -174.181, 3.14556, 65.5233, 0.048757, 81.3692
0, 1920.00000, 123.053, -31.4951, 123.396, -151.107, 124.333, 88.5972, 0, 0, 3.17828, -54.569, 3.16945, -174.181, 3.14556, 65.5233, 0.048757, 81.3692
0, 1980.00000, 123.053, -31.4951, 123.396, -151.107, 124.333, 88.5972, 0, 0, 3.17828, -54.569, 3.16945, -174.181, 3.14556, 65.5233, 0.048757, 81.3692
0, 2040.00000, 123.053, -31.4951, 123.396, -151.107, 124.333, 88.5972, 0, 0, 3.17828, -54.569, 3.16945, -174.181, 3.14556, 65.5233, 0.048757, 81.3692
0, 2100.00000, 123.053, -31.4951, 123.396, -151.107, 124.333, 88.5972, 0, 0, 3.17828, -54.569, 3.16945, -174.181, 3.14556, 65.5233, 0.048757, 81.3692
0, 2160.00000, 123.053, -31.4951, 123.396, -151.107, 124.333, 88.5972, 0, 0, 3.17828, -54.569, 3.16945, -174.181, 3.14556, 65.5233, 0.048757, 81.3692
0, 2220.00000, 123.053, -31.4951, 123.396, -151.107, 124.333, 88.5972, 0, 0, 3.17828, -54.569, 3.16945, -174.181, 3.14556, 65.5233, 0.048757, 81.3692
0, 2280.00000, 123.053, -31.4951, 123.396, -151.107, 124.333, 88.5972, 0, 0, 3.17828, -54.569, 3.16945, -174.181, 3.14556, 65.5233, 0.048757, 81.3692
0, 2340.00000, 123.053, -31.4951, 123.396, -151.107, 124.333, 88.5972, 0, 0, 3.17828, -54.569, 3.16945, -174.181, 3.14556, 65.5233, 0.048757, 81.3692
0, 2400.00000, 123.053, -31.4951, 123.396, -151.107, 124.333, 88.5972, 0, 0, 3.17828, -54.569, 3.16945, -174.181, 3.14556, 65.5233, 0.048757, 81.3692
0, 2460.00000, 123.053, -31.4951, 123.396, -151.107, 124.333, 88.5972, 0, 0, 3.17828, -54.569, 3.16945, -174.181, 3.14556, 65.5233, 0.048757, 81.3692
0, 2520.00000, 123.053, -31.4951, 123.396, -151.107, 124.333, 88.5972, 0, 0, 3.17828, -54.569, 3.16945, -174.181, 3.14556, 65.5233, 0.048757, 81.3692
0, 2580.00000, 123.053, -31.4951, 123.396, -151.107, 124.333, 88.5972, 0, 0, 3.17828, -54.569, 3.16945, -174.181, 3.14556, 65.5233, 0.048757, 81.3692
0, 2640.00000, 123.053, -31.4951, 123.396, -151.107, 124.333, 88.5972, 0, 0, 3.17828, -54.569, 3.16945, -174.181, 3.14556, 65.5233, 0.048757, 81.3692
0, 2700.00000, 123.053, -31.4951, 123.396, -151.107, 124.333, 88.5972, 0, 0, 3.17828, -54.569, 3.16945, -174.181, 3.14556, 65.5233, 0.048757, 81.3692
0, 2760.00000, 123.053, -31.4951, 123.396, -151.107, 124.333, 88.5972, 0, 0, 3.17828, -54.569, 3.16945, -174.181, 3.14556, 65.5233, 0.048757, 81.3692
0, 2820.00000, 123.053, -31.4951, 123.396, -151.107, 124.333, 88.5972, 0, 0, 3.17828, -54.569, 3.16945, -174.181, 3.14556, 65.5233, 0.048757, 81.3692
0, 2880.00000, 123.053, -31.4951, 123.396, -151.107, 124.333, 88.5972, 0, 0, 3.17828, -54.569, 3.16945, -174.181, 3.14556, 65.5233, 0.048757, 81.3692
0, 2940.00000, 123.053, -31.4951, 123.396, -151.107, 124.333, 88.5972, 0, 0, 3.17828, -54.569, 3.16945, -174.181, 3.14556, 65.5233, 0.048757, 81.3692
0, 3000.00000, 123.053, -31.4951, 123.396, -151.107, 124.333, 88.5972, 0, 0, 3.17828, -54.569, 3.16945, -174.181, 3.14556, 65.5233, 0.048757, 81.3692
0, 3060.00000, 123.053, -31.4951, 123.396, -151.107, 124.333, 88.5972, 0, 0, 3.17828, -54.569, 3.16945, -174.181, 3.14556, 65.5233, 0.048757, 81.3692
0, 3120.00000, 123.053, -31.4951, 123.396, -151.107, 124.333, 88.5972, 0, 0, 3.17828, -54.569, 3.16945, -174.181, 3.14556, 65.5233, 0.048757, 81.3692
0, 3180.00000, 123.053, -31.4951, 123.396, -151.107, 124.333, 88.5972, 0, 0, 3.17828, -54.569, 3.16945, -174.181, 3.14556, 65.5233, 0.048757, 81.3692
0, 3240.00000, 123.053, -31.4951, 123.396, -151.107, 124.333, 88.5972, 0, 0, 3.17828, -54.569, 3.16945, -174.181, 3.14556, 65.5233, 0.048757, 81.3692
0, 3300.00000, 123.053, -31.4951, 123.396, -151.107, 124.333, 88.5972, 0, 0, 3.17828, -54.569, 3.16945, -174.181, 3.14556, 65.5233, 0.048757, 81.3692
0, 3360.00000, 123.053, -31.4951, 123.396, -151.107, 124.333, 88.5972, 0, 0, 3.17828, -54.569, 3.16945, -174.181, 3.14556, 65.5233, 0.048757, 81.3692
0, 3420.00000, 123.053, -31.4951, 123.396, -151.107, 124.333, 88.5972, 0, 0, 3.17828, -54.569, 3.16945, -174.181, 3.14556, 65.5233, 0.048757, 81.3692
0, 3480.00000, 123.053, -31.4951, 123.396, -151.107, 124.333, 88.5972, 0, 0, 3.17828, -54.569, 3.16945, -174.181, 3.14556, 65.5233, 0.048757, 81.3692
0, 3540.00000, 123.053, -31.4951, 123.396, -151.107, 124.333, 88.5972, 0, 0, 3.17828, -54.569, 3.16945, -174.181, 3.14556, 65.5233, 0.048757, 81.3692
1, 0.00000, 123.053, -31.4951, 123.396, -151.107, 124.333, 88.5972, 0, 0, 3.17828, -54.569, 3.16945, -174.181, 3.14556, 65.5233, 0.048757, 81.3692
1, 60.00000, 123.053, -31.4951, 123.396, -151.107, 124.333, 88.5972, 0, 0, 3.17828, -54.569, 3.16945, -174.181, 3.14556, 65.5233, 0.048757, 81.3692
1, 120.00000, 123.053, -31.4951, 123.396, -151.107, 124.333, 88.5972, 0, 0, 3.17828, -54.569, 3.16945, -174.181, 3.14556, 65.5233, 0.048757, 81.3692
1, 180.00000, 123.053, -31.4951, 123.396, -151.107, 124.333, 88.5972, 0, 0, 3.17828, -54.569, 3.16945, -174.181, 3.14556, 65.5233, 0.048757, 81.3692
1, 240.00000, 123.053, -31.4951, 123.396, -151.107, 124.333, 88.5972, 0, 0, 3.17828, -54.569, 3.16945, -174.181, 3.14556, 65.5233, 0.048757, 81.3692
1, 300.00000, 123.053, -31.4951, 123.396, -151.107, 124.333, 88.5972, 0, 0, 3.17828, -54.569, 3.16945, -174.181, 3.14556, 65.5233, 0.048757, 81.3692
1, 360.00000, 123.053, -31.4951, 123.396, -151.107, 124.333, 88.5972, 0, 0, 3.17828, -54.569, 3.16945, -174.181, 3.14556, 65.5233, 0.048757, 81.3692
1, 420.00000, 123.053, -31.4951, 123.396, -151.107, 124.333, 88.5972, 0, 0, 3.17828, -54.569, 3.16945, -174.181, 3.14556, 65.5233, 0.048757, 81.3692
1, 480.00000, 123.053, -31.4951, 123.396, -151.107, 124.333, 88.5972, 0, 0, 3.17828, -54.569, 3.16945, -174.181, 3.14556, 65.5233, 0.048757, 81.3692
1, 540.00000, 123.053, -31.4951, 123.396, -151.107, 124.333, 88.5972, 0, 0, 3.17828, -54.569, 3.16945, -174.181, 3.14556, 65.5233, 0.048757, 81.3692
1, 600.00000, 123.053, -31.4951, 123.396, -151.107, 124.333, 88.5972, 0, 0, 3.17828, -54.569, 3.16945, -174.181, 3.14556, 65.5233, 0.048757, 81.3692
1, 660.00000, 123.053, -31.4951, 123.396, -151.107, 124.333, 88.5972, 0, 0, 3.17828, -54.569, 3.16945, -174.181, 3.14556, 65.5233, 0.048757, 81.3692
1, 720.00000, 123.053, -31.4951, 123.396, -151.107, 124.333, 88.5972, 0, 0, 3.17828, -54.569, 3.16945, -174.181, 3.14556, 65.5233, 0.048757, 81.3692
1, 780.00000, 123.053, -31.4951, 123.396, -151.107, 124.333, 88.5972, 0, 0, 3.17828, -54.569, 3.16945, -174.181, 3.14556, 65.5233, 0.048757, 81.3692
1, 840.00000, 123.053, -31.4951, 123.396, -151.107, 124.333, 88.5972, 0, 0, 3.17828, -54.569, 3.16945, -174.181, 3.14556, 65.5233, 0.048757, 81.3692
1, 900.00000, 123.053, -31.4951, 123.396, -151.107, 124.333, 88.5972, 0, 0, 3.17828, -54.569, 3.16945, -174.181, 3.14556, 65.5233, 0.048757, 81.3692
1, 960.00000, 123.053, -31.4951, 123.396, -151.107, 124.333, 88.5972, 0, 0, 3.17828, -54.569, 3.16945, -174.181, 3.14556, 65.5233, 0.048757, 81.3692
1, 1020.00000, 123.053, -31.4951, 123.396, -151.107, 124.333, 88.5972, 0, 0, 3.17828, -54.569, 3.16945, -174.181, 3.14556, 65.5233, 0.048757, 81.3692
1, 1080.00000, 123.053, -31.4951, 123.396, -151.107, 124.333, 88.5972, 0, 0, 3.17828, -54.569, 3.16945, -174.181, 3.14556, 65.5233, 0.048757, 81.3692
1, 1140.00000, 123.053, -31.4951, 123.396, -151.107, 124.333, 88.5972, 0, 0, 3.17828, -54.569, 3.16945, -174.181, 3.14556, 65.5233, 0.048757, 81.3692
1, 1200.00000, 123.053, -31.4951, 123.396, -151.107, 124.333, 88.5972, 0, 0, 3.17828, -54.569, 3.16945, -174.181, 3.14556, 65.5233, 0.048757, 81.3692
1, 1260.00000, 123.053, -31.4951, 123.396, -151.107, 124.333, 88.5972, 0, 0, 3.17828, -54.569, 3.16945, -174.181, 3.14556, 65.5233, 0.048757, 81.3692
1, 1320.00000, 123.053, -31.4951, 123.396, -151.107, 124.333, 88.5972, 0, 0, 3.17828, -54.569, 3.16945, -174.181, 3.14556, 65.5233, 0.048757, 81.3692
1, 1380.00000, 123.053, -31.4951, 123.396, -151.107, 124.333, 88.5972, 0, 0, 3.17828, -54.569, 3.16945, -174.181, 3.14556, 65.5233, 0.048757, 81.3692
1, 1440.00000, 123.053, -31.4951, 123.396, -151.107, 124.333, 88.5972, 0, 0, 3.17828, -54.569, 3.16945, -174.181, 3.14556, 65.5233, 0.048757, 81.3692
1, 1500.00000, 123.053, -31.4951, 123.396, -151.107, 124.333, 88.5972, 0, 0, 3.17828, -54.569, 3.16945, -174.181, 3.14556, 65.5233, 0.048757, 81.3692
1, 1560.00000, 123.053, -31.4951, 123.396, -151.107, 124.333, 88.5972, 0, 0, 3.17828, -54.569, 3.16945, -174.181, 3.14556, 65.5233, 0.048757, 81.3692
1, 1620.00000, 123.053, -31.4951, 123.396, -151.107, 124.333, 88.5972, 0, 0, 3.17828, -54.569, 3.16945, -174.181, 3.14556, 65.5233, 0.048757, 81.3692
1, 1680.00000, 123.053, -31.4951, 123.396, -151.107, 124.333, 88.5972, 0, 0, 3.17828, -54.569, 3.16945, -174.181, 3.14556, 65.5233, 0.048757, 81.3692
1, 1740.00000, 123.053, -31.4951, 123.396, -151.107, 124.333, 88.5972, 0, 0, 3.17828, -54.569, 3.16945, -174.181, 3.14556, 65.5233, 0.048757, 81.3692
1, 1800.00000, 123.053, -31.4951, 123.396, -151.107, 124.333, 88.5972, 0, 0, 3.17828, -54.569, 3.16945, -174.181, 3.14556, 65.5233, 0.048757, 81.3692
1, 1860.00000, 123.053, -31.4951, 123.396, -151.107, 124.333, 88.5972, 0, 0, 3.17828, -54.569, 3.16945, -174.181, 3.14556, 65.5233, 0.048757, 81.3692
1, 1920.00000, 123.053, -31.4951, 123.396, -151.107, 124.333, 88.5972, 0, 0, 3.17828, -54.569, 3.16945, -174.181, 3.14556, 65.5233, 0.048757, 81.3692
1, 1980.00000, 123.053, -31.4951, 123.396, -151.107, 124.333, 88.5972, 0, 0, 3.17828, -54.569, 3.16945, -174.181, 3.14556, 65.5233, 0.048757, 81.3692
1, 2040.00000, 123.053, -31.4951, 123.396, -151.107, 124.333, 88.5972, 0, 0, 3.17828, -54.569, 3.16945, -174.181, 3.14556, 65.5233, 0.048757, 81.3692
1, 2100.00000, 123.053, -31.4951, 123.396, -151.107, 124.333, 88.5972, 0, 0, 3.17828, -54.569, 3.16945, -174.181, 3.14556, 65.5233, 0.048757, 81.3692
1, 2160.00000, 123.053, -31.4951, 123.396, -151.107, 124.333, 88.5972, 0, 0, 3.17828, -54.569, 3.16945, -174.181, 3.14556, 65.5233, 0.048757, 81.3692
1, 2220.00000, 123.053, -31.4951, 123.396, -151.107, 124.333, 88.5972, 0, 0, 3.17828, -54.569, 3.16945, -174.181, 3.14556, 65.5233, 0.048757, 81.3692
1, 2280.00000, 123.053, -31.4951, 123.396, -151.107, 124.333, 88.5972, 0, 0, 3.17828, -54.569, 3.16945, -174.181, 3.14556, 65.5233, 0.048757, 81.3692
1, 2340.00000, 123.053, -31.4951, 123.396, -151.107, 124.333, 88.5972, 0, 0, 3.17828, -54.569, 3.16945, -174.181, 3.14556, 65.5233, 0.048757, 81.3692
1, 2400.00000, 123.053, -31.4951, 123.396, -151.107, 124.333, 88.5972, 0, 0, 3.17828, -54.569, 3.16945, -174.181, 3.14556, 65.5233, 0.048757, 81.3692
1, 2460.00000, 123.053, -31.4951, 123.396, -151.107, 124.333, 88.5972, 0, 0, 3.17828, -54.569, 3.16945, -174.181, 3.14556, 65.5233, 0.048757, 81.3692
1, 2520.00000, 123.053, -31.4951, 123.396, -151.107, 124.333, 88.5972, 0, 0, 3.17828, -54.569, 3.16945, -174.181, 3.14556, 65.5233, 0.048757, 81.3692
1, 2580.00000, 123.053, -31.4951, 123.396, -151.107, 124.333, 88.5972, 0, 0, 3.17828, -54.569, 3.16945, -174.181, 3.14556, 65.5233, 0.048757, 81.3692
1, 2640.00000, 123.053, -31.4951, 123.396, -151.107, 124.333, 88.5972, 0, 0, 3.17828, -54.569, 3.16945, -174.181, 3.14556, 65.5233, 0.048757, 81.3692
1, 2700.00000, 123.053, -31.4951, 123.396, -151.107, 124.333, 88.5972, 0, 0, 3.17828, -54.569, 3.16945, -174.181, 3.14556, 65.5233, 0.048757, 81.3692
1, 2760.00000, 123.053, -31.4951, 123.396, -151.107, 124.333, 88.5972, 0, 0, 3.17828, -54.569, 3.16945, -174.181, 3.14556, 65.5233, 0.048757, 81.3692
1, 2820.00000, 123.053, -31.4951, 123.396, -151.107, 124.333, 88.5972, 0, 0, 3.17828, -54.569, 3.16945, -174.181, 3.14556, 65.5233, 0.048757, 81.3692
1, 2880.00000, 123.053, -31.4951, 123.396, -151.107, 124.333, 88.5972, 0, 0, 3.17828, -54.569, 3.16945, -174.181, 3.14556, 65.5233, 0.048757, 81.3692
1, 2940.00000, 123.053, -31.4951, 123.396, -151.107, 124.333, 88.5972, 0, 0, 3.17828, -54.569, 3.16945, -174.181, 3.14556, 65.5233, 0.048757, 81.3692
1, 3000.00000, 123.053, -31.4951, 123.396, -151.107, 124.333, 88.5972, 0, 0, 3.17828, -54.569, 3.16945, -174.181, 3.14556, 65.5233, 0.048757, 81.3692
1, 3060.00000, 123.053, -31.4951, 123.396, -151.107, 124.333, 88.5972, 0, 0, 3.17828, -54.569, 3.16945, -174.181, 3.14556, 65.5233, 0.048757, 81.3692
1, 3120.00000, 123.053, -31.4951, 123.396, -151.107, 124.333, 88.5972, 0, 0, 3.17828, -54.569, 3.16945, -174.181, 3.14556, 65.5233, 0.048757, 81.3692
1, 3180.00000, 123.053, -31.4951, 123.396, -151.107, 124.333, 88.5972, 0, 0, 3.17828, -54.569, 3.16945, -174.181, 3.14556, 65.5233, 0.048757, 81.3692
1, 3240.00000, 123.053, -31.4951, 123.396, -151.107, 124.333, 88.5972, 0, 0, 3.17828, -54.569, 3.16945, -174.181, 3.14556, 65.5233, 0.048757, 81.3692
1, 3300.00000, 123.053, -31.4951, 123.396, -151.107, 124.333, 88.5972, 0, 0, 3.17828, -54.569, 3.16945, -174.181, 3.14556, 65.5233, 0.048757, 81.3692
1, 3360.00000, 123.053, -31.4951, 123.396, -151.107, 124.333, 88.5972, 0, 0, 3.17828, -54.569, 3.16945, -174.181, 3.14556, 65.5233, 0.048757, 81.3692
1, 3420.00000, 123.053, -31.4951, 123.396, -151.107, 124.333, 88.5972, 0, 0, 3.17828, -54.569, 3.16945, -174.181, 3.14556, 65.5233, 0.048757, 81.3692
1, 3480.00000, 123.053, -31.4951, 123.396, -151.107, 124.333, 88.5972, 0, 0, 3.17828, -54.569, 3.16945, -174.181, 3.14556, 65.5233, 0.048757, 81.3692
1, 3540.00000, 123.053, -31.4951, 123.396, -151.107, 124.333, 88.5972, 0, 0, 3.17828, -54.569, 3.16945, -174.181, 3.14556, 65.5233, 0.048757, 81.3692
2, 0.00000, 123.053, -31.4951, 123.396, -151.107, 124.333, 88.5972, 0, 0, 3.17828, -54.569, 3.16945, -174.181, 3.14556, 65.5233, 0.048757, 81.3692
2, 60.00000, 123.053, -31.4951, 123.396, -151.107, 124.333, 88.5972, 0, 0, 3.17828, -54.569, 3.16945, -174.181, 3.14556, 65.5233, 0.048757, 81.3692
2, 120.00000, 123.053, -31.4951, 123.396, -151.107, 124.333, 88.5972, 0, 0, 3.17828, -54.569, 3.16945, -174.181, 3.14556, 65.5233, 0.048757, 81.3692
2, 180.00000, 123.053, -31.4951, 123.396, -151.107, 124.333, 88.5972, 0, 0, 3.17828, -54.569, 3.16945, -174.181, 3.14556, 65.5233, 0.048757, 81.3692
2, 240.00000, 123.053, -31.4951, 123.396, -151.107, 124.333, 88.5972, 0, 0, 3.17828, -54.569, 3.16945, -174.181, 3.14556, 65.5233, 0.048757, 81.3692
2, 300.00000, 123.053, -31.4951, 123.396, -151.107, 124.333, 88.5972, 0, 0, 3.17828, -54.569, 3.16945, -174.181, 3.14556, 65.5233, 0.048757, 81.3692
2, 360.00000, 123.053, -31.4951, 123.396, -151.107, 124.333, 88.5972, 0, 0, 3.17828, -54.569, 3.16945, -174.181, 3.14556, 65.5233, 0.048757, 81.3692
2, 420.00000, 123.053, -31.4951, 123.396, -151.107, 124.333, 88.5972, 0, 0, 3.17828, -54.569, 3.16945, -174.181, 3.14556, 65.5233, 0.048757, 81.3692
2, 480.00000, 123.053, -31.4951, 123.396, -151.107, 124.333, 88.5972, 0, 0, 3.17828, -54.569, 3.16945, -174.181, 3.14556, 65.5233, 0.048757, 81.3692
2, 540.00000, 123.053, -31.4951, 123.396, -151.107, 124.333, 88.5972, 0, 0, 3.17828, -54.569, 3.16945, -174.181, 3.14556, 65.5233, 0.048757, 81.3692
2, 600.00000, 123.053, -31.4951, 123.396, -151.107, 124.333, 88.5972, 0, 0, 3.17828, -54.569, 3.16945, -174.181, 3.14556, 65.5233, 0.048757, 81.3692
2, 660.00000, 123.053, -31.4951, 123.396, -151.107, 124.333, 88.5972, 0, 0, 3.17828, -54.569, 3.16945, -174.181, 3.14556, 65.5233, 0.048757, 81.3692
2, 720.00000, 123.053, -31.4951, 123.396, -151.107, 124.333, 88.5972, 0, 0, 3.17828, -54.569, 3.16945, -174.181, 3.14556, 65.5233, 0.048757, 81.3692
