hour,t(sec),V1,VAngle1,V2,VAngle2,V3,VAngle3,V4,VAngle4,I1,IAngle1,I2,IAngle2,I3,IAngle3,I4,IAngle4
0, 60.00000, 119.142, -31.375, 123.439, -151.249, 121.75, 87.1425, 0, 0, 11.904, -54.4487, 11.8021, -174.322, 11.9655, 64.0686, 0.419804, 167.357
0, 120.00000, 119.142, -31.3753, 123.458, -151.25, 121.756, 87.1359, 0, 0, 11.904, -54.449, 11.8003, -174.323, 11.9649, 64.062, 0.422582, 167.338
0, 180.00000, 119.141, -31.3756, 123.474, -151.251, 121.761, 87.1299, 0, 0, 11.904, -54.4493, 11.7987, -174.324, 11.9644, 64.056, 0.425082, 167.321
0, 240.00000, 119.141, -31.3758, 123.489, -151.251, 121.766, 87.1245, 0, 0, 11.9039, -54.4496, 11.7972, -174.325, 11.9639, 64.0506, 0.427333, 167.307
0, 300.00000, 119.141, -31.3761, 123.503, -151.252, 121.77, 87.1197, 0, 0, 11.9039, -54.4499, 11.7959, -174.326, 11.9635, 64.0458, 0.429362, 167.295
0, 360.00000, 119.141, -31.3763, 123.515, -151.253, 121.774, 87.1153, 0, 0, 11.9039, -54.4501, 11.7948, -174.326, 11.9632, 64.0414, 0.431194, 167.284
0, 420.00000, 119.141, -31.3765, 123.526, -151.253, 121.777, 87.1114, 0, 0, 11.9039, -54.4503, 11.7937, -174.327, 11.9629, 64.0375, 0.432847, 167.274
0, 480.00000, 119.897, -31.2768, 124.36, -151.141, 122.541, 87.2267, 0, 0, 10.4294, -54.3506, 10.1917, -174.215, 10.3429, 64.1528, 0.488174, 156.576
0, 540.00000, 119.897, -31.2769, 124.37, -151.141, 122.543, 87.2235, 0, 0, 10.4294, -54.3508, 10.1909, -174.215, 10.3426, 64.1496, 0.489347, 156.596
0, 600.00000, 119.897, -31.2771, 124.378, -151.142, 122.546, 87.2206, 0, 0, 10.4294, -54.3509, 10.1902, -174.216, 10.3424, 64.1467, 0.490399, 156.614
0, 660.00000, 119.897, -31.2772, 124.385, -151.142, 122.548, 87.218, 0, 0, 10.4294, -54.3511, 10.1896, -174.216, 10.3423, 64.1441, 0.491346, 156.63
0, 720.00000, 119.897, -31.2773, 124.392, -151.142, 122.55, 87.2156, 0, 0, 10.4293, -54.3512, 10.189, -174.216, 10.3421, 64.1417, 0.492198, 156.645
0, 780.00000, 119.897, -31.2775, 124.398, -151.143, 122.552, 87.2135, 0, 0, 10.4293, -54.3513, 10.1885, -174.217, 10.3419, 64.1396, 0.492965, 156.658
0, 840.00000, 119.897, -31.2776, 124.403, -151.143, 122.553, 87.2116, 0, 0, 10.4293, -54.3514, 10.1881, -174.217, 10.3418, 64.1377, 0.493656, 156.67
0, 900.00000, 119.896, -31.2776, 124.408, -151.143, 122.555, 87.2099, 0, 0, 10.4293, -54.3515, 10.1877, -174.217, 10.3417, 64.136, 0.494277, 156.681
0, 960.00000, 119.893, -31.2731, 124.18, -151.29, 122.188, 87.1956, 0, 0, 10.4289, -54.347, 10.2064, -174.364, 10.3728, 64.1217, 0.47149, 162.237
0, 1020.00000, 119.892, -31.2732, 124.184, -151.291, 122.189, 87.1943, 0, 0, 10.4289, -54.347, 10.2061, -174.364, 10.3727, 64.1203, 0.471984, 162.24
0, 1080.00000, 119.892, -31.2732, 124.187, -151.291, 122.19, 87.193, 0, 0, 10.4289, -54.3471, 10.2058, -174.365, 10.3726, 64.1191, 0.472431, 162.242
0, 1140.00000, 119.892, -31.2733, 124.19, -151.291, 122.191, 87.1919, 0, 0, 10.4289, -54.3472, 10.2055, -174.365, 10.3725, 64.118, 0.472834, 162.245
0, 1200.00000, 119.892, -31.2733, 124.193, -151.291, 122.192, 87.1909, 0, 0, 10.4289, -54.3472, 10.2053, -174.365, 10.3724, 64.117, 0.473197, 162.247
0, 1260.00000, 119.892, -31.2734, 124.196, -151.291, 122.192, 87.19, 0, 0, 10.4289, -54.3473, 10.2051, -174.365, 10.3724, 64.1161, 0.473524, 162.249
0, 1320.00000, 119.892, -31.2734, 124.198, -151.291, 122.193, 87.1892, 0, 0, 10.4289, -54.3473, 10.2049, -174.365, 10.3723, 64.1153, 0.473819, 162.251
0, 1380.00000, 119.892, -31.2734, 124.2, -151.291, 122.194, 87.1885, 0, 0, 10.4289, -54.3473, 10.2047, -174.365, 10.3723, 64.1146, 0.474084, 162.253
0, 1440.00000, 119.892, -31.2735, 124.202, -151.291, 122.194, 87.1878, 0, 0, 10.4289, -54.3474, 10.2046, -174.365, 10.3722, 64.1139, 0.474322, 162.254
0, 1500.00000, 119.892, -31.2735, 124.204, -151.292, 122.195, 87.1872, 0, 0, 10.4289, -54.3474, 10.2044, -174.365, 10.3722, 64.1133, 0.474537, 162.255
0, 1560.00000, 119.892, -31.2735, 124.205, -151.292, 122.195, 87.1867, 0, 0, 10.4289, -54.3474, 10.2043, -174.366, 10.3722, 64.1128, 0.47473, 162.256
0, 1620.00000, 119.892, -31.2736, 124.206, -151.292, 122.195, 87.1862, 0, 0, 10.4289, -54.3475, 10.2042, -174.366, 10.3721, 64.1123, 0.474904, 162.258
0, 1680.00000, 119.892, -31.2736, 124.208, -151.292, 122.196, 87.1858, 0, 0, 10.4289, -54.3475, 10.2041, -174.366, 10.3721, 64.1119, 0.47506, 162.259
0, 1740.00000, 119.892, -31.2736, 124.209, -151.292, 122.196, 87.1854, 0, 0, 10.4289, -54.3475, 10.204, -174.366, 10.3721, 64.1115, 0.475201, 162.259
0, 1800.00000, 119.784, -31.4063, 123.839, -151.319, 122.211, 87.1838, 0, 0, 10.4185, -54.4802, 10.2344, -174.393, 10.3708, 64.1099, 0.423222, 159.279
0, 1860.00000, 119.784, -31.4063, 123.84, -151.319, 122.211, 87.1835, 0, 0, 10.4185, -54.4802, 10.2344, -174.393, 10.3708, 64.1096, 0.423332, 159.28
0, 1920.00000, 119.784, -31.4063, 123.841, -151.319, 122.211, 87.1833, 0, 0, 10.4185, -54.4802, 10.2343, -174.393, 10.3708, 64.1093, 0.423432, 159.282
0, 1980.00000, 119.784, -31.4063, 123.842, -151.319, 122.212, 87.183, 0, 0, 10.4185, -54.4802, 10.2343, -174.393, 10.3707, 64.1091, 0.423522, 159.283
0, 2040.00000, 119.784, -31.4063, 123.842, -151.319, 122.212, 87.1828, 0, 0, 10.4185, -54.4803, 10.2342, -174.393, 10.3707, 64.1089, 0.423603, 159.284
0, 2100.00000, 119.784, -31.4064, 123.843, -151.319, 122.212, 87.1826, 0, 0, 10.4185, -54.4803, 10.2342, -174.393, 10.3707, 64.1087, 0.423676, 159.285
0, 2160.00000, 119.784, -31.4064, 123.843, -151.319, 122.212, 87.1824, 0, 0, 10.4185, -54.4803, 10.2341, -174.393, 10.3707, 64.1085, 0.423742, 159.286
0, 2220.00000, 119.784, -31.4064, 123.844, -151.319, 122.212, 87.1822, 0, 0, 10.4185, -54.4803, 10.2341, -174.393, 10.3707, 64.1083, 0.423801, 159.286
0, 2280.00000, 119.784, -31.4064, 123.844, -151.319, 122.212, 87.1821, 0, 0, 10.4185, -54.4803, 10.234, -174.393, 10.3707, 64.1081, 0.423854, 159.287
0, 2340.00000, 119.784, -31.4064, 123.844, -151.319, 122.212, 87.1819, 0, 0, 10.4184, -54.4803, 10.234, -174.393, 10.3707, 64.108, 0.423902, 159.288
0, 2400.00000, 119.784, -31.4064, 123.845, -151.32, 122.213, 87.1818, 0, 0, 10.4184, -54.4803, 10.234, -174.393, 10.3707, 64.1079, 0.423945, 159.288
0, 2460.00000, 119.784, -31.4064, 123.845, -151.32, 122.213, 87.1817, 0, 0, 10.4184, -54.4803, 10.234, -174.393, 10.3707, 64.1078, 0.423984, 159.289
0, 2520.00000, 119.784, -31.4064, 123.845, -151.32, 122.213, 87.1816, 0, 0, 10.4184, -54.4803, 10.2339, -174.393, 10.3707, 64.1077, 0.424019, 159.289
0, 2580.00000, 119.784, -31.4064, 123.846, -151.32, 122.213, 87.1815, 0, 0, 10.4184, -54.4803, 10.2339, -174.393, 10.3706, 64.1076, 0.42405, 159.29
0, 2640.00000, 119.784, -31.4064, 123.846, -151.32, 122.213, 87.1814, 0, 0, 10.4184, -54.4803, 10.2339, -174.393, 10.3706, 64.1075, 0.424079, 159.29
0, 2700.00000, 119.784, -31.4064, 123.846, -151.32, 122.213, 87.1814, 0, 0, 10.4184, -54.4803, 10.2339, -174.393, 10.3706, 64.1074, 0.424104, 159.29
0, 2760.00000, 120.556, -31.4686, 123.842, -151.321, 122.738, 87.4642, 0, 0, 10.493, -54.5426, 10.2342, -174.395, 10.3263, 64.3902, 0.4341, 147.257
0, 2820.00000, 120.556, -31.4686, 123.842, -151.321, 122.738, 87.4641, 0, 0, 10.493, -54.5426, 10.2342, -174.395, 10.3263, 64.3902, 0.43412, 147.257
0, 2880.00000, 120.556, -31.4687, 123.843, -151.321, 122.738, 87.464, 0, 0, 10.493, -54.5426, 10.2342, -174.395, 10.3263, 64.3901, 0.434138, 147.258
0, 2940.00000, 120.556, -31.4687, 123.843, -151.321, 122.738, 87.464, 0, 0, 10.493, -54.5426, 10.2342, -174.395, 10.3263, 64.3901, 0.434154, 147.259
0, 3000.00000, 120.556, -31.4687, 123.843, -151.321, 122.738, 87.464, 0, 0, 10.493, -54.5426, 10.2341, -174.395, 10.3263, 64.39, 0.434168, 147.259
0, 3060.00000, 120.556, -31.4687, 123.843, -151.321, 122.738, 87.4639, 0, 0, 10.493, -54.5426, 10.2341, -174.395, 10.3263, 64.39, 0.434181, 147.26
0, 3120.00000, 120.556, -31.4687, 123.843, -151.321, 122.738, 87.4639, 0, 0, 10.493, -54.5426, 10.2341, -174.395, 10.3263, 64.39, 0.434193, 147.26
0, 3180.00000, 120.556, -31.4687, 123.843, -151.321, 122.738, 87.4639, 0, 0, 10.493, -54.5426, 10.2341, -174.395, 10.3263, 64.3899, 0.434203, 147.261
0, 3240.00000, 120.556, -31.4687, 123.843, -151.321, 122.738, 87.4638, 0, 0, 10.493, -54.5426, 10.2341, -174.395, 10.3263, 64.3899, 0.434213, 147.261
0, 3300.00000, 120.556, -31.4687, 123.843, -151.321, 122.738, 87.4638, 0, 0, 10.493, -54.5426, 10.2341, -174.395, 10.3263, 64.3899, 0.434221, 147.262
0, 3360.00000, 120.556, -31.4687, 123.843, -151.321, 122.738, 87.4638, 0, 0, 10.493, -54.5426, 10.2341, -174.395, 10.3263, 64.3899, 0.434229, 147.262
0, 3420.00000, 120.556, -31.4687, 123.843, -151.321, 122.738, 87.4638, 0, 0, 10.493, -54.5426, 10.2341, -174.395, 10.3263, 64.3898, 0.434236, 147.262
0, 3480.00000, 120.556, -31.4687, 123.843, -151.321, 122.738, 87.4637, 0, 0, 10.493, -54.5426, 10.2341, -174.395, 10.3263, 64.3898, 0.434242, 147.262
0, 3540.00000, 120.556, -31.4687, 123.843, -151.321, 122.738, 87.4637, 0, 0, 10.493, -54.5426, 10.2341, -174.395, 10.3263, 64.3898, 0.434247, 147.263
1, 0.00000, 120.556, -31.4687, 123.843, -151.321, 122.738, 87.4637, 0, 0, 10.493, -54.5426, 10.2341, -174.395, 10.3263, 64.3898, 0.434252, 147.263
1, 60.00000, 121.04, -31.4698, 123.837, -151.319, 122.988, 87.6453, 0, 0, 10.4711, -54.5437, 10.2347, -174.393, 10.3053, 64.5713, 0.384254, 144.643
1, 120.00000, 121.04, -31.4698, 123.837, -151.319, 122.988, 87.6452, 0, 0, 10.4711, -54.5437, 10.2347, -174.393, 10.3053, 64.5713, 0.384258, 144.643
1, 180.00000, 121.04, -31.4698, 123.837, -151.319, 122.988, 87.6452, 0, 0, 10.4711, -54.5437, 10.2346, -174.393, 10.3053, 64.5713, 0.384261, 144.643
1, 240.00000, 121.04, -31.4698, 123.837, -151.319, 122.988, 87.6452, 0, 0, 10.4711, -54.5437, 10.2346, -174.393, 10.3053, 64.5713, 0.384265, 144.643
1, 300.00000, 121.04, -31.4698, 123.837, -151.319, 122.988, 87.6452, 0, 0, 10.4711, -54.5437, 10.2346, -174.393, 10.3053, 64.5713, 0.384268, 144.643
1, 360.00000, 121.04, -31.4698, 123.837, -151.319, 122.988, 87.6452, 0, 0, 10.4711, -54.5437, 10.2346, -174.393, 10.3053, 64.5713, 0.38427, 144.644
1, 420.00000, 121.04, -31.4698, 123.837, -151.319, 122.988, 87.6452, 0, 0, 10.4711, -54.5437, 10.2346, -174.393, 10.3053, 64.5713, 0.384273, 144.644
1, 480.00000, 121.04, -31.4698, 123.837, -151.319, 122.988, 87.6452, 0, 0, 10.4711, -54.5437, 10.2346, -174.393, 10.3053, 64.5713, 0.384275, 144.644
1, 540.00000, 121.04, -31.4698, 123.837, -151.319, 122.988, 87.6452, 0, 0, 10.4711, -54.5437, 10.2346, -174.393, 10.3053, 64.5713, 0.384277, 144.644
1, 600.00000, 121.04, -31.4698, 123.837, -151.319, 122.988, 87.6452, 0, 0, 10.4711, -54.5437, 10.2346, -174.393, 10.3053, 64.5713, 0.384279, 144.644
1, 660.00000, 121.04, -31.4698, 123.837, -151.319, 122.988, 87.6452, 0, 0, 10.4711, -54.5437, 10.2346, -174.393, 10.3053, 64.5713, 0.38428, 144.644
1, 720.00000, 121.04, -31.4698, 123.837, -151.319, 122.988, 87.6452, 0, 0, 10.4711, -54.5437, 10.2346, -174.393, 10.3053, 64.5713, 0.384282, 144.644
1, 780.00000, 121.335, -31.4411, 123.833, -151.316, 123.089, 87.769, 0, 0, 10.4456, -54.515, 10.235, -174.39, 10.2968, 64.6951, 0.341635, 144.709
1, 840.00000, 121.335, -31.4411, 123.833, -151.316, 123.089, 87.769, 0, 0, 10.4456, -54.515, 10.235, -174.39, 10.2968, 64.6951, 0.341636, 144.709
1, 900.00000, 121.335, -31.4411, 123.833, -151.316, 123.089, 87.769, 0, 0, 10.4456, -54.515, 10.235, -174.39, 10.2968, 64.6951, 0.341637, 144.71
1, 960.00000, 121.335, -31.4411, 123.833, -151.316, 123.089, 87.769, 0, 0, 10.4456, -54.515, 10.235, -174.39, 10.2968, 64.6951, 0.341638, 144.71
1, 1020.00000, 121.335, -31.4411, 123.833, -151.316, 123.089, 87.769, 0, 0, 10.4456, -54.515, 10.235, -174.39, 10.2968, 64.6951, 0.341639, 144.71
1, 1080.00000, 121.335, -31.4411, 123.833, -151.316, 123.089, 87.769, 0, 0, 10.4456, -54.515, 10.235, -174.39, 10.2968, 64.6951, 0.341639, 144.71
1, 1140.00000, 121.335, -31.4411, 123.833, -151.316, 123.089, 87.769, 0, 0, 10.4456, -54.515, 10.235, -174.39, 10.2968, 64.6951, 0.34164, 144.71
1, 1200.00000, 121.335, -31.4411, 123.833, -151.316, 123.089, 87.769, 0, 0, 10.4456, -54.515, 10.235, -174.39, 10.2968, 64.6951, 0.341641, 144.71
1, 1260.00000, 121.335, -31.4411, 123.833, -151.316, 123.089, 87.769, 0, 0, 10.4456, -54.515, 10.235, -174.39, 10.2968, 64.6951, 0.341641, 144.71
1, 1320.00000, 121.335, -31.4411, 123.833, -151.316, 123.089, 87.769, 0, 0, 10.4456, -54.515, 10.235, -174.39, 10.2968, 64.6951, 0.341642, 144.71
1, 1380.00000, 121.335, -31.4411, 123.833, -151.316, 123.089, 87.769, 0, 0, 10.4456, -54.515, 10.235, -174.39, 10.2968, 64.6951, 0.341642, 144.71
1, 1440.00000, 121.335, -31.4411, 123.833, -151.316, 123.089, 87.769, 0, 0, 10.4456, -54.515, 10.235, -174.39, 10.2968, 64.6951, 0.341643, 144.71
1, 1500.00000, 121.335, -31.4411, 123.833, -151.316, 123.089, 87.769, 0, 0, 10.4456, -54.515, 10.235, -174.39, 10.2968, 64.6951, 0.341643, 144.71
1, 1560.00000, 121.335, -31.4411, 123.833, -151.316, 123.089, 87.769, 0, 0, 10.4456, -54.515, 10.235, -174.39, 10.2968, 64.6951, 0.341643, 144.71
1, 1620.00000, 121.335, -31.4411, 123.833, -151.316, 123.089, 87.769, 0, 0, 10.4456, -54.515, 10.235, -174.39, 10.2968, 64.6951, 0.341644, 144.71
1, 1680.00000, 121.335, -31.4411, 123.833, -151.316, 123.089, 87.769, 0, 0, 10.4456, -54.515, 10.235, -174.39, 10.2968, 64.6951, 0.341644, 144.71
1, 1740.00000, 121.335, -31.4411, 123.833, -151.316, 123.089, 87.769, 0, 0, 10.4456, -54.515, 10.235, -174.39, 10.2968, 64.6951, 0.341644, 144.71
1, 1800.00000, 121.335, -31.4411, 123.833, -151.316, 123.089, 87.769, 0, 0, 10.4456, -54.515, 10.235, -174.39, 10.2968, 64.6951, 0.341644, 144.71
1, 1860.00000, 121.335, -31.4411, 123.833, -151.316, 123.089, 87.769, 0, 0, 10.4456, -54.515, 10.235, -174.39, 10.2968, 64.6951, 0.341645, 144.71
1, 1920.00000, 121.335, -31.4411, 123.833, -151.316, 123.089, 87.769, 0, 0, 10.4456, -54.515, 10.235, -174.39, 10.2968, 64.6951, 0.341645, 144.71
1, 1980.00000, 121.335, -31.4411, 123.833, -151.316, 123.089, 87.769, 0, 0, 10.4456, -54.515, 10.235, -174.39, 10.2968, 64.6951, 0.341645, 144.71
1, 2040.00000, 121.335, -31.4411, 123.833, -151.316, 123.089, 87.769, 0, 0, 10.4456, -54.515, 10.235, -174.39, 10.2968, 64.6951, 0.341645, 144.71
1, 2100.00000, 121.335, -31.4411, 123.833, -151.316, 123.089, 87.769, 0, 0, 10.4456, -54.515, 10.235, -174.39, 10.2968, 64.6951, 0.341645, 144.71
1, 2160.00000, 121.335, -31.4411, 123.833, -151.316, 123.089, 87.769, 0, 0, 10.4456, -54.515, 10.235, -174.39, 10.2968, 64.6951, 0.341645, 144.71
1, 2220.00000, 121.452, -31.3083, 124.202, -151.288, 123.072, 87.7703, 0, 0, 10.4356, -54.3823, 10.2046, -174.362, 10.2982, 64.6963, 0.368429, 151.526
1, 2280.00000, 121.452, -31.3083, 124.202, -151.288, 123.072, 87.7703, 0, 0, 10.4356, -54.3823, 10.2046, -174.362, 10.2982, 64.6963, 0.368432, 151.526
1, 2340.00000, 121.452, -31.3083, 124.202, -151.288, 123.072, 87.7703, 0, 0, 10.4356, -54.3823, 10.2046, -174.362, 10.2982, 64.6963, 0.368432, 151.526
1, 2400.00000, 121.452, -31.3083, 124.202, -151.288, 123.072, 87.7703, 0, 0, 10.4356, -54.3823, 10.2046, -174.362, 10.2982, 64.6963, 0.368432, 151.526
1, 2460.00000, 121.452, -31.3083, 124.202, -151.288, 123.072, 87.7703, 0, 0, 10.4356, -54.3823, 10.2046, -174.362, 10.2982, 64.6963, 0.368432, 151.526
1, 2520.00000, 121.452, -31.3083, 124.202, -151.288, 123.072, 87.7703, 0, 0, 10.4356, -54.3823, 10.2046, -174.362, 10.2982, 64.6963, 0.368432, 151.526
1, 2580.00000, 121.452, -31.3083, 124.202, -151.288, 123.072, 87.7703, 0, 0, 10.4356, -54.3823, 10.2046, -174.362, 10.2982, 64.6963, 0.368432, 151.526
1, 2640.00000, 121.452, -31.3083, 124.202, -151.288, 123.072, 87.7703, 0, 0, 10.4356, -54.3823, 10.2046, -174.362, 10.2982, 64.6963, 0.368432, 151.526
1, 2700.00000, 121.452, -31.3083, 124.202, -151.288, 123.072, 87.7703, 0, 0, 10.4356, -54.3823, 10.2046, -174.362, 10.2982, 64.6963, 0.368432, 151.526
1, 2760.00000, 121.452, -31.3083, 124.202, -151.288, 123.072, 87.7703, 0, 0, 10.4356, -54.3823, 10.2046, -174.362, 10.2982, 64.6963, 0.368432, 151.526
1, 2820.00000, 121.452, -31.3083, 124.202, -151.288, 123.072, 87.7703, 0, 0, 10.4356, -54.3823, 10.2046, -174.362, 10.2982, 64.6963, 0.368432, 151.526
1, 2880.00000, 121.452, -31.3083, 124.202, -151.288, 123.072, 87.7703, 0, 0, 10.4356, -54.3823, 10.2046, -174.362, 10.2982, 64.6963, 0.368432, 151.526
1, 2940.00000, 121.452, -31.3083, 124.202, -151.288, 123.072, 87.7703, 0, 0, 10.4356, -54.3823, 10.2046, -174.362, 10.2982, 64.6963, 0.368432, 151.526
1, 3000.00000, 121.452, -31.3083, 124.202, -151.288, 123.072, 87.7703, 0, 0, 10.4356, -54.3823, 10.2046, -174.362, 10.2982, 64.6963, 0.368432, 151.526
1, 3060.00000, 121.452, -31.3083, 124.202, -151.288, 123.072, 87.7703, 0, 0, 10.4356, -54.3823, 10.2046, -174.362, 10.2982, 64.6963, 0.368432, 151.526
1, 3120.00000, 121.452, -31.3083, 124.202, -151.288, 123.072, 87.7703, 0, 0, 10.4356, -54.3823, 10.2046, -174.362, 10.2982, 64.6963, 0.368432, 151.526
1, 3180.00000, 121.452, -31.3083, 124.202, -151.288, 123.072, 87.7703, 0, 0, 10.4356, -54.3823, 10.2046, -174.362, 10.2982, 64.6963, 0.368432, 151.526
1, 3240.00000, 121.452, -31.3083, 124.202, -151.288, 123.072, 87.7703, 0, 0, 10.4356, -54.3823, 10.2046, -174.362, 10.2982, 64.6963, 0.368432, 151.526
1, 3300.00000, 121.452, -31.3083, 124.202, -151.288, 123.072, 87.7703, 0, 0, 10.4356, -54.3823, 10.2046, -174.362, 10.2982, 64.6963, 0.368432, 151.526
1, 3360.00000, 121.452, -31.3083, 124.202, -151.288, 123.072, 87.7703, 0, 0, 10.4356, -54.3823, 10.2046, -174.362, 10.2982, 64.6963, 0.368432, 151.526
1, 3420.00000, 121.452, -31.3083, 124.202, -151.288, 123.072, 87.7703, 0, 0, 10.4356, -54.3823, 10.2046, -174.362, 10.2982, 64.6963, 0.368432, 151.526
1, 3480.00000, 121.452, -31.3083, 124.202, -151.288, 123.072, 87.7703, 0, 0, 10.4356, -54.3823, 10.2046, -174.362, 10.2982, 64.6963, 0.368432, 151.526
1, 3540.00000, 121.452, -31.3083, 124.202, -151.288, 123.072, 87.7703, 0, 0, 10.4356, -54.3823, 10.2046, -174.362, 10.2982, 64.6963, 0.368432, 151.526
2, 0.00000, 121.452, -31.3083, 124.202, -151.288, 123.072, 87.7703, 0, 0, 10.4356, -54.3823, 10.2046, -174.362, 10.2982, 64.6963, 0.368432, 151.526
2, 60.00000, 121.452, -31.3083, 124.202, -151.288, 123.072, 87.7703, 0, 0, 10.4356, -54.3823, 10.2046, -174.362, 10.2982, 64.6963, 0.368432, 151.526
2, 120.00000, 121.452, -31.3083, 124.202, -151.288, 123.072, 87.7703, 0, 0, 10.4356, -54.3823, 10.2046, -174.362, 10.2982, 64.6963, 0.368432, 151.526
2, 180.00000, 121.452, -31.3083, 124.202, -151.288, 123.072, 87.7703, 0, 0, 10.4356, -54.3823, 10.2046, -174.362, 10.2982, 64.6963, 0.368432, 151.526
2, 240.00000, 121.452, -31.3083, 124.202, -151.288, 123.072, 87.7703, 0, 0, 10.4356, -54.3823, 10.2046, -174.362, 10.2982, 64.6963, 0.368432, 151.526
2, 300.00000, 121.452, -31.3083, 124.202, -151.288, 123.072, 87.7703, 0, 0, 10.4356, -54.3823, 10.2046, -174.362, 10.2982, 64.6963, 0.368432, 151.526
2, 360.00000, 121.452, -31.3083, 124.202, -151.288, 123.072, 87.7703, 0, 0, 10.4356, -54.3823, 10.2046, -174.362, 10.2982, 64.6963, 0.368432, 151.526
2, 420.00000, 121.452, -31.3083, 124.202, -151.288, 123.072, 87.7703, 0, 0, 10.4356, -54.3823, 10.2046, -174.362, 10.2982, 64.6963, 0.368432, 151.526
2, 480.00000, 121.452, -31.3083, 124.202, -151.288, 123.072, 87.7703, 0, 0, 10.4356, -54.3823, 10.2046, -174.362, 10.2982, 64.6963, 0.368432, 151.526
2, 540.00000, 121.452, -31.3083, 124.202, -151.288, 123.072, 87.7703, 0, 0, 10.4356, -54.3823, 10.2046, -174.362, 10.2982, 64.6963, 0.368432, 151.526
2, 600.00000, 121.452, -31.3083, 124.202, -151.288, 123.072, 87.7703, 0, 0, 10.4356, -54.3823, 10.2046, -174.362, 10.2982, 64.6963, 0.368432, 151.526
2, 660.00000, 121.452, -31.3083, 124.202, -151.288, 123.072, 87.7703, 0, 0, 10.4356, -54.3823, 10.2046, -174.362, 10.2982, 64.6963, 0.368432, 151.526
2, 720.00000, 121.452, -31.3083, 124.202, -151.288, 123.072, 87.7703, 0, 0, 10.4356, -54.3823, 10.2046, -174.362, 10.2982, 64.6963, 0.368432, 151.526
2, 780.00000, 121.452, -31.3083, 124.202, -151.288, 123.072, 87.7703, 0, 0, 10.4356, -54.3823, 10.2046, -174.362, 10.2982, 64.6963, 0.368432, 151.526
