hour,t(sec),"P1 (kW)","Q1 (kvar)","P2 (kW)","Q2 (kvar)","P3 (kW)","Q3 (kvar)","P4 (kW)","Q4 (kvar)"
0, 60.00000, 0.908938, 0.387196, 0.879172, 0.37453, 0.908897, 0.387178, 0, 0
0, 120.00000, 0.908934, 0.387195, 0.879168, 0.374527, 0.908897, 0.38718, 0, 0
0, 180.00000, 0.908933, 0.387195, 0.879163, 0.374525, 0.908898, 0.38718, 0, 0
0, 240.00000, 0.908929, 0.387195, 0.879156, 0.374522, 0.908898, 0.387181, 0, 0
0, 300.00000, 0.908926, 0.387194, 0.87915, 0.374519, 0.908897, 0.387181, 0, 0
0, 360.00000, 0.908923, 0.387193, 0.879144, 0.374516, 0.908897, 0.387182, 0, 0
0, 420.00000, 0.90892, 0.387193, 0.879138, 0.374513, 0.908897, 0.387183, 0, 0
0, 480.00000, 0.908918, 0.387192, 0.879133, 0.374511, 0.908897, 0.387183, 0, 0
0, 540.00000, 0.908916, 0.387192, 0.879128, 0.374509, 0.908897, 0.387184, 0, 0
0, 600.00000, 0.908914, 0.387191, 0.879123, 0.374506, 0.908897, 0.387184, 0, 0
0, 660.00000, 0.908912, 0.387191, 0.879119, 0.374504, 0.908897, 0.387185, 0, 0
0, 720.00000, 0.908911, 0.387191, 0.879115, 0.374503, 0.908897, 0.387185, 0, 0
0, 780.00000, 0.908909, 0.38719, 0.879111, 0.374501, 0.908897, 0.387185, 0, 0
0, 840.00000, 0.908908, 0.38719, 0.879108, 0.374499, 0.908897, 0.387186, 0, 0
0, 900.00000, 0.908907, 0.38719, 0.879105, 0.374498, 0.908897, 0.387186, 0, 0
0, 960.00000, 0.961504, 0.409596, 0.925101, 0.394092, 0.955282, 0.406946, 0, 0
0, 1020.00000, 0.961503, 0.409596, 0.925099, 0.394091, 0.955281, 0.406946, 0, 0
0, 1080.00000, 0.961503, 0.409596, 0.925097, 0.39409, 0.955281, 0.406946, 0, 0
0, 1140.00000, 0.961502, 0.409596, 0.925096, 0.39409, 0.95528, 0.406946, 0, 0
0, 1200.00000, 0.961501, 0.409596, 0.925094, 0.394089, 0.955279, 0.406946, 0, 0
0, 1260.00000, 0.961501, 0.409596, 0.925092, 0.394088, 0.955279, 0.406946, 0, 0
0, 1320.00000, 0.9615, 0.409596, 0.925091, 0.394088, 0.955278, 0.406946, 0, 0
0, 1380.00000, 0.9615, 0.409596, 0.92509, 0.394087, 0.955278, 0.406946, 0, 0
0, 1440.00000, 0.961499, 0.409596, 0.925089, 0.394087, 0.955278, 0.406946, 0, 0
0, 1500.00000, 0.961499, 0.409596, 0.925088, 0.394086, 0.955277, 0.406946, 0, 0
0, 1560.00000, 0.961498, 0.409596, 0.925087, 0.394086, 0.955277, 0.406946, 0, 0
0, 1620.00000, 0.961498, 0.409596, 0.925086, 0.394085, 0.955277, 0.406945, 0, 0
0, 1680.00000, 0.961498, 0.409596, 0.925085, 0.394085, 0.955276, 0.406945, 0, 0
0, 1740.00000, 0.961498, 0.409596, 0.925085, 0.394085, 0.955276, 0.406945, 0, 0
0, 1800.00000, 0.961497, 0.409596, 0.925084, 0.394084, 0.955276, 0.406945, 0, 0
0, 1860.00000, 0.964418, 0.41084, 0.93013, 0.396234, 0.960619, 0.409221, 0, 0
0, 1920.00000, 0.964417, 0.410839, 0.930129, 0.396233, 0.960619, 0.409222, 0, 0
0, 1980.00000, 0.964417, 0.410839, 0.930128, 0.396233, 0.960619, 0.409221, 0, 0
0, 2040.00000, 0.964417, 0.410839, 0.930128, 0.396233, 0.960619, 0.409221, 0, 0
0, 2100.00000, 0.964417, 0.410839, 0.930127, 0.396233, 0.960618, 0.409221, 0, 0
0, 2160.00000, 0.964417, 0.410839, 0.930127, 0.396232, 0.960618, 0.409221, 0, 0
0, 2220.00000, 0.964416, 0.410839, 0.930126, 0.396232, 0.960618, 0.409221, 0, 0
0, 2280.00000, 0.964416, 0.410839, 0.930126, 0.396232, 0.960618, 0.409221, 0, 0
0, 2340.00000, 0.964416, 0.410839, 0.930126, 0.396232, 0.960618, 0.409221, 0, 0
0, 2400.00000, 0.964416, 0.410839, 0.930126, 0.396232, 0.960618, 0.409221, 0, 0
0, 2460.00000, 0.964416, 0.410839, 0.930125, 0.396232, 0.960618, 0.409221, 0, 0
0, 2520.00000, 0.964416, 0.410839, 0.930125, 0.396232, 0.960618, 0.409221, 0, 0
0, 2580.00000, 0.964416, 0.410839, 0.930125, 0.396232, 0.960618, 0.409221, 0, 0
0, 2640.00000, 0.964416, 0.410839, 0.930125, 0.396232, 0.960618, 0.409221, 0, 0
0, 2700.00000, 0.964416, 0.410839, 0.930125, 0.396231, 0.960618, 0.409221, 0, 0
0, 2760.00000, 0.917299, 0.390768, 0.889405, 0.378885, 0.917298, 0.390767, 0, 0
0, 2820.00000, 0.917298, 0.390767, 0.889405, 0.378885, 0.917298, 0.390767, 0, 0
0, 2880.00000, 0.917298, 0.390767, 0.889405, 0.378885, 0.917298, 0.390767, 0, 0
0, 2940.00000, 0.917298, 0.390767, 0.889404, 0.378885, 0.917298, 0.390767, 0, 0
0, 3000.00000, 0.917298, 0.390767, 0.889404, 0.378885, 0.917298, 0.390767, 0, 0
0, 3060.00000, 0.917298, 0.390767, 0.889404, 0.378885, 0.917298, 0.390767, 0, 0
0, 3120.00000, 0.917298, 0.390767, 0.889404, 0.378885, 0.917298, 0.390767, 0, 0
0, 3180.00000, 0.917298, 0.390767, 0.889404, 0.378885, 0.917298, 0.390767, 0, 0
0, 3240.00000, 0.917298, 0.390767, 0.889404, 0.378885, 0.917298, 0.390767, 0, 0
0, 3300.00000, 0.917298, 0.390767, 0.889404, 0.378885, 0.917298, 0.390767, 0, 0
0, 3360.00000, 0.917298, 0.390767, 0.889404, 0.378885, 0.917298, 0.390767, 0, 0
0, 3420.00000, 0.917298, 0.390767, 0.889404, 0.378885, 0.917298, 0.390767, 0, 0
0, 3480.00000, 0.917299, 0.390768, 0.893925, 0.380811, 0.917297, 0.390767, 0, 0
0, 3540.00000, 0.917297, 0.390767, 0.895184, 0.381347, 0.917298, 0.390767, 0, 0
1, 0.00000, 0.917298, 0.390767, 0.895184, 0.381347, 0.917298, 0.390767, 0, 0
1, 60.00000, 0.906575, 0.386199, 0.888267, 0.3784, 0.906574, 0.386199, 0, 0
1, 120.00000, 0.906574, 0.386199, 0.888267, 0.3784, 0.906574, 0.386199, 0, 0
1, 180.00000, 0.906574, 0.386199, 0.888267, 0.3784, 0.906574, 0.386199, 0, 0
1, 240.00000, 0.906574, 0.386199, 0.888267, 0.3784, 0.906574, 0.386199, 0, 0
1, 300.00000, 0.906574, 0.386199, 0.888267, 0.3784, 0.906574, 0.386199, 0, 0
1, 360.00000, 0.906574, 0.386199, 0.888267, 0.3784, 0.906574, 0.386199, 0, 0
1, 420.00000, 0.906574, 0.386199, 0.888267, 0.3784, 0.906574, 0.386199, 0, 0
1, 480.00000, 0.906574, 0.386199, 0.888267, 0.3784, 0.906574, 0.386199, 0, 0
1, 540.00000, 0.906574, 0.386199, 0.888267, 0.3784, 0.906574, 0.386199, 0, 0
1, 600.00000, 0.906574, 0.386199, 0.888267, 0.3784, 0.906574, 0.386199, 0, 0
1, 660.00000, 0.906574, 0.386199, 0.888267, 0.3784, 0.906574, 0.386199, 0, 0
1, 720.00000, 0.906574, 0.386199, 0.888267, 0.3784, 0.906574, 0.386199, 0, 0
1, 780.00000, 0.906574, 0.386199, 0.888267, 0.3784, 0.906574, 0.386199, 0, 0
1, 840.00000, 0.906574, 0.386199, 0.888267, 0.3784, 0.906574, 0.386199, 0, 0
1, 900.00000, 0.906574, 0.386199, 0.888267, 0.3784, 0.906574, 0.386199, 0, 0
1, 960.00000, 0.902331, 0.384392, 0.884476, 0.376785, 0.902331, 0.384391, 0, 0
1, 1020.00000, 0.902331, 0.384391, 0.884475, 0.376785, 0.902331, 0.384391, 0, 0
1, 1080.00000, 0.902331, 0.384391, 0.884475, 0.376785, 0.902331, 0.384391, 0, 0
1, 1140.00000, 0.902331, 0.384391, 0.884475, 0.376785, 0.902331, 0.384391, 0, 0
1, 1200.00000, 0.902331, 0.384391, 0.884475, 0.376785, 0.902331, 0.384391, 0, 0
1, 1260.00000, 0.902331, 0.384391, 0.884475, 0.376785, 0.902331, 0.384391, 0, 0
1, 1320.00000, 0.902331, 0.384391, 0.884475, 0.376785, 0.902331, 0.384391, 0, 0
1, 1380.00000, 0.902331, 0.384391, 0.884475, 0.376785, 0.902331, 0.384391, 0, 0
1, 1440.00000, 0.902331, 0.384391, 0.884475, 0.376785, 0.902331, 0.384391, 0, 0
1, 1500.00000, 0.902331, 0.384391, 0.884475, 0.376785, 0.902331, 0.384391, 0, 0
1, 1560.00000, 0.902331, 0.384391, 0.884475, 0.376785, 0.902331, 0.384391, 0, 0
1, 1620.00000, 0.902331, 0.384391, 0.884475, 0.376785, 0.902331, 0.384391, 0, 0
1, 1680.00000, 0.902331, 0.384391, 0.884475, 0.376785, 0.902331, 0.384391, 0, 0
1, 1740.00000, 0.902331, 0.384391, 0.884475, 0.376785, 0.902331, 0.384391, 0, 0
1, 1800.00000, 0.902331, 0.384391, 0.884475, 0.376785, 0.902331, 0.384391, 0, 0
1, 1860.00000, 0.924093, 0.393662, 0.924093, 0.393662, 0.924093, 0.393662, 0, 0
1, 1920.00000, 0.924093, 0.393662, 0.924093, 0.393662, 0.924093, 0.393662, 0, 0
1, 1980.00000, 0.924093, 0.393662, 0.924093, 0.393662, 0.924093, 0.393662, 0, 0
1, 2040.00000, 0.924093, 0.393662, 0.924093, 0.393662, 0.924093, 0.393662, 0, 0
1, 2100.00000, 0.924093, 0.393662, 0.924093, 0.393662, 0.924093, 0.393662, 0, 0
1, 2160.00000, 0.924093, 0.393662, 0.924093, 0.393662, 0.924093, 0.393662, 0, 0
1, 2220.00000, 0.924093, 0.393662, 0.924093, 0.393662, 0.924093, 0.393662, 0, 0
1, 2280.00000, 0.924093, 0.393662, 0.924093, 0.393662, 0.924093, 0.393662, 0, 0
1, 2340.00000, 0.924093, 0.393662, 0.924093, 0.393662, 0.924093, 0.393662, 0, 0
1, 2400.00000, 0.924093, 0.393662, 0.924093, 0.393662, 0.924093, 0.393662, 0, 0
1, 2460.00000, 0.924093, 0.393662, 0.924093, 0.393662, 0.924093, 0.393662, 0, 0
1, 2520.00000, 0.924093, 0.393662, 0.924093, 0.393662, 0.924093, 0.393662, 0, 0
1, 2580.00000, 0.924093, 0.393662, 0.924093, 0.393662, 0.924093, 0.393662, 0, 0
1, 2640.00000, 0.924093, 0.393662, 0.924093, 0.393662, 0.924093, 0.393662, 0, 0
1, 2700.00000, 0.924093, 0.393662, 0.924093, 0.393662, 0.924093, 0.393662, 0, 0
1, 2760.00000, 0.870776, 0.370949, 0.870775, 0.370948, 0.870775, 0.370948, 0, 0
1, 2820.00000, 0.870775, 0.370949, 0.870775, 0.370949, 0.870775, 0.370949, 0, 0
1, 2880.00000, 0.870775, 0.370949, 0.870775, 0.370949, 0.870775, 0.370949, 0, 0
1, 2940.00000, 0.870775, 0.370949, 0.870775, 0.370949, 0.870775, 0.370949, 0, 0
1, 3000.00000, 0.870775, 0.370949, 0.870775, 0.370949, 0.870775, 0.370949, 0, 0
1, 3060.00000, 0.870775, 0.370949, 0.870775, 0.370949, 0.870775, 0.370949, 0, 0
1, 3120.00000, 0.870775, 0.370949, 0.870775, 0.370949, 0.870775, 0.370949, 0, 0
1, 3180.00000, 0.870775, 0.370949, 0.870775, 0.370949, 0.870775, 0.370949, 0, 0
1, 3240.00000, 0.870775, 0.370949, 0.870775, 0.370949, 0.870775, 0.370949, 0, 0
1, 3300.00000, 0.870775, 0.370949, 0.870775, 0.370949, 0.870775, 0.370949, 0, 0
1, 3360.00000, 0.870775, 0.370949, 0.870775, 0.370949, 0.870775, 0.370949, 0, 0
1, 3420.00000, 0.870775, 0.370949, 0.870775, 0.370949, 0.870775, 0.370949, 0, 0
1, 3480.00000, 0.870775, 0.370949, 0.870775, 0.370949, 0.870775, 0.370949, 0, 0
1, 3540.00000, 0.870775, 0.370949, 0.870775, 0.370949, 0.870775, 0.370949, 0, 0
2, 0.00000, 0.870775, 0.370949, 0.870775, 0.370949, 0.870775, 0.370949, 0, 0
2, 60.00000, 0.894142, 0.380903, 0.894143, 0.380903, 0.894143, 0.380903, 0, 0
2, 120.00000, 0.894143, 0.380903, 0.894143, 0.380903, 0.894143, 0.380903, 0, 0
2, 180.00000, 0.894143, 0.380903, 0.894143, 0.380903, 0.894143, 0.380903, 0, 0
2, 240.00000, 0.894143, 0.380903, 0.894143, 0.380903, 0.894143, 0.380903, 0, 0
2, 300.00000, 0.894143, 0.380903, 0.894143, 0.380903, 0.894143, 0.380903, 0, 0
2, 360.00000, 0.894143, 0.380903, 0.894143, 0.380903, 0.894143, 0.380903, 0, 0
2, 420.00000, 0.894143, 0.380903, 0.894143, 0.380903, 0.894143, 0.380903, 0, 0
2, 480.00000, 0.894143, 0.380903, 0.894143, 0.380903, 0.894143, 0.380903, 0, 0
2, 540.00000, 0.894143, 0.380903, 0.894143, 0.380903, 0.894143, 0.380903, 0, 0
2, 600.00000, 0.894143, 0.380903, 0.894143, 0.380903, 0.894143, 0.380903, 0, 0
2, 660.00000, 0.894143, 0.380903, 0.894143, 0.380903, 0.894143, 0.380903, 0, 0
2, 720.00000, 0.894143, 0.380903, 0.894143, 0.380903, 0.894143, 0.380903, 0, 0
2, 780.00000, 0.894143, 0.380903, 0.894143, 0.380903, 0.894143, 0.380903, 0, 0
2, 840.00000, 0.894143, 0.380903, 0.894143, 0.380903, 0.894143, 0.380903, 0, 0
2, 900.00000, 0.894143, 0.380903, 0.894143, 0.380903, 0.894143, 0.380903, 0, 0
2, 960.00000, 0.847207, 0.360909, 0.847205, 0.360908, 0.847206, 0.360908, 0, 0
2, 1020.00000, 0.847206, 0.360908, 0.847206, 0.360908, 0.847206, 0.360908, 0, 0
2, 1080.00000, 0.847206, 0.360908, 0.847206, 0.360908, 0.847206, 0.360908, 0, 0
2, 1140.00000, 0.847206, 0.360908, 0.847206, 0.360908, 0.847206, 0.360908, 0, 0
2, 1200.00000, 0.847206, 0.360908, 0.847206, 0.360908, 0.847206, 0.360908, 0, 0
2, 1260.00000, 0.847206, 0.360908, 0.847206, 0.360908, 0.847206, 0.360908, 0, 0
2, 1320.00000, 0.847206, 0.360908, 0.847206, 0.360908, 0.847206, 0.360908, 0, 0
2, 1380.00000, 0.847206, 0.360908, 0.847206, 0.360908, 0.847206, 0.360908, 0, 0
2, 1440.00000, 0.847206, 0.360908, 0.847206, 0.360908, 0.847206, 0.360908, 0, 0
2, 1500.00000, 0.847206, 0.360908, 0.847206, 0.360908, 0.847206, 0.360908, 0, 0
2, 1560.00000, 0.847206, 0.360908, 0.847206, 0.360908, 0.847206, 0.360908, 0, 0
2, 1620.00000, 0.847206, 0.360908, 0.847206, 0.360908, 0.847206, 0.360908, 0, 0
2, 1680.00000, 0.847206, 0.360908, 0.847206, 0.360908, 0.847206, 0.360908, 0, 0
2, 1740.00000, 0.847206, 0.360908, 0.847206, 0.360908, 0.847206, 0.360908, 0, 0
2, 1800.00000, 0.847206, 0.360908, 0.847206, 0.360908, 0.847206, 0.360908, 0, 0
2, 1860.00000, 0.846742, 0.360711, 0.846743, 0.360711, 0.846742, 0.360711, 0, 0
2, 1920.00000, 0.846742, 0.360711, 0.846742, 0.360711, 0.846742, 0.360711, 0, 0
2, 1980.00000, 0.846742, 0.360711, 0.846742, 0.360711, 0.846742, 0.360711, 0, 0
2, 2040.00000, 0.846742, 0.360711, 0.846742, 0.360711, 0.846742, 0.360711, 0, 0
2, 2100.00000, 0.846742, 0.360711, 0.846742, 0.360711, 0.846742, 0.360711, 0, 0
2, 2160.00000, 0.846742, 0.360711, 0.846742, 0.360711, 0.846742, 0.360711, 0, 0
2, 2220.00000, 0.846742, 0.360711, 0.846742, 0.360711, 0.846742, 0.360711, 0, 0
2, 2280.00000, 0.846742, 0.360711, 0.846742, 0.360711, 0.846742, 0.360711, 0, 0
2, 2340.00000, 0.846742, 0.360711, 0.846742, 0.360711, 0.846742, 0.360711, 0, 0
2, 2400.00000, 0.846742, 0.360711, 0.846742, 0.360711, 0.846742, 0.360711, 0, 0
2, 2460.00000, 0.846742, 0.360711, 0.846742, 0.360711, 0.846742, 0.360711, 0, 0
2, 2520.00000, 0.846742, 0.360711, 0.846742, 0.360711, 0.846742, 0.360711, 0, 0
2, 2580.00000, 0.846742, 0.360711, 0.846742, 0.360711, 0.846742, 0.360711, 0, 0
2, 2640.00000, 0.846742, 0.360711, 0.846742, 0.360711, 0.846742, 0.360711, 0, 0
2, 2700.00000, 0.846742, 0.360711, 0.846742, 0.360711, 0.846742, 0.360711, 0, 0
2, 2760.00000, 0.81013, 0.345114, 0.810129, 0.345114, 0.81013, 0.345114, 0, 0
2, 2820.00000, 0.810129, 0.345114, 0.810129, 0.345114, 0.810129, 0.345114, 0, 0
2, 2880.00000, 0.810129, 0.345114, 0.810129, 0.345114, 0.810129, 0.345114, 0, 0
2, 2940.00000, 0.810129, 0.345114, 0.810129, 0.345114, 0.810129, 0.345114, 0, 0
2, 3000.00000, 0.810129, 0.345114, 0.810129, 0.345114, 0.810129, 0.345114, 0, 0
2, 3060.00000, 0.810129, 0.345114, 0.810129, 0.345114, 0.810129, 0.345114, 0, 0
2, 3120.00000, 0.810129, 0.345114, 0.810129, 0.345114, 0.810129, 0.345114, 0, 0
2, 3180.00000, 0.810129, 0.345114, 0.810129, 0.345114, 0.810129, 0.345114, 0, 0
2, 3240.00000, 0.810129, 0.345114, 0.810129, 0.345114, 0.810129, 0.345114, 0, 0
2, 3300.00000, 0.810129, 0.345114, 0.810129, 0.345114, 0.810129, 0.345114, 0, 0
2, 3360.00000, 0.810129, 0.345114, 0.810129, 0.345114, 0.810129, 0.345114, 0, 0
2, 3420.00000, 0.810129, 0.345114, 0.810129, 0.345114, 0.810129, 0.345114, 0, 0
2, 3480.00000, 0.810129, 0.345114, 0.810129, 0.345114, 0.810129, 0.345114, 0, 0
2, 3540.00000, 0.810129, 0.345114, 0.810129, 0.345114, 0.810129, 0.345114, 0, 0
3, 0.00000, 0.810129, 0.345114, 0.810129, 0.345114, 0.810129, 0.345114, 0, 0
3, 60.00000, 0.830729, 0.353889, 0.83073, 0.353889, 0.830729, 0.353889, 0, 0
3, 120.00000, 0.83073, 0.353889, 0.83073, 0.353889, 0.83073, 0.353889, 0, 0
3, 180.00000, 0.83073, 0.353889, 0.83073, 0.353889, 0.83073, 0.353889, 0, 0
3, 240.00000, 0.83073, 0.353889, 0.83073, 0.353889, 0.83073, 0.353889, 0, 0
3, 300.00000, 0.83073, 0.353889, 0.83073, 0.353889, 0.83073, 0.353889, 0, 0
3, 360.00000, 0.83073, 0.353889, 0.83073, 0.353889, 0.83073, 0.353889, 0, 0
3, 420.00000, 0.83073, 0.353889, 0.83073, 0.353889, 0.83073, 0.353889, 0, 0
3, 480.00000, 0.83073, 0.353889, 0.83073, 0.353889, 0.83073, 0.353889, 0, 0
3, 540.00000, 0.83073, 0.353889, 0.83073, 0.353889, 0.83073, 0.353889, 0, 0
3, 600.00000, 0.83073, 0.353889, 0.83073, 0.353889, 0.83073, 0.353889, 0, 0
3, 660.00000, 0.83073, 0.353889, 0.83073, 0.353889, 0.83073, 0.353889, 0, 0
3, 720.00000, 0.83073, 0.353889, 0.83073, 0.353889, 0.83073, 0.353889, 0, 0
3, 780.00000, 0.83073, 0.353889, 0.83073, 0.353889, 0.83073, 0.353889, 0, 0
3, 840.00000, 0.83073, 0.353889, 0.83073, 0.353889, 0.83073, 0.353889, 0, 0
3, 900.00000, 0.83073, 0.353889, 0.83073, 0.353889, 0.83073, 0.353889, 0, 0
3, 960.00000, 0.853556, 0.363614, 0.853555, 0.363613, 0.853555, 0.363613, 0, 0
3, 1020.00000, 0.853555, 0.363613, 0.853555, 0.363613, 0.853555, 0.363613, 0, 0
3, 1080.00000, 0.853555, 0.363613, 0.853555, 0.363613, 0.853555, 0.363613, 0, 0
3, 1140.00000, 0.853555, 0.363613, 0.853555, 0.363613, 0.853555, 0.363613, 0, 0
3, 1200.00000, 0.853555, 0.363613, 0.853555, 0.363613, 0.853555, 0.363613, 0, 0
3, 1260.00000, 0.853555, 0.363613, 0.853555, 0.363613, 0.853555, 0.363613, 0, 0
3, 1320.00000, 0.853555, 0.363613, 0.853555, 0.363613, 0.853555, 0.363613, 0, 0
3, 1380.00000, 0.853555, 0.363613, 0.853555, 0.363613, 0.853555, 0.363613, 0, 0
3, 1440.00000, 0.853555, 0.363613, 0.853555, 0.363613, 0.853555, 0.363613, 0, 0
3, 1500.00000, 0.853555, 0.363613, 0.853555, 0.363613, 0.853555, 0.363613, 0, 0
3, 1560.00000, 0.853555, 0.363613, 0.853555, 0.363613, 0.853555, 0.363613, 0, 0
3, 1620.00000, 0.853555, 0.363613, 0.853555, 0.363613, 0.853555, 0.363613, 0, 0
3, 1680.00000, 0.853555, 0.363613, 0.853555, 0.363613, 0.853555, 0.363613, 0, 0
3, 1740.00000, 0.853555, 0.363613, 0.853555, 0.363613, 0.853555, 0.363613, 0, 0
3, 1800.00000, 0.853555, 0.363613, 0.853555, 0.363613, 0.853555, 0.363613, 0, 0
3, 1860.00000, 0.863993, 0.368059, 0.863992, 0.368059, 0.863992, 0.368059, 0, 0
3, 1920.00000, 0.863992, 0.368059, 0.863992, 0.368059, 0.863992, 0.368059, 0, 0
3, 1980.00000, 0.863992, 0.368059, 0.863992, 0.368059, 0.863992, 0.368059, 0, 0
3, 2040.00000, 0.863992, 0.368059, 0.863992, 0.368059, 0.863992, 0.368059, 0, 0
3, 2100.00000, 0.863992, 0.368059, 0.863992, 0.368059, 0.863992, 0.368059, 0, 0
3, 2160.00000, 0.863992, 0.368059, 0.863992, 0.368059, 0.863992, 0.368059, 0, 0
3, 2220.00000, 0.863992, 0.368059, 0.863992, 0.368059, 0.863992, 0.368059, 0, 0
3, 2280.00000, 0.863992, 0.368059, 0.863992, 0.368059, 0.863992, 0.368059, 0, 0
3, 2340.00000, 0.863992, 0.368059, 0.863992, 0.368059, 0.863992, 0.368059, 0, 0
3, 2400.00000, 0.863992, 0.368059, 0.863992, 0.368059, 0.863992, 0.368059, 0, 0
3, 2460.00000, 0.863992, 0.368059, 0.863992, 0.368059, 0.863992, 0.368059, 0, 0
3, 2520.00000, 0.863992, 0.368059, 0.863992, 0.368059, 0.863992, 0.368059, 0, 0
3, 2580.00000, 0.863992, 0.368059, 0.863992, 0.368059, 0.863992, 0.368059, 0, 0
3, 2640.00000, 0.863992, 0.368059, 0.863992, 0.368059, 0.863992, 0.368059, 0, 0
3, 2700.00000, 0.863992, 0.368059, 0.863992, 0.368059, 0.863992, 0.368059, 0, 0
3, 2760.00000, 0.790618, 0.336802, 0.790617, 0.336801, 0.790618, 0.336802, 0, 0
3, 2820.00000, 0.790617, 0.336802, 0.790617, 0.336802, 0.790617, 0.336802, 0, 0
3, 2880.00000, 0.790617, 0.336802, 0.790617, 0.336802, 0.790617, 0.336802, 0, 0
3, 2940.00000, 0.790617, 0.336802, 0.790617, 0.336802, 0.790617, 0.336802, 0, 0
3, 3000.00000, 0.790617, 0.336802, 0.790617, 0.336802, 0.790617, 0.336802, 0, 0
3, 3060.00000, 0.790617, 0.336802, 0.790617, 0.336802, 0.790617, 0.336802, 0, 0
3, 3120.00000, 0.790617, 0.336802, 0.790617, 0.336802, 0.790617, 0.336802, 0, 0
3, 3180.00000, 0.790617, 0.336802, 0.790617, 0.336802, 0.790617, 0.336802, 0, 0
3, 3240.00000, 0.790617, 0.336802, 0.790617, 0.336802, 0.790617, 0.336802, 0, 0
3, 3300.00000, 0.790617, 0.336802, 0.790617, 0.336802, 0.790617, 0.336802, 0, 0
3, 3360.00000, 0.790617, 0.336802, 0.790617, 0.336802, 0.790617, 0.336802, 0, 0
3, 3420.00000, 0.790617, 0.336802, 0.790617, 0.336802, 0.790617, 0.336802, 0, 0
3, 3480.00000, 0.790617, 0.336802, 0.790617, 0.336802, 0.790617, 0.336802, 0, 0
3, 3540.00000, 0.790617, 0.336802, 0.790617, 0.336802, 0.790617, 0.336802, 0, 0
4, 0.00000, 0.790617, 0.336802, 0.790617, 0.336802, 0.790617, 0.336802, 0, 0
4, 60.00000, 0.845778, 0.3603, 0.845778, 0.3603, 0.845778, 0.3603, 0, 0
4, 120.00000, 0.845778, 0.3603, 0.845778, 0.3603, 0.845778, 0.3603, 0, 0
4, 180.00000, 0.845778, 0.3603, 0.845778, 0.3603, 0.845778, 0.3603, 0, 0
4, 240.00000, 0.845778, 0.3603, 0.845778, 0.3603, 0.845778, 0.3603, 0, 0
4, 300.00000, 0.845778, 0.3603, 0.845778, 0.3603, 0.845778, 0.3603, 0, 0
4, 360.00000, 0.845778, 0.3603, 0.845778, 0.3603, 0.845778, 0.3603, 0, 0
4, 420.00000, 0.845778, 0.3603, 0.845778, 0.3603, 0.845778, 0.3603, 0, 0
4, 480.00000, 0.845778, 0.3603, 0.845778, 0.3603, 0.845778, 0.3603, 0, 0
4, 540.00000, 0.845778, 0.3603, 0.845778, 0.3603, 0.845778, 0.3603, 0, 0
4, 600.00000, 0.845778, 0.3603, 0.845778, 0.3603, 0.845778, 0.3603, 0, 0
4, 660.00000, 0.845778, 0.3603, 0.845778, 0.3603, 0.845778, 0.3603, 0, 0
