hour,t(sec),V1,VAngle1,V2,VAngle2,V3,VAngle3,V4,VAngle4,I1,IAngle1,I2,IAngle2,I3,IAngle3,I4,IAngle4
0, 60.00000, 126.171, -31.9146, 125.634, -151.471, 126.827, 88.5425, 0, 0, 6.54683, -54.9882, 6.57481, -174.545, 6.51307, 65.4686, 0.104916, 36.2176
0, 120.00000, 126.177, -31.9205, 125.634, -151.471, 126.843, 88.5424, 0, 0, 6.5465, -54.9941, 6.57481, -174.545, 6.51225, 65.4685, 0.106302, 36.2588
0, 180.00000, 126.183, -31.9258, 125.634, -151.471, 126.857, 88.5424, 0, 0, 6.54621, -54.9995, 6.57481, -174.544, 6.5115, 65.4684, 0.107553, 36.2955
0, 240.00000, 126.188, -31.9306, 125.634, -151.471, 126.87, 88.5423, 0, 0, 6.54594, -55.0043, 6.57481, -174.544, 6.51083, 65.4683, 0.108685, 36.328
0, 300.00000, 126.192, -31.9349, 125.634, -151.47, 126.882, 88.5423, 0, 0, 6.5457, -55.0086, 6.57481, -174.544, 6.51021, 65.4683, 0.109709, 36.3569
0, 360.00000, 126.197, -31.9388, 125.634, -151.47, 126.893, 88.5422, 0, 0, 6.54549, -55.0125, 6.57481, -174.544, 6.50966, 65.4683, 0.11063, 36.3828
0, 420.00000, 126.2, -31.9423, 125.634, -151.47, 126.902, 88.5422, 0, 0, 6.5453, -55.016, 6.57481, -174.544, 6.50917, 65.4682, 0.11146, 36.4062
0, 480.00000, 126.579, -31.8241, 126.006, -151.34, 127.319, 88.6761, 0, 0, 5.67742, -54.8978, 5.70324, -174.414, 5.64446, 65.6022, 0.0996874, 36.7489
0, 540.00000, 126.582, -31.8269, 126.006, -151.34, 127.327, 88.6761, 0, 0, 5.67728, -54.9007, 5.70324, -174.414, 5.64411, 65.6021, 0.100276, 36.7661
0, 600.00000, 126.584, -31.8295, 126.006, -151.34, 127.334, 88.676, 0, 0, 5.67716, -54.9033, 5.70324, -174.414, 5.64379, 65.6021, 0.100804, 36.7815
0, 660.00000, 126.587, -31.8319, 126.006, -151.34, 127.34, 88.676, 0, 0, 5.67705, -54.9057, 5.70324, -174.414, 5.64351, 65.6021, 0.101279, 36.7954
0, 720.00000, 126.589, -31.834, 126.006, -151.34, 127.346, 88.6759, 0, 0, 5.67695, -54.9078, 5.70324, -174.414, 5.64325, 65.602, 0.101707, 36.8079
0, 780.00000, 126.591, -31.8358, 126.006, -151.34, 127.351, 88.6759, 0, 0, 5.67686, -54.9097, 5.70324, -174.413, 5.64302, 65.602, 0.102092, 36.8192
0, 840.00000, 126.593, -31.8375, 126.006, -151.34, 127.355, 88.6759, 0, 0, 5.67678, -54.9114, 5.70324, -174.413, 5.64282, 65.6019, 0.102439, 36.8294
0, 900.00000, 126.595, -31.8391, 126.006, -151.34, 127.36, 88.6758, 0, 0, 5.67671, -54.9129, 5.70324, -174.413, 5.64263, 65.6019, 0.102751, 36.8385
0, 960.00000, 126.596, -31.8404, 126.006, -151.34, 127.363, 88.6758, 0, 0, 5.67664, -54.9143, 5.70324, -174.413, 5.64246, 65.6019, 0.103032, 36.8467
0, 1020.00000, 126.597, -31.8417, 126.006, -151.34, 127.367, 88.6758, 0, 0, 5.67658, -54.9155, 5.70324, -174.413, 5.64231, 65.6019, 0.103284, 36.8542
0, 1080.00000, 126.598, -31.8428, 126.006, -151.34, 127.37, 88.6758, 0, 0, 5.67653, -54.9167, 5.70324, -174.413, 5.64218, 65.6018, 0.103512, 36.8608
0, 1140.00000, 126.6, -31.8438, 126.006, -151.34, 127.372, 88.6757, 0, 0, 5.67648, -54.9177, 5.70324, -174.413, 5.64206, 65.6018, 0.103716, 36.8668
0, 1200.00000, 126.601, -31.8447, 126.006, -151.34, 127.375, 88.6757, 0, 0, 5.67644, -54.9186, 5.70324, -174.413, 5.64195, 65.6018, 0.103901, 36.8722
0, 1260.00000, 126.601, -31.8455, 126.006, -151.339, 127.377, 88.6757, 0, 0, 5.6764, -54.9194, 5.70324, -174.413, 5.64185, 65.6018, 0.104067, 36.8771
0, 1320.00000, 126.602, -31.8463, 126.006, -151.339, 127.379, 88.6757, 0, 0, 5.67637, -54.9201, 5.70324, -174.413, 5.64176, 65.6017, 0.104216, 36.8815
0, 1380.00000, 126.603, -31.8469, 126.006, -151.339, 127.381, 88.6757, 0, 0, 5.67634, -54.9208, 5.70324, -174.413, 5.64168, 65.6017, 0.10435, 36.8854
0, 1440.00000, 126.603, -31.8475, 126.006, -151.339, 127.382, 88.6756, 0, 0, 5.67631, -54.9214, 5.70324, -174.413, 5.64161, 65.6017, 0.104471, 36.889
0, 1500.00000, 126.604, -31.848, 126.006, -151.339, 127.384, 88.6756, 0, 0, 5.67628, -54.9219, 5.70324, -174.413, 5.64154, 65.6017, 0.10458, 36.8922
0, 1560.00000, 126.605, -31.8485, 126.006, -151.339, 127.385, 88.6756, 0, 0, 5.67626, -54.9224, 5.70324, -174.413, 5.64148, 65.6017, 0.104678, 36.8951
0, 1620.00000, 126.605, -31.849, 126.006, -151.339, 127.386, 88.6756, 0, 0, 5.67624, -54.9228, 5.70324, -174.413, 5.64143, 65.6017, 0.104766, 36.8977
0, 1680.00000, 126.605, -31.8493, 126.006, -151.339, 127.387, 88.6756, 0, 0, 5.67622, -54.9232, 5.70324, -174.413, 5.64138, 65.6017, 0.104845, 36.9
0, 1740.00000, 126.606, -31.8497, 126.006, -151.339, 127.388, 88.6756, 0, 0, 5.67621, -54.9236, 5.70324, -174.413, 5.64134, 65.6017, 0.104917, 36.9021
0, 1800.00000, 126.606, -31.85, 126.006, -151.339, 127.389, 88.6756, 0, 0, 5.67619, -54.9239, 5.70324, -174.413, 5.6413, 65.6017, 0.104981, 36.904
0, 1860.00000, 126.606, -31.8503, 126.006, -151.339, 127.39, 88.6756, 0, 0, 5.67618, -54.9242, 5.70324, -174.413, 5.64127, 65.6016, 0.105039, 36.9057
0, 1920.00000, 126.607, -31.8505, 126.006, -151.339, 127.391, 88.6756, 0, 0, 5.67617, -54.9244, 5.70324, -174.413, 5.64124, 65.6016, 0.105091, 36.9072
0, 1980.00000, 126.607, -31.8508, 126.006, -151.339, 127.391, 88.6756, 0, 0, 5.67616, -54.9247, 5.70324, -174.413, 5.64121, 65.6016, 0.105138, 36.9086
0, 2040.00000, 126.607, -31.851, 126.006, -151.339, 127.392, 88.6756, 0, 0, 5.67615, -54.9249, 5.70324, -174.413, 5.64119, 65.6016, 0.10518, 36.9098
0, 2100.00000, 126.607, -31.8512, 126.006, -151.339, 127.392, 88.6755, 0, 0, 5.67614, -54.9251, 5.70324, -174.413, 5.64116, 65.6016, 0.105218, 36.911
0, 2160.00000, 126.608, -31.8513, 126.006, -151.339, 127.393, 88.6755, 0, 0, 5.67613, -54.9252, 5.70324, -174.413, 5.64114, 65.6016, 0.105252, 36.912
0, 2220.00000, 126.608, -31.8515, 126.006, -151.339, 127.393, 88.6755, 0, 0, 5.67612, -54.9254, 5.70324, -174.413, 5.64112, 65.6016, 0.105283, 36.9129
0, 2280.00000, 126.608, -31.8516, 126.006, -151.339, 127.394, 88.6755, 0, 0, 5.67612, -54.9255, 5.70324, -174.413, 5.64111, 65.6016, 0.105311, 36.9137
0, 2340.00000, 126.608, -31.8517, 126.006, -151.339, 127.394, 88.6755, 0, 0, 5.67611, -54.9257, 5.70324, -174.413, 5.64109, 65.6016, 0.105335, 36.9144
0, 2400.00000, 126.608, -31.8519, 126.006, -151.339, 127.394, 88.6755, 0, 0, 5.67611, -54.9258, 5.70324, -174.413, 5.64108, 65.6016, 0.105358, 36.9151
0, 2460.00000, 126.608, -31.852, 126.006, -151.339, 127.394, 88.6755, 0, 0, 5.6761, -54.9259, 5.70324, -174.413, 5.64107, 65.6016, 0.105378, 36.9157
0, 2520.00000, 126.608, -31.852, 126.006, -151.339, 127.395, 88.6755, 0, 0, 5.6761, -54.926, 5.70324, -174.413, 5.64106, 65.6016, 0.105396, 36.9162
0, 2580.00000, 126.608, -31.8521, 126.006, -151.339, 127.395, 88.6755, 0, 0, 5.67609, -54.926, 5.70324, -174.413, 5.64105, 65.6016, 0.105413, 36.9167
0, 2640.00000, 126.608, -31.8522, 126.006, -151.339, 127.395, 88.6755, 0, 0, 5.67609, -54.9261, 5.70324, -174.413, 5.64104, 65.6016, 0.105427, 36.9171
0, 2700.00000, 126.608, -31.8523, 126.006, -151.339, 127.395, 88.6755, 0, 0, 5.67609, -54.9262, 5.70324, -174.413, 5.64103, 65.6016, 0.10544, 36.9175
0, 2760.00000, 126.609, -31.8523, 126.006, -151.339, 127.395, 88.6755, 0, 0, 5.67608, -54.9262, 5.70324, -174.413, 5.64102, 65.6016, 0.105452, 36.9178
0, 2820.00000, 126.609, -31.8524, 126.006, -151.339, 127.396, 88.6755, 0, 0, 5.67608, -54.9263, 5.70324, -174.413, 5.64102, 65.6016, 0.105463, 36.9182
0, 2880.00000, 126.609, -31.8524, 126.006, -151.339, 127.396, 88.6755, 0, 0, 5.67608, -54.9263, 5.70324, -174.413, 5.64101, 65.6016, 0.105473, 36.9184
0, 2940.00000, 126.609, -31.8525, 126.006, -151.339, 127.396, 88.6755, 0, 0, 5.67608, -54.9264, 5.70324, -174.413, 5.64101, 65.6016, 0.105481, 36.9187
0, 3000.00000, 126.609, -31.8525, 126.006, -151.339, 127.396, 88.6755, 0, 0, 5.67608, -54.9264, 5.70324, -174.413, 5.641, 65.6016, 0.105489, 36.9189
0, 3060.00000, 126.609, -31.8525, 126.006, -151.339, 127.396, 88.6755, 0, 0, 5.67607, -54.9265, 5.70324, -174.413, 5.641, 65.6016, 0.105496, 36.9191
0, 3120.00000, 126.609, -31.8526, 126.006, -151.339, 127.396, 88.6755, 0, 0, 5.67607, -54.9265, 5.70324, -174.413, 5.64099, 65.6016, 0.105503, 36.9193
0, 3180.00000, 126.609, -31.8526, 126.006, -151.339, 127.396, 88.6755, 0, 0, 5.67607, -54.9265, 5.70324, -174.413, 5.64099, 65.6016, 0.105508, 36.9195
0, 3240.00000, 126.609, -31.8526, 126.006, -151.339, 127.396, 88.6755, 0, 0, 5.67607, -54.9265, 5.70324, -174.413, 5.64099, 65.6016, 0.105513, 36.9196
0, 3300.00000, 126.609, -31.8526, 126.006, -151.339, 127.396, 88.6755, 0, 0, 5.67607, -54.9266, 5.70324, -174.413, 5.64098, 65.6016, 0.105518, 36.9198
0, 3360.00000, 126.609, -31.8527, 126.006, -151.339, 127.396, 88.6755, 0, 0, 5.67607, -54.9266, 5.70324, -174.413, 5.64098, 65.6016, 0.105522, 36.9199
0, 3420.00000, 126.609, -31.8527, 126.006, -151.339, 127.396, 88.6755, 0, 0, 5.67607, -54.9266, 5.70324, -174.413, 5.64098, 65.6016, 0.105526, 36.92
0, 3480.00000, 126.609, -31.8527, 126.006, -151.339, 127.397, 88.6755, 0, 0, 5.67607, -54.9266, 5.70324, -174.413, 5.64098, 65.6016, 0.105529, 36.9201
0, 3540.00000, 126.609, -31.8527, 126.006, -151.339, 127.397, 88.6755, 0, 0, 5.67607, -54.9266, 5.70324, -174.413, 5.64098, 65.6016, 0.105532, 36.9202
1, 0.00000, 126.609, -31.8527, 126.006, -151.339, 127.397, 88.6755, 0, 0, 5.67606, -54.9266, 5.70324, -174.413, 5.64097, 65.6016, 0.105535, 36.9203
1, 60.00000, 126.609, -31.8527, 126.006, -151.339, 127.397, 88.6755, 0, 0, 5.67606, -54.9267, 5.70324, -174.413, 5.64097, 65.6016, 0.105537, 36.9203
1, 120.00000, 126.609, -31.8528, 126.006, -151.339, 127.397, 88.6755, 0, 0, 5.67606, -54.9267, 5.70324, -174.413, 5.64097, 65.6016, 0.10554, 36.9204
1, 180.00000, 126.609, -31.8528, 126.006, -151.339, 127.397, 88.6755, 0, 0, 5.67606, -54.9267, 5.70324, -174.413, 5.64097, 65.6016, 0.105542, 36.9205
1, 240.00000, 126.609, -31.8528, 126.006, -151.339, 127.397, 88.6755, 0, 0, 5.67606, -54.9267, 5.70324, -174.413, 5.64097, 65.6016, 0.105543, 36.9205
1, 300.00000, 126.609, -31.8528, 126.006, -151.339, 127.397, 88.6755, 0, 0, 5.67606, -54.9267, 5.70324, -174.413, 5.64097, 65.6016, 0.105545, 36.9206
1, 360.00000, 126.609, -31.8528, 126.006, -151.339, 127.397, 88.6755, 0, 0, 5.67606, -54.9267, 5.70324, -174.413, 5.64097, 65.6016, 0.105547, 36.9206
1, 420.00000, 126.609, -31.8528, 126.006, -151.339, 127.397, 88.6755, 0, 0, 5.67606, -54.9267, 5.70324, -174.413, 5.64097, 65.6016, 0.105548, 36.9207
1, 480.00000, 126.609, -31.8528, 126.006, -151.339, 127.397, 88.6755, 0, 0, 5.67606, -54.9267, 5.70324, -174.413, 5.64097, 65.6016, 0.105549, 36.9207
1, 540.00000, 126.609, -31.8528, 126.006, -151.339, 127.397, 88.6755, 0, 0, 5.67606, -54.9267, 5.70324, -174.413, 5.64096, 65.6016, 0.10555, 36.9207
1, 600.00000, 126.609, -31.8528, 126.006, -151.339, 127.397, 88.6755, 0, 0, 5.67606, -54.9267, 5.70324, -174.413, 5.64096, 65.6016, 0.105551, 36.9207
1, 660.00000, 126.609, -31.8528, 126.006, -151.339, 127.397, 88.6755, 0, 0, 5.67606, -54.9267, 5.70324, -174.413, 5.64096, 65.6016, 0.105552, 36.9208
1, 720.00000, 126.609, -31.8528, 126.006, -151.339, 127.397, 88.6755, 0, 0, 5.67606, -54.9267, 5.70324, -174.413, 5.64096, 65.6016, 0.105553, 36.9208
1, 780.00000, 126.609, -31.8528, 126.006, -151.339, 127.397, 88.6755, 0, 0, 5.67606, -54.9267, 5.70324, -174.413, 5.64096, 65.6016, 0.105553, 36.9208
1, 840.00000, 126.609, -31.8528, 126.006, -151.339, 127.397, 88.6755, 0, 0, 5.67606, -54.9267, 5.70324, -174.413, 5.64096, 65.6016, 0.105554, 36.9208
1, 900.00000, 126.609, -31.8528, 126.006, -151.339, 127.397, 88.6755, 0, 0, 5.67606, -54.9267, 5.70324, -174.413, 5.64096, 65.6016, 0.105555, 36.9208
1, 960.00000, 126.609, -31.8528, 126.006, -151.339, 127.397, 88.6755, 0, 0, 5.67606, -54.9267, 5.70324, -174.413, 5.64096, 65.6016, 0.105555, 36.9209
1, 1020.00000, 126.609, -31.8528, 126.006, -151.339, 127.397, 88.6755, 0, 0, 5.67606, -54.9267, 5.70324, -174.413, 5.64096, 65.6016, 0.105555, 36.9209
1, 1080.00000, 126.609, -31.8528, 126.006, -151.339, 127.397, 88.6755, 0, 0, 5.67606, -54.9268, 5.70324, -174.413, 5.64096, 65.6016, 0.105556, 36.9209
1, 1140.00000, 126.609, -31.8528, 126.006, -151.339, 127.397, 88.6755, 0, 0, 5.67606, -54.9268, 5.70324, -174.413, 5.64096, 65.6016, 0.105556, 36.9209
1, 1200.00000, 126.609, -31.8528, 126.006, -151.339, 127.397, 88.6755, 0, 0, 5.67606, -54.9268, 5.70324, -174.413, 5.64096, 65.6016, 0.105557, 36.9209
1, 1260.00000, 126.609, -31.8528, 126.006, -151.339, 127.397, 88.6755, 0, 0, 5.67606, -54.9268, 5.70324, -174.413, 5.64096, 65.6016, 0.105557, 36.9209
1, 1320.00000, 126.609, -31.8528, 126.006, -151.339, 127.397, 88.6755, 0, 0, 5.67606, -54.9268, 5.70324, -174.413, 5.64096, 65.6016, 0.105557, 36.9209
1, 1380.00000, 126.609, -31.8528, 126.006, -151.339, 127.397, 88.6755, 0, 0, 5.67606, -54.9268, 5.70324, -174.413, 5.64096, 65.6016, 0.105557, 36.9209
1, 1440.00000, 126.609, -31.8528, 126.006, -151.339, 127.397, 88.6755, 0, 0, 5.67606, -54.9268, 5.70324, -174.413, 5.64096, 65.6016, 0.105558, 36.9209
1, 1500.00000, 126.609, -31.8528, 126.006, -151.339, 127.397, 88.6755, 0, 0, 5.67606, -54.9268, 5.70324, -174.413, 5.64096, 65.6016, 0.105558, 36.9209
1, 1560.00000, 126.609, -31.8528, 126.006, -151.339, 127.397, 88.6755, 0, 0, 5.67606, -54.9268, 5.70324, -174.413, 5.64096, 65.6016, 0.105558, 36.921
1, 1620.00000, 126.609, -31.8528, 126.006, -151.339, 127.397, 88.6755, 0, 0, 5.67606, -54.9268, 5.70324, -174.413, 5.64096, 65.6016, 0.105558, 36.921
1, 1680.00000, 126.609, -31.8528, 126.006, -151.339, 127.397, 88.6755, 0, 0, 5.67606, -54.9268, 5.70324, -174.413, 5.64096, 65.6016, 0.105558, 36.921
1, 1740.00000, 126.609, -31.8528, 126.006, -151.339, 127.397, 88.6755, 0, 0, 5.67606, -54.9268, 5.70324, -174.413, 5.64096, 65.6016, 0.105558, 36.921
1, 1800.00000, 126.609, -31.8528, 126.006, -151.339, 127.397, 88.6755, 0, 0, 5.67606, -54.9268, 5.70324, -174.413, 5.64096, 65.6016, 0.105559, 36.921
1, 1860.00000, 126.609, -31.8528, 126.006, -151.339, 127.397, 88.6755, 0, 0, 5.67606, -54.9268, 5.70324, -174.413, 5.64096, 65.6016, 0.105559, 36.921
1, 1920.00000, 126.609, -31.8528, 126.006, -151.339, 127.397, 88.6755, 0, 0, 5.67606, -54.9268, 5.70324, -174.413, 5.64096, 65.6016, 0.105559, 36.921
1, 1980.00000, 126.609, -31.8528, 126.006, -151.339, 127.397, 88.6755, 0, 0, 5.67606, -54.9268, 5.70324, -174.413, 5.64096, 65.6016, 0.105559, 36.921
1, 2040.00000, 126.609, -31.8528, 126.006, -151.339, 127.397, 88.6755, 0, 0, 5.67606, -54.9268, 5.70324, -174.413, 5.64096, 65.6016, 0.105559, 36.921
1, 2100.00000, 126.609, -31.8528, 126.006, -151.339, 127.397, 88.6755, 0, 0, 5.67606, -54.9268, 5.70324, -174.413, 5.64096, 65.6016, 0.105559, 36.921
1, 2160.00000, 126.609, -31.8528, 126.006, -151.339, 127.397, 88.6755, 0, 0, 5.67606, -54.9268, 5.70324, -174.413, 5.64096, 65.6016, 0.105559, 36.921
1, 2220.00000, 126.609, -31.8528, 126.006, -151.339, 127.397, 88.6755, 0, 0, 5.67606, -54.9268, 5.70324, -174.413, 5.64096, 65.6016, 0.105559, 36.921
1, 2280.00000, 126.609, -31.8528, 126.006, -151.339, 127.397, 88.6755, 0, 0, 5.67606, -54.9268, 5.70324, -174.413, 5.64096, 65.6016, 0.105559, 36.921
1, 2340.00000, 126.609, -31.8528, 126.006, -151.339, 127.397, 88.6755, 0, 0, 5.67606, -54.9268, 5.70324, -174.413, 5.64096, 65.6016, 0.105559, 36.921
1, 2400.00000, 126.609, -31.8528, 126.006, -151.339, 127.397, 88.6755, 0, 0, 5.67606, -54.9268, 5.70324, -174.413, 5.64096, 65.6016, 0.105559, 36.921
1, 2460.00000, 126.609, -31.8528, 126.006, -151.339, 127.397, 88.6755, 0, 0, 5.67606, -54.9268, 5.70324, -174.413, 5.64096, 65.6016, 0.105559, 36.921
1, 2520.00000, 126.609, -31.8528, 126.006, -151.339, 127.397, 88.6755, 0, 0, 5.67606, -54.9268, 5.70324, -174.413, 5.64096, 65.6016, 0.105559, 36.921
1, 2580.00000, 126.609, -31.8528, 126.006, -151.339, 127.397, 88.6755, 0, 0, 5.67606, -54.9268, 5.70324, -174.413, 5.64096, 65.6016, 0.105559, 36.921
1, 2640.00000, 126.609, -31.8528, 126.006, -151.339, 127.397, 88.6755, 0, 0, 5.67606, -54.9268, 5.70324, -174.413, 5.64096, 65.6016, 0.105559, 36.921
1, 2700.00000, 126.609, -31.8528, 126.006, -151.339, 127.397, 88.6755, 0, 0, 5.67606, -54.9268, 5.70324, -174.413, 5.64096, 65.6016, 0.105559, 36.921
1, 2760.00000, 126.609, -31.8528, 126.006, -151.339, 127.397, 88.6755, 0, 0, 5.67606, -54.9268, 5.70324, -174.413, 5.64096, 65.6016, 0.105559, 36.921
1, 2820.00000, 126.609, -31.8528, 126.006, -151.339, 127.397, 88.6755, 0, 0, 5.67606, -54.9268, 5.70324, -174.413, 5.64096, 65.6016, 0.105559, 36.921
1, 2880.00000, 126.609, -31.8528, 126.006, -151.339, 127.397, 88.6755, 0, 0, 5.67606, -54.9268, 5.70324, -174.413, 5.64096, 65.6016, 0.105559, 36.921
1, 2940.00000, 126.609, -31.8528, 126.006, -151.339, 127.397, 88.6755, 0, 0, 5.67606, -54.9268, 5.70324, -174.413, 5.64096, 65.6016, 0.105559, 36.921
1, 3000.00000, 126.609, -31.8528, 126.006, -151.339, 127.397, 88.6755, 0, 0, 5.67606, -54.9268, 5.70324, -174.413, 5.64096, 65.6016, 0.105559, 36.921
1, 3060.00000, 126.609, -31.8528, 126.006, -151.339, 127.397, 88.6755, 0, 0, 5.67606, -54.9268, 5.70324, -174.413, 5.64096, 65.6016, 0.105559, 36.921
1, 3120.00000, 126.609, -31.8528, 126.006, -151.339, 127.397, 88.6755, 0, 0, 5.67606, -54.9268, 5.70324, -174.413, 5.64096, 65.6016, 0.105559, 36.921
1, 3180.00000, 126.609, -31.8528, 126.006, -151.339, 127.397, 88.6755, 0, 0, 5.67606, -54.9268, 5.70324, -174.413, 5.64096, 65.6016, 0.105559, 36.921
1, 3240.00000, 126.609, -31.8528, 126.006, -151.339, 127.397, 88.6755, 0, 0, 5.67606, -54.9268, 5.70324, -174.413, 5.64096, 65.6016, 0.105559, 36.921
1, 3300.00000, 126.609, -31.8528, 126.006, -151.339, 127.397, 88.6755, 0, 0, 5.67606, -54.9268, 5.70324, -174.413, 5.64096, 65.6016, 0.105559, 36.921
1, 3360.00000, 126.609, -31.8528, 126.006, -151.339, 127.397, 88.6755, 0, 0, 5.67606, -54.9268, 5.70324, -174.413, 5.64096, 65.6016, 0.105559, 36.921
1, 3420.00000, 126.609, -31.8528, 126.006, -151.339, 127.397, 88.6755, 0, 0, 5.67606, -54.9268, 5.70324, -174.413, 5.64096, 65.6016, 0.10556, 36.921
1, 3480.00000, 126.609, -31.8528, 126.006, -151.339, 127.397, 88.6755, 0, 0, 5.67606, -54.9268, 5.70324, -174.413, 5.64096, 65.6016, 0.10556, 36.921
1, 3540.00000, 126.609, -31.8528, 126.006, -151.339, 127.397, 88.6755, 0, 0, 5.67606, -54.9268, 5.70324, -174.413, 5.64096, 65.6016, 0.10556, 36.921
2, 0.00000, 126.609, -31.8528, 126.006, -151.339, 127.397, 88.6755, 0, 0, 5.67606, -54.9268, 5.70324, -174.413, 5.64096, 65.6016, 0.10556, 36.921
2, 60.00000, 126.609, -31.8528, 126.006, -151.339, 127.397, 88.6755, 0, 0, 5.67606, -54.9268, 5.70324, -174.413, 5.64096, 65.6016, 0.10556, 36.921
2, 120.00000, 126.609, -31.8528, 126.006, -151.339, 127.397, 88.6755, 0, 0, 5.67606, -54.9268, 5.70324, -174.413, 5.64096, 65.6016, 0.10556, 36.921
2, 180.00000, 126.609, -31.8528, 126.006, -151.339, 127.397, 88.6755, 0, 0, 5.67606, -54.9268, 5.70324, -174.413, 5.64096, 65.6016, 0.10556, 36.921
2, 240.00000, 126.609, -31.8528, 126.006, -151.339, 127.397, 88.6755, 0, 0, 5.67606, -54.9268, 5.70324, -174.413, 5.64096, 65.6016, 0.10556, 36.921
2, 300.00000, 126.609, -31.8528, 126.006, -151.339, 127.397, 88.6755, 0, 0, 5.67606, -54.9268, 5.70324, -174.413, 5.64096, 65.6016, 0.10556, 36.921
2, 360.00000, 126.609, -31.8528, 126.006, -151.339, 127.397, 88.6755, 0, 0, 5.67606, -54.9268, 5.70324, -174.413, 5.64096, 65.6016, 0.10556, 36.921
2, 420.00000, 126.609, -31.8528, 126.006, -151.339, 127.397, 88.6755, 0, 0, 5.67606, -54.9268, 5.70324, -174.413, 5.64096, 65.6016, 0.10556, 36.921
2, 480.00000, 126.609, -31.8528, 126.006, -151.339, 127.397, 88.6755, 0, 0, 5.67606, -54.9268, 5.70324, -174.413, 5.64096, 65.6016, 0.10556, 36.921
2, 540.00000, 126.609, -31.8528, 126.006, -151.339, 127.397, 88.6755, 0, 0, 5.67606, -54.9268, 5.70324, -174.413, 5.64096, 65.6016, 0.10556, 36.921
2, 600.00000, 126.609, -31.8528, 126.006, -151.339, 127.397, 88.6755, 0, 0, 5.67606, -54.9268, 5.70324, -174.413, 5.64096, 65.6016, 0.10556, 36.921
2, 660.00000, 126.609, -31.8528, 126.006, -151.339, 127.397, 88.6755, 0, 0, 5.67606, -54.9268, 5.70324, -174.413, 5.64096, 65.6016, 0.10556, 36.921
2, 720.00000, 126.609, -31.8528, 126.006, -151.339, 127.397, 88.6755, 0, 0, 5.67606, -54.9268, 5.70324, -174.413, 5.64096, 65.6016, 0.10556, 36.921
2, 780.00000, 126.609, -31.8528, 126.006, -151.339, 127.397, 88.6755, 0, 0, 5.67606, -54.9268, 5.70324, -174.413, 5.64096, 65.6016, 0.10556, 36.921
