hour,t(sec),"P1 (kW)","Q1 (kvar)","P2 (kW)","Q2 (kvar)","P3 (kW)","Q3 (kvar)","P4 (kW)","Q4 (kvar)"
0, 60.00000, 0.83126, 0.354116, 0.840729, 0.358145, 0.832585, 0.354675, 0, 0
0, 120.00000, 0.831258, 0.354114, 0.840739, 0.358154, 0.832581, 0.354678, 0, 0
0, 180.00000, 0.831258, 0.354114, 0.84074, 0.358154, 0.832581, 0.354678, 0, 0
0, 240.00000, 0.831258, 0.354114, 0.84074, 0.358154, 0.832581, 0.354678, 0, 0
0, 300.00000, 0.831258, 0.354114, 0.84074, 0.358154, 0.832581, 0.354678, 0, 0
0, 360.00000, 0.831258, 0.354114, 0.84074, 0.358154, 0.832581, 0.354678, 0, 0
0, 420.00000, 0.831258, 0.354114, 0.84074, 0.358154, 0.832581, 0.354678, 0, 0
0, 480.00000, 0.831258, 0.354114, 0.84074, 0.358154, 0.832581, 0.354678, 0, 0
0, 540.00000, 0.831258, 0.354114, 0.84074, 0.358154, 0.832581, 0.354678, 0, 0
0, 600.00000, 0.831258, 0.354114, 0.84074, 0.358154, 0.832581, 0.354678, 0, 0
0, 660.00000, 0.831258, 0.354114, 0.84074, 0.358154, 0.832581, 0.354678, 0, 0
0, 720.00000, 0.831258, 0.354114, 0.84074, 0.358154, 0.832581, 0.354678, 0, 0
0, 780.00000, 0.831258, 0.354114, 0.84074, 0.358154, 0.832581, 0.354678, 0, 0
0, 840.00000, 0.831258, 0.354114, 0.84074, 0.358154, 0.832581, 0.354678, 0, 0
0, 900.00000, 0.831258, 0.354114, 0.84074, 0.358154, 0.832581, 0.354678, 0, 0
0, 960.00000, 0.809642, 0.344906, 0.822771, 0.350495, 0.812301, 0.346037, 0, 0
0, 1020.00000, 0.80964, 0.344905, 0.822777, 0.350502, 0.8123, 0.346038, 0, 0
0, 1080.00000, 0.80964, 0.344905, 0.822777, 0.350502, 0.8123, 0.346038, 0, 0
0, 1140.00000, 0.80964, 0.344905, 0.822777, 0.350502, 0.8123, 0.346038, 0, 0
0, 1200.00000, 0.80964, 0.344905, 0.822777, 0.350502, 0.8123, 0.346038, 0, 0
0, 1260.00000, 0.80964, 0.344905, 0.822777, 0.350502, 0.8123, 0.346038, 0, 0
0, 1320.00000, 0.80964, 0.344905, 0.822777, 0.350502, 0.8123, 0.346038, 0, 0
0, 1380.00000, 0.80964, 0.344905, 0.822777, 0.350502, 0.8123, 0.346038, 0, 0
0, 1440.00000, 0.80964, 0.344905, 0.822777, 0.350502, 0.8123, 0.346038, 0, 0
0, 1500.00000, 0.80964, 0.344905, 0.822777, 0.350502, 0.8123, 0.346038, 0, 0
0, 1560.00000, 0.80964, 0.344905, 0.822777, 0.350502, 0.8123, 0.346038, 0, 0
0, 1620.00000, 0.80964, 0.344905, 0.822777, 0.350502, 0.8123, 0.346038, 0, 0
0, 1680.00000, 0.80964, 0.344905, 0.822777, 0.350502, 0.8123, 0.346038, 0, 0
0, 1740.00000, 0.80964, 0.344905, 0.822777, 0.350502, 0.8123, 0.346038, 0, 0
0, 1800.00000, 0.80964, 0.344905, 0.822777, 0.350502, 0.8123, 0.346038, 0, 0
0, 1860.00000, 0.767503, 0.326956, 0.777983, 0.331432, 0.76984, 0.327962, 0, 0
0, 1920.00000, 0.767513, 0.326959, 0.777956, 0.331408, 0.769847, 0.327954, 0, 0
0, 1980.00000, 0.767513, 0.326959, 0.777956, 0.331408, 0.769847, 0.327954, 0, 0
0, 2040.00000, 0.767513, 0.326959, 0.777956, 0.331408, 0.769847, 0.327954, 0, 0
0, 2100.00000, 0.767513, 0.326959, 0.777956, 0.331408, 0.769847, 0.327954, 0, 0
0, 2160.00000, 0.767513, 0.326959, 0.777956, 0.331408, 0.769847, 0.327954, 0, 0
0, 2220.00000, 0.767513, 0.326959, 0.777956, 0.331408, 0.769847, 0.327954, 0, 0
0, 2280.00000, 0.767513, 0.326959, 0.777956, 0.331408, 0.769847, 0.327954, 0, 0
0, 2340.00000, 0.767513, 0.326959, 0.777956, 0.331408, 0.769847, 0.327954, 0, 0
0, 2400.00000, 0.767513, 0.326959, 0.777956, 0.331408, 0.769847, 0.327954, 0, 0
0, 2460.00000, 0.767513, 0.326959, 0.777956, 0.331408, 0.769847, 0.327954, 0, 0
0, 2520.00000, 0.767513, 0.326959, 0.777956, 0.331408, 0.769847, 0.327954, 0, 0
0, 2580.00000, 0.767513, 0.326959, 0.777956, 0.331408, 0.769847, 0.327954, 0, 0
0, 2640.00000, 0.767513, 0.326959, 0.777956, 0.331408, 0.769847, 0.327954, 0, 0
0, 2700.00000, 0.767513, 0.326959, 0.777956, 0.331408, 0.769847, 0.327954, 0, 0
0, 2760.00000, 0.754985, 0.321623, 0.761491, 0.324395, 0.756963, 0.322466, 0, 0
0, 2820.00000, 0.754987, 0.321623, 0.761488, 0.324392, 0.756964, 0.322465, 0, 0
0, 2880.00000, 0.754987, 0.321623, 0.761488, 0.324392, 0.756964, 0.322465, 0, 0
0, 2940.00000, 0.754987, 0.321623, 0.761488, 0.324392, 0.756964, 0.322465, 0, 0
0, 3000.00000, 0.754987, 0.321623, 0.761488, 0.324392, 0.756964, 0.322465, 0, 0
0, 3060.00000, 0.754987, 0.321623, 0.761488, 0.324392, 0.756964, 0.322465, 0, 0
0, 3120.00000, 0.754987, 0.321623, 0.761488, 0.324392, 0.756964, 0.322465, 0, 0
0, 3180.00000, 0.754987, 0.321623, 0.761488, 0.324392, 0.756964, 0.322465, 0, 0
0, 3240.00000, 0.754987, 0.321623, 0.761488, 0.324392, 0.756964, 0.322465, 0, 0
0, 3300.00000, 0.754987, 0.321623, 0.761488, 0.324392, 0.756964, 0.322465, 0, 0
0, 3360.00000, 0.754987, 0.321623, 0.761488, 0.324392, 0.756964, 0.322465, 0, 0
0, 3420.00000, 0.754987, 0.321623, 0.761488, 0.324392, 0.756964, 0.322465, 0, 0
0, 3480.00000, 0.754988, 0.321624, 0.761491, 0.324395, 0.760842, 0.324121, 0, 0
0, 3540.00000, 0.756054, 0.322076, 0.761494, 0.324398, 0.760833, 0.324114, 0, 0
1, 0.00000, 0.756054, 0.322078, 0.761488, 0.324393, 0.760831, 0.324113, 0, 0
1, 60.00000, 0.696723, 0.296813, 0.699044, 0.297807, 0.69902, 0.297806, 0, 0
1, 120.00000, 0.696749, 0.296814, 0.698994, 0.29777, 0.698993, 0.29777, 0, 0
1, 180.00000, 0.696749, 0.296814, 0.698993, 0.29777, 0.698993, 0.29777, 0, 0
1, 240.00000, 0.696749, 0.296814, 0.698993, 0.29777, 0.698993, 0.29777, 0, 0
1, 300.00000, 0.696749, 0.296814, 0.698993, 0.29777, 0.698993, 0.29777, 0, 0
1, 360.00000, 0.696749, 0.296814, 0.698993, 0.29777, 0.698993, 0.29777, 0, 0
1, 420.00000, 0.696749, 0.296814, 0.698993, 0.29777, 0.698993, 0.29777, 0, 0
1, 480.00000, 0.696749, 0.296814, 0.698993, 0.29777, 0.698993, 0.29777, 0, 0
1, 540.00000, 0.696749, 0.296814, 0.698993, 0.29777, 0.698993, 0.29777, 0, 0
1, 600.00000, 0.696938, 0.29689, 0.699014, 0.297783, 0.699003, 0.297786, 0, 0
1, 660.00000, 0.696932, 0.296892, 0.698993, 0.29777, 0.698993, 0.29777, 0, 0
1, 720.00000, 0.696932, 0.296892, 0.698993, 0.29777, 0.698993, 0.29777, 0, 0
1, 780.00000, 0.696932, 0.296892, 0.698993, 0.29777, 0.698993, 0.29777, 0, 0
1, 840.00000, 0.696932, 0.296892, 0.698993, 0.29777, 0.698993, 0.29777, 0, 0
1, 900.00000, 0.696932, 0.296892, 0.698993, 0.29777, 0.698993, 0.29777, 0, 0
1, 960.00000, 0.704506, 0.300118, 0.706329, 0.3009, 0.706318, 0.300896, 0, 0
1, 1020.00000, 0.704511, 0.30012, 0.706315, 0.300889, 0.706314, 0.300889, 0, 0
1, 1080.00000, 0.704511, 0.30012, 0.706314, 0.300889, 0.706314, 0.300889, 0, 0
1, 1140.00000, 0.704511, 0.30012, 0.706314, 0.300889, 0.706314, 0.300889, 0, 0
1, 1200.00000, 0.704511, 0.30012, 0.706314, 0.300889, 0.706314, 0.300889, 0, 0
1, 1260.00000, 0.704511, 0.30012, 0.706314, 0.300889, 0.706314, 0.300889, 0, 0
1, 1320.00000, 0.704511, 0.30012, 0.706314, 0.300889, 0.706314, 0.300889, 0, 0
1, 1380.00000, 0.704511, 0.30012, 0.706314, 0.300889, 0.706314, 0.300889, 0, 0
1, 1440.00000, 0.704511, 0.30012, 0.706314, 0.300889, 0.706314, 0.300889, 0, 0
1, 1500.00000, 0.704511, 0.30012, 0.706314, 0.300889, 0.706314, 0.300889, 0, 0
1, 1560.00000, 0.704511, 0.30012, 0.706314, 0.300889, 0.706314, 0.300889, 0, 0
1, 1620.00000, 0.704511, 0.30012, 0.706314, 0.300889, 0.706314, 0.300889, 0, 0
1, 1680.00000, 0.704511, 0.30012, 0.706314, 0.300889, 0.706314, 0.300889, 0, 0
1, 1740.00000, 0.704511, 0.30012, 0.706314, 0.300889, 0.706314, 0.300889, 0, 0
1, 1800.00000, 0.704511, 0.30012, 0.706314, 0.300889, 0.706314, 0.300889, 0, 0
1, 1860.00000, 0.751456, 0.320137, 0.751433, 0.320094, 0.751493, 0.320136, 0, 0
1, 1920.00000, 0.751454, 0.320118, 0.751454, 0.320118, 0.751455, 0.320119, 0, 0
1, 1980.00000, 0.751454, 0.320118, 0.751454, 0.320118, 0.751454, 0.320118, 0, 0
1, 2040.00000, 0.751454, 0.320118, 0.751454, 0.320118, 0.751454, 0.320118, 0, 0
1, 2100.00000, 0.751454, 0.320118, 0.751454, 0.320118, 0.751454, 0.320118, 0, 0
1, 2160.00000, 0.751454, 0.320118, 0.751454, 0.320118, 0.751454, 0.320118, 0, 0
1, 2220.00000, 0.751454, 0.320118, 0.751454, 0.320118, 0.751454, 0.320118, 0, 0
1, 2280.00000, 0.751454, 0.320118, 0.751454, 0.320118, 0.751454, 0.320118, 0, 0
1, 2340.00000, 0.751454, 0.320118, 0.751454, 0.320118, 0.751454, 0.320118, 0, 0
1, 2400.00000, 0.751454, 0.320118, 0.751454, 0.320118, 0.751454, 0.320118, 0, 0
1, 2460.00000, 0.751454, 0.320118, 0.751454, 0.320118, 0.751454, 0.320118, 0, 0
1, 2520.00000, 0.751454, 0.320118, 0.751454, 0.320118, 0.751454, 0.320118, 0, 0
1, 2580.00000, 0.751454, 0.320118, 0.751454, 0.320118, 0.751454, 0.320118, 0, 0
1, 2640.00000, 0.751454, 0.320118, 0.751454, 0.320118, 0.751454, 0.320118, 0, 0
1, 2700.00000, 0.751454, 0.320118, 0.751454, 0.320118, 0.751454, 0.320118, 0, 0
1, 2760.00000, 0.709375, 0.302195, 0.709388, 0.302198, 0.709393, 0.302213, 0, 0
1, 2820.00000, 0.709367, 0.302189, 0.709368, 0.302189, 0.709368, 0.30219, 0, 0
1, 2880.00000, 0.709367, 0.302189, 0.709367, 0.302189, 0.709367, 0.302189, 0, 0
1, 2940.00000, 0.709367, 0.302189, 0.709367, 0.302189, 0.709367, 0.302189, 0, 0
1, 3000.00000, 0.709367, 0.302189, 0.709367, 0.302189, 0.709367, 0.302189, 0, 0
1, 3060.00000, 0.709367, 0.302189, 0.709367, 0.302189, 0.709367, 0.302189, 0, 0
1, 3120.00000, 0.709367, 0.302189, 0.709367, 0.302189, 0.709367, 0.302189, 0, 0
1, 3180.00000, 0.709367, 0.302189, 0.709367, 0.302189, 0.709367, 0.302189, 0, 0
1, 3240.00000, 0.709367, 0.302189, 0.709367, 0.302189, 0.709367, 0.302189, 0, 0
1, 3300.00000, 0.709367, 0.302189, 0.709367, 0.302189, 0.709367, 0.302189, 0, 0
1, 3360.00000, 0.709367, 0.302189, 0.709367, 0.302189, 0.709367, 0.302189, 0, 0
1, 3420.00000, 0.709367, 0.302189, 0.709367, 0.302189, 0.709367, 0.302189, 0, 0
1, 3480.00000, 0.709367, 0.302189, 0.709367, 0.302189, 0.709367, 0.302189, 0, 0
1, 3540.00000, 0.709367, 0.302189, 0.709367, 0.302189, 0.709367, 0.302189, 0, 0
2, 0.00000, 0.709367, 0.302189, 0.709367, 0.302189, 0.709367, 0.302189, 0, 0
2, 60.00000, 0.754872, 0.321573, 0.75486, 0.32157, 0.754858, 0.321559, 0, 0
2, 120.00000, 0.754874, 0.321575, 0.754874, 0.321575, 0.754874, 0.321575, 0, 0
2, 180.00000, 0.754874, 0.321575, 0.754874, 0.321575, 0.754874, 0.321575, 0, 0
2, 240.00000, 0.754874, 0.321575, 0.754874, 0.321575, 0.754874, 0.321575, 0, 0
2, 300.00000, 0.754874, 0.321575, 0.754874, 0.321575, 0.754874, 0.321575, 0, 0
2, 360.00000, 0.754874, 0.321575, 0.754874, 0.321575, 0.754874, 0.321575, 0, 0
2, 420.00000, 0.754874, 0.321575, 0.754874, 0.321575, 0.754874, 0.321575, 0, 0
2, 480.00000, 0.754874, 0.321575, 0.754874, 0.321575, 0.754874, 0.321575, 0, 0
2, 540.00000, 0.754874, 0.321575, 0.754874, 0.321575, 0.754874, 0.321575, 0, 0
2, 600.00000, 0.754874, 0.321575, 0.754874, 0.321575, 0.754874, 0.321575, 0, 0
2, 660.00000, 0.754874, 0.321575, 0.754874, 0.321575, 0.754874, 0.321575, 0, 0
2, 720.00000, 0.754874, 0.321575, 0.754874, 0.321575, 0.754874, 0.321575, 0, 0
2, 780.00000, 0.754874, 0.321575, 0.754874, 0.321575, 0.754874, 0.321575, 0, 0
2, 840.00000, 0.754874, 0.321575, 0.754874, 0.321575, 0.754874, 0.321575, 0, 0
2, 900.00000, 0.754874, 0.321575, 0.754874, 0.321575, 0.754874, 0.321575, 0, 0
2, 960.00000, 0.725635, 0.309123, 0.72564, 0.309122, 0.725646, 0.309132, 0, 0
2, 1020.00000, 0.725626, 0.309116, 0.725626, 0.309115, 0.725627, 0.309116, 0, 0
2, 1080.00000, 0.725626, 0.309116, 0.725626, 0.309116, 0.725626, 0.309116, 0, 0
2, 1140.00000, 0.725626, 0.309116, 0.725626, 0.309116, 0.725626, 0.309116, 0, 0
2, 1200.00000, 0.725626, 0.309116, 0.725626, 0.309116, 0.725626, 0.309116, 0, 0
2, 1260.00000, 0.725626, 0.309116, 0.725626, 0.309116, 0.725626, 0.309116, 0, 0
2, 1320.00000, 0.725626, 0.309116, 0.725626, 0.309116, 0.725626, 0.309116, 0, 0
2, 1380.00000, 0.725626, 0.309116, 0.725626, 0.309116, 0.725626, 0.309116, 0, 0
2, 1440.00000, 0.725626, 0.309116, 0.725626, 0.309116, 0.725626, 0.309116, 0, 0
2, 1500.00000, 0.725626, 0.309116, 0.725626, 0.309116, 0.725626, 0.309116, 0, 0
2, 1560.00000, 0.725626, 0.309116, 0.725626, 0.309116, 0.725626, 0.309116, 0, 0
2, 1620.00000, 0.725626, 0.309116, 0.725626, 0.309116, 0.725626, 0.309116, 0, 0
2, 1680.00000, 0.725626, 0.309116, 0.725626, 0.309116, 0.725626, 0.309116, 0, 0
2, 1740.00000, 0.725626, 0.309116, 0.725626, 0.309116, 0.725626, 0.309116, 0, 0
2, 1800.00000, 0.725626, 0.309116, 0.725626, 0.309116, 0.725626, 0.309116, 0, 0
2, 1860.00000, 0.774873, 0.330092, 0.774875, 0.330095, 0.77487, 0.330091, 0, 0
2, 1920.00000, 0.774879, 0.330097, 0.774879, 0.330097, 0.774879, 0.330097, 0, 0
2, 1980.00000, 0.774879, 0.330097, 0.774879, 0.330097, 0.774879, 0.330097, 0, 0
2, 2040.00000, 0.774879, 0.330097, 0.774879, 0.330097, 0.774879, 0.330097, 0, 0
2, 2100.00000, 0.774879, 0.330097, 0.774879, 0.330097, 0.774879, 0.330097, 0, 0
2, 2160.00000, 0.774879, 0.330097, 0.774879, 0.330097, 0.774879, 0.330097, 0, 0
2, 2220.00000, 0.774879, 0.330097, 0.774879, 0.330097, 0.774879, 0.330097, 0, 0
2, 2280.00000, 0.774879, 0.330097, 0.774879, 0.330097, 0.774879, 0.330097, 0, 0
2, 2340.00000, 0.774879, 0.330097, 0.774879, 0.330097, 0.774879, 0.330097, 0, 0
2, 2400.00000, 0.774879, 0.330097, 0.774879, 0.330097, 0.774879, 0.330097, 0, 0
2, 2460.00000, 0.774879, 0.330097, 0.774879, 0.330097, 0.774879, 0.330097, 0, 0
2, 2520.00000, 0.774879, 0.330097, 0.774879, 0.330097, 0.774879, 0.330097, 0, 0
2, 2580.00000, 0.774879, 0.330097, 0.774879, 0.330097, 0.774879, 0.330097, 0, 0
2, 2640.00000, 0.774879, 0.330097, 0.774879, 0.330097, 0.774879, 0.330097, 0, 0
2, 2700.00000, 0.774879, 0.330097, 0.774879, 0.330097, 0.774879, 0.330097, 0, 0
2, 2760.00000, 0.715313, 0.304727, 0.715309, 0.304723, 0.715319, 0.304732, 0, 0
2, 2820.00000, 0.715296, 0.304715, 0.715296, 0.304715, 0.715296, 0.304715, 0, 0
2, 2880.00000, 0.715296, 0.304715, 0.715296, 0.304715, 0.715296, 0.304715, 0, 0
2, 2940.00000, 0.715296, 0.304715, 0.715296, 0.304715, 0.715296, 0.304715, 0, 0
2, 3000.00000, 0.715296, 0.304715, 0.715296, 0.304715, 0.715296, 0.304715, 0, 0
2, 3060.00000, 0.715296, 0.304715, 0.715296, 0.304715, 0.715296, 0.304715, 0, 0
2, 3120.00000, 0.715296, 0.304715, 0.715296, 0.304715, 0.715296, 0.304715, 0, 0
2, 3180.00000, 0.715296, 0.304715, 0.715296, 0.304715, 0.715296, 0.304715, 0, 0
2, 3240.00000, 0.715296, 0.304715, 0.715296, 0.304715, 0.715296, 0.304715, 0, 0
2, 3300.00000, 0.715296, 0.304715, 0.715296, 0.304715, 0.715296, 0.304715, 0, 0
2, 3360.00000, 0.715296, 0.304715, 0.715296, 0.304715, 0.715296, 0.304715, 0, 0
2, 3420.00000, 0.715296, 0.304715, 0.715296, 0.304715, 0.715296, 0.304715, 0, 0
2, 3480.00000, 0.715296, 0.304715, 0.715296, 0.304715, 0.715296, 0.304715, 0, 0
2, 3540.00000, 0.715296, 0.304715, 0.715296, 0.304715, 0.715296, 0.304715, 0, 0
3, 0.00000, 0.715296, 0.304715, 0.715296, 0.304715, 0.715296, 0.304715, 0, 0
3, 60.00000, 0.766073, 0.326343, 0.766076, 0.326346, 0.766071, 0.32634, 0, 0
3, 120.00000, 0.766084, 0.326351, 0.766084, 0.326351, 0.766084, 0.32635, 0, 0
3, 180.00000, 0.766084, 0.326351, 0.766084, 0.326351, 0.766084, 0.326351, 0, 0
3, 240.00000, 0.766084, 0.326351, 0.766084, 0.326351, 0.766084, 0.326351, 0, 0
3, 300.00000, 0.766084, 0.326351, 0.766084, 0.326351, 0.766084, 0.326351, 0, 0
3, 360.00000, 0.766084, 0.326351, 0.766084, 0.326351, 0.766084, 0.326351, 0, 0
3, 420.00000, 0.766084, 0.326351, 0.766084, 0.326351, 0.766084, 0.326351, 0, 0
3, 480.00000, 0.766084, 0.326351, 0.766084, 0.326351, 0.766084, 0.326351, 0, 0
3, 540.00000, 0.766084, 0.326351, 0.766084, 0.326351, 0.766084, 0.326351, 0, 0
3, 600.00000, 0.766084, 0.326351, 0.766084, 0.326351, 0.766084, 0.326351, 0, 0
3, 660.00000, 0.766084, 0.326351, 0.766084, 0.326351, 0.766084, 0.326351, 0, 0
3, 720.00000, 0.766084, 0.326351, 0.766084, 0.326351, 0.766084, 0.326351, 0, 0
3, 780.00000, 0.766084, 0.326351, 0.766084, 0.326351, 0.766084, 0.326351, 0, 0
3, 840.00000, 0.766084, 0.326351, 0.766084, 0.326351, 0.766084, 0.326351, 0, 0
3, 900.00000, 0.766084, 0.326351, 0.766084, 0.326351, 0.766084, 0.326351, 0, 0
3, 960.00000, 0.707683, 0.301478, 0.70768, 0.301476, 0.707685, 0.301481, 0, 0
3, 1020.00000, 0.707661, 0.301462, 0.707661, 0.301462, 0.707661, 0.301462, 0, 0
3, 1080.00000, 0.707661, 0.301462, 0.707661, 0.301462, 0.707661, 0.301462, 0, 0
3, 1140.00000, 0.707661, 0.301462, 0.707661, 0.301462, 0.707661, 0.301462, 0, 0
3, 1200.00000, 0.707661, 0.301462, 0.707661, 0.301462, 0.707661, 0.301462, 0, 0
3, 1260.00000, 0.707661, 0.301462, 0.707661, 0.301462, 0.707661, 0.301462, 0, 0
3, 1320.00000, 0.707661, 0.301462, 0.707661, 0.301462, 0.707661, 0.301462, 0, 0
3, 1380.00000, 0.707661, 0.301462, 0.707661, 0.301462, 0.707661, 0.301462, 0, 0
3, 1440.00000, 0.707661, 0.301462, 0.707661, 0.301462, 0.707661, 0.301462, 0, 0
3, 1500.00000, 0.707661, 0.301462, 0.707661, 0.301462, 0.707661, 0.301462, 0, 0
3, 1560.00000, 0.707661, 0.301462, 0.707661, 0.301462, 0.707661, 0.301462, 0, 0
3, 1620.00000, 0.707661, 0.301462, 0.707661, 0.301462, 0.707661, 0.301462, 0, 0
3, 1680.00000, 0.707661, 0.301462, 0.707661, 0.301462, 0.707661, 0.301462, 0, 0
3, 1740.00000, 0.707661, 0.301462, 0.707661, 0.301462, 0.707661, 0.301462, 0, 0
3, 1800.00000, 0.707661, 0.301462, 0.707661, 0.301462, 0.707661, 0.301462, 0, 0
3, 1860.00000, 0.659437, 0.280922, 0.659431, 0.280921, 0.659433, 0.280923, 0, 0
3, 1920.00000, 0.659414, 0.280909, 0.659414, 0.280909, 0.659414, 0.280909, 0, 0
3, 1980.00000, 0.659414, 0.280909, 0.659414, 0.280909, 0.659414, 0.280909, 0, 0
3, 2040.00000, 0.659414, 0.280909, 0.659414, 0.280909, 0.659414, 0.280909, 0, 0
3, 2100.00000, 0.659414, 0.280909, 0.659414, 0.280909, 0.659414, 0.280909, 0, 0
3, 2160.00000, 0.659414, 0.280909, 0.659414, 0.280909, 0.659414, 0.280909, 0, 0
3, 2220.00000, 0.659414, 0.280909, 0.659414, 0.280909, 0.659414, 0.280909, 0, 0
3, 2280.00000, 0.659414, 0.280909, 0.659414, 0.280909, 0.659414, 0.280909, 0, 0
3, 2340.00000, 0.659414, 0.280909, 0.659414, 0.280909, 0.659414, 0.280909, 0, 0
3, 2400.00000, 0.659414, 0.280909, 0.659414, 0.280909, 0.659414, 0.280909, 0, 0
3, 2460.00000, 0.659414, 0.280909, 0.659414, 0.280909, 0.659414, 0.280909, 0, 0
3, 2520.00000, 0.659414, 0.280909, 0.659414, 0.280909, 0.659414, 0.280909, 0, 0
3, 2580.00000, 0.659414, 0.280909, 0.659414, 0.280909, 0.659414, 0.280909, 0, 0
3, 2640.00000, 0.659414, 0.280909, 0.659414, 0.280909, 0.659414, 0.280909, 0, 0
3, 2700.00000, 0.659414, 0.280909, 0.659414, 0.280909, 0.659414, 0.280909, 0, 0
3, 2760.00000, 0.695047, 0.296094, 0.695043, 0.296091, 0.69505, 0.296097, 0, 0
3, 2820.00000, 0.69503, 0.296082, 0.69503, 0.296082, 0.69503, 0.296082, 0, 0
3, 2880.00000, 0.69503, 0.296082, 0.69503, 0.296082, 0.69503, 0.296082, 0, 0
3, 2940.00000, 0.69503, 0.296082, 0.69503, 0.296082, 0.69503, 0.296082, 0, 0
3, 3000.00000, 0.69503, 0.296082, 0.69503, 0.296082, 0.69503, 0.296082, 0, 0
3, 3060.00000, 0.69503, 0.296082, 0.69503, 0.296082, 0.69503, 0.296082, 0, 0
3, 3120.00000, 0.69503, 0.296082, 0.69503, 0.296082, 0.69503, 0.296082, 0, 0
3, 3180.00000, 0.69503, 0.296082, 0.69503, 0.296082, 0.69503, 0.296082, 0, 0
3, 3240.00000, 0.69503, 0.296082, 0.69503, 0.296082, 0.69503, 0.296082, 0, 0
3, 3300.00000, 0.69503, 0.296082, 0.69503, 0.296082, 0.69503, 0.296082, 0, 0
3, 3360.00000, 0.69503, 0.296082, 0.69503, 0.296082, 0.69503, 0.296082, 0, 0
3, 3420.00000, 0.69503, 0.296082, 0.69503, 0.296082, 0.69503, 0.296082, 0, 0
3, 3480.00000, 0.69503, 0.296082, 0.69503, 0.296082, 0.69503, 0.296082, 0, 0
3, 3540.00000, 0.69503, 0.296082, 0.69503, 0.296082, 0.69503, 0.296082, 0, 0
4, 0.00000, 0.69503, 0.296082, 0.69503, 0.296082, 0.69503, 0.296082, 0, 0
4, 60.00000, 0.653273, 0.27829, 0.653277, 0.278292, 0.653272, 0.278288, 0, 0
4, 120.00000, 0.653284, 0.278298, 0.653284, 0.278298, 0.653284, 0.278298, 0, 0
4, 180.00000, 0.653284, 0.278298, 0.653284, 0.278298, 0.653284, 0.278298, 0, 0
4, 240.00000, 0.653284, 0.278298, 0.653284, 0.278298, 0.653284, 0.278298, 0, 0
4, 300.00000, 0.653284, 0.278298, 0.653284, 0.278298, 0.653284, 0.278298, 0, 0
4, 360.00000, 0.653284, 0.278298, 0.653284, 0.278298, 0.653284, 0.278298, 0, 0
4, 420.00000, 0.653284, 0.278298, 0.653284, 0.278298, 0.653284, 0.278298, 0, 0
4, 480.00000, 0.653284, 0.278298, 0.653284, 0.278298, 0.653284, 0.278298, 0, 0
4, 540.00000, 0.653284, 0.278298, 0.653284, 0.278298, 0.653284, 0.278298, 0, 0
4, 600.00000, 0.653284, 0.278298, 0.653284, 0.278298, 0.653284, 0.278298, 0, 0
4, 660.00000, 0.653284, 0.278298, 0.653284, 0.278298, 0.653284, 0.278298, 0, 0
