hour,t(sec),V1,VAngle1,V2,VAngle2,V3,VAngle3,V4,VAngle4,I1,IAngle1,I2,IAngle2,I3,IAngle3,I4,IAngle4
0, 60.00000, 117.855, -31.3369, 118.347, -150.76, 119.805, 88.7529, 0, 0, 1.33835, -54.4107, 1.34456, -173.834, 1.36296, 65.6792, 0.00983285, -110.377
0, 120.00000, 117.855, -31.3369, 118.347, -150.76, 119.805, 88.7529, 0, 0, 1.33834, -54.4109, 1.34455, -173.834, 1.36295, 65.679, 0.00983886, -110.384
0, 180.00000, 117.855, -31.3369, 118.347, -150.76, 119.805, 88.7529, 0, 0, 1.33834, -54.4109, 1.34455, -173.834, 1.36295, 65.679, 0.00983891, -110.384
0, 240.00000, 117.855, -31.3369, 118.347, -150.76, 119.805, 88.7529, 0, 0, 1.33834, -54.4109, 1.34455, -173.834, 1.36295, 65.679, 0.00983891, -110.384
0, 300.00000, 117.855, -31.3369, 118.347, -150.76, 119.805, 88.7529, 0, 0, 1.33834, -54.4109, 1.34455, -173.834, 1.36295, 65.679, 0.00983891, -110.384
0, 360.00000, 117.855, -31.3369, 118.347, -150.76, 119.805, 88.7529, 0, 0, 1.33834, -54.4109, 1.34455, -173.834, 1.36295, 65.679, 0.00983891, -110.384
0, 420.00000, 117.855, -31.3369, 118.347, -150.76, 119.805, 88.7529, 0, 0, 1.33834, -54.4109, 1.34455, -173.834, 1.36295, 65.679, 0.00983891, -110.384
0, 480.00000, 118.719, -31.2344, 119.195, -150.66, 120.647, 88.8698, 0, 0, 1.50567, -54.3087, 1.51236, -173.734, 1.53279, 65.7954, 0.0107207, -109.294
0, 540.00000, 118.719, -31.2344, 119.196, -150.66, 120.647, 88.8698, 0, 0, 1.50568, -54.3083, 1.51239, -173.734, 1.53283, 65.7959, 0.0107472, -109.197
0, 600.00000, 118.719, -31.2344, 119.196, -150.66, 120.647, 88.8698, 0, 0, 1.50568, -54.3083, 1.51239, -173.734, 1.53283, 65.7959, 0.0107473, -109.196
0, 660.00000, 118.719, -31.2344, 119.196, -150.66, 120.647, 88.8698, 0, 0, 1.50568, -54.3083, 1.51239, -173.734, 1.53283, 65.7959, 0.0107473, -109.196
0, 720.00000, 118.719, -31.2344, 119.196, -150.66, 120.647, 88.8698, 0, 0, 1.50568, -54.3083, 1.51239, -173.734, 1.53283, 65.7959, 0.0107473, -109.196
0, 780.00000, 118.719, -31.2344, 119.196, -150.66, 120.647, 88.8698, 0, 0, 1.50568, -54.3083, 1.51239, -173.734, 1.53283, 65.7959, 0.0107473, -109.196
0, 840.00000, 118.719, -31.2344, 119.196, -150.66, 120.647, 88.8698, 0, 0, 1.50568, -54.3083, 1.51239, -173.734, 1.53283, 65.7959, 0.0107473, -109.196
0, 900.00000, 118.719, -31.2344, 119.196, -150.66, 120.647, 88.8698, 0, 0, 1.50568, -54.3083, 1.51239, -173.734, 1.53283, 65.7959, 0.0107473, -109.196
0, 960.00000, 118.719, -31.2344, 119.196, -150.66, 120.647, 88.8698, 0, 0, 1.50568, -54.3083, 1.51239, -173.734, 1.53283, 65.7959, 0.0107473, -109.196
0, 1020.00000, 118.719, -31.2344, 119.196, -150.66, 120.647, 88.8698, 0, 0, 1.50568, -54.3083, 1.51239, -173.734, 1.53283, 65.7959, 0.0107473, -109.196
0, 1080.00000, 118.719, -31.2344, 119.196, -150.66, 120.647, 88.8698, 0, 0, 1.50568, -54.3083, 1.51239, -173.734, 1.53283, 65.7959, 0.0107473, -109.196
0, 1140.00000, 118.719, -31.2344, 119.196, -150.66, 120.647, 88.8698, 0, 0, 1.50568, -54.3083, 1.51239, -173.734, 1.53283, 65.7959, 0.0107473, -109.196
0, 1200.00000, 118.719, -31.2344, 119.196, -150.66, 120.647, 88.8698, 0, 0, 1.50568, -54.3083, 1.51239, -173.734, 1.53283, 65.7959, 0.0107473, -109.196
0, 1260.00000, 118.719, -31.2344, 119.196, -150.66, 120.647, 88.8698, 0, 0, 1.50568, -54.3083, 1.51239, -173.734, 1.53283, 65.7959, 0.0107473, -109.196
0, 1320.00000, 118.719, -31.2344, 119.196, -150.66, 120.647, 88.8698, 0, 0, 1.50568, -54.3083, 1.51239, -173.734, 1.53283, 65.7959, 0.0107473, -109.196
0, 1380.00000, 118.719, -31.2344, 119.196, -150.66, 120.647, 88.8698, 0, 0, 1.50568, -54.3083, 1.51239, -173.734, 1.53283, 65.7959, 0.0107473, -109.196
0, 1440.00000, 118.719, -31.2344, 119.196, -150.66, 120.647, 88.8698, 0, 0, 1.50568, -54.3083, 1.51239, -173.734, 1.53283, 65.7959, 0.0107473, -109.196
0, 1500.00000, 118.719, -31.2344, 119.196, -150.66, 120.647, 88.8698, 0, 0, 1.50568, -54.3083, 1.51239, -173.734, 1.53283, 65.7959, 0.0107473, -109.196
0, 1560.00000, 118.719, -31.2344, 119.196, -150.66, 120.647, 88.8698, 0, 0, 1.50568, -54.3083, 1.51239, -173.734, 1.53283, 65.7959, 0.0107473, -109.196
0, 1620.00000, 118.719, -31.2344, 119.196, -150.66, 120.647, 88.8698, 0, 0, 1.50568, -54.3083, 1.51239, -173.734, 1.53283, 65.7959, 0.0107473, -109.196
0, 1680.00000, 118.719, -31.2344, 119.196, -150.66, 120.647, 88.8698, 0, 0, 1.50568, -54.3083, 1.51239, -173.734, 1.53283, 65.7959, 0.0107473, -109.196
0, 1740.00000, 118.719, -31.2344, 119.196, -150.66, 120.647, 88.8698, 0, 0, 1.50568, -54.3083, 1.51239, -173.734, 1.53283, 65.7959, 0.0107473, -109.196
0, 1800.00000, 118.719, -31.2344, 119.196, -150.66, 120.647, 88.8698, 0, 0, 1.50568, -54.3083, 1.51239, -173.734, 1.53283, 65.7959, 0.0107473, -109.196
0, 1860.00000, 118.719, -31.2344, 119.196, -150.66, 120.647, 88.8698, 0, 0, 1.50568, -54.3083, 1.51239, -173.734, 1.53283, 65.7959, 0.0107473, -109.196
0, 1920.00000, 118.719, -31.2344, 119.196, -150.66, 120.647, 88.8698, 0, 0, 1.50568, -54.3083, 1.51239, -173.734, 1.53283, 65.7959, 0.0107473, -109.196
0, 1980.00000, 118.719, -31.2344, 119.196, -150.66, 120.647, 88.8698, 0, 0, 1.50568, -54.3083, 1.51239, -173.734, 1.53283, 65.7959, 0.0107473, -109.196
0, 2040.00000, 118.719, -31.2344, 119.196, -150.66, 120.647, 88.8698, 0, 0, 1.50568, -54.3083, 1.51239, -173.734, 1.53283, 65.7959, 0.0107473, -109.196
0, 2100.00000, 118.719, -31.2344, 119.196, -150.66, 120.647, 88.8698, 0, 0, 1.50568, -54.3083, 1.51239, -173.734, 1.53283, 65.7959, 0.0107473, -109.196
0, 2160.00000, 118.719, -31.2344, 119.196, -150.66, 120.647, 88.8698, 0, 0, 1.50568, -54.3083, 1.51239, -173.734, 1.53283, 65.7959, 0.0107473, -109.196
0, 2220.00000, 118.719, -31.2344, 119.196, -150.66, 120.647, 88.8698, 0, 0, 1.50568, -54.3083, 1.51239, -173.734, 1.53283, 65.7959, 0.0107473, -109.196
0, 2280.00000, 118.719, -31.2344, 119.196, -150.66, 120.647, 88.8698, 0, 0, 1.50568, -54.3083, 1.51239, -173.734, 1.53283, 65.7959, 0.0107473, -109.196
0, 2340.00000, 118.719, -31.2344, 119.196, -150.66, 120.647, 88.8698, 0, 0, 1.50568, -54.3083, 1.51239, -173.734, 1.53283, 65.7959, 0.0107473, -109.196
0, 2400.00000, 118.719, -31.2344, 119.196, -150.66, 120.647, 88.8698, 0, 0, 1.50568, -54.3083, 1.51239, -173.734, 1.53283, 65.7959, 0.0107473, -109.196
0, 2460.00000, 118.719, -31.2344, 119.196, -150.66, 120.647, 88.8698, 0, 0, 1.50568, -54.3083, 1.51239, -173.734, 1.53283, 65.7959, 0.0107473, -109.196
0, 2520.00000, 118.719, -31.2344, 119.196, -150.66, 120.647, 88.8698, 0, 0, 1.50568, -54.3083, 1.51239, -173.734, 1.53283, 65.7959, 0.0107473, -109.196
0, 2580.00000, 118.719, -31.2344, 119.196, -150.66, 120.647, 88.8698, 0, 0, 1.50568, -54.3083, 1.51239, -173.734, 1.53283, 65.7959, 0.0107473, -109.196
0, 2640.00000, 118.719, -31.2344, 119.196, -150.66, 120.647, 88.8698, 0, 0, 1.50568, -54.3083, 1.51239, -173.734, 1.53283, 65.7959, 0.0107473, -109.196
0, 2700.00000, 118.719, -31.2344, 119.196, -150.66, 120.647, 88.8698, 0, 0, 1.50568, -54.3083, 1.51239, -173.734, 1.53283, 65.7959, 0.0107473, -109.196
0, 2760.00000, 118.719, -31.2344, 119.196, -150.66, 120.647, 88.8698, 0, 0, 1.50568, -54.3083, 1.51239, -173.734, 1.53283, 65.7959, 0.0107473, -109.196
0, 2820.00000, 118.719, -31.2344, 119.196, -150.66, 120.647, 88.8698, 0, 0, 1.50568, -54.3083, 1.51239, -173.734, 1.53283, 65.7959, 0.0107473, -109.196
0, 2880.00000, 118.719, -31.2344, 119.196, -150.66, 120.647, 88.8698, 0, 0, 1.50568, -54.3083, 1.51239, -173.734, 1.53283, 65.7959, 0.0107473, -109.196
0, 2940.00000, 118.719, -31.2344, 119.196, -150.66, 120.647, 88.8698, 0, 0, 1.50568, -54.3083, 1.51239, -173.734, 1.53283, 65.7959, 0.0107473, -109.196
0, 3000.00000, 118.719, -31.2344, 119.196, -150.66, 120.647, 88.8698, 0, 0, 1.50568, -54.3083, 1.51239, -173.734, 1.53283, 65.7959, 0.0107473, -109.196
0, 3060.00000, 118.719, -31.2344, 119.196, -150.66, 120.647, 88.8698, 0, 0, 1.50568, -54.3083, 1.51239, -173.734, 1.53283, 65.7959, 0.0107473, -109.196
0, 3120.00000, 118.719, -31.2344, 119.196, -150.66, 120.647, 88.8698, 0, 0, 1.50568, -54.3083, 1.51239, -173.734, 1.53283, 65.7959, 0.0107473, -109.196
0, 3180.00000, 118.719, -31.2344, 119.196, -150.66, 120.647, 88.8698, 0, 0, 1.50568, -54.3083, 1.51239, -173.734, 1.53283, 65.7959, 0.0107473, -109.196
0, 3240.00000, 118.719, -31.2344, 119.196, -150.66, 120.647, 88.8698, 0, 0, 1.50568, -54.3083, 1.51239, -173.734, 1.53283, 65.7959, 0.0107473, -109.196
0, 3300.00000, 118.719, -31.2344, 119.196, -150.66, 120.647, 88.8698, 0, 0, 1.50568, -54.3083, 1.51239, -173.734, 1.53283, 65.7959, 0.0107473, -109.196
0, 3360.00000, 118.719, -31.2344, 119.196, -150.66, 120.647, 88.8698, 0, 0, 1.50568, -54.3083, 1.51239, -173.734, 1.53283, 65.7959, 0.0107473, -109.196
0, 3420.00000, 118.719, -31.2344, 119.196, -150.66, 120.647, 88.8698, 0, 0, 1.50568, -54.3083, 1.51239, -173.734, 1.53283, 65.7959, 0.0107473, -109.196
0, 3480.00000, 118.719, -31.2344, 119.196, -150.66, 120.647, 88.8698, 0, 0, 1.50568, -54.3083, 1.51239, -173.734, 1.53283, 65.7959, 0.0107473, -109.196
0, 3540.00000, 118.719, -31.2344, 119.196, -150.66, 120.647, 88.8698, 0, 0, 1.50568, -54.3083, 1.51239, -173.734, 1.53283, 65.7959, 0.0107473, -109.196
1, 0.00000, 118.719, -31.2344, 119.196, -150.66, 120.647, 88.8698, 0, 0, 1.50568, -54.3083, 1.51239, -173.734, 1.53283, 65.7959, 0.0107473, -109.196
1, 60.00000, 118.719, -31.2344, 119.196, -150.66, 120.647, 88.8698, 0, 0, 1.50568, -54.3083, 1.51239, -173.734, 1.53283, 65.7959, 0.0107473, -109.196
1, 120.00000, 118.719, -31.2344, 119.196, -150.66, 120.647, 88.8698, 0, 0, 1.50568, -54.3083, 1.51239, -173.734, 1.53283, 65.7959, 0.0107473, -109.196
1, 180.00000, 118.719, -31.2344, 119.196, -150.66, 120.647, 88.8698, 0, 0, 1.50568, -54.3083, 1.51239, -173.734, 1.53283, 65.7959, 0.0107473, -109.196
1, 240.00000, 118.719, -31.2344, 119.196, -150.66, 120.647, 88.8698, 0, 0, 1.50568, -54.3083, 1.51239, -173.734, 1.53283, 65.7959, 0.0107473, -109.196
1, 300.00000, 118.719, -31.2344, 119.196, -150.66, 120.647, 88.8698, 0, 0, 1.50568, -54.3083, 1.51239, -173.734, 1.53283, 65.7959, 0.0107473, -109.196
1, 360.00000, 118.719, -31.2344, 119.196, -150.66, 120.647, 88.8698, 0, 0, 1.50568, -54.3083, 1.51239, -173.734, 1.53283, 65.7959, 0.0107473, -109.196
1, 420.00000, 118.719, -31.2344, 119.196, -150.66, 120.647, 88.8698, 0, 0, 1.50568, -54.3083, 1.51239, -173.734, 1.53283, 65.7959, 0.0107473, -109.196
1, 480.00000, 118.719, -31.2344, 119.196, -150.66, 120.647, 88.8698, 0, 0, 1.50568, -54.3083, 1.51239, -173.734, 1.53283, 65.7959, 0.0107473, -109.196
1, 540.00000, 118.719, -31.2344, 119.196, -150.66, 120.647, 88.8698, 0, 0, 1.50568, -54.3083, 1.51239, -173.734, 1.53283, 65.7959, 0.0107473, -109.196
1, 600.00000, 118.719, -31.2344, 119.196, -150.66, 120.647, 88.8698, 0, 0, 1.50568, -54.3083, 1.51239, -173.734, 1.53283, 65.7959, 0.0107473, -109.196
1, 660.00000, 118.719, -31.2344, 119.196, -150.66, 120.647, 88.8698, 0, 0, 1.50568, -54.3083, 1.51239, -173.734, 1.53283, 65.7959, 0.0107473, -109.196
1, 720.00000, 118.719, -31.2344, 119.196, -150.66, 120.647, 88.8698, 0, 0, 1.50568, -54.3083, 1.51239, -173.734, 1.53283, 65.7959, 0.0107473, -109.196
1, 780.00000, 118.719, -31.2344, 119.196, -150.66, 120.647, 88.8698, 0, 0, 1.50568, -54.3083, 1.51239, -173.734, 1.53283, 65.7959, 0.0107473, -109.196
1, 840.00000, 118.719, -31.2344, 119.196, -150.66, 120.647, 88.8698, 0, 0, 1.50568, -54.3083, 1.51239, -173.734, 1.53283, 65.7959, 0.0107473, -109.196
1, 900.00000, 118.719, -31.2344, 119.196, -150.66, 120.647, 88.8698, 0, 0, 1.50568, -54.3083, 1.51239, -173.734, 1.53283, 65.7959, 0.0107473, -109.196
1, 960.00000, 118.719, -31.2344, 119.196, -150.66, 120.647, 88.8698, 0, 0, 1.50568, -54.3083, 1.51239, -173.734, 1.53283, 65.7959, 0.0107473, -109.196
1, 1020.00000, 118.719, -31.2344, 119.196, -150.66, 120.647, 88.8698, 0, 0, 1.50568, -54.3083, 1.51239, -173.734, 1.53283, 65.7959, 0.0107473, -109.196
1, 1080.00000, 118.719, -31.2344, 119.196, -150.66, 120.647, 88.8698, 0, 0, 1.50568, -54.3083, 1.51239, -173.734, 1.53283, 65.7959, 0.0107473, -109.196
1, 1140.00000, 118.719, -31.2344, 119.196, -150.66, 120.647, 88.8698, 0, 0, 1.50568, -54.3083, 1.51239, -173.734, 1.53283, 65.7959, 0.0107473, -109.196
1, 1200.00000, 118.719, -31.2344, 119.196, -150.66, 120.647, 88.8698, 0, 0, 1.50568, -54.3083, 1.51239, -173.734, 1.53283, 65.7959, 0.0107473, -109.196
1, 1260.00000, 118.719, -31.2344, 119.196, -150.66, 120.647, 88.8698, 0, 0, 1.50568, -54.3083, 1.51239, -173.734, 1.53283, 65.7959, 0.0107473, -109.196
1, 1320.00000, 118.719, -31.2344, 119.196, -150.66, 120.647, 88.8698, 0, 0, 1.50568, -54.3083, 1.51239, -173.734, 1.53283, 65.7959, 0.0107473, -109.196
1, 1380.00000, 118.719, -31.2344, 119.196, -150.66, 120.647, 88.8698, 0, 0, 1.50568, -54.3083, 1.51239, -173.734, 1.53283, 65.7959, 0.0107473, -109.196
1, 1440.00000, 118.719, -31.2344, 119.196, -150.66, 120.647, 88.8698, 0, 0, 1.50568, -54.3083, 1.51239, -173.734, 1.53283, 65.7959, 0.0107473, -109.196
1, 1500.00000, 118.719, -31.2344, 119.196, -150.66, 120.647, 88.8698, 0, 0, 1.50568, -54.3083, 1.51239, -173.734, 1.53283, 65.7959, 0.0107473, -109.196
1, 1560.00000, 118.719, -31.2344, 119.196, -150.66, 120.647, 88.8698, 0, 0, 1.50568, -54.3083, 1.51239, -173.734, 1.53283, 65.7959, 0.0107473, -109.196
1, 1620.00000, 118.719, -31.2344, 119.196, -150.66, 120.647, 88.8698, 0, 0, 1.50568, -54.3083, 1.51239, -173.734, 1.53283, 65.7959, 0.0107473, -109.196
1, 1680.00000, 118.719, -31.2344, 119.196, -150.66, 120.647, 88.8698, 0, 0, 1.50568, -54.3083, 1.51239, -173.734, 1.53283, 65.7959, 0.0107473, -109.196
1, 1740.00000, 118.719, -31.2344, 119.196, -150.66, 120.647, 88.8698, 0, 0, 1.50568, -54.3083, 1.51239, -173.734, 1.53283, 65.7959, 0.0107473, -109.196
1, 1800.00000, 118.719, -31.2344, 119.196, -150.66, 120.647, 88.8698, 0, 0, 1.50568, -54.3083, 1.51239, -173.734, 1.53283, 65.7959, 0.0107473, -109.196
1, 1860.00000, 118.719, -31.2344, 119.196, -150.66, 120.647, 88.8698, 0, 0, 1.50568, -54.3083, 1.51239, -173.734, 1.53283, 65.7959, 0.0107473, -109.196
1, 1920.00000, 118.719, -31.2344, 119.196, -150.66, 120.647, 88.8698, 0, 0, 1.50568, -54.3083, 1.51239, -173.734, 1.53283, 65.7959, 0.0107473, -109.196
1, 1980.00000, 118.719, -31.2344, 119.196, -150.66, 120.647, 88.8698, 0, 0, 1.50568, -54.3083, 1.51239, -173.734, 1.53283, 65.7959, 0.0107473, -109.196
1, 2040.00000, 118.719, -31.2344, 119.196, -150.66, 120.647, 88.8698, 0, 0, 1.50568, -54.3083, 1.51239, -173.734, 1.53283, 65.7959, 0.0107473, -109.196
1, 2100.00000, 118.719, -31.2344, 119.196, -150.66, 120.647, 88.8698, 0, 0, 1.50568, -54.3083, 1.51239, -173.734, 1.53283, 65.7959, 0.0107473, -109.196
1, 2160.00000, 118.719, -31.2344, 119.196, -150.66, 120.647, 88.8698, 0, 0, 1.50568, -54.3083, 1.51239, -173.734, 1.53283, 65.7959, 0.0107473, -109.196
1, 2220.00000, 118.719, -31.2344, 119.196, -150.66, 120.647, 88.8698, 0, 0, 1.50568, -54.3083, 1.51239, -173.734, 1.53283, 65.7959, 0.0107473, -109.196
1, 2280.00000, 118.719, -31.2344, 119.196, -150.66, 120.647, 88.8698, 0, 0, 1.50568, -54.3083, 1.51239, -173.734, 1.53283, 65.7959, 0.0107473, -109.196
1, 2340.00000, 118.719, -31.2344, 119.196, -150.66, 120.647, 88.8698, 0, 0, 1.50568, -54.3083, 1.51239, -173.734, 1.53283, 65.7959, 0.0107473, -109.196
1, 2400.00000, 118.719, -31.2344, 119.196, -150.66, 120.647, 88.8698, 0, 0, 1.50568, -54.3083, 1.51239, -173.734, 1.53283, 65.7959, 0.0107473, -109.196
1, 2460.00000, 118.719, -31.2344, 119.196, -150.66, 120.647, 88.8698, 0, 0, 1.50568, -54.3083, 1.51239, -173.734, 1.53283, 65.7959, 0.0107473, -109.196
1, 2520.00000, 118.719, -31.2344, 119.196, -150.66, 120.647, 88.8698, 0, 0, 1.50568, -54.3083, 1.51239, -173.734, 1.53283, 65.7959, 0.0107473, -109.196
1, 2580.00000, 118.719, -31.2344, 119.196, -150.66, 120.647, 88.8698, 0, 0, 1.50568, -54.3083, 1.51239, -173.734, 1.53283, 65.7959, 0.0107473, -109.196
1, 2640.00000, 118.719, -31.2344, 119.196, -150.66, 120.647, 88.8698, 0, 0, 1.50568, -54.3083, 1.51239, -173.734, 1.53283, 65.7959, 0.0107473, -109.196
1, 2700.00000, 118.719, -31.2344, 119.196, -150.66, 120.647, 88.8698, 0, 0, 1.50568, -54.3083, 1.51239, -173.734, 1.53283, 65.7959, 0.0107473, -109.196
1, 2760.00000, 118.719, -31.2344, 119.196, -150.66, 120.647, 88.8698, 0, 0, 1.50568, -54.3083, 1.51239, -173.734, 1.53283, 65.7959, 0.0107473, -109.196
1, 2820.00000, 118.719, -31.2344, 119.196, -150.66, 120.647, 88.8698, 0, 0, 1.50568, -54.3083, 1.51239, -173.734, 1.53283, 65.7959, 0.0107473, -109.196
1, 2880.00000, 118.719, -31.2344, 119.196, -150.66, 120.647, 88.8698, 0, 0, 1.50568, -54.3083, 1.51239, -173.734, 1.53283, 65.7959, 0.0107473, -109.196
1, 2940.00000, 118.719, -31.2344, 119.196, -150.66, 120.647, 88.8698, 0, 0, 1.50568, -54.3083, 1.51239, -173.734, 1.53283, 65.7959, 0.0107473, -109.196
1, 3000.00000, 118.719, -31.2344, 119.196, -150.66, 120.647, 88.8698, 0, 0, 1.50568, -54.3083, 1.51239, -173.734, 1.53283, 65.7959, 0.0107473, -109.196
1, 3060.00000, 118.719, -31.2344, 119.196, -150.66, 120.647, 88.8698, 0, 0, 1.50568, -54.3083, 1.51239, -173.734, 1.53283, 65.7959, 0.0107473, -109.196
1, 3120.00000, 118.719, -31.2344, 119.196, -150.66, 120.647, 88.8698, 0, 0, 1.50568, -54.3083, 1.51239, -173.734, 1.53283, 65.7959, 0.0107473, -109.196
1, 3180.00000, 118.719, -31.2344, 119.196, -150.66, 120.647, 88.8698, 0, 0, 1.50568, -54.3083, 1.51239, -173.734, 1.53283, 65.7959, 0.0107473, -109.196
1, 3240.00000, 118.719, -31.2344, 119.196, -150.66, 120.647, 88.8698, 0, 0, 1.50568, -54.3083, 1.51239, -173.734, 1.53283, 65.7959, 0.0107473, -109.196
1, 3300.00000, 118.719, -31.2344, 119.196, -150.66, 120.647, 88.8698, 0, 0, 1.50568, -54.3083, 1.51239, -173.734, 1.53283, 65.7959, 0.0107473, -109.196
1, 3360.00000, 118.719, -31.2344, 119.196, -150.66, 120.647, 88.8698, 0, 0, 1.50568, -54.3083, 1.51239, -173.734, 1.53283, 65.7959, 0.0107473, -109.196
1, 3420.00000, 118.719, -31.2344, 119.196, -150.66, 120.647, 88.8698, 0, 0, 1.50568, -54.3083, 1.51239, -173.734, 1.53283, 65.7959, 0.0107473, -109.196
1, 3480.00000, 118.719, -31.2344, 119.196, -150.66, 120.647, 88.8698, 0, 0, 1.50568, -54.3083, 1.51239, -173.734, 1.53283, 65.7959, 0.0107473, -109.196
1, 3540.00000, 118.719, -31.2344, 119.196, -150.66, 120.647, 88.8698, 0, 0, 1.50568, -54.3083, 1.51239, -173.734, 1.53283, 65.7959, 0.0107473, -109.196
2, 0.00000, 118.719, -31.2344, 119.196, -150.66, 120.647, 88.8698, 0, 0, 1.50568, -54.3083, 1.51239, -173.734, 1.53283, 65.7959, 0.0107473, -109.196
2, 60.00000, 118.719, -31.2344, 119.196, -150.66, 120.647, 88.8698, 0, 0, 1.50568, -54.3083, 1.51239, -173.734, 1.53283, 65.7959, 0.0107473, -109.196
2, 120.00000, 118.719, -31.2344, 119.196, -150.66, 120.647, 88.8698, 0, 0, 1.50568, -54.3083, 1.51239, -173.734, 1.53283, 65.7959, 0.0107473, -109.196
2, 180.00000, 118.719, -31.2344, 119.196, -150.66, 120.647, 88.8698, 0, 0, 1.50568, -54.3083, 1.51239, -173.734, 1.53283, 65.7959, 0.0107473, -109.196
2, 240.00000, 118.719, -31.2344, 119.196, -150.66, 120.647, 88.8698, 0, 0, 1.50568, -54.3083, 1.51239, -173.734, 1.53283, 65.7959, 0.0107473, -109.196
2, 300.00000, 118.719, -31.2344, 119.196, -150.66, 120.647, 88.8698, 0, 0, 1.50568, -54.3083, 1.51239, -173.734, 1.53283, 65.7959, 0.0107473, -109.196
2, 360.00000, 118.719, -31.2344, 119.196, -150.66, 120.647, 88.8698, 0, 0, 1.50568, -54.3083, 1.51239, -173.734, 1.53283, 65.7959, 0.0107473, -109.196
2, 420.00000, 118.719, -31.2344, 119.196, -150.66, 120.647, 88.8698, 0, 0, 1.50568, -54.3083, 1.51239, -173.734, 1.53283, 65.7959, 0.0107473, -109.196
2, 480.00000, 118.719, -31.2344, 119.196, -150.66, 120.647, 88.8698, 0, 0, 1.50568, -54.3083, 1.51239, -173.734, 1.53283, 65.7959, 0.0107473, -109.196
2, 540.00000, 118.719, -31.2344, 119.196, -150.66, 120.647, 88.8698, 0, 0, 1.50568, -54.3083, 1.51239, -173.734, 1.53283, 65.7959, 0.0107473, -109.196
2, 600.00000, 118.719, -31.2344, 119.196, -150.66, 120.647, 88.8698, 0, 0, 1.50568, -54.3083, 1.51239, -173.734, 1.53283, 65.7959, 0.0107473, -109.196
2, 660.00000, 118.719, -31.2344, 119.196, -150.66, 120.647, 88.8698, 0, 0, 1.50568, -54.3083, 1.51239, -173.734, 1.53283, 65.7959, 0.0107473, -109.196
