hour,t(sec),V1,VAngle1,V2,VAngle2,V3,VAngle3,V4,VAngle4,I1,IAngle1,I2,IAngle2,I3,IAngle3,I4,IAngle4
0, 60.00000, 118.358, -32.3937, 118.53, -150.966, 121.976, 88.2443, 0, 0, 1.34471, -55.4677, 1.34685, -174.04, 1.35911, 65.171, 0.0156089, 65.0534
0, 120.00000, 118.359, -32.4076, 118.529, -150.967, 122.008, 88.2379, 0, 0, 1.34472, -55.4815, 1.34685, -174.04, 1.35875, 65.1645, 0.0162444, 65.0316
0, 180.00000, 118.36, -32.42, 118.529, -150.967, 122.037, 88.2321, 0, 0, 1.34473, -55.494, 1.34684, -174.041, 1.35842, 65.1587, 0.0168164, 65.013
0, 240.00000, 118.361, -32.4312, 118.529, -150.968, 122.064, 88.227, 0, 0, 1.34474, -55.5052, 1.34684, -174.041, 1.35813, 65.1534, 0.0173323, 64.9946
0, 300.00000, 118.361, -32.4413, 118.529, -150.968, 122.087, 88.2223, 0, 0, 1.34474, -55.5153, 1.34684, -174.042, 1.35786, 65.1487, 0.0177974, 64.9771
0, 360.00000, 118.362, -32.4504, 118.529, -150.968, 122.108, 88.2181, 0, 0, 1.34475, -55.5244, 1.34684, -174.042, 1.35762, 65.1445, 0.0182159, 64.9618
0, 420.00000, 118.362, -32.4586, 118.528, -150.969, 122.128, 88.2143, 0, 0, 1.34475, -55.5326, 1.34683, -174.042, 1.3574, 65.1406, 0.0185924, 64.9484
0, 480.00000, 119.22, -32.3693, 119.381, -150.876, 123.109, 88.3301, 0, 0, 1.51275, -55.4432, 1.51501, -173.95, 1.50272, 65.2564, 0.0452169, 64.4178
0, 540.00000, 119.221, -32.376, 119.381, -150.876, 123.125, 88.3269, 0, 0, 1.51276, -55.4499, 1.515, -173.95, 1.50252, 65.2533, 0.0455588, 64.4165
0, 600.00000, 119.221, -32.3821, 119.381, -150.876, 123.139, 88.3241, 0, 0, 1.51276, -55.4559, 1.515, -173.95, 1.50235, 65.2505, 0.0458656, 64.4158
0, 660.00000, 119.221, -32.3875, 119.381, -150.877, 123.151, 88.3216, 0, 0, 1.51277, -55.4614, 1.515, -173.95, 1.50219, 65.2479, 0.0461418, 64.4151
0, 720.00000, 119.221, -32.3924, 119.381, -150.877, 123.162, 88.3193, 0, 0, 1.51277, -55.4663, 1.515, -173.95, 1.50205, 65.2456, 0.0463902, 64.4145
0, 780.00000, 119.222, -32.3968, 119.381, -150.877, 123.173, 88.3173, 0, 0, 1.51277, -55.4707, 1.515, -173.951, 1.50193, 65.2435, 0.0466138, 64.4139
0, 840.00000, 119.222, -32.4008, 119.38, -150.877, 123.182, 88.3154, 0, 0, 1.51277, -55.4747, 1.515, -173.951, 1.50181, 65.2417, 0.046815, 64.4134
0, 900.00000, 119.222, -32.4043, 119.38, -150.877, 123.19, 88.3138, 0, 0, 1.51277, -55.4782, 1.515, -173.951, 1.50171, 65.24, 0.0469961, 64.4129
0, 960.00000, 119.222, -32.4075, 119.38, -150.877, 123.197, 88.3122, 0, 0, 1.51278, -55.4814, 1.51499, -173.951, 1.50162, 65.2385, 0.047159, 64.4124
0, 1020.00000, 119.222, -32.4104, 119.38, -150.877, 123.204, 88.3109, 0, 0, 1.51278, -55.4843, 1.51499, -173.951, 1.50154, 65.2371, 0.0473056, 64.412
0, 1080.00000, 119.223, -32.413, 119.38, -150.877, 123.21, 88.3097, 0, 0, 1.51278, -55.4869, 1.51499, -173.951, 1.50146, 65.2359, 0.0474375, 64.4116
0, 1140.00000, 119.223, -32.4154, 119.38, -150.877, 123.215, 88.3086, 0, 0, 1.51278, -55.4893, 1.51499, -173.951, 1.50139, 65.2348, 0.0475563, 64.4112
0, 1200.00000, 119.223, -32.4175, 119.38, -150.877, 123.22, 88.3076, 0, 0, 1.51278, -55.4914, 1.51499, -173.951, 1.50133, 65.2338, 0.0476631, 64.4109
0, 1260.00000, 119.223, -32.4194, 119.38, -150.877, 123.225, 88.3067, 0, 0, 1.51278, -55.4933, 1.51499, -173.951, 1.50128, 65.2329, 0.0477593, 64.4106
0, 1320.00000, 119.223, -32.4211, 119.38, -150.877, 123.229, 88.3059, 0, 0, 1.51278, -55.495, 1.51499, -173.951, 1.50123, 65.2321, 0.0478459, 64.4103
0, 1380.00000, 119.223, -32.4226, 119.38, -150.878, 123.232, 88.3052, 0, 0, 1.51278, -55.4966, 1.51499, -173.951, 1.50119, 65.2313, 0.0479237, 64.4101
0, 1440.00000, 119.223, -32.424, 119.38, -150.878, 123.235, 88.3045, 0, 0, 1.51278, -55.4979, 1.51499, -173.951, 1.50115, 65.2307, 0.0479938, 64.4099
0, 1500.00000, 119.223, -32.4253, 119.38, -150.878, 123.238, 88.304, 0, 0, 1.51279, -55.4992, 1.51499, -173.951, 1.50111, 65.2301, 0.0480569, 64.4097
0, 1560.00000, 119.223, -32.4264, 119.38, -150.878, 123.241, 88.3034, 0, 0, 1.51279, -55.5003, 1.51499, -173.951, 1.50108, 65.2296, 0.0481137, 64.4095
0, 1620.00000, 119.223, -32.4274, 119.38, -150.878, 123.243, 88.303, 0, 0, 1.51279, -55.5013, 1.51499, -173.952, 1.50105, 65.2291, 0.0481648, 64.4093
0, 1680.00000, 119.223, -32.4283, 119.38, -150.878, 123.245, 88.3025, 0, 0, 1.51279, -55.5022, 1.51499, -173.952, 1.50103, 65.2286, 0.0482108, 64.4091
0, 1740.00000, 119.223, -32.4291, 119.38, -150.878, 123.247, 88.3021, 0, 0, 1.51279, -55.503, 1.51499, -173.952, 1.501, 65.2283, 0.0482521, 64.409
0, 1800.00000, 119.223, -32.4299, 119.38, -150.878, 123.249, 88.3018, 0, 0, 1.51279, -55.5038, 1.51499, -173.952, 1.50098, 65.2279, 0.0482894, 64.4089
0, 1860.00000, 119.223, -32.4305, 119.38, -150.878, 123.25, 88.3015, 0, 0, 1.51279, -55.5044, 1.51499, -173.952, 1.50096, 65.2276, 0.0483229, 64.4088
0, 1920.00000, 119.223, -32.4311, 119.38, -150.878, 123.252, 88.3012, 0, 0, 1.51279, -55.505, 1.51499, -173.952, 1.50095, 65.2273, 0.0483531, 64.4087
0, 1980.00000, 119.224, -32.4317, 119.38, -150.878, 123.253, 88.301, 0, 0, 1.51279, -55.5056, 1.51499, -173.952, 1.50093, 65.2271, 0.0483802, 64.4086
0, 2040.00000, 119.224, -32.4322, 119.38, -150.878, 123.254, 88.3007, 0, 0, 1.51279, -55.5061, 1.51499, -173.952, 1.50092, 65.2268, 0.0484046, 64.4085
0, 2100.00000, 119.224, -32.4326, 119.38, -150.878, 123.255, 88.3005, 0, 0, 1.51279, -55.5065, 1.51499, -173.952, 1.5009, 65.2266, 0.0484266, 64.4084
0, 2160.00000, 119.224, -32.433, 119.38, -150.878, 123.256, 88.3003, 0, 0, 1.51279, -55.5069, 1.51499, -173.952, 1.50089, 65.2264, 0.0484464, 64.4084
0, 2220.00000, 119.224, -32.4333, 119.38, -150.878, 123.257, 88.3002, 0, 0, 1.51279, -55.5072, 1.51499, -173.952, 1.50088, 65.2263, 0.0484642, 64.4083
0, 2280.00000, 119.224, -32.4336, 119.38, -150.878, 123.257, 88.3, 0, 0, 1.51279, -55.5076, 1.51499, -173.952, 1.50087, 65.2261, 0.0484803, 64.4082
0, 2340.00000, 119.224, -32.4339, 119.38, -150.878, 123.258, 88.2999, 0, 0, 1.51279, -55.5078, 1.51499, -173.952, 1.50087, 65.226, 0.0484947, 64.4082
0, 2400.00000, 119.224, -32.4342, 119.38, -150.878, 123.259, 88.2998, 0, 0, 1.51279, -55.5081, 1.51499, -173.952, 1.50086, 65.2259, 0.0485077, 64.4081
0, 2460.00000, 119.224, -32.4344, 119.38, -150.878, 123.259, 88.2997, 0, 0, 1.51279, -55.5083, 1.51499, -173.952, 1.50085, 65.2258, 0.0485194, 64.4081
0, 2520.00000, 119.224, -32.4346, 119.38, -150.878, 123.26, 88.2996, 0, 0, 1.51279, -55.5085, 1.51499, -173.952, 1.50085, 65.2257, 0.0485299, 64.4081
0, 2580.00000, 119.224, -32.4348, 119.38, -150.878, 123.26, 88.2995, 0, 0, 1.51279, -55.5087, 1.51499, -173.952, 1.50084, 65.2256, 0.0485393, 64.408
0, 2640.00000, 119.224, -32.435, 119.38, -150.878, 123.26, 88.2994, 0, 0, 1.51279, -55.5089, 1.51499, -173.952, 1.50084, 65.2255, 0.0485478, 64.408
0, 2700.00000, 119.224, -32.4351, 119.38, -150.878, 123.261, 88.2993, 0, 0, 1.51279, -55.5091, 1.51499, -173.952, 1.50083, 65.2254, 0.0485555, 64.408
0, 2760.00000, 119.224, -32.4353, 119.38, -150.878, 123.261, 88.2993, 0, 0, 1.51279, -55.5092, 1.51499, -173.952, 1.50083, 65.2254, 0.0485624, 64.408
0, 2820.00000, 119.224, -32.4354, 119.38, -150.878, 123.261, 88.2992, 0, 0, 1.51279, -55.5093, 1.51499, -173.952, 1.50082, 65.2253, 0.0485686, 64.4079
0, 2880.00000, 119.224, -32.4355, 119.38, -150.878, 123.262, 88.2992, 0, 0, 1.51279, -55.5094, 1.51499, -173.952, 1.50082, 65.2252, 0.0485742, 64.4079
0, 2940.00000, 119.224, -32.4356, 119.38, -150.878, 123.262, 88.2991, 0, 0, 1.51279, -55.5095, 1.51499, -173.952, 1.50082, 65.2252, 0.0485792, 64.4079
0, 3000.00000, 119.224, -32.4357, 119.38, -150.878, 123.262, 88.2991, 0, 0, 1.51279, -55.5096, 1.51499, -173.952, 1.50082, 65.2252, 0.0485838, 64.4079
0, 3060.00000, 119.224, -32.4358, 119.38, -150.878, 123.262, 88.299, 0, 0, 1.51279, -55.5097, 1.51499, -173.952, 1.50081, 65.2251, 0.0485878, 64.4079
0, 3120.00000, 119.224, -32.4358, 119.38, -150.878, 123.262, 88.299, 0, 0, 1.51279, -55.5098, 1.51499, -173.952, 1.50081, 65.2251, 0.0485915, 64.4079
0, 3180.00000, 119.224, -32.4359, 119.38, -150.878, 123.263, 88.299, 0, 0, 1.51279, -55.5098, 1.51499, -173.952, 1.50081, 65.2251, 0.0485948, 64.4078
0, 3240.00000, 119.224, -32.436, 119.38, -150.878, 123.263, 88.2989, 0, 0, 1.51279, -55.5099, 1.51499, -173.952, 1.50081, 65.225, 0.0485978, 64.4078
0, 3300.00000, 119.224, -32.436, 119.38, -150.878, 123.263, 88.2989, 0, 0, 1.51279, -55.5099, 1.51499, -173.952, 1.50081, 65.225, 0.0486005, 64.4078
0, 3360.00000, 119.224, -32.4361, 119.38, -150.878, 123.263, 88.2989, 0, 0, 1.51279, -55.51, 1.51499, -173.952, 1.50081, 65.225, 0.0486029, 64.4078
0, 3420.00000, 119.224, -32.4361, 119.38, -150.878, 123.263, 88.2989, 0, 0, 1.51279, -55.51, 1.51499, -173.952, 1.5008, 65.225, 0.048605, 64.4078
0, 3480.00000, 119.224, -32.4362, 119.38, -150.878, 123.263, 88.2989, 0, 0, 1.51279, -55.5101, 1.51499, -173.952, 1.5008, 65.2249, 0.048607, 64.4078
0, 3540.00000, 119.224, -32.4362, 119.38, -150.878, 123.263, 88.2988, 0, 0, 1.51279, -55.5101, 1.51499, -173.952, 1.5008, 65.2249, 0.0486087, 64.4078
1, 0.00000, 119.224, -32.4362, 119.38, -150.878, 123.263, 88.2988, 0, 0, 1.51279, -55.5101, 1.51499, -173.952, 1.5008, 65.2249, 0.0486103, 64.4078
1, 60.00000, 119.224, -32.4362, 119.38, -150.878, 123.263, 88.2988, 0, 0, 1.51279, -55.5102, 1.51499, -173.952, 1.5008, 65.2249, 0.0486117, 64.4078
1, 120.00000, 119.224, -32.4363, 119.38, -150.878, 123.263, 88.2988, 0, 0, 1.51279, -55.5102, 1.51499, -173.952, 1.5008, 65.2249, 0.048613, 64.4078
1, 180.00000, 119.224, -32.4363, 119.38, -150.878, 123.263, 88.2988, 0, 0, 1.51279, -55.5102, 1.51499, -173.952, 1.5008, 65.2249, 0.0486142, 64.4078
1, 240.00000, 119.224, -32.4363, 119.38, -150.878, 123.264, 88.2988, 0, 0, 1.51279, -55.5102, 1.51499, -173.952, 1.5008, 65.2249, 0.0486152, 64.4078
1, 300.00000, 119.224, -32.4363, 119.38, -150.878, 123.264, 88.2988, 0, 0, 1.51279, -55.5103, 1.51499, -173.952, 1.5008, 65.2249, 0.0486161, 64.4078
1, 360.00000, 119.224, -32.4363, 119.38, -150.878, 123.264, 88.2988, 0, 0, 1.51279, -55.5103, 1.51499, -173.952, 1.5008, 65.2248, 0.048617, 64.4078
1, 420.00000, 119.224, -32.4364, 119.38, -150.878, 123.264, 88.2988, 0, 0, 1.51279, -55.5103, 1.51499, -173.952, 1.5008, 65.2248, 0.0486177, 64.4078
1, 480.00000, 119.224, -32.4364, 119.38, -150.878, 123.264, 88.2987, 0, 0, 1.51279, -55.5103, 1.51499, -173.952, 1.5008, 65.2248, 0.0486184, 64.4078
1, 540.00000, 119.224, -32.4364, 119.38, -150.878, 123.264, 88.2987, 0, 0, 1.51279, -55.5103, 1.51499, -173.952, 1.5008, 65.2248, 0.048619, 64.4078
1, 600.00000, 119.224, -32.4364, 119.38, -150.878, 123.264, 88.2987, 0, 0, 1.51279, -55.5103, 1.51499, -173.952, 1.5008, 65.2248, 0.0486196, 64.4078
1, 660.00000, 119.224, -32.4364, 119.38, -150.878, 123.264, 88.2987, 0, 0, 1.51279, -55.5103, 1.51499, -173.952, 1.5008, 65.2248, 0.0486201, 64.4078
1, 720.00000, 119.224, -32.4364, 119.38, -150.878, 123.264, 88.2987, 0, 0, 1.51279, -55.5103, 1.51499, -173.952, 1.5008, 65.2248, 0.0486205, 64.4078
1, 780.00000, 119.224, -32.4364, 119.38, -150.878, 123.264, 88.2987, 0, 0, 1.51279, -55.5103, 1.51499, -173.952, 1.5008, 65.2248, 0.0486209, 64.4078
1, 840.00000, 119.224, -32.4364, 119.38, -150.878, 123.264, 88.2987, 0, 0, 1.51279, -55.5104, 1.51499, -173.952, 1.50079, 65.2248, 0.0486213, 64.4078
1, 900.00000, 119.224, -32.4364, 119.38, -150.878, 123.264, 88.2987, 0, 0, 1.51279, -55.5104, 1.51499, -173.952, 1.50079, 65.2248, 0.0486216, 64.4078
1, 960.00000, 119.224, -32.4364, 119.38, -150.878, 123.264, 88.2987, 0, 0, 1.51279, -55.5104, 1.51499, -173.952, 1.50079, 65.2248, 0.0486219, 64.4078
1, 1020.00000, 119.224, -32.4365, 119.38, -150.878, 123.264, 88.2987, 0, 0, 1.51279, -55.5104, 1.51499, -173.952, 1.50079, 65.2248, 0.0486221, 64.4078
1, 1080.00000, 119.224, -32.4365, 119.38, -150.878, 123.264, 88.2987, 0, 0, 1.51279, -55.5104, 1.51499, -173.952, 1.50079, 65.2248, 0.0486224, 64.4078
1, 1140.00000, 119.224, -32.4365, 119.38, -150.878, 123.264, 88.2987, 0, 0, 1.51279, -55.5104, 1.51499, -173.952, 1.50079, 65.2248, 0.0486226, 64.4078
1, 1200.00000, 119.224, -32.4365, 119.38, -150.878, 123.264, 88.2987, 0, 0, 1.51279, -55.5104, 1.51499, -173.952, 1.50079, 65.2248, 0.0486228, 64.4078
1, 1260.00000, 119.224, -32.4365, 119.38, -150.878, 123.264, 88.2987, 0, 0, 1.51279, -55.5104, 1.51499, -173.952, 1.50079, 65.2248, 0.048623, 64.4078
1, 1320.00000, 119.224, -32.4365, 119.38, -150.878, 123.264, 88.2987, 0, 0, 1.51279, -55.5104, 1.51499, -173.952, 1.50079, 65.2248, 0.0486231, 64.4077
1, 1380.00000, 119.224, -32.4365, 119.38, -150.878, 123.264, 88.2987, 0, 0, 1.51279, -55.5104, 1.51499, -173.952, 1.50079, 65.2248, 0.0486233, 64.4077
1, 1440.00000, 119.224, -32.4365, 119.38, -150.878, 123.264, 88.2987, 0, 0, 1.51279, -55.5104, 1.51499, -173.952, 1.50079, 65.2248, 0.0486234, 64.4077
1, 1500.00000, 119.224, -32.4365, 119.38, -150.878, 123.264, 88.2987, 0, 0, 1.51279, -55.5104, 1.51499, -173.952, 1.50079, 65.2248, 0.0486235, 64.4077
1, 1560.00000, 119.224, -32.4365, 119.38, -150.878, 123.264, 88.2987, 0, 0, 1.51279, -55.5104, 1.51499, -173.952, 1.50079, 65.2248, 0.0486236, 64.4077
1, 1620.00000, 119.224, -32.4365, 119.38, -150.878, 123.264, 88.2987, 0, 0, 1.51279, -55.5104, 1.51499, -173.952, 1.50079, 65.2248, 0.0486237, 64.4077
1, 1680.00000, 119.224, -32.4365, 119.38, -150.878, 123.264, 88.2987, 0, 0, 1.51279, -55.5104, 1.51499, -173.952, 1.50079, 65.2248, 0.0486238, 64.4077
1, 1740.00000, 119.224, -32.4365, 119.38, -150.878, 123.264, 88.2987, 0, 0, 1.51279, -55.5104, 1.51499, -173.952, 1.50079, 65.2248, 0.0486238, 64.4077
1, 1800.00000, 119.224, -32.4365, 119.38, -150.878, 123.264, 88.2987, 0, 0, 1.51279, -55.5104, 1.51499, -173.952, 1.50079, 65.2248, 0.0486239, 64.4077
1, 1860.00000, 119.224, -32.4365, 119.38, -150.878, 123.264, 88.2987, 0, 0, 1.51279, -55.5104, 1.51499, -173.952, 1.50079, 65.2248, 0.048624, 64.4077
1, 1920.00000, 119.224, -32.4365, 119.38, -150.878, 123.264, 88.2987, 0, 0, 1.51279, -55.5104, 1.51499, -173.952, 1.50079, 65.2248, 0.048624, 64.4077
1, 1980.00000, 119.224, -32.4365, 119.38, -150.878, 123.264, 88.2987, 0, 0, 1.51279, -55.5104, 1.51499, -173.952, 1.50079, 65.2248, 0.0486241, 64.4077
1, 2040.00000, 119.224, -32.4365, 119.38, -150.878, 123.264, 88.2987, 0, 0, 1.51279, -55.5104, 1.51499, -173.952, 1.50079, 65.2248, 0.0486241, 64.4077
1, 2100.00000, 119.224, -32.4365, 119.38, -150.878, 123.264, 88.2987, 0, 0, 1.51279, -55.5104, 1.51499, -173.952, 1.50079, 65.2248, 0.0486242, 64.4077
1, 2160.00000, 119.224, -32.4365, 119.38, -150.878, 123.264, 88.2987, 0, 0, 1.51279, -55.5104, 1.51499, -173.952, 1.50079, 65.2248, 0.0486242, 64.4077
1, 2220.00000, 119.224, -32.4365, 119.38, -150.878, 123.264, 88.2987, 0, 0, 1.51279, -55.5104, 1.51499, -173.952, 1.50079, 65.2248, 0.0486242, 64.4077
1, 2280.00000, 119.224, -32.4365, 119.38, -150.878, 123.264, 88.2987, 0, 0, 1.51279, -55.5104, 1.51499, -173.952, 1.50079, 65.2248, 0.0486243, 64.4077
1, 2340.00000, 119.224, -32.4365, 119.38, -150.878, 123.264, 88.2987, 0, 0, 1.51279, -55.5104, 1.51499, -173.952, 1.50079, 65.2248, 0.0486243, 64.4077
1, 2400.00000, 119.224, -32.4365, 119.38, -150.878, 123.264, 88.2987, 0, 0, 1.51279, -55.5104, 1.51499, -173.952, 1.50079, 65.2248, 0.0486243, 64.4077
1, 2460.00000, 119.224, -32.4365, 119.38, -150.878, 123.264, 88.2987, 0, 0, 1.51279, -55.5104, 1.51499, -173.952, 1.50079, 65.2248, 0.0486243, 64.4077
1, 2520.00000, 119.224, -32.4365, 119.38, -150.878, 123.264, 88.2987, 0, 0, 1.51279, -55.5104, 1.51499, -173.952, 1.50079, 65.2248, 0.0486243, 64.4077
1, 2580.00000, 119.224, -32.4365, 119.38, -150.878, 123.264, 88.2987, 0, 0, 1.51279, -55.5104, 1.51499, -173.952, 1.50079, 65.2248, 0.0486244, 64.4077
1, 2640.00000, 119.224, -32.4365, 119.38, -150.878, 123.264, 88.2987, 0, 0, 1.51279, -55.5104, 1.51499, -173.952, 1.50079, 65.2248, 0.0486244, 64.4077
1, 2700.00000, 119.224, -32.4365, 119.38, -150.878, 123.264, 88.2987, 0, 0, 1.51279, -55.5104, 1.51499, -173.952, 1.50079, 65.2248, 0.0486244, 64.4077
1, 2760.00000, 119.224, -32.4365, 119.38, -150.878, 123.264, 88.2987, 0, 0, 1.51279, -55.5104, 1.51499, -173.952, 1.50079, 65.2248, 0.0486244, 64.4077
1, 2820.00000, 119.224, -32.4365, 119.38, -150.878, 123.264, 88.2987, 0, 0, 1.51279, -55.5104, 1.51499, -173.952, 1.50079, 65.2248, 0.0486244, 64.4077
1, 2880.00000, 119.224, -32.4365, 119.38, -150.878, 123.264, 88.2987, 0, 0, 1.51279, -55.5104, 1.51499, -173.952, 1.50079, 65.2248, 0.0486244, 64.4077
1, 2940.00000, 119.224, -32.4365, 119.38, -150.878, 123.264, 88.2987, 0, 0, 1.51279, -55.5104, 1.51499, -173.952, 1.50079, 65.2248, 0.0486244, 64.4077
1, 3000.00000, 119.224, -32.4365, 119.38, -150.878, 123.264, 88.2987, 0, 0, 1.51279, -55.5104, 1.51499, -173.952, 1.50079, 65.2248, 0.0486244, 64.4077
1, 3060.00000, 119.224, -32.4365, 119.38, -150.878, 123.264, 88.2987, 0, 0, 1.51279, -55.5104, 1.51499, -173.952, 1.50079, 65.2248, 0.0486244, 64.4077
1, 3120.00000, 119.224, -32.4365, 119.38, -150.878, 123.264, 88.2987, 0, 0, 1.51279, -55.5104, 1.51499, -173.952, 1.50079, 65.2248, 0.0486245, 64.4077
1, 3180.00000, 119.224, -32.4365, 119.38, -150.878, 123.264, 88.2987, 0, 0, 1.51279, -55.5104, 1.51499, -173.952, 1.50079, 65.2248, 0.0486245, 64.4077
1, 3240.00000, 119.224, -32.4365, 119.38, -150.878, 123.264, 88.2987, 0, 0, 1.51279, -55.5104, 1.51499, -173.952, 1.50079, 65.2248, 0.0486245, 64.4077
1, 3300.00000, 119.224, -32.4365, 119.38, -150.878, 123.264, 88.2987, 0, 0, 1.51279, -55.5104, 1.51499, -173.952, 1.50079, 65.2248, 0.0486245, 64.4077
1, 3360.00000, 119.224, -32.4365, 119.38, -150.878, 123.264, 88.2987, 0, 0, 1.51279, -55.5104, 1.51499, -173.952, 1.50079, 65.2248, 0.0486245, 64.4077
1, 3420.00000, 119.224, -32.4365, 119.38, -150.878, 123.264, 88.2987, 0, 0, 1.51279, -55.5104, 1.51499, -173.952, 1.50079, 65.2248, 0.0486245, 64.4077
1, 3480.00000, 119.224, -32.4365, 119.38, -150.878, 123.264, 88.2987, 0, 0, 1.51279, -55.5104, 1.51499, -173.952, 1.50079, 65.2248, 0.0486245, 64.4077
1, 3540.00000, 119.224, -32.4365, 119.38, -150.878, 123.264, 88.2987, 0, 0, 1.51279, -55.5104, 1.51499, -173.952, 1.50079, 65.2248, 0.0486245, 64.4077
2, 0.00000, 119.224, -32.4365, 119.38, -150.878, 123.264, 88.2987, 0, 0, 1.51279, -55.5104, 1.51499, -173.952, 1.50079, 65.2248, 0.0486245, 64.4077
2, 60.00000, 119.224, -32.4365, 119.38, -150.878, 123.264, 88.2987, 0, 0, 1.51279, -55.5104, 1.51499, -173.952, 1.50079, 65.2248, 0.0486245, 64.4077
2, 120.00000, 119.224, -32.4365, 119.38, -150.878, 123.264, 88.2987, 0, 0, 1.51279, -55.5104, 1.51499, -173.952, 1.50079, 65.2248, 0.0486245, 64.4077
2, 180.00000, 119.224, -32.4365, 119.38, -150.878, 123.264, 88.2987, 0, 0, 1.51279, -55.5104, 1.51499, -173.952, 1.50079, 65.2248, 0.0486245, 64.4077
2, 240.00000, 119.224, -32.4365, 119.38, -150.878, 123.264, 88.2987, 0, 0, 1.51279, -55.5104, 1.51499, -173.952, 1.50079, 65.2248, 0.0486245, 64.4077
2, 300.00000, 119.224, -32.4365, 119.38, -150.878, 123.264, 88.2987, 0, 0, 1.51279, -55.5104, 1.51499, -173.952, 1.50079, 65.2248, 0.0486245, 64.4077
2, 360.00000, 119.224, -32.4365, 119.38, -150.878, 123.264, 88.2987, 0, 0, 1.51279, -55.5104, 1.51499, -173.952, 1.50079, 65.2248, 0.0486245, 64.4077
2, 420.00000, 119.224, -32.4365, 119.38, -150.878, 123.264, 88.2987, 0, 0, 1.51279, -55.5104, 1.51499, -173.952, 1.50079, 65.2248, 0.0486245, 64.4077
2, 480.00000, 119.224, -32.4365, 119.38, -150.878, 123.264, 88.2987, 0, 0, 1.51279, -55.5104, 1.51499, -173.952, 1.50079, 65.2248, 0.0486245, 64.4077
2, 540.00000, 119.224, -32.4365, 119.38, -150.878, 123.264, 88.2987, 0, 0, 1.51279, -55.5104, 1.51499, -173.952, 1.50079, 65.2248, 0.0486245, 64.4077
2, 600.00000, 119.224, -32.4365, 119.38, -150.878, 123.264, 88.2987, 0, 0, 1.51279, -55.5104, 1.51499, -173.952, 1.50079, 65.2248, 0.0486245, 64.4077
2, 660.00000, 119.224, -32.4365, 119.38, -150.878, 123.264, 88.2987, 0, 0, 1.51279, -55.5104, 1.51499, -173.952, 1.50079, 65.2248, 0.0486245, 64.4077
2, 720.00000, 119.224, -32.4365, 119.38, -150.878, 123.264, 88.2987, 0, 0, 1.51279, -55.5104, 1.51499, -173.952, 1.50079, 65.2248, 0.0486245, 64.4077
