hour,t(sec),V1,VAngle1,V2,VAngle2,V3,VAngle3,V4,VAngle4,I1,IAngle1,I2,IAngle2,I3,IAngle3,I4,IAngle4
0, 60.00000, 114.857, -31.1819, 120.491, -151.406, 117.645, 86.505, 0, 0, 1.16614, -54.2554, 1.22985, -174.479, 1.19771, 63.431, 0.00966119, -41.7538
0, 120.00000, 114.856, -31.1832, 120.522, -151.414, 117.643, 86.4892, 0, 0, 1.16613, -54.2567, 1.23021, -174.487, 1.19769, 63.4152, 0.00972465, -41.1466
0, 180.00000, 114.856, -31.1843, 120.551, -151.422, 117.642, 86.4749, 0, 0, 1.16613, -54.2579, 1.23053, -174.495, 1.19767, 63.401, 0.00978252, -40.6095
0, 240.00000, 114.856, -31.1853, 120.576, -151.428, 117.64, 86.4621, 0, 0, 1.16613, -54.2589, 1.23082, -174.502, 1.19765, 63.3882, 0.00983534, -40.1315
0, 300.00000, 114.856, -31.1863, 120.6, -151.435, 117.639, 86.4506, 0, 0, 1.16612, -54.2599, 1.23109, -174.508, 1.19763, 63.3767, 0.00988523, -39.6896
0, 360.00000, 114.855, -31.1872, 120.621, -151.44, 117.637, 86.4403, 0, 0, 1.16612, -54.2608, 1.23133, -174.514, 1.19761, 63.3663, 0.00993147, -39.2879
0, 420.00000, 114.855, -31.188, 120.64, -151.445, 117.636, 86.4309, 0, 0, 1.16612, -54.2616, 1.23155, -174.519, 1.1976, 63.357, 0.00997598, -38.9077
0, 480.00000, 115.749, -31.1146, 121.727, -151.35, 118.49, 86.5293, 0, 0, 1.31261, -54.1882, 1.36275, -174.424, 1.34724, 63.4554, 0.0161445, -148.844
0, 540.00000, 115.749, -31.1154, 121.744, -151.354, 118.489, 86.5217, 0, 0, 1.31261, -54.189, 1.36256, -174.428, 1.34722, 63.4478, 0.016418, -149.376
0, 600.00000, 115.748, -31.116, 121.758, -151.358, 118.488, 86.5149, 0, 0, 1.31261, -54.1897, 1.3624, -174.432, 1.34721, 63.441, 0.0166649, -149.838
0, 660.00000, 115.748, -31.1166, 121.772, -151.361, 118.487, 86.5088, 0, 0, 1.31261, -54.1903, 1.36225, -174.435, 1.3472, 63.4348, 0.0168879, -150.242
0, 720.00000, 115.748, -31.1171, 121.783, -151.364, 118.486, 86.5032, 0, 0, 1.31261, -54.1909, 1.36211, -174.438, 1.34718, 63.4293, 0.0170891, -150.596
0, 780.00000, 115.748, -31.1176, 121.794, -151.367, 118.485, 86.4982, 0, 0, 1.31261, -54.1914, 1.36199, -174.441, 1.34717, 63.4243, 0.0172708, -150.908
0, 840.00000, 115.748, -31.1181, 121.804, -151.369, 118.484, 86.4938, 0, 0, 1.3126, -54.1918, 1.36188, -174.443, 1.34716, 63.4199, 0.0174347, -151.183
0, 900.00000, 115.748, -31.1184, 121.812, -151.371, 118.483, 86.4897, 0, 0, 1.3126, -54.1922, 1.36178, -174.445, 1.34715, 63.4158, 0.0175824, -151.427
0, 960.00000, 115.711, -31.0948, 120.807, -151.651, 117.568, 86.6834, 0, 0, 1.31213, -54.1686, 1.37311, -174.725, 1.33558, 63.6094, 0.00841643, -49.0455
0, 1020.00000, 115.711, -31.0951, 120.814, -151.653, 117.567, 86.6802, 0, 0, 1.31213, -54.1689, 1.37303, -174.727, 1.33558, 63.6062, 0.00833651, -49.7421
0, 1080.00000, 115.711, -31.0953, 120.82, -151.655, 117.567, 86.6773, 0, 0, 1.31213, -54.1691, 1.37296, -174.728, 1.33557, 63.6033, 0.00826528, -50.3812
0, 1140.00000, 115.711, -31.0955, 120.825, -151.656, 117.566, 86.6747, 0, 0, 1.31213, -54.1694, 1.3729, -174.73, 1.33556, 63.6007, 0.00820196, -50.9659
0, 1200.00000, 115.71, -31.0958, 120.83, -151.657, 117.566, 86.6723, 0, 0, 1.31213, -54.1696, 1.37285, -174.731, 1.33556, 63.5984, 0.00814531, -51.5011
0, 1260.00000, 115.71, -31.0959, 120.834, -151.658, 117.565, 86.6702, 0, 0, 1.31213, -54.1698, 1.3728, -174.732, 1.33555, 63.5963, 0.00809494, -51.9891
0, 1320.00000, 115.71, -31.0961, 120.838, -151.659, 117.565, 86.6683, 0, 0, 1.31213, -54.17, 1.37275, -174.733, 1.33555, 63.5944, 0.00805011, -52.4334
0, 1380.00000, 115.71, -31.0963, 120.842, -151.66, 117.565, 86.6666, 0, 0, 1.31213, -54.1701, 1.37271, -174.734, 1.33555, 63.5927, 0.00801019, -52.8374
0, 1440.00000, 115.71, -31.0964, 120.845, -151.661, 117.564, 86.6651, 0, 0, 1.31213, -54.1703, 1.37267, -174.735, 1.33554, 63.5911, 0.00797461, -53.2045
0, 1500.00000, 115.71, -31.0965, 120.848, -151.662, 117.564, 86.6637, 0, 0, 1.31213, -54.1704, 1.37264, -174.736, 1.33554, 63.5898, 0.00794286, -53.5376
0, 1560.00000, 115.71, -31.0966, 120.851, -151.662, 117.564, 86.6625, 0, 0, 1.31213, -54.1705, 1.37261, -174.736, 1.33554, 63.5885, 0.00791439, -53.8401
0, 1620.00000, 115.71, -31.0967, 120.853, -151.663, 117.564, 86.6613, 0, 0, 1.31213, -54.1706, 1.37258, -174.737, 1.33553, 63.5874, 0.00788896, -54.1142
0, 1680.00000, 115.71, -31.0968, 120.855, -151.664, 117.564, 86.6603, 0, 0, 1.31213, -54.1707, 1.37256, -174.737, 1.33553, 63.5864, 0.00786623, -54.3624
0, 1740.00000, 115.71, -31.0969, 120.857, -151.664, 117.563, 86.6594, 0, 0, 1.31213, -54.1708, 1.37254, -174.738, 1.33553, 63.5855, 0.00784591, -54.587
0, 1800.00000, 115.26, -31.3116, 120.134, -151.584, 117.62, 86.651, 0, 0, 1.30644, -54.3855, 1.36799, -174.658, 1.33624, 63.5771, 0.00981934, -47.3372
0, 1860.00000, 115.26, -31.3117, 120.136, -151.585, 117.62, 86.6503, 0, 0, 1.30644, -54.3856, 1.368, -174.659, 1.33624, 63.5764, 0.00982179, -47.3074
0, 1920.00000, 115.26, -31.3118, 120.137, -151.585, 117.619, 86.6496, 0, 0, 1.30644, -54.3857, 1.36802, -174.659, 1.33623, 63.5757, 0.00982408, -47.2795
0, 1980.00000, 115.26, -31.3118, 120.138, -151.586, 117.619, 86.649, 0, 0, 1.30644, -54.3857, 1.36804, -174.659, 1.33623, 63.5751, 0.00982613, -47.2544
0, 2040.00000, 115.26, -31.3118, 120.139, -151.586, 117.619, 86.6485, 0, 0, 1.30644, -54.3857, 1.36805, -174.66, 1.33623, 63.5746, 0.00982799, -47.2319
0, 2100.00000, 115.26, -31.3119, 120.14, -151.586, 117.619, 86.648, 0, 0, 1.30644, -54.3858, 1.36806, -174.66, 1.33623, 63.5741, 0.00982966, -47.2115
0, 2160.00000, 115.26, -31.3119, 120.141, -151.586, 117.619, 86.6476, 0, 0, 1.30644, -54.3858, 1.36807, -174.66, 1.33623, 63.5736, 0.00983116, -47.1933
0, 2220.00000, 115.26, -31.312, 120.142, -151.587, 117.619, 86.6472, 0, 0, 1.30644, -54.3859, 1.36808, -174.66, 1.33623, 63.5733, 0.00983252, -47.1768
0, 2280.00000, 115.26, -31.312, 120.143, -151.587, 117.619, 86.6468, 0, 0, 1.30644, -54.3859, 1.36809, -174.661, 1.33623, 63.5729, 0.00983374, -47.162
0, 2340.00000, 115.26, -31.312, 120.143, -151.587, 117.619, 86.6465, 0, 0, 1.30643, -54.3859, 1.3681, -174.661, 1.33623, 63.5726, 0.00983485, -47.1485
0, 2400.00000, 115.26, -31.312, 120.144, -151.587, 117.619, 86.6462, 0, 0, 1.30643, -54.3859, 1.36811, -174.661, 1.33623, 63.5723, 0.00983586, -47.1363
0, 2460.00000, 115.26, -31.312, 120.144, -151.587, 117.619, 86.646, 0, 0, 1.30643, -54.386, 1.36811, -174.661, 1.33623, 63.572, 0.00983676, -47.1253
0, 2520.00000, 115.26, -31.3121, 120.145, -151.587, 117.619, 86.6457, 0, 0, 1.30643, -54.386, 1.36812, -174.661, 1.33623, 63.5718, 0.00983758, -47.1155
0, 2580.00000, 115.26, -31.3121, 120.145, -151.587, 117.619, 86.6455, 0, 0, 1.30643, -54.386, 1.36812, -174.661, 1.33623, 63.5716, 0.00983831, -47.1066
0, 2640.00000, 115.26, -31.3121, 120.145, -151.587, 117.619, 86.6453, 0, 0, 1.30643, -54.386, 1.36813, -174.661, 1.33623, 63.5714, 0.00983897, -47.0986
0, 2700.00000, 115.26, -31.3121, 120.146, -151.588, 117.619, 86.6452, 0, 0, 1.30643, -54.386, 1.36813, -174.661, 1.33623, 63.5713, 0.00983956, -47.0914
0, 2760.00000, 115.801, -31.3326, 120.145, -151.586, 117.935, 86.865, 0, 0, 1.31327, -54.4065, 1.36812, -174.66, 1.34022, 63.7911, 0.00930938, -50.5689
0, 2820.00000, 115.801, -31.3326, 120.145, -151.586, 117.935, 86.8649, 0, 0, 1.31327, -54.4065, 1.36812, -174.66, 1.34022, 63.791, 0.00930989, -50.5627
0, 2880.00000, 115.801, -31.3326, 120.145, -151.586, 117.935, 86.8648, 0, 0, 1.31327, -54.4065, 1.36813, -174.66, 1.34022, 63.7909, 0.00931026, -50.557
0, 2940.00000, 115.801, -31.3326, 120.145, -151.586, 117.935, 86.8647, 0, 0, 1.31327, -54.4065, 1.36813, -174.66, 1.34022, 63.7907, 0.0093106, -50.5518
0, 3000.00000, 115.801, -31.3326, 120.146, -151.586, 117.935, 86.8646, 0, 0, 1.31327, -54.4065, 1.36813, -174.66, 1.34022, 63.7906, 0.00931091, -50.5472
0, 3060.00000, 115.801, -31.3326, 120.146, -151.586, 117.935, 86.8645, 0, 0, 1.31327, -54.4065, 1.36813, -174.66, 1.34022, 63.7906, 0.00931118, -50.5431
0, 3120.00000, 115.801, -31.3326, 120.146, -151.586, 117.935, 86.8644, 0, 0, 1.31327, -54.4066, 1.36814, -174.66, 1.34022, 63.7905, 0.00931143, -50.5394
0, 3180.00000, 115.801, -31.3326, 120.146, -151.586, 117.935, 86.8643, 0, 0, 1.31327, -54.4066, 1.36814, -174.66, 1.34022, 63.7904, 0.00931165, -50.536
0, 3240.00000, 115.801, -31.3326, 120.146, -151.586, 117.935, 86.8643, 0, 0, 1.31327, -54.4066, 1.36814, -174.66, 1.34022, 63.7903, 0.00931185, -50.533
0, 3300.00000, 115.801, -31.3327, 120.146, -151.586, 117.935, 86.8642, 0, 0, 1.31327, -54.4066, 1.36814, -174.66, 1.34022, 63.7903, 0.00931203, -50.5303
0, 3360.00000, 115.801, -31.3327, 120.146, -151.586, 117.935, 86.8641, 0, 0, 1.31327, -54.4066, 1.36814, -174.66, 1.34022, 63.7902, 0.0093122, -50.5278
0, 3420.00000, 115.801, -31.3327, 120.147, -151.586, 117.935, 86.8641, 0, 0, 1.31327, -54.4066, 1.36814, -174.66, 1.34022, 63.7902, 0.00931234, -50.5256
0, 3480.00000, 115.801, -31.3327, 120.147, -151.586, 117.935, 86.8641, 0, 0, 1.31327, -54.4066, 1.36814, -174.66, 1.34022, 63.7901, 0.00931247, -50.5236
0, 3540.00000, 115.801, -31.3327, 120.147, -151.586, 117.935, 86.864, 0, 0, 1.31327, -54.4066, 1.36814, -174.66, 1.34022, 63.7901, 0.00931259, -50.5218
1, 0.00000, 115.801, -31.3327, 120.147, -151.586, 117.935, 86.864, 0, 0, 1.31327, -54.4066, 1.36815, -174.66, 1.34022, 63.7901, 0.0093127, -50.5202
1, 60.00000, 116.178, -31.3186, 120.147, -151.584, 118.102, 87.0246, 0, 0, 1.31803, -54.3925, 1.36814, -174.658, 1.34233, 63.9507, 0.00880062, -52.7472
1, 120.00000, 116.178, -31.3186, 120.147, -151.584, 118.102, 87.0246, 0, 0, 1.31803, -54.3925, 1.36814, -174.658, 1.34233, 63.9507, 0.00880067, -52.7457
1, 180.00000, 116.178, -31.3186, 120.147, -151.584, 118.102, 87.0246, 0, 0, 1.31803, -54.3925, 1.36814, -174.658, 1.34233, 63.9507, 0.00880074, -52.7444
1, 240.00000, 116.178, -31.3186, 120.147, -151.584, 118.102, 87.0246, 0, 0, 1.31803, -54.3925, 1.36814, -174.658, 1.34233, 63.9506, 0.0088008, -52.7432
1, 300.00000, 116.178, -31.3186, 120.147, -151.584, 118.102, 87.0245, 0, 0, 1.31803, -54.3925, 1.36814, -174.658, 1.34233, 63.9506, 0.00880086, -52.7422
1, 360.00000, 116.178, -31.3186, 120.147, -151.584, 118.102, 87.0245, 0, 0, 1.31803, -54.3925, 1.36815, -174.658, 1.34233, 63.9506, 0.00880091, -52.7413
1, 420.00000, 116.178, -31.3186, 120.147, -151.584, 118.102, 87.0245, 0, 0, 1.31803, -54.3925, 1.36815, -174.658, 1.34233, 63.9506, 0.00880096, -52.7404
1, 480.00000, 116.178, -31.3186, 120.147, -151.584, 118.102, 87.0245, 0, 0, 1.31803, -54.3925, 1.36815, -174.658, 1.34233, 63.9506, 0.008801, -52.7397
1, 540.00000, 116.178, -31.3186, 120.147, -151.584, 118.102, 87.0245, 0, 0, 1.31803, -54.3925, 1.36815, -174.658, 1.34233, 63.9506, 0.00880104, -52.739
1, 600.00000, 116.178, -31.3186, 120.147, -151.584, 118.102, 87.0245, 0, 0, 1.31803, -54.3925, 1.36815, -174.658, 1.34233, 63.9505, 0.00880107, -52.7384
1, 660.00000, 116.178, -31.3186, 120.147, -151.584, 118.102, 87.0245, 0, 0, 1.31803, -54.3925, 1.36815, -174.658, 1.34233, 63.9505, 0.0088011, -52.7379
1, 720.00000, 116.178, -31.3186, 120.147, -151.584, 118.102, 87.0244, 0, 0, 1.31803, -54.3925, 1.36815, -174.658, 1.34233, 63.9505, 0.00880113, -52.7374
1, 780.00000, 116.59, -31.3176, 120.153, -151.579, 118.314, 87.1949, 0, 0, 1.32323, -54.3915, 1.36822, -174.653, 1.345, 64.121, 0.00831681, -55.0425
1, 840.00000, 116.59, -31.3176, 120.153, -151.579, 118.314, 87.1949, 0, 0, 1.32323, -54.3915, 1.36822, -174.653, 1.345, 64.1209, 0.00831688, -55.0405
1, 900.00000, 116.59, -31.3176, 120.153, -151.579, 118.314, 87.1949, 0, 0, 1.32323, -54.3915, 1.36822, -174.653, 1.345, 64.1209, 0.0083169, -55.0401
1, 960.00000, 116.59, -31.3176, 120.153, -151.579, 118.314, 87.1949, 0, 0, 1.32323, -54.3915, 1.36822, -174.653, 1.345, 64.1209, 0.00831692, -55.0398
1, 1020.00000, 116.59, -31.3176, 120.153, -151.579, 118.314, 87.1948, 0, 0, 1.32323, -54.3915, 1.36822, -174.653, 1.345, 64.1209, 0.00831693, -55.0395
1, 1080.00000, 116.59, -31.3176, 120.153, -151.579, 118.314, 87.1948, 0, 0, 1.32323, -54.3915, 1.36822, -174.653, 1.345, 64.1209, 0.00831694, -55.0392
1, 1140.00000, 116.59, -31.3176, 120.153, -151.579, 118.314, 87.1948, 0, 0, 1.32323, -54.3915, 1.36822, -174.653, 1.345, 64.1209, 0.00831695, -55.0389
1, 1200.00000, 116.59, -31.3176, 120.153, -151.579, 118.314, 87.1948, 0, 0, 1.32323, -54.3915, 1.36822, -174.653, 1.345, 64.1209, 0.00831696, -55.0387
1, 1260.00000, 116.59, -31.3176, 120.153, -151.579, 118.314, 87.1948, 0, 0, 1.32323, -54.3915, 1.36822, -174.653, 1.345, 64.1209, 0.00831697, -55.0385
1, 1320.00000, 116.59, -31.3176, 120.153, -151.579, 118.314, 87.1948, 0, 0, 1.32323, -54.3915, 1.36822, -174.653, 1.345, 64.1209, 0.00831698, -55.0383
1, 1380.00000, 116.59, -31.3176, 120.153, -151.579, 118.314, 87.1948, 0, 0, 1.32323, -54.3915, 1.36822, -174.653, 1.345, 64.1209, 0.00831699, -55.0382
1, 1440.00000, 116.59, -31.3176, 120.153, -151.579, 118.314, 87.1948, 0, 0, 1.32323, -54.3915, 1.36822, -174.653, 1.345, 64.1209, 0.008317, -55.038
1, 1500.00000, 116.59, -31.3176, 120.153, -151.579, 118.314, 87.1948, 0, 0, 1.32323, -54.3915, 1.36822, -174.653, 1.345, 64.1209, 0.008317, -55.0379
1, 1560.00000, 116.59, -31.3176, 120.153, -151.579, 118.314, 87.1948, 0, 0, 1.32323, -54.3915, 1.36822, -174.653, 1.345, 64.1209, 0.00831701, -55.0378
1, 1620.00000, 116.59, -31.3176, 120.153, -151.579, 118.314, 87.1948, 0, 0, 1.32323, -54.3915, 1.36822, -174.653, 1.345, 64.1209, 0.00831701, -55.0377
1, 1680.00000, 116.59, -31.3176, 120.153, -151.579, 118.314, 87.1948, 0, 0, 1.32323, -54.3915, 1.36822, -174.653, 1.345, 64.1209, 0.00831702, -55.0376
1, 1740.00000, 116.59, -31.3176, 120.153, -151.579, 118.314, 87.1948, 0, 0, 1.32323, -54.3915, 1.36822, -174.653, 1.345, 64.1209, 0.00831702, -55.0375
1, 1800.00000, 116.59, -31.3176, 120.153, -151.579, 118.314, 87.1948, 0, 0, 1.32323, -54.3915, 1.36822, -174.653, 1.345, 64.1209, 0.00831703, -55.0374
1, 1860.00000, 116.59, -31.3176, 120.153, -151.579, 118.314, 87.1948, 0, 0, 1.32323, -54.3915, 1.36822, -174.653, 1.345, 64.1209, 0.00831703, -55.0373
1, 1920.00000, 116.59, -31.3176, 120.153, -151.579, 118.314, 87.1948, 0, 0, 1.32323, -54.3915, 1.36822, -174.653, 1.345, 64.1209, 0.00831703, -55.0373
1, 1980.00000, 116.59, -31.3176, 120.153, -151.579, 118.314, 87.1948, 0, 0, 1.32323, -54.3915, 1.36822, -174.653, 1.345, 64.1209, 0.00831704, -55.0372
1, 2040.00000, 116.59, -31.3176, 120.153, -151.579, 118.314, 87.1948, 0, 0, 1.32323, -54.3915, 1.36822, -174.653, 1.345, 64.1209, 0.00831704, -55.0371
1, 2100.00000, 116.59, -31.3176, 120.153, -151.579, 118.314, 87.1948, 0, 0, 1.32323, -54.3915, 1.36822, -174.653, 1.345, 64.1209, 0.00831704, -55.0371
1, 2160.00000, 116.59, -31.3176, 120.153, -151.579, 118.314, 87.1948, 0, 0, 1.32323, -54.3915, 1.36822, -174.653, 1.345, 64.1209, 0.00831704, -55.0371
1, 2220.00000, 117.046, -31.1043, 120.876, -151.659, 118.254, 87.2028, 0, 0, 1.329, -54.1782, 1.37232, -174.733, 1.34425, 64.1289, 0.00632667, -70.1259
1, 2280.00000, 117.046, -31.1043, 120.876, -151.659, 118.254, 87.2028, 0, 0, 1.329, -54.1782, 1.37232, -174.733, 1.34425, 64.1289, 0.00632639, -70.1278
1, 2340.00000, 117.046, -31.1043, 120.876, -151.659, 118.254, 87.2028, 0, 0, 1.329, -54.1782, 1.37232, -174.733, 1.34425, 64.1289, 0.00632638, -70.128
1, 2400.00000, 117.046, -31.1043, 120.876, -151.659, 118.254, 87.2028, 0, 0, 1.329, -54.1782, 1.37232, -174.733, 1.34425, 64.1289, 0.00632637, -70.1282
1, 2460.00000, 117.046, -31.1043, 120.876, -151.659, 118.254, 87.2028, 0, 0, 1.329, -54.1782, 1.37232, -174.733, 1.34425, 64.1289, 0.00632637, -70.1283
1, 2520.00000, 117.046, -31.1043, 120.876, -151.659, 118.254, 87.2028, 0, 0, 1.329, -54.1782, 1.37232, -174.733, 1.34425, 64.1289, 0.00632636, -70.1285
1, 2580.00000, 117.046, -31.1043, 120.876, -151.659, 118.254, 87.2028, 0, 0, 1.329, -54.1782, 1.37232, -174.733, 1.34425, 64.1289, 0.00632636, -70.1286
1, 2640.00000, 117.046, -31.1043, 120.876, -151.659, 118.254, 87.2028, 0, 0, 1.329, -54.1782, 1.37232, -174.733, 1.34425, 64.1289, 0.00632635, -70.1287
1, 2700.00000, 117.046, -31.1043, 120.876, -151.659, 118.254, 87.2028, 0, 0, 1.329, -54.1782, 1.37232, -174.733, 1.34425, 64.1289, 0.00632635, -70.1288
1, 2760.00000, 117.046, -31.1043, 120.876, -151.659, 118.254, 87.2028, 0, 0, 1.329, -54.1782, 1.37232, -174.733, 1.34425, 64.1289, 0.00632635, -70.1289
1, 2820.00000, 117.046, -31.1043, 120.876, -151.659, 118.254, 87.2028, 0, 0, 1.329, -54.1782, 1.37232, -174.733, 1.34425, 64.1289, 0.00632634, -70.129
1, 2880.00000, 117.046, -31.1043, 120.876, -151.659, 118.254, 87.2028, 0, 0, 1.329, -54.1782, 1.37232, -174.733, 1.34425, 64.1289, 0.00632634, -70.1291
1, 2940.00000, 117.046, -31.1043, 120.876, -151.659, 118.254, 87.2028, 0, 0, 1.329, -54.1782, 1.37232, -174.733, 1.34425, 64.1289, 0.00632634, -70.1292
1, 3000.00000, 117.046, -31.1043, 120.876, -151.659, 118.254, 87.2028, 0, 0, 1.329, -54.1782, 1.37232, -174.733, 1.34425, 64.1289, 0.00632634, -70.1292
1, 3060.00000, 117.046, -31.1043, 120.876, -151.659, 118.254, 87.2028, 0, 0, 1.329, -54.1782, 1.37232, -174.733, 1.34425, 64.1289, 0.00632633, -70.1293
1, 3120.00000, 117.046, -31.1043, 120.876, -151.659, 118.254, 87.2028, 0, 0, 1.329, -54.1782, 1.37232, -174.733, 1.34425, 64.1289, 0.00632633, -70.1293
1, 3180.00000, 117.046, -31.1043, 120.876, -151.659, 118.254, 87.2028, 0, 0, 1.329, -54.1782, 1.37232, -174.733, 1.34425, 64.1289, 0.00632633, -70.1294
1, 3240.00000, 117.046, -31.1043, 120.876, -151.659, 118.254, 87.2028, 0, 0, 1.329, -54.1782, 1.37232, -174.733, 1.34425, 64.1289, 0.00632633, -70.1294
1, 3300.00000, 117.046, -31.1043, 120.876, -151.659, 118.254, 87.2028, 0, 0, 1.329, -54.1782, 1.37232, -174.733, 1.34425, 64.1289, 0.00632633, -70.1294
1, 3360.00000, 117.046, -31.1043, 120.876, -151.659, 118.254, 87.2028, 0, 0, 1.329, -54.1782, 1.37232, -174.733, 1.34425, 64.1289, 0.00632633, -70.1295
1, 3420.00000, 117.046, -31.1043, 120.876, -151.659, 118.254, 87.2028, 0, 0, 1.329, -54.1782, 1.37232, -174.733, 1.34425, 64.1289, 0.00632632, -70.1295
1, 3480.00000, 117.046, -31.1043, 120.876, -151.659, 118.254, 87.2028, 0, 0, 1.329, -54.1782, 1.37232, -174.733, 1.34425, 64.1289, 0.00632632, -70.1295
1, 3540.00000, 117.046, -31.1043, 120.876, -151.659, 118.254, 87.2028, 0, 0, 1.329, -54.1782, 1.37232, -174.733, 1.34425, 64.1289, 0.00632632, -70.1296
2, 0.00000, 117.046, -31.1043, 120.876, -151.659, 118.254, 87.2028, 0, 0, 1.329, -54.1782, 1.37232, -174.733, 1.34425, 64.1289, 0.00632632, -70.1296
2, 60.00000, 117.046, -31.1043, 120.876, -151.659, 118.254, 87.2028, 0, 0, 1.329, -54.1782, 1.37232, -174.733, 1.34425, 64.1289, 0.00632632, -70.1296
2, 120.00000, 117.046, -31.1043, 120.876, -151.659, 118.254, 87.2028, 0, 0, 1.329, -54.1782, 1.37232, -174.733, 1.34425, 64.1289, 0.00632632, -70.1296
2, 180.00000, 117.046, -31.1043, 120.876, -151.659, 118.254, 87.2028, 0, 0, 1.329, -54.1782, 1.37232, -174.733, 1.34425, 64.1289, 0.00632632, -70.1296
2, 240.00000, 117.046, -31.1043, 120.876, -151.659, 118.254, 87.2028, 0, 0, 1.329, -54.1782, 1.37232, -174.733, 1.34425, 64.1289, 0.00632632, -70.1297
2, 300.00000, 117.046, -31.1043, 120.876, -151.659, 118.254, 87.2028, 0, 0, 1.329, -54.1782, 1.37232, -174.733, 1.34425, 64.1289, 0.00632632, -70.1297
2, 360.00000, 117.046, -31.1043, 120.876, -151.659, 118.254, 87.2028, 0, 0, 1.329, -54.1782, 1.37232, -174.733, 1.34425, 64.1289, 0.00632632, -70.1297
2, 420.00000, 117.046, -31.1043, 120.876, -151.659, 118.254, 87.2028, 0, 0, 1.329, -54.1782, 1.37232, -174.733, 1.34425, 64.1289, 0.00632632, -70.1297
2, 480.00000, 117.046, -31.1043, 120.876, -151.659, 118.254, 87.2028, 0, 0, 1.329, -54.1782, 1.37232, -174.733, 1.34425, 64.1289, 0.00632632, -70.1297
2, 540.00000, 117.046, -31.1043, 120.876, -151.659, 118.254, 87.2028, 0, 0, 1.329, -54.1782, 1.37232, -174.733, 1.34425, 64.1289, 0.00632632, -70.1297
2, 600.00000, 117.046, -31.1043, 120.876, -151.659, 118.254, 87.2028, 0, 0, 1.329, -54.1782, 1.37232, -174.733, 1.34425, 64.1289, 0.00632632, -70.1297
2, 660.00000, 117.046, -31.1043, 120.876, -151.659, 118.254, 87.2028, 0, 0, 1.329, -54.1782, 1.37232, -174.733, 1.34425, 64.1289, 0.00632632, -70.1297
