hour,t(sec),V1,VAngle1,V2,VAngle2,V3,VAngle3,V4,VAngle4,I1,IAngle1,I2,IAngle2,I3,IAngle3,I4,IAngle4
0, 60.00000, 115.157, -31.6276, 115.056, -150.814, 117.293, 88.8277, 0, 0, 3.56138, -54.7013, 3.55791, -173.888, 3.63498, 65.7539, 0.0316583, -114.147
0, 120.00000, 115.157, -31.6277, 115.056, -150.814, 117.293, 88.8276, 0, 0, 3.56136, -54.7016, 3.55788, -173.888, 3.63495, 65.7537, 0.0316514, -114.153
0, 180.00000, 115.157, -31.6277, 115.056, -150.814, 117.293, 88.8276, 0, 0, 3.56136, -54.7016, 3.55788, -173.888, 3.63495, 65.7537, 0.0316514, -114.154
0, 240.00000, 115.157, -31.6277, 115.056, -150.814, 117.293, 88.8276, 0, 0, 3.56136, -54.7016, 3.55788, -173.888, 3.63495, 65.7537, 0.0316514, -114.154
0, 300.00000, 115.157, -31.6277, 115.056, -150.814, 117.293, 88.8276, 0, 0, 3.56136, -54.7016, 3.55788, -173.888, 3.63495, 65.7537, 0.0316514, -114.154
0, 360.00000, 115.157, -31.6277, 115.056, -150.814, 117.293, 88.8276, 0, 0, 3.56136, -54.7016, 3.55788, -173.888, 3.63495, 65.7537, 0.0316514, -114.154
0, 420.00000, 115.157, -31.6277, 115.056, -150.814, 117.293, 88.8276, 0, 0, 3.56136, -54.7016, 3.55788, -173.888, 3.63495, 65.7537, 0.0316514, -114.154
0, 480.00000, 116.265, -31.5488, 116.117, -150.736, 118.347, 88.9254, 0, 0, 2.86247, -54.6231, 2.85842, -173.81, 2.91951, 65.8513, 0.0239874, -114.306
0, 540.00000, 116.265, -31.5488, 116.117, -150.736, 118.347, 88.9255, 0, 0, 2.8625, -54.6227, 2.85844, -173.81, 2.91954, 65.8515, 0.0239952, -114.315
0, 600.00000, 116.265, -31.5488, 116.117, -150.736, 118.347, 88.9255, 0, 0, 2.8625, -54.6227, 2.85844, -173.81, 2.91954, 65.8515, 0.0239952, -114.315
0, 660.00000, 116.265, -31.5488, 116.117, -150.736, 118.347, 88.9255, 0, 0, 2.8625, -54.6227, 2.85844, -173.81, 2.91954, 65.8515, 0.0239952, -114.315
0, 720.00000, 116.265, -31.5488, 116.117, -150.736, 118.347, 88.9255, 0, 0, 2.8625, -54.6227, 2.85844, -173.81, 2.91954, 65.8515, 0.0239952, -114.315
0, 780.00000, 116.265, -31.5488, 116.117, -150.736, 118.347, 88.9255, 0, 0, 2.8625, -54.6227, 2.85844, -173.81, 2.91954, 65.8515, 0.0239952, -114.315
0, 840.00000, 116.265, -31.5488, 116.117, -150.736, 118.347, 88.9255, 0, 0, 2.8625, -54.6227, 2.85844, -173.81, 2.91954, 65.8515, 0.0239952, -114.315
0, 900.00000, 116.265, -31.5488, 116.117, -150.736, 118.347, 88.9255, 0, 0, 2.8625, -54.6227, 2.85844, -173.81, 2.91954, 65.8515, 0.0239952, -114.315
0, 960.00000, 115.875, -31.5637, 114.922, -151.13, 116.912, 89.0944, 0, 0, 2.85186, -54.6371, 2.82572, -174.204, 2.88029, 66.0206, 0.0228441, -115.482
0, 1020.00000, 115.875, -31.5637, 114.922, -151.13, 116.912, 89.0944, 0, 0, 2.85182, -54.6376, 2.8257, -174.204, 2.88024, 66.0204, 0.0228076, -115.421
0, 1080.00000, 115.875, -31.5637, 114.922, -151.13, 116.912, 89.0944, 0, 0, 2.85182, -54.6376, 2.8257, -174.204, 2.88024, 66.0204, 0.0228074, -115.42
0, 1140.00000, 116.202, -31.5336, 114.921, -151.129, 117.04, 89.2389, 0, 0, 2.86075, -54.6079, 2.82569, -174.203, 2.88372, 66.1648, 0.0230364, -118.397
0, 1200.00000, 116.202, -31.5336, 114.921, -151.129, 117.04, 89.2389, 0, 0, 2.86078, -54.6075, 2.82568, -174.203, 2.88374, 66.1649, 0.0230562, -118.471
0, 1260.00000, 116.202, -31.5336, 114.921, -151.129, 117.04, 89.2389, 0, 0, 2.86078, -54.6075, 2.82568, -174.203, 2.88374, 66.1649, 0.0230562, -118.471
0, 1320.00000, 116.202, -31.5336, 114.921, -151.129, 117.04, 89.2389, 0, 0, 2.86078, -54.6075, 2.82568, -174.203, 2.88374, 66.1649, 0.0230562, -118.471
0, 1380.00000, 116.202, -31.5336, 114.921, -151.129, 117.04, 89.2389, 0, 0, 2.86078, -54.6075, 2.82568, -174.203, 2.88374, 66.1649, 0.0230562, -118.471
0, 1440.00000, 116.202, -31.5336, 114.921, -151.129, 117.04, 89.2389, 0, 0, 2.86078, -54.6075, 2.82568, -174.203, 2.88374, 66.1649, 0.0230562, -118.471
0, 1500.00000, 116.202, -31.5336, 114.921, -151.129, 117.04, 89.2389, 0, 0, 2.86078, -54.6075, 2.82568, -174.203, 2.88374, 66.1649, 0.0230562, -118.471
0, 1560.00000, 116.202, -31.5336, 114.921, -151.129, 117.04, 89.2389, 0, 0, 2.86078, -54.6075, 2.82568, -174.203, 2.88374, 66.1649, 0.0230562, -118.471
0, 1620.00000, 116.202, -31.5336, 114.921, -151.129, 117.04, 89.2389, 0, 0, 2.86078, -54.6075, 2.82568, -174.203, 2.88374, 66.1649, 0.0230562, -118.471
0, 1680.00000, 116.202, -31.5336, 114.921, -151.129, 117.04, 89.2389, 0, 0, 2.86078, -54.6075, 2.82568, -174.203, 2.88374, 66.1649, 0.0230562, -118.471
0, 1740.00000, 116.202, -31.5336, 114.921, -151.129, 117.04, 89.2389, 0, 0, 2.86078, -54.6075, 2.82568, -174.203, 2.88374, 66.1649, 0.0230562, -118.471
0, 1800.00000, 115.528, -31.8092, 114.109, -150.971, 117.083, 89.225, 0, 0, 2.84232, -54.883, 2.80346, -174.045, 2.88492, 66.151, 0.0263182, -120.007
0, 1860.00000, 115.528, -31.8092, 114.109, -150.971, 117.083, 89.225, 0, 0, 2.8423, -54.8831, 2.80343, -174.045, 2.88492, 66.1511, 0.0263339, -119.998
0, 1920.00000, 115.528, -31.8092, 114.109, -150.971, 117.083, 89.225, 0, 0, 2.8423, -54.8831, 2.80343, -174.045, 2.88492, 66.1511, 0.026334, -119.998
0, 1980.00000, 115.528, -31.8092, 114.109, -150.971, 117.083, 89.225, 0, 0, 2.8423, -54.8831, 2.80343, -174.045, 2.88492, 66.1511, 0.026334, -119.998
0, 2040.00000, 115.528, -31.8092, 114.109, -150.971, 117.083, 89.225, 0, 0, 2.8423, -54.8831, 2.80343, -174.045, 2.88492, 66.1511, 0.026334, -119.998
0, 2100.00000, 115.528, -31.8092, 114.109, -150.971, 117.083, 89.225, 0, 0, 2.8423, -54.8831, 2.80343, -174.045, 2.88492, 66.1511, 0.026334, -119.998
0, 2160.00000, 115.528, -31.8092, 114.109, -150.971, 117.083, 89.225, 0, 0, 2.8423, -54.8831, 2.80343, -174.045, 2.88492, 66.1511, 0.026334, -119.998
0, 2220.00000, 115.528, -31.8092, 114.109, -150.971, 117.083, 89.225, 0, 0, 2.8423, -54.8831, 2.80343, -174.045, 2.88492, 66.1511, 0.026334, -119.998
0, 2280.00000, 115.528, -31.8092, 114.109, -150.971, 117.083, 89.225, 0, 0, 2.8423, -54.8831, 2.80343, -174.045, 2.88492, 66.1511, 0.026334, -119.998
0, 2340.00000, 115.528, -31.8092, 114.109, -150.971, 117.083, 89.225, 0, 0, 2.8423, -54.8831, 2.80343, -174.045, 2.88492, 66.1511, 0.026334, -119.998
0, 2400.00000, 115.528, -31.8092, 114.109, -150.971, 117.083, 89.225, 0, 0, 2.8423, -54.8831, 2.80343, -174.045, 2.88492, 66.1511, 0.026334, -119.998
0, 2460.00000, 115.528, -31.8092, 114.109, -150.971, 117.083, 89.225, 0, 0, 2.8423, -54.8831, 2.80343, -174.045, 2.88492, 66.1511, 0.026334, -119.998
0, 2520.00000, 115.528, -31.8092, 114.109, -150.971, 117.083, 89.225, 0, 0, 2.8423, -54.8831, 2.80343, -174.045, 2.88492, 66.1511, 0.026334, -119.998
0, 2580.00000, 115.528, -31.8092, 114.109, -150.971, 117.083, 89.225, 0, 0, 2.8423, -54.8831, 2.80343, -174.045, 2.88492, 66.1511, 0.026334, -119.998
0, 2640.00000, 115.528, -31.8092, 114.109, -150.971, 117.083, 89.225, 0, 0, 2.8423, -54.8831, 2.80343, -174.045, 2.88492, 66.1511, 0.026334, -119.998
0, 2700.00000, 115.528, -31.8092, 114.109, -150.971, 117.083, 89.225, 0, 0, 2.8423, -54.8831, 2.80343, -174.045, 2.88492, 66.1511, 0.026334, -119.998
0, 2760.00000, 115.714, -31.6464, 114.491, -150.966, 117.065, 89.2302, 0, 0, 2.84739, -54.7205, 2.81388, -174.04, 2.88444, 66.1563, 0.0247036, -118.802
0, 2820.00000, 115.714, -31.6464, 114.491, -150.966, 117.065, 89.2302, 0, 0, 2.84741, -54.7203, 2.81391, -174.04, 2.88443, 66.1563, 0.024663, -118.812
0, 2880.00000, 115.714, -31.6464, 114.491, -150.966, 117.065, 89.2302, 0, 0, 2.84741, -54.7203, 2.81391, -174.04, 2.88443, 66.1563, 0.0246628, -118.812
0, 2940.00000, 115.714, -31.6464, 114.491, -150.966, 117.065, 89.2302, 0, 0, 2.84741, -54.7203, 2.81391, -174.04, 2.88443, 66.1563, 0.0246628, -118.812
0, 3000.00000, 115.714, -31.6464, 114.491, -150.966, 117.065, 89.2302, 0, 0, 2.84741, -54.7203, 2.81391, -174.04, 2.88443, 66.1563, 0.0246628, -118.812
0, 3060.00000, 115.714, -31.6464, 114.491, -150.966, 117.065, 89.2302, 0, 0, 2.84741, -54.7203, 2.81391, -174.04, 2.88443, 66.1563, 0.0246628, -118.812
0, 3120.00000, 115.714, -31.6464, 114.491, -150.966, 117.065, 89.2302, 0, 0, 2.84741, -54.7203, 2.81391, -174.04, 2.88443, 66.1563, 0.0246628, -118.812
0, 3180.00000, 115.714, -31.6464, 114.491, -150.966, 117.065, 89.2302, 0, 0, 2.84741, -54.7203, 2.81391, -174.04, 2.88443, 66.1563, 0.0246628, -118.812
0, 3240.00000, 115.714, -31.6464, 114.491, -150.966, 117.065, 89.2302, 0, 0, 2.84741, -54.7203, 2.81391, -174.04, 2.88443, 66.1563, 0.0246628, -118.812
0, 3300.00000, 115.714, -31.6464, 114.491, -150.966, 117.065, 89.2302, 0, 0, 2.84741, -54.7203, 2.81391, -174.04, 2.88443, 66.1563, 0.0246628, -118.812
0, 3360.00000, 115.714, -31.6464, 114.491, -150.966, 117.065, 89.2302, 0, 0, 2.84741, -54.7203, 2.81391, -174.04, 2.88443, 66.1563, 0.0246628, -118.812
0, 3420.00000, 115.714, -31.6464, 114.491, -150.966, 117.065, 89.2302, 0, 0, 2.84741, -54.7203, 2.81391, -174.04, 2.88443, 66.1563, 0.0246628, -118.812
0, 3480.00000, 115.714, -31.6464, 114.491, -150.966, 117.065, 89.2302, 0, 0, 2.84741, -54.7203, 2.81391, -174.04, 2.88443, 66.1563, 0.0246628, -118.812
0, 3540.00000, 115.714, -31.6464, 114.491, -150.966, 117.065, 89.2302, 0, 0, 2.84741, -54.7203, 2.81391, -174.04, 2.88443, 66.1563, 0.0246628, -118.812
1, 0.00000, 115.714, -31.6464, 114.491, -150.966, 117.065, 89.2302, 0, 0, 2.84741, -54.7203, 2.81391, -174.04, 2.88443, 66.1563, 0.0246628, -118.812
1, 60.00000, 115.831, -31.5073, 114.799, -150.943, 117.058, 89.2332, 0, 0, 2.8506, -54.5813, 2.82232, -174.017, 2.88423, 66.1593, 0.0235578, -117.557
1, 120.00000, 115.831, -31.5073, 114.799, -150.943, 117.058, 89.2332, 0, 0, 2.85061, -54.5812, 2.82235, -174.017, 2.88422, 66.1593, 0.0235253, -117.552
1, 180.00000, 115.831, -31.5073, 114.799, -150.943, 117.058, 89.2332, 0, 0, 2.85061, -54.5812, 2.82235, -174.017, 2.88422, 66.1593, 0.0235251, -117.552
1, 240.00000, 115.831, -31.5073, 114.799, -150.943, 117.058, 89.2332, 0, 0, 2.85061, -54.5812, 2.82235, -174.017, 2.88422, 66.1593, 0.0235251, -117.552
1, 300.00000, 115.831, -31.5073, 114.799, -150.943, 117.058, 89.2332, 0, 0, 2.85061, -54.5812, 2.82235, -174.017, 2.88422, 66.1593, 0.0235251, -117.552
1, 360.00000, 115.831, -31.5073, 114.799, -150.943, 117.058, 89.2332, 0, 0, 2.85061, -54.5812, 2.82235, -174.017, 2.88422, 66.1593, 0.0235251, -117.552
1, 420.00000, 115.831, -31.5073, 114.799, -150.943, 117.058, 89.2332, 0, 0, 2.85061, -54.5812, 2.82235, -174.017, 2.88422, 66.1593, 0.0235251, -117.552
1, 480.00000, 115.831, -31.5073, 114.799, -150.943, 117.058, 89.2332, 0, 0, 2.85061, -54.5812, 2.82235, -174.017, 2.88422, 66.1593, 0.0235251, -117.552
1, 540.00000, 115.831, -31.5073, 114.799, -150.943, 117.058, 89.2332, 0, 0, 2.85061, -54.5812, 2.82235, -174.017, 2.88422, 66.1593, 0.0235251, -117.552
1, 600.00000, 115.831, -31.5073, 114.799, -150.943, 117.058, 89.2332, 0, 0, 2.85061, -54.5812, 2.82235, -174.017, 2.88422, 66.1593, 0.0235251, -117.552
1, 660.00000, 115.831, -31.5073, 114.799, -150.943, 117.058, 89.2332, 0, 0, 2.85061, -54.5812, 2.82235, -174.017, 2.88422, 66.1593, 0.0235251, -117.552
1, 720.00000, 115.831, -31.5073, 114.799, -150.943, 117.058, 89.2332, 0, 0, 2.85061, -54.5812, 2.82235, -174.017, 2.88422, 66.1593, 0.0235251, -117.552
1, 780.00000, 115.857, -31.5132, 115.084, -150.756, 117.537, 89.2091, 0, 0, 2.85134, -54.5872, 2.83015, -173.83, 2.89734, 66.135, 0.0241151, -116.373
1, 840.00000, 115.857, -31.5132, 115.084, -150.756, 117.537, 89.2091, 0, 0, 2.85134, -54.5871, 2.83016, -173.83, 2.89737, 66.1352, 0.0241362, -116.329
1, 900.00000, 115.857, -31.5132, 115.084, -150.756, 117.537, 89.2091, 0, 0, 2.85134, -54.5871, 2.83016, -173.83, 2.89737, 66.1352, 0.0241363, -116.328
1, 960.00000, 115.857, -31.5132, 115.084, -150.756, 117.537, 89.2091, 0, 0, 2.85134, -54.5871, 2.83016, -173.83, 2.89737, 66.1352, 0.0241363, -116.328
1, 1020.00000, 115.857, -31.5132, 115.084, -150.756, 117.537, 89.2091, 0, 0, 2.85134, -54.5871, 2.83016, -173.83, 2.89737, 66.1352, 0.0241363, -116.328
1, 1080.00000, 115.857, -31.5132, 115.084, -150.756, 117.537, 89.2091, 0, 0, 2.85134, -54.5871, 2.83016, -173.83, 2.89737, 66.1352, 0.0241363, -116.328
1, 1140.00000, 115.857, -31.5132, 115.084, -150.756, 117.537, 89.2091, 0, 0, 2.85134, -54.5871, 2.83016, -173.83, 2.89737, 66.1352, 0.0241363, -116.328
1, 1200.00000, 115.857, -31.5132, 115.084, -150.756, 117.537, 89.2091, 0, 0, 2.85134, -54.5871, 2.83016, -173.83, 2.89737, 66.1352, 0.0241363, -116.328
1, 1260.00000, 115.857, -31.5132, 115.084, -150.756, 117.537, 89.2091, 0, 0, 2.85134, -54.5871, 2.83016, -173.83, 2.89737, 66.1352, 0.0241363, -116.328
1, 1320.00000, 115.857, -31.5132, 115.084, -150.756, 117.537, 89.2091, 0, 0, 2.85134, -54.5871, 2.83016, -173.83, 2.89737, 66.1352, 0.0241363, -116.328
1, 1380.00000, 115.857, -31.5132, 115.084, -150.756, 117.537, 89.2091, 0, 0, 2.85134, -54.5871, 2.83016, -173.83, 2.89737, 66.1352, 0.0241363, -116.328
1, 1440.00000, 115.857, -31.5132, 115.084, -150.756, 117.537, 89.2091, 0, 0, 2.85134, -54.5871, 2.83016, -173.83, 2.89737, 66.1352, 0.0241363, -116.328
1, 1500.00000, 115.857, -31.5132, 115.084, -150.756, 117.537, 89.2091, 0, 0, 2.85134, -54.5871, 2.83016, -173.83, 2.89737, 66.1352, 0.0241363, -116.328
1, 1560.00000, 115.857, -31.5132, 115.084, -150.756, 117.537, 89.2091, 0, 0, 2.85134, -54.5871, 2.83016, -173.83, 2.89737, 66.1352, 0.0241363, -116.328
1, 1620.00000, 115.857, -31.5132, 115.084, -150.756, 117.537, 89.2091, 0, 0, 2.85134, -54.5871, 2.83016, -173.83, 2.89737, 66.1352, 0.0241363, -116.328
1, 1680.00000, 115.857, -31.5132, 115.084, -150.756, 117.537, 89.2091, 0, 0, 2.85134, -54.5871, 2.83016, -173.83, 2.89737, 66.1352, 0.0241363, -116.328
1, 1740.00000, 115.857, -31.5132, 115.084, -150.756, 117.537, 89.2091, 0, 0, 2.85134, -54.5871, 2.83016, -173.83, 2.89737, 66.1352, 0.0241363, -116.328
1, 1800.00000, 115.857, -31.5132, 115.084, -150.756, 117.537, 89.2091, 0, 0, 2.85134, -54.5871, 2.83016, -173.83, 2.89737, 66.1352, 0.0241363, -116.328
1, 1860.00000, 115.857, -31.5132, 115.084, -150.756, 117.537, 89.2091, 0, 0, 2.85134, -54.5871, 2.83016, -173.83, 2.89737, 66.1352, 0.0241363, -116.328
1, 1920.00000, 115.857, -31.5132, 115.084, -150.756, 117.537, 89.2091, 0, 0, 2.85134, -54.5871, 2.83016, -173.83, 2.89737, 66.1352, 0.0241363, -116.328
1, 1980.00000, 115.857, -31.5132, 115.084, -150.756, 117.537, 89.2091, 0, 0, 2.85134, -54.5871, 2.83016, -173.83, 2.89737, 66.1352, 0.0241363, -116.328
1, 2040.00000, 115.857, -31.5132, 115.084, -150.756, 117.537, 89.2091, 0, 0, 2.85134, -54.5871, 2.83016, -173.83, 2.89737, 66.1352, 0.0241363, -116.328
1, 2100.00000, 115.857, -31.5132, 115.084, -150.756, 117.537, 89.2091, 0, 0, 2.85134, -54.5871, 2.83016, -173.83, 2.89737, 66.1352, 0.0241363, -116.328
1, 2160.00000, 115.857, -31.5132, 115.084, -150.756, 117.537, 89.2091, 0, 0, 2.85134, -54.5871, 2.83016, -173.83, 2.89737, 66.1352, 0.0241363, -116.328
1, 2220.00000, 116.534, -31.2369, 115.904, -150.911, 117.494, 89.2225, 0, 0, 2.86986, -54.3108, 2.8526, -173.985, 2.89619, 66.1486, 0.0208563, -113.955
1, 2280.00000, 116.534, -31.2369, 115.904, -150.911, 117.494, 89.2225, 0, 0, 2.86987, -54.3108, 2.85262, -173.985, 2.89619, 66.1486, 0.0208308, -113.931
1, 2340.00000, 116.534, -31.2369, 115.904, -150.911, 117.494, 89.2225, 0, 0, 2.86987, -54.3108, 2.85262, -173.985, 2.89619, 66.1486, 0.0208307, -113.93
1, 2400.00000, 116.534, -31.2369, 115.904, -150.911, 117.494, 89.2225, 0, 0, 2.86987, -54.3108, 2.85262, -173.985, 2.89619, 66.1486, 0.0208307, -113.93
1, 2460.00000, 116.534, -31.2369, 115.904, -150.911, 117.494, 89.2225, 0, 0, 2.86987, -54.3108, 2.85262, -173.985, 2.89619, 66.1486, 0.0208307, -113.93
1, 2520.00000, 116.534, -31.2369, 115.904, -150.911, 117.494, 89.2225, 0, 0, 2.86987, -54.3108, 2.85262, -173.985, 2.89619, 66.1486, 0.0208307, -113.93
1, 2580.00000, 116.534, -31.2369, 115.904, -150.911, 117.494, 89.2225, 0, 0, 2.86987, -54.3108, 2.85262, -173.985, 2.89619, 66.1486, 0.0208307, -113.93
1, 2640.00000, 116.534, -31.2369, 115.904, -150.911, 117.494, 89.2225, 0, 0, 2.86987, -54.3108, 2.85262, -173.985, 2.89619, 66.1486, 0.0208307, -113.93
1, 2700.00000, 116.534, -31.2369, 115.904, -150.911, 117.494, 89.2225, 0, 0, 2.86987, -54.3108, 2.85262, -173.985, 2.89619, 66.1486, 0.0208307, -113.93
1, 2760.00000, 116.534, -31.2369, 115.904, -150.911, 117.494, 89.2225, 0, 0, 2.86987, -54.3108, 2.85262, -173.985, 2.89619, 66.1486, 0.0208307, -113.93
1, 2820.00000, 116.534, -31.2369, 115.904, -150.911, 117.494, 89.2225, 0, 0, 2.86987, -54.3108, 2.85262, -173.985, 2.89619, 66.1486, 0.0208307, -113.93
1, 2880.00000, 116.534, -31.2369, 115.904, -150.911, 117.494, 89.2225, 0, 0, 2.86987, -54.3108, 2.85262, -173.985, 2.89619, 66.1486, 0.0208307, -113.93
1, 2940.00000, 116.534, -31.2369, 115.904, -150.911, 117.494, 89.2225, 0, 0, 2.86987, -54.3108, 2.85262, -173.985, 2.89619, 66.1486, 0.0208307, -113.93
1, 3000.00000, 116.534, -31.2369, 115.904, -150.911, 117.494, 89.2225, 0, 0, 2.86987, -54.3108, 2.85262, -173.985, 2.89619, 66.1486, 0.0208307, -113.93
1, 3060.00000, 116.534, -31.2369, 115.904, -150.911, 117.494, 89.2225, 0, 0, 2.86987, -54.3108, 2.85262, -173.985, 2.89619, 66.1486, 0.0208307, -113.93
1, 3120.00000, 116.534, -31.2369, 115.904, -150.911, 117.494, 89.2225, 0, 0, 2.86987, -54.3108, 2.85262, -173.985, 2.89619, 66.1486, 0.0208307, -113.93
1, 3180.00000, 116.534, -31.2369, 115.904, -150.911, 117.494, 89.2225, 0, 0, 2.86987, -54.3108, 2.85262, -173.985, 2.89619, 66.1486, 0.0208307, -113.93
1, 3240.00000, 116.534, -31.2369, 115.904, -150.911, 117.494, 89.2225, 0, 0, 2.86987, -54.3108, 2.85262, -173.985, 2.89619, 66.1486, 0.0208307, -113.93
1, 3300.00000, 116.534, -31.2369, 115.904, -150.911, 117.494, 89.2225, 0, 0, 2.86987, -54.3108, 2.85262, -173.985, 2.89619, 66.1486, 0.0208307, -113.93
1, 3360.00000, 116.534, -31.2369, 115.904, -150.911, 117.494, 89.2225, 0, 0, 2.86987, -54.3108, 2.85262, -173.985, 2.89619, 66.1486, 0.0208307, -113.93
1, 3420.00000, 116.534, -31.2369, 115.904, -150.911, 117.494, 89.2225, 0, 0, 2.86987, -54.3108, 2.85262, -173.985, 2.89619, 66.1486, 0.0208307, -113.93
1, 3480.00000, 116.534, -31.2369, 115.904, -150.911, 117.494, 89.2225, 0, 0, 2.86987, -54.3108, 2.85262, -173.985, 2.89619, 66.1486, 0.0208307, -113.93
1, 3540.00000, 116.534, -31.2369, 115.904, -150.911, 117.494, 89.2225, 0, 0, 2.86987, -54.3108, 2.85262, -173.985, 2.89619, 66.1486, 0.0208307, -113.93
2, 0.00000, 116.534, -31.2369, 115.904, -150.911, 117.494, 89.2225, 0, 0, 2.86987, -54.3108, 2.85262, -173.985, 2.89619, 66.1486, 0.0208307, -113.93
2, 60.00000, 116.534, -31.2369, 115.904, -150.911, 117.494, 89.2225, 0, 0, 2.86987, -54.3108, 2.85262, -173.985, 2.89619, 66.1486, 0.0208307, -113.93
2, 120.00000, 116.534, -31.2369, 115.904, -150.911, 117.494, 89.2225, 0, 0, 2.86987, -54.3108, 2.85262, -173.985, 2.89619, 66.1486, 0.0208307, -113.93
2, 180.00000, 116.534, -31.2369, 115.904, -150.911, 117.494, 89.2225, 0, 0, 2.86987, -54.3108, 2.85262, -173.985, 2.89619, 66.1486, 0.0208307, -113.93
2, 240.00000, 116.534, -31.2369, 115.904, -150.911, 117.494, 89.2225, 0, 0, 2.86987, -54.3108, 2.85262, -173.985, 2.89619, 66.1486, 0.0208307, -113.93
2, 300.00000, 116.534, -31.2369, 115.904, -150.911, 117.494, 89.2225, 0, 0, 2.86987, -54.3108, 2.85262, -173.985, 2.89619, 66.1486, 0.0208307, -113.93
2, 360.00000, 116.534, -31.2369, 115.904, -150.911, 117.494, 89.2225, 0, 0, 2.86987, -54.3108, 2.85262, -173.985, 2.89619, 66.1486, 0.0208307, -113.93
2, 420.00000, 116.534, -31.2369, 115.904, -150.911, 117.494, 89.2225, 0, 0, 2.86987, -54.3108, 2.85262, -173.985, 2.89619, 66.1486, 0.0208307, -113.93
2, 480.00000, 116.534, -31.2369, 115.904, -150.911, 117.494, 89.2225, 0, 0, 2.86987, -54.3108, 2.85262, -173.985, 2.89619, 66.1486, 0.0208307, -113.93
2, 540.00000, 116.534, -31.2369, 115.904, -150.911, 117.494, 89.2225, 0, 0, 2.86987, -54.3108, 2.85262, -173.985, 2.89619, 66.1486, 0.0208307, -113.93
2, 600.00000, 116.534, -31.2369, 115.904, -150.911, 117.494, 89.2225, 0, 0, 2.86987, -54.3108, 2.85262, -173.985, 2.89619, 66.1486, 0.0208307, -113.93
2, 660.00000, 116.534, -31.2369, 115.904, -150.911, 117.494, 89.2225, 0, 0, 2.86987, -54.3108, 2.85262, -173.985, 2.89619, 66.1486, 0.0208307, -113.93
