hour,t(sec),V1,VAngle1,V2,VAngle2,V3,VAngle3,V4,VAngle4,I1,IAngle1,I2,IAngle2,I3,IAngle3,I4,IAngle4
0, 60.00000, 117.935, -31.525, 117.512, -150.941, 119.398, 88.9751, 0, 0, 4.82578, -54.5985, 4.80653, -174.015, 4.89234, 65.9014, 0.0337855, -112.333
0, 120.00000, 117.935, -31.525, 117.512, -150.941, 119.398, 88.975, 0, 0, 4.82574, -54.5989, 4.80648, -174.015, 4.89225, 65.9011, 0.0337001, -112.352
0, 180.00000, 117.935, -31.525, 117.512, -150.941, 119.398, 88.975, 0, 0, 4.82574, -54.5989, 4.80648, -174.015, 4.89225, 65.9011, 0.0336998, -112.352
0, 240.00000, 117.935, -31.525, 117.512, -150.941, 119.398, 88.975, 0, 0, 4.82574, -54.5989, 4.80648, -174.015, 4.89225, 65.9011, 0.0336998, -112.352
0, 300.00000, 117.935, -31.525, 117.512, -150.941, 119.398, 88.975, 0, 0, 4.82574, -54.5989, 4.80648, -174.015, 4.89225, 65.9011, 0.0336998, -112.352
0, 360.00000, 117.935, -31.525, 117.512, -150.941, 119.398, 88.975, 0, 0, 4.82574, -54.5989, 4.80648, -174.015, 4.89225, 65.9011, 0.0336998, -112.352
0, 420.00000, 117.935, -31.525, 117.512, -150.941, 119.398, 88.975, 0, 0, 4.82574, -54.5989, 4.80648, -174.015, 4.89225, 65.9011, 0.0336998, -112.352
0, 480.00000, 118.914, -31.4282, 118.443, -150.853, 120.36, 89.0893, 0, 0, 4.66449, -54.5029, 4.64397, -173.926, 4.72726, 66.0147, 0.0325087, -112.098
0, 540.00000, 118.914, -31.4281, 118.443, -150.853, 120.361, 89.0893, 0, 0, 4.66451, -54.5021, 4.644, -173.927, 4.72749, 66.0154, 0.0327874, -112.042
0, 600.00000, 118.914, -31.4281, 118.443, -150.853, 120.361, 89.0893, 0, 0, 4.66451, -54.5021, 4.644, -173.927, 4.72749, 66.0154, 0.0327916, -112.041
0, 660.00000, 118.914, -31.4281, 118.443, -150.853, 120.361, 89.0893, 0, 0, 4.66451, -54.5021, 4.644, -173.927, 4.72749, 66.0154, 0.0327916, -112.041
0, 720.00000, 118.914, -31.4281, 118.443, -150.853, 120.361, 89.0893, 0, 0, 4.66451, -54.5021, 4.644, -173.927, 4.72749, 66.0154, 0.0327916, -112.041
0, 780.00000, 118.914, -31.4281, 118.443, -150.853, 120.361, 89.0893, 0, 0, 4.66451, -54.5021, 4.644, -173.927, 4.72749, 66.0154, 0.0327916, -112.041
0, 840.00000, 118.914, -31.4281, 118.443, -150.853, 120.361, 89.0893, 0, 0, 4.66451, -54.5021, 4.644, -173.927, 4.72749, 66.0154, 0.0327916, -112.041
0, 900.00000, 118.914, -31.4281, 118.443, -150.853, 120.361, 89.0893, 0, 0, 4.66451, -54.5021, 4.644, -173.927, 4.72749, 66.0154, 0.0327916, -112.041
0, 960.00000, 118.914, -31.4281, 118.443, -150.853, 120.361, 89.0893, 0, 0, 4.66451, -54.5021, 4.644, -173.927, 4.72749, 66.0154, 0.0327916, -112.041
0, 1020.00000, 118.914, -31.4281, 118.443, -150.853, 120.361, 89.0893, 0, 0, 4.66451, -54.5021, 4.644, -173.927, 4.72749, 66.0154, 0.0327916, -112.041
0, 1080.00000, 118.914, -31.4281, 118.443, -150.853, 120.361, 89.0893, 0, 0, 4.66451, -54.5021, 4.644, -173.927, 4.72749, 66.0154, 0.0327916, -112.041
0, 1140.00000, 118.914, -31.4281, 118.443, -150.853, 120.361, 89.0893, 0, 0, 4.66451, -54.5021, 4.644, -173.927, 4.72749, 66.0154, 0.0327916, -112.041
0, 1200.00000, 118.914, -31.4281, 118.443, -150.853, 120.361, 89.0893, 0, 0, 4.66451, -54.5021, 4.644, -173.927, 4.72749, 66.0154, 0.0327916, -112.041
0, 1260.00000, 118.914, -31.4281, 118.443, -150.853, 120.361, 89.0893, 0, 0, 4.66451, -54.5021, 4.644, -173.927, 4.72749, 66.0154, 0.0327916, -112.041
0, 1320.00000, 118.914, -31.4281, 118.443, -150.853, 120.361, 89.0893, 0, 0, 4.66451, -54.5021, 4.644, -173.927, 4.72749, 66.0154, 0.0327916, -112.041
0, 1380.00000, 118.914, -31.4281, 118.443, -150.853, 120.361, 89.0893, 0, 0, 4.66451, -54.5021, 4.644, -173.927, 4.72749, 66.0154, 0.0327916, -112.041
0, 1440.00000, 118.914, -31.4281, 118.443, -150.853, 120.361, 89.0893, 0, 0, 4.66451, -54.5021, 4.644, -173.927, 4.72749, 66.0154, 0.0327916, -112.041
0, 1500.00000, 118.914, -31.4281, 118.443, -150.853, 120.361, 89.0893, 0, 0, 4.66451, -54.5021, 4.644, -173.927, 4.72749, 66.0154, 0.0327916, -112.041
0, 1560.00000, 118.914, -31.4281, 118.443, -150.853, 120.361, 89.0893, 0, 0, 4.66451, -54.5021, 4.644, -173.927, 4.72749, 66.0154, 0.0327916, -112.041
0, 1620.00000, 118.914, -31.4281, 118.443, -150.853, 120.361, 89.0893, 0, 0, 4.66451, -54.5021, 4.644, -173.927, 4.72749, 66.0154, 0.0327916, -112.041
0, 1680.00000, 118.914, -31.4281, 118.443, -150.853, 120.361, 89.0893, 0, 0, 4.66451, -54.5021, 4.644, -173.927, 4.72749, 66.0154, 0.0327916, -112.041
0, 1740.00000, 118.914, -31.4281, 118.443, -150.853, 120.361, 89.0893, 0, 0, 4.66451, -54.5021, 4.644, -173.927, 4.72749, 66.0154, 0.0327916, -112.041
0, 1800.00000, 118.914, -31.4281, 118.443, -150.853, 120.361, 89.0893, 0, 0, 4.66451, -54.5021, 4.644, -173.927, 4.72749, 66.0154, 0.0327916, -112.041
0, 1860.00000, 118.914, -31.4281, 118.443, -150.853, 120.361, 89.0893, 0, 0, 4.66451, -54.5021, 4.644, -173.927, 4.72749, 66.0154, 0.0327916, -112.041
0, 1920.00000, 118.914, -31.4281, 118.443, -150.853, 120.361, 89.0893, 0, 0, 4.66451, -54.5021, 4.644, -173.927, 4.72749, 66.0154, 0.0327916, -112.041
0, 1980.00000, 118.914, -31.4281, 118.443, -150.853, 120.361, 89.0893, 0, 0, 4.66451, -54.5021, 4.644, -173.927, 4.72749, 66.0154, 0.0327916, -112.041
0, 2040.00000, 118.914, -31.4281, 118.443, -150.853, 120.361, 89.0893, 0, 0, 4.66451, -54.5021, 4.644, -173.927, 4.72749, 66.0154, 0.0327916, -112.041
0, 2100.00000, 118.914, -31.4281, 118.443, -150.853, 120.361, 89.0893, 0, 0, 4.66451, -54.5021, 4.644, -173.927, 4.72749, 66.0154, 0.0327916, -112.041
0, 2160.00000, 118.914, -31.4281, 118.443, -150.853, 120.361, 89.0893, 0, 0, 4.66451, -54.5021, 4.644, -173.927, 4.72749, 66.0154, 0.0327916, -112.041
0, 2220.00000, 118.914, -31.4281, 118.443, -150.853, 120.361, 89.0893, 0, 0, 4.66451, -54.5021, 4.644, -173.927, 4.72749, 66.0154, 0.0327916, -112.041
0, 2280.00000, 118.914, -31.4281, 118.443, -150.853, 120.361, 89.0893, 0, 0, 4.66451, -54.5021, 4.644, -173.927, 4.72749, 66.0154, 0.0327916, -112.041
0, 2340.00000, 118.914, -31.4281, 118.443, -150.853, 120.361, 89.0893, 0, 0, 4.66451, -54.5021, 4.644, -173.927, 4.72749, 66.0154, 0.0327916, -112.041
0, 2400.00000, 118.914, -31.4281, 118.443, -150.853, 120.361, 89.0893, 0, 0, 4.66451, -54.5021, 4.644, -173.927, 4.72749, 66.0154, 0.0327916, -112.041
0, 2460.00000, 118.914, -31.4281, 118.443, -150.853, 120.361, 89.0893, 0, 0, 4.66451, -54.5021, 4.644, -173.927, 4.72749, 66.0154, 0.0327916, -112.041
0, 2520.00000, 118.914, -31.4281, 118.443, -150.853, 120.361, 89.0893, 0, 0, 4.66451, -54.5021, 4.644, -173.927, 4.72749, 66.0154, 0.0327916, -112.041
0, 2580.00000, 118.914, -31.4281, 118.443, -150.853, 120.361, 89.0893, 0, 0, 4.66451, -54.5021, 4.644, -173.927, 4.72749, 66.0154, 0.0327916, -112.041
0, 2640.00000, 118.914, -31.4281, 118.443, -150.853, 120.361, 89.0893, 0, 0, 4.66451, -54.5021, 4.644, -173.927, 4.72749, 66.0154, 0.0327916, -112.041
0, 2700.00000, 118.914, -31.4281, 118.443, -150.853, 120.361, 89.0893, 0, 0, 4.66451, -54.5021, 4.644, -173.927, 4.72749, 66.0154, 0.0327916, -112.041
0, 2760.00000, 118.914, -31.4281, 118.443, -150.853, 120.361, 89.0893, 0, 0, 4.66451, -54.5021, 4.644, -173.927, 4.72749, 66.0154, 0.0327916, -112.041
0, 2820.00000, 118.914, -31.4281, 118.443, -150.853, 120.361, 89.0893, 0, 0, 4.66451, -54.5021, 4.644, -173.927, 4.72749, 66.0154, 0.0327916, -112.041
0, 2880.00000, 118.914, -31.4281, 118.443, -150.853, 120.361, 89.0893, 0, 0, 4.66451, -54.5021, 4.644, -173.927, 4.72749, 66.0154, 0.0327916, -112.041
0, 2940.00000, 118.914, -31.4281, 118.443, -150.853, 120.361, 89.0893, 0, 0, 4.66451, -54.5021, 4.644, -173.927, 4.72749, 66.0154, 0.0327916, -112.041
0, 3000.00000, 118.914, -31.4281, 118.443, -150.853, 120.361, 89.0893, 0, 0, 4.66451, -54.5021, 4.644, -173.927, 4.72749, 66.0154, 0.0327916, -112.041
0, 3060.00000, 118.914, -31.4281, 118.443, -150.853, 120.361, 89.0893, 0, 0, 4.66451, -54.5021, 4.644, -173.927, 4.72749, 66.0154, 0.0327916, -112.041
0, 3120.00000, 118.914, -31.4281, 118.443, -150.853, 120.361, 89.0893, 0, 0, 4.66451, -54.5021, 4.644, -173.927, 4.72749, 66.0154, 0.0327916, -112.041
0, 3180.00000, 118.914, -31.4281, 118.443, -150.853, 120.361, 89.0893, 0, 0, 4.66451, -54.5021, 4.644, -173.927, 4.72749, 66.0154, 0.0327916, -112.041
0, 3240.00000, 118.914, -31.4281, 118.443, -150.853, 120.361, 89.0893, 0, 0, 4.66451, -54.5021, 4.644, -173.927, 4.72749, 66.0154, 0.0327916, -112.041
0, 3300.00000, 118.914, -31.4281, 118.443, -150.853, 120.361, 89.0893, 0, 0, 4.66451, -54.5021, 4.644, -173.927, 4.72749, 66.0154, 0.0327916, -112.041
0, 3360.00000, 118.914, -31.4281, 118.443, -150.853, 120.361, 89.0893, 0, 0, 4.66451, -54.5021, 4.644, -173.927, 4.72749, 66.0154, 0.0327916, -112.041
0, 3420.00000, 118.914, -31.4281, 118.443, -150.853, 120.361, 89.0893, 0, 0, 4.66451, -54.5021, 4.644, -173.927, 4.72749, 66.0154, 0.0327916, -112.041
0, 3480.00000, 118.914, -31.4281, 118.443, -150.853, 120.361, 89.0893, 0, 0, 4.66451, -54.5021, 4.644, -173.927, 4.72749, 66.0154, 0.0327916, -112.041
0, 3540.00000, 118.914, -31.4281, 118.443, -150.853, 120.361, 89.0893, 0, 0, 4.66451, -54.5021, 4.644, -173.927, 4.72749, 66.0154, 0.0327916, -112.041
1, 0.00000, 118.914, -31.4281, 118.443, -150.853, 120.361, 89.0893, 0, 0, 4.66451, -54.5021, 4.644, -173.927, 4.72749, 66.0154, 0.0327916, -112.041
1, 60.00000, 119.023, -31.2921, 118.751, -150.826, 120.356, 89.0908, 0, 0, 4.66921, -54.3661, 4.65737, -173.9, 4.7273, 66.0169, 0.0312352, -110.212
1, 120.00000, 119.023, -31.2921, 118.752, -150.826, 120.356, 89.0908, 0, 0, 4.66923, -54.366, 4.65742, -173.899, 4.72728, 66.0169, 0.0311714, -110.195
1, 180.00000, 119.023, -31.2921, 118.752, -150.826, 120.356, 89.0908, 0, 0, 4.66923, -54.366, 4.65742, -173.899, 4.72728, 66.0169, 0.0311708, -110.196
1, 240.00000, 119.023, -31.2921, 118.752, -150.826, 120.356, 89.0908, 0, 0, 4.66923, -54.366, 4.65742, -173.899, 4.72728, 66.0169, 0.0311708, -110.196
1, 300.00000, 119.023, -31.2921, 118.752, -150.826, 120.356, 89.0908, 0, 0, 4.66923, -54.366, 4.65742, -173.899, 4.72728, 66.0169, 0.0311708, -110.196
1, 360.00000, 119.023, -31.2921, 118.752, -150.826, 120.356, 89.0908, 0, 0, 4.66923, -54.366, 4.65742, -173.899, 4.72728, 66.0169, 0.0311708, -110.196
1, 420.00000, 119.023, -31.2921, 118.752, -150.826, 120.356, 89.0908, 0, 0, 4.66923, -54.366, 4.65742, -173.899, 4.72728, 66.0169, 0.0311708, -110.196
1, 480.00000, 119.023, -31.2921, 118.752, -150.826, 120.356, 89.0908, 0, 0, 4.66923, -54.366, 4.65742, -173.899, 4.72728, 66.0169, 0.0311708, -110.196
1, 540.00000, 119.023, -31.2921, 118.752, -150.826, 120.356, 89.0908, 0, 0, 4.66923, -54.366, 4.65742, -173.899, 4.72728, 66.0169, 0.0311708, -110.196
1, 600.00000, 119.023, -31.2921, 118.752, -150.826, 120.356, 89.0908, 0, 0, 4.66923, -54.366, 4.65742, -173.899, 4.72728, 66.0169, 0.0311708, -110.196
1, 660.00000, 119.023, -31.2921, 118.752, -150.826, 120.356, 89.0908, 0, 0, 4.66923, -54.366, 4.65742, -173.899, 4.72728, 66.0169, 0.0311708, -110.196
1, 720.00000, 119.023, -31.2921, 118.752, -150.826, 120.356, 89.0908, 0, 0, 4.66923, -54.366, 4.65742, -173.899, 4.72728, 66.0169, 0.0311708, -110.196
1, 780.00000, 119.023, -31.2921, 118.752, -150.826, 120.356, 89.0908, 0, 0, 4.66923, -54.366, 4.65742, -173.899, 4.72728, 66.0169, 0.0311708, -110.196
1, 840.00000, 119.023, -31.2921, 118.752, -150.826, 120.356, 89.0908, 0, 0, 4.66923, -54.366, 4.65742, -173.899, 4.72728, 66.0169, 0.0311708, -110.196
1, 900.00000, 119.023, -31.2921, 118.752, -150.826, 120.356, 89.0908, 0, 0, 4.66923, -54.366, 4.65742, -173.899, 4.72728, 66.0169, 0.0311708, -110.196
1, 960.00000, 119.023, -31.2921, 118.752, -150.826, 120.356, 89.0908, 0, 0, 4.66923, -54.366, 4.65742, -173.899, 4.72728, 66.0169, 0.0311708, -110.196
1, 1020.00000, 119.023, -31.2921, 118.752, -150.826, 120.356, 89.0908, 0, 0, 4.66923, -54.366, 4.65742, -173.899, 4.72728, 66.0169, 0.0311708, -110.196
1, 1080.00000, 119.023, -31.2921, 118.752, -150.826, 120.356, 89.0908, 0, 0, 4.66923, -54.366, 4.65742, -173.899, 4.72728, 66.0169, 0.0311708, -110.196
1, 1140.00000, 119.023, -31.2921, 118.752, -150.826, 120.356, 89.0908, 0, 0, 4.66923, -54.366, 4.65742, -173.899, 4.72728, 66.0169, 0.0311708, -110.196
1, 1200.00000, 119.023, -31.2921, 118.752, -150.826, 120.356, 89.0908, 0, 0, 4.66923, -54.366, 4.65742, -173.899, 4.72728, 66.0169, 0.0311708, -110.196
1, 1260.00000, 119.023, -31.2921, 118.752, -150.826, 120.356, 89.0908, 0, 0, 4.66923, -54.366, 4.65742, -173.899, 4.72728, 66.0169, 0.0311708, -110.196
1, 1320.00000, 119.023, -31.2921, 118.752, -150.826, 120.356, 89.0908, 0, 0, 4.66923, -54.366, 4.65742, -173.899, 4.72728, 66.0169, 0.0311708, -110.196
1, 1380.00000, 119.023, -31.2921, 118.752, -150.826, 120.356, 89.0908, 0, 0, 4.66923, -54.366, 4.65742, -173.899, 4.72728, 66.0169, 0.0311708, -110.196
1, 1440.00000, 119.023, -31.2921, 118.752, -150.826, 120.356, 89.0908, 0, 0, 4.66923, -54.366, 4.65742, -173.899, 4.72728, 66.0169, 0.0311708, -110.196
1, 1500.00000, 119.023, -31.2921, 118.752, -150.826, 120.356, 89.0908, 0, 0, 4.66923, -54.366, 4.65742, -173.899, 4.72728, 66.0169, 0.0311708, -110.196
1, 1560.00000, 119.023, -31.2921, 118.752, -150.826, 120.356, 89.0908, 0, 0, 4.66923, -54.366, 4.65742, -173.899, 4.72728, 66.0169, 0.0311708, -110.196
1, 1620.00000, 119.023, -31.2921, 118.752, -150.826, 120.356, 89.0908, 0, 0, 4.66923, -54.366, 4.65742, -173.899, 4.72728, 66.0169, 0.0311708, -110.196
1, 1680.00000, 119.023, -31.2921, 118.752, -150.826, 120.356, 89.0908, 0, 0, 4.66923, -54.366, 4.65742, -173.899, 4.72728, 66.0169, 0.0311708, -110.196
1, 1740.00000, 119.023, -31.2921, 118.752, -150.826, 120.356, 89.0908, 0, 0, 4.66923, -54.366, 4.65742, -173.899, 4.72728, 66.0169, 0.0311708, -110.196
1, 1800.00000, 119.023, -31.2921, 118.752, -150.826, 120.356, 89.0908, 0, 0, 4.66923, -54.366, 4.65742, -173.899, 4.72728, 66.0169, 0.0311708, -110.196
1, 1860.00000, 119.023, -31.2921, 118.752, -150.826, 120.356, 89.0908, 0, 0, 4.66923, -54.366, 4.65742, -173.899, 4.72728, 66.0169, 0.0311708, -110.196
1, 1920.00000, 119.023, -31.2921, 118.752, -150.826, 120.356, 89.0908, 0, 0, 4.66923, -54.366, 4.65742, -173.899, 4.72728, 66.0169, 0.0311708, -110.196
1, 1980.00000, 119.023, -31.2921, 118.752, -150.826, 120.356, 89.0908, 0, 0, 4.66923, -54.366, 4.65742, -173.899, 4.72728, 66.0169, 0.0311708, -110.196
1, 2040.00000, 119.023, -31.2921, 118.752, -150.826, 120.356, 89.0908, 0, 0, 4.66923, -54.366, 4.65742, -173.899, 4.72728, 66.0169, 0.0311708, -110.196
1, 2100.00000, 119.023, -31.2921, 118.752, -150.826, 120.356, 89.0908, 0, 0, 4.66923, -54.366, 4.65742, -173.899, 4.72728, 66.0169, 0.0311708, -110.196
1, 2160.00000, 119.023, -31.2921, 118.752, -150.826, 120.356, 89.0908, 0, 0, 4.66923, -54.366, 4.65742, -173.899, 4.72728, 66.0169, 0.0311708, -110.196
1, 2220.00000, 119.023, -31.2921, 118.752, -150.826, 120.356, 89.0908, 0, 0, 4.66923, -54.366, 4.65742, -173.899, 4.72728, 66.0169, 0.0311708, -110.196
1, 2280.00000, 119.023, -31.2921, 118.752, -150.826, 120.356, 89.0908, 0, 0, 4.66923, -54.366, 4.65742, -173.899, 4.72728, 66.0169, 0.0311708, -110.196
1, 2340.00000, 119.023, -31.2921, 118.752, -150.826, 120.356, 89.0908, 0, 0, 4.66923, -54.366, 4.65742, -173.899, 4.72728, 66.0169, 0.0311708, -110.196
1, 2400.00000, 119.023, -31.2921, 118.752, -150.826, 120.356, 89.0908, 0, 0, 4.66923, -54.366, 4.65742, -173.899, 4.72728, 66.0169, 0.0311708, -110.196
1, 2460.00000, 119.023, -31.2921, 118.752, -150.826, 120.356, 89.0908, 0, 0, 4.66923, -54.366, 4.65742, -173.899, 4.72728, 66.0169, 0.0311708, -110.196
1, 2520.00000, 119.023, -31.2921, 118.752, -150.826, 120.356, 89.0908, 0, 0, 4.66923, -54.366, 4.65742, -173.899, 4.72728, 66.0169, 0.0311708, -110.196
1, 2580.00000, 119.023, -31.2921, 118.752, -150.826, 120.356, 89.0908, 0, 0, 4.66923, -54.366, 4.65742, -173.899, 4.72728, 66.0169, 0.0311708, -110.196
1, 2640.00000, 119.023, -31.2921, 118.752, -150.826, 120.356, 89.0908, 0, 0, 4.66923, -54.366, 4.65742, -173.899, 4.72728, 66.0169, 0.0311708, -110.196
1, 2700.00000, 119.023, -31.2921, 118.752, -150.826, 120.356, 89.0908, 0, 0, 4.66923, -54.366, 4.65742, -173.899, 4.72728, 66.0169, 0.0311708, -110.196
1, 2760.00000, 119.023, -31.2921, 118.752, -150.826, 120.356, 89.0908, 0, 0, 4.66923, -54.366, 4.65742, -173.899, 4.72728, 66.0169, 0.0311708, -110.196
1, 2820.00000, 119.023, -31.2921, 118.752, -150.826, 120.356, 89.0908, 0, 0, 4.66923, -54.366, 4.65742, -173.899, 4.72728, 66.0169, 0.0311708, -110.196
1, 2880.00000, 119.023, -31.2921, 118.752, -150.826, 120.356, 89.0908, 0, 0, 4.66923, -54.366, 4.65742, -173.899, 4.72728, 66.0169, 0.0311708, -110.196
1, 2940.00000, 119.023, -31.2921, 118.752, -150.826, 120.356, 89.0908, 0, 0, 4.66923, -54.366, 4.65742, -173.899, 4.72728, 66.0169, 0.0311708, -110.196
1, 3000.00000, 119.023, -31.2921, 118.752, -150.826, 120.356, 89.0908, 0, 0, 4.66923, -54.366, 4.65742, -173.899, 4.72728, 66.0169, 0.0311708, -110.196
1, 3060.00000, 119.023, -31.2921, 118.752, -150.826, 120.356, 89.0908, 0, 0, 4.66923, -54.366, 4.65742, -173.899, 4.72728, 66.0169, 0.0311708, -110.196
1, 3120.00000, 119.023, -31.2921, 118.752, -150.826, 120.356, 89.0908, 0, 0, 4.66923, -54.366, 4.65742, -173.899, 4.72728, 66.0169, 0.0311708, -110.196
1, 3180.00000, 119.023, -31.2921, 118.752, -150.826, 120.356, 89.0908, 0, 0, 4.66923, -54.366, 4.65742, -173.899, 4.72728, 66.0169, 0.0311708, -110.196
1, 3240.00000, 119.023, -31.2921, 118.752, -150.826, 120.356, 89.0908, 0, 0, 4.66923, -54.366, 4.65742, -173.899, 4.72728, 66.0169, 0.0311708, -110.196
1, 3300.00000, 119.023, -31.2921, 118.752, -150.826, 120.356, 89.0908, 0, 0, 4.66923, -54.366, 4.65742, -173.899, 4.72728, 66.0169, 0.0311708, -110.196
1, 3360.00000, 119.023, -31.2921, 118.752, -150.826, 120.356, 89.0908, 0, 0, 4.66923, -54.366, 4.65742, -173.899, 4.72728, 66.0169, 0.0311708, -110.196
1, 3420.00000, 119.023, -31.2921, 118.752, -150.826, 120.356, 89.0908, 0, 0, 4.66923, -54.366, 4.65742, -173.899, 4.72728, 66.0169, 0.0311708, -110.196
1, 3480.00000, 119.023, -31.2921, 118.752, -150.826, 120.356, 89.0908, 0, 0, 4.66923, -54.366, 4.65742, -173.899, 4.72728, 66.0169, 0.0311708, -110.196
1, 3540.00000, 119.023, -31.2921, 118.752, -150.826, 120.356, 89.0908, 0, 0, 4.66923, -54.366, 4.65742, -173.899, 4.72728, 66.0169, 0.0311708, -110.196
2, 0.00000, 119.023, -31.2921, 118.752, -150.826, 120.356, 89.0908, 0, 0, 4.66923, -54.366, 4.65742, -173.899, 4.72728, 66.0169, 0.0311708, -110.196
2, 60.00000, 119.023, -31.2921, 118.752, -150.826, 120.356, 89.0908, 0, 0, 4.66923, -54.366, 4.65742, -173.899, 4.72728, 66.0169, 0.0311708, -110.196
2, 120.00000, 119.023, -31.2921, 118.752, -150.826, 120.356, 89.0908, 0, 0, 4.66923, -54.366, 4.65742, -173.899, 4.72728, 66.0169, 0.0311708, -110.196
2, 180.00000, 119.023, -31.2921, 118.752, -150.826, 120.356, 89.0908, 0, 0, 4.66923, -54.366, 4.65742, -173.899, 4.72728, 66.0169, 0.0311708, -110.196
2, 240.00000, 119.023, -31.2921, 118.752, -150.826, 120.356, 89.0908, 0, 0, 4.66923, -54.366, 4.65742, -173.899, 4.72728, 66.0169, 0.0311708, -110.196
2, 300.00000, 119.023, -31.2921, 118.752, -150.826, 120.356, 89.0908, 0, 0, 4.66923, -54.366, 4.65742, -173.899, 4.72728, 66.0169, 0.0311708, -110.196
2, 360.00000, 119.023, -31.2921, 118.752, -150.826, 120.356, 89.0908, 0, 0, 4.66923, -54.366, 4.65742, -173.899, 4.72728, 66.0169, 0.0311708, -110.196
2, 420.00000, 119.023, -31.2921, 118.752, -150.826, 120.356, 89.0908, 0, 0, 4.66923, -54.366, 4.65742, -173.899, 4.72728, 66.0169, 0.0311708, -110.196
2, 480.00000, 119.023, -31.2921, 118.752, -150.826, 120.356, 89.0908, 0, 0, 4.66923, -54.366, 4.65742, -173.899, 4.72728, 66.0169, 0.0311708, -110.196
2, 540.00000, 119.023, -31.2921, 118.752, -150.826, 120.356, 89.0908, 0, 0, 4.66923, -54.366, 4.65742, -173.899, 4.72728, 66.0169, 0.0311708, -110.196
2, 600.00000, 119.023, -31.2921, 118.752, -150.826, 120.356, 89.0908, 0, 0, 4.66923, -54.366, 4.65742, -173.899, 4.72728, 66.0169, 0.0311708, -110.196
2, 660.00000, 119.023, -31.2921, 118.752, -150.826, 120.356, 89.0908, 0, 0, 4.66923, -54.366, 4.65742, -173.899, 4.72728, 66.0169, 0.0311708, -110.196
