hour,t(sec),V1,VAngle1,V2,VAngle2,V3,VAngle3,V4,VAngle4,I1,IAngle1,I2,IAngle2,I3,IAngle3,I4,IAngle4
0, 60.00000, 117.133, -31.5877, 116.869, -150.696, 119.357, 88.956, 0, 0, 2.41854, -54.6613, 2.41247, -173.77, 2.46962, 65.8824, 0.0216528, -116.889
0, 120.00000, 117.133, -31.5878, 116.869, -150.696, 119.357, 88.956, 0, 0, 2.41852, -54.6617, 2.41244, -173.77, 2.46957, 65.8821, 0.0216156, -116.917
0, 180.00000, 117.133, -31.5878, 116.869, -150.696, 119.357, 88.956, 0, 0, 2.41852, -54.6617, 2.41244, -173.77, 2.46957, 65.8821, 0.0216154, -116.917
0, 240.00000, 117.133, -31.5878, 116.869, -150.696, 119.357, 88.956, 0, 0, 2.41852, -54.6617, 2.41244, -173.77, 2.46957, 65.8821, 0.0216154, -116.917
0, 300.00000, 117.133, -31.5878, 116.869, -150.696, 119.357, 88.956, 0, 0, 2.41852, -54.6617, 2.41244, -173.77, 2.46957, 65.8821, 0.0216154, -116.917
0, 360.00000, 117.133, -31.5878, 116.869, -150.696, 119.357, 88.956, 0, 0, 2.41852, -54.6617, 2.41244, -173.77, 2.46957, 65.8821, 0.0216154, -116.917
0, 420.00000, 117.133, -31.5878, 116.869, -150.696, 119.357, 88.956, 0, 0, 2.41852, -54.6617, 2.41244, -173.77, 2.46957, 65.8821, 0.0216154, -116.917
0, 480.00000, 118.076, -31.4911, 117.771, -150.605, 120.287, 89.071, 0, 0, 2.20481, -54.5658, 2.19848, -173.679, 2.25061, 65.9964, 0.0195164, -116.476
0, 540.00000, 118.076, -31.4911, 117.771, -150.605, 120.288, 89.0711, 0, 0, 2.20483, -54.565, 2.1985, -173.679, 2.25072, 65.9971, 0.0196349, -116.408
0, 600.00000, 118.076, -31.4911, 117.771, -150.605, 120.288, 89.0711, 0, 0, 2.20483, -54.565, 2.1985, -173.679, 2.25072, 65.9971, 0.0196366, -116.407
0, 660.00000, 118.076, -31.4911, 117.771, -150.605, 120.288, 89.0711, 0, 0, 2.20483, -54.565, 2.1985, -173.679, 2.25072, 65.9971, 0.0196366, -116.407
0, 720.00000, 118.076, -31.4911, 117.771, -150.605, 120.288, 89.0711, 0, 0, 2.20483, -54.565, 2.1985, -173.679, 2.25072, 65.9971, 0.0196366, -116.407
0, 780.00000, 118.076, -31.4911, 117.771, -150.605, 120.288, 89.0711, 0, 0, 2.20483, -54.565, 2.1985, -173.679, 2.25072, 65.9971, 0.0196366, -116.407
0, 840.00000, 118.076, -31.4911, 117.771, -150.605, 120.288, 89.0711, 0, 0, 2.20483, -54.565, 2.1985, -173.679, 2.25072, 65.9971, 0.0196366, -116.407
0, 900.00000, 118.076, -31.4911, 117.771, -150.605, 120.288, 89.0711, 0, 0, 2.20483, -54.565, 2.1985, -173.679, 2.25072, 65.9971, 0.0196366, -116.407
0, 960.00000, 118.076, -31.4911, 117.771, -150.605, 120.288, 89.0711, 0, 0, 2.20483, -54.565, 2.1985, -173.679, 2.25072, 65.9971, 0.0196366, -116.407
0, 1020.00000, 118.076, -31.4911, 117.771, -150.605, 120.288, 89.0711, 0, 0, 2.20483, -54.565, 2.1985, -173.679, 2.25072, 65.9971, 0.0196366, -116.407
0, 1080.00000, 118.076, -31.4911, 117.771, -150.605, 120.288, 89.0711, 0, 0, 2.20483, -54.565, 2.1985, -173.679, 2.25072, 65.9971, 0.0196366, -116.407
0, 1140.00000, 118.076, -31.4911, 117.771, -150.605, 120.288, 89.0711, 0, 0, 2.20483, -54.565, 2.1985, -173.679, 2.25072, 65.9971, 0.0196366, -116.407
0, 1200.00000, 118.076, -31.4911, 117.771, -150.605, 120.288, 89.0711, 0, 0, 2.20483, -54.565, 2.1985, -173.679, 2.25072, 65.9971, 0.0196366, -116.407
0, 1260.00000, 118.076, -31.4911, 117.771, -150.605, 120.288, 89.0711, 0, 0, 2.20483, -54.565, 2.1985, -173.679, 2.25072, 65.9971, 0.0196366, -116.407
0, 1320.00000, 118.076, -31.4911, 117.771, -150.605, 120.288, 89.0711, 0, 0, 2.20483, -54.565, 2.1985, -173.679, 2.25072, 65.9971, 0.0196366, -116.407
0, 1380.00000, 118.076, -31.4911, 117.771, -150.605, 120.288, 89.0711, 0, 0, 2.20483, -54.565, 2.1985, -173.679, 2.25072, 65.9971, 0.0196366, -116.407
0, 1440.00000, 118.076, -31.4911, 117.771, -150.605, 120.288, 89.0711, 0, 0, 2.20483, -54.565, 2.1985, -173.679, 2.25072, 65.9971, 0.0196366, -116.407
0, 1500.00000, 118.076, -31.4911, 117.771, -150.605, 120.288, 89.0711, 0, 0, 2.20483, -54.565, 2.1985, -173.679, 2.25072, 65.9971, 0.0196366, -116.407
0, 1560.00000, 118.076, -31.4911, 117.771, -150.605, 120.288, 89.0711, 0, 0, 2.20483, -54.565, 2.1985, -173.679, 2.25072, 65.9971, 0.0196366, -116.407
0, 1620.00000, 118.076, -31.4911, 117.771, -150.605, 120.288, 89.0711, 0, 0, 2.20483, -54.565, 2.1985, -173.679, 2.25072, 65.9971, 0.0196366, -116.407
0, 1680.00000, 118.076, -31.4911, 117.771, -150.605, 120.288, 89.0711, 0, 0, 2.20483, -54.565, 2.1985, -173.679, 2.25072, 65.9971, 0.0196366, -116.407
0, 1740.00000, 118.076, -31.4911, 117.771, -150.605, 120.288, 89.0711, 0, 0, 2.20483, -54.565, 2.1985, -173.679, 2.25072, 65.9971, 0.0196366, -116.407
0, 1800.00000, 118.076, -31.4911, 117.771, -150.605, 120.288, 89.0711, 0, 0, 2.20483, -54.565, 2.1985, -173.679, 2.25072, 65.9971, 0.0196366, -116.407
0, 1860.00000, 118.076, -31.4911, 117.771, -150.605, 120.288, 89.0711, 0, 0, 2.20483, -54.565, 2.1985, -173.679, 2.25072, 65.9971, 0.0196366, -116.407
0, 1920.00000, 118.076, -31.4911, 117.771, -150.605, 120.288, 89.0711, 0, 0, 2.20483, -54.565, 2.1985, -173.679, 2.25072, 65.9971, 0.0196366, -116.407
0, 1980.00000, 118.076, -31.4911, 117.771, -150.605, 120.288, 89.0711, 0, 0, 2.20483, -54.565, 2.1985, -173.679, 2.25072, 65.9971, 0.0196366, -116.407
0, 2040.00000, 118.076, -31.4911, 117.771, -150.605, 120.288, 89.0711, 0, 0, 2.20483, -54.565, 2.1985, -173.679, 2.25072, 65.9971, 0.0196366, -116.407
0, 2100.00000, 118.076, -31.4911, 117.771, -150.605, 120.288, 89.0711, 0, 0, 2.20483, -54.565, 2.1985, -173.679, 2.25072, 65.9971, 0.0196366, -116.407
0, 2160.00000, 118.076, -31.4911, 117.771, -150.605, 120.288, 89.0711, 0, 0, 2.20483, -54.565, 2.1985, -173.679, 2.25072, 65.9971, 0.0196366, -116.407
0, 2220.00000, 118.076, -31.4911, 117.771, -150.605, 120.288, 89.0711, 0, 0, 2.20483, -54.565, 2.1985, -173.679, 2.25072, 65.9971, 0.0196366, -116.407
0, 2280.00000, 118.076, -31.4911, 117.771, -150.605, 120.288, 89.0711, 0, 0, 2.20483, -54.565, 2.1985, -173.679, 2.25072, 65.9971, 0.0196366, -116.407
0, 2340.00000, 118.076, -31.4911, 117.771, -150.605, 120.288, 89.0711, 0, 0, 2.20483, -54.565, 2.1985, -173.679, 2.25072, 65.9971, 0.0196366, -116.407
0, 2400.00000, 118.076, -31.4911, 117.771, -150.605, 120.288, 89.0711, 0, 0, 2.20483, -54.565, 2.1985, -173.679, 2.25072, 65.9971, 0.0196366, -116.407
0, 2460.00000, 118.076, -31.4911, 117.771, -150.605, 120.288, 89.0711, 0, 0, 2.20483, -54.565, 2.1985, -173.679, 2.25072, 65.9971, 0.0196366, -116.407
0, 2520.00000, 118.076, -31.4911, 117.771, -150.605, 120.288, 89.0711, 0, 0, 2.20483, -54.565, 2.1985, -173.679, 2.25072, 65.9971, 0.0196366, -116.407
0, 2580.00000, 118.076, -31.4911, 117.771, -150.605, 120.288, 89.0711, 0, 0, 2.20483, -54.565, 2.1985, -173.679, 2.25072, 65.9971, 0.0196366, -116.407
0, 2640.00000, 118.076, -31.4911, 117.771, -150.605, 120.288, 89.0711, 0, 0, 2.20483, -54.565, 2.1985, -173.679, 2.25072, 65.9971, 0.0196366, -116.407
0, 2700.00000, 118.076, -31.4911, 117.771, -150.605, 120.288, 89.0711, 0, 0, 2.20483, -54.565, 2.1985, -173.679, 2.25072, 65.9971, 0.0196366, -116.407
0, 2760.00000, 118.076, -31.4911, 117.771, -150.605, 120.288, 89.0711, 0, 0, 2.20483, -54.565, 2.1985, -173.679, 2.25072, 65.9971, 0.0196366, -116.407
0, 2820.00000, 118.076, -31.4911, 117.771, -150.605, 120.288, 89.0711, 0, 0, 2.20483, -54.565, 2.1985, -173.679, 2.25072, 65.9971, 0.0196366, -116.407
0, 2880.00000, 118.076, -31.4911, 117.771, -150.605, 120.288, 89.0711, 0, 0, 2.20483, -54.565, 2.1985, -173.679, 2.25072, 65.9971, 0.0196366, -116.407
0, 2940.00000, 118.076, -31.4911, 117.771, -150.605, 120.288, 89.0711, 0, 0, 2.20483, -54.565, 2.1985, -173.679, 2.25072, 65.9971, 0.0196366, -116.407
0, 3000.00000, 118.076, -31.4911, 117.771, -150.605, 120.288, 89.0711, 0, 0, 2.20483, -54.565, 2.1985, -173.679, 2.25072, 65.9971, 0.0196366, -116.407
0, 3060.00000, 118.076, -31.4911, 117.771, -150.605, 120.288, 89.0711, 0, 0, 2.20483, -54.565, 2.1985, -173.679, 2.25072, 65.9971, 0.0196366, -116.407
0, 3120.00000, 118.076, -31.4911, 117.771, -150.605, 120.288, 89.0711, 0, 0, 2.20483, -54.565, 2.1985, -173.679, 2.25072, 65.9971, 0.0196366, -116.407
0, 3180.00000, 118.076, -31.4911, 117.771, -150.605, 120.288, 89.0711, 0, 0, 2.20483, -54.565, 2.1985, -173.679, 2.25072, 65.9971, 0.0196366, -116.407
0, 3240.00000, 118.076, -31.4911, 117.771, -150.605, 120.288, 89.0711, 0, 0, 2.20483, -54.565, 2.1985, -173.679, 2.25072, 65.9971, 0.0196366, -116.407
0, 3300.00000, 118.076, -31.4911, 117.771, -150.605, 120.288, 89.0711, 0, 0, 2.20483, -54.565, 2.1985, -173.679, 2.25072, 65.9971, 0.0196366, -116.407
0, 3360.00000, 118.076, -31.4911, 117.771, -150.605, 120.288, 89.0711, 0, 0, 2.20483, -54.565, 2.1985, -173.679, 2.25072, 65.9971, 0.0196366, -116.407
0, 3420.00000, 118.076, -31.4911, 117.771, -150.605, 120.288, 89.0711, 0, 0, 2.20483, -54.565, 2.1985, -173.679, 2.25072, 65.9971, 0.0196366, -116.407
0, 3480.00000, 118.076, -31.4911, 117.771, -150.605, 120.288, 89.0711, 0, 0, 2.20483, -54.565, 2.1985, -173.679, 2.25072, 65.9971, 0.0196366, -116.407
0, 3540.00000, 118.076, -31.4911, 117.771, -150.605, 120.288, 89.0711, 0, 0, 2.20483, -54.565, 2.1985, -173.679, 2.25072, 65.9971, 0.0196366, -116.407
1, 0.00000, 118.076, -31.4911, 117.771, -150.605, 120.288, 89.0711, 0, 0, 2.20483, -54.565, 2.1985, -173.679, 2.25072, 65.9971, 0.0196366, -116.407
1, 60.00000, 118.244, -31.3382, 118.142, -150.594, 120.273, 89.0741, 0, 0, 2.20831, -54.4121, 2.20617, -173.668, 2.25042, 66.0001, 0.0183996, -114.861
1, 120.00000, 118.245, -31.3382, 118.142, -150.594, 120.273, 89.0741, 0, 0, 2.20833, -54.4121, 2.20621, -173.668, 2.2504, 66.0002, 0.0183508, -114.841
1, 180.00000, 118.245, -31.3382, 118.142, -150.594, 120.273, 89.0741, 0, 0, 2.20833, -54.4121, 2.20621, -173.668, 2.2504, 66.0001, 0.0183504, -114.841
1, 240.00000, 118.245, -31.3382, 118.142, -150.594, 120.273, 89.0741, 0, 0, 2.20833, -54.4121, 2.20621, -173.668, 2.2504, 66.0001, 0.0183504, -114.841
1, 300.00000, 118.245, -31.3382, 118.142, -150.594, 120.273, 89.0741, 0, 0, 2.20833, -54.4121, 2.20621, -173.668, 2.2504, 66.0001, 0.0183504, -114.841
1, 360.00000, 118.245, -31.3382, 118.142, -150.594, 120.273, 89.0741, 0, 0, 2.20833, -54.4121, 2.20621, -173.668, 2.2504, 66.0001, 0.0183504, -114.841
1, 420.00000, 118.245, -31.3382, 118.142, -150.594, 120.273, 89.0741, 0, 0, 2.20833, -54.4121, 2.20621, -173.668, 2.2504, 66.0001, 0.0183504, -114.841
1, 480.00000, 118.245, -31.3382, 118.142, -150.594, 120.273, 89.0741, 0, 0, 2.20833, -54.4121, 2.20621, -173.668, 2.2504, 66.0001, 0.0183504, -114.841
1, 540.00000, 118.245, -31.3382, 118.142, -150.594, 120.273, 89.0741, 0, 0, 2.20833, -54.4121, 2.20621, -173.668, 2.2504, 66.0001, 0.0183504, -114.841
1, 600.00000, 118.245, -31.3382, 118.142, -150.594, 120.273, 89.0741, 0, 0, 2.20833, -54.4121, 2.20621, -173.668, 2.2504, 66.0001, 0.0183504, -114.841
1, 660.00000, 118.245, -31.3382, 118.142, -150.594, 120.273, 89.0741, 0, 0, 2.20833, -54.4121, 2.20621, -173.668, 2.2504, 66.0001, 0.0183504, -114.841
1, 720.00000, 118.245, -31.3382, 118.142, -150.594, 120.273, 89.0741, 0, 0, 2.20833, -54.4121, 2.20621, -173.668, 2.2504, 66.0001, 0.0183504, -114.841
1, 780.00000, 118.245, -31.3382, 118.142, -150.594, 120.273, 89.0741, 0, 0, 2.20833, -54.4121, 2.20621, -173.668, 2.2504, 66.0001, 0.0183504, -114.841
1, 840.00000, 118.245, -31.3382, 118.142, -150.594, 120.273, 89.0741, 0, 0, 2.20833, -54.4121, 2.20621, -173.668, 2.2504, 66.0001, 0.0183504, -114.841
1, 900.00000, 118.245, -31.3382, 118.142, -150.594, 120.273, 89.0741, 0, 0, 2.20833, -54.4121, 2.20621, -173.668, 2.2504, 66.0001, 0.0183504, -114.841
1, 960.00000, 118.245, -31.3382, 118.142, -150.594, 120.273, 89.0741, 0, 0, 2.20833, -54.4121, 2.20621, -173.668, 2.2504, 66.0001, 0.0183504, -114.841
1, 1020.00000, 118.245, -31.3382, 118.142, -150.594, 120.273, 89.0741, 0, 0, 2.20833, -54.4121, 2.20621, -173.668, 2.2504, 66.0001, 0.0183504, -114.841
1, 1080.00000, 118.245, -31.3382, 118.142, -150.594, 120.273, 89.0741, 0, 0, 2.20833, -54.4121, 2.20621, -173.668, 2.2504, 66.0001, 0.0183504, -114.841
1, 1140.00000, 118.245, -31.3382, 118.142, -150.594, 120.273, 89.0741, 0, 0, 2.20833, -54.4121, 2.20621, -173.668, 2.2504, 66.0001, 0.0183504, -114.841
1, 1200.00000, 118.245, -31.3382, 118.142, -150.594, 120.273, 89.0741, 0, 0, 2.20833, -54.4121, 2.20621, -173.668, 2.2504, 66.0001, 0.0183504, -114.841
1, 1260.00000, 118.245, -31.3382, 118.142, -150.594, 120.273, 89.0741, 0, 0, 2.20833, -54.4121, 2.20621, -173.668, 2.2504, 66.0001, 0.0183504, -114.841
1, 1320.00000, 118.245, -31.3382, 118.142, -150.594, 120.273, 89.0741, 0, 0, 2.20833, -54.4121, 2.20621, -173.668, 2.2504, 66.0001, 0.0183504, -114.841
1, 1380.00000, 118.245, -31.3382, 118.142, -150.594, 120.273, 89.0741, 0, 0, 2.20833, -54.4121, 2.20621, -173.668, 2.2504, 66.0001, 0.0183504, -114.841
1, 1440.00000, 118.245, -31.3382, 118.142, -150.594, 120.273, 89.0741, 0, 0, 2.20833, -54.4121, 2.20621, -173.668, 2.2504, 66.0001, 0.0183504, -114.841
1, 1500.00000, 118.245, -31.3382, 118.142, -150.594, 120.273, 89.0741, 0, 0, 2.20833, -54.4121, 2.20621, -173.668, 2.2504, 66.0001, 0.0183504, -114.841
1, 1560.00000, 118.245, -31.3382, 118.142, -150.594, 120.273, 89.0741, 0, 0, 2.20833, -54.4121, 2.20621, -173.668, 2.2504, 66.0001, 0.0183504, -114.841
1, 1620.00000, 118.245, -31.3382, 118.142, -150.594, 120.273, 89.0741, 0, 0, 2.20833, -54.4121, 2.20621, -173.668, 2.2504, 66.0001, 0.0183504, -114.841
1, 1680.00000, 118.245, -31.3382, 118.142, -150.594, 120.273, 89.0741, 0, 0, 2.20833, -54.4121, 2.20621, -173.668, 2.2504, 66.0001, 0.0183504, -114.841
1, 1740.00000, 118.245, -31.3382, 118.142, -150.594, 120.273, 89.0741, 0, 0, 2.20833, -54.4121, 2.20621, -173.668, 2.2504, 66.0001, 0.0183504, -114.841
1, 1800.00000, 118.245, -31.3382, 118.142, -150.594, 120.273, 89.0741, 0, 0, 2.20833, -54.4121, 2.20621, -173.668, 2.2504, 66.0001, 0.0183504, -114.841
1, 1860.00000, 118.245, -31.3382, 118.142, -150.594, 120.273, 89.0741, 0, 0, 2.20833, -54.4121, 2.20621, -173.668, 2.2504, 66.0001, 0.0183504, -114.841
1, 1920.00000, 118.245, -31.3382, 118.142, -150.594, 120.273, 89.0741, 0, 0, 2.20833, -54.4121, 2.20621, -173.668, 2.2504, 66.0001, 0.0183504, -114.841
1, 1980.00000, 118.245, -31.3382, 118.142, -150.594, 120.273, 89.0741, 0, 0, 2.20833, -54.4121, 2.20621, -173.668, 2.2504, 66.0001, 0.0183504, -114.841
1, 2040.00000, 118.245, -31.3382, 118.142, -150.594, 120.273, 89.0741, 0, 0, 2.20833, -54.4121, 2.20621, -173.668, 2.2504, 66.0001, 0.0183504, -114.841
1, 2100.00000, 118.245, -31.3382, 118.142, -150.594, 120.273, 89.0741, 0, 0, 2.20833, -54.4121, 2.20621, -173.668, 2.2504, 66.0001, 0.0183504, -114.841
1, 2160.00000, 118.245, -31.3382, 118.142, -150.594, 120.273, 89.0741, 0, 0, 2.20833, -54.4121, 2.20621, -173.668, 2.2504, 66.0001, 0.0183504, -114.841
1, 2220.00000, 118.245, -31.3382, 118.142, -150.594, 120.273, 89.0741, 0, 0, 2.20833, -54.4121, 2.20621, -173.668, 2.2504, 66.0001, 0.0183504, -114.841
1, 2280.00000, 118.245, -31.3382, 118.142, -150.594, 120.273, 89.0741, 0, 0, 2.20833, -54.4121, 2.20621, -173.668, 2.2504, 66.0001, 0.0183504, -114.841
1, 2340.00000, 118.245, -31.3382, 118.142, -150.594, 120.273, 89.0741, 0, 0, 2.20833, -54.4121, 2.20621, -173.668, 2.2504, 66.0001, 0.0183504, -114.841
1, 2400.00000, 118.245, -31.3382, 118.142, -150.594, 120.273, 89.0741, 0, 0, 2.20833, -54.4121, 2.20621, -173.668, 2.2504, 66.0001, 0.0183504, -114.841
1, 2460.00000, 118.245, -31.3382, 118.142, -150.594, 120.273, 89.0741, 0, 0, 2.20833, -54.4121, 2.20621, -173.668, 2.2504, 66.0001, 0.0183504, -114.841
1, 2520.00000, 118.245, -31.3382, 118.142, -150.594, 120.273, 89.0741, 0, 0, 2.20833, -54.4121, 2.20621, -173.668, 2.2504, 66.0001, 0.0183504, -114.841
1, 2580.00000, 118.245, -31.3382, 118.142, -150.594, 120.273, 89.0741, 0, 0, 2.20833, -54.4121, 2.20621, -173.668, 2.2504, 66.0001, 0.0183504, -114.841
1, 2640.00000, 118.245, -31.3382, 118.142, -150.594, 120.273, 89.0741, 0, 0, 2.20833, -54.4121, 2.20621, -173.668, 2.2504, 66.0001, 0.0183504, -114.841
1, 2700.00000, 118.245, -31.3382, 118.142, -150.594, 120.273, 89.0741, 0, 0, 2.20833, -54.4121, 2.20621, -173.668, 2.2504, 66.0001, 0.0183504, -114.841
1, 2760.00000, 118.245, -31.3382, 118.142, -150.594, 120.273, 89.0741, 0, 0, 2.20833, -54.4121, 2.20621, -173.668, 2.2504, 66.0001, 0.0183504, -114.841
1, 2820.00000, 118.245, -31.3382, 118.142, -150.594, 120.273, 89.0741, 0, 0, 2.20833, -54.4121, 2.20621, -173.668, 2.2504, 66.0001, 0.0183504, -114.841
1, 2880.00000, 118.245, -31.3382, 118.142, -150.594, 120.273, 89.0741, 0, 0, 2.20833, -54.4121, 2.20621, -173.668, 2.2504, 66.0001, 0.0183504, -114.841
1, 2940.00000, 118.245, -31.3382, 118.142, -150.594, 120.273, 89.0741, 0, 0, 2.20833, -54.4121, 2.20621, -173.668, 2.2504, 66.0001, 0.0183504, -114.841
1, 3000.00000, 118.245, -31.3382, 118.142, -150.594, 120.273, 89.0741, 0, 0, 2.20833, -54.4121, 2.20621, -173.668, 2.2504, 66.0001, 0.0183504, -114.841
1, 3060.00000, 118.245, -31.3382, 118.142, -150.594, 120.273, 89.0741, 0, 0, 2.20833, -54.4121, 2.20621, -173.668, 2.2504, 66.0001, 0.0183504, -114.841
1, 3120.00000, 118.245, -31.3382, 118.142, -150.594, 120.273, 89.0741, 0, 0, 2.20833, -54.4121, 2.20621, -173.668, 2.2504, 66.0001, 0.0183504, -114.841
1, 3180.00000, 118.245, -31.3382, 118.142, -150.594, 120.273, 89.0741, 0, 0, 2.20833, -54.4121, 2.20621, -173.668, 2.2504, 66.0001, 0.0183504, -114.841
1, 3240.00000, 118.245, -31.3382, 118.142, -150.594, 120.273, 89.0741, 0, 0, 2.20833, -54.4121, 2.20621, -173.668, 2.2504, 66.0001, 0.0183504, -114.841
1, 3300.00000, 118.245, -31.3382, 118.142, -150.594, 120.273, 89.0741, 0, 0, 2.20833, -54.4121, 2.20621, -173.668, 2.2504, 66.0001, 0.0183504, -114.841
1, 3360.00000, 118.245, -31.3382, 118.142, -150.594, 120.273, 89.0741, 0, 0, 2.20833, -54.4121, 2.20621, -173.668, 2.2504, 66.0001, 0.0183504, -114.841
1, 3420.00000, 118.245, -31.3382, 118.142, -150.594, 120.273, 89.0741, 0, 0, 2.20833, -54.4121, 2.20621, -173.668, 2.2504, 66.0001, 0.0183504, -114.841
1, 3480.00000, 118.245, -31.3382, 118.142, -150.594, 120.273, 89.0741, 0, 0, 2.20833, -54.4121, 2.20621, -173.668, 2.2504, 66.0001, 0.0183504, -114.841
1, 3540.00000, 118.245, -31.3382, 118.142, -150.594, 120.273, 89.0741, 0, 0, 2.20833, -54.4121, 2.20621, -173.668, 2.2504, 66.0001, 0.0183504, -114.841
2, 0.00000, 118.245, -31.3382, 118.142, -150.594, 120.273, 89.0741, 0, 0, 2.20833, -54.4121, 2.20621, -173.668, 2.2504, 66.0001, 0.0183504, -114.841
2, 60.00000, 118.245, -31.3382, 118.142, -150.594, 120.273, 89.0741, 0, 0, 2.20833, -54.4121, 2.20621, -173.668, 2.2504, 66.0001, 0.0183504, -114.841
2, 120.00000, 118.245, -31.3382, 118.142, -150.594, 120.273, 89.0741, 0, 0, 2.20833, -54.4121, 2.20621, -173.668, 2.2504, 66.0001, 0.0183504, -114.841
2, 180.00000, 118.245, -31.3382, 118.142, -150.594, 120.273, 89.0741, 0, 0, 2.20833, -54.4121, 2.20621, -173.668, 2.2504, 66.0001, 0.0183504, -114.841
2, 240.00000, 118.245, -31.3382, 118.142, -150.594, 120.273, 89.0741, 0, 0, 2.20833, -54.4121, 2.20621, -173.668, 2.2504, 66.0001, 0.0183504, -114.841
2, 300.00000, 118.245, -31.3382, 118.142, -150.594, 120.273, 89.0741, 0, 0, 2.20833, -54.4121, 2.20621, -173.668, 2.2504, 66.0001, 0.0183504, -114.841
2, 360.00000, 118.245, -31.3382, 118.142, -150.594, 120.273, 89.0741, 0, 0, 2.20833, -54.4121, 2.20621, -173.668, 2.2504, 66.0001, 0.0183504, -114.841
2, 420.00000, 118.245, -31.3382, 118.142, -150.594, 120.273, 89.0741, 0, 0, 2.20833, -54.4121, 2.20621, -173.668, 2.2504, 66.0001, 0.0183504, -114.841
2, 480.00000, 118.245, -31.3382, 118.142, -150.594, 120.273, 89.0741, 0, 0, 2.20833, -54.4121, 2.20621, -173.668, 2.2504, 66.0001, 0.0183504, -114.841
2, 540.00000, 118.245, -31.3382, 118.142, -150.594, 120.273, 89.0741, 0, 0, 2.20833, -54.4121, 2.20621, -173.668, 2.2504, 66.0001, 0.0183504, -114.841
2, 600.00000, 118.245, -31.3382, 118.142, -150.594, 120.273, 89.0741, 0, 0, 2.20833, -54.4121, 2.20621, -173.668, 2.2504, 66.0001, 0.0183504, -114.841
2, 660.00000, 118.245, -31.3382, 118.142, -150.594, 120.273, 89.0741, 0, 0, 2.20833, -54.4121, 2.20621, -173.668, 2.2504, 66.0001, 0.0183504, -114.841
