hour,t(sec),V1,VAngle1,V2,VAngle2,V3,VAngle3,V4,VAngle4,I1,IAngle1,I2,IAngle2,I3,IAngle3,I4,IAngle4
0, 60.00000, 123.727, -31.3787, 123.932, -151.283, 124.261, 88.6157, 0, 0, 6.09448, -54.4524, 6.0844, -174.356, 6.06827, 65.542, 0.0332999, 91.2297
0, 120.00000, 123.727, -31.3787, 123.932, -151.283, 124.261, 88.6156, 0, 0, 6.09454, -54.4526, 6.08445, -174.356, 6.06834, 65.5417, 0.0332978, 91.2653
0, 180.00000, 123.727, -31.3787, 123.932, -151.283, 124.261, 88.6156, 0, 0, 6.09454, -54.4526, 6.08445, -174.356, 6.06834, 65.5417, 0.0332978, 91.2656
0, 240.00000, 123.727, -31.3787, 123.932, -151.283, 124.261, 88.6156, 0, 0, 6.09454, -54.4526, 6.08445, -174.356, 6.06834, 65.5417, 0.0332978, 91.2656
0, 300.00000, 123.727, -31.3787, 123.932, -151.283, 124.261, 88.6156, 0, 0, 6.09454, -54.4526, 6.08445, -174.356, 6.06834, 65.5417, 0.0332978, 91.2656
0, 360.00000, 123.727, -31.3787, 123.932, -151.283, 124.261, 88.6156, 0, 0, 6.09454, -54.4526, 6.08445, -174.356, 6.06834, 65.5417, 0.0332978, 91.2656
0, 420.00000, 123.727, -31.3787, 123.932, -151.283, 124.261, 88.6156, 0, 0, 6.09454, -54.4526, 6.08445, -174.356, 6.06834, 65.5417, 0.0332978, 91.2656
0, 480.00000, 124.28, -31.2502, 124.461, -151.156, 124.787, 88.7516, 0, 0, 5.27873, -54.3246, 5.27107, -174.23, 5.25733, 65.6771, 0.02735, 89.0406
0, 540.00000, 124.28, -31.2502, 124.461, -151.156, 124.787, 88.7517, 0, 0, 5.27866, -54.3241, 5.271, -174.23, 5.25722, 65.6778, 0.0273689, 88.9568
0, 600.00000, 124.28, -31.2502, 124.461, -151.156, 124.787, 88.7517, 0, 0, 5.27866, -54.3241, 5.271, -174.23, 5.25722, 65.6778, 0.0273694, 88.9551
0, 660.00000, 124.28, -31.2502, 124.461, -151.156, 124.787, 88.7517, 0, 0, 5.27866, -54.3241, 5.271, -174.23, 5.25722, 65.6778, 0.0273694, 88.9551
0, 720.00000, 124.28, -31.2502, 124.461, -151.156, 124.787, 88.7517, 0, 0, 5.27866, -54.3241, 5.271, -174.23, 5.25722, 65.6778, 0.0273694, 88.9551
0, 780.00000, 124.28, -31.2502, 124.461, -151.156, 124.787, 88.7517, 0, 0, 5.27866, -54.3241, 5.271, -174.23, 5.25722, 65.6778, 0.0273694, 88.9551
0, 840.00000, 124.28, -31.2502, 124.461, -151.156, 124.787, 88.7517, 0, 0, 5.27866, -54.3241, 5.271, -174.23, 5.25722, 65.6778, 0.0273694, 88.9551
0, 900.00000, 124.28, -31.2502, 124.461, -151.156, 124.787, 88.7517, 0, 0, 5.27866, -54.3241, 5.271, -174.23, 5.25722, 65.6778, 0.0273694, 88.9551
0, 960.00000, 124.28, -31.2502, 124.461, -151.156, 124.787, 88.7517, 0, 0, 5.27866, -54.3241, 5.271, -174.23, 5.25722, 65.6778, 0.0273694, 88.9551
0, 1020.00000, 124.28, -31.2502, 124.461, -151.156, 124.787, 88.7517, 0, 0, 5.27866, -54.3241, 5.271, -174.23, 5.25722, 65.6778, 0.0273694, 88.9551
0, 1080.00000, 124.28, -31.2502, 124.461, -151.156, 124.787, 88.7517, 0, 0, 5.27866, -54.3241, 5.271, -174.23, 5.25722, 65.6778, 0.0273694, 88.9551
0, 1140.00000, 124.28, -31.2502, 124.461, -151.156, 124.787, 88.7517, 0, 0, 5.27866, -54.3241, 5.271, -174.23, 5.25722, 65.6778, 0.0273694, 88.9551
0, 1200.00000, 124.28, -31.2502, 124.461, -151.156, 124.787, 88.7517, 0, 0, 5.27866, -54.3241, 5.271, -174.23, 5.25722, 65.6778, 0.0273694, 88.9551
0, 1260.00000, 124.28, -31.2502, 124.461, -151.156, 124.787, 88.7517, 0, 0, 5.27866, -54.3241, 5.271, -174.23, 5.25722, 65.6778, 0.0273694, 88.9551
0, 1320.00000, 124.28, -31.2502, 124.461, -151.156, 124.787, 88.7517, 0, 0, 5.27866, -54.3241, 5.271, -174.23, 5.25722, 65.6778, 0.0273694, 88.9551
0, 1380.00000, 124.28, -31.2502, 124.461, -151.156, 124.787, 88.7517, 0, 0, 5.27866, -54.3241, 5.271, -174.23, 5.25722, 65.6778, 0.0273694, 88.9551
0, 1440.00000, 124.28, -31.2502, 124.461, -151.156, 124.787, 88.7517, 0, 0, 5.27866, -54.3241, 5.271, -174.23, 5.25722, 65.6778, 0.0273694, 88.9551
0, 1500.00000, 124.28, -31.2502, 124.461, -151.156, 124.787, 88.7517, 0, 0, 5.27866, -54.3241, 5.271, -174.23, 5.25722, 65.6778, 0.0273694, 88.9551
0, 1560.00000, 124.28, -31.2502, 124.461, -151.156, 124.787, 88.7517, 0, 0, 5.27866, -54.3241, 5.271, -174.23, 5.25722, 65.6778, 0.0273694, 88.9551
0, 1620.00000, 124.28, -31.2502, 124.461, -151.156, 124.787, 88.7517, 0, 0, 5.27866, -54.3241, 5.271, -174.23, 5.25722, 65.6778, 0.0273694, 88.9551
0, 1680.00000, 124.28, -31.2502, 124.461, -151.156, 124.787, 88.7517, 0, 0, 5.27866, -54.3241, 5.271, -174.23, 5.25722, 65.6778, 0.0273694, 88.9551
0, 1740.00000, 124.28, -31.2502, 124.461, -151.156, 124.787, 88.7517, 0, 0, 5.27866, -54.3241, 5.271, -174.23, 5.25722, 65.6778, 0.0273694, 88.9551
0, 1800.00000, 124.28, -31.2502, 124.461, -151.156, 124.787, 88.7517, 0, 0, 5.27866, -54.3241, 5.271, -174.23, 5.25722, 65.6778, 0.0273694, 88.9551
0, 1860.00000, 124.28, -31.2502, 124.461, -151.156, 124.787, 88.7517, 0, 0, 5.27866, -54.3241, 5.271, -174.23, 5.25722, 65.6778, 0.0273694, 88.9551
0, 1920.00000, 124.28, -31.2502, 124.461, -151.156, 124.787, 88.7517, 0, 0, 5.27866, -54.3241, 5.271, -174.23, 5.25722, 65.6778, 0.0273694, 88.9551
0, 1980.00000, 124.28, -31.2502, 124.461, -151.156, 124.787, 88.7517, 0, 0, 5.27866, -54.3241, 5.271, -174.23, 5.25722, 65.6778, 0.0273694, 88.9551
0, 2040.00000, 124.28, -31.2502, 124.461, -151.156, 124.787, 88.7517, 0, 0, 5.27866, -54.3241, 5.271, -174.23, 5.25722, 65.6778, 0.0273694, 88.9551
0, 2100.00000, 124.28, -31.2502, 124.461, -151.156, 124.787, 88.7517, 0, 0, 5.27866, -54.3241, 5.271, -174.23, 5.25722, 65.6778, 0.0273694, 88.9551
0, 2160.00000, 124.28, -31.2502, 124.461, -151.156, 124.787, 88.7517, 0, 0, 5.27866, -54.3241, 5.271, -174.23, 5.25722, 65.6778, 0.0273694, 88.9551
0, 2220.00000, 124.28, -31.2502, 124.461, -151.156, 124.787, 88.7517, 0, 0, 5.27866, -54.3241, 5.271, -174.23, 5.25722, 65.6778, 0.0273694, 88.9551
0, 2280.00000, 124.28, -31.2502, 124.461, -151.156, 124.787, 88.7517, 0, 0, 5.27866, -54.3241, 5.271, -174.23, 5.25722, 65.6778, 0.0273694, 88.9551
0, 2340.00000, 124.28, -31.2502, 124.461, -151.156, 124.787, 88.7517, 0, 0, 5.27866, -54.3241, 5.271, -174.23, 5.25722, 65.6778, 0.0273694, 88.9551
0, 2400.00000, 124.28, -31.2502, 124.461, -151.156, 124.787, 88.7517, 0, 0, 5.27866, -54.3241, 5.271, -174.23, 5.25722, 65.6778, 0.0273694, 88.9551
0, 2460.00000, 124.28, -31.2502, 124.461, -151.156, 124.787, 88.7517, 0, 0, 5.27866, -54.3241, 5.271, -174.23, 5.25722, 65.6778, 0.0273694, 88.9551
0, 2520.00000, 124.28, -31.2502, 124.461, -151.156, 124.787, 88.7517, 0, 0, 5.27866, -54.3241, 5.271, -174.23, 5.25722, 65.6778, 0.0273694, 88.9551
0, 2580.00000, 124.28, -31.2502, 124.461, -151.156, 124.787, 88.7517, 0, 0, 5.27866, -54.3241, 5.271, -174.23, 5.25722, 65.6778, 0.0273694, 88.9551
0, 2640.00000, 124.28, -31.2502, 124.461, -151.156, 124.787, 88.7517, 0, 0, 5.27866, -54.3241, 5.271, -174.23, 5.25722, 65.6778, 0.0273694, 88.9551
0, 2700.00000, 124.28, -31.2502, 124.461, -151.156, 124.787, 88.7517, 0, 0, 5.27866, -54.3241, 5.271, -174.23, 5.25722, 65.6778, 0.0273694, 88.9551
0, 2760.00000, 124.28, -31.2502, 124.461, -151.156, 124.787, 88.7517, 0, 0, 5.27866, -54.3241, 5.271, -174.23, 5.25722, 65.6778, 0.0273694, 88.9551
0, 2820.00000, 124.28, -31.2502, 124.461, -151.156, 124.787, 88.7517, 0, 0, 5.27866, -54.3241, 5.271, -174.23, 5.25722, 65.6778, 0.0273694, 88.9551
0, 2880.00000, 124.28, -31.2502, 124.461, -151.156, 124.787, 88.7517, 0, 0, 5.27866, -54.3241, 5.271, -174.23, 5.25722, 65.6778, 0.0273694, 88.9551
0, 2940.00000, 124.28, -31.2502, 124.461, -151.156, 124.787, 88.7517, 0, 0, 5.27866, -54.3241, 5.271, -174.23, 5.25722, 65.6778, 0.0273694, 88.9551
0, 3000.00000, 124.28, -31.2502, 124.461, -151.156, 124.787, 88.7517, 0, 0, 5.27866, -54.3241, 5.271, -174.23, 5.25722, 65.6778, 0.0273694, 88.9551
0, 3060.00000, 124.28, -31.2502, 124.461, -151.156, 124.787, 88.7517, 0, 0, 5.27866, -54.3241, 5.271, -174.23, 5.25722, 65.6778, 0.0273694, 88.9551
0, 3120.00000, 124.28, -31.2502, 124.461, -151.156, 124.787, 88.7517, 0, 0, 5.27866, -54.3241, 5.271, -174.23, 5.25722, 65.6778, 0.0273694, 88.9551
0, 3180.00000, 124.28, -31.2502, 124.461, -151.156, 124.787, 88.7517, 0, 0, 5.27866, -54.3241, 5.271, -174.23, 5.25722, 65.6778, 0.0273694, 88.9551
0, 3240.00000, 124.28, -31.2502, 124.461, -151.156, 124.787, 88.7517, 0, 0, 5.27866, -54.3241, 5.271, -174.23, 5.25722, 65.6778, 0.0273694, 88.9551
0, 3300.00000, 124.28, -31.2502, 124.461, -151.156, 124.787, 88.7517, 0, 0, 5.27866, -54.3241, 5.271, -174.23, 5.25722, 65.6778, 0.0273694, 88.9551
0, 3360.00000, 124.28, -31.2502, 124.461, -151.156, 124.787, 88.7517, 0, 0, 5.27866, -54.3241, 5.271, -174.23, 5.25722, 65.6778, 0.0273694, 88.9551
0, 3420.00000, 124.28, -31.2502, 124.461, -151.156, 124.787, 88.7517, 0, 0, 5.27866, -54.3241, 5.271, -174.23, 5.25722, 65.6778, 0.0273694, 88.9551
0, 3480.00000, 124.28, -31.2502, 124.461, -151.156, 124.787, 88.7517, 0, 0, 5.27866, -54.3241, 5.271, -174.23, 5.25722, 65.6778, 0.0273694, 88.9551
0, 3540.00000, 124.28, -31.2502, 124.461, -151.156, 124.787, 88.7517, 0, 0, 5.27866, -54.3241, 5.271, -174.23, 5.25722, 65.6778, 0.0273694, 88.9551
1, 0.00000, 124.28, -31.2502, 124.461, -151.156, 124.787, 88.7517, 0, 0, 5.27866, -54.3241, 5.271, -174.23, 5.25722, 65.6778, 0.0273694, 88.9551
1, 60.00000, 124.28, -31.2502, 124.461, -151.156, 124.787, 88.7517, 0, 0, 5.27866, -54.3241, 5.271, -174.23, 5.25722, 65.6778, 0.0273694, 88.9551
1, 120.00000, 124.28, -31.2502, 124.461, -151.156, 124.787, 88.7517, 0, 0, 5.27866, -54.3241, 5.271, -174.23, 5.25722, 65.6778, 0.0273694, 88.9551
1, 180.00000, 124.28, -31.2502, 124.461, -151.156, 124.787, 88.7517, 0, 0, 5.27866, -54.3241, 5.271, -174.23, 5.25722, 65.6778, 0.0273694, 88.9551
1, 240.00000, 124.28, -31.2502, 124.461, -151.156, 124.787, 88.7517, 0, 0, 5.27866, -54.3241, 5.271, -174.23, 5.25722, 65.6778, 0.0273694, 88.9551
1, 300.00000, 124.28, -31.2502, 124.461, -151.156, 124.787, 88.7517, 0, 0, 5.27866, -54.3241, 5.271, -174.23, 5.25722, 65.6778, 0.0273694, 88.9551
1, 360.00000, 124.28, -31.2502, 124.461, -151.156, 124.787, 88.7517, 0, 0, 5.27866, -54.3241, 5.271, -174.23, 5.25722, 65.6778, 0.0273694, 88.9551
1, 420.00000, 124.28, -31.2502, 124.461, -151.156, 124.787, 88.7517, 0, 0, 5.27866, -54.3241, 5.271, -174.23, 5.25722, 65.6778, 0.0273694, 88.9551
1, 480.00000, 124.28, -31.2502, 124.461, -151.156, 124.787, 88.7517, 0, 0, 5.27866, -54.3241, 5.271, -174.23, 5.25722, 65.6778, 0.0273694, 88.9551
1, 540.00000, 124.28, -31.2502, 124.461, -151.156, 124.787, 88.7517, 0, 0, 5.27866, -54.3241, 5.271, -174.23, 5.25722, 65.6778, 0.0273694, 88.9551
1, 600.00000, 124.28, -31.2502, 124.461, -151.156, 124.787, 88.7517, 0, 0, 5.27866, -54.3241, 5.271, -174.23, 5.25722, 65.6778, 0.0273694, 88.9551
1, 660.00000, 124.28, -31.2502, 124.461, -151.156, 124.787, 88.7517, 0, 0, 5.27866, -54.3241, 5.271, -174.23, 5.25722, 65.6778, 0.0273694, 88.9551
1, 720.00000, 124.28, -31.2502, 124.461, -151.156, 124.787, 88.7517, 0, 0, 5.27866, -54.3241, 5.271, -174.23, 5.25722, 65.6778, 0.0273694, 88.9551
1, 780.00000, 124.28, -31.2502, 124.461, -151.156, 124.787, 88.7517, 0, 0, 5.27866, -54.3241, 5.271, -174.23, 5.25722, 65.6778, 0.0273694, 88.9551
1, 840.00000, 124.28, -31.2502, 124.461, -151.156, 124.787, 88.7517, 0, 0, 5.27866, -54.3241, 5.271, -174.23, 5.25722, 65.6778, 0.0273694, 88.9551
1, 900.00000, 124.28, -31.2502, 124.461, -151.156, 124.787, 88.7517, 0, 0, 5.27866, -54.3241, 5.271, -174.23, 5.25722, 65.6778, 0.0273694, 88.9551
1, 960.00000, 124.28, -31.2502, 124.461, -151.156, 124.787, 88.7517, 0, 0, 5.27866, -54.3241, 5.271, -174.23, 5.25722, 65.6778, 0.0273694, 88.9551
1, 1020.00000, 124.28, -31.2502, 124.461, -151.156, 124.787, 88.7517, 0, 0, 5.27866, -54.3241, 5.271, -174.23, 5.25722, 65.6778, 0.0273694, 88.9551
1, 1080.00000, 124.28, -31.2502, 124.461, -151.156, 124.787, 88.7517, 0, 0, 5.27866, -54.3241, 5.271, -174.23, 5.25722, 65.6778, 0.0273694, 88.9551
1, 1140.00000, 124.28, -31.2502, 124.461, -151.156, 124.787, 88.7517, 0, 0, 5.27866, -54.3241, 5.271, -174.23, 5.25722, 65.6778, 0.0273694, 88.9551
1, 1200.00000, 124.28, -31.2502, 124.461, -151.156, 124.787, 88.7517, 0, 0, 5.27866, -54.3241, 5.271, -174.23, 5.25722, 65.6778, 0.0273694, 88.9551
1, 1260.00000, 124.28, -31.2502, 124.461, -151.156, 124.787, 88.7517, 0, 0, 5.27866, -54.3241, 5.271, -174.23, 5.25722, 65.6778, 0.0273694, 88.9551
1, 1320.00000, 124.28, -31.2502, 124.461, -151.156, 124.787, 88.7517, 0, 0, 5.27866, -54.3241, 5.271, -174.23, 5.25722, 65.6778, 0.0273694, 88.9551
1, 1380.00000, 124.28, -31.2502, 124.461, -151.156, 124.787, 88.7517, 0, 0, 5.27866, -54.3241, 5.271, -174.23, 5.25722, 65.6778, 0.0273694, 88.9551
1, 1440.00000, 124.28, -31.2502, 124.461, -151.156, 124.787, 88.7517, 0, 0, 5.27866, -54.3241, 5.271, -174.23, 5.25722, 65.6778, 0.0273694, 88.9551
1, 1500.00000, 124.28, -31.2502, 124.461, -151.156, 124.787, 88.7517, 0, 0, 5.27866, -54.3241, 5.271, -174.23, 5.25722, 65.6778, 0.0273694, 88.9551
1, 1560.00000, 124.28, -31.2502, 124.461, -151.156, 124.787, 88.7517, 0, 0, 5.27866, -54.3241, 5.271, -174.23, 5.25722, 65.6778, 0.0273694, 88.9551
1, 1620.00000, 124.28, -31.2502, 124.461, -151.156, 124.787, 88.7517, 0, 0, 5.27866, -54.3241, 5.271, -174.23, 5.25722, 65.6778, 0.0273694, 88.9551
1, 1680.00000, 124.28, -31.2502, 124.461, -151.156, 124.787, 88.7517, 0, 0, 5.27866, -54.3241, 5.271, -174.23, 5.25722, 65.6778, 0.0273694, 88.9551
1, 1740.00000, 124.28, -31.2502, 124.461, -151.156, 124.787, 88.7517, 0, 0, 5.27866, -54.3241, 5.271, -174.23, 5.25722, 65.6778, 0.0273694, 88.9551
1, 1800.00000, 124.28, -31.2502, 124.461, -151.156, 124.787, 88.7517, 0, 0, 5.27866, -54.3241, 5.271, -174.23, 5.25722, 65.6778, 0.0273694, 88.9551
1, 1860.00000, 124.28, -31.2502, 124.461, -151.156, 124.787, 88.7517, 0, 0, 5.27866, -54.3241, 5.271, -174.23, 5.25722, 65.6778, 0.0273694, 88.9551
1, 1920.00000, 124.28, -31.2502, 124.461, -151.156, 124.787, 88.7517, 0, 0, 5.27866, -54.3241, 5.271, -174.23, 5.25722, 65.6778, 0.0273694, 88.9551
1, 1980.00000, 124.28, -31.2502, 124.461, -151.156, 124.787, 88.7517, 0, 0, 5.27866, -54.3241, 5.271, -174.23, 5.25722, 65.6778, 0.0273694, 88.9551
1, 2040.00000, 124.28, -31.2502, 124.461, -151.156, 124.787, 88.7517, 0, 0, 5.27866, -54.3241, 5.271, -174.23, 5.25722, 65.6778, 0.0273694, 88.9551
1, 2100.00000, 124.28, -31.2502, 124.461, -151.156, 124.787, 88.7517, 0, 0, 5.27866, -54.3241, 5.271, -174.23, 5.25722, 65.6778, 0.0273694, 88.9551
1, 2160.00000, 124.28, -31.2502, 124.461, -151.156, 124.787, 88.7517, 0, 0, 5.27866, -54.3241, 5.271, -174.23, 5.25722, 65.6778, 0.0273694, 88.9551
1, 2220.00000, 124.28, -31.2502, 124.461, -151.156, 124.787, 88.7517, 0, 0, 5.27866, -54.3241, 5.271, -174.23, 5.25722, 65.6778, 0.0273694, 88.9551
1, 2280.00000, 124.28, -31.2502, 124.461, -151.156, 124.787, 88.7517, 0, 0, 5.27866, -54.3241, 5.271, -174.23, 5.25722, 65.6778, 0.0273694, 88.9551
1, 2340.00000, 124.28, -31.2502, 124.461, -151.156, 124.787, 88.7517, 0, 0, 5.27866, -54.3241, 5.271, -174.23, 5.25722, 65.6778, 0.0273694, 88.9551
1, 2400.00000, 124.28, -31.2502, 124.461, -151.156, 124.787, 88.7517, 0, 0, 5.27866, -54.3241, 5.271, -174.23, 5.25722, 65.6778, 0.0273694, 88.9551
1, 2460.00000, 124.28, -31.2502, 124.461, -151.156, 124.787, 88.7517, 0, 0, 5.27866, -54.3241, 5.271, -174.23, 5.25722, 65.6778, 0.0273694, 88.9551
1, 2520.00000, 124.28, -31.2502, 124.461, -151.156, 124.787, 88.7517, 0, 0, 5.27866, -54.3241, 5.271, -174.23, 5.25722, 65.6778, 0.0273694, 88.9551
1, 2580.00000, 124.28, -31.2502, 124.461, -151.156, 124.787, 88.7517, 0, 0, 5.27866, -54.3241, 5.271, -174.23, 5.25722, 65.6778, 0.0273694, 88.9551
1, 2640.00000, 124.28, -31.2502, 124.461, -151.156, 124.787, 88.7517, 0, 0, 5.27866, -54.3241, 5.271, -174.23, 5.25722, 65.6778, 0.0273694, 88.9551
1, 2700.00000, 124.28, -31.2502, 124.461, -151.156, 124.787, 88.7517, 0, 0, 5.27866, -54.3241, 5.271, -174.23, 5.25722, 65.6778, 0.0273694, 88.9551
1, 2760.00000, 124.28, -31.2502, 124.461, -151.156, 124.787, 88.7517, 0, 0, 5.27866, -54.3241, 5.271, -174.23, 5.25722, 65.6778, 0.0273694, 88.9551
1, 2820.00000, 124.28, -31.2502, 124.461, -151.156, 124.787, 88.7517, 0, 0, 5.27866, -54.3241, 5.271, -174.23, 5.25722, 65.6778, 0.0273694, 88.9551
1, 2880.00000, 124.28, -31.2502, 124.461, -151.156, 124.787, 88.7517, 0, 0, 5.27866, -54.3241, 5.271, -174.23, 5.25722, 65.6778, 0.0273694, 88.9551
1, 2940.00000, 124.28, -31.2502, 124.461, -151.156, 124.787, 88.7517, 0, 0, 5.27866, -54.3241, 5.271, -174.23, 5.25722, 65.6778, 0.0273694, 88.9551
1, 3000.00000, 124.28, -31.2502, 124.461, -151.156, 124.787, 88.7517, 0, 0, 5.27866, -54.3241, 5.271, -174.23, 5.25722, 65.6778, 0.0273694, 88.9551
1, 3060.00000, 124.28, -31.2502, 124.461, -151.156, 124.787, 88.7517, 0, 0, 5.27866, -54.3241, 5.271, -174.23, 5.25722, 65.6778, 0.0273694, 88.9551
1, 3120.00000, 124.28, -31.2502, 124.461, -151.156, 124.787, 88.7517, 0, 0, 5.27866, -54.3241, 5.271, -174.23, 5.25722, 65.6778, 0.0273694, 88.9551
1, 3180.00000, 124.28, -31.2502, 124.461, -151.156, 124.787, 88.7517, 0, 0, 5.27866, -54.3241, 5.271, -174.23, 5.25722, 65.6778, 0.0273694, 88.9551
1, 3240.00000, 124.28, -31.2502, 124.461, -151.156, 124.787, 88.7517, 0, 0, 5.27866, -54.3241, 5.271, -174.23, 5.25722, 65.6778, 0.0273694, 88.9551
1, 3300.00000, 124.28, -31.2502, 124.461, -151.156, 124.787, 88.7517, 0, 0, 5.27866, -54.3241, 5.271, -174.23, 5.25722, 65.6778, 0.0273694, 88.9551
1, 3360.00000, 124.28, -31.2502, 124.461, -151.156, 124.787, 88.7517, 0, 0, 5.27866, -54.3241, 5.271, -174.23, 5.25722, 65.6778, 0.0273694, 88.9551
1, 3420.00000, 124.28, -31.2502, 124.461, -151.156, 124.787, 88.7517, 0, 0, 5.27866, -54.3241, 5.271, -174.23, 5.25722, 65.6778, 0.0273694, 88.9551
1, 3480.00000, 124.28, -31.2502, 124.461, -151.156, 124.787, 88.7517, 0, 0, 5.27866, -54.3241, 5.271, -174.23, 5.25722, 65.6778, 0.0273694, 88.9551
1, 3540.00000, 124.28, -31.2502, 124.461, -151.156, 124.787, 88.7517, 0, 0, 5.27866, -54.3241, 5.271, -174.23, 5.25722, 65.6778, 0.0273694, 88.9551
2, 0.00000, 124.28, -31.2502, 124.461, -151.156, 124.787, 88.7517, 0, 0, 5.27866, -54.3241, 5.271, -174.23, 5.25722, 65.6778, 0.0273694, 88.9551
2, 60.00000, 124.28, -31.2502, 124.461, -151.156, 124.787, 88.7517, 0, 0, 5.27866, -54.3241, 5.271, -174.23, 5.25722, 65.6778, 0.0273694, 88.9551
2, 120.00000, 124.28, -31.2502, 124.461, -151.156, 124.787, 88.7517, 0, 0, 5.27866, -54.3241, 5.271, -174.23, 5.25722, 65.6778, 0.0273694, 88.9551
2, 180.00000, 124.28, -31.2502, 124.461, -151.156, 124.787, 88.7517, 0, 0, 5.27866, -54.3241, 5.271, -174.23, 5.25722, 65.6778, 0.0273694, 88.9551
2, 240.00000, 124.28, -31.2502, 124.461, -151.156, 124.787, 88.7517, 0, 0, 5.27866, -54.3241, 5.271, -174.23, 5.25722, 65.6778, 0.0273694, 88.9551
2, 300.00000, 124.28, -31.2502, 124.461, -151.156, 124.787, 88.7517, 0, 0, 5.27866, -54.3241, 5.271, -174.23, 5.25722, 65.6778, 0.0273694, 88.9551
2, 360.00000, 124.28, -31.2502, 124.461, -151.156, 124.787, 88.7517, 0, 0, 5.27866, -54.3241, 5.271, -174.23, 5.25722, 65.6778, 0.0273694, 88.9551
2, 420.00000, 124.28, -31.2502, 124.461, -151.156, 124.787, 88.7517, 0, 0, 5.27866, -54.3241, 5.271, -174.23, 5.25722, 65.6778, 0.0273694, 88.9551
2, 480.00000, 124.28, -31.2502, 124.461, -151.156, 124.787, 88.7517, 0, 0, 5.27866, -54.3241, 5.271, -174.23, 5.25722, 65.6778, 0.0273694, 88.9551
2, 540.00000, 124.28, -31.2502, 124.461, -151.156, 124.787, 88.7517, 0, 0, 5.27866, -54.3241, 5.271, -174.23, 5.25722, 65.6778, 0.0273694, 88.9551
2, 600.00000, 124.28, -31.2502, 124.461, -151.156, 124.787, 88.7517, 0, 0, 5.27866, -54.3241, 5.271, -174.23, 5.25722, 65.6778, 0.0273694, 88.9551
2, 660.00000, 124.28, -31.2502, 124.461, -151.156, 124.787, 88.7517, 0, 0, 5.27866, -54.3241, 5.271, -174.23, 5.25722, 65.6778, 0.0273694, 88.9551
2, 720.00000, 124.28, -31.2502, 124.461, -151.156, 124.787, 88.7517, 0, 0, 5.27866, -54.3241, 5.271, -174.23, 5.25722, 65.6778, 0.0273694, 88.9551
2, 780.00000, 124.28, -31.2502, 124.461, -151.156, 124.787, 88.7517, 0, 0, 5.27866, -54.3241, 5.271, -174.23, 5.25722, 65.6778, 0.0273694, 88.9551
2, 840.00000, 124.28, -31.2502, 124.461, -151.156, 124.787, 88.7517, 0, 0, 5.27866, -54.3241, 5.271, -174.23, 5.25722, 65.6778, 0.0273694, 88.9551
