hour,t(sec),"P1 (kW)","Q1 (kvar)","P2 (kW)","Q2 (kvar)","P3 (kW)","Q3 (kvar)","P4 (kW)","Q4 (kvar)"
0, 60.00000, 0.241191, 0.102746, 0.240671, 0.102525, 0.246858, 0.105159, 0, 0
0, 120.00000, 0.241189, 0.102746, 0.24067, 0.102525, 0.24685, 0.105158, 0, 0
0, 180.00000, 0.241189, 0.102746, 0.24067, 0.102525, 0.24685, 0.105158, 0, 0
0, 240.00000, 0.241189, 0.102746, 0.24067, 0.102525, 0.24685, 0.105158, 0, 0
0, 300.00000, 0.241189, 0.102746, 0.24067, 0.102525, 0.24685, 0.105158, 0, 0
0, 360.00000, 0.241189, 0.102746, 0.24067, 0.102525, 0.24685, 0.105158, 0, 0
0, 420.00000, 0.241189, 0.102746, 0.24067, 0.102525, 0.24685, 0.105158, 0, 0
0, 480.00000, 0.241189, 0.102746, 0.24067, 0.102525, 0.24685, 0.105158, 0, 0
0, 540.00000, 0.241189, 0.102746, 0.24067, 0.102525, 0.24685, 0.105158, 0, 0
0, 600.00000, 0.241189, 0.102746, 0.24067, 0.102525, 0.24685, 0.105158, 0, 0
0, 660.00000, 0.241189, 0.102746, 0.24067, 0.102525, 0.24685, 0.105158, 0, 0
0, 720.00000, 0.241189, 0.102746, 0.24067, 0.102525, 0.24685, 0.105158, 0, 0
0, 780.00000, 0.241189, 0.102746, 0.24067, 0.102525, 0.24685, 0.105158, 0, 0
0, 840.00000, 0.241189, 0.102746, 0.24067, 0.102525, 0.24685, 0.105158, 0, 0
0, 900.00000, 0.241189, 0.102746, 0.24067, 0.102525, 0.24685, 0.105158, 0, 0
0, 960.00000, 0.23479, 0.10002, 0.233499, 0.0994696, 0.240673, 0.102526, 0, 0
0, 1020.00000, 0.234789, 0.10002, 0.233497, 0.0994692, 0.240671, 0.102525, 0, 0
0, 1080.00000, 0.234789, 0.10002, 0.233497, 0.0994692, 0.240671, 0.102525, 0, 0
0, 1140.00000, 0.234789, 0.10002, 0.233497, 0.0994692, 0.240671, 0.102525, 0, 0
0, 1200.00000, 0.234789, 0.10002, 0.233497, 0.0994692, 0.240671, 0.102525, 0, 0
0, 1260.00000, 0.234789, 0.10002, 0.233497, 0.0994692, 0.240671, 0.102525, 0, 0
0, 1320.00000, 0.234789, 0.10002, 0.233497, 0.0994692, 0.240671, 0.102525, 0, 0
0, 1380.00000, 0.234789, 0.10002, 0.233497, 0.0994692, 0.240671, 0.102525, 0, 0
0, 1440.00000, 0.234789, 0.10002, 0.233497, 0.0994692, 0.240671, 0.102525, 0, 0
0, 1500.00000, 0.234789, 0.10002, 0.233497, 0.0994692, 0.240671, 0.102525, 0, 0
0, 1560.00000, 0.234789, 0.10002, 0.233497, 0.0994692, 0.240671, 0.102525, 0, 0
0, 1620.00000, 0.234789, 0.10002, 0.233497, 0.0994692, 0.240671, 0.102525, 0, 0
0, 1680.00000, 0.234789, 0.10002, 0.233497, 0.0994692, 0.240671, 0.102525, 0, 0
0, 1740.00000, 0.234789, 0.10002, 0.233497, 0.0994692, 0.240671, 0.102525, 0, 0
0, 1800.00000, 0.234789, 0.10002, 0.233497, 0.0994692, 0.240671, 0.102525, 0, 0
0, 1860.00000, 0.222819, 0.0949254, 0.221563, 0.0943859, 0.228357, 0.0972843, 0, 0
0, 1920.00000, 0.222824, 0.0949226, 0.221568, 0.0943874, 0.228378, 0.0972888, 0, 0
0, 1980.00000, 0.222824, 0.0949226, 0.221568, 0.0943874, 0.228379, 0.0972888, 0, 0
0, 2040.00000, 0.222824, 0.0949226, 0.221568, 0.0943874, 0.228379, 0.0972888, 0, 0
0, 2100.00000, 0.222824, 0.0949226, 0.221568, 0.0943874, 0.228379, 0.0972888, 0, 0
0, 2160.00000, 0.222824, 0.0949226, 0.221568, 0.0943874, 0.228379, 0.0972888, 0, 0
0, 2220.00000, 0.222824, 0.0949226, 0.221568, 0.0943874, 0.228379, 0.0972888, 0, 0
0, 2280.00000, 0.222824, 0.0949226, 0.221568, 0.0943874, 0.228379, 0.0972888, 0, 0
0, 2340.00000, 0.222824, 0.0949226, 0.221568, 0.0943874, 0.228379, 0.0972888, 0, 0
0, 2400.00000, 0.222824, 0.0949226, 0.221568, 0.0943874, 0.228379, 0.0972888, 0, 0
0, 2460.00000, 0.222824, 0.0949226, 0.221568, 0.0943874, 0.228379, 0.0972888, 0, 0
0, 2520.00000, 0.222824, 0.0949226, 0.221568, 0.0943874, 0.228379, 0.0972888, 0, 0
0, 2580.00000, 0.222824, 0.0949226, 0.221568, 0.0943874, 0.228379, 0.0972888, 0, 0
0, 2640.00000, 0.222824, 0.0949226, 0.221568, 0.0943874, 0.228379, 0.0972888, 0, 0
0, 2700.00000, 0.222824, 0.0949226, 0.221568, 0.0943874, 0.228379, 0.0972888, 0, 0
0, 2760.00000, 0.219412, 0.09347, 0.218113, 0.0929154, 0.224827, 0.0957767, 0, 0
0, 2820.00000, 0.219413, 0.0934696, 0.218113, 0.0929158, 0.224831, 0.0957776, 0, 0
0, 2880.00000, 0.219413, 0.0934696, 0.218113, 0.0929158, 0.224831, 0.0957776, 0, 0
0, 2940.00000, 0.219413, 0.0934696, 0.218113, 0.0929158, 0.224831, 0.0957776, 0, 0
0, 3000.00000, 0.219413, 0.0934696, 0.218113, 0.0929158, 0.224831, 0.0957776, 0, 0
0, 3060.00000, 0.219413, 0.0934696, 0.218113, 0.0929158, 0.224831, 0.0957776, 0, 0
0, 3120.00000, 0.219413, 0.0934696, 0.218113, 0.0929158, 0.224831, 0.0957776, 0, 0
0, 3180.00000, 0.219413, 0.0934696, 0.218113, 0.0929158, 0.224831, 0.0957776, 0, 0
0, 3240.00000, 0.219413, 0.0934696, 0.218113, 0.0929158, 0.224831, 0.0957776, 0, 0
0, 3300.00000, 0.219413, 0.0934696, 0.218113, 0.0929158, 0.224831, 0.0957776, 0, 0
0, 3360.00000, 0.219413, 0.0934696, 0.218113, 0.0929158, 0.224831, 0.0957776, 0, 0
0, 3420.00000, 0.219413, 0.0934696, 0.218113, 0.0929158, 0.224831, 0.0957776, 0, 0
0, 3480.00000, 0.219482, 0.0935004, 0.21905, 0.0933134, 0.226693, 0.0965736, 0, 0
0, 3540.00000, 0.219788, 0.0936289, 0.220138, 0.0937794, 0.2267, 0.0965742, 0, 0
1, 0.00000, 0.219788, 0.0936294, 0.220141, 0.0937796, 0.2267, 0.0965737, 0, 0
1, 60.00000, 0.20264, 0.0863252, 0.202938, 0.0864504, 0.208462, 0.0888057, 0, 0
1, 120.00000, 0.20264, 0.0863243, 0.202938, 0.0864513, 0.208458, 0.0888027, 0, 0
1, 180.00000, 0.20264, 0.0863243, 0.202938, 0.0864513, 0.208458, 0.0888026, 0, 0
1, 240.00000, 0.20264, 0.0863243, 0.202938, 0.0864513, 0.208458, 0.0888026, 0, 0
1, 300.00000, 0.20264, 0.0863243, 0.202938, 0.0864513, 0.208458, 0.0888026, 0, 0
1, 360.00000, 0.20264, 0.0863243, 0.202938, 0.0864513, 0.208458, 0.0888026, 0, 0
1, 420.00000, 0.20264, 0.0863243, 0.202938, 0.0864513, 0.208458, 0.0888026, 0, 0
1, 480.00000, 0.20264, 0.0863243, 0.202938, 0.0864513, 0.208458, 0.0888026, 0, 0
1, 540.00000, 0.20264, 0.0863243, 0.202938, 0.0864513, 0.208458, 0.0888026, 0, 0
1, 600.00000, 0.20264, 0.0863243, 0.202938, 0.0864513, 0.208458, 0.0888026, 0, 0
1, 660.00000, 0.20264, 0.0863243, 0.202938, 0.0864513, 0.208458, 0.0888026, 0, 0
1, 720.00000, 0.20264, 0.0863243, 0.202938, 0.0864513, 0.208458, 0.0888026, 0, 0
1, 780.00000, 0.20264, 0.0863243, 0.202938, 0.0864513, 0.208458, 0.0888026, 0, 0
1, 840.00000, 0.20264, 0.0863243, 0.202938, 0.0864513, 0.208458, 0.0888026, 0, 0
1, 900.00000, 0.20264, 0.0863243, 0.202938, 0.0864513, 0.208458, 0.0888026, 0, 0
1, 960.00000, 0.204903, 0.08729, 0.205198, 0.0874137, 0.210648, 0.0897372, 0, 0
1, 1020.00000, 0.204905, 0.0872892, 0.2052, 0.087415, 0.210641, 0.0897328, 0, 0
1, 1080.00000, 0.204905, 0.0872891, 0.2052, 0.087415, 0.210641, 0.0897327, 0, 0
1, 1140.00000, 0.204905, 0.0872891, 0.2052, 0.087415, 0.210641, 0.0897327, 0, 0
1, 1200.00000, 0.204905, 0.0872891, 0.2052, 0.087415, 0.210641, 0.0897327, 0, 0
1, 1260.00000, 0.204905, 0.0872891, 0.2052, 0.087415, 0.210641, 0.0897327, 0, 0
1, 1320.00000, 0.204905, 0.0872891, 0.2052, 0.087415, 0.210641, 0.0897327, 0, 0
1, 1380.00000, 0.204905, 0.0872891, 0.2052, 0.087415, 0.210641, 0.0897327, 0, 0
1, 1440.00000, 0.204905, 0.0872891, 0.2052, 0.087415, 0.210641, 0.0897327, 0, 0
1, 1500.00000, 0.204905, 0.0872891, 0.2052, 0.087415, 0.210641, 0.0897327, 0, 0
1, 1560.00000, 0.204905, 0.0872891, 0.2052, 0.087415, 0.210641, 0.0897327, 0, 0
1, 1620.00000, 0.204905, 0.0872891, 0.2052, 0.087415, 0.210641, 0.0897327, 0, 0
1, 1680.00000, 0.204905, 0.0872891, 0.2052, 0.087415, 0.210641, 0.0897327, 0, 0
1, 1740.00000, 0.204905, 0.0872891, 0.2052, 0.087415, 0.210641, 0.0897327, 0, 0
1, 1800.00000, 0.204905, 0.0872891, 0.2052, 0.087415, 0.210641, 0.0897327, 0, 0
1, 1860.00000, 0.218082, 0.092901, 0.219234, 0.0933967, 0.223969, 0.0954093, 0, 0
1, 1920.00000, 0.218084, 0.0929034, 0.219242, 0.0933966, 0.223959, 0.0954059, 0, 0
1, 1980.00000, 0.218084, 0.0929034, 0.219242, 0.0933966, 0.223958, 0.0954059, 0, 0
1, 2040.00000, 0.218084, 0.0929034, 0.219242, 0.0933966, 0.223958, 0.0954059, 0, 0
1, 2100.00000, 0.218084, 0.0929034, 0.219242, 0.0933966, 0.223958, 0.0954059, 0, 0
1, 2160.00000, 0.218084, 0.0929034, 0.219242, 0.0933966, 0.223958, 0.0954059, 0, 0
1, 2220.00000, 0.218084, 0.0929034, 0.219242, 0.0933966, 0.223958, 0.0954059, 0, 0
1, 2280.00000, 0.218084, 0.0929034, 0.219242, 0.0933966, 0.223958, 0.0954059, 0, 0
1, 2340.00000, 0.218084, 0.0929034, 0.219242, 0.0933966, 0.223958, 0.0954059, 0, 0
1, 2400.00000, 0.218084, 0.0929034, 0.219242, 0.0933966, 0.223958, 0.0954059, 0, 0
1, 2460.00000, 0.218084, 0.0929034, 0.219242, 0.0933966, 0.223958, 0.0954059, 0, 0
1, 2520.00000, 0.218084, 0.0929034, 0.219242, 0.0933966, 0.223958, 0.0954059, 0, 0
1, 2580.00000, 0.218084, 0.0929034, 0.219242, 0.0933966, 0.223958, 0.0954059, 0, 0
1, 2640.00000, 0.218084, 0.0929034, 0.219242, 0.0933966, 0.223958, 0.0954059, 0, 0
1, 2700.00000, 0.218084, 0.0929034, 0.219242, 0.0933966, 0.223958, 0.0954059, 0, 0
1, 2760.00000, 0.207492, 0.0883928, 0.208565, 0.0888482, 0.21156, 0.0901266, 0, 0
1, 2820.00000, 0.207494, 0.0883919, 0.208571, 0.0888507, 0.211552, 0.0901207, 0, 0
1, 2880.00000, 0.207494, 0.0883919, 0.208571, 0.0888507, 0.211552, 0.0901206, 0, 0
1, 2940.00000, 0.207494, 0.0883919, 0.208571, 0.0888507, 0.211552, 0.0901206, 0, 0
1, 3000.00000, 0.207494, 0.0883919, 0.208571, 0.0888507, 0.211552, 0.0901206, 0, 0
1, 3060.00000, 0.207494, 0.0883919, 0.208571, 0.0888507, 0.211552, 0.0901206, 0, 0
1, 3120.00000, 0.207494, 0.0883919, 0.208571, 0.0888507, 0.211552, 0.0901206, 0, 0
1, 3180.00000, 0.207494, 0.0883919, 0.208571, 0.0888507, 0.211552, 0.0901206, 0, 0
1, 3240.00000, 0.207494, 0.0883919, 0.208571, 0.0888507, 0.211552, 0.0901206, 0, 0
1, 3300.00000, 0.207494, 0.0883919, 0.208571, 0.0888507, 0.211552, 0.0901206, 0, 0
1, 3360.00000, 0.207494, 0.0883919, 0.208571, 0.0888507, 0.211552, 0.0901206, 0, 0
1, 3420.00000, 0.207494, 0.0883919, 0.208571, 0.0888507, 0.211552, 0.0901206, 0, 0
1, 3480.00000, 0.207494, 0.0883919, 0.208571, 0.0888507, 0.211552, 0.0901206, 0, 0
1, 3540.00000, 0.207494, 0.0883919, 0.208571, 0.0888507, 0.211552, 0.0901206, 0, 0
2, 0.00000, 0.207494, 0.0883919, 0.208571, 0.0888507, 0.211552, 0.0901206, 0, 0
2, 60.00000, 0.219755, 0.0936143, 0.220924, 0.0941132, 0.225118, 0.0958984, 0, 0
2, 120.00000, 0.219754, 0.0936148, 0.22092, 0.0941117, 0.225123, 0.0959019, 0, 0
2, 180.00000, 0.219754, 0.0936148, 0.22092, 0.0941117, 0.225123, 0.095902, 0, 0
2, 240.00000, 0.219754, 0.0936148, 0.22092, 0.0941116, 0.225123, 0.095902, 0, 0
2, 300.00000, 0.219754, 0.0936148, 0.22092, 0.0941116, 0.225123, 0.095902, 0, 0
2, 360.00000, 0.219754, 0.0936148, 0.22092, 0.0941116, 0.225123, 0.095902, 0, 0
2, 420.00000, 0.219754, 0.0936148, 0.22092, 0.0941116, 0.225123, 0.095902, 0, 0
2, 480.00000, 0.219754, 0.0936148, 0.22092, 0.0941116, 0.225123, 0.095902, 0, 0
2, 540.00000, 0.219754, 0.0936148, 0.22092, 0.0941116, 0.225123, 0.095902, 0, 0
2, 600.00000, 0.219754, 0.0936148, 0.22092, 0.0941116, 0.225123, 0.095902, 0, 0
2, 660.00000, 0.219754, 0.0936148, 0.22092, 0.0941116, 0.225123, 0.095902, 0, 0
2, 720.00000, 0.219754, 0.0936148, 0.22092, 0.0941116, 0.225123, 0.095902, 0, 0
2, 780.00000, 0.219754, 0.0936148, 0.22092, 0.0941116, 0.225123, 0.095902, 0, 0
2, 840.00000, 0.219754, 0.0936148, 0.22092, 0.0941116, 0.225123, 0.095902, 0, 0
2, 900.00000, 0.219754, 0.0936148, 0.22092, 0.0941116, 0.225123, 0.095902, 0, 0
2, 960.00000, 0.21245, 0.0905047, 0.213544, 0.0909693, 0.216407, 0.0921906, 0, 0
2, 1020.00000, 0.212452, 0.0905041, 0.213548, 0.0909711, 0.216401, 0.0921863, 0, 0
2, 1080.00000, 0.212452, 0.0905041, 0.213548, 0.0909711, 0.2164, 0.0921862, 0, 0
2, 1140.00000, 0.212452, 0.0905041, 0.213548, 0.0909711, 0.2164, 0.0921862, 0, 0
2, 1200.00000, 0.212452, 0.0905041, 0.213548, 0.0909711, 0.2164, 0.0921862, 0, 0
2, 1260.00000, 0.212452, 0.0905041, 0.213548, 0.0909711, 0.2164, 0.0921862, 0, 0
2, 1320.00000, 0.212452, 0.0905041, 0.213548, 0.0909711, 0.2164, 0.0921862, 0, 0
2, 1380.00000, 0.212452, 0.0905041, 0.213548, 0.0909711, 0.2164, 0.0921862, 0, 0
2, 1440.00000, 0.212452, 0.0905041, 0.213548, 0.0909711, 0.2164, 0.0921862, 0, 0
2, 1500.00000, 0.212452, 0.0905041, 0.213548, 0.0909711, 0.2164, 0.0921862, 0, 0
2, 1560.00000, 0.212452, 0.0905041, 0.213548, 0.0909711, 0.2164, 0.0921862, 0, 0
2, 1620.00000, 0.212452, 0.0905041, 0.213548, 0.0909711, 0.2164, 0.0921862, 0, 0
2, 1680.00000, 0.212452, 0.0905041, 0.213548, 0.0909711, 0.2164, 0.0921862, 0, 0
2, 1740.00000, 0.212452, 0.0905041, 0.213548, 0.0909711, 0.2164, 0.0921862, 0, 0
2, 1800.00000, 0.212452, 0.0905041, 0.213548, 0.0909711, 0.2164, 0.0921862, 0, 0
2, 1860.00000, 0.226328, 0.0964145, 0.227511, 0.0969194, 0.231086, 0.0984416, 0, 0
2, 1920.00000, 0.226327, 0.0964147, 0.22751, 0.0969188, 0.231089, 0.0984434, 0, 0
2, 1980.00000, 0.226327, 0.0964147, 0.22751, 0.0969187, 0.231089, 0.0984434, 0, 0
2, 2040.00000, 0.226327, 0.0964147, 0.22751, 0.0969187, 0.231089, 0.0984434, 0, 0
2, 2100.00000, 0.226327, 0.0964147, 0.22751, 0.0969187, 0.231089, 0.0984434, 0, 0
2, 2160.00000, 0.226327, 0.0964147, 0.22751, 0.0969187, 0.231089, 0.0984434, 0, 0
2, 2220.00000, 0.226327, 0.0964147, 0.22751, 0.0969187, 0.231089, 0.0984434, 0, 0
2, 2280.00000, 0.226327, 0.0964147, 0.22751, 0.0969187, 0.231089, 0.0984434, 0, 0
2, 2340.00000, 0.226327, 0.0964147, 0.22751, 0.0969187, 0.231089, 0.0984434, 0, 0
2, 2400.00000, 0.226327, 0.0964147, 0.22751, 0.0969187, 0.231089, 0.0984434, 0, 0
2, 2460.00000, 0.226327, 0.0964147, 0.22751, 0.0969187, 0.231089, 0.0984434, 0, 0
2, 2520.00000, 0.226327, 0.0964147, 0.22751, 0.0969187, 0.231089, 0.0984434, 0, 0
2, 2580.00000, 0.226327, 0.0964147, 0.22751, 0.0969187, 0.231089, 0.0984434, 0, 0
2, 2640.00000, 0.226327, 0.0964147, 0.22751, 0.0969187, 0.231089, 0.0984434, 0, 0
2, 2700.00000, 0.226327, 0.0964147, 0.22751, 0.0969187, 0.231089, 0.0984434, 0, 0
2, 2760.00000, 0.210455, 0.0896552, 0.211513, 0.0901044, 0.213327, 0.0908789, 0, 0
2, 2820.00000, 0.210459, 0.0896552, 0.211519, 0.0901068, 0.21332, 0.0908739, 0, 0
2, 2880.00000, 0.210459, 0.0896552, 0.211519, 0.0901069, 0.21332, 0.0908738, 0, 0
2, 2940.00000, 0.210459, 0.0896552, 0.211519, 0.0901069, 0.21332, 0.0908738, 0, 0
2, 3000.00000, 0.210459, 0.0896552, 0.211519, 0.0901069, 0.21332, 0.0908738, 0, 0
2, 3060.00000, 0.210459, 0.0896552, 0.211519, 0.0901069, 0.21332, 0.0908738, 0, 0
2, 3120.00000, 0.210459, 0.0896552, 0.211519, 0.0901069, 0.21332, 0.0908738, 0, 0
2, 3180.00000, 0.210459, 0.0896552, 0.211519, 0.0901069, 0.21332, 0.0908738, 0, 0
2, 3240.00000, 0.210459, 0.0896552, 0.211519, 0.0901069, 0.21332, 0.0908738, 0, 0
2, 3300.00000, 0.210459, 0.0896552, 0.211519, 0.0901069, 0.21332, 0.0908738, 0, 0
2, 3360.00000, 0.210459, 0.0896552, 0.211519, 0.0901069, 0.21332, 0.0908738, 0, 0
2, 3420.00000, 0.210459, 0.0896552, 0.211519, 0.0901069, 0.21332, 0.0908738, 0, 0
2, 3480.00000, 0.210459, 0.0896552, 0.211519, 0.0901069, 0.21332, 0.0908738, 0, 0
2, 3540.00000, 0.210459, 0.0896552, 0.211519, 0.0901069, 0.21332, 0.0908738, 0, 0
3, 0.00000, 0.210459, 0.0896552, 0.211519, 0.0901069, 0.21332, 0.0908738, 0, 0
3, 60.00000, 0.22465, 0.0956993, 0.225798, 0.0961893, 0.228462, 0.0973233, 0, 0
3, 120.00000, 0.224648, 0.0956994, 0.225795, 0.0961882, 0.228466, 0.0973261, 0, 0
3, 180.00000, 0.224648, 0.0956995, 0.225795, 0.0961882, 0.228466, 0.0973262, 0, 0
3, 240.00000, 0.224648, 0.0956995, 0.225795, 0.0961882, 0.228466, 0.0973262, 0, 0
3, 300.00000, 0.224648, 0.0956995, 0.225795, 0.0961882, 0.228466, 0.0973262, 0, 0
3, 360.00000, 0.224648, 0.0956995, 0.225795, 0.0961882, 0.228466, 0.0973262, 0, 0
3, 420.00000, 0.224648, 0.0956995, 0.225795, 0.0961882, 0.228466, 0.0973262, 0, 0
3, 480.00000, 0.224648, 0.0956995, 0.225795, 0.0961882, 0.228466, 0.0973262, 0, 0
3, 540.00000, 0.224648, 0.0956995, 0.225795, 0.0961882, 0.228466, 0.0973262, 0, 0
3, 600.00000, 0.224648, 0.0956995, 0.225795, 0.0961882, 0.228466, 0.0973262, 0, 0
3, 660.00000, 0.224648, 0.0956995, 0.225795, 0.0961882, 0.228466, 0.0973262, 0, 0
3, 720.00000, 0.224648, 0.0956995, 0.225795, 0.0961882, 0.228466, 0.0973262, 0, 0
3, 780.00000, 0.224648, 0.0956995, 0.225795, 0.0961882, 0.228466, 0.0973262, 0, 0
3, 840.00000, 0.224648, 0.0956995, 0.225795, 0.0961882, 0.228466, 0.0973262, 0, 0
3, 900.00000, 0.224648, 0.0956995, 0.225795, 0.0961882, 0.228466, 0.0973262, 0, 0
3, 960.00000, 0.207801, 0.0885254, 0.208855, 0.0889721, 0.211052, 0.0899102, 0, 0
3, 1020.00000, 0.207806, 0.0885251, 0.208862, 0.0889746, 0.211043, 0.0899038, 0, 0
3, 1080.00000, 0.207806, 0.0885251, 0.208862, 0.0889747, 0.211043, 0.0899038, 0, 0
3, 1140.00000, 0.207806, 0.0885251, 0.208862, 0.0889747, 0.211043, 0.0899038, 0, 0
3, 1200.00000, 0.207806, 0.0885251, 0.208862, 0.0889747, 0.211043, 0.0899038, 0, 0
3, 1260.00000, 0.207806, 0.0885251, 0.208862, 0.0889747, 0.211043, 0.0899038, 0, 0
3, 1320.00000, 0.207806, 0.0885251, 0.208862, 0.0889747, 0.211043, 0.0899038, 0, 0
3, 1380.00000, 0.207806, 0.0885251, 0.208862, 0.0889747, 0.211043, 0.0899038, 0, 0
3, 1440.00000, 0.207806, 0.0885251, 0.208862, 0.0889747, 0.211043, 0.0899038, 0, 0
3, 1500.00000, 0.207806, 0.0885251, 0.208862, 0.0889747, 0.211043, 0.0899038, 0, 0
3, 1560.00000, 0.207806, 0.0885251, 0.208862, 0.0889747, 0.211043, 0.0899038, 0, 0
3, 1620.00000, 0.207806, 0.0885251, 0.208862, 0.0889747, 0.211043, 0.0899038, 0, 0
3, 1680.00000, 0.207806, 0.0885251, 0.208862, 0.0889747, 0.211043, 0.0899038, 0, 0
3, 1740.00000, 0.207806, 0.0885251, 0.208862, 0.0889747, 0.211043, 0.0899038, 0, 0
3, 1800.00000, 0.207806, 0.0885251, 0.208862, 0.0889747, 0.211043, 0.0899038, 0, 0
3, 1860.00000, 0.19376, 0.0825435, 0.194742, 0.0829609, 0.196658, 0.0837777, 0, 0
3, 1920.00000, 0.193765, 0.0825436, 0.194747, 0.0829619, 0.196654, 0.0837743, 0, 0
3, 1980.00000, 0.193765, 0.0825436, 0.194747, 0.0829619, 0.196654, 0.0837743, 0, 0
3, 2040.00000, 0.193765, 0.0825436, 0.194747, 0.0829619, 0.196654, 0.0837743, 0, 0
3, 2100.00000, 0.193765, 0.0825436, 0.194747, 0.0829619, 0.196654, 0.0837743, 0, 0
3, 2160.00000, 0.193765, 0.0825436, 0.194747, 0.0829619, 0.196654, 0.0837743, 0, 0
3, 2220.00000, 0.193765, 0.0825436, 0.194747, 0.0829619, 0.196654, 0.0837743, 0, 0
3, 2280.00000, 0.193765, 0.0825436, 0.194747, 0.0829619, 0.196654, 0.0837743, 0, 0
3, 2340.00000, 0.193765, 0.0825436, 0.194747, 0.0829619, 0.196654, 0.0837743, 0, 0
3, 2400.00000, 0.193765, 0.0825436, 0.194747, 0.0829619, 0.196654, 0.0837743, 0, 0
3, 2460.00000, 0.193765, 0.0825436, 0.194747, 0.0829619, 0.196654, 0.0837743, 0, 0
3, 2520.00000, 0.193765, 0.0825436, 0.194747, 0.0829619, 0.196654, 0.0837743, 0, 0
3, 2580.00000, 0.193765, 0.0825436, 0.194747, 0.0829619, 0.196654, 0.0837743, 0, 0
3, 2640.00000, 0.193765, 0.0825436, 0.194747, 0.0829619, 0.196654, 0.0837743, 0, 0
3, 2700.00000, 0.193765, 0.0825436, 0.194747, 0.0829619, 0.196654, 0.0837743, 0, 0
3, 2760.00000, 0.205519, 0.0875524, 0.206515, 0.0879754, 0.207283, 0.0883038, 0, 0
3, 2820.00000, 0.205524, 0.087553, 0.206521, 0.0879777, 0.207276, 0.0882992, 0, 0
3, 2880.00000, 0.205524, 0.087553, 0.206521, 0.0879778, 0.207276, 0.0882991, 0, 0
3, 2940.00000, 0.205524, 0.087553, 0.206521, 0.0879778, 0.207276, 0.0882991, 0, 0
3, 3000.00000, 0.205524, 0.087553, 0.206521, 0.0879778, 0.207276, 0.0882991, 0, 0
3, 3060.00000, 0.205524, 0.087553, 0.206521, 0.0879778, 0.207276, 0.0882991, 0, 0
3, 3120.00000, 0.205524, 0.087553, 0.206521, 0.0879778, 0.207276, 0.0882991, 0, 0
3, 3180.00000, 0.205524, 0.087553, 0.206521, 0.0879778, 0.207276, 0.0882991, 0, 0
3, 3240.00000, 0.205524, 0.087553, 0.206521, 0.0879778, 0.207276, 0.0882991, 0, 0
3, 3300.00000, 0.205524, 0.087553, 0.206521, 0.0879778, 0.207276, 0.0882991, 0, 0
3, 3360.00000, 0.205524, 0.087553, 0.206521, 0.0879778, 0.207276, 0.0882991, 0, 0
3, 3420.00000, 0.205524, 0.087553, 0.206521, 0.0879778, 0.207276, 0.0882991, 0, 0
3, 3480.00000, 0.205524, 0.087553, 0.206521, 0.0879778, 0.207276, 0.0882991, 0, 0
3, 3540.00000, 0.205524, 0.087553, 0.206521, 0.0879778, 0.207276, 0.0882991, 0, 0
4, 0.00000, 0.205524, 0.087553, 0.206521, 0.0879778, 0.207276, 0.0882991, 0, 0
4, 60.00000, 0.192483, 0.0819965, 0.19345, 0.0824089, 0.194822, 0.0829927, 0, 0
4, 120.00000, 0.19248, 0.0819962, 0.193446, 0.0824076, 0.194826, 0.0829956, 0, 0
4, 180.00000, 0.19248, 0.0819962, 0.193446, 0.0824076, 0.194826, 0.0829956, 0, 0
4, 240.00000, 0.19248, 0.0819962, 0.193446, 0.0824076, 0.194826, 0.0829956, 0, 0
