hour,t(sec),V1,VAngle1,V2,VAngle2,V3,VAngle3,V4,VAngle4,I1,IAngle1,I2,IAngle2,I3,IAngle3,I4,IAngle4
0, 60.00000, 117.662, -33.2634, 118.488, -151.08, 122.939, 87.5105, 0, 0, 4.8135, -56.3373, 4.85086, -174.154, 4.85866, 64.4379, 0.132308, 62.528
0, 120.00000, 117.656, -33.2883, 118.487, -151.081, 122.988, 87.496, 0, 0, 4.81321, -56.3622, 4.85084, -174.154, 4.85669, 64.4232, 0.135868, 62.5451
0, 180.00000, 117.65, -33.3106, 118.487, -151.081, 123.032, 87.4829, 0, 0, 4.81295, -56.3846, 4.85082, -174.155, 4.85492, 64.41, 0.139071, 62.5589
0, 240.00000, 117.645, -33.3308, 118.486, -151.082, 123.073, 87.4711, 0, 0, 4.81272, -56.4047, 4.85079, -174.155, 4.85332, 64.3981, 0.141958, 62.5689
0, 300.00000, 117.641, -33.3489, 118.486, -151.082, 123.109, 87.4605, 0, 0, 4.8125, -56.4228, 4.85078, -174.156, 4.85187, 64.3874, 0.144559, 62.5764
0, 360.00000, 117.637, -33.3652, 118.485, -151.083, 123.142, 87.4509, 0, 0, 4.8123, -56.4391, 4.85076, -174.156, 4.85056, 64.3778, 0.146898, 62.5824
0, 420.00000, 117.633, -33.3799, 118.485, -151.083, 123.171, 87.4423, 0, 0, 4.81213, -56.4538, 4.85074, -174.157, 4.84939, 64.3691, 0.149003, 62.5874
0, 480.00000, 118.59, -33.3015, 119.448, -151.003, 124.3, 87.5481, 0, 0, 4.65049, -56.3754, 4.68775, -174.077, 4.60231, 64.4749, 0.228272, 62.7998
0, 540.00000, 118.588, -33.3135, 119.448, -151.004, 124.324, 87.5411, 0, 0, 4.65036, -56.3873, 4.68773, -174.077, 4.60141, 64.4678, 0.229908, 62.7994
0, 600.00000, 118.585, -33.3243, 119.447, -151.004, 124.345, 87.5348, 0, 0, 4.65023, -56.3981, 4.68772, -174.077, 4.60061, 64.4614, 0.231377, 62.7992
0, 660.00000, 118.582, -33.334, 119.447, -151.004, 124.365, 87.5291, 0, 0, 4.65012, -56.4078, 4.68771, -174.078, 4.59988, 64.4557, 0.232699, 62.799
0, 720.00000, 118.58, -33.3427, 119.447, -151.004, 124.382, 87.524, 0, 0, 4.65002, -56.4166, 4.6877, -174.078, 4.59923, 64.4505, 0.233889, 62.7988
0, 780.00000, 118.578, -33.3506, 119.447, -151.004, 124.398, 87.5193, 0, 0, 4.64993, -56.4245, 4.68769, -174.078, 4.59865, 64.4458, 0.234959, 62.7985
0, 840.00000, 118.577, -33.3577, 119.447, -151.005, 124.412, 87.5152, 0, 0, 4.64985, -56.4315, 4.68769, -174.078, 4.59812, 64.4416, 0.235922, 62.7982
0, 900.00000, 118.575, -33.3641, 119.446, -151.005, 124.425, 87.5114, 0, 0, 4.64978, -56.4379, 4.68768, -174.078, 4.59765, 64.4378, 0.236789, 62.7979
0, 960.00000, 118.574, -33.3698, 119.446, -151.005, 124.436, 87.508, 0, 0, 4.64971, -56.4437, 4.68767, -174.079, 4.59722, 64.4344, 0.237569, 62.7976
0, 1020.00000, 118.572, -33.375, 119.446, -151.005, 124.446, 87.505, 0, 0, 4.64965, -56.4488, 4.68767, -174.079, 4.59684, 64.4314, 0.23827, 62.7973
0, 1080.00000, 118.571, -33.3796, 119.446, -151.005, 124.455, 87.5023, 0, 0, 4.6496, -56.4535, 4.68766, -174.079, 4.59649, 64.4286, 0.238902, 62.797
0, 1140.00000, 118.57, -33.3838, 119.446, -151.005, 124.464, 87.4998, 0, 0, 4.64955, -56.4577, 4.68766, -174.079, 4.59618, 64.4261, 0.23947, 62.7968
0, 1200.00000, 118.569, -33.3876, 119.446, -151.005, 124.471, 87.4976, 0, 0, 4.6495, -56.4614, 4.68765, -174.079, 4.5959, 64.4239, 0.239981, 62.7965
0, 1260.00000, 118.568, -33.3909, 119.446, -151.005, 124.478, 87.4956, 0, 0, 4.64946, -56.4648, 4.68765, -174.079, 4.59565, 64.4219, 0.240441, 62.7963
0, 1320.00000, 118.568, -33.394, 119.446, -151.005, 124.484, 87.4938, 0, 0, 4.64943, -56.4679, 4.68765, -174.079, 4.59542, 64.42, 0.240855, 62.7961
0, 1380.00000, 118.567, -33.3967, 119.446, -151.005, 124.489, 87.4922, 0, 0, 4.6494, -56.4706, 4.68764, -174.079, 4.59522, 64.4184, 0.241228, 62.7959
0, 1440.00000, 118.566, -33.3992, 119.446, -151.005, 124.494, 87.4907, 0, 0, 4.64937, -56.4731, 4.68764, -174.079, 4.59503, 64.4169, 0.241563, 62.7957
0, 1500.00000, 118.566, -33.4014, 119.446, -151.005, 124.499, 87.4894, 0, 0, 4.64934, -56.4753, 4.68764, -174.079, 4.59487, 64.4156, 0.241865, 62.7955
0, 1560.00000, 118.565, -33.4034, 119.446, -151.005, 124.503, 87.4882, 0, 0, 4.64932, -56.4773, 4.68764, -174.079, 4.59472, 64.4144, 0.242136, 62.7953
0, 1620.00000, 118.565, -33.4052, 119.445, -151.006, 124.506, 87.4872, 0, 0, 4.6493, -56.4791, 4.68763, -174.079, 4.59459, 64.4134, 0.242381, 62.7952
0, 1680.00000, 118.564, -33.4069, 119.445, -151.006, 124.51, 87.4862, 0, 0, 4.64928, -56.4808, 4.68763, -174.079, 4.59447, 64.4124, 0.242601, 62.7951
0, 1740.00000, 118.564, -33.4083, 119.445, -151.006, 124.512, 87.4854, 0, 0, 4.64926, -56.4822, 4.68763, -174.079, 4.59436, 64.4115, 0.242799, 62.7949
0, 1800.00000, 118.564, -33.4096, 119.445, -151.006, 124.515, 87.4846, 0, 0, 4.64925, -56.4835, 4.68763, -174.08, 4.59426, 64.4107, 0.242977, 62.7948
0, 1860.00000, 118.563, -33.4108, 119.445, -151.006, 124.517, 87.4839, 0, 0, 4.64923, -56.4847, 4.68763, -174.08, 4.59417, 64.41, 0.243137, 62.7947
0, 1920.00000, 118.563, -33.4119, 119.445, -151.006, 124.519, 87.4833, 0, 0, 4.64922, -56.4858, 4.68763, -174.08, 4.59409, 64.4094, 0.243281, 62.7947
0, 1980.00000, 118.563, -33.4128, 119.445, -151.006, 124.521, 87.4827, 0, 0, 4.64921, -56.4868, 4.68763, -174.08, 4.59402, 64.4088, 0.243411, 62.7946
0, 2040.00000, 118.563, -33.4137, 119.445, -151.006, 124.523, 87.4822, 0, 0, 4.6492, -56.4876, 4.68762, -174.08, 4.59396, 64.4083, 0.243528, 62.7945
0, 2100.00000, 118.562, -33.4145, 119.445, -151.006, 124.525, 87.4817, 0, 0, 4.64919, -56.4884, 4.68762, -174.08, 4.5939, 64.4079, 0.243633, 62.7944
0, 2160.00000, 118.562, -33.4152, 119.445, -151.006, 124.526, 87.4813, 0, 0, 4.64918, -56.4891, 4.68762, -174.08, 4.59385, 64.4074, 0.243728, 62.7944
0, 2220.00000, 118.562, -33.4158, 119.445, -151.006, 124.527, 87.481, 0, 0, 4.64917, -56.4897, 4.68762, -174.08, 4.5938, 64.4071, 0.243813, 62.7943
0, 2280.00000, 118.562, -33.4164, 119.445, -151.006, 124.528, 87.4806, 0, 0, 4.64917, -56.4903, 4.68762, -174.08, 4.59376, 64.4067, 0.24389, 62.7943
0, 2340.00000, 118.562, -33.4169, 119.445, -151.006, 124.529, 87.4803, 0, 0, 4.64916, -56.4908, 4.68762, -174.08, 4.59372, 64.4064, 0.243959, 62.7942
0, 2400.00000, 118.562, -33.4173, 119.445, -151.006, 124.53, 87.48, 0, 0, 4.64916, -56.4913, 4.68762, -174.08, 4.59369, 64.4062, 0.244021, 62.7942
0, 2460.00000, 118.562, -33.4178, 119.445, -151.006, 124.531, 87.4798, 0, 0, 4.64915, -56.4917, 4.68762, -174.08, 4.59366, 64.4059, 0.244077, 62.7941
0, 2520.00000, 118.562, -33.4181, 119.445, -151.006, 124.532, 87.4796, 0, 0, 4.64915, -56.492, 4.68762, -174.08, 4.59363, 64.4057, 0.244127, 62.7941
0, 2580.00000, 118.561, -33.4185, 119.445, -151.006, 124.533, 87.4794, 0, 0, 4.64914, -56.4924, 4.68762, -174.08, 4.59361, 64.4055, 0.244172, 62.7941
0, 2640.00000, 118.561, -33.4188, 119.445, -151.006, 124.533, 87.4792, 0, 0, 4.64914, -56.4927, 4.68762, -174.08, 4.59359, 64.4053, 0.244213, 62.794
0, 2700.00000, 118.561, -33.419, 119.445, -151.006, 124.534, 87.4791, 0, 0, 4.64914, -56.4929, 4.68762, -174.08, 4.59357, 64.4052, 0.24425, 62.794
0, 2760.00000, 118.561, -33.4193, 119.445, -151.006, 124.534, 87.4789, 0, 0, 4.64913, -56.4932, 4.68762, -174.08, 4.59355, 64.405, 0.244283, 62.794
0, 2820.00000, 118.561, -33.4195, 119.445, -151.006, 124.535, 87.4788, 0, 0, 4.64913, -56.4934, 4.68762, -174.08, 4.59353, 64.4049, 0.244313, 62.794
0, 2880.00000, 118.561, -33.4197, 119.445, -151.006, 124.535, 87.4787, 0, 0, 4.64913, -56.4936, 4.68762, -174.08, 4.59352, 64.4048, 0.244339, 62.794
0, 2940.00000, 118.561, -33.4199, 119.445, -151.006, 124.535, 87.4786, 0, 0, 4.64913, -56.4938, 4.68762, -174.08, 4.5935, 64.4047, 0.244363, 62.7939
0, 3000.00000, 118.561, -33.42, 119.445, -151.006, 124.536, 87.4785, 0, 0, 4.64912, -56.4939, 4.68762, -174.08, 4.59349, 64.4046, 0.244385, 62.7939
0, 3060.00000, 118.561, -33.4202, 119.445, -151.006, 124.536, 87.4784, 0, 0, 4.64912, -56.4941, 4.68762, -174.08, 4.59348, 64.4045, 0.244404, 62.7939
0, 3120.00000, 118.561, -33.4203, 119.445, -151.006, 124.536, 87.4783, 0, 0, 4.64912, -56.4942, 4.68762, -174.08, 4.59347, 64.4044, 0.244422, 62.7939
0, 3180.00000, 118.561, -33.4204, 119.445, -151.006, 124.536, 87.4782, 0, 0, 4.64912, -56.4943, 4.68762, -174.08, 4.59346, 64.4043, 0.244438, 62.7939
0, 3240.00000, 118.561, -33.4205, 119.445, -151.006, 124.537, 87.4782, 0, 0, 4.64912, -56.4944, 4.68762, -174.08, 4.59345, 64.4043, 0.244452, 62.7939
0, 3300.00000, 118.561, -33.4206, 119.445, -151.006, 124.537, 87.4781, 0, 0, 4.64912, -56.4945, 4.68762, -174.08, 4.59345, 64.4042, 0.244465, 62.7939
0, 3360.00000, 118.561, -33.4207, 119.445, -151.006, 124.537, 87.4781, 0, 0, 4.64912, -56.4946, 4.68762, -174.08, 4.59344, 64.4042, 0.244476, 62.7939
0, 3420.00000, 118.561, -33.4208, 119.445, -151.006, 124.537, 87.478, 0, 0, 4.64911, -56.4947, 4.68762, -174.08, 4.59344, 64.4041, 0.244487, 62.7939
0, 3480.00000, 118.561, -33.4208, 119.445, -151.006, 124.537, 87.478, 0, 0, 4.64911, -56.4948, 4.68762, -174.08, 4.59343, 64.4041, 0.244496, 62.7939
0, 3540.00000, 118.561, -33.4209, 119.445, -151.006, 124.537, 87.478, 0, 0, 4.64911, -56.4948, 4.68762, -174.08, 4.59343, 64.404, 0.244504, 62.7938
1, 0.00000, 118.561, -33.421, 119.445, -151.006, 124.537, 87.4779, 0, 0, 4.64911, -56.4949, 4.68762, -174.08, 4.59342, 64.404, 0.244512, 62.7938
1, 60.00000, 118.561, -33.421, 119.445, -151.006, 124.538, 87.4779, 0, 0, 4.64911, -56.4949, 4.68762, -174.08, 4.59342, 64.404, 0.244519, 62.7938
1, 120.00000, 118.561, -33.4211, 119.445, -151.006, 124.538, 87.4779, 0, 0, 4.64911, -56.495, 4.68762, -174.08, 4.59342, 64.4039, 0.244525, 62.7938
1, 180.00000, 118.561, -33.4211, 119.445, -151.006, 124.538, 87.4778, 0, 0, 4.64911, -56.495, 4.68762, -174.08, 4.59341, 64.4039, 0.24453, 62.7938
1, 240.00000, 118.561, -33.4211, 119.445, -151.006, 124.538, 87.4778, 0, 0, 4.64911, -56.4951, 4.68762, -174.08, 4.59341, 64.4039, 0.244535, 62.7938
1, 300.00000, 118.561, -33.4212, 119.445, -151.006, 124.538, 87.4778, 0, 0, 4.64911, -56.4951, 4.68762, -174.08, 4.59341, 64.4039, 0.24454, 62.7938
1, 360.00000, 118.561, -33.4212, 119.445, -151.006, 124.538, 87.4778, 0, 0, 4.64911, -56.4951, 4.68762, -174.08, 4.5934, 64.4039, 0.244544, 62.7938
1, 420.00000, 118.561, -33.4212, 119.445, -151.006, 124.538, 87.4778, 0, 0, 4.64911, -56.4951, 4.68762, -174.08, 4.5934, 64.4038, 0.244547, 62.7938
1, 480.00000, 118.561, -33.4212, 119.445, -151.006, 124.538, 87.4777, 0, 0, 4.64911, -56.4952, 4.68762, -174.08, 4.5934, 64.4038, 0.244551, 62.7938
1, 540.00000, 118.561, -33.4213, 119.445, -151.006, 124.538, 87.4777, 0, 0, 4.64911, -56.4952, 4.68762, -174.08, 4.5934, 64.4038, 0.244553, 62.7938
1, 600.00000, 118.561, -33.4213, 119.445, -151.006, 124.538, 87.4777, 0, 0, 4.64911, -56.4952, 4.68762, -174.08, 4.5934, 64.4038, 0.244556, 62.7938
1, 660.00000, 118.561, -33.4213, 119.445, -151.006, 124.538, 87.4777, 0, 0, 4.64911, -56.4952, 4.68762, -174.08, 4.5934, 64.4038, 0.244558, 62.7938
1, 720.00000, 118.561, -33.4213, 119.445, -151.006, 124.538, 87.4777, 0, 0, 4.64911, -56.4952, 4.68762, -174.08, 4.5934, 64.4038, 0.244561, 62.7938
1, 780.00000, 118.561, -33.4213, 119.445, -151.006, 124.538, 87.4777, 0, 0, 4.64911, -56.4953, 4.68762, -174.08, 4.59339, 64.4038, 0.244563, 62.7938
1, 840.00000, 118.561, -33.4214, 119.445, -151.006, 124.538, 87.4777, 0, 0, 4.64911, -56.4953, 4.68762, -174.08, 4.59339, 64.4038, 0.244564, 62.7938
1, 900.00000, 118.561, -33.4214, 119.445, -151.006, 124.538, 87.4777, 0, 0, 4.64911, -56.4953, 4.68762, -174.08, 4.59339, 64.4038, 0.244566, 62.7938
1, 960.00000, 118.561, -33.4214, 119.445, -151.006, 124.538, 87.4777, 0, 0, 4.64911, -56.4953, 4.68762, -174.08, 4.59339, 64.4038, 0.244567, 62.7938
1, 1020.00000, 118.561, -33.4214, 119.445, -151.006, 124.538, 87.4777, 0, 0, 4.64911, -56.4953, 4.68762, -174.08, 4.59339, 64.4038, 0.244568, 62.7938
1, 1080.00000, 118.561, -33.4214, 119.445, -151.006, 124.538, 87.4777, 0, 0, 4.64911, -56.4953, 4.68762, -174.08, 4.59339, 64.4037, 0.24457, 62.7938
1, 1140.00000, 118.561, -33.4214, 119.445, -151.006, 124.538, 87.4777, 0, 0, 4.64911, -56.4953, 4.68762, -174.08, 4.59339, 64.4037, 0.244571, 62.7938
1, 1200.00000, 118.561, -33.4214, 119.445, -151.006, 124.538, 87.4777, 0, 0, 4.64911, -56.4953, 4.68762, -174.08, 4.59339, 64.4037, 0.244572, 62.7938
1, 1260.00000, 118.561, -33.4214, 119.445, -151.006, 124.538, 87.4777, 0, 0, 4.64911, -56.4953, 4.68762, -174.08, 4.59339, 64.4037, 0.244572, 62.7938
1, 1320.00000, 118.561, -33.4214, 119.445, -151.006, 124.538, 87.4776, 0, 0, 4.64911, -56.4953, 4.68762, -174.08, 4.59339, 64.4037, 0.244573, 62.7938
1, 1380.00000, 118.561, -33.4214, 119.445, -151.006, 124.538, 87.4776, 0, 0, 4.64911, -56.4953, 4.68762, -174.08, 4.59339, 64.4037, 0.244574, 62.7938
1, 1440.00000, 118.561, -33.4214, 119.445, -151.006, 124.538, 87.4776, 0, 0, 4.64911, -56.4953, 4.68762, -174.08, 4.59339, 64.4037, 0.244574, 62.7938
1, 1500.00000, 118.561, -33.4214, 119.445, -151.006, 124.538, 87.4776, 0, 0, 4.64911, -56.4953, 4.68762, -174.08, 4.59339, 64.4037, 0.244575, 62.7938
1, 1560.00000, 118.561, -33.4214, 119.445, -151.006, 124.538, 87.4776, 0, 0, 4.64911, -56.4954, 4.68762, -174.08, 4.59339, 64.4037, 0.244575, 62.7938
1, 1620.00000, 118.561, -33.4214, 119.445, -151.006, 124.538, 87.4776, 0, 0, 4.64911, -56.4954, 4.68762, -174.08, 4.59339, 64.4037, 0.244576, 62.7938
1, 1680.00000, 118.561, -33.4214, 119.445, -151.006, 124.538, 87.4776, 0, 0, 4.64911, -56.4954, 4.68762, -174.08, 4.59339, 64.4037, 0.244576, 62.7938
1, 1740.00000, 118.561, -33.4214, 119.445, -151.006, 124.538, 87.4776, 0, 0, 4.64911, -56.4954, 4.68762, -174.08, 4.59339, 64.4037, 0.244577, 62.7938
1, 1800.00000, 118.561, -33.4214, 119.445, -151.006, 124.538, 87.4776, 0, 0, 4.64911, -56.4954, 4.68762, -174.08, 4.59339, 64.4037, 0.244577, 62.7938
1, 1860.00000, 118.561, -33.4214, 119.445, -151.006, 124.538, 87.4776, 0, 0, 4.64911, -56.4954, 4.68762, -174.08, 4.59339, 64.4037, 0.244577, 62.7938
1, 1920.00000, 118.561, -33.4214, 119.445, -151.006, 124.538, 87.4776, 0, 0, 4.64911, -56.4954, 4.68762, -174.08, 4.59339, 64.4037, 0.244577, 62.7938
1, 1980.00000, 118.561, -33.4215, 119.445, -151.006, 124.538, 87.4776, 0, 0, 4.64911, -56.4954, 4.68762, -174.08, 4.59339, 64.4037, 0.244578, 62.7938
1, 2040.00000, 118.561, -33.4215, 119.445, -151.006, 124.538, 87.4776, 0, 0, 4.64911, -56.4954, 4.68762, -174.08, 4.59339, 64.4037, 0.244578, 62.7938
1, 2100.00000, 118.561, -33.4215, 119.445, -151.006, 124.538, 87.4776, 0, 0, 4.64911, -56.4954, 4.68762, -174.08, 4.59339, 64.4037, 0.244578, 62.7938
1, 2160.00000, 118.561, -33.4215, 119.445, -151.006, 124.538, 87.4776, 0, 0, 4.64911, -56.4954, 4.68762, -174.08, 4.59339, 64.4037, 0.244578, 62.7938
1, 2220.00000, 118.561, -33.4215, 119.445, -151.006, 124.538, 87.4776, 0, 0, 4.64911, -56.4954, 4.68762, -174.08, 4.59339, 64.4037, 0.244578, 62.7938
1, 2280.00000, 118.561, -33.4215, 119.445, -151.006, 124.538, 87.4776, 0, 0, 4.64911, -56.4954, 4.68762, -174.08, 4.59339, 64.4037, 0.244579, 62.7938
1, 2340.00000, 118.561, -33.4215, 119.445, -151.006, 124.538, 87.4776, 0, 0, 4.64911, -56.4954, 4.68762, -174.08, 4.59339, 64.4037, 0.244579, 62.7938
1, 2400.00000, 118.561, -33.4215, 119.445, -151.006, 124.538, 87.4776, 0, 0, 4.64911, -56.4954, 4.68762, -174.08, 4.59339, 64.4037, 0.244579, 62.7938
1, 2460.00000, 118.561, -33.4215, 119.445, -151.006, 124.538, 87.4776, 0, 0, 4.64911, -56.4954, 4.68762, -174.08, 4.59339, 64.4037, 0.244579, 62.7938
1, 2520.00000, 118.561, -33.4215, 119.445, -151.006, 124.538, 87.4776, 0, 0, 4.64911, -56.4954, 4.68762, -174.08, 4.59339, 64.4037, 0.244579, 62.7938
1, 2580.00000, 118.561, -33.4215, 119.445, -151.006, 124.538, 87.4776, 0, 0, 4.64911, -56.4954, 4.68762, -174.08, 4.59339, 64.4037, 0.244579, 62.7938
1, 2640.00000, 118.561, -33.4215, 119.445, -151.006, 124.538, 87.4776, 0, 0, 4.64911, -56.4954, 4.68762, -174.08, 4.59339, 64.4037, 0.244579, 62.7938
1, 2700.00000, 118.561, -33.4215, 119.445, -151.006, 124.538, 87.4776, 0, 0, 4.64911, -56.4954, 4.68762, -174.08, 4.59339, 64.4037, 0.244579, 62.7938
1, 2760.00000, 118.561, -33.4215, 119.445, -151.006, 124.538, 87.4776, 0, 0, 4.64911, -56.4954, 4.68762, -174.08, 4.59339, 64.4037, 0.244579, 62.7938
1, 2820.00000, 118.561, -33.4215, 119.445, -151.006, 124.538, 87.4776, 0, 0, 4.64911, -56.4954, 4.68762, -174.08, 4.59339, 64.4037, 0.244579, 62.7938
1, 2880.00000, 118.561, -33.4215, 119.445, -151.006, 124.538, 87.4776, 0, 0, 4.64911, -56.4954, 4.68762, -174.08, 4.59339, 64.4037, 0.244579, 62.7938
1, 2940.00000, 118.561, -33.4215, 119.445, -151.006, 124.538, 87.4776, 0, 0, 4.64911, -56.4954, 4.68762, -174.08, 4.59339, 64.4037, 0.244579, 62.7938
1, 3000.00000, 118.561, -33.4215, 119.445, -151.006, 124.538, 87.4776, 0, 0, 4.64911, -56.4954, 4.68762, -174.08, 4.59339, 64.4037, 0.244579, 62.7938
1, 3060.00000, 118.561, -33.4215, 119.445, -151.006, 124.538, 87.4776, 0, 0, 4.64911, -56.4954, 4.68762, -174.08, 4.59339, 64.4037, 0.244579, 62.7938
1, 3120.00000, 118.561, -33.4215, 119.445, -151.006, 124.538, 87.4776, 0, 0, 4.64911, -56.4954, 4.68762, -174.08, 4.59339, 64.4037, 0.24458, 62.7938
1, 3180.00000, 118.561, -33.4215, 119.445, -151.006, 124.538, 87.4776, 0, 0, 4.64911, -56.4954, 4.68762, -174.08, 4.59339, 64.4037, 0.24458, 62.7938
1, 3240.00000, 118.561, -33.4215, 119.445, -151.006, 124.538, 87.4776, 0, 0, 4.64911, -56.4954, 4.68762, -174.08, 4.59339, 64.4037, 0.24458, 62.7938
1, 3300.00000, 118.561, -33.4215, 119.445, -151.006, 124.538, 87.4776, 0, 0, 4.64911, -56.4954, 4.68762, -174.08, 4.59339, 64.4037, 0.24458, 62.7938
1, 3360.00000, 118.561, -33.4215, 119.445, -151.006, 124.538, 87.4776, 0, 0, 4.64911, -56.4954, 4.68762, -174.08, 4.59339, 64.4037, 0.24458, 62.7938
1, 3420.00000, 118.561, -33.4215, 119.445, -151.006, 124.538, 87.4776, 0, 0, 4.64911, -56.4954, 4.68762, -174.08, 4.59339, 64.4037, 0.24458, 62.7938
1, 3480.00000, 118.561, -33.4215, 119.445, -151.006, 124.538, 87.4776, 0, 0, 4.64911, -56.4954, 4.68762, -174.08, 4.59339, 64.4037, 0.24458, 62.7938
1, 3540.00000, 118.561, -33.4215, 119.445, -151.006, 124.538, 87.4776, 0, 0, 4.64911, -56.4954, 4.68762, -174.08, 4.59339, 64.4037, 0.24458, 62.7938
2, 0.00000, 118.561, -33.4215, 119.445, -151.006, 124.538, 87.4776, 0, 0, 4.64911, -56.4954, 4.68762, -174.08, 4.59339, 64.4037, 0.24458, 62.7938
2, 60.00000, 118.561, -33.4215, 119.445, -151.006, 124.538, 87.4776, 0, 0, 4.64911, -56.4954, 4.68762, -174.08, 4.59339, 64.4037, 0.24458, 62.7938
2, 120.00000, 118.561, -33.4215, 119.445, -151.006, 124.538, 87.4776, 0, 0, 4.64911, -56.4954, 4.68762, -174.08, 4.59339, 64.4037, 0.24458, 62.7938
2, 180.00000, 118.561, -33.4215, 119.445, -151.006, 124.538, 87.4776, 0, 0, 4.64911, -56.4954, 4.68762, -174.08, 4.59339, 64.4037, 0.24458, 62.7938
2, 240.00000, 118.561, -33.4215, 119.445, -151.006, 124.538, 87.4776, 0, 0, 4.64911, -56.4954, 4.68762, -174.08, 4.59339, 64.4037, 0.24458, 62.7938
2, 300.00000, 118.561, -33.4215, 119.445, -151.006, 124.538, 87.4776, 0, 0, 4.64911, -56.4954, 4.68762, -174.08, 4.59339, 64.4037, 0.24458, 62.7938
2, 360.00000, 118.561, -33.4215, 119.445, -151.006, 124.538, 87.4776, 0, 0, 4.64911, -56.4954, 4.68762, -174.08, 4.59339, 64.4037, 0.24458, 62.7938
2, 420.00000, 118.561, -33.4215, 119.445, -151.006, 124.538, 87.4776, 0, 0, 4.64911, -56.4954, 4.68762, -174.08, 4.59339, 64.4037, 0.24458, 62.7938
2, 480.00000, 118.561, -33.4215, 119.445, -151.006, 124.538, 87.4776, 0, 0, 4.64911, -56.4954, 4.68762, -174.08, 4.59339, 64.4037, 0.24458, 62.7938
2, 540.00000, 118.561, -33.4215, 119.445, -151.006, 124.538, 87.4776, 0, 0, 4.64911, -56.4954, 4.68762, -174.08, 4.59339, 64.4037, 0.24458, 62.7938
2, 600.00000, 118.561, -33.4215, 119.445, -151.006, 124.538, 87.4776, 0, 0, 4.64911, -56.4954, 4.68762, -174.08, 4.59339, 64.4037, 0.24458, 62.7938
2, 660.00000, 118.561, -33.4215, 119.445, -151.006, 124.538, 87.4776, 0, 0, 4.64911, -56.4954, 4.68762, -174.08, 4.59339, 64.4037, 0.24458, 62.7938
2, 720.00000, 118.561, -33.4215, 119.445, -151.006, 124.538, 87.4776, 0, 0, 4.64911, -56.4954, 4.68762, -174.08, 4.59339, 64.4037, 0.24458, 62.7938
2, 780.00000, 118.561, -33.4215, 119.445, -151.006, 124.538, 87.4776, 0, 0, 4.64911, -56.4954, 4.68762, -174.08, 4.59339, 64.4037, 0.24458, 62.7938
