hour,t(sec),V1,VAngle1,V2,VAngle2,V3,VAngle3,V4,VAngle4,I1,IAngle1,I2,IAngle2,I3,IAngle3,I4,IAngle4
0, 60.00000, 126.198, -31.9156, 125.659, -151.472, 126.852, 88.5412, 0, 0, 6.28023, -54.9893, 6.30721, -174.546, 6.24798, 65.4672, 0.100607, 36.1292
0, 120.00000, 126.205, -31.9215, 125.659, -151.472, 126.868, 88.5411, 0, 0, 6.27991, -54.9952, 6.30721, -174.546, 6.24719, 65.4671, 0.101937, 36.1715
0, 180.00000, 126.211, -31.9268, 125.659, -151.472, 126.882, 88.541, 0, 0, 6.27963, -55.0005, 6.30721, -174.546, 6.24648, 65.467, 0.103136, 36.2092
0, 240.00000, 126.216, -31.9316, 125.659, -151.472, 126.895, 88.541, 0, 0, 6.27938, -55.0053, 6.30721, -174.546, 6.24583, 65.467, 0.104222, 36.2425
0, 300.00000, 126.22, -31.9359, 125.659, -151.472, 126.907, 88.5409, 0, 0, 6.27915, -55.0097, 6.30721, -174.546, 6.24524, 65.467, 0.105203, 36.2722
0, 360.00000, 126.224, -31.9398, 125.659, -151.472, 126.918, 88.5409, 0, 0, 6.27894, -55.0136, 6.30721, -174.546, 6.24471, 65.4669, 0.106087, 36.2989
0, 420.00000, 126.228, -31.9433, 125.659, -151.472, 126.927, 88.5408, 0, 0, 6.27876, -55.0171, 6.30721, -174.546, 6.24424, 65.4669, 0.106883, 36.3228
0, 480.00000, 126.598, -31.8248, 126.023, -151.341, 127.337, 88.6752, 0, 0, 5.65664, -54.8986, 5.68246, -174.415, 5.62389, 65.6012, 0.0992975, 36.6915
0, 540.00000, 126.601, -31.8277, 126.023, -151.341, 127.345, 88.6751, 0, 0, 5.6565, -54.9015, 5.68246, -174.415, 5.62354, 65.6012, 0.0998838, 36.709
0, 600.00000, 126.604, -31.8303, 126.023, -151.341, 127.352, 88.6751, 0, 0, 5.65638, -54.9041, 5.68246, -174.415, 5.62323, 65.6011, 0.10041, 36.7247
0, 660.00000, 126.607, -31.8326, 126.023, -151.341, 127.358, 88.675, 0, 0, 5.65627, -54.9064, 5.68246, -174.415, 5.62295, 65.6011, 0.100883, 36.7389
0, 720.00000, 126.609, -31.8347, 126.023, -151.341, 127.364, 88.675, 0, 0, 5.65617, -54.9085, 5.68246, -174.415, 5.62269, 65.6011, 0.101309, 36.7516
0, 780.00000, 126.611, -31.8366, 126.023, -151.341, 127.369, 88.6749, 0, 0, 5.65608, -54.9104, 5.68246, -174.415, 5.62246, 65.601, 0.101693, 36.7631
0, 840.00000, 126.613, -31.8383, 126.023, -151.341, 127.373, 88.6749, 0, 0, 5.656, -54.9121, 5.68246, -174.415, 5.62226, 65.601, 0.102038, 36.7734
0, 900.00000, 126.614, -31.8398, 126.023, -151.341, 127.377, 88.6749, 0, 0, 5.65593, -54.9137, 5.68246, -174.415, 5.62207, 65.601, 0.102349, 36.7827
0, 960.00000, 126.616, -31.8412, 126.023, -151.341, 127.381, 88.6749, 0, 0, 5.65587, -54.915, 5.68246, -174.414, 5.62191, 65.6009, 0.102629, 36.7911
0, 1020.00000, 126.617, -31.8424, 126.023, -151.341, 127.385, 88.6748, 0, 0, 5.65581, -54.9163, 5.68246, -174.414, 5.62176, 65.6009, 0.10288, 36.7987
0, 1080.00000, 126.618, -31.8436, 126.023, -151.341, 127.388, 88.6748, 0, 0, 5.65576, -54.9174, 5.68246, -174.414, 5.62162, 65.6009, 0.103107, 36.8055
0, 1140.00000, 126.619, -31.8446, 126.023, -151.341, 127.39, 88.6748, 0, 0, 5.65571, -54.9184, 5.68246, -174.414, 5.6215, 65.6009, 0.103311, 36.8116
0, 1200.00000, 126.62, -31.8455, 126.023, -151.341, 127.393, 88.6748, 0, 0, 5.65567, -54.9193, 5.68246, -174.414, 5.62139, 65.6008, 0.103495, 36.8171
0, 1260.00000, 126.621, -31.8463, 126.023, -151.341, 127.395, 88.6747, 0, 0, 5.65563, -54.9202, 5.68246, -174.414, 5.62129, 65.6008, 0.10366, 36.822
0, 1320.00000, 126.622, -31.847, 126.023, -151.341, 127.397, 88.6747, 0, 0, 5.65559, -54.9209, 5.68246, -174.414, 5.6212, 65.6008, 0.103808, 36.8265
0, 1380.00000, 126.623, -31.8477, 126.023, -151.341, 127.399, 88.6747, 0, 0, 5.65556, -54.9216, 5.68246, -174.414, 5.62112, 65.6008, 0.103942, 36.8305
0, 1440.00000, 126.623, -31.8483, 126.023, -151.341, 127.4, 88.6747, 0, 0, 5.65554, -54.9221, 5.68246, -174.414, 5.62105, 65.6008, 0.104063, 36.8341
0, 1500.00000, 126.624, -31.8488, 126.023, -151.341, 127.402, 88.6747, 0, 0, 5.65551, -54.9227, 5.68246, -174.414, 5.62099, 65.6008, 0.104171, 36.8374
0, 1560.00000, 126.624, -31.8493, 126.023, -151.341, 127.403, 88.6747, 0, 0, 5.65549, -54.9232, 5.68246, -174.414, 5.62093, 65.6007, 0.104269, 36.8403
0, 1620.00000, 126.625, -31.8497, 126.023, -151.341, 127.404, 88.6746, 0, 0, 5.65547, -54.9236, 5.68246, -174.414, 5.62088, 65.6007, 0.104357, 36.843
0, 1680.00000, 126.625, -31.8501, 126.023, -151.34, 127.405, 88.6746, 0, 0, 5.65545, -54.924, 5.68246, -174.414, 5.62083, 65.6007, 0.104436, 36.8453
0, 1740.00000, 126.626, -31.8505, 126.023, -151.34, 127.406, 88.6746, 0, 0, 5.65543, -54.9244, 5.68246, -174.414, 5.62079, 65.6007, 0.104507, 36.8475
0, 1800.00000, 126.626, -31.8508, 126.023, -151.34, 127.407, 88.6746, 0, 0, 5.65542, -54.9247, 5.68246, -174.414, 5.62075, 65.6007, 0.104571, 36.8494
0, 1860.00000, 126.626, -31.851, 126.023, -151.34, 127.408, 88.6746, 0, 0, 5.65541, -54.925, 5.68246, -174.414, 5.62072, 65.6007, 0.104628, 36.8511
0, 1920.00000, 126.626, -31.8513, 126.023, -151.34, 127.409, 88.6746, 0, 0, 5.65539, -54.9252, 5.68246, -174.414, 5.62068, 65.6007, 0.10468, 36.8527
0, 1980.00000, 126.627, -31.8515, 126.023, -151.34, 127.409, 88.6746, 0, 0, 5.65538, -54.9254, 5.68246, -174.414, 5.62066, 65.6007, 0.104727, 36.8541
0, 2040.00000, 126.627, -31.8517, 126.023, -151.34, 127.41, 88.6746, 0, 0, 5.65537, -54.9257, 5.68246, -174.414, 5.62063, 65.6007, 0.104769, 36.8553
0, 2100.00000, 126.627, -31.8519, 126.023, -151.34, 127.41, 88.6746, 0, 0, 5.65536, -54.9258, 5.68246, -174.414, 5.62061, 65.6007, 0.104807, 36.8565
0, 2160.00000, 126.627, -31.8521, 126.023, -151.34, 127.411, 88.6746, 0, 0, 5.65536, -54.926, 5.68246, -174.414, 5.62059, 65.6007, 0.104841, 36.8575
0, 2220.00000, 126.627, -31.8522, 126.023, -151.34, 127.411, 88.6746, 0, 0, 5.65535, -54.9262, 5.68246, -174.414, 5.62057, 65.6007, 0.104871, 36.8584
0, 2280.00000, 126.628, -31.8524, 126.023, -151.34, 127.411, 88.6746, 0, 0, 5.65534, -54.9263, 5.68246, -174.414, 5.62055, 65.6007, 0.104899, 36.8592
0, 2340.00000, 126.628, -31.8525, 126.023, -151.34, 127.412, 88.6746, 0, 0, 5.65534, -54.9264, 5.68246, -174.414, 5.62054, 65.6007, 0.104924, 36.86
0, 2400.00000, 126.628, -31.8526, 126.023, -151.34, 127.412, 88.6746, 0, 0, 5.65533, -54.9265, 5.68246, -174.414, 5.62053, 65.6007, 0.104946, 36.8607
0, 2460.00000, 126.628, -31.8527, 126.023, -151.34, 127.412, 88.6746, 0, 0, 5.65533, -54.9266, 5.68246, -174.414, 5.62051, 65.6007, 0.104966, 36.8613
0, 2520.00000, 126.628, -31.8528, 126.023, -151.34, 127.413, 88.6746, 0, 0, 5.65532, -54.9267, 5.68246, -174.414, 5.6205, 65.6007, 0.104984, 36.8618
0, 2580.00000, 126.628, -31.8529, 126.023, -151.34, 127.413, 88.6746, 0, 0, 5.65532, -54.9268, 5.68246, -174.414, 5.62049, 65.6006, 0.105, 36.8623
0, 2640.00000, 126.628, -31.853, 126.023, -151.34, 127.413, 88.6746, 0, 0, 5.65532, -54.9269, 5.68246, -174.414, 5.62049, 65.6006, 0.105015, 36.8627
0, 2700.00000, 126.628, -31.853, 126.023, -151.34, 127.413, 88.6746, 0, 0, 5.65531, -54.9269, 5.68246, -174.414, 5.62048, 65.6006, 0.105028, 36.8631
0, 2760.00000, 126.628, -31.8531, 126.023, -151.34, 127.413, 88.6746, 0, 0, 5.65531, -54.927, 5.68246, -174.414, 5.62047, 65.6006, 0.10504, 36.8635
0, 2820.00000, 126.628, -31.8531, 126.023, -151.34, 127.413, 88.6746, 0, 0, 5.65531, -54.927, 5.68246, -174.414, 5.62046, 65.6006, 0.105051, 36.8638
0, 2880.00000, 126.628, -31.8532, 126.023, -151.34, 127.414, 88.6746, 0, 0, 5.65531, -54.9271, 5.68246, -174.414, 5.62046, 65.6006, 0.10506, 36.8641
0, 2940.00000, 126.628, -31.8532, 126.023, -151.34, 127.414, 88.6746, 0, 0, 5.6553, -54.9271, 5.68246, -174.414, 5.62045, 65.6006, 0.105069, 36.8643
0, 3000.00000, 126.629, -31.8533, 126.023, -151.34, 127.414, 88.6746, 0, 0, 5.6553, -54.9272, 5.68246, -174.414, 5.62045, 65.6006, 0.105077, 36.8646
0, 3060.00000, 126.629, -31.8533, 126.023, -151.34, 127.414, 88.6746, 0, 0, 5.6553, -54.9272, 5.68246, -174.414, 5.62044, 65.6006, 0.105084, 36.8648
0, 3120.00000, 126.629, -31.8533, 126.023, -151.34, 127.414, 88.6746, 0, 0, 5.6553, -54.9272, 5.68246, -174.414, 5.62044, 65.6006, 0.10509, 36.865
0, 3180.00000, 126.629, -31.8534, 126.023, -151.34, 127.414, 88.6746, 0, 0, 5.6553, -54.9273, 5.68246, -174.414, 5.62044, 65.6006, 0.105096, 36.8652
0, 3240.00000, 126.629, -31.8534, 126.023, -151.34, 127.414, 88.6746, 0, 0, 5.6553, -54.9273, 5.68246, -174.414, 5.62043, 65.6006, 0.105101, 36.8653
0, 3300.00000, 126.629, -31.8534, 126.023, -151.34, 127.414, 88.6746, 0, 0, 5.6553, -54.9273, 5.68246, -174.414, 5.62043, 65.6006, 0.105106, 36.8654
0, 3360.00000, 126.629, -31.8534, 126.023, -151.34, 127.414, 88.6746, 0, 0, 5.65529, -54.9273, 5.68246, -174.414, 5.62043, 65.6006, 0.10511, 36.8656
0, 3420.00000, 126.629, -31.8534, 126.023, -151.34, 127.414, 88.6746, 0, 0, 5.65529, -54.9274, 5.68246, -174.414, 5.62043, 65.6006, 0.105113, 36.8657
0, 3480.00000, 126.629, -31.8535, 126.023, -151.34, 127.414, 88.6746, 0, 0, 5.65529, -54.9274, 5.68246, -174.414, 5.62042, 65.6006, 0.105117, 36.8658
0, 3540.00000, 126.629, -31.8535, 126.023, -151.34, 127.414, 88.6746, 0, 0, 5.65529, -54.9274, 5.68246, -174.414, 5.62042, 65.6006, 0.10512, 36.8659
1, 0.00000, 126.629, -31.8535, 126.023, -151.34, 127.414, 88.6746, 0, 0, 5.65529, -54.9274, 5.68246, -174.414, 5.62042, 65.6006, 0.105123, 36.866
1, 60.00000, 126.629, -31.8535, 126.023, -151.34, 127.414, 88.6746, 0, 0, 5.65529, -54.9274, 5.68246, -174.414, 5.62042, 65.6006, 0.105125, 36.866
1, 120.00000, 126.629, -31.8535, 126.023, -151.34, 127.414, 88.6746, 0, 0, 5.65529, -54.9274, 5.68246, -174.414, 5.62042, 65.6006, 0.105127, 36.8661
1, 180.00000, 126.629, -31.8535, 126.023, -151.34, 127.414, 88.6746, 0, 0, 5.65529, -54.9274, 5.68246, -174.414, 5.62042, 65.6006, 0.105129, 36.8662
1, 240.00000, 126.629, -31.8535, 126.023, -151.34, 127.415, 88.6746, 0, 0, 5.65529, -54.9274, 5.68246, -174.414, 5.62042, 65.6006, 0.105131, 36.8662
1, 300.00000, 126.629, -31.8535, 126.023, -151.34, 127.415, 88.6746, 0, 0, 5.65529, -54.9275, 5.68246, -174.414, 5.62042, 65.6006, 0.105133, 36.8663
1, 360.00000, 126.629, -31.8535, 126.023, -151.34, 127.415, 88.6746, 0, 0, 5.65529, -54.9275, 5.68246, -174.414, 5.62041, 65.6006, 0.105134, 36.8663
1, 420.00000, 126.629, -31.8535, 126.023, -151.34, 127.415, 88.6746, 0, 0, 5.65529, -54.9275, 5.68246, -174.414, 5.62041, 65.6006, 0.105135, 36.8663
1, 480.00000, 126.629, -31.8536, 126.023, -151.34, 127.415, 88.6746, 0, 0, 5.65529, -54.9275, 5.68246, -174.414, 5.62041, 65.6006, 0.105136, 36.8664
1, 540.00000, 126.629, -31.8536, 126.023, -151.34, 127.415, 88.6746, 0, 0, 5.65529, -54.9275, 5.68246, -174.414, 5.62041, 65.6006, 0.105138, 36.8664
1, 600.00000, 126.629, -31.8536, 126.023, -151.34, 127.415, 88.6746, 0, 0, 5.65529, -54.9275, 5.68246, -174.414, 5.62041, 65.6006, 0.105138, 36.8664
1, 660.00000, 126.629, -31.8536, 126.023, -151.34, 127.415, 88.6746, 0, 0, 5.65529, -54.9275, 5.68246, -174.414, 5.62041, 65.6006, 0.105139, 36.8665
1, 720.00000, 126.629, -31.8536, 126.023, -151.34, 127.415, 88.6746, 0, 0, 5.65529, -54.9275, 5.68246, -174.414, 5.62041, 65.6006, 0.10514, 36.8665
1, 780.00000, 126.629, -31.8536, 126.023, -151.34, 127.415, 88.6746, 0, 0, 5.65529, -54.9275, 5.68246, -174.414, 5.62041, 65.6006, 0.105141, 36.8665
1, 840.00000, 126.629, -31.8536, 126.023, -151.34, 127.415, 88.6746, 0, 0, 5.65529, -54.9275, 5.68246, -174.414, 5.62041, 65.6006, 0.105141, 36.8665
1, 900.00000, 126.629, -31.8536, 126.023, -151.34, 127.415, 88.6746, 0, 0, 5.65529, -54.9275, 5.68246, -174.414, 5.62041, 65.6006, 0.105142, 36.8665
1, 960.00000, 126.629, -31.8536, 126.023, -151.34, 127.415, 88.6746, 0, 0, 5.65529, -54.9275, 5.68246, -174.414, 5.62041, 65.6006, 0.105142, 36.8666
1, 1020.00000, 126.629, -31.8536, 126.023, -151.34, 127.415, 88.6746, 0, 0, 5.65529, -54.9275, 5.68246, -174.414, 5.62041, 65.6006, 0.105143, 36.8666
1, 1080.00000, 126.629, -31.8536, 126.023, -151.34, 127.415, 88.6746, 0, 0, 5.65529, -54.9275, 5.68246, -174.414, 5.62041, 65.6006, 0.105143, 36.8666
1, 1140.00000, 126.629, -31.8536, 126.023, -151.34, 127.415, 88.6746, 0, 0, 5.65529, -54.9275, 5.68246, -174.414, 5.62041, 65.6006, 0.105144, 36.8666
1, 1200.00000, 126.629, -31.8536, 126.023, -151.34, 127.415, 88.6746, 0, 0, 5.65529, -54.9275, 5.68246, -174.414, 5.62041, 65.6006, 0.105144, 36.8666
1, 1260.00000, 126.629, -31.8536, 126.023, -151.34, 127.415, 88.6746, 0, 0, 5.65529, -54.9275, 5.68246, -174.414, 5.62041, 65.6006, 0.105144, 36.8666
1, 1320.00000, 126.629, -31.8536, 126.023, -151.34, 127.415, 88.6746, 0, 0, 5.65529, -54.9275, 5.68246, -174.414, 5.62041, 65.6006, 0.105145, 36.8666
1, 1380.00000, 126.629, -31.8536, 126.023, -151.34, 127.415, 88.6746, 0, 0, 5.65529, -54.9275, 5.68246, -174.414, 5.62041, 65.6006, 0.105145, 36.8666
1, 1440.00000, 126.629, -31.8536, 126.023, -151.34, 127.415, 88.6746, 0, 0, 5.65529, -54.9275, 5.68246, -174.414, 5.62041, 65.6006, 0.105145, 36.8666
1, 1500.00000, 126.629, -31.8536, 126.023, -151.34, 127.415, 88.6746, 0, 0, 5.65529, -54.9275, 5.68246, -174.414, 5.62041, 65.6006, 0.105145, 36.8666
1, 1560.00000, 126.629, -31.8536, 126.023, -151.34, 127.415, 88.6746, 0, 0, 5.65529, -54.9275, 5.68246, -174.414, 5.62041, 65.6006, 0.105145, 36.8666
1, 1620.00000, 126.629, -31.8536, 126.023, -151.34, 127.415, 88.6746, 0, 0, 5.65529, -54.9275, 5.68246, -174.414, 5.62041, 65.6006, 0.105146, 36.8666
1, 1680.00000, 126.629, -31.8536, 126.023, -151.34, 127.415, 88.6746, 0, 0, 5.65529, -54.9275, 5.68246, -174.414, 5.62041, 65.6006, 0.105146, 36.8666
1, 1740.00000, 126.629, -31.8536, 126.023, -151.34, 127.415, 88.6746, 0, 0, 5.65529, -54.9275, 5.68246, -174.414, 5.62041, 65.6006, 0.105146, 36.8667
1, 1800.00000, 126.629, -31.8536, 126.023, -151.34, 127.415, 88.6746, 0, 0, 5.65529, -54.9275, 5.68246, -174.414, 5.62041, 65.6006, 0.105146, 36.8667
1, 1860.00000, 126.629, -31.8536, 126.023, -151.34, 127.415, 88.6746, 0, 0, 5.65529, -54.9275, 5.68246, -174.414, 5.62041, 65.6006, 0.105146, 36.8667
1, 1920.00000, 126.629, -31.8536, 126.023, -151.34, 127.415, 88.6746, 0, 0, 5.65529, -54.9275, 5.68246, -174.414, 5.62041, 65.6006, 0.105146, 36.8667
1, 1980.00000, 126.629, -31.8536, 126.023, -151.34, 127.415, 88.6746, 0, 0, 5.65529, -54.9275, 5.68246, -174.414, 5.62041, 65.6006, 0.105146, 36.8667
1, 2040.00000, 126.629, -31.8536, 126.023, -151.34, 127.415, 88.6746, 0, 0, 5.65529, -54.9275, 5.68246, -174.414, 5.62041, 65.6006, 0.105146, 36.8667
1, 2100.00000, 126.629, -31.8536, 126.023, -151.34, 127.415, 88.6746, 0, 0, 5.65529, -54.9275, 5.68246, -174.414, 5.62041, 65.6006, 0.105146, 36.8667
1, 2160.00000, 126.629, -31.8536, 126.023, -151.34, 127.415, 88.6746, 0, 0, 5.65529, -54.9275, 5.68246, -174.414, 5.62041, 65.6006, 0.105146, 36.8667
1, 2220.00000, 126.629, -31.8536, 126.023, -151.34, 127.415, 88.6746, 0, 0, 5.65529, -54.9275, 5.68246, -174.414, 5.62041, 65.6006, 0.105146, 36.8667
1, 2280.00000, 126.629, -31.8536, 126.023, -151.34, 127.415, 88.6746, 0, 0, 5.65529, -54.9275, 5.68246, -174.414, 5.62041, 65.6006, 0.105147, 36.8667
1, 2340.00000, 126.629, -31.8536, 126.023, -151.34, 127.415, 88.6746, 0, 0, 5.65529, -54.9275, 5.68246, -174.414, 5.62041, 65.6006, 0.105147, 36.8667
1, 2400.00000, 126.629, -31.8536, 126.023, -151.34, 127.415, 88.6746, 0, 0, 5.65529, -54.9275, 5.68246, -174.414, 5.62041, 65.6006, 0.105147, 36.8667
1, 2460.00000, 126.629, -31.8536, 126.023, -151.34, 127.415, 88.6746, 0, 0, 5.65529, -54.9275, 5.68246, -174.414, 5.62041, 65.6006, 0.105147, 36.8667
1, 2520.00000, 126.629, -31.8536, 126.023, -151.34, 127.415, 88.6746, 0, 0, 5.65529, -54.9275, 5.68246, -174.414, 5.62041, 65.6006, 0.105147, 36.8667
1, 2580.00000, 126.629, -31.8536, 126.023, -151.34, 127.415, 88.6746, 0, 0, 5.65529, -54.9275, 5.68246, -174.414, 5.62041, 65.6006, 0.105147, 36.8667
1, 2640.00000, 126.629, -31.8536, 126.023, -151.34, 127.415, 88.6746, 0, 0, 5.65529, -54.9275, 5.68246, -174.414, 5.62041, 65.6006, 0.105147, 36.8667
1, 2700.00000, 126.629, -31.8536, 126.023, -151.34, 127.415, 88.6746, 0, 0, 5.65529, -54.9275, 5.68246, -174.414, 5.62041, 65.6006, 0.105147, 36.8667
1, 2760.00000, 126.629, -31.8536, 126.023, -151.34, 127.415, 88.6746, 0, 0, 5.65529, -54.9275, 5.68246, -174.414, 5.62041, 65.6006, 0.105147, 36.8667
1, 2820.00000, 126.629, -31.8536, 126.023, -151.34, 127.415, 88.6746, 0, 0, 5.65529, -54.9275, 5.68246, -174.414, 5.62041, 65.6006, 0.105147, 36.8667
1, 2880.00000, 126.629, -31.8536, 126.023, -151.34, 127.415, 88.6746, 0, 0, 5.65529, -54.9275, 5.68246, -174.414, 5.62041, 65.6006, 0.105147, 36.8667
1, 2940.00000, 126.629, -31.8536, 126.023, -151.34, 127.415, 88.6746, 0, 0, 5.65529, -54.9275, 5.68246, -174.414, 5.62041, 65.6006, 0.105147, 36.8667
1, 3000.00000, 126.629, -31.8536, 126.023, -151.34, 127.415, 88.6746, 0, 0, 5.65529, -54.9275, 5.68246, -174.414, 5.62041, 65.6006, 0.105147, 36.8667
1, 3060.00000, 126.629, -31.8536, 126.023, -151.34, 127.415, 88.6746, 0, 0, 5.65529, -54.9275, 5.68246, -174.414, 5.62041, 65.6006, 0.105147, 36.8667
1, 3120.00000, 126.629, -31.8536, 126.023, -151.34, 127.415, 88.6746, 0, 0, 5.65529, -54.9275, 5.68246, -174.414, 5.62041, 65.6006, 0.105147, 36.8667
1, 3180.00000, 126.629, -31.8536, 126.023, -151.34, 127.415, 88.6746, 0, 0, 5.65529, -54.9275, 5.68246, -174.414, 5.62041, 65.6006, 0.105147, 36.8667
1, 3240.00000, 126.629, -31.8536, 126.023, -151.34, 127.415, 88.6746, 0, 0, 5.65529, -54.9275, 5.68246, -174.414, 5.62041, 65.6006, 0.105147, 36.8667
1, 3300.00000, 126.629, -31.8536, 126.023, -151.34, 127.415, 88.6746, 0, 0, 5.65529, -54.9275, 5.68246, -174.414, 5.62041, 65.6006, 0.105147, 36.8667
1, 3360.00000, 126.629, -31.8536, 126.023, -151.34, 127.415, 88.6746, 0, 0, 5.65529, -54.9275, 5.68246, -174.414, 5.62041, 65.6006, 0.105147, 36.8667
1, 3420.00000, 126.629, -31.8536, 126.023, -151.34, 127.415, 88.6746, 0, 0, 5.65529, -54.9275, 5.68246, -174.414, 5.62041, 65.6006, 0.105147, 36.8667
1, 3480.00000, 126.629, -31.8536, 126.023, -151.34, 127.415, 88.6746, 0, 0, 5.65529, -54.9275, 5.68246, -174.414, 5.62041, 65.6006, 0.105147, 36.8667
1, 3540.00000, 126.629, -31.8536, 126.023, -151.34, 127.415, 88.6746, 0, 0, 5.65529, -54.9275, 5.68246, -174.414, 5.62041, 65.6006, 0.105147, 36.8667
2, 0.00000, 126.629, -31.8536, 126.023, -151.34, 127.415, 88.6746, 0, 0, 5.65529, -54.9275, 5.68246, -174.414, 5.62041, 65.6006, 0.105147, 36.8667
2, 60.00000, 126.629, -31.8536, 126.023, -151.34, 127.415, 88.6746, 0, 0, 5.65529, -54.9275, 5.68246, -174.414, 5.62041, 65.6006, 0.105147, 36.8667
2, 120.00000, 126.629, -31.8536, 126.023, -151.34, 127.415, 88.6746, 0, 0, 5.65529, -54.9275, 5.68246, -174.414, 5.62041, 65.6006, 0.105147, 36.8667
2, 180.00000, 126.629, -31.8536, 126.023, -151.34, 127.415, 88.6746, 0, 0, 5.65529, -54.9275, 5.68246, -174.414, 5.62041, 65.6006, 0.105147, 36.8667
2, 240.00000, 126.629, -31.8536, 126.023, -151.34, 127.415, 88.6746, 0, 0, 5.65529, -54.9275, 5.68246, -174.414, 5.62041, 65.6006, 0.105147, 36.8667
2, 300.00000, 126.629, -31.8536, 126.023, -151.34, 127.415, 88.6746, 0, 0, 5.65529, -54.9275, 5.68246, -174.414, 5.62041, 65.6006, 0.105147, 36.8667
2, 360.00000, 126.629, -31.8536, 126.023, -151.34, 127.415, 88.6746, 0, 0, 5.65529, -54.9275, 5.68246, -174.414, 5.62041, 65.6006, 0.105147, 36.8667
2, 420.00000, 126.629, -31.8536, 126.023, -151.34, 127.415, 88.6746, 0, 0, 5.65529, -54.9275, 5.68246, -174.414, 5.62041, 65.6006, 0.105147, 36.8667
2, 480.00000, 126.629, -31.8536, 126.023, -151.34, 127.415, 88.6746, 0, 0, 5.65529, -54.9275, 5.68246, -174.414, 5.62041, 65.6006, 0.105147, 36.8667
2, 540.00000, 126.629, -31.8536, 126.023, -151.34, 127.415, 88.6746, 0, 0, 5.65529, -54.9275, 5.68246, -174.414, 5.62041, 65.6006, 0.105147, 36.8667
2, 600.00000, 126.629, -31.8536, 126.023, -151.34, 127.415, 88.6746, 0, 0, 5.65529, -54.9275, 5.68246, -174.414, 5.62041, 65.6006, 0.105147, 36.8667
2, 660.00000, 126.629, -31.8536, 126.023, -151.34, 127.415, 88.6746, 0, 0, 5.65529, -54.9275, 5.68246, -174.414, 5.62041, 65.6006, 0.105147, 36.8667
2, 720.00000, 126.629, -31.8536, 126.023, -151.34, 127.415, 88.6746, 0, 0, 5.65529, -54.9275, 5.68246, -174.414, 5.62041, 65.6006, 0.105147, 36.8667
2, 780.00000, 126.629, -31.8536, 126.023, -151.34, 127.415, 88.6746, 0, 0, 5.65529, -54.9275, 5.68246, -174.414, 5.62041, 65.6006, 0.105147, 36.8667
