hour,t(sec),V1,VAngle1,V2,VAngle2,V3,VAngle3,V4,VAngle4,I1,IAngle1,I2,IAngle2,I3,IAngle3,I4,IAngle4
0, 60.00000, 121.556, -32.1349, 121.417, -151.207, 124.044, 88.4132, 0, 0, 7.51573, -55.2088, 7.52435, -174.281, 7.36528, 65.3392, 0.260653, 61.2463
0, 120.00000, 121.563, -32.1418, 121.417, -151.207, 124.063, 88.4125, 0, 0, 7.51535, -55.2156, 7.52438, -174.281, 7.36407, 65.3385, 0.262481, 61.1137
0, 180.00000, 121.568, -32.1479, 121.416, -151.207, 124.081, 88.4118, 0, 0, 7.515, -55.2218, 7.52441, -174.281, 7.36299, 65.3378, 0.264122, 60.9966
0, 240.00000, 121.573, -32.1535, 121.416, -151.207, 124.097, 88.4112, 0, 0, 7.51468, -55.2273, 7.52443, -174.281, 7.36201, 65.3372, 0.265601, 60.8928
0, 300.00000, 121.578, -32.1585, 121.415, -151.208, 124.112, 88.4106, 0, 0, 7.5144, -55.2323, 7.52446, -174.281, 7.36114, 65.3367, 0.266934, 60.8007
0, 360.00000, 121.582, -32.1629, 121.415, -151.208, 124.125, 88.4101, 0, 0, 7.51415, -55.2368, 7.52448, -174.281, 7.36035, 65.3362, 0.268134, 60.7186
0, 420.00000, 121.586, -32.167, 121.415, -151.208, 124.137, 88.4096, 0, 0, 7.51392, -55.2409, 7.5245, -174.282, 7.35964, 65.3357, 0.269216, 60.6454
0, 480.00000, 122.396, -32.069, 122.165, -151.098, 124.928, 88.5385, 0, 0, 6.49388, -55.1428, 6.50613, -174.172, 6.36233, 65.4646, 0.234054, 59.4265
0, 540.00000, 122.399, -32.0723, 122.165, -151.099, 124.938, 88.5381, 0, 0, 6.49372, -55.1462, 6.50614, -174.172, 6.36183, 65.4642, 0.23482, 59.3725
0, 600.00000, 122.402, -32.0753, 122.165, -151.099, 124.946, 88.5377, 0, 0, 6.49357, -55.1492, 6.50615, -174.172, 6.36139, 65.4638, 0.235506, 59.3245
0, 660.00000, 122.404, -32.078, 122.165, -151.099, 124.954, 88.5374, 0, 0, 6.49344, -55.1519, 6.50616, -174.173, 6.36099, 65.4635, 0.236124, 59.2816
0, 720.00000, 122.406, -32.0805, 122.165, -151.099, 124.961, 88.5371, 0, 0, 6.49333, -55.1543, 6.50617, -174.173, 6.36063, 65.4632, 0.23668, 59.2433
0, 780.00000, 122.408, -32.0827, 122.164, -151.099, 124.967, 88.5368, 0, 0, 6.49322, -55.1565, 6.50618, -174.173, 6.36031, 65.4629, 0.237181, 59.209
0, 840.00000, 122.41, -32.0846, 122.164, -151.099, 124.973, 88.5365, 0, 0, 6.49313, -55.1585, 6.50619, -174.173, 6.36002, 65.4626, 0.237632, 59.1782
0, 900.00000, 122.412, -32.0864, 122.164, -151.099, 124.978, 88.5363, 0, 0, 6.49304, -55.1603, 6.50619, -174.173, 6.35976, 65.4624, 0.238038, 59.1507
0, 960.00000, 122.413, -32.088, 122.164, -151.099, 124.982, 88.5361, 0, 0, 6.49297, -55.1619, 6.5062, -174.173, 6.35953, 65.4622, 0.238403, 59.1261
0, 1020.00000, 122.414, -32.0894, 122.164, -151.099, 124.986, 88.5359, 0, 0, 6.4929, -55.1633, 6.5062, -174.173, 6.35931, 65.462, 0.238733, 59.104
0, 1080.00000, 122.415, -32.0907, 122.164, -151.099, 124.99, 88.5358, 0, 0, 6.49283, -55.1646, 6.50621, -174.173, 6.35912, 65.4619, 0.239029, 59.0841
0, 1140.00000, 122.417, -32.0919, 122.164, -151.099, 124.993, 88.5356, 0, 0, 6.49278, -55.1658, 6.50621, -174.173, 6.35895, 65.4617, 0.239295, 59.0663
0, 1200.00000, 122.417, -32.093, 122.164, -151.099, 124.996, 88.5355, 0, 0, 6.49273, -55.1669, 6.50621, -174.173, 6.3588, 65.4616, 0.239535, 59.0504
0, 1260.00000, 122.418, -32.0939, 122.164, -151.099, 124.999, 88.5354, 0, 0, 6.49268, -55.1678, 6.50622, -174.173, 6.35866, 65.4614, 0.239751, 59.0361
0, 1320.00000, 122.419, -32.0948, 122.164, -151.099, 125.001, 88.5352, 0, 0, 6.49264, -55.1687, 6.50622, -174.173, 6.35854, 65.4613, 0.239946, 59.0232
0, 1380.00000, 122.42, -32.0955, 122.164, -151.099, 125.004, 88.5351, 0, 0, 6.49261, -55.1694, 6.50622, -174.173, 6.35842, 65.4612, 0.240121, 59.0116
0, 1440.00000, 122.42, -32.0962, 122.164, -151.099, 125.006, 88.5351, 0, 0, 6.49258, -55.1701, 6.50622, -174.173, 6.35832, 65.4612, 0.240279, 59.0012
0, 1500.00000, 122.421, -32.0968, 122.164, -151.099, 125.007, 88.535, 0, 0, 6.49255, -55.1707, 6.50623, -174.173, 6.35823, 65.4611, 0.24042, 58.9919
0, 1560.00000, 122.421, -32.0974, 122.164, -151.099, 125.009, 88.5349, 0, 0, 6.49252, -55.1713, 6.50623, -174.173, 6.35815, 65.461, 0.240548, 58.9835
0, 1620.00000, 122.422, -32.0979, 122.163, -151.099, 125.01, 88.5348, 0, 0, 6.4925, -55.1718, 6.50623, -174.173, 6.35808, 65.4609, 0.240663, 58.976
0, 1680.00000, 122.422, -32.0983, 122.163, -151.099, 125.012, 88.5348, 0, 0, 6.49247, -55.1723, 6.50623, -174.173, 6.35801, 65.4609, 0.240766, 58.9692
0, 1740.00000, 122.423, -32.0988, 122.163, -151.099, 125.013, 88.5347, 0, 0, 6.49246, -55.1727, 6.50623, -174.173, 6.35795, 65.4608, 0.240859, 58.9631
0, 1800.00000, 122.423, -32.0991, 122.163, -151.099, 125.014, 88.5347, 0, 0, 6.49244, -55.173, 6.50623, -174.173, 6.3579, 65.4608, 0.240943, 58.9576
0, 1860.00000, 122.423, -32.0994, 122.163, -151.099, 125.015, 88.5346, 0, 0, 6.49242, -55.1734, 6.50624, -174.173, 6.35785, 65.4607, 0.241019, 58.9527
0, 1920.00000, 122.424, -32.0997, 122.163, -151.099, 125.016, 88.5346, 0, 0, 6.49241, -55.1737, 6.50624, -174.173, 6.3578, 65.4607, 0.241086, 58.9483
0, 1980.00000, 122.424, -32.1, 122.163, -151.099, 125.016, 88.5346, 0, 0, 6.4924, -55.1739, 6.50624, -174.173, 6.35777, 65.4607, 0.241148, 58.9443
0, 2040.00000, 122.424, -32.1003, 122.163, -151.099, 125.017, 88.5345, 0, 0, 6.49238, -55.1742, 6.50624, -174.173, 6.35773, 65.4606, 0.241203, 58.9407
0, 2100.00000, 122.424, -32.1005, 122.163, -151.099, 125.018, 88.5345, 0, 0, 6.49237, -55.1744, 6.50624, -174.173, 6.3577, 65.4606, 0.241252, 58.9375
0, 2160.00000, 122.424, -32.1007, 122.163, -151.099, 125.018, 88.5345, 0, 0, 6.49236, -55.1746, 6.50624, -174.173, 6.35767, 65.4606, 0.241297, 58.9346
0, 2220.00000, 122.425, -32.1008, 122.163, -151.099, 125.019, 88.5345, 0, 0, 6.49236, -55.1748, 6.50624, -174.173, 6.35764, 65.4605, 0.241337, 58.932
0, 2280.00000, 122.425, -32.101, 122.163, -151.099, 125.019, 88.5344, 0, 0, 6.49235, -55.1749, 6.50624, -174.173, 6.35762, 65.4605, 0.241373, 58.9297
0, 2340.00000, 122.425, -32.1011, 122.163, -151.099, 125.02, 88.5344, 0, 0, 6.49234, -55.1751, 6.50624, -174.173, 6.3576, 65.4605, 0.241405, 58.9275
0, 2400.00000, 122.425, -32.1013, 122.163, -151.099, 125.02, 88.5344, 0, 0, 6.49234, -55.1752, 6.50624, -174.173, 6.35758, 65.4605, 0.241434, 58.9256
0, 2460.00000, 122.425, -32.1014, 122.163, -151.099, 125.02, 88.5344, 0, 0, 6.49233, -55.1753, 6.50624, -174.173, 6.35756, 65.4605, 0.241461, 58.9239
0, 2520.00000, 122.425, -32.1015, 122.163, -151.099, 125.021, 88.5344, 0, 0, 6.49233, -55.1754, 6.50624, -174.173, 6.35755, 65.4605, 0.241484, 58.9224
0, 2580.00000, 122.425, -32.1016, 122.163, -151.099, 125.021, 88.5344, 0, 0, 6.49232, -55.1755, 6.50624, -174.173, 6.35754, 65.4605, 0.241506, 58.921
0, 2640.00000, 122.425, -32.1017, 122.163, -151.099, 125.021, 88.5344, 0, 0, 6.49232, -55.1756, 6.50624, -174.173, 6.35752, 65.4604, 0.241525, 58.9198
0, 2700.00000, 122.425, -32.1017, 122.163, -151.099, 125.021, 88.5343, 0, 0, 6.49231, -55.1757, 6.50624, -174.173, 6.35751, 65.4604, 0.241542, 58.9187
0, 2760.00000, 122.425, -32.1018, 122.163, -151.099, 125.021, 88.5343, 0, 0, 6.49231, -55.1757, 6.50624, -174.173, 6.3575, 65.4604, 0.241558, 58.9177
0, 2820.00000, 122.425, -32.1019, 122.163, -151.099, 125.022, 88.5343, 0, 0, 6.49231, -55.1758, 6.50624, -174.173, 6.35749, 65.4604, 0.241572, 58.9167
0, 2880.00000, 122.426, -32.1019, 122.163, -151.099, 125.022, 88.5343, 0, 0, 6.4923, -55.1758, 6.50624, -174.173, 6.35749, 65.4604, 0.241584, 58.9159
0, 2940.00000, 122.426, -32.102, 122.163, -151.099, 125.022, 88.5343, 0, 0, 6.4923, -55.1759, 6.50624, -174.173, 6.35748, 65.4604, 0.241596, 58.9152
0, 3000.00000, 122.426, -32.102, 122.163, -151.099, 125.022, 88.5343, 0, 0, 6.4923, -55.1759, 6.50624, -174.173, 6.35747, 65.4604, 0.241606, 58.9145
0, 3060.00000, 122.426, -32.1021, 122.163, -151.099, 125.022, 88.5343, 0, 0, 6.4923, -55.176, 6.50624, -174.173, 6.35747, 65.4604, 0.241615, 58.9139
0, 3120.00000, 122.426, -32.1021, 122.163, -151.099, 125.022, 88.5343, 0, 0, 6.4923, -55.176, 6.50624, -174.173, 6.35746, 65.4604, 0.241623, 58.9134
0, 3180.00000, 122.426, -32.1021, 122.163, -151.099, 125.022, 88.5343, 0, 0, 6.4923, -55.176, 6.50624, -174.173, 6.35746, 65.4604, 0.241631, 58.9129
0, 3240.00000, 122.426, -32.1022, 122.163, -151.099, 125.022, 88.5343, 0, 0, 6.49229, -55.1761, 6.50625, -174.173, 6.35745, 65.4604, 0.241637, 58.9125
0, 3300.00000, 122.426, -32.1022, 122.163, -151.099, 125.022, 88.5343, 0, 0, 6.49229, -55.1761, 6.50625, -174.173, 6.35745, 65.4604, 0.241643, 58.9121
0, 3360.00000, 122.426, -32.1022, 122.163, -151.099, 125.023, 88.5343, 0, 0, 6.49229, -55.1761, 6.50625, -174.173, 6.35744, 65.4604, 0.241649, 58.9117
0, 3420.00000, 122.426, -32.1022, 122.163, -151.099, 125.023, 88.5343, 0, 0, 6.49229, -55.1761, 6.50625, -174.173, 6.35744, 65.4604, 0.241654, 58.9114
0, 3480.00000, 122.426, -32.1022, 122.163, -151.099, 125.023, 88.5343, 0, 0, 6.49229, -55.1762, 6.50625, -174.173, 6.35744, 65.4604, 0.241658, 58.9111
0, 3540.00000, 122.426, -32.1023, 122.163, -151.099, 125.023, 88.5343, 0, 0, 6.49229, -55.1762, 6.50625, -174.173, 6.35744, 65.4604, 0.241662, 58.9109
1, 0.00000, 122.426, -32.1023, 122.163, -151.099, 125.023, 88.5343, 0, 0, 6.49229, -55.1762, 6.50625, -174.173, 6.35743, 65.4604, 0.241665, 58.9107
1, 60.00000, 122.676, -31.9327, 122.629, -151.105, 124.993, 88.5392, 0, 0, 6.47904, -55.0067, 6.48155, -174.178, 6.35894, 65.4653, 0.202498, 62.9799
1, 120.00000, 122.676, -31.9328, 122.629, -151.105, 124.993, 88.5392, 0, 0, 6.47904, -55.0067, 6.48155, -174.178, 6.35894, 65.4653, 0.202501, 62.9796
1, 180.00000, 122.676, -31.9328, 122.629, -151.105, 124.993, 88.5392, 0, 0, 6.47904, -55.0067, 6.48155, -174.178, 6.35894, 65.4652, 0.202503, 62.9794
1, 240.00000, 122.676, -31.9328, 122.629, -151.105, 124.993, 88.5392, 0, 0, 6.47904, -55.0067, 6.48155, -174.178, 6.35894, 65.4652, 0.202506, 62.9792
1, 300.00000, 122.676, -31.9328, 122.629, -151.105, 124.993, 88.5392, 0, 0, 6.47904, -55.0067, 6.48155, -174.178, 6.35893, 65.4652, 0.202508, 62.979
1, 360.00000, 122.676, -31.9328, 122.629, -151.105, 124.993, 88.5392, 0, 0, 6.47904, -55.0067, 6.48155, -174.178, 6.35893, 65.4652, 0.202509, 62.9788
1, 420.00000, 122.676, -31.9328, 122.629, -151.105, 124.993, 88.5392, 0, 0, 6.47904, -55.0067, 6.48155, -174.178, 6.35893, 65.4652, 0.202511, 62.9786
1, 480.00000, 122.676, -31.9328, 122.629, -151.105, 124.993, 88.5392, 0, 0, 6.47904, -55.0067, 6.48155, -174.178, 6.35893, 65.4652, 0.202513, 62.9785
1, 540.00000, 122.676, -31.9328, 122.629, -151.105, 124.993, 88.5392, 0, 0, 6.47904, -55.0067, 6.48155, -174.178, 6.35893, 65.4652, 0.202514, 62.9783
1, 600.00000, 122.676, -31.9328, 122.629, -151.105, 124.993, 88.5392, 0, 0, 6.47904, -55.0067, 6.48155, -174.178, 6.35893, 65.4652, 0.202515, 62.9782
1, 660.00000, 122.676, -31.9328, 122.629, -151.105, 124.993, 88.5392, 0, 0, 6.47904, -55.0067, 6.48155, -174.178, 6.35893, 65.4652, 0.202516, 62.9781
1, 720.00000, 122.676, -31.9328, 122.629, -151.105, 124.993, 88.5392, 0, 0, 6.47904, -55.0068, 6.48155, -174.178, 6.35893, 65.4652, 0.202517, 62.978
1, 780.00000, 122.676, -31.9328, 122.629, -151.105, 124.993, 88.5392, 0, 0, 6.47904, -55.0068, 6.48155, -174.178, 6.35893, 65.4652, 0.202518, 62.9779
1, 840.00000, 122.676, -31.9328, 122.629, -151.105, 124.993, 88.5392, 0, 0, 6.47904, -55.0068, 6.48155, -174.178, 6.35893, 65.4652, 0.202519, 62.9778
1, 900.00000, 122.676, -31.9328, 122.629, -151.105, 124.993, 88.5392, 0, 0, 6.47904, -55.0068, 6.48155, -174.178, 6.35893, 65.4652, 0.20252, 62.9778
1, 960.00000, 122.676, -31.9328, 122.629, -151.105, 124.993, 88.5392, 0, 0, 6.47904, -55.0068, 6.48155, -174.178, 6.35893, 65.4652, 0.20252, 62.9777
1, 1020.00000, 122.676, -31.9328, 122.629, -151.105, 124.993, 88.5392, 0, 0, 6.47904, -55.0068, 6.48155, -174.178, 6.35893, 65.4652, 0.202521, 62.9776
1, 1080.00000, 122.676, -31.9329, 122.629, -151.105, 124.993, 88.5392, 0, 0, 6.47904, -55.0068, 6.48155, -174.178, 6.35893, 65.4652, 0.202521, 62.9776
1, 1140.00000, 122.676, -31.9329, 122.629, -151.105, 124.993, 88.5392, 0, 0, 6.47904, -55.0068, 6.48155, -174.178, 6.35893, 65.4652, 0.202522, 62.9775
1, 1200.00000, 122.676, -31.9329, 122.629, -151.105, 124.993, 88.5392, 0, 0, 6.47904, -55.0068, 6.48155, -174.178, 6.35892, 65.4652, 0.202522, 62.9775
1, 1260.00000, 122.676, -31.9329, 122.629, -151.105, 124.993, 88.5392, 0, 0, 6.47904, -55.0068, 6.48155, -174.178, 6.35892, 65.4652, 0.202523, 62.9775
1, 1320.00000, 122.676, -31.9329, 122.629, -151.105, 124.993, 88.5392, 0, 0, 6.47904, -55.0068, 6.48155, -174.178, 6.35892, 65.4652, 0.202523, 62.9774
1, 1380.00000, 122.676, -31.9329, 122.629, -151.105, 124.993, 88.5392, 0, 0, 6.47904, -55.0068, 6.48155, -174.178, 6.35892, 65.4652, 0.202523, 62.9774
1, 1440.00000, 122.676, -31.9329, 122.629, -151.105, 124.993, 88.5392, 0, 0, 6.47904, -55.0068, 6.48155, -174.178, 6.35892, 65.4652, 0.202524, 62.9774
1, 1500.00000, 122.676, -31.9329, 122.629, -151.105, 124.993, 88.5392, 0, 0, 6.47904, -55.0068, 6.48155, -174.178, 6.35892, 65.4652, 0.202524, 62.9773
1, 1560.00000, 122.676, -31.9329, 122.629, -151.105, 124.993, 88.5392, 0, 0, 6.47904, -55.0068, 6.48155, -174.178, 6.35892, 65.4652, 0.202524, 62.9773
1, 1620.00000, 122.676, -31.9329, 122.629, -151.105, 124.993, 88.5392, 0, 0, 6.47904, -55.0068, 6.48155, -174.178, 6.35892, 65.4652, 0.202524, 62.9773
1, 1680.00000, 122.676, -31.9329, 122.629, -151.105, 124.993, 88.5392, 0, 0, 6.47904, -55.0068, 6.48155, -174.178, 6.35892, 65.4652, 0.202524, 62.9773
1, 1740.00000, 122.676, -31.9329, 122.629, -151.105, 124.993, 88.5392, 0, 0, 6.47904, -55.0068, 6.48155, -174.178, 6.35892, 65.4652, 0.202525, 62.9773
1, 1800.00000, 122.676, -31.9329, 122.629, -151.105, 124.993, 88.5392, 0, 0, 6.47904, -55.0068, 6.48155, -174.178, 6.35892, 65.4652, 0.202525, 62.9773
1, 1860.00000, 122.676, -31.9329, 122.629, -151.105, 124.993, 88.5392, 0, 0, 6.47904, -55.0068, 6.48155, -174.178, 6.35892, 65.4652, 0.202525, 62.9772
1, 1920.00000, 122.676, -31.9329, 122.629, -151.105, 124.993, 88.5392, 0, 0, 6.47904, -55.0068, 6.48155, -174.178, 6.35892, 65.4652, 0.202525, 62.9772
1, 1980.00000, 122.676, -31.9329, 122.629, -151.105, 124.993, 88.5392, 0, 0, 6.47904, -55.0068, 6.48155, -174.178, 6.35892, 65.4652, 0.202525, 62.9772
1, 2040.00000, 122.676, -31.9329, 122.629, -151.105, 124.993, 88.5392, 0, 0, 6.47904, -55.0068, 6.48155, -174.178, 6.35892, 65.4652, 0.202525, 62.9772
1, 2100.00000, 122.676, -31.9329, 122.629, -151.105, 124.993, 88.5392, 0, 0, 6.47904, -55.0068, 6.48155, -174.178, 6.35892, 65.4652, 0.202525, 62.9772
1, 2160.00000, 122.676, -31.9329, 122.629, -151.105, 124.993, 88.5392, 0, 0, 6.47904, -55.0068, 6.48155, -174.178, 6.35892, 65.4652, 0.202525, 62.9772
1, 2220.00000, 122.676, -31.9329, 122.629, -151.105, 124.993, 88.5392, 0, 0, 6.47904, -55.0068, 6.48155, -174.178, 6.35892, 65.4652, 0.202525, 62.9772
1, 2280.00000, 122.676, -31.9329, 122.629, -151.105, 124.993, 88.5392, 0, 0, 6.47904, -55.0068, 6.48155, -174.178, 6.35892, 65.4652, 0.202526, 62.9772
1, 2340.00000, 122.676, -31.9329, 122.629, -151.105, 124.993, 88.5392, 0, 0, 6.47904, -55.0068, 6.48155, -174.178, 6.35892, 65.4652, 0.202526, 62.9772
1, 2400.00000, 122.676, -31.9329, 122.629, -151.105, 124.993, 88.5392, 0, 0, 6.47904, -55.0068, 6.48155, -174.178, 6.35892, 65.4652, 0.202526, 62.9772
1, 2460.00000, 122.676, -31.9329, 122.629, -151.105, 124.993, 88.5392, 0, 0, 6.47904, -55.0068, 6.48155, -174.178, 6.35892, 65.4652, 0.202526, 62.9772
1, 2520.00000, 122.676, -31.9329, 122.629, -151.105, 124.993, 88.5392, 0, 0, 6.47904, -55.0068, 6.48155, -174.178, 6.35892, 65.4652, 0.202526, 62.9772
1, 2580.00000, 122.676, -31.9329, 122.629, -151.105, 124.993, 88.5392, 0, 0, 6.47904, -55.0068, 6.48155, -174.178, 6.35892, 65.4652, 0.202526, 62.9772
1, 2640.00000, 122.676, -31.9329, 122.629, -151.105, 124.993, 88.5392, 0, 0, 6.47904, -55.0068, 6.48155, -174.178, 6.35892, 65.4652, 0.202526, 62.9772
1, 2700.00000, 122.676, -31.9329, 122.629, -151.105, 124.993, 88.5392, 0, 0, 6.47904, -55.0068, 6.48155, -174.178, 6.35892, 65.4652, 0.202526, 62.9771
1, 2760.00000, 122.676, -31.9329, 122.629, -151.105, 124.993, 88.5392, 0, 0, 6.47904, -55.0068, 6.48155, -174.178, 6.35892, 65.4652, 0.202526, 62.9771
1, 2820.00000, 122.676, -31.9329, 122.629, -151.105, 124.993, 88.5392, 0, 0, 6.47904, -55.0068, 6.48155, -174.178, 6.35892, 65.4652, 0.202526, 62.9771
1, 2880.00000, 122.676, -31.9329, 122.629, -151.105, 124.993, 88.5392, 0, 0, 6.47904, -55.0068, 6.48155, -174.178, 6.35892, 65.4652, 0.202526, 62.9771
1, 2940.00000, 122.676, -31.9329, 122.629, -151.105, 124.993, 88.5392, 0, 0, 6.47904, -55.0068, 6.48155, -174.178, 6.35892, 65.4652, 0.202526, 62.9771
1, 3000.00000, 122.676, -31.9329, 122.629, -151.105, 124.993, 88.5392, 0, 0, 6.47904, -55.0068, 6.48155, -174.178, 6.35892, 65.4652, 0.202526, 62.9771
1, 3060.00000, 122.676, -31.9329, 122.629, -151.105, 124.993, 88.5392, 0, 0, 6.47904, -55.0068, 6.48155, -174.178, 6.35892, 65.4652, 0.202526, 62.9771
1, 3120.00000, 122.676, -31.9329, 122.629, -151.105, 124.993, 88.5392, 0, 0, 6.47904, -55.0068, 6.48155, -174.178, 6.35892, 65.4652, 0.202526, 62.9771
1, 3180.00000, 122.676, -31.9329, 122.629, -151.105, 124.993, 88.5392, 0, 0, 6.47904, -55.0068, 6.48155, -174.178, 6.35892, 65.4652, 0.202526, 62.9771
1, 3240.00000, 122.676, -31.9329, 122.629, -151.105, 124.993, 88.5392, 0, 0, 6.47904, -55.0068, 6.48155, -174.178, 6.35892, 65.4652, 0.202526, 62.9771
1, 3300.00000, 122.676, -31.9329, 122.629, -151.105, 124.993, 88.5392, 0, 0, 6.47904, -55.0068, 6.48155, -174.178, 6.35892, 65.4652, 0.202526, 62.9771
1, 3360.00000, 122.676, -31.9329, 122.629, -151.105, 124.993, 88.5392, 0, 0, 6.47904, -55.0068, 6.48155, -174.178, 6.35892, 65.4652, 0.202526, 62.9771
1, 3420.00000, 122.676, -31.9329, 122.629, -151.105, 124.993, 88.5392, 0, 0, 6.47904, -55.0068, 6.48155, -174.178, 6.35892, 65.4652, 0.202526, 62.9771
1, 3480.00000, 122.676, -31.9329, 122.629, -151.105, 124.993, 88.5392, 0, 0, 6.47904, -55.0068, 6.48155, -174.178, 6.35892, 65.4652, 0.202526, 62.9771
1, 3540.00000, 122.676, -31.9329, 122.629, -151.105, 124.993, 88.5392, 0, 0, 6.47904, -55.0068, 6.48155, -174.178, 6.35892, 65.4652, 0.202526, 62.9771
2, 0.00000, 122.676, -31.9329, 122.629, -151.105, 124.993, 88.5392, 0, 0, 6.47904, -55.0068, 6.48155, -174.178, 6.35892, 65.4652, 0.202526, 62.9771
2, 60.00000, 122.676, -31.9329, 122.629, -151.105, 124.993, 88.5392, 0, 0, 6.47904, -55.0068, 6.48155, -174.178, 6.35892, 65.4652, 0.202526, 62.9771
2, 120.00000, 122.676, -31.9329, 122.629, -151.105, 124.993, 88.5392, 0, 0, 6.47904, -55.0068, 6.48155, -174.178, 6.35892, 65.4652, 0.202526, 62.9771
2, 180.00000, 122.676, -31.9329, 122.629, -151.105, 124.993, 88.5392, 0, 0, 6.47904, -55.0068, 6.48155, -174.178, 6.35892, 65.4652, 0.202526, 62.9771
2, 240.00000, 122.676, -31.9329, 122.629, -151.105, 124.993, 88.5392, 0, 0, 6.47904, -55.0068, 6.48155, -174.178, 6.35892, 65.4652, 0.202526, 62.9771
2, 300.00000, 122.676, -31.9329, 122.629, -151.105, 124.993, 88.5392, 0, 0, 6.47904, -55.0068, 6.48155, -174.178, 6.35892, 65.4652, 0.202526, 62.9771
2, 360.00000, 122.676, -31.9329, 122.629, -151.105, 124.993, 88.5392, 0, 0, 6.47904, -55.0068, 6.48155, -174.178, 6.35892, 65.4652, 0.202526, 62.9771
2, 420.00000, 122.676, -31.9329, 122.629, -151.105, 124.993, 88.5392, 0, 0, 6.47904, -55.0068, 6.48155, -174.178, 6.35892, 65.4652, 0.202526, 62.9771
2, 480.00000, 122.676, -31.9329, 122.629, -151.105, 124.993, 88.5392, 0, 0, 6.47904, -55.0068, 6.48155, -174.178, 6.35892, 65.4652, 0.202526, 62.9771
2, 540.00000, 122.676, -31.9329, 122.629, -151.105, 124.993, 88.5392, 0, 0, 6.47904, -55.0068, 6.48155, -174.178, 6.35892, 65.4652, 0.202526, 62.9771
2, 600.00000, 122.676, -31.9329, 122.629, -151.105, 124.993, 88.5392, 0, 0, 6.47904, -55.0068, 6.48155, -174.178, 6.35892, 65.4652, 0.202526, 62.9771
2, 660.00000, 122.676, -31.9329, 122.629, -151.105, 124.993, 88.5392, 0, 0, 6.47904, -55.0068, 6.48155, -174.178, 6.35892, 65.4652, 0.202526, 62.9771
2, 720.00000, 122.676, -31.9329, 122.629, -151.105, 124.993, 88.5392, 0, 0, 6.47904, -55.0068, 6.48155, -174.178, 6.35892, 65.4652, 0.202526, 62.9771
