hour,t(sec),V1,VAngle1,V2,VAngle2,V3,VAngle3,V4,VAngle4,I1,IAngle1,I2,IAngle2,I3,IAngle3,I4,IAngle4
0, 60.00000, 117.955, -31.3926, 118.413, -151.19, 119.157, 88.5442, 0, 0, 6.52172, -54.4663, 6.54992, -174.264, 6.59558, 65.4707, 0.0401224, -106.496
0, 120.00000, 117.955, -31.3926, 118.413, -151.19, 119.157, 88.5442, 0, 0, 6.52164, -54.4665, 6.54983, -174.264, 6.59549, 65.4703, 0.0400955, -106.558
0, 180.00000, 117.955, -31.3926, 118.413, -151.19, 119.157, 88.5442, 0, 0, 6.52164, -54.4665, 6.54983, -174.264, 6.59549, 65.4703, 0.0400955, -106.558
0, 240.00000, 117.955, -31.3926, 118.413, -151.19, 119.157, 88.5442, 0, 0, 6.52164, -54.4665, 6.54983, -174.264, 6.59549, 65.4703, 0.0400955, -106.558
0, 300.00000, 117.955, -31.3926, 118.413, -151.19, 119.157, 88.5442, 0, 0, 6.52164, -54.4665, 6.54983, -174.264, 6.59549, 65.4703, 0.0400955, -106.558
0, 360.00000, 117.955, -31.3926, 118.413, -151.19, 119.157, 88.5442, 0, 0, 6.52164, -54.4665, 6.54983, -174.264, 6.59549, 65.4703, 0.0400955, -106.558
0, 420.00000, 117.955, -31.3926, 118.413, -151.19, 119.157, 88.5442, 0, 0, 6.52164, -54.4665, 6.54983, -174.264, 6.59549, 65.4703, 0.0400955, -106.558
0, 480.00000, 118.785, -31.287, 119.206, -151.091, 119.932, 88.6675, 0, 0, 5.71817, -54.3612, 5.74067, -174.165, 5.77948, 65.5931, 0.0334116, -105.753
0, 540.00000, 118.786, -31.287, 119.206, -151.091, 119.932, 88.6675, 0, 0, 5.71827, -54.3609, 5.74076, -174.165, 5.77955, 65.5936, 0.0334058, -105.715
0, 600.00000, 118.786, -31.287, 119.206, -151.091, 119.932, 88.6675, 0, 0, 5.71827, -54.3609, 5.74076, -174.165, 5.77955, 65.5936, 0.0334056, -105.715
0, 660.00000, 118.786, -31.287, 119.206, -151.091, 119.932, 88.6675, 0, 0, 5.71827, -54.3609, 5.74076, -174.165, 5.77955, 65.5936, 0.0334056, -105.715
0, 720.00000, 118.786, -31.287, 119.206, -151.091, 119.932, 88.6675, 0, 0, 5.71827, -54.3609, 5.74076, -174.165, 5.77955, 65.5936, 0.0334056, -105.715
0, 780.00000, 118.786, -31.287, 119.206, -151.091, 119.932, 88.6675, 0, 0, 5.71827, -54.3609, 5.74076, -174.165, 5.77955, 65.5936, 0.0334056, -105.715
0, 840.00000, 118.786, -31.287, 119.206, -151.091, 119.932, 88.6675, 0, 0, 5.71827, -54.3609, 5.74076, -174.165, 5.77955, 65.5936, 0.0334056, -105.715
0, 900.00000, 118.786, -31.287, 119.206, -151.091, 119.932, 88.6675, 0, 0, 5.71827, -54.3609, 5.74076, -174.165, 5.77955, 65.5936, 0.0334056, -105.715
0, 960.00000, 118.325, -31.5016, 118.584, -151.008, 119.962, 88.6593, 0, 0, 5.69366, -54.5755, 5.70756, -174.082, 5.78111, 65.5854, 0.0381761, -109.297
0, 1020.00000, 118.325, -31.5016, 118.584, -151.008, 119.962, 88.6593, 0, 0, 5.69363, -54.5755, 5.70751, -174.082, 5.78113, 65.5854, 0.0382417, -109.33
0, 1080.00000, 118.325, -31.5016, 118.584, -151.008, 119.962, 88.6593, 0, 0, 5.69363, -54.5755, 5.70751, -174.082, 5.78113, 65.5854, 0.0382421, -109.33
0, 1140.00000, 118.325, -31.5016, 118.584, -151.008, 119.962, 88.6593, 0, 0, 5.69363, -54.5755, 5.70751, -174.082, 5.78113, 65.5854, 0.0382421, -109.33
0, 1200.00000, 118.325, -31.5016, 118.584, -151.008, 119.962, 88.6593, 0, 0, 5.69363, -54.5755, 5.70751, -174.082, 5.78113, 65.5854, 0.0382421, -109.33
0, 1260.00000, 118.325, -31.5016, 118.584, -151.008, 119.962, 88.6593, 0, 0, 5.69363, -54.5755, 5.70751, -174.082, 5.78113, 65.5854, 0.0382421, -109.33
0, 1320.00000, 118.325, -31.5016, 118.584, -151.008, 119.962, 88.6593, 0, 0, 5.69363, -54.5755, 5.70751, -174.082, 5.78113, 65.5854, 0.0382421, -109.33
0, 1380.00000, 118.325, -31.5016, 118.584, -151.008, 119.962, 88.6593, 0, 0, 5.69363, -54.5755, 5.70751, -174.082, 5.78113, 65.5854, 0.0382421, -109.33
0, 1440.00000, 118.325, -31.5016, 118.584, -151.008, 119.962, 88.6593, 0, 0, 5.69363, -54.5755, 5.70751, -174.082, 5.78113, 65.5854, 0.0382421, -109.33
0, 1500.00000, 118.325, -31.5016, 118.584, -151.008, 119.962, 88.6593, 0, 0, 5.69363, -54.5755, 5.70751, -174.082, 5.78113, 65.5854, 0.0382421, -109.33
0, 1560.00000, 118.325, -31.5016, 118.584, -151.008, 119.962, 88.6593, 0, 0, 5.69363, -54.5755, 5.70751, -174.082, 5.78113, 65.5854, 0.0382421, -109.33
0, 1620.00000, 118.325, -31.5016, 118.584, -151.008, 119.962, 88.6593, 0, 0, 5.69363, -54.5755, 5.70751, -174.082, 5.78113, 65.5854, 0.0382421, -109.33
0, 1680.00000, 118.325, -31.5016, 118.584, -151.008, 119.962, 88.6593, 0, 0, 5.69363, -54.5755, 5.70751, -174.082, 5.78113, 65.5854, 0.0382421, -109.33
0, 1740.00000, 118.325, -31.5016, 118.584, -151.008, 119.962, 88.6593, 0, 0, 5.69363, -54.5755, 5.70751, -174.082, 5.78113, 65.5854, 0.0382421, -109.33
0, 1800.00000, 118.325, -31.5016, 118.584, -151.008, 119.962, 88.6593, 0, 0, 5.69363, -54.5755, 5.70751, -174.082, 5.78113, 65.5854, 0.0382421, -109.33
0, 1860.00000, 118.325, -31.5016, 118.584, -151.008, 119.962, 88.6593, 0, 0, 5.69363, -54.5755, 5.70751, -174.082, 5.78113, 65.5854, 0.0382421, -109.33
0, 1920.00000, 118.325, -31.5016, 118.584, -151.008, 119.962, 88.6593, 0, 0, 5.69363, -54.5755, 5.70751, -174.082, 5.78113, 65.5854, 0.0382421, -109.33
0, 1980.00000, 118.325, -31.5016, 118.584, -151.008, 119.962, 88.6593, 0, 0, 5.69363, -54.5755, 5.70751, -174.082, 5.78113, 65.5854, 0.0382421, -109.33
0, 2040.00000, 118.325, -31.5016, 118.584, -151.008, 119.962, 88.6593, 0, 0, 5.69363, -54.5755, 5.70751, -174.082, 5.78113, 65.5854, 0.0382421, -109.33
0, 2100.00000, 118.325, -31.5016, 118.584, -151.008, 119.962, 88.6593, 0, 0, 5.69363, -54.5755, 5.70751, -174.082, 5.78113, 65.5854, 0.0382421, -109.33
0, 2160.00000, 118.325, -31.5016, 118.584, -151.008, 119.962, 88.6593, 0, 0, 5.69363, -54.5755, 5.70751, -174.082, 5.78113, 65.5854, 0.0382421, -109.33
0, 2220.00000, 118.325, -31.5016, 118.584, -151.008, 119.962, 88.6593, 0, 0, 5.69363, -54.5755, 5.70751, -174.082, 5.78113, 65.5854, 0.0382421, -109.33
0, 2280.00000, 118.325, -31.5016, 118.584, -151.008, 119.962, 88.6593, 0, 0, 5.69363, -54.5755, 5.70751, -174.082, 5.78113, 65.5854, 0.0382421, -109.33
0, 2340.00000, 118.325, -31.5016, 118.584, -151.008, 119.962, 88.6593, 0, 0, 5.69363, -54.5755, 5.70751, -174.082, 5.78113, 65.5854, 0.0382421, -109.33
0, 2400.00000, 118.325, -31.5016, 118.584, -151.008, 119.962, 88.6593, 0, 0, 5.69363, -54.5755, 5.70751, -174.082, 5.78113, 65.5854, 0.0382421, -109.33
0, 2460.00000, 118.325, -31.5016, 118.584, -151.008, 119.962, 88.6593, 0, 0, 5.69363, -54.5755, 5.70751, -174.082, 5.78113, 65.5854, 0.0382421, -109.33
0, 2520.00000, 118.325, -31.5016, 118.584, -151.008, 119.962, 88.6593, 0, 0, 5.69363, -54.5755, 5.70751, -174.082, 5.78113, 65.5854, 0.0382421, -109.33
0, 2580.00000, 118.325, -31.5016, 118.584, -151.008, 119.962, 88.6593, 0, 0, 5.69363, -54.5755, 5.70751, -174.082, 5.78113, 65.5854, 0.0382421, -109.33
0, 2640.00000, 118.325, -31.5016, 118.584, -151.008, 119.962, 88.6593, 0, 0, 5.69363, -54.5755, 5.70751, -174.082, 5.78113, 65.5854, 0.0382421, -109.33
0, 2700.00000, 118.325, -31.5016, 118.584, -151.008, 119.962, 88.6593, 0, 0, 5.69363, -54.5755, 5.70751, -174.082, 5.78113, 65.5854, 0.0382421, -109.33
0, 2760.00000, 118.731, -31.2786, 119.207, -151.057, 119.91, 88.6678, 0, 0, 5.71532, -54.3525, 5.7407, -174.131, 5.77842, 65.5939, 0.0316721, -104.476
0, 2820.00000, 118.732, -31.2786, 119.207, -151.057, 119.91, 88.6678, 0, 0, 5.71538, -54.3525, 5.7408, -174.131, 5.77837, 65.5939, 0.0315097, -104.378
0, 2880.00000, 118.732, -31.2786, 119.207, -151.057, 119.91, 88.6678, 0, 0, 5.71538, -54.3525, 5.7408, -174.13, 5.77837, 65.5939, 0.0315089, -104.377
0, 2940.00000, 118.732, -31.2786, 119.207, -151.057, 119.91, 88.6678, 0, 0, 5.71538, -54.3525, 5.7408, -174.13, 5.77837, 65.5939, 0.0315089, -104.377
0, 3000.00000, 118.732, -31.2786, 119.207, -151.057, 119.91, 88.6678, 0, 0, 5.71538, -54.3525, 5.7408, -174.13, 5.77837, 65.5939, 0.0315089, -104.377
0, 3060.00000, 118.732, -31.2786, 119.207, -151.057, 119.91, 88.6678, 0, 0, 5.71538, -54.3525, 5.7408, -174.13, 5.77837, 65.5939, 0.0315089, -104.377
0, 3120.00000, 118.732, -31.2786, 119.207, -151.057, 119.91, 88.6678, 0, 0, 5.71538, -54.3525, 5.7408, -174.13, 5.77837, 65.5939, 0.0315089, -104.377
0, 3180.00000, 118.732, -31.2786, 119.207, -151.057, 119.91, 88.6678, 0, 0, 5.71538, -54.3525, 5.7408, -174.13, 5.77837, 65.5939, 0.0315089, -104.377
0, 3240.00000, 118.732, -31.2786, 119.207, -151.057, 119.91, 88.6678, 0, 0, 5.71538, -54.3525, 5.7408, -174.13, 5.77837, 65.5939, 0.0315089, -104.377
0, 3300.00000, 118.732, -31.2786, 119.207, -151.057, 119.91, 88.6678, 0, 0, 5.71538, -54.3525, 5.7408, -174.13, 5.77837, 65.5939, 0.0315089, -104.377
0, 3360.00000, 118.732, -31.2786, 119.207, -151.057, 119.91, 88.6678, 0, 0, 5.71538, -54.3525, 5.7408, -174.13, 5.77837, 65.5939, 0.0315089, -104.377
0, 3420.00000, 118.732, -31.2786, 119.207, -151.057, 119.91, 88.6678, 0, 0, 5.71538, -54.3525, 5.7408, -174.13, 5.77837, 65.5939, 0.0315089, -104.377
0, 3480.00000, 118.732, -31.2786, 119.207, -151.057, 119.91, 88.6678, 0, 0, 5.71538, -54.3525, 5.7408, -174.13, 5.77837, 65.5939, 0.0315089, -104.377
0, 3540.00000, 118.732, -31.2786, 119.207, -151.057, 119.91, 88.6678, 0, 0, 5.71538, -54.3525, 5.7408, -174.13, 5.77837, 65.5939, 0.0315089, -104.377
1, 0.00000, 118.732, -31.2786, 119.207, -151.057, 119.91, 88.6678, 0, 0, 5.71538, -54.3525, 5.7408, -174.13, 5.77837, 65.5939, 0.0315089, -104.377
1, 60.00000, 119.159, -31.2694, 119.204, -151.056, 120.116, 88.8384, 0, 0, 5.73814, -54.3437, 5.74064, -174.13, 5.78933, 65.7644, 0.0314544, -110.107
1, 120.00000, 119.159, -31.2694, 119.204, -151.056, 120.116, 88.8384, 0, 0, 5.73825, -54.3433, 5.74061, -174.13, 5.78936, 65.7645, 0.0314701, -110.349
1, 180.00000, 119.159, -31.2694, 119.204, -151.056, 120.116, 88.8384, 0, 0, 5.73825, -54.3433, 5.74061, -174.13, 5.78936, 65.7645, 0.0314702, -110.35
1, 240.00000, 119.159, -31.2694, 119.204, -151.056, 120.116, 88.8384, 0, 0, 5.73825, -54.3433, 5.74061, -174.13, 5.78936, 65.7645, 0.0314702, -110.35
1, 300.00000, 119.159, -31.2694, 119.204, -151.056, 120.116, 88.8384, 0, 0, 5.73825, -54.3433, 5.74061, -174.13, 5.78936, 65.7645, 0.0314702, -110.35
1, 360.00000, 119.159, -31.2694, 119.204, -151.056, 120.116, 88.8384, 0, 0, 5.73825, -54.3433, 5.74061, -174.13, 5.78936, 65.7645, 0.0314702, -110.35
1, 420.00000, 119.159, -31.2694, 119.204, -151.056, 120.116, 88.8384, 0, 0, 5.73825, -54.3433, 5.74061, -174.13, 5.78936, 65.7645, 0.0314702, -110.35
1, 480.00000, 119.159, -31.2694, 119.204, -151.056, 120.116, 88.8384, 0, 0, 5.73825, -54.3433, 5.74061, -174.13, 5.78936, 65.7645, 0.0314702, -110.35
1, 540.00000, 119.159, -31.2694, 119.204, -151.056, 120.116, 88.8384, 0, 0, 5.73825, -54.3433, 5.74061, -174.13, 5.78936, 65.7645, 0.0314702, -110.35
1, 600.00000, 119.159, -31.2694, 119.204, -151.056, 120.116, 88.8384, 0, 0, 5.73825, -54.3433, 5.74061, -174.13, 5.78936, 65.7645, 0.0314702, -110.35
1, 660.00000, 119.159, -31.2694, 119.204, -151.056, 120.116, 88.8384, 0, 0, 5.73825, -54.3433, 5.74061, -174.13, 5.78936, 65.7645, 0.0314702, -110.35
1, 720.00000, 119.159, -31.2694, 119.204, -151.056, 120.116, 88.8384, 0, 0, 5.73825, -54.3433, 5.74061, -174.13, 5.78936, 65.7645, 0.0314702, -110.35
1, 780.00000, 119.159, -31.2694, 119.204, -151.056, 120.116, 88.8384, 0, 0, 5.73825, -54.3433, 5.74061, -174.13, 5.78936, 65.7645, 0.0314702, -110.35
1, 840.00000, 119.159, -31.2694, 119.204, -151.056, 120.116, 88.8384, 0, 0, 5.73825, -54.3433, 5.74061, -174.13, 5.78936, 65.7645, 0.0314702, -110.35
1, 900.00000, 119.159, -31.2694, 119.204, -151.056, 120.116, 88.8384, 0, 0, 5.73825, -54.3433, 5.74061, -174.13, 5.78936, 65.7645, 0.0314702, -110.35
1, 960.00000, 119.159, -31.2694, 119.204, -151.056, 120.116, 88.8384, 0, 0, 5.73825, -54.3433, 5.74061, -174.13, 5.78936, 65.7645, 0.0314702, -110.35
1, 1020.00000, 119.159, -31.2694, 119.204, -151.056, 120.116, 88.8384, 0, 0, 5.73825, -54.3433, 5.74061, -174.13, 5.78936, 65.7645, 0.0314702, -110.35
1, 1080.00000, 119.159, -31.2694, 119.204, -151.056, 120.116, 88.8384, 0, 0, 5.73825, -54.3433, 5.74061, -174.13, 5.78936, 65.7645, 0.0314702, -110.35
1, 1140.00000, 119.159, -31.2694, 119.204, -151.056, 120.116, 88.8384, 0, 0, 5.73825, -54.3433, 5.74061, -174.13, 5.78936, 65.7645, 0.0314702, -110.35
1, 1200.00000, 119.159, -31.2694, 119.204, -151.056, 120.116, 88.8384, 0, 0, 5.73825, -54.3433, 5.74061, -174.13, 5.78936, 65.7645, 0.0314702, -110.35
1, 1260.00000, 119.159, -31.2694, 119.204, -151.056, 120.116, 88.8384, 0, 0, 5.73825, -54.3433, 5.74061, -174.13, 5.78936, 65.7645, 0.0314702, -110.35
1, 1320.00000, 119.159, -31.2694, 119.204, -151.056, 120.116, 88.8384, 0, 0, 5.73825, -54.3433, 5.74061, -174.13, 5.78936, 65.7645, 0.0314702, -110.35
1, 1380.00000, 119.159, -31.2694, 119.204, -151.056, 120.116, 88.8384, 0, 0, 5.73825, -54.3433, 5.74061, -174.13, 5.78936, 65.7645, 0.0314702, -110.35
1, 1440.00000, 119.159, -31.2694, 119.204, -151.056, 120.116, 88.8384, 0, 0, 5.73825, -54.3433, 5.74061, -174.13, 5.78936, 65.7645, 0.0314702, -110.35
1, 1500.00000, 119.159, -31.2694, 119.204, -151.056, 120.116, 88.8384, 0, 0, 5.73825, -54.3433, 5.74061, -174.13, 5.78936, 65.7645, 0.0314702, -110.35
1, 1560.00000, 119.159, -31.2694, 119.204, -151.056, 120.116, 88.8384, 0, 0, 5.73825, -54.3433, 5.74061, -174.13, 5.78936, 65.7645, 0.0314702, -110.35
1, 1620.00000, 119.159, -31.2694, 119.204, -151.056, 120.116, 88.8384, 0, 0, 5.73825, -54.3433, 5.74061, -174.13, 5.78936, 65.7645, 0.0314702, -110.35
1, 1680.00000, 119.159, -31.2694, 119.204, -151.056, 120.116, 88.8384, 0, 0, 5.73825, -54.3433, 5.74061, -174.13, 5.78936, 65.7645, 0.0314702, -110.35
1, 1740.00000, 119.159, -31.2694, 119.204, -151.056, 120.116, 88.8384, 0, 0, 5.73825, -54.3433, 5.74061, -174.13, 5.78936, 65.7645, 0.0314702, -110.35
1, 1800.00000, 119.159, -31.2694, 119.204, -151.056, 120.116, 88.8384, 0, 0, 5.73825, -54.3433, 5.74061, -174.13, 5.78936, 65.7645, 0.0314702, -110.35
1, 1860.00000, 119.159, -31.2694, 119.204, -151.056, 120.116, 88.8384, 0, 0, 5.73825, -54.3433, 5.74061, -174.13, 5.78936, 65.7645, 0.0314702, -110.35
1, 1920.00000, 119.159, -31.2694, 119.204, -151.056, 120.116, 88.8384, 0, 0, 5.73825, -54.3433, 5.74061, -174.13, 5.78936, 65.7645, 0.0314702, -110.35
1, 1980.00000, 119.159, -31.2694, 119.204, -151.056, 120.116, 88.8384, 0, 0, 5.73825, -54.3433, 5.74061, -174.13, 5.78936, 65.7645, 0.0314702, -110.35
1, 2040.00000, 119.159, -31.2694, 119.204, -151.056, 120.116, 88.8384, 0, 0, 5.73825, -54.3433, 5.74061, -174.13, 5.78936, 65.7645, 0.0314702, -110.35
1, 2100.00000, 119.159, -31.2694, 119.204, -151.056, 120.116, 88.8384, 0, 0, 5.73825, -54.3433, 5.74061, -174.13, 5.78936, 65.7645, 0.0314702, -110.35
1, 2160.00000, 119.159, -31.2694, 119.204, -151.056, 120.116, 88.8384, 0, 0, 5.73825, -54.3433, 5.74061, -174.13, 5.78936, 65.7645, 0.0314702, -110.35
1, 2220.00000, 119.159, -31.2694, 119.204, -151.056, 120.116, 88.8384, 0, 0, 5.73825, -54.3433, 5.74061, -174.13, 5.78936, 65.7645, 0.0314702, -110.35
1, 2280.00000, 119.159, -31.2694, 119.204, -151.056, 120.116, 88.8384, 0, 0, 5.73825, -54.3433, 5.74061, -174.13, 5.78936, 65.7645, 0.0314702, -110.35
1, 2340.00000, 119.159, -31.2694, 119.204, -151.056, 120.116, 88.8384, 0, 0, 5.73825, -54.3433, 5.74061, -174.13, 5.78936, 65.7645, 0.0314702, -110.35
1, 2400.00000, 119.159, -31.2694, 119.204, -151.056, 120.116, 88.8384, 0, 0, 5.73825, -54.3433, 5.74061, -174.13, 5.78936, 65.7645, 0.0314702, -110.35
1, 2460.00000, 119.159, -31.2694, 119.204, -151.056, 120.116, 88.8384, 0, 0, 5.73825, -54.3433, 5.74061, -174.13, 5.78936, 65.7645, 0.0314702, -110.35
1, 2520.00000, 119.159, -31.2694, 119.204, -151.056, 120.116, 88.8384, 0, 0, 5.73825, -54.3433, 5.74061, -174.13, 5.78936, 65.7645, 0.0314702, -110.35
1, 2580.00000, 119.159, -31.2694, 119.204, -151.056, 120.116, 88.8384, 0, 0, 5.73825, -54.3433, 5.74061, -174.13, 5.78936, 65.7645, 0.0314702, -110.35
1, 2640.00000, 119.159, -31.2694, 119.204, -151.056, 120.116, 88.8384, 0, 0, 5.73825, -54.3433, 5.74061, -174.13, 5.78936, 65.7645, 0.0314702, -110.35
1, 2700.00000, 119.159, -31.2694, 119.204, -151.056, 120.116, 88.8384, 0, 0, 5.73825, -54.3433, 5.74061, -174.13, 5.78936, 65.7645, 0.0314702, -110.35
1, 2760.00000, 119.159, -31.2694, 119.204, -151.056, 120.116, 88.8384, 0, 0, 5.73825, -54.3433, 5.74061, -174.13, 5.78936, 65.7645, 0.0314702, -110.35
1, 2820.00000, 119.159, -31.2694, 119.204, -151.056, 120.116, 88.8384, 0, 0, 5.73825, -54.3433, 5.74061, -174.13, 5.78936, 65.7645, 0.0314702, -110.35
1, 2880.00000, 119.159, -31.2694, 119.204, -151.056, 120.116, 88.8384, 0, 0, 5.73825, -54.3433, 5.74061, -174.13, 5.78936, 65.7645, 0.0314702, -110.35
1, 2940.00000, 119.159, -31.2694, 119.204, -151.056, 120.116, 88.8384, 0, 0, 5.73825, -54.3433, 5.74061, -174.13, 5.78936, 65.7645, 0.0314702, -110.35
1, 3000.00000, 119.159, -31.2694, 119.204, -151.056, 120.116, 88.8384, 0, 0, 5.73825, -54.3433, 5.74061, -174.13, 5.78936, 65.7645, 0.0314702, -110.35
1, 3060.00000, 119.159, -31.2694, 119.204, -151.056, 120.116, 88.8384, 0, 0, 5.73825, -54.3433, 5.74061, -174.13, 5.78936, 65.7645, 0.0314702, -110.35
1, 3120.00000, 119.159, -31.2694, 119.204, -151.056, 120.116, 88.8384, 0, 0, 5.73825, -54.3433, 5.74061, -174.13, 5.78936, 65.7645, 0.0314702, -110.35
1, 3180.00000, 119.159, -31.2694, 119.204, -151.056, 120.116, 88.8384, 0, 0, 5.73825, -54.3433, 5.74061, -174.13, 5.78936, 65.7645, 0.0314702, -110.35
1, 3240.00000, 119.159, -31.2694, 119.204, -151.056, 120.116, 88.8384, 0, 0, 5.73825, -54.3433, 5.74061, -174.13, 5.78936, 65.7645, 0.0314702, -110.35
1, 3300.00000, 119.159, -31.2694, 119.204, -151.056, 120.116, 88.8384, 0, 0, 5.73825, -54.3433, 5.74061, -174.13, 5.78936, 65.7645, 0.0314702, -110.35
1, 3360.00000, 119.159, -31.2694, 119.204, -151.056, 120.116, 88.8384, 0, 0, 5.73825, -54.3433, 5.74061, -174.13, 5.78936, 65.7645, 0.0314702, -110.35
1, 3420.00000, 119.159, -31.2694, 119.204, -151.056, 120.116, 88.8384, 0, 0, 5.73825, -54.3433, 5.74061, -174.13, 5.78936, 65.7645, 0.0314702, -110.35
1, 3480.00000, 119.159, -31.2694, 119.204, -151.056, 120.116, 88.8384, 0, 0, 5.73825, -54.3433, 5.74061, -174.13, 5.78936, 65.7645, 0.0314702, -110.35
1, 3540.00000, 119.159, -31.2694, 119.204, -151.056, 120.116, 88.8384, 0, 0, 5.73825, -54.3433, 5.74061, -174.13, 5.78936, 65.7645, 0.0314702, -110.35
2, 0.00000, 119.159, -31.2694, 119.204, -151.056, 120.116, 88.8384, 0, 0, 5.73825, -54.3433, 5.74061, -174.13, 5.78936, 65.7645, 0.0314702, -110.35
2, 60.00000, 119.159, -31.2694, 119.204, -151.056, 120.116, 88.8384, 0, 0, 5.73825, -54.3433, 5.74061, -174.13, 5.78936, 65.7645, 0.0314702, -110.35
2, 120.00000, 119.159, -31.2694, 119.204, -151.056, 120.116, 88.8384, 0, 0, 5.73825, -54.3433, 5.74061, -174.13, 5.78936, 65.7645, 0.0314702, -110.35
2, 180.00000, 119.159, -31.2694, 119.204, -151.056, 120.116, 88.8384, 0, 0, 5.73825, -54.3433, 5.74061, -174.13, 5.78936, 65.7645, 0.0314702, -110.35
2, 240.00000, 119.159, -31.2694, 119.204, -151.056, 120.116, 88.8384, 0, 0, 5.73825, -54.3433, 5.74061, -174.13, 5.78936, 65.7645, 0.0314702, -110.35
2, 300.00000, 119.159, -31.2694, 119.204, -151.056, 120.116, 88.8384, 0, 0, 5.73825, -54.3433, 5.74061, -174.13, 5.78936, 65.7645, 0.0314702, -110.35
2, 360.00000, 119.159, -31.2694, 119.204, -151.056, 120.116, 88.8384, 0, 0, 5.73825, -54.3433, 5.74061, -174.13, 5.78936, 65.7645, 0.0314702, -110.35
2, 420.00000, 119.159, -31.2694, 119.204, -151.056, 120.116, 88.8384, 0, 0, 5.73825, -54.3433, 5.74061, -174.13, 5.78936, 65.7645, 0.0314702, -110.35
2, 480.00000, 119.159, -31.2694, 119.204, -151.056, 120.116, 88.8384, 0, 0, 5.73825, -54.3433, 5.74061, -174.13, 5.78936, 65.7645, 0.0314702, -110.35
2, 540.00000, 119.159, -31.2694, 119.204, -151.056, 120.116, 88.8384, 0, 0, 5.73825, -54.3433, 5.74061, -174.13, 5.78936, 65.7645, 0.0314702, -110.35
2, 600.00000, 119.159, -31.2694, 119.204, -151.056, 120.116, 88.8384, 0, 0, 5.73825, -54.3433, 5.74061, -174.13, 5.78936, 65.7645, 0.0314702, -110.35
2, 660.00000, 119.159, -31.2694, 119.204, -151.056, 120.116, 88.8384, 0, 0, 5.73825, -54.3433, 5.74061, -174.13, 5.78936, 65.7645, 0.0314702, -110.35
