hour,t(sec),V1,VAngle1,V2,VAngle2,V3,VAngle3,V4,VAngle4,I1,IAngle1,I2,IAngle2,I3,IAngle3,I4,IAngle4
0, 60.00000, 119.101, -33.7885, 118.672, -151.816, 122.979, 87.4379, 0, 0, 7.69134, -56.8621, 7.66031, -174.89, 7.6566, 64.3654, 0.247038, 62.8167
0, 120.00000, 119.095, -33.8154, 118.671, -151.816, 123.027, 87.4218, 0, 0, 7.69091, -56.8891, 7.66024, -174.89, 7.65363, 64.3492, 0.25283, 62.8429
0, 180.00000, 119.09, -33.8397, 118.67, -151.816, 123.07, 87.4073, 0, 0, 7.69053, -56.9134, 7.66018, -174.89, 7.65095, 64.3346, 0.258039, 62.8649
0, 240.00000, 119.086, -33.8616, 118.669, -151.817, 123.108, 87.3943, 0, 0, 7.69018, -56.9352, 7.66013, -174.89, 7.64854, 64.3215, 0.262725, 62.8833
0, 300.00000, 119.082, -33.8812, 118.669, -151.817, 123.143, 87.3825, 0, 0, 7.68986, -56.9549, 7.66008, -174.89, 7.64638, 64.3096, 0.26694, 62.8988
0, 360.00000, 119.078, -33.8989, 118.668, -151.817, 123.174, 87.372, 0, 0, 7.68957, -56.9727, 7.66003, -174.891, 7.64443, 64.2989, 0.270733, 62.9117
0, 420.00000, 119.074, -33.9149, 118.667, -151.817, 123.203, 87.3624, 0, 0, 7.6893, -56.9886, 7.65999, -174.891, 7.64267, 64.2893, 0.274149, 62.922
0, 480.00000, 119.866, -33.82, 119.404, -151.725, 124.066, 87.4822, 0, 0, 8.1282, -56.8938, 8.09337, -174.798, 7.96401, 64.409, 0.40241, 63.3547
0, 540.00000, 119.863, -33.8329, 119.404, -151.725, 124.09, 87.4745, 0, 0, 8.12796, -56.9067, 8.09334, -174.799, 7.96246, 64.4012, 0.405353, 63.3534
0, 600.00000, 119.86, -33.8445, 119.403, -151.725, 124.112, 87.4675, 0, 0, 8.12774, -56.9183, 8.0933, -174.799, 7.96106, 64.3942, 0.408004, 63.3516
0, 660.00000, 119.857, -33.855, 119.403, -151.725, 124.131, 87.4613, 0, 0, 8.12754, -56.9288, 8.09327, -174.799, 7.95979, 64.3879, 0.41039, 63.3499
0, 720.00000, 119.855, -33.8644, 119.403, -151.726, 124.149, 87.4557, 0, 0, 8.12736, -56.9382, 8.09324, -174.799, 7.95866, 64.3822, 0.412537, 63.3484
0, 780.00000, 119.853, -33.8729, 119.402, -151.726, 124.165, 87.4506, 0, 0, 8.1272, -56.9467, 8.09322, -174.799, 7.95764, 64.3771, 0.414468, 63.3469
0, 840.00000, 119.851, -33.8805, 119.402, -151.726, 124.179, 87.4461, 0, 0, 8.12706, -56.9543, 8.09319, -174.8, 7.95672, 64.3725, 0.416206, 63.3456
0, 900.00000, 119.85, -33.8874, 119.402, -151.726, 124.192, 87.442, 0, 0, 8.12692, -56.9612, 8.09317, -174.8, 7.95589, 64.3684, 0.41777, 63.3443
0, 960.00000, 118.994, -34.3186, 118.228, -151.583, 124.237, 87.4122, 0, 0, 8.06253, -57.3925, 8.00491, -174.657, 7.95299, 64.3386, 0.4108, 63.8087
0, 1020.00000, 118.992, -34.3242, 118.228, -151.583, 124.247, 87.4088, 0, 0, 8.06243, -57.3981, 8.0049, -174.657, 7.95233, 64.3352, 0.412056, 63.806
0, 1080.00000, 118.991, -34.3292, 118.228, -151.583, 124.256, 87.4058, 0, 0, 8.06233, -57.4031, 8.00488, -174.657, 7.95173, 64.3322, 0.413188, 63.8035
0, 1140.00000, 119.085, -34.1953, 118.528, -151.55, 124.263, 87.4081, 0, 0, 8.06939, -57.2692, 8.02742, -174.624, 7.95128, 64.3344, 0.416838, 63.6191
0, 1200.00000, 119.084, -34.1994, 118.528, -151.55, 124.271, 87.4057, 0, 0, 8.06931, -57.2733, 8.02741, -174.624, 7.9508, 64.332, 0.417756, 63.6176
0, 1260.00000, 119.083, -34.203, 118.527, -151.55, 124.277, 87.4035, 0, 0, 8.06924, -57.2769, 8.0274, -174.624, 7.95036, 64.3298, 0.418581, 63.6161
0, 1320.00000, 119.082, -34.2063, 118.527, -151.55, 124.284, 87.4015, 0, 0, 8.06917, -57.2802, 8.02739, -174.624, 7.94997, 64.3278, 0.419324, 63.6148
0, 1380.00000, 119.082, -34.2093, 118.527, -151.551, 124.289, 87.3997, 0, 0, 8.06912, -57.2832, 8.02739, -174.624, 7.94961, 64.326, 0.419993, 63.6136
0, 1440.00000, 119.081, -34.2119, 118.527, -151.551, 124.294, 87.3982, 0, 0, 8.06906, -57.2858, 8.02738, -174.624, 7.94929, 64.3244, 0.420594, 63.6126
0, 1500.00000, 119.08, -34.2143, 118.527, -151.551, 124.298, 87.3967, 0, 0, 8.06902, -57.2882, 8.02738, -174.624, 7.94901, 64.3229, 0.421136, 63.6116
0, 1560.00000, 119.08, -34.2165, 118.527, -151.551, 124.302, 87.3954, 0, 0, 8.06898, -57.2904, 8.02737, -174.625, 7.94875, 64.3216, 0.421623, 63.6107
0, 1620.00000, 119.079, -34.2184, 118.527, -151.551, 124.306, 87.3942, 0, 0, 8.06894, -57.2923, 8.02737, -174.625, 7.94852, 64.3204, 0.422061, 63.6099
0, 1680.00000, 119.079, -34.2202, 118.527, -151.551, 124.309, 87.3932, 0, 0, 8.0689, -57.2941, 8.02736, -174.625, 7.94831, 64.3194, 0.422456, 63.6092
0, 1740.00000, 119.079, -34.2217, 118.527, -151.551, 124.312, 87.3923, 0, 0, 8.06887, -57.2957, 8.02736, -174.625, 7.94812, 64.3184, 0.422811, 63.6086
0, 1800.00000, 118.021, -34.0241, 118.542, -151.536, 123.288, 87.0779, 0, 0, 7.98932, -57.098, 8.02847, -174.61, 8.01412, 64.004, 0.294391, 61.4957
0, 1860.00000, 118.021, -34.0254, 118.542, -151.536, 123.291, 87.0771, 0, 0, 7.98929, -57.0993, 8.02847, -174.61, 8.01397, 64.0033, 0.294676, 61.4974
0, 1920.00000, 118.02, -34.0265, 118.542, -151.536, 123.293, 87.0764, 0, 0, 7.98927, -57.1004, 8.02847, -174.61, 8.01384, 64.0026, 0.294933, 61.4988
0, 1980.00000, 118.02, -34.0275, 118.542, -151.536, 123.295, 87.0758, 0, 0, 7.98925, -57.1014, 8.02847, -174.61, 8.01372, 64.002, 0.295164, 61.5001
0, 2040.00000, 118.02, -34.0284, 118.542, -151.536, 123.296, 87.0753, 0, 0, 7.98924, -57.1024, 8.02846, -174.61, 8.01361, 64.0014, 0.295372, 61.5012
0, 2100.00000, 118.02, -34.0293, 118.541, -151.536, 123.298, 87.0748, 0, 0, 7.98922, -57.1032, 8.02846, -174.61, 8.01351, 64.0009, 0.295559, 61.5023
0, 2160.00000, 118.02, -34.03, 118.541, -151.536, 123.299, 87.0744, 0, 0, 7.98921, -57.1039, 8.02846, -174.61, 8.01342, 64.0005, 0.295728, 61.5032
0, 2220.00000, 118.019, -34.0307, 118.541, -151.536, 123.3, 87.074, 0, 0, 7.9892, -57.1046, 8.02846, -174.61, 8.01334, 64.0001, 0.295879, 61.504
0, 2280.00000, 118.019, -34.0313, 118.541, -151.536, 123.301, 87.0736, 0, 0, 7.98919, -57.1052, 8.02846, -174.61, 8.01327, 63.9997, 0.296016, 61.5048
0, 2340.00000, 118.019, -34.0318, 118.541, -151.536, 123.302, 87.0733, 0, 0, 7.98918, -57.1057, 8.02846, -174.61, 8.0132, 63.9994, 0.296139, 61.5055
0, 2400.00000, 118.019, -34.0323, 118.541, -151.536, 123.303, 87.073, 0, 0, 7.98917, -57.1062, 8.02845, -174.61, 8.01315, 63.9991, 0.296249, 61.5061
0, 2460.00000, 118.019, -34.0328, 118.541, -151.536, 123.304, 87.0727, 0, 0, 7.98916, -57.1067, 8.02845, -174.61, 8.01309, 63.9988, 0.296349, 61.5066
0, 2520.00000, 118.019, -34.0332, 118.541, -151.536, 123.305, 87.0725, 0, 0, 7.98915, -57.1071, 8.02845, -174.61, 8.01305, 63.9986, 0.296438, 61.5071
0, 2580.00000, 118.019, -34.0335, 118.541, -151.536, 123.305, 87.0723, 0, 0, 7.98915, -57.1074, 8.02845, -174.61, 8.013, 63.9984, 0.296519, 61.5075
0, 2640.00000, 118.019, -34.0338, 118.541, -151.536, 123.306, 87.0721, 0, 0, 7.98914, -57.1078, 8.02845, -174.61, 8.01297, 63.9982, 0.296591, 61.5079
0, 2700.00000, 118.019, -34.0341, 118.541, -151.536, 123.307, 87.0719, 0, 0, 7.98913, -57.108, 8.02845, -174.61, 8.01293, 63.998, 0.296657, 61.5083
0, 2760.00000, 118.355, -34.0066, 118.539, -151.539, 123.465, 87.2135, 0, 0, 8.01446, -57.0805, 8.02825, -174.612, 8.00268, 64.1396, 0.316191, 62.3693
0, 2820.00000, 118.355, -34.0068, 118.539, -151.539, 123.465, 87.2134, 0, 0, 8.01446, -57.0808, 8.02825, -174.612, 8.00264, 64.1395, 0.316247, 62.3692
0, 2880.00000, 118.355, -34.0071, 118.539, -151.539, 123.465, 87.2132, 0, 0, 8.01445, -57.081, 8.02825, -174.612, 8.00262, 64.1393, 0.316295, 62.3694
0, 2940.00000, 118.355, -34.0072, 118.539, -151.539, 123.466, 87.2131, 0, 0, 8.01445, -57.0812, 8.02825, -174.612, 8.0026, 64.1392, 0.316338, 62.3695
0, 3000.00000, 118.355, -34.0074, 118.539, -151.539, 123.466, 87.213, 0, 0, 8.01445, -57.0813, 8.02825, -174.612, 8.00258, 64.1391, 0.316377, 62.3696
0, 3060.00000, 118.355, -34.0076, 118.539, -151.539, 123.466, 87.2129, 0, 0, 8.01445, -57.0815, 8.02825, -174.612, 8.00256, 64.139, 0.316411, 62.3697
0, 3120.00000, 118.355, -34.0077, 118.539, -151.539, 123.467, 87.2128, 0, 0, 8.01444, -57.0816, 8.02825, -174.612, 8.00254, 64.1389, 0.316443, 62.3698
0, 3180.00000, 118.355, -34.0078, 118.539, -151.539, 123.467, 87.2128, 0, 0, 8.01444, -57.0818, 8.02825, -174.612, 8.00253, 64.1389, 0.316471, 62.3698
0, 3240.00000, 118.355, -34.0079, 118.539, -151.539, 123.467, 87.2127, 0, 0, 8.01444, -57.0819, 8.02825, -174.612, 8.00251, 64.1388, 0.316496, 62.3699
0, 3300.00000, 118.355, -34.008, 118.539, -151.539, 123.467, 87.2126, 0, 0, 8.01444, -57.082, 8.02825, -174.612, 8.0025, 64.1387, 0.316519, 62.3699
0, 3360.00000, 118.355, -34.0081, 118.539, -151.539, 123.467, 87.2126, 0, 0, 8.01444, -57.0821, 8.02825, -174.612, 8.00249, 64.1387, 0.31654, 62.37
0, 3420.00000, 118.355, -34.0082, 118.539, -151.539, 123.468, 87.2125, 0, 0, 8.01443, -57.0821, 8.02825, -174.612, 8.00248, 64.1386, 0.316558, 62.37
0, 3480.00000, 118.355, -34.0083, 118.539, -151.539, 123.468, 87.2125, 0, 0, 8.01443, -57.0822, 8.02825, -174.612, 8.00247, 64.1386, 0.316575, 62.3701
0, 3540.00000, 118.355, -34.0084, 118.539, -151.539, 123.468, 87.2125, 0, 0, 8.01443, -57.0823, 8.02825, -174.612, 8.00246, 64.1385, 0.31659, 62.3701
1, 0.00000, 118.355, -34.0084, 118.539, -151.539, 123.468, 87.2124, 0, 0, 8.01443, -57.0823, 8.02825, -174.612, 8.00246, 64.1385, 0.316603, 62.3702
1, 60.00000, 118.446, -33.8739, 118.83, -151.508, 123.467, 87.2168, 0, 0, 8.02131, -56.9478, 8.05019, -174.582, 8.00251, 64.1429, 0.319095, 62.111
1, 120.00000, 118.446, -33.8739, 118.83, -151.508, 123.467, 87.2168, 0, 0, 8.02131, -56.9478, 8.05019, -174.582, 8.0025, 64.1429, 0.319106, 62.111
1, 180.00000, 118.446, -33.8739, 118.83, -151.508, 123.467, 87.2168, 0, 0, 8.02131, -56.9479, 8.05019, -174.582, 8.00249, 64.1428, 0.319116, 62.1111
1, 240.00000, 118.446, -33.874, 118.83, -151.508, 123.467, 87.2167, 0, 0, 8.02131, -56.9479, 8.05019, -174.582, 8.00249, 64.1428, 0.319125, 62.1111
1, 300.00000, 118.446, -33.874, 118.83, -151.508, 123.467, 87.2167, 0, 0, 8.02131, -56.9479, 8.05019, -174.582, 8.00249, 64.1428, 0.319133, 62.1111
1, 360.00000, 118.446, -33.8741, 118.83, -151.508, 123.467, 87.2167, 0, 0, 8.02131, -56.948, 8.05019, -174.582, 8.00248, 64.1428, 0.31914, 62.1112
1, 420.00000, 118.446, -33.8741, 118.83, -151.508, 123.468, 87.2167, 0, 0, 8.02131, -56.948, 8.05019, -174.582, 8.00248, 64.1428, 0.319146, 62.1112
1, 480.00000, 118.446, -33.8741, 118.83, -151.508, 123.468, 87.2167, 0, 0, 8.02131, -56.948, 8.05019, -174.582, 8.00248, 64.1428, 0.319152, 62.1112
1, 540.00000, 118.446, -33.8741, 118.83, -151.508, 123.468, 87.2167, 0, 0, 8.02131, -56.948, 8.05019, -174.582, 8.00247, 64.1427, 0.319157, 62.1112
1, 600.00000, 118.446, -33.8741, 118.83, -151.508, 123.468, 87.2166, 0, 0, 8.02131, -56.9481, 8.05019, -174.582, 8.00247, 64.1427, 0.319162, 62.1112
1, 660.00000, 118.446, -33.8742, 118.83, -151.508, 123.468, 87.2166, 0, 0, 8.02131, -56.9481, 8.05019, -174.582, 8.00247, 64.1427, 0.319166, 62.1112
1, 720.00000, 118.446, -33.8742, 118.83, -151.508, 123.468, 87.2166, 0, 0, 8.02131, -56.9481, 8.05019, -174.582, 8.00247, 64.1427, 0.31917, 62.1113
1, 780.00000, 118.463, -33.8801, 119.164, -151.317, 124.092, 87.1902, 0, 0, 8.02255, -56.954, 8.07526, -174.391, 7.9622, 64.1163, 0.396885, 62.0654
1, 840.00000, 118.463, -33.8801, 119.164, -151.317, 124.092, 87.1902, 0, 0, 8.02255, -56.954, 8.07526, -174.391, 7.9622, 64.1163, 0.396891, 62.0652
1, 900.00000, 118.463, -33.8801, 119.164, -151.317, 124.092, 87.1902, 0, 0, 8.02255, -56.954, 8.07526, -174.391, 7.96219, 64.1163, 0.396893, 62.0652
1, 960.00000, 118.463, -33.8801, 119.164, -151.317, 124.092, 87.1902, 0, 0, 8.02254, -56.954, 8.07526, -174.391, 7.96219, 64.1163, 0.396896, 62.0652
1, 1020.00000, 118.463, -33.8801, 119.164, -151.317, 124.092, 87.1902, 0, 0, 8.02254, -56.954, 8.07526, -174.391, 7.96219, 64.1163, 0.396898, 62.0652
1, 1080.00000, 118.463, -33.8801, 119.164, -151.317, 124.092, 87.1902, 0, 0, 8.02254, -56.954, 8.07526, -174.391, 7.96219, 64.1163, 0.3969, 62.0652
1, 1140.00000, 118.463, -33.8801, 119.164, -151.317, 124.092, 87.1902, 0, 0, 8.02254, -56.954, 8.07526, -174.391, 7.96219, 64.1163, 0.396902, 62.0652
1, 1200.00000, 118.463, -33.8801, 119.164, -151.317, 124.092, 87.1902, 0, 0, 8.02254, -56.954, 8.07526, -174.391, 7.96219, 64.1163, 0.396904, 62.0652
1, 1260.00000, 118.463, -33.8801, 119.164, -151.317, 124.092, 87.1902, 0, 0, 8.02254, -56.954, 8.07526, -174.391, 7.96219, 64.1163, 0.396905, 62.0652
1, 1320.00000, 118.463, -33.8801, 119.164, -151.317, 124.092, 87.1902, 0, 0, 8.02254, -56.9541, 8.07526, -174.391, 7.96219, 64.1163, 0.396907, 62.0652
1, 1380.00000, 118.463, -33.8801, 119.164, -151.317, 124.092, 87.1902, 0, 0, 8.02254, -56.9541, 8.07526, -174.391, 7.96219, 64.1163, 0.396908, 62.0652
1, 1440.00000, 118.463, -33.8801, 119.164, -151.317, 124.092, 87.1902, 0, 0, 8.02254, -56.9541, 8.07526, -174.391, 7.96219, 64.1163, 0.396909, 62.0652
1, 1500.00000, 118.463, -33.8801, 119.164, -151.317, 124.092, 87.1902, 0, 0, 8.02254, -56.9541, 8.07526, -174.391, 7.96219, 64.1163, 0.39691, 62.0652
1, 1560.00000, 118.463, -33.8802, 119.164, -151.317, 124.092, 87.1902, 0, 0, 8.02254, -56.9541, 8.07526, -174.391, 7.96218, 64.1163, 0.396911, 62.0652
1, 1620.00000, 118.463, -33.8802, 119.164, -151.317, 124.092, 87.1902, 0, 0, 8.02254, -56.9541, 8.07526, -174.391, 7.96218, 64.1163, 0.396912, 62.0652
1, 1680.00000, 118.463, -33.8802, 119.164, -151.317, 124.092, 87.1902, 0, 0, 8.02254, -56.9541, 8.07526, -174.391, 7.96218, 64.1163, 0.396912, 62.0652
1, 1740.00000, 118.463, -33.8802, 119.164, -151.317, 124.092, 87.1902, 0, 0, 8.02254, -56.9541, 8.07526, -174.391, 7.96218, 64.1162, 0.396913, 62.0652
1, 1800.00000, 118.463, -33.8802, 119.164, -151.317, 124.092, 87.1902, 0, 0, 8.02254, -56.9541, 8.07526, -174.391, 7.96218, 64.1162, 0.396913, 62.0652
1, 1860.00000, 118.463, -33.8802, 119.164, -151.317, 124.092, 87.1902, 0, 0, 8.02254, -56.9541, 8.07526, -174.391, 7.96218, 64.1162, 0.396914, 62.0652
1, 1920.00000, 118.463, -33.8802, 119.164, -151.317, 124.092, 87.1902, 0, 0, 8.02254, -56.9541, 8.07526, -174.391, 7.96218, 64.1162, 0.396914, 62.0652
1, 1980.00000, 118.463, -33.8802, 119.164, -151.317, 124.092, 87.1902, 0, 0, 8.02254, -56.9541, 8.07526, -174.391, 7.96218, 64.1162, 0.396915, 62.0652
1, 2040.00000, 118.463, -33.8802, 119.164, -151.317, 124.092, 87.1902, 0, 0, 8.02254, -56.9541, 8.07526, -174.391, 7.96218, 64.1162, 0.396915, 62.0652
1, 2100.00000, 118.463, -33.8802, 119.164, -151.317, 124.092, 87.1902, 0, 0, 8.02254, -56.9541, 8.07526, -174.391, 7.96218, 64.1162, 0.396916, 62.0652
1, 2160.00000, 118.463, -33.8802, 119.164, -151.317, 124.092, 87.1902, 0, 0, 8.02254, -56.9541, 8.07526, -174.391, 7.96218, 64.1162, 0.396916, 62.0652
1, 2220.00000, 119.513, -34.0755, 119.145, -151.333, 125.138, 87.5024, 0, 0, 8.10156, -57.1494, 8.07383, -174.407, 7.89569, 64.4284, 0.52494, 63.6945
1, 2280.00000, 119.513, -34.0755, 119.145, -151.333, 125.138, 87.5024, 0, 0, 8.10156, -57.1494, 8.07383, -174.407, 7.89568, 64.4284, 0.524943, 63.6943
1, 2340.00000, 119.513, -34.0755, 119.145, -151.333, 125.138, 87.5024, 0, 0, 8.10156, -57.1494, 8.07383, -174.407, 7.89568, 64.4284, 0.524944, 63.6943
1, 2400.00000, 119.513, -34.0755, 119.145, -151.333, 125.138, 87.5024, 0, 0, 8.10156, -57.1494, 8.07383, -174.407, 7.89568, 64.4284, 0.524944, 63.6943
1, 2460.00000, 119.513, -34.0755, 119.145, -151.333, 125.138, 87.5024, 0, 0, 8.10156, -57.1494, 8.07383, -174.407, 7.89568, 64.4284, 0.524944, 63.6943
1, 2520.00000, 119.513, -34.0755, 119.145, -151.333, 125.138, 87.5024, 0, 0, 8.10156, -57.1495, 8.07383, -174.407, 7.89568, 64.4284, 0.524944, 63.6943
1, 2580.00000, 119.513, -34.0755, 119.145, -151.333, 125.138, 87.5024, 0, 0, 8.10156, -57.1495, 8.07383, -174.407, 7.89568, 64.4284, 0.524944, 63.6943
1, 2640.00000, 119.513, -34.0755, 119.145, -151.333, 125.138, 87.5024, 0, 0, 8.10156, -57.1495, 8.07383, -174.407, 7.89568, 64.4284, 0.524944, 63.6943
1, 2700.00000, 119.513, -34.0755, 119.145, -151.333, 125.138, 87.5024, 0, 0, 8.10156, -57.1495, 8.07383, -174.407, 7.89568, 64.4284, 0.524945, 63.6943
1, 2760.00000, 119.513, -34.0755, 119.145, -151.333, 125.138, 87.5024, 0, 0, 8.10156, -57.1495, 8.07383, -174.407, 7.89568, 64.4284, 0.524945, 63.6943
1, 2820.00000, 119.513, -34.0755, 119.145, -151.333, 125.138, 87.5024, 0, 0, 8.10156, -57.1495, 8.07383, -174.407, 7.89568, 64.4284, 0.524945, 63.6943
1, 2880.00000, 119.513, -34.0755, 119.145, -151.333, 125.138, 87.5024, 0, 0, 8.10156, -57.1495, 8.07383, -174.407, 7.89568, 64.4284, 0.524945, 63.6943
1, 2940.00000, 119.513, -34.0755, 119.145, -151.333, 125.138, 87.5024, 0, 0, 8.10156, -57.1495, 8.07383, -174.407, 7.89568, 64.4284, 0.524945, 63.6943
1, 3000.00000, 119.513, -34.0755, 119.145, -151.333, 125.138, 87.5024, 0, 0, 8.10156, -57.1495, 8.07383, -174.407, 7.89568, 64.4284, 0.524945, 63.6943
1, 3060.00000, 119.513, -34.0755, 119.145, -151.333, 125.138, 87.5024, 0, 0, 8.10156, -57.1495, 8.07383, -174.407, 7.89568, 64.4284, 0.524945, 63.6943
1, 3120.00000, 119.513, -34.0755, 119.145, -151.333, 125.138, 87.5024, 0, 0, 8.10156, -57.1495, 8.07383, -174.407, 7.89568, 64.4284, 0.524945, 63.6943
1, 3180.00000, 119.513, -34.0755, 119.145, -151.333, 125.138, 87.5024, 0, 0, 8.10156, -57.1495, 8.07383, -174.407, 7.89568, 64.4284, 0.524945, 63.6943
1, 3240.00000, 119.513, -34.0755, 119.145, -151.333, 125.138, 87.5024, 0, 0, 8.10156, -57.1495, 8.07383, -174.407, 7.89568, 64.4284, 0.524945, 63.6943
1, 3300.00000, 119.513, -34.0755, 119.145, -151.333, 125.138, 87.5024, 0, 0, 8.10156, -57.1495, 8.07383, -174.407, 7.89568, 64.4284, 0.524945, 63.6943
1, 3360.00000, 119.513, -34.0755, 119.145, -151.333, 125.138, 87.5024, 0, 0, 8.10156, -57.1495, 8.07383, -174.407, 7.89568, 64.4284, 0.524945, 63.6943
1, 3420.00000, 119.513, -34.0755, 119.145, -151.333, 125.138, 87.5024, 0, 0, 8.10156, -57.1495, 8.07383, -174.407, 7.89568, 64.4284, 0.524945, 63.6943
1, 3480.00000, 119.513, -34.0755, 119.145, -151.333, 125.138, 87.5024, 0, 0, 8.10156, -57.1495, 8.07383, -174.407, 7.89568, 64.4284, 0.524945, 63.6943
1, 3540.00000, 119.513, -34.0755, 119.145, -151.333, 125.138, 87.5024, 0, 0, 8.10156, -57.1495, 8.07383, -174.407, 7.89568, 64.4284, 0.524945, 63.6943
2, 0.00000, 119.513, -34.0755, 119.145, -151.333, 125.138, 87.5024, 0, 0, 8.10156, -57.1495, 8.07383, -174.407, 7.89568, 64.4284, 0.524945, 63.6943
2, 60.00000, 119.513, -34.0755, 119.145, -151.333, 125.138, 87.5024, 0, 0, 8.10156, -57.1495, 8.07383, -174.407, 7.89568, 64.4284, 0.524945, 63.6943
2, 120.00000, 119.513, -34.0755, 119.145, -151.333, 125.138, 87.5024, 0, 0, 8.10156, -57.1495, 8.07383, -174.407, 7.89568, 64.4284, 0.524945, 63.6943
2, 180.00000, 119.513, -34.0755, 119.145, -151.333, 125.138, 87.5024, 0, 0, 8.10156, -57.1495, 8.07383, -174.407, 7.89568, 64.4284, 0.524945, 63.6943
2, 240.00000, 119.513, -34.0755, 119.145, -151.333, 125.138, 87.5024, 0, 0, 8.10156, -57.1495, 8.07383, -174.407, 7.89568, 64.4284, 0.524946, 63.6943
2, 300.00000, 119.513, -34.0755, 119.145, -151.333, 125.138, 87.5024, 0, 0, 8.10156, -57.1495, 8.07383, -174.407, 7.89568, 64.4284, 0.524946, 63.6943
2, 360.00000, 119.513, -34.0755, 119.145, -151.333, 125.138, 87.5024, 0, 0, 8.10156, -57.1495, 8.07383, -174.407, 7.89568, 64.4284, 0.524946, 63.6943
2, 420.00000, 119.513, -34.0755, 119.145, -151.333, 125.138, 87.5024, 0, 0, 8.10156, -57.1495, 8.07383, -174.407, 7.89568, 64.4284, 0.524946, 63.6943
2, 480.00000, 119.513, -34.0755, 119.145, -151.333, 125.138, 87.5024, 0, 0, 8.10156, -57.1495, 8.07383, -174.407, 7.89568, 64.4284, 0.524946, 63.6943
2, 540.00000, 119.513, -34.0755, 119.145, -151.333, 125.138, 87.5024, 0, 0, 8.10156, -57.1495, 8.07383, -174.407, 7.89568, 64.4284, 0.524946, 63.6943
2, 600.00000, 119.513, -34.0755, 119.145, -151.333, 125.138, 87.5024, 0, 0, 8.10156, -57.1495, 8.07383, -174.407, 7.89568, 64.4284, 0.524946, 63.6943
2, 660.00000, 119.513, -34.0755, 119.145, -151.333, 125.138, 87.5024, 0, 0, 8.10156, -57.1495, 8.07383, -174.407, 7.89568, 64.4284, 0.524946, 63.6943
2, 720.00000, 119.513, -34.0755, 119.145, -151.333, 125.138, 87.5024, 0, 0, 8.10156, -57.1495, 8.07383, -174.407, 7.89568, 64.4284, 0.524946, 63.6943
2, 780.00000, 119.513, -34.0755, 119.145, -151.333, 125.138, 87.5024, 0, 0, 8.10156, -57.1495, 8.07383, -174.407, 7.89568, 64.4284, 0.524946, 63.6943
