hour,t(sec),"P1 (kW)","Q1 (kvar)","P2 (kW)","Q2 (kvar)","P3 (kW)","Q3 (kvar)","P4 (kW)","Q4 (kvar)"
0, 60.00000, 0.317944, 0.135441, 0.31932, 0.13603, 0.324063, 0.138047, 0, 0
0, 120.00000, 0.31794, 0.135442, 0.319316, 0.136028, 0.324049, 0.138044, 0, 0
0, 180.00000, 0.31794, 0.135442, 0.319316, 0.136028, 0.324048, 0.138044, 0, 0
0, 240.00000, 0.31794, 0.135442, 0.319316, 0.136028, 0.324048, 0.138044, 0, 0
0, 300.00000, 0.31794, 0.135442, 0.319316, 0.136028, 0.324048, 0.138044, 0, 0
0, 360.00000, 0.31794, 0.135442, 0.319316, 0.136028, 0.324048, 0.138044, 0, 0
0, 420.00000, 0.31794, 0.135442, 0.319316, 0.136028, 0.324048, 0.138044, 0, 0
0, 480.00000, 0.31794, 0.135442, 0.319316, 0.136028, 0.324048, 0.138044, 0, 0
0, 540.00000, 0.31794, 0.135442, 0.319316, 0.136028, 0.324048, 0.138044, 0, 0
0, 600.00000, 0.31794, 0.135442, 0.319316, 0.136028, 0.324048, 0.138044, 0, 0
0, 660.00000, 0.31794, 0.135442, 0.319316, 0.136028, 0.324048, 0.138044, 0, 0
0, 720.00000, 0.31794, 0.135442, 0.319316, 0.136028, 0.324048, 0.138044, 0, 0
0, 780.00000, 0.31794, 0.135442, 0.319316, 0.136028, 0.324048, 0.138044, 0, 0
0, 840.00000, 0.31794, 0.135442, 0.319316, 0.136028, 0.324048, 0.138044, 0, 0
0, 900.00000, 0.31794, 0.135442, 0.319316, 0.136028, 0.324048, 0.138044, 0, 0
0, 960.00000, 0.365534, 0.155716, 0.367187, 0.156421, 0.372662, 0.158753, 0, 0
0, 1020.00000, 0.365533, 0.155716, 0.367186, 0.156421, 0.372659, 0.158752, 0, 0
0, 1080.00000, 0.365533, 0.155716, 0.367186, 0.156421, 0.372659, 0.158752, 0, 0
0, 1140.00000, 0.365533, 0.155716, 0.367186, 0.156421, 0.372659, 0.158752, 0, 0
0, 1200.00000, 0.365533, 0.155716, 0.367186, 0.156421, 0.372659, 0.158752, 0, 0
0, 1260.00000, 0.365533, 0.155716, 0.367186, 0.156421, 0.372659, 0.158752, 0, 0
0, 1320.00000, 0.365533, 0.155716, 0.367186, 0.156421, 0.372659, 0.158752, 0, 0
0, 1380.00000, 0.365533, 0.155716, 0.367186, 0.156421, 0.372659, 0.158752, 0, 0
0, 1440.00000, 0.365533, 0.155716, 0.367186, 0.156421, 0.372659, 0.158752, 0, 0
0, 1500.00000, 0.365533, 0.155716, 0.367186, 0.156421, 0.372659, 0.158752, 0, 0
0, 1560.00000, 0.365533, 0.155716, 0.367186, 0.156421, 0.372659, 0.158752, 0, 0
0, 1620.00000, 0.365533, 0.155716, 0.367186, 0.156421, 0.372659, 0.158752, 0, 0
0, 1680.00000, 0.365533, 0.155716, 0.367186, 0.156421, 0.372659, 0.158752, 0, 0
0, 1740.00000, 0.365533, 0.155716, 0.367186, 0.156421, 0.372659, 0.158752, 0, 0
0, 1800.00000, 0.365533, 0.155716, 0.367186, 0.156421, 0.372659, 0.158752, 0, 0
0, 1860.00000, 0.33396, 0.142273, 0.335407, 0.142888, 0.340369, 0.145002, 0, 0
0, 1920.00000, 0.333977, 0.142274, 0.335423, 0.14289, 0.340392, 0.145006, 0, 0
0, 1980.00000, 0.333977, 0.142274, 0.335423, 0.14289, 0.340392, 0.145006, 0, 0
0, 2040.00000, 0.333977, 0.142274, 0.335423, 0.14289, 0.340392, 0.145006, 0, 0
0, 2100.00000, 0.333977, 0.142274, 0.335423, 0.14289, 0.340392, 0.145006, 0, 0
0, 2160.00000, 0.333977, 0.142274, 0.335423, 0.14289, 0.340392, 0.145006, 0, 0
0, 2220.00000, 0.333977, 0.142274, 0.335423, 0.14289, 0.340392, 0.145006, 0, 0
0, 2280.00000, 0.333977, 0.142274, 0.335423, 0.14289, 0.340392, 0.145006, 0, 0
0, 2340.00000, 0.333977, 0.142274, 0.335423, 0.14289, 0.340392, 0.145006, 0, 0
0, 2400.00000, 0.333977, 0.142274, 0.335423, 0.14289, 0.340392, 0.145006, 0, 0
0, 2460.00000, 0.333977, 0.142274, 0.335423, 0.14289, 0.340392, 0.145006, 0, 0
0, 2520.00000, 0.333977, 0.142274, 0.335423, 0.14289, 0.340392, 0.145006, 0, 0
0, 2580.00000, 0.333977, 0.142274, 0.335423, 0.14289, 0.340392, 0.145006, 0, 0
0, 2640.00000, 0.333977, 0.142274, 0.335423, 0.14289, 0.340392, 0.145006, 0, 0
0, 2700.00000, 0.333977, 0.142274, 0.335423, 0.14289, 0.340392, 0.145006, 0, 0
0, 2760.00000, 0.326072, 0.138908, 0.327394, 0.139469, 0.332239, 0.141535, 0, 0
0, 2820.00000, 0.326074, 0.138907, 0.327395, 0.13947, 0.332247, 0.141536, 0, 0
0, 2880.00000, 0.326074, 0.138907, 0.327395, 0.13947, 0.332247, 0.141536, 0, 0
0, 2940.00000, 0.326074, 0.138907, 0.327395, 0.13947, 0.332247, 0.141536, 0, 0
0, 3000.00000, 0.326074, 0.138907, 0.327395, 0.13947, 0.332247, 0.141536, 0, 0
0, 3060.00000, 0.326074, 0.138907, 0.327395, 0.13947, 0.332247, 0.141536, 0, 0
0, 3120.00000, 0.326074, 0.138907, 0.327395, 0.13947, 0.332247, 0.141536, 0, 0
0, 3180.00000, 0.326074, 0.138907, 0.327395, 0.13947, 0.332247, 0.141536, 0, 0
0, 3240.00000, 0.326074, 0.138907, 0.327395, 0.13947, 0.332247, 0.141536, 0, 0
0, 3300.00000, 0.326074, 0.138907, 0.327395, 0.13947, 0.332247, 0.141536, 0, 0
0, 3360.00000, 0.326074, 0.138907, 0.327395, 0.13947, 0.332247, 0.141536, 0, 0
0, 3420.00000, 0.326074, 0.138907, 0.327395, 0.13947, 0.332247, 0.141536, 0, 0
0, 3480.00000, 0.326074, 0.138907, 0.327395, 0.13947, 0.332247, 0.141536, 0, 0
0, 3540.00000, 0.326074, 0.138907, 0.327395, 0.13947, 0.332247, 0.141536, 0, 0
1, 0.00000, 0.326074, 0.138907, 0.327395, 0.13947, 0.332247, 0.141536, 0, 0
1, 60.00000, 0.294241, 0.125347, 0.295413, 0.125845, 0.299785, 0.12771, 0, 0
1, 120.00000, 0.294241, 0.125346, 0.295417, 0.125847, 0.299794, 0.127712, 0, 0
1, 180.00000, 0.29424, 0.125346, 0.295417, 0.125847, 0.299794, 0.127712, 0, 0
1, 240.00000, 0.29424, 0.125346, 0.295417, 0.125847, 0.299794, 0.127712, 0, 0
1, 300.00000, 0.29424, 0.125346, 0.295417, 0.125847, 0.299794, 0.127712, 0, 0
1, 360.00000, 0.29424, 0.125346, 0.295417, 0.125847, 0.299794, 0.127712, 0, 0
1, 420.00000, 0.29424, 0.125346, 0.295417, 0.125847, 0.299794, 0.127712, 0, 0
1, 480.00000, 0.29424, 0.125346, 0.295417, 0.125847, 0.299794, 0.127712, 0, 0
1, 540.00000, 0.29424, 0.125346, 0.295417, 0.125847, 0.299794, 0.127712, 0, 0
1, 600.00000, 0.29424, 0.125346, 0.295417, 0.125847, 0.299794, 0.127712, 0, 0
1, 660.00000, 0.29424, 0.125346, 0.295417, 0.125847, 0.299794, 0.127712, 0, 0
1, 720.00000, 0.29424, 0.125346, 0.295417, 0.125847, 0.299794, 0.127712, 0, 0
1, 780.00000, 0.29424, 0.125346, 0.295417, 0.125847, 0.299794, 0.127712, 0, 0
1, 840.00000, 0.29424, 0.125346, 0.295417, 0.125847, 0.299794, 0.127712, 0, 0
1, 900.00000, 0.29424, 0.125346, 0.295417, 0.125847, 0.299794, 0.127712, 0, 0
1, 960.00000, 0.307095, 0.130824, 0.308316, 0.131342, 0.312881, 0.133289, 0, 0
1, 1020.00000, 0.307098, 0.130823, 0.308322, 0.131345, 0.312896, 0.133293, 0, 0
1, 1080.00000, 0.307098, 0.130823, 0.308322, 0.131345, 0.312897, 0.133293, 0, 0
1, 1140.00000, 0.307098, 0.130823, 0.308322, 0.131345, 0.312897, 0.133293, 0, 0
1, 1200.00000, 0.307098, 0.130823, 0.308322, 0.131345, 0.312897, 0.133293, 0, 0
1, 1260.00000, 0.307098, 0.130823, 0.308322, 0.131345, 0.312897, 0.133293, 0, 0
1, 1320.00000, 0.307098, 0.130823, 0.308322, 0.131345, 0.312897, 0.133293, 0, 0
1, 1380.00000, 0.307098, 0.130823, 0.308322, 0.131345, 0.312897, 0.133293, 0, 0
1, 1440.00000, 0.307098, 0.130823, 0.308322, 0.131345, 0.312897, 0.133293, 0, 0
1, 1500.00000, 0.307098, 0.130823, 0.308322, 0.131345, 0.312897, 0.133293, 0, 0
1, 1560.00000, 0.307098, 0.130823, 0.308322, 0.131345, 0.312897, 0.133293, 0, 0
1, 1620.00000, 0.307098, 0.130823, 0.308322, 0.131345, 0.312897, 0.133293, 0, 0
1, 1680.00000, 0.307098, 0.130823, 0.308322, 0.131345, 0.312897, 0.133293, 0, 0
1, 1740.00000, 0.307098, 0.130823, 0.308322, 0.131345, 0.312897, 0.133293, 0, 0
1, 1800.00000, 0.307098, 0.130823, 0.308322, 0.131345, 0.312897, 0.133293, 0, 0
1, 1860.00000, 0.282657, 0.120411, 0.283781, 0.120891, 0.287983, 0.122678, 0, 0
1, 1920.00000, 0.282657, 0.120411, 0.283778, 0.120889, 0.287975, 0.122677, 0, 0
1, 1980.00000, 0.282657, 0.120411, 0.283778, 0.120889, 0.287975, 0.122677, 0, 0
1, 2040.00000, 0.282657, 0.120411, 0.283778, 0.120889, 0.287975, 0.122677, 0, 0
1, 2100.00000, 0.282657, 0.120411, 0.283778, 0.120889, 0.287975, 0.122677, 0, 0
1, 2160.00000, 0.282657, 0.120411, 0.283778, 0.120889, 0.287975, 0.122677, 0, 0
1, 2220.00000, 0.282657, 0.120411, 0.283778, 0.120889, 0.287975, 0.122677, 0, 0
1, 2280.00000, 0.282657, 0.120411, 0.283778, 0.120889, 0.287975, 0.122677, 0, 0
1, 2340.00000, 0.282657, 0.120411, 0.283778, 0.120889, 0.287975, 0.122677, 0, 0
1, 2400.00000, 0.282657, 0.120411, 0.283778, 0.120889, 0.287975, 0.122677, 0, 0
1, 2460.00000, 0.282657, 0.120411, 0.283778, 0.120889, 0.287975, 0.122677, 0, 0
1, 2520.00000, 0.282657, 0.120411, 0.283778, 0.120889, 0.287975, 0.122677, 0, 0
1, 2580.00000, 0.282657, 0.120411, 0.283778, 0.120889, 0.287975, 0.122677, 0, 0
1, 2640.00000, 0.282657, 0.120411, 0.283778, 0.120889, 0.287975, 0.122677, 0, 0
1, 2700.00000, 0.282657, 0.120411, 0.283778, 0.120889, 0.287975, 0.122677, 0, 0
1, 2760.00000, 0.324207, 0.138114, 0.325453, 0.138641, 0.330292, 0.140708, 0, 0
1, 2820.00000, 0.324208, 0.138112, 0.32546, 0.138645, 0.330312, 0.140713, 0, 0
1, 2880.00000, 0.324208, 0.138112, 0.32546, 0.138646, 0.330313, 0.140713, 0, 0
1, 2940.00000, 0.324208, 0.138112, 0.32546, 0.138646, 0.330313, 0.140713, 0, 0
1, 3000.00000, 0.324208, 0.138112, 0.32546, 0.138646, 0.330313, 0.140713, 0, 0
1, 3060.00000, 0.324208, 0.138112, 0.32546, 0.138646, 0.330313, 0.140713, 0, 0
1, 3120.00000, 0.324208, 0.138112, 0.32546, 0.138646, 0.330313, 0.140713, 0, 0
1, 3180.00000, 0.324208, 0.138112, 0.32546, 0.138646, 0.330313, 0.140713, 0, 0
1, 3240.00000, 0.324208, 0.138112, 0.32546, 0.138646, 0.330313, 0.140713, 0, 0
1, 3300.00000, 0.324208, 0.138112, 0.32546, 0.138646, 0.330313, 0.140713, 0, 0
1, 3360.00000, 0.324208, 0.138112, 0.32546, 0.138646, 0.330313, 0.140713, 0, 0
1, 3420.00000, 0.324208, 0.138112, 0.32546, 0.138646, 0.330313, 0.140713, 0, 0
1, 3480.00000, 0.324208, 0.138112, 0.32546, 0.138646, 0.330313, 0.140713, 0, 0
1, 3540.00000, 0.324208, 0.138112, 0.32546, 0.138646, 0.330313, 0.140713, 0, 0
2, 0.00000, 0.324208, 0.138112, 0.32546, 0.138646, 0.330313, 0.140713, 0, 0
2, 60.00000, 0.319074, 0.135924, 0.320343, 0.136466, 0.325105, 0.138492, 0, 0
2, 120.00000, 0.319073, 0.135925, 0.320338, 0.136464, 0.325094, 0.138489, 0, 0
2, 180.00000, 0.319073, 0.135925, 0.320338, 0.136464, 0.325094, 0.138489, 0, 0
2, 240.00000, 0.319073, 0.135925, 0.320338, 0.136464, 0.325094, 0.138489, 0, 0
2, 300.00000, 0.319073, 0.135925, 0.320338, 0.136464, 0.325094, 0.138489, 0, 0
2, 360.00000, 0.319073, 0.135925, 0.320338, 0.136464, 0.325094, 0.138489, 0, 0
2, 420.00000, 0.319073, 0.135925, 0.320338, 0.136464, 0.325094, 0.138489, 0, 0
2, 480.00000, 0.319073, 0.135925, 0.320338, 0.136464, 0.325094, 0.138489, 0, 0
2, 540.00000, 0.319073, 0.135925, 0.320338, 0.136464, 0.325094, 0.138489, 0, 0
2, 600.00000, 0.319073, 0.135925, 0.320338, 0.136464, 0.325094, 0.138489, 0, 0
2, 660.00000, 0.319073, 0.135925, 0.320338, 0.136464, 0.325094, 0.138489, 0, 0
2, 720.00000, 0.319073, 0.135925, 0.320338, 0.136464, 0.325094, 0.138489, 0, 0
2, 780.00000, 0.319073, 0.135925, 0.320338, 0.136464, 0.325094, 0.138489, 0, 0
2, 840.00000, 0.319073, 0.135925, 0.320338, 0.136464, 0.325094, 0.138489, 0, 0
2, 900.00000, 0.319073, 0.135925, 0.320338, 0.136464, 0.325094, 0.138489, 0, 0
2, 960.00000, 0.291211, 0.124057, 0.292315, 0.124525, 0.296664, 0.126381, 0, 0
2, 1020.00000, 0.291213, 0.124056, 0.29232, 0.124528, 0.296677, 0.126384, 0, 0
2, 1080.00000, 0.291213, 0.124056, 0.29232, 0.124528, 0.296678, 0.126384, 0, 0
2, 1140.00000, 0.291213, 0.124056, 0.29232, 0.124528, 0.296678, 0.126384, 0, 0
2, 1200.00000, 0.291213, 0.124056, 0.29232, 0.124528, 0.296678, 0.126384, 0, 0
2, 1260.00000, 0.291213, 0.124056, 0.29232, 0.124528, 0.296678, 0.126384, 0, 0
2, 1320.00000, 0.291213, 0.124056, 0.29232, 0.124528, 0.296678, 0.126384, 0, 0
2, 1380.00000, 0.291213, 0.124056, 0.29232, 0.124528, 0.296678, 0.126384, 0, 0
2, 1440.00000, 0.291213, 0.124056, 0.29232, 0.124528, 0.296678, 0.126384, 0, 0
2, 1500.00000, 0.291213, 0.124056, 0.29232, 0.124528, 0.296678, 0.126384, 0, 0
2, 1560.00000, 0.291213, 0.124056, 0.29232, 0.124528, 0.296678, 0.126384, 0, 0
2, 1620.00000, 0.291213, 0.124056, 0.29232, 0.124528, 0.296678, 0.126384, 0, 0
2, 1680.00000, 0.291213, 0.124056, 0.29232, 0.124528, 0.296678, 0.126384, 0, 0
2, 1740.00000, 0.291213, 0.124056, 0.29232, 0.124528, 0.296678, 0.126384, 0, 0
2, 1800.00000, 0.291213, 0.124056, 0.29232, 0.124528, 0.296678, 0.126384, 0, 0
2, 1860.00000, 0.314826, 0.134114, 0.316055, 0.134639, 0.320756, 0.136641, 0, 0
2, 1920.00000, 0.314825, 0.134115, 0.316053, 0.134638, 0.32075, 0.136639, 0, 0
2, 1980.00000, 0.314825, 0.134115, 0.316053, 0.134638, 0.32075, 0.136639, 0, 0
2, 2040.00000, 0.314825, 0.134115, 0.316053, 0.134638, 0.32075, 0.136639, 0, 0
2, 2100.00000, 0.314825, 0.134115, 0.316053, 0.134638, 0.32075, 0.136639, 0, 0
2, 2160.00000, 0.314825, 0.134115, 0.316053, 0.134638, 0.32075, 0.136639, 0, 0
2, 2220.00000, 0.314825, 0.134115, 0.316053, 0.134638, 0.32075, 0.136639, 0, 0
2, 2280.00000, 0.314825, 0.134115, 0.316053, 0.134638, 0.32075, 0.136639, 0, 0
2, 2340.00000, 0.314825, 0.134115, 0.316053, 0.134638, 0.32075, 0.136639, 0, 0
2, 2400.00000, 0.314825, 0.134115, 0.316053, 0.134638, 0.32075, 0.136639, 0, 0
2, 2460.00000, 0.314825, 0.134115, 0.316053, 0.134638, 0.32075, 0.136639, 0, 0
2, 2520.00000, 0.314825, 0.134115, 0.316053, 0.134638, 0.32075, 0.136639, 0, 0
2, 2580.00000, 0.314825, 0.134115, 0.316053, 0.134638, 0.32075, 0.136639, 0, 0
2, 2640.00000, 0.314825, 0.134115, 0.316053, 0.134638, 0.32075, 0.136639, 0, 0
2, 2700.00000, 0.314825, 0.134115, 0.316053, 0.134638, 0.32075, 0.136639, 0, 0
2, 2760.00000, 0.270782, 0.115355, 0.271777, 0.115777, 0.275504, 0.117367, 0, 0
2, 2820.00000, 0.270787, 0.115355, 0.271785, 0.11578, 0.275494, 0.11736, 0, 0
2, 2880.00000, 0.270787, 0.115355, 0.271785, 0.11578, 0.275494, 0.11736, 0, 0
2, 2940.00000, 0.270787, 0.115355, 0.271785, 0.11578, 0.275494, 0.11736, 0, 0
2, 3000.00000, 0.270787, 0.115355, 0.271785, 0.11578, 0.275494, 0.11736, 0, 0
2, 3060.00000, 0.270787, 0.115355, 0.271785, 0.11578, 0.275494, 0.11736, 0, 0
2, 3120.00000, 0.270787, 0.115355, 0.271785, 0.11578, 0.275494, 0.11736, 0, 0
2, 3180.00000, 0.270787, 0.115355, 0.271785, 0.11578, 0.275494, 0.11736, 0, 0
2, 3240.00000, 0.270787, 0.115355, 0.271785, 0.11578, 0.275494, 0.11736, 0, 0
2, 3300.00000, 0.270787, 0.115355, 0.271785, 0.11578, 0.275494, 0.11736, 0, 0
2, 3360.00000, 0.270787, 0.115355, 0.271785, 0.11578, 0.275494, 0.11736, 0, 0
2, 3420.00000, 0.270787, 0.115355, 0.271785, 0.11578, 0.275494, 0.11736, 0, 0
2, 3480.00000, 0.270787, 0.115355, 0.271785, 0.11578, 0.275494, 0.11736, 0, 0
2, 3540.00000, 0.270787, 0.115355, 0.271785, 0.11578, 0.275494, 0.11736, 0, 0
3, 0.00000, 0.270787, 0.115355, 0.271785, 0.11578, 0.275494, 0.11736, 0, 0
3, 60.00000, 0.246703, 0.105094, 0.247627, 0.105488, 0.251321, 0.107061, 0, 0
3, 120.00000, 0.2467, 0.105094, 0.247624, 0.105487, 0.251314, 0.107059, 0, 0
3, 180.00000, 0.2467, 0.105094, 0.247623, 0.105487, 0.251314, 0.107059, 0, 0
3, 240.00000, 0.2467, 0.105094, 0.247623, 0.105487, 0.251314, 0.107059, 0, 0
3, 300.00000, 0.2467, 0.105094, 0.247623, 0.105487, 0.251314, 0.107059, 0, 0
3, 360.00000, 0.2467, 0.105094, 0.247623, 0.105487, 0.251314, 0.107059, 0, 0
3, 420.00000, 0.2467, 0.105094, 0.247623, 0.105487, 0.251314, 0.107059, 0, 0
3, 480.00000, 0.2467, 0.105094, 0.247623, 0.105487, 0.251314, 0.107059, 0, 0
3, 540.00000, 0.2467, 0.105094, 0.247623, 0.105487, 0.251314, 0.107059, 0, 0
3, 600.00000, 0.2467, 0.105094, 0.247623, 0.105487, 0.251314, 0.107059, 0, 0
3, 660.00000, 0.2467, 0.105094, 0.247623, 0.105487, 0.251314, 0.107059, 0, 0
3, 720.00000, 0.2467, 0.105094, 0.247623, 0.105487, 0.251314, 0.107059, 0, 0
3, 780.00000, 0.2467, 0.105094, 0.247623, 0.105487, 0.251314, 0.107059, 0, 0
3, 840.00000, 0.2467, 0.105094, 0.247623, 0.105487, 0.251314, 0.107059, 0, 0
3, 900.00000, 0.2467, 0.105094, 0.247623, 0.105487, 0.251314, 0.107059, 0, 0
3, 960.00000, 0.287365, 0.12242, 0.288435, 0.122873, 0.292736, 0.124708, 0, 0
3, 1020.00000, 0.287373, 0.12242, 0.288446, 0.122877, 0.292757, 0.124714, 0, 0
3, 1080.00000, 0.287373, 0.12242, 0.288446, 0.122877, 0.292757, 0.124714, 0, 0
3, 1140.00000, 0.287373, 0.12242, 0.288446, 0.122877, 0.292757, 0.124714, 0, 0
3, 1200.00000, 0.287373, 0.12242, 0.288446, 0.122877, 0.292757, 0.124714, 0, 0
3, 1260.00000, 0.287373, 0.12242, 0.288446, 0.122877, 0.292757, 0.124714, 0, 0
3, 1320.00000, 0.287373, 0.12242, 0.288446, 0.122877, 0.292757, 0.124714, 0, 0
3, 1380.00000, 0.287373, 0.12242, 0.288446, 0.122877, 0.292757, 0.124714, 0, 0
3, 1440.00000, 0.287373, 0.12242, 0.288446, 0.122877, 0.292757, 0.124714, 0, 0
3, 1500.00000, 0.287373, 0.12242, 0.288446, 0.122877, 0.292757, 0.124714, 0, 0
3, 1560.00000, 0.287373, 0.12242, 0.288446, 0.122877, 0.292757, 0.124714, 0, 0
3, 1620.00000, 0.287373, 0.12242, 0.288446, 0.122877, 0.292757, 0.124714, 0, 0
3, 1680.00000, 0.287373, 0.12242, 0.288446, 0.122877, 0.292757, 0.124714, 0, 0
3, 1740.00000, 0.287373, 0.12242, 0.288446, 0.122877, 0.292757, 0.124714, 0, 0
3, 1800.00000, 0.287373, 0.12242, 0.288446, 0.122877, 0.292757, 0.124714, 0, 0
3, 1860.00000, 0.309885, 0.132013, 0.311045, 0.132507, 0.315697, 0.134489, 0, 0
3, 1920.00000, 0.309893, 0.132014, 0.311053, 0.132508, 0.315708, 0.134491, 0, 0
3, 1980.00000, 0.309893, 0.132014, 0.311053, 0.132508, 0.315708, 0.134491, 0, 0
3, 2040.00000, 0.309893, 0.132014, 0.311053, 0.132508, 0.315708, 0.134491, 0, 0
3, 2100.00000, 0.309893, 0.132014, 0.311053, 0.132508, 0.315708, 0.134491, 0, 0
3, 2160.00000, 0.309893, 0.132014, 0.311053, 0.132508, 0.315708, 0.134491, 0, 0
3, 2220.00000, 0.309893, 0.132014, 0.311053, 0.132508, 0.315708, 0.134491, 0, 0
3, 2280.00000, 0.309893, 0.132014, 0.311053, 0.132508, 0.315708, 0.134491, 0, 0
3, 2340.00000, 0.309893, 0.132014, 0.311053, 0.132508, 0.315708, 0.134491, 0, 0
3, 2400.00000, 0.309893, 0.132014, 0.311053, 0.132508, 0.315708, 0.134491, 0, 0
3, 2460.00000, 0.309893, 0.132014, 0.311053, 0.132508, 0.315708, 0.134491, 0, 0
3, 2520.00000, 0.309893, 0.132014, 0.311053, 0.132508, 0.315708, 0.134491, 0, 0
3, 2580.00000, 0.309893, 0.132014, 0.311053, 0.132508, 0.315708, 0.134491, 0, 0
3, 2640.00000, 0.309893, 0.132014, 0.311053, 0.132508, 0.315708, 0.134491, 0, 0
3, 2700.00000, 0.309893, 0.132014, 0.311053, 0.132508, 0.315708, 0.134491, 0, 0
3, 2760.00000, 0.277843, 0.118363, 0.278814, 0.118774, 0.281372, 0.119866, 0, 0
3, 2820.00000, 0.27785, 0.118364, 0.278822, 0.118778, 0.281362, 0.11986, 0, 0
3, 2880.00000, 0.27785, 0.118364, 0.278822, 0.118778, 0.281361, 0.119859, 0, 0
3, 2940.00000, 0.27785, 0.118364, 0.278822, 0.118778, 0.281361, 0.119859, 0, 0
3, 3000.00000, 0.27785, 0.118364, 0.278822, 0.118778, 0.281361, 0.119859, 0, 0
3, 3060.00000, 0.27785, 0.118364, 0.278822, 0.118778, 0.281361, 0.119859, 0, 0
3, 3120.00000, 0.27785, 0.118364, 0.278822, 0.118778, 0.281361, 0.119859, 0, 0
3, 3180.00000, 0.27785, 0.118364, 0.278822, 0.118778, 0.281361, 0.119859, 0, 0
3, 3240.00000, 0.27785, 0.118364, 0.278822, 0.118778, 0.281361, 0.119859, 0, 0
3, 3300.00000, 0.27785, 0.118364, 0.278822, 0.118778, 0.281361, 0.119859, 0, 0
3, 3360.00000, 0.27785, 0.118364, 0.278822, 0.118778, 0.281361, 0.119859, 0, 0
3, 3420.00000, 0.27785, 0.118364, 0.278822, 0.118778, 0.281361, 0.119859, 0, 0
3, 3480.00000, 0.27785, 0.118364, 0.278822, 0.118778, 0.281361, 0.119859, 0, 0
3, 3540.00000, 0.27785, 0.118364, 0.278822, 0.118778, 0.281361, 0.119859, 0, 0
4, 0.00000, 0.27785, 0.118364, 0.278822, 0.118778, 0.281361, 0.119859, 0, 0
4, 60.00000, 0.291999, 0.12439, 0.29308, 0.124852, 0.297166, 0.126591, 0, 0
4, 120.00000, 0.291994, 0.124389, 0.293074, 0.124849, 0.297174, 0.126596, 0, 0
4, 180.00000, 0.291994, 0.124389, 0.293074, 0.124849, 0.297174, 0.126596, 0, 0
4, 240.00000, 0.291994, 0.124389, 0.293074, 0.124849, 0.297174, 0.126596, 0, 0
4, 300.00000, 0.291994, 0.124389, 0.293074, 0.124849, 0.297174, 0.126596, 0, 0
4, 360.00000, 0.291994, 0.124389, 0.293074, 0.124849, 0.297174, 0.126596, 0, 0
4, 420.00000, 0.291994, 0.124389, 0.293074, 0.124849, 0.297174, 0.126596, 0, 0
4, 480.00000, 0.291994, 0.124389, 0.293074, 0.124849, 0.297174, 0.126596, 0, 0
4, 540.00000, 0.291994, 0.124389, 0.293074, 0.124849, 0.297174, 0.126596, 0, 0
4, 600.00000, 0.291994, 0.124389, 0.293074, 0.124849, 0.297174, 0.126596, 0, 0
4, 660.00000, 0.291994, 0.124389, 0.293074, 0.124849, 0.297174, 0.126596, 0, 0
4, 720.00000, 0.291994, 0.124389, 0.293074, 0.124849, 0.297174, 0.126596, 0, 0
