hour,t(sec),V1,VAngle1,V2,VAngle2,V3,VAngle3,V4,VAngle4,I1,IAngle1,I2,IAngle2,I3,IAngle3,I4,IAngle4
0, 60.00000, 117.352, -33.4599, 116.305, -151.76, 120.524, 87.8427, 0, 0, 5.14491, -56.5335, 5.09375, -174.833, 5.29931, 64.7701, 0.0488595, -118.003
0, 120.00000, 117.347, -33.485, 116.304, -151.76, 120.568, 87.8279, 0, 0, 5.14468, -56.5587, 5.0937, -174.833, 5.30145, 64.7552, 0.0492281, -118.034
0, 180.00000, 117.343, -33.5076, 116.303, -151.76, 120.607, 87.8146, 0, 0, 5.14447, -56.5813, 5.09365, -174.834, 5.30337, 64.7418, 0.0495597, -118.061
0, 240.00000, 117.339, -33.528, 116.302, -151.76, 120.643, 87.8026, 0, 0, 5.14428, -56.6017, 5.09361, -174.834, 5.30509, 64.7297, 0.049858, -118.085
0, 300.00000, 117.336, -33.5464, 116.301, -151.76, 120.674, 87.7918, 0, 0, 5.1441, -56.6201, 5.09357, -174.834, 5.30599, 64.7187, 0.0494673, -118.144
0, 360.00000, 117.333, -33.5628, 116.301, -151.76, 120.703, 87.782, 0, 0, 5.14394, -56.6366, 5.09353, -174.834, 5.30472, 64.7089, 0.0470499, -118.323
0, 420.00000, 117.33, -33.5777, 116.3, -151.761, 120.73, 87.7733, 0, 0, 5.1438, -56.6515, 5.0935, -174.834, 5.30357, 64.7001, 0.0448688, -118.493
0, 480.00000, 118.311, -33.4998, 117.22, -151.687, 121.787, 87.8804, 0, 0, 4.51673, -56.5736, 4.47039, -174.76, 4.57409, 64.8071, 0.0422549, 66.9264
0, 540.00000, 118.309, -33.5118, 117.22, -151.687, 121.81, 87.8733, 0, 0, 4.51661, -56.5856, 4.47036, -174.761, 4.57323, 64.8, 0.0438283, 66.8311
0, 600.00000, 118.306, -33.5226, 117.219, -151.687, 121.831, 87.8669, 0, 0, 4.5165, -56.5964, 4.47034, -174.761, 4.57244, 64.7935, 0.0452481, 66.7467
0, 660.00000, 118.304, -33.5323, 117.219, -151.688, 121.849, 87.8612, 0, 0, 4.51641, -56.6061, 4.47032, -174.761, 4.57174, 64.7878, 0.0465257, 66.6747
0, 720.00000, 118.302, -33.5411, 117.218, -151.688, 121.866, 87.856, 0, 0, 4.51632, -56.6149, 4.47031, -174.762, 4.57111, 64.7825, 0.0476752, 66.6129
0, 780.00000, 118.301, -33.5489, 117.218, -151.688, 121.881, 87.8514, 0, 0, 4.51624, -56.6228, 4.47029, -174.762, 4.57054, 64.7778, 0.0487096, 66.5595
0, 840.00000, 118.299, -33.556, 117.218, -151.688, 121.895, 87.8472, 0, 0, 4.51617, -56.6299, 4.47028, -174.762, 4.57003, 64.7736, 0.0496402, 66.5132
0, 900.00000, 118.298, -33.5624, 117.217, -151.688, 121.907, 87.8434, 0, 0, 4.51611, -56.6362, 4.47026, -174.762, 4.56956, 64.7698, 0.0504777, 66.4729
0, 960.00000, 116.6, -34.1968, 115.301, -151.272, 121.994, 87.8061, 0, 0, 4.44413, -57.2707, 4.38899, -174.346, 4.56628, 64.7325, 0.044435, 69.2597
0, 1020.00000, 116.599, -34.202, 115.301, -151.272, 122.004, 87.8031, 0, 0, 4.44408, -57.2759, 4.38898, -174.346, 4.56591, 64.7294, 0.045105, 69.1815
0, 1080.00000, 116.598, -34.2067, 115.3, -151.273, 122.013, 87.8003, 0, 0, 4.44403, -57.2806, 4.38898, -174.346, 4.56557, 64.7266, 0.0457087, 69.1125
0, 1140.00000, 116.702, -34.0688, 115.606, -151.243, 122.016, 87.8034, 0, 0, 4.44843, -57.1427, 4.40193, -174.317, 4.56544, 64.7297, 0.0476055, 67.947
0, 1200.00000, 116.701, -34.0726, 115.606, -151.244, 122.024, 87.8011, 0, 0, 4.44839, -57.1465, 4.40193, -174.317, 4.56517, 64.7274, 0.0480959, 67.9065
0, 1260.00000, 116.7, -34.076, 115.606, -151.244, 122.03, 87.7991, 0, 0, 4.44836, -57.1499, 4.40193, -174.317, 4.56493, 64.7254, 0.0485372, 67.8706
0, 1320.00000, 116.7, -34.0791, 115.606, -151.244, 122.036, 87.7973, 0, 0, 4.44833, -57.153, 4.40192, -174.318, 4.56471, 64.7235, 0.0489343, 67.8388
0, 1380.00000, 116.699, -34.0818, 115.606, -151.244, 122.041, 87.7957, 0, 0, 4.4483, -57.1558, 4.40192, -174.318, 4.56451, 64.7219, 0.0492917, 67.8106
0, 1440.00000, 116.699, -34.0843, 115.606, -151.244, 122.046, 87.7942, 0, 0, 4.44828, -57.1582, 4.40192, -174.318, 4.56434, 64.7204, 0.0496133, 67.7855
0, 1500.00000, 116.698, -34.0865, 115.606, -151.244, 122.05, 87.7929, 0, 0, 4.44825, -57.1605, 4.40191, -174.318, 4.56418, 64.7191, 0.0499027, 67.7632
0, 1560.00000, 116.698, -34.0886, 115.606, -151.244, 122.054, 87.7917, 0, 0, 4.44824, -57.1625, 4.40191, -174.318, 4.56403, 64.7179, 0.0501632, 67.7433
0, 1620.00000, 116.697, -34.0904, 115.606, -151.244, 122.057, 87.7906, 0, 0, 4.44822, -57.1643, 4.40191, -174.318, 4.5639, 64.7168, 0.0503976, 67.7256
0, 1680.00000, 116.697, -34.092, 115.605, -151.244, 122.06, 87.7896, 0, 0, 4.4482, -57.1659, 4.40191, -174.318, 4.56379, 64.7158, 0.0506086, 67.7098
0, 1740.00000, 116.697, -34.0935, 115.605, -151.244, 122.063, 87.7888, 0, 0, 4.44819, -57.1674, 4.40191, -174.318, 4.56368, 64.7149, 0.0507985, 67.6956
0, 1800.00000, 115.728, -33.9168, 115.619, -151.229, 121.11, 87.492, 0, 0, 4.40709, -56.9907, 4.4025, -174.303, 4.59958, 64.4181, 0.0171021, -111.324
0, 1860.00000, 115.727, -33.918, 115.619, -151.229, 121.113, 87.4913, 0, 0, 4.40708, -56.9919, 4.4025, -174.303, 4.59949, 64.4174, 0.0169507, -111.286
0, 1920.00000, 115.727, -33.919, 115.619, -151.229, 121.114, 87.4907, 0, 0, 4.40707, -56.993, 4.4025, -174.303, 4.59942, 64.4168, 0.0168141, -111.25
0, 1980.00000, 115.727, -33.92, 115.619, -151.229, 121.116, 87.4901, 0, 0, 4.40706, -56.9939, 4.40249, -174.303, 4.59935, 64.4162, 0.0166912, -111.217
0, 2040.00000, 115.727, -33.9209, 115.619, -151.229, 121.118, 87.4896, 0, 0, 4.40705, -56.9948, 4.40249, -174.303, 4.59929, 64.4157, 0.0165806, -111.187
0, 2100.00000, 115.727, -33.9216, 115.619, -151.229, 121.119, 87.4892, 0, 0, 4.40705, -56.9956, 4.40249, -174.303, 4.59924, 64.4153, 0.0164811, -111.16
0, 2160.00000, 115.726, -33.9223, 115.619, -151.229, 121.12, 87.4888, 0, 0, 4.40704, -56.9963, 4.40249, -174.303, 4.59919, 64.4149, 0.0163915, -111.135
0, 2220.00000, 115.726, -33.923, 115.619, -151.229, 121.122, 87.4884, 0, 0, 4.40704, -56.9969, 4.40249, -174.303, 4.59915, 64.4145, 0.0163109, -111.113
0, 2280.00000, 115.726, -33.9235, 115.619, -151.229, 121.123, 87.4881, 0, 0, 4.40703, -56.9974, 4.40249, -174.303, 4.59911, 64.4142, 0.0162383, -111.092
0, 2340.00000, 115.726, -33.924, 115.619, -151.229, 121.124, 87.4878, 0, 0, 4.40703, -56.9979, 4.40249, -174.303, 4.59907, 64.4139, 0.016173, -111.074
0, 2400.00000, 115.726, -33.9245, 115.619, -151.229, 121.124, 87.4875, 0, 0, 4.40702, -56.9984, 4.40249, -174.303, 4.59904, 64.4136, 0.0161142, -111.057
0, 2460.00000, 115.726, -33.9249, 115.619, -151.229, 121.125, 87.4873, 0, 0, 4.40702, -56.9988, 4.40249, -174.303, 4.59901, 64.4134, 0.0160614, -111.041
0, 2520.00000, 115.726, -33.9253, 115.619, -151.229, 121.126, 87.487, 0, 0, 4.40702, -56.9992, 4.40249, -174.303, 4.59899, 64.4131, 0.0160138, -111.027
0, 2580.00000, 115.726, -33.9256, 115.619, -151.229, 121.126, 87.4868, 0, 0, 4.40701, -56.9995, 4.40249, -174.303, 4.59896, 64.4129, 0.0159709, -111.015
0, 2640.00000, 115.726, -33.9259, 115.619, -151.229, 121.127, 87.4867, 0, 0, 4.40701, -56.9998, 4.40249, -174.303, 4.59894, 64.4128, 0.0159324, -111.004
0, 2700.00000, 115.726, -33.9262, 115.619, -151.229, 121.127, 87.4865, 0, 0, 4.40701, -57.0001, 4.40249, -174.303, 4.59892, 64.4126, 0.0158977, -110.993
0, 2760.00000, 116.095, -33.9046, 115.616, -151.231, 121.321, 87.6403, 0, 0, 4.42266, -56.9785, 4.40235, -174.305, 4.5916, 64.5664, 0.00209511, -133.79
0, 2820.00000, 116.095, -33.9048, 115.616, -151.231, 121.321, 87.6402, 0, 0, 4.42266, -56.9787, 4.40235, -174.305, 4.59158, 64.5663, 0.00206593, -134.032
0, 2880.00000, 116.095, -33.905, 115.616, -151.231, 121.322, 87.6401, 0, 0, 4.42266, -56.9789, 4.40235, -174.305, 4.59156, 64.5662, 0.00204181, -134.257
0, 2940.00000, 116.095, -33.9052, 115.616, -151.231, 121.322, 87.64, 0, 0, 4.42266, -56.9791, 4.40235, -174.305, 4.59155, 64.5661, 0.00202013, -134.464
0, 3000.00000, 116.095, -33.9053, 115.616, -151.231, 121.322, 87.6399, 0, 0, 4.42265, -56.9793, 4.40235, -174.305, 4.59154, 64.566, 0.00200063, -134.655
0, 3060.00000, 116.095, -33.9055, 115.616, -151.231, 121.322, 87.6398, 0, 0, 4.42265, -56.9794, 4.40235, -174.305, 4.59153, 64.5659, 0.00198311, -134.829
0, 3120.00000, 116.095, -33.9056, 115.616, -151.231, 121.323, 87.6397, 0, 0, 4.42265, -56.9795, 4.40235, -174.305, 4.59152, 64.5658, 0.00196736, -134.989
0, 3180.00000, 116.095, -33.9057, 115.616, -151.231, 121.323, 87.6396, 0, 0, 4.42265, -56.9796, 4.40235, -174.305, 4.59151, 64.5657, 0.00195319, -135.135
0, 3240.00000, 116.095, -33.9058, 115.616, -151.231, 121.323, 87.6396, 0, 0, 4.42265, -56.9797, 4.40235, -174.305, 4.59151, 64.5657, 0.00194045, -135.268
0, 3300.00000, 116.095, -33.9059, 115.616, -151.231, 121.323, 87.6395, 0, 0, 4.42265, -56.9798, 4.40235, -174.305, 4.5915, 64.5656, 0.001929, -135.389
0, 3360.00000, 116.095, -33.906, 115.616, -151.231, 121.323, 87.6395, 0, 0, 4.42265, -56.9799, 4.40235, -174.305, 4.59149, 64.5656, 0.00191869, -135.5
0, 3420.00000, 116.095, -33.9061, 115.616, -151.231, 121.324, 87.6394, 0, 0, 4.42265, -56.98, 4.40235, -174.305, 4.59149, 64.5655, 0.00190943, -135.6
0, 3480.00000, 116.095, -33.9062, 115.616, -151.231, 121.324, 87.6394, 0, 0, 4.42265, -56.9801, 4.40235, -174.305, 4.59148, 64.5655, 0.00190109, -135.691
0, 3540.00000, 116.095, -33.9062, 115.616, -151.231, 121.324, 87.6394, 0, 0, 4.42265, -56.9801, 4.40235, -174.305, 4.59148, 64.5654, 0.0018936, -135.774
1, 0.00000, 116.095, -33.9063, 115.616, -151.231, 121.324, 87.6393, 0, 0, 4.42265, -56.9802, 4.40235, -174.305, 4.59147, 64.5654, 0.00188685, -135.849
1, 60.00000, 116.195, -33.7682, 115.913, -151.204, 121.32, 87.6443, 0, 0, 4.42692, -56.8421, 4.41497, -174.278, 4.59161, 64.5704, 0.00052907, -86.8547
1, 120.00000, 116.195, -33.7682, 115.913, -151.204, 121.32, 87.6443, 0, 0, 4.42692, -56.8421, 4.41497, -174.278, 4.59161, 64.5704, 0.000523875, -86.5451
1, 180.00000, 116.195, -33.7682, 115.913, -151.204, 121.32, 87.6443, 0, 0, 4.42692, -56.8422, 4.41497, -174.278, 4.5916, 64.5704, 0.000519302, -86.2638
1, 240.00000, 116.195, -33.7683, 115.913, -151.204, 121.321, 87.6443, 0, 0, 4.42692, -56.8422, 4.41497, -174.278, 4.5916, 64.5704, 0.000515197, -86.0064
1, 300.00000, 116.195, -33.7683, 115.913, -151.204, 121.321, 87.6442, 0, 0, 4.42692, -56.8422, 4.41497, -174.278, 4.5916, 64.5703, 0.000511511, -85.7713
1, 360.00000, 116.195, -33.7683, 115.913, -151.204, 121.321, 87.6442, 0, 0, 4.42692, -56.8423, 4.41497, -174.278, 4.5916, 64.5703, 0.000508202, -85.5567
1, 420.00000, 116.195, -33.7684, 115.913, -151.204, 121.321, 87.6442, 0, 0, 4.42692, -56.8423, 4.41497, -174.278, 4.5916, 64.5703, 0.000505229, -85.3612
1, 480.00000, 116.195, -33.7684, 115.913, -151.204, 121.321, 87.6442, 0, 0, 4.42692, -56.8423, 4.41497, -174.278, 4.59159, 64.5703, 0.000502559, -85.1832
1, 540.00000, 116.195, -33.7684, 115.913, -151.204, 121.321, 87.6442, 0, 0, 4.42692, -56.8423, 4.41497, -174.278, 4.59159, 64.5703, 0.00050016, -85.0214
1, 600.00000, 116.195, -33.7684, 115.913, -151.204, 121.321, 87.6442, 0, 0, 4.42692, -56.8424, 4.41497, -174.278, 4.59159, 64.5703, 0.000498005, -84.8745
1, 660.00000, 116.195, -33.7685, 115.913, -151.204, 121.321, 87.6442, 0, 0, 4.42692, -56.8424, 4.41497, -174.278, 4.59159, 64.5702, 0.000496068, -84.7412
1, 720.00000, 116.195, -33.7685, 115.913, -151.204, 121.321, 87.6442, 0, 0, 4.42692, -56.8424, 4.41497, -174.278, 4.59159, 64.5702, 0.000494326, -84.6203
1, 780.00000, 116.208, -33.7745, 116.216, -151.021, 121.919, 87.6227, 0, 0, 4.42746, -56.8484, 4.4278, -174.095, 4.56908, 64.5488, 0.0415436, 61.8557
1, 840.00000, 116.208, -33.7745, 116.216, -151.021, 121.919, 87.6227, 0, 0, 4.42746, -56.8484, 4.4278, -174.095, 4.56908, 64.5488, 0.041547, 61.8546
1, 900.00000, 116.208, -33.7745, 116.216, -151.021, 121.919, 87.6227, 0, 0, 4.42746, -56.8484, 4.4278, -174.095, 4.56908, 64.5488, 0.0415485, 61.8546
1, 960.00000, 116.208, -33.7745, 116.216, -151.021, 121.919, 87.6227, 0, 0, 4.42746, -56.8484, 4.4278, -174.095, 4.56907, 64.5488, 0.0415499, 61.8547
1, 1020.00000, 116.208, -33.7745, 116.216, -151.021, 121.919, 87.6227, 0, 0, 4.42746, -56.8485, 4.4278, -174.095, 4.56907, 64.5488, 0.0415511, 61.8547
1, 1080.00000, 116.208, -33.7745, 116.216, -151.021, 121.919, 87.6227, 0, 0, 4.42746, -56.8485, 4.4278, -174.095, 4.56907, 64.5488, 0.0415522, 61.8548
1, 1140.00000, 116.208, -33.7746, 116.216, -151.021, 121.919, 87.6227, 0, 0, 4.42746, -56.8485, 4.4278, -174.095, 4.56907, 64.5488, 0.0415532, 61.8548
1, 1200.00000, 116.208, -33.7746, 116.216, -151.021, 121.919, 87.6227, 0, 0, 4.42746, -56.8485, 4.4278, -174.095, 4.56907, 64.5488, 0.0415541, 61.8549
1, 1260.00000, 116.208, -33.7746, 116.216, -151.021, 121.919, 87.6227, 0, 0, 4.42746, -56.8485, 4.4278, -174.095, 4.56907, 64.5488, 0.0415549, 61.8549
1, 1320.00000, 116.208, -33.7746, 116.216, -151.021, 121.919, 87.6227, 0, 0, 4.42746, -56.8485, 4.4278, -174.095, 4.56907, 64.5488, 0.0415556, 61.8549
1, 1380.00000, 116.208, -33.7746, 116.216, -151.021, 121.919, 87.6227, 0, 0, 4.42746, -56.8485, 4.4278, -174.095, 4.56907, 64.5488, 0.0415562, 61.855
1, 1440.00000, 116.208, -33.7746, 116.216, -151.021, 121.919, 87.6227, 0, 0, 4.42746, -56.8485, 4.4278, -174.095, 4.56907, 64.5488, 0.0415568, 61.855
1, 1500.00000, 116.208, -33.7746, 116.216, -151.021, 121.919, 87.6227, 0, 0, 4.42746, -56.8485, 4.4278, -174.095, 4.56907, 64.5488, 0.0415573, 61.855
1, 1560.00000, 116.208, -33.7746, 116.216, -151.021, 121.919, 87.6227, 0, 0, 4.42746, -56.8485, 4.4278, -174.095, 4.56907, 64.5488, 0.0415578, 61.855
1, 1620.00000, 116.208, -33.7746, 116.216, -151.021, 121.919, 87.6227, 0, 0, 4.42746, -56.8485, 4.4278, -174.095, 4.56907, 64.5488, 0.0415582, 61.8551
1, 1680.00000, 116.208, -33.7746, 116.216, -151.021, 121.919, 87.6227, 0, 0, 4.42746, -56.8485, 4.4278, -174.095, 4.56907, 64.5488, 0.0415586, 61.8551
1, 1740.00000, 116.208, -33.7746, 116.216, -151.021, 121.919, 87.6227, 0, 0, 4.42746, -56.8485, 4.4278, -174.095, 4.56907, 64.5488, 0.0415589, 61.8551
1, 1800.00000, 116.208, -33.7746, 116.216, -151.021, 121.919, 87.6227, 0, 0, 4.42746, -56.8485, 4.4278, -174.095, 4.56907, 64.5488, 0.0415592, 61.8551
1, 1860.00000, 116.208, -33.7746, 116.216, -151.021, 121.919, 87.6227, 0, 0, 4.42746, -56.8485, 4.4278, -174.095, 4.56907, 64.5488, 0.0415595, 61.8551
1, 1920.00000, 116.208, -33.7746, 116.216, -151.021, 121.919, 87.6227, 0, 0, 4.42746, -56.8485, 4.4278, -174.095, 4.56907, 64.5488, 0.0415598, 61.8551
1, 1980.00000, 116.208, -33.7746, 116.216, -151.021, 121.919, 87.6227, 0, 0, 4.42746, -56.8485, 4.4278, -174.095, 4.56907, 64.5488, 0.04156, 61.8551
1, 2040.00000, 116.208, -33.7746, 116.216, -151.021, 121.919, 87.6227, 0, 0, 4.42746, -56.8485, 4.4278, -174.095, 4.56907, 64.5488, 0.0415602, 61.8551
1, 2100.00000, 116.208, -33.7746, 116.216, -151.021, 121.919, 87.6227, 0, 0, 4.42746, -56.8485, 4.4278, -174.095, 4.56907, 64.5488, 0.0415604, 61.8551
1, 2160.00000, 116.208, -33.7746, 116.216, -151.021, 121.919, 87.6227, 0, 0, 4.42746, -56.8485, 4.4278, -174.095, 4.56907, 64.5488, 0.0415605, 61.8552
1, 2220.00000, 117.17, -33.9488, 116.198, -151.039, 122.897, 87.9174, 0, 0, 4.46824, -57.0227, 4.42705, -174.113, 4.53269, 64.8434, 0.109246, 65.7936
1, 2280.00000, 117.17, -33.9488, 116.198, -151.039, 122.897, 87.9174, 0, 0, 4.46824, -57.0227, 4.42705, -174.113, 4.53268, 64.8435, 0.109248, 65.7929
1, 2340.00000, 117.17, -33.9488, 116.198, -151.039, 122.897, 87.9174, 0, 0, 4.46824, -57.0227, 4.42705, -174.113, 4.53268, 64.8435, 0.109248, 65.7929
1, 2400.00000, 117.17, -33.9488, 116.198, -151.039, 122.897, 87.9174, 0, 0, 4.46824, -57.0227, 4.42705, -174.113, 4.53268, 64.8435, 0.109248, 65.7929
1, 2460.00000, 117.17, -33.9488, 116.198, -151.039, 122.897, 87.9174, 0, 0, 4.46824, -57.0227, 4.42705, -174.113, 4.53268, 64.8434, 0.109248, 65.7929
1, 2520.00000, 117.17, -33.9488, 116.198, -151.039, 122.897, 87.9174, 0, 0, 4.46824, -57.0227, 4.42705, -174.113, 4.53268, 64.8434, 0.109248, 65.7929
1, 2580.00000, 117.17, -33.9488, 116.198, -151.039, 122.897, 87.9174, 0, 0, 4.46824, -57.0227, 4.42705, -174.113, 4.53268, 64.8434, 0.109248, 65.7929
1, 2640.00000, 117.17, -33.9488, 116.198, -151.039, 122.897, 87.9174, 0, 0, 4.46824, -57.0227, 4.42705, -174.113, 4.53268, 64.8434, 0.109248, 65.7929
1, 2700.00000, 117.17, -33.9488, 116.198, -151.039, 122.897, 87.9174, 0, 0, 4.46824, -57.0227, 4.42705, -174.113, 4.53268, 64.8434, 0.109249, 65.7929
1, 2760.00000, 117.17, -33.9488, 116.198, -151.039, 122.897, 87.9174, 0, 0, 4.46824, -57.0227, 4.42705, -174.113, 4.53268, 64.8434, 0.109249, 65.7929
1, 2820.00000, 117.17, -33.9488, 116.198, -151.039, 122.897, 87.9174, 0, 0, 4.46824, -57.0227, 4.42705, -174.113, 4.53268, 64.8434, 0.109249, 65.7929
1, 2880.00000, 117.17, -33.9488, 116.198, -151.039, 122.897, 87.9174, 0, 0, 4.46824, -57.0227, 4.42705, -174.113, 4.53268, 64.8434, 0.109249, 65.7929
1, 2940.00000, 117.17, -33.9488, 116.198, -151.039, 122.897, 87.9174, 0, 0, 4.46824, -57.0227, 4.42705, -174.113, 4.53268, 64.8434, 0.109249, 65.7929
1, 3000.00000, 117.17, -33.9488, 116.198, -151.039, 122.897, 87.9174, 0, 0, 4.46824, -57.0227, 4.42705, -174.113, 4.53268, 64.8434, 0.109249, 65.7929
1, 3060.00000, 117.17, -33.9488, 116.198, -151.039, 122.897, 87.9174, 0, 0, 4.46824, -57.0227, 4.42705, -174.113, 4.53268, 64.8434, 0.109249, 65.7929
1, 3120.00000, 117.17, -33.9488, 116.198, -151.039, 122.897, 87.9174, 0, 0, 4.46824, -57.0227, 4.42705, -174.113, 4.53268, 64.8434, 0.109249, 65.7929
1, 3180.00000, 117.17, -33.9488, 116.198, -151.039, 122.897, 87.9174, 0, 0, 4.46824, -57.0227, 4.42705, -174.113, 4.53268, 64.8434, 0.109249, 65.7929
1, 3240.00000, 117.17, -33.9488, 116.198, -151.039, 122.897, 87.9174, 0, 0, 4.46824, -57.0227, 4.42705, -174.113, 4.53268, 64.8434, 0.109249, 65.7929
1, 3300.00000, 117.17, -33.9488, 116.198, -151.039, 122.897, 87.9174, 0, 0, 4.46824, -57.0227, 4.42705, -174.113, 4.53268, 64.8434, 0.109249, 65.7929
1, 3360.00000, 117.17, -33.9488, 116.198, -151.039, 122.897, 87.9174, 0, 0, 4.46824, -57.0227, 4.42705, -174.113, 4.53268, 64.8434, 0.109249, 65.7929
1, 3420.00000, 117.17, -33.9488, 116.198, -151.039, 122.897, 87.9174, 0, 0, 4.46824, -57.0227, 4.42705, -174.113, 4.53268, 64.8434, 0.109249, 65.7929
1, 3480.00000, 117.17, -33.9488, 116.198, -151.039, 122.897, 87.9174, 0, 0, 4.46824, -57.0227, 4.42705, -174.113, 4.53268, 64.8434, 0.109249, 65.7929
1, 3540.00000, 117.17, -33.9488, 116.198, -151.039, 122.897, 87.9174, 0, 0, 4.46824, -57.0227, 4.42705, -174.113, 4.53268, 64.8434, 0.109249, 65.7929
2, 0.00000, 117.17, -33.9488, 116.198, -151.039, 122.897, 87.9174, 0, 0, 4.46824, -57.0227, 4.42705, -174.113, 4.53268, 64.8434, 0.109249, 65.7929
2, 60.00000, 117.17, -33.9488, 116.198, -151.039, 122.897, 87.9174, 0, 0, 4.46824, -57.0227, 4.42705, -174.113, 4.53268, 64.8434, 0.109249, 65.7929
2, 120.00000, 117.17, -33.9488, 116.198, -151.039, 122.897, 87.9174, 0, 0, 4.46824, -57.0227, 4.42705, -174.113, 4.53268, 64.8434, 0.109249, 65.7929
2, 180.00000, 117.17, -33.9488, 116.198, -151.039, 122.897, 87.9174, 0, 0, 4.46824, -57.0227, 4.42705, -174.113, 4.53268, 64.8434, 0.109249, 65.7929
2, 240.00000, 117.17, -33.9488, 116.198, -151.039, 122.897, 87.9174, 0, 0, 4.46824, -57.0227, 4.42705, -174.113, 4.53268, 64.8434, 0.109249, 65.7929
2, 300.00000, 117.17, -33.9488, 116.198, -151.039, 122.897, 87.9174, 0, 0, 4.46824, -57.0227, 4.42705, -174.113, 4.53268, 64.8434, 0.109249, 65.7929
2, 360.00000, 117.17, -33.9488, 116.198, -151.039, 122.897, 87.9174, 0, 0, 4.46824, -57.0227, 4.42705, -174.113, 4.53268, 64.8434, 0.109249, 65.7929
2, 420.00000, 117.17, -33.9488, 116.198, -151.039, 122.897, 87.9174, 0, 0, 4.46824, -57.0227, 4.42705, -174.113, 4.53268, 64.8434, 0.109249, 65.7929
2, 480.00000, 117.17, -33.9488, 116.198, -151.039, 122.897, 87.9174, 0, 0, 4.46824, -57.0227, 4.42705, -174.113, 4.53268, 64.8434, 0.109249, 65.7929
2, 540.00000, 117.17, -33.9488, 116.198, -151.039, 122.897, 87.9174, 0, 0, 4.46824, -57.0227, 4.42705, -174.113, 4.53268, 64.8434, 0.109249, 65.7929
2, 600.00000, 117.17, -33.9488, 116.198, -151.039, 122.897, 87.9174, 0, 0, 4.46824, -57.0227, 4.42705, -174.113, 4.53268, 64.8434, 0.109249, 65.7929
2, 660.00000, 117.17, -33.9488, 116.198, -151.039, 122.897, 87.9174, 0, 0, 4.46824, -57.0227, 4.42705, -174.113, 4.53268, 64.8434, 0.109249, 65.7929
