hour,t(sec),V1,VAngle1,V2,VAngle2,V3,VAngle3,V4,VAngle4,I1,IAngle1,I2,IAngle2,I3,IAngle3,I4,IAngle4
0, 60.00000, 117.903, -31.7926, 117.534, -151.086, 119.685, 88.7067, 0, 0, 6.51851, -54.8662, 6.4959, -174.16, 6.62801, 65.633, 0.0515201, -117.425
0, 120.00000, 117.903, -31.7926, 117.534, -151.086, 119.685, 88.7067, 0, 0, 6.51845, -54.8665, 6.49583, -174.16, 6.62793, 65.6328, 0.0514781, -117.434
0, 180.00000, 117.903, -31.7926, 117.534, -151.086, 119.685, 88.7067, 0, 0, 6.51845, -54.8666, 6.49583, -174.16, 6.62793, 65.6328, 0.0514778, -117.434
0, 240.00000, 117.903, -31.7926, 117.534, -151.086, 119.685, 88.7067, 0, 0, 6.51845, -54.8666, 6.49583, -174.16, 6.62793, 65.6328, 0.0514778, -117.434
0, 300.00000, 117.903, -31.7926, 117.534, -151.086, 119.685, 88.7067, 0, 0, 6.51845, -54.8666, 6.49583, -174.16, 6.62793, 65.6328, 0.0514778, -117.434
0, 360.00000, 117.903, -31.7926, 117.534, -151.086, 119.685, 88.7067, 0, 0, 6.51845, -54.8666, 6.49583, -174.16, 6.62793, 65.6328, 0.0514778, -117.434
0, 420.00000, 117.903, -31.7926, 117.534, -151.086, 119.685, 88.7067, 0, 0, 6.51845, -54.8666, 6.49583, -174.16, 6.62793, 65.6328, 0.0514778, -117.434
0, 480.00000, 118.727, -31.6868, 118.317, -150.983, 120.466, 88.8236, 0, 0, 5.71506, -54.7611, 5.69316, -174.057, 5.80798, 65.7495, 0.0433684, -118.123
0, 540.00000, 118.727, -31.6867, 118.317, -150.983, 120.466, 88.8236, 0, 0, 5.71515, -54.7607, 5.69323, -174.057, 5.80806, 65.7497, 0.043395, -118.146
0, 600.00000, 118.727, -31.6867, 118.317, -150.983, 120.466, 88.8236, 0, 0, 5.71515, -54.7607, 5.69323, -174.057, 5.80806, 65.7497, 0.0433949, -118.146
0, 660.00000, 118.727, -31.6867, 118.317, -150.983, 120.466, 88.8236, 0, 0, 5.71515, -54.7607, 5.69323, -174.057, 5.80806, 65.7497, 0.0433949, -118.146
0, 720.00000, 118.727, -31.6867, 118.317, -150.983, 120.466, 88.8236, 0, 0, 5.71515, -54.7607, 5.69323, -174.057, 5.80806, 65.7497, 0.0433949, -118.146
0, 780.00000, 118.727, -31.6867, 118.317, -150.983, 120.466, 88.8236, 0, 0, 5.71515, -54.7607, 5.69323, -174.057, 5.80806, 65.7497, 0.0433949, -118.146
0, 840.00000, 118.727, -31.6867, 118.317, -150.983, 120.466, 88.8236, 0, 0, 5.71515, -54.7607, 5.69323, -174.057, 5.80806, 65.7497, 0.0433949, -118.146
0, 900.00000, 118.727, -31.6867, 118.317, -150.983, 120.466, 88.8236, 0, 0, 5.71515, -54.7607, 5.69323, -174.057, 5.80806, 65.7497, 0.0433949, -118.146
0, 960.00000, 118.267, -31.6939, 117.867, -151.199, 119.62, 88.7305, 0, 0, 5.69069, -54.7672, 5.66918, -174.273, 5.76296, 65.6568, 0.040639, -115.621
0, 1020.00000, 118.267, -31.6939, 117.867, -151.199, 119.619, 88.7305, 0, 0, 5.69056, -54.7679, 5.66917, -174.273, 5.76283, 65.6566, 0.0405212, -115.472
0, 1080.00000, 118.267, -31.6939, 117.867, -151.199, 119.619, 88.7305, 0, 0, 5.69056, -54.7679, 5.66917, -174.273, 5.76283, 65.6566, 0.0405206, -115.471
0, 1140.00000, 118.701, -31.68, 117.865, -151.198, 119.831, 88.9029, 0, 0, 5.71364, -54.7544, 5.66905, -174.272, 5.77409, 65.829, 0.0413996, -120.112
0, 1200.00000, 118.701, -31.68, 117.865, -151.198, 119.831, 88.9029, 0, 0, 5.71373, -54.7539, 5.66904, -174.272, 5.77414, 65.829, 0.0414621, -120.254
0, 1260.00000, 118.701, -31.68, 117.865, -151.198, 119.831, 88.9029, 0, 0, 5.71373, -54.7539, 5.66904, -174.272, 5.77414, 65.829, 0.0414624, -120.255
0, 1320.00000, 118.701, -31.68, 117.865, -151.198, 119.831, 88.9029, 0, 0, 5.71373, -54.7539, 5.66904, -174.272, 5.77414, 65.829, 0.0414624, -120.255
0, 1380.00000, 118.701, -31.68, 117.865, -151.198, 119.831, 88.9029, 0, 0, 5.71373, -54.7539, 5.66904, -174.272, 5.77414, 65.829, 0.0414624, -120.255
0, 1440.00000, 118.701, -31.68, 117.865, -151.198, 119.831, 88.9029, 0, 0, 5.71373, -54.7539, 5.66904, -174.272, 5.77414, 65.829, 0.0414624, -120.255
0, 1500.00000, 118.701, -31.68, 117.865, -151.198, 119.831, 88.9029, 0, 0, 5.71373, -54.7539, 5.66904, -174.272, 5.77414, 65.829, 0.0414624, -120.255
0, 1560.00000, 118.701, -31.68, 117.865, -151.198, 119.831, 88.9029, 0, 0, 5.71373, -54.7539, 5.66904, -174.272, 5.77414, 65.829, 0.0414624, -120.255
0, 1620.00000, 118.701, -31.68, 117.865, -151.198, 119.831, 88.9029, 0, 0, 5.71373, -54.7539, 5.66904, -174.272, 5.77414, 65.829, 0.0414624, -120.255
0, 1680.00000, 118.701, -31.68, 117.865, -151.198, 119.831, 88.9029, 0, 0, 5.71373, -54.7539, 5.66904, -174.272, 5.77414, 65.829, 0.0414624, -120.255
0, 1740.00000, 118.701, -31.68, 117.865, -151.198, 119.831, 88.9029, 0, 0, 5.71373, -54.7539, 5.66904, -174.272, 5.77414, 65.829, 0.0414624, -120.255
0, 1800.00000, 118.421, -31.8556, 117.408, -151.168, 119.849, 88.8968, 0, 0, 5.6988, -54.9295, 5.64467, -174.242, 5.77507, 65.8228, 0.0447109, -121.692
0, 1860.00000, 118.421, -31.8556, 117.408, -151.168, 119.849, 88.8968, 0, 0, 5.69877, -54.9296, 5.64463, -174.242, 5.77508, 65.8229, 0.0447489, -121.674
0, 1920.00000, 118.421, -31.8556, 117.408, -151.168, 119.849, 88.8968, 0, 0, 5.69877, -54.9296, 5.64463, -174.242, 5.77508, 65.8229, 0.044749, -121.674
0, 1980.00000, 118.421, -31.8556, 117.408, -151.168, 119.849, 88.8968, 0, 0, 5.69877, -54.9296, 5.64463, -174.242, 5.77508, 65.8229, 0.044749, -121.674
0, 2040.00000, 118.421, -31.8556, 117.408, -151.168, 119.849, 88.8968, 0, 0, 5.69877, -54.9296, 5.64463, -174.242, 5.77508, 65.8229, 0.044749, -121.674
0, 2100.00000, 118.421, -31.8556, 117.408, -151.168, 119.849, 88.8968, 0, 0, 5.69877, -54.9296, 5.64463, -174.242, 5.77508, 65.8229, 0.044749, -121.674
0, 2160.00000, 118.421, -31.8556, 117.408, -151.168, 119.849, 88.8968, 0, 0, 5.69877, -54.9296, 5.64463, -174.242, 5.77508, 65.8229, 0.044749, -121.674
0, 2220.00000, 118.421, -31.8556, 117.408, -151.168, 119.849, 88.8968, 0, 0, 5.69877, -54.9296, 5.64463, -174.242, 5.77508, 65.8229, 0.044749, -121.674
0, 2280.00000, 118.421, -31.8556, 117.408, -151.168, 119.849, 88.8968, 0, 0, 5.69877, -54.9296, 5.64463, -174.242, 5.77508, 65.8229, 0.044749, -121.674
0, 2340.00000, 118.421, -31.8556, 117.408, -151.168, 119.849, 88.8968, 0, 0, 5.69877, -54.9296, 5.64463, -174.242, 5.77508, 65.8229, 0.044749, -121.674
0, 2400.00000, 118.421, -31.8556, 117.408, -151.168, 119.849, 88.8968, 0, 0, 5.69877, -54.9296, 5.64463, -174.242, 5.77508, 65.8229, 0.044749, -121.674
0, 2460.00000, 118.421, -31.8556, 117.408, -151.168, 119.849, 88.8968, 0, 0, 5.69877, -54.9296, 5.64463, -174.242, 5.77508, 65.8229, 0.044749, -121.674
0, 2520.00000, 118.421, -31.8556, 117.408, -151.168, 119.849, 88.8968, 0, 0, 5.69877, -54.9296, 5.64463, -174.242, 5.77508, 65.8229, 0.044749, -121.674
0, 2580.00000, 118.421, -31.8556, 117.408, -151.168, 119.849, 88.8968, 0, 0, 5.69877, -54.9296, 5.64463, -174.242, 5.77508, 65.8229, 0.044749, -121.674
0, 2640.00000, 118.421, -31.8556, 117.408, -151.168, 119.849, 88.8968, 0, 0, 5.69877, -54.9296, 5.64463, -174.242, 5.77508, 65.8229, 0.044749, -121.674
0, 2700.00000, 118.421, -31.8556, 117.408, -151.168, 119.849, 88.8968, 0, 0, 5.69877, -54.9296, 5.64463, -174.242, 5.77508, 65.8229, 0.044749, -121.674
0, 2760.00000, 118.832, -31.6309, 118.025, -151.22, 119.798, 88.9059, 0, 0, 5.72071, -54.7049, 5.67756, -174.294, 5.7724, 65.832, 0.0380029, -120.397
0, 2820.00000, 118.832, -31.6309, 118.026, -151.22, 119.798, 88.9059, 0, 0, 5.72076, -54.7048, 5.67765, -174.293, 5.77236, 65.832, 0.0378596, -120.419
0, 2880.00000, 118.832, -31.6309, 118.026, -151.22, 119.798, 88.9059, 0, 0, 5.72077, -54.7048, 5.67765, -174.293, 5.77236, 65.832, 0.0378589, -120.419
0, 2940.00000, 118.832, -31.6309, 118.026, -151.22, 119.798, 88.9059, 0, 0, 5.72077, -54.7048, 5.67765, -174.293, 5.77236, 65.832, 0.0378589, -120.419
0, 3000.00000, 118.832, -31.6309, 118.026, -151.22, 119.798, 88.9059, 0, 0, 5.72077, -54.7048, 5.67765, -174.293, 5.77236, 65.832, 0.0378589, -120.419
0, 3060.00000, 118.832, -31.6309, 118.026, -151.22, 119.798, 88.9059, 0, 0, 5.72077, -54.7048, 5.67765, -174.293, 5.77236, 65.832, 0.0378589, -120.419
0, 3120.00000, 118.832, -31.6309, 118.026, -151.22, 119.798, 88.9059, 0, 0, 5.72077, -54.7048, 5.67765, -174.293, 5.77236, 65.832, 0.0378589, -120.419
0, 3180.00000, 118.832, -31.6309, 118.026, -151.22, 119.798, 88.9059, 0, 0, 5.72077, -54.7048, 5.67765, -174.293, 5.77236, 65.832, 0.0378589, -120.419
0, 3240.00000, 118.832, -31.6309, 118.026, -151.22, 119.798, 88.9059, 0, 0, 5.72077, -54.7048, 5.67765, -174.293, 5.77236, 65.832, 0.0378589, -120.419
0, 3300.00000, 118.832, -31.6309, 118.026, -151.22, 119.798, 88.9059, 0, 0, 5.72077, -54.7048, 5.67765, -174.293, 5.77236, 65.832, 0.0378589, -120.419
0, 3360.00000, 118.832, -31.6309, 118.026, -151.22, 119.798, 88.9059, 0, 0, 5.72077, -54.7048, 5.67765, -174.293, 5.77236, 65.832, 0.0378589, -120.419
0, 3420.00000, 118.832, -31.6309, 118.026, -151.22, 119.798, 88.9059, 0, 0, 5.72077, -54.7048, 5.67765, -174.293, 5.77236, 65.832, 0.0378589, -120.419
0, 3480.00000, 118.832, -31.6309, 118.026, -151.22, 119.798, 88.9059, 0, 0, 5.72077, -54.7048, 5.67765, -174.293, 5.77236, 65.832, 0.0378589, -120.419
0, 3540.00000, 118.832, -31.6309, 118.026, -151.22, 119.798, 88.9059, 0, 0, 5.72077, -54.7048, 5.67765, -174.293, 5.77236, 65.832, 0.0378589, -120.419
1, 0.00000, 118.832, -31.6309, 118.026, -151.22, 119.798, 88.9059, 0, 0, 5.72077, -54.7048, 5.67765, -174.293, 5.77236, 65.832, 0.0378589, -120.419
1, 60.00000, 119.037, -31.4696, 118.43, -151.216, 119.777, 88.9102, 0, 0, 5.73164, -54.5436, 5.69918, -174.291, 5.77129, 65.8363, 0.0340882, -118.704
1, 120.00000, 119.037, -31.4696, 118.43, -151.216, 119.777, 88.9102, 0, 0, 5.73168, -54.5436, 5.69925, -174.29, 5.77126, 65.8363, 0.0339764, -118.689
1, 180.00000, 119.037, -31.4696, 118.43, -151.216, 119.777, 88.9102, 0, 0, 5.73168, -54.5436, 5.69926, -174.29, 5.77126, 65.8363, 0.0339758, -118.689
1, 240.00000, 119.037, -31.4696, 118.43, -151.216, 119.777, 88.9102, 0, 0, 5.73168, -54.5436, 5.69926, -174.29, 5.77126, 65.8363, 0.0339758, -118.689
1, 300.00000, 119.037, -31.4696, 118.43, -151.216, 119.777, 88.9102, 0, 0, 5.73168, -54.5436, 5.69926, -174.29, 5.77126, 65.8363, 0.0339758, -118.689
1, 360.00000, 119.037, -31.4696, 118.43, -151.216, 119.777, 88.9102, 0, 0, 5.73168, -54.5436, 5.69926, -174.29, 5.77126, 65.8363, 0.0339758, -118.689
1, 420.00000, 119.037, -31.4696, 118.43, -151.216, 119.777, 88.9102, 0, 0, 5.73168, -54.5436, 5.69926, -174.29, 5.77126, 65.8363, 0.0339758, -118.689
1, 480.00000, 119.037, -31.4696, 118.43, -151.216, 119.777, 88.9102, 0, 0, 5.73168, -54.5436, 5.69926, -174.29, 5.77126, 65.8363, 0.0339758, -118.689
1, 540.00000, 119.037, -31.4696, 118.43, -151.216, 119.777, 88.9102, 0, 0, 5.73168, -54.5436, 5.69926, -174.29, 5.77126, 65.8363, 0.0339758, -118.689
1, 600.00000, 119.037, -31.4696, 118.43, -151.216, 119.777, 88.9102, 0, 0, 5.73168, -54.5436, 5.69926, -174.29, 5.77126, 65.8363, 0.0339758, -118.689
1, 660.00000, 119.037, -31.4696, 118.43, -151.216, 119.777, 88.9102, 0, 0, 5.73168, -54.5436, 5.69926, -174.29, 5.77126, 65.8363, 0.0339758, -118.689
1, 720.00000, 119.037, -31.4696, 118.43, -151.216, 119.777, 88.9102, 0, 0, 5.73168, -54.5436, 5.69926, -174.29, 5.77126, 65.8363, 0.0339758, -118.689
1, 780.00000, 119.045, -31.4713, 118.577, -151.074, 120.121, 88.9246, 0, 0, 5.73212, -54.5453, 5.70708, -174.148, 5.78959, 65.8504, 0.0356793, -117.133
1, 840.00000, 119.045, -31.4713, 118.577, -151.074, 120.121, 88.9246, 0, 0, 5.73211, -54.5452, 5.7071, -174.148, 5.78966, 65.8507, 0.0357514, -117.051
1, 900.00000, 119.045, -31.4713, 118.577, -151.074, 120.121, 88.9246, 0, 0, 5.73211, -54.5452, 5.7071, -174.148, 5.78966, 65.8507, 0.0357518, -117.051
1, 960.00000, 119.045, -31.4713, 118.577, -151.074, 120.121, 88.9246, 0, 0, 5.73211, -54.5452, 5.7071, -174.148, 5.78966, 65.8507, 0.0357518, -117.051
1, 1020.00000, 119.045, -31.4713, 118.577, -151.074, 120.121, 88.9246, 0, 0, 5.73211, -54.5452, 5.7071, -174.148, 5.78966, 65.8507, 0.0357518, -117.051
1, 1080.00000, 119.045, -31.4713, 118.577, -151.074, 120.121, 88.9246, 0, 0, 5.73211, -54.5452, 5.7071, -174.148, 5.78966, 65.8507, 0.0357518, -117.051
1, 1140.00000, 119.045, -31.4713, 118.577, -151.074, 120.121, 88.9246, 0, 0, 5.73211, -54.5452, 5.7071, -174.148, 5.78966, 65.8507, 0.0357518, -117.051
1, 1200.00000, 119.045, -31.4713, 118.577, -151.074, 120.121, 88.9246, 0, 0, 5.73211, -54.5452, 5.7071, -174.148, 5.78966, 65.8507, 0.0357518, -117.051
1, 1260.00000, 119.045, -31.4713, 118.577, -151.074, 120.121, 88.9246, 0, 0, 5.73211, -54.5452, 5.7071, -174.148, 5.78966, 65.8507, 0.0357518, -117.051
1, 1320.00000, 119.045, -31.4713, 118.577, -151.074, 120.121, 88.9246, 0, 0, 5.73211, -54.5452, 5.7071, -174.148, 5.78966, 65.8507, 0.0357518, -117.051
1, 1380.00000, 119.045, -31.4713, 118.577, -151.074, 120.121, 88.9246, 0, 0, 5.73211, -54.5452, 5.7071, -174.148, 5.78966, 65.8507, 0.0357518, -117.051
1, 1440.00000, 119.045, -31.4713, 118.577, -151.074, 120.121, 88.9246, 0, 0, 5.73211, -54.5452, 5.7071, -174.148, 5.78966, 65.8507, 0.0357518, -117.051
1, 1500.00000, 119.045, -31.4713, 118.577, -151.074, 120.121, 88.9246, 0, 0, 5.73211, -54.5452, 5.7071, -174.148, 5.78966, 65.8507, 0.0357518, -117.051
1, 1560.00000, 119.045, -31.4713, 118.577, -151.074, 120.121, 88.9246, 0, 0, 5.73211, -54.5452, 5.7071, -174.148, 5.78966, 65.8507, 0.0357518, -117.051
1, 1620.00000, 119.045, -31.4713, 118.577, -151.074, 120.121, 88.9246, 0, 0, 5.73211, -54.5452, 5.7071, -174.148, 5.78966, 65.8507, 0.0357518, -117.051
1, 1680.00000, 119.045, -31.4713, 118.577, -151.074, 120.121, 88.9246, 0, 0, 5.73211, -54.5452, 5.7071, -174.148, 5.78966, 65.8507, 0.0357518, -117.051
1, 1740.00000, 119.045, -31.4713, 118.577, -151.074, 120.121, 88.9246, 0, 0, 5.73211, -54.5452, 5.7071, -174.148, 5.78966, 65.8507, 0.0357518, -117.051
1, 1800.00000, 119.045, -31.4713, 118.577, -151.074, 120.121, 88.9246, 0, 0, 5.73211, -54.5452, 5.7071, -174.148, 5.78966, 65.8507, 0.0357518, -117.051
1, 1860.00000, 119.045, -31.4713, 118.577, -151.074, 120.121, 88.9246, 0, 0, 5.73211, -54.5452, 5.7071, -174.148, 5.78966, 65.8507, 0.0357518, -117.051
1, 1920.00000, 119.045, -31.4713, 118.577, -151.074, 120.121, 88.9246, 0, 0, 5.73211, -54.5452, 5.7071, -174.148, 5.78966, 65.8507, 0.0357518, -117.051
1, 1980.00000, 119.045, -31.4713, 118.577, -151.074, 120.121, 88.9246, 0, 0, 5.73211, -54.5452, 5.7071, -174.148, 5.78966, 65.8507, 0.0357518, -117.051
1, 2040.00000, 119.045, -31.4713, 118.577, -151.074, 120.121, 88.9246, 0, 0, 5.73211, -54.5452, 5.7071, -174.148, 5.78966, 65.8507, 0.0357518, -117.051
1, 2100.00000, 119.045, -31.4713, 118.577, -151.074, 120.121, 88.9246, 0, 0, 5.73211, -54.5452, 5.7071, -174.148, 5.78966, 65.8507, 0.0357518, -117.051
1, 2160.00000, 119.045, -31.4713, 118.577, -151.074, 120.121, 88.9246, 0, 0, 5.73211, -54.5452, 5.7071, -174.148, 5.78966, 65.8507, 0.0357518, -117.051
1, 2220.00000, 119.325, -31.2963, 119.041, -151.101, 120.103, 88.9307, 0, 0, 5.74709, -54.3702, 5.73185, -174.175, 5.78872, 65.8568, 0.0323452, -114.44
1, 2280.00000, 119.325, -31.2963, 119.041, -151.101, 120.103, 88.9307, 0, 0, 5.7471, -54.3702, 5.73191, -174.175, 5.7887, 65.8568, 0.0322683, -114.379
1, 2340.00000, 119.325, -31.2963, 119.041, -151.101, 120.103, 88.9307, 0, 0, 5.7471, -54.3702, 5.73191, -174.175, 5.7887, 65.8568, 0.032268, -114.379
1, 2400.00000, 119.325, -31.2963, 119.041, -151.101, 120.103, 88.9307, 0, 0, 5.7471, -54.3702, 5.73191, -174.175, 5.7887, 65.8568, 0.032268, -114.379
1, 2460.00000, 119.325, -31.2963, 119.041, -151.101, 120.103, 88.9307, 0, 0, 5.7471, -54.3702, 5.73191, -174.175, 5.7887, 65.8568, 0.032268, -114.379
1, 2520.00000, 119.325, -31.2963, 119.041, -151.101, 120.103, 88.9307, 0, 0, 5.7471, -54.3702, 5.73191, -174.175, 5.7887, 65.8568, 0.032268, -114.379
1, 2580.00000, 119.325, -31.2963, 119.041, -151.101, 120.103, 88.9307, 0, 0, 5.7471, -54.3702, 5.73191, -174.175, 5.7887, 65.8568, 0.032268, -114.379
1, 2640.00000, 119.325, -31.2963, 119.041, -151.101, 120.103, 88.9307, 0, 0, 5.7471, -54.3702, 5.73191, -174.175, 5.7887, 65.8568, 0.032268, -114.379
1, 2700.00000, 119.325, -31.2963, 119.041, -151.101, 120.103, 88.9307, 0, 0, 5.7471, -54.3702, 5.73191, -174.175, 5.7887, 65.8568, 0.032268, -114.379
1, 2760.00000, 119.325, -31.2963, 119.041, -151.101, 120.103, 88.9307, 0, 0, 5.7471, -54.3702, 5.73191, -174.175, 5.7887, 65.8568, 0.032268, -114.379
1, 2820.00000, 119.325, -31.2963, 119.041, -151.101, 120.103, 88.9307, 0, 0, 5.7471, -54.3702, 5.73191, -174.175, 5.7887, 65.8568, 0.032268, -114.379
1, 2880.00000, 119.325, -31.2963, 119.041, -151.101, 120.103, 88.9307, 0, 0, 5.7471, -54.3702, 5.73191, -174.175, 5.7887, 65.8568, 0.032268, -114.379
1, 2940.00000, 119.325, -31.2963, 119.041, -151.101, 120.103, 88.9307, 0, 0, 5.7471, -54.3702, 5.73191, -174.175, 5.7887, 65.8568, 0.032268, -114.379
1, 3000.00000, 119.325, -31.2963, 119.041, -151.101, 120.103, 88.9307, 0, 0, 5.7471, -54.3702, 5.73191, -174.175, 5.7887, 65.8568, 0.032268, -114.379
1, 3060.00000, 119.325, -31.2963, 119.041, -151.101, 120.103, 88.9307, 0, 0, 5.7471, -54.3702, 5.73191, -174.175, 5.7887, 65.8568, 0.032268, -114.379
1, 3120.00000, 119.325, -31.2963, 119.041, -151.101, 120.103, 88.9307, 0, 0, 5.7471, -54.3702, 5.73191, -174.175, 5.7887, 65.8568, 0.032268, -114.379
1, 3180.00000, 119.325, -31.2963, 119.041, -151.101, 120.103, 88.9307, 0, 0, 5.7471, -54.3702, 5.73191, -174.175, 5.7887, 65.8568, 0.032268, -114.379
1, 3240.00000, 119.325, -31.2963, 119.041, -151.101, 120.103, 88.9307, 0, 0, 5.7471, -54.3702, 5.73191, -174.175, 5.7887, 65.8568, 0.032268, -114.379
1, 3300.00000, 119.325, -31.2963, 119.041, -151.101, 120.103, 88.9307, 0, 0, 5.7471, -54.3702, 5.73191, -174.175, 5.7887, 65.8568, 0.032268, -114.379
1, 3360.00000, 119.325, -31.2963, 119.041, -151.101, 120.103, 88.9307, 0, 0, 5.7471, -54.3702, 5.73191, -174.175, 5.7887, 65.8568, 0.032268, -114.379
1, 3420.00000, 119.325, -31.2963, 119.041, -151.101, 120.103, 88.9307, 0, 0, 5.7471, -54.3702, 5.73191, -174.175, 5.7887, 65.8568, 0.032268, -114.379
1, 3480.00000, 119.325, -31.2963, 119.041, -151.101, 120.103, 88.9307, 0, 0, 5.7471, -54.3702, 5.73191, -174.175, 5.7887, 65.8568, 0.032268, -114.379
1, 3540.00000, 119.325, -31.2963, 119.041, -151.101, 120.103, 88.9307, 0, 0, 5.7471, -54.3702, 5.73191, -174.175, 5.7887, 65.8568, 0.032268, -114.379
2, 0.00000, 119.325, -31.2963, 119.041, -151.101, 120.103, 88.9307, 0, 0, 5.7471, -54.3702, 5.73191, -174.175, 5.7887, 65.8568, 0.032268, -114.379
2, 60.00000, 119.325, -31.2963, 119.041, -151.101, 120.103, 88.9307, 0, 0, 5.7471, -54.3702, 5.73191, -174.175, 5.7887, 65.8568, 0.032268, -114.379
2, 120.00000, 119.325, -31.2963, 119.041, -151.101, 120.103, 88.9307, 0, 0, 5.7471, -54.3702, 5.73191, -174.175, 5.7887, 65.8568, 0.032268, -114.379
2, 180.00000, 119.325, -31.2963, 119.041, -151.101, 120.103, 88.9307, 0, 0, 5.7471, -54.3702, 5.73191, -174.175, 5.7887, 65.8568, 0.032268, -114.379
2, 240.00000, 119.325, -31.2963, 119.041, -151.101, 120.103, 88.9307, 0, 0, 5.7471, -54.3702, 5.73191, -174.175, 5.7887, 65.8568, 0.032268, -114.379
2, 300.00000, 119.325, -31.2963, 119.041, -151.101, 120.103, 88.9307, 0, 0, 5.7471, -54.3702, 5.73191, -174.175, 5.7887, 65.8568, 0.032268, -114.379
2, 360.00000, 119.325, -31.2963, 119.041, -151.101, 120.103, 88.9307, 0, 0, 5.7471, -54.3702, 5.73191, -174.175, 5.7887, 65.8568, 0.032268, -114.379
2, 420.00000, 119.325, -31.2963, 119.041, -151.101, 120.103, 88.9307, 0, 0, 5.7471, -54.3702, 5.73191, -174.175, 5.7887, 65.8568, 0.032268, -114.379
2, 480.00000, 119.325, -31.2963, 119.041, -151.101, 120.103, 88.9307, 0, 0, 5.7471, -54.3702, 5.73191, -174.175, 5.7887, 65.8568, 0.032268, -114.379
2, 540.00000, 119.325, -31.2963, 119.041, -151.101, 120.103, 88.9307, 0, 0, 5.7471, -54.3702, 5.73191, -174.175, 5.7887, 65.8568, 0.032268, -114.379
2, 600.00000, 119.325, -31.2963, 119.041, -151.101, 120.103, 88.9307, 0, 0, 5.7471, -54.3702, 5.73191, -174.175, 5.7887, 65.8568, 0.032268, -114.379
2, 660.00000, 119.325, -31.2963, 119.041, -151.101, 120.103, 88.9307, 0, 0, 5.7471, -54.3702, 5.73191, -174.175, 5.7887, 65.8568, 0.032268, -114.379
