hour,t(sec),"P1 (kW)","Q1 (kvar)","P2 (kW)","Q2 (kvar)","P3 (kW)","Q3 (kvar)","P4 (kW)","Q4 (kvar)"
0, 60.00000, 0.229581, 0.0977995, 0.233399, 0.0994275, 0.247613, 0.105481, 0, 0
0, 120.00000, 0.229578, 0.0977998, 0.233397, 0.0994268, 0.247607, 0.10548, 0, 0
0, 180.00000, 0.229578, 0.0977998, 0.233397, 0.0994268, 0.247607, 0.10548, 0, 0
0, 240.00000, 0.229578, 0.0977998, 0.233397, 0.0994268, 0.247607, 0.10548, 0, 0
0, 300.00000, 0.229578, 0.0977998, 0.233397, 0.0994268, 0.247607, 0.10548, 0, 0
0, 360.00000, 0.229578, 0.0977998, 0.233397, 0.0994268, 0.247607, 0.10548, 0, 0
0, 420.00000, 0.229578, 0.0977998, 0.233397, 0.0994268, 0.247607, 0.10548, 0, 0
0, 480.00000, 0.229578, 0.0977998, 0.233397, 0.0994268, 0.247607, 0.10548, 0, 0
0, 540.00000, 0.229578, 0.0977998, 0.233397, 0.0994268, 0.247607, 0.10548, 0, 0
0, 600.00000, 0.229578, 0.0977998, 0.233397, 0.0994268, 0.247607, 0.10548, 0, 0
0, 660.00000, 0.229578, 0.0977998, 0.233397, 0.0994268, 0.247607, 0.10548, 0, 0
0, 720.00000, 0.229578, 0.0977998, 0.233397, 0.0994268, 0.247607, 0.10548, 0, 0
0, 780.00000, 0.229578, 0.0977998, 0.233397, 0.0994268, 0.247607, 0.10548, 0, 0
0, 840.00000, 0.229578, 0.0977998, 0.233397, 0.0994268, 0.247607, 0.10548, 0, 0
0, 900.00000, 0.229578, 0.0977998, 0.233397, 0.0994268, 0.247607, 0.10548, 0, 0
0, 960.00000, 0.223809, 0.0953415, 0.227228, 0.0967992, 0.240201, 0.102324, 0, 0
0, 1020.00000, 0.223809, 0.0953421, 0.227228, 0.0967986, 0.240195, 0.102323, 0, 0
0, 1080.00000, 0.223809, 0.0953421, 0.227228, 0.0967986, 0.240195, 0.102323, 0, 0
0, 1140.00000, 0.223809, 0.0953421, 0.227228, 0.0967986, 0.240195, 0.102323, 0, 0
0, 1200.00000, 0.223809, 0.0953421, 0.227228, 0.0967986, 0.240195, 0.102323, 0, 0
0, 1260.00000, 0.223809, 0.0953421, 0.227228, 0.0967986, 0.240195, 0.102323, 0, 0
0, 1320.00000, 0.223809, 0.0953421, 0.227228, 0.0967986, 0.240195, 0.102323, 0, 0
0, 1380.00000, 0.223809, 0.0953421, 0.227228, 0.0967986, 0.240195, 0.102323, 0, 0
0, 1440.00000, 0.223809, 0.0953421, 0.227228, 0.0967986, 0.240195, 0.102323, 0, 0
0, 1500.00000, 0.223809, 0.0953421, 0.227228, 0.0967986, 0.240195, 0.102323, 0, 0
0, 1560.00000, 0.223809, 0.0953421, 0.227228, 0.0967986, 0.240195, 0.102323, 0, 0
0, 1620.00000, 0.223809, 0.0953421, 0.227228, 0.0967986, 0.240195, 0.102323, 0, 0
0, 1680.00000, 0.223809, 0.0953421, 0.227228, 0.0967986, 0.240195, 0.102323, 0, 0
0, 1740.00000, 0.223809, 0.0953421, 0.227228, 0.0967986, 0.240195, 0.102323, 0, 0
0, 1800.00000, 0.223809, 0.0953421, 0.227228, 0.0967986, 0.240195, 0.102323, 0, 0
0, 1860.00000, 0.212389, 0.0904814, 0.215607, 0.0918491, 0.227905, 0.0970922, 0, 0
0, 1920.00000, 0.212391, 0.0904784, 0.21561, 0.0918493, 0.227924, 0.0970953, 0, 0
0, 1980.00000, 0.212391, 0.0904784, 0.21561, 0.0918493, 0.227924, 0.0970953, 0, 0
0, 2040.00000, 0.212391, 0.0904784, 0.21561, 0.0918493, 0.227924, 0.0970953, 0, 0
0, 2100.00000, 0.212391, 0.0904784, 0.21561, 0.0918493, 0.227924, 0.0970953, 0, 0
0, 2160.00000, 0.212391, 0.0904784, 0.21561, 0.0918493, 0.227924, 0.0970953, 0, 0
0, 2220.00000, 0.212391, 0.0904784, 0.21561, 0.0918493, 0.227924, 0.0970953, 0, 0
0, 2280.00000, 0.212391, 0.0904784, 0.21561, 0.0918493, 0.227924, 0.0970953, 0, 0
0, 2340.00000, 0.212391, 0.0904784, 0.21561, 0.0918493, 0.227924, 0.0970953, 0, 0
0, 2400.00000, 0.212391, 0.0904784, 0.21561, 0.0918493, 0.227924, 0.0970953, 0, 0
0, 2460.00000, 0.212391, 0.0904784, 0.21561, 0.0918493, 0.227924, 0.0970953, 0, 0
0, 2520.00000, 0.212391, 0.0904784, 0.21561, 0.0918493, 0.227924, 0.0970953, 0, 0
0, 2580.00000, 0.212391, 0.0904784, 0.21561, 0.0918493, 0.227924, 0.0970953, 0, 0
0, 2640.00000, 0.212391, 0.0904784, 0.21561, 0.0918493, 0.227924, 0.0970953, 0, 0
0, 2700.00000, 0.212391, 0.0904784, 0.21561, 0.0918493, 0.227924, 0.0970953, 0, 0
0, 2760.00000, 0.209116, 0.0890837, 0.212246, 0.0904163, 0.22437, 0.095582, 0, 0
0, 2820.00000, 0.209117, 0.0890835, 0.212247, 0.0904166, 0.224373, 0.0955824, 0, 0
0, 2880.00000, 0.209117, 0.0890835, 0.212247, 0.0904166, 0.224373, 0.0955824, 0, 0
0, 2940.00000, 0.209117, 0.0890835, 0.212247, 0.0904166, 0.224373, 0.0955824, 0, 0
0, 3000.00000, 0.209117, 0.0890835, 0.212247, 0.0904166, 0.224373, 0.0955824, 0, 0
0, 3060.00000, 0.209117, 0.0890835, 0.212247, 0.0904166, 0.224373, 0.0955824, 0, 0
0, 3120.00000, 0.209117, 0.0890835, 0.212247, 0.0904166, 0.224373, 0.0955824, 0, 0
0, 3180.00000, 0.209117, 0.0890835, 0.212247, 0.0904166, 0.224373, 0.0955824, 0, 0
0, 3240.00000, 0.209117, 0.0890835, 0.212247, 0.0904166, 0.224373, 0.0955824, 0, 0
0, 3300.00000, 0.209117, 0.0890835, 0.212247, 0.0904166, 0.224373, 0.0955824, 0, 0
0, 3360.00000, 0.209117, 0.0890835, 0.212247, 0.0904166, 0.224373, 0.0955824, 0, 0
0, 3420.00000, 0.209117, 0.0890835, 0.212247, 0.0904166, 0.224373, 0.0955824, 0, 0
0, 3480.00000, 0.209989, 0.0894546, 0.213937, 0.0911383, 0.224275, 0.095541, 0, 0
0, 3540.00000, 0.209986, 0.0894542, 0.214261, 0.0912743, 0.225411, 0.0960258, 0, 0
1, 0.00000, 0.209986, 0.0894535, 0.214261, 0.091275, 0.225415, 0.0960266, 0, 0
1, 60.00000, 0.193587, 0.0824681, 0.197516, 0.0841416, 0.207796, 0.0885212, 0, 0
1, 120.00000, 0.193588, 0.082468, 0.197517, 0.084142, 0.207798, 0.0885214, 0, 0
1, 180.00000, 0.193588, 0.082468, 0.197517, 0.084142, 0.207798, 0.0885214, 0, 0
1, 240.00000, 0.193588, 0.082468, 0.197517, 0.084142, 0.207798, 0.0885214, 0, 0
1, 300.00000, 0.193588, 0.082468, 0.197517, 0.084142, 0.207798, 0.0885214, 0, 0
1, 360.00000, 0.193588, 0.082468, 0.197517, 0.084142, 0.207798, 0.0885214, 0, 0
1, 420.00000, 0.193588, 0.082468, 0.197517, 0.084142, 0.207798, 0.0885214, 0, 0
1, 480.00000, 0.193588, 0.082468, 0.197517, 0.084142, 0.207798, 0.0885214, 0, 0
1, 540.00000, 0.193588, 0.082468, 0.197517, 0.084142, 0.207798, 0.0885214, 0, 0
1, 600.00000, 0.200443, 0.0853884, 0.204544, 0.0871372, 0.207408, 0.0883564, 0, 0
1, 660.00000, 0.200446, 0.0853897, 0.204559, 0.0871418, 0.207405, 0.088354, 0, 0
1, 720.00000, 0.200446, 0.0853897, 0.204559, 0.0871418, 0.207405, 0.088354, 0, 0
1, 780.00000, 0.200446, 0.0853897, 0.204559, 0.0871418, 0.207405, 0.088354, 0, 0
1, 840.00000, 0.200446, 0.0853897, 0.204559, 0.0871418, 0.207405, 0.088354, 0, 0
1, 900.00000, 0.200446, 0.0853897, 0.204559, 0.0871418, 0.207405, 0.088354, 0, 0
1, 960.00000, 0.202684, 0.0863443, 0.206837, 0.0881127, 0.209711, 0.0893378, 0, 0
1, 1020.00000, 0.202687, 0.0863443, 0.206844, 0.0881153, 0.209715, 0.0893382, 0, 0
1, 1080.00000, 0.202687, 0.0863443, 0.206844, 0.0881153, 0.209715, 0.0893382, 0, 0
1, 1140.00000, 0.202687, 0.0863443, 0.206844, 0.0881153, 0.209715, 0.0893382, 0, 0
1, 1200.00000, 0.202687, 0.0863443, 0.206844, 0.0881153, 0.209715, 0.0893382, 0, 0
1, 1260.00000, 0.202687, 0.0863443, 0.206844, 0.0881153, 0.209715, 0.0893382, 0, 0
1, 1320.00000, 0.202687, 0.0863443, 0.206844, 0.0881153, 0.209715, 0.0893382, 0, 0
1, 1380.00000, 0.202687, 0.0863443, 0.206844, 0.0881153, 0.209715, 0.0893382, 0, 0
1, 1440.00000, 0.202687, 0.0863443, 0.206844, 0.0881153, 0.209715, 0.0893382, 0, 0
1, 1500.00000, 0.202687, 0.0863443, 0.206844, 0.0881153, 0.209715, 0.0893382, 0, 0
1, 1560.00000, 0.202687, 0.0863443, 0.206844, 0.0881153, 0.209715, 0.0893382, 0, 0
1, 1620.00000, 0.202687, 0.0863443, 0.206844, 0.0881153, 0.209715, 0.0893382, 0, 0
1, 1680.00000, 0.202687, 0.0863443, 0.206844, 0.0881153, 0.209715, 0.0893382, 0, 0
1, 1740.00000, 0.202687, 0.0863443, 0.206844, 0.0881153, 0.209715, 0.0893382, 0, 0
1, 1800.00000, 0.202687, 0.0863443, 0.206844, 0.0881153, 0.209715, 0.0893382, 0, 0
1, 1860.00000, 0.216578, 0.0922644, 0.219272, 0.0934073, 0.223255, 0.0951068, 0, 0
1, 1920.00000, 0.216583, 0.0922641, 0.219265, 0.0934065, 0.223261, 0.0951089, 0, 0
1, 1980.00000, 0.216583, 0.0922641, 0.219265, 0.0934065, 0.223261, 0.0951089, 0, 0
1, 2040.00000, 0.216583, 0.0922641, 0.219265, 0.0934065, 0.223261, 0.0951089, 0, 0
1, 2100.00000, 0.216583, 0.0922641, 0.219265, 0.0934065, 0.223261, 0.0951089, 0, 0
1, 2160.00000, 0.216583, 0.0922641, 0.219265, 0.0934065, 0.223261, 0.0951089, 0, 0
1, 2220.00000, 0.216583, 0.0922641, 0.219265, 0.0934065, 0.223261, 0.0951089, 0, 0
1, 2280.00000, 0.216583, 0.0922641, 0.219265, 0.0934065, 0.223261, 0.0951089, 0, 0
1, 2340.00000, 0.216583, 0.0922641, 0.219265, 0.0934065, 0.223261, 0.0951089, 0, 0
1, 2400.00000, 0.216583, 0.0922641, 0.219265, 0.0934065, 0.223261, 0.0951089, 0, 0
1, 2460.00000, 0.216583, 0.0922641, 0.219265, 0.0934065, 0.223261, 0.0951089, 0, 0
1, 2520.00000, 0.216583, 0.0922641, 0.219265, 0.0934065, 0.223261, 0.0951089, 0, 0
1, 2580.00000, 0.216583, 0.0922641, 0.219265, 0.0934065, 0.223261, 0.0951089, 0, 0
1, 2640.00000, 0.216583, 0.0922641, 0.219265, 0.0934065, 0.223261, 0.0951089, 0, 0
1, 2700.00000, 0.216583, 0.0922641, 0.219265, 0.0934065, 0.223261, 0.0951089, 0, 0
1, 2760.00000, 0.20605, 0.0877791, 0.208589, 0.0888585, 0.211558, 0.0901264, 0, 0
1, 2820.00000, 0.206052, 0.087778, 0.208597, 0.0888618, 0.211552, 0.0901207, 0, 0
1, 2880.00000, 0.206052, 0.087778, 0.208597, 0.0888618, 0.211552, 0.0901206, 0, 0
1, 2940.00000, 0.206052, 0.087778, 0.208597, 0.0888618, 0.211552, 0.0901206, 0, 0
1, 3000.00000, 0.206052, 0.087778, 0.208597, 0.0888618, 0.211552, 0.0901206, 0, 0
1, 3060.00000, 0.206052, 0.087778, 0.208597, 0.0888618, 0.211552, 0.0901206, 0, 0
1, 3120.00000, 0.206052, 0.087778, 0.208597, 0.0888618, 0.211552, 0.0901206, 0, 0
1, 3180.00000, 0.206052, 0.087778, 0.208597, 0.0888618, 0.211552, 0.0901206, 0, 0
1, 3240.00000, 0.206052, 0.087778, 0.208597, 0.0888618, 0.211552, 0.0901206, 0, 0
1, 3300.00000, 0.206052, 0.087778, 0.208597, 0.0888618, 0.211552, 0.0901206, 0, 0
1, 3360.00000, 0.206052, 0.087778, 0.208597, 0.0888618, 0.211552, 0.0901206, 0, 0
1, 3420.00000, 0.206052, 0.087778, 0.208597, 0.0888618, 0.211552, 0.0901206, 0, 0
1, 3480.00000, 0.206052, 0.087778, 0.208597, 0.0888618, 0.211552, 0.0901206, 0, 0
1, 3540.00000, 0.206052, 0.087778, 0.208597, 0.0888618, 0.211552, 0.0901206, 0, 0
2, 0.00000, 0.206052, 0.087778, 0.208597, 0.0888618, 0.211552, 0.0901206, 0, 0
2, 60.00000, 0.218247, 0.0929717, 0.220949, 0.0941238, 0.224971, 0.0958351, 0, 0
2, 120.00000, 0.218246, 0.0929723, 0.220944, 0.0941217, 0.224964, 0.0958341, 0, 0
2, 180.00000, 0.218246, 0.0929723, 0.220944, 0.0941217, 0.224964, 0.0958341, 0, 0
2, 240.00000, 0.218246, 0.0929723, 0.220944, 0.0941217, 0.224964, 0.0958341, 0, 0
2, 300.00000, 0.219747, 0.093615, 0.220922, 0.0941112, 0.225127, 0.0959044, 0, 0
2, 360.00000, 0.219754, 0.0936148, 0.22092, 0.0941116, 0.225123, 0.095902, 0, 0
2, 420.00000, 0.219754, 0.0936148, 0.22092, 0.0941116, 0.225123, 0.095902, 0, 0
2, 480.00000, 0.219754, 0.0936148, 0.22092, 0.0941116, 0.225123, 0.095902, 0, 0
2, 540.00000, 0.219754, 0.0936148, 0.22092, 0.0941116, 0.225123, 0.095902, 0, 0
2, 600.00000, 0.219754, 0.0936148, 0.22092, 0.0941116, 0.225123, 0.095902, 0, 0
2, 660.00000, 0.219754, 0.0936148, 0.22092, 0.0941116, 0.225123, 0.095902, 0, 0
2, 720.00000, 0.219754, 0.0936148, 0.22092, 0.0941116, 0.225123, 0.095902, 0, 0
2, 780.00000, 0.219754, 0.0936148, 0.22092, 0.0941116, 0.225123, 0.095902, 0, 0
2, 840.00000, 0.219754, 0.0936148, 0.22092, 0.0941116, 0.225123, 0.095902, 0, 0
2, 900.00000, 0.219754, 0.0936148, 0.22092, 0.0941116, 0.225123, 0.095902, 0, 0
2, 960.00000, 0.212448, 0.0905047, 0.213543, 0.0909688, 0.216406, 0.0921907, 0, 0
2, 1020.00000, 0.212452, 0.0905041, 0.213548, 0.0909711, 0.216401, 0.0921863, 0, 0
2, 1080.00000, 0.212452, 0.0905041, 0.213548, 0.0909711, 0.2164, 0.0921862, 0, 0
2, 1140.00000, 0.212452, 0.0905041, 0.213548, 0.0909711, 0.2164, 0.0921862, 0, 0
2, 1200.00000, 0.212452, 0.0905041, 0.213548, 0.0909711, 0.2164, 0.0921862, 0, 0
2, 1260.00000, 0.212452, 0.0905041, 0.213548, 0.0909711, 0.2164, 0.0921862, 0, 0
2, 1320.00000, 0.212452, 0.0905041, 0.213548, 0.0909711, 0.2164, 0.0921862, 0, 0
2, 1380.00000, 0.212452, 0.0905041, 0.213548, 0.0909711, 0.2164, 0.0921862, 0, 0
2, 1440.00000, 0.212452, 0.0905041, 0.213548, 0.0909711, 0.2164, 0.0921862, 0, 0
2, 1500.00000, 0.212452, 0.0905041, 0.213548, 0.0909711, 0.2164, 0.0921862, 0, 0
2, 1560.00000, 0.212452, 0.0905041, 0.213548, 0.0909711, 0.2164, 0.0921862, 0, 0
2, 1620.00000, 0.212452, 0.0905041, 0.213548, 0.0909711, 0.2164, 0.0921862, 0, 0
2, 1680.00000, 0.212452, 0.0905041, 0.213548, 0.0909711, 0.2164, 0.0921862, 0, 0
2, 1740.00000, 0.212452, 0.0905041, 0.213548, 0.0909711, 0.2164, 0.0921862, 0, 0
2, 1800.00000, 0.212452, 0.0905041, 0.213548, 0.0909711, 0.2164, 0.0921862, 0, 0
2, 1860.00000, 0.226329, 0.0964145, 0.227512, 0.0969197, 0.231086, 0.0984415, 0, 0
2, 1920.00000, 0.226327, 0.0964147, 0.22751, 0.0969188, 0.231089, 0.0984434, 0, 0
2, 1980.00000, 0.226327, 0.0964147, 0.22751, 0.0969187, 0.231089, 0.0984434, 0, 0
2, 2040.00000, 0.226327, 0.0964147, 0.22751, 0.0969187, 0.231089, 0.0984434, 0, 0
2, 2100.00000, 0.226327, 0.0964147, 0.22751, 0.0969187, 0.231089, 0.0984434, 0, 0
2, 2160.00000, 0.226327, 0.0964147, 0.22751, 0.0969187, 0.231089, 0.0984434, 0, 0
2, 2220.00000, 0.226327, 0.0964147, 0.22751, 0.0969187, 0.231089, 0.0984434, 0, 0
2, 2280.00000, 0.226327, 0.0964147, 0.22751, 0.0969187, 0.231089, 0.0984434, 0, 0
2, 2340.00000, 0.226327, 0.0964147, 0.22751, 0.0969187, 0.231089, 0.0984434, 0, 0
2, 2400.00000, 0.226327, 0.0964147, 0.22751, 0.0969187, 0.231089, 0.0984434, 0, 0
2, 2460.00000, 0.226327, 0.0964147, 0.22751, 0.0969187, 0.231089, 0.0984434, 0, 0
2, 2520.00000, 0.226327, 0.0964147, 0.22751, 0.0969187, 0.231089, 0.0984434, 0, 0
2, 2580.00000, 0.226327, 0.0964147, 0.22751, 0.0969187, 0.231089, 0.0984434, 0, 0
2, 2640.00000, 0.226327, 0.0964147, 0.22751, 0.0969187, 0.231089, 0.0984434, 0, 0
2, 2700.00000, 0.226327, 0.0964147, 0.22751, 0.0969187, 0.231089, 0.0984434, 0, 0
2, 2760.00000, 0.210453, 0.0896552, 0.211512, 0.0901036, 0.213327, 0.0908791, 0, 0
2, 2820.00000, 0.210459, 0.0896552, 0.211519, 0.0901068, 0.21332, 0.0908739, 0, 0
2, 2880.00000, 0.210459, 0.0896552, 0.211519, 0.0901069, 0.21332, 0.0908738, 0, 0
2, 2940.00000, 0.210459, 0.0896552, 0.211519, 0.0901069, 0.21332, 0.0908738, 0, 0
2, 3000.00000, 0.210459, 0.0896552, 0.211519, 0.0901069, 0.21332, 0.0908738, 0, 0
2, 3060.00000, 0.210459, 0.0896552, 0.211519, 0.0901069, 0.21332, 0.0908738, 0, 0
2, 3120.00000, 0.210459, 0.0896552, 0.211519, 0.0901069, 0.21332, 0.0908738, 0, 0
2, 3180.00000, 0.210459, 0.0896552, 0.211519, 0.0901069, 0.21332, 0.0908738, 0, 0
2, 3240.00000, 0.210459, 0.0896552, 0.211519, 0.0901069, 0.21332, 0.0908738, 0, 0
2, 3300.00000, 0.210459, 0.0896552, 0.211519, 0.0901069, 0.21332, 0.0908738, 0, 0
2, 3360.00000, 0.210459, 0.0896552, 0.211519, 0.0901069, 0.21332, 0.0908738, 0, 0
2, 3420.00000, 0.210459, 0.0896552, 0.211519, 0.0901069, 0.21332, 0.0908738, 0, 0
2, 3480.00000, 0.210459, 0.0896552, 0.211519, 0.0901069, 0.21332, 0.0908738, 0, 0
2, 3540.00000, 0.210459, 0.0896552, 0.211519, 0.0901069, 0.21332, 0.0908738, 0, 0
3, 0.00000, 0.210459, 0.0896552, 0.211519, 0.0901069, 0.21332, 0.0908738, 0, 0
3, 60.00000, 0.224651, 0.0956992, 0.225798, 0.0961897, 0.228462, 0.0973232, 0, 0
3, 120.00000, 0.224648, 0.0956994, 0.225795, 0.0961882, 0.228466, 0.0973261, 0, 0
3, 180.00000, 0.224648, 0.0956995, 0.225795, 0.0961882, 0.228466, 0.0973262, 0, 0
3, 240.00000, 0.224648, 0.0956995, 0.225795, 0.0961882, 0.228466, 0.0973262, 0, 0
3, 300.00000, 0.224648, 0.0956995, 0.225795, 0.0961882, 0.228466, 0.0973262, 0, 0
3, 360.00000, 0.224648, 0.0956995, 0.225795, 0.0961882, 0.228466, 0.0973262, 0, 0
3, 420.00000, 0.224648, 0.0956995, 0.225795, 0.0961882, 0.228466, 0.0973262, 0, 0
3, 480.00000, 0.224648, 0.0956995, 0.225795, 0.0961882, 0.228466, 0.0973262, 0, 0
3, 540.00000, 0.224648, 0.0956995, 0.225795, 0.0961882, 0.228466, 0.0973262, 0, 0
3, 600.00000, 0.224648, 0.0956995, 0.225795, 0.0961882, 0.228466, 0.0973262, 0, 0
3, 660.00000, 0.224648, 0.0956995, 0.225795, 0.0961882, 0.228466, 0.0973262, 0, 0
3, 720.00000, 0.224648, 0.0956995, 0.225795, 0.0961882, 0.228466, 0.0973262, 0, 0
3, 780.00000, 0.224648, 0.0956995, 0.225795, 0.0961882, 0.228466, 0.0973262, 0, 0
3, 840.00000, 0.224648, 0.0956995, 0.225795, 0.0961882, 0.228466, 0.0973262, 0, 0
3, 900.00000, 0.224648, 0.0956995, 0.225795, 0.0961882, 0.228466, 0.0973262, 0, 0
3, 960.00000, 0.207798, 0.0885254, 0.208853, 0.0889701, 0.211052, 0.0899105, 0, 0
3, 1020.00000, 0.207806, 0.0885251, 0.208862, 0.0889746, 0.211043, 0.0899038, 0, 0
3, 1080.00000, 0.207806, 0.0885251, 0.208862, 0.0889747, 0.211043, 0.0899038, 0, 0
3, 1140.00000, 0.207806, 0.0885251, 0.208862, 0.0889747, 0.211043, 0.0899038, 0, 0
3, 1200.00000, 0.207806, 0.0885251, 0.208862, 0.0889747, 0.211043, 0.0899038, 0, 0
3, 1260.00000, 0.207806, 0.0885251, 0.208862, 0.0889747, 0.211043, 0.0899038, 0, 0
3, 1320.00000, 0.207806, 0.0885251, 0.208862, 0.0889747, 0.211043, 0.0899038, 0, 0
3, 1380.00000, 0.207806, 0.0885251, 0.208862, 0.0889747, 0.211043, 0.0899038, 0, 0
3, 1440.00000, 0.207806, 0.0885251, 0.208862, 0.0889747, 0.211043, 0.0899038, 0, 0
3, 1500.00000, 0.207806, 0.0885251, 0.208862, 0.0889747, 0.211043, 0.0899038, 0, 0
3, 1560.00000, 0.207806, 0.0885251, 0.208862, 0.0889747, 0.211043, 0.0899038, 0, 0
3, 1620.00000, 0.207806, 0.0885251, 0.208862, 0.0889747, 0.211043, 0.0899038, 0, 0
3, 1680.00000, 0.207806, 0.0885251, 0.208862, 0.0889747, 0.211043, 0.0899038, 0, 0
3, 1740.00000, 0.207806, 0.0885251, 0.208862, 0.0889747, 0.211043, 0.0899038, 0, 0
3, 1800.00000, 0.207806, 0.0885251, 0.208862, 0.0889747, 0.211043, 0.0899038, 0, 0
3, 1860.00000, 0.193759, 0.0825436, 0.194741, 0.0829604, 0.196658, 0.0837781, 0, 0
3, 1920.00000, 0.193765, 0.0825436, 0.194747, 0.0829619, 0.196654, 0.0837743, 0, 0
3, 1980.00000, 0.193765, 0.0825436, 0.194747, 0.0829619, 0.196654, 0.0837743, 0, 0
3, 2040.00000, 0.193765, 0.0825436, 0.194747, 0.0829619, 0.196654, 0.0837743, 0, 0
3, 2100.00000, 0.193765, 0.0825436, 0.194747, 0.0829619, 0.196654, 0.0837743, 0, 0
3, 2160.00000, 0.193765, 0.0825436, 0.194747, 0.0829619, 0.196654, 0.0837743, 0, 0
3, 2220.00000, 0.193765, 0.0825436, 0.194747, 0.0829619, 0.196654, 0.0837743, 0, 0
3, 2280.00000, 0.193765, 0.0825436, 0.194747, 0.0829619, 0.196654, 0.0837743, 0, 0
3, 2340.00000, 0.193765, 0.0825436, 0.194747, 0.0829619, 0.196654, 0.0837743, 0, 0
3, 2400.00000, 0.193765, 0.0825436, 0.194747, 0.0829619, 0.196654, 0.0837743, 0, 0
3, 2460.00000, 0.193765, 0.0825436, 0.194747, 0.0829619, 0.196654, 0.0837743, 0, 0
3, 2520.00000, 0.193765, 0.0825436, 0.194747, 0.0829619, 0.196654, 0.0837743, 0, 0
3, 2580.00000, 0.193765, 0.0825436, 0.194747, 0.0829619, 0.196654, 0.0837743, 0, 0
3, 2640.00000, 0.193765, 0.0825436, 0.194747, 0.0829619, 0.196654, 0.0837743, 0, 0
3, 2700.00000, 0.193765, 0.0825436, 0.194747, 0.0829619, 0.196654, 0.0837743, 0, 0
3, 2760.00000, 0.205516, 0.0875523, 0.206514, 0.0879746, 0.207282, 0.0883039, 0, 0
3, 2820.00000, 0.205524, 0.087553, 0.206521, 0.0879777, 0.207276, 0.0882992, 0, 0
3, 2880.00000, 0.205524, 0.087553, 0.206521, 0.0879778, 0.207276, 0.0882991, 0, 0
3, 2940.00000, 0.205524, 0.087553, 0.206521, 0.0879778, 0.207276, 0.0882991, 0, 0
3, 3000.00000, 0.205524, 0.087553, 0.206521, 0.0879778, 0.207276, 0.0882991, 0, 0
3, 3060.00000, 0.205524, 0.087553, 0.206521, 0.0879778, 0.207276, 0.0882991, 0, 0
3, 3120.00000, 0.205524, 0.087553, 0.206521, 0.0879778, 0.207276, 0.0882991, 0, 0
3, 3180.00000, 0.205524, 0.087553, 0.206521, 0.0879778, 0.207276, 0.0882991, 0, 0
3, 3240.00000, 0.205524, 0.087553, 0.206521, 0.0879778, 0.207276, 0.0882991, 0, 0
3, 3300.00000, 0.205524, 0.087553, 0.206521, 0.0879778, 0.207276, 0.0882991, 0, 0
3, 3360.00000, 0.205524, 0.087553, 0.206521, 0.0879778, 0.207276, 0.0882991, 0, 0
3, 3420.00000, 0.205524, 0.087553, 0.206521, 0.0879778, 0.207276, 0.0882991, 0, 0
3, 3480.00000, 0.205524, 0.087553, 0.206521, 0.0879778, 0.207276, 0.0882991, 0, 0
3, 3540.00000, 0.205524, 0.087553, 0.206521, 0.0879778, 0.207276, 0.0882991, 0, 0
4, 0.00000, 0.205524, 0.087553, 0.206521, 0.0879778, 0.207276, 0.0882991, 0, 0
4, 60.00000, 0.192485, 0.0819965, 0.19345, 0.0824095, 0.194822, 0.0829926, 0, 0
4, 120.00000, 0.19248, 0.0819962, 0.193446, 0.0824076, 0.194826, 0.0829956, 0, 0
4, 180.00000, 0.19248, 0.0819962, 0.193446, 0.0824076, 0.194826, 0.0829956, 0, 0
