hour,t(sec),V1,VAngle1,V2,VAngle2,V3,VAngle3,V4,VAngle4,I1,IAngle1,I2,IAngle2,I3,IAngle3,I4,IAngle4
0, 60.00000, 123.033, -31.9284, 120.023, -152.198, 121.487, 89.0157, 0, 0, 4.13226, -55.0014, 4.18839, -175.272, 4.18466, 65.9422, 0.133786, -42.8116
0, 120.00000, 123.066, -31.9371, 120.019, -152.214, 121.487, 89.0159, 0, 0, 4.13113, -55.0102, 4.18822, -175.288, 4.18466, 65.9424, 0.13576, -43.026
0, 180.00000, 123.096, -31.945, 120.015, -152.227, 121.487, 89.016, 0, 0, 4.13011, -55.0182, 4.18806, -175.301, 4.18466, 65.9425, 0.137534, -43.213
0, 240.00000, 123.123, -31.9522, 120.012, -152.24, 121.487, 89.0162, 0, 0, 4.1292, -55.0254, 4.18792, -175.314, 4.18467, 65.9426, 0.139132, -43.3774
0, 300.00000, 123.147, -31.9586, 120.009, -152.251, 121.487, 89.0163, 0, 0, 4.12838, -55.0319, 4.1878, -175.325, 4.18467, 65.9427, 0.140571, -43.5223
0, 360.00000, 123.168, -31.9644, 120.006, -152.262, 121.487, 89.0164, 0, 0, 4.12764, -55.0378, 4.18768, -175.336, 4.18467, 65.9428, 0.141865, -43.6502
0, 420.00000, 123.188, -31.9697, 120.004, -152.271, 121.487, 89.0165, 0, 0, 4.12698, -55.0431, 4.18758, -175.345, 4.18467, 65.9429, 0.14303, -43.7634
0, 480.00000, 123.206, -31.9744, 120.002, -152.279, 121.487, 89.0166, 0, 0, 4.12638, -55.0478, 4.18748, -175.353, 4.18468, 65.9429, 0.144077, -43.8637
0, 540.00000, 123.221, -31.9786, 119.999, -152.287, 121.487, 89.0167, 0, 0, 4.12584, -55.0521, 4.1874, -175.361, 4.18468, 65.943, 0.14502, -43.9528
0, 600.00000, 123.236, -31.9825, 119.998, -152.293, 121.487, 89.0168, 0, 0, 4.12536, -55.056, 4.18732, -175.367, 4.18468, 65.943, 0.145868, -44.032
0, 660.00000, 123.248, -31.9859, 119.996, -152.299, 121.487, 89.0169, 0, 0, 4.12493, -55.0595, 4.18725, -175.373, 4.18468, 65.9431, 0.146632, -44.1025
0, 720.00000, 123.26, -31.989, 119.994, -152.305, 121.487, 89.0169, 0, 0, 4.12453, -55.0627, 4.18718, -175.379, 4.18468, 65.9431, 0.147319, -44.1653
0, 780.00000, 123.27, -31.9918, 119.993, -152.31, 121.487, 89.017, 0, 0, 4.12418, -55.0655, 4.18713, -175.384, 4.18468, 65.9432, 0.147937, -44.2214
0, 840.00000, 123.28, -31.9944, 119.992, -152.314, 121.487, 89.017, 0, 0, 4.12387, -55.068, 4.18708, -175.388, 4.18468, 65.9432, 0.148493, -44.2715
0, 900.00000, 123.288, -31.9966, 119.991, -152.318, 121.487, 89.0171, 0, 0, 4.12358, -55.0703, 4.18703, -175.392, 4.18468, 65.9433, 0.148993, -44.3162
0, 960.00000, 122.742, -32.0609, 119.803, -152.344, 121.2, 88.8682, 0, 0, 4.01527, -55.1346, 4.05194, -175.418, 4.06632, 65.7944, 0.11854, -49.8576
0, 1020.00000, 122.748, -32.0627, 119.802, -152.347, 121.2, 88.8682, 0, 0, 4.01504, -55.1364, 4.05191, -175.421, 4.06632, 65.7944, 0.118938, -49.8815
0, 1080.00000, 122.754, -32.0644, 119.801, -152.35, 121.2, 88.8683, 0, 0, 4.01484, -55.1381, 4.05187, -175.424, 4.06632, 65.7944, 0.119296, -49.9031
0, 1140.00000, 122.76, -32.0659, 119.801, -152.353, 121.2, 88.8683, 0, 0, 4.01466, -55.1397, 4.05184, -175.427, 4.06632, 65.7944, 0.119618, -49.9225
0, 1200.00000, 122.765, -32.0673, 119.8, -152.355, 121.2, 88.8683, 0, 0, 4.0145, -55.141, 4.05182, -175.429, 4.06632, 65.7945, 0.119908, -49.9399
0, 1260.00000, 122.769, -32.0685, 119.799, -152.357, 121.2, 88.8684, 0, 0, 4.01436, -55.1423, 4.05179, -175.431, 4.06632, 65.7945, 0.120169, -49.9555
0, 1320.00000, 122.773, -32.0696, 119.799, -152.359, 121.2, 88.8684, 0, 0, 4.01423, -55.1434, 4.05177, -175.433, 4.06632, 65.7945, 0.120405, -49.9696
0, 1380.00000, 122.777, -32.0706, 119.798, -152.361, 121.2, 88.8684, 0, 0, 4.01411, -55.1444, 4.05175, -175.435, 4.06632, 65.7945, 0.120616, -49.9823
0, 1440.00000, 122.78, -32.0714, 119.798, -152.363, 121.2, 88.8684, 0, 0, 4.014, -55.1453, 4.05173, -175.436, 4.06632, 65.7945, 0.120807, -49.9937
0, 1500.00000, 122.783, -32.0722, 119.797, -152.364, 121.2, 88.8684, 0, 0, 4.01391, -55.1461, 4.05172, -175.438, 4.06632, 65.7946, 0.120978, -50.0039
0, 1560.00000, 122.785, -32.073, 119.797, -152.365, 121.2, 88.8685, 0, 0, 4.01382, -55.1468, 4.0517, -175.439, 4.06632, 65.7946, 0.121133, -50.0131
0, 1620.00000, 122.788, -32.0736, 119.797, -152.366, 121.2, 88.8685, 0, 0, 4.01374, -55.1475, 4.05169, -175.44, 4.06632, 65.7946, 0.121272, -50.0214
0, 1680.00000, 122.79, -32.0742, 119.796, -152.367, 121.2, 88.8685, 0, 0, 4.01367, -55.1481, 4.05168, -175.441, 4.06632, 65.7946, 0.121397, -50.0288
0, 1740.00000, 122.792, -32.0747, 119.796, -152.368, 121.2, 88.8685, 0, 0, 4.01361, -55.1486, 4.05167, -175.442, 4.06632, 65.7946, 0.12151, -50.0355
0, 1800.00000, 122.793, -32.0752, 119.796, -152.369, 121.2, 88.8685, 0, 0, 4.01355, -55.1491, 4.05166, -175.443, 4.06632, 65.7946, 0.121611, -50.0415
0, 1860.00000, 122.975, -32.0618, 119.941, -152.359, 121.352, 88.8853, 0, 0, 3.88472, -55.1356, 3.93266, -175.433, 3.93665, 65.8114, 0.125129, -46.2589
0, 1920.00000, 122.976, -32.0621, 119.94, -152.359, 121.352, 88.8853, 0, 0, 3.88467, -55.136, 3.93265, -175.433, 3.93665, 65.8114, 0.125209, -46.2667
0, 1980.00000, 122.977, -32.0625, 119.94, -152.36, 121.352, 88.8853, 0, 0, 3.88463, -55.1364, 3.93264, -175.434, 3.93665, 65.8114, 0.12528, -46.273
0, 2040.00000, 122.979, -32.0628, 119.94, -152.36, 121.352, 88.8853, 0, 0, 3.8846, -55.1367, 3.93264, -175.434, 3.93665, 65.8114, 0.125344, -46.2787
0, 2100.00000, 122.98, -32.0631, 119.94, -152.361, 121.352, 88.8853, 0, 0, 3.88456, -55.137, 3.93263, -175.435, 3.93665, 65.8114, 0.125401, -46.2838
0, 2160.00000, 122.981, -32.0633, 119.94, -152.361, 121.352, 88.8853, 0, 0, 3.88454, -55.1372, 3.93263, -175.435, 3.93665, 65.8114, 0.125453, -46.2883
0, 2220.00000, 122.981, -32.0636, 119.94, -152.362, 121.352, 88.8853, 0, 0, 3.88451, -55.1375, 3.93262, -175.436, 3.93665, 65.8114, 0.1255, -46.2925
0, 2280.00000, 122.982, -32.0638, 119.94, -152.362, 121.352, 88.8853, 0, 0, 3.88449, -55.1377, 3.93262, -175.436, 3.93665, 65.8114, 0.125542, -46.2962
0, 2340.00000, 122.983, -32.0639, 119.94, -152.362, 121.352, 88.8853, 0, 0, 3.88446, -55.1378, 3.93261, -175.436, 3.93665, 65.8114, 0.12558, -46.2995
0, 2400.00000, 122.983, -32.0641, 119.939, -152.363, 121.352, 88.8853, 0, 0, 3.88444, -55.138, 3.93261, -175.437, 3.93665, 65.8114, 0.125614, -46.3025
0, 2460.00000, 122.984, -32.0643, 119.939, -152.363, 121.352, 88.8853, 0, 0, 3.88443, -55.1382, 3.93261, -175.437, 3.93665, 65.8114, 0.125644, -46.3052
0, 2520.00000, 122.984, -32.0644, 119.939, -152.363, 121.352, 88.8853, 0, 0, 3.88441, -55.1383, 3.93261, -175.437, 3.93665, 65.8114, 0.125672, -46.3077
0, 2580.00000, 122.985, -32.0645, 119.939, -152.363, 121.352, 88.8853, 0, 0, 3.8844, -55.1384, 3.9326, -175.437, 3.93665, 65.8114, 0.125696, -46.3099
0, 2640.00000, 122.985, -32.0646, 119.939, -152.364, 121.352, 88.8853, 0, 0, 3.88439, -55.1385, 3.9326, -175.437, 3.93665, 65.8114, 0.125719, -46.3118
0, 2700.00000, 122.986, -32.0647, 119.939, -152.364, 121.352, 88.8853, 0, 0, 3.88437, -55.1386, 3.9326, -175.438, 3.93665, 65.8114, 0.125739, -46.3136
0, 2760.00000, 123.323, -32.0309, 120.217, -152.336, 121.645, 88.9241, 0, 0, 3.87004, -55.1048, 3.93895, -175.41, 3.92343, 65.8502, 0.140352, -40.213
0, 2820.00000, 123.323, -32.031, 120.217, -152.336, 121.645, 88.9241, 0, 0, 3.87003, -55.1049, 3.93894, -175.41, 3.92343, 65.8502, 0.14037, -40.2162
0, 2880.00000, 123.324, -32.031, 120.217, -152.336, 121.645, 88.9241, 0, 0, 3.87002, -55.1049, 3.93894, -175.41, 3.92343, 65.8502, 0.140384, -40.218
0, 2940.00000, 123.324, -32.0311, 120.217, -152.336, 121.645, 88.9241, 0, 0, 3.87001, -55.105, 3.93894, -175.41, 3.92343, 65.8502, 0.140397, -40.2196
0, 3000.00000, 123.324, -32.0312, 120.217, -152.336, 121.645, 88.9241, 0, 0, 3.87001, -55.1051, 3.93894, -175.41, 3.92343, 65.8502, 0.140409, -40.2211
0, 3060.00000, 123.324, -32.0312, 120.217, -152.336, 121.645, 88.9241, 0, 0, 3.87, -55.1051, 3.93894, -175.41, 3.92343, 65.8502, 0.140419, -40.2224
0, 3120.00000, 123.325, -32.0313, 120.217, -152.337, 121.645, 88.9241, 0, 0, 3.86999, -55.1052, 3.93894, -175.41, 3.92343, 65.8502, 0.140429, -40.2236
0, 3180.00000, 123.325, -32.0313, 120.217, -152.337, 121.645, 88.9241, 0, 0, 3.86999, -55.1052, 3.93894, -175.411, 3.92343, 65.8502, 0.140437, -40.2246
0, 3240.00000, 123.325, -32.0313, 120.217, -152.337, 121.645, 88.9241, 0, 0, 3.86999, -55.1053, 3.93894, -175.411, 3.92343, 65.8502, 0.140445, -40.2256
0, 3300.00000, 123.325, -32.0314, 120.217, -152.337, 121.645, 88.9241, 0, 0, 3.86998, -55.1053, 3.93893, -175.411, 3.92343, 65.8502, 0.140452, -40.2265
0, 3360.00000, 123.325, -32.0314, 120.217, -152.337, 121.645, 88.9241, 0, 0, 3.86998, -55.1053, 3.93893, -175.411, 3.92343, 65.8502, 0.140458, -40.2272
0, 3420.00000, 123.325, -32.0314, 120.217, -152.337, 121.645, 88.9241, 0, 0, 3.86997, -55.1053, 3.93893, -175.411, 3.92343, 65.8502, 0.140463, -40.2279
0, 3480.00000, 123.325, -32.0315, 120.217, -152.337, 121.645, 88.9241, 0, 0, 3.86997, -55.1054, 3.93893, -175.411, 3.92343, 65.8502, 0.140468, -40.2285
0, 3540.00000, 123.64, -31.9945, 120.208, -152.337, 121.727, 89.0451, 0, 0, 3.86011, -55.0685, 3.93861, -175.411, 3.92077, 65.9712, 0.156356, -40.341
1, 0.00000, 123.64, -31.9946, 120.208, -152.337, 121.727, 89.0451, 0, 0, 3.8601, -55.0685, 3.93861, -175.411, 3.92077, 65.9712, 0.156363, -40.3426
1, 60.00000, 123.863, -31.9699, 120.393, -152.318, 121.926, 89.0732, 0, 0, 3.7907, -55.0438, 3.88134, -175.392, 3.8509, 65.9993, 0.164027, -37.2514
1, 120.00000, 123.863, -31.9699, 120.393, -152.318, 121.926, 89.0732, 0, 0, 3.7907, -55.0438, 3.88134, -175.392, 3.8509, 65.9993, 0.164032, -37.2523
1, 180.00000, 123.863, -31.9699, 120.393, -152.318, 121.926, 89.0732, 0, 0, 3.7907, -55.0438, 3.88134, -175.392, 3.8509, 65.9993, 0.164034, -37.2526
1, 240.00000, 123.863, -31.9699, 120.393, -152.318, 121.926, 89.0732, 0, 0, 3.7907, -55.0438, 3.88134, -175.392, 3.8509, 65.9993, 0.164037, -37.253
1, 300.00000, 123.863, -31.9699, 120.393, -152.318, 121.926, 89.0732, 0, 0, 3.7907, -55.0438, 3.88134, -175.392, 3.8509, 65.9993, 0.164039, -37.2533
1, 360.00000, 123.863, -31.9699, 120.393, -152.318, 121.926, 89.0732, 0, 0, 3.79069, -55.0438, 3.88134, -175.392, 3.8509, 65.9993, 0.164041, -37.2535
1, 420.00000, 123.863, -31.9699, 120.393, -152.318, 121.926, 89.0732, 0, 0, 3.79069, -55.0438, 3.88134, -175.392, 3.8509, 65.9993, 0.164043, -37.2538
1, 480.00000, 123.863, -31.9699, 120.393, -152.318, 121.926, 89.0732, 0, 0, 3.79069, -55.0439, 3.88134, -175.392, 3.8509, 65.9993, 0.164045, -37.254
1, 540.00000, 123.863, -31.9699, 120.393, -152.318, 121.926, 89.0732, 0, 0, 3.79069, -55.0439, 3.88134, -175.392, 3.8509, 65.9993, 0.164046, -37.2542
1, 600.00000, 123.863, -31.97, 120.393, -152.318, 121.926, 89.0732, 0, 0, 3.79069, -55.0439, 3.88134, -175.392, 3.8509, 65.9993, 0.164048, -37.2543
1, 660.00000, 123.863, -31.97, 120.393, -152.318, 121.926, 89.0732, 0, 0, 3.79069, -55.0439, 3.88134, -175.392, 3.8509, 65.9993, 0.164049, -37.2545
1, 720.00000, 123.863, -31.97, 120.393, -152.318, 121.926, 89.0732, 0, 0, 3.79069, -55.0439, 3.88134, -175.392, 3.8509, 65.9993, 0.16405, -37.2546
1, 780.00000, 123.863, -31.97, 120.393, -152.318, 121.926, 89.0732, 0, 0, 3.79069, -55.0439, 3.88134, -175.392, 3.8509, 65.9993, 0.164051, -37.2548
1, 840.00000, 123.863, -31.97, 120.393, -152.318, 121.926, 89.0732, 0, 0, 3.79069, -55.0439, 3.88134, -175.392, 3.8509, 65.9993, 0.164052, -37.2549
1, 900.00000, 123.863, -31.97, 120.393, -152.318, 121.926, 89.0732, 0, 0, 3.79069, -55.0439, 3.88134, -175.392, 3.8509, 65.9993, 0.164053, -37.255
1, 960.00000, 123.907, -31.967, 120.43, -152.316, 121.966, 89.0773, 0, 0, 3.72919, -55.041, 3.82103, -175.39, 3.78852, 66.0034, 0.163525, -36.6778
1, 1020.00000, 123.907, -31.967, 120.43, -152.316, 121.966, 89.0773, 0, 0, 3.72919, -55.041, 3.82103, -175.39, 3.78852, 66.0033, 0.163527, -36.6783
1, 1080.00000, 123.907, -31.9671, 120.43, -152.316, 121.966, 89.0773, 0, 0, 3.72919, -55.041, 3.82103, -175.39, 3.78852, 66.0033, 0.163528, -36.6784
1, 1140.00000, 123.907, -31.9671, 120.43, -152.316, 121.966, 89.0773, 0, 0, 3.72919, -55.041, 3.82103, -175.39, 3.78852, 66.0033, 0.163528, -36.6785
1, 1200.00000, 123.907, -31.9671, 120.43, -152.316, 121.966, 89.0773, 0, 0, 3.72919, -55.041, 3.82103, -175.39, 3.78852, 66.0033, 0.163529, -36.6785
1, 1260.00000, 123.907, -31.9671, 120.43, -152.316, 121.966, 89.0773, 0, 0, 3.72919, -55.041, 3.82103, -175.39, 3.78852, 66.0033, 0.163529, -36.6786
1, 1320.00000, 123.907, -31.9671, 120.43, -152.316, 121.966, 89.0773, 0, 0, 3.72919, -55.041, 3.82103, -175.39, 3.78852, 66.0033, 0.163529, -36.6786
1, 1380.00000, 123.907, -31.9671, 120.43, -152.316, 121.966, 89.0773, 0, 0, 3.72919, -55.041, 3.82103, -175.39, 3.78852, 66.0033, 0.16353, -36.6787
1, 1440.00000, 123.907, -31.9671, 120.43, -152.316, 121.966, 89.0773, 0, 0, 3.72919, -55.041, 3.82103, -175.39, 3.78852, 66.0033, 0.16353, -36.6787
1, 1500.00000, 123.907, -31.9671, 120.43, -152.316, 121.966, 89.0773, 0, 0, 3.72919, -55.041, 3.82103, -175.39, 3.78852, 66.0033, 0.16353, -36.6788
1, 1560.00000, 123.907, -31.9671, 120.43, -152.316, 121.966, 89.0773, 0, 0, 3.72919, -55.041, 3.82103, -175.39, 3.78852, 66.0033, 0.163531, -36.6788
1, 1620.00000, 123.907, -31.9671, 120.43, -152.316, 121.966, 89.0773, 0, 0, 3.72918, -55.041, 3.82103, -175.39, 3.78852, 66.0033, 0.163531, -36.6788
1, 1680.00000, 123.907, -31.9671, 120.43, -152.316, 121.966, 89.0773, 0, 0, 3.72918, -55.041, 3.82103, -175.39, 3.78852, 66.0033, 0.163531, -36.6789
1, 1740.00000, 123.907, -31.9671, 120.43, -152.316, 121.966, 89.0773, 0, 0, 3.72918, -55.041, 3.82103, -175.39, 3.78852, 66.0033, 0.163531, -36.6789
1, 1800.00000, 123.907, -31.9671, 120.43, -152.316, 121.966, 89.0773, 0, 0, 3.72918, -55.041, 3.82103, -175.39, 3.78852, 66.0033, 0.163531, -36.6789
1, 1860.00000, 123.955, -31.8416, 120.648, -152.323, 121.775, 89.0488, 0, 0, 3.6304, -54.9155, 3.72873, -175.397, 3.69539, 65.9749, 0.16378, -39.9931
1, 1920.00000, 123.955, -31.8416, 120.648, -152.323, 121.775, 89.0488, 0, 0, 3.6304, -54.9155, 3.72873, -175.397, 3.69539, 65.9748, 0.163781, -39.9937
1, 1980.00000, 123.955, -31.8416, 120.648, -152.323, 121.775, 89.0488, 0, 0, 3.6304, -54.9155, 3.72873, -175.397, 3.69539, 65.9748, 0.163781, -39.9937
1, 2040.00000, 123.955, -31.8416, 120.648, -152.323, 121.775, 89.0488, 0, 0, 3.6304, -54.9155, 3.72873, -175.397, 3.69539, 65.9748, 0.163781, -39.9938
1, 2100.00000, 123.955, -31.8416, 120.648, -152.323, 121.775, 89.0488, 0, 0, 3.6304, -54.9155, 3.72873, -175.397, 3.69539, 65.9748, 0.163781, -39.9938
1, 2160.00000, 123.955, -31.8416, 120.648, -152.323, 121.775, 89.0488, 0, 0, 3.6304, -54.9155, 3.72873, -175.397, 3.69539, 65.9748, 0.163781, -39.9938
1, 2220.00000, 123.955, -31.8416, 120.648, -152.323, 121.775, 89.0488, 0, 0, 3.6304, -54.9155, 3.72873, -175.397, 3.69539, 65.9748, 0.163782, -39.9938
1, 2280.00000, 123.955, -31.8416, 120.648, -152.323, 121.775, 89.0488, 0, 0, 3.6304, -54.9155, 3.72873, -175.397, 3.69539, 65.9748, 0.163782, -39.9938
1, 2340.00000, 123.955, -31.8416, 120.648, -152.323, 121.775, 89.0488, 0, 0, 3.6304, -54.9155, 3.72873, -175.397, 3.69539, 65.9748, 0.163782, -39.9938
1, 2400.00000, 123.955, -31.8416, 120.648, -152.323, 121.775, 89.0488, 0, 0, 3.6304, -54.9155, 3.72873, -175.397, 3.69539, 65.9748, 0.163782, -39.9938
1, 2460.00000, 123.955, -31.8416, 120.648, -152.323, 121.775, 89.0488, 0, 0, 3.6304, -54.9155, 3.72873, -175.397, 3.69539, 65.9748, 0.163782, -39.9938
1, 2520.00000, 123.955, -31.8416, 120.648, -152.323, 121.775, 89.0488, 0, 0, 3.6304, -54.9155, 3.72873, -175.397, 3.69539, 65.9748, 0.163782, -39.9938
1, 2580.00000, 123.955, -31.8416, 120.648, -152.323, 121.775, 89.0488, 0, 0, 3.6304, -54.9155, 3.72873, -175.397, 3.69539, 65.9748, 0.163782, -39.9938
1, 2640.00000, 123.955, -31.8416, 120.648, -152.323, 121.775, 89.0488, 0, 0, 3.6304, -54.9155, 3.72873, -175.397, 3.69539, 65.9748, 0.163782, -39.9938
1, 2700.00000, 123.955, -31.8416, 120.648, -152.323, 121.775, 89.0488, 0, 0, 3.6304, -54.9155, 3.72873, -175.397, 3.69539, 65.9748, 0.163782, -39.9938
1, 2760.00000, 124.375, -31.796, 121.025, -152.286, 122.154, 89.1045, 0, 0, 3.65567, -54.8699, 3.75683, -175.36, 3.72211, 66.0306, 0.167722, -39.8216
1, 2820.00000, 124.375, -31.796, 121.025, -152.286, 122.154, 89.1045, 0, 0, 3.65566, -54.8699, 3.75683, -175.36, 3.72211, 66.0306, 0.167727, -39.8216
1, 2880.00000, 124.375, -31.796, 121.025, -152.286, 122.154, 89.1045, 0, 0, 3.65566, -54.8699, 3.75683, -175.36, 3.72211, 66.0306, 0.167727, -39.8216
1, 2940.00000, 124.375, -31.796, 121.025, -152.286, 122.154, 89.1045, 0, 0, 3.65566, -54.8699, 3.75683, -175.36, 3.72211, 66.0306, 0.167727, -39.8216
1, 3000.00000, 124.375, -31.796, 121.025, -152.286, 122.154, 89.1045, 0, 0, 3.65566, -54.8699, 3.75683, -175.36, 3.72211, 66.0306, 0.167727, -39.8216
1, 3060.00000, 124.375, -31.796, 121.025, -152.286, 122.154, 89.1045, 0, 0, 3.65566, -54.8699, 3.75683, -175.36, 3.72211, 66.0306, 0.167727, -39.8216
1, 3120.00000, 124.375, -31.796, 121.025, -152.286, 122.154, 89.1045, 0, 0, 3.65566, -54.8699, 3.75683, -175.36, 3.72211, 66.0306, 0.167727, -39.8216
1, 3180.00000, 124.375, -31.796, 121.025, -152.286, 122.154, 89.1045, 0, 0, 3.65566, -54.8699, 3.75683, -175.36, 3.72211, 66.0306, 0.167727, -39.8216
1, 3240.00000, 124.375, -31.796, 121.025, -152.286, 122.154, 89.1045, 0, 0, 3.65566, -54.8699, 3.75683, -175.36, 3.72211, 66.0306, 0.167727, -39.8216
1, 3300.00000, 124.375, -31.796, 121.025, -152.286, 122.154, 89.1045, 0, 0, 3.65566, -54.8699, 3.75683, -175.36, 3.72211, 66.0306, 0.167727, -39.8216
1, 3360.00000, 124.375, -31.796, 121.025, -152.286, 122.154, 89.1045, 0, 0, 3.65566, -54.8699, 3.75683, -175.36, 3.72211, 66.0306, 0.167727, -39.8216
1, 3420.00000, 124.375, -31.796, 121.025, -152.286, 122.154, 89.1045, 0, 0, 3.65566, -54.8699, 3.75683, -175.36, 3.72211, 66.0306, 0.167727, -39.8217
1, 3480.00000, 124.375, -31.796, 121.025, -152.286, 122.154, 89.1045, 0, 0, 3.65566, -54.8699, 3.75683, -175.36, 3.72211, 66.0306, 0.167727, -39.8217
1, 3540.00000, 124.375, -31.796, 121.025, -152.286, 122.154, 89.1045, 0, 0, 3.65566, -54.8699, 3.75683, -175.36, 3.72211, 66.0306, 0.167727, -39.8217
2, 0.00000, 124.375, -31.796, 121.025, -152.286, 122.154, 89.1045, 0, 0, 3.65566, -54.8699, 3.75683, -175.36, 3.72211, 66.0306, 0.167727, -39.8217
2, 60.00000, 124.122, -31.824, 120.796, -152.309, 121.925, 89.0708, 0, 0, 3.73837, -54.8979, 3.8413, -175.383, 3.80572, 65.9969, 0.17042, -39.7483
2, 120.00000, 124.122, -31.824, 120.796, -152.309, 121.925, 89.0708, 0, 0, 3.73837, -54.8979, 3.8413, -175.383, 3.80572, 65.9969, 0.170416, -39.7482
2, 180.00000, 124.122, -31.824, 120.796, -152.309, 121.925, 89.0708, 0, 0, 3.73837, -54.8979, 3.8413, -175.383, 3.80572, 65.9969, 0.170416, -39.7482
2, 240.00000, 124.122, -31.824, 120.796, -152.309, 121.925, 89.0708, 0, 0, 3.73837, -54.8979, 3.8413, -175.383, 3.80572, 65.9969, 0.170416, -39.7482
2, 300.00000, 124.122, -31.824, 120.796, -152.309, 121.925, 89.0708, 0, 0, 3.73837, -54.8979, 3.8413, -175.383, 3.80572, 65.9969, 0.170416, -39.7482
2, 360.00000, 124.122, -31.824, 120.796, -152.309, 121.925, 89.0708, 0, 0, 3.73837, -54.8979, 3.8413, -175.383, 3.80572, 65.9969, 0.170416, -39.7482
2, 420.00000, 124.122, -31.824, 120.796, -152.309, 121.925, 89.0708, 0, 0, 3.73837, -54.8979, 3.8413, -175.383, 3.80572, 65.9969, 0.170416, -39.7482
2, 480.00000, 124.122, -31.824, 120.796, -152.309, 121.925, 89.0708, 0, 0, 3.73837, -54.8979, 3.8413, -175.383, 3.80572, 65.9969, 0.170416, -39.7482
2, 540.00000, 124.122, -31.824, 120.796, -152.309, 121.925, 89.0708, 0, 0, 3.73837, -54.8979, 3.8413, -175.383, 3.80572, 65.9969, 0.170416, -39.7482
2, 600.00000, 124.122, -31.824, 120.796, -152.309, 121.925, 89.0708, 0, 0, 3.73837, -54.8979, 3.8413, -175.383, 3.80572, 65.9969, 0.170416, -39.7482
2, 660.00000, 124.122, -31.824, 120.796, -152.309, 121.925, 89.0708, 0, 0, 3.73837, -54.8979, 3.8413, -175.383, 3.80572, 65.9969, 0.170416, -39.7482
2, 720.00000, 124.122, -31.824, 120.796, -152.309, 121.925, 89.0708, 0, 0, 3.73837, -54.8979, 3.8413, -175.383, 3.80572, 65.9969, 0.170416, -39.7482
2, 780.00000, 124.122, -31.824, 120.796, -152.309, 121.925, 89.0708, 0, 0, 3.73837, -54.8979, 3.8413, -175.383, 3.80572, 65.9969, 0.170416, -39.7482
