hour,t(sec),"P1 (kW)","Q1 (kvar)","P2 (kW)","Q2 (kvar)","P3 (kW)","Q3 (kvar)","P4 (kW)","Q4 (kvar)"
0, 60.00000, 0.123224, 0.052492, 0.136331, 0.058075, 0.129633, 0.0552235, 0, 0
0, 120.00000, 0.123223, 0.0524918, 0.136407, 0.0581073, 0.129628, 0.0552215, 0, 0
0, 180.00000, 0.123222, 0.0524916, 0.136475, 0.0581365, 0.129624, 0.0552197, 0, 0
0, 240.00000, 0.123222, 0.0524914, 0.136536, 0.0581628, 0.12962, 0.055218, 0, 0
0, 300.00000, 0.123221, 0.0524913, 0.136592, 0.0581866, 0.129617, 0.0552165, 0, 0
0, 360.00000, 0.123221, 0.0524911, 0.136642, 0.0582083, 0.129613, 0.0552151, 0, 0
0, 420.00000, 0.12322, 0.052491, 0.136688, 0.0582279, 0.12961, 0.0552137, 0, 0
0, 480.00000, 0.139779, 0.0595447, 0.152614, 0.0650121, 0.146864, 0.0625637, 0, 0
0, 540.00000, 0.139779, 0.0595446, 0.152613, 0.065012, 0.14686, 0.0625622, 0, 0
0, 600.00000, 0.139778, 0.0595445, 0.152613, 0.0650119, 0.146857, 0.0625609, 0, 0
0, 660.00000, 0.139778, 0.0595445, 0.152613, 0.0650119, 0.146855, 0.0625598, 0, 0
0, 720.00000, 0.139778, 0.0595444, 0.152612, 0.0650119, 0.146852, 0.0625587, 0, 0
0, 780.00000, 0.139777, 0.0595443, 0.152612, 0.0650118, 0.14685, 0.0625578, 0, 0
0, 840.00000, 0.139777, 0.0595443, 0.152612, 0.0650118, 0.146848, 0.0625569, 0, 0
0, 900.00000, 0.139777, 0.0595442, 0.152612, 0.0650118, 0.146846, 0.0625561, 0, 0
0, 960.00000, 0.139682, 0.0595039, 0.152611, 0.0650116, 0.14446, 0.0615396, 0, 0
0, 1020.00000, 0.139681, 0.0595038, 0.152611, 0.0650116, 0.144458, 0.061539, 0, 0
0, 1080.00000, 0.139681, 0.0595037, 0.152611, 0.0650116, 0.144457, 0.0615385, 0, 0
0, 1140.00000, 0.139681, 0.0595037, 0.152611, 0.0650116, 0.144456, 0.061538, 0, 0
0, 1200.00000, 0.139681, 0.0595036, 0.152611, 0.0650116, 0.144455, 0.0615375, 0, 0
0, 1260.00000, 0.139681, 0.0595036, 0.152611, 0.0650116, 0.144454, 0.0615371, 0, 0
0, 1320.00000, 0.139681, 0.0595036, 0.152611, 0.0650116, 0.144453, 0.0615367, 0, 0
0, 1380.00000, 0.139681, 0.0595035, 0.15261, 0.0650116, 0.144452, 0.0615363, 0, 0
0, 1440.00000, 0.139681, 0.0595035, 0.15261, 0.0650116, 0.144451, 0.061536, 0, 0
0, 1500.00000, 0.13968, 0.0595035, 0.15261, 0.0650116, 0.144451, 0.0615357, 0, 0
0, 1560.00000, 0.13968, 0.0595035, 0.15261, 0.0650116, 0.14445, 0.0615355, 0, 0
0, 1620.00000, 0.13968, 0.0595035, 0.15261, 0.0650116, 0.144449, 0.0615352, 0, 0
0, 1680.00000, 0.13968, 0.0595034, 0.15261, 0.0650116, 0.144449, 0.061535, 0, 0
0, 1740.00000, 0.13968, 0.0595034, 0.15261, 0.0650116, 0.144449, 0.0615348, 0, 0
0, 1800.00000, 0.138533, 0.0590148, 0.151195, 0.0644086, 0.144594, 0.061597, 0, 0
0, 1860.00000, 0.138533, 0.0590148, 0.151199, 0.0644102, 0.144594, 0.0615969, 0, 0
0, 1920.00000, 0.138533, 0.0590148, 0.151202, 0.0644117, 0.144594, 0.0615967, 0, 0
0, 1980.00000, 0.138533, 0.0590148, 0.151205, 0.064413, 0.144594, 0.0615966, 0, 0
0, 2040.00000, 0.138533, 0.0590147, 0.151208, 0.0644142, 0.144593, 0.0615966, 0, 0
0, 2100.00000, 0.138533, 0.0590147, 0.15121, 0.0644153, 0.144593, 0.0615965, 0, 0
0, 2160.00000, 0.138533, 0.0590147, 0.151213, 0.0644163, 0.144593, 0.0615964, 0, 0
0, 2220.00000, 0.138533, 0.0590147, 0.151215, 0.0644172, 0.144593, 0.0615963, 0, 0
0, 2280.00000, 0.138533, 0.0590147, 0.151217, 0.0644179, 0.144593, 0.0615963, 0, 0
0, 2340.00000, 0.138533, 0.0590147, 0.151218, 0.0644187, 0.144593, 0.0615962, 0, 0
0, 2400.00000, 0.138533, 0.0590147, 0.15122, 0.0644193, 0.144593, 0.0615962, 0, 0
0, 2460.00000, 0.138533, 0.0590147, 0.151221, 0.0644199, 0.144592, 0.0615961, 0, 0
0, 2520.00000, 0.138533, 0.0590147, 0.151222, 0.0644204, 0.144592, 0.0615961, 0, 0
0, 2580.00000, 0.138533, 0.0590147, 0.151223, 0.0644208, 0.144592, 0.0615961, 0, 0
0, 2640.00000, 0.138533, 0.0590147, 0.151224, 0.0644213, 0.144592, 0.061596, 0, 0
0, 2700.00000, 0.138533, 0.0590147, 0.151225, 0.0644216, 0.144592, 0.061596, 0, 0
0, 2760.00000, 0.139913, 0.0596025, 0.151223, 0.0644205, 0.145415, 0.0619464, 0, 0
0, 2820.00000, 0.139913, 0.0596025, 0.151223, 0.0644208, 0.145415, 0.0619463, 0, 0
0, 2880.00000, 0.139913, 0.0596025, 0.151224, 0.0644211, 0.145414, 0.0619463, 0, 0
0, 2940.00000, 0.139913, 0.0596025, 0.151225, 0.0644214, 0.145414, 0.0619463, 0, 0
0, 3000.00000, 0.139913, 0.0596025, 0.151225, 0.0644216, 0.145414, 0.0619463, 0, 0
0, 3060.00000, 0.139913, 0.0596025, 0.151226, 0.0644218, 0.145414, 0.0619463, 0, 0
0, 3120.00000, 0.139913, 0.0596025, 0.151226, 0.064422, 0.145414, 0.0619463, 0, 0
0, 3180.00000, 0.139913, 0.0596025, 0.151226, 0.0644221, 0.145414, 0.0619462, 0, 0
0, 3240.00000, 0.139912, 0.0596025, 0.151227, 0.0644223, 0.145414, 0.0619462, 0, 0
0, 3300.00000, 0.139912, 0.0596025, 0.151227, 0.0644224, 0.145414, 0.0619462, 0, 0
0, 3360.00000, 0.139912, 0.0596025, 0.151227, 0.0644225, 0.145414, 0.0619462, 0, 0
0, 3420.00000, 0.139912, 0.0596025, 0.151227, 0.0644226, 0.145414, 0.0619462, 0, 0
0, 3480.00000, 0.139912, 0.0596025, 0.151228, 0.0644227, 0.145414, 0.0619462, 0, 0
0, 3540.00000, 0.139912, 0.0596025, 0.151228, 0.0644228, 0.145414, 0.0619462, 0, 0
1, 0.00000, 0.139912, 0.0596025, 0.151228, 0.0644229, 0.145414, 0.0619462, 0, 0
1, 60.00000, 0.140876, 0.0600128, 0.151227, 0.0644226, 0.14585, 0.0621318, 0, 0
1, 120.00000, 0.140876, 0.0600128, 0.151228, 0.0644227, 0.14585, 0.0621318, 0, 0
1, 180.00000, 0.140876, 0.0600128, 0.151228, 0.0644227, 0.14585, 0.0621318, 0, 0
1, 240.00000, 0.140876, 0.0600128, 0.151228, 0.0644228, 0.14585, 0.0621318, 0, 0
1, 300.00000, 0.140876, 0.0600128, 0.151228, 0.0644228, 0.14585, 0.0621318, 0, 0
1, 360.00000, 0.140876, 0.0600128, 0.151228, 0.0644229, 0.14585, 0.0621318, 0, 0
1, 420.00000, 0.140876, 0.0600128, 0.151228, 0.0644229, 0.14585, 0.0621318, 0, 0
1, 480.00000, 0.140876, 0.0600128, 0.151228, 0.064423, 0.14585, 0.0621318, 0, 0
1, 540.00000, 0.140876, 0.0600128, 0.151228, 0.064423, 0.14585, 0.0621318, 0, 0
1, 600.00000, 0.140876, 0.0600128, 0.151228, 0.064423, 0.14585, 0.0621318, 0, 0
1, 660.00000, 0.140876, 0.0600128, 0.151228, 0.064423, 0.14585, 0.0621318, 0, 0
1, 720.00000, 0.140876, 0.0600128, 0.151228, 0.0644231, 0.14585, 0.0621318, 0, 0
1, 780.00000, 0.141933, 0.0604632, 0.151243, 0.0644293, 0.146402, 0.062367, 0, 0
1, 840.00000, 0.141933, 0.0604632, 0.151243, 0.0644293, 0.146402, 0.062367, 0, 0
1, 900.00000, 0.141933, 0.0604632, 0.151243, 0.0644294, 0.146402, 0.062367, 0, 0
1, 960.00000, 0.141933, 0.0604632, 0.151243, 0.0644294, 0.146402, 0.062367, 0, 0
1, 1020.00000, 0.141933, 0.0604632, 0.151243, 0.0644294, 0.146402, 0.062367, 0, 0
1, 1080.00000, 0.141933, 0.0604632, 0.151243, 0.0644294, 0.146402, 0.062367, 0, 0
1, 1140.00000, 0.141933, 0.0604632, 0.151243, 0.0644294, 0.146402, 0.062367, 0, 0
1, 1200.00000, 0.141933, 0.0604632, 0.151243, 0.0644294, 0.146402, 0.062367, 0, 0
1, 1260.00000, 0.141933, 0.0604632, 0.151243, 0.0644294, 0.146402, 0.062367, 0, 0
1, 1320.00000, 0.141933, 0.0604632, 0.151243, 0.0644294, 0.146402, 0.062367, 0, 0
1, 1380.00000, 0.141933, 0.0604632, 0.151243, 0.0644294, 0.146402, 0.062367, 0, 0
1, 1440.00000, 0.141933, 0.0604632, 0.151243, 0.0644294, 0.146402, 0.062367, 0, 0
1, 1500.00000, 0.141933, 0.0604632, 0.151243, 0.0644295, 0.146402, 0.062367, 0, 0
1, 1560.00000, 0.141933, 0.0604632, 0.151244, 0.0644295, 0.146402, 0.062367, 0, 0
1, 1620.00000, 0.141933, 0.0604632, 0.151244, 0.0644295, 0.146402, 0.0623669, 0, 0
1, 1680.00000, 0.141933, 0.0604632, 0.151244, 0.0644295, 0.146402, 0.0623669, 0, 0
1, 1740.00000, 0.141933, 0.0604632, 0.151244, 0.0644295, 0.146402, 0.0623669, 0, 0
1, 1800.00000, 0.141933, 0.0604632, 0.151244, 0.0644295, 0.146402, 0.0623669, 0, 0
1, 1860.00000, 0.141933, 0.0604632, 0.151244, 0.0644295, 0.146402, 0.0623669, 0, 0
1, 1920.00000, 0.141933, 0.0604632, 0.151244, 0.0644295, 0.146402, 0.0623669, 0, 0
1, 1980.00000, 0.141933, 0.0604632, 0.151244, 0.0644295, 0.146402, 0.0623669, 0, 0
1, 2040.00000, 0.141933, 0.0604632, 0.151244, 0.0644295, 0.146402, 0.0623669, 0, 0
1, 2100.00000, 0.141933, 0.0604632, 0.151244, 0.0644295, 0.146402, 0.0623669, 0, 0
1, 2160.00000, 0.141933, 0.0604632, 0.151244, 0.0644295, 0.146402, 0.0623669, 0, 0
1, 2220.00000, 0.14311, 0.0609647, 0.15261, 0.0650116, 0.146246, 0.0623007, 0, 0
1, 2280.00000, 0.14311, 0.0609647, 0.15261, 0.0650115, 0.146246, 0.0623007, 0, 0
1, 2340.00000, 0.14311, 0.0609647, 0.15261, 0.0650115, 0.146246, 0.0623007, 0, 0
1, 2400.00000, 0.14311, 0.0609647, 0.15261, 0.0650115, 0.146246, 0.0623007, 0, 0
1, 2460.00000, 0.14311, 0.0609647, 0.15261, 0.0650115, 0.146246, 0.0623007, 0, 0
1, 2520.00000, 0.14311, 0.0609647, 0.15261, 0.0650115, 0.146246, 0.0623007, 0, 0
1, 2580.00000, 0.14311, 0.0609647, 0.15261, 0.0650115, 0.146246, 0.0623007, 0, 0
1, 2640.00000, 0.14311, 0.0609647, 0.15261, 0.0650115, 0.146246, 0.0623007, 0, 0
1, 2700.00000, 0.14311, 0.0609647, 0.15261, 0.0650115, 0.146246, 0.0623007, 0, 0
1, 2760.00000, 0.14311, 0.0609647, 0.15261, 0.0650115, 0.146246, 0.0623007, 0, 0
1, 2820.00000, 0.14311, 0.0609647, 0.15261, 0.0650115, 0.146246, 0.0623007, 0, 0
1, 2880.00000, 0.14311, 0.0609647, 0.15261, 0.0650115, 0.146246, 0.0623007, 0, 0
1, 2940.00000, 0.14311, 0.0609647, 0.15261, 0.0650115, 0.146246, 0.0623007, 0, 0
1, 3000.00000, 0.14311, 0.0609647, 0.15261, 0.0650115, 0.146246, 0.0623007, 0, 0
1, 3060.00000, 0.14311, 0.0609647, 0.15261, 0.0650115, 0.146246, 0.0623007, 0, 0
1, 3120.00000, 0.14311, 0.0609647, 0.15261, 0.0650115, 0.146246, 0.0623007, 0, 0
1, 3180.00000, 0.14311, 0.0609647, 0.15261, 0.0650115, 0.146246, 0.0623007, 0, 0
1, 3240.00000, 0.14311, 0.0609647, 0.15261, 0.0650115, 0.146246, 0.0623007, 0, 0
1, 3300.00000, 0.14311, 0.0609647, 0.15261, 0.0650115, 0.146246, 0.0623007, 0, 0
1, 3360.00000, 0.14311, 0.0609647, 0.15261, 0.0650115, 0.146246, 0.0623007, 0, 0
1, 3420.00000, 0.14311, 0.0609647, 0.15261, 0.0650115, 0.146246, 0.0623007, 0, 0
1, 3480.00000, 0.14311, 0.0609647, 0.15261, 0.0650115, 0.146246, 0.0623007, 0, 0
1, 3540.00000, 0.14311, 0.0609647, 0.15261, 0.0650115, 0.146246, 0.0623007, 0, 0
2, 0.00000, 0.14311, 0.0609647, 0.15261, 0.0650115, 0.146246, 0.0623007, 0, 0
2, 60.00000, 0.14311, 0.0609647, 0.15261, 0.0650115, 0.146246, 0.0623007, 0, 0
2, 120.00000, 0.14311, 0.0609647, 0.15261, 0.0650115, 0.146246, 0.0623007, 0, 0
2, 180.00000, 0.14311, 0.0609647, 0.15261, 0.0650115, 0.146246, 0.0623007, 0, 0
2, 240.00000, 0.14311, 0.0609647, 0.15261, 0.0650115, 0.146246, 0.0623007, 0, 0
2, 300.00000, 0.14311, 0.0609647, 0.15261, 0.0650115, 0.146246, 0.0623007, 0, 0
2, 360.00000, 0.14311, 0.0609647, 0.15261, 0.0650115, 0.146246, 0.0623007, 0, 0
2, 420.00000, 0.14311, 0.0609647, 0.15261, 0.0650115, 0.146246, 0.0623007, 0, 0
2, 480.00000, 0.14311, 0.0609647, 0.15261, 0.0650115, 0.146246, 0.0623007, 0, 0
2, 540.00000, 0.14311, 0.0609647, 0.15261, 0.0650115, 0.146246, 0.0623007, 0, 0
2, 600.00000, 0.14311, 0.0609647, 0.15261, 0.0650115, 0.146246, 0.0623007, 0, 0
2, 660.00000, 0.14311, 0.0609647, 0.15261, 0.0650115, 0.146246, 0.0623007, 0, 0
2, 720.00000, 0.14311, 0.0609647, 0.15261, 0.0650115, 0.146246, 0.0623007, 0, 0
2, 780.00000, 0.14311, 0.0609647, 0.15261, 0.0650115, 0.146246, 0.0623007, 0, 0
2, 840.00000, 0.143202, 0.0610039, 0.15261, 0.0650116, 0.148671, 0.0633335, 0, 0
2, 900.00000, 0.143202, 0.0610039, 0.15261, 0.0650115, 0.148671, 0.0633335, 0, 0
2, 960.00000, 0.143202, 0.0610039, 0.15261, 0.0650115, 0.148671, 0.0633335, 0, 0
2, 1020.00000, 0.143202, 0.0610039, 0.15261, 0.0650115, 0.148671, 0.0633335, 0, 0
2, 1080.00000, 0.143202, 0.0610039, 0.15261, 0.0650115, 0.148671, 0.0633335, 0, 0
2, 1140.00000, 0.143202, 0.0610039, 0.15261, 0.0650115, 0.148671, 0.0633335, 0, 0
2, 1200.00000, 0.143202, 0.0610039, 0.15261, 0.0650115, 0.148671, 0.0633335, 0, 0
2, 1260.00000, 0.143202, 0.0610039, 0.15261, 0.0650115, 0.148671, 0.0633335, 0, 0
2, 1320.00000, 0.143202, 0.0610039, 0.15261, 0.0650115, 0.148671, 0.0633335, 0, 0
2, 1380.00000, 0.143202, 0.0610039, 0.15261, 0.0650115, 0.148671, 0.0633335, 0, 0
2, 1440.00000, 0.143202, 0.0610039, 0.15261, 0.0650115, 0.148671, 0.0633335, 0, 0
2, 1500.00000, 0.143202, 0.0610039, 0.15261, 0.0650115, 0.148671, 0.0633335, 0, 0
2, 1560.00000, 0.143202, 0.0610039, 0.15261, 0.0650115, 0.148671, 0.0633335, 0, 0
2, 1620.00000, 0.143202, 0.0610039, 0.15261, 0.0650115, 0.148671, 0.0633335, 0, 0
2, 1680.00000, 0.143202, 0.0610039, 0.15261, 0.0650115, 0.148671, 0.0633335, 0, 0
2, 1740.00000, 0.143202, 0.0610039, 0.15261, 0.0650115, 0.148671, 0.0633335, 0, 0
2, 1800.00000, 0.143202, 0.0610039, 0.15261, 0.0650115, 0.148671, 0.0633335, 0, 0
2, 1860.00000, 0.143202, 0.0610039, 0.15261, 0.0650115, 0.148671, 0.0633335, 0, 0
2, 1920.00000, 0.143202, 0.0610039, 0.15261, 0.0650115, 0.148671, 0.0633335, 0, 0
2, 1980.00000, 0.143202, 0.0610039, 0.15261, 0.0650115, 0.148671, 0.0633335, 0, 0
2, 2040.00000, 0.143202, 0.0610039, 0.15261, 0.0650115, 0.148671, 0.0633335, 0, 0
2, 2100.00000, 0.143202, 0.0610039, 0.15261, 0.0650115, 0.148671, 0.0633335, 0, 0
2, 2160.00000, 0.143202, 0.0610039, 0.15261, 0.0650115, 0.148671, 0.0633335, 0, 0
2, 2220.00000, 0.143202, 0.0610039, 0.15261, 0.0650115, 0.148671, 0.0633335, 0, 0
2, 2280.00000, 0.143202, 0.0610039, 0.15261, 0.0650115, 0.148671, 0.0633335, 0, 0
2, 2340.00000, 0.143202, 0.0610039, 0.15261, 0.0650115, 0.148671, 0.0633335, 0, 0
2, 2400.00000, 0.14372, 0.0612243, 0.15261, 0.0650116, 0.148555, 0.0632842, 0, 0
2, 2460.00000, 0.14372, 0.0612243, 0.15261, 0.0650115, 0.148555, 0.0632842, 0, 0
2, 2520.00000, 0.14372, 0.0612243, 0.15261, 0.0650115, 0.148555, 0.0632842, 0, 0
2, 2580.00000, 0.14372, 0.0612243, 0.15261, 0.0650115, 0.148555, 0.0632842, 0, 0
2, 2640.00000, 0.14372, 0.0612243, 0.15261, 0.0650115, 0.148555, 0.0632842, 0, 0
2, 2700.00000, 0.142561, 0.0607306, 0.15261, 0.0650115, 0.148743, 0.0633641, 0, 0
2, 2760.00000, 0.142561, 0.0607306, 0.15261, 0.0650115, 0.148743, 0.0633642, 0, 0
2, 2820.00000, 0.142561, 0.0607306, 0.15261, 0.0650115, 0.148743, 0.0633642, 0, 0
2, 2880.00000, 0.142561, 0.0607306, 0.15261, 0.0650115, 0.148743, 0.0633642, 0, 0
2, 2940.00000, 0.142561, 0.0607306, 0.15261, 0.0650115, 0.148743, 0.0633642, 0, 0
2, 3000.00000, 0.142561, 0.0607306, 0.15261, 0.0650115, 0.148743, 0.0633642, 0, 0
2, 3060.00000, 0.143749, 0.061237, 0.15261, 0.0650115, 0.14938, 0.0636355, 0, 0
2, 3120.00000, 0.14375, 0.061237, 0.15261, 0.0650115, 0.14938, 0.0636355, 0, 0
2, 3180.00000, 0.14375, 0.061237, 0.15261, 0.0650115, 0.14938, 0.0636355, 0, 0
2, 3240.00000, 0.14375, 0.061237, 0.15261, 0.0650115, 0.14938, 0.0636355, 0, 0
2, 3300.00000, 0.14375, 0.061237, 0.15261, 0.0650115, 0.14938, 0.0636355, 0, 0
2, 3360.00000, 0.14375, 0.061237, 0.15261, 0.0650115, 0.14938, 0.0636355, 0, 0
2, 3420.00000, 0.14375, 0.061237, 0.15261, 0.0650115, 0.14938, 0.0636355, 0, 0
2, 3480.00000, 0.14375, 0.061237, 0.15261, 0.0650115, 0.14938, 0.0636355, 0, 0
2, 3540.00000, 0.14375, 0.061237, 0.15261, 0.0650115, 0.14938, 0.0636355, 0, 0
3, 0.00000, 0.14375, 0.061237, 0.15261, 0.0650115, 0.14938, 0.0636355, 0, 0
3, 60.00000, 0.14375, 0.061237, 0.15261, 0.0650115, 0.14938, 0.0636355, 0, 0
3, 120.00000, 0.14375, 0.061237, 0.15261, 0.0650115, 0.14938, 0.0636355, 0, 0
3, 180.00000, 0.14375, 0.061237, 0.15261, 0.0650115, 0.14938, 0.0636355, 0, 0
3, 240.00000, 0.14375, 0.061237, 0.15261, 0.0650115, 0.14938, 0.0636355, 0, 0
3, 300.00000, 0.14375, 0.061237, 0.15261, 0.0650115, 0.14938, 0.0636355, 0, 0
3, 360.00000, 0.14375, 0.061237, 0.15261, 0.0650115, 0.14938, 0.0636355, 0, 0
3, 420.00000, 0.14375, 0.061237, 0.15261, 0.0650115, 0.14938, 0.0636355, 0, 0
3, 480.00000, 0.14375, 0.061237, 0.15261, 0.0650115, 0.14938, 0.0636355, 0, 0
3, 540.00000, 0.14375, 0.061237, 0.15261, 0.0650115, 0.14938, 0.0636355, 0, 0
3, 600.00000, 0.14375, 0.061237, 0.15261, 0.0650115, 0.14938, 0.0636355, 0, 0
3, 660.00000, 0.14375, 0.061237, 0.15261, 0.0650115, 0.14938, 0.0636355, 0, 0
3, 720.00000, 0.14375, 0.061237, 0.15261, 0.0650115, 0.14938, 0.0636355, 0, 0
3, 780.00000, 0.14375, 0.061237, 0.15261, 0.0650115, 0.14938, 0.0636355, 0, 0
3, 840.00000, 0.14375, 0.061237, 0.15261, 0.0650115, 0.14938, 0.0636355, 0, 0
3, 900.00000, 0.14375, 0.061237, 0.15261, 0.0650115, 0.14938, 0.0636355, 0, 0
3, 960.00000, 0.14375, 0.061237, 0.15261, 0.0650115, 0.14938, 0.0636355, 0, 0
3, 1020.00000, 0.14375, 0.061237, 0.15261, 0.0650115, 0.14938, 0.0636355, 0, 0
3, 1080.00000, 0.14375, 0.061237, 0.15261, 0.0650115, 0.14938, 0.0636355, 0, 0
3, 1140.00000, 0.14375, 0.061237, 0.15261, 0.0650115, 0.14938, 0.0636355, 0, 0
3, 1200.00000, 0.14375, 0.061237, 0.15261, 0.0650115, 0.14938, 0.0636355, 0, 0
3, 1260.00000, 0.14375, 0.061237, 0.15261, 0.0650115, 0.14938, 0.0636355, 0, 0
3, 1320.00000, 0.14375, 0.061237, 0.15261, 0.0650115, 0.14938, 0.0636355, 0, 0
3, 1380.00000, 0.14375, 0.061237, 0.15261, 0.0650115, 0.14938, 0.0636355, 0, 0
3, 1440.00000, 0.14375, 0.061237, 0.15261, 0.0650115, 0.14938, 0.0636355, 0, 0
3, 1500.00000, 0.14375, 0.061237, 0.15261, 0.0650115, 0.14938, 0.0636355, 0, 0
3, 1560.00000, 0.14375, 0.061237, 0.15261, 0.0650115, 0.14938, 0.0636355, 0, 0
3, 1620.00000, 0.14375, 0.061237, 0.15261, 0.0650115, 0.14938, 0.0636355, 0, 0
3, 1680.00000, 0.14375, 0.061237, 0.15261, 0.0650115, 0.14938, 0.0636355, 0, 0
3, 1740.00000, 0.14375, 0.061237, 0.15261, 0.0650115, 0.14938, 0.0636355, 0, 0
3, 1800.00000, 0.14375, 0.061237, 0.15261, 0.0650115, 0.14938, 0.0636355, 0, 0
3, 1860.00000, 0.14375, 0.061237, 0.15261, 0.0650115, 0.14938, 0.0636355, 0, 0
3, 1920.00000, 0.14375, 0.061237, 0.15261, 0.0650115, 0.14938, 0.0636355, 0, 0
3, 1980.00000, 0.14375, 0.061237, 0.15261, 0.0650115, 0.14938, 0.0636355, 0, 0
3, 2040.00000, 0.14375, 0.061237, 0.15261, 0.0650115, 0.14938, 0.0636355, 0, 0
3, 2100.00000, 0.14375, 0.061237, 0.15261, 0.0650115, 0.14938, 0.0636355, 0, 0
3, 2160.00000, 0.14375, 0.061237, 0.15261, 0.0650115, 0.14938, 0.0636355, 0, 0
3, 2220.00000, 0.14375, 0.061237, 0.15261, 0.0650115, 0.14938, 0.0636355, 0, 0
3, 2280.00000, 0.14375, 0.061237, 0.15261, 0.0650115, 0.14938, 0.0636355, 0, 0
3, 2340.00000, 0.14375, 0.061237, 0.15261, 0.0650115, 0.14938, 0.0636355, 0, 0
3, 2400.00000, 0.14375, 0.061237, 0.15261, 0.0650115, 0.14938, 0.0636355, 0, 0
3, 2460.00000, 0.14375, 0.061237, 0.15261, 0.0650115, 0.14938, 0.0636355, 0, 0
3, 2520.00000, 0.14375, 0.061237, 0.15261, 0.0650115, 0.14938, 0.0636355, 0, 0
3, 2580.00000, 0.14375, 0.061237, 0.15261, 0.0650115, 0.14938, 0.0636355, 0, 0
3, 2640.00000, 0.14375, 0.061237, 0.15261, 0.0650115, 0.14938, 0.0636355, 0, 0
3, 2700.00000, 0.14375, 0.061237, 0.15261, 0.0650115, 0.14938, 0.0636355, 0, 0
3, 2760.00000, 0.14375, 0.061237, 0.15261, 0.0650115, 0.14938, 0.0636355, 0, 0
3, 2820.00000, 0.14375, 0.061237, 0.15261, 0.0650115, 0.14938, 0.0636355, 0, 0
3, 2880.00000, 0.14375, 0.061237, 0.15261, 0.0650115, 0.14938, 0.0636355, 0, 0
3, 2940.00000, 0.14375, 0.061237, 0.15261, 0.0650115, 0.14938, 0.0636355, 0, 0
3, 3000.00000, 0.14375, 0.061237, 0.15261, 0.0650115, 0.14938, 0.0636355, 0, 0
3, 3060.00000, 0.14375, 0.061237, 0.15261, 0.0650115, 0.14938, 0.0636355, 0, 0
3, 3120.00000, 0.14375, 0.061237, 0.15261, 0.0650115, 0.14938, 0.0636355, 0, 0
3, 3180.00000, 0.151022, 0.0643353, 0.160966, 0.0685714, 0.156984, 0.0668751, 0, 0
3, 3240.00000, 0.151022, 0.0643352, 0.160967, 0.0685715, 0.156985, 0.0668751, 0, 0
3, 3300.00000, 0.151022, 0.0643352, 0.160967, 0.0685715, 0.156985, 0.0668751, 0, 0
3, 3360.00000, 0.151022, 0.0643352, 0.160967, 0.0685715, 0.156985, 0.0668751, 0, 0
3, 3420.00000, 0.151022, 0.0643352, 0.160967, 0.0685715, 0.156985, 0.0668751, 0, 0
3, 3480.00000, 0.151022, 0.0643352, 0.160967, 0.0685715, 0.156985, 0.0668751, 0, 0
3, 3540.00000, 0.151022, 0.0643352, 0.160967, 0.0685715, 0.156985, 0.0668751, 0, 0
4, 0.00000, 0.151022, 0.0643352, 0.160967, 0.0685715, 0.156985, 0.0668751, 0, 0
4, 60.00000, 0.151022, 0.0643352, 0.160967, 0.0685715, 0.156985, 0.0668751, 0, 0
4, 120.00000, 0.151022, 0.0643352, 0.160967, 0.0685715, 0.156985, 0.0668751, 0, 0
4, 180.00000, 0.151022, 0.0643352, 0.160967, 0.0685715, 0.156985, 0.0668751, 0, 0
4, 240.00000, 0.151022, 0.0643352, 0.160967, 0.0685715, 0.156985, 0.0668751, 0, 0
4, 300.00000, 0.151022, 0.0643352, 0.160967, 0.0685715, 0.156985, 0.0668751, 0, 0
