hour,t(sec),V1,VAngle1,V2,VAngle2,V3,VAngle3,V4,VAngle4,I1,IAngle1,I2,IAngle2,I3,IAngle3,I4,IAngle4
0, 60.00000, 118.108, -31.0299, 118.146, -150.692, 119.397, 89.144, 0, 0, 5.39161, -54.1033, 5.39353, -173.766, 5.45712, 66.0705, 0.0371372, -110.6
0, 120.00000, 118.108, -31.0299, 118.146, -150.692, 119.397, 89.1439, 0, 0, 5.39156, -54.1038, 5.39346, -173.766, 5.45691, 66.07, 0.0369432, -110.65
0, 180.00000, 118.108, -31.0299, 118.146, -150.692, 119.397, 89.1439, 0, 0, 5.39156, -54.1039, 5.39346, -173.766, 5.45691, 66.07, 0.0369398, -110.651
0, 240.00000, 118.108, -31.0299, 118.146, -150.692, 119.397, 89.1439, 0, 0, 5.39156, -54.1039, 5.39346, -173.766, 5.45691, 66.07, 0.0369398, -110.651
0, 300.00000, 118.108, -31.0299, 118.146, -150.692, 119.397, 89.1439, 0, 0, 5.39156, -54.1039, 5.39346, -173.766, 5.45691, 66.07, 0.0369398, -110.651
0, 360.00000, 118.108, -31.0299, 118.146, -150.692, 119.397, 89.1439, 0, 0, 5.39156, -54.1039, 5.39346, -173.766, 5.45691, 66.07, 0.0369398, -110.651
0, 420.00000, 118.108, -31.0299, 118.146, -150.692, 119.397, 89.1439, 0, 0, 5.39156, -54.1039, 5.39346, -173.766, 5.45691, 66.07, 0.0369398, -110.651
0, 480.00000, 118.108, -31.0299, 118.146, -150.692, 119.397, 89.1439, 0, 0, 5.39156, -54.1039, 5.39346, -173.766, 5.45691, 66.07, 0.0369398, -110.651
0, 540.00000, 118.108, -31.0299, 118.146, -150.692, 119.397, 89.1439, 0, 0, 5.39156, -54.1039, 5.39346, -173.766, 5.45691, 66.07, 0.0369398, -110.651
0, 600.00000, 118.108, -31.0299, 118.146, -150.692, 119.397, 89.1439, 0, 0, 5.39156, -54.1039, 5.39346, -173.766, 5.45691, 66.07, 0.0369398, -110.651
0, 660.00000, 118.108, -31.0299, 118.146, -150.692, 119.397, 89.1439, 0, 0, 5.39156, -54.1039, 5.39346, -173.766, 5.45691, 66.07, 0.0369398, -110.651
0, 720.00000, 118.108, -31.0299, 118.146, -150.692, 119.397, 89.1439, 0, 0, 5.39156, -54.1039, 5.39346, -173.766, 5.45691, 66.07, 0.0369398, -110.651
0, 780.00000, 118.108, -31.0299, 118.146, -150.692, 119.397, 89.1439, 0, 0, 5.39156, -54.1039, 5.39346, -173.766, 5.45691, 66.07, 0.0369398, -110.651
0, 840.00000, 118.108, -31.0299, 118.146, -150.692, 119.397, 89.1439, 0, 0, 5.39156, -54.1039, 5.39346, -173.766, 5.45691, 66.07, 0.0369398, -110.651
0, 900.00000, 118.108, -31.0299, 118.146, -150.692, 119.397, 89.1439, 0, 0, 5.39156, -54.1039, 5.39346, -173.766, 5.45691, 66.07, 0.0369398, -110.651
0, 960.00000, 117.835, -31.0495, 117.883, -150.711, 119.137, 89.1198, 0, 0, 5.68893, -54.1233, 5.69148, -173.785, 5.75877, 66.0459, 0.0395561, -110.754
0, 1020.00000, 117.835, -31.0495, 117.882, -150.711, 119.137, 89.1198, 0, 0, 5.68891, -54.1234, 5.69146, -173.785, 5.75874, 66.0458, 0.039542, -110.755
0, 1080.00000, 117.835, -31.0495, 117.882, -150.711, 119.137, 89.1198, 0, 0, 5.68891, -54.1234, 5.69146, -173.785, 5.75874, 66.0458, 0.039542, -110.755
0, 1140.00000, 117.835, -31.0495, 117.882, -150.711, 119.137, 89.1198, 0, 0, 5.68891, -54.1234, 5.69146, -173.785, 5.75874, 66.0458, 0.039542, -110.755
0, 1200.00000, 117.835, -31.0495, 117.882, -150.711, 119.137, 89.1198, 0, 0, 5.68891, -54.1234, 5.69146, -173.785, 5.75874, 66.0458, 0.039542, -110.755
0, 1260.00000, 117.835, -31.0495, 117.882, -150.711, 119.137, 89.1198, 0, 0, 5.68891, -54.1234, 5.69146, -173.785, 5.75874, 66.0458, 0.039542, -110.755
0, 1320.00000, 117.835, -31.0495, 117.882, -150.711, 119.137, 89.1198, 0, 0, 5.68891, -54.1234, 5.69146, -173.785, 5.75874, 66.0458, 0.039542, -110.755
0, 1380.00000, 117.835, -31.0495, 117.882, -150.711, 119.137, 89.1198, 0, 0, 5.68891, -54.1234, 5.69146, -173.785, 5.75874, 66.0458, 0.039542, -110.755
0, 1440.00000, 117.835, -31.0495, 117.882, -150.711, 119.137, 89.1198, 0, 0, 5.68891, -54.1234, 5.69146, -173.785, 5.75874, 66.0458, 0.039542, -110.755
0, 1500.00000, 117.835, -31.0495, 117.882, -150.711, 119.137, 89.1198, 0, 0, 5.68891, -54.1234, 5.69146, -173.785, 5.75874, 66.0458, 0.039542, -110.755
0, 1560.00000, 117.835, -31.0495, 117.882, -150.711, 119.137, 89.1198, 0, 0, 5.68891, -54.1234, 5.69146, -173.785, 5.75874, 66.0458, 0.039542, -110.755
0, 1620.00000, 117.835, -31.0495, 117.882, -150.711, 119.137, 89.1198, 0, 0, 5.68891, -54.1234, 5.69146, -173.785, 5.75874, 66.0458, 0.039542, -110.755
0, 1680.00000, 117.835, -31.0495, 117.882, -150.711, 119.137, 89.1198, 0, 0, 5.68891, -54.1234, 5.69146, -173.785, 5.75874, 66.0458, 0.039542, -110.755
0, 1740.00000, 117.835, -31.0495, 117.882, -150.711, 119.137, 89.1198, 0, 0, 5.68891, -54.1234, 5.69146, -173.785, 5.75874, 66.0458, 0.039542, -110.755
0, 1800.00000, 117.835, -31.0495, 117.882, -150.711, 119.137, 89.1198, 0, 0, 5.68891, -54.1234, 5.69146, -173.785, 5.75874, 66.0458, 0.039542, -110.755
0, 1860.00000, 118.073, -31.0408, 118.111, -150.703, 119.361, 89.1325, 0, 0, 5.71874, -54.116, 5.72078, -173.777, 5.788, 66.0577, 0.0390491, -110.719
0, 1920.00000, 118.073, -31.0408, 118.111, -150.703, 119.362, 89.1326, 0, 0, 5.71899, -54.1147, 5.72104, -173.776, 5.78834, 66.0586, 0.0391723, -110.728
0, 1980.00000, 118.073, -31.0408, 118.111, -150.703, 119.362, 89.1326, 0, 0, 5.71899, -54.1147, 5.72105, -173.776, 5.78835, 66.0586, 0.039173, -110.728
0, 2040.00000, 118.073, -31.0408, 118.111, -150.703, 119.362, 89.1326, 0, 0, 5.71899, -54.1147, 5.72105, -173.776, 5.78835, 66.0586, 0.039173, -110.728
0, 2100.00000, 118.073, -31.0408, 118.111, -150.703, 119.362, 89.1326, 0, 0, 5.71899, -54.1147, 5.72105, -173.776, 5.78835, 66.0586, 0.039173, -110.728
0, 2160.00000, 118.073, -31.0408, 118.111, -150.703, 119.362, 89.1326, 0, 0, 5.71899, -54.1147, 5.72105, -173.776, 5.78835, 66.0586, 0.039173, -110.728
0, 2220.00000, 118.073, -31.0408, 118.111, -150.703, 119.362, 89.1326, 0, 0, 5.71899, -54.1147, 5.72105, -173.776, 5.78835, 66.0586, 0.039173, -110.728
0, 2280.00000, 118.073, -31.0408, 118.111, -150.703, 119.362, 89.1326, 0, 0, 5.71899, -54.1147, 5.72105, -173.776, 5.78835, 66.0586, 0.039173, -110.728
0, 2340.00000, 118.073, -31.0408, 118.111, -150.703, 119.362, 89.1326, 0, 0, 5.71899, -54.1147, 5.72105, -173.776, 5.78835, 66.0586, 0.039173, -110.728
0, 2400.00000, 118.073, -31.0408, 118.111, -150.703, 119.362, 89.1326, 0, 0, 5.71899, -54.1147, 5.72105, -173.776, 5.78835, 66.0586, 0.039173, -110.728
0, 2460.00000, 118.073, -31.0408, 118.111, -150.703, 119.362, 89.1326, 0, 0, 5.71899, -54.1147, 5.72105, -173.776, 5.78835, 66.0586, 0.039173, -110.728
0, 2520.00000, 118.073, -31.0408, 118.111, -150.703, 119.362, 89.1326, 0, 0, 5.71899, -54.1147, 5.72105, -173.776, 5.78835, 66.0586, 0.039173, -110.728
0, 2580.00000, 118.073, -31.0408, 118.111, -150.703, 119.362, 89.1326, 0, 0, 5.71899, -54.1147, 5.72105, -173.776, 5.78835, 66.0586, 0.039173, -110.728
0, 2640.00000, 118.073, -31.0408, 118.111, -150.703, 119.362, 89.1326, 0, 0, 5.71899, -54.1147, 5.72105, -173.776, 5.78835, 66.0586, 0.039173, -110.728
0, 2700.00000, 118.073, -31.0408, 118.111, -150.703, 119.362, 89.1326, 0, 0, 5.71899, -54.1147, 5.72105, -173.776, 5.78835, 66.0586, 0.039173, -110.728
0, 2760.00000, 118.444, -31.0115, 118.467, -150.676, 119.72, 89.1677, 0, 0, 5.45857, -54.0857, 5.45971, -173.75, 5.5238, 66.0936, 0.0370106, -110.707
0, 2820.00000, 118.444, -31.0115, 118.467, -150.676, 119.721, 89.1678, 0, 0, 5.45859, -54.0854, 5.45973, -173.75, 5.52391, 66.0938, 0.0371311, -110.69
0, 2880.00000, 118.444, -31.0115, 118.467, -150.676, 119.721, 89.1678, 0, 0, 5.45859, -54.0854, 5.45973, -173.75, 5.52391, 66.0938, 0.0371332, -110.689
0, 2940.00000, 118.444, -31.0115, 118.467, -150.676, 119.721, 89.1678, 0, 0, 5.45859, -54.0854, 5.45973, -173.75, 5.52391, 66.0938, 0.0371332, -110.689
0, 3000.00000, 118.444, -31.0115, 118.467, -150.676, 119.721, 89.1678, 0, 0, 5.45859, -54.0854, 5.45973, -173.75, 5.52391, 66.0938, 0.0371332, -110.689
0, 3060.00000, 118.444, -31.0115, 118.467, -150.676, 119.721, 89.1678, 0, 0, 5.45859, -54.0854, 5.45973, -173.75, 5.52391, 66.0938, 0.0371332, -110.689
0, 3120.00000, 118.444, -31.0115, 118.467, -150.676, 119.721, 89.1678, 0, 0, 5.45859, -54.0854, 5.45973, -173.75, 5.52391, 66.0938, 0.0371332, -110.689
0, 3180.00000, 118.444, -31.0115, 118.467, -150.676, 119.721, 89.1678, 0, 0, 5.45859, -54.0854, 5.45973, -173.75, 5.52391, 66.0938, 0.0371332, -110.689
0, 3240.00000, 118.444, -31.0115, 118.467, -150.676, 119.721, 89.1678, 0, 0, 5.45859, -54.0854, 5.45973, -173.75, 5.52391, 66.0938, 0.0371332, -110.689
0, 3300.00000, 118.444, -31.0115, 118.467, -150.676, 119.721, 89.1678, 0, 0, 5.45859, -54.0854, 5.45973, -173.75, 5.52391, 66.0938, 0.0371332, -110.689
0, 3360.00000, 118.444, -31.0115, 118.467, -150.676, 119.721, 89.1678, 0, 0, 5.45859, -54.0854, 5.45973, -173.75, 5.52391, 66.0938, 0.0371332, -110.689
0, 3420.00000, 118.444, -31.0115, 118.467, -150.676, 119.721, 89.1678, 0, 0, 5.45859, -54.0854, 5.45973, -173.75, 5.52391, 66.0938, 0.0371332, -110.689
0, 3480.00000, 118.444, -31.0115, 118.467, -150.676, 119.721, 89.1678, 0, 0, 5.45859, -54.0854, 5.45973, -173.75, 5.52391, 66.0938, 0.0371332, -110.689
0, 3540.00000, 118.444, -31.0115, 118.467, -150.676, 119.721, 89.1678, 0, 0, 5.45859, -54.0854, 5.45973, -173.75, 5.52391, 66.0938, 0.0371332, -110.689
1, 0.00000, 118.444, -31.0115, 118.467, -150.676, 119.721, 89.1678, 0, 0, 5.45859, -54.0854, 5.45973, -173.75, 5.52391, 66.0938, 0.0371332, -110.689
1, 60.00000, 118.721, -30.9916, 118.734, -150.659, 119.999, 89.1923, 0, 0, 5.40878, -54.0658, 5.40941, -173.733, 5.47326, 66.1181, 0.037043, -110.468
1, 120.00000, 118.721, -30.9916, 118.734, -150.659, 119.999, 89.1923, 0, 0, 5.40878, -54.0655, 5.40943, -173.733, 5.47342, 66.1184, 0.0372377, -110.43
1, 180.00000, 118.721, -30.9916, 118.734, -150.659, 119.999, 89.1923, 0, 0, 5.40878, -54.0655, 5.40943, -173.733, 5.47342, 66.1184, 0.0372414, -110.429
1, 240.00000, 118.721, -30.9916, 118.734, -150.659, 119.999, 89.1923, 0, 0, 5.40878, -54.0655, 5.40943, -173.733, 5.47342, 66.1184, 0.0372415, -110.429
1, 300.00000, 118.721, -30.9916, 118.734, -150.659, 119.999, 89.1923, 0, 0, 5.40878, -54.0655, 5.40943, -173.733, 5.47342, 66.1184, 0.0372415, -110.429
1, 360.00000, 118.721, -30.9916, 118.734, -150.659, 119.999, 89.1923, 0, 0, 5.40878, -54.0655, 5.40943, -173.733, 5.47342, 66.1184, 0.0372415, -110.429
1, 420.00000, 118.721, -30.9916, 118.734, -150.659, 119.999, 89.1923, 0, 0, 5.40878, -54.0655, 5.40943, -173.733, 5.47342, 66.1184, 0.0372415, -110.429
1, 480.00000, 118.721, -30.9916, 118.734, -150.659, 119.999, 89.1923, 0, 0, 5.40878, -54.0655, 5.40943, -173.733, 5.47342, 66.1184, 0.0372415, -110.429
1, 540.00000, 118.721, -30.9916, 118.734, -150.659, 119.999, 89.1923, 0, 0, 5.40878, -54.0655, 5.40943, -173.733, 5.47342, 66.1184, 0.0372415, -110.429
1, 600.00000, 118.721, -30.9916, 118.734, -150.659, 119.999, 89.1923, 0, 0, 5.40878, -54.0655, 5.40943, -173.733, 5.47342, 66.1184, 0.0372415, -110.429
1, 660.00000, 118.721, -30.9916, 118.734, -150.659, 119.999, 89.1923, 0, 0, 5.40878, -54.0655, 5.40943, -173.733, 5.47342, 66.1184, 0.0372415, -110.429
1, 720.00000, 118.721, -30.9916, 118.734, -150.659, 119.999, 89.1923, 0, 0, 5.40878, -54.0655, 5.40943, -173.733, 5.47342, 66.1184, 0.0372415, -110.429
1, 780.00000, 118.721, -30.9916, 118.734, -150.659, 119.999, 89.1923, 0, 0, 5.40878, -54.0655, 5.40943, -173.733, 5.47342, 66.1184, 0.0372415, -110.429
1, 840.00000, 118.721, -30.9916, 118.734, -150.659, 119.999, 89.1923, 0, 0, 5.40878, -54.0655, 5.40943, -173.733, 5.47342, 66.1184, 0.0372415, -110.429
1, 900.00000, 118.721, -30.9916, 118.734, -150.659, 119.999, 89.1923, 0, 0, 5.40878, -54.0655, 5.40943, -173.733, 5.47342, 66.1184, 0.0372415, -110.429
1, 960.00000, 118.762, -30.9883, 118.773, -150.657, 120.04, 89.196, 0, 0, 5.38546, -54.0627, 5.38599, -173.731, 5.44964, 66.1217, 0.0369641, -110.484
1, 1020.00000, 118.762, -30.9882, 118.773, -150.657, 120.04, 89.1961, 0, 0, 5.3855, -54.0622, 5.38605, -173.731, 5.44987, 66.1221, 0.0372045, -110.44
1, 1080.00000, 118.762, -30.9882, 118.773, -150.657, 120.04, 89.1961, 0, 0, 5.3855, -54.0622, 5.38605, -173.731, 5.44988, 66.1222, 0.0372088, -110.439
1, 1140.00000, 118.762, -30.9882, 118.773, -150.657, 120.04, 89.1961, 0, 0, 5.3855, -54.0622, 5.38605, -173.731, 5.44988, 66.1222, 0.0372088, -110.439
1, 1200.00000, 118.762, -30.9882, 118.773, -150.657, 120.04, 89.1961, 0, 0, 5.3855, -54.0622, 5.38605, -173.731, 5.44988, 66.1222, 0.0372088, -110.439
1, 1260.00000, 118.762, -30.9882, 118.773, -150.657, 120.04, 89.1961, 0, 0, 5.3855, -54.0622, 5.38605, -173.731, 5.44988, 66.1222, 0.0372088, -110.439
1, 1320.00000, 118.762, -30.9882, 118.773, -150.657, 120.04, 89.1961, 0, 0, 5.3855, -54.0622, 5.38605, -173.731, 5.44988, 66.1222, 0.0372088, -110.439
1, 1380.00000, 118.762, -30.9882, 118.773, -150.657, 120.04, 89.1961, 0, 0, 5.3855, -54.0622, 5.38605, -173.731, 5.44988, 66.1222, 0.0372088, -110.439
1, 1440.00000, 118.762, -30.9882, 118.773, -150.657, 120.04, 89.1961, 0, 0, 5.3855, -54.0622, 5.38605, -173.731, 5.44988, 66.1222, 0.0372088, -110.439
1, 1500.00000, 118.762, -30.9882, 118.773, -150.657, 120.04, 89.1961, 0, 0, 5.3855, -54.0622, 5.38605, -173.731, 5.44988, 66.1222, 0.0372088, -110.439
1, 1560.00000, 118.762, -30.9882, 118.773, -150.657, 120.04, 89.1961, 0, 0, 5.3855, -54.0622, 5.38605, -173.731, 5.44988, 66.1222, 0.0372088, -110.439
1, 1620.00000, 118.762, -30.9882, 118.773, -150.657, 120.04, 89.1961, 0, 0, 5.3855, -54.0622, 5.38605, -173.731, 5.44988, 66.1222, 0.0372088, -110.439
1, 1680.00000, 118.762, -30.9882, 118.773, -150.657, 120.04, 89.1961, 0, 0, 5.3855, -54.0622, 5.38605, -173.731, 5.44988, 66.1222, 0.0372088, -110.439
1, 1740.00000, 118.762, -30.9882, 118.773, -150.657, 120.04, 89.1961, 0, 0, 5.3855, -54.0622, 5.38605, -173.731, 5.44988, 66.1222, 0.0372088, -110.439
1, 1800.00000, 118.762, -30.9882, 118.773, -150.657, 120.04, 89.1961, 0, 0, 5.3855, -54.0622, 5.38605, -173.731, 5.44988, 66.1222, 0.0372088, -110.439
1, 1860.00000, 118.578, -31.0136, 118.596, -150.679, 119.852, 89.1681, 0, 0, 5.50594, -54.0872, 5.50688, -173.753, 5.57174, 66.0944, 0.0375744, -110.558
1, 1920.00000, 118.578, -31.0136, 118.596, -150.679, 119.852, 89.168, 0, 0, 5.50594, -54.0875, 5.50686, -173.753, 5.57159, 66.0941, 0.0373862, -110.595
1, 1980.00000, 118.578, -31.0136, 118.596, -150.679, 119.852, 89.168, 0, 0, 5.50594, -54.0875, 5.50686, -173.752, 5.57158, 66.0941, 0.0373826, -110.595
1, 2040.00000, 118.578, -31.0136, 118.596, -150.679, 119.852, 89.168, 0, 0, 5.50594, -54.0875, 5.50686, -173.752, 5.57158, 66.0941, 0.0373825, -110.595
1, 2100.00000, 118.578, -31.0136, 118.596, -150.679, 119.852, 89.168, 0, 0, 5.50594, -54.0875, 5.50686, -173.752, 5.57158, 66.0941, 0.0373825, -110.595
1, 2160.00000, 118.578, -31.0136, 118.596, -150.679, 119.852, 89.168, 0, 0, 5.50594, -54.0875, 5.50686, -173.752, 5.57158, 66.0941, 0.0373825, -110.595
1, 2220.00000, 118.578, -31.0136, 118.596, -150.679, 119.852, 89.168, 0, 0, 5.50594, -54.0875, 5.50686, -173.752, 5.57158, 66.0941, 0.0373825, -110.595
1, 2280.00000, 118.578, -31.0136, 118.596, -150.679, 119.852, 89.168, 0, 0, 5.50594, -54.0875, 5.50686, -173.752, 5.57158, 66.0941, 0.0373825, -110.595
1, 2340.00000, 118.578, -31.0136, 118.596, -150.679, 119.852, 89.168, 0, 0, 5.50594, -54.0875, 5.50686, -173.752, 5.57158, 66.0941, 0.0373825, -110.595
1, 2400.00000, 118.578, -31.0136, 118.596, -150.679, 119.852, 89.168, 0, 0, 5.50594, -54.0875, 5.50686, -173.752, 5.57158, 66.0941, 0.0373825, -110.595
1, 2460.00000, 118.578, -31.0136, 118.596, -150.679, 119.852, 89.168, 0, 0, 5.50594, -54.0875, 5.50686, -173.752, 5.57158, 66.0941, 0.0373825, -110.595
1, 2520.00000, 118.578, -31.0136, 118.596, -150.679, 119.852, 89.168, 0, 0, 5.50594, -54.0875, 5.50686, -173.752, 5.57158, 66.0941, 0.0373825, -110.595
1, 2580.00000, 118.578, -31.0136, 118.596, -150.679, 119.852, 89.168, 0, 0, 5.50594, -54.0875, 5.50686, -173.752, 5.57158, 66.0941, 0.0373825, -110.595
1, 2640.00000, 118.578, -31.0136, 118.596, -150.679, 119.852, 89.168, 0, 0, 5.50594, -54.0875, 5.50686, -173.752, 5.57158, 66.0941, 0.0373825, -110.595
1, 2700.00000, 118.578, -31.0136, 118.596, -150.679, 119.852, 89.168, 0, 0, 5.50594, -54.0875, 5.50686, -173.752, 5.57158, 66.0941, 0.0373825, -110.595
1, 2760.00000, 119.033, -30.9697, 119.038, -150.642, 120.315, 89.2191, 0, 0, 5.21036, -54.0442, 5.21052, -173.715, 5.27238, 66.1447, 0.0361283, -110.109
1, 2820.00000, 119.033, -30.9697, 119.038, -150.642, 120.316, 89.2192, 0, 0, 5.21036, -54.0436, 5.21059, -173.716, 5.27268, 66.1453, 0.0364827, -109.969
1, 2880.00000, 119.033, -30.9697, 119.038, -150.642, 120.316, 89.2192, 0, 0, 5.21036, -54.0436, 5.21059, -173.716, 5.27269, 66.1453, 0.0364894, -109.966
1, 2940.00000, 119.033, -30.9697, 119.038, -150.642, 120.316, 89.2192, 0, 0, 5.21036, -54.0436, 5.21059, -173.716, 5.27269, 66.1453, 0.0364895, -109.966
1, 3000.00000, 119.033, -30.9697, 119.038, -150.642, 120.316, 89.2192, 0, 0, 5.21036, -54.0436, 5.21059, -173.716, 5.27269, 66.1453, 0.0364895, -109.966
1, 3060.00000, 119.033, -30.9697, 119.038, -150.642, 120.316, 89.2192, 0, 0, 5.21036, -54.0436, 5.21059, -173.716, 5.27269, 66.1453, 0.0364895, -109.966
1, 3120.00000, 119.033, -30.9697, 119.038, -150.642, 120.316, 89.2192, 0, 0, 5.21036, -54.0436, 5.21059, -173.716, 5.27269, 66.1453, 0.0364895, -109.966
1, 3180.00000, 119.033, -30.9697, 119.038, -150.642, 120.316, 89.2192, 0, 0, 5.21036, -54.0436, 5.21059, -173.716, 5.27269, 66.1453, 0.0364895, -109.966
1, 3240.00000, 119.033, -30.9697, 119.038, -150.642, 120.316, 89.2192, 0, 0, 5.21036, -54.0436, 5.21059, -173.716, 5.27269, 66.1453, 0.0364895, -109.966
1, 3300.00000, 119.033, -30.9697, 119.038, -150.642, 120.316, 89.2192, 0, 0, 5.21036, -54.0436, 5.21059, -173.716, 5.27269, 66.1453, 0.0364895, -109.966
1, 3360.00000, 119.033, -30.9697, 119.038, -150.642, 120.316, 89.2192, 0, 0, 5.21036, -54.0436, 5.21059, -173.716, 5.27269, 66.1453, 0.0364895, -109.966
1, 3420.00000, 119.033, -30.9697, 119.038, -150.642, 120.316, 89.2192, 0, 0, 5.21036, -54.0436, 5.21059, -173.716, 5.27269, 66.1453, 0.0364895, -109.966
1, 3480.00000, 119.033, -30.9697, 119.038, -150.642, 120.316, 89.2192, 0, 0, 5.21036, -54.0436, 5.21059, -173.716, 5.27269, 66.1453, 0.0364895, -109.966
1, 3540.00000, 119.033, -30.9697, 119.038, -150.642, 120.316, 89.2192, 0, 0, 5.21036, -54.0436, 5.21059, -173.716, 5.27269, 66.1453, 0.0364895, -109.966
2, 0.00000, 119.033, -30.9697, 119.038, -150.642, 120.316, 89.2192, 0, 0, 5.21036, -54.0436, 5.21059, -173.716, 5.27269, 66.1453, 0.0364895, -109.966
2, 60.00000, 118.767, -30.9968, 118.778, -150.665, 120.045, 89.1874, 0, 0, 5.33691, -54.0704, 5.33746, -173.74, 5.40082, 66.1139, 0.0370294, -110.422
2, 120.00000, 118.767, -30.9969, 118.778, -150.665, 120.045, 89.1874, 0, 0, 5.33691, -54.0708, 5.33744, -173.739, 5.40065, 66.1135, 0.0368206, -110.484
2, 180.00000, 118.767, -30.9969, 118.778, -150.665, 120.045, 89.1874, 0, 0, 5.33691, -54.0708, 5.33744, -173.739, 5.40065, 66.1135, 0.0368168, -110.485
2, 240.00000, 118.767, -30.9969, 118.778, -150.665, 120.045, 89.1874, 0, 0, 5.33691, -54.0708, 5.33744, -173.739, 5.40065, 66.1135, 0.0368167, -110.485
2, 300.00000, 118.767, -30.9969, 118.778, -150.665, 120.045, 89.1874, 0, 0, 5.33691, -54.0708, 5.33744, -173.739, 5.40065, 66.1135, 0.0368167, -110.485
2, 360.00000, 118.767, -30.9969, 118.778, -150.665, 120.045, 89.1874, 0, 0, 5.33691, -54.0708, 5.33744, -173.739, 5.40065, 66.1135, 0.0368167, -110.485
2, 420.00000, 118.767, -30.9969, 118.778, -150.665, 120.045, 89.1874, 0, 0, 5.33691, -54.0708, 5.33744, -173.739, 5.40065, 66.1135, 0.0368167, -110.485
2, 480.00000, 118.767, -30.9969, 118.778, -150.665, 120.045, 89.1874, 0, 0, 5.33691, -54.0708, 5.33744, -173.739, 5.40065, 66.1135, 0.0368167, -110.485
2, 540.00000, 118.767, -30.9969, 118.778, -150.665, 120.045, 89.1874, 0, 0, 5.33691, -54.0708, 5.33744, -173.739, 5.40065, 66.1135, 0.0368167, -110.485
2, 600.00000, 118.767, -30.9969, 118.778, -150.665, 120.045, 89.1874, 0, 0, 5.33691, -54.0708, 5.33744, -173.739, 5.40065, 66.1135, 0.0368167, -110.485
2, 660.00000, 118.767, -30.9969, 118.778, -150.665, 120.045, 89.1874, 0, 0, 5.33691, -54.0708, 5.33744, -173.739, 5.40065, 66.1135, 0.0368167, -110.485
