hour,t(sec),V1,VAngle1,V2,VAngle2,V3,VAngle3,V4,VAngle4,I1,IAngle1,I2,IAngle2,I3,IAngle3,I4,IAngle4
0, 60.00000, 123.293, -32.0767, 122.526, -151.492, 124.439, 88.5276, 0, 0, 5.31537, -55.1505, 5.34865, -174.566, 5.26656, 65.4537, 0.126371, 38.1265
0, 120.00000, 123.3, -32.0829, 122.526, -151.492, 124.457, 88.5272, 0, 0, 5.3151, -55.1567, 5.34866, -174.566, 5.26581, 65.4533, 0.12758, 38.1536
0, 180.00000, 123.305, -32.0884, 122.526, -151.492, 124.472, 88.5268, 0, 0, 5.31485, -55.1622, 5.34867, -174.566, 5.26513, 65.4529, 0.128667, 38.1781
0, 240.00000, 123.311, -32.0934, 122.526, -151.492, 124.486, 88.5264, 0, 0, 5.31463, -55.1672, 5.34868, -174.566, 5.26453, 65.4525, 0.129645, 38.2002
0, 300.00000, 123.315, -32.0979, 122.526, -151.492, 124.499, 88.5261, 0, 0, 5.31444, -55.1717, 5.34869, -174.566, 5.26398, 65.4522, 0.130526, 38.2202
0, 360.00000, 123.319, -32.102, 122.525, -151.492, 124.511, 88.5258, 0, 0, 5.31426, -55.1758, 5.34869, -174.566, 5.26349, 65.4519, 0.131318, 38.2383
0, 420.00000, 123.323, -32.1056, 122.525, -151.492, 124.521, 88.5255, 0, 0, 5.3141, -55.1795, 5.3487, -174.566, 5.26305, 65.4516, 0.132032, 38.2547
0, 480.00000, 123.936, -32.0045, 123.099, -151.383, 125.141, 88.6514, 0, 0, 4.60042, -55.0783, 4.63171, -174.457, 4.55617, 65.5775, 0.11676, 37.4407
0, 540.00000, 123.939, -32.0075, 123.099, -151.383, 125.15, 88.6512, 0, 0, 4.60031, -55.0813, 4.63172, -174.457, 4.55585, 65.5773, 0.117271, 37.4576
0, 600.00000, 123.942, -32.0102, 123.098, -151.383, 125.157, 88.651, 0, 0, 4.60021, -55.0841, 4.63172, -174.457, 4.55557, 65.5771, 0.117729, 37.4728
0, 660.00000, 123.944, -32.0127, 123.098, -151.383, 125.164, 88.6508, 0, 0, 4.60012, -55.0865, 4.63172, -174.457, 4.55531, 65.5769, 0.118142, 37.4864
0, 720.00000, 123.946, -32.0149, 123.098, -151.383, 125.17, 88.6507, 0, 0, 4.60003, -55.0887, 4.63173, -174.457, 4.55508, 65.5768, 0.118513, 37.4987
0, 780.00000, 123.948, -32.0168, 123.098, -151.383, 125.176, 88.6506, 0, 0, 4.59996, -55.0907, 4.63173, -174.457, 4.55488, 65.5766, 0.118847, 37.5098
0, 840.00000, 123.95, -32.0186, 123.098, -151.383, 125.181, 88.6504, 0, 0, 4.59989, -55.0925, 4.63173, -174.457, 4.55469, 65.5765, 0.119148, 37.5197
0, 900.00000, 123.952, -32.0202, 123.098, -151.383, 125.186, 88.6503, 0, 0, 4.59983, -55.0941, 4.63173, -174.457, 4.55452, 65.5764, 0.119419, 37.5287
0, 960.00000, 123.624, -32.0422, 123.106, -151.383, 125.017, 88.5139, 0, 0, 4.61203, -55.1161, 4.63145, -174.457, 4.56067, 65.44, 0.112573, 47.211
0, 1020.00000, 123.625, -32.0434, 123.106, -151.383, 125.02, 88.5138, 0, 0, 4.61198, -55.1173, 4.63145, -174.457, 4.56054, 65.4399, 0.112787, 47.2003
0, 1080.00000, 123.626, -32.0446, 123.106, -151.383, 125.024, 88.5137, 0, 0, 4.61194, -55.1185, 4.63145, -174.457, 4.56042, 65.4398, 0.11298, 47.1907
0, 1140.00000, 123.627, -32.0456, 123.106, -151.383, 125.026, 88.5137, 0, 0, 4.6119, -55.1195, 4.63145, -174.457, 4.56031, 65.4397, 0.113155, 47.182
0, 1200.00000, 123.628, -32.0466, 123.106, -151.383, 125.029, 88.5136, 0, 0, 4.61187, -55.1205, 4.63145, -174.457, 4.56022, 65.4397, 0.113312, 47.1743
0, 1260.00000, 123.629, -32.0474, 123.106, -151.383, 125.031, 88.5135, 0, 0, 4.61184, -55.1213, 4.63145, -174.457, 4.56013, 65.4396, 0.113453, 47.1674
0, 1320.00000, 123.63, -32.0482, 123.106, -151.383, 125.034, 88.5135, 0, 0, 4.61181, -55.1221, 4.63145, -174.457, 4.56005, 65.4396, 0.11358, 47.1612
0, 1380.00000, 123.631, -32.0488, 123.106, -151.383, 125.035, 88.5134, 0, 0, 4.61178, -55.1227, 4.63145, -174.457, 4.55998, 65.4395, 0.113694, 47.1556
0, 1440.00000, 123.631, -32.0494, 123.106, -151.383, 125.037, 88.5134, 0, 0, 4.61176, -55.1233, 4.63145, -174.457, 4.55992, 65.4395, 0.113797, 47.1506
0, 1500.00000, 123.632, -32.05, 123.106, -151.383, 125.039, 88.5133, 0, 0, 4.61174, -55.1239, 4.63145, -174.457, 4.55986, 65.4394, 0.11389, 47.1461
0, 1560.00000, 123.632, -32.0505, 123.106, -151.383, 125.04, 88.5133, 0, 0, 4.61172, -55.1244, 4.63146, -174.457, 4.55981, 65.4394, 0.113973, 47.1421
0, 1620.00000, 123.633, -32.0509, 123.106, -151.383, 125.041, 88.5133, 0, 0, 4.61171, -55.1248, 4.63146, -174.457, 4.55976, 65.4394, 0.114049, 47.1385
0, 1680.00000, 123.633, -32.0513, 123.106, -151.383, 125.043, 88.5132, 0, 0, 4.61169, -55.1252, 4.63146, -174.457, 4.55972, 65.4393, 0.114116, 47.1352
0, 1740.00000, 123.633, -32.0517, 123.105, -151.383, 125.044, 88.5132, 0, 0, 4.61168, -55.1256, 4.63146, -174.457, 4.55968, 65.4393, 0.114177, 47.1323
0, 1800.00000, 123.634, -32.052, 123.105, -151.383, 125.044, 88.5132, 0, 0, 4.61167, -55.1259, 4.63146, -174.457, 4.55965, 65.4393, 0.114232, 47.1297
0, 1860.00000, 123.634, -32.0523, 123.105, -151.383, 125.045, 88.5132, 0, 0, 4.61165, -55.1262, 4.63146, -174.457, 4.55962, 65.4393, 0.114281, 47.1274
0, 1920.00000, 123.634, -32.0526, 123.105, -151.383, 125.046, 88.5131, 0, 0, 4.61165, -55.1265, 4.63146, -174.457, 4.55959, 65.4392, 0.114325, 47.1252
0, 1980.00000, 123.635, -32.0528, 123.105, -151.383, 125.047, 88.5131, 0, 0, 4.61164, -55.1267, 4.63146, -174.457, 4.55956, 65.4392, 0.114365, 47.1233
0, 2040.00000, 123.635, -32.053, 123.105, -151.383, 125.047, 88.5131, 0, 0, 4.61163, -55.1269, 4.63146, -174.457, 4.55954, 65.4392, 0.114401, 47.1216
0, 2100.00000, 123.635, -32.0532, 123.105, -151.383, 125.048, 88.5131, 0, 0, 4.61162, -55.1271, 4.63146, -174.457, 4.55952, 65.4392, 0.114434, 47.1201
0, 2160.00000, 123.635, -32.0534, 123.105, -151.383, 125.048, 88.5131, 0, 0, 4.61162, -55.1273, 4.63146, -174.457, 4.5595, 65.4392, 0.114463, 47.1187
0, 2220.00000, 123.635, -32.0535, 123.105, -151.383, 125.049, 88.5131, 0, 0, 4.61161, -55.1275, 4.63146, -174.457, 4.55949, 65.4392, 0.114489, 47.1175
0, 2280.00000, 123.635, -32.0537, 123.105, -151.383, 125.049, 88.5131, 0, 0, 4.6116, -55.1276, 4.63146, -174.457, 4.55947, 65.4391, 0.114512, 47.1164
0, 2340.00000, 123.636, -32.0538, 123.105, -151.383, 125.049, 88.5131, 0, 0, 4.6116, -55.1277, 4.63146, -174.457, 4.55946, 65.4391, 0.114534, 47.1154
0, 2400.00000, 123.636, -32.0539, 123.105, -151.383, 125.05, 88.513, 0, 0, 4.6116, -55.1278, 4.63146, -174.457, 4.55945, 65.4391, 0.114553, 47.1145
0, 2460.00000, 123.636, -32.054, 123.105, -151.383, 125.05, 88.513, 0, 0, 4.61159, -55.1279, 4.63146, -174.457, 4.55944, 65.4391, 0.11457, 47.1136
0, 2520.00000, 123.636, -32.0541, 123.105, -151.383, 125.05, 88.513, 0, 0, 4.61159, -55.128, 4.63146, -174.457, 4.55943, 65.4391, 0.114585, 47.1129
0, 2580.00000, 123.636, -32.0542, 123.105, -151.383, 125.051, 88.513, 0, 0, 4.61159, -55.1281, 4.63146, -174.457, 4.55942, 65.4391, 0.114599, 47.1123
0, 2640.00000, 123.636, -32.0543, 123.105, -151.383, 125.051, 88.513, 0, 0, 4.61158, -55.1282, 4.63146, -174.457, 4.55941, 65.4391, 0.114612, 47.1117
0, 2700.00000, 123.636, -32.0543, 123.105, -151.383, 125.051, 88.513, 0, 0, 4.61158, -55.1283, 4.63146, -174.457, 4.5594, 65.4391, 0.114623, 47.1111
0, 2760.00000, 123.654, -32.0574, 123.355, -151.215, 125.535, 88.515, 0, 0, 4.61091, -55.1313, 4.6221, -174.289, 4.54181, 65.4411, 0.135093, 56.072
0, 2820.00000, 123.654, -32.0574, 123.355, -151.215, 125.536, 88.515, 0, 0, 4.61091, -55.1313, 4.6221, -174.289, 4.5418, 65.4411, 0.135102, 56.0709
0, 2880.00000, 123.654, -32.0575, 123.355, -151.215, 125.536, 88.515, 0, 0, 4.61091, -55.1314, 4.6221, -174.289, 4.5418, 65.4411, 0.13511, 56.07
0, 2940.00000, 123.654, -32.0575, 123.355, -151.215, 125.536, 88.515, 0, 0, 4.61091, -55.1314, 4.6221, -174.289, 4.54179, 65.4411, 0.135117, 56.0692
0, 3000.00000, 123.654, -32.0576, 123.355, -151.215, 125.536, 88.515, 0, 0, 4.6109, -55.1315, 4.6221, -174.289, 4.54179, 65.4411, 0.135124, 56.0685
0, 3060.00000, 123.654, -32.0576, 123.355, -151.215, 125.536, 88.515, 0, 0, 4.6109, -55.1315, 4.6221, -174.289, 4.54179, 65.4411, 0.13513, 56.0679
0, 3120.00000, 123.654, -32.0576, 123.355, -151.215, 125.536, 88.515, 0, 0, 4.6109, -55.1315, 4.6221, -174.289, 4.54178, 65.4411, 0.135135, 56.0673
0, 3180.00000, 123.654, -32.0577, 123.355, -151.215, 125.536, 88.515, 0, 0, 4.6109, -55.1316, 4.6221, -174.289, 4.54178, 65.4411, 0.13514, 56.0668
0, 3240.00000, 123.654, -32.0577, 123.355, -151.215, 125.536, 88.515, 0, 0, 4.6109, -55.1316, 4.6221, -174.289, 4.54178, 65.4411, 0.135144, 56.0663
0, 3300.00000, 123.654, -32.0577, 123.355, -151.215, 125.536, 88.515, 0, 0, 4.6109, -55.1316, 4.6221, -174.289, 4.54178, 65.441, 0.135148, 56.0659
0, 3360.00000, 123.654, -32.0577, 123.355, -151.215, 125.536, 88.515, 0, 0, 4.6109, -55.1316, 4.6221, -174.289, 4.54177, 65.441, 0.135151, 56.0655
0, 3420.00000, 123.654, -32.0577, 123.355, -151.215, 125.536, 88.515, 0, 0, 4.6109, -55.1317, 4.6221, -174.289, 4.54177, 65.441, 0.135154, 56.0652
0, 3480.00000, 123.654, -32.0578, 123.355, -151.215, 125.536, 88.515, 0, 0, 4.6109, -55.1317, 4.6221, -174.289, 4.54177, 65.441, 0.135157, 56.0649
0, 3540.00000, 123.654, -32.0578, 123.355, -151.215, 125.537, 88.515, 0, 0, 4.6109, -55.1317, 4.6221, -174.289, 4.54177, 65.441, 0.135159, 56.0646
1, 0.00000, 123.654, -32.0578, 123.355, -151.215, 125.537, 88.515, 0, 0, 4.6109, -55.1317, 4.6221, -174.289, 4.54177, 65.441, 0.135162, 56.0644
1, 60.00000, 123.909, -31.8865, 123.824, -151.222, 125.506, 88.52, 0, 0, 4.60144, -54.9604, 4.60457, -174.296, 4.54288, 65.4461, 0.106642, 60.757
1, 120.00000, 123.909, -31.8865, 123.824, -151.222, 125.506, 88.52, 0, 0, 4.60144, -54.9604, 4.60457, -174.296, 4.54288, 65.4461, 0.106643, 60.7567
1, 180.00000, 123.909, -31.8865, 123.824, -151.222, 125.506, 88.52, 0, 0, 4.60144, -54.9605, 4.60457, -174.296, 4.54288, 65.4461, 0.106645, 60.7564
1, 240.00000, 123.909, -31.8865, 123.824, -151.222, 125.506, 88.52, 0, 0, 4.60144, -54.9605, 4.60457, -174.296, 4.54288, 65.4461, 0.106646, 60.7562
1, 300.00000, 123.909, -31.8866, 123.824, -151.222, 125.506, 88.52, 0, 0, 4.60144, -54.9605, 4.60457, -174.296, 4.54288, 65.4461, 0.106648, 60.7559
1, 360.00000, 123.909, -31.8866, 123.824, -151.222, 125.506, 88.52, 0, 0, 4.60144, -54.9605, 4.60457, -174.296, 4.54288, 65.4461, 0.106649, 60.7557
1, 420.00000, 123.909, -31.8866, 123.824, -151.222, 125.506, 88.52, 0, 0, 4.60144, -54.9605, 4.60457, -174.296, 4.54287, 65.4461, 0.10665, 60.7555
1, 480.00000, 123.909, -31.8866, 123.824, -151.222, 125.506, 88.52, 0, 0, 4.60144, -54.9605, 4.60457, -174.296, 4.54287, 65.4461, 0.106651, 60.7553
1, 540.00000, 123.909, -31.8866, 123.824, -151.222, 125.506, 88.52, 0, 0, 4.60144, -54.9605, 4.60457, -174.296, 4.54287, 65.4461, 0.106652, 60.7552
1, 600.00000, 123.909, -31.8866, 123.824, -151.222, 125.506, 88.52, 0, 0, 4.60143, -54.9605, 4.60457, -174.296, 4.54287, 65.4461, 0.106653, 60.755
1, 660.00000, 123.909, -31.8866, 123.824, -151.222, 125.506, 88.52, 0, 0, 4.60143, -54.9605, 4.60457, -174.296, 4.54287, 65.4461, 0.106653, 60.7549
1, 720.00000, 123.909, -31.8866, 123.824, -151.222, 125.506, 88.52, 0, 0, 4.60143, -54.9605, 4.60457, -174.296, 4.54287, 65.4461, 0.106654, 60.7548
1, 780.00000, 123.909, -31.8866, 123.824, -151.222, 125.506, 88.52, 0, 0, 4.60143, -54.9605, 4.60457, -174.296, 4.54287, 65.4461, 0.106654, 60.7547
1, 840.00000, 123.909, -31.8866, 123.824, -151.222, 125.506, 88.52, 0, 0, 4.60143, -54.9605, 4.60457, -174.296, 4.54287, 65.4461, 0.106655, 60.7546
1, 900.00000, 123.909, -31.8866, 123.824, -151.222, 125.506, 88.52, 0, 0, 4.60143, -54.9605, 4.60457, -174.296, 4.54287, 65.4461, 0.106655, 60.7545
1, 960.00000, 123.909, -31.8866, 123.824, -151.222, 125.506, 88.52, 0, 0, 4.60143, -54.9605, 4.60457, -174.296, 4.54287, 65.4461, 0.106656, 60.7544
1, 1020.00000, 123.909, -31.8866, 123.824, -151.222, 125.506, 88.52, 0, 0, 4.60143, -54.9605, 4.60457, -174.296, 4.54287, 65.4461, 0.106656, 60.7543
1, 1080.00000, 123.909, -31.8866, 123.824, -151.222, 125.506, 88.52, 0, 0, 4.60143, -54.9605, 4.60457, -174.296, 4.54287, 65.4461, 0.106656, 60.7543
1, 1140.00000, 123.909, -31.8866, 123.824, -151.222, 125.506, 88.52, 0, 0, 4.60143, -54.9605, 4.60457, -174.296, 4.54287, 65.4461, 0.106657, 60.7542
1, 1200.00000, 123.909, -31.8866, 123.824, -151.222, 125.506, 88.52, 0, 0, 4.60143, -54.9605, 4.60457, -174.296, 4.54287, 65.4461, 0.106657, 60.7542
1, 1260.00000, 123.909, -31.8866, 123.824, -151.222, 125.506, 88.52, 0, 0, 4.60143, -54.9605, 4.60457, -174.296, 4.54287, 65.4461, 0.106657, 60.7541
1, 1320.00000, 123.909, -31.8866, 123.824, -151.222, 125.506, 88.52, 0, 0, 4.60143, -54.9605, 4.60457, -174.296, 4.54287, 65.4461, 0.106657, 60.7541
1, 1380.00000, 123.909, -31.8866, 123.824, -151.222, 125.506, 88.52, 0, 0, 4.60143, -54.9605, 4.60457, -174.296, 4.54287, 65.4461, 0.106658, 60.7541
1, 1440.00000, 123.909, -31.8866, 123.824, -151.222, 125.506, 88.52, 0, 0, 4.60143, -54.9605, 4.60457, -174.296, 4.54287, 65.4461, 0.106658, 60.754
1, 1500.00000, 123.909, -31.8866, 123.824, -151.222, 125.506, 88.52, 0, 0, 4.60143, -54.9605, 4.60457, -174.296, 4.54287, 65.4461, 0.106658, 60.754
1, 1560.00000, 123.909, -31.8866, 123.824, -151.222, 125.506, 88.52, 0, 0, 4.60143, -54.9605, 4.60457, -174.296, 4.54287, 65.4461, 0.106658, 60.754
1, 1620.00000, 123.909, -31.8866, 123.824, -151.222, 125.506, 88.52, 0, 0, 4.60143, -54.9605, 4.60457, -174.296, 4.54287, 65.4461, 0.106658, 60.7539
1, 1680.00000, 123.909, -31.8866, 123.824, -151.222, 125.506, 88.52, 0, 0, 4.60143, -54.9605, 4.60457, -174.296, 4.54287, 65.4461, 0.106658, 60.7539
1, 1740.00000, 123.909, -31.8866, 123.824, -151.222, 125.506, 88.52, 0, 0, 4.60143, -54.9605, 4.60457, -174.296, 4.54287, 65.4461, 0.106658, 60.7539
1, 1800.00000, 123.909, -31.8866, 123.824, -151.222, 125.506, 88.52, 0, 0, 4.60143, -54.9605, 4.60457, -174.296, 4.54287, 65.4461, 0.106659, 60.7539
1, 1860.00000, 123.909, -31.8866, 123.824, -151.222, 125.506, 88.52, 0, 0, 4.60143, -54.9605, 4.60457, -174.296, 4.54287, 65.4461, 0.106659, 60.7539
1, 1920.00000, 123.909, -31.8866, 123.824, -151.222, 125.506, 88.52, 0, 0, 4.60143, -54.9605, 4.60457, -174.296, 4.54287, 65.4461, 0.106659, 60.7539
1, 1980.00000, 123.909, -31.8866, 123.824, -151.222, 125.506, 88.52, 0, 0, 4.60143, -54.9605, 4.60457, -174.296, 4.54287, 65.4461, 0.106659, 60.7538
1, 2040.00000, 123.909, -31.8866, 123.824, -151.222, 125.506, 88.52, 0, 0, 4.60143, -54.9605, 4.60457, -174.296, 4.54287, 65.4461, 0.106659, 60.7538
1, 2100.00000, 123.909, -31.8866, 123.824, -151.222, 125.506, 88.52, 0, 0, 4.60143, -54.9605, 4.60457, -174.296, 4.54287, 65.4461, 0.106659, 60.7538
1, 2160.00000, 123.909, -31.8866, 123.824, -151.222, 125.506, 88.52, 0, 0, 4.60143, -54.9605, 4.60457, -174.296, 4.54287, 65.4461, 0.106659, 60.7538
1, 2220.00000, 123.909, -31.8866, 123.824, -151.222, 125.506, 88.52, 0, 0, 4.60143, -54.9605, 4.60457, -174.296, 4.54287, 65.4461, 0.106659, 60.7538
1, 2280.00000, 123.909, -31.8866, 123.824, -151.222, 125.506, 88.52, 0, 0, 4.60143, -54.9605, 4.60457, -174.296, 4.54287, 65.4461, 0.106659, 60.7538
1, 2340.00000, 123.909, -31.8866, 123.824, -151.222, 125.506, 88.52, 0, 0, 4.60143, -54.9605, 4.60457, -174.296, 4.54287, 65.4461, 0.106659, 60.7538
1, 2400.00000, 123.909, -31.8866, 123.824, -151.222, 125.506, 88.52, 0, 0, 4.60143, -54.9605, 4.60457, -174.296, 4.54287, 65.4461, 0.106659, 60.7538
1, 2460.00000, 123.909, -31.8866, 123.824, -151.222, 125.506, 88.52, 0, 0, 4.60143, -54.9605, 4.60457, -174.296, 4.54287, 65.4461, 0.106659, 60.7538
1, 2520.00000, 123.909, -31.8866, 123.824, -151.222, 125.506, 88.52, 0, 0, 4.60143, -54.9605, 4.60457, -174.296, 4.54287, 65.4461, 0.106659, 60.7538
1, 2580.00000, 123.909, -31.8866, 123.824, -151.222, 125.506, 88.52, 0, 0, 4.60143, -54.9605, 4.60457, -174.296, 4.54287, 65.4461, 0.106659, 60.7538
1, 2640.00000, 123.909, -31.8866, 123.824, -151.222, 125.506, 88.52, 0, 0, 4.60143, -54.9605, 4.60457, -174.296, 4.54287, 65.4461, 0.106659, 60.7538
1, 2700.00000, 123.909, -31.8866, 123.824, -151.222, 125.506, 88.52, 0, 0, 4.60143, -54.9605, 4.60457, -174.296, 4.54287, 65.4461, 0.106659, 60.7538
1, 2760.00000, 123.909, -31.8866, 123.824, -151.222, 125.506, 88.52, 0, 0, 4.60143, -54.9605, 4.60457, -174.296, 4.54287, 65.4461, 0.106659, 60.7538
1, 2820.00000, 123.909, -31.8866, 123.824, -151.222, 125.506, 88.52, 0, 0, 4.60143, -54.9605, 4.60457, -174.296, 4.54287, 65.4461, 0.106659, 60.7538
1, 2880.00000, 123.909, -31.8866, 123.824, -151.222, 125.506, 88.52, 0, 0, 4.60143, -54.9605, 4.60457, -174.296, 4.54287, 65.4461, 0.106659, 60.7538
1, 2940.00000, 123.909, -31.8866, 123.824, -151.222, 125.506, 88.52, 0, 0, 4.60143, -54.9605, 4.60457, -174.296, 4.54287, 65.4461, 0.106659, 60.7537
1, 3000.00000, 123.909, -31.8866, 123.824, -151.222, 125.506, 88.52, 0, 0, 4.60143, -54.9605, 4.60457, -174.296, 4.54287, 65.4461, 0.106659, 60.7537
1, 3060.00000, 123.909, -31.8866, 123.824, -151.222, 125.506, 88.52, 0, 0, 4.60143, -54.9605, 4.60457, -174.296, 4.54287, 65.4461, 0.106659, 60.7537
1, 3120.00000, 123.909, -31.8866, 123.824, -151.222, 125.506, 88.52, 0, 0, 4.60143, -54.9605, 4.60457, -174.296, 4.54287, 65.4461, 0.106659, 60.7537
1, 3180.00000, 123.909, -31.8866, 123.824, -151.222, 125.506, 88.52, 0, 0, 4.60143, -54.9605, 4.60457, -174.296, 4.54287, 65.4461, 0.106659, 60.7537
1, 3240.00000, 123.909, -31.8866, 123.824, -151.222, 125.506, 88.52, 0, 0, 4.60143, -54.9605, 4.60457, -174.296, 4.54287, 65.4461, 0.106659, 60.7537
1, 3300.00000, 123.909, -31.8866, 123.824, -151.222, 125.506, 88.52, 0, 0, 4.60143, -54.9605, 4.60457, -174.296, 4.54287, 65.4461, 0.106659, 60.7537
1, 3360.00000, 123.909, -31.8866, 123.824, -151.222, 125.506, 88.52, 0, 0, 4.60143, -54.9605, 4.60457, -174.296, 4.54287, 65.4461, 0.106659, 60.7537
1, 3420.00000, 123.909, -31.8866, 123.824, -151.222, 125.506, 88.52, 0, 0, 4.60143, -54.9605, 4.60457, -174.296, 4.54287, 65.4461, 0.106659, 60.7537
1, 3480.00000, 123.909, -31.8866, 123.824, -151.222, 125.506, 88.52, 0, 0, 4.60143, -54.9605, 4.60457, -174.296, 4.54287, 65.4461, 0.106659, 60.7537
1, 3540.00000, 123.909, -31.8866, 123.824, -151.222, 125.506, 88.52, 0, 0, 4.60143, -54.9605, 4.60457, -174.296, 4.54287, 65.4461, 0.106659, 60.7537
2, 0.00000, 123.909, -31.8866, 123.824, -151.222, 125.506, 88.52, 0, 0, 4.60143, -54.9605, 4.60457, -174.296, 4.54287, 65.4461, 0.106659, 60.7537
2, 60.00000, 123.909, -31.8866, 123.824, -151.222, 125.506, 88.52, 0, 0, 4.60143, -54.9605, 4.60457, -174.296, 4.54287, 65.4461, 0.106659, 60.7537
2, 120.00000, 123.909, -31.8866, 123.824, -151.222, 125.506, 88.52, 0, 0, 4.60143, -54.9605, 4.60457, -174.296, 4.54287, 65.4461, 0.106659, 60.7537
2, 180.00000, 123.909, -31.8866, 123.824, -151.222, 125.506, 88.52, 0, 0, 4.60143, -54.9605, 4.60457, -174.296, 4.54287, 65.4461, 0.106659, 60.7537
2, 240.00000, 123.909, -31.8866, 123.824, -151.222, 125.506, 88.52, 0, 0, 4.60143, -54.9605, 4.60457, -174.296, 4.54287, 65.4461, 0.106659, 60.7537
2, 300.00000, 123.909, -31.8866, 123.824, -151.222, 125.506, 88.52, 0, 0, 4.60143, -54.9605, 4.60457, -174.296, 4.54287, 65.4461, 0.106659, 60.7537
2, 360.00000, 123.909, -31.8866, 123.824, -151.222, 125.506, 88.52, 0, 0, 4.60143, -54.9605, 4.60457, -174.296, 4.54287, 65.4461, 0.106659, 60.7537
2, 420.00000, 123.909, -31.8866, 123.824, -151.222, 125.506, 88.52, 0, 0, 4.60143, -54.9605, 4.60457, -174.296, 4.54287, 65.4461, 0.106659, 60.7537
2, 480.00000, 123.909, -31.8866, 123.824, -151.222, 125.506, 88.52, 0, 0, 4.60143, -54.9605, 4.60457, -174.296, 4.54287, 65.4461, 0.106659, 60.7537
2, 540.00000, 123.909, -31.8866, 123.824, -151.222, 125.506, 88.52, 0, 0, 4.60143, -54.9605, 4.60457, -174.296, 4.54287, 65.4461, 0.106659, 60.7537
2, 600.00000, 123.909, -31.8866, 123.824, -151.222, 125.506, 88.52, 0, 0, 4.60143, -54.9605, 4.60457, -174.296, 4.54287, 65.4461, 0.106659, 60.7537
2, 660.00000, 123.909, -31.8866, 123.824, -151.222, 125.506, 88.52, 0, 0, 4.60143, -54.9605, 4.60457, -174.296, 4.54287, 65.4461, 0.106659, 60.7537
2, 720.00000, 123.909, -31.8866, 123.824, -151.222, 125.506, 88.52, 0, 0, 4.60143, -54.9605, 4.60457, -174.296, 4.54287, 65.4461, 0.106659, 60.7537
2, 780.00000, 123.909, -31.8866, 123.824, -151.222, 125.506, 88.52, 0, 0, 4.60143, -54.9605, 4.60457, -174.296, 4.54287, 65.4461, 0.106659, 60.7537
