hour,t(sec),V1,VAngle1,V2,VAngle2,V3,VAngle3,V4,VAngle4,I1,IAngle1,I2,IAngle2,I3,IAngle3,I4,IAngle4
0, 60.00000, 122.523, -31.5592, 125.899, -151.365, 124.636, 87.2986, 0, 0, 0.873874, -54.633, 0.850457, -174.439, 0.859058, 64.2248, 0.0392759, 146.914
0, 120.00000, 122.523, -31.5592, 125.915, -151.365, 124.642, 87.2925, 0, 0, 0.873875, -54.6331, 0.850345, -174.439, 0.859016, 64.2187, 0.0394568, 146.978
0, 180.00000, 122.523, -31.5593, 125.93, -151.366, 124.648, 87.287, 0, 0, 0.873876, -54.6331, 0.850243, -174.44, 0.858978, 64.2132, 0.0396196, 147.037
0, 240.00000, 122.523, -31.5593, 125.944, -151.366, 124.653, 87.282, 0, 0, 0.873877, -54.6332, 0.850152, -174.44, 0.858944, 64.2082, 0.0397661, 147.089
0, 300.00000, 122.523, -31.5593, 125.956, -151.367, 124.657, 87.2775, 0, 0, 0.873878, -54.6332, 0.850069, -174.44, 0.858913, 64.2037, 0.0398982, 147.136
0, 360.00000, 122.523, -31.5594, 125.967, -151.367, 124.661, 87.2735, 0, 0, 0.873878, -54.6333, 0.849995, -174.441, 0.858886, 64.1997, 0.0400173, 147.178
0, 420.00000, 122.523, -31.5594, 125.976, -151.367, 124.665, 87.2699, 0, 0, 0.873879, -54.6333, 0.849927, -174.441, 0.858861, 64.1961, 0.0401249, 147.216
0, 480.00000, 122.967, -31.4382, 126.475, -151.233, 125.124, 87.3919, 0, 0, 0.970986, -54.5121, 0.944065, -174.307, 0.954248, 64.3181, 0.0449489, 147.3
0, 540.00000, 122.967, -31.4383, 126.483, -151.233, 125.127, 87.3889, 0, 0, 0.970986, -54.5122, 0.944002, -174.307, 0.954225, 64.3151, 0.0450483, 147.331
0, 600.00000, 122.967, -31.4383, 126.49, -151.233, 125.13, 87.3863, 0, 0, 0.970987, -54.5122, 0.943946, -174.307, 0.954205, 64.3124, 0.0451375, 147.359
0, 660.00000, 122.967, -31.4383, 126.497, -151.234, 125.132, 87.3839, 0, 0, 0.970987, -54.5122, 0.943896, -174.307, 0.954187, 64.31, 0.0452178, 147.384
0, 720.00000, 122.967, -31.4383, 126.503, -151.234, 125.134, 87.3817, 0, 0, 0.970988, -54.5122, 0.943851, -174.308, 0.954171, 64.3078, 0.0452901, 147.407
0, 780.00000, 122.967, -31.4384, 126.509, -151.234, 125.136, 87.3797, 0, 0, 0.970988, -54.5123, 0.94381, -174.308, 0.954156, 64.3059, 0.0453551, 147.427
0, 840.00000, 122.967, -31.4384, 126.513, -151.234, 125.138, 87.378, 0, 0, 0.970989, -54.5123, 0.943773, -174.308, 0.954143, 64.3041, 0.0454137, 147.445
0, 900.00000, 122.967, -31.4384, 126.518, -151.234, 125.139, 87.3764, 0, 0, 0.970989, -54.5123, 0.94374, -174.308, 0.954132, 64.3025, 0.0454664, 147.461
0, 960.00000, 122.966, -31.4375, 126.353, -151.371, 124.822, 87.3541, 0, 0, 0.970998, -54.5114, 0.944969, -174.445, 0.956558, 64.2803, 0.0433422, 152.058
0, 1020.00000, 122.966, -31.4375, 126.356, -151.371, 124.823, 87.3529, 0, 0, 0.970998, -54.5114, 0.944944, -174.445, 0.956548, 64.279, 0.0433844, 152.067
0, 1080.00000, 122.966, -31.4375, 126.36, -151.371, 124.824, 87.3517, 0, 0, 0.970998, -54.5115, 0.94492, -174.445, 0.95654, 64.2779, 0.0434225, 152.075
0, 1140.00000, 122.966, -31.4376, 126.362, -151.371, 124.825, 87.3507, 0, 0, 0.970998, -54.5115, 0.944899, -174.445, 0.956532, 64.2768, 0.0434568, 152.083
0, 1200.00000, 122.966, -31.4376, 126.365, -151.371, 124.826, 87.3498, 0, 0, 0.970999, -54.5115, 0.94488, -174.445, 0.956526, 64.2759, 0.0434878, 152.09
0, 1260.00000, 122.966, -31.4376, 126.367, -151.371, 124.827, 87.349, 0, 0, 0.970999, -54.5115, 0.944863, -174.445, 0.956519, 64.2751, 0.0435157, 152.096
0, 1320.00000, 122.966, -31.4376, 126.369, -151.371, 124.828, 87.3482, 0, 0, 0.970999, -54.5115, 0.944848, -174.445, 0.956514, 64.2743, 0.0435409, 152.101
0, 1380.00000, 122.966, -31.4376, 126.371, -151.371, 124.828, 87.3475, 0, 0, 0.970999, -54.5115, 0.944834, -174.445, 0.956509, 64.2737, 0.0435635, 152.106
0, 1440.00000, 122.966, -31.4376, 126.373, -151.371, 124.829, 87.3469, 0, 0, 0.970999, -54.5115, 0.944821, -174.445, 0.956505, 64.273, 0.0435838, 152.11
0, 1500.00000, 122.965, -31.4376, 126.374, -151.371, 124.829, 87.3464, 0, 0, 0.970999, -54.5115, 0.94481, -174.445, 0.956501, 64.2725, 0.0436021, 152.114
0, 1560.00000, 122.965, -31.4376, 126.375, -151.371, 124.83, 87.3459, 0, 0, 0.970999, -54.5115, 0.9448, -174.445, 0.956497, 64.272, 0.0436186, 152.118
0, 1620.00000, 122.965, -31.4376, 126.377, -151.371, 124.83, 87.3455, 0, 0, 0.971, -54.5115, 0.944791, -174.445, 0.956494, 64.2716, 0.0436334, 152.121
0, 1680.00000, 122.965, -31.4376, 126.378, -151.371, 124.831, 87.3451, 0, 0, 0.971, -54.5115, 0.944783, -174.445, 0.956491, 64.2712, 0.0436468, 152.124
0, 1740.00000, 122.965, -31.4376, 126.379, -151.371, 124.831, 87.3447, 0, 0, 0.971, -54.5115, 0.944775, -174.445, 0.956488, 64.2708, 0.0436588, 152.126
0, 1800.00000, 122.875, -31.5655, 126.05, -151.405, 124.836, 87.3461, 0, 0, 0.971711, -54.6394, 0.947237, -174.479, 0.956446, 64.2722, 0.0410625, 147.669
0, 1860.00000, 122.875, -31.5655, 126.051, -151.405, 124.837, 87.3458, 0, 0, 0.971711, -54.6394, 0.947231, -174.479, 0.956444, 64.2719, 0.0410719, 147.672
0, 1920.00000, 122.875, -31.5655, 126.052, -151.405, 124.837, 87.3456, 0, 0, 0.971711, -54.6394, 0.947226, -174.479, 0.956442, 64.2717, 0.0410803, 147.675
0, 1980.00000, 122.875, -31.5655, 126.052, -151.405, 124.837, 87.3453, 0, 0, 0.971711, -54.6394, 0.947221, -174.479, 0.956441, 64.2714, 0.0410879, 147.678
0, 2040.00000, 122.875, -31.5655, 126.053, -151.405, 124.837, 87.3451, 0, 0, 0.971711, -54.6394, 0.947217, -174.479, 0.956439, 64.2712, 0.0410947, 147.68
0, 2100.00000, 122.875, -31.5655, 126.053, -151.405, 124.838, 87.3449, 0, 0, 0.971711, -54.6394, 0.947213, -174.479, 0.956438, 64.271, 0.0411009, 147.682
0, 2160.00000, 122.875, -31.5655, 126.054, -151.405, 124.838, 87.3448, 0, 0, 0.971711, -54.6394, 0.947209, -174.479, 0.956436, 64.2708, 0.0411064, 147.684
0, 2220.00000, 122.875, -31.5655, 126.054, -151.405, 124.838, 87.3446, 0, 0, 0.971711, -54.6394, 0.947206, -174.479, 0.956435, 64.2707, 0.0411114, 147.686
0, 2280.00000, 122.875, -31.5655, 126.055, -151.405, 124.838, 87.3445, 0, 0, 0.971711, -54.6394, 0.947204, -174.479, 0.956434, 64.2706, 0.0411159, 147.687
0, 2340.00000, 122.875, -31.5655, 126.055, -151.405, 124.838, 87.3443, 0, 0, 0.971711, -54.6394, 0.947201, -174.479, 0.956433, 64.2704, 0.04112, 147.688
0, 2400.00000, 122.875, -31.5655, 126.055, -151.405, 124.838, 87.3442, 0, 0, 0.971711, -54.6394, 0.947199, -174.479, 0.956432, 64.2703, 0.0411236, 147.69
0, 2460.00000, 122.875, -31.5655, 126.056, -151.405, 124.838, 87.3441, 0, 0, 0.971711, -54.6394, 0.947197, -174.479, 0.956432, 64.2702, 0.0411269, 147.691
0, 2520.00000, 122.875, -31.5655, 126.056, -151.405, 124.839, 87.344, 0, 0, 0.971711, -54.6394, 0.947195, -174.479, 0.956431, 64.2701, 0.0411298, 147.692
0, 2580.00000, 122.875, -31.5655, 126.056, -151.405, 124.839, 87.344, 0, 0, 0.971711, -54.6394, 0.947193, -174.479, 0.95643, 64.27, 0.0411325, 147.693
0, 2640.00000, 122.875, -31.5655, 126.056, -151.405, 124.839, 87.3439, 0, 0, 0.971711, -54.6394, 0.947192, -174.479, 0.95643, 64.27, 0.0411349, 147.693
0, 2700.00000, 122.875, -31.5655, 126.056, -151.405, 124.839, 87.3438, 0, 0, 0.971711, -54.6394, 0.947191, -174.479, 0.956429, 64.2699, 0.041137, 147.694
0, 2760.00000, 123.357, -31.5694, 126.053, -151.404, 125.095, 87.5306, 0, 0, 0.967915, -54.6433, 0.947214, -174.478, 0.954472, 64.4567, 0.0347388, 146.125
0, 2820.00000, 123.357, -31.5694, 126.053, -151.404, 125.095, 87.5306, 0, 0, 0.967915, -54.6433, 0.947212, -174.478, 0.954472, 64.4566, 0.0347405, 146.126
0, 2880.00000, 123.357, -31.5694, 126.054, -151.404, 125.095, 87.5305, 0, 0, 0.967915, -54.6433, 0.947211, -174.478, 0.954471, 64.4566, 0.0347421, 146.127
0, 2940.00000, 123.357, -31.5694, 126.054, -151.404, 125.095, 87.5305, 0, 0, 0.967915, -54.6433, 0.947211, -174.478, 0.954471, 64.4566, 0.0347435, 146.127
0, 3000.00000, 123.357, -31.5694, 126.054, -151.404, 125.095, 87.5304, 0, 0, 0.967915, -54.6433, 0.94721, -174.478, 0.954471, 64.4565, 0.0347447, 146.128
0, 3060.00000, 123.357, -31.5694, 126.054, -151.404, 125.095, 87.5304, 0, 0, 0.967915, -54.6433, 0.947209, -174.478, 0.954471, 64.4565, 0.0347459, 146.128
0, 3120.00000, 123.357, -31.5694, 126.054, -151.404, 125.095, 87.5304, 0, 0, 0.967915, -54.6433, 0.947208, -174.478, 0.95447, 64.4565, 0.0347469, 146.129
0, 3180.00000, 123.357, -31.5694, 126.054, -151.404, 125.095, 87.5303, 0, 0, 0.967915, -54.6433, 0.947208, -174.478, 0.95447, 64.4564, 0.0347478, 146.129
0, 3240.00000, 123.357, -31.5694, 126.054, -151.404, 125.095, 87.5303, 0, 0, 0.967915, -54.6433, 0.947207, -174.478, 0.95447, 64.4564, 0.0347486, 146.13
0, 3300.00000, 123.357, -31.5694, 126.054, -151.404, 125.095, 87.5303, 0, 0, 0.967915, -54.6433, 0.947207, -174.478, 0.95447, 64.4564, 0.0347494, 146.13
0, 3360.00000, 123.357, -31.5694, 126.054, -151.404, 125.095, 87.5303, 0, 0, 0.967915, -54.6433, 0.947206, -174.478, 0.95447, 64.4564, 0.03475, 146.13
0, 3420.00000, 123.357, -31.5694, 126.054, -151.404, 125.095, 87.5303, 0, 0, 0.967915, -54.6433, 0.947206, -174.478, 0.954469, 64.4563, 0.0347506, 146.13
0, 3480.00000, 123.357, -31.5694, 126.054, -151.404, 125.095, 87.5302, 0, 0, 0.967915, -54.6433, 0.947206, -174.478, 0.954469, 64.4563, 0.0347512, 146.131
0, 3540.00000, 123.357, -31.5694, 126.054, -151.404, 125.095, 87.5302, 0, 0, 0.967915, -54.6433, 0.947205, -174.478, 0.954469, 64.4563, 0.0347517, 146.131
1, 0.00000, 123.357, -31.5694, 126.054, -151.404, 125.095, 87.5302, 0, 0, 0.967915, -54.6433, 0.947205, -174.478, 0.954469, 64.4563, 0.0347521, 146.131
1, 60.00000, 123.842, -31.5713, 126.052, -151.403, 125.344, 87.7155, 0, 0, 0.964129, -54.6452, 0.947227, -174.477, 0.952572, 64.6415, 0.0284479, 144.019
1, 120.00000, 123.842, -31.5713, 126.052, -151.403, 125.344, 87.7154, 0, 0, 0.964129, -54.6452, 0.947227, -174.477, 0.952572, 64.6415, 0.0284482, 144.02
1, 180.00000, 123.842, -31.5713, 126.052, -151.403, 125.344, 87.7154, 0, 0, 0.964129, -54.6452, 0.947226, -174.477, 0.952572, 64.6415, 0.0284485, 144.02
1, 240.00000, 123.842, -31.5713, 126.052, -151.403, 125.344, 87.7154, 0, 0, 0.964129, -54.6452, 0.947226, -174.477, 0.952572, 64.6415, 0.0284488, 144.02
1, 300.00000, 123.842, -31.5713, 126.052, -151.403, 125.344, 87.7154, 0, 0, 0.964129, -54.6452, 0.947226, -174.477, 0.952572, 64.6415, 0.028449, 144.02
1, 360.00000, 123.842, -31.5713, 126.052, -151.403, 125.344, 87.7154, 0, 0, 0.964129, -54.6452, 0.947226, -174.477, 0.952572, 64.6415, 0.0284493, 144.02
1, 420.00000, 123.842, -31.5713, 126.052, -151.403, 125.344, 87.7154, 0, 0, 0.964129, -54.6452, 0.947226, -174.477, 0.952572, 64.6415, 0.0284495, 144.02
1, 480.00000, 123.842, -31.5713, 126.052, -151.403, 125.344, 87.7154, 0, 0, 0.964129, -54.6452, 0.947226, -174.477, 0.952572, 64.6415, 0.0284497, 144.021
1, 540.00000, 123.842, -31.5713, 126.052, -151.403, 125.344, 87.7154, 0, 0, 0.964129, -54.6452, 0.947225, -174.477, 0.952572, 64.6415, 0.0284498, 144.021
1, 600.00000, 123.842, -31.5713, 126.052, -151.403, 125.344, 87.7154, 0, 0, 0.964129, -54.6452, 0.947225, -174.477, 0.952572, 64.6415, 0.02845, 144.021
1, 660.00000, 123.842, -31.5713, 126.052, -151.403, 125.344, 87.7154, 0, 0, 0.964129, -54.6452, 0.947225, -174.477, 0.952572, 64.6415, 0.0284501, 144.021
1, 720.00000, 123.842, -31.5713, 126.052, -151.403, 125.344, 87.7154, 0, 0, 0.964129, -54.6452, 0.947225, -174.477, 0.952572, 64.6415, 0.0284503, 144.021
1, 780.00000, 124.121, -31.5422, 126.051, -151.4, 125.436, 87.8366, 0, 0, 0.961962, -54.6161, 0.947234, -174.473, 0.951873, 64.7627, 0.024732, 144.139
1, 840.00000, 124.121, -31.5422, 126.051, -151.4, 125.436, 87.8366, 0, 0, 0.961962, -54.6161, 0.947234, -174.473, 0.951873, 64.7627, 0.0247321, 144.139
1, 900.00000, 124.121, -31.5422, 126.051, -151.4, 125.436, 87.8366, 0, 0, 0.961962, -54.6161, 0.947234, -174.473, 0.951873, 64.7627, 0.0247322, 144.139
1, 960.00000, 124.121, -31.5422, 126.051, -151.4, 125.436, 87.8366, 0, 0, 0.961962, -54.6161, 0.947234, -174.473, 0.951873, 64.7627, 0.0247322, 144.139
1, 1020.00000, 124.121, -31.5422, 126.051, -151.4, 125.436, 87.8366, 0, 0, 0.961962, -54.6161, 0.947234, -174.473, 0.951873, 64.7627, 0.0247323, 144.139
1, 1080.00000, 124.121, -31.5422, 126.051, -151.4, 125.436, 87.8366, 0, 0, 0.961962, -54.6161, 0.947234, -174.473, 0.951873, 64.7627, 0.0247324, 144.139
1, 1140.00000, 124.121, -31.5422, 126.051, -151.4, 125.436, 87.8366, 0, 0, 0.961962, -54.6161, 0.947234, -174.473, 0.951873, 64.7627, 0.0247324, 144.139
1, 1200.00000, 124.121, -31.5422, 126.051, -151.4, 125.436, 87.8366, 0, 0, 0.961962, -54.6161, 0.947234, -174.473, 0.951873, 64.7627, 0.0247325, 144.14
1, 1260.00000, 124.121, -31.5422, 126.051, -151.4, 125.436, 87.8366, 0, 0, 0.961962, -54.6161, 0.947234, -174.473, 0.951873, 64.7627, 0.0247325, 144.14
1, 1320.00000, 124.121, -31.5422, 126.051, -151.4, 125.436, 87.8366, 0, 0, 0.961962, -54.6161, 0.947233, -174.473, 0.951873, 64.7626, 0.0247326, 144.14
1, 1380.00000, 124.121, -31.5422, 126.051, -151.4, 125.436, 87.8366, 0, 0, 0.961962, -54.6161, 0.947233, -174.473, 0.951873, 64.7626, 0.0247326, 144.14
1, 1440.00000, 124.121, -31.5422, 126.051, -151.4, 125.436, 87.8366, 0, 0, 0.961962, -54.6161, 0.947233, -174.473, 0.951873, 64.7626, 0.0247326, 144.14
1, 1500.00000, 124.121, -31.5422, 126.051, -151.4, 125.436, 87.8366, 0, 0, 0.961962, -54.6161, 0.947233, -174.473, 0.951873, 64.7626, 0.0247327, 144.14
1, 1560.00000, 124.121, -31.5422, 126.051, -151.4, 125.436, 87.8366, 0, 0, 0.961962, -54.6161, 0.947233, -174.473, 0.951873, 64.7626, 0.0247327, 144.14
1, 1620.00000, 124.121, -31.5422, 126.051, -151.4, 125.436, 87.8366, 0, 0, 0.961962, -54.6161, 0.947233, -174.473, 0.951873, 64.7626, 0.0247327, 144.14
1, 1680.00000, 124.121, -31.5422, 126.051, -151.4, 125.436, 87.8366, 0, 0, 0.961962, -54.6161, 0.947233, -174.473, 0.951873, 64.7626, 0.0247328, 144.14
1, 1740.00000, 124.121, -31.5422, 126.051, -151.4, 125.436, 87.8366, 0, 0, 0.961962, -54.6161, 0.947233, -174.473, 0.951873, 64.7626, 0.0247328, 144.14
1, 1800.00000, 124.121, -31.5422, 126.051, -151.4, 125.436, 87.8366, 0, 0, 0.961962, -54.6161, 0.947233, -174.473, 0.951873, 64.7626, 0.0247328, 144.14
1, 1860.00000, 124.121, -31.5422, 126.051, -151.4, 125.436, 87.8366, 0, 0, 0.961962, -54.6161, 0.947233, -174.473, 0.951873, 64.7626, 0.0247328, 144.14
1, 1920.00000, 124.121, -31.5422, 126.051, -151.4, 125.436, 87.8366, 0, 0, 0.961962, -54.6161, 0.947233, -174.473, 0.951873, 64.7626, 0.0247328, 144.14
1, 1980.00000, 124.121, -31.5422, 126.051, -151.4, 125.436, 87.8366, 0, 0, 0.961962, -54.6161, 0.947233, -174.473, 0.951873, 64.7626, 0.0247328, 144.14
1, 2040.00000, 124.121, -31.5422, 126.051, -151.4, 125.436, 87.8366, 0, 0, 0.961962, -54.6161, 0.947233, -174.473, 0.951873, 64.7626, 0.0247329, 144.14
1, 2100.00000, 124.121, -31.5422, 126.051, -151.4, 125.436, 87.8366, 0, 0, 0.961962, -54.6161, 0.947233, -174.473, 0.951873, 64.7626, 0.0247329, 144.14
1, 2160.00000, 124.121, -31.5422, 126.051, -151.4, 125.436, 87.8366, 0, 0, 0.961962, -54.6161, 0.947233, -174.473, 0.951873, 64.7626, 0.0247329, 144.14
1, 2220.00000, 124.215, -31.4142, 126.38, -151.366, 125.429, 87.8352, 0, 0, 0.961235, -54.4881, 0.944769, -174.44, 0.951929, 64.7613, 0.0271891, 151.635
1, 2280.00000, 124.215, -31.4142, 126.38, -151.366, 125.429, 87.8352, 0, 0, 0.961235, -54.4881, 0.944769, -174.44, 0.95193, 64.7613, 0.0271892, 151.635
1, 2340.00000, 124.215, -31.4142, 126.38, -151.366, 125.429, 87.8352, 0, 0, 0.961235, -54.4881, 0.944769, -174.44, 0.95193, 64.7613, 0.0271892, 151.635
1, 2400.00000, 124.215, -31.4142, 126.38, -151.366, 125.429, 87.8352, 0, 0, 0.961235, -54.4881, 0.944769, -174.44, 0.95193, 64.7613, 0.0271892, 151.635
1, 2460.00000, 124.215, -31.4142, 126.38, -151.366, 125.429, 87.8352, 0, 0, 0.961235, -54.4881, 0.944769, -174.44, 0.95193, 64.7613, 0.0271892, 151.635
1, 2520.00000, 124.215, -31.4142, 126.38, -151.366, 125.429, 87.8352, 0, 0, 0.961235, -54.4881, 0.944769, -174.44, 0.95193, 64.7613, 0.0271892, 151.635
1, 2580.00000, 124.215, -31.4142, 126.38, -151.366, 125.429, 87.8352, 0, 0, 0.961235, -54.4881, 0.944768, -174.44, 0.95193, 64.7613, 0.0271892, 151.635
1, 2640.00000, 124.215, -31.4142, 126.38, -151.366, 125.429, 87.8352, 0, 0, 0.961235, -54.4881, 0.944768, -174.44, 0.95193, 64.7613, 0.0271892, 151.635
1, 2700.00000, 124.215, -31.4142, 126.38, -151.366, 125.429, 87.8352, 0, 0, 0.961235, -54.4881, 0.944768, -174.44, 0.95193, 64.7613, 0.0271893, 151.635
1, 2760.00000, 124.215, -31.4142, 126.38, -151.366, 125.429, 87.8352, 0, 0, 0.961235, -54.4881, 0.944768, -174.44, 0.95193, 64.7613, 0.0271893, 151.635
1, 2820.00000, 124.215, -31.4142, 126.38, -151.366, 125.429, 87.8352, 0, 0, 0.961235, -54.4881, 0.944768, -174.44, 0.95193, 64.7613, 0.0271893, 151.635
1, 2880.00000, 124.215, -31.4142, 126.38, -151.366, 125.429, 87.8352, 0, 0, 0.961235, -54.4881, 0.944768, -174.44, 0.95193, 64.7613, 0.0271893, 151.635
1, 2940.00000, 124.215, -31.4142, 126.38, -151.366, 125.429, 87.8352, 0, 0, 0.961235, -54.4881, 0.944768, -174.44, 0.95193, 64.7613, 0.0271893, 151.635
1, 3000.00000, 124.215, -31.4142, 126.38, -151.366, 125.429, 87.8352, 0, 0, 0.961235, -54.4881, 0.944768, -174.44, 0.95193, 64.7613, 0.0271893, 151.635
1, 3060.00000, 124.215, -31.4142, 126.38, -151.366, 125.429, 87.8352, 0, 0, 0.961235, -54.4881, 0.944768, -174.44, 0.95193, 64.7613, 0.0271893, 151.635
1, 3120.00000, 124.215, -31.4142, 126.38, -151.366, 125.429, 87.8352, 0, 0, 0.961235, -54.4881, 0.944768, -174.44, 0.95193, 64.7613, 0.0271893, 151.635
1, 3180.00000, 124.215, -31.4142, 126.38, -151.366, 125.429, 87.8352, 0, 0, 0.961235, -54.4881, 0.944768, -174.44, 0.95193, 64.7613, 0.0271893, 151.635
1, 3240.00000, 124.215, -31.4142, 126.38, -151.366, 125.429, 87.8352, 0, 0, 0.961235, -54.4881, 0.944768, -174.44, 0.95193, 64.7613, 0.0271893, 151.635
1, 3300.00000, 124.215, -31.4142, 126.38, -151.366, 125.429, 87.8352, 0, 0, 0.961235, -54.4881, 0.944768, -174.44, 0.95193, 64.7613, 0.0271893, 151.635
1, 3360.00000, 124.215, -31.4142, 126.38, -151.366, 125.429, 87.8352, 0, 0, 0.961235, -54.4881, 0.944768, -174.44, 0.95193, 64.7613, 0.0271893, 151.635
1, 3420.00000, 124.215, -31.4142, 126.38, -151.366, 125.429, 87.8352, 0, 0, 0.961235, -54.4881, 0.944768, -174.44, 0.95193, 64.7613, 0.0271893, 151.635
1, 3480.00000, 124.215, -31.4142, 126.38, -151.366, 125.429, 87.8352, 0, 0, 0.961235, -54.4881, 0.944768, -174.44, 0.95193, 64.7613, 0.0271893, 151.635
1, 3540.00000, 124.215, -31.4142, 126.38, -151.366, 125.429, 87.8352, 0, 0, 0.961235, -54.4881, 0.944768, -174.44, 0.95193, 64.7613, 0.0271893, 151.635
2, 0.00000, 124.215, -31.4142, 126.38, -151.366, 125.429, 87.8352, 0, 0, 0.961235, -54.4881, 0.944768, -174.44, 0.95193, 64.7613, 0.0271893, 151.635
2, 60.00000, 124.215, -31.4142, 126.38, -151.366, 125.429, 87.8352, 0, 0, 0.961235, -54.4881, 0.944768, -174.44, 0.95193, 64.7613, 0.0271893, 151.635
2, 120.00000, 124.215, -31.4142, 126.38, -151.366, 125.429, 87.8352, 0, 0, 0.961235, -54.4881, 0.944768, -174.44, 0.95193, 64.7613, 0.0271893, 151.635
2, 180.00000, 124.215, -31.4142, 126.38, -151.366, 125.429, 87.8352, 0, 0, 0.961235, -54.4881, 0.944768, -174.44, 0.95193, 64.7613, 0.0271893, 151.635
2, 240.00000, 124.215, -31.4142, 126.38, -151.366, 125.429, 87.8352, 0, 0, 0.961235, -54.4881, 0.944768, -174.44, 0.95193, 64.7613, 0.0271893, 151.635
2, 300.00000, 124.215, -31.4142, 126.38, -151.366, 125.429, 87.8352, 0, 0, 0.961235, -54.4881, 0.944768, -174.44, 0.95193, 64.7613, 0.0271893, 151.635
2, 360.00000, 124.215, -31.4142, 126.38, -151.366, 125.429, 87.8352, 0, 0, 0.961235, -54.4881, 0.944768, -174.44, 0.95193, 64.7613, 0.0271893, 151.635
2, 420.00000, 124.215, -31.4142, 126.38, -151.366, 125.429, 87.8352, 0, 0, 0.961235, -54.4881, 0.944768, -174.44, 0.95193, 64.7613, 0.0271893, 151.635
2, 480.00000, 124.215, -31.4142, 126.38, -151.366, 125.429, 87.8352, 0, 0, 0.961235, -54.4881, 0.944768, -174.44, 0.95193, 64.7613, 0.0271893, 151.635
2, 540.00000, 124.215, -31.4142, 126.38, -151.366, 125.429, 87.8352, 0, 0, 0.961235, -54.4881, 0.944768, -174.44, 0.95193, 64.7613, 0.0271893, 151.635
2, 600.00000, 124.215, -31.4142, 126.38, -151.366, 125.429, 87.8352, 0, 0, 0.961235, -54.4881, 0.944768, -174.44, 0.95193, 64.7613, 0.0271893, 151.635
