hour,t(sec),V1,VAngle1,V2,VAngle2,V3,VAngle3,V4,VAngle4,I1,IAngle1,I2,IAngle2,I3,IAngle3,I4,IAngle4
0, 60.00000, 119.111, -30.9759, 119.637, -150.83, 120.139, 88.9458, 0, 0, 4.67313, -54.0494, 4.69602, -173.903, 4.71797, 65.8724, 0.0241948, -96.2508
0, 120.00000, 119.111, -30.9759, 119.637, -150.83, 120.139, 88.9458, 0, 0, 4.67307, -54.0498, 4.69596, -173.904, 4.71783, 65.8719, 0.0240875, -96.2346
0, 180.00000, 119.111, -30.9759, 119.637, -150.83, 120.139, 88.9458, 0, 0, 4.67307, -54.0499, 4.69596, -173.904, 4.71783, 65.8719, 0.024087, -96.2342
0, 240.00000, 119.111, -30.9759, 119.637, -150.83, 120.139, 88.9458, 0, 0, 4.67307, -54.0499, 4.69596, -173.904, 4.71783, 65.8719, 0.024087, -96.2342
0, 300.00000, 119.111, -30.9759, 119.637, -150.83, 120.139, 88.9458, 0, 0, 4.67307, -54.0499, 4.69596, -173.904, 4.71783, 65.8719, 0.024087, -96.2342
0, 360.00000, 119.111, -30.9759, 119.637, -150.83, 120.139, 88.9458, 0, 0, 4.67307, -54.0499, 4.69596, -173.904, 4.71783, 65.8719, 0.024087, -96.2342
0, 420.00000, 119.111, -30.9759, 119.637, -150.83, 120.139, 88.9458, 0, 0, 4.67307, -54.0499, 4.69596, -173.904, 4.71783, 65.8719, 0.024087, -96.2342
0, 480.00000, 119.111, -30.9759, 119.637, -150.83, 120.139, 88.9458, 0, 0, 4.67307, -54.0499, 4.69596, -173.904, 4.71783, 65.8719, 0.024087, -96.2342
0, 540.00000, 119.111, -30.9759, 119.637, -150.83, 120.139, 88.9458, 0, 0, 4.67307, -54.0499, 4.69596, -173.904, 4.71783, 65.8719, 0.024087, -96.2342
0, 600.00000, 119.111, -30.9759, 119.637, -150.83, 120.139, 88.9458, 0, 0, 4.67307, -54.0499, 4.69596, -173.904, 4.71783, 65.8719, 0.024087, -96.2342
0, 660.00000, 119.111, -30.9759, 119.637, -150.83, 120.139, 88.9458, 0, 0, 4.67307, -54.0499, 4.69596, -173.904, 4.71783, 65.8719, 0.024087, -96.2342
0, 720.00000, 119.111, -30.9759, 119.637, -150.83, 120.139, 88.9458, 0, 0, 4.67307, -54.0499, 4.69596, -173.904, 4.71783, 65.8719, 0.024087, -96.2342
0, 780.00000, 119.111, -30.9759, 119.637, -150.83, 120.139, 88.9458, 0, 0, 4.67307, -54.0499, 4.69596, -173.904, 4.71783, 65.8719, 0.024087, -96.2342
0, 840.00000, 119.111, -30.9759, 119.637, -150.83, 120.139, 88.9458, 0, 0, 4.67307, -54.0499, 4.69596, -173.904, 4.71783, 65.8719, 0.024087, -96.2342
0, 900.00000, 119.111, -30.9759, 119.637, -150.83, 120.139, 88.9458, 0, 0, 4.67307, -54.0499, 4.69596, -173.904, 4.71783, 65.8719, 0.024087, -96.2342
0, 960.00000, 118.325, -31.2528, 118.687, -150.732, 120.013, 88.9074, 0, 0, 3.84221, -54.3263, 3.85527, -173.806, 3.90305, 65.8336, 0.0244889, -103.589
0, 1020.00000, 118.325, -31.2528, 118.687, -150.732, 120.013, 88.9074, 0, 0, 3.84216, -54.3267, 3.85521, -173.806, 3.90304, 65.8335, 0.0245005, -103.608
0, 1080.00000, 118.325, -31.2528, 118.687, -150.732, 120.013, 88.9074, 0, 0, 3.84216, -54.3267, 3.85521, -173.806, 3.90304, 65.8335, 0.0245006, -103.609
0, 1140.00000, 118.325, -31.2528, 118.687, -150.732, 120.013, 88.9074, 0, 0, 3.84216, -54.3267, 3.85521, -173.806, 3.90304, 65.8335, 0.0245006, -103.609
0, 1200.00000, 118.325, -31.2528, 118.687, -150.732, 120.013, 88.9074, 0, 0, 3.84216, -54.3267, 3.85521, -173.806, 3.90304, 65.8335, 0.0245006, -103.609
0, 1260.00000, 118.325, -31.2528, 118.687, -150.732, 120.013, 88.9074, 0, 0, 3.84216, -54.3267, 3.85521, -173.806, 3.90304, 65.8335, 0.0245006, -103.609
0, 1320.00000, 118.325, -31.2528, 118.687, -150.732, 120.013, 88.9074, 0, 0, 3.84216, -54.3267, 3.85521, -173.806, 3.90304, 65.8335, 0.0245006, -103.609
0, 1380.00000, 118.325, -31.2528, 118.687, -150.732, 120.013, 88.9074, 0, 0, 3.84216, -54.3267, 3.85521, -173.806, 3.90304, 65.8335, 0.0245006, -103.609
0, 1440.00000, 118.325, -31.2528, 118.687, -150.732, 120.013, 88.9074, 0, 0, 3.84216, -54.3267, 3.85521, -173.806, 3.90304, 65.8335, 0.0245006, -103.609
0, 1500.00000, 118.325, -31.2528, 118.687, -150.732, 120.013, 88.9074, 0, 0, 3.84216, -54.3267, 3.85521, -173.806, 3.90304, 65.8335, 0.0245006, -103.609
0, 1560.00000, 118.325, -31.2528, 118.687, -150.732, 120.013, 88.9074, 0, 0, 3.84216, -54.3267, 3.85521, -173.806, 3.90304, 65.8335, 0.0245006, -103.609
0, 1620.00000, 118.325, -31.2528, 118.687, -150.732, 120.013, 88.9074, 0, 0, 3.84216, -54.3267, 3.85521, -173.806, 3.90304, 65.8335, 0.0245006, -103.609
0, 1680.00000, 118.325, -31.2528, 118.687, -150.732, 120.013, 88.9074, 0, 0, 3.84216, -54.3267, 3.85521, -173.806, 3.90304, 65.8335, 0.0245006, -103.609
0, 1740.00000, 118.325, -31.2528, 118.687, -150.732, 120.013, 88.9074, 0, 0, 3.84216, -54.3267, 3.85521, -173.806, 3.90304, 65.8335, 0.0245006, -103.609
0, 1800.00000, 118.325, -31.2528, 118.687, -150.732, 120.013, 88.9074, 0, 0, 3.84216, -54.3267, 3.85521, -173.806, 3.90304, 65.8335, 0.0245006, -103.609
0, 1860.00000, 118.538, -31.2423, 118.893, -150.722, 120.22, 88.9224, 0, 0, 3.36785, -54.3164, 3.37895, -173.796, 3.42069, 65.847, 0.0211387, -103.667
0, 1920.00000, 118.538, -31.2422, 118.893, -150.722, 120.221, 88.9225, 0, 0, 3.36783, -54.3162, 3.37903, -173.796, 3.42092, 65.8485, 0.0213629, -103.321
0, 1980.00000, 118.538, -31.2422, 118.893, -150.722, 120.221, 88.9225, 0, 0, 3.36783, -54.3162, 3.37903, -173.796, 3.42092, 65.8485, 0.0213639, -103.32
0, 2040.00000, 118.538, -31.2422, 118.893, -150.722, 120.221, 88.9225, 0, 0, 3.36783, -54.3162, 3.37903, -173.796, 3.42092, 65.8485, 0.0213639, -103.32
0, 2100.00000, 118.538, -31.2422, 118.893, -150.722, 120.221, 88.9225, 0, 0, 3.36783, -54.3162, 3.37903, -173.796, 3.42092, 65.8485, 0.0213639, -103.32
0, 2160.00000, 118.538, -31.2422, 118.893, -150.722, 120.221, 88.9225, 0, 0, 3.36783, -54.3162, 3.37903, -173.796, 3.42092, 65.8485, 0.0213639, -103.32
0, 2220.00000, 118.538, -31.2422, 118.893, -150.722, 120.221, 88.9225, 0, 0, 3.36783, -54.3162, 3.37903, -173.796, 3.42092, 65.8485, 0.0213639, -103.32
0, 2280.00000, 118.538, -31.2422, 118.893, -150.722, 120.221, 88.9225, 0, 0, 3.36783, -54.3162, 3.37903, -173.796, 3.42092, 65.8485, 0.0213639, -103.32
0, 2340.00000, 118.538, -31.2422, 118.893, -150.722, 120.221, 88.9225, 0, 0, 3.36783, -54.3162, 3.37903, -173.796, 3.42092, 65.8485, 0.0213639, -103.32
0, 2400.00000, 118.538, -31.2422, 118.893, -150.722, 120.221, 88.9225, 0, 0, 3.36783, -54.3162, 3.37903, -173.796, 3.42092, 65.8485, 0.0213639, -103.32
0, 2460.00000, 118.538, -31.2422, 118.893, -150.722, 120.221, 88.9225, 0, 0, 3.36783, -54.3162, 3.37903, -173.796, 3.42092, 65.8485, 0.0213639, -103.32
0, 2520.00000, 118.538, -31.2422, 118.893, -150.722, 120.221, 88.9225, 0, 0, 3.36783, -54.3162, 3.37903, -173.796, 3.42092, 65.8485, 0.0213639, -103.32
0, 2580.00000, 118.538, -31.2422, 118.893, -150.722, 120.221, 88.9225, 0, 0, 3.36783, -54.3162, 3.37903, -173.796, 3.42092, 65.8485, 0.0213639, -103.32
0, 2640.00000, 118.538, -31.2422, 118.893, -150.722, 120.221, 88.9225, 0, 0, 3.36783, -54.3162, 3.37903, -173.796, 3.42092, 65.8485, 0.0213639, -103.32
0, 2700.00000, 118.538, -31.2422, 118.893, -150.722, 120.221, 88.9225, 0, 0, 3.36783, -54.3162, 3.37903, -173.796, 3.42092, 65.8485, 0.0213639, -103.32
0, 2760.00000, 118.86, -31.2106, 119.206, -150.691, 120.539, 88.9613, 0, 0, 3.28254, -54.2847, 3.29313, -173.765, 3.33396, 65.8871, 0.0207325, -102.793
0, 2820.00000, 118.86, -31.2106, 119.206, -150.691, 120.539, 88.9613, 0, 0, 3.28254, -54.2845, 3.29314, -173.765, 3.33402, 65.8874, 0.0208042, -102.783
0, 2880.00000, 118.86, -31.2106, 119.206, -150.691, 120.539, 88.9613, 0, 0, 3.28254, -54.2845, 3.29314, -173.765, 3.33402, 65.8874, 0.0208053, -102.783
0, 2940.00000, 118.86, -31.2106, 119.206, -150.691, 120.539, 88.9613, 0, 0, 3.28254, -54.2845, 3.29314, -173.765, 3.33402, 65.8874, 0.0208053, -102.783
0, 3000.00000, 118.86, -31.2106, 119.206, -150.691, 120.539, 88.9613, 0, 0, 3.28254, -54.2845, 3.29314, -173.765, 3.33402, 65.8874, 0.0208053, -102.783
0, 3060.00000, 118.86, -31.2106, 119.206, -150.691, 120.539, 88.9613, 0, 0, 3.28254, -54.2845, 3.29314, -173.765, 3.33402, 65.8874, 0.0208053, -102.783
0, 3120.00000, 118.86, -31.2106, 119.206, -150.691, 120.539, 88.9613, 0, 0, 3.28254, -54.2845, 3.29314, -173.765, 3.33402, 65.8874, 0.0208053, -102.783
0, 3180.00000, 118.86, -31.2106, 119.206, -150.691, 120.539, 88.9613, 0, 0, 3.28254, -54.2845, 3.29314, -173.765, 3.33402, 65.8874, 0.0208053, -102.783
0, 3240.00000, 118.86, -31.2106, 119.206, -150.691, 120.539, 88.9613, 0, 0, 3.28254, -54.2845, 3.29314, -173.765, 3.33402, 65.8874, 0.0208053, -102.783
0, 3300.00000, 118.86, -31.2106, 119.206, -150.691, 120.539, 88.9613, 0, 0, 3.28254, -54.2845, 3.29314, -173.765, 3.33402, 65.8874, 0.0208053, -102.783
0, 3360.00000, 118.86, -31.2106, 119.206, -150.691, 120.539, 88.9613, 0, 0, 3.28254, -54.2845, 3.29314, -173.765, 3.33402, 65.8874, 0.0208053, -102.783
0, 3420.00000, 118.86, -31.2106, 119.206, -150.691, 120.539, 88.9613, 0, 0, 3.28254, -54.2845, 3.29314, -173.765, 3.33402, 65.8874, 0.0208053, -102.783
0, 3480.00000, 118.86, -31.2106, 119.206, -150.691, 120.539, 88.9613, 0, 0, 3.28254, -54.2845, 3.29314, -173.765, 3.33402, 65.8874, 0.0208053, -102.783
0, 3540.00000, 118.86, -31.2106, 119.206, -150.691, 120.539, 88.9613, 0, 0, 3.28254, -54.2845, 3.29314, -173.765, 3.33402, 65.8874, 0.0208053, -102.783
1, 0.00000, 118.86, -31.2106, 119.206, -150.691, 120.539, 88.9613, 0, 0, 3.28254, -54.2845, 3.29314, -173.765, 3.33402, 65.8874, 0.0208053, -102.783
1, 60.00000, 119.092, -31.1874, 119.427, -150.67, 120.769, 88.989, 0, 0, 3.52287, -54.2616, 3.53386, -173.744, 3.5716, 65.9149, 0.0162374, -98.467
1, 120.00000, 119.092, -31.1874, 119.427, -150.67, 120.769, 88.9891, 0, 0, 3.52287, -54.2613, 3.53386, -173.744, 3.57152, 65.9151, 0.0161883, -98.3552
1, 180.00000, 119.092, -31.1874, 119.427, -150.67, 120.769, 88.9891, 0, 0, 3.52287, -54.2613, 3.53386, -173.744, 3.57152, 65.9151, 0.0161878, -98.3532
1, 240.00000, 119.092, -31.1874, 119.427, -150.67, 120.769, 88.9891, 0, 0, 3.52287, -54.2613, 3.53386, -173.744, 3.57152, 65.9151, 0.0161877, -98.3531
1, 300.00000, 119.092, -31.1874, 119.427, -150.67, 120.769, 88.9891, 0, 0, 3.52287, -54.2613, 3.53386, -173.744, 3.57152, 65.9151, 0.0161877, -98.3531
1, 360.00000, 119.092, -31.1874, 119.427, -150.67, 120.769, 88.9891, 0, 0, 3.52287, -54.2613, 3.53386, -173.744, 3.57152, 65.9151, 0.0161877, -98.3531
1, 420.00000, 119.092, -31.1874, 119.427, -150.67, 120.769, 88.9891, 0, 0, 3.52287, -54.2613, 3.53386, -173.744, 3.57152, 65.9151, 0.0161877, -98.3531
1, 480.00000, 119.092, -31.1874, 119.427, -150.67, 120.769, 88.9891, 0, 0, 3.52287, -54.2613, 3.53386, -173.744, 3.57152, 65.9151, 0.0161877, -98.3531
1, 540.00000, 119.092, -31.1874, 119.427, -150.67, 120.769, 88.9891, 0, 0, 3.52287, -54.2613, 3.53386, -173.744, 3.57152, 65.9151, 0.0161877, -98.3531
1, 600.00000, 119.092, -31.1874, 119.427, -150.67, 120.769, 88.9891, 0, 0, 3.52287, -54.2613, 3.53386, -173.744, 3.57152, 65.9151, 0.0161877, -98.3531
1, 660.00000, 119.092, -31.1874, 119.427, -150.67, 120.769, 88.9891, 0, 0, 3.52287, -54.2613, 3.53386, -173.744, 3.57152, 65.9151, 0.0161877, -98.3531
1, 720.00000, 119.092, -31.1874, 119.427, -150.67, 120.769, 88.9891, 0, 0, 3.52287, -54.2613, 3.53386, -173.744, 3.57152, 65.9151, 0.0161877, -98.3531
1, 780.00000, 119.092, -31.1874, 119.427, -150.67, 120.769, 88.9891, 0, 0, 3.52287, -54.2613, 3.53386, -173.744, 3.57152, 65.9151, 0.0161877, -98.3531
1, 840.00000, 119.092, -31.1874, 119.427, -150.67, 120.769, 88.9891, 0, 0, 3.52287, -54.2613, 3.53386, -173.744, 3.57152, 65.9151, 0.0161877, -98.3531
1, 900.00000, 119.092, -31.1874, 119.427, -150.67, 120.769, 88.9891, 0, 0, 3.52287, -54.2613, 3.53386, -173.744, 3.57152, 65.9151, 0.0161877, -98.3531
1, 960.00000, 119.15, -31.1856, 119.482, -150.669, 120.827, 88.9916, 0, 0, 3.10131, -54.2598, 3.11089, -173.743, 3.14103, 65.9173, 0.0113362, -94.3727
1, 1020.00000, 119.15, -31.1855, 119.482, -150.669, 120.828, 88.9917, 0, 0, 3.10133, -54.2594, 3.11092, -173.743, 3.14091, 65.9177, 0.011232, -94.0365
1, 1080.00000, 119.15, -31.1855, 119.482, -150.669, 120.828, 88.9917, 0, 0, 3.10133, -54.2594, 3.11092, -173.743, 3.14091, 65.9178, 0.0112313, -94.0326
1, 1140.00000, 119.15, -31.1855, 119.482, -150.669, 120.828, 88.9917, 0, 0, 3.10133, -54.2594, 3.11092, -173.743, 3.14091, 65.9178, 0.0112313, -94.0325
1, 1200.00000, 119.15, -31.1855, 119.482, -150.669, 120.828, 88.9917, 0, 0, 3.10133, -54.2594, 3.11092, -173.743, 3.14091, 65.9178, 0.0112313, -94.0325
1, 1260.00000, 119.15, -31.1855, 119.482, -150.669, 120.828, 88.9917, 0, 0, 3.10133, -54.2594, 3.11092, -173.743, 3.14091, 65.9178, 0.0112313, -94.0325
1, 1320.00000, 119.15, -31.1855, 119.482, -150.669, 120.828, 88.9917, 0, 0, 3.10133, -54.2594, 3.11092, -173.743, 3.14091, 65.9178, 0.0112313, -94.0325
1, 1380.00000, 119.15, -31.1855, 119.482, -150.669, 120.828, 88.9917, 0, 0, 3.10133, -54.2594, 3.11092, -173.743, 3.14091, 65.9178, 0.0112313, -94.0325
1, 1440.00000, 119.15, -31.1855, 119.482, -150.669, 120.828, 88.9917, 0, 0, 3.10133, -54.2594, 3.11092, -173.743, 3.14091, 65.9178, 0.0112313, -94.0325
1, 1500.00000, 119.15, -31.1855, 119.482, -150.669, 120.828, 88.9917, 0, 0, 3.10133, -54.2594, 3.11092, -173.743, 3.14091, 65.9178, 0.0112313, -94.0325
1, 1560.00000, 119.15, -31.1855, 119.482, -150.669, 120.828, 88.9917, 0, 0, 3.10133, -54.2594, 3.11092, -173.743, 3.14091, 65.9178, 0.0112313, -94.0325
1, 1620.00000, 119.15, -31.1855, 119.482, -150.669, 120.828, 88.9917, 0, 0, 3.10133, -54.2594, 3.11092, -173.743, 3.14091, 65.9178, 0.0112313, -94.0325
1, 1680.00000, 119.15, -31.1855, 119.482, -150.669, 120.828, 88.9917, 0, 0, 3.10133, -54.2594, 3.11092, -173.743, 3.14091, 65.9178, 0.0112313, -94.0325
1, 1740.00000, 119.15, -31.1855, 119.482, -150.669, 120.828, 88.9917, 0, 0, 3.10133, -54.2594, 3.11092, -173.743, 3.14091, 65.9178, 0.0112313, -94.0325
1, 1800.00000, 119.15, -31.1855, 119.482, -150.669, 120.828, 88.9917, 0, 0, 3.10133, -54.2594, 3.11092, -173.743, 3.14091, 65.9178, 0.0112313, -94.0325
1, 1860.00000, 118.972, -31.2104, 119.312, -150.692, 120.647, 88.9633, 0, 0, 2.87941, -54.2841, 2.88854, -173.766, 2.92444, 65.8896, 0.0182322, -102.876
1, 1920.00000, 118.972, -31.2104, 119.312, -150.692, 120.646, 88.9633, 0, 0, 2.8794, -54.2843, 2.88854, -173.765, 2.92439, 65.8894, 0.0181747, -102.86
1, 1980.00000, 118.972, -31.2104, 119.312, -150.692, 120.646, 88.9633, 0, 0, 2.8794, -54.2843, 2.88854, -173.765, 2.92439, 65.8894, 0.0181738, -102.86
1, 2040.00000, 118.972, -31.2104, 119.312, -150.692, 120.646, 88.9633, 0, 0, 2.8794, -54.2843, 2.88854, -173.765, 2.92439, 65.8894, 0.0181737, -102.86
1, 2100.00000, 118.972, -31.2104, 119.312, -150.692, 120.646, 88.9633, 0, 0, 2.8794, -54.2843, 2.88854, -173.765, 2.92439, 65.8894, 0.0181737, -102.86
1, 2160.00000, 118.972, -31.2104, 119.312, -150.692, 120.646, 88.9633, 0, 0, 2.8794, -54.2843, 2.88854, -173.765, 2.92439, 65.8894, 0.0181737, -102.86
1, 2220.00000, 118.972, -31.2104, 119.312, -150.692, 120.646, 88.9633, 0, 0, 2.8794, -54.2843, 2.88854, -173.765, 2.92439, 65.8894, 0.0181737, -102.86
1, 2280.00000, 118.972, -31.2104, 119.312, -150.692, 120.646, 88.9633, 0, 0, 2.8794, -54.2843, 2.88854, -173.765, 2.92439, 65.8894, 0.0181737, -102.86
1, 2340.00000, 118.972, -31.2104, 119.312, -150.692, 120.646, 88.9633, 0, 0, 2.8794, -54.2843, 2.88854, -173.765, 2.92439, 65.8894, 0.0181737, -102.86
1, 2400.00000, 118.972, -31.2104, 119.312, -150.692, 120.646, 88.9633, 0, 0, 2.8794, -54.2843, 2.88854, -173.765, 2.92439, 65.8894, 0.0181737, -102.86
1, 2460.00000, 118.972, -31.2104, 119.312, -150.692, 120.646, 88.9633, 0, 0, 2.8794, -54.2843, 2.88854, -173.765, 2.92439, 65.8894, 0.0181737, -102.86
1, 2520.00000, 118.972, -31.2104, 119.312, -150.692, 120.646, 88.9633, 0, 0, 2.8794, -54.2843, 2.88854, -173.765, 2.92439, 65.8894, 0.0181737, -102.86
1, 2580.00000, 118.972, -31.2104, 119.312, -150.692, 120.646, 88.9633, 0, 0, 2.8794, -54.2843, 2.88854, -173.765, 2.92439, 65.8894, 0.0181737, -102.86
1, 2640.00000, 118.972, -31.2104, 119.312, -150.692, 120.646, 88.9633, 0, 0, 2.8794, -54.2843, 2.88854, -173.765, 2.92439, 65.8894, 0.0181737, -102.86
1, 2700.00000, 118.942, -31.2058, 118.963, -150.892, 120.065, 88.989, 0, 0, 2.8786, -54.2796, 2.87919, -173.967, 2.90884, 65.9155, 0.0165258, -105.538
1, 2760.00000, 119.413, -31.1653, 119.405, -150.854, 120.507, 89.0374, 0, 0, 2.06913, -54.2394, 2.06899, -173.928, 2.09018, 65.9633, 0.0114831, -106.141
1, 2820.00000, 119.413, -31.1652, 119.405, -150.854, 120.507, 89.0374, 0, 0, 2.06915, -54.2392, 2.069, -173.927, 2.0902, 65.9635, 0.011495, -106.192
1, 2880.00000, 119.413, -31.1652, 119.405, -150.854, 120.507, 89.0374, 0, 0, 2.06915, -54.2392, 2.069, -173.927, 2.0902, 65.9635, 0.0114951, -106.192
1, 2940.00000, 119.413, -31.1652, 119.405, -150.854, 120.507, 89.0374, 0, 0, 2.06915, -54.2392, 2.069, -173.927, 2.0902, 65.9635, 0.0114951, -106.192
1, 3000.00000, 119.413, -31.1652, 119.405, -150.854, 120.507, 89.0374, 0, 0, 2.06915, -54.2392, 2.069, -173.927, 2.0902, 65.9635, 0.0114951, -106.192
1, 3060.00000, 119.413, -31.1652, 119.405, -150.854, 120.507, 89.0374, 0, 0, 2.06915, -54.2392, 2.069, -173.927, 2.0902, 65.9635, 0.0114951, -106.192
1, 3120.00000, 119.413, -31.1652, 119.405, -150.854, 120.507, 89.0374, 0, 0, 2.06915, -54.2392, 2.069, -173.927, 2.0902, 65.9635, 0.0114951, -106.192
1, 3180.00000, 119.413, -31.1652, 119.405, -150.854, 120.507, 89.0374, 0, 0, 2.06915, -54.2392, 2.069, -173.927, 2.0902, 65.9635, 0.0114951, -106.192
1, 3240.00000, 119.413, -31.1652, 119.405, -150.854, 120.507, 89.0374, 0, 0, 2.06915, -54.2392, 2.069, -173.927, 2.0902, 65.9635, 0.0114951, -106.192
1, 3300.00000, 119.413, -31.1652, 119.405, -150.854, 120.507, 89.0374, 0, 0, 2.06915, -54.2392, 2.069, -173.927, 2.0902, 65.9635, 0.0114951, -106.192
1, 3360.00000, 119.413, -31.1652, 119.405, -150.854, 120.507, 89.0374, 0, 0, 2.06915, -54.2392, 2.069, -173.927, 2.0902, 65.9635, 0.0114951, -106.192
1, 3420.00000, 119.413, -31.1652, 119.405, -150.854, 120.507, 89.0374, 0, 0, 2.06915, -54.2392, 2.069, -173.927, 2.0902, 65.9635, 0.0114951, -106.192
1, 3480.00000, 119.413, -31.1652, 119.405, -150.854, 120.507, 89.0374, 0, 0, 2.06915, -54.2392, 2.069, -173.927, 2.0902, 65.9635, 0.0114951, -106.192
1, 3540.00000, 119.413, -31.1652, 119.405, -150.854, 120.507, 89.0374, 0, 0, 2.06915, -54.2392, 2.069, -173.927, 2.0902, 65.9635, 0.0114951, -106.192
2, 0.00000, 119.413, -31.1652, 119.405, -150.854, 120.507, 89.0374, 0, 0, 2.06915, -54.2392, 2.069, -173.927, 2.0902, 65.9635, 0.0114951, -106.192
2, 60.00000, 119.166, -31.1928, 119.173, -150.88, 120.276, 89.0054, 0, 0, 1.88919, -54.2666, 1.88932, -173.954, 1.90872, 65.9315, 0.0106552, -106.005
2, 120.00000, 119.166, -31.1928, 119.173, -150.88, 120.276, 89.0054, 0, 0, 1.88918, -54.2667, 1.88931, -173.954, 1.9087, 65.9314, 0.0106482, -105.973
2, 180.00000, 119.166, -31.1928, 119.173, -150.88, 120.276, 89.0054, 0, 0, 1.88918, -54.2667, 1.88931, -173.954, 1.9087, 65.9314, 0.0106481, -105.973
2, 240.00000, 119.166, -31.1928, 119.173, -150.88, 120.276, 89.0054, 0, 0, 1.88918, -54.2667, 1.88931, -173.954, 1.9087, 65.9314, 0.0106481, -105.973
2, 300.00000, 119.166, -31.1928, 119.173, -150.88, 120.276, 89.0054, 0, 0, 1.88918, -54.2667, 1.88931, -173.954, 1.9087, 65.9314, 0.0106481, -105.973
2, 360.00000, 119.166, -31.1928, 119.173, -150.88, 120.276, 89.0054, 0, 0, 1.88918, -54.2667, 1.88931, -173.954, 1.9087, 65.9314, 0.0106481, -105.973
2, 420.00000, 119.166, -31.1928, 119.173, -150.88, 120.276, 89.0054, 0, 0, 1.88918, -54.2667, 1.88931, -173.954, 1.9087, 65.9314, 0.0106481, -105.973
2, 480.00000, 119.166, -31.1928, 119.173, -150.88, 120.276, 89.0054, 0, 0, 1.88918, -54.2667, 1.88931, -173.954, 1.9087, 65.9314, 0.0106481, -105.973
2, 540.00000, 119.799, -30.941, 119.963, -151.005, 120.234, 89.0119, 0, 0, 1.9003, -54.0148, 1.90317, -174.079, 1.90799, 65.938, 0.00834262, -100.274
2, 600.00000, 119.799, -30.941, 119.963, -151.005, 120.234, 89.0119, 0, 0, 1.90032, -54.0149, 1.9032, -174.079, 1.90798, 65.938, 0.00829549, -100.156
2, 660.00000, 119.799, -30.941, 119.963, -151.005, 120.234, 89.0119, 0, 0, 1.90032, -54.0149, 1.9032, -174.079, 1.90798, 65.938, 0.0082952, -100.155
