hour,t(sec),V1,VAngle1,V2,VAngle2,V3,VAngle3,V4,VAngle4,I1,IAngle1,I2,IAngle2,I3,IAngle3,I4,IAngle4
0, 60.00000, 121.592, -31.5383, 121.531, -151.735, 121.635, 88.4337, 0, 0, 8.99871, -54.612, 9.00318, -174.808, 8.99555, 65.36, 0.0260132, -79.7802
0, 120.00000, 121.592, -31.5383, 121.531, -151.735, 121.635, 88.4336, 0, 0, 8.99879, -54.6122, 9.00325, -174.809, 8.99561, 65.3597, 0.0259899, -79.7884
0, 180.00000, 121.592, -31.5383, 121.531, -151.735, 121.635, 88.4336, 0, 0, 8.99879, -54.6122, 9.00325, -174.809, 8.99561, 65.3597, 0.0259899, -79.7883
0, 240.00000, 121.592, -31.5383, 121.531, -151.735, 121.635, 88.4336, 0, 0, 8.99879, -54.6122, 9.00325, -174.809, 8.99561, 65.3597, 0.0259899, -79.7883
0, 300.00000, 121.592, -31.5383, 121.531, -151.735, 121.635, 88.4336, 0, 0, 8.99879, -54.6122, 9.00325, -174.809, 8.99561, 65.3597, 0.0259899, -79.7883
0, 360.00000, 121.592, -31.5383, 121.531, -151.735, 121.635, 88.4336, 0, 0, 8.99879, -54.6122, 9.00325, -174.809, 8.99561, 65.3597, 0.0259899, -79.7883
0, 420.00000, 121.592, -31.5383, 121.531, -151.735, 121.635, 88.4336, 0, 0, 8.99879, -54.6122, 9.00325, -174.809, 8.99561, 65.3597, 0.0259899, -79.7883
0, 480.00000, 122.278, -31.4134, 122.173, -151.617, 122.254, 88.5729, 0, 0, 8.08537, -54.4876, 8.09232, -174.691, 8.08692, 65.4986, 0.0293994, -75.7977
0, 540.00000, 122.278, -31.4134, 122.173, -151.617, 122.254, 88.5729, 0, 0, 8.08529, -54.4873, 8.09225, -174.691, 8.08687, 65.499, 0.029436, -75.8063
0, 600.00000, 122.278, -31.4134, 122.173, -151.617, 122.254, 88.5729, 0, 0, 8.08529, -54.4873, 8.09225, -174.691, 8.08687, 65.499, 0.0294362, -75.8065
0, 660.00000, 122.278, -31.4134, 122.173, -151.617, 122.254, 88.5729, 0, 0, 8.08529, -54.4873, 8.09225, -174.691, 8.08687, 65.499, 0.0294362, -75.8065
0, 720.00000, 122.278, -31.4134, 122.173, -151.617, 122.254, 88.5729, 0, 0, 8.08529, -54.4873, 8.09225, -174.691, 8.08687, 65.499, 0.0294362, -75.8065
0, 780.00000, 122.278, -31.4134, 122.173, -151.617, 122.254, 88.5729, 0, 0, 8.08529, -54.4873, 8.09225, -174.691, 8.08687, 65.499, 0.0294362, -75.8065
0, 840.00000, 122.278, -31.4134, 122.173, -151.617, 122.254, 88.5729, 0, 0, 8.08529, -54.4873, 8.09225, -174.691, 8.08687, 65.499, 0.0294362, -75.8065
0, 900.00000, 122.278, -31.4134, 122.173, -151.617, 122.254, 88.5729, 0, 0, 8.08529, -54.4873, 8.09225, -174.691, 8.08687, 65.499, 0.0294362, -75.8065
0, 960.00000, 121.949, -31.6083, 121.645, -151.587, 122.293, 88.5646, 0, 0, 8.10711, -54.6821, 8.12732, -174.661, 8.08428, 65.4907, 0.0538192, 16.747
0, 1020.00000, 121.949, -31.6083, 121.645, -151.587, 122.293, 88.5646, 0, 0, 8.10713, -54.6822, 8.12736, -174.661, 8.08427, 65.4907, 0.0538719, 16.7576
0, 1080.00000, 121.949, -31.6083, 121.645, -151.587, 122.293, 88.5646, 0, 0, 8.10713, -54.6822, 8.12736, -174.661, 8.08427, 65.4907, 0.053872, 16.7576
0, 1140.00000, 121.949, -31.6083, 121.645, -151.587, 122.293, 88.5646, 0, 0, 8.10713, -54.6822, 8.12736, -174.661, 8.08427, 65.4907, 0.053872, 16.7576
0, 1200.00000, 121.949, -31.6083, 121.645, -151.587, 122.293, 88.5646, 0, 0, 8.10713, -54.6822, 8.12736, -174.661, 8.08427, 65.4907, 0.053872, 16.7576
0, 1260.00000, 121.949, -31.6083, 121.645, -151.587, 122.293, 88.5646, 0, 0, 8.10713, -54.6822, 8.12736, -174.661, 8.08427, 65.4907, 0.053872, 16.7576
0, 1320.00000, 121.949, -31.6083, 121.645, -151.587, 122.293, 88.5646, 0, 0, 8.10713, -54.6822, 8.12736, -174.661, 8.08427, 65.4907, 0.053872, 16.7576
0, 1380.00000, 121.949, -31.6083, 121.645, -151.587, 122.293, 88.5646, 0, 0, 8.10713, -54.6822, 8.12736, -174.661, 8.08427, 65.4907, 0.053872, 16.7576
0, 1440.00000, 121.949, -31.6083, 121.645, -151.587, 122.293, 88.5646, 0, 0, 8.10713, -54.6822, 8.12736, -174.661, 8.08427, 65.4907, 0.053872, 16.7576
0, 1500.00000, 121.949, -31.6083, 121.645, -151.587, 122.293, 88.5646, 0, 0, 8.10713, -54.6822, 8.12736, -174.661, 8.08427, 65.4907, 0.053872, 16.7576
0, 1560.00000, 121.949, -31.6083, 121.645, -151.587, 122.293, 88.5646, 0, 0, 8.10713, -54.6822, 8.12736, -174.661, 8.08427, 65.4907, 0.053872, 16.7576
0, 1620.00000, 121.949, -31.6083, 121.645, -151.587, 122.293, 88.5646, 0, 0, 8.10713, -54.6822, 8.12736, -174.661, 8.08427, 65.4907, 0.053872, 16.7576
0, 1680.00000, 121.949, -31.6083, 121.645, -151.587, 122.293, 88.5646, 0, 0, 8.10713, -54.6822, 8.12736, -174.661, 8.08427, 65.4907, 0.053872, 16.7576
0, 1740.00000, 121.949, -31.6083, 121.645, -151.587, 122.293, 88.5646, 0, 0, 8.10713, -54.6822, 8.12736, -174.661, 8.08427, 65.4907, 0.053872, 16.7576
0, 1800.00000, 121.949, -31.6083, 121.645, -151.587, 122.293, 88.5646, 0, 0, 8.10713, -54.6822, 8.12736, -174.661, 8.08427, 65.4907, 0.053872, 16.7576
0, 1860.00000, 121.949, -31.6083, 121.645, -151.587, 122.293, 88.5646, 0, 0, 8.10713, -54.6822, 8.12736, -174.661, 8.08427, 65.4907, 0.053872, 16.7576
0, 1920.00000, 121.949, -31.6083, 121.645, -151.587, 122.293, 88.5646, 0, 0, 8.10713, -54.6822, 8.12736, -174.661, 8.08427, 65.4907, 0.053872, 16.7576
0, 1980.00000, 121.949, -31.6083, 121.645, -151.587, 122.293, 88.5646, 0, 0, 8.10713, -54.6822, 8.12736, -174.661, 8.08427, 65.4907, 0.053872, 16.7576
0, 2040.00000, 121.949, -31.6083, 121.645, -151.587, 122.293, 88.5646, 0, 0, 8.10713, -54.6822, 8.12736, -174.661, 8.08427, 65.4907, 0.053872, 16.7576
0, 2100.00000, 121.949, -31.6083, 121.645, -151.587, 122.293, 88.5646, 0, 0, 8.10713, -54.6822, 8.12736, -174.661, 8.08427, 65.4907, 0.053872, 16.7576
0, 2160.00000, 121.949, -31.6083, 121.645, -151.587, 122.293, 88.5646, 0, 0, 8.10713, -54.6822, 8.12736, -174.661, 8.08427, 65.4907, 0.053872, 16.7576
0, 2220.00000, 121.949, -31.6083, 121.645, -151.587, 122.293, 88.5646, 0, 0, 8.10713, -54.6822, 8.12736, -174.661, 8.08427, 65.4907, 0.053872, 16.7576
0, 2280.00000, 121.949, -31.6083, 121.645, -151.587, 122.293, 88.5646, 0, 0, 8.10713, -54.6822, 8.12736, -174.661, 8.08427, 65.4907, 0.053872, 16.7576
0, 2340.00000, 121.949, -31.6083, 121.645, -151.587, 122.293, 88.5646, 0, 0, 8.10713, -54.6822, 8.12736, -174.661, 8.08427, 65.4907, 0.053872, 16.7576
0, 2400.00000, 121.949, -31.6083, 121.645, -151.587, 122.293, 88.5646, 0, 0, 8.10713, -54.6822, 8.12736, -174.661, 8.08427, 65.4907, 0.053872, 16.7576
0, 2460.00000, 121.949, -31.6083, 121.645, -151.587, 122.293, 88.5646, 0, 0, 8.10713, -54.6822, 8.12736, -174.661, 8.08427, 65.4907, 0.053872, 16.7576
0, 2520.00000, 121.949, -31.6083, 121.645, -151.587, 122.293, 88.5646, 0, 0, 8.10713, -54.6822, 8.12736, -174.661, 8.08427, 65.4907, 0.053872, 16.7576
0, 2580.00000, 121.949, -31.6083, 121.645, -151.587, 122.293, 88.5646, 0, 0, 8.10713, -54.6822, 8.12736, -174.661, 8.08427, 65.4907, 0.053872, 16.7576
0, 2640.00000, 121.949, -31.6083, 121.645, -151.587, 122.293, 88.5646, 0, 0, 8.10713, -54.6822, 8.12736, -174.661, 8.08427, 65.4907, 0.053872, 16.7576
0, 2700.00000, 121.949, -31.6083, 121.645, -151.587, 122.293, 88.5646, 0, 0, 8.10713, -54.6822, 8.12736, -174.661, 8.08427, 65.4907, 0.053872, 16.7576
0, 2760.00000, 122.046, -31.4751, 121.949, -151.554, 122.289, 88.5661, 0, 0, 8.10066, -54.5491, 8.10714, -174.628, 8.08456, 65.4921, 0.0195623, 5.10074
0, 2820.00000, 122.046, -31.4751, 121.949, -151.554, 122.289, 88.5661, 0, 0, 8.10063, -54.549, 8.10708, -174.628, 8.08458, 65.4921, 0.0194895, 5.05688
0, 2880.00000, 122.046, -31.4751, 121.949, -151.554, 122.289, 88.5661, 0, 0, 8.10063, -54.549, 8.10708, -174.628, 8.08458, 65.4921, 0.0194891, 5.05659
0, 2940.00000, 122.046, -31.4751, 121.949, -151.554, 122.289, 88.5661, 0, 0, 8.10063, -54.549, 8.10708, -174.628, 8.08458, 65.4921, 0.0194891, 5.05658
0, 3000.00000, 122.046, -31.4751, 121.949, -151.554, 122.289, 88.5661, 0, 0, 8.10063, -54.549, 8.10708, -174.628, 8.08458, 65.4921, 0.0194891, 5.05658
0, 3060.00000, 122.046, -31.4751, 121.949, -151.554, 122.289, 88.5661, 0, 0, 8.10063, -54.549, 8.10708, -174.628, 8.08458, 65.4921, 0.0194891, 5.05658
0, 3120.00000, 122.046, -31.4751, 121.949, -151.554, 122.289, 88.5661, 0, 0, 8.10063, -54.549, 8.10708, -174.628, 8.08458, 65.4921, 0.0194891, 5.05658
0, 3180.00000, 122.046, -31.4751, 121.949, -151.554, 122.289, 88.5661, 0, 0, 8.10063, -54.549, 8.10708, -174.628, 8.08458, 65.4921, 0.0194891, 5.05658
0, 3240.00000, 122.046, -31.4751, 121.949, -151.554, 122.289, 88.5661, 0, 0, 8.10063, -54.549, 8.10708, -174.628, 8.08458, 65.4921, 0.0194891, 5.05658
0, 3300.00000, 122.046, -31.4751, 121.949, -151.554, 122.289, 88.5661, 0, 0, 8.10063, -54.549, 8.10708, -174.628, 8.08458, 65.4921, 0.0194891, 5.05658
0, 3360.00000, 122.046, -31.4751, 121.949, -151.554, 122.289, 88.5661, 0, 0, 8.10063, -54.549, 8.10708, -174.628, 8.08458, 65.4921, 0.0194891, 5.05658
0, 3420.00000, 122.046, -31.4751, 121.949, -151.554, 122.289, 88.5661, 0, 0, 8.10063, -54.549, 8.10708, -174.628, 8.08458, 65.4921, 0.0194891, 5.05658
0, 3480.00000, 122.046, -31.4751, 121.949, -151.554, 122.289, 88.5661, 0, 0, 8.10063, -54.549, 8.10708, -174.628, 8.08458, 65.4921, 0.0194891, 5.05658
0, 3540.00000, 122.046, -31.4751, 121.949, -151.554, 122.289, 88.5661, 0, 0, 8.10063, -54.549, 8.10708, -174.628, 8.08458, 65.4921, 0.0194891, 5.05658
1, 0.00000, 122.046, -31.4751, 121.949, -151.554, 122.289, 88.5661, 0, 0, 8.10063, -54.549, 8.10708, -174.628, 8.08458, 65.4921, 0.0194891, 5.05658
1, 60.00000, 122.342, -31.4411, 121.948, -151.553, 122.38, 88.6959, 0, 0, 8.08113, -54.5153, 8.10712, -174.627, 8.07859, 65.6219, 0.0498096, -22.4303
1, 120.00000, 122.342, -31.4411, 121.948, -151.553, 122.38, 88.696, 0, 0, 8.08106, -54.515, 8.10713, -174.627, 8.07857, 65.622, 0.0498757, -22.486
1, 180.00000, 122.342, -31.4411, 121.948, -151.553, 122.38, 88.696, 0, 0, 8.08106, -54.515, 8.10714, -174.627, 8.07857, 65.622, 0.049876, -22.4862
1, 240.00000, 122.342, -31.4411, 121.948, -151.553, 122.38, 88.696, 0, 0, 8.08106, -54.515, 8.10714, -174.627, 8.07857, 65.622, 0.049876, -22.4862
1, 300.00000, 122.342, -31.4411, 121.948, -151.553, 122.38, 88.696, 0, 0, 8.08106, -54.515, 8.10714, -174.627, 8.07857, 65.622, 0.049876, -22.4862
1, 360.00000, 122.342, -31.4411, 121.948, -151.553, 122.38, 88.696, 0, 0, 8.08106, -54.515, 8.10714, -174.627, 8.07857, 65.622, 0.049876, -22.4862
1, 420.00000, 122.342, -31.4411, 121.948, -151.553, 122.38, 88.696, 0, 0, 8.08106, -54.515, 8.10714, -174.627, 8.07857, 65.622, 0.049876, -22.4862
1, 480.00000, 122.342, -31.4411, 121.948, -151.553, 122.38, 88.696, 0, 0, 8.08106, -54.515, 8.10714, -174.627, 8.07857, 65.622, 0.049876, -22.4862
1, 540.00000, 122.342, -31.4411, 121.948, -151.553, 122.38, 88.696, 0, 0, 8.08106, -54.515, 8.10714, -174.627, 8.07857, 65.622, 0.049876, -22.4862
1, 600.00000, 122.342, -31.4411, 121.948, -151.553, 122.38, 88.696, 0, 0, 8.08106, -54.515, 8.10714, -174.627, 8.07857, 65.622, 0.049876, -22.4862
1, 660.00000, 122.342, -31.4411, 121.948, -151.553, 122.38, 88.696, 0, 0, 8.08106, -54.515, 8.10714, -174.627, 8.07857, 65.622, 0.049876, -22.4862
1, 720.00000, 122.342, -31.4411, 121.948, -151.553, 122.38, 88.696, 0, 0, 8.08106, -54.515, 8.10714, -174.627, 8.07857, 65.622, 0.049876, -22.4862
1, 780.00000, 122.342, -31.4411, 121.948, -151.553, 122.38, 88.696, 0, 0, 8.08106, -54.515, 8.10714, -174.627, 8.07857, 65.622, 0.049876, -22.4862
1, 840.00000, 122.342, -31.4411, 121.948, -151.553, 122.38, 88.696, 0, 0, 8.08106, -54.515, 8.10714, -174.627, 8.07857, 65.622, 0.049876, -22.4862
1, 900.00000, 122.342, -31.4411, 121.948, -151.553, 122.38, 88.696, 0, 0, 8.08106, -54.515, 8.10714, -174.627, 8.07857, 65.622, 0.049876, -22.4862
1, 960.00000, 122.342, -31.4411, 121.948, -151.553, 122.38, 88.696, 0, 0, 8.08106, -54.515, 8.10714, -174.627, 8.07857, 65.622, 0.049876, -22.4862
1, 1020.00000, 122.342, -31.4411, 121.948, -151.553, 122.38, 88.696, 0, 0, 8.08106, -54.515, 8.10714, -174.627, 8.07857, 65.622, 0.049876, -22.4862
1, 1080.00000, 122.342, -31.4411, 121.948, -151.553, 122.38, 88.696, 0, 0, 8.08106, -54.515, 8.10714, -174.627, 8.07857, 65.622, 0.049876, -22.4862
1, 1140.00000, 122.342, -31.4411, 121.948, -151.553, 122.38, 88.696, 0, 0, 8.08106, -54.515, 8.10714, -174.627, 8.07857, 65.622, 0.049876, -22.4862
1, 1200.00000, 122.342, -31.4411, 121.948, -151.553, 122.38, 88.696, 0, 0, 8.08106, -54.515, 8.10714, -174.627, 8.07857, 65.622, 0.049876, -22.4862
1, 1260.00000, 122.342, -31.4411, 121.948, -151.553, 122.38, 88.696, 0, 0, 8.08106, -54.515, 8.10714, -174.627, 8.07857, 65.622, 0.049876, -22.4862
1, 1320.00000, 122.342, -31.4411, 121.948, -151.553, 122.38, 88.696, 0, 0, 8.08106, -54.515, 8.10714, -174.627, 8.07857, 65.622, 0.049876, -22.4862
1, 1380.00000, 122.342, -31.4411, 121.948, -151.553, 122.38, 88.696, 0, 0, 8.08106, -54.515, 8.10714, -174.627, 8.07857, 65.622, 0.049876, -22.4862
1, 1440.00000, 122.342, -31.4411, 121.948, -151.553, 122.38, 88.696, 0, 0, 8.08106, -54.515, 8.10714, -174.627, 8.07857, 65.622, 0.049876, -22.4862
1, 1500.00000, 122.342, -31.4411, 121.948, -151.553, 122.38, 88.696, 0, 0, 8.08106, -54.515, 8.10714, -174.627, 8.07857, 65.622, 0.049876, -22.4862
1, 1560.00000, 122.342, -31.4411, 121.948, -151.553, 122.38, 88.696, 0, 0, 8.08106, -54.515, 8.10714, -174.627, 8.07857, 65.622, 0.049876, -22.4862
1, 1620.00000, 122.342, -31.4411, 121.948, -151.553, 122.38, 88.696, 0, 0, 8.08106, -54.515, 8.10714, -174.627, 8.07857, 65.622, 0.049876, -22.4862
1, 1680.00000, 122.342, -31.4411, 121.948, -151.553, 122.38, 88.696, 0, 0, 8.08106, -54.515, 8.10714, -174.627, 8.07857, 65.622, 0.049876, -22.4862
1, 1740.00000, 122.342, -31.4411, 121.948, -151.553, 122.38, 88.696, 0, 0, 8.08106, -54.515, 8.10714, -174.627, 8.07857, 65.622, 0.049876, -22.4862
1, 1800.00000, 122.342, -31.4411, 121.948, -151.553, 122.38, 88.696, 0, 0, 8.08106, -54.515, 8.10714, -174.627, 8.07857, 65.622, 0.049876, -22.4862
1, 1860.00000, 122.342, -31.4411, 121.948, -151.553, 122.38, 88.696, 0, 0, 8.08106, -54.515, 8.10714, -174.627, 8.07857, 65.622, 0.049876, -22.4862
1, 1920.00000, 122.342, -31.4411, 121.948, -151.553, 122.38, 88.696, 0, 0, 8.08106, -54.515, 8.10714, -174.627, 8.07857, 65.622, 0.049876, -22.4862
1, 1980.00000, 122.342, -31.4411, 121.948, -151.553, 122.38, 88.696, 0, 0, 8.08106, -54.515, 8.10714, -174.627, 8.07857, 65.622, 0.049876, -22.4862
1, 2040.00000, 122.342, -31.4411, 121.948, -151.553, 122.38, 88.696, 0, 0, 8.08106, -54.515, 8.10714, -174.627, 8.07857, 65.622, 0.049876, -22.4862
1, 2100.00000, 122.342, -31.4411, 121.948, -151.553, 122.38, 88.696, 0, 0, 8.08106, -54.515, 8.10714, -174.627, 8.07857, 65.622, 0.049876, -22.4862
1, 2160.00000, 122.342, -31.4411, 121.948, -151.553, 122.38, 88.696, 0, 0, 8.08106, -54.515, 8.10714, -174.627, 8.07857, 65.622, 0.049876, -22.4862
1, 2220.00000, 122.342, -31.4411, 121.948, -151.553, 122.38, 88.696, 0, 0, 8.08106, -54.515, 8.10714, -174.627, 8.07857, 65.622, 0.049876, -22.4862
1, 2280.00000, 122.342, -31.4411, 121.948, -151.553, 122.38, 88.696, 0, 0, 8.08106, -54.515, 8.10714, -174.627, 8.07857, 65.622, 0.049876, -22.4862
1, 2340.00000, 122.342, -31.4411, 121.948, -151.553, 122.38, 88.696, 0, 0, 8.08106, -54.515, 8.10714, -174.627, 8.07857, 65.622, 0.049876, -22.4862
1, 2400.00000, 122.342, -31.4411, 121.948, -151.553, 122.38, 88.696, 0, 0, 8.08106, -54.515, 8.10714, -174.627, 8.07857, 65.622, 0.049876, -22.4862
1, 2460.00000, 122.342, -31.4411, 121.948, -151.553, 122.38, 88.696, 0, 0, 8.08106, -54.515, 8.10714, -174.627, 8.07857, 65.622, 0.049876, -22.4862
1, 2520.00000, 122.342, -31.4411, 121.948, -151.553, 122.38, 88.696, 0, 0, 8.08106, -54.515, 8.10714, -174.627, 8.07857, 65.622, 0.049876, -22.4862
1, 2580.00000, 122.342, -31.4411, 121.948, -151.553, 122.38, 88.696, 0, 0, 8.08106, -54.515, 8.10714, -174.627, 8.07857, 65.622, 0.049876, -22.4862
1, 2640.00000, 122.342, -31.4411, 121.948, -151.553, 122.38, 88.696, 0, 0, 8.08106, -54.515, 8.10714, -174.627, 8.07857, 65.622, 0.049876, -22.4862
1, 2700.00000, 122.342, -31.4411, 121.948, -151.553, 122.38, 88.696, 0, 0, 8.08106, -54.515, 8.10714, -174.627, 8.07857, 65.622, 0.049876, -22.4862
1, 2760.00000, 122.342, -31.4411, 121.948, -151.553, 122.38, 88.696, 0, 0, 8.08106, -54.515, 8.10714, -174.627, 8.07857, 65.622, 0.049876, -22.4862
1, 2820.00000, 122.342, -31.4411, 121.948, -151.553, 122.38, 88.696, 0, 0, 8.08106, -54.515, 8.10714, -174.627, 8.07857, 65.622, 0.049876, -22.4862
1, 2880.00000, 122.342, -31.4411, 121.948, -151.553, 122.38, 88.696, 0, 0, 8.08106, -54.515, 8.10714, -174.627, 8.07857, 65.622, 0.049876, -22.4862
1, 2940.00000, 122.342, -31.4411, 121.948, -151.553, 122.38, 88.696, 0, 0, 8.08106, -54.515, 8.10714, -174.627, 8.07857, 65.622, 0.049876, -22.4862
1, 3000.00000, 122.342, -31.4411, 121.948, -151.553, 122.38, 88.696, 0, 0, 8.08106, -54.515, 8.10714, -174.627, 8.07857, 65.622, 0.049876, -22.4862
1, 3060.00000, 122.342, -31.4411, 121.948, -151.553, 122.38, 88.696, 0, 0, 8.08106, -54.515, 8.10714, -174.627, 8.07857, 65.622, 0.049876, -22.4862
1, 3120.00000, 122.342, -31.4411, 121.948, -151.553, 122.38, 88.696, 0, 0, 8.08106, -54.515, 8.10714, -174.627, 8.07857, 65.622, 0.049876, -22.4862
1, 3180.00000, 122.342, -31.4411, 121.948, -151.553, 122.38, 88.696, 0, 0, 8.08106, -54.515, 8.10714, -174.627, 8.07857, 65.622, 0.049876, -22.4862
1, 3240.00000, 122.342, -31.4411, 121.948, -151.553, 122.38, 88.696, 0, 0, 8.08106, -54.515, 8.10714, -174.627, 8.07857, 65.622, 0.049876, -22.4862
1, 3300.00000, 122.342, -31.4411, 121.948, -151.553, 122.38, 88.696, 0, 0, 8.08106, -54.515, 8.10714, -174.627, 8.07857, 65.622, 0.049876, -22.4862
1, 3360.00000, 122.342, -31.4411, 121.948, -151.553, 122.38, 88.696, 0, 0, 8.08106, -54.515, 8.10714, -174.627, 8.07857, 65.622, 0.049876, -22.4862
1, 3420.00000, 122.342, -31.4411, 121.948, -151.553, 122.38, 88.696, 0, 0, 8.08106, -54.515, 8.10714, -174.627, 8.07857, 65.622, 0.049876, -22.4862
1, 3480.00000, 122.342, -31.4411, 121.948, -151.553, 122.38, 88.696, 0, 0, 8.08106, -54.515, 8.10714, -174.627, 8.07857, 65.622, 0.049876, -22.4862
1, 3540.00000, 122.342, -31.4411, 121.948, -151.553, 122.38, 88.696, 0, 0, 8.08106, -54.515, 8.10714, -174.627, 8.07857, 65.622, 0.049876, -22.4862
2, 0.00000, 122.342, -31.4411, 121.948, -151.553, 122.38, 88.696, 0, 0, 8.08106, -54.515, 8.10714, -174.627, 8.07857, 65.622, 0.049876, -22.4862
2, 60.00000, 122.342, -31.4411, 121.948, -151.553, 122.38, 88.696, 0, 0, 8.08106, -54.515, 8.10714, -174.627, 8.07857, 65.622, 0.049876, -22.4862
2, 120.00000, 122.342, -31.4411, 121.948, -151.553, 122.38, 88.696, 0, 0, 8.08106, -54.515, 8.10714, -174.627, 8.07857, 65.622, 0.049876, -22.4862
2, 180.00000, 122.342, -31.4411, 121.948, -151.553, 122.38, 88.696, 0, 0, 8.08106, -54.515, 8.10714, -174.627, 8.07857, 65.622, 0.049876, -22.4862
2, 240.00000, 122.342, -31.4411, 121.948, -151.553, 122.38, 88.696, 0, 0, 8.08106, -54.515, 8.10714, -174.627, 8.07857, 65.622, 0.049876, -22.4862
2, 300.00000, 122.342, -31.4411, 121.948, -151.553, 122.38, 88.696, 0, 0, 8.08106, -54.515, 8.10714, -174.627, 8.07857, 65.622, 0.049876, -22.4862
2, 360.00000, 122.342, -31.4411, 121.948, -151.553, 122.38, 88.696, 0, 0, 8.08106, -54.515, 8.10714, -174.627, 8.07857, 65.622, 0.049876, -22.4862
2, 420.00000, 122.342, -31.4411, 121.948, -151.553, 122.38, 88.696, 0, 0, 8.08106, -54.515, 8.10714, -174.627, 8.07857, 65.622, 0.049876, -22.4862
2, 480.00000, 122.342, -31.4411, 121.948, -151.553, 122.38, 88.696, 0, 0, 8.08106, -54.515, 8.10714, -174.627, 8.07857, 65.622, 0.049876, -22.4862
2, 540.00000, 122.342, -31.4411, 121.948, -151.553, 122.38, 88.696, 0, 0, 8.08106, -54.515, 8.10714, -174.627, 8.07857, 65.622, 0.049876, -22.4862
2, 600.00000, 122.342, -31.4411, 121.948, -151.553, 122.38, 88.696, 0, 0, 8.08106, -54.515, 8.10714, -174.627, 8.07857, 65.622, 0.049876, -22.4862
2, 660.00000, 122.342, -31.4411, 121.948, -151.553, 122.38, 88.696, 0, 0, 8.08106, -54.515, 8.10714, -174.627, 8.07857, 65.622, 0.049876, -22.4862
2, 720.00000, 122.342, -31.4411, 121.948, -151.553, 122.38, 88.696, 0, 0, 8.08106, -54.515, 8.10714, -174.627, 8.07857, 65.622, 0.049876, -22.4862
2, 780.00000, 122.342, -31.4411, 121.948, -151.553, 122.38, 88.696, 0, 0, 8.08106, -54.515, 8.10714, -174.627, 8.07857, 65.622, 0.049876, -22.4862
