hour,t(sec),"P1 (kW)","Q1 (kvar)","P2 (kW)","Q2 (kvar)","P3 (kW)","Q3 (kvar)","P4 (kW)","Q4 (kvar)"
0, 60.00000, 0.583518, 0.248573, 0.590541, 0.251569, 0.597107, 0.254361, 0, 0
0, 120.00000, 0.583508, 0.248574, 0.590534, 0.251566, 0.597086, 0.254358, 0, 0
0, 180.00000, 0.583508, 0.248574, 0.590534, 0.251566, 0.597086, 0.254358, 0, 0
0, 240.00000, 0.583508, 0.248574, 0.590534, 0.251566, 0.597086, 0.254358, 0, 0
0, 300.00000, 0.583508, 0.248574, 0.590534, 0.251566, 0.597086, 0.254358, 0, 0
0, 360.00000, 0.583508, 0.248574, 0.590534, 0.251566, 0.597086, 0.254358, 0, 0
0, 420.00000, 0.583508, 0.248574, 0.590534, 0.251566, 0.597086, 0.254358, 0, 0
0, 480.00000, 0.583508, 0.248574, 0.590534, 0.251566, 0.597086, 0.254358, 0, 0
0, 540.00000, 0.583508, 0.248574, 0.590534, 0.251566, 0.597086, 0.254358, 0, 0
0, 600.00000, 0.583508, 0.248574, 0.590534, 0.251566, 0.597086, 0.254358, 0, 0
0, 660.00000, 0.583508, 0.248574, 0.590534, 0.251566, 0.597086, 0.254358, 0, 0
0, 720.00000, 0.583508, 0.248574, 0.590534, 0.251566, 0.597086, 0.254358, 0, 0
0, 780.00000, 0.583508, 0.248574, 0.590534, 0.251566, 0.597086, 0.254358, 0, 0
0, 840.00000, 0.583508, 0.248574, 0.590534, 0.251566, 0.597086, 0.254358, 0, 0
0, 900.00000, 0.583508, 0.248574, 0.590534, 0.251566, 0.597086, 0.254358, 0, 0
0, 960.00000, 0.604534, 0.257524, 0.610459, 0.260059, 0.629341, 0.268097, 0, 0
0, 1020.00000, 0.604521, 0.257525, 0.61045, 0.26005, 0.629339, 0.268097, 0, 0
0, 1080.00000, 0.604521, 0.257525, 0.610449, 0.26005, 0.629339, 0.268097, 0, 0
0, 1140.00000, 0.604521, 0.257525, 0.610449, 0.26005, 0.629339, 0.268097, 0, 0
0, 1200.00000, 0.604521, 0.257525, 0.610449, 0.26005, 0.629339, 0.268097, 0, 0
0, 1260.00000, 0.604521, 0.257525, 0.610449, 0.26005, 0.629339, 0.268097, 0, 0
0, 1320.00000, 0.604521, 0.257525, 0.610449, 0.26005, 0.629339, 0.268097, 0, 0
0, 1380.00000, 0.604521, 0.257525, 0.610449, 0.26005, 0.629339, 0.268097, 0, 0
0, 1440.00000, 0.604521, 0.257525, 0.610449, 0.26005, 0.629339, 0.268097, 0, 0
0, 1500.00000, 0.604521, 0.257525, 0.610449, 0.26005, 0.629339, 0.268097, 0, 0
0, 1560.00000, 0.604521, 0.257525, 0.610449, 0.26005, 0.629339, 0.268097, 0, 0
0, 1620.00000, 0.604521, 0.257525, 0.610449, 0.26005, 0.629339, 0.268097, 0, 0
0, 1680.00000, 0.604521, 0.257525, 0.610449, 0.26005, 0.629339, 0.268097, 0, 0
0, 1740.00000, 0.604521, 0.257525, 0.610449, 0.26005, 0.629339, 0.268097, 0, 0
0, 1800.00000, 0.604521, 0.257525, 0.610449, 0.26005, 0.629339, 0.268097, 0, 0
0, 1860.00000, 0.608888, 0.259387, 0.61477, 0.261897, 0.63373, 0.269987, 0, 0
0, 1920.00000, 0.608881, 0.259382, 0.614783, 0.261896, 0.633781, 0.26999, 0, 0
0, 1980.00000, 0.608881, 0.259382, 0.614783, 0.261896, 0.633781, 0.26999, 0, 0
0, 2040.00000, 0.608881, 0.259382, 0.614783, 0.261896, 0.633781, 0.26999, 0, 0
0, 2100.00000, 0.608881, 0.259382, 0.614783, 0.261896, 0.633781, 0.26999, 0, 0
0, 2160.00000, 0.608881, 0.259382, 0.614783, 0.261896, 0.633781, 0.26999, 0, 0
0, 2220.00000, 0.608881, 0.259382, 0.614783, 0.261896, 0.633781, 0.26999, 0, 0
0, 2280.00000, 0.608881, 0.259382, 0.614783, 0.261896, 0.633781, 0.26999, 0, 0
0, 2340.00000, 0.608881, 0.259382, 0.614783, 0.261896, 0.633781, 0.26999, 0, 0
0, 2400.00000, 0.608881, 0.259382, 0.614783, 0.261896, 0.633781, 0.26999, 0, 0
0, 2460.00000, 0.608881, 0.259382, 0.614783, 0.261896, 0.633781, 0.26999, 0, 0
0, 2520.00000, 0.608881, 0.259382, 0.614783, 0.261896, 0.633781, 0.26999, 0, 0
0, 2580.00000, 0.608881, 0.259382, 0.614783, 0.261896, 0.633781, 0.26999, 0, 0
0, 2640.00000, 0.608881, 0.259382, 0.614783, 0.261896, 0.633781, 0.26999, 0, 0
0, 2700.00000, 0.608881, 0.259382, 0.614783, 0.261896, 0.633781, 0.26999, 0, 0
0, 2760.00000, 0.582915, 0.248323, 0.588446, 0.250676, 0.606624, 0.258424, 0, 0
0, 2820.00000, 0.582917, 0.248322, 0.588447, 0.250677, 0.606638, 0.258427, 0, 0
0, 2880.00000, 0.582917, 0.248322, 0.588447, 0.250677, 0.606638, 0.258427, 0, 0
0, 2940.00000, 0.582917, 0.248322, 0.588447, 0.250677, 0.606638, 0.258427, 0, 0
0, 3000.00000, 0.582917, 0.248322, 0.588447, 0.250677, 0.606638, 0.258427, 0, 0
0, 3060.00000, 0.582917, 0.248322, 0.588447, 0.250677, 0.606638, 0.258427, 0, 0
0, 3120.00000, 0.582917, 0.248322, 0.588447, 0.250677, 0.606638, 0.258427, 0, 0
0, 3180.00000, 0.582917, 0.248322, 0.588447, 0.250677, 0.606638, 0.258427, 0, 0
0, 3240.00000, 0.582917, 0.248322, 0.588447, 0.250677, 0.606638, 0.258427, 0, 0
0, 3300.00000, 0.582917, 0.248322, 0.588447, 0.250677, 0.606638, 0.258427, 0, 0
0, 3360.00000, 0.582917, 0.248322, 0.588447, 0.250677, 0.606638, 0.258427, 0, 0
0, 3420.00000, 0.582917, 0.248322, 0.588447, 0.250677, 0.606638, 0.258427, 0, 0
0, 3480.00000, 0.582917, 0.248322, 0.588447, 0.250677, 0.606638, 0.258427, 0, 0
0, 3540.00000, 0.582917, 0.248322, 0.588447, 0.250677, 0.606638, 0.258427, 0, 0
1, 0.00000, 0.582917, 0.248322, 0.588447, 0.250677, 0.606638, 0.258427, 0, 0
1, 60.00000, 0.578948, 0.246634, 0.584318, 0.248916, 0.60241, 0.256629, 0, 0
1, 120.00000, 0.57895, 0.246632, 0.584318, 0.248918, 0.602426, 0.256633, 0, 0
1, 180.00000, 0.57895, 0.246631, 0.584318, 0.248918, 0.602426, 0.256633, 0, 0
1, 240.00000, 0.57895, 0.246631, 0.584318, 0.248918, 0.602426, 0.256633, 0, 0
1, 300.00000, 0.57895, 0.246631, 0.584318, 0.248918, 0.602426, 0.256633, 0, 0
1, 360.00000, 0.57895, 0.246631, 0.584318, 0.248918, 0.602426, 0.256633, 0, 0
1, 420.00000, 0.57895, 0.246631, 0.584318, 0.248918, 0.602426, 0.256633, 0, 0
1, 480.00000, 0.57895, 0.246631, 0.584318, 0.248918, 0.602426, 0.256633, 0, 0
1, 540.00000, 0.57895, 0.246631, 0.584318, 0.248918, 0.602426, 0.256633, 0, 0
1, 600.00000, 0.57895, 0.246631, 0.584318, 0.248918, 0.602426, 0.256633, 0, 0
1, 660.00000, 0.57895, 0.246631, 0.584318, 0.248918, 0.602426, 0.256633, 0, 0
1, 720.00000, 0.57895, 0.246631, 0.584318, 0.248918, 0.602426, 0.256633, 0, 0
1, 780.00000, 0.57895, 0.246631, 0.584318, 0.248918, 0.602426, 0.256633, 0, 0
1, 840.00000, 0.57895, 0.246631, 0.584318, 0.248918, 0.602426, 0.256633, 0, 0
1, 900.00000, 0.57895, 0.246631, 0.584318, 0.248918, 0.602426, 0.256633, 0, 0
1, 960.00000, 0.57665, 0.245655, 0.581975, 0.247919, 0.600013, 0.25561, 0, 0
1, 1020.00000, 0.576654, 0.245654, 0.581978, 0.247922, 0.600042, 0.255617, 0, 0
1, 1080.00000, 0.576654, 0.245654, 0.581978, 0.247922, 0.600043, 0.255617, 0, 0
1, 1140.00000, 0.576654, 0.245654, 0.581978, 0.247922, 0.600043, 0.255617, 0, 0
1, 1200.00000, 0.576654, 0.245654, 0.581978, 0.247922, 0.600043, 0.255617, 0, 0
1, 1260.00000, 0.576654, 0.245654, 0.581978, 0.247922, 0.600043, 0.255617, 0, 0
1, 1320.00000, 0.576654, 0.245654, 0.581978, 0.247922, 0.600043, 0.255617, 0, 0
1, 1380.00000, 0.576654, 0.245654, 0.581978, 0.247922, 0.600043, 0.255617, 0, 0
1, 1440.00000, 0.576654, 0.245654, 0.581978, 0.247922, 0.600043, 0.255617, 0, 0
1, 1500.00000, 0.576654, 0.245654, 0.581978, 0.247922, 0.600043, 0.255617, 0, 0
1, 1560.00000, 0.576654, 0.245654, 0.581978, 0.247922, 0.600043, 0.255617, 0, 0
1, 1620.00000, 0.576654, 0.245654, 0.581978, 0.247922, 0.600043, 0.255617, 0, 0
1, 1680.00000, 0.576654, 0.245654, 0.581978, 0.247922, 0.600043, 0.255617, 0, 0
1, 1740.00000, 0.576654, 0.245654, 0.581978, 0.247922, 0.600043, 0.255617, 0, 0
1, 1800.00000, 0.576654, 0.245654, 0.581978, 0.247922, 0.600043, 0.255617, 0, 0
1, 1860.00000, 0.58864, 0.250757, 0.594169, 0.253116, 0.612529, 0.260934, 0, 0
1, 1920.00000, 0.588638, 0.250759, 0.594169, 0.253115, 0.612517, 0.260931, 0, 0
1, 1980.00000, 0.588638, 0.250759, 0.594169, 0.253115, 0.612517, 0.260931, 0, 0
1, 2040.00000, 0.588638, 0.250759, 0.594169, 0.253115, 0.612517, 0.260931, 0, 0
1, 2100.00000, 0.588638, 0.250759, 0.594169, 0.253115, 0.612517, 0.260931, 0, 0
1, 2160.00000, 0.588638, 0.250759, 0.594169, 0.253115, 0.612517, 0.260931, 0, 0
1, 2220.00000, 0.588638, 0.250759, 0.594169, 0.253115, 0.612517, 0.260931, 0, 0
1, 2280.00000, 0.588638, 0.250759, 0.594169, 0.253115, 0.612517, 0.260931, 0, 0
1, 2340.00000, 0.588638, 0.250759, 0.594169, 0.253115, 0.612517, 0.260931, 0, 0
1, 2400.00000, 0.588638, 0.250759, 0.594169, 0.253115, 0.612517, 0.260931, 0, 0
1, 2460.00000, 0.588638, 0.250759, 0.594169, 0.253115, 0.612517, 0.260931, 0, 0
1, 2520.00000, 0.588638, 0.250759, 0.594169, 0.253115, 0.612517, 0.260931, 0, 0
1, 2580.00000, 0.588638, 0.250759, 0.594169, 0.253115, 0.612517, 0.260931, 0, 0
1, 2640.00000, 0.588638, 0.250759, 0.594169, 0.253115, 0.612517, 0.260931, 0, 0
1, 2700.00000, 0.588359, 0.250638, 0.590795, 0.251681, 0.606635, 0.25842, 0, 0
1, 2760.00000, 0.558942, 0.23811, 0.560992, 0.238982, 0.575987, 0.245371, 0, 0
1, 2820.00000, 0.558948, 0.238111, 0.560994, 0.238983, 0.575993, 0.245372, 0, 0
1, 2880.00000, 0.558948, 0.238111, 0.560994, 0.238983, 0.575994, 0.245372, 0, 0
1, 2940.00000, 0.558948, 0.238111, 0.560994, 0.238983, 0.575994, 0.245372, 0, 0
1, 3000.00000, 0.558948, 0.238111, 0.560994, 0.238983, 0.575994, 0.245372, 0, 0
1, 3060.00000, 0.558948, 0.238111, 0.560994, 0.238983, 0.575994, 0.245372, 0, 0
1, 3120.00000, 0.558948, 0.238111, 0.560994, 0.238983, 0.575994, 0.245372, 0, 0
1, 3180.00000, 0.558948, 0.238111, 0.560994, 0.238983, 0.575994, 0.245372, 0, 0
1, 3240.00000, 0.558948, 0.238111, 0.560994, 0.238983, 0.575994, 0.245372, 0, 0
1, 3300.00000, 0.558948, 0.238111, 0.560994, 0.238983, 0.575994, 0.245372, 0, 0
1, 3360.00000, 0.558948, 0.238111, 0.560994, 0.238983, 0.575994, 0.245372, 0, 0
1, 3420.00000, 0.558948, 0.238111, 0.560994, 0.238983, 0.575994, 0.245372, 0, 0
1, 3480.00000, 0.558948, 0.238111, 0.560994, 0.238983, 0.575994, 0.245372, 0, 0
1, 3540.00000, 0.558948, 0.238111, 0.560994, 0.238983, 0.575994, 0.245372, 0, 0
2, 0.00000, 0.558948, 0.238111, 0.560994, 0.238983, 0.575994, 0.245372, 0, 0
2, 60.00000, 0.571226, 0.24334, 0.573468, 0.244296, 0.588822, 0.250836, 0, 0
2, 120.00000, 0.571222, 0.24334, 0.573467, 0.244296, 0.588818, 0.250835, 0, 0
2, 180.00000, 0.571222, 0.24334, 0.573467, 0.244296, 0.588818, 0.250835, 0, 0
2, 240.00000, 0.571222, 0.24334, 0.573467, 0.244296, 0.588818, 0.250835, 0, 0
2, 300.00000, 0.571222, 0.24334, 0.573467, 0.244296, 0.588818, 0.250835, 0, 0
2, 360.00000, 0.571222, 0.24334, 0.573467, 0.244296, 0.588818, 0.250835, 0, 0
2, 420.00000, 0.571222, 0.24334, 0.573467, 0.244296, 0.588818, 0.250835, 0, 0
2, 480.00000, 0.571222, 0.24334, 0.573467, 0.244296, 0.588818, 0.250835, 0, 0
2, 540.00000, 0.580597, 0.247333, 0.584158, 0.248854, 0.588247, 0.250592, 0, 0
2, 600.00000, 0.580602, 0.247335, 0.584169, 0.248855, 0.588241, 0.25059, 0, 0
2, 660.00000, 0.580602, 0.247335, 0.584169, 0.248855, 0.588241, 0.25059, 0, 0
2, 720.00000, 0.580602, 0.247335, 0.584169, 0.248855, 0.588241, 0.25059, 0, 0
2, 780.00000, 0.580602, 0.247335, 0.584169, 0.248855, 0.588241, 0.25059, 0, 0
2, 840.00000, 0.580602, 0.247335, 0.584169, 0.248855, 0.588241, 0.25059, 0, 0
2, 900.00000, 0.580602, 0.247335, 0.584169, 0.248855, 0.588241, 0.25059, 0, 0
2, 960.00000, 0.553862, 0.235946, 0.557117, 0.237332, 0.560887, 0.238938, 0, 0
2, 1020.00000, 0.553867, 0.235946, 0.557121, 0.237333, 0.560891, 0.238939, 0, 0
2, 1080.00000, 0.553867, 0.235946, 0.557121, 0.237333, 0.560891, 0.238939, 0, 0
2, 1140.00000, 0.553867, 0.235946, 0.557121, 0.237333, 0.560891, 0.238939, 0, 0
2, 1200.00000, 0.553867, 0.235946, 0.557121, 0.237333, 0.560891, 0.238939, 0, 0
2, 1260.00000, 0.553867, 0.235946, 0.557121, 0.237333, 0.560891, 0.238939, 0, 0
2, 1320.00000, 0.553867, 0.235946, 0.557121, 0.237333, 0.560891, 0.238939, 0, 0
2, 1380.00000, 0.553867, 0.235946, 0.557121, 0.237333, 0.560891, 0.238939, 0, 0
2, 1440.00000, 0.553867, 0.235946, 0.557121, 0.237333, 0.560891, 0.238939, 0, 0
2, 1500.00000, 0.553867, 0.235946, 0.557121, 0.237333, 0.560891, 0.238939, 0, 0
2, 1560.00000, 0.553867, 0.235946, 0.557121, 0.237333, 0.560891, 0.238939, 0, 0
2, 1620.00000, 0.553867, 0.235946, 0.557121, 0.237333, 0.560891, 0.238939, 0, 0
2, 1680.00000, 0.553867, 0.235946, 0.557121, 0.237333, 0.560891, 0.238939, 0, 0
2, 1740.00000, 0.553867, 0.235946, 0.557121, 0.237333, 0.560891, 0.238939, 0, 0
2, 1800.00000, 0.553867, 0.235946, 0.557121, 0.237333, 0.560891, 0.238939, 0, 0
2, 1860.00000, 0.552043, 0.235161, 0.555342, 0.236569, 0.55915, 0.238187, 0, 0
2, 1920.00000, 0.552017, 0.235158, 0.555316, 0.236563, 0.559123, 0.238185, 0, 0
2, 1980.00000, 0.552017, 0.235158, 0.555315, 0.236563, 0.559123, 0.238185, 0, 0
2, 2040.00000, 0.552017, 0.235158, 0.555315, 0.236563, 0.559123, 0.238185, 0, 0
2, 2100.00000, 0.552017, 0.235158, 0.555315, 0.236563, 0.559123, 0.238185, 0, 0
2, 2160.00000, 0.552017, 0.235158, 0.555315, 0.236563, 0.559123, 0.238185, 0, 0
2, 2220.00000, 0.552017, 0.235158, 0.555315, 0.236563, 0.559123, 0.238185, 0, 0
2, 2280.00000, 0.552017, 0.235158, 0.555315, 0.236563, 0.559123, 0.238185, 0, 0
2, 2340.00000, 0.552017, 0.235158, 0.555315, 0.236563, 0.559123, 0.238185, 0, 0
2, 2400.00000, 0.552017, 0.235158, 0.555315, 0.236563, 0.559123, 0.238185, 0, 0
2, 2460.00000, 0.552017, 0.235158, 0.555315, 0.236563, 0.559123, 0.238185, 0, 0
2, 2520.00000, 0.552017, 0.235158, 0.555315, 0.236563, 0.559123, 0.238185, 0, 0
2, 2580.00000, 0.552017, 0.235158, 0.555315, 0.236563, 0.559123, 0.238185, 0, 0
2, 2640.00000, 0.552017, 0.235158, 0.555315, 0.236563, 0.559123, 0.238185, 0, 0
2, 2700.00000, 0.552017, 0.235158, 0.555315, 0.236563, 0.559123, 0.238185, 0, 0
2, 2760.00000, 0.532268, 0.226747, 0.535286, 0.228033, 0.538846, 0.229549, 0, 0
2, 2820.00000, 0.532276, 0.226749, 0.535291, 0.228033, 0.538854, 0.229551, 0, 0
2, 2880.00000, 0.532276, 0.226749, 0.535291, 0.228033, 0.538854, 0.229551, 0, 0
2, 2940.00000, 0.532276, 0.226749, 0.535291, 0.228033, 0.538854, 0.229551, 0, 0
2, 3000.00000, 0.532276, 0.226749, 0.535291, 0.228033, 0.538854, 0.229551, 0, 0
2, 3060.00000, 0.532276, 0.226749, 0.535291, 0.228033, 0.538854, 0.229551, 0, 0
2, 3120.00000, 0.532455, 0.226827, 0.538552, 0.229415, 0.544415, 0.231937, 0, 0
2, 3180.00000, 0.53244, 0.226818, 0.538581, 0.229435, 0.544481, 0.231948, 0, 0
2, 3240.00000, 0.532439, 0.226818, 0.538582, 0.229435, 0.544482, 0.231948, 0, 0
2, 3300.00000, 0.532439, 0.226818, 0.538582, 0.229435, 0.544482, 0.231948, 0, 0
2, 3360.00000, 0.532439, 0.226818, 0.538582, 0.229435, 0.544482, 0.231948, 0, 0
2, 3420.00000, 0.532439, 0.226818, 0.538582, 0.229435, 0.544482, 0.231948, 0, 0
2, 3480.00000, 0.532439, 0.226818, 0.538582, 0.229435, 0.544482, 0.231948, 0, 0
2, 3540.00000, 0.532439, 0.226818, 0.538582, 0.229435, 0.544482, 0.231948, 0, 0
3, 0.00000, 0.532439, 0.226818, 0.538582, 0.229435, 0.544482, 0.231948, 0, 0
3, 60.00000, 0.54419, 0.231822, 0.550469, 0.234499, 0.556527, 0.237076, 0, 0
3, 120.00000, 0.544189, 0.231823, 0.550461, 0.234495, 0.556512, 0.237073, 0, 0
3, 180.00000, 0.544189, 0.231823, 0.550461, 0.234495, 0.556512, 0.237073, 0, 0
3, 240.00000, 0.544189, 0.231823, 0.550461, 0.234495, 0.556512, 0.237073, 0, 0
3, 300.00000, 0.544189, 0.231823, 0.550461, 0.234495, 0.556512, 0.237073, 0, 0
3, 360.00000, 0.544189, 0.231823, 0.550461, 0.234495, 0.556512, 0.237073, 0, 0
3, 420.00000, 0.544189, 0.231823, 0.550461, 0.234495, 0.556512, 0.237073, 0, 0
3, 480.00000, 0.544189, 0.231823, 0.550461, 0.234495, 0.556512, 0.237073, 0, 0
3, 540.00000, 0.544189, 0.231823, 0.550461, 0.234495, 0.556512, 0.237073, 0, 0
3, 600.00000, 0.544189, 0.231823, 0.550461, 0.234495, 0.556512, 0.237073, 0, 0
3, 660.00000, 0.544189, 0.231823, 0.550461, 0.234495, 0.556512, 0.237073, 0, 0
3, 720.00000, 0.544189, 0.231823, 0.550461, 0.234495, 0.556512, 0.237073, 0, 0
3, 780.00000, 0.544189, 0.231823, 0.550461, 0.234495, 0.556512, 0.237073, 0, 0
3, 840.00000, 0.544189, 0.231823, 0.550461, 0.234495, 0.556512, 0.237073, 0, 0
3, 900.00000, 0.544189, 0.231823, 0.550461, 0.234495, 0.556512, 0.237073, 0, 0
3, 960.00000, 0.559327, 0.238276, 0.565763, 0.241014, 0.571988, 0.243673, 0, 0
3, 1020.00000, 0.559333, 0.238275, 0.565785, 0.241023, 0.572027, 0.243683, 0, 0
3, 1080.00000, 0.559333, 0.238275, 0.565785, 0.241024, 0.572027, 0.243683, 0, 0
3, 1140.00000, 0.559333, 0.238275, 0.565785, 0.241024, 0.572027, 0.243683, 0, 0
3, 1200.00000, 0.559333, 0.238275, 0.565785, 0.241024, 0.572027, 0.243683, 0, 0
3, 1260.00000, 0.559333, 0.238275, 0.565785, 0.241024, 0.572027, 0.243683, 0, 0
3, 1320.00000, 0.559333, 0.238275, 0.565785, 0.241024, 0.572027, 0.243683, 0, 0
3, 1380.00000, 0.559333, 0.238275, 0.565785, 0.241024, 0.572027, 0.243683, 0, 0
3, 1440.00000, 0.559333, 0.238275, 0.565785, 0.241024, 0.572027, 0.243683, 0, 0
3, 1500.00000, 0.559333, 0.238275, 0.565785, 0.241024, 0.572027, 0.243683, 0, 0
3, 1560.00000, 0.559333, 0.238275, 0.565785, 0.241024, 0.572027, 0.243683, 0, 0
3, 1620.00000, 0.559333, 0.238275, 0.565785, 0.241024, 0.572027, 0.243683, 0, 0
3, 1680.00000, 0.559333, 0.238275, 0.565785, 0.241024, 0.572027, 0.243683, 0, 0
3, 1740.00000, 0.559333, 0.238275, 0.565785, 0.241024, 0.572027, 0.243683, 0, 0
3, 1800.00000, 0.559333, 0.238275, 0.565785, 0.241024, 0.572027, 0.243683, 0, 0
3, 1860.00000, 0.566037, 0.241134, 0.572575, 0.243918, 0.5789, 0.246617, 0, 0
3, 1920.00000, 0.566043, 0.241133, 0.572591, 0.243923, 0.578921, 0.246619, 0, 0
3, 1980.00000, 0.566043, 0.241133, 0.572591, 0.243923, 0.578921, 0.246619, 0, 0
3, 2040.00000, 0.566043, 0.241133, 0.572591, 0.243923, 0.578921, 0.246619, 0, 0
3, 2100.00000, 0.566043, 0.241133, 0.572591, 0.243923, 0.578921, 0.246619, 0, 0
3, 2160.00000, 0.566043, 0.241133, 0.572591, 0.243923, 0.578921, 0.246619, 0, 0
3, 2220.00000, 0.566043, 0.241133, 0.572591, 0.243923, 0.578921, 0.246619, 0, 0
3, 2280.00000, 0.566043, 0.241133, 0.572591, 0.243923, 0.578921, 0.246619, 0, 0
3, 2340.00000, 0.566043, 0.241133, 0.572591, 0.243923, 0.578921, 0.246619, 0, 0
3, 2400.00000, 0.566043, 0.241133, 0.572591, 0.243923, 0.578921, 0.246619, 0, 0
3, 2460.00000, 0.566043, 0.241133, 0.572591, 0.243923, 0.578921, 0.246619, 0, 0
3, 2520.00000, 0.566043, 0.241133, 0.572591, 0.243923, 0.578921, 0.246619, 0, 0
3, 2580.00000, 0.566043, 0.241133, 0.572591, 0.243923, 0.578921, 0.246619, 0, 0
3, 2640.00000, 0.566043, 0.241133, 0.572591, 0.243923, 0.578921, 0.246619, 0, 0
3, 2700.00000, 0.566043, 0.241133, 0.572591, 0.243923, 0.578921, 0.246619, 0, 0
3, 2760.00000, 0.522004, 0.222376, 0.52801, 0.224931, 0.533187, 0.227143, 0, 0
3, 2820.00000, 0.52201, 0.222375, 0.528028, 0.224939, 0.533169, 0.227129, 0, 0
3, 2880.00000, 0.52201, 0.222375, 0.528028, 0.224939, 0.533169, 0.227129, 0, 0
3, 2940.00000, 0.52201, 0.222375, 0.528028, 0.224939, 0.533169, 0.227129, 0, 0
3, 3000.00000, 0.52201, 0.222375, 0.528028, 0.224939, 0.533169, 0.227129, 0, 0
3, 3060.00000, 0.52201, 0.222375, 0.528028, 0.224939, 0.533169, 0.227129, 0, 0
3, 3120.00000, 0.525992, 0.224084, 0.527936, 0.224898, 0.533187, 0.227135, 0, 0
3, 3180.00000, 0.526028, 0.224087, 0.527922, 0.224894, 0.533169, 0.227129, 0, 0
3, 3240.00000, 0.526028, 0.224087, 0.527922, 0.224894, 0.533169, 0.227129, 0, 0
3, 3300.00000, 0.526028, 0.224087, 0.527922, 0.224894, 0.533169, 0.227129, 0, 0
3, 3360.00000, 0.526028, 0.224087, 0.527922, 0.224894, 0.533169, 0.227129, 0, 0
3, 3420.00000, 0.526028, 0.224087, 0.527922, 0.224894, 0.533169, 0.227129, 0, 0
3, 3480.00000, 0.526028, 0.224087, 0.527922, 0.224894, 0.533169, 0.227129, 0, 0
3, 3540.00000, 0.526028, 0.224087, 0.527922, 0.224894, 0.533169, 0.227129, 0, 0
4, 0.00000, 0.526028, 0.224087, 0.527922, 0.224894, 0.533169, 0.227129, 0, 0
4, 60.00000, 0.559874, 0.238502, 0.562006, 0.239414, 0.570353, 0.242966, 0, 0
4, 120.00000, 0.559865, 0.238501, 0.561995, 0.239409, 0.570354, 0.24297, 0, 0
4, 180.00000, 0.559865, 0.238501, 0.561995, 0.239409, 0.570353, 0.242969, 0, 0
4, 240.00000, 0.559865, 0.238501, 0.561995, 0.239409, 0.570353, 0.242969, 0, 0
4, 300.00000, 0.559865, 0.238501, 0.561995, 0.239409, 0.570353, 0.242969, 0, 0
4, 360.00000, 0.559865, 0.238501, 0.561995, 0.239409, 0.570353, 0.242969, 0, 0
4, 420.00000, 0.559865, 0.238501, 0.561995, 0.239409, 0.570353, 0.242969, 0, 0
4, 480.00000, 0.559865, 0.238501, 0.561995, 0.239409, 0.570353, 0.242969, 0, 0
4, 540.00000, 0.559865, 0.238501, 0.561995, 0.239409, 0.570353, 0.242969, 0, 0
4, 600.00000, 0.559865, 0.238501, 0.561995, 0.239409, 0.570353, 0.242969, 0, 0
