hour,t(sec),V1,VAngle1,V2,VAngle2,V3,VAngle3,V4,VAngle4,I1,IAngle1,I2,IAngle2,I3,IAngle3,I4,IAngle4
0, 60.00000, 117.93, -31.5248, 117.507, -150.941, 119.393, 88.9753, 0, 0, 5.17297, -54.5983, 5.15236, -174.015, 5.24434, 65.9017, 0.0362119, -112.292
0, 120.00000, 117.93, -31.5248, 117.507, -150.941, 119.393, 88.9753, 0, 0, 5.17293, -54.5987, 5.15232, -174.015, 5.24424, 65.9014, 0.0361204, -112.311
0, 180.00000, 117.93, -31.5248, 117.507, -150.941, 119.393, 88.9753, 0, 0, 5.17293, -54.5987, 5.15232, -174.015, 5.24424, 65.9014, 0.03612, -112.311
0, 240.00000, 117.93, -31.5248, 117.507, -150.941, 119.393, 88.9753, 0, 0, 5.17293, -54.5987, 5.15232, -174.015, 5.24424, 65.9014, 0.03612, -112.311
0, 300.00000, 117.93, -31.5248, 117.507, -150.941, 119.393, 88.9753, 0, 0, 5.17293, -54.5987, 5.15232, -174.015, 5.24424, 65.9014, 0.03612, -112.311
0, 360.00000, 117.93, -31.5248, 117.507, -150.941, 119.393, 88.9753, 0, 0, 5.17293, -54.5987, 5.15232, -174.015, 5.24424, 65.9014, 0.03612, -112.311
0, 420.00000, 117.93, -31.5248, 117.507, -150.941, 119.393, 88.9753, 0, 0, 5.17293, -54.5987, 5.15232, -174.015, 5.24424, 65.9014, 0.03612, -112.311
0, 480.00000, 118.917, -31.4283, 118.446, -150.853, 120.363, 89.0891, 0, 0, 4.54231, -54.503, 4.52231, -173.926, 4.60343, 66.0146, 0.0316586, -112.117
0, 540.00000, 118.917, -31.4282, 118.446, -150.853, 120.363, 89.0892, 0, 0, 4.54233, -54.5022, 4.52234, -173.927, 4.60364, 66.0153, 0.0319303, -112.061
0, 600.00000, 118.917, -31.4282, 118.446, -150.853, 120.363, 89.0892, 0, 0, 4.54233, -54.5022, 4.52234, -173.927, 4.60365, 66.0153, 0.0319343, -112.06
0, 660.00000, 118.917, -31.4282, 118.446, -150.853, 120.363, 89.0892, 0, 0, 4.54233, -54.5022, 4.52234, -173.927, 4.60365, 66.0153, 0.0319344, -112.06
0, 720.00000, 118.917, -31.4282, 118.446, -150.853, 120.363, 89.0892, 0, 0, 4.54233, -54.5022, 4.52234, -173.927, 4.60365, 66.0153, 0.0319344, -112.06
0, 780.00000, 118.917, -31.4282, 118.446, -150.853, 120.363, 89.0892, 0, 0, 4.54233, -54.5022, 4.52234, -173.927, 4.60365, 66.0153, 0.0319344, -112.06
0, 840.00000, 118.917, -31.4282, 118.446, -150.853, 120.363, 89.0892, 0, 0, 4.54233, -54.5022, 4.52234, -173.927, 4.60365, 66.0153, 0.0319344, -112.06
0, 900.00000, 118.917, -31.4282, 118.446, -150.853, 120.363, 89.0892, 0, 0, 4.54233, -54.5022, 4.52234, -173.927, 4.60365, 66.0153, 0.0319344, -112.06
0, 960.00000, 118.917, -31.4282, 118.446, -150.853, 120.363, 89.0892, 0, 0, 4.54233, -54.5022, 4.52234, -173.927, 4.60365, 66.0153, 0.0319344, -112.06
0, 1020.00000, 118.917, -31.4282, 118.446, -150.853, 120.363, 89.0892, 0, 0, 4.54233, -54.5022, 4.52234, -173.927, 4.60365, 66.0153, 0.0319344, -112.06
0, 1080.00000, 118.917, -31.4282, 118.446, -150.853, 120.363, 89.0892, 0, 0, 4.54233, -54.5022, 4.52234, -173.927, 4.60365, 66.0153, 0.0319344, -112.06
0, 1140.00000, 118.917, -31.4282, 118.446, -150.853, 120.363, 89.0892, 0, 0, 4.54233, -54.5022, 4.52234, -173.927, 4.60365, 66.0153, 0.0319344, -112.06
0, 1200.00000, 118.917, -31.4282, 118.446, -150.853, 120.363, 89.0892, 0, 0, 4.54233, -54.5022, 4.52234, -173.927, 4.60365, 66.0153, 0.0319344, -112.06
0, 1260.00000, 118.917, -31.4282, 118.446, -150.853, 120.363, 89.0892, 0, 0, 4.54233, -54.5022, 4.52234, -173.927, 4.60365, 66.0153, 0.0319344, -112.06
0, 1320.00000, 118.917, -31.4282, 118.446, -150.853, 120.363, 89.0892, 0, 0, 4.54233, -54.5022, 4.52234, -173.927, 4.60365, 66.0153, 0.0319344, -112.06
0, 1380.00000, 118.917, -31.4282, 118.446, -150.853, 120.363, 89.0892, 0, 0, 4.54233, -54.5022, 4.52234, -173.927, 4.60365, 66.0153, 0.0319344, -112.06
0, 1440.00000, 118.917, -31.4282, 118.446, -150.853, 120.363, 89.0892, 0, 0, 4.54233, -54.5022, 4.52234, -173.927, 4.60365, 66.0153, 0.0319344, -112.06
0, 1500.00000, 118.917, -31.4282, 118.446, -150.853, 120.363, 89.0892, 0, 0, 4.54233, -54.5022, 4.52234, -173.927, 4.60365, 66.0153, 0.0319344, -112.06
0, 1560.00000, 118.917, -31.4282, 118.446, -150.853, 120.363, 89.0892, 0, 0, 4.54233, -54.5022, 4.52234, -173.927, 4.60365, 66.0153, 0.0319344, -112.06
0, 1620.00000, 118.917, -31.4282, 118.446, -150.853, 120.363, 89.0892, 0, 0, 4.54233, -54.5022, 4.52234, -173.927, 4.60365, 66.0153, 0.0319344, -112.06
0, 1680.00000, 118.917, -31.4282, 118.446, -150.853, 120.363, 89.0892, 0, 0, 4.54233, -54.5022, 4.52234, -173.927, 4.60365, 66.0153, 0.0319344, -112.06
0, 1740.00000, 118.917, -31.4282, 118.446, -150.853, 120.363, 89.0892, 0, 0, 4.54233, -54.5022, 4.52234, -173.927, 4.60365, 66.0153, 0.0319344, -112.06
0, 1800.00000, 118.917, -31.4282, 118.446, -150.853, 120.363, 89.0892, 0, 0, 4.54233, -54.5022, 4.52234, -173.927, 4.60365, 66.0153, 0.0319344, -112.06
0, 1860.00000, 118.917, -31.4282, 118.446, -150.853, 120.363, 89.0892, 0, 0, 4.54233, -54.5022, 4.52234, -173.927, 4.60365, 66.0153, 0.0319344, -112.06
0, 1920.00000, 118.917, -31.4282, 118.446, -150.853, 120.363, 89.0892, 0, 0, 4.54233, -54.5022, 4.52234, -173.927, 4.60365, 66.0153, 0.0319344, -112.06
0, 1980.00000, 118.917, -31.4282, 118.446, -150.853, 120.363, 89.0892, 0, 0, 4.54233, -54.5022, 4.52234, -173.927, 4.60365, 66.0153, 0.0319344, -112.06
0, 2040.00000, 118.917, -31.4282, 118.446, -150.853, 120.363, 89.0892, 0, 0, 4.54233, -54.5022, 4.52234, -173.927, 4.60365, 66.0153, 0.0319344, -112.06
0, 2100.00000, 118.917, -31.4282, 118.446, -150.853, 120.363, 89.0892, 0, 0, 4.54233, -54.5022, 4.52234, -173.927, 4.60365, 66.0153, 0.0319344, -112.06
0, 2160.00000, 118.917, -31.4282, 118.446, -150.853, 120.363, 89.0892, 0, 0, 4.54233, -54.5022, 4.52234, -173.927, 4.60365, 66.0153, 0.0319344, -112.06
0, 2220.00000, 118.917, -31.4282, 118.446, -150.853, 120.363, 89.0892, 0, 0, 4.54233, -54.5022, 4.52234, -173.927, 4.60365, 66.0153, 0.0319344, -112.06
0, 2280.00000, 118.917, -31.4282, 118.446, -150.853, 120.363, 89.0892, 0, 0, 4.54233, -54.5022, 4.52234, -173.927, 4.60365, 66.0153, 0.0319344, -112.06
0, 2340.00000, 118.917, -31.4282, 118.446, -150.853, 120.363, 89.0892, 0, 0, 4.54233, -54.5022, 4.52234, -173.927, 4.60365, 66.0153, 0.0319344, -112.06
0, 2400.00000, 118.917, -31.4282, 118.446, -150.853, 120.363, 89.0892, 0, 0, 4.54233, -54.5022, 4.52234, -173.927, 4.60365, 66.0153, 0.0319344, -112.06
0, 2460.00000, 118.917, -31.4282, 118.446, -150.853, 120.363, 89.0892, 0, 0, 4.54233, -54.5022, 4.52234, -173.927, 4.60365, 66.0153, 0.0319344, -112.06
0, 2520.00000, 118.917, -31.4282, 118.446, -150.853, 120.363, 89.0892, 0, 0, 4.54233, -54.5022, 4.52234, -173.927, 4.60365, 66.0153, 0.0319344, -112.06
0, 2580.00000, 118.917, -31.4282, 118.446, -150.853, 120.363, 89.0892, 0, 0, 4.54233, -54.5022, 4.52234, -173.927, 4.60365, 66.0153, 0.0319344, -112.06
0, 2640.00000, 118.917, -31.4282, 118.446, -150.853, 120.363, 89.0892, 0, 0, 4.54233, -54.5022, 4.52234, -173.927, 4.60365, 66.0153, 0.0319344, -112.06
0, 2700.00000, 118.917, -31.4282, 118.446, -150.853, 120.363, 89.0892, 0, 0, 4.54233, -54.5022, 4.52234, -173.927, 4.60365, 66.0153, 0.0319344, -112.06
0, 2760.00000, 118.917, -31.4282, 118.446, -150.853, 120.363, 89.0892, 0, 0, 4.54233, -54.5022, 4.52234, -173.927, 4.60365, 66.0153, 0.0319344, -112.06
0, 2820.00000, 118.917, -31.4282, 118.446, -150.853, 120.363, 89.0892, 0, 0, 4.54233, -54.5022, 4.52234, -173.927, 4.60365, 66.0153, 0.0319344, -112.06
0, 2880.00000, 118.917, -31.4282, 118.446, -150.853, 120.363, 89.0892, 0, 0, 4.54233, -54.5022, 4.52234, -173.927, 4.60365, 66.0153, 0.0319344, -112.06
0, 2940.00000, 118.917, -31.4282, 118.446, -150.853, 120.363, 89.0892, 0, 0, 4.54233, -54.5022, 4.52234, -173.927, 4.60365, 66.0153, 0.0319344, -112.06
0, 3000.00000, 118.917, -31.4282, 118.446, -150.853, 120.363, 89.0892, 0, 0, 4.54233, -54.5022, 4.52234, -173.927, 4.60365, 66.0153, 0.0319344, -112.06
0, 3060.00000, 118.917, -31.4282, 118.446, -150.853, 120.363, 89.0892, 0, 0, 4.54233, -54.5022, 4.52234, -173.927, 4.60365, 66.0153, 0.0319344, -112.06
0, 3120.00000, 118.917, -31.4282, 118.446, -150.853, 120.363, 89.0892, 0, 0, 4.54233, -54.5022, 4.52234, -173.927, 4.60365, 66.0153, 0.0319344, -112.06
0, 3180.00000, 118.917, -31.4282, 118.446, -150.853, 120.363, 89.0892, 0, 0, 4.54233, -54.5022, 4.52234, -173.927, 4.60365, 66.0153, 0.0319344, -112.06
0, 3240.00000, 118.917, -31.4282, 118.446, -150.853, 120.363, 89.0892, 0, 0, 4.54233, -54.5022, 4.52234, -173.927, 4.60365, 66.0153, 0.0319344, -112.06
0, 3300.00000, 118.917, -31.4282, 118.446, -150.853, 120.363, 89.0892, 0, 0, 4.54233, -54.5022, 4.52234, -173.927, 4.60365, 66.0153, 0.0319344, -112.06
0, 3360.00000, 118.917, -31.4282, 118.446, -150.853, 120.363, 89.0892, 0, 0, 4.54233, -54.5022, 4.52234, -173.927, 4.60365, 66.0153, 0.0319344, -112.06
0, 3420.00000, 118.917, -31.4282, 118.446, -150.853, 120.363, 89.0892, 0, 0, 4.54233, -54.5022, 4.52234, -173.927, 4.60365, 66.0153, 0.0319344, -112.06
0, 3480.00000, 118.917, -31.4282, 118.446, -150.853, 120.363, 89.0892, 0, 0, 4.54233, -54.5022, 4.52234, -173.927, 4.60365, 66.0153, 0.0319344, -112.06
0, 3540.00000, 118.917, -31.4282, 118.446, -150.853, 120.363, 89.0892, 0, 0, 4.54233, -54.5022, 4.52234, -173.927, 4.60365, 66.0153, 0.0319344, -112.06
1, 0.00000, 118.917, -31.4282, 118.446, -150.853, 120.363, 89.0892, 0, 0, 4.54233, -54.5022, 4.52234, -173.927, 4.60365, 66.0153, 0.0319344, -112.06
1, 60.00000, 119.025, -31.2922, 118.754, -150.826, 120.358, 89.0907, 0, 0, 4.5469, -54.3662, 4.53536, -173.9, 4.60346, 66.0168, 0.0304185, -110.232
1, 120.00000, 119.025, -31.2922, 118.754, -150.826, 120.358, 89.0907, 0, 0, 4.54692, -54.3661, 4.53541, -173.9, 4.60345, 66.0168, 0.0303563, -110.215
1, 180.00000, 119.025, -31.2922, 118.754, -150.826, 120.358, 89.0907, 0, 0, 4.54692, -54.3661, 4.53541, -173.9, 4.60345, 66.0168, 0.0303557, -110.215
1, 240.00000, 119.025, -31.2922, 118.754, -150.826, 120.358, 89.0907, 0, 0, 4.54692, -54.3661, 4.53541, -173.9, 4.60345, 66.0168, 0.0303557, -110.215
1, 300.00000, 119.025, -31.2922, 118.754, -150.826, 120.358, 89.0907, 0, 0, 4.54692, -54.3661, 4.53541, -173.9, 4.60345, 66.0168, 0.0303557, -110.215
1, 360.00000, 119.025, -31.2922, 118.754, -150.826, 120.358, 89.0907, 0, 0, 4.54692, -54.3661, 4.53541, -173.9, 4.60345, 66.0168, 0.0303557, -110.215
1, 420.00000, 119.025, -31.2922, 118.754, -150.826, 120.358, 89.0907, 0, 0, 4.54692, -54.3661, 4.53541, -173.9, 4.60345, 66.0168, 0.0303557, -110.215
1, 480.00000, 119.025, -31.2922, 118.754, -150.826, 120.358, 89.0907, 0, 0, 4.54692, -54.3661, 4.53541, -173.9, 4.60345, 66.0168, 0.0303557, -110.215
1, 540.00000, 119.025, -31.2922, 118.754, -150.826, 120.358, 89.0907, 0, 0, 4.54692, -54.3661, 4.53541, -173.9, 4.60345, 66.0168, 0.0303557, -110.215
1, 600.00000, 119.025, -31.2922, 118.754, -150.826, 120.358, 89.0907, 0, 0, 4.54692, -54.3661, 4.53541, -173.9, 4.60345, 66.0168, 0.0303557, -110.215
1, 660.00000, 119.025, -31.2922, 118.754, -150.826, 120.358, 89.0907, 0, 0, 4.54692, -54.3661, 4.53541, -173.9, 4.60345, 66.0168, 0.0303557, -110.215
1, 720.00000, 119.025, -31.2922, 118.754, -150.826, 120.358, 89.0907, 0, 0, 4.54692, -54.3661, 4.53541, -173.9, 4.60345, 66.0168, 0.0303557, -110.215
1, 780.00000, 119.025, -31.2922, 118.754, -150.826, 120.358, 89.0907, 0, 0, 4.54692, -54.3661, 4.53541, -173.9, 4.60345, 66.0168, 0.0303557, -110.215
1, 840.00000, 119.025, -31.2922, 118.754, -150.826, 120.358, 89.0907, 0, 0, 4.54692, -54.3661, 4.53541, -173.9, 4.60345, 66.0168, 0.0303557, -110.215
1, 900.00000, 119.025, -31.2922, 118.754, -150.826, 120.358, 89.0907, 0, 0, 4.54692, -54.3661, 4.53541, -173.9, 4.60345, 66.0168, 0.0303557, -110.215
1, 960.00000, 119.025, -31.2922, 118.754, -150.826, 120.358, 89.0907, 0, 0, 4.54692, -54.3661, 4.53541, -173.9, 4.60345, 66.0168, 0.0303557, -110.215
1, 1020.00000, 119.025, -31.2922, 118.754, -150.826, 120.358, 89.0907, 0, 0, 4.54692, -54.3661, 4.53541, -173.9, 4.60345, 66.0168, 0.0303557, -110.215
1, 1080.00000, 119.025, -31.2922, 118.754, -150.826, 120.358, 89.0907, 0, 0, 4.54692, -54.3661, 4.53541, -173.9, 4.60345, 66.0168, 0.0303557, -110.215
1, 1140.00000, 119.025, -31.2922, 118.754, -150.826, 120.358, 89.0907, 0, 0, 4.54692, -54.3661, 4.53541, -173.9, 4.60345, 66.0168, 0.0303557, -110.215
1, 1200.00000, 119.025, -31.2922, 118.754, -150.826, 120.358, 89.0907, 0, 0, 4.54692, -54.3661, 4.53541, -173.9, 4.60345, 66.0168, 0.0303557, -110.215
1, 1260.00000, 119.025, -31.2922, 118.754, -150.826, 120.358, 89.0907, 0, 0, 4.54692, -54.3661, 4.53541, -173.9, 4.60345, 66.0168, 0.0303557, -110.215
1, 1320.00000, 119.025, -31.2922, 118.754, -150.826, 120.358, 89.0907, 0, 0, 4.54692, -54.3661, 4.53541, -173.9, 4.60345, 66.0168, 0.0303557, -110.215
1, 1380.00000, 119.025, -31.2922, 118.754, -150.826, 120.358, 89.0907, 0, 0, 4.54692, -54.3661, 4.53541, -173.9, 4.60345, 66.0168, 0.0303557, -110.215
1, 1440.00000, 119.025, -31.2922, 118.754, -150.826, 120.358, 89.0907, 0, 0, 4.54692, -54.3661, 4.53541, -173.9, 4.60345, 66.0168, 0.0303557, -110.215
1, 1500.00000, 119.025, -31.2922, 118.754, -150.826, 120.358, 89.0907, 0, 0, 4.54692, -54.3661, 4.53541, -173.9, 4.60345, 66.0168, 0.0303557, -110.215
1, 1560.00000, 119.025, -31.2922, 118.754, -150.826, 120.358, 89.0907, 0, 0, 4.54692, -54.3661, 4.53541, -173.9, 4.60345, 66.0168, 0.0303557, -110.215
1, 1620.00000, 119.025, -31.2922, 118.754, -150.826, 120.358, 89.0907, 0, 0, 4.54692, -54.3661, 4.53541, -173.9, 4.60345, 66.0168, 0.0303557, -110.215
1, 1680.00000, 119.025, -31.2922, 118.754, -150.826, 120.358, 89.0907, 0, 0, 4.54692, -54.3661, 4.53541, -173.9, 4.60345, 66.0168, 0.0303557, -110.215
1, 1740.00000, 119.025, -31.2922, 118.754, -150.826, 120.358, 89.0907, 0, 0, 4.54692, -54.3661, 4.53541, -173.9, 4.60345, 66.0168, 0.0303557, -110.215
1, 1800.00000, 119.025, -31.2922, 118.754, -150.826, 120.358, 89.0907, 0, 0, 4.54692, -54.3661, 4.53541, -173.9, 4.60345, 66.0168, 0.0303557, -110.215
1, 1860.00000, 119.025, -31.2922, 118.754, -150.826, 120.358, 89.0907, 0, 0, 4.54692, -54.3661, 4.53541, -173.9, 4.60345, 66.0168, 0.0303557, -110.215
1, 1920.00000, 119.025, -31.2922, 118.754, -150.826, 120.358, 89.0907, 0, 0, 4.54692, -54.3661, 4.53541, -173.9, 4.60345, 66.0168, 0.0303557, -110.215
1, 1980.00000, 119.025, -31.2922, 118.754, -150.826, 120.358, 89.0907, 0, 0, 4.54692, -54.3661, 4.53541, -173.9, 4.60345, 66.0168, 0.0303557, -110.215
1, 2040.00000, 119.025, -31.2922, 118.754, -150.826, 120.358, 89.0907, 0, 0, 4.54692, -54.3661, 4.53541, -173.9, 4.60345, 66.0168, 0.0303557, -110.215
1, 2100.00000, 119.025, -31.2922, 118.754, -150.826, 120.358, 89.0907, 0, 0, 4.54692, -54.3661, 4.53541, -173.9, 4.60345, 66.0168, 0.0303557, -110.215
1, 2160.00000, 119.025, -31.2922, 118.754, -150.826, 120.358, 89.0907, 0, 0, 4.54692, -54.3661, 4.53541, -173.9, 4.60345, 66.0168, 0.0303557, -110.215
1, 2220.00000, 119.025, -31.2922, 118.754, -150.826, 120.358, 89.0907, 0, 0, 4.54692, -54.3661, 4.53541, -173.9, 4.60345, 66.0168, 0.0303557, -110.215
1, 2280.00000, 119.025, -31.2922, 118.754, -150.826, 120.358, 89.0907, 0, 0, 4.54692, -54.3661, 4.53541, -173.9, 4.60345, 66.0168, 0.0303557, -110.215
1, 2340.00000, 119.025, -31.2922, 118.754, -150.826, 120.358, 89.0907, 0, 0, 4.54692, -54.3661, 4.53541, -173.9, 4.60345, 66.0168, 0.0303557, -110.215
1, 2400.00000, 119.025, -31.2922, 118.754, -150.826, 120.358, 89.0907, 0, 0, 4.54692, -54.3661, 4.53541, -173.9, 4.60345, 66.0168, 0.0303557, -110.215
1, 2460.00000, 119.025, -31.2922, 118.754, -150.826, 120.358, 89.0907, 0, 0, 4.54692, -54.3661, 4.53541, -173.9, 4.60345, 66.0168, 0.0303557, -110.215
1, 2520.00000, 119.025, -31.2922, 118.754, -150.826, 120.358, 89.0907, 0, 0, 4.54692, -54.3661, 4.53541, -173.9, 4.60345, 66.0168, 0.0303557, -110.215
1, 2580.00000, 119.025, -31.2922, 118.754, -150.826, 120.358, 89.0907, 0, 0, 4.54692, -54.3661, 4.53541, -173.9, 4.60345, 66.0168, 0.0303557, -110.215
1, 2640.00000, 119.025, -31.2922, 118.754, -150.826, 120.358, 89.0907, 0, 0, 4.54692, -54.3661, 4.53541, -173.9, 4.60345, 66.0168, 0.0303557, -110.215
1, 2700.00000, 119.025, -31.2922, 118.754, -150.826, 120.358, 89.0907, 0, 0, 4.54692, -54.3661, 4.53541, -173.9, 4.60345, 66.0168, 0.0303557, -110.215
1, 2760.00000, 119.025, -31.2922, 118.754, -150.826, 120.358, 89.0907, 0, 0, 4.54692, -54.3661, 4.53541, -173.9, 4.60345, 66.0168, 0.0303557, -110.215
1, 2820.00000, 119.025, -31.2922, 118.754, -150.826, 120.358, 89.0907, 0, 0, 4.54692, -54.3661, 4.53541, -173.9, 4.60345, 66.0168, 0.0303557, -110.215
1, 2880.00000, 119.025, -31.2922, 118.754, -150.826, 120.358, 89.0907, 0, 0, 4.54692, -54.3661, 4.53541, -173.9, 4.60345, 66.0168, 0.0303557, -110.215
1, 2940.00000, 119.025, -31.2922, 118.754, -150.826, 120.358, 89.0907, 0, 0, 4.54692, -54.3661, 4.53541, -173.9, 4.60345, 66.0168, 0.0303557, -110.215
1, 3000.00000, 119.025, -31.2922, 118.754, -150.826, 120.358, 89.0907, 0, 0, 4.54692, -54.3661, 4.53541, -173.9, 4.60345, 66.0168, 0.0303557, -110.215
1, 3060.00000, 119.025, -31.2922, 118.754, -150.826, 120.358, 89.0907, 0, 0, 4.54692, -54.3661, 4.53541, -173.9, 4.60345, 66.0168, 0.0303557, -110.215
1, 3120.00000, 119.025, -31.2922, 118.754, -150.826, 120.358, 89.0907, 0, 0, 4.54692, -54.3661, 4.53541, -173.9, 4.60345, 66.0168, 0.0303557, -110.215
1, 3180.00000, 119.025, -31.2922, 118.754, -150.826, 120.358, 89.0907, 0, 0, 4.54692, -54.3661, 4.53541, -173.9, 4.60345, 66.0168, 0.0303557, -110.215
1, 3240.00000, 119.025, -31.2922, 118.754, -150.826, 120.358, 89.0907, 0, 0, 4.54692, -54.3661, 4.53541, -173.9, 4.60345, 66.0168, 0.0303557, -110.215
1, 3300.00000, 119.025, -31.2922, 118.754, -150.826, 120.358, 89.0907, 0, 0, 4.54692, -54.3661, 4.53541, -173.9, 4.60345, 66.0168, 0.0303557, -110.215
1, 3360.00000, 119.025, -31.2922, 118.754, -150.826, 120.358, 89.0907, 0, 0, 4.54692, -54.3661, 4.53541, -173.9, 4.60345, 66.0168, 0.0303557, -110.215
1, 3420.00000, 119.025, -31.2922, 118.754, -150.826, 120.358, 89.0907, 0, 0, 4.54692, -54.3661, 4.53541, -173.9, 4.60345, 66.0168, 0.0303557, -110.215
1, 3480.00000, 119.025, -31.2922, 118.754, -150.826, 120.358, 89.0907, 0, 0, 4.54692, -54.3661, 4.53541, -173.9, 4.60345, 66.0168, 0.0303557, -110.215
1, 3540.00000, 119.025, -31.2922, 118.754, -150.826, 120.358, 89.0907, 0, 0, 4.54692, -54.3661, 4.53541, -173.9, 4.60345, 66.0168, 0.0303557, -110.215
2, 0.00000, 119.025, -31.2922, 118.754, -150.826, 120.358, 89.0907, 0, 0, 4.54692, -54.3661, 4.53541, -173.9, 4.60345, 66.0168, 0.0303557, -110.215
2, 60.00000, 119.025, -31.2922, 118.754, -150.826, 120.358, 89.0907, 0, 0, 4.54692, -54.3661, 4.53541, -173.9, 4.60345, 66.0168, 0.0303557, -110.215
2, 120.00000, 119.025, -31.2922, 118.754, -150.826, 120.358, 89.0907, 0, 0, 4.54692, -54.3661, 4.53541, -173.9, 4.60345, 66.0168, 0.0303557, -110.215
2, 180.00000, 119.025, -31.2922, 118.754, -150.826, 120.358, 89.0907, 0, 0, 4.54692, -54.3661, 4.53541, -173.9, 4.60345, 66.0168, 0.0303557, -110.215
2, 240.00000, 119.025, -31.2922, 118.754, -150.826, 120.358, 89.0907, 0, 0, 4.54692, -54.3661, 4.53541, -173.9, 4.60345, 66.0168, 0.0303557, -110.215
2, 300.00000, 119.025, -31.2922, 118.754, -150.826, 120.358, 89.0907, 0, 0, 4.54692, -54.3661, 4.53541, -173.9, 4.60345, 66.0168, 0.0303557, -110.215
2, 360.00000, 119.025, -31.2922, 118.754, -150.826, 120.358, 89.0907, 0, 0, 4.54692, -54.3661, 4.53541, -173.9, 4.60345, 66.0168, 0.0303557, -110.215
2, 420.00000, 119.025, -31.2922, 118.754, -150.826, 120.358, 89.0907, 0, 0, 4.54692, -54.3661, 4.53541, -173.9, 4.60345, 66.0168, 0.0303557, -110.215
2, 480.00000, 119.025, -31.2922, 118.754, -150.826, 120.358, 89.0907, 0, 0, 4.54692, -54.3661, 4.53541, -173.9, 4.60345, 66.0168, 0.0303557, -110.215
2, 540.00000, 119.025, -31.2922, 118.754, -150.826, 120.358, 89.0907, 0, 0, 4.54692, -54.3661, 4.53541, -173.9, 4.60345, 66.0168, 0.0303557, -110.215
2, 600.00000, 119.025, -31.2922, 118.754, -150.826, 120.358, 89.0907, 0, 0, 4.54692, -54.3661, 4.53541, -173.9, 4.60345, 66.0168, 0.0303557, -110.215
2, 660.00000, 119.025, -31.2922, 118.754, -150.826, 120.358, 89.0907, 0, 0, 4.54692, -54.3661, 4.53541, -173.9, 4.60345, 66.0168, 0.0303557, -110.215
