hour,t(sec),V1,VAngle1,V2,VAngle2,V3,VAngle3,V4,VAngle4,I1,IAngle1,I2,IAngle2,I3,IAngle3,I4,IAngle4
0, 60.00000, 117.297, -31.7845, 117.26, -150.617, 119.767, 88.9139, 0, 0, 8.98199, -54.858, 8.97891, -173.691, 9.19243, 65.8402, 0.0562399, -98.0193
0, 120.00000, 117.296, -31.7846, 117.26, -150.617, 119.767, 88.9138, 0, 0, 8.98194, -54.8585, 8.97884, -173.691, 9.19227, 65.8399, 0.0560928, -97.9944
0, 180.00000, 117.296, -31.7846, 117.26, -150.617, 119.767, 88.9138, 0, 0, 8.98194, -54.8585, 8.97884, -173.691, 9.19226, 65.8399, 0.0560921, -97.9943
0, 240.00000, 117.296, -31.7846, 117.26, -150.617, 119.767, 88.9138, 0, 0, 8.98194, -54.8585, 8.97884, -173.691, 9.19226, 65.8399, 0.0560921, -97.9943
0, 300.00000, 117.296, -31.7846, 117.26, -150.617, 119.767, 88.9138, 0, 0, 8.98194, -54.8585, 8.97884, -173.691, 9.19226, 65.8399, 0.0560921, -97.9943
0, 360.00000, 117.296, -31.7846, 117.26, -150.617, 119.767, 88.9138, 0, 0, 8.98194, -54.8585, 8.97884, -173.691, 9.19226, 65.8399, 0.0560921, -97.9943
0, 420.00000, 117.296, -31.7846, 117.26, -150.617, 119.767, 88.9138, 0, 0, 8.98194, -54.8585, 8.97884, -173.691, 9.19226, 65.8399, 0.0560921, -97.9943
0, 480.00000, 118.328, -31.6889, 118.233, -150.537, 120.806, 89.0197, 0, 0, 8.19514, -54.7638, 8.18768, -173.61, 8.36579, 65.9451, 0.0344464, -92.2497
0, 540.00000, 118.328, -31.6888, 118.233, -150.537, 120.807, 89.0198, 0, 0, 8.19508, -54.7627, 8.18773, -173.611, 8.36518, 65.9459, 0.0341845, -91.7246
0, 600.00000, 118.328, -31.6888, 118.233, -150.537, 120.807, 89.0198, 0, 0, 8.19508, -54.7627, 8.18773, -173.611, 8.36516, 65.9459, 0.0341816, -91.7163
0, 660.00000, 118.328, -31.6888, 118.233, -150.537, 120.807, 89.0198, 0, 0, 8.19508, -54.7627, 8.18773, -173.611, 8.36516, 65.9459, 0.0341816, -91.7162
0, 720.00000, 118.328, -31.6888, 118.233, -150.537, 120.807, 89.0198, 0, 0, 8.19508, -54.7627, 8.18773, -173.611, 8.36516, 65.9459, 0.0341816, -91.7162
0, 780.00000, 118.328, -31.6888, 118.233, -150.537, 120.807, 89.0198, 0, 0, 8.19508, -54.7627, 8.18773, -173.611, 8.36516, 65.9459, 0.0341816, -91.7162
0, 840.00000, 118.328, -31.6888, 118.233, -150.537, 120.807, 89.0198, 0, 0, 8.19508, -54.7627, 8.18773, -173.611, 8.36516, 65.9459, 0.0341816, -91.7162
0, 900.00000, 118.328, -31.6888, 118.233, -150.537, 120.807, 89.0198, 0, 0, 8.19508, -54.7627, 8.18773, -173.611, 8.36516, 65.9459, 0.0341816, -91.7162
0, 960.00000, 118.328, -31.6888, 118.233, -150.537, 120.807, 89.0198, 0, 0, 8.19508, -54.7627, 8.18773, -173.611, 8.36516, 65.9459, 0.0341816, -91.7162
0, 1020.00000, 118.328, -31.6888, 118.233, -150.537, 120.807, 89.0198, 0, 0, 8.19508, -54.7627, 8.18773, -173.611, 8.36516, 65.9459, 0.0341816, -91.7162
0, 1080.00000, 118.328, -31.6888, 118.233, -150.537, 120.807, 89.0198, 0, 0, 8.19508, -54.7627, 8.18773, -173.611, 8.36516, 65.9459, 0.0341816, -91.7162
0, 1140.00000, 118.328, -31.6888, 118.233, -150.537, 120.807, 89.0198, 0, 0, 8.19508, -54.7627, 8.18773, -173.611, 8.36516, 65.9459, 0.0341816, -91.7162
0, 1200.00000, 118.328, -31.6888, 118.233, -150.537, 120.807, 89.0198, 0, 0, 8.19508, -54.7627, 8.18773, -173.611, 8.36516, 65.9459, 0.0341816, -91.7162
0, 1260.00000, 118.328, -31.6888, 118.233, -150.537, 120.807, 89.0198, 0, 0, 8.19508, -54.7627, 8.18773, -173.611, 8.36516, 65.9459, 0.0341816, -91.7162
0, 1320.00000, 118.328, -31.6888, 118.233, -150.537, 120.807, 89.0198, 0, 0, 8.19508, -54.7627, 8.18773, -173.611, 8.36516, 65.9459, 0.0341816, -91.7162
0, 1380.00000, 118.328, -31.6888, 118.233, -150.537, 120.807, 89.0198, 0, 0, 8.19508, -54.7627, 8.18773, -173.611, 8.36516, 65.9459, 0.0341816, -91.7162
0, 1440.00000, 118.328, -31.6888, 118.233, -150.537, 120.807, 89.0198, 0, 0, 8.19508, -54.7627, 8.18773, -173.611, 8.36516, 65.9459, 0.0341816, -91.7162
0, 1500.00000, 118.328, -31.6888, 118.233, -150.537, 120.807, 89.0198, 0, 0, 8.19508, -54.7627, 8.18773, -173.611, 8.36516, 65.9459, 0.0341816, -91.7162
0, 1560.00000, 118.328, -31.6888, 118.233, -150.537, 120.807, 89.0198, 0, 0, 8.19508, -54.7627, 8.18773, -173.611, 8.36516, 65.9459, 0.0341816, -91.7162
0, 1620.00000, 118.328, -31.6888, 118.233, -150.537, 120.807, 89.0198, 0, 0, 8.19508, -54.7627, 8.18773, -173.611, 8.36516, 65.9459, 0.0341816, -91.7162
0, 1680.00000, 118.328, -31.6888, 118.233, -150.537, 120.807, 89.0198, 0, 0, 8.19508, -54.7627, 8.18773, -173.611, 8.36516, 65.9459, 0.0341816, -91.7162
0, 1740.00000, 118.328, -31.6888, 118.233, -150.537, 120.807, 89.0198, 0, 0, 8.19508, -54.7627, 8.18773, -173.611, 8.36516, 65.9459, 0.0341816, -91.7162
0, 1800.00000, 118.328, -31.6888, 118.233, -150.537, 120.807, 89.0198, 0, 0, 8.19508, -54.7627, 8.18773, -173.611, 8.36516, 65.9459, 0.0341816, -91.7162
0, 1860.00000, 118.328, -31.6888, 118.233, -150.537, 120.807, 89.0198, 0, 0, 8.19508, -54.7627, 8.18773, -173.611, 8.36516, 65.9459, 0.0341816, -91.7162
0, 1920.00000, 118.328, -31.6888, 118.233, -150.537, 120.807, 89.0198, 0, 0, 8.19508, -54.7627, 8.18773, -173.611, 8.36516, 65.9459, 0.0341816, -91.7162
0, 1980.00000, 118.328, -31.6888, 118.233, -150.537, 120.807, 89.0198, 0, 0, 8.19508, -54.7627, 8.18773, -173.611, 8.36516, 65.9459, 0.0341816, -91.7162
0, 2040.00000, 118.328, -31.6888, 118.233, -150.537, 120.807, 89.0198, 0, 0, 8.19508, -54.7627, 8.18773, -173.611, 8.36516, 65.9459, 0.0341816, -91.7162
0, 2100.00000, 118.328, -31.6888, 118.233, -150.537, 120.807, 89.0198, 0, 0, 8.19508, -54.7627, 8.18773, -173.611, 8.36516, 65.9459, 0.0341816, -91.7162
0, 2160.00000, 118.328, -31.6888, 118.233, -150.537, 120.807, 89.0198, 0, 0, 8.19508, -54.7627, 8.18773, -173.611, 8.36516, 65.9459, 0.0341816, -91.7162
0, 2220.00000, 118.328, -31.6888, 118.233, -150.537, 120.807, 89.0198, 0, 0, 8.19508, -54.7627, 8.18773, -173.611, 8.36516, 65.9459, 0.0341816, -91.7162
0, 2280.00000, 118.328, -31.6888, 118.233, -150.537, 120.807, 89.0198, 0, 0, 8.19508, -54.7627, 8.18773, -173.611, 8.36516, 65.9459, 0.0341816, -91.7162
0, 2340.00000, 118.328, -31.6888, 118.233, -150.537, 120.807, 89.0198, 0, 0, 8.19508, -54.7627, 8.18773, -173.611, 8.36516, 65.9459, 0.0341816, -91.7162
0, 2400.00000, 118.328, -31.6888, 118.233, -150.537, 120.807, 89.0198, 0, 0, 8.19508, -54.7627, 8.18773, -173.611, 8.36516, 65.9459, 0.0341816, -91.7162
0, 2460.00000, 118.328, -31.6888, 118.233, -150.537, 120.807, 89.0198, 0, 0, 8.19508, -54.7627, 8.18773, -173.611, 8.36516, 65.9459, 0.0341816, -91.7162
0, 2520.00000, 118.328, -31.6888, 118.233, -150.537, 120.807, 89.0198, 0, 0, 8.19508, -54.7627, 8.18773, -173.611, 8.36516, 65.9459, 0.0341816, -91.7162
0, 2580.00000, 118.328, -31.6888, 118.233, -150.537, 120.807, 89.0198, 0, 0, 8.19508, -54.7627, 8.18773, -173.611, 8.36516, 65.9459, 0.0341816, -91.7162
0, 2640.00000, 118.328, -31.6888, 118.233, -150.537, 120.807, 89.0198, 0, 0, 8.19508, -54.7627, 8.18773, -173.611, 8.36516, 65.9459, 0.0341816, -91.7162
0, 2700.00000, 118.328, -31.6888, 118.233, -150.537, 120.807, 89.0198, 0, 0, 8.19508, -54.7627, 8.18773, -173.611, 8.36516, 65.9459, 0.0341816, -91.7162
0, 2760.00000, 118.328, -31.6888, 118.233, -150.537, 120.807, 89.0198, 0, 0, 8.19508, -54.7627, 8.18773, -173.611, 8.36516, 65.9459, 0.0341816, -91.7162
0, 2820.00000, 118.328, -31.6888, 118.233, -150.537, 120.807, 89.0198, 0, 0, 8.19508, -54.7627, 8.18773, -173.611, 8.36516, 65.9459, 0.0341816, -91.7162
0, 2880.00000, 118.328, -31.6888, 118.233, -150.537, 120.807, 89.0198, 0, 0, 8.19508, -54.7627, 8.18773, -173.611, 8.36516, 65.9459, 0.0341816, -91.7162
0, 2940.00000, 118.328, -31.6888, 118.233, -150.537, 120.807, 89.0198, 0, 0, 8.19508, -54.7627, 8.18773, -173.611, 8.36516, 65.9459, 0.0341816, -91.7162
0, 3000.00000, 118.328, -31.6888, 118.233, -150.537, 120.807, 89.0198, 0, 0, 8.19508, -54.7627, 8.18773, -173.611, 8.36516, 65.9459, 0.0341816, -91.7162
0, 3060.00000, 118.328, -31.6888, 118.233, -150.537, 120.807, 89.0198, 0, 0, 8.19508, -54.7627, 8.18773, -173.611, 8.36516, 65.9459, 0.0341816, -91.7162
0, 3120.00000, 118.328, -31.6888, 118.233, -150.537, 120.807, 89.0198, 0, 0, 8.19508, -54.7627, 8.18773, -173.611, 8.36516, 65.9459, 0.0341816, -91.7162
0, 3180.00000, 118.328, -31.6888, 118.233, -150.537, 120.807, 89.0198, 0, 0, 8.19508, -54.7627, 8.18773, -173.611, 8.36516, 65.9459, 0.0341816, -91.7162
0, 3240.00000, 118.328, -31.6888, 118.233, -150.537, 120.807, 89.0198, 0, 0, 8.19508, -54.7627, 8.18773, -173.611, 8.36516, 65.9459, 0.0341816, -91.7162
0, 3300.00000, 118.328, -31.6888, 118.233, -150.537, 120.807, 89.0198, 0, 0, 8.19508, -54.7627, 8.18773, -173.611, 8.36516, 65.9459, 0.0341816, -91.7162
0, 3360.00000, 118.328, -31.6888, 118.233, -150.537, 120.807, 89.0198, 0, 0, 8.19508, -54.7627, 8.18773, -173.611, 8.36516, 65.9459, 0.0341816, -91.7162
0, 3420.00000, 118.328, -31.6888, 118.233, -150.537, 120.807, 89.0198, 0, 0, 8.19508, -54.7627, 8.18773, -173.611, 8.36516, 65.9459, 0.0341816, -91.7162
0, 3480.00000, 118.328, -31.6888, 118.233, -150.537, 120.807, 89.0198, 0, 0, 8.19508, -54.7627, 8.18773, -173.611, 8.36516, 65.9459, 0.0341816, -91.7162
0, 3540.00000, 118.328, -31.6888, 118.233, -150.537, 120.807, 89.0198, 0, 0, 8.19508, -54.7627, 8.18773, -173.611, 8.36516, 65.9459, 0.0341816, -91.7162
1, 0.00000, 118.328, -31.6888, 118.233, -150.537, 120.807, 89.0198, 0, 0, 8.19508, -54.7627, 8.18773, -173.611, 8.36516, 65.9459, 0.0341816, -91.7162
1, 60.00000, 118.412, -31.5589, 118.515, -150.505, 120.806, 89.0205, 0, 0, 8.20147, -54.633, 8.20936, -173.579, 8.36519, 65.9466, 0.0328232, -87.8868
1, 120.00000, 118.412, -31.5589, 118.515, -150.505, 120.806, 89.0205, 0, 0, 8.2015, -54.6328, 8.20943, -173.579, 8.36521, 65.9466, 0.0327801, -87.8433
1, 180.00000, 118.412, -31.5589, 118.515, -150.505, 120.806, 89.0205, 0, 0, 8.2015, -54.6328, 8.20943, -173.579, 8.36521, 65.9466, 0.03278, -87.8437
1, 240.00000, 118.412, -31.5589, 118.515, -150.505, 120.806, 89.0205, 0, 0, 8.2015, -54.6328, 8.20943, -173.579, 8.36521, 65.9466, 0.03278, -87.8437
1, 300.00000, 118.412, -31.5589, 118.515, -150.505, 120.806, 89.0205, 0, 0, 8.2015, -54.6328, 8.20943, -173.579, 8.36521, 65.9466, 0.03278, -87.8437
1, 360.00000, 118.412, -31.5589, 118.515, -150.505, 120.806, 89.0205, 0, 0, 8.2015, -54.6328, 8.20943, -173.579, 8.36521, 65.9466, 0.03278, -87.8437
1, 420.00000, 118.412, -31.5589, 118.515, -150.505, 120.806, 89.0205, 0, 0, 8.2015, -54.6328, 8.20943, -173.579, 8.36521, 65.9466, 0.03278, -87.8437
1, 480.00000, 118.412, -31.5589, 118.515, -150.505, 120.806, 89.0205, 0, 0, 8.2015, -54.6328, 8.20943, -173.579, 8.36521, 65.9466, 0.03278, -87.8437
1, 540.00000, 118.412, -31.5589, 118.515, -150.505, 120.806, 89.0205, 0, 0, 8.2015, -54.6328, 8.20943, -173.579, 8.36521, 65.9466, 0.03278, -87.8437
1, 600.00000, 118.412, -31.5589, 118.515, -150.505, 120.806, 89.0205, 0, 0, 8.2015, -54.6328, 8.20943, -173.579, 8.36521, 65.9466, 0.03278, -87.8437
1, 660.00000, 118.412, -31.5589, 118.515, -150.505, 120.806, 89.0205, 0, 0, 8.2015, -54.6328, 8.20943, -173.579, 8.36521, 65.9466, 0.03278, -87.8437
1, 720.00000, 118.412, -31.5589, 118.515, -150.505, 120.806, 89.0205, 0, 0, 8.2015, -54.6328, 8.20943, -173.579, 8.36521, 65.9466, 0.03278, -87.8437
1, 780.00000, 118.412, -31.5589, 118.515, -150.505, 120.806, 89.0205, 0, 0, 8.2015, -54.6328, 8.20943, -173.579, 8.36521, 65.9466, 0.03278, -87.8437
1, 840.00000, 118.412, -31.5589, 118.515, -150.505, 120.806, 89.0205, 0, 0, 8.2015, -54.6328, 8.20943, -173.579, 8.36521, 65.9466, 0.03278, -87.8437
1, 900.00000, 118.412, -31.5589, 118.515, -150.505, 120.806, 89.0205, 0, 0, 8.2015, -54.6328, 8.20943, -173.579, 8.36521, 65.9466, 0.03278, -87.8437
1, 960.00000, 118.412, -31.5589, 118.515, -150.505, 120.806, 89.0205, 0, 0, 8.2015, -54.6328, 8.20943, -173.579, 8.36521, 65.9466, 0.03278, -87.8437
1, 1020.00000, 118.412, -31.5589, 118.515, -150.505, 120.806, 89.0205, 0, 0, 8.2015, -54.6328, 8.20943, -173.579, 8.36521, 65.9466, 0.03278, -87.8437
1, 1080.00000, 118.412, -31.5589, 118.515, -150.505, 120.806, 89.0205, 0, 0, 8.2015, -54.6328, 8.20943, -173.579, 8.36521, 65.9466, 0.03278, -87.8437
1, 1140.00000, 118.412, -31.5589, 118.515, -150.505, 120.806, 89.0205, 0, 0, 8.2015, -54.6328, 8.20943, -173.579, 8.36521, 65.9466, 0.03278, -87.8437
1, 1200.00000, 118.412, -31.5589, 118.515, -150.505, 120.806, 89.0205, 0, 0, 8.2015, -54.6328, 8.20943, -173.579, 8.36521, 65.9466, 0.03278, -87.8437
1, 1260.00000, 118.412, -31.5589, 118.515, -150.505, 120.806, 89.0205, 0, 0, 8.2015, -54.6328, 8.20943, -173.579, 8.36521, 65.9466, 0.03278, -87.8437
1, 1320.00000, 118.412, -31.5589, 118.515, -150.505, 120.806, 89.0205, 0, 0, 8.2015, -54.6328, 8.20943, -173.579, 8.36521, 65.9466, 0.03278, -87.8437
1, 1380.00000, 118.412, -31.5589, 118.515, -150.505, 120.806, 89.0205, 0, 0, 8.2015, -54.6328, 8.20943, -173.579, 8.36521, 65.9466, 0.03278, -87.8437
1, 1440.00000, 118.412, -31.5589, 118.515, -150.505, 120.806, 89.0205, 0, 0, 8.2015, -54.6328, 8.20943, -173.579, 8.36521, 65.9466, 0.03278, -87.8437
1, 1500.00000, 118.412, -31.5589, 118.515, -150.505, 120.806, 89.0205, 0, 0, 8.2015, -54.6328, 8.20943, -173.579, 8.36521, 65.9466, 0.03278, -87.8437
1, 1560.00000, 118.412, -31.5589, 118.515, -150.505, 120.806, 89.0205, 0, 0, 8.2015, -54.6328, 8.20943, -173.579, 8.36521, 65.9466, 0.03278, -87.8437
1, 1620.00000, 118.412, -31.5589, 118.515, -150.505, 120.806, 89.0205, 0, 0, 8.2015, -54.6328, 8.20943, -173.579, 8.36521, 65.9466, 0.03278, -87.8437
1, 1680.00000, 118.412, -31.5589, 118.515, -150.505, 120.806, 89.0205, 0, 0, 8.2015, -54.6328, 8.20943, -173.579, 8.36521, 65.9466, 0.03278, -87.8437
1, 1740.00000, 118.412, -31.5589, 118.515, -150.505, 120.806, 89.0205, 0, 0, 8.2015, -54.6328, 8.20943, -173.579, 8.36521, 65.9466, 0.03278, -87.8437
1, 1800.00000, 118.412, -31.5589, 118.515, -150.505, 120.806, 89.0205, 0, 0, 8.2015, -54.6328, 8.20943, -173.579, 8.36521, 65.9466, 0.03278, -87.8437
1, 1860.00000, 118.412, -31.5589, 118.515, -150.505, 120.806, 89.0205, 0, 0, 8.2015, -54.6328, 8.20943, -173.579, 8.36521, 65.9466, 0.03278, -87.8437
1, 1920.00000, 118.412, -31.5589, 118.515, -150.505, 120.806, 89.0205, 0, 0, 8.2015, -54.6328, 8.20943, -173.579, 8.36521, 65.9466, 0.03278, -87.8437
1, 1980.00000, 118.412, -31.5589, 118.515, -150.505, 120.806, 89.0205, 0, 0, 8.2015, -54.6328, 8.20943, -173.579, 8.36521, 65.9466, 0.03278, -87.8437
1, 2040.00000, 118.412, -31.5589, 118.515, -150.505, 120.806, 89.0205, 0, 0, 8.2015, -54.6328, 8.20943, -173.579, 8.36521, 65.9466, 0.03278, -87.8437
1, 2100.00000, 118.412, -31.5589, 118.515, -150.505, 120.806, 89.0205, 0, 0, 8.2015, -54.6328, 8.20943, -173.579, 8.36521, 65.9466, 0.03278, -87.8437
1, 2160.00000, 118.412, -31.5589, 118.515, -150.505, 120.806, 89.0205, 0, 0, 8.2015, -54.6328, 8.20943, -173.579, 8.36521, 65.9466, 0.03278, -87.8437
1, 2220.00000, 118.412, -31.5589, 118.515, -150.505, 120.806, 89.0205, 0, 0, 8.2015, -54.6328, 8.20943, -173.579, 8.36521, 65.9466, 0.03278, -87.8437
1, 2280.00000, 118.412, -31.5589, 118.515, -150.505, 120.806, 89.0205, 0, 0, 8.2015, -54.6328, 8.20943, -173.579, 8.36521, 65.9466, 0.03278, -87.8437
1, 2340.00000, 118.412, -31.5589, 118.515, -150.505, 120.806, 89.0205, 0, 0, 8.2015, -54.6328, 8.20943, -173.579, 8.36521, 65.9466, 0.03278, -87.8437
1, 2400.00000, 118.412, -31.5589, 118.515, -150.505, 120.806, 89.0205, 0, 0, 8.2015, -54.6328, 8.20943, -173.579, 8.36521, 65.9466, 0.03278, -87.8437
1, 2460.00000, 118.412, -31.5589, 118.515, -150.505, 120.806, 89.0205, 0, 0, 8.2015, -54.6328, 8.20943, -173.579, 8.36521, 65.9466, 0.03278, -87.8437
1, 2520.00000, 118.412, -31.5589, 118.515, -150.505, 120.806, 89.0205, 0, 0, 8.2015, -54.6328, 8.20943, -173.579, 8.36521, 65.9466, 0.03278, -87.8437
1, 2580.00000, 118.412, -31.5589, 118.515, -150.505, 120.806, 89.0205, 0, 0, 8.2015, -54.6328, 8.20943, -173.579, 8.36521, 65.9466, 0.03278, -87.8437
1, 2640.00000, 118.412, -31.5589, 118.515, -150.505, 120.806, 89.0205, 0, 0, 8.2015, -54.6328, 8.20943, -173.579, 8.36521, 65.9466, 0.03278, -87.8437
1, 2700.00000, 118.412, -31.5589, 118.515, -150.505, 120.806, 89.0205, 0, 0, 8.2015, -54.6328, 8.20943, -173.579, 8.36521, 65.9466, 0.03278, -87.8437
1, 2760.00000, 118.412, -31.5589, 118.515, -150.505, 120.806, 89.0205, 0, 0, 8.2015, -54.6328, 8.20943, -173.579, 8.36521, 65.9466, 0.03278, -87.8437
1, 2820.00000, 118.412, -31.5589, 118.515, -150.505, 120.806, 89.0205, 0, 0, 8.2015, -54.6328, 8.20943, -173.579, 8.36521, 65.9466, 0.03278, -87.8437
1, 2880.00000, 118.412, -31.5589, 118.515, -150.505, 120.806, 89.0205, 0, 0, 8.2015, -54.6328, 8.20943, -173.579, 8.36521, 65.9466, 0.03278, -87.8437
1, 2940.00000, 118.412, -31.5589, 118.515, -150.505, 120.806, 89.0205, 0, 0, 8.2015, -54.6328, 8.20943, -173.579, 8.36521, 65.9466, 0.03278, -87.8437
1, 3000.00000, 118.412, -31.5589, 118.515, -150.505, 120.806, 89.0205, 0, 0, 8.2015, -54.6328, 8.20943, -173.579, 8.36521, 65.9466, 0.03278, -87.8437
1, 3060.00000, 118.412, -31.5589, 118.515, -150.505, 120.806, 89.0205, 0, 0, 8.2015, -54.6328, 8.20943, -173.579, 8.36521, 65.9466, 0.03278, -87.8437
1, 3120.00000, 118.412, -31.5589, 118.515, -150.505, 120.806, 89.0205, 0, 0, 8.2015, -54.6328, 8.20943, -173.579, 8.36521, 65.9466, 0.03278, -87.8437
1, 3180.00000, 118.412, -31.5589, 118.515, -150.505, 120.806, 89.0205, 0, 0, 8.2015, -54.6328, 8.20943, -173.579, 8.36521, 65.9466, 0.03278, -87.8437
1, 3240.00000, 118.412, -31.5589, 118.515, -150.505, 120.806, 89.0205, 0, 0, 8.2015, -54.6328, 8.20943, -173.579, 8.36521, 65.9466, 0.03278, -87.8437
1, 3300.00000, 118.412, -31.5589, 118.515, -150.505, 120.806, 89.0205, 0, 0, 8.2015, -54.6328, 8.20943, -173.579, 8.36521, 65.9466, 0.03278, -87.8437
1, 3360.00000, 118.412, -31.5589, 118.515, -150.505, 120.806, 89.0205, 0, 0, 8.2015, -54.6328, 8.20943, -173.579, 8.36521, 65.9466, 0.03278, -87.8437
1, 3420.00000, 118.412, -31.5589, 118.515, -150.505, 120.806, 89.0205, 0, 0, 8.2015, -54.6328, 8.20943, -173.579, 8.36521, 65.9466, 0.03278, -87.8437
1, 3480.00000, 118.412, -31.5589, 118.515, -150.505, 120.806, 89.0205, 0, 0, 8.2015, -54.6328, 8.20943, -173.579, 8.36521, 65.9466, 0.03278, -87.8437
1, 3540.00000, 118.412, -31.5589, 118.515, -150.505, 120.806, 89.0205, 0, 0, 8.2015, -54.6328, 8.20943, -173.579, 8.36521, 65.9466, 0.03278, -87.8437
2, 0.00000, 118.412, -31.5589, 118.515, -150.505, 120.806, 89.0205, 0, 0, 8.2015, -54.6328, 8.20943, -173.579, 8.36521, 65.9466, 0.03278, -87.8437
2, 60.00000, 118.412, -31.5589, 118.515, -150.505, 120.806, 89.0205, 0, 0, 8.2015, -54.6328, 8.20943, -173.579, 8.36521, 65.9466, 0.03278, -87.8437
2, 120.00000, 118.412, -31.5589, 118.515, -150.505, 120.806, 89.0205, 0, 0, 8.2015, -54.6328, 8.20943, -173.579, 8.36521, 65.9466, 0.03278, -87.8437
2, 180.00000, 118.412, -31.5589, 118.515, -150.505, 120.806, 89.0205, 0, 0, 8.2015, -54.6328, 8.20943, -173.579, 8.36521, 65.9466, 0.03278, -87.8437
2, 240.00000, 118.412, -31.5589, 118.515, -150.505, 120.806, 89.0205, 0, 0, 8.2015, -54.6328, 8.20943, -173.579, 8.36521, 65.9466, 0.03278, -87.8437
2, 300.00000, 118.412, -31.5589, 118.515, -150.505, 120.806, 89.0205, 0, 0, 8.2015, -54.6328, 8.20943, -173.579, 8.36521, 65.9466, 0.03278, -87.8437
2, 360.00000, 118.412, -31.5589, 118.515, -150.505, 120.806, 89.0205, 0, 0, 8.2015, -54.6328, 8.20943, -173.579, 8.36521, 65.9466, 0.03278, -87.8437
2, 420.00000, 118.412, -31.5589, 118.515, -150.505, 120.806, 89.0205, 0, 0, 8.2015, -54.6328, 8.20943, -173.579, 8.36521, 65.9466, 0.03278, -87.8437
2, 480.00000, 118.412, -31.5589, 118.515, -150.505, 120.806, 89.0205, 0, 0, 8.2015, -54.6328, 8.20943, -173.579, 8.36521, 65.9466, 0.03278, -87.8437
2, 540.00000, 118.412, -31.5589, 118.515, -150.505, 120.806, 89.0205, 0, 0, 8.2015, -54.6328, 8.20943, -173.579, 8.36521, 65.9466, 0.03278, -87.8437
2, 600.00000, 118.412, -31.5589, 118.515, -150.505, 120.806, 89.0205, 0, 0, 8.2015, -54.6328, 8.20943, -173.579, 8.36521, 65.9466, 0.03278, -87.8437
2, 660.00000, 118.412, -31.5589, 118.515, -150.505, 120.806, 89.0205, 0, 0, 8.2015, -54.6328, 8.20943, -173.579, 8.36521, 65.9466, 0.03278, -87.8437
