hour,t(sec),V1,VAngle1,V2,VAngle2,V3,VAngle3,V4,VAngle4,I1,IAngle1,I2,IAngle2,I3,IAngle3,I4,IAngle4
0, 60.00000, 115.1, -31.6255, 115.006, -150.811, 117.239, 88.8306, 0, 0, 6.02188, -54.6992, 6.01636, -173.884, 6.14657, 65.7569, 0.0534617, -113.807
0, 120.00000, 115.1, -31.6255, 115.006, -150.811, 117.239, 88.8306, 0, 0, 6.02184, -54.6994, 6.0163, -173.884, 6.14652, 65.7567, 0.0534502, -113.813
0, 180.00000, 115.1, -31.6255, 115.006, -150.811, 117.239, 88.8306, 0, 0, 6.02184, -54.6994, 6.0163, -173.884, 6.14652, 65.7567, 0.0534501, -113.813
0, 240.00000, 115.1, -31.6255, 115.006, -150.811, 117.239, 88.8306, 0, 0, 6.02184, -54.6994, 6.0163, -173.884, 6.14652, 65.7567, 0.0534501, -113.813
0, 300.00000, 115.1, -31.6255, 115.006, -150.811, 117.239, 88.8306, 0, 0, 6.02184, -54.6994, 6.0163, -173.884, 6.14652, 65.7567, 0.0534501, -113.813
0, 360.00000, 115.1, -31.6255, 115.006, -150.811, 117.239, 88.8306, 0, 0, 6.02184, -54.6994, 6.0163, -173.884, 6.14652, 65.7567, 0.0534501, -113.813
0, 420.00000, 115.1, -31.6255, 115.006, -150.811, 117.239, 88.8306, 0, 0, 6.02184, -54.6994, 6.0163, -173.884, 6.14652, 65.7567, 0.0534501, -113.813
0, 480.00000, 116.208, -31.5467, 116.066, -150.732, 118.293, 88.9284, 0, 0, 5.29515, -54.621, 5.28795, -173.807, 5.40088, 65.8543, 0.0443134, -113.947
0, 540.00000, 116.208, -31.5467, 116.066, -150.732, 118.293, 88.9284, 0, 0, 5.2952, -54.6206, 5.288, -173.806, 5.40093, 65.8545, 0.0443278, -113.956
0, 600.00000, 116.208, -31.5467, 116.066, -150.732, 118.293, 88.9284, 0, 0, 5.2952, -54.6206, 5.288, -173.806, 5.40093, 65.8545, 0.0443278, -113.956
0, 660.00000, 116.208, -31.5467, 116.066, -150.732, 118.293, 88.9284, 0, 0, 5.2952, -54.6206, 5.288, -173.806, 5.40093, 65.8545, 0.0443278, -113.956
0, 720.00000, 116.208, -31.5467, 116.066, -150.732, 118.293, 88.9284, 0, 0, 5.2952, -54.6206, 5.288, -173.806, 5.40093, 65.8545, 0.0443278, -113.956
0, 780.00000, 116.208, -31.5467, 116.066, -150.732, 118.293, 88.9284, 0, 0, 5.2952, -54.6206, 5.288, -173.806, 5.40093, 65.8545, 0.0443278, -113.956
0, 840.00000, 116.208, -31.5467, 116.066, -150.732, 118.293, 88.9284, 0, 0, 5.2952, -54.6206, 5.288, -173.806, 5.40093, 65.8545, 0.0443278, -113.956
0, 900.00000, 116.208, -31.5467, 116.066, -150.732, 118.293, 88.9284, 0, 0, 5.2952, -54.6206, 5.288, -173.806, 5.40093, 65.8545, 0.0443278, -113.956
0, 960.00000, 115.819, -31.5616, 114.872, -151.126, 116.86, 89.0973, 0, 0, 5.27553, -54.635, 5.22746, -174.2, 5.32832, 66.0236, 0.0421929, -115.111
0, 1020.00000, 115.819, -31.5616, 114.872, -151.126, 116.86, 89.0973, 0, 0, 5.27545, -54.6355, 5.22742, -174.2, 5.32823, 66.0234, 0.0421258, -115.049
0, 1080.00000, 115.819, -31.5616, 114.872, -151.126, 116.86, 89.0973, 0, 0, 5.27545, -54.6355, 5.22742, -174.2, 5.32823, 66.0234, 0.0421255, -115.049
0, 1140.00000, 116.146, -31.5315, 114.871, -151.126, 116.987, 89.2418, 0, 0, 5.29197, -54.6058, 5.2274, -174.199, 5.33467, 66.1678, 0.042533, -118.033
0, 1200.00000, 116.146, -31.5315, 114.871, -151.126, 116.987, 89.2418, 0, 0, 5.29202, -54.6054, 5.2274, -174.199, 5.33469, 66.1679, 0.042569, -118.106
0, 1260.00000, 116.146, -31.5315, 114.871, -151.126, 116.987, 89.2418, 0, 0, 5.29202, -54.6054, 5.2274, -174.199, 5.33469, 66.1679, 0.0425691, -118.107
0, 1320.00000, 116.146, -31.5315, 114.871, -151.126, 116.987, 89.2418, 0, 0, 5.29202, -54.6054, 5.2274, -174.199, 5.33469, 66.1679, 0.0425691, -118.107
0, 1380.00000, 116.146, -31.5315, 114.871, -151.126, 116.987, 89.2418, 0, 0, 5.29202, -54.6054, 5.2274, -174.199, 5.33469, 66.1679, 0.0425691, -118.107
0, 1440.00000, 116.146, -31.5315, 114.871, -151.126, 116.987, 89.2418, 0, 0, 5.29202, -54.6054, 5.2274, -174.199, 5.33469, 66.1679, 0.0425691, -118.107
0, 1500.00000, 116.146, -31.5315, 114.871, -151.126, 116.987, 89.2418, 0, 0, 5.29202, -54.6054, 5.2274, -174.199, 5.33469, 66.1679, 0.0425691, -118.107
0, 1560.00000, 116.146, -31.5315, 114.871, -151.126, 116.987, 89.2418, 0, 0, 5.29202, -54.6054, 5.2274, -174.199, 5.33469, 66.1679, 0.0425691, -118.107
0, 1620.00000, 116.146, -31.5315, 114.871, -151.126, 116.987, 89.2418, 0, 0, 5.29202, -54.6054, 5.2274, -174.199, 5.33469, 66.1679, 0.0425691, -118.107
0, 1680.00000, 116.146, -31.5315, 114.871, -151.126, 116.987, 89.2418, 0, 0, 5.29202, -54.6054, 5.2274, -174.199, 5.33469, 66.1679, 0.0425691, -118.107
0, 1740.00000, 116.146, -31.5315, 114.871, -151.126, 116.987, 89.2418, 0, 0, 5.29202, -54.6054, 5.2274, -174.199, 5.33469, 66.1679, 0.0425691, -118.107
0, 1800.00000, 115.472, -31.8071, 114.06, -150.968, 117.03, 89.228, 0, 0, 5.25787, -54.8809, 5.18628, -174.042, 5.33688, 66.1539, 0.0485916, -119.692
0, 1860.00000, 115.472, -31.8071, 114.06, -150.968, 117.03, 89.228, 0, 0, 5.25784, -54.881, 5.18624, -174.042, 5.33689, 66.1541, 0.0486208, -119.683
0, 1920.00000, 115.472, -31.8071, 114.06, -150.968, 117.03, 89.228, 0, 0, 5.25784, -54.881, 5.18624, -174.042, 5.33689, 66.1541, 0.0486208, -119.683
0, 1980.00000, 115.472, -31.8071, 114.06, -150.968, 117.03, 89.228, 0, 0, 5.25784, -54.881, 5.18624, -174.042, 5.33689, 66.1541, 0.0486208, -119.683
0, 2040.00000, 115.472, -31.8071, 114.06, -150.968, 117.03, 89.228, 0, 0, 5.25784, -54.881, 5.18624, -174.042, 5.33689, 66.1541, 0.0486208, -119.683
0, 2100.00000, 115.472, -31.8071, 114.06, -150.968, 117.03, 89.228, 0, 0, 5.25784, -54.881, 5.18624, -174.042, 5.33689, 66.1541, 0.0486208, -119.683
0, 2160.00000, 115.472, -31.8071, 114.06, -150.968, 117.03, 89.228, 0, 0, 5.25784, -54.881, 5.18624, -174.042, 5.33689, 66.1541, 0.0486208, -119.683
0, 2220.00000, 115.472, -31.8071, 114.06, -150.968, 117.03, 89.228, 0, 0, 5.25784, -54.881, 5.18624, -174.042, 5.33689, 66.1541, 0.0486208, -119.683
0, 2280.00000, 115.472, -31.8071, 114.06, -150.968, 117.03, 89.228, 0, 0, 5.25784, -54.881, 5.18624, -174.042, 5.33689, 66.1541, 0.0486208, -119.683
0, 2340.00000, 115.472, -31.8071, 114.06, -150.968, 117.03, 89.228, 0, 0, 5.25784, -54.881, 5.18624, -174.042, 5.33689, 66.1541, 0.0486208, -119.683
0, 2400.00000, 115.472, -31.8071, 114.06, -150.968, 117.03, 89.228, 0, 0, 5.25784, -54.881, 5.18624, -174.042, 5.33689, 66.1541, 0.0486208, -119.683
0, 2460.00000, 115.472, -31.8071, 114.06, -150.968, 117.03, 89.228, 0, 0, 5.25784, -54.881, 5.18624, -174.042, 5.33689, 66.1541, 0.0486208, -119.683
0, 2520.00000, 115.472, -31.8071, 114.06, -150.968, 117.03, 89.228, 0, 0, 5.25784, -54.881, 5.18624, -174.042, 5.33689, 66.1541, 0.0486208, -119.683
0, 2580.00000, 115.472, -31.8071, 114.06, -150.968, 117.03, 89.228, 0, 0, 5.25784, -54.881, 5.18624, -174.042, 5.33689, 66.1541, 0.0486208, -119.683
0, 2640.00000, 115.472, -31.8071, 114.06, -150.968, 117.03, 89.228, 0, 0, 5.25784, -54.881, 5.18624, -174.042, 5.33689, 66.1541, 0.0486208, -119.683
0, 2700.00000, 115.472, -31.8071, 114.06, -150.968, 117.03, 89.228, 0, 0, 5.25784, -54.881, 5.18624, -174.042, 5.33689, 66.1541, 0.0486208, -119.683
0, 2760.00000, 115.658, -31.6443, 114.442, -150.963, 117.012, 89.2332, 0, 0, 5.26726, -54.7184, 5.20556, -174.037, 5.33599, 66.1592, 0.0456128, -118.464
0, 2820.00000, 115.658, -31.6443, 114.442, -150.963, 117.012, 89.2332, 0, 0, 5.26729, -54.7183, 5.20561, -174.036, 5.33597, 66.1592, 0.0455377, -118.473
0, 2880.00000, 115.658, -31.6443, 114.442, -150.963, 117.012, 89.2332, 0, 0, 5.26729, -54.7182, 5.20561, -174.036, 5.33597, 66.1592, 0.0455374, -118.473
0, 2940.00000, 115.658, -31.6443, 114.442, -150.963, 117.012, 89.2332, 0, 0, 5.26729, -54.7182, 5.20561, -174.036, 5.33597, 66.1592, 0.0455374, -118.473
0, 3000.00000, 115.658, -31.6443, 114.442, -150.963, 117.012, 89.2332, 0, 0, 5.26729, -54.7182, 5.20561, -174.036, 5.33597, 66.1592, 0.0455374, -118.473
0, 3060.00000, 115.658, -31.6443, 114.442, -150.963, 117.012, 89.2332, 0, 0, 5.26729, -54.7182, 5.20561, -174.036, 5.33597, 66.1592, 0.0455374, -118.473
0, 3120.00000, 115.658, -31.6443, 114.442, -150.963, 117.012, 89.2332, 0, 0, 5.26729, -54.7182, 5.20561, -174.036, 5.33597, 66.1592, 0.0455374, -118.473
0, 3180.00000, 115.658, -31.6443, 114.442, -150.963, 117.012, 89.2332, 0, 0, 5.26729, -54.7182, 5.20561, -174.036, 5.33597, 66.1592, 0.0455374, -118.473
0, 3240.00000, 115.658, -31.6443, 114.442, -150.963, 117.012, 89.2332, 0, 0, 5.26729, -54.7182, 5.20561, -174.036, 5.33597, 66.1592, 0.0455374, -118.473
0, 3300.00000, 115.658, -31.6443, 114.442, -150.963, 117.012, 89.2332, 0, 0, 5.26729, -54.7182, 5.20561, -174.036, 5.33597, 66.1592, 0.0455374, -118.473
0, 3360.00000, 115.658, -31.6443, 114.442, -150.963, 117.012, 89.2332, 0, 0, 5.26729, -54.7182, 5.20561, -174.036, 5.33597, 66.1592, 0.0455374, -118.473
0, 3420.00000, 115.658, -31.6443, 114.442, -150.963, 117.012, 89.2332, 0, 0, 5.26729, -54.7182, 5.20561, -174.036, 5.33597, 66.1592, 0.0455374, -118.473
0, 3480.00000, 115.658, -31.6443, 114.442, -150.963, 117.012, 89.2332, 0, 0, 5.26729, -54.7182, 5.20561, -174.036, 5.33597, 66.1592, 0.0455374, -118.473
0, 3540.00000, 115.658, -31.6443, 114.442, -150.963, 117.012, 89.2332, 0, 0, 5.26729, -54.7182, 5.20561, -174.036, 5.33597, 66.1592, 0.0455374, -118.473
1, 0.00000, 115.658, -31.6443, 114.442, -150.963, 117.012, 89.2332, 0, 0, 5.26729, -54.7182, 5.20561, -174.036, 5.33597, 66.1592, 0.0455374, -118.473
1, 60.00000, 115.775, -31.5052, 114.75, -150.939, 117.005, 89.2362, 0, 0, 5.27319, -54.5792, 5.22119, -174.014, 5.3356, 66.1623, 0.043501, -117.199
1, 120.00000, 115.775, -31.5052, 114.75, -150.939, 117.005, 89.2362, 0, 0, 5.27321, -54.5791, 5.22123, -174.013, 5.33559, 66.1623, 0.043441, -117.194
1, 180.00000, 115.775, -31.5052, 114.75, -150.939, 117.005, 89.2362, 0, 0, 5.27321, -54.5791, 5.22123, -174.013, 5.33559, 66.1623, 0.0434407, -117.194
1, 240.00000, 115.775, -31.5052, 114.75, -150.939, 117.005, 89.2362, 0, 0, 5.27321, -54.5791, 5.22123, -174.013, 5.33559, 66.1623, 0.0434407, -117.194
1, 300.00000, 115.775, -31.5052, 114.75, -150.939, 117.005, 89.2362, 0, 0, 5.27321, -54.5791, 5.22123, -174.013, 5.33559, 66.1623, 0.0434407, -117.194
1, 360.00000, 115.775, -31.5052, 114.75, -150.939, 117.005, 89.2362, 0, 0, 5.27321, -54.5791, 5.22123, -174.013, 5.33559, 66.1623, 0.0434407, -117.194
1, 420.00000, 115.775, -31.5052, 114.75, -150.939, 117.005, 89.2362, 0, 0, 5.27321, -54.5791, 5.22123, -174.013, 5.33559, 66.1623, 0.0434407, -117.194
1, 480.00000, 115.775, -31.5052, 114.75, -150.939, 117.005, 89.2362, 0, 0, 5.27321, -54.5791, 5.22123, -174.013, 5.33559, 66.1623, 0.0434407, -117.194
1, 540.00000, 115.775, -31.5052, 114.75, -150.939, 117.005, 89.2362, 0, 0, 5.27321, -54.5791, 5.22123, -174.013, 5.33559, 66.1623, 0.0434407, -117.194
1, 600.00000, 115.775, -31.5052, 114.75, -150.939, 117.005, 89.2362, 0, 0, 5.27321, -54.5791, 5.22123, -174.013, 5.33559, 66.1623, 0.0434407, -117.194
1, 660.00000, 115.775, -31.5052, 114.75, -150.939, 117.005, 89.2362, 0, 0, 5.27321, -54.5791, 5.22123, -174.013, 5.33559, 66.1623, 0.0434407, -117.194
1, 720.00000, 115.775, -31.5052, 114.75, -150.939, 117.005, 89.2362, 0, 0, 5.27321, -54.5791, 5.22123, -174.013, 5.33559, 66.1623, 0.0434407, -117.194
1, 780.00000, 115.801, -31.5111, 115.035, -150.752, 117.484, 89.212, 0, 0, 5.27456, -54.5851, 5.23566, -173.826, 5.35987, 66.1379, 0.0445374, -116.02
1, 840.00000, 115.801, -31.5111, 115.035, -150.752, 117.484, 89.212, 0, 0, 5.27455, -54.585, 5.23567, -173.826, 5.35991, 66.1381, 0.0445766, -115.977
1, 900.00000, 115.801, -31.5111, 115.035, -150.752, 117.484, 89.212, 0, 0, 5.27455, -54.585, 5.23567, -173.826, 5.35991, 66.1381, 0.0445767, -115.976
1, 960.00000, 115.801, -31.5111, 115.035, -150.752, 117.484, 89.212, 0, 0, 5.27455, -54.585, 5.23567, -173.826, 5.35991, 66.1381, 0.0445767, -115.976
1, 1020.00000, 115.801, -31.5111, 115.035, -150.752, 117.484, 89.212, 0, 0, 5.27455, -54.585, 5.23567, -173.826, 5.35991, 66.1381, 0.0445767, -115.976
1, 1080.00000, 115.801, -31.5111, 115.035, -150.752, 117.484, 89.212, 0, 0, 5.27455, -54.585, 5.23567, -173.826, 5.35991, 66.1381, 0.0445767, -115.976
1, 1140.00000, 115.801, -31.5111, 115.035, -150.752, 117.484, 89.212, 0, 0, 5.27455, -54.585, 5.23567, -173.826, 5.35991, 66.1381, 0.0445767, -115.976
1, 1200.00000, 115.801, -31.5111, 115.035, -150.752, 117.484, 89.212, 0, 0, 5.27455, -54.585, 5.23567, -173.826, 5.35991, 66.1381, 0.0445767, -115.976
1, 1260.00000, 115.801, -31.5111, 115.035, -150.752, 117.484, 89.212, 0, 0, 5.27455, -54.585, 5.23567, -173.826, 5.35991, 66.1381, 0.0445767, -115.976
1, 1320.00000, 115.801, -31.5111, 115.035, -150.752, 117.484, 89.212, 0, 0, 5.27455, -54.585, 5.23567, -173.826, 5.35991, 66.1381, 0.0445767, -115.976
1, 1380.00000, 115.801, -31.5111, 115.035, -150.752, 117.484, 89.212, 0, 0, 5.27455, -54.585, 5.23567, -173.826, 5.35991, 66.1381, 0.0445767, -115.976
1, 1440.00000, 115.801, -31.5111, 115.035, -150.752, 117.484, 89.212, 0, 0, 5.27455, -54.585, 5.23567, -173.826, 5.35991, 66.1381, 0.0445767, -115.976
1, 1500.00000, 115.801, -31.5111, 115.035, -150.752, 117.484, 89.212, 0, 0, 5.27455, -54.585, 5.23567, -173.826, 5.35991, 66.1381, 0.0445767, -115.976
1, 1560.00000, 115.801, -31.5111, 115.035, -150.752, 117.484, 89.212, 0, 0, 5.27455, -54.585, 5.23567, -173.826, 5.35991, 66.1381, 0.0445767, -115.976
1, 1620.00000, 115.801, -31.5111, 115.035, -150.752, 117.484, 89.212, 0, 0, 5.27455, -54.585, 5.23567, -173.826, 5.35991, 66.1381, 0.0445767, -115.976
1, 1680.00000, 115.801, -31.5111, 115.035, -150.752, 117.484, 89.212, 0, 0, 5.27455, -54.585, 5.23567, -173.826, 5.35991, 66.1381, 0.0445767, -115.976
1, 1740.00000, 115.801, -31.5111, 115.035, -150.752, 117.484, 89.212, 0, 0, 5.27455, -54.585, 5.23567, -173.826, 5.35991, 66.1381, 0.0445767, -115.976
1, 1800.00000, 115.801, -31.5111, 115.035, -150.752, 117.484, 89.212, 0, 0, 5.27455, -54.585, 5.23567, -173.826, 5.35991, 66.1381, 0.0445767, -115.976
1, 1860.00000, 115.801, -31.5111, 115.035, -150.752, 117.484, 89.212, 0, 0, 5.27455, -54.585, 5.23567, -173.826, 5.35991, 66.1381, 0.0445767, -115.976
1, 1920.00000, 115.801, -31.5111, 115.035, -150.752, 117.484, 89.212, 0, 0, 5.27455, -54.585, 5.23567, -173.826, 5.35991, 66.1381, 0.0445767, -115.976
1, 1980.00000, 115.801, -31.5111, 115.035, -150.752, 117.484, 89.212, 0, 0, 5.27455, -54.585, 5.23567, -173.826, 5.35991, 66.1381, 0.0445767, -115.976
1, 2040.00000, 115.801, -31.5111, 115.035, -150.752, 117.484, 89.212, 0, 0, 5.27455, -54.585, 5.23567, -173.826, 5.35991, 66.1381, 0.0445767, -115.976
1, 2100.00000, 115.801, -31.5111, 115.035, -150.752, 117.484, 89.212, 0, 0, 5.27455, -54.585, 5.23567, -173.826, 5.35991, 66.1381, 0.0445767, -115.976
1, 2160.00000, 115.801, -31.5111, 115.035, -150.752, 117.484, 89.212, 0, 0, 5.27455, -54.585, 5.23567, -173.826, 5.35991, 66.1381, 0.0445767, -115.976
1, 2220.00000, 116.477, -31.2347, 115.854, -150.908, 117.441, 89.2255, 0, 0, 5.30883, -54.3087, 5.27719, -173.982, 5.35774, 66.1516, 0.0385253, -113.543
1, 2280.00000, 116.477, -31.2347, 115.854, -150.908, 117.441, 89.2255, 0, 0, 5.30883, -54.3087, 5.27723, -173.982, 5.35773, 66.1516, 0.0384782, -113.518
1, 2340.00000, 116.477, -31.2347, 115.854, -150.908, 117.441, 89.2255, 0, 0, 5.30883, -54.3087, 5.27723, -173.982, 5.35773, 66.1516, 0.038478, -113.518
1, 2400.00000, 116.477, -31.2347, 115.854, -150.908, 117.441, 89.2255, 0, 0, 5.30883, -54.3087, 5.27723, -173.982, 5.35773, 66.1516, 0.038478, -113.518
1, 2460.00000, 116.477, -31.2347, 115.854, -150.908, 117.441, 89.2255, 0, 0, 5.30883, -54.3087, 5.27723, -173.982, 5.35773, 66.1516, 0.038478, -113.518
1, 2520.00000, 116.477, -31.2347, 115.854, -150.908, 117.441, 89.2255, 0, 0, 5.30883, -54.3087, 5.27723, -173.982, 5.35773, 66.1516, 0.038478, -113.518
1, 2580.00000, 116.477, -31.2347, 115.854, -150.908, 117.441, 89.2255, 0, 0, 5.30883, -54.3087, 5.27723, -173.982, 5.35773, 66.1516, 0.038478, -113.518
1, 2640.00000, 116.477, -31.2347, 115.854, -150.908, 117.441, 89.2255, 0, 0, 5.30883, -54.3087, 5.27723, -173.982, 5.35773, 66.1516, 0.038478, -113.518
1, 2700.00000, 116.477, -31.2347, 115.854, -150.908, 117.441, 89.2255, 0, 0, 5.30883, -54.3087, 5.27723, -173.982, 5.35773, 66.1516, 0.038478, -113.518
1, 2760.00000, 116.477, -31.2347, 115.854, -150.908, 117.441, 89.2255, 0, 0, 5.30883, -54.3087, 5.27723, -173.982, 5.35773, 66.1516, 0.038478, -113.518
1, 2820.00000, 116.477, -31.2347, 115.854, -150.908, 117.441, 89.2255, 0, 0, 5.30883, -54.3087, 5.27723, -173.982, 5.35773, 66.1516, 0.038478, -113.518
1, 2880.00000, 116.477, -31.2347, 115.854, -150.908, 117.441, 89.2255, 0, 0, 5.30883, -54.3087, 5.27723, -173.982, 5.35773, 66.1516, 0.038478, -113.518
1, 2940.00000, 116.477, -31.2347, 115.854, -150.908, 117.441, 89.2255, 0, 0, 5.30883, -54.3087, 5.27723, -173.982, 5.35773, 66.1516, 0.038478, -113.518
1, 3000.00000, 116.477, -31.2347, 115.854, -150.908, 117.441, 89.2255, 0, 0, 5.30883, -54.3087, 5.27723, -173.982, 5.35773, 66.1516, 0.038478, -113.518
1, 3060.00000, 116.477, -31.2347, 115.854, -150.908, 117.441, 89.2255, 0, 0, 5.30883, -54.3087, 5.27723, -173.982, 5.35773, 66.1516, 0.038478, -113.518
1, 3120.00000, 116.477, -31.2347, 115.854, -150.908, 117.441, 89.2255, 0, 0, 5.30883, -54.3087, 5.27723, -173.982, 5.35773, 66.1516, 0.038478, -113.518
1, 3180.00000, 116.477, -31.2347, 115.854, -150.908, 117.441, 89.2255, 0, 0, 5.30883, -54.3087, 5.27723, -173.982, 5.35773, 66.1516, 0.038478, -113.518
1, 3240.00000, 116.477, -31.2347, 115.854, -150.908, 117.441, 89.2255, 0, 0, 5.30883, -54.3087, 5.27723, -173.982, 5.35773, 66.1516, 0.038478, -113.518
1, 3300.00000, 116.477, -31.2347, 115.854, -150.908, 117.441, 89.2255, 0, 0, 5.30883, -54.3087, 5.27723, -173.982, 5.35773, 66.1516, 0.038478, -113.518
1, 3360.00000, 116.477, -31.2347, 115.854, -150.908, 117.441, 89.2255, 0, 0, 5.30883, -54.3087, 5.27723, -173.982, 5.35773, 66.1516, 0.038478, -113.518
1, 3420.00000, 116.477, -31.2347, 115.854, -150.908, 117.441, 89.2255, 0, 0, 5.30883, -54.3087, 5.27723, -173.982, 5.35773, 66.1516, 0.038478, -113.518
1, 3480.00000, 116.477, -31.2347, 115.854, -150.908, 117.441, 89.2255, 0, 0, 5.30883, -54.3087, 5.27723, -173.982, 5.35773, 66.1516, 0.038478, -113.518
1, 3540.00000, 116.477, -31.2347, 115.854, -150.908, 117.441, 89.2255, 0, 0, 5.30883, -54.3087, 5.27723, -173.982, 5.35773, 66.1516, 0.038478, -113.518
2, 0.00000, 116.477, -31.2347, 115.854, -150.908, 117.441, 89.2255, 0, 0, 5.30883, -54.3087, 5.27723, -173.982, 5.35773, 66.1516, 0.038478, -113.518
2, 60.00000, 116.477, -31.2347, 115.854, -150.908, 117.441, 89.2255, 0, 0, 5.30883, -54.3087, 5.27723, -173.982, 5.35773, 66.1516, 0.038478, -113.518
2, 120.00000, 116.477, -31.2347, 115.854, -150.908, 117.441, 89.2255, 0, 0, 5.30883, -54.3087, 5.27723, -173.982, 5.35773, 66.1516, 0.038478, -113.518
2, 180.00000, 116.477, -31.2347, 115.854, -150.908, 117.441, 89.2255, 0, 0, 5.30883, -54.3087, 5.27723, -173.982, 5.35773, 66.1516, 0.038478, -113.518
2, 240.00000, 116.477, -31.2347, 115.854, -150.908, 117.441, 89.2255, 0, 0, 5.30883, -54.3087, 5.27723, -173.982, 5.35773, 66.1516, 0.038478, -113.518
2, 300.00000, 116.477, -31.2347, 115.854, -150.908, 117.441, 89.2255, 0, 0, 5.30883, -54.3087, 5.27723, -173.982, 5.35773, 66.1516, 0.038478, -113.518
2, 360.00000, 116.477, -31.2347, 115.854, -150.908, 117.441, 89.2255, 0, 0, 5.30883, -54.3087, 5.27723, -173.982, 5.35773, 66.1516, 0.038478, -113.518
2, 420.00000, 116.477, -31.2347, 115.854, -150.908, 117.441, 89.2255, 0, 0, 5.30883, -54.3087, 5.27723, -173.982, 5.35773, 66.1516, 0.038478, -113.518
2, 480.00000, 116.477, -31.2347, 115.854, -150.908, 117.441, 89.2255, 0, 0, 5.30883, -54.3087, 5.27723, -173.982, 5.35773, 66.1516, 0.038478, -113.518
2, 540.00000, 116.477, -31.2347, 115.854, -150.908, 117.441, 89.2255, 0, 0, 5.30883, -54.3087, 5.27723, -173.982, 5.35773, 66.1516, 0.038478, -113.518
2, 600.00000, 116.477, -31.2347, 115.854, -150.908, 117.441, 89.2255, 0, 0, 5.30883, -54.3087, 5.27723, -173.982, 5.35773, 66.1516, 0.038478, -113.518
2, 660.00000, 116.477, -31.2347, 115.854, -150.908, 117.441, 89.2255, 0, 0, 5.30883, -54.3087, 5.27723, -173.982, 5.35773, 66.1516, 0.038478, -113.518
