hour,t(sec),V1,VAngle1,V2,VAngle2,V3,VAngle3,V4,VAngle4,I1,IAngle1,I2,IAngle2,I3,IAngle3,I4,IAngle4
0, 60.00000, 124.103, -31.5854, 124.249, -151.31, 124.9, 88.511, 0, 0, 0.862741, -54.6591, 0.861726, -174.384, 0.857241, 65.4373, 0.00871044, 75.3683
0, 120.00000, 124.103, -31.5854, 124.249, -151.31, 124.9, 88.511, 0, 0, 0.862749, -54.6593, 0.861735, -174.384, 0.857246, 65.4371, 0.00871331, 75.3563
0, 180.00000, 124.103, -31.5854, 124.249, -151.31, 124.9, 88.511, 0, 0, 0.862749, -54.6593, 0.861735, -174.384, 0.857246, 65.4371, 0.00871333, 75.3562
0, 240.00000, 124.103, -31.5854, 124.249, -151.31, 124.9, 88.511, 0, 0, 0.862749, -54.6593, 0.861735, -174.384, 0.857246, 65.4371, 0.00871333, 75.3562
0, 300.00000, 124.103, -31.5854, 124.249, -151.31, 124.9, 88.511, 0, 0, 0.862749, -54.6593, 0.861735, -174.384, 0.857246, 65.4371, 0.00871333, 75.3562
0, 360.00000, 124.103, -31.5854, 124.249, -151.31, 124.9, 88.511, 0, 0, 0.862749, -54.6593, 0.861735, -174.384, 0.857246, 65.4371, 0.00871333, 75.3562
0, 420.00000, 124.103, -31.5854, 124.249, -151.31, 124.9, 88.511, 0, 0, 0.862749, -54.6593, 0.861735, -174.384, 0.857246, 65.4371, 0.00871333, 75.3562
0, 480.00000, 124.564, -31.4574, 124.703, -151.181, 125.348, 88.6431, 0, 0, 0.958547, -54.5316, 0.957484, -174.256, 0.952557, 65.5688, 0.0095791, 74.8896
0, 540.00000, 124.564, -31.4574, 124.703, -151.181, 125.348, 88.6431, 0, 0, 0.958538, -54.5313, 0.957471, -174.255, 0.952544, 65.5692, 0.00958017, 74.8994
0, 600.00000, 124.564, -31.4574, 124.703, -151.181, 125.348, 88.6431, 0, 0, 0.958538, -54.5313, 0.957471, -174.255, 0.952544, 65.5692, 0.00958019, 74.8995
0, 660.00000, 124.564, -31.4574, 124.703, -151.181, 125.348, 88.6431, 0, 0, 0.958538, -54.5313, 0.957471, -174.255, 0.952544, 65.5692, 0.00958019, 74.8995
0, 720.00000, 124.564, -31.4574, 124.703, -151.181, 125.348, 88.6431, 0, 0, 0.958538, -54.5313, 0.957471, -174.255, 0.952544, 65.5692, 0.00958019, 74.8995
0, 780.00000, 124.564, -31.4574, 124.703, -151.181, 125.348, 88.6431, 0, 0, 0.958538, -54.5313, 0.957471, -174.255, 0.952544, 65.5692, 0.00958019, 74.8995
0, 840.00000, 124.564, -31.4574, 124.703, -151.181, 125.348, 88.6431, 0, 0, 0.958538, -54.5313, 0.957471, -174.255, 0.952544, 65.5692, 0.00958019, 74.8995
0, 900.00000, 124.564, -31.4574, 124.703, -151.181, 125.348, 88.6431, 0, 0, 0.958538, -54.5313, 0.957471, -174.255, 0.952544, 65.5692, 0.00958019, 74.8995
0, 960.00000, 124.564, -31.4574, 124.703, -151.181, 125.348, 88.6431, 0, 0, 0.958538, -54.5313, 0.957471, -174.255, 0.952544, 65.5692, 0.00958019, 74.8995
0, 1020.00000, 124.564, -31.4574, 124.703, -151.181, 125.348, 88.6431, 0, 0, 0.958538, -54.5313, 0.957471, -174.255, 0.952544, 65.5692, 0.00958019, 74.8995
0, 1080.00000, 124.564, -31.4574, 124.703, -151.181, 125.348, 88.6431, 0, 0, 0.958538, -54.5313, 0.957471, -174.255, 0.952544, 65.5692, 0.00958019, 74.8995
0, 1140.00000, 124.564, -31.4574, 124.703, -151.181, 125.348, 88.6431, 0, 0, 0.958538, -54.5313, 0.957471, -174.255, 0.952544, 65.5692, 0.00958019, 74.8995
0, 1200.00000, 124.564, -31.4574, 124.703, -151.181, 125.348, 88.6431, 0, 0, 0.958538, -54.5313, 0.957471, -174.255, 0.952544, 65.5692, 0.00958019, 74.8995
0, 1260.00000, 124.564, -31.4574, 124.703, -151.181, 125.348, 88.6431, 0, 0, 0.958538, -54.5313, 0.957471, -174.255, 0.952544, 65.5692, 0.00958019, 74.8995
0, 1320.00000, 124.564, -31.4574, 124.703, -151.181, 125.348, 88.6431, 0, 0, 0.958538, -54.5313, 0.957471, -174.255, 0.952544, 65.5692, 0.00958019, 74.8995
0, 1380.00000, 124.564, -31.4574, 124.703, -151.181, 125.348, 88.6431, 0, 0, 0.958538, -54.5313, 0.957471, -174.255, 0.952544, 65.5692, 0.00958019, 74.8995
0, 1440.00000, 124.564, -31.4574, 124.703, -151.181, 125.348, 88.6431, 0, 0, 0.958538, -54.5313, 0.957471, -174.255, 0.952544, 65.5692, 0.00958019, 74.8995
0, 1500.00000, 124.564, -31.4574, 124.703, -151.181, 125.348, 88.6431, 0, 0, 0.958538, -54.5313, 0.957471, -174.255, 0.952544, 65.5692, 0.00958019, 74.8995
0, 1560.00000, 124.564, -31.4574, 124.703, -151.181, 125.348, 88.6431, 0, 0, 0.958538, -54.5313, 0.957471, -174.255, 0.952544, 65.5692, 0.00958019, 74.8995
0, 1620.00000, 124.564, -31.4574, 124.703, -151.181, 125.348, 88.6431, 0, 0, 0.958538, -54.5313, 0.957471, -174.255, 0.952544, 65.5692, 0.00958019, 74.8995
0, 1680.00000, 124.564, -31.4574, 124.703, -151.181, 125.348, 88.6431, 0, 0, 0.958538, -54.5313, 0.957471, -174.255, 0.952544, 65.5692, 0.00958019, 74.8995
0, 1740.00000, 124.564, -31.4574, 124.703, -151.181, 125.348, 88.6431, 0, 0, 0.958538, -54.5313, 0.957471, -174.255, 0.952544, 65.5692, 0.00958019, 74.8995
0, 1800.00000, 124.564, -31.4574, 124.703, -151.181, 125.348, 88.6431, 0, 0, 0.958538, -54.5313, 0.957471, -174.255, 0.952544, 65.5692, 0.00958019, 74.8995
0, 1860.00000, 124.564, -31.4574, 124.703, -151.181, 125.348, 88.6431, 0, 0, 0.958538, -54.5313, 0.957471, -174.255, 0.952544, 65.5692, 0.00958019, 74.8995
0, 1920.00000, 124.564, -31.4574, 124.703, -151.181, 125.348, 88.6431, 0, 0, 0.958538, -54.5313, 0.957471, -174.255, 0.952544, 65.5692, 0.00958019, 74.8995
0, 1980.00000, 124.564, -31.4574, 124.703, -151.181, 125.348, 88.6431, 0, 0, 0.958538, -54.5313, 0.957471, -174.255, 0.952544, 65.5692, 0.00958019, 74.8995
0, 2040.00000, 124.564, -31.4574, 124.703, -151.181, 125.348, 88.6431, 0, 0, 0.958538, -54.5313, 0.957471, -174.255, 0.952544, 65.5692, 0.00958019, 74.8995
0, 2100.00000, 124.564, -31.4574, 124.703, -151.181, 125.348, 88.6431, 0, 0, 0.958538, -54.5313, 0.957471, -174.255, 0.952544, 65.5692, 0.00958019, 74.8995
0, 2160.00000, 124.564, -31.4574, 124.703, -151.181, 125.348, 88.6431, 0, 0, 0.958538, -54.5313, 0.957471, -174.255, 0.952544, 65.5692, 0.00958019, 74.8995
0, 2220.00000, 124.564, -31.4574, 124.703, -151.181, 125.348, 88.6431, 0, 0, 0.958538, -54.5313, 0.957471, -174.255, 0.952544, 65.5692, 0.00958019, 74.8995
0, 2280.00000, 124.564, -31.4574, 124.703, -151.181, 125.348, 88.6431, 0, 0, 0.958538, -54.5313, 0.957471, -174.255, 0.952544, 65.5692, 0.00958019, 74.8995
0, 2340.00000, 124.564, -31.4574, 124.703, -151.181, 125.348, 88.6431, 0, 0, 0.958538, -54.5313, 0.957471, -174.255, 0.952544, 65.5692, 0.00958019, 74.8995
0, 2400.00000, 124.564, -31.4574, 124.703, -151.181, 125.348, 88.6431, 0, 0, 0.958538, -54.5313, 0.957471, -174.255, 0.952544, 65.5692, 0.00958019, 74.8995
0, 2460.00000, 124.564, -31.4574, 124.703, -151.181, 125.348, 88.6431, 0, 0, 0.958538, -54.5313, 0.957471, -174.255, 0.952544, 65.5692, 0.00958019, 74.8995
0, 2520.00000, 124.564, -31.4574, 124.703, -151.181, 125.348, 88.6431, 0, 0, 0.958538, -54.5313, 0.957471, -174.255, 0.952544, 65.5692, 0.00958019, 74.8995
0, 2580.00000, 124.564, -31.4574, 124.703, -151.181, 125.348, 88.6431, 0, 0, 0.958538, -54.5313, 0.957471, -174.255, 0.952544, 65.5692, 0.00958019, 74.8995
0, 2640.00000, 124.564, -31.4574, 124.703, -151.181, 125.348, 88.6431, 0, 0, 0.958538, -54.5313, 0.957471, -174.255, 0.952544, 65.5692, 0.00958019, 74.8995
0, 2700.00000, 124.564, -31.4574, 124.703, -151.181, 125.348, 88.6431, 0, 0, 0.958538, -54.5313, 0.957471, -174.255, 0.952544, 65.5692, 0.00958019, 74.8995
0, 2760.00000, 124.564, -31.4574, 124.703, -151.181, 125.348, 88.6431, 0, 0, 0.958538, -54.5313, 0.957471, -174.255, 0.952544, 65.5692, 0.00958019, 74.8995
0, 2820.00000, 124.564, -31.4574, 124.703, -151.181, 125.348, 88.6431, 0, 0, 0.958538, -54.5313, 0.957471, -174.255, 0.952544, 65.5692, 0.00958019, 74.8995
0, 2880.00000, 124.564, -31.4574, 124.703, -151.181, 125.348, 88.6431, 0, 0, 0.958538, -54.5313, 0.957471, -174.255, 0.952544, 65.5692, 0.00958019, 74.8995
0, 2940.00000, 124.564, -31.4574, 124.703, -151.181, 125.348, 88.6431, 0, 0, 0.958538, -54.5313, 0.957471, -174.255, 0.952544, 65.5692, 0.00958019, 74.8995
0, 3000.00000, 124.564, -31.4574, 124.703, -151.181, 125.348, 88.6431, 0, 0, 0.958538, -54.5313, 0.957471, -174.255, 0.952544, 65.5692, 0.00958019, 74.8995
0, 3060.00000, 124.564, -31.4574, 124.703, -151.181, 125.348, 88.6431, 0, 0, 0.958538, -54.5313, 0.957471, -174.255, 0.952544, 65.5692, 0.00958019, 74.8995
0, 3120.00000, 124.564, -31.4574, 124.703, -151.181, 125.348, 88.6431, 0, 0, 0.958538, -54.5313, 0.957471, -174.255, 0.952544, 65.5692, 0.00958019, 74.8995
0, 3180.00000, 124.564, -31.4574, 124.703, -151.181, 125.348, 88.6431, 0, 0, 0.958538, -54.5313, 0.957471, -174.255, 0.952544, 65.5692, 0.00958019, 74.8995
0, 3240.00000, 124.564, -31.4574, 124.703, -151.181, 125.348, 88.6431, 0, 0, 0.958538, -54.5313, 0.957471, -174.255, 0.952544, 65.5692, 0.00958019, 74.8995
0, 3300.00000, 124.564, -31.4574, 124.703, -151.181, 125.348, 88.6431, 0, 0, 0.958538, -54.5313, 0.957471, -174.255, 0.952544, 65.5692, 0.00958019, 74.8995
0, 3360.00000, 124.564, -31.4574, 124.703, -151.181, 125.348, 88.6431, 0, 0, 0.958538, -54.5313, 0.957471, -174.255, 0.952544, 65.5692, 0.00958019, 74.8995
0, 3420.00000, 124.564, -31.4574, 124.703, -151.181, 125.348, 88.6431, 0, 0, 0.958538, -54.5313, 0.957471, -174.255, 0.952544, 65.5692, 0.00958019, 74.8995
0, 3480.00000, 124.564, -31.4574, 124.703, -151.181, 125.348, 88.6431, 0, 0, 0.958538, -54.5313, 0.957471, -174.255, 0.952544, 65.5692, 0.00958019, 74.8995
0, 3540.00000, 124.564, -31.4574, 124.703, -151.181, 125.348, 88.6431, 0, 0, 0.958538, -54.5313, 0.957471, -174.255, 0.952544, 65.5692, 0.00958019, 74.8995
1, 0.00000, 124.564, -31.4574, 124.703, -151.181, 125.348, 88.6431, 0, 0, 0.958538, -54.5313, 0.957471, -174.255, 0.952544, 65.5692, 0.00958019, 74.8995
1, 60.00000, 124.564, -31.4574, 124.703, -151.181, 125.348, 88.6431, 0, 0, 0.958538, -54.5313, 0.957471, -174.255, 0.952544, 65.5692, 0.00958019, 74.8995
1, 120.00000, 124.564, -31.4574, 124.703, -151.181, 125.348, 88.6431, 0, 0, 0.958538, -54.5313, 0.957471, -174.255, 0.952544, 65.5692, 0.00958019, 74.8995
1, 180.00000, 124.564, -31.4574, 124.703, -151.181, 125.348, 88.6431, 0, 0, 0.958538, -54.5313, 0.957471, -174.255, 0.952544, 65.5692, 0.00958019, 74.8995
1, 240.00000, 124.564, -31.4574, 124.703, -151.181, 125.348, 88.6431, 0, 0, 0.958538, -54.5313, 0.957471, -174.255, 0.952544, 65.5692, 0.00958019, 74.8995
1, 300.00000, 124.564, -31.4574, 124.703, -151.181, 125.348, 88.6431, 0, 0, 0.958538, -54.5313, 0.957471, -174.255, 0.952544, 65.5692, 0.00958019, 74.8995
1, 360.00000, 124.564, -31.4574, 124.703, -151.181, 125.348, 88.6431, 0, 0, 0.958538, -54.5313, 0.957471, -174.255, 0.952544, 65.5692, 0.00958019, 74.8995
1, 420.00000, 124.564, -31.4574, 124.703, -151.181, 125.348, 88.6431, 0, 0, 0.958538, -54.5313, 0.957471, -174.255, 0.952544, 65.5692, 0.00958019, 74.8995
1, 480.00000, 124.564, -31.4574, 124.703, -151.181, 125.348, 88.6431, 0, 0, 0.958538, -54.5313, 0.957471, -174.255, 0.952544, 65.5692, 0.00958019, 74.8995
1, 540.00000, 124.564, -31.4574, 124.703, -151.181, 125.348, 88.6431, 0, 0, 0.958538, -54.5313, 0.957471, -174.255, 0.952544, 65.5692, 0.00958019, 74.8995
1, 600.00000, 124.564, -31.4574, 124.703, -151.181, 125.348, 88.6431, 0, 0, 0.958538, -54.5313, 0.957471, -174.255, 0.952544, 65.5692, 0.00958019, 74.8995
1, 660.00000, 124.564, -31.4574, 124.703, -151.181, 125.348, 88.6431, 0, 0, 0.958538, -54.5313, 0.957471, -174.255, 0.952544, 65.5692, 0.00958019, 74.8995
1, 720.00000, 124.564, -31.4574, 124.703, -151.181, 125.348, 88.6431, 0, 0, 0.958538, -54.5313, 0.957471, -174.255, 0.952544, 65.5692, 0.00958019, 74.8995
1, 780.00000, 124.564, -31.4574, 124.703, -151.181, 125.348, 88.6431, 0, 0, 0.958538, -54.5313, 0.957471, -174.255, 0.952544, 65.5692, 0.00958019, 74.8995
1, 840.00000, 124.564, -31.4574, 124.703, -151.181, 125.348, 88.6431, 0, 0, 0.958538, -54.5313, 0.957471, -174.255, 0.952544, 65.5692, 0.00958019, 74.8995
1, 900.00000, 124.564, -31.4574, 124.703, -151.181, 125.348, 88.6431, 0, 0, 0.958538, -54.5313, 0.957471, -174.255, 0.952544, 65.5692, 0.00958019, 74.8995
1, 960.00000, 124.564, -31.4574, 124.703, -151.181, 125.348, 88.6431, 0, 0, 0.958538, -54.5313, 0.957471, -174.255, 0.952544, 65.5692, 0.00958019, 74.8995
1, 1020.00000, 124.564, -31.4574, 124.703, -151.181, 125.348, 88.6431, 0, 0, 0.958538, -54.5313, 0.957471, -174.255, 0.952544, 65.5692, 0.00958019, 74.8995
1, 1080.00000, 124.564, -31.4574, 124.703, -151.181, 125.348, 88.6431, 0, 0, 0.958538, -54.5313, 0.957471, -174.255, 0.952544, 65.5692, 0.00958019, 74.8995
1, 1140.00000, 124.564, -31.4574, 124.703, -151.181, 125.348, 88.6431, 0, 0, 0.958538, -54.5313, 0.957471, -174.255, 0.952544, 65.5692, 0.00958019, 74.8995
1, 1200.00000, 124.564, -31.4574, 124.703, -151.181, 125.348, 88.6431, 0, 0, 0.958538, -54.5313, 0.957471, -174.255, 0.952544, 65.5692, 0.00958019, 74.8995
1, 1260.00000, 124.564, -31.4574, 124.703, -151.181, 125.348, 88.6431, 0, 0, 0.958538, -54.5313, 0.957471, -174.255, 0.952544, 65.5692, 0.00958019, 74.8995
1, 1320.00000, 124.564, -31.4574, 124.703, -151.181, 125.348, 88.6431, 0, 0, 0.958538, -54.5313, 0.957471, -174.255, 0.952544, 65.5692, 0.00958019, 74.8995
1, 1380.00000, 124.564, -31.4574, 124.703, -151.181, 125.348, 88.6431, 0, 0, 0.958538, -54.5313, 0.957471, -174.255, 0.952544, 65.5692, 0.00958019, 74.8995
1, 1440.00000, 124.564, -31.4574, 124.703, -151.181, 125.348, 88.6431, 0, 0, 0.958538, -54.5313, 0.957471, -174.255, 0.952544, 65.5692, 0.00958019, 74.8995
1, 1500.00000, 124.564, -31.4574, 124.703, -151.181, 125.348, 88.6431, 0, 0, 0.958538, -54.5313, 0.957471, -174.255, 0.952544, 65.5692, 0.00958019, 74.8995
1, 1560.00000, 124.564, -31.4574, 124.703, -151.181, 125.348, 88.6431, 0, 0, 0.958538, -54.5313, 0.957471, -174.255, 0.952544, 65.5692, 0.00958019, 74.8995
1, 1620.00000, 124.564, -31.4574, 124.703, -151.181, 125.348, 88.6431, 0, 0, 0.958538, -54.5313, 0.957471, -174.255, 0.952544, 65.5692, 0.00958019, 74.8995
1, 1680.00000, 124.564, -31.4574, 124.703, -151.181, 125.348, 88.6431, 0, 0, 0.958538, -54.5313, 0.957471, -174.255, 0.952544, 65.5692, 0.00958019, 74.8995
1, 1740.00000, 124.564, -31.4574, 124.703, -151.181, 125.348, 88.6431, 0, 0, 0.958538, -54.5313, 0.957471, -174.255, 0.952544, 65.5692, 0.00958019, 74.8995
1, 1800.00000, 124.564, -31.4574, 124.703, -151.181, 125.348, 88.6431, 0, 0, 0.958538, -54.5313, 0.957471, -174.255, 0.952544, 65.5692, 0.00958019, 74.8995
1, 1860.00000, 124.564, -31.4574, 124.703, -151.181, 125.348, 88.6431, 0, 0, 0.958538, -54.5313, 0.957471, -174.255, 0.952544, 65.5692, 0.00958019, 74.8995
1, 1920.00000, 124.564, -31.4574, 124.703, -151.181, 125.348, 88.6431, 0, 0, 0.958538, -54.5313, 0.957471, -174.255, 0.952544, 65.5692, 0.00958019, 74.8995
1, 1980.00000, 124.564, -31.4574, 124.703, -151.181, 125.348, 88.6431, 0, 0, 0.958538, -54.5313, 0.957471, -174.255, 0.952544, 65.5692, 0.00958019, 74.8995
1, 2040.00000, 124.564, -31.4574, 124.703, -151.181, 125.348, 88.6431, 0, 0, 0.958538, -54.5313, 0.957471, -174.255, 0.952544, 65.5692, 0.00958019, 74.8995
1, 2100.00000, 124.564, -31.4574, 124.703, -151.181, 125.348, 88.6431, 0, 0, 0.958538, -54.5313, 0.957471, -174.255, 0.952544, 65.5692, 0.00958019, 74.8995
1, 2160.00000, 124.564, -31.4574, 124.703, -151.181, 125.348, 88.6431, 0, 0, 0.958538, -54.5313, 0.957471, -174.255, 0.952544, 65.5692, 0.00958019, 74.8995
1, 2220.00000, 124.564, -31.4574, 124.703, -151.181, 125.348, 88.6431, 0, 0, 0.958538, -54.5313, 0.957471, -174.255, 0.952544, 65.5692, 0.00958019, 74.8995
1, 2280.00000, 124.564, -31.4574, 124.703, -151.181, 125.348, 88.6431, 0, 0, 0.958538, -54.5313, 0.957471, -174.255, 0.952544, 65.5692, 0.00958019, 74.8995
1, 2340.00000, 124.564, -31.4574, 124.703, -151.181, 125.348, 88.6431, 0, 0, 0.958538, -54.5313, 0.957471, -174.255, 0.952544, 65.5692, 0.00958019, 74.8995
1, 2400.00000, 124.564, -31.4574, 124.703, -151.181, 125.348, 88.6431, 0, 0, 0.958538, -54.5313, 0.957471, -174.255, 0.952544, 65.5692, 0.00958019, 74.8995
1, 2460.00000, 124.564, -31.4574, 124.703, -151.181, 125.348, 88.6431, 0, 0, 0.958538, -54.5313, 0.957471, -174.255, 0.952544, 65.5692, 0.00958019, 74.8995
1, 2520.00000, 124.564, -31.4574, 124.703, -151.181, 125.348, 88.6431, 0, 0, 0.958538, -54.5313, 0.957471, -174.255, 0.952544, 65.5692, 0.00958019, 74.8995
1, 2580.00000, 124.564, -31.4574, 124.703, -151.181, 125.348, 88.6431, 0, 0, 0.958538, -54.5313, 0.957471, -174.255, 0.952544, 65.5692, 0.00958019, 74.8995
1, 2640.00000, 124.564, -31.4574, 124.703, -151.181, 125.348, 88.6431, 0, 0, 0.958538, -54.5313, 0.957471, -174.255, 0.952544, 65.5692, 0.00958019, 74.8995
1, 2700.00000, 124.564, -31.4574, 124.703, -151.181, 125.348, 88.6431, 0, 0, 0.958538, -54.5313, 0.957471, -174.255, 0.952544, 65.5692, 0.00958019, 74.8995
1, 2760.00000, 124.564, -31.4574, 124.703, -151.181, 125.348, 88.6431, 0, 0, 0.958538, -54.5313, 0.957471, -174.255, 0.952544, 65.5692, 0.00958019, 74.8995
1, 2820.00000, 124.564, -31.4574, 124.703, -151.181, 125.348, 88.6431, 0, 0, 0.958538, -54.5313, 0.957471, -174.255, 0.952544, 65.5692, 0.00958019, 74.8995
1, 2880.00000, 124.564, -31.4574, 124.703, -151.181, 125.348, 88.6431, 0, 0, 0.958538, -54.5313, 0.957471, -174.255, 0.952544, 65.5692, 0.00958019, 74.8995
1, 2940.00000, 124.564, -31.4574, 124.703, -151.181, 125.348, 88.6431, 0, 0, 0.958538, -54.5313, 0.957471, -174.255, 0.952544, 65.5692, 0.00958019, 74.8995
1, 3000.00000, 124.564, -31.4574, 124.703, -151.181, 125.348, 88.6431, 0, 0, 0.958538, -54.5313, 0.957471, -174.255, 0.952544, 65.5692, 0.00958019, 74.8995
1, 3060.00000, 124.564, -31.4574, 124.703, -151.181, 125.348, 88.6431, 0, 0, 0.958538, -54.5313, 0.957471, -174.255, 0.952544, 65.5692, 0.00958019, 74.8995
1, 3120.00000, 124.564, -31.4574, 124.703, -151.181, 125.348, 88.6431, 0, 0, 0.958538, -54.5313, 0.957471, -174.255, 0.952544, 65.5692, 0.00958019, 74.8995
1, 3180.00000, 124.564, -31.4574, 124.703, -151.181, 125.348, 88.6431, 0, 0, 0.958538, -54.5313, 0.957471, -174.255, 0.952544, 65.5692, 0.00958019, 74.8995
1, 3240.00000, 124.564, -31.4574, 124.703, -151.181, 125.348, 88.6431, 0, 0, 0.958538, -54.5313, 0.957471, -174.255, 0.952544, 65.5692, 0.00958019, 74.8995
1, 3300.00000, 124.564, -31.4574, 124.703, -151.181, 125.348, 88.6431, 0, 0, 0.958538, -54.5313, 0.957471, -174.255, 0.952544, 65.5692, 0.00958019, 74.8995
1, 3360.00000, 124.564, -31.4574, 124.703, -151.181, 125.348, 88.6431, 0, 0, 0.958538, -54.5313, 0.957471, -174.255, 0.952544, 65.5692, 0.00958019, 74.8995
1, 3420.00000, 124.564, -31.4574, 124.703, -151.181, 125.348, 88.6431, 0, 0, 0.958538, -54.5313, 0.957471, -174.255, 0.952544, 65.5692, 0.00958019, 74.8995
1, 3480.00000, 124.564, -31.4574, 124.703, -151.181, 125.348, 88.6431, 0, 0, 0.958538, -54.5313, 0.957471, -174.255, 0.952544, 65.5692, 0.00958019, 74.8995
1, 3540.00000, 124.564, -31.4574, 124.703, -151.181, 125.348, 88.6431, 0, 0, 0.958538, -54.5313, 0.957471, -174.255, 0.952544, 65.5692, 0.00958019, 74.8995
2, 0.00000, 124.564, -31.4574, 124.703, -151.181, 125.348, 88.6431, 0, 0, 0.958538, -54.5313, 0.957471, -174.255, 0.952544, 65.5692, 0.00958019, 74.8995
2, 60.00000, 124.564, -31.4574, 124.703, -151.181, 125.348, 88.6431, 0, 0, 0.958538, -54.5313, 0.957471, -174.255, 0.952544, 65.5692, 0.00958019, 74.8995
2, 120.00000, 124.564, -31.4574, 124.703, -151.181, 125.348, 88.6431, 0, 0, 0.958538, -54.5313, 0.957471, -174.255, 0.952544, 65.5692, 0.00958019, 74.8995
2, 180.00000, 124.564, -31.4574, 124.703, -151.181, 125.348, 88.6431, 0, 0, 0.958538, -54.5313, 0.957471, -174.255, 0.952544, 65.5692, 0.00958019, 74.8995
2, 240.00000, 124.564, -31.4574, 124.703, -151.181, 125.348, 88.6431, 0, 0, 0.958538, -54.5313, 0.957471, -174.255, 0.952544, 65.5692, 0.00958019, 74.8995
2, 300.00000, 124.564, -31.4574, 124.703, -151.181, 125.348, 88.6431, 0, 0, 0.958538, -54.5313, 0.957471, -174.255, 0.952544, 65.5692, 0.00958019, 74.8995
2, 360.00000, 124.564, -31.4574, 124.703, -151.181, 125.348, 88.6431, 0, 0, 0.958538, -54.5313, 0.957471, -174.255, 0.952544, 65.5692, 0.00958019, 74.8995
2, 420.00000, 124.564, -31.4574, 124.703, -151.181, 125.348, 88.6431, 0, 0, 0.958538, -54.5313, 0.957471, -174.255, 0.952544, 65.5692, 0.00958019, 74.8995
2, 480.00000, 124.564, -31.4574, 124.703, -151.181, 125.348, 88.6431, 0, 0, 0.958538, -54.5313, 0.957471, -174.255, 0.952544, 65.5692, 0.00958019, 74.8995
