hour,t(sec),V1,VAngle1,V2,VAngle2,V3,VAngle3,V4,VAngle4,I1,IAngle1,I2,IAngle2,I3,IAngle3,I4,IAngle4
0, 60.00000, 125.999, -31.3374, 124.922, -151.708, 124.893, 88.8332, 0, 0, 2.43908, -54.4112, 2.46003, -174.782, 2.46061, 65.7594, 0.0416264, -61.0789
0, 120.00000, 126.016, -31.3382, 124.927, -151.715, 124.893, 88.8332, 0, 0, 2.43873, -54.412, 2.45993, -174.789, 2.46061, 65.7593, 0.0421805, -61.2612
0, 180.00000, 126.032, -31.3389, 124.932, -151.721, 124.893, 88.8332, 0, 0, 2.43842, -54.4127, 2.45984, -174.794, 2.46061, 65.7593, 0.0426792, -61.4198
0, 240.00000, 126.046, -31.3396, 124.936, -151.726, 124.893, 88.8331, 0, 0, 2.43814, -54.4134, 2.45976, -174.8, 2.46061, 65.7593, 0.0431286, -61.5588
0, 300.00000, 126.059, -31.3402, 124.94, -151.731, 124.893, 88.8331, 0, 0, 2.43789, -54.414, 2.45968, -174.804, 2.46062, 65.7593, 0.0435336, -61.681
0, 360.00000, 126.071, -31.3407, 124.943, -151.735, 124.893, 88.8331, 0, 0, 2.43766, -54.4145, 2.45962, -174.809, 2.46062, 65.7592, 0.0438984, -61.7884
0, 420.00000, 126.081, -31.3412, 124.946, -151.739, 124.893, 88.8331, 0, 0, 2.43746, -54.415, 2.45956, -174.812, 2.46062, 65.7592, 0.0442269, -61.883
0, 480.00000, 126.09, -31.3417, 124.949, -151.742, 124.893, 88.8331, 0, 0, 2.43727, -54.4155, 2.45951, -174.816, 2.46062, 65.7592, 0.0445228, -61.9667
0, 540.00000, 126.099, -31.3421, 124.951, -151.745, 124.893, 88.8331, 0, 0, 2.43711, -54.4159, 2.45946, -174.819, 2.46062, 65.7592, 0.0447893, -62.0407
0, 600.00000, 126.106, -31.3424, 124.954, -151.748, 124.893, 88.8331, 0, 0, 2.43696, -54.4163, 2.45942, -174.822, 2.46062, 65.7592, 0.0450292, -62.1063
0, 660.00000, 126.113, -31.3428, 124.956, -151.751, 124.893, 88.833, 0, 0, 2.43683, -54.4166, 2.45938, -174.824, 2.46063, 65.7592, 0.0452453, -62.1646
0, 720.00000, 126.119, -31.3431, 124.957, -151.753, 124.893, 88.833, 0, 0, 2.43671, -54.4169, 2.45935, -174.827, 2.46063, 65.7591, 0.0454398, -62.2164
0, 780.00000, 126.125, -31.3433, 124.959, -151.755, 124.892, 88.833, 0, 0, 2.4366, -54.4172, 2.45931, -174.829, 2.46063, 65.7591, 0.045615, -62.2625
0, 840.00000, 126.13, -31.3436, 124.96, -151.757, 124.892, 88.833, 0, 0, 2.4365, -54.4174, 2.45929, -174.83, 2.46063, 65.7591, 0.0457726, -62.3036
0, 900.00000, 126.134, -31.3438, 124.962, -151.758, 124.892, 88.833, 0, 0, 2.43641, -54.4177, 2.45926, -174.832, 2.46063, 65.7591, 0.0459146, -62.3403
0, 960.00000, 125.706, -31.4112, 124.849, -151.788, 124.693, 88.6773, 0, 0, 2.39248, -54.4851, 2.40889, -174.862, 2.41191, 65.6034, 0.0359183, -68.5456
0, 1020.00000, 125.71, -31.4114, 124.85, -151.789, 124.693, 88.6773, 0, 0, 2.39241, -54.4853, 2.40887, -174.863, 2.41191, 65.6033, 0.0360315, -68.5618
0, 1080.00000, 125.713, -31.4116, 124.851, -151.791, 124.693, 88.6772, 0, 0, 2.39235, -54.4855, 2.40885, -174.865, 2.41192, 65.6033, 0.0361335, -68.5762
0, 1140.00000, 125.716, -31.4118, 124.852, -151.792, 124.693, 88.6772, 0, 0, 2.39229, -54.4856, 2.40883, -174.866, 2.41192, 65.6033, 0.0362254, -68.5891
0, 1200.00000, 125.719, -31.4119, 124.853, -151.793, 124.693, 88.6772, 0, 0, 2.39224, -54.4858, 2.40882, -174.867, 2.41192, 65.6033, 0.0363082, -68.6006
0, 1260.00000, 125.721, -31.412, 124.854, -151.794, 124.693, 88.6772, 0, 0, 2.3922, -54.4859, 2.40881, -174.867, 2.41192, 65.6033, 0.0363827, -68.6109
0, 1320.00000, 125.723, -31.4121, 124.854, -151.794, 124.693, 88.6772, 0, 0, 2.39216, -54.486, 2.4088, -174.868, 2.41192, 65.6033, 0.0364499, -68.6202
0, 1380.00000, 125.725, -31.4122, 124.855, -151.795, 124.693, 88.6772, 0, 0, 2.39212, -54.4861, 2.40879, -174.869, 2.41192, 65.6033, 0.0365104, -68.6286
0, 1440.00000, 125.727, -31.4123, 124.855, -151.796, 124.693, 88.6772, 0, 0, 2.39209, -54.4862, 2.40878, -174.87, 2.41192, 65.6033, 0.0365649, -68.6361
0, 1500.00000, 125.728, -31.4124, 124.856, -151.796, 124.693, 88.6772, 0, 0, 2.39206, -54.4863, 2.40877, -174.87, 2.41192, 65.6033, 0.036614, -68.6428
0, 1560.00000, 125.73, -31.4125, 124.856, -151.797, 124.693, 88.6772, 0, 0, 2.39203, -54.4864, 2.40876, -174.871, 2.41192, 65.6033, 0.0366581, -68.6488
0, 1620.00000, 125.731, -31.4126, 124.856, -151.797, 124.693, 88.6772, 0, 0, 2.39201, -54.4865, 2.40875, -174.871, 2.41192, 65.6033, 0.0366979, -68.6543
0, 1680.00000, 125.732, -31.4126, 124.857, -151.798, 124.693, 88.6772, 0, 0, 2.39198, -54.4865, 2.40875, -174.872, 2.41192, 65.6033, 0.0367337, -68.6591
0, 1740.00000, 125.733, -31.4127, 124.857, -151.798, 124.693, 88.6772, 0, 0, 2.39196, -54.4866, 2.40874, -174.872, 2.41192, 65.6033, 0.036766, -68.6635
0, 1800.00000, 125.734, -31.4127, 124.857, -151.798, 124.693, 88.6772, 0, 0, 2.39195, -54.4866, 2.40874, -174.872, 2.41192, 65.6033, 0.036795, -68.6674
0, 1860.00000, 125.837, -31.3942, 124.948, -151.783, 124.783, 88.6966, 0, 0, 2.25979, -54.4681, 2.27586, -174.857, 2.27887, 65.6226, 0.035106, -68.5914
0, 1920.00000, 125.838, -31.3942, 124.948, -151.783, 124.783, 88.6966, 0, 0, 2.25978, -54.4682, 2.27586, -174.857, 2.27887, 65.6226, 0.0351289, -68.5946
0, 1980.00000, 125.838, -31.3943, 124.949, -151.783, 124.783, 88.6966, 0, 0, 2.25977, -54.4682, 2.27586, -174.857, 2.27887, 65.6226, 0.035149, -68.5975
0, 2040.00000, 125.839, -31.3943, 124.949, -151.784, 124.783, 88.6966, 0, 0, 2.25976, -54.4682, 2.27585, -174.858, 2.27887, 65.6226, 0.0351671, -68.6001
0, 2100.00000, 125.839, -31.3943, 124.949, -151.784, 124.783, 88.6966, 0, 0, 2.25975, -54.4683, 2.27585, -174.858, 2.27887, 65.6226, 0.0351833, -68.6024
0, 2160.00000, 125.84, -31.3944, 124.949, -151.784, 124.783, 88.6966, 0, 0, 2.25974, -54.4683, 2.27585, -174.858, 2.27887, 65.6226, 0.035198, -68.6046
0, 2220.00000, 125.84, -31.3944, 124.949, -151.784, 124.783, 88.6965, 0, 0, 2.25973, -54.4683, 2.27585, -174.858, 2.27887, 65.6226, 0.0352111, -68.6064
0, 2280.00000, 125.841, -31.3944, 124.949, -151.784, 124.783, 88.6965, 0, 0, 2.25972, -54.4683, 2.27584, -174.858, 2.27887, 65.6226, 0.035223, -68.6081
0, 2340.00000, 125.841, -31.3944, 124.949, -151.785, 124.783, 88.6965, 0, 0, 2.25972, -54.4683, 2.27584, -174.858, 2.27887, 65.6226, 0.0352337, -68.6097
0, 2400.00000, 125.841, -31.3944, 124.949, -151.785, 124.783, 88.6965, 0, 0, 2.25971, -54.4684, 2.27584, -174.859, 2.27888, 65.6226, 0.0352433, -68.611
0, 2460.00000, 125.842, -31.3945, 124.95, -151.785, 124.783, 88.6965, 0, 0, 2.25971, -54.4684, 2.27584, -174.859, 2.27888, 65.6226, 0.0352519, -68.6123
0, 2520.00000, 125.842, -31.3945, 124.95, -151.785, 124.783, 88.6965, 0, 0, 2.2597, -54.4684, 2.27584, -174.859, 2.27888, 65.6226, 0.0352597, -68.6134
0, 2580.00000, 125.842, -31.3945, 124.95, -151.785, 124.783, 88.6965, 0, 0, 2.2597, -54.4684, 2.27584, -174.859, 2.27888, 65.6226, 0.0352667, -68.6144
0, 2640.00000, 125.842, -31.3945, 124.95, -151.785, 124.783, 88.6965, 0, 0, 2.25969, -54.4684, 2.27583, -174.859, 2.27888, 65.6226, 0.035273, -68.6153
0, 2700.00000, 125.843, -31.3945, 124.95, -151.785, 124.783, 88.6965, 0, 0, 2.25969, -54.4684, 2.27583, -174.859, 2.27888, 65.6226, 0.0352786, -68.6161
0, 2760.00000, 126.034, -31.353, 125.121, -151.748, 124.955, 88.7402, 0, 0, 2.2085, -54.4269, 2.22461, -174.822, 2.22756, 65.6663, 0.0350204, -68.4031
0, 2820.00000, 126.034, -31.353, 125.121, -151.748, 124.955, 88.7402, 0, 0, 2.2085, -54.4269, 2.22461, -174.822, 2.22756, 65.6663, 0.0350262, -68.4035
0, 2880.00000, 126.034, -31.353, 125.121, -151.748, 124.955, 88.7402, 0, 0, 2.2085, -54.4269, 2.22461, -174.822, 2.22756, 65.6663, 0.0350303, -68.4041
0, 2940.00000, 126.034, -31.353, 125.121, -151.748, 124.955, 88.7402, 0, 0, 2.20849, -54.4269, 2.22461, -174.822, 2.22756, 65.6663, 0.0350339, -68.4047
0, 3000.00000, 126.034, -31.353, 125.121, -151.748, 124.955, 88.7402, 0, 0, 2.20849, -54.4269, 2.22461, -174.822, 2.22756, 65.6663, 0.0350372, -68.4052
0, 3060.00000, 126.034, -31.353, 125.121, -151.748, 124.955, 88.7402, 0, 0, 2.20849, -54.4269, 2.22461, -174.822, 2.22756, 65.6663, 0.0350402, -68.4056
0, 3120.00000, 126.034, -31.353, 125.121, -151.748, 124.955, 88.7402, 0, 0, 2.20849, -54.4269, 2.22461, -174.822, 2.22756, 65.6663, 0.0350428, -68.4061
0, 3180.00000, 126.034, -31.353, 125.121, -151.749, 124.955, 88.7402, 0, 0, 2.20849, -54.4269, 2.22461, -174.822, 2.22756, 65.6663, 0.0350452, -68.4064
0, 3240.00000, 126.035, -31.353, 125.121, -151.749, 124.955, 88.7402, 0, 0, 2.20849, -54.4269, 2.22461, -174.822, 2.22756, 65.6663, 0.0350474, -68.4067
0, 3300.00000, 126.035, -31.353, 125.121, -151.749, 124.955, 88.7402, 0, 0, 2.20848, -54.4269, 2.22461, -174.822, 2.22756, 65.6663, 0.0350493, -68.407
0, 3360.00000, 126.035, -31.353, 125.121, -151.749, 124.955, 88.7402, 0, 0, 2.20848, -54.4269, 2.22461, -174.822, 2.22756, 65.6663, 0.0350511, -68.4073
0, 3420.00000, 126.035, -31.353, 125.121, -151.749, 124.955, 88.7402, 0, 0, 2.20848, -54.4269, 2.22461, -174.823, 2.22756, 65.6663, 0.0350526, -68.4075
0, 3480.00000, 126.035, -31.353, 125.121, -151.749, 124.955, 88.7402, 0, 0, 2.20848, -54.4269, 2.22461, -174.823, 2.22756, 65.6663, 0.035054, -68.4078
0, 3540.00000, 126.335, -31.3168, 125.118, -151.749, 125.038, 88.8639, 0, 0, 2.20323, -54.3908, 2.22466, -174.822, 2.22609, 65.79, 0.0431492, -62.59
1, 0.00000, 126.335, -31.3168, 125.118, -151.749, 125.038, 88.8639, 0, 0, 2.20322, -54.3908, 2.22466, -174.822, 2.22609, 65.79, 0.0431516, -62.5905
1, 60.00000, 126.483, -31.2896, 125.254, -151.725, 125.175, 88.8932, 0, 0, 2.02004, -54.3635, 2.03988, -174.799, 2.04116, 65.8192, 0.0398971, -62.497
1, 120.00000, 126.483, -31.2896, 125.254, -151.725, 125.175, 88.8932, 0, 0, 2.02004, -54.3635, 2.03988, -174.799, 2.04116, 65.8192, 0.0398986, -62.4969
1, 180.00000, 126.483, -31.2896, 125.254, -151.725, 125.175, 88.8932, 0, 0, 2.02004, -54.3635, 2.03988, -174.799, 2.04116, 65.8192, 0.0398994, -62.4972
1, 240.00000, 126.483, -31.2896, 125.254, -151.725, 125.175, 88.8932, 0, 0, 2.02004, -54.3635, 2.03988, -174.799, 2.04116, 65.8192, 0.0399001, -62.4974
1, 300.00000, 126.484, -31.2896, 125.254, -151.725, 125.175, 88.8932, 0, 0, 2.02004, -54.3635, 2.03988, -174.799, 2.04116, 65.8192, 0.0399007, -62.4975
1, 360.00000, 126.484, -31.2896, 125.254, -151.725, 125.175, 88.8932, 0, 0, 2.02004, -54.3635, 2.03988, -174.799, 2.04116, 65.8192, 0.0399012, -62.4977
1, 420.00000, 126.484, -31.2896, 125.254, -151.725, 125.175, 88.8932, 0, 0, 2.02004, -54.3635, 2.03988, -174.799, 2.04116, 65.8192, 0.0399017, -62.4978
1, 480.00000, 126.484, -31.2896, 125.254, -151.725, 125.175, 88.8932, 0, 0, 2.02004, -54.3635, 2.03988, -174.799, 2.04116, 65.8192, 0.0399022, -62.498
1, 540.00000, 126.484, -31.2896, 125.254, -151.725, 125.175, 88.8932, 0, 0, 2.02004, -54.3635, 2.03988, -174.799, 2.04116, 65.8192, 0.0399026, -62.4981
1, 600.00000, 126.484, -31.2896, 125.254, -151.725, 125.175, 88.8932, 0, 0, 2.02004, -54.3635, 2.03988, -174.799, 2.04116, 65.8192, 0.0399029, -62.4982
1, 660.00000, 126.484, -31.2896, 125.254, -151.725, 125.175, 88.8932, 0, 0, 2.02004, -54.3635, 2.03988, -174.799, 2.04116, 65.8192, 0.0399033, -62.4983
1, 720.00000, 126.484, -31.2896, 125.254, -151.725, 125.175, 88.8932, 0, 0, 2.02004, -54.3635, 2.03988, -174.799, 2.04116, 65.8192, 0.0399035, -62.4983
1, 780.00000, 126.484, -31.2896, 125.254, -151.725, 125.175, 88.8932, 0, 0, 2.02004, -54.3635, 2.03988, -174.799, 2.04116, 65.8192, 0.0399038, -62.4984
1, 840.00000, 126.484, -31.2896, 125.254, -151.725, 125.175, 88.8932, 0, 0, 2.02004, -54.3635, 2.03987, -174.799, 2.04116, 65.8192, 0.039904, -62.4985
1, 900.00000, 126.484, -31.2896, 125.254, -151.725, 125.175, 88.8932, 0, 0, 2.02004, -54.3635, 2.03987, -174.799, 2.04116, 65.8192, 0.0399043, -62.4985
1, 960.00000, 126.501, -31.2848, 125.269, -151.721, 125.191, 88.8984, 0, 0, 2.04091, -54.3587, 2.06098, -174.795, 2.06228, 65.8245, 0.0403743, -62.4818
1, 1020.00000, 126.501, -31.2848, 125.269, -151.721, 125.191, 88.8984, 0, 0, 2.04091, -54.3587, 2.06098, -174.795, 2.06228, 65.8245, 0.0403754, -62.4814
1, 1080.00000, 126.501, -31.2848, 125.269, -151.721, 125.191, 88.8984, 0, 0, 2.04091, -54.3587, 2.06098, -174.795, 2.06228, 65.8245, 0.0403756, -62.4815
1, 1140.00000, 126.501, -31.2848, 125.269, -151.721, 125.191, 88.8984, 0, 0, 2.04091, -54.3587, 2.06098, -174.795, 2.06228, 65.8245, 0.0403757, -62.4815
1, 1200.00000, 126.501, -31.2848, 125.269, -151.721, 125.191, 88.8984, 0, 0, 2.04091, -54.3587, 2.06098, -174.795, 2.06228, 65.8245, 0.0403759, -62.4815
1, 1260.00000, 126.501, -31.2848, 125.269, -151.721, 125.191, 88.8984, 0, 0, 2.04091, -54.3587, 2.06098, -174.795, 2.06228, 65.8245, 0.040376, -62.4816
1, 1320.00000, 126.501, -31.2848, 125.269, -151.721, 125.191, 88.8984, 0, 0, 2.04091, -54.3587, 2.06098, -174.795, 2.06228, 65.8245, 0.0403761, -62.4816
1, 1380.00000, 126.501, -31.2848, 125.269, -151.721, 125.191, 88.8984, 0, 0, 2.04091, -54.3587, 2.06098, -174.795, 2.06228, 65.8245, 0.0403762, -62.4816
1, 1440.00000, 126.501, -31.2848, 125.269, -151.721, 125.191, 88.8984, 0, 0, 2.04091, -54.3587, 2.06098, -174.795, 2.06228, 65.8245, 0.0403763, -62.4816
1, 1500.00000, 126.501, -31.2848, 125.269, -151.721, 125.191, 88.8984, 0, 0, 2.04091, -54.3587, 2.06098, -174.795, 2.06228, 65.8245, 0.0403763, -62.4817
1, 1560.00000, 126.501, -31.2848, 125.269, -151.721, 125.191, 88.8984, 0, 0, 2.04091, -54.3587, 2.06098, -174.795, 2.06228, 65.8245, 0.0403764, -62.4817
1, 1620.00000, 126.501, -31.2848, 125.269, -151.721, 125.191, 88.8984, 0, 0, 2.04091, -54.3587, 2.06098, -174.795, 2.06228, 65.8245, 0.0403765, -62.4817
1, 1680.00000, 126.501, -31.2848, 125.269, -151.721, 125.191, 88.8984, 0, 0, 2.04091, -54.3587, 2.06098, -174.795, 2.06228, 65.8245, 0.0403765, -62.4817
1, 1740.00000, 126.501, -31.2848, 125.269, -151.721, 125.191, 88.8984, 0, 0, 2.04091, -54.3587, 2.06098, -174.795, 2.06228, 65.8245, 0.0403766, -62.4817
1, 1800.00000, 126.501, -31.2848, 125.269, -151.721, 125.191, 88.8984, 0, 0, 2.04091, -54.3587, 2.06098, -174.795, 2.06228, 65.8245, 0.0403766, -62.4817
1, 1860.00000, 126.489, -31.1785, 125.451, -151.711, 125.057, 88.871, 0, 0, 2.17155, -54.2524, 2.18953, -174.785, 2.19642, 65.7971, 0.0434273, -74.8588
1, 1920.00000, 126.489, -31.1785, 125.451, -151.711, 125.057, 88.871, 0, 0, 2.17155, -54.2524, 2.18953, -174.785, 2.19643, 65.7971, 0.0434279, -74.8589
1, 1980.00000, 126.489, -31.1785, 125.451, -151.711, 125.057, 88.871, 0, 0, 2.17155, -54.2524, 2.18953, -174.785, 2.19643, 65.7971, 0.043428, -74.8589
1, 2040.00000, 126.489, -31.1785, 125.451, -151.711, 125.057, 88.871, 0, 0, 2.17155, -54.2524, 2.18953, -174.785, 2.19643, 65.7971, 0.043428, -74.8589
1, 2100.00000, 126.489, -31.1785, 125.451, -151.711, 125.057, 88.871, 0, 0, 2.17155, -54.2524, 2.18953, -174.785, 2.19643, 65.7971, 0.043428, -74.8589
1, 2160.00000, 126.489, -31.1785, 125.451, -151.711, 125.057, 88.871, 0, 0, 2.17155, -54.2524, 2.18953, -174.785, 2.19643, 65.7971, 0.0434281, -74.8589
1, 2220.00000, 126.489, -31.1785, 125.451, -151.711, 125.057, 88.871, 0, 0, 2.17155, -54.2524, 2.18953, -174.785, 2.19643, 65.7971, 0.0434281, -74.8589
1, 2280.00000, 126.489, -31.1785, 125.451, -151.711, 125.057, 88.871, 0, 0, 2.17155, -54.2524, 2.18953, -174.785, 2.19643, 65.7971, 0.0434281, -74.8589
1, 2340.00000, 126.489, -31.1785, 125.451, -151.711, 125.057, 88.871, 0, 0, 2.17155, -54.2524, 2.18953, -174.785, 2.19643, 65.7971, 0.0434281, -74.8589
1, 2400.00000, 126.489, -31.1785, 125.451, -151.711, 125.057, 88.871, 0, 0, 2.17155, -54.2524, 2.18953, -174.785, 2.19643, 65.7971, 0.0434281, -74.8589
1, 2460.00000, 126.489, -31.1785, 125.451, -151.711, 125.057, 88.871, 0, 0, 2.17155, -54.2524, 2.18953, -174.785, 2.19643, 65.7971, 0.0434282, -74.8589
1, 2520.00000, 126.489, -31.1785, 125.451, -151.711, 125.057, 88.871, 0, 0, 2.17155, -54.2524, 2.18953, -174.785, 2.19643, 65.7971, 0.0434282, -74.8589
1, 2580.00000, 126.489, -31.1785, 125.451, -151.711, 125.057, 88.871, 0, 0, 2.17155, -54.2524, 2.18953, -174.785, 2.19643, 65.7971, 0.0434282, -74.8589
1, 2640.00000, 126.489, -31.1785, 125.451, -151.711, 125.057, 88.871, 0, 0, 2.17155, -54.2524, 2.18953, -174.785, 2.19643, 65.7971, 0.0434282, -74.8589
1, 2700.00000, 126.489, -31.1785, 125.451, -151.711, 125.057, 88.871, 0, 0, 2.17155, -54.2524, 2.18953, -174.785, 2.19643, 65.7971, 0.0434282, -74.8589
1, 2760.00000, 126.744, -31.1239, 125.693, -151.661, 125.294, 88.9296, 0, 0, 2.0458, -54.1978, 2.06291, -174.735, 2.06948, 65.8557, 0.0413882, -74.662
1, 2820.00000, 126.744, -31.1239, 125.693, -151.661, 125.294, 88.9296, 0, 0, 2.0458, -54.1978, 2.06291, -174.735, 2.06948, 65.8557, 0.0413897, -74.6615
1, 2880.00000, 126.744, -31.1239, 125.693, -151.661, 125.294, 88.9296, 0, 0, 2.0458, -54.1978, 2.06291, -174.735, 2.06948, 65.8557, 0.0413897, -74.6615
1, 2940.00000, 126.744, -31.1239, 125.693, -151.661, 125.294, 88.9296, 0, 0, 2.0458, -54.1978, 2.06291, -174.735, 2.06948, 65.8557, 0.0413897, -74.6615
1, 3000.00000, 126.744, -31.1239, 125.693, -151.661, 125.294, 88.9296, 0, 0, 2.0458, -54.1978, 2.06291, -174.735, 2.06948, 65.8557, 0.0413897, -74.6615
1, 3060.00000, 126.744, -31.1239, 125.693, -151.661, 125.294, 88.9296, 0, 0, 2.0458, -54.1978, 2.06291, -174.735, 2.06948, 65.8557, 0.0413897, -74.6615
1, 3120.00000, 126.744, -31.1239, 125.693, -151.661, 125.294, 88.9296, 0, 0, 2.0458, -54.1978, 2.06291, -174.735, 2.06948, 65.8557, 0.0413897, -74.6615
1, 3180.00000, 126.744, -31.1239, 125.693, -151.661, 125.294, 88.9296, 0, 0, 2.0458, -54.1978, 2.06291, -174.735, 2.06948, 65.8557, 0.0413897, -74.6615
1, 3240.00000, 126.744, -31.1239, 125.693, -151.661, 125.294, 88.9296, 0, 0, 2.0458, -54.1978, 2.06291, -174.735, 2.06948, 65.8557, 0.0413898, -74.6615
1, 3300.00000, 126.744, -31.1239, 125.693, -151.661, 125.294, 88.9296, 0, 0, 2.0458, -54.1978, 2.06291, -174.735, 2.06948, 65.8557, 0.0413898, -74.6615
1, 3360.00000, 126.744, -31.1239, 125.693, -151.661, 125.294, 88.9296, 0, 0, 2.0458, -54.1978, 2.06291, -174.735, 2.06948, 65.8557, 0.0413898, -74.6615
1, 3420.00000, 126.744, -31.1239, 125.693, -151.661, 125.294, 88.9296, 0, 0, 2.0458, -54.1978, 2.06291, -174.735, 2.06948, 65.8557, 0.0413898, -74.6615
1, 3480.00000, 126.744, -31.1239, 125.693, -151.661, 125.294, 88.9296, 0, 0, 2.0458, -54.1978, 2.06291, -174.735, 2.06948, 65.8557, 0.0413898, -74.6615
1, 3540.00000, 126.744, -31.1239, 125.693, -151.661, 125.294, 88.9296, 0, 0, 2.0458, -54.1978, 2.06291, -174.735, 2.06948, 65.8557, 0.0413898, -74.6615
2, 0.00000, 126.744, -31.1239, 125.693, -151.661, 125.294, 88.9296, 0, 0, 2.0458, -54.1978, 2.06291, -174.735, 2.06948, 65.8557, 0.0413898, -74.6615
2, 60.00000, 126.583, -31.1562, 125.539, -151.691, 125.143, 88.8949, 0, 0, 2.17982, -54.2302, 2.19795, -174.765, 2.2049, 65.8209, 0.0438093, -74.7689
2, 120.00000, 126.583, -31.1562, 125.539, -151.691, 125.143, 88.8949, 0, 0, 2.17982, -54.2302, 2.19795, -174.765, 2.2049, 65.8209, 0.0438082, -74.7691
2, 180.00000, 126.583, -31.1562, 125.539, -151.691, 125.143, 88.8949, 0, 0, 2.17982, -54.2302, 2.19795, -174.765, 2.2049, 65.8209, 0.0438083, -74.7691
2, 240.00000, 126.583, -31.1562, 125.539, -151.691, 125.143, 88.8949, 0, 0, 2.17982, -54.2302, 2.19795, -174.765, 2.2049, 65.8209, 0.0438083, -74.7691
2, 300.00000, 126.583, -31.1562, 125.539, -151.691, 125.143, 88.8949, 0, 0, 2.17982, -54.2302, 2.19795, -174.765, 2.2049, 65.8209, 0.0438083, -74.7691
2, 360.00000, 126.583, -31.1562, 125.539, -151.691, 125.143, 88.8949, 0, 0, 2.17982, -54.2302, 2.19795, -174.765, 2.2049, 65.8209, 0.0438083, -74.7691
2, 420.00000, 126.583, -31.1562, 125.539, -151.691, 125.143, 88.8949, 0, 0, 2.17982, -54.2302, 2.19795, -174.765, 2.2049, 65.8209, 0.0438083, -74.7691
2, 480.00000, 126.583, -31.1562, 125.539, -151.691, 125.143, 88.8949, 0, 0, 2.17982, -54.2302, 2.19795, -174.765, 2.2049, 65.8209, 0.0438083, -74.7691
2, 540.00000, 126.583, -31.1562, 125.539, -151.691, 125.143, 88.8949, 0, 0, 2.17982, -54.2302, 2.19795, -174.765, 2.2049, 65.8209, 0.0438083, -74.7691
2, 600.00000, 126.583, -31.1562, 125.539, -151.691, 125.143, 88.8949, 0, 0, 2.17982, -54.2302, 2.19795, -174.765, 2.2049, 65.8209, 0.0438083, -74.7691
2, 660.00000, 126.583, -31.1562, 125.539, -151.691, 125.143, 88.8949, 0, 0, 2.17982, -54.2302, 2.19795, -174.765, 2.2049, 65.8209, 0.0438083, -74.7691
