hour,t(sec),V1,VAngle1,V2,VAngle2,V3,VAngle3,V4,VAngle4,I1,IAngle1,I2,IAngle2,I3,IAngle3,I4,IAngle4
0, 60.00000, 120.292, -31.1812, 120.622, -151.096, 120.985, 88.8132, 0, 0, 8.35294, -54.2548, 8.37832, -174.17, 8.35947, 65.7396, 0.0225775, 24.3713
0, 120.00000, 120.292, -31.1812, 120.622, -151.096, 120.985, 88.8132, 0, 0, 8.35291, -54.2551, 8.37826, -174.17, 8.3596, 65.7393, 0.0224401, 24.2119
0, 180.00000, 120.292, -31.1812, 120.622, -151.096, 120.985, 88.8132, 0, 0, 8.35291, -54.2551, 8.37826, -174.17, 8.3596, 65.7393, 0.0224397, 24.2114
0, 240.00000, 120.292, -31.1812, 120.622, -151.096, 120.985, 88.8132, 0, 0, 8.35291, -54.2551, 8.37826, -174.17, 8.3596, 65.7393, 0.0224397, 24.2114
0, 300.00000, 120.292, -31.1812, 120.622, -151.096, 120.985, 88.8132, 0, 0, 8.35291, -54.2551, 8.37826, -174.17, 8.3596, 65.7393, 0.0224397, 24.2114
0, 360.00000, 120.292, -31.1812, 120.622, -151.096, 120.985, 88.8132, 0, 0, 8.35291, -54.2551, 8.37826, -174.17, 8.3596, 65.7393, 0.0224397, 24.2114
0, 420.00000, 120.292, -31.1812, 120.622, -151.096, 120.985, 88.8132, 0, 0, 8.35291, -54.2551, 8.37826, -174.17, 8.3596, 65.7393, 0.0224397, 24.2114
0, 480.00000, 121.212, -31.0737, 121.501, -150.996, 121.858, 88.9336, 0, 0, 7.5393, -54.1482, 7.52146, -174.07, 7.49958, 65.859, 0.0442368, 92.1835
0, 540.00000, 121.212, -31.0736, 121.501, -150.997, 121.858, 88.9336, 0, 0, 7.53923, -54.1476, 7.52134, -174.07, 7.49926, 65.8597, 0.0443646, 92.0896
0, 600.00000, 121.212, -31.0736, 121.501, -150.997, 121.858, 88.9336, 0, 0, 7.53923, -54.1476, 7.52134, -174.07, 7.49925, 65.8597, 0.0443674, 92.0873
0, 660.00000, 121.212, -31.0736, 121.501, -150.997, 121.858, 88.9336, 0, 0, 7.53924, -54.1476, 7.52134, -174.07, 7.49925, 65.8597, 0.0443674, 92.0873
0, 720.00000, 121.212, -31.0736, 121.501, -150.997, 121.858, 88.9336, 0, 0, 7.53924, -54.1476, 7.52134, -174.07, 7.49925, 65.8597, 0.0443674, 92.0873
0, 780.00000, 121.212, -31.0736, 121.501, -150.997, 121.858, 88.9336, 0, 0, 7.53924, -54.1476, 7.52134, -174.07, 7.49925, 65.8597, 0.0443674, 92.0873
0, 840.00000, 121.212, -31.0736, 121.501, -150.997, 121.858, 88.9336, 0, 0, 7.53924, -54.1476, 7.52134, -174.07, 7.49925, 65.8597, 0.0443674, 92.0873
0, 900.00000, 121.212, -31.0736, 121.501, -150.997, 121.858, 88.9336, 0, 0, 7.53924, -54.1476, 7.52134, -174.07, 7.49925, 65.8597, 0.0443674, 92.0873
0, 960.00000, 121.212, -31.0736, 121.501, -150.997, 121.858, 88.9336, 0, 0, 7.53924, -54.1476, 7.52134, -174.07, 7.49925, 65.8597, 0.0443674, 92.0873
0, 1020.00000, 121.212, -31.0736, 121.501, -150.997, 121.858, 88.9336, 0, 0, 7.53924, -54.1476, 7.52134, -174.07, 7.49925, 65.8597, 0.0443674, 92.0873
0, 1080.00000, 121.212, -31.0736, 121.501, -150.997, 121.858, 88.9336, 0, 0, 7.53924, -54.1476, 7.52134, -174.07, 7.49925, 65.8597, 0.0443674, 92.0873
0, 1140.00000, 121.212, -31.0736, 121.501, -150.997, 121.858, 88.9336, 0, 0, 7.53924, -54.1476, 7.52134, -174.07, 7.49925, 65.8597, 0.0443674, 92.0873
0, 1200.00000, 121.212, -31.0736, 121.501, -150.997, 121.858, 88.9336, 0, 0, 7.53924, -54.1476, 7.52134, -174.07, 7.49925, 65.8597, 0.0443674, 92.0873
0, 1260.00000, 121.212, -31.0736, 121.501, -150.997, 121.858, 88.9336, 0, 0, 7.53924, -54.1476, 7.52134, -174.07, 7.49925, 65.8597, 0.0443674, 92.0873
0, 1320.00000, 121.212, -31.0736, 121.501, -150.997, 121.858, 88.9336, 0, 0, 7.53924, -54.1476, 7.52134, -174.07, 7.49925, 65.8597, 0.0443674, 92.0873
0, 1380.00000, 121.212, -31.0736, 121.501, -150.997, 121.858, 88.9336, 0, 0, 7.53924, -54.1476, 7.52134, -174.07, 7.49925, 65.8597, 0.0443674, 92.0873
0, 1440.00000, 121.212, -31.0736, 121.501, -150.997, 121.858, 88.9336, 0, 0, 7.53924, -54.1476, 7.52134, -174.07, 7.49925, 65.8597, 0.0443674, 92.0873
0, 1500.00000, 121.212, -31.0736, 121.501, -150.997, 121.858, 88.9336, 0, 0, 7.53924, -54.1476, 7.52134, -174.07, 7.49925, 65.8597, 0.0443674, 92.0873
0, 1560.00000, 121.212, -31.0736, 121.501, -150.997, 121.858, 88.9336, 0, 0, 7.53924, -54.1476, 7.52134, -174.07, 7.49925, 65.8597, 0.0443674, 92.0873
0, 1620.00000, 121.212, -31.0736, 121.501, -150.997, 121.858, 88.9336, 0, 0, 7.53924, -54.1476, 7.52134, -174.07, 7.49925, 65.8597, 0.0443674, 92.0873
0, 1680.00000, 121.212, -31.0736, 121.501, -150.997, 121.858, 88.9336, 0, 0, 7.53924, -54.1476, 7.52134, -174.07, 7.49925, 65.8597, 0.0443674, 92.0873
0, 1740.00000, 121.212, -31.0736, 121.501, -150.997, 121.858, 88.9336, 0, 0, 7.53924, -54.1476, 7.52134, -174.07, 7.49925, 65.8597, 0.0443674, 92.0873
0, 1800.00000, 121.212, -31.0736, 121.501, -150.997, 121.858, 88.9336, 0, 0, 7.53924, -54.1476, 7.52134, -174.07, 7.49925, 65.8597, 0.0443674, 92.0873
0, 1860.00000, 121.212, -31.0736, 121.501, -150.997, 121.858, 88.9336, 0, 0, 7.53924, -54.1476, 7.52134, -174.07, 7.49925, 65.8597, 0.0443674, 92.0873
0, 1920.00000, 121.212, -31.0736, 121.501, -150.997, 121.858, 88.9336, 0, 0, 7.53924, -54.1476, 7.52134, -174.07, 7.49925, 65.8597, 0.0443674, 92.0873
0, 1980.00000, 121.212, -31.0736, 121.501, -150.997, 121.858, 88.9336, 0, 0, 7.53924, -54.1476, 7.52134, -174.07, 7.49925, 65.8597, 0.0443674, 92.0873
0, 2040.00000, 121.212, -31.0736, 121.501, -150.997, 121.858, 88.9336, 0, 0, 7.53924, -54.1476, 7.52134, -174.07, 7.49925, 65.8597, 0.0443674, 92.0873
0, 2100.00000, 121.212, -31.0736, 121.501, -150.997, 121.858, 88.9336, 0, 0, 7.53924, -54.1476, 7.52134, -174.07, 7.49925, 65.8597, 0.0443674, 92.0873
0, 2160.00000, 121.212, -31.0736, 121.501, -150.997, 121.858, 88.9336, 0, 0, 7.53924, -54.1476, 7.52134, -174.07, 7.49925, 65.8597, 0.0443674, 92.0873
0, 2220.00000, 121.212, -31.0736, 121.501, -150.997, 121.858, 88.9336, 0, 0, 7.53924, -54.1476, 7.52134, -174.07, 7.49925, 65.8597, 0.0443674, 92.0873
0, 2280.00000, 121.212, -31.0736, 121.501, -150.997, 121.858, 88.9336, 0, 0, 7.53924, -54.1476, 7.52134, -174.07, 7.49925, 65.8597, 0.0443674, 92.0873
0, 2340.00000, 121.212, -31.0736, 121.501, -150.997, 121.858, 88.9336, 0, 0, 7.53924, -54.1476, 7.52134, -174.07, 7.49925, 65.8597, 0.0443674, 92.0873
0, 2400.00000, 121.212, -31.0736, 121.501, -150.997, 121.858, 88.9336, 0, 0, 7.53924, -54.1476, 7.52134, -174.07, 7.49925, 65.8597, 0.0443674, 92.0873
0, 2460.00000, 121.212, -31.0736, 121.501, -150.997, 121.858, 88.9336, 0, 0, 7.53924, -54.1476, 7.52134, -174.07, 7.49925, 65.8597, 0.0443674, 92.0873
0, 2520.00000, 121.212, -31.0736, 121.501, -150.997, 121.858, 88.9336, 0, 0, 7.53924, -54.1476, 7.52134, -174.07, 7.49925, 65.8597, 0.0443674, 92.0873
0, 2580.00000, 121.212, -31.0736, 121.501, -150.997, 121.858, 88.9336, 0, 0, 7.53924, -54.1476, 7.52134, -174.07, 7.49925, 65.8597, 0.0443674, 92.0873
0, 2640.00000, 121.212, -31.0736, 121.501, -150.997, 121.858, 88.9336, 0, 0, 7.53924, -54.1476, 7.52134, -174.07, 7.49925, 65.8597, 0.0443674, 92.0873
0, 2700.00000, 121.212, -31.0736, 121.501, -150.997, 121.858, 88.9336, 0, 0, 7.53924, -54.1476, 7.52134, -174.07, 7.49925, 65.8597, 0.0443674, 92.0873
0, 2760.00000, 121.212, -31.0736, 121.501, -150.997, 121.858, 88.9336, 0, 0, 7.53924, -54.1476, 7.52134, -174.07, 7.49925, 65.8597, 0.0443674, 92.0873
0, 2820.00000, 121.212, -31.0736, 121.501, -150.997, 121.858, 88.9336, 0, 0, 7.53924, -54.1476, 7.52134, -174.07, 7.49925, 65.8597, 0.0443674, 92.0873
0, 2880.00000, 121.212, -31.0736, 121.501, -150.997, 121.858, 88.9336, 0, 0, 7.53924, -54.1476, 7.52134, -174.07, 7.49925, 65.8597, 0.0443674, 92.0873
0, 2940.00000, 121.212, -31.0736, 121.501, -150.997, 121.858, 88.9336, 0, 0, 7.53924, -54.1476, 7.52134, -174.07, 7.49925, 65.8597, 0.0443674, 92.0873
0, 3000.00000, 121.212, -31.0736, 121.501, -150.997, 121.858, 88.9336, 0, 0, 7.53924, -54.1476, 7.52134, -174.07, 7.49925, 65.8597, 0.0443674, 92.0873
0, 3060.00000, 121.212, -31.0736, 121.501, -150.997, 121.858, 88.9336, 0, 0, 7.53924, -54.1476, 7.52134, -174.07, 7.49925, 65.8597, 0.0443674, 92.0873
0, 3120.00000, 121.212, -31.0736, 121.501, -150.997, 121.858, 88.9336, 0, 0, 7.53924, -54.1476, 7.52134, -174.07, 7.49925, 65.8597, 0.0443674, 92.0873
0, 3180.00000, 121.212, -31.0736, 121.501, -150.997, 121.858, 88.9336, 0, 0, 7.53924, -54.1476, 7.52134, -174.07, 7.49925, 65.8597, 0.0443674, 92.0873
0, 3240.00000, 121.212, -31.0736, 121.501, -150.997, 121.858, 88.9336, 0, 0, 7.53924, -54.1476, 7.52134, -174.07, 7.49925, 65.8597, 0.0443674, 92.0873
0, 3300.00000, 121.212, -31.0736, 121.501, -150.997, 121.858, 88.9336, 0, 0, 7.53924, -54.1476, 7.52134, -174.07, 7.49925, 65.8597, 0.0443674, 92.0873
0, 3360.00000, 121.212, -31.0736, 121.501, -150.997, 121.858, 88.9336, 0, 0, 7.53924, -54.1476, 7.52134, -174.07, 7.49925, 65.8597, 0.0443674, 92.0873
0, 3420.00000, 121.212, -31.0736, 121.501, -150.997, 121.858, 88.9336, 0, 0, 7.53924, -54.1476, 7.52134, -174.07, 7.49925, 65.8597, 0.0443674, 92.0873
0, 3480.00000, 121.212, -31.0736, 121.501, -150.997, 121.858, 88.9336, 0, 0, 7.53924, -54.1476, 7.52134, -174.07, 7.49925, 65.8597, 0.0443674, 92.0873
0, 3540.00000, 121.212, -31.0736, 121.501, -150.997, 121.858, 88.9336, 0, 0, 7.53924, -54.1476, 7.52134, -174.07, 7.49925, 65.8597, 0.0443674, 92.0873
1, 0.00000, 121.212, -31.0736, 121.501, -150.997, 121.858, 88.9336, 0, 0, 7.53924, -54.1476, 7.52134, -174.07, 7.49925, 65.8597, 0.0443674, 92.0873
1, 60.00000, 121.212, -31.0736, 121.501, -150.997, 121.858, 88.9336, 0, 0, 7.53924, -54.1476, 7.52134, -174.07, 7.49925, 65.8597, 0.0443674, 92.0873
1, 120.00000, 121.212, -31.0736, 121.501, -150.997, 121.858, 88.9336, 0, 0, 7.53924, -54.1476, 7.52134, -174.07, 7.49925, 65.8597, 0.0443674, 92.0873
1, 180.00000, 121.212, -31.0736, 121.501, -150.997, 121.858, 88.9336, 0, 0, 7.53924, -54.1476, 7.52134, -174.07, 7.49925, 65.8597, 0.0443674, 92.0873
1, 240.00000, 121.212, -31.0736, 121.501, -150.997, 121.858, 88.9336, 0, 0, 7.53924, -54.1476, 7.52134, -174.07, 7.49925, 65.8597, 0.0443674, 92.0873
1, 300.00000, 121.212, -31.0736, 121.501, -150.997, 121.858, 88.9336, 0, 0, 7.53924, -54.1476, 7.52134, -174.07, 7.49925, 65.8597, 0.0443674, 92.0873
1, 360.00000, 121.212, -31.0736, 121.501, -150.997, 121.858, 88.9336, 0, 0, 7.53924, -54.1476, 7.52134, -174.07, 7.49925, 65.8597, 0.0443674, 92.0873
1, 420.00000, 121.212, -31.0736, 121.501, -150.997, 121.858, 88.9336, 0, 0, 7.53924, -54.1476, 7.52134, -174.07, 7.49925, 65.8597, 0.0443674, 92.0873
1, 480.00000, 121.212, -31.0736, 121.501, -150.997, 121.858, 88.9336, 0, 0, 7.53924, -54.1476, 7.52134, -174.07, 7.49925, 65.8597, 0.0443674, 92.0873
1, 540.00000, 121.212, -31.0736, 121.501, -150.997, 121.858, 88.9336, 0, 0, 7.53924, -54.1476, 7.52134, -174.07, 7.49925, 65.8597, 0.0443674, 92.0873
1, 600.00000, 121.212, -31.0736, 121.501, -150.997, 121.858, 88.9336, 0, 0, 7.53924, -54.1476, 7.52134, -174.07, 7.49925, 65.8597, 0.0443674, 92.0873
1, 660.00000, 121.212, -31.0736, 121.501, -150.997, 121.858, 88.9336, 0, 0, 7.53924, -54.1476, 7.52134, -174.07, 7.49925, 65.8597, 0.0443674, 92.0873
1, 720.00000, 121.212, -31.0736, 121.501, -150.997, 121.858, 88.9336, 0, 0, 7.53924, -54.1476, 7.52134, -174.07, 7.49925, 65.8597, 0.0443674, 92.0873
1, 780.00000, 121.212, -31.0736, 121.501, -150.997, 121.858, 88.9336, 0, 0, 7.53924, -54.1476, 7.52134, -174.07, 7.49925, 65.8597, 0.0443674, 92.0873
1, 840.00000, 121.212, -31.0736, 121.501, -150.997, 121.858, 88.9336, 0, 0, 7.53924, -54.1476, 7.52134, -174.07, 7.49925, 65.8597, 0.0443674, 92.0873
1, 900.00000, 121.212, -31.0736, 121.501, -150.997, 121.858, 88.9336, 0, 0, 7.53924, -54.1476, 7.52134, -174.07, 7.49925, 65.8597, 0.0443674, 92.0873
1, 960.00000, 121.212, -31.0736, 121.501, -150.997, 121.858, 88.9336, 0, 0, 7.53924, -54.1476, 7.52134, -174.07, 7.49925, 65.8597, 0.0443674, 92.0873
1, 1020.00000, 121.212, -31.0736, 121.501, -150.997, 121.858, 88.9336, 0, 0, 7.53924, -54.1476, 7.52134, -174.07, 7.49925, 65.8597, 0.0443674, 92.0873
1, 1080.00000, 121.212, -31.0736, 121.501, -150.997, 121.858, 88.9336, 0, 0, 7.53924, -54.1476, 7.52134, -174.07, 7.49925, 65.8597, 0.0443674, 92.0873
1, 1140.00000, 121.212, -31.0736, 121.501, -150.997, 121.858, 88.9336, 0, 0, 7.53924, -54.1476, 7.52134, -174.07, 7.49925, 65.8597, 0.0443674, 92.0873
1, 1200.00000, 121.212, -31.0736, 121.501, -150.997, 121.858, 88.9336, 0, 0, 7.53924, -54.1476, 7.52134, -174.07, 7.49925, 65.8597, 0.0443674, 92.0873
1, 1260.00000, 121.212, -31.0736, 121.501, -150.997, 121.858, 88.9336, 0, 0, 7.53924, -54.1476, 7.52134, -174.07, 7.49925, 65.8597, 0.0443674, 92.0873
1, 1320.00000, 121.212, -31.0736, 121.501, -150.997, 121.858, 88.9336, 0, 0, 7.53924, -54.1476, 7.52134, -174.07, 7.49925, 65.8597, 0.0443674, 92.0873
1, 1380.00000, 121.212, -31.0736, 121.501, -150.997, 121.858, 88.9336, 0, 0, 7.53924, -54.1476, 7.52134, -174.07, 7.49925, 65.8597, 0.0443674, 92.0873
1, 1440.00000, 121.212, -31.0736, 121.501, -150.997, 121.858, 88.9336, 0, 0, 7.53924, -54.1476, 7.52134, -174.07, 7.49925, 65.8597, 0.0443674, 92.0873
1, 1500.00000, 121.212, -31.0736, 121.501, -150.997, 121.858, 88.9336, 0, 0, 7.53924, -54.1476, 7.52134, -174.07, 7.49925, 65.8597, 0.0443674, 92.0873
1, 1560.00000, 121.212, -31.0736, 121.501, -150.997, 121.858, 88.9336, 0, 0, 7.53924, -54.1476, 7.52134, -174.07, 7.49925, 65.8597, 0.0443674, 92.0873
1, 1620.00000, 121.212, -31.0736, 121.501, -150.997, 121.858, 88.9336, 0, 0, 7.53924, -54.1476, 7.52134, -174.07, 7.49925, 65.8597, 0.0443674, 92.0873
1, 1680.00000, 121.212, -31.0736, 121.501, -150.997, 121.858, 88.9336, 0, 0, 7.53924, -54.1476, 7.52134, -174.07, 7.49925, 65.8597, 0.0443674, 92.0873
1, 1740.00000, 121.212, -31.0736, 121.501, -150.997, 121.858, 88.9336, 0, 0, 7.53924, -54.1476, 7.52134, -174.07, 7.49925, 65.8597, 0.0443674, 92.0873
1, 1800.00000, 121.212, -31.0736, 121.501, -150.997, 121.858, 88.9336, 0, 0, 7.53924, -54.1476, 7.52134, -174.07, 7.49925, 65.8597, 0.0443674, 92.0873
1, 1860.00000, 121.212, -31.0736, 121.501, -150.997, 121.858, 88.9336, 0, 0, 7.53924, -54.1476, 7.52134, -174.07, 7.49925, 65.8597, 0.0443674, 92.0873
1, 1920.00000, 121.212, -31.0736, 121.501, -150.997, 121.858, 88.9336, 0, 0, 7.53924, -54.1476, 7.52134, -174.07, 7.49925, 65.8597, 0.0443674, 92.0873
1, 1980.00000, 121.212, -31.0736, 121.501, -150.997, 121.858, 88.9336, 0, 0, 7.53924, -54.1476, 7.52134, -174.07, 7.49925, 65.8597, 0.0443674, 92.0873
1, 2040.00000, 121.212, -31.0736, 121.501, -150.997, 121.858, 88.9336, 0, 0, 7.53924, -54.1476, 7.52134, -174.07, 7.49925, 65.8597, 0.0443674, 92.0873
1, 2100.00000, 121.212, -31.0736, 121.501, -150.997, 121.858, 88.9336, 0, 0, 7.53924, -54.1476, 7.52134, -174.07, 7.49925, 65.8597, 0.0443674, 92.0873
1, 2160.00000, 121.212, -31.0736, 121.501, -150.997, 121.858, 88.9336, 0, 0, 7.53924, -54.1476, 7.52134, -174.07, 7.49925, 65.8597, 0.0443674, 92.0873
1, 2220.00000, 121.212, -31.0736, 121.501, -150.997, 121.858, 88.9336, 0, 0, 7.53924, -54.1476, 7.52134, -174.07, 7.49925, 65.8597, 0.0443674, 92.0873
1, 2280.00000, 121.212, -31.0736, 121.501, -150.997, 121.858, 88.9336, 0, 0, 7.53924, -54.1476, 7.52134, -174.07, 7.49925, 65.8597, 0.0443674, 92.0873
1, 2340.00000, 121.212, -31.0736, 121.501, -150.997, 121.858, 88.9336, 0, 0, 7.53924, -54.1476, 7.52134, -174.07, 7.49925, 65.8597, 0.0443674, 92.0873
1, 2400.00000, 121.212, -31.0736, 121.501, -150.997, 121.858, 88.9336, 0, 0, 7.53924, -54.1476, 7.52134, -174.07, 7.49925, 65.8597, 0.0443674, 92.0873
1, 2460.00000, 121.212, -31.0736, 121.501, -150.997, 121.858, 88.9336, 0, 0, 7.53924, -54.1476, 7.52134, -174.07, 7.49925, 65.8597, 0.0443674, 92.0873
1, 2520.00000, 121.212, -31.0736, 121.501, -150.997, 121.858, 88.9336, 0, 0, 7.53924, -54.1476, 7.52134, -174.07, 7.49925, 65.8597, 0.0443674, 92.0873
1, 2580.00000, 121.212, -31.0736, 121.501, -150.997, 121.858, 88.9336, 0, 0, 7.53924, -54.1476, 7.52134, -174.07, 7.49925, 65.8597, 0.0443674, 92.0873
1, 2640.00000, 121.212, -31.0736, 121.501, -150.997, 121.858, 88.9336, 0, 0, 7.53924, -54.1476, 7.52134, -174.07, 7.49925, 65.8597, 0.0443674, 92.0873
1, 2700.00000, 121.212, -31.0736, 121.501, -150.997, 121.858, 88.9336, 0, 0, 7.53924, -54.1476, 7.52134, -174.07, 7.49925, 65.8597, 0.0443674, 92.0873
1, 2760.00000, 121.212, -31.0736, 121.501, -150.997, 121.858, 88.9336, 0, 0, 7.53924, -54.1476, 7.52134, -174.07, 7.49925, 65.8597, 0.0443674, 92.0873
1, 2820.00000, 121.212, -31.0736, 121.501, -150.997, 121.858, 88.9336, 0, 0, 7.53924, -54.1476, 7.52134, -174.07, 7.49925, 65.8597, 0.0443674, 92.0873
1, 2880.00000, 121.212, -31.0736, 121.501, -150.997, 121.858, 88.9336, 0, 0, 7.53924, -54.1476, 7.52134, -174.07, 7.49925, 65.8597, 0.0443674, 92.0873
1, 2940.00000, 121.212, -31.0736, 121.501, -150.997, 121.858, 88.9336, 0, 0, 7.53924, -54.1476, 7.52134, -174.07, 7.49925, 65.8597, 0.0443674, 92.0873
1, 3000.00000, 121.212, -31.0736, 121.501, -150.997, 121.858, 88.9336, 0, 0, 7.53924, -54.1476, 7.52134, -174.07, 7.49925, 65.8597, 0.0443674, 92.0873
1, 3060.00000, 121.212, -31.0736, 121.501, -150.997, 121.858, 88.9336, 0, 0, 7.53924, -54.1476, 7.52134, -174.07, 7.49925, 65.8597, 0.0443674, 92.0873
1, 3120.00000, 121.212, -31.0736, 121.501, -150.997, 121.858, 88.9336, 0, 0, 7.53924, -54.1476, 7.52134, -174.07, 7.49925, 65.8597, 0.0443674, 92.0873
1, 3180.00000, 121.212, -31.0736, 121.501, -150.997, 121.858, 88.9336, 0, 0, 7.53924, -54.1476, 7.52134, -174.07, 7.49925, 65.8597, 0.0443674, 92.0873
1, 3240.00000, 121.212, -31.0736, 121.501, -150.997, 121.858, 88.9336, 0, 0, 7.53924, -54.1476, 7.52134, -174.07, 7.49925, 65.8597, 0.0443674, 92.0873
1, 3300.00000, 121.212, -31.0736, 121.501, -150.997, 121.858, 88.9336, 0, 0, 7.53924, -54.1476, 7.52134, -174.07, 7.49925, 65.8597, 0.0443674, 92.0873
1, 3360.00000, 121.212, -31.0736, 121.501, -150.997, 121.858, 88.9336, 0, 0, 7.53924, -54.1476, 7.52134, -174.07, 7.49925, 65.8597, 0.0443674, 92.0873
1, 3420.00000, 121.212, -31.0736, 121.501, -150.997, 121.858, 88.9336, 0, 0, 7.53924, -54.1476, 7.52134, -174.07, 7.49925, 65.8597, 0.0443674, 92.0873
1, 3480.00000, 121.212, -31.0736, 121.501, -150.997, 121.858, 88.9336, 0, 0, 7.53924, -54.1476, 7.52134, -174.07, 7.49925, 65.8597, 0.0443674, 92.0873
1, 3540.00000, 121.212, -31.0736, 121.501, -150.997, 121.858, 88.9336, 0, 0, 7.53924, -54.1476, 7.52134, -174.07, 7.49925, 65.8597, 0.0443674, 92.0873
2, 0.00000, 121.212, -31.0736, 121.501, -150.997, 121.858, 88.9336, 0, 0, 7.53924, -54.1476, 7.52134, -174.07, 7.49925, 65.8597, 0.0443674, 92.0873
2, 60.00000, 121.212, -31.0736, 121.501, -150.997, 121.858, 88.9336, 0, 0, 7.53924, -54.1476, 7.52134, -174.07, 7.49925, 65.8597, 0.0443674, 92.0873
2, 120.00000, 121.212, -31.0736, 121.501, -150.997, 121.858, 88.9336, 0, 0, 7.53924, -54.1476, 7.52134, -174.07, 7.49925, 65.8597, 0.0443674, 92.0873
2, 180.00000, 121.212, -31.0736, 121.501, -150.997, 121.858, 88.9336, 0, 0, 7.53924, -54.1476, 7.52134, -174.07, 7.49925, 65.8597, 0.0443674, 92.0873
2, 240.00000, 121.212, -31.0736, 121.501, -150.997, 121.858, 88.9336, 0, 0, 7.53924, -54.1476, 7.52134, -174.07, 7.49925, 65.8597, 0.0443674, 92.0873
2, 300.00000, 121.212, -31.0736, 121.501, -150.997, 121.858, 88.9336, 0, 0, 7.53924, -54.1476, 7.52134, -174.07, 7.49925, 65.8597, 0.0443674, 92.0873
2, 360.00000, 121.212, -31.0736, 121.501, -150.997, 121.858, 88.9336, 0, 0, 7.53924, -54.1476, 7.52134, -174.07, 7.49925, 65.8597, 0.0443674, 92.0873
2, 420.00000, 121.212, -31.0736, 121.501, -150.997, 121.858, 88.9336, 0, 0, 7.53924, -54.1476, 7.52134, -174.07, 7.49925, 65.8597, 0.0443674, 92.0873
2, 480.00000, 121.212, -31.0736, 121.501, -150.997, 121.858, 88.9336, 0, 0, 7.53924, -54.1476, 7.52134, -174.07, 7.49925, 65.8597, 0.0443674, 92.0873
2, 540.00000, 121.212, -31.0736, 121.501, -150.997, 121.858, 88.9336, 0, 0, 7.53924, -54.1476, 7.52134, -174.07, 7.49925, 65.8597, 0.0443674, 92.0873
2, 600.00000, 121.212, -31.0736, 121.501, -150.997, 121.858, 88.9336, 0, 0, 7.53924, -54.1476, 7.52134, -174.07, 7.49925, 65.8597, 0.0443674, 92.0873
2, 660.00000, 121.212, -31.0736, 121.501, -150.997, 121.858, 88.9336, 0, 0, 7.53924, -54.1476, 7.52134, -174.07, 7.49925, 65.8597, 0.0443674, 92.0873
2, 720.00000, 121.212, -31.0736, 121.501, -150.997, 121.858, 88.9336, 0, 0, 7.53924, -54.1476, 7.52134, -174.07, 7.49925, 65.8597, 0.0443674, 92.0873
