hour,t(sec),V1,VAngle1,V2,VAngle2,V3,VAngle3,V4,VAngle4,I1,IAngle1,I2,IAngle2,I3,IAngle3,I4,IAngle4
0, 60.00000, 119.922, -31.1095, 120.091, -150.912, 120.736, 89.0377, 0, 0, 7.35254, -54.1826, 7.36412, -173.986, 7.39841, 65.9643, 0.0244942, -72.3176
0, 120.00000, 119.922, -31.1096, 120.091, -150.912, 120.735, 89.0376, 0, 0, 7.35257, -54.1835, 7.36402, -173.985, 7.39896, 65.9637, 0.0246558, -73.2372
0, 180.00000, 119.922, -31.1096, 120.091, -150.912, 120.735, 89.0376, 0, 0, 7.35257, -54.1835, 7.36402, -173.985, 7.39897, 65.9637, 0.0246568, -73.2472
0, 240.00000, 119.922, -31.1096, 120.091, -150.912, 120.735, 89.0376, 0, 0, 7.35257, -54.1835, 7.36402, -173.985, 7.39897, 65.9637, 0.0246569, -73.2474
0, 300.00000, 119.922, -31.1096, 120.091, -150.912, 120.735, 89.0376, 0, 0, 7.35257, -54.1835, 7.36402, -173.985, 7.39897, 65.9637, 0.0246569, -73.2474
0, 360.00000, 119.922, -31.1096, 120.091, -150.912, 120.735, 89.0376, 0, 0, 7.35257, -54.1835, 7.36402, -173.985, 7.39897, 65.9637, 0.0246569, -73.2474
0, 420.00000, 119.922, -31.1096, 120.091, -150.912, 120.735, 89.0376, 0, 0, 7.35257, -54.1835, 7.36402, -173.985, 7.39897, 65.9637, 0.0246569, -73.2474
0, 480.00000, 119.922, -31.1096, 120.091, -150.912, 120.735, 89.0376, 0, 0, 7.35257, -54.1835, 7.36402, -173.985, 7.39897, 65.9637, 0.0246569, -73.2474
0, 540.00000, 119.922, -31.1096, 120.091, -150.912, 120.735, 89.0376, 0, 0, 7.35257, -54.1835, 7.36402, -173.985, 7.39897, 65.9637, 0.0246569, -73.2474
0, 600.00000, 119.922, -31.1096, 120.091, -150.912, 120.735, 89.0376, 0, 0, 7.35257, -54.1835, 7.36402, -173.985, 7.39897, 65.9637, 0.0246569, -73.2474
0, 660.00000, 119.922, -31.1096, 120.091, -150.912, 120.735, 89.0376, 0, 0, 7.35257, -54.1835, 7.36402, -173.985, 7.39897, 65.9637, 0.0246569, -73.2474
0, 720.00000, 119.922, -31.1096, 120.091, -150.912, 120.735, 89.0376, 0, 0, 7.35257, -54.1835, 7.36402, -173.985, 7.39897, 65.9637, 0.0246569, -73.2474
0, 780.00000, 119.922, -31.1096, 120.091, -150.912, 120.735, 89.0376, 0, 0, 7.35257, -54.1835, 7.36402, -173.985, 7.39897, 65.9637, 0.0246569, -73.2474
0, 840.00000, 119.922, -31.1096, 120.091, -150.912, 120.735, 89.0376, 0, 0, 7.35257, -54.1835, 7.36402, -173.985, 7.39897, 65.9637, 0.0246569, -73.2474
0, 900.00000, 119.922, -31.1096, 120.091, -150.912, 120.735, 89.0376, 0, 0, 7.35257, -54.1835, 7.36402, -173.985, 7.39897, 65.9637, 0.0246569, -73.2474
0, 960.00000, 119.672, -31.1326, 119.854, -150.93, 120.491, 89.0134, 0, 0, 7.76008, -54.2064, 7.77318, -174.004, 7.81905, 65.9396, 0.0335994, -82.7881
0, 1020.00000, 119.672, -31.1326, 119.854, -150.93, 120.491, 89.0134, 0, 0, 7.76005, -54.2065, 7.77314, -174.004, 7.81901, 65.9395, 0.0335913, -82.7795
0, 1080.00000, 119.672, -31.1326, 119.854, -150.93, 120.491, 89.0134, 0, 0, 7.76005, -54.2065, 7.77314, -174.004, 7.81901, 65.9395, 0.0335912, -82.7795
0, 1140.00000, 119.672, -31.1326, 119.854, -150.93, 120.491, 89.0134, 0, 0, 7.76005, -54.2065, 7.77314, -174.004, 7.81901, 65.9395, 0.0335912, -82.7795
0, 1200.00000, 119.672, -31.1326, 119.854, -150.93, 120.491, 89.0134, 0, 0, 7.76005, -54.2065, 7.77314, -174.004, 7.81901, 65.9395, 0.0335912, -82.7795
0, 1260.00000, 119.672, -31.1326, 119.854, -150.93, 120.491, 89.0134, 0, 0, 7.76005, -54.2065, 7.77314, -174.004, 7.81901, 65.9395, 0.0335912, -82.7795
0, 1320.00000, 119.672, -31.1326, 119.854, -150.93, 120.491, 89.0134, 0, 0, 7.76005, -54.2065, 7.77314, -174.004, 7.81901, 65.9395, 0.0335912, -82.7795
0, 1380.00000, 119.672, -31.1326, 119.854, -150.93, 120.491, 89.0134, 0, 0, 7.76005, -54.2065, 7.77314, -174.004, 7.81901, 65.9395, 0.0335912, -82.7795
0, 1440.00000, 119.672, -31.1326, 119.854, -150.93, 120.491, 89.0134, 0, 0, 7.76005, -54.2065, 7.77314, -174.004, 7.81901, 65.9395, 0.0335912, -82.7795
0, 1500.00000, 119.672, -31.1326, 119.854, -150.93, 120.491, 89.0134, 0, 0, 7.76005, -54.2065, 7.77314, -174.004, 7.81901, 65.9395, 0.0335912, -82.7795
0, 1560.00000, 119.672, -31.1326, 119.854, -150.93, 120.491, 89.0134, 0, 0, 7.76005, -54.2065, 7.77314, -174.004, 7.81901, 65.9395, 0.0335912, -82.7795
0, 1620.00000, 119.672, -31.1326, 119.854, -150.93, 120.491, 89.0134, 0, 0, 7.76005, -54.2065, 7.77314, -174.004, 7.81901, 65.9395, 0.0335912, -82.7795
0, 1680.00000, 119.672, -31.1326, 119.854, -150.93, 120.491, 89.0134, 0, 0, 7.76005, -54.2065, 7.77314, -174.004, 7.81901, 65.9395, 0.0335912, -82.7795
0, 1740.00000, 119.672, -31.1326, 119.854, -150.93, 120.491, 89.0134, 0, 0, 7.76005, -54.2065, 7.77314, -174.004, 7.81901, 65.9395, 0.0335912, -82.7795
0, 1800.00000, 119.672, -31.1326, 119.854, -150.93, 120.491, 89.0134, 0, 0, 7.76005, -54.2065, 7.77314, -174.004, 7.81901, 65.9395, 0.0335912, -82.7795
0, 1860.00000, 119.829, -31.1156, 120.001, -150.914, 120.636, 89.0326, 0, 0, 7.79457, -54.1905, 7.80701, -173.989, 7.85283, 65.9578, 0.0331873, -82.6702
0, 1920.00000, 119.829, -31.1155, 120.001, -150.914, 120.636, 89.0327, 0, 0, 7.79497, -54.1894, 7.80739, -173.988, 7.85322, 65.9587, 0.0331892, -82.7265
0, 1980.00000, 119.829, -31.1155, 120.001, -150.914, 120.636, 89.0327, 0, 0, 7.79497, -54.1894, 7.80739, -173.988, 7.85322, 65.9587, 0.03319, -82.727
0, 2040.00000, 119.829, -31.1155, 120.001, -150.914, 120.636, 89.0327, 0, 0, 7.79497, -54.1894, 7.80739, -173.988, 7.85322, 65.9587, 0.0331901, -82.727
0, 2100.00000, 119.829, -31.1155, 120.001, -150.914, 120.636, 89.0327, 0, 0, 7.79497, -54.1894, 7.80739, -173.988, 7.85322, 65.9587, 0.0331901, -82.727
0, 2160.00000, 119.829, -31.1155, 120.001, -150.914, 120.636, 89.0327, 0, 0, 7.79497, -54.1894, 7.80739, -173.988, 7.85322, 65.9587, 0.0331901, -82.727
0, 2220.00000, 119.829, -31.1155, 120.001, -150.914, 120.636, 89.0327, 0, 0, 7.79497, -54.1894, 7.80739, -173.988, 7.85322, 65.9587, 0.0331901, -82.727
0, 2280.00000, 119.829, -31.1155, 120.001, -150.914, 120.636, 89.0327, 0, 0, 7.79497, -54.1894, 7.80739, -173.988, 7.85322, 65.9587, 0.0331901, -82.727
0, 2340.00000, 119.829, -31.1155, 120.001, -150.914, 120.636, 89.0327, 0, 0, 7.79497, -54.1894, 7.80739, -173.988, 7.85322, 65.9587, 0.0331901, -82.727
0, 2400.00000, 119.829, -31.1155, 120.001, -150.914, 120.636, 89.0327, 0, 0, 7.79497, -54.1894, 7.80739, -173.988, 7.85322, 65.9587, 0.0331901, -82.727
0, 2460.00000, 119.829, -31.1155, 120.001, -150.914, 120.636, 89.0327, 0, 0, 7.79497, -54.1894, 7.80739, -173.988, 7.85322, 65.9587, 0.0331901, -82.727
0, 2520.00000, 119.829, -31.1155, 120.001, -150.914, 120.636, 89.0327, 0, 0, 7.79497, -54.1894, 7.80739, -173.988, 7.85322, 65.9587, 0.0331901, -82.727
0, 2580.00000, 119.829, -31.1155, 120.001, -150.914, 120.636, 89.0327, 0, 0, 7.79497, -54.1894, 7.80739, -173.988, 7.85322, 65.9587, 0.0331901, -82.727
0, 2640.00000, 119.829, -31.1155, 120.001, -150.914, 120.636, 89.0327, 0, 0, 7.79497, -54.1894, 7.80739, -173.988, 7.85322, 65.9587, 0.0331901, -82.727
0, 2700.00000, 119.829, -31.1155, 120.001, -150.914, 120.636, 89.0327, 0, 0, 7.79497, -54.1894, 7.80739, -173.988, 7.85322, 65.9587, 0.0331901, -82.727
0, 2760.00000, 120.169, -31.0807, 120.326, -150.89, 120.989, 89.0693, 0, 0, 7.43749, -54.155, 7.44823, -173.963, 7.45192, 65.995, 0.0205841, 13.4421
0, 2820.00000, 120.169, -31.0806, 120.326, -150.89, 120.989, 89.0693, 0, 0, 7.43747, -54.1546, 7.44827, -173.964, 7.45164, 65.9954, 0.020767, 13.6939
0, 2880.00000, 120.169, -31.0806, 120.326, -150.89, 120.989, 89.0693, 0, 0, 7.43747, -54.1545, 7.44827, -173.964, 7.45163, 65.9954, 0.0207692, 13.6956
0, 2940.00000, 120.169, -31.0806, 120.326, -150.89, 120.989, 89.0693, 0, 0, 7.43746, -54.1545, 7.44827, -173.964, 7.45163, 65.9954, 0.0207692, 13.6956
0, 3000.00000, 120.169, -31.0806, 120.326, -150.89, 120.989, 89.0693, 0, 0, 7.43746, -54.1545, 7.44827, -173.964, 7.45163, 65.9954, 0.0207692, 13.6956
0, 3060.00000, 120.169, -31.0806, 120.326, -150.89, 120.989, 89.0693, 0, 0, 7.43746, -54.1545, 7.44827, -173.964, 7.45163, 65.9954, 0.0207692, 13.6956
0, 3120.00000, 120.169, -31.0806, 120.326, -150.89, 120.989, 89.0693, 0, 0, 7.43746, -54.1545, 7.44827, -173.964, 7.45163, 65.9954, 0.0207692, 13.6956
0, 3180.00000, 120.169, -31.0806, 120.326, -150.89, 120.989, 89.0693, 0, 0, 7.43746, -54.1545, 7.44827, -173.964, 7.45163, 65.9954, 0.0207692, 13.6956
0, 3240.00000, 120.169, -31.0806, 120.326, -150.89, 120.989, 89.0693, 0, 0, 7.43746, -54.1545, 7.44827, -173.964, 7.45163, 65.9954, 0.0207692, 13.6956
0, 3300.00000, 120.169, -31.0806, 120.326, -150.89, 120.989, 89.0693, 0, 0, 7.43746, -54.1545, 7.44827, -173.964, 7.45163, 65.9954, 0.0207692, 13.6956
0, 3360.00000, 120.169, -31.0806, 120.326, -150.89, 120.989, 89.0693, 0, 0, 7.43746, -54.1545, 7.44827, -173.964, 7.45163, 65.9954, 0.0207692, 13.6956
0, 3420.00000, 120.169, -31.0806, 120.326, -150.89, 120.989, 89.0693, 0, 0, 7.43746, -54.1545, 7.44827, -173.964, 7.45163, 65.9954, 0.0207692, 13.6956
0, 3480.00000, 120.169, -31.0806, 120.326, -150.89, 120.989, 89.0693, 0, 0, 7.43746, -54.1545, 7.44827, -173.964, 7.45163, 65.9954, 0.0207692, 13.6956
0, 3540.00000, 120.169, -31.0806, 120.326, -150.89, 120.989, 89.0693, 0, 0, 7.43746, -54.1545, 7.44827, -173.964, 7.45163, 65.9954, 0.0207692, 13.6956
1, 0.00000, 120.169, -31.0806, 120.326, -150.89, 120.989, 89.0693, 0, 0, 7.43746, -54.1545, 7.44827, -173.964, 7.45163, 65.9954, 0.0207692, 13.6956
1, 60.00000, 120.419, -31.0559, 120.565, -150.873, 121.251, 89.0958, 0, 0, 7.3675, -54.1302, 7.37736, -173.946, 7.34886, 66.0215, 0.0469455, 45.7788
1, 120.00000, 120.419, -31.0558, 120.565, -150.873, 121.252, 89.0958, 0, 0, 7.36748, -54.1297, 7.37738, -173.947, 7.3486, 66.0219, 0.0471173, 45.7474
1, 180.00000, 120.419, -31.0558, 120.565, -150.873, 121.252, 89.0958, 0, 0, 7.36747, -54.1297, 7.37738, -173.947, 7.34859, 66.0219, 0.0471197, 45.7464
1, 240.00000, 120.419, -31.0558, 120.565, -150.873, 121.252, 89.0958, 0, 0, 7.36747, -54.1297, 7.37738, -173.947, 7.34859, 66.0219, 0.0471197, 45.7464
1, 300.00000, 120.419, -31.0558, 120.565, -150.873, 121.252, 89.0958, 0, 0, 7.36747, -54.1297, 7.37738, -173.947, 7.34859, 66.0219, 0.0471197, 45.7464
1, 360.00000, 120.419, -31.0558, 120.565, -150.873, 121.252, 89.0958, 0, 0, 7.36747, -54.1297, 7.37738, -173.947, 7.34859, 66.0219, 0.0471197, 45.7464
1, 420.00000, 120.419, -31.0558, 120.565, -150.873, 121.252, 89.0958, 0, 0, 7.36747, -54.1297, 7.37738, -173.947, 7.34859, 66.0219, 0.0471197, 45.7464
1, 480.00000, 120.419, -31.0558, 120.565, -150.873, 121.252, 89.0958, 0, 0, 7.36747, -54.1297, 7.37738, -173.947, 7.34859, 66.0219, 0.0471197, 45.7464
1, 540.00000, 120.419, -31.0558, 120.565, -150.873, 121.252, 89.0958, 0, 0, 7.36747, -54.1297, 7.37738, -173.947, 7.34859, 66.0219, 0.0471197, 45.7464
1, 600.00000, 120.419, -31.0558, 120.565, -150.873, 121.252, 89.0958, 0, 0, 7.36747, -54.1297, 7.37738, -173.947, 7.34859, 66.0219, 0.0471197, 45.7464
1, 660.00000, 120.419, -31.0558, 120.565, -150.873, 121.252, 89.0958, 0, 0, 7.36747, -54.1297, 7.37738, -173.947, 7.34859, 66.0219, 0.0471197, 45.7464
1, 720.00000, 120.419, -31.0558, 120.565, -150.873, 121.252, 89.0958, 0, 0, 7.36747, -54.1297, 7.37738, -173.947, 7.34859, 66.0219, 0.0471197, 45.7464
1, 780.00000, 120.419, -31.0558, 120.565, -150.873, 121.252, 89.0958, 0, 0, 7.36747, -54.1297, 7.37738, -173.947, 7.34859, 66.0219, 0.0471197, 45.7464
1, 840.00000, 120.419, -31.0558, 120.565, -150.873, 121.252, 89.0958, 0, 0, 7.36747, -54.1297, 7.37738, -173.947, 7.34859, 66.0219, 0.0471197, 45.7464
1, 900.00000, 120.419, -31.0558, 120.565, -150.873, 121.252, 89.0958, 0, 0, 7.36747, -54.1297, 7.37738, -173.947, 7.34859, 66.0219, 0.0471197, 45.7464
1, 960.00000, 120.445, -31.0513, 120.59, -150.869, 121.279, 89.1007, 0, 0, 7.33471, -54.1257, 7.34447, -173.943, 7.31279, 66.0263, 0.0497835, 46.9991
1, 1020.00000, 120.445, -31.0512, 120.59, -150.869, 121.279, 89.1007, 0, 0, 7.33475, -54.1251, 7.34454, -173.943, 7.31253, 66.0268, 0.0500268, 47.0212
1, 1080.00000, 120.445, -31.0512, 120.59, -150.869, 121.279, 89.1007, 0, 0, 7.33475, -54.1251, 7.34454, -173.943, 7.31252, 66.0268, 0.0500298, 47.0203
1, 1140.00000, 120.445, -31.0512, 120.59, -150.869, 121.279, 89.1007, 0, 0, 7.33475, -54.1251, 7.34454, -173.943, 7.31252, 66.0268, 0.0500298, 47.0202
1, 1200.00000, 120.445, -31.0512, 120.59, -150.869, 121.279, 89.1007, 0, 0, 7.33475, -54.1251, 7.34454, -173.943, 7.31252, 66.0268, 0.0500298, 47.0202
1, 1260.00000, 120.445, -31.0512, 120.59, -150.869, 121.279, 89.1007, 0, 0, 7.33475, -54.1251, 7.34454, -173.943, 7.31252, 66.0268, 0.0500298, 47.0202
1, 1320.00000, 120.445, -31.0512, 120.59, -150.869, 121.279, 89.1007, 0, 0, 7.33475, -54.1251, 7.34454, -173.943, 7.31252, 66.0268, 0.0500298, 47.0202
1, 1380.00000, 120.445, -31.0512, 120.59, -150.869, 121.279, 89.1007, 0, 0, 7.33475, -54.1251, 7.34454, -173.943, 7.31252, 66.0268, 0.0500298, 47.0202
1, 1440.00000, 120.445, -31.0512, 120.59, -150.869, 121.279, 89.1007, 0, 0, 7.33475, -54.1251, 7.34454, -173.943, 7.31252, 66.0268, 0.0500298, 47.0202
1, 1500.00000, 120.445, -31.0512, 120.59, -150.869, 121.279, 89.1007, 0, 0, 7.33475, -54.1251, 7.34454, -173.943, 7.31252, 66.0268, 0.0500298, 47.0202
1, 1560.00000, 120.445, -31.0512, 120.59, -150.869, 121.279, 89.1007, 0, 0, 7.33475, -54.1251, 7.34454, -173.943, 7.31252, 66.0268, 0.0500298, 47.0202
1, 1620.00000, 120.445, -31.0512, 120.59, -150.869, 121.279, 89.1007, 0, 0, 7.33475, -54.1251, 7.34454, -173.943, 7.31252, 66.0268, 0.0500298, 47.0202
1, 1680.00000, 120.445, -31.0512, 120.59, -150.869, 121.279, 89.1007, 0, 0, 7.33475, -54.1251, 7.34454, -173.943, 7.31252, 66.0268, 0.0500298, 47.0202
1, 1740.00000, 120.445, -31.0512, 120.59, -150.869, 121.279, 89.1007, 0, 0, 7.33475, -54.1251, 7.34454, -173.943, 7.31252, 66.0268, 0.0500298, 47.0202
1, 1800.00000, 120.445, -31.0512, 120.59, -150.869, 121.279, 89.1007, 0, 0, 7.33475, -54.1251, 7.34454, -173.943, 7.31252, 66.0268, 0.0500298, 47.0202
1, 1860.00000, 120.208, -31.0736, 120.364, -150.884, 121.03, 89.0772, 0, 0, 7.49522, -54.1472, 7.50603, -173.958, 7.50406, 66.0036, 0.0245607, 23.0485
1, 1920.00000, 120.208, -31.0737, 120.364, -150.884, 121.03, 89.0772, 0, 0, 7.49525, -54.1476, 7.50601, -173.958, 7.50431, 66.0033, 0.0243956, 22.9471
1, 1980.00000, 120.208, -31.0737, 120.364, -150.884, 121.03, 89.0772, 0, 0, 7.49525, -54.1476, 7.50601, -173.958, 7.50432, 66.0033, 0.0243931, 22.9465
1, 2040.00000, 120.208, -31.0737, 120.364, -150.884, 121.03, 89.0772, 0, 0, 7.49525, -54.1476, 7.50601, -173.958, 7.50432, 66.0033, 0.024393, 22.9465
1, 2100.00000, 120.208, -31.0737, 120.364, -150.884, 121.03, 89.0772, 0, 0, 7.49525, -54.1476, 7.50601, -173.958, 7.50432, 66.0033, 0.024393, 22.9465
1, 2160.00000, 120.208, -31.0737, 120.364, -150.884, 121.03, 89.0772, 0, 0, 7.49525, -54.1476, 7.50601, -173.958, 7.50432, 66.0033, 0.024393, 22.9465
1, 2220.00000, 120.208, -31.0737, 120.364, -150.884, 121.03, 89.0772, 0, 0, 7.49525, -54.1476, 7.50601, -173.958, 7.50432, 66.0033, 0.024393, 22.9465
1, 2280.00000, 120.208, -31.0737, 120.364, -150.884, 121.03, 89.0772, 0, 0, 7.49525, -54.1476, 7.50601, -173.958, 7.50432, 66.0033, 0.024393, 22.9465
1, 2340.00000, 120.208, -31.0737, 120.364, -150.884, 121.03, 89.0772, 0, 0, 7.49525, -54.1476, 7.50601, -173.958, 7.50432, 66.0033, 0.024393, 22.9465
1, 2400.00000, 120.208, -31.0737, 120.364, -150.884, 121.03, 89.0772, 0, 0, 7.49525, -54.1476, 7.50601, -173.958, 7.50432, 66.0033, 0.024393, 22.9465
1, 2460.00000, 120.208, -31.0737, 120.364, -150.884, 121.03, 89.0772, 0, 0, 7.49525, -54.1476, 7.50601, -173.958, 7.50432, 66.0033, 0.024393, 22.9465
1, 2520.00000, 120.208, -31.0737, 120.364, -150.884, 121.03, 89.0772, 0, 0, 7.49525, -54.1476, 7.50601, -173.958, 7.50432, 66.0033, 0.024393, 22.9465
1, 2580.00000, 120.208, -31.0737, 120.364, -150.884, 121.03, 89.0772, 0, 0, 7.49525, -54.1476, 7.50601, -173.958, 7.50432, 66.0033, 0.024393, 22.9465
1, 2640.00000, 120.208, -31.0737, 120.364, -150.884, 121.03, 89.0772, 0, 0, 7.49525, -54.1476, 7.50601, -173.958, 7.50432, 66.0033, 0.024393, 22.9465
1, 2700.00000, 120.208, -31.0737, 120.364, -150.884, 121.03, 89.0772, 0, 0, 7.49525, -54.1476, 7.50601, -173.958, 7.50432, 66.0033, 0.024393, 22.9465
1, 2760.00000, 120.671, -31.0287, 120.817, -150.851, 121.51, 89.1278, 0, 0, 7.09235, -54.1031, 7.08393, -173.924, 7.04376, 66.0532, 0.0635649, 65.1611
1, 2820.00000, 120.671, -31.0287, 120.818, -150.851, 121.511, 89.1279, 0, 0, 7.09237, -54.1026, 7.08376, -173.925, 7.04335, 66.054, 0.0637862, 65.2079
1, 2880.00000, 120.671, -31.0287, 120.818, -150.851, 121.511, 89.1279, 0, 0, 7.09237, -54.1026, 7.08376, -173.925, 7.04334, 66.054, 0.0637909, 65.2089
1, 2940.00000, 120.671, -31.0287, 120.818, -150.851, 121.511, 89.1279, 0, 0, 7.09237, -54.1026, 7.08376, -173.925, 7.04334, 66.054, 0.063791, 65.2089
1, 3000.00000, 120.671, -31.0287, 120.818, -150.851, 121.511, 89.1279, 0, 0, 7.09237, -54.1026, 7.08376, -173.925, 7.04334, 66.054, 0.063791, 65.2089
1, 3060.00000, 120.671, -31.0287, 120.818, -150.851, 121.511, 89.1279, 0, 0, 7.09237, -54.1026, 7.08376, -173.925, 7.04334, 66.054, 0.063791, 65.2089
1, 3120.00000, 120.671, -31.0287, 120.818, -150.851, 121.511, 89.1279, 0, 0, 7.09237, -54.1026, 7.08376, -173.925, 7.04334, 66.054, 0.063791, 65.2089
1, 3180.00000, 120.671, -31.0287, 120.818, -150.851, 121.511, 89.1279, 0, 0, 7.09237, -54.1026, 7.08376, -173.925, 7.04334, 66.054, 0.063791, 65.2089
1, 3240.00000, 120.671, -31.0287, 120.818, -150.851, 121.511, 89.1279, 0, 0, 7.09237, -54.1026, 7.08376, -173.925, 7.04334, 66.054, 0.063791, 65.2089
1, 3300.00000, 120.671, -31.0287, 120.818, -150.851, 121.511, 89.1279, 0, 0, 7.09237, -54.1026, 7.08376, -173.925, 7.04334, 66.054, 0.063791, 65.2089
1, 3360.00000, 120.671, -31.0287, 120.818, -150.851, 121.511, 89.1279, 0, 0, 7.09237, -54.1026, 7.08376, -173.925, 7.04334, 66.054, 0.063791, 65.2089
1, 3420.00000, 120.671, -31.0287, 120.818, -150.851, 121.511, 89.1279, 0, 0, 7.09237, -54.1026, 7.08376, -173.925, 7.04334, 66.054, 0.063791, 65.2089
1, 3480.00000, 120.671, -31.0287, 120.818, -150.851, 121.511, 89.1279, 0, 0, 7.09237, -54.1026, 7.08376, -173.925, 7.04334, 66.054, 0.063791, 65.2089
1, 3540.00000, 120.671, -31.0287, 120.818, -150.851, 121.511, 89.1279, 0, 0, 7.09237, -54.1026, 7.08376, -173.925, 7.04334, 66.054, 0.063791, 65.2089
2, 0.00000, 120.671, -31.0287, 120.818, -150.851, 121.511, 89.1279, 0, 0, 7.09237, -54.1026, 7.08376, -173.925, 7.04334, 66.054, 0.063791, 65.2089
2, 60.00000, 120.387, -31.0548, 120.535, -150.871, 121.221, 89.0971, 0, 0, 7.26431, -54.1284, 7.27425, -173.946, 7.24944, 66.0235, 0.0431122, 43.8169
2, 120.00000, 120.388, -31.0549, 120.535, -150.871, 121.22, 89.097, 0, 0, 7.26434, -54.1288, 7.27422, -173.945, 7.24971, 66.0231, 0.0429081, 43.8568
2, 180.00000, 120.388, -31.0549, 120.535, -150.871, 121.22, 89.097, 0, 0, 7.26434, -54.1288, 7.27422, -173.945, 7.24972, 66.0231, 0.0429054, 43.8578
2, 240.00000, 120.388, -31.0549, 120.535, -150.871, 121.22, 89.097, 0, 0, 7.26434, -54.1288, 7.27422, -173.945, 7.24972, 66.0231, 0.0429054, 43.8579
2, 300.00000, 120.388, -31.0549, 120.535, -150.871, 121.22, 89.097, 0, 0, 7.26434, -54.1288, 7.27422, -173.945, 7.24972, 66.0231, 0.0429054, 43.8579
2, 360.00000, 120.388, -31.0549, 120.535, -150.871, 121.22, 89.097, 0, 0, 7.26434, -54.1288, 7.27422, -173.945, 7.24972, 66.0231, 0.0429054, 43.8579
2, 420.00000, 120.388, -31.0549, 120.535, -150.871, 121.22, 89.097, 0, 0, 7.26434, -54.1288, 7.27422, -173.945, 7.24972, 66.0231, 0.0429054, 43.8579
2, 480.00000, 120.388, -31.0549, 120.535, -150.871, 121.22, 89.097, 0, 0, 7.26434, -54.1288, 7.27422, -173.945, 7.24972, 66.0231, 0.0429054, 43.8579
2, 540.00000, 120.388, -31.0549, 120.535, -150.871, 121.22, 89.097, 0, 0, 7.26434, -54.1288, 7.27422, -173.945, 7.24972, 66.0231, 0.0429054, 43.8579
2, 600.00000, 120.388, -31.0549, 120.535, -150.871, 121.22, 89.097, 0, 0, 7.26434, -54.1288, 7.27422, -173.945, 7.24972, 66.0231, 0.0429054, 43.8579
2, 660.00000, 120.388, -31.0549, 120.535, -150.871, 121.22, 89.097, 0, 0, 7.26434, -54.1288, 7.27422, -173.945, 7.24972, 66.0231, 0.0429054, 43.8579
