hour,t(sec),V1,VAngle1,V2,VAngle2,V3,VAngle3,V4,VAngle4,I1,IAngle1,I2,IAngle2,I3,IAngle3,I4,IAngle4
0, 60.00000, 126.131, -31.3727, 125.831, -151.254, 126.226, 88.8131, 0, 0, 3.90857, -54.4464, 3.91791, -174.327, 3.90561, 65.7397, 0.0222406, 16.925
0, 120.00000, 126.131, -31.3727, 125.83, -151.254, 126.226, 88.813, 0, 0, 3.90859, -54.4467, 3.91794, -174.328, 3.90566, 65.7391, 0.0222158, 16.8993
0, 180.00000, 126.131, -31.3727, 125.83, -151.254, 126.226, 88.813, 0, 0, 3.90859, -54.4467, 3.91794, -174.328, 3.90566, 65.7391, 0.0222152, 16.8989
0, 240.00000, 126.131, -31.3727, 125.83, -151.254, 126.226, 88.813, 0, 0, 3.90859, -54.4467, 3.91794, -174.328, 3.90566, 65.7391, 0.0222152, 16.8989
0, 300.00000, 126.131, -31.3727, 125.83, -151.254, 126.226, 88.813, 0, 0, 3.90859, -54.4467, 3.91794, -174.328, 3.90566, 65.7391, 0.0222152, 16.8989
0, 360.00000, 126.131, -31.3727, 125.83, -151.254, 126.226, 88.813, 0, 0, 3.90859, -54.4467, 3.91794, -174.328, 3.90566, 65.7391, 0.0222152, 16.8989
0, 420.00000, 126.131, -31.3727, 125.83, -151.254, 126.226, 88.813, 0, 0, 3.90859, -54.4467, 3.91794, -174.328, 3.90566, 65.7391, 0.0222152, 16.8989
0, 480.00000, 126.131, -31.3727, 125.83, -151.254, 126.226, 88.813, 0, 0, 3.90859, -54.4467, 3.91794, -174.328, 3.90566, 65.7391, 0.0222152, 16.8989
0, 540.00000, 126.131, -31.3727, 125.83, -151.254, 126.226, 88.813, 0, 0, 3.90859, -54.4467, 3.91794, -174.328, 3.90566, 65.7391, 0.0222152, 16.8989
0, 600.00000, 126.131, -31.3727, 125.83, -151.254, 126.226, 88.813, 0, 0, 3.90859, -54.4467, 3.91794, -174.328, 3.90566, 65.7391, 0.0222152, 16.8989
0, 660.00000, 126.131, -31.3727, 125.83, -151.254, 126.226, 88.813, 0, 0, 3.90859, -54.4467, 3.91794, -174.328, 3.90566, 65.7391, 0.0222152, 16.8989
0, 720.00000, 126.131, -31.3727, 125.83, -151.254, 126.226, 88.813, 0, 0, 3.90859, -54.4467, 3.91794, -174.328, 3.90566, 65.7391, 0.0222152, 16.8989
0, 780.00000, 126.131, -31.3727, 125.83, -151.254, 126.226, 88.813, 0, 0, 3.90859, -54.4467, 3.91794, -174.328, 3.90566, 65.7391, 0.0222152, 16.8989
0, 840.00000, 126.131, -31.3727, 125.83, -151.254, 126.226, 88.813, 0, 0, 3.90859, -54.4467, 3.91794, -174.328, 3.90566, 65.7391, 0.0222152, 16.8989
0, 900.00000, 126.131, -31.3727, 125.83, -151.254, 126.226, 88.813, 0, 0, 3.90859, -54.4467, 3.91794, -174.328, 3.90566, 65.7391, 0.0222152, 16.8989
0, 960.00000, 126.041, -31.4038, 125.741, -151.285, 126.135, 88.7818, 0, 0, 4.13775, -54.4776, 4.14762, -174.358, 4.13465, 65.708, 0.023488, 16.8751
0, 1020.00000, 126.041, -31.4038, 125.741, -151.285, 126.135, 88.7818, 0, 0, 4.13776, -54.4777, 4.14763, -174.359, 4.13466, 65.7079, 0.0234887, 16.8748
0, 1080.00000, 126.041, -31.4038, 125.741, -151.285, 126.135, 88.7818, 0, 0, 4.13776, -54.4777, 4.14763, -174.359, 4.13466, 65.7079, 0.0234887, 16.8747
0, 1140.00000, 126.041, -31.4038, 125.741, -151.285, 126.135, 88.7818, 0, 0, 4.13776, -54.4777, 4.14763, -174.359, 4.13466, 65.7079, 0.0234887, 16.8747
0, 1200.00000, 126.041, -31.4038, 125.741, -151.285, 126.135, 88.7818, 0, 0, 4.13776, -54.4777, 4.14763, -174.359, 4.13466, 65.7079, 0.0234887, 16.8747
0, 1260.00000, 126.041, -31.4038, 125.741, -151.285, 126.135, 88.7818, 0, 0, 4.13776, -54.4777, 4.14763, -174.359, 4.13466, 65.7079, 0.0234887, 16.8747
0, 1320.00000, 126.041, -31.4038, 125.741, -151.285, 126.135, 88.7818, 0, 0, 4.13776, -54.4777, 4.14763, -174.359, 4.13466, 65.7079, 0.0234887, 16.8747
0, 1380.00000, 126.041, -31.4038, 125.741, -151.285, 126.135, 88.7818, 0, 0, 4.13776, -54.4777, 4.14763, -174.359, 4.13466, 65.7079, 0.0234887, 16.8747
0, 1440.00000, 126.041, -31.4038, 125.741, -151.285, 126.135, 88.7818, 0, 0, 4.13776, -54.4777, 4.14763, -174.359, 4.13466, 65.7079, 0.0234887, 16.8747
0, 1500.00000, 126.041, -31.4038, 125.741, -151.285, 126.135, 88.7818, 0, 0, 4.13776, -54.4777, 4.14763, -174.359, 4.13466, 65.7079, 0.0234887, 16.8747
0, 1560.00000, 126.041, -31.4038, 125.741, -151.285, 126.135, 88.7818, 0, 0, 4.13776, -54.4777, 4.14763, -174.359, 4.13466, 65.7079, 0.0234887, 16.8747
0, 1620.00000, 126.041, -31.4038, 125.741, -151.285, 126.135, 88.7818, 0, 0, 4.13776, -54.4777, 4.14763, -174.359, 4.13466, 65.7079, 0.0234887, 16.8747
0, 1680.00000, 126.041, -31.4038, 125.741, -151.285, 126.135, 88.7818, 0, 0, 4.13776, -54.4777, 4.14763, -174.359, 4.13466, 65.7079, 0.0234887, 16.8747
0, 1740.00000, 126.041, -31.4038, 125.741, -151.285, 126.135, 88.7818, 0, 0, 4.13776, -54.4777, 4.14763, -174.359, 4.13466, 65.7079, 0.0234887, 16.8747
0, 1800.00000, 126.041, -31.4038, 125.741, -151.285, 126.135, 88.7818, 0, 0, 4.13776, -54.4777, 4.14763, -174.359, 4.13466, 65.7079, 0.0234887, 16.8747
0, 1860.00000, 126.097, -31.3828, 125.797, -151.264, 126.192, 88.8029, 0, 0, 4.14856, -54.4579, 4.15847, -174.339, 4.14545, 65.728, 0.0235765, 16.9248
0, 1920.00000, 126.097, -31.3828, 125.797, -151.264, 126.192, 88.803, 0, 0, 4.14846, -54.4567, 4.15837, -174.337, 4.14535, 65.7291, 0.0235665, 16.9288
0, 1980.00000, 126.097, -31.3828, 125.797, -151.264, 126.192, 88.803, 0, 0, 4.14846, -54.4567, 4.15837, -174.337, 4.14535, 65.7291, 0.0235665, 16.9288
0, 2040.00000, 126.097, -31.3828, 125.797, -151.264, 126.192, 88.803, 0, 0, 4.14846, -54.4567, 4.15837, -174.337, 4.14535, 65.7291, 0.0235665, 16.9288
0, 2100.00000, 126.097, -31.3828, 125.797, -151.264, 126.192, 88.803, 0, 0, 4.14846, -54.4567, 4.15837, -174.337, 4.14535, 65.7291, 0.0235665, 16.9288
0, 2160.00000, 126.097, -31.3828, 125.797, -151.264, 126.192, 88.803, 0, 0, 4.14846, -54.4567, 4.15837, -174.337, 4.14535, 65.7291, 0.0235665, 16.9288
0, 2220.00000, 126.097, -31.3828, 125.797, -151.264, 126.192, 88.803, 0, 0, 4.14846, -54.4567, 4.15837, -174.337, 4.14535, 65.7291, 0.0235665, 16.9288
0, 2280.00000, 126.097, -31.3828, 125.797, -151.264, 126.192, 88.803, 0, 0, 4.14846, -54.4567, 4.15837, -174.337, 4.14535, 65.7291, 0.0235665, 16.9288
0, 2340.00000, 126.097, -31.3828, 125.797, -151.264, 126.192, 88.803, 0, 0, 4.14846, -54.4567, 4.15837, -174.337, 4.14535, 65.7291, 0.0235665, 16.9288
0, 2400.00000, 126.097, -31.3828, 125.797, -151.264, 126.192, 88.803, 0, 0, 4.14846, -54.4567, 4.15837, -174.337, 4.14535, 65.7291, 0.0235665, 16.9288
0, 2460.00000, 126.097, -31.3828, 125.797, -151.264, 126.192, 88.803, 0, 0, 4.14846, -54.4567, 4.15837, -174.337, 4.14535, 65.7291, 0.0235665, 16.9288
0, 2520.00000, 126.097, -31.3828, 125.797, -151.264, 126.192, 88.803, 0, 0, 4.14846, -54.4567, 4.15837, -174.337, 4.14535, 65.7291, 0.0235665, 16.9288
0, 2580.00000, 126.097, -31.3828, 125.797, -151.264, 126.192, 88.803, 0, 0, 4.14846, -54.4567, 4.15837, -174.337, 4.14535, 65.7291, 0.0235665, 16.9288
0, 2640.00000, 126.097, -31.3828, 125.797, -151.264, 126.192, 88.803, 0, 0, 4.14846, -54.4567, 4.15837, -174.337, 4.14535, 65.7291, 0.0235665, 16.9288
0, 2700.00000, 126.097, -31.3828, 125.797, -151.264, 126.192, 88.803, 0, 0, 4.14846, -54.4567, 4.15837, -174.337, 4.14535, 65.7291, 0.0235665, 16.9288
0, 2760.00000, 126.22, -31.3395, 125.919, -151.22, 126.318, 88.8471, 0, 0, 3.94196, -54.4136, 3.95138, -174.294, 3.93893, 65.773, 0.0224932, 17.0101
0, 2820.00000, 126.22, -31.3395, 125.919, -151.22, 126.318, 88.8472, 0, 0, 3.94194, -54.4134, 3.95137, -174.294, 3.93891, 65.7733, 0.0225097, 17.0184
0, 2880.00000, 126.22, -31.3395, 125.919, -151.22, 126.318, 88.8472, 0, 0, 3.94194, -54.4134, 3.95137, -174.294, 3.93891, 65.7733, 0.02251, 17.0186
0, 2940.00000, 126.22, -31.3395, 125.919, -151.22, 126.318, 88.8472, 0, 0, 3.94194, -54.4134, 3.95137, -174.294, 3.93891, 65.7733, 0.02251, 17.0186
0, 3000.00000, 126.22, -31.3395, 125.919, -151.22, 126.318, 88.8472, 0, 0, 3.94194, -54.4134, 3.95137, -174.294, 3.93891, 65.7733, 0.02251, 17.0186
0, 3060.00000, 126.22, -31.3395, 125.919, -151.22, 126.318, 88.8472, 0, 0, 3.94194, -54.4134, 3.95137, -174.294, 3.93891, 65.7733, 0.02251, 17.0186
0, 3120.00000, 126.22, -31.3395, 125.919, -151.22, 126.318, 88.8472, 0, 0, 3.94194, -54.4134, 3.95137, -174.294, 3.93891, 65.7733, 0.02251, 17.0186
0, 3180.00000, 126.22, -31.3395, 125.919, -151.22, 126.318, 88.8472, 0, 0, 3.94194, -54.4134, 3.95137, -174.294, 3.93891, 65.7733, 0.02251, 17.0186
0, 3240.00000, 126.22, -31.3395, 125.919, -151.22, 126.318, 88.8472, 0, 0, 3.94194, -54.4134, 3.95137, -174.294, 3.93891, 65.7733, 0.02251, 17.0186
0, 3300.00000, 126.22, -31.3395, 125.919, -151.22, 126.318, 88.8472, 0, 0, 3.94194, -54.4134, 3.95137, -174.294, 3.93891, 65.7733, 0.02251, 17.0186
0, 3360.00000, 126.22, -31.3395, 125.919, -151.22, 126.318, 88.8472, 0, 0, 3.94194, -54.4134, 3.95137, -174.294, 3.93891, 65.7733, 0.02251, 17.0186
0, 3420.00000, 126.22, -31.3395, 125.919, -151.22, 126.318, 88.8472, 0, 0, 3.94194, -54.4134, 3.95137, -174.294, 3.93891, 65.7733, 0.02251, 17.0186
0, 3480.00000, 126.22, -31.3395, 125.919, -151.22, 126.318, 88.8472, 0, 0, 3.94194, -54.4134, 3.95137, -174.294, 3.93891, 65.7733, 0.02251, 17.0186
0, 3540.00000, 126.22, -31.3395, 125.919, -151.22, 126.318, 88.8472, 0, 0, 3.94194, -54.4134, 3.95137, -174.294, 3.93891, 65.7733, 0.02251, 17.0186
1, 0.00000, 126.22, -31.3395, 125.919, -151.22, 126.318, 88.8472, 0, 0, 3.94194, -54.4134, 3.95137, -174.294, 3.93891, 65.7733, 0.02251, 17.0186
1, 60.00000, 126.305, -31.3088, 126.003, -151.189, 126.405, 88.879, 0, 0, 3.89326, -54.3828, 3.90258, -174.263, 3.89018, 65.8048, 0.0223399, 17.114
1, 120.00000, 126.305, -31.3088, 126.003, -151.189, 126.405, 88.8791, 0, 0, 3.89326, -54.3827, 3.90257, -174.263, 3.89016, 65.8051, 0.0223617, 17.1245
1, 180.00000, 126.305, -31.3088, 126.003, -151.189, 126.405, 88.8791, 0, 0, 3.89326, -54.3827, 3.90257, -174.263, 3.89016, 65.8051, 0.0223622, 17.1248
1, 240.00000, 126.305, -31.3088, 126.003, -151.189, 126.405, 88.8791, 0, 0, 3.89326, -54.3827, 3.90257, -174.263, 3.89016, 65.8051, 0.0223622, 17.1248
1, 300.00000, 126.305, -31.3088, 126.003, -151.189, 126.405, 88.8791, 0, 0, 3.89326, -54.3827, 3.90257, -174.263, 3.89016, 65.8051, 0.0223622, 17.1248
1, 360.00000, 126.305, -31.3088, 126.003, -151.189, 126.405, 88.8791, 0, 0, 3.89326, -54.3827, 3.90257, -174.263, 3.89016, 65.8051, 0.0223622, 17.1248
1, 420.00000, 126.305, -31.3088, 126.003, -151.189, 126.405, 88.8791, 0, 0, 3.89326, -54.3827, 3.90257, -174.263, 3.89016, 65.8051, 0.0223622, 17.1248
1, 480.00000, 126.305, -31.3088, 126.003, -151.189, 126.405, 88.8791, 0, 0, 3.89326, -54.3827, 3.90257, -174.263, 3.89016, 65.8051, 0.0223622, 17.1248
1, 540.00000, 126.305, -31.3088, 126.003, -151.189, 126.405, 88.8791, 0, 0, 3.89326, -54.3827, 3.90257, -174.263, 3.89016, 65.8051, 0.0223622, 17.1248
1, 600.00000, 126.305, -31.3088, 126.003, -151.189, 126.405, 88.8791, 0, 0, 3.89326, -54.3827, 3.90257, -174.263, 3.89016, 65.8051, 0.0223622, 17.1248
1, 660.00000, 126.305, -31.3088, 126.003, -151.189, 126.405, 88.8791, 0, 0, 3.89326, -54.3827, 3.90257, -174.263, 3.89016, 65.8051, 0.0223622, 17.1248
1, 720.00000, 126.305, -31.3088, 126.003, -151.189, 126.405, 88.8791, 0, 0, 3.89326, -54.3827, 3.90257, -174.263, 3.89016, 65.8051, 0.0223622, 17.1248
1, 780.00000, 126.305, -31.3088, 126.003, -151.189, 126.405, 88.8791, 0, 0, 3.89326, -54.3827, 3.90257, -174.263, 3.89016, 65.8051, 0.0223622, 17.1248
1, 840.00000, 126.305, -31.3088, 126.003, -151.189, 126.405, 88.8791, 0, 0, 3.89326, -54.3827, 3.90257, -174.263, 3.89016, 65.8051, 0.0223622, 17.1248
1, 900.00000, 126.305, -31.3088, 126.003, -151.189, 126.405, 88.8791, 0, 0, 3.89326, -54.3827, 3.90257, -174.263, 3.89016, 65.8051, 0.0223622, 17.1248
1, 960.00000, 126.318, -31.3042, 126.016, -151.185, 126.419, 88.8838, 0, 0, 3.87466, -54.3784, 3.88393, -174.259, 3.87157, 65.8095, 0.0222591, 17.1292
1, 1020.00000, 126.318, -31.3042, 126.016, -151.185, 126.419, 88.8839, 0, 0, 3.87463, -54.3781, 3.8839, -174.259, 3.87153, 65.8099, 0.0222738, 17.1364
1, 1080.00000, 126.318, -31.3042, 126.016, -151.185, 126.419, 88.8839, 0, 0, 3.87463, -54.3781, 3.8839, -174.259, 3.87153, 65.8099, 0.0222743, 17.1366
1, 1140.00000, 126.318, -31.3042, 126.016, -151.185, 126.419, 88.8839, 0, 0, 3.87463, -54.3781, 3.8839, -174.259, 3.87153, 65.8099, 0.0222743, 17.1367
1, 1200.00000, 126.318, -31.3042, 126.016, -151.185, 126.419, 88.8839, 0, 0, 3.87463, -54.3781, 3.8839, -174.259, 3.87153, 65.8099, 0.0222743, 17.1367
1, 1260.00000, 126.318, -31.3042, 126.016, -151.185, 126.419, 88.8839, 0, 0, 3.87463, -54.3781, 3.8839, -174.259, 3.87153, 65.8099, 0.0222743, 17.1367
1, 1320.00000, 126.318, -31.3042, 126.016, -151.185, 126.419, 88.8839, 0, 0, 3.87463, -54.3781, 3.8839, -174.259, 3.87153, 65.8099, 0.0222743, 17.1367
1, 1380.00000, 126.318, -31.3042, 126.016, -151.185, 126.419, 88.8839, 0, 0, 3.87463, -54.3781, 3.8839, -174.259, 3.87153, 65.8099, 0.0222743, 17.1367
1, 1440.00000, 126.318, -31.3042, 126.016, -151.185, 126.419, 88.8839, 0, 0, 3.87463, -54.3781, 3.8839, -174.259, 3.87153, 65.8099, 0.0222743, 17.1367
1, 1500.00000, 126.318, -31.3042, 126.016, -151.185, 126.419, 88.8839, 0, 0, 3.87463, -54.3781, 3.8839, -174.259, 3.87153, 65.8099, 0.0222743, 17.1367
1, 1560.00000, 126.318, -31.3042, 126.016, -151.185, 126.419, 88.8839, 0, 0, 3.87463, -54.3781, 3.8839, -174.259, 3.87153, 65.8099, 0.0222743, 17.1367
1, 1620.00000, 126.318, -31.3042, 126.016, -151.185, 126.419, 88.8839, 0, 0, 3.87463, -54.3781, 3.8839, -174.259, 3.87153, 65.8099, 0.0222743, 17.1367
1, 1680.00000, 126.318, -31.3042, 126.016, -151.185, 126.419, 88.8839, 0, 0, 3.87463, -54.3781, 3.8839, -174.259, 3.87153, 65.8099, 0.0222743, 17.1367
1, 1740.00000, 126.318, -31.3042, 126.016, -151.185, 126.419, 88.8839, 0, 0, 3.87463, -54.3781, 3.8839, -174.259, 3.87153, 65.8099, 0.0222743, 17.1367
1, 1800.00000, 126.318, -31.3042, 126.016, -151.185, 126.419, 88.8839, 0, 0, 3.87463, -54.3781, 3.8839, -174.259, 3.87153, 65.8099, 0.0222743, 17.1367
1, 1860.00000, 126.237, -31.3329, 125.936, -151.214, 126.336, 88.8542, 0, 0, 3.9706, -54.4067, 3.9801, -174.287, 3.96749, 65.7805, 0.0227312, 17.0656
1, 1920.00000, 126.237, -31.3329, 125.936, -151.214, 126.336, 88.8541, 0, 0, 3.97061, -54.4068, 3.9801, -174.287, 3.96752, 65.7802, 0.02271, 17.0554
1, 1980.00000, 126.237, -31.3329, 125.936, -151.214, 126.336, 88.8541, 0, 0, 3.97061, -54.4068, 3.9801, -174.287, 3.96752, 65.7802, 0.0227095, 17.0552
1, 2040.00000, 126.237, -31.3329, 125.936, -151.214, 126.336, 88.8541, 0, 0, 3.97061, -54.4068, 3.9801, -174.287, 3.96752, 65.7802, 0.0227095, 17.0552
1, 2100.00000, 126.237, -31.3329, 125.936, -151.214, 126.336, 88.8541, 0, 0, 3.97061, -54.4068, 3.9801, -174.287, 3.96752, 65.7802, 0.0227095, 17.0552
1, 2160.00000, 126.237, -31.3329, 125.936, -151.214, 126.336, 88.8541, 0, 0, 3.97061, -54.4068, 3.9801, -174.287, 3.96752, 65.7802, 0.0227095, 17.0552
1, 2220.00000, 126.237, -31.3329, 125.936, -151.214, 126.336, 88.8541, 0, 0, 3.97061, -54.4068, 3.9801, -174.287, 3.96752, 65.7802, 0.0227095, 17.0552
1, 2280.00000, 126.237, -31.3329, 125.936, -151.214, 126.336, 88.8541, 0, 0, 3.97061, -54.4068, 3.9801, -174.287, 3.96752, 65.7802, 0.0227095, 17.0552
1, 2340.00000, 126.237, -31.3329, 125.936, -151.214, 126.336, 88.8541, 0, 0, 3.97061, -54.4068, 3.9801, -174.287, 3.96752, 65.7802, 0.0227095, 17.0552
1, 2400.00000, 126.237, -31.3329, 125.936, -151.214, 126.336, 88.8541, 0, 0, 3.97061, -54.4068, 3.9801, -174.287, 3.96752, 65.7802, 0.0227095, 17.0552
1, 2460.00000, 126.237, -31.3329, 125.936, -151.214, 126.336, 88.8541, 0, 0, 3.97061, -54.4068, 3.9801, -174.287, 3.96752, 65.7802, 0.0227095, 17.0552
1, 2520.00000, 126.237, -31.3329, 125.936, -151.214, 126.336, 88.8541, 0, 0, 3.97061, -54.4068, 3.9801, -174.287, 3.96752, 65.7802, 0.0227095, 17.0552
1, 2580.00000, 126.237, -31.3329, 125.936, -151.214, 126.336, 88.8541, 0, 0, 3.97061, -54.4068, 3.9801, -174.287, 3.96752, 65.7802, 0.0227095, 17.0552
1, 2640.00000, 126.237, -31.3329, 125.936, -151.214, 126.336, 88.8541, 0, 0, 3.97061, -54.4068, 3.9801, -174.287, 3.96752, 65.7802, 0.0227095, 17.0552
1, 2700.00000, 126.237, -31.3329, 125.936, -151.214, 126.336, 88.8541, 0, 0, 3.97061, -54.4068, 3.9801, -174.287, 3.96752, 65.7802, 0.0227095, 17.0552
1, 2760.00000, 126.4, -31.275, 126.099, -151.155, 126.504, 88.9141, 0, 0, 3.7367, -54.3491, 3.74563, -174.229, 3.73366, 65.8396, 0.0215445, 17.2696
1, 2820.00000, 126.401, -31.275, 126.099, -151.155, 126.505, 88.9141, 0, 0, 3.73668, -54.3489, 3.7456, -174.229, 3.73361, 65.8402, 0.0215779, 17.309
1, 2880.00000, 126.401, -31.275, 126.099, -151.155, 126.505, 88.9141, 0, 0, 3.73668, -54.3489, 3.7456, -174.229, 3.73361, 65.8402, 0.0215787, 17.3099
1, 2940.00000, 126.401, -31.275, 126.099, -151.155, 126.505, 88.9141, 0, 0, 3.73668, -54.3489, 3.7456, -174.229, 3.73361, 65.8402, 0.0215787, 17.3099
1, 3000.00000, 126.401, -31.275, 126.099, -151.155, 126.505, 88.9141, 0, 0, 3.73668, -54.3489, 3.7456, -174.229, 3.73361, 65.8402, 0.0215787, 17.3099
1, 3060.00000, 126.401, -31.275, 126.099, -151.155, 126.505, 88.9141, 0, 0, 3.73668, -54.3489, 3.7456, -174.229, 3.73361, 65.8402, 0.0215787, 17.3099
1, 3120.00000, 126.401, -31.275, 126.099, -151.155, 126.505, 88.9141, 0, 0, 3.73668, -54.3489, 3.7456, -174.229, 3.73361, 65.8402, 0.0215787, 17.3099
1, 3180.00000, 126.401, -31.275, 126.099, -151.155, 126.505, 88.9141, 0, 0, 3.73668, -54.3489, 3.7456, -174.229, 3.73361, 65.8402, 0.0215787, 17.3099
1, 3240.00000, 126.401, -31.275, 126.099, -151.155, 126.505, 88.9141, 0, 0, 3.73668, -54.3489, 3.7456, -174.229, 3.73361, 65.8402, 0.0215787, 17.3099
1, 3300.00000, 126.401, -31.275, 126.099, -151.155, 126.505, 88.9141, 0, 0, 3.73668, -54.3489, 3.7456, -174.229, 3.73361, 65.8402, 0.0215787, 17.3099
1, 3360.00000, 126.401, -31.275, 126.099, -151.155, 126.505, 88.9141, 0, 0, 3.73668, -54.3489, 3.7456, -174.229, 3.73361, 65.8402, 0.0215787, 17.3099
1, 3420.00000, 126.401, -31.275, 126.099, -151.155, 126.505, 88.9141, 0, 0, 3.73668, -54.3489, 3.7456, -174.229, 3.73361, 65.8402, 0.0215787, 17.3099
1, 3480.00000, 126.401, -31.275, 126.099, -151.155, 126.505, 88.9141, 0, 0, 3.73668, -54.3489, 3.7456, -174.229, 3.73361, 65.8402, 0.0215787, 17.3099
1, 3540.00000, 126.401, -31.275, 126.099, -151.155, 126.505, 88.9141, 0, 0, 3.73668, -54.3489, 3.7456, -174.229, 3.73361, 65.8402, 0.0215787, 17.3099
2, 0.00000, 126.401, -31.275, 126.099, -151.155, 126.505, 88.9141, 0, 0, 3.73668, -54.3489, 3.7456, -174.229, 3.73361, 65.8402, 0.0215787, 17.3099
2, 60.00000, 126.302, -31.3102, 126.001, -151.191, 126.403, 88.8778, 0, 0, 3.83993, -54.384, 3.84912, -174.265, 3.83685, 65.8041, 0.0220884, 17.1305
2, 120.00000, 126.302, -31.3102, 126.001, -151.191, 126.403, 88.8777, 0, 0, 3.83994, -54.3841, 3.84914, -174.265, 3.83688, 65.8038, 0.0220666, 17.1128
2, 180.00000, 126.302, -31.3102, 126.001, -151.191, 126.403, 88.8777, 0, 0, 3.83994, -54.3841, 3.84914, -174.265, 3.83688, 65.8038, 0.0220661, 17.1125
2, 240.00000, 126.302, -31.3102, 126.001, -151.191, 126.403, 88.8777, 0, 0, 3.83994, -54.3841, 3.84914, -174.265, 3.83688, 65.8038, 0.0220661, 17.1125
2, 300.00000, 126.302, -31.3102, 126.001, -151.191, 126.403, 88.8777, 0, 0, 3.83994, -54.3841, 3.84914, -174.265, 3.83688, 65.8038, 0.0220661, 17.1125
2, 360.00000, 126.302, -31.3102, 126.001, -151.191, 126.403, 88.8777, 0, 0, 3.83994, -54.3841, 3.84914, -174.265, 3.83688, 65.8038, 0.0220661, 17.1125
2, 420.00000, 126.302, -31.3102, 126.001, -151.191, 126.403, 88.8777, 0, 0, 3.83994, -54.3841, 3.84914, -174.265, 3.83688, 65.8038, 0.0220661, 17.1125
2, 480.00000, 126.302, -31.3102, 126.001, -151.191, 126.403, 88.8777, 0, 0, 3.83994, -54.3841, 3.84914, -174.265, 3.83688, 65.8038, 0.0220661, 17.1125
2, 540.00000, 126.302, -31.3102, 126.001, -151.191, 126.403, 88.8777, 0, 0, 3.83994, -54.3841, 3.84914, -174.265, 3.83688, 65.8038, 0.0220661, 17.1125
2, 600.00000, 126.302, -31.3102, 126.001, -151.191, 126.403, 88.8777, 0, 0, 3.83994, -54.3841, 3.84914, -174.265, 3.83688, 65.8038, 0.0220661, 17.1125
2, 660.00000, 126.302, -31.3102, 126.001, -151.191, 126.403, 88.8777, 0, 0, 3.83994, -54.3841, 3.84914, -174.265, 3.83688, 65.8038, 0.0220661, 17.1125
2, 720.00000, 126.302, -31.3102, 126.001, -151.191, 126.403, 88.8777, 0, 0, 3.83994, -54.3841, 3.84914, -174.265, 3.83688, 65.8038, 0.0220661, 17.1125
