hour,t(sec),V1,VAngle1,V2,VAngle2,V3,VAngle3,V4,VAngle4,I1,IAngle1,I2,IAngle2,I3,IAngle3,I4,IAngle4
0, 60.00000, 124.444, -31.5358, 125.681, -151.468, 125.159, 88.0253, 0, 0, 4.55352, -54.6096, 4.5087, -174.542, 4.52751, 64.9517, 0.0766139, 149.132
0, 120.00000, 124.444, -31.5358, 125.681, -151.468, 125.159, 88.0253, 0, 0, 4.55355, -54.6097, 4.50871, -174.542, 4.52754, 64.9514, 0.076636, 149.14
0, 180.00000, 124.444, -31.5358, 125.681, -151.468, 125.159, 88.0253, 0, 0, 4.55355, -54.6097, 4.50871, -174.542, 4.52754, 64.9514, 0.076636, 149.14
0, 240.00000, 124.444, -31.5358, 125.681, -151.468, 125.159, 88.0253, 0, 0, 4.55355, -54.6097, 4.50871, -174.542, 4.52754, 64.9514, 0.076636, 149.14
0, 300.00000, 124.444, -31.5358, 125.681, -151.468, 125.159, 88.0253, 0, 0, 4.55355, -54.6097, 4.50871, -174.542, 4.52754, 64.9514, 0.076636, 149.14
0, 360.00000, 124.444, -31.5358, 125.681, -151.468, 125.159, 88.0253, 0, 0, 4.55355, -54.6097, 4.50871, -174.542, 4.52754, 64.9514, 0.076636, 149.14
0, 420.00000, 124.444, -31.5358, 125.681, -151.468, 125.159, 88.0253, 0, 0, 4.55355, -54.6097, 4.50871, -174.542, 4.52754, 64.9514, 0.076636, 149.14
0, 480.00000, 124.794, -31.4109, 126.042, -151.341, 125.52, 88.1501, 0, 0, 3.9505, -54.485, 3.91138, -174.415, 3.92766, 65.0758, 0.0667929, 149.043
0, 540.00000, 124.794, -31.4109, 126.042, -151.341, 125.52, 88.1501, 0, 0, 3.95047, -54.4848, 3.91136, -174.415, 3.92763, 65.0762, 0.0667802, 149.037
0, 600.00000, 124.794, -31.4109, 126.042, -151.341, 125.52, 88.1501, 0, 0, 3.95047, -54.4848, 3.91136, -174.415, 3.92763, 65.0762, 0.0667801, 149.037
0, 660.00000, 124.794, -31.4109, 126.042, -151.341, 125.52, 88.1501, 0, 0, 3.95047, -54.4848, 3.91136, -174.415, 3.92763, 65.0762, 0.0667801, 149.037
0, 720.00000, 124.794, -31.4109, 126.042, -151.341, 125.52, 88.1501, 0, 0, 3.95047, -54.4848, 3.91136, -174.415, 3.92763, 65.0762, 0.0667801, 149.037
0, 780.00000, 124.794, -31.4109, 126.042, -151.341, 125.52, 88.1501, 0, 0, 3.95047, -54.4848, 3.91136, -174.415, 3.92763, 65.0762, 0.0667801, 149.037
0, 840.00000, 124.794, -31.4109, 126.042, -151.341, 125.52, 88.1501, 0, 0, 3.95047, -54.4848, 3.91136, -174.415, 3.92763, 65.0762, 0.0667801, 149.037
0, 900.00000, 124.794, -31.4109, 126.042, -151.341, 125.52, 88.1501, 0, 0, 3.95047, -54.4848, 3.91136, -174.415, 3.92763, 65.0762, 0.0667801, 149.037
0, 960.00000, 124.53, -31.441, 126.041, -151.34, 125.444, 88.0329, 0, 0, 3.95886, -54.5149, 3.91141, -174.414, 3.93002, 64.9591, 0.0813871, 147.555
0, 1020.00000, 124.53, -31.441, 126.041, -151.34, 125.444, 88.0329, 0, 0, 3.95887, -54.5149, 3.91141, -174.414, 3.93003, 64.959, 0.0814041, 147.555
0, 1080.00000, 124.53, -31.441, 126.041, -151.34, 125.444, 88.0329, 0, 0, 3.95887, -54.5149, 3.91141, -174.414, 3.93003, 64.959, 0.0814042, 147.555
0, 1140.00000, 124.53, -31.441, 126.041, -151.34, 125.444, 88.0329, 0, 0, 3.95887, -54.5149, 3.91141, -174.414, 3.93003, 64.959, 0.0814042, 147.555
0, 1200.00000, 124.53, -31.441, 126.041, -151.34, 125.444, 88.0329, 0, 0, 3.95887, -54.5149, 3.91141, -174.414, 3.93003, 64.959, 0.0814042, 147.555
0, 1260.00000, 124.53, -31.441, 126.041, -151.34, 125.444, 88.0329, 0, 0, 3.95887, -54.5149, 3.91141, -174.414, 3.93003, 64.959, 0.0814042, 147.555
0, 1320.00000, 124.53, -31.441, 126.041, -151.34, 125.444, 88.0329, 0, 0, 3.95887, -54.5149, 3.91141, -174.414, 3.93003, 64.959, 0.0814042, 147.555
0, 1380.00000, 124.53, -31.441, 126.041, -151.34, 125.444, 88.0329, 0, 0, 3.95887, -54.5149, 3.91141, -174.414, 3.93003, 64.959, 0.0814042, 147.555
0, 1440.00000, 124.53, -31.441, 126.041, -151.34, 125.444, 88.0329, 0, 0, 3.95887, -54.5149, 3.91141, -174.414, 3.93003, 64.959, 0.0814042, 147.555
0, 1500.00000, 124.53, -31.441, 126.041, -151.34, 125.444, 88.0329, 0, 0, 3.95887, -54.5149, 3.91141, -174.414, 3.93003, 64.959, 0.0814042, 147.555
0, 1560.00000, 124.53, -31.441, 126.041, -151.34, 125.444, 88.0329, 0, 0, 3.95887, -54.5149, 3.91141, -174.414, 3.93003, 64.959, 0.0814042, 147.555
0, 1620.00000, 124.53, -31.441, 126.041, -151.34, 125.444, 88.0329, 0, 0, 3.95887, -54.5149, 3.91141, -174.414, 3.93003, 64.959, 0.0814042, 147.555
0, 1680.00000, 124.53, -31.441, 126.041, -151.34, 125.444, 88.0329, 0, 0, 3.95887, -54.5149, 3.91141, -174.414, 3.93003, 64.959, 0.0814042, 147.555
0, 1740.00000, 124.53, -31.441, 126.041, -151.34, 125.444, 88.0329, 0, 0, 3.95887, -54.5149, 3.91141, -174.414, 3.93003, 64.959, 0.0814042, 147.555
0, 1800.00000, 124.263, -31.4697, 126.04, -151.34, 125.364, 87.9146, 0, 0, 3.96734, -54.5436, 3.91144, -174.414, 3.93251, 64.8408, 0.0962371, 146.627
0, 1860.00000, 124.263, -31.4697, 126.04, -151.34, 125.364, 87.9146, 0, 0, 3.96735, -54.5436, 3.91144, -174.414, 3.93252, 64.8407, 0.0962547, 146.626
0, 1920.00000, 124.263, -31.4697, 126.04, -151.34, 125.364, 87.9146, 0, 0, 3.96735, -54.5436, 3.91144, -174.414, 3.93252, 64.8407, 0.0962547, 146.626
0, 1980.00000, 124.263, -31.4697, 126.04, -151.34, 125.364, 87.9146, 0, 0, 3.96735, -54.5436, 3.91144, -174.414, 3.93252, 64.8407, 0.0962547, 146.626
0, 2040.00000, 124.263, -31.4697, 126.04, -151.34, 125.364, 87.9146, 0, 0, 3.96735, -54.5436, 3.91144, -174.414, 3.93252, 64.8407, 0.0962547, 146.626
0, 2100.00000, 124.263, -31.4697, 126.04, -151.34, 125.364, 87.9146, 0, 0, 3.96735, -54.5436, 3.91144, -174.414, 3.93252, 64.8407, 0.0962547, 146.626
0, 2160.00000, 124.263, -31.4697, 126.04, -151.34, 125.364, 87.9146, 0, 0, 3.96735, -54.5436, 3.91144, -174.414, 3.93252, 64.8407, 0.0962547, 146.626
0, 2220.00000, 124.263, -31.4697, 126.04, -151.34, 125.364, 87.9146, 0, 0, 3.96735, -54.5436, 3.91144, -174.414, 3.93252, 64.8407, 0.0962547, 146.626
0, 2280.00000, 124.263, -31.4697, 126.04, -151.34, 125.364, 87.9146, 0, 0, 3.96735, -54.5436, 3.91144, -174.414, 3.93252, 64.8407, 0.0962547, 146.626
0, 2340.00000, 124.263, -31.4697, 126.04, -151.34, 125.364, 87.9146, 0, 0, 3.96735, -54.5436, 3.91144, -174.414, 3.93252, 64.8407, 0.0962547, 146.626
0, 2400.00000, 124.263, -31.4697, 126.04, -151.34, 125.364, 87.9146, 0, 0, 3.96735, -54.5436, 3.91144, -174.414, 3.93252, 64.8407, 0.0962547, 146.626
0, 2460.00000, 124.263, -31.4697, 126.04, -151.34, 125.364, 87.9146, 0, 0, 3.96735, -54.5436, 3.91144, -174.414, 3.93252, 64.8407, 0.0962547, 146.626
0, 2520.00000, 124.263, -31.4697, 126.04, -151.34, 125.364, 87.9146, 0, 0, 3.96735, -54.5436, 3.91144, -174.414, 3.93252, 64.8407, 0.0962547, 146.626
0, 2580.00000, 124.263, -31.4697, 126.04, -151.34, 125.364, 87.9146, 0, 0, 3.96735, -54.5436, 3.91144, -174.414, 3.93252, 64.8407, 0.0962547, 146.626
0, 2640.00000, 124.263, -31.4697, 126.04, -151.34, 125.364, 87.9146, 0, 0, 3.96735, -54.5436, 3.91144, -174.414, 3.93252, 64.8407, 0.0962547, 146.626
0, 2700.00000, 124.263, -31.4697, 126.04, -151.34, 125.364, 87.9146, 0, 0, 3.96735, -54.5436, 3.91144, -174.414, 3.93252, 64.8407, 0.0962547, 146.626
0, 2760.00000, 124.555, -31.4387, 126.04, -151.34, 125.456, 88.0441, 0, 0, 3.95808, -54.5128, 3.91144, -174.414, 3.92964, 64.9699, 0.0800356, 147.496
0, 2820.00000, 124.555, -31.4387, 126.04, -151.34, 125.456, 88.0441, 0, 0, 3.95805, -54.5126, 3.91144, -174.414, 3.92962, 64.9702, 0.0799965, 147.495
0, 2880.00000, 124.555, -31.4387, 126.04, -151.34, 125.456, 88.0441, 0, 0, 3.95805, -54.5126, 3.91144, -174.414, 3.92962, 64.9702, 0.0799964, 147.495
0, 2940.00000, 124.555, -31.4387, 126.04, -151.34, 125.456, 88.0441, 0, 0, 3.95805, -54.5126, 3.91144, -174.414, 3.92962, 64.9702, 0.0799964, 147.495
0, 3000.00000, 124.555, -31.4387, 126.04, -151.34, 125.456, 88.0441, 0, 0, 3.95805, -54.5126, 3.91144, -174.414, 3.92962, 64.9702, 0.0799964, 147.495
0, 3060.00000, 124.555, -31.4387, 126.04, -151.34, 125.456, 88.0441, 0, 0, 3.95805, -54.5126, 3.91144, -174.414, 3.92962, 64.9702, 0.0799964, 147.495
0, 3120.00000, 124.555, -31.4387, 126.04, -151.34, 125.456, 88.0441, 0, 0, 3.95805, -54.5126, 3.91144, -174.414, 3.92962, 64.9702, 0.0799964, 147.495
0, 3180.00000, 124.555, -31.4387, 126.04, -151.34, 125.456, 88.0441, 0, 0, 3.95805, -54.5126, 3.91144, -174.414, 3.92962, 64.9702, 0.0799964, 147.495
0, 3240.00000, 124.555, -31.4387, 126.04, -151.34, 125.456, 88.0441, 0, 0, 3.95805, -54.5126, 3.91144, -174.414, 3.92962, 64.9702, 0.0799964, 147.495
0, 3300.00000, 124.555, -31.4387, 126.04, -151.34, 125.456, 88.0441, 0, 0, 3.95805, -54.5126, 3.91144, -174.414, 3.92962, 64.9702, 0.0799964, 147.495
0, 3360.00000, 124.555, -31.4387, 126.04, -151.34, 125.456, 88.0441, 0, 0, 3.95805, -54.5126, 3.91144, -174.414, 3.92962, 64.9702, 0.0799964, 147.495
0, 3420.00000, 124.555, -31.4387, 126.04, -151.34, 125.456, 88.0441, 0, 0, 3.95805, -54.5126, 3.91144, -174.414, 3.92962, 64.9702, 0.0799964, 147.495
0, 3480.00000, 124.555, -31.4387, 126.04, -151.34, 125.456, 88.0441, 0, 0, 3.95805, -54.5126, 3.91144, -174.414, 3.92962, 64.9702, 0.0799964, 147.495
0, 3540.00000, 124.555, -31.4387, 126.04, -151.34, 125.456, 88.0441, 0, 0, 3.95805, -54.5126, 3.91144, -174.414, 3.92962, 64.9702, 0.0799964, 147.495
1, 0.00000, 124.555, -31.4387, 126.04, -151.34, 125.456, 88.0441, 0, 0, 3.95805, -54.5126, 3.91144, -174.414, 3.92962, 64.9702, 0.0799964, 147.495
1, 60.00000, 124.844, -31.4071, 126.04, -151.34, 125.545, 88.1721, 0, 0, 3.94891, -54.4812, 3.91143, -174.414, 3.92686, 65.098, 0.0640308, 148.884
1, 120.00000, 124.844, -31.4071, 126.04, -151.34, 125.545, 88.1721, 0, 0, 3.94889, -54.481, 3.91143, -174.414, 3.92685, 65.0982, 0.0640059, 148.889
1, 180.00000, 124.844, -31.4071, 126.04, -151.34, 125.545, 88.1721, 0, 0, 3.94889, -54.481, 3.91143, -174.414, 3.92685, 65.0982, 0.0640058, 148.889
1, 240.00000, 124.844, -31.4071, 126.04, -151.34, 125.545, 88.1721, 0, 0, 3.94889, -54.481, 3.91143, -174.414, 3.92685, 65.0982, 0.0640058, 148.889
1, 300.00000, 124.844, -31.4071, 126.04, -151.34, 125.545, 88.1721, 0, 0, 3.94889, -54.481, 3.91143, -174.414, 3.92685, 65.0982, 0.0640058, 148.889
1, 360.00000, 124.844, -31.4071, 126.04, -151.34, 125.545, 88.1721, 0, 0, 3.94889, -54.481, 3.91143, -174.414, 3.92685, 65.0982, 0.0640058, 148.889
1, 420.00000, 124.844, -31.4071, 126.04, -151.34, 125.545, 88.1721, 0, 0, 3.94889, -54.481, 3.91143, -174.414, 3.92685, 65.0982, 0.0640058, 148.889
1, 480.00000, 124.844, -31.4071, 126.04, -151.34, 125.545, 88.1721, 0, 0, 3.94889, -54.481, 3.91143, -174.414, 3.92685, 65.0982, 0.0640058, 148.889
1, 540.00000, 124.844, -31.4071, 126.04, -151.34, 125.545, 88.1721, 0, 0, 3.94889, -54.481, 3.91143, -174.414, 3.92685, 65.0982, 0.0640058, 148.889
1, 600.00000, 124.844, -31.4071, 126.04, -151.34, 125.545, 88.1721, 0, 0, 3.94889, -54.481, 3.91143, -174.414, 3.92685, 65.0982, 0.0640058, 148.889
1, 660.00000, 124.844, -31.4071, 126.04, -151.34, 125.545, 88.1721, 0, 0, 3.94889, -54.481, 3.91143, -174.414, 3.92685, 65.0982, 0.0640058, 148.889
1, 720.00000, 124.844, -31.4071, 126.04, -151.34, 125.545, 88.1721, 0, 0, 3.94889, -54.481, 3.91143, -174.414, 3.92685, 65.0982, 0.0640058, 148.889
1, 780.00000, 125.104, -31.3776, 126.041, -151.34, 125.62, 88.2867, 0, 0, 3.94072, -54.4517, 3.9114, -174.414, 3.92451, 65.2127, 0.0498278, 151.093
1, 840.00000, 125.104, -31.3776, 126.041, -151.34, 125.62, 88.2867, 0, 0, 3.94071, -54.4515, 3.9114, -174.414, 3.9245, 65.2128, 0.0498082, 151.107
1, 900.00000, 125.104, -31.3776, 126.041, -151.34, 125.62, 88.2867, 0, 0, 3.94071, -54.4515, 3.9114, -174.414, 3.9245, 65.2128, 0.0498081, 151.108
1, 960.00000, 125.104, -31.3776, 126.041, -151.34, 125.62, 88.2867, 0, 0, 3.94071, -54.4515, 3.9114, -174.414, 3.9245, 65.2128, 0.0498081, 151.108
1, 1020.00000, 125.104, -31.3776, 126.041, -151.34, 125.62, 88.2867, 0, 0, 3.94071, -54.4515, 3.9114, -174.414, 3.9245, 65.2128, 0.0498081, 151.108
1, 1080.00000, 125.104, -31.3776, 126.041, -151.34, 125.62, 88.2867, 0, 0, 3.94071, -54.4515, 3.9114, -174.414, 3.9245, 65.2128, 0.0498081, 151.108
1, 1140.00000, 125.104, -31.3776, 126.041, -151.34, 125.62, 88.2867, 0, 0, 3.94071, -54.4515, 3.9114, -174.414, 3.9245, 65.2128, 0.0498081, 151.108
1, 1200.00000, 125.104, -31.3776, 126.041, -151.34, 125.62, 88.2867, 0, 0, 3.94071, -54.4515, 3.9114, -174.414, 3.9245, 65.2128, 0.0498081, 151.108
1, 1260.00000, 125.104, -31.3776, 126.041, -151.34, 125.62, 88.2867, 0, 0, 3.94071, -54.4515, 3.9114, -174.414, 3.9245, 65.2128, 0.0498081, 151.108
1, 1320.00000, 125.104, -31.3776, 126.041, -151.34, 125.62, 88.2867, 0, 0, 3.94071, -54.4515, 3.9114, -174.414, 3.9245, 65.2128, 0.0498081, 151.108
1, 1380.00000, 125.104, -31.3776, 126.041, -151.34, 125.62, 88.2867, 0, 0, 3.94071, -54.4515, 3.9114, -174.414, 3.9245, 65.2128, 0.0498081, 151.108
1, 1440.00000, 125.104, -31.3776, 126.041, -151.34, 125.62, 88.2867, 0, 0, 3.94071, -54.4515, 3.9114, -174.414, 3.9245, 65.2128, 0.0498081, 151.108
1, 1500.00000, 125.104, -31.3776, 126.041, -151.34, 125.62, 88.2867, 0, 0, 3.94071, -54.4515, 3.9114, -174.414, 3.9245, 65.2128, 0.0498081, 151.108
1, 1560.00000, 125.104, -31.3776, 126.041, -151.34, 125.62, 88.2867, 0, 0, 3.94071, -54.4515, 3.9114, -174.414, 3.9245, 65.2128, 0.0498081, 151.108
1, 1620.00000, 125.104, -31.3776, 126.041, -151.34, 125.62, 88.2867, 0, 0, 3.94071, -54.4515, 3.9114, -174.414, 3.9245, 65.2128, 0.0498081, 151.108
1, 1680.00000, 125.104, -31.3776, 126.041, -151.34, 125.62, 88.2867, 0, 0, 3.94071, -54.4515, 3.9114, -174.414, 3.9245, 65.2128, 0.0498081, 151.108
1, 1740.00000, 125.104, -31.3776, 126.041, -151.34, 125.62, 88.2867, 0, 0, 3.94071, -54.4515, 3.9114, -174.414, 3.9245, 65.2128, 0.0498081, 151.108
1, 1800.00000, 125.104, -31.3776, 126.041, -151.34, 125.62, 88.2867, 0, 0, 3.94071, -54.4515, 3.9114, -174.414, 3.9245, 65.2128, 0.0498081, 151.108
1, 1860.00000, 125.104, -31.3776, 126.041, -151.34, 125.62, 88.2867, 0, 0, 3.94071, -54.4515, 3.9114, -174.414, 3.9245, 65.2128, 0.0498081, 151.108
1, 1920.00000, 125.104, -31.3776, 126.041, -151.34, 125.62, 88.2867, 0, 0, 3.94071, -54.4515, 3.9114, -174.414, 3.9245, 65.2128, 0.0498081, 151.108
1, 1980.00000, 125.104, -31.3776, 126.041, -151.34, 125.62, 88.2867, 0, 0, 3.94071, -54.4515, 3.9114, -174.414, 3.9245, 65.2128, 0.0498081, 151.108
1, 2040.00000, 125.104, -31.3776, 126.041, -151.34, 125.62, 88.2867, 0, 0, 3.94071, -54.4515, 3.9114, -174.414, 3.9245, 65.2128, 0.0498081, 151.108
1, 2100.00000, 125.104, -31.3776, 126.041, -151.34, 125.62, 88.2867, 0, 0, 3.94071, -54.4515, 3.9114, -174.414, 3.9245, 65.2128, 0.0498081, 151.108
1, 2160.00000, 125.104, -31.3776, 126.041, -151.34, 125.62, 88.2867, 0, 0, 3.94071, -54.4515, 3.9114, -174.414, 3.9245, 65.2128, 0.0498081, 151.108
1, 2220.00000, 125.378, -31.3457, 126.042, -151.34, 125.7, 88.4071, 0, 0, 3.9321, -54.4198, 3.91136, -174.414, 3.92203, 65.333, 0.0350708, 155.448
1, 2280.00000, 125.378, -31.3457, 126.042, -151.34, 125.7, 88.4071, 0, 0, 3.93208, -54.4196, 3.91136, -174.414, 3.92202, 65.3331, 0.0350531, 155.474
1, 2340.00000, 125.378, -31.3457, 126.042, -151.34, 125.7, 88.4071, 0, 0, 3.93208, -54.4196, 3.91136, -174.414, 3.92202, 65.3331, 0.035053, 155.474
1, 2400.00000, 125.378, -31.3457, 126.042, -151.34, 125.7, 88.4071, 0, 0, 3.93208, -54.4196, 3.91136, -174.414, 3.92202, 65.3331, 0.035053, 155.474
1, 2460.00000, 125.378, -31.3457, 126.042, -151.34, 125.7, 88.4071, 0, 0, 3.93208, -54.4196, 3.91136, -174.414, 3.92202, 65.3331, 0.035053, 155.474
1, 2520.00000, 125.378, -31.3457, 126.042, -151.34, 125.7, 88.4071, 0, 0, 3.93208, -54.4196, 3.91136, -174.414, 3.92202, 65.3331, 0.035053, 155.474
1, 2580.00000, 125.378, -31.3457, 126.042, -151.34, 125.7, 88.4071, 0, 0, 3.93208, -54.4196, 3.91136, -174.414, 3.92202, 65.3331, 0.035053, 155.474
1, 2640.00000, 125.378, -31.3457, 126.042, -151.34, 125.7, 88.4071, 0, 0, 3.93208, -54.4196, 3.91136, -174.414, 3.92202, 65.3331, 0.035053, 155.474
1, 2700.00000, 125.378, -31.3457, 126.042, -151.34, 125.7, 88.4071, 0, 0, 3.93208, -54.4196, 3.91136, -174.414, 3.92202, 65.3331, 0.035053, 155.474
1, 2760.00000, 125.378, -31.3457, 126.042, -151.34, 125.7, 88.4071, 0, 0, 3.93208, -54.4196, 3.91136, -174.414, 3.92202, 65.3331, 0.035053, 155.474
1, 2820.00000, 125.378, -31.3457, 126.042, -151.34, 125.7, 88.4071, 0, 0, 3.93208, -54.4196, 3.91136, -174.414, 3.92202, 65.3331, 0.035053, 155.474
1, 2880.00000, 125.378, -31.3457, 126.042, -151.34, 125.7, 88.4071, 0, 0, 3.93208, -54.4196, 3.91136, -174.414, 3.92202, 65.3331, 0.035053, 155.474
1, 2940.00000, 125.378, -31.3457, 126.042, -151.34, 125.7, 88.4071, 0, 0, 3.93208, -54.4196, 3.91136, -174.414, 3.92202, 65.3331, 0.035053, 155.474
1, 3000.00000, 125.378, -31.3457, 126.042, -151.34, 125.7, 88.4071, 0, 0, 3.93208, -54.4196, 3.91136, -174.414, 3.92202, 65.3331, 0.035053, 155.474
1, 3060.00000, 125.378, -31.3457, 126.042, -151.34, 125.7, 88.4071, 0, 0, 3.93208, -54.4196, 3.91136, -174.414, 3.92202, 65.3331, 0.035053, 155.474
1, 3120.00000, 125.378, -31.3457, 126.042, -151.34, 125.7, 88.4071, 0, 0, 3.93208, -54.4196, 3.91136, -174.414, 3.92202, 65.3331, 0.035053, 155.474
1, 3180.00000, 125.378, -31.3457, 126.042, -151.34, 125.7, 88.4071, 0, 0, 3.93208, -54.4196, 3.91136, -174.414, 3.92202, 65.3331, 0.035053, 155.474
1, 3240.00000, 125.378, -31.3457, 126.042, -151.34, 125.7, 88.4071, 0, 0, 3.93208, -54.4196, 3.91136, -174.414, 3.92202, 65.3331, 0.035053, 155.474
1, 3300.00000, 125.378, -31.3457, 126.042, -151.34, 125.7, 88.4071, 0, 0, 3.93208, -54.4196, 3.91136, -174.414, 3.92202, 65.3331, 0.035053, 155.474
1, 3360.00000, 125.378, -31.3457, 126.042, -151.34, 125.7, 88.4071, 0, 0, 3.93208, -54.4196, 3.91136, -174.414, 3.92202, 65.3331, 0.035053, 155.474
1, 3420.00000, 125.378, -31.3457, 126.042, -151.34, 125.7, 88.4071, 0, 0, 3.93208, -54.4196, 3.91136, -174.414, 3.92202, 65.3331, 0.035053, 155.474
1, 3480.00000, 125.378, -31.3457, 126.042, -151.34, 125.7, 88.4071, 0, 0, 3.93208, -54.4196, 3.91136, -174.414, 3.92202, 65.3331, 0.035053, 155.474
1, 3540.00000, 125.378, -31.3457, 126.042, -151.34, 125.7, 88.4071, 0, 0, 3.93208, -54.4196, 3.91136, -174.414, 3.92202, 65.3331, 0.035053, 155.474
2, 0.00000, 125.378, -31.3457, 126.042, -151.34, 125.7, 88.4071, 0, 0, 3.93208, -54.4196, 3.91136, -174.414, 3.92202, 65.3331, 0.035053, 155.474
2, 60.00000, 125.378, -31.3457, 126.042, -151.34, 125.7, 88.4071, 0, 0, 3.93208, -54.4196, 3.91136, -174.414, 3.92202, 65.3331, 0.035053, 155.474
2, 120.00000, 125.378, -31.3457, 126.042, -151.34, 125.7, 88.4071, 0, 0, 3.93208, -54.4196, 3.91136, -174.414, 3.92202, 65.3331, 0.035053, 155.474
2, 180.00000, 125.378, -31.3457, 126.042, -151.34, 125.7, 88.4071, 0, 0, 3.93208, -54.4196, 3.91136, -174.414, 3.92202, 65.3331, 0.035053, 155.474
2, 240.00000, 125.378, -31.3457, 126.042, -151.34, 125.7, 88.4071, 0, 0, 3.93208, -54.4196, 3.91136, -174.414, 3.92202, 65.3331, 0.035053, 155.474
2, 300.00000, 125.378, -31.3457, 126.042, -151.34, 125.7, 88.4071, 0, 0, 3.93208, -54.4196, 3.91136, -174.414, 3.92202, 65.3331, 0.035053, 155.474
2, 360.00000, 125.378, -31.3457, 126.042, -151.34, 125.7, 88.4071, 0, 0, 3.93208, -54.4196, 3.91136, -174.414, 3.92202, 65.3331, 0.035053, 155.474
2, 420.00000, 125.378, -31.3457, 126.042, -151.34, 125.7, 88.4071, 0, 0, 3.93208, -54.4196, 3.91136, -174.414, 3.92202, 65.3331, 0.035053, 155.474
2, 480.00000, 125.378, -31.3457, 126.042, -151.34, 125.7, 88.4071, 0, 0, 3.93208, -54.4196, 3.91136, -174.414, 3.92202, 65.3331, 0.035053, 155.474
2, 540.00000, 125.378, -31.3457, 126.042, -151.34, 125.7, 88.4071, 0, 0, 3.93208, -54.4196, 3.91136, -174.414, 3.92202, 65.3331, 0.035053, 155.474
2, 600.00000, 125.378, -31.3457, 126.042, -151.34, 125.7, 88.4071, 0, 0, 3.93208, -54.4196, 3.91136, -174.414, 3.92202, 65.3331, 0.035053, 155.474
2, 660.00000, 125.378, -31.3457, 126.042, -151.34, 125.7, 88.4071, 0, 0, 3.93208, -54.4196, 3.91136, -174.414, 3.92202, 65.3331, 0.035053, 155.474
2, 720.00000, 125.378, -31.3457, 126.042, -151.34, 125.7, 88.4071, 0, 0, 3.93208, -54.4196, 3.91136, -174.414, 3.92202, 65.3331, 0.035053, 155.474
2, 780.00000, 125.378, -31.3457, 126.042, -151.34, 125.7, 88.4071, 0, 0, 3.93208, -54.4196, 3.91136, -174.414, 3.92202, 65.3331, 0.035053, 155.474
2, 840.00000, 125.649, -31.3129, 126.044, -151.341, 125.775, 88.5258, 0, 0, 3.92363, -54.3871, 3.91131, -174.415, 3.91966, 65.4518, 0.0211029, 166.02
