hour,t(sec),V1,VAngle1,V2,VAngle2,V3,VAngle3,V4,VAngle4,I1,IAngle1,I2,IAngle2,I3,IAngle3,I4,IAngle4
0, 60.00000, 126.027, -32.1677, 125.182, -151.411, 127.174, 88.5811, 0, 0, 6.28879, -55.2413, 6.33122, -174.485, 6.23218, 65.507, 0.168528, 38.0102
0, 120.00000, 126.033, -32.1736, 125.182, -151.411, 127.19, 88.5811, 0, 0, 6.28847, -55.2473, 6.33122, -174.485, 6.23137, 65.507, 0.16989, 38.0172
0, 180.00000, 126.039, -32.179, 125.182, -151.411, 127.205, 88.581, 0, 0, 6.28819, -55.2527, 6.33122, -174.484, 6.23064, 65.507, 0.171112, 38.024
0, 240.00000, 126.044, -32.1838, 125.182, -151.41, 127.218, 88.581, 0, 0, 6.28793, -55.2575, 6.33122, -174.484, 6.22999, 65.507, 0.172213, 38.0304
0, 300.00000, 126.049, -32.1881, 125.182, -151.41, 127.23, 88.581, 0, 0, 6.28769, -55.2619, 6.33122, -174.484, 6.2294, 65.507, 0.173203, 38.0365
0, 360.00000, 126.053, -32.192, 125.182, -151.41, 127.241, 88.581, 0, 0, 6.28748, -55.2658, 6.33122, -174.484, 6.22886, 65.507, 0.174095, 38.0421
0, 420.00000, 126.057, -32.1956, 125.182, -151.41, 127.25, 88.581, 0, 0, 6.2873, -55.2693, 6.33122, -174.484, 6.22838, 65.507, 0.174898, 38.0472
0, 480.00000, 126.433, -32.078, 125.538, -151.281, 127.657, 88.7163, 0, 0, 5.66404, -55.1517, 5.70441, -174.355, 5.60977, 65.6423, 0.160712, 38.0018
0, 540.00000, 126.436, -32.0809, 125.538, -151.281, 127.665, 88.7162, 0, 0, 5.6639, -55.1546, 5.70441, -174.355, 5.60942, 65.6423, 0.161301, 38.0069
0, 600.00000, 126.439, -32.0835, 125.538, -151.281, 127.672, 88.7162, 0, 0, 5.66377, -55.1573, 5.70441, -174.355, 5.60911, 65.6422, 0.161829, 38.0115
0, 660.00000, 126.441, -32.0858, 125.538, -151.281, 127.678, 88.7161, 0, 0, 5.66366, -55.1596, 5.70441, -174.355, 5.60883, 65.6422, 0.162305, 38.0158
0, 720.00000, 126.444, -32.0879, 125.538, -151.281, 127.684, 88.7161, 0, 0, 5.66356, -55.1617, 5.70441, -174.355, 5.60857, 65.6421, 0.162733, 38.0197
0, 780.00000, 126.446, -32.0898, 125.538, -151.281, 127.689, 88.716, 0, 0, 5.66347, -55.1636, 5.70441, -174.355, 5.60834, 65.6421, 0.163119, 38.0233
0, 840.00000, 126.448, -32.0915, 125.538, -151.281, 127.694, 88.716, 0, 0, 5.66339, -55.1654, 5.70441, -174.355, 5.60814, 65.6421, 0.163465, 38.0265
0, 900.00000, 126.449, -32.0931, 125.538, -151.281, 127.698, 88.716, 0, 0, 5.66332, -55.1669, 5.70441, -174.355, 5.60795, 65.642, 0.163778, 38.0295
0, 960.00000, 126.451, -32.0944, 125.538, -151.281, 127.702, 88.7159, 0, 0, 5.66325, -55.1683, 5.70441, -174.355, 5.60779, 65.642, 0.164059, 38.0321
0, 1020.00000, 126.452, -32.0957, 125.538, -151.281, 127.705, 88.7159, 0, 0, 5.66319, -55.1695, 5.70441, -174.355, 5.60764, 65.642, 0.164312, 38.0346
0, 1080.00000, 126.453, -32.0968, 125.538, -151.281, 127.708, 88.7159, 0, 0, 5.66314, -55.1707, 5.70441, -174.355, 5.6075, 65.642, 0.164539, 38.0368
0, 1140.00000, 126.454, -32.0978, 125.538, -151.281, 127.711, 88.7159, 0, 0, 5.66309, -55.1717, 5.70441, -174.355, 5.60738, 65.6419, 0.164744, 38.0387
0, 1200.00000, 126.455, -32.0987, 125.538, -151.281, 127.714, 88.7158, 0, 0, 5.66305, -55.1726, 5.70441, -174.355, 5.60727, 65.6419, 0.164928, 38.0405
0, 1260.00000, 126.456, -32.0995, 125.538, -151.281, 127.716, 88.7158, 0, 0, 5.66301, -55.1734, 5.70441, -174.355, 5.60717, 65.6419, 0.165094, 38.0422
0, 1320.00000, 126.457, -32.1003, 125.538, -151.281, 127.718, 88.7158, 0, 0, 5.66297, -55.1742, 5.70441, -174.355, 5.60708, 65.6419, 0.165244, 38.0436
0, 1380.00000, 126.458, -32.1009, 125.538, -151.281, 127.72, 88.7158, 0, 0, 5.66294, -55.1748, 5.70441, -174.355, 5.607, 65.6419, 0.165378, 38.045
0, 1440.00000, 126.458, -32.1015, 125.538, -151.281, 127.721, 88.7158, 0, 0, 5.66291, -55.1754, 5.70441, -174.355, 5.60693, 65.6418, 0.165499, 38.0462
0, 1500.00000, 126.459, -32.1021, 125.538, -151.281, 127.723, 88.7158, 0, 0, 5.66289, -55.176, 5.70441, -174.355, 5.60687, 65.6418, 0.165608, 38.0472
0, 1560.00000, 126.459, -32.1026, 125.538, -151.281, 127.724, 88.7157, 0, 0, 5.66286, -55.1765, 5.70441, -174.355, 5.60681, 65.6418, 0.165706, 38.0482
0, 1620.00000, 126.46, -32.103, 125.538, -151.281, 127.725, 88.7157, 0, 0, 5.66284, -55.1769, 5.70441, -174.355, 5.60676, 65.6418, 0.165794, 38.0491
0, 1680.00000, 126.46, -32.1034, 125.538, -151.281, 127.726, 88.7157, 0, 0, 5.66283, -55.1773, 5.70441, -174.355, 5.60671, 65.6418, 0.165874, 38.0499
0, 1740.00000, 126.461, -32.1037, 125.538, -151.281, 127.727, 88.7157, 0, 0, 5.66281, -55.1776, 5.70441, -174.355, 5.60667, 65.6418, 0.165945, 38.0506
0, 1800.00000, 126.461, -32.1041, 125.538, -151.281, 127.728, 88.7157, 0, 0, 5.66279, -55.178, 5.70441, -174.355, 5.60663, 65.6418, 0.16601, 38.0512
0, 1860.00000, 126.461, -32.1043, 125.538, -151.281, 127.729, 88.7157, 0, 0, 5.66278, -55.1782, 5.70441, -174.355, 5.60659, 65.6418, 0.166067, 38.0518
0, 1920.00000, 126.462, -32.1046, 125.538, -151.281, 127.729, 88.7157, 0, 0, 5.66277, -55.1785, 5.70441, -174.355, 5.60656, 65.6418, 0.16612, 38.0524
0, 1980.00000, 126.462, -32.1048, 125.538, -151.281, 127.73, 88.7157, 0, 0, 5.66276, -55.1787, 5.70441, -174.355, 5.60653, 65.6418, 0.166166, 38.0528
0, 2040.00000, 126.462, -32.105, 125.538, -151.281, 127.731, 88.7157, 0, 0, 5.66275, -55.1789, 5.70441, -174.355, 5.60651, 65.6418, 0.166209, 38.0533
0, 2100.00000, 126.462, -32.1052, 125.538, -151.281, 127.731, 88.7157, 0, 0, 5.66274, -55.1791, 5.70441, -174.355, 5.60649, 65.6418, 0.166247, 38.0536
0, 2160.00000, 126.462, -32.1054, 125.538, -151.281, 127.732, 88.7157, 0, 0, 5.66273, -55.1793, 5.70441, -174.355, 5.60647, 65.6418, 0.166281, 38.054
0, 2220.00000, 126.463, -32.1055, 125.538, -151.281, 127.732, 88.7157, 0, 0, 5.66272, -55.1795, 5.70441, -174.355, 5.60645, 65.6418, 0.166312, 38.0543
0, 2280.00000, 126.463, -32.1057, 125.538, -151.281, 127.732, 88.7157, 0, 0, 5.66272, -55.1796, 5.70441, -174.355, 5.60643, 65.6417, 0.166339, 38.0546
0, 2340.00000, 126.463, -32.1058, 125.538, -151.281, 127.733, 88.7157, 0, 0, 5.66271, -55.1797, 5.70441, -174.355, 5.60642, 65.6417, 0.166364, 38.0548
0, 2400.00000, 126.463, -32.1059, 125.538, -151.281, 127.733, 88.7157, 0, 0, 5.66271, -55.1798, 5.70441, -174.355, 5.6064, 65.6417, 0.166387, 38.0551
0, 2460.00000, 126.463, -32.106, 125.538, -151.281, 127.733, 88.7157, 0, 0, 5.6627, -55.1799, 5.70441, -174.355, 5.60639, 65.6417, 0.166407, 38.0553
0, 2520.00000, 126.463, -32.1061, 125.538, -151.281, 127.734, 88.7157, 0, 0, 5.6627, -55.18, 5.70441, -174.355, 5.60638, 65.6417, 0.166425, 38.0554
0, 2580.00000, 126.463, -32.1062, 125.538, -151.281, 127.734, 88.7157, 0, 0, 5.66269, -55.1801, 5.70441, -174.355, 5.60637, 65.6417, 0.166441, 38.0556
0, 2640.00000, 126.463, -32.1063, 125.538, -151.281, 127.734, 88.7157, 0, 0, 5.66269, -55.1802, 5.70441, -174.355, 5.60636, 65.6417, 0.166456, 38.0558
0, 2700.00000, 126.463, -32.1063, 125.538, -151.281, 127.734, 88.7157, 0, 0, 5.66269, -55.1802, 5.70441, -174.355, 5.60635, 65.6417, 0.166469, 38.0559
0, 2760.00000, 126.463, -32.1064, 125.538, -151.281, 127.734, 88.7156, 0, 0, 5.66268, -55.1803, 5.70441, -174.355, 5.60635, 65.6417, 0.166481, 38.056
0, 2820.00000, 126.464, -32.1064, 125.538, -151.281, 127.734, 88.7156, 0, 0, 5.66268, -55.1804, 5.70441, -174.355, 5.60634, 65.6417, 0.166492, 38.0561
0, 2880.00000, 126.464, -32.1065, 125.538, -151.281, 127.735, 88.7156, 0, 0, 5.66268, -55.1804, 5.70441, -174.355, 5.60634, 65.6417, 0.166502, 38.0562
0, 2940.00000, 126.464, -32.1065, 125.538, -151.281, 127.735, 88.7156, 0, 0, 5.66268, -55.1804, 5.70441, -174.355, 5.60633, 65.6417, 0.16651, 38.0563
0, 3000.00000, 126.464, -32.1066, 125.538, -151.281, 127.735, 88.7156, 0, 0, 5.66267, -55.1805, 5.70441, -174.355, 5.60633, 65.6417, 0.166518, 38.0564
0, 3060.00000, 126.464, -32.1066, 125.538, -151.281, 127.735, 88.7156, 0, 0, 5.66267, -55.1805, 5.70441, -174.355, 5.60632, 65.6417, 0.166525, 38.0565
0, 3120.00000, 126.464, -32.1066, 125.538, -151.281, 127.735, 88.7156, 0, 0, 5.66267, -55.1805, 5.70441, -174.355, 5.60632, 65.6417, 0.166531, 38.0565
0, 3180.00000, 126.464, -32.1067, 125.538, -151.281, 127.735, 88.7156, 0, 0, 5.66267, -55.1806, 5.70441, -174.355, 5.60631, 65.6417, 0.166537, 38.0566
0, 3240.00000, 126.464, -32.1067, 125.538, -151.281, 127.735, 88.7156, 0, 0, 5.66267, -55.1806, 5.70441, -174.355, 5.60631, 65.6417, 0.166542, 38.0566
0, 3300.00000, 126.464, -32.1067, 125.538, -151.281, 127.735, 88.7156, 0, 0, 5.66267, -55.1806, 5.70441, -174.355, 5.60631, 65.6417, 0.166547, 38.0567
0, 3360.00000, 126.464, -32.1067, 125.538, -151.281, 127.735, 88.7156, 0, 0, 5.66267, -55.1806, 5.70441, -174.355, 5.60631, 65.6417, 0.166551, 38.0567
0, 3420.00000, 126.464, -32.1067, 125.538, -151.281, 127.735, 88.7156, 0, 0, 5.66267, -55.1807, 5.70441, -174.355, 5.6063, 65.6417, 0.166555, 38.0568
0, 3480.00000, 126.464, -32.1068, 125.538, -151.281, 127.735, 88.7156, 0, 0, 5.66267, -55.1807, 5.70441, -174.355, 5.6063, 65.6417, 0.166558, 38.0568
0, 3540.00000, 126.464, -32.1068, 125.538, -151.281, 127.735, 88.7156, 0, 0, 5.66266, -55.1807, 5.70441, -174.355, 5.6063, 65.6417, 0.166561, 38.0568
1, 0.00000, 126.464, -32.1068, 125.538, -151.281, 127.735, 88.7156, 0, 0, 5.66266, -55.1807, 5.70441, -174.355, 5.6063, 65.6417, 0.166564, 38.0569
1, 60.00000, 126.55, -31.9796, 125.829, -151.248, 127.736, 88.7164, 0, 0, 5.65882, -55.0535, 5.69125, -174.321, 5.60628, 65.6425, 0.144673, 40.6941
1, 120.00000, 126.55, -31.9796, 125.829, -151.248, 127.736, 88.7164, 0, 0, 5.65882, -55.0535, 5.69125, -174.321, 5.60628, 65.6425, 0.144675, 40.6941
1, 180.00000, 126.55, -31.9796, 125.829, -151.248, 127.736, 88.7164, 0, 0, 5.65882, -55.0535, 5.69125, -174.321, 5.60628, 65.6425, 0.144677, 40.6941
1, 240.00000, 126.55, -31.9796, 125.829, -151.248, 127.736, 88.7164, 0, 0, 5.65882, -55.0535, 5.69125, -174.321, 5.60628, 65.6425, 0.144679, 40.6941
1, 300.00000, 126.55, -31.9796, 125.829, -151.248, 127.736, 88.7164, 0, 0, 5.65882, -55.0535, 5.69125, -174.321, 5.60628, 65.6425, 0.144681, 40.6941
1, 360.00000, 126.55, -31.9796, 125.829, -151.248, 127.736, 88.7164, 0, 0, 5.65882, -55.0535, 5.69125, -174.321, 5.60628, 65.6425, 0.144682, 40.6941
1, 420.00000, 126.55, -31.9796, 125.829, -151.248, 127.736, 88.7164, 0, 0, 5.65882, -55.0535, 5.69125, -174.321, 5.60628, 65.6425, 0.144683, 40.6941
1, 480.00000, 126.55, -31.9796, 125.829, -151.248, 127.736, 88.7164, 0, 0, 5.65882, -55.0535, 5.69125, -174.321, 5.60627, 65.6425, 0.144685, 40.6941
1, 540.00000, 126.55, -31.9796, 125.829, -151.248, 127.736, 88.7164, 0, 0, 5.65882, -55.0535, 5.69125, -174.321, 5.60627, 65.6425, 0.144686, 40.6941
1, 600.00000, 126.55, -31.9796, 125.829, -151.248, 127.736, 88.7164, 0, 0, 5.65882, -55.0535, 5.69125, -174.321, 5.60627, 65.6425, 0.144687, 40.694
1, 660.00000, 126.55, -31.9796, 125.829, -151.248, 127.736, 88.7164, 0, 0, 5.65882, -55.0536, 5.69125, -174.321, 5.60627, 65.6425, 0.144687, 40.694
1, 720.00000, 126.55, -31.9796, 125.829, -151.248, 127.736, 88.7164, 0, 0, 5.65882, -55.0536, 5.69125, -174.321, 5.60627, 65.6425, 0.144688, 40.694
1, 780.00000, 126.55, -31.9796, 125.829, -151.248, 127.736, 88.7164, 0, 0, 5.65882, -55.0536, 5.69125, -174.321, 5.60627, 65.6425, 0.144689, 40.694
1, 840.00000, 126.55, -31.9796, 125.829, -151.248, 127.736, 88.7164, 0, 0, 5.65882, -55.0536, 5.69125, -174.321, 5.60627, 65.6425, 0.14469, 40.694
1, 900.00000, 126.55, -31.9796, 125.829, -151.248, 127.736, 88.7164, 0, 0, 5.65882, -55.0536, 5.69125, -174.321, 5.60627, 65.6425, 0.14469, 40.694
1, 960.00000, 126.55, -31.9797, 125.829, -151.248, 127.736, 88.7164, 0, 0, 5.65882, -55.0536, 5.69125, -174.321, 5.60627, 65.6425, 0.144691, 40.694
1, 1020.00000, 126.55, -31.9797, 125.829, -151.248, 127.736, 88.7164, 0, 0, 5.65882, -55.0536, 5.69125, -174.321, 5.60627, 65.6425, 0.144691, 40.694
1, 1080.00000, 126.55, -31.9797, 125.829, -151.248, 127.736, 88.7164, 0, 0, 5.65882, -55.0536, 5.69125, -174.321, 5.60627, 65.6425, 0.144691, 40.694
1, 1140.00000, 126.55, -31.9797, 125.829, -151.248, 127.736, 88.7164, 0, 0, 5.65882, -55.0536, 5.69125, -174.321, 5.60627, 65.6425, 0.144692, 40.694
1, 1200.00000, 126.55, -31.9797, 125.829, -151.248, 127.736, 88.7164, 0, 0, 5.65882, -55.0536, 5.69125, -174.321, 5.60627, 65.6425, 0.144692, 40.694
1, 1260.00000, 126.55, -31.9797, 125.829, -151.248, 127.736, 88.7164, 0, 0, 5.65882, -55.0536, 5.69125, -174.321, 5.60627, 65.6425, 0.144692, 40.694
1, 1320.00000, 126.55, -31.9797, 125.829, -151.248, 127.736, 88.7164, 0, 0, 5.65882, -55.0536, 5.69125, -174.321, 5.60627, 65.6425, 0.144693, 40.694
1, 1380.00000, 126.55, -31.9797, 125.829, -151.248, 127.736, 88.7164, 0, 0, 5.65882, -55.0536, 5.69125, -174.321, 5.60627, 65.6425, 0.144693, 40.694
1, 1440.00000, 126.55, -31.9797, 125.829, -151.248, 127.736, 88.7164, 0, 0, 5.65882, -55.0536, 5.69125, -174.321, 5.60627, 65.6425, 0.144693, 40.694
1, 1500.00000, 126.55, -31.9797, 125.829, -151.248, 127.736, 88.7164, 0, 0, 5.65882, -55.0536, 5.69125, -174.321, 5.60627, 65.6425, 0.144693, 40.694
1, 1560.00000, 126.55, -31.9797, 125.829, -151.248, 127.736, 88.7164, 0, 0, 5.65882, -55.0536, 5.69125, -174.321, 5.60627, 65.6425, 0.144694, 40.694
1, 1620.00000, 126.55, -31.9797, 125.829, -151.248, 127.736, 88.7164, 0, 0, 5.65882, -55.0536, 5.69125, -174.321, 5.60627, 65.6425, 0.144694, 40.694
1, 1680.00000, 126.55, -31.9797, 125.829, -151.248, 127.736, 88.7164, 0, 0, 5.65882, -55.0536, 5.69125, -174.321, 5.60627, 65.6425, 0.144694, 40.694
1, 1740.00000, 126.55, -31.9797, 125.829, -151.248, 127.736, 88.7164, 0, 0, 5.65882, -55.0536, 5.69125, -174.321, 5.60627, 65.6425, 0.144694, 40.694
1, 1800.00000, 126.55, -31.9797, 125.829, -151.248, 127.736, 88.7164, 0, 0, 5.65882, -55.0536, 5.69125, -174.321, 5.60627, 65.6425, 0.144694, 40.694
1, 1860.00000, 126.55, -31.9797, 125.829, -151.248, 127.736, 88.7164, 0, 0, 5.65882, -55.0536, 5.69125, -174.321, 5.60627, 65.6425, 0.144694, 40.694
1, 1920.00000, 126.55, -31.9797, 125.829, -151.248, 127.736, 88.7164, 0, 0, 5.65882, -55.0536, 5.69125, -174.321, 5.60627, 65.6425, 0.144694, 40.694
1, 1980.00000, 126.55, -31.9797, 125.829, -151.248, 127.736, 88.7164, 0, 0, 5.65882, -55.0536, 5.69125, -174.321, 5.60627, 65.6425, 0.144694, 40.694
1, 2040.00000, 126.55, -31.9797, 125.829, -151.248, 127.736, 88.7164, 0, 0, 5.65882, -55.0536, 5.69125, -174.321, 5.60627, 65.6425, 0.144694, 40.694
1, 2100.00000, 126.55, -31.9797, 125.829, -151.248, 127.736, 88.7164, 0, 0, 5.65882, -55.0536, 5.69125, -174.321, 5.60627, 65.6425, 0.144694, 40.694
1, 2160.00000, 126.55, -31.9797, 125.829, -151.248, 127.736, 88.7164, 0, 0, 5.65882, -55.0536, 5.69125, -174.321, 5.60627, 65.6425, 0.144695, 40.694
1, 2220.00000, 126.55, -31.9797, 125.829, -151.248, 127.736, 88.7164, 0, 0, 5.65882, -55.0536, 5.69125, -174.321, 5.60627, 65.6425, 0.144695, 40.694
1, 2280.00000, 126.55, -31.9797, 125.829, -151.248, 127.736, 88.7164, 0, 0, 5.65882, -55.0536, 5.69125, -174.321, 5.60627, 65.6425, 0.144695, 40.694
1, 2340.00000, 126.55, -31.9797, 125.829, -151.248, 127.736, 88.7164, 0, 0, 5.65882, -55.0536, 5.69125, -174.321, 5.60627, 65.6425, 0.144695, 40.694
1, 2400.00000, 126.55, -31.9797, 125.829, -151.248, 127.736, 88.7164, 0, 0, 5.65882, -55.0536, 5.69125, -174.321, 5.60627, 65.6425, 0.144695, 40.694
1, 2460.00000, 126.55, -31.9797, 125.829, -151.248, 127.736, 88.7164, 0, 0, 5.65882, -55.0536, 5.69125, -174.321, 5.60627, 65.6425, 0.144695, 40.694
1, 2520.00000, 126.55, -31.9797, 125.829, -151.248, 127.736, 88.7164, 0, 0, 5.65882, -55.0536, 5.69125, -174.321, 5.60627, 65.6425, 0.144695, 40.694
1, 2580.00000, 126.55, -31.9797, 125.829, -151.248, 127.736, 88.7164, 0, 0, 5.65882, -55.0536, 5.69125, -174.321, 5.60627, 65.6425, 0.144695, 40.694
1, 2640.00000, 126.55, -31.9797, 125.829, -151.248, 127.736, 88.7164, 0, 0, 5.65882, -55.0536, 5.69125, -174.321, 5.60627, 65.6425, 0.144695, 40.694
1, 2700.00000, 126.55, -31.9797, 125.829, -151.248, 127.736, 88.7164, 0, 0, 5.65882, -55.0536, 5.69125, -174.321, 5.60627, 65.6425, 0.144695, 40.694
1, 2760.00000, 126.55, -31.9797, 125.829, -151.248, 127.736, 88.7164, 0, 0, 5.65882, -55.0536, 5.69125, -174.321, 5.60627, 65.6425, 0.144695, 40.694
1, 2820.00000, 126.55, -31.9797, 125.829, -151.248, 127.736, 88.7164, 0, 0, 5.65882, -55.0536, 5.69125, -174.321, 5.60627, 65.6425, 0.144695, 40.694
1, 2880.00000, 126.55, -31.9797, 125.829, -151.248, 127.736, 88.7164, 0, 0, 5.65882, -55.0536, 5.69125, -174.321, 5.60627, 65.6425, 0.144695, 40.694
1, 2940.00000, 126.55, -31.9797, 125.829, -151.248, 127.736, 88.7164, 0, 0, 5.65882, -55.0536, 5.69125, -174.321, 5.60627, 65.6425, 0.144695, 40.694
1, 3000.00000, 126.55, -31.9797, 125.829, -151.248, 127.736, 88.7164, 0, 0, 5.65882, -55.0536, 5.69125, -174.321, 5.60627, 65.6425, 0.144695, 40.694
1, 3060.00000, 126.55, -31.9797, 125.829, -151.248, 127.736, 88.7164, 0, 0, 5.65882, -55.0536, 5.69125, -174.321, 5.60627, 65.6425, 0.144695, 40.694
1, 3120.00000, 126.55, -31.9797, 125.829, -151.248, 127.736, 88.7164, 0, 0, 5.65882, -55.0536, 5.69125, -174.321, 5.60627, 65.6425, 0.144695, 40.694
1, 3180.00000, 126.55, -31.9797, 125.829, -151.248, 127.736, 88.7164, 0, 0, 5.65882, -55.0536, 5.69125, -174.321, 5.60627, 65.6425, 0.144695, 40.694
1, 3240.00000, 126.55, -31.9797, 125.829, -151.248, 127.736, 88.7164, 0, 0, 5.65882, -55.0536, 5.69125, -174.321, 5.60627, 65.6425, 0.144695, 40.694
1, 3300.00000, 126.55, -31.9797, 125.829, -151.248, 127.736, 88.7164, 0, 0, 5.65882, -55.0536, 5.69125, -174.321, 5.60627, 65.6425, 0.144695, 40.694
1, 3360.00000, 126.55, -31.9797, 125.829, -151.248, 127.736, 88.7164, 0, 0, 5.65882, -55.0536, 5.69125, -174.321, 5.60627, 65.6425, 0.144695, 40.694
1, 3420.00000, 126.55, -31.9797, 125.829, -151.248, 127.736, 88.7164, 0, 0, 5.65882, -55.0536, 5.69125, -174.321, 5.60627, 65.6425, 0.144695, 40.694
1, 3480.00000, 126.55, -31.9797, 125.829, -151.248, 127.736, 88.7164, 0, 0, 5.65882, -55.0536, 5.69125, -174.321, 5.60627, 65.6425, 0.144695, 40.694
1, 3540.00000, 126.55, -31.9797, 125.829, -151.248, 127.736, 88.7164, 0, 0, 5.65882, -55.0536, 5.69125, -174.321, 5.60627, 65.6425, 0.144695, 40.694
2, 0.00000, 126.55, -31.9797, 125.829, -151.248, 127.736, 88.7164, 0, 0, 5.65882, -55.0536, 5.69125, -174.321, 5.60627, 65.6425, 0.144695, 40.694
2, 60.00000, 126.55, -31.9797, 125.829, -151.248, 127.736, 88.7164, 0, 0, 5.65882, -55.0536, 5.69125, -174.321, 5.60627, 65.6425, 0.144695, 40.694
2, 120.00000, 126.55, -31.9797, 125.829, -151.248, 127.736, 88.7164, 0, 0, 5.65882, -55.0536, 5.69125, -174.321, 5.60627, 65.6425, 0.144695, 40.694
2, 180.00000, 126.55, -31.9797, 125.829, -151.248, 127.736, 88.7164, 0, 0, 5.65882, -55.0536, 5.69125, -174.321, 5.60627, 65.6425, 0.144695, 40.694
2, 240.00000, 126.55, -31.9797, 125.829, -151.248, 127.736, 88.7164, 0, 0, 5.65882, -55.0536, 5.69125, -174.321, 5.60627, 65.6425, 0.144695, 40.694
2, 300.00000, 126.55, -31.9797, 125.829, -151.248, 127.736, 88.7164, 0, 0, 5.65882, -55.0536, 5.69125, -174.321, 5.60627, 65.6425, 0.144695, 40.694
2, 360.00000, 126.55, -31.9797, 125.829, -151.248, 127.736, 88.7164, 0, 0, 5.65882, -55.0536, 5.69125, -174.321, 5.60627, 65.6425, 0.144695, 40.694
2, 420.00000, 126.55, -31.9797, 125.829, -151.248, 127.736, 88.7164, 0, 0, 5.65882, -55.0536, 5.69125, -174.321, 5.60627, 65.6425, 0.144695, 40.694
2, 480.00000, 126.55, -31.9797, 125.829, -151.248, 127.736, 88.7164, 0, 0, 5.65882, -55.0536, 5.69125, -174.321, 5.60627, 65.6425, 0.144695, 40.694
2, 540.00000, 126.55, -31.9797, 125.829, -151.248, 127.736, 88.7164, 0, 0, 5.65882, -55.0536, 5.69125, -174.321, 5.60627, 65.6425, 0.144695, 40.694
2, 600.00000, 126.55, -31.9797, 125.829, -151.248, 127.736, 88.7164, 0, 0, 5.65882, -55.0536, 5.69125, -174.321, 5.60627, 65.6425, 0.144695, 40.694
2, 660.00000, 126.55, -31.9797, 125.829, -151.248, 127.736, 88.7164, 0, 0, 5.65882, -55.0536, 5.69125, -174.321, 5.60627, 65.6425, 0.144695, 40.694
2, 720.00000, 126.55, -31.9797, 125.829, -151.248, 127.736, 88.7164, 0, 0, 5.65882, -55.0536, 5.69125, -174.321, 5.60627, 65.6425, 0.144695, 40.694
2, 780.00000, 126.55, -31.9797, 125.829, -151.248, 127.736, 88.7164, 0, 0, 5.65882, -55.0536, 5.69125, -174.321, 5.60627, 65.6425, 0.144695, 40.694
