hour,t(sec),V1,VAngle1,V2,VAngle2,V3,VAngle3,V4,VAngle4,I1,IAngle1,I2,IAngle2,I3,IAngle3,I4,IAngle4
0, 60.00000, 114.95, -31.0363, 122.044, -152.165, 116.584, 85.6254, 0, 0, 4.69003, -54.1096, 4.89419, -175.238, 4.7645, 62.5515, 0.0719082, -161.984
0, 120.00000, 114.95, -31.0384, 122.088, -152.18, 116.576, 85.6012, 0, 0, 4.69003, -54.1117, 4.8924, -175.253, 4.76412, 62.5272, 0.074917, -162.691
0, 180.00000, 114.95, -31.0402, 122.128, -152.193, 116.569, 85.5794, 0, 0, 4.69002, -54.1136, 4.8908, -175.266, 4.76378, 62.5054, 0.0776307, -163.28
0, 240.00000, 114.95, -31.0419, 122.164, -152.205, 116.563, 85.5597, 0, 0, 4.69002, -54.1154, 4.88936, -175.278, 4.76347, 62.4858, 0.0800771, -163.776
0, 300.00000, 114.95, -31.0435, 122.196, -152.216, 116.557, 85.5421, 0, 0, 4.69002, -54.1169, 4.88805, -175.289, 4.76318, 62.4681, 0.0822855, -164.201
0, 360.00000, 114.95, -31.0449, 122.225, -152.226, 116.551, 85.5262, 0, 0, 4.69002, -54.1184, 4.88688, -175.299, 4.76293, 62.4522, 0.0842778, -164.567
0, 420.00000, 114.95, -31.0462, 122.252, -152.234, 116.546, 85.5119, 0, 0, 4.69001, -54.1197, 4.88581, -175.308, 4.76269, 62.4379, 0.0860778, -164.885
0, 480.00000, 115.878, -30.9759, 123.405, -152.144, 117.416, 85.6043, 0, 0, 4.53229, -54.0494, 4.6357, -175.217, 4.59935, 62.5304, 0.164831, -171.178
0, 540.00000, 115.878, -30.977, 123.427, -152.151, 117.412, 85.5927, 0, 0, 4.53229, -54.0506, 4.63485, -175.224, 4.59916, 62.5187, 0.16627, -171.256
0, 600.00000, 115.878, -30.978, 123.447, -152.157, 117.408, 85.5822, 0, 0, 4.53228, -54.0516, 4.63409, -175.231, 4.59899, 62.5083, 0.167563, -171.325
0, 660.00000, 115.878, -30.9789, 123.465, -152.163, 117.405, 85.5728, 0, 0, 4.53228, -54.0525, 4.63341, -175.237, 4.59883, 62.4989, 0.168726, -171.386
0, 720.00000, 115.878, -30.9797, 123.481, -152.168, 117.402, 85.5643, 0, 0, 4.53228, -54.0534, 4.6328, -175.242, 4.59869, 62.4904, 0.169773, -171.441
0, 780.00000, 115.878, -30.9804, 123.495, -152.173, 117.399, 85.5567, 0, 0, 4.53227, -54.0541, 4.63225, -175.246, 4.59857, 62.4828, 0.170715, -171.489
0, 840.00000, 115.877, -30.9811, 123.508, -152.177, 117.396, 85.5498, 0, 0, 4.53227, -54.0548, 4.63175, -175.251, 4.59845, 62.4759, 0.171562, -171.532
0, 900.00000, 115.877, -30.9817, 123.52, -152.181, 117.394, 85.5437, 0, 0, 4.53227, -54.0554, 4.6313, -175.254, 4.59835, 62.4697, 0.172324, -171.571
0, 960.00000, 115.812, -30.9524, 121.881, -152.584, 115.95, 85.9218, 0, 0, 4.52943, -54.0262, 4.69355, -175.657, 4.53548, 62.8478, 0.0524617, -163.785
0, 1020.00000, 115.812, -30.9529, 121.891, -152.587, 115.948, 85.9168, 0, 0, 4.52943, -54.0266, 4.6932, -175.66, 4.53539, 62.8428, 0.0530494, -163.965
0, 1080.00000, 115.812, -30.9533, 121.899, -152.589, 115.947, 85.9124, 0, 0, 4.52943, -54.0271, 4.69288, -175.663, 4.53532, 62.8384, 0.0535794, -164.126
0, 1140.00000, 115.812, -30.9536, 121.906, -152.592, 115.945, 85.9084, 0, 0, 4.52943, -54.0274, 4.69259, -175.666, 4.53525, 62.8344, 0.0540569, -164.268
0, 1200.00000, 115.812, -30.954, 121.913, -152.594, 115.944, 85.9048, 0, 0, 4.52943, -54.0278, 4.69233, -175.668, 4.53519, 62.8309, 0.0544879, -164.395
0, 1260.00000, 115.812, -30.9542, 121.919, -152.596, 115.943, 85.9016, 0, 0, 4.52942, -54.0281, 4.6921, -175.67, 4.53513, 62.8276, 0.054876, -164.507
0, 1320.00000, 115.812, -30.9545, 121.924, -152.598, 115.942, 85.8987, 0, 0, 4.52942, -54.0284, 4.69189, -175.672, 4.53508, 62.8247, 0.0552254, -164.607
0, 1380.00000, 115.812, -30.9548, 121.929, -152.599, 115.941, 85.8961, 0, 0, 4.52942, -54.0286, 4.6917, -175.673, 4.53503, 62.8221, 0.0555399, -164.696
0, 1440.00000, 115.812, -30.955, 121.934, -152.601, 115.94, 85.8937, 0, 0, 4.52942, -54.0288, 4.69152, -175.675, 4.53499, 62.8198, 0.0558231, -164.775
0, 1500.00000, 115.812, -30.9552, 121.938, -152.602, 115.939, 85.8916, 0, 0, 4.52942, -54.029, 4.69137, -175.676, 4.53496, 62.8176, 0.056078, -164.846
0, 1560.00000, 115.812, -30.9554, 121.941, -152.603, 115.938, 85.8897, 0, 0, 4.52942, -54.0292, 4.69123, -175.677, 4.53492, 62.8157, 0.0563077, -164.909
0, 1620.00000, 115.812, -30.9555, 121.944, -152.604, 115.937, 85.888, 0, 0, 4.52942, -54.0294, 4.69111, -175.678, 4.53489, 62.814, 0.0565144, -164.965
0, 1680.00000, 115.812, -30.9557, 121.947, -152.605, 115.937, 85.8864, 0, 0, 4.52942, -54.0295, 4.69099, -175.679, 4.53486, 62.8125, 0.0567004, -165.016
0, 1740.00000, 115.812, -30.9558, 121.95, -152.606, 115.936, 85.885, 0, 0, 4.52942, -54.0297, 4.69089, -175.68, 4.53484, 62.8111, 0.0568679, -165.061
0, 1800.00000, 115.042, -31.243, 120.9, -152.437, 116.031, 85.8717, 0, 0, 4.49591, -54.3168, 4.73163, -175.511, 4.53896, 62.7978, 0.0246415, -36.7767
0, 1860.00000, 115.042, -31.243, 120.902, -152.437, 116.031, 85.8706, 0, 0, 4.4959, -54.3169, 4.73155, -175.511, 4.53894, 62.7967, 0.0245327, -36.9757
0, 1920.00000, 115.042, -31.2431, 120.904, -152.438, 116.03, 85.8696, 0, 0, 4.4959, -54.317, 4.73148, -175.512, 4.53893, 62.7957, 0.0244348, -37.1562
0, 1980.00000, 115.042, -31.2432, 120.905, -152.439, 116.03, 85.8687, 0, 0, 4.4959, -54.3171, 4.73142, -175.512, 4.53891, 62.7948, 0.024347, -37.3198
0, 2040.00000, 115.042, -31.2433, 120.907, -152.439, 116.03, 85.8679, 0, 0, 4.4959, -54.3172, 4.73136, -175.513, 4.5389, 62.7939, 0.024268, -37.4681
0, 2100.00000, 115.042, -31.2433, 120.908, -152.439, 116.029, 85.8671, 0, 0, 4.4959, -54.3172, 4.73131, -175.513, 4.53889, 62.7932, 0.0241972, -37.6024
0, 2160.00000, 115.042, -31.2434, 120.909, -152.44, 116.029, 85.8664, 0, 0, 4.4959, -54.3173, 4.73126, -175.514, 4.53888, 62.7925, 0.0241335, -37.7239
0, 2220.00000, 115.042, -31.2435, 120.91, -152.44, 116.029, 85.8658, 0, 0, 4.4959, -54.3174, 4.73122, -175.514, 4.53887, 62.7919, 0.0240763, -37.8338
0, 2280.00000, 115.042, -31.2435, 120.911, -152.441, 116.029, 85.8653, 0, 0, 4.4959, -54.3174, 4.73118, -175.515, 4.53886, 62.7914, 0.0240248, -37.9331
0, 2340.00000, 115.042, -31.2435, 120.912, -152.441, 116.029, 85.8648, 0, 0, 4.4959, -54.3174, 4.73115, -175.515, 4.53885, 62.7909, 0.0239785, -38.0229
0, 2400.00000, 115.042, -31.2436, 120.913, -152.441, 116.028, 85.8644, 0, 0, 4.4959, -54.3175, 4.73112, -175.515, 4.53884, 62.7905, 0.0239369, -38.1041
0, 2460.00000, 115.042, -31.2436, 120.914, -152.441, 116.028, 85.864, 0, 0, 4.4959, -54.3175, 4.73109, -175.515, 4.53884, 62.7901, 0.0238995, -38.1773
0, 2520.00000, 115.042, -31.2436, 120.914, -152.442, 116.028, 85.8636, 0, 0, 4.4959, -54.3176, 4.73107, -175.516, 4.53883, 62.7897, 0.0238659, -38.2434
0, 2580.00000, 115.042, -31.2437, 120.915, -152.442, 116.028, 85.8633, 0, 0, 4.4959, -54.3176, 4.73105, -175.516, 4.53883, 62.7894, 0.0238357, -38.3031
0, 2640.00000, 115.042, -31.2437, 120.915, -152.442, 116.028, 85.863, 0, 0, 4.4959, -54.3176, 4.73103, -175.516, 4.53882, 62.7891, 0.0238085, -38.3569
0, 2700.00000, 115.042, -31.2437, 120.916, -152.442, 116.028, 85.8628, 0, 0, 4.4959, -54.3176, 4.73101, -175.516, 4.53882, 62.7888, 0.023784, -38.4054
0, 2760.00000, 115.397, -31.2269, 120.918, -152.44, 116.182, 86.0238, 0, 0, 4.51134, -54.3008, 4.73093, -175.514, 4.54554, 62.9499, 0.0222619, -41.1781
0, 2820.00000, 115.397, -31.2269, 120.918, -152.44, 116.182, 86.0236, 0, 0, 4.51134, -54.3008, 4.73091, -175.514, 4.54554, 62.9497, 0.0222429, -41.2232
0, 2880.00000, 115.397, -31.2269, 120.919, -152.441, 116.182, 86.0234, 0, 0, 4.51134, -54.3008, 4.7309, -175.514, 4.54553, 62.9495, 0.0222258, -41.2634
0, 2940.00000, 115.397, -31.2269, 120.919, -152.441, 116.182, 86.0233, 0, 0, 4.51134, -54.3008, 4.73089, -175.515, 4.54553, 62.9494, 0.0222104, -41.2996
0, 3000.00000, 115.397, -31.2269, 120.919, -152.441, 116.182, 86.0231, 0, 0, 4.51134, -54.3008, 4.73087, -175.515, 4.54553, 62.9492, 0.0221966, -41.3322
0, 3060.00000, 115.397, -31.2269, 120.919, -152.441, 116.182, 86.023, 0, 0, 4.51134, -54.3008, 4.73087, -175.515, 4.54552, 62.9491, 0.0221841, -41.3616
0, 3120.00000, 115.397, -31.2269, 120.92, -152.441, 116.182, 86.0229, 0, 0, 4.51134, -54.3009, 4.73086, -175.515, 4.54552, 62.9489, 0.0221729, -41.3881
0, 3180.00000, 115.397, -31.2269, 120.92, -152.441, 116.182, 86.0228, 0, 0, 4.51134, -54.3009, 4.73085, -175.515, 4.54552, 62.9488, 0.0221629, -41.4119
0, 3240.00000, 115.397, -31.227, 120.92, -152.441, 116.182, 86.0227, 0, 0, 4.51134, -54.3009, 4.73084, -175.515, 4.54552, 62.9487, 0.0221538, -41.4334
0, 3300.00000, 115.397, -31.227, 120.92, -152.441, 116.182, 86.0226, 0, 0, 4.51134, -54.3009, 4.73083, -175.515, 4.54552, 62.9486, 0.0221456, -41.4528
0, 3360.00000, 115.397, -31.227, 120.92, -152.441, 116.182, 86.0225, 0, 0, 4.51134, -54.3009, 4.73083, -175.515, 4.54552, 62.9486, 0.0221383, -41.4702
0, 3420.00000, 115.397, -31.227, 120.92, -152.441, 116.182, 86.0224, 0, 0, 4.51134, -54.3009, 4.73082, -175.515, 4.54552, 62.9485, 0.0221317, -41.4859
0, 3480.00000, 115.397, -31.227, 120.921, -152.441, 116.182, 86.0223, 0, 0, 4.51134, -54.3009, 4.73082, -175.515, 4.54551, 62.9484, 0.0221258, -41.5
0, 3540.00000, 115.397, -31.227, 120.921, -152.441, 116.182, 86.0223, 0, 0, 4.51134, -54.3009, 4.73082, -175.515, 4.54551, 62.9484, 0.0221204, -41.5128
1, 0.00000, 115.397, -31.227, 120.921, -152.441, 116.182, 86.0222, 0, 0, 4.51134, -54.3009, 4.73081, -175.515, 4.54551, 62.9483, 0.0221156, -41.5242
1, 60.00000, 115.7, -31.1996, 120.925, -152.439, 116.287, 86.1621, 0, 0, 4.52453, -54.2735, 4.73066, -175.513, 4.55008, 63.0882, 0.020445, -43.7605
1, 120.00000, 115.7, -31.1996, 120.925, -152.439, 116.287, 86.1621, 0, 0, 4.52453, -54.2735, 4.73066, -175.513, 4.55008, 63.0882, 0.0204409, -43.7714
1, 180.00000, 115.7, -31.1996, 120.925, -152.439, 116.287, 86.1621, 0, 0, 4.52453, -54.2736, 4.73066, -175.513, 4.55008, 63.0882, 0.0204375, -43.781
1, 240.00000, 115.7, -31.1996, 120.925, -152.439, 116.286, 86.162, 0, 0, 4.52453, -54.2736, 4.73065, -175.513, 4.55008, 63.0881, 0.0204344, -43.7896
1, 300.00000, 115.7, -31.1996, 120.925, -152.439, 116.286, 86.162, 0, 0, 4.52453, -54.2736, 4.73065, -175.513, 4.55008, 63.0881, 0.0204316, -43.7973
1, 360.00000, 115.7, -31.1996, 120.925, -152.439, 116.286, 86.162, 0, 0, 4.52453, -54.2736, 4.73065, -175.513, 4.55008, 63.0881, 0.0204291, -43.8043
1, 420.00000, 115.7, -31.1996, 120.925, -152.439, 116.286, 86.1619, 0, 0, 4.52453, -54.2736, 4.73065, -175.513, 4.55008, 63.088, 0.0204269, -43.8106
1, 480.00000, 115.7, -31.1996, 120.925, -152.439, 116.286, 86.1619, 0, 0, 4.52453, -54.2736, 4.73065, -175.513, 4.55008, 63.088, 0.0204249, -43.8163
1, 540.00000, 115.7, -31.1996, 120.925, -152.439, 116.286, 86.1619, 0, 0, 4.52453, -54.2736, 4.73064, -175.513, 4.55008, 63.088, 0.0204231, -43.8214
1, 600.00000, 115.7, -31.1996, 120.925, -152.439, 116.286, 86.1619, 0, 0, 4.52453, -54.2736, 4.73064, -175.513, 4.55008, 63.088, 0.0204214, -43.826
1, 660.00000, 115.7, -31.1996, 120.925, -152.439, 116.286, 86.1619, 0, 0, 4.52453, -54.2736, 4.73064, -175.513, 4.55007, 63.088, 0.0204199, -43.8301
1, 720.00000, 115.7, -31.1996, 120.925, -152.439, 116.286, 86.1619, 0, 0, 4.52453, -54.2736, 4.73064, -175.513, 4.55007, 63.0879, 0.0204186, -43.8338
1, 780.00000, 116.231, -31.225, 120.938, -152.434, 116.598, 86.3756, 0, 0, 4.54765, -54.299, 4.73014, -175.508, 4.56363, 63.3017, 0.0177116, -49.9802
1, 840.00000, 116.231, -31.225, 120.938, -152.434, 116.598, 86.3756, 0, 0, 4.54765, -54.299, 4.73013, -175.508, 4.56363, 63.3017, 0.0177101, -49.9845
1, 900.00000, 116.231, -31.225, 120.938, -152.434, 116.598, 86.3756, 0, 0, 4.54765, -54.299, 4.73013, -175.508, 4.56363, 63.3017, 0.0177093, -49.9879
1, 960.00000, 116.231, -31.225, 120.938, -152.434, 116.598, 86.3756, 0, 0, 4.54765, -54.299, 4.73013, -175.508, 4.56363, 63.3017, 0.0177085, -49.991
1, 1020.00000, 116.231, -31.225, 120.938, -152.434, 116.598, 86.3756, 0, 0, 4.54765, -54.299, 4.73013, -175.508, 4.56363, 63.3017, 0.0177078, -49.9938
1, 1080.00000, 116.231, -31.225, 120.938, -152.434, 116.598, 86.3756, 0, 0, 4.54765, -54.299, 4.73013, -175.508, 4.56363, 63.3017, 0.0177072, -49.9963
1, 1140.00000, 116.231, -31.225, 120.938, -152.434, 116.598, 86.3756, 0, 0, 4.54765, -54.299, 4.73013, -175.508, 4.56363, 63.3017, 0.0177066, -49.9986
1, 1200.00000, 116.231, -31.225, 120.938, -152.434, 116.598, 86.3756, 0, 0, 4.54765, -54.299, 4.73013, -175.508, 4.56363, 63.3017, 0.0177061, -50.0007
1, 1260.00000, 116.231, -31.225, 120.938, -152.434, 116.598, 86.3756, 0, 0, 4.54765, -54.299, 4.73013, -175.508, 4.56363, 63.3017, 0.0177056, -50.0025
1, 1320.00000, 116.231, -31.2251, 120.938, -152.434, 116.598, 86.3756, 0, 0, 4.54765, -54.299, 4.73013, -175.508, 4.56363, 63.3016, 0.0177052, -50.0041
1, 1380.00000, 116.231, -31.2251, 120.938, -152.434, 116.598, 86.3756, 0, 0, 4.54765, -54.299, 4.73013, -175.508, 4.56363, 63.3016, 0.0177049, -50.0056
1, 1440.00000, 116.231, -31.2251, 120.938, -152.434, 116.598, 86.3756, 0, 0, 4.54765, -54.299, 4.73013, -175.508, 4.56363, 63.3016, 0.0177045, -50.007
1, 1500.00000, 116.231, -31.2251, 120.938, -152.434, 116.598, 86.3755, 0, 0, 4.54765, -54.299, 4.73013, -175.508, 4.56363, 63.3016, 0.0177042, -50.0082
1, 1560.00000, 116.231, -31.2251, 120.938, -152.434, 116.598, 86.3755, 0, 0, 4.54765, -54.299, 4.73013, -175.508, 4.56363, 63.3016, 0.017704, -50.0093
1, 1620.00000, 116.231, -31.2251, 120.938, -152.434, 116.598, 86.3755, 0, 0, 4.54765, -54.299, 4.73013, -175.508, 4.56363, 63.3016, 0.0177037, -50.0102
1, 1680.00000, 116.231, -31.2251, 120.938, -152.434, 116.598, 86.3755, 0, 0, 4.54765, -54.299, 4.73013, -175.508, 4.56363, 63.3016, 0.0177035, -50.0111
1, 1740.00000, 116.231, -31.2251, 120.938, -152.434, 116.598, 86.3755, 0, 0, 4.54765, -54.299, 4.73013, -175.508, 4.56363, 63.3016, 0.0177033, -50.0119
1, 1800.00000, 116.231, -31.2251, 120.938, -152.434, 116.598, 86.3755, 0, 0, 4.54765, -54.299, 4.73013, -175.508, 4.56363, 63.3016, 0.0177031, -50.0126
1, 1860.00000, 116.231, -31.2251, 120.938, -152.434, 116.598, 86.3755, 0, 0, 4.54765, -54.299, 4.73013, -175.508, 4.56363, 63.3016, 0.017703, -50.0133
1, 1920.00000, 116.231, -31.2251, 120.938, -152.434, 116.598, 86.3755, 0, 0, 4.54765, -54.299, 4.73013, -175.508, 4.56363, 63.3016, 0.0177028, -50.0138
1, 1980.00000, 116.231, -31.2251, 120.938, -152.434, 116.598, 86.3755, 0, 0, 4.54765, -54.299, 4.73013, -175.508, 4.56363, 63.3016, 0.0177027, -50.0144
1, 2040.00000, 116.231, -31.2251, 120.938, -152.434, 116.598, 86.3755, 0, 0, 4.54765, -54.299, 4.73013, -175.508, 4.56363, 63.3016, 0.0177026, -50.0148
1, 2100.00000, 116.231, -31.2251, 120.938, -152.434, 116.598, 86.3755, 0, 0, 4.54765, -54.299, 4.73013, -175.508, 4.56363, 63.3016, 0.0177025, -50.0152
1, 2160.00000, 116.231, -31.2251, 120.938, -152.434, 116.598, 86.3755, 0, 0, 4.54765, -54.299, 4.73013, -175.508, 4.56363, 63.3016, 0.0177024, -50.0156
1, 2220.00000, 117.008, -30.9405, 121.988, -152.604, 116.499, 86.3879, 0, 0, 4.58149, -54.0144, 4.68943, -175.678, 4.55934, 63.314, 0.0648513, -168.336
1, 2280.00000, 117.008, -30.9405, 121.988, -152.604, 116.499, 86.3879, 0, 0, 4.58149, -54.0144, 4.68943, -175.678, 4.55933, 63.314, 0.0648521, -168.337
1, 2340.00000, 117.008, -30.9405, 121.988, -152.604, 116.499, 86.3879, 0, 0, 4.58149, -54.0144, 4.68943, -175.678, 4.55933, 63.314, 0.0648522, -168.337
1, 2400.00000, 117.008, -30.9405, 121.988, -152.604, 116.499, 86.3879, 0, 0, 4.58149, -54.0144, 4.68943, -175.678, 4.55933, 63.314, 0.0648523, -168.337
1, 2460.00000, 117.008, -30.9405, 121.988, -152.604, 116.499, 86.3879, 0, 0, 4.58149, -54.0144, 4.68943, -175.678, 4.55933, 63.314, 0.0648524, -168.337
1, 2520.00000, 117.008, -30.9405, 121.988, -152.604, 116.499, 86.3879, 0, 0, 4.58149, -54.0144, 4.68943, -175.678, 4.55933, 63.314, 0.0648525, -168.337
1, 2580.00000, 117.008, -30.9405, 121.988, -152.604, 116.499, 86.3879, 0, 0, 4.58149, -54.0144, 4.68943, -175.678, 4.55933, 63.314, 0.0648526, -168.337
1, 2640.00000, 117.008, -30.9405, 121.988, -152.604, 116.499, 86.3879, 0, 0, 4.58149, -54.0144, 4.68943, -175.678, 4.55933, 63.314, 0.0648526, -168.337
1, 2700.00000, 117.008, -30.9405, 121.988, -152.604, 116.499, 86.3879, 0, 0, 4.58149, -54.0144, 4.68943, -175.678, 4.55933, 63.314, 0.0648527, -168.337
1, 2760.00000, 117.008, -30.9405, 121.988, -152.604, 116.499, 86.3879, 0, 0, 4.58149, -54.0144, 4.68943, -175.678, 4.55933, 63.314, 0.0648527, -168.337
1, 2820.00000, 117.008, -30.9405, 121.988, -152.604, 116.499, 86.3879, 0, 0, 4.58149, -54.0144, 4.68943, -175.678, 4.55933, 63.314, 0.0648528, -168.337
1, 2880.00000, 117.008, -30.9405, 121.988, -152.604, 116.499, 86.3879, 0, 0, 4.58149, -54.0144, 4.68943, -175.678, 4.55933, 63.314, 0.0648528, -168.337
1, 2940.00000, 117.008, -30.9405, 121.988, -152.604, 116.499, 86.3879, 0, 0, 4.58149, -54.0144, 4.68943, -175.678, 4.55933, 63.314, 0.0648529, -168.337
1, 3000.00000, 117.008, -30.9405, 121.988, -152.604, 116.499, 86.3879, 0, 0, 4.58149, -54.0144, 4.68943, -175.678, 4.55933, 63.314, 0.0648529, -168.337
1, 3060.00000, 117.008, -30.9405, 121.988, -152.604, 116.499, 86.3879, 0, 0, 4.58149, -54.0144, 4.68943, -175.678, 4.55933, 63.314, 0.0648529, -168.337
1, 3120.00000, 117.008, -30.9405, 121.988, -152.604, 116.499, 86.3879, 0, 0, 4.58149, -54.0144, 4.68943, -175.678, 4.55933, 63.314, 0.0648529, -168.337
1, 3180.00000, 117.008, -30.9405, 121.988, -152.604, 116.499, 86.3879, 0, 0, 4.58149, -54.0144, 4.68943, -175.678, 4.55933, 63.314, 0.064853, -168.337
1, 3240.00000, 117.008, -30.9405, 121.988, -152.604, 116.499, 86.3879, 0, 0, 4.58149, -54.0144, 4.68943, -175.678, 4.55933, 63.314, 0.064853, -168.337
1, 3300.00000, 117.008, -30.9405, 121.988, -152.604, 116.499, 86.3879, 0, 0, 4.58149, -54.0144, 4.68943, -175.678, 4.55933, 63.314, 0.064853, -168.337
1, 3360.00000, 117.008, -30.9405, 121.988, -152.604, 116.499, 86.3879, 0, 0, 4.58149, -54.0144, 4.68943, -175.678, 4.55933, 63.314, 0.064853, -168.337
1, 3420.00000, 117.008, -30.9405, 121.988, -152.604, 116.499, 86.3879, 0, 0, 4.58149, -54.0144, 4.68943, -175.678, 4.55933, 63.314, 0.064853, -168.337
1, 3480.00000, 117.008, -30.9405, 121.988, -152.604, 116.499, 86.3879, 0, 0, 4.58149, -54.0144, 4.68943, -175.678, 4.55933, 63.314, 0.0648531, -168.337
1, 3540.00000, 117.008, -30.9405, 121.988, -152.604, 116.499, 86.3879, 0, 0, 4.58149, -54.0144, 4.68943, -175.678, 4.55933, 63.314, 0.0648531, -168.337
2, 0.00000, 117.008, -30.9405, 121.988, -152.604, 116.499, 86.3879, 0, 0, 4.58149, -54.0144, 4.68943, -175.678, 4.55933, 63.314, 0.0648531, -168.337
2, 60.00000, 117.008, -30.9405, 121.988, -152.604, 116.499, 86.3879, 0, 0, 4.58149, -54.0144, 4.68943, -175.678, 4.55933, 63.314, 0.0648531, -168.337
2, 120.00000, 117.008, -30.9405, 121.988, -152.604, 116.499, 86.3879, 0, 0, 4.58149, -54.0144, 4.68943, -175.678, 4.55933, 63.314, 0.0648531, -168.337
2, 180.00000, 117.008, -30.9405, 121.988, -152.604, 116.499, 86.3879, 0, 0, 4.58149, -54.0144, 4.68943, -175.678, 4.55933, 63.314, 0.0648531, -168.337
2, 240.00000, 117.008, -30.9405, 121.988, -152.604, 116.499, 86.3879, 0, 0, 4.58149, -54.0144, 4.68943, -175.678, 4.55933, 63.314, 0.0648531, -168.337
2, 300.00000, 117.008, -30.9405, 121.988, -152.604, 116.499, 86.3879, 0, 0, 4.58149, -54.0144, 4.68943, -175.678, 4.55933, 63.314, 0.0648531, -168.337
2, 360.00000, 117.008, -30.9405, 121.988, -152.604, 116.499, 86.3879, 0, 0, 4.58149, -54.0144, 4.68943, -175.678, 4.55933, 63.314, 0.0648531, -168.337
2, 420.00000, 117.008, -30.9405, 121.988, -152.604, 116.499, 86.3879, 0, 0, 4.58149, -54.0144, 4.68943, -175.678, 4.55933, 63.314, 0.0648531, -168.337
2, 480.00000, 117.008, -30.9405, 121.988, -152.604, 116.499, 86.3879, 0, 0, 4.58149, -54.0144, 4.68943, -175.678, 4.55933, 63.314, 0.0648531, -168.337
2, 540.00000, 117.008, -30.9405, 121.988, -152.604, 116.499, 86.3879, 0, 0, 4.58149, -54.0144, 4.68943, -175.678, 4.55933, 63.314, 0.0648531, -168.337
2, 600.00000, 117.008, -30.9405, 121.988, -152.604, 116.499, 86.3879, 0, 0, 4.58149, -54.0144, 4.68943, -175.678, 4.55933, 63.314, 0.0648532, -168.337
2, 660.00000, 117.008, -30.9405, 121.988, -152.604, 116.499, 86.3879, 0, 0, 4.58149, -54.0144, 4.68943, -175.678, 4.55933, 63.314, 0.0648532, -168.337
