hour,t(sec),V1,VAngle1,V2,VAngle2,V3,VAngle3,V4,VAngle4,I1,IAngle1,I2,IAngle2,I3,IAngle3,I4,IAngle4
0, 60.00000, 122.665, -32.0195, 123.22, -151.66, 123.932, 87.9754, 0, 0, 4.31043, -55.0932, 4.29101, -174.734, 4.26643, 64.9015, 0.0652653, 93.016
0, 120.00000, 122.671, -32.0261, 123.22, -151.66, 123.949, 87.9748, 0, 0, 4.3102, -55.0998, 4.29102, -174.734, 4.26583, 64.9009, 0.0658699, 92.3275
0, 180.00000, 122.677, -32.032, 123.219, -151.66, 123.964, 87.9742, 0, 0, 4.31, -55.1057, 4.29103, -174.734, 4.2653, 64.9004, 0.0664231, 91.7192
0, 240.00000, 122.682, -32.0373, 123.219, -151.66, 123.978, 87.9737, 0, 0, 4.30981, -55.111, 4.29104, -174.734, 4.26482, 64.8998, 0.0669281, 91.1807
0, 300.00000, 122.687, -32.0421, 123.219, -151.66, 123.99, 87.9732, 0, 0, 4.30964, -55.1158, 4.29104, -174.734, 4.26439, 64.8994, 0.0673882, 90.7032
0, 360.00000, 122.691, -32.0464, 123.219, -151.66, 124.002, 87.9728, 0, 0, 4.30949, -55.1202, 4.29105, -174.734, 4.264, 64.8989, 0.0678071, 90.279
0, 420.00000, 122.695, -32.0503, 123.218, -151.66, 124.012, 87.9724, 0, 0, 4.30936, -55.1241, 4.29106, -174.734, 4.26365, 64.8986, 0.0681884, 89.9008
0, 480.00000, 123.26, -31.9327, 123.732, -151.541, 124.56, 88.1116, 0, 0, 3.73197, -55.0065, 3.71772, -174.615, 3.69305, 65.0377, 0.0581926, 87.5012
0, 540.00000, 123.263, -31.9359, 123.732, -151.541, 124.569, 88.1113, 0, 0, 3.73188, -55.0097, 3.71773, -174.615, 3.6928, 65.0374, 0.0584831, 87.1969
0, 600.00000, 123.266, -31.9387, 123.732, -151.541, 124.577, 88.1111, 0, 0, 3.73179, -55.0125, 3.71773, -174.615, 3.69257, 65.0372, 0.0587468, 86.925
0, 660.00000, 123.269, -31.9413, 123.732, -151.541, 124.584, 88.1109, 0, 0, 3.73172, -55.0151, 3.71774, -174.615, 3.69236, 65.037, 0.0589854, 86.6824
0, 720.00000, 123.271, -31.9436, 123.732, -151.541, 124.59, 88.1107, 0, 0, 3.73165, -55.0174, 3.71774, -174.615, 3.69217, 65.0368, 0.0592012, 86.4659
0, 780.00000, 123.273, -31.9457, 123.732, -151.541, 124.595, 88.1105, 0, 0, 3.73159, -55.0195, 3.71775, -174.615, 3.692, 65.0366, 0.0593962, 86.2724
0, 840.00000, 123.275, -31.9475, 123.732, -151.541, 124.601, 88.1104, 0, 0, 3.73153, -55.0214, 3.71775, -174.615, 3.69185, 65.0365, 0.0595724, 86.0994
0, 900.00000, 123.276, -31.9492, 123.732, -151.541, 124.605, 88.1102, 0, 0, 3.73148, -55.0231, 3.71775, -174.615, 3.69171, 65.0363, 0.0597315, 85.9446
0, 960.00000, 122.884, -32.2579, 122.938, -151.555, 124.647, 88.1003, 0, 0, 3.7434, -55.3318, 3.74175, -174.629, 3.69046, 65.0264, 0.091835, 65.647
0, 1020.00000, 122.885, -32.2593, 122.938, -151.555, 124.651, 88.1002, 0, 0, 3.74336, -55.3332, 3.74175, -174.629, 3.69035, 65.0263, 0.0920012, 65.5997
0, 1080.00000, 122.886, -32.2605, 122.938, -151.555, 124.654, 88.1001, 0, 0, 3.74333, -55.3344, 3.74175, -174.629, 3.69025, 65.0261, 0.0921507, 65.5572
0, 1140.00000, 123.147, -32.085, 123.413, -151.559, 124.627, 88.1041, 0, 0, 3.7354, -55.1589, 3.72734, -174.633, 3.69105, 65.0302, 0.0709259, 74.6161
0, 1200.00000, 123.148, -32.086, 123.413, -151.559, 124.63, 88.104, 0, 0, 3.73537, -55.1599, 3.72735, -174.633, 3.69097, 65.0301, 0.0710368, 74.5569
0, 1260.00000, 123.149, -32.0869, 123.413, -151.559, 124.632, 88.104, 0, 0, 3.73535, -55.1608, 3.72735, -174.633, 3.6909, 65.03, 0.0711369, 74.5037
0, 1320.00000, 123.15, -32.0877, 123.413, -151.559, 124.634, 88.1039, 0, 0, 3.73532, -55.1616, 3.72735, -174.633, 3.69083, 65.03, 0.071227, 74.456
0, 1380.00000, 123.15, -32.0884, 123.413, -151.559, 124.636, 88.1038, 0, 0, 3.7353, -55.1623, 3.72735, -174.633, 3.69077, 65.0299, 0.0713082, 74.4132
0, 1440.00000, 123.151, -32.089, 123.413, -151.559, 124.638, 88.1038, 0, 0, 3.73528, -55.1629, 3.72735, -174.633, 3.69072, 65.0298, 0.0713813, 74.3748
0, 1500.00000, 123.151, -32.0896, 123.413, -151.559, 124.64, 88.1037, 0, 0, 3.73527, -55.1635, 3.72735, -174.633, 3.69067, 65.0298, 0.0714471, 74.3402
0, 1560.00000, 123.152, -32.0902, 123.413, -151.559, 124.641, 88.1037, 0, 0, 3.73525, -55.1641, 3.72735, -174.633, 3.69063, 65.0297, 0.0715063, 74.3092
0, 1620.00000, 123.152, -32.0906, 123.413, -151.559, 124.642, 88.1036, 0, 0, 3.73524, -55.1645, 3.72735, -174.633, 3.69059, 65.0297, 0.0715597, 74.2814
0, 1680.00000, 123.153, -32.0911, 123.413, -151.559, 124.644, 88.1036, 0, 0, 3.73522, -55.165, 3.72735, -174.633, 3.69056, 65.0297, 0.0716078, 74.2563
0, 1740.00000, 123.153, -32.0914, 123.413, -151.559, 124.645, 88.1035, 0, 0, 3.73521, -55.1654, 3.72735, -174.633, 3.69052, 65.0296, 0.071651, 74.2338
0, 1800.00000, 122.818, -32.1111, 123.418, -151.558, 124.481, 87.9665, 0, 0, 3.74542, -55.1851, 3.7272, -174.632, 3.69538, 64.8926, 0.0775921, 86.6887
0, 1860.00000, 122.818, -32.1114, 123.418, -151.558, 124.482, 87.9665, 0, 0, 3.74541, -55.1854, 3.7272, -174.632, 3.69536, 64.8926, 0.0776203, 86.6672
0, 1920.00000, 122.818, -32.1117, 123.418, -151.558, 124.482, 87.9665, 0, 0, 3.7454, -55.1856, 3.72721, -174.632, 3.69534, 64.8925, 0.0776457, 86.6478
0, 1980.00000, 122.818, -32.112, 123.418, -151.558, 124.483, 87.9664, 0, 0, 3.74539, -55.1859, 3.72721, -174.632, 3.69532, 64.8925, 0.0776686, 86.6303
0, 2040.00000, 122.819, -32.1122, 123.418, -151.558, 124.483, 87.9664, 0, 0, 3.74539, -55.1861, 3.72721, -174.632, 3.6953, 64.8925, 0.0776892, 86.6146
0, 2100.00000, 122.819, -32.1124, 123.418, -151.558, 124.484, 87.9664, 0, 0, 3.74538, -55.1863, 3.72721, -174.632, 3.69528, 64.8925, 0.0777078, 86.6004
0, 2160.00000, 122.819, -32.1126, 123.418, -151.558, 124.485, 87.9664, 0, 0, 3.74538, -55.1865, 3.72721, -174.632, 3.69527, 64.8925, 0.0777245, 86.5877
0, 2220.00000, 122.819, -32.1127, 123.418, -151.558, 124.485, 87.9664, 0, 0, 3.74537, -55.1867, 3.72721, -174.632, 3.69526, 64.8924, 0.0777396, 86.5762
0, 2280.00000, 122.819, -32.1129, 123.418, -151.558, 124.485, 87.9664, 0, 0, 3.74537, -55.1868, 3.72721, -174.632, 3.69525, 64.8924, 0.0777531, 86.5659
0, 2340.00000, 122.819, -32.113, 123.418, -151.558, 124.486, 87.9663, 0, 0, 3.74536, -55.1869, 3.72721, -174.632, 3.69523, 64.8924, 0.0777653, 86.5567
0, 2400.00000, 122.82, -32.1131, 123.418, -151.558, 124.486, 87.9663, 0, 0, 3.74536, -55.1871, 3.72721, -174.632, 3.69523, 64.8924, 0.0777763, 86.5483
0, 2460.00000, 122.82, -32.1132, 123.418, -151.558, 124.486, 87.9663, 0, 0, 3.74536, -55.1872, 3.72721, -174.632, 3.69522, 64.8924, 0.0777862, 86.5408
0, 2520.00000, 122.82, -32.1133, 123.418, -151.558, 124.487, 87.9663, 0, 0, 3.74535, -55.1873, 3.72721, -174.632, 3.69521, 64.8924, 0.0777951, 86.5341
0, 2580.00000, 122.82, -32.1134, 123.418, -151.558, 124.487, 87.9663, 0, 0, 3.74535, -55.1873, 3.72721, -174.632, 3.6952, 64.8924, 0.0778031, 86.528
0, 2640.00000, 122.82, -32.1135, 123.418, -151.558, 124.487, 87.9663, 0, 0, 3.74535, -55.1874, 3.72721, -174.632, 3.6952, 64.8924, 0.0778103, 86.5225
0, 2700.00000, 122.82, -32.1136, 123.418, -151.558, 124.487, 87.9663, 0, 0, 3.74535, -55.1875, 3.72721, -174.632, 3.69519, 64.8924, 0.0778168, 86.5176
0, 2760.00000, 123.462, -32.1398, 123.412, -151.557, 124.88, 88.1945, 0, 0, 3.72588, -55.2138, 3.72738, -174.631, 3.68357, 65.1206, 0.0759223, 62.0038
0, 2820.00000, 123.462, -32.1399, 123.412, -151.557, 124.88, 88.1945, 0, 0, 3.72588, -55.2138, 3.72738, -174.631, 3.68357, 65.1206, 0.0759304, 62.001
0, 2880.00000, 123.462, -32.1399, 123.412, -151.557, 124.88, 88.1945, 0, 0, 3.72587, -55.2139, 3.72738, -174.631, 3.68356, 65.1206, 0.0759367, 61.9992
0, 2940.00000, 123.462, -32.14, 123.412, -151.557, 124.88, 88.1945, 0, 0, 3.72587, -55.2139, 3.72738, -174.631, 3.68356, 65.1206, 0.0759424, 61.9976
0, 3000.00000, 123.462, -32.14, 123.412, -151.557, 124.88, 88.1945, 0, 0, 3.72587, -55.214, 3.72738, -174.631, 3.68355, 65.1206, 0.0759475, 61.9961
0, 3060.00000, 123.462, -32.1401, 123.412, -151.557, 124.88, 88.1945, 0, 0, 3.72587, -55.214, 3.72738, -174.631, 3.68355, 65.1206, 0.0759521, 61.9948
0, 3120.00000, 123.462, -32.1401, 123.412, -151.557, 124.881, 88.1945, 0, 0, 3.72587, -55.214, 3.72738, -174.631, 3.68355, 65.1206, 0.0759563, 61.9936
0, 3180.00000, 123.462, -32.1401, 123.412, -151.557, 124.881, 88.1945, 0, 0, 3.72587, -55.2141, 3.72738, -174.631, 3.68355, 65.1206, 0.07596, 61.9925
0, 3240.00000, 123.462, -32.1402, 123.412, -151.557, 124.881, 88.1945, 0, 0, 3.72587, -55.2141, 3.72738, -174.631, 3.68354, 65.1206, 0.0759634, 61.9916
0, 3300.00000, 123.462, -32.1402, 123.412, -151.557, 124.881, 88.1945, 0, 0, 3.72587, -55.2141, 3.72738, -174.631, 3.68354, 65.1206, 0.0759664, 61.9907
0, 3360.00000, 123.462, -32.1402, 123.412, -151.557, 124.881, 88.1945, 0, 0, 3.72587, -55.2141, 3.72738, -174.631, 3.68354, 65.1206, 0.0759691, 61.9899
0, 3420.00000, 123.462, -32.1402, 123.412, -151.557, 124.881, 88.1945, 0, 0, 3.72587, -55.2141, 3.72738, -174.631, 3.68354, 65.1206, 0.0759715, 61.9892
0, 3480.00000, 123.462, -32.1402, 123.412, -151.557, 124.881, 88.1945, 0, 0, 3.72587, -55.2142, 3.72738, -174.631, 3.68354, 65.1206, 0.0759737, 61.9886
0, 3540.00000, 123.462, -32.1403, 123.412, -151.557, 124.881, 88.1945, 0, 0, 3.72587, -55.2142, 3.72738, -174.631, 3.68354, 65.1206, 0.0759757, 61.988
1, 0.00000, 123.462, -32.1403, 123.412, -151.557, 124.881, 88.1945, 0, 0, 3.72586, -55.2142, 3.72738, -174.631, 3.68353, 65.1206, 0.0759775, 61.9875
1, 60.00000, 123.712, -31.9686, 123.874, -151.564, 124.853, 88.1991, 0, 0, 3.71834, -55.0425, 3.71349, -174.638, 3.68436, 65.1252, 0.0546435, 71.9072
1, 120.00000, 123.712, -31.9686, 123.874, -151.564, 124.853, 88.1991, 0, 0, 3.71834, -55.0426, 3.71349, -174.638, 3.68436, 65.1252, 0.0546447, 71.9064
1, 180.00000, 123.712, -31.9687, 123.874, -151.564, 124.853, 88.1991, 0, 0, 3.71834, -55.0426, 3.71349, -174.638, 3.68436, 65.1252, 0.0546459, 71.9056
1, 240.00000, 123.712, -31.9687, 123.874, -151.564, 124.853, 88.1991, 0, 0, 3.71834, -55.0426, 3.71349, -174.638, 3.68436, 65.1252, 0.054647, 71.905
1, 300.00000, 123.712, -31.9687, 123.874, -151.564, 124.853, 88.1991, 0, 0, 3.71834, -55.0426, 3.71349, -174.638, 3.68436, 65.1252, 0.054648, 71.9044
1, 360.00000, 123.712, -31.9687, 123.874, -151.564, 124.853, 88.1991, 0, 0, 3.71834, -55.0426, 3.71349, -174.638, 3.68436, 65.1252, 0.0546488, 71.9038
1, 420.00000, 123.712, -31.9687, 123.874, -151.564, 124.853, 88.1991, 0, 0, 3.71834, -55.0426, 3.71349, -174.638, 3.68436, 65.1252, 0.0546496, 71.9034
1, 480.00000, 123.712, -31.9687, 123.874, -151.564, 124.853, 88.1991, 0, 0, 3.71834, -55.0426, 3.71349, -174.638, 3.68436, 65.1252, 0.0546503, 71.9029
1, 540.00000, 123.712, -31.9687, 123.874, -151.564, 124.853, 88.1991, 0, 0, 3.71834, -55.0426, 3.71349, -174.638, 3.68436, 65.1252, 0.054651, 71.9025
1, 600.00000, 123.712, -31.9687, 123.874, -151.564, 124.853, 88.1991, 0, 0, 3.71834, -55.0426, 3.71349, -174.638, 3.68436, 65.1252, 0.0546515, 71.9022
1, 660.00000, 123.712, -31.9687, 123.874, -151.564, 124.853, 88.1991, 0, 0, 3.71834, -55.0426, 3.71349, -174.638, 3.68436, 65.1252, 0.0546521, 71.9018
1, 720.00000, 123.712, -31.9687, 123.874, -151.564, 124.853, 88.1991, 0, 0, 3.71834, -55.0426, 3.71349, -174.638, 3.68436, 65.1252, 0.0546525, 71.9016
1, 780.00000, 123.713, -31.9693, 123.955, -151.444, 125.162, 88.2364, 0, 0, 3.71831, -55.0432, 3.71106, -174.518, 3.67528, 65.1624, 0.0695606, 73.414
1, 840.00000, 123.713, -31.9693, 123.955, -151.444, 125.162, 88.2364, 0, 0, 3.71831, -55.0432, 3.71106, -174.518, 3.67528, 65.1625, 0.0695617, 73.4132
1, 900.00000, 123.713, -31.9693, 123.955, -151.444, 125.162, 88.2364, 0, 0, 3.71831, -55.0432, 3.71106, -174.518, 3.67528, 65.1625, 0.0695621, 73.4131
1, 960.00000, 123.713, -31.9693, 123.955, -151.444, 125.162, 88.2364, 0, 0, 3.71831, -55.0432, 3.71106, -174.518, 3.67528, 65.1625, 0.0695624, 73.4129
1, 1020.00000, 123.713, -31.9693, 123.955, -151.444, 125.162, 88.2364, 0, 0, 3.71831, -55.0432, 3.71106, -174.518, 3.67528, 65.1625, 0.0695626, 73.4128
1, 1080.00000, 123.713, -31.9693, 123.955, -151.444, 125.162, 88.2364, 0, 0, 3.71831, -55.0432, 3.71106, -174.518, 3.67528, 65.1625, 0.0695629, 73.4126
1, 1140.00000, 123.713, -31.9693, 123.955, -151.444, 125.162, 88.2364, 0, 0, 3.71831, -55.0432, 3.71106, -174.518, 3.67528, 65.1625, 0.0695631, 73.4125
1, 1200.00000, 123.713, -31.9693, 123.955, -151.444, 125.162, 88.2364, 0, 0, 3.71831, -55.0432, 3.71106, -174.518, 3.67528, 65.1625, 0.0695633, 73.4124
1, 1260.00000, 123.713, -31.9693, 123.955, -151.444, 125.162, 88.2364, 0, 0, 3.71831, -55.0432, 3.71106, -174.518, 3.67528, 65.1625, 0.0695635, 73.4123
1, 1320.00000, 123.713, -31.9693, 123.955, -151.444, 125.162, 88.2364, 0, 0, 3.71831, -55.0432, 3.71106, -174.518, 3.67528, 65.1625, 0.0695637, 73.4122
1, 1380.00000, 123.713, -31.9693, 123.955, -151.444, 125.162, 88.2364, 0, 0, 3.71831, -55.0432, 3.71106, -174.518, 3.67528, 65.1625, 0.0695638, 73.4122
1, 1440.00000, 123.713, -31.9693, 123.955, -151.444, 125.162, 88.2364, 0, 0, 3.71831, -55.0432, 3.71106, -174.518, 3.67528, 65.1625, 0.0695639, 73.4121
1, 1500.00000, 123.713, -31.9693, 123.955, -151.444, 125.162, 88.2364, 0, 0, 3.71831, -55.0432, 3.71106, -174.518, 3.67528, 65.1625, 0.0695641, 73.412
1, 1560.00000, 123.713, -31.9693, 123.955, -151.444, 125.162, 88.2364, 0, 0, 3.71831, -55.0432, 3.71106, -174.518, 3.67528, 65.1625, 0.0695642, 73.412
1, 1620.00000, 123.713, -31.9693, 123.955, -151.444, 125.162, 88.2364, 0, 0, 3.71831, -55.0432, 3.71106, -174.518, 3.67528, 65.1625, 0.0695643, 73.4119
1, 1680.00000, 123.713, -31.9693, 123.955, -151.444, 125.162, 88.2364, 0, 0, 3.71831, -55.0432, 3.71106, -174.518, 3.67527, 65.1625, 0.0695643, 73.4119
1, 1740.00000, 123.713, -31.9693, 123.955, -151.444, 125.162, 88.2364, 0, 0, 3.71831, -55.0432, 3.71106, -174.518, 3.67527, 65.1625, 0.0695644, 73.4118
1, 1800.00000, 123.713, -31.9693, 123.955, -151.444, 125.162, 88.2364, 0, 0, 3.71831, -55.0432, 3.71106, -174.518, 3.67527, 65.1625, 0.0695645, 73.4118
1, 1860.00000, 123.713, -31.9693, 123.955, -151.444, 125.162, 88.2364, 0, 0, 3.71831, -55.0432, 3.71106, -174.518, 3.67527, 65.1625, 0.0695646, 73.4118
1, 1920.00000, 123.713, -31.9693, 123.955, -151.444, 125.162, 88.2364, 0, 0, 3.71831, -55.0432, 3.71106, -174.518, 3.67527, 65.1625, 0.0695646, 73.4117
1, 1980.00000, 123.713, -31.9693, 123.955, -151.444, 125.162, 88.2364, 0, 0, 3.71831, -55.0432, 3.71106, -174.518, 3.67527, 65.1625, 0.0695647, 73.4117
1, 2040.00000, 123.713, -31.9693, 123.955, -151.444, 125.162, 88.2364, 0, 0, 3.71831, -55.0432, 3.71106, -174.518, 3.67527, 65.1625, 0.0695647, 73.4117
1, 2100.00000, 123.713, -31.9693, 123.955, -151.444, 125.162, 88.2364, 0, 0, 3.71831, -55.0432, 3.71106, -174.518, 3.67527, 65.1625, 0.0695648, 73.4117
1, 2160.00000, 123.713, -31.9693, 123.955, -151.444, 125.162, 88.2364, 0, 0, 3.71831, -55.0432, 3.71106, -174.518, 3.67527, 65.1625, 0.0695648, 73.4116
1, 2220.00000, 124.048, -31.9492, 123.948, -151.445, 125.333, 88.3738, 0, 0, 3.70828, -55.0232, 3.71127, -174.519, 3.67026, 65.2999, 0.068111, 59.2113
1, 2280.00000, 124.048, -31.9492, 123.948, -151.445, 125.333, 88.3738, 0, 0, 3.70828, -55.0232, 3.71127, -174.519, 3.67025, 65.2999, 0.0681122, 59.2109
1, 2340.00000, 124.048, -31.9492, 123.948, -151.445, 125.333, 88.3738, 0, 0, 3.70828, -55.0232, 3.71127, -174.519, 3.67025, 65.2999, 0.0681122, 59.2109
1, 2400.00000, 124.048, -31.9492, 123.948, -151.445, 125.333, 88.3738, 0, 0, 3.70828, -55.0232, 3.71127, -174.519, 3.67025, 65.2999, 0.0681123, 59.2109
1, 2460.00000, 124.048, -31.9492, 123.948, -151.445, 125.333, 88.3738, 0, 0, 3.70828, -55.0232, 3.71127, -174.519, 3.67025, 65.2999, 0.0681123, 59.2109
1, 2520.00000, 124.048, -31.9492, 123.948, -151.445, 125.333, 88.3738, 0, 0, 3.70828, -55.0232, 3.71127, -174.519, 3.67025, 65.2999, 0.0681123, 59.2109
1, 2580.00000, 124.048, -31.9492, 123.948, -151.445, 125.333, 88.3738, 0, 0, 3.70828, -55.0232, 3.71127, -174.519, 3.67025, 65.2999, 0.0681123, 59.2109
1, 2640.00000, 124.048, -31.9492, 123.948, -151.445, 125.333, 88.3738, 0, 0, 3.70828, -55.0232, 3.71127, -174.519, 3.67025, 65.2999, 0.0681124, 59.2108
1, 2700.00000, 124.048, -31.9492, 123.948, -151.445, 125.333, 88.3738, 0, 0, 3.70828, -55.0232, 3.71127, -174.519, 3.67025, 65.2999, 0.0681124, 59.2108
1, 2760.00000, 124.048, -31.9492, 123.948, -151.445, 125.333, 88.3738, 0, 0, 3.70828, -55.0232, 3.71127, -174.519, 3.67025, 65.2999, 0.0681124, 59.2108
1, 2820.00000, 124.048, -31.9492, 123.948, -151.445, 125.333, 88.3738, 0, 0, 3.70828, -55.0232, 3.71127, -174.519, 3.67025, 65.2999, 0.0681124, 59.2108
1, 2880.00000, 124.048, -31.9492, 123.948, -151.445, 125.333, 88.3738, 0, 0, 3.70828, -55.0232, 3.71127, -174.519, 3.67025, 65.2999, 0.0681124, 59.2108
1, 2940.00000, 124.048, -31.9492, 123.948, -151.445, 125.333, 88.3738, 0, 0, 3.70828, -55.0232, 3.71127, -174.519, 3.67025, 65.2999, 0.0681124, 59.2108
1, 3000.00000, 124.048, -31.9492, 123.948, -151.445, 125.333, 88.3738, 0, 0, 3.70828, -55.0232, 3.71127, -174.519, 3.67025, 65.2999, 0.0681124, 59.2108
1, 3060.00000, 124.048, -31.9492, 123.948, -151.445, 125.333, 88.3738, 0, 0, 3.70828, -55.0232, 3.71127, -174.519, 3.67025, 65.2999, 0.0681124, 59.2108
1, 3120.00000, 124.048, -31.9492, 123.948, -151.445, 125.333, 88.3738, 0, 0, 3.70828, -55.0232, 3.71127, -174.519, 3.67025, 65.2999, 0.0681124, 59.2108
1, 3180.00000, 124.048, -31.9492, 123.948, -151.445, 125.333, 88.3738, 0, 0, 3.70828, -55.0232, 3.71127, -174.519, 3.67025, 65.2999, 0.0681125, 59.2108
1, 3240.00000, 124.048, -31.9492, 123.948, -151.445, 125.333, 88.3738, 0, 0, 3.70828, -55.0232, 3.71127, -174.519, 3.67025, 65.2999, 0.0681125, 59.2108
1, 3300.00000, 124.048, -31.9492, 123.948, -151.445, 125.333, 88.3738, 0, 0, 3.70828, -55.0232, 3.71127, -174.519, 3.67025, 65.2999, 0.0681125, 59.2108
1, 3360.00000, 124.048, -31.9492, 123.948, -151.445, 125.333, 88.3738, 0, 0, 3.70828, -55.0232, 3.71127, -174.519, 3.67025, 65.2999, 0.0681125, 59.2108
1, 3420.00000, 124.048, -31.9492, 123.948, -151.445, 125.333, 88.3738, 0, 0, 3.70828, -55.0232, 3.71127, -174.519, 3.67025, 65.2999, 0.0681125, 59.2108
1, 3480.00000, 124.048, -31.9492, 123.948, -151.445, 125.333, 88.3738, 0, 0, 3.70828, -55.0232, 3.71127, -174.519, 3.67025, 65.2999, 0.0681125, 59.2108
1, 3540.00000, 124.048, -31.9492, 123.948, -151.445, 125.333, 88.3738, 0, 0, 3.70828, -55.0232, 3.71127, -174.519, 3.67025, 65.2999, 0.0681125, 59.2108
2, 0.00000, 124.048, -31.9492, 123.948, -151.445, 125.333, 88.3738, 0, 0, 3.70828, -55.0232, 3.71127, -174.519, 3.67025, 65.2999, 0.0681125, 59.2108
2, 60.00000, 124.048, -31.9492, 123.948, -151.445, 125.333, 88.3738, 0, 0, 3.70828, -55.0232, 3.71127, -174.519, 3.67025, 65.2999, 0.0681125, 59.2108
2, 120.00000, 124.048, -31.9492, 123.948, -151.445, 125.333, 88.3738, 0, 0, 3.70828, -55.0232, 3.71127, -174.519, 3.67025, 65.2999, 0.0681125, 59.2108
2, 180.00000, 124.048, -31.9492, 123.948, -151.445, 125.333, 88.3738, 0, 0, 3.70828, -55.0232, 3.71127, -174.519, 3.67025, 65.2999, 0.0681125, 59.2108
2, 240.00000, 124.048, -31.9492, 123.948, -151.445, 125.333, 88.3738, 0, 0, 3.70828, -55.0232, 3.71127, -174.519, 3.67025, 65.2999, 0.0681125, 59.2108
2, 300.00000, 124.048, -31.9492, 123.948, -151.445, 125.333, 88.3738, 0, 0, 3.70828, -55.0232, 3.71127, -174.519, 3.67025, 65.2999, 0.0681125, 59.2108
2, 360.00000, 124.048, -31.9492, 123.948, -151.445, 125.333, 88.3738, 0, 0, 3.70828, -55.0232, 3.71127, -174.519, 3.67025, 65.2999, 0.0681125, 59.2108
2, 420.00000, 124.048, -31.9492, 123.948, -151.445, 125.333, 88.3738, 0, 0, 3.70828, -55.0232, 3.71127, -174.519, 3.67025, 65.2999, 0.0681125, 59.2108
2, 480.00000, 124.048, -31.9492, 123.948, -151.445, 125.333, 88.3738, 0, 0, 3.70828, -55.0232, 3.71127, -174.519, 3.67025, 65.2999, 0.0681125, 59.2108
2, 540.00000, 124.048, -31.9492, 123.948, -151.445, 125.333, 88.3738, 0, 0, 3.70828, -55.0232, 3.71127, -174.519, 3.67025, 65.2999, 0.0681125, 59.2108
2, 600.00000, 124.048, -31.9492, 123.948, -151.445, 125.333, 88.3738, 0, 0, 3.70828, -55.0232, 3.71127, -174.519, 3.67025, 65.2999, 0.0681125, 59.2108
2, 660.00000, 124.048, -31.9492, 123.948, -151.445, 125.333, 88.3738, 0, 0, 3.70828, -55.0232, 3.71127, -174.519, 3.67025, 65.2999, 0.0681125, 59.2108
