hour,t(sec),V1,VAngle1,V2,VAngle2,V3,VAngle3,V4,VAngle4,I1,IAngle1,I2,IAngle2,I3,IAngle3,I4,IAngle4
0, 60.00000, 121.002, -31.8487, 119.061, -151.577, 120.828, 89.0723, 0, 0, 8.16495, -54.9221, 8.06683, -174.651, 8.17632, 65.999, 0.0379457, -68.9235
0, 120.00000, 121.032, -31.8541, 119.061, -151.589, 120.828, 89.0725, 0, 0, 8.1629, -54.9275, 8.06678, -174.663, 8.17635, 65.9992, 0.0414153, -67.9081
0, 180.00000, 121.059, -31.8589, 119.06, -151.6, 120.827, 89.0727, 0, 0, 8.16106, -54.9324, 8.06674, -174.674, 8.17636, 65.9993, 0.0445406, -67.1261
0, 240.00000, 121.083, -31.8633, 119.06, -151.61, 120.827, 89.0729, 0, 0, 8.15941, -54.9368, 8.0667, -174.684, 8.17638, 65.9994, 0.0473584, -66.5113
0, 300.00000, 121.104, -31.8673, 119.06, -151.619, 120.827, 89.073, 0, 0, 8.15792, -54.9408, 8.06666, -174.693, 8.17639, 65.9995, 0.0498977, -66.0179
0, 360.00000, 121.124, -31.8709, 119.059, -151.627, 120.827, 89.0731, 0, 0, 8.15658, -54.9444, 8.06662, -174.701, 8.17641, 65.9996, 0.0521846, -65.6154
0, 420.00000, 121.142, -31.8741, 119.059, -151.634, 120.827, 89.0733, 0, 0, 8.15537, -54.9477, 8.06659, -174.708, 8.17642, 65.9997, 0.0542438, -65.2827
0, 480.00000, 121.157, -31.877, 119.059, -151.64, 120.827, 89.0734, 0, 0, 8.15429, -54.9506, 8.06656, -174.714, 8.17643, 65.9997, 0.0560977, -65.0043
0, 540.00000, 121.172, -31.8796, 119.059, -151.646, 120.826, 89.0735, 0, 0, 8.15332, -54.9532, 8.06653, -174.72, 8.17644, 65.9998, 0.0577665, -64.7693
0, 600.00000, 121.184, -31.882, 119.059, -151.651, 120.826, 89.0735, 0, 0, 8.15244, -54.9556, 8.0665, -174.725, 8.17645, 65.9999, 0.0592687, -64.5694
0, 660.00000, 121.196, -31.8841, 119.058, -151.656, 120.826, 89.0736, 0, 0, 8.15165, -54.9578, 8.06648, -174.73, 8.17645, 65.9999, 0.0606207, -64.398
0, 720.00000, 121.206, -31.886, 119.058, -151.66, 120.826, 89.0737, 0, 0, 8.15094, -54.9597, 8.06646, -174.734, 8.17646, 66, 0.0618376, -64.2503
0, 780.00000, 121.216, -31.8877, 119.058, -151.664, 120.826, 89.0738, 0, 0, 8.15031, -54.9615, 8.06644, -174.738, 8.17646, 66, 0.0629329, -64.1223
0, 840.00000, 121.224, -31.8893, 119.058, -151.668, 120.826, 89.0738, 0, 0, 8.14973, -54.9631, 8.06642, -174.742, 8.17647, 66, 0.0639186, -64.011
0, 900.00000, 121.231, -31.8907, 119.058, -151.671, 120.826, 89.0739, 0, 0, 8.14921, -54.9645, 8.0664, -174.745, 8.17647, 66.0001, 0.0648058, -63.9137
0, 960.00000, 120.645, -31.9541, 118.853, -151.695, 120.5, 88.9339, 0, 0, 8.6594, -55.0278, 8.51691, -174.769, 8.64792, 65.86, 0.0268639, -134.016
0, 1020.00000, 120.651, -31.9553, 118.853, -151.697, 120.5, 88.934, 0, 0, 8.65985, -55.029, 8.51691, -174.771, 8.64792, 65.8601, 0.0268445, -134.231
0, 1080.00000, 120.656, -31.9563, 118.853, -151.7, 120.5, 88.9341, 0, 0, 8.66025, -55.0301, 8.51691, -174.773, 8.64792, 65.8602, 0.0268274, -134.428
0, 1140.00000, 120.66, -31.9573, 118.853, -151.702, 120.5, 88.9342, 0, 0, 8.66061, -55.0311, 8.5169, -174.776, 8.64791, 65.8603, 0.0268125, -134.611
0, 1200.00000, 120.665, -31.9581, 118.853, -151.703, 120.5, 88.9342, 0, 0, 8.66094, -55.0319, 8.5169, -174.777, 8.64791, 65.8604, 0.0267996, -134.786
0, 1260.00000, 120.668, -31.9589, 118.853, -151.705, 120.5, 88.9343, 0, 0, 8.661, -55.0327, 8.5169, -174.779, 8.64791, 65.8604, 0.0268312, -134.439
0, 1320.00000, 120.672, -31.9596, 118.853, -151.707, 120.5, 88.9344, 0, 0, 8.66075, -55.0334, 8.5169, -174.781, 8.64791, 65.8605, 0.0269191, -133.515
0, 1380.00000, 120.675, -31.9602, 118.853, -151.708, 120.5, 88.9344, 0, 0, 8.66053, -55.034, 8.51689, -174.782, 8.64791, 65.8605, 0.0270056, -132.687
0, 1440.00000, 120.677, -31.9607, 118.853, -151.709, 120.5, 88.9345, 0, 0, 8.66033, -55.0346, 8.51689, -174.783, 8.64791, 65.8606, 0.0270882, -131.946
0, 1500.00000, 120.68, -31.9612, 118.853, -151.71, 120.5, 88.9345, 0, 0, 8.66015, -55.0351, 8.51688, -174.784, 8.64791, 65.8606, 0.0271664, -131.284
0, 1560.00000, 120.682, -31.9617, 118.853, -151.711, 120.5, 88.9345, 0, 0, 8.65999, -55.0355, 8.51688, -174.785, 8.64791, 65.8606, 0.0272399, -130.691
0, 1620.00000, 120.684, -31.9621, 118.853, -151.712, 120.5, 88.9346, 0, 0, 8.65984, -55.0359, 8.51688, -174.786, 8.64791, 65.8607, 0.0273096, -130.159
0, 1680.00000, 120.686, -31.9624, 118.853, -151.713, 120.5, 88.9346, 0, 0, 8.65971, -55.0363, 8.51687, -174.787, 8.6479, 65.8607, 0.0273747, -129.682
0, 1740.00000, 120.688, -31.9628, 118.853, -151.714, 120.5, 88.9346, 0, 0, 8.65959, -55.0366, 8.51687, -174.788, 8.6479, 65.8607, 0.0274348, -129.255
0, 1800.00000, 120.689, -31.9631, 118.853, -151.714, 120.5, 88.9346, 0, 0, 8.65948, -55.0369, 8.51687, -174.788, 8.6479, 65.8607, 0.0274903, -128.872
0, 1860.00000, 120.869, -31.9463, 118.989, -151.701, 120.645, 88.9519, 0, 0, 8.67289, -55.0202, 8.5536, -174.775, 8.68577, 65.878, 0.0423308, -95.0314
0, 1920.00000, 120.87, -31.9465, 118.989, -151.701, 120.645, 88.9519, 0, 0, 8.67279, -55.0204, 8.5536, -174.775, 8.68576, 65.878, 0.0424565, -94.8984
0, 1980.00000, 120.871, -31.9467, 118.989, -151.702, 120.645, 88.9519, 0, 0, 8.67271, -55.0206, 8.55359, -174.776, 8.68576, 65.878, 0.0425667, -94.7795
0, 2040.00000, 120.872, -31.9469, 118.989, -151.702, 120.645, 88.9519, 0, 0, 8.67264, -55.0208, 8.55359, -174.776, 8.68576, 65.878, 0.042666, -94.6731
0, 2100.00000, 120.873, -31.9471, 118.989, -151.703, 120.645, 88.9519, 0, 0, 8.67257, -55.021, 8.55359, -174.777, 8.68576, 65.878, 0.0427555, -94.5777
0, 2160.00000, 120.874, -31.9473, 118.989, -151.703, 120.645, 88.9519, 0, 0, 8.67251, -55.0212, 8.55359, -174.777, 8.68576, 65.878, 0.0428362, -94.4922
0, 2220.00000, 120.874, -31.9474, 118.989, -151.703, 120.645, 88.9519, 0, 0, 8.67246, -55.0213, 8.55359, -174.777, 8.68576, 65.878, 0.0429089, -94.4155
0, 2280.00000, 120.875, -31.9475, 118.989, -151.704, 120.645, 88.9519, 0, 0, 8.67241, -55.0214, 8.55358, -174.778, 8.68576, 65.878, 0.0429744, -94.3468
0, 2340.00000, 120.876, -31.9476, 118.989, -151.704, 120.645, 88.952, 0, 0, 8.67237, -55.0215, 8.55358, -174.778, 8.68576, 65.878, 0.0430334, -94.285
0, 2400.00000, 120.876, -31.9477, 118.989, -151.704, 120.645, 88.952, 0, 0, 8.67233, -55.0216, 8.55358, -174.778, 8.68576, 65.878, 0.0430865, -94.2297
0, 2460.00000, 120.877, -31.9478, 118.989, -151.704, 120.645, 88.952, 0, 0, 8.6723, -55.0217, 8.55358, -174.778, 8.68576, 65.8781, 0.0431344, -94.1799
0, 2520.00000, 120.877, -31.9479, 118.989, -151.705, 120.645, 88.952, 0, 0, 8.67226, -55.0218, 8.55358, -174.778, 8.68576, 65.8781, 0.0431775, -94.1352
0, 2580.00000, 120.877, -31.948, 118.989, -151.705, 120.645, 88.952, 0, 0, 8.67224, -55.0219, 8.55358, -174.779, 8.68576, 65.8781, 0.0432163, -94.0951
0, 2640.00000, 120.878, -31.9481, 118.989, -151.705, 120.645, 88.952, 0, 0, 8.67221, -55.022, 8.55358, -174.779, 8.68576, 65.8781, 0.0432512, -94.0591
0, 2700.00000, 120.878, -31.9481, 118.989, -151.705, 120.645, 88.952, 0, 0, 8.67219, -55.022, 8.55358, -174.779, 8.68576, 65.8781, 0.0432827, -94.0267
0, 2760.00000, 121.262, -31.913, 119.292, -151.681, 120.995, 88.9838, 0, 0, 8.22241, -54.9869, 8.1587, -174.755, 8.24052, 65.9099, 0.0607975, -44.6194
0, 2820.00000, 121.262, -31.913, 119.292, -151.681, 120.995, 88.9838, 0, 0, 8.22238, -54.9869, 8.1587, -174.755, 8.24052, 65.9099, 0.0608324, -44.6323
0, 2880.00000, 121.262, -31.9131, 119.292, -151.682, 120.995, 88.9838, 0, 0, 8.22236, -54.987, 8.1587, -174.755, 8.24052, 65.9099, 0.0608597, -44.6379
0, 2940.00000, 121.263, -31.9131, 119.292, -151.682, 120.995, 88.9838, 0, 0, 8.22235, -54.987, 8.1587, -174.756, 8.24052, 65.9099, 0.0608843, -44.6429
0, 3000.00000, 121.263, -31.9131, 119.292, -151.682, 120.995, 88.9838, 0, 0, 8.22234, -54.9871, 8.1587, -174.756, 8.24052, 65.9099, 0.0609065, -44.6474
0, 3060.00000, 121.263, -31.9132, 119.292, -151.682, 120.995, 88.9838, 0, 0, 8.22232, -54.9871, 8.1587, -174.756, 8.24052, 65.9099, 0.0609264, -44.6514
0, 3120.00000, 121.263, -31.9132, 119.292, -151.682, 120.995, 88.9838, 0, 0, 8.22231, -54.9871, 8.1587, -174.756, 8.24052, 65.9099, 0.0609443, -44.6551
0, 3180.00000, 121.263, -31.9132, 119.292, -151.682, 120.995, 88.9838, 0, 0, 8.2223, -54.9871, 8.1587, -174.756, 8.24052, 65.9099, 0.0609604, -44.6583
0, 3240.00000, 121.263, -31.9132, 119.292, -151.682, 120.995, 88.9838, 0, 0, 8.2223, -54.9872, 8.1587, -174.756, 8.24052, 65.9099, 0.0609749, -44.6613
0, 3300.00000, 121.263, -31.9133, 119.292, -151.682, 120.995, 88.9838, 0, 0, 8.22229, -54.9872, 8.1587, -174.756, 8.24052, 65.9099, 0.060988, -44.6639
0, 3360.00000, 121.264, -31.9133, 119.292, -151.682, 120.995, 88.9838, 0, 0, 8.22228, -54.9872, 8.1587, -174.756, 8.24052, 65.9099, 0.0609998, -44.6663
0, 3420.00000, 121.264, -31.9133, 119.292, -151.682, 120.995, 88.9839, 0, 0, 8.22228, -54.9872, 8.15869, -174.756, 8.24052, 65.9099, 0.0610103, -44.6685
0, 3480.00000, 121.264, -31.9133, 119.292, -151.682, 120.995, 88.9839, 0, 0, 8.22227, -54.9872, 8.15869, -174.756, 8.24052, 65.9099, 0.0610199, -44.6704
0, 3540.00000, 121.58, -31.8751, 119.278, -151.68, 121.08, 89.103, 0, 0, 8.20088, -54.949, 8.15763, -174.754, 8.23474, 66.0291, 0.0941998, -43.6907
1, 0.00000, 121.58, -31.8751, 119.278, -151.68, 121.08, 89.103, 0, 0, 8.20086, -54.949, 8.15763, -174.754, 8.23474, 66.0291, 0.0942126, -43.6971
1, 60.00000, 121.859, -31.8504, 119.505, -151.665, 121.341, 89.1267, 0, 0, 8.08644, -54.9243, 8.07926, -174.739, 8.12097, 66.0528, 0.119971, -31.7548
1, 120.00000, 121.859, -31.8504, 119.505, -151.665, 121.341, 89.1267, 0, 0, 8.08643, -54.9243, 8.07925, -174.739, 8.12096, 66.0527, 0.119978, -31.7578
1, 180.00000, 121.859, -31.8504, 119.505, -151.665, 121.341, 89.1267, 0, 0, 8.08643, -54.9243, 8.07925, -174.739, 8.12096, 66.0527, 0.119983, -31.759
1, 240.00000, 121.859, -31.8504, 119.505, -151.665, 121.341, 89.1267, 0, 0, 8.08643, -54.9243, 8.07925, -174.739, 8.12096, 66.0527, 0.119988, -31.76
1, 300.00000, 121.859, -31.8504, 119.505, -151.665, 121.341, 89.1267, 0, 0, 8.08643, -54.9243, 8.07925, -174.739, 8.12096, 66.0527, 0.119992, -31.7609
1, 360.00000, 121.859, -31.8504, 119.505, -151.665, 121.341, 89.1267, 0, 0, 8.08642, -54.9243, 8.07925, -174.739, 8.12096, 66.0528, 0.119995, -31.7617
1, 420.00000, 121.859, -31.8504, 119.505, -151.665, 121.341, 89.1267, 0, 0, 8.08642, -54.9244, 8.07925, -174.739, 8.12096, 66.0528, 0.119999, -31.7625
1, 480.00000, 121.859, -31.8504, 119.505, -151.665, 121.341, 89.1267, 0, 0, 8.08642, -54.9244, 8.07925, -174.739, 8.12096, 66.0528, 0.120002, -31.7632
1, 540.00000, 121.859, -31.8504, 119.505, -151.665, 121.341, 89.1267, 0, 0, 8.08642, -54.9244, 8.07925, -174.739, 8.12096, 66.0528, 0.120005, -31.7638
1, 600.00000, 121.86, -31.8504, 119.505, -151.665, 121.341, 89.1267, 0, 0, 8.08642, -54.9244, 8.07925, -174.739, 8.12096, 66.0528, 0.120007, -31.7643
1, 660.00000, 121.86, -31.8505, 119.505, -151.665, 121.341, 89.1267, 0, 0, 8.08641, -54.9244, 8.07925, -174.739, 8.12096, 66.0528, 0.120009, -31.7648
1, 720.00000, 121.86, -31.8505, 119.505, -151.665, 121.341, 89.1267, 0, 0, 8.08641, -54.9244, 8.07925, -174.739, 8.12096, 66.0528, 0.120011, -31.7653
1, 780.00000, 121.86, -31.8505, 119.505, -151.665, 121.341, 89.1267, 0, 0, 8.08641, -54.9244, 8.07925, -174.739, 8.12096, 66.0528, 0.120013, -31.7657
1, 840.00000, 121.86, -31.8505, 119.505, -151.665, 121.341, 89.1267, 0, 0, 8.08641, -54.9244, 8.07925, -174.739, 8.12096, 66.0528, 0.120015, -31.766
1, 900.00000, 121.86, -31.8505, 119.505, -151.665, 121.341, 89.1267, 0, 0, 8.08641, -54.9244, 8.07925, -174.739, 8.12096, 66.0528, 0.120016, -31.7663
1, 960.00000, 121.889, -31.8462, 119.528, -151.662, 121.369, 89.1313, 0, 0, 8.04662, -54.9201, 8.04319, -174.736, 8.08111, 66.0574, 0.122572, -30.8381
1, 1020.00000, 121.889, -31.8462, 119.528, -151.662, 121.369, 89.1313, 0, 0, 8.04661, -54.9201, 8.04319, -174.736, 8.08111, 66.0574, 0.122575, -30.84
1, 1080.00000, 121.889, -31.8462, 119.528, -151.662, 121.369, 89.1313, 0, 0, 8.04661, -54.9201, 8.04319, -174.736, 8.08111, 66.0574, 0.122576, -30.8402
1, 1140.00000, 121.889, -31.8462, 119.528, -151.662, 121.369, 89.1313, 0, 0, 8.04661, -54.9201, 8.04319, -174.736, 8.08111, 66.0574, 0.122577, -30.8404
1, 1200.00000, 121.889, -31.8462, 119.528, -151.662, 121.369, 89.1313, 0, 0, 8.04661, -54.9201, 8.04319, -174.736, 8.08111, 66.0574, 0.122578, -30.8406
1, 1260.00000, 121.889, -31.8462, 119.528, -151.662, 121.369, 89.1313, 0, 0, 8.04661, -54.9201, 8.04319, -174.736, 8.08111, 66.0574, 0.122579, -30.8408
1, 1320.00000, 121.889, -31.8462, 119.528, -151.662, 121.369, 89.1313, 0, 0, 8.04661, -54.9201, 8.04319, -174.736, 8.08111, 66.0574, 0.122579, -30.841
1, 1380.00000, 121.889, -31.8462, 119.528, -151.662, 121.369, 89.1313, 0, 0, 8.04661, -54.9201, 8.04319, -174.736, 8.08111, 66.0574, 0.12258, -30.8411
1, 1440.00000, 121.889, -31.8462, 119.528, -151.662, 121.369, 89.1313, 0, 0, 8.04661, -54.9201, 8.04319, -174.736, 8.08111, 66.0574, 0.122581, -30.8412
1, 1500.00000, 121.889, -31.8462, 119.528, -151.662, 121.369, 89.1313, 0, 0, 8.04661, -54.9201, 8.04319, -174.736, 8.08111, 66.0574, 0.122581, -30.8413
1, 1560.00000, 121.889, -31.8462, 119.528, -151.662, 121.369, 89.1313, 0, 0, 8.04661, -54.9201, 8.04319, -174.736, 8.08111, 66.0574, 0.122581, -30.8414
1, 1620.00000, 121.889, -31.8462, 119.528, -151.662, 121.369, 89.1313, 0, 0, 8.04661, -54.9201, 8.04319, -174.736, 8.08111, 66.0574, 0.122582, -30.8415
1, 1680.00000, 121.889, -31.8462, 119.528, -151.662, 121.369, 89.1313, 0, 0, 8.04661, -54.9201, 8.04319, -174.736, 8.08111, 66.0574, 0.122582, -30.8416
1, 1740.00000, 121.889, -31.8462, 119.528, -151.662, 121.369, 89.1313, 0, 0, 8.04661, -54.9201, 8.04319, -174.736, 8.08111, 66.0574, 0.122583, -30.8417
1, 1800.00000, 121.889, -31.8462, 119.528, -151.662, 121.369, 89.1313, 0, 0, 8.04661, -54.9201, 8.04319, -174.736, 8.08111, 66.0574, 0.122583, -30.8418
1, 1860.00000, 123.365, -31.4193, 120.906, -152.078, 121.007, 89.109, 0, 0, 8.14212, -54.4932, 8.3077, -175.152, 8.30076, 66.035, 0.310647, -55.1631
1, 1920.00000, 123.365, -31.4193, 120.906, -152.078, 121.007, 89.109, 0, 0, 8.14212, -54.4932, 8.3077, -175.152, 8.30076, 66.035, 0.310653, -55.1632
1, 1980.00000, 123.365, -31.4193, 120.906, -152.078, 121.007, 89.109, 0, 0, 8.14212, -54.4932, 8.3077, -175.152, 8.30076, 66.035, 0.310654, -55.1632
1, 2040.00000, 123.365, -31.4193, 120.906, -152.078, 121.007, 89.109, 0, 0, 8.14212, -54.4932, 8.3077, -175.152, 8.30076, 66.035, 0.310654, -55.1632
1, 2100.00000, 123.365, -31.4193, 120.906, -152.078, 121.007, 89.109, 0, 0, 8.14212, -54.4932, 8.3077, -175.152, 8.30076, 66.035, 0.310654, -55.1632
1, 2160.00000, 123.365, -31.4193, 120.906, -152.078, 121.007, 89.109, 0, 0, 8.14212, -54.4932, 8.3077, -175.152, 8.30076, 66.035, 0.310654, -55.1632
1, 2220.00000, 123.365, -31.4193, 120.906, -152.078, 121.007, 89.109, 0, 0, 8.14212, -54.4932, 8.3077, -175.152, 8.30076, 66.035, 0.310654, -55.1632
1, 2280.00000, 123.365, -31.4193, 120.906, -152.078, 121.007, 89.109, 0, 0, 8.14212, -54.4932, 8.3077, -175.152, 8.30076, 66.035, 0.310654, -55.1632
1, 2340.00000, 123.365, -31.4193, 120.906, -152.078, 121.007, 89.109, 0, 0, 8.14212, -54.4932, 8.3077, -175.152, 8.30076, 66.035, 0.310655, -55.1632
1, 2400.00000, 123.365, -31.4193, 120.906, -152.078, 121.007, 89.109, 0, 0, 8.14211, -54.4932, 8.3077, -175.152, 8.30076, 66.035, 0.310655, -55.1632
1, 2460.00000, 123.365, -31.4193, 120.906, -152.078, 121.007, 89.109, 0, 0, 8.14211, -54.4932, 8.3077, -175.152, 8.30076, 66.035, 0.310655, -55.1632
1, 2520.00000, 123.365, -31.4193, 120.906, -152.078, 121.007, 89.109, 0, 0, 8.14211, -54.4932, 8.3077, -175.152, 8.30076, 66.035, 0.310655, -55.1632
1, 2580.00000, 123.365, -31.4193, 120.906, -152.078, 121.007, 89.109, 0, 0, 8.14211, -54.4932, 8.3077, -175.152, 8.30076, 66.035, 0.310655, -55.1632
1, 2640.00000, 123.365, -31.4193, 120.906, -152.078, 121.007, 89.109, 0, 0, 8.14211, -54.4932, 8.3077, -175.152, 8.30076, 66.035, 0.310655, -55.1632
1, 2700.00000, 123.365, -31.4193, 120.906, -152.078, 121.007, 89.109, 0, 0, 8.14211, -54.4932, 8.3077, -175.152, 8.30076, 66.035, 0.310655, -55.1632
1, 2760.00000, 123.874, -31.3789, 121.379, -152.048, 121.477, 89.1592, 0, 0, 7.64081, -54.4528, 7.79783, -175.122, 7.79153, 66.0853, 0.295702, -55.1619
1, 2820.00000, 123.874, -31.3789, 121.379, -152.048, 121.477, 89.1592, 0, 0, 7.64079, -54.4528, 7.79783, -175.122, 7.79153, 66.0853, 0.295716, -55.1613
1, 2880.00000, 123.874, -31.3789, 121.379, -152.048, 121.477, 89.1592, 0, 0, 7.64079, -54.4528, 7.79783, -175.122, 7.79153, 66.0853, 0.295716, -55.1613
1, 2940.00000, 123.874, -31.3789, 121.379, -152.048, 121.477, 89.1592, 0, 0, 7.64079, -54.4528, 7.79783, -175.122, 7.79153, 66.0853, 0.295716, -55.1613
1, 3000.00000, 123.874, -31.3789, 121.379, -152.048, 121.477, 89.1592, 0, 0, 7.64079, -54.4528, 7.79783, -175.122, 7.79153, 66.0853, 0.295716, -55.1613
1, 3060.00000, 123.874, -31.3789, 121.379, -152.048, 121.477, 89.1592, 0, 0, 7.64079, -54.4528, 7.79783, -175.122, 7.79153, 66.0853, 0.295716, -55.1613
1, 3120.00000, 123.874, -31.3789, 121.379, -152.048, 121.477, 89.1592, 0, 0, 7.64079, -54.4528, 7.79783, -175.122, 7.79153, 66.0853, 0.295716, -55.1613
1, 3180.00000, 123.874, -31.3789, 121.379, -152.048, 121.477, 89.1592, 0, 0, 7.64079, -54.4528, 7.79783, -175.122, 7.79153, 66.0853, 0.295716, -55.1613
1, 3240.00000, 123.874, -31.3789, 121.379, -152.048, 121.477, 89.1592, 0, 0, 7.64079, -54.4528, 7.79783, -175.122, 7.79153, 66.0853, 0.295716, -55.1613
1, 3300.00000, 123.874, -31.3789, 121.379, -152.048, 121.477, 89.1592, 0, 0, 7.64079, -54.4528, 7.79783, -175.122, 7.79153, 66.0853, 0.295716, -55.1613
1, 3360.00000, 123.874, -31.3789, 121.379, -152.048, 121.477, 89.1592, 0, 0, 7.64079, -54.4528, 7.79783, -175.122, 7.79153, 66.0853, 0.295716, -55.1613
1, 3420.00000, 123.874, -31.3789, 121.379, -152.048, 121.477, 89.1592, 0, 0, 7.64079, -54.4528, 7.79783, -175.122, 7.79153, 66.0853, 0.295716, -55.1613
1, 3480.00000, 123.874, -31.3789, 121.379, -152.048, 121.477, 89.1592, 0, 0, 7.64079, -54.4528, 7.79783, -175.122, 7.79153, 66.0853, 0.295716, -55.1613
1, 3540.00000, 123.874, -31.3789, 121.379, -152.048, 121.477, 89.1592, 0, 0, 7.64079, -54.4528, 7.79783, -175.122, 7.79153, 66.0853, 0.295716, -55.1613
2, 0.00000, 123.874, -31.3789, 121.379, -152.048, 121.477, 89.1592, 0, 0, 7.64079, -54.4528, 7.79783, -175.122, 7.79153, 66.0853, 0.295716, -55.1613
2, 60.00000, 123.564, -31.4035, 121.09, -152.067, 121.191, 89.129, 0, 0, 7.86551, -54.4774, 8.02623, -175.141, 8.01953, 66.0551, 0.30195, -55.1508
2, 120.00000, 123.564, -31.4035, 121.09, -152.067, 121.191, 89.129, 0, 0, 7.86552, -54.4774, 8.02622, -175.141, 8.01953, 66.0551, 0.301942, -55.1511
2, 180.00000, 123.564, -31.4035, 121.09, -152.067, 121.191, 89.129, 0, 0, 7.86552, -54.4774, 8.02622, -175.141, 8.01953, 66.0551, 0.301942, -55.1511
2, 240.00000, 123.564, -31.4035, 121.09, -152.067, 121.191, 89.129, 0, 0, 7.86552, -54.4774, 8.02622, -175.141, 8.01953, 66.0551, 0.301942, -55.1511
2, 300.00000, 123.564, -31.4035, 121.09, -152.067, 121.191, 89.129, 0, 0, 7.86552, -54.4774, 8.02622, -175.141, 8.01953, 66.0551, 0.301942, -55.1511
2, 360.00000, 123.564, -31.4035, 121.09, -152.067, 121.191, 89.129, 0, 0, 7.86552, -54.4774, 8.02622, -175.141, 8.01953, 66.0551, 0.301942, -55.1511
2, 420.00000, 123.564, -31.4035, 121.09, -152.067, 121.191, 89.129, 0, 0, 7.86552, -54.4774, 8.02622, -175.141, 8.01953, 66.0551, 0.301942, -55.1511
2, 480.00000, 123.564, -31.4035, 121.09, -152.067, 121.191, 89.129, 0, 0, 7.86552, -54.4774, 8.02622, -175.141, 8.01953, 66.0551, 0.301942, -55.1511
2, 540.00000, 123.564, -31.4035, 121.09, -152.067, 121.191, 89.129, 0, 0, 7.86552, -54.4774, 8.02622, -175.141, 8.01953, 66.0551, 0.301942, -55.1511
2, 600.00000, 123.564, -31.4035, 121.09, -152.067, 121.191, 89.129, 0, 0, 7.86552, -54.4774, 8.02622, -175.141, 8.01953, 66.0551, 0.301942, -55.1511
2, 660.00000, 123.564, -31.4035, 121.09, -152.067, 121.191, 89.129, 0, 0, 7.86552, -54.4774, 8.02622, -175.141, 8.01953, 66.0551, 0.301942, -55.1511
2, 720.00000, 123.564, -31.4035, 121.09, -152.067, 121.191, 89.129, 0, 0, 7.86552, -54.4774, 8.02622, -175.141, 8.01953, 66.0551, 0.301942, -55.1511
