hour,t(sec),V1,VAngle1,V2,VAngle2,V3,VAngle3,V4,VAngle4,I1,IAngle1,I2,IAngle2,I3,IAngle3,I4,IAngle4
0, 60.00000, 124.468, -32.2207, 123.956, -151.341, 126.268, 88.4534, 0, 0, 0.860215, -55.2944, 0.863774, -174.415, 0.847974, 65.3794, 0.0262867, 50.7595
0, 120.00000, 124.475, -32.2269, 123.956, -151.341, 126.286, 88.4531, 0, 0, 0.860171, -55.3007, 0.863775, -174.415, 0.847853, 65.3791, 0.0264816, 50.682
0, 180.00000, 124.481, -32.2326, 123.956, -151.341, 126.302, 88.4529, 0, 0, 0.860131, -55.3063, 0.863776, -174.415, 0.847745, 65.3789, 0.0266568, 50.614
0, 240.00000, 124.486, -32.2376, 123.955, -151.341, 126.316, 88.4526, 0, 0, 0.860095, -55.3114, 0.863778, -174.415, 0.847648, 65.3787, 0.0268145, 50.5538
0, 300.00000, 124.491, -32.2422, 123.955, -151.341, 126.329, 88.4524, 0, 0, 0.860063, -55.316, 0.863779, -174.415, 0.84756, 65.3785, 0.0269565, 50.5006
0, 360.00000, 124.495, -32.2463, 123.955, -151.341, 126.341, 88.4522, 0, 0, 0.860035, -55.3201, 0.86378, -174.415, 0.847482, 65.3783, 0.0270845, 50.4533
0, 420.00000, 124.498, -32.2501, 123.955, -151.341, 126.351, 88.452, 0, 0, 0.860009, -55.3239, 0.86378, -174.415, 0.847411, 65.3781, 0.0271997, 50.4112
0, 480.00000, 124.978, -32.1329, 124.4, -151.214, 126.846, 88.5912, 0, 0, 0.95536, -55.2067, 0.959799, -174.287, 0.941305, 65.5173, 0.0306668, 49.8034
0, 540.00000, 124.981, -32.1359, 124.4, -151.214, 126.854, 88.591, 0, 0, 0.955336, -55.2097, 0.9598, -174.287, 0.941241, 65.5171, 0.0307712, 49.7728
0, 600.00000, 124.984, -32.1387, 124.4, -151.214, 126.862, 88.5909, 0, 0, 0.955315, -55.2125, 0.959801, -174.287, 0.941184, 65.5169, 0.0308649, 49.7456
0, 660.00000, 124.987, -32.1412, 124.4, -151.214, 126.869, 88.5907, 0, 0, 0.955296, -55.215, 0.959801, -174.287, 0.941133, 65.5168, 0.0309492, 49.7214
0, 720.00000, 124.989, -32.1434, 124.4, -151.214, 126.875, 88.5906, 0, 0, 0.955279, -55.2172, 0.959802, -174.287, 0.941086, 65.5166, 0.0310251, 49.6998
0, 780.00000, 124.991, -32.1454, 124.4, -151.214, 126.88, 88.5904, 0, 0, 0.955263, -55.2192, 0.959802, -174.287, 0.941045, 65.5165, 0.0310935, 49.6805
0, 840.00000, 124.993, -32.1472, 124.4, -151.214, 126.885, 88.5903, 0, 0, 0.95525, -55.221, 0.959802, -174.287, 0.941007, 65.5164, 0.031155, 49.6632
0, 900.00000, 124.994, -32.1488, 124.4, -151.214, 126.89, 88.5902, 0, 0, 0.955237, -55.2227, 0.959803, -174.287, 0.940973, 65.5163, 0.0312104, 49.6478
0, 960.00000, 124.996, -32.1503, 124.4, -151.214, 126.894, 88.5901, 0, 0, 0.955226, -55.2242, 0.959803, -174.287, 0.940943, 65.5162, 0.0312602, 49.6339
0, 1020.00000, 124.997, -32.1516, 124.4, -151.214, 126.898, 88.59, 0, 0, 0.955216, -55.2255, 0.959803, -174.287, 0.940916, 65.5161, 0.0313051, 49.6216
0, 1080.00000, 124.998, -32.1528, 124.4, -151.214, 126.901, 88.59, 0, 0, 0.955207, -55.2267, 0.959804, -174.287, 0.940891, 65.5161, 0.0313455, 49.6105
0, 1140.00000, 125, -32.1539, 124.4, -151.214, 126.904, 88.5899, 0, 0, 0.955199, -55.2277, 0.959804, -174.287, 0.940869, 65.516, 0.0313818, 49.6005
0, 1200.00000, 125, -32.1548, 124.4, -151.214, 126.906, 88.5898, 0, 0, 0.955191, -55.2287, 0.959804, -174.287, 0.940849, 65.5159, 0.0314146, 49.5916
0, 1260.00000, 125.001, -32.1557, 124.4, -151.214, 126.909, 88.5898, 0, 0, 0.955185, -55.2296, 0.959804, -174.287, 0.940831, 65.5159, 0.031444, 49.5836
0, 1320.00000, 125.002, -32.1565, 124.4, -151.214, 126.911, 88.5897, 0, 0, 0.955179, -55.2304, 0.959804, -174.287, 0.940815, 65.5158, 0.0314705, 49.5764
0, 1380.00000, 125.003, -32.1572, 124.4, -151.214, 126.913, 88.5897, 0, 0, 0.955174, -55.2311, 0.959805, -174.287, 0.9408, 65.5158, 0.0314944, 49.57
0, 1440.00000, 125.003, -32.1578, 124.4, -151.214, 126.915, 88.5896, 0, 0, 0.955169, -55.2317, 0.959805, -174.287, 0.940787, 65.5157, 0.0315158, 49.5642
0, 1500.00000, 125.004, -32.1584, 124.4, -151.214, 126.916, 88.5896, 0, 0, 0.955164, -55.2323, 0.959805, -174.287, 0.940776, 65.5157, 0.0315352, 49.559
0, 1560.00000, 125.005, -32.1589, 124.4, -151.214, 126.918, 88.5896, 0, 0, 0.955161, -55.2328, 0.959805, -174.287, 0.940765, 65.5157, 0.0315526, 49.5543
0, 1620.00000, 125.005, -32.1593, 124.4, -151.214, 126.919, 88.5895, 0, 0, 0.955157, -55.2332, 0.959805, -174.287, 0.940755, 65.5156, 0.0315682, 49.5501
0, 1680.00000, 125.005, -32.1597, 124.4, -151.214, 126.92, 88.5895, 0, 0, 0.955154, -55.2337, 0.959805, -174.287, 0.940747, 65.5156, 0.0315823, 49.5463
0, 1740.00000, 125.006, -32.1601, 124.4, -151.214, 126.921, 88.5895, 0, 0, 0.955151, -55.234, 0.959805, -174.287, 0.940739, 65.5156, 0.031595, 49.5429
0, 1800.00000, 125.006, -32.1605, 124.4, -151.214, 126.922, 88.5895, 0, 0, 0.955149, -55.2344, 0.959805, -174.287, 0.940732, 65.5156, 0.0316064, 49.5399
0, 1860.00000, 125.006, -32.1608, 124.4, -151.214, 126.923, 88.5895, 0, 0, 0.955146, -55.2347, 0.959805, -174.287, 0.940726, 65.5155, 0.0316167, 49.5372
0, 1920.00000, 125.007, -32.161, 124.4, -151.214, 126.924, 88.5894, 0, 0, 0.955144, -55.2349, 0.959805, -174.287, 0.94072, 65.5155, 0.0316259, 49.5347
0, 1980.00000, 125.007, -32.1613, 124.4, -151.214, 126.924, 88.5894, 0, 0, 0.955142, -55.2352, 0.959805, -174.287, 0.940715, 65.5155, 0.0316343, 49.5325
0, 2040.00000, 125.007, -32.1615, 124.4, -151.214, 126.925, 88.5894, 0, 0, 0.955141, -55.2354, 0.959806, -174.287, 0.940711, 65.5155, 0.0316418, 49.5305
0, 2100.00000, 125.007, -32.1617, 124.4, -151.214, 126.925, 88.5894, 0, 0, 0.955139, -55.2356, 0.959806, -174.287, 0.940707, 65.5155, 0.0316485, 49.5287
0, 2160.00000, 125.008, -32.1619, 124.4, -151.214, 126.926, 88.5894, 0, 0, 0.955138, -55.2358, 0.959806, -174.287, 0.940703, 65.5155, 0.0316546, 49.5271
0, 2220.00000, 125.008, -32.162, 124.4, -151.214, 126.926, 88.5894, 0, 0, 0.955137, -55.2359, 0.959806, -174.287, 0.9407, 65.5154, 0.03166, 49.5256
0, 2280.00000, 125.008, -32.1622, 124.4, -151.214, 126.927, 88.5894, 0, 0, 0.955136, -55.2361, 0.959806, -174.287, 0.940697, 65.5154, 0.0316649, 49.5243
0, 2340.00000, 125.008, -32.1623, 124.4, -151.214, 126.927, 88.5893, 0, 0, 0.955135, -55.2362, 0.959806, -174.287, 0.940694, 65.5154, 0.0316694, 49.5232
0, 2400.00000, 125.008, -32.1624, 124.4, -151.214, 126.927, 88.5893, 0, 0, 0.955134, -55.2363, 0.959806, -174.287, 0.940691, 65.5154, 0.0316734, 49.5221
0, 2460.00000, 125.008, -32.1625, 124.4, -151.214, 126.928, 88.5893, 0, 0, 0.955133, -55.2364, 0.959806, -174.287, 0.940689, 65.5154, 0.0316769, 49.5212
0, 2520.00000, 125.008, -32.1626, 124.4, -151.214, 126.928, 88.5893, 0, 0, 0.955132, -55.2365, 0.959806, -174.287, 0.940687, 65.5154, 0.0316802, 49.5203
0, 2580.00000, 125.008, -32.1627, 124.4, -151.214, 126.928, 88.5893, 0, 0, 0.955132, -55.2366, 0.959806, -174.287, 0.940686, 65.5154, 0.0316831, 49.5195
0, 2640.00000, 125.008, -32.1628, 124.4, -151.214, 126.928, 88.5893, 0, 0, 0.955131, -55.2367, 0.959806, -174.287, 0.940684, 65.5154, 0.0316857, 49.5189
0, 2700.00000, 125.008, -32.1629, 124.4, -151.214, 126.929, 88.5893, 0, 0, 0.95513, -55.2368, 0.959806, -174.287, 0.940682, 65.5154, 0.031688, 49.5182
0, 2760.00000, 125.009, -32.1629, 124.4, -151.214, 126.929, 88.5893, 0, 0, 0.95513, -55.2368, 0.959806, -174.287, 0.940681, 65.5154, 0.0316901, 49.5177
0, 2820.00000, 125.009, -32.163, 124.4, -151.214, 126.929, 88.5893, 0, 0, 0.95513, -55.2369, 0.959806, -174.287, 0.94068, 65.5154, 0.031692, 49.5172
0, 2880.00000, 125.009, -32.163, 124.4, -151.214, 126.929, 88.5893, 0, 0, 0.955129, -55.2369, 0.959806, -174.287, 0.940679, 65.5154, 0.0316938, 49.5167
0, 2940.00000, 125.009, -32.1631, 124.4, -151.214, 126.929, 88.5893, 0, 0, 0.955129, -55.237, 0.959806, -174.287, 0.940678, 65.5154, 0.0316953, 49.5163
0, 3000.00000, 125.009, -32.1631, 124.4, -151.214, 126.929, 88.5893, 0, 0, 0.955128, -55.237, 0.959806, -174.287, 0.940677, 65.5154, 0.0316967, 49.5159
0, 3060.00000, 125.009, -32.1631, 124.4, -151.214, 126.929, 88.5893, 0, 0, 0.955128, -55.2371, 0.959806, -174.287, 0.940676, 65.5154, 0.0316979, 49.5156
0, 3120.00000, 125.009, -32.1632, 124.4, -151.214, 126.929, 88.5893, 0, 0, 0.955128, -55.2371, 0.959806, -174.287, 0.940676, 65.5154, 0.0316991, 49.5153
0, 3180.00000, 125.009, -32.1632, 124.4, -151.214, 126.93, 88.5893, 0, 0, 0.955128, -55.2371, 0.959806, -174.287, 0.940675, 65.5154, 0.0317001, 49.515
0, 3240.00000, 125.009, -32.1632, 124.4, -151.214, 126.93, 88.5893, 0, 0, 0.955128, -55.2372, 0.959806, -174.287, 0.940675, 65.5154, 0.031701, 49.5148
0, 3300.00000, 125.009, -32.1633, 124.4, -151.214, 126.93, 88.5893, 0, 0, 0.955127, -55.2372, 0.959806, -174.287, 0.940674, 65.5154, 0.0317018, 49.5146
0, 3360.00000, 125.009, -32.1633, 124.4, -151.214, 126.93, 88.5893, 0, 0, 0.955127, -55.2372, 0.959806, -174.287, 0.940674, 65.5154, 0.0317025, 49.5144
0, 3420.00000, 125.009, -32.1633, 124.4, -151.214, 126.93, 88.5893, 0, 0, 0.955127, -55.2372, 0.959806, -174.287, 0.940673, 65.5154, 0.0317032, 49.5142
0, 3480.00000, 125.009, -32.1633, 124.4, -151.214, 126.93, 88.5893, 0, 0, 0.955127, -55.2372, 0.959806, -174.287, 0.940673, 65.5154, 0.0317038, 49.5141
0, 3540.00000, 125.009, -32.1633, 124.4, -151.214, 126.93, 88.5893, 0, 0, 0.955127, -55.2373, 0.959806, -174.287, 0.940673, 65.5154, 0.0317043, 49.5139
1, 0.00000, 125.009, -32.1633, 124.4, -151.214, 126.93, 88.5893, 0, 0, 0.955127, -55.2373, 0.959806, -174.287, 0.940672, 65.5154, 0.0317048, 49.5138
1, 60.00000, 125.259, -31.9902, 124.863, -151.221, 126.903, 88.5941, 0, 0, 0.95322, -55.0641, 0.95624, -174.295, 0.940869, 65.5202, 0.0256331, 52.0501
1, 120.00000, 125.259, -31.9902, 124.863, -151.221, 126.903, 88.5941, 0, 0, 0.95322, -55.0642, 0.95624, -174.295, 0.940868, 65.5202, 0.0256335, 52.0499
1, 180.00000, 125.259, -31.9902, 124.863, -151.221, 126.903, 88.5941, 0, 0, 0.95322, -55.0642, 0.95624, -174.295, 0.940868, 65.5202, 0.0256338, 52.0498
1, 240.00000, 125.259, -31.9903, 124.863, -151.221, 126.903, 88.5941, 0, 0, 0.95322, -55.0642, 0.95624, -174.295, 0.940868, 65.5202, 0.0256341, 52.0496
1, 300.00000, 125.259, -31.9903, 124.863, -151.221, 126.904, 88.5941, 0, 0, 0.95322, -55.0642, 0.95624, -174.295, 0.940868, 65.5202, 0.0256344, 52.0495
1, 360.00000, 125.259, -31.9903, 124.863, -151.221, 126.904, 88.5941, 0, 0, 0.95322, -55.0642, 0.95624, -174.295, 0.940868, 65.5202, 0.0256347, 52.0494
1, 420.00000, 125.259, -31.9903, 124.863, -151.221, 126.904, 88.5941, 0, 0, 0.95322, -55.0642, 0.95624, -174.295, 0.940867, 65.5202, 0.0256349, 52.0493
1, 480.00000, 125.259, -31.9903, 124.863, -151.221, 126.904, 88.5941, 0, 0, 0.95322, -55.0642, 0.95624, -174.295, 0.940867, 65.5202, 0.0256351, 52.0492
1, 540.00000, 125.259, -31.9903, 124.863, -151.221, 126.904, 88.5941, 0, 0, 0.95322, -55.0642, 0.95624, -174.295, 0.940867, 65.5202, 0.0256353, 52.0491
1, 600.00000, 125.259, -31.9903, 124.863, -151.221, 126.904, 88.5941, 0, 0, 0.953219, -55.0642, 0.95624, -174.295, 0.940867, 65.5202, 0.0256355, 52.0491
1, 660.00000, 125.259, -31.9903, 124.863, -151.221, 126.904, 88.5941, 0, 0, 0.953219, -55.0642, 0.95624, -174.295, 0.940867, 65.5202, 0.0256356, 52.049
1, 720.00000, 125.259, -31.9903, 124.863, -151.221, 126.904, 88.5941, 0, 0, 0.953219, -55.0642, 0.95624, -174.295, 0.940867, 65.5202, 0.0256357, 52.0489
1, 780.00000, 125.259, -31.9903, 124.863, -151.221, 126.904, 88.5941, 0, 0, 0.953219, -55.0642, 0.95624, -174.295, 0.940867, 65.5202, 0.0256359, 52.0489
1, 840.00000, 125.259, -31.9903, 124.863, -151.221, 126.904, 88.5941, 0, 0, 0.953219, -55.0642, 0.95624, -174.295, 0.940867, 65.5202, 0.025636, 52.0488
1, 900.00000, 125.259, -31.9903, 124.863, -151.221, 126.904, 88.5941, 0, 0, 0.953219, -55.0642, 0.95624, -174.295, 0.940867, 65.5202, 0.0256361, 52.0488
1, 960.00000, 125.259, -31.9903, 124.863, -151.221, 126.904, 88.5941, 0, 0, 0.953219, -55.0642, 0.95624, -174.295, 0.940867, 65.5202, 0.0256362, 52.0488
1, 1020.00000, 125.259, -31.9903, 124.863, -151.221, 126.904, 88.5941, 0, 0, 0.953219, -55.0642, 0.95624, -174.295, 0.940867, 65.5202, 0.0256362, 52.0487
1, 1080.00000, 125.259, -31.9903, 124.863, -151.221, 126.904, 88.5941, 0, 0, 0.953219, -55.0642, 0.95624, -174.295, 0.940867, 65.5202, 0.0256363, 52.0487
1, 1140.00000, 125.259, -31.9903, 124.863, -151.221, 126.904, 88.5941, 0, 0, 0.953219, -55.0642, 0.95624, -174.295, 0.940867, 65.5202, 0.0256364, 52.0487
1, 1200.00000, 125.259, -31.9903, 124.863, -151.221, 126.904, 88.5941, 0, 0, 0.953219, -55.0642, 0.95624, -174.295, 0.940866, 65.5202, 0.0256364, 52.0487
1, 1260.00000, 125.259, -31.9903, 124.863, -151.221, 126.904, 88.5941, 0, 0, 0.953219, -55.0642, 0.95624, -174.295, 0.940866, 65.5202, 0.0256365, 52.0486
1, 1320.00000, 125.259, -31.9903, 124.863, -151.221, 126.904, 88.5941, 0, 0, 0.953219, -55.0642, 0.95624, -174.295, 0.940866, 65.5202, 0.0256365, 52.0486
1, 1380.00000, 125.259, -31.9903, 124.863, -151.221, 126.904, 88.5941, 0, 0, 0.953219, -55.0643, 0.95624, -174.295, 0.940866, 65.5202, 0.0256366, 52.0486
1, 1440.00000, 125.259, -31.9903, 124.863, -151.221, 126.904, 88.5941, 0, 0, 0.953219, -55.0643, 0.95624, -174.295, 0.940866, 65.5202, 0.0256366, 52.0486
1, 1500.00000, 125.259, -31.9903, 124.863, -151.221, 126.904, 88.5941, 0, 0, 0.953219, -55.0643, 0.95624, -174.295, 0.940866, 65.5202, 0.0256367, 52.0486
1, 1560.00000, 125.259, -31.9903, 124.863, -151.221, 126.904, 88.5941, 0, 0, 0.953219, -55.0643, 0.95624, -174.295, 0.940866, 65.5202, 0.0256367, 52.0485
1, 1620.00000, 125.259, -31.9903, 124.863, -151.221, 126.904, 88.5941, 0, 0, 0.953219, -55.0643, 0.95624, -174.295, 0.940866, 65.5202, 0.0256367, 52.0485
1, 1680.00000, 125.259, -31.9903, 124.863, -151.221, 126.904, 88.5941, 0, 0, 0.953219, -55.0643, 0.95624, -174.295, 0.940866, 65.5202, 0.0256367, 52.0485
1, 1740.00000, 125.259, -31.9903, 124.863, -151.221, 126.904, 88.5941, 0, 0, 0.953219, -55.0643, 0.95624, -174.295, 0.940866, 65.5202, 0.0256368, 52.0485
1, 1800.00000, 125.259, -31.9903, 124.863, -151.221, 126.904, 88.5941, 0, 0, 0.953219, -55.0643, 0.95624, -174.295, 0.940866, 65.5202, 0.0256368, 52.0485
1, 1860.00000, 125.259, -31.9903, 124.863, -151.221, 126.904, 88.5941, 0, 0, 0.953219, -55.0643, 0.95624, -174.295, 0.940866, 65.5202, 0.0256368, 52.0485
1, 1920.00000, 125.259, -31.9903, 124.863, -151.221, 126.904, 88.5941, 0, 0, 0.953219, -55.0643, 0.95624, -174.295, 0.940866, 65.5202, 0.0256368, 52.0485
1, 1980.00000, 125.259, -31.9903, 124.863, -151.221, 126.904, 88.5941, 0, 0, 0.953219, -55.0643, 0.95624, -174.295, 0.940866, 65.5202, 0.0256368, 52.0485
1, 2040.00000, 125.259, -31.9903, 124.863, -151.221, 126.904, 88.5941, 0, 0, 0.953219, -55.0643, 0.95624, -174.295, 0.940866, 65.5202, 0.0256368, 52.0485
1, 2100.00000, 125.259, -31.9903, 124.863, -151.221, 126.904, 88.5941, 0, 0, 0.953219, -55.0643, 0.95624, -174.295, 0.940866, 65.5202, 0.0256369, 52.0485
1, 2160.00000, 125.259, -31.9903, 124.863, -151.221, 126.904, 88.5941, 0, 0, 0.953219, -55.0643, 0.95624, -174.295, 0.940866, 65.5202, 0.0256369, 52.0485
1, 2220.00000, 125.259, -31.9903, 124.863, -151.221, 126.904, 88.5941, 0, 0, 0.953219, -55.0643, 0.95624, -174.295, 0.940866, 65.5202, 0.0256369, 52.0485
1, 2280.00000, 125.259, -31.9903, 124.863, -151.221, 126.904, 88.5941, 0, 0, 0.953219, -55.0643, 0.95624, -174.295, 0.940866, 65.5202, 0.0256369, 52.0485
1, 2340.00000, 125.259, -31.9903, 124.863, -151.221, 126.904, 88.5941, 0, 0, 0.953219, -55.0643, 0.95624, -174.295, 0.940866, 65.5202, 0.0256369, 52.0485
1, 2400.00000, 125.259, -31.9903, 124.863, -151.221, 126.904, 88.5941, 0, 0, 0.953219, -55.0643, 0.95624, -174.295, 0.940866, 65.5202, 0.0256369, 52.0485
1, 2460.00000, 125.259, -31.9903, 124.863, -151.221, 126.904, 88.5941, 0, 0, 0.953219, -55.0643, 0.95624, -174.295, 0.940866, 65.5202, 0.0256369, 52.0485
1, 2520.00000, 125.259, -31.9903, 124.863, -151.221, 126.904, 88.5941, 0, 0, 0.953219, -55.0643, 0.95624, -174.295, 0.940866, 65.5202, 0.0256369, 52.0485
1, 2580.00000, 125.259, -31.9903, 124.863, -151.221, 126.904, 88.5941, 0, 0, 0.953219, -55.0643, 0.95624, -174.295, 0.940866, 65.5202, 0.0256369, 52.0484
1, 2640.00000, 125.259, -31.9903, 124.863, -151.221, 126.904, 88.5941, 0, 0, 0.953219, -55.0643, 0.95624, -174.295, 0.940866, 65.5202, 0.0256369, 52.0484
1, 2700.00000, 125.259, -31.9903, 124.863, -151.221, 126.904, 88.5941, 0, 0, 0.953219, -55.0643, 0.95624, -174.295, 0.940866, 65.5202, 0.0256369, 52.0484
1, 2760.00000, 125.259, -31.9903, 124.863, -151.221, 126.904, 88.5941, 0, 0, 0.953219, -55.0643, 0.95624, -174.295, 0.940866, 65.5202, 0.0256369, 52.0484
1, 2820.00000, 125.259, -31.9903, 124.863, -151.221, 126.904, 88.5941, 0, 0, 0.953219, -55.0643, 0.95624, -174.295, 0.940866, 65.5202, 0.0256369, 52.0484
1, 2880.00000, 125.259, -31.9903, 124.863, -151.221, 126.904, 88.5941, 0, 0, 0.953219, -55.0643, 0.95624, -174.295, 0.940866, 65.5202, 0.0256369, 52.0484
1, 2940.00000, 125.259, -31.9903, 124.863, -151.221, 126.904, 88.5941, 0, 0, 0.953219, -55.0643, 0.95624, -174.295, 0.940866, 65.5202, 0.0256369, 52.0484
1, 3000.00000, 125.259, -31.9903, 124.863, -151.221, 126.904, 88.5941, 0, 0, 0.953219, -55.0643, 0.95624, -174.295, 0.940866, 65.5202, 0.0256369, 52.0484
1, 3060.00000, 125.259, -31.9903, 124.863, -151.221, 126.904, 88.5941, 0, 0, 0.953219, -55.0643, 0.95624, -174.295, 0.940866, 65.5202, 0.0256369, 52.0484
1, 3120.00000, 125.259, -31.9903, 124.863, -151.221, 126.904, 88.5941, 0, 0, 0.953219, -55.0643, 0.95624, -174.295, 0.940866, 65.5202, 0.0256369, 52.0484
1, 3180.00000, 125.259, -31.9903, 124.863, -151.221, 126.904, 88.5941, 0, 0, 0.953219, -55.0643, 0.95624, -174.295, 0.940866, 65.5202, 0.0256369, 52.0484
1, 3240.00000, 125.259, -31.9903, 124.863, -151.221, 126.904, 88.5941, 0, 0, 0.953219, -55.0643, 0.95624, -174.295, 0.940866, 65.5202, 0.0256369, 52.0484
1, 3300.00000, 125.259, -31.9903, 124.863, -151.221, 126.904, 88.5941, 0, 0, 0.953219, -55.0643, 0.95624, -174.295, 0.940866, 65.5202, 0.0256369, 52.0484
1, 3360.00000, 125.259, -31.9903, 124.863, -151.221, 126.904, 88.5941, 0, 0, 0.953219, -55.0643, 0.95624, -174.295, 0.940866, 65.5202, 0.025637, 52.0484
1, 3420.00000, 125.259, -31.9903, 124.863, -151.221, 126.904, 88.5941, 0, 0, 0.953219, -55.0643, 0.95624, -174.295, 0.940866, 65.5202, 0.025637, 52.0484
1, 3480.00000, 125.259, -31.9903, 124.863, -151.221, 126.904, 88.5941, 0, 0, 0.953219, -55.0643, 0.95624, -174.295, 0.940866, 65.5202, 0.025637, 52.0484
1, 3540.00000, 125.259, -31.9903, 124.863, -151.221, 126.904, 88.5941, 0, 0, 0.953219, -55.0643, 0.95624, -174.295, 0.940866, 65.5202, 0.025637, 52.0484
2, 0.00000, 125.259, -31.9903, 124.863, -151.221, 126.904, 88.5941, 0, 0, 0.953219, -55.0643, 0.95624, -174.295, 0.940866, 65.5202, 0.025637, 52.0484
2, 60.00000, 125.259, -31.9903, 124.863, -151.221, 126.904, 88.5941, 0, 0, 0.953219, -55.0643, 0.95624, -174.295, 0.940866, 65.5202, 0.025637, 52.0484
2, 120.00000, 125.259, -31.9903, 124.863, -151.221, 126.904, 88.5941, 0, 0, 0.953219, -55.0643, 0.95624, -174.295, 0.940866, 65.5202, 0.025637, 52.0484
2, 180.00000, 125.259, -31.9903, 124.863, -151.221, 126.904, 88.5941, 0, 0, 0.953219, -55.0643, 0.95624, -174.295, 0.940866, 65.5202, 0.025637, 52.0484
2, 240.00000, 125.259, -31.9903, 124.863, -151.221, 126.904, 88.5941, 0, 0, 0.953219, -55.0643, 0.95624, -174.295, 0.940866, 65.5202, 0.025637, 52.0484
2, 300.00000, 125.259, -31.9903, 124.863, -151.221, 126.904, 88.5941, 0, 0, 0.953219, -55.0643, 0.95624, -174.295, 0.940866, 65.5202, 0.025637, 52.0484
2, 360.00000, 125.259, -31.9903, 124.863, -151.221, 126.904, 88.5941, 0, 0, 0.953219, -55.0643, 0.95624, -174.295, 0.940866, 65.5202, 0.025637, 52.0484
2, 420.00000, 125.259, -31.9903, 124.863, -151.221, 126.904, 88.5941, 0, 0, 0.953219, -55.0643, 0.95624, -174.295, 0.940866, 65.5202, 0.025637, 52.0484
2, 480.00000, 125.259, -31.9903, 124.863, -151.221, 126.904, 88.5941, 0, 0, 0.953219, -55.0643, 0.95624, -174.295, 0.940866, 65.5202, 0.025637, 52.0484
2, 540.00000, 125.259, -31.9903, 124.863, -151.221, 126.904, 88.5941, 0, 0, 0.953219, -55.0643, 0.95624, -174.295, 0.940866, 65.5202, 0.025637, 52.0484
2, 600.00000, 125.259, -31.9903, 124.863, -151.221, 126.904, 88.5941, 0, 0, 0.953219, -55.0643, 0.95624, -174.295, 0.940866, 65.5202, 0.025637, 52.0484
