hour,t(sec),V1,VAngle1,V2,VAngle2,V3,VAngle3,V4,VAngle4,I1,IAngle1,I2,IAngle2,I3,IAngle3,I4,IAngle4
0, 60.00000, 117.02, -30.7948, 119.131, -150.983, 117.97, 88.3953, 0, 0, 8.22444, -53.8685, 8.38937, -174.056, 8.29866, 65.3215, 0.041924, -44.5052
0, 120.00000, 117.02, -30.7948, 119.13, -150.983, 117.97, 88.3953, 0, 0, 8.22439, -53.8687, 8.38931, -174.057, 8.29861, 65.3214, 0.0419354, -44.498
0, 180.00000, 117.02, -30.7948, 119.13, -150.983, 117.97, 88.3953, 0, 0, 8.22439, -53.8687, 8.38931, -174.057, 8.29861, 65.3214, 0.0419355, -44.4981
0, 240.00000, 117.02, -30.7948, 119.13, -150.983, 117.97, 88.3953, 0, 0, 8.22439, -53.8687, 8.38931, -174.057, 8.29861, 65.3214, 0.0419355, -44.4981
0, 300.00000, 117.02, -30.7948, 119.13, -150.983, 117.97, 88.3953, 0, 0, 8.22439, -53.8687, 8.38931, -174.057, 8.29861, 65.3214, 0.0419355, -44.4981
0, 360.00000, 117.02, -30.7948, 119.13, -150.983, 117.97, 88.3953, 0, 0, 8.22439, -53.8687, 8.38931, -174.057, 8.29861, 65.3214, 0.0419355, -44.4981
0, 420.00000, 117.02, -30.7948, 119.13, -150.983, 117.97, 88.3953, 0, 0, 8.22439, -53.8687, 8.38931, -174.057, 8.29861, 65.3214, 0.0419355, -44.4981
0, 480.00000, 118.056, -30.7005, 120.149, -150.899, 118.951, 88.4974, 0, 0, 7.22561, -53.7747, 7.36784, -173.973, 7.28642, 65.4229, 0.0356671, -41.9728
0, 540.00000, 118.056, -30.7005, 120.149, -150.899, 118.951, 88.4974, 0, 0, 7.22564, -53.7744, 7.36799, -173.973, 7.28655, 65.4235, 0.0358118, -41.977
0, 600.00000, 118.056, -30.7005, 120.149, -150.899, 118.951, 88.4974, 0, 0, 7.22564, -53.7744, 7.36799, -173.973, 7.28655, 65.4235, 0.0358126, -41.9769
0, 660.00000, 118.056, -30.7005, 120.149, -150.899, 118.951, 88.4974, 0, 0, 7.22564, -53.7744, 7.36799, -173.973, 7.28655, 65.4235, 0.0358126, -41.9769
0, 720.00000, 118.056, -30.7005, 120.149, -150.899, 118.951, 88.4974, 0, 0, 7.22564, -53.7744, 7.36799, -173.973, 7.28655, 65.4235, 0.0358126, -41.9769
0, 780.00000, 118.056, -30.7005, 120.149, -150.899, 118.951, 88.4974, 0, 0, 7.22564, -53.7744, 7.36799, -173.973, 7.28655, 65.4235, 0.0358126, -41.9769
0, 840.00000, 118.056, -30.7005, 120.149, -150.899, 118.951, 88.4974, 0, 0, 7.22564, -53.7744, 7.36799, -173.973, 7.28655, 65.4235, 0.0358126, -41.9769
0, 900.00000, 118.056, -30.7005, 120.149, -150.899, 118.951, 88.4974, 0, 0, 7.22564, -53.7744, 7.36799, -173.973, 7.28655, 65.4235, 0.0358126, -41.9769
0, 960.00000, 118.056, -30.7005, 120.149, -150.899, 118.951, 88.4974, 0, 0, 7.22564, -53.7744, 7.36799, -173.973, 7.28655, 65.4235, 0.0358126, -41.9769
0, 1020.00000, 118.056, -30.7005, 120.149, -150.899, 118.951, 88.4974, 0, 0, 7.22564, -53.7744, 7.36799, -173.973, 7.28655, 65.4235, 0.0358126, -41.9769
0, 1080.00000, 118.056, -30.7005, 120.149, -150.899, 118.951, 88.4974, 0, 0, 7.22564, -53.7744, 7.36799, -173.973, 7.28655, 65.4235, 0.0358126, -41.9769
0, 1140.00000, 118.056, -30.7005, 120.149, -150.899, 118.951, 88.4974, 0, 0, 7.22564, -53.7744, 7.36799, -173.973, 7.28655, 65.4235, 0.0358126, -41.9769
0, 1200.00000, 118.056, -30.7005, 120.149, -150.899, 118.951, 88.4974, 0, 0, 7.22564, -53.7744, 7.36799, -173.973, 7.28655, 65.4235, 0.0358126, -41.9769
0, 1260.00000, 118.056, -30.7005, 120.149, -150.899, 118.951, 88.4974, 0, 0, 7.22564, -53.7744, 7.36799, -173.973, 7.28655, 65.4235, 0.0358126, -41.9769
0, 1320.00000, 118.056, -30.7005, 120.149, -150.899, 118.951, 88.4974, 0, 0, 7.22564, -53.7744, 7.36799, -173.973, 7.28655, 65.4235, 0.0358126, -41.9769
0, 1380.00000, 118.056, -30.7005, 120.149, -150.899, 118.951, 88.4974, 0, 0, 7.22564, -53.7744, 7.36799, -173.973, 7.28655, 65.4235, 0.0358126, -41.9769
0, 1440.00000, 118.056, -30.7005, 120.149, -150.899, 118.951, 88.4974, 0, 0, 7.22564, -53.7744, 7.36799, -173.973, 7.28655, 65.4235, 0.0358126, -41.9769
0, 1500.00000, 118.056, -30.7005, 120.149, -150.899, 118.951, 88.4974, 0, 0, 7.22564, -53.7744, 7.36799, -173.973, 7.28655, 65.4235, 0.0358126, -41.9769
0, 1560.00000, 118.056, -30.7005, 120.149, -150.899, 118.951, 88.4974, 0, 0, 7.22564, -53.7744, 7.36799, -173.973, 7.28655, 65.4235, 0.0358126, -41.9769
0, 1620.00000, 118.056, -30.7005, 120.149, -150.899, 118.951, 88.4974, 0, 0, 7.22564, -53.7744, 7.36799, -173.973, 7.28655, 65.4235, 0.0358126, -41.9769
0, 1680.00000, 118.056, -30.7005, 120.149, -150.899, 118.951, 88.4974, 0, 0, 7.22564, -53.7744, 7.36799, -173.973, 7.28655, 65.4235, 0.0358126, -41.9769
0, 1740.00000, 118.056, -30.7005, 120.149, -150.899, 118.951, 88.4974, 0, 0, 7.22564, -53.7744, 7.36799, -173.973, 7.28655, 65.4235, 0.0358126, -41.9769
0, 1800.00000, 118.056, -30.7005, 120.149, -150.899, 118.951, 88.4974, 0, 0, 7.22564, -53.7744, 7.36799, -173.973, 7.28655, 65.4235, 0.0358126, -41.9769
0, 1860.00000, 118.056, -30.7005, 120.149, -150.899, 118.951, 88.4974, 0, 0, 7.22564, -53.7744, 7.36799, -173.973, 7.28655, 65.4235, 0.0358126, -41.9769
0, 1920.00000, 118.056, -30.7005, 120.149, -150.899, 118.951, 88.4974, 0, 0, 7.22564, -53.7744, 7.36799, -173.973, 7.28655, 65.4235, 0.0358126, -41.9769
0, 1980.00000, 118.056, -30.7005, 120.149, -150.899, 118.951, 88.4974, 0, 0, 7.22564, -53.7744, 7.36799, -173.973, 7.28655, 65.4235, 0.0358126, -41.9769
0, 2040.00000, 118.056, -30.7005, 120.149, -150.899, 118.951, 88.4974, 0, 0, 7.22564, -53.7744, 7.36799, -173.973, 7.28655, 65.4235, 0.0358126, -41.9769
0, 2100.00000, 118.056, -30.7005, 120.149, -150.899, 118.951, 88.4974, 0, 0, 7.22564, -53.7744, 7.36799, -173.973, 7.28655, 65.4235, 0.0358126, -41.9769
0, 2160.00000, 118.056, -30.7005, 120.149, -150.899, 118.951, 88.4974, 0, 0, 7.22564, -53.7744, 7.36799, -173.973, 7.28655, 65.4235, 0.0358126, -41.9769
0, 2220.00000, 118.056, -30.7005, 120.149, -150.899, 118.951, 88.4974, 0, 0, 7.22564, -53.7744, 7.36799, -173.973, 7.28655, 65.4235, 0.0358126, -41.9769
0, 2280.00000, 118.056, -30.7005, 120.149, -150.899, 118.951, 88.4974, 0, 0, 7.22564, -53.7744, 7.36799, -173.973, 7.28655, 65.4235, 0.0358126, -41.9769
0, 2340.00000, 118.056, -30.7005, 120.149, -150.899, 118.951, 88.4974, 0, 0, 7.22564, -53.7744, 7.36799, -173.973, 7.28655, 65.4235, 0.0358126, -41.9769
0, 2400.00000, 118.056, -30.7005, 120.149, -150.899, 118.951, 88.4974, 0, 0, 7.22564, -53.7744, 7.36799, -173.973, 7.28655, 65.4235, 0.0358126, -41.9769
0, 2460.00000, 118.056, -30.7005, 120.149, -150.899, 118.951, 88.4974, 0, 0, 7.22564, -53.7744, 7.36799, -173.973, 7.28655, 65.4235, 0.0358126, -41.9769
0, 2520.00000, 118.056, -30.7005, 120.149, -150.899, 118.951, 88.4974, 0, 0, 7.22564, -53.7744, 7.36799, -173.973, 7.28655, 65.4235, 0.0358126, -41.9769
0, 2580.00000, 118.056, -30.7005, 120.149, -150.899, 118.951, 88.4974, 0, 0, 7.22564, -53.7744, 7.36799, -173.973, 7.28655, 65.4235, 0.0358126, -41.9769
0, 2640.00000, 118.056, -30.7005, 120.149, -150.899, 118.951, 88.4974, 0, 0, 7.22564, -53.7744, 7.36799, -173.973, 7.28655, 65.4235, 0.0358126, -41.9769
0, 2700.00000, 118.056, -30.7005, 120.149, -150.899, 118.951, 88.4974, 0, 0, 7.22564, -53.7744, 7.36799, -173.973, 7.28655, 65.4235, 0.0358126, -41.9769
0, 2760.00000, 118.056, -30.7005, 120.149, -150.899, 118.951, 88.4974, 0, 0, 7.22564, -53.7744, 7.36799, -173.973, 7.28655, 65.4235, 0.0358126, -41.9769
0, 2820.00000, 118.056, -30.7005, 120.149, -150.899, 118.951, 88.4974, 0, 0, 7.22564, -53.7744, 7.36799, -173.973, 7.28655, 65.4235, 0.0358126, -41.9769
0, 2880.00000, 118.056, -30.7005, 120.149, -150.899, 118.951, 88.4974, 0, 0, 7.22564, -53.7744, 7.36799, -173.973, 7.28655, 65.4235, 0.0358126, -41.9769
0, 2940.00000, 118.056, -30.7005, 120.149, -150.899, 118.951, 88.4974, 0, 0, 7.22564, -53.7744, 7.36799, -173.973, 7.28655, 65.4235, 0.0358126, -41.9769
0, 3000.00000, 118.056, -30.7005, 120.149, -150.899, 118.951, 88.4974, 0, 0, 7.22564, -53.7744, 7.36799, -173.973, 7.28655, 65.4235, 0.0358126, -41.9769
0, 3060.00000, 118.056, -30.7005, 120.149, -150.899, 118.951, 88.4974, 0, 0, 7.22564, -53.7744, 7.36799, -173.973, 7.28655, 65.4235, 0.0358126, -41.9769
0, 3120.00000, 118.056, -30.7005, 120.149, -150.899, 118.951, 88.4974, 0, 0, 7.22564, -53.7744, 7.36799, -173.973, 7.28655, 65.4235, 0.0358126, -41.9769
0, 3180.00000, 118.056, -30.7005, 120.149, -150.899, 118.951, 88.4974, 0, 0, 7.22564, -53.7744, 7.36799, -173.973, 7.28655, 65.4235, 0.0358126, -41.9769
0, 3240.00000, 118.056, -30.7005, 120.149, -150.899, 118.951, 88.4974, 0, 0, 7.22564, -53.7744, 7.36799, -173.973, 7.28655, 65.4235, 0.0358126, -41.9769
0, 3300.00000, 118.056, -30.7005, 120.149, -150.899, 118.951, 88.4974, 0, 0, 7.22564, -53.7744, 7.36799, -173.973, 7.28655, 65.4235, 0.0358126, -41.9769
0, 3360.00000, 118.056, -30.7005, 120.149, -150.899, 118.951, 88.4974, 0, 0, 7.22564, -53.7744, 7.36799, -173.973, 7.28655, 65.4235, 0.0358126, -41.9769
0, 3420.00000, 118.056, -30.7005, 120.149, -150.899, 118.951, 88.4974, 0, 0, 7.22564, -53.7744, 7.36799, -173.973, 7.28655, 65.4235, 0.0358126, -41.9769
0, 3480.00000, 118.056, -30.7005, 120.149, -150.899, 118.951, 88.4974, 0, 0, 7.22564, -53.7744, 7.36799, -173.973, 7.28655, 65.4235, 0.0358126, -41.9769
0, 3540.00000, 118.056, -30.7005, 120.149, -150.899, 118.951, 88.4974, 0, 0, 7.22564, -53.7744, 7.36799, -173.973, 7.28655, 65.4235, 0.0358126, -41.9769
1, 0.00000, 118.056, -30.7005, 120.149, -150.899, 118.951, 88.4974, 0, 0, 7.22564, -53.7744, 7.36799, -173.973, 7.28655, 65.4235, 0.0358126, -41.9769
1, 60.00000, 118.056, -30.7005, 120.149, -150.899, 118.951, 88.4974, 0, 0, 7.22564, -53.7744, 7.36799, -173.973, 7.28655, 65.4235, 0.0358126, -41.9769
1, 120.00000, 118.056, -30.7005, 120.149, -150.899, 118.951, 88.4974, 0, 0, 7.22564, -53.7744, 7.36799, -173.973, 7.28655, 65.4235, 0.0358126, -41.9769
1, 180.00000, 118.056, -30.7005, 120.149, -150.899, 118.951, 88.4974, 0, 0, 7.22564, -53.7744, 7.36799, -173.973, 7.28655, 65.4235, 0.0358126, -41.9769
1, 240.00000, 118.056, -30.7005, 120.149, -150.899, 118.951, 88.4974, 0, 0, 7.22564, -53.7744, 7.36799, -173.973, 7.28655, 65.4235, 0.0358126, -41.9769
1, 300.00000, 118.056, -30.7005, 120.149, -150.899, 118.951, 88.4974, 0, 0, 7.22564, -53.7744, 7.36799, -173.973, 7.28655, 65.4235, 0.0358126, -41.9769
1, 360.00000, 118.056, -30.7005, 120.149, -150.899, 118.951, 88.4974, 0, 0, 7.22564, -53.7744, 7.36799, -173.973, 7.28655, 65.4235, 0.0358126, -41.9769
1, 420.00000, 118.056, -30.7005, 120.149, -150.899, 118.951, 88.4974, 0, 0, 7.22564, -53.7744, 7.36799, -173.973, 7.28655, 65.4235, 0.0358126, -41.9769
1, 480.00000, 118.056, -30.7005, 120.149, -150.899, 118.951, 88.4974, 0, 0, 7.22564, -53.7744, 7.36799, -173.973, 7.28655, 65.4235, 0.0358126, -41.9769
1, 540.00000, 118.056, -30.7005, 120.149, -150.899, 118.951, 88.4974, 0, 0, 7.22564, -53.7744, 7.36799, -173.973, 7.28655, 65.4235, 0.0358126, -41.9769
1, 600.00000, 118.056, -30.7005, 120.149, -150.899, 118.951, 88.4974, 0, 0, 7.22564, -53.7744, 7.36799, -173.973, 7.28655, 65.4235, 0.0358126, -41.9769
1, 660.00000, 118.056, -30.7005, 120.149, -150.899, 118.951, 88.4974, 0, 0, 7.22564, -53.7744, 7.36799, -173.973, 7.28655, 65.4235, 0.0358126, -41.9769
1, 720.00000, 118.056, -30.7005, 120.149, -150.899, 118.951, 88.4974, 0, 0, 7.22564, -53.7744, 7.36799, -173.973, 7.28655, 65.4235, 0.0358126, -41.9769
1, 780.00000, 118.056, -30.7005, 120.149, -150.899, 118.951, 88.4974, 0, 0, 7.22564, -53.7744, 7.36799, -173.973, 7.28655, 65.4235, 0.0358126, -41.9769
1, 840.00000, 118.056, -30.7005, 120.149, -150.899, 118.951, 88.4974, 0, 0, 7.22564, -53.7744, 7.36799, -173.973, 7.28655, 65.4235, 0.0358126, -41.9769
1, 900.00000, 118.056, -30.7005, 120.149, -150.899, 118.951, 88.4974, 0, 0, 7.22564, -53.7744, 7.36799, -173.973, 7.28655, 65.4235, 0.0358126, -41.9769
1, 960.00000, 118.056, -30.7005, 120.149, -150.899, 118.951, 88.4974, 0, 0, 7.22564, -53.7744, 7.36799, -173.973, 7.28655, 65.4235, 0.0358126, -41.9769
1, 1020.00000, 118.056, -30.7005, 120.149, -150.899, 118.951, 88.4974, 0, 0, 7.22564, -53.7744, 7.36799, -173.973, 7.28655, 65.4235, 0.0358126, -41.9769
1, 1080.00000, 118.056, -30.7005, 120.149, -150.899, 118.951, 88.4974, 0, 0, 7.22564, -53.7744, 7.36799, -173.973, 7.28655, 65.4235, 0.0358126, -41.9769
1, 1140.00000, 118.056, -30.7005, 120.149, -150.899, 118.951, 88.4974, 0, 0, 7.22564, -53.7744, 7.36799, -173.973, 7.28655, 65.4235, 0.0358126, -41.9769
1, 1200.00000, 118.056, -30.7005, 120.149, -150.899, 118.951, 88.4974, 0, 0, 7.22564, -53.7744, 7.36799, -173.973, 7.28655, 65.4235, 0.0358126, -41.9769
1, 1260.00000, 118.056, -30.7005, 120.149, -150.899, 118.951, 88.4974, 0, 0, 7.22564, -53.7744, 7.36799, -173.973, 7.28655, 65.4235, 0.0358126, -41.9769
1, 1320.00000, 118.056, -30.7005, 120.149, -150.899, 118.951, 88.4974, 0, 0, 7.22564, -53.7744, 7.36799, -173.973, 7.28655, 65.4235, 0.0358126, -41.9769
1, 1380.00000, 118.056, -30.7005, 120.149, -150.899, 118.951, 88.4974, 0, 0, 7.22564, -53.7744, 7.36799, -173.973, 7.28655, 65.4235, 0.0358126, -41.9769
1, 1440.00000, 118.056, -30.7005, 120.149, -150.899, 118.951, 88.4974, 0, 0, 7.22564, -53.7744, 7.36799, -173.973, 7.28655, 65.4235, 0.0358126, -41.9769
1, 1500.00000, 118.056, -30.7005, 120.149, -150.899, 118.951, 88.4974, 0, 0, 7.22564, -53.7744, 7.36799, -173.973, 7.28655, 65.4235, 0.0358126, -41.9769
1, 1560.00000, 118.056, -30.7005, 120.149, -150.899, 118.951, 88.4974, 0, 0, 7.22564, -53.7744, 7.36799, -173.973, 7.28655, 65.4235, 0.0358126, -41.9769
1, 1620.00000, 118.056, -30.7005, 120.149, -150.899, 118.951, 88.4974, 0, 0, 7.22564, -53.7744, 7.36799, -173.973, 7.28655, 65.4235, 0.0358126, -41.9769
1, 1680.00000, 118.056, -30.7005, 120.149, -150.899, 118.951, 88.4974, 0, 0, 7.22564, -53.7744, 7.36799, -173.973, 7.28655, 65.4235, 0.0358126, -41.9769
1, 1740.00000, 118.056, -30.7005, 120.149, -150.899, 118.951, 88.4974, 0, 0, 7.22564, -53.7744, 7.36799, -173.973, 7.28655, 65.4235, 0.0358126, -41.9769
1, 1800.00000, 118.056, -30.7005, 120.149, -150.899, 118.951, 88.4974, 0, 0, 7.22564, -53.7744, 7.36799, -173.973, 7.28655, 65.4235, 0.0358126, -41.9769
1, 1860.00000, 118.056, -30.7005, 120.149, -150.899, 118.951, 88.4974, 0, 0, 7.22564, -53.7744, 7.36799, -173.973, 7.28655, 65.4235, 0.0358126, -41.9769
1, 1920.00000, 118.056, -30.7005, 120.149, -150.899, 118.951, 88.4974, 0, 0, 7.22564, -53.7744, 7.36799, -173.973, 7.28655, 65.4235, 0.0358126, -41.9769
1, 1980.00000, 118.056, -30.7005, 120.149, -150.899, 118.951, 88.4974, 0, 0, 7.22564, -53.7744, 7.36799, -173.973, 7.28655, 65.4235, 0.0358126, -41.9769
1, 2040.00000, 118.056, -30.7005, 120.149, -150.899, 118.951, 88.4974, 0, 0, 7.22564, -53.7744, 7.36799, -173.973, 7.28655, 65.4235, 0.0358126, -41.9769
1, 2100.00000, 118.056, -30.7005, 120.149, -150.899, 118.951, 88.4974, 0, 0, 7.22564, -53.7744, 7.36799, -173.973, 7.28655, 65.4235, 0.0358126, -41.9769
1, 2160.00000, 118.056, -30.7005, 120.149, -150.899, 118.951, 88.4974, 0, 0, 7.22564, -53.7744, 7.36799, -173.973, 7.28655, 65.4235, 0.0358126, -41.9769
1, 2220.00000, 118.056, -30.7005, 120.149, -150.899, 118.951, 88.4974, 0, 0, 7.22564, -53.7744, 7.36799, -173.973, 7.28655, 65.4235, 0.0358126, -41.9769
1, 2280.00000, 118.056, -30.7005, 120.149, -150.899, 118.951, 88.4974, 0, 0, 7.22564, -53.7744, 7.36799, -173.973, 7.28655, 65.4235, 0.0358126, -41.9769
1, 2340.00000, 118.056, -30.7005, 120.149, -150.899, 118.951, 88.4974, 0, 0, 7.22564, -53.7744, 7.36799, -173.973, 7.28655, 65.4235, 0.0358126, -41.9769
1, 2400.00000, 118.056, -30.7005, 120.149, -150.899, 118.951, 88.4974, 0, 0, 7.22564, -53.7744, 7.36799, -173.973, 7.28655, 65.4235, 0.0358126, -41.9769
1, 2460.00000, 118.056, -30.7005, 120.149, -150.899, 118.951, 88.4974, 0, 0, 7.22564, -53.7744, 7.36799, -173.973, 7.28655, 65.4235, 0.0358126, -41.9769
1, 2520.00000, 118.056, -30.7005, 120.149, -150.899, 118.951, 88.4974, 0, 0, 7.22564, -53.7744, 7.36799, -173.973, 7.28655, 65.4235, 0.0358126, -41.9769
1, 2580.00000, 118.056, -30.7005, 120.149, -150.899, 118.951, 88.4974, 0, 0, 7.22564, -53.7744, 7.36799, -173.973, 7.28655, 65.4235, 0.0358126, -41.9769
1, 2640.00000, 118.056, -30.7005, 120.149, -150.899, 118.951, 88.4974, 0, 0, 7.22564, -53.7744, 7.36799, -173.973, 7.28655, 65.4235, 0.0358126, -41.9769
1, 2700.00000, 118.056, -30.7005, 120.149, -150.899, 118.951, 88.4974, 0, 0, 7.22564, -53.7744, 7.36799, -173.973, 7.28655, 65.4235, 0.0358126, -41.9769
1, 2760.00000, 118.056, -30.7005, 120.149, -150.899, 118.951, 88.4974, 0, 0, 7.22564, -53.7744, 7.36799, -173.973, 7.28655, 65.4235, 0.0358126, -41.9769
1, 2820.00000, 118.056, -30.7005, 120.149, -150.899, 118.951, 88.4974, 0, 0, 7.22564, -53.7744, 7.36799, -173.973, 7.28655, 65.4235, 0.0358126, -41.9769
1, 2880.00000, 118.056, -30.7005, 120.149, -150.899, 118.951, 88.4974, 0, 0, 7.22564, -53.7744, 7.36799, -173.973, 7.28655, 65.4235, 0.0358126, -41.9769
1, 2940.00000, 118.056, -30.7005, 120.149, -150.899, 118.951, 88.4974, 0, 0, 7.22564, -53.7744, 7.36799, -173.973, 7.28655, 65.4235, 0.0358126, -41.9769
1, 3000.00000, 118.056, -30.7005, 120.149, -150.899, 118.951, 88.4974, 0, 0, 7.22564, -53.7744, 7.36799, -173.973, 7.28655, 65.4235, 0.0358126, -41.9769
1, 3060.00000, 118.056, -30.7005, 120.149, -150.899, 118.951, 88.4974, 0, 0, 7.22564, -53.7744, 7.36799, -173.973, 7.28655, 65.4235, 0.0358126, -41.9769
1, 3120.00000, 118.056, -30.7005, 120.149, -150.899, 118.951, 88.4974, 0, 0, 7.22564, -53.7744, 7.36799, -173.973, 7.28655, 65.4235, 0.0358126, -41.9769
1, 3180.00000, 118.056, -30.7005, 120.149, -150.899, 118.951, 88.4974, 0, 0, 7.22564, -53.7744, 7.36799, -173.973, 7.28655, 65.4235, 0.0358126, -41.9769
1, 3240.00000, 118.056, -30.7005, 120.149, -150.899, 118.951, 88.4974, 0, 0, 7.22564, -53.7744, 7.36799, -173.973, 7.28655, 65.4235, 0.0358126, -41.9769
1, 3300.00000, 118.056, -30.7005, 120.149, -150.899, 118.951, 88.4974, 0, 0, 7.22564, -53.7744, 7.36799, -173.973, 7.28655, 65.4235, 0.0358126, -41.9769
1, 3360.00000, 118.056, -30.7005, 120.149, -150.899, 118.951, 88.4974, 0, 0, 7.22564, -53.7744, 7.36799, -173.973, 7.28655, 65.4235, 0.0358126, -41.9769
1, 3420.00000, 118.056, -30.7005, 120.149, -150.899, 118.951, 88.4974, 0, 0, 7.22564, -53.7744, 7.36799, -173.973, 7.28655, 65.4235, 0.0358126, -41.9769
1, 3480.00000, 118.056, -30.7005, 120.149, -150.899, 118.951, 88.4974, 0, 0, 7.22564, -53.7744, 7.36799, -173.973, 7.28655, 65.4235, 0.0358126, -41.9769
1, 3540.00000, 118.056, -30.7005, 120.149, -150.899, 118.951, 88.4974, 0, 0, 7.22564, -53.7744, 7.36799, -173.973, 7.28655, 65.4235, 0.0358126, -41.9769
2, 0.00000, 118.056, -30.7005, 120.149, -150.899, 118.951, 88.4974, 0, 0, 7.22564, -53.7744, 7.36799, -173.973, 7.28655, 65.4235, 0.0358126, -41.9769
2, 60.00000, 118.056, -30.7005, 120.149, -150.899, 118.951, 88.4974, 0, 0, 7.22564, -53.7744, 7.36799, -173.973, 7.28655, 65.4235, 0.0358126, -41.9769
2, 120.00000, 118.056, -30.7005, 120.149, -150.899, 118.951, 88.4974, 0, 0, 7.22564, -53.7744, 7.36799, -173.973, 7.28655, 65.4235, 0.0358126, -41.9769
2, 180.00000, 118.056, -30.7005, 120.149, -150.899, 118.951, 88.4974, 0, 0, 7.22564, -53.7744, 7.36799, -173.973, 7.28655, 65.4235, 0.0358126, -41.9769
2, 240.00000, 118.056, -30.7005, 120.149, -150.899, 118.951, 88.4974, 0, 0, 7.22564, -53.7744, 7.36799, -173.973, 7.28655, 65.4235, 0.0358126, -41.9769
2, 300.00000, 118.056, -30.7005, 120.149, -150.899, 118.951, 88.4974, 0, 0, 7.22564, -53.7744, 7.36799, -173.973, 7.28655, 65.4235, 0.0358126, -41.9769
2, 360.00000, 118.056, -30.7005, 120.149, -150.899, 118.951, 88.4974, 0, 0, 7.22564, -53.7744, 7.36799, -173.973, 7.28655, 65.4235, 0.0358126, -41.9769
2, 420.00000, 118.056, -30.7005, 120.149, -150.899, 118.951, 88.4974, 0, 0, 7.22564, -53.7744, 7.36799, -173.973, 7.28655, 65.4235, 0.0358126, -41.9769
2, 480.00000, 118.056, -30.7005, 120.149, -150.899, 118.951, 88.4974, 0, 0, 7.22564, -53.7744, 7.36799, -173.973, 7.28655, 65.4235, 0.0358126, -41.9769
2, 540.00000, 118.056, -30.7005, 120.149, -150.899, 118.951, 88.4974, 0, 0, 7.22564, -53.7744, 7.36799, -173.973, 7.28655, 65.4235, 0.0358126, -41.9769
2, 600.00000, 118.056, -30.7005, 120.149, -150.899, 118.951, 88.4974, 0, 0, 7.22564, -53.7744, 7.36799, -173.973, 7.28655, 65.4235, 0.0358126, -41.9769
