hour,t(sec),V1,VAngle1,V2,VAngle2,V3,VAngle3,V4,VAngle4,I1,IAngle1,I2,IAngle2,I3,IAngle3,I4,IAngle4
0, 60.00000, 114.934, -30.4543, 119.135, -151.14, 116.005, 87.6131, 0, 0, 6.89224, -53.528, 7.17297, -174.213, 6.96383, 64.5395, 0.050769, -25.5839
0, 120.00000, 114.934, -30.4543, 119.135, -151.14, 116.005, 87.6131, 0, 0, 6.8922, -53.5282, 7.17294, -174.213, 6.96376, 64.5392, 0.0507571, -25.5399
0, 180.00000, 114.934, -30.4543, 119.135, -151.14, 116.005, 87.6131, 0, 0, 6.8922, -53.5282, 7.17294, -174.213, 6.96376, 64.5392, 0.050757, -25.5397
0, 240.00000, 114.934, -30.4543, 119.135, -151.14, 116.005, 87.6131, 0, 0, 6.8922, -53.5282, 7.17294, -174.213, 6.96376, 64.5392, 0.050757, -25.5397
0, 300.00000, 114.934, -30.4543, 119.135, -151.14, 116.005, 87.6131, 0, 0, 6.8922, -53.5282, 7.17294, -174.213, 6.96376, 64.5392, 0.050757, -25.5397
0, 360.00000, 114.934, -30.4543, 119.135, -151.14, 116.005, 87.6131, 0, 0, 6.8922, -53.5282, 7.17294, -174.213, 6.96376, 64.5392, 0.050757, -25.5397
0, 420.00000, 114.934, -30.4543, 119.135, -151.14, 116.005, 87.6131, 0, 0, 6.8922, -53.5282, 7.17294, -174.213, 6.96376, 64.5392, 0.050757, -25.5397
0, 480.00000, 115.933, -30.3624, 120.145, -151.058, 116.943, 87.7114, 0, 0, 6.05427, -53.4364, 6.2991, -174.132, 6.11302, 64.6371, 0.0443689, -22.6204
0, 540.00000, 115.933, -30.3624, 120.145, -151.058, 116.943, 87.7115, 0, 0, 6.05431, -53.4363, 6.29918, -174.132, 6.11306, 64.6376, 0.0444468, -22.571
0, 600.00000, 115.933, -30.3624, 120.145, -151.058, 116.943, 87.7115, 0, 0, 6.05431, -53.4363, 6.29918, -174.132, 6.11306, 64.6376, 0.044447, -22.5709
0, 660.00000, 115.933, -30.3624, 120.145, -151.058, 116.943, 87.7115, 0, 0, 6.05431, -53.4363, 6.29918, -174.132, 6.11306, 64.6376, 0.044447, -22.5709
0, 720.00000, 115.933, -30.3624, 120.145, -151.058, 116.943, 87.7115, 0, 0, 6.05431, -53.4363, 6.29918, -174.132, 6.11306, 64.6376, 0.044447, -22.5709
0, 780.00000, 115.933, -30.3624, 120.145, -151.058, 116.943, 87.7115, 0, 0, 6.05431, -53.4363, 6.29918, -174.132, 6.11306, 64.6376, 0.044447, -22.5709
0, 840.00000, 115.933, -30.3624, 120.145, -151.058, 116.943, 87.7115, 0, 0, 6.05431, -53.4363, 6.29918, -174.132, 6.11306, 64.6376, 0.044447, -22.5709
0, 900.00000, 115.933, -30.3624, 120.145, -151.058, 116.943, 87.7115, 0, 0, 6.05431, -53.4363, 6.29918, -174.132, 6.11306, 64.6376, 0.044447, -22.5709
0, 960.00000, 115.418, -30.3358, 120.14, -151.057, 116.657, 87.5014, 0, 0, 6.02444, -53.4097, 6.2989, -174.13, 6.09644, 64.4277, 0.0468253, -22.5496
0, 1020.00000, 115.418, -30.3358, 120.14, -151.057, 116.657, 87.5014, 0, 0, 6.02441, -53.4097, 6.2989, -174.13, 6.09642, 64.4275, 0.0468389, -22.5324
0, 1080.00000, 115.418, -30.3358, 120.14, -151.057, 116.657, 87.5014, 0, 0, 6.02441, -53.4097, 6.2989, -174.13, 6.09642, 64.4275, 0.0468389, -22.5323
0, 1140.00000, 115.418, -30.3358, 120.14, -151.057, 116.657, 87.5014, 0, 0, 6.02441, -53.4097, 6.2989, -174.13, 6.09642, 64.4275, 0.0468389, -22.5323
0, 1200.00000, 115.418, -30.3358, 120.14, -151.057, 116.657, 87.5014, 0, 0, 6.02441, -53.4097, 6.2989, -174.13, 6.09642, 64.4275, 0.0468389, -22.5323
0, 1260.00000, 115.418, -30.3358, 120.14, -151.057, 116.657, 87.5014, 0, 0, 6.02441, -53.4097, 6.2989, -174.13, 6.09642, 64.4275, 0.0468389, -22.5323
0, 1320.00000, 115.418, -30.3358, 120.14, -151.057, 116.657, 87.5014, 0, 0, 6.02441, -53.4097, 6.2989, -174.13, 6.09642, 64.4275, 0.0468389, -22.5323
0, 1380.00000, 115.418, -30.3358, 120.14, -151.057, 116.657, 87.5014, 0, 0, 6.02441, -53.4097, 6.2989, -174.13, 6.09642, 64.4275, 0.0468389, -22.5323
0, 1440.00000, 115.418, -30.3358, 120.14, -151.057, 116.657, 87.5014, 0, 0, 6.02441, -53.4097, 6.2989, -174.13, 6.09642, 64.4275, 0.0468389, -22.5323
0, 1500.00000, 115.418, -30.3358, 120.14, -151.057, 116.657, 87.5014, 0, 0, 6.02441, -53.4097, 6.2989, -174.13, 6.09642, 64.4275, 0.0468389, -22.5323
0, 1560.00000, 115.418, -30.3358, 120.14, -151.057, 116.657, 87.5014, 0, 0, 6.02441, -53.4097, 6.2989, -174.13, 6.09642, 64.4275, 0.0468389, -22.5323
0, 1620.00000, 115.418, -30.3358, 120.14, -151.057, 116.657, 87.5014, 0, 0, 6.02441, -53.4097, 6.2989, -174.13, 6.09642, 64.4275, 0.0468389, -22.5323
0, 1680.00000, 115.418, -30.3358, 120.14, -151.057, 116.657, 87.5014, 0, 0, 6.02441, -53.4097, 6.2989, -174.13, 6.09642, 64.4275, 0.0468389, -22.5323
0, 1740.00000, 115.418, -30.3358, 120.14, -151.057, 116.657, 87.5014, 0, 0, 6.02441, -53.4097, 6.2989, -174.13, 6.09642, 64.4275, 0.0468389, -22.5323
0, 1800.00000, 114.876, -30.2993, 120.134, -151.055, 116.34, 87.2795, 0, 0, 5.99294, -53.3732, 6.29857, -174.129, 6.07803, 64.2058, 0.0490233, -22.315
0, 1860.00000, 114.876, -30.2993, 120.134, -151.055, 116.34, 87.2795, 0, 0, 5.9929, -53.3733, 6.29857, -174.129, 6.07801, 64.2056, 0.0490382, -22.3065
0, 1920.00000, 114.876, -30.2993, 120.134, -151.055, 116.34, 87.2795, 0, 0, 5.9929, -53.3733, 6.29857, -174.129, 6.07801, 64.2056, 0.0490382, -22.3064
0, 1980.00000, 114.876, -30.2993, 120.134, -151.055, 116.34, 87.2795, 0, 0, 5.9929, -53.3733, 6.29857, -174.129, 6.07801, 64.2056, 0.0490382, -22.3064
0, 2040.00000, 114.876, -30.2993, 120.134, -151.055, 116.34, 87.2795, 0, 0, 5.9929, -53.3733, 6.29857, -174.129, 6.07801, 64.2056, 0.0490382, -22.3064
0, 2100.00000, 114.876, -30.2993, 120.134, -151.055, 116.34, 87.2795, 0, 0, 5.9929, -53.3733, 6.29857, -174.129, 6.07801, 64.2056, 0.0490382, -22.3064
0, 2160.00000, 114.876, -30.2993, 120.134, -151.055, 116.34, 87.2795, 0, 0, 5.9929, -53.3733, 6.29857, -174.129, 6.07801, 64.2056, 0.0490382, -22.3064
0, 2220.00000, 114.876, -30.2993, 120.134, -151.055, 116.34, 87.2795, 0, 0, 5.9929, -53.3733, 6.29857, -174.129, 6.07801, 64.2056, 0.0490382, -22.3064
0, 2280.00000, 114.876, -30.2993, 120.134, -151.055, 116.34, 87.2795, 0, 0, 5.9929, -53.3733, 6.29857, -174.129, 6.07801, 64.2056, 0.0490382, -22.3064
0, 2340.00000, 114.876, -30.2993, 120.134, -151.055, 116.34, 87.2795, 0, 0, 5.9929, -53.3733, 6.29857, -174.129, 6.07801, 64.2056, 0.0490382, -22.3064
0, 2400.00000, 114.876, -30.2993, 120.134, -151.055, 116.34, 87.2795, 0, 0, 5.9929, -53.3733, 6.29857, -174.129, 6.07801, 64.2056, 0.0490382, -22.3064
0, 2460.00000, 114.876, -30.2993, 120.134, -151.055, 116.34, 87.2795, 0, 0, 5.9929, -53.3733, 6.29857, -174.129, 6.07801, 64.2056, 0.0490382, -22.3064
0, 2520.00000, 114.876, -30.2993, 120.134, -151.055, 116.34, 87.2795, 0, 0, 5.9929, -53.3733, 6.29857, -174.129, 6.07801, 64.2056, 0.0490382, -22.3064
0, 2580.00000, 114.876, -30.2993, 120.134, -151.055, 116.34, 87.2795, 0, 0, 5.9929, -53.3733, 6.29857, -174.129, 6.07801, 64.2056, 0.0490382, -22.3064
0, 2640.00000, 114.876, -30.2993, 120.134, -151.055, 116.34, 87.2795, 0, 0, 5.9929, -53.3733, 6.29857, -174.129, 6.07801, 64.2056, 0.0490382, -22.3064
0, 2700.00000, 114.876, -30.2993, 120.134, -151.055, 116.34, 87.2795, 0, 0, 5.9929, -53.3733, 6.29857, -174.129, 6.07801, 64.2056, 0.0490382, -22.3064
0, 2760.00000, 115.161, -30.272, 120.135, -151.056, 116.433, 87.415, 0, 0, 6.0094, -53.3462, 6.29861, -174.13, 6.08335, 64.3408, 0.047501, -22.4518
0, 2820.00000, 115.161, -30.272, 120.135, -151.056, 116.433, 87.415, 0, 0, 6.00943, -53.346, 6.29861, -174.13, 6.08338, 64.3411, 0.0474925, -22.5054
0, 2880.00000, 115.161, -30.272, 120.135, -151.056, 116.433, 87.415, 0, 0, 6.00943, -53.346, 6.29861, -174.13, 6.08338, 64.3411, 0.0474924, -22.5058
0, 2940.00000, 115.161, -30.272, 120.135, -151.056, 116.433, 87.415, 0, 0, 6.00943, -53.346, 6.29861, -174.13, 6.08338, 64.3411, 0.0474924, -22.5058
0, 3000.00000, 115.161, -30.272, 120.135, -151.056, 116.433, 87.415, 0, 0, 6.00943, -53.346, 6.29861, -174.13, 6.08338, 64.3411, 0.0474924, -22.5058
0, 3060.00000, 115.161, -30.272, 120.135, -151.056, 116.433, 87.415, 0, 0, 6.00943, -53.346, 6.29861, -174.13, 6.08338, 64.3411, 0.0474924, -22.5058
0, 3120.00000, 115.161, -30.272, 120.135, -151.056, 116.433, 87.415, 0, 0, 6.00943, -53.346, 6.29861, -174.13, 6.08338, 64.3411, 0.0474924, -22.5058
0, 3180.00000, 115.161, -30.272, 120.135, -151.056, 116.433, 87.415, 0, 0, 6.00943, -53.346, 6.29861, -174.13, 6.08338, 64.3411, 0.0474924, -22.5058
0, 3240.00000, 115.161, -30.272, 120.135, -151.056, 116.433, 87.415, 0, 0, 6.00943, -53.346, 6.29861, -174.13, 6.08338, 64.3411, 0.0474924, -22.5058
0, 3300.00000, 115.161, -30.272, 120.135, -151.056, 116.433, 87.415, 0, 0, 6.00943, -53.346, 6.29861, -174.13, 6.08338, 64.3411, 0.0474924, -22.5058
0, 3360.00000, 115.161, -30.272, 120.135, -151.056, 116.433, 87.415, 0, 0, 6.00943, -53.346, 6.29861, -174.13, 6.08338, 64.3411, 0.0474924, -22.5058
0, 3420.00000, 115.161, -30.272, 120.135, -151.056, 116.433, 87.415, 0, 0, 6.00943, -53.346, 6.29861, -174.13, 6.08338, 64.3411, 0.0474924, -22.5058
0, 3480.00000, 115.161, -30.272, 120.135, -151.056, 116.433, 87.415, 0, 0, 6.00943, -53.346, 6.29861, -174.13, 6.08338, 64.3411, 0.0474924, -22.5058
0, 3540.00000, 115.161, -30.272, 120.135, -151.056, 116.433, 87.415, 0, 0, 6.00943, -53.346, 6.29861, -174.13, 6.08338, 64.3411, 0.0474924, -22.5058
1, 0.00000, 115.161, -30.272, 120.135, -151.056, 116.433, 87.415, 0, 0, 6.00943, -53.346, 6.29861, -174.13, 6.08338, 64.3411, 0.0474924, -22.5058
1, 60.00000, 115.431, -30.2434, 120.136, -151.056, 116.514, 87.5447, 0, 0, 6.02514, -53.3175, 6.29867, -174.13, 6.08811, 64.4706, 0.0460185, -22.4628
1, 120.00000, 115.431, -30.2434, 120.136, -151.056, 116.514, 87.5448, 0, 0, 6.02517, -53.3173, 6.29867, -174.13, 6.08813, 64.4708, 0.046006, -22.4971
1, 180.00000, 115.431, -30.2434, 120.136, -151.056, 116.514, 87.5448, 0, 0, 6.02517, -53.3173, 6.29867, -174.13, 6.08813, 64.4708, 0.0460059, -22.4973
1, 240.00000, 115.431, -30.2434, 120.136, -151.056, 116.514, 87.5448, 0, 0, 6.02517, -53.3173, 6.29867, -174.13, 6.08813, 64.4708, 0.0460059, -22.4973
1, 300.00000, 115.431, -30.2434, 120.136, -151.056, 116.514, 87.5448, 0, 0, 6.02517, -53.3173, 6.29867, -174.13, 6.08813, 64.4708, 0.0460059, -22.4973
1, 360.00000, 115.431, -30.2434, 120.136, -151.056, 116.514, 87.5448, 0, 0, 6.02517, -53.3173, 6.29867, -174.13, 6.08813, 64.4708, 0.0460059, -22.4973
1, 420.00000, 115.431, -30.2434, 120.136, -151.056, 116.514, 87.5448, 0, 0, 6.02517, -53.3173, 6.29867, -174.13, 6.08813, 64.4708, 0.0460059, -22.4973
1, 480.00000, 115.431, -30.2434, 120.136, -151.056, 116.514, 87.5448, 0, 0, 6.02517, -53.3173, 6.29867, -174.13, 6.08813, 64.4708, 0.0460059, -22.4973
1, 540.00000, 115.431, -30.2434, 120.136, -151.056, 116.514, 87.5448, 0, 0, 6.02517, -53.3173, 6.29867, -174.13, 6.08813, 64.4708, 0.0460059, -22.4973
1, 600.00000, 115.431, -30.2434, 120.136, -151.056, 116.514, 87.5448, 0, 0, 6.02517, -53.3173, 6.29867, -174.13, 6.08813, 64.4708, 0.0460059, -22.4973
1, 660.00000, 115.431, -30.2434, 120.136, -151.056, 116.514, 87.5448, 0, 0, 6.02517, -53.3173, 6.29867, -174.13, 6.08813, 64.4708, 0.0460059, -22.4973
1, 720.00000, 115.431, -30.2434, 120.136, -151.056, 116.514, 87.5448, 0, 0, 6.02517, -53.3173, 6.29867, -174.13, 6.08813, 64.4708, 0.0460059, -22.4973
1, 780.00000, 116.962, -30.602, 120.105, -151.064, 117.942, 88.0155, 0, 0, 6.11412, -53.6761, 6.29686, -174.138, 6.17113, 64.9414, 0.0354347, -36.5099
1, 840.00000, 116.962, -30.602, 120.105, -151.064, 117.942, 88.0155, 0, 0, 6.11417, -53.6759, 6.29686, -174.138, 6.17115, 64.9416, 0.0354106, -36.5351
1, 900.00000, 116.962, -30.602, 120.105, -151.064, 117.942, 88.0155, 0, 0, 6.11417, -53.6759, 6.29686, -174.138, 6.17115, 64.9416, 0.0354104, -36.5353
1, 960.00000, 116.962, -30.602, 120.105, -151.064, 117.942, 88.0155, 0, 0, 6.11417, -53.6759, 6.29686, -174.138, 6.17115, 64.9416, 0.0354104, -36.5353
1, 1020.00000, 116.962, -30.602, 120.105, -151.064, 117.942, 88.0155, 0, 0, 6.11417, -53.6759, 6.29686, -174.138, 6.17115, 64.9416, 0.0354104, -36.5353
1, 1080.00000, 116.962, -30.602, 120.105, -151.064, 117.942, 88.0155, 0, 0, 6.11417, -53.6759, 6.29686, -174.138, 6.17115, 64.9416, 0.0354104, -36.5353
1, 1140.00000, 116.962, -30.602, 120.105, -151.064, 117.942, 88.0155, 0, 0, 6.11417, -53.6759, 6.29686, -174.138, 6.17115, 64.9416, 0.0354104, -36.5353
1, 1200.00000, 116.962, -30.602, 120.105, -151.064, 117.942, 88.0155, 0, 0, 6.11417, -53.6759, 6.29686, -174.138, 6.17115, 64.9416, 0.0354104, -36.5353
1, 1260.00000, 116.962, -30.602, 120.105, -151.064, 117.942, 88.0155, 0, 0, 6.11417, -53.6759, 6.29686, -174.138, 6.17115, 64.9416, 0.0354104, -36.5353
1, 1320.00000, 116.962, -30.602, 120.105, -151.064, 117.942, 88.0155, 0, 0, 6.11417, -53.6759, 6.29686, -174.138, 6.17115, 64.9416, 0.0354104, -36.5353
1, 1380.00000, 116.962, -30.602, 120.105, -151.064, 117.942, 88.0155, 0, 0, 6.11417, -53.6759, 6.29686, -174.138, 6.17115, 64.9416, 0.0354104, -36.5353
1, 1440.00000, 116.962, -30.602, 120.105, -151.064, 117.942, 88.0155, 0, 0, 6.11417, -53.6759, 6.29686, -174.138, 6.17115, 64.9416, 0.0354104, -36.5353
1, 1500.00000, 116.962, -30.602, 120.105, -151.064, 117.942, 88.0155, 0, 0, 6.11417, -53.6759, 6.29686, -174.138, 6.17115, 64.9416, 0.0354104, -36.5353
1, 1560.00000, 116.962, -30.602, 120.105, -151.064, 117.942, 88.0155, 0, 0, 6.11417, -53.6759, 6.29686, -174.138, 6.17115, 64.9416, 0.0354104, -36.5353
1, 1620.00000, 116.962, -30.602, 120.105, -151.064, 117.942, 88.0155, 0, 0, 6.11417, -53.6759, 6.29686, -174.138, 6.17115, 64.9416, 0.0354104, -36.5353
1, 1680.00000, 116.962, -30.602, 120.105, -151.064, 117.942, 88.0155, 0, 0, 6.11417, -53.6759, 6.29686, -174.138, 6.17115, 64.9416, 0.0354104, -36.5353
1, 1740.00000, 116.962, -30.602, 120.105, -151.064, 117.942, 88.0155, 0, 0, 6.11417, -53.6759, 6.29686, -174.138, 6.17115, 64.9416, 0.0354104, -36.5353
1, 1800.00000, 116.962, -30.602, 120.105, -151.064, 117.942, 88.0155, 0, 0, 6.11417, -53.6759, 6.29686, -174.138, 6.17115, 64.9416, 0.0354104, -36.5353
1, 1860.00000, 116.962, -30.602, 120.105, -151.064, 117.942, 88.0155, 0, 0, 6.11417, -53.6759, 6.29686, -174.138, 6.17115, 64.9416, 0.0354104, -36.5353
1, 1920.00000, 116.962, -30.602, 120.105, -151.064, 117.942, 88.0155, 0, 0, 6.11417, -53.6759, 6.29686, -174.138, 6.17115, 64.9416, 0.0354104, -36.5353
1, 1980.00000, 116.962, -30.602, 120.105, -151.064, 117.942, 88.0155, 0, 0, 6.11417, -53.6759, 6.29686, -174.138, 6.17115, 64.9416, 0.0354104, -36.5353
1, 2040.00000, 116.962, -30.602, 120.105, -151.064, 117.942, 88.0155, 0, 0, 6.11417, -53.6759, 6.29686, -174.138, 6.17115, 64.9416, 0.0354104, -36.5353
1, 2100.00000, 116.962, -30.602, 120.105, -151.064, 117.942, 88.0155, 0, 0, 6.11417, -53.6759, 6.29686, -174.138, 6.17115, 64.9416, 0.0354104, -36.5353
1, 2160.00000, 116.962, -30.602, 120.105, -151.064, 117.942, 88.0155, 0, 0, 6.11417, -53.6759, 6.29686, -174.138, 6.17115, 64.9416, 0.0354104, -36.5353
1, 2220.00000, 117.533, -30.6333, 120.109, -151.064, 118.269, 88.239, 0, 0, 6.14731, -53.7074, 6.2971, -174.138, 6.19013, 65.1649, 0.0323339, -37.6013
1, 2280.00000, 117.533, -30.6333, 120.109, -151.064, 118.269, 88.239, 0, 0, 6.14735, -53.7072, 6.29709, -174.138, 6.19014, 65.1651, 0.0322989, -37.6343
1, 2340.00000, 117.533, -30.6333, 120.109, -151.064, 118.269, 88.239, 0, 0, 6.14735, -53.7072, 6.29709, -174.138, 6.19014, 65.1651, 0.0322987, -37.6345
1, 2400.00000, 117.533, -30.6333, 120.109, -151.064, 118.269, 88.239, 0, 0, 6.14735, -53.7072, 6.29709, -174.138, 6.19014, 65.1651, 0.0322987, -37.6345
1, 2460.00000, 117.533, -30.6333, 120.109, -151.064, 118.269, 88.239, 0, 0, 6.14735, -53.7072, 6.29709, -174.138, 6.19014, 65.1651, 0.0322987, -37.6345
1, 2520.00000, 117.533, -30.6333, 120.109, -151.064, 118.269, 88.239, 0, 0, 6.14735, -53.7072, 6.29709, -174.138, 6.19014, 65.1651, 0.0322987, -37.6345
1, 2580.00000, 117.533, -30.6333, 120.109, -151.064, 118.269, 88.239, 0, 0, 6.14735, -53.7072, 6.29709, -174.138, 6.19014, 65.1651, 0.0322987, -37.6345
1, 2640.00000, 117.533, -30.6333, 120.109, -151.064, 118.269, 88.239, 0, 0, 6.14735, -53.7072, 6.29709, -174.138, 6.19014, 65.1651, 0.0322987, -37.6345
1, 2700.00000, 117.533, -30.6333, 120.109, -151.064, 118.269, 88.239, 0, 0, 6.14735, -53.7072, 6.29709, -174.138, 6.19014, 65.1651, 0.0322987, -37.6345
1, 2760.00000, 117.533, -30.6333, 120.109, -151.064, 118.269, 88.239, 0, 0, 6.14735, -53.7072, 6.29709, -174.138, 6.19014, 65.1651, 0.0322987, -37.6345
1, 2820.00000, 117.533, -30.6333, 120.109, -151.064, 118.269, 88.239, 0, 0, 6.14735, -53.7072, 6.29709, -174.138, 6.19014, 65.1651, 0.0322987, -37.6345
1, 2880.00000, 117.533, -30.6333, 120.109, -151.064, 118.269, 88.239, 0, 0, 6.14735, -53.7072, 6.29709, -174.138, 6.19014, 65.1651, 0.0322987, -37.6345
1, 2940.00000, 117.533, -30.6333, 120.109, -151.064, 118.269, 88.239, 0, 0, 6.14735, -53.7072, 6.29709, -174.138, 6.19014, 65.1651, 0.0322987, -37.6345
1, 3000.00000, 117.533, -30.6333, 120.109, -151.064, 118.269, 88.239, 0, 0, 6.14735, -53.7072, 6.29709, -174.138, 6.19014, 65.1651, 0.0322987, -37.6345
1, 3060.00000, 117.533, -30.6333, 120.109, -151.064, 118.269, 88.239, 0, 0, 6.14735, -53.7072, 6.29709, -174.138, 6.19014, 65.1651, 0.0322987, -37.6345
1, 3120.00000, 117.533, -30.6333, 120.109, -151.064, 118.269, 88.239, 0, 0, 6.14735, -53.7072, 6.29709, -174.138, 6.19014, 65.1651, 0.0322987, -37.6345
1, 3180.00000, 117.533, -30.6333, 120.109, -151.064, 118.269, 88.239, 0, 0, 6.14735, -53.7072, 6.29709, -174.138, 6.19014, 65.1651, 0.0322987, -37.6345
1, 3240.00000, 117.533, -30.6333, 120.109, -151.064, 118.269, 88.239, 0, 0, 6.14735, -53.7072, 6.29709, -174.138, 6.19014, 65.1651, 0.0322987, -37.6345
1, 3300.00000, 117.533, -30.6333, 120.109, -151.064, 118.269, 88.239, 0, 0, 6.14735, -53.7072, 6.29709, -174.138, 6.19014, 65.1651, 0.0322987, -37.6345
1, 3360.00000, 117.533, -30.6333, 120.109, -151.064, 118.269, 88.239, 0, 0, 6.14735, -53.7072, 6.29709, -174.138, 6.19014, 65.1651, 0.0322987, -37.6345
1, 3420.00000, 117.533, -30.6333, 120.109, -151.064, 118.269, 88.239, 0, 0, 6.14735, -53.7072, 6.29709, -174.138, 6.19014, 65.1651, 0.0322987, -37.6345
1, 3480.00000, 117.533, -30.6333, 120.109, -151.064, 118.269, 88.239, 0, 0, 6.14735, -53.7072, 6.29709, -174.138, 6.19014, 65.1651, 0.0322987, -37.6345
1, 3540.00000, 117.533, -30.6333, 120.109, -151.064, 118.269, 88.239, 0, 0, 6.14735, -53.7072, 6.29709, -174.138, 6.19014, 65.1651, 0.0322987, -37.6345
2, 0.00000, 117.533, -30.6333, 120.109, -151.064, 118.269, 88.239, 0, 0, 6.14735, -53.7072, 6.29709, -174.138, 6.19014, 65.1651, 0.0322987, -37.6345
2, 60.00000, 117.533, -30.6333, 120.109, -151.064, 118.269, 88.239, 0, 0, 6.14735, -53.7072, 6.29709, -174.138, 6.19014, 65.1651, 0.0322987, -37.6345
2, 120.00000, 117.533, -30.6333, 120.109, -151.064, 118.269, 88.239, 0, 0, 6.14735, -53.7072, 6.29709, -174.138, 6.19014, 65.1651, 0.0322987, -37.6345
2, 180.00000, 117.533, -30.6333, 120.109, -151.064, 118.269, 88.239, 0, 0, 6.14735, -53.7072, 6.29709, -174.138, 6.19014, 65.1651, 0.0322987, -37.6345
2, 240.00000, 117.533, -30.6333, 120.109, -151.064, 118.269, 88.239, 0, 0, 6.14735, -53.7072, 6.29709, -174.138, 6.19014, 65.1651, 0.0322987, -37.6345
2, 300.00000, 117.533, -30.6333, 120.109, -151.064, 118.269, 88.239, 0, 0, 6.14735, -53.7072, 6.29709, -174.138, 6.19014, 65.1651, 0.0322987, -37.6345
2, 360.00000, 117.533, -30.6333, 120.109, -151.064, 118.269, 88.239, 0, 0, 6.14735, -53.7072, 6.29709, -174.138, 6.19014, 65.1651, 0.0322987, -37.6345
2, 420.00000, 117.533, -30.6333, 120.109, -151.064, 118.269, 88.239, 0, 0, 6.14735, -53.7072, 6.29709, -174.138, 6.19014, 65.1651, 0.0322987, -37.6345
2, 480.00000, 117.533, -30.6333, 120.109, -151.064, 118.269, 88.239, 0, 0, 6.14735, -53.7072, 6.29709, -174.138, 6.19014, 65.1651, 0.0322987, -37.6345
2, 540.00000, 117.533, -30.6333, 120.109, -151.064, 118.269, 88.239, 0, 0, 6.14735, -53.7072, 6.29709, -174.138, 6.19014, 65.1651, 0.0322987, -37.6345
2, 600.00000, 117.533, -30.6333, 120.109, -151.064, 118.269, 88.239, 0, 0, 6.14735, -53.7072, 6.29709, -174.138, 6.19014, 65.1651, 0.0322987, -37.6345
2, 660.00000, 117.533, -30.6333, 120.109, -151.064, 118.269, 88.239, 0, 0, 6.14735, -53.7072, 6.29709, -174.138, 6.19014, 65.1651, 0.0322987, -37.6345
