hour,t(sec),V1,VAngle1,V2,VAngle2,V3,VAngle3,V4,VAngle4,I1,IAngle1,I2,IAngle2,I3,IAngle3,I4,IAngle4
0, 60.00000, 125.781, -32.0738, 125.2, -151.741, 126.157, 88.3345, 0, 0, 6.56714, -55.1475, 6.59761, -174.815, 6.54765, 65.2606, 0.0867088, 26.5394
0, 120.00000, 125.787, -32.0797, 125.2, -151.741, 126.172, 88.3342, 0, 0, 6.5668, -55.1534, 6.59761, -174.815, 6.54686, 65.2604, 0.0880253, 26.7138
0, 180.00000, 125.793, -32.0849, 125.2, -151.741, 126.185, 88.3341, 0, 0, 6.5665, -55.1586, 6.59761, -174.815, 6.54615, 65.2602, 0.0892109, 26.8675
0, 240.00000, 125.798, -32.0897, 125.2, -151.741, 126.198, 88.3339, 0, 0, 6.56623, -55.1634, 6.59761, -174.815, 6.54551, 65.26, 0.0902785, 27.0032
0, 300.00000, 125.803, -32.0939, 125.2, -151.741, 126.209, 88.3337, 0, 0, 6.56598, -55.1677, 6.59762, -174.815, 6.54493, 65.2598, 0.0912399, 27.1232
0, 360.00000, 125.807, -32.0978, 125.2, -151.741, 126.219, 88.3336, 0, 0, 6.56576, -55.1715, 6.59762, -174.815, 6.54441, 65.2597, 0.0921062, 27.2296
0, 420.00000, 125.811, -32.1013, 125.2, -151.741, 126.228, 88.3334, 0, 0, 6.56556, -55.175, 6.59762, -174.815, 6.54394, 65.2596, 0.092888, 27.3241
0, 480.00000, 126.197, -31.9818, 125.564, -151.618, 126.623, 88.4654, 0, 0, 5.69458, -55.0556, 5.72329, -174.692, 5.67547, 65.3915, 0.0825887, 26.9223
0, 540.00000, 126.2, -31.9846, 125.564, -151.618, 126.63, 88.4654, 0, 0, 5.69444, -55.0584, 5.72329, -174.692, 5.67513, 65.3914, 0.0831517, 27.0002
0, 600.00000, 126.203, -31.9872, 125.564, -151.618, 126.637, 88.4653, 0, 0, 5.69431, -55.061, 5.72329, -174.692, 5.67483, 65.3914, 0.0836599, 27.0697
0, 660.00000, 126.206, -31.9895, 125.564, -151.618, 126.643, 88.4653, 0, 0, 5.6942, -55.0633, 5.72329, -174.692, 5.67455, 65.3913, 0.0841174, 27.1317
0, 720.00000, 126.208, -31.9916, 125.564, -151.618, 126.649, 88.4652, 0, 0, 5.6941, -55.0654, 5.7233, -174.692, 5.6743, 65.3913, 0.0845292, 27.1871
0, 780.00000, 126.21, -31.9935, 125.564, -151.618, 126.654, 88.4652, 0, 0, 5.694, -55.0673, 5.7233, -174.692, 5.67408, 65.3913, 0.0849, 27.2366
0, 840.00000, 126.212, -31.9951, 125.564, -151.618, 126.658, 88.4651, 0, 0, 5.69392, -55.069, 5.7233, -174.692, 5.67388, 65.3912, 0.0852337, 27.2808
0, 900.00000, 126.214, -31.9966, 125.564, -151.618, 126.662, 88.4651, 0, 0, 5.69385, -55.0705, 5.7233, -174.692, 5.6737, 65.3912, 0.0855341, 27.3204
0, 960.00000, 126.038, -32.2466, 125.002, -151.683, 126.666, 88.4608, 0, 0, 5.7018, -55.3204, 5.74904, -174.756, 5.67353, 65.3869, 0.130503, 25.5157
0, 1020.00000, 126.039, -32.2478, 125.002, -151.683, 126.669, 88.4608, 0, 0, 5.70174, -55.3217, 5.74904, -174.756, 5.67338, 65.3869, 0.130744, 25.5407
0, 1080.00000, 126.04, -32.2489, 125.002, -151.683, 126.672, 88.4608, 0, 0, 5.70168, -55.3228, 5.74904, -174.756, 5.67325, 65.3868, 0.13096, 25.5631
0, 1140.00000, 126.131, -32.1188, 125.299, -151.647, 126.674, 88.4614, 0, 0, 5.69756, -55.1927, 5.7354, -174.721, 5.67316, 65.3875, 0.107411, 26.5923
0, 1200.00000, 126.132, -32.1197, 125.299, -151.647, 126.676, 88.4613, 0, 0, 5.69751, -55.1936, 5.7354, -174.721, 5.67306, 65.3874, 0.107587, 26.6128
0, 1260.00000, 126.133, -32.1205, 125.299, -151.647, 126.678, 88.4613, 0, 0, 5.69747, -55.1944, 5.7354, -174.721, 5.67296, 65.3874, 0.107745, 26.6312
0, 1320.00000, 126.134, -32.1212, 125.299, -151.647, 126.68, 88.4613, 0, 0, 5.69744, -55.1951, 5.7354, -174.721, 5.67287, 65.3874, 0.107888, 26.6477
0, 1380.00000, 126.135, -32.1219, 125.299, -151.647, 126.682, 88.4613, 0, 0, 5.69741, -55.1958, 5.73541, -174.721, 5.6728, 65.3874, 0.108016, 26.6626
0, 1440.00000, 126.135, -32.1225, 125.299, -151.647, 126.684, 88.4613, 0, 0, 5.69738, -55.1963, 5.73541, -174.721, 5.67273, 65.3873, 0.108132, 26.6759
0, 1500.00000, 126.136, -32.123, 125.299, -151.647, 126.685, 88.4612, 0, 0, 5.69735, -55.1969, 5.73541, -174.721, 5.67266, 65.3873, 0.108236, 26.6879
0, 1560.00000, 126.136, -32.1235, 125.299, -151.647, 126.686, 88.4612, 0, 0, 5.69733, -55.1973, 5.73541, -174.721, 5.67261, 65.3873, 0.108329, 26.6987
0, 1620.00000, 126.137, -32.1239, 125.299, -151.647, 126.687, 88.4612, 0, 0, 5.69731, -55.1978, 5.73541, -174.721, 5.67256, 65.3873, 0.108414, 26.7083
0, 1680.00000, 126.137, -32.1243, 125.299, -151.647, 126.688, 88.4612, 0, 0, 5.69729, -55.1982, 5.73541, -174.721, 5.67251, 65.3873, 0.108489, 26.7171
0, 1740.00000, 126.138, -32.1246, 125.299, -151.647, 126.689, 88.4612, 0, 0, 5.69727, -55.1985, 5.73541, -174.721, 5.67247, 65.3873, 0.108557, 26.7249
0, 1800.00000, 125.839, -32.1481, 125.297, -151.647, 126.564, 88.3328, 0, 0, 5.71079, -55.222, 5.73548, -174.721, 5.67808, 65.2589, 0.0988058, 38.4814
0, 1860.00000, 125.839, -32.1484, 125.297, -151.647, 126.565, 88.3328, 0, 0, 5.71078, -55.2223, 5.73548, -174.721, 5.67804, 65.2589, 0.0988606, 38.4815
0, 1920.00000, 125.84, -32.1486, 125.297, -151.647, 126.566, 88.3328, 0, 0, 5.71076, -55.2225, 5.73548, -174.721, 5.67801, 65.2589, 0.0989103, 38.4815
0, 1980.00000, 125.84, -32.1488, 125.297, -151.647, 126.566, 88.3328, 0, 0, 5.71075, -55.2227, 5.73548, -174.721, 5.67799, 65.2589, 0.0989549, 38.4815
0, 2040.00000, 125.84, -32.149, 125.297, -151.647, 126.567, 88.3328, 0, 0, 5.71074, -55.2229, 5.73548, -174.721, 5.67796, 65.2589, 0.0989951, 38.4816
0, 2100.00000, 125.84, -32.1492, 125.297, -151.647, 126.567, 88.3328, 0, 0, 5.71073, -55.2231, 5.73548, -174.721, 5.67794, 65.2588, 0.0990313, 38.4816
0, 2160.00000, 125.841, -32.1494, 125.297, -151.647, 126.568, 88.3328, 0, 0, 5.71073, -55.2233, 5.73548, -174.721, 5.67792, 65.2588, 0.0990638, 38.4816
0, 2220.00000, 125.841, -32.1495, 125.297, -151.647, 126.568, 88.3327, 0, 0, 5.71072, -55.2234, 5.73548, -174.721, 5.67791, 65.2588, 0.0990931, 38.4816
0, 2280.00000, 125.841, -32.1496, 125.297, -151.647, 126.568, 88.3327, 0, 0, 5.71071, -55.2236, 5.73548, -174.721, 5.67789, 65.2588, 0.0991195, 38.4816
0, 2340.00000, 125.841, -32.1498, 125.297, -151.647, 126.569, 88.3327, 0, 0, 5.71071, -55.2237, 5.73548, -174.721, 5.67788, 65.2588, 0.0991432, 38.4816
0, 2400.00000, 125.841, -32.1499, 125.297, -151.647, 126.569, 88.3327, 0, 0, 5.7107, -55.2238, 5.73548, -174.721, 5.67786, 65.2588, 0.0991646, 38.4816
0, 2460.00000, 125.841, -32.15, 125.297, -151.647, 126.569, 88.3327, 0, 0, 5.7107, -55.2239, 5.73548, -174.721, 5.67785, 65.2588, 0.0991838, 38.4817
0, 2520.00000, 125.841, -32.1501, 125.297, -151.647, 126.569, 88.3327, 0, 0, 5.71069, -55.224, 5.73548, -174.721, 5.67784, 65.2588, 0.0992011, 38.4817
0, 2580.00000, 125.841, -32.1501, 125.297, -151.647, 126.57, 88.3327, 0, 0, 5.71069, -55.224, 5.73548, -174.721, 5.67783, 65.2588, 0.0992167, 38.4817
0, 2640.00000, 125.841, -32.1502, 125.297, -151.647, 126.57, 88.3327, 0, 0, 5.71068, -55.2241, 5.73548, -174.721, 5.67782, 65.2588, 0.0992307, 38.4817
0, 2700.00000, 125.842, -32.1503, 125.297, -151.647, 126.57, 88.3327, 0, 0, 5.71068, -55.2242, 5.73548, -174.721, 5.67782, 65.2588, 0.0992433, 38.4817
0, 2760.00000, 126.14, -32.1168, 125.298, -151.647, 126.67, 88.4623, 0, 0, 5.69718, -55.1908, 5.73544, -174.721, 5.67332, 65.3884, 0.107257, 26.3002
0, 2820.00000, 126.14, -32.1169, 125.298, -151.647, 126.67, 88.4623, 0, 0, 5.69718, -55.1908, 5.73544, -174.721, 5.67331, 65.3884, 0.107269, 26.3012
0, 2880.00000, 126.14, -32.1169, 125.298, -151.647, 126.67, 88.4623, 0, 0, 5.69718, -55.1909, 5.73544, -174.721, 5.67331, 65.3884, 0.107278, 26.3023
0, 2940.00000, 126.14, -32.117, 125.298, -151.647, 126.671, 88.4623, 0, 0, 5.69717, -55.1909, 5.73544, -174.721, 5.6733, 65.3884, 0.107286, 26.3033
0, 3000.00000, 126.14, -32.117, 125.298, -151.647, 126.671, 88.4623, 0, 0, 5.69717, -55.1909, 5.73544, -174.721, 5.6733, 65.3884, 0.107293, 26.3041
0, 3060.00000, 126.14, -32.1171, 125.298, -151.647, 126.671, 88.4623, 0, 0, 5.69717, -55.191, 5.73544, -174.721, 5.6733, 65.3884, 0.107299, 26.3049
0, 3120.00000, 126.14, -32.1171, 125.298, -151.647, 126.671, 88.4623, 0, 0, 5.69717, -55.191, 5.73544, -174.721, 5.67329, 65.3884, 0.107305, 26.3056
0, 3180.00000, 126.14, -32.1171, 125.298, -151.647, 126.671, 88.4623, 0, 0, 5.69717, -55.191, 5.73544, -174.721, 5.67329, 65.3884, 0.107311, 26.3062
0, 3240.00000, 126.14, -32.1171, 125.298, -151.647, 126.671, 88.4623, 0, 0, 5.69717, -55.1911, 5.73544, -174.721, 5.67329, 65.3884, 0.107315, 26.3068
0, 3300.00000, 126.14, -32.1172, 125.298, -151.647, 126.671, 88.4623, 0, 0, 5.69717, -55.1911, 5.73544, -174.721, 5.67328, 65.3884, 0.10732, 26.3073
0, 3360.00000, 126.14, -32.1172, 125.298, -151.647, 126.671, 88.4623, 0, 0, 5.69716, -55.1911, 5.73544, -174.721, 5.67328, 65.3884, 0.107324, 26.3078
0, 3420.00000, 126.14, -32.1172, 125.298, -151.647, 126.671, 88.4623, 0, 0, 5.69716, -55.1911, 5.73544, -174.721, 5.67328, 65.3884, 0.107327, 26.3082
0, 3480.00000, 126.14, -32.1172, 125.298, -151.647, 126.671, 88.4623, 0, 0, 5.69716, -55.1911, 5.73544, -174.721, 5.67328, 65.3884, 0.10733, 26.3086
0, 3540.00000, 126.14, -32.1172, 125.298, -151.647, 126.671, 88.4623, 0, 0, 5.69716, -55.1911, 5.73544, -174.721, 5.67327, 65.3884, 0.107333, 26.3089
1, 0.00000, 126.14, -32.1172, 125.298, -151.647, 126.671, 88.4623, 0, 0, 5.69716, -55.1912, 5.73544, -174.721, 5.67327, 65.3884, 0.107336, 26.3092
1, 60.00000, 126.227, -31.99, 125.587, -151.613, 126.671, 88.4629, 0, 0, 5.69325, -55.064, 5.72223, -174.687, 5.67331, 65.389, 0.0843216, 27.6804
1, 120.00000, 126.227, -31.9901, 125.587, -151.613, 126.671, 88.4629, 0, 0, 5.69324, -55.064, 5.72223, -174.687, 5.67331, 65.389, 0.0843236, 27.6807
1, 180.00000, 126.227, -31.9901, 125.587, -151.613, 126.671, 88.4629, 0, 0, 5.69324, -55.064, 5.72223, -174.687, 5.6733, 65.389, 0.0843255, 27.681
1, 240.00000, 126.227, -31.9901, 125.587, -151.613, 126.671, 88.4629, 0, 0, 5.69324, -55.064, 5.72223, -174.687, 5.6733, 65.389, 0.0843271, 27.6812
1, 300.00000, 126.227, -31.9901, 125.587, -151.613, 126.671, 88.4629, 0, 0, 5.69324, -55.064, 5.72223, -174.687, 5.6733, 65.389, 0.0843286, 27.6814
1, 360.00000, 126.227, -31.9901, 125.587, -151.613, 126.671, 88.4629, 0, 0, 5.69324, -55.064, 5.72223, -174.687, 5.6733, 65.389, 0.08433, 27.6816
1, 420.00000, 126.227, -31.9901, 125.587, -151.613, 126.671, 88.4629, 0, 0, 5.69324, -55.064, 5.72223, -174.687, 5.6733, 65.389, 0.0843312, 27.6817
1, 480.00000, 126.227, -31.9901, 125.587, -151.613, 126.671, 88.4629, 0, 0, 5.69324, -55.064, 5.72223, -174.687, 5.6733, 65.389, 0.0843323, 27.6819
1, 540.00000, 126.227, -31.9901, 125.587, -151.613, 126.671, 88.4629, 0, 0, 5.69324, -55.064, 5.72223, -174.687, 5.6733, 65.389, 0.0843333, 27.682
1, 600.00000, 126.227, -31.9901, 125.587, -151.613, 126.671, 88.4629, 0, 0, 5.69324, -55.064, 5.72223, -174.687, 5.6733, 65.389, 0.0843342, 27.6821
1, 660.00000, 126.227, -31.9901, 125.587, -151.613, 126.671, 88.4629, 0, 0, 5.69324, -55.064, 5.72223, -174.687, 5.6733, 65.389, 0.084335, 27.6822
1, 720.00000, 126.227, -31.9901, 125.587, -151.613, 126.671, 88.4629, 0, 0, 5.69324, -55.064, 5.72223, -174.687, 5.6733, 65.389, 0.0843357, 27.6823
1, 780.00000, 126.228, -31.9921, 125.662, -151.495, 126.957, 88.5005, 0, 0, 5.6932, -55.066, 5.71883, -174.568, 5.6605, 65.4266, 0.0997892, 37.5789
1, 840.00000, 126.228, -31.9921, 125.662, -151.495, 126.957, 88.5005, 0, 0, 5.6932, -55.066, 5.71883, -174.568, 5.66049, 65.4266, 0.099791, 37.5788
1, 900.00000, 126.228, -31.9921, 125.662, -151.495, 126.957, 88.5005, 0, 0, 5.6932, -55.066, 5.71883, -174.568, 5.66049, 65.4266, 0.0997916, 37.5788
1, 960.00000, 126.228, -31.9921, 125.662, -151.495, 126.957, 88.5005, 0, 0, 5.6932, -55.066, 5.71883, -174.568, 5.66049, 65.4266, 0.099792, 37.5788
1, 1020.00000, 126.228, -31.9921, 125.662, -151.495, 126.957, 88.5005, 0, 0, 5.6932, -55.066, 5.71883, -174.568, 5.66049, 65.4266, 0.0997925, 37.5788
1, 1080.00000, 126.228, -31.9921, 125.662, -151.495, 126.957, 88.5005, 0, 0, 5.6932, -55.066, 5.71883, -174.568, 5.66049, 65.4266, 0.0997929, 37.5788
1, 1140.00000, 126.228, -31.9921, 125.662, -151.495, 126.957, 88.5005, 0, 0, 5.6932, -55.066, 5.71883, -174.568, 5.66049, 65.4266, 0.0997933, 37.5788
1, 1200.00000, 126.228, -31.9921, 125.662, -151.495, 126.957, 88.5005, 0, 0, 5.6932, -55.066, 5.71883, -174.568, 5.66049, 65.4266, 0.0997936, 37.5788
1, 1260.00000, 126.228, -31.9921, 125.662, -151.495, 126.957, 88.5005, 0, 0, 5.6932, -55.066, 5.71883, -174.568, 5.66049, 65.4266, 0.0997939, 37.5788
1, 1320.00000, 126.228, -31.9921, 125.662, -151.495, 126.957, 88.5005, 0, 0, 5.6932, -55.066, 5.71883, -174.568, 5.66049, 65.4266, 0.0997941, 37.5788
1, 1380.00000, 126.228, -31.9921, 125.662, -151.495, 126.957, 88.5005, 0, 0, 5.6932, -55.066, 5.71883, -174.568, 5.66049, 65.4266, 0.0997944, 37.5788
1, 1440.00000, 126.228, -31.9921, 125.662, -151.495, 126.957, 88.5005, 0, 0, 5.6932, -55.0661, 5.71883, -174.568, 5.66049, 65.4266, 0.0997946, 37.5788
1, 1500.00000, 126.228, -31.9921, 125.662, -151.495, 126.957, 88.5005, 0, 0, 5.6932, -55.0661, 5.71883, -174.568, 5.66049, 65.4266, 0.0997948, 37.5788
1, 1560.00000, 126.228, -31.9921, 125.662, -151.495, 126.957, 88.5005, 0, 0, 5.6932, -55.0661, 5.71883, -174.568, 5.66049, 65.4266, 0.0997949, 37.5788
1, 1620.00000, 126.228, -31.9921, 125.662, -151.495, 126.957, 88.5005, 0, 0, 5.6932, -55.0661, 5.71883, -174.568, 5.66049, 65.4266, 0.0997951, 37.5788
1, 1680.00000, 126.228, -31.9921, 125.662, -151.495, 126.957, 88.5005, 0, 0, 5.6932, -55.0661, 5.71883, -174.568, 5.66049, 65.4266, 0.0997952, 37.5788
1, 1740.00000, 126.228, -31.9921, 125.662, -151.495, 126.957, 88.5005, 0, 0, 5.6932, -55.0661, 5.71883, -174.568, 5.66049, 65.4266, 0.0997954, 37.5788
1, 1800.00000, 126.228, -31.9921, 125.662, -151.495, 126.957, 88.5005, 0, 0, 5.6932, -55.0661, 5.71883, -174.568, 5.66049, 65.4266, 0.0997955, 37.5788
1, 1860.00000, 126.228, -31.9921, 125.662, -151.495, 126.957, 88.5005, 0, 0, 5.6932, -55.0661, 5.71883, -174.568, 5.66049, 65.4266, 0.0997956, 37.5788
1, 1920.00000, 126.228, -31.9921, 125.662, -151.495, 126.957, 88.5005, 0, 0, 5.6932, -55.0661, 5.71883, -174.568, 5.66049, 65.4266, 0.0997957, 37.5788
1, 1980.00000, 126.228, -31.9921, 125.662, -151.495, 126.957, 88.5005, 0, 0, 5.6932, -55.0661, 5.71883, -174.568, 5.66049, 65.4266, 0.0997958, 37.5788
1, 2040.00000, 126.228, -31.9921, 125.662, -151.495, 126.957, 88.5005, 0, 0, 5.6932, -55.0661, 5.71883, -174.568, 5.66049, 65.4266, 0.0997958, 37.5788
1, 2100.00000, 126.228, -31.9921, 125.662, -151.495, 126.957, 88.5005, 0, 0, 5.6932, -55.0661, 5.71883, -174.568, 5.66049, 65.4266, 0.0997959, 37.5788
1, 2160.00000, 126.228, -31.9921, 125.662, -151.495, 126.957, 88.5005, 0, 0, 5.6932, -55.0661, 5.71883, -174.568, 5.66049, 65.4266, 0.099796, 37.5788
1, 2220.00000, 126.526, -31.9691, 125.663, -151.495, 127.088, 88.63, 0, 0, 5.67979, -55.043, 5.71881, -174.568, 5.65466, 65.5561, 0.110194, 26.1437
1, 2280.00000, 126.526, -31.9691, 125.663, -151.495, 127.088, 88.63, 0, 0, 5.67979, -55.043, 5.71881, -174.568, 5.65466, 65.5561, 0.110196, 26.1438
1, 2340.00000, 126.526, -31.9691, 125.663, -151.495, 127.088, 88.63, 0, 0, 5.67979, -55.043, 5.71881, -174.568, 5.65466, 65.5561, 0.110196, 26.1438
1, 2400.00000, 126.526, -31.9691, 125.663, -151.495, 127.088, 88.63, 0, 0, 5.67979, -55.043, 5.71881, -174.568, 5.65466, 65.5561, 0.110196, 26.1438
1, 2460.00000, 126.526, -31.9691, 125.663, -151.495, 127.088, 88.63, 0, 0, 5.67979, -55.043, 5.71881, -174.568, 5.65466, 65.5561, 0.110196, 26.1438
1, 2520.00000, 126.526, -31.9691, 125.663, -151.495, 127.088, 88.63, 0, 0, 5.67979, -55.043, 5.71881, -174.568, 5.65466, 65.5561, 0.110196, 26.1438
1, 2580.00000, 126.526, -31.9691, 125.663, -151.495, 127.088, 88.63, 0, 0, 5.67979, -55.043, 5.71881, -174.568, 5.65466, 65.5561, 0.110196, 26.1438
1, 2640.00000, 126.526, -31.9691, 125.663, -151.495, 127.088, 88.63, 0, 0, 5.67979, -55.043, 5.71881, -174.568, 5.65466, 65.5561, 0.110196, 26.1438
1, 2700.00000, 126.526, -31.9691, 125.663, -151.495, 127.088, 88.63, 0, 0, 5.67979, -55.043, 5.71881, -174.568, 5.65466, 65.5561, 0.110196, 26.1438
1, 2760.00000, 126.526, -31.9691, 125.663, -151.495, 127.088, 88.63, 0, 0, 5.67979, -55.043, 5.71881, -174.568, 5.65466, 65.5561, 0.110196, 26.1438
1, 2820.00000, 126.526, -31.9691, 125.663, -151.495, 127.088, 88.63, 0, 0, 5.67979, -55.043, 5.71881, -174.568, 5.65466, 65.5561, 0.110196, 26.1439
1, 2880.00000, 126.526, -31.9691, 125.663, -151.495, 127.088, 88.63, 0, 0, 5.67979, -55.043, 5.71881, -174.568, 5.65466, 65.5561, 0.110196, 26.1439
1, 2940.00000, 126.526, -31.9691, 125.663, -151.495, 127.088, 88.63, 0, 0, 5.67979, -55.043, 5.71881, -174.568, 5.65466, 65.5561, 0.110196, 26.1439
1, 3000.00000, 126.526, -31.9691, 125.663, -151.495, 127.088, 88.63, 0, 0, 5.67979, -55.043, 5.71881, -174.568, 5.65466, 65.5561, 0.110196, 26.1439
1, 3060.00000, 126.526, -31.9691, 125.663, -151.495, 127.088, 88.63, 0, 0, 5.67979, -55.043, 5.71881, -174.568, 5.65466, 65.5561, 0.110196, 26.1439
1, 3120.00000, 126.526, -31.9691, 125.663, -151.495, 127.088, 88.63, 0, 0, 5.67979, -55.043, 5.71881, -174.568, 5.65466, 65.5561, 0.110196, 26.1439
1, 3180.00000, 126.526, -31.9691, 125.663, -151.495, 127.088, 88.63, 0, 0, 5.67979, -55.043, 5.71881, -174.568, 5.65466, 65.5561, 0.110196, 26.1439
1, 3240.00000, 126.526, -31.9691, 125.663, -151.495, 127.088, 88.63, 0, 0, 5.67979, -55.043, 5.71881, -174.568, 5.65466, 65.5561, 0.110196, 26.1439
1, 3300.00000, 126.526, -31.9691, 125.663, -151.495, 127.088, 88.63, 0, 0, 5.67979, -55.043, 5.71881, -174.568, 5.65466, 65.5561, 0.110196, 26.1439
1, 3360.00000, 126.526, -31.9691, 125.663, -151.495, 127.088, 88.63, 0, 0, 5.67979, -55.043, 5.71881, -174.568, 5.65466, 65.5561, 0.110196, 26.1439
1, 3420.00000, 126.526, -31.9691, 125.663, -151.495, 127.088, 88.63, 0, 0, 5.67979, -55.043, 5.71881, -174.568, 5.65466, 65.5561, 0.110196, 26.1439
1, 3480.00000, 126.526, -31.9691, 125.663, -151.495, 127.088, 88.63, 0, 0, 5.67979, -55.043, 5.71881, -174.568, 5.65466, 65.5561, 0.110196, 26.1439
1, 3540.00000, 126.526, -31.9691, 125.663, -151.495, 127.088, 88.63, 0, 0, 5.67979, -55.043, 5.71881, -174.568, 5.65466, 65.5561, 0.110196, 26.1439
2, 0.00000, 126.526, -31.9691, 125.663, -151.495, 127.088, 88.63, 0, 0, 5.67979, -55.043, 5.71881, -174.568, 5.65466, 65.5561, 0.110196, 26.1439
2, 60.00000, 126.526, -31.9691, 125.663, -151.495, 127.088, 88.63, 0, 0, 5.67979, -55.043, 5.71881, -174.568, 5.65466, 65.5561, 0.110196, 26.1439
2, 120.00000, 126.526, -31.9691, 125.663, -151.495, 127.088, 88.63, 0, 0, 5.67979, -55.043, 5.71881, -174.568, 5.65466, 65.5561, 0.110196, 26.1439
2, 180.00000, 126.526, -31.9691, 125.663, -151.495, 127.088, 88.63, 0, 0, 5.67979, -55.043, 5.71881, -174.568, 5.65466, 65.5561, 0.110196, 26.1439
2, 240.00000, 126.526, -31.9691, 125.663, -151.495, 127.088, 88.63, 0, 0, 5.67979, -55.043, 5.71881, -174.568, 5.65466, 65.5561, 0.110196, 26.1439
2, 300.00000, 126.526, -31.9691, 125.663, -151.495, 127.088, 88.63, 0, 0, 5.67979, -55.043, 5.71881, -174.568, 5.65466, 65.5561, 0.110196, 26.1439
2, 360.00000, 126.526, -31.9691, 125.663, -151.495, 127.088, 88.63, 0, 0, 5.67979, -55.043, 5.71881, -174.568, 5.65466, 65.5561, 0.110196, 26.1439
2, 420.00000, 126.526, -31.9691, 125.663, -151.495, 127.088, 88.63, 0, 0, 5.67979, -55.043, 5.71881, -174.568, 5.65466, 65.5561, 0.110196, 26.1439
2, 480.00000, 126.526, -31.9691, 125.663, -151.495, 127.088, 88.63, 0, 0, 5.67979, -55.043, 5.71881, -174.568, 5.65466, 65.5561, 0.110196, 26.1439
2, 540.00000, 126.526, -31.9691, 125.663, -151.495, 127.088, 88.63, 0, 0, 5.67979, -55.043, 5.71881, -174.568, 5.65466, 65.5561, 0.110196, 26.1439
2, 600.00000, 126.526, -31.9691, 125.663, -151.495, 127.088, 88.63, 0, 0, 5.67979, -55.043, 5.71881, -174.568, 5.65466, 65.5561, 0.110196, 26.1439
2, 660.00000, 126.526, -31.9691, 125.663, -151.495, 127.088, 88.63, 0, 0, 5.67979, -55.043, 5.71881, -174.568, 5.65466, 65.5561, 0.110196, 26.1439
2, 720.00000, 126.526, -31.9691, 125.663, -151.495, 127.088, 88.63, 0, 0, 5.67979, -55.043, 5.71881, -174.568, 5.65466, 65.5561, 0.110196, 26.1439
2, 780.00000, 126.526, -31.9691, 125.663, -151.495, 127.088, 88.63, 0, 0, 5.67979, -55.043, 5.71881, -174.568, 5.65466, 65.5561, 0.110196, 26.1439
