hour,t(sec),V1,VAngle1,V2,VAngle2,V3,VAngle3,V4,VAngle4,I1,IAngle1,I2,IAngle2,I3,IAngle3,I4,IAngle4
0, 60.00000, 117.278, -32.9947, 117.356, -150.575, 122.711, 88.3626, 0, 0, 8.24471, -56.0689, 8.25064, -173.648, 8.36801, 65.289, 0.181614, 56.7232
0, 120.00000, 117.28, -33.0087, 117.356, -150.576, 122.746, 88.3573, 0, 0, 8.24487, -56.0828, 8.25063, -173.649, 8.36555, 65.2837, 0.185721, 56.8544
0, 180.00000, 117.282, -33.0212, 117.356, -150.576, 122.778, 88.3525, 0, 0, 8.24502, -56.0953, 8.25062, -173.65, 8.36335, 65.2789, 0.189409, 56.9683
0, 240.00000, 117.284, -33.0326, 117.356, -150.577, 122.806, 88.3482, 0, 0, 8.24515, -56.1066, 8.2506, -173.65, 8.36137, 65.2746, 0.192728, 57.0668
0, 300.00000, 117.286, -33.0427, 117.355, -150.578, 122.832, 88.3443, 0, 0, 8.24526, -56.1168, 8.25059, -173.651, 8.35959, 65.2707, 0.195715, 57.1525
0, 360.00000, 117.287, -33.0519, 117.355, -150.578, 122.855, 88.3408, 0, 0, 8.24536, -56.126, 8.25059, -173.652, 8.35799, 65.2671, 0.198403, 57.2272
0, 420.00000, 117.288, -33.0602, 117.355, -150.579, 122.876, 88.3376, 0, 0, 8.24546, -56.1342, 8.25058, -173.652, 8.35655, 65.264, 0.200823, 57.2927
0, 480.00000, 118.317, -32.9761, 118.327, -150.509, 124.055, 88.4425, 0, 0, 7.24347, -56.05, 7.24413, -173.583, 7.20108, 65.3689, 0.312085, 60.7989
0, 540.00000, 118.318, -32.9829, 118.327, -150.51, 124.072, 88.4399, 0, 0, 7.24354, -56.0568, 7.24413, -173.583, 7.20009, 65.3662, 0.313798, 60.8091
0, 600.00000, 118.319, -32.989, 118.327, -150.51, 124.087, 88.4375, 0, 0, 7.2436, -56.0629, 7.24412, -173.584, 7.1992, 65.3638, 0.315336, 60.8186
0, 660.00000, 118.32, -32.9945, 118.327, -150.51, 124.101, 88.4354, 0, 0, 7.24366, -56.0684, 7.24412, -173.584, 7.19841, 65.3617, 0.31672, 60.827
0, 720.00000, 118.321, -32.9994, 118.327, -150.511, 124.113, 88.4335, 0, 0, 7.24371, -56.0733, 7.24412, -173.584, 7.19769, 65.3598, 0.317966, 60.8345
0, 780.00000, 118.321, -33.0039, 118.327, -150.511, 124.124, 88.4318, 0, 0, 7.24376, -56.0778, 7.24412, -173.585, 7.19704, 65.358, 0.319086, 60.8412
0, 840.00000, 118.322, -33.0079, 118.327, -150.511, 124.134, 88.4302, 0, 0, 7.2438, -56.0818, 7.24411, -173.585, 7.19646, 65.3564, 0.320095, 60.8471
0, 900.00000, 118.323, -33.0115, 118.327, -150.511, 124.142, 88.4288, 0, 0, 7.24383, -56.0854, 7.24411, -173.585, 7.19594, 65.355, 0.321002, 60.8524
0, 960.00000, 118.323, -33.0148, 118.327, -150.512, 124.15, 88.4275, 0, 0, 7.24387, -56.0887, 7.24411, -173.585, 7.19547, 65.3538, 0.321819, 60.8572
0, 1020.00000, 118.324, -33.0177, 118.327, -150.512, 124.158, 88.4264, 0, 0, 7.2439, -56.0916, 7.24411, -173.585, 7.19505, 65.3526, 0.322554, 60.8614
0, 1080.00000, 118.324, -33.0203, 118.327, -150.512, 124.164, 88.4254, 0, 0, 7.24392, -56.0942, 7.24411, -173.586, 7.19466, 65.3516, 0.323215, 60.8652
0, 1140.00000, 118.324, -33.0227, 118.327, -150.512, 124.17, 88.4245, 0, 0, 7.24394, -56.0966, 7.24411, -173.586, 7.19432, 65.3506, 0.323811, 60.8686
0, 1200.00000, 118.325, -33.0248, 118.327, -150.512, 124.175, 88.4236, 0, 0, 7.24397, -56.0987, 7.2441, -173.586, 7.19401, 65.3498, 0.324346, 60.8716
0, 1260.00000, 118.325, -33.0268, 118.327, -150.512, 124.18, 88.4229, 0, 0, 7.24398, -56.1007, 7.2441, -173.586, 7.19374, 65.349, 0.324829, 60.8744
0, 1320.00000, 118.325, -33.0285, 118.327, -150.512, 124.184, 88.4222, 0, 0, 7.244, -56.1024, 7.2441, -173.586, 7.19349, 65.3484, 0.325262, 60.8768
0, 1380.00000, 118.326, -33.03, 118.327, -150.512, 124.188, 88.4216, 0, 0, 7.24402, -56.104, 7.2441, -173.586, 7.19326, 65.3477, 0.325653, 60.879
0, 1440.00000, 118.326, -33.0314, 118.327, -150.512, 124.191, 88.4211, 0, 0, 7.24403, -56.1054, 7.2441, -173.586, 7.19306, 65.3472, 0.326004, 60.881
0, 1500.00000, 118.326, -33.0327, 118.327, -150.512, 124.194, 88.4206, 0, 0, 7.24404, -56.1066, 7.2441, -173.586, 7.19288, 65.3467, 0.326321, 60.8827
0, 1560.00000, 118.326, -33.0338, 118.327, -150.513, 124.197, 88.4201, 0, 0, 7.24405, -56.1078, 7.2441, -173.586, 7.19271, 65.3463, 0.326605, 60.8843
0, 1620.00000, 118.326, -33.0349, 118.327, -150.513, 124.2, 88.4197, 0, 0, 7.24406, -56.1088, 7.2441, -173.586, 7.19257, 65.3458, 0.326861, 60.8857
0, 1680.00000, 118.327, -33.0358, 118.327, -150.513, 124.202, 88.4194, 0, 0, 7.24407, -56.1097, 7.2441, -173.587, 7.19243, 65.3455, 0.327092, 60.887
0, 1740.00000, 118.327, -33.0366, 118.327, -150.513, 124.204, 88.419, 0, 0, 7.24408, -56.1105, 7.2441, -173.587, 7.19231, 65.3452, 0.327299, 60.8881
0, 1800.00000, 118.327, -33.0373, 118.327, -150.513, 124.206, 88.4188, 0, 0, 7.24409, -56.1113, 7.2441, -173.587, 7.19221, 65.3449, 0.327486, 60.8892
0, 1860.00000, 118.327, -33.038, 118.327, -150.513, 124.207, 88.4185, 0, 0, 7.24409, -56.1119, 7.2441, -173.587, 7.19211, 65.3446, 0.327654, 60.8901
0, 1920.00000, 118.327, -33.0386, 118.327, -150.513, 124.209, 88.4183, 0, 0, 7.2441, -56.1125, 7.2441, -173.587, 7.19202, 65.3444, 0.327805, 60.8909
0, 1980.00000, 118.327, -33.0392, 118.327, -150.513, 124.21, 88.418, 0, 0, 7.24411, -56.1131, 7.2441, -173.587, 7.19194, 65.3441, 0.327941, 60.8917
0, 2040.00000, 118.327, -33.0397, 118.327, -150.513, 124.211, 88.4179, 0, 0, 7.24411, -56.1136, 7.2441, -173.587, 7.19187, 65.344, 0.328064, 60.8923
0, 2100.00000, 118.327, -33.0401, 118.327, -150.513, 124.212, 88.4177, 0, 0, 7.24411, -56.114, 7.2441, -173.587, 7.19181, 65.3438, 0.328174, 60.893
0, 2160.00000, 118.327, -33.0405, 118.327, -150.513, 124.213, 88.4175, 0, 0, 7.24412, -56.1144, 7.2441, -173.587, 7.19175, 65.3436, 0.328273, 60.8935
0, 2220.00000, 118.327, -33.0408, 118.327, -150.513, 124.214, 88.4174, 0, 0, 7.24412, -56.1148, 7.2441, -173.587, 7.1917, 65.3435, 0.328363, 60.894
0, 2280.00000, 118.327, -33.0412, 118.327, -150.513, 124.215, 88.4173, 0, 0, 7.24413, -56.1151, 7.2441, -173.587, 7.19166, 65.3434, 0.328443, 60.8944
0, 2340.00000, 118.327, -33.0415, 118.327, -150.513, 124.216, 88.4172, 0, 0, 7.24413, -56.1154, 7.2441, -173.587, 7.19161, 65.3432, 0.328515, 60.8948
0, 2400.00000, 118.327, -33.0417, 118.327, -150.513, 124.216, 88.417, 0, 0, 7.24413, -56.1156, 7.2441, -173.587, 7.19158, 65.3431, 0.32858, 60.8952
0, 2460.00000, 118.328, -33.042, 118.327, -150.513, 124.217, 88.417, 0, 0, 7.24413, -56.1159, 7.2441, -173.587, 7.19154, 65.343, 0.328639, 60.8955
0, 2520.00000, 118.328, -33.0422, 118.327, -150.513, 124.217, 88.4169, 0, 0, 7.24413, -56.1161, 7.2441, -173.587, 7.19151, 65.343, 0.328692, 60.8958
0, 2580.00000, 118.328, -33.0424, 118.327, -150.513, 124.218, 88.4168, 0, 0, 7.24414, -56.1163, 7.24409, -173.587, 7.19148, 65.3429, 0.328739, 60.896
0, 2640.00000, 118.328, -33.0425, 118.327, -150.513, 124.218, 88.4167, 0, 0, 7.24414, -56.1164, 7.24409, -173.587, 7.19146, 65.3428, 0.328782, 60.8963
0, 2700.00000, 118.328, -33.0427, 118.327, -150.513, 124.219, 88.4167, 0, 0, 7.24414, -56.1166, 7.24409, -173.587, 7.19144, 65.3428, 0.32882, 60.8965
0, 2760.00000, 118.328, -33.0428, 118.327, -150.513, 124.219, 88.4166, 0, 0, 7.24414, -56.1167, 7.24409, -173.587, 7.19142, 65.3427, 0.328855, 60.8967
0, 2820.00000, 118.328, -33.0429, 118.327, -150.513, 124.219, 88.4166, 0, 0, 7.24414, -56.1169, 7.24409, -173.587, 7.1914, 65.3427, 0.328886, 60.8968
0, 2880.00000, 118.328, -33.043, 118.327, -150.513, 124.22, 88.4165, 0, 0, 7.24414, -56.117, 7.24409, -173.587, 7.19138, 65.3426, 0.328914, 60.897
0, 2940.00000, 118.328, -33.0431, 118.327, -150.513, 124.22, 88.4165, 0, 0, 7.24414, -56.1171, 7.24409, -173.587, 7.19137, 65.3426, 0.328939, 60.8971
0, 3000.00000, 118.328, -33.0432, 118.327, -150.513, 124.22, 88.4165, 0, 0, 7.24414, -56.1172, 7.24409, -173.587, 7.19136, 65.3425, 0.328962, 60.8972
0, 3060.00000, 118.328, -33.0433, 118.327, -150.513, 124.22, 88.4164, 0, 0, 7.24415, -56.1172, 7.24409, -173.587, 7.19134, 65.3425, 0.328983, 60.8974
0, 3120.00000, 118.328, -33.0434, 118.327, -150.513, 124.221, 88.4164, 0, 0, 7.24415, -56.1173, 7.24409, -173.587, 7.19133, 65.3425, 0.329001, 60.8975
0, 3180.00000, 118.328, -33.0435, 118.327, -150.513, 124.221, 88.4164, 0, 0, 7.24415, -56.1174, 7.24409, -173.587, 7.19132, 65.3425, 0.329017, 60.8975
0, 3240.00000, 118.328, -33.0435, 118.327, -150.513, 124.221, 88.4163, 0, 0, 7.24415, -56.1174, 7.24409, -173.587, 7.19132, 65.3424, 0.329032, 60.8976
0, 3300.00000, 118.328, -33.0436, 118.327, -150.513, 124.221, 88.4163, 0, 0, 7.24415, -56.1175, 7.24409, -173.587, 7.19131, 65.3424, 0.329046, 60.8977
0, 3360.00000, 118.328, -33.0436, 118.327, -150.513, 124.221, 88.4163, 0, 0, 7.24415, -56.1175, 7.24409, -173.587, 7.1913, 65.3424, 0.329058, 60.8978
0, 3420.00000, 118.328, -33.0437, 118.327, -150.513, 124.221, 88.4163, 0, 0, 7.24415, -56.1176, 7.24409, -173.587, 7.1913, 65.3424, 0.329069, 60.8978
0, 3480.00000, 118.328, -33.0437, 118.327, -150.513, 124.221, 88.4163, 0, 0, 7.24415, -56.1176, 7.24409, -173.587, 7.19129, 65.3424, 0.329078, 60.8979
0, 3540.00000, 118.328, -33.0437, 118.327, -150.513, 124.221, 88.4163, 0, 0, 7.24415, -56.1177, 7.24409, -173.587, 7.19128, 65.3423, 0.329087, 60.8979
1, 0.00000, 118.328, -33.0438, 118.327, -150.513, 124.221, 88.4162, 0, 0, 7.24415, -56.1177, 7.24409, -173.587, 7.19128, 65.3423, 0.329095, 60.898
1, 60.00000, 118.409, -32.9137, 118.607, -150.481, 124.223, 88.4188, 0, 0, 7.24965, -55.9876, 7.26316, -173.555, 7.19121, 65.3449, 0.33136, 60.6992
1, 120.00000, 118.409, -32.9137, 118.607, -150.481, 124.223, 88.4188, 0, 0, 7.24965, -55.9877, 7.26316, -173.555, 7.1912, 65.3449, 0.331367, 60.6993
1, 180.00000, 118.409, -32.9138, 118.607, -150.481, 124.223, 88.4188, 0, 0, 7.24965, -55.9877, 7.26316, -173.555, 7.1912, 65.3449, 0.331373, 60.6993
1, 240.00000, 118.409, -32.9138, 118.607, -150.481, 124.223, 88.4188, 0, 0, 7.24965, -55.9877, 7.26316, -173.555, 7.1912, 65.3449, 0.331378, 60.6993
1, 300.00000, 118.409, -32.9138, 118.607, -150.481, 124.223, 88.4188, 0, 0, 7.24965, -55.9877, 7.26316, -173.555, 7.1912, 65.3449, 0.331383, 60.6993
1, 360.00000, 118.409, -32.9138, 118.607, -150.481, 124.223, 88.4188, 0, 0, 7.24965, -55.9877, 7.26316, -173.555, 7.19119, 65.3449, 0.331387, 60.6994
1, 420.00000, 118.409, -32.9138, 118.607, -150.481, 124.223, 88.4188, 0, 0, 7.24965, -55.9877, 7.26316, -173.555, 7.19119, 65.3449, 0.331391, 60.6994
1, 480.00000, 118.409, -32.9138, 118.607, -150.481, 124.223, 88.4188, 0, 0, 7.24965, -55.9878, 7.26316, -173.555, 7.19119, 65.3449, 0.331394, 60.6994
1, 540.00000, 118.409, -32.9139, 118.607, -150.481, 124.223, 88.4188, 0, 0, 7.24965, -55.9878, 7.26316, -173.555, 7.19119, 65.3449, 0.331397, 60.6994
1, 600.00000, 118.409, -32.9139, 118.607, -150.481, 124.223, 88.4188, 0, 0, 7.24965, -55.9878, 7.26316, -173.555, 7.19118, 65.3449, 0.3314, 60.6995
1, 660.00000, 118.409, -32.9139, 118.607, -150.481, 124.223, 88.4188, 0, 0, 7.24965, -55.9878, 7.26316, -173.555, 7.19118, 65.3449, 0.331403, 60.6995
1, 720.00000, 118.409, -32.9139, 118.607, -150.481, 124.223, 88.4188, 0, 0, 7.24965, -55.9878, 7.26316, -173.555, 7.19118, 65.3449, 0.331405, 60.6995
1, 780.00000, 118.409, -32.9139, 118.607, -150.481, 124.223, 88.4188, 0, 0, 7.24965, -55.9878, 7.26316, -173.555, 7.19118, 65.3449, 0.331407, 60.6995
1, 840.00000, 118.409, -32.9139, 118.607, -150.481, 124.223, 88.4188, 0, 0, 7.24965, -55.9878, 7.26316, -173.555, 7.19118, 65.3448, 0.331409, 60.6995
1, 900.00000, 118.409, -32.9139, 118.607, -150.481, 124.223, 88.4188, 0, 0, 7.24965, -55.9878, 7.26316, -173.555, 7.19118, 65.3448, 0.33141, 60.6995
1, 960.00000, 118.409, -32.9139, 118.607, -150.481, 124.223, 88.4188, 0, 0, 7.24965, -55.9878, 7.26316, -173.555, 7.19118, 65.3448, 0.331412, 60.6995
1, 1020.00000, 118.409, -32.9139, 118.607, -150.481, 124.223, 88.4188, 0, 0, 7.24965, -55.9878, 7.26316, -173.555, 7.19118, 65.3448, 0.331413, 60.6995
1, 1080.00000, 118.409, -32.9139, 118.607, -150.481, 124.223, 88.4188, 0, 0, 7.24965, -55.9878, 7.26316, -173.555, 7.19118, 65.3448, 0.331414, 60.6995
1, 1140.00000, 118.409, -32.9139, 118.607, -150.481, 124.223, 88.4188, 0, 0, 7.24965, -55.9878, 7.26316, -173.555, 7.19118, 65.3448, 0.331415, 60.6995
1, 1200.00000, 118.409, -32.9139, 118.607, -150.481, 124.223, 88.4188, 0, 0, 7.24965, -55.9879, 7.26316, -173.555, 7.19118, 65.3448, 0.331416, 60.6995
1, 1260.00000, 118.409, -32.9139, 118.607, -150.481, 124.223, 88.4188, 0, 0, 7.24965, -55.9879, 7.26316, -173.555, 7.19117, 65.3448, 0.331417, 60.6996
1, 1320.00000, 118.409, -32.9139, 118.607, -150.481, 124.223, 88.4188, 0, 0, 7.24965, -55.9879, 7.26316, -173.555, 7.19117, 65.3448, 0.331418, 60.6996
1, 1380.00000, 118.409, -32.9139, 118.607, -150.481, 124.223, 88.4188, 0, 0, 7.24965, -55.9879, 7.26316, -173.555, 7.19117, 65.3448, 0.331419, 60.6996
1, 1440.00000, 118.409, -32.9139, 118.607, -150.481, 124.223, 88.4188, 0, 0, 7.24965, -55.9879, 7.26316, -173.555, 7.19117, 65.3448, 0.331419, 60.6996
1, 1500.00000, 118.409, -32.9139, 118.607, -150.481, 124.223, 88.4188, 0, 0, 7.24965, -55.9879, 7.26316, -173.555, 7.19117, 65.3448, 0.33142, 60.6996
1, 1560.00000, 118.409, -32.9139, 118.607, -150.481, 124.223, 88.4187, 0, 0, 7.24965, -55.9879, 7.26316, -173.555, 7.19117, 65.3448, 0.33142, 60.6996
1, 1620.00000, 118.409, -32.9139, 118.607, -150.481, 124.223, 88.4187, 0, 0, 7.24965, -55.9879, 7.26316, -173.555, 7.19117, 65.3448, 0.331421, 60.6996
1, 1680.00000, 118.409, -32.914, 118.607, -150.481, 124.223, 88.4187, 0, 0, 7.24965, -55.9879, 7.26316, -173.555, 7.19117, 65.3448, 0.331421, 60.6996
1, 1740.00000, 118.409, -32.914, 118.607, -150.481, 124.223, 88.4187, 0, 0, 7.24965, -55.9879, 7.26316, -173.555, 7.19117, 65.3448, 0.331422, 60.6996
1, 1800.00000, 118.409, -32.914, 118.607, -150.481, 124.223, 88.4187, 0, 0, 7.24965, -55.9879, 7.26316, -173.555, 7.19117, 65.3448, 0.331422, 60.6996
1, 1860.00000, 118.409, -32.914, 118.607, -150.481, 124.223, 88.4187, 0, 0, 7.24965, -55.9879, 7.26316, -173.555, 7.19117, 65.3448, 0.331422, 60.6996
1, 1920.00000, 118.409, -32.914, 118.607, -150.481, 124.223, 88.4187, 0, 0, 7.24965, -55.9879, 7.26316, -173.555, 7.19117, 65.3448, 0.331423, 60.6996
1, 1980.00000, 118.409, -32.914, 118.607, -150.481, 124.223, 88.4187, 0, 0, 7.24965, -55.9879, 7.26316, -173.555, 7.19117, 65.3448, 0.331423, 60.6996
1, 2040.00000, 118.409, -32.914, 118.607, -150.481, 124.223, 88.4187, 0, 0, 7.24965, -55.9879, 7.26316, -173.555, 7.19117, 65.3448, 0.331423, 60.6996
1, 2100.00000, 118.409, -32.914, 118.607, -150.481, 124.223, 88.4187, 0, 0, 7.24965, -55.9879, 7.26316, -173.555, 7.19117, 65.3448, 0.331423, 60.6996
1, 2160.00000, 118.409, -32.914, 118.607, -150.481, 124.223, 88.4187, 0, 0, 7.24965, -55.9879, 7.26316, -173.555, 7.19117, 65.3448, 0.331423, 60.6996
1, 2220.00000, 118.409, -32.914, 118.607, -150.481, 124.223, 88.4187, 0, 0, 7.24965, -55.9879, 7.26316, -173.555, 7.19117, 65.3448, 0.331424, 60.6996
1, 2280.00000, 118.409, -32.914, 118.607, -150.481, 124.223, 88.4187, 0, 0, 7.24965, -55.9879, 7.26316, -173.555, 7.19117, 65.3448, 0.331424, 60.6996
1, 2340.00000, 118.409, -32.914, 118.607, -150.481, 124.223, 88.4187, 0, 0, 7.24965, -55.9879, 7.26316, -173.555, 7.19117, 65.3448, 0.331424, 60.6996
1, 2400.00000, 118.409, -32.914, 118.607, -150.481, 124.223, 88.4187, 0, 0, 7.24965, -55.9879, 7.26316, -173.555, 7.19117, 65.3448, 0.331424, 60.6996
1, 2460.00000, 118.409, -32.914, 118.607, -150.481, 124.223, 88.4187, 0, 0, 7.24965, -55.9879, 7.26316, -173.555, 7.19117, 65.3448, 0.331424, 60.6996
1, 2520.00000, 118.409, -32.914, 118.607, -150.481, 124.223, 88.4187, 0, 0, 7.24965, -55.9879, 7.26316, -173.555, 7.19117, 65.3448, 0.331424, 60.6996
1, 2580.00000, 118.409, -32.914, 118.607, -150.481, 124.223, 88.4187, 0, 0, 7.24965, -55.9879, 7.26316, -173.555, 7.19117, 65.3448, 0.331424, 60.6996
1, 2640.00000, 118.409, -32.914, 118.607, -150.481, 124.223, 88.4187, 0, 0, 7.24965, -55.9879, 7.26316, -173.555, 7.19117, 65.3448, 0.331424, 60.6996
1, 2700.00000, 118.409, -32.914, 118.607, -150.481, 124.223, 88.4187, 0, 0, 7.24965, -55.9879, 7.26316, -173.555, 7.19117, 65.3448, 0.331424, 60.6996
1, 2760.00000, 118.409, -32.914, 118.607, -150.481, 124.223, 88.4187, 0, 0, 7.24965, -55.9879, 7.26316, -173.555, 7.19117, 65.3448, 0.331425, 60.6996
1, 2820.00000, 118.409, -32.914, 118.607, -150.481, 124.223, 88.4187, 0, 0, 7.24965, -55.9879, 7.26316, -173.555, 7.19117, 65.3448, 0.331425, 60.6996
1, 2880.00000, 118.409, -32.914, 118.607, -150.481, 124.223, 88.4187, 0, 0, 7.24965, -55.9879, 7.26316, -173.555, 7.19117, 65.3448, 0.331425, 60.6996
1, 2940.00000, 118.409, -32.914, 118.607, -150.481, 124.223, 88.4187, 0, 0, 7.24965, -55.9879, 7.26316, -173.555, 7.19117, 65.3448, 0.331425, 60.6996
1, 3000.00000, 118.409, -32.914, 118.607, -150.481, 124.223, 88.4187, 0, 0, 7.24965, -55.9879, 7.26316, -173.555, 7.19117, 65.3448, 0.331425, 60.6996
1, 3060.00000, 118.409, -32.914, 118.607, -150.481, 124.223, 88.4187, 0, 0, 7.24965, -55.9879, 7.26316, -173.555, 7.19117, 65.3448, 0.331425, 60.6996
1, 3120.00000, 118.409, -32.914, 118.607, -150.481, 124.223, 88.4187, 0, 0, 7.24965, -55.9879, 7.26316, -173.555, 7.19117, 65.3448, 0.331425, 60.6996
1, 3180.00000, 118.409, -32.914, 118.607, -150.481, 124.223, 88.4187, 0, 0, 7.24965, -55.9879, 7.26316, -173.555, 7.19117, 65.3448, 0.331425, 60.6996
1, 3240.00000, 118.409, -32.914, 118.607, -150.481, 124.223, 88.4187, 0, 0, 7.24965, -55.9879, 7.26316, -173.555, 7.19117, 65.3448, 0.331425, 60.6996
1, 3300.00000, 118.409, -32.914, 118.607, -150.481, 124.223, 88.4187, 0, 0, 7.24965, -55.9879, 7.26316, -173.555, 7.19117, 65.3448, 0.331425, 60.6996
1, 3360.00000, 118.409, -32.914, 118.607, -150.481, 124.223, 88.4187, 0, 0, 7.24965, -55.9879, 7.26316, -173.555, 7.19117, 65.3448, 0.331425, 60.6996
1, 3420.00000, 118.409, -32.914, 118.607, -150.481, 124.223, 88.4187, 0, 0, 7.24965, -55.9879, 7.26316, -173.555, 7.19117, 65.3448, 0.331425, 60.6996
1, 3480.00000, 118.409, -32.914, 118.607, -150.481, 124.223, 88.4187, 0, 0, 7.24965, -55.9879, 7.26316, -173.555, 7.19117, 65.3448, 0.331425, 60.6996
1, 3540.00000, 118.409, -32.914, 118.607, -150.481, 124.223, 88.4187, 0, 0, 7.24965, -55.9879, 7.26316, -173.555, 7.19117, 65.3448, 0.331425, 60.6996
2, 0.00000, 118.409, -32.914, 118.607, -150.481, 124.223, 88.4187, 0, 0, 7.24965, -55.9879, 7.26316, -173.555, 7.19117, 65.3448, 0.331425, 60.6996
2, 60.00000, 118.409, -32.914, 118.607, -150.481, 124.223, 88.4187, 0, 0, 7.24965, -55.9879, 7.26316, -173.555, 7.19117, 65.3448, 0.331425, 60.6996
2, 120.00000, 118.409, -32.914, 118.607, -150.481, 124.223, 88.4187, 0, 0, 7.24965, -55.9879, 7.26316, -173.555, 7.19117, 65.3448, 0.331425, 60.6996
2, 180.00000, 118.409, -32.914, 118.607, -150.481, 124.223, 88.4187, 0, 0, 7.24965, -55.9879, 7.26316, -173.555, 7.19117, 65.3448, 0.331425, 60.6996
2, 240.00000, 118.409, -32.914, 118.607, -150.481, 124.223, 88.4187, 0, 0, 7.24965, -55.9879, 7.26316, -173.555, 7.19117, 65.3448, 0.331425, 60.6996
2, 300.00000, 118.409, -32.914, 118.607, -150.481, 124.223, 88.4187, 0, 0, 7.24965, -55.9879, 7.26316, -173.555, 7.19117, 65.3448, 0.331425, 60.6996
2, 360.00000, 118.409, -32.914, 118.607, -150.481, 124.223, 88.4187, 0, 0, 7.24965, -55.9879, 7.26316, -173.555, 7.19117, 65.3448, 0.331425, 60.6996
2, 420.00000, 118.409, -32.914, 118.607, -150.481, 124.223, 88.4187, 0, 0, 7.24965, -55.9879, 7.26316, -173.555, 7.19117, 65.3448, 0.331425, 60.6996
2, 480.00000, 118.409, -32.914, 118.607, -150.481, 124.223, 88.4187, 0, 0, 7.24965, -55.9879, 7.26316, -173.555, 7.19117, 65.3448, 0.331425, 60.6996
2, 540.00000, 118.409, -32.914, 118.607, -150.481, 124.223, 88.4187, 0, 0, 7.24965, -55.9879, 7.26316, -173.555, 7.19117, 65.3448, 0.331425, 60.6996
2, 600.00000, 118.409, -32.914, 118.607, -150.481, 124.223, 88.4187, 0, 0, 7.24965, -55.9879, 7.26316, -173.555, 7.19117, 65.3448, 0.331425, 60.6996
2, 660.00000, 118.409, -32.914, 118.607, -150.481, 124.223, 88.4187, 0, 0, 7.24965, -55.9879, 7.26316, -173.555, 7.19117, 65.3448, 0.331425, 60.6996
2, 720.00000, 118.409, -32.914, 118.607, -150.481, 124.223, 88.4187, 0, 0, 7.24965, -55.9879, 7.26316, -173.555, 7.19117, 65.3448, 0.331425, 60.6996
2, 780.00000, 118.409, -32.914, 118.607, -150.481, 124.223, 88.4187, 0, 0, 7.24965, -55.9879, 7.26316, -173.555, 7.19117, 65.3448, 0.331425, 60.6996
