hour,t(sec),V1,VAngle1,V2,VAngle2,V3,VAngle3,V4,VAngle4,I1,IAngle1,I2,IAngle2,I3,IAngle3,I4,IAngle4
0, 60.00000, 118.285, -31.3828, 122.868, -151.277, 121.027, 86.9696, 0, 0, 4.3402, -54.4565, 4.35782, -174.351, 4.42397, 63.8957, 0.133536, -174.747
0, 120.00000, 118.284, -31.3834, 122.89, -151.28, 121.031, 86.9607, 0, 0, 4.34019, -54.4571, 4.35704, -174.354, 4.42384, 63.8868, 0.134788, -174.858
0, 180.00000, 118.284, -31.3839, 122.91, -151.283, 121.034, 86.9527, 0, 0, 4.34017, -54.4576, 4.35634, -174.356, 4.42372, 63.8788, 0.135916, -174.955
0, 240.00000, 118.284, -31.3843, 122.927, -151.285, 121.037, 86.9454, 0, 0, 4.34016, -54.458, 4.35571, -174.359, 4.42362, 63.8715, 0.136932, -175.041
0, 300.00000, 118.284, -31.3847, 122.943, -151.287, 121.04, 86.9389, 0, 0, 4.34016, -54.4585, 4.35513, -174.361, 4.42352, 63.865, 0.137849, -175.117
0, 360.00000, 118.284, -31.3851, 122.958, -151.289, 121.042, 86.9331, 0, 0, 4.34015, -54.4589, 4.35462, -174.363, 4.42344, 63.8592, 0.138678, -175.184
0, 420.00000, 118.284, -31.3855, 122.971, -151.29, 121.044, 86.9278, 0, 0, 4.34014, -54.4592, 4.35415, -174.364, 4.42336, 63.8539, 0.139428, -175.244
0, 480.00000, 118.99, -31.2841, 123.784, -151.175, 121.741, 87.0446, 0, 0, 3.801, -54.3579, 3.76324, -174.249, 3.82632, 63.9707, 0.15231, 169.455
0, 540.00000, 118.99, -31.2844, 123.795, -151.176, 121.742, 87.0403, 0, 0, 3.801, -54.3582, 3.7629, -174.25, 3.82627, 63.9664, 0.152857, 169.472
0, 600.00000, 118.99, -31.2847, 123.805, -151.177, 121.744, 87.0364, 0, 0, 3.80099, -54.3585, 3.76259, -174.251, 3.82623, 63.9625, 0.153348, 169.487
0, 660.00000, 118.99, -31.2849, 123.814, -151.178, 121.745, 87.0329, 0, 0, 3.80099, -54.3587, 3.76232, -174.252, 3.82619, 63.9591, 0.15379, 169.5
0, 720.00000, 118.99, -31.2852, 123.822, -151.179, 121.747, 87.0298, 0, 0, 3.80098, -54.359, 3.76207, -174.253, 3.82615, 63.9559, 0.154187, 169.512
0, 780.00000, 118.99, -31.2854, 123.829, -151.18, 121.748, 87.027, 0, 0, 3.80098, -54.3592, 3.76184, -174.254, 3.82612, 63.9531, 0.154545, 169.522
0, 840.00000, 118.99, -31.2855, 123.836, -151.181, 121.749, 87.0245, 0, 0, 3.80098, -54.3594, 3.76164, -174.255, 3.82609, 63.9506, 0.154867, 169.532
0, 900.00000, 118.99, -31.2857, 123.842, -151.182, 121.749, 87.0222, 0, 0, 3.80097, -54.3596, 3.76146, -174.256, 3.82606, 63.9483, 0.155157, 169.541
0, 960.00000, 118.976, -31.2758, 123.412, -151.362, 121.247, 87.0598, 0, 0, 3.80049, -54.3497, 3.77453, -174.436, 3.84192, 63.9859, 0.143364, 179.391
0, 1020.00000, 118.976, -31.2759, 123.417, -151.363, 121.248, 87.0579, 0, 0, 3.80049, -54.3498, 3.7744, -174.437, 3.8419, 63.984, 0.143592, 179.382
0, 1080.00000, 118.976, -31.276, 123.421, -151.363, 121.248, 87.0563, 0, 0, 3.80049, -54.3499, 3.77427, -174.437, 3.84188, 63.9824, 0.143798, 179.375
0, 1140.00000, 118.976, -31.2761, 123.425, -151.364, 121.249, 87.0548, 0, 0, 3.80049, -54.35, 3.77416, -174.438, 3.84186, 63.9809, 0.143983, 179.368
0, 1200.00000, 118.976, -31.2762, 123.428, -151.364, 121.249, 87.0535, 0, 0, 3.80049, -54.3501, 3.77405, -174.438, 3.84185, 63.9796, 0.144151, 179.362
0, 1260.00000, 118.976, -31.2763, 123.431, -151.365, 121.25, 87.0523, 0, 0, 3.80049, -54.3502, 3.77396, -174.438, 3.84184, 63.9784, 0.144301, 179.356
0, 1320.00000, 118.976, -31.2764, 123.434, -151.365, 121.25, 87.0512, 0, 0, 3.80048, -54.3503, 3.77388, -174.439, 3.84182, 63.9773, 0.144437, 179.351
0, 1380.00000, 118.976, -31.2764, 123.436, -151.365, 121.25, 87.0503, 0, 0, 3.80048, -54.3503, 3.7738, -174.439, 3.84181, 63.9763, 0.144559, 179.347
0, 1440.00000, 118.976, -31.2765, 123.438, -151.366, 121.251, 87.0494, 0, 0, 3.80048, -54.3504, 3.77373, -174.439, 3.8418, 63.9755, 0.144669, 179.343
0, 1500.00000, 118.976, -31.2766, 123.44, -151.366, 121.251, 87.0486, 0, 0, 3.80048, -54.3505, 3.77367, -174.44, 3.84179, 63.9747, 0.144768, 179.34
0, 1560.00000, 118.976, -31.2766, 123.442, -151.366, 121.251, 87.0479, 0, 0, 3.80048, -54.3505, 3.77362, -174.44, 3.84179, 63.974, 0.144857, 179.336
0, 1620.00000, 118.976, -31.2766, 123.444, -151.366, 121.252, 87.0473, 0, 0, 3.80048, -54.3505, 3.77357, -174.44, 3.84178, 63.9734, 0.144938, 179.334
0, 1680.00000, 118.976, -31.2767, 123.445, -151.366, 121.252, 87.0467, 0, 0, 3.80048, -54.3506, 3.77352, -174.44, 3.84177, 63.9728, 0.14501, 179.331
0, 1740.00000, 118.976, -31.2767, 123.446, -151.367, 121.252, 87.0462, 0, 0, 3.80048, -54.3506, 3.77348, -174.44, 3.84177, 63.9723, 0.145075, 179.329
0, 1800.00000, 118.78, -31.43, 122.987, -151.367, 121.277, 87.0429, 0, 0, 3.79355, -54.5039, 3.78759, -174.441, 3.84097, 63.969, 0.118651, 178.008
0, 1860.00000, 118.78, -31.43, 122.988, -151.367, 121.277, 87.0425, 0, 0, 3.79355, -54.5039, 3.78756, -174.441, 3.84097, 63.9686, 0.118702, 178.006
0, 1920.00000, 118.78, -31.43, 122.988, -151.367, 121.277, 87.0421, 0, 0, 3.79355, -54.5039, 3.78753, -174.441, 3.84096, 63.9682, 0.118748, 178.005
0, 1980.00000, 118.78, -31.4301, 122.989, -151.367, 121.278, 87.0418, 0, 0, 3.79355, -54.504, 3.78751, -174.441, 3.84096, 63.9679, 0.11879, 178.003
0, 2040.00000, 118.78, -31.4301, 122.99, -151.367, 121.278, 87.0415, 0, 0, 3.79355, -54.504, 3.78748, -174.441, 3.84095, 63.9676, 0.118827, 178.002
0, 2100.00000, 118.78, -31.4301, 122.991, -151.367, 121.278, 87.0412, 0, 0, 3.79355, -54.504, 3.78746, -174.441, 3.84095, 63.9673, 0.118861, 178.001
0, 2160.00000, 118.78, -31.4301, 122.991, -151.368, 121.278, 87.0409, 0, 0, 3.79355, -54.504, 3.78744, -174.441, 3.84095, 63.967, 0.118891, 178
0, 2220.00000, 118.78, -31.4301, 122.992, -151.368, 121.278, 87.0407, 0, 0, 3.79355, -54.504, 3.78743, -174.442, 3.84095, 63.9668, 0.118918, 177.999
0, 2280.00000, 118.78, -31.4301, 122.992, -151.368, 121.278, 87.0405, 0, 0, 3.79355, -54.504, 3.78741, -174.442, 3.84094, 63.9666, 0.118943, 177.998
0, 2340.00000, 118.78, -31.4301, 122.993, -151.368, 121.278, 87.0403, 0, 0, 3.79355, -54.5041, 3.7874, -174.442, 3.84094, 63.9664, 0.118965, 177.997
0, 2400.00000, 118.78, -31.4302, 122.993, -151.368, 121.278, 87.0402, 0, 0, 3.79354, -54.5041, 3.78739, -174.442, 3.84094, 63.9663, 0.118985, 177.997
0, 2460.00000, 118.78, -31.4302, 122.993, -151.368, 121.278, 87.04, 0, 0, 3.79354, -54.5041, 3.78738, -174.442, 3.84094, 63.9661, 0.119003, 177.996
0, 2520.00000, 118.78, -31.4302, 122.994, -151.368, 121.278, 87.0399, 0, 0, 3.79354, -54.5041, 3.78737, -174.442, 3.84094, 63.966, 0.119019, 177.995
0, 2580.00000, 118.78, -31.4302, 122.994, -151.368, 121.278, 87.0398, 0, 0, 3.79354, -54.5041, 3.78736, -174.442, 3.84093, 63.9659, 0.119033, 177.995
0, 2640.00000, 118.78, -31.4302, 122.994, -151.368, 121.278, 87.0397, 0, 0, 3.79354, -54.5041, 3.78735, -174.442, 3.84093, 63.9658, 0.119046, 177.995
0, 2700.00000, 118.78, -31.4302, 122.994, -151.368, 121.278, 87.0396, 0, 0, 3.79354, -54.5041, 3.78734, -174.442, 3.84093, 63.9657, 0.119058, 177.994
0, 2760.00000, 119.498, -31.4822, 122.992, -151.368, 121.744, 87.3068, 0, 0, 3.81899, -54.5561, 3.78743, -174.442, 3.82623, 64.2329, 0.113062, 163.382
0, 2820.00000, 119.498, -31.4822, 122.992, -151.368, 121.744, 87.3068, 0, 0, 3.81899, -54.5561, 3.78743, -174.442, 3.82623, 64.2328, 0.113072, 163.382
0, 2880.00000, 119.498, -31.4822, 122.992, -151.368, 121.744, 87.3067, 0, 0, 3.81899, -54.5561, 3.78742, -174.442, 3.82623, 64.2328, 0.11308, 163.383
0, 2940.00000, 119.498, -31.4822, 122.992, -151.368, 121.744, 87.3066, 0, 0, 3.81899, -54.5561, 3.78742, -174.442, 3.82623, 64.2327, 0.113088, 163.384
0, 3000.00000, 119.498, -31.4822, 122.992, -151.368, 121.745, 87.3066, 0, 0, 3.81899, -54.5562, 3.78741, -174.442, 3.82623, 64.2327, 0.113094, 163.384
0, 3060.00000, 119.498, -31.4822, 122.992, -151.368, 121.745, 87.3065, 0, 0, 3.81899, -54.5562, 3.78741, -174.442, 3.82623, 64.2326, 0.113101, 163.385
0, 3120.00000, 119.498, -31.4822, 122.992, -151.368, 121.745, 87.3065, 0, 0, 3.81899, -54.5562, 3.78741, -174.442, 3.82623, 64.2326, 0.113106, 163.386
0, 3180.00000, 119.498, -31.4822, 122.992, -151.368, 121.745, 87.3064, 0, 0, 3.81899, -54.5562, 3.7874, -174.442, 3.82622, 64.2325, 0.113111, 163.386
0, 3240.00000, 119.498, -31.4822, 122.993, -151.368, 121.745, 87.3064, 0, 0, 3.81899, -54.5562, 3.7874, -174.442, 3.82622, 64.2325, 0.113116, 163.386
0, 3300.00000, 119.498, -31.4823, 122.993, -151.368, 121.745, 87.3064, 0, 0, 3.81899, -54.5562, 3.7874, -174.442, 3.82622, 64.2324, 0.11312, 163.387
0, 3360.00000, 119.498, -31.4823, 122.993, -151.368, 121.745, 87.3063, 0, 0, 3.81899, -54.5562, 3.7874, -174.442, 3.82622, 64.2324, 0.113123, 163.387
0, 3420.00000, 119.498, -31.4823, 122.993, -151.368, 121.745, 87.3063, 0, 0, 3.81899, -54.5562, 3.78739, -174.442, 3.82622, 64.2324, 0.113127, 163.388
0, 3480.00000, 119.498, -31.4823, 122.993, -151.368, 121.745, 87.3063, 0, 0, 3.81899, -54.5562, 3.78739, -174.442, 3.82622, 64.2324, 0.113129, 163.388
0, 3540.00000, 119.498, -31.4823, 122.993, -151.368, 121.745, 87.3063, 0, 0, 3.81899, -54.5562, 3.78739, -174.442, 3.82622, 64.2323, 0.113132, 163.388
1, 0.00000, 119.498, -31.4823, 122.993, -151.368, 121.745, 87.3062, 0, 0, 3.81899, -54.5562, 3.78739, -174.442, 3.82622, 64.2323, 0.113134, 163.388
1, 60.00000, 119.948, -31.4797, 122.99, -151.366, 121.971, 87.4835, 0, 0, 3.83496, -54.5536, 3.78748, -174.44, 3.81914, 64.4096, 0.11399, 155.844
1, 120.00000, 119.948, -31.4797, 122.99, -151.366, 121.971, 87.4835, 0, 0, 3.83496, -54.5536, 3.78748, -174.44, 3.81914, 64.4096, 0.113992, 155.844
1, 180.00000, 119.948, -31.4797, 122.99, -151.366, 121.971, 87.4835, 0, 0, 3.83496, -54.5536, 3.78748, -174.44, 3.81914, 64.4096, 0.113994, 155.845
1, 240.00000, 119.948, -31.4797, 122.99, -151.366, 121.971, 87.4835, 0, 0, 3.83496, -54.5536, 3.78748, -174.44, 3.81914, 64.4096, 0.113995, 155.845
1, 300.00000, 119.948, -31.4797, 122.99, -151.366, 121.971, 87.4835, 0, 0, 3.83496, -54.5536, 3.78748, -174.44, 3.81914, 64.4095, 0.113996, 155.845
1, 360.00000, 119.948, -31.4797, 122.99, -151.366, 121.971, 87.4834, 0, 0, 3.83496, -54.5536, 3.78748, -174.44, 3.81914, 64.4095, 0.113998, 155.845
1, 420.00000, 119.948, -31.4797, 122.99, -151.366, 121.971, 87.4834, 0, 0, 3.83496, -54.5536, 3.78748, -174.44, 3.81914, 64.4095, 0.113999, 155.846
1, 480.00000, 119.948, -31.4797, 122.99, -151.366, 121.971, 87.4834, 0, 0, 3.83496, -54.5536, 3.78748, -174.44, 3.81914, 64.4095, 0.114, 155.846
1, 540.00000, 119.948, -31.4797, 122.99, -151.366, 121.971, 87.4834, 0, 0, 3.83496, -54.5536, 3.78748, -174.44, 3.81914, 64.4095, 0.114001, 155.846
1, 600.00000, 119.948, -31.4797, 122.99, -151.366, 121.971, 87.4834, 0, 0, 3.83496, -54.5536, 3.78747, -174.44, 3.81914, 64.4095, 0.114002, 155.846
1, 660.00000, 119.948, -31.4797, 122.99, -151.366, 121.971, 87.4834, 0, 0, 3.83496, -54.5536, 3.78747, -174.44, 3.81914, 64.4095, 0.114002, 155.846
1, 720.00000, 119.948, -31.4797, 122.99, -151.366, 121.971, 87.4834, 0, 0, 3.83496, -54.5536, 3.78747, -174.44, 3.81914, 64.4095, 0.114003, 155.846
1, 780.00000, 120.269, -31.4577, 122.99, -151.362, 122.099, 87.6192, 0, 0, 3.84633, -54.5316, 3.78747, -174.436, 3.81512, 64.5453, 0.115842, 151.64
1, 840.00000, 120.269, -31.4577, 122.99, -151.362, 122.099, 87.6192, 0, 0, 3.84633, -54.5316, 3.78747, -174.436, 3.81512, 64.5453, 0.115843, 151.64
1, 900.00000, 120.269, -31.4577, 122.99, -151.362, 122.099, 87.6192, 0, 0, 3.84633, -54.5316, 3.78747, -174.436, 3.81512, 64.5453, 0.115844, 151.64
1, 960.00000, 120.269, -31.4577, 122.99, -151.362, 122.099, 87.6192, 0, 0, 3.84633, -54.5316, 3.78747, -174.436, 3.81512, 64.5453, 0.115844, 151.64
1, 1020.00000, 120.269, -31.4577, 122.99, -151.362, 122.099, 87.6192, 0, 0, 3.84633, -54.5316, 3.78747, -174.436, 3.81512, 64.5453, 0.115845, 151.64
1, 1080.00000, 120.269, -31.4577, 122.99, -151.362, 122.099, 87.6192, 0, 0, 3.84633, -54.5316, 3.78747, -174.436, 3.81512, 64.5453, 0.115845, 151.64
1, 1140.00000, 120.269, -31.4577, 122.99, -151.362, 122.099, 87.6192, 0, 0, 3.84633, -54.5316, 3.78747, -174.436, 3.81512, 64.5453, 0.115845, 151.641
1, 1200.00000, 120.269, -31.4577, 122.99, -151.362, 122.099, 87.6192, 0, 0, 3.84633, -54.5316, 3.78747, -174.436, 3.81512, 64.5453, 0.115846, 151.641
1, 1260.00000, 120.269, -31.4577, 122.99, -151.362, 122.099, 87.6192, 0, 0, 3.84633, -54.5316, 3.78747, -174.436, 3.81512, 64.5453, 0.115846, 151.641
1, 1320.00000, 120.269, -31.4577, 122.99, -151.362, 122.099, 87.6192, 0, 0, 3.84633, -54.5316, 3.78747, -174.436, 3.81512, 64.5453, 0.115846, 151.641
1, 1380.00000, 120.269, -31.4577, 122.99, -151.362, 122.099, 87.6192, 0, 0, 3.84633, -54.5316, 3.78747, -174.436, 3.81512, 64.5453, 0.115846, 151.641
1, 1440.00000, 120.269, -31.4577, 122.99, -151.362, 122.099, 87.6192, 0, 0, 3.84633, -54.5316, 3.78747, -174.436, 3.81512, 64.5453, 0.115846, 151.641
1, 1500.00000, 120.269, -31.4577, 122.99, -151.362, 122.099, 87.6192, 0, 0, 3.84633, -54.5316, 3.78747, -174.436, 3.81512, 64.5453, 0.115847, 151.641
1, 1560.00000, 120.269, -31.4577, 122.99, -151.362, 122.099, 87.6192, 0, 0, 3.84633, -54.5316, 3.78747, -174.436, 3.81512, 64.5453, 0.115847, 151.641
1, 1620.00000, 120.269, -31.4577, 122.99, -151.362, 122.099, 87.6192, 0, 0, 3.84633, -54.5316, 3.78747, -174.436, 3.81512, 64.5453, 0.115847, 151.641
1, 1680.00000, 120.269, -31.4577, 122.99, -151.362, 122.099, 87.6192, 0, 0, 3.84633, -54.5316, 3.78747, -174.436, 3.81512, 64.5453, 0.115847, 151.641
1, 1740.00000, 120.269, -31.4577, 122.99, -151.362, 122.099, 87.6192, 0, 0, 3.84633, -54.5316, 3.78747, -174.436, 3.81512, 64.5453, 0.115847, 151.641
1, 1800.00000, 120.269, -31.4577, 122.99, -151.362, 122.099, 87.6192, 0, 0, 3.84633, -54.5316, 3.78747, -174.436, 3.81512, 64.5453, 0.115847, 151.641
1, 1860.00000, 120.269, -31.4577, 122.99, -151.362, 122.099, 87.6192, 0, 0, 3.84633, -54.5316, 3.78747, -174.436, 3.81512, 64.5453, 0.115847, 151.641
1, 1920.00000, 120.269, -31.4577, 122.99, -151.362, 122.099, 87.6192, 0, 0, 3.84633, -54.5316, 3.78747, -174.436, 3.81512, 64.5453, 0.115847, 151.641
1, 1980.00000, 120.269, -31.4577, 122.99, -151.362, 122.099, 87.6192, 0, 0, 3.84633, -54.5316, 3.78747, -174.436, 3.81512, 64.5453, 0.115847, 151.641
1, 2040.00000, 120.269, -31.4577, 122.99, -151.362, 122.099, 87.6192, 0, 0, 3.84633, -54.5316, 3.78747, -174.436, 3.81512, 64.5453, 0.115847, 151.641
1, 2100.00000, 120.269, -31.4577, 122.99, -151.362, 122.099, 87.6192, 0, 0, 3.84633, -54.5316, 3.78747, -174.436, 3.81512, 64.5453, 0.115848, 151.641
1, 2160.00000, 120.269, -31.4577, 122.99, -151.362, 122.099, 87.6192, 0, 0, 3.84633, -54.5316, 3.78747, -174.436, 3.81512, 64.5453, 0.115848, 151.641
1, 2220.00000, 120.47, -31.3048, 123.45, -151.362, 122.071, 87.6224, 0, 0, 3.85345, -54.3787, 3.77336, -174.436, 3.81598, 64.5485, 0.139015, 157.76
1, 2280.00000, 120.47, -31.3048, 123.45, -151.362, 122.071, 87.6224, 0, 0, 3.85345, -54.3787, 3.77336, -174.436, 3.81598, 64.5485, 0.139016, 157.76
1, 2340.00000, 120.47, -31.3048, 123.45, -151.362, 122.071, 87.6224, 0, 0, 3.85345, -54.3787, 3.77336, -174.436, 3.81598, 64.5485, 0.139016, 157.76
1, 2400.00000, 120.47, -31.3048, 123.45, -151.362, 122.071, 87.6224, 0, 0, 3.85345, -54.3787, 3.77336, -174.436, 3.81598, 64.5485, 0.139016, 157.76
1, 2460.00000, 120.47, -31.3048, 123.45, -151.362, 122.071, 87.6224, 0, 0, 3.85345, -54.3787, 3.77336, -174.436, 3.81598, 64.5485, 0.139016, 157.76
1, 2520.00000, 120.47, -31.3048, 123.45, -151.362, 122.071, 87.6224, 0, 0, 3.85345, -54.3787, 3.77336, -174.436, 3.81598, 64.5485, 0.139016, 157.76
1, 2580.00000, 120.47, -31.3048, 123.45, -151.362, 122.071, 87.6224, 0, 0, 3.85345, -54.3787, 3.77336, -174.436, 3.81598, 64.5485, 0.139016, 157.76
1, 2640.00000, 120.47, -31.3048, 123.45, -151.362, 122.071, 87.6224, 0, 0, 3.85345, -54.3787, 3.77336, -174.436, 3.81598, 64.5485, 0.139016, 157.76
1, 2700.00000, 120.47, -31.3048, 123.45, -151.362, 122.071, 87.6224, 0, 0, 3.85345, -54.3787, 3.77336, -174.436, 3.81598, 64.5485, 0.139016, 157.76
1, 2760.00000, 120.47, -31.3048, 123.45, -151.362, 122.071, 87.6224, 0, 0, 3.85345, -54.3787, 3.77336, -174.436, 3.81598, 64.5485, 0.139016, 157.76
1, 2820.00000, 120.47, -31.3048, 123.45, -151.362, 122.071, 87.6224, 0, 0, 3.85345, -54.3787, 3.77336, -174.436, 3.81598, 64.5485, 0.139016, 157.76
1, 2880.00000, 120.47, -31.3048, 123.45, -151.362, 122.071, 87.6224, 0, 0, 3.85345, -54.3787, 3.77336, -174.436, 3.81598, 64.5485, 0.139016, 157.76
1, 2940.00000, 120.47, -31.3048, 123.45, -151.362, 122.071, 87.6224, 0, 0, 3.85345, -54.3787, 3.77336, -174.436, 3.81598, 64.5485, 0.139016, 157.76
1, 3000.00000, 120.47, -31.3048, 123.45, -151.362, 122.071, 87.6224, 0, 0, 3.85345, -54.3787, 3.77336, -174.436, 3.81598, 64.5485, 0.139016, 157.76
1, 3060.00000, 120.47, -31.3048, 123.45, -151.362, 122.071, 87.6224, 0, 0, 3.85345, -54.3787, 3.77336, -174.436, 3.81598, 64.5485, 0.139017, 157.76
1, 3120.00000, 120.47, -31.3048, 123.45, -151.362, 122.071, 87.6224, 0, 0, 3.85345, -54.3787, 3.77336, -174.436, 3.81598, 64.5485, 0.139017, 157.76
1, 3180.00000, 120.47, -31.3048, 123.45, -151.362, 122.071, 87.6224, 0, 0, 3.85345, -54.3787, 3.77336, -174.436, 3.81598, 64.5485, 0.139017, 157.76
1, 3240.00000, 120.47, -31.3048, 123.45, -151.362, 122.071, 87.6224, 0, 0, 3.85345, -54.3787, 3.77336, -174.436, 3.81598, 64.5485, 0.139017, 157.76
1, 3300.00000, 120.47, -31.3048, 123.45, -151.362, 122.071, 87.6224, 0, 0, 3.85345, -54.3787, 3.77336, -174.436, 3.81598, 64.5485, 0.139017, 157.76
1, 3360.00000, 120.47, -31.3048, 123.45, -151.362, 122.071, 87.6224, 0, 0, 3.85345, -54.3787, 3.77336, -174.436, 3.81598, 64.5485, 0.139017, 157.76
1, 3420.00000, 120.47, -31.3048, 123.45, -151.362, 122.071, 87.6224, 0, 0, 3.85345, -54.3787, 3.77336, -174.436, 3.81598, 64.5485, 0.139017, 157.76
1, 3480.00000, 120.47, -31.3048, 123.45, -151.362, 122.071, 87.6224, 0, 0, 3.85345, -54.3787, 3.77336, -174.436, 3.81598, 64.5485, 0.139017, 157.76
1, 3540.00000, 120.47, -31.3048, 123.45, -151.362, 122.071, 87.6224, 0, 0, 3.85345, -54.3787, 3.77336, -174.436, 3.81598, 64.5485, 0.139017, 157.76
2, 0.00000, 120.47, -31.3048, 123.45, -151.362, 122.071, 87.6224, 0, 0, 3.85345, -54.3787, 3.77336, -174.436, 3.81598, 64.5485, 0.139017, 157.76
2, 60.00000, 120.47, -31.3048, 123.45, -151.362, 122.071, 87.6224, 0, 0, 3.85345, -54.3787, 3.77336, -174.436, 3.81598, 64.5485, 0.139017, 157.76
2, 120.00000, 120.47, -31.3048, 123.45, -151.362, 122.071, 87.6224, 0, 0, 3.85345, -54.3787, 3.77336, -174.436, 3.81598, 64.5485, 0.139017, 157.76
2, 180.00000, 120.47, -31.3048, 123.45, -151.362, 122.071, 87.6224, 0, 0, 3.85345, -54.3787, 3.77336, -174.436, 3.81598, 64.5485, 0.139017, 157.76
2, 240.00000, 120.47, -31.3048, 123.45, -151.362, 122.071, 87.6224, 0, 0, 3.85345, -54.3787, 3.77336, -174.436, 3.81598, 64.5485, 0.139017, 157.76
2, 300.00000, 120.47, -31.3048, 123.45, -151.362, 122.071, 87.6224, 0, 0, 3.85345, -54.3787, 3.77336, -174.436, 3.81598, 64.5485, 0.139017, 157.76
2, 360.00000, 120.47, -31.3048, 123.45, -151.362, 122.071, 87.6224, 0, 0, 3.85345, -54.3787, 3.77336, -174.436, 3.81598, 64.5485, 0.139017, 157.76
2, 420.00000, 120.47, -31.3048, 123.45, -151.362, 122.071, 87.6224, 0, 0, 3.85345, -54.3787, 3.77336, -174.436, 3.81598, 64.5485, 0.139017, 157.76
2, 480.00000, 120.47, -31.3048, 123.45, -151.362, 122.071, 87.6224, 0, 0, 3.85345, -54.3787, 3.77336, -174.436, 3.81598, 64.5485, 0.139017, 157.76
2, 540.00000, 120.47, -31.3048, 123.45, -151.362, 122.071, 87.6224, 0, 0, 3.85345, -54.3787, 3.77336, -174.436, 3.81598, 64.5485, 0.139017, 157.76
2, 600.00000, 120.47, -31.3048, 123.45, -151.362, 122.071, 87.6224, 0, 0, 3.85345, -54.3787, 3.77336, -174.436, 3.81598, 64.5485, 0.139017, 157.76
2, 660.00000, 120.47, -31.3048, 123.45, -151.362, 122.071, 87.6224, 0, 0, 3.85345, -54.3787, 3.77336, -174.436, 3.81598, 64.5485, 0.139017, 157.76
2, 720.00000, 120.47, -31.3048, 123.45, -151.362, 122.071, 87.6224, 0, 0, 3.85345, -54.3787, 3.77336, -174.436, 3.81598, 64.5485, 0.139017, 157.76
2, 780.00000, 120.47, -31.3048, 123.45, -151.362, 122.071, 87.6224, 0, 0, 3.85345, -54.3787, 3.77336, -174.436, 3.81598, 64.5485, 0.139017, 157.76
