hour,t(sec),"P1 (kW)","Q1 (kvar)","P2 (kW)","Q2 (kvar)","P3 (kW)","Q3 (kvar)","P4 (kW)","Q4 (kvar)"
0, 60.00000, 0.431171, 0.183676, 0.434334, 0.185024, 0.444945, 0.189544, 0, 0
0, 120.00000, 0.431165, 0.183676, 0.434328, 0.185023, 0.444941, 0.189544, 0, 0
0, 180.00000, 0.431165, 0.183676, 0.434328, 0.185023, 0.444941, 0.189544, 0, 0
0, 240.00000, 0.431165, 0.183676, 0.434328, 0.185023, 0.444941, 0.189544, 0, 0
0, 300.00000, 0.431165, 0.183676, 0.434328, 0.185023, 0.444941, 0.189544, 0, 0
0, 360.00000, 0.431165, 0.183676, 0.434328, 0.185023, 0.444941, 0.189544, 0, 0
0, 420.00000, 0.431165, 0.183676, 0.434328, 0.185023, 0.444941, 0.189544, 0, 0
0, 480.00000, 0.45897, 0.195524, 0.462178, 0.196888, 0.467723, 0.199253, 0, 0
0, 540.00000, 0.458976, 0.195523, 0.462189, 0.196892, 0.467713, 0.199245, 0, 0
0, 600.00000, 0.458976, 0.195523, 0.462189, 0.196892, 0.467713, 0.199245, 0, 0
0, 660.00000, 0.458976, 0.195523, 0.462189, 0.196892, 0.467713, 0.199245, 0, 0
0, 720.00000, 0.458976, 0.195523, 0.462189, 0.196892, 0.467713, 0.199245, 0, 0
0, 780.00000, 0.458976, 0.195523, 0.462189, 0.196892, 0.467713, 0.199245, 0, 0
0, 840.00000, 0.458976, 0.195523, 0.462189, 0.196892, 0.467713, 0.199245, 0, 0
0, 900.00000, 0.458976, 0.195523, 0.462189, 0.196892, 0.467713, 0.199245, 0, 0
0, 960.00000, 0.458976, 0.195523, 0.462189, 0.196892, 0.467713, 0.199245, 0, 0
0, 1020.00000, 0.458976, 0.195523, 0.462189, 0.196892, 0.467713, 0.199245, 0, 0
0, 1080.00000, 0.458976, 0.195523, 0.462189, 0.196892, 0.467713, 0.199245, 0, 0
0, 1140.00000, 0.458976, 0.195523, 0.462189, 0.196892, 0.467713, 0.199245, 0, 0
0, 1200.00000, 0.458976, 0.195523, 0.462189, 0.196892, 0.467713, 0.199245, 0, 0
0, 1260.00000, 0.458976, 0.195523, 0.462189, 0.196892, 0.467713, 0.199245, 0, 0
0, 1320.00000, 0.458976, 0.195523, 0.462189, 0.196892, 0.467713, 0.199245, 0, 0
0, 1380.00000, 0.458976, 0.195523, 0.462189, 0.196892, 0.467713, 0.199245, 0, 0
0, 1440.00000, 0.458976, 0.195523, 0.462189, 0.196892, 0.467713, 0.199245, 0, 0
0, 1500.00000, 0.458976, 0.195523, 0.462189, 0.196892, 0.467713, 0.199245, 0, 0
0, 1560.00000, 0.458976, 0.195523, 0.462189, 0.196892, 0.467713, 0.199245, 0, 0
0, 1620.00000, 0.458976, 0.195523, 0.462189, 0.196892, 0.467713, 0.199245, 0, 0
0, 1680.00000, 0.458976, 0.195523, 0.462189, 0.196892, 0.467713, 0.199245, 0, 0
0, 1740.00000, 0.458976, 0.195523, 0.462189, 0.196892, 0.467713, 0.199245, 0, 0
0, 1800.00000, 0.458976, 0.195523, 0.462189, 0.196892, 0.467713, 0.199245, 0, 0
0, 1860.00000, 0.458976, 0.195523, 0.462189, 0.196892, 0.467713, 0.199245, 0, 0
0, 1920.00000, 0.458976, 0.195523, 0.462189, 0.196892, 0.467713, 0.199245, 0, 0
0, 1980.00000, 0.458976, 0.195523, 0.462189, 0.196892, 0.467713, 0.199245, 0, 0
0, 2040.00000, 0.458976, 0.195523, 0.462189, 0.196892, 0.467713, 0.199245, 0, 0
0, 2100.00000, 0.458976, 0.195523, 0.462189, 0.196892, 0.467713, 0.199245, 0, 0
0, 2160.00000, 0.458976, 0.195523, 0.462189, 0.196892, 0.467713, 0.199245, 0, 0
0, 2220.00000, 0.458976, 0.195523, 0.462189, 0.196892, 0.467713, 0.199245, 0, 0
0, 2280.00000, 0.458976, 0.195523, 0.462189, 0.196892, 0.467713, 0.199245, 0, 0
0, 2340.00000, 0.458976, 0.195523, 0.462189, 0.196892, 0.467713, 0.199245, 0, 0
0, 2400.00000, 0.458976, 0.195523, 0.462189, 0.196892, 0.467713, 0.199245, 0, 0
0, 2460.00000, 0.458976, 0.195523, 0.462189, 0.196892, 0.467713, 0.199245, 0, 0
0, 2520.00000, 0.458976, 0.195523, 0.462189, 0.196892, 0.467713, 0.199245, 0, 0
0, 2580.00000, 0.458976, 0.195523, 0.462189, 0.196892, 0.467713, 0.199245, 0, 0
0, 2640.00000, 0.458976, 0.195523, 0.462189, 0.196892, 0.467713, 0.199245, 0, 0
0, 2700.00000, 0.458976, 0.195523, 0.462189, 0.196892, 0.467713, 0.199245, 0, 0
0, 2760.00000, 0.458976, 0.195523, 0.462189, 0.196892, 0.467713, 0.199245, 0, 0
0, 2820.00000, 0.458976, 0.195523, 0.462189, 0.196892, 0.467713, 0.199245, 0, 0
0, 2880.00000, 0.458976, 0.195523, 0.462189, 0.196892, 0.467713, 0.199245, 0, 0
0, 2940.00000, 0.458976, 0.195523, 0.462189, 0.196892, 0.467713, 0.199245, 0, 0
0, 3000.00000, 0.458976, 0.195523, 0.462189, 0.196892, 0.467713, 0.199245, 0, 0
0, 3060.00000, 0.458976, 0.195523, 0.462189, 0.196892, 0.467713, 0.199245, 0, 0
0, 3120.00000, 0.458976, 0.195523, 0.462189, 0.196892, 0.467713, 0.199245, 0, 0
0, 3180.00000, 0.458976, 0.195523, 0.462189, 0.196892, 0.467713, 0.199245, 0, 0
0, 3240.00000, 0.458976, 0.195523, 0.462189, 0.196892, 0.467713, 0.199245, 0, 0
0, 3300.00000, 0.458976, 0.195523, 0.462189, 0.196892, 0.467713, 0.199245, 0, 0
0, 3360.00000, 0.458976, 0.195523, 0.462189, 0.196892, 0.467713, 0.199245, 0, 0
0, 3420.00000, 0.458976, 0.195523, 0.462189, 0.196892, 0.467713, 0.199245, 0, 0
0, 3480.00000, 0.458976, 0.195523, 0.462189, 0.196892, 0.467713, 0.199245, 0, 0
0, 3540.00000, 0.458976, 0.195523, 0.462189, 0.196892, 0.467713, 0.199245, 0, 0
1, 0.00000, 0.458976, 0.195523, 0.462189, 0.196892, 0.467713, 0.199245, 0, 0
1, 60.00000, 0.458976, 0.195523, 0.462189, 0.196892, 0.467713, 0.199245, 0, 0
1, 120.00000, 0.458976, 0.195523, 0.462189, 0.196892, 0.467713, 0.199245, 0, 0
1, 180.00000, 0.458976, 0.195523, 0.462189, 0.196892, 0.467713, 0.199245, 0, 0
1, 240.00000, 0.458976, 0.195523, 0.462189, 0.196892, 0.467713, 0.199245, 0, 0
1, 300.00000, 0.458976, 0.195523, 0.462189, 0.196892, 0.467713, 0.199245, 0, 0
1, 360.00000, 0.458976, 0.195523, 0.462189, 0.196892, 0.467713, 0.199245, 0, 0
1, 420.00000, 0.458976, 0.195523, 0.462189, 0.196892, 0.467713, 0.199245, 0, 0
1, 480.00000, 0.458976, 0.195523, 0.462189, 0.196892, 0.467713, 0.199245, 0, 0
1, 540.00000, 0.458976, 0.195523, 0.462189, 0.196892, 0.467713, 0.199245, 0, 0
1, 600.00000, 0.458976, 0.195523, 0.462189, 0.196892, 0.467713, 0.199245, 0, 0
1, 660.00000, 0.458976, 0.195523, 0.462189, 0.196892, 0.467713, 0.199245, 0, 0
1, 720.00000, 0.458976, 0.195523, 0.462189, 0.196892, 0.467713, 0.199245, 0, 0
1, 780.00000, 0.458976, 0.195523, 0.462189, 0.196892, 0.467713, 0.199245, 0, 0
1, 840.00000, 0.458976, 0.195523, 0.462189, 0.196892, 0.467713, 0.199245, 0, 0
1, 900.00000, 0.458976, 0.195523, 0.462189, 0.196892, 0.467713, 0.199245, 0, 0
1, 960.00000, 0.458976, 0.195523, 0.462189, 0.196892, 0.467713, 0.199245, 0, 0
1, 1020.00000, 0.458976, 0.195523, 0.462189, 0.196892, 0.467713, 0.199245, 0, 0
1, 1080.00000, 0.458976, 0.195523, 0.462189, 0.196892, 0.467713, 0.199245, 0, 0
1, 1140.00000, 0.458976, 0.195523, 0.462189, 0.196892, 0.467713, 0.199245, 0, 0
1, 1200.00000, 0.458976, 0.195523, 0.462189, 0.196892, 0.467713, 0.199245, 0, 0
1, 1260.00000, 0.458976, 0.195523, 0.462189, 0.196892, 0.467713, 0.199245, 0, 0
1, 1320.00000, 0.458976, 0.195523, 0.462189, 0.196892, 0.467713, 0.199245, 0, 0
1, 1380.00000, 0.458976, 0.195523, 0.462189, 0.196892, 0.467713, 0.199245, 0, 0
1, 1440.00000, 0.458976, 0.195523, 0.462189, 0.196892, 0.467713, 0.199245, 0, 0
1, 1500.00000, 0.458976, 0.195523, 0.462189, 0.196892, 0.467713, 0.199245, 0, 0
1, 1560.00000, 0.458976, 0.195523, 0.462189, 0.196892, 0.467713, 0.199245, 0, 0
1, 1620.00000, 0.458976, 0.195523, 0.462189, 0.196892, 0.467713, 0.199245, 0, 0
1, 1680.00000, 0.458976, 0.195523, 0.462189, 0.196892, 0.467713, 0.199245, 0, 0
1, 1740.00000, 0.458976, 0.195523, 0.462189, 0.196892, 0.467713, 0.199245, 0, 0
1, 1800.00000, 0.458976, 0.195523, 0.462189, 0.196892, 0.467713, 0.199245, 0, 0
1, 1860.00000, 0.458976, 0.195523, 0.462189, 0.196892, 0.467713, 0.199245, 0, 0
1, 1920.00000, 0.458976, 0.195523, 0.462189, 0.196892, 0.467713, 0.199245, 0, 0
1, 1980.00000, 0.458976, 0.195523, 0.462189, 0.196892, 0.467713, 0.199245, 0, 0
1, 2040.00000, 0.458976, 0.195523, 0.462189, 0.196892, 0.467713, 0.199245, 0, 0
1, 2100.00000, 0.458976, 0.195523, 0.462189, 0.196892, 0.467713, 0.199245, 0, 0
1, 2160.00000, 0.458976, 0.195523, 0.462189, 0.196892, 0.467713, 0.199245, 0, 0
1, 2220.00000, 0.458976, 0.195523, 0.462189, 0.196892, 0.467713, 0.199245, 0, 0
1, 2280.00000, 0.458976, 0.195523, 0.462189, 0.196892, 0.467713, 0.199245, 0, 0
1, 2340.00000, 0.458976, 0.195523, 0.462189, 0.196892, 0.467713, 0.199245, 0, 0
1, 2400.00000, 0.458976, 0.195523, 0.462189, 0.196892, 0.467713, 0.199245, 0, 0
1, 2460.00000, 0.458976, 0.195523, 0.462189, 0.196892, 0.467713, 0.199245, 0, 0
1, 2520.00000, 0.458976, 0.195523, 0.462189, 0.196892, 0.467713, 0.199245, 0, 0
1, 2580.00000, 0.458976, 0.195523, 0.462189, 0.196892, 0.467713, 0.199245, 0, 0
1, 2640.00000, 0.458976, 0.195523, 0.462189, 0.196892, 0.467713, 0.199245, 0, 0
1, 2700.00000, 0.458976, 0.195523, 0.462189, 0.196892, 0.467713, 0.199245, 0, 0
1, 2760.00000, 0.458976, 0.195523, 0.462189, 0.196892, 0.467713, 0.199245, 0, 0
1, 2820.00000, 0.458976, 0.195523, 0.462189, 0.196892, 0.467713, 0.199245, 0, 0
1, 2880.00000, 0.458976, 0.195523, 0.462189, 0.196892, 0.467713, 0.199245, 0, 0
1, 2940.00000, 0.458976, 0.195523, 0.462189, 0.196892, 0.467713, 0.199245, 0, 0
1, 3000.00000, 0.458976, 0.195523, 0.462189, 0.196892, 0.467713, 0.199245, 0, 0
1, 3060.00000, 0.458976, 0.195523, 0.462189, 0.196892, 0.467713, 0.199245, 0, 0
1, 3120.00000, 0.458976, 0.195523, 0.462189, 0.196892, 0.467713, 0.199245, 0, 0
1, 3180.00000, 0.458976, 0.195523, 0.462189, 0.196892, 0.467713, 0.199245, 0, 0
1, 3240.00000, 0.458976, 0.195523, 0.462189, 0.196892, 0.467713, 0.199245, 0, 0
1, 3300.00000, 0.458976, 0.195523, 0.462189, 0.196892, 0.467713, 0.199245, 0, 0
1, 3360.00000, 0.458976, 0.195523, 0.462189, 0.196892, 0.467713, 0.199245, 0, 0
1, 3420.00000, 0.458976, 0.195523, 0.462189, 0.196892, 0.467713, 0.199245, 0, 0
1, 3480.00000, 0.458976, 0.195523, 0.462189, 0.196892, 0.467713, 0.199245, 0, 0
1, 3540.00000, 0.458976, 0.195523, 0.462189, 0.196892, 0.467713, 0.199245, 0, 0
2, 0.00000, 0.458976, 0.195523, 0.462189, 0.196892, 0.467713, 0.199245, 0, 0
2, 60.00000, 0.458976, 0.195523, 0.462189, 0.196892, 0.467713, 0.199245, 0, 0
2, 120.00000, 0.458976, 0.195523, 0.462189, 0.196892, 0.467713, 0.199245, 0, 0
2, 180.00000, 0.458976, 0.195523, 0.462189, 0.196892, 0.467713, 0.199245, 0, 0
2, 240.00000, 0.458976, 0.195523, 0.462189, 0.196892, 0.467713, 0.199245, 0, 0
2, 300.00000, 0.458976, 0.195523, 0.462189, 0.196892, 0.467713, 0.199245, 0, 0
2, 360.00000, 0.458976, 0.195523, 0.462189, 0.196892, 0.467713, 0.199245, 0, 0
2, 420.00000, 0.458976, 0.195523, 0.462189, 0.196892, 0.467713, 0.199245, 0, 0
2, 480.00000, 0.458976, 0.195523, 0.462189, 0.196892, 0.467713, 0.199245, 0, 0
2, 540.00000, 0.458976, 0.195523, 0.462189, 0.196892, 0.467713, 0.199245, 0, 0
2, 600.00000, 0.458976, 0.195523, 0.462189, 0.196892, 0.467713, 0.199245, 0, 0
2, 660.00000, 0.458976, 0.195523, 0.462189, 0.196892, 0.467713, 0.199245, 0, 0
2, 720.00000, 0.458976, 0.195523, 0.462189, 0.196892, 0.467713, 0.199245, 0, 0
2, 780.00000, 0.458976, 0.195523, 0.462189, 0.196892, 0.467713, 0.199245, 0, 0
2, 840.00000, 0.458976, 0.195523, 0.462189, 0.196892, 0.467713, 0.199245, 0, 0
2, 900.00000, 0.458976, 0.195523, 0.462189, 0.196892, 0.467713, 0.199245, 0, 0
2, 960.00000, 0.458976, 0.195523, 0.462189, 0.196892, 0.467713, 0.199245, 0, 0
2, 1020.00000, 0.458976, 0.195523, 0.462189, 0.196892, 0.467713, 0.199245, 0, 0
2, 1080.00000, 0.458976, 0.195523, 0.462189, 0.196892, 0.467713, 0.199245, 0, 0
2, 1140.00000, 0.458976, 0.195523, 0.462189, 0.196892, 0.467713, 0.199245, 0, 0
2, 1200.00000, 0.458976, 0.195523, 0.462189, 0.196892, 0.467713, 0.199245, 0, 0
2, 1260.00000, 0.458976, 0.195523, 0.462189, 0.196892, 0.467713, 0.199245, 0, 0
2, 1320.00000, 0.458976, 0.195523, 0.462189, 0.196892, 0.467713, 0.199245, 0, 0
2, 1380.00000, 0.458976, 0.195523, 0.462189, 0.196892, 0.467713, 0.199245, 0, 0
2, 1440.00000, 0.458976, 0.195523, 0.462189, 0.196892, 0.467713, 0.199245, 0, 0
2, 1500.00000, 0.458976, 0.195523, 0.462189, 0.196892, 0.467713, 0.199245, 0, 0
2, 1560.00000, 0.458976, 0.195523, 0.462189, 0.196892, 0.467713, 0.199245, 0, 0
2, 1620.00000, 0.458976, 0.195523, 0.462189, 0.196892, 0.467713, 0.199245, 0, 0
2, 1680.00000, 0.458976, 0.195523, 0.462189, 0.196892, 0.467713, 0.199245, 0, 0
2, 1740.00000, 0.458976, 0.195523, 0.462189, 0.196892, 0.467713, 0.199245, 0, 0
2, 1800.00000, 0.458976, 0.195523, 0.462189, 0.196892, 0.467713, 0.199245, 0, 0
2, 1860.00000, 0.458976, 0.195523, 0.462189, 0.196892, 0.467713, 0.199245, 0, 0
2, 1920.00000, 0.458976, 0.195523, 0.462189, 0.196892, 0.467713, 0.199245, 0, 0
2, 1980.00000, 0.458976, 0.195523, 0.462189, 0.196892, 0.467713, 0.199245, 0, 0
2, 2040.00000, 0.458976, 0.195523, 0.462189, 0.196892, 0.467713, 0.199245, 0, 0
2, 2100.00000, 0.458976, 0.195523, 0.462189, 0.196892, 0.467713, 0.199245, 0, 0
2, 2160.00000, 0.458976, 0.195523, 0.462189, 0.196892, 0.467713, 0.199245, 0, 0
2, 2220.00000, 0.458976, 0.195523, 0.462189, 0.196892, 0.467713, 0.199245, 0, 0
2, 2280.00000, 0.458976, 0.195523, 0.462189, 0.196892, 0.467713, 0.199245, 0, 0
2, 2340.00000, 0.458976, 0.195523, 0.462189, 0.196892, 0.467713, 0.199245, 0, 0
2, 2400.00000, 0.461951, 0.196796, 0.462166, 0.196881, 0.46772, 0.19925, 0, 0
2, 2460.00000, 0.461962, 0.196795, 0.462164, 0.196881, 0.467713, 0.199245, 0, 0
2, 2520.00000, 0.461962, 0.196795, 0.462164, 0.196881, 0.467713, 0.199245, 0, 0
2, 2580.00000, 0.461962, 0.196795, 0.462164, 0.196881, 0.467713, 0.199245, 0, 0
2, 2640.00000, 0.461962, 0.196795, 0.462164, 0.196881, 0.467713, 0.199245, 0, 0
2, 2700.00000, 0.457851, 0.19504, 0.462231, 0.196911, 0.467706, 0.199241, 0, 0
2, 2760.00000, 0.457845, 0.195041, 0.462233, 0.19691, 0.467713, 0.199245, 0, 0
2, 2820.00000, 0.457845, 0.195041, 0.462233, 0.19691, 0.467713, 0.199245, 0, 0
2, 2880.00000, 0.457845, 0.195041, 0.462233, 0.19691, 0.467713, 0.199245, 0, 0
2, 2940.00000, 0.457845, 0.195041, 0.462233, 0.19691, 0.467713, 0.199245, 0, 0
2, 3000.00000, 0.457845, 0.195041, 0.462233, 0.19691, 0.467713, 0.199245, 0, 0
2, 3060.00000, 0.460323, 0.196096, 0.466479, 0.198724, 0.467708, 0.199243, 0, 0
2, 3120.00000, 0.460327, 0.196098, 0.466492, 0.198725, 0.467713, 0.199245, 0, 0
2, 3180.00000, 0.460327, 0.196098, 0.466492, 0.198725, 0.467713, 0.199245, 0, 0
2, 3240.00000, 0.460327, 0.196098, 0.466492, 0.198725, 0.467713, 0.199245, 0, 0
2, 3300.00000, 0.460327, 0.196098, 0.466492, 0.198725, 0.467713, 0.199245, 0, 0
2, 3360.00000, 0.460327, 0.196098, 0.466492, 0.198725, 0.467713, 0.199245, 0, 0
2, 3420.00000, 0.460327, 0.196098, 0.466492, 0.198725, 0.467713, 0.199245, 0, 0
2, 3480.00000, 0.460327, 0.196098, 0.466492, 0.198725, 0.467713, 0.199245, 0, 0
2, 3540.00000, 0.460327, 0.196098, 0.466492, 0.198725, 0.467713, 0.199245, 0, 0
3, 0.00000, 0.460327, 0.196098, 0.466492, 0.198725, 0.467713, 0.199245, 0, 0
3, 60.00000, 0.460327, 0.196098, 0.466492, 0.198725, 0.467713, 0.199245, 0, 0
3, 120.00000, 0.460327, 0.196098, 0.466492, 0.198725, 0.467713, 0.199245, 0, 0
3, 180.00000, 0.460327, 0.196098, 0.466492, 0.198725, 0.467713, 0.199245, 0, 0
3, 240.00000, 0.460327, 0.196098, 0.466492, 0.198725, 0.467713, 0.199245, 0, 0
3, 300.00000, 0.460327, 0.196098, 0.466492, 0.198725, 0.467713, 0.199245, 0, 0
3, 360.00000, 0.460327, 0.196098, 0.466492, 0.198725, 0.467713, 0.199245, 0, 0
3, 420.00000, 0.460327, 0.196098, 0.466492, 0.198725, 0.467713, 0.199245, 0, 0
3, 480.00000, 0.460327, 0.196098, 0.466492, 0.198725, 0.467713, 0.199245, 0, 0
3, 540.00000, 0.460327, 0.196098, 0.466492, 0.198725, 0.467713, 0.199245, 0, 0
3, 600.00000, 0.460327, 0.196098, 0.466492, 0.198725, 0.467713, 0.199245, 0, 0
3, 660.00000, 0.460327, 0.196098, 0.466492, 0.198725, 0.467713, 0.199245, 0, 0
3, 720.00000, 0.460327, 0.196098, 0.466492, 0.198725, 0.467713, 0.199245, 0, 0
3, 780.00000, 0.460327, 0.196098, 0.466492, 0.198725, 0.467713, 0.199245, 0, 0
3, 840.00000, 0.460327, 0.196098, 0.466492, 0.198725, 0.467713, 0.199245, 0, 0
3, 900.00000, 0.460327, 0.196098, 0.466492, 0.198725, 0.467713, 0.199245, 0, 0
3, 960.00000, 0.460327, 0.196098, 0.466492, 0.198725, 0.467713, 0.199245, 0, 0
3, 1020.00000, 0.460327, 0.196098, 0.466492, 0.198725, 0.467713, 0.199245, 0, 0
3, 1080.00000, 0.460327, 0.196098, 0.466492, 0.198725, 0.467713, 0.199245, 0, 0
3, 1140.00000, 0.460327, 0.196098, 0.466492, 0.198725, 0.467713, 0.199245, 0, 0
3, 1200.00000, 0.460327, 0.196098, 0.466492, 0.198725, 0.467713, 0.199245, 0, 0
3, 1260.00000, 0.460327, 0.196098, 0.466492, 0.198725, 0.467713, 0.199245, 0, 0
3, 1320.00000, 0.460327, 0.196098, 0.466492, 0.198725, 0.467713, 0.199245, 0, 0
3, 1380.00000, 0.460327, 0.196098, 0.466492, 0.198725, 0.467713, 0.199245, 0, 0
3, 1440.00000, 0.460327, 0.196098, 0.466492, 0.198725, 0.467713, 0.199245, 0, 0
3, 1500.00000, 0.460327, 0.196098, 0.466492, 0.198725, 0.467713, 0.199245, 0, 0
3, 1560.00000, 0.460327, 0.196098, 0.466492, 0.198725, 0.467713, 0.199245, 0, 0
3, 1620.00000, 0.460327, 0.196098, 0.466492, 0.198725, 0.467713, 0.199245, 0, 0
3, 1680.00000, 0.460327, 0.196098, 0.466492, 0.198725, 0.467713, 0.199245, 0, 0
3, 1740.00000, 0.460327, 0.196098, 0.466492, 0.198725, 0.467713, 0.199245, 0, 0
3, 1800.00000, 0.460327, 0.196098, 0.466492, 0.198725, 0.467713, 0.199245, 0, 0
3, 1860.00000, 0.460327, 0.196098, 0.466492, 0.198725, 0.467713, 0.199245, 0, 0
3, 1920.00000, 0.460327, 0.196098, 0.466492, 0.198725, 0.467713, 0.199245, 0, 0
3, 1980.00000, 0.460327, 0.196098, 0.466492, 0.198725, 0.467713, 0.199245, 0, 0
3, 2040.00000, 0.460327, 0.196098, 0.466492, 0.198725, 0.467713, 0.199245, 0, 0
3, 2100.00000, 0.460327, 0.196098, 0.466492, 0.198725, 0.467713, 0.199245, 0, 0
3, 2160.00000, 0.460327, 0.196098, 0.466492, 0.198725, 0.467713, 0.199245, 0, 0
3, 2220.00000, 0.460327, 0.196098, 0.466492, 0.198725, 0.467713, 0.199245, 0, 0
3, 2280.00000, 0.460327, 0.196098, 0.466492, 0.198725, 0.467713, 0.199245, 0, 0
3, 2340.00000, 0.460327, 0.196098, 0.466492, 0.198725, 0.467713, 0.199245, 0, 0
3, 2400.00000, 0.460327, 0.196098, 0.466492, 0.198725, 0.467713, 0.199245, 0, 0
3, 2460.00000, 0.460327, 0.196098, 0.466492, 0.198725, 0.467713, 0.199245, 0, 0
3, 2520.00000, 0.460327, 0.196098, 0.466492, 0.198725, 0.467713, 0.199245, 0, 0
3, 2580.00000, 0.460327, 0.196098, 0.466492, 0.198725, 0.467713, 0.199245, 0, 0
3, 2640.00000, 0.460327, 0.196098, 0.466492, 0.198725, 0.467713, 0.199245, 0, 0
3, 2700.00000, 0.460327, 0.196098, 0.466492, 0.198725, 0.467713, 0.199245, 0, 0
3, 2760.00000, 0.460327, 0.196098, 0.466492, 0.198725, 0.467713, 0.199245, 0, 0
3, 2820.00000, 0.460327, 0.196098, 0.466492, 0.198725, 0.467713, 0.199245, 0, 0
3, 2880.00000, 0.460327, 0.196098, 0.466492, 0.198725, 0.467713, 0.199245, 0, 0
3, 2940.00000, 0.460327, 0.196098, 0.466492, 0.198725, 0.467713, 0.199245, 0, 0
3, 3000.00000, 0.460327, 0.196098, 0.466492, 0.198725, 0.467713, 0.199245, 0, 0
3, 3060.00000, 0.460327, 0.196098, 0.466492, 0.198725, 0.467713, 0.199245, 0, 0
3, 3120.00000, 0.460327, 0.196098, 0.466492, 0.198725, 0.467713, 0.199245, 0, 0
3, 3180.00000, 0.444606, 0.189401, 0.45061, 0.191959, 0.453407, 0.19315, 0, 0
3, 3240.00000, 0.444605, 0.189401, 0.450608, 0.191958, 0.45341, 0.193152, 0, 0
3, 3300.00000, 0.444605, 0.189401, 0.450608, 0.191958, 0.45341, 0.193152, 0, 0
3, 3360.00000, 0.444605, 0.189401, 0.450608, 0.191958, 0.45341, 0.193152, 0, 0
3, 3420.00000, 0.444605, 0.189401, 0.450608, 0.191958, 0.45341, 0.193152, 0, 0
3, 3480.00000, 0.444605, 0.189401, 0.450608, 0.191958, 0.45341, 0.193152, 0, 0
3, 3540.00000, 0.444605, 0.189401, 0.450608, 0.191958, 0.45341, 0.193152, 0, 0
4, 0.00000, 0.444605, 0.189401, 0.450608, 0.191958, 0.45341, 0.193152, 0, 0
4, 60.00000, 0.444605, 0.189401, 0.450608, 0.191958, 0.45341, 0.193152, 0, 0
4, 120.00000, 0.444605, 0.189401, 0.450608, 0.191958, 0.45341, 0.193152, 0, 0
4, 180.00000, 0.444605, 0.189401, 0.450608, 0.191958, 0.45341, 0.193152, 0, 0
4, 240.00000, 0.444605, 0.189401, 0.450608, 0.191958, 0.45341, 0.193152, 0, 0
4, 300.00000, 0.444605, 0.189401, 0.450608, 0.191958, 0.45341, 0.193152, 0, 0
4, 360.00000, 0.444605, 0.189401, 0.450608, 0.191958, 0.45341, 0.193152, 0, 0
4, 420.00000, 0.444605, 0.189401, 0.450608, 0.191958, 0.45341, 0.193152, 0, 0
4, 480.00000, 0.444605, 0.189401, 0.450608, 0.191958, 0.45341, 0.193152, 0, 0
4, 540.00000, 0.444605, 0.189401, 0.450608, 0.191958, 0.45341, 0.193152, 0, 0
4, 600.00000, 0.444605, 0.189401, 0.450608, 0.191958, 0.45341, 0.193152, 0, 0
