hour,t(sec),"P1 (kW)","Q1 (kvar)","P2 (kW)","Q2 (kvar)","P3 (kW)","Q3 (kvar)","P4 (kW)","Q4 (kvar)"
0, 60.00000, 0.14668, 0.0624838, 0.146924, 0.0625894, 0.15162, 0.0645881, 0, 0
0, 120.00000, 0.146677, 0.0624843, 0.146922, 0.0625885, 0.151613, 0.0645868, 0, 0
0, 180.00000, 0.146677, 0.0624843, 0.146922, 0.0625885, 0.151613, 0.0645868, 0, 0
0, 240.00000, 0.146677, 0.0624843, 0.146922, 0.0625885, 0.151613, 0.0645868, 0, 0
0, 300.00000, 0.146677, 0.0624843, 0.146922, 0.0625885, 0.151613, 0.0645868, 0, 0
0, 360.00000, 0.146677, 0.0624843, 0.146922, 0.0625885, 0.151613, 0.0645868, 0, 0
0, 420.00000, 0.146677, 0.0624843, 0.146922, 0.0625885, 0.151613, 0.0645868, 0, 0
0, 480.00000, 0.146677, 0.0624843, 0.146922, 0.0625885, 0.151613, 0.0645868, 0, 0
0, 540.00000, 0.146677, 0.0624843, 0.146922, 0.0625885, 0.151613, 0.0645868, 0, 0
0, 600.00000, 0.146677, 0.0624843, 0.146922, 0.0625885, 0.151613, 0.0645868, 0, 0
0, 660.00000, 0.146677, 0.0624843, 0.146922, 0.0625885, 0.151613, 0.0645868, 0, 0
0, 720.00000, 0.146677, 0.0624843, 0.146922, 0.0625885, 0.151613, 0.0645868, 0, 0
0, 780.00000, 0.146677, 0.0624843, 0.146922, 0.0625885, 0.151613, 0.0645868, 0, 0
0, 840.00000, 0.146677, 0.0624843, 0.146922, 0.0625885, 0.151613, 0.0645868, 0, 0
0, 900.00000, 0.146677, 0.0624843, 0.146922, 0.0625885, 0.151613, 0.0645868, 0, 0
0, 960.00000, 0.15409, 0.0656416, 0.15437, 0.0657614, 0.159311, 0.067866, 0, 0
0, 1020.00000, 0.154089, 0.0656416, 0.15437, 0.0657612, 0.15931, 0.0678658, 0, 0
0, 1080.00000, 0.154089, 0.0656416, 0.15437, 0.0657612, 0.15931, 0.0678658, 0, 0
0, 1140.00000, 0.154089, 0.0656416, 0.15437, 0.0657612, 0.15931, 0.0678658, 0, 0
0, 1200.00000, 0.154089, 0.0656416, 0.15437, 0.0657612, 0.15931, 0.0678658, 0, 0
0, 1260.00000, 0.154089, 0.0656416, 0.15437, 0.0657612, 0.15931, 0.0678658, 0, 0
0, 1320.00000, 0.154089, 0.0656416, 0.15437, 0.0657612, 0.15931, 0.0678658, 0, 0
0, 1380.00000, 0.154089, 0.0656416, 0.15437, 0.0657612, 0.15931, 0.0678658, 0, 0
0, 1440.00000, 0.154089, 0.0656416, 0.15437, 0.0657612, 0.15931, 0.0678658, 0, 0
0, 1500.00000, 0.154089, 0.0656416, 0.15437, 0.0657612, 0.15931, 0.0678658, 0, 0
0, 1560.00000, 0.154089, 0.0656416, 0.15437, 0.0657612, 0.15931, 0.0678658, 0, 0
0, 1620.00000, 0.154089, 0.0656416, 0.15437, 0.0657612, 0.15931, 0.0678658, 0, 0
0, 1680.00000, 0.154089, 0.0656416, 0.15437, 0.0657612, 0.15931, 0.0678658, 0, 0
0, 1740.00000, 0.154089, 0.0656416, 0.15437, 0.0657612, 0.15931, 0.0678658, 0, 0
0, 1800.00000, 0.154089, 0.0656416, 0.15437, 0.0657612, 0.15931, 0.0678658, 0, 0
0, 1860.00000, 0.149207, 0.063566, 0.14946, 0.0636711, 0.154228, 0.0657036, 0, 0
0, 1920.00000, 0.149215, 0.0635654, 0.149468, 0.0636731, 0.154241, 0.0657063, 0, 0
0, 1980.00000, 0.149215, 0.0635654, 0.149468, 0.0636731, 0.154241, 0.0657064, 0, 0
0, 2040.00000, 0.149215, 0.0635654, 0.149468, 0.0636731, 0.154241, 0.0657064, 0, 0
0, 2100.00000, 0.149215, 0.0635654, 0.149468, 0.0636731, 0.154241, 0.0657064, 0, 0
0, 2160.00000, 0.149215, 0.0635654, 0.149468, 0.0636731, 0.154241, 0.0657064, 0, 0
0, 2220.00000, 0.149215, 0.0635654, 0.149468, 0.0636731, 0.154241, 0.0657064, 0, 0
0, 2280.00000, 0.149215, 0.0635654, 0.149468, 0.0636731, 0.154241, 0.0657064, 0, 0
0, 2340.00000, 0.149215, 0.0635654, 0.149468, 0.0636731, 0.154241, 0.0657064, 0, 0
0, 2400.00000, 0.149215, 0.0635654, 0.149468, 0.0636731, 0.154241, 0.0657064, 0, 0
0, 2460.00000, 0.149215, 0.0635654, 0.149468, 0.0636731, 0.154241, 0.0657064, 0, 0
0, 2520.00000, 0.149215, 0.0635654, 0.149468, 0.0636731, 0.154241, 0.0657064, 0, 0
0, 2580.00000, 0.149215, 0.0635654, 0.149468, 0.0636731, 0.154241, 0.0657064, 0, 0
0, 2640.00000, 0.149215, 0.0635654, 0.149468, 0.0636731, 0.154241, 0.0657064, 0, 0
0, 2700.00000, 0.149215, 0.0635654, 0.149468, 0.0636731, 0.154241, 0.0657064, 0, 0
0, 2760.00000, 0.141908, 0.0604535, 0.142116, 0.0605409, 0.146649, 0.0624729, 0, 0
0, 2820.00000, 0.141909, 0.0604531, 0.142117, 0.0605414, 0.146652, 0.0624736, 0, 0
0, 2880.00000, 0.141909, 0.0604531, 0.142117, 0.0605414, 0.146652, 0.0624736, 0, 0
0, 2940.00000, 0.141909, 0.0604531, 0.142117, 0.0605414, 0.146652, 0.0624736, 0, 0
0, 3000.00000, 0.141909, 0.0604531, 0.142117, 0.0605414, 0.146652, 0.0624736, 0, 0
0, 3060.00000, 0.141909, 0.0604531, 0.142117, 0.0605414, 0.146652, 0.0624736, 0, 0
0, 3120.00000, 0.141909, 0.0604531, 0.142117, 0.0605414, 0.146652, 0.0624736, 0, 0
0, 3180.00000, 0.141909, 0.0604531, 0.142117, 0.0605414, 0.146652, 0.0624736, 0, 0
0, 3240.00000, 0.141909, 0.0604531, 0.142117, 0.0605414, 0.146652, 0.0624736, 0, 0
0, 3300.00000, 0.141909, 0.0604531, 0.142117, 0.0605414, 0.146652, 0.0624736, 0, 0
0, 3360.00000, 0.141909, 0.0604531, 0.142117, 0.0605414, 0.146652, 0.0624736, 0, 0
0, 3420.00000, 0.141909, 0.0604531, 0.142117, 0.0605414, 0.146652, 0.0624736, 0, 0
0, 3480.00000, 0.141909, 0.0604531, 0.142117, 0.0605414, 0.146652, 0.0624736, 0, 0
0, 3540.00000, 0.141909, 0.0604531, 0.142117, 0.0605414, 0.146652, 0.0624736, 0, 0
1, 0.00000, 0.141909, 0.0604531, 0.142117, 0.0605414, 0.146652, 0.0624736, 0, 0
1, 60.00000, 0.144609, 0.061604, 0.144802, 0.0616847, 0.148949, 0.0634528, 0, 0
1, 120.00000, 0.144609, 0.0616034, 0.144802, 0.0616854, 0.148946, 0.0634509, 0, 0
1, 180.00000, 0.144609, 0.0616034, 0.144802, 0.0616854, 0.148946, 0.0634508, 0, 0
1, 240.00000, 0.144609, 0.0616034, 0.144802, 0.0616854, 0.148946, 0.0634508, 0, 0
1, 300.00000, 0.144609, 0.0616034, 0.144802, 0.0616854, 0.148946, 0.0634508, 0, 0
1, 360.00000, 0.144609, 0.0616034, 0.144802, 0.0616854, 0.148946, 0.0634508, 0, 0
1, 420.00000, 0.144609, 0.0616034, 0.144802, 0.0616854, 0.148946, 0.0634508, 0, 0
1, 480.00000, 0.144609, 0.0616034, 0.144802, 0.0616854, 0.148946, 0.0634508, 0, 0
1, 540.00000, 0.144609, 0.0616034, 0.144802, 0.0616854, 0.148946, 0.0634508, 0, 0
1, 600.00000, 0.144609, 0.0616034, 0.144802, 0.0616854, 0.148946, 0.0634508, 0, 0
1, 660.00000, 0.144609, 0.0616034, 0.144802, 0.0616854, 0.148946, 0.0634508, 0, 0
1, 720.00000, 0.144609, 0.0616034, 0.144802, 0.0616854, 0.148946, 0.0634508, 0, 0
1, 780.00000, 0.144609, 0.0616034, 0.144802, 0.0616854, 0.148946, 0.0634508, 0, 0
1, 840.00000, 0.144609, 0.0616034, 0.144802, 0.0616854, 0.148946, 0.0634508, 0, 0
1, 900.00000, 0.144609, 0.0616034, 0.144802, 0.0616854, 0.148946, 0.0634508, 0, 0
1, 960.00000, 0.143239, 0.061021, 0.143426, 0.0610987, 0.147436, 0.0628085, 0, 0
1, 1020.00000, 0.143241, 0.0610204, 0.143427, 0.0610998, 0.147431, 0.0628055, 0, 0
1, 1080.00000, 0.143241, 0.0610204, 0.143427, 0.0610998, 0.147431, 0.0628055, 0, 0
1, 1140.00000, 0.143241, 0.0610204, 0.143427, 0.0610998, 0.147431, 0.0628055, 0, 0
1, 1200.00000, 0.143241, 0.0610204, 0.143427, 0.0610998, 0.147431, 0.0628055, 0, 0
1, 1260.00000, 0.143241, 0.0610204, 0.143427, 0.0610998, 0.147431, 0.0628055, 0, 0
1, 1320.00000, 0.143241, 0.0610204, 0.143427, 0.0610998, 0.147431, 0.0628055, 0, 0
1, 1380.00000, 0.143241, 0.0610204, 0.143427, 0.0610998, 0.147431, 0.0628055, 0, 0
1, 1440.00000, 0.143241, 0.0610204, 0.143427, 0.0610998, 0.147431, 0.0628055, 0, 0
1, 1500.00000, 0.143241, 0.0610204, 0.143427, 0.0610998, 0.147431, 0.0628055, 0, 0
1, 1560.00000, 0.143241, 0.0610204, 0.143427, 0.0610998, 0.147431, 0.0628055, 0, 0
1, 1620.00000, 0.143241, 0.0610204, 0.143427, 0.0610998, 0.147431, 0.0628055, 0, 0
1, 1680.00000, 0.143241, 0.0610204, 0.143427, 0.0610998, 0.147431, 0.0628055, 0, 0
1, 1740.00000, 0.143241, 0.0610204, 0.143427, 0.0610998, 0.147431, 0.0628055, 0, 0
1, 1800.00000, 0.143241, 0.0610204, 0.143427, 0.0610998, 0.147431, 0.0628055, 0, 0
1, 1860.00000, 0.143122, 0.0609691, 0.143323, 0.061056, 0.147817, 0.0629692, 0, 0
1, 1920.00000, 0.143122, 0.0609696, 0.143323, 0.0610554, 0.14782, 0.062971, 0, 0
1, 1980.00000, 0.143122, 0.0609697, 0.143323, 0.0610554, 0.14782, 0.062971, 0, 0
1, 2040.00000, 0.143122, 0.0609697, 0.143323, 0.0610554, 0.14782, 0.062971, 0, 0
1, 2100.00000, 0.143122, 0.0609697, 0.143323, 0.0610554, 0.14782, 0.062971, 0, 0
1, 2160.00000, 0.143122, 0.0609697, 0.143323, 0.0610554, 0.14782, 0.062971, 0, 0
1, 2220.00000, 0.143122, 0.0609697, 0.143323, 0.0610554, 0.14782, 0.062971, 0, 0
1, 2280.00000, 0.143122, 0.0609697, 0.143323, 0.0610554, 0.14782, 0.062971, 0, 0
1, 2340.00000, 0.143122, 0.0609697, 0.143323, 0.0610554, 0.14782, 0.062971, 0, 0
1, 2400.00000, 0.143122, 0.0609697, 0.143323, 0.0610554, 0.14782, 0.062971, 0, 0
1, 2460.00000, 0.143122, 0.0609697, 0.143323, 0.0610554, 0.14782, 0.062971, 0, 0
1, 2520.00000, 0.143122, 0.0609697, 0.143323, 0.0610554, 0.14782, 0.062971, 0, 0
1, 2580.00000, 0.143122, 0.0609697, 0.143323, 0.0610554, 0.14782, 0.062971, 0, 0
1, 2640.00000, 0.143122, 0.0609697, 0.143323, 0.0610554, 0.14782, 0.062971, 0, 0
1, 2700.00000, 0.143122, 0.0609697, 0.143323, 0.0610554, 0.14782, 0.062971, 0, 0
1, 2760.00000, 0.137795, 0.0587019, 0.137961, 0.0587703, 0.141226, 0.0601636, 0, 0
1, 2820.00000, 0.137796, 0.0587007, 0.137963, 0.0587719, 0.14122, 0.0601595, 0, 0
1, 2880.00000, 0.137796, 0.0587007, 0.137963, 0.0587719, 0.14122, 0.0601594, 0, 0
1, 2940.00000, 0.137796, 0.0587007, 0.137963, 0.0587719, 0.14122, 0.0601594, 0, 0
1, 3000.00000, 0.137796, 0.0587007, 0.137963, 0.0587719, 0.14122, 0.0601594, 0, 0
1, 3060.00000, 0.137796, 0.0587007, 0.137963, 0.0587719, 0.14122, 0.0601594, 0, 0
1, 3120.00000, 0.137796, 0.0587007, 0.137963, 0.0587719, 0.14122, 0.0601594, 0, 0
1, 3180.00000, 0.137796, 0.0587007, 0.137963, 0.0587719, 0.14122, 0.0601594, 0, 0
1, 3240.00000, 0.137796, 0.0587007, 0.137963, 0.0587719, 0.14122, 0.0601594, 0, 0
1, 3300.00000, 0.137796, 0.0587007, 0.137963, 0.0587719, 0.14122, 0.0601594, 0, 0
1, 3360.00000, 0.137796, 0.0587007, 0.137963, 0.0587719, 0.14122, 0.0601594, 0, 0
1, 3420.00000, 0.137796, 0.0587007, 0.137963, 0.0587719, 0.14122, 0.0601594, 0, 0
1, 3480.00000, 0.137796, 0.0587007, 0.137963, 0.0587719, 0.14122, 0.0601594, 0, 0
1, 3540.00000, 0.137796, 0.0587007, 0.137963, 0.0587719, 0.14122, 0.0601594, 0, 0
2, 0.00000, 0.137796, 0.0587007, 0.137963, 0.0587719, 0.14122, 0.0601594, 0, 0
2, 60.00000, 0.137749, 0.05868, 0.137928, 0.0587577, 0.141823, 0.0604156, 0, 0
2, 120.00000, 0.137749, 0.0586807, 0.137928, 0.0587569, 0.141827, 0.0604178, 0, 0
2, 180.00000, 0.137749, 0.0586807, 0.137928, 0.0587569, 0.141827, 0.0604179, 0, 0
2, 240.00000, 0.137749, 0.0586807, 0.137928, 0.0587569, 0.141827, 0.0604179, 0, 0
2, 300.00000, 0.137749, 0.0586807, 0.137928, 0.0587569, 0.141827, 0.0604179, 0, 0
2, 360.00000, 0.137749, 0.0586807, 0.137928, 0.0587569, 0.141827, 0.0604179, 0, 0
2, 420.00000, 0.137749, 0.0586807, 0.137928, 0.0587569, 0.141827, 0.0604179, 0, 0
2, 480.00000, 0.137749, 0.0586807, 0.137928, 0.0587569, 0.141827, 0.0604179, 0, 0
2, 540.00000, 0.137749, 0.0586807, 0.137928, 0.0587569, 0.141827, 0.0604179, 0, 0
2, 600.00000, 0.137749, 0.0586807, 0.137928, 0.0587569, 0.141827, 0.0604179, 0, 0
2, 660.00000, 0.137749, 0.0586807, 0.137928, 0.0587569, 0.141827, 0.0604179, 0, 0
2, 720.00000, 0.137749, 0.0586807, 0.137928, 0.0587569, 0.141827, 0.0604179, 0, 0
2, 780.00000, 0.137749, 0.0586807, 0.137928, 0.0587569, 0.141827, 0.0604179, 0, 0
2, 840.00000, 0.137749, 0.0586807, 0.137928, 0.0587569, 0.141827, 0.0604179, 0, 0
2, 900.00000, 0.137749, 0.0586807, 0.137928, 0.0587569, 0.141827, 0.0604179, 0, 0
2, 960.00000, 0.141316, 0.0602017, 0.141483, 0.060271, 0.144695, 0.0616411, 0, 0
2, 1020.00000, 0.141317, 0.0602008, 0.141485, 0.0602722, 0.144691, 0.0616381, 0, 0
2, 1080.00000, 0.141317, 0.0602008, 0.141485, 0.0602723, 0.144691, 0.061638, 0, 0
2, 1140.00000, 0.141317, 0.0602008, 0.141485, 0.0602723, 0.144691, 0.061638, 0, 0
2, 1200.00000, 0.141317, 0.0602008, 0.141485, 0.0602723, 0.144691, 0.061638, 0, 0
2, 1260.00000, 0.141317, 0.0602008, 0.141485, 0.0602723, 0.144691, 0.061638, 0, 0
2, 1320.00000, 0.141317, 0.0602008, 0.141485, 0.0602723, 0.144691, 0.061638, 0, 0
2, 1380.00000, 0.141317, 0.0602008, 0.141485, 0.0602723, 0.144691, 0.061638, 0, 0
2, 1440.00000, 0.141317, 0.0602008, 0.141485, 0.0602723, 0.144691, 0.061638, 0, 0
2, 1500.00000, 0.141317, 0.0602008, 0.141485, 0.0602723, 0.144691, 0.061638, 0, 0
2, 1560.00000, 0.141317, 0.0602008, 0.141485, 0.0602723, 0.144691, 0.061638, 0, 0
2, 1620.00000, 0.141317, 0.0602008, 0.141485, 0.0602723, 0.144691, 0.061638, 0, 0
2, 1680.00000, 0.141317, 0.0602008, 0.141485, 0.0602723, 0.144691, 0.061638, 0, 0
2, 1740.00000, 0.141317, 0.0602008, 0.141485, 0.0602723, 0.144691, 0.061638, 0, 0
2, 1800.00000, 0.141317, 0.0602008, 0.141485, 0.0602723, 0.144691, 0.061638, 0, 0
2, 1860.00000, 0.137776, 0.0586919, 0.137943, 0.0587638, 0.141387, 0.0602301, 0, 0
2, 1920.00000, 0.137776, 0.0586922, 0.137943, 0.0587633, 0.141389, 0.0602313, 0, 0
2, 1980.00000, 0.137776, 0.0586922, 0.137943, 0.0587633, 0.141389, 0.0602313, 0, 0
2, 2040.00000, 0.137776, 0.0586922, 0.137943, 0.0587633, 0.141389, 0.0602313, 0, 0
2, 2100.00000, 0.137776, 0.0586922, 0.137943, 0.0587633, 0.141389, 0.0602313, 0, 0
2, 2160.00000, 0.137776, 0.0586922, 0.137943, 0.0587633, 0.141389, 0.0602313, 0, 0
2, 2220.00000, 0.137776, 0.0586922, 0.137943, 0.0587633, 0.141389, 0.0602313, 0, 0
2, 2280.00000, 0.137776, 0.0586922, 0.137943, 0.0587633, 0.141389, 0.0602313, 0, 0
2, 2340.00000, 0.137776, 0.0586922, 0.137943, 0.0587633, 0.141389, 0.0602313, 0, 0
2, 2400.00000, 0.137776, 0.0586922, 0.137943, 0.0587633, 0.141389, 0.0602313, 0, 0
2, 2460.00000, 0.137776, 0.0586922, 0.137943, 0.0587633, 0.141389, 0.0602313, 0, 0
2, 2520.00000, 0.137776, 0.0586922, 0.137943, 0.0587633, 0.141389, 0.0602313, 0, 0
2, 2580.00000, 0.137776, 0.0586922, 0.137943, 0.0587633, 0.141389, 0.0602313, 0, 0
2, 2640.00000, 0.137776, 0.0586922, 0.137943, 0.0587633, 0.141389, 0.0602313, 0, 0
2, 2700.00000, 0.137776, 0.0586922, 0.137943, 0.0587633, 0.141389, 0.0602313, 0, 0
2, 2760.00000, 0.13089, 0.0557604, 0.131025, 0.0558161, 0.133364, 0.0568141, 0, 0
2, 2820.00000, 0.130892, 0.0557598, 0.131028, 0.0558175, 0.133359, 0.0568107, 0, 0
2, 2880.00000, 0.130892, 0.0557598, 0.131028, 0.0558175, 0.133359, 0.0568107, 0, 0
2, 2940.00000, 0.130892, 0.0557598, 0.131028, 0.0558175, 0.133359, 0.0568107, 0, 0
2, 3000.00000, 0.130892, 0.0557598, 0.131028, 0.0558175, 0.133359, 0.0568107, 0, 0
2, 3060.00000, 0.130892, 0.0557598, 0.131028, 0.0558175, 0.133359, 0.0568107, 0, 0
2, 3120.00000, 0.130892, 0.0557598, 0.131028, 0.0558175, 0.133359, 0.0568107, 0, 0
2, 3180.00000, 0.130892, 0.0557598, 0.131028, 0.0558175, 0.133359, 0.0568107, 0, 0
2, 3240.00000, 0.130892, 0.0557598, 0.131028, 0.0558175, 0.133359, 0.0568107, 0, 0
2, 3300.00000, 0.130892, 0.0557598, 0.131028, 0.0558175, 0.133359, 0.0568107, 0, 0
2, 3360.00000, 0.130892, 0.0557598, 0.131028, 0.0558175, 0.133359, 0.0568107, 0, 0
2, 3420.00000, 0.130892, 0.0557598, 0.131028, 0.0558175, 0.133359, 0.0568107, 0, 0
2, 3480.00000, 0.130892, 0.0557598, 0.131028, 0.0558175, 0.133359, 0.0568107, 0, 0
2, 3540.00000, 0.130892, 0.0557598, 0.131028, 0.0558175, 0.133359, 0.0568107, 0, 0
3, 0.00000, 0.130892, 0.0557598, 0.131028, 0.0558175, 0.133359, 0.0568107, 0, 0
3, 60.00000, 0.118968, 0.0506796, 0.119103, 0.0507377, 0.121603, 0.0518019, 0, 0
3, 120.00000, 0.118967, 0.0506798, 0.119102, 0.0507372, 0.121605, 0.0518034, 0, 0
3, 180.00000, 0.118967, 0.0506798, 0.119102, 0.0507372, 0.121605, 0.0518035, 0, 0
3, 240.00000, 0.118967, 0.0506798, 0.119102, 0.0507372, 0.121605, 0.0518035, 0, 0
3, 300.00000, 0.118967, 0.0506798, 0.119102, 0.0507372, 0.121605, 0.0518035, 0, 0
3, 360.00000, 0.118967, 0.0506798, 0.119102, 0.0507372, 0.121605, 0.0518035, 0, 0
3, 420.00000, 0.118967, 0.0506798, 0.119102, 0.0507372, 0.121605, 0.0518035, 0, 0
3, 480.00000, 0.118967, 0.0506798, 0.119102, 0.0507372, 0.121605, 0.0518035, 0, 0
3, 540.00000, 0.118967, 0.0506798, 0.119102, 0.0507372, 0.121605, 0.0518035, 0, 0
3, 600.00000, 0.118967, 0.0506798, 0.119102, 0.0507372, 0.121605, 0.0518035, 0, 0
3, 660.00000, 0.118967, 0.0506798, 0.119102, 0.0507372, 0.121605, 0.0518035, 0, 0
3, 720.00000, 0.118967, 0.0506798, 0.119102, 0.0507372, 0.121605, 0.0518035, 0, 0
3, 780.00000, 0.118967, 0.0506798, 0.119102, 0.0507372, 0.121605, 0.0518035, 0, 0
3, 840.00000, 0.118967, 0.0506798, 0.119102, 0.0507372, 0.121605, 0.0518035, 0, 0
3, 900.00000, 0.118967, 0.0506798, 0.119102, 0.0507372, 0.121605, 0.0518035, 0, 0
3, 960.00000, 0.114106, 0.0486106, 0.114232, 0.0486626, 0.116488, 0.049625, 0, 0
3, 1020.00000, 0.114109, 0.0486102, 0.114235, 0.0486639, 0.116483, 0.0496216, 0, 0
3, 1080.00000, 0.114109, 0.0486102, 0.114235, 0.0486639, 0.116483, 0.0496215, 0, 0
3, 1140.00000, 0.114109, 0.0486102, 0.114235, 0.0486639, 0.116483, 0.0496215, 0, 0
3, 1200.00000, 0.114109, 0.0486102, 0.114235, 0.0486639, 0.116483, 0.0496215, 0, 0
3, 1260.00000, 0.114109, 0.0486102, 0.114235, 0.0486639, 0.116483, 0.0496215, 0, 0
3, 1320.00000, 0.114109, 0.0486102, 0.114235, 0.0486639, 0.116483, 0.0496215, 0, 0
3, 1380.00000, 0.114109, 0.0486102, 0.114235, 0.0486639, 0.116483, 0.0496215, 0, 0
3, 1440.00000, 0.114109, 0.0486102, 0.114235, 0.0486639, 0.116483, 0.0496215, 0, 0
3, 1500.00000, 0.114109, 0.0486102, 0.114235, 0.0486639, 0.116483, 0.0496215, 0, 0
3, 1560.00000, 0.114109, 0.0486102, 0.114235, 0.0486639, 0.116483, 0.0496215, 0, 0
3, 1620.00000, 0.114109, 0.0486102, 0.114235, 0.0486639, 0.116483, 0.0496215, 0, 0
3, 1680.00000, 0.114109, 0.0486102, 0.114235, 0.0486639, 0.116483, 0.0496215, 0, 0
3, 1740.00000, 0.114109, 0.0486102, 0.114235, 0.0486639, 0.116483, 0.0496215, 0, 0
3, 1800.00000, 0.114109, 0.0486102, 0.114235, 0.0486639, 0.116483, 0.0496215, 0, 0
3, 1860.00000, 0.111305, 0.0474167, 0.111427, 0.0474683, 0.113557, 0.0483761, 0, 0
3, 1920.00000, 0.111307, 0.0474168, 0.11143, 0.0474689, 0.113555, 0.0483742, 0, 0
3, 1980.00000, 0.111307, 0.0474168, 0.11143, 0.0474689, 0.113555, 0.0483742, 0, 0
3, 2040.00000, 0.111307, 0.0474168, 0.11143, 0.0474689, 0.113555, 0.0483742, 0, 0
3, 2100.00000, 0.111307, 0.0474168, 0.11143, 0.0474689, 0.113555, 0.0483742, 0, 0
3, 2160.00000, 0.111307, 0.0474168, 0.11143, 0.0474689, 0.113555, 0.0483742, 0, 0
3, 2220.00000, 0.111307, 0.0474168, 0.11143, 0.0474689, 0.113555, 0.0483742, 0, 0
3, 2280.00000, 0.111307, 0.0474168, 0.11143, 0.0474689, 0.113555, 0.0483742, 0, 0
3, 2340.00000, 0.111307, 0.0474168, 0.11143, 0.0474689, 0.113555, 0.0483742, 0, 0
3, 2400.00000, 0.111307, 0.0474168, 0.11143, 0.0474689, 0.113555, 0.0483742, 0, 0
3, 2460.00000, 0.111307, 0.0474168, 0.11143, 0.0474689, 0.113555, 0.0483742, 0, 0
3, 2520.00000, 0.111307, 0.0474168, 0.11143, 0.0474689, 0.113555, 0.0483742, 0, 0
3, 2580.00000, 0.111307, 0.0474168, 0.11143, 0.0474689, 0.113555, 0.0483742, 0, 0
3, 2640.00000, 0.111307, 0.0474168, 0.11143, 0.0474689, 0.113555, 0.0483742, 0, 0
3, 2700.00000, 0.111307, 0.0474168, 0.11143, 0.0474689, 0.113555, 0.0483742, 0, 0
3, 2760.00000, 0.108377, 0.0461697, 0.108467, 0.0462065, 0.109873, 0.0468067, 0, 0
3, 2820.00000, 0.10838, 0.0461696, 0.108469, 0.0462075, 0.10987, 0.0468042, 0, 0
3, 2880.00000, 0.10838, 0.0461696, 0.108469, 0.0462075, 0.10987, 0.0468042, 0, 0
3, 2940.00000, 0.10838, 0.0461696, 0.108469, 0.0462075, 0.10987, 0.0468042, 0, 0
3, 3000.00000, 0.10838, 0.0461696, 0.108469, 0.0462075, 0.10987, 0.0468042, 0, 0
3, 3060.00000, 0.10838, 0.0461696, 0.108469, 0.0462075, 0.10987, 0.0468042, 0, 0
3, 3120.00000, 0.108999, 0.0464325, 0.109516, 0.0466561, 0.109867, 0.0468032, 0, 0
3, 3180.00000, 0.109002, 0.0464346, 0.109524, 0.046657, 0.109869, 0.0468042, 0, 0
3, 3240.00000, 0.109002, 0.0464347, 0.109524, 0.046657, 0.109869, 0.0468042, 0, 0
3, 3300.00000, 0.109002, 0.0464347, 0.109524, 0.046657, 0.10987, 0.0468042, 0, 0
3, 3360.00000, 0.109002, 0.0464347, 0.109524, 0.046657, 0.10987, 0.0468042, 0, 0
3, 3420.00000, 0.109002, 0.0464347, 0.109524, 0.046657, 0.10987, 0.0468042, 0, 0
3, 3480.00000, 0.109002, 0.0464347, 0.109524, 0.046657, 0.10987, 0.0468042, 0, 0
3, 3540.00000, 0.109002, 0.0464347, 0.109524, 0.046657, 0.10987, 0.0468042, 0, 0
4, 0.00000, 0.109002, 0.0464347, 0.109524, 0.046657, 0.10987, 0.0468042, 0, 0
4, 60.00000, 0.105436, 0.0449148, 0.105959, 0.0451381, 0.106662, 0.0454372, 0, 0
4, 120.00000, 0.105434, 0.0449147, 0.105957, 0.0451374, 0.106664, 0.0454387, 0, 0
