hour,t(sec),"P1 (kW)","Q1 (kvar)","P2 (kW)","Q2 (kvar)","P3 (kW)","Q3 (kvar)","P4 (kW)","Q4 (kvar)"
0, 60.00000, 0.655282, 0.279144, 0.651578, 0.27757, 0.676069, 0.288, 0, 0
0, 120.00000, 0.655275, 0.279146, 0.651572, 0.277568, 0.676054, 0.287998, 0, 0
0, 180.00000, 0.655275, 0.279146, 0.651572, 0.277568, 0.676054, 0.287998, 0, 0
0, 240.00000, 0.655275, 0.279146, 0.651572, 0.277568, 0.676054, 0.287998, 0, 0
0, 300.00000, 0.655275, 0.279146, 0.651572, 0.277568, 0.676054, 0.287998, 0, 0
0, 360.00000, 0.655275, 0.279146, 0.651572, 0.277568, 0.676054, 0.287998, 0, 0
0, 420.00000, 0.655275, 0.279146, 0.651572, 0.277568, 0.676054, 0.287998, 0, 0
0, 480.00000, 0.581786, 0.247849, 0.578028, 0.246237, 0.599785, 0.255515, 0, 0
0, 540.00000, 0.581793, 0.247843, 0.578031, 0.24624, 0.599819, 0.255522, 0, 0
0, 600.00000, 0.581793, 0.247843, 0.578031, 0.24624, 0.599819, 0.255522, 0, 0
0, 660.00000, 0.581793, 0.247843, 0.578031, 0.24624, 0.599819, 0.255522, 0, 0
0, 720.00000, 0.581793, 0.247843, 0.578031, 0.24624, 0.599819, 0.255522, 0, 0
0, 780.00000, 0.581793, 0.247843, 0.578031, 0.24624, 0.599819, 0.255522, 0, 0
0, 840.00000, 0.581793, 0.247843, 0.578031, 0.24624, 0.599819, 0.255522, 0, 0
0, 900.00000, 0.581793, 0.247843, 0.578031, 0.24624, 0.599819, 0.255522, 0, 0
0, 960.00000, 0.581793, 0.247843, 0.578031, 0.24624, 0.599819, 0.255522, 0, 0
0, 1020.00000, 0.581793, 0.247843, 0.578031, 0.24624, 0.599819, 0.255522, 0, 0
0, 1080.00000, 0.581793, 0.247843, 0.578031, 0.24624, 0.599819, 0.255522, 0, 0
0, 1140.00000, 0.581793, 0.247843, 0.578031, 0.24624, 0.599819, 0.255522, 0, 0
0, 1200.00000, 0.581793, 0.247843, 0.578031, 0.24624, 0.599819, 0.255522, 0, 0
0, 1260.00000, 0.581793, 0.247843, 0.578031, 0.24624, 0.599819, 0.255522, 0, 0
0, 1320.00000, 0.581793, 0.247843, 0.578031, 0.24624, 0.599819, 0.255522, 0, 0
0, 1380.00000, 0.581793, 0.247843, 0.578031, 0.24624, 0.599819, 0.255522, 0, 0
0, 1440.00000, 0.581793, 0.247843, 0.578031, 0.24624, 0.599819, 0.255522, 0, 0
0, 1500.00000, 0.581793, 0.247843, 0.578031, 0.24624, 0.599819, 0.255522, 0, 0
0, 1560.00000, 0.581793, 0.247843, 0.578031, 0.24624, 0.599819, 0.255522, 0, 0
0, 1620.00000, 0.581793, 0.247843, 0.578031, 0.24624, 0.599819, 0.255522, 0, 0
0, 1680.00000, 0.581793, 0.247843, 0.578031, 0.24624, 0.599819, 0.255522, 0, 0
0, 1740.00000, 0.581793, 0.247843, 0.578031, 0.24624, 0.599819, 0.255522, 0, 0
0, 1800.00000, 0.581793, 0.247843, 0.578031, 0.24624, 0.599819, 0.255522, 0, 0
0, 1860.00000, 0.581793, 0.247843, 0.578031, 0.24624, 0.599819, 0.255522, 0, 0
0, 1920.00000, 0.581793, 0.247843, 0.578031, 0.24624, 0.599819, 0.255522, 0, 0
0, 1980.00000, 0.581793, 0.247843, 0.578031, 0.24624, 0.599819, 0.255522, 0, 0
0, 2040.00000, 0.581793, 0.247843, 0.578031, 0.24624, 0.599819, 0.255522, 0, 0
0, 2100.00000, 0.581793, 0.247843, 0.578031, 0.24624, 0.599819, 0.255522, 0, 0
0, 2160.00000, 0.581793, 0.247843, 0.578031, 0.24624, 0.599819, 0.255522, 0, 0
0, 2220.00000, 0.581793, 0.247843, 0.578031, 0.24624, 0.599819, 0.255522, 0, 0
0, 2280.00000, 0.581793, 0.247843, 0.578031, 0.24624, 0.599819, 0.255522, 0, 0
0, 2340.00000, 0.581793, 0.247843, 0.578031, 0.24624, 0.599819, 0.255522, 0, 0
0, 2400.00000, 0.581793, 0.247843, 0.578031, 0.24624, 0.599819, 0.255522, 0, 0
0, 2460.00000, 0.581793, 0.247843, 0.578031, 0.24624, 0.599819, 0.255522, 0, 0
0, 2520.00000, 0.581793, 0.247843, 0.578031, 0.24624, 0.599819, 0.255522, 0, 0
0, 2580.00000, 0.581793, 0.247843, 0.578031, 0.24624, 0.599819, 0.255522, 0, 0
0, 2640.00000, 0.581793, 0.247843, 0.578031, 0.24624, 0.599819, 0.255522, 0, 0
0, 2700.00000, 0.581793, 0.247843, 0.578031, 0.24624, 0.599819, 0.255522, 0, 0
0, 2760.00000, 0.581793, 0.247843, 0.578031, 0.24624, 0.599819, 0.255522, 0, 0
0, 2820.00000, 0.581793, 0.247843, 0.578031, 0.24624, 0.599819, 0.255522, 0, 0
0, 2880.00000, 0.581793, 0.247843, 0.578031, 0.24624, 0.599819, 0.255522, 0, 0
0, 2940.00000, 0.581793, 0.247843, 0.578031, 0.24624, 0.599819, 0.255522, 0, 0
0, 3000.00000, 0.581793, 0.247843, 0.578031, 0.24624, 0.599819, 0.255522, 0, 0
0, 3060.00000, 0.581793, 0.247843, 0.578031, 0.24624, 0.599819, 0.255522, 0, 0
0, 3120.00000, 0.581793, 0.247843, 0.578031, 0.24624, 0.599819, 0.255522, 0, 0
0, 3180.00000, 0.581793, 0.247843, 0.578031, 0.24624, 0.599819, 0.255522, 0, 0
0, 3240.00000, 0.581793, 0.247843, 0.578031, 0.24624, 0.599819, 0.255522, 0, 0
0, 3300.00000, 0.581793, 0.247843, 0.578031, 0.24624, 0.599819, 0.255522, 0, 0
0, 3360.00000, 0.581793, 0.247843, 0.578031, 0.24624, 0.599819, 0.255522, 0, 0
0, 3420.00000, 0.581793, 0.247843, 0.578031, 0.24624, 0.599819, 0.255522, 0, 0
0, 3480.00000, 0.581793, 0.247843, 0.578031, 0.24624, 0.599819, 0.255522, 0, 0
0, 3540.00000, 0.581793, 0.247843, 0.578031, 0.24624, 0.599819, 0.255522, 0, 0
1, 0.00000, 0.581793, 0.247843, 0.578031, 0.24624, 0.599819, 0.255522, 0, 0
1, 60.00000, 0.583057, 0.248382, 0.581359, 0.247662, 0.599749, 0.255492, 0, 0
1, 120.00000, 0.58306, 0.248383, 0.581368, 0.247662, 0.599746, 0.255491, 0, 0
1, 180.00000, 0.58306, 0.248383, 0.581368, 0.247662, 0.599746, 0.255491, 0, 0
1, 240.00000, 0.58306, 0.248383, 0.581368, 0.247662, 0.599746, 0.255491, 0, 0
1, 300.00000, 0.58306, 0.248383, 0.581368, 0.247662, 0.599746, 0.255491, 0, 0
1, 360.00000, 0.58306, 0.248383, 0.581368, 0.247662, 0.599746, 0.255491, 0, 0
1, 420.00000, 0.58306, 0.248383, 0.581368, 0.247662, 0.599746, 0.255491, 0, 0
1, 480.00000, 0.58306, 0.248383, 0.581368, 0.247662, 0.599746, 0.255491, 0, 0
1, 540.00000, 0.58306, 0.248383, 0.581368, 0.247662, 0.599746, 0.255491, 0, 0
1, 600.00000, 0.58306, 0.248383, 0.581368, 0.247662, 0.599746, 0.255491, 0, 0
1, 660.00000, 0.58306, 0.248383, 0.581368, 0.247662, 0.599746, 0.255491, 0, 0
1, 720.00000, 0.58306, 0.248383, 0.581368, 0.247662, 0.599746, 0.255491, 0, 0
1, 780.00000, 0.58306, 0.248383, 0.581368, 0.247662, 0.599746, 0.255491, 0, 0
1, 840.00000, 0.58306, 0.248383, 0.581368, 0.247662, 0.599746, 0.255491, 0, 0
1, 900.00000, 0.58306, 0.248383, 0.581368, 0.247662, 0.599746, 0.255491, 0, 0
1, 960.00000, 0.58306, 0.248383, 0.581368, 0.247662, 0.599746, 0.255491, 0, 0
1, 1020.00000, 0.58306, 0.248383, 0.581368, 0.247662, 0.599746, 0.255491, 0, 0
1, 1080.00000, 0.58306, 0.248383, 0.581368, 0.247662, 0.599746, 0.255491, 0, 0
1, 1140.00000, 0.58306, 0.248383, 0.581368, 0.247662, 0.599746, 0.255491, 0, 0
1, 1200.00000, 0.58306, 0.248383, 0.581368, 0.247662, 0.599746, 0.255491, 0, 0
1, 1260.00000, 0.58306, 0.248383, 0.581368, 0.247662, 0.599746, 0.255491, 0, 0
1, 1320.00000, 0.58306, 0.248383, 0.581368, 0.247662, 0.599746, 0.255491, 0, 0
1, 1380.00000, 0.58306, 0.248383, 0.581368, 0.247662, 0.599746, 0.255491, 0, 0
1, 1440.00000, 0.58306, 0.248383, 0.581368, 0.247662, 0.599746, 0.255491, 0, 0
1, 1500.00000, 0.58306, 0.248383, 0.581368, 0.247662, 0.599746, 0.255491, 0, 0
1, 1560.00000, 0.58306, 0.248383, 0.581368, 0.247662, 0.599746, 0.255491, 0, 0
1, 1620.00000, 0.58306, 0.248383, 0.581368, 0.247662, 0.599746, 0.255491, 0, 0
1, 1680.00000, 0.58306, 0.248383, 0.581368, 0.247662, 0.599746, 0.255491, 0, 0
1, 1740.00000, 0.58306, 0.248383, 0.581368, 0.247662, 0.599746, 0.255491, 0, 0
1, 1800.00000, 0.58306, 0.248383, 0.581368, 0.247662, 0.599746, 0.255491, 0, 0
1, 1860.00000, 0.58306, 0.248383, 0.581368, 0.247662, 0.599746, 0.255491, 0, 0
1, 1920.00000, 0.58306, 0.248383, 0.581368, 0.247662, 0.599746, 0.255491, 0, 0
1, 1980.00000, 0.58306, 0.248383, 0.581368, 0.247662, 0.599746, 0.255491, 0, 0
1, 2040.00000, 0.58306, 0.248383, 0.581368, 0.247662, 0.599746, 0.255491, 0, 0
1, 2100.00000, 0.58306, 0.248383, 0.581368, 0.247662, 0.599746, 0.255491, 0, 0
1, 2160.00000, 0.58306, 0.248383, 0.581368, 0.247662, 0.599746, 0.255491, 0, 0
1, 2220.00000, 0.58306, 0.248383, 0.581368, 0.247662, 0.599746, 0.255491, 0, 0
1, 2280.00000, 0.58306, 0.248383, 0.581368, 0.247662, 0.599746, 0.255491, 0, 0
1, 2340.00000, 0.58306, 0.248383, 0.581368, 0.247662, 0.599746, 0.255491, 0, 0
1, 2400.00000, 0.58306, 0.248383, 0.581368, 0.247662, 0.599746, 0.255491, 0, 0
1, 2460.00000, 0.58306, 0.248383, 0.581368, 0.247662, 0.599746, 0.255491, 0, 0
1, 2520.00000, 0.58306, 0.248383, 0.581368, 0.247662, 0.599746, 0.255491, 0, 0
1, 2580.00000, 0.58306, 0.248383, 0.581368, 0.247662, 0.599746, 0.255491, 0, 0
1, 2640.00000, 0.58306, 0.248383, 0.581368, 0.247662, 0.599746, 0.255491, 0, 0
1, 2700.00000, 0.58306, 0.248383, 0.581368, 0.247662, 0.599746, 0.255491, 0, 0
1, 2760.00000, 0.58306, 0.248383, 0.581368, 0.247662, 0.599746, 0.255491, 0, 0
1, 2820.00000, 0.58306, 0.248383, 0.581368, 0.247662, 0.599746, 0.255491, 0, 0
1, 2880.00000, 0.58306, 0.248383, 0.581368, 0.247662, 0.599746, 0.255491, 0, 0
1, 2940.00000, 0.58306, 0.248383, 0.581368, 0.247662, 0.599746, 0.255491, 0, 0
1, 3000.00000, 0.58306, 0.248383, 0.581368, 0.247662, 0.599746, 0.255491, 0, 0
1, 3060.00000, 0.58306, 0.248383, 0.581368, 0.247662, 0.599746, 0.255491, 0, 0
1, 3120.00000, 0.58306, 0.248383, 0.581368, 0.247662, 0.599746, 0.255491, 0, 0
1, 3180.00000, 0.58306, 0.248383, 0.581368, 0.247662, 0.599746, 0.255491, 0, 0
1, 3240.00000, 0.58306, 0.248383, 0.581368, 0.247662, 0.599746, 0.255491, 0, 0
1, 3300.00000, 0.58306, 0.248383, 0.581368, 0.247662, 0.599746, 0.255491, 0, 0
1, 3360.00000, 0.58306, 0.248383, 0.581368, 0.247662, 0.599746, 0.255491, 0, 0
1, 3420.00000, 0.58306, 0.248383, 0.581368, 0.247662, 0.599746, 0.255491, 0, 0
1, 3480.00000, 0.58306, 0.248383, 0.581368, 0.247662, 0.599746, 0.255491, 0, 0
1, 3540.00000, 0.58306, 0.248383, 0.581368, 0.247662, 0.599746, 0.255491, 0, 0
2, 0.00000, 0.58306, 0.248383, 0.581368, 0.247662, 0.599746, 0.255491, 0, 0
2, 60.00000, 0.58306, 0.248383, 0.581368, 0.247662, 0.599746, 0.255491, 0, 0
2, 120.00000, 0.58306, 0.248383, 0.581368, 0.247662, 0.599746, 0.255491, 0, 0
2, 180.00000, 0.58306, 0.248383, 0.581368, 0.247662, 0.599746, 0.255491, 0, 0
2, 240.00000, 0.58306, 0.248383, 0.581368, 0.247662, 0.599746, 0.255491, 0, 0
2, 300.00000, 0.58306, 0.248383, 0.581368, 0.247662, 0.599746, 0.255491, 0, 0
2, 360.00000, 0.58306, 0.248383, 0.581368, 0.247662, 0.599746, 0.255491, 0, 0
2, 420.00000, 0.58306, 0.248383, 0.581368, 0.247662, 0.599746, 0.255491, 0, 0
2, 480.00000, 0.58306, 0.248383, 0.581368, 0.247662, 0.599746, 0.255491, 0, 0
2, 540.00000, 0.58306, 0.248383, 0.581368, 0.247662, 0.599746, 0.255491, 0, 0
2, 600.00000, 0.58306, 0.248383, 0.581368, 0.247662, 0.599746, 0.255491, 0, 0
2, 660.00000, 0.58306, 0.248383, 0.581368, 0.247662, 0.599746, 0.255491, 0, 0
2, 720.00000, 0.58306, 0.248383, 0.581368, 0.247662, 0.599746, 0.255491, 0, 0
2, 780.00000, 0.58306, 0.248383, 0.581368, 0.247662, 0.599746, 0.255491, 0, 0
2, 840.00000, 0.58306, 0.248383, 0.581368, 0.247662, 0.599746, 0.255491, 0, 0
2, 900.00000, 0.58306, 0.248383, 0.581368, 0.247662, 0.599746, 0.255491, 0, 0
2, 960.00000, 0.58306, 0.248383, 0.581368, 0.247662, 0.599746, 0.255491, 0, 0
2, 1020.00000, 0.58306, 0.248383, 0.581368, 0.247662, 0.599746, 0.255491, 0, 0
2, 1080.00000, 0.58306, 0.248383, 0.581368, 0.247662, 0.599746, 0.255491, 0, 0
2, 1140.00000, 0.58306, 0.248383, 0.581368, 0.247662, 0.599746, 0.255491, 0, 0
2, 1200.00000, 0.58306, 0.248383, 0.581368, 0.247662, 0.599746, 0.255491, 0, 0
2, 1260.00000, 0.58306, 0.248383, 0.581368, 0.247662, 0.599746, 0.255491, 0, 0
2, 1320.00000, 0.58306, 0.248383, 0.581368, 0.247662, 0.599746, 0.255491, 0, 0
2, 1380.00000, 0.58306, 0.248383, 0.581368, 0.247662, 0.599746, 0.255491, 0, 0
2, 1440.00000, 0.58306, 0.248383, 0.581368, 0.247662, 0.599746, 0.255491, 0, 0
2, 1500.00000, 0.58306, 0.248383, 0.581368, 0.247662, 0.599746, 0.255491, 0, 0
2, 1560.00000, 0.58306, 0.248383, 0.581368, 0.247662, 0.599746, 0.255491, 0, 0
2, 1620.00000, 0.58306, 0.248383, 0.581368, 0.247662, 0.599746, 0.255491, 0, 0
2, 1680.00000, 0.58306, 0.248383, 0.581368, 0.247662, 0.599746, 0.255491, 0, 0
2, 1740.00000, 0.58306, 0.248383, 0.581368, 0.247662, 0.599746, 0.255491, 0, 0
2, 1800.00000, 0.58306, 0.248383, 0.581368, 0.247662, 0.599746, 0.255491, 0, 0
2, 1860.00000, 0.58306, 0.248383, 0.581368, 0.247662, 0.599746, 0.255491, 0, 0
2, 1920.00000, 0.58306, 0.248383, 0.581368, 0.247662, 0.599746, 0.255491, 0, 0
2, 1980.00000, 0.58306, 0.248383, 0.581368, 0.247662, 0.599746, 0.255491, 0, 0
2, 2040.00000, 0.58306, 0.248383, 0.581368, 0.247662, 0.599746, 0.255491, 0, 0
2, 2100.00000, 0.58306, 0.248383, 0.581368, 0.247662, 0.599746, 0.255491, 0, 0
2, 2160.00000, 0.58306, 0.248383, 0.581368, 0.247662, 0.599746, 0.255491, 0, 0
2, 2220.00000, 0.58306, 0.248383, 0.581368, 0.247662, 0.599746, 0.255491, 0, 0
2, 2280.00000, 0.58306, 0.248383, 0.581368, 0.247662, 0.599746, 0.255491, 0, 0
2, 2340.00000, 0.58306, 0.248383, 0.581368, 0.247662, 0.599746, 0.255491, 0, 0
2, 2400.00000, 0.586207, 0.249723, 0.586624, 0.249907, 0.599362, 0.255327, 0, 0
2, 2460.00000, 0.586214, 0.249726, 0.586641, 0.249908, 0.599353, 0.255323, 0, 0
2, 2520.00000, 0.586214, 0.249726, 0.586641, 0.249908, 0.599353, 0.255323, 0, 0
2, 2580.00000, 0.586214, 0.249726, 0.586641, 0.249908, 0.599353, 0.255323, 0, 0
2, 2640.00000, 0.586214, 0.249726, 0.586641, 0.249908, 0.599353, 0.255323, 0, 0
2, 2700.00000, 0.585695, 0.249502, 0.579238, 0.246758, 0.589894, 0.251289, 0, 0
2, 2760.00000, 0.585698, 0.249506, 0.579238, 0.246754, 0.589877, 0.251287, 0, 0
2, 2820.00000, 0.585698, 0.249506, 0.579238, 0.246754, 0.589877, 0.251287, 0, 0
2, 2880.00000, 0.585698, 0.249506, 0.579238, 0.246754, 0.589877, 0.251287, 0, 0
2, 2940.00000, 0.585698, 0.249506, 0.579238, 0.246754, 0.589877, 0.251287, 0, 0
2, 3000.00000, 0.585698, 0.249506, 0.579238, 0.246754, 0.589877, 0.251287, 0, 0
2, 3060.00000, 0.58734, 0.250207, 0.582931, 0.248332, 0.589726, 0.251222, 0, 0
2, 3120.00000, 0.587345, 0.250208, 0.582941, 0.248332, 0.589721, 0.25122, 0, 0
2, 3180.00000, 0.587345, 0.250208, 0.582941, 0.248332, 0.589721, 0.25122, 0, 0
2, 3240.00000, 0.587345, 0.250208, 0.582941, 0.248332, 0.589721, 0.25122, 0, 0
2, 3300.00000, 0.587345, 0.250208, 0.582941, 0.248332, 0.589721, 0.25122, 0, 0
2, 3360.00000, 0.587345, 0.250208, 0.582941, 0.248332, 0.589721, 0.25122, 0, 0
2, 3420.00000, 0.587345, 0.250208, 0.582941, 0.248332, 0.589721, 0.25122, 0, 0
2, 3480.00000, 0.587345, 0.250208, 0.582941, 0.248332, 0.589721, 0.25122, 0, 0
2, 3540.00000, 0.587345, 0.250208, 0.582941, 0.248332, 0.589721, 0.25122, 0, 0
3, 0.00000, 0.587345, 0.250208, 0.582941, 0.248332, 0.589721, 0.25122, 0, 0
3, 60.00000, 0.587345, 0.250208, 0.582941, 0.248332, 0.589721, 0.25122, 0, 0
3, 120.00000, 0.587345, 0.250208, 0.582941, 0.248332, 0.589721, 0.25122, 0, 0
3, 180.00000, 0.587345, 0.250208, 0.582941, 0.248332, 0.589721, 0.25122, 0, 0
3, 240.00000, 0.587345, 0.250208, 0.582941, 0.248332, 0.589721, 0.25122, 0, 0
3, 300.00000, 0.587345, 0.250208, 0.582941, 0.248332, 0.589721, 0.25122, 0, 0
3, 360.00000, 0.587345, 0.250208, 0.582941, 0.248332, 0.589721, 0.25122, 0, 0
3, 420.00000, 0.587345, 0.250208, 0.582941, 0.248332, 0.589721, 0.25122, 0, 0
3, 480.00000, 0.587345, 0.250208, 0.582941, 0.248332, 0.589721, 0.25122, 0, 0
3, 540.00000, 0.587345, 0.250208, 0.582941, 0.248332, 0.589721, 0.25122, 0, 0
3, 600.00000, 0.587345, 0.250208, 0.582941, 0.248332, 0.589721, 0.25122, 0, 0
3, 660.00000, 0.587345, 0.250208, 0.582941, 0.248332, 0.589721, 0.25122, 0, 0
3, 720.00000, 0.587345, 0.250208, 0.582941, 0.248332, 0.589721, 0.25122, 0, 0
3, 780.00000, 0.587345, 0.250208, 0.582941, 0.248332, 0.589721, 0.25122, 0, 0
3, 840.00000, 0.587345, 0.250208, 0.582941, 0.248332, 0.589721, 0.25122, 0, 0
3, 900.00000, 0.587345, 0.250208, 0.582941, 0.248332, 0.589721, 0.25122, 0, 0
3, 960.00000, 0.587345, 0.250208, 0.582941, 0.248332, 0.589721, 0.25122, 0, 0
3, 1020.00000, 0.587345, 0.250208, 0.582941, 0.248332, 0.589721, 0.25122, 0, 0
3, 1080.00000, 0.587345, 0.250208, 0.582941, 0.248332, 0.589721, 0.25122, 0, 0
3, 1140.00000, 0.587345, 0.250208, 0.582941, 0.248332, 0.589721, 0.25122, 0, 0
3, 1200.00000, 0.587345, 0.250208, 0.582941, 0.248332, 0.589721, 0.25122, 0, 0
3, 1260.00000, 0.587345, 0.250208, 0.582941, 0.248332, 0.589721, 0.25122, 0, 0
3, 1320.00000, 0.587345, 0.250208, 0.582941, 0.248332, 0.589721, 0.25122, 0, 0
3, 1380.00000, 0.587345, 0.250208, 0.582941, 0.248332, 0.589721, 0.25122, 0, 0
3, 1440.00000, 0.587345, 0.250208, 0.582941, 0.248332, 0.589721, 0.25122, 0, 0
3, 1500.00000, 0.587345, 0.250208, 0.582941, 0.248332, 0.589721, 0.25122, 0, 0
3, 1560.00000, 0.587345, 0.250208, 0.582941, 0.248332, 0.589721, 0.25122, 0, 0
3, 1620.00000, 0.587345, 0.250208, 0.582941, 0.248332, 0.589721, 0.25122, 0, 0
3, 1680.00000, 0.587345, 0.250208, 0.582941, 0.248332, 0.589721, 0.25122, 0, 0
3, 1740.00000, 0.587345, 0.250208, 0.582941, 0.248332, 0.589721, 0.25122, 0, 0
3, 1800.00000, 0.587345, 0.250208, 0.582941, 0.248332, 0.589721, 0.25122, 0, 0
3, 1860.00000, 0.587345, 0.250208, 0.582941, 0.248332, 0.589721, 0.25122, 0, 0
3, 1920.00000, 0.587345, 0.250208, 0.582941, 0.248332, 0.589721, 0.25122, 0, 0
3, 1980.00000, 0.587345, 0.250208, 0.582941, 0.248332, 0.589721, 0.25122, 0, 0
3, 2040.00000, 0.587345, 0.250208, 0.582941, 0.248332, 0.589721, 0.25122, 0, 0
3, 2100.00000, 0.587345, 0.250208, 0.582941, 0.248332, 0.589721, 0.25122, 0, 0
3, 2160.00000, 0.587345, 0.250208, 0.582941, 0.248332, 0.589721, 0.25122, 0, 0
3, 2220.00000, 0.587345, 0.250208, 0.582941, 0.248332, 0.589721, 0.25122, 0, 0
3, 2280.00000, 0.587345, 0.250208, 0.582941, 0.248332, 0.589721, 0.25122, 0, 0
3, 2340.00000, 0.587345, 0.250208, 0.582941, 0.248332, 0.589721, 0.25122, 0, 0
3, 2400.00000, 0.587345, 0.250208, 0.582941, 0.248332, 0.589721, 0.25122, 0, 0
3, 2460.00000, 0.587345, 0.250208, 0.582941, 0.248332, 0.589721, 0.25122, 0, 0
3, 2520.00000, 0.587345, 0.250208, 0.582941, 0.248332, 0.589721, 0.25122, 0, 0
3, 2580.00000, 0.587345, 0.250208, 0.582941, 0.248332, 0.589721, 0.25122, 0, 0
3, 2640.00000, 0.587345, 0.250208, 0.582941, 0.248332, 0.589721, 0.25122, 0, 0
3, 2700.00000, 0.587345, 0.250208, 0.582941, 0.248332, 0.589721, 0.25122, 0, 0
3, 2760.00000, 0.587345, 0.250208, 0.582941, 0.248332, 0.589721, 0.25122, 0, 0
3, 2820.00000, 0.587345, 0.250208, 0.582941, 0.248332, 0.589721, 0.25122, 0, 0
3, 2880.00000, 0.587345, 0.250208, 0.582941, 0.248332, 0.589721, 0.25122, 0, 0
3, 2940.00000, 0.587345, 0.250208, 0.582941, 0.248332, 0.589721, 0.25122, 0, 0
3, 3000.00000, 0.587345, 0.250208, 0.582941, 0.248332, 0.589721, 0.25122, 0, 0
3, 3060.00000, 0.587345, 0.250208, 0.582941, 0.248332, 0.589721, 0.25122, 0, 0
3, 3120.00000, 0.587345, 0.250208, 0.582941, 0.248332, 0.589721, 0.25122, 0, 0
3, 3180.00000, 0.618309, 0.263397, 0.613832, 0.26149, 0.621036, 0.26456, 0, 0
3, 3240.00000, 0.618305, 0.263397, 0.61383, 0.26149, 0.621034, 0.264559, 0, 0
3, 3300.00000, 0.618305, 0.263397, 0.61383, 0.26149, 0.621034, 0.264559, 0, 0
3, 3360.00000, 0.618305, 0.263397, 0.61383, 0.26149, 0.621034, 0.264559, 0, 0
3, 3420.00000, 0.618305, 0.263397, 0.61383, 0.26149, 0.621034, 0.264559, 0, 0
3, 3480.00000, 0.618305, 0.263397, 0.61383, 0.26149, 0.621034, 0.264559, 0, 0
3, 3540.00000, 0.618305, 0.263397, 0.61383, 0.26149, 0.621034, 0.264559, 0, 0
4, 0.00000, 0.618305, 0.263397, 0.61383, 0.26149, 0.621034, 0.264559, 0, 0
4, 60.00000, 0.618305, 0.263397, 0.61383, 0.26149, 0.621034, 0.264559, 0, 0
4, 120.00000, 0.618305, 0.263397, 0.61383, 0.26149, 0.621034, 0.264559, 0, 0
4, 180.00000, 0.618305, 0.263397, 0.61383, 0.26149, 0.621034, 0.264559, 0, 0
4, 240.00000, 0.618305, 0.263397, 0.61383, 0.26149, 0.621034, 0.264559, 0, 0
4, 300.00000, 0.618305, 0.263397, 0.61383, 0.26149, 0.621034, 0.264559, 0, 0
4, 360.00000, 0.618305, 0.263397, 0.61383, 0.26149, 0.621034, 0.264559, 0, 0
4, 420.00000, 0.618305, 0.263397, 0.61383, 0.26149, 0.621034, 0.264559, 0, 0
4, 480.00000, 0.618305, 0.263397, 0.61383, 0.26149, 0.621034, 0.264559, 0, 0
4, 540.00000, 0.618305, 0.263397, 0.61383, 0.26149, 0.621034, 0.264559, 0, 0
4, 600.00000, 0.618305, 0.263397, 0.61383, 0.26149, 0.621034, 0.264559, 0, 0
4, 660.00000, 0.618305, 0.263397, 0.61383, 0.26149, 0.621034, 0.264559, 0, 0
4, 720.00000, 0.618305, 0.263397, 0.61383, 0.26149, 0.621034, 0.264559, 0, 0
4, 780.00000, 0.618305, 0.263397, 0.61383, 0.26149, 0.621034, 0.264559, 0, 0
