hour,t(sec),V1,VAngle1,V2,VAngle2,V3,VAngle3,V4,VAngle4,I1,IAngle1,I2,IAngle2,I3,IAngle3,I4,IAngle4
0, 60.00000, 116.193, -31.1457, 115.56, -151.347, 116.219, 89.0803, 0, 0, 6.08555, -54.2194, 6.0487, -174.421, 6.08708, 66.0067, 0.0384206, -110.206
0, 120.00000, 116.193, -31.1457, 115.56, -151.347, 116.219, 89.0803, 0, 0, 6.0855, -54.2196, 6.04864, -174.421, 6.08703, 66.0063, 0.0384157, -110.229
0, 180.00000, 116.193, -31.1457, 115.56, -151.347, 116.219, 89.0803, 0, 0, 6.0855, -54.2196, 6.04864, -174.421, 6.08703, 66.0063, 0.0384157, -110.229
0, 240.00000, 116.193, -31.1457, 115.56, -151.347, 116.219, 89.0803, 0, 0, 6.0855, -54.2196, 6.04864, -174.421, 6.08703, 66.0063, 0.0384157, -110.229
0, 300.00000, 116.193, -31.1457, 115.56, -151.347, 116.219, 89.0803, 0, 0, 6.0855, -54.2196, 6.04864, -174.421, 6.08703, 66.0063, 0.0384157, -110.229
0, 360.00000, 116.193, -31.1457, 115.56, -151.347, 116.219, 89.0803, 0, 0, 6.0855, -54.2196, 6.04864, -174.421, 6.08703, 66.0063, 0.0384157, -110.229
0, 420.00000, 116.193, -31.1457, 115.56, -151.347, 116.219, 89.0803, 0, 0, 6.0855, -54.2196, 6.04864, -174.421, 6.08703, 66.0063, 0.0384157, -110.229
0, 480.00000, 117.322, -31.066, 116.628, -151.273, 117.259, 89.184, 0, 0, 5.35164, -54.1402, 5.31644, -174.347, 5.34846, 66.1096, 0.0311099, -109.699
0, 540.00000, 117.322, -31.0659, 116.628, -151.273, 117.259, 89.184, 0, 0, 5.3517, -54.1399, 5.3165, -174.347, 5.3485, 66.1101, 0.031104, -109.686
0, 600.00000, 117.322, -31.0659, 116.628, -151.273, 117.259, 89.184, 0, 0, 5.3517, -54.1399, 5.3165, -174.347, 5.3485, 66.1101, 0.0311039, -109.686
0, 660.00000, 117.322, -31.0659, 116.628, -151.273, 117.259, 89.184, 0, 0, 5.3517, -54.1399, 5.3165, -174.347, 5.3485, 66.1101, 0.0311039, -109.686
0, 720.00000, 117.322, -31.0659, 116.628, -151.273, 117.259, 89.184, 0, 0, 5.3517, -54.1399, 5.3165, -174.347, 5.3485, 66.1101, 0.0311039, -109.686
0, 780.00000, 117.322, -31.0659, 116.628, -151.273, 117.259, 89.184, 0, 0, 5.3517, -54.1399, 5.3165, -174.347, 5.3485, 66.1101, 0.0311039, -109.686
0, 840.00000, 117.322, -31.0659, 116.628, -151.273, 117.259, 89.184, 0, 0, 5.3517, -54.1399, 5.3165, -174.347, 5.3485, 66.1101, 0.0311039, -109.686
0, 900.00000, 117.322, -31.0659, 116.628, -151.273, 117.259, 89.184, 0, 0, 5.3517, -54.1399, 5.3165, -174.347, 5.3485, 66.1101, 0.0311039, -109.686
0, 960.00000, 116.106, -31.4543, 115.341, -150.954, 117.327, 89.1663, 0, 0, 5.29004, -54.528, 5.25127, -174.028, 5.35193, 66.0924, 0.0414137, -112.726
0, 1020.00000, 116.106, -31.4542, 115.341, -150.954, 117.327, 89.1663, 0, 0, 5.29, -54.5282, 5.25122, -174.028, 5.35194, 66.0924, 0.0414605, -112.733
0, 1080.00000, 116.106, -31.4542, 115.341, -150.954, 117.327, 89.1663, 0, 0, 5.29, -54.5282, 5.25122, -174.028, 5.35194, 66.0924, 0.0414607, -112.733
0, 1140.00000, 116.106, -31.4542, 115.341, -150.954, 117.327, 89.1663, 0, 0, 5.29, -54.5282, 5.25122, -174.028, 5.35194, 66.0924, 0.0414607, -112.733
0, 1200.00000, 116.106, -31.4542, 115.341, -150.954, 117.327, 89.1663, 0, 0, 5.29, -54.5282, 5.25122, -174.028, 5.35194, 66.0924, 0.0414607, -112.733
0, 1260.00000, 116.106, -31.4542, 115.341, -150.954, 117.327, 89.1663, 0, 0, 5.29, -54.5282, 5.25122, -174.028, 5.35194, 66.0924, 0.0414607, -112.733
0, 1320.00000, 116.106, -31.4542, 115.341, -150.954, 117.327, 89.1663, 0, 0, 5.29, -54.5282, 5.25122, -174.028, 5.35194, 66.0924, 0.0414607, -112.733
0, 1380.00000, 116.106, -31.4542, 115.341, -150.954, 117.327, 89.1663, 0, 0, 5.29, -54.5282, 5.25122, -174.028, 5.35194, 66.0924, 0.0414607, -112.733
0, 1440.00000, 116.106, -31.4542, 115.341, -150.954, 117.327, 89.1663, 0, 0, 5.29, -54.5282, 5.25122, -174.028, 5.35194, 66.0924, 0.0414607, -112.733
0, 1500.00000, 116.106, -31.4542, 115.341, -150.954, 117.327, 89.1663, 0, 0, 5.29, -54.5282, 5.25122, -174.028, 5.35194, 66.0924, 0.0414607, -112.733
0, 1560.00000, 116.106, -31.4542, 115.341, -150.954, 117.327, 89.1663, 0, 0, 5.29, -54.5282, 5.25122, -174.028, 5.35194, 66.0924, 0.0414607, -112.733
0, 1620.00000, 116.106, -31.4542, 115.341, -150.954, 117.327, 89.1663, 0, 0, 5.29, -54.5282, 5.25122, -174.028, 5.35194, 66.0924, 0.0414607, -112.733
0, 1680.00000, 116.106, -31.4542, 115.341, -150.954, 117.327, 89.1663, 0, 0, 5.29, -54.5282, 5.25122, -174.028, 5.35194, 66.0924, 0.0414607, -112.733
0, 1740.00000, 116.106, -31.4542, 115.341, -150.954, 117.327, 89.1663, 0, 0, 5.29, -54.5282, 5.25122, -174.028, 5.35194, 66.0924, 0.0414607, -112.733
0, 1800.00000, 116.106, -31.4542, 115.341, -150.954, 117.327, 89.1663, 0, 0, 5.29, -54.5282, 5.25122, -174.028, 5.35194, 66.0924, 0.0414607, -112.733
0, 1860.00000, 116.106, -31.4542, 115.341, -150.954, 117.327, 89.1663, 0, 0, 5.29, -54.5282, 5.25122, -174.028, 5.35194, 66.0924, 0.0414607, -112.733
0, 1920.00000, 116.106, -31.4542, 115.341, -150.954, 117.327, 89.1663, 0, 0, 5.29, -54.5282, 5.25122, -174.028, 5.35194, 66.0924, 0.0414607, -112.733
0, 1980.00000, 116.106, -31.4542, 115.341, -150.954, 117.327, 89.1663, 0, 0, 5.29, -54.5282, 5.25122, -174.028, 5.35194, 66.0924, 0.0414607, -112.733
0, 2040.00000, 116.106, -31.4542, 115.341, -150.954, 117.327, 89.1663, 0, 0, 5.29, -54.5282, 5.25122, -174.028, 5.35194, 66.0924, 0.0414607, -112.733
0, 2100.00000, 116.106, -31.4542, 115.341, -150.954, 117.327, 89.1663, 0, 0, 5.29, -54.5282, 5.25122, -174.028, 5.35194, 66.0924, 0.0414607, -112.733
0, 2160.00000, 116.106, -31.4542, 115.341, -150.954, 117.327, 89.1663, 0, 0, 5.29, -54.5282, 5.25122, -174.028, 5.35194, 66.0924, 0.0414607, -112.733
0, 2220.00000, 116.106, -31.4542, 115.341, -150.954, 117.327, 89.1663, 0, 0, 5.29, -54.5282, 5.25122, -174.028, 5.35194, 66.0924, 0.0414607, -112.733
0, 2280.00000, 116.106, -31.4542, 115.341, -150.954, 117.327, 89.1663, 0, 0, 5.29, -54.5282, 5.25122, -174.028, 5.35194, 66.0924, 0.0414607, -112.733
0, 2340.00000, 116.106, -31.4542, 115.341, -150.954, 117.327, 89.1663, 0, 0, 5.29, -54.5282, 5.25122, -174.028, 5.35194, 66.0924, 0.0414607, -112.733
0, 2400.00000, 116.106, -31.4542, 115.341, -150.954, 117.327, 89.1663, 0, 0, 5.29, -54.5282, 5.25122, -174.028, 5.35194, 66.0924, 0.0414607, -112.733
0, 2460.00000, 116.106, -31.4542, 115.341, -150.954, 117.327, 89.1663, 0, 0, 5.29, -54.5282, 5.25122, -174.028, 5.35194, 66.0924, 0.0414607, -112.733
0, 2520.00000, 116.106, -31.4542, 115.341, -150.954, 117.327, 89.1663, 0, 0, 5.29, -54.5282, 5.25122, -174.028, 5.35194, 66.0924, 0.0414607, -112.733
0, 2580.00000, 116.106, -31.4542, 115.341, -150.954, 117.327, 89.1663, 0, 0, 5.29, -54.5282, 5.25122, -174.028, 5.35194, 66.0924, 0.0414607, -112.733
0, 2640.00000, 116.106, -31.4542, 115.341, -150.954, 117.327, 89.1663, 0, 0, 5.29, -54.5282, 5.25122, -174.028, 5.35194, 66.0924, 0.0414607, -112.733
0, 2700.00000, 116.106, -31.4542, 115.341, -150.954, 117.327, 89.1663, 0, 0, 5.29, -54.5282, 5.25122, -174.028, 5.35194, 66.0924, 0.0414607, -112.733
0, 2760.00000, 116.29, -31.2926, 115.726, -150.947, 117.309, 89.1712, 0, 0, 5.29932, -54.3665, 5.27071, -174.021, 5.35103, 66.0972, 0.0384782, -110.517
0, 2820.00000, 116.29, -31.2926, 115.727, -150.947, 117.309, 89.1712, 0, 0, 5.29935, -54.3665, 5.27077, -174.021, 5.35101, 66.0973, 0.0383922, -110.497
0, 2880.00000, 116.29, -31.2926, 115.727, -150.947, 117.309, 89.1712, 0, 0, 5.29935, -54.3665, 5.27077, -174.021, 5.35101, 66.0973, 0.0383918, -110.497
0, 2940.00000, 116.29, -31.2926, 115.727, -150.947, 117.309, 89.1712, 0, 0, 5.29935, -54.3665, 5.27077, -174.021, 5.35101, 66.0973, 0.0383918, -110.497
0, 3000.00000, 116.29, -31.2926, 115.727, -150.947, 117.309, 89.1712, 0, 0, 5.29935, -54.3665, 5.27077, -174.021, 5.35101, 66.0973, 0.0383918, -110.497
0, 3060.00000, 116.29, -31.2926, 115.727, -150.947, 117.309, 89.1712, 0, 0, 5.29935, -54.3665, 5.27077, -174.021, 5.35101, 66.0973, 0.0383918, -110.497
0, 3120.00000, 116.29, -31.2926, 115.727, -150.947, 117.309, 89.1712, 0, 0, 5.29935, -54.3665, 5.27077, -174.021, 5.35101, 66.0973, 0.0383918, -110.497
0, 3180.00000, 116.29, -31.2926, 115.727, -150.947, 117.309, 89.1712, 0, 0, 5.29935, -54.3665, 5.27077, -174.021, 5.35101, 66.0973, 0.0383918, -110.497
0, 3240.00000, 116.29, -31.2926, 115.727, -150.947, 117.309, 89.1712, 0, 0, 5.29935, -54.3665, 5.27077, -174.021, 5.35101, 66.0973, 0.0383918, -110.497
0, 3300.00000, 116.29, -31.2926, 115.727, -150.947, 117.309, 89.1712, 0, 0, 5.29935, -54.3665, 5.27077, -174.021, 5.35101, 66.0973, 0.0383918, -110.497
0, 3360.00000, 116.29, -31.2926, 115.727, -150.947, 117.309, 89.1712, 0, 0, 5.29935, -54.3665, 5.27077, -174.021, 5.35101, 66.0973, 0.0383918, -110.497
0, 3420.00000, 116.29, -31.2926, 115.727, -150.947, 117.309, 89.1712, 0, 0, 5.29935, -54.3665, 5.27077, -174.021, 5.35101, 66.0973, 0.0383918, -110.497
0, 3480.00000, 116.29, -31.2926, 115.727, -150.947, 117.309, 89.1712, 0, 0, 5.29935, -54.3665, 5.27077, -174.021, 5.35101, 66.0973, 0.0383918, -110.497
0, 3540.00000, 116.29, -31.2926, 115.727, -150.947, 117.309, 89.1712, 0, 0, 5.29935, -54.3665, 5.27077, -174.021, 5.35101, 66.0973, 0.0383918, -110.497
1, 0.00000, 116.29, -31.2926, 115.727, -150.947, 117.309, 89.1712, 0, 0, 5.29935, -54.3665, 5.27077, -174.021, 5.35101, 66.0973, 0.0383918, -110.497
1, 60.00000, 116.613, -31.2656, 115.725, -150.947, 117.433, 89.3138, 0, 0, 5.31569, -54.3398, 5.2707, -174.021, 5.35729, 66.2397, 0.0384265, -113.64
1, 120.00000, 116.614, -31.2656, 115.725, -150.947, 117.433, 89.3138, 0, 0, 5.31575, -54.3395, 5.27068, -174.021, 5.3573, 66.2398, 0.0384438, -113.743
1, 180.00000, 116.614, -31.2656, 115.725, -150.947, 117.433, 89.3138, 0, 0, 5.31575, -54.3395, 5.27068, -174.021, 5.3573, 66.2398, 0.038444, -113.744
1, 240.00000, 116.614, -31.2656, 115.725, -150.947, 117.433, 89.3138, 0, 0, 5.31575, -54.3395, 5.27068, -174.021, 5.3573, 66.2398, 0.038444, -113.744
1, 300.00000, 116.614, -31.2656, 115.725, -150.947, 117.433, 89.3138, 0, 0, 5.31575, -54.3395, 5.27068, -174.021, 5.3573, 66.2398, 0.038444, -113.744
1, 360.00000, 116.614, -31.2656, 115.725, -150.947, 117.433, 89.3138, 0, 0, 5.31575, -54.3395, 5.27068, -174.021, 5.3573, 66.2398, 0.038444, -113.744
1, 420.00000, 116.614, -31.2656, 115.725, -150.947, 117.433, 89.3138, 0, 0, 5.31575, -54.3395, 5.27068, -174.021, 5.3573, 66.2398, 0.038444, -113.744
1, 480.00000, 116.614, -31.2656, 115.725, -150.947, 117.433, 89.3138, 0, 0, 5.31575, -54.3395, 5.27068, -174.021, 5.3573, 66.2398, 0.038444, -113.744
1, 540.00000, 116.614, -31.2656, 115.725, -150.947, 117.433, 89.3138, 0, 0, 5.31575, -54.3395, 5.27068, -174.021, 5.3573, 66.2398, 0.038444, -113.744
1, 600.00000, 116.614, -31.2656, 115.725, -150.947, 117.433, 89.3138, 0, 0, 5.31575, -54.3395, 5.27068, -174.021, 5.3573, 66.2398, 0.038444, -113.744
1, 660.00000, 116.614, -31.2656, 115.725, -150.947, 117.433, 89.3138, 0, 0, 5.31575, -54.3395, 5.27068, -174.021, 5.3573, 66.2398, 0.038444, -113.744
1, 720.00000, 116.614, -31.2656, 115.725, -150.947, 117.433, 89.3138, 0, 0, 5.31575, -54.3395, 5.27068, -174.021, 5.3573, 66.2398, 0.038444, -113.744
1, 780.00000, 116.614, -31.2656, 115.725, -150.947, 117.433, 89.3138, 0, 0, 5.31575, -54.3395, 5.27068, -174.021, 5.3573, 66.2398, 0.038444, -113.744
1, 840.00000, 116.614, -31.2656, 115.725, -150.947, 117.433, 89.3138, 0, 0, 5.31575, -54.3395, 5.27068, -174.021, 5.3573, 66.2398, 0.038444, -113.744
1, 900.00000, 116.614, -31.2656, 115.725, -150.947, 117.433, 89.3138, 0, 0, 5.31575, -54.3395, 5.27068, -174.021, 5.3573, 66.2398, 0.038444, -113.744
1, 960.00000, 116.614, -31.2656, 115.725, -150.947, 117.433, 89.3138, 0, 0, 5.31575, -54.3395, 5.27068, -174.021, 5.3573, 66.2398, 0.038444, -113.744
1, 1020.00000, 116.614, -31.2656, 115.725, -150.947, 117.433, 89.3138, 0, 0, 5.31575, -54.3395, 5.27068, -174.021, 5.3573, 66.2398, 0.038444, -113.744
1, 1080.00000, 116.614, -31.2656, 115.725, -150.947, 117.433, 89.3138, 0, 0, 5.31575, -54.3395, 5.27068, -174.021, 5.3573, 66.2398, 0.038444, -113.744
1, 1140.00000, 116.614, -31.2656, 115.725, -150.947, 117.433, 89.3138, 0, 0, 5.31575, -54.3395, 5.27068, -174.021, 5.3573, 66.2398, 0.038444, -113.744
1, 1200.00000, 116.614, -31.2656, 115.725, -150.947, 117.433, 89.3138, 0, 0, 5.31575, -54.3395, 5.27068, -174.021, 5.3573, 66.2398, 0.038444, -113.744
1, 1260.00000, 116.614, -31.2656, 115.725, -150.947, 117.433, 89.3138, 0, 0, 5.31575, -54.3395, 5.27068, -174.021, 5.3573, 66.2398, 0.038444, -113.744
1, 1320.00000, 116.614, -31.2656, 115.725, -150.947, 117.433, 89.3138, 0, 0, 5.31575, -54.3395, 5.27068, -174.021, 5.3573, 66.2398, 0.038444, -113.744
1, 1380.00000, 116.614, -31.2656, 115.725, -150.947, 117.433, 89.3138, 0, 0, 5.31575, -54.3395, 5.27068, -174.021, 5.3573, 66.2398, 0.038444, -113.744
1, 1440.00000, 116.614, -31.2656, 115.725, -150.947, 117.433, 89.3138, 0, 0, 5.31575, -54.3395, 5.27068, -174.021, 5.3573, 66.2398, 0.038444, -113.744
1, 1500.00000, 116.614, -31.2656, 115.725, -150.947, 117.433, 89.3138, 0, 0, 5.31575, -54.3395, 5.27068, -174.021, 5.3573, 66.2398, 0.038444, -113.744
1, 1560.00000, 116.614, -31.2656, 115.725, -150.947, 117.433, 89.3138, 0, 0, 5.31575, -54.3395, 5.27068, -174.021, 5.3573, 66.2398, 0.038444, -113.744
1, 1620.00000, 116.614, -31.2656, 115.725, -150.947, 117.433, 89.3138, 0, 0, 5.31575, -54.3395, 5.27068, -174.021, 5.3573, 66.2398, 0.038444, -113.744
1, 1680.00000, 116.614, -31.2656, 115.725, -150.947, 117.433, 89.3138, 0, 0, 5.31575, -54.3395, 5.27068, -174.021, 5.3573, 66.2398, 0.038444, -113.744
1, 1740.00000, 116.614, -31.2656, 115.725, -150.947, 117.433, 89.3138, 0, 0, 5.31575, -54.3395, 5.27068, -174.021, 5.3573, 66.2398, 0.038444, -113.744
1, 1800.00000, 116.614, -31.2656, 115.725, -150.947, 117.433, 89.3138, 0, 0, 5.31575, -54.3395, 5.27068, -174.021, 5.3573, 66.2398, 0.038444, -113.744
1, 1860.00000, 116.614, -31.2656, 115.725, -150.947, 117.433, 89.3138, 0, 0, 5.31575, -54.3395, 5.27068, -174.021, 5.3573, 66.2398, 0.038444, -113.744
1, 1920.00000, 116.614, -31.2656, 115.725, -150.947, 117.433, 89.3138, 0, 0, 5.31575, -54.3395, 5.27068, -174.021, 5.3573, 66.2398, 0.038444, -113.744
1, 1980.00000, 116.614, -31.2656, 115.725, -150.947, 117.433, 89.3138, 0, 0, 5.31575, -54.3395, 5.27068, -174.021, 5.3573, 66.2398, 0.038444, -113.744
1, 2040.00000, 116.614, -31.2656, 115.725, -150.947, 117.433, 89.3138, 0, 0, 5.31575, -54.3395, 5.27068, -174.021, 5.3573, 66.2398, 0.038444, -113.744
1, 2100.00000, 116.614, -31.2656, 115.725, -150.947, 117.433, 89.3138, 0, 0, 5.31575, -54.3395, 5.27068, -174.021, 5.3573, 66.2398, 0.038444, -113.744
1, 2160.00000, 116.614, -31.2656, 115.725, -150.947, 117.433, 89.3138, 0, 0, 5.31575, -54.3395, 5.27068, -174.021, 5.3573, 66.2398, 0.038444, -113.744
1, 2220.00000, 116.614, -31.2656, 115.725, -150.947, 117.433, 89.3138, 0, 0, 5.31575, -54.3395, 5.27068, -174.021, 5.3573, 66.2398, 0.038444, -113.744
1, 2280.00000, 116.614, -31.2656, 115.725, -150.947, 117.433, 89.3138, 0, 0, 5.31575, -54.3395, 5.27068, -174.021, 5.3573, 66.2398, 0.038444, -113.744
1, 2340.00000, 116.614, -31.2656, 115.725, -150.947, 117.433, 89.3138, 0, 0, 5.31575, -54.3395, 5.27068, -174.021, 5.3573, 66.2398, 0.038444, -113.744
1, 2400.00000, 116.614, -31.2656, 115.725, -150.947, 117.433, 89.3138, 0, 0, 5.31575, -54.3395, 5.27068, -174.021, 5.3573, 66.2398, 0.038444, -113.744
1, 2460.00000, 116.614, -31.2656, 115.725, -150.947, 117.433, 89.3138, 0, 0, 5.31575, -54.3395, 5.27068, -174.021, 5.3573, 66.2398, 0.038444, -113.744
1, 2520.00000, 116.614, -31.2656, 115.725, -150.947, 117.433, 89.3138, 0, 0, 5.31575, -54.3395, 5.27068, -174.021, 5.3573, 66.2398, 0.038444, -113.744
1, 2580.00000, 116.614, -31.2656, 115.725, -150.947, 117.433, 89.3138, 0, 0, 5.31575, -54.3395, 5.27068, -174.021, 5.3573, 66.2398, 0.038444, -113.744
1, 2640.00000, 116.614, -31.2656, 115.725, -150.947, 117.433, 89.3138, 0, 0, 5.31575, -54.3395, 5.27068, -174.021, 5.3573, 66.2398, 0.038444, -113.744
1, 2700.00000, 116.614, -31.2656, 115.725, -150.947, 117.433, 89.3138, 0, 0, 5.31575, -54.3395, 5.27068, -174.021, 5.3573, 66.2398, 0.038444, -113.744
1, 2760.00000, 116.614, -31.2656, 115.725, -150.947, 117.433, 89.3138, 0, 0, 5.31575, -54.3395, 5.27068, -174.021, 5.3573, 66.2398, 0.038444, -113.744
1, 2820.00000, 116.614, -31.2656, 115.725, -150.947, 117.433, 89.3138, 0, 0, 5.31575, -54.3395, 5.27068, -174.021, 5.3573, 66.2398, 0.038444, -113.744
1, 2880.00000, 116.614, -31.2656, 115.725, -150.947, 117.433, 89.3138, 0, 0, 5.31575, -54.3395, 5.27068, -174.021, 5.3573, 66.2398, 0.038444, -113.744
1, 2940.00000, 116.614, -31.2656, 115.725, -150.947, 117.433, 89.3138, 0, 0, 5.31575, -54.3395, 5.27068, -174.021, 5.3573, 66.2398, 0.038444, -113.744
1, 3000.00000, 116.614, -31.2656, 115.725, -150.947, 117.433, 89.3138, 0, 0, 5.31575, -54.3395, 5.27068, -174.021, 5.3573, 66.2398, 0.038444, -113.744
1, 3060.00000, 116.614, -31.2656, 115.725, -150.947, 117.433, 89.3138, 0, 0, 5.31575, -54.3395, 5.27068, -174.021, 5.3573, 66.2398, 0.038444, -113.744
1, 3120.00000, 116.614, -31.2656, 115.725, -150.947, 117.433, 89.3138, 0, 0, 5.31575, -54.3395, 5.27068, -174.021, 5.3573, 66.2398, 0.038444, -113.744
1, 3180.00000, 116.614, -31.2656, 115.725, -150.947, 117.433, 89.3138, 0, 0, 5.31575, -54.3395, 5.27068, -174.021, 5.3573, 66.2398, 0.038444, -113.744
1, 3240.00000, 116.614, -31.2656, 115.725, -150.947, 117.433, 89.3138, 0, 0, 5.31575, -54.3395, 5.27068, -174.021, 5.3573, 66.2398, 0.038444, -113.744
1, 3300.00000, 116.614, -31.2656, 115.725, -150.947, 117.433, 89.3138, 0, 0, 5.31575, -54.3395, 5.27068, -174.021, 5.3573, 66.2398, 0.038444, -113.744
1, 3360.00000, 116.614, -31.2656, 115.725, -150.947, 117.433, 89.3138, 0, 0, 5.31575, -54.3395, 5.27068, -174.021, 5.3573, 66.2398, 0.038444, -113.744
1, 3420.00000, 116.614, -31.2656, 115.725, -150.947, 117.433, 89.3138, 0, 0, 5.31575, -54.3395, 5.27068, -174.021, 5.3573, 66.2398, 0.038444, -113.744
1, 3480.00000, 116.614, -31.2656, 115.725, -150.947, 117.433, 89.3138, 0, 0, 5.31575, -54.3395, 5.27068, -174.021, 5.3573, 66.2398, 0.038444, -113.744
1, 3540.00000, 116.614, -31.2656, 115.725, -150.947, 117.433, 89.3138, 0, 0, 5.31575, -54.3395, 5.27068, -174.021, 5.3573, 66.2398, 0.038444, -113.744
2, 0.00000, 116.614, -31.2656, 115.725, -150.947, 117.433, 89.3138, 0, 0, 5.31575, -54.3395, 5.27068, -174.021, 5.3573, 66.2398, 0.038444, -113.744
2, 60.00000, 116.614, -31.2656, 115.725, -150.947, 117.433, 89.3138, 0, 0, 5.31575, -54.3395, 5.27068, -174.021, 5.3573, 66.2398, 0.038444, -113.744
2, 120.00000, 116.614, -31.2656, 115.725, -150.947, 117.433, 89.3138, 0, 0, 5.31575, -54.3395, 5.27068, -174.021, 5.3573, 66.2398, 0.038444, -113.744
2, 180.00000, 116.614, -31.2656, 115.725, -150.947, 117.433, 89.3138, 0, 0, 5.31575, -54.3395, 5.27068, -174.021, 5.3573, 66.2398, 0.038444, -113.744
2, 240.00000, 116.614, -31.2656, 115.725, -150.947, 117.433, 89.3138, 0, 0, 5.31575, -54.3395, 5.27068, -174.021, 5.3573, 66.2398, 0.038444, -113.744
2, 300.00000, 116.614, -31.2656, 115.725, -150.947, 117.433, 89.3138, 0, 0, 5.31575, -54.3395, 5.27068, -174.021, 5.3573, 66.2398, 0.038444, -113.744
2, 360.00000, 116.614, -31.2656, 115.725, -150.947, 117.433, 89.3138, 0, 0, 5.31575, -54.3395, 5.27068, -174.021, 5.3573, 66.2398, 0.038444, -113.744
2, 420.00000, 116.614, -31.2656, 115.725, -150.947, 117.433, 89.3138, 0, 0, 5.31575, -54.3395, 5.27068, -174.021, 5.3573, 66.2398, 0.038444, -113.744
2, 480.00000, 116.614, -31.2656, 115.725, -150.947, 117.433, 89.3138, 0, 0, 5.31575, -54.3395, 5.27068, -174.021, 5.3573, 66.2398, 0.038444, -113.744
2, 540.00000, 116.614, -31.2656, 115.725, -150.947, 117.433, 89.3138, 0, 0, 5.31575, -54.3395, 5.27068, -174.021, 5.3573, 66.2398, 0.038444, -113.744
2, 600.00000, 116.614, -31.2656, 115.725, -150.947, 117.433, 89.3138, 0, 0, 5.31575, -54.3395, 5.27068, -174.021, 5.3573, 66.2398, 0.038444, -113.744
2, 660.00000, 116.614, -31.2656, 115.725, -150.947, 117.433, 89.3138, 0, 0, 5.31575, -54.3395, 5.27068, -174.021, 5.3573, 66.2398, 0.038444, -113.744
2, 720.00000, 116.614, -31.2656, 115.725, -150.947, 117.433, 89.3138, 0, 0, 5.31575, -54.3395, 5.27068, -174.021, 5.3573, 66.2398, 0.038444, -113.744
