hour,t(sec),V1,VAngle1,V2,VAngle2,V3,VAngle3,V4,VAngle4,I1,IAngle1,I2,IAngle2,I3,IAngle3,I4,IAngle4
0, 60.00000, 122.955, -31.4714, 123.982, -151.549, 123.447, 88.1218, 0, 0, 6.15545, -54.5451, 6.10448, -174.623, 6.13095, 65.0483, 0.0838986, 160.929
0, 120.00000, 122.955, -31.4714, 123.982, -151.549, 123.447, 88.1217, 0, 0, 6.15553, -54.5453, 6.10454, -174.623, 6.13101, 65.0478, 0.0839359, 160.922
0, 180.00000, 122.955, -31.4714, 123.982, -151.549, 123.447, 88.1217, 0, 0, 6.15553, -54.5453, 6.10454, -174.623, 6.13101, 65.0478, 0.083936, 160.922
0, 240.00000, 122.955, -31.4714, 123.982, -151.549, 123.447, 88.1217, 0, 0, 6.15553, -54.5453, 6.10454, -174.623, 6.13101, 65.0478, 0.083936, 160.922
0, 300.00000, 122.955, -31.4714, 123.982, -151.549, 123.447, 88.1217, 0, 0, 6.15553, -54.5453, 6.10454, -174.623, 6.13101, 65.0478, 0.083936, 160.922
0, 360.00000, 122.955, -31.4714, 123.982, -151.549, 123.447, 88.1217, 0, 0, 6.15553, -54.5453, 6.10454, -174.623, 6.13101, 65.0478, 0.083936, 160.922
0, 420.00000, 122.955, -31.4714, 123.982, -151.549, 123.447, 88.1217, 0, 0, 6.15553, -54.5453, 6.10454, -174.623, 6.13101, 65.0478, 0.083936, 160.922
0, 480.00000, 123.441, -31.3454, 124.448, -151.427, 123.906, 88.2549, 0, 0, 5.33433, -54.4196, 5.29115, -174.501, 5.31427, 65.1806, 0.071169, 161.967
0, 540.00000, 123.441, -31.3454, 124.448, -151.427, 123.906, 88.255, 0, 0, 5.33425, -54.4193, 5.29109, -174.501, 5.31421, 65.181, 0.0711319, 161.984
0, 600.00000, 123.441, -31.3454, 124.448, -151.427, 123.906, 88.255, 0, 0, 5.33425, -54.4193, 5.29109, -174.501, 5.31421, 65.181, 0.0711318, 161.984
0, 660.00000, 123.441, -31.3454, 124.448, -151.427, 123.906, 88.255, 0, 0, 5.33425, -54.4193, 5.29109, -174.501, 5.31421, 65.181, 0.0711318, 161.984
0, 720.00000, 123.441, -31.3454, 124.448, -151.427, 123.906, 88.255, 0, 0, 5.33425, -54.4193, 5.29109, -174.501, 5.31421, 65.181, 0.0711318, 161.984
0, 780.00000, 123.441, -31.3454, 124.448, -151.427, 123.906, 88.255, 0, 0, 5.33425, -54.4193, 5.29109, -174.501, 5.31421, 65.181, 0.0711318, 161.984
0, 840.00000, 123.441, -31.3454, 124.448, -151.427, 123.906, 88.255, 0, 0, 5.33425, -54.4193, 5.29109, -174.501, 5.31421, 65.181, 0.0711318, 161.984
0, 900.00000, 123.441, -31.3454, 124.448, -151.427, 123.906, 88.255, 0, 0, 5.33425, -54.4193, 5.29109, -174.501, 5.31421, 65.181, 0.0711318, 161.984
0, 960.00000, 123.337, -31.4727, 124.149, -151.453, 123.913, 88.2531, 0, 0, 5.33872, -54.5466, 5.30381, -174.527, 5.31395, 65.1792, 0.0573072, 146.435
0, 1020.00000, 123.337, -31.4727, 124.149, -151.453, 123.913, 88.2531, 0, 0, 5.33873, -54.5466, 5.30384, -174.527, 5.31394, 65.1792, 0.0572885, 146.406
0, 1080.00000, 123.337, -31.4727, 124.149, -151.453, 123.913, 88.2531, 0, 0, 5.33873, -54.5466, 5.30384, -174.527, 5.31394, 65.1792, 0.0572884, 146.406
0, 1140.00000, 123.337, -31.4727, 124.149, -151.453, 123.913, 88.2531, 0, 0, 5.33873, -54.5466, 5.30384, -174.527, 5.31394, 65.1792, 0.0572884, 146.406
0, 1200.00000, 123.337, -31.4727, 124.149, -151.453, 123.913, 88.2531, 0, 0, 5.33873, -54.5466, 5.30384, -174.527, 5.31394, 65.1792, 0.0572884, 146.406
0, 1260.00000, 123.337, -31.4727, 124.149, -151.453, 123.913, 88.2531, 0, 0, 5.33873, -54.5466, 5.30384, -174.527, 5.31394, 65.1792, 0.0572884, 146.406
0, 1320.00000, 123.337, -31.4727, 124.149, -151.453, 123.913, 88.2531, 0, 0, 5.33873, -54.5466, 5.30384, -174.527, 5.31394, 65.1792, 0.0572884, 146.406
0, 1380.00000, 123.337, -31.4727, 124.149, -151.453, 123.913, 88.2531, 0, 0, 5.33873, -54.5466, 5.30384, -174.527, 5.31394, 65.1792, 0.0572884, 146.406
0, 1440.00000, 123.337, -31.4727, 124.149, -151.453, 123.913, 88.2531, 0, 0, 5.33873, -54.5466, 5.30384, -174.527, 5.31394, 65.1792, 0.0572884, 146.406
0, 1500.00000, 123.337, -31.4727, 124.149, -151.453, 123.913, 88.2531, 0, 0, 5.33873, -54.5466, 5.30384, -174.527, 5.31394, 65.1792, 0.0572884, 146.406
0, 1560.00000, 123.337, -31.4727, 124.149, -151.453, 123.913, 88.2531, 0, 0, 5.33873, -54.5466, 5.30384, -174.527, 5.31394, 65.1792, 0.0572884, 146.406
0, 1620.00000, 123.337, -31.4727, 124.149, -151.453, 123.913, 88.2531, 0, 0, 5.33873, -54.5466, 5.30384, -174.527, 5.31394, 65.1792, 0.0572884, 146.406
0, 1680.00000, 123.337, -31.4727, 124.149, -151.453, 123.913, 88.2531, 0, 0, 5.33873, -54.5466, 5.30384, -174.527, 5.31394, 65.1792, 0.0572884, 146.406
0, 1740.00000, 123.337, -31.4727, 124.149, -151.453, 123.913, 88.2531, 0, 0, 5.33873, -54.5466, 5.30384, -174.527, 5.31394, 65.1792, 0.0572884, 146.406
0, 1800.00000, 123.337, -31.4727, 124.149, -151.453, 123.913, 88.2531, 0, 0, 5.33873, -54.5466, 5.30384, -174.527, 5.31394, 65.1792, 0.0572884, 146.406
0, 1860.00000, 123.337, -31.4727, 124.149, -151.453, 123.913, 88.2531, 0, 0, 5.33873, -54.5466, 5.30384, -174.527, 5.31394, 65.1792, 0.0572884, 146.406
0, 1920.00000, 123.337, -31.4727, 124.149, -151.453, 123.913, 88.2531, 0, 0, 5.33873, -54.5466, 5.30384, -174.527, 5.31394, 65.1792, 0.0572884, 146.406
0, 1980.00000, 123.337, -31.4727, 124.149, -151.453, 123.913, 88.2531, 0, 0, 5.33873, -54.5466, 5.30384, -174.527, 5.31394, 65.1792, 0.0572884, 146.406
0, 2040.00000, 123.337, -31.4727, 124.149, -151.453, 123.913, 88.2531, 0, 0, 5.33873, -54.5466, 5.30384, -174.527, 5.31394, 65.1792, 0.0572884, 146.406
0, 2100.00000, 123.337, -31.4727, 124.149, -151.453, 123.913, 88.2531, 0, 0, 5.33873, -54.5466, 5.30384, -174.527, 5.31394, 65.1792, 0.0572884, 146.406
0, 2160.00000, 123.337, -31.4727, 124.149, -151.453, 123.913, 88.2531, 0, 0, 5.33873, -54.5466, 5.30384, -174.527, 5.31394, 65.1792, 0.0572884, 146.406
0, 2220.00000, 123.337, -31.4727, 124.149, -151.453, 123.913, 88.2531, 0, 0, 5.33873, -54.5466, 5.30384, -174.527, 5.31394, 65.1792, 0.0572884, 146.406
0, 2280.00000, 123.337, -31.4727, 124.149, -151.453, 123.913, 88.2531, 0, 0, 5.33873, -54.5466, 5.30384, -174.527, 5.31394, 65.1792, 0.0572884, 146.406
0, 2340.00000, 123.337, -31.4727, 124.149, -151.453, 123.913, 88.2531, 0, 0, 5.33873, -54.5466, 5.30384, -174.527, 5.31394, 65.1792, 0.0572884, 146.406
0, 2400.00000, 123.337, -31.4727, 124.149, -151.453, 123.913, 88.2531, 0, 0, 5.33873, -54.5466, 5.30384, -174.527, 5.31394, 65.1792, 0.0572884, 146.406
0, 2460.00000, 123.337, -31.4727, 124.149, -151.453, 123.913, 88.2531, 0, 0, 5.33873, -54.5466, 5.30384, -174.527, 5.31394, 65.1792, 0.0572884, 146.406
0, 2520.00000, 123.337, -31.4727, 124.149, -151.453, 123.913, 88.2531, 0, 0, 5.33873, -54.5466, 5.30384, -174.527, 5.31394, 65.1792, 0.0572884, 146.406
0, 2580.00000, 123.337, -31.4727, 124.149, -151.453, 123.913, 88.2531, 0, 0, 5.33873, -54.5466, 5.30384, -174.527, 5.31394, 65.1792, 0.0572884, 146.406
0, 2640.00000, 123.337, -31.4727, 124.149, -151.453, 123.913, 88.2531, 0, 0, 5.33873, -54.5466, 5.30384, -174.527, 5.31394, 65.1792, 0.0572884, 146.406
0, 2700.00000, 123.337, -31.4727, 124.149, -151.453, 123.913, 88.2531, 0, 0, 5.33873, -54.5466, 5.30384, -174.527, 5.31394, 65.1792, 0.0572884, 146.406
0, 2760.00000, 123.588, -31.3003, 124.613, -151.456, 123.887, 88.2562, 0, 0, 5.32794, -54.3743, 5.28415, -174.531, 5.31503, 65.1822, 0.074964, 172.16
0, 2820.00000, 123.588, -31.3003, 124.613, -151.456, 123.887, 88.2562, 0, 0, 5.3279, -54.3743, 5.28408, -174.53, 5.31505, 65.1823, 0.0750137, 172.189
0, 2880.00000, 123.588, -31.3003, 124.613, -151.456, 123.887, 88.2562, 0, 0, 5.3279, -54.3743, 5.28408, -174.53, 5.31505, 65.1823, 0.075014, 172.189
0, 2940.00000, 123.588, -31.3003, 124.613, -151.456, 123.887, 88.2562, 0, 0, 5.3279, -54.3743, 5.28408, -174.53, 5.31505, 65.1823, 0.075014, 172.189
0, 3000.00000, 123.588, -31.3003, 124.613, -151.456, 123.887, 88.2562, 0, 0, 5.3279, -54.3743, 5.28408, -174.53, 5.31505, 65.1823, 0.075014, 172.189
0, 3060.00000, 123.588, -31.3003, 124.613, -151.456, 123.887, 88.2562, 0, 0, 5.3279, -54.3743, 5.28408, -174.53, 5.31505, 65.1823, 0.075014, 172.189
0, 3120.00000, 123.588, -31.3003, 124.613, -151.456, 123.887, 88.2562, 0, 0, 5.3279, -54.3743, 5.28408, -174.53, 5.31505, 65.1823, 0.075014, 172.189
0, 3180.00000, 123.588, -31.3003, 124.613, -151.456, 123.887, 88.2562, 0, 0, 5.3279, -54.3743, 5.28408, -174.53, 5.31505, 65.1823, 0.075014, 172.189
0, 3240.00000, 123.588, -31.3003, 124.613, -151.456, 123.887, 88.2562, 0, 0, 5.3279, -54.3743, 5.28408, -174.53, 5.31505, 65.1823, 0.075014, 172.189
0, 3300.00000, 123.588, -31.3003, 124.613, -151.456, 123.887, 88.2562, 0, 0, 5.3279, -54.3743, 5.28408, -174.53, 5.31505, 65.1823, 0.075014, 172.189
0, 3360.00000, 123.588, -31.3003, 124.613, -151.456, 123.887, 88.2562, 0, 0, 5.3279, -54.3743, 5.28408, -174.53, 5.31505, 65.1823, 0.075014, 172.189
0, 3420.00000, 123.588, -31.3003, 124.613, -151.456, 123.887, 88.2562, 0, 0, 5.3279, -54.3743, 5.28408, -174.53, 5.31505, 65.1823, 0.075014, 172.189
0, 3480.00000, 123.588, -31.3003, 124.613, -151.456, 123.887, 88.2562, 0, 0, 5.3279, -54.3743, 5.28408, -174.53, 5.31505, 65.1823, 0.075014, 172.189
0, 3540.00000, 123.588, -31.3003, 124.613, -151.456, 123.887, 88.2562, 0, 0, 5.3279, -54.3743, 5.28408, -174.53, 5.31505, 65.1823, 0.075014, 172.189
1, 0.00000, 123.588, -31.3003, 124.613, -151.456, 123.887, 88.2562, 0, 0, 5.3279, -54.3743, 5.28408, -174.53, 5.31505, 65.1823, 0.075014, 172.189
1, 60.00000, 124.411, -31.3783, 124.593, -151.459, 124.478, 88.5268, 0, 0, 5.29272, -54.4525, 5.28492, -174.533, 5.28984, 65.4527, 0.0139452, -172.278
1, 120.00000, 124.411, -31.3782, 124.593, -151.459, 124.478, 88.5268, 0, 0, 5.29264, -54.4522, 5.28493, -174.533, 5.28981, 65.4529, 0.0139021, -172.01
1, 180.00000, 124.411, -31.3782, 124.593, -151.459, 124.478, 88.5268, 0, 0, 5.29264, -54.4522, 5.28493, -174.533, 5.28981, 65.4529, 0.0139019, -172.009
1, 240.00000, 124.411, -31.3782, 124.593, -151.459, 124.478, 88.5268, 0, 0, 5.29264, -54.4522, 5.28493, -174.533, 5.28981, 65.4529, 0.0139019, -172.009
1, 300.00000, 124.411, -31.3782, 124.593, -151.459, 124.478, 88.5268, 0, 0, 5.29264, -54.4522, 5.28493, -174.533, 5.28981, 65.4529, 0.0139019, -172.009
1, 360.00000, 124.411, -31.3782, 124.593, -151.459, 124.478, 88.5268, 0, 0, 5.29264, -54.4522, 5.28493, -174.533, 5.28981, 65.4529, 0.0139019, -172.009
1, 420.00000, 124.411, -31.3782, 124.593, -151.459, 124.478, 88.5268, 0, 0, 5.29264, -54.4522, 5.28493, -174.533, 5.28981, 65.4529, 0.0139019, -172.009
1, 480.00000, 124.411, -31.3782, 124.593, -151.459, 124.478, 88.5268, 0, 0, 5.29264, -54.4522, 5.28493, -174.533, 5.28981, 65.4529, 0.0139019, -172.009
1, 540.00000, 124.411, -31.3782, 124.593, -151.459, 124.478, 88.5268, 0, 0, 5.29264, -54.4522, 5.28493, -174.533, 5.28981, 65.4529, 0.0139019, -172.009
1, 600.00000, 124.411, -31.3782, 124.593, -151.459, 124.478, 88.5268, 0, 0, 5.29264, -54.4522, 5.28493, -174.533, 5.28981, 65.4529, 0.0139019, -172.009
1, 660.00000, 124.411, -31.3782, 124.593, -151.459, 124.478, 88.5268, 0, 0, 5.29264, -54.4522, 5.28493, -174.533, 5.28981, 65.4529, 0.0139019, -172.009
1, 720.00000, 124.411, -31.3782, 124.593, -151.459, 124.478, 88.5268, 0, 0, 5.29264, -54.4522, 5.28493, -174.533, 5.28981, 65.4529, 0.0139019, -172.009
1, 780.00000, 124.411, -31.3782, 124.593, -151.459, 124.478, 88.5268, 0, 0, 5.29264, -54.4522, 5.28493, -174.533, 5.28981, 65.4529, 0.0139019, -172.009
1, 840.00000, 124.411, -31.3782, 124.593, -151.459, 124.478, 88.5268, 0, 0, 5.29264, -54.4522, 5.28493, -174.533, 5.28981, 65.4529, 0.0139019, -172.009
1, 900.00000, 124.411, -31.3782, 124.593, -151.459, 124.478, 88.5268, 0, 0, 5.29264, -54.4522, 5.28493, -174.533, 5.28981, 65.4529, 0.0139019, -172.009
1, 960.00000, 124.411, -31.3782, 124.593, -151.459, 124.478, 88.5268, 0, 0, 5.29264, -54.4522, 5.28493, -174.533, 5.28981, 65.4529, 0.0139019, -172.009
1, 1020.00000, 124.411, -31.3782, 124.593, -151.459, 124.478, 88.5268, 0, 0, 5.29264, -54.4522, 5.28493, -174.533, 5.28981, 65.4529, 0.0139019, -172.009
1, 1080.00000, 124.411, -31.3782, 124.593, -151.459, 124.478, 88.5268, 0, 0, 5.29264, -54.4522, 5.28493, -174.533, 5.28981, 65.4529, 0.0139019, -172.009
1, 1140.00000, 124.411, -31.3782, 124.593, -151.459, 124.478, 88.5268, 0, 0, 5.29264, -54.4522, 5.28493, -174.533, 5.28981, 65.4529, 0.0139019, -172.009
1, 1200.00000, 124.411, -31.3782, 124.593, -151.459, 124.478, 88.5268, 0, 0, 5.29264, -54.4522, 5.28493, -174.533, 5.28981, 65.4529, 0.0139019, -172.009
1, 1260.00000, 124.411, -31.3782, 124.593, -151.459, 124.478, 88.5268, 0, 0, 5.29264, -54.4522, 5.28493, -174.533, 5.28981, 65.4529, 0.0139019, -172.009
1, 1320.00000, 124.411, -31.3782, 124.593, -151.459, 124.478, 88.5268, 0, 0, 5.29264, -54.4522, 5.28493, -174.533, 5.28981, 65.4529, 0.0139019, -172.009
1, 1380.00000, 124.411, -31.3782, 124.593, -151.459, 124.478, 88.5268, 0, 0, 5.29264, -54.4522, 5.28493, -174.533, 5.28981, 65.4529, 0.0139019, -172.009
1, 1440.00000, 124.411, -31.3782, 124.593, -151.459, 124.478, 88.5268, 0, 0, 5.29264, -54.4522, 5.28493, -174.533, 5.28981, 65.4529, 0.0139019, -172.009
1, 1500.00000, 124.411, -31.3782, 124.593, -151.459, 124.478, 88.5268, 0, 0, 5.29264, -54.4522, 5.28493, -174.533, 5.28981, 65.4529, 0.0139019, -172.009
1, 1560.00000, 124.411, -31.3782, 124.593, -151.459, 124.478, 88.5268, 0, 0, 5.29264, -54.4522, 5.28493, -174.533, 5.28981, 65.4529, 0.0139019, -172.009
1, 1620.00000, 124.411, -31.3782, 124.593, -151.459, 124.478, 88.5268, 0, 0, 5.29264, -54.4522, 5.28493, -174.533, 5.28981, 65.4529, 0.0139019, -172.009
1, 1680.00000, 124.411, -31.3782, 124.593, -151.459, 124.478, 88.5268, 0, 0, 5.29264, -54.4522, 5.28493, -174.533, 5.28981, 65.4529, 0.0139019, -172.009
1, 1740.00000, 124.411, -31.3782, 124.593, -151.459, 124.478, 88.5268, 0, 0, 5.29264, -54.4522, 5.28493, -174.533, 5.28981, 65.4529, 0.0139019, -172.009
1, 1800.00000, 124.411, -31.3782, 124.593, -151.459, 124.478, 88.5268, 0, 0, 5.29264, -54.4522, 5.28493, -174.533, 5.28981, 65.4529, 0.0139019, -172.009
1, 1860.00000, 124.411, -31.3782, 124.593, -151.459, 124.478, 88.5268, 0, 0, 5.29264, -54.4522, 5.28493, -174.533, 5.28981, 65.4529, 0.0139019, -172.009
1, 1920.00000, 124.411, -31.3782, 124.593, -151.459, 124.478, 88.5268, 0, 0, 5.29264, -54.4522, 5.28493, -174.533, 5.28981, 65.4529, 0.0139019, -172.009
1, 1980.00000, 124.411, -31.3782, 124.593, -151.459, 124.478, 88.5268, 0, 0, 5.29264, -54.4522, 5.28493, -174.533, 5.28981, 65.4529, 0.0139019, -172.009
1, 2040.00000, 124.411, -31.3782, 124.593, -151.459, 124.478, 88.5268, 0, 0, 5.29264, -54.4522, 5.28493, -174.533, 5.28981, 65.4529, 0.0139019, -172.009
1, 2100.00000, 124.411, -31.3782, 124.593, -151.459, 124.478, 88.5268, 0, 0, 5.29264, -54.4522, 5.28493, -174.533, 5.28981, 65.4529, 0.0139019, -172.009
1, 2160.00000, 124.411, -31.3782, 124.593, -151.459, 124.478, 88.5268, 0, 0, 5.29264, -54.4522, 5.28493, -174.533, 5.28981, 65.4529, 0.0139019, -172.009
1, 2220.00000, 124.411, -31.3782, 124.593, -151.459, 124.478, 88.5268, 0, 0, 5.29264, -54.4522, 5.28493, -174.533, 5.28981, 65.4529, 0.0139019, -172.009
1, 2280.00000, 124.411, -31.3782, 124.593, -151.459, 124.478, 88.5268, 0, 0, 5.29264, -54.4522, 5.28493, -174.533, 5.28981, 65.4529, 0.0139019, -172.009
1, 2340.00000, 124.411, -31.3782, 124.593, -151.459, 124.478, 88.5268, 0, 0, 5.29264, -54.4522, 5.28493, -174.533, 5.28981, 65.4529, 0.0139019, -172.009
1, 2400.00000, 124.411, -31.3782, 124.593, -151.459, 124.478, 88.5268, 0, 0, 5.29264, -54.4522, 5.28493, -174.533, 5.28981, 65.4529, 0.0139019, -172.009
1, 2460.00000, 124.411, -31.3782, 124.593, -151.459, 124.478, 88.5268, 0, 0, 5.29264, -54.4522, 5.28493, -174.533, 5.28981, 65.4529, 0.0139019, -172.009
1, 2520.00000, 124.411, -31.3782, 124.593, -151.459, 124.478, 88.5268, 0, 0, 5.29264, -54.4522, 5.28493, -174.533, 5.28981, 65.4529, 0.0139019, -172.009
1, 2580.00000, 124.411, -31.3782, 124.593, -151.459, 124.478, 88.5268, 0, 0, 5.29264, -54.4522, 5.28493, -174.533, 5.28981, 65.4529, 0.0139019, -172.009
1, 2640.00000, 124.411, -31.3782, 124.593, -151.459, 124.478, 88.5268, 0, 0, 5.29264, -54.4522, 5.28493, -174.533, 5.28981, 65.4529, 0.0139019, -172.009
1, 2700.00000, 124.411, -31.3782, 124.593, -151.459, 124.478, 88.5268, 0, 0, 5.29264, -54.4522, 5.28493, -174.533, 5.28981, 65.4529, 0.0139019, -172.009
1, 2760.00000, 124.411, -31.3782, 124.593, -151.459, 124.478, 88.5268, 0, 0, 5.29264, -54.4522, 5.28493, -174.533, 5.28981, 65.4529, 0.0139019, -172.009
1, 2820.00000, 124.411, -31.3782, 124.593, -151.459, 124.478, 88.5268, 0, 0, 5.29264, -54.4522, 5.28493, -174.533, 5.28981, 65.4529, 0.0139019, -172.009
1, 2880.00000, 124.411, -31.3782, 124.593, -151.459, 124.478, 88.5268, 0, 0, 5.29264, -54.4522, 5.28493, -174.533, 5.28981, 65.4529, 0.0139019, -172.009
1, 2940.00000, 124.411, -31.3782, 124.593, -151.459, 124.478, 88.5268, 0, 0, 5.29264, -54.4522, 5.28493, -174.533, 5.28981, 65.4529, 0.0139019, -172.009
1, 3000.00000, 124.411, -31.3782, 124.593, -151.459, 124.478, 88.5268, 0, 0, 5.29264, -54.4522, 5.28493, -174.533, 5.28981, 65.4529, 0.0139019, -172.009
1, 3060.00000, 124.411, -31.3782, 124.593, -151.459, 124.478, 88.5268, 0, 0, 5.29264, -54.4522, 5.28493, -174.533, 5.28981, 65.4529, 0.0139019, -172.009
1, 3120.00000, 124.411, -31.3782, 124.593, -151.459, 124.478, 88.5268, 0, 0, 5.29264, -54.4522, 5.28493, -174.533, 5.28981, 65.4529, 0.0139019, -172.009
1, 3180.00000, 124.411, -31.3782, 124.593, -151.459, 124.478, 88.5268, 0, 0, 5.29264, -54.4522, 5.28493, -174.533, 5.28981, 65.4529, 0.0139019, -172.009
1, 3240.00000, 124.411, -31.3782, 124.593, -151.459, 124.478, 88.5268, 0, 0, 5.29264, -54.4522, 5.28493, -174.533, 5.28981, 65.4529, 0.0139019, -172.009
1, 3300.00000, 124.411, -31.3782, 124.593, -151.459, 124.478, 88.5268, 0, 0, 5.29264, -54.4522, 5.28493, -174.533, 5.28981, 65.4529, 0.0139019, -172.009
1, 3360.00000, 124.411, -31.3782, 124.593, -151.459, 124.478, 88.5268, 0, 0, 5.29264, -54.4522, 5.28493, -174.533, 5.28981, 65.4529, 0.0139019, -172.009
1, 3420.00000, 124.411, -31.3782, 124.593, -151.459, 124.478, 88.5268, 0, 0, 5.29264, -54.4522, 5.28493, -174.533, 5.28981, 65.4529, 0.0139019, -172.009
1, 3480.00000, 124.411, -31.3782, 124.593, -151.459, 124.478, 88.5268, 0, 0, 5.29264, -54.4522, 5.28493, -174.533, 5.28981, 65.4529, 0.0139019, -172.009
1, 3540.00000, 124.411, -31.3782, 124.593, -151.459, 124.478, 88.5268, 0, 0, 5.29264, -54.4522, 5.28493, -174.533, 5.28981, 65.4529, 0.0139019, -172.009
2, 0.00000, 124.411, -31.3782, 124.593, -151.459, 124.478, 88.5268, 0, 0, 5.29264, -54.4522, 5.28493, -174.533, 5.28981, 65.4529, 0.0139019, -172.009
2, 60.00000, 124.411, -31.3782, 124.593, -151.459, 124.478, 88.5268, 0, 0, 5.29264, -54.4522, 5.28493, -174.533, 5.28981, 65.4529, 0.0139019, -172.009
2, 120.00000, 124.411, -31.3782, 124.593, -151.459, 124.478, 88.5268, 0, 0, 5.29264, -54.4522, 5.28493, -174.533, 5.28981, 65.4529, 0.0139019, -172.009
2, 180.00000, 124.411, -31.3782, 124.593, -151.459, 124.478, 88.5268, 0, 0, 5.29264, -54.4522, 5.28493, -174.533, 5.28981, 65.4529, 0.0139019, -172.009
2, 240.00000, 124.411, -31.3782, 124.593, -151.459, 124.478, 88.5268, 0, 0, 5.29264, -54.4522, 5.28493, -174.533, 5.28981, 65.4529, 0.0139019, -172.009
2, 300.00000, 124.411, -31.3782, 124.593, -151.459, 124.478, 88.5268, 0, 0, 5.29264, -54.4522, 5.28493, -174.533, 5.28981, 65.4529, 0.0139019, -172.009
2, 360.00000, 124.411, -31.3782, 124.593, -151.459, 124.478, 88.5268, 0, 0, 5.29264, -54.4522, 5.28493, -174.533, 5.28981, 65.4529, 0.0139019, -172.009
2, 420.00000, 124.411, -31.3782, 124.593, -151.459, 124.478, 88.5268, 0, 0, 5.29264, -54.4522, 5.28493, -174.533, 5.28981, 65.4529, 0.0139019, -172.009
2, 480.00000, 124.411, -31.3782, 124.593, -151.459, 124.478, 88.5268, 0, 0, 5.29264, -54.4522, 5.28493, -174.533, 5.28981, 65.4529, 0.0139019, -172.009
2, 540.00000, 124.411, -31.3782, 124.593, -151.459, 124.478, 88.5268, 0, 0, 5.29264, -54.4522, 5.28493, -174.533, 5.28981, 65.4529, 0.0139019, -172.009
2, 600.00000, 124.411, -31.3782, 124.593, -151.459, 124.478, 88.5268, 0, 0, 5.29264, -54.4522, 5.28493, -174.533, 5.28981, 65.4529, 0.0139019, -172.009
2, 660.00000, 124.411, -31.3782, 124.593, -151.459, 124.478, 88.5268, 0, 0, 5.29264, -54.4522, 5.28493, -174.533, 5.28981, 65.4529, 0.0139019, -172.009
