hour,t(sec),"P1 (kW)","Q1 (kvar)","P2 (kW)","Q2 (kvar)","P3 (kW)","Q3 (kvar)","P4 (kW)","Q4 (kvar)"
0, 60.00000, 0.88262, 0.375947, 0.826984, 0.352298, 0.876837, 0.373517, 0, 0
0, 120.00000, 0.882615, 0.375948, 0.826622, 0.352143, 0.876839, 0.373519, 0, 0
0, 180.00000, 0.882611, 0.375951, 0.826294, 0.352004, 0.876841, 0.373521, 0, 0
0, 240.00000, 0.882607, 0.375953, 0.825998, 0.351877, 0.876842, 0.373523, 0, 0
0, 300.00000, 0.882603, 0.375954, 0.825731, 0.351763, 0.876844, 0.373524, 0, 0
0, 360.00000, 0.8826, 0.375956, 0.825489, 0.351659, 0.876845, 0.373526, 0, 0
0, 420.00000, 0.882596, 0.375957, 0.825271, 0.351566, 0.876847, 0.373527, 0, 0
0, 480.00000, 0.882594, 0.375959, 0.825075, 0.351482, 0.876848, 0.373529, 0, 0
0, 540.00000, 0.882591, 0.37596, 0.824897, 0.351407, 0.876849, 0.37353, 0, 0
0, 600.00000, 0.882589, 0.375961, 0.824737, 0.351338, 0.87685, 0.373531, 0, 0
0, 660.00000, 0.882587, 0.375962, 0.824593, 0.351277, 0.876851, 0.373532, 0, 0
0, 720.00000, 0.882585, 0.375963, 0.824463, 0.351221, 0.876852, 0.373533, 0, 0
0, 780.00000, 0.882583, 0.375964, 0.824346, 0.351171, 0.876853, 0.373534, 0, 0
0, 840.00000, 0.882582, 0.375965, 0.82424, 0.351126, 0.876853, 0.373534, 0, 0
0, 900.00000, 0.882581, 0.375966, 0.824145, 0.351085, 0.876854, 0.373535, 0, 0
0, 960.00000, 0.933654, 0.397724, 0.867922, 0.369734, 0.919871, 0.39186, 0, 0
0, 1020.00000, 0.933654, 0.397725, 0.867842, 0.3697, 0.919872, 0.391861, 0, 0
0, 1080.00000, 0.933653, 0.397725, 0.867769, 0.369669, 0.919872, 0.391861, 0, 0
0, 1140.00000, 0.933652, 0.397726, 0.867703, 0.369641, 0.919873, 0.391862, 0, 0
0, 1200.00000, 0.933651, 0.397726, 0.867644, 0.369615, 0.919873, 0.391862, 0, 0
0, 1260.00000, 0.933651, 0.397727, 0.86759, 0.369592, 0.919874, 0.391863, 0, 0
0, 1320.00000, 0.93365, 0.397727, 0.867542, 0.369572, 0.919874, 0.391863, 0, 0
0, 1380.00000, 0.933649, 0.397727, 0.867499, 0.369553, 0.919874, 0.391863, 0, 0
0, 1440.00000, 0.933649, 0.397728, 0.86746, 0.369537, 0.919875, 0.391864, 0, 0
0, 1500.00000, 0.933648, 0.397728, 0.867425, 0.369522, 0.919875, 0.391864, 0, 0
0, 1560.00000, 0.933648, 0.397728, 0.867393, 0.369508, 0.919875, 0.391864, 0, 0
0, 1620.00000, 0.933648, 0.397729, 0.867365, 0.369496, 0.919876, 0.391864, 0, 0
0, 1680.00000, 0.933647, 0.397729, 0.867339, 0.369485, 0.919876, 0.391865, 0, 0
0, 1740.00000, 0.933647, 0.397729, 0.867316, 0.369475, 0.919876, 0.391865, 0, 0
0, 1800.00000, 0.933647, 0.397729, 0.867295, 0.369466, 0.919876, 0.391865, 0, 0
0, 1860.00000, 0.936482, 0.398937, 0.872847, 0.371831, 0.925905, 0.394433, 0, 0
0, 1920.00000, 0.936482, 0.398937, 0.872829, 0.371824, 0.925905, 0.394433, 0, 0
0, 1980.00000, 0.936481, 0.398937, 0.872814, 0.371817, 0.925905, 0.394433, 0, 0
0, 2040.00000, 0.936481, 0.398938, 0.8728, 0.371812, 0.925905, 0.394433, 0, 0
0, 2100.00000, 0.936481, 0.398938, 0.872788, 0.371806, 0.925905, 0.394433, 0, 0
0, 2160.00000, 0.936481, 0.398938, 0.872777, 0.371801, 0.925905, 0.394433, 0, 0
0, 2220.00000, 0.936481, 0.398938, 0.872767, 0.371797, 0.925905, 0.394434, 0, 0
0, 2280.00000, 0.936481, 0.398938, 0.872758, 0.371793, 0.925905, 0.394434, 0, 0
0, 2340.00000, 0.936481, 0.398938, 0.87275, 0.37179, 0.925905, 0.394434, 0, 0
0, 2400.00000, 0.93648, 0.398938, 0.872742, 0.371787, 0.925905, 0.394434, 0, 0
0, 2460.00000, 0.93648, 0.398938, 0.872736, 0.371784, 0.925905, 0.394434, 0, 0
0, 2520.00000, 0.93648, 0.398938, 0.87273, 0.371781, 0.925905, 0.394434, 0, 0
0, 2580.00000, 0.93648, 0.398938, 0.872725, 0.371779, 0.925905, 0.394434, 0, 0
0, 2640.00000, 0.93648, 0.398938, 0.87272, 0.371777, 0.925905, 0.394434, 0, 0
0, 2700.00000, 0.93648, 0.398938, 0.872716, 0.371775, 0.925905, 0.394434, 0, 0
0, 2760.00000, 0.890728, 0.379448, 0.83453, 0.355508, 0.885612, 0.377269, 0, 0
0, 2820.00000, 0.890727, 0.379448, 0.834526, 0.355506, 0.885612, 0.377269, 0, 0
0, 2880.00000, 0.890727, 0.379448, 0.834523, 0.355505, 0.885612, 0.377269, 0, 0
0, 2940.00000, 0.890727, 0.379448, 0.83452, 0.355504, 0.885612, 0.377269, 0, 0
0, 3000.00000, 0.890727, 0.379448, 0.834518, 0.355503, 0.885612, 0.377269, 0, 0
0, 3060.00000, 0.890727, 0.379448, 0.834515, 0.355502, 0.885612, 0.377269, 0, 0
0, 3120.00000, 0.890727, 0.379448, 0.834513, 0.355501, 0.885612, 0.377269, 0, 0
0, 3180.00000, 0.890727, 0.379448, 0.834512, 0.355501, 0.885612, 0.377269, 0, 0
0, 3240.00000, 0.890727, 0.379448, 0.83451, 0.3555, 0.885612, 0.377269, 0, 0
0, 3300.00000, 0.890727, 0.379448, 0.834509, 0.355499, 0.885612, 0.377269, 0, 0
0, 3360.00000, 0.890727, 0.379448, 0.834507, 0.355499, 0.885612, 0.377269, 0, 0
0, 3420.00000, 0.890727, 0.379448, 0.834506, 0.355498, 0.885612, 0.377269, 0, 0
0, 3480.00000, 0.890728, 0.379448, 0.83952, 0.357634, 0.885439, 0.377195, 0, 0
0, 3540.00000, 0.890727, 0.379448, 0.840605, 0.358096, 0.890029, 0.379151, 0, 0
1, 0.00000, 0.890727, 0.379448, 0.840604, 0.358096, 0.890029, 0.379151, 0, 0
1, 60.00000, 0.880314, 0.375012, 0.833992, 0.355279, 0.880314, 0.375012, 0, 0
1, 120.00000, 0.880314, 0.375012, 0.833991, 0.355278, 0.880314, 0.375012, 0, 0
1, 180.00000, 0.880314, 0.375012, 0.83399, 0.355278, 0.880314, 0.375012, 0, 0
1, 240.00000, 0.880314, 0.375012, 0.833989, 0.355278, 0.880314, 0.375012, 0, 0
1, 300.00000, 0.880314, 0.375012, 0.833989, 0.355278, 0.880314, 0.375012, 0, 0
1, 360.00000, 0.880314, 0.375012, 0.833988, 0.355278, 0.880314, 0.375012, 0, 0
1, 420.00000, 0.880314, 0.375012, 0.833988, 0.355277, 0.880314, 0.375012, 0, 0
1, 480.00000, 0.880314, 0.375012, 0.833988, 0.355277, 0.880314, 0.375012, 0, 0
1, 540.00000, 0.880314, 0.375012, 0.833987, 0.355277, 0.880314, 0.375012, 0, 0
1, 600.00000, 0.880314, 0.375012, 0.833987, 0.355277, 0.880314, 0.375012, 0, 0
1, 660.00000, 0.880314, 0.375012, 0.833987, 0.355277, 0.880314, 0.375012, 0, 0
1, 720.00000, 0.880314, 0.375012, 0.833987, 0.355277, 0.880314, 0.375012, 0, 0
1, 780.00000, 0.880314, 0.375012, 0.833986, 0.355277, 0.880314, 0.375012, 0, 0
1, 840.00000, 0.880314, 0.375012, 0.833986, 0.355277, 0.880314, 0.375012, 0, 0
1, 900.00000, 0.880314, 0.375012, 0.833986, 0.355277, 0.880314, 0.375012, 0, 0
1, 960.00000, 0.876194, 0.373257, 0.830797, 0.353918, 0.876194, 0.373257, 0, 0
1, 1020.00000, 0.876193, 0.373257, 0.830797, 0.353918, 0.876193, 0.373257, 0, 0
1, 1080.00000, 0.876193, 0.373257, 0.830797, 0.353918, 0.876193, 0.373257, 0, 0
1, 1140.00000, 0.876193, 0.373257, 0.830796, 0.353918, 0.876193, 0.373257, 0, 0
1, 1200.00000, 0.876193, 0.373257, 0.830796, 0.353918, 0.876193, 0.373257, 0, 0
1, 1260.00000, 0.876193, 0.373257, 0.830796, 0.353918, 0.876193, 0.373257, 0, 0
1, 1320.00000, 0.876193, 0.373257, 0.830796, 0.353918, 0.876193, 0.373257, 0, 0
1, 1380.00000, 0.876193, 0.373257, 0.830796, 0.353918, 0.876193, 0.373257, 0, 0
1, 1440.00000, 0.876193, 0.373257, 0.830796, 0.353918, 0.876193, 0.373257, 0, 0
1, 1500.00000, 0.876193, 0.373257, 0.830796, 0.353918, 0.876193, 0.373257, 0, 0
1, 1560.00000, 0.876193, 0.373257, 0.830796, 0.353918, 0.876193, 0.373257, 0, 0
1, 1620.00000, 0.876193, 0.373257, 0.830796, 0.353918, 0.876193, 0.373257, 0, 0
1, 1680.00000, 0.876193, 0.373257, 0.830796, 0.353918, 0.876193, 0.373257, 0, 0
1, 1740.00000, 0.876193, 0.373257, 0.830796, 0.353918, 0.876193, 0.373257, 0, 0
1, 1800.00000, 0.876193, 0.373257, 0.830796, 0.353917, 0.876193, 0.373257, 0, 0
1, 1860.00000, 0.897326, 0.382259, 0.856714, 0.364959, 0.897325, 0.382259, 0, 0
1, 1920.00000, 0.897325, 0.382259, 0.856714, 0.364959, 0.897325, 0.382259, 0, 0
1, 1980.00000, 0.897325, 0.382259, 0.856714, 0.364959, 0.897325, 0.382259, 0, 0
1, 2040.00000, 0.897325, 0.382259, 0.856714, 0.364959, 0.897325, 0.382259, 0, 0
1, 2100.00000, 0.897325, 0.382259, 0.856714, 0.364959, 0.897325, 0.382259, 0, 0
1, 2160.00000, 0.897325, 0.382259, 0.856714, 0.364959, 0.897325, 0.382259, 0, 0
1, 2220.00000, 0.897325, 0.382259, 0.856714, 0.364959, 0.897325, 0.382259, 0, 0
1, 2280.00000, 0.897325, 0.382259, 0.856714, 0.364959, 0.897325, 0.382259, 0, 0
1, 2340.00000, 0.897325, 0.382259, 0.856714, 0.364959, 0.897325, 0.382259, 0, 0
1, 2400.00000, 0.897325, 0.382259, 0.856714, 0.364959, 0.897325, 0.382259, 0, 0
1, 2460.00000, 0.897325, 0.382259, 0.856714, 0.364959, 0.897325, 0.382259, 0, 0
1, 2520.00000, 0.897325, 0.382259, 0.856714, 0.364959, 0.897325, 0.382259, 0, 0
1, 2580.00000, 0.897325, 0.382259, 0.856714, 0.364959, 0.897325, 0.382259, 0, 0
1, 2640.00000, 0.897325, 0.382259, 0.856714, 0.364959, 0.897325, 0.382259, 0, 0
1, 2700.00000, 0.897325, 0.382259, 0.856714, 0.364959, 0.897325, 0.382259, 0, 0
1, 2760.00000, 0.845553, 0.360204, 0.81374, 0.346652, 0.845552, 0.360203, 0, 0
1, 2820.00000, 0.845552, 0.360203, 0.813739, 0.346651, 0.845552, 0.360203, 0, 0
1, 2880.00000, 0.845552, 0.360203, 0.813739, 0.346651, 0.845552, 0.360203, 0, 0
1, 2940.00000, 0.845552, 0.360203, 0.813739, 0.346651, 0.845552, 0.360203, 0, 0
1, 3000.00000, 0.845552, 0.360203, 0.813739, 0.346651, 0.845552, 0.360203, 0, 0
1, 3060.00000, 0.845552, 0.360203, 0.813739, 0.346651, 0.845552, 0.360203, 0, 0
1, 3120.00000, 0.845552, 0.360203, 0.813739, 0.346651, 0.845552, 0.360203, 0, 0
1, 3180.00000, 0.845552, 0.360203, 0.813739, 0.346651, 0.845552, 0.360203, 0, 0
1, 3240.00000, 0.845552, 0.360203, 0.813739, 0.346651, 0.845552, 0.360203, 0, 0
1, 3300.00000, 0.845552, 0.360203, 0.813739, 0.346651, 0.845552, 0.360203, 0, 0
1, 3360.00000, 0.845552, 0.360203, 0.813739, 0.346651, 0.845552, 0.360203, 0, 0
1, 3420.00000, 0.845552, 0.360203, 0.813739, 0.346651, 0.845552, 0.360203, 0, 0
1, 3480.00000, 0.845552, 0.360203, 0.813739, 0.346651, 0.845552, 0.360203, 0, 0
1, 3540.00000, 0.845552, 0.360203, 0.813739, 0.346651, 0.845552, 0.360203, 0, 0
2, 0.00000, 0.845552, 0.360203, 0.813739, 0.346651, 0.845552, 0.360203, 0, 0
2, 60.00000, 0.868242, 0.369869, 0.831952, 0.35441, 0.868242, 0.36987, 0, 0
2, 120.00000, 0.868242, 0.36987, 0.831953, 0.354411, 0.868242, 0.36987, 0, 0
2, 180.00000, 0.868242, 0.36987, 0.831953, 0.354411, 0.868242, 0.36987, 0, 0
2, 240.00000, 0.868242, 0.36987, 0.831953, 0.354411, 0.868242, 0.36987, 0, 0
2, 300.00000, 0.868242, 0.36987, 0.831953, 0.354411, 0.868242, 0.36987, 0, 0
2, 360.00000, 0.868242, 0.36987, 0.831953, 0.354411, 0.868242, 0.36987, 0, 0
2, 420.00000, 0.868242, 0.36987, 0.831953, 0.354411, 0.868242, 0.36987, 0, 0
2, 480.00000, 0.868242, 0.36987, 0.831953, 0.354411, 0.868242, 0.36987, 0, 0
2, 540.00000, 0.868242, 0.36987, 0.831953, 0.354411, 0.868242, 0.36987, 0, 0
2, 600.00000, 0.868242, 0.36987, 0.831953, 0.354411, 0.868242, 0.36987, 0, 0
2, 660.00000, 0.868242, 0.36987, 0.831953, 0.354411, 0.868242, 0.36987, 0, 0
2, 720.00000, 0.868242, 0.36987, 0.831953, 0.354411, 0.868242, 0.36987, 0, 0
2, 780.00000, 0.868242, 0.36987, 0.831953, 0.354411, 0.868242, 0.36987, 0, 0
2, 840.00000, 0.868242, 0.36987, 0.831953, 0.354411, 0.868242, 0.36987, 0, 0
2, 900.00000, 0.868242, 0.36987, 0.831953, 0.354411, 0.868242, 0.36987, 0, 0
2, 960.00000, 0.822666, 0.350454, 0.79275, 0.33771, 0.822665, 0.350454, 0, 0
2, 1020.00000, 0.822665, 0.350454, 0.792749, 0.33771, 0.822665, 0.350454, 0, 0
2, 1080.00000, 0.822665, 0.350454, 0.792749, 0.33771, 0.822665, 0.350454, 0, 0
2, 1140.00000, 0.822665, 0.350454, 0.792749, 0.33771, 0.822665, 0.350454, 0, 0
2, 1200.00000, 0.822665, 0.350454, 0.792749, 0.33771, 0.822665, 0.350454, 0, 0
2, 1260.00000, 0.822665, 0.350454, 0.792749, 0.33771, 0.822665, 0.350454, 0, 0
2, 1320.00000, 0.822665, 0.350454, 0.792749, 0.33771, 0.822665, 0.350454, 0, 0
2, 1380.00000, 0.822665, 0.350454, 0.792749, 0.33771, 0.822665, 0.350454, 0, 0
2, 1440.00000, 0.822665, 0.350454, 0.792749, 0.33771, 0.822665, 0.350454, 0, 0
2, 1500.00000, 0.822665, 0.350454, 0.792749, 0.33771, 0.822665, 0.350454, 0, 0
2, 1560.00000, 0.822665, 0.350454, 0.792749, 0.33771, 0.822665, 0.350454, 0, 0
2, 1620.00000, 0.822665, 0.350454, 0.792749, 0.33771, 0.822665, 0.350454, 0, 0
2, 1680.00000, 0.822665, 0.350454, 0.792749, 0.33771, 0.822665, 0.350454, 0, 0
2, 1740.00000, 0.822665, 0.350454, 0.792749, 0.33771, 0.822665, 0.350454, 0, 0
2, 1800.00000, 0.822665, 0.350454, 0.792749, 0.33771, 0.822665, 0.350454, 0, 0
2, 1860.00000, 0.822215, 0.350262, 0.790476, 0.336741, 0.822215, 0.350262, 0, 0
2, 1920.00000, 0.822215, 0.350262, 0.790477, 0.336742, 0.822215, 0.350262, 0, 0
2, 1980.00000, 0.822215, 0.350262, 0.790477, 0.336742, 0.822215, 0.350262, 0, 0
2, 2040.00000, 0.822215, 0.350262, 0.790477, 0.336742, 0.822215, 0.350262, 0, 0
2, 2100.00000, 0.822215, 0.350262, 0.790477, 0.336742, 0.822215, 0.350262, 0, 0
2, 2160.00000, 0.822215, 0.350262, 0.790477, 0.336742, 0.822215, 0.350262, 0, 0
2, 2220.00000, 0.822215, 0.350262, 0.790477, 0.336742, 0.822215, 0.350262, 0, 0
2, 2280.00000, 0.822215, 0.350262, 0.790477, 0.336742, 0.822215, 0.350262, 0, 0
2, 2340.00000, 0.822215, 0.350262, 0.790477, 0.336742, 0.822215, 0.350262, 0, 0
2, 2400.00000, 0.822215, 0.350262, 0.790477, 0.336742, 0.822215, 0.350262, 0, 0
2, 2460.00000, 0.822215, 0.350262, 0.790477, 0.336742, 0.822215, 0.350262, 0, 0
2, 2520.00000, 0.822215, 0.350262, 0.790477, 0.336742, 0.822215, 0.350262, 0, 0
2, 2580.00000, 0.822215, 0.350262, 0.790477, 0.336742, 0.822215, 0.350262, 0, 0
2, 2640.00000, 0.822215, 0.350262, 0.790477, 0.336742, 0.822215, 0.350262, 0, 0
2, 2700.00000, 0.822215, 0.350262, 0.790477, 0.336742, 0.822215, 0.350262, 0, 0
2, 2760.00000, 0.786664, 0.335117, 0.761036, 0.3242, 0.786663, 0.335117, 0, 0
2, 2820.00000, 0.786663, 0.335117, 0.761035, 0.324199, 0.786663, 0.335117, 0, 0
2, 2880.00000, 0.786663, 0.335117, 0.761035, 0.324199, 0.786663, 0.335117, 0, 0
2, 2940.00000, 0.786663, 0.335117, 0.761035, 0.324199, 0.786663, 0.335117, 0, 0
2, 3000.00000, 0.786663, 0.335117, 0.761035, 0.324199, 0.786663, 0.335117, 0, 0
2, 3060.00000, 0.786663, 0.335117, 0.761035, 0.324199, 0.786663, 0.335117, 0, 0
2, 3120.00000, 0.786663, 0.335117, 0.761035, 0.324199, 0.786663, 0.335117, 0, 0
2, 3180.00000, 0.786663, 0.335117, 0.761035, 0.324199, 0.786663, 0.335117, 0, 0
2, 3240.00000, 0.786663, 0.335117, 0.761035, 0.324199, 0.786663, 0.335117, 0, 0
2, 3300.00000, 0.786663, 0.335117, 0.761035, 0.324199, 0.786663, 0.335117, 0, 0
2, 3360.00000, 0.786663, 0.335117, 0.761035, 0.324199, 0.786663, 0.335117, 0, 0
2, 3420.00000, 0.786663, 0.335117, 0.761035, 0.324199, 0.786663, 0.335117, 0, 0
2, 3480.00000, 0.786663, 0.335117, 0.761035, 0.324199, 0.786663, 0.335117, 0, 0
2, 3540.00000, 0.786663, 0.335117, 0.761035, 0.324199, 0.786663, 0.335117, 0, 0
3, 0.00000, 0.786663, 0.335117, 0.761035, 0.324199, 0.786663, 0.335117, 0, 0
3, 60.00000, 0.806666, 0.343638, 0.777831, 0.331355, 0.806666, 0.343638, 0, 0
3, 120.00000, 0.806666, 0.343638, 0.777831, 0.331355, 0.806666, 0.343638, 0, 0
3, 180.00000, 0.806666, 0.343638, 0.777831, 0.331355, 0.806666, 0.343638, 0, 0
3, 240.00000, 0.806666, 0.343638, 0.777831, 0.331355, 0.806666, 0.343638, 0, 0
3, 300.00000, 0.806666, 0.343638, 0.777831, 0.331355, 0.806666, 0.343638, 0, 0
3, 360.00000, 0.806666, 0.343638, 0.777831, 0.331355, 0.806666, 0.343638, 0, 0
3, 420.00000, 0.806666, 0.343638, 0.777831, 0.331355, 0.806666, 0.343638, 0, 0
3, 480.00000, 0.806666, 0.343638, 0.777831, 0.331355, 0.806666, 0.343638, 0, 0
3, 540.00000, 0.806666, 0.343638, 0.777831, 0.331355, 0.806666, 0.343638, 0, 0
3, 600.00000, 0.806666, 0.343638, 0.777831, 0.331355, 0.806666, 0.343638, 0, 0
3, 660.00000, 0.806666, 0.343638, 0.777831, 0.331355, 0.806666, 0.343638, 0, 0
3, 720.00000, 0.806666, 0.343638, 0.777831, 0.331355, 0.806666, 0.343638, 0, 0
3, 780.00000, 0.806666, 0.343638, 0.777831, 0.331355, 0.806666, 0.343638, 0, 0
3, 840.00000, 0.806666, 0.343638, 0.777831, 0.331355, 0.806666, 0.343638, 0, 0
3, 900.00000, 0.806666, 0.343638, 0.777831, 0.331355, 0.806666, 0.343638, 0, 0
3, 960.00000, 0.828831, 0.353081, 0.800044, 0.340817, 0.828831, 0.35308, 0, 0
3, 1020.00000, 0.82883, 0.35308, 0.800043, 0.340817, 0.82883, 0.35308, 0, 0
3, 1080.00000, 0.82883, 0.35308, 0.800043, 0.340817, 0.82883, 0.35308, 0, 0
3, 1140.00000, 0.82883, 0.35308, 0.800043, 0.340817, 0.82883, 0.35308, 0, 0
3, 1200.00000, 0.82883, 0.35308, 0.800043, 0.340817, 0.82883, 0.35308, 0, 0
3, 1260.00000, 0.82883, 0.35308, 0.800043, 0.340817, 0.82883, 0.35308, 0, 0
3, 1320.00000, 0.82883, 0.35308, 0.800043, 0.340817, 0.82883, 0.35308, 0, 0
3, 1380.00000, 0.82883, 0.35308, 0.800043, 0.340817, 0.82883, 0.35308, 0, 0
3, 1440.00000, 0.82883, 0.35308, 0.800043, 0.340817, 0.82883, 0.35308, 0, 0
3, 1500.00000, 0.82883, 0.35308, 0.800043, 0.340817, 0.82883, 0.35308, 0, 0
3, 1560.00000, 0.82883, 0.35308, 0.800043, 0.340817, 0.82883, 0.35308, 0, 0
3, 1620.00000, 0.82883, 0.35308, 0.800043, 0.340817, 0.82883, 0.35308, 0, 0
3, 1680.00000, 0.82883, 0.35308, 0.800043, 0.340817, 0.82883, 0.35308, 0, 0
3, 1740.00000, 0.82883, 0.35308, 0.800043, 0.340817, 0.82883, 0.35308, 0, 0
3, 1800.00000, 0.82883, 0.35308, 0.800043, 0.340817, 0.82883, 0.35308, 0, 0
3, 1860.00000, 0.838966, 0.357398, 0.80987, 0.345003, 0.838965, 0.357398, 0, 0
3, 1920.00000, 0.838965, 0.357398, 0.809869, 0.345003, 0.838965, 0.357398, 0, 0
3, 1980.00000, 0.838965, 0.357398, 0.809869, 0.345003, 0.838965, 0.357398, 0, 0
3, 2040.00000, 0.838965, 0.357398, 0.809869, 0.345003, 0.838965, 0.357398, 0, 0
3, 2100.00000, 0.838965, 0.357398, 0.809869, 0.345003, 0.838965, 0.357398, 0, 0
3, 2160.00000, 0.838965, 0.357398, 0.809869, 0.345003, 0.838965, 0.357398, 0, 0
3, 2220.00000, 0.838965, 0.357398, 0.809869, 0.345003, 0.838965, 0.357398, 0, 0
3, 2280.00000, 0.838965, 0.357398, 0.809869, 0.345003, 0.838965, 0.357398, 0, 0
3, 2340.00000, 0.838965, 0.357398, 0.809869, 0.345003, 0.838965, 0.357398, 0, 0
3, 2400.00000, 0.838965, 0.357398, 0.809869, 0.345003, 0.838965, 0.357398, 0, 0
3, 2460.00000, 0.838965, 0.357398, 0.809869, 0.345003, 0.838965, 0.357398, 0, 0
3, 2520.00000, 0.838965, 0.357398, 0.809869, 0.345003, 0.838965, 0.357398, 0, 0
3, 2580.00000, 0.838965, 0.357398, 0.809869, 0.345003, 0.838965, 0.357398, 0, 0
3, 2640.00000, 0.838965, 0.357398, 0.809869, 0.345003, 0.838965, 0.357398, 0, 0
3, 2700.00000, 0.838965, 0.357398, 0.809869, 0.345003, 0.838965, 0.357398, 0, 0
3, 2760.00000, 0.767717, 0.327046, 0.745798, 0.317708, 0.767716, 0.327046, 0, 0
3, 2820.00000, 0.767716, 0.327046, 0.745797, 0.317708, 0.767716, 0.327046, 0, 0
3, 2880.00000, 0.767716, 0.327046, 0.745797, 0.317708, 0.767716, 0.327046, 0, 0
3, 2940.00000, 0.767716, 0.327046, 0.745797, 0.317708, 0.767716, 0.327046, 0, 0
3, 3000.00000, 0.767716, 0.327046, 0.745797, 0.317708, 0.767716, 0.327046, 0, 0
3, 3060.00000, 0.767716, 0.327046, 0.745797, 0.317708, 0.767716, 0.327046, 0, 0
3, 3120.00000, 0.767716, 0.327046, 0.745797, 0.317708, 0.767716, 0.327046, 0, 0
3, 3180.00000, 0.767716, 0.327046, 0.745797, 0.317708, 0.767716, 0.327046, 0, 0
3, 3240.00000, 0.767716, 0.327046, 0.745797, 0.317708, 0.767716, 0.327046, 0, 0
3, 3300.00000, 0.767716, 0.327046, 0.745797, 0.317708, 0.767716, 0.327046, 0, 0
3, 3360.00000, 0.767716, 0.327046, 0.745797, 0.317708, 0.767716, 0.327046, 0, 0
3, 3420.00000, 0.767716, 0.327046, 0.745797, 0.317708, 0.767716, 0.327046, 0, 0
3, 3480.00000, 0.767716, 0.327046, 0.745797, 0.317708, 0.767716, 0.327046, 0, 0
3, 3540.00000, 0.767716, 0.327046, 0.745797, 0.317708, 0.767716, 0.327046, 0, 0
4, 0.00000, 0.767716, 0.327046, 0.745797, 0.317708, 0.767716, 0.327046, 0, 0
4, 60.00000, 0.821278, 0.349863, 0.79449, 0.338451, 0.821279, 0.349863, 0, 0
4, 120.00000, 0.821279, 0.349863, 0.794491, 0.338452, 0.821279, 0.349863, 0, 0
4, 180.00000, 0.821279, 0.349863, 0.794491, 0.338452, 0.821279, 0.349863, 0, 0
4, 240.00000, 0.821279, 0.349863, 0.794491, 0.338452, 0.821279, 0.349863, 0, 0
4, 300.00000, 0.821279, 0.349863, 0.794491, 0.338452, 0.821279, 0.349863, 0, 0
4, 360.00000, 0.821279, 0.349863, 0.794491, 0.338452, 0.821279, 0.349863, 0, 0
4, 420.00000, 0.821279, 0.349863, 0.794491, 0.338452, 0.821279, 0.349863, 0, 0
4, 480.00000, 0.821279, 0.349863, 0.794491, 0.338452, 0.821279, 0.349863, 0, 0
4, 540.00000, 0.821279, 0.349863, 0.794491, 0.338452, 0.821279, 0.349863, 0, 0
4, 600.00000, 0.821279, 0.349863, 0.794491, 0.338452, 0.821279, 0.349863, 0, 0
4, 660.00000, 0.821279, 0.349863, 0.794491, 0.338452, 0.821279, 0.349863, 0, 0
