hour,t(sec),"P1 (kW)","Q1 (kvar)","P2 (kW)","Q2 (kvar)","P3 (kW)","Q3 (kvar)","P4 (kW)","Q4 (kvar)"
0, 60.00000, 0.845774, 0.360297, 0.860724, 0.366656, 0.866304, 0.369019, 0, 0
0, 120.00000, 0.84567, 0.360253, 0.860713, 0.366653, 0.8663, 0.36902, 0, 0
0, 180.00000, 0.845575, 0.360213, 0.860704, 0.366649, 0.866298, 0.369021, 0, 0
0, 240.00000, 0.845488, 0.360176, 0.860695, 0.366646, 0.866295, 0.369022, 0, 0
0, 300.00000, 0.845409, 0.360142, 0.860686, 0.366643, 0.866292, 0.369023, 0, 0
0, 360.00000, 0.845338, 0.360112, 0.860678, 0.36664, 0.866288, 0.369023, 0, 0
0, 420.00000, 0.845273, 0.360085, 0.860671, 0.366638, 0.866286, 0.369023, 0, 0
0, 480.00000, 0.899163, 0.38304, 0.909004, 0.387228, 0.909027, 0.387231, 0, 0
0, 540.00000, 0.899108, 0.383017, 0.909004, 0.387229, 0.909024, 0.38723, 0, 0
0, 600.00000, 0.899058, 0.382996, 0.909004, 0.387229, 0.909021, 0.387231, 0, 0
0, 660.00000, 0.899013, 0.382977, 0.909003, 0.38723, 0.90902, 0.387231, 0, 0
0, 720.00000, 0.898973, 0.382959, 0.909003, 0.38723, 0.909018, 0.387231, 0, 0
0, 780.00000, 0.898936, 0.382944, 0.909003, 0.387231, 0.909016, 0.387231, 0, 0
0, 840.00000, 0.898903, 0.38293, 0.909003, 0.387231, 0.909015, 0.387232, 0, 0
0, 900.00000, 0.898873, 0.382917, 0.909003, 0.387231, 0.909014, 0.387232, 0, 0
0, 960.00000, 0.898846, 0.382906, 0.909003, 0.387231, 0.909013, 0.387232, 0, 0
0, 1020.00000, 0.898822, 0.382896, 0.909003, 0.387232, 0.909012, 0.387232, 0, 0
0, 1080.00000, 0.8988, 0.382886, 0.909003, 0.387232, 0.909011, 0.387232, 0, 0
0, 1140.00000, 0.89878, 0.382878, 0.909003, 0.387232, 0.90901, 0.387232, 0, 0
0, 1200.00000, 0.898763, 0.382871, 0.909003, 0.387232, 0.909009, 0.387232, 0, 0
0, 1260.00000, 0.898747, 0.382864, 0.909003, 0.387232, 0.909009, 0.387233, 0, 0
0, 1320.00000, 0.898732, 0.382858, 0.909003, 0.387232, 0.909008, 0.387233, 0, 0
0, 1380.00000, 0.898719, 0.382852, 0.909003, 0.387232, 0.909007, 0.387233, 0, 0
0, 1440.00000, 0.898707, 0.382847, 0.909003, 0.387233, 0.909007, 0.387233, 0, 0
0, 1500.00000, 0.898697, 0.382843, 0.909003, 0.387233, 0.909007, 0.387233, 0, 0
0, 1560.00000, 0.898687, 0.382839, 0.909003, 0.387233, 0.909006, 0.387233, 0, 0
0, 1620.00000, 0.898679, 0.382835, 0.909003, 0.387233, 0.909006, 0.387233, 0, 0
0, 1680.00000, 0.898671, 0.382832, 0.909003, 0.387233, 0.909006, 0.387233, 0, 0
0, 1740.00000, 0.898664, 0.382829, 0.909003, 0.387233, 0.909005, 0.387233, 0, 0
0, 1800.00000, 0.898658, 0.382826, 0.909003, 0.387233, 0.909005, 0.387233, 0, 0
0, 1860.00000, 0.898652, 0.382824, 0.909003, 0.387233, 0.909005, 0.387233, 0, 0
0, 1920.00000, 0.898647, 0.382822, 0.909003, 0.387233, 0.909005, 0.387233, 0, 0
0, 1980.00000, 0.898643, 0.38282, 0.909003, 0.387233, 0.909004, 0.387233, 0, 0
0, 2040.00000, 0.898639, 0.382818, 0.909003, 0.387233, 0.909004, 0.387233, 0, 0
0, 2100.00000, 0.898635, 0.382817, 0.909003, 0.387233, 0.909004, 0.387233, 0, 0
0, 2160.00000, 0.898632, 0.382815, 0.909003, 0.387233, 0.909004, 0.387233, 0, 0
0, 2220.00000, 0.898629, 0.382814, 0.909003, 0.387233, 0.909004, 0.387233, 0, 0
0, 2280.00000, 0.898626, 0.382813, 0.909003, 0.387233, 0.909004, 0.387233, 0, 0
0, 2340.00000, 0.898624, 0.382812, 0.909003, 0.387233, 0.909004, 0.387233, 0, 0
0, 2400.00000, 0.898621, 0.382811, 0.909003, 0.387233, 0.909004, 0.387233, 0, 0
0, 2460.00000, 0.898619, 0.38281, 0.909003, 0.387233, 0.909003, 0.387233, 0, 0
0, 2520.00000, 0.898618, 0.382809, 0.909003, 0.387233, 0.909003, 0.387233, 0, 0
0, 2580.00000, 0.898616, 0.382809, 0.909003, 0.387233, 0.909003, 0.387233, 0, 0
0, 2640.00000, 0.898615, 0.382808, 0.909003, 0.387233, 0.909003, 0.387233, 0, 0
0, 2700.00000, 0.898613, 0.382808, 0.909003, 0.387233, 0.909003, 0.387233, 0, 0
0, 2760.00000, 0.898612, 0.382807, 0.909003, 0.387233, 0.909003, 0.387233, 0, 0
0, 2820.00000, 0.898611, 0.382807, 0.909003, 0.387233, 0.909003, 0.387233, 0, 0
0, 2880.00000, 0.89861, 0.382806, 0.909003, 0.387233, 0.909003, 0.387233, 0, 0
0, 2940.00000, 0.898609, 0.382806, 0.909003, 0.387233, 0.909003, 0.387233, 0, 0
0, 3000.00000, 0.898609, 0.382806, 0.909003, 0.387233, 0.909003, 0.387233, 0, 0
0, 3060.00000, 0.898608, 0.382805, 0.909003, 0.387233, 0.909003, 0.387233, 0, 0
0, 3120.00000, 0.898607, 0.382805, 0.909003, 0.387233, 0.909003, 0.387233, 0, 0
0, 3180.00000, 0.898607, 0.382805, 0.909003, 0.387233, 0.909003, 0.387233, 0, 0
0, 3240.00000, 0.898606, 0.382805, 0.909003, 0.387233, 0.909003, 0.387233, 0, 0
0, 3300.00000, 0.898606, 0.382804, 0.909003, 0.387233, 0.909003, 0.387234, 0, 0
0, 3360.00000, 0.898605, 0.382804, 0.909003, 0.387234, 0.909003, 0.387234, 0, 0
0, 3420.00000, 0.898605, 0.382804, 0.909003, 0.387234, 0.909003, 0.387234, 0, 0
0, 3480.00000, 0.898605, 0.382804, 0.909003, 0.387234, 0.909003, 0.387234, 0, 0
0, 3540.00000, 0.898604, 0.382804, 0.909003, 0.387234, 0.909003, 0.387234, 0, 0
1, 0.00000, 0.898604, 0.382804, 0.909003, 0.387234, 0.909003, 0.387234, 0, 0
1, 60.00000, 0.898604, 0.382804, 0.909003, 0.387234, 0.909003, 0.387234, 0, 0
1, 120.00000, 0.898604, 0.382804, 0.909003, 0.387234, 0.909003, 0.387234, 0, 0
1, 180.00000, 0.898603, 0.382803, 0.909003, 0.387234, 0.909003, 0.387234, 0, 0
1, 240.00000, 0.898603, 0.382803, 0.909003, 0.387234, 0.909003, 0.387234, 0, 0
1, 300.00000, 0.898603, 0.382803, 0.909003, 0.387234, 0.909003, 0.387234, 0, 0
1, 360.00000, 0.898603, 0.382803, 0.909003, 0.387234, 0.909003, 0.387234, 0, 0
1, 420.00000, 0.898603, 0.382803, 0.909003, 0.387234, 0.909003, 0.387234, 0, 0
1, 480.00000, 0.898603, 0.382803, 0.909003, 0.387234, 0.909003, 0.387234, 0, 0
1, 540.00000, 0.898603, 0.382803, 0.909003, 0.387234, 0.909003, 0.387234, 0, 0
1, 600.00000, 0.898603, 0.382803, 0.909003, 0.387234, 0.909003, 0.387234, 0, 0
1, 660.00000, 0.898602, 0.382803, 0.909003, 0.387234, 0.909003, 0.387234, 0, 0
1, 720.00000, 0.898602, 0.382803, 0.909003, 0.387234, 0.909003, 0.387234, 0, 0
1, 780.00000, 0.898602, 0.382803, 0.909003, 0.387234, 0.909003, 0.387234, 0, 0
1, 840.00000, 0.898602, 0.382803, 0.909003, 0.387234, 0.909003, 0.387234, 0, 0
1, 900.00000, 0.898602, 0.382803, 0.909003, 0.387234, 0.909003, 0.387234, 0, 0
1, 960.00000, 0.898602, 0.382803, 0.909003, 0.387234, 0.909003, 0.387234, 0, 0
1, 1020.00000, 0.898602, 0.382803, 0.909003, 0.387234, 0.909003, 0.387234, 0, 0
1, 1080.00000, 0.898602, 0.382803, 0.909003, 0.387234, 0.909003, 0.387234, 0, 0
1, 1140.00000, 0.898602, 0.382803, 0.909003, 0.387234, 0.909003, 0.387234, 0, 0
1, 1200.00000, 0.898602, 0.382803, 0.909003, 0.387234, 0.909003, 0.387234, 0, 0
1, 1260.00000, 0.898602, 0.382803, 0.909003, 0.387234, 0.909003, 0.387234, 0, 0
1, 1320.00000, 0.898602, 0.382803, 0.909003, 0.387234, 0.909003, 0.387234, 0, 0
1, 1380.00000, 0.898602, 0.382803, 0.909003, 0.387234, 0.909003, 0.387234, 0, 0
1, 1440.00000, 0.898602, 0.382803, 0.909003, 0.387234, 0.909003, 0.387234, 0, 0
1, 1500.00000, 0.898602, 0.382803, 0.909003, 0.387234, 0.909003, 0.387234, 0, 0
1, 1560.00000, 0.898602, 0.382803, 0.909003, 0.387234, 0.909003, 0.387234, 0, 0
1, 1620.00000, 0.898602, 0.382803, 0.909003, 0.387234, 0.909003, 0.387234, 0, 0
1, 1680.00000, 0.898602, 0.382803, 0.909003, 0.387234, 0.909003, 0.387234, 0, 0
1, 1740.00000, 0.898602, 0.382803, 0.909003, 0.387234, 0.909003, 0.387234, 0, 0
1, 1800.00000, 0.898602, 0.382803, 0.909003, 0.387234, 0.909003, 0.387234, 0, 0
1, 1860.00000, 0.898602, 0.382803, 0.909003, 0.387234, 0.909003, 0.387234, 0, 0
1, 1920.00000, 0.898602, 0.382803, 0.909003, 0.387234, 0.909003, 0.387234, 0, 0
1, 1980.00000, 0.898602, 0.382803, 0.909003, 0.387234, 0.909003, 0.387234, 0, 0
1, 2040.00000, 0.898602, 0.382803, 0.909003, 0.387234, 0.909003, 0.387234, 0, 0
1, 2100.00000, 0.898602, 0.382803, 0.909003, 0.387234, 0.909003, 0.387234, 0, 0
1, 2160.00000, 0.898602, 0.382803, 0.909003, 0.387234, 0.909003, 0.387234, 0, 0
1, 2220.00000, 0.898602, 0.382803, 0.909003, 0.387234, 0.909003, 0.387234, 0, 0
1, 2280.00000, 0.898602, 0.382803, 0.909003, 0.387234, 0.909003, 0.387234, 0, 0
1, 2340.00000, 0.898602, 0.382803, 0.909003, 0.387234, 0.909003, 0.387234, 0, 0
1, 2400.00000, 0.898602, 0.382803, 0.909003, 0.387234, 0.909003, 0.387234, 0, 0
1, 2460.00000, 0.898602, 0.382803, 0.909003, 0.387234, 0.909003, 0.387234, 0, 0
1, 2520.00000, 0.898602, 0.382803, 0.909003, 0.387234, 0.909003, 0.387234, 0, 0
1, 2580.00000, 0.898602, 0.382803, 0.909003, 0.387234, 0.909003, 0.387234, 0, 0
1, 2640.00000, 0.898602, 0.382803, 0.909003, 0.387234, 0.909003, 0.387234, 0, 0
1, 2700.00000, 0.898602, 0.382803, 0.909003, 0.387234, 0.909003, 0.387234, 0, 0
1, 2760.00000, 0.898602, 0.382803, 0.909003, 0.387234, 0.909003, 0.387234, 0, 0
1, 2820.00000, 0.898602, 0.382803, 0.909003, 0.387234, 0.909003, 0.387234, 0, 0
1, 2880.00000, 0.898602, 0.382803, 0.909003, 0.387234, 0.909003, 0.387234, 0, 0
1, 2940.00000, 0.898602, 0.382803, 0.909003, 0.387234, 0.909003, 0.387234, 0, 0
1, 3000.00000, 0.898602, 0.382803, 0.909003, 0.387234, 0.909003, 0.387234, 0, 0
1, 3060.00000, 0.898602, 0.382803, 0.909003, 0.387234, 0.909003, 0.387234, 0, 0
1, 3120.00000, 0.898602, 0.382803, 0.909003, 0.387234, 0.909003, 0.387234, 0, 0
1, 3180.00000, 0.898602, 0.382803, 0.909003, 0.387234, 0.909003, 0.387234, 0, 0
1, 3240.00000, 0.898602, 0.382803, 0.909003, 0.387234, 0.909003, 0.387234, 0, 0
1, 3300.00000, 0.898602, 0.382803, 0.909003, 0.387234, 0.909003, 0.387234, 0, 0
1, 3360.00000, 0.898602, 0.382803, 0.909003, 0.387234, 0.909003, 0.387234, 0, 0
1, 3420.00000, 0.898602, 0.382803, 0.909003, 0.387234, 0.909003, 0.387234, 0, 0
1, 3480.00000, 0.898602, 0.382803, 0.909003, 0.387234, 0.909003, 0.387234, 0, 0
1, 3540.00000, 0.898602, 0.382803, 0.909003, 0.387234, 0.909003, 0.387234, 0, 0
2, 0.00000, 0.898602, 0.382803, 0.909003, 0.387234, 0.909003, 0.387234, 0, 0
2, 60.00000, 0.898602, 0.382803, 0.909003, 0.387234, 0.909003, 0.387234, 0, 0
2, 120.00000, 0.898602, 0.382803, 0.909003, 0.387234, 0.909003, 0.387234, 0, 0
2, 180.00000, 0.898602, 0.382803, 0.909003, 0.387234, 0.909003, 0.387234, 0, 0
2, 240.00000, 0.898602, 0.382803, 0.909003, 0.387234, 0.909003, 0.387234, 0, 0
2, 300.00000, 0.898602, 0.382803, 0.909003, 0.387234, 0.909003, 0.387234, 0, 0
2, 360.00000, 0.898602, 0.382803, 0.909003, 0.387234, 0.909003, 0.387234, 0, 0
2, 420.00000, 0.898602, 0.382803, 0.909003, 0.387234, 0.909003, 0.387234, 0, 0
2, 480.00000, 0.898602, 0.382803, 0.909003, 0.387234, 0.909003, 0.387234, 0, 0
2, 540.00000, 0.898602, 0.382803, 0.909003, 0.387234, 0.909003, 0.387234, 0, 0
2, 600.00000, 0.898602, 0.382803, 0.909003, 0.387234, 0.909003, 0.387234, 0, 0
2, 660.00000, 0.898602, 0.382803, 0.909003, 0.387234, 0.909003, 0.387234, 0, 0
2, 720.00000, 0.898602, 0.382803, 0.909003, 0.387234, 0.909003, 0.387234, 0, 0
2, 780.00000, 0.898602, 0.382803, 0.909003, 0.387234, 0.909003, 0.387234, 0, 0
2, 840.00000, 0.898602, 0.382803, 0.909003, 0.387234, 0.909003, 0.387234, 0, 0
2, 900.00000, 0.898602, 0.382803, 0.909003, 0.387234, 0.909003, 0.387234, 0, 0
2, 960.00000, 0.898602, 0.382803, 0.909003, 0.387234, 0.909003, 0.387234, 0, 0
2, 1020.00000, 0.898602, 0.382803, 0.909003, 0.387234, 0.909003, 0.387234, 0, 0
2, 1080.00000, 0.898602, 0.382803, 0.909003, 0.387234, 0.909003, 0.387234, 0, 0
2, 1140.00000, 0.898602, 0.382803, 0.909003, 0.387234, 0.909003, 0.387234, 0, 0
2, 1200.00000, 0.898602, 0.382803, 0.909003, 0.387234, 0.909003, 0.387234, 0, 0
2, 1260.00000, 0.898602, 0.382803, 0.909003, 0.387234, 0.909003, 0.387234, 0, 0
2, 1320.00000, 0.898602, 0.382803, 0.909003, 0.387234, 0.909003, 0.387234, 0, 0
2, 1380.00000, 0.898602, 0.382803, 0.909003, 0.387234, 0.909003, 0.387234, 0, 0
2, 1440.00000, 0.898602, 0.382803, 0.909003, 0.387234, 0.909003, 0.387234, 0, 0
2, 1500.00000, 0.898602, 0.382803, 0.909003, 0.387234, 0.909003, 0.387234, 0, 0
2, 1560.00000, 0.898602, 0.382803, 0.909003, 0.387234, 0.909003, 0.387234, 0, 0
2, 1620.00000, 0.898602, 0.382803, 0.909003, 0.387234, 0.909003, 0.387234, 0, 0
2, 1680.00000, 0.898602, 0.382803, 0.909003, 0.387234, 0.909003, 0.387234, 0, 0
2, 1740.00000, 0.898602, 0.382803, 0.909003, 0.387234, 0.909003, 0.387234, 0, 0
2, 1800.00000, 0.898602, 0.382803, 0.909003, 0.387234, 0.909003, 0.387234, 0, 0
2, 1860.00000, 0.898602, 0.382803, 0.909003, 0.387234, 0.909003, 0.387234, 0, 0
2, 1920.00000, 0.898602, 0.382803, 0.909003, 0.387234, 0.909003, 0.387234, 0, 0
2, 1980.00000, 0.898602, 0.382803, 0.909003, 0.387234, 0.909003, 0.387234, 0, 0
2, 2040.00000, 0.898602, 0.382803, 0.909003, 0.387234, 0.909003, 0.387234, 0, 0
2, 2100.00000, 0.898602, 0.382803, 0.909003, 0.387234, 0.909003, 0.387234, 0, 0
2, 2160.00000, 0.898602, 0.382803, 0.909003, 0.387234, 0.909003, 0.387234, 0, 0
2, 2220.00000, 0.898602, 0.382803, 0.909003, 0.387234, 0.909003, 0.387234, 0, 0
2, 2280.00000, 0.898602, 0.382803, 0.909003, 0.387234, 0.909003, 0.387234, 0, 0
2, 2340.00000, 0.898602, 0.382803, 0.909003, 0.387234, 0.909003, 0.387234, 0, 0
2, 2400.00000, 0.908323, 0.386944, 0.909003, 0.387233, 0.909003, 0.387234, 0, 0
2, 2460.00000, 0.908323, 0.386944, 0.909003, 0.387234, 0.909003, 0.387234, 0, 0
2, 2520.00000, 0.908323, 0.386944, 0.909003, 0.387234, 0.909003, 0.387234, 0, 0
2, 2580.00000, 0.908323, 0.386944, 0.909003, 0.387234, 0.909003, 0.387234, 0, 0
2, 2640.00000, 0.908323, 0.386944, 0.909003, 0.387234, 0.909003, 0.387234, 0, 0
2, 2700.00000, 0.894499, 0.381055, 0.899546, 0.383205, 0.909002, 0.387233, 0, 0
2, 2760.00000, 0.894499, 0.381055, 0.899546, 0.383205, 0.909003, 0.387234, 0, 0
2, 2820.00000, 0.894499, 0.381055, 0.899546, 0.383205, 0.909003, 0.387234, 0, 0
2, 2880.00000, 0.894499, 0.381055, 0.899546, 0.383205, 0.909003, 0.387234, 0, 0
2, 2940.00000, 0.894499, 0.381055, 0.899546, 0.383205, 0.909003, 0.387234, 0, 0
2, 3000.00000, 0.894499, 0.381055, 0.899546, 0.383205, 0.909003, 0.387234, 0, 0
2, 3060.00000, 0.894408, 0.381016, 0.901206, 0.383912, 0.909003, 0.387234, 0, 0
2, 3120.00000, 0.894408, 0.381016, 0.901206, 0.383912, 0.909003, 0.387234, 0, 0
2, 3180.00000, 0.894408, 0.381016, 0.901206, 0.383912, 0.909003, 0.387234, 0, 0
2, 3240.00000, 0.894408, 0.381016, 0.901206, 0.383912, 0.909003, 0.387234, 0, 0
2, 3300.00000, 0.894408, 0.381016, 0.901206, 0.383912, 0.909003, 0.387234, 0, 0
2, 3360.00000, 0.894408, 0.381016, 0.901206, 0.383912, 0.909003, 0.387234, 0, 0
2, 3420.00000, 0.894408, 0.381016, 0.901206, 0.383912, 0.909003, 0.387234, 0, 0
2, 3480.00000, 0.894408, 0.381016, 0.901206, 0.383912, 0.909003, 0.387234, 0, 0
2, 3540.00000, 0.894408, 0.381016, 0.901206, 0.383912, 0.909003, 0.387234, 0, 0
3, 0.00000, 0.894408, 0.381016, 0.901206, 0.383912, 0.909003, 0.387234, 0, 0
3, 60.00000, 0.894408, 0.381016, 0.901206, 0.383912, 0.909003, 0.387234, 0, 0
3, 120.00000, 0.894408, 0.381016, 0.901206, 0.383912, 0.909003, 0.387234, 0, 0
3, 180.00000, 0.894408, 0.381016, 0.901206, 0.383912, 0.909003, 0.387234, 0, 0
3, 240.00000, 0.894408, 0.381016, 0.901206, 0.383912, 0.909003, 0.387234, 0, 0
3, 300.00000, 0.894408, 0.381016, 0.901206, 0.383912, 0.909003, 0.387234, 0, 0
3, 360.00000, 0.894408, 0.381016, 0.901206, 0.383912, 0.909003, 0.387234, 0, 0
3, 420.00000, 0.894408, 0.381016, 0.901206, 0.383912, 0.909003, 0.387234, 0, 0
3, 480.00000, 0.894408, 0.381016, 0.901206, 0.383912, 0.909003, 0.387234, 0, 0
3, 540.00000, 0.894408, 0.381016, 0.901206, 0.383912, 0.909003, 0.387234, 0, 0
3, 600.00000, 0.894408, 0.381016, 0.901206, 0.383912, 0.909003, 0.387234, 0, 0
3, 660.00000, 0.894408, 0.381016, 0.901206, 0.383912, 0.909003, 0.387234, 0, 0
3, 720.00000, 0.894408, 0.381016, 0.901206, 0.383912, 0.909003, 0.387234, 0, 0
3, 780.00000, 0.894408, 0.381016, 0.901206, 0.383912, 0.909003, 0.387234, 0, 0
3, 840.00000, 0.894408, 0.381016, 0.901206, 0.383912, 0.909003, 0.387234, 0, 0
3, 900.00000, 0.894408, 0.381016, 0.901206, 0.383912, 0.909003, 0.387234, 0, 0
3, 960.00000, 0.894408, 0.381016, 0.901206, 0.383912, 0.909003, 0.387234, 0, 0
3, 1020.00000, 0.894408, 0.381016, 0.901206, 0.383912, 0.909003, 0.387234, 0, 0
3, 1080.00000, 0.894408, 0.381016, 0.901206, 0.383912, 0.909003, 0.387234, 0, 0
3, 1140.00000, 0.894408, 0.381016, 0.901206, 0.383912, 0.909003, 0.387234, 0, 0
3, 1200.00000, 0.894408, 0.381016, 0.901206, 0.383912, 0.909003, 0.387234, 0, 0
3, 1260.00000, 0.894408, 0.381016, 0.901206, 0.383912, 0.909003, 0.387234, 0, 0
3, 1320.00000, 0.894408, 0.381016, 0.901206, 0.383912, 0.909003, 0.387234, 0, 0
3, 1380.00000, 0.894408, 0.381016, 0.901206, 0.383912, 0.909003, 0.387234, 0, 0
3, 1440.00000, 0.894408, 0.381016, 0.901206, 0.383912, 0.909003, 0.387234, 0, 0
3, 1500.00000, 0.894408, 0.381016, 0.901206, 0.383912, 0.909003, 0.387234, 0, 0
3, 1560.00000, 0.894408, 0.381016, 0.901206, 0.383912, 0.909003, 0.387234, 0, 0
3, 1620.00000, 0.894408, 0.381016, 0.901206, 0.383912, 0.909003, 0.387234, 0, 0
3, 1680.00000, 0.894408, 0.381016, 0.901206, 0.383912, 0.909003, 0.387234, 0, 0
3, 1740.00000, 0.894408, 0.381016, 0.901206, 0.383912, 0.909003, 0.387234, 0, 0
3, 1800.00000, 0.894408, 0.381016, 0.901206, 0.383912, 0.909003, 0.387234, 0, 0
3, 1860.00000, 0.894408, 0.381016, 0.901206, 0.383912, 0.909003, 0.387234, 0, 0
3, 1920.00000, 0.894408, 0.381016, 0.901206, 0.383912, 0.909003, 0.387234, 0, 0
3, 1980.00000, 0.894408, 0.381016, 0.901206, 0.383912, 0.909003, 0.387234, 0, 0
3, 2040.00000, 0.894408, 0.381016, 0.901206, 0.383912, 0.909003, 0.387234, 0, 0
3, 2100.00000, 0.894408, 0.381016, 0.901206, 0.383912, 0.909003, 0.387234, 0, 0
3, 2160.00000, 0.894408, 0.381016, 0.901206, 0.383912, 0.909003, 0.387234, 0, 0
3, 2220.00000, 0.894408, 0.381016, 0.901206, 0.383912, 0.909003, 0.387234, 0, 0
3, 2280.00000, 0.894408, 0.381016, 0.901206, 0.383912, 0.909003, 0.387234, 0, 0
3, 2340.00000, 0.894408, 0.381016, 0.901206, 0.383912, 0.909003, 0.387234, 0, 0
3, 2400.00000, 0.894408, 0.381016, 0.901206, 0.383912, 0.909003, 0.387234, 0, 0
3, 2460.00000, 0.894408, 0.381016, 0.901206, 0.383912, 0.909003, 0.387234, 0, 0
3, 2520.00000, 0.894408, 0.381016, 0.901206, 0.383912, 0.909003, 0.387234, 0, 0
3, 2580.00000, 0.894408, 0.381016, 0.901206, 0.383912, 0.909003, 0.387234, 0, 0
3, 2640.00000, 0.894408, 0.381016, 0.901206, 0.383912, 0.909003, 0.387234, 0, 0
3, 2700.00000, 0.894408, 0.381016, 0.901206, 0.383912, 0.909003, 0.387234, 0, 0
3, 2760.00000, 0.894408, 0.381016, 0.901206, 0.383912, 0.909003, 0.387234, 0, 0
3, 2820.00000, 0.894408, 0.381016, 0.901206, 0.383912, 0.909003, 0.387234, 0, 0
3, 2880.00000, 0.894408, 0.381016, 0.901206, 0.383912, 0.909003, 0.387234, 0, 0
3, 2940.00000, 0.894408, 0.381016, 0.901206, 0.383912, 0.909003, 0.387234, 0, 0
3, 3000.00000, 0.894408, 0.381016, 0.901206, 0.383912, 0.909003, 0.387234, 0, 0
3, 3060.00000, 0.894408, 0.381016, 0.901206, 0.383912, 0.909003, 0.387234, 0, 0
3, 3120.00000, 0.894408, 0.381016, 0.901206, 0.383912, 0.909003, 0.387234, 0, 0
3, 3180.00000, 0.864759, 0.368386, 0.871418, 0.371223, 0.881204, 0.375391, 0, 0
3, 3240.00000, 0.86476, 0.368386, 0.871419, 0.371223, 0.881205, 0.375392, 0, 0
3, 3300.00000, 0.86476, 0.368386, 0.871419, 0.371223, 0.881205, 0.375392, 0, 0
3, 3360.00000, 0.86476, 0.368386, 0.871419, 0.371223, 0.881205, 0.375392, 0, 0
3, 3420.00000, 0.86476, 0.368386, 0.871419, 0.371223, 0.881205, 0.375392, 0, 0
3, 3480.00000, 0.86476, 0.368386, 0.871419, 0.371223, 0.881205, 0.375392, 0, 0
3, 3540.00000, 0.86476, 0.368386, 0.871419, 0.371223, 0.881205, 0.375392, 0, 0
4, 0.00000, 0.86476, 0.368386, 0.871419, 0.371223, 0.881205, 0.375392, 0, 0
4, 60.00000, 0.86476, 0.368386, 0.871419, 0.371223, 0.881205, 0.375392, 0, 0
4, 120.00000, 0.86476, 0.368386, 0.871419, 0.371223, 0.881205, 0.375392, 0, 0
4, 180.00000, 0.86476, 0.368386, 0.871419, 0.371223, 0.881205, 0.375392, 0, 0
4, 240.00000, 0.86476, 0.368386, 0.871419, 0.371223, 0.881205, 0.375392, 0, 0
4, 300.00000, 0.86476, 0.368386, 0.871419, 0.371223, 0.881205, 0.375392, 0, 0
4, 360.00000, 0.86476, 0.368386, 0.871419, 0.371223, 0.881205, 0.375392, 0, 0
4, 420.00000, 0.86476, 0.368386, 0.871419, 0.371223, 0.881205, 0.375392, 0, 0
4, 480.00000, 0.86476, 0.368386, 0.871419, 0.371223, 0.881205, 0.375392, 0, 0
4, 540.00000, 0.86476, 0.368386, 0.871419, 0.371223, 0.881205, 0.375392, 0, 0
4, 600.00000, 0.86476, 0.368386, 0.871419, 0.371223, 0.881205, 0.375392, 0, 0
