hour,t(sec),V1,VAngle1,V2,VAngle2,V3,VAngle3,V4,VAngle4,I1,IAngle1,I2,IAngle2,I3,IAngle3,I4,IAngle4
0, 60.00000, 119.032, -31.2459, 119.099, -150.638, 120.855, 89.031, 0, 0, 1.51011, -54.3193, 1.51106, -173.712, 1.53066, 65.9575, 0.00621957, -113.106
0, 120.00000, 119.032, -31.2459, 119.099, -150.638, 120.855, 89.0309, 0, 0, 1.51009, -54.3199, 1.51103, -173.711, 1.53071, 65.957, 0.00627891, -113.242
0, 180.00000, 119.032, -31.2459, 119.099, -150.638, 120.855, 89.0309, 0, 0, 1.51009, -54.3199, 1.51103, -173.711, 1.53071, 65.957, 0.00627934, -113.244
0, 240.00000, 119.032, -31.2459, 119.099, -150.638, 120.855, 89.0309, 0, 0, 1.51009, -54.3199, 1.51103, -173.711, 1.53071, 65.957, 0.00627935, -113.244
0, 300.00000, 119.032, -31.2459, 119.099, -150.638, 120.855, 89.0309, 0, 0, 1.51009, -54.3199, 1.51103, -173.711, 1.53071, 65.957, 0.00627935, -113.244
0, 360.00000, 119.032, -31.2459, 119.099, -150.638, 120.855, 89.0309, 0, 0, 1.51009, -54.3199, 1.51103, -173.711, 1.53071, 65.957, 0.00627935, -113.244
0, 420.00000, 119.032, -31.2459, 119.099, -150.638, 120.855, 89.0309, 0, 0, 1.51009, -54.3199, 1.51103, -173.711, 1.53071, 65.957, 0.00627935, -113.244
0, 480.00000, 119.032, -31.2459, 119.099, -150.638, 120.855, 89.0309, 0, 0, 1.51009, -54.3199, 1.51103, -173.711, 1.53071, 65.957, 0.00627935, -113.244
0, 540.00000, 119.032, -31.2459, 119.099, -150.638, 120.855, 89.0309, 0, 0, 1.51009, -54.3199, 1.51103, -173.711, 1.53071, 65.957, 0.00627935, -113.244
0, 600.00000, 119.032, -31.2459, 119.099, -150.638, 120.855, 89.0309, 0, 0, 1.51009, -54.3199, 1.51103, -173.711, 1.53071, 65.957, 0.00627935, -113.244
0, 660.00000, 119.032, -31.2459, 119.099, -150.638, 120.855, 89.0309, 0, 0, 1.51009, -54.3199, 1.51103, -173.711, 1.53071, 65.957, 0.00627935, -113.244
0, 720.00000, 119.032, -31.2459, 119.099, -150.638, 120.855, 89.0309, 0, 0, 1.51009, -54.3199, 1.51103, -173.711, 1.53071, 65.957, 0.00627935, -113.244
0, 780.00000, 119.032, -31.2459, 119.099, -150.638, 120.855, 89.0309, 0, 0, 1.51009, -54.3199, 1.51103, -173.711, 1.53071, 65.957, 0.00627935, -113.244
0, 840.00000, 119.032, -31.2459, 119.099, -150.638, 120.855, 89.0309, 0, 0, 1.51009, -54.3199, 1.51103, -173.711, 1.53071, 65.957, 0.00627935, -113.244
0, 900.00000, 119.032, -31.2459, 119.099, -150.638, 120.855, 89.0309, 0, 0, 1.51009, -54.3199, 1.51103, -173.711, 1.53071, 65.957, 0.00627935, -113.244
0, 960.00000, 118.807, -31.2705, 118.883, -150.661, 120.639, 89.0025, 0, 0, 1.58945, -54.3443, 1.59058, -173.735, 1.61666, 65.9287, 0.0120267, -113.672
0, 1020.00000, 118.807, -31.2705, 118.883, -150.661, 120.639, 89.0025, 0, 0, 1.58944, -54.3445, 1.59057, -173.735, 1.61665, 65.9286, 0.0120198, -113.677
0, 1080.00000, 118.807, -31.2705, 118.883, -150.661, 120.639, 89.0025, 0, 0, 1.58944, -54.3445, 1.59057, -173.735, 1.61665, 65.9286, 0.0120198, -113.677
0, 1140.00000, 118.807, -31.2705, 118.883, -150.661, 120.639, 89.0025, 0, 0, 1.58944, -54.3445, 1.59057, -173.735, 1.61665, 65.9286, 0.0120198, -113.677
0, 1200.00000, 118.807, -31.2705, 118.883, -150.661, 120.639, 89.0025, 0, 0, 1.58944, -54.3445, 1.59057, -173.735, 1.61665, 65.9286, 0.0120198, -113.677
0, 1260.00000, 118.807, -31.2705, 118.883, -150.661, 120.639, 89.0025, 0, 0, 1.58944, -54.3445, 1.59057, -173.735, 1.61665, 65.9286, 0.0120198, -113.677
0, 1320.00000, 118.807, -31.2705, 118.883, -150.661, 120.639, 89.0025, 0, 0, 1.58944, -54.3445, 1.59057, -173.735, 1.61665, 65.9286, 0.0120198, -113.677
0, 1380.00000, 118.807, -31.2705, 118.883, -150.661, 120.639, 89.0025, 0, 0, 1.58944, -54.3445, 1.59057, -173.735, 1.61665, 65.9286, 0.0120198, -113.677
0, 1440.00000, 118.807, -31.2705, 118.883, -150.661, 120.639, 89.0025, 0, 0, 1.58944, -54.3445, 1.59057, -173.735, 1.61665, 65.9286, 0.0120198, -113.677
0, 1500.00000, 118.807, -31.2705, 118.883, -150.661, 120.639, 89.0025, 0, 0, 1.58944, -54.3445, 1.59057, -173.735, 1.61665, 65.9286, 0.0120198, -113.677
0, 1560.00000, 118.807, -31.2705, 118.883, -150.661, 120.639, 89.0025, 0, 0, 1.58944, -54.3445, 1.59057, -173.735, 1.61665, 65.9286, 0.0120198, -113.677
0, 1620.00000, 118.807, -31.2705, 118.883, -150.661, 120.639, 89.0025, 0, 0, 1.58944, -54.3445, 1.59057, -173.735, 1.61665, 65.9286, 0.0120198, -113.677
0, 1680.00000, 118.807, -31.2705, 118.883, -150.661, 120.639, 89.0025, 0, 0, 1.58944, -54.3445, 1.59057, -173.735, 1.61665, 65.9286, 0.0120198, -113.677
0, 1740.00000, 118.807, -31.2705, 118.883, -150.661, 120.639, 89.0025, 0, 0, 1.58944, -54.3445, 1.59057, -173.735, 1.61665, 65.9286, 0.0120198, -113.677
0, 1800.00000, 118.807, -31.2705, 118.883, -150.661, 120.639, 89.0025, 0, 0, 1.58944, -54.3445, 1.59057, -173.735, 1.61665, 65.9286, 0.0120198, -113.677
0, 1860.00000, 118.993, -31.2576, 119.062, -150.649, 120.819, 89.0183, 0, 0, 1.53603, -54.3329, 1.53702, -173.723, 1.55822, 65.9435, 0.00754783, -113.469
0, 1920.00000, 118.993, -31.2575, 119.062, -150.649, 120.819, 89.0184, 0, 0, 1.5361, -54.3315, 1.5371, -173.723, 1.5581, 65.9445, 0.00738595, -113.351
0, 1980.00000, 118.993, -31.2575, 119.063, -150.649, 120.819, 89.0184, 0, 0, 1.5361, -54.3314, 1.5371, -173.723, 1.5581, 65.9445, 0.00738532, -113.351
0, 2040.00000, 118.993, -31.2575, 119.063, -150.649, 120.819, 89.0184, 0, 0, 1.5361, -54.3314, 1.5371, -173.723, 1.5581, 65.9445, 0.00738532, -113.351
0, 2100.00000, 118.993, -31.2575, 119.063, -150.649, 120.819, 89.0184, 0, 0, 1.5361, -54.3314, 1.5371, -173.723, 1.5581, 65.9445, 0.00738532, -113.351
0, 2160.00000, 118.993, -31.2575, 119.063, -150.649, 120.819, 89.0184, 0, 0, 1.5361, -54.3314, 1.5371, -173.723, 1.5581, 65.9445, 0.00738532, -113.351
0, 2220.00000, 118.993, -31.2575, 119.063, -150.649, 120.819, 89.0184, 0, 0, 1.5361, -54.3314, 1.5371, -173.723, 1.5581, 65.9445, 0.00738532, -113.351
0, 2280.00000, 118.993, -31.2575, 119.063, -150.649, 120.819, 89.0184, 0, 0, 1.5361, -54.3314, 1.5371, -173.723, 1.5581, 65.9445, 0.00738532, -113.351
0, 2340.00000, 118.993, -31.2575, 119.063, -150.649, 120.819, 89.0184, 0, 0, 1.5361, -54.3314, 1.5371, -173.723, 1.5581, 65.9445, 0.00738532, -113.351
0, 2400.00000, 118.993, -31.2575, 119.063, -150.649, 120.819, 89.0184, 0, 0, 1.5361, -54.3314, 1.5371, -173.723, 1.5581, 65.9445, 0.00738532, -113.351
0, 2460.00000, 118.993, -31.2575, 119.063, -150.649, 120.819, 89.0184, 0, 0, 1.5361, -54.3314, 1.5371, -173.723, 1.5581, 65.9445, 0.00738532, -113.351
0, 2520.00000, 118.993, -31.2575, 119.063, -150.649, 120.819, 89.0184, 0, 0, 1.5361, -54.3314, 1.5371, -173.723, 1.5581, 65.9445, 0.00738532, -113.351
0, 2580.00000, 118.993, -31.2575, 119.063, -150.649, 120.819, 89.0184, 0, 0, 1.5361, -54.3314, 1.5371, -173.723, 1.5581, 65.9445, 0.00738532, -113.351
0, 2640.00000, 118.993, -31.2575, 119.063, -150.649, 120.819, 89.0184, 0, 0, 1.5361, -54.3314, 1.5371, -173.723, 1.5581, 65.9445, 0.00738532, -113.351
0, 2700.00000, 118.993, -31.2575, 119.063, -150.649, 120.819, 89.0184, 0, 0, 1.5361, -54.3314, 1.5371, -173.723, 1.5581, 65.9445, 0.00738532, -113.351
0, 2760.00000, 119.317, -31.2245, 119.374, -150.618, 121.135, 89.0569, 0, 0, 1.45648, -54.2987, 1.45726, -173.692, 1.46908, 65.9828, 0.0011345, 60.5895
0, 2820.00000, 119.317, -31.2245, 119.374, -150.618, 121.136, 89.057, 0, 0, 1.45649, -54.2984, 1.45727, -173.692, 1.46906, 65.983, 0.00116224, 60.4342
0, 2880.00000, 119.317, -31.2245, 119.374, -150.618, 121.136, 89.057, 0, 0, 1.45649, -54.2984, 1.45727, -173.692, 1.46906, 65.983, 0.00116247, 60.4304
0, 2940.00000, 119.317, -31.2245, 119.374, -150.618, 121.136, 89.057, 0, 0, 1.45649, -54.2984, 1.45727, -173.692, 1.46906, 65.983, 0.00116247, 60.4303
0, 3000.00000, 119.317, -31.2245, 119.374, -150.618, 121.136, 89.057, 0, 0, 1.45649, -54.2984, 1.45727, -173.692, 1.46906, 65.983, 0.00116247, 60.4303
0, 3060.00000, 119.317, -31.2245, 119.374, -150.618, 121.136, 89.057, 0, 0, 1.45649, -54.2984, 1.45727, -173.692, 1.46906, 65.983, 0.00116247, 60.4303
0, 3120.00000, 119.317, -31.2245, 119.374, -150.618, 121.136, 89.057, 0, 0, 1.45649, -54.2984, 1.45727, -173.692, 1.46906, 65.983, 0.00116247, 60.4303
0, 3180.00000, 119.317, -31.2245, 119.374, -150.618, 121.136, 89.057, 0, 0, 1.45649, -54.2984, 1.45727, -173.692, 1.46906, 65.983, 0.00116247, 60.4303
0, 3240.00000, 119.317, -31.2245, 119.374, -150.618, 121.136, 89.057, 0, 0, 1.45649, -54.2984, 1.45727, -173.692, 1.46906, 65.983, 0.00116247, 60.4303
0, 3300.00000, 119.317, -31.2245, 119.374, -150.618, 121.136, 89.057, 0, 0, 1.45649, -54.2984, 1.45727, -173.692, 1.46906, 65.983, 0.00116247, 60.4303
0, 3360.00000, 119.317, -31.2245, 119.374, -150.618, 121.136, 89.057, 0, 0, 1.45649, -54.2984, 1.45727, -173.692, 1.46906, 65.983, 0.00116247, 60.4303
0, 3420.00000, 119.317, -31.2245, 119.374, -150.618, 121.136, 89.057, 0, 0, 1.45649, -54.2984, 1.45727, -173.692, 1.46906, 65.983, 0.00116247, 60.4303
0, 3480.00000, 119.317, -31.2245, 119.374, -150.618, 121.136, 89.057, 0, 0, 1.45649, -54.2984, 1.45727, -173.692, 1.46906, 65.983, 0.00116247, 60.4303
0, 3540.00000, 119.317, -31.2245, 119.374, -150.618, 121.136, 89.057, 0, 0, 1.45649, -54.2984, 1.45727, -173.692, 1.46906, 65.983, 0.00116247, 60.4303
1, 0.00000, 119.317, -31.2245, 119.374, -150.618, 121.136, 89.057, 0, 0, 1.45649, -54.2984, 1.45727, -173.692, 1.46906, 65.983, 0.00116247, 60.4303
1, 60.00000, 119.536, -31.2006, 119.587, -150.597, 121.359, 89.0845, 0, 0, 1.48076, -54.2748, 1.48146, -173.671, 1.48779, 66.0103, 0.00683144, 64.6582
1, 120.00000, 119.536, -31.2006, 119.587, -150.597, 121.359, 89.0845, 0, 0, 1.48076, -54.2745, 1.48147, -173.671, 1.48775, 66.0106, 0.00685799, 64.5865
1, 180.00000, 119.536, -31.2006, 119.587, -150.597, 121.359, 89.0845, 0, 0, 1.48076, -54.2745, 1.48147, -173.671, 1.48775, 66.0106, 0.0068583, 64.5851
1, 240.00000, 119.536, -31.2006, 119.587, -150.597, 121.359, 89.0845, 0, 0, 1.48076, -54.2745, 1.48147, -173.671, 1.48775, 66.0106, 0.00685831, 64.585
1, 300.00000, 119.536, -31.2006, 119.587, -150.597, 121.359, 89.0845, 0, 0, 1.48076, -54.2745, 1.48147, -173.671, 1.48775, 66.0106, 0.00685831, 64.585
1, 360.00000, 119.536, -31.2006, 119.587, -150.597, 121.359, 89.0845, 0, 0, 1.48076, -54.2745, 1.48147, -173.671, 1.48775, 66.0106, 0.00685831, 64.585
1, 420.00000, 119.536, -31.2006, 119.587, -150.597, 121.359, 89.0845, 0, 0, 1.48076, -54.2745, 1.48147, -173.671, 1.48775, 66.0106, 0.00685831, 64.585
1, 480.00000, 119.536, -31.2006, 119.587, -150.597, 121.359, 89.0845, 0, 0, 1.48076, -54.2745, 1.48147, -173.671, 1.48775, 66.0106, 0.00685831, 64.585
1, 540.00000, 119.536, -31.2006, 119.587, -150.597, 121.359, 89.0845, 0, 0, 1.48076, -54.2745, 1.48147, -173.671, 1.48775, 66.0106, 0.00685831, 64.585
1, 600.00000, 119.536, -31.2006, 119.587, -150.597, 121.359, 89.0845, 0, 0, 1.48076, -54.2745, 1.48147, -173.671, 1.48775, 66.0106, 0.00685831, 64.585
1, 660.00000, 119.536, -31.2006, 119.587, -150.597, 121.359, 89.0845, 0, 0, 1.48076, -54.2745, 1.48147, -173.671, 1.48775, 66.0106, 0.00685831, 64.585
1, 720.00000, 119.536, -31.2006, 119.587, -150.597, 121.359, 89.0845, 0, 0, 1.48076, -54.2745, 1.48147, -173.671, 1.48775, 66.0106, 0.00685831, 64.585
1, 780.00000, 119.536, -31.2006, 119.587, -150.597, 121.359, 89.0845, 0, 0, 1.48076, -54.2745, 1.48147, -173.671, 1.48775, 66.0106, 0.00685831, 64.585
1, 840.00000, 119.536, -31.2006, 119.587, -150.597, 121.359, 89.0845, 0, 0, 1.48076, -54.2745, 1.48147, -173.671, 1.48775, 66.0106, 0.00685831, 64.585
1, 900.00000, 119.536, -31.2006, 119.587, -150.597, 121.359, 89.0845, 0, 0, 1.48076, -54.2745, 1.48147, -173.671, 1.48775, 66.0106, 0.00685831, 64.585
1, 960.00000, 119.576, -31.1973, 119.626, -150.594, 121.399, 89.0884, 0, 0, 1.46624, -54.2717, 1.46691, -173.668, 1.47218, 66.0141, 0.00775814, 64.8168
1, 1020.00000, 119.576, -31.1973, 119.626, -150.594, 121.4, 89.0885, 0, 0, 1.46625, -54.2712, 1.46693, -173.668, 1.47213, 66.0145, 0.00781186, 64.7449
1, 1080.00000, 119.576, -31.1973, 119.626, -150.594, 121.4, 89.0885, 0, 0, 1.46625, -54.2712, 1.46693, -173.668, 1.47213, 66.0145, 0.0078123, 64.7434
1, 1140.00000, 119.576, -31.1973, 119.626, -150.594, 121.4, 89.0885, 0, 0, 1.46625, -54.2712, 1.46693, -173.668, 1.47213, 66.0145, 0.00781231, 64.7434
1, 1200.00000, 119.576, -31.1973, 119.626, -150.594, 121.4, 89.0885, 0, 0, 1.46625, -54.2712, 1.46693, -173.668, 1.47213, 66.0145, 0.00781231, 64.7434
1, 1260.00000, 119.576, -31.1973, 119.626, -150.594, 121.4, 89.0885, 0, 0, 1.46625, -54.2712, 1.46693, -173.668, 1.47213, 66.0145, 0.00781231, 64.7434
1, 1320.00000, 119.576, -31.1973, 119.626, -150.594, 121.4, 89.0885, 0, 0, 1.46625, -54.2712, 1.46693, -173.668, 1.47213, 66.0145, 0.00781231, 64.7434
1, 1380.00000, 119.576, -31.1973, 119.626, -150.594, 121.4, 89.0885, 0, 0, 1.46625, -54.2712, 1.46693, -173.668, 1.47213, 66.0145, 0.00781231, 64.7434
1, 1440.00000, 119.576, -31.1973, 119.626, -150.594, 121.4, 89.0885, 0, 0, 1.46625, -54.2712, 1.46693, -173.668, 1.47213, 66.0145, 0.00781231, 64.7434
1, 1500.00000, 119.576, -31.1973, 119.626, -150.594, 121.4, 89.0885, 0, 0, 1.46625, -54.2712, 1.46693, -173.668, 1.47213, 66.0145, 0.00781231, 64.7434
1, 1560.00000, 119.576, -31.1973, 119.626, -150.594, 121.4, 89.0885, 0, 0, 1.46625, -54.2712, 1.46693, -173.668, 1.47213, 66.0145, 0.00781231, 64.7434
1, 1620.00000, 119.576, -31.1973, 119.626, -150.594, 121.4, 89.0885, 0, 0, 1.46625, -54.2712, 1.46693, -173.668, 1.47213, 66.0145, 0.00781231, 64.7434
1, 1680.00000, 119.576, -31.1973, 119.626, -150.594, 121.4, 89.0885, 0, 0, 1.46625, -54.2712, 1.46693, -173.668, 1.47213, 66.0145, 0.00781231, 64.7434
1, 1740.00000, 119.576, -31.1973, 119.626, -150.594, 121.4, 89.0885, 0, 0, 1.46625, -54.2712, 1.46693, -173.668, 1.47213, 66.0145, 0.00781231, 64.7434
1, 1800.00000, 119.576, -31.1973, 119.626, -150.594, 121.4, 89.0885, 0, 0, 1.46625, -54.2712, 1.46693, -173.668, 1.47213, 66.0145, 0.00781231, 64.7434
1, 1860.00000, 119.395, -31.2219, 119.451, -150.616, 121.215, 89.0608, 0, 0, 1.46765, -54.2956, 1.46841, -173.69, 1.47823, 65.9871, 0.00320965, 63.5746
1, 1920.00000, 119.395, -31.2219, 119.451, -150.616, 121.215, 89.0608, 0, 0, 1.46765, -54.2958, 1.4684, -173.69, 1.47827, 65.9868, 0.00318423, 63.7082
1, 1980.00000, 119.395, -31.2219, 119.451, -150.616, 121.215, 89.0608, 0, 0, 1.46765, -54.2958, 1.4684, -173.69, 1.47827, 65.9868, 0.00318392, 63.7111
1, 2040.00000, 119.395, -31.2219, 119.451, -150.616, 121.215, 89.0608, 0, 0, 1.46765, -54.2958, 1.4684, -173.69, 1.47827, 65.9868, 0.00318392, 63.7111
1, 2100.00000, 119.395, -31.2219, 119.451, -150.616, 121.215, 89.0608, 0, 0, 1.46765, -54.2958, 1.4684, -173.69, 1.47827, 65.9868, 0.00318392, 63.7111
1, 2160.00000, 119.395, -31.2219, 119.451, -150.616, 121.215, 89.0608, 0, 0, 1.46765, -54.2958, 1.4684, -173.69, 1.47827, 65.9868, 0.00318392, 63.7111
1, 2220.00000, 119.395, -31.2219, 119.451, -150.616, 121.215, 89.0608, 0, 0, 1.46765, -54.2958, 1.4684, -173.69, 1.47827, 65.9868, 0.00318392, 63.7111
1, 2280.00000, 119.395, -31.2219, 119.451, -150.616, 121.215, 89.0608, 0, 0, 1.46765, -54.2958, 1.4684, -173.69, 1.47827, 65.9868, 0.00318392, 63.7111
1, 2340.00000, 119.395, -31.2219, 119.451, -150.616, 121.215, 89.0608, 0, 0, 1.46765, -54.2958, 1.4684, -173.69, 1.47827, 65.9868, 0.00318392, 63.7111
1, 2400.00000, 119.395, -31.2219, 119.451, -150.616, 121.215, 89.0608, 0, 0, 1.46765, -54.2958, 1.4684, -173.69, 1.47827, 65.9868, 0.00318392, 63.7111
1, 2460.00000, 119.395, -31.2219, 119.451, -150.616, 121.215, 89.0608, 0, 0, 1.46765, -54.2958, 1.4684, -173.69, 1.47827, 65.9868, 0.00318392, 63.7111
1, 2520.00000, 119.395, -31.2219, 119.451, -150.616, 121.215, 89.0608, 0, 0, 1.46765, -54.2958, 1.4684, -173.69, 1.47827, 65.9868, 0.00318392, 63.7111
1, 2580.00000, 119.395, -31.2219, 119.451, -150.616, 121.215, 89.0608, 0, 0, 1.46765, -54.2958, 1.4684, -173.69, 1.47827, 65.9868, 0.00318392, 63.7111
1, 2640.00000, 119.395, -31.2219, 119.451, -150.616, 121.215, 89.0608, 0, 0, 1.46765, -54.2958, 1.4684, -173.69, 1.47827, 65.9868, 0.00318392, 63.7111
1, 2700.00000, 119.395, -31.2219, 119.451, -150.616, 121.215, 89.0608, 0, 0, 1.46765, -54.2958, 1.4684, -173.69, 1.47827, 65.9868, 0.00318392, 63.7111
1, 2760.00000, 119.807, -31.1756, 119.852, -150.575, 121.634, 89.1142, 0, 0, 1.40748, -54.25, 1.40805, -173.649, 1.40745, 66.0398, 0.0130932, 65.0901
1, 2820.00000, 119.807, -31.1756, 119.852, -150.575, 121.635, 89.1143, 0, 0, 1.40749, -54.2495, 1.40807, -173.649, 1.40738, 66.0404, 0.0131529, 64.983
1, 2880.00000, 119.807, -31.1756, 119.852, -150.575, 121.635, 89.1143, 0, 0, 1.40749, -54.2495, 1.40807, -173.649, 1.40738, 66.0404, 0.0131537, 64.9807
1, 2940.00000, 119.807, -31.1756, 119.852, -150.575, 121.635, 89.1143, 0, 0, 1.40749, -54.2495, 1.40807, -173.649, 1.40738, 66.0404, 0.0131537, 64.9806
1, 3000.00000, 119.807, -31.1756, 119.852, -150.575, 121.635, 89.1143, 0, 0, 1.40749, -54.2495, 1.40807, -173.649, 1.40738, 66.0404, 0.0131537, 64.9806
1, 3060.00000, 119.807, -31.1756, 119.852, -150.575, 121.635, 89.1143, 0, 0, 1.40749, -54.2495, 1.40807, -173.649, 1.40738, 66.0404, 0.0131537, 64.9806
1, 3120.00000, 119.807, -31.1756, 119.852, -150.575, 121.635, 89.1143, 0, 0, 1.40749, -54.2495, 1.40807, -173.649, 1.40738, 66.0404, 0.0131537, 64.9806
1, 3180.00000, 119.807, -31.1756, 119.852, -150.575, 121.635, 89.1143, 0, 0, 1.40749, -54.2495, 1.40807, -173.649, 1.40738, 66.0404, 0.0131537, 64.9806
1, 3240.00000, 119.807, -31.1756, 119.852, -150.575, 121.635, 89.1143, 0, 0, 1.40749, -54.2495, 1.40807, -173.649, 1.40738, 66.0404, 0.0131537, 64.9806
1, 3300.00000, 119.807, -31.1756, 119.852, -150.575, 121.635, 89.1143, 0, 0, 1.40749, -54.2495, 1.40807, -173.649, 1.40738, 66.0404, 0.0131537, 64.9806
1, 3360.00000, 119.807, -31.1756, 119.852, -150.575, 121.635, 89.1143, 0, 0, 1.40749, -54.2495, 1.40807, -173.649, 1.40738, 66.0404, 0.0131537, 64.9806
1, 3420.00000, 119.807, -31.1756, 119.852, -150.575, 121.635, 89.1143, 0, 0, 1.40749, -54.2495, 1.40807, -173.649, 1.40738, 66.0404, 0.0131537, 64.9806
1, 3480.00000, 119.807, -31.1756, 119.852, -150.575, 121.635, 89.1143, 0, 0, 1.40749, -54.2495, 1.40807, -173.649, 1.40738, 66.0404, 0.0131537, 64.9806
1, 3540.00000, 119.807, -31.1756, 119.852, -150.575, 121.635, 89.1143, 0, 0, 1.40749, -54.2495, 1.40807, -173.649, 1.40738, 66.0404, 0.0131537, 64.9806
2, 0.00000, 119.807, -31.1756, 119.852, -150.575, 121.635, 89.1143, 0, 0, 1.40749, -54.2495, 1.40807, -173.649, 1.40738, 66.0404, 0.0131537, 64.9806
2, 60.00000, 119.562, -31.2038, 119.612, -150.601, 121.385, 89.0816, 0, 0, 1.41033, -54.2775, 1.41098, -173.675, 1.4163, 66.008, 0.00718637, 64.6704
2, 120.00000, 119.562, -31.2039, 119.612, -150.601, 121.385, 89.0816, 0, 0, 1.41033, -54.2778, 1.41097, -173.675, 1.41634, 66.0076, 0.00715456, 64.7646
2, 180.00000, 119.562, -31.2039, 119.612, -150.601, 121.385, 89.0816, 0, 0, 1.41033, -54.2778, 1.41097, -173.675, 1.41634, 66.0076, 0.00715423, 64.7662
2, 240.00000, 119.562, -31.2039, 119.612, -150.601, 121.385, 89.0816, 0, 0, 1.41033, -54.2778, 1.41097, -173.675, 1.41634, 66.0076, 0.00715422, 64.7663
2, 300.00000, 119.562, -31.2039, 119.612, -150.601, 121.385, 89.0816, 0, 0, 1.41033, -54.2778, 1.41097, -173.675, 1.41634, 66.0076, 0.00715422, 64.7663
2, 360.00000, 119.562, -31.2039, 119.612, -150.601, 121.385, 89.0816, 0, 0, 1.41033, -54.2778, 1.41097, -173.675, 1.41634, 66.0076, 0.00715422, 64.7663
2, 420.00000, 119.562, -31.2039, 119.612, -150.601, 121.385, 89.0816, 0, 0, 1.41033, -54.2778, 1.41097, -173.675, 1.41634, 66.0076, 0.00715422, 64.7663
2, 480.00000, 119.562, -31.2039, 119.612, -150.601, 121.385, 89.0816, 0, 0, 1.41033, -54.2778, 1.41097, -173.675, 1.41634, 66.0076, 0.00715422, 64.7663
2, 540.00000, 119.562, -31.2039, 119.612, -150.601, 121.385, 89.0816, 0, 0, 1.41033, -54.2778, 1.41097, -173.675, 1.41634, 66.0076, 0.00715422, 64.7663
2, 600.00000, 119.562, -31.2039, 119.612, -150.601, 121.385, 89.0816, 0, 0, 1.41033, -54.2778, 1.41097, -173.675, 1.41634, 66.0076, 0.00715422, 64.7663
2, 660.00000, 119.562, -31.2039, 119.612, -150.601, 121.385, 89.0816, 0, 0, 1.41033, -54.2778, 1.41097, -173.675, 1.41634, 66.0076, 0.00715422, 64.7663
