hour,t(sec),V1,VAngle1,V2,VAngle2,V3,VAngle3,V4,VAngle4,I1,IAngle1,I2,IAngle2,I3,IAngle3,I4,IAngle4
0, 60.00000, 126.025, -31.909, 125.504, -151.463, 126.695, 88.5496, 0, 0, 12.4315, -54.9827, 12.4831, -174.537, 12.366, 65.4756, 0.199602, 36.6796
0, 120.00000, 126.032, -31.9149, 125.504, -151.463, 126.711, 88.5495, 0, 0, 12.4309, -54.9886, 12.4831, -174.537, 12.3644, 65.4755, 0.202239, 36.7149
0, 180.00000, 126.037, -31.9202, 125.504, -151.463, 126.726, 88.5494, 0, 0, 12.4303, -54.9939, 12.4831, -174.537, 12.363, 65.4754, 0.204617, 36.7464
0, 240.00000, 126.043, -31.925, 125.504, -151.463, 126.739, 88.5493, 0, 0, 12.4298, -54.9987, 12.4831, -174.537, 12.3617, 65.4754, 0.20677, 36.7743
0, 300.00000, 126.047, -31.9293, 125.504, -151.463, 126.751, 88.5493, 0, 0, 12.4294, -55.0031, 12.4831, -174.537, 12.3605, 65.4753, 0.208717, 36.7991
0, 360.00000, 126.051, -31.9332, 125.504, -151.463, 126.761, 88.5493, 0, 0, 12.429, -55.007, 12.4831, -174.537, 12.3595, 65.4753, 0.210469, 36.8215
0, 420.00000, 126.055, -31.9367, 125.504, -151.463, 126.771, 88.5492, 0, 0, 12.4286, -55.0105, 12.4831, -174.537, 12.3585, 65.4753, 0.212046, 36.8416
0, 480.00000, 126.453, -31.8193, 125.893, -151.333, 127.205, 88.6822, 0, 0, 10.7789, -54.893, 10.8268, -174.407, 10.7152, 65.6083, 0.189571, 37.1147
0, 540.00000, 126.456, -31.8221, 125.893, -151.333, 127.213, 88.6822, 0, 0, 10.7787, -54.8959, 10.8268, -174.407, 10.7146, 65.6082, 0.19069, 37.1297
0, 600.00000, 126.458, -31.8247, 125.893, -151.333, 127.22, 88.6821, 0, 0, 10.7784, -54.8985, 10.8268, -174.407, 10.714, 65.6082, 0.191694, 37.1433
0, 660.00000, 126.461, -31.827, 125.893, -151.333, 127.226, 88.6821, 0, 0, 10.7782, -54.9008, 10.8268, -174.407, 10.7134, 65.6081, 0.192598, 37.1556
0, 720.00000, 126.463, -31.8291, 125.893, -151.333, 127.232, 88.682, 0, 0, 10.778, -54.9029, 10.8268, -174.407, 10.713, 65.6081, 0.193411, 37.1666
0, 780.00000, 126.465, -31.831, 125.893, -151.333, 127.237, 88.682, 0, 0, 10.7779, -54.9048, 10.8268, -174.407, 10.7125, 65.6081, 0.194143, 37.1766
0, 840.00000, 126.467, -31.8327, 125.893, -151.333, 127.242, 88.6819, 0, 0, 10.7777, -54.9065, 10.8268, -174.407, 10.7121, 65.608, 0.194802, 37.1855
0, 900.00000, 126.468, -31.8342, 125.893, -151.333, 127.246, 88.6819, 0, 0, 10.7776, -54.9081, 10.8268, -174.407, 10.7118, 65.608, 0.195395, 37.1936
0, 960.00000, 126.47, -31.8356, 125.893, -151.333, 127.25, 88.6819, 0, 0, 10.7775, -54.9095, 10.8268, -174.407, 10.7115, 65.608, 0.195929, 37.2009
0, 1020.00000, 126.471, -31.8369, 125.893, -151.333, 127.253, 88.6818, 0, 0, 10.7773, -54.9107, 10.8268, -174.407, 10.7112, 65.6079, 0.196409, 37.2075
0, 1080.00000, 126.472, -31.838, 125.893, -151.333, 127.256, 88.6818, 0, 0, 10.7772, -54.9118, 10.8268, -174.407, 10.7109, 65.6079, 0.196841, 37.2134
0, 1140.00000, 126.473, -31.839, 125.893, -151.333, 127.259, 88.6818, 0, 0, 10.7772, -54.9128, 10.8268, -174.407, 10.7107, 65.6079, 0.197231, 37.2187
0, 1200.00000, 126.474, -31.8399, 125.893, -151.333, 127.261, 88.6818, 0, 0, 10.7771, -54.9137, 10.8268, -174.407, 10.7105, 65.6079, 0.197581, 37.2235
0, 1260.00000, 126.475, -31.8407, 125.893, -151.333, 127.264, 88.6818, 0, 0, 10.777, -54.9146, 10.8268, -174.407, 10.7103, 65.6078, 0.197896, 37.2279
0, 1320.00000, 126.476, -31.8414, 125.893, -151.333, 127.266, 88.6817, 0, 0, 10.7769, -54.9153, 10.8268, -174.407, 10.7101, 65.6078, 0.19818, 37.2318
0, 1380.00000, 126.477, -31.8421, 125.893, -151.333, 127.267, 88.6817, 0, 0, 10.7769, -54.916, 10.8268, -174.407, 10.71, 65.6078, 0.198435, 37.2353
0, 1440.00000, 126.477, -31.8427, 125.893, -151.333, 127.269, 88.6817, 0, 0, 10.7768, -54.9166, 10.8268, -174.407, 10.7098, 65.6078, 0.198665, 37.2384
0, 1500.00000, 126.478, -31.8432, 125.893, -151.333, 127.27, 88.6817, 0, 0, 10.7768, -54.9171, 10.8268, -174.407, 10.7097, 65.6078, 0.198872, 37.2413
0, 1560.00000, 126.478, -31.8437, 125.893, -151.333, 127.272, 88.6817, 0, 0, 10.7767, -54.9176, 10.8268, -174.407, 10.7096, 65.6078, 0.199058, 37.2438
0, 1620.00000, 126.479, -31.8441, 125.893, -151.333, 127.273, 88.6817, 0, 0, 10.7767, -54.918, 10.8268, -174.407, 10.7095, 65.6078, 0.199226, 37.2461
0, 1680.00000, 126.479, -31.8445, 125.893, -151.333, 127.274, 88.6817, 0, 0, 10.7767, -54.9184, 10.8268, -174.407, 10.7094, 65.6077, 0.199377, 37.2482
0, 1740.00000, 126.48, -31.8449, 125.893, -151.333, 127.275, 88.6817, 0, 0, 10.7766, -54.9188, 10.8268, -174.407, 10.7093, 65.6077, 0.199512, 37.2501
0, 1800.00000, 126.48, -31.8452, 125.893, -151.333, 127.276, 88.6816, 0, 0, 10.7766, -54.9191, 10.8268, -174.407, 10.7092, 65.6077, 0.199635, 37.2518
0, 1860.00000, 126.48, -31.8455, 125.893, -151.333, 127.276, 88.6816, 0, 0, 10.7766, -54.9194, 10.8268, -174.407, 10.7092, 65.6077, 0.199744, 37.2533
0, 1920.00000, 126.481, -31.8457, 125.893, -151.333, 127.277, 88.6816, 0, 0, 10.7766, -54.9196, 10.8268, -174.407, 10.7091, 65.6077, 0.199843, 37.2546
0, 1980.00000, 126.481, -31.846, 125.893, -151.333, 127.278, 88.6816, 0, 0, 10.7765, -54.9199, 10.8268, -174.407, 10.7091, 65.6077, 0.199932, 37.2559
0, 2040.00000, 126.481, -31.8462, 125.893, -151.333, 127.278, 88.6816, 0, 0, 10.7765, -54.9201, 10.8268, -174.407, 10.709, 65.6077, 0.200013, 37.257
0, 2100.00000, 126.481, -31.8463, 125.893, -151.333, 127.279, 88.6816, 0, 0, 10.7765, -54.9202, 10.8268, -174.407, 10.709, 65.6077, 0.200085, 37.258
0, 2160.00000, 126.481, -31.8465, 125.893, -151.333, 127.279, 88.6816, 0, 0, 10.7765, -54.9204, 10.8268, -174.407, 10.7089, 65.6077, 0.20015, 37.2589
0, 2220.00000, 126.482, -31.8467, 125.893, -151.333, 127.28, 88.6816, 0, 0, 10.7765, -54.9206, 10.8268, -174.407, 10.7089, 65.6077, 0.200208, 37.2597
0, 2280.00000, 126.482, -31.8468, 125.893, -151.333, 127.28, 88.6816, 0, 0, 10.7765, -54.9207, 10.8268, -174.407, 10.7089, 65.6077, 0.200261, 37.2604
0, 2340.00000, 126.482, -31.8469, 125.893, -151.333, 127.28, 88.6816, 0, 0, 10.7764, -54.9208, 10.8268, -174.407, 10.7088, 65.6077, 0.200308, 37.261
0, 2400.00000, 126.482, -31.847, 125.893, -151.333, 127.281, 88.6816, 0, 0, 10.7764, -54.9209, 10.8268, -174.407, 10.7088, 65.6077, 0.200351, 37.2616
0, 2460.00000, 126.482, -31.8471, 125.893, -151.333, 127.281, 88.6816, 0, 0, 10.7764, -54.921, 10.8268, -174.407, 10.7088, 65.6077, 0.200389, 37.2622
0, 2520.00000, 126.482, -31.8472, 125.893, -151.333, 127.281, 88.6816, 0, 0, 10.7764, -54.9211, 10.8268, -174.407, 10.7088, 65.6077, 0.200424, 37.2626
0, 2580.00000, 126.482, -31.8473, 125.893, -151.333, 127.281, 88.6816, 0, 0, 10.7764, -54.9212, 10.8268, -174.407, 10.7088, 65.6077, 0.200455, 37.2631
0, 2640.00000, 126.482, -31.8474, 125.893, -151.333, 127.282, 88.6816, 0, 0, 10.7764, -54.9213, 10.8268, -174.407, 10.7087, 65.6077, 0.200483, 37.2635
0, 2700.00000, 126.482, -31.8474, 125.893, -151.333, 127.282, 88.6816, 0, 0, 10.7764, -54.9213, 10.8268, -174.407, 10.7087, 65.6077, 0.200508, 37.2638
0, 2760.00000, 126.482, -31.8475, 125.893, -151.333, 127.282, 88.6816, 0, 0, 10.7764, -54.9214, 10.8268, -174.407, 10.7087, 65.6077, 0.20053, 37.2641
0, 2820.00000, 126.483, -31.8475, 125.893, -151.333, 127.282, 88.6816, 0, 0, 10.7764, -54.9215, 10.8268, -174.407, 10.7087, 65.6077, 0.200551, 37.2644
0, 2880.00000, 126.483, -31.8476, 125.893, -151.333, 127.282, 88.6816, 0, 0, 10.7764, -54.9215, 10.8268, -174.407, 10.7087, 65.6077, 0.200569, 37.2646
0, 2940.00000, 126.483, -31.8476, 125.893, -151.333, 127.282, 88.6816, 0, 0, 10.7764, -54.9216, 10.8268, -174.407, 10.7087, 65.6077, 0.200586, 37.2649
0, 3000.00000, 126.483, -31.8477, 125.893, -151.333, 127.282, 88.6816, 0, 0, 10.7764, -54.9216, 10.8268, -174.407, 10.7087, 65.6077, 0.2006, 37.2651
0, 3060.00000, 126.483, -31.8477, 125.893, -151.333, 127.283, 88.6816, 0, 0, 10.7764, -54.9216, 10.8268, -174.407, 10.7087, 65.6077, 0.200614, 37.2653
0, 3120.00000, 126.483, -31.8477, 125.893, -151.333, 127.283, 88.6816, 0, 0, 10.7764, -54.9217, 10.8268, -174.407, 10.7087, 65.6077, 0.200626, 37.2654
0, 3180.00000, 126.483, -31.8478, 125.893, -151.333, 127.283, 88.6816, 0, 0, 10.7764, -54.9217, 10.8268, -174.407, 10.7086, 65.6077, 0.200637, 37.2656
0, 3240.00000, 126.483, -31.8478, 125.893, -151.333, 127.283, 88.6816, 0, 0, 10.7764, -54.9217, 10.8268, -174.407, 10.7086, 65.6077, 0.200646, 37.2657
0, 3300.00000, 126.483, -31.8478, 125.893, -151.333, 127.283, 88.6816, 0, 0, 10.7764, -54.9217, 10.8268, -174.407, 10.7086, 65.6077, 0.200655, 37.2658
0, 3360.00000, 126.483, -31.8478, 125.893, -151.333, 127.283, 88.6816, 0, 0, 10.7764, -54.9218, 10.8268, -174.407, 10.7086, 65.6077, 0.200663, 37.2659
0, 3420.00000, 126.483, -31.8479, 125.893, -151.333, 127.283, 88.6816, 0, 0, 10.7764, -54.9218, 10.8268, -174.407, 10.7086, 65.6077, 0.20067, 37.266
0, 3480.00000, 126.483, -31.8479, 125.893, -151.333, 127.283, 88.6816, 0, 0, 10.7764, -54.9218, 10.8268, -174.407, 10.7086, 65.6077, 0.200677, 37.2661
0, 3540.00000, 126.483, -31.8479, 125.893, -151.333, 127.283, 88.6816, 0, 0, 10.7764, -54.9218, 10.8268, -174.407, 10.7086, 65.6077, 0.200682, 37.2662
1, 0.00000, 126.483, -31.8479, 125.893, -151.333, 127.283, 88.6816, 0, 0, 10.7764, -54.9218, 10.8268, -174.407, 10.7086, 65.6077, 0.200688, 37.2663
1, 60.00000, 126.483, -31.8479, 125.893, -151.333, 127.283, 88.6816, 0, 0, 10.7764, -54.9218, 10.8268, -174.407, 10.7086, 65.6077, 0.200692, 37.2663
1, 120.00000, 126.483, -31.8479, 125.893, -151.333, 127.283, 88.6816, 0, 0, 10.7764, -54.9218, 10.8268, -174.407, 10.7086, 65.6077, 0.200696, 37.2664
1, 180.00000, 126.483, -31.8479, 125.893, -151.333, 127.283, 88.6816, 0, 0, 10.7764, -54.9219, 10.8268, -174.407, 10.7086, 65.6077, 0.2007, 37.2665
1, 240.00000, 126.483, -31.8479, 125.893, -151.333, 127.283, 88.6816, 0, 0, 10.7764, -54.9219, 10.8268, -174.407, 10.7086, 65.6077, 0.200704, 37.2665
1, 300.00000, 126.483, -31.8479, 125.893, -151.333, 127.283, 88.6816, 0, 0, 10.7764, -54.9219, 10.8268, -174.407, 10.7086, 65.6077, 0.200707, 37.2665
1, 360.00000, 126.483, -31.848, 125.893, -151.333, 127.283, 88.6816, 0, 0, 10.7764, -54.9219, 10.8268, -174.407, 10.7086, 65.6077, 0.200709, 37.2666
1, 420.00000, 126.483, -31.848, 125.893, -151.333, 127.283, 88.6816, 0, 0, 10.7764, -54.9219, 10.8268, -174.407, 10.7086, 65.6077, 0.200712, 37.2666
1, 480.00000, 126.483, -31.848, 125.893, -151.333, 127.283, 88.6816, 0, 0, 10.7764, -54.9219, 10.8268, -174.407, 10.7086, 65.6077, 0.200714, 37.2666
1, 540.00000, 126.483, -31.848, 125.893, -151.333, 127.283, 88.6816, 0, 0, 10.7764, -54.9219, 10.8268, -174.407, 10.7086, 65.6077, 0.200716, 37.2667
1, 600.00000, 126.483, -31.848, 125.893, -151.333, 127.283, 88.6816, 0, 0, 10.7764, -54.9219, 10.8268, -174.407, 10.7086, 65.6077, 0.200718, 37.2667
1, 660.00000, 126.483, -31.848, 125.893, -151.333, 127.283, 88.6816, 0, 0, 10.7764, -54.9219, 10.8268, -174.407, 10.7086, 65.6077, 0.20072, 37.2667
1, 720.00000, 126.483, -31.848, 125.893, -151.333, 127.283, 88.6816, 0, 0, 10.7764, -54.9219, 10.8268, -174.407, 10.7086, 65.6077, 0.200721, 37.2667
1, 780.00000, 126.483, -31.848, 125.893, -151.333, 127.283, 88.6816, 0, 0, 10.7764, -54.9219, 10.8268, -174.407, 10.7086, 65.6077, 0.200722, 37.2668
1, 840.00000, 126.483, -31.848, 125.893, -151.333, 127.283, 88.6816, 0, 0, 10.7764, -54.9219, 10.8268, -174.407, 10.7086, 65.6077, 0.200723, 37.2668
1, 900.00000, 126.483, -31.848, 125.893, -151.333, 127.283, 88.6816, 0, 0, 10.7764, -54.9219, 10.8268, -174.407, 10.7086, 65.6077, 0.200725, 37.2668
1, 960.00000, 126.483, -31.848, 125.893, -151.333, 127.283, 88.6816, 0, 0, 10.7764, -54.9219, 10.8268, -174.407, 10.7086, 65.6077, 0.200725, 37.2668
1, 1020.00000, 126.483, -31.848, 125.893, -151.333, 127.283, 88.6816, 0, 0, 10.7764, -54.9219, 10.8268, -174.407, 10.7086, 65.6077, 0.200726, 37.2668
1, 1080.00000, 126.483, -31.848, 125.893, -151.333, 127.283, 88.6816, 0, 0, 10.7764, -54.9219, 10.8268, -174.407, 10.7086, 65.6077, 0.200727, 37.2668
1, 1140.00000, 126.483, -31.848, 125.893, -151.333, 127.283, 88.6816, 0, 0, 10.7764, -54.9219, 10.8268, -174.407, 10.7086, 65.6077, 0.200728, 37.2668
1, 1200.00000, 126.483, -31.848, 125.893, -151.333, 127.283, 88.6816, 0, 0, 10.7764, -54.9219, 10.8268, -174.407, 10.7086, 65.6077, 0.200728, 37.2668
1, 1260.00000, 126.483, -31.848, 125.893, -151.333, 127.283, 88.6816, 0, 0, 10.7764, -54.9219, 10.8268, -174.407, 10.7086, 65.6077, 0.200729, 37.2668
1, 1320.00000, 126.483, -31.848, 125.893, -151.333, 127.283, 88.6816, 0, 0, 10.7764, -54.9219, 10.8268, -174.407, 10.7086, 65.6077, 0.20073, 37.2669
1, 1380.00000, 126.483, -31.848, 125.893, -151.333, 127.283, 88.6816, 0, 0, 10.7764, -54.9219, 10.8268, -174.407, 10.7086, 65.6077, 0.20073, 37.2669
1, 1440.00000, 126.483, -31.848, 125.893, -151.333, 127.283, 88.6816, 0, 0, 10.7764, -54.9219, 10.8268, -174.407, 10.7086, 65.6077, 0.20073, 37.2669
1, 1500.00000, 126.483, -31.848, 125.893, -151.333, 127.283, 88.6816, 0, 0, 10.7764, -54.9219, 10.8268, -174.407, 10.7086, 65.6077, 0.200731, 37.2669
1, 1560.00000, 126.483, -31.848, 125.893, -151.333, 127.283, 88.6816, 0, 0, 10.7764, -54.9219, 10.8268, -174.407, 10.7086, 65.6077, 0.200731, 37.2669
1, 1620.00000, 126.483, -31.848, 125.893, -151.333, 127.283, 88.6816, 0, 0, 10.7764, -54.9219, 10.8268, -174.407, 10.7086, 65.6077, 0.200731, 37.2669
1, 1680.00000, 126.483, -31.848, 125.893, -151.333, 127.283, 88.6816, 0, 0, 10.7764, -54.9219, 10.8268, -174.407, 10.7086, 65.6077, 0.200732, 37.2669
1, 1740.00000, 126.483, -31.848, 125.893, -151.333, 127.283, 88.6816, 0, 0, 10.7764, -54.9219, 10.8268, -174.407, 10.7086, 65.6077, 0.200732, 37.2669
1, 1800.00000, 126.483, -31.848, 125.893, -151.333, 127.283, 88.6816, 0, 0, 10.7764, -54.9219, 10.8268, -174.407, 10.7086, 65.6077, 0.200732, 37.2669
1, 1860.00000, 126.483, -31.848, 125.893, -151.333, 127.283, 88.6816, 0, 0, 10.7764, -54.9219, 10.8268, -174.407, 10.7086, 65.6077, 0.200732, 37.2669
1, 1920.00000, 126.483, -31.848, 125.893, -151.333, 127.283, 88.6816, 0, 0, 10.7764, -54.9219, 10.8268, -174.407, 10.7086, 65.6077, 0.200733, 37.2669
1, 1980.00000, 126.483, -31.848, 125.893, -151.333, 127.283, 88.6816, 0, 0, 10.7764, -54.9219, 10.8268, -174.407, 10.7086, 65.6077, 0.200733, 37.2669
1, 2040.00000, 126.483, -31.848, 125.893, -151.333, 127.283, 88.6816, 0, 0, 10.7764, -54.9219, 10.8268, -174.407, 10.7086, 65.6077, 0.200733, 37.2669
1, 2100.00000, 126.483, -31.848, 125.893, -151.333, 127.283, 88.6816, 0, 0, 10.7764, -54.9219, 10.8268, -174.407, 10.7086, 65.6077, 0.200733, 37.2669
1, 2160.00000, 126.483, -31.848, 125.893, -151.333, 127.283, 88.6816, 0, 0, 10.7764, -54.9219, 10.8268, -174.407, 10.7086, 65.6077, 0.200733, 37.2669
1, 2220.00000, 126.483, -31.848, 125.893, -151.333, 127.283, 88.6816, 0, 0, 10.7764, -54.9219, 10.8268, -174.407, 10.7086, 65.6077, 0.200733, 37.2669
1, 2280.00000, 126.483, -31.848, 125.893, -151.333, 127.283, 88.6816, 0, 0, 10.7764, -54.9219, 10.8268, -174.407, 10.7086, 65.6077, 0.200733, 37.2669
1, 2340.00000, 126.483, -31.848, 125.893, -151.333, 127.283, 88.6816, 0, 0, 10.7764, -54.9219, 10.8268, -174.407, 10.7086, 65.6077, 0.200733, 37.2669
1, 2400.00000, 126.483, -31.848, 125.893, -151.333, 127.283, 88.6816, 0, 0, 10.7763, -54.9219, 10.8268, -174.407, 10.7086, 65.6077, 0.200733, 37.2669
1, 2460.00000, 126.483, -31.848, 125.893, -151.333, 127.283, 88.6816, 0, 0, 10.7763, -54.9219, 10.8268, -174.407, 10.7086, 65.6077, 0.200734, 37.2669
1, 2520.00000, 126.483, -31.848, 125.893, -151.333, 127.283, 88.6816, 0, 0, 10.7763, -54.9219, 10.8268, -174.407, 10.7086, 65.6077, 0.200734, 37.2669
1, 2580.00000, 126.483, -31.848, 125.893, -151.333, 127.283, 88.6816, 0, 0, 10.7763, -54.9219, 10.8268, -174.407, 10.7086, 65.6077, 0.200734, 37.2669
1, 2640.00000, 126.483, -31.848, 125.893, -151.333, 127.283, 88.6816, 0, 0, 10.7763, -54.9219, 10.8268, -174.407, 10.7086, 65.6077, 0.200734, 37.2669
1, 2700.00000, 126.483, -31.848, 125.893, -151.333, 127.283, 88.6816, 0, 0, 10.7763, -54.9219, 10.8268, -174.407, 10.7086, 65.6077, 0.200734, 37.2669
1, 2760.00000, 126.483, -31.848, 125.893, -151.333, 127.283, 88.6816, 0, 0, 10.7763, -54.9219, 10.8268, -174.407, 10.7086, 65.6077, 0.200734, 37.2669
1, 2820.00000, 126.483, -31.848, 125.893, -151.333, 127.283, 88.6816, 0, 0, 10.7763, -54.9219, 10.8268, -174.407, 10.7086, 65.6077, 0.200734, 37.2669
1, 2880.00000, 126.483, -31.848, 125.893, -151.333, 127.283, 88.6816, 0, 0, 10.7763, -54.9219, 10.8268, -174.407, 10.7086, 65.6077, 0.200734, 37.2669
1, 2940.00000, 126.483, -31.848, 125.893, -151.333, 127.283, 88.6816, 0, 0, 10.7763, -54.9219, 10.8268, -174.407, 10.7086, 65.6077, 0.200734, 37.2669
1, 3000.00000, 126.483, -31.848, 125.893, -151.333, 127.283, 88.6816, 0, 0, 10.7763, -54.9219, 10.8268, -174.407, 10.7086, 65.6077, 0.200734, 37.2669
1, 3060.00000, 126.483, -31.848, 125.893, -151.333, 127.283, 88.6816, 0, 0, 10.7763, -54.9219, 10.8268, -174.407, 10.7086, 65.6077, 0.200734, 37.2669
1, 3120.00000, 126.483, -31.848, 125.893, -151.333, 127.283, 88.6816, 0, 0, 10.7763, -54.9219, 10.8268, -174.407, 10.7086, 65.6077, 0.200734, 37.2669
1, 3180.00000, 126.483, -31.848, 125.893, -151.333, 127.283, 88.6816, 0, 0, 10.7763, -54.9219, 10.8268, -174.407, 10.7086, 65.6077, 0.200734, 37.2669
1, 3240.00000, 126.483, -31.848, 125.893, -151.333, 127.283, 88.6816, 0, 0, 10.7763, -54.9219, 10.8268, -174.407, 10.7086, 65.6077, 0.200734, 37.2669
1, 3300.00000, 126.483, -31.848, 125.893, -151.333, 127.283, 88.6816, 0, 0, 10.7763, -54.9219, 10.8268, -174.407, 10.7086, 65.6077, 0.200734, 37.2669
1, 3360.00000, 126.483, -31.848, 125.893, -151.333, 127.283, 88.6816, 0, 0, 10.7763, -54.9219, 10.8268, -174.407, 10.7086, 65.6077, 0.200734, 37.2669
1, 3420.00000, 126.483, -31.848, 125.893, -151.333, 127.283, 88.6816, 0, 0, 10.7763, -54.9219, 10.8268, -174.407, 10.7086, 65.6077, 0.200734, 37.2669
1, 3480.00000, 126.483, -31.848, 125.893, -151.333, 127.283, 88.6816, 0, 0, 10.7763, -54.9219, 10.8268, -174.407, 10.7086, 65.6077, 0.200734, 37.2669
1, 3540.00000, 126.483, -31.848, 125.893, -151.333, 127.283, 88.6816, 0, 0, 10.7763, -54.9219, 10.8268, -174.407, 10.7086, 65.6077, 0.200734, 37.2669
2, 0.00000, 126.483, -31.848, 125.893, -151.333, 127.283, 88.6816, 0, 0, 10.7763, -54.9219, 10.8268, -174.407, 10.7086, 65.6077, 0.200734, 37.2669
2, 60.00000, 126.483, -31.848, 125.893, -151.333, 127.283, 88.6816, 0, 0, 10.7763, -54.9219, 10.8268, -174.407, 10.7086, 65.6077, 0.200734, 37.2669
2, 120.00000, 126.483, -31.848, 125.893, -151.333, 127.283, 88.6816, 0, 0, 10.7763, -54.9219, 10.8268, -174.407, 10.7086, 65.6077, 0.200734, 37.2669
2, 180.00000, 126.483, -31.848, 125.893, -151.333, 127.283, 88.6816, 0, 0, 10.7763, -54.9219, 10.8268, -174.407, 10.7086, 65.6077, 0.200734, 37.2669
2, 240.00000, 126.483, -31.848, 125.893, -151.333, 127.283, 88.6816, 0, 0, 10.7763, -54.9219, 10.8268, -174.407, 10.7086, 65.6077, 0.200734, 37.2669
2, 300.00000, 126.483, -31.848, 125.893, -151.333, 127.283, 88.6816, 0, 0, 10.7763, -54.9219, 10.8268, -174.407, 10.7086, 65.6077, 0.200734, 37.2669
2, 360.00000, 126.483, -31.848, 125.893, -151.333, 127.283, 88.6816, 0, 0, 10.7763, -54.9219, 10.8268, -174.407, 10.7086, 65.6077, 0.200734, 37.2669
2, 420.00000, 126.483, -31.848, 125.893, -151.333, 127.283, 88.6816, 0, 0, 10.7763, -54.9219, 10.8268, -174.407, 10.7086, 65.6077, 0.200734, 37.2669
2, 480.00000, 126.483, -31.848, 125.893, -151.333, 127.283, 88.6816, 0, 0, 10.7763, -54.9219, 10.8268, -174.407, 10.7086, 65.6077, 0.200734, 37.2669
2, 540.00000, 126.483, -31.848, 125.893, -151.333, 127.283, 88.6816, 0, 0, 10.7763, -54.9219, 10.8268, -174.407, 10.7086, 65.6077, 0.200734, 37.2669
2, 600.00000, 126.483, -31.848, 125.893, -151.333, 127.283, 88.6816, 0, 0, 10.7763, -54.9219, 10.8268, -174.407, 10.7086, 65.6077, 0.200734, 37.2669
2, 660.00000, 126.483, -31.848, 125.893, -151.333, 127.283, 88.6816, 0, 0, 10.7763, -54.9219, 10.8268, -174.407, 10.7086, 65.6077, 0.200734, 37.2669
2, 720.00000, 126.483, -31.848, 125.893, -151.333, 127.283, 88.6816, 0, 0, 10.7763, -54.9219, 10.8268, -174.407, 10.7086, 65.6077, 0.200734, 37.2669
