hour,t(sec),V1,VAngle1,V2,VAngle2,V3,VAngle3,V4,VAngle4,I1,IAngle1,I2,IAngle2,I3,IAngle3,I4,IAngle4
0, 60.00000, 123.84, -32.1391, 123.355, -151.266, 125.709, 88.5223, 0, 0, 2.74641, -55.2128, 2.7572, -174.34, 2.70565, 65.4483, 0.0847728, 51.6309
0, 120.00000, 123.846, -32.1453, 123.355, -151.266, 125.726, 88.522, 0, 0, 2.74626, -55.2191, 2.75721, -174.34, 2.70525, 65.448, 0.085397, 51.5485
0, 180.00000, 123.852, -32.1509, 123.354, -151.266, 125.742, 88.5217, 0, 0, 2.74614, -55.2247, 2.75721, -174.34, 2.7049, 65.4478, 0.0859577, 51.4761
0, 240.00000, 123.857, -32.156, 123.354, -151.266, 125.757, 88.5215, 0, 0, 2.74602, -55.2298, 2.75722, -174.34, 2.70459, 65.4475, 0.0864627, 51.4121
0, 300.00000, 123.862, -32.1605, 123.354, -151.266, 125.77, 88.5212, 0, 0, 2.74592, -55.2343, 2.75722, -174.34, 2.70431, 65.4473, 0.0869175, 51.3554
0, 360.00000, 123.866, -32.1646, 123.354, -151.266, 125.782, 88.521, 0, 0, 2.74583, -55.2385, 2.75723, -174.34, 2.70405, 65.4471, 0.087327, 51.3049
0, 420.00000, 123.87, -32.1683, 123.354, -151.266, 125.792, 88.5208, 0, 0, 2.74575, -55.2422, 2.75723, -174.34, 2.70382, 65.4469, 0.0876959, 51.26
0, 480.00000, 124.424, -32.0606, 123.869, -151.148, 126.353, 88.6518, 0, 0, 2.4699, -55.1344, 2.48096, -174.222, 2.43222, 65.5779, 0.0799511, 50.5439
0, 540.00000, 124.427, -32.0636, 123.869, -151.148, 126.361, 88.6516, 0, 0, 2.46984, -55.1374, 2.48096, -174.222, 2.43205, 65.5777, 0.0802218, 50.5113
0, 600.00000, 124.429, -32.0664, 123.869, -151.148, 126.369, 88.6515, 0, 0, 2.46978, -55.1402, 2.48096, -174.222, 2.4319, 65.5776, 0.0804647, 50.4824
0, 660.00000, 124.432, -32.0688, 123.869, -151.148, 126.376, 88.6513, 0, 0, 2.46974, -55.1427, 2.48096, -174.222, 2.43177, 65.5774, 0.0806833, 50.4566
0, 720.00000, 124.434, -32.0711, 123.869, -151.148, 126.382, 88.6512, 0, 0, 2.46969, -55.1449, 2.48096, -174.222, 2.43165, 65.5772, 0.0808801, 50.4336
0, 780.00000, 124.436, -32.0731, 123.869, -151.148, 126.388, 88.651, 0, 0, 2.46965, -55.1469, 2.48096, -174.222, 2.43154, 65.5771, 0.0810573, 50.413
0, 840.00000, 124.438, -32.0748, 123.869, -151.148, 126.393, 88.6509, 0, 0, 2.46962, -55.1487, 2.48097, -174.222, 2.43144, 65.577, 0.0812168, 50.3946
0, 900.00000, 124.44, -32.0765, 123.869, -151.148, 126.397, 88.6508, 0, 0, 2.46958, -55.1503, 2.48097, -174.222, 2.43135, 65.5769, 0.0813603, 50.3782
0, 960.00000, 124.441, -32.0779, 123.869, -151.148, 126.401, 88.6507, 0, 0, 2.46955, -55.1518, 2.48097, -174.222, 2.43127, 65.5768, 0.0814896, 50.3634
0, 1020.00000, 124.442, -32.0792, 123.869, -151.148, 126.405, 88.6506, 0, 0, 2.46953, -55.1531, 2.48097, -174.222, 2.4312, 65.5767, 0.0816059, 50.3503
0, 1080.00000, 124.444, -32.0804, 123.868, -151.148, 126.408, 88.6505, 0, 0, 2.4695, -55.1543, 2.48097, -174.222, 2.43113, 65.5766, 0.0817106, 50.3384
0, 1140.00000, 124.445, -32.0815, 123.868, -151.148, 126.411, 88.6505, 0, 0, 2.46948, -55.1554, 2.48097, -174.222, 2.43108, 65.5766, 0.0818048, 50.3278
0, 1200.00000, 124.446, -32.0824, 123.868, -151.148, 126.414, 88.6504, 0, 0, 2.46946, -55.1563, 2.48097, -174.222, 2.43102, 65.5765, 0.0818897, 50.3183
0, 1260.00000, 124.446, -32.0833, 123.868, -151.148, 126.416, 88.6503, 0, 0, 2.46945, -55.1572, 2.48097, -174.222, 2.43098, 65.5764, 0.081966, 50.3098
0, 1320.00000, 124.447, -32.0841, 123.868, -151.148, 126.418, 88.6503, 0, 0, 2.46943, -55.158, 2.48097, -174.222, 2.43093, 65.5764, 0.0820348, 50.3021
0, 1380.00000, 124.448, -32.0848, 123.868, -151.148, 126.42, 88.6502, 0, 0, 2.46942, -55.1587, 2.48097, -174.222, 2.4309, 65.5763, 0.0820966, 50.2952
0, 1440.00000, 124.449, -32.0854, 123.868, -151.148, 126.422, 88.6502, 0, 0, 2.46941, -55.1593, 2.48097, -174.222, 2.43086, 65.5763, 0.0821523, 50.2891
0, 1500.00000, 124.449, -32.086, 123.868, -151.148, 126.424, 88.6502, 0, 0, 2.46939, -55.1599, 2.48097, -174.222, 2.43083, 65.5762, 0.0822024, 50.2835
0, 1560.00000, 124.45, -32.0865, 123.868, -151.148, 126.425, 88.6501, 0, 0, 2.46938, -55.1604, 2.48097, -174.222, 2.4308, 65.5762, 0.0822475, 50.2785
0, 1620.00000, 124.45, -32.0869, 123.868, -151.148, 126.426, 88.6501, 0, 0, 2.46938, -55.1608, 2.48097, -174.222, 2.43078, 65.5762, 0.0822881, 50.2741
0, 1680.00000, 124.451, -32.0873, 123.868, -151.148, 126.428, 88.6501, 0, 0, 2.46937, -55.1613, 2.48098, -174.222, 2.43076, 65.5761, 0.0823247, 50.2701
0, 1740.00000, 124.451, -32.0877, 123.868, -151.148, 126.429, 88.65, 0, 0, 2.46936, -55.1616, 2.48098, -174.222, 2.43074, 65.5761, 0.0823575, 50.2664
0, 1800.00000, 124.451, -32.0881, 123.868, -151.148, 126.429, 88.65, 0, 0, 2.46935, -55.162, 2.48098, -174.222, 2.43072, 65.5761, 0.0823871, 50.2632
0, 1860.00000, 124.452, -32.0884, 123.868, -151.148, 126.43, 88.65, 0, 0, 2.46935, -55.1623, 2.48098, -174.222, 2.4307, 65.5761, 0.0824138, 50.2603
0, 1920.00000, 124.452, -32.0886, 123.868, -151.148, 126.431, 88.65, 0, 0, 2.46934, -55.1625, 2.48098, -174.222, 2.43069, 65.5761, 0.0824378, 50.2576
0, 1980.00000, 124.452, -32.0889, 123.868, -151.148, 126.432, 88.65, 0, 0, 2.46934, -55.1628, 2.48098, -174.222, 2.43067, 65.576, 0.0824593, 50.2553
0, 2040.00000, 124.452, -32.0891, 123.868, -151.148, 126.432, 88.6499, 0, 0, 2.46933, -55.163, 2.48098, -174.222, 2.43066, 65.576, 0.0824788, 50.2532
0, 2100.00000, 124.452, -32.0893, 123.868, -151.148, 126.433, 88.6499, 0, 0, 2.46933, -55.1632, 2.48098, -174.222, 2.43065, 65.576, 0.0824962, 50.2512
0, 2160.00000, 124.453, -32.0895, 123.868, -151.148, 126.433, 88.6499, 0, 0, 2.46933, -55.1634, 2.48098, -174.222, 2.43064, 65.576, 0.082512, 50.2495
0, 2220.00000, 124.453, -32.0896, 123.868, -151.148, 126.434, 88.6499, 0, 0, 2.46932, -55.1635, 2.48098, -174.222, 2.43063, 65.576, 0.0825261, 50.248
0, 2280.00000, 124.453, -32.0898, 123.868, -151.148, 126.434, 88.6499, 0, 0, 2.46932, -55.1637, 2.48098, -174.222, 2.43062, 65.576, 0.0825389, 50.2466
0, 2340.00000, 124.453, -32.0899, 123.868, -151.148, 126.435, 88.6499, 0, 0, 2.46932, -55.1638, 2.48098, -174.222, 2.43062, 65.576, 0.0825503, 50.2453
0, 2400.00000, 124.453, -32.09, 123.868, -151.148, 126.435, 88.6499, 0, 0, 2.46931, -55.1639, 2.48098, -174.222, 2.43061, 65.576, 0.0825607, 50.2442
0, 2460.00000, 124.453, -32.0901, 123.868, -151.148, 126.435, 88.6499, 0, 0, 2.46931, -55.164, 2.48098, -174.222, 2.43061, 65.576, 0.08257, 50.2432
0, 2520.00000, 124.453, -32.0902, 123.868, -151.148, 126.436, 88.6499, 0, 0, 2.46931, -55.1641, 2.48098, -174.222, 2.4306, 65.576, 0.0825783, 50.2423
0, 2580.00000, 124.453, -32.0903, 123.868, -151.148, 126.436, 88.6499, 0, 0, 2.46931, -55.1642, 2.48098, -174.222, 2.4306, 65.5759, 0.0825858, 50.2415
0, 2640.00000, 124.454, -32.0904, 123.868, -151.148, 126.436, 88.6499, 0, 0, 2.46931, -55.1643, 2.48098, -174.222, 2.43059, 65.5759, 0.0825926, 50.2407
0, 2700.00000, 124.454, -32.0904, 123.868, -151.148, 126.436, 88.6498, 0, 0, 2.46931, -55.1644, 2.48098, -174.222, 2.43059, 65.5759, 0.0825987, 50.2401
0, 2760.00000, 124.454, -32.0905, 123.868, -151.148, 126.436, 88.6498, 0, 0, 2.46931, -55.1644, 2.48098, -174.222, 2.43058, 65.5759, 0.0826042, 50.2395
0, 2820.00000, 124.454, -32.0906, 123.868, -151.148, 126.436, 88.6498, 0, 0, 2.4693, -55.1645, 2.48098, -174.222, 2.43058, 65.5759, 0.0826091, 50.2389
0, 2880.00000, 124.454, -32.0906, 123.868, -151.148, 126.437, 88.6498, 0, 0, 2.4693, -55.1645, 2.48098, -174.222, 2.43058, 65.5759, 0.0826136, 50.2385
0, 2940.00000, 124.454, -32.0907, 123.868, -151.148, 126.437, 88.6498, 0, 0, 2.4693, -55.1646, 2.48098, -174.222, 2.43058, 65.5759, 0.0826176, 50.238
0, 3000.00000, 124.454, -32.0907, 123.868, -151.148, 126.437, 88.6498, 0, 0, 2.4693, -55.1646, 2.48098, -174.222, 2.43057, 65.5759, 0.0826212, 50.2376
0, 3060.00000, 124.454, -32.0907, 123.868, -151.148, 126.437, 88.6498, 0, 0, 2.4693, -55.1646, 2.48098, -174.222, 2.43057, 65.5759, 0.0826244, 50.2373
0, 3120.00000, 124.454, -32.0908, 123.868, -151.148, 126.437, 88.6498, 0, 0, 2.4693, -55.1647, 2.48098, -174.222, 2.43057, 65.5759, 0.0826273, 50.237
0, 3180.00000, 124.454, -32.0908, 123.868, -151.148, 126.437, 88.6498, 0, 0, 2.4693, -55.1647, 2.48098, -174.222, 2.43057, 65.5759, 0.08263, 50.2367
0, 3240.00000, 124.454, -32.0908, 123.868, -151.148, 126.437, 88.6498, 0, 0, 2.4693, -55.1647, 2.48098, -174.222, 2.43057, 65.5759, 0.0826323, 50.2364
0, 3300.00000, 124.454, -32.0908, 123.868, -151.148, 126.437, 88.6498, 0, 0, 2.4693, -55.1648, 2.48098, -174.222, 2.43057, 65.5759, 0.0826344, 50.2362
0, 3360.00000, 124.454, -32.0909, 123.868, -151.148, 126.437, 88.6498, 0, 0, 2.4693, -55.1648, 2.48098, -174.222, 2.43056, 65.5759, 0.0826364, 50.236
0, 3420.00000, 124.454, -32.0909, 123.868, -151.148, 126.437, 88.6498, 0, 0, 2.4693, -55.1648, 2.48098, -174.222, 2.43056, 65.5759, 0.0826381, 50.2358
0, 3480.00000, 124.454, -32.0909, 123.868, -151.148, 126.437, 88.6498, 0, 0, 2.4693, -55.1648, 2.48098, -174.222, 2.43056, 65.5759, 0.0826396, 50.2356
0, 3540.00000, 124.454, -32.0909, 123.868, -151.148, 126.437, 88.6498, 0, 0, 2.4693, -55.1648, 2.48098, -174.222, 2.43056, 65.5759, 0.082641, 50.2355
1, 0.00000, 124.454, -32.0909, 123.868, -151.148, 126.438, 88.6498, 0, 0, 2.4693, -55.1649, 2.48098, -174.222, 2.43056, 65.5759, 0.0826423, 50.2353
1, 60.00000, 124.706, -31.919, 124.335, -151.155, 126.409, 88.6548, 0, 0, 2.4643, -54.9929, 2.47166, -174.229, 2.43112, 65.5809, 0.0669121, 52.8927
1, 120.00000, 124.706, -31.919, 124.335, -151.155, 126.409, 88.6548, 0, 0, 2.4643, -54.9929, 2.47166, -174.229, 2.43111, 65.5809, 0.066913, 52.8926
1, 180.00000, 124.706, -31.919, 124.335, -151.155, 126.409, 88.6548, 0, 0, 2.4643, -54.9929, 2.47166, -174.229, 2.43111, 65.5809, 0.0669139, 52.8924
1, 240.00000, 124.706, -31.919, 124.335, -151.155, 126.409, 88.6548, 0, 0, 2.4643, -54.9929, 2.47166, -174.229, 2.43111, 65.5809, 0.0669148, 52.8923
1, 300.00000, 124.706, -31.919, 124.335, -151.155, 126.409, 88.6548, 0, 0, 2.4643, -54.993, 2.47166, -174.229, 2.43111, 65.5809, 0.0669155, 52.8921
1, 360.00000, 124.706, -31.919, 124.335, -151.155, 126.409, 88.6548, 0, 0, 2.4643, -54.993, 2.47166, -174.229, 2.43111, 65.5809, 0.0669162, 52.892
1, 420.00000, 124.706, -31.9191, 124.335, -151.155, 126.409, 88.6548, 0, 0, 2.4643, -54.993, 2.47166, -174.229, 2.43111, 65.5809, 0.0669168, 52.8919
1, 480.00000, 124.706, -31.9191, 124.335, -151.155, 126.409, 88.6548, 0, 0, 2.4643, -54.993, 2.47166, -174.229, 2.43111, 65.5809, 0.0669173, 52.8918
1, 540.00000, 124.706, -31.9191, 124.335, -151.155, 126.409, 88.6548, 0, 0, 2.4643, -54.993, 2.47166, -174.229, 2.43111, 65.5809, 0.0669178, 52.8917
1, 600.00000, 124.706, -31.9191, 124.335, -151.155, 126.409, 88.6548, 0, 0, 2.4643, -54.993, 2.47166, -174.229, 2.43111, 65.5809, 0.0669182, 52.8917
1, 660.00000, 124.706, -31.9191, 124.335, -151.155, 126.409, 88.6548, 0, 0, 2.4643, -54.993, 2.47166, -174.229, 2.43111, 65.5809, 0.0669186, 52.8916
1, 720.00000, 124.706, -31.9191, 124.335, -151.155, 126.409, 88.6548, 0, 0, 2.4643, -54.993, 2.47166, -174.229, 2.43111, 65.5809, 0.0669189, 52.8915
1, 780.00000, 124.706, -31.9191, 124.335, -151.155, 126.409, 88.6548, 0, 0, 2.4643, -54.993, 2.47166, -174.229, 2.43111, 65.5809, 0.0669193, 52.8915
1, 840.00000, 124.706, -31.9191, 124.335, -151.155, 126.409, 88.6548, 0, 0, 2.4643, -54.993, 2.47166, -174.229, 2.43111, 65.5809, 0.0669196, 52.8914
1, 900.00000, 124.706, -31.9191, 124.335, -151.155, 126.409, 88.6548, 0, 0, 2.4643, -54.993, 2.47166, -174.229, 2.43111, 65.5809, 0.0669198, 52.8914
1, 960.00000, 124.706, -31.9191, 124.335, -151.155, 126.409, 88.6548, 0, 0, 2.4643, -54.993, 2.47166, -174.229, 2.43111, 65.5809, 0.06692, 52.8913
1, 1020.00000, 124.706, -31.9191, 124.335, -151.155, 126.409, 88.6548, 0, 0, 2.4643, -54.993, 2.47166, -174.229, 2.43111, 65.5809, 0.0669202, 52.8913
1, 1080.00000, 124.706, -31.9191, 124.335, -151.155, 126.409, 88.6548, 0, 0, 2.4643, -54.993, 2.47166, -174.229, 2.43111, 65.5809, 0.0669204, 52.8913
1, 1140.00000, 124.706, -31.9191, 124.335, -151.155, 126.409, 88.6548, 0, 0, 2.4643, -54.993, 2.47166, -174.229, 2.43111, 65.5809, 0.0669206, 52.8912
1, 1200.00000, 124.706, -31.9191, 124.335, -151.155, 126.409, 88.6548, 0, 0, 2.4643, -54.993, 2.47166, -174.229, 2.43111, 65.5809, 0.0669207, 52.8912
1, 1260.00000, 124.706, -31.9191, 124.335, -151.155, 126.409, 88.6548, 0, 0, 2.4643, -54.993, 2.47166, -174.229, 2.43111, 65.5809, 0.0669209, 52.8912
1, 1320.00000, 124.706, -31.9191, 124.335, -151.155, 126.409, 88.6548, 0, 0, 2.4643, -54.993, 2.47166, -174.229, 2.43111, 65.5809, 0.066921, 52.8912
1, 1380.00000, 124.706, -31.9191, 124.335, -151.155, 126.409, 88.6548, 0, 0, 2.4643, -54.993, 2.47166, -174.229, 2.43111, 65.5809, 0.0669211, 52.8911
1, 1440.00000, 124.706, -31.9191, 124.335, -151.155, 126.409, 88.6548, 0, 0, 2.4643, -54.993, 2.47166, -174.229, 2.43111, 65.5809, 0.0669212, 52.8911
1, 1500.00000, 124.706, -31.9191, 124.335, -151.155, 126.409, 88.6548, 0, 0, 2.4643, -54.993, 2.47166, -174.229, 2.43111, 65.5809, 0.0669213, 52.8911
1, 1560.00000, 124.706, -31.9191, 124.335, -151.155, 126.409, 88.6548, 0, 0, 2.4643, -54.993, 2.47166, -174.229, 2.43111, 65.5809, 0.0669214, 52.8911
1, 1620.00000, 124.706, -31.9191, 124.335, -151.155, 126.409, 88.6548, 0, 0, 2.4643, -54.993, 2.47166, -174.229, 2.43111, 65.5809, 0.0669215, 52.8911
1, 1680.00000, 124.706, -31.9191, 124.335, -151.155, 126.409, 88.6548, 0, 0, 2.4643, -54.993, 2.47166, -174.229, 2.43111, 65.5809, 0.0669215, 52.8911
1, 1740.00000, 124.706, -31.9191, 124.335, -151.155, 126.409, 88.6548, 0, 0, 2.4643, -54.993, 2.47166, -174.229, 2.43111, 65.5809, 0.0669216, 52.8911
1, 1800.00000, 124.706, -31.9191, 124.335, -151.155, 126.409, 88.6548, 0, 0, 2.4643, -54.993, 2.47166, -174.229, 2.43111, 65.5809, 0.0669216, 52.8911
1, 1860.00000, 124.706, -31.9191, 124.335, -151.155, 126.409, 88.6548, 0, 0, 2.4643, -54.993, 2.47166, -174.229, 2.43111, 65.5809, 0.0669217, 52.891
1, 1920.00000, 124.706, -31.9191, 124.335, -151.155, 126.409, 88.6548, 0, 0, 2.4643, -54.993, 2.47166, -174.229, 2.43111, 65.5809, 0.0669217, 52.891
1, 1980.00000, 124.706, -31.9191, 124.335, -151.155, 126.409, 88.6548, 0, 0, 2.4643, -54.993, 2.47166, -174.229, 2.43111, 65.5809, 0.0669218, 52.891
1, 2040.00000, 124.706, -31.9191, 124.335, -151.155, 126.409, 88.6548, 0, 0, 2.4643, -54.993, 2.47166, -174.229, 2.43111, 65.5809, 0.0669218, 52.891
1, 2100.00000, 124.706, -31.9191, 124.335, -151.155, 126.409, 88.6548, 0, 0, 2.4643, -54.993, 2.47166, -174.229, 2.43111, 65.5809, 0.0669218, 52.891
1, 2160.00000, 124.706, -31.9191, 124.335, -151.155, 126.409, 88.6548, 0, 0, 2.4643, -54.993, 2.47166, -174.229, 2.43111, 65.5809, 0.0669219, 52.891
1, 2220.00000, 124.706, -31.9191, 124.335, -151.155, 126.409, 88.6548, 0, 0, 2.4643, -54.993, 2.47166, -174.229, 2.43111, 65.5809, 0.0669219, 52.891
1, 2280.00000, 124.706, -31.9191, 124.335, -151.155, 126.409, 88.6548, 0, 0, 2.4643, -54.993, 2.47166, -174.229, 2.43111, 65.5809, 0.0669219, 52.891
1, 2340.00000, 124.706, -31.9191, 124.335, -151.155, 126.409, 88.6548, 0, 0, 2.4643, -54.993, 2.47166, -174.229, 2.43111, 65.5809, 0.0669219, 52.891
1, 2400.00000, 124.706, -31.9191, 124.335, -151.155, 126.409, 88.6548, 0, 0, 2.4643, -54.993, 2.47166, -174.229, 2.43111, 65.5809, 0.0669219, 52.891
1, 2460.00000, 124.706, -31.9191, 124.335, -151.155, 126.409, 88.6548, 0, 0, 2.4643, -54.993, 2.47166, -174.229, 2.43111, 65.5809, 0.066922, 52.891
1, 2520.00000, 124.706, -31.9191, 124.335, -151.155, 126.409, 88.6548, 0, 0, 2.4643, -54.993, 2.47166, -174.229, 2.43111, 65.5809, 0.066922, 52.891
1, 2580.00000, 124.706, -31.9191, 124.335, -151.155, 126.409, 88.6548, 0, 0, 2.4643, -54.993, 2.47166, -174.229, 2.43111, 65.5809, 0.066922, 52.891
1, 2640.00000, 124.706, -31.9191, 124.335, -151.155, 126.409, 88.6548, 0, 0, 2.4643, -54.993, 2.47166, -174.229, 2.43111, 65.5809, 0.066922, 52.891
1, 2700.00000, 124.706, -31.9191, 124.335, -151.155, 126.409, 88.6548, 0, 0, 2.4643, -54.993, 2.47166, -174.229, 2.43111, 65.5809, 0.066922, 52.891
1, 2760.00000, 124.706, -31.9191, 124.335, -151.155, 126.409, 88.6548, 0, 0, 2.4643, -54.993, 2.47166, -174.229, 2.43111, 65.5809, 0.066922, 52.891
1, 2820.00000, 124.706, -31.9191, 124.335, -151.155, 126.409, 88.6548, 0, 0, 2.4643, -54.993, 2.47166, -174.229, 2.43111, 65.5809, 0.066922, 52.891
1, 2880.00000, 124.706, -31.9191, 124.335, -151.155, 126.409, 88.6548, 0, 0, 2.4643, -54.993, 2.47166, -174.229, 2.43111, 65.5809, 0.066922, 52.891
1, 2940.00000, 124.706, -31.9191, 124.335, -151.155, 126.409, 88.6548, 0, 0, 2.4643, -54.993, 2.47166, -174.229, 2.43111, 65.5809, 0.066922, 52.891
1, 3000.00000, 124.706, -31.9191, 124.335, -151.155, 126.409, 88.6548, 0, 0, 2.4643, -54.993, 2.47166, -174.229, 2.43111, 65.5809, 0.0669221, 52.891
1, 3060.00000, 124.706, -31.9191, 124.335, -151.155, 126.409, 88.6548, 0, 0, 2.4643, -54.993, 2.47166, -174.229, 2.43111, 65.5809, 0.0669221, 52.891
1, 3120.00000, 124.706, -31.9191, 124.335, -151.155, 126.409, 88.6548, 0, 0, 2.4643, -54.993, 2.47166, -174.229, 2.43111, 65.5809, 0.0669221, 52.891
1, 3180.00000, 124.706, -31.9191, 124.335, -151.155, 126.409, 88.6548, 0, 0, 2.4643, -54.993, 2.47166, -174.229, 2.43111, 65.5809, 0.0669221, 52.891
1, 3240.00000, 124.706, -31.9191, 124.335, -151.155, 126.409, 88.6548, 0, 0, 2.4643, -54.993, 2.47166, -174.229, 2.43111, 65.5809, 0.0669221, 52.891
1, 3300.00000, 124.706, -31.9191, 124.335, -151.155, 126.409, 88.6548, 0, 0, 2.4643, -54.993, 2.47166, -174.229, 2.43111, 65.5809, 0.0669221, 52.891
1, 3360.00000, 124.706, -31.9191, 124.335, -151.155, 126.409, 88.6548, 0, 0, 2.4643, -54.993, 2.47166, -174.229, 2.43111, 65.5809, 0.0669221, 52.891
1, 3420.00000, 124.706, -31.9191, 124.335, -151.155, 126.409, 88.6548, 0, 0, 2.4643, -54.993, 2.47166, -174.229, 2.43111, 65.5809, 0.0669221, 52.891
1, 3480.00000, 124.706, -31.9191, 124.335, -151.155, 126.409, 88.6548, 0, 0, 2.4643, -54.993, 2.47166, -174.229, 2.43111, 65.5809, 0.0669221, 52.891
1, 3540.00000, 124.706, -31.9191, 124.335, -151.155, 126.409, 88.6548, 0, 0, 2.4643, -54.993, 2.47166, -174.229, 2.43111, 65.5809, 0.0669221, 52.891
2, 0.00000, 124.706, -31.9191, 124.335, -151.155, 126.409, 88.6548, 0, 0, 2.4643, -54.993, 2.47166, -174.229, 2.43111, 65.5809, 0.0669221, 52.891
2, 60.00000, 124.706, -31.9191, 124.335, -151.155, 126.409, 88.6548, 0, 0, 2.4643, -54.993, 2.47166, -174.229, 2.43111, 65.5809, 0.0669221, 52.891
2, 120.00000, 124.706, -31.9191, 124.335, -151.155, 126.409, 88.6548, 0, 0, 2.4643, -54.993, 2.47166, -174.229, 2.43111, 65.5809, 0.0669221, 52.891
2, 180.00000, 124.706, -31.9191, 124.335, -151.155, 126.409, 88.6548, 0, 0, 2.4643, -54.993, 2.47166, -174.229, 2.43111, 65.5809, 0.0669221, 52.891
2, 240.00000, 124.706, -31.9191, 124.335, -151.155, 126.409, 88.6548, 0, 0, 2.4643, -54.993, 2.47166, -174.229, 2.43111, 65.5809, 0.0669221, 52.891
2, 300.00000, 124.706, -31.9191, 124.335, -151.155, 126.409, 88.6548, 0, 0, 2.4643, -54.993, 2.47166, -174.229, 2.43111, 65.5809, 0.0669221, 52.891
2, 360.00000, 124.706, -31.9191, 124.335, -151.155, 126.409, 88.6548, 0, 0, 2.4643, -54.993, 2.47166, -174.229, 2.43111, 65.5809, 0.0669221, 52.891
2, 420.00000, 124.706, -31.9191, 124.335, -151.155, 126.409, 88.6548, 0, 0, 2.4643, -54.993, 2.47166, -174.229, 2.43111, 65.5809, 0.0669221, 52.891
2, 480.00000, 124.706, -31.9191, 124.335, -151.155, 126.409, 88.6548, 0, 0, 2.4643, -54.993, 2.47166, -174.229, 2.43111, 65.5809, 0.0669221, 52.891
2, 540.00000, 124.706, -31.9191, 124.335, -151.155, 126.409, 88.6548, 0, 0, 2.4643, -54.993, 2.47166, -174.229, 2.43111, 65.5809, 0.0669221, 52.891
2, 600.00000, 124.706, -31.9191, 124.335, -151.155, 126.409, 88.6548, 0, 0, 2.4643, -54.993, 2.47166, -174.229, 2.43111, 65.5809, 0.0669221, 52.891
2, 660.00000, 124.706, -31.9191, 124.335, -151.155, 126.409, 88.6548, 0, 0, 2.4643, -54.993, 2.47166, -174.229, 2.43111, 65.5809, 0.0669221, 52.891
2, 720.00000, 124.706, -31.9191, 124.335, -151.155, 126.409, 88.6548, 0, 0, 2.4643, -54.993, 2.47166, -174.229, 2.43111, 65.5809, 0.0669221, 52.891
2, 780.00000, 124.706, -31.9191, 124.335, -151.155, 126.409, 88.6548, 0, 0, 2.4643, -54.993, 2.47166, -174.229, 2.43111, 65.5809, 0.0669221, 52.891
