hour,t(sec),"P1 (kW)","Q1 (kvar)","P2 (kW)","Q2 (kvar)","P3 (kW)","Q3 (kvar)","P4 (kW)","Q4 (kvar)"
0, 60.00000, 0.474089, 0.20196, 0.494247, 0.210539, 0.512526, 0.218299, 0, 0
0, 120.00000, 0.47388, 0.20187, 0.494243, 0.210538, 0.512522, 0.2183, 0, 0
0, 180.00000, 0.47369, 0.20179, 0.49424, 0.210538, 0.512519, 0.218302, 0, 0
0, 240.00000, 0.473519, 0.201717, 0.494236, 0.210537, 0.512516, 0.218304, 0, 0
0, 300.00000, 0.473364, 0.201651, 0.494234, 0.210537, 0.512514, 0.218305, 0, 0
0, 360.00000, 0.473225, 0.201592, 0.494231, 0.210536, 0.512512, 0.218306, 0, 0
0, 420.00000, 0.473099, 0.201538, 0.494229, 0.210536, 0.51251, 0.218308, 0, 0
0, 480.00000, 0.472985, 0.20149, 0.494227, 0.210535, 0.512508, 0.218309, 0, 0
0, 540.00000, 0.472882, 0.201446, 0.494225, 0.210535, 0.512506, 0.21831, 0, 0
0, 600.00000, 0.47279, 0.201407, 0.494223, 0.210535, 0.512505, 0.218311, 0, 0
0, 660.00000, 0.472706, 0.201371, 0.494222, 0.210534, 0.512503, 0.218312, 0, 0
0, 720.00000, 0.472631, 0.201339, 0.49422, 0.210534, 0.512502, 0.218313, 0, 0
0, 780.00000, 0.472563, 0.20131, 0.494219, 0.210534, 0.512501, 0.218313, 0, 0
0, 840.00000, 0.472502, 0.201284, 0.494218, 0.210534, 0.5125, 0.218314, 0, 0
0, 900.00000, 0.472447, 0.201261, 0.494217, 0.210533, 0.512499, 0.218315, 0, 0
0, 960.00000, 0.498279, 0.212265, 0.520444, 0.221706, 0.542157, 0.230949, 0, 0
0, 1020.00000, 0.498232, 0.212245, 0.520443, 0.221706, 0.542156, 0.23095, 0, 0
0, 1080.00000, 0.498189, 0.212227, 0.520442, 0.221706, 0.542156, 0.23095, 0, 0
0, 1140.00000, 0.498151, 0.212211, 0.520442, 0.221706, 0.542155, 0.230951, 0, 0
0, 1200.00000, 0.498116, 0.212196, 0.520441, 0.221706, 0.542154, 0.230951, 0, 0
0, 1260.00000, 0.498085, 0.212183, 0.520441, 0.221706, 0.542154, 0.230951, 0, 0
0, 1320.00000, 0.498058, 0.212171, 0.52044, 0.221705, 0.542153, 0.230952, 0, 0
0, 1380.00000, 0.498032, 0.212161, 0.52044, 0.221705, 0.542153, 0.230952, 0, 0
0, 1440.00000, 0.49801, 0.212151, 0.520439, 0.221705, 0.542153, 0.230952, 0, 0
0, 1500.00000, 0.497989, 0.212142, 0.520439, 0.221705, 0.542152, 0.230953, 0, 0
0, 1560.00000, 0.497971, 0.212135, 0.520439, 0.221705, 0.542152, 0.230953, 0, 0
0, 1620.00000, 0.497955, 0.212128, 0.520438, 0.221705, 0.542152, 0.230953, 0, 0
0, 1680.00000, 0.49794, 0.212121, 0.520438, 0.221705, 0.542152, 0.230953, 0, 0
0, 1740.00000, 0.497926, 0.212116, 0.520438, 0.221705, 0.542151, 0.230953, 0, 0
0, 1800.00000, 0.497914, 0.21211, 0.520438, 0.221705, 0.542151, 0.230953, 0, 0
0, 1860.00000, 0.501197, 0.213509, 0.523855, 0.223161, 0.543798, 0.231655, 0, 0
0, 1920.00000, 0.501187, 0.213505, 0.523855, 0.223161, 0.543797, 0.231655, 0, 0
0, 1980.00000, 0.501178, 0.213501, 0.523854, 0.223161, 0.543797, 0.231655, 0, 0
0, 2040.00000, 0.50117, 0.213498, 0.523854, 0.223161, 0.543797, 0.231655, 0, 0
0, 2100.00000, 0.501163, 0.213495, 0.523854, 0.223161, 0.543797, 0.231655, 0, 0
0, 2160.00000, 0.501157, 0.213492, 0.523854, 0.223161, 0.543797, 0.231655, 0, 0
0, 2220.00000, 0.501151, 0.213489, 0.523854, 0.223161, 0.543797, 0.231655, 0, 0
0, 2280.00000, 0.501146, 0.213487, 0.523854, 0.223161, 0.543797, 0.231656, 0, 0
0, 2340.00000, 0.501141, 0.213485, 0.523854, 0.223161, 0.543797, 0.231656, 0, 0
0, 2400.00000, 0.501137, 0.213483, 0.523854, 0.223161, 0.543797, 0.231656, 0, 0
0, 2460.00000, 0.501133, 0.213482, 0.523854, 0.223161, 0.543796, 0.231656, 0, 0
0, 2520.00000, 0.50113, 0.21348, 0.523854, 0.223161, 0.543796, 0.231656, 0, 0
0, 2580.00000, 0.501126, 0.213479, 0.523854, 0.223161, 0.543796, 0.231656, 0, 0
0, 2640.00000, 0.501124, 0.213478, 0.523853, 0.223161, 0.543796, 0.231656, 0, 0
0, 2700.00000, 0.501121, 0.213477, 0.523853, 0.223161, 0.543796, 0.231656, 0, 0
0, 2760.00000, 0.47932, 0.204189, 0.50101, 0.213429, 0.517229, 0.220338, 0, 0
0, 2820.00000, 0.479318, 0.204188, 0.50101, 0.213429, 0.517228, 0.220338, 0, 0
0, 2880.00000, 0.479316, 0.204188, 0.50101, 0.213429, 0.517228, 0.220338, 0, 0
0, 2940.00000, 0.479314, 0.204187, 0.50101, 0.213429, 0.517228, 0.220338, 0, 0
0, 3000.00000, 0.479313, 0.204186, 0.50101, 0.213429, 0.517228, 0.220338, 0, 0
0, 3060.00000, 0.479312, 0.204186, 0.50101, 0.213429, 0.517228, 0.220338, 0, 0
0, 3120.00000, 0.47931, 0.204185, 0.50101, 0.213429, 0.517228, 0.220338, 0, 0
0, 3180.00000, 0.479309, 0.204185, 0.50101, 0.213429, 0.517228, 0.220338, 0, 0
0, 3240.00000, 0.479308, 0.204185, 0.50101, 0.213429, 0.517228, 0.220338, 0, 0
0, 3300.00000, 0.479308, 0.204184, 0.50101, 0.213429, 0.517228, 0.220338, 0, 0
0, 3360.00000, 0.479307, 0.204184, 0.50101, 0.213429, 0.517228, 0.220338, 0, 0
0, 3420.00000, 0.479306, 0.204184, 0.50101, 0.213429, 0.517228, 0.220338, 0, 0
0, 3480.00000, 0.480386, 0.204644, 0.503993, 0.2147, 0.517228, 0.220338, 0, 0
0, 3540.00000, 0.480247, 0.204584, 0.504696, 0.214999, 0.517229, 0.220338, 0, 0
1, 0.00000, 0.480246, 0.204584, 0.504696, 0.215, 0.517228, 0.220338, 0, 0
1, 60.00000, 0.476556, 0.203012, 0.500812, 0.213345, 0.511182, 0.217763, 0, 0
1, 120.00000, 0.476555, 0.203012, 0.500812, 0.213345, 0.511182, 0.217762, 0, 0
1, 180.00000, 0.476555, 0.203012, 0.500812, 0.213345, 0.511182, 0.217762, 0, 0
1, 240.00000, 0.476555, 0.203011, 0.500812, 0.213345, 0.511182, 0.217762, 0, 0
1, 300.00000, 0.476554, 0.203011, 0.500812, 0.213345, 0.511182, 0.217762, 0, 0
1, 360.00000, 0.476554, 0.203011, 0.500812, 0.213345, 0.511182, 0.217762, 0, 0
1, 420.00000, 0.476554, 0.203011, 0.500812, 0.213345, 0.511182, 0.217762, 0, 0
1, 480.00000, 0.476554, 0.203011, 0.500812, 0.213345, 0.511182, 0.217762, 0, 0
1, 540.00000, 0.476553, 0.203011, 0.500812, 0.213345, 0.511181, 0.217762, 0, 0
1, 600.00000, 0.486017, 0.207043, 0.500786, 0.213334, 0.511182, 0.217763, 0, 0
1, 660.00000, 0.486017, 0.207042, 0.500786, 0.213334, 0.511181, 0.217762, 0, 0
1, 720.00000, 0.486017, 0.207042, 0.500786, 0.213334, 0.511181, 0.217762, 0, 0
1, 780.00000, 0.486017, 0.207042, 0.500786, 0.213334, 0.511181, 0.217762, 0, 0
1, 840.00000, 0.486017, 0.207042, 0.500786, 0.213334, 0.511181, 0.217762, 0, 0
1, 900.00000, 0.486017, 0.207042, 0.500786, 0.213334, 0.511181, 0.217762, 0, 0
1, 960.00000, 0.484192, 0.206265, 0.498883, 0.212523, 0.508789, 0.216743, 0, 0
1, 1020.00000, 0.484191, 0.206265, 0.498883, 0.212523, 0.508789, 0.216743, 0, 0
1, 1080.00000, 0.484191, 0.206264, 0.498883, 0.212523, 0.508789, 0.216743, 0, 0
1, 1140.00000, 0.484191, 0.206264, 0.498883, 0.212523, 0.508789, 0.216743, 0, 0
1, 1200.00000, 0.484191, 0.206264, 0.498883, 0.212523, 0.508789, 0.216743, 0, 0
1, 1260.00000, 0.484191, 0.206264, 0.498883, 0.212523, 0.508789, 0.216743, 0, 0
1, 1320.00000, 0.484191, 0.206264, 0.498883, 0.212523, 0.508789, 0.216743, 0, 0
1, 1380.00000, 0.484191, 0.206264, 0.498883, 0.212523, 0.508789, 0.216743, 0, 0
1, 1440.00000, 0.484191, 0.206264, 0.498883, 0.212523, 0.508789, 0.216743, 0, 0
1, 1500.00000, 0.484191, 0.206264, 0.498883, 0.212523, 0.508789, 0.216743, 0, 0
1, 1560.00000, 0.484191, 0.206264, 0.498883, 0.212523, 0.508789, 0.216743, 0, 0
1, 1620.00000, 0.484191, 0.206264, 0.498883, 0.212523, 0.508789, 0.216743, 0, 0
1, 1680.00000, 0.484191, 0.206264, 0.498883, 0.212523, 0.508789, 0.216743, 0, 0
1, 1740.00000, 0.484191, 0.206264, 0.498883, 0.212523, 0.508789, 0.216743, 0, 0
1, 1800.00000, 0.484191, 0.206264, 0.498883, 0.212523, 0.508789, 0.216743, 0, 0
1, 1860.00000, 0.49722, 0.211815, 0.514258, 0.219073, 0.521059, 0.22197, 0, 0
1, 1920.00000, 0.497221, 0.211815, 0.514258, 0.219073, 0.52106, 0.22197, 0, 0
1, 1980.00000, 0.497221, 0.211815, 0.514258, 0.219073, 0.52106, 0.22197, 0, 0
1, 2040.00000, 0.497221, 0.211815, 0.514258, 0.219073, 0.52106, 0.22197, 0, 0
1, 2100.00000, 0.497221, 0.211815, 0.514258, 0.219073, 0.52106, 0.22197, 0, 0
1, 2160.00000, 0.497221, 0.211815, 0.514258, 0.219073, 0.52106, 0.22197, 0, 0
1, 2220.00000, 0.497221, 0.211815, 0.514258, 0.219073, 0.52106, 0.22197, 0, 0
1, 2280.00000, 0.497221, 0.211815, 0.514258, 0.219073, 0.52106, 0.22197, 0, 0
1, 2340.00000, 0.497221, 0.211815, 0.514258, 0.219073, 0.52106, 0.22197, 0, 0
1, 2400.00000, 0.497221, 0.211815, 0.514258, 0.219073, 0.52106, 0.22197, 0, 0
1, 2460.00000, 0.497221, 0.211815, 0.514258, 0.219073, 0.52106, 0.22197, 0, 0
1, 2520.00000, 0.497221, 0.211815, 0.514258, 0.219073, 0.52106, 0.22197, 0, 0
1, 2580.00000, 0.497221, 0.211815, 0.514258, 0.219073, 0.52106, 0.22197, 0, 0
1, 2640.00000, 0.497221, 0.211815, 0.514258, 0.219073, 0.52106, 0.22197, 0, 0
1, 2700.00000, 0.497221, 0.211815, 0.514258, 0.219073, 0.52106, 0.22197, 0, 0
1, 2760.00000, 0.47248, 0.201276, 0.488459, 0.208083, 0.490996, 0.209163, 0, 0
1, 2820.00000, 0.47248, 0.201276, 0.488459, 0.208083, 0.490996, 0.209163, 0, 0
1, 2880.00000, 0.47248, 0.201276, 0.488459, 0.208083, 0.490996, 0.209163, 0, 0
1, 2940.00000, 0.47248, 0.201276, 0.488459, 0.208083, 0.490996, 0.209163, 0, 0
1, 3000.00000, 0.47248, 0.201276, 0.488459, 0.208083, 0.490996, 0.209163, 0, 0
1, 3060.00000, 0.47248, 0.201276, 0.488459, 0.208083, 0.490996, 0.209163, 0, 0
1, 3120.00000, 0.47248, 0.201276, 0.488459, 0.208083, 0.490996, 0.209163, 0, 0
1, 3180.00000, 0.47248, 0.201276, 0.488459, 0.208083, 0.490996, 0.209163, 0, 0
1, 3240.00000, 0.47248, 0.201276, 0.488459, 0.208083, 0.490996, 0.209163, 0, 0
1, 3300.00000, 0.47248, 0.201276, 0.488459, 0.208083, 0.490996, 0.209163, 0, 0
1, 3360.00000, 0.47248, 0.201276, 0.488459, 0.208083, 0.490996, 0.209163, 0, 0
1, 3420.00000, 0.47248, 0.201276, 0.488459, 0.208083, 0.490996, 0.209163, 0, 0
1, 3480.00000, 0.47248, 0.201276, 0.488459, 0.208083, 0.490996, 0.209163, 0, 0
1, 3540.00000, 0.47248, 0.201276, 0.488459, 0.208083, 0.490996, 0.209163, 0, 0
2, 0.00000, 0.47248, 0.201276, 0.488459, 0.208083, 0.490996, 0.209163, 0, 0
2, 60.00000, 0.482935, 0.205729, 0.499377, 0.212734, 0.504171, 0.214776, 0, 0
2, 120.00000, 0.482935, 0.205729, 0.499377, 0.212734, 0.504172, 0.214776, 0, 0
2, 180.00000, 0.482935, 0.205729, 0.499377, 0.212734, 0.504172, 0.214776, 0, 0
2, 240.00000, 0.482935, 0.205729, 0.499377, 0.212734, 0.504172, 0.214776, 0, 0
2, 300.00000, 0.482821, 0.205681, 0.500363, 0.213154, 0.504173, 0.214777, 0, 0
2, 360.00000, 0.48282, 0.20568, 0.500363, 0.213154, 0.504172, 0.214776, 0, 0
2, 420.00000, 0.48282, 0.20568, 0.500363, 0.213154, 0.504172, 0.214776, 0, 0
2, 480.00000, 0.48282, 0.20568, 0.500363, 0.213154, 0.504172, 0.214776, 0, 0
2, 540.00000, 0.48282, 0.20568, 0.500363, 0.213154, 0.504172, 0.214776, 0, 0
2, 600.00000, 0.48282, 0.20568, 0.500363, 0.213154, 0.504172, 0.214776, 0, 0
2, 660.00000, 0.48282, 0.20568, 0.500363, 0.213154, 0.504172, 0.214776, 0, 0
2, 720.00000, 0.48282, 0.20568, 0.500363, 0.213154, 0.504172, 0.214776, 0, 0
2, 780.00000, 0.48282, 0.20568, 0.500363, 0.213154, 0.504172, 0.214776, 0, 0
2, 840.00000, 0.48282, 0.20568, 0.500363, 0.213154, 0.504172, 0.214776, 0, 0
2, 900.00000, 0.48282, 0.20568, 0.500363, 0.213154, 0.504172, 0.214776, 0, 0
2, 960.00000, 0.460209, 0.196048, 0.476792, 0.203112, 0.477706, 0.203502, 0, 0
2, 1020.00000, 0.460208, 0.196048, 0.476792, 0.203113, 0.477706, 0.203502, 0, 0
2, 1080.00000, 0.460208, 0.196048, 0.476792, 0.203113, 0.477706, 0.203502, 0, 0
2, 1140.00000, 0.460208, 0.196048, 0.476792, 0.203113, 0.477706, 0.203502, 0, 0
2, 1200.00000, 0.460208, 0.196048, 0.476792, 0.203113, 0.477706, 0.203502, 0, 0
2, 1260.00000, 0.460208, 0.196048, 0.476792, 0.203113, 0.477706, 0.203502, 0, 0
2, 1320.00000, 0.460208, 0.196048, 0.476792, 0.203113, 0.477706, 0.203502, 0, 0
2, 1380.00000, 0.460208, 0.196048, 0.476792, 0.203113, 0.477706, 0.203502, 0, 0
2, 1440.00000, 0.460208, 0.196048, 0.476792, 0.203113, 0.477706, 0.203502, 0, 0
2, 1500.00000, 0.460208, 0.196048, 0.476792, 0.203113, 0.477706, 0.203502, 0, 0
2, 1560.00000, 0.460208, 0.196048, 0.476792, 0.203113, 0.477706, 0.203502, 0, 0
2, 1620.00000, 0.460208, 0.196048, 0.476792, 0.203113, 0.477706, 0.203502, 0, 0
2, 1680.00000, 0.460208, 0.196048, 0.476792, 0.203113, 0.477706, 0.203502, 0, 0
2, 1740.00000, 0.460208, 0.196048, 0.476792, 0.203113, 0.477706, 0.203502, 0, 0
2, 1800.00000, 0.460208, 0.196048, 0.476792, 0.203113, 0.477706, 0.203502, 0, 0
2, 1860.00000, 0.458821, 0.195457, 0.475408, 0.202523, 0.477445, 0.203391, 0, 0
2, 1920.00000, 0.458821, 0.195457, 0.475408, 0.202523, 0.477445, 0.203391, 0, 0
2, 1980.00000, 0.458821, 0.195457, 0.475408, 0.202523, 0.477445, 0.203391, 0, 0
2, 2040.00000, 0.458821, 0.195457, 0.475408, 0.202523, 0.477445, 0.203391, 0, 0
2, 2100.00000, 0.458821, 0.195457, 0.475408, 0.202523, 0.477445, 0.203391, 0, 0
2, 2160.00000, 0.458821, 0.195457, 0.475408, 0.202523, 0.477445, 0.203391, 0, 0
2, 2220.00000, 0.458821, 0.195457, 0.475408, 0.202523, 0.477445, 0.203391, 0, 0
2, 2280.00000, 0.458821, 0.195457, 0.475408, 0.202523, 0.477445, 0.203391, 0, 0
2, 2340.00000, 0.458821, 0.195457, 0.475408, 0.202523, 0.477445, 0.203391, 0, 0
2, 2400.00000, 0.458821, 0.195457, 0.475408, 0.202523, 0.477445, 0.203391, 0, 0
2, 2460.00000, 0.458821, 0.195457, 0.475408, 0.202523, 0.477445, 0.203391, 0, 0
2, 2520.00000, 0.458821, 0.195457, 0.475408, 0.202523, 0.477445, 0.203391, 0, 0
2, 2580.00000, 0.458821, 0.195457, 0.475408, 0.202523, 0.477445, 0.203391, 0, 0
2, 2640.00000, 0.458821, 0.195457, 0.475408, 0.202523, 0.477445, 0.203391, 0, 0
2, 2700.00000, 0.458821, 0.195457, 0.475408, 0.202523, 0.477445, 0.203391, 0, 0
2, 2760.00000, 0.441891, 0.188245, 0.4568, 0.194596, 0.456801, 0.194596, 0, 0
2, 2820.00000, 0.441891, 0.188245, 0.4568, 0.194596, 0.4568, 0.194596, 0, 0
2, 2880.00000, 0.441891, 0.188245, 0.4568, 0.194596, 0.4568, 0.194596, 0, 0
2, 2940.00000, 0.441891, 0.188245, 0.4568, 0.194596, 0.4568, 0.194596, 0, 0
2, 3000.00000, 0.441891, 0.188245, 0.4568, 0.194596, 0.4568, 0.194596, 0, 0
2, 3060.00000, 0.441891, 0.188245, 0.4568, 0.194596, 0.4568, 0.194596, 0, 0
2, 3120.00000, 0.441891, 0.188245, 0.4568, 0.194596, 0.4568, 0.194596, 0, 0
2, 3180.00000, 0.441891, 0.188245, 0.4568, 0.194596, 0.4568, 0.194596, 0, 0
2, 3240.00000, 0.441891, 0.188245, 0.4568, 0.194596, 0.4568, 0.194596, 0, 0
2, 3300.00000, 0.441891, 0.188245, 0.4568, 0.194596, 0.4568, 0.194596, 0, 0
2, 3360.00000, 0.441891, 0.188245, 0.4568, 0.194596, 0.4568, 0.194596, 0, 0
2, 3420.00000, 0.441891, 0.188245, 0.4568, 0.194596, 0.4568, 0.194596, 0, 0
2, 3480.00000, 0.441891, 0.188245, 0.4568, 0.194596, 0.4568, 0.194596, 0, 0
2, 3540.00000, 0.441891, 0.188245, 0.4568, 0.194596, 0.4568, 0.194596, 0, 0
3, 0.00000, 0.441891, 0.188245, 0.4568, 0.194596, 0.4568, 0.194596, 0, 0
3, 60.00000, 0.451555, 0.192362, 0.467811, 0.199287, 0.468415, 0.199544, 0, 0
3, 120.00000, 0.451556, 0.192362, 0.467811, 0.199287, 0.468416, 0.199544, 0, 0
3, 180.00000, 0.451556, 0.192362, 0.467811, 0.199287, 0.468416, 0.199544, 0, 0
3, 240.00000, 0.451556, 0.192362, 0.467811, 0.199287, 0.468416, 0.199544, 0, 0
3, 300.00000, 0.451556, 0.192362, 0.467811, 0.199287, 0.468416, 0.199544, 0, 0
3, 360.00000, 0.451556, 0.192362, 0.467811, 0.199287, 0.468416, 0.199544, 0, 0
3, 420.00000, 0.451556, 0.192362, 0.467811, 0.199287, 0.468416, 0.199544, 0, 0
3, 480.00000, 0.451556, 0.192362, 0.467811, 0.199287, 0.468416, 0.199544, 0, 0
3, 540.00000, 0.451556, 0.192362, 0.467811, 0.199287, 0.468416, 0.199544, 0, 0
3, 600.00000, 0.451556, 0.192362, 0.467811, 0.199287, 0.468416, 0.199544, 0, 0
3, 660.00000, 0.451556, 0.192362, 0.467811, 0.199287, 0.468416, 0.199544, 0, 0
3, 720.00000, 0.451556, 0.192362, 0.467811, 0.199287, 0.468416, 0.199544, 0, 0
3, 780.00000, 0.451556, 0.192362, 0.467811, 0.199287, 0.468416, 0.199544, 0, 0
3, 840.00000, 0.451556, 0.192362, 0.467811, 0.199287, 0.468416, 0.199544, 0, 0
3, 900.00000, 0.451556, 0.192362, 0.467811, 0.199287, 0.468416, 0.199544, 0, 0
3, 960.00000, 0.464496, 0.197874, 0.481185, 0.204984, 0.481287, 0.205027, 0, 0
3, 1020.00000, 0.464495, 0.197874, 0.481186, 0.204984, 0.481286, 0.205027, 0, 0
3, 1080.00000, 0.464495, 0.197874, 0.481186, 0.204984, 0.481286, 0.205027, 0, 0
3, 1140.00000, 0.464495, 0.197874, 0.481186, 0.204984, 0.481286, 0.205027, 0, 0
3, 1200.00000, 0.464495, 0.197874, 0.481186, 0.204984, 0.481286, 0.205027, 0, 0
3, 1260.00000, 0.464495, 0.197874, 0.481186, 0.204984, 0.481286, 0.205027, 0, 0
3, 1320.00000, 0.464495, 0.197874, 0.481186, 0.204984, 0.481286, 0.205027, 0, 0
3, 1380.00000, 0.464495, 0.197874, 0.481186, 0.204984, 0.481286, 0.205027, 0, 0
3, 1440.00000, 0.464495, 0.197874, 0.481186, 0.204984, 0.481286, 0.205027, 0, 0
3, 1500.00000, 0.464495, 0.197874, 0.481186, 0.204984, 0.481286, 0.205027, 0, 0
3, 1560.00000, 0.464495, 0.197874, 0.481186, 0.204984, 0.481286, 0.205027, 0, 0
3, 1620.00000, 0.464495, 0.197874, 0.481186, 0.204984, 0.481286, 0.205027, 0, 0
3, 1680.00000, 0.464495, 0.197874, 0.481186, 0.204984, 0.481286, 0.205027, 0, 0
3, 1740.00000, 0.464495, 0.197874, 0.481186, 0.204984, 0.481286, 0.205027, 0, 0
3, 1800.00000, 0.464495, 0.197874, 0.481186, 0.204984, 0.481286, 0.205027, 0, 0
3, 1860.00000, 0.47021, 0.200308, 0.487105, 0.207506, 0.487172, 0.207534, 0, 0
3, 1920.00000, 0.47021, 0.200308, 0.487106, 0.207506, 0.487171, 0.207534, 0, 0
3, 1980.00000, 0.47021, 0.200308, 0.487106, 0.207506, 0.487171, 0.207534, 0, 0
3, 2040.00000, 0.47021, 0.200308, 0.487106, 0.207506, 0.487171, 0.207534, 0, 0
3, 2100.00000, 0.47021, 0.200308, 0.487106, 0.207506, 0.487171, 0.207534, 0, 0
3, 2160.00000, 0.47021, 0.200308, 0.487106, 0.207506, 0.487171, 0.207534, 0, 0
3, 2220.00000, 0.47021, 0.200308, 0.487106, 0.207506, 0.487171, 0.207534, 0, 0
3, 2280.00000, 0.47021, 0.200308, 0.487106, 0.207506, 0.487171, 0.207534, 0, 0
3, 2340.00000, 0.47021, 0.200308, 0.487106, 0.207506, 0.487171, 0.207534, 0, 0
3, 2400.00000, 0.47021, 0.200308, 0.487106, 0.207506, 0.487171, 0.207534, 0, 0
3, 2460.00000, 0.47021, 0.200308, 0.487106, 0.207506, 0.487171, 0.207534, 0, 0
3, 2520.00000, 0.47021, 0.200308, 0.487106, 0.207506, 0.487171, 0.207534, 0, 0
3, 2580.00000, 0.47021, 0.200308, 0.487106, 0.207506, 0.487171, 0.207534, 0, 0
3, 2640.00000, 0.47021, 0.200308, 0.487106, 0.207506, 0.487171, 0.207534, 0, 0
3, 2700.00000, 0.47021, 0.200308, 0.487106, 0.207506, 0.487171, 0.207534, 0, 0
3, 2760.00000, 0.433141, 0.184517, 0.445798, 0.189909, 0.445798, 0.189909, 0, 0
3, 2820.00000, 0.43314, 0.184517, 0.445798, 0.189909, 0.445798, 0.189909, 0, 0
3, 2880.00000, 0.43314, 0.184517, 0.445798, 0.189909, 0.445798, 0.189909, 0, 0
3, 2940.00000, 0.43314, 0.184517, 0.445798, 0.189909, 0.445798, 0.189909, 0, 0
3, 3000.00000, 0.43314, 0.184517, 0.445798, 0.189909, 0.445798, 0.189909, 0, 0
3, 3060.00000, 0.43314, 0.184517, 0.445798, 0.189909, 0.445798, 0.189909, 0, 0
3, 3120.00000, 0.43314, 0.184517, 0.445798, 0.189909, 0.445798, 0.189909, 0, 0
3, 3180.00000, 0.43314, 0.184517, 0.445798, 0.189909, 0.445798, 0.189909, 0, 0
3, 3240.00000, 0.43314, 0.184517, 0.445798, 0.189909, 0.445798, 0.189909, 0, 0
3, 3300.00000, 0.43314, 0.184517, 0.445798, 0.189909, 0.445798, 0.189909, 0, 0
3, 3360.00000, 0.43314, 0.184517, 0.445798, 0.189909, 0.445798, 0.189909, 0, 0
3, 3420.00000, 0.43314, 0.184517, 0.445798, 0.189909, 0.445798, 0.189909, 0, 0
3, 3480.00000, 0.43314, 0.184517, 0.445798, 0.189909, 0.445798, 0.189909, 0, 0
3, 3540.00000, 0.43314, 0.184517, 0.445798, 0.189909, 0.445798, 0.189909, 0, 0
4, 0.00000, 0.43314, 0.184517, 0.445798, 0.189909, 0.445798, 0.189909, 0, 0
4, 60.00000, 0.461333, 0.196527, 0.476901, 0.203159, 0.476901, 0.203159, 0, 0
4, 120.00000, 0.461333, 0.196527, 0.476901, 0.203159, 0.476901, 0.203159, 0, 0
4, 180.00000, 0.461333, 0.196527, 0.476901, 0.203159, 0.476901, 0.203159, 0, 0
4, 240.00000, 0.461333, 0.196527, 0.476901, 0.203159, 0.476901, 0.203159, 0, 0
4, 300.00000, 0.461333, 0.196527, 0.476901, 0.203159, 0.476901, 0.203159, 0, 0
4, 360.00000, 0.461333, 0.196527, 0.476901, 0.203159, 0.476901, 0.203159, 0, 0
4, 420.00000, 0.461333, 0.196527, 0.476901, 0.203159, 0.476901, 0.203159, 0, 0
4, 480.00000, 0.461333, 0.196527, 0.476901, 0.203159, 0.476901, 0.203159, 0, 0
4, 540.00000, 0.461333, 0.196527, 0.476901, 0.203159, 0.476901, 0.203159, 0, 0
4, 600.00000, 0.461333, 0.196527, 0.476901, 0.203159, 0.476901, 0.203159, 0, 0
4, 660.00000, 0.461333, 0.196527, 0.476901, 0.203159, 0.476901, 0.203159, 0, 0
4, 720.00000, 0.461333, 0.196527, 0.476901, 0.203159, 0.476901, 0.203159, 0, 0
