hour,t(sec),"P1 (kW)","Q1 (kvar)","P2 (kW)","Q2 (kvar)","P3 (kW)","Q3 (kvar)","P4 (kW)","Q4 (kvar)"
0, 60.00000, 0.473141, 0.201553, 0.473955, 0.201904, 0.488227, 0.207979, 0, 0
0, 120.00000, 0.473135, 0.201555, 0.473948, 0.201901, 0.488206, 0.207975, 0, 0
0, 180.00000, 0.473135, 0.201555, 0.473948, 0.201901, 0.488205, 0.207975, 0, 0
0, 240.00000, 0.473135, 0.201555, 0.473948, 0.201901, 0.488205, 0.207975, 0, 0
0, 300.00000, 0.473135, 0.201555, 0.473948, 0.201901, 0.488205, 0.207975, 0, 0
0, 360.00000, 0.473135, 0.201555, 0.473948, 0.201901, 0.488205, 0.207975, 0, 0
0, 420.00000, 0.473135, 0.201555, 0.473948, 0.201901, 0.488205, 0.207975, 0, 0
0, 480.00000, 0.473135, 0.201555, 0.473948, 0.201901, 0.488205, 0.207975, 0, 0
0, 540.00000, 0.473135, 0.201555, 0.473948, 0.201901, 0.488205, 0.207975, 0, 0
0, 600.00000, 0.473135, 0.201555, 0.473948, 0.201901, 0.488205, 0.207975, 0, 0
0, 660.00000, 0.473135, 0.201555, 0.473948, 0.201901, 0.488205, 0.207975, 0, 0
0, 720.00000, 0.473135, 0.201555, 0.473948, 0.201901, 0.488205, 0.207975, 0, 0
0, 780.00000, 0.473135, 0.201555, 0.473948, 0.201901, 0.488205, 0.207975, 0, 0
0, 840.00000, 0.473135, 0.201555, 0.473948, 0.201901, 0.488205, 0.207975, 0, 0
0, 900.00000, 0.473135, 0.201555, 0.473948, 0.201901, 0.488205, 0.207975, 0, 0
0, 960.00000, 0.461193, 0.196466, 0.462054, 0.196834, 0.475991, 0.202771, 0, 0
0, 1020.00000, 0.461191, 0.196466, 0.462052, 0.196833, 0.475988, 0.20277, 0, 0
0, 1080.00000, 0.461191, 0.196466, 0.462052, 0.196833, 0.475988, 0.20277, 0, 0
0, 1140.00000, 0.461191, 0.196466, 0.462052, 0.196833, 0.475988, 0.20277, 0, 0
0, 1200.00000, 0.461191, 0.196466, 0.462052, 0.196833, 0.475988, 0.20277, 0, 0
0, 1260.00000, 0.461191, 0.196466, 0.462052, 0.196833, 0.475988, 0.20277, 0, 0
0, 1320.00000, 0.461191, 0.196466, 0.462052, 0.196833, 0.475988, 0.20277, 0, 0
0, 1380.00000, 0.461191, 0.196466, 0.462052, 0.196833, 0.475988, 0.20277, 0, 0
0, 1440.00000, 0.461191, 0.196466, 0.462052, 0.196833, 0.475988, 0.20277, 0, 0
0, 1500.00000, 0.461191, 0.196466, 0.462052, 0.196833, 0.475988, 0.20277, 0, 0
0, 1560.00000, 0.461191, 0.196466, 0.462052, 0.196833, 0.475988, 0.20277, 0, 0
0, 1620.00000, 0.461191, 0.196466, 0.462052, 0.196833, 0.475988, 0.20277, 0, 0
0, 1680.00000, 0.461191, 0.196466, 0.462052, 0.196833, 0.475988, 0.20277, 0, 0
0, 1740.00000, 0.461191, 0.196466, 0.462052, 0.196833, 0.475988, 0.20277, 0, 0
0, 1800.00000, 0.461191, 0.196466, 0.462052, 0.196833, 0.475988, 0.20277, 0, 0
0, 1860.00000, 0.437811, 0.186518, 0.438562, 0.186832, 0.451742, 0.192449, 0, 0
0, 1920.00000, 0.437835, 0.186517, 0.438586, 0.186837, 0.451778, 0.192457, 0, 0
0, 1980.00000, 0.437835, 0.186517, 0.438586, 0.186837, 0.451778, 0.192457, 0, 0
0, 2040.00000, 0.437835, 0.186517, 0.438586, 0.186837, 0.451778, 0.192457, 0, 0
0, 2100.00000, 0.437835, 0.186517, 0.438586, 0.186837, 0.451778, 0.192457, 0, 0
0, 2160.00000, 0.437835, 0.186517, 0.438586, 0.186837, 0.451778, 0.192457, 0, 0
0, 2220.00000, 0.437835, 0.186517, 0.438586, 0.186837, 0.451778, 0.192457, 0, 0
0, 2280.00000, 0.437835, 0.186517, 0.438586, 0.186837, 0.451778, 0.192457, 0, 0
0, 2340.00000, 0.437835, 0.186517, 0.438586, 0.186837, 0.451778, 0.192457, 0, 0
0, 2400.00000, 0.437835, 0.186517, 0.438586, 0.186837, 0.451778, 0.192457, 0, 0
0, 2460.00000, 0.437835, 0.186517, 0.438586, 0.186837, 0.451778, 0.192457, 0, 0
0, 2520.00000, 0.437835, 0.186517, 0.438586, 0.186837, 0.451778, 0.192457, 0, 0
0, 2580.00000, 0.437835, 0.186517, 0.438586, 0.186837, 0.451778, 0.192457, 0, 0
0, 2640.00000, 0.437835, 0.186517, 0.438586, 0.186837, 0.451778, 0.192457, 0, 0
0, 2700.00000, 0.437835, 0.186517, 0.438586, 0.186837, 0.451778, 0.192457, 0, 0
0, 2760.00000, 0.431231, 0.183706, 0.431865, 0.183973, 0.444839, 0.189503, 0, 0
0, 2820.00000, 0.431234, 0.183705, 0.431867, 0.183975, 0.444849, 0.189505, 0, 0
0, 2880.00000, 0.431234, 0.183705, 0.431867, 0.183975, 0.444849, 0.189505, 0, 0
0, 2940.00000, 0.431234, 0.183705, 0.431867, 0.183975, 0.444849, 0.189505, 0, 0
0, 3000.00000, 0.431234, 0.183705, 0.431867, 0.183975, 0.444849, 0.189505, 0, 0
0, 3060.00000, 0.431234, 0.183705, 0.431867, 0.183975, 0.444849, 0.189505, 0, 0
0, 3120.00000, 0.431234, 0.183705, 0.431867, 0.183975, 0.444849, 0.189505, 0, 0
0, 3180.00000, 0.431234, 0.183705, 0.431867, 0.183975, 0.444849, 0.189505, 0, 0
0, 3240.00000, 0.431234, 0.183705, 0.431867, 0.183975, 0.444849, 0.189505, 0, 0
0, 3300.00000, 0.431234, 0.183705, 0.431867, 0.183975, 0.444849, 0.189505, 0, 0
0, 3360.00000, 0.431234, 0.183705, 0.431867, 0.183975, 0.444849, 0.189505, 0, 0
0, 3420.00000, 0.431234, 0.183705, 0.431867, 0.183975, 0.444849, 0.189505, 0, 0
0, 3480.00000, 0.431234, 0.183705, 0.431867, 0.183975, 0.444849, 0.189505, 0, 0
0, 3540.00000, 0.431234, 0.183705, 0.431867, 0.183975, 0.444849, 0.189505, 0, 0
1, 0.00000, 0.431234, 0.183705, 0.431867, 0.183975, 0.444849, 0.189505, 0, 0
1, 60.00000, 0.39774, 0.169439, 0.398261, 0.169657, 0.410275, 0.174778, 0, 0
1, 120.00000, 0.397741, 0.169437, 0.398262, 0.169659, 0.410288, 0.174782, 0, 0
1, 180.00000, 0.397741, 0.169437, 0.398262, 0.169659, 0.410288, 0.174782, 0, 0
1, 240.00000, 0.397741, 0.169437, 0.398262, 0.169659, 0.410288, 0.174782, 0, 0
1, 300.00000, 0.397741, 0.169437, 0.398262, 0.169659, 0.410288, 0.174782, 0, 0
1, 360.00000, 0.397741, 0.169437, 0.398262, 0.169659, 0.410288, 0.174782, 0, 0
1, 420.00000, 0.397741, 0.169437, 0.398262, 0.169659, 0.410288, 0.174782, 0, 0
1, 480.00000, 0.397741, 0.169437, 0.398262, 0.169659, 0.410288, 0.174782, 0, 0
1, 540.00000, 0.397741, 0.169437, 0.398262, 0.169659, 0.410288, 0.174782, 0, 0
1, 600.00000, 0.397741, 0.169437, 0.398262, 0.169659, 0.410288, 0.174782, 0, 0
1, 660.00000, 0.397741, 0.169437, 0.398262, 0.169659, 0.410288, 0.174782, 0, 0
1, 720.00000, 0.397741, 0.169437, 0.398262, 0.169659, 0.410288, 0.174782, 0, 0
1, 780.00000, 0.397741, 0.169437, 0.398262, 0.169659, 0.410288, 0.174782, 0, 0
1, 840.00000, 0.397741, 0.169437, 0.398262, 0.169659, 0.410288, 0.174782, 0, 0
1, 900.00000, 0.397741, 0.169437, 0.398262, 0.169659, 0.410288, 0.174782, 0, 0
1, 960.00000, 0.402184, 0.171334, 0.402699, 0.171548, 0.414855, 0.176731, 0, 0
1, 1020.00000, 0.402188, 0.171332, 0.402704, 0.171551, 0.414875, 0.176736, 0, 0
1, 1080.00000, 0.402188, 0.171332, 0.402704, 0.171551, 0.414876, 0.176736, 0, 0
1, 1140.00000, 0.402188, 0.171332, 0.402704, 0.171551, 0.414876, 0.176736, 0, 0
1, 1200.00000, 0.402188, 0.171332, 0.402704, 0.171551, 0.414876, 0.176736, 0, 0
1, 1260.00000, 0.402188, 0.171332, 0.402704, 0.171551, 0.414876, 0.176736, 0, 0
1, 1320.00000, 0.402188, 0.171332, 0.402704, 0.171551, 0.414876, 0.176736, 0, 0
1, 1380.00000, 0.402188, 0.171332, 0.402704, 0.171551, 0.414876, 0.176736, 0, 0
1, 1440.00000, 0.402188, 0.171332, 0.402704, 0.171551, 0.414876, 0.176736, 0, 0
1, 1500.00000, 0.402188, 0.171332, 0.402704, 0.171551, 0.414876, 0.176736, 0, 0
1, 1560.00000, 0.402188, 0.171332, 0.402704, 0.171551, 0.414876, 0.176736, 0, 0
1, 1620.00000, 0.402188, 0.171332, 0.402704, 0.171551, 0.414876, 0.176736, 0, 0
1, 1680.00000, 0.402188, 0.171332, 0.402704, 0.171551, 0.414876, 0.176736, 0, 0
1, 1740.00000, 0.402188, 0.171332, 0.402704, 0.171551, 0.414876, 0.176736, 0, 0
1, 1800.00000, 0.402188, 0.171332, 0.402704, 0.171551, 0.414876, 0.176736, 0, 0
1, 1860.00000, 0.426319, 0.181609, 0.426917, 0.181867, 0.439772, 0.18734, 0, 0
1, 1920.00000, 0.426318, 0.181611, 0.426916, 0.181866, 0.439759, 0.187336, 0, 0
1, 1980.00000, 0.426318, 0.181611, 0.426916, 0.181866, 0.439758, 0.187336, 0, 0
1, 2040.00000, 0.426318, 0.181611, 0.426916, 0.181866, 0.439758, 0.187336, 0, 0
1, 2100.00000, 0.426318, 0.181611, 0.426916, 0.181866, 0.439758, 0.187336, 0, 0
1, 2160.00000, 0.426318, 0.181611, 0.426916, 0.181866, 0.439758, 0.187336, 0, 0
1, 2220.00000, 0.426318, 0.181611, 0.426916, 0.181866, 0.439758, 0.187336, 0, 0
1, 2280.00000, 0.426318, 0.181611, 0.426916, 0.181866, 0.439758, 0.187336, 0, 0
1, 2340.00000, 0.426318, 0.181611, 0.426916, 0.181866, 0.439758, 0.187336, 0, 0
1, 2400.00000, 0.426318, 0.181611, 0.426916, 0.181866, 0.439758, 0.187336, 0, 0
1, 2460.00000, 0.426318, 0.181611, 0.426916, 0.181866, 0.439758, 0.187336, 0, 0
1, 2520.00000, 0.426318, 0.181611, 0.426916, 0.181866, 0.439758, 0.187336, 0, 0
1, 2580.00000, 0.426318, 0.181611, 0.426916, 0.181866, 0.439758, 0.187336, 0, 0
1, 2640.00000, 0.426318, 0.181611, 0.426916, 0.181866, 0.439758, 0.187336, 0, 0
1, 2700.00000, 0.426318, 0.181611, 0.426916, 0.181866, 0.439758, 0.187336, 0, 0
1, 2760.00000, 0.405717, 0.172839, 0.406198, 0.173036, 0.417582, 0.177894, 0, 0
1, 2820.00000, 0.405718, 0.172835, 0.406202, 0.173041, 0.417564, 0.177881, 0, 0
1, 2880.00000, 0.405718, 0.172835, 0.406202, 0.173041, 0.417563, 0.177881, 0, 0
1, 2940.00000, 0.405718, 0.172835, 0.406202, 0.173041, 0.417563, 0.177881, 0, 0
1, 3000.00000, 0.405718, 0.172835, 0.406202, 0.173041, 0.417563, 0.177881, 0, 0
1, 3060.00000, 0.405718, 0.172835, 0.406202, 0.173041, 0.417563, 0.177881, 0, 0
1, 3120.00000, 0.405718, 0.172835, 0.406202, 0.173041, 0.417563, 0.177881, 0, 0
1, 3180.00000, 0.405718, 0.172835, 0.406202, 0.173041, 0.417563, 0.177881, 0, 0
1, 3240.00000, 0.405718, 0.172835, 0.406202, 0.173041, 0.417563, 0.177881, 0, 0
1, 3300.00000, 0.405718, 0.172835, 0.406202, 0.173041, 0.417563, 0.177881, 0, 0
1, 3360.00000, 0.405718, 0.172835, 0.406202, 0.173041, 0.417563, 0.177881, 0, 0
1, 3420.00000, 0.405718, 0.172835, 0.406202, 0.173041, 0.417563, 0.177881, 0, 0
1, 3480.00000, 0.405718, 0.172835, 0.406202, 0.173041, 0.417563, 0.177881, 0, 0
1, 3540.00000, 0.405718, 0.172835, 0.406202, 0.173041, 0.417563, 0.177881, 0, 0
2, 0.00000, 0.405718, 0.172835, 0.406202, 0.173041, 0.417563, 0.177881, 0, 0
2, 60.00000, 0.429643, 0.183024, 0.430199, 0.183265, 0.443215, 0.188806, 0, 0
2, 120.00000, 0.429641, 0.183026, 0.430197, 0.183263, 0.443199, 0.188802, 0, 0
2, 180.00000, 0.429641, 0.183027, 0.430197, 0.183263, 0.443198, 0.188802, 0, 0
2, 240.00000, 0.429641, 0.183027, 0.430197, 0.183263, 0.443198, 0.188802, 0, 0
2, 300.00000, 0.429641, 0.183027, 0.430197, 0.183263, 0.443198, 0.188802, 0, 0
2, 360.00000, 0.429641, 0.183027, 0.430197, 0.183263, 0.443198, 0.188802, 0, 0
2, 420.00000, 0.429641, 0.183027, 0.430197, 0.183263, 0.443198, 0.188802, 0, 0
2, 480.00000, 0.429641, 0.183027, 0.430197, 0.183263, 0.443198, 0.188802, 0, 0
2, 540.00000, 0.429641, 0.183027, 0.430197, 0.183263, 0.443198, 0.188802, 0, 0
2, 600.00000, 0.429641, 0.183027, 0.430197, 0.183263, 0.443198, 0.188802, 0, 0
2, 660.00000, 0.429641, 0.183027, 0.430197, 0.183263, 0.443198, 0.188802, 0, 0
2, 720.00000, 0.429641, 0.183027, 0.430197, 0.183263, 0.443198, 0.188802, 0, 0
2, 780.00000, 0.429641, 0.183027, 0.430197, 0.183263, 0.443198, 0.188802, 0, 0
2, 840.00000, 0.429641, 0.183027, 0.430197, 0.183263, 0.443198, 0.188802, 0, 0
2, 900.00000, 0.429641, 0.183027, 0.430197, 0.183263, 0.443198, 0.188802, 0, 0
2, 960.00000, 0.415464, 0.17699, 0.415946, 0.177191, 0.427148, 0.181968, 0, 0
2, 1020.00000, 0.415465, 0.176987, 0.415951, 0.177194, 0.427134, 0.181958, 0, 0
2, 1080.00000, 0.415465, 0.176987, 0.415951, 0.177194, 0.427134, 0.181958, 0, 0
2, 1140.00000, 0.415465, 0.176987, 0.415951, 0.177194, 0.427134, 0.181958, 0, 0
2, 1200.00000, 0.415465, 0.176987, 0.415951, 0.177194, 0.427134, 0.181958, 0, 0
2, 1260.00000, 0.415465, 0.176987, 0.415951, 0.177194, 0.427134, 0.181958, 0, 0
2, 1320.00000, 0.415465, 0.176987, 0.415951, 0.177194, 0.427134, 0.181958, 0, 0
2, 1380.00000, 0.415465, 0.176987, 0.415951, 0.177194, 0.427134, 0.181958, 0, 0
2, 1440.00000, 0.415465, 0.176987, 0.415951, 0.177194, 0.427134, 0.181958, 0, 0
2, 1500.00000, 0.415465, 0.176987, 0.415951, 0.177194, 0.427134, 0.181958, 0, 0
2, 1560.00000, 0.415465, 0.176987, 0.415951, 0.177194, 0.427134, 0.181958, 0, 0
2, 1620.00000, 0.415465, 0.176987, 0.415951, 0.177194, 0.427134, 0.181958, 0, 0
2, 1680.00000, 0.415465, 0.176987, 0.415951, 0.177194, 0.427134, 0.181958, 0, 0
2, 1740.00000, 0.415465, 0.176987, 0.415951, 0.177194, 0.427134, 0.181958, 0, 0
2, 1800.00000, 0.415465, 0.176987, 0.415951, 0.177194, 0.427134, 0.181958, 0, 0
2, 1860.00000, 0.442487, 0.188497, 0.443025, 0.188729, 0.45612, 0.194305, 0, 0
2, 1920.00000, 0.442487, 0.188499, 0.443023, 0.188727, 0.456126, 0.194309, 0, 0
2, 1980.00000, 0.442487, 0.188499, 0.443023, 0.188727, 0.456126, 0.194309, 0, 0
2, 2040.00000, 0.442487, 0.188499, 0.443023, 0.188727, 0.456126, 0.194309, 0, 0
2, 2100.00000, 0.442487, 0.188499, 0.443023, 0.188727, 0.456126, 0.194309, 0, 0
2, 2160.00000, 0.442487, 0.188499, 0.443023, 0.188727, 0.456126, 0.194309, 0, 0
2, 2220.00000, 0.442487, 0.188499, 0.443023, 0.188727, 0.456126, 0.194309, 0, 0
2, 2280.00000, 0.442487, 0.188499, 0.443023, 0.188727, 0.456126, 0.194309, 0, 0
2, 2340.00000, 0.442487, 0.188499, 0.443023, 0.188727, 0.456126, 0.194309, 0, 0
2, 2400.00000, 0.442487, 0.188499, 0.443023, 0.188727, 0.456126, 0.194309, 0, 0
2, 2460.00000, 0.442487, 0.188499, 0.443023, 0.188727, 0.456126, 0.194309, 0, 0
2, 2520.00000, 0.442487, 0.188499, 0.443023, 0.188727, 0.456126, 0.194309, 0, 0
2, 2580.00000, 0.442487, 0.188499, 0.443023, 0.188727, 0.456126, 0.194309, 0, 0
2, 2640.00000, 0.442487, 0.188499, 0.443023, 0.188727, 0.456126, 0.194309, 0, 0
2, 2700.00000, 0.442487, 0.188499, 0.443023, 0.188727, 0.456126, 0.194309, 0, 0
2, 2760.00000, 0.411545, 0.175322, 0.411965, 0.175495, 0.42107, 0.179379, 0, 0
2, 2820.00000, 0.41155, 0.17532, 0.411972, 0.175499, 0.421053, 0.179368, 0, 0
2, 2880.00000, 0.41155, 0.17532, 0.411972, 0.1755, 0.421053, 0.179368, 0, 0
2, 2940.00000, 0.41155, 0.17532, 0.411972, 0.1755, 0.421053, 0.179368, 0, 0
2, 3000.00000, 0.41155, 0.17532, 0.411972, 0.1755, 0.421053, 0.179368, 0, 0
2, 3060.00000, 0.41155, 0.17532, 0.411972, 0.1755, 0.421053, 0.179368, 0, 0
2, 3120.00000, 0.41155, 0.17532, 0.411972, 0.1755, 0.421053, 0.179368, 0, 0
2, 3180.00000, 0.41155, 0.17532, 0.411972, 0.1755, 0.421053, 0.179368, 0, 0
2, 3240.00000, 0.41155, 0.17532, 0.411972, 0.1755, 0.421053, 0.179368, 0, 0
2, 3300.00000, 0.41155, 0.17532, 0.411972, 0.1755, 0.421053, 0.179368, 0, 0
2, 3360.00000, 0.41155, 0.17532, 0.411972, 0.1755, 0.421053, 0.179368, 0, 0
2, 3420.00000, 0.41155, 0.17532, 0.411972, 0.1755, 0.421053, 0.179368, 0, 0
2, 3480.00000, 0.41155, 0.17532, 0.411972, 0.1755, 0.421053, 0.179368, 0, 0
2, 3540.00000, 0.41155, 0.17532, 0.411972, 0.1755, 0.421053, 0.179368, 0, 0
3, 0.00000, 0.41155, 0.17532, 0.411972, 0.1755, 0.421053, 0.179368, 0, 0
3, 60.00000, 0.439182, 0.187088, 0.439684, 0.187305, 0.450941, 0.192098, 0, 0
3, 120.00000, 0.439178, 0.187089, 0.43968, 0.187303, 0.450949, 0.192104, 0, 0
3, 180.00000, 0.439178, 0.187089, 0.43968, 0.187303, 0.450949, 0.192104, 0, 0
3, 240.00000, 0.439178, 0.187089, 0.43968, 0.187303, 0.450949, 0.192104, 0, 0
3, 300.00000, 0.439178, 0.187089, 0.43968, 0.187303, 0.450949, 0.192104, 0, 0
3, 360.00000, 0.439178, 0.187089, 0.43968, 0.187303, 0.450949, 0.192104, 0, 0
3, 420.00000, 0.439178, 0.187089, 0.43968, 0.187303, 0.450949, 0.192104, 0, 0
3, 480.00000, 0.439178, 0.187089, 0.43968, 0.187303, 0.450949, 0.192104, 0, 0
3, 540.00000, 0.439178, 0.187089, 0.43968, 0.187303, 0.450949, 0.192104, 0, 0
3, 600.00000, 0.439178, 0.187089, 0.43968, 0.187303, 0.450949, 0.192104, 0, 0
3, 660.00000, 0.439178, 0.187089, 0.43968, 0.187303, 0.450949, 0.192104, 0, 0
3, 720.00000, 0.439178, 0.187089, 0.43968, 0.187303, 0.450949, 0.192104, 0, 0
3, 780.00000, 0.439178, 0.187089, 0.43968, 0.187303, 0.450949, 0.192104, 0, 0
3, 840.00000, 0.439178, 0.187089, 0.43968, 0.187303, 0.450949, 0.192104, 0, 0
3, 900.00000, 0.439178, 0.187089, 0.43968, 0.187303, 0.450949, 0.192104, 0, 0
3, 960.00000, 0.406277, 0.173079, 0.406722, 0.173263, 0.41658, 0.177466, 0, 0
3, 1020.00000, 0.406286, 0.173077, 0.406733, 0.173268, 0.416559, 0.177453, 0, 0
3, 1080.00000, 0.406286, 0.173077, 0.406734, 0.173268, 0.416559, 0.177453, 0, 0
3, 1140.00000, 0.406286, 0.173077, 0.406734, 0.173268, 0.416559, 0.177453, 0, 0
3, 1200.00000, 0.406286, 0.173077, 0.406734, 0.173268, 0.416559, 0.177453, 0, 0
3, 1260.00000, 0.406286, 0.173077, 0.406734, 0.173268, 0.416559, 0.177453, 0, 0
3, 1320.00000, 0.406286, 0.173077, 0.406734, 0.173268, 0.416559, 0.177453, 0, 0
3, 1380.00000, 0.406286, 0.173077, 0.406734, 0.173268, 0.416559, 0.177453, 0, 0
3, 1440.00000, 0.406286, 0.173077, 0.406734, 0.173268, 0.416559, 0.177453, 0, 0
3, 1500.00000, 0.406286, 0.173077, 0.406734, 0.173268, 0.416559, 0.177453, 0, 0
3, 1560.00000, 0.406286, 0.173077, 0.406734, 0.173268, 0.416559, 0.177453, 0, 0
3, 1620.00000, 0.406286, 0.173077, 0.406734, 0.173268, 0.416559, 0.177453, 0, 0
3, 1680.00000, 0.406286, 0.173077, 0.406734, 0.173268, 0.416559, 0.177453, 0, 0
3, 1740.00000, 0.406286, 0.173077, 0.406734, 0.173268, 0.416559, 0.177453, 0, 0
3, 1800.00000, 0.406286, 0.173077, 0.406734, 0.173268, 0.416559, 0.177453, 0, 0
3, 1860.00000, 0.378835, 0.161387, 0.379246, 0.16156, 0.388166, 0.165362, 0, 0
3, 1920.00000, 0.378845, 0.161387, 0.379255, 0.161562, 0.388159, 0.165355, 0, 0
3, 1980.00000, 0.378845, 0.161387, 0.379256, 0.161562, 0.388158, 0.165355, 0, 0
3, 2040.00000, 0.378845, 0.161387, 0.379256, 0.161562, 0.388158, 0.165355, 0, 0
3, 2100.00000, 0.378845, 0.161387, 0.379256, 0.161562, 0.388158, 0.165355, 0, 0
3, 2160.00000, 0.378845, 0.161387, 0.379256, 0.161562, 0.388158, 0.165355, 0, 0
3, 2220.00000, 0.378845, 0.161387, 0.379256, 0.161562, 0.388158, 0.165355, 0, 0
3, 2280.00000, 0.378845, 0.161387, 0.379256, 0.161562, 0.388158, 0.165355, 0, 0
3, 2340.00000, 0.378845, 0.161387, 0.379256, 0.161562, 0.388158, 0.165355, 0, 0
3, 2400.00000, 0.378845, 0.161387, 0.379256, 0.161562, 0.388158, 0.165355, 0, 0
3, 2460.00000, 0.378845, 0.161387, 0.379256, 0.161562, 0.388158, 0.165355, 0, 0
3, 2520.00000, 0.378845, 0.161387, 0.379256, 0.161562, 0.388158, 0.165355, 0, 0
3, 2580.00000, 0.378845, 0.161387, 0.379256, 0.161562, 0.388158, 0.165355, 0, 0
3, 2640.00000, 0.378845, 0.161387, 0.379256, 0.161562, 0.388158, 0.165355, 0, 0
3, 2700.00000, 0.378845, 0.161387, 0.379256, 0.161562, 0.388158, 0.165355, 0, 0
3, 2760.00000, 0.401869, 0.1712, 0.402198, 0.171335, 0.40914, 0.174296, 0, 0
3, 2820.00000, 0.401878, 0.1712, 0.402205, 0.171339, 0.409124, 0.174286, 0, 0
3, 2880.00000, 0.401879, 0.1712, 0.402205, 0.171339, 0.409124, 0.174286, 0, 0
3, 2940.00000, 0.401879, 0.1712, 0.402205, 0.171339, 0.409124, 0.174286, 0, 0
3, 3000.00000, 0.401879, 0.1712, 0.402205, 0.171339, 0.409124, 0.174286, 0, 0
3, 3060.00000, 0.401879, 0.1712, 0.402205, 0.171339, 0.409124, 0.174286, 0, 0
3, 3120.00000, 0.403898, 0.172057, 0.40581, 0.172884, 0.409114, 0.174282, 0, 0
3, 3180.00000, 0.40391, 0.172065, 0.405839, 0.172887, 0.409123, 0.174286, 0, 0
3, 3240.00000, 0.40391, 0.172065, 0.405839, 0.172887, 0.409124, 0.174286, 0, 0
3, 3300.00000, 0.40391, 0.172065, 0.405839, 0.172887, 0.409124, 0.174286, 0, 0
3, 3360.00000, 0.40391, 0.172065, 0.405839, 0.172887, 0.409124, 0.174286, 0, 0
3, 3420.00000, 0.40391, 0.172065, 0.405839, 0.172887, 0.409124, 0.174286, 0, 0
3, 3480.00000, 0.40391, 0.172065, 0.405839, 0.172887, 0.409124, 0.174286, 0, 0
3, 3540.00000, 0.40391, 0.172065, 0.405839, 0.172887, 0.409124, 0.174286, 0, 0
4, 0.00000, 0.40391, 0.172065, 0.405839, 0.172887, 0.409124, 0.174286, 0, 0
4, 60.00000, 0.378222, 0.16112, 0.380092, 0.161918, 0.384542, 0.163812, 0, 0
4, 120.00000, 0.378215, 0.161119, 0.380085, 0.161915, 0.38455, 0.163818, 0, 0
4, 180.00000, 0.378215, 0.161119, 0.380085, 0.161915, 0.38455, 0.163818, 0, 0
4, 240.00000, 0.378215, 0.161119, 0.380085, 0.161915, 0.38455, 0.163818, 0, 0
4, 300.00000, 0.378215, 0.161119, 0.380085, 0.161915, 0.38455, 0.163818, 0, 0
4, 360.00000, 0.378215, 0.161119, 0.380085, 0.161915, 0.38455, 0.163818, 0, 0
4, 420.00000, 0.378215, 0.161119, 0.380085, 0.161915, 0.38455, 0.163818, 0, 0
4, 480.00000, 0.378215, 0.161119, 0.380085, 0.161915, 0.38455, 0.163818, 0, 0
4, 540.00000, 0.378215, 0.161119, 0.380085, 0.161915, 0.38455, 0.163818, 0, 0
4, 600.00000, 0.378215, 0.161119, 0.380085, 0.161915, 0.38455, 0.163818, 0, 0
4, 660.00000, 0.378215, 0.161119, 0.380085, 0.161915, 0.38455, 0.163818, 0, 0
