hour,t(sec),V1,VAngle1,V2,VAngle2,V3,VAngle3,V4,VAngle4,I1,IAngle1,I2,IAngle2,I3,IAngle3,I4,IAngle4
0, 60.00000, 125.891, -31.3749, 125.794, -151.35, 125.891, 88.68, 0, 0, 5.09752, -54.4486, 5.10148, -174.424, 5.09754, 65.6064, 0.00819697, 3.84224
0, 120.00000, 125.891, -31.3749, 125.793, -151.35, 125.891, 88.68, 0, 0, 5.09754, -54.4488, 5.10151, -174.424, 5.09758, 65.6061, 0.00818532, 3.79442
0, 180.00000, 125.891, -31.3749, 125.793, -151.35, 125.891, 88.68, 0, 0, 5.09754, -54.4488, 5.10151, -174.424, 5.09758, 65.6061, 0.00818522, 3.79421
0, 240.00000, 125.891, -31.3749, 125.793, -151.35, 125.891, 88.68, 0, 0, 5.09754, -54.4488, 5.10151, -174.424, 5.09758, 65.6061, 0.00818522, 3.79421
0, 300.00000, 125.891, -31.3749, 125.793, -151.35, 125.891, 88.68, 0, 0, 5.09754, -54.4488, 5.10151, -174.424, 5.09758, 65.6061, 0.00818522, 3.79421
0, 360.00000, 125.891, -31.3749, 125.793, -151.35, 125.891, 88.68, 0, 0, 5.09754, -54.4488, 5.10151, -174.424, 5.09758, 65.6061, 0.00818522, 3.79421
0, 420.00000, 125.891, -31.3749, 125.793, -151.35, 125.891, 88.68, 0, 0, 5.09754, -54.4488, 5.10151, -174.424, 5.09758, 65.6061, 0.00818522, 3.79421
0, 480.00000, 126.25, -31.2454, 126.153, -151.219, 126.255, 88.8113, 0, 0, 4.59288, -54.3197, 4.59643, -174.294, 4.59273, 65.7368, 0.00754646, 5.36328
0, 540.00000, 126.25, -31.2454, 126.153, -151.219, 126.255, 88.8113, 0, 0, 4.59284, -54.3193, 4.59639, -174.293, 4.59267, 65.7374, 0.00757371, 5.47202
0, 600.00000, 126.25, -31.2454, 126.153, -151.219, 126.255, 88.8113, 0, 0, 4.59284, -54.3193, 4.59639, -174.293, 4.59267, 65.7374, 0.00757435, 5.47401
0, 660.00000, 126.25, -31.2454, 126.153, -151.219, 126.255, 88.8113, 0, 0, 4.59284, -54.3193, 4.59639, -174.293, 4.59267, 65.7374, 0.00757436, 5.47404
0, 720.00000, 126.25, -31.2454, 126.153, -151.219, 126.255, 88.8113, 0, 0, 4.59284, -54.3193, 4.59639, -174.293, 4.59267, 65.7374, 0.00757436, 5.47404
0, 780.00000, 126.25, -31.2454, 126.153, -151.219, 126.255, 88.8113, 0, 0, 4.59284, -54.3193, 4.59639, -174.293, 4.59267, 65.7374, 0.00757436, 5.47404
0, 840.00000, 126.25, -31.2454, 126.153, -151.219, 126.255, 88.8113, 0, 0, 4.59284, -54.3193, 4.59639, -174.293, 4.59267, 65.7374, 0.00757436, 5.47404
0, 900.00000, 126.25, -31.2454, 126.153, -151.219, 126.255, 88.8113, 0, 0, 4.59284, -54.3193, 4.59639, -174.293, 4.59267, 65.7374, 0.00757436, 5.47404
0, 960.00000, 126.25, -31.2454, 126.153, -151.219, 126.255, 88.8113, 0, 0, 4.59284, -54.3193, 4.59639, -174.293, 4.59267, 65.7374, 0.00757436, 5.47404
0, 1020.00000, 126.25, -31.2454, 126.153, -151.219, 126.255, 88.8113, 0, 0, 4.59284, -54.3193, 4.59639, -174.293, 4.59267, 65.7374, 0.00757436, 5.47404
0, 1080.00000, 126.25, -31.2454, 126.153, -151.219, 126.255, 88.8113, 0, 0, 4.59284, -54.3193, 4.59639, -174.293, 4.59267, 65.7374, 0.00757436, 5.47404
0, 1140.00000, 126.25, -31.2454, 126.153, -151.219, 126.255, 88.8113, 0, 0, 4.59284, -54.3193, 4.59639, -174.293, 4.59267, 65.7374, 0.00757436, 5.47404
0, 1200.00000, 126.25, -31.2454, 126.153, -151.219, 126.255, 88.8113, 0, 0, 4.59284, -54.3193, 4.59639, -174.293, 4.59267, 65.7374, 0.00757436, 5.47404
0, 1260.00000, 126.25, -31.2454, 126.153, -151.219, 126.255, 88.8113, 0, 0, 4.59284, -54.3193, 4.59639, -174.293, 4.59267, 65.7374, 0.00757436, 5.47404
0, 1320.00000, 126.25, -31.2454, 126.153, -151.219, 126.255, 88.8113, 0, 0, 4.59284, -54.3193, 4.59639, -174.293, 4.59267, 65.7374, 0.00757436, 5.47404
0, 1380.00000, 126.25, -31.2454, 126.153, -151.219, 126.255, 88.8113, 0, 0, 4.59284, -54.3193, 4.59639, -174.293, 4.59267, 65.7374, 0.00757436, 5.47404
0, 1440.00000, 126.25, -31.2454, 126.153, -151.219, 126.255, 88.8113, 0, 0, 4.59284, -54.3193, 4.59639, -174.293, 4.59267, 65.7374, 0.00757436, 5.47404
0, 1500.00000, 126.25, -31.2454, 126.153, -151.219, 126.255, 88.8113, 0, 0, 4.59284, -54.3193, 4.59639, -174.293, 4.59267, 65.7374, 0.00757436, 5.47404
0, 1560.00000, 126.25, -31.2454, 126.153, -151.219, 126.255, 88.8113, 0, 0, 4.59284, -54.3193, 4.59639, -174.293, 4.59267, 65.7374, 0.00757436, 5.47404
0, 1620.00000, 126.25, -31.2454, 126.153, -151.219, 126.255, 88.8113, 0, 0, 4.59284, -54.3193, 4.59639, -174.293, 4.59267, 65.7374, 0.00757436, 5.47404
0, 1680.00000, 126.25, -31.2454, 126.153, -151.219, 126.255, 88.8113, 0, 0, 4.59284, -54.3193, 4.59639, -174.293, 4.59267, 65.7374, 0.00757436, 5.47404
0, 1740.00000, 126.25, -31.2454, 126.153, -151.219, 126.255, 88.8113, 0, 0, 4.59284, -54.3193, 4.59639, -174.293, 4.59267, 65.7374, 0.00757436, 5.47404
0, 1800.00000, 126.25, -31.2454, 126.153, -151.219, 126.255, 88.8113, 0, 0, 4.59284, -54.3193, 4.59639, -174.293, 4.59267, 65.7374, 0.00757436, 5.47404
0, 1860.00000, 126.25, -31.2454, 126.153, -151.219, 126.255, 88.8113, 0, 0, 4.59284, -54.3193, 4.59639, -174.293, 4.59267, 65.7374, 0.00757436, 5.47404
0, 1920.00000, 126.25, -31.2454, 126.153, -151.219, 126.255, 88.8113, 0, 0, 4.59284, -54.3193, 4.59639, -174.293, 4.59267, 65.7374, 0.00757436, 5.47404
0, 1980.00000, 126.25, -31.2454, 126.153, -151.219, 126.255, 88.8113, 0, 0, 4.59284, -54.3193, 4.59639, -174.293, 4.59267, 65.7374, 0.00757436, 5.47404
0, 2040.00000, 126.25, -31.2454, 126.153, -151.219, 126.255, 88.8113, 0, 0, 4.59284, -54.3193, 4.59639, -174.293, 4.59267, 65.7374, 0.00757436, 5.47404
0, 2100.00000, 126.25, -31.2454, 126.153, -151.219, 126.255, 88.8113, 0, 0, 4.59284, -54.3193, 4.59639, -174.293, 4.59267, 65.7374, 0.00757436, 5.47404
0, 2160.00000, 126.25, -31.2454, 126.153, -151.219, 126.255, 88.8113, 0, 0, 4.59284, -54.3193, 4.59639, -174.293, 4.59267, 65.7374, 0.00757436, 5.47404
0, 2220.00000, 126.25, -31.2454, 126.153, -151.219, 126.255, 88.8113, 0, 0, 4.59284, -54.3193, 4.59639, -174.293, 4.59267, 65.7374, 0.00757436, 5.47404
0, 2280.00000, 126.25, -31.2454, 126.153, -151.219, 126.255, 88.8113, 0, 0, 4.59284, -54.3193, 4.59639, -174.293, 4.59267, 65.7374, 0.00757436, 5.47404
0, 2340.00000, 126.25, -31.2454, 126.153, -151.219, 126.255, 88.8113, 0, 0, 4.59284, -54.3193, 4.59639, -174.293, 4.59267, 65.7374, 0.00757436, 5.47404
0, 2400.00000, 126.25, -31.2454, 126.153, -151.219, 126.255, 88.8113, 0, 0, 4.59284, -54.3193, 4.59639, -174.293, 4.59267, 65.7374, 0.00757436, 5.47404
0, 2460.00000, 126.25, -31.2454, 126.153, -151.219, 126.255, 88.8113, 0, 0, 4.59284, -54.3193, 4.59639, -174.293, 4.59267, 65.7374, 0.00757436, 5.47404
0, 2520.00000, 126.25, -31.2454, 126.153, -151.219, 126.255, 88.8113, 0, 0, 4.59284, -54.3193, 4.59639, -174.293, 4.59267, 65.7374, 0.00757436, 5.47404
0, 2580.00000, 126.25, -31.2454, 126.153, -151.219, 126.255, 88.8113, 0, 0, 4.59284, -54.3193, 4.59639, -174.293, 4.59267, 65.7374, 0.00757436, 5.47404
0, 2640.00000, 126.25, -31.2454, 126.153, -151.219, 126.255, 88.8113, 0, 0, 4.59284, -54.3193, 4.59639, -174.293, 4.59267, 65.7374, 0.00757436, 5.47404
0, 2700.00000, 126.25, -31.2454, 126.153, -151.219, 126.255, 88.8113, 0, 0, 4.59284, -54.3193, 4.59639, -174.293, 4.59267, 65.7374, 0.00757436, 5.47404
0, 2760.00000, 126.25, -31.2454, 126.153, -151.219, 126.255, 88.8113, 0, 0, 4.59284, -54.3193, 4.59639, -174.293, 4.59267, 65.7374, 0.00757436, 5.47404
0, 2820.00000, 126.25, -31.2454, 126.153, -151.219, 126.255, 88.8113, 0, 0, 4.59284, -54.3193, 4.59639, -174.293, 4.59267, 65.7374, 0.00757436, 5.47404
0, 2880.00000, 126.25, -31.2454, 126.153, -151.219, 126.255, 88.8113, 0, 0, 4.59284, -54.3193, 4.59639, -174.293, 4.59267, 65.7374, 0.00757436, 5.47404
0, 2940.00000, 126.25, -31.2454, 126.153, -151.219, 126.255, 88.8113, 0, 0, 4.59284, -54.3193, 4.59639, -174.293, 4.59267, 65.7374, 0.00757436, 5.47404
0, 3000.00000, 126.25, -31.2454, 126.153, -151.219, 126.255, 88.8113, 0, 0, 4.59284, -54.3193, 4.59639, -174.293, 4.59267, 65.7374, 0.00757436, 5.47404
0, 3060.00000, 126.25, -31.2454, 126.153, -151.219, 126.255, 88.8113, 0, 0, 4.59284, -54.3193, 4.59639, -174.293, 4.59267, 65.7374, 0.00757436, 5.47404
0, 3120.00000, 126.25, -31.2454, 126.153, -151.219, 126.255, 88.8113, 0, 0, 4.59284, -54.3193, 4.59639, -174.293, 4.59267, 65.7374, 0.00757436, 5.47404
0, 3180.00000, 126.25, -31.2454, 126.153, -151.219, 126.255, 88.8113, 0, 0, 4.59284, -54.3193, 4.59639, -174.293, 4.59267, 65.7374, 0.00757436, 5.47404
0, 3240.00000, 126.25, -31.2454, 126.153, -151.219, 126.255, 88.8113, 0, 0, 4.59284, -54.3193, 4.59639, -174.293, 4.59267, 65.7374, 0.00757436, 5.47404
0, 3300.00000, 126.25, -31.2454, 126.153, -151.219, 126.255, 88.8113, 0, 0, 4.59284, -54.3193, 4.59639, -174.293, 4.59267, 65.7374, 0.00757436, 5.47404
0, 3360.00000, 126.25, -31.2454, 126.153, -151.219, 126.255, 88.8113, 0, 0, 4.59284, -54.3193, 4.59639, -174.293, 4.59267, 65.7374, 0.00757436, 5.47404
0, 3420.00000, 126.25, -31.2454, 126.153, -151.219, 126.255, 88.8113, 0, 0, 4.59284, -54.3193, 4.59639, -174.293, 4.59267, 65.7374, 0.00757436, 5.47404
0, 3480.00000, 126.25, -31.2454, 126.153, -151.219, 126.255, 88.8113, 0, 0, 4.59284, -54.3193, 4.59639, -174.293, 4.59267, 65.7374, 0.00757436, 5.47404
0, 3540.00000, 126.25, -31.2454, 126.153, -151.219, 126.255, 88.8113, 0, 0, 4.59284, -54.3193, 4.59639, -174.293, 4.59267, 65.7374, 0.00757436, 5.47404
1, 0.00000, 126.25, -31.2454, 126.153, -151.219, 126.255, 88.8113, 0, 0, 4.59284, -54.3193, 4.59639, -174.293, 4.59267, 65.7374, 0.00757436, 5.47404
1, 60.00000, 126.25, -31.2454, 126.153, -151.219, 126.255, 88.8113, 0, 0, 4.59284, -54.3193, 4.59639, -174.293, 4.59267, 65.7374, 0.00757436, 5.47404
1, 120.00000, 126.25, -31.2454, 126.153, -151.219, 126.255, 88.8113, 0, 0, 4.59284, -54.3193, 4.59639, -174.293, 4.59267, 65.7374, 0.00757436, 5.47404
1, 180.00000, 126.25, -31.2454, 126.153, -151.219, 126.255, 88.8113, 0, 0, 4.59284, -54.3193, 4.59639, -174.293, 4.59267, 65.7374, 0.00757436, 5.47404
1, 240.00000, 126.25, -31.2454, 126.153, -151.219, 126.255, 88.8113, 0, 0, 4.59284, -54.3193, 4.59639, -174.293, 4.59267, 65.7374, 0.00757436, 5.47404
1, 300.00000, 126.25, -31.2454, 126.153, -151.219, 126.255, 88.8113, 0, 0, 4.59284, -54.3193, 4.59639, -174.293, 4.59267, 65.7374, 0.00757436, 5.47404
1, 360.00000, 126.25, -31.2454, 126.153, -151.219, 126.255, 88.8113, 0, 0, 4.59284, -54.3193, 4.59639, -174.293, 4.59267, 65.7374, 0.00757436, 5.47404
1, 420.00000, 126.25, -31.2454, 126.153, -151.219, 126.255, 88.8113, 0, 0, 4.59284, -54.3193, 4.59639, -174.293, 4.59267, 65.7374, 0.00757436, 5.47404
1, 480.00000, 126.25, -31.2454, 126.153, -151.219, 126.255, 88.8113, 0, 0, 4.59284, -54.3193, 4.59639, -174.293, 4.59267, 65.7374, 0.00757436, 5.47404
1, 540.00000, 126.25, -31.2454, 126.153, -151.219, 126.255, 88.8113, 0, 0, 4.59284, -54.3193, 4.59639, -174.293, 4.59267, 65.7374, 0.00757436, 5.47404
1, 600.00000, 126.25, -31.2454, 126.153, -151.219, 126.255, 88.8113, 0, 0, 4.59284, -54.3193, 4.59639, -174.293, 4.59267, 65.7374, 0.00757436, 5.47404
1, 660.00000, 126.25, -31.2454, 126.153, -151.219, 126.255, 88.8113, 0, 0, 4.59284, -54.3193, 4.59639, -174.293, 4.59267, 65.7374, 0.00757436, 5.47404
1, 720.00000, 126.25, -31.2454, 126.153, -151.219, 126.255, 88.8113, 0, 0, 4.59284, -54.3193, 4.59639, -174.293, 4.59267, 65.7374, 0.00757436, 5.47404
1, 780.00000, 126.25, -31.2454, 126.153, -151.219, 126.255, 88.8113, 0, 0, 4.59284, -54.3193, 4.59639, -174.293, 4.59267, 65.7374, 0.00757436, 5.47404
1, 840.00000, 126.25, -31.2454, 126.153, -151.219, 126.255, 88.8113, 0, 0, 4.59284, -54.3193, 4.59639, -174.293, 4.59267, 65.7374, 0.00757436, 5.47404
1, 900.00000, 126.25, -31.2454, 126.153, -151.219, 126.255, 88.8113, 0, 0, 4.59284, -54.3193, 4.59639, -174.293, 4.59267, 65.7374, 0.00757436, 5.47404
1, 960.00000, 126.25, -31.2454, 126.153, -151.219, 126.255, 88.8113, 0, 0, 4.59284, -54.3193, 4.59639, -174.293, 4.59267, 65.7374, 0.00757436, 5.47404
1, 1020.00000, 126.25, -31.2454, 126.153, -151.219, 126.255, 88.8113, 0, 0, 4.59284, -54.3193, 4.59639, -174.293, 4.59267, 65.7374, 0.00757436, 5.47404
1, 1080.00000, 126.25, -31.2454, 126.153, -151.219, 126.255, 88.8113, 0, 0, 4.59284, -54.3193, 4.59639, -174.293, 4.59267, 65.7374, 0.00757436, 5.47404
1, 1140.00000, 126.25, -31.2454, 126.153, -151.219, 126.255, 88.8113, 0, 0, 4.59284, -54.3193, 4.59639, -174.293, 4.59267, 65.7374, 0.00757436, 5.47404
1, 1200.00000, 126.25, -31.2454, 126.153, -151.219, 126.255, 88.8113, 0, 0, 4.59284, -54.3193, 4.59639, -174.293, 4.59267, 65.7374, 0.00757436, 5.47404
1, 1260.00000, 126.25, -31.2454, 126.153, -151.219, 126.255, 88.8113, 0, 0, 4.59284, -54.3193, 4.59639, -174.293, 4.59267, 65.7374, 0.00757436, 5.47404
1, 1320.00000, 126.25, -31.2454, 126.153, -151.219, 126.255, 88.8113, 0, 0, 4.59284, -54.3193, 4.59639, -174.293, 4.59267, 65.7374, 0.00757436, 5.47404
1, 1380.00000, 126.25, -31.2454, 126.153, -151.219, 126.255, 88.8113, 0, 0, 4.59284, -54.3193, 4.59639, -174.293, 4.59267, 65.7374, 0.00757436, 5.47404
1, 1440.00000, 126.25, -31.2454, 126.153, -151.219, 126.255, 88.8113, 0, 0, 4.59284, -54.3193, 4.59639, -174.293, 4.59267, 65.7374, 0.00757436, 5.47404
1, 1500.00000, 126.25, -31.2454, 126.153, -151.219, 126.255, 88.8113, 0, 0, 4.59284, -54.3193, 4.59639, -174.293, 4.59267, 65.7374, 0.00757436, 5.47404
1, 1560.00000, 126.25, -31.2454, 126.153, -151.219, 126.255, 88.8113, 0, 0, 4.59284, -54.3193, 4.59639, -174.293, 4.59267, 65.7374, 0.00757436, 5.47404
1, 1620.00000, 126.25, -31.2454, 126.153, -151.219, 126.255, 88.8113, 0, 0, 4.59284, -54.3193, 4.59639, -174.293, 4.59267, 65.7374, 0.00757436, 5.47404
1, 1680.00000, 126.25, -31.2454, 126.153, -151.219, 126.255, 88.8113, 0, 0, 4.59284, -54.3193, 4.59639, -174.293, 4.59267, 65.7374, 0.00757436, 5.47404
1, 1740.00000, 126.25, -31.2454, 126.153, -151.219, 126.255, 88.8113, 0, 0, 4.59284, -54.3193, 4.59639, -174.293, 4.59267, 65.7374, 0.00757436, 5.47404
1, 1800.00000, 126.25, -31.2454, 126.153, -151.219, 126.255, 88.8113, 0, 0, 4.59284, -54.3193, 4.59639, -174.293, 4.59267, 65.7374, 0.00757436, 5.47404
1, 1860.00000, 126.25, -31.2454, 126.153, -151.219, 126.255, 88.8113, 0, 0, 4.59284, -54.3193, 4.59639, -174.293, 4.59267, 65.7374, 0.00757436, 5.47404
1, 1920.00000, 126.25, -31.2454, 126.153, -151.219, 126.255, 88.8113, 0, 0, 4.59284, -54.3193, 4.59639, -174.293, 4.59267, 65.7374, 0.00757436, 5.47404
1, 1980.00000, 126.25, -31.2454, 126.153, -151.219, 126.255, 88.8113, 0, 0, 4.59284, -54.3193, 4.59639, -174.293, 4.59267, 65.7374, 0.00757436, 5.47404
1, 2040.00000, 126.25, -31.2454, 126.153, -151.219, 126.255, 88.8113, 0, 0, 4.59284, -54.3193, 4.59639, -174.293, 4.59267, 65.7374, 0.00757436, 5.47404
1, 2100.00000, 126.25, -31.2454, 126.153, -151.219, 126.255, 88.8113, 0, 0, 4.59284, -54.3193, 4.59639, -174.293, 4.59267, 65.7374, 0.00757436, 5.47404
1, 2160.00000, 126.25, -31.2454, 126.153, -151.219, 126.255, 88.8113, 0, 0, 4.59284, -54.3193, 4.59639, -174.293, 4.59267, 65.7374, 0.00757436, 5.47404
1, 2220.00000, 126.25, -31.2454, 126.153, -151.219, 126.255, 88.8113, 0, 0, 4.59284, -54.3193, 4.59639, -174.293, 4.59267, 65.7374, 0.00757436, 5.47404
1, 2280.00000, 126.25, -31.2454, 126.153, -151.219, 126.255, 88.8113, 0, 0, 4.59284, -54.3193, 4.59639, -174.293, 4.59267, 65.7374, 0.00757436, 5.47404
1, 2340.00000, 126.25, -31.2454, 126.153, -151.219, 126.255, 88.8113, 0, 0, 4.59284, -54.3193, 4.59639, -174.293, 4.59267, 65.7374, 0.00757436, 5.47404
1, 2400.00000, 126.25, -31.2454, 126.153, -151.219, 126.255, 88.8113, 0, 0, 4.59284, -54.3193, 4.59639, -174.293, 4.59267, 65.7374, 0.00757436, 5.47404
1, 2460.00000, 126.25, -31.2454, 126.153, -151.219, 126.255, 88.8113, 0, 0, 4.59284, -54.3193, 4.59639, -174.293, 4.59267, 65.7374, 0.00757436, 5.47404
1, 2520.00000, 126.25, -31.2454, 126.153, -151.219, 126.255, 88.8113, 0, 0, 4.59284, -54.3193, 4.59639, -174.293, 4.59267, 65.7374, 0.00757436, 5.47404
1, 2580.00000, 126.25, -31.2454, 126.153, -151.219, 126.255, 88.8113, 0, 0, 4.59284, -54.3193, 4.59639, -174.293, 4.59267, 65.7374, 0.00757436, 5.47404
1, 2640.00000, 126.25, -31.2454, 126.153, -151.219, 126.255, 88.8113, 0, 0, 4.59284, -54.3193, 4.59639, -174.293, 4.59267, 65.7374, 0.00757436, 5.47404
1, 2700.00000, 126.25, -31.2454, 126.153, -151.219, 126.255, 88.8113, 0, 0, 4.59284, -54.3193, 4.59639, -174.293, 4.59267, 65.7374, 0.00757436, 5.47404
1, 2760.00000, 126.25, -31.2454, 126.153, -151.219, 126.255, 88.8113, 0, 0, 4.59284, -54.3193, 4.59639, -174.293, 4.59267, 65.7374, 0.00757436, 5.47404
1, 2820.00000, 126.25, -31.2454, 126.153, -151.219, 126.255, 88.8113, 0, 0, 4.59284, -54.3193, 4.59639, -174.293, 4.59267, 65.7374, 0.00757436, 5.47404
1, 2880.00000, 126.25, -31.2454, 126.153, -151.219, 126.255, 88.8113, 0, 0, 4.59284, -54.3193, 4.59639, -174.293, 4.59267, 65.7374, 0.00757436, 5.47404
1, 2940.00000, 126.25, -31.2454, 126.153, -151.219, 126.255, 88.8113, 0, 0, 4.59284, -54.3193, 4.59639, -174.293, 4.59267, 65.7374, 0.00757436, 5.47404
1, 3000.00000, 126.25, -31.2454, 126.153, -151.219, 126.255, 88.8113, 0, 0, 4.59284, -54.3193, 4.59639, -174.293, 4.59267, 65.7374, 0.00757436, 5.47404
1, 3060.00000, 126.25, -31.2454, 126.153, -151.219, 126.255, 88.8113, 0, 0, 4.59284, -54.3193, 4.59639, -174.293, 4.59267, 65.7374, 0.00757436, 5.47404
1, 3120.00000, 126.25, -31.2454, 126.153, -151.219, 126.255, 88.8113, 0, 0, 4.59284, -54.3193, 4.59639, -174.293, 4.59267, 65.7374, 0.00757436, 5.47404
1, 3180.00000, 126.25, -31.2454, 126.153, -151.219, 126.255, 88.8113, 0, 0, 4.59284, -54.3193, 4.59639, -174.293, 4.59267, 65.7374, 0.00757436, 5.47404
1, 3240.00000, 126.25, -31.2454, 126.153, -151.219, 126.255, 88.8113, 0, 0, 4.59284, -54.3193, 4.59639, -174.293, 4.59267, 65.7374, 0.00757436, 5.47404
1, 3300.00000, 126.25, -31.2454, 126.153, -151.219, 126.255, 88.8113, 0, 0, 4.59284, -54.3193, 4.59639, -174.293, 4.59267, 65.7374, 0.00757436, 5.47404
1, 3360.00000, 126.25, -31.2454, 126.153, -151.219, 126.255, 88.8113, 0, 0, 4.59284, -54.3193, 4.59639, -174.293, 4.59267, 65.7374, 0.00757436, 5.47404
1, 3420.00000, 126.25, -31.2454, 126.153, -151.219, 126.255, 88.8113, 0, 0, 4.59284, -54.3193, 4.59639, -174.293, 4.59267, 65.7374, 0.00757436, 5.47404
1, 3480.00000, 126.25, -31.2454, 126.153, -151.219, 126.255, 88.8113, 0, 0, 4.59284, -54.3193, 4.59639, -174.293, 4.59267, 65.7374, 0.00757436, 5.47404
1, 3540.00000, 126.25, -31.2454, 126.153, -151.219, 126.255, 88.8113, 0, 0, 4.59284, -54.3193, 4.59639, -174.293, 4.59267, 65.7374, 0.00757436, 5.47404
2, 0.00000, 126.25, -31.2454, 126.153, -151.219, 126.255, 88.8113, 0, 0, 4.59284, -54.3193, 4.59639, -174.293, 4.59267, 65.7374, 0.00757436, 5.47404
2, 60.00000, 126.25, -31.2454, 126.153, -151.219, 126.255, 88.8113, 0, 0, 4.59284, -54.3193, 4.59639, -174.293, 4.59267, 65.7374, 0.00757436, 5.47404
2, 120.00000, 126.25, -31.2454, 126.153, -151.219, 126.255, 88.8113, 0, 0, 4.59284, -54.3193, 4.59639, -174.293, 4.59267, 65.7374, 0.00757436, 5.47404
2, 180.00000, 126.25, -31.2454, 126.153, -151.219, 126.255, 88.8113, 0, 0, 4.59284, -54.3193, 4.59639, -174.293, 4.59267, 65.7374, 0.00757436, 5.47404
2, 240.00000, 126.25, -31.2454, 126.153, -151.219, 126.255, 88.8113, 0, 0, 4.59284, -54.3193, 4.59639, -174.293, 4.59267, 65.7374, 0.00757436, 5.47404
2, 300.00000, 126.25, -31.2454, 126.153, -151.219, 126.255, 88.8113, 0, 0, 4.59284, -54.3193, 4.59639, -174.293, 4.59267, 65.7374, 0.00757436, 5.47404
2, 360.00000, 126.25, -31.2454, 126.153, -151.219, 126.255, 88.8113, 0, 0, 4.59284, -54.3193, 4.59639, -174.293, 4.59267, 65.7374, 0.00757436, 5.47404
2, 420.00000, 126.25, -31.2454, 126.153, -151.219, 126.255, 88.8113, 0, 0, 4.59284, -54.3193, 4.59639, -174.293, 4.59267, 65.7374, 0.00757436, 5.47404
2, 480.00000, 126.25, -31.2454, 126.153, -151.219, 126.255, 88.8113, 0, 0, 4.59284, -54.3193, 4.59639, -174.293, 4.59267, 65.7374, 0.00757436, 5.47404
2, 540.00000, 126.25, -31.2454, 126.153, -151.219, 126.255, 88.8113, 0, 0, 4.59284, -54.3193, 4.59639, -174.293, 4.59267, 65.7374, 0.00757436, 5.47404
2, 600.00000, 126.25, -31.2454, 126.153, -151.219, 126.255, 88.8113, 0, 0, 4.59284, -54.3193, 4.59639, -174.293, 4.59267, 65.7374, 0.00757436, 5.47404
2, 660.00000, 126.25, -31.2454, 126.153, -151.219, 126.255, 88.8113, 0, 0, 4.59284, -54.3193, 4.59639, -174.293, 4.59267, 65.7374, 0.00757436, 5.47404
