hour,t(sec),"P1 (kW)","Q1 (kvar)","P2 (kW)","Q2 (kvar)","P3 (kW)","Q3 (kvar)","P4 (kW)","Q4 (kvar)"
0, 60.00000, 0.674733, 0.287434, 0.695909, 0.296452, 0.675881, 0.287921, 0, 0
0, 120.00000, 0.674731, 0.287434, 0.695897, 0.296451, 0.675877, 0.287923, 0, 0
0, 180.00000, 0.674731, 0.287434, 0.695897, 0.296451, 0.675877, 0.287923, 0, 0
0, 240.00000, 0.674731, 0.287434, 0.695897, 0.296451, 0.675877, 0.287923, 0, 0
0, 300.00000, 0.674731, 0.287434, 0.695897, 0.296451, 0.675877, 0.287923, 0, 0
0, 360.00000, 0.674731, 0.287434, 0.695897, 0.296451, 0.675877, 0.287923, 0, 0
0, 420.00000, 0.674731, 0.287434, 0.695897, 0.296451, 0.675877, 0.287923, 0, 0
0, 480.00000, 0.674731, 0.287434, 0.695897, 0.296451, 0.675877, 0.287923, 0, 0
0, 540.00000, 0.674731, 0.287434, 0.695897, 0.296451, 0.675877, 0.287923, 0, 0
0, 600.00000, 0.674731, 0.287434, 0.695897, 0.296451, 0.675877, 0.287923, 0, 0
0, 660.00000, 0.674731, 0.287434, 0.695897, 0.296451, 0.675877, 0.287923, 0, 0
0, 720.00000, 0.674731, 0.287434, 0.695897, 0.296451, 0.675877, 0.287923, 0, 0
0, 780.00000, 0.674731, 0.287434, 0.695897, 0.296451, 0.675877, 0.287923, 0, 0
0, 840.00000, 0.674731, 0.287434, 0.695897, 0.296451, 0.675877, 0.287923, 0, 0
0, 900.00000, 0.674731, 0.287434, 0.695897, 0.296451, 0.675877, 0.287923, 0, 0
0, 960.00000, 0.709713, 0.302336, 0.729523, 0.310773, 0.712153, 0.303375, 0, 0
0, 1020.00000, 0.709711, 0.302336, 0.729515, 0.310772, 0.712152, 0.303376, 0, 0
0, 1080.00000, 0.709711, 0.302336, 0.729514, 0.310772, 0.712152, 0.303376, 0, 0
0, 1140.00000, 0.709711, 0.302336, 0.729514, 0.310772, 0.712152, 0.303376, 0, 0
0, 1200.00000, 0.709711, 0.302336, 0.729514, 0.310772, 0.712152, 0.303376, 0, 0
0, 1260.00000, 0.709711, 0.302336, 0.729514, 0.310772, 0.712152, 0.303376, 0, 0
0, 1320.00000, 0.709711, 0.302336, 0.729514, 0.310772, 0.712152, 0.303376, 0, 0
0, 1380.00000, 0.709711, 0.302336, 0.729514, 0.310772, 0.712152, 0.303376, 0, 0
0, 1440.00000, 0.709711, 0.302336, 0.729514, 0.310772, 0.712152, 0.303376, 0, 0
0, 1500.00000, 0.709711, 0.302336, 0.729514, 0.310772, 0.712152, 0.303376, 0, 0
0, 1560.00000, 0.709711, 0.302336, 0.729514, 0.310772, 0.712152, 0.303376, 0, 0
0, 1620.00000, 0.709711, 0.302336, 0.729514, 0.310772, 0.712152, 0.303376, 0, 0
0, 1680.00000, 0.709711, 0.302336, 0.729514, 0.310772, 0.712152, 0.303376, 0, 0
0, 1740.00000, 0.709711, 0.302336, 0.729514, 0.310772, 0.712152, 0.303376, 0, 0
0, 1800.00000, 0.709711, 0.302336, 0.729514, 0.310772, 0.712152, 0.303376, 0, 0
0, 1860.00000, 0.713766, 0.304066, 0.733581, 0.312516, 0.716049, 0.305045, 0, 0
0, 1920.00000, 0.713773, 0.304066, 0.733616, 0.312519, 0.716054, 0.305038, 0, 0
0, 1980.00000, 0.713773, 0.304066, 0.733616, 0.312519, 0.716054, 0.305038, 0, 0
0, 2040.00000, 0.713773, 0.304066, 0.733616, 0.312519, 0.716054, 0.305038, 0, 0
0, 2100.00000, 0.713773, 0.304066, 0.733616, 0.312519, 0.716054, 0.305038, 0, 0
0, 2160.00000, 0.713773, 0.304066, 0.733616, 0.312519, 0.716054, 0.305038, 0, 0
0, 2220.00000, 0.713773, 0.304066, 0.733616, 0.312519, 0.716054, 0.305038, 0, 0
0, 2280.00000, 0.713773, 0.304066, 0.733616, 0.312519, 0.716054, 0.305038, 0, 0
0, 2340.00000, 0.713773, 0.304066, 0.733616, 0.312519, 0.716054, 0.305038, 0, 0
0, 2400.00000, 0.713773, 0.304066, 0.733616, 0.312519, 0.716054, 0.305038, 0, 0
0, 2460.00000, 0.713773, 0.304066, 0.733616, 0.312519, 0.716054, 0.305038, 0, 0
0, 2520.00000, 0.713773, 0.304066, 0.733616, 0.312519, 0.716054, 0.305038, 0, 0
0, 2580.00000, 0.713773, 0.304066, 0.733616, 0.312519, 0.716054, 0.305038, 0, 0
0, 2640.00000, 0.713773, 0.304066, 0.733616, 0.312519, 0.716054, 0.305038, 0, 0
0, 2700.00000, 0.713773, 0.304066, 0.733616, 0.312519, 0.716054, 0.305038, 0, 0
0, 2760.00000, 0.682916, 0.290922, 0.701754, 0.298947, 0.684774, 0.291713, 0, 0
0, 2820.00000, 0.682918, 0.290922, 0.701758, 0.298948, 0.684775, 0.291713, 0, 0
0, 2880.00000, 0.682918, 0.290922, 0.701758, 0.298948, 0.684775, 0.291713, 0, 0
0, 2940.00000, 0.682918, 0.290922, 0.701758, 0.298948, 0.684775, 0.291713, 0, 0
0, 3000.00000, 0.682918, 0.290922, 0.701758, 0.298948, 0.684775, 0.291713, 0, 0
0, 3060.00000, 0.682918, 0.290922, 0.701758, 0.298948, 0.684775, 0.291713, 0, 0
0, 3120.00000, 0.682918, 0.290922, 0.701758, 0.298948, 0.684775, 0.291713, 0, 0
0, 3180.00000, 0.682918, 0.290922, 0.701758, 0.298948, 0.684775, 0.291713, 0, 0
0, 3240.00000, 0.682918, 0.290922, 0.701758, 0.298948, 0.684775, 0.291713, 0, 0
0, 3300.00000, 0.682918, 0.290922, 0.701758, 0.298948, 0.684775, 0.291713, 0, 0
0, 3360.00000, 0.682918, 0.290922, 0.701758, 0.298948, 0.684775, 0.291713, 0, 0
0, 3420.00000, 0.682918, 0.290922, 0.701758, 0.298948, 0.684775, 0.291713, 0, 0
0, 3480.00000, 0.682912, 0.290919, 0.702904, 0.299437, 0.688285, 0.293212, 0, 0
0, 3540.00000, 0.683882, 0.291332, 0.706407, 0.300931, 0.688289, 0.293211, 0, 0
1, 0.00000, 0.683882, 0.291333, 0.706416, 0.300932, 0.688288, 0.29321, 0, 0
1, 60.00000, 0.678821, 0.289188, 0.700909, 0.298603, 0.682967, 0.290966, 0, 0
1, 120.00000, 0.678844, 0.289186, 0.700862, 0.298566, 0.68301, 0.290961, 0, 0
1, 180.00000, 0.678844, 0.289186, 0.700862, 0.298566, 0.68301, 0.290961, 0, 0
1, 240.00000, 0.678844, 0.289186, 0.700862, 0.298566, 0.68301, 0.290961, 0, 0
1, 300.00000, 0.678844, 0.289186, 0.700862, 0.298566, 0.68301, 0.290961, 0, 0
1, 360.00000, 0.678844, 0.289186, 0.700862, 0.298566, 0.68301, 0.290961, 0, 0
1, 420.00000, 0.678844, 0.289186, 0.700862, 0.298566, 0.68301, 0.290961, 0, 0
1, 480.00000, 0.678844, 0.289186, 0.700862, 0.298566, 0.68301, 0.290961, 0, 0
1, 540.00000, 0.678844, 0.289186, 0.700862, 0.298566, 0.68301, 0.290961, 0, 0
1, 600.00000, 0.679028, 0.289259, 0.700887, 0.298582, 0.688394, 0.293267, 0, 0
1, 660.00000, 0.679022, 0.289262, 0.700862, 0.298566, 0.688412, 0.293263, 0, 0
1, 720.00000, 0.679022, 0.289262, 0.700862, 0.298566, 0.688412, 0.293262, 0, 0
1, 780.00000, 0.679022, 0.289262, 0.700862, 0.298566, 0.688412, 0.293262, 0, 0
1, 840.00000, 0.679022, 0.289262, 0.700862, 0.298566, 0.688412, 0.293262, 0, 0
1, 900.00000, 0.679022, 0.289262, 0.700862, 0.298566, 0.688412, 0.293262, 0, 0
1, 960.00000, 0.676147, 0.288036, 0.697598, 0.297181, 0.685468, 0.292015, 0, 0
1, 1020.00000, 0.676151, 0.288039, 0.697581, 0.297168, 0.685475, 0.292011, 0, 0
1, 1080.00000, 0.676151, 0.288039, 0.697581, 0.297168, 0.685475, 0.292011, 0, 0
1, 1140.00000, 0.676151, 0.288039, 0.697581, 0.297168, 0.685475, 0.292011, 0, 0
1, 1200.00000, 0.676151, 0.288039, 0.697581, 0.297168, 0.685475, 0.292011, 0, 0
1, 1260.00000, 0.676151, 0.288039, 0.697581, 0.297168, 0.685475, 0.292011, 0, 0
1, 1320.00000, 0.676151, 0.288039, 0.697581, 0.297168, 0.685475, 0.292011, 0, 0
1, 1380.00000, 0.676151, 0.288039, 0.697581, 0.297168, 0.685475, 0.292011, 0, 0
1, 1440.00000, 0.676151, 0.288039, 0.697581, 0.297168, 0.685475, 0.292011, 0, 0
1, 1500.00000, 0.676151, 0.288039, 0.697581, 0.297168, 0.685475, 0.292011, 0, 0
1, 1560.00000, 0.676151, 0.288039, 0.697581, 0.297168, 0.685475, 0.292011, 0, 0
1, 1620.00000, 0.676151, 0.288039, 0.697581, 0.297168, 0.685475, 0.292011, 0, 0
1, 1680.00000, 0.676151, 0.288039, 0.697581, 0.297168, 0.685475, 0.292011, 0, 0
1, 1740.00000, 0.676151, 0.288039, 0.697581, 0.297168, 0.685475, 0.292011, 0, 0
1, 1800.00000, 0.676151, 0.288039, 0.697581, 0.297168, 0.685475, 0.292011, 0, 0
1, 1860.00000, 0.710046, 0.302498, 0.714381, 0.304307, 0.714455, 0.304358, 0, 0
1, 1920.00000, 0.710058, 0.302484, 0.714405, 0.304335, 0.714406, 0.304336, 0, 0
1, 1980.00000, 0.710058, 0.302483, 0.714405, 0.304335, 0.714405, 0.304335, 0, 0
1, 2040.00000, 0.710058, 0.302483, 0.714405, 0.304335, 0.714405, 0.304335, 0, 0
1, 2100.00000, 0.710058, 0.302483, 0.714405, 0.304335, 0.714405, 0.304335, 0, 0
1, 2160.00000, 0.710058, 0.302483, 0.714405, 0.304335, 0.714405, 0.304335, 0, 0
1, 2220.00000, 0.710058, 0.302483, 0.714405, 0.304335, 0.714405, 0.304335, 0, 0
1, 2280.00000, 0.710058, 0.302483, 0.714405, 0.304335, 0.714405, 0.304335, 0, 0
1, 2340.00000, 0.710058, 0.302483, 0.714405, 0.304335, 0.714405, 0.304335, 0, 0
1, 2400.00000, 0.710058, 0.302483, 0.714405, 0.304335, 0.714405, 0.304335, 0, 0
1, 2460.00000, 0.710058, 0.302483, 0.714405, 0.304335, 0.714405, 0.304335, 0, 0
1, 2520.00000, 0.710058, 0.302483, 0.714405, 0.304335, 0.714405, 0.304335, 0, 0
1, 2580.00000, 0.710058, 0.302483, 0.714405, 0.304335, 0.714405, 0.304335, 0, 0
1, 2640.00000, 0.710058, 0.302483, 0.714405, 0.304335, 0.714405, 0.304335, 0, 0
1, 2700.00000, 0.710058, 0.302483, 0.714405, 0.304335, 0.714405, 0.304335, 0, 0
1, 2760.00000, 0.673196, 0.286781, 0.673211, 0.286785, 0.673216, 0.286801, 0, 0
1, 2820.00000, 0.673186, 0.286776, 0.673186, 0.286776, 0.673186, 0.286776, 0, 0
1, 2880.00000, 0.673186, 0.286776, 0.673186, 0.286776, 0.673186, 0.286776, 0, 0
1, 2940.00000, 0.673186, 0.286776, 0.673186, 0.286776, 0.673186, 0.286776, 0, 0
1, 3000.00000, 0.673186, 0.286776, 0.673186, 0.286776, 0.673186, 0.286776, 0, 0
1, 3060.00000, 0.673186, 0.286776, 0.673186, 0.286776, 0.673186, 0.286776, 0, 0
1, 3120.00000, 0.673186, 0.286776, 0.673186, 0.286776, 0.673186, 0.286776, 0, 0
1, 3180.00000, 0.673186, 0.286776, 0.673186, 0.286776, 0.673186, 0.286776, 0, 0
1, 3240.00000, 0.673186, 0.286776, 0.673186, 0.286776, 0.673186, 0.286776, 0, 0
1, 3300.00000, 0.673186, 0.286776, 0.673186, 0.286776, 0.673186, 0.286776, 0, 0
1, 3360.00000, 0.673186, 0.286776, 0.673186, 0.286776, 0.673186, 0.286776, 0, 0
1, 3420.00000, 0.673186, 0.286776, 0.673186, 0.286776, 0.673186, 0.286776, 0, 0
1, 3480.00000, 0.673186, 0.286776, 0.673186, 0.286776, 0.673186, 0.286776, 0, 0
1, 3540.00000, 0.673186, 0.286776, 0.673186, 0.286776, 0.673186, 0.286776, 0, 0
2, 0.00000, 0.673186, 0.286776, 0.673186, 0.286776, 0.673186, 0.286776, 0, 0
2, 60.00000, 0.689205, 0.2936, 0.691233, 0.294467, 0.691233, 0.294454, 0, 0
2, 120.00000, 0.689204, 0.2936, 0.691251, 0.294472, 0.691251, 0.294471, 0, 0
2, 180.00000, 0.689204, 0.2936, 0.691251, 0.294472, 0.691251, 0.294472, 0, 0
2, 240.00000, 0.689204, 0.2936, 0.691251, 0.294472, 0.691251, 0.294472, 0, 0
2, 300.00000, 0.689204, 0.2936, 0.691251, 0.294472, 0.691251, 0.294472, 0, 0
2, 360.00000, 0.689204, 0.2936, 0.691251, 0.294472, 0.691251, 0.294472, 0, 0
2, 420.00000, 0.689204, 0.2936, 0.691251, 0.294472, 0.691251, 0.294472, 0, 0
2, 480.00000, 0.689204, 0.2936, 0.691251, 0.294472, 0.691251, 0.294472, 0, 0
2, 540.00000, 0.689204, 0.2936, 0.691251, 0.294472, 0.691251, 0.294472, 0, 0
2, 600.00000, 0.689204, 0.2936, 0.691251, 0.294472, 0.691251, 0.294472, 0, 0
2, 660.00000, 0.689204, 0.2936, 0.691251, 0.294472, 0.691251, 0.294472, 0, 0
2, 720.00000, 0.689204, 0.2936, 0.691251, 0.294472, 0.691251, 0.294472, 0, 0
2, 780.00000, 0.689204, 0.2936, 0.691251, 0.294472, 0.691251, 0.294472, 0, 0
2, 840.00000, 0.689204, 0.2936, 0.691251, 0.294472, 0.691251, 0.294472, 0, 0
2, 900.00000, 0.689204, 0.2936, 0.691251, 0.294472, 0.691251, 0.294472, 0, 0
2, 960.00000, 0.654975, 0.27902, 0.65498, 0.27902, 0.654986, 0.279031, 0, 0
2, 1020.00000, 0.654965, 0.279014, 0.654965, 0.279014, 0.654965, 0.279014, 0, 0
2, 1080.00000, 0.654964, 0.279014, 0.654964, 0.279014, 0.654965, 0.279014, 0, 0
2, 1140.00000, 0.654964, 0.279014, 0.654964, 0.279014, 0.654964, 0.279014, 0, 0
2, 1200.00000, 0.654964, 0.279014, 0.654964, 0.279014, 0.654964, 0.279014, 0, 0
2, 1260.00000, 0.654964, 0.279014, 0.654964, 0.279014, 0.654964, 0.279014, 0, 0
2, 1320.00000, 0.654964, 0.279014, 0.654964, 0.279014, 0.654964, 0.279014, 0, 0
2, 1380.00000, 0.654964, 0.279014, 0.654964, 0.279014, 0.654964, 0.279014, 0, 0
2, 1440.00000, 0.654964, 0.279014, 0.654964, 0.279014, 0.654964, 0.279014, 0, 0
2, 1500.00000, 0.654964, 0.279014, 0.654964, 0.279014, 0.654964, 0.279014, 0, 0
2, 1560.00000, 0.654964, 0.279014, 0.654964, 0.279014, 0.654964, 0.279014, 0, 0
2, 1620.00000, 0.654964, 0.279014, 0.654964, 0.279014, 0.654964, 0.279014, 0, 0
2, 1680.00000, 0.654964, 0.279014, 0.654964, 0.279014, 0.654964, 0.279014, 0, 0
2, 1740.00000, 0.654964, 0.279014, 0.654964, 0.279014, 0.654964, 0.279014, 0, 0
2, 1800.00000, 0.654964, 0.279014, 0.654964, 0.279014, 0.654964, 0.279014, 0, 0
2, 1860.00000, 0.654599, 0.278857, 0.654602, 0.278859, 0.654597, 0.278855, 0, 0
2, 1920.00000, 0.654606, 0.278861, 0.654606, 0.278861, 0.654606, 0.278861, 0, 0
2, 1980.00000, 0.654606, 0.278861, 0.654606, 0.278861, 0.654606, 0.278861, 0, 0
2, 2040.00000, 0.654606, 0.278861, 0.654606, 0.278861, 0.654606, 0.278861, 0, 0
2, 2100.00000, 0.654606, 0.278861, 0.654606, 0.278861, 0.654606, 0.278861, 0, 0
2, 2160.00000, 0.654606, 0.278861, 0.654606, 0.278861, 0.654606, 0.278861, 0, 0
2, 2220.00000, 0.654606, 0.278861, 0.654606, 0.278861, 0.654606, 0.278861, 0, 0
2, 2280.00000, 0.654606, 0.278861, 0.654606, 0.278861, 0.654606, 0.278861, 0, 0
2, 2340.00000, 0.654606, 0.278861, 0.654606, 0.278861, 0.654606, 0.278861, 0, 0
2, 2400.00000, 0.654606, 0.278861, 0.654606, 0.278861, 0.654606, 0.278861, 0, 0
2, 2460.00000, 0.654606, 0.278861, 0.654606, 0.278861, 0.654606, 0.278861, 0, 0
2, 2520.00000, 0.654606, 0.278861, 0.654606, 0.278861, 0.654606, 0.278861, 0, 0
2, 2580.00000, 0.654606, 0.278861, 0.654606, 0.278861, 0.654606, 0.278861, 0, 0
2, 2640.00000, 0.654606, 0.278861, 0.654606, 0.278861, 0.654606, 0.278861, 0, 0
2, 2700.00000, 0.654606, 0.278861, 0.654606, 0.278861, 0.654606, 0.278861, 0, 0
2, 2760.00000, 0.626321, 0.266816, 0.626316, 0.266811, 0.626326, 0.26682, 0, 0
2, 2820.00000, 0.626301, 0.266803, 0.626301, 0.266803, 0.626302, 0.266804, 0, 0
2, 2880.00000, 0.626301, 0.266803, 0.626301, 0.266803, 0.626301, 0.266803, 0, 0
2, 2940.00000, 0.626301, 0.266803, 0.626301, 0.266803, 0.626301, 0.266803, 0, 0
2, 3000.00000, 0.626301, 0.266803, 0.626301, 0.266803, 0.626301, 0.266803, 0, 0
2, 3060.00000, 0.626301, 0.266803, 0.626301, 0.266803, 0.626301, 0.266803, 0, 0
2, 3120.00000, 0.626301, 0.266803, 0.626301, 0.266803, 0.626301, 0.266803, 0, 0
2, 3180.00000, 0.626301, 0.266803, 0.626301, 0.266803, 0.626301, 0.266803, 0, 0
2, 3240.00000, 0.626301, 0.266803, 0.626301, 0.266803, 0.626301, 0.266803, 0, 0
2, 3300.00000, 0.626301, 0.266803, 0.626301, 0.266803, 0.626301, 0.266803, 0, 0
2, 3360.00000, 0.626301, 0.266803, 0.626301, 0.266803, 0.626301, 0.266803, 0, 0
2, 3420.00000, 0.626301, 0.266803, 0.626301, 0.266803, 0.626301, 0.266803, 0, 0
2, 3480.00000, 0.626301, 0.266803, 0.626301, 0.266803, 0.626301, 0.266803, 0, 0
2, 3540.00000, 0.626301, 0.266803, 0.626301, 0.266803, 0.626301, 0.266803, 0, 0
3, 0.00000, 0.626301, 0.266803, 0.626301, 0.266803, 0.626301, 0.266803, 0, 0
3, 60.00000, 0.642215, 0.27358, 0.642218, 0.273583, 0.642213, 0.273578, 0, 0
3, 120.00000, 0.642227, 0.273588, 0.642227, 0.273588, 0.642227, 0.273587, 0, 0
3, 180.00000, 0.642227, 0.273588, 0.642227, 0.273588, 0.642227, 0.273588, 0, 0
3, 240.00000, 0.642227, 0.273588, 0.642227, 0.273588, 0.642227, 0.273588, 0, 0
3, 300.00000, 0.642227, 0.273588, 0.642227, 0.273588, 0.642227, 0.273588, 0, 0
3, 360.00000, 0.642227, 0.273588, 0.642227, 0.273588, 0.642227, 0.273588, 0, 0
3, 420.00000, 0.642227, 0.273588, 0.642227, 0.273588, 0.642227, 0.273588, 0, 0
3, 480.00000, 0.642227, 0.273588, 0.642227, 0.273588, 0.642227, 0.273588, 0, 0
3, 540.00000, 0.642227, 0.273588, 0.642227, 0.273588, 0.642227, 0.273588, 0, 0
3, 600.00000, 0.642227, 0.273588, 0.642227, 0.273588, 0.642227, 0.273588, 0, 0
3, 660.00000, 0.642227, 0.273588, 0.642227, 0.273588, 0.642227, 0.273588, 0, 0
3, 720.00000, 0.642227, 0.273588, 0.642227, 0.273588, 0.642227, 0.273588, 0, 0
3, 780.00000, 0.642227, 0.273588, 0.642227, 0.273588, 0.642227, 0.273588, 0, 0
3, 840.00000, 0.642227, 0.273588, 0.642227, 0.273588, 0.642227, 0.273588, 0, 0
3, 900.00000, 0.642227, 0.273588, 0.642227, 0.273588, 0.642227, 0.273588, 0, 0
3, 960.00000, 0.6599, 0.281121, 0.659895, 0.281118, 0.659901, 0.281124, 0, 0
3, 1020.00000, 0.659873, 0.281105, 0.659873, 0.281105, 0.659874, 0.281105, 0, 0
3, 1080.00000, 0.659873, 0.281105, 0.659873, 0.281105, 0.659873, 0.281105, 0, 0
3, 1140.00000, 0.659873, 0.281105, 0.659873, 0.281105, 0.659873, 0.281105, 0, 0
3, 1200.00000, 0.659873, 0.281105, 0.659873, 0.281105, 0.659873, 0.281105, 0, 0
3, 1260.00000, 0.659873, 0.281105, 0.659873, 0.281105, 0.659873, 0.281105, 0, 0
3, 1320.00000, 0.659873, 0.281105, 0.659873, 0.281105, 0.659873, 0.281105, 0, 0
3, 1380.00000, 0.659873, 0.281105, 0.659873, 0.281105, 0.659873, 0.281105, 0, 0
3, 1440.00000, 0.659873, 0.281105, 0.659873, 0.281105, 0.659873, 0.281105, 0, 0
3, 1500.00000, 0.659873, 0.281105, 0.659873, 0.281105, 0.659873, 0.281105, 0, 0
3, 1560.00000, 0.659873, 0.281105, 0.659873, 0.281105, 0.659873, 0.281105, 0, 0
3, 1620.00000, 0.659873, 0.281105, 0.659873, 0.281105, 0.659873, 0.281105, 0, 0
3, 1680.00000, 0.659873, 0.281105, 0.659873, 0.281105, 0.659873, 0.281105, 0, 0
3, 1740.00000, 0.659873, 0.281105, 0.659873, 0.281105, 0.659873, 0.281105, 0, 0
3, 1800.00000, 0.659873, 0.281105, 0.659873, 0.281105, 0.659873, 0.281105, 0, 0
3, 1860.00000, 0.667973, 0.284557, 0.667964, 0.284555, 0.667967, 0.284558, 0, 0
3, 1920.00000, 0.667942, 0.284542, 0.667942, 0.284542, 0.667942, 0.284542, 0, 0
3, 1980.00000, 0.667942, 0.284542, 0.667942, 0.284542, 0.667942, 0.284542, 0, 0
3, 2040.00000, 0.667942, 0.284542, 0.667942, 0.284542, 0.667942, 0.284542, 0, 0
3, 2100.00000, 0.667942, 0.284542, 0.667942, 0.284542, 0.667942, 0.284542, 0, 0
3, 2160.00000, 0.667942, 0.284542, 0.667942, 0.284542, 0.667942, 0.284542, 0, 0
3, 2220.00000, 0.667942, 0.284542, 0.667942, 0.284542, 0.667942, 0.284542, 0, 0
3, 2280.00000, 0.667942, 0.284542, 0.667942, 0.284542, 0.667942, 0.284542, 0, 0
3, 2340.00000, 0.667942, 0.284542, 0.667942, 0.284542, 0.667942, 0.284542, 0, 0
3, 2400.00000, 0.667942, 0.284542, 0.667942, 0.284542, 0.667942, 0.284542, 0, 0
3, 2460.00000, 0.667942, 0.284542, 0.667942, 0.284542, 0.667942, 0.284542, 0, 0
3, 2520.00000, 0.667942, 0.284542, 0.667942, 0.284542, 0.667942, 0.284542, 0, 0
3, 2580.00000, 0.667942, 0.284542, 0.667942, 0.284542, 0.667942, 0.284542, 0, 0
3, 2640.00000, 0.667942, 0.284542, 0.667942, 0.284542, 0.667942, 0.284542, 0, 0
3, 2700.00000, 0.667942, 0.284542, 0.667942, 0.284542, 0.667942, 0.284542, 0, 0
3, 2760.00000, 0.611237, 0.26039, 0.61123, 0.260386, 0.611238, 0.260392, 0, 0
3, 2820.00000, 0.611217, 0.260377, 0.611217, 0.260377, 0.611217, 0.260378, 0, 0
3, 2880.00000, 0.611217, 0.260377, 0.611217, 0.260377, 0.611217, 0.260377, 0, 0
3, 2940.00000, 0.611217, 0.260377, 0.611217, 0.260377, 0.611217, 0.260377, 0, 0
3, 3000.00000, 0.611217, 0.260377, 0.611217, 0.260377, 0.611217, 0.260377, 0, 0
3, 3060.00000, 0.611217, 0.260377, 0.611217, 0.260377, 0.611217, 0.260377, 0, 0
3, 3120.00000, 0.611217, 0.260377, 0.611217, 0.260377, 0.611217, 0.260377, 0, 0
3, 3180.00000, 0.611217, 0.260377, 0.611217, 0.260377, 0.611217, 0.260377, 0, 0
3, 3240.00000, 0.611217, 0.260377, 0.611217, 0.260377, 0.611217, 0.260377, 0, 0
3, 3300.00000, 0.611217, 0.260377, 0.611217, 0.260377, 0.611217, 0.260377, 0, 0
3, 3360.00000, 0.611217, 0.260377, 0.611217, 0.260377, 0.611217, 0.260377, 0, 0
3, 3420.00000, 0.611217, 0.260377, 0.611217, 0.260377, 0.611217, 0.260377, 0, 0
3, 3480.00000, 0.611217, 0.260377, 0.611217, 0.260377, 0.611217, 0.260377, 0, 0
3, 3540.00000, 0.611217, 0.260377, 0.611217, 0.260377, 0.611217, 0.260377, 0, 0
4, 0.00000, 0.611217, 0.260377, 0.611217, 0.260377, 0.611217, 0.260377, 0, 0
4, 60.00000, 0.653847, 0.278535, 0.653852, 0.278538, 0.653846, 0.278533, 0, 0
4, 120.00000, 0.653861, 0.278543, 0.653861, 0.278544, 0.653861, 0.278543, 0, 0
4, 180.00000, 0.653861, 0.278544, 0.653861, 0.278544, 0.653861, 0.278544, 0, 0
4, 240.00000, 0.653861, 0.278544, 0.653861, 0.278544, 0.653861, 0.278544, 0, 0
4, 300.00000, 0.653861, 0.278544, 0.653861, 0.278544, 0.653861, 0.278544, 0, 0
4, 360.00000, 0.653861, 0.278544, 0.653861, 0.278544, 0.653861, 0.278544, 0, 0
4, 420.00000, 0.653861, 0.278544, 0.653861, 0.278544, 0.653861, 0.278544, 0, 0
4, 480.00000, 0.653861, 0.278544, 0.653861, 0.278544, 0.653861, 0.278544, 0, 0
4, 540.00000, 0.653861, 0.278544, 0.653861, 0.278544, 0.653861, 0.278544, 0, 0
4, 600.00000, 0.653861, 0.278544, 0.653861, 0.278544, 0.653861, 0.278544, 0, 0
