hour,t(sec),V1,VAngle1,V2,VAngle2,V3,VAngle3,V4,VAngle4,I1,IAngle1,I2,IAngle2,I3,IAngle3,I4,IAngle4
0, 60.00000, 122.929, -31.573, 122.971, -150.986, 124.466, 88.7191, 0, 0, 3.18143, -54.6465, 3.18036, -174.06, 3.14215, 65.6457, 0.0669081, 66.4817
0, 120.00000, 122.929, -31.573, 122.97, -150.986, 124.465, 88.7191, 0, 0, 3.18147, -54.6469, 3.18041, -174.06, 3.14221, 65.6451, 0.0669092, 66.4941
0, 180.00000, 122.929, -31.573, 122.97, -150.986, 124.465, 88.7191, 0, 0, 3.18147, -54.6469, 3.18041, -174.06, 3.14221, 65.6451, 0.0669087, 66.4944
0, 240.00000, 122.929, -31.573, 122.97, -150.986, 124.465, 88.7191, 0, 0, 3.18147, -54.6469, 3.18041, -174.06, 3.14221, 65.6451, 0.0669087, 66.4944
0, 300.00000, 122.929, -31.573, 122.97, -150.986, 124.465, 88.7191, 0, 0, 3.18147, -54.6469, 3.18041, -174.06, 3.14221, 65.6451, 0.0669087, 66.4944
0, 360.00000, 122.929, -31.573, 122.97, -150.986, 124.465, 88.7191, 0, 0, 3.18147, -54.6469, 3.18041, -174.06, 3.14221, 65.6451, 0.0669087, 66.4944
0, 420.00000, 122.929, -31.573, 122.97, -150.986, 124.465, 88.7191, 0, 0, 3.18147, -54.6469, 3.18041, -174.06, 3.14221, 65.6451, 0.0669087, 66.4944
0, 480.00000, 122.929, -31.573, 122.97, -150.986, 124.465, 88.7191, 0, 0, 3.18147, -54.6469, 3.18041, -174.06, 3.14221, 65.6451, 0.0669087, 66.4944
0, 540.00000, 122.929, -31.573, 122.97, -150.986, 124.465, 88.7191, 0, 0, 3.18147, -54.6469, 3.18041, -174.06, 3.14221, 65.6451, 0.0669087, 66.4944
0, 600.00000, 122.929, -31.573, 122.97, -150.986, 124.465, 88.7191, 0, 0, 3.18147, -54.6469, 3.18041, -174.06, 3.14221, 65.6451, 0.0669087, 66.4944
0, 660.00000, 122.929, -31.573, 122.97, -150.986, 124.465, 88.7191, 0, 0, 3.18147, -54.6469, 3.18041, -174.06, 3.14221, 65.6451, 0.0669087, 66.4944
0, 720.00000, 122.929, -31.573, 122.97, -150.986, 124.465, 88.7191, 0, 0, 3.18147, -54.6469, 3.18041, -174.06, 3.14221, 65.6451, 0.0669087, 66.4944
0, 780.00000, 122.929, -31.573, 122.97, -150.986, 124.465, 88.7191, 0, 0, 3.18147, -54.6469, 3.18041, -174.06, 3.14221, 65.6451, 0.0669087, 66.4944
0, 840.00000, 122.929, -31.573, 122.97, -150.986, 124.465, 88.7191, 0, 0, 3.18147, -54.6469, 3.18041, -174.06, 3.14221, 65.6451, 0.0669087, 66.4944
0, 900.00000, 122.929, -31.573, 122.97, -150.986, 124.465, 88.7191, 0, 0, 3.18147, -54.6469, 3.18041, -174.06, 3.14221, 65.6451, 0.0669087, 66.4944
0, 960.00000, 122.76, -31.6039, 122.812, -151.016, 124.311, 88.6857, 0, 0, 3.37021, -54.6776, 3.3688, -174.09, 3.32816, 65.6119, 0.0712718, 66.8058
0, 1020.00000, 122.76, -31.6039, 122.811, -151.016, 124.311, 88.6857, 0, 0, 3.37023, -54.6778, 3.36882, -174.09, 3.32817, 65.6118, 0.0712801, 66.8072
0, 1080.00000, 122.76, -31.6039, 122.811, -151.016, 124.311, 88.6857, 0, 0, 3.37023, -54.6778, 3.36882, -174.09, 3.32817, 65.6118, 0.0712801, 66.8072
0, 1140.00000, 122.76, -31.6039, 122.811, -151.016, 124.311, 88.6857, 0, 0, 3.37023, -54.6778, 3.36882, -174.09, 3.32817, 65.6118, 0.0712801, 66.8072
0, 1200.00000, 122.76, -31.6039, 122.811, -151.016, 124.311, 88.6857, 0, 0, 3.37023, -54.6778, 3.36882, -174.09, 3.32817, 65.6118, 0.0712801, 66.8072
0, 1260.00000, 122.76, -31.6039, 122.811, -151.016, 124.311, 88.6857, 0, 0, 3.37023, -54.6778, 3.36882, -174.09, 3.32817, 65.6118, 0.0712801, 66.8072
0, 1320.00000, 122.76, -31.6039, 122.811, -151.016, 124.311, 88.6857, 0, 0, 3.37023, -54.6778, 3.36882, -174.09, 3.32817, 65.6118, 0.0712801, 66.8072
0, 1380.00000, 122.76, -31.6039, 122.811, -151.016, 124.311, 88.6857, 0, 0, 3.37023, -54.6778, 3.36882, -174.09, 3.32817, 65.6118, 0.0712801, 66.8072
0, 1440.00000, 122.76, -31.6039, 122.811, -151.016, 124.311, 88.6857, 0, 0, 3.37023, -54.6778, 3.36882, -174.09, 3.32817, 65.6118, 0.0712801, 66.8072
0, 1500.00000, 122.76, -31.6039, 122.811, -151.016, 124.311, 88.6857, 0, 0, 3.37023, -54.6778, 3.36882, -174.09, 3.32817, 65.6118, 0.0712801, 66.8072
0, 1560.00000, 122.76, -31.6039, 122.811, -151.016, 124.311, 88.6857, 0, 0, 3.37023, -54.6778, 3.36882, -174.09, 3.32817, 65.6118, 0.0712801, 66.8072
0, 1620.00000, 122.76, -31.6039, 122.811, -151.016, 124.311, 88.6857, 0, 0, 3.37023, -54.6778, 3.36882, -174.09, 3.32817, 65.6118, 0.0712801, 66.8072
0, 1680.00000, 122.76, -31.6039, 122.811, -151.016, 124.311, 88.6857, 0, 0, 3.37023, -54.6778, 3.36882, -174.09, 3.32817, 65.6118, 0.0712801, 66.8072
0, 1740.00000, 122.76, -31.6039, 122.811, -151.016, 124.311, 88.6857, 0, 0, 3.37023, -54.6778, 3.36882, -174.09, 3.32817, 65.6118, 0.0712801, 66.8072
0, 1800.00000, 122.76, -31.6039, 122.811, -151.016, 124.311, 88.6857, 0, 0, 3.37023, -54.6778, 3.36882, -174.09, 3.32817, 65.6118, 0.0712801, 66.8072
0, 1860.00000, 122.848, -31.5826, 122.895, -150.995, 124.395, 88.7078, 0, 0, 3.3782, -54.658, 3.37689, -174.07, 3.33619, 65.6328, 0.0713491, 66.6969
0, 1920.00000, 122.848, -31.5825, 122.896, -150.995, 124.395, 88.7079, 0, 0, 3.37803, -54.6564, 3.37673, -174.069, 3.33603, 65.6339, 0.0712879, 66.689
0, 1980.00000, 122.848, -31.5825, 122.896, -150.995, 124.395, 88.7079, 0, 0, 3.37803, -54.6564, 3.37673, -174.069, 3.33603, 65.6339, 0.0712877, 66.689
0, 2040.00000, 122.848, -31.5825, 122.896, -150.995, 124.395, 88.7079, 0, 0, 3.37803, -54.6564, 3.37673, -174.069, 3.33603, 65.6339, 0.0712877, 66.689
0, 2100.00000, 122.848, -31.5825, 122.896, -150.995, 124.395, 88.7079, 0, 0, 3.37803, -54.6564, 3.37673, -174.069, 3.33603, 65.6339, 0.0712877, 66.689
0, 2160.00000, 122.848, -31.5825, 122.896, -150.995, 124.395, 88.7079, 0, 0, 3.37803, -54.6564, 3.37673, -174.069, 3.33603, 65.6339, 0.0712877, 66.689
0, 2220.00000, 122.848, -31.5825, 122.896, -150.995, 124.395, 88.7079, 0, 0, 3.37803, -54.6564, 3.37673, -174.069, 3.33603, 65.6339, 0.0712877, 66.689
0, 2280.00000, 122.848, -31.5825, 122.896, -150.995, 124.395, 88.7079, 0, 0, 3.37803, -54.6564, 3.37673, -174.069, 3.33603, 65.6339, 0.0712877, 66.689
0, 2340.00000, 122.848, -31.5825, 122.896, -150.995, 124.395, 88.7079, 0, 0, 3.37803, -54.6564, 3.37673, -174.069, 3.33603, 65.6339, 0.0712877, 66.689
0, 2400.00000, 122.848, -31.5825, 122.896, -150.995, 124.395, 88.7079, 0, 0, 3.37803, -54.6564, 3.37673, -174.069, 3.33603, 65.6339, 0.0712877, 66.689
0, 2460.00000, 122.848, -31.5825, 122.896, -150.995, 124.395, 88.7079, 0, 0, 3.37803, -54.6564, 3.37673, -174.069, 3.33603, 65.6339, 0.0712877, 66.689
0, 2520.00000, 122.848, -31.5825, 122.896, -150.995, 124.395, 88.7079, 0, 0, 3.37803, -54.6564, 3.37673, -174.069, 3.33603, 65.6339, 0.0712877, 66.689
0, 2580.00000, 122.848, -31.5825, 122.896, -150.995, 124.395, 88.7079, 0, 0, 3.37803, -54.6564, 3.37673, -174.069, 3.33603, 65.6339, 0.0712877, 66.689
0, 2640.00000, 122.848, -31.5825, 122.896, -150.995, 124.395, 88.7079, 0, 0, 3.37803, -54.6564, 3.37673, -174.069, 3.33603, 65.6339, 0.0712877, 66.689
0, 2700.00000, 122.848, -31.5825, 122.896, -150.995, 124.395, 88.7079, 0, 0, 3.37803, -54.6564, 3.37673, -174.069, 3.33603, 65.6339, 0.0712877, 66.689
0, 2760.00000, 123.063, -31.539, 123.097, -150.954, 124.595, 88.7546, 0, 0, 3.20743, -54.6132, 3.20651, -174.028, 3.168, 65.6804, 0.0672956, 66.3026
0, 2820.00000, 123.063, -31.539, 123.098, -150.954, 124.595, 88.7546, 0, 0, 3.2074, -54.6129, 3.20649, -174.028, 3.16796, 65.6807, 0.0672988, 66.2928
0, 2880.00000, 123.063, -31.539, 123.098, -150.954, 124.595, 88.7546, 0, 0, 3.2074, -54.6129, 3.20649, -174.028, 3.16796, 65.6807, 0.0672991, 66.2927
0, 2940.00000, 123.063, -31.539, 123.098, -150.954, 124.595, 88.7546, 0, 0, 3.2074, -54.6129, 3.20649, -174.028, 3.16796, 65.6807, 0.0672991, 66.2927
0, 3000.00000, 123.063, -31.539, 123.098, -150.954, 124.595, 88.7546, 0, 0, 3.2074, -54.6129, 3.20649, -174.028, 3.16796, 65.6807, 0.0672991, 66.2927
0, 3060.00000, 123.063, -31.539, 123.098, -150.954, 124.595, 88.7546, 0, 0, 3.2074, -54.6129, 3.20649, -174.028, 3.16796, 65.6807, 0.0672991, 66.2927
0, 3120.00000, 123.063, -31.539, 123.098, -150.954, 124.595, 88.7546, 0, 0, 3.2074, -54.6129, 3.20649, -174.028, 3.16796, 65.6807, 0.0672991, 66.2927
0, 3180.00000, 123.063, -31.539, 123.098, -150.954, 124.595, 88.7546, 0, 0, 3.2074, -54.6129, 3.20649, -174.028, 3.16796, 65.6807, 0.0672991, 66.2927
0, 3240.00000, 123.063, -31.539, 123.098, -150.954, 124.595, 88.7546, 0, 0, 3.2074, -54.6129, 3.20649, -174.028, 3.16796, 65.6807, 0.0672991, 66.2927
0, 3300.00000, 123.063, -31.539, 123.098, -150.954, 124.595, 88.7546, 0, 0, 3.2074, -54.6129, 3.20649, -174.028, 3.16796, 65.6807, 0.0672991, 66.2927
0, 3360.00000, 123.063, -31.539, 123.098, -150.954, 124.595, 88.7546, 0, 0, 3.2074, -54.6129, 3.20649, -174.028, 3.16796, 65.6807, 0.0672991, 66.2927
0, 3420.00000, 123.063, -31.539, 123.098, -150.954, 124.595, 88.7546, 0, 0, 3.2074, -54.6129, 3.20649, -174.028, 3.16796, 65.6807, 0.0672991, 66.2927
0, 3480.00000, 123.063, -31.539, 123.098, -150.954, 124.595, 88.7546, 0, 0, 3.2074, -54.6129, 3.20649, -174.028, 3.16796, 65.6807, 0.0672991, 66.2927
0, 3540.00000, 123.063, -31.539, 123.098, -150.954, 124.595, 88.7546, 0, 0, 3.2074, -54.6129, 3.20649, -174.028, 3.16796, 65.6807, 0.0672991, 66.2927
1, 0.00000, 123.063, -31.539, 123.098, -150.954, 124.595, 88.7546, 0, 0, 3.2074, -54.6129, 3.20649, -174.028, 3.16796, 65.6807, 0.0672991, 66.2927
1, 60.00000, 123.192, -31.5077, 123.221, -150.925, 124.721, 88.7878, 0, 0, 3.16659, -54.5818, 3.16585, -173.999, 3.1278, 65.7136, 0.0662951, 66.0823
1, 120.00000, 123.192, -31.5076, 123.221, -150.925, 124.721, 88.7879, 0, 0, 3.16658, -54.5816, 3.16584, -173.999, 3.12776, 65.7139, 0.0663079, 66.0707
1, 180.00000, 123.192, -31.5076, 123.221, -150.925, 124.721, 88.7879, 0, 0, 3.16658, -54.5816, 3.16584, -173.999, 3.12776, 65.7139, 0.0663083, 66.0705
1, 240.00000, 123.192, -31.5076, 123.221, -150.925, 124.721, 88.7879, 0, 0, 3.16658, -54.5816, 3.16584, -173.999, 3.12776, 65.7139, 0.0663083, 66.0705
1, 300.00000, 123.192, -31.5076, 123.221, -150.925, 124.721, 88.7879, 0, 0, 3.16658, -54.5816, 3.16584, -173.999, 3.12776, 65.7139, 0.0663083, 66.0705
1, 360.00000, 123.192, -31.5076, 123.221, -150.925, 124.721, 88.7879, 0, 0, 3.16658, -54.5816, 3.16584, -173.999, 3.12776, 65.7139, 0.0663083, 66.0705
1, 420.00000, 123.192, -31.5076, 123.221, -150.925, 124.721, 88.7879, 0, 0, 3.16658, -54.5816, 3.16584, -173.999, 3.12776, 65.7139, 0.0663083, 66.0705
1, 480.00000, 123.192, -31.5076, 123.221, -150.925, 124.721, 88.7879, 0, 0, 3.16658, -54.5816, 3.16584, -173.999, 3.12776, 65.7139, 0.0663083, 66.0705
1, 540.00000, 123.192, -31.5076, 123.221, -150.925, 124.721, 88.7879, 0, 0, 3.16658, -54.5816, 3.16584, -173.999, 3.12776, 65.7139, 0.0663083, 66.0705
1, 600.00000, 123.192, -31.5076, 123.221, -150.925, 124.721, 88.7879, 0, 0, 3.16658, -54.5816, 3.16584, -173.999, 3.12776, 65.7139, 0.0663083, 66.0705
1, 660.00000, 123.192, -31.5076, 123.221, -150.925, 124.721, 88.7879, 0, 0, 3.16658, -54.5816, 3.16584, -173.999, 3.12776, 65.7139, 0.0663083, 66.0705
1, 720.00000, 123.192, -31.5076, 123.221, -150.925, 124.721, 88.7879, 0, 0, 3.16658, -54.5816, 3.16584, -173.999, 3.12776, 65.7139, 0.0663083, 66.0705
1, 780.00000, 123.192, -31.5076, 123.221, -150.925, 124.721, 88.7879, 0, 0, 3.16658, -54.5816, 3.16584, -173.999, 3.12776, 65.7139, 0.0663083, 66.0705
1, 840.00000, 123.192, -31.5076, 123.221, -150.925, 124.721, 88.7879, 0, 0, 3.16658, -54.5816, 3.16584, -173.999, 3.12776, 65.7139, 0.0663083, 66.0705
1, 900.00000, 123.192, -31.5076, 123.221, -150.925, 124.721, 88.7879, 0, 0, 3.16658, -54.5816, 3.16584, -173.999, 3.12776, 65.7139, 0.0663083, 66.0705
1, 960.00000, 123.218, -31.503, 123.245, -150.92, 124.745, 88.7929, 0, 0, 3.15114, -54.5774, 3.15044, -173.994, 3.11257, 65.7186, 0.0659408, 66.0227
1, 1020.00000, 123.218, -31.503, 123.245, -150.92, 124.745, 88.793, 0, 0, 3.1511, -54.5769, 3.15041, -173.994, 3.11252, 65.7191, 0.065937, 66.0116
1, 1080.00000, 123.218, -31.503, 123.245, -150.92, 124.745, 88.793, 0, 0, 3.1511, -54.5769, 3.15041, -173.994, 3.11252, 65.7191, 0.0659375, 66.0113
1, 1140.00000, 123.218, -31.503, 123.245, -150.92, 124.745, 88.793, 0, 0, 3.1511, -54.5769, 3.15041, -173.994, 3.11252, 65.7191, 0.0659375, 66.0113
1, 1200.00000, 123.218, -31.503, 123.245, -150.92, 124.745, 88.793, 0, 0, 3.1511, -54.5769, 3.15041, -173.994, 3.11252, 65.7191, 0.0659375, 66.0113
1, 1260.00000, 123.218, -31.503, 123.245, -150.92, 124.745, 88.793, 0, 0, 3.1511, -54.5769, 3.15041, -173.994, 3.11252, 65.7191, 0.0659375, 66.0113
1, 1320.00000, 123.218, -31.503, 123.245, -150.92, 124.745, 88.793, 0, 0, 3.1511, -54.5769, 3.15041, -173.994, 3.11252, 65.7191, 0.0659375, 66.0113
1, 1380.00000, 123.218, -31.503, 123.245, -150.92, 124.745, 88.793, 0, 0, 3.1511, -54.5769, 3.15041, -173.994, 3.11252, 65.7191, 0.0659375, 66.0113
1, 1440.00000, 123.218, -31.503, 123.245, -150.92, 124.745, 88.793, 0, 0, 3.1511, -54.5769, 3.15041, -173.994, 3.11252, 65.7191, 0.0659375, 66.0113
1, 1500.00000, 123.218, -31.503, 123.245, -150.92, 124.745, 88.793, 0, 0, 3.1511, -54.5769, 3.15041, -173.994, 3.11252, 65.7191, 0.0659375, 66.0113
1, 1560.00000, 123.218, -31.503, 123.245, -150.92, 124.745, 88.793, 0, 0, 3.1511, -54.5769, 3.15041, -173.994, 3.11252, 65.7191, 0.0659375, 66.0113
1, 1620.00000, 123.218, -31.503, 123.245, -150.92, 124.745, 88.793, 0, 0, 3.1511, -54.5769, 3.15041, -173.994, 3.11252, 65.7191, 0.0659375, 66.0113
1, 1680.00000, 123.218, -31.503, 123.245, -150.92, 124.745, 88.793, 0, 0, 3.1511, -54.5769, 3.15041, -173.994, 3.11252, 65.7191, 0.0659375, 66.0113
1, 1740.00000, 123.218, -31.503, 123.245, -150.92, 124.745, 88.793, 0, 0, 3.1511, -54.5769, 3.15041, -173.994, 3.11252, 65.7191, 0.0659375, 66.0113
1, 1800.00000, 123.218, -31.503, 123.245, -150.92, 124.745, 88.793, 0, 0, 3.1511, -54.5769, 3.15041, -173.994, 3.11252, 65.7191, 0.0659375, 66.0113
1, 1860.00000, 123.087, -31.5321, 123.121, -150.948, 124.62, 88.7618, 0, 0, 3.2305, -54.6058, 3.22962, -174.022, 3.19075, 65.6882, 0.0677872, 66.2396
1, 1920.00000, 123.087, -31.5321, 123.121, -150.948, 124.62, 88.7618, 0, 0, 3.23051, -54.606, 3.22963, -174.022, 3.19078, 65.6879, 0.0677752, 66.2508
1, 1980.00000, 123.087, -31.5321, 123.121, -150.948, 124.62, 88.7618, 0, 0, 3.23051, -54.606, 3.22963, -174.022, 3.19078, 65.6879, 0.0677748, 66.251
1, 2040.00000, 123.087, -31.5321, 123.121, -150.948, 124.62, 88.7618, 0, 0, 3.23051, -54.606, 3.22963, -174.022, 3.19078, 65.6879, 0.0677747, 66.251
1, 2100.00000, 123.087, -31.5321, 123.121, -150.948, 124.62, 88.7618, 0, 0, 3.23051, -54.606, 3.22963, -174.022, 3.19078, 65.6879, 0.0677747, 66.251
1, 2160.00000, 123.087, -31.5321, 123.121, -150.948, 124.62, 88.7618, 0, 0, 3.23051, -54.606, 3.22963, -174.022, 3.19078, 65.6879, 0.0677747, 66.251
1, 2220.00000, 123.087, -31.5321, 123.121, -150.948, 124.62, 88.7618, 0, 0, 3.23051, -54.606, 3.22963, -174.022, 3.19078, 65.6879, 0.0677747, 66.251
1, 2280.00000, 123.087, -31.5321, 123.121, -150.948, 124.62, 88.7618, 0, 0, 3.23051, -54.606, 3.22963, -174.022, 3.19078, 65.6879, 0.0677747, 66.251
1, 2340.00000, 123.087, -31.5321, 123.121, -150.948, 124.62, 88.7618, 0, 0, 3.23051, -54.606, 3.22963, -174.022, 3.19078, 65.6879, 0.0677747, 66.251
1, 2400.00000, 123.087, -31.5321, 123.121, -150.948, 124.62, 88.7618, 0, 0, 3.23051, -54.606, 3.22963, -174.022, 3.19078, 65.6879, 0.0677747, 66.251
1, 2460.00000, 123.087, -31.5321, 123.121, -150.948, 124.62, 88.7618, 0, 0, 3.23051, -54.606, 3.22963, -174.022, 3.19078, 65.6879, 0.0677747, 66.251
1, 2520.00000, 123.087, -31.5321, 123.121, -150.948, 124.62, 88.7618, 0, 0, 3.23051, -54.606, 3.22963, -174.022, 3.19078, 65.6879, 0.0677747, 66.251
1, 2580.00000, 123.087, -31.5321, 123.121, -150.948, 124.62, 88.7618, 0, 0, 3.23051, -54.606, 3.22963, -174.022, 3.19078, 65.6879, 0.0677747, 66.251
1, 2640.00000, 123.087, -31.5321, 123.121, -150.948, 124.62, 88.7618, 0, 0, 3.23051, -54.606, 3.22963, -174.022, 3.19078, 65.6879, 0.0677747, 66.251
1, 2700.00000, 123.087, -31.5321, 123.121, -150.948, 124.62, 88.7618, 0, 0, 3.23051, -54.606, 3.22963, -174.022, 3.19078, 65.6879, 0.0677747, 66.251
1, 2760.00000, 123.362, -31.4734, 123.382, -150.892, 124.882, 88.825, 0, 0, 3.03737, -54.5477, 3.03689, -173.966, 3.00044, 65.7505, 0.063344, 65.7639
1, 2820.00000, 123.362, -31.4734, 123.382, -150.892, 124.882, 88.825, 0, 0, 3.03735, -54.5473, 3.03686, -173.966, 3.00037, 65.7511, 0.0633683, 65.7497
1, 2880.00000, 123.362, -31.4734, 123.382, -150.892, 124.882, 88.825, 0, 0, 3.03735, -54.5473, 3.03686, -173.966, 3.00036, 65.7511, 0.0633691, 65.7495
1, 2940.00000, 123.362, -31.4734, 123.382, -150.892, 124.882, 88.825, 0, 0, 3.03735, -54.5473, 3.03686, -173.966, 3.00036, 65.7511, 0.0633692, 65.7495
1, 3000.00000, 123.362, -31.4734, 123.382, -150.892, 124.882, 88.825, 0, 0, 3.03735, -54.5473, 3.03686, -173.966, 3.00036, 65.7511, 0.0633692, 65.7495
1, 3060.00000, 123.362, -31.4734, 123.382, -150.892, 124.882, 88.825, 0, 0, 3.03735, -54.5473, 3.03686, -173.966, 3.00036, 65.7511, 0.0633692, 65.7495
1, 3120.00000, 123.362, -31.4734, 123.382, -150.892, 124.882, 88.825, 0, 0, 3.03735, -54.5473, 3.03686, -173.966, 3.00036, 65.7511, 0.0633692, 65.7495
1, 3180.00000, 123.362, -31.4734, 123.382, -150.892, 124.882, 88.825, 0, 0, 3.03735, -54.5473, 3.03686, -173.966, 3.00036, 65.7511, 0.0633692, 65.7495
1, 3240.00000, 123.362, -31.4734, 123.382, -150.892, 124.882, 88.825, 0, 0, 3.03735, -54.5473, 3.03686, -173.966, 3.00036, 65.7511, 0.0633692, 65.7495
1, 3300.00000, 123.362, -31.4734, 123.382, -150.892, 124.882, 88.825, 0, 0, 3.03735, -54.5473, 3.03686, -173.966, 3.00036, 65.7511, 0.0633692, 65.7495
1, 3360.00000, 123.362, -31.4734, 123.382, -150.892, 124.882, 88.825, 0, 0, 3.03735, -54.5473, 3.03686, -173.966, 3.00036, 65.7511, 0.0633692, 65.7495
1, 3420.00000, 123.362, -31.4734, 123.382, -150.892, 124.882, 88.825, 0, 0, 3.03735, -54.5473, 3.03686, -173.966, 3.00036, 65.7511, 0.0633692, 65.7495
1, 3480.00000, 123.362, -31.4734, 123.382, -150.892, 124.882, 88.825, 0, 0, 3.03735, -54.5473, 3.03686, -173.966, 3.00036, 65.7511, 0.0633692, 65.7495
1, 3540.00000, 123.362, -31.4734, 123.382, -150.892, 124.882, 88.825, 0, 0, 3.03735, -54.5473, 3.03686, -173.966, 3.00036, 65.7511, 0.0633692, 65.7495
2, 0.00000, 123.362, -31.4734, 123.382, -150.892, 124.882, 88.825, 0, 0, 3.03735, -54.5473, 3.03686, -173.966, 3.00036, 65.7511, 0.0633692, 65.7495
2, 60.00000, 123.198, -31.509, 123.225, -150.926, 124.726, 88.7867, 0, 0, 3.12299, -54.5827, 3.1223, -174, 3.08471, 65.7131, 0.0653819, 66.0154
2, 120.00000, 123.198, -31.5091, 123.225, -150.926, 124.726, 88.7867, 0, 0, 3.123, -54.583, 3.12231, -174, 3.08475, 65.7128, 0.0653686, 66.0256
2, 180.00000, 123.198, -31.5091, 123.225, -150.926, 124.726, 88.7867, 0, 0, 3.123, -54.583, 3.12231, -174, 3.08475, 65.7128, 0.0653681, 66.0259
2, 240.00000, 123.198, -31.5091, 123.225, -150.926, 124.726, 88.7867, 0, 0, 3.123, -54.583, 3.12231, -174, 3.08475, 65.7128, 0.0653681, 66.0259
2, 300.00000, 123.198, -31.5091, 123.225, -150.926, 124.726, 88.7867, 0, 0, 3.123, -54.583, 3.12231, -174, 3.08475, 65.7128, 0.0653681, 66.0259
2, 360.00000, 123.198, -31.5091, 123.225, -150.926, 124.726, 88.7867, 0, 0, 3.123, -54.583, 3.12231, -174, 3.08475, 65.7128, 0.0653681, 66.0259
2, 420.00000, 123.198, -31.5091, 123.225, -150.926, 124.726, 88.7867, 0, 0, 3.123, -54.583, 3.12231, -174, 3.08475, 65.7128, 0.0653681, 66.0259
2, 480.00000, 123.198, -31.5091, 123.225, -150.926, 124.726, 88.7867, 0, 0, 3.123, -54.583, 3.12231, -174, 3.08475, 65.7128, 0.0653681, 66.0259
2, 540.00000, 123.198, -31.5091, 123.225, -150.926, 124.726, 88.7867, 0, 0, 3.123, -54.583, 3.12231, -174, 3.08475, 65.7128, 0.0653681, 66.0259
2, 600.00000, 123.198, -31.5091, 123.225, -150.926, 124.726, 88.7867, 0, 0, 3.123, -54.583, 3.12231, -174, 3.08475, 65.7128, 0.0653681, 66.0259
2, 660.00000, 123.198, -31.5091, 123.225, -150.926, 124.726, 88.7867, 0, 0, 3.123, -54.583, 3.12231, -174, 3.08475, 65.7128, 0.0653681, 66.0259
2, 720.00000, 123.198, -31.5091, 123.225, -150.926, 124.726, 88.7867, 0, 0, 3.123, -54.583, 3.12231, -174, 3.08475, 65.7128, 0.0653681, 66.0259
2, 780.00000, 123.198, -31.5091, 123.225, -150.926, 124.726, 88.7867, 0, 0, 3.123, -54.583, 3.12231, -174, 3.08475, 65.7128, 0.0653681, 66.0259
