hour,t(sec),V1,VAngle1,V2,VAngle2,V3,VAngle3,V4,VAngle4,I1,IAngle1,I2,IAngle2,I3,IAngle3,I4,IAngle4
0, 60.00000, 122.641, -31.9226, 122.078, -151.594, 123.365, 88.4829, 0, 0, 6.14846, -54.9961, 6.17682, -174.668, 6.11235, 65.4092, 0.0952372, 33.3293
0, 120.00000, 122.641, -31.9226, 122.078, -151.594, 123.365, 88.4829, 0, 0, 6.14852, -54.9965, 6.17689, -174.668, 6.11242, 65.409, 0.0952668, 33.3267
0, 180.00000, 122.641, -31.9226, 122.078, -151.594, 123.365, 88.4829, 0, 0, 6.14852, -54.9965, 6.17689, -174.668, 6.11242, 65.409, 0.0952668, 33.3267
0, 240.00000, 122.641, -31.9226, 122.078, -151.594, 123.365, 88.4829, 0, 0, 6.14852, -54.9965, 6.17689, -174.668, 6.11242, 65.409, 0.0952668, 33.3267
0, 300.00000, 122.641, -31.9226, 122.078, -151.594, 123.365, 88.4829, 0, 0, 6.14852, -54.9965, 6.17689, -174.668, 6.11242, 65.409, 0.0952668, 33.3267
0, 360.00000, 122.641, -31.9226, 122.078, -151.594, 123.365, 88.4829, 0, 0, 6.14852, -54.9965, 6.17689, -174.668, 6.11242, 65.409, 0.0952668, 33.3267
0, 420.00000, 122.641, -31.9226, 122.078, -151.594, 123.365, 88.4829, 0, 0, 6.14852, -54.9965, 6.17689, -174.668, 6.11242, 65.409, 0.0952668, 33.3267
0, 480.00000, 123.188, -31.7961, 122.595, -151.471, 123.878, 88.6134, 0, 0, 5.32556, -54.8704, 5.3513, -174.545, 5.29586, 65.5393, 0.0823004, 32.0733
0, 540.00000, 123.188, -31.796, 122.595, -151.471, 123.878, 88.6134, 0, 0, 5.32548, -54.87, 5.35123, -174.545, 5.29579, 65.5395, 0.0822738, 32.0672
0, 600.00000, 123.188, -31.796, 122.595, -151.471, 123.878, 88.6134, 0, 0, 5.32548, -54.87, 5.35123, -174.545, 5.29579, 65.5395, 0.0822737, 32.0672
0, 660.00000, 123.188, -31.796, 122.595, -151.471, 123.878, 88.6134, 0, 0, 5.32548, -54.87, 5.35123, -174.545, 5.29579, 65.5395, 0.0822737, 32.0672
0, 720.00000, 123.188, -31.796, 122.595, -151.471, 123.878, 88.6134, 0, 0, 5.32548, -54.87, 5.35123, -174.545, 5.29579, 65.5395, 0.0822737, 32.0672
0, 780.00000, 123.188, -31.796, 122.595, -151.471, 123.878, 88.6134, 0, 0, 5.32548, -54.87, 5.35123, -174.545, 5.29579, 65.5395, 0.0822737, 32.0672
0, 840.00000, 123.188, -31.796, 122.595, -151.471, 123.878, 88.6134, 0, 0, 5.32548, -54.87, 5.35123, -174.545, 5.29579, 65.5395, 0.0822737, 32.0672
0, 900.00000, 123.188, -31.796, 122.595, -151.471, 123.878, 88.6134, 0, 0, 5.32548, -54.87, 5.35123, -174.545, 5.29579, 65.5395, 0.0822737, 32.0672
0, 960.00000, 122.686, -31.8007, 122.479, -151.604, 123.3, 88.4053, 0, 0, 5.34715, -54.874, 5.3563, -174.678, 5.32055, 65.3317, 0.0503055, 44.3429
0, 1020.00000, 122.686, -31.8008, 122.479, -151.604, 123.299, 88.4053, 0, 0, 5.34727, -54.8747, 5.3563, -174.678, 5.32066, 65.3314, 0.0502832, 44.442
0, 1080.00000, 122.686, -31.8008, 122.479, -151.604, 123.299, 88.4053, 0, 0, 5.34727, -54.8747, 5.3563, -174.678, 5.32066, 65.3314, 0.0502832, 44.4424
0, 1140.00000, 123.18, -31.7942, 122.476, -151.604, 123.553, 88.591, 0, 0, 5.32591, -54.8686, 5.35643, -174.678, 5.30978, 65.5171, 0.0709803, 16.5498
0, 1200.00000, 123.18, -31.7942, 122.476, -151.604, 123.553, 88.591, 0, 0, 5.32583, -54.8681, 5.35644, -174.678, 5.30974, 65.5171, 0.0709963, 16.5026
0, 1260.00000, 123.18, -31.7942, 122.476, -151.604, 123.553, 88.591, 0, 0, 5.32583, -54.8681, 5.35644, -174.678, 5.30974, 65.5171, 0.0709964, 16.5024
0, 1320.00000, 123.18, -31.7942, 122.476, -151.604, 123.553, 88.591, 0, 0, 5.32583, -54.8681, 5.35644, -174.678, 5.30974, 65.5171, 0.0709964, 16.5024
0, 1380.00000, 123.18, -31.7942, 122.476, -151.604, 123.553, 88.591, 0, 0, 5.32583, -54.8681, 5.35644, -174.678, 5.30974, 65.5171, 0.0709964, 16.5024
0, 1440.00000, 123.18, -31.7942, 122.476, -151.604, 123.553, 88.591, 0, 0, 5.32583, -54.8681, 5.35644, -174.678, 5.30974, 65.5171, 0.0709964, 16.5024
0, 1500.00000, 123.18, -31.7942, 122.476, -151.604, 123.553, 88.591, 0, 0, 5.32583, -54.8681, 5.35644, -174.678, 5.30974, 65.5171, 0.0709964, 16.5024
0, 1560.00000, 123.18, -31.7942, 122.476, -151.604, 123.553, 88.591, 0, 0, 5.32583, -54.8681, 5.35644, -174.678, 5.30974, 65.5171, 0.0709964, 16.5024
0, 1620.00000, 123.18, -31.7942, 122.476, -151.604, 123.553, 88.591, 0, 0, 5.32583, -54.8681, 5.35644, -174.678, 5.30974, 65.5171, 0.0709964, 16.5024
0, 1680.00000, 123.18, -31.7942, 122.476, -151.604, 123.553, 88.591, 0, 0, 5.32583, -54.8681, 5.35644, -174.678, 5.30974, 65.5171, 0.0709964, 16.5024
0, 1740.00000, 123.18, -31.7942, 122.476, -151.604, 123.553, 88.591, 0, 0, 5.32583, -54.8681, 5.35644, -174.678, 5.30974, 65.5171, 0.0709964, 16.5024
0, 1800.00000, 123.074, -31.9236, 122.174, -151.629, 123.559, 88.5889, 0, 0, 5.3304, -54.9975, 5.36964, -174.703, 5.30951, 65.5149, 0.0934976, 18.6914
0, 1860.00000, 123.074, -31.9237, 122.174, -151.629, 123.559, 88.5889, 0, 0, 5.33042, -54.9976, 5.36967, -174.703, 5.3095, 65.5149, 0.0935305, 18.6956
0, 1920.00000, 123.074, -31.9237, 122.174, -151.629, 123.559, 88.5889, 0, 0, 5.33042, -54.9976, 5.36967, -174.703, 5.3095, 65.5149, 0.0935306, 18.6956
0, 1980.00000, 123.074, -31.9237, 122.174, -151.629, 123.559, 88.5889, 0, 0, 5.33042, -54.9976, 5.36967, -174.703, 5.3095, 65.5149, 0.0935306, 18.6956
0, 2040.00000, 123.074, -31.9237, 122.174, -151.629, 123.559, 88.5889, 0, 0, 5.33042, -54.9976, 5.36967, -174.703, 5.3095, 65.5149, 0.0935306, 18.6956
0, 2100.00000, 123.074, -31.9237, 122.174, -151.629, 123.559, 88.5889, 0, 0, 5.33042, -54.9976, 5.36967, -174.703, 5.3095, 65.5149, 0.0935306, 18.6956
0, 2160.00000, 123.074, -31.9237, 122.174, -151.629, 123.559, 88.5889, 0, 0, 5.33042, -54.9976, 5.36967, -174.703, 5.3095, 65.5149, 0.0935306, 18.6956
0, 2220.00000, 123.074, -31.9237, 122.174, -151.629, 123.559, 88.5889, 0, 0, 5.33042, -54.9976, 5.36967, -174.703, 5.3095, 65.5149, 0.0935306, 18.6956
0, 2280.00000, 123.074, -31.9237, 122.174, -151.629, 123.559, 88.5889, 0, 0, 5.33042, -54.9976, 5.36967, -174.703, 5.3095, 65.5149, 0.0935306, 18.6956
0, 2340.00000, 123.074, -31.9237, 122.174, -151.629, 123.559, 88.5889, 0, 0, 5.33042, -54.9976, 5.36967, -174.703, 5.3095, 65.5149, 0.0935306, 18.6956
0, 2400.00000, 123.074, -31.9237, 122.174, -151.629, 123.559, 88.5889, 0, 0, 5.33042, -54.9976, 5.36967, -174.703, 5.3095, 65.5149, 0.0935306, 18.6956
0, 2460.00000, 123.074, -31.9237, 122.174, -151.629, 123.559, 88.5889, 0, 0, 5.33042, -54.9976, 5.36967, -174.703, 5.3095, 65.5149, 0.0935306, 18.6956
0, 2520.00000, 123.074, -31.9237, 122.174, -151.629, 123.559, 88.5889, 0, 0, 5.33042, -54.9976, 5.36967, -174.703, 5.3095, 65.5149, 0.0935306, 18.6956
0, 2580.00000, 123.074, -31.9237, 122.174, -151.629, 123.559, 88.5889, 0, 0, 5.33042, -54.9976, 5.36967, -174.703, 5.3095, 65.5149, 0.0935306, 18.6956
0, 2640.00000, 123.074, -31.9237, 122.174, -151.629, 123.559, 88.5889, 0, 0, 5.33042, -54.9976, 5.36967, -174.703, 5.3095, 65.5149, 0.0935306, 18.6956
0, 2700.00000, 123.074, -31.9237, 122.174, -151.629, 123.559, 88.5889, 0, 0, 5.33042, -54.9976, 5.36967, -174.703, 5.3095, 65.5149, 0.0935306, 18.6956
0, 2760.00000, 123.462, -31.7129, 122.774, -151.668, 123.511, 88.596, 0, 0, 5.3137, -54.7868, 5.34349, -174.742, 5.3115, 65.5221, 0.0563255, -3.14376
0, 2820.00000, 123.462, -31.7129, 122.775, -151.668, 123.511, 88.596, 0, 0, 5.31364, -54.7868, 5.3434, -174.742, 5.31153, 65.5221, 0.0562555, -3.1891
0, 2880.00000, 123.462, -31.7129, 122.775, -151.668, 123.511, 88.596, 0, 0, 5.31364, -54.7868, 5.3434, -174.742, 5.31154, 65.5221, 0.0562552, -3.18933
0, 2940.00000, 123.462, -31.7129, 122.775, -151.668, 123.511, 88.596, 0, 0, 5.31364, -54.7868, 5.3434, -174.742, 5.31154, 65.5221, 0.0562552, -3.18933
0, 3000.00000, 123.462, -31.7129, 122.775, -151.668, 123.511, 88.596, 0, 0, 5.31364, -54.7868, 5.3434, -174.742, 5.31154, 65.5221, 0.0562552, -3.18933
0, 3060.00000, 123.462, -31.7129, 122.775, -151.668, 123.511, 88.596, 0, 0, 5.31364, -54.7868, 5.3434, -174.742, 5.31154, 65.5221, 0.0562552, -3.18933
0, 3120.00000, 123.462, -31.7129, 122.775, -151.668, 123.511, 88.596, 0, 0, 5.31364, -54.7868, 5.3434, -174.742, 5.31154, 65.5221, 0.0562552, -3.18933
0, 3180.00000, 123.462, -31.7129, 122.775, -151.668, 123.511, 88.596, 0, 0, 5.31364, -54.7868, 5.3434, -174.742, 5.31154, 65.5221, 0.0562552, -3.18933
0, 3240.00000, 123.462, -31.7129, 122.775, -151.668, 123.511, 88.596, 0, 0, 5.31364, -54.7868, 5.3434, -174.742, 5.31154, 65.5221, 0.0562552, -3.18933
0, 3300.00000, 123.462, -31.7129, 122.775, -151.668, 123.511, 88.596, 0, 0, 5.31364, -54.7868, 5.3434, -174.742, 5.31154, 65.5221, 0.0562552, -3.18933
0, 3360.00000, 123.462, -31.7129, 122.775, -151.668, 123.511, 88.596, 0, 0, 5.31364, -54.7868, 5.3434, -174.742, 5.31154, 65.5221, 0.0562552, -3.18933
0, 3420.00000, 123.462, -31.7129, 122.775, -151.668, 123.511, 88.596, 0, 0, 5.31364, -54.7868, 5.3434, -174.742, 5.31154, 65.5221, 0.0562552, -3.18933
0, 3480.00000, 123.462, -31.7129, 122.775, -151.668, 123.511, 88.596, 0, 0, 5.31364, -54.7868, 5.3434, -174.742, 5.31154, 65.5221, 0.0562552, -3.18933
0, 3540.00000, 123.462, -31.7129, 122.775, -151.668, 123.511, 88.596, 0, 0, 5.31364, -54.7868, 5.3434, -174.742, 5.31154, 65.5221, 0.0562552, -3.18933
1, 0.00000, 123.462, -31.7129, 122.775, -151.668, 123.511, 88.596, 0, 0, 5.31364, -54.7868, 5.3434, -174.742, 5.31154, 65.5221, 0.0562552, -3.18933
1, 60.00000, 123.713, -31.5417, 123.235, -151.673, 123.484, 88.6006, 0, 0, 5.30291, -54.6157, 5.32349, -174.747, 5.3127, 65.5267, 0.0384675, -39.8068
1, 120.00000, 123.713, -31.5418, 123.235, -151.673, 123.484, 88.6006, 0, 0, 5.30288, -54.6157, 5.32343, -174.747, 5.31272, 65.5267, 0.0384321, -39.8806
1, 180.00000, 123.713, -31.5418, 123.235, -151.673, 123.484, 88.6006, 0, 0, 5.30288, -54.6157, 5.32343, -174.747, 5.31272, 65.5267, 0.038432, -39.881
1, 240.00000, 123.713, -31.5418, 123.235, -151.673, 123.484, 88.6006, 0, 0, 5.30288, -54.6157, 5.32343, -174.747, 5.31272, 65.5267, 0.038432, -39.881
1, 300.00000, 123.713, -31.5418, 123.235, -151.673, 123.484, 88.6006, 0, 0, 5.30288, -54.6157, 5.32343, -174.747, 5.31272, 65.5267, 0.038432, -39.881
1, 360.00000, 123.713, -31.5418, 123.235, -151.673, 123.484, 88.6006, 0, 0, 5.30288, -54.6157, 5.32343, -174.747, 5.31272, 65.5267, 0.038432, -39.881
1, 420.00000, 123.713, -31.5418, 123.235, -151.673, 123.484, 88.6006, 0, 0, 5.30288, -54.6157, 5.32343, -174.747, 5.31272, 65.5267, 0.038432, -39.881
1, 480.00000, 123.713, -31.5418, 123.235, -151.673, 123.484, 88.6006, 0, 0, 5.30288, -54.6157, 5.32343, -174.747, 5.31272, 65.5267, 0.038432, -39.881
1, 540.00000, 123.713, -31.5418, 123.235, -151.673, 123.484, 88.6006, 0, 0, 5.30288, -54.6157, 5.32343, -174.747, 5.31272, 65.5267, 0.038432, -39.881
1, 600.00000, 123.713, -31.5418, 123.235, -151.673, 123.484, 88.6006, 0, 0, 5.30288, -54.6157, 5.32343, -174.747, 5.31272, 65.5267, 0.038432, -39.881
1, 660.00000, 123.713, -31.5418, 123.235, -151.673, 123.484, 88.6006, 0, 0, 5.30288, -54.6157, 5.32343, -174.747, 5.31272, 65.5267, 0.038432, -39.881
1, 720.00000, 123.713, -31.5418, 123.235, -151.673, 123.484, 88.6006, 0, 0, 5.30288, -54.6157, 5.32343, -174.747, 5.31272, 65.5267, 0.038432, -39.881
1, 780.00000, 123.712, -31.5412, 123.322, -151.55, 123.769, 88.6314, 0, 0, 5.3029, -54.6152, 5.31971, -174.624, 5.30054, 65.5572, 0.0325323, -6.60093
1, 840.00000, 123.712, -31.5412, 123.322, -151.55, 123.769, 88.6314, 0, 0, 5.30292, -54.6152, 5.3197, -174.624, 5.30048, 65.5574, 0.0325403, -6.51139
1, 900.00000, 123.712, -31.5412, 123.322, -151.55, 123.769, 88.6314, 0, 0, 5.30292, -54.6152, 5.3197, -174.624, 5.30048, 65.5575, 0.0325404, -6.51101
1, 960.00000, 123.712, -31.5412, 123.322, -151.55, 123.769, 88.6314, 0, 0, 5.30292, -54.6152, 5.3197, -174.624, 5.30048, 65.5575, 0.0325404, -6.51101
1, 1020.00000, 123.712, -31.5412, 123.322, -151.55, 123.769, 88.6314, 0, 0, 5.30292, -54.6152, 5.3197, -174.624, 5.30048, 65.5575, 0.0325404, -6.51101
1, 1080.00000, 123.712, -31.5412, 123.322, -151.55, 123.769, 88.6314, 0, 0, 5.30292, -54.6152, 5.3197, -174.624, 5.30048, 65.5575, 0.0325404, -6.51101
1, 1140.00000, 123.712, -31.5412, 123.322, -151.55, 123.769, 88.6314, 0, 0, 5.30292, -54.6152, 5.3197, -174.624, 5.30048, 65.5575, 0.0325404, -6.51101
1, 1200.00000, 123.712, -31.5412, 123.322, -151.55, 123.769, 88.6314, 0, 0, 5.30292, -54.6152, 5.3197, -174.624, 5.30048, 65.5575, 0.0325404, -6.51101
1, 1260.00000, 123.712, -31.5412, 123.322, -151.55, 123.769, 88.6314, 0, 0, 5.30292, -54.6152, 5.3197, -174.624, 5.30048, 65.5575, 0.0325404, -6.51101
1, 1320.00000, 123.712, -31.5412, 123.322, -151.55, 123.769, 88.6314, 0, 0, 5.30292, -54.6152, 5.3197, -174.624, 5.30048, 65.5575, 0.0325404, -6.51101
1, 1380.00000, 123.712, -31.5412, 123.322, -151.55, 123.769, 88.6314, 0, 0, 5.30292, -54.6152, 5.3197, -174.624, 5.30048, 65.5575, 0.0325404, -6.51101
1, 1440.00000, 123.712, -31.5412, 123.322, -151.55, 123.769, 88.6314, 0, 0, 5.30292, -54.6152, 5.3197, -174.624, 5.30048, 65.5575, 0.0325404, -6.51101
1, 1500.00000, 123.712, -31.5412, 123.322, -151.55, 123.769, 88.6314, 0, 0, 5.30292, -54.6152, 5.3197, -174.624, 5.30048, 65.5575, 0.0325404, -6.51101
1, 1560.00000, 123.712, -31.5412, 123.322, -151.55, 123.769, 88.6314, 0, 0, 5.30292, -54.6152, 5.3197, -174.624, 5.30048, 65.5575, 0.0325404, -6.51101
1, 1620.00000, 123.712, -31.5412, 123.322, -151.55, 123.769, 88.6314, 0, 0, 5.30292, -54.6152, 5.3197, -174.624, 5.30048, 65.5575, 0.0325404, -6.51101
1, 1680.00000, 123.712, -31.5412, 123.322, -151.55, 123.769, 88.6314, 0, 0, 5.30292, -54.6152, 5.3197, -174.624, 5.30048, 65.5575, 0.0325404, -6.51101
1, 1740.00000, 123.712, -31.5412, 123.322, -151.55, 123.769, 88.6314, 0, 0, 5.30292, -54.6152, 5.3197, -174.624, 5.30048, 65.5575, 0.0325404, -6.51101
1, 1800.00000, 123.712, -31.5412, 123.322, -151.55, 123.769, 88.6314, 0, 0, 5.30292, -54.6152, 5.3197, -174.624, 5.30048, 65.5575, 0.0325404, -6.51101
1, 1860.00000, 123.712, -31.5412, 123.322, -151.55, 123.769, 88.6314, 0, 0, 5.30292, -54.6152, 5.3197, -174.624, 5.30048, 65.5575, 0.0325404, -6.51101
1, 1920.00000, 123.712, -31.5412, 123.322, -151.55, 123.769, 88.6314, 0, 0, 5.30292, -54.6152, 5.3197, -174.624, 5.30048, 65.5575, 0.0325404, -6.51101
1, 1980.00000, 123.712, -31.5412, 123.322, -151.55, 123.769, 88.6314, 0, 0, 5.30292, -54.6152, 5.3197, -174.624, 5.30048, 65.5575, 0.0325404, -6.51101
1, 2040.00000, 123.712, -31.5412, 123.322, -151.55, 123.769, 88.6314, 0, 0, 5.30292, -54.6152, 5.3197, -174.624, 5.30048, 65.5575, 0.0325404, -6.51101
1, 2100.00000, 123.712, -31.5412, 123.322, -151.55, 123.769, 88.6314, 0, 0, 5.30292, -54.6152, 5.3197, -174.624, 5.30048, 65.5575, 0.0325404, -6.51101
1, 2160.00000, 123.712, -31.5412, 123.322, -151.55, 123.769, 88.6314, 0, 0, 5.30292, -54.6152, 5.3197, -174.624, 5.30048, 65.5575, 0.0325404, -6.51101
1, 2220.00000, 123.816, -31.4124, 123.628, -151.523, 123.763, 88.6337, 0, 0, 5.29847, -54.4863, 5.30658, -174.597, 5.30071, 65.5598, 0.0178479, -47.7894
1, 2280.00000, 123.816, -31.4124, 123.628, -151.523, 123.763, 88.6337, 0, 0, 5.29846, -54.4863, 5.30653, -174.597, 5.30072, 65.5598, 0.0178156, -47.8959
1, 2340.00000, 123.816, -31.4124, 123.628, -151.523, 123.763, 88.6337, 0, 0, 5.29846, -54.4863, 5.30653, -174.597, 5.30072, 65.5598, 0.0178155, -47.8964
1, 2400.00000, 123.816, -31.4124, 123.628, -151.523, 123.763, 88.6337, 0, 0, 5.29846, -54.4863, 5.30653, -174.597, 5.30072, 65.5598, 0.0178155, -47.8964
1, 2460.00000, 123.816, -31.4124, 123.628, -151.523, 123.763, 88.6337, 0, 0, 5.29846, -54.4863, 5.30653, -174.597, 5.30072, 65.5598, 0.0178155, -47.8964
1, 2520.00000, 123.816, -31.4124, 123.628, -151.523, 123.763, 88.6337, 0, 0, 5.29846, -54.4863, 5.30653, -174.597, 5.30072, 65.5598, 0.0178155, -47.8964
1, 2580.00000, 123.816, -31.4124, 123.628, -151.523, 123.763, 88.6337, 0, 0, 5.29846, -54.4863, 5.30653, -174.597, 5.30072, 65.5598, 0.0178155, -47.8964
1, 2640.00000, 123.816, -31.4124, 123.628, -151.523, 123.763, 88.6337, 0, 0, 5.29846, -54.4863, 5.30653, -174.597, 5.30072, 65.5598, 0.0178155, -47.8964
1, 2700.00000, 123.816, -31.4124, 123.628, -151.523, 123.763, 88.6337, 0, 0, 5.29846, -54.4863, 5.30653, -174.597, 5.30072, 65.5598, 0.0178155, -47.8964
1, 2760.00000, 123.816, -31.4124, 123.628, -151.523, 123.763, 88.6337, 0, 0, 5.29846, -54.4863, 5.30653, -174.597, 5.30072, 65.5598, 0.0178155, -47.8964
1, 2820.00000, 123.816, -31.4124, 123.628, -151.523, 123.763, 88.6337, 0, 0, 5.29846, -54.4863, 5.30653, -174.597, 5.30072, 65.5598, 0.0178155, -47.8964
1, 2880.00000, 123.816, -31.4124, 123.628, -151.523, 123.763, 88.6337, 0, 0, 5.29846, -54.4863, 5.30653, -174.597, 5.30072, 65.5598, 0.0178155, -47.8964
1, 2940.00000, 123.816, -31.4124, 123.628, -151.523, 123.763, 88.6337, 0, 0, 5.29846, -54.4863, 5.30653, -174.597, 5.30072, 65.5598, 0.0178155, -47.8964
1, 3000.00000, 123.816, -31.4124, 123.628, -151.523, 123.763, 88.6337, 0, 0, 5.29846, -54.4863, 5.30653, -174.597, 5.30072, 65.5598, 0.0178155, -47.8964
1, 3060.00000, 123.816, -31.4124, 123.628, -151.523, 123.763, 88.6337, 0, 0, 5.29846, -54.4863, 5.30653, -174.597, 5.30072, 65.5598, 0.0178155, -47.8964
1, 3120.00000, 123.816, -31.4124, 123.628, -151.523, 123.763, 88.6337, 0, 0, 5.29846, -54.4863, 5.30653, -174.597, 5.30072, 65.5598, 0.0178155, -47.8964
1, 3180.00000, 123.816, -31.4124, 123.628, -151.523, 123.763, 88.6337, 0, 0, 5.29846, -54.4863, 5.30653, -174.597, 5.30072, 65.5598, 0.0178155, -47.8964
1, 3240.00000, 123.816, -31.4124, 123.628, -151.523, 123.763, 88.6337, 0, 0, 5.29846, -54.4863, 5.30653, -174.597, 5.30072, 65.5598, 0.0178155, -47.8964
1, 3300.00000, 123.816, -31.4124, 123.628, -151.523, 123.763, 88.6337, 0, 0, 5.29846, -54.4863, 5.30653, -174.597, 5.30072, 65.5598, 0.0178155, -47.8964
1, 3360.00000, 123.816, -31.4124, 123.628, -151.523, 123.763, 88.6337, 0, 0, 5.29846, -54.4863, 5.30653, -174.597, 5.30072, 65.5598, 0.0178155, -47.8964
1, 3420.00000, 123.816, -31.4124, 123.628, -151.523, 123.763, 88.6337, 0, 0, 5.29846, -54.4863, 5.30653, -174.597, 5.30072, 65.5598, 0.0178155, -47.8964
1, 3480.00000, 123.816, -31.4124, 123.628, -151.523, 123.763, 88.6337, 0, 0, 5.29846, -54.4863, 5.30653, -174.597, 5.30072, 65.5598, 0.0178155, -47.8964
1, 3540.00000, 123.816, -31.4124, 123.628, -151.523, 123.763, 88.6337, 0, 0, 5.29846, -54.4863, 5.30653, -174.597, 5.30072, 65.5598, 0.0178155, -47.8964
2, 0.00000, 123.816, -31.4124, 123.628, -151.523, 123.763, 88.6337, 0, 0, 5.29846, -54.4863, 5.30653, -174.597, 5.30072, 65.5598, 0.0178155, -47.8964
2, 60.00000, 123.816, -31.4124, 123.628, -151.523, 123.763, 88.6337, 0, 0, 5.29846, -54.4863, 5.30653, -174.597, 5.30072, 65.5598, 0.0178155, -47.8964
2, 120.00000, 123.816, -31.4124, 123.628, -151.523, 123.763, 88.6337, 0, 0, 5.29846, -54.4863, 5.30653, -174.597, 5.30072, 65.5598, 0.0178155, -47.8964
2, 180.00000, 123.816, -31.4124, 123.628, -151.523, 123.763, 88.6337, 0, 0, 5.29846, -54.4863, 5.30653, -174.597, 5.30072, 65.5598, 0.0178155, -47.8964
2, 240.00000, 123.816, -31.4124, 123.628, -151.523, 123.763, 88.6337, 0, 0, 5.29846, -54.4863, 5.30653, -174.597, 5.30072, 65.5598, 0.0178155, -47.8964
2, 300.00000, 123.816, -31.4124, 123.628, -151.523, 123.763, 88.6337, 0, 0, 5.29846, -54.4863, 5.30653, -174.597, 5.30072, 65.5598, 0.0178155, -47.8964
2, 360.00000, 123.816, -31.4124, 123.628, -151.523, 123.763, 88.6337, 0, 0, 5.29846, -54.4863, 5.30653, -174.597, 5.30072, 65.5598, 0.0178155, -47.8964
2, 420.00000, 123.816, -31.4124, 123.628, -151.523, 123.763, 88.6337, 0, 0, 5.29846, -54.4863, 5.30653, -174.597, 5.30072, 65.5598, 0.0178155, -47.8964
2, 480.00000, 123.816, -31.4124, 123.628, -151.523, 123.763, 88.6337, 0, 0, 5.29846, -54.4863, 5.30653, -174.597, 5.30072, 65.5598, 0.0178155, -47.8964
2, 540.00000, 123.816, -31.4124, 123.628, -151.523, 123.763, 88.6337, 0, 0, 5.29846, -54.4863, 5.30653, -174.597, 5.30072, 65.5598, 0.0178155, -47.8964
2, 600.00000, 123.816, -31.4124, 123.628, -151.523, 123.763, 88.6337, 0, 0, 5.29846, -54.4863, 5.30653, -174.597, 5.30072, 65.5598, 0.0178155, -47.8964
2, 660.00000, 123.816, -31.4124, 123.628, -151.523, 123.763, 88.6337, 0, 0, 5.29846, -54.4863, 5.30653, -174.597, 5.30072, 65.5598, 0.0178155, -47.8964
