hour,t(sec),V1,VAngle1,V2,VAngle2,V3,VAngle3,V4,VAngle4,I1,IAngle1,I2,IAngle2,I3,IAngle3,I4,IAngle4
0, 60.00000, 117.983, -31.7956, 117.606, -151.091, 119.761, 88.7025, 0, 0, 3.91612, -54.8691, 3.90222, -174.165, 3.98169, 65.6288, 0.0310301, -117.952
0, 120.00000, 117.983, -31.7956, 117.606, -151.091, 119.761, 88.7025, 0, 0, 3.91608, -54.8695, 3.90217, -174.165, 3.98164, 65.6286, 0.0310049, -117.962
0, 180.00000, 117.983, -31.7956, 117.606, -151.091, 119.761, 88.7025, 0, 0, 3.91608, -54.8695, 3.90217, -174.165, 3.98163, 65.6286, 0.0310047, -117.962
0, 240.00000, 117.983, -31.7956, 117.606, -151.091, 119.761, 88.7025, 0, 0, 3.91608, -54.8695, 3.90217, -174.165, 3.98163, 65.6286, 0.0310047, -117.962
0, 300.00000, 117.983, -31.7956, 117.606, -151.091, 119.761, 88.7025, 0, 0, 3.91608, -54.8695, 3.90217, -174.165, 3.98163, 65.6286, 0.0310047, -117.962
0, 360.00000, 117.983, -31.7956, 117.606, -151.091, 119.761, 88.7025, 0, 0, 3.91608, -54.8695, 3.90217, -174.165, 3.98163, 65.6286, 0.0310047, -117.962
0, 420.00000, 117.983, -31.7956, 117.606, -151.091, 119.761, 88.7025, 0, 0, 3.91608, -54.8695, 3.90217, -174.165, 3.98163, 65.6286, 0.0310047, -117.962
0, 480.00000, 118.788, -31.689, 118.372, -150.987, 120.523, 88.8204, 0, 0, 4.14041, -54.7634, 4.12429, -174.061, 4.20755, 65.7463, 0.0314845, -118.538
0, 540.00000, 118.788, -31.689, 118.372, -150.987, 120.523, 88.8204, 0, 0, 4.14047, -54.7629, 4.12434, -174.061, 4.20761, 65.7465, 0.0315037, -118.561
0, 600.00000, 118.788, -31.689, 118.372, -150.987, 120.523, 88.8204, 0, 0, 4.14047, -54.7629, 4.12434, -174.061, 4.20761, 65.7465, 0.0315037, -118.561
0, 660.00000, 118.788, -31.689, 118.372, -150.987, 120.523, 88.8204, 0, 0, 4.14047, -54.7629, 4.12434, -174.061, 4.20761, 65.7465, 0.0315037, -118.561
0, 720.00000, 118.788, -31.689, 118.372, -150.987, 120.523, 88.8204, 0, 0, 4.14047, -54.7629, 4.12434, -174.061, 4.20761, 65.7465, 0.0315037, -118.561
0, 780.00000, 118.788, -31.689, 118.372, -150.987, 120.523, 88.8204, 0, 0, 4.14047, -54.7629, 4.12434, -174.061, 4.20761, 65.7465, 0.0315037, -118.561
0, 840.00000, 118.788, -31.689, 118.372, -150.987, 120.523, 88.8204, 0, 0, 4.14047, -54.7629, 4.12434, -174.061, 4.20761, 65.7465, 0.0315037, -118.561
0, 900.00000, 118.788, -31.689, 118.372, -150.987, 120.523, 88.8204, 0, 0, 4.14047, -54.7629, 4.12434, -174.061, 4.20761, 65.7465, 0.0315037, -118.561
0, 960.00000, 118.328, -31.6961, 117.921, -151.203, 119.677, 88.7274, 0, 0, 4.12275, -54.7694, 4.10692, -174.277, 4.17494, 65.6536, 0.0294942, -116.065
0, 1020.00000, 118.328, -31.6962, 117.921, -151.203, 119.677, 88.7273, 0, 0, 4.12266, -54.7701, 4.10691, -174.277, 4.17484, 65.6534, 0.0294084, -115.917
0, 1080.00000, 118.328, -31.6962, 117.921, -151.203, 119.677, 88.7273, 0, 0, 4.12266, -54.7701, 4.10691, -174.277, 4.17484, 65.6534, 0.029408, -115.917
0, 1140.00000, 118.762, -31.6822, 117.919, -151.202, 119.888, 88.8998, 0, 0, 4.13938, -54.7566, 4.10682, -174.276, 4.183, 65.8258, 0.0300658, -120.541
0, 1200.00000, 118.762, -31.6822, 117.919, -151.202, 119.888, 88.8998, 0, 0, 4.13945, -54.7561, 4.10682, -174.276, 4.18304, 65.8259, 0.0301115, -120.682
0, 1260.00000, 118.762, -31.6822, 117.919, -151.202, 119.888, 88.8998, 0, 0, 4.13945, -54.7561, 4.10682, -174.276, 4.18304, 65.8259, 0.0301117, -120.683
0, 1320.00000, 118.762, -31.6822, 117.919, -151.202, 119.888, 88.8998, 0, 0, 4.13945, -54.7561, 4.10682, -174.276, 4.18304, 65.8259, 0.0301117, -120.683
0, 1380.00000, 118.762, -31.6822, 117.919, -151.202, 119.888, 88.8998, 0, 0, 4.13945, -54.7561, 4.10682, -174.276, 4.18304, 65.8259, 0.0301117, -120.683
0, 1440.00000, 118.762, -31.6822, 117.919, -151.202, 119.888, 88.8998, 0, 0, 4.13945, -54.7561, 4.10682, -174.276, 4.18304, 65.8259, 0.0301117, -120.683
0, 1500.00000, 118.762, -31.6822, 117.919, -151.202, 119.888, 88.8998, 0, 0, 4.13945, -54.7561, 4.10682, -174.276, 4.18304, 65.8259, 0.0301117, -120.683
0, 1560.00000, 118.762, -31.6822, 117.919, -151.202, 119.888, 88.8998, 0, 0, 4.13945, -54.7561, 4.10682, -174.276, 4.18304, 65.8259, 0.0301117, -120.683
0, 1620.00000, 118.762, -31.6822, 117.919, -151.202, 119.888, 88.8998, 0, 0, 4.13945, -54.7561, 4.10682, -174.276, 4.18304, 65.8259, 0.0301117, -120.683
0, 1680.00000, 118.762, -31.6822, 117.919, -151.202, 119.888, 88.8998, 0, 0, 4.13945, -54.7561, 4.10682, -174.276, 4.18304, 65.8259, 0.0301117, -120.683
0, 1740.00000, 118.762, -31.6822, 117.919, -151.202, 119.888, 88.8998, 0, 0, 4.13945, -54.7561, 4.10682, -174.276, 4.18304, 65.8259, 0.0301117, -120.683
0, 1800.00000, 118.482, -31.8579, 117.462, -151.172, 119.906, 88.8937, 0, 0, 4.12863, -54.9317, 4.08916, -174.246, 4.18371, 65.8197, 0.0324728, -122.085
0, 1860.00000, 118.482, -31.8579, 117.462, -151.172, 119.906, 88.8937, 0, 0, 4.12861, -54.9318, 4.08913, -174.246, 4.18372, 65.8198, 0.0325002, -122.067
0, 1920.00000, 118.482, -31.8579, 117.462, -151.172, 119.906, 88.8937, 0, 0, 4.12861, -54.9318, 4.08913, -174.246, 4.18372, 65.8198, 0.0325003, -122.067
0, 1980.00000, 118.482, -31.8579, 117.462, -151.172, 119.906, 88.8937, 0, 0, 4.12861, -54.9318, 4.08913, -174.246, 4.18372, 65.8198, 0.0325003, -122.067
0, 2040.00000, 118.482, -31.8579, 117.462, -151.172, 119.906, 88.8937, 0, 0, 4.12861, -54.9318, 4.08913, -174.246, 4.18372, 65.8198, 0.0325003, -122.067
0, 2100.00000, 118.482, -31.8579, 117.462, -151.172, 119.906, 88.8937, 0, 0, 4.12861, -54.9318, 4.08913, -174.246, 4.18372, 65.8198, 0.0325003, -122.067
0, 2160.00000, 118.482, -31.8579, 117.462, -151.172, 119.906, 88.8937, 0, 0, 4.12861, -54.9318, 4.08913, -174.246, 4.18372, 65.8198, 0.0325003, -122.067
0, 2220.00000, 118.482, -31.8579, 117.462, -151.172, 119.906, 88.8937, 0, 0, 4.12861, -54.9318, 4.08913, -174.246, 4.18372, 65.8198, 0.0325003, -122.067
0, 2280.00000, 118.482, -31.8579, 117.462, -151.172, 119.906, 88.8937, 0, 0, 4.12861, -54.9318, 4.08913, -174.246, 4.18372, 65.8198, 0.0325003, -122.067
0, 2340.00000, 118.482, -31.8579, 117.462, -151.172, 119.906, 88.8937, 0, 0, 4.12861, -54.9318, 4.08913, -174.246, 4.18372, 65.8198, 0.0325003, -122.067
0, 2400.00000, 118.482, -31.8579, 117.462, -151.172, 119.906, 88.8937, 0, 0, 4.12861, -54.9318, 4.08913, -174.246, 4.18372, 65.8198, 0.0325003, -122.067
0, 2460.00000, 118.482, -31.8579, 117.462, -151.172, 119.906, 88.8937, 0, 0, 4.12861, -54.9318, 4.08913, -174.246, 4.18372, 65.8198, 0.0325003, -122.067
0, 2520.00000, 118.482, -31.8579, 117.462, -151.172, 119.906, 88.8937, 0, 0, 4.12861, -54.9318, 4.08913, -174.246, 4.18372, 65.8198, 0.0325003, -122.067
0, 2580.00000, 118.482, -31.8579, 117.462, -151.172, 119.906, 88.8937, 0, 0, 4.12861, -54.9318, 4.08913, -174.246, 4.18372, 65.8198, 0.0325003, -122.067
0, 2640.00000, 118.482, -31.8579, 117.462, -151.172, 119.906, 88.8937, 0, 0, 4.12861, -54.9318, 4.08913, -174.246, 4.18372, 65.8198, 0.0325003, -122.067
0, 2700.00000, 118.482, -31.8579, 117.462, -151.172, 119.906, 88.8937, 0, 0, 4.12861, -54.9318, 4.08913, -174.246, 4.18372, 65.8198, 0.0325003, -122.067
0, 2760.00000, 118.894, -31.6332, 118.08, -151.223, 119.855, 88.9028, 0, 0, 4.1445, -54.7071, 4.11299, -174.298, 4.18178, 65.8288, 0.0276044, -120.866
0, 2820.00000, 118.894, -31.6332, 118.08, -151.223, 119.855, 88.9028, 0, 0, 4.14454, -54.7071, 4.11305, -174.297, 4.18175, 65.8288, 0.0275007, -120.889
0, 2880.00000, 118.894, -31.6332, 118.08, -151.223, 119.855, 88.9028, 0, 0, 4.14454, -54.7071, 4.11305, -174.297, 4.18175, 65.8288, 0.0275002, -120.889
0, 2940.00000, 118.894, -31.6332, 118.08, -151.223, 119.855, 88.9028, 0, 0, 4.14454, -54.7071, 4.11305, -174.297, 4.18175, 65.8288, 0.0275002, -120.889
0, 3000.00000, 118.894, -31.6332, 118.08, -151.223, 119.855, 88.9028, 0, 0, 4.14454, -54.7071, 4.11305, -174.297, 4.18175, 65.8288, 0.0275002, -120.889
0, 3060.00000, 118.894, -31.6332, 118.08, -151.223, 119.855, 88.9028, 0, 0, 4.14454, -54.7071, 4.11305, -174.297, 4.18175, 65.8288, 0.0275002, -120.889
0, 3120.00000, 118.894, -31.6332, 118.08, -151.223, 119.855, 88.9028, 0, 0, 4.14454, -54.7071, 4.11305, -174.297, 4.18175, 65.8288, 0.0275002, -120.889
0, 3180.00000, 118.894, -31.6332, 118.08, -151.223, 119.855, 88.9028, 0, 0, 4.14454, -54.7071, 4.11305, -174.297, 4.18175, 65.8288, 0.0275002, -120.889
0, 3240.00000, 118.894, -31.6332, 118.08, -151.223, 119.855, 88.9028, 0, 0, 4.14454, -54.7071, 4.11305, -174.297, 4.18175, 65.8288, 0.0275002, -120.889
0, 3300.00000, 118.894, -31.6332, 118.08, -151.223, 119.855, 88.9028, 0, 0, 4.14454, -54.7071, 4.11305, -174.297, 4.18175, 65.8288, 0.0275002, -120.889
0, 3360.00000, 118.894, -31.6332, 118.08, -151.223, 119.855, 88.9028, 0, 0, 4.14454, -54.7071, 4.11305, -174.297, 4.18175, 65.8288, 0.0275002, -120.889
0, 3420.00000, 118.894, -31.6332, 118.08, -151.223, 119.855, 88.9028, 0, 0, 4.14454, -54.7071, 4.11305, -174.297, 4.18175, 65.8288, 0.0275002, -120.889
0, 3480.00000, 118.894, -31.6332, 118.08, -151.223, 119.855, 88.9028, 0, 0, 4.14454, -54.7071, 4.11305, -174.297, 4.18175, 65.8288, 0.0275002, -120.889
0, 3540.00000, 118.894, -31.6332, 118.08, -151.223, 119.855, 88.9028, 0, 0, 4.14454, -54.7071, 4.11305, -174.297, 4.18175, 65.8288, 0.0275002, -120.889
1, 0.00000, 118.894, -31.6332, 118.08, -151.223, 119.855, 88.9028, 0, 0, 4.14454, -54.7071, 4.11305, -174.297, 4.18175, 65.8288, 0.0275002, -120.889
1, 60.00000, 119.098, -31.4719, 118.484, -151.22, 119.835, 88.9071, 0, 0, 4.15243, -54.5458, 4.12865, -174.295, 4.18097, 65.8331, 0.0247594, -119.233
1, 120.00000, 119.098, -31.4719, 118.484, -151.22, 119.835, 88.9071, 0, 0, 4.15245, -54.5458, 4.12871, -174.294, 4.18095, 65.8331, 0.0246784, -119.22
1, 180.00000, 119.098, -31.4719, 118.484, -151.22, 119.835, 88.9071, 0, 0, 4.15245, -54.5458, 4.12871, -174.294, 4.18095, 65.8331, 0.024678, -119.22
1, 240.00000, 119.098, -31.4719, 118.484, -151.22, 119.835, 88.9071, 0, 0, 4.15245, -54.5458, 4.12871, -174.294, 4.18095, 65.8331, 0.024678, -119.22
1, 300.00000, 119.098, -31.4719, 118.484, -151.22, 119.835, 88.9071, 0, 0, 4.15245, -54.5458, 4.12871, -174.294, 4.18095, 65.8331, 0.024678, -119.22
1, 360.00000, 119.098, -31.4719, 118.484, -151.22, 119.835, 88.9071, 0, 0, 4.15245, -54.5458, 4.12871, -174.294, 4.18095, 65.8331, 0.024678, -119.22
1, 420.00000, 119.098, -31.4719, 118.484, -151.22, 119.835, 88.9071, 0, 0, 4.15245, -54.5458, 4.12871, -174.294, 4.18095, 65.8331, 0.024678, -119.22
1, 480.00000, 119.098, -31.4719, 118.484, -151.22, 119.835, 88.9071, 0, 0, 4.15245, -54.5458, 4.12871, -174.294, 4.18095, 65.8331, 0.024678, -119.22
1, 540.00000, 119.098, -31.4719, 118.484, -151.22, 119.835, 88.9071, 0, 0, 4.15245, -54.5458, 4.12871, -174.294, 4.18095, 65.8331, 0.024678, -119.22
1, 600.00000, 119.098, -31.4719, 118.484, -151.22, 119.835, 88.9071, 0, 0, 4.15245, -54.5458, 4.12871, -174.294, 4.18095, 65.8331, 0.024678, -119.22
1, 660.00000, 119.098, -31.4719, 118.484, -151.22, 119.835, 88.9071, 0, 0, 4.15245, -54.5458, 4.12871, -174.294, 4.18095, 65.8331, 0.024678, -119.22
1, 720.00000, 119.098, -31.4719, 118.484, -151.22, 119.835, 88.9071, 0, 0, 4.15245, -54.5458, 4.12871, -174.294, 4.18095, 65.8331, 0.024678, -119.22
1, 780.00000, 119.106, -31.4736, 118.631, -151.078, 120.179, 88.9214, 0, 0, 4.15277, -54.5476, 4.13437, -174.152, 4.19423, 65.8473, 0.0259066, -117.642
1, 840.00000, 119.106, -31.4736, 118.631, -151.078, 120.179, 88.9214, 0, 0, 4.15276, -54.5475, 4.13439, -174.152, 4.19428, 65.8475, 0.0259585, -117.559
1, 900.00000, 119.106, -31.4736, 118.631, -151.078, 120.179, 88.9214, 0, 0, 4.15276, -54.5475, 4.13439, -174.152, 4.19428, 65.8475, 0.0259587, -117.558
1, 960.00000, 119.106, -31.4736, 118.631, -151.078, 120.179, 88.9214, 0, 0, 4.15276, -54.5475, 4.13439, -174.152, 4.19428, 65.8475, 0.0259587, -117.558
1, 1020.00000, 119.106, -31.4736, 118.631, -151.078, 120.179, 88.9214, 0, 0, 4.15276, -54.5475, 4.13439, -174.152, 4.19428, 65.8475, 0.0259587, -117.558
1, 1080.00000, 119.106, -31.4736, 118.631, -151.078, 120.179, 88.9214, 0, 0, 4.15276, -54.5475, 4.13439, -174.152, 4.19428, 65.8475, 0.0259587, -117.558
1, 1140.00000, 119.106, -31.4736, 118.631, -151.078, 120.179, 88.9214, 0, 0, 4.15276, -54.5475, 4.13439, -174.152, 4.19428, 65.8475, 0.0259587, -117.558
1, 1200.00000, 119.106, -31.4736, 118.631, -151.078, 120.179, 88.9214, 0, 0, 4.15276, -54.5475, 4.13439, -174.152, 4.19428, 65.8475, 0.0259587, -117.558
1, 1260.00000, 119.106, -31.4736, 118.631, -151.078, 120.179, 88.9214, 0, 0, 4.15276, -54.5475, 4.13439, -174.152, 4.19428, 65.8475, 0.0259587, -117.558
1, 1320.00000, 119.106, -31.4736, 118.631, -151.078, 120.179, 88.9214, 0, 0, 4.15276, -54.5475, 4.13439, -174.152, 4.19428, 65.8475, 0.0259587, -117.558
1, 1380.00000, 119.106, -31.4736, 118.631, -151.078, 120.179, 88.9214, 0, 0, 4.15276, -54.5475, 4.13439, -174.152, 4.19428, 65.8475, 0.0259587, -117.558
1, 1440.00000, 119.106, -31.4736, 118.631, -151.078, 120.179, 88.9214, 0, 0, 4.15276, -54.5475, 4.13439, -174.152, 4.19428, 65.8475, 0.0259587, -117.558
1, 1500.00000, 119.106, -31.4736, 118.631, -151.078, 120.179, 88.9214, 0, 0, 4.15276, -54.5475, 4.13439, -174.152, 4.19428, 65.8475, 0.0259587, -117.558
1, 1560.00000, 119.106, -31.4736, 118.631, -151.078, 120.179, 88.9214, 0, 0, 4.15276, -54.5475, 4.13439, -174.152, 4.19428, 65.8475, 0.0259587, -117.558
1, 1620.00000, 119.106, -31.4736, 118.631, -151.078, 120.179, 88.9214, 0, 0, 4.15276, -54.5475, 4.13439, -174.152, 4.19428, 65.8475, 0.0259587, -117.558
1, 1680.00000, 119.106, -31.4736, 118.631, -151.078, 120.179, 88.9214, 0, 0, 4.15276, -54.5475, 4.13439, -174.152, 4.19428, 65.8475, 0.0259587, -117.558
1, 1740.00000, 119.106, -31.4736, 118.631, -151.078, 120.179, 88.9214, 0, 0, 4.15276, -54.5475, 4.13439, -174.152, 4.19428, 65.8475, 0.0259587, -117.558
1, 1800.00000, 119.106, -31.4736, 118.631, -151.078, 120.179, 88.9214, 0, 0, 4.15276, -54.5475, 4.13439, -174.152, 4.19428, 65.8475, 0.0259587, -117.558
1, 1860.00000, 119.106, -31.4736, 118.631, -151.078, 120.179, 88.9214, 0, 0, 4.15276, -54.5475, 4.13439, -174.152, 4.19428, 65.8475, 0.0259587, -117.558
1, 1920.00000, 119.106, -31.4736, 118.631, -151.078, 120.179, 88.9214, 0, 0, 4.15276, -54.5475, 4.13439, -174.152, 4.19428, 65.8475, 0.0259587, -117.558
1, 1980.00000, 119.106, -31.4736, 118.631, -151.078, 120.179, 88.9214, 0, 0, 4.15276, -54.5475, 4.13439, -174.152, 4.19428, 65.8475, 0.0259587, -117.558
1, 2040.00000, 119.106, -31.4736, 118.631, -151.078, 120.179, 88.9214, 0, 0, 4.15276, -54.5475, 4.13439, -174.152, 4.19428, 65.8475, 0.0259587, -117.558
1, 2100.00000, 119.106, -31.4736, 118.631, -151.078, 120.179, 88.9214, 0, 0, 4.15276, -54.5475, 4.13439, -174.152, 4.19428, 65.8475, 0.0259587, -117.558
1, 2160.00000, 119.106, -31.4736, 118.631, -151.078, 120.179, 88.9214, 0, 0, 4.15276, -54.5475, 4.13439, -174.152, 4.19428, 65.8475, 0.0259587, -117.558
1, 2220.00000, 119.387, -31.2986, 119.096, -151.105, 120.161, 88.9276, 0, 0, 4.16362, -54.3725, 4.15232, -174.179, 4.19359, 65.8536, 0.0234782, -115.007
1, 2280.00000, 119.387, -31.2986, 119.096, -151.105, 120.161, 88.9276, 0, 0, 4.16363, -54.3725, 4.15236, -174.179, 4.19358, 65.8537, 0.0234223, -114.948
1, 2340.00000, 119.387, -31.2986, 119.096, -151.105, 120.161, 88.9276, 0, 0, 4.16363, -54.3725, 4.15236, -174.179, 4.19358, 65.8537, 0.023422, -114.948
1, 2400.00000, 119.387, -31.2986, 119.096, -151.105, 120.161, 88.9276, 0, 0, 4.16363, -54.3725, 4.15236, -174.179, 4.19358, 65.8537, 0.023422, -114.948
1, 2460.00000, 119.387, -31.2986, 119.096, -151.105, 120.161, 88.9276, 0, 0, 4.16363, -54.3725, 4.15236, -174.179, 4.19358, 65.8537, 0.023422, -114.948
1, 2520.00000, 119.387, -31.2986, 119.096, -151.105, 120.161, 88.9276, 0, 0, 4.16363, -54.3725, 4.15236, -174.179, 4.19358, 65.8537, 0.023422, -114.948
1, 2580.00000, 119.387, -31.2986, 119.096, -151.105, 120.161, 88.9276, 0, 0, 4.16363, -54.3725, 4.15236, -174.179, 4.19358, 65.8537, 0.023422, -114.948
1, 2640.00000, 119.387, -31.2986, 119.096, -151.105, 120.161, 88.9276, 0, 0, 4.16363, -54.3725, 4.15236, -174.179, 4.19358, 65.8537, 0.023422, -114.948
1, 2700.00000, 119.387, -31.2986, 119.096, -151.105, 120.161, 88.9276, 0, 0, 4.16363, -54.3725, 4.15236, -174.179, 4.19358, 65.8537, 0.023422, -114.948
1, 2760.00000, 119.387, -31.2986, 119.096, -151.105, 120.161, 88.9276, 0, 0, 4.16363, -54.3725, 4.15236, -174.179, 4.19358, 65.8537, 0.023422, -114.948
1, 2820.00000, 119.387, -31.2986, 119.096, -151.105, 120.161, 88.9276, 0, 0, 4.16363, -54.3725, 4.15236, -174.179, 4.19358, 65.8537, 0.023422, -114.948
1, 2880.00000, 119.387, -31.2986, 119.096, -151.105, 120.161, 88.9276, 0, 0, 4.16363, -54.3725, 4.15236, -174.179, 4.19358, 65.8537, 0.023422, -114.948
1, 2940.00000, 119.387, -31.2986, 119.096, -151.105, 120.161, 88.9276, 0, 0, 4.16363, -54.3725, 4.15236, -174.179, 4.19358, 65.8537, 0.023422, -114.948
1, 3000.00000, 119.387, -31.2986, 119.096, -151.105, 120.161, 88.9276, 0, 0, 4.16363, -54.3725, 4.15236, -174.179, 4.19358, 65.8537, 0.023422, -114.948
1, 3060.00000, 119.387, -31.2986, 119.096, -151.105, 120.161, 88.9276, 0, 0, 4.16363, -54.3725, 4.15236, -174.179, 4.19358, 65.8537, 0.023422, -114.948
1, 3120.00000, 119.387, -31.2986, 119.096, -151.105, 120.161, 88.9276, 0, 0, 4.16363, -54.3725, 4.15236, -174.179, 4.19358, 65.8537, 0.023422, -114.948
1, 3180.00000, 119.387, -31.2986, 119.096, -151.105, 120.161, 88.9276, 0, 0, 4.16363, -54.3725, 4.15236, -174.179, 4.19358, 65.8537, 0.023422, -114.948
1, 3240.00000, 119.387, -31.2986, 119.096, -151.105, 120.161, 88.9276, 0, 0, 4.16363, -54.3725, 4.15236, -174.179, 4.19358, 65.8537, 0.023422, -114.948
1, 3300.00000, 119.387, -31.2986, 119.096, -151.105, 120.161, 88.9276, 0, 0, 4.16363, -54.3725, 4.15236, -174.179, 4.19358, 65.8537, 0.023422, -114.948
1, 3360.00000, 119.387, -31.2986, 119.096, -151.105, 120.161, 88.9276, 0, 0, 4.16363, -54.3725, 4.15236, -174.179, 4.19358, 65.8537, 0.023422, -114.948
1, 3420.00000, 119.387, -31.2986, 119.096, -151.105, 120.161, 88.9276, 0, 0, 4.16363, -54.3725, 4.15236, -174.179, 4.19358, 65.8537, 0.023422, -114.948
1, 3480.00000, 119.387, -31.2986, 119.096, -151.105, 120.161, 88.9276, 0, 0, 4.16363, -54.3725, 4.15236, -174.179, 4.19358, 65.8537, 0.023422, -114.948
1, 3540.00000, 119.387, -31.2986, 119.096, -151.105, 120.161, 88.9276, 0, 0, 4.16363, -54.3725, 4.15236, -174.179, 4.19358, 65.8537, 0.023422, -114.948
2, 0.00000, 119.387, -31.2986, 119.096, -151.105, 120.161, 88.9276, 0, 0, 4.16363, -54.3725, 4.15236, -174.179, 4.19358, 65.8537, 0.023422, -114.948
2, 60.00000, 119.387, -31.2986, 119.096, -151.105, 120.161, 88.9276, 0, 0, 4.16363, -54.3725, 4.15236, -174.179, 4.19358, 65.8537, 0.023422, -114.948
2, 120.00000, 119.387, -31.2986, 119.096, -151.105, 120.161, 88.9276, 0, 0, 4.16363, -54.3725, 4.15236, -174.179, 4.19358, 65.8537, 0.023422, -114.948
2, 180.00000, 119.387, -31.2986, 119.096, -151.105, 120.161, 88.9276, 0, 0, 4.16363, -54.3725, 4.15236, -174.179, 4.19358, 65.8537, 0.023422, -114.948
2, 240.00000, 119.387, -31.2986, 119.096, -151.105, 120.161, 88.9276, 0, 0, 4.16363, -54.3725, 4.15236, -174.179, 4.19358, 65.8537, 0.023422, -114.948
2, 300.00000, 119.387, -31.2986, 119.096, -151.105, 120.161, 88.9276, 0, 0, 4.16363, -54.3725, 4.15236, -174.179, 4.19358, 65.8537, 0.023422, -114.948
2, 360.00000, 119.387, -31.2986, 119.096, -151.105, 120.161, 88.9276, 0, 0, 4.16363, -54.3725, 4.15236, -174.179, 4.19358, 65.8537, 0.023422, -114.948
2, 420.00000, 119.387, -31.2986, 119.096, -151.105, 120.161, 88.9276, 0, 0, 4.16363, -54.3725, 4.15236, -174.179, 4.19358, 65.8537, 0.023422, -114.948
2, 480.00000, 119.387, -31.2986, 119.096, -151.105, 120.161, 88.9276, 0, 0, 4.16363, -54.3725, 4.15236, -174.179, 4.19358, 65.8537, 0.023422, -114.948
2, 540.00000, 119.387, -31.2986, 119.096, -151.105, 120.161, 88.9276, 0, 0, 4.16363, -54.3725, 4.15236, -174.179, 4.19358, 65.8537, 0.023422, -114.948
2, 600.00000, 119.387, -31.2986, 119.096, -151.105, 120.161, 88.9276, 0, 0, 4.16363, -54.3725, 4.15236, -174.179, 4.19358, 65.8537, 0.023422, -114.948
2, 660.00000, 119.387, -31.2986, 119.096, -151.105, 120.161, 88.9276, 0, 0, 4.16363, -54.3725, 4.15236, -174.179, 4.19358, 65.8537, 0.023422, -114.948
