hour,t(sec),V1,VAngle1,V2,VAngle2,V3,VAngle3,V4,VAngle4,I1,IAngle1,I2,IAngle2,I3,IAngle3,I4,IAngle4
0, 60.00000, 123.702, -31.2987, 125.805, -151.236, 124.905, 88.0722, 0, 0, 3.16158, -54.3724, 3.10883, -174.309, 3.13111, 64.9984, 0.0821001, 150.562
0, 120.00000, 123.702, -31.2992, 125.826, -151.237, 124.91, 88.0646, 0, 0, 3.16159, -54.373, 3.10832, -174.311, 3.131, 64.9908, 0.0828895, 150.745
0, 180.00000, 123.702, -31.2997, 125.844, -151.239, 124.914, 88.0578, 0, 0, 3.1616, -54.3735, 3.10785, -174.313, 3.13091, 64.9839, 0.0835994, 150.908
0, 240.00000, 123.701, -31.3002, 125.861, -151.24, 124.917, 88.0516, 0, 0, 3.16161, -54.3739, 3.10744, -174.314, 3.13082, 64.9778, 0.0842386, 151.052
0, 300.00000, 123.701, -31.3005, 125.876, -151.242, 124.92, 88.0461, 0, 0, 3.16162, -54.3743, 3.10706, -174.315, 3.13075, 64.9722, 0.0848142, 151.181
0, 360.00000, 123.701, -31.3009, 125.889, -151.243, 124.923, 88.0411, 0, 0, 3.16163, -54.3747, 3.10673, -174.316, 3.13068, 64.9672, 0.0853326, 151.296
0, 420.00000, 123.7, -31.3012, 125.901, -151.244, 124.926, 88.0366, 0, 0, 3.16164, -54.375, 3.10642, -174.317, 3.13062, 64.9627, 0.0857992, 151.399
0, 480.00000, 123.7, -31.3015, 125.912, -151.245, 124.928, 88.0325, 0, 0, 3.16164, -54.3753, 3.10615, -174.318, 3.13056, 64.9586, 0.0862194, 151.49
0, 540.00000, 123.7, -31.3017, 125.922, -151.245, 124.93, 88.0289, 0, 0, 3.16165, -54.3756, 3.1059, -174.319, 3.13052, 64.955, 0.0865977, 151.572
0, 600.00000, 123.7, -31.302, 125.931, -151.246, 124.932, 88.0256, 0, 0, 3.16165, -54.3758, 3.10568, -174.32, 3.13047, 64.9517, 0.0869382, 151.645
0, 660.00000, 123.7, -31.3022, 125.938, -151.247, 124.933, 88.0226, 0, 0, 3.16166, -54.376, 3.10548, -174.321, 3.13043, 64.9487, 0.0872448, 151.711
0, 720.00000, 123.699, -31.3024, 125.946, -151.247, 124.935, 88.0199, 0, 0, 3.16166, -54.3762, 3.10531, -174.321, 3.1304, 64.9461, 0.0875208, 151.77
0, 780.00000, 123.699, -31.3025, 125.952, -151.248, 124.936, 88.0175, 0, 0, 3.16167, -54.3764, 3.10515, -174.322, 3.13037, 64.9437, 0.0877692, 151.823
0, 840.00000, 123.699, -31.3027, 125.958, -151.249, 124.937, 88.0154, 0, 0, 3.16167, -54.3765, 3.105, -174.322, 3.13034, 64.9415, 0.0879928, 151.87
0, 900.00000, 123.699, -31.3028, 125.963, -151.249, 124.938, 88.0134, 0, 0, 3.16167, -54.3767, 3.10487, -174.323, 3.13031, 64.9396, 0.0881941, 151.912
0, 960.00000, 123.531, -31.3332, 125.801, -151.28, 124.782, 87.9797, 0, 0, 3.3492, -54.4071, 3.28877, -174.353, 3.31561, 64.9058, 0.0938455, 151.759
0, 1020.00000, 123.531, -31.3333, 125.806, -151.28, 124.783, 87.9781, 0, 0, 3.3492, -54.4072, 3.28866, -174.354, 3.31559, 64.9042, 0.0940162, 151.793
0, 1080.00000, 123.531, -31.3334, 125.809, -151.28, 124.784, 87.9767, 0, 0, 3.3492, -54.4073, 3.28856, -174.354, 3.31557, 64.9028, 0.0941716, 151.824
0, 1140.00000, 123.531, -31.3335, 125.813, -151.281, 124.784, 87.9754, 0, 0, 3.34921, -54.4074, 3.28847, -174.354, 3.31556, 64.9015, 0.0943115, 151.851
0, 1200.00000, 123.531, -31.3336, 125.816, -151.281, 124.785, 87.9743, 0, 0, 3.34921, -54.4075, 3.28839, -174.355, 3.31554, 64.9004, 0.0944374, 151.876
0, 1260.00000, 123.53, -31.3337, 125.819, -151.281, 124.785, 87.9733, 0, 0, 3.34921, -54.4076, 3.28831, -174.355, 3.31553, 64.8994, 0.0945508, 151.899
0, 1320.00000, 123.53, -31.3338, 125.821, -151.281, 124.786, 87.9723, 0, 0, 3.34921, -54.4076, 3.28825, -174.355, 3.31551, 64.8984, 0.0946527, 151.919
0, 1380.00000, 123.53, -31.3338, 125.823, -151.282, 124.786, 87.9715, 0, 0, 3.34921, -54.4077, 3.28819, -174.355, 3.3155, 64.8976, 0.0947446, 151.937
0, 1440.00000, 123.53, -31.3339, 125.825, -151.282, 124.787, 87.9707, 0, 0, 3.34921, -54.4078, 3.28813, -174.356, 3.31549, 64.8968, 0.0948272, 151.953
0, 1500.00000, 123.53, -31.3339, 125.827, -151.282, 124.787, 87.9701, 0, 0, 3.34922, -54.4078, 3.28808, -174.356, 3.31548, 64.8962, 0.0949016, 151.968
0, 1560.00000, 123.53, -31.334, 125.829, -151.282, 124.787, 87.9695, 0, 0, 3.34922, -54.4079, 3.28804, -174.356, 3.31547, 64.8955, 0.0949685, 151.981
0, 1620.00000, 123.53, -31.334, 125.83, -151.282, 124.788, 87.9689, 0, 0, 3.34922, -54.4079, 3.288, -174.356, 3.31547, 64.895, 0.0950287, 151.993
0, 1680.00000, 123.53, -31.334, 125.832, -151.282, 124.788, 87.9684, 0, 0, 3.34922, -54.4079, 3.28797, -174.356, 3.31546, 64.8945, 0.095083, 152.003
0, 1740.00000, 123.53, -31.3341, 125.833, -151.282, 124.788, 87.968, 0, 0, 3.34922, -54.408, 3.28794, -174.356, 3.31545, 64.8941, 0.0951318, 152.013
0, 1800.00000, 123.53, -31.3341, 125.834, -151.282, 124.788, 87.9676, 0, 0, 3.34922, -54.408, 3.28791, -174.356, 3.31545, 64.8937, 0.0951757, 152.021
0, 1860.00000, 123.618, -31.3133, 125.928, -151.262, 124.875, 87.9878, 0, 0, 3.357, -54.3872, 3.29542, -174.336, 3.32321, 64.9139, 0.0955169, 152.135
0, 1920.00000, 123.618, -31.3133, 125.929, -151.262, 124.875, 87.9874, 0, 0, 3.357, -54.3872, 3.2954, -174.336, 3.32321, 64.9135, 0.095554, 152.142
0, 1980.00000, 123.618, -31.3133, 125.93, -151.262, 124.875, 87.9872, 0, 0, 3.357, -54.3872, 3.29538, -174.336, 3.3232, 64.9132, 0.0955861, 152.148
0, 2040.00000, 123.618, -31.3133, 125.931, -151.262, 124.875, 87.9869, 0, 0, 3.357, -54.3872, 3.29536, -174.336, 3.3232, 64.913, 0.0956151, 152.154
0, 2100.00000, 123.618, -31.3134, 125.931, -151.262, 124.876, 87.9867, 0, 0, 3.357, -54.3873, 3.29534, -174.336, 3.3232, 64.9127, 0.0956411, 152.159
0, 2160.00000, 123.618, -31.3134, 125.932, -151.262, 124.876, 87.9864, 0, 0, 3.357, -54.3873, 3.29532, -174.336, 3.32319, 64.9125, 0.0956645, 152.164
0, 2220.00000, 123.618, -31.3134, 125.932, -151.262, 124.876, 87.9863, 0, 0, 3.357, -54.3873, 3.29531, -174.336, 3.32319, 64.9123, 0.0956856, 152.168
0, 2280.00000, 123.618, -31.3134, 125.933, -151.262, 124.876, 87.9861, 0, 0, 3.357, -54.3873, 3.2953, -174.336, 3.32319, 64.9122, 0.0957046, 152.171
0, 2340.00000, 123.618, -31.3134, 125.933, -151.263, 124.876, 87.9859, 0, 0, 3.357, -54.3873, 3.29529, -174.336, 3.32319, 64.912, 0.0957216, 152.175
0, 2400.00000, 123.618, -31.3134, 125.934, -151.263, 124.876, 87.9858, 0, 0, 3.357, -54.3873, 3.29528, -174.336, 3.32319, 64.9119, 0.095737, 152.178
0, 2460.00000, 123.618, -31.3134, 125.934, -151.263, 124.876, 87.9857, 0, 0, 3.357, -54.3873, 3.29527, -174.336, 3.32318, 64.9117, 0.0957508, 152.18
0, 2520.00000, 123.618, -31.3134, 125.934, -151.263, 124.876, 87.9855, 0, 0, 3.357, -54.3873, 3.29526, -174.337, 3.32318, 64.9116, 0.0957633, 152.183
0, 2580.00000, 123.618, -31.3134, 125.935, -151.263, 124.876, 87.9854, 0, 0, 3.357, -54.3874, 3.29525, -174.337, 3.32318, 64.9115, 0.0957745, 152.185
0, 2640.00000, 123.618, -31.3134, 125.935, -151.263, 124.876, 87.9854, 0, 0, 3.357, -54.3874, 3.29525, -174.337, 3.32318, 64.9114, 0.0957846, 152.187
0, 2700.00000, 123.618, -31.3134, 125.935, -151.263, 124.876, 87.9853, 0, 0, 3.357, -54.3874, 3.29524, -174.337, 3.32318, 64.9114, 0.0957937, 152.189
0, 2760.00000, 123.831, -31.2709, 126.149, -151.221, 125.078, 88.0287, 0, 0, 3.1875, -54.3448, 3.12893, -174.295, 3.15571, 64.9547, 0.0908123, 152.432
0, 2820.00000, 123.831, -31.2709, 126.149, -151.221, 125.078, 88.0286, 0, 0, 3.1875, -54.3448, 3.12893, -174.295, 3.15571, 64.9547, 0.0908216, 152.434
0, 2880.00000, 123.831, -31.2709, 126.149, -151.221, 125.078, 88.0285, 0, 0, 3.1875, -54.3448, 3.12892, -174.295, 3.15571, 64.9546, 0.0908279, 152.436
0, 2940.00000, 123.831, -31.2709, 126.15, -151.221, 125.078, 88.0285, 0, 0, 3.1875, -54.3448, 3.12892, -174.295, 3.15571, 64.9546, 0.0908335, 152.437
0, 3000.00000, 123.831, -31.2709, 126.15, -151.221, 125.078, 88.0284, 0, 0, 3.1875, -54.3448, 3.12891, -174.295, 3.15571, 64.9545, 0.0908386, 152.438
0, 3060.00000, 123.831, -31.2709, 126.15, -151.221, 125.078, 88.0284, 0, 0, 3.1875, -54.3448, 3.12891, -174.295, 3.15571, 64.9545, 0.0908432, 152.439
0, 3120.00000, 123.831, -31.2709, 126.15, -151.221, 125.079, 88.0284, 0, 0, 3.1875, -54.3448, 3.12891, -174.295, 3.15571, 64.9544, 0.0908473, 152.439
0, 3180.00000, 123.831, -31.2709, 126.15, -151.221, 125.079, 88.0283, 0, 0, 3.1875, -54.3448, 3.12891, -174.295, 3.15571, 64.9544, 0.0908511, 152.44
0, 3240.00000, 123.831, -31.2709, 126.15, -151.221, 125.079, 88.0283, 0, 0, 3.1875, -54.3448, 3.1289, -174.295, 3.15571, 64.9544, 0.0908544, 152.441
0, 3300.00000, 123.831, -31.2709, 126.15, -151.221, 125.079, 88.0283, 0, 0, 3.1875, -54.3448, 3.1289, -174.295, 3.15571, 64.9543, 0.0908574, 152.442
0, 3360.00000, 123.831, -31.2709, 126.15, -151.221, 125.079, 88.0282, 0, 0, 3.1875, -54.3448, 3.1289, -174.295, 3.15571, 64.9543, 0.0908601, 152.442
0, 3420.00000, 123.831, -31.2709, 126.15, -151.221, 125.079, 88.0282, 0, 0, 3.1875, -54.3448, 3.1289, -174.295, 3.15571, 64.9543, 0.0908626, 152.443
0, 3480.00000, 123.831, -31.2709, 126.15, -151.221, 125.079, 88.0282, 0, 0, 3.1875, -54.3448, 3.1289, -174.295, 3.15571, 64.9543, 0.0908648, 152.443
0, 3540.00000, 123.831, -31.2709, 126.15, -151.221, 125.079, 88.0282, 0, 0, 3.1875, -54.3448, 3.1289, -174.295, 3.15571, 64.9542, 0.0908667, 152.443
1, 0.00000, 123.831, -31.2709, 126.15, -151.221, 125.079, 88.0281, 0, 0, 3.1875, -54.3448, 3.1289, -174.295, 3.15571, 64.9542, 0.0908685, 152.444
1, 60.00000, 123.96, -31.2404, 126.283, -151.191, 125.204, 88.0587, 0, 0, 3.14697, -54.3143, 3.08907, -174.265, 3.11569, 64.9848, 0.0897186, 152.575
1, 120.00000, 123.96, -31.2404, 126.283, -151.191, 125.204, 88.0587, 0, 0, 3.14697, -54.3143, 3.08907, -174.265, 3.11569, 64.9848, 0.0897216, 152.576
1, 180.00000, 123.96, -31.2404, 126.283, -151.191, 125.204, 88.0587, 0, 0, 3.14697, -54.3143, 3.08907, -174.265, 3.11569, 64.9848, 0.0897229, 152.576
1, 240.00000, 123.96, -31.2404, 126.283, -151.191, 125.204, 88.0587, 0, 0, 3.14697, -54.3143, 3.08906, -174.265, 3.11569, 64.9848, 0.089724, 152.576
1, 300.00000, 123.96, -31.2404, 126.283, -151.191, 125.204, 88.0587, 0, 0, 3.14697, -54.3143, 3.08906, -174.265, 3.11569, 64.9848, 0.089725, 152.576
1, 360.00000, 123.96, -31.2404, 126.283, -151.191, 125.204, 88.0587, 0, 0, 3.14697, -54.3143, 3.08906, -174.265, 3.11569, 64.9848, 0.089726, 152.577
1, 420.00000, 123.96, -31.2404, 126.283, -151.191, 125.204, 88.0587, 0, 0, 3.14697, -54.3143, 3.08906, -174.265, 3.11569, 64.9848, 0.0897268, 152.577
1, 480.00000, 123.96, -31.2404, 126.283, -151.191, 125.204, 88.0587, 0, 0, 3.14697, -54.3143, 3.08906, -174.265, 3.11569, 64.9848, 0.0897276, 152.577
1, 540.00000, 123.96, -31.2404, 126.283, -151.191, 125.204, 88.0587, 0, 0, 3.14697, -54.3143, 3.08906, -174.265, 3.11569, 64.9847, 0.0897283, 152.577
1, 600.00000, 123.96, -31.2404, 126.283, -151.191, 125.204, 88.0587, 0, 0, 3.14697, -54.3143, 3.08906, -174.265, 3.11569, 64.9847, 0.0897289, 152.577
1, 660.00000, 123.96, -31.2404, 126.283, -151.191, 125.204, 88.0587, 0, 0, 3.14697, -54.3143, 3.08906, -174.265, 3.11569, 64.9847, 0.0897294, 152.577
1, 720.00000, 123.96, -31.2404, 126.283, -151.191, 125.204, 88.0586, 0, 0, 3.14697, -54.3143, 3.08906, -174.265, 3.11569, 64.9847, 0.0897299, 152.577
1, 780.00000, 123.96, -31.2404, 126.283, -151.191, 125.204, 88.0586, 0, 0, 3.14697, -54.3143, 3.08906, -174.265, 3.11569, 64.9847, 0.0897304, 152.578
1, 840.00000, 123.96, -31.2404, 126.283, -151.191, 125.204, 88.0586, 0, 0, 3.14697, -54.3143, 3.08906, -174.265, 3.11569, 64.9847, 0.0897308, 152.578
1, 900.00000, 123.96, -31.2404, 126.283, -151.191, 125.204, 88.0586, 0, 0, 3.14697, -54.3143, 3.08906, -174.265, 3.11569, 64.9847, 0.0897311, 152.578
1, 960.00000, 123.986, -31.2358, 126.309, -151.187, 125.228, 88.063, 0, 0, 3.13158, -54.3097, 3.07398, -174.261, 3.10051, 64.9891, 0.0892654, 152.616
1, 1020.00000, 123.986, -31.2358, 126.309, -151.187, 125.228, 88.063, 0, 0, 3.13158, -54.3097, 3.07398, -174.261, 3.10051, 64.9891, 0.0892672, 152.617
1, 1080.00000, 123.986, -31.2358, 126.309, -151.187, 125.228, 88.063, 0, 0, 3.13158, -54.3097, 3.07398, -174.261, 3.10051, 64.9891, 0.0892675, 152.617
1, 1140.00000, 123.986, -31.2358, 126.309, -151.187, 125.228, 88.063, 0, 0, 3.13158, -54.3097, 3.07398, -174.261, 3.10051, 64.9891, 0.0892677, 152.617
1, 1200.00000, 123.986, -31.2358, 126.309, -151.187, 125.228, 88.063, 0, 0, 3.13158, -54.3097, 3.07398, -174.261, 3.10051, 64.9891, 0.0892679, 152.617
1, 1260.00000, 123.986, -31.2358, 126.309, -151.187, 125.228, 88.063, 0, 0, 3.13158, -54.3097, 3.07398, -174.261, 3.10051, 64.9891, 0.0892681, 152.617
1, 1320.00000, 123.986, -31.2358, 126.309, -151.187, 125.228, 88.063, 0, 0, 3.13158, -54.3097, 3.07398, -174.261, 3.10051, 64.9891, 0.0892683, 152.617
1, 1380.00000, 123.986, -31.2358, 126.309, -151.187, 125.228, 88.063, 0, 0, 3.13158, -54.3097, 3.07398, -174.261, 3.10051, 64.9891, 0.0892684, 152.617
1, 1440.00000, 123.986, -31.2358, 126.309, -151.187, 125.228, 88.063, 0, 0, 3.13158, -54.3097, 3.07398, -174.261, 3.10051, 64.9891, 0.0892686, 152.617
1, 1500.00000, 123.986, -31.2358, 126.309, -151.187, 125.228, 88.063, 0, 0, 3.13158, -54.3097, 3.07398, -174.261, 3.10051, 64.9891, 0.0892687, 152.617
1, 1560.00000, 123.986, -31.2358, 126.309, -151.187, 125.228, 88.063, 0, 0, 3.13158, -54.3097, 3.07398, -174.261, 3.10051, 64.9891, 0.0892688, 152.617
1, 1620.00000, 123.986, -31.2358, 126.309, -151.187, 125.228, 88.063, 0, 0, 3.13158, -54.3097, 3.07398, -174.261, 3.10051, 64.9891, 0.0892689, 152.617
1, 1680.00000, 123.986, -31.2358, 126.309, -151.187, 125.228, 88.063, 0, 0, 3.13158, -54.3097, 3.07398, -174.261, 3.10051, 64.9891, 0.089269, 152.617
1, 1740.00000, 123.986, -31.2358, 126.309, -151.187, 125.228, 88.063, 0, 0, 3.13158, -54.3097, 3.07398, -174.261, 3.10051, 64.9891, 0.0892691, 152.617
1, 1800.00000, 123.986, -31.2358, 126.309, -151.187, 125.228, 88.063, 0, 0, 3.13158, -54.3097, 3.07398, -174.261, 3.10051, 64.9891, 0.0892692, 152.617
1, 1860.00000, 123.856, -31.2642, 126.179, -151.215, 125.104, 88.034, 0, 0, 3.21047, -54.3382, 3.15137, -174.289, 3.17844, 64.9601, 0.0916187, 152.487
1, 1920.00000, 123.856, -31.2642, 126.179, -151.215, 125.104, 88.034, 0, 0, 3.21047, -54.3381, 3.15137, -174.289, 3.17844, 64.9601, 0.0916173, 152.487
1, 1980.00000, 123.856, -31.2642, 126.179, -151.215, 125.104, 88.034, 0, 0, 3.21047, -54.3381, 3.15137, -174.289, 3.17844, 64.9601, 0.0916174, 152.487
1, 2040.00000, 123.856, -31.2642, 126.179, -151.215, 125.104, 88.034, 0, 0, 3.21047, -54.3381, 3.15137, -174.289, 3.17844, 64.9601, 0.0916175, 152.487
1, 2100.00000, 123.856, -31.2642, 126.179, -151.215, 125.104, 88.034, 0, 0, 3.21047, -54.3381, 3.15137, -174.289, 3.17844, 64.9601, 0.0916175, 152.487
1, 2160.00000, 123.856, -31.2642, 126.179, -151.215, 125.104, 88.034, 0, 0, 3.21047, -54.3381, 3.15137, -174.289, 3.17844, 64.9601, 0.0916175, 152.487
1, 2220.00000, 123.856, -31.2642, 126.179, -151.215, 125.104, 88.034, 0, 0, 3.21047, -54.3381, 3.15137, -174.289, 3.17844, 64.9601, 0.0916176, 152.487
1, 2280.00000, 123.856, -31.2642, 126.179, -151.215, 125.104, 88.034, 0, 0, 3.21047, -54.3381, 3.15137, -174.289, 3.17844, 64.9601, 0.0916176, 152.487
1, 2340.00000, 123.856, -31.2642, 126.179, -151.215, 125.104, 88.034, 0, 0, 3.21047, -54.3381, 3.15137, -174.289, 3.17844, 64.9601, 0.0916176, 152.487
1, 2400.00000, 123.856, -31.2642, 126.179, -151.215, 125.104, 88.034, 0, 0, 3.21047, -54.3381, 3.15137, -174.289, 3.17844, 64.9601, 0.0916177, 152.487
1, 2460.00000, 123.856, -31.2642, 126.179, -151.215, 125.104, 88.034, 0, 0, 3.21047, -54.3381, 3.15137, -174.289, 3.17844, 64.9601, 0.0916177, 152.487
1, 2520.00000, 123.856, -31.2642, 126.179, -151.215, 125.104, 88.034, 0, 0, 3.21047, -54.3381, 3.15137, -174.289, 3.17844, 64.9601, 0.0916177, 152.487
1, 2580.00000, 123.856, -31.2642, 126.179, -151.215, 125.104, 88.034, 0, 0, 3.21047, -54.3381, 3.15137, -174.289, 3.17844, 64.9601, 0.0916177, 152.487
1, 2640.00000, 123.856, -31.2642, 126.179, -151.215, 125.104, 88.034, 0, 0, 3.21047, -54.3381, 3.15137, -174.289, 3.17844, 64.9601, 0.0916177, 152.487
1, 2700.00000, 123.856, -31.2642, 126.179, -151.215, 125.104, 88.034, 0, 0, 3.21047, -54.3381, 3.15137, -174.289, 3.17844, 64.9601, 0.0916178, 152.487
1, 2760.00000, 124.132, -31.2066, 126.452, -151.159, 125.364, 88.0913, 0, 0, 3.01851, -54.2805, 2.96312, -174.233, 2.98883, 65.0173, 0.0859396, 152.819
1, 2820.00000, 124.132, -31.2066, 126.452, -151.159, 125.364, 88.0913, 0, 0, 3.01851, -54.2805, 2.96312, -174.233, 2.98883, 65.0173, 0.08594, 152.819
1, 2880.00000, 124.132, -31.2066, 126.452, -151.159, 125.364, 88.0913, 0, 0, 3.01851, -54.2805, 2.96312, -174.233, 2.98883, 65.0173, 0.08594, 152.819
1, 2940.00000, 124.132, -31.2066, 126.452, -151.159, 125.364, 88.0913, 0, 0, 3.01851, -54.2805, 2.96312, -174.233, 2.98883, 65.0173, 0.08594, 152.819
1, 3000.00000, 124.132, -31.2066, 126.452, -151.159, 125.364, 88.0913, 0, 0, 3.01851, -54.2805, 2.96312, -174.233, 2.98883, 65.0173, 0.08594, 152.819
1, 3060.00000, 124.132, -31.2066, 126.452, -151.159, 125.364, 88.0913, 0, 0, 3.01851, -54.2805, 2.96312, -174.233, 2.98883, 65.0173, 0.08594, 152.819
1, 3120.00000, 124.132, -31.2066, 126.452, -151.159, 125.364, 88.0913, 0, 0, 3.01851, -54.2805, 2.96312, -174.233, 2.98883, 65.0173, 0.08594, 152.819
1, 3180.00000, 124.132, -31.2066, 126.452, -151.159, 125.364, 88.0913, 0, 0, 3.01851, -54.2805, 2.96312, -174.233, 2.98883, 65.0173, 0.08594, 152.819
1, 3240.00000, 124.132, -31.2066, 126.452, -151.159, 125.364, 88.0913, 0, 0, 3.01851, -54.2805, 2.96312, -174.233, 2.98883, 65.0173, 0.08594, 152.819
1, 3300.00000, 124.132, -31.2066, 126.452, -151.159, 125.364, 88.0913, 0, 0, 3.01851, -54.2805, 2.96312, -174.233, 2.98883, 65.0173, 0.08594, 152.819
1, 3360.00000, 124.132, -31.2066, 126.452, -151.159, 125.364, 88.0913, 0, 0, 3.01851, -54.2805, 2.96312, -174.233, 2.98883, 65.0173, 0.08594, 152.819
1, 3420.00000, 124.132, -31.2066, 126.452, -151.159, 125.364, 88.0913, 0, 0, 3.01851, -54.2805, 2.96312, -174.233, 2.98883, 65.0173, 0.08594, 152.819
1, 3480.00000, 124.132, -31.2066, 126.452, -151.159, 125.364, 88.0913, 0, 0, 3.01851, -54.2805, 2.96312, -174.233, 2.98883, 65.0173, 0.08594, 152.819
1, 3540.00000, 124.132, -31.2066, 126.452, -151.159, 125.364, 88.0913, 0, 0, 3.01851, -54.2805, 2.96312, -174.233, 2.98883, 65.0173, 0.08594, 152.819
2, 0.00000, 124.132, -31.2066, 126.452, -151.159, 125.364, 88.0913, 0, 0, 3.01851, -54.2805, 2.96312, -174.233, 2.98883, 65.0173, 0.08594, 152.819
2, 60.00000, 123.966, -31.2418, 126.289, -151.193, 125.209, 88.0562, 0, 0, 3.10365, -54.3157, 3.04656, -174.267, 3.07285, 64.9823, 0.0885155, 152.621
2, 120.00000, 123.966, -31.2418, 126.289, -151.193, 125.209, 88.0562, 0, 0, 3.10365, -54.3157, 3.04656, -174.267, 3.07285, 64.9823, 0.0885139, 152.621
2, 180.00000, 123.966, -31.2418, 126.289, -151.193, 125.209, 88.0562, 0, 0, 3.10365, -54.3157, 3.04656, -174.267, 3.07285, 64.9823, 0.0885139, 152.621
2, 240.00000, 123.966, -31.2418, 126.289, -151.193, 125.209, 88.0562, 0, 0, 3.10365, -54.3157, 3.04656, -174.267, 3.07285, 64.9823, 0.0885139, 152.621
2, 300.00000, 123.966, -31.2418, 126.289, -151.193, 125.209, 88.0562, 0, 0, 3.10365, -54.3157, 3.04656, -174.267, 3.07285, 64.9823, 0.0885139, 152.621
2, 360.00000, 123.966, -31.2418, 126.289, -151.193, 125.209, 88.0562, 0, 0, 3.10365, -54.3157, 3.04656, -174.267, 3.07285, 64.9823, 0.0885139, 152.621
2, 420.00000, 123.966, -31.2418, 126.289, -151.193, 125.209, 88.0562, 0, 0, 3.10365, -54.3157, 3.04656, -174.267, 3.07285, 64.9823, 0.0885139, 152.621
2, 480.00000, 123.966, -31.2418, 126.289, -151.193, 125.209, 88.0562, 0, 0, 3.10365, -54.3157, 3.04656, -174.267, 3.07285, 64.9823, 0.0885139, 152.621
2, 540.00000, 123.966, -31.2418, 126.289, -151.193, 125.209, 88.0562, 0, 0, 3.10365, -54.3157, 3.04656, -174.267, 3.07285, 64.9823, 0.0885139, 152.621
2, 600.00000, 123.966, -31.2418, 126.289, -151.193, 125.209, 88.0562, 0, 0, 3.10365, -54.3157, 3.04656, -174.267, 3.07285, 64.9823, 0.0885139, 152.621
2, 660.00000, 123.966, -31.2418, 126.289, -151.193, 125.209, 88.0562, 0, 0, 3.10365, -54.3157, 3.04656, -174.267, 3.07285, 64.9823, 0.0885139, 152.621
2, 720.00000, 123.966, -31.2418, 126.289, -151.193, 125.209, 88.0562, 0, 0, 3.10365, -54.3157, 3.04656, -174.267, 3.07285, 64.9823, 0.0885139, 152.621
