hour,t(sec),"P1 (kW)","Q1 (kvar)","P2 (kW)","Q2 (kvar)","P3 (kW)","Q3 (kvar)","P4 (kW)","Q4 (kvar)"
0, 60.00000, 0.640778, 0.272966, 0.643547, 0.27415, 0.645942, 0.275164, 0, 0
0, 120.00000, 0.640771, 0.272967, 0.643539, 0.274146, 0.645959, 0.275177, 0, 0
0, 180.00000, 0.640771, 0.272967, 0.643539, 0.274146, 0.645959, 0.275178, 0, 0
0, 240.00000, 0.640771, 0.272967, 0.643539, 0.274146, 0.645959, 0.275178, 0, 0
0, 300.00000, 0.640771, 0.272967, 0.643539, 0.274146, 0.645959, 0.275178, 0, 0
0, 360.00000, 0.640771, 0.272967, 0.643539, 0.274146, 0.645959, 0.275178, 0, 0
0, 420.00000, 0.640771, 0.272967, 0.643539, 0.274146, 0.645959, 0.275178, 0, 0
0, 480.00000, 0.640771, 0.272967, 0.643539, 0.274146, 0.645959, 0.275178, 0, 0
0, 540.00000, 0.640771, 0.272967, 0.643539, 0.274146, 0.645959, 0.275178, 0, 0
0, 600.00000, 0.640771, 0.272967, 0.643539, 0.274146, 0.645959, 0.275178, 0, 0
0, 660.00000, 0.640771, 0.272967, 0.643539, 0.274146, 0.645959, 0.275178, 0, 0
0, 720.00000, 0.640771, 0.272967, 0.643539, 0.274146, 0.645959, 0.275178, 0, 0
0, 780.00000, 0.640771, 0.272967, 0.643539, 0.274146, 0.645959, 0.275178, 0, 0
0, 840.00000, 0.640771, 0.272967, 0.643539, 0.274146, 0.645959, 0.275178, 0, 0
0, 900.00000, 0.640771, 0.272967, 0.643539, 0.274146, 0.645959, 0.275178, 0, 0
0, 960.00000, 0.675229, 0.287645, 0.678261, 0.288938, 0.683337, 0.291099, 0, 0
0, 1020.00000, 0.675226, 0.287645, 0.678258, 0.288937, 0.683342, 0.291102, 0, 0
0, 1080.00000, 0.675226, 0.287645, 0.678258, 0.288937, 0.683342, 0.291102, 0, 0
0, 1140.00000, 0.675226, 0.287645, 0.678258, 0.288937, 0.683342, 0.291102, 0, 0
0, 1200.00000, 0.675226, 0.287645, 0.678258, 0.288937, 0.683342, 0.291102, 0, 0
0, 1260.00000, 0.675226, 0.287645, 0.678258, 0.288937, 0.683342, 0.291102, 0, 0
0, 1320.00000, 0.675226, 0.287645, 0.678258, 0.288937, 0.683342, 0.291102, 0, 0
0, 1380.00000, 0.675226, 0.287645, 0.678258, 0.288937, 0.683342, 0.291102, 0, 0
0, 1440.00000, 0.675226, 0.287645, 0.678258, 0.288937, 0.683342, 0.291102, 0, 0
0, 1500.00000, 0.675226, 0.287645, 0.678258, 0.288937, 0.683342, 0.291102, 0, 0
0, 1560.00000, 0.675226, 0.287645, 0.678258, 0.288937, 0.683342, 0.291102, 0, 0
0, 1620.00000, 0.675226, 0.287645, 0.678258, 0.288937, 0.683342, 0.291102, 0, 0
0, 1680.00000, 0.675226, 0.287645, 0.678258, 0.288937, 0.683342, 0.291102, 0, 0
0, 1740.00000, 0.675226, 0.287645, 0.678258, 0.288937, 0.683342, 0.291102, 0, 0
0, 1800.00000, 0.675226, 0.287645, 0.678258, 0.288937, 0.683342, 0.291102, 0, 0
0, 1860.00000, 0.679088, 0.289307, 0.682076, 0.290568, 0.685463, 0.292019, 0, 0
0, 1920.00000, 0.679121, 0.289304, 0.68211, 0.290577, 0.685417, 0.291987, 0, 0
0, 1980.00000, 0.679121, 0.289304, 0.68211, 0.290577, 0.685417, 0.291986, 0, 0
0, 2040.00000, 0.679121, 0.289304, 0.68211, 0.290577, 0.685417, 0.291986, 0, 0
0, 2100.00000, 0.679121, 0.289304, 0.68211, 0.290577, 0.685417, 0.291986, 0, 0
0, 2160.00000, 0.679121, 0.289304, 0.68211, 0.290577, 0.685417, 0.291986, 0, 0
0, 2220.00000, 0.679121, 0.289304, 0.68211, 0.290577, 0.685417, 0.291986, 0, 0
0, 2280.00000, 0.679121, 0.289304, 0.68211, 0.290577, 0.685417, 0.291986, 0, 0
0, 2340.00000, 0.679121, 0.289304, 0.68211, 0.290577, 0.685417, 0.291986, 0, 0
0, 2400.00000, 0.679121, 0.289304, 0.68211, 0.290577, 0.685417, 0.291986, 0, 0
0, 2460.00000, 0.679121, 0.289304, 0.68211, 0.290577, 0.685417, 0.291986, 0, 0
0, 2520.00000, 0.679121, 0.289304, 0.68211, 0.290577, 0.685417, 0.291986, 0, 0
0, 2580.00000, 0.679121, 0.289304, 0.68211, 0.290577, 0.685417, 0.291986, 0, 0
0, 2640.00000, 0.679121, 0.289304, 0.68211, 0.290577, 0.685417, 0.291986, 0, 0
0, 2700.00000, 0.679121, 0.289304, 0.68211, 0.290577, 0.685417, 0.291986, 0, 0
0, 2760.00000, 0.649397, 0.276644, 0.651934, 0.277722, 0.651939, 0.277728, 0, 0
0, 2820.00000, 0.6494, 0.276643, 0.65193, 0.277721, 0.65193, 0.277721, 0, 0
0, 2880.00000, 0.6494, 0.276643, 0.65193, 0.277721, 0.65193, 0.277721, 0, 0
0, 2940.00000, 0.6494, 0.276643, 0.65193, 0.277721, 0.65193, 0.277721, 0, 0
0, 3000.00000, 0.6494, 0.276643, 0.65193, 0.277721, 0.65193, 0.277721, 0, 0
0, 3060.00000, 0.6494, 0.276643, 0.65193, 0.277721, 0.65193, 0.277721, 0, 0
0, 3120.00000, 0.6494, 0.276643, 0.65193, 0.277721, 0.65193, 0.277721, 0, 0
0, 3180.00000, 0.6494, 0.276643, 0.65193, 0.277721, 0.65193, 0.277721, 0, 0
0, 3240.00000, 0.6494, 0.276643, 0.65193, 0.277721, 0.65193, 0.277721, 0, 0
0, 3300.00000, 0.6494, 0.276643, 0.65193, 0.277721, 0.65193, 0.277721, 0, 0
0, 3360.00000, 0.6494, 0.276643, 0.65193, 0.277721, 0.65193, 0.277721, 0, 0
0, 3420.00000, 0.6494, 0.276643, 0.65193, 0.277721, 0.65193, 0.277721, 0, 0
0, 3480.00000, 0.6494, 0.276643, 0.65193, 0.277721, 0.65193, 0.277721, 0, 0
0, 3540.00000, 0.6494, 0.276643, 0.65193, 0.277721, 0.65193, 0.277721, 0, 0
1, 0.00000, 0.6494, 0.276643, 0.65193, 0.277721, 0.65193, 0.277721, 0, 0
1, 60.00000, 0.644011, 0.274349, 0.644315, 0.274477, 0.644317, 0.274482, 0, 0
1, 120.00000, 0.644012, 0.274348, 0.644309, 0.274474, 0.644309, 0.274475, 0, 0
1, 180.00000, 0.644012, 0.274348, 0.644309, 0.274474, 0.644309, 0.274474, 0, 0
1, 240.00000, 0.644012, 0.274348, 0.644309, 0.274474, 0.644309, 0.274474, 0, 0
1, 300.00000, 0.644012, 0.274348, 0.644309, 0.274474, 0.644309, 0.274474, 0, 0
1, 360.00000, 0.644012, 0.274348, 0.644309, 0.274474, 0.644309, 0.274474, 0, 0
1, 420.00000, 0.644012, 0.274348, 0.644309, 0.274474, 0.644309, 0.274474, 0, 0
1, 480.00000, 0.644012, 0.274348, 0.644309, 0.274474, 0.644309, 0.274474, 0, 0
1, 540.00000, 0.644012, 0.274348, 0.644309, 0.274474, 0.644309, 0.274474, 0, 0
1, 600.00000, 0.644012, 0.274348, 0.644309, 0.274474, 0.644309, 0.274474, 0, 0
1, 660.00000, 0.644012, 0.274348, 0.644309, 0.274474, 0.644309, 0.274474, 0, 0
1, 720.00000, 0.644012, 0.274348, 0.644309, 0.274474, 0.644309, 0.274474, 0, 0
1, 780.00000, 0.644012, 0.274348, 0.644309, 0.274474, 0.644309, 0.274474, 0, 0
1, 840.00000, 0.644012, 0.274348, 0.644309, 0.274474, 0.644309, 0.274474, 0, 0
1, 900.00000, 0.644012, 0.274348, 0.644309, 0.274474, 0.644309, 0.274474, 0, 0
1, 960.00000, 0.6413, 0.273196, 0.641306, 0.273196, 0.641309, 0.273202, 0, 0
1, 1020.00000, 0.641293, 0.27319, 0.641293, 0.27319, 0.641293, 0.27319, 0, 0
1, 1080.00000, 0.641293, 0.27319, 0.641293, 0.27319, 0.641293, 0.27319, 0, 0
1, 1140.00000, 0.641293, 0.27319, 0.641293, 0.27319, 0.641293, 0.27319, 0, 0
1, 1200.00000, 0.641293, 0.27319, 0.641293, 0.27319, 0.641293, 0.27319, 0, 0
1, 1260.00000, 0.641293, 0.27319, 0.641293, 0.27319, 0.641293, 0.27319, 0, 0
1, 1320.00000, 0.641293, 0.27319, 0.641293, 0.27319, 0.641293, 0.27319, 0, 0
1, 1380.00000, 0.641293, 0.27319, 0.641293, 0.27319, 0.641293, 0.27319, 0, 0
1, 1440.00000, 0.641293, 0.27319, 0.641293, 0.27319, 0.641293, 0.27319, 0, 0
1, 1500.00000, 0.641293, 0.27319, 0.641293, 0.27319, 0.641293, 0.27319, 0, 0
1, 1560.00000, 0.641293, 0.27319, 0.641293, 0.27319, 0.641293, 0.27319, 0, 0
1, 1620.00000, 0.641293, 0.27319, 0.641293, 0.27319, 0.641293, 0.27319, 0, 0
1, 1680.00000, 0.641293, 0.27319, 0.641293, 0.27319, 0.641293, 0.27319, 0, 0
1, 1740.00000, 0.641293, 0.27319, 0.641293, 0.27319, 0.641293, 0.27319, 0, 0
1, 1800.00000, 0.641293, 0.27319, 0.641293, 0.27319, 0.641293, 0.27319, 0, 0
1, 1860.00000, 0.65498, 0.279019, 0.656753, 0.279775, 0.656752, 0.279771, 0, 0
1, 1920.00000, 0.654979, 0.27902, 0.656759, 0.279778, 0.656759, 0.279778, 0, 0
1, 1980.00000, 0.654979, 0.27902, 0.65676, 0.279778, 0.65676, 0.279778, 0, 0
1, 2040.00000, 0.654979, 0.27902, 0.65676, 0.279778, 0.65676, 0.279778, 0, 0
1, 2100.00000, 0.654979, 0.27902, 0.65676, 0.279778, 0.65676, 0.279778, 0, 0
1, 2160.00000, 0.654979, 0.27902, 0.65676, 0.279778, 0.65676, 0.279778, 0, 0
1, 2220.00000, 0.654979, 0.27902, 0.65676, 0.279778, 0.65676, 0.279778, 0, 0
1, 2280.00000, 0.654979, 0.27902, 0.65676, 0.279778, 0.65676, 0.279778, 0, 0
1, 2340.00000, 0.654979, 0.27902, 0.65676, 0.279778, 0.65676, 0.279778, 0, 0
1, 2400.00000, 0.654979, 0.27902, 0.65676, 0.279778, 0.65676, 0.279778, 0, 0
1, 2460.00000, 0.654979, 0.27902, 0.65676, 0.279778, 0.65676, 0.279778, 0, 0
1, 2520.00000, 0.654979, 0.27902, 0.65676, 0.279778, 0.65676, 0.279778, 0, 0
1, 2580.00000, 0.654979, 0.27902, 0.65676, 0.279778, 0.65676, 0.279778, 0, 0
1, 2640.00000, 0.654979, 0.27902, 0.65676, 0.279778, 0.65676, 0.279778, 0, 0
1, 2700.00000, 0.654979, 0.27902, 0.65676, 0.279778, 0.65676, 0.279778, 0, 0
1, 2760.00000, 0.61887, 0.263641, 0.618877, 0.263641, 0.618885, 0.263651, 0, 0
1, 2820.00000, 0.618866, 0.263636, 0.618866, 0.263636, 0.618866, 0.263636, 0, 0
1, 2880.00000, 0.618866, 0.263636, 0.618866, 0.263636, 0.618866, 0.263636, 0, 0
1, 2940.00000, 0.618866, 0.263636, 0.618866, 0.263636, 0.618866, 0.263636, 0, 0
1, 3000.00000, 0.618866, 0.263636, 0.618866, 0.263636, 0.618866, 0.263636, 0, 0
1, 3060.00000, 0.618866, 0.263636, 0.618866, 0.263636, 0.618866, 0.263636, 0, 0
1, 3120.00000, 0.618866, 0.263636, 0.618866, 0.263636, 0.618866, 0.263636, 0, 0
1, 3180.00000, 0.618866, 0.263636, 0.618866, 0.263636, 0.618866, 0.263636, 0, 0
1, 3240.00000, 0.618866, 0.263636, 0.618866, 0.263636, 0.618866, 0.263636, 0, 0
1, 3300.00000, 0.618866, 0.263636, 0.618866, 0.263636, 0.618866, 0.263636, 0, 0
1, 3360.00000, 0.618866, 0.263636, 0.618866, 0.263636, 0.618866, 0.263636, 0, 0
1, 3420.00000, 0.618866, 0.263636, 0.618866, 0.263636, 0.618866, 0.263636, 0, 0
1, 3480.00000, 0.618866, 0.263636, 0.618866, 0.263636, 0.618866, 0.263636, 0, 0
1, 3540.00000, 0.618866, 0.263636, 0.618866, 0.263636, 0.618866, 0.263636, 0, 0
2, 0.00000, 0.618866, 0.263636, 0.618866, 0.263636, 0.618866, 0.263636, 0, 0
2, 60.00000, 0.635471, 0.270707, 0.635467, 0.270707, 0.635463, 0.270702, 0, 0
2, 120.00000, 0.635471, 0.270709, 0.635474, 0.270711, 0.635474, 0.270711, 0, 0
2, 180.00000, 0.635471, 0.270709, 0.635474, 0.270711, 0.635474, 0.270711, 0, 0
2, 240.00000, 0.635471, 0.270709, 0.635474, 0.270711, 0.635474, 0.270711, 0, 0
2, 300.00000, 0.635471, 0.270709, 0.635474, 0.270711, 0.635474, 0.270711, 0, 0
2, 360.00000, 0.635471, 0.270709, 0.635474, 0.270711, 0.635474, 0.270711, 0, 0
2, 420.00000, 0.635471, 0.270709, 0.635474, 0.270711, 0.635474, 0.270711, 0, 0
2, 480.00000, 0.635471, 0.270709, 0.635474, 0.270711, 0.635474, 0.270711, 0, 0
2, 540.00000, 0.635471, 0.270709, 0.635474, 0.270711, 0.635474, 0.270711, 0, 0
2, 600.00000, 0.635471, 0.270709, 0.635474, 0.270711, 0.635474, 0.270711, 0, 0
2, 660.00000, 0.635471, 0.270709, 0.635474, 0.270711, 0.635474, 0.270711, 0, 0
2, 720.00000, 0.635471, 0.270709, 0.635474, 0.270711, 0.635474, 0.270711, 0, 0
2, 780.00000, 0.635471, 0.270709, 0.635474, 0.270711, 0.635474, 0.270711, 0, 0
2, 840.00000, 0.635471, 0.270709, 0.635474, 0.270711, 0.635474, 0.270711, 0, 0
2, 900.00000, 0.635471, 0.270709, 0.635474, 0.270711, 0.635474, 0.270711, 0, 0
2, 960.00000, 0.602119, 0.256505, 0.602123, 0.256504, 0.602129, 0.25651, 0, 0
2, 1020.00000, 0.602115, 0.2565, 0.602115, 0.2565, 0.602115, 0.2565, 0, 0
2, 1080.00000, 0.602115, 0.2565, 0.602115, 0.2565, 0.602115, 0.2565, 0, 0
2, 1140.00000, 0.602115, 0.2565, 0.602115, 0.2565, 0.602115, 0.2565, 0, 0
2, 1200.00000, 0.602115, 0.2565, 0.602115, 0.2565, 0.602115, 0.2565, 0, 0
2, 1260.00000, 0.602115, 0.2565, 0.602115, 0.2565, 0.602115, 0.2565, 0, 0
2, 1320.00000, 0.602115, 0.2565, 0.602115, 0.2565, 0.602115, 0.2565, 0, 0
2, 1380.00000, 0.602115, 0.2565, 0.602115, 0.2565, 0.602115, 0.2565, 0, 0
2, 1440.00000, 0.602115, 0.2565, 0.602115, 0.2565, 0.602115, 0.2565, 0, 0
2, 1500.00000, 0.602115, 0.2565, 0.602115, 0.2565, 0.602115, 0.2565, 0, 0
2, 1560.00000, 0.602115, 0.2565, 0.602115, 0.2565, 0.602115, 0.2565, 0, 0
2, 1620.00000, 0.602115, 0.2565, 0.602115, 0.2565, 0.602115, 0.2565, 0, 0
2, 1680.00000, 0.602115, 0.2565, 0.602115, 0.2565, 0.602115, 0.2565, 0, 0
2, 1740.00000, 0.602115, 0.2565, 0.602115, 0.2565, 0.602115, 0.2565, 0, 0
2, 1800.00000, 0.602115, 0.2565, 0.602115, 0.2565, 0.602115, 0.2565, 0, 0
2, 1860.00000, 0.601784, 0.256357, 0.601783, 0.256359, 0.60178, 0.256356, 0, 0
2, 1920.00000, 0.601786, 0.25636, 0.601786, 0.25636, 0.601786, 0.25636, 0, 0
2, 1980.00000, 0.601786, 0.25636, 0.601786, 0.25636, 0.601786, 0.25636, 0, 0
2, 2040.00000, 0.601786, 0.25636, 0.601786, 0.25636, 0.601786, 0.25636, 0, 0
2, 2100.00000, 0.601786, 0.25636, 0.601786, 0.25636, 0.601786, 0.25636, 0, 0
2, 2160.00000, 0.601786, 0.25636, 0.601786, 0.25636, 0.601786, 0.25636, 0, 0
2, 2220.00000, 0.601786, 0.25636, 0.601786, 0.25636, 0.601786, 0.25636, 0, 0
2, 2280.00000, 0.601786, 0.25636, 0.601786, 0.25636, 0.601786, 0.25636, 0, 0
2, 2340.00000, 0.601786, 0.25636, 0.601786, 0.25636, 0.601786, 0.25636, 0, 0
2, 2400.00000, 0.601786, 0.25636, 0.601786, 0.25636, 0.601786, 0.25636, 0, 0
2, 2460.00000, 0.601786, 0.25636, 0.601786, 0.25636, 0.601786, 0.25636, 0, 0
2, 2520.00000, 0.601786, 0.25636, 0.601786, 0.25636, 0.601786, 0.25636, 0, 0
2, 2580.00000, 0.601786, 0.25636, 0.601786, 0.25636, 0.601786, 0.25636, 0, 0
2, 2640.00000, 0.601786, 0.25636, 0.601786, 0.25636, 0.601786, 0.25636, 0, 0
2, 2700.00000, 0.601786, 0.25636, 0.601786, 0.25636, 0.601786, 0.25636, 0, 0
2, 2760.00000, 0.575771, 0.245282, 0.575775, 0.24528, 0.57578, 0.245286, 0, 0
2, 2820.00000, 0.575765, 0.245275, 0.575765, 0.245275, 0.575765, 0.245275, 0, 0
2, 2880.00000, 0.575765, 0.245275, 0.575765, 0.245275, 0.575765, 0.245275, 0, 0
2, 2940.00000, 0.575765, 0.245275, 0.575765, 0.245275, 0.575765, 0.245275, 0, 0
2, 3000.00000, 0.575765, 0.245275, 0.575765, 0.245275, 0.575765, 0.245275, 0, 0
2, 3060.00000, 0.575765, 0.245275, 0.575765, 0.245275, 0.575765, 0.245275, 0, 0
2, 3120.00000, 0.575765, 0.245275, 0.575765, 0.245275, 0.575765, 0.245275, 0, 0
2, 3180.00000, 0.575765, 0.245275, 0.575765, 0.245275, 0.575765, 0.245275, 0, 0
2, 3240.00000, 0.575765, 0.245275, 0.575765, 0.245275, 0.575765, 0.245275, 0, 0
2, 3300.00000, 0.575765, 0.245275, 0.575765, 0.245275, 0.575765, 0.245275, 0, 0
2, 3360.00000, 0.575765, 0.245275, 0.575765, 0.245275, 0.575765, 0.245275, 0, 0
2, 3420.00000, 0.575765, 0.245275, 0.575765, 0.245275, 0.575765, 0.245275, 0, 0
2, 3480.00000, 0.575765, 0.245275, 0.575765, 0.245275, 0.575765, 0.245275, 0, 0
2, 3540.00000, 0.575765, 0.245275, 0.575765, 0.245275, 0.575765, 0.245275, 0, 0
3, 0.00000, 0.575765, 0.245275, 0.575765, 0.245275, 0.575765, 0.245275, 0, 0
3, 60.00000, 0.590402, 0.251508, 0.5904, 0.251509, 0.590397, 0.251506, 0, 0
3, 120.00000, 0.590406, 0.251512, 0.590406, 0.251512, 0.590406, 0.251512, 0, 0
3, 180.00000, 0.590406, 0.251512, 0.590406, 0.251512, 0.590406, 0.251512, 0, 0
3, 240.00000, 0.590406, 0.251512, 0.590406, 0.251512, 0.590406, 0.251512, 0, 0
3, 300.00000, 0.590406, 0.251512, 0.590406, 0.251512, 0.590406, 0.251512, 0, 0
3, 360.00000, 0.590406, 0.251512, 0.590406, 0.251512, 0.590406, 0.251512, 0, 0
3, 420.00000, 0.590406, 0.251512, 0.590406, 0.251512, 0.590406, 0.251512, 0, 0
3, 480.00000, 0.590406, 0.251512, 0.590406, 0.251512, 0.590406, 0.251512, 0, 0
3, 540.00000, 0.590406, 0.251512, 0.590406, 0.251512, 0.590406, 0.251512, 0, 0
3, 600.00000, 0.590406, 0.251512, 0.590406, 0.251512, 0.590406, 0.251512, 0, 0
3, 660.00000, 0.590406, 0.251512, 0.590406, 0.251512, 0.590406, 0.251512, 0, 0
3, 720.00000, 0.590406, 0.251512, 0.590406, 0.251512, 0.590406, 0.251512, 0, 0
3, 780.00000, 0.590406, 0.251512, 0.590406, 0.251512, 0.590406, 0.251512, 0, 0
3, 840.00000, 0.590406, 0.251512, 0.590406, 0.251512, 0.590406, 0.251512, 0, 0
3, 900.00000, 0.590406, 0.251512, 0.590406, 0.251512, 0.590406, 0.251512, 0, 0
3, 960.00000, 0.606637, 0.258432, 0.606641, 0.25843, 0.606649, 0.258437, 0, 0
3, 1020.00000, 0.606628, 0.258422, 0.606628, 0.258422, 0.606628, 0.258423, 0, 0
3, 1080.00000, 0.606628, 0.258422, 0.606628, 0.258422, 0.606628, 0.258422, 0, 0
3, 1140.00000, 0.606628, 0.258422, 0.606628, 0.258422, 0.606628, 0.258422, 0, 0
3, 1200.00000, 0.606628, 0.258422, 0.606628, 0.258422, 0.606628, 0.258422, 0, 0
3, 1260.00000, 0.606628, 0.258422, 0.606628, 0.258422, 0.606628, 0.258422, 0, 0
3, 1320.00000, 0.606628, 0.258422, 0.606628, 0.258422, 0.606628, 0.258422, 0, 0
3, 1380.00000, 0.606628, 0.258422, 0.606628, 0.258422, 0.606628, 0.258422, 0, 0
3, 1440.00000, 0.606628, 0.258422, 0.606628, 0.258422, 0.606628, 0.258422, 0, 0
3, 1500.00000, 0.606628, 0.258422, 0.606628, 0.258422, 0.606628, 0.258422, 0, 0
3, 1560.00000, 0.606628, 0.258422, 0.606628, 0.258422, 0.606628, 0.258422, 0, 0
3, 1620.00000, 0.606628, 0.258422, 0.606628, 0.258422, 0.606628, 0.258422, 0, 0
3, 1680.00000, 0.606628, 0.258422, 0.606628, 0.258422, 0.606628, 0.258422, 0, 0
3, 1740.00000, 0.606628, 0.258422, 0.606628, 0.258422, 0.606628, 0.258422, 0, 0
3, 1800.00000, 0.606628, 0.258422, 0.606628, 0.258422, 0.606628, 0.258422, 0, 0
3, 1860.00000, 0.614053, 0.261591, 0.614054, 0.26159, 0.614055, 0.261592, 0, 0
3, 1920.00000, 0.614045, 0.261582, 0.614046, 0.261582, 0.614046, 0.261582, 0, 0
3, 1980.00000, 0.614045, 0.261582, 0.614045, 0.261582, 0.614045, 0.261582, 0, 0
3, 2040.00000, 0.614045, 0.261582, 0.614045, 0.261582, 0.614045, 0.261582, 0, 0
3, 2100.00000, 0.614045, 0.261582, 0.614045, 0.261582, 0.614045, 0.261582, 0, 0
3, 2160.00000, 0.614045, 0.261582, 0.614045, 0.261582, 0.614045, 0.261582, 0, 0
3, 2220.00000, 0.614045, 0.261582, 0.614045, 0.261582, 0.614045, 0.261582, 0, 0
3, 2280.00000, 0.614045, 0.261582, 0.614045, 0.261582, 0.614045, 0.261582, 0, 0
3, 2340.00000, 0.614045, 0.261582, 0.614045, 0.261582, 0.614045, 0.261582, 0, 0
3, 2400.00000, 0.614045, 0.261582, 0.614045, 0.261582, 0.614045, 0.261582, 0, 0
3, 2460.00000, 0.614045, 0.261582, 0.614045, 0.261582, 0.614045, 0.261582, 0, 0
3, 2520.00000, 0.614045, 0.261582, 0.614045, 0.261582, 0.614045, 0.261582, 0, 0
3, 2580.00000, 0.614045, 0.261582, 0.614045, 0.261582, 0.614045, 0.261582, 0, 0
3, 2640.00000, 0.614045, 0.261582, 0.614045, 0.261582, 0.614045, 0.261582, 0, 0
3, 2700.00000, 0.614045, 0.261582, 0.614045, 0.261582, 0.614045, 0.261582, 0, 0
3, 2760.00000, 0.561906, 0.239375, 0.561908, 0.239373, 0.561912, 0.239378, 0, 0
3, 2820.00000, 0.561898, 0.239367, 0.561898, 0.239367, 0.561898, 0.239367, 0, 0
3, 2880.00000, 0.561898, 0.239367, 0.561898, 0.239367, 0.561898, 0.239367, 0, 0
3, 2940.00000, 0.561898, 0.239367, 0.561898, 0.239367, 0.561898, 0.239367, 0, 0
3, 3000.00000, 0.561898, 0.239367, 0.561898, 0.239367, 0.561898, 0.239367, 0, 0
3, 3060.00000, 0.561898, 0.239367, 0.561898, 0.239367, 0.561898, 0.239367, 0, 0
3, 3120.00000, 0.561898, 0.239367, 0.561898, 0.239367, 0.561898, 0.239367, 0, 0
3, 3180.00000, 0.561898, 0.239367, 0.561898, 0.239367, 0.561898, 0.239367, 0, 0
3, 3240.00000, 0.561898, 0.239367, 0.561898, 0.239367, 0.561898, 0.239367, 0, 0
3, 3300.00000, 0.561898, 0.239367, 0.561898, 0.239367, 0.561898, 0.239367, 0, 0
3, 3360.00000, 0.561898, 0.239367, 0.561898, 0.239367, 0.561898, 0.239367, 0, 0
3, 3420.00000, 0.561898, 0.239367, 0.561898, 0.239367, 0.561898, 0.239367, 0, 0
3, 3480.00000, 0.561898, 0.239367, 0.561898, 0.239367, 0.561898, 0.239367, 0, 0
3, 3540.00000, 0.561898, 0.239367, 0.561898, 0.239367, 0.561898, 0.239367, 0, 0
4, 0.00000, 0.561898, 0.239367, 0.561898, 0.239367, 0.561898, 0.239367, 0, 0
4, 60.00000, 0.601095, 0.256062, 0.601094, 0.256064, 0.60109, 0.25606, 0, 0
4, 120.00000, 0.601101, 0.256068, 0.601101, 0.256068, 0.601101, 0.256068, 0, 0
4, 180.00000, 0.601101, 0.256068, 0.601101, 0.256068, 0.601101, 0.256068, 0, 0
4, 240.00000, 0.601101, 0.256068, 0.601101, 0.256068, 0.601101, 0.256068, 0, 0
4, 300.00000, 0.601101, 0.256068, 0.601101, 0.256068, 0.601101, 0.256068, 0, 0
4, 360.00000, 0.601101, 0.256068, 0.601101, 0.256068, 0.601101, 0.256068, 0, 0
4, 420.00000, 0.601101, 0.256068, 0.601101, 0.256068, 0.601101, 0.256068, 0, 0
4, 480.00000, 0.601101, 0.256068, 0.601101, 0.256068, 0.601101, 0.256068, 0, 0
4, 540.00000, 0.601101, 0.256068, 0.601101, 0.256068, 0.601101, 0.256068, 0, 0
4, 600.00000, 0.601101, 0.256068, 0.601101, 0.256068, 0.601101, 0.256068, 0, 0
4, 660.00000, 0.601101, 0.256068, 0.601101, 0.256068, 0.601101, 0.256068, 0, 0
4, 720.00000, 0.601101, 0.256068, 0.601101, 0.256068, 0.601101, 0.256068, 0, 0
4, 780.00000, 0.601101, 0.256068, 0.601101, 0.256068, 0.601101, 0.256068, 0, 0
