hour,t(sec),V1,VAngle1,V2,VAngle2,V3,VAngle3,V4,VAngle4,I1,IAngle1,I2,IAngle2,I3,IAngle3,I4,IAngle4
0, 60.00000, 114.377, -31.1294, 120.313, -151.524, 116.997, 86.3405, 0, 0, 4.6488, -54.2029, 4.91763, -174.598, 4.76767, 63.2665, 0.0402206, -37.4356
0, 120.00000, 114.376, -31.1309, 120.347, -151.534, 116.994, 86.3227, 0, 0, 4.64878, -54.2044, 4.91921, -174.608, 4.76751, 63.2487, 0.0405248, -36.824
0, 180.00000, 114.376, -31.1322, 120.378, -151.543, 116.991, 86.3067, 0, 0, 4.64877, -54.2057, 4.92062, -174.617, 4.76736, 63.2327, 0.0408016, -36.2838
0, 240.00000, 114.376, -31.1333, 120.406, -151.552, 116.988, 86.2922, 0, 0, 4.64876, -54.2069, 4.92189, -174.625, 4.76723, 63.2183, 0.0410539, -35.8038
0, 300.00000, 114.376, -31.1344, 120.431, -151.559, 116.986, 86.2793, 0, 0, 4.64875, -54.208, 4.92304, -174.632, 4.7671, 63.2053, 0.0412925, -35.36
0, 360.00000, 114.375, -31.1354, 120.454, -151.565, 116.983, 86.2676, 0, 0, 4.64874, -54.209, 4.92409, -174.639, 4.76699, 63.1936, 0.0415137, -34.9569
0, 420.00000, 114.375, -31.1363, 120.475, -151.571, 116.981, 86.2571, 0, 0, 4.64873, -54.21, 4.92504, -174.645, 4.76688, 63.1831, 0.0417273, -34.5749
0, 480.00000, 115.332, -31.0702, 121.643, -151.482, 117.89, 86.3503, 0, 0, 4.23959, -54.1437, 4.4223, -174.556, 4.34437, 63.2763, 0.0424843, -144.566
0, 540.00000, 115.332, -31.071, 121.661, -151.487, 117.888, 86.3417, 0, 0, 4.23958, -54.1446, 4.42164, -174.561, 4.34428, 63.2678, 0.0434046, -145.378
0, 600.00000, 115.332, -31.0718, 121.677, -151.492, 117.886, 86.334, 0, 0, 4.23958, -54.1454, 4.42105, -174.565, 4.3442, 63.2601, 0.0442384, -146.075
0, 660.00000, 115.332, -31.0724, 121.691, -151.495, 117.884, 86.3271, 0, 0, 4.23957, -54.1461, 4.42052, -174.569, 4.34413, 63.2532, 0.0449938, -146.681
0, 720.00000, 115.332, -31.0731, 121.704, -151.499, 117.883, 86.3209, 0, 0, 4.23957, -54.1467, 4.42004, -174.573, 4.34407, 63.247, 0.0456775, -147.209
0, 780.00000, 115.332, -31.0736, 121.716, -151.502, 117.882, 86.3153, 0, 0, 4.23956, -54.1473, 4.41961, -174.576, 4.34401, 63.2414, 0.0462958, -147.671
0, 840.00000, 115.332, -31.0741, 121.726, -151.505, 117.88, 86.3103, 0, 0, 4.23956, -54.1478, 4.41922, -174.579, 4.34396, 63.2364, 0.0468546, -148.076
0, 900.00000, 115.332, -31.0745, 121.736, -151.507, 117.879, 86.3057, 0, 0, 4.23956, -54.1483, 4.41888, -174.581, 4.34391, 63.2318, 0.0473593, -148.433
0, 960.00000, 115.288, -31.0479, 120.572, -151.816, 116.844, 86.5436, 0, 0, 4.23776, -54.1217, 4.45412, -174.89, 4.3015, 63.4696, 0.0362987, -29.9542
0, 1020.00000, 115.288, -31.0482, 120.58, -151.818, 116.843, 86.5399, 0, 0, 4.23775, -54.122, 4.45441, -174.892, 4.30146, 63.466, 0.0363702, -29.8305
0, 1080.00000, 115.288, -31.0485, 120.586, -151.82, 116.842, 86.5367, 0, 0, 4.23775, -54.1223, 4.45468, -174.894, 4.30143, 63.4627, 0.036437, -29.7156
0, 1140.00000, 115.287, -31.0487, 120.592, -151.822, 116.842, 86.5338, 0, 0, 4.23775, -54.1226, 4.45492, -174.896, 4.3014, 63.4598, 0.0364979, -29.6114
0, 1200.00000, 115.287, -31.049, 120.597, -151.823, 116.841, 86.5311, 0, 0, 4.23775, -54.1228, 4.45514, -174.897, 4.30137, 63.4572, 0.0365557, -29.5131
0, 1260.00000, 115.287, -31.0492, 120.602, -151.825, 116.84, 86.5287, 0, 0, 4.23774, -54.123, 4.45534, -174.898, 4.30135, 63.4548, 0.0366078, -29.4249
0, 1320.00000, 115.287, -31.0494, 120.606, -151.826, 116.84, 86.5266, 0, 0, 4.23774, -54.1232, 4.45552, -174.9, 4.30132, 63.4527, 0.0366547, -29.3457
0, 1380.00000, 115.287, -31.0496, 120.61, -151.827, 116.839, 86.5247, 0, 0, 4.23774, -54.1234, 4.45568, -174.901, 4.3013, 63.4507, 0.036697, -29.2747
0, 1440.00000, 115.287, -31.0497, 120.614, -151.828, 116.839, 86.523, 0, 0, 4.23774, -54.1236, 4.45582, -174.902, 4.30129, 63.449, 0.0367351, -29.2108
0, 1500.00000, 115.287, -31.0499, 120.617, -151.829, 116.839, 86.5214, 0, 0, 4.23774, -54.1237, 4.45595, -174.903, 4.30127, 63.4475, 0.0367696, -29.1534
0, 1560.00000, 115.287, -31.05, 120.62, -151.83, 116.838, 86.52, 0, 0, 4.23774, -54.1239, 4.45607, -174.903, 4.30125, 63.4461, 0.0368014, -29.1004
0, 1620.00000, 115.287, -31.0501, 120.622, -151.83, 116.838, 86.5187, 0, 0, 4.23774, -54.124, 4.45617, -174.904, 4.30124, 63.4448, 0.03683, -29.0528
0, 1680.00000, 115.287, -31.0502, 120.624, -151.831, 116.838, 86.5176, 0, 0, 4.23773, -54.1241, 4.45627, -174.905, 4.30123, 63.4437, 0.0368558, -29.0101
0, 1740.00000, 115.287, -31.0503, 120.627, -151.831, 116.837, 86.5166, 0, 0, 4.23773, -54.1242, 4.45636, -174.905, 4.30122, 63.4427, 0.036879, -28.9717
0, 1800.00000, 114.763, -31.2828, 119.83, -151.73, 116.902, 86.5069, 0, 0, 4.21627, -54.3567, 4.42375, -174.803, 4.30386, 63.433, 0.0325839, -43.3012
0, 1860.00000, 114.763, -31.2829, 119.832, -151.73, 116.902, 86.5061, 0, 0, 4.21627, -54.3568, 4.42382, -174.804, 4.30385, 63.4321, 0.0325936, -43.2702
0, 1920.00000, 114.763, -31.2829, 119.833, -151.73, 116.902, 86.5053, 0, 0, 4.21627, -54.3568, 4.42388, -174.804, 4.30385, 63.4314, 0.0326026, -43.2413
0, 1980.00000, 114.763, -31.283, 119.834, -151.731, 116.902, 86.5046, 0, 0, 4.21627, -54.3569, 4.42393, -174.805, 4.30384, 63.4307, 0.0326107, -43.2153
0, 2040.00000, 114.763, -31.283, 119.836, -151.731, 116.901, 86.504, 0, 0, 4.21627, -54.3569, 4.42398, -174.805, 4.30383, 63.4301, 0.032618, -43.1919
0, 2100.00000, 114.763, -31.2831, 119.837, -151.731, 116.901, 86.5035, 0, 0, 4.21627, -54.357, 4.42402, -174.805, 4.30383, 63.4296, 0.0326246, -43.1708
0, 2160.00000, 114.763, -31.2831, 119.838, -151.732, 116.901, 86.503, 0, 0, 4.21627, -54.357, 4.42406, -174.806, 4.30383, 63.4291, 0.0326306, -43.1519
0, 2220.00000, 114.763, -31.2832, 119.838, -151.732, 116.901, 86.5026, 0, 0, 4.21627, -54.3571, 4.42409, -174.806, 4.30382, 63.4286, 0.0326359, -43.1348
0, 2280.00000, 114.763, -31.2832, 119.839, -151.732, 116.901, 86.5022, 0, 0, 4.21627, -54.3571, 4.42412, -174.806, 4.30382, 63.4282, 0.0326407, -43.1195
0, 2340.00000, 114.763, -31.2832, 119.84, -151.732, 116.901, 86.5018, 0, 0, 4.21627, -54.3571, 4.42415, -174.806, 4.30381, 63.4279, 0.0326451, -43.1054
0, 2400.00000, 114.763, -31.2833, 119.84, -151.733, 116.901, 86.5015, 0, 0, 4.21627, -54.3572, 4.42417, -174.806, 4.30381, 63.4276, 0.0326491, -43.0928
0, 2460.00000, 114.763, -31.2833, 119.841, -151.733, 116.901, 86.5012, 0, 0, 4.21627, -54.3572, 4.4242, -174.807, 4.30381, 63.4273, 0.0326527, -43.0815
0, 2520.00000, 114.763, -31.2833, 119.841, -151.733, 116.901, 86.5009, 0, 0, 4.21627, -54.3572, 4.42422, -174.807, 4.30381, 63.427, 0.0326559, -43.0712
0, 2580.00000, 114.763, -31.2833, 119.842, -151.733, 116.901, 86.5007, 0, 0, 4.21627, -54.3572, 4.42423, -174.807, 4.3038, 63.4268, 0.0326588, -43.062
0, 2640.00000, 114.763, -31.2833, 119.842, -151.733, 116.901, 86.5005, 0, 0, 4.21627, -54.3572, 4.42425, -174.807, 4.3038, 63.4266, 0.0326614, -43.0538
0, 2700.00000, 114.763, -31.2833, 119.843, -151.733, 116.901, 86.5003, 0, 0, 4.21627, -54.3573, 4.42427, -174.807, 4.3038, 63.4264, 0.0326638, -43.0463
0, 2760.00000, 115.258, -31.2948, 119.842, -151.731, 117.177, 86.7064, 0, 0, 4.23653, -54.3687, 4.42425, -174.805, 4.31511, 63.6324, 0.0309629, -45.8741
0, 2820.00000, 115.258, -31.2948, 119.843, -151.731, 117.177, 86.7062, 0, 0, 4.23653, -54.3688, 4.42427, -174.805, 4.31511, 63.6323, 0.030965, -45.8675
0, 2880.00000, 115.258, -31.2949, 119.843, -151.732, 117.177, 86.7061, 0, 0, 4.23653, -54.3688, 4.42428, -174.805, 4.31511, 63.6322, 0.0309665, -45.8616
0, 2940.00000, 115.258, -31.2949, 119.843, -151.732, 117.177, 86.7059, 0, 0, 4.23653, -54.3688, 4.42429, -174.805, 4.31511, 63.632, 0.0309679, -45.8563
0, 3000.00000, 115.258, -31.2949, 119.843, -151.732, 117.177, 86.7058, 0, 0, 4.23653, -54.3688, 4.4243, -174.806, 4.31511, 63.6319, 0.0309692, -45.8516
0, 3060.00000, 115.258, -31.2949, 119.844, -151.732, 117.177, 86.7057, 0, 0, 4.23653, -54.3688, 4.4243, -174.806, 4.31511, 63.6318, 0.0309703, -45.8473
0, 3120.00000, 115.258, -31.2949, 119.844, -151.732, 117.177, 86.7056, 0, 0, 4.23653, -54.3688, 4.42431, -174.806, 4.31511, 63.6317, 0.0309713, -45.8435
0, 3180.00000, 115.258, -31.2949, 119.844, -151.732, 117.177, 86.7056, 0, 0, 4.23653, -54.3688, 4.42432, -174.806, 4.31511, 63.6316, 0.0309722, -45.84
0, 3240.00000, 115.258, -31.2949, 119.844, -151.732, 117.177, 86.7055, 0, 0, 4.23653, -54.3688, 4.42432, -174.806, 4.31511, 63.6316, 0.0309731, -45.8369
0, 3300.00000, 115.258, -31.2949, 119.844, -151.732, 117.177, 86.7054, 0, 0, 4.23653, -54.3688, 4.42433, -174.806, 4.31511, 63.6315, 0.0309738, -45.8341
0, 3360.00000, 115.258, -31.2949, 119.844, -151.732, 117.177, 86.7054, 0, 0, 4.23653, -54.3688, 4.42433, -174.806, 4.31511, 63.6314, 0.0309745, -45.8315
0, 3420.00000, 115.258, -31.2949, 119.844, -151.732, 117.177, 86.7053, 0, 0, 4.23653, -54.3688, 4.42434, -174.806, 4.31511, 63.6314, 0.0309751, -45.8293
0, 3480.00000, 115.258, -31.2949, 119.844, -151.732, 117.177, 86.7053, 0, 0, 4.23653, -54.3688, 4.42434, -174.806, 4.3151, 63.6313, 0.0309756, -45.8272
0, 3540.00000, 115.258, -31.2949, 119.845, -151.732, 117.177, 86.7052, 0, 0, 4.23653, -54.3688, 4.42434, -174.806, 4.3151, 63.6313, 0.0309761, -45.8254
1, 0.00000, 115.258, -31.2949, 119.845, -151.732, 117.177, 86.7052, 0, 0, 4.23653, -54.3688, 4.42435, -174.806, 4.3151, 63.6313, 0.0309766, -45.8237
1, 60.00000, 115.615, -31.2776, 119.845, -151.73, 117.328, 86.861, 0, 0, 4.25117, -54.3515, 4.42438, -174.803, 4.32132, 63.7871, 0.0293363, -47.5506
1, 120.00000, 115.615, -31.2776, 119.845, -151.73, 117.328, 86.861, 0, 0, 4.25117, -54.3515, 4.42438, -174.803, 4.32132, 63.787, 0.0293366, -47.5489
1, 180.00000, 115.615, -31.2776, 119.845, -151.73, 117.328, 86.8609, 0, 0, 4.25117, -54.3515, 4.42438, -174.803, 4.32132, 63.787, 0.0293369, -47.5476
1, 240.00000, 115.615, -31.2776, 119.845, -151.73, 117.328, 86.8609, 0, 0, 4.25117, -54.3515, 4.42438, -174.803, 4.32132, 63.787, 0.0293371, -47.5464
1, 300.00000, 115.615, -31.2776, 119.845, -151.73, 117.328, 86.8609, 0, 0, 4.25117, -54.3515, 4.42438, -174.804, 4.32132, 63.787, 0.0293374, -47.5453
1, 360.00000, 115.615, -31.2776, 119.846, -151.73, 117.328, 86.8609, 0, 0, 4.25117, -54.3515, 4.42439, -174.804, 4.32132, 63.7869, 0.0293376, -47.5444
1, 420.00000, 115.615, -31.2776, 119.846, -151.73, 117.328, 86.8608, 0, 0, 4.25117, -54.3515, 4.42439, -174.804, 4.32132, 63.7869, 0.0293378, -47.5435
1, 480.00000, 115.615, -31.2776, 119.846, -151.73, 117.328, 86.8608, 0, 0, 4.25117, -54.3515, 4.42439, -174.804, 4.32132, 63.7869, 0.029338, -47.5427
1, 540.00000, 115.615, -31.2776, 119.846, -151.73, 117.328, 86.8608, 0, 0, 4.25117, -54.3515, 4.42439, -174.804, 4.32132, 63.7869, 0.0293381, -47.542
1, 600.00000, 115.615, -31.2776, 119.846, -151.73, 117.328, 86.8608, 0, 0, 4.25117, -54.3515, 4.42439, -174.804, 4.32132, 63.7869, 0.0293383, -47.5414
1, 660.00000, 115.615, -31.2776, 119.846, -151.73, 117.328, 86.8608, 0, 0, 4.25117, -54.3515, 4.42439, -174.804, 4.32132, 63.7869, 0.0293384, -47.5408
1, 720.00000, 115.615, -31.2776, 119.846, -151.73, 117.328, 86.8608, 0, 0, 4.25117, -54.3515, 4.42439, -174.804, 4.32132, 63.7868, 0.0293385, -47.5403
1, 780.00000, 116.054, -31.2829, 119.853, -151.725, 117.563, 87.0414, 0, 0, 4.26914, -54.3568, 4.42469, -174.798, 4.33094, 63.9674, 0.0276329, -49.5857
1, 840.00000, 116.054, -31.2829, 119.853, -151.725, 117.563, 87.0414, 0, 0, 4.26914, -54.3568, 4.42469, -174.798, 4.33094, 63.9674, 0.0276333, -49.5836
1, 900.00000, 116.054, -31.2829, 119.853, -151.725, 117.563, 87.0413, 0, 0, 4.26914, -54.3568, 4.42469, -174.798, 4.33094, 63.9674, 0.0276334, -49.5832
1, 960.00000, 116.054, -31.2829, 119.853, -151.725, 117.563, 87.0413, 0, 0, 4.26914, -54.3568, 4.42469, -174.798, 4.33094, 63.9674, 0.0276334, -49.5829
1, 1020.00000, 116.054, -31.2829, 119.853, -151.725, 117.563, 87.0413, 0, 0, 4.26914, -54.3568, 4.42469, -174.798, 4.33094, 63.9674, 0.0276335, -49.5826
1, 1080.00000, 116.054, -31.2829, 119.853, -151.725, 117.563, 87.0413, 0, 0, 4.26914, -54.3568, 4.42469, -174.798, 4.33094, 63.9674, 0.0276335, -49.5823
1, 1140.00000, 116.054, -31.2829, 119.853, -151.725, 117.563, 87.0413, 0, 0, 4.26914, -54.3568, 4.42469, -174.798, 4.33094, 63.9674, 0.0276336, -49.582
1, 1200.00000, 116.054, -31.2829, 119.853, -151.725, 117.563, 87.0413, 0, 0, 4.26914, -54.3568, 4.42469, -174.798, 4.33094, 63.9674, 0.0276336, -49.5818
1, 1260.00000, 116.054, -31.2829, 119.853, -151.725, 117.563, 87.0413, 0, 0, 4.26914, -54.3568, 4.42469, -174.798, 4.33094, 63.9674, 0.0276337, -49.5816
1, 1320.00000, 116.054, -31.2829, 119.853, -151.725, 117.563, 87.0413, 0, 0, 4.26914, -54.3568, 4.42469, -174.798, 4.33094, 63.9674, 0.0276337, -49.5814
1, 1380.00000, 116.054, -31.2829, 119.853, -151.725, 117.563, 87.0413, 0, 0, 4.26914, -54.3568, 4.42469, -174.798, 4.33094, 63.9674, 0.0276338, -49.5812
1, 1440.00000, 116.054, -31.2829, 119.853, -151.725, 117.563, 87.0413, 0, 0, 4.26914, -54.3568, 4.42469, -174.798, 4.33094, 63.9674, 0.0276338, -49.581
1, 1500.00000, 116.054, -31.2829, 119.853, -151.725, 117.563, 87.0413, 0, 0, 4.26914, -54.3568, 4.42469, -174.798, 4.33094, 63.9674, 0.0276338, -49.5809
1, 1560.00000, 116.054, -31.2829, 119.853, -151.725, 117.563, 87.0413, 0, 0, 4.26914, -54.3568, 4.42469, -174.798, 4.33094, 63.9674, 0.0276338, -49.5808
1, 1620.00000, 116.054, -31.2829, 119.853, -151.725, 117.563, 87.0413, 0, 0, 4.26914, -54.3568, 4.4247, -174.798, 4.33094, 63.9674, 0.0276339, -49.5807
1, 1680.00000, 116.054, -31.2829, 119.853, -151.725, 117.563, 87.0413, 0, 0, 4.26914, -54.3568, 4.4247, -174.798, 4.33094, 63.9674, 0.0276339, -49.5806
1, 1740.00000, 116.054, -31.2829, 119.853, -151.725, 117.563, 87.0413, 0, 0, 4.26914, -54.3568, 4.4247, -174.798, 4.33094, 63.9674, 0.0276339, -49.5805
1, 1800.00000, 116.054, -31.2829, 119.853, -151.725, 117.563, 87.0413, 0, 0, 4.26914, -54.3568, 4.4247, -174.798, 4.33094, 63.9674, 0.0276339, -49.5804
1, 1860.00000, 116.054, -31.2829, 119.853, -151.725, 117.563, 87.0413, 0, 0, 4.26914, -54.3568, 4.4247, -174.798, 4.33094, 63.9674, 0.0276339, -49.5803
1, 1920.00000, 116.054, -31.2829, 119.853, -151.725, 117.563, 87.0413, 0, 0, 4.26914, -54.3568, 4.4247, -174.798, 4.33094, 63.9674, 0.0276339, -49.5802
1, 1980.00000, 116.054, -31.2829, 119.853, -151.725, 117.563, 87.0413, 0, 0, 4.26914, -54.3568, 4.4247, -174.798, 4.33094, 63.9674, 0.027634, -49.5802
1, 2040.00000, 116.054, -31.2829, 119.853, -151.725, 117.563, 87.0413, 0, 0, 4.26914, -54.3568, 4.4247, -174.798, 4.33094, 63.9674, 0.027634, -49.5801
1, 2100.00000, 116.054, -31.2829, 119.853, -151.725, 117.563, 87.0413, 0, 0, 4.26914, -54.3568, 4.4247, -174.798, 4.33094, 63.9674, 0.027634, -49.5801
1, 2160.00000, 116.054, -31.2829, 119.853, -151.725, 117.563, 87.0413, 0, 0, 4.26914, -54.3568, 4.4247, -174.798, 4.33094, 63.9674, 0.027634, -49.58
1, 2220.00000, 116.585, -31.0521, 120.65, -151.827, 117.495, 87.0505, 0, 0, 4.29087, -54.126, 4.45731, -174.901, 4.32815, 63.9765, 0.0309017, -31.7799
1, 2280.00000, 116.585, -31.0521, 120.65, -151.827, 117.495, 87.0505, 0, 0, 4.29087, -54.126, 4.45731, -174.901, 4.32815, 63.9765, 0.0309036, -31.7756
1, 2340.00000, 116.585, -31.0521, 120.65, -151.827, 117.495, 87.0505, 0, 0, 4.29087, -54.126, 4.45731, -174.901, 4.32815, 63.9765, 0.0309036, -31.7756
1, 2400.00000, 116.585, -31.0521, 120.65, -151.827, 117.495, 87.0505, 0, 0, 4.29087, -54.126, 4.45731, -174.901, 4.32815, 63.9765, 0.0309036, -31.7755
1, 2460.00000, 116.585, -31.0521, 120.65, -151.827, 117.495, 87.0505, 0, 0, 4.29087, -54.126, 4.45731, -174.901, 4.32815, 63.9765, 0.0309036, -31.7755
1, 2520.00000, 116.585, -31.0521, 120.65, -151.827, 117.495, 87.0505, 0, 0, 4.29087, -54.126, 4.45731, -174.901, 4.32815, 63.9765, 0.0309036, -31.7755
1, 2580.00000, 116.585, -31.0521, 120.65, -151.827, 117.495, 87.0505, 0, 0, 4.29087, -54.126, 4.45731, -174.901, 4.32815, 63.9765, 0.0309036, -31.7755
1, 2640.00000, 116.585, -31.0521, 120.65, -151.827, 117.495, 87.0505, 0, 0, 4.29087, -54.126, 4.45731, -174.901, 4.32815, 63.9765, 0.0309036, -31.7755
1, 2700.00000, 116.585, -31.0521, 120.65, -151.827, 117.495, 87.0505, 0, 0, 4.29087, -54.126, 4.45731, -174.901, 4.32815, 63.9765, 0.0309037, -31.7754
1, 2760.00000, 116.585, -31.0521, 120.65, -151.827, 117.495, 87.0505, 0, 0, 4.29087, -54.126, 4.45731, -174.901, 4.32815, 63.9765, 0.0309037, -31.7754
1, 2820.00000, 116.585, -31.0521, 120.65, -151.827, 117.495, 87.0505, 0, 0, 4.29087, -54.126, 4.45731, -174.901, 4.32815, 63.9765, 0.0309037, -31.7754
1, 2880.00000, 116.585, -31.0521, 120.65, -151.827, 117.495, 87.0505, 0, 0, 4.29087, -54.126, 4.45731, -174.901, 4.32815, 63.9765, 0.0309037, -31.7754
1, 2940.00000, 116.585, -31.0521, 120.65, -151.827, 117.495, 87.0505, 0, 0, 4.29087, -54.126, 4.45731, -174.901, 4.32815, 63.9765, 0.0309037, -31.7754
1, 3000.00000, 116.585, -31.0521, 120.65, -151.827, 117.495, 87.0505, 0, 0, 4.29087, -54.126, 4.45731, -174.901, 4.32815, 63.9765, 0.0309037, -31.7754
1, 3060.00000, 116.585, -31.0521, 120.65, -151.827, 117.495, 87.0505, 0, 0, 4.29087, -54.126, 4.45731, -174.901, 4.32815, 63.9765, 0.0309037, -31.7754
1, 3120.00000, 116.585, -31.0521, 120.65, -151.827, 117.495, 87.0504, 0, 0, 4.29087, -54.126, 4.45731, -174.901, 4.32815, 63.9765, 0.0309037, -31.7754
1, 3180.00000, 116.585, -31.0521, 120.65, -151.827, 117.495, 87.0504, 0, 0, 4.29087, -54.126, 4.45731, -174.901, 4.32815, 63.9765, 0.0309037, -31.7754
1, 3240.00000, 116.585, -31.0521, 120.65, -151.827, 117.495, 87.0504, 0, 0, 4.29087, -54.126, 4.45731, -174.901, 4.32815, 63.9765, 0.0309037, -31.7754
1, 3300.00000, 116.585, -31.0521, 120.65, -151.827, 117.495, 87.0504, 0, 0, 4.29087, -54.126, 4.45731, -174.901, 4.32815, 63.9765, 0.0309037, -31.7754
1, 3360.00000, 116.585, -31.0521, 120.65, -151.827, 117.495, 87.0504, 0, 0, 4.29087, -54.126, 4.45731, -174.901, 4.32815, 63.9765, 0.0309037, -31.7753
1, 3420.00000, 116.585, -31.0521, 120.65, -151.827, 117.495, 87.0504, 0, 0, 4.29087, -54.126, 4.45731, -174.901, 4.32815, 63.9765, 0.0309037, -31.7753
1, 3480.00000, 116.585, -31.0521, 120.65, -151.827, 117.495, 87.0504, 0, 0, 4.29087, -54.126, 4.45731, -174.901, 4.32815, 63.9765, 0.0309037, -31.7753
1, 3540.00000, 116.585, -31.0521, 120.65, -151.827, 117.495, 87.0504, 0, 0, 4.29087, -54.126, 4.45731, -174.901, 4.32815, 63.9765, 0.0309037, -31.7753
2, 0.00000, 116.585, -31.0521, 120.65, -151.827, 117.495, 87.0504, 0, 0, 4.29087, -54.126, 4.45731, -174.901, 4.32815, 63.9765, 0.0309037, -31.7753
2, 60.00000, 116.585, -31.0521, 120.65, -151.827, 117.495, 87.0504, 0, 0, 4.29087, -54.126, 4.45731, -174.901, 4.32815, 63.9765, 0.0309037, -31.7753
2, 120.00000, 116.585, -31.0521, 120.65, -151.827, 117.495, 87.0504, 0, 0, 4.29087, -54.126, 4.45731, -174.901, 4.32815, 63.9765, 0.0309037, -31.7753
2, 180.00000, 116.585, -31.0521, 120.65, -151.827, 117.495, 87.0504, 0, 0, 4.29087, -54.126, 4.45731, -174.901, 4.32815, 63.9765, 0.0309037, -31.7753
2, 240.00000, 116.585, -31.0521, 120.65, -151.827, 117.495, 87.0504, 0, 0, 4.29087, -54.126, 4.45731, -174.901, 4.32815, 63.9765, 0.0309037, -31.7753
2, 300.00000, 116.585, -31.0521, 120.65, -151.827, 117.495, 87.0504, 0, 0, 4.29087, -54.126, 4.45731, -174.901, 4.32815, 63.9765, 0.0309037, -31.7753
2, 360.00000, 116.585, -31.0521, 120.65, -151.827, 117.495, 87.0504, 0, 0, 4.29087, -54.126, 4.45731, -174.901, 4.32815, 63.9765, 0.0309037, -31.7753
2, 420.00000, 116.585, -31.0521, 120.65, -151.827, 117.495, 87.0504, 0, 0, 4.29087, -54.126, 4.45731, -174.901, 4.32815, 63.9765, 0.0309037, -31.7753
2, 480.00000, 116.585, -31.0521, 120.65, -151.827, 117.495, 87.0504, 0, 0, 4.29087, -54.126, 4.45731, -174.901, 4.32815, 63.9765, 0.0309037, -31.7753
2, 540.00000, 116.585, -31.0521, 120.65, -151.827, 117.495, 87.0504, 0, 0, 4.29087, -54.126, 4.45731, -174.901, 4.32815, 63.9765, 0.0309037, -31.7753
2, 600.00000, 116.585, -31.0521, 120.65, -151.827, 117.495, 87.0504, 0, 0, 4.29087, -54.126, 4.45731, -174.901, 4.32815, 63.9765, 0.0309037, -31.7753
2, 660.00000, 116.585, -31.0521, 120.65, -151.827, 117.495, 87.0504, 0, 0, 4.29087, -54.126, 4.45731, -174.901, 4.32815, 63.9765, 0.0309037, -31.7753
