hour,t(sec),V1,VAngle1,V2,VAngle2,V3,VAngle3,V4,VAngle4,I1,IAngle1,I2,IAngle2,I3,IAngle3,I4,IAngle4
0, 60.00000, 122.16, -32.5752, 122.424, -151.457, 125.091, 87.9434, 0, 0, 8.9568, -55.649, 8.93758, -174.53, 8.74731, 64.87, 0.351508, 68.6162
0, 120.00000, 122.162, -32.5893, 122.424, -151.457, 125.123, 87.938, 0, 0, 8.9566, -55.6631, 8.9376, -174.531, 8.74503, 64.8646, 0.355486, 68.4901
0, 180.00000, 122.165, -32.6019, 122.423, -151.457, 125.153, 87.9332, 0, 0, 8.95642, -55.6758, 8.93762, -174.531, 8.74298, 64.8598, 0.359076, 68.3789
0, 240.00000, 122.167, -32.6132, 122.423, -151.458, 125.179, 87.9289, 0, 0, 8.95626, -55.6871, 8.93764, -174.531, 8.7411, 64.8554, 0.362326, 68.2801
0, 300.00000, 122.169, -32.6234, 122.423, -151.458, 125.203, 87.925, 0, 0, 8.95612, -55.6973, 8.93767, -174.532, 8.73939, 64.8515, 0.365264, 68.1923
0, 360.00000, 122.171, -32.6326, 122.422, -151.458, 125.225, 87.9215, 0, 0, 8.956, -55.7065, 8.93769, -174.532, 8.73786, 64.8479, 0.36791, 68.1147
0, 420.00000, 122.173, -32.6409, 122.422, -151.459, 125.245, 87.9184, 0, 0, 8.95589, -55.7148, 8.93771, -174.532, 8.73648, 64.8447, 0.370292, 68.0461
0, 480.00000, 122.852, -32.5268, 123.081, -151.342, 125.996, 88.0567, 0, 0, 8.04746, -55.6006, 8.0325, -174.416, 7.84683, 64.983, 0.336998, 67.3863
0, 540.00000, 122.853, -32.5336, 123.081, -151.342, 126.012, 88.0541, 0, 0, 8.04738, -55.6074, 8.03251, -174.416, 7.84582, 64.9804, 0.338748, 67.3357
0, 600.00000, 122.854, -32.5396, 123.081, -151.342, 126.026, 88.0517, 0, 0, 8.04731, -55.6135, 8.03252, -174.416, 7.84492, 64.978, 0.34032, 67.291
0, 660.00000, 122.855, -32.5451, 123.081, -151.343, 126.039, 88.0496, 0, 0, 8.04724, -55.619, 8.03253, -174.416, 7.84411, 64.9759, 0.341734, 67.2512
0, 720.00000, 122.856, -32.5501, 123.081, -151.343, 126.051, 88.0477, 0, 0, 8.04718, -55.6239, 8.03254, -174.417, 7.84338, 64.974, 0.343008, 67.2157
0, 780.00000, 122.857, -32.5545, 123.081, -151.343, 126.061, 88.046, 0, 0, 8.04713, -55.6284, 8.03255, -174.417, 7.84272, 64.9722, 0.344155, 67.1841
0, 840.00000, 122.858, -32.5585, 123.081, -151.343, 126.071, 88.0444, 0, 0, 8.04708, -55.6324, 8.03256, -174.417, 7.84213, 64.9707, 0.345187, 67.1558
0, 900.00000, 122.859, -32.5621, 123.08, -151.343, 126.079, 88.0431, 0, 0, 8.04704, -55.636, 8.03257, -174.417, 7.8416, 64.9693, 0.346116, 67.1306
0, 960.00000, 122.859, -32.5654, 123.08, -151.343, 126.087, 88.0418, 0, 0, 8.04701, -55.6392, 8.03257, -174.417, 7.84112, 64.968, 0.346952, 67.108
0, 1020.00000, 122.86, -32.5683, 123.08, -151.344, 126.093, 88.0407, 0, 0, 8.04697, -55.6422, 8.03258, -174.417, 7.84069, 64.9669, 0.347705, 67.0878
0, 1080.00000, 122.86, -32.5709, 123.08, -151.344, 126.1, 88.0396, 0, 0, 8.04694, -55.6448, 8.03259, -174.417, 7.8403, 64.9658, 0.348382, 67.0698
0, 1140.00000, 122.861, -32.5733, 123.08, -151.344, 126.105, 88.0387, 0, 0, 8.04692, -55.6472, 8.03259, -174.418, 7.83995, 64.9649, 0.348992, 67.0536
0, 1200.00000, 122.861, -32.5754, 123.08, -151.344, 126.11, 88.0379, 0, 0, 8.04689, -55.6493, 8.03259, -174.418, 7.83964, 64.9641, 0.349541, 67.0391
0, 1260.00000, 122.862, -32.5773, 123.08, -151.344, 126.115, 88.0372, 0, 0, 8.04687, -55.6512, 8.0326, -174.418, 7.83935, 64.9633, 0.350035, 67.0261
0, 1320.00000, 122.862, -32.579, 123.08, -151.344, 126.119, 88.0365, 0, 0, 8.04685, -55.6529, 8.0326, -174.418, 7.8391, 64.9626, 0.35048, 67.0144
0, 1380.00000, 122.862, -32.5806, 123.08, -151.344, 126.122, 88.0359, 0, 0, 8.04683, -55.6545, 8.03261, -174.418, 7.83887, 64.962, 0.35088, 67.0039
0, 1440.00000, 122.862, -32.582, 123.08, -151.344, 126.126, 88.0353, 0, 0, 8.04682, -55.6559, 8.03261, -174.418, 7.83866, 64.9615, 0.35124, 66.9945
0, 1500.00000, 122.863, -32.5832, 123.08, -151.344, 126.128, 88.0349, 0, 0, 8.0468, -55.6571, 8.03261, -174.418, 7.83848, 64.961, 0.351565, 66.9861
0, 1560.00000, 122.863, -32.5844, 123.08, -151.344, 126.131, 88.0344, 0, 0, 8.04679, -55.6583, 8.03261, -174.418, 7.83831, 64.9605, 0.351857, 66.9785
0, 1620.00000, 122.863, -32.5854, 123.08, -151.344, 126.134, 88.034, 0, 0, 8.04678, -55.6593, 8.03261, -174.418, 7.83816, 64.9601, 0.352119, 66.9717
0, 1680.00000, 122.863, -32.5863, 123.08, -151.344, 126.136, 88.0337, 0, 0, 8.04677, -55.6602, 8.03262, -174.418, 7.83803, 64.9598, 0.352356, 66.9656
0, 1740.00000, 122.863, -32.5871, 123.08, -151.344, 126.138, 88.0333, 0, 0, 8.04676, -55.661, 8.03262, -174.418, 7.8379, 64.9595, 0.352568, 66.9601
0, 1800.00000, 122.864, -32.5879, 123.08, -151.344, 126.139, 88.0331, 0, 0, 8.04675, -55.6618, 8.03262, -174.418, 7.8378, 64.9592, 0.35276, 66.9552
0, 1860.00000, 122.864, -32.5885, 123.08, -151.344, 126.141, 88.0328, 0, 0, 8.04674, -55.6625, 8.03262, -174.418, 7.8377, 64.9589, 0.352932, 66.9507
0, 1920.00000, 122.864, -32.5891, 123.08, -151.344, 126.142, 88.0326, 0, 0, 8.04673, -55.6631, 8.03262, -174.418, 7.83761, 64.9587, 0.353087, 66.9468
0, 1980.00000, 122.864, -32.5897, 123.08, -151.344, 126.144, 88.0323, 0, 0, 8.04673, -55.6636, 8.03262, -174.418, 7.83753, 64.9585, 0.353227, 66.9432
0, 2040.00000, 122.864, -32.5902, 123.08, -151.344, 126.145, 88.0322, 0, 0, 8.04672, -55.6641, 8.03262, -174.418, 7.83746, 64.9583, 0.353353, 66.94
0, 2100.00000, 122.864, -32.5906, 123.08, -151.344, 126.146, 88.032, 0, 0, 8.04672, -55.6645, 8.03263, -174.418, 7.83739, 64.9581, 0.353466, 66.9371
0, 2160.00000, 122.864, -32.591, 123.08, -151.344, 126.147, 88.0318, 0, 0, 8.04671, -55.6649, 8.03263, -174.418, 7.83733, 64.9579, 0.353568, 66.9345
0, 2220.00000, 122.864, -32.5914, 123.08, -151.344, 126.147, 88.0317, 0, 0, 8.04671, -55.6653, 8.03263, -174.418, 7.83728, 64.9578, 0.353659, 66.9321
0, 2280.00000, 122.864, -32.5917, 123.08, -151.344, 126.148, 88.0316, 0, 0, 8.04671, -55.6656, 8.03263, -174.418, 7.83723, 64.9577, 0.353742, 66.93
0, 2340.00000, 122.864, -32.592, 123.08, -151.344, 126.149, 88.0315, 0, 0, 8.0467, -55.6659, 8.03263, -174.418, 7.83719, 64.9576, 0.353816, 66.9281
0, 2400.00000, 122.864, -32.5922, 123.08, -151.344, 126.15, 88.0314, 0, 0, 8.0467, -55.6661, 8.03263, -174.418, 7.83715, 64.9575, 0.353883, 66.9264
0, 2460.00000, 122.864, -32.5925, 123.08, -151.344, 126.15, 88.0313, 0, 0, 8.0467, -55.6664, 8.03263, -174.418, 7.83712, 64.9574, 0.353943, 66.9249
0, 2520.00000, 122.864, -32.5927, 123.08, -151.344, 126.151, 88.0312, 0, 0, 8.0467, -55.6666, 8.03263, -174.418, 7.83709, 64.9573, 0.353997, 66.9235
0, 2580.00000, 122.864, -32.5929, 123.08, -151.344, 126.151, 88.0311, 0, 0, 8.04669, -55.6668, 8.03263, -174.418, 7.83706, 64.9572, 0.354046, 66.9222
0, 2640.00000, 122.864, -32.593, 123.08, -151.344, 126.151, 88.031, 0, 0, 8.04669, -55.667, 8.03263, -174.418, 7.83704, 64.9571, 0.354089, 66.9211
0, 2700.00000, 122.864, -32.5932, 123.08, -151.344, 126.152, 88.031, 0, 0, 8.04669, -55.6671, 8.03263, -174.418, 7.83701, 64.9571, 0.354129, 66.9201
0, 2760.00000, 122.865, -32.5933, 123.08, -151.344, 126.152, 88.0309, 0, 0, 8.04669, -55.6672, 8.03263, -174.418, 7.83699, 64.957, 0.354164, 66.9192
0, 2820.00000, 122.865, -32.5934, 123.08, -151.344, 126.152, 88.0309, 0, 0, 8.04669, -55.6674, 8.03263, -174.418, 7.83697, 64.957, 0.354196, 66.9184
0, 2880.00000, 122.865, -32.5936, 123.08, -151.344, 126.153, 88.0308, 0, 0, 8.04669, -55.6675, 8.03263, -174.418, 7.83696, 64.9569, 0.354225, 66.9177
0, 2940.00000, 122.865, -32.5937, 123.08, -151.344, 126.153, 88.0308, 0, 0, 8.04669, -55.6676, 8.03263, -174.418, 7.83694, 64.9569, 0.354251, 66.917
0, 3000.00000, 122.865, -32.5938, 123.08, -151.344, 126.153, 88.0308, 0, 0, 8.04668, -55.6677, 8.03263, -174.418, 7.83693, 64.9569, 0.354274, 66.9164
0, 3060.00000, 122.865, -32.5938, 123.08, -151.344, 126.153, 88.0307, 0, 0, 8.04668, -55.6677, 8.03263, -174.418, 7.83692, 64.9568, 0.354295, 66.9159
0, 3120.00000, 122.865, -32.5939, 123.08, -151.344, 126.153, 88.0307, 0, 0, 8.04668, -55.6678, 8.03263, -174.418, 7.83691, 64.9568, 0.354314, 66.9154
0, 3180.00000, 122.865, -32.594, 123.08, -151.344, 126.154, 88.0307, 0, 0, 8.04668, -55.6679, 8.03263, -174.418, 7.8369, 64.9568, 0.354331, 66.915
0, 3240.00000, 122.865, -32.594, 123.08, -151.344, 126.154, 88.0307, 0, 0, 8.04668, -55.6679, 8.03263, -174.418, 7.83689, 64.9567, 0.354346, 66.9146
0, 3300.00000, 122.865, -32.5941, 123.08, -151.344, 126.154, 88.0306, 0, 0, 8.04668, -55.668, 8.03263, -174.418, 7.83688, 64.9567, 0.35436, 66.9142
0, 3360.00000, 122.865, -32.5941, 123.08, -151.344, 126.154, 88.0306, 0, 0, 8.04668, -55.668, 8.03263, -174.418, 7.83687, 64.9567, 0.354373, 66.9139
0, 3420.00000, 122.865, -32.5942, 123.08, -151.344, 126.154, 88.0306, 0, 0, 8.04668, -55.6681, 8.03263, -174.418, 7.83687, 64.9567, 0.354384, 66.9136
0, 3480.00000, 122.865, -32.5942, 123.08, -151.344, 126.154, 88.0306, 0, 0, 8.04668, -55.6681, 8.03263, -174.418, 7.83686, 64.9567, 0.354394, 66.9134
0, 3540.00000, 122.865, -32.5942, 123.08, -151.344, 126.154, 88.0306, 0, 0, 8.04668, -55.6682, 8.03263, -174.418, 7.83686, 64.9567, 0.354403, 66.9132
1, 0.00000, 122.865, -32.5943, 123.08, -151.344, 126.154, 88.0306, 0, 0, 8.04668, -55.6682, 8.03263, -174.418, 7.83685, 64.9566, 0.354411, 66.9129
1, 60.00000, 122.865, -32.5943, 123.08, -151.344, 126.154, 88.0305, 0, 0, 8.04668, -55.6682, 8.03263, -174.418, 7.83685, 64.9566, 0.354418, 66.9128
1, 120.00000, 122.865, -32.5943, 123.08, -151.344, 126.154, 88.0305, 0, 0, 8.04668, -55.6683, 8.03263, -174.418, 7.83684, 64.9566, 0.354425, 66.9126
1, 180.00000, 122.865, -32.5944, 123.08, -151.344, 126.154, 88.0305, 0, 0, 8.04668, -55.6683, 8.03263, -174.418, 7.83684, 64.9566, 0.354431, 66.9124
1, 240.00000, 122.865, -32.5944, 123.08, -151.344, 126.155, 88.0305, 0, 0, 8.04668, -55.6683, 8.03263, -174.418, 7.83684, 64.9566, 0.354436, 66.9123
1, 300.00000, 122.865, -32.5944, 123.08, -151.344, 126.155, 88.0305, 0, 0, 8.04668, -55.6683, 8.03263, -174.418, 7.83683, 64.9566, 0.354441, 66.9122
1, 360.00000, 122.865, -32.5944, 123.08, -151.344, 126.155, 88.0305, 0, 0, 8.04668, -55.6683, 8.03263, -174.418, 7.83683, 64.9566, 0.354445, 66.9121
1, 420.00000, 122.865, -32.5944, 123.08, -151.344, 126.155, 88.0305, 0, 0, 8.04668, -55.6683, 8.03263, -174.418, 7.83683, 64.9566, 0.354449, 66.912
1, 480.00000, 122.865, -32.5944, 123.08, -151.344, 126.155, 88.0305, 0, 0, 8.04668, -55.6684, 8.03263, -174.418, 7.83683, 64.9566, 0.354452, 66.9119
1, 540.00000, 122.865, -32.5945, 123.08, -151.344, 126.155, 88.0305, 0, 0, 8.04668, -55.6684, 8.03263, -174.418, 7.83683, 64.9566, 0.354456, 66.9118
1, 600.00000, 122.865, -32.5945, 123.08, -151.344, 126.155, 88.0305, 0, 0, 8.04668, -55.6684, 8.03263, -174.418, 7.83682, 64.9566, 0.354458, 66.9117
1, 660.00000, 122.865, -32.5945, 123.08, -151.344, 126.155, 88.0305, 0, 0, 8.04668, -55.6684, 8.03263, -174.418, 7.83682, 64.9566, 0.354461, 66.9117
1, 720.00000, 122.865, -32.5945, 123.08, -151.344, 126.155, 88.0305, 0, 0, 8.04668, -55.6684, 8.03263, -174.418, 7.83682, 64.9566, 0.354463, 66.9116
1, 780.00000, 122.865, -32.5945, 123.08, -151.344, 126.155, 88.0305, 0, 0, 8.04668, -55.6684, 8.03263, -174.418, 7.83682, 64.9566, 0.354465, 66.9116
1, 840.00000, 122.865, -32.5945, 123.08, -151.344, 126.155, 88.0305, 0, 0, 8.04668, -55.6684, 8.03263, -174.418, 7.83682, 64.9566, 0.354467, 66.9115
1, 900.00000, 122.865, -32.5945, 123.08, -151.344, 126.155, 88.0305, 0, 0, 8.04668, -55.6684, 8.03263, -174.418, 7.83682, 64.9566, 0.354469, 66.9115
1, 960.00000, 122.865, -32.5945, 123.08, -151.344, 126.155, 88.0305, 0, 0, 8.04668, -55.6684, 8.03263, -174.418, 7.83682, 64.9566, 0.35447, 66.9114
1, 1020.00000, 122.865, -32.5945, 123.08, -151.344, 126.155, 88.0305, 0, 0, 8.04668, -55.6684, 8.03263, -174.418, 7.83682, 64.9566, 0.354472, 66.9114
1, 1080.00000, 122.865, -32.5945, 123.08, -151.344, 126.155, 88.0305, 0, 0, 8.04668, -55.6684, 8.03263, -174.418, 7.83682, 64.9566, 0.354473, 66.9114
1, 1140.00000, 122.865, -32.5945, 123.08, -151.344, 126.155, 88.0305, 0, 0, 8.04668, -55.6684, 8.03263, -174.418, 7.83682, 64.9566, 0.354474, 66.9113
1, 1200.00000, 122.865, -32.5945, 123.08, -151.344, 126.155, 88.0305, 0, 0, 8.04667, -55.6684, 8.03263, -174.418, 7.83682, 64.9565, 0.354475, 66.9113
1, 1260.00000, 122.865, -32.5945, 123.08, -151.344, 126.155, 88.0305, 0, 0, 8.04667, -55.6684, 8.03263, -174.418, 7.83681, 64.9565, 0.354476, 66.9113
1, 1320.00000, 122.865, -32.5945, 123.08, -151.344, 126.155, 88.0305, 0, 0, 8.04667, -55.6685, 8.03263, -174.418, 7.83681, 64.9565, 0.354477, 66.9113
1, 1380.00000, 122.865, -32.5945, 123.08, -151.344, 126.155, 88.0305, 0, 0, 8.04667, -55.6685, 8.03263, -174.418, 7.83681, 64.9565, 0.354477, 66.9113
1, 1440.00000, 122.865, -32.5945, 123.08, -151.344, 126.155, 88.0305, 0, 0, 8.04667, -55.6685, 8.03263, -174.418, 7.83681, 64.9565, 0.354478, 66.9112
1, 1500.00000, 122.865, -32.5945, 123.08, -151.344, 126.155, 88.0305, 0, 0, 8.04667, -55.6685, 8.03263, -174.418, 7.83681, 64.9565, 0.354479, 66.9112
1, 1560.00000, 122.865, -32.5945, 123.08, -151.344, 126.155, 88.0305, 0, 0, 8.04667, -55.6685, 8.03263, -174.418, 7.83681, 64.9565, 0.354479, 66.9112
1, 1620.00000, 122.865, -32.5945, 123.08, -151.344, 126.155, 88.0305, 0, 0, 8.04667, -55.6685, 8.03263, -174.418, 7.83681, 64.9565, 0.35448, 66.9112
1, 1680.00000, 122.865, -32.5945, 123.08, -151.344, 126.155, 88.0305, 0, 0, 8.04667, -55.6685, 8.03263, -174.418, 7.83681, 64.9565, 0.35448, 66.9112
1, 1740.00000, 122.865, -32.5946, 123.08, -151.344, 126.155, 88.0305, 0, 0, 8.04667, -55.6685, 8.03263, -174.418, 7.83681, 64.9565, 0.35448, 66.9112
1, 1800.00000, 122.865, -32.5946, 123.08, -151.344, 126.155, 88.0305, 0, 0, 8.04667, -55.6685, 8.03263, -174.418, 7.83681, 64.9565, 0.354481, 66.9112
1, 1860.00000, 122.865, -32.5946, 123.08, -151.344, 126.155, 88.0305, 0, 0, 8.04667, -55.6685, 8.03263, -174.418, 7.83681, 64.9565, 0.354481, 66.9112
1, 1920.00000, 122.865, -32.5946, 123.08, -151.344, 126.155, 88.0305, 0, 0, 8.04667, -55.6685, 8.03263, -174.418, 7.83681, 64.9565, 0.354481, 66.9112
1, 1980.00000, 122.865, -32.5946, 123.08, -151.344, 126.155, 88.0305, 0, 0, 8.04667, -55.6685, 8.03263, -174.418, 7.83681, 64.9565, 0.354482, 66.9111
1, 2040.00000, 122.865, -32.5946, 123.08, -151.344, 126.155, 88.0305, 0, 0, 8.04667, -55.6685, 8.03263, -174.418, 7.83681, 64.9565, 0.354482, 66.9111
1, 2100.00000, 122.865, -32.5946, 123.08, -151.344, 126.155, 88.0305, 0, 0, 8.04667, -55.6685, 8.03263, -174.418, 7.83681, 64.9565, 0.354482, 66.9111
1, 2160.00000, 122.865, -32.5946, 123.08, -151.344, 126.155, 88.0305, 0, 0, 8.04667, -55.6685, 8.03263, -174.418, 7.83681, 64.9565, 0.354482, 66.9111
1, 2220.00000, 122.865, -32.5946, 123.08, -151.344, 126.155, 88.0305, 0, 0, 8.04667, -55.6685, 8.03263, -174.418, 7.83681, 64.9565, 0.354482, 66.9111
1, 2280.00000, 122.865, -32.5946, 123.08, -151.344, 126.155, 88.0305, 0, 0, 8.04667, -55.6685, 8.03263, -174.418, 7.83681, 64.9565, 0.354483, 66.9111
1, 2340.00000, 122.865, -32.5946, 123.08, -151.344, 126.155, 88.0305, 0, 0, 8.04667, -55.6685, 8.03263, -174.418, 7.83681, 64.9565, 0.354483, 66.9111
1, 2400.00000, 122.865, -32.5946, 123.08, -151.344, 126.155, 88.0305, 0, 0, 8.04667, -55.6685, 8.03263, -174.418, 7.83681, 64.9565, 0.354483, 66.9111
1, 2460.00000, 122.865, -32.5946, 123.08, -151.344, 126.155, 88.0304, 0, 0, 8.04667, -55.6685, 8.03263, -174.418, 7.83681, 64.9565, 0.354483, 66.9111
1, 2520.00000, 122.865, -32.5946, 123.08, -151.344, 126.155, 88.0304, 0, 0, 8.04667, -55.6685, 8.03263, -174.418, 7.83681, 64.9565, 0.354483, 66.9111
1, 2580.00000, 122.865, -32.5946, 123.08, -151.344, 126.155, 88.0304, 0, 0, 8.04667, -55.6685, 8.03263, -174.418, 7.83681, 64.9565, 0.354483, 66.9111
1, 2640.00000, 122.865, -32.5946, 123.08, -151.344, 126.155, 88.0304, 0, 0, 8.04667, -55.6685, 8.03263, -174.418, 7.83681, 64.9565, 0.354483, 66.9111
1, 2700.00000, 122.865, -32.5946, 123.08, -151.344, 126.155, 88.0304, 0, 0, 8.04667, -55.6685, 8.03263, -174.418, 7.83681, 64.9565, 0.354483, 66.9111
1, 2760.00000, 122.865, -32.5946, 123.08, -151.344, 126.155, 88.0304, 0, 0, 8.04667, -55.6685, 8.03263, -174.418, 7.83681, 64.9565, 0.354483, 66.9111
1, 2820.00000, 122.865, -32.5946, 123.08, -151.344, 126.155, 88.0304, 0, 0, 8.04667, -55.6685, 8.03263, -174.418, 7.83681, 64.9565, 0.354483, 66.9111
1, 2880.00000, 122.865, -32.5946, 123.08, -151.344, 126.155, 88.0304, 0, 0, 8.04667, -55.6685, 8.03263, -174.418, 7.83681, 64.9565, 0.354483, 66.9111
1, 2940.00000, 122.865, -32.5946, 123.08, -151.344, 126.155, 88.0304, 0, 0, 8.04667, -55.6685, 8.03263, -174.418, 7.83681, 64.9565, 0.354484, 66.9111
1, 3000.00000, 122.865, -32.5946, 123.08, -151.344, 126.155, 88.0304, 0, 0, 8.04667, -55.6685, 8.03263, -174.418, 7.83681, 64.9565, 0.354484, 66.9111
1, 3060.00000, 122.865, -32.5946, 123.08, -151.344, 126.155, 88.0304, 0, 0, 8.04667, -55.6685, 8.03263, -174.418, 7.83681, 64.9565, 0.354484, 66.9111
1, 3120.00000, 122.865, -32.5946, 123.08, -151.344, 126.155, 88.0304, 0, 0, 8.04667, -55.6685, 8.03263, -174.418, 7.83681, 64.9565, 0.354484, 66.9111
1, 3180.00000, 122.865, -32.5946, 123.08, -151.344, 126.155, 88.0304, 0, 0, 8.04667, -55.6685, 8.03263, -174.418, 7.83681, 64.9565, 0.354484, 66.9111
1, 3240.00000, 122.865, -32.5946, 123.08, -151.344, 126.155, 88.0304, 0, 0, 8.04667, -55.6685, 8.03263, -174.418, 7.83681, 64.9565, 0.354484, 66.9111
1, 3300.00000, 122.865, -32.5946, 123.08, -151.344, 126.155, 88.0304, 0, 0, 8.04667, -55.6685, 8.03263, -174.418, 7.83681, 64.9565, 0.354484, 66.9111
1, 3360.00000, 122.865, -32.5946, 123.08, -151.344, 126.155, 88.0304, 0, 0, 8.04667, -55.6685, 8.03263, -174.418, 7.83681, 64.9565, 0.354484, 66.9111
1, 3420.00000, 122.865, -32.5946, 123.08, -151.344, 126.155, 88.0304, 0, 0, 8.04667, -55.6685, 8.03263, -174.418, 7.83681, 64.9565, 0.354484, 66.9111
1, 3480.00000, 122.865, -32.5946, 123.08, -151.344, 126.155, 88.0304, 0, 0, 8.04667, -55.6685, 8.03263, -174.418, 7.83681, 64.9565, 0.354484, 66.9111
1, 3540.00000, 122.865, -32.5946, 123.08, -151.344, 126.155, 88.0304, 0, 0, 8.04667, -55.6685, 8.03263, -174.418, 7.83681, 64.9565, 0.354484, 66.9111
2, 0.00000, 122.865, -32.5946, 123.08, -151.344, 126.155, 88.0304, 0, 0, 8.04667, -55.6685, 8.03263, -174.418, 7.83681, 64.9565, 0.354484, 66.9111
2, 60.00000, 122.865, -32.5946, 123.08, -151.344, 126.155, 88.0304, 0, 0, 8.04667, -55.6685, 8.03263, -174.418, 7.83681, 64.9565, 0.354484, 66.9111
2, 120.00000, 122.865, -32.5946, 123.08, -151.344, 126.155, 88.0304, 0, 0, 8.04667, -55.6685, 8.03263, -174.418, 7.83681, 64.9565, 0.354484, 66.9111
2, 180.00000, 122.865, -32.5946, 123.08, -151.344, 126.155, 88.0304, 0, 0, 8.04667, -55.6685, 8.03263, -174.418, 7.83681, 64.9565, 0.354484, 66.9111
2, 240.00000, 122.865, -32.5946, 123.08, -151.344, 126.155, 88.0304, 0, 0, 8.04667, -55.6685, 8.03263, -174.418, 7.83681, 64.9565, 0.354484, 66.9111
2, 300.00000, 122.865, -32.5946, 123.08, -151.344, 126.155, 88.0304, 0, 0, 8.04667, -55.6685, 8.03263, -174.418, 7.83681, 64.9565, 0.354484, 66.9111
2, 360.00000, 122.865, -32.5946, 123.08, -151.344, 126.155, 88.0304, 0, 0, 8.04667, -55.6685, 8.03263, -174.418, 7.83681, 64.9565, 0.354484, 66.9111
2, 420.00000, 122.865, -32.5946, 123.08, -151.344, 126.155, 88.0304, 0, 0, 8.04667, -55.6685, 8.03263, -174.418, 7.83681, 64.9565, 0.354484, 66.9111
2, 480.00000, 122.865, -32.5946, 123.08, -151.344, 126.155, 88.0304, 0, 0, 8.04667, -55.6685, 8.03263, -174.418, 7.83681, 64.9565, 0.354484, 66.9111
2, 540.00000, 122.865, -32.5946, 123.08, -151.344, 126.155, 88.0304, 0, 0, 8.04667, -55.6685, 8.03263, -174.418, 7.83681, 64.9565, 0.354484, 66.9111
2, 600.00000, 122.865, -32.5946, 123.08, -151.344, 126.155, 88.0304, 0, 0, 8.04667, -55.6685, 8.03263, -174.418, 7.83681, 64.9565, 0.354484, 66.9111
2, 660.00000, 122.865, -32.5946, 123.08, -151.344, 126.155, 88.0304, 0, 0, 8.04667, -55.6685, 8.03263, -174.418, 7.83681, 64.9565, 0.354484, 66.9111
2, 720.00000, 122.865, -32.5946, 123.08, -151.344, 126.155, 88.0304, 0, 0, 8.04667, -55.6685, 8.03263, -174.418, 7.83681, 64.9565, 0.354484, 66.9111
2, 780.00000, 122.865, -32.5946, 123.08, -151.344, 126.155, 88.0304, 0, 0, 8.04667, -55.6685, 8.03263, -174.418, 7.83681, 64.9565, 0.354484, 66.9111
