hour,t(sec),"P1 (kW)","Q1 (kvar)","P2 (kW)","Q2 (kvar)","P3 (kW)","Q3 (kvar)","P4 (kW)","Q4 (kvar)"
0, 60.00000, 0.514269, 0.219071, 0.51426, 0.219078, 0.514244, 0.219061, 0, 0
0, 120.00000, 0.514268, 0.219077, 0.514268, 0.219077, 0.514267, 0.219077, 0, 0
0, 180.00000, 0.514268, 0.219077, 0.514268, 0.219077, 0.514268, 0.219077, 0, 0
0, 240.00000, 0.514268, 0.219077, 0.514268, 0.219077, 0.514268, 0.219077, 0, 0
0, 300.00000, 0.514268, 0.219077, 0.514268, 0.219077, 0.514268, 0.219077, 0, 0
0, 360.00000, 0.514268, 0.219077, 0.514268, 0.219077, 0.514268, 0.219077, 0, 0
0, 420.00000, 0.514268, 0.219077, 0.514268, 0.219077, 0.514268, 0.219077, 0, 0
0, 480.00000, 0.514268, 0.219077, 0.514268, 0.219077, 0.514268, 0.219077, 0, 0
0, 540.00000, 0.514268, 0.219077, 0.514268, 0.219077, 0.514268, 0.219077, 0, 0
0, 600.00000, 0.514268, 0.219077, 0.514268, 0.219077, 0.514268, 0.219077, 0, 0
0, 660.00000, 0.514268, 0.219077, 0.514268, 0.219077, 0.514268, 0.219077, 0, 0
0, 720.00000, 0.514268, 0.219077, 0.514268, 0.219077, 0.514268, 0.219077, 0, 0
0, 780.00000, 0.514268, 0.219077, 0.514268, 0.219077, 0.514268, 0.219077, 0, 0
0, 840.00000, 0.514268, 0.219077, 0.514268, 0.219077, 0.514268, 0.219077, 0, 0
0, 900.00000, 0.514268, 0.219077, 0.514268, 0.219077, 0.514268, 0.219077, 0, 0
0, 960.00000, 0.544027, 0.231753, 0.544027, 0.231754, 0.544027, 0.231753, 0, 0
0, 1020.00000, 0.544029, 0.231755, 0.544029, 0.231755, 0.544029, 0.231755, 0, 0
0, 1080.00000, 0.544029, 0.231755, 0.544029, 0.231755, 0.544029, 0.231755, 0, 0
0, 1140.00000, 0.544029, 0.231755, 0.544029, 0.231755, 0.544029, 0.231755, 0, 0
0, 1200.00000, 0.544029, 0.231755, 0.544029, 0.231755, 0.544029, 0.231755, 0, 0
0, 1260.00000, 0.544029, 0.231755, 0.544029, 0.231755, 0.544029, 0.231755, 0, 0
0, 1320.00000, 0.544029, 0.231755, 0.544029, 0.231755, 0.544029, 0.231755, 0, 0
0, 1380.00000, 0.544029, 0.231755, 0.544029, 0.231755, 0.544029, 0.231755, 0, 0
0, 1440.00000, 0.544029, 0.231755, 0.544029, 0.231755, 0.544029, 0.231755, 0, 0
0, 1500.00000, 0.544029, 0.231755, 0.544029, 0.231755, 0.544029, 0.231755, 0, 0
0, 1560.00000, 0.544029, 0.231755, 0.544029, 0.231755, 0.544029, 0.231755, 0, 0
0, 1620.00000, 0.544029, 0.231755, 0.544029, 0.231755, 0.544029, 0.231755, 0, 0
0, 1680.00000, 0.544029, 0.231755, 0.544029, 0.231755, 0.544029, 0.231755, 0, 0
0, 1740.00000, 0.544029, 0.231755, 0.544029, 0.231755, 0.544029, 0.231755, 0, 0
0, 1800.00000, 0.544029, 0.231755, 0.544029, 0.231755, 0.544029, 0.231755, 0, 0
0, 1860.00000, 0.545704, 0.23248, 0.545703, 0.232478, 0.545703, 0.232478, 0, 0
0, 1920.00000, 0.545681, 0.232459, 0.545681, 0.232459, 0.545681, 0.232459, 0, 0
0, 1980.00000, 0.545681, 0.232459, 0.545681, 0.232459, 0.545681, 0.232459, 0, 0
0, 2040.00000, 0.545681, 0.232459, 0.545681, 0.232459, 0.545681, 0.232459, 0, 0
0, 2100.00000, 0.545681, 0.232459, 0.545681, 0.232459, 0.545681, 0.232459, 0, 0
0, 2160.00000, 0.545681, 0.232459, 0.545681, 0.232459, 0.545681, 0.232459, 0, 0
0, 2220.00000, 0.545681, 0.232459, 0.545681, 0.232459, 0.545681, 0.232459, 0, 0
0, 2280.00000, 0.545681, 0.232459, 0.545681, 0.232459, 0.545681, 0.232459, 0, 0
0, 2340.00000, 0.545681, 0.232459, 0.545681, 0.232459, 0.545681, 0.232459, 0, 0
0, 2400.00000, 0.545681, 0.232459, 0.545681, 0.232459, 0.545681, 0.232459, 0, 0
0, 2460.00000, 0.545681, 0.232459, 0.545681, 0.232459, 0.545681, 0.232459, 0, 0
0, 2520.00000, 0.545681, 0.232459, 0.545681, 0.232459, 0.545681, 0.232459, 0, 0
0, 2580.00000, 0.545681, 0.232459, 0.545681, 0.232459, 0.545681, 0.232459, 0, 0
0, 2640.00000, 0.545681, 0.232459, 0.545681, 0.232459, 0.545681, 0.232459, 0, 0
0, 2700.00000, 0.545681, 0.232459, 0.545681, 0.232459, 0.545681, 0.232459, 0, 0
0, 2760.00000, 0.51902, 0.221105, 0.519024, 0.221101, 0.519034, 0.221111, 0, 0
0, 2820.00000, 0.519021, 0.221102, 0.519021, 0.221102, 0.519021, 0.221102, 0, 0
0, 2880.00000, 0.519021, 0.221102, 0.519021, 0.221102, 0.519021, 0.221102, 0, 0
0, 2940.00000, 0.519021, 0.221102, 0.519021, 0.221102, 0.519021, 0.221102, 0, 0
0, 3000.00000, 0.519021, 0.221102, 0.519021, 0.221102, 0.519021, 0.221102, 0, 0
0, 3060.00000, 0.519021, 0.221102, 0.519021, 0.221102, 0.519021, 0.221102, 0, 0
0, 3120.00000, 0.519021, 0.221102, 0.519021, 0.221102, 0.519021, 0.221102, 0, 0
0, 3180.00000, 0.519021, 0.221102, 0.519021, 0.221102, 0.519021, 0.221102, 0, 0
0, 3240.00000, 0.519021, 0.221102, 0.519021, 0.221102, 0.519021, 0.221102, 0, 0
0, 3300.00000, 0.519021, 0.221102, 0.519021, 0.221102, 0.519021, 0.221102, 0, 0
0, 3360.00000, 0.519021, 0.221102, 0.519021, 0.221102, 0.519021, 0.221102, 0, 0
0, 3420.00000, 0.519021, 0.221102, 0.519021, 0.221102, 0.519021, 0.221102, 0, 0
0, 3480.00000, 0.519021, 0.221102, 0.519021, 0.221102, 0.519021, 0.221102, 0, 0
0, 3540.00000, 0.519021, 0.221102, 0.519021, 0.221102, 0.519021, 0.221102, 0, 0
1, 0.00000, 0.519021, 0.221102, 0.519021, 0.221102, 0.519021, 0.221102, 0, 0
1, 60.00000, 0.512952, 0.21852, 0.512956, 0.218515, 0.512965, 0.218525, 0, 0
1, 120.00000, 0.512953, 0.218517, 0.512954, 0.218517, 0.512954, 0.218517, 0, 0
1, 180.00000, 0.512954, 0.218517, 0.512954, 0.218517, 0.512954, 0.218517, 0, 0
1, 240.00000, 0.512954, 0.218517, 0.512954, 0.218517, 0.512954, 0.218517, 0, 0
1, 300.00000, 0.512954, 0.218517, 0.512954, 0.218517, 0.512954, 0.218517, 0, 0
1, 360.00000, 0.512954, 0.218517, 0.512954, 0.218517, 0.512954, 0.218517, 0, 0
1, 420.00000, 0.512954, 0.218517, 0.512954, 0.218517, 0.512954, 0.218517, 0, 0
1, 480.00000, 0.512954, 0.218517, 0.512954, 0.218517, 0.512954, 0.218517, 0, 0
1, 540.00000, 0.512954, 0.218517, 0.512954, 0.218517, 0.512954, 0.218517, 0, 0
1, 600.00000, 0.512954, 0.218517, 0.512954, 0.218517, 0.512954, 0.218517, 0, 0
1, 660.00000, 0.512954, 0.218517, 0.512954, 0.218517, 0.512954, 0.218517, 0, 0
1, 720.00000, 0.512954, 0.218517, 0.512954, 0.218517, 0.512954, 0.218517, 0, 0
1, 780.00000, 0.512954, 0.218517, 0.512954, 0.218517, 0.512954, 0.218517, 0, 0
1, 840.00000, 0.512954, 0.218517, 0.512954, 0.218517, 0.512954, 0.218517, 0, 0
1, 900.00000, 0.512954, 0.218517, 0.512954, 0.218517, 0.512954, 0.218517, 0, 0
1, 960.00000, 0.510555, 0.2175, 0.510557, 0.217496, 0.510565, 0.217504, 0, 0
1, 1020.00000, 0.510552, 0.217495, 0.510553, 0.217494, 0.510553, 0.217495, 0, 0
1, 1080.00000, 0.510553, 0.217494, 0.510553, 0.217494, 0.510553, 0.217494, 0, 0
1, 1140.00000, 0.510553, 0.217494, 0.510553, 0.217494, 0.510553, 0.217494, 0, 0
1, 1200.00000, 0.510553, 0.217494, 0.510553, 0.217494, 0.510553, 0.217494, 0, 0
1, 1260.00000, 0.510553, 0.217494, 0.510553, 0.217494, 0.510553, 0.217494, 0, 0
1, 1320.00000, 0.510553, 0.217494, 0.510553, 0.217494, 0.510553, 0.217494, 0, 0
1, 1380.00000, 0.510553, 0.217494, 0.510553, 0.217494, 0.510553, 0.217494, 0, 0
1, 1440.00000, 0.510553, 0.217494, 0.510553, 0.217494, 0.510553, 0.217494, 0, 0
1, 1500.00000, 0.510553, 0.217494, 0.510553, 0.217494, 0.510553, 0.217494, 0, 0
1, 1560.00000, 0.510553, 0.217494, 0.510553, 0.217494, 0.510553, 0.217494, 0, 0
1, 1620.00000, 0.510553, 0.217494, 0.510553, 0.217494, 0.510553, 0.217494, 0, 0
1, 1680.00000, 0.510553, 0.217494, 0.510553, 0.217494, 0.510553, 0.217494, 0, 0
1, 1740.00000, 0.510553, 0.217494, 0.510553, 0.217494, 0.510553, 0.217494, 0, 0
1, 1800.00000, 0.510553, 0.217494, 0.510553, 0.217494, 0.510553, 0.217494, 0, 0
1, 1860.00000, 0.522868, 0.222737, 0.522864, 0.222742, 0.522854, 0.222732, 0, 0
1, 1920.00000, 0.522866, 0.22274, 0.522866, 0.22274, 0.522866, 0.22274, 0, 0
1, 1980.00000, 0.522866, 0.22274, 0.522866, 0.22274, 0.522866, 0.22274, 0, 0
1, 2040.00000, 0.522866, 0.22274, 0.522866, 0.22274, 0.522866, 0.22274, 0, 0
1, 2100.00000, 0.522866, 0.22274, 0.522866, 0.22274, 0.522866, 0.22274, 0, 0
1, 2160.00000, 0.522866, 0.22274, 0.522866, 0.22274, 0.522866, 0.22274, 0, 0
1, 2220.00000, 0.522866, 0.22274, 0.522866, 0.22274, 0.522866, 0.22274, 0, 0
1, 2280.00000, 0.522866, 0.22274, 0.522866, 0.22274, 0.522866, 0.22274, 0, 0
1, 2340.00000, 0.522866, 0.22274, 0.522866, 0.22274, 0.522866, 0.22274, 0, 0
1, 2400.00000, 0.522866, 0.22274, 0.522866, 0.22274, 0.522866, 0.22274, 0, 0
1, 2460.00000, 0.522866, 0.22274, 0.522866, 0.22274, 0.522866, 0.22274, 0, 0
1, 2520.00000, 0.522866, 0.22274, 0.522866, 0.22274, 0.522866, 0.22274, 0, 0
1, 2580.00000, 0.522866, 0.22274, 0.522866, 0.22274, 0.522866, 0.22274, 0, 0
1, 2640.00000, 0.522866, 0.22274, 0.522866, 0.22274, 0.522866, 0.22274, 0, 0
1, 2700.00000, 0.522866, 0.22274, 0.522866, 0.22274, 0.522866, 0.22274, 0, 0
1, 2760.00000, 0.492697, 0.209892, 0.492707, 0.209889, 0.492717, 0.209903, 0, 0
1, 2820.00000, 0.492698, 0.209888, 0.492698, 0.209888, 0.492698, 0.209889, 0, 0
1, 2880.00000, 0.492698, 0.209888, 0.492698, 0.209888, 0.492698, 0.209888, 0, 0
1, 2940.00000, 0.492698, 0.209888, 0.492698, 0.209888, 0.492698, 0.209888, 0, 0
1, 3000.00000, 0.492698, 0.209888, 0.492698, 0.209888, 0.492698, 0.209888, 0, 0
1, 3060.00000, 0.492698, 0.209888, 0.492698, 0.209888, 0.492698, 0.209888, 0, 0
1, 3120.00000, 0.492698, 0.209888, 0.492698, 0.209888, 0.492698, 0.209888, 0, 0
1, 3180.00000, 0.492698, 0.209888, 0.492698, 0.209888, 0.492698, 0.209888, 0, 0
1, 3240.00000, 0.492698, 0.209888, 0.492698, 0.209888, 0.492698, 0.209888, 0, 0
1, 3300.00000, 0.492698, 0.209888, 0.492698, 0.209888, 0.492698, 0.209888, 0, 0
1, 3360.00000, 0.492698, 0.209888, 0.492698, 0.209888, 0.492698, 0.209888, 0, 0
1, 3420.00000, 0.492698, 0.209888, 0.492698, 0.209888, 0.492698, 0.209888, 0, 0
1, 3480.00000, 0.492698, 0.209888, 0.492698, 0.209888, 0.492698, 0.209888, 0, 0
1, 3540.00000, 0.492698, 0.209888, 0.492698, 0.209888, 0.492698, 0.209888, 0, 0
2, 0.00000, 0.492698, 0.209888, 0.492698, 0.209888, 0.492698, 0.209888, 0, 0
2, 60.00000, 0.505921, 0.215518, 0.505916, 0.215522, 0.505907, 0.215512, 0, 0
2, 120.00000, 0.50592, 0.215521, 0.50592, 0.215521, 0.505919, 0.215521, 0, 0
2, 180.00000, 0.50592, 0.215521, 0.50592, 0.215521, 0.50592, 0.215521, 0, 0
2, 240.00000, 0.50592, 0.215521, 0.50592, 0.215521, 0.50592, 0.215521, 0, 0
2, 300.00000, 0.50592, 0.215521, 0.50592, 0.215521, 0.50592, 0.215521, 0, 0
2, 360.00000, 0.50592, 0.215521, 0.50592, 0.215521, 0.50592, 0.215521, 0, 0
2, 420.00000, 0.50592, 0.215521, 0.50592, 0.215521, 0.50592, 0.215521, 0, 0
2, 480.00000, 0.50592, 0.215521, 0.50592, 0.215521, 0.50592, 0.215521, 0, 0
2, 540.00000, 0.50592, 0.215521, 0.50592, 0.215521, 0.50592, 0.215521, 0, 0
2, 600.00000, 0.50592, 0.215521, 0.50592, 0.215521, 0.50592, 0.215521, 0, 0
2, 660.00000, 0.50592, 0.215521, 0.50592, 0.215521, 0.50592, 0.215521, 0, 0
2, 720.00000, 0.50592, 0.215521, 0.50592, 0.215521, 0.50592, 0.215521, 0, 0
2, 780.00000, 0.50592, 0.215521, 0.50592, 0.215521, 0.50592, 0.215521, 0, 0
2, 840.00000, 0.50592, 0.215521, 0.50592, 0.215521, 0.50592, 0.215521, 0, 0
2, 900.00000, 0.50592, 0.215521, 0.50592, 0.215521, 0.50592, 0.215521, 0, 0
2, 960.00000, 0.479363, 0.204211, 0.47937, 0.204209, 0.479374, 0.204217, 0, 0
2, 1020.00000, 0.479362, 0.204207, 0.479362, 0.204207, 0.479362, 0.204207, 0, 0
2, 1080.00000, 0.479362, 0.204207, 0.479362, 0.204207, 0.479362, 0.204207, 0, 0
2, 1140.00000, 0.479362, 0.204207, 0.479362, 0.204207, 0.479362, 0.204207, 0, 0
2, 1200.00000, 0.479362, 0.204207, 0.479362, 0.204207, 0.479362, 0.204207, 0, 0
2, 1260.00000, 0.479362, 0.204207, 0.479362, 0.204207, 0.479362, 0.204207, 0, 0
2, 1320.00000, 0.479362, 0.204207, 0.479362, 0.204207, 0.479362, 0.204207, 0, 0
2, 1380.00000, 0.479362, 0.204207, 0.479362, 0.204207, 0.479362, 0.204207, 0, 0
2, 1440.00000, 0.479362, 0.204207, 0.479362, 0.204207, 0.479362, 0.204207, 0, 0
2, 1500.00000, 0.479362, 0.204207, 0.479362, 0.204207, 0.479362, 0.204207, 0, 0
2, 1560.00000, 0.479362, 0.204207, 0.479362, 0.204207, 0.479362, 0.204207, 0, 0
2, 1620.00000, 0.479362, 0.204207, 0.479362, 0.204207, 0.479362, 0.204207, 0, 0
2, 1680.00000, 0.479362, 0.204207, 0.479362, 0.204207, 0.479362, 0.204207, 0, 0
2, 1740.00000, 0.479362, 0.204207, 0.479362, 0.204207, 0.479362, 0.204207, 0, 0
2, 1800.00000, 0.479362, 0.204207, 0.479362, 0.204207, 0.479362, 0.204207, 0, 0
2, 1860.00000, 0.4791, 0.204095, 0.479096, 0.204095, 0.479095, 0.204092, 0, 0
2, 1920.00000, 0.4791, 0.204096, 0.4791, 0.204096, 0.4791, 0.204096, 0, 0
2, 1980.00000, 0.4791, 0.204096, 0.4791, 0.204096, 0.4791, 0.204096, 0, 0
2, 2040.00000, 0.4791, 0.204096, 0.4791, 0.204096, 0.4791, 0.204096, 0, 0
2, 2100.00000, 0.4791, 0.204096, 0.4791, 0.204096, 0.4791, 0.204096, 0, 0
2, 2160.00000, 0.4791, 0.204096, 0.4791, 0.204096, 0.4791, 0.204096, 0, 0
2, 2220.00000, 0.4791, 0.204096, 0.4791, 0.204096, 0.4791, 0.204096, 0, 0
2, 2280.00000, 0.4791, 0.204096, 0.4791, 0.204096, 0.4791, 0.204096, 0, 0
2, 2340.00000, 0.4791, 0.204096, 0.4791, 0.204096, 0.4791, 0.204096, 0, 0
2, 2400.00000, 0.4791, 0.204096, 0.4791, 0.204096, 0.4791, 0.204096, 0, 0
2, 2460.00000, 0.4791, 0.204096, 0.4791, 0.204096, 0.4791, 0.204096, 0, 0
2, 2520.00000, 0.4791, 0.204096, 0.4791, 0.204096, 0.4791, 0.204096, 0, 0
2, 2580.00000, 0.4791, 0.204096, 0.4791, 0.204096, 0.4791, 0.204096, 0, 0
2, 2640.00000, 0.4791, 0.204096, 0.4791, 0.204096, 0.4791, 0.204096, 0, 0
2, 2700.00000, 0.4791, 0.204096, 0.4791, 0.204096, 0.4791, 0.204096, 0, 0
2, 2760.00000, 0.45839, 0.195277, 0.458392, 0.195274, 0.458397, 0.19528, 0, 0
2, 2820.00000, 0.458384, 0.195271, 0.458384, 0.195271, 0.458384, 0.195271, 0, 0
2, 2880.00000, 0.458384, 0.195271, 0.458384, 0.195271, 0.458384, 0.195271, 0, 0
2, 2940.00000, 0.458384, 0.195271, 0.458384, 0.195271, 0.458384, 0.195271, 0, 0
2, 3000.00000, 0.458384, 0.195271, 0.458384, 0.195271, 0.458384, 0.195271, 0, 0
2, 3060.00000, 0.458384, 0.195271, 0.458384, 0.195271, 0.458384, 0.195271, 0, 0
2, 3120.00000, 0.458384, 0.195271, 0.458384, 0.195271, 0.458384, 0.195271, 0, 0
2, 3180.00000, 0.458384, 0.195271, 0.458384, 0.195271, 0.458384, 0.195271, 0, 0
2, 3240.00000, 0.458384, 0.195271, 0.458384, 0.195271, 0.458384, 0.195271, 0, 0
2, 3300.00000, 0.458384, 0.195271, 0.458384, 0.195271, 0.458384, 0.195271, 0, 0
2, 3360.00000, 0.458384, 0.195271, 0.458384, 0.195271, 0.458384, 0.195271, 0, 0
2, 3420.00000, 0.458384, 0.195271, 0.458384, 0.195271, 0.458384, 0.195271, 0, 0
2, 3480.00000, 0.458384, 0.195271, 0.458384, 0.195271, 0.458384, 0.195271, 0, 0
2, 3540.00000, 0.458384, 0.195271, 0.458384, 0.195271, 0.458384, 0.195271, 0, 0
3, 0.00000, 0.458384, 0.195271, 0.458384, 0.195271, 0.458384, 0.195271, 0, 0
3, 60.00000, 0.470034, 0.200232, 0.470035, 0.200234, 0.470032, 0.200231, 0, 0
3, 120.00000, 0.47004, 0.200236, 0.47004, 0.200236, 0.470039, 0.200236, 0, 0
3, 180.00000, 0.47004, 0.200236, 0.47004, 0.200236, 0.47004, 0.200236, 0, 0
3, 240.00000, 0.47004, 0.200236, 0.47004, 0.200236, 0.47004, 0.200236, 0, 0
3, 300.00000, 0.47004, 0.200236, 0.47004, 0.200236, 0.47004, 0.200236, 0, 0
3, 360.00000, 0.47004, 0.200236, 0.47004, 0.200236, 0.47004, 0.200236, 0, 0
3, 420.00000, 0.47004, 0.200236, 0.47004, 0.200236, 0.47004, 0.200236, 0, 0
3, 480.00000, 0.47004, 0.200236, 0.47004, 0.200236, 0.47004, 0.200236, 0, 0
3, 540.00000, 0.47004, 0.200236, 0.47004, 0.200236, 0.47004, 0.200236, 0, 0
3, 600.00000, 0.47004, 0.200236, 0.47004, 0.200236, 0.47004, 0.200236, 0, 0
3, 660.00000, 0.47004, 0.200236, 0.47004, 0.200236, 0.47004, 0.200236, 0, 0
3, 720.00000, 0.47004, 0.200236, 0.47004, 0.200236, 0.47004, 0.200236, 0, 0
3, 780.00000, 0.47004, 0.200236, 0.47004, 0.200236, 0.47004, 0.200236, 0, 0
3, 840.00000, 0.47004, 0.200236, 0.47004, 0.200236, 0.47004, 0.200236, 0, 0
3, 900.00000, 0.47004, 0.200236, 0.47004, 0.200236, 0.47004, 0.200236, 0, 0
3, 960.00000, 0.482968, 0.205748, 0.482967, 0.205746, 0.482971, 0.205749, 0, 0
3, 1020.00000, 0.482955, 0.205738, 0.482955, 0.205738, 0.482955, 0.205738, 0, 0
3, 1080.00000, 0.482954, 0.205738, 0.482954, 0.205738, 0.482954, 0.205738, 0, 0
3, 1140.00000, 0.482954, 0.205738, 0.482954, 0.205738, 0.482954, 0.205738, 0, 0
3, 1200.00000, 0.482954, 0.205738, 0.482954, 0.205738, 0.482954, 0.205738, 0, 0
3, 1260.00000, 0.482954, 0.205738, 0.482954, 0.205738, 0.482954, 0.205738, 0, 0
3, 1320.00000, 0.482954, 0.205738, 0.482954, 0.205738, 0.482954, 0.205738, 0, 0
3, 1380.00000, 0.482954, 0.205738, 0.482954, 0.205738, 0.482954, 0.205738, 0, 0
3, 1440.00000, 0.482954, 0.205738, 0.482954, 0.205738, 0.482954, 0.205738, 0, 0
3, 1500.00000, 0.482954, 0.205738, 0.482954, 0.205738, 0.482954, 0.205738, 0, 0
3, 1560.00000, 0.482954, 0.205738, 0.482954, 0.205738, 0.482954, 0.205738, 0, 0
3, 1620.00000, 0.482954, 0.205738, 0.482954, 0.205738, 0.482954, 0.205738, 0, 0
3, 1680.00000, 0.482954, 0.205738, 0.482954, 0.205738, 0.482954, 0.205738, 0, 0
3, 1740.00000, 0.482954, 0.205738, 0.482954, 0.205738, 0.482954, 0.205738, 0, 0
3, 1800.00000, 0.482954, 0.205738, 0.482954, 0.205738, 0.482954, 0.205738, 0, 0
3, 1860.00000, 0.488875, 0.208263, 0.488873, 0.208262, 0.488873, 0.208262, 0, 0
3, 1920.00000, 0.48886, 0.208254, 0.48886, 0.208254, 0.48886, 0.208254, 0, 0
3, 1980.00000, 0.48886, 0.208253, 0.48886, 0.208253, 0.48886, 0.208253, 0, 0
3, 2040.00000, 0.48886, 0.208253, 0.48886, 0.208253, 0.48886, 0.208253, 0, 0
3, 2100.00000, 0.48886, 0.208253, 0.48886, 0.208253, 0.48886, 0.208253, 0, 0
3, 2160.00000, 0.48886, 0.208253, 0.48886, 0.208253, 0.48886, 0.208253, 0, 0
3, 2220.00000, 0.48886, 0.208253, 0.48886, 0.208253, 0.48886, 0.208253, 0, 0
3, 2280.00000, 0.48886, 0.208253, 0.48886, 0.208253, 0.48886, 0.208253, 0, 0
3, 2340.00000, 0.48886, 0.208253, 0.48886, 0.208253, 0.48886, 0.208253, 0, 0
3, 2400.00000, 0.48886, 0.208253, 0.48886, 0.208253, 0.48886, 0.208253, 0, 0
3, 2460.00000, 0.48886, 0.208253, 0.48886, 0.208253, 0.48886, 0.208253, 0, 0
3, 2520.00000, 0.48886, 0.208253, 0.48886, 0.208253, 0.48886, 0.208253, 0, 0
3, 2580.00000, 0.48886, 0.208253, 0.48886, 0.208253, 0.48886, 0.208253, 0, 0
3, 2640.00000, 0.48886, 0.208253, 0.48886, 0.208253, 0.48886, 0.208253, 0, 0
3, 2700.00000, 0.48886, 0.208253, 0.48886, 0.208253, 0.48886, 0.208253, 0, 0
3, 2760.00000, 0.447352, 0.190575, 0.44735, 0.190571, 0.447355, 0.190575, 0, 0
3, 2820.00000, 0.447343, 0.190568, 0.447343, 0.190567, 0.447344, 0.190568, 0, 0
3, 2880.00000, 0.447343, 0.190567, 0.447343, 0.190567, 0.447343, 0.190568, 0, 0
3, 2940.00000, 0.447343, 0.190567, 0.447343, 0.190567, 0.447343, 0.190567, 0, 0
3, 3000.00000, 0.447343, 0.190567, 0.447343, 0.190567, 0.447343, 0.190567, 0, 0
3, 3060.00000, 0.447343, 0.190567, 0.447343, 0.190567, 0.447343, 0.190567, 0, 0
3, 3120.00000, 0.447353, 0.190567, 0.44736, 0.190585, 0.447334, 0.190565, 0, 0
3, 3180.00000, 0.447344, 0.190567, 0.447344, 0.190568, 0.447343, 0.190567, 0, 0
3, 3240.00000, 0.447343, 0.190567, 0.447343, 0.190568, 0.447343, 0.190567, 0, 0
3, 3300.00000, 0.447343, 0.190567, 0.447343, 0.190567, 0.447343, 0.190567, 0, 0
3, 3360.00000, 0.447343, 0.190567, 0.447343, 0.190567, 0.447343, 0.190567, 0, 0
3, 3420.00000, 0.447343, 0.190567, 0.447343, 0.190567, 0.447343, 0.190567, 0, 0
3, 3480.00000, 0.447343, 0.190567, 0.447343, 0.190567, 0.447343, 0.190567, 0, 0
3, 3540.00000, 0.447343, 0.190567, 0.447343, 0.190567, 0.447343, 0.190567, 0, 0
4, 0.00000, 0.447343, 0.190567, 0.447343, 0.190567, 0.447343, 0.190567, 0, 0
4, 60.00000, 0.478548, 0.203858, 0.478548, 0.203859, 0.478547, 0.203858, 0, 0
4, 120.00000, 0.478554, 0.203863, 0.478554, 0.203863, 0.478554, 0.203863, 0, 0
4, 180.00000, 0.478554, 0.203863, 0.478554, 0.203863, 0.478554, 0.203863, 0, 0
4, 240.00000, 0.478554, 0.203863, 0.478554, 0.203863, 0.478554, 0.203863, 0, 0
4, 300.00000, 0.478554, 0.203863, 0.478554, 0.203863, 0.478554, 0.203863, 0, 0
4, 360.00000, 0.478554, 0.203863, 0.478554, 0.203863, 0.478554, 0.203863, 0, 0
4, 420.00000, 0.478554, 0.203863, 0.478554, 0.203863, 0.478554, 0.203863, 0, 0
4, 480.00000, 0.478554, 0.203863, 0.478554, 0.203863, 0.478554, 0.203863, 0, 0
4, 540.00000, 0.478554, 0.203863, 0.478554, 0.203863, 0.478554, 0.203863, 0, 0
4, 600.00000, 0.478554, 0.203863, 0.478554, 0.203863, 0.478554, 0.203863, 0, 0
4, 660.00000, 0.478554, 0.203863, 0.478554, 0.203863, 0.478554, 0.203863, 0, 0
4, 720.00000, 0.478554, 0.203863, 0.478554, 0.203863, 0.478554, 0.203863, 0, 0
4, 780.00000, 0.478554, 0.203863, 0.478554, 0.203863, 0.478554, 0.203863, 0, 0
