hour,t(sec),V1,VAngle1,V2,VAngle2,V3,VAngle3,V4,VAngle4,I1,IAngle1,I2,IAngle2,I3,IAngle3,I4,IAngle4
0, 60.00000, 119.278, -31.0989, 119.215, -150.845, 120.269, 89.0985, 0, 0, 5.93702, -54.1723, 5.93353, -173.919, 5.99191, 66.0251, 0.0341954, -106.688
0, 120.00000, 119.278, -31.099, 119.215, -150.845, 120.269, 89.0985, 0, 0, 5.93697, -54.1729, 5.93346, -173.919, 5.99168, 66.0245, 0.0339689, -106.726
0, 180.00000, 119.278, -31.099, 119.215, -150.845, 120.269, 89.0985, 0, 0, 5.93697, -54.1729, 5.93346, -173.919, 5.99168, 66.0245, 0.0339649, -106.727
0, 240.00000, 119.278, -31.099, 119.215, -150.845, 120.269, 89.0985, 0, 0, 5.93697, -54.1729, 5.93346, -173.919, 5.99168, 66.0245, 0.0339648, -106.727
0, 300.00000, 119.278, -31.099, 119.215, -150.845, 120.269, 89.0985, 0, 0, 5.93697, -54.1729, 5.93346, -173.919, 5.99168, 66.0245, 0.0339648, -106.727
0, 360.00000, 119.278, -31.099, 119.215, -150.845, 120.269, 89.0985, 0, 0, 5.93697, -54.1729, 5.93346, -173.919, 5.99168, 66.0245, 0.0339648, -106.727
0, 420.00000, 119.278, -31.099, 119.215, -150.845, 120.269, 89.0985, 0, 0, 5.93697, -54.1729, 5.93346, -173.919, 5.99168, 66.0245, 0.0339648, -106.727
0, 480.00000, 119.278, -31.099, 119.215, -150.845, 120.269, 89.0985, 0, 0, 5.93697, -54.1729, 5.93346, -173.919, 5.99168, 66.0245, 0.0339648, -106.727
0, 540.00000, 119.278, -31.099, 119.215, -150.845, 120.269, 89.0985, 0, 0, 5.93697, -54.1729, 5.93346, -173.919, 5.99168, 66.0245, 0.0339648, -106.727
0, 600.00000, 119.278, -31.099, 119.215, -150.845, 120.269, 89.0985, 0, 0, 5.93697, -54.1729, 5.93346, -173.919, 5.99168, 66.0245, 0.0339648, -106.727
0, 660.00000, 119.278, -31.099, 119.215, -150.845, 120.269, 89.0985, 0, 0, 5.93697, -54.1729, 5.93346, -173.919, 5.99168, 66.0245, 0.0339648, -106.727
0, 720.00000, 119.278, -31.099, 119.215, -150.845, 120.269, 89.0985, 0, 0, 5.93697, -54.1729, 5.93346, -173.919, 5.99168, 66.0245, 0.0339648, -106.727
0, 780.00000, 119.278, -31.099, 119.215, -150.845, 120.269, 89.0985, 0, 0, 5.93697, -54.1729, 5.93346, -173.919, 5.99168, 66.0245, 0.0339648, -106.727
0, 840.00000, 119.278, -31.099, 119.215, -150.845, 120.269, 89.0985, 0, 0, 5.93697, -54.1729, 5.93346, -173.919, 5.99168, 66.0245, 0.0339648, -106.727
0, 900.00000, 119.278, -31.099, 119.215, -150.845, 120.269, 89.0985, 0, 0, 5.93697, -54.1729, 5.93346, -173.919, 5.99168, 66.0245, 0.0339648, -106.727
0, 960.00000, 119.092, -31.1264, 119.037, -150.871, 120.092, 89.0684, 0, 0, 5.8001, -54.2002, 5.79711, -173.945, 5.85414, 65.9945, 0.0334717, -106.724
0, 1020.00000, 119.092, -31.1264, 119.037, -150.871, 120.092, 89.0684, 0, 0, 5.80008, -54.2003, 5.79708, -173.945, 5.85411, 65.9944, 0.0334586, -106.724
0, 1080.00000, 119.092, -31.1264, 119.037, -150.871, 120.092, 89.0684, 0, 0, 5.80008, -54.2003, 5.79708, -173.945, 5.85411, 65.9944, 0.0334586, -106.724
0, 1140.00000, 119.092, -31.1264, 119.037, -150.871, 120.092, 89.0684, 0, 0, 5.80008, -54.2003, 5.79708, -173.945, 5.85411, 65.9944, 0.0334586, -106.724
0, 1200.00000, 119.092, -31.1264, 119.037, -150.871, 120.092, 89.0684, 0, 0, 5.80008, -54.2003, 5.79708, -173.945, 5.85411, 65.9944, 0.0334586, -106.724
0, 1260.00000, 119.092, -31.1264, 119.037, -150.871, 120.092, 89.0684, 0, 0, 5.80008, -54.2003, 5.79708, -173.945, 5.85411, 65.9944, 0.0334586, -106.724
0, 1320.00000, 119.092, -31.1264, 119.037, -150.871, 120.092, 89.0684, 0, 0, 5.80008, -54.2003, 5.79708, -173.945, 5.85411, 65.9944, 0.0334586, -106.724
0, 1380.00000, 119.092, -31.1264, 119.037, -150.871, 120.092, 89.0684, 0, 0, 5.80008, -54.2003, 5.79708, -173.945, 5.85411, 65.9944, 0.0334586, -106.724
0, 1440.00000, 119.092, -31.1264, 119.037, -150.871, 120.092, 89.0684, 0, 0, 5.80008, -54.2003, 5.79708, -173.945, 5.85411, 65.9944, 0.0334586, -106.724
0, 1500.00000, 119.092, -31.1264, 119.037, -150.871, 120.092, 89.0684, 0, 0, 5.80008, -54.2003, 5.79708, -173.945, 5.85411, 65.9944, 0.0334586, -106.724
0, 1560.00000, 119.092, -31.1264, 119.037, -150.871, 120.092, 89.0684, 0, 0, 5.80008, -54.2003, 5.79708, -173.945, 5.85411, 65.9944, 0.0334586, -106.724
0, 1620.00000, 119.092, -31.1264, 119.037, -150.871, 120.092, 89.0684, 0, 0, 5.80008, -54.2003, 5.79708, -173.945, 5.85411, 65.9944, 0.0334586, -106.724
0, 1680.00000, 119.092, -31.1264, 119.037, -150.871, 120.092, 89.0684, 0, 0, 5.80008, -54.2003, 5.79708, -173.945, 5.85411, 65.9944, 0.0334586, -106.724
0, 1740.00000, 119.092, -31.1264, 119.037, -150.871, 120.092, 89.0684, 0, 0, 5.80008, -54.2003, 5.79708, -173.945, 5.85411, 65.9944, 0.0334586, -106.724
0, 1800.00000, 119.092, -31.1264, 119.037, -150.871, 120.092, 89.0684, 0, 0, 5.80008, -54.2003, 5.79708, -173.945, 5.85411, 65.9944, 0.0334586, -106.724
0, 1860.00000, 119.312, -31.1151, 119.245, -150.861, 120.297, 89.0829, 0, 0, 5.49505, -54.1901, 5.49166, -173.935, 5.5454, 66.0081, 0.0311492, -106.813
0, 1920.00000, 119.312, -31.115, 119.246, -150.861, 120.298, 89.0829, 0, 0, 5.49534, -54.1889, 5.49195, -173.935, 5.54573, 66.009, 0.0312247, -106.847
0, 1980.00000, 119.312, -31.115, 119.246, -150.861, 120.298, 89.0829, 0, 0, 5.49534, -54.1889, 5.49195, -173.935, 5.54573, 66.009, 0.0312253, -106.847
0, 2040.00000, 119.312, -31.115, 119.246, -150.861, 120.298, 89.0829, 0, 0, 5.49534, -54.1889, 5.49195, -173.935, 5.54573, 66.009, 0.0312253, -106.847
0, 2100.00000, 119.312, -31.115, 119.246, -150.861, 120.298, 89.0829, 0, 0, 5.49534, -54.1889, 5.49195, -173.935, 5.54573, 66.009, 0.0312253, -106.847
0, 2160.00000, 119.312, -31.115, 119.246, -150.861, 120.298, 89.0829, 0, 0, 5.49534, -54.1889, 5.49195, -173.935, 5.54573, 66.009, 0.0312253, -106.847
0, 2220.00000, 119.312, -31.115, 119.246, -150.861, 120.298, 89.0829, 0, 0, 5.49534, -54.1889, 5.49195, -173.935, 5.54573, 66.009, 0.0312253, -106.847
0, 2280.00000, 119.312, -31.115, 119.246, -150.861, 120.298, 89.0829, 0, 0, 5.49534, -54.1889, 5.49195, -173.935, 5.54573, 66.009, 0.0312253, -106.847
0, 2340.00000, 119.312, -31.115, 119.246, -150.861, 120.298, 89.0829, 0, 0, 5.49534, -54.1889, 5.49195, -173.935, 5.54573, 66.009, 0.0312253, -106.847
0, 2400.00000, 119.312, -31.115, 119.246, -150.861, 120.298, 89.0829, 0, 0, 5.49534, -54.1889, 5.49195, -173.935, 5.54573, 66.009, 0.0312253, -106.847
0, 2460.00000, 119.312, -31.115, 119.246, -150.861, 120.298, 89.0829, 0, 0, 5.49534, -54.1889, 5.49195, -173.935, 5.54573, 66.009, 0.0312253, -106.847
0, 2520.00000, 119.312, -31.115, 119.246, -150.861, 120.298, 89.0829, 0, 0, 5.49534, -54.1889, 5.49195, -173.935, 5.54573, 66.009, 0.0312253, -106.847
0, 2580.00000, 119.312, -31.115, 119.246, -150.861, 120.298, 89.0829, 0, 0, 5.49534, -54.1889, 5.49195, -173.935, 5.54573, 66.009, 0.0312253, -106.847
0, 2640.00000, 119.312, -31.115, 119.246, -150.861, 120.298, 89.0829, 0, 0, 5.49534, -54.1889, 5.49195, -173.935, 5.54573, 66.009, 0.0312253, -106.847
0, 2700.00000, 119.312, -31.115, 119.246, -150.861, 120.298, 89.0829, 0, 0, 5.49534, -54.1889, 5.49195, -173.935, 5.54573, 66.009, 0.0312253, -106.847
0, 2760.00000, 119.644, -31.0817, 119.561, -150.83, 120.618, 89.1211, 0, 0, 5.39558, -54.1559, 5.39147, -173.904, 5.44424, 66.0469, 0.030435, -106.941
0, 2820.00000, 119.644, -31.0817, 119.561, -150.83, 120.618, 89.1211, 0, 0, 5.3956, -54.1556, 5.39149, -173.904, 5.44436, 66.0472, 0.03056, -106.934
0, 2880.00000, 119.644, -31.0817, 119.561, -150.83, 120.618, 89.1211, 0, 0, 5.3956, -54.1556, 5.39149, -173.904, 5.44436, 66.0472, 0.0305621, -106.934
0, 2940.00000, 119.644, -31.0817, 119.561, -150.83, 120.618, 89.1211, 0, 0, 5.3956, -54.1556, 5.39149, -173.904, 5.44436, 66.0472, 0.0305621, -106.934
0, 3000.00000, 119.644, -31.0817, 119.561, -150.83, 120.618, 89.1211, 0, 0, 5.3956, -54.1556, 5.39149, -173.904, 5.44436, 66.0472, 0.0305621, -106.934
0, 3060.00000, 119.644, -31.0817, 119.561, -150.83, 120.618, 89.1211, 0, 0, 5.3956, -54.1556, 5.39149, -173.904, 5.44436, 66.0472, 0.0305621, -106.934
0, 3120.00000, 119.644, -31.0817, 119.561, -150.83, 120.618, 89.1211, 0, 0, 5.3956, -54.1556, 5.39149, -173.904, 5.44436, 66.0472, 0.0305621, -106.934
0, 3180.00000, 119.644, -31.0817, 119.561, -150.83, 120.618, 89.1211, 0, 0, 5.3956, -54.1556, 5.39149, -173.904, 5.44436, 66.0472, 0.0305621, -106.934
0, 3240.00000, 119.644, -31.0817, 119.561, -150.83, 120.618, 89.1211, 0, 0, 5.3956, -54.1556, 5.39149, -173.904, 5.44436, 66.0472, 0.0305621, -106.934
0, 3300.00000, 119.644, -31.0817, 119.561, -150.83, 120.618, 89.1211, 0, 0, 5.3956, -54.1556, 5.39149, -173.904, 5.44436, 66.0472, 0.0305621, -106.934
0, 3360.00000, 119.644, -31.0817, 119.561, -150.83, 120.618, 89.1211, 0, 0, 5.3956, -54.1556, 5.39149, -173.904, 5.44436, 66.0472, 0.0305621, -106.934
0, 3420.00000, 119.644, -31.0817, 119.561, -150.83, 120.618, 89.1211, 0, 0, 5.3956, -54.1556, 5.39149, -173.904, 5.44436, 66.0472, 0.0305621, -106.934
0, 3480.00000, 119.644, -31.0817, 119.561, -150.83, 120.618, 89.1211, 0, 0, 5.3956, -54.1556, 5.39149, -173.904, 5.44436, 66.0472, 0.0305621, -106.934
0, 3540.00000, 119.644, -31.0817, 119.561, -150.83, 120.618, 89.1211, 0, 0, 5.3956, -54.1556, 5.39149, -173.904, 5.44436, 66.0472, 0.0305621, -106.934
1, 0.00000, 119.644, -31.0817, 119.561, -150.83, 120.618, 89.1211, 0, 0, 5.3956, -54.1556, 5.39149, -173.904, 5.44436, 66.0472, 0.0305621, -106.934
1, 60.00000, 119.891, -31.0578, 119.798, -150.811, 120.868, 89.1483, 0, 0, 4.96413, -54.132, 4.95985, -173.885, 4.99152, 66.0742, 0.0115139, -96.4025
1, 120.00000, 119.891, -31.0578, 119.798, -150.811, 120.868, 89.1484, 0, 0, 4.96413, -54.1317, 4.95987, -173.885, 4.99139, 66.0745, 0.011436, -96.0843
1, 180.00000, 119.891, -31.0578, 119.798, -150.811, 120.868, 89.1484, 0, 0, 4.96413, -54.1317, 4.95987, -173.885, 4.99139, 66.0745, 0.0114352, -96.0789
1, 240.00000, 119.891, -31.0578, 119.798, -150.811, 120.868, 89.1484, 0, 0, 4.96413, -54.1317, 4.95987, -173.885, 4.99139, 66.0745, 0.0114352, -96.0788
1, 300.00000, 119.891, -31.0578, 119.798, -150.811, 120.868, 89.1484, 0, 0, 4.96413, -54.1317, 4.95987, -173.885, 4.99139, 66.0745, 0.0114352, -96.0788
1, 360.00000, 119.891, -31.0578, 119.798, -150.811, 120.868, 89.1484, 0, 0, 4.96413, -54.1317, 4.95987, -173.885, 4.99139, 66.0745, 0.0114352, -96.0788
1, 420.00000, 119.891, -31.0578, 119.798, -150.811, 120.868, 89.1484, 0, 0, 4.96413, -54.1317, 4.95987, -173.885, 4.99139, 66.0745, 0.0114352, -96.0788
1, 480.00000, 119.891, -31.0578, 119.798, -150.811, 120.868, 89.1484, 0, 0, 4.96413, -54.1317, 4.95987, -173.885, 4.99139, 66.0745, 0.0114352, -96.0788
1, 540.00000, 119.891, -31.0578, 119.798, -150.811, 120.868, 89.1484, 0, 0, 4.96413, -54.1317, 4.95987, -173.885, 4.99139, 66.0745, 0.0114352, -96.0788
1, 600.00000, 119.891, -31.0578, 119.798, -150.811, 120.868, 89.1484, 0, 0, 4.96413, -54.1317, 4.95987, -173.885, 4.99139, 66.0745, 0.0114352, -96.0788
1, 660.00000, 119.891, -31.0578, 119.798, -150.811, 120.868, 89.1484, 0, 0, 4.96413, -54.1317, 4.95987, -173.885, 4.99139, 66.0745, 0.0114352, -96.0788
1, 720.00000, 119.891, -31.0578, 119.798, -150.811, 120.868, 89.1484, 0, 0, 4.96413, -54.1317, 4.95987, -173.885, 4.99139, 66.0745, 0.0114352, -96.0788
1, 780.00000, 119.891, -31.0578, 119.798, -150.811, 120.868, 89.1484, 0, 0, 4.96413, -54.1317, 4.95987, -173.885, 4.99139, 66.0745, 0.0114352, -96.0788
1, 840.00000, 119.891, -31.0578, 119.798, -150.811, 120.868, 89.1484, 0, 0, 4.96413, -54.1317, 4.95987, -173.885, 4.99139, 66.0745, 0.0114352, -96.0788
1, 900.00000, 119.891, -31.0578, 119.798, -150.811, 120.868, 89.1484, 0, 0, 4.96413, -54.1317, 4.95987, -173.885, 4.99139, 66.0745, 0.0114352, -96.0788
1, 960.00000, 119.941, -31.0555, 119.846, -150.809, 120.919, 89.1514, 0, 0, 5.01843, -54.13, 5.01401, -173.883, 5.04174, 66.077, 0.00766766, -86.5952
1, 1020.00000, 119.941, -31.0555, 119.846, -150.809, 120.92, 89.1514, 0, 0, 5.01847, -54.1294, 5.01407, -173.883, 5.04154, 66.0775, 0.0075168, -85.6155
1, 1080.00000, 119.941, -31.0555, 119.846, -150.809, 120.92, 89.1514, 0, 0, 5.01847, -54.1294, 5.01407, -173.883, 5.04154, 66.0775, 0.00751583, -85.6038
1, 1140.00000, 119.941, -31.0555, 119.846, -150.809, 120.92, 89.1514, 0, 0, 5.01847, -54.1294, 5.01407, -173.883, 5.04153, 66.0775, 0.00751581, -85.6036
1, 1200.00000, 119.941, -31.0555, 119.846, -150.809, 120.92, 89.1514, 0, 0, 5.01847, -54.1294, 5.01407, -173.883, 5.04153, 66.0775, 0.00751581, -85.6036
1, 1260.00000, 119.941, -31.0555, 119.846, -150.809, 120.92, 89.1514, 0, 0, 5.01847, -54.1294, 5.01407, -173.883, 5.04153, 66.0775, 0.00751581, -85.6036
1, 1320.00000, 119.941, -31.0555, 119.846, -150.809, 120.92, 89.1514, 0, 0, 5.01847, -54.1294, 5.01407, -173.883, 5.04153, 66.0775, 0.00751581, -85.6036
1, 1380.00000, 119.941, -31.0555, 119.846, -150.809, 120.92, 89.1514, 0, 0, 5.01847, -54.1294, 5.01407, -173.883, 5.04153, 66.0775, 0.00751581, -85.6036
1, 1440.00000, 119.941, -31.0555, 119.846, -150.809, 120.92, 89.1514, 0, 0, 5.01847, -54.1294, 5.01407, -173.883, 5.04153, 66.0775, 0.00751581, -85.6036
1, 1500.00000, 119.941, -31.0555, 119.846, -150.809, 120.92, 89.1514, 0, 0, 5.01847, -54.1294, 5.01407, -173.883, 5.04153, 66.0775, 0.00751581, -85.6036
1, 1560.00000, 119.941, -31.0555, 119.846, -150.809, 120.92, 89.1514, 0, 0, 5.01847, -54.1294, 5.01407, -173.883, 5.04153, 66.0775, 0.00751581, -85.6036
1, 1620.00000, 119.941, -31.0555, 119.846, -150.809, 120.92, 89.1514, 0, 0, 5.01847, -54.1294, 5.01407, -173.883, 5.04153, 66.0775, 0.00751581, -85.6036
1, 1680.00000, 119.941, -31.0555, 119.846, -150.809, 120.92, 89.1514, 0, 0, 5.01847, -54.1294, 5.01407, -173.883, 5.04153, 66.0775, 0.00751581, -85.6036
1, 1740.00000, 119.941, -31.0555, 119.846, -150.809, 120.92, 89.1514, 0, 0, 5.01847, -54.1294, 5.01407, -173.883, 5.04153, 66.0775, 0.00751581, -85.6036
1, 1800.00000, 119.941, -31.0555, 119.846, -150.809, 120.92, 89.1514, 0, 0, 5.01847, -54.1294, 5.01407, -173.883, 5.04153, 66.0775, 0.00751581, -85.6036
1, 1860.00000, 119.751, -31.0808, 119.664, -150.831, 120.724, 89.1235, 0, 0, 5.3298, -54.1544, 5.32552, -173.905, 5.3723, 66.0499, 0.0248367, -105.347
1, 1920.00000, 119.751, -31.0808, 119.664, -150.831, 120.724, 89.1235, 0, 0, 5.3298, -54.1547, 5.32551, -173.905, 5.37244, 66.0496, 0.024926, -105.465
1, 1980.00000, 119.751, -31.0808, 119.664, -150.831, 120.724, 89.1235, 0, 0, 5.32981, -54.1547, 5.32551, -173.905, 5.37244, 66.0496, 0.024927, -105.467
1, 2040.00000, 119.751, -31.0808, 119.664, -150.831, 120.724, 89.1235, 0, 0, 5.32981, -54.1547, 5.32551, -173.905, 5.37244, 66.0496, 0.0249271, -105.467
1, 2100.00000, 119.751, -31.0808, 119.664, -150.831, 120.724, 89.1235, 0, 0, 5.32981, -54.1547, 5.32551, -173.905, 5.37244, 66.0496, 0.0249271, -105.467
1, 2160.00000, 119.751, -31.0808, 119.664, -150.831, 120.724, 89.1235, 0, 0, 5.32981, -54.1547, 5.32551, -173.905, 5.37244, 66.0496, 0.0249271, -105.467
1, 2220.00000, 119.751, -31.0808, 119.664, -150.831, 120.724, 89.1235, 0, 0, 5.32981, -54.1547, 5.32551, -173.905, 5.37244, 66.0496, 0.0249271, -105.467
1, 2280.00000, 119.751, -31.0808, 119.664, -150.831, 120.724, 89.1235, 0, 0, 5.32981, -54.1547, 5.32551, -173.905, 5.37244, 66.0496, 0.0249271, -105.467
1, 2340.00000, 119.751, -31.0808, 119.664, -150.831, 120.724, 89.1235, 0, 0, 5.32981, -54.1547, 5.32551, -173.905, 5.37244, 66.0496, 0.0249271, -105.467
1, 2400.00000, 119.751, -31.0808, 119.664, -150.831, 120.724, 89.1235, 0, 0, 5.32981, -54.1547, 5.32551, -173.905, 5.37244, 66.0496, 0.0249271, -105.467
1, 2460.00000, 119.751, -31.0808, 119.664, -150.831, 120.724, 89.1235, 0, 0, 5.32981, -54.1547, 5.32551, -173.905, 5.37244, 66.0496, 0.0249271, -105.467
1, 2520.00000, 119.751, -31.0808, 119.664, -150.831, 120.724, 89.1235, 0, 0, 5.32981, -54.1547, 5.32551, -173.905, 5.37244, 66.0496, 0.0249271, -105.467
1, 2580.00000, 119.751, -31.0808, 119.664, -150.831, 120.724, 89.1235, 0, 0, 5.32981, -54.1547, 5.32551, -173.905, 5.37244, 66.0496, 0.0249271, -105.467
1, 2640.00000, 119.751, -31.0808, 119.664, -150.831, 120.724, 89.1235, 0, 0, 5.32981, -54.1547, 5.32551, -173.905, 5.37244, 66.0496, 0.0249271, -105.467
1, 2700.00000, 119.751, -31.0808, 119.664, -150.831, 120.724, 89.1235, 0, 0, 5.32981, -54.1547, 5.32551, -173.905, 5.37244, 66.0496, 0.0249271, -105.467
1, 2760.00000, 120.212, -31.0368, 120.111, -150.794, 121.194, 89.1747, 0, 0, 5.05279, -54.1112, 5.04803, -173.868, 5.05209, 66.1002, 0.0173241, 53.3888
1, 2820.00000, 120.212, -31.0367, 120.111, -150.794, 121.195, 89.1748, 0, 0, 5.05279, -54.1106, 5.0481, -173.868, 5.05181, 66.1009, 0.0175709, 53.178
1, 2880.00000, 120.212, -31.0367, 120.111, -150.794, 121.195, 89.1748, 0, 0, 5.05279, -54.1106, 5.0481, -173.868, 5.05181, 66.1009, 0.0175742, 53.1718
1, 2940.00000, 120.212, -31.0367, 120.111, -150.794, 121.195, 89.1748, 0, 0, 5.05279, -54.1106, 5.0481, -173.868, 5.05181, 66.1009, 0.0175742, 53.1717
1, 3000.00000, 120.212, -31.0367, 120.111, -150.794, 121.195, 89.1748, 0, 0, 5.05279, -54.1106, 5.0481, -173.868, 5.05181, 66.1009, 0.0175742, 53.1717
1, 3060.00000, 120.212, -31.0367, 120.111, -150.794, 121.195, 89.1748, 0, 0, 5.05279, -54.1106, 5.0481, -173.868, 5.05181, 66.1009, 0.0175742, 53.1717
1, 3120.00000, 120.212, -31.0367, 120.111, -150.794, 121.195, 89.1748, 0, 0, 5.05279, -54.1106, 5.0481, -173.868, 5.05181, 66.1009, 0.0175742, 53.1717
1, 3180.00000, 120.212, -31.0367, 120.111, -150.794, 121.195, 89.1748, 0, 0, 5.05279, -54.1106, 5.0481, -173.868, 5.05181, 66.1009, 0.0175742, 53.1717
1, 3240.00000, 120.212, -31.0367, 120.111, -150.794, 121.195, 89.1748, 0, 0, 5.05279, -54.1106, 5.0481, -173.868, 5.05181, 66.1009, 0.0175742, 53.1717
1, 3300.00000, 120.212, -31.0367, 120.111, -150.794, 121.195, 89.1748, 0, 0, 5.05279, -54.1106, 5.0481, -173.868, 5.05181, 66.1009, 0.0175742, 53.1717
1, 3360.00000, 120.212, -31.0367, 120.111, -150.794, 121.195, 89.1748, 0, 0, 5.05279, -54.1106, 5.0481, -173.868, 5.05181, 66.1009, 0.0175742, 53.1717
1, 3420.00000, 120.212, -31.0367, 120.111, -150.794, 121.195, 89.1748, 0, 0, 5.05279, -54.1106, 5.0481, -173.868, 5.05181, 66.1009, 0.0175742, 53.1717
1, 3480.00000, 120.212, -31.0367, 120.111, -150.794, 121.195, 89.1748, 0, 0, 5.05279, -54.1106, 5.0481, -173.868, 5.05181, 66.1009, 0.0175742, 53.1717
1, 3540.00000, 120.212, -31.0367, 120.111, -150.794, 121.195, 89.1748, 0, 0, 5.05279, -54.1106, 5.0481, -173.868, 5.05181, 66.1009, 0.0175742, 53.1717
2, 0.00000, 120.212, -31.0367, 120.111, -150.794, 121.195, 89.1748, 0, 0, 5.05279, -54.1106, 5.0481, -173.868, 5.05181, 66.1009, 0.0175742, 53.1717
2, 60.00000, 119.956, -31.0655, 119.862, -150.819, 120.934, 89.1418, 0, 0, 5.36426, -54.1391, 5.35961, -173.893, 5.38735, 66.0683, 0.00674739, -78.5106
2, 120.00000, 119.956, -31.0656, 119.862, -150.819, 120.934, 89.1418, 0, 0, 5.36426, -54.1395, 5.35958, -173.893, 5.38751, 66.0679, 0.0068166, -79.5288
2, 180.00000, 119.956, -31.0656, 119.862, -150.819, 120.934, 89.1418, 0, 0, 5.36426, -54.1395, 5.35958, -173.893, 5.38751, 66.0679, 0.00681719, -79.5419
2, 240.00000, 119.956, -31.0656, 119.862, -150.819, 120.934, 89.1418, 0, 0, 5.36426, -54.1395, 5.35958, -173.893, 5.38751, 66.0679, 0.00681719, -79.5421
2, 300.00000, 119.956, -31.0656, 119.862, -150.819, 120.934, 89.1418, 0, 0, 5.36426, -54.1395, 5.35958, -173.893, 5.38751, 66.0679, 0.00681719, -79.5421
2, 360.00000, 119.956, -31.0656, 119.862, -150.819, 120.934, 89.1418, 0, 0, 5.36426, -54.1395, 5.35958, -173.893, 5.38751, 66.0679, 0.00681719, -79.5421
2, 420.00000, 119.956, -31.0656, 119.862, -150.819, 120.934, 89.1418, 0, 0, 5.36426, -54.1395, 5.35958, -173.893, 5.38751, 66.0679, 0.00681719, -79.5421
2, 480.00000, 119.956, -31.0656, 119.862, -150.819, 120.934, 89.1418, 0, 0, 5.36426, -54.1395, 5.35958, -173.893, 5.38751, 66.0679, 0.00681719, -79.5421
2, 540.00000, 119.956, -31.0656, 119.862, -150.819, 120.934, 89.1418, 0, 0, 5.36426, -54.1395, 5.35958, -173.893, 5.38751, 66.0679, 0.00681719, -79.5421
2, 600.00000, 119.956, -31.0656, 119.862, -150.819, 120.934, 89.1418, 0, 0, 5.36426, -54.1395, 5.35958, -173.893, 5.38751, 66.0679, 0.00681719, -79.5421
2, 660.00000, 119.956, -31.0656, 119.862, -150.819, 120.934, 89.1418, 0, 0, 5.36426, -54.1395, 5.35958, -173.893, 5.38751, 66.0679, 0.00681719, -79.5421
