hour,t(sec),"P1 (kW)","Q1 (kvar)","P2 (kW)","Q2 (kvar)","P3 (kW)","Q3 (kvar)","P4 (kW)","Q4 (kvar)"
0, 60.00000, 0.645989, 0.275179, 0.632368, 0.269389, 0.64596, 0.275172, 0, 0
0, 120.00000, 0.645986, 0.275178, 0.632321, 0.269369, 0.64596, 0.275172, 0, 0
0, 180.00000, 0.645984, 0.275178, 0.632278, 0.26935, 0.64596, 0.275173, 0, 0
0, 240.00000, 0.645981, 0.275178, 0.632238, 0.269333, 0.64596, 0.275173, 0, 0
0, 300.00000, 0.645979, 0.275178, 0.632202, 0.269318, 0.64596, 0.275174, 0, 0
0, 360.00000, 0.645977, 0.275178, 0.63217, 0.269304, 0.64596, 0.275174, 0, 0
0, 420.00000, 0.645975, 0.275178, 0.63214, 0.269291, 0.64596, 0.275174, 0, 0
0, 480.00000, 0.645974, 0.275178, 0.632113, 0.26928, 0.64596, 0.275175, 0, 0
0, 540.00000, 0.645972, 0.275178, 0.632089, 0.269269, 0.64596, 0.275175, 0, 0
0, 600.00000, 0.645971, 0.275178, 0.632067, 0.26926, 0.64596, 0.275175, 0, 0
0, 660.00000, 0.64597, 0.275178, 0.632047, 0.269251, 0.64596, 0.275176, 0, 0
0, 720.00000, 0.645969, 0.275178, 0.632029, 0.269244, 0.64596, 0.275176, 0, 0
0, 780.00000, 0.645968, 0.275178, 0.632013, 0.269237, 0.64596, 0.275176, 0, 0
0, 840.00000, 0.645967, 0.275178, 0.631998, 0.26923, 0.64596, 0.275176, 0, 0
0, 900.00000, 0.645966, 0.275178, 0.631985, 0.269225, 0.64596, 0.275176, 0, 0
0, 960.00000, 0.683348, 0.291102, 0.665204, 0.283376, 0.683342, 0.291101, 0, 0
0, 1020.00000, 0.683348, 0.291102, 0.665193, 0.283371, 0.683342, 0.291101, 0, 0
0, 1080.00000, 0.683347, 0.291102, 0.665182, 0.283367, 0.683342, 0.291101, 0, 0
0, 1140.00000, 0.683346, 0.291102, 0.665173, 0.283363, 0.683342, 0.291101, 0, 0
0, 1200.00000, 0.683346, 0.291102, 0.665165, 0.283359, 0.683342, 0.291102, 0, 0
0, 1260.00000, 0.683346, 0.291102, 0.665157, 0.283356, 0.683342, 0.291102, 0, 0
0, 1320.00000, 0.683345, 0.291102, 0.665151, 0.283353, 0.683342, 0.291102, 0, 0
0, 1380.00000, 0.683345, 0.291102, 0.665144, 0.28335, 0.683342, 0.291102, 0, 0
0, 1440.00000, 0.683344, 0.291102, 0.665139, 0.283348, 0.683342, 0.291102, 0, 0
0, 1500.00000, 0.683344, 0.291102, 0.665134, 0.283346, 0.683342, 0.291102, 0, 0
0, 1560.00000, 0.683344, 0.291102, 0.665129, 0.283344, 0.683342, 0.291102, 0, 0
0, 1620.00000, 0.683344, 0.291102, 0.665125, 0.283342, 0.683342, 0.291102, 0, 0
0, 1680.00000, 0.683344, 0.291102, 0.665122, 0.283341, 0.683342, 0.291102, 0, 0
0, 1740.00000, 0.683343, 0.291102, 0.665119, 0.283339, 0.683342, 0.291102, 0, 0
0, 1800.00000, 0.683343, 0.291102, 0.665116, 0.283338, 0.683342, 0.291102, 0, 0
0, 1860.00000, 0.685419, 0.291987, 0.668819, 0.284916, 0.685417, 0.291986, 0, 0
0, 1920.00000, 0.685418, 0.291986, 0.668817, 0.284915, 0.685417, 0.291986, 0, 0
0, 1980.00000, 0.685418, 0.291986, 0.668815, 0.284914, 0.685417, 0.291986, 0, 0
0, 2040.00000, 0.685418, 0.291986, 0.668813, 0.284913, 0.685417, 0.291986, 0, 0
0, 2100.00000, 0.685418, 0.291986, 0.668811, 0.284912, 0.685417, 0.291986, 0, 0
0, 2160.00000, 0.685418, 0.291986, 0.668809, 0.284912, 0.685417, 0.291986, 0, 0
0, 2220.00000, 0.685418, 0.291986, 0.668808, 0.284911, 0.685417, 0.291986, 0, 0
0, 2280.00000, 0.685418, 0.291986, 0.668807, 0.28491, 0.685417, 0.291986, 0, 0
0, 2340.00000, 0.685418, 0.291986, 0.668806, 0.28491, 0.685417, 0.291986, 0, 0
0, 2400.00000, 0.685418, 0.291986, 0.668804, 0.28491, 0.685417, 0.291986, 0, 0
0, 2460.00000, 0.685417, 0.291986, 0.668804, 0.284909, 0.685417, 0.291986, 0, 0
0, 2520.00000, 0.685417, 0.291986, 0.668803, 0.284909, 0.685417, 0.291986, 0, 0
0, 2580.00000, 0.685417, 0.291986, 0.668802, 0.284908, 0.685417, 0.291986, 0, 0
0, 2640.00000, 0.685417, 0.291986, 0.668801, 0.284908, 0.685417, 0.291986, 0, 0
0, 2700.00000, 0.685417, 0.291986, 0.668801, 0.284908, 0.685417, 0.291986, 0, 0
0, 2760.00000, 0.651931, 0.277721, 0.639317, 0.272348, 0.65193, 0.277721, 0, 0
0, 2820.00000, 0.65193, 0.277721, 0.639316, 0.272348, 0.65193, 0.277721, 0, 0
0, 2880.00000, 0.65193, 0.277721, 0.639316, 0.272347, 0.65193, 0.277721, 0, 0
0, 2940.00000, 0.65193, 0.277721, 0.639315, 0.272347, 0.65193, 0.277721, 0, 0
0, 3000.00000, 0.65193, 0.277721, 0.639315, 0.272347, 0.65193, 0.277721, 0, 0
0, 3060.00000, 0.65193, 0.277721, 0.639315, 0.272347, 0.65193, 0.277721, 0, 0
0, 3120.00000, 0.65193, 0.277721, 0.639314, 0.272347, 0.65193, 0.277721, 0, 0
0, 3180.00000, 0.65193, 0.277721, 0.639314, 0.272347, 0.65193, 0.277721, 0, 0
0, 3240.00000, 0.65193, 0.277721, 0.639314, 0.272347, 0.65193, 0.277721, 0, 0
0, 3300.00000, 0.65193, 0.277721, 0.639314, 0.272347, 0.65193, 0.277721, 0, 0
0, 3360.00000, 0.65193, 0.277721, 0.639314, 0.272346, 0.65193, 0.277721, 0, 0
0, 3420.00000, 0.65193, 0.277721, 0.639313, 0.272346, 0.65193, 0.277721, 0, 0
0, 3480.00000, 0.651931, 0.277721, 0.645147, 0.274832, 0.65193, 0.277721, 0, 0
0, 3540.00000, 0.65193, 0.277721, 0.646033, 0.275209, 0.65193, 0.277721, 0, 0
1, 0.00000, 0.65193, 0.277721, 0.646033, 0.275209, 0.65193, 0.277721, 0, 0
1, 60.00000, 0.644309, 0.274475, 0.640554, 0.272875, 0.644309, 0.274474, 0, 0
1, 120.00000, 0.644309, 0.274474, 0.640554, 0.272875, 0.644309, 0.274474, 0, 0
1, 180.00000, 0.644309, 0.274474, 0.640554, 0.272875, 0.644309, 0.274474, 0, 0
1, 240.00000, 0.644309, 0.274474, 0.640554, 0.272875, 0.644309, 0.274474, 0, 0
1, 300.00000, 0.644309, 0.274474, 0.640553, 0.272875, 0.644309, 0.274474, 0, 0
1, 360.00000, 0.644309, 0.274474, 0.640553, 0.272875, 0.644309, 0.274474, 0, 0
1, 420.00000, 0.644309, 0.274474, 0.640553, 0.272875, 0.644309, 0.274474, 0, 0
1, 480.00000, 0.644309, 0.274474, 0.640553, 0.272875, 0.644309, 0.274474, 0, 0
1, 540.00000, 0.644309, 0.274474, 0.640553, 0.272875, 0.644309, 0.274474, 0, 0
1, 600.00000, 0.644309, 0.274474, 0.640553, 0.272875, 0.644309, 0.274474, 0, 0
1, 660.00000, 0.644309, 0.274474, 0.640553, 0.272875, 0.644309, 0.274474, 0, 0
1, 720.00000, 0.644309, 0.274474, 0.640553, 0.272874, 0.644309, 0.274474, 0, 0
1, 780.00000, 0.644309, 0.274474, 0.640553, 0.272874, 0.644309, 0.274474, 0, 0
1, 840.00000, 0.644309, 0.274474, 0.640553, 0.272874, 0.644309, 0.274474, 0, 0
1, 900.00000, 0.644309, 0.274474, 0.640553, 0.272874, 0.644309, 0.274474, 0, 0
1, 960.00000, 0.641293, 0.27319, 0.637971, 0.271775, 0.641293, 0.27319, 0, 0
1, 1020.00000, 0.641293, 0.27319, 0.637971, 0.271774, 0.641293, 0.27319, 0, 0
1, 1080.00000, 0.641293, 0.27319, 0.637971, 0.271774, 0.641293, 0.27319, 0, 0
1, 1140.00000, 0.641293, 0.27319, 0.637971, 0.271774, 0.641293, 0.27319, 0, 0
1, 1200.00000, 0.641293, 0.27319, 0.637971, 0.271774, 0.641293, 0.27319, 0, 0
1, 1260.00000, 0.641293, 0.27319, 0.637971, 0.271774, 0.641293, 0.27319, 0, 0
1, 1320.00000, 0.641293, 0.27319, 0.637971, 0.271774, 0.641293, 0.27319, 0, 0
1, 1380.00000, 0.641293, 0.27319, 0.637971, 0.271774, 0.641293, 0.27319, 0, 0
1, 1440.00000, 0.641293, 0.27319, 0.637971, 0.271774, 0.641293, 0.27319, 0, 0
1, 1500.00000, 0.641293, 0.27319, 0.637971, 0.271774, 0.641293, 0.27319, 0, 0
1, 1560.00000, 0.641293, 0.27319, 0.637971, 0.271774, 0.641293, 0.27319, 0, 0
1, 1620.00000, 0.641293, 0.27319, 0.637971, 0.271774, 0.641293, 0.27319, 0, 0
1, 1680.00000, 0.641293, 0.27319, 0.637971, 0.271774, 0.641293, 0.27319, 0, 0
1, 1740.00000, 0.641293, 0.27319, 0.637971, 0.271774, 0.641293, 0.27319, 0, 0
1, 1800.00000, 0.641293, 0.27319, 0.637971, 0.271774, 0.641293, 0.27319, 0, 0
1, 1860.00000, 0.65676, 0.279779, 0.655813, 0.279375, 0.656759, 0.279778, 0, 0
1, 1920.00000, 0.65676, 0.279778, 0.655813, 0.279375, 0.65676, 0.279778, 0, 0
1, 1980.00000, 0.65676, 0.279778, 0.655813, 0.279375, 0.65676, 0.279778, 0, 0
1, 2040.00000, 0.65676, 0.279778, 0.655813, 0.279375, 0.65676, 0.279778, 0, 0
1, 2100.00000, 0.65676, 0.279778, 0.655813, 0.279375, 0.65676, 0.279778, 0, 0
1, 2160.00000, 0.65676, 0.279778, 0.655813, 0.279375, 0.65676, 0.279778, 0, 0
1, 2220.00000, 0.65676, 0.279778, 0.655813, 0.279375, 0.65676, 0.279778, 0, 0
1, 2280.00000, 0.65676, 0.279778, 0.655813, 0.279375, 0.65676, 0.279778, 0, 0
1, 2340.00000, 0.65676, 0.279778, 0.655813, 0.279375, 0.65676, 0.279778, 0, 0
1, 2400.00000, 0.65676, 0.279778, 0.655813, 0.279375, 0.65676, 0.279778, 0, 0
1, 2460.00000, 0.65676, 0.279778, 0.655813, 0.279375, 0.65676, 0.279778, 0, 0
1, 2520.00000, 0.65676, 0.279778, 0.655813, 0.279375, 0.65676, 0.279778, 0, 0
1, 2580.00000, 0.65676, 0.279778, 0.655813, 0.279375, 0.65676, 0.279778, 0, 0
1, 2640.00000, 0.65676, 0.279778, 0.655813, 0.279375, 0.65676, 0.279778, 0, 0
1, 2700.00000, 0.65676, 0.279778, 0.655813, 0.279375, 0.65676, 0.279778, 0, 0
1, 2760.00000, 0.618867, 0.263636, 0.618866, 0.263636, 0.618866, 0.263636, 0, 0
1, 2820.00000, 0.618866, 0.263636, 0.618866, 0.263636, 0.618866, 0.263636, 0, 0
1, 2880.00000, 0.618866, 0.263636, 0.618866, 0.263636, 0.618866, 0.263636, 0, 0
1, 2940.00000, 0.618866, 0.263636, 0.618866, 0.263636, 0.618866, 0.263636, 0, 0
1, 3000.00000, 0.618866, 0.263636, 0.618866, 0.263636, 0.618866, 0.263636, 0, 0
1, 3060.00000, 0.618866, 0.263636, 0.618866, 0.263636, 0.618866, 0.263636, 0, 0
1, 3120.00000, 0.618866, 0.263636, 0.618866, 0.263636, 0.618866, 0.263636, 0, 0
1, 3180.00000, 0.618866, 0.263636, 0.618866, 0.263636, 0.618866, 0.263636, 0, 0
1, 3240.00000, 0.618866, 0.263636, 0.618866, 0.263636, 0.618866, 0.263636, 0, 0
1, 3300.00000, 0.618866, 0.263636, 0.618866, 0.263636, 0.618866, 0.263636, 0, 0
1, 3360.00000, 0.618866, 0.263636, 0.618866, 0.263636, 0.618866, 0.263636, 0, 0
1, 3420.00000, 0.618866, 0.263636, 0.618866, 0.263636, 0.618866, 0.263636, 0, 0
1, 3480.00000, 0.618866, 0.263636, 0.618866, 0.263636, 0.618866, 0.263636, 0, 0
1, 3540.00000, 0.618866, 0.263636, 0.618866, 0.263636, 0.618866, 0.263636, 0, 0
2, 0.00000, 0.618866, 0.263636, 0.618866, 0.263636, 0.618866, 0.263636, 0, 0
2, 60.00000, 0.635473, 0.27071, 0.635474, 0.270711, 0.635474, 0.270711, 0, 0
2, 120.00000, 0.635474, 0.270711, 0.635474, 0.270711, 0.635474, 0.270711, 0, 0
2, 180.00000, 0.635474, 0.270711, 0.635474, 0.270711, 0.635474, 0.270711, 0, 0
2, 240.00000, 0.635474, 0.270711, 0.635474, 0.270711, 0.635474, 0.270711, 0, 0
2, 300.00000, 0.635474, 0.270711, 0.635474, 0.270711, 0.635474, 0.270711, 0, 0
2, 360.00000, 0.635474, 0.270711, 0.635474, 0.270711, 0.635474, 0.270711, 0, 0
2, 420.00000, 0.635474, 0.270711, 0.635474, 0.270711, 0.635474, 0.270711, 0, 0
2, 480.00000, 0.635474, 0.270711, 0.635474, 0.270711, 0.635474, 0.270711, 0, 0
2, 540.00000, 0.635474, 0.270711, 0.635474, 0.270711, 0.635474, 0.270711, 0, 0
2, 600.00000, 0.635474, 0.270711, 0.635474, 0.270711, 0.635474, 0.270711, 0, 0
2, 660.00000, 0.635474, 0.270711, 0.635474, 0.270711, 0.635474, 0.270711, 0, 0
2, 720.00000, 0.635474, 0.270711, 0.635474, 0.270711, 0.635474, 0.270711, 0, 0
2, 780.00000, 0.635474, 0.270711, 0.635474, 0.270711, 0.635474, 0.270711, 0, 0
2, 840.00000, 0.635474, 0.270711, 0.635474, 0.270711, 0.635474, 0.270711, 0, 0
2, 900.00000, 0.635474, 0.270711, 0.635474, 0.270711, 0.635474, 0.270711, 0, 0
2, 960.00000, 0.602116, 0.2565, 0.602115, 0.2565, 0.602115, 0.2565, 0, 0
2, 1020.00000, 0.602115, 0.2565, 0.602115, 0.2565, 0.602115, 0.2565, 0, 0
2, 1080.00000, 0.602115, 0.2565, 0.602115, 0.2565, 0.602115, 0.2565, 0, 0
2, 1140.00000, 0.602115, 0.2565, 0.602115, 0.2565, 0.602115, 0.2565, 0, 0
2, 1200.00000, 0.602115, 0.2565, 0.602115, 0.2565, 0.602115, 0.2565, 0, 0
2, 1260.00000, 0.602115, 0.2565, 0.602115, 0.2565, 0.602115, 0.2565, 0, 0
2, 1320.00000, 0.602115, 0.2565, 0.602115, 0.2565, 0.602115, 0.2565, 0, 0
2, 1380.00000, 0.602115, 0.2565, 0.602115, 0.2565, 0.602115, 0.2565, 0, 0
2, 1440.00000, 0.602115, 0.2565, 0.602115, 0.2565, 0.602115, 0.2565, 0, 0
2, 1500.00000, 0.602115, 0.2565, 0.602115, 0.2565, 0.602115, 0.2565, 0, 0
2, 1560.00000, 0.602115, 0.2565, 0.602115, 0.2565, 0.602115, 0.2565, 0, 0
2, 1620.00000, 0.602115, 0.2565, 0.602115, 0.2565, 0.602115, 0.2565, 0, 0
2, 1680.00000, 0.602115, 0.2565, 0.602115, 0.2565, 0.602115, 0.2565, 0, 0
2, 1740.00000, 0.602115, 0.2565, 0.602115, 0.2565, 0.602115, 0.2565, 0, 0
2, 1800.00000, 0.602115, 0.2565, 0.602115, 0.2565, 0.602115, 0.2565, 0, 0
2, 1860.00000, 0.601786, 0.25636, 0.601786, 0.25636, 0.601786, 0.25636, 0, 0
2, 1920.00000, 0.601786, 0.25636, 0.601786, 0.25636, 0.601786, 0.25636, 0, 0
2, 1980.00000, 0.601786, 0.25636, 0.601786, 0.25636, 0.601786, 0.25636, 0, 0
2, 2040.00000, 0.601786, 0.25636, 0.601786, 0.25636, 0.601786, 0.25636, 0, 0
2, 2100.00000, 0.601786, 0.25636, 0.601786, 0.25636, 0.601786, 0.25636, 0, 0
2, 2160.00000, 0.601786, 0.25636, 0.601786, 0.25636, 0.601786, 0.25636, 0, 0
2, 2220.00000, 0.601786, 0.25636, 0.601786, 0.25636, 0.601786, 0.25636, 0, 0
2, 2280.00000, 0.601786, 0.25636, 0.601786, 0.25636, 0.601786, 0.25636, 0, 0
2, 2340.00000, 0.601786, 0.25636, 0.601786, 0.25636, 0.601786, 0.25636, 0, 0
2, 2400.00000, 0.601786, 0.25636, 0.601786, 0.25636, 0.601786, 0.25636, 0, 0
2, 2460.00000, 0.601786, 0.25636, 0.601786, 0.25636, 0.601786, 0.25636, 0, 0
2, 2520.00000, 0.601786, 0.25636, 0.601786, 0.25636, 0.601786, 0.25636, 0, 0
2, 2580.00000, 0.601786, 0.25636, 0.601786, 0.25636, 0.601786, 0.25636, 0, 0
2, 2640.00000, 0.601786, 0.25636, 0.601786, 0.25636, 0.601786, 0.25636, 0, 0
2, 2700.00000, 0.601786, 0.25636, 0.601786, 0.25636, 0.601786, 0.25636, 0, 0
2, 2760.00000, 0.575765, 0.245275, 0.575765, 0.245275, 0.575765, 0.245275, 0, 0
2, 2820.00000, 0.575765, 0.245275, 0.575765, 0.245275, 0.575765, 0.245275, 0, 0
2, 2880.00000, 0.575765, 0.245275, 0.575765, 0.245275, 0.575765, 0.245275, 0, 0
2, 2940.00000, 0.575765, 0.245275, 0.575765, 0.245275, 0.575765, 0.245275, 0, 0
2, 3000.00000, 0.575765, 0.245275, 0.575765, 0.245275, 0.575765, 0.245275, 0, 0
2, 3060.00000, 0.575765, 0.245275, 0.575765, 0.245275, 0.575765, 0.245275, 0, 0
2, 3120.00000, 0.575765, 0.245275, 0.575765, 0.245275, 0.575765, 0.245275, 0, 0
2, 3180.00000, 0.575765, 0.245275, 0.575765, 0.245275, 0.575765, 0.245275, 0, 0
2, 3240.00000, 0.575765, 0.245275, 0.575765, 0.245275, 0.575765, 0.245275, 0, 0
2, 3300.00000, 0.575765, 0.245275, 0.575765, 0.245275, 0.575765, 0.245275, 0, 0
2, 3360.00000, 0.575765, 0.245275, 0.575765, 0.245275, 0.575765, 0.245275, 0, 0
2, 3420.00000, 0.575765, 0.245275, 0.575765, 0.245275, 0.575765, 0.245275, 0, 0
2, 3480.00000, 0.575765, 0.245275, 0.575765, 0.245275, 0.575765, 0.245275, 0, 0
2, 3540.00000, 0.575765, 0.245275, 0.575765, 0.245275, 0.575765, 0.245275, 0, 0
3, 0.00000, 0.575765, 0.245275, 0.575765, 0.245275, 0.575765, 0.245275, 0, 0
3, 60.00000, 0.590405, 0.251512, 0.590406, 0.251512, 0.590406, 0.251512, 0, 0
3, 120.00000, 0.590406, 0.251512, 0.590406, 0.251512, 0.590406, 0.251512, 0, 0
3, 180.00000, 0.590406, 0.251512, 0.590406, 0.251512, 0.590406, 0.251512, 0, 0
3, 240.00000, 0.590406, 0.251512, 0.590406, 0.251512, 0.590406, 0.251512, 0, 0
3, 300.00000, 0.590406, 0.251512, 0.590406, 0.251512, 0.590406, 0.251512, 0, 0
3, 360.00000, 0.590406, 0.251512, 0.590406, 0.251512, 0.590406, 0.251512, 0, 0
3, 420.00000, 0.590406, 0.251512, 0.590406, 0.251512, 0.590406, 0.251512, 0, 0
3, 480.00000, 0.590406, 0.251512, 0.590406, 0.251512, 0.590406, 0.251512, 0, 0
3, 540.00000, 0.590406, 0.251512, 0.590406, 0.251512, 0.590406, 0.251512, 0, 0
3, 600.00000, 0.590406, 0.251512, 0.590406, 0.251512, 0.590406, 0.251512, 0, 0
3, 660.00000, 0.590406, 0.251512, 0.590406, 0.251512, 0.590406, 0.251512, 0, 0
3, 720.00000, 0.590406, 0.251512, 0.590406, 0.251512, 0.590406, 0.251512, 0, 0
3, 780.00000, 0.590406, 0.251512, 0.590406, 0.251512, 0.590406, 0.251512, 0, 0
3, 840.00000, 0.590406, 0.251512, 0.590406, 0.251512, 0.590406, 0.251512, 0, 0
3, 900.00000, 0.590406, 0.251512, 0.590406, 0.251512, 0.590406, 0.251512, 0, 0
3, 960.00000, 0.606628, 0.258423, 0.606628, 0.258422, 0.606628, 0.258422, 0, 0
3, 1020.00000, 0.606628, 0.258422, 0.606628, 0.258422, 0.606628, 0.258422, 0, 0
3, 1080.00000, 0.606628, 0.258422, 0.606628, 0.258422, 0.606628, 0.258422, 0, 0
3, 1140.00000, 0.606628, 0.258422, 0.606628, 0.258422, 0.606628, 0.258422, 0, 0
3, 1200.00000, 0.606628, 0.258422, 0.606628, 0.258422, 0.606628, 0.258422, 0, 0
3, 1260.00000, 0.606628, 0.258422, 0.606628, 0.258422, 0.606628, 0.258422, 0, 0
3, 1320.00000, 0.606628, 0.258422, 0.606628, 0.258422, 0.606628, 0.258422, 0, 0
3, 1380.00000, 0.606628, 0.258422, 0.606628, 0.258422, 0.606628, 0.258422, 0, 0
3, 1440.00000, 0.606628, 0.258422, 0.606628, 0.258422, 0.606628, 0.258422, 0, 0
3, 1500.00000, 0.606628, 0.258422, 0.606628, 0.258422, 0.606628, 0.258422, 0, 0
3, 1560.00000, 0.606628, 0.258422, 0.606628, 0.258422, 0.606628, 0.258422, 0, 0
3, 1620.00000, 0.606628, 0.258422, 0.606628, 0.258422, 0.606628, 0.258422, 0, 0
3, 1680.00000, 0.606628, 0.258422, 0.606628, 0.258422, 0.606628, 0.258422, 0, 0
3, 1740.00000, 0.606628, 0.258422, 0.606628, 0.258422, 0.606628, 0.258422, 0, 0
3, 1800.00000, 0.606628, 0.258422, 0.606628, 0.258422, 0.606628, 0.258422, 0, 0
3, 1860.00000, 0.614046, 0.261582, 0.614046, 0.261582, 0.614046, 0.261582, 0, 0
3, 1920.00000, 0.614045, 0.261582, 0.614045, 0.261582, 0.614045, 0.261582, 0, 0
3, 1980.00000, 0.614045, 0.261582, 0.614045, 0.261582, 0.614045, 0.261582, 0, 0
3, 2040.00000, 0.614045, 0.261582, 0.614045, 0.261582, 0.614045, 0.261582, 0, 0
3, 2100.00000, 0.614045, 0.261582, 0.614045, 0.261582, 0.614045, 0.261582, 0, 0
3, 2160.00000, 0.614045, 0.261582, 0.614045, 0.261582, 0.614045, 0.261582, 0, 0
3, 2220.00000, 0.614045, 0.261582, 0.614045, 0.261582, 0.614045, 0.261582, 0, 0
3, 2280.00000, 0.614045, 0.261582, 0.614045, 0.261582, 0.614045, 0.261582, 0, 0
3, 2340.00000, 0.614045, 0.261582, 0.614045, 0.261582, 0.614045, 0.261582, 0, 0
3, 2400.00000, 0.614045, 0.261582, 0.614045, 0.261582, 0.614045, 0.261582, 0, 0
3, 2460.00000, 0.614045, 0.261582, 0.614045, 0.261582, 0.614045, 0.261582, 0, 0
3, 2520.00000, 0.614045, 0.261582, 0.614045, 0.261582, 0.614045, 0.261582, 0, 0
3, 2580.00000, 0.614045, 0.261582, 0.614045, 0.261582, 0.614045, 0.261582, 0, 0
3, 2640.00000, 0.614045, 0.261582, 0.614045, 0.261582, 0.614045, 0.261582, 0, 0
3, 2700.00000, 0.614045, 0.261582, 0.614045, 0.261582, 0.614045, 0.261582, 0, 0
3, 2760.00000, 0.561898, 0.239368, 0.561897, 0.239367, 0.561898, 0.239367, 0, 0
3, 2820.00000, 0.561898, 0.239367, 0.561898, 0.239367, 0.561898, 0.239367, 0, 0
3, 2880.00000, 0.561898, 0.239367, 0.561898, 0.239367, 0.561898, 0.239367, 0, 0
3, 2940.00000, 0.561898, 0.239367, 0.561898, 0.239367, 0.561898, 0.239367, 0, 0
3, 3000.00000, 0.561898, 0.239367, 0.561898, 0.239367, 0.561898, 0.239367, 0, 0
3, 3060.00000, 0.561898, 0.239367, 0.561898, 0.239367, 0.561898, 0.239367, 0, 0
3, 3120.00000, 0.561898, 0.239367, 0.561898, 0.239367, 0.561898, 0.239367, 0, 0
3, 3180.00000, 0.561898, 0.239367, 0.561898, 0.239367, 0.561898, 0.239367, 0, 0
3, 3240.00000, 0.561898, 0.239367, 0.561898, 0.239367, 0.561898, 0.239367, 0, 0
3, 3300.00000, 0.561898, 0.239367, 0.561898, 0.239367, 0.561898, 0.239367, 0, 0
3, 3360.00000, 0.561898, 0.239367, 0.561898, 0.239367, 0.561898, 0.239367, 0, 0
3, 3420.00000, 0.561898, 0.239367, 0.561898, 0.239367, 0.561898, 0.239367, 0, 0
3, 3480.00000, 0.561898, 0.239367, 0.561898, 0.239367, 0.561898, 0.239367, 0, 0
3, 3540.00000, 0.561898, 0.239367, 0.561898, 0.239367, 0.561898, 0.239367, 0, 0
4, 0.00000, 0.561898, 0.239367, 0.561898, 0.239367, 0.561898, 0.239367, 0, 0
4, 60.00000, 0.6011, 0.256068, 0.601101, 0.256068, 0.601101, 0.256068, 0, 0
4, 120.00000, 0.601101, 0.256068, 0.601101, 0.256068, 0.601101, 0.256068, 0, 0
4, 180.00000, 0.601101, 0.256068, 0.601101, 0.256068, 0.601101, 0.256068, 0, 0
4, 240.00000, 0.601101, 0.256068, 0.601101, 0.256068, 0.601101, 0.256068, 0, 0
4, 300.00000, 0.601101, 0.256068, 0.601101, 0.256068, 0.601101, 0.256068, 0, 0
4, 360.00000, 0.601101, 0.256068, 0.601101, 0.256068, 0.601101, 0.256068, 0, 0
4, 420.00000, 0.601101, 0.256068, 0.601101, 0.256068, 0.601101, 0.256068, 0, 0
4, 480.00000, 0.601101, 0.256068, 0.601101, 0.256068, 0.601101, 0.256068, 0, 0
4, 540.00000, 0.601101, 0.256068, 0.601101, 0.256068, 0.601101, 0.256068, 0, 0
4, 600.00000, 0.601101, 0.256068, 0.601101, 0.256068, 0.601101, 0.256068, 0, 0
4, 660.00000, 0.601101, 0.256068, 0.601101, 0.256068, 0.601101, 0.256068, 0, 0
4, 720.00000, 0.601101, 0.256068, 0.601101, 0.256068, 0.601101, 0.256068, 0, 0
4, 780.00000, 0.601101, 0.256068, 0.601101, 0.256068, 0.601101, 0.256068, 0, 0
