hour,t(sec),"P1 (kW)","Q1 (kvar)","P2 (kW)","Q2 (kvar)","P3 (kW)","Q3 (kvar)","P4 (kW)","Q4 (kvar)"
0, 60.00000, 0.519085, 0.22113, 0.522246, 0.222467, 0.549539, 0.23409, 0, 0
0, 120.00000, 0.519029, 0.221106, 0.52224, 0.222465, 0.549535, 0.234089, 0, 0
0, 180.00000, 0.518977, 0.221084, 0.522234, 0.222464, 0.549532, 0.234089, 0, 0
0, 240.00000, 0.518931, 0.221064, 0.522229, 0.222462, 0.549529, 0.234089, 0, 0
0, 300.00000, 0.518889, 0.221046, 0.522225, 0.222461, 0.549527, 0.234089, 0, 0
0, 360.00000, 0.518852, 0.22103, 0.522221, 0.22246, 0.549525, 0.234088, 0, 0
0, 420.00000, 0.518817, 0.221016, 0.522217, 0.222459, 0.549522, 0.234088, 0, 0
0, 480.00000, 0.505574, 0.215373, 0.508574, 0.216648, 0.526305, 0.224198, 0, 0
0, 540.00000, 0.505548, 0.215362, 0.508571, 0.216647, 0.526303, 0.224198, 0, 0
0, 600.00000, 0.505524, 0.215351, 0.508568, 0.216646, 0.526301, 0.224198, 0, 0
0, 660.00000, 0.505502, 0.215342, 0.508566, 0.216646, 0.5263, 0.224198, 0, 0
0, 720.00000, 0.505483, 0.215334, 0.508564, 0.216645, 0.526299, 0.224198, 0, 0
0, 780.00000, 0.505465, 0.215327, 0.508563, 0.216645, 0.526298, 0.224198, 0, 0
0, 840.00000, 0.505449, 0.21532, 0.508561, 0.216644, 0.526297, 0.224198, 0, 0
0, 900.00000, 0.505435, 0.215314, 0.50856, 0.216644, 0.526296, 0.224198, 0, 0
0, 960.00000, 0.505422, 0.215308, 0.508559, 0.216643, 0.526296, 0.224198, 0, 0
0, 1020.00000, 0.50541, 0.215303, 0.508557, 0.216643, 0.526295, 0.224198, 0, 0
0, 1080.00000, 0.5054, 0.215299, 0.508556, 0.216643, 0.526294, 0.224198, 0, 0
0, 1140.00000, 0.50539, 0.215295, 0.508555, 0.216643, 0.526294, 0.224198, 0, 0
0, 1200.00000, 0.505382, 0.215291, 0.508555, 0.216642, 0.526293, 0.224198, 0, 0
0, 1260.00000, 0.505374, 0.215288, 0.508554, 0.216642, 0.526293, 0.224198, 0, 0
0, 1320.00000, 0.505367, 0.215285, 0.508553, 0.216642, 0.526293, 0.224198, 0, 0
0, 1380.00000, 0.505361, 0.215283, 0.508553, 0.216642, 0.526292, 0.224198, 0, 0
0, 1440.00000, 0.505355, 0.21528, 0.508552, 0.216642, 0.526292, 0.224198, 0, 0
0, 1500.00000, 0.50535, 0.215278, 0.508552, 0.216642, 0.526292, 0.224198, 0, 0
0, 1560.00000, 0.505346, 0.215276, 0.508551, 0.216641, 0.526291, 0.224198, 0, 0
0, 1620.00000, 0.505342, 0.215274, 0.508551, 0.216641, 0.526291, 0.224198, 0, 0
0, 1680.00000, 0.505338, 0.215273, 0.50855, 0.216641, 0.526291, 0.224198, 0, 0
0, 1740.00000, 0.505334, 0.215271, 0.50855, 0.216641, 0.526291, 0.224198, 0, 0
0, 1800.00000, 0.505332, 0.21527, 0.50855, 0.216641, 0.52629, 0.224198, 0, 0
0, 1860.00000, 0.505329, 0.215269, 0.50855, 0.216641, 0.52629, 0.224198, 0, 0
0, 1920.00000, 0.505326, 0.215268, 0.508549, 0.216641, 0.52629, 0.224198, 0, 0
0, 1980.00000, 0.505324, 0.215267, 0.508549, 0.216641, 0.52629, 0.224198, 0, 0
0, 2040.00000, 0.505322, 0.215266, 0.508549, 0.216641, 0.52629, 0.224198, 0, 0
0, 2100.00000, 0.50532, 0.215266, 0.508549, 0.216641, 0.52629, 0.224198, 0, 0
0, 2160.00000, 0.505319, 0.215265, 0.508549, 0.216641, 0.52629, 0.224198, 0, 0
0, 2220.00000, 0.505317, 0.215264, 0.508548, 0.216641, 0.52629, 0.224198, 0, 0
0, 2280.00000, 0.505316, 0.215264, 0.508548, 0.216641, 0.52629, 0.224198, 0, 0
0, 2340.00000, 0.505315, 0.215263, 0.508548, 0.216641, 0.52629, 0.224198, 0, 0
0, 2400.00000, 0.505314, 0.215263, 0.508548, 0.216641, 0.526289, 0.224198, 0, 0
0, 2460.00000, 0.505313, 0.215262, 0.508548, 0.21664, 0.526289, 0.224198, 0, 0
0, 2520.00000, 0.505312, 0.215262, 0.508548, 0.21664, 0.526289, 0.224198, 0, 0
0, 2580.00000, 0.505311, 0.215262, 0.508548, 0.21664, 0.526289, 0.224198, 0, 0
0, 2640.00000, 0.505311, 0.215261, 0.508548, 0.21664, 0.526289, 0.224198, 0, 0
0, 2700.00000, 0.50531, 0.215261, 0.508548, 0.21664, 0.526289, 0.224198, 0, 0
0, 2760.00000, 0.505309, 0.215261, 0.508548, 0.21664, 0.526289, 0.224198, 0, 0
0, 2820.00000, 0.505309, 0.215261, 0.508548, 0.21664, 0.526289, 0.224198, 0, 0
0, 2880.00000, 0.505309, 0.215261, 0.508548, 0.21664, 0.526289, 0.224198, 0, 0
0, 2940.00000, 0.505308, 0.21526, 0.508548, 0.21664, 0.526289, 0.224198, 0, 0
0, 3000.00000, 0.505308, 0.21526, 0.508548, 0.21664, 0.526289, 0.224198, 0, 0
0, 3060.00000, 0.505307, 0.21526, 0.508548, 0.21664, 0.526289, 0.224198, 0, 0
0, 3120.00000, 0.505307, 0.21526, 0.508548, 0.21664, 0.526289, 0.224198, 0, 0
0, 3180.00000, 0.505307, 0.21526, 0.508548, 0.21664, 0.526289, 0.224198, 0, 0
0, 3240.00000, 0.505307, 0.21526, 0.508547, 0.21664, 0.526289, 0.224198, 0, 0
0, 3300.00000, 0.505306, 0.21526, 0.508547, 0.21664, 0.526289, 0.224198, 0, 0
0, 3360.00000, 0.505306, 0.21526, 0.508547, 0.21664, 0.526289, 0.224198, 0, 0
0, 3420.00000, 0.505306, 0.215259, 0.508547, 0.21664, 0.526289, 0.224198, 0, 0
0, 3480.00000, 0.505306, 0.215259, 0.508547, 0.21664, 0.526289, 0.224198, 0, 0
0, 3540.00000, 0.505306, 0.215259, 0.508547, 0.21664, 0.526289, 0.224198, 0, 0
1, 0.00000, 0.505306, 0.215259, 0.508547, 0.21664, 0.526289, 0.224198, 0, 0
1, 60.00000, 0.506239, 0.215657, 0.51133, 0.217826, 0.526289, 0.224198, 0, 0
1, 120.00000, 0.506239, 0.215657, 0.51133, 0.217826, 0.526289, 0.224198, 0, 0
1, 180.00000, 0.506239, 0.215657, 0.51133, 0.217826, 0.526289, 0.224198, 0, 0
1, 240.00000, 0.506239, 0.215657, 0.51133, 0.217826, 0.526289, 0.224198, 0, 0
1, 300.00000, 0.506239, 0.215657, 0.51133, 0.217826, 0.526289, 0.224198, 0, 0
1, 360.00000, 0.506239, 0.215657, 0.51133, 0.217826, 0.526289, 0.224198, 0, 0
1, 420.00000, 0.506239, 0.215657, 0.51133, 0.217826, 0.526289, 0.224198, 0, 0
1, 480.00000, 0.506239, 0.215657, 0.51133, 0.217826, 0.526289, 0.224198, 0, 0
1, 540.00000, 0.506239, 0.215657, 0.51133, 0.217826, 0.526289, 0.224198, 0, 0
1, 600.00000, 0.506238, 0.215657, 0.51133, 0.217826, 0.526289, 0.224198, 0, 0
1, 660.00000, 0.506238, 0.215657, 0.51133, 0.217826, 0.526289, 0.224198, 0, 0
1, 720.00000, 0.506238, 0.215657, 0.51133, 0.217826, 0.526289, 0.224198, 0, 0
1, 780.00000, 0.506238, 0.215657, 0.51133, 0.217826, 0.526289, 0.224198, 0, 0
1, 840.00000, 0.506238, 0.215657, 0.51133, 0.217826, 0.526289, 0.224198, 0, 0
1, 900.00000, 0.506238, 0.215657, 0.51133, 0.217826, 0.526289, 0.224198, 0, 0
1, 960.00000, 0.506238, 0.215657, 0.51133, 0.217826, 0.526289, 0.224198, 0, 0
1, 1020.00000, 0.506238, 0.215657, 0.51133, 0.217826, 0.526289, 0.224198, 0, 0
1, 1080.00000, 0.506238, 0.215657, 0.51133, 0.217826, 0.526289, 0.224198, 0, 0
1, 1140.00000, 0.506238, 0.215657, 0.51133, 0.217826, 0.526289, 0.224198, 0, 0
1, 1200.00000, 0.506238, 0.215657, 0.51133, 0.217826, 0.526289, 0.224198, 0, 0
1, 1260.00000, 0.506238, 0.215657, 0.51133, 0.217826, 0.526289, 0.224198, 0, 0
1, 1320.00000, 0.506238, 0.215657, 0.51133, 0.217826, 0.526289, 0.224198, 0, 0
1, 1380.00000, 0.506238, 0.215657, 0.51133, 0.217826, 0.526289, 0.224198, 0, 0
1, 1440.00000, 0.506238, 0.215657, 0.51133, 0.217826, 0.526289, 0.224198, 0, 0
1, 1500.00000, 0.506238, 0.215657, 0.51133, 0.217826, 0.526289, 0.224198, 0, 0
1, 1560.00000, 0.506238, 0.215657, 0.51133, 0.217826, 0.526289, 0.224198, 0, 0
1, 1620.00000, 0.506238, 0.215657, 0.51133, 0.217826, 0.526289, 0.224198, 0, 0
1, 1680.00000, 0.506238, 0.215657, 0.51133, 0.217826, 0.526289, 0.224198, 0, 0
1, 1740.00000, 0.506238, 0.215657, 0.51133, 0.217826, 0.526289, 0.224198, 0, 0
1, 1800.00000, 0.506238, 0.215657, 0.51133, 0.217826, 0.526289, 0.224198, 0, 0
1, 1860.00000, 0.506238, 0.215657, 0.51133, 0.217826, 0.526289, 0.224198, 0, 0
1, 1920.00000, 0.506238, 0.215657, 0.51133, 0.217826, 0.526289, 0.224198, 0, 0
1, 1980.00000, 0.506238, 0.215657, 0.51133, 0.217826, 0.526289, 0.224198, 0, 0
1, 2040.00000, 0.506238, 0.215657, 0.51133, 0.217826, 0.526289, 0.224198, 0, 0
1, 2100.00000, 0.506238, 0.215657, 0.51133, 0.217826, 0.526289, 0.224198, 0, 0
1, 2160.00000, 0.506238, 0.215657, 0.51133, 0.217826, 0.526289, 0.224198, 0, 0
1, 2220.00000, 0.506238, 0.215657, 0.51133, 0.217826, 0.526289, 0.224198, 0, 0
1, 2280.00000, 0.506238, 0.215657, 0.51133, 0.217826, 0.526289, 0.224198, 0, 0
1, 2340.00000, 0.506238, 0.215657, 0.51133, 0.217826, 0.526289, 0.224198, 0, 0
1, 2400.00000, 0.506238, 0.215657, 0.51133, 0.217826, 0.526289, 0.224198, 0, 0
1, 2460.00000, 0.506238, 0.215657, 0.51133, 0.217826, 0.526289, 0.224198, 0, 0
1, 2520.00000, 0.506238, 0.215657, 0.51133, 0.217826, 0.526289, 0.224198, 0, 0
1, 2580.00000, 0.506238, 0.215657, 0.51133, 0.217826, 0.526289, 0.224198, 0, 0
1, 2640.00000, 0.506238, 0.215657, 0.51133, 0.217826, 0.526289, 0.224198, 0, 0
1, 2700.00000, 0.506238, 0.215657, 0.51133, 0.217826, 0.526289, 0.224198, 0, 0
1, 2760.00000, 0.506238, 0.215657, 0.51133, 0.217826, 0.526289, 0.224198, 0, 0
1, 2820.00000, 0.506238, 0.215657, 0.51133, 0.217826, 0.526289, 0.224198, 0, 0
1, 2880.00000, 0.506238, 0.215657, 0.51133, 0.217826, 0.526289, 0.224198, 0, 0
1, 2940.00000, 0.506238, 0.215657, 0.51133, 0.217826, 0.526289, 0.224198, 0, 0
1, 3000.00000, 0.506238, 0.215657, 0.51133, 0.217826, 0.526289, 0.224198, 0, 0
1, 3060.00000, 0.506238, 0.215657, 0.51133, 0.217826, 0.526289, 0.224198, 0, 0
1, 3120.00000, 0.506238, 0.215657, 0.51133, 0.217826, 0.526289, 0.224198, 0, 0
1, 3180.00000, 0.506238, 0.215657, 0.51133, 0.217826, 0.526289, 0.224198, 0, 0
1, 3240.00000, 0.506238, 0.215657, 0.51133, 0.217826, 0.526289, 0.224198, 0, 0
1, 3300.00000, 0.506238, 0.215657, 0.51133, 0.217826, 0.526289, 0.224198, 0, 0
1, 3360.00000, 0.506238, 0.215657, 0.51133, 0.217826, 0.526289, 0.224198, 0, 0
1, 3420.00000, 0.506238, 0.215657, 0.51133, 0.217826, 0.526289, 0.224198, 0, 0
1, 3480.00000, 0.506238, 0.215657, 0.51133, 0.217826, 0.526289, 0.224198, 0, 0
1, 3540.00000, 0.506238, 0.215657, 0.51133, 0.217826, 0.526289, 0.224198, 0, 0
2, 0.00000, 0.506238, 0.215657, 0.51133, 0.217826, 0.526289, 0.224198, 0, 0
2, 60.00000, 0.506238, 0.215657, 0.51133, 0.217826, 0.526289, 0.224198, 0, 0
2, 120.00000, 0.506238, 0.215657, 0.51133, 0.217826, 0.526289, 0.224198, 0, 0
2, 180.00000, 0.506238, 0.215657, 0.51133, 0.217826, 0.526289, 0.224198, 0, 0
2, 240.00000, 0.506238, 0.215657, 0.51133, 0.217826, 0.526289, 0.224198, 0, 0
2, 300.00000, 0.506238, 0.215657, 0.51133, 0.217826, 0.526289, 0.224198, 0, 0
2, 360.00000, 0.506238, 0.215657, 0.51133, 0.217826, 0.526289, 0.224198, 0, 0
2, 420.00000, 0.506238, 0.215657, 0.51133, 0.217826, 0.526289, 0.224198, 0, 0
2, 480.00000, 0.506238, 0.215657, 0.51133, 0.217826, 0.526289, 0.224198, 0, 0
2, 540.00000, 0.506238, 0.215657, 0.51133, 0.217826, 0.526289, 0.224198, 0, 0
2, 600.00000, 0.506238, 0.215657, 0.51133, 0.217826, 0.526289, 0.224198, 0, 0
2, 660.00000, 0.506238, 0.215657, 0.51133, 0.217826, 0.526289, 0.224198, 0, 0
2, 720.00000, 0.506238, 0.215657, 0.51133, 0.217826, 0.526289, 0.224198, 0, 0
2, 780.00000, 0.506238, 0.215657, 0.51133, 0.217826, 0.526289, 0.224198, 0, 0
2, 840.00000, 0.506238, 0.215657, 0.51133, 0.217826, 0.526289, 0.224198, 0, 0
2, 900.00000, 0.506238, 0.215657, 0.51133, 0.217826, 0.526289, 0.224198, 0, 0
2, 960.00000, 0.506238, 0.215657, 0.51133, 0.217826, 0.526289, 0.224198, 0, 0
2, 1020.00000, 0.506238, 0.215657, 0.51133, 0.217826, 0.526289, 0.224198, 0, 0
2, 1080.00000, 0.506238, 0.215657, 0.51133, 0.217826, 0.526289, 0.224198, 0, 0
2, 1140.00000, 0.506238, 0.215657, 0.51133, 0.217826, 0.526289, 0.224198, 0, 0
2, 1200.00000, 0.506238, 0.215657, 0.51133, 0.217826, 0.526289, 0.224198, 0, 0
2, 1260.00000, 0.506238, 0.215657, 0.51133, 0.217826, 0.526289, 0.224198, 0, 0
2, 1320.00000, 0.506238, 0.215657, 0.51133, 0.217826, 0.526289, 0.224198, 0, 0
2, 1380.00000, 0.506238, 0.215657, 0.51133, 0.217826, 0.526289, 0.224198, 0, 0
2, 1440.00000, 0.506238, 0.215657, 0.51133, 0.217826, 0.526289, 0.224198, 0, 0
2, 1500.00000, 0.506238, 0.215657, 0.51133, 0.217826, 0.526289, 0.224198, 0, 0
2, 1560.00000, 0.506238, 0.215657, 0.51133, 0.217826, 0.526289, 0.224198, 0, 0
2, 1620.00000, 0.506238, 0.215657, 0.51133, 0.217826, 0.526289, 0.224198, 0, 0
2, 1680.00000, 0.506238, 0.215657, 0.51133, 0.217826, 0.526289, 0.224198, 0, 0
2, 1740.00000, 0.506238, 0.215657, 0.51133, 0.217826, 0.526289, 0.224198, 0, 0
2, 1800.00000, 0.506238, 0.215657, 0.51133, 0.217826, 0.526289, 0.224198, 0, 0
2, 1860.00000, 0.506238, 0.215657, 0.51133, 0.217826, 0.526289, 0.224198, 0, 0
2, 1920.00000, 0.506238, 0.215657, 0.51133, 0.217826, 0.526289, 0.224198, 0, 0
2, 1980.00000, 0.506238, 0.215657, 0.51133, 0.217826, 0.526289, 0.224198, 0, 0
2, 2040.00000, 0.506238, 0.215657, 0.51133, 0.217826, 0.526289, 0.224198, 0, 0
2, 2100.00000, 0.506238, 0.215657, 0.51133, 0.217826, 0.526289, 0.224198, 0, 0
2, 2160.00000, 0.506238, 0.215657, 0.51133, 0.217826, 0.526289, 0.224198, 0, 0
2, 2220.00000, 0.506238, 0.215657, 0.51133, 0.217826, 0.526289, 0.224198, 0, 0
2, 2280.00000, 0.506238, 0.215657, 0.51133, 0.217826, 0.526289, 0.224198, 0, 0
2, 2340.00000, 0.506238, 0.215657, 0.51133, 0.217826, 0.526289, 0.224198, 0, 0
2, 2400.00000, 0.509186, 0.216912, 0.516267, 0.219929, 0.526289, 0.224198, 0, 0
2, 2460.00000, 0.509186, 0.216912, 0.516267, 0.219929, 0.526289, 0.224198, 0, 0
2, 2520.00000, 0.509186, 0.216912, 0.516267, 0.219929, 0.526289, 0.224198, 0, 0
2, 2580.00000, 0.509186, 0.216912, 0.516267, 0.219929, 0.526289, 0.224198, 0, 0
2, 2640.00000, 0.509186, 0.216912, 0.516267, 0.219929, 0.526289, 0.224198, 0, 0
2, 2700.00000, 0.500625, 0.213265, 0.516419, 0.219994, 0.526289, 0.224198, 0, 0
2, 2760.00000, 0.500625, 0.213265, 0.516419, 0.219994, 0.526289, 0.224198, 0, 0
2, 2820.00000, 0.500625, 0.213265, 0.516419, 0.219994, 0.526289, 0.224198, 0, 0
2, 2880.00000, 0.500625, 0.213265, 0.516419, 0.219994, 0.526289, 0.224198, 0, 0
2, 2940.00000, 0.500625, 0.213265, 0.516419, 0.219994, 0.526289, 0.224198, 0, 0
2, 3000.00000, 0.500625, 0.213265, 0.516419, 0.219994, 0.526289, 0.224198, 0, 0
2, 3060.00000, 0.503702, 0.214576, 0.516382, 0.219978, 0.52629, 0.224199, 0, 0
2, 3120.00000, 0.503702, 0.214576, 0.516382, 0.219978, 0.526289, 0.224198, 0, 0
2, 3180.00000, 0.503702, 0.214576, 0.516382, 0.219978, 0.526289, 0.224198, 0, 0
2, 3240.00000, 0.503702, 0.214576, 0.516382, 0.219978, 0.526289, 0.224198, 0, 0
2, 3300.00000, 0.503702, 0.214576, 0.516382, 0.219978, 0.526289, 0.224198, 0, 0
2, 3360.00000, 0.503702, 0.214576, 0.516382, 0.219978, 0.526289, 0.224198, 0, 0
2, 3420.00000, 0.503702, 0.214576, 0.516382, 0.219978, 0.526289, 0.224198, 0, 0
2, 3480.00000, 0.503702, 0.214576, 0.516382, 0.219978, 0.526289, 0.224198, 0, 0
2, 3540.00000, 0.503702, 0.214576, 0.516382, 0.219978, 0.526289, 0.224198, 0, 0
3, 0.00000, 0.503702, 0.214576, 0.516382, 0.219978, 0.526289, 0.224198, 0, 0
3, 60.00000, 0.503702, 0.214576, 0.516382, 0.219978, 0.526289, 0.224198, 0, 0
3, 120.00000, 0.503702, 0.214576, 0.516382, 0.219978, 0.526289, 0.224198, 0, 0
3, 180.00000, 0.503702, 0.214576, 0.516382, 0.219978, 0.526289, 0.224198, 0, 0
3, 240.00000, 0.503702, 0.214576, 0.516382, 0.219978, 0.526289, 0.224198, 0, 0
3, 300.00000, 0.503702, 0.214576, 0.516382, 0.219978, 0.526289, 0.224198, 0, 0
3, 360.00000, 0.503702, 0.214576, 0.516382, 0.219978, 0.526289, 0.224198, 0, 0
3, 420.00000, 0.503702, 0.214576, 0.516382, 0.219978, 0.526289, 0.224198, 0, 0
3, 480.00000, 0.503702, 0.214576, 0.516382, 0.219978, 0.526289, 0.224198, 0, 0
3, 540.00000, 0.503702, 0.214576, 0.516382, 0.219978, 0.526289, 0.224198, 0, 0
3, 600.00000, 0.503702, 0.214576, 0.516382, 0.219978, 0.526289, 0.224198, 0, 0
3, 660.00000, 0.503702, 0.214576, 0.516382, 0.219978, 0.526289, 0.224198, 0, 0
3, 720.00000, 0.503702, 0.214576, 0.516382, 0.219978, 0.526289, 0.224198, 0, 0
3, 780.00000, 0.503702, 0.214576, 0.516382, 0.219978, 0.526289, 0.224198, 0, 0
3, 840.00000, 0.503702, 0.214576, 0.516382, 0.219978, 0.526289, 0.224198, 0, 0
3, 900.00000, 0.503702, 0.214576, 0.516382, 0.219978, 0.526289, 0.224198, 0, 0
3, 960.00000, 0.503702, 0.214576, 0.516382, 0.219978, 0.526289, 0.224198, 0, 0
3, 1020.00000, 0.503702, 0.214576, 0.516382, 0.219978, 0.526289, 0.224198, 0, 0
3, 1080.00000, 0.503702, 0.214576, 0.516382, 0.219978, 0.526289, 0.224198, 0, 0
3, 1140.00000, 0.503702, 0.214576, 0.516382, 0.219978, 0.526289, 0.224198, 0, 0
3, 1200.00000, 0.503702, 0.214576, 0.516382, 0.219978, 0.526289, 0.224198, 0, 0
3, 1260.00000, 0.503702, 0.214576, 0.516382, 0.219978, 0.526289, 0.224198, 0, 0
3, 1320.00000, 0.503702, 0.214576, 0.516382, 0.219978, 0.526289, 0.224198, 0, 0
3, 1380.00000, 0.503702, 0.214576, 0.516382, 0.219978, 0.526289, 0.224198, 0, 0
3, 1440.00000, 0.503702, 0.214576, 0.516382, 0.219978, 0.526289, 0.224198, 0, 0
3, 1500.00000, 0.503702, 0.214576, 0.516382, 0.219978, 0.526289, 0.224198, 0, 0
3, 1560.00000, 0.503702, 0.214576, 0.516382, 0.219978, 0.526289, 0.224198, 0, 0
3, 1620.00000, 0.503702, 0.214576, 0.516382, 0.219978, 0.526289, 0.224198, 0, 0
3, 1680.00000, 0.503702, 0.214576, 0.516382, 0.219978, 0.526289, 0.224198, 0, 0
3, 1740.00000, 0.503702, 0.214576, 0.516382, 0.219978, 0.526289, 0.224198, 0, 0
3, 1800.00000, 0.503702, 0.214576, 0.516382, 0.219978, 0.526289, 0.224198, 0, 0
3, 1860.00000, 0.503702, 0.214576, 0.516382, 0.219978, 0.526289, 0.224198, 0, 0
3, 1920.00000, 0.503702, 0.214576, 0.516382, 0.219978, 0.526289, 0.224198, 0, 0
3, 1980.00000, 0.503702, 0.214576, 0.516382, 0.219978, 0.526289, 0.224198, 0, 0
3, 2040.00000, 0.503702, 0.214576, 0.516382, 0.219978, 0.526289, 0.224198, 0, 0
3, 2100.00000, 0.503702, 0.214576, 0.516382, 0.219978, 0.526289, 0.224198, 0, 0
3, 2160.00000, 0.503702, 0.214576, 0.516382, 0.219978, 0.526289, 0.224198, 0, 0
3, 2220.00000, 0.503702, 0.214576, 0.516382, 0.219978, 0.526289, 0.224198, 0, 0
3, 2280.00000, 0.503702, 0.214576, 0.516382, 0.219978, 0.526289, 0.224198, 0, 0
3, 2340.00000, 0.503702, 0.214576, 0.516382, 0.219978, 0.526289, 0.224198, 0, 0
3, 2400.00000, 0.503702, 0.214576, 0.516382, 0.219978, 0.526289, 0.224198, 0, 0
3, 2460.00000, 0.503702, 0.214576, 0.516382, 0.219978, 0.526289, 0.224198, 0, 0
3, 2520.00000, 0.503702, 0.214576, 0.516382, 0.219978, 0.526289, 0.224198, 0, 0
3, 2580.00000, 0.503702, 0.214576, 0.516382, 0.219978, 0.526289, 0.224198, 0, 0
3, 2640.00000, 0.503702, 0.214576, 0.516382, 0.219978, 0.526289, 0.224198, 0, 0
3, 2700.00000, 0.503702, 0.214576, 0.516382, 0.219978, 0.526289, 0.224198, 0, 0
3, 2760.00000, 0.503702, 0.214576, 0.516382, 0.219978, 0.526289, 0.224198, 0, 0
3, 2820.00000, 0.503702, 0.214576, 0.516382, 0.219978, 0.526289, 0.224198, 0, 0
3, 2880.00000, 0.503702, 0.214576, 0.516382, 0.219978, 0.526289, 0.224198, 0, 0
3, 2940.00000, 0.503702, 0.214576, 0.516382, 0.219978, 0.526289, 0.224198, 0, 0
3, 3000.00000, 0.503702, 0.214576, 0.516382, 0.219978, 0.526289, 0.224198, 0, 0
3, 3060.00000, 0.503702, 0.214576, 0.516382, 0.219978, 0.526289, 0.224198, 0, 0
3, 3120.00000, 0.503702, 0.214576, 0.516382, 0.219978, 0.526289, 0.224198, 0, 0
3, 3180.00000, 0.415936, 0.177188, 0.426426, 0.181657, 0.435904, 0.185694, 0, 0
3, 3240.00000, 0.415936, 0.177188, 0.426426, 0.181657, 0.435904, 0.185695, 0, 0
3, 3300.00000, 0.415936, 0.177188, 0.426426, 0.181657, 0.435904, 0.185695, 0, 0
3, 3360.00000, 0.415936, 0.177188, 0.426426, 0.181657, 0.435904, 0.185695, 0, 0
3, 3420.00000, 0.415936, 0.177188, 0.426426, 0.181657, 0.435904, 0.185695, 0, 0
3, 3480.00000, 0.415936, 0.177188, 0.426426, 0.181657, 0.435904, 0.185695, 0, 0
3, 3540.00000, 0.415936, 0.177188, 0.426426, 0.181657, 0.435904, 0.185695, 0, 0
4, 0.00000, 0.415936, 0.177188, 0.426426, 0.181657, 0.435904, 0.185695, 0, 0
4, 60.00000, 0.415936, 0.177188, 0.426426, 0.181657, 0.435904, 0.185695, 0, 0
4, 120.00000, 0.415936, 0.177188, 0.426426, 0.181657, 0.435904, 0.185695, 0, 0
4, 180.00000, 0.415936, 0.177188, 0.426426, 0.181657, 0.435904, 0.185695, 0, 0
4, 240.00000, 0.415936, 0.177188, 0.426426, 0.181657, 0.435904, 0.185695, 0, 0
4, 300.00000, 0.415936, 0.177188, 0.426426, 0.181657, 0.435904, 0.185695, 0, 0
4, 360.00000, 0.415936, 0.177188, 0.426426, 0.181657, 0.435904, 0.185695, 0, 0
4, 420.00000, 0.415936, 0.177188, 0.426426, 0.181657, 0.435904, 0.185695, 0, 0
4, 480.00000, 0.415936, 0.177188, 0.426426, 0.181657, 0.435904, 0.185695, 0, 0
4, 540.00000, 0.415936, 0.177188, 0.426426, 0.181657, 0.435904, 0.185695, 0, 0
4, 600.00000, 0.415936, 0.177188, 0.426426, 0.181657, 0.435904, 0.185695, 0, 0
4, 660.00000, 0.415936, 0.177188, 0.426426, 0.181657, 0.435904, 0.185695, 0, 0
