hour,t(sec),V1,VAngle1,V2,VAngle2,V3,VAngle3,V4,VAngle4,I1,IAngle1,I2,IAngle2,I3,IAngle3,I4,IAngle4
0, 60.00000, 122.198, -31.8919, 121.798, -151.383, 123.624, 88.5368, 0, 0, 7.47626, -54.9658, 7.50082, -174.456, 7.39029, 65.463, 0.16188, 49.6385
0, 120.00000, 122.204, -31.8987, 121.798, -151.383, 123.643, 88.5359, 0, 0, 7.47589, -54.9726, 7.50084, -174.457, 7.3891, 65.4621, 0.163748, 49.5727
0, 180.00000, 122.21, -31.9049, 121.797, -151.383, 123.66, 88.5352, 0, 0, 7.47555, -54.9787, 7.50087, -174.457, 7.38804, 65.4613, 0.165431, 49.5146
0, 240.00000, 122.215, -31.9104, 121.797, -151.383, 123.676, 88.5345, 0, 0, 7.47525, -54.9843, 7.50089, -174.457, 7.38708, 65.4606, 0.166955, 49.463
0, 300.00000, 122.219, -31.9153, 121.797, -151.383, 123.691, 88.5339, 0, 0, 7.47498, -54.9892, 7.50091, -174.457, 7.38621, 65.46, 0.168331, 49.4173
0, 360.00000, 122.223, -31.9198, 121.796, -151.383, 123.704, 88.5333, 0, 0, 7.47473, -54.9937, 7.50093, -174.457, 7.38542, 65.4594, 0.169571, 49.3771
0, 420.00000, 122.227, -31.9238, 121.796, -151.383, 123.715, 88.5328, 0, 0, 7.47451, -54.9977, 7.50094, -174.457, 7.38471, 65.4589, 0.170687, 49.3417
0, 480.00000, 123.025, -31.8238, 122.557, -151.273, 124.513, 88.6601, 0, 0, 6.46068, -54.8977, 6.48532, -174.347, 6.38353, 65.5862, 0.150084, 48.1322
0, 540.00000, 123.028, -31.8271, 122.557, -151.273, 124.523, 88.6597, 0, 0, 6.46053, -54.901, 6.48533, -174.347, 6.38304, 65.5858, 0.150872, 48.1112
0, 600.00000, 123.03, -31.8301, 122.557, -151.273, 124.531, 88.6593, 0, 0, 6.46039, -54.904, 6.48534, -174.347, 6.38259, 65.5854, 0.151579, 48.0927
0, 660.00000, 123.033, -31.8328, 122.557, -151.273, 124.539, 88.6589, 0, 0, 6.46026, -54.9067, 6.48535, -174.347, 6.3822, 65.585, 0.152216, 48.0764
0, 720.00000, 123.035, -31.8352, 122.557, -151.273, 124.546, 88.6586, 0, 0, 6.46015, -54.9091, 6.48535, -174.347, 6.38184, 65.5847, 0.152788, 48.0618
0, 780.00000, 123.037, -31.8374, 122.557, -151.273, 124.552, 88.6583, 0, 0, 6.46005, -54.9113, 6.48536, -174.347, 6.38152, 65.5844, 0.153304, 48.0489
0, 840.00000, 123.038, -31.8393, 122.556, -151.273, 124.558, 88.658, 0, 0, 6.45996, -54.9132, 6.48537, -174.347, 6.38123, 65.5841, 0.153768, 48.0374
0, 900.00000, 123.04, -31.8411, 122.556, -151.273, 124.563, 88.6578, 0, 0, 6.45988, -54.915, 6.48537, -174.347, 6.38097, 65.5839, 0.154185, 48.0272
0, 960.00000, 123.041, -31.8427, 122.556, -151.273, 124.567, 88.6576, 0, 0, 6.4598, -54.9166, 6.48538, -174.347, 6.38073, 65.5837, 0.154561, 48.0181
0, 1020.00000, 123.043, -31.8441, 122.556, -151.273, 124.571, 88.6574, 0, 0, 6.45974, -54.918, 6.48538, -174.347, 6.38052, 65.5835, 0.1549, 48.01
0, 1080.00000, 123.044, -31.8454, 122.556, -151.273, 124.575, 88.6572, 0, 0, 6.45968, -54.9193, 6.48538, -174.347, 6.38033, 65.5833, 0.155204, 48.0027
0, 1140.00000, 123.045, -31.8466, 122.556, -151.273, 124.578, 88.6571, 0, 0, 6.45962, -54.9205, 6.48539, -174.347, 6.38016, 65.5832, 0.155479, 47.9962
0, 1200.00000, 123.046, -31.8476, 122.556, -151.273, 124.581, 88.6569, 0, 0, 6.45958, -54.9215, 6.48539, -174.347, 6.38, 65.583, 0.155725, 47.9905
0, 1260.00000, 123.047, -31.8486, 122.556, -151.273, 124.584, 88.6568, 0, 0, 6.45953, -54.9225, 6.48539, -174.347, 6.37987, 65.5829, 0.155947, 47.9853
0, 1320.00000, 123.047, -31.8494, 122.556, -151.273, 124.586, 88.6567, 0, 0, 6.45949, -54.9233, 6.4854, -174.347, 6.37974, 65.5828, 0.156147, 47.9806
0, 1380.00000, 123.048, -31.8502, 122.556, -151.273, 124.588, 88.6566, 0, 0, 6.45946, -54.9241, 6.4854, -174.347, 6.37963, 65.5827, 0.156327, 47.9765
0, 1440.00000, 123.049, -31.8508, 122.556, -151.273, 124.59, 88.6565, 0, 0, 6.45943, -54.9248, 6.4854, -174.347, 6.37953, 65.5826, 0.156489, 47.9727
0, 1500.00000, 123.049, -31.8515, 122.556, -151.273, 124.592, 88.6564, 0, 0, 6.4594, -54.9254, 6.4854, -174.347, 6.37944, 65.5825, 0.156635, 47.9694
0, 1560.00000, 123.05, -31.852, 122.556, -151.274, 124.593, 88.6563, 0, 0, 6.45937, -54.9259, 6.48541, -174.347, 6.37935, 65.5824, 0.156766, 47.9664
0, 1620.00000, 123.05, -31.8525, 122.556, -151.274, 124.595, 88.6562, 0, 0, 6.45935, -54.9264, 6.48541, -174.347, 6.37928, 65.5823, 0.156884, 47.9637
0, 1680.00000, 123.05, -31.853, 122.556, -151.274, 124.596, 88.6562, 0, 0, 6.45933, -54.9269, 6.48541, -174.347, 6.37921, 65.5823, 0.15699, 47.9613
0, 1740.00000, 123.051, -31.8534, 122.556, -151.274, 124.597, 88.6561, 0, 0, 6.45931, -54.9273, 6.48541, -174.347, 6.37915, 65.5822, 0.157086, 47.9591
0, 1800.00000, 123.051, -31.8537, 122.556, -151.274, 124.598, 88.6561, 0, 0, 6.45929, -54.9276, 6.48541, -174.347, 6.3791, 65.5822, 0.157172, 47.9572
0, 1860.00000, 123.051, -31.8541, 122.556, -151.274, 124.599, 88.656, 0, 0, 6.45928, -54.928, 6.48541, -174.347, 6.37905, 65.5821, 0.157249, 47.9554
0, 1920.00000, 123.052, -31.8544, 122.556, -151.274, 124.6, 88.656, 0, 0, 6.45927, -54.9283, 6.48541, -174.347, 6.37901, 65.5821, 0.157319, 47.9539
0, 1980.00000, 123.052, -31.8546, 122.556, -151.274, 124.601, 88.656, 0, 0, 6.45925, -54.9285, 6.48541, -174.347, 6.37897, 65.582, 0.157382, 47.9525
0, 2040.00000, 123.052, -31.8549, 122.556, -151.274, 124.601, 88.6559, 0, 0, 6.45924, -54.9288, 6.48541, -174.347, 6.37893, 65.582, 0.157438, 47.9512
0, 2100.00000, 123.052, -31.8551, 122.556, -151.274, 124.602, 88.6559, 0, 0, 6.45923, -54.929, 6.48542, -174.347, 6.3789, 65.582, 0.157489, 47.9501
0, 2160.00000, 123.053, -31.8553, 122.556, -151.274, 124.603, 88.6559, 0, 0, 6.45922, -54.9292, 6.48542, -174.347, 6.37887, 65.582, 0.157535, 47.949
0, 2220.00000, 123.053, -31.8554, 122.556, -151.274, 124.603, 88.6558, 0, 0, 6.45922, -54.9294, 6.48542, -174.347, 6.37885, 65.5819, 0.157576, 47.9481
0, 2280.00000, 123.053, -31.8556, 122.556, -151.274, 124.604, 88.6558, 0, 0, 6.45921, -54.9295, 6.48542, -174.348, 6.37883, 65.5819, 0.157613, 47.9473
0, 2340.00000, 123.053, -31.8557, 122.556, -151.274, 124.604, 88.6558, 0, 0, 6.4592, -54.9297, 6.48542, -174.348, 6.3788, 65.5819, 0.157646, 47.9465
0, 2400.00000, 123.053, -31.8559, 122.556, -151.274, 124.604, 88.6558, 0, 0, 6.4592, -54.9298, 6.48542, -174.348, 6.37879, 65.5819, 0.157676, 47.9459
0, 2460.00000, 123.053, -31.856, 122.556, -151.274, 124.605, 88.6558, 0, 0, 6.45919, -54.9299, 6.48542, -174.348, 6.37877, 65.5819, 0.157703, 47.9453
0, 2520.00000, 123.053, -31.8561, 122.556, -151.274, 124.605, 88.6558, 0, 0, 6.45919, -54.93, 6.48542, -174.348, 6.37875, 65.5818, 0.157728, 47.9447
0, 2580.00000, 123.053, -31.8562, 122.556, -151.274, 124.605, 88.6557, 0, 0, 6.45918, -54.9301, 6.48542, -174.348, 6.37874, 65.5818, 0.15775, 47.9442
0, 2640.00000, 123.053, -31.8563, 122.556, -151.274, 124.605, 88.6557, 0, 0, 6.45918, -54.9302, 6.48542, -174.348, 6.37873, 65.5818, 0.157769, 47.9438
0, 2700.00000, 123.053, -31.8563, 122.555, -151.274, 124.606, 88.6557, 0, 0, 6.45917, -54.9303, 6.48542, -174.348, 6.37872, 65.5818, 0.157787, 47.9434
0, 2760.00000, 123.054, -31.8564, 122.555, -151.274, 124.606, 88.6557, 0, 0, 6.45917, -54.9303, 6.48542, -174.348, 6.37871, 65.5818, 0.157803, 47.9431
0, 2820.00000, 123.054, -31.8565, 122.555, -151.274, 124.606, 88.6557, 0, 0, 6.45917, -54.9304, 6.48542, -174.348, 6.3787, 65.5818, 0.157817, 47.9427
0, 2880.00000, 123.054, -31.8565, 122.555, -151.274, 124.606, 88.6557, 0, 0, 6.45917, -54.9304, 6.48542, -174.348, 6.37869, 65.5818, 0.15783, 47.9424
0, 2940.00000, 123.054, -31.8566, 122.555, -151.274, 124.606, 88.6557, 0, 0, 6.45916, -54.9305, 6.48542, -174.348, 6.37868, 65.5818, 0.157842, 47.9422
0, 3000.00000, 123.054, -31.8566, 122.555, -151.274, 124.606, 88.6557, 0, 0, 6.45916, -54.9305, 6.48542, -174.348, 6.37868, 65.5818, 0.157852, 47.942
0, 3060.00000, 123.054, -31.8567, 122.555, -151.274, 124.607, 88.6557, 0, 0, 6.45916, -54.9306, 6.48542, -174.348, 6.37867, 65.5818, 0.157862, 47.9417
0, 3120.00000, 123.054, -31.8567, 122.555, -151.274, 124.607, 88.6557, 0, 0, 6.45916, -54.9306, 6.48542, -174.348, 6.37866, 65.5818, 0.15787, 47.9416
0, 3180.00000, 123.054, -31.8567, 122.555, -151.274, 124.607, 88.6557, 0, 0, 6.45916, -54.9306, 6.48542, -174.348, 6.37866, 65.5817, 0.157878, 47.9414
0, 3240.00000, 123.054, -31.8568, 122.555, -151.274, 124.607, 88.6557, 0, 0, 6.45916, -54.9307, 6.48542, -174.348, 6.37866, 65.5817, 0.157885, 47.9412
0, 3300.00000, 123.054, -31.8568, 122.555, -151.274, 124.607, 88.6557, 0, 0, 6.45915, -54.9307, 6.48542, -174.348, 6.37865, 65.5817, 0.157891, 47.9411
0, 3360.00000, 123.054, -31.8568, 122.555, -151.274, 124.607, 88.6557, 0, 0, 6.45915, -54.9307, 6.48542, -174.348, 6.37865, 65.5817, 0.157897, 47.941
0, 3420.00000, 123.054, -31.8568, 122.555, -151.274, 124.607, 88.6557, 0, 0, 6.45915, -54.9307, 6.48542, -174.348, 6.37865, 65.5817, 0.157902, 47.9409
0, 3480.00000, 123.054, -31.8568, 122.555, -151.274, 124.607, 88.6557, 0, 0, 6.45915, -54.9308, 6.48542, -174.348, 6.37864, 65.5817, 0.157906, 47.9408
0, 3540.00000, 123.054, -31.8569, 122.555, -151.274, 124.607, 88.6556, 0, 0, 6.45915, -54.9308, 6.48542, -174.348, 6.37864, 65.5817, 0.15791, 47.9407
1, 0.00000, 123.054, -31.8569, 122.555, -151.274, 124.607, 88.6556, 0, 0, 6.45915, -54.9308, 6.48542, -174.348, 6.37864, 65.5817, 0.157914, 47.9406
1, 60.00000, 123.054, -31.8569, 122.555, -151.274, 124.607, 88.6556, 0, 0, 6.45915, -54.9308, 6.48542, -174.348, 6.37864, 65.5817, 0.157917, 47.9405
1, 120.00000, 123.054, -31.8569, 122.555, -151.274, 124.607, 88.6556, 0, 0, 6.45915, -54.9308, 6.48542, -174.348, 6.37863, 65.5817, 0.15792, 47.9405
1, 180.00000, 123.054, -31.8569, 122.555, -151.274, 124.607, 88.6556, 0, 0, 6.45915, -54.9308, 6.48542, -174.348, 6.37863, 65.5817, 0.157923, 47.9404
1, 240.00000, 123.054, -31.8569, 122.555, -151.274, 124.607, 88.6556, 0, 0, 6.45915, -54.9308, 6.48542, -174.348, 6.37863, 65.5817, 0.157925, 47.9403
1, 300.00000, 123.054, -31.8569, 122.555, -151.274, 124.607, 88.6556, 0, 0, 6.45915, -54.9308, 6.48542, -174.348, 6.37863, 65.5817, 0.157927, 47.9403
1, 360.00000, 123.054, -31.8569, 122.555, -151.274, 124.607, 88.6556, 0, 0, 6.45915, -54.9309, 6.48542, -174.348, 6.37863, 65.5817, 0.157929, 47.9403
1, 420.00000, 123.054, -31.8569, 122.555, -151.274, 124.607, 88.6556, 0, 0, 6.45915, -54.9309, 6.48542, -174.348, 6.37863, 65.5817, 0.157931, 47.9402
1, 480.00000, 123.054, -31.857, 122.555, -151.274, 124.607, 88.6556, 0, 0, 6.45915, -54.9309, 6.48542, -174.348, 6.37863, 65.5817, 0.157932, 47.9402
1, 540.00000, 123.054, -31.857, 122.555, -151.274, 124.607, 88.6556, 0, 0, 6.45915, -54.9309, 6.48542, -174.348, 6.37862, 65.5817, 0.157934, 47.9401
1, 600.00000, 123.054, -31.857, 122.555, -151.274, 124.607, 88.6556, 0, 0, 6.45915, -54.9309, 6.48542, -174.348, 6.37862, 65.5817, 0.157935, 47.9401
1, 660.00000, 123.054, -31.857, 122.555, -151.274, 124.607, 88.6556, 0, 0, 6.45915, -54.9309, 6.48542, -174.348, 6.37862, 65.5817, 0.157936, 47.9401
1, 720.00000, 123.054, -31.857, 122.555, -151.274, 124.607, 88.6556, 0, 0, 6.45915, -54.9309, 6.48542, -174.348, 6.37862, 65.5817, 0.157937, 47.9401
1, 780.00000, 123.054, -31.857, 122.555, -151.274, 124.607, 88.6556, 0, 0, 6.45914, -54.9309, 6.48542, -174.348, 6.37862, 65.5817, 0.157938, 47.9401
1, 840.00000, 123.054, -31.857, 122.555, -151.274, 124.607, 88.6556, 0, 0, 6.45914, -54.9309, 6.48542, -174.348, 6.37862, 65.5817, 0.157939, 47.94
1, 900.00000, 123.054, -31.857, 122.555, -151.274, 124.607, 88.6556, 0, 0, 6.45914, -54.9309, 6.48542, -174.348, 6.37862, 65.5817, 0.15794, 47.94
1, 960.00000, 123.054, -31.857, 122.555, -151.274, 124.607, 88.6556, 0, 0, 6.45914, -54.9309, 6.48542, -174.348, 6.37862, 65.5817, 0.157941, 47.94
1, 1020.00000, 123.054, -31.857, 122.555, -151.274, 124.607, 88.6556, 0, 0, 6.45914, -54.9309, 6.48542, -174.348, 6.37862, 65.5817, 0.157941, 47.94
1, 1080.00000, 123.054, -31.857, 122.555, -151.274, 124.607, 88.6556, 0, 0, 6.45914, -54.9309, 6.48542, -174.348, 6.37862, 65.5817, 0.157942, 47.94
1, 1140.00000, 123.054, -31.857, 122.555, -151.274, 124.607, 88.6556, 0, 0, 6.45914, -54.9309, 6.48542, -174.348, 6.37862, 65.5817, 0.157942, 47.94
1, 1200.00000, 123.054, -31.857, 122.555, -151.274, 124.607, 88.6556, 0, 0, 6.45914, -54.9309, 6.48542, -174.348, 6.37862, 65.5817, 0.157943, 47.94
1, 1260.00000, 123.054, -31.857, 122.555, -151.274, 124.608, 88.6556, 0, 0, 6.45914, -54.9309, 6.48542, -174.348, 6.37862, 65.5817, 0.157943, 47.9399
1, 1320.00000, 123.054, -31.857, 122.555, -151.274, 124.608, 88.6556, 0, 0, 6.45914, -54.9309, 6.48542, -174.348, 6.37862, 65.5817, 0.157943, 47.9399
1, 1380.00000, 123.054, -31.857, 122.555, -151.274, 124.608, 88.6556, 0, 0, 6.45914, -54.9309, 6.48542, -174.348, 6.37862, 65.5817, 0.157944, 47.9399
1, 1440.00000, 123.054, -31.857, 122.555, -151.274, 124.608, 88.6556, 0, 0, 6.45914, -54.9309, 6.48542, -174.348, 6.37862, 65.5817, 0.157944, 47.9399
1, 1500.00000, 123.054, -31.857, 122.555, -151.274, 124.608, 88.6556, 0, 0, 6.45914, -54.9309, 6.48542, -174.348, 6.37862, 65.5817, 0.157944, 47.9399
1, 1560.00000, 123.054, -31.857, 122.555, -151.274, 124.608, 88.6556, 0, 0, 6.45914, -54.9309, 6.48542, -174.348, 6.37862, 65.5817, 0.157944, 47.9399
1, 1620.00000, 123.054, -31.857, 122.555, -151.274, 124.608, 88.6556, 0, 0, 6.45914, -54.9309, 6.48542, -174.348, 6.37862, 65.5817, 0.157945, 47.9399
1, 1680.00000, 123.054, -31.857, 122.555, -151.274, 124.608, 88.6556, 0, 0, 6.45914, -54.9309, 6.48542, -174.348, 6.37862, 65.5817, 0.157945, 47.9399
1, 1740.00000, 123.054, -31.857, 122.555, -151.274, 124.608, 88.6556, 0, 0, 6.45914, -54.9309, 6.48542, -174.348, 6.37862, 65.5817, 0.157945, 47.9399
1, 1800.00000, 123.054, -31.857, 122.555, -151.274, 124.608, 88.6556, 0, 0, 6.45914, -54.9309, 6.48542, -174.348, 6.37862, 65.5817, 0.157945, 47.9399
1, 1860.00000, 123.054, -31.857, 122.555, -151.274, 124.608, 88.6556, 0, 0, 6.45914, -54.9309, 6.48542, -174.348, 6.37862, 65.5817, 0.157945, 47.9399
1, 1920.00000, 123.054, -31.857, 122.555, -151.274, 124.608, 88.6556, 0, 0, 6.45914, -54.9309, 6.48542, -174.348, 6.37862, 65.5817, 0.157945, 47.9399
1, 1980.00000, 123.054, -31.857, 122.555, -151.274, 124.608, 88.6556, 0, 0, 6.45914, -54.9309, 6.48542, -174.348, 6.37862, 65.5817, 0.157946, 47.9399
1, 2040.00000, 123.054, -31.857, 122.555, -151.274, 124.608, 88.6556, 0, 0, 6.45914, -54.9309, 6.48542, -174.348, 6.37862, 65.5817, 0.157946, 47.9399
1, 2100.00000, 123.054, -31.857, 122.555, -151.274, 124.608, 88.6556, 0, 0, 6.45914, -54.9309, 6.48542, -174.348, 6.37862, 65.5817, 0.157946, 47.9399
1, 2160.00000, 123.054, -31.857, 122.555, -151.274, 124.608, 88.6556, 0, 0, 6.45914, -54.9309, 6.48542, -174.348, 6.37862, 65.5817, 0.157946, 47.9399
1, 2220.00000, 123.054, -31.857, 122.555, -151.274, 124.608, 88.6556, 0, 0, 6.45914, -54.9309, 6.48542, -174.348, 6.37862, 65.5817, 0.157946, 47.9399
1, 2280.00000, 123.054, -31.857, 122.555, -151.274, 124.608, 88.6556, 0, 0, 6.45914, -54.9309, 6.48542, -174.348, 6.37862, 65.5817, 0.157946, 47.9399
1, 2340.00000, 123.054, -31.857, 122.555, -151.274, 124.608, 88.6556, 0, 0, 6.45914, -54.9309, 6.48542, -174.348, 6.37862, 65.5817, 0.157946, 47.9399
1, 2400.00000, 123.054, -31.857, 122.555, -151.274, 124.608, 88.6556, 0, 0, 6.45914, -54.9309, 6.48542, -174.348, 6.37862, 65.5817, 0.157946, 47.9399
1, 2460.00000, 123.054, -31.857, 122.555, -151.274, 124.608, 88.6556, 0, 0, 6.45914, -54.9309, 6.48542, -174.348, 6.37862, 65.5817, 0.157946, 47.9399
1, 2520.00000, 123.054, -31.857, 122.555, -151.274, 124.608, 88.6556, 0, 0, 6.45914, -54.9309, 6.48542, -174.348, 6.37862, 65.5817, 0.157946, 47.9399
1, 2580.00000, 123.054, -31.857, 122.555, -151.274, 124.608, 88.6556, 0, 0, 6.45914, -54.9309, 6.48542, -174.348, 6.37862, 65.5817, 0.157946, 47.9399
1, 2640.00000, 123.054, -31.857, 122.555, -151.274, 124.608, 88.6556, 0, 0, 6.45914, -54.9309, 6.48542, -174.348, 6.37862, 65.5817, 0.157946, 47.9399
1, 2700.00000, 123.054, -31.857, 122.555, -151.274, 124.608, 88.6556, 0, 0, 6.45914, -54.9309, 6.48542, -174.348, 6.37862, 65.5817, 0.157946, 47.9399
1, 2760.00000, 123.054, -31.857, 122.555, -151.274, 124.608, 88.6556, 0, 0, 6.45914, -54.9309, 6.48542, -174.348, 6.37862, 65.5817, 0.157946, 47.9399
1, 2820.00000, 123.054, -31.857, 122.555, -151.274, 124.608, 88.6556, 0, 0, 6.45914, -54.9309, 6.48542, -174.348, 6.37862, 65.5817, 0.157946, 47.9399
1, 2880.00000, 123.054, -31.857, 122.555, -151.274, 124.608, 88.6556, 0, 0, 6.45914, -54.9309, 6.48542, -174.348, 6.37862, 65.5817, 0.157946, 47.9399
1, 2940.00000, 123.054, -31.857, 122.555, -151.274, 124.608, 88.6556, 0, 0, 6.45914, -54.9309, 6.48542, -174.348, 6.37862, 65.5817, 0.157946, 47.9399
1, 3000.00000, 123.054, -31.857, 122.555, -151.274, 124.608, 88.6556, 0, 0, 6.45914, -54.9309, 6.48542, -174.348, 6.37862, 65.5817, 0.157946, 47.9399
1, 3060.00000, 123.054, -31.857, 122.555, -151.274, 124.608, 88.6556, 0, 0, 6.45914, -54.9309, 6.48542, -174.348, 6.37862, 65.5817, 0.157946, 47.9399
1, 3120.00000, 123.054, -31.857, 122.555, -151.274, 124.608, 88.6556, 0, 0, 6.45914, -54.9309, 6.48542, -174.348, 6.37862, 65.5817, 0.157946, 47.9399
1, 3180.00000, 123.054, -31.857, 122.555, -151.274, 124.608, 88.6556, 0, 0, 6.45914, -54.9309, 6.48542, -174.348, 6.37862, 65.5817, 0.157946, 47.9399
1, 3240.00000, 123.054, -31.857, 122.555, -151.274, 124.608, 88.6556, 0, 0, 6.45914, -54.9309, 6.48542, -174.348, 6.37862, 65.5817, 0.157946, 47.9399
1, 3300.00000, 123.054, -31.857, 122.555, -151.274, 124.608, 88.6556, 0, 0, 6.45914, -54.9309, 6.48542, -174.348, 6.37862, 65.5817, 0.157946, 47.9399
1, 3360.00000, 123.054, -31.857, 122.555, -151.274, 124.608, 88.6556, 0, 0, 6.45914, -54.9309, 6.48542, -174.348, 6.37862, 65.5817, 0.157947, 47.9399
1, 3420.00000, 123.054, -31.857, 122.555, -151.274, 124.608, 88.6556, 0, 0, 6.45914, -54.9309, 6.48542, -174.348, 6.37862, 65.5817, 0.157947, 47.9399
1, 3480.00000, 123.054, -31.857, 122.555, -151.274, 124.608, 88.6556, 0, 0, 6.45914, -54.9309, 6.48542, -174.348, 6.37862, 65.5817, 0.157947, 47.9399
1, 3540.00000, 123.054, -31.857, 122.555, -151.274, 124.608, 88.6556, 0, 0, 6.45914, -54.9309, 6.48542, -174.348, 6.37862, 65.5817, 0.157947, 47.9399
2, 0.00000, 123.054, -31.857, 122.555, -151.274, 124.608, 88.6556, 0, 0, 6.45914, -54.9309, 6.48542, -174.348, 6.37862, 65.5817, 0.157947, 47.9399
2, 60.00000, 123.054, -31.857, 122.555, -151.274, 124.608, 88.6556, 0, 0, 6.45914, -54.9309, 6.48542, -174.348, 6.37862, 65.5817, 0.157947, 47.9399
2, 120.00000, 123.054, -31.857, 122.555, -151.274, 124.608, 88.6556, 0, 0, 6.45914, -54.9309, 6.48542, -174.348, 6.37862, 65.5817, 0.157947, 47.9399
2, 180.00000, 123.054, -31.857, 122.555, -151.274, 124.608, 88.6556, 0, 0, 6.45914, -54.9309, 6.48542, -174.348, 6.37862, 65.5817, 0.157947, 47.9399
2, 240.00000, 123.054, -31.857, 122.555, -151.274, 124.608, 88.6556, 0, 0, 6.45914, -54.9309, 6.48542, -174.348, 6.37862, 65.5817, 0.157947, 47.9399
2, 300.00000, 123.054, -31.857, 122.555, -151.274, 124.608, 88.6556, 0, 0, 6.45914, -54.9309, 6.48542, -174.348, 6.37862, 65.5817, 0.157947, 47.9399
2, 360.00000, 123.054, -31.857, 122.555, -151.274, 124.608, 88.6556, 0, 0, 6.45914, -54.9309, 6.48542, -174.348, 6.37862, 65.5817, 0.157947, 47.9399
2, 420.00000, 123.054, -31.857, 122.555, -151.274, 124.608, 88.6556, 0, 0, 6.45914, -54.9309, 6.48542, -174.348, 6.37862, 65.5817, 0.157947, 47.9399
2, 480.00000, 123.054, -31.857, 122.555, -151.274, 124.608, 88.6556, 0, 0, 6.45914, -54.9309, 6.48542, -174.348, 6.37862, 65.5817, 0.157947, 47.9399
2, 540.00000, 123.054, -31.857, 122.555, -151.274, 124.608, 88.6556, 0, 0, 6.45914, -54.9309, 6.48542, -174.348, 6.37862, 65.5817, 0.157947, 47.9399
2, 600.00000, 123.054, -31.857, 122.555, -151.274, 124.608, 88.6556, 0, 0, 6.45914, -54.9309, 6.48542, -174.348, 6.37862, 65.5817, 0.157947, 47.9399
2, 660.00000, 123.054, -31.857, 122.555, -151.274, 124.608, 88.6556, 0, 0, 6.45914, -54.9309, 6.48542, -174.348, 6.37862, 65.5817, 0.157947, 47.9399
2, 720.00000, 123.054, -31.857, 122.555, -151.274, 124.608, 88.6556, 0, 0, 6.45914, -54.9309, 6.48542, -174.348, 6.37862, 65.5817, 0.157947, 47.9399
2, 780.00000, 123.054, -31.857, 122.555, -151.274, 124.608, 88.6556, 0, 0, 6.45914, -54.9309, 6.48542, -174.348, 6.37862, 65.5817, 0.157947, 47.9399
