hour,t(sec),V1,VAngle1,V2,VAngle2,V3,VAngle3,V4,VAngle4,I1,IAngle1,I2,IAngle2,I3,IAngle3,I4,IAngle4
0, 60.00000, 121.537, -31.5363, 121.483, -151.731, 121.584, 88.4364, 0, 0, 10.2152, -54.61, 10.2198, -174.805, 10.2112, 65.3627, 0.0290533, -80.0936
0, 120.00000, 121.537, -31.5363, 121.483, -151.731, 121.584, 88.4364, 0, 0, 10.2153, -54.6102, 10.2199, -174.805, 10.2113, 65.3625, 0.0290265, -80.1025
0, 180.00000, 121.537, -31.5363, 121.483, -151.731, 121.584, 88.4364, 0, 0, 10.2153, -54.6102, 10.2199, -174.805, 10.2113, 65.3624, 0.0290264, -80.1024
0, 240.00000, 121.537, -31.5363, 121.483, -151.731, 121.584, 88.4364, 0, 0, 10.2153, -54.6102, 10.2199, -174.805, 10.2113, 65.3624, 0.0290264, -80.1024
0, 300.00000, 121.537, -31.5363, 121.483, -151.731, 121.584, 88.4364, 0, 0, 10.2153, -54.6102, 10.2199, -174.805, 10.2113, 65.3624, 0.0290264, -80.1024
0, 360.00000, 121.537, -31.5363, 121.483, -151.731, 121.584, 88.4364, 0, 0, 10.2153, -54.6102, 10.2199, -174.805, 10.2113, 65.3624, 0.0290264, -80.1024
0, 420.00000, 121.537, -31.5363, 121.483, -151.731, 121.584, 88.4364, 0, 0, 10.2153, -54.6102, 10.2199, -174.805, 10.2113, 65.3624, 0.0290264, -80.1024
0, 480.00000, 122.238, -31.4119, 122.137, -151.614, 122.217, 88.5748, 0, 0, 8.83643, -54.4862, 8.84373, -174.688, 8.83791, 65.5006, 0.0318273, -75.9395
0, 540.00000, 122.238, -31.4119, 122.137, -151.614, 122.217, 88.5748, 0, 0, 8.83634, -54.4858, 8.84365, -174.688, 8.83785, 65.5009, 0.0318677, -75.9479
0, 600.00000, 122.238, -31.4119, 122.137, -151.614, 122.217, 88.5748, 0, 0, 8.83634, -54.4858, 8.84365, -174.688, 8.83785, 65.5009, 0.0318679, -75.9481
0, 660.00000, 122.238, -31.4119, 122.137, -151.614, 122.217, 88.5748, 0, 0, 8.83634, -54.4858, 8.84365, -174.688, 8.83785, 65.5009, 0.0318679, -75.9481
0, 720.00000, 122.238, -31.4119, 122.137, -151.614, 122.217, 88.5748, 0, 0, 8.83634, -54.4858, 8.84365, -174.688, 8.83785, 65.5009, 0.0318679, -75.9481
0, 780.00000, 122.238, -31.4119, 122.137, -151.614, 122.217, 88.5748, 0, 0, 8.83634, -54.4858, 8.84365, -174.688, 8.83785, 65.5009, 0.0318679, -75.9481
0, 840.00000, 122.238, -31.4119, 122.137, -151.614, 122.217, 88.5748, 0, 0, 8.83634, -54.4858, 8.84365, -174.688, 8.83785, 65.5009, 0.0318679, -75.9481
0, 900.00000, 122.238, -31.4119, 122.137, -151.614, 122.217, 88.5748, 0, 0, 8.83634, -54.4858, 8.84365, -174.688, 8.83785, 65.5009, 0.0318679, -75.9481
0, 960.00000, 121.909, -31.6067, 121.609, -151.584, 122.257, 88.5666, 0, 0, 8.86022, -54.6806, 8.882, -174.658, 8.83501, 65.4927, 0.0587693, 17.0614
0, 1020.00000, 121.909, -31.6067, 121.609, -151.584, 122.257, 88.5666, 0, 0, 8.86024, -54.6806, 8.88205, -174.658, 8.835, 65.4927, 0.0588271, 17.0718
0, 1080.00000, 121.909, -31.6067, 121.609, -151.584, 122.257, 88.5666, 0, 0, 8.86024, -54.6806, 8.88205, -174.658, 8.835, 65.4927, 0.0588273, 17.0718
0, 1140.00000, 121.909, -31.6067, 121.609, -151.584, 122.257, 88.5666, 0, 0, 8.86024, -54.6806, 8.88205, -174.658, 8.835, 65.4927, 0.0588273, 17.0718
0, 1200.00000, 121.909, -31.6067, 121.609, -151.584, 122.257, 88.5666, 0, 0, 8.86024, -54.6806, 8.88205, -174.658, 8.835, 65.4927, 0.0588273, 17.0718
0, 1260.00000, 121.909, -31.6067, 121.609, -151.584, 122.257, 88.5666, 0, 0, 8.86024, -54.6806, 8.88205, -174.658, 8.835, 65.4927, 0.0588273, 17.0718
0, 1320.00000, 121.909, -31.6067, 121.609, -151.584, 122.257, 88.5666, 0, 0, 8.86024, -54.6806, 8.88205, -174.658, 8.835, 65.4927, 0.0588273, 17.0718
0, 1380.00000, 121.909, -31.6067, 121.609, -151.584, 122.257, 88.5666, 0, 0, 8.86024, -54.6806, 8.88205, -174.658, 8.835, 65.4927, 0.0588273, 17.0718
0, 1440.00000, 121.909, -31.6067, 121.609, -151.584, 122.257, 88.5666, 0, 0, 8.86024, -54.6806, 8.88205, -174.658, 8.835, 65.4927, 0.0588273, 17.0718
0, 1500.00000, 121.909, -31.6067, 121.609, -151.584, 122.257, 88.5666, 0, 0, 8.86024, -54.6806, 8.88205, -174.658, 8.835, 65.4927, 0.0588273, 17.0718
0, 1560.00000, 121.909, -31.6067, 121.609, -151.584, 122.257, 88.5666, 0, 0, 8.86024, -54.6806, 8.88205, -174.658, 8.835, 65.4927, 0.0588273, 17.0718
0, 1620.00000, 121.909, -31.6067, 121.609, -151.584, 122.257, 88.5666, 0, 0, 8.86024, -54.6806, 8.88205, -174.658, 8.835, 65.4927, 0.0588273, 17.0718
0, 1680.00000, 121.909, -31.6067, 121.609, -151.584, 122.257, 88.5666, 0, 0, 8.86024, -54.6806, 8.88205, -174.658, 8.835, 65.4927, 0.0588273, 17.0718
0, 1740.00000, 121.909, -31.6067, 121.609, -151.584, 122.257, 88.5666, 0, 0, 8.86024, -54.6806, 8.88205, -174.658, 8.835, 65.4927, 0.0588273, 17.0718
0, 1800.00000, 121.909, -31.6067, 121.609, -151.584, 122.257, 88.5666, 0, 0, 8.86024, -54.6806, 8.88205, -174.658, 8.835, 65.4927, 0.0588273, 17.0718
0, 1860.00000, 121.909, -31.6067, 121.609, -151.584, 122.257, 88.5666, 0, 0, 8.86024, -54.6806, 8.88205, -174.658, 8.835, 65.4927, 0.0588273, 17.0718
0, 1920.00000, 121.909, -31.6067, 121.609, -151.584, 122.257, 88.5666, 0, 0, 8.86024, -54.6806, 8.88205, -174.658, 8.835, 65.4927, 0.0588273, 17.0718
0, 1980.00000, 121.909, -31.6067, 121.609, -151.584, 122.257, 88.5666, 0, 0, 8.86024, -54.6806, 8.88205, -174.658, 8.835, 65.4927, 0.0588273, 17.0718
0, 2040.00000, 121.909, -31.6067, 121.609, -151.584, 122.257, 88.5666, 0, 0, 8.86024, -54.6806, 8.88205, -174.658, 8.835, 65.4927, 0.0588273, 17.0718
0, 2100.00000, 121.909, -31.6067, 121.609, -151.584, 122.257, 88.5666, 0, 0, 8.86024, -54.6806, 8.88205, -174.658, 8.835, 65.4927, 0.0588273, 17.0718
0, 2160.00000, 121.909, -31.6067, 121.609, -151.584, 122.257, 88.5666, 0, 0, 8.86024, -54.6806, 8.88205, -174.658, 8.835, 65.4927, 0.0588273, 17.0718
0, 2220.00000, 121.909, -31.6067, 121.609, -151.584, 122.257, 88.5666, 0, 0, 8.86024, -54.6806, 8.88205, -174.658, 8.835, 65.4927, 0.0588273, 17.0718
0, 2280.00000, 121.909, -31.6067, 121.609, -151.584, 122.257, 88.5666, 0, 0, 8.86024, -54.6806, 8.88205, -174.658, 8.835, 65.4927, 0.0588273, 17.0718
0, 2340.00000, 121.909, -31.6067, 121.609, -151.584, 122.257, 88.5666, 0, 0, 8.86024, -54.6806, 8.88205, -174.658, 8.835, 65.4927, 0.0588273, 17.0718
0, 2400.00000, 121.909, -31.6067, 121.609, -151.584, 122.257, 88.5666, 0, 0, 8.86024, -54.6806, 8.88205, -174.658, 8.835, 65.4927, 0.0588273, 17.0718
0, 2460.00000, 121.909, -31.6067, 121.609, -151.584, 122.257, 88.5666, 0, 0, 8.86024, -54.6806, 8.88205, -174.658, 8.835, 65.4927, 0.0588273, 17.0718
0, 2520.00000, 121.909, -31.6067, 121.609, -151.584, 122.257, 88.5666, 0, 0, 8.86024, -54.6806, 8.88205, -174.658, 8.835, 65.4927, 0.0588273, 17.0718
0, 2580.00000, 121.909, -31.6067, 121.609, -151.584, 122.257, 88.5666, 0, 0, 8.86024, -54.6806, 8.88205, -174.658, 8.835, 65.4927, 0.0588273, 17.0718
0, 2640.00000, 121.909, -31.6067, 121.609, -151.584, 122.257, 88.5666, 0, 0, 8.86024, -54.6806, 8.88205, -174.658, 8.835, 65.4927, 0.0588273, 17.0718
0, 2700.00000, 121.909, -31.6067, 121.609, -151.584, 122.257, 88.5666, 0, 0, 8.86024, -54.6806, 8.88205, -174.658, 8.835, 65.4927, 0.0588273, 17.0718
0, 2760.00000, 122.007, -31.4736, 121.914, -151.551, 122.252, 88.568, 0, 0, 8.85317, -54.5476, 8.85994, -174.626, 8.83533, 65.4941, 0.0212588, 5.9069
0, 2820.00000, 122.007, -31.4736, 121.914, -151.551, 122.252, 88.568, 0, 0, 8.85313, -54.5475, 8.85987, -174.625, 8.83535, 65.4941, 0.0211783, 5.86433
0, 2880.00000, 122.007, -31.4736, 121.914, -151.551, 122.252, 88.568, 0, 0, 8.85313, -54.5475, 8.85987, -174.625, 8.83535, 65.4941, 0.0211779, 5.86404
0, 2940.00000, 122.007, -31.4736, 121.914, -151.551, 122.252, 88.568, 0, 0, 8.85313, -54.5475, 8.85987, -174.625, 8.83535, 65.4941, 0.0211779, 5.86404
0, 3000.00000, 122.007, -31.4736, 121.914, -151.551, 122.252, 88.568, 0, 0, 8.85313, -54.5475, 8.85987, -174.625, 8.83535, 65.4941, 0.0211779, 5.86404
0, 3060.00000, 122.007, -31.4736, 121.914, -151.551, 122.252, 88.568, 0, 0, 8.85313, -54.5475, 8.85987, -174.625, 8.83535, 65.4941, 0.0211779, 5.86404
0, 3120.00000, 122.007, -31.4736, 121.914, -151.551, 122.252, 88.568, 0, 0, 8.85313, -54.5475, 8.85987, -174.625, 8.83535, 65.4941, 0.0211779, 5.86404
0, 3180.00000, 122.007, -31.4736, 121.914, -151.551, 122.252, 88.568, 0, 0, 8.85313, -54.5475, 8.85987, -174.625, 8.83535, 65.4941, 0.0211779, 5.86404
0, 3240.00000, 122.007, -31.4736, 121.914, -151.551, 122.252, 88.568, 0, 0, 8.85313, -54.5475, 8.85987, -174.625, 8.83535, 65.4941, 0.0211779, 5.86404
0, 3300.00000, 122.007, -31.4736, 121.914, -151.551, 122.252, 88.568, 0, 0, 8.85313, -54.5475, 8.85987, -174.625, 8.83535, 65.4941, 0.0211779, 5.86404
0, 3360.00000, 122.007, -31.4736, 121.914, -151.551, 122.252, 88.568, 0, 0, 8.85313, -54.5475, 8.85987, -174.625, 8.83535, 65.4941, 0.0211779, 5.86404
0, 3420.00000, 122.007, -31.4736, 121.914, -151.551, 122.252, 88.568, 0, 0, 8.85313, -54.5475, 8.85987, -174.625, 8.83535, 65.4941, 0.0211779, 5.86404
0, 3480.00000, 122.007, -31.4736, 121.914, -151.551, 122.252, 88.568, 0, 0, 8.85313, -54.5475, 8.85987, -174.625, 8.83535, 65.4941, 0.0211779, 5.86404
0, 3540.00000, 122.007, -31.4736, 121.914, -151.551, 122.252, 88.568, 0, 0, 8.85313, -54.5475, 8.85987, -174.625, 8.83535, 65.4941, 0.0211779, 5.86404
1, 0.00000, 122.007, -31.4736, 121.914, -151.551, 122.252, 88.568, 0, 0, 8.85313, -54.5475, 8.85987, -174.625, 8.83535, 65.4941, 0.0211779, 5.86404
1, 60.00000, 122.302, -31.4396, 121.913, -151.551, 122.343, 88.6979, 0, 0, 8.8318, -54.5138, 8.85992, -174.625, 8.8288, 65.6239, 0.0542003, -22.2123
1, 120.00000, 122.302, -31.4396, 121.913, -151.551, 122.343, 88.6979, 0, 0, 8.83172, -54.5135, 8.85993, -174.625, 8.82877, 65.624, 0.0542734, -22.2687
1, 180.00000, 122.302, -31.4396, 121.913, -151.551, 122.343, 88.6979, 0, 0, 8.83172, -54.5135, 8.85993, -174.625, 8.82877, 65.624, 0.0542737, -22.2689
1, 240.00000, 122.302, -31.4396, 121.913, -151.551, 122.343, 88.6979, 0, 0, 8.83172, -54.5135, 8.85993, -174.625, 8.82877, 65.624, 0.0542737, -22.2689
1, 300.00000, 122.302, -31.4396, 121.913, -151.551, 122.343, 88.6979, 0, 0, 8.83172, -54.5135, 8.85993, -174.625, 8.82877, 65.624, 0.0542737, -22.2689
1, 360.00000, 122.302, -31.4396, 121.913, -151.551, 122.343, 88.6979, 0, 0, 8.83172, -54.5135, 8.85993, -174.625, 8.82877, 65.624, 0.0542737, -22.2689
1, 420.00000, 122.302, -31.4396, 121.913, -151.551, 122.343, 88.6979, 0, 0, 8.83172, -54.5135, 8.85993, -174.625, 8.82877, 65.624, 0.0542737, -22.2689
1, 480.00000, 122.302, -31.4396, 121.913, -151.551, 122.343, 88.6979, 0, 0, 8.83172, -54.5135, 8.85993, -174.625, 8.82877, 65.624, 0.0542737, -22.2689
1, 540.00000, 122.302, -31.4396, 121.913, -151.551, 122.343, 88.6979, 0, 0, 8.83172, -54.5135, 8.85993, -174.625, 8.82877, 65.624, 0.0542737, -22.2689
1, 600.00000, 122.302, -31.4396, 121.913, -151.551, 122.343, 88.6979, 0, 0, 8.83172, -54.5135, 8.85993, -174.625, 8.82877, 65.624, 0.0542737, -22.2689
1, 660.00000, 122.302, -31.4396, 121.913, -151.551, 122.343, 88.6979, 0, 0, 8.83172, -54.5135, 8.85993, -174.625, 8.82877, 65.624, 0.0542737, -22.2689
1, 720.00000, 122.302, -31.4396, 121.913, -151.551, 122.343, 88.6979, 0, 0, 8.83172, -54.5135, 8.85993, -174.625, 8.82877, 65.624, 0.0542737, -22.2689
1, 780.00000, 122.302, -31.4396, 121.913, -151.551, 122.343, 88.6979, 0, 0, 8.83172, -54.5135, 8.85993, -174.625, 8.82877, 65.624, 0.0542737, -22.2689
1, 840.00000, 122.302, -31.4396, 121.913, -151.551, 122.343, 88.6979, 0, 0, 8.83172, -54.5135, 8.85993, -174.625, 8.82877, 65.624, 0.0542737, -22.2689
1, 900.00000, 122.302, -31.4396, 121.913, -151.551, 122.343, 88.6979, 0, 0, 8.83172, -54.5135, 8.85993, -174.625, 8.82877, 65.624, 0.0542737, -22.2689
1, 960.00000, 122.302, -31.4396, 121.913, -151.551, 122.343, 88.6979, 0, 0, 8.83172, -54.5135, 8.85993, -174.625, 8.82877, 65.624, 0.0542737, -22.2689
1, 1020.00000, 122.302, -31.4396, 121.913, -151.551, 122.343, 88.6979, 0, 0, 8.83172, -54.5135, 8.85993, -174.625, 8.82877, 65.624, 0.0542737, -22.2689
1, 1080.00000, 122.302, -31.4396, 121.913, -151.551, 122.343, 88.6979, 0, 0, 8.83172, -54.5135, 8.85993, -174.625, 8.82877, 65.624, 0.0542737, -22.2689
1, 1140.00000, 122.302, -31.4396, 121.913, -151.551, 122.343, 88.6979, 0, 0, 8.83172, -54.5135, 8.85993, -174.625, 8.82877, 65.624, 0.0542737, -22.2689
1, 1200.00000, 122.302, -31.4396, 121.913, -151.551, 122.343, 88.6979, 0, 0, 8.83172, -54.5135, 8.85993, -174.625, 8.82877, 65.624, 0.0542737, -22.2689
1, 1260.00000, 122.302, -31.4396, 121.913, -151.551, 122.343, 88.6979, 0, 0, 8.83172, -54.5135, 8.85993, -174.625, 8.82877, 65.624, 0.0542737, -22.2689
1, 1320.00000, 122.302, -31.4396, 121.913, -151.551, 122.343, 88.6979, 0, 0, 8.83172, -54.5135, 8.85993, -174.625, 8.82877, 65.624, 0.0542737, -22.2689
1, 1380.00000, 122.302, -31.4396, 121.913, -151.551, 122.343, 88.6979, 0, 0, 8.83172, -54.5135, 8.85993, -174.625, 8.82877, 65.624, 0.0542737, -22.2689
1, 1440.00000, 122.302, -31.4396, 121.913, -151.551, 122.343, 88.6979, 0, 0, 8.83172, -54.5135, 8.85993, -174.625, 8.82877, 65.624, 0.0542737, -22.2689
1, 1500.00000, 122.302, -31.4396, 121.913, -151.551, 122.343, 88.6979, 0, 0, 8.83172, -54.5135, 8.85993, -174.625, 8.82877, 65.624, 0.0542737, -22.2689
1, 1560.00000, 122.302, -31.4396, 121.913, -151.551, 122.343, 88.6979, 0, 0, 8.83172, -54.5135, 8.85993, -174.625, 8.82877, 65.624, 0.0542737, -22.2689
1, 1620.00000, 122.302, -31.4396, 121.913, -151.551, 122.343, 88.6979, 0, 0, 8.83172, -54.5135, 8.85993, -174.625, 8.82877, 65.624, 0.0542737, -22.2689
1, 1680.00000, 122.302, -31.4396, 121.913, -151.551, 122.343, 88.6979, 0, 0, 8.83172, -54.5135, 8.85993, -174.625, 8.82877, 65.624, 0.0542737, -22.2689
1, 1740.00000, 122.302, -31.4396, 121.913, -151.551, 122.343, 88.6979, 0, 0, 8.83172, -54.5135, 8.85993, -174.625, 8.82877, 65.624, 0.0542737, -22.2689
1, 1800.00000, 122.302, -31.4396, 121.913, -151.551, 122.343, 88.6979, 0, 0, 8.83172, -54.5135, 8.85993, -174.625, 8.82877, 65.624, 0.0542737, -22.2689
1, 1860.00000, 122.302, -31.4396, 121.913, -151.551, 122.343, 88.6979, 0, 0, 8.83172, -54.5135, 8.85993, -174.625, 8.82877, 65.624, 0.0542737, -22.2689
1, 1920.00000, 122.302, -31.4396, 121.913, -151.551, 122.343, 88.6979, 0, 0, 8.83172, -54.5135, 8.85993, -174.625, 8.82877, 65.624, 0.0542737, -22.2689
1, 1980.00000, 122.302, -31.4396, 121.913, -151.551, 122.343, 88.6979, 0, 0, 8.83172, -54.5135, 8.85993, -174.625, 8.82877, 65.624, 0.0542737, -22.2689
1, 2040.00000, 122.302, -31.4396, 121.913, -151.551, 122.343, 88.6979, 0, 0, 8.83172, -54.5135, 8.85993, -174.625, 8.82877, 65.624, 0.0542737, -22.2689
1, 2100.00000, 122.302, -31.4396, 121.913, -151.551, 122.343, 88.6979, 0, 0, 8.83172, -54.5135, 8.85993, -174.625, 8.82877, 65.624, 0.0542737, -22.2689
1, 2160.00000, 122.302, -31.4396, 121.913, -151.551, 122.343, 88.6979, 0, 0, 8.83172, -54.5135, 8.85993, -174.625, 8.82877, 65.624, 0.0542737, -22.2689
1, 2220.00000, 122.302, -31.4396, 121.913, -151.551, 122.343, 88.6979, 0, 0, 8.83172, -54.5135, 8.85993, -174.625, 8.82877, 65.624, 0.0542737, -22.2689
1, 2280.00000, 122.302, -31.4396, 121.913, -151.551, 122.343, 88.6979, 0, 0, 8.83172, -54.5135, 8.85993, -174.625, 8.82877, 65.624, 0.0542737, -22.2689
1, 2340.00000, 122.302, -31.4396, 121.913, -151.551, 122.343, 88.6979, 0, 0, 8.83172, -54.5135, 8.85993, -174.625, 8.82877, 65.624, 0.0542737, -22.2689
1, 2400.00000, 122.302, -31.4396, 121.913, -151.551, 122.343, 88.6979, 0, 0, 8.83172, -54.5135, 8.85993, -174.625, 8.82877, 65.624, 0.0542737, -22.2689
1, 2460.00000, 122.302, -31.4396, 121.913, -151.551, 122.343, 88.6979, 0, 0, 8.83172, -54.5135, 8.85993, -174.625, 8.82877, 65.624, 0.0542737, -22.2689
1, 2520.00000, 122.302, -31.4396, 121.913, -151.551, 122.343, 88.6979, 0, 0, 8.83172, -54.5135, 8.85993, -174.625, 8.82877, 65.624, 0.0542737, -22.2689
1, 2580.00000, 122.302, -31.4396, 121.913, -151.551, 122.343, 88.6979, 0, 0, 8.83172, -54.5135, 8.85993, -174.625, 8.82877, 65.624, 0.0542737, -22.2689
1, 2640.00000, 122.302, -31.4396, 121.913, -151.551, 122.343, 88.6979, 0, 0, 8.83172, -54.5135, 8.85993, -174.625, 8.82877, 65.624, 0.0542737, -22.2689
1, 2700.00000, 122.302, -31.4396, 121.913, -151.551, 122.343, 88.6979, 0, 0, 8.83172, -54.5135, 8.85993, -174.625, 8.82877, 65.624, 0.0542737, -22.2689
1, 2760.00000, 122.302, -31.4396, 121.913, -151.551, 122.343, 88.6979, 0, 0, 8.83172, -54.5135, 8.85993, -174.625, 8.82877, 65.624, 0.0542737, -22.2689
1, 2820.00000, 122.302, -31.4396, 121.913, -151.551, 122.343, 88.6979, 0, 0, 8.83172, -54.5135, 8.85993, -174.625, 8.82877, 65.624, 0.0542737, -22.2689
1, 2880.00000, 122.302, -31.4396, 121.913, -151.551, 122.343, 88.6979, 0, 0, 8.83172, -54.5135, 8.85993, -174.625, 8.82877, 65.624, 0.0542737, -22.2689
1, 2940.00000, 122.302, -31.4396, 121.913, -151.551, 122.343, 88.6979, 0, 0, 8.83172, -54.5135, 8.85993, -174.625, 8.82877, 65.624, 0.0542737, -22.2689
1, 3000.00000, 122.302, -31.4396, 121.913, -151.551, 122.343, 88.6979, 0, 0, 8.83172, -54.5135, 8.85993, -174.625, 8.82877, 65.624, 0.0542737, -22.2689
1, 3060.00000, 122.302, -31.4396, 121.913, -151.551, 122.343, 88.6979, 0, 0, 8.83172, -54.5135, 8.85993, -174.625, 8.82877, 65.624, 0.0542737, -22.2689
1, 3120.00000, 122.302, -31.4396, 121.913, -151.551, 122.343, 88.6979, 0, 0, 8.83172, -54.5135, 8.85993, -174.625, 8.82877, 65.624, 0.0542737, -22.2689
1, 3180.00000, 122.302, -31.4396, 121.913, -151.551, 122.343, 88.6979, 0, 0, 8.83172, -54.5135, 8.85993, -174.625, 8.82877, 65.624, 0.0542737, -22.2689
1, 3240.00000, 122.302, -31.4396, 121.913, -151.551, 122.343, 88.6979, 0, 0, 8.83172, -54.5135, 8.85993, -174.625, 8.82877, 65.624, 0.0542737, -22.2689
1, 3300.00000, 122.302, -31.4396, 121.913, -151.551, 122.343, 88.6979, 0, 0, 8.83172, -54.5135, 8.85993, -174.625, 8.82877, 65.624, 0.0542737, -22.2689
1, 3360.00000, 122.302, -31.4396, 121.913, -151.551, 122.343, 88.6979, 0, 0, 8.83172, -54.5135, 8.85993, -174.625, 8.82877, 65.624, 0.0542737, -22.2689
1, 3420.00000, 122.302, -31.4396, 121.913, -151.551, 122.343, 88.6979, 0, 0, 8.83172, -54.5135, 8.85993, -174.625, 8.82877, 65.624, 0.0542737, -22.2689
1, 3480.00000, 122.302, -31.4396, 121.913, -151.551, 122.343, 88.6979, 0, 0, 8.83172, -54.5135, 8.85993, -174.625, 8.82877, 65.624, 0.0542737, -22.2689
1, 3540.00000, 122.302, -31.4396, 121.913, -151.551, 122.343, 88.6979, 0, 0, 8.83172, -54.5135, 8.85993, -174.625, 8.82877, 65.624, 0.0542737, -22.2689
2, 0.00000, 122.302, -31.4396, 121.913, -151.551, 122.343, 88.6979, 0, 0, 8.83172, -54.5135, 8.85993, -174.625, 8.82877, 65.624, 0.0542737, -22.2689
2, 60.00000, 122.302, -31.4396, 121.913, -151.551, 122.343, 88.6979, 0, 0, 8.83172, -54.5135, 8.85993, -174.625, 8.82877, 65.624, 0.0542737, -22.2689
2, 120.00000, 122.302, -31.4396, 121.913, -151.551, 122.343, 88.6979, 0, 0, 8.83172, -54.5135, 8.85993, -174.625, 8.82877, 65.624, 0.0542737, -22.2689
2, 180.00000, 122.302, -31.4396, 121.913, -151.551, 122.343, 88.6979, 0, 0, 8.83172, -54.5135, 8.85993, -174.625, 8.82877, 65.624, 0.0542737, -22.2689
2, 240.00000, 122.302, -31.4396, 121.913, -151.551, 122.343, 88.6979, 0, 0, 8.83172, -54.5135, 8.85993, -174.625, 8.82877, 65.624, 0.0542737, -22.2689
2, 300.00000, 122.302, -31.4396, 121.913, -151.551, 122.343, 88.6979, 0, 0, 8.83172, -54.5135, 8.85993, -174.625, 8.82877, 65.624, 0.0542737, -22.2689
2, 360.00000, 122.302, -31.4396, 121.913, -151.551, 122.343, 88.6979, 0, 0, 8.83172, -54.5135, 8.85993, -174.625, 8.82877, 65.624, 0.0542737, -22.2689
2, 420.00000, 122.302, -31.4396, 121.913, -151.551, 122.343, 88.6979, 0, 0, 8.83172, -54.5135, 8.85993, -174.625, 8.82877, 65.624, 0.0542737, -22.2689
2, 480.00000, 122.302, -31.4396, 121.913, -151.551, 122.343, 88.6979, 0, 0, 8.83172, -54.5135, 8.85993, -174.625, 8.82877, 65.624, 0.0542737, -22.2689
2, 540.00000, 122.302, -31.4396, 121.913, -151.551, 122.343, 88.6979, 0, 0, 8.83172, -54.5135, 8.85993, -174.625, 8.82877, 65.624, 0.0542737, -22.2689
2, 600.00000, 122.302, -31.4396, 121.913, -151.551, 122.343, 88.6979, 0, 0, 8.83172, -54.5135, 8.85993, -174.625, 8.82877, 65.624, 0.0542737, -22.2689
2, 660.00000, 122.302, -31.4396, 121.913, -151.551, 122.343, 88.6979, 0, 0, 8.83172, -54.5135, 8.85993, -174.625, 8.82877, 65.624, 0.0542737, -22.2689
