hour,t(sec),V1,VAngle1,V2,VAngle2,V3,VAngle3,V4,VAngle4,I1,IAngle1,I2,IAngle2,I3,IAngle3,I4,IAngle4
0, 60.00000, 116.744, -31.1783, 116.788, -151.566, 116.441, 88.8234, 0, 0, 7.01319, -54.2519, 7.01618, -174.64, 6.99296, 65.7497, 0.0328303, -60.7207
0, 120.00000, 116.744, -31.1783, 116.788, -151.566, 116.441, 88.8234, 0, 0, 7.01315, -54.2522, 7.01612, -174.64, 6.99292, 65.7495, 0.0328231, -60.7245
0, 180.00000, 116.744, -31.1783, 116.788, -151.566, 116.441, 88.8234, 0, 0, 7.01315, -54.2522, 7.01612, -174.64, 6.99291, 65.7495, 0.032823, -60.7245
0, 240.00000, 116.744, -31.1783, 116.788, -151.566, 116.441, 88.8234, 0, 0, 7.01315, -54.2522, 7.01612, -174.64, 6.99291, 65.7495, 0.032823, -60.7245
0, 300.00000, 116.744, -31.1783, 116.788, -151.566, 116.441, 88.8234, 0, 0, 7.01315, -54.2522, 7.01612, -174.64, 6.99291, 65.7495, 0.032823, -60.7245
0, 360.00000, 116.744, -31.1783, 116.788, -151.566, 116.441, 88.8234, 0, 0, 7.01315, -54.2522, 7.01612, -174.64, 6.99291, 65.7495, 0.032823, -60.7245
0, 420.00000, 116.744, -31.1783, 116.788, -151.566, 116.441, 88.8234, 0, 0, 7.01315, -54.2522, 7.01612, -174.64, 6.99291, 65.7495, 0.032823, -60.7245
0, 480.00000, 117.774, -31.0849, 117.756, -151.486, 117.389, 88.9253, 0, 0, 6.16134, -54.1591, 6.16028, -174.56, 6.13893, 65.8511, 0.0265873, -59.8438
0, 540.00000, 117.774, -31.0848, 117.756, -151.486, 117.389, 88.9253, 0, 0, 6.16138, -54.1588, 6.16033, -174.56, 6.13898, 65.8514, 0.0265902, -59.862
0, 600.00000, 117.774, -31.0848, 117.756, -151.486, 117.389, 88.9253, 0, 0, 6.16138, -54.1588, 6.16033, -174.56, 6.13898, 65.8514, 0.0265902, -59.862
0, 660.00000, 117.774, -31.0848, 117.756, -151.486, 117.389, 88.9253, 0, 0, 6.16138, -54.1588, 6.16033, -174.56, 6.13898, 65.8514, 0.0265902, -59.862
0, 720.00000, 117.774, -31.0848, 117.756, -151.486, 117.389, 88.9253, 0, 0, 6.16138, -54.1588, 6.16033, -174.56, 6.13898, 65.8514, 0.0265902, -59.862
0, 780.00000, 117.774, -31.0848, 117.756, -151.486, 117.389, 88.9253, 0, 0, 6.16138, -54.1588, 6.16033, -174.56, 6.13898, 65.8514, 0.0265902, -59.862
0, 840.00000, 117.774, -31.0848, 117.756, -151.486, 117.389, 88.9253, 0, 0, 6.16138, -54.1588, 6.16033, -174.56, 6.13898, 65.8514, 0.0265902, -59.862
0, 900.00000, 117.774, -31.0848, 117.756, -151.486, 117.389, 88.9253, 0, 0, 6.16138, -54.1588, 6.16033, -174.56, 6.13898, 65.8514, 0.0265902, -59.862
0, 960.00000, 117.459, -31.1146, 117.451, -151.68, 116.795, 88.8205, 0, 0, 6.14312, -54.1881, 6.1426, -174.754, 6.10449, 65.7469, 0.0268261, -56.417
0, 1020.00000, 117.459, -31.1147, 117.451, -151.68, 116.794, 88.8205, 0, 0, 6.14305, -54.1886, 6.14258, -174.754, 6.10441, 65.7465, 0.0268296, -56.2759
0, 1080.00000, 117.459, -31.1147, 117.451, -151.68, 116.794, 88.8205, 0, 0, 6.14305, -54.1886, 6.14258, -174.754, 6.10441, 65.7465, 0.0268296, -56.2753
0, 1140.00000, 117.745, -31.0793, 117.453, -151.68, 116.883, 88.9524, 0, 0, 6.15962, -54.1535, 6.14272, -174.754, 6.10952, 65.8784, 0.0251089, -58.7856
0, 1200.00000, 117.745, -31.0792, 117.453, -151.68, 116.883, 88.9524, 0, 0, 6.15967, -54.1531, 6.14273, -174.754, 6.10955, 65.8785, 0.0250893, -58.8948
0, 1260.00000, 117.745, -31.0792, 117.453, -151.68, 116.883, 88.9524, 0, 0, 6.15967, -54.1531, 6.14273, -174.754, 6.10955, 65.8785, 0.0250892, -58.8952
0, 1320.00000, 117.745, -31.0792, 117.453, -151.68, 116.883, 88.9524, 0, 0, 6.15967, -54.1531, 6.14273, -174.754, 6.10955, 65.8785, 0.0250892, -58.8952
0, 1380.00000, 117.745, -31.0792, 117.453, -151.68, 116.883, 88.9524, 0, 0, 6.15967, -54.1531, 6.14273, -174.754, 6.10955, 65.8785, 0.0250892, -58.8952
0, 1440.00000, 117.745, -31.0792, 117.453, -151.68, 116.883, 88.9524, 0, 0, 6.15967, -54.1531, 6.14273, -174.754, 6.10955, 65.8785, 0.0250892, -58.8952
0, 1500.00000, 117.745, -31.0792, 117.453, -151.68, 116.883, 88.9524, 0, 0, 6.15967, -54.1531, 6.14273, -174.754, 6.10955, 65.8785, 0.0250892, -58.8952
0, 1560.00000, 117.745, -31.0792, 117.453, -151.68, 116.883, 88.9524, 0, 0, 6.15967, -54.1531, 6.14273, -174.754, 6.10955, 65.8785, 0.0250892, -58.8952
0, 1620.00000, 117.745, -31.0792, 117.453, -151.68, 116.883, 88.9524, 0, 0, 6.15967, -54.1531, 6.14273, -174.754, 6.10955, 65.8785, 0.0250892, -58.8952
0, 1680.00000, 117.745, -31.0792, 117.453, -151.68, 116.883, 88.9524, 0, 0, 6.15967, -54.1531, 6.14273, -174.754, 6.10955, 65.8785, 0.0250892, -58.8952
0, 1740.00000, 117.745, -31.0792, 117.453, -151.68, 116.883, 88.9524, 0, 0, 6.15967, -54.1531, 6.14273, -174.754, 6.10955, 65.8785, 0.0250892, -58.8952
0, 1800.00000, 117.395, -31.2848, 116.911, -151.642, 116.921, 88.9443, 0, 0, 6.13933, -54.3586, 6.11121, -174.715, 6.11178, 65.8703, 0.0272085, -70.0869
0, 1860.00000, 117.395, -31.2848, 116.911, -151.642, 116.921, 88.9443, 0, 0, 6.13931, -54.3587, 6.11118, -174.716, 6.11178, 65.8704, 0.0272282, -70.1125
0, 1920.00000, 117.395, -31.2848, 116.911, -151.642, 116.921, 88.9443, 0, 0, 6.13931, -54.3587, 6.11118, -174.716, 6.11178, 65.8704, 0.0272283, -70.1126
0, 1980.00000, 117.395, -31.2848, 116.911, -151.642, 116.921, 88.9443, 0, 0, 6.13931, -54.3587, 6.11118, -174.716, 6.11178, 65.8704, 0.0272283, -70.1126
0, 2040.00000, 117.395, -31.2848, 116.911, -151.642, 116.921, 88.9443, 0, 0, 6.13931, -54.3587, 6.11118, -174.716, 6.11178, 65.8704, 0.0272283, -70.1126
0, 2100.00000, 117.395, -31.2848, 116.911, -151.642, 116.921, 88.9443, 0, 0, 6.13931, -54.3587, 6.11118, -174.716, 6.11178, 65.8704, 0.0272283, -70.1126
0, 2160.00000, 117.395, -31.2848, 116.911, -151.642, 116.921, 88.9443, 0, 0, 6.13931, -54.3587, 6.11118, -174.716, 6.11178, 65.8704, 0.0272283, -70.1126
0, 2220.00000, 117.395, -31.2848, 116.911, -151.642, 116.921, 88.9443, 0, 0, 6.13931, -54.3587, 6.11118, -174.716, 6.11178, 65.8704, 0.0272283, -70.1126
0, 2280.00000, 117.395, -31.2848, 116.911, -151.642, 116.921, 88.9443, 0, 0, 6.13931, -54.3587, 6.11118, -174.716, 6.11178, 65.8704, 0.0272283, -70.1126
0, 2340.00000, 117.395, -31.2848, 116.911, -151.642, 116.921, 88.9443, 0, 0, 6.13931, -54.3587, 6.11118, -174.716, 6.11178, 65.8704, 0.0272283, -70.1126
0, 2400.00000, 117.395, -31.2848, 116.911, -151.642, 116.921, 88.9443, 0, 0, 6.13931, -54.3587, 6.11118, -174.716, 6.11178, 65.8704, 0.0272283, -70.1126
0, 2460.00000, 117.395, -31.2848, 116.911, -151.642, 116.921, 88.9443, 0, 0, 6.13931, -54.3587, 6.11118, -174.716, 6.11178, 65.8704, 0.0272283, -70.1126
0, 2520.00000, 117.395, -31.2848, 116.911, -151.642, 116.921, 88.9443, 0, 0, 6.13931, -54.3587, 6.11118, -174.716, 6.11178, 65.8704, 0.0272283, -70.1126
0, 2580.00000, 117.395, -31.2848, 116.911, -151.642, 116.921, 88.9443, 0, 0, 6.13931, -54.3587, 6.11118, -174.716, 6.11178, 65.8704, 0.0272283, -70.1126
0, 2640.00000, 117.395, -31.2848, 116.911, -151.642, 116.921, 88.9443, 0, 0, 6.13931, -54.3587, 6.11118, -174.716, 6.11178, 65.8704, 0.0272283, -70.1126
0, 2700.00000, 117.395, -31.2848, 116.911, -151.642, 116.921, 88.9443, 0, 0, 6.13931, -54.3587, 6.11118, -174.716, 6.11178, 65.8704, 0.0272283, -70.1126
0, 2760.00000, 117.492, -31.1501, 117.203, -151.609, 116.918, 88.9461, 0, 0, 6.14494, -54.2242, 6.1281, -174.684, 6.11159, 65.8721, 0.026775, -65.6349
0, 2820.00000, 117.492, -31.1501, 117.203, -151.609, 116.918, 88.9461, 0, 0, 6.14497, -54.224, 6.12815, -174.683, 6.11158, 65.8721, 0.0267337, -65.5473
0, 2880.00000, 117.492, -31.1501, 117.203, -151.609, 116.918, 88.9461, 0, 0, 6.14497, -54.224, 6.12815, -174.683, 6.11158, 65.8721, 0.0267335, -65.5469
0, 2940.00000, 117.492, -31.1501, 117.203, -151.609, 116.918, 88.9461, 0, 0, 6.14497, -54.224, 6.12815, -174.683, 6.11158, 65.8721, 0.0267335, -65.5469
0, 3000.00000, 117.492, -31.1501, 117.203, -151.609, 116.918, 88.9461, 0, 0, 6.14497, -54.224, 6.12815, -174.683, 6.11158, 65.8721, 0.0267335, -65.5469
0, 3060.00000, 117.492, -31.1501, 117.203, -151.609, 116.918, 88.9461, 0, 0, 6.14497, -54.224, 6.12815, -174.683, 6.11158, 65.8721, 0.0267335, -65.5469
0, 3120.00000, 117.492, -31.1501, 117.203, -151.609, 116.918, 88.9461, 0, 0, 6.14497, -54.224, 6.12815, -174.683, 6.11158, 65.8721, 0.0267335, -65.5469
0, 3180.00000, 117.492, -31.1501, 117.203, -151.609, 116.918, 88.9461, 0, 0, 6.14497, -54.224, 6.12815, -174.683, 6.11158, 65.8721, 0.0267335, -65.5469
0, 3240.00000, 117.492, -31.1501, 117.203, -151.609, 116.918, 88.9461, 0, 0, 6.14497, -54.224, 6.12815, -174.683, 6.11158, 65.8721, 0.0267335, -65.5469
0, 3300.00000, 117.492, -31.1501, 117.203, -151.609, 116.918, 88.9461, 0, 0, 6.14497, -54.224, 6.12815, -174.683, 6.11158, 65.8721, 0.0267335, -65.5469
0, 3360.00000, 117.492, -31.1501, 117.203, -151.609, 116.918, 88.9461, 0, 0, 6.14497, -54.224, 6.12815, -174.683, 6.11158, 65.8721, 0.0267335, -65.5469
0, 3420.00000, 117.492, -31.1501, 117.203, -151.609, 116.918, 88.9461, 0, 0, 6.14497, -54.224, 6.12815, -174.683, 6.11158, 65.8721, 0.0267335, -65.5469
0, 3480.00000, 117.492, -31.1501, 117.203, -151.609, 116.918, 88.9461, 0, 0, 6.14497, -54.224, 6.12815, -174.683, 6.11158, 65.8721, 0.0267335, -65.5469
0, 3540.00000, 117.492, -31.1501, 117.203, -151.609, 116.918, 88.9461, 0, 0, 6.14497, -54.224, 6.12815, -174.683, 6.11158, 65.8721, 0.0267335, -65.5469
1, 0.00000, 117.492, -31.1501, 117.203, -151.609, 116.918, 88.9461, 0, 0, 6.14497, -54.224, 6.12815, -174.683, 6.11158, 65.8721, 0.0267335, -65.5469
1, 60.00000, 117.579, -31.0208, 117.48, -151.576, 116.917, 88.9473, 0, 0, 6.15, -54.0948, 6.14426, -174.65, 6.11152, 65.8734, 0.0265731, -61.3563
1, 120.00000, 117.579, -31.0207, 117.48, -151.576, 116.917, 88.9473, 0, 0, 6.15001, -54.0947, 6.1443, -174.65, 6.11151, 65.8734, 0.0265479, -61.2699
1, 180.00000, 117.579, -31.0207, 117.48, -151.576, 116.917, 88.9473, 0, 0, 6.15001, -54.0947, 6.1443, -174.65, 6.11151, 65.8734, 0.0265478, -61.2696
1, 240.00000, 117.579, -31.0207, 117.48, -151.576, 116.917, 88.9473, 0, 0, 6.15001, -54.0947, 6.1443, -174.65, 6.11151, 65.8734, 0.0265478, -61.2696
1, 300.00000, 117.579, -31.0207, 117.48, -151.576, 116.917, 88.9473, 0, 0, 6.15001, -54.0947, 6.1443, -174.65, 6.11151, 65.8734, 0.0265478, -61.2696
1, 360.00000, 117.579, -31.0207, 117.48, -151.576, 116.917, 88.9473, 0, 0, 6.15001, -54.0947, 6.1443, -174.65, 6.11151, 65.8734, 0.0265478, -61.2696
1, 420.00000, 117.579, -31.0207, 117.48, -151.576, 116.917, 88.9473, 0, 0, 6.15001, -54.0947, 6.1443, -174.65, 6.11151, 65.8734, 0.0265478, -61.2696
1, 480.00000, 117.579, -31.0207, 117.48, -151.576, 116.917, 88.9473, 0, 0, 6.15001, -54.0947, 6.1443, -174.65, 6.11151, 65.8734, 0.0265478, -61.2696
1, 540.00000, 117.579, -31.0207, 117.48, -151.576, 116.917, 88.9473, 0, 0, 6.15001, -54.0947, 6.1443, -174.65, 6.11151, 65.8734, 0.0265478, -61.2696
1, 600.00000, 117.579, -31.0207, 117.48, -151.576, 116.917, 88.9473, 0, 0, 6.15001, -54.0947, 6.1443, -174.65, 6.11151, 65.8734, 0.0265478, -61.2696
1, 660.00000, 117.579, -31.0207, 117.48, -151.576, 116.917, 88.9473, 0, 0, 6.15001, -54.0947, 6.1443, -174.65, 6.11151, 65.8734, 0.0265478, -61.2696
1, 720.00000, 117.579, -31.0207, 117.48, -151.576, 116.917, 88.9473, 0, 0, 6.15001, -54.0947, 6.1443, -174.65, 6.11151, 65.8734, 0.0265478, -61.2696
1, 780.00000, 117.689, -31.0239, 118.944, -151.127, 118.441, 88.5351, 0, 0, 6.15644, -54.0978, 6.22936, -174.201, 6.20008, 65.4611, 0.0269066, -62.6201
1, 840.00000, 117.689, -31.0239, 118.944, -151.127, 118.441, 88.5351, 0, 0, 6.15643, -54.0978, 6.2294, -174.201, 6.20014, 65.4612, 0.0269466, -62.6388
1, 900.00000, 117.689, -31.0239, 118.944, -151.127, 118.441, 88.5351, 0, 0, 6.15643, -54.0978, 6.2294, -174.201, 6.20014, 65.4612, 0.0269467, -62.6388
1, 960.00000, 117.689, -31.0239, 118.944, -151.127, 118.441, 88.5351, 0, 0, 6.15643, -54.0978, 6.2294, -174.201, 6.20014, 65.4612, 0.0269467, -62.6388
1, 1020.00000, 117.689, -31.0239, 118.944, -151.127, 118.441, 88.5351, 0, 0, 6.15643, -54.0978, 6.2294, -174.201, 6.20014, 65.4612, 0.0269467, -62.6388
1, 1080.00000, 117.689, -31.0239, 118.944, -151.127, 118.441, 88.5351, 0, 0, 6.15643, -54.0978, 6.2294, -174.201, 6.20014, 65.4612, 0.0269467, -62.6388
1, 1140.00000, 117.689, -31.0239, 118.944, -151.127, 118.441, 88.5351, 0, 0, 6.15643, -54.0978, 6.2294, -174.201, 6.20014, 65.4612, 0.0269467, -62.6388
1, 1200.00000, 117.689, -31.0239, 118.944, -151.127, 118.441, 88.5351, 0, 0, 6.15643, -54.0978, 6.2294, -174.201, 6.20014, 65.4612, 0.0269467, -62.6388
1, 1260.00000, 117.689, -31.0239, 118.944, -151.127, 118.441, 88.5351, 0, 0, 6.15643, -54.0978, 6.2294, -174.201, 6.20014, 65.4612, 0.0269467, -62.6388
1, 1320.00000, 117.689, -31.0239, 118.944, -151.127, 118.441, 88.5351, 0, 0, 6.15643, -54.0978, 6.2294, -174.201, 6.20014, 65.4612, 0.0269467, -62.6388
1, 1380.00000, 117.689, -31.0239, 118.944, -151.127, 118.441, 88.5351, 0, 0, 6.15643, -54.0978, 6.2294, -174.201, 6.20014, 65.4612, 0.0269467, -62.6388
1, 1440.00000, 117.689, -31.0239, 118.944, -151.127, 118.441, 88.5351, 0, 0, 6.15643, -54.0978, 6.2294, -174.201, 6.20014, 65.4612, 0.0269467, -62.6388
1, 1500.00000, 117.689, -31.0239, 118.944, -151.127, 118.441, 88.5351, 0, 0, 6.15643, -54.0978, 6.2294, -174.201, 6.20014, 65.4612, 0.0269467, -62.6388
1, 1560.00000, 117.689, -31.0239, 118.944, -151.127, 118.441, 88.5351, 0, 0, 6.15643, -54.0978, 6.2294, -174.201, 6.20014, 65.4612, 0.0269467, -62.6388
1, 1620.00000, 117.689, -31.0239, 118.944, -151.127, 118.441, 88.5351, 0, 0, 6.15643, -54.0978, 6.2294, -174.201, 6.20014, 65.4612, 0.0269467, -62.6388
1, 1680.00000, 117.689, -31.0239, 118.944, -151.127, 118.441, 88.5351, 0, 0, 6.15643, -54.0978, 6.2294, -174.201, 6.20014, 65.4612, 0.0269467, -62.6388
1, 1740.00000, 117.689, -31.0239, 118.944, -151.127, 118.441, 88.5351, 0, 0, 6.15643, -54.0978, 6.2294, -174.201, 6.20014, 65.4612, 0.0269467, -62.6388
1, 1800.00000, 117.689, -31.0239, 118.944, -151.127, 118.441, 88.5351, 0, 0, 6.15643, -54.0978, 6.2294, -174.201, 6.20014, 65.4612, 0.0269467, -62.6388
1, 1860.00000, 117.689, -31.0239, 118.944, -151.127, 118.441, 88.5351, 0, 0, 6.15643, -54.0978, 6.2294, -174.201, 6.20014, 65.4612, 0.0269467, -62.6388
1, 1920.00000, 117.689, -31.0239, 118.944, -151.127, 118.441, 88.5351, 0, 0, 6.15643, -54.0978, 6.2294, -174.201, 6.20014, 65.4612, 0.0269467, -62.6388
1, 1980.00000, 117.689, -31.0239, 118.944, -151.127, 118.441, 88.5351, 0, 0, 6.15643, -54.0978, 6.2294, -174.201, 6.20014, 65.4612, 0.0269467, -62.6388
1, 2040.00000, 117.689, -31.0239, 118.944, -151.127, 118.441, 88.5351, 0, 0, 6.15643, -54.0978, 6.2294, -174.201, 6.20014, 65.4612, 0.0269467, -62.6388
1, 2100.00000, 117.689, -31.0239, 118.944, -151.127, 118.441, 88.5351, 0, 0, 6.15643, -54.0978, 6.2294, -174.201, 6.20014, 65.4612, 0.0269467, -62.6388
1, 2160.00000, 117.689, -31.0239, 118.944, -151.127, 118.441, 88.5351, 0, 0, 6.15643, -54.0978, 6.2294, -174.201, 6.20014, 65.4612, 0.0269467, -62.6388
1, 2220.00000, 118.04, -30.8178, 119.495, -151.165, 118.404, 88.5408, 0, 0, 6.17679, -53.8917, 6.26135, -174.24, 6.19799, 65.4669, 0.0255086, -50.7137
1, 2280.00000, 118.04, -30.8178, 119.495, -151.165, 118.404, 88.5408, 0, 0, 6.1768, -53.8917, 6.26139, -174.239, 6.19799, 65.4669, 0.0254988, -50.6264
1, 2340.00000, 118.04, -30.8178, 119.495, -151.165, 118.404, 88.5408, 0, 0, 6.1768, -53.8917, 6.26139, -174.239, 6.19799, 65.4669, 0.0254988, -50.626
1, 2400.00000, 118.04, -30.8178, 119.495, -151.165, 118.404, 88.5408, 0, 0, 6.1768, -53.8917, 6.26139, -174.239, 6.19799, 65.4669, 0.0254988, -50.626
1, 2460.00000, 118.04, -30.8178, 119.495, -151.165, 118.404, 88.5408, 0, 0, 6.1768, -53.8917, 6.26139, -174.239, 6.19799, 65.4669, 0.0254988, -50.626
1, 2520.00000, 118.04, -30.8178, 119.495, -151.165, 118.404, 88.5408, 0, 0, 6.1768, -53.8917, 6.26139, -174.239, 6.19799, 65.4669, 0.0254988, -50.626
1, 2580.00000, 118.04, -30.8178, 119.495, -151.165, 118.404, 88.5408, 0, 0, 6.1768, -53.8917, 6.26139, -174.239, 6.19799, 65.4669, 0.0254988, -50.626
1, 2640.00000, 118.04, -30.8178, 119.495, -151.165, 118.404, 88.5408, 0, 0, 6.1768, -53.8917, 6.26139, -174.239, 6.19799, 65.4669, 0.0254988, -50.626
1, 2700.00000, 118.04, -30.8178, 119.495, -151.165, 118.404, 88.5408, 0, 0, 6.1768, -53.8917, 6.26139, -174.239, 6.19799, 65.4669, 0.0254988, -50.626
1, 2760.00000, 118.04, -30.8178, 119.495, -151.165, 118.404, 88.5408, 0, 0, 6.1768, -53.8917, 6.26139, -174.239, 6.19799, 65.4669, 0.0254988, -50.626
1, 2820.00000, 118.04, -30.8178, 119.495, -151.165, 118.404, 88.5408, 0, 0, 6.1768, -53.8917, 6.26139, -174.239, 6.19799, 65.4669, 0.0254988, -50.626
1, 2880.00000, 118.04, -30.8178, 119.495, -151.165, 118.404, 88.5408, 0, 0, 6.1768, -53.8917, 6.26139, -174.239, 6.19799, 65.4669, 0.0254988, -50.626
1, 2940.00000, 118.04, -30.8178, 119.495, -151.165, 118.404, 88.5408, 0, 0, 6.1768, -53.8917, 6.26139, -174.239, 6.19799, 65.4669, 0.0254988, -50.626
1, 3000.00000, 118.04, -30.8178, 119.495, -151.165, 118.404, 88.5408, 0, 0, 6.1768, -53.8917, 6.26139, -174.239, 6.19799, 65.4669, 0.0254988, -50.626
1, 3060.00000, 118.04, -30.8178, 119.495, -151.165, 118.404, 88.5408, 0, 0, 6.1768, -53.8917, 6.26139, -174.239, 6.19799, 65.4669, 0.0254988, -50.626
1, 3120.00000, 118.04, -30.8178, 119.495, -151.165, 118.404, 88.5408, 0, 0, 6.1768, -53.8917, 6.26139, -174.239, 6.19799, 65.4669, 0.0254988, -50.626
1, 3180.00000, 118.04, -30.8178, 119.495, -151.165, 118.404, 88.5408, 0, 0, 6.1768, -53.8917, 6.26139, -174.239, 6.19799, 65.4669, 0.0254988, -50.626
1, 3240.00000, 118.04, -30.8178, 119.495, -151.165, 118.404, 88.5408, 0, 0, 6.1768, -53.8917, 6.26139, -174.239, 6.19799, 65.4669, 0.0254988, -50.626
1, 3300.00000, 118.04, -30.8178, 119.495, -151.165, 118.404, 88.5408, 0, 0, 6.1768, -53.8917, 6.26139, -174.239, 6.19799, 65.4669, 0.0254988, -50.626
1, 3360.00000, 118.04, -30.8178, 119.495, -151.165, 118.404, 88.5408, 0, 0, 6.1768, -53.8917, 6.26139, -174.239, 6.19799, 65.4669, 0.0254988, -50.626
1, 3420.00000, 118.04, -30.8178, 119.495, -151.165, 118.404, 88.5408, 0, 0, 6.1768, -53.8917, 6.26139, -174.239, 6.19799, 65.4669, 0.0254988, -50.626
1, 3480.00000, 118.04, -30.8178, 119.495, -151.165, 118.404, 88.5408, 0, 0, 6.1768, -53.8917, 6.26139, -174.239, 6.19799, 65.4669, 0.0254988, -50.626
1, 3540.00000, 118.04, -30.8178, 119.495, -151.165, 118.404, 88.5408, 0, 0, 6.1768, -53.8917, 6.26139, -174.239, 6.19799, 65.4669, 0.0254988, -50.626
2, 0.00000, 118.04, -30.8178, 119.495, -151.165, 118.404, 88.5408, 0, 0, 6.1768, -53.8917, 6.26139, -174.239, 6.19799, 65.4669, 0.0254988, -50.626
2, 60.00000, 118.04, -30.8178, 119.495, -151.165, 118.404, 88.5408, 0, 0, 6.1768, -53.8917, 6.26139, -174.239, 6.19799, 65.4669, 0.0254988, -50.626
2, 120.00000, 118.04, -30.8178, 119.495, -151.165, 118.404, 88.5408, 0, 0, 6.1768, -53.8917, 6.26139, -174.239, 6.19799, 65.4669, 0.0254988, -50.626
2, 180.00000, 118.04, -30.8178, 119.495, -151.165, 118.404, 88.5408, 0, 0, 6.1768, -53.8917, 6.26139, -174.239, 6.19799, 65.4669, 0.0254988, -50.626
2, 240.00000, 118.04, -30.8178, 119.495, -151.165, 118.404, 88.5408, 0, 0, 6.1768, -53.8917, 6.26139, -174.239, 6.19799, 65.4669, 0.0254988, -50.626
2, 300.00000, 118.04, -30.8178, 119.495, -151.165, 118.404, 88.5408, 0, 0, 6.1768, -53.8917, 6.26139, -174.239, 6.19799, 65.4669, 0.0254988, -50.626
2, 360.00000, 118.04, -30.8178, 119.495, -151.165, 118.404, 88.5408, 0, 0, 6.1768, -53.8917, 6.26139, -174.239, 6.19799, 65.4669, 0.0254988, -50.626
2, 420.00000, 118.04, -30.8178, 119.495, -151.165, 118.404, 88.5408, 0, 0, 6.1768, -53.8917, 6.26139, -174.239, 6.19799, 65.4669, 0.0254988, -50.626
2, 480.00000, 118.04, -30.8178, 119.495, -151.165, 118.404, 88.5408, 0, 0, 6.1768, -53.8917, 6.26139, -174.239, 6.19799, 65.4669, 0.0254988, -50.626
2, 540.00000, 118.04, -30.8178, 119.495, -151.165, 118.404, 88.5408, 0, 0, 6.1768, -53.8917, 6.26139, -174.239, 6.19799, 65.4669, 0.0254988, -50.626
2, 600.00000, 118.04, -30.8178, 119.495, -151.165, 118.404, 88.5408, 0, 0, 6.1768, -53.8917, 6.26139, -174.239, 6.19799, 65.4669, 0.0254988, -50.626
2, 660.00000, 118.04, -30.8178, 119.495, -151.165, 118.404, 88.5408, 0, 0, 6.1768, -53.8917, 6.26139, -174.239, 6.19799, 65.4669, 0.0254988, -50.626
