hour,t(sec),V1,VAngle1,V2,VAngle2,V3,VAngle3,V4,VAngle4,I1,IAngle1,I2,IAngle2,I3,IAngle3,I4,IAngle4
0, 60.00000, 121.483, -31.3069, 123.574, -151.304, 122.679, 87.9477, 0, 0, 5.39454, -54.3806, 5.30326, -174.377, 5.34191, 64.8741, 0.14888, 152.657
0, 120.00000, 121.482, -31.3069, 123.574, -151.304, 122.679, 87.9477, 0, 0, 5.39462, -54.3808, 5.30329, -174.377, 5.34201, 64.8738, 0.148935, 152.669
0, 180.00000, 121.482, -31.3069, 123.574, -151.304, 122.679, 87.9477, 0, 0, 5.39462, -54.3808, 5.30329, -174.377, 5.34201, 64.8738, 0.148935, 152.669
0, 240.00000, 121.482, -31.3069, 123.574, -151.304, 122.679, 87.9477, 0, 0, 5.39462, -54.3808, 5.30329, -174.377, 5.34201, 64.8738, 0.148935, 152.669
0, 300.00000, 121.482, -31.3069, 123.574, -151.304, 122.679, 87.9477, 0, 0, 5.39462, -54.3808, 5.30329, -174.377, 5.34201, 64.8738, 0.148935, 152.669
0, 360.00000, 121.482, -31.3069, 123.574, -151.304, 122.679, 87.9477, 0, 0, 5.39462, -54.3808, 5.30329, -174.377, 5.34201, 64.8738, 0.148935, 152.669
0, 420.00000, 121.482, -31.3069, 123.574, -151.304, 122.679, 87.9477, 0, 0, 5.39462, -54.3808, 5.30329, -174.377, 5.34201, 64.8738, 0.148935, 152.669
0, 480.00000, 122.066, -31.1981, 124.146, -151.194, 123.247, 88.0617, 0, 0, 4.67096, -54.2721, 4.59271, -174.268, 4.62622, 64.9873, 0.127868, 152.925
0, 540.00000, 122.066, -31.1981, 124.146, -151.194, 123.247, 88.0617, 0, 0, 4.67091, -54.272, 4.59265, -174.268, 4.62615, 64.9878, 0.127839, 152.917
0, 600.00000, 122.066, -31.1981, 124.146, -151.194, 123.247, 88.0617, 0, 0, 4.67091, -54.272, 4.59265, -174.268, 4.62615, 64.9878, 0.127838, 152.917
0, 660.00000, 122.066, -31.1981, 124.146, -151.194, 123.247, 88.0617, 0, 0, 4.67091, -54.272, 4.59265, -174.268, 4.62615, 64.9878, 0.127838, 152.917
0, 720.00000, 122.066, -31.1981, 124.146, -151.194, 123.247, 88.0617, 0, 0, 4.67091, -54.272, 4.59265, -174.268, 4.62615, 64.9878, 0.127838, 152.917
0, 780.00000, 122.066, -31.1981, 124.146, -151.194, 123.247, 88.0617, 0, 0, 4.67091, -54.272, 4.59265, -174.268, 4.62615, 64.9878, 0.127838, 152.917
0, 840.00000, 122.066, -31.1981, 124.146, -151.194, 123.247, 88.0617, 0, 0, 4.67091, -54.272, 4.59265, -174.268, 4.62615, 64.9878, 0.127838, 152.917
0, 900.00000, 122.066, -31.1981, 124.146, -151.194, 123.247, 88.0617, 0, 0, 4.67091, -54.272, 4.59265, -174.268, 4.62615, 64.9878, 0.127838, 152.917
0, 960.00000, 121.765, -31.2236, 124.149, -151.194, 123.142, 87.9363, 0, 0, 4.68244, -54.2974, 4.59254, -174.268, 4.63005, 64.8625, 0.147259, 151.819
0, 1020.00000, 121.764, -31.2236, 124.149, -151.194, 123.142, 87.9363, 0, 0, 4.68246, -54.2975, 4.59253, -174.268, 4.63007, 64.8624, 0.147295, 151.822
0, 1080.00000, 121.764, -31.2236, 124.149, -151.194, 123.142, 87.9363, 0, 0, 4.68246, -54.2975, 4.59253, -174.268, 4.63007, 64.8624, 0.147295, 151.822
0, 1140.00000, 121.764, -31.2236, 124.149, -151.194, 123.142, 87.9363, 0, 0, 4.68246, -54.2975, 4.59253, -174.268, 4.63007, 64.8624, 0.147295, 151.822
0, 1200.00000, 121.764, -31.2236, 124.149, -151.194, 123.142, 87.9363, 0, 0, 4.68246, -54.2975, 4.59253, -174.268, 4.63007, 64.8624, 0.147295, 151.822
0, 1260.00000, 121.764, -31.2236, 124.149, -151.194, 123.142, 87.9363, 0, 0, 4.68246, -54.2975, 4.59253, -174.268, 4.63007, 64.8624, 0.147295, 151.822
0, 1320.00000, 121.764, -31.2236, 124.149, -151.194, 123.142, 87.9363, 0, 0, 4.68246, -54.2975, 4.59253, -174.268, 4.63007, 64.8624, 0.147295, 151.822
0, 1380.00000, 121.764, -31.2236, 124.149, -151.194, 123.142, 87.9363, 0, 0, 4.68246, -54.2975, 4.59253, -174.268, 4.63007, 64.8624, 0.147295, 151.822
0, 1440.00000, 121.764, -31.2236, 124.149, -151.194, 123.142, 87.9363, 0, 0, 4.68246, -54.2975, 4.59253, -174.268, 4.63007, 64.8624, 0.147295, 151.822
0, 1500.00000, 121.764, -31.2236, 124.149, -151.194, 123.142, 87.9363, 0, 0, 4.68246, -54.2975, 4.59253, -174.268, 4.63007, 64.8624, 0.147295, 151.822
0, 1560.00000, 121.764, -31.2236, 124.149, -151.194, 123.142, 87.9363, 0, 0, 4.68246, -54.2975, 4.59253, -174.268, 4.63007, 64.8624, 0.147295, 151.822
0, 1620.00000, 121.764, -31.2236, 124.149, -151.194, 123.142, 87.9363, 0, 0, 4.68246, -54.2975, 4.59253, -174.268, 4.63007, 64.8624, 0.147295, 151.822
0, 1680.00000, 121.764, -31.2236, 124.149, -151.194, 123.142, 87.9363, 0, 0, 4.68246, -54.2975, 4.59253, -174.268, 4.63007, 64.8624, 0.147295, 151.822
0, 1740.00000, 121.764, -31.2236, 124.149, -151.194, 123.142, 87.9363, 0, 0, 4.68246, -54.2975, 4.59253, -174.268, 4.63007, 64.8624, 0.147295, 151.822
0, 1800.00000, 121.477, -31.2501, 124.152, -151.194, 123.048, 87.8143, 0, 0, 4.69354, -54.3239, 4.59241, -174.268, 4.63362, 64.7405, 0.16606, 150.891
0, 1860.00000, 121.477, -31.2501, 124.152, -151.194, 123.047, 87.8143, 0, 0, 4.69356, -54.3241, 4.5924, -174.268, 4.63364, 64.7404, 0.166091, 150.892
0, 1920.00000, 121.477, -31.2501, 124.152, -151.194, 123.047, 87.8143, 0, 0, 4.69356, -54.3241, 4.5924, -174.268, 4.63364, 64.7404, 0.166091, 150.892
0, 1980.00000, 121.477, -31.2501, 124.152, -151.194, 123.047, 87.8143, 0, 0, 4.69356, -54.3241, 4.5924, -174.268, 4.63364, 64.7404, 0.166091, 150.892
0, 2040.00000, 121.477, -31.2501, 124.152, -151.194, 123.047, 87.8143, 0, 0, 4.69356, -54.3241, 4.5924, -174.268, 4.63364, 64.7404, 0.166091, 150.892
0, 2100.00000, 121.477, -31.2501, 124.152, -151.194, 123.047, 87.8143, 0, 0, 4.69356, -54.3241, 4.5924, -174.268, 4.63364, 64.7404, 0.166091, 150.892
0, 2160.00000, 121.477, -31.2501, 124.152, -151.194, 123.047, 87.8143, 0, 0, 4.69356, -54.3241, 4.5924, -174.268, 4.63364, 64.7404, 0.166091, 150.892
0, 2220.00000, 121.477, -31.2501, 124.152, -151.194, 123.047, 87.8143, 0, 0, 4.69356, -54.3241, 4.5924, -174.268, 4.63364, 64.7404, 0.166091, 150.892
0, 2280.00000, 121.477, -31.2501, 124.152, -151.194, 123.047, 87.8143, 0, 0, 4.69356, -54.3241, 4.5924, -174.268, 4.63364, 64.7404, 0.166091, 150.892
0, 2340.00000, 121.477, -31.2501, 124.152, -151.194, 123.047, 87.8143, 0, 0, 4.69356, -54.3241, 4.5924, -174.268, 4.63364, 64.7404, 0.166091, 150.892
0, 2400.00000, 121.477, -31.2501, 124.152, -151.194, 123.047, 87.8143, 0, 0, 4.69356, -54.3241, 4.5924, -174.268, 4.63364, 64.7404, 0.166091, 150.892
0, 2460.00000, 121.477, -31.2501, 124.152, -151.194, 123.047, 87.8143, 0, 0, 4.69356, -54.3241, 4.5924, -174.268, 4.63364, 64.7404, 0.166091, 150.892
0, 2520.00000, 121.477, -31.2501, 124.152, -151.194, 123.047, 87.8143, 0, 0, 4.69356, -54.3241, 4.5924, -174.268, 4.63364, 64.7404, 0.166091, 150.892
0, 2580.00000, 121.477, -31.2501, 124.152, -151.194, 123.047, 87.8143, 0, 0, 4.69356, -54.3241, 4.5924, -174.268, 4.63364, 64.7404, 0.166091, 150.892
0, 2640.00000, 121.477, -31.2501, 124.152, -151.194, 123.047, 87.8143, 0, 0, 4.69356, -54.3241, 4.5924, -174.268, 4.63364, 64.7404, 0.166091, 150.892
0, 2700.00000, 121.477, -31.2501, 124.152, -151.194, 123.047, 87.8143, 0, 0, 4.69356, -54.3241, 4.5924, -174.268, 4.63364, 64.7404, 0.166091, 150.892
0, 2760.00000, 121.962, -31.2534, 124.146, -151.194, 123.304, 87.9983, 0, 0, 4.67495, -54.3276, 4.59262, -174.268, 4.62405, 64.9242, 0.134843, 149.594
0, 2820.00000, 121.962, -31.2533, 124.146, -151.194, 123.305, 87.9983, 0, 0, 4.67488, -54.3273, 4.59265, -174.268, 4.62398, 64.9244, 0.13475, 149.582
0, 2880.00000, 121.962, -31.2533, 124.146, -151.194, 123.305, 87.9983, 0, 0, 4.67488, -54.3273, 4.59265, -174.268, 4.62398, 64.9244, 0.13475, 149.582
0, 2940.00000, 121.962, -31.2533, 124.146, -151.194, 123.305, 87.9983, 0, 0, 4.67488, -54.3273, 4.59265, -174.268, 4.62398, 64.9244, 0.13475, 149.582
0, 3000.00000, 121.962, -31.2533, 124.146, -151.194, 123.305, 87.9983, 0, 0, 4.67488, -54.3273, 4.59265, -174.268, 4.62398, 64.9244, 0.13475, 149.582
0, 3060.00000, 121.962, -31.2533, 124.146, -151.194, 123.305, 87.9983, 0, 0, 4.67488, -54.3273, 4.59265, -174.268, 4.62398, 64.9244, 0.13475, 149.582
0, 3120.00000, 121.962, -31.2533, 124.146, -151.194, 123.305, 87.9983, 0, 0, 4.67488, -54.3273, 4.59265, -174.268, 4.62398, 64.9244, 0.13475, 149.582
0, 3180.00000, 121.962, -31.2533, 124.146, -151.194, 123.305, 87.9983, 0, 0, 4.67488, -54.3273, 4.59265, -174.268, 4.62398, 64.9244, 0.13475, 149.582
0, 3240.00000, 121.962, -31.2533, 124.146, -151.194, 123.305, 87.9983, 0, 0, 4.67488, -54.3273, 4.59265, -174.268, 4.62398, 64.9244, 0.13475, 149.582
0, 3300.00000, 121.962, -31.2533, 124.146, -151.194, 123.305, 87.9983, 0, 0, 4.67488, -54.3273, 4.59265, -174.268, 4.62398, 64.9244, 0.13475, 149.582
0, 3360.00000, 121.962, -31.2533, 124.146, -151.194, 123.305, 87.9983, 0, 0, 4.67488, -54.3273, 4.59265, -174.268, 4.62398, 64.9244, 0.13475, 149.582
0, 3420.00000, 121.962, -31.2533, 124.146, -151.194, 123.305, 87.9983, 0, 0, 4.67488, -54.3273, 4.59265, -174.268, 4.62398, 64.9244, 0.13475, 149.582
0, 3480.00000, 121.962, -31.2533, 124.146, -151.194, 123.305, 87.9983, 0, 0, 4.67488, -54.3273, 4.59265, -174.268, 4.62398, 64.9244, 0.13475, 149.582
0, 3540.00000, 121.962, -31.2533, 124.146, -151.194, 123.305, 87.9983, 0, 0, 4.67488, -54.3273, 4.59265, -174.268, 4.62398, 64.9244, 0.13475, 149.582
1, 0.00000, 121.962, -31.2533, 124.146, -151.194, 123.305, 87.9983, 0, 0, 4.67488, -54.3273, 4.59265, -174.268, 4.62398, 64.9244, 0.13475, 149.582
1, 60.00000, 122.45, -31.2556, 124.139, -151.194, 123.558, 88.1823, 0, 0, 4.65631, -54.3298, 4.59286, -174.267, 4.61455, 65.1084, 0.103732, 147.586
1, 120.00000, 122.45, -31.2555, 124.139, -151.194, 123.558, 88.1823, 0, 0, 4.65625, -54.3295, 4.59289, -174.267, 4.6145, 65.1084, 0.103666, 147.58
1, 180.00000, 122.45, -31.2555, 124.139, -151.194, 123.558, 88.1823, 0, 0, 4.65625, -54.3295, 4.59289, -174.267, 4.6145, 65.1084, 0.103666, 147.58
1, 240.00000, 122.45, -31.2555, 124.139, -151.194, 123.558, 88.1823, 0, 0, 4.65625, -54.3295, 4.59289, -174.267, 4.6145, 65.1084, 0.103666, 147.58
1, 300.00000, 122.45, -31.2555, 124.139, -151.194, 123.558, 88.1823, 0, 0, 4.65625, -54.3295, 4.59289, -174.267, 4.6145, 65.1084, 0.103666, 147.58
1, 360.00000, 122.45, -31.2555, 124.139, -151.194, 123.558, 88.1823, 0, 0, 4.65625, -54.3295, 4.59289, -174.267, 4.6145, 65.1084, 0.103666, 147.58
1, 420.00000, 122.45, -31.2555, 124.139, -151.194, 123.558, 88.1823, 0, 0, 4.65625, -54.3295, 4.59289, -174.267, 4.6145, 65.1084, 0.103666, 147.58
1, 480.00000, 122.45, -31.2555, 124.139, -151.194, 123.558, 88.1823, 0, 0, 4.65625, -54.3295, 4.59289, -174.267, 4.6145, 65.1084, 0.103666, 147.58
1, 540.00000, 122.45, -31.2555, 124.139, -151.194, 123.558, 88.1823, 0, 0, 4.65625, -54.3295, 4.59289, -174.267, 4.6145, 65.1084, 0.103666, 147.58
1, 600.00000, 122.45, -31.2555, 124.139, -151.194, 123.558, 88.1823, 0, 0, 4.65625, -54.3295, 4.59289, -174.267, 4.6145, 65.1084, 0.103666, 147.58
1, 660.00000, 122.45, -31.2555, 124.139, -151.194, 123.558, 88.1823, 0, 0, 4.65625, -54.3295, 4.59289, -174.267, 4.6145, 65.1084, 0.103666, 147.58
1, 720.00000, 122.45, -31.2555, 124.139, -151.194, 123.558, 88.1823, 0, 0, 4.65625, -54.3295, 4.59289, -174.267, 4.6145, 65.1084, 0.103666, 147.58
1, 780.00000, 122.722, -31.2263, 124.136, -151.193, 123.638, 88.2974, 0, 0, 4.64598, -54.3004, 4.59298, -174.267, 4.61151, 65.2235, 0.0862068, 148.727
1, 840.00000, 122.722, -31.2263, 124.136, -151.193, 123.638, 88.2974, 0, 0, 4.64593, -54.3002, 4.59299, -174.267, 4.6115, 65.2235, 0.086156, 148.734
1, 900.00000, 122.722, -31.2263, 124.136, -151.193, 123.638, 88.2974, 0, 0, 4.64593, -54.3002, 4.59299, -174.267, 4.6115, 65.2235, 0.0861558, 148.734
1, 960.00000, 122.722, -31.2263, 124.136, -151.193, 123.638, 88.2974, 0, 0, 4.64593, -54.3002, 4.59299, -174.267, 4.6115, 65.2235, 0.0861558, 148.734
1, 1020.00000, 122.722, -31.2263, 124.136, -151.193, 123.638, 88.2974, 0, 0, 4.64593, -54.3002, 4.59299, -174.267, 4.6115, 65.2235, 0.0861558, 148.734
1, 1080.00000, 122.722, -31.2263, 124.136, -151.193, 123.638, 88.2974, 0, 0, 4.64593, -54.3002, 4.59299, -174.267, 4.6115, 65.2235, 0.0861558, 148.734
1, 1140.00000, 122.722, -31.2263, 124.136, -151.193, 123.638, 88.2974, 0, 0, 4.64593, -54.3002, 4.59299, -174.267, 4.6115, 65.2235, 0.0861558, 148.734
1, 1200.00000, 122.722, -31.2263, 124.136, -151.193, 123.638, 88.2974, 0, 0, 4.64593, -54.3002, 4.59299, -174.267, 4.6115, 65.2235, 0.0861558, 148.734
1, 1260.00000, 122.722, -31.2263, 124.136, -151.193, 123.638, 88.2974, 0, 0, 4.64593, -54.3002, 4.59299, -174.267, 4.6115, 65.2235, 0.0861558, 148.734
1, 1320.00000, 122.722, -31.2263, 124.136, -151.193, 123.638, 88.2974, 0, 0, 4.64593, -54.3002, 4.59299, -174.267, 4.6115, 65.2235, 0.0861558, 148.734
1, 1380.00000, 122.722, -31.2263, 124.136, -151.193, 123.638, 88.2974, 0, 0, 4.64593, -54.3002, 4.59299, -174.267, 4.6115, 65.2235, 0.0861558, 148.734
1, 1440.00000, 122.722, -31.2263, 124.136, -151.193, 123.638, 88.2974, 0, 0, 4.64593, -54.3002, 4.59299, -174.267, 4.6115, 65.2235, 0.0861558, 148.734
1, 1500.00000, 122.722, -31.2263, 124.136, -151.193, 123.638, 88.2974, 0, 0, 4.64593, -54.3002, 4.59299, -174.267, 4.6115, 65.2235, 0.0861558, 148.734
1, 1560.00000, 122.722, -31.2263, 124.136, -151.193, 123.638, 88.2974, 0, 0, 4.64593, -54.3002, 4.59299, -174.267, 4.6115, 65.2235, 0.0861558, 148.734
1, 1620.00000, 122.722, -31.2263, 124.136, -151.193, 123.638, 88.2974, 0, 0, 4.64593, -54.3002, 4.59299, -174.267, 4.6115, 65.2235, 0.0861558, 148.734
1, 1680.00000, 122.722, -31.2263, 124.136, -151.193, 123.638, 88.2974, 0, 0, 4.64593, -54.3002, 4.59299, -174.267, 4.6115, 65.2235, 0.0861558, 148.734
1, 1740.00000, 122.722, -31.2263, 124.136, -151.193, 123.638, 88.2974, 0, 0, 4.64593, -54.3002, 4.59299, -174.267, 4.6115, 65.2235, 0.0861558, 148.734
1, 1800.00000, 122.722, -31.2263, 124.136, -151.193, 123.638, 88.2974, 0, 0, 4.64593, -54.3002, 4.59299, -174.267, 4.6115, 65.2235, 0.0861558, 148.734
1, 1860.00000, 122.722, -31.2263, 124.136, -151.193, 123.638, 88.2974, 0, 0, 4.64593, -54.3002, 4.59299, -174.267, 4.6115, 65.2235, 0.0861558, 148.734
1, 1920.00000, 122.722, -31.2263, 124.136, -151.193, 123.638, 88.2974, 0, 0, 4.64593, -54.3002, 4.59299, -174.267, 4.6115, 65.2235, 0.0861558, 148.734
1, 1980.00000, 122.722, -31.2263, 124.136, -151.193, 123.638, 88.2974, 0, 0, 4.64593, -54.3002, 4.59299, -174.267, 4.6115, 65.2235, 0.0861558, 148.734
1, 2040.00000, 122.722, -31.2263, 124.136, -151.193, 123.638, 88.2974, 0, 0, 4.64593, -54.3002, 4.59299, -174.267, 4.6115, 65.2235, 0.0861558, 148.734
1, 2100.00000, 122.722, -31.2263, 124.136, -151.193, 123.638, 88.2974, 0, 0, 4.64593, -54.3002, 4.59299, -174.267, 4.6115, 65.2235, 0.0861558, 148.734
1, 2160.00000, 122.722, -31.2263, 124.136, -151.193, 123.638, 88.2974, 0, 0, 4.64593, -54.3002, 4.59299, -174.267, 4.6115, 65.2235, 0.0861558, 148.734
1, 2220.00000, 123.021, -31.1961, 124.133, -151.192, 123.733, 88.421, 0, 0, 4.63469, -54.2702, 4.59312, -174.266, 4.60798, 65.3471, 0.0672267, 150.364
1, 2280.00000, 123.021, -31.196, 124.133, -151.192, 123.733, 88.421, 0, 0, 4.63463, -54.27, 4.59313, -174.266, 4.60797, 65.3471, 0.067176, 150.377
1, 2340.00000, 123.021, -31.196, 124.133, -151.192, 123.733, 88.421, 0, 0, 4.63463, -54.27, 4.59313, -174.266, 4.60797, 65.3471, 0.0671757, 150.377
1, 2400.00000, 123.021, -31.196, 124.133, -151.192, 123.733, 88.421, 0, 0, 4.63463, -54.27, 4.59313, -174.266, 4.60797, 65.3471, 0.0671757, 150.377
1, 2460.00000, 123.021, -31.196, 124.133, -151.192, 123.733, 88.421, 0, 0, 4.63463, -54.27, 4.59313, -174.266, 4.60797, 65.3471, 0.0671757, 150.377
1, 2520.00000, 123.021, -31.196, 124.133, -151.192, 123.733, 88.421, 0, 0, 4.63463, -54.27, 4.59313, -174.266, 4.60797, 65.3471, 0.0671757, 150.377
1, 2580.00000, 123.021, -31.196, 124.133, -151.192, 123.733, 88.421, 0, 0, 4.63463, -54.27, 4.59313, -174.266, 4.60797, 65.3471, 0.0671757, 150.377
1, 2640.00000, 123.021, -31.196, 124.133, -151.192, 123.733, 88.421, 0, 0, 4.63463, -54.27, 4.59313, -174.266, 4.60797, 65.3471, 0.0671757, 150.377
1, 2700.00000, 123.021, -31.196, 124.133, -151.192, 123.733, 88.421, 0, 0, 4.63463, -54.27, 4.59313, -174.266, 4.60797, 65.3471, 0.0671757, 150.377
1, 2760.00000, 123.021, -31.196, 124.133, -151.192, 123.733, 88.421, 0, 0, 4.63463, -54.27, 4.59313, -174.266, 4.60797, 65.3471, 0.0671757, 150.377
1, 2820.00000, 123.021, -31.196, 124.133, -151.192, 123.733, 88.421, 0, 0, 4.63463, -54.27, 4.59313, -174.266, 4.60797, 65.3471, 0.0671757, 150.377
1, 2880.00000, 123.021, -31.196, 124.133, -151.192, 123.733, 88.421, 0, 0, 4.63463, -54.27, 4.59313, -174.266, 4.60797, 65.3471, 0.0671757, 150.377
1, 2940.00000, 123.021, -31.196, 124.133, -151.192, 123.733, 88.421, 0, 0, 4.63463, -54.27, 4.59313, -174.266, 4.60797, 65.3471, 0.0671757, 150.377
1, 3000.00000, 123.021, -31.196, 124.133, -151.192, 123.733, 88.421, 0, 0, 4.63463, -54.27, 4.59313, -174.266, 4.60797, 65.3471, 0.0671757, 150.377
1, 3060.00000, 123.021, -31.196, 124.133, -151.192, 123.733, 88.421, 0, 0, 4.63463, -54.27, 4.59313, -174.266, 4.60797, 65.3471, 0.0671757, 150.377
1, 3120.00000, 123.021, -31.196, 124.133, -151.192, 123.733, 88.421, 0, 0, 4.63463, -54.27, 4.59313, -174.266, 4.60797, 65.3471, 0.0671757, 150.377
1, 3180.00000, 123.021, -31.196, 124.133, -151.192, 123.733, 88.421, 0, 0, 4.63463, -54.27, 4.59313, -174.266, 4.60797, 65.3471, 0.0671757, 150.377
1, 3240.00000, 123.021, -31.196, 124.133, -151.192, 123.733, 88.421, 0, 0, 4.63463, -54.27, 4.59313, -174.266, 4.60797, 65.3471, 0.0671757, 150.377
1, 3300.00000, 123.021, -31.196, 124.133, -151.192, 123.733, 88.421, 0, 0, 4.63463, -54.27, 4.59313, -174.266, 4.60797, 65.3471, 0.0671757, 150.377
1, 3360.00000, 123.021, -31.196, 124.133, -151.192, 123.733, 88.421, 0, 0, 4.63463, -54.27, 4.59313, -174.266, 4.60797, 65.3471, 0.0671757, 150.377
1, 3420.00000, 123.021, -31.196, 124.133, -151.192, 123.733, 88.421, 0, 0, 4.63463, -54.27, 4.59313, -174.266, 4.60797, 65.3471, 0.0671757, 150.377
1, 3480.00000, 123.021, -31.196, 124.133, -151.192, 123.733, 88.421, 0, 0, 4.63463, -54.27, 4.59313, -174.266, 4.60797, 65.3471, 0.0671757, 150.377
1, 3540.00000, 123.021, -31.196, 124.133, -151.192, 123.733, 88.421, 0, 0, 4.63463, -54.27, 4.59313, -174.266, 4.60797, 65.3471, 0.0671757, 150.377
2, 0.00000, 123.021, -31.196, 124.133, -151.192, 123.733, 88.421, 0, 0, 4.63463, -54.27, 4.59313, -174.266, 4.60797, 65.3471, 0.0671757, 150.377
2, 60.00000, 123.021, -31.196, 124.133, -151.192, 123.733, 88.421, 0, 0, 4.63463, -54.27, 4.59313, -174.266, 4.60797, 65.3471, 0.0671757, 150.377
2, 120.00000, 123.021, -31.196, 124.133, -151.192, 123.733, 88.421, 0, 0, 4.63463, -54.27, 4.59313, -174.266, 4.60797, 65.3471, 0.0671757, 150.377
2, 180.00000, 123.021, -31.196, 124.133, -151.192, 123.733, 88.421, 0, 0, 4.63463, -54.27, 4.59313, -174.266, 4.60797, 65.3471, 0.0671757, 150.377
2, 240.00000, 123.021, -31.196, 124.133, -151.192, 123.733, 88.421, 0, 0, 4.63463, -54.27, 4.59313, -174.266, 4.60797, 65.3471, 0.0671757, 150.377
2, 300.00000, 123.021, -31.196, 124.133, -151.192, 123.733, 88.421, 0, 0, 4.63463, -54.27, 4.59313, -174.266, 4.60797, 65.3471, 0.0671757, 150.377
2, 360.00000, 123.021, -31.196, 124.133, -151.192, 123.733, 88.421, 0, 0, 4.63463, -54.27, 4.59313, -174.266, 4.60797, 65.3471, 0.0671757, 150.377
2, 420.00000, 123.021, -31.196, 124.133, -151.192, 123.733, 88.421, 0, 0, 4.63463, -54.27, 4.59313, -174.266, 4.60797, 65.3471, 0.0671757, 150.377
2, 480.00000, 123.021, -31.196, 124.133, -151.192, 123.733, 88.421, 0, 0, 4.63463, -54.27, 4.59313, -174.266, 4.60797, 65.3471, 0.0671757, 150.377
2, 540.00000, 123.021, -31.196, 124.133, -151.192, 123.733, 88.421, 0, 0, 4.63463, -54.27, 4.59313, -174.266, 4.60797, 65.3471, 0.0671757, 150.377
2, 600.00000, 123.021, -31.196, 124.133, -151.192, 123.733, 88.421, 0, 0, 4.63463, -54.27, 4.59313, -174.266, 4.60797, 65.3471, 0.0671757, 150.377
2, 660.00000, 123.021, -31.196, 124.133, -151.192, 123.733, 88.421, 0, 0, 4.63463, -54.27, 4.59313, -174.266, 4.60797, 65.3471, 0.0671757, 150.377
2, 720.00000, 123.021, -31.196, 124.133, -151.192, 123.733, 88.421, 0, 0, 4.63463, -54.27, 4.59313, -174.266, 4.60797, 65.3471, 0.0671757, 150.377
2, 780.00000, 123.021, -31.196, 124.133, -151.192, 123.733, 88.421, 0, 0, 4.63463, -54.27, 4.59313, -174.266, 4.60797, 65.3471, 0.0671757, 150.377
