hour,t(sec),V1,VAngle1,V2,VAngle2,V3,VAngle3,V4,VAngle4,I1,IAngle1,I2,IAngle2,I3,IAngle3,I4,IAngle4
0, 60.00000, 122.583, -31.7414, 122.055, -151.482, 123.133, 88.602, 0, 0, 8.31069, -54.8151, 8.34663, -174.556, 8.27361, 65.5282, 0.107378, 30.0742
0, 120.00000, 122.583, -31.7414, 122.055, -151.482, 123.133, 88.602, 0, 0, 8.3108, -54.8153, 8.34676, -174.556, 8.2737, 65.5281, 0.107425, 30.0778
0, 180.00000, 122.583, -31.7414, 122.055, -151.482, 123.133, 88.602, 0, 0, 8.3108, -54.8153, 8.34676, -174.556, 8.2737, 65.5281, 0.107425, 30.0777
0, 240.00000, 122.583, -31.7414, 122.055, -151.482, 123.133, 88.602, 0, 0, 8.3108, -54.8153, 8.34676, -174.556, 8.2737, 65.5281, 0.107425, 30.0777
0, 300.00000, 122.583, -31.7414, 122.055, -151.482, 123.133, 88.602, 0, 0, 8.3108, -54.8153, 8.34676, -174.556, 8.2737, 65.5281, 0.107425, 30.0777
0, 360.00000, 122.583, -31.7414, 122.055, -151.482, 123.133, 88.602, 0, 0, 8.3108, -54.8153, 8.34676, -174.556, 8.2737, 65.5281, 0.107425, 30.0777
0, 420.00000, 122.583, -31.7414, 122.055, -151.482, 123.133, 88.602, 0, 0, 8.3108, -54.8153, 8.34676, -174.556, 8.2737, 65.5281, 0.107425, 30.0777
0, 480.00000, 123.175, -31.631, 122.624, -151.374, 123.694, 88.7172, 0, 0, 7.4733, -54.7053, 7.50687, -174.448, 7.44197, 65.6431, 0.0963877, 28.7532
0, 540.00000, 123.176, -31.631, 122.624, -151.374, 123.694, 88.7172, 0, 0, 7.47318, -54.7049, 7.50676, -174.448, 7.44187, 65.6433, 0.0963553, 28.7441
0, 600.00000, 123.176, -31.631, 122.624, -151.374, 123.694, 88.7172, 0, 0, 7.47318, -54.7049, 7.50676, -174.448, 7.44187, 65.6433, 0.0963551, 28.7441
0, 660.00000, 123.176, -31.631, 122.624, -151.374, 123.694, 88.7172, 0, 0, 7.47318, -54.7049, 7.50676, -174.448, 7.44187, 65.6433, 0.0963551, 28.7441
0, 720.00000, 123.176, -31.631, 122.624, -151.374, 123.694, 88.7172, 0, 0, 7.47318, -54.7049, 7.50676, -174.448, 7.44187, 65.6433, 0.0963551, 28.7441
0, 780.00000, 123.176, -31.631, 122.624, -151.374, 123.694, 88.7172, 0, 0, 7.47318, -54.7049, 7.50676, -174.448, 7.44187, 65.6433, 0.0963551, 28.7441
0, 840.00000, 123.176, -31.631, 122.624, -151.374, 123.694, 88.7172, 0, 0, 7.47318, -54.7049, 7.50676, -174.448, 7.44187, 65.6433, 0.0963551, 28.7441
0, 900.00000, 123.176, -31.631, 122.624, -151.374, 123.694, 88.7172, 0, 0, 7.47318, -54.7049, 7.50676, -174.448, 7.44187, 65.6433, 0.0963551, 28.7441
0, 960.00000, 121.699, -31.272, 122.542, -151.497, 121.945, 88.304, 0, 0, 7.56362, -54.3453, 7.51189, -174.571, 7.54828, 65.2301, 0.0932191, 178.329
0, 1020.00000, 121.698, -31.272, 122.542, -151.497, 121.945, 88.304, 0, 0, 7.56389, -54.3459, 7.51183, -174.57, 7.54862, 65.2301, 0.0935137, 178.344
0, 1080.00000, 121.698, -31.272, 122.542, -151.497, 121.945, 88.304, 0, 0, 7.56389, -54.3459, 7.51183, -174.57, 7.54862, 65.2301, 0.0935147, 178.344
0, 1140.00000, 123.173, -31.63, 122.525, -151.499, 123.389, 88.6895, 0, 0, 7.47348, -54.7045, 7.5128, -174.572, 7.46038, 65.6158, 0.082409, 10.8037
0, 1200.00000, 123.173, -31.6299, 122.525, -151.499, 123.389, 88.6895, 0, 0, 7.47334, -54.7038, 7.51286, -174.573, 7.46025, 65.6155, 0.0824982, 10.7604
0, 1260.00000, 123.173, -31.6299, 122.525, -151.499, 123.389, 88.6895, 0, 0, 7.47333, -54.7038, 7.51286, -174.573, 7.46025, 65.6155, 0.0824984, 10.7602
0, 1320.00000, 123.173, -31.6299, 122.525, -151.499, 123.389, 88.6895, 0, 0, 7.47333, -54.7038, 7.51286, -174.573, 7.46025, 65.6155, 0.0824984, 10.7602
0, 1380.00000, 123.173, -31.6299, 122.525, -151.499, 123.389, 88.6895, 0, 0, 7.47333, -54.7038, 7.51286, -174.573, 7.46025, 65.6155, 0.0824984, 10.7602
0, 1440.00000, 123.173, -31.6299, 122.525, -151.499, 123.389, 88.6895, 0, 0, 7.47333, -54.7038, 7.51286, -174.573, 7.46025, 65.6155, 0.0824984, 10.7602
0, 1500.00000, 123.173, -31.6299, 122.525, -151.499, 123.389, 88.6895, 0, 0, 7.47333, -54.7038, 7.51286, -174.573, 7.46025, 65.6155, 0.0824984, 10.7602
0, 1560.00000, 123.173, -31.6299, 122.525, -151.499, 123.389, 88.6895, 0, 0, 7.47333, -54.7038, 7.51286, -174.573, 7.46025, 65.6155, 0.0824984, 10.7602
0, 1620.00000, 123.173, -31.6299, 122.525, -151.499, 123.389, 88.6895, 0, 0, 7.47333, -54.7038, 7.51286, -174.573, 7.46025, 65.6155, 0.0824984, 10.7602
0, 1680.00000, 123.173, -31.6299, 122.525, -151.499, 123.389, 88.6895, 0, 0, 7.47333, -54.7038, 7.51286, -174.573, 7.46025, 65.6155, 0.0824984, 10.7602
0, 1740.00000, 123.173, -31.6299, 122.525, -151.499, 123.389, 88.6895, 0, 0, 7.47333, -54.7038, 7.51286, -174.573, 7.46025, 65.6155, 0.0824984, 10.7602
0, 1800.00000, 123.077, -31.7544, 122.232, -151.527, 123.395, 88.6874, 0, 0, 7.47913, -54.8283, 7.53084, -174.601, 7.45992, 65.6135, 0.112625, 14.344
0, 1860.00000, 123.077, -31.7544, 122.232, -151.527, 123.395, 88.6874, 0, 0, 7.47917, -54.8283, 7.5309, -174.601, 7.4599, 65.6135, 0.112678, 14.3538
0, 1920.00000, 123.077, -31.7544, 122.232, -151.527, 123.395, 88.6874, 0, 0, 7.47917, -54.8283, 7.5309, -174.601, 7.4599, 65.6135, 0.112678, 14.3539
0, 1980.00000, 123.077, -31.7544, 122.232, -151.527, 123.395, 88.6874, 0, 0, 7.47917, -54.8283, 7.5309, -174.601, 7.4599, 65.6135, 0.112678, 14.3539
0, 2040.00000, 123.077, -31.7544, 122.232, -151.527, 123.395, 88.6874, 0, 0, 7.47917, -54.8283, 7.5309, -174.601, 7.4599, 65.6135, 0.112678, 14.3539
0, 2100.00000, 123.077, -31.7544, 122.232, -151.527, 123.395, 88.6874, 0, 0, 7.47917, -54.8283, 7.5309, -174.601, 7.4599, 65.6135, 0.112678, 14.3539
0, 2160.00000, 123.077, -31.7544, 122.232, -151.527, 123.395, 88.6874, 0, 0, 7.47917, -54.8283, 7.5309, -174.601, 7.4599, 65.6135, 0.112678, 14.3539
0, 2220.00000, 123.077, -31.7544, 122.232, -151.527, 123.395, 88.6874, 0, 0, 7.47917, -54.8283, 7.5309, -174.601, 7.4599, 65.6135, 0.112678, 14.3539
0, 2280.00000, 123.077, -31.7544, 122.232, -151.527, 123.395, 88.6874, 0, 0, 7.47917, -54.8283, 7.5309, -174.601, 7.4599, 65.6135, 0.112678, 14.3539
0, 2340.00000, 123.077, -31.7544, 122.232, -151.527, 123.395, 88.6874, 0, 0, 7.47917, -54.8283, 7.5309, -174.601, 7.4599, 65.6135, 0.112678, 14.3539
0, 2400.00000, 123.077, -31.7544, 122.232, -151.527, 123.395, 88.6874, 0, 0, 7.47917, -54.8283, 7.5309, -174.601, 7.4599, 65.6135, 0.112678, 14.3539
0, 2460.00000, 123.077, -31.7544, 122.232, -151.527, 123.395, 88.6874, 0, 0, 7.47917, -54.8283, 7.5309, -174.601, 7.4599, 65.6135, 0.112678, 14.3539
0, 2520.00000, 123.077, -31.7544, 122.232, -151.527, 123.395, 88.6874, 0, 0, 7.47917, -54.8283, 7.5309, -174.601, 7.4599, 65.6135, 0.112678, 14.3539
0, 2580.00000, 123.077, -31.7544, 122.232, -151.527, 123.395, 88.6874, 0, 0, 7.47917, -54.8283, 7.5309, -174.601, 7.4599, 65.6135, 0.112678, 14.3539
0, 2640.00000, 123.077, -31.7544, 122.232, -151.527, 123.395, 88.6874, 0, 0, 7.47917, -54.8283, 7.5309, -174.601, 7.4599, 65.6135, 0.112678, 14.3539
0, 2700.00000, 123.077, -31.7544, 122.232, -151.527, 123.395, 88.6874, 0, 0, 7.47917, -54.8283, 7.5309, -174.601, 7.4599, 65.6135, 0.112678, 14.3539
0, 2760.00000, 123.336, -31.5829, 122.7, -151.532, 123.364, 88.6918, 0, 0, 7.46357, -54.6568, 7.50225, -174.607, 7.4617, 65.6179, 0.0712883, -2.41993
0, 2820.00000, 123.336, -31.5829, 122.7, -151.532, 123.364, 88.6918, 0, 0, 7.46347, -54.6568, 7.50211, -174.606, 7.46176, 65.6179, 0.0711864, -2.48568
0, 2880.00000, 123.336, -31.5829, 122.7, -151.532, 123.364, 88.6918, 0, 0, 7.46347, -54.6568, 7.50211, -174.606, 7.46176, 65.6179, 0.071186, -2.48603
0, 2940.00000, 123.336, -31.5829, 122.7, -151.532, 123.364, 88.6918, 0, 0, 7.46347, -54.6568, 7.50211, -174.606, 7.46176, 65.6179, 0.071186, -2.48603
0, 3000.00000, 123.336, -31.5829, 122.7, -151.532, 123.364, 88.6918, 0, 0, 7.46347, -54.6568, 7.50211, -174.606, 7.46176, 65.6179, 0.071186, -2.48603
0, 3060.00000, 123.336, -31.5829, 122.7, -151.532, 123.364, 88.6918, 0, 0, 7.46347, -54.6568, 7.50211, -174.606, 7.46176, 65.6179, 0.071186, -2.48603
0, 3120.00000, 123.336, -31.5829, 122.7, -151.532, 123.364, 88.6918, 0, 0, 7.46347, -54.6568, 7.50211, -174.606, 7.46176, 65.6179, 0.071186, -2.48603
0, 3180.00000, 123.336, -31.5829, 122.7, -151.532, 123.364, 88.6918, 0, 0, 7.46347, -54.6568, 7.50211, -174.606, 7.46176, 65.6179, 0.071186, -2.48603
0, 3240.00000, 123.336, -31.5829, 122.7, -151.532, 123.364, 88.6918, 0, 0, 7.46347, -54.6568, 7.50211, -174.606, 7.46176, 65.6179, 0.071186, -2.48603
0, 3300.00000, 123.336, -31.5829, 122.7, -151.532, 123.364, 88.6918, 0, 0, 7.46347, -54.6568, 7.50211, -174.606, 7.46176, 65.6179, 0.071186, -2.48603
0, 3360.00000, 123.336, -31.5829, 122.7, -151.532, 123.364, 88.6918, 0, 0, 7.46347, -54.6568, 7.50211, -174.606, 7.46176, 65.6179, 0.071186, -2.48603
0, 3420.00000, 123.336, -31.5829, 122.7, -151.532, 123.364, 88.6918, 0, 0, 7.46347, -54.6568, 7.50211, -174.606, 7.46176, 65.6179, 0.071186, -2.48603
0, 3480.00000, 123.336, -31.5829, 122.7, -151.532, 123.364, 88.6918, 0, 0, 7.46347, -54.6568, 7.50211, -174.606, 7.46176, 65.6179, 0.071186, -2.48603
0, 3540.00000, 123.336, -31.5829, 122.7, -151.532, 123.364, 88.6918, 0, 0, 7.46347, -54.6568, 7.50211, -174.606, 7.46176, 65.6179, 0.071186, -2.48603
1, 0.00000, 123.336, -31.5829, 122.7, -151.532, 123.364, 88.6918, 0, 0, 7.46347, -54.6568, 7.50211, -174.606, 7.46176, 65.6179, 0.071186, -2.48603
1, 60.00000, 123.591, -31.4125, 123.168, -151.538, 123.333, 88.6964, 0, 0, 7.44808, -54.4863, 7.47372, -174.612, 7.46361, 65.6225, 0.0476786, -45.2693
1, 120.00000, 123.592, -31.4125, 123.168, -151.538, 123.333, 88.6964, 0, 0, 7.44803, -54.4865, 7.47361, -174.612, 7.46366, 65.6225, 0.0476468, -45.3795
1, 180.00000, 123.592, -31.4125, 123.168, -151.538, 123.333, 88.6964, 0, 0, 7.44803, -54.4865, 7.47361, -174.612, 7.46366, 65.6225, 0.0476468, -45.38
1, 240.00000, 123.592, -31.4125, 123.168, -151.538, 123.333, 88.6964, 0, 0, 7.44803, -54.4865, 7.47361, -174.612, 7.46366, 65.6225, 0.0476468, -45.38
1, 300.00000, 123.592, -31.4125, 123.168, -151.538, 123.333, 88.6964, 0, 0, 7.44803, -54.4865, 7.47361, -174.612, 7.46366, 65.6225, 0.0476468, -45.38
1, 360.00000, 123.592, -31.4125, 123.168, -151.538, 123.333, 88.6964, 0, 0, 7.44803, -54.4865, 7.47361, -174.612, 7.46366, 65.6225, 0.0476468, -45.38
1, 420.00000, 123.592, -31.4125, 123.168, -151.538, 123.333, 88.6964, 0, 0, 7.44803, -54.4865, 7.47361, -174.612, 7.46366, 65.6225, 0.0476468, -45.38
1, 480.00000, 123.592, -31.4125, 123.168, -151.538, 123.333, 88.6964, 0, 0, 7.44803, -54.4865, 7.47361, -174.612, 7.46366, 65.6225, 0.0476468, -45.38
1, 540.00000, 123.592, -31.4125, 123.168, -151.538, 123.333, 88.6964, 0, 0, 7.44803, -54.4865, 7.47361, -174.612, 7.46366, 65.6225, 0.0476468, -45.38
1, 600.00000, 123.592, -31.4125, 123.168, -151.538, 123.333, 88.6964, 0, 0, 7.44803, -54.4865, 7.47361, -174.612, 7.46366, 65.6225, 0.0476468, -45.38
1, 660.00000, 123.592, -31.4125, 123.168, -151.538, 123.333, 88.6964, 0, 0, 7.44803, -54.4865, 7.47361, -174.612, 7.46366, 65.6225, 0.0476468, -45.38
1, 720.00000, 123.592, -31.4125, 123.168, -151.538, 123.333, 88.6964, 0, 0, 7.44803, -54.4865, 7.47361, -174.612, 7.46366, 65.6225, 0.0476468, -45.38
1, 780.00000, 123.588, -31.4117, 123.252, -151.418, 123.616, 88.7281, 0, 0, 7.44821, -54.4857, 7.46859, -174.492, 7.44667, 65.6539, 0.0378452, -7.46669
1, 840.00000, 123.588, -31.4117, 123.252, -151.418, 123.616, 88.7281, 0, 0, 7.44824, -54.4856, 7.46856, -174.492, 7.44657, 65.6542, 0.0378504, -7.34349
1, 900.00000, 123.588, -31.4117, 123.252, -151.418, 123.616, 88.7281, 0, 0, 7.44824, -54.4856, 7.46856, -174.492, 7.44657, 65.6542, 0.0378504, -7.34297
1, 960.00000, 123.588, -31.4117, 123.252, -151.418, 123.616, 88.7281, 0, 0, 7.44824, -54.4856, 7.46856, -174.492, 7.44657, 65.6542, 0.0378504, -7.34297
1, 1020.00000, 123.588, -31.4117, 123.252, -151.418, 123.616, 88.7281, 0, 0, 7.44824, -54.4856, 7.46856, -174.492, 7.44657, 65.6542, 0.0378504, -7.34297
1, 1080.00000, 123.588, -31.4117, 123.252, -151.418, 123.616, 88.7281, 0, 0, 7.44824, -54.4856, 7.46856, -174.492, 7.44657, 65.6542, 0.0378504, -7.34297
1, 1140.00000, 123.588, -31.4117, 123.252, -151.418, 123.616, 88.7281, 0, 0, 7.44824, -54.4856, 7.46856, -174.492, 7.44657, 65.6542, 0.0378504, -7.34297
1, 1200.00000, 123.588, -31.4117, 123.252, -151.418, 123.616, 88.7281, 0, 0, 7.44824, -54.4856, 7.46856, -174.492, 7.44657, 65.6542, 0.0378504, -7.34297
1, 1260.00000, 123.588, -31.4117, 123.252, -151.418, 123.616, 88.7281, 0, 0, 7.44824, -54.4856, 7.46856, -174.492, 7.44657, 65.6542, 0.0378504, -7.34297
1, 1320.00000, 123.588, -31.4117, 123.252, -151.418, 123.616, 88.7281, 0, 0, 7.44824, -54.4856, 7.46856, -174.492, 7.44657, 65.6542, 0.0378504, -7.34297
1, 1380.00000, 123.588, -31.4117, 123.252, -151.418, 123.616, 88.7281, 0, 0, 7.44824, -54.4856, 7.46856, -174.492, 7.44657, 65.6542, 0.0378504, -7.34297
1, 1440.00000, 123.588, -31.4117, 123.252, -151.418, 123.616, 88.7281, 0, 0, 7.44824, -54.4856, 7.46856, -174.492, 7.44657, 65.6542, 0.0378504, -7.34297
1, 1500.00000, 123.588, -31.4117, 123.252, -151.418, 123.616, 88.7281, 0, 0, 7.44824, -54.4856, 7.46856, -174.492, 7.44657, 65.6542, 0.0378504, -7.34297
1, 1560.00000, 123.588, -31.4117, 123.252, -151.418, 123.616, 88.7281, 0, 0, 7.44824, -54.4856, 7.46856, -174.492, 7.44657, 65.6542, 0.0378504, -7.34297
1, 1620.00000, 123.588, -31.4117, 123.252, -151.418, 123.616, 88.7281, 0, 0, 7.44824, -54.4856, 7.46856, -174.492, 7.44657, 65.6542, 0.0378504, -7.34297
1, 1680.00000, 123.588, -31.4117, 123.252, -151.418, 123.616, 88.7281, 0, 0, 7.44824, -54.4856, 7.46856, -174.492, 7.44657, 65.6542, 0.0378504, -7.34297
1, 1740.00000, 123.588, -31.4117, 123.252, -151.418, 123.616, 88.7281, 0, 0, 7.44824, -54.4856, 7.46856, -174.492, 7.44657, 65.6542, 0.0378504, -7.34297
1, 1800.00000, 123.588, -31.4117, 123.252, -151.418, 123.616, 88.7281, 0, 0, 7.44824, -54.4856, 7.46856, -174.492, 7.44657, 65.6542, 0.0378504, -7.34297
1, 1860.00000, 123.588, -31.4117, 123.252, -151.418, 123.616, 88.7281, 0, 0, 7.44824, -54.4856, 7.46856, -174.492, 7.44657, 65.6542, 0.0378504, -7.34297
1, 1920.00000, 123.588, -31.4117, 123.252, -151.418, 123.616, 88.7281, 0, 0, 7.44824, -54.4856, 7.46856, -174.492, 7.44657, 65.6542, 0.0378504, -7.34297
1, 1980.00000, 123.588, -31.4117, 123.252, -151.418, 123.616, 88.7281, 0, 0, 7.44824, -54.4856, 7.46856, -174.492, 7.44657, 65.6542, 0.0378504, -7.34297
1, 2040.00000, 123.588, -31.4117, 123.252, -151.418, 123.616, 88.7281, 0, 0, 7.44824, -54.4856, 7.46856, -174.492, 7.44657, 65.6542, 0.0378504, -7.34297
1, 2100.00000, 123.588, -31.4117, 123.252, -151.418, 123.616, 88.7281, 0, 0, 7.44824, -54.4856, 7.46856, -174.492, 7.44657, 65.6542, 0.0378504, -7.34297
1, 2160.00000, 123.588, -31.4117, 123.252, -151.418, 123.616, 88.7281, 0, 0, 7.44824, -54.4856, 7.46856, -174.492, 7.44657, 65.6542, 0.0378504, -7.34297
1, 2220.00000, 123.682, -31.2874, 123.548, -151.387, 123.61, 88.7302, 0, 0, 7.44258, -54.3613, 7.45072, -174.462, 7.44688, 65.6562, 0.0195735, -60.4349
1, 2280.00000, 123.682, -31.2874, 123.548, -151.387, 123.61, 88.7302, 0, 0, 7.44256, -54.3614, 7.45063, -174.461, 7.44691, 65.6563, 0.0195466, -60.6237
1, 2340.00000, 123.682, -31.2874, 123.548, -151.387, 123.61, 88.7302, 0, 0, 7.44256, -54.3614, 7.45063, -174.461, 7.44691, 65.6563, 0.0195465, -60.6246
1, 2400.00000, 123.682, -31.2874, 123.548, -151.387, 123.61, 88.7302, 0, 0, 7.44256, -54.3614, 7.45063, -174.461, 7.44691, 65.6563, 0.0195465, -60.6246
1, 2460.00000, 123.682, -31.2874, 123.548, -151.387, 123.61, 88.7302, 0, 0, 7.44256, -54.3614, 7.45063, -174.461, 7.44691, 65.6563, 0.0195465, -60.6246
1, 2520.00000, 123.682, -31.2874, 123.548, -151.387, 123.61, 88.7302, 0, 0, 7.44256, -54.3614, 7.45063, -174.461, 7.44691, 65.6563, 0.0195465, -60.6246
1, 2580.00000, 123.682, -31.2874, 123.548, -151.387, 123.61, 88.7302, 0, 0, 7.44256, -54.3614, 7.45063, -174.461, 7.44691, 65.6563, 0.0195465, -60.6246
1, 2640.00000, 123.682, -31.2874, 123.548, -151.387, 123.61, 88.7302, 0, 0, 7.44256, -54.3614, 7.45063, -174.461, 7.44691, 65.6563, 0.0195465, -60.6246
1, 2700.00000, 123.682, -31.2874, 123.548, -151.387, 123.61, 88.7302, 0, 0, 7.44256, -54.3614, 7.45063, -174.461, 7.44691, 65.6563, 0.0195465, -60.6246
1, 2760.00000, 123.682, -31.2874, 123.548, -151.387, 123.61, 88.7302, 0, 0, 7.44256, -54.3614, 7.45063, -174.461, 7.44691, 65.6563, 0.0195465, -60.6246
1, 2820.00000, 123.682, -31.2874, 123.548, -151.387, 123.61, 88.7302, 0, 0, 7.44256, -54.3614, 7.45063, -174.461, 7.44691, 65.6563, 0.0195465, -60.6246
1, 2880.00000, 123.682, -31.2874, 123.548, -151.387, 123.61, 88.7302, 0, 0, 7.44256, -54.3614, 7.45063, -174.461, 7.44691, 65.6563, 0.0195465, -60.6246
1, 2940.00000, 123.682, -31.2874, 123.548, -151.387, 123.61, 88.7302, 0, 0, 7.44256, -54.3614, 7.45063, -174.461, 7.44691, 65.6563, 0.0195465, -60.6246
1, 3000.00000, 123.682, -31.2874, 123.548, -151.387, 123.61, 88.7302, 0, 0, 7.44256, -54.3614, 7.45063, -174.461, 7.44691, 65.6563, 0.0195465, -60.6246
1, 3060.00000, 123.682, -31.2874, 123.548, -151.387, 123.61, 88.7302, 0, 0, 7.44256, -54.3614, 7.45063, -174.461, 7.44691, 65.6563, 0.0195465, -60.6246
1, 3120.00000, 123.682, -31.2874, 123.548, -151.387, 123.61, 88.7302, 0, 0, 7.44256, -54.3614, 7.45063, -174.461, 7.44691, 65.6563, 0.0195465, -60.6246
1, 3180.00000, 123.682, -31.2874, 123.548, -151.387, 123.61, 88.7302, 0, 0, 7.44256, -54.3614, 7.45063, -174.461, 7.44691, 65.6563, 0.0195465, -60.6246
1, 3240.00000, 123.682, -31.2874, 123.548, -151.387, 123.61, 88.7302, 0, 0, 7.44256, -54.3614, 7.45063, -174.461, 7.44691, 65.6563, 0.0195465, -60.6246
1, 3300.00000, 123.682, -31.2874, 123.548, -151.387, 123.61, 88.7302, 0, 0, 7.44256, -54.3614, 7.45063, -174.461, 7.44691, 65.6563, 0.0195465, -60.6246
1, 3360.00000, 123.682, -31.2874, 123.548, -151.387, 123.61, 88.7302, 0, 0, 7.44256, -54.3614, 7.45063, -174.461, 7.44691, 65.6563, 0.0195465, -60.6246
1, 3420.00000, 123.682, -31.2874, 123.548, -151.387, 123.61, 88.7302, 0, 0, 7.44256, -54.3614, 7.45063, -174.461, 7.44691, 65.6563, 0.0195465, -60.6246
1, 3480.00000, 123.682, -31.2874, 123.548, -151.387, 123.61, 88.7302, 0, 0, 7.44256, -54.3614, 7.45063, -174.461, 7.44691, 65.6563, 0.0195465, -60.6246
1, 3540.00000, 123.682, -31.2874, 123.548, -151.387, 123.61, 88.7302, 0, 0, 7.44256, -54.3614, 7.45063, -174.461, 7.44691, 65.6563, 0.0195465, -60.6246
2, 0.00000, 123.682, -31.2874, 123.548, -151.387, 123.61, 88.7302, 0, 0, 7.44256, -54.3614, 7.45063, -174.461, 7.44691, 65.6563, 0.0195465, -60.6246
2, 60.00000, 123.682, -31.2874, 123.548, -151.387, 123.61, 88.7302, 0, 0, 7.44256, -54.3614, 7.45063, -174.461, 7.44691, 65.6563, 0.0195465, -60.6246
2, 120.00000, 123.682, -31.2874, 123.548, -151.387, 123.61, 88.7302, 0, 0, 7.44256, -54.3614, 7.45063, -174.461, 7.44691, 65.6563, 0.0195465, -60.6246
2, 180.00000, 123.682, -31.2874, 123.548, -151.387, 123.61, 88.7302, 0, 0, 7.44256, -54.3614, 7.45063, -174.461, 7.44691, 65.6563, 0.0195465, -60.6246
2, 240.00000, 123.682, -31.2874, 123.548, -151.387, 123.61, 88.7302, 0, 0, 7.44256, -54.3614, 7.45063, -174.461, 7.44691, 65.6563, 0.0195465, -60.6246
2, 300.00000, 123.682, -31.2874, 123.548, -151.387, 123.61, 88.7302, 0, 0, 7.44256, -54.3614, 7.45063, -174.461, 7.44691, 65.6563, 0.0195465, -60.6246
2, 360.00000, 123.682, -31.2874, 123.548, -151.387, 123.61, 88.7302, 0, 0, 7.44256, -54.3614, 7.45063, -174.461, 7.44691, 65.6563, 0.0195465, -60.6246
2, 420.00000, 123.682, -31.2874, 123.548, -151.387, 123.61, 88.7302, 0, 0, 7.44256, -54.3614, 7.45063, -174.461, 7.44691, 65.6563, 0.0195465, -60.6246
2, 480.00000, 123.682, -31.2874, 123.548, -151.387, 123.61, 88.7302, 0, 0, 7.44256, -54.3614, 7.45063, -174.461, 7.44691, 65.6563, 0.0195465, -60.6246
2, 540.00000, 123.682, -31.2874, 123.548, -151.387, 123.61, 88.7302, 0, 0, 7.44256, -54.3614, 7.45063, -174.461, 7.44691, 65.6563, 0.0195465, -60.6246
2, 600.00000, 123.682, -31.2874, 123.548, -151.387, 123.61, 88.7302, 0, 0, 7.44256, -54.3614, 7.45063, -174.461, 7.44691, 65.6563, 0.0195465, -60.6246
2, 660.00000, 123.682, -31.2874, 123.548, -151.387, 123.61, 88.7302, 0, 0, 7.44256, -54.3614, 7.45063, -174.461, 7.44691, 65.6563, 0.0195465, -60.6246
