hour,t(sec),V1,VAngle1,V2,VAngle2,V3,VAngle3,V4,VAngle4,I1,IAngle1,I2,IAngle2,I3,IAngle3,I4,IAngle4
0, 60.00000, 117.257, -30.8517, 119.131, -150.985, 118.21, 88.4546, 0, 0, 7.04749, -53.9254, 7.17272, -174.059, 7.11121, 65.3808, 0.0342155, -50.1061
0, 120.00000, 117.257, -30.8517, 119.131, -150.985, 118.21, 88.4546, 0, 0, 7.04744, -53.9256, 7.17268, -174.059, 7.11116, 65.3807, 0.0342247, -50.0969
0, 180.00000, 117.257, -30.8517, 119.131, -150.985, 118.21, 88.4546, 0, 0, 7.04744, -53.9256, 7.17268, -174.059, 7.11116, 65.3807, 0.0342247, -50.0971
0, 240.00000, 117.257, -30.8517, 119.131, -150.985, 118.21, 88.4546, 0, 0, 7.04744, -53.9256, 7.17268, -174.059, 7.11116, 65.3807, 0.0342248, -50.0971
0, 300.00000, 117.257, -30.8517, 119.131, -150.985, 118.21, 88.4546, 0, 0, 7.04744, -53.9256, 7.17268, -174.059, 7.11116, 65.3807, 0.0342248, -50.0971
0, 360.00000, 117.257, -30.8517, 119.131, -150.985, 118.21, 88.4546, 0, 0, 7.04744, -53.9256, 7.17268, -174.059, 7.11116, 65.3807, 0.0342248, -50.0971
0, 420.00000, 117.257, -30.8517, 119.131, -150.985, 118.21, 88.4546, 0, 0, 7.04744, -53.9256, 7.17268, -174.059, 7.11116, 65.3807, 0.0342248, -50.0971
0, 480.00000, 118.293, -30.7574, 120.148, -150.902, 119.192, 88.5569, 0, 0, 6.19149, -53.8316, 6.29925, -173.976, 6.24373, 65.4824, 0.028953, -47.6288
0, 540.00000, 118.293, -30.7573, 120.148, -150.902, 119.193, 88.5569, 0, 0, 6.19152, -53.8313, 6.29937, -173.976, 6.24384, 65.483, 0.0290764, -47.6093
0, 600.00000, 118.293, -30.7573, 120.148, -150.902, 119.193, 88.5569, 0, 0, 6.19152, -53.8313, 6.29937, -173.976, 6.24384, 65.483, 0.029077, -47.6091
0, 660.00000, 118.293, -30.7573, 120.148, -150.902, 119.193, 88.5569, 0, 0, 6.19152, -53.8313, 6.29937, -173.976, 6.24384, 65.483, 0.029077, -47.6091
0, 720.00000, 118.293, -30.7573, 120.148, -150.902, 119.193, 88.5569, 0, 0, 6.19152, -53.8313, 6.29937, -173.976, 6.24384, 65.483, 0.029077, -47.6091
0, 780.00000, 118.293, -30.7573, 120.148, -150.902, 119.193, 88.5569, 0, 0, 6.19152, -53.8313, 6.29937, -173.976, 6.24384, 65.483, 0.029077, -47.6091
0, 840.00000, 118.293, -30.7573, 120.148, -150.902, 119.193, 88.5569, 0, 0, 6.19152, -53.8313, 6.29937, -173.976, 6.24384, 65.483, 0.029077, -47.6091
0, 900.00000, 118.293, -30.7573, 120.148, -150.902, 119.193, 88.5569, 0, 0, 6.19152, -53.8313, 6.29937, -173.976, 6.24384, 65.483, 0.029077, -47.6091
0, 960.00000, 118.293, -30.7573, 120.148, -150.902, 119.193, 88.5569, 0, 0, 6.19152, -53.8313, 6.29937, -173.976, 6.24384, 65.483, 0.029077, -47.6091
0, 1020.00000, 118.293, -30.7573, 120.148, -150.902, 119.193, 88.5569, 0, 0, 6.19152, -53.8313, 6.29937, -173.976, 6.24384, 65.483, 0.029077, -47.6091
0, 1080.00000, 118.293, -30.7573, 120.148, -150.902, 119.193, 88.5569, 0, 0, 6.19152, -53.8313, 6.29937, -173.976, 6.24384, 65.483, 0.029077, -47.6091
0, 1140.00000, 118.293, -30.7573, 120.148, -150.902, 119.193, 88.5569, 0, 0, 6.19152, -53.8313, 6.29937, -173.976, 6.24384, 65.483, 0.029077, -47.6091
0, 1200.00000, 118.293, -30.7573, 120.148, -150.902, 119.193, 88.5569, 0, 0, 6.19152, -53.8313, 6.29937, -173.976, 6.24384, 65.483, 0.029077, -47.6091
0, 1260.00000, 118.293, -30.7573, 120.148, -150.902, 119.193, 88.5569, 0, 0, 6.19152, -53.8313, 6.29937, -173.976, 6.24384, 65.483, 0.029077, -47.6091
0, 1320.00000, 118.293, -30.7573, 120.148, -150.902, 119.193, 88.5569, 0, 0, 6.19152, -53.8313, 6.29937, -173.976, 6.24384, 65.483, 0.029077, -47.6091
0, 1380.00000, 118.293, -30.7573, 120.148, -150.902, 119.193, 88.5569, 0, 0, 6.19152, -53.8313, 6.29937, -173.976, 6.24384, 65.483, 0.029077, -47.6091
0, 1440.00000, 118.293, -30.7573, 120.148, -150.902, 119.193, 88.5569, 0, 0, 6.19152, -53.8313, 6.29937, -173.976, 6.24384, 65.483, 0.029077, -47.6091
0, 1500.00000, 118.293, -30.7573, 120.148, -150.902, 119.193, 88.5569, 0, 0, 6.19152, -53.8313, 6.29937, -173.976, 6.24384, 65.483, 0.029077, -47.6091
0, 1560.00000, 118.293, -30.7573, 120.148, -150.902, 119.193, 88.5569, 0, 0, 6.19152, -53.8313, 6.29937, -173.976, 6.24384, 65.483, 0.029077, -47.6091
0, 1620.00000, 118.293, -30.7573, 120.148, -150.902, 119.193, 88.5569, 0, 0, 6.19152, -53.8313, 6.29937, -173.976, 6.24384, 65.483, 0.029077, -47.6091
0, 1680.00000, 118.293, -30.7573, 120.148, -150.902, 119.193, 88.5569, 0, 0, 6.19152, -53.8313, 6.29937, -173.976, 6.24384, 65.483, 0.029077, -47.6091
0, 1740.00000, 118.293, -30.7573, 120.148, -150.902, 119.193, 88.5569, 0, 0, 6.19152, -53.8313, 6.29937, -173.976, 6.24384, 65.483, 0.029077, -47.6091
0, 1800.00000, 118.293, -30.7573, 120.148, -150.902, 119.193, 88.5569, 0, 0, 6.19152, -53.8313, 6.29937, -173.976, 6.24384, 65.483, 0.029077, -47.6091
0, 1860.00000, 118.293, -30.7573, 120.148, -150.902, 119.193, 88.5569, 0, 0, 6.19152, -53.8313, 6.29937, -173.976, 6.24384, 65.483, 0.029077, -47.6091
0, 1920.00000, 118.293, -30.7573, 120.148, -150.902, 119.193, 88.5569, 0, 0, 6.19152, -53.8313, 6.29937, -173.976, 6.24384, 65.483, 0.029077, -47.6091
0, 1980.00000, 118.293, -30.7573, 120.148, -150.902, 119.193, 88.5569, 0, 0, 6.19152, -53.8313, 6.29937, -173.976, 6.24384, 65.483, 0.029077, -47.6091
0, 2040.00000, 118.293, -30.7573, 120.148, -150.902, 119.193, 88.5569, 0, 0, 6.19152, -53.8313, 6.29937, -173.976, 6.24384, 65.483, 0.029077, -47.6091
0, 2100.00000, 118.293, -30.7573, 120.148, -150.902, 119.193, 88.5569, 0, 0, 6.19152, -53.8313, 6.29937, -173.976, 6.24384, 65.483, 0.029077, -47.6091
0, 2160.00000, 118.293, -30.7573, 120.148, -150.902, 119.193, 88.5569, 0, 0, 6.19152, -53.8313, 6.29937, -173.976, 6.24384, 65.483, 0.029077, -47.6091
0, 2220.00000, 118.293, -30.7573, 120.148, -150.902, 119.193, 88.5569, 0, 0, 6.19152, -53.8313, 6.29937, -173.976, 6.24384, 65.483, 0.029077, -47.6091
0, 2280.00000, 118.293, -30.7573, 120.148, -150.902, 119.193, 88.5569, 0, 0, 6.19152, -53.8313, 6.29937, -173.976, 6.24384, 65.483, 0.029077, -47.6091
0, 2340.00000, 118.293, -30.7573, 120.148, -150.902, 119.193, 88.5569, 0, 0, 6.19152, -53.8313, 6.29937, -173.976, 6.24384, 65.483, 0.029077, -47.6091
0, 2400.00000, 118.293, -30.7573, 120.148, -150.902, 119.193, 88.5569, 0, 0, 6.19152, -53.8313, 6.29937, -173.976, 6.24384, 65.483, 0.029077, -47.6091
0, 2460.00000, 118.293, -30.7573, 120.148, -150.902, 119.193, 88.5569, 0, 0, 6.19152, -53.8313, 6.29937, -173.976, 6.24384, 65.483, 0.029077, -47.6091
0, 2520.00000, 118.293, -30.7573, 120.148, -150.902, 119.193, 88.5569, 0, 0, 6.19152, -53.8313, 6.29937, -173.976, 6.24384, 65.483, 0.029077, -47.6091
0, 2580.00000, 118.293, -30.7573, 120.148, -150.902, 119.193, 88.5569, 0, 0, 6.19152, -53.8313, 6.29937, -173.976, 6.24384, 65.483, 0.029077, -47.6091
0, 2640.00000, 118.293, -30.7573, 120.148, -150.902, 119.193, 88.5569, 0, 0, 6.19152, -53.8313, 6.29937, -173.976, 6.24384, 65.483, 0.029077, -47.6091
0, 2700.00000, 118.293, -30.7573, 120.148, -150.902, 119.193, 88.5569, 0, 0, 6.19152, -53.8313, 6.29937, -173.976, 6.24384, 65.483, 0.029077, -47.6091
0, 2760.00000, 118.293, -30.7573, 120.148, -150.902, 119.193, 88.5569, 0, 0, 6.19152, -53.8313, 6.29937, -173.976, 6.24384, 65.483, 0.029077, -47.6091
0, 2820.00000, 118.293, -30.7573, 120.148, -150.902, 119.193, 88.5569, 0, 0, 6.19152, -53.8313, 6.29937, -173.976, 6.24384, 65.483, 0.029077, -47.6091
0, 2880.00000, 118.293, -30.7573, 120.148, -150.902, 119.193, 88.5569, 0, 0, 6.19152, -53.8313, 6.29937, -173.976, 6.24384, 65.483, 0.029077, -47.6091
0, 2940.00000, 118.293, -30.7573, 120.148, -150.902, 119.193, 88.5569, 0, 0, 6.19152, -53.8313, 6.29937, -173.976, 6.24384, 65.483, 0.029077, -47.6091
0, 3000.00000, 118.293, -30.7573, 120.148, -150.902, 119.193, 88.5569, 0, 0, 6.19152, -53.8313, 6.29937, -173.976, 6.24384, 65.483, 0.029077, -47.6091
0, 3060.00000, 118.293, -30.7573, 120.148, -150.902, 119.193, 88.5569, 0, 0, 6.19152, -53.8313, 6.29937, -173.976, 6.24384, 65.483, 0.029077, -47.6091
0, 3120.00000, 118.293, -30.7573, 120.148, -150.902, 119.193, 88.5569, 0, 0, 6.19152, -53.8313, 6.29937, -173.976, 6.24384, 65.483, 0.029077, -47.6091
0, 3180.00000, 118.293, -30.7573, 120.148, -150.902, 119.193, 88.5569, 0, 0, 6.19152, -53.8313, 6.29937, -173.976, 6.24384, 65.483, 0.029077, -47.6091
0, 3240.00000, 118.293, -30.7573, 120.148, -150.902, 119.193, 88.5569, 0, 0, 6.19152, -53.8313, 6.29937, -173.976, 6.24384, 65.483, 0.029077, -47.6091
0, 3300.00000, 118.293, -30.7573, 120.148, -150.902, 119.193, 88.5569, 0, 0, 6.19152, -53.8313, 6.29937, -173.976, 6.24384, 65.483, 0.029077, -47.6091
0, 3360.00000, 118.293, -30.7573, 120.148, -150.902, 119.193, 88.5569, 0, 0, 6.19152, -53.8313, 6.29937, -173.976, 6.24384, 65.483, 0.029077, -47.6091
0, 3420.00000, 118.293, -30.7573, 120.148, -150.902, 119.193, 88.5569, 0, 0, 6.19152, -53.8313, 6.29937, -173.976, 6.24384, 65.483, 0.029077, -47.6091
0, 3480.00000, 118.293, -30.7573, 120.148, -150.902, 119.193, 88.5569, 0, 0, 6.19152, -53.8313, 6.29937, -173.976, 6.24384, 65.483, 0.029077, -47.6091
0, 3540.00000, 118.293, -30.7573, 120.148, -150.902, 119.193, 88.5569, 0, 0, 6.19152, -53.8313, 6.29937, -173.976, 6.24384, 65.483, 0.029077, -47.6091
1, 0.00000, 118.293, -30.7573, 120.148, -150.902, 119.193, 88.5569, 0, 0, 6.19152, -53.8313, 6.29937, -173.976, 6.24384, 65.483, 0.029077, -47.6091
1, 60.00000, 118.293, -30.7573, 120.148, -150.902, 119.193, 88.5569, 0, 0, 6.19152, -53.8313, 6.29937, -173.976, 6.24384, 65.483, 0.029077, -47.6091
1, 120.00000, 118.293, -30.7573, 120.148, -150.902, 119.193, 88.5569, 0, 0, 6.19152, -53.8313, 6.29937, -173.976, 6.24384, 65.483, 0.029077, -47.6091
1, 180.00000, 118.293, -30.7573, 120.148, -150.902, 119.193, 88.5569, 0, 0, 6.19152, -53.8313, 6.29937, -173.976, 6.24384, 65.483, 0.029077, -47.6091
1, 240.00000, 118.293, -30.7573, 120.148, -150.902, 119.193, 88.5569, 0, 0, 6.19152, -53.8313, 6.29937, -173.976, 6.24384, 65.483, 0.029077, -47.6091
1, 300.00000, 118.293, -30.7573, 120.148, -150.902, 119.193, 88.5569, 0, 0, 6.19152, -53.8313, 6.29937, -173.976, 6.24384, 65.483, 0.029077, -47.6091
1, 360.00000, 118.293, -30.7573, 120.148, -150.902, 119.193, 88.5569, 0, 0, 6.19152, -53.8313, 6.29937, -173.976, 6.24384, 65.483, 0.029077, -47.6091
1, 420.00000, 118.293, -30.7573, 120.148, -150.902, 119.193, 88.5569, 0, 0, 6.19152, -53.8313, 6.29937, -173.976, 6.24384, 65.483, 0.029077, -47.6091
1, 480.00000, 118.293, -30.7573, 120.148, -150.902, 119.193, 88.5569, 0, 0, 6.19152, -53.8313, 6.29937, -173.976, 6.24384, 65.483, 0.029077, -47.6091
1, 540.00000, 118.293, -30.7573, 120.148, -150.902, 119.193, 88.5569, 0, 0, 6.19152, -53.8313, 6.29937, -173.976, 6.24384, 65.483, 0.029077, -47.6091
1, 600.00000, 118.293, -30.7573, 120.148, -150.902, 119.193, 88.5569, 0, 0, 6.19152, -53.8313, 6.29937, -173.976, 6.24384, 65.483, 0.029077, -47.6091
1, 660.00000, 118.293, -30.7573, 120.148, -150.902, 119.193, 88.5569, 0, 0, 6.19152, -53.8313, 6.29937, -173.976, 6.24384, 65.483, 0.029077, -47.6091
1, 720.00000, 118.293, -30.7573, 120.148, -150.902, 119.193, 88.5569, 0, 0, 6.19152, -53.8313, 6.29937, -173.976, 6.24384, 65.483, 0.029077, -47.6091
1, 780.00000, 118.293, -30.7573, 120.148, -150.902, 119.193, 88.5569, 0, 0, 6.19152, -53.8313, 6.29937, -173.976, 6.24384, 65.483, 0.029077, -47.6091
1, 840.00000, 118.293, -30.7573, 120.148, -150.902, 119.193, 88.5569, 0, 0, 6.19152, -53.8313, 6.29937, -173.976, 6.24384, 65.483, 0.029077, -47.6091
1, 900.00000, 118.293, -30.7573, 120.148, -150.902, 119.193, 88.5569, 0, 0, 6.19152, -53.8313, 6.29937, -173.976, 6.24384, 65.483, 0.029077, -47.6091
1, 960.00000, 118.293, -30.7573, 120.148, -150.902, 119.193, 88.5569, 0, 0, 6.19152, -53.8313, 6.29937, -173.976, 6.24384, 65.483, 0.029077, -47.6091
1, 1020.00000, 118.293, -30.7573, 120.148, -150.902, 119.193, 88.5569, 0, 0, 6.19152, -53.8313, 6.29937, -173.976, 6.24384, 65.483, 0.029077, -47.6091
1, 1080.00000, 118.293, -30.7573, 120.148, -150.902, 119.193, 88.5569, 0, 0, 6.19152, -53.8313, 6.29937, -173.976, 6.24384, 65.483, 0.029077, -47.6091
1, 1140.00000, 118.293, -30.7573, 120.148, -150.902, 119.193, 88.5569, 0, 0, 6.19152, -53.8313, 6.29937, -173.976, 6.24384, 65.483, 0.029077, -47.6091
1, 1200.00000, 118.293, -30.7573, 120.148, -150.902, 119.193, 88.5569, 0, 0, 6.19152, -53.8313, 6.29937, -173.976, 6.24384, 65.483, 0.029077, -47.6091
1, 1260.00000, 118.293, -30.7573, 120.148, -150.902, 119.193, 88.5569, 0, 0, 6.19152, -53.8313, 6.29937, -173.976, 6.24384, 65.483, 0.029077, -47.6091
1, 1320.00000, 118.293, -30.7573, 120.148, -150.902, 119.193, 88.5569, 0, 0, 6.19152, -53.8313, 6.29937, -173.976, 6.24384, 65.483, 0.029077, -47.6091
1, 1380.00000, 118.293, -30.7573, 120.148, -150.902, 119.193, 88.5569, 0, 0, 6.19152, -53.8313, 6.29937, -173.976, 6.24384, 65.483, 0.029077, -47.6091
1, 1440.00000, 118.293, -30.7573, 120.148, -150.902, 119.193, 88.5569, 0, 0, 6.19152, -53.8313, 6.29937, -173.976, 6.24384, 65.483, 0.029077, -47.6091
1, 1500.00000, 118.293, -30.7573, 120.148, -150.902, 119.193, 88.5569, 0, 0, 6.19152, -53.8313, 6.29937, -173.976, 6.24384, 65.483, 0.029077, -47.6091
1, 1560.00000, 118.293, -30.7573, 120.148, -150.902, 119.193, 88.5569, 0, 0, 6.19152, -53.8313, 6.29937, -173.976, 6.24384, 65.483, 0.029077, -47.6091
1, 1620.00000, 118.293, -30.7573, 120.148, -150.902, 119.193, 88.5569, 0, 0, 6.19152, -53.8313, 6.29937, -173.976, 6.24384, 65.483, 0.029077, -47.6091
1, 1680.00000, 118.293, -30.7573, 120.148, -150.902, 119.193, 88.5569, 0, 0, 6.19152, -53.8313, 6.29937, -173.976, 6.24384, 65.483, 0.029077, -47.6091
1, 1740.00000, 118.293, -30.7573, 120.148, -150.902, 119.193, 88.5569, 0, 0, 6.19152, -53.8313, 6.29937, -173.976, 6.24384, 65.483, 0.029077, -47.6091
1, 1800.00000, 118.293, -30.7573, 120.148, -150.902, 119.193, 88.5569, 0, 0, 6.19152, -53.8313, 6.29937, -173.976, 6.24384, 65.483, 0.029077, -47.6091
1, 1860.00000, 118.293, -30.7573, 120.148, -150.902, 119.193, 88.5569, 0, 0, 6.19152, -53.8313, 6.29937, -173.976, 6.24384, 65.483, 0.029077, -47.6091
1, 1920.00000, 118.293, -30.7573, 120.148, -150.902, 119.193, 88.5569, 0, 0, 6.19152, -53.8313, 6.29937, -173.976, 6.24384, 65.483, 0.029077, -47.6091
1, 1980.00000, 118.293, -30.7573, 120.148, -150.902, 119.193, 88.5569, 0, 0, 6.19152, -53.8313, 6.29937, -173.976, 6.24384, 65.483, 0.029077, -47.6091
1, 2040.00000, 118.293, -30.7573, 120.148, -150.902, 119.193, 88.5569, 0, 0, 6.19152, -53.8313, 6.29937, -173.976, 6.24384, 65.483, 0.029077, -47.6091
1, 2100.00000, 118.293, -30.7573, 120.148, -150.902, 119.193, 88.5569, 0, 0, 6.19152, -53.8313, 6.29937, -173.976, 6.24384, 65.483, 0.029077, -47.6091
1, 2160.00000, 118.293, -30.7573, 120.148, -150.902, 119.193, 88.5569, 0, 0, 6.19152, -53.8313, 6.29937, -173.976, 6.24384, 65.483, 0.029077, -47.6091
1, 2220.00000, 118.293, -30.7573, 120.148, -150.902, 119.193, 88.5569, 0, 0, 6.19152, -53.8313, 6.29937, -173.976, 6.24384, 65.483, 0.029077, -47.6091
1, 2280.00000, 118.293, -30.7573, 120.148, -150.902, 119.193, 88.5569, 0, 0, 6.19152, -53.8313, 6.29937, -173.976, 6.24384, 65.483, 0.029077, -47.6091
1, 2340.00000, 118.293, -30.7573, 120.148, -150.902, 119.193, 88.5569, 0, 0, 6.19152, -53.8313, 6.29937, -173.976, 6.24384, 65.483, 0.029077, -47.6091
1, 2400.00000, 118.293, -30.7573, 120.148, -150.902, 119.193, 88.5569, 0, 0, 6.19152, -53.8313, 6.29937, -173.976, 6.24384, 65.483, 0.029077, -47.6091
1, 2460.00000, 118.293, -30.7573, 120.148, -150.902, 119.193, 88.5569, 0, 0, 6.19152, -53.8313, 6.29937, -173.976, 6.24384, 65.483, 0.029077, -47.6091
1, 2520.00000, 118.293, -30.7573, 120.148, -150.902, 119.193, 88.5569, 0, 0, 6.19152, -53.8313, 6.29937, -173.976, 6.24384, 65.483, 0.029077, -47.6091
1, 2580.00000, 118.293, -30.7573, 120.148, -150.902, 119.193, 88.5569, 0, 0, 6.19152, -53.8313, 6.29937, -173.976, 6.24384, 65.483, 0.029077, -47.6091
1, 2640.00000, 118.293, -30.7573, 120.148, -150.902, 119.193, 88.5569, 0, 0, 6.19152, -53.8313, 6.29937, -173.976, 6.24384, 65.483, 0.029077, -47.6091
1, 2700.00000, 118.293, -30.7573, 120.148, -150.902, 119.193, 88.5569, 0, 0, 6.19152, -53.8313, 6.29937, -173.976, 6.24384, 65.483, 0.029077, -47.6091
1, 2760.00000, 118.293, -30.7573, 120.148, -150.902, 119.193, 88.5569, 0, 0, 6.19152, -53.8313, 6.29937, -173.976, 6.24384, 65.483, 0.029077, -47.6091
1, 2820.00000, 118.293, -30.7573, 120.148, -150.902, 119.193, 88.5569, 0, 0, 6.19152, -53.8313, 6.29937, -173.976, 6.24384, 65.483, 0.029077, -47.6091
1, 2880.00000, 118.293, -30.7573, 120.148, -150.902, 119.193, 88.5569, 0, 0, 6.19152, -53.8313, 6.29937, -173.976, 6.24384, 65.483, 0.029077, -47.6091
1, 2940.00000, 118.293, -30.7573, 120.148, -150.902, 119.193, 88.5569, 0, 0, 6.19152, -53.8313, 6.29937, -173.976, 6.24384, 65.483, 0.029077, -47.6091
1, 3000.00000, 118.293, -30.7573, 120.148, -150.902, 119.193, 88.5569, 0, 0, 6.19152, -53.8313, 6.29937, -173.976, 6.24384, 65.483, 0.029077, -47.6091
1, 3060.00000, 118.293, -30.7573, 120.148, -150.902, 119.193, 88.5569, 0, 0, 6.19152, -53.8313, 6.29937, -173.976, 6.24384, 65.483, 0.029077, -47.6091
1, 3120.00000, 118.293, -30.7573, 120.148, -150.902, 119.193, 88.5569, 0, 0, 6.19152, -53.8313, 6.29937, -173.976, 6.24384, 65.483, 0.029077, -47.6091
1, 3180.00000, 118.293, -30.7573, 120.148, -150.902, 119.193, 88.5569, 0, 0, 6.19152, -53.8313, 6.29937, -173.976, 6.24384, 65.483, 0.029077, -47.6091
1, 3240.00000, 118.293, -30.7573, 120.148, -150.902, 119.193, 88.5569, 0, 0, 6.19152, -53.8313, 6.29937, -173.976, 6.24384, 65.483, 0.029077, -47.6091
1, 3300.00000, 118.293, -30.7573, 120.148, -150.902, 119.193, 88.5569, 0, 0, 6.19152, -53.8313, 6.29937, -173.976, 6.24384, 65.483, 0.029077, -47.6091
1, 3360.00000, 118.293, -30.7573, 120.148, -150.902, 119.193, 88.5569, 0, 0, 6.19152, -53.8313, 6.29937, -173.976, 6.24384, 65.483, 0.029077, -47.6091
1, 3420.00000, 118.293, -30.7573, 120.148, -150.902, 119.193, 88.5569, 0, 0, 6.19152, -53.8313, 6.29937, -173.976, 6.24384, 65.483, 0.029077, -47.6091
1, 3480.00000, 118.293, -30.7573, 120.148, -150.902, 119.193, 88.5569, 0, 0, 6.19152, -53.8313, 6.29937, -173.976, 6.24384, 65.483, 0.029077, -47.6091
1, 3540.00000, 118.293, -30.7573, 120.148, -150.902, 119.193, 88.5569, 0, 0, 6.19152, -53.8313, 6.29937, -173.976, 6.24384, 65.483, 0.029077, -47.6091
2, 0.00000, 118.293, -30.7573, 120.148, -150.902, 119.193, 88.5569, 0, 0, 6.19152, -53.8313, 6.29937, -173.976, 6.24384, 65.483, 0.029077, -47.6091
2, 60.00000, 118.293, -30.7573, 120.148, -150.902, 119.193, 88.5569, 0, 0, 6.19152, -53.8313, 6.29937, -173.976, 6.24384, 65.483, 0.029077, -47.6091
2, 120.00000, 118.293, -30.7573, 120.148, -150.902, 119.193, 88.5569, 0, 0, 6.19152, -53.8313, 6.29937, -173.976, 6.24384, 65.483, 0.029077, -47.6091
2, 180.00000, 118.293, -30.7573, 120.148, -150.902, 119.193, 88.5569, 0, 0, 6.19152, -53.8313, 6.29937, -173.976, 6.24384, 65.483, 0.029077, -47.6091
2, 240.00000, 118.293, -30.7573, 120.148, -150.902, 119.193, 88.5569, 0, 0, 6.19152, -53.8313, 6.29937, -173.976, 6.24384, 65.483, 0.029077, -47.6091
2, 300.00000, 118.293, -30.7573, 120.148, -150.902, 119.193, 88.5569, 0, 0, 6.19152, -53.8313, 6.29937, -173.976, 6.24384, 65.483, 0.029077, -47.6091
2, 360.00000, 118.293, -30.7573, 120.148, -150.902, 119.193, 88.5569, 0, 0, 6.19152, -53.8313, 6.29937, -173.976, 6.24384, 65.483, 0.029077, -47.6091
2, 420.00000, 118.293, -30.7573, 120.148, -150.902, 119.193, 88.5569, 0, 0, 6.19152, -53.8313, 6.29937, -173.976, 6.24384, 65.483, 0.029077, -47.6091
2, 480.00000, 118.293, -30.7573, 120.148, -150.902, 119.193, 88.5569, 0, 0, 6.19152, -53.8313, 6.29937, -173.976, 6.24384, 65.483, 0.029077, -47.6091
2, 540.00000, 118.293, -30.7573, 120.148, -150.902, 119.193, 88.5569, 0, 0, 6.19152, -53.8313, 6.29937, -173.976, 6.24384, 65.483, 0.029077, -47.6091
2, 600.00000, 118.293, -30.7573, 120.148, -150.902, 119.193, 88.5569, 0, 0, 6.19152, -53.8313, 6.29937, -173.976, 6.24384, 65.483, 0.029077, -47.6091
2, 660.00000, 118.293, -30.7573, 120.148, -150.902, 119.193, 88.5569, 0, 0, 6.19152, -53.8313, 6.29937, -173.976, 6.24384, 65.483, 0.029077, -47.6091
2, 720.00000, 118.293, -30.7573, 120.148, -150.902, 119.193, 88.5569, 0, 0, 6.19152, -53.8313, 6.29937, -173.976, 6.24384, 65.483, 0.029077, -47.6091
