hour,t(sec),"P1 (kW)","Q1 (kvar)","P2 (kW)","Q2 (kvar)","P3 (kW)","Q3 (kvar)","P4 (kW)","Q4 (kvar)"
0, 60.00000, 0.682747, 0.290845, 0.680863, 0.290044, 0.707565, 0.301419, 0, 0
0, 120.00000, 0.682741, 0.290846, 0.680856, 0.290044, 0.707558, 0.301419, 0, 0
0, 180.00000, 0.682741, 0.290846, 0.680856, 0.290044, 0.707558, 0.301419, 0, 0
0, 240.00000, 0.682741, 0.290846, 0.680856, 0.290044, 0.707558, 0.301419, 0, 0
0, 300.00000, 0.682741, 0.290846, 0.680856, 0.290044, 0.707558, 0.301419, 0, 0
0, 360.00000, 0.682741, 0.290846, 0.680856, 0.290044, 0.707558, 0.301419, 0, 0
0, 420.00000, 0.682741, 0.290846, 0.680856, 0.290044, 0.707558, 0.301419, 0, 0
0, 480.00000, 0.627823, 0.267456, 0.62558, 0.266499, 0.649863, 0.276843, 0, 0
0, 540.00000, 0.627831, 0.267455, 0.625587, 0.266499, 0.64987, 0.276843, 0, 0
0, 600.00000, 0.627831, 0.267455, 0.625587, 0.266499, 0.64987, 0.276843, 0, 0
0, 660.00000, 0.627831, 0.267455, 0.625587, 0.266499, 0.64987, 0.276843, 0, 0
0, 720.00000, 0.627831, 0.267455, 0.625587, 0.266499, 0.64987, 0.276843, 0, 0
0, 780.00000, 0.627831, 0.267455, 0.625587, 0.266499, 0.64987, 0.276843, 0, 0
0, 840.00000, 0.627831, 0.267455, 0.625587, 0.266499, 0.64987, 0.276843, 0, 0
0, 900.00000, 0.627831, 0.267455, 0.625587, 0.266499, 0.64987, 0.276843, 0, 0
0, 960.00000, 0.623522, 0.265613, 0.610555, 0.260093, 0.632128, 0.269284, 0, 0
0, 1020.00000, 0.623511, 0.265615, 0.610549, 0.260093, 0.632117, 0.269281, 0, 0
0, 1080.00000, 0.623511, 0.265615, 0.610549, 0.260093, 0.632117, 0.269281, 0, 0
0, 1140.00000, 0.627031, 0.267118, 0.610549, 0.260093, 0.633411, 0.269833, 0, 0
0, 1200.00000, 0.627038, 0.267117, 0.610549, 0.260093, 0.633414, 0.269833, 0, 0
0, 1260.00000, 0.627038, 0.267117, 0.610549, 0.260093, 0.633414, 0.269833, 0, 0
0, 1320.00000, 0.627038, 0.267117, 0.610549, 0.260093, 0.633414, 0.269833, 0, 0
0, 1380.00000, 0.627038, 0.267117, 0.610549, 0.260093, 0.633414, 0.269833, 0, 0
0, 1440.00000, 0.627038, 0.267117, 0.610549, 0.260093, 0.633414, 0.269833, 0, 0
0, 1500.00000, 0.627038, 0.267117, 0.610549, 0.260093, 0.633414, 0.269833, 0, 0
0, 1560.00000, 0.627038, 0.267117, 0.610549, 0.260093, 0.633414, 0.269833, 0, 0
0, 1620.00000, 0.627038, 0.267117, 0.610549, 0.260093, 0.633414, 0.269833, 0, 0
0, 1680.00000, 0.627038, 0.267117, 0.610549, 0.260093, 0.633414, 0.269833, 0, 0
0, 1740.00000, 0.627038, 0.267117, 0.610549, 0.260093, 0.633414, 0.269833, 0, 0
0, 1800.00000, 0.61856, 0.263504, 0.600722, 0.255907, 0.63397, 0.270072, 0, 0
0, 1860.00000, 0.618556, 0.263504, 0.600717, 0.255904, 0.633972, 0.270071, 0, 0
0, 1920.00000, 0.618556, 0.263504, 0.600717, 0.255904, 0.633972, 0.270071, 0, 0
0, 1980.00000, 0.618556, 0.263504, 0.600717, 0.255904, 0.633972, 0.270071, 0, 0
0, 2040.00000, 0.618556, 0.263504, 0.600717, 0.255904, 0.633972, 0.270071, 0, 0
0, 2100.00000, 0.618556, 0.263504, 0.600717, 0.255904, 0.633972, 0.270071, 0, 0
0, 2160.00000, 0.618556, 0.263504, 0.600717, 0.255904, 0.633972, 0.270071, 0, 0
0, 2220.00000, 0.618556, 0.263504, 0.600717, 0.255904, 0.633972, 0.270071, 0, 0
0, 2280.00000, 0.618556, 0.263504, 0.600717, 0.255904, 0.633972, 0.270071, 0, 0
0, 2340.00000, 0.618556, 0.263504, 0.600717, 0.255904, 0.633972, 0.270071, 0, 0
0, 2400.00000, 0.618556, 0.263504, 0.600717, 0.255904, 0.633972, 0.270071, 0, 0
0, 2460.00000, 0.618556, 0.263504, 0.600717, 0.255904, 0.633972, 0.270071, 0, 0
0, 2520.00000, 0.618556, 0.263504, 0.600717, 0.255904, 0.633972, 0.270071, 0, 0
0, 2580.00000, 0.618556, 0.263504, 0.600717, 0.255904, 0.633972, 0.270071, 0, 0
0, 2640.00000, 0.618556, 0.263504, 0.600717, 0.255904, 0.633972, 0.270071, 0, 0
0, 2700.00000, 0.618556, 0.263504, 0.600717, 0.255904, 0.633972, 0.270071, 0, 0
0, 2760.00000, 0.620234, 0.26422, 0.604541, 0.257537, 0.633827, 0.270009, 0, 0
0, 2820.00000, 0.620238, 0.26422, 0.604548, 0.257536, 0.633824, 0.270008, 0, 0
0, 2880.00000, 0.620238, 0.26422, 0.604548, 0.257536, 0.633824, 0.270008, 0, 0
0, 2940.00000, 0.620238, 0.26422, 0.604548, 0.257536, 0.633824, 0.270008, 0, 0
0, 3000.00000, 0.620238, 0.26422, 0.604548, 0.257536, 0.633824, 0.270008, 0, 0
0, 3060.00000, 0.620238, 0.26422, 0.604548, 0.257536, 0.633824, 0.270008, 0, 0
0, 3120.00000, 0.620238, 0.26422, 0.604548, 0.257536, 0.633824, 0.270008, 0, 0
0, 3180.00000, 0.620238, 0.26422, 0.604548, 0.257536, 0.633824, 0.270008, 0, 0
0, 3240.00000, 0.620238, 0.26422, 0.604548, 0.257536, 0.633824, 0.270008, 0, 0
0, 3300.00000, 0.620238, 0.26422, 0.604548, 0.257536, 0.633824, 0.270008, 0, 0
0, 3360.00000, 0.620238, 0.26422, 0.604548, 0.257536, 0.633824, 0.270008, 0, 0
0, 3420.00000, 0.620238, 0.26422, 0.604548, 0.257536, 0.633824, 0.270008, 0, 0
0, 3480.00000, 0.620238, 0.26422, 0.604548, 0.257536, 0.633824, 0.270008, 0, 0
0, 3540.00000, 0.620238, 0.26422, 0.604548, 0.257536, 0.633824, 0.270008, 0, 0
1, 0.00000, 0.620238, 0.26422, 0.604548, 0.257536, 0.633824, 0.270008, 0, 0
1, 60.00000, 0.621399, 0.264716, 0.607823, 0.258934, 0.633761, 0.269981, 0, 0
1, 120.00000, 0.621401, 0.264716, 0.607828, 0.258934, 0.63376, 0.26998, 0, 0
1, 180.00000, 0.621401, 0.264716, 0.607828, 0.258934, 0.63376, 0.26998, 0, 0
1, 240.00000, 0.621401, 0.264716, 0.607828, 0.258934, 0.63376, 0.26998, 0, 0
1, 300.00000, 0.621401, 0.264716, 0.607828, 0.258934, 0.63376, 0.26998, 0, 0
1, 360.00000, 0.621401, 0.264716, 0.607828, 0.258934, 0.63376, 0.26998, 0, 0
1, 420.00000, 0.621401, 0.264716, 0.607828, 0.258934, 0.63376, 0.26998, 0, 0
1, 480.00000, 0.621401, 0.264716, 0.607828, 0.258934, 0.63376, 0.26998, 0, 0
1, 540.00000, 0.621401, 0.264716, 0.607828, 0.258934, 0.63376, 0.26998, 0, 0
1, 600.00000, 0.621401, 0.264716, 0.607828, 0.258934, 0.63376, 0.26998, 0, 0
1, 660.00000, 0.621401, 0.264716, 0.607828, 0.258934, 0.63376, 0.26998, 0, 0
1, 720.00000, 0.621401, 0.264716, 0.607828, 0.258934, 0.63376, 0.26998, 0, 0
1, 780.00000, 0.621739, 0.26486, 0.611309, 0.260417, 0.639552, 0.27245, 0, 0
1, 840.00000, 0.621739, 0.26486, 0.611311, 0.260418, 0.639558, 0.272451, 0, 0
1, 900.00000, 0.621739, 0.26486, 0.611311, 0.260418, 0.639558, 0.272451, 0, 0
1, 960.00000, 0.621739, 0.26486, 0.611311, 0.260418, 0.639558, 0.272451, 0, 0
1, 1020.00000, 0.621739, 0.26486, 0.611311, 0.260418, 0.639558, 0.272451, 0, 0
1, 1080.00000, 0.621739, 0.26486, 0.611311, 0.260418, 0.639558, 0.272451, 0, 0
1, 1140.00000, 0.621739, 0.26486, 0.611311, 0.260418, 0.639558, 0.272451, 0, 0
1, 1200.00000, 0.621739, 0.26486, 0.611311, 0.260418, 0.639558, 0.272451, 0, 0
1, 1260.00000, 0.621739, 0.26486, 0.611311, 0.260418, 0.639558, 0.272451, 0, 0
1, 1320.00000, 0.621739, 0.26486, 0.611311, 0.260418, 0.639558, 0.272451, 0, 0
1, 1380.00000, 0.621739, 0.26486, 0.611311, 0.260418, 0.639558, 0.272451, 0, 0
1, 1440.00000, 0.621739, 0.26486, 0.611311, 0.260418, 0.639558, 0.272451, 0, 0
1, 1500.00000, 0.621739, 0.26486, 0.611311, 0.260418, 0.639558, 0.272451, 0, 0
1, 1560.00000, 0.621739, 0.26486, 0.611311, 0.260418, 0.639558, 0.272451, 0, 0
1, 1620.00000, 0.621739, 0.26486, 0.611311, 0.260418, 0.639558, 0.272451, 0, 0
1, 1680.00000, 0.621739, 0.26486, 0.611311, 0.260418, 0.639558, 0.272451, 0, 0
1, 1740.00000, 0.621739, 0.26486, 0.611311, 0.260418, 0.639558, 0.272451, 0, 0
1, 1800.00000, 0.621739, 0.26486, 0.611311, 0.260418, 0.639558, 0.272451, 0, 0
1, 1860.00000, 0.621739, 0.26486, 0.611311, 0.260418, 0.639558, 0.272451, 0, 0
1, 1920.00000, 0.621739, 0.26486, 0.611311, 0.260418, 0.639558, 0.272451, 0, 0
1, 1980.00000, 0.621739, 0.26486, 0.611311, 0.260418, 0.639558, 0.272451, 0, 0
1, 2040.00000, 0.621739, 0.26486, 0.611311, 0.260418, 0.639558, 0.272451, 0, 0
1, 2100.00000, 0.621739, 0.26486, 0.611311, 0.260418, 0.639558, 0.272451, 0, 0
1, 2160.00000, 0.621739, 0.26486, 0.611311, 0.260418, 0.639558, 0.272451, 0, 0
1, 2220.00000, 0.630267, 0.268493, 0.621313, 0.26468, 0.639002, 0.272213, 0, 0
1, 2280.00000, 0.630268, 0.268493, 0.621319, 0.264681, 0.639001, 0.272213, 0, 0
1, 2340.00000, 0.630268, 0.268493, 0.621319, 0.264681, 0.639001, 0.272213, 0, 0
1, 2400.00000, 0.630268, 0.268493, 0.621319, 0.264681, 0.639001, 0.272213, 0, 0
1, 2460.00000, 0.630268, 0.268493, 0.621319, 0.264681, 0.639001, 0.272213, 0, 0
1, 2520.00000, 0.630268, 0.268493, 0.621319, 0.264681, 0.639001, 0.272213, 0, 0
1, 2580.00000, 0.630268, 0.268493, 0.621319, 0.264681, 0.639001, 0.272213, 0, 0
1, 2640.00000, 0.630268, 0.268493, 0.621319, 0.264681, 0.639001, 0.272213, 0, 0
1, 2700.00000, 0.630268, 0.268493, 0.621319, 0.264681, 0.639001, 0.272213, 0, 0
1, 2760.00000, 0.630268, 0.268493, 0.621319, 0.264681, 0.639001, 0.272213, 0, 0
1, 2820.00000, 0.630268, 0.268493, 0.621319, 0.264681, 0.639001, 0.272213, 0, 0
1, 2880.00000, 0.630268, 0.268493, 0.621319, 0.264681, 0.639001, 0.272213, 0, 0
1, 2940.00000, 0.630268, 0.268493, 0.621319, 0.264681, 0.639001, 0.272213, 0, 0
1, 3000.00000, 0.630268, 0.268493, 0.621319, 0.264681, 0.639001, 0.272213, 0, 0
1, 3060.00000, 0.630268, 0.268493, 0.621319, 0.264681, 0.639001, 0.272213, 0, 0
1, 3120.00000, 0.630268, 0.268493, 0.621319, 0.264681, 0.639001, 0.272213, 0, 0
1, 3180.00000, 0.630268, 0.268493, 0.621319, 0.264681, 0.639001, 0.272213, 0, 0
1, 3240.00000, 0.630268, 0.268493, 0.621319, 0.264681, 0.639001, 0.272213, 0, 0
1, 3300.00000, 0.630268, 0.268493, 0.621319, 0.264681, 0.639001, 0.272213, 0, 0
1, 3360.00000, 0.630268, 0.268493, 0.621319, 0.264681, 0.639001, 0.272213, 0, 0
1, 3420.00000, 0.630268, 0.268493, 0.621319, 0.264681, 0.639001, 0.272213, 0, 0
1, 3480.00000, 0.630268, 0.268493, 0.621319, 0.264681, 0.639001, 0.272213, 0, 0
1, 3540.00000, 0.630268, 0.268493, 0.621319, 0.264681, 0.639001, 0.272213, 0, 0
2, 0.00000, 0.630268, 0.268493, 0.621319, 0.264681, 0.639001, 0.272213, 0, 0
2, 60.00000, 0.630268, 0.268493, 0.621319, 0.264681, 0.639001, 0.272213, 0, 0
2, 120.00000, 0.630268, 0.268493, 0.621319, 0.264681, 0.639001, 0.272213, 0, 0
2, 180.00000, 0.630268, 0.268493, 0.621319, 0.264681, 0.639001, 0.272213, 0, 0
2, 240.00000, 0.630268, 0.268493, 0.621319, 0.264681, 0.639001, 0.272213, 0, 0
2, 300.00000, 0.630268, 0.268493, 0.621319, 0.264681, 0.639001, 0.272213, 0, 0
2, 360.00000, 0.630268, 0.268493, 0.621319, 0.264681, 0.639001, 0.272213, 0, 0
2, 420.00000, 0.630268, 0.268493, 0.621319, 0.264681, 0.639001, 0.272213, 0, 0
2, 480.00000, 0.630268, 0.268493, 0.621319, 0.264681, 0.639001, 0.272213, 0, 0
2, 540.00000, 0.630268, 0.268493, 0.621319, 0.264681, 0.639001, 0.272213, 0, 0
2, 600.00000, 0.630268, 0.268493, 0.621319, 0.264681, 0.639001, 0.272213, 0, 0
2, 660.00000, 0.630268, 0.268493, 0.621319, 0.264681, 0.639001, 0.272213, 0, 0
2, 720.00000, 0.630268, 0.268493, 0.621319, 0.264681, 0.639001, 0.272213, 0, 0
2, 780.00000, 0.630268, 0.268493, 0.621319, 0.264681, 0.639001, 0.272213, 0, 0
2, 840.00000, 0.631034, 0.268821, 0.636695, 0.271231, 0.655842, 0.279392, 0, 0
2, 900.00000, 0.631032, 0.268819, 0.636697, 0.271232, 0.655856, 0.279393, 0, 0
2, 960.00000, 0.631032, 0.268819, 0.636697, 0.271232, 0.655856, 0.279393, 0, 0
2, 1020.00000, 0.631032, 0.268819, 0.636697, 0.271232, 0.655856, 0.279393, 0, 0
2, 1080.00000, 0.631032, 0.268819, 0.636697, 0.271232, 0.655856, 0.279393, 0, 0
2, 1140.00000, 0.631032, 0.268819, 0.636697, 0.271232, 0.655856, 0.279393, 0, 0
2, 1200.00000, 0.631032, 0.268819, 0.636697, 0.271232, 0.655856, 0.279393, 0, 0
2, 1260.00000, 0.631032, 0.268819, 0.636697, 0.271232, 0.655856, 0.279393, 0, 0
2, 1320.00000, 0.631032, 0.268819, 0.636697, 0.271232, 0.655856, 0.279393, 0, 0
2, 1380.00000, 0.631032, 0.268819, 0.636697, 0.271232, 0.655856, 0.279393, 0, 0
2, 1440.00000, 0.631032, 0.268819, 0.636697, 0.271232, 0.655856, 0.279393, 0, 0
2, 1500.00000, 0.631032, 0.268819, 0.636697, 0.271232, 0.655856, 0.279393, 0, 0
2, 1560.00000, 0.631032, 0.268819, 0.636697, 0.271232, 0.655856, 0.279393, 0, 0
2, 1620.00000, 0.631032, 0.268819, 0.636697, 0.271232, 0.655856, 0.279393, 0, 0
2, 1680.00000, 0.631032, 0.268819, 0.636697, 0.271232, 0.655856, 0.279393, 0, 0
2, 1740.00000, 0.631032, 0.268819, 0.636697, 0.271232, 0.655856, 0.279393, 0, 0
2, 1800.00000, 0.631032, 0.268819, 0.636697, 0.271232, 0.655856, 0.279393, 0, 0
2, 1860.00000, 0.631032, 0.268819, 0.636697, 0.271232, 0.655856, 0.279393, 0, 0
2, 1920.00000, 0.631032, 0.268819, 0.636697, 0.271232, 0.655856, 0.279393, 0, 0
2, 1980.00000, 0.631032, 0.268819, 0.636697, 0.271232, 0.655856, 0.279393, 0, 0
2, 2040.00000, 0.631032, 0.268819, 0.636697, 0.271232, 0.655856, 0.279393, 0, 0
2, 2100.00000, 0.631032, 0.268819, 0.636697, 0.271232, 0.655856, 0.279393, 0, 0
2, 2160.00000, 0.631032, 0.268819, 0.636697, 0.271232, 0.655856, 0.279393, 0, 0
2, 2220.00000, 0.631032, 0.268819, 0.636697, 0.271232, 0.655856, 0.279393, 0, 0
2, 2280.00000, 0.631032, 0.268819, 0.636697, 0.271232, 0.655856, 0.279393, 0, 0
2, 2340.00000, 0.631032, 0.268819, 0.636697, 0.271232, 0.655856, 0.279393, 0, 0
2, 2400.00000, 0.637285, 0.271488, 0.636667, 0.271218, 0.659692, 0.281032, 0, 0
2, 2460.00000, 0.637294, 0.271486, 0.636663, 0.271217, 0.659707, 0.281034, 0, 0
2, 2520.00000, 0.637294, 0.271486, 0.636663, 0.271217, 0.659707, 0.281034, 0, 0
2, 2580.00000, 0.637294, 0.271486, 0.636663, 0.271217, 0.659707, 0.281034, 0, 0
2, 2640.00000, 0.637294, 0.271486, 0.636663, 0.271217, 0.659707, 0.281034, 0, 0
2, 2700.00000, 0.636651, 0.271211, 0.62788, 0.267476, 0.648585, 0.276292, 0, 0
2, 2760.00000, 0.636652, 0.271212, 0.62788, 0.267476, 0.648575, 0.276292, 0, 0
2, 2820.00000, 0.636652, 0.271212, 0.62788, 0.267476, 0.648575, 0.276292, 0, 0
2, 2880.00000, 0.636652, 0.271212, 0.62788, 0.267476, 0.648575, 0.276292, 0, 0
2, 2940.00000, 0.636652, 0.271212, 0.62788, 0.267476, 0.648575, 0.276292, 0, 0
2, 3000.00000, 0.636652, 0.271212, 0.62788, 0.267476, 0.648575, 0.276292, 0, 0
2, 3060.00000, 0.636741, 0.271252, 0.629331, 0.268093, 0.652414, 0.277932, 0, 0
2, 3120.00000, 0.63674, 0.27125, 0.629332, 0.268094, 0.652428, 0.277933, 0, 0
2, 3180.00000, 0.63674, 0.27125, 0.629332, 0.268094, 0.652428, 0.277933, 0, 0
2, 3240.00000, 0.63674, 0.27125, 0.629332, 0.268094, 0.652428, 0.277933, 0, 0
2, 3300.00000, 0.63674, 0.27125, 0.629332, 0.268094, 0.652428, 0.277933, 0, 0
2, 3360.00000, 0.63674, 0.27125, 0.629332, 0.268094, 0.652428, 0.277933, 0, 0
2, 3420.00000, 0.63674, 0.27125, 0.629332, 0.268094, 0.652428, 0.277933, 0, 0
2, 3480.00000, 0.63674, 0.27125, 0.629332, 0.268094, 0.652428, 0.277933, 0, 0
2, 3540.00000, 0.63674, 0.27125, 0.629332, 0.268094, 0.652428, 0.277933, 0, 0
3, 0.00000, 0.63674, 0.27125, 0.629332, 0.268094, 0.652428, 0.277933, 0, 0
3, 60.00000, 0.63674, 0.27125, 0.629332, 0.268094, 0.652428, 0.277933, 0, 0
3, 120.00000, 0.63674, 0.27125, 0.629332, 0.268094, 0.652428, 0.277933, 0, 0
3, 180.00000, 0.63674, 0.27125, 0.629332, 0.268094, 0.652428, 0.277933, 0, 0
3, 240.00000, 0.63674, 0.27125, 0.629332, 0.268094, 0.652428, 0.277933, 0, 0
3, 300.00000, 0.63674, 0.27125, 0.629332, 0.268094, 0.652428, 0.277933, 0, 0
3, 360.00000, 0.63674, 0.27125, 0.629332, 0.268094, 0.652428, 0.277933, 0, 0
3, 420.00000, 0.63674, 0.27125, 0.629332, 0.268094, 0.652428, 0.277933, 0, 0
3, 480.00000, 0.63674, 0.27125, 0.629332, 0.268094, 0.652428, 0.277933, 0, 0
3, 540.00000, 0.63674, 0.27125, 0.629332, 0.268094, 0.652428, 0.277933, 0, 0
3, 600.00000, 0.63674, 0.27125, 0.629332, 0.268094, 0.652428, 0.277933, 0, 0
3, 660.00000, 0.63674, 0.27125, 0.629332, 0.268094, 0.652428, 0.277933, 0, 0
3, 720.00000, 0.63674, 0.27125, 0.629332, 0.268094, 0.652428, 0.277933, 0, 0
3, 780.00000, 0.63674, 0.27125, 0.629332, 0.268094, 0.652428, 0.277933, 0, 0
3, 840.00000, 0.63674, 0.27125, 0.629332, 0.268094, 0.652428, 0.277933, 0, 0
3, 900.00000, 0.63674, 0.27125, 0.629332, 0.268094, 0.652428, 0.277933, 0, 0
3, 960.00000, 0.63674, 0.27125, 0.629332, 0.268094, 0.652428, 0.277933, 0, 0
3, 1020.00000, 0.63674, 0.27125, 0.629332, 0.268094, 0.652428, 0.277933, 0, 0
3, 1080.00000, 0.63674, 0.27125, 0.629332, 0.268094, 0.652428, 0.277933, 0, 0
3, 1140.00000, 0.63674, 0.27125, 0.629332, 0.268094, 0.652428, 0.277933, 0, 0
3, 1200.00000, 0.63674, 0.27125, 0.629332, 0.268094, 0.652428, 0.277933, 0, 0
3, 1260.00000, 0.63674, 0.27125, 0.629332, 0.268094, 0.652428, 0.277933, 0, 0
3, 1320.00000, 0.63674, 0.27125, 0.629332, 0.268094, 0.652428, 0.277933, 0, 0
3, 1380.00000, 0.63674, 0.27125, 0.629332, 0.268094, 0.652428, 0.277933, 0, 0
3, 1440.00000, 0.63674, 0.27125, 0.629332, 0.268094, 0.652428, 0.277933, 0, 0
3, 1500.00000, 0.63674, 0.27125, 0.629332, 0.268094, 0.652428, 0.277933, 0, 0
3, 1560.00000, 0.63674, 0.27125, 0.629332, 0.268094, 0.652428, 0.277933, 0, 0
3, 1620.00000, 0.63674, 0.27125, 0.629332, 0.268094, 0.652428, 0.277933, 0, 0
3, 1680.00000, 0.63674, 0.27125, 0.629332, 0.268094, 0.652428, 0.277933, 0, 0
3, 1740.00000, 0.63674, 0.27125, 0.629332, 0.268094, 0.652428, 0.277933, 0, 0
3, 1800.00000, 0.63674, 0.27125, 0.629332, 0.268094, 0.652428, 0.277933, 0, 0
3, 1860.00000, 0.63674, 0.27125, 0.629332, 0.268094, 0.652428, 0.277933, 0, 0
3, 1920.00000, 0.63674, 0.27125, 0.629332, 0.268094, 0.652428, 0.277933, 0, 0
3, 1980.00000, 0.63674, 0.27125, 0.629332, 0.268094, 0.652428, 0.277933, 0, 0
3, 2040.00000, 0.63674, 0.27125, 0.629332, 0.268094, 0.652428, 0.277933, 0, 0
3, 2100.00000, 0.63674, 0.27125, 0.629332, 0.268094, 0.652428, 0.277933, 0, 0
3, 2160.00000, 0.63674, 0.27125, 0.629332, 0.268094, 0.652428, 0.277933, 0, 0
3, 2220.00000, 0.63674, 0.27125, 0.629332, 0.268094, 0.652428, 0.277933, 0, 0
3, 2280.00000, 0.63674, 0.27125, 0.629332, 0.268094, 0.652428, 0.277933, 0, 0
3, 2340.00000, 0.63674, 0.27125, 0.629332, 0.268094, 0.652428, 0.277933, 0, 0
3, 2400.00000, 0.63674, 0.27125, 0.629332, 0.268094, 0.652428, 0.277933, 0, 0
3, 2460.00000, 0.63674, 0.27125, 0.629332, 0.268094, 0.652428, 0.277933, 0, 0
3, 2520.00000, 0.63674, 0.27125, 0.629332, 0.268094, 0.652428, 0.277933, 0, 0
3, 2580.00000, 0.63674, 0.27125, 0.629332, 0.268094, 0.652428, 0.277933, 0, 0
3, 2640.00000, 0.63674, 0.27125, 0.629332, 0.268094, 0.652428, 0.277933, 0, 0
3, 2700.00000, 0.63674, 0.27125, 0.629332, 0.268094, 0.652428, 0.277933, 0, 0
3, 2760.00000, 0.63674, 0.27125, 0.629332, 0.268094, 0.652428, 0.277933, 0, 0
3, 2820.00000, 0.63674, 0.27125, 0.629332, 0.268094, 0.652428, 0.277933, 0, 0
3, 2880.00000, 0.63674, 0.27125, 0.629332, 0.268094, 0.652428, 0.277933, 0, 0
3, 2940.00000, 0.63674, 0.27125, 0.629332, 0.268094, 0.652428, 0.277933, 0, 0
3, 3000.00000, 0.63674, 0.27125, 0.629332, 0.268094, 0.652428, 0.277933, 0, 0
3, 3060.00000, 0.63674, 0.27125, 0.629332, 0.268094, 0.652428, 0.277933, 0, 0
3, 3120.00000, 0.63674, 0.27125, 0.629332, 0.268094, 0.652428, 0.277933, 0, 0
3, 3180.00000, 0.621136, 0.264601, 0.61402, 0.261571, 0.636552, 0.271168, 0, 0
3, 3240.00000, 0.621133, 0.264602, 0.614019, 0.261571, 0.636548, 0.271168, 0, 0
3, 3300.00000, 0.621133, 0.264602, 0.614019, 0.261571, 0.636548, 0.271168, 0, 0
3, 3360.00000, 0.621133, 0.264602, 0.614019, 0.261571, 0.636548, 0.271168, 0, 0
3, 3420.00000, 0.621133, 0.264602, 0.614019, 0.261571, 0.636548, 0.271168, 0, 0
3, 3480.00000, 0.621133, 0.264602, 0.614019, 0.261571, 0.636548, 0.271168, 0, 0
3, 3540.00000, 0.621133, 0.264602, 0.614019, 0.261571, 0.636548, 0.271168, 0, 0
4, 0.00000, 0.620831, 0.264473, 0.608958, 0.259413, 0.629377, 0.268113, 0, 0
4, 60.00000, 0.620832, 0.264473, 0.608954, 0.259413, 0.62937, 0.26811, 0, 0
4, 120.00000, 0.620832, 0.264473, 0.608954, 0.259413, 0.62937, 0.26811, 0, 0
4, 180.00000, 0.620832, 0.264473, 0.608954, 0.259413, 0.62937, 0.26811, 0, 0
4, 240.00000, 0.620832, 0.264473, 0.608954, 0.259413, 0.62937, 0.26811, 0, 0
4, 300.00000, 0.620832, 0.264473, 0.608954, 0.259413, 0.62937, 0.26811, 0, 0
4, 360.00000, 0.620832, 0.264473, 0.608954, 0.259413, 0.62937, 0.26811, 0, 0
4, 420.00000, 0.620832, 0.264473, 0.608954, 0.259413, 0.62937, 0.26811, 0, 0
4, 480.00000, 0.620832, 0.264473, 0.608954, 0.259413, 0.62937, 0.26811, 0, 0
4, 540.00000, 0.620832, 0.264473, 0.608954, 0.259413, 0.62937, 0.26811, 0, 0
4, 600.00000, 0.620832, 0.264473, 0.608954, 0.259413, 0.62937, 0.26811, 0, 0
4, 660.00000, 0.620832, 0.264473, 0.608954, 0.259413, 0.62937, 0.26811, 0, 0
4, 720.00000, 0.620832, 0.264473, 0.608954, 0.259413, 0.62937, 0.26811, 0, 0
