hour,t(sec),V1,VAngle1,V2,VAngle2,V3,VAngle3,V4,VAngle4,I1,IAngle1,I2,IAngle2,I3,IAngle3,I4,IAngle4
0, 60.00000, 120.646, -31.3573, 123.292, -151.408, 122.138, 87.6368, 0, 0, 3.72477, -54.4311, 3.64608, -174.482, 3.68047, 64.5634, 0.131149, 154.382
0, 120.00000, 120.646, -31.3573, 123.292, -151.408, 122.138, 87.6367, 0, 0, 3.72473, -54.4312, 3.64611, -174.482, 3.68054, 64.5628, 0.131125, 154.405
0, 180.00000, 120.646, -31.3573, 123.292, -151.408, 122.138, 87.6367, 0, 0, 3.72473, -54.4312, 3.64611, -174.482, 3.68054, 64.5628, 0.131125, 154.405
0, 240.00000, 120.646, -31.3573, 123.292, -151.408, 122.138, 87.6367, 0, 0, 3.72473, -54.4312, 3.64611, -174.482, 3.68054, 64.5628, 0.131125, 154.405
0, 300.00000, 120.646, -31.3573, 123.292, -151.408, 122.138, 87.6367, 0, 0, 3.72473, -54.4312, 3.64611, -174.482, 3.68054, 64.5628, 0.131125, 154.405
0, 360.00000, 120.646, -31.3573, 123.292, -151.408, 122.138, 87.6367, 0, 0, 3.72473, -54.4312, 3.64611, -174.482, 3.68054, 64.5628, 0.131125, 154.405
0, 420.00000, 120.646, -31.3573, 123.292, -151.408, 122.138, 87.6367, 0, 0, 3.72473, -54.4312, 3.64611, -174.482, 3.68054, 64.5628, 0.131125, 154.405
0, 480.00000, 121.226, -31.2344, 123.865, -151.287, 122.7, 87.7714, 0, 0, 3.22619, -54.3084, 3.15748, -174.361, 3.18746, 64.6968, 0.113438, 154.5
0, 540.00000, 121.227, -31.2344, 123.865, -151.287, 122.7, 87.7714, 0, 0, 3.22616, -54.3083, 3.15743, -174.361, 3.18741, 64.6975, 0.113412, 154.491
0, 600.00000, 121.227, -31.2344, 123.865, -151.287, 122.7, 87.7714, 0, 0, 3.22616, -54.3083, 3.15743, -174.361, 3.18741, 64.6975, 0.113412, 154.491
0, 660.00000, 121.227, -31.2344, 123.865, -151.287, 122.7, 87.7714, 0, 0, 3.22616, -54.3083, 3.15743, -174.361, 3.18741, 64.6975, 0.113412, 154.491
0, 720.00000, 121.227, -31.2344, 123.865, -151.287, 122.7, 87.7714, 0, 0, 3.22616, -54.3083, 3.15743, -174.361, 3.18741, 64.6975, 0.113412, 154.491
0, 780.00000, 121.227, -31.2344, 123.865, -151.287, 122.7, 87.7714, 0, 0, 3.22616, -54.3083, 3.15743, -174.361, 3.18741, 64.6975, 0.113412, 154.491
0, 840.00000, 121.227, -31.2344, 123.865, -151.287, 122.7, 87.7714, 0, 0, 3.22616, -54.3083, 3.15743, -174.361, 3.18741, 64.6975, 0.113412, 154.491
0, 900.00000, 121.227, -31.2344, 123.865, -151.287, 122.7, 87.7714, 0, 0, 3.22616, -54.3083, 3.15743, -174.361, 3.18741, 64.6975, 0.113412, 154.491
0, 960.00000, 120.88, -31.2518, 123.868, -151.285, 122.554, 87.6283, 0, 0, 3.2354, -54.3256, 3.15736, -174.359, 3.19119, 64.5545, 0.129094, 153.813
0, 1020.00000, 120.88, -31.2518, 123.868, -151.285, 122.554, 87.6283, 0, 0, 3.23541, -54.3257, 3.15736, -174.359, 3.19121, 64.5543, 0.129117, 153.815
0, 1080.00000, 120.88, -31.2518, 123.868, -151.285, 122.554, 87.6283, 0, 0, 3.23541, -54.3257, 3.15736, -174.359, 3.19121, 64.5543, 0.129117, 153.815
0, 1140.00000, 120.88, -31.2518, 123.868, -151.285, 122.554, 87.6283, 0, 0, 3.23541, -54.3257, 3.15736, -174.359, 3.19121, 64.5543, 0.129117, 153.815
0, 1200.00000, 120.88, -31.2518, 123.868, -151.285, 122.554, 87.6283, 0, 0, 3.23541, -54.3257, 3.15736, -174.359, 3.19121, 64.5543, 0.129117, 153.815
0, 1260.00000, 120.88, -31.2518, 123.868, -151.285, 122.554, 87.6283, 0, 0, 3.23541, -54.3257, 3.15736, -174.359, 3.19121, 64.5543, 0.129117, 153.815
0, 1320.00000, 120.88, -31.2518, 123.868, -151.285, 122.554, 87.6283, 0, 0, 3.23541, -54.3257, 3.15736, -174.359, 3.19121, 64.5543, 0.129117, 153.815
0, 1380.00000, 120.88, -31.2518, 123.868, -151.285, 122.554, 87.6283, 0, 0, 3.23541, -54.3257, 3.15736, -174.359, 3.19121, 64.5543, 0.129117, 153.815
0, 1440.00000, 120.88, -31.2518, 123.868, -151.285, 122.554, 87.6283, 0, 0, 3.23541, -54.3257, 3.15736, -174.359, 3.19121, 64.5543, 0.129117, 153.815
0, 1500.00000, 120.88, -31.2518, 123.868, -151.285, 122.554, 87.6283, 0, 0, 3.23541, -54.3257, 3.15736, -174.359, 3.19121, 64.5543, 0.129117, 153.815
0, 1560.00000, 120.88, -31.2518, 123.868, -151.285, 122.554, 87.6283, 0, 0, 3.23541, -54.3257, 3.15736, -174.359, 3.19121, 64.5543, 0.129117, 153.815
0, 1620.00000, 120.88, -31.2518, 123.868, -151.285, 122.554, 87.6283, 0, 0, 3.23541, -54.3257, 3.15736, -174.359, 3.19121, 64.5543, 0.129117, 153.815
0, 1680.00000, 120.88, -31.2518, 123.868, -151.285, 122.554, 87.6283, 0, 0, 3.23541, -54.3257, 3.15736, -174.359, 3.19121, 64.5543, 0.129117, 153.815
0, 1740.00000, 120.88, -31.2518, 123.868, -151.285, 122.554, 87.6283, 0, 0, 3.23541, -54.3257, 3.15736, -174.359, 3.19121, 64.5543, 0.129117, 153.815
0, 1800.00000, 120.571, -31.2748, 123.872, -151.284, 122.438, 87.4963, 0, 0, 3.23833, -54.3486, 3.15728, -174.358, 3.19422, 64.4225, 0.138478, 154.059
0, 1860.00000, 120.571, -31.2748, 123.872, -151.284, 122.438, 87.4963, 0, 0, 3.23831, -54.3487, 3.15727, -174.358, 3.19423, 64.4224, 0.138477, 154.064
0, 1920.00000, 120.571, -31.2748, 123.872, -151.284, 122.438, 87.4963, 0, 0, 3.23831, -54.3487, 3.15727, -174.358, 3.19423, 64.4224, 0.138477, 154.064
0, 1980.00000, 120.571, -31.2748, 123.872, -151.284, 122.438, 87.4963, 0, 0, 3.23831, -54.3487, 3.15727, -174.358, 3.19423, 64.4224, 0.138477, 154.064
0, 2040.00000, 120.571, -31.2748, 123.872, -151.284, 122.438, 87.4963, 0, 0, 3.23831, -54.3487, 3.15727, -174.358, 3.19423, 64.4224, 0.138477, 154.064
0, 2100.00000, 120.571, -31.2748, 123.872, -151.284, 122.438, 87.4963, 0, 0, 3.23831, -54.3487, 3.15727, -174.358, 3.19423, 64.4224, 0.138477, 154.064
0, 2160.00000, 120.571, -31.2748, 123.872, -151.284, 122.438, 87.4963, 0, 0, 3.23831, -54.3487, 3.15727, -174.358, 3.19423, 64.4224, 0.138477, 154.064
0, 2220.00000, 120.571, -31.2748, 123.872, -151.284, 122.438, 87.4963, 0, 0, 3.23831, -54.3487, 3.15727, -174.358, 3.19423, 64.4224, 0.138477, 154.064
0, 2280.00000, 120.571, -31.2748, 123.872, -151.284, 122.438, 87.4963, 0, 0, 3.23831, -54.3487, 3.15727, -174.358, 3.19423, 64.4224, 0.138477, 154.064
0, 2340.00000, 120.571, -31.2748, 123.872, -151.284, 122.438, 87.4963, 0, 0, 3.23831, -54.3487, 3.15727, -174.358, 3.19423, 64.4224, 0.138477, 154.064
0, 2400.00000, 120.571, -31.2748, 123.872, -151.284, 122.438, 87.4963, 0, 0, 3.23831, -54.3487, 3.15727, -174.358, 3.19423, 64.4224, 0.138477, 154.064
0, 2460.00000, 120.571, -31.2748, 123.872, -151.284, 122.438, 87.4963, 0, 0, 3.23831, -54.3487, 3.15727, -174.358, 3.19423, 64.4224, 0.138477, 154.064
0, 2520.00000, 120.571, -31.2748, 123.872, -151.284, 122.438, 87.4963, 0, 0, 3.23831, -54.3487, 3.15727, -174.358, 3.19423, 64.4224, 0.138477, 154.064
0, 2580.00000, 120.571, -31.2748, 123.872, -151.284, 122.438, 87.4963, 0, 0, 3.23831, -54.3487, 3.15727, -174.358, 3.19423, 64.4224, 0.138477, 154.064
0, 2640.00000, 120.571, -31.2748, 123.872, -151.284, 122.438, 87.4963, 0, 0, 3.23831, -54.3487, 3.15727, -174.358, 3.19423, 64.4224, 0.138477, 154.064
0, 2700.00000, 120.571, -31.2748, 123.872, -151.284, 122.438, 87.4963, 0, 0, 3.23831, -54.3487, 3.15727, -174.358, 3.19423, 64.4224, 0.138477, 154.064
0, 2760.00000, 121.351, -31.3371, 123.867, -151.285, 122.953, 87.7785, 0, 0, 3.22289, -54.4114, 3.15737, -174.359, 3.18092, 64.7042, 0.107963, 149.165
0, 2820.00000, 121.351, -31.3371, 123.867, -151.285, 122.953, 87.7785, 0, 0, 3.22285, -54.411, 3.15738, -174.359, 3.18087, 64.7046, 0.107901, 149.153
0, 2880.00000, 121.351, -31.3371, 123.867, -151.285, 122.953, 87.7785, 0, 0, 3.22285, -54.411, 3.15738, -174.359, 3.18087, 64.7046, 0.107901, 149.153
0, 2940.00000, 121.351, -31.3371, 123.867, -151.285, 122.953, 87.7785, 0, 0, 3.22285, -54.411, 3.15738, -174.359, 3.18087, 64.7046, 0.107901, 149.153
0, 3000.00000, 121.351, -31.3371, 123.867, -151.285, 122.953, 87.7785, 0, 0, 3.22285, -54.411, 3.15738, -174.359, 3.18087, 64.7046, 0.107901, 149.153
0, 3060.00000, 121.351, -31.3371, 123.867, -151.285, 122.953, 87.7785, 0, 0, 3.22285, -54.411, 3.15738, -174.359, 3.18087, 64.7046, 0.107901, 149.153
0, 3120.00000, 121.351, -31.3371, 123.867, -151.285, 122.953, 87.7785, 0, 0, 3.22285, -54.411, 3.15738, -174.359, 3.18087, 64.7046, 0.107901, 149.153
0, 3180.00000, 121.351, -31.3371, 123.867, -151.285, 122.953, 87.7785, 0, 0, 3.22285, -54.411, 3.15738, -174.359, 3.18087, 64.7046, 0.107901, 149.153
0, 3240.00000, 121.351, -31.3371, 123.867, -151.285, 122.953, 87.7785, 0, 0, 3.22285, -54.411, 3.15738, -174.359, 3.18087, 64.7046, 0.107901, 149.153
0, 3300.00000, 121.351, -31.3371, 123.867, -151.285, 122.953, 87.7785, 0, 0, 3.22285, -54.411, 3.15738, -174.359, 3.18087, 64.7046, 0.107901, 149.153
0, 3360.00000, 121.351, -31.3371, 123.867, -151.285, 122.953, 87.7785, 0, 0, 3.22285, -54.411, 3.15738, -174.359, 3.18087, 64.7046, 0.107901, 149.153
0, 3420.00000, 121.351, -31.3371, 123.867, -151.285, 122.953, 87.7785, 0, 0, 3.22285, -54.411, 3.15738, -174.359, 3.18087, 64.7046, 0.107901, 149.153
0, 3480.00000, 121.351, -31.3371, 123.867, -151.285, 122.953, 87.7785, 0, 0, 3.22285, -54.411, 3.15738, -174.359, 3.18087, 64.7046, 0.107901, 149.153
0, 3540.00000, 121.351, -31.3371, 123.867, -151.285, 122.953, 87.7785, 0, 0, 3.22285, -54.411, 3.15738, -174.359, 3.18087, 64.7046, 0.107901, 149.153
1, 0.00000, 121.351, -31.3371, 123.867, -151.285, 122.953, 87.7785, 0, 0, 3.22285, -54.411, 3.15738, -174.359, 3.18087, 64.7046, 0.107901, 149.153
1, 60.00000, 121.825, -31.3396, 123.864, -151.285, 123.2, 87.9624, 0, 0, 3.21036, -54.4137, 3.15746, -174.359, 3.1745, 64.8883, 0.0868515, 147.487
1, 120.00000, 121.825, -31.3395, 123.864, -151.285, 123.2, 87.9625, 0, 0, 3.21033, -54.4135, 3.15747, -174.359, 3.17448, 64.8885, 0.0868084, 147.483
1, 180.00000, 121.825, -31.3395, 123.864, -151.285, 123.2, 87.9625, 0, 0, 3.21033, -54.4135, 3.15747, -174.359, 3.17448, 64.8885, 0.0868082, 147.483
1, 240.00000, 121.825, -31.3395, 123.864, -151.285, 123.2, 87.9625, 0, 0, 3.21033, -54.4135, 3.15747, -174.359, 3.17448, 64.8885, 0.0868082, 147.483
1, 300.00000, 121.825, -31.3395, 123.864, -151.285, 123.2, 87.9625, 0, 0, 3.21033, -54.4135, 3.15747, -174.359, 3.17448, 64.8885, 0.0868082, 147.483
1, 360.00000, 121.825, -31.3395, 123.864, -151.285, 123.2, 87.9625, 0, 0, 3.21033, -54.4135, 3.15747, -174.359, 3.17448, 64.8885, 0.0868082, 147.483
1, 420.00000, 121.825, -31.3395, 123.864, -151.285, 123.2, 87.9625, 0, 0, 3.21033, -54.4135, 3.15747, -174.359, 3.17448, 64.8885, 0.0868082, 147.483
1, 480.00000, 121.825, -31.3395, 123.864, -151.285, 123.2, 87.9625, 0, 0, 3.21033, -54.4135, 3.15747, -174.359, 3.17448, 64.8885, 0.0868082, 147.483
1, 540.00000, 121.825, -31.3395, 123.864, -151.285, 123.2, 87.9625, 0, 0, 3.21033, -54.4135, 3.15747, -174.359, 3.17448, 64.8885, 0.0868082, 147.483
1, 600.00000, 121.825, -31.3395, 123.864, -151.285, 123.2, 87.9625, 0, 0, 3.21033, -54.4135, 3.15747, -174.359, 3.17448, 64.8885, 0.0868082, 147.483
1, 660.00000, 121.825, -31.3395, 123.864, -151.285, 123.2, 87.9625, 0, 0, 3.21033, -54.4135, 3.15747, -174.359, 3.17448, 64.8885, 0.0868082, 147.483
1, 720.00000, 121.825, -31.3395, 123.864, -151.285, 123.2, 87.9625, 0, 0, 3.21033, -54.4135, 3.15747, -174.359, 3.17448, 64.8885, 0.0868082, 147.483
1, 780.00000, 122.105, -31.3111, 123.862, -151.285, 123.287, 88.0821, 0, 0, 3.20299, -54.3852, 3.15751, -174.359, 3.17225, 65.0081, 0.0743095, 148.32
1, 840.00000, 122.105, -31.311, 123.862, -151.285, 123.287, 88.0821, 0, 0, 3.20296, -54.385, 3.15752, -174.359, 3.17224, 65.0082, 0.0742737, 148.327
1, 900.00000, 122.105, -31.311, 123.862, -151.285, 123.287, 88.0821, 0, 0, 3.20296, -54.385, 3.15752, -174.359, 3.17224, 65.0082, 0.0742735, 148.327
1, 960.00000, 122.105, -31.311, 123.862, -151.285, 123.287, 88.0821, 0, 0, 3.20296, -54.385, 3.15752, -174.359, 3.17224, 65.0082, 0.0742735, 148.327
1, 1020.00000, 122.105, -31.311, 123.862, -151.285, 123.287, 88.0821, 0, 0, 3.20296, -54.385, 3.15752, -174.359, 3.17224, 65.0082, 0.0742735, 148.327
1, 1080.00000, 122.105, -31.311, 123.862, -151.285, 123.287, 88.0821, 0, 0, 3.20296, -54.385, 3.15752, -174.359, 3.17224, 65.0082, 0.0742735, 148.327
1, 1140.00000, 122.105, -31.311, 123.862, -151.285, 123.287, 88.0821, 0, 0, 3.20296, -54.385, 3.15752, -174.359, 3.17224, 65.0082, 0.0742735, 148.327
1, 1200.00000, 122.105, -31.311, 123.862, -151.285, 123.287, 88.0821, 0, 0, 3.20296, -54.385, 3.15752, -174.359, 3.17224, 65.0082, 0.0742735, 148.327
1, 1260.00000, 122.105, -31.311, 123.862, -151.285, 123.287, 88.0821, 0, 0, 3.20296, -54.385, 3.15752, -174.359, 3.17224, 65.0082, 0.0742735, 148.327
1, 1320.00000, 122.105, -31.311, 123.862, -151.285, 123.287, 88.0821, 0, 0, 3.20296, -54.385, 3.15752, -174.359, 3.17224, 65.0082, 0.0742735, 148.327
1, 1380.00000, 122.105, -31.311, 123.862, -151.285, 123.287, 88.0821, 0, 0, 3.20296, -54.385, 3.15752, -174.359, 3.17224, 65.0082, 0.0742735, 148.327
1, 1440.00000, 122.105, -31.311, 123.862, -151.285, 123.287, 88.0821, 0, 0, 3.20296, -54.385, 3.15752, -174.359, 3.17224, 65.0082, 0.0742735, 148.327
1, 1500.00000, 122.105, -31.311, 123.862, -151.285, 123.287, 88.0821, 0, 0, 3.20296, -54.385, 3.15752, -174.359, 3.17224, 65.0082, 0.0742735, 148.327
1, 1560.00000, 122.105, -31.311, 123.862, -151.285, 123.287, 88.0821, 0, 0, 3.20296, -54.385, 3.15752, -174.359, 3.17224, 65.0082, 0.0742735, 148.327
1, 1620.00000, 122.105, -31.311, 123.862, -151.285, 123.287, 88.0821, 0, 0, 3.20296, -54.385, 3.15752, -174.359, 3.17224, 65.0082, 0.0742735, 148.327
1, 1680.00000, 122.105, -31.311, 123.862, -151.285, 123.287, 88.0821, 0, 0, 3.20296, -54.385, 3.15752, -174.359, 3.17224, 65.0082, 0.0742735, 148.327
1, 1740.00000, 122.105, -31.311, 123.862, -151.285, 123.287, 88.0821, 0, 0, 3.20296, -54.385, 3.15752, -174.359, 3.17224, 65.0082, 0.0742735, 148.327
1, 1800.00000, 122.105, -31.311, 123.862, -151.285, 123.287, 88.0821, 0, 0, 3.20296, -54.385, 3.15752, -174.359, 3.17224, 65.0082, 0.0742735, 148.327
1, 1860.00000, 122.105, -31.311, 123.862, -151.285, 123.287, 88.0821, 0, 0, 3.20296, -54.385, 3.15752, -174.359, 3.17224, 65.0082, 0.0742735, 148.327
1, 1920.00000, 122.105, -31.311, 123.862, -151.285, 123.287, 88.0821, 0, 0, 3.20296, -54.385, 3.15752, -174.359, 3.17224, 65.0082, 0.0742735, 148.327
1, 1980.00000, 122.105, -31.311, 123.862, -151.285, 123.287, 88.0821, 0, 0, 3.20296, -54.385, 3.15752, -174.359, 3.17224, 65.0082, 0.0742735, 148.327
1, 2040.00000, 122.105, -31.311, 123.862, -151.285, 123.287, 88.0821, 0, 0, 3.20296, -54.385, 3.15752, -174.359, 3.17224, 65.0082, 0.0742735, 148.327
1, 2100.00000, 122.105, -31.311, 123.862, -151.285, 123.287, 88.0821, 0, 0, 3.20296, -54.385, 3.15752, -174.359, 3.17224, 65.0082, 0.0742735, 148.327
1, 2160.00000, 122.105, -31.311, 123.862, -151.285, 123.287, 88.0821, 0, 0, 3.20296, -54.385, 3.15752, -174.359, 3.17224, 65.0082, 0.0742735, 148.327
1, 2220.00000, 122.43, -31.284, 123.857, -151.285, 123.404, 88.2151, 0, 0, 3.19448, -54.3581, 3.15763, -174.359, 3.16926, 65.1412, 0.0599911, 149.048
1, 2280.00000, 122.43, -31.284, 123.857, -151.285, 123.404, 88.2151, 0, 0, 3.19445, -54.3579, 3.15764, -174.359, 3.16925, 65.1412, 0.0599552, 149.059
1, 2340.00000, 122.43, -31.284, 123.857, -151.285, 123.404, 88.2151, 0, 0, 3.19445, -54.3579, 3.15764, -174.359, 3.16925, 65.1412, 0.059955, 149.059
1, 2400.00000, 122.43, -31.284, 123.857, -151.285, 123.404, 88.2151, 0, 0, 3.19445, -54.3579, 3.15764, -174.359, 3.16925, 65.1412, 0.059955, 149.059
1, 2460.00000, 122.43, -31.284, 123.857, -151.285, 123.404, 88.2151, 0, 0, 3.19445, -54.3579, 3.15764, -174.359, 3.16925, 65.1412, 0.059955, 149.059
1, 2520.00000, 122.43, -31.284, 123.857, -151.285, 123.404, 88.2151, 0, 0, 3.19445, -54.3579, 3.15764, -174.359, 3.16925, 65.1412, 0.059955, 149.059
1, 2580.00000, 122.43, -31.284, 123.857, -151.285, 123.404, 88.2151, 0, 0, 3.19445, -54.3579, 3.15764, -174.359, 3.16925, 65.1412, 0.059955, 149.059
1, 2640.00000, 122.43, -31.284, 123.857, -151.285, 123.404, 88.2151, 0, 0, 3.19445, -54.3579, 3.15764, -174.359, 3.16925, 65.1412, 0.059955, 149.059
1, 2700.00000, 122.43, -31.284, 123.857, -151.285, 123.404, 88.2151, 0, 0, 3.19445, -54.3579, 3.15764, -174.359, 3.16925, 65.1412, 0.059955, 149.059
1, 2760.00000, 122.43, -31.284, 123.857, -151.285, 123.404, 88.2151, 0, 0, 3.19445, -54.3579, 3.15764, -174.359, 3.16925, 65.1412, 0.059955, 149.059
1, 2820.00000, 122.43, -31.284, 123.857, -151.285, 123.404, 88.2151, 0, 0, 3.19445, -54.3579, 3.15764, -174.359, 3.16925, 65.1412, 0.059955, 149.059
1, 2880.00000, 122.43, -31.284, 123.857, -151.285, 123.404, 88.2151, 0, 0, 3.19445, -54.3579, 3.15764, -174.359, 3.16925, 65.1412, 0.059955, 149.059
1, 2940.00000, 122.43, -31.284, 123.857, -151.285, 123.404, 88.2151, 0, 0, 3.19445, -54.3579, 3.15764, -174.359, 3.16925, 65.1412, 0.059955, 149.059
1, 3000.00000, 122.43, -31.284, 123.857, -151.285, 123.404, 88.2151, 0, 0, 3.19445, -54.3579, 3.15764, -174.359, 3.16925, 65.1412, 0.059955, 149.059
1, 3060.00000, 122.43, -31.284, 123.857, -151.285, 123.404, 88.2151, 0, 0, 3.19445, -54.3579, 3.15764, -174.359, 3.16925, 65.1412, 0.059955, 149.059
1, 3120.00000, 122.43, -31.284, 123.857, -151.285, 123.404, 88.2151, 0, 0, 3.19445, -54.3579, 3.15764, -174.359, 3.16925, 65.1412, 0.059955, 149.059
1, 3180.00000, 122.43, -31.284, 123.857, -151.285, 123.404, 88.2151, 0, 0, 3.19445, -54.3579, 3.15764, -174.359, 3.16925, 65.1412, 0.059955, 149.059
1, 3240.00000, 122.43, -31.284, 123.857, -151.285, 123.404, 88.2151, 0, 0, 3.19445, -54.3579, 3.15764, -174.359, 3.16925, 65.1412, 0.059955, 149.059
1, 3300.00000, 122.43, -31.284, 123.857, -151.285, 123.404, 88.2151, 0, 0, 3.19445, -54.3579, 3.15764, -174.359, 3.16925, 65.1412, 0.059955, 149.059
1, 3360.00000, 122.43, -31.284, 123.857, -151.285, 123.404, 88.2151, 0, 0, 3.19445, -54.3579, 3.15764, -174.359, 3.16925, 65.1412, 0.059955, 149.059
1, 3420.00000, 122.43, -31.284, 123.857, -151.285, 123.404, 88.2151, 0, 0, 3.19445, -54.3579, 3.15764, -174.359, 3.16925, 65.1412, 0.059955, 149.059
1, 3480.00000, 122.43, -31.284, 123.857, -151.285, 123.404, 88.2151, 0, 0, 3.19445, -54.3579, 3.15764, -174.359, 3.16925, 65.1412, 0.059955, 149.059
1, 3540.00000, 122.43, -31.284, 123.857, -151.285, 123.404, 88.2151, 0, 0, 3.19445, -54.3579, 3.15764, -174.359, 3.16925, 65.1412, 0.059955, 149.059
2, 0.00000, 122.43, -31.284, 123.857, -151.285, 123.404, 88.2151, 0, 0, 3.19445, -54.3579, 3.15764, -174.359, 3.16925, 65.1412, 0.059955, 149.059
2, 60.00000, 122.43, -31.284, 123.857, -151.285, 123.404, 88.2151, 0, 0, 3.19445, -54.3579, 3.15764, -174.359, 3.16925, 65.1412, 0.059955, 149.059
2, 120.00000, 122.43, -31.284, 123.857, -151.285, 123.404, 88.2151, 0, 0, 3.19445, -54.3579, 3.15764, -174.359, 3.16925, 65.1412, 0.059955, 149.059
2, 180.00000, 122.43, -31.284, 123.857, -151.285, 123.404, 88.2151, 0, 0, 3.19445, -54.3579, 3.15764, -174.359, 3.16925, 65.1412, 0.059955, 149.059
2, 240.00000, 122.43, -31.284, 123.857, -151.285, 123.404, 88.2151, 0, 0, 3.19445, -54.3579, 3.15764, -174.359, 3.16925, 65.1412, 0.059955, 149.059
2, 300.00000, 122.43, -31.284, 123.857, -151.285, 123.404, 88.2151, 0, 0, 3.19445, -54.3579, 3.15764, -174.359, 3.16925, 65.1412, 0.059955, 149.059
2, 360.00000, 122.43, -31.284, 123.857, -151.285, 123.404, 88.2151, 0, 0, 3.19445, -54.3579, 3.15764, -174.359, 3.16925, 65.1412, 0.059955, 149.059
2, 420.00000, 122.43, -31.284, 123.857, -151.285, 123.404, 88.2151, 0, 0, 3.19445, -54.3579, 3.15764, -174.359, 3.16925, 65.1412, 0.059955, 149.059
2, 480.00000, 122.43, -31.284, 123.857, -151.285, 123.404, 88.2151, 0, 0, 3.19445, -54.3579, 3.15764, -174.359, 3.16925, 65.1412, 0.059955, 149.059
2, 540.00000, 122.43, -31.284, 123.857, -151.285, 123.404, 88.2151, 0, 0, 3.19445, -54.3579, 3.15764, -174.359, 3.16925, 65.1412, 0.059955, 149.059
2, 600.00000, 122.43, -31.284, 123.857, -151.285, 123.404, 88.2151, 0, 0, 3.19445, -54.3579, 3.15764, -174.359, 3.16925, 65.1412, 0.059955, 149.059
2, 660.00000, 122.43, -31.284, 123.857, -151.285, 123.404, 88.2151, 0, 0, 3.19445, -54.3579, 3.15764, -174.359, 3.16925, 65.1412, 0.059955, 149.059
2, 720.00000, 122.43, -31.284, 123.857, -151.285, 123.404, 88.2151, 0, 0, 3.19445, -54.3579, 3.15764, -174.359, 3.16925, 65.1412, 0.059955, 149.059
2, 780.00000, 122.43, -31.284, 123.857, -151.285, 123.404, 88.2151, 0, 0, 3.19445, -54.3579, 3.15764, -174.359, 3.16925, 65.1412, 0.059955, 149.059
