hour,t(sec),V1,VAngle1,V2,VAngle2,V3,VAngle3,V4,VAngle4,I1,IAngle1,I2,IAngle2,I3,IAngle3,I4,IAngle4
0, 60.00000, 123.126, -31.3816, 123.414, -151.267, 123.808, 88.5948, 0, 0, 3.65098, -54.4553, 3.64245, -174.341, 3.63085, 65.5211, 0.0254687, 95.0161
0, 120.00000, 123.126, -31.3816, 123.414, -151.267, 123.808, 88.5948, 0, 0, 3.65102, -54.4555, 3.64249, -174.341, 3.6309, 65.5208, 0.0254691, 95.0472
0, 180.00000, 123.126, -31.3816, 123.414, -151.267, 123.808, 88.5948, 0, 0, 3.65102, -54.4555, 3.64249, -174.341, 3.6309, 65.5208, 0.0254691, 95.0475
0, 240.00000, 123.126, -31.3816, 123.414, -151.267, 123.808, 88.5948, 0, 0, 3.65102, -54.4555, 3.64249, -174.341, 3.6309, 65.5208, 0.0254691, 95.0475
0, 300.00000, 123.126, -31.3816, 123.414, -151.267, 123.808, 88.5948, 0, 0, 3.65102, -54.4555, 3.64249, -174.341, 3.6309, 65.5208, 0.0254691, 95.0475
0, 360.00000, 123.126, -31.3816, 123.414, -151.267, 123.808, 88.5948, 0, 0, 3.65102, -54.4555, 3.64249, -174.341, 3.6309, 65.5208, 0.0254691, 95.0475
0, 420.00000, 123.126, -31.3816, 123.414, -151.267, 123.808, 88.5948, 0, 0, 3.65102, -54.4555, 3.64249, -174.341, 3.6309, 65.5208, 0.0254691, 95.0475
0, 480.00000, 123.736, -31.253, 123.993, -151.141, 124.382, 88.7328, 0, 0, 3.16078, -54.3273, 3.15423, -174.215, 3.1444, 65.6583, 0.020778, 93.0407
0, 540.00000, 123.736, -31.253, 123.993, -151.141, 124.382, 88.7328, 0, 0, 3.16073, -54.3269, 3.15419, -174.215, 3.14432, 65.6589, 0.0207883, 92.9665
0, 600.00000, 123.736, -31.253, 123.993, -151.141, 124.382, 88.7328, 0, 0, 3.16073, -54.3269, 3.15419, -174.215, 3.14432, 65.6589, 0.0207886, 92.965
0, 660.00000, 123.736, -31.253, 123.993, -151.141, 124.382, 88.7328, 0, 0, 3.16073, -54.3269, 3.15419, -174.215, 3.14432, 65.6589, 0.0207886, 92.965
0, 720.00000, 123.736, -31.253, 123.993, -151.141, 124.382, 88.7328, 0, 0, 3.16073, -54.3269, 3.15419, -174.215, 3.14432, 65.6589, 0.0207886, 92.965
0, 780.00000, 123.736, -31.253, 123.993, -151.141, 124.382, 88.7328, 0, 0, 3.16073, -54.3269, 3.15419, -174.215, 3.14432, 65.6589, 0.0207886, 92.965
0, 840.00000, 123.736, -31.253, 123.993, -151.141, 124.382, 88.7328, 0, 0, 3.16073, -54.3269, 3.15419, -174.215, 3.14432, 65.6589, 0.0207886, 92.965
0, 900.00000, 123.736, -31.253, 123.993, -151.141, 124.382, 88.7328, 0, 0, 3.16073, -54.3269, 3.15419, -174.215, 3.14432, 65.6589, 0.0207886, 92.965
0, 960.00000, 123.736, -31.253, 123.993, -151.141, 124.382, 88.7328, 0, 0, 3.16073, -54.3269, 3.15419, -174.215, 3.14432, 65.6589, 0.0207886, 92.965
0, 1020.00000, 123.736, -31.253, 123.993, -151.141, 124.382, 88.7328, 0, 0, 3.16073, -54.3269, 3.15419, -174.215, 3.14432, 65.6589, 0.0207886, 92.965
0, 1080.00000, 123.736, -31.253, 123.993, -151.141, 124.382, 88.7328, 0, 0, 3.16073, -54.3269, 3.15419, -174.215, 3.14432, 65.6589, 0.0207886, 92.965
0, 1140.00000, 123.736, -31.253, 123.993, -151.141, 124.382, 88.7328, 0, 0, 3.16073, -54.3269, 3.15419, -174.215, 3.14432, 65.6589, 0.0207886, 92.965
0, 1200.00000, 123.736, -31.253, 123.993, -151.141, 124.382, 88.7328, 0, 0, 3.16073, -54.3269, 3.15419, -174.215, 3.14432, 65.6589, 0.0207886, 92.965
0, 1260.00000, 123.736, -31.253, 123.993, -151.141, 124.382, 88.7328, 0, 0, 3.16073, -54.3269, 3.15419, -174.215, 3.14432, 65.6589, 0.0207886, 92.965
0, 1320.00000, 123.736, -31.253, 123.993, -151.141, 124.382, 88.7328, 0, 0, 3.16073, -54.3269, 3.15419, -174.215, 3.14432, 65.6589, 0.0207886, 92.965
0, 1380.00000, 123.736, -31.253, 123.993, -151.141, 124.382, 88.7328, 0, 0, 3.16073, -54.3269, 3.15419, -174.215, 3.14432, 65.6589, 0.0207886, 92.965
0, 1440.00000, 123.736, -31.253, 123.993, -151.141, 124.382, 88.7328, 0, 0, 3.16073, -54.3269, 3.15419, -174.215, 3.14432, 65.6589, 0.0207886, 92.965
0, 1500.00000, 123.736, -31.253, 123.993, -151.141, 124.382, 88.7328, 0, 0, 3.16073, -54.3269, 3.15419, -174.215, 3.14432, 65.6589, 0.0207886, 92.965
0, 1560.00000, 123.736, -31.253, 123.993, -151.141, 124.382, 88.7328, 0, 0, 3.16073, -54.3269, 3.15419, -174.215, 3.14432, 65.6589, 0.0207886, 92.965
0, 1620.00000, 123.736, -31.253, 123.993, -151.141, 124.382, 88.7328, 0, 0, 3.16073, -54.3269, 3.15419, -174.215, 3.14432, 65.6589, 0.0207886, 92.965
0, 1680.00000, 123.736, -31.253, 123.993, -151.141, 124.382, 88.7328, 0, 0, 3.16073, -54.3269, 3.15419, -174.215, 3.14432, 65.6589, 0.0207886, 92.965
0, 1740.00000, 123.736, -31.253, 123.993, -151.141, 124.382, 88.7328, 0, 0, 3.16073, -54.3269, 3.15419, -174.215, 3.14432, 65.6589, 0.0207886, 92.965
0, 1800.00000, 123.736, -31.253, 123.993, -151.141, 124.382, 88.7328, 0, 0, 3.16073, -54.3269, 3.15419, -174.215, 3.14432, 65.6589, 0.0207886, 92.965
0, 1860.00000, 123.736, -31.253, 123.993, -151.141, 124.382, 88.7328, 0, 0, 3.16073, -54.3269, 3.15419, -174.215, 3.14432, 65.6589, 0.0207886, 92.965
0, 1920.00000, 123.736, -31.253, 123.993, -151.141, 124.382, 88.7328, 0, 0, 3.16073, -54.3269, 3.15419, -174.215, 3.14432, 65.6589, 0.0207886, 92.965
0, 1980.00000, 123.736, -31.253, 123.993, -151.141, 124.382, 88.7328, 0, 0, 3.16073, -54.3269, 3.15419, -174.215, 3.14432, 65.6589, 0.0207886, 92.965
0, 2040.00000, 123.736, -31.253, 123.993, -151.141, 124.382, 88.7328, 0, 0, 3.16073, -54.3269, 3.15419, -174.215, 3.14432, 65.6589, 0.0207886, 92.965
0, 2100.00000, 123.736, -31.253, 123.993, -151.141, 124.382, 88.7328, 0, 0, 3.16073, -54.3269, 3.15419, -174.215, 3.14432, 65.6589, 0.0207886, 92.965
0, 2160.00000, 123.736, -31.253, 123.993, -151.141, 124.382, 88.7328, 0, 0, 3.16073, -54.3269, 3.15419, -174.215, 3.14432, 65.6589, 0.0207886, 92.965
0, 2220.00000, 123.736, -31.253, 123.993, -151.141, 124.382, 88.7328, 0, 0, 3.16073, -54.3269, 3.15419, -174.215, 3.14432, 65.6589, 0.0207886, 92.965
0, 2280.00000, 123.736, -31.253, 123.993, -151.141, 124.382, 88.7328, 0, 0, 3.16073, -54.3269, 3.15419, -174.215, 3.14432, 65.6589, 0.0207886, 92.965
0, 2340.00000, 123.736, -31.253, 123.993, -151.141, 124.382, 88.7328, 0, 0, 3.16073, -54.3269, 3.15419, -174.215, 3.14432, 65.6589, 0.0207886, 92.965
0, 2400.00000, 123.736, -31.253, 123.993, -151.141, 124.382, 88.7328, 0, 0, 3.16073, -54.3269, 3.15419, -174.215, 3.14432, 65.6589, 0.0207886, 92.965
0, 2460.00000, 123.736, -31.253, 123.993, -151.141, 124.382, 88.7328, 0, 0, 3.16073, -54.3269, 3.15419, -174.215, 3.14432, 65.6589, 0.0207886, 92.965
0, 2520.00000, 123.736, -31.253, 123.993, -151.141, 124.382, 88.7328, 0, 0, 3.16073, -54.3269, 3.15419, -174.215, 3.14432, 65.6589, 0.0207886, 92.965
0, 2580.00000, 123.736, -31.253, 123.993, -151.141, 124.382, 88.7328, 0, 0, 3.16073, -54.3269, 3.15419, -174.215, 3.14432, 65.6589, 0.0207886, 92.965
0, 2640.00000, 123.736, -31.253, 123.993, -151.141, 124.382, 88.7328, 0, 0, 3.16073, -54.3269, 3.15419, -174.215, 3.14432, 65.6589, 0.0207886, 92.965
0, 2700.00000, 123.736, -31.253, 123.993, -151.141, 124.382, 88.7328, 0, 0, 3.16073, -54.3269, 3.15419, -174.215, 3.14432, 65.6589, 0.0207886, 92.965
0, 2760.00000, 123.736, -31.253, 123.993, -151.141, 124.382, 88.7328, 0, 0, 3.16073, -54.3269, 3.15419, -174.215, 3.14432, 65.6589, 0.0207886, 92.965
0, 2820.00000, 123.736, -31.253, 123.993, -151.141, 124.382, 88.7328, 0, 0, 3.16073, -54.3269, 3.15419, -174.215, 3.14432, 65.6589, 0.0207886, 92.965
0, 2880.00000, 123.736, -31.253, 123.993, -151.141, 124.382, 88.7328, 0, 0, 3.16073, -54.3269, 3.15419, -174.215, 3.14432, 65.6589, 0.0207886, 92.965
0, 2940.00000, 123.736, -31.253, 123.993, -151.141, 124.382, 88.7328, 0, 0, 3.16073, -54.3269, 3.15419, -174.215, 3.14432, 65.6589, 0.0207886, 92.965
0, 3000.00000, 123.736, -31.253, 123.993, -151.141, 124.382, 88.7328, 0, 0, 3.16073, -54.3269, 3.15419, -174.215, 3.14432, 65.6589, 0.0207886, 92.965
0, 3060.00000, 123.736, -31.253, 123.993, -151.141, 124.382, 88.7328, 0, 0, 3.16073, -54.3269, 3.15419, -174.215, 3.14432, 65.6589, 0.0207886, 92.965
0, 3120.00000, 123.736, -31.253, 123.993, -151.141, 124.382, 88.7328, 0, 0, 3.16073, -54.3269, 3.15419, -174.215, 3.14432, 65.6589, 0.0207886, 92.965
0, 3180.00000, 123.736, -31.253, 123.993, -151.141, 124.382, 88.7328, 0, 0, 3.16073, -54.3269, 3.15419, -174.215, 3.14432, 65.6589, 0.0207886, 92.965
0, 3240.00000, 123.736, -31.253, 123.993, -151.141, 124.382, 88.7328, 0, 0, 3.16073, -54.3269, 3.15419, -174.215, 3.14432, 65.6589, 0.0207886, 92.965
0, 3300.00000, 123.736, -31.253, 123.993, -151.141, 124.382, 88.7328, 0, 0, 3.16073, -54.3269, 3.15419, -174.215, 3.14432, 65.6589, 0.0207886, 92.965
0, 3360.00000, 123.736, -31.253, 123.993, -151.141, 124.382, 88.7328, 0, 0, 3.16073, -54.3269, 3.15419, -174.215, 3.14432, 65.6589, 0.0207886, 92.965
0, 3420.00000, 123.736, -31.253, 123.993, -151.141, 124.382, 88.7328, 0, 0, 3.16073, -54.3269, 3.15419, -174.215, 3.14432, 65.6589, 0.0207886, 92.965
0, 3480.00000, 123.736, -31.253, 123.993, -151.141, 124.382, 88.7328, 0, 0, 3.16073, -54.3269, 3.15419, -174.215, 3.14432, 65.6589, 0.0207886, 92.965
0, 3540.00000, 123.736, -31.253, 123.993, -151.141, 124.382, 88.7328, 0, 0, 3.16073, -54.3269, 3.15419, -174.215, 3.14432, 65.6589, 0.0207886, 92.965
1, 0.00000, 123.736, -31.253, 123.993, -151.141, 124.382, 88.7328, 0, 0, 3.16073, -54.3269, 3.15419, -174.215, 3.14432, 65.6589, 0.0207886, 92.965
1, 60.00000, 123.736, -31.253, 123.993, -151.141, 124.382, 88.7328, 0, 0, 3.16073, -54.3269, 3.15419, -174.215, 3.14432, 65.6589, 0.0207886, 92.965
1, 120.00000, 123.736, -31.253, 123.993, -151.141, 124.382, 88.7328, 0, 0, 3.16073, -54.3269, 3.15419, -174.215, 3.14432, 65.6589, 0.0207886, 92.965
1, 180.00000, 123.736, -31.253, 123.993, -151.141, 124.382, 88.7328, 0, 0, 3.16073, -54.3269, 3.15419, -174.215, 3.14432, 65.6589, 0.0207886, 92.965
1, 240.00000, 123.736, -31.253, 123.993, -151.141, 124.382, 88.7328, 0, 0, 3.16073, -54.3269, 3.15419, -174.215, 3.14432, 65.6589, 0.0207886, 92.965
1, 300.00000, 123.736, -31.253, 123.993, -151.141, 124.382, 88.7328, 0, 0, 3.16073, -54.3269, 3.15419, -174.215, 3.14432, 65.6589, 0.0207886, 92.965
1, 360.00000, 123.736, -31.253, 123.993, -151.141, 124.382, 88.7328, 0, 0, 3.16073, -54.3269, 3.15419, -174.215, 3.14432, 65.6589, 0.0207886, 92.965
1, 420.00000, 123.736, -31.253, 123.993, -151.141, 124.382, 88.7328, 0, 0, 3.16073, -54.3269, 3.15419, -174.215, 3.14432, 65.6589, 0.0207886, 92.965
1, 480.00000, 123.736, -31.253, 123.993, -151.141, 124.382, 88.7328, 0, 0, 3.16073, -54.3269, 3.15419, -174.215, 3.14432, 65.6589, 0.0207886, 92.965
1, 540.00000, 123.736, -31.253, 123.993, -151.141, 124.382, 88.7328, 0, 0, 3.16073, -54.3269, 3.15419, -174.215, 3.14432, 65.6589, 0.0207886, 92.965
1, 600.00000, 123.736, -31.253, 123.993, -151.141, 124.382, 88.7328, 0, 0, 3.16073, -54.3269, 3.15419, -174.215, 3.14432, 65.6589, 0.0207886, 92.965
1, 660.00000, 123.736, -31.253, 123.993, -151.141, 124.382, 88.7328, 0, 0, 3.16073, -54.3269, 3.15419, -174.215, 3.14432, 65.6589, 0.0207886, 92.965
1, 720.00000, 123.736, -31.253, 123.993, -151.141, 124.382, 88.7328, 0, 0, 3.16073, -54.3269, 3.15419, -174.215, 3.14432, 65.6589, 0.0207886, 92.965
1, 780.00000, 123.736, -31.253, 123.993, -151.141, 124.382, 88.7328, 0, 0, 3.16073, -54.3269, 3.15419, -174.215, 3.14432, 65.6589, 0.0207886, 92.965
1, 840.00000, 123.736, -31.253, 123.993, -151.141, 124.382, 88.7328, 0, 0, 3.16073, -54.3269, 3.15419, -174.215, 3.14432, 65.6589, 0.0207886, 92.965
1, 900.00000, 123.736, -31.253, 123.993, -151.141, 124.382, 88.7328, 0, 0, 3.16073, -54.3269, 3.15419, -174.215, 3.14432, 65.6589, 0.0207886, 92.965
1, 960.00000, 123.736, -31.253, 123.993, -151.141, 124.382, 88.7328, 0, 0, 3.16073, -54.3269, 3.15419, -174.215, 3.14432, 65.6589, 0.0207886, 92.965
1, 1020.00000, 123.736, -31.253, 123.993, -151.141, 124.382, 88.7328, 0, 0, 3.16073, -54.3269, 3.15419, -174.215, 3.14432, 65.6589, 0.0207886, 92.965
1, 1080.00000, 123.736, -31.253, 123.993, -151.141, 124.382, 88.7328, 0, 0, 3.16073, -54.3269, 3.15419, -174.215, 3.14432, 65.6589, 0.0207886, 92.965
1, 1140.00000, 123.736, -31.253, 123.993, -151.141, 124.382, 88.7328, 0, 0, 3.16073, -54.3269, 3.15419, -174.215, 3.14432, 65.6589, 0.0207886, 92.965
1, 1200.00000, 123.736, -31.253, 123.993, -151.141, 124.382, 88.7328, 0, 0, 3.16073, -54.3269, 3.15419, -174.215, 3.14432, 65.6589, 0.0207886, 92.965
1, 1260.00000, 123.736, -31.253, 123.993, -151.141, 124.382, 88.7328, 0, 0, 3.16073, -54.3269, 3.15419, -174.215, 3.14432, 65.6589, 0.0207886, 92.965
1, 1320.00000, 123.736, -31.253, 123.993, -151.141, 124.382, 88.7328, 0, 0, 3.16073, -54.3269, 3.15419, -174.215, 3.14432, 65.6589, 0.0207886, 92.965
1, 1380.00000, 123.736, -31.253, 123.993, -151.141, 124.382, 88.7328, 0, 0, 3.16073, -54.3269, 3.15419, -174.215, 3.14432, 65.6589, 0.0207886, 92.965
1, 1440.00000, 123.736, -31.253, 123.993, -151.141, 124.382, 88.7328, 0, 0, 3.16073, -54.3269, 3.15419, -174.215, 3.14432, 65.6589, 0.0207886, 92.965
1, 1500.00000, 123.736, -31.253, 123.993, -151.141, 124.382, 88.7328, 0, 0, 3.16073, -54.3269, 3.15419, -174.215, 3.14432, 65.6589, 0.0207886, 92.965
1, 1560.00000, 123.736, -31.253, 123.993, -151.141, 124.382, 88.7328, 0, 0, 3.16073, -54.3269, 3.15419, -174.215, 3.14432, 65.6589, 0.0207886, 92.965
1, 1620.00000, 123.736, -31.253, 123.993, -151.141, 124.382, 88.7328, 0, 0, 3.16073, -54.3269, 3.15419, -174.215, 3.14432, 65.6589, 0.0207886, 92.965
1, 1680.00000, 123.736, -31.253, 123.993, -151.141, 124.382, 88.7328, 0, 0, 3.16073, -54.3269, 3.15419, -174.215, 3.14432, 65.6589, 0.0207886, 92.965
1, 1740.00000, 123.736, -31.253, 123.993, -151.141, 124.382, 88.7328, 0, 0, 3.16073, -54.3269, 3.15419, -174.215, 3.14432, 65.6589, 0.0207886, 92.965
1, 1800.00000, 123.736, -31.253, 123.993, -151.141, 124.382, 88.7328, 0, 0, 3.16073, -54.3269, 3.15419, -174.215, 3.14432, 65.6589, 0.0207886, 92.965
1, 1860.00000, 123.736, -31.253, 123.993, -151.141, 124.382, 88.7328, 0, 0, 3.16073, -54.3269, 3.15419, -174.215, 3.14432, 65.6589, 0.0207886, 92.965
1, 1920.00000, 123.736, -31.253, 123.993, -151.141, 124.382, 88.7328, 0, 0, 3.16073, -54.3269, 3.15419, -174.215, 3.14432, 65.6589, 0.0207886, 92.965
1, 1980.00000, 123.736, -31.253, 123.993, -151.141, 124.382, 88.7328, 0, 0, 3.16073, -54.3269, 3.15419, -174.215, 3.14432, 65.6589, 0.0207886, 92.965
1, 2040.00000, 123.736, -31.253, 123.993, -151.141, 124.382, 88.7328, 0, 0, 3.16073, -54.3269, 3.15419, -174.215, 3.14432, 65.6589, 0.0207886, 92.965
1, 2100.00000, 123.736, -31.253, 123.993, -151.141, 124.382, 88.7328, 0, 0, 3.16073, -54.3269, 3.15419, -174.215, 3.14432, 65.6589, 0.0207886, 92.965
1, 2160.00000, 123.736, -31.253, 123.993, -151.141, 124.382, 88.7328, 0, 0, 3.16073, -54.3269, 3.15419, -174.215, 3.14432, 65.6589, 0.0207886, 92.965
1, 2220.00000, 123.736, -31.253, 123.993, -151.141, 124.382, 88.7328, 0, 0, 3.16073, -54.3269, 3.15419, -174.215, 3.14432, 65.6589, 0.0207886, 92.965
1, 2280.00000, 123.736, -31.253, 123.993, -151.141, 124.382, 88.7328, 0, 0, 3.16073, -54.3269, 3.15419, -174.215, 3.14432, 65.6589, 0.0207886, 92.965
1, 2340.00000, 123.736, -31.253, 123.993, -151.141, 124.382, 88.7328, 0, 0, 3.16073, -54.3269, 3.15419, -174.215, 3.14432, 65.6589, 0.0207886, 92.965
1, 2400.00000, 123.736, -31.253, 123.993, -151.141, 124.382, 88.7328, 0, 0, 3.16073, -54.3269, 3.15419, -174.215, 3.14432, 65.6589, 0.0207886, 92.965
1, 2460.00000, 123.736, -31.253, 123.993, -151.141, 124.382, 88.7328, 0, 0, 3.16073, -54.3269, 3.15419, -174.215, 3.14432, 65.6589, 0.0207886, 92.965
1, 2520.00000, 123.736, -31.253, 123.993, -151.141, 124.382, 88.7328, 0, 0, 3.16073, -54.3269, 3.15419, -174.215, 3.14432, 65.6589, 0.0207886, 92.965
1, 2580.00000, 123.736, -31.253, 123.993, -151.141, 124.382, 88.7328, 0, 0, 3.16073, -54.3269, 3.15419, -174.215, 3.14432, 65.6589, 0.0207886, 92.965
1, 2640.00000, 123.736, -31.253, 123.993, -151.141, 124.382, 88.7328, 0, 0, 3.16073, -54.3269, 3.15419, -174.215, 3.14432, 65.6589, 0.0207886, 92.965
1, 2700.00000, 123.736, -31.253, 123.993, -151.141, 124.382, 88.7328, 0, 0, 3.16073, -54.3269, 3.15419, -174.215, 3.14432, 65.6589, 0.0207886, 92.965
1, 2760.00000, 123.736, -31.253, 123.993, -151.141, 124.382, 88.7328, 0, 0, 3.16073, -54.3269, 3.15419, -174.215, 3.14432, 65.6589, 0.0207886, 92.965
1, 2820.00000, 123.736, -31.253, 123.993, -151.141, 124.382, 88.7328, 0, 0, 3.16073, -54.3269, 3.15419, -174.215, 3.14432, 65.6589, 0.0207886, 92.965
1, 2880.00000, 123.736, -31.253, 123.993, -151.141, 124.382, 88.7328, 0, 0, 3.16073, -54.3269, 3.15419, -174.215, 3.14432, 65.6589, 0.0207886, 92.965
1, 2940.00000, 123.736, -31.253, 123.993, -151.141, 124.382, 88.7328, 0, 0, 3.16073, -54.3269, 3.15419, -174.215, 3.14432, 65.6589, 0.0207886, 92.965
1, 3000.00000, 123.736, -31.253, 123.993, -151.141, 124.382, 88.7328, 0, 0, 3.16073, -54.3269, 3.15419, -174.215, 3.14432, 65.6589, 0.0207886, 92.965
1, 3060.00000, 123.736, -31.253, 123.993, -151.141, 124.382, 88.7328, 0, 0, 3.16073, -54.3269, 3.15419, -174.215, 3.14432, 65.6589, 0.0207886, 92.965
1, 3120.00000, 123.736, -31.253, 123.993, -151.141, 124.382, 88.7328, 0, 0, 3.16073, -54.3269, 3.15419, -174.215, 3.14432, 65.6589, 0.0207886, 92.965
1, 3180.00000, 123.736, -31.253, 123.993, -151.141, 124.382, 88.7328, 0, 0, 3.16073, -54.3269, 3.15419, -174.215, 3.14432, 65.6589, 0.0207886, 92.965
1, 3240.00000, 123.736, -31.253, 123.993, -151.141, 124.382, 88.7328, 0, 0, 3.16073, -54.3269, 3.15419, -174.215, 3.14432, 65.6589, 0.0207886, 92.965
1, 3300.00000, 123.736, -31.253, 123.993, -151.141, 124.382, 88.7328, 0, 0, 3.16073, -54.3269, 3.15419, -174.215, 3.14432, 65.6589, 0.0207886, 92.965
1, 3360.00000, 123.736, -31.253, 123.993, -151.141, 124.382, 88.7328, 0, 0, 3.16073, -54.3269, 3.15419, -174.215, 3.14432, 65.6589, 0.0207886, 92.965
1, 3420.00000, 123.736, -31.253, 123.993, -151.141, 124.382, 88.7328, 0, 0, 3.16073, -54.3269, 3.15419, -174.215, 3.14432, 65.6589, 0.0207886, 92.965
1, 3480.00000, 123.736, -31.253, 123.993, -151.141, 124.382, 88.7328, 0, 0, 3.16073, -54.3269, 3.15419, -174.215, 3.14432, 65.6589, 0.0207886, 92.965
1, 3540.00000, 123.736, -31.253, 123.993, -151.141, 124.382, 88.7328, 0, 0, 3.16073, -54.3269, 3.15419, -174.215, 3.14432, 65.6589, 0.0207886, 92.965
2, 0.00000, 123.736, -31.253, 123.993, -151.141, 124.382, 88.7328, 0, 0, 3.16073, -54.3269, 3.15419, -174.215, 3.14432, 65.6589, 0.0207886, 92.965
2, 60.00000, 123.736, -31.253, 123.993, -151.141, 124.382, 88.7328, 0, 0, 3.16073, -54.3269, 3.15419, -174.215, 3.14432, 65.6589, 0.0207886, 92.965
2, 120.00000, 123.736, -31.253, 123.993, -151.141, 124.382, 88.7328, 0, 0, 3.16073, -54.3269, 3.15419, -174.215, 3.14432, 65.6589, 0.0207886, 92.965
2, 180.00000, 123.736, -31.253, 123.993, -151.141, 124.382, 88.7328, 0, 0, 3.16073, -54.3269, 3.15419, -174.215, 3.14432, 65.6589, 0.0207886, 92.965
2, 240.00000, 123.736, -31.253, 123.993, -151.141, 124.382, 88.7328, 0, 0, 3.16073, -54.3269, 3.15419, -174.215, 3.14432, 65.6589, 0.0207886, 92.965
2, 300.00000, 123.736, -31.253, 123.993, -151.141, 124.382, 88.7328, 0, 0, 3.16073, -54.3269, 3.15419, -174.215, 3.14432, 65.6589, 0.0207886, 92.965
2, 360.00000, 123.736, -31.253, 123.993, -151.141, 124.382, 88.7328, 0, 0, 3.16073, -54.3269, 3.15419, -174.215, 3.14432, 65.6589, 0.0207886, 92.965
2, 420.00000, 123.736, -31.253, 123.993, -151.141, 124.382, 88.7328, 0, 0, 3.16073, -54.3269, 3.15419, -174.215, 3.14432, 65.6589, 0.0207886, 92.965
2, 480.00000, 123.736, -31.253, 123.993, -151.141, 124.382, 88.7328, 0, 0, 3.16073, -54.3269, 3.15419, -174.215, 3.14432, 65.6589, 0.0207886, 92.965
2, 540.00000, 123.736, -31.253, 123.993, -151.141, 124.382, 88.7328, 0, 0, 3.16073, -54.3269, 3.15419, -174.215, 3.14432, 65.6589, 0.0207886, 92.965
2, 600.00000, 123.736, -31.253, 123.993, -151.141, 124.382, 88.7328, 0, 0, 3.16073, -54.3269, 3.15419, -174.215, 3.14432, 65.6589, 0.0207886, 92.965
2, 660.00000, 123.736, -31.253, 123.993, -151.141, 124.382, 88.7328, 0, 0, 3.16073, -54.3269, 3.15419, -174.215, 3.14432, 65.6589, 0.0207886, 92.965
2, 720.00000, 123.736, -31.253, 123.993, -151.141, 124.382, 88.7328, 0, 0, 3.16073, -54.3269, 3.15419, -174.215, 3.14432, 65.6589, 0.0207886, 92.965
