hour,t(sec),V1,VAngle1,V2,VAngle2,V3,VAngle3,V4,VAngle4,I1,IAngle1,I2,IAngle2,I3,IAngle3,I4,IAngle4
0, 60.00000, 115.071, -30.9662, 116.279, -151.153, 115.988, 88.4906, 0, 0, 3.55841, -54.04, 3.60003, -174.227, 3.59004, 65.417, 0.0222704, -93.3566
0, 120.00000, 115.071, -30.9662, 116.279, -151.153, 115.988, 88.4906, 0, 0, 3.55839, -54.0401, 3.60001, -174.227, 3.59001, 65.4167, 0.0222466, -93.3687
0, 180.00000, 115.071, -30.9662, 116.279, -151.153, 115.988, 88.4906, 0, 0, 3.55839, -54.0401, 3.60001, -174.227, 3.59001, 65.4167, 0.0222465, -93.3688
0, 240.00000, 115.071, -30.9662, 116.279, -151.153, 115.988, 88.4906, 0, 0, 3.55839, -54.0401, 3.60001, -174.227, 3.59001, 65.4167, 0.0222465, -93.3688
0, 300.00000, 115.071, -30.9662, 116.279, -151.153, 115.988, 88.4906, 0, 0, 3.55839, -54.0401, 3.60001, -174.227, 3.59001, 65.4167, 0.0222465, -93.3688
0, 360.00000, 115.071, -30.9662, 116.279, -151.153, 115.988, 88.4906, 0, 0, 3.55839, -54.0401, 3.60001, -174.227, 3.59001, 65.4167, 0.0222465, -93.3688
0, 420.00000, 115.071, -30.9662, 116.279, -151.153, 115.988, 88.4906, 0, 0, 3.55839, -54.0401, 3.60001, -174.227, 3.59001, 65.4167, 0.0222465, -93.3688
0, 480.00000, 116.168, -30.8894, 117.359, -151.077, 117.026, 88.5894, 0, 0, 2.85983, -53.9634, 2.89244, -174.151, 2.88333, 65.515, 0.0166963, -90.246
0, 540.00000, 116.168, -30.8894, 117.359, -151.077, 117.026, 88.5895, 0, 0, 2.85984, -53.9633, 2.89247, -174.151, 2.88336, 65.5156, 0.0167059, -90.1432
0, 600.00000, 116.168, -30.8894, 117.359, -151.077, 117.026, 88.5895, 0, 0, 2.85984, -53.9633, 2.89247, -174.151, 2.88336, 65.5156, 0.016706, -90.143
0, 660.00000, 116.168, -30.8894, 117.359, -151.077, 117.026, 88.5895, 0, 0, 2.85984, -53.9633, 2.89247, -174.151, 2.88336, 65.5156, 0.016706, -90.143
0, 720.00000, 116.168, -30.8894, 117.359, -151.077, 117.026, 88.5895, 0, 0, 2.85984, -53.9633, 2.89247, -174.151, 2.88336, 65.5156, 0.016706, -90.143
0, 780.00000, 116.168, -30.8894, 117.359, -151.077, 117.026, 88.5895, 0, 0, 2.85984, -53.9633, 2.89247, -174.151, 2.88336, 65.5156, 0.016706, -90.143
0, 840.00000, 116.168, -30.8894, 117.359, -151.077, 117.026, 88.5895, 0, 0, 2.85984, -53.9633, 2.89247, -174.151, 2.88336, 65.5156, 0.016706, -90.143
0, 900.00000, 116.168, -30.8894, 117.359, -151.077, 117.026, 88.5895, 0, 0, 2.85984, -53.9633, 2.89247, -174.151, 2.88336, 65.5156, 0.016706, -90.143
0, 960.00000, 114.844, -30.581, 117.353, -151.072, 115.851, 88.1684, 0, 0, 2.82359, -53.655, 2.89232, -174.146, 2.85118, 65.0947, 0.0170202, -79.2918
0, 1020.00000, 114.844, -30.581, 117.353, -151.072, 115.851, 88.1684, 0, 0, 2.82357, -53.6549, 2.89233, -174.146, 2.85115, 65.0945, 0.0170159, -79.2382
0, 1080.00000, 114.844, -30.581, 117.353, -151.072, 115.851, 88.1684, 0, 0, 2.82357, -53.6549, 2.89233, -174.146, 2.85115, 65.0945, 0.0170159, -79.238
0, 1140.00000, 114.844, -30.581, 117.353, -151.072, 115.851, 88.1684, 0, 0, 2.82357, -53.6549, 2.89233, -174.146, 2.85115, 65.0945, 0.0170159, -79.238
0, 1200.00000, 114.844, -30.581, 117.353, -151.072, 115.851, 88.1684, 0, 0, 2.82357, -53.6549, 2.89233, -174.146, 2.85115, 65.0945, 0.0170159, -79.238
0, 1260.00000, 114.844, -30.581, 117.353, -151.072, 115.851, 88.1684, 0, 0, 2.82357, -53.6549, 2.89233, -174.146, 2.85115, 65.0945, 0.0170159, -79.238
0, 1320.00000, 114.844, -30.581, 117.353, -151.072, 115.851, 88.1684, 0, 0, 2.82357, -53.6549, 2.89233, -174.146, 2.85115, 65.0945, 0.0170159, -79.238
0, 1380.00000, 114.844, -30.581, 117.353, -151.072, 115.851, 88.1684, 0, 0, 2.82357, -53.6549, 2.89233, -174.146, 2.85115, 65.0945, 0.0170159, -79.238
0, 1440.00000, 114.844, -30.581, 117.353, -151.072, 115.851, 88.1684, 0, 0, 2.82357, -53.6549, 2.89233, -174.146, 2.85115, 65.0945, 0.0170159, -79.238
0, 1500.00000, 114.844, -30.581, 117.353, -151.072, 115.851, 88.1684, 0, 0, 2.82357, -53.6549, 2.89233, -174.146, 2.85115, 65.0945, 0.0170159, -79.238
0, 1560.00000, 114.844, -30.581, 117.353, -151.072, 115.851, 88.1684, 0, 0, 2.82357, -53.6549, 2.89233, -174.146, 2.85115, 65.0945, 0.0170159, -79.238
0, 1620.00000, 114.844, -30.581, 117.353, -151.072, 115.851, 88.1684, 0, 0, 2.82357, -53.6549, 2.89233, -174.146, 2.85115, 65.0945, 0.0170159, -79.238
0, 1680.00000, 114.844, -30.581, 117.353, -151.072, 115.851, 88.1684, 0, 0, 2.82357, -53.6549, 2.89233, -174.146, 2.85115, 65.0945, 0.0170159, -79.238
0, 1740.00000, 114.844, -30.581, 117.353, -151.072, 115.851, 88.1684, 0, 0, 2.82357, -53.6549, 2.89233, -174.146, 2.85115, 65.0945, 0.0170159, -79.238
0, 1800.00000, 114.009, -30.4396, 117.361, -151.066, 115.186, 87.8778, 0, 0, 2.80072, -53.5136, 2.89254, -174.14, 2.83296, 64.8043, 0.0173896, -69.8258
0, 1860.00000, 114.009, -30.4396, 117.361, -151.066, 115.186, 87.8778, 0, 0, 2.80069, -53.5135, 2.89254, -174.14, 2.83293, 64.8039, 0.0173909, -69.7799
0, 1920.00000, 114.009, -30.4396, 117.361, -151.066, 115.186, 87.8778, 0, 0, 2.80069, -53.5135, 2.89254, -174.14, 2.83293, 64.8039, 0.0173909, -69.7797
0, 1980.00000, 114.009, -30.4396, 117.361, -151.066, 115.186, 87.8778, 0, 0, 2.80069, -53.5135, 2.89254, -174.14, 2.83293, 64.8039, 0.0173909, -69.7797
0, 2040.00000, 114.009, -30.4396, 117.361, -151.066, 115.186, 87.8778, 0, 0, 2.80069, -53.5135, 2.89254, -174.14, 2.83293, 64.8039, 0.0173909, -69.7797
0, 2100.00000, 114.009, -30.4396, 117.361, -151.066, 115.186, 87.8778, 0, 0, 2.80069, -53.5135, 2.89254, -174.14, 2.83293, 64.8039, 0.0173909, -69.7797
0, 2160.00000, 114.009, -30.4396, 117.361, -151.066, 115.186, 87.8778, 0, 0, 2.80069, -53.5135, 2.89254, -174.14, 2.83293, 64.8039, 0.0173909, -69.7797
0, 2220.00000, 114.009, -30.4396, 117.361, -151.066, 115.186, 87.8778, 0, 0, 2.80069, -53.5135, 2.89254, -174.14, 2.83293, 64.8039, 0.0173909, -69.7797
0, 2280.00000, 114.009, -30.4396, 117.361, -151.066, 115.186, 87.8778, 0, 0, 2.80069, -53.5135, 2.89254, -174.14, 2.83293, 64.8039, 0.0173909, -69.7797
0, 2340.00000, 114.009, -30.4396, 117.361, -151.066, 115.186, 87.8778, 0, 0, 2.80069, -53.5135, 2.89254, -174.14, 2.83293, 64.8039, 0.0173909, -69.7797
0, 2400.00000, 114.009, -30.4396, 117.361, -151.066, 115.186, 87.8778, 0, 0, 2.80069, -53.5135, 2.89254, -174.14, 2.83293, 64.8039, 0.0173909, -69.7797
0, 2460.00000, 114.009, -30.4396, 117.361, -151.066, 115.186, 87.8778, 0, 0, 2.80069, -53.5135, 2.89254, -174.14, 2.83293, 64.8039, 0.0173909, -69.7797
0, 2520.00000, 114.009, -30.4396, 117.361, -151.066, 115.186, 87.8778, 0, 0, 2.80069, -53.5135, 2.89254, -174.14, 2.83293, 64.8039, 0.0173909, -69.7797
0, 2580.00000, 114.009, -30.4396, 117.361, -151.066, 115.186, 87.8778, 0, 0, 2.80069, -53.5135, 2.89254, -174.14, 2.83293, 64.8039, 0.0173909, -69.7797
0, 2640.00000, 114.009, -30.4396, 117.361, -151.066, 115.186, 87.8778, 0, 0, 2.80069, -53.5135, 2.89254, -174.14, 2.83293, 64.8039, 0.0173909, -69.7797
0, 2700.00000, 114.009, -30.4396, 117.361, -151.066, 115.186, 87.8778, 0, 0, 2.80069, -53.5135, 2.89254, -174.14, 2.83293, 64.8039, 0.0173909, -69.7797
0, 2760.00000, 114.401, -30.4336, 117.36, -151.067, 115.376, 88.0491, 0, 0, 2.81141, -53.5077, 2.89251, -174.141, 2.83814, 64.9749, 0.0169582, -73.3864
0, 2820.00000, 114.401, -30.4336, 117.36, -151.067, 115.377, 88.0491, 0, 0, 2.81142, -53.5075, 2.89251, -174.141, 2.83816, 64.9752, 0.0169755, -73.4816
0, 2880.00000, 114.401, -30.4336, 117.36, -151.067, 115.377, 88.0491, 0, 0, 2.81142, -53.5075, 2.89251, -174.141, 2.83816, 64.9752, 0.0169757, -73.4821
0, 2940.00000, 114.401, -30.4336, 117.36, -151.067, 115.377, 88.0491, 0, 0, 2.81142, -53.5075, 2.89251, -174.141, 2.83816, 64.9752, 0.0169757, -73.4821
0, 3000.00000, 114.401, -30.4336, 117.36, -151.067, 115.377, 88.0491, 0, 0, 2.81142, -53.5075, 2.89251, -174.141, 2.83816, 64.9752, 0.0169757, -73.4821
0, 3060.00000, 114.401, -30.4336, 117.36, -151.067, 115.377, 88.0491, 0, 0, 2.81142, -53.5075, 2.89251, -174.141, 2.83816, 64.9752, 0.0169757, -73.4821
0, 3120.00000, 114.401, -30.4336, 117.36, -151.067, 115.377, 88.0491, 0, 0, 2.81142, -53.5075, 2.89251, -174.141, 2.83816, 64.9752, 0.0169757, -73.4821
0, 3180.00000, 114.401, -30.4336, 117.36, -151.067, 115.377, 88.0491, 0, 0, 2.81142, -53.5075, 2.89251, -174.141, 2.83816, 64.9752, 0.0169757, -73.4821
0, 3240.00000, 114.401, -30.4336, 117.36, -151.067, 115.377, 88.0491, 0, 0, 2.81142, -53.5075, 2.89251, -174.141, 2.83816, 64.9752, 0.0169757, -73.4821
0, 3300.00000, 114.401, -30.4336, 117.36, -151.067, 115.377, 88.0491, 0, 0, 2.81142, -53.5075, 2.89251, -174.141, 2.83816, 64.9752, 0.0169757, -73.4821
0, 3360.00000, 114.401, -30.4336, 117.36, -151.067, 115.377, 88.0491, 0, 0, 2.81142, -53.5075, 2.89251, -174.141, 2.83816, 64.9752, 0.0169757, -73.4821
0, 3420.00000, 114.401, -30.4336, 117.36, -151.067, 115.377, 88.0491, 0, 0, 2.81142, -53.5075, 2.89251, -174.141, 2.83816, 64.9752, 0.0169757, -73.4821
0, 3480.00000, 114.401, -30.4336, 117.36, -151.067, 115.377, 88.0491, 0, 0, 2.81142, -53.5075, 2.89251, -174.141, 2.83816, 64.9752, 0.0169757, -73.4821
0, 3540.00000, 114.401, -30.4336, 117.36, -151.067, 115.377, 88.0491, 0, 0, 2.81142, -53.5075, 2.89251, -174.141, 2.83816, 64.9752, 0.0169757, -73.4821
1, 0.00000, 114.401, -30.4336, 117.36, -151.067, 115.377, 88.0491, 0, 0, 2.81142, -53.5075, 2.89251, -174.141, 2.83816, 64.9752, 0.0169757, -73.4821
1, 60.00000, 114.712, -30.4121, 117.36, -151.068, 115.497, 88.1921, 0, 0, 2.81995, -53.4862, 2.89252, -174.142, 2.84145, 65.118, 0.0165419, -76.1525
1, 120.00000, 114.712, -30.4121, 117.36, -151.068, 115.497, 88.1921, 0, 0, 2.81996, -53.486, 2.89252, -174.142, 2.84146, 65.1182, 0.0165485, -76.225
1, 180.00000, 114.712, -30.4121, 117.36, -151.068, 115.497, 88.1921, 0, 0, 2.81996, -53.486, 2.89252, -174.142, 2.84146, 65.1182, 0.0165486, -76.2253
1, 240.00000, 114.712, -30.4121, 117.36, -151.068, 115.497, 88.1921, 0, 0, 2.81996, -53.486, 2.89252, -174.142, 2.84146, 65.1182, 0.0165486, -76.2253
1, 300.00000, 114.712, -30.4121, 117.36, -151.068, 115.497, 88.1921, 0, 0, 2.81996, -53.486, 2.89252, -174.142, 2.84146, 65.1182, 0.0165486, -76.2253
1, 360.00000, 114.712, -30.4121, 117.36, -151.068, 115.497, 88.1921, 0, 0, 2.81996, -53.486, 2.89252, -174.142, 2.84146, 65.1182, 0.0165486, -76.2253
1, 420.00000, 114.712, -30.4121, 117.36, -151.068, 115.497, 88.1921, 0, 0, 2.81996, -53.486, 2.89252, -174.142, 2.84146, 65.1182, 0.0165486, -76.2253
1, 480.00000, 114.712, -30.4121, 117.36, -151.068, 115.497, 88.1921, 0, 0, 2.81996, -53.486, 2.89252, -174.142, 2.84146, 65.1182, 0.0165486, -76.2253
1, 540.00000, 114.712, -30.4121, 117.36, -151.068, 115.497, 88.1921, 0, 0, 2.81996, -53.486, 2.89252, -174.142, 2.84146, 65.1182, 0.0165486, -76.2253
1, 600.00000, 114.712, -30.4121, 117.36, -151.068, 115.497, 88.1921, 0, 0, 2.81996, -53.486, 2.89252, -174.142, 2.84146, 65.1182, 0.0165486, -76.2253
1, 660.00000, 114.712, -30.4121, 117.36, -151.068, 115.497, 88.1921, 0, 0, 2.81996, -53.486, 2.89252, -174.142, 2.84146, 65.1182, 0.0165486, -76.2253
1, 720.00000, 114.712, -30.4121, 117.36, -151.068, 115.497, 88.1921, 0, 0, 2.81996, -53.486, 2.89252, -174.142, 2.84146, 65.1182, 0.0165486, -76.2253
1, 780.00000, 115.189, -30.4317, 117.363, -151.069, 115.759, 88.3869, 0, 0, 2.833, -53.5058, 2.8926, -174.143, 2.84864, 65.3128, 0.0158637, -79.7525
1, 840.00000, 115.189, -30.4317, 117.363, -151.069, 115.759, 88.3869, 0, 0, 2.83303, -53.5056, 2.8926, -174.143, 2.84865, 65.313, 0.015857, -79.8267
1, 900.00000, 115.189, -30.4317, 117.363, -151.069, 115.759, 88.3869, 0, 0, 2.83303, -53.5056, 2.8926, -174.143, 2.84865, 65.313, 0.0158569, -79.8271
1, 960.00000, 115.189, -30.4317, 117.363, -151.069, 115.759, 88.3869, 0, 0, 2.83303, -53.5056, 2.8926, -174.143, 2.84865, 65.313, 0.0158569, -79.8271
1, 1020.00000, 115.189, -30.4317, 117.363, -151.069, 115.759, 88.3869, 0, 0, 2.83303, -53.5056, 2.8926, -174.143, 2.84865, 65.313, 0.0158569, -79.8271
1, 1080.00000, 115.189, -30.4317, 117.363, -151.069, 115.759, 88.3869, 0, 0, 2.83303, -53.5056, 2.8926, -174.143, 2.84865, 65.313, 0.0158569, -79.8271
1, 1140.00000, 115.189, -30.4317, 117.363, -151.069, 115.759, 88.3869, 0, 0, 2.83303, -53.5056, 2.8926, -174.143, 2.84865, 65.313, 0.0158569, -79.8271
1, 1200.00000, 115.189, -30.4317, 117.363, -151.069, 115.759, 88.3869, 0, 0, 2.83303, -53.5056, 2.8926, -174.143, 2.84865, 65.313, 0.0158569, -79.8271
1, 1260.00000, 115.189, -30.4317, 117.363, -151.069, 115.759, 88.3869, 0, 0, 2.83303, -53.5056, 2.8926, -174.143, 2.84865, 65.313, 0.0158569, -79.8271
1, 1320.00000, 115.189, -30.4317, 117.363, -151.069, 115.759, 88.3869, 0, 0, 2.83303, -53.5056, 2.8926, -174.143, 2.84865, 65.313, 0.0158569, -79.8271
1, 1380.00000, 115.189, -30.4317, 117.363, -151.069, 115.759, 88.3869, 0, 0, 2.83303, -53.5056, 2.8926, -174.143, 2.84865, 65.313, 0.0158569, -79.8271
1, 1440.00000, 115.189, -30.4317, 117.363, -151.069, 115.759, 88.3869, 0, 0, 2.83303, -53.5056, 2.8926, -174.143, 2.84865, 65.313, 0.0158569, -79.8271
1, 1500.00000, 115.189, -30.4317, 117.363, -151.069, 115.759, 88.3869, 0, 0, 2.83303, -53.5056, 2.8926, -174.143, 2.84865, 65.313, 0.0158569, -79.8271
1, 1560.00000, 115.189, -30.4317, 117.363, -151.069, 115.759, 88.3869, 0, 0, 2.83303, -53.5056, 2.8926, -174.143, 2.84865, 65.313, 0.0158569, -79.8271
1, 1620.00000, 115.189, -30.4317, 117.363, -151.069, 115.759, 88.3869, 0, 0, 2.83303, -53.5056, 2.8926, -174.143, 2.84865, 65.313, 0.0158569, -79.8271
1, 1680.00000, 115.189, -30.4317, 117.363, -151.069, 115.759, 88.3869, 0, 0, 2.83303, -53.5056, 2.8926, -174.143, 2.84865, 65.313, 0.0158569, -79.8271
1, 1740.00000, 115.189, -30.4317, 117.363, -151.069, 115.759, 88.3869, 0, 0, 2.83303, -53.5056, 2.8926, -174.143, 2.84865, 65.313, 0.0158569, -79.8271
1, 1800.00000, 115.189, -30.4317, 117.363, -151.069, 115.759, 88.3869, 0, 0, 2.83303, -53.5056, 2.8926, -174.143, 2.84865, 65.313, 0.0158569, -79.8271
1, 1860.00000, 115.189, -30.4317, 117.363, -151.069, 115.759, 88.3869, 0, 0, 2.83303, -53.5056, 2.8926, -174.143, 2.84865, 65.313, 0.0158569, -79.8271
1, 1920.00000, 115.189, -30.4317, 117.363, -151.069, 115.759, 88.3869, 0, 0, 2.83303, -53.5056, 2.8926, -174.143, 2.84865, 65.313, 0.0158569, -79.8271
1, 1980.00000, 115.189, -30.4317, 117.363, -151.069, 115.759, 88.3869, 0, 0, 2.83303, -53.5056, 2.8926, -174.143, 2.84865, 65.313, 0.0158569, -79.8271
1, 2040.00000, 115.189, -30.4317, 117.363, -151.069, 115.759, 88.3869, 0, 0, 2.83303, -53.5056, 2.8926, -174.143, 2.84865, 65.313, 0.0158569, -79.8271
1, 2100.00000, 115.189, -30.4317, 117.363, -151.069, 115.759, 88.3869, 0, 0, 2.83303, -53.5056, 2.8926, -174.143, 2.84865, 65.313, 0.0158569, -79.8271
1, 2160.00000, 115.189, -30.4317, 117.363, -151.069, 115.759, 88.3869, 0, 0, 2.83303, -53.5056, 2.8926, -174.143, 2.84865, 65.313, 0.0158569, -79.8271
1, 2220.00000, 116.049, -30.5679, 117.354, -151.074, 116.432, 88.6789, 0, 0, 2.85657, -53.642, 2.89235, -174.148, 2.86706, 65.6049, 0.0157175, -91.272
1, 2280.00000, 116.049, -30.5679, 117.354, -151.074, 116.432, 88.6789, 0, 0, 2.85659, -53.6418, 2.89235, -174.148, 2.86707, 65.605, 0.015713, -91.3661
1, 2340.00000, 116.049, -30.5679, 117.354, -151.074, 116.432, 88.6789, 0, 0, 2.85659, -53.6418, 2.89235, -174.148, 2.86707, 65.605, 0.015713, -91.3666
1, 2400.00000, 116.049, -30.5679, 117.354, -151.074, 116.432, 88.6789, 0, 0, 2.85659, -53.6418, 2.89235, -174.148, 2.86707, 65.605, 0.015713, -91.3666
1, 2460.00000, 116.049, -30.5679, 117.354, -151.074, 116.432, 88.6789, 0, 0, 2.85659, -53.6418, 2.89235, -174.148, 2.86707, 65.605, 0.015713, -91.3666
1, 2520.00000, 116.049, -30.5679, 117.354, -151.074, 116.432, 88.6789, 0, 0, 2.85659, -53.6418, 2.89235, -174.148, 2.86707, 65.605, 0.015713, -91.3666
1, 2580.00000, 116.049, -30.5679, 117.354, -151.074, 116.432, 88.6789, 0, 0, 2.85659, -53.6418, 2.89235, -174.148, 2.86707, 65.605, 0.015713, -91.3666
1, 2640.00000, 116.049, -30.5679, 117.354, -151.074, 116.432, 88.6789, 0, 0, 2.85659, -53.6418, 2.89235, -174.148, 2.86707, 65.605, 0.015713, -91.3666
1, 2700.00000, 116.049, -30.5679, 117.354, -151.074, 116.432, 88.6789, 0, 0, 2.85659, -53.6418, 2.89235, -174.148, 2.86707, 65.605, 0.015713, -91.3666
1, 2760.00000, 116.049, -30.5679, 117.354, -151.074, 116.432, 88.6789, 0, 0, 2.85659, -53.6418, 2.89235, -174.148, 2.86707, 65.605, 0.015713, -91.3666
1, 2820.00000, 116.049, -30.5679, 117.354, -151.074, 116.432, 88.6789, 0, 0, 2.85659, -53.6418, 2.89235, -174.148, 2.86707, 65.605, 0.015713, -91.3666
1, 2880.00000, 116.049, -30.5679, 117.354, -151.074, 116.432, 88.6789, 0, 0, 2.85659, -53.6418, 2.89235, -174.148, 2.86707, 65.605, 0.015713, -91.3666
1, 2940.00000, 116.049, -30.5679, 117.354, -151.074, 116.432, 88.6789, 0, 0, 2.85659, -53.6418, 2.89235, -174.148, 2.86707, 65.605, 0.015713, -91.3666
1, 3000.00000, 116.049, -30.5679, 117.354, -151.074, 116.432, 88.6789, 0, 0, 2.85659, -53.6418, 2.89235, -174.148, 2.86707, 65.605, 0.015713, -91.3666
1, 3060.00000, 116.049, -30.5679, 117.354, -151.074, 116.432, 88.6789, 0, 0, 2.85659, -53.6418, 2.89235, -174.148, 2.86707, 65.605, 0.015713, -91.3666
1, 3120.00000, 116.049, -30.5679, 117.354, -151.074, 116.432, 88.6789, 0, 0, 2.85659, -53.6418, 2.89235, -174.148, 2.86707, 65.605, 0.015713, -91.3666
1, 3180.00000, 116.049, -30.5679, 117.354, -151.074, 116.432, 88.6789, 0, 0, 2.85659, -53.6418, 2.89235, -174.148, 2.86707, 65.605, 0.015713, -91.3666
1, 3240.00000, 116.049, -30.5679, 117.354, -151.074, 116.432, 88.6789, 0, 0, 2.85659, -53.6418, 2.89235, -174.148, 2.86707, 65.605, 0.015713, -91.3666
1, 3300.00000, 116.049, -30.5679, 117.354, -151.074, 116.432, 88.6789, 0, 0, 2.85659, -53.6418, 2.89235, -174.148, 2.86707, 65.605, 0.015713, -91.3666
1, 3360.00000, 116.049, -30.5679, 117.354, -151.074, 116.432, 88.6789, 0, 0, 2.85659, -53.6418, 2.89235, -174.148, 2.86707, 65.605, 0.015713, -91.3666
1, 3420.00000, 116.049, -30.5679, 117.354, -151.074, 116.432, 88.6789, 0, 0, 2.85659, -53.6418, 2.89235, -174.148, 2.86707, 65.605, 0.015713, -91.3666
1, 3480.00000, 116.049, -30.5679, 117.354, -151.074, 116.432, 88.6789, 0, 0, 2.85659, -53.6418, 2.89235, -174.148, 2.86707, 65.605, 0.015713, -91.3666
1, 3540.00000, 116.049, -30.5679, 117.354, -151.074, 116.432, 88.6789, 0, 0, 2.85659, -53.6418, 2.89235, -174.148, 2.86707, 65.605, 0.015713, -91.3666
2, 0.00000, 116.049, -30.5679, 117.354, -151.074, 116.432, 88.6789, 0, 0, 2.85659, -53.6418, 2.89235, -174.148, 2.86707, 65.605, 0.015713, -91.3666
2, 60.00000, 116.049, -30.5679, 117.354, -151.074, 116.432, 88.6789, 0, 0, 2.85659, -53.6418, 2.89235, -174.148, 2.86707, 65.605, 0.015713, -91.3666
2, 120.00000, 116.049, -30.5679, 117.354, -151.074, 116.432, 88.6789, 0, 0, 2.85659, -53.6418, 2.89235, -174.148, 2.86707, 65.605, 0.015713, -91.3666
2, 180.00000, 116.049, -30.5679, 117.354, -151.074, 116.432, 88.6789, 0, 0, 2.85659, -53.6418, 2.89235, -174.148, 2.86707, 65.605, 0.015713, -91.3666
2, 240.00000, 116.049, -30.5679, 117.354, -151.074, 116.432, 88.6789, 0, 0, 2.85659, -53.6418, 2.89235, -174.148, 2.86707, 65.605, 0.015713, -91.3666
2, 300.00000, 116.049, -30.5679, 117.354, -151.074, 116.432, 88.6789, 0, 0, 2.85659, -53.6418, 2.89235, -174.148, 2.86707, 65.605, 0.015713, -91.3666
2, 360.00000, 116.049, -30.5679, 117.354, -151.074, 116.432, 88.6789, 0, 0, 2.85659, -53.6418, 2.89235, -174.148, 2.86707, 65.605, 0.015713, -91.3666
2, 420.00000, 116.049, -30.5679, 117.354, -151.074, 116.432, 88.6789, 0, 0, 2.85659, -53.6418, 2.89235, -174.148, 2.86707, 65.605, 0.015713, -91.3666
2, 480.00000, 116.049, -30.5679, 117.354, -151.074, 116.432, 88.6789, 0, 0, 2.85659, -53.6418, 2.89235, -174.148, 2.86707, 65.605, 0.015713, -91.3666
2, 540.00000, 116.049, -30.5679, 117.354, -151.074, 116.432, 88.6789, 0, 0, 2.85659, -53.6418, 2.89235, -174.148, 2.86707, 65.605, 0.015713, -91.3666
2, 600.00000, 116.049, -30.5679, 117.354, -151.074, 116.432, 88.6789, 0, 0, 2.85659, -53.6418, 2.89235, -174.148, 2.86707, 65.605, 0.015713, -91.3666
2, 660.00000, 116.049, -30.5679, 117.354, -151.074, 116.432, 88.6789, 0, 0, 2.85659, -53.6418, 2.89235, -174.148, 2.86707, 65.605, 0.015713, -91.3666
