hour,t(sec),V1,VAngle1,V2,VAngle2,V3,VAngle3,V4,VAngle4,I1,IAngle1,I2,IAngle2,I3,IAngle3,I4,IAngle4
0, 60.00000, 117.75, -31.1693, 118.277, -150.941, 118.979, 88.773, 0, 0, 6.47725, -54.243, 6.50951, -174.014, 6.5524, 65.6992, 0.0374606, -101.466
0, 120.00000, 117.75, -31.1693, 118.277, -150.941, 118.979, 88.773, 0, 0, 6.4772, -54.2432, 6.50946, -174.014, 6.55236, 65.699, 0.0374713, -101.459
0, 180.00000, 117.75, -31.1693, 118.277, -150.941, 118.979, 88.773, 0, 0, 6.4772, -54.2432, 6.50946, -174.014, 6.55236, 65.699, 0.0374714, -101.459
0, 240.00000, 117.75, -31.1693, 118.277, -150.941, 118.979, 88.773, 0, 0, 6.4772, -54.2432, 6.50946, -174.014, 6.55236, 65.699, 0.0374714, -101.459
0, 300.00000, 117.75, -31.1693, 118.277, -150.941, 118.979, 88.773, 0, 0, 6.4772, -54.2432, 6.50946, -174.014, 6.55236, 65.699, 0.0374714, -101.459
0, 360.00000, 117.75, -31.1693, 118.277, -150.941, 118.979, 88.773, 0, 0, 6.4772, -54.2432, 6.50946, -174.014, 6.55236, 65.699, 0.0374714, -101.459
0, 420.00000, 117.75, -31.1693, 118.277, -150.941, 118.979, 88.773, 0, 0, 6.4772, -54.2432, 6.50946, -174.014, 6.55236, 65.699, 0.0374714, -101.459
0, 480.00000, 118.735, -31.074, 119.244, -150.85, 119.93, 88.8836, 0, 0, 5.90694, -54.1482, 5.93497, -173.924, 5.97282, 65.8092, 0.0328177, -99.6976
0, 540.00000, 118.735, -31.074, 119.244, -150.85, 119.93, 88.8837, 0, 0, 5.90697, -54.1479, 5.93509, -173.924, 5.97295, 65.8097, 0.0329064, -99.5412
0, 600.00000, 118.735, -31.074, 119.244, -150.85, 119.93, 88.8837, 0, 0, 5.90697, -54.1479, 5.93509, -173.924, 5.97295, 65.8097, 0.0329068, -99.5403
0, 660.00000, 118.735, -31.074, 119.244, -150.85, 119.93, 88.8837, 0, 0, 5.90697, -54.1479, 5.93509, -173.924, 5.97295, 65.8097, 0.0329068, -99.5403
0, 720.00000, 118.735, -31.074, 119.244, -150.85, 119.93, 88.8837, 0, 0, 5.90697, -54.1479, 5.93509, -173.924, 5.97295, 65.8097, 0.0329068, -99.5403
0, 780.00000, 118.735, -31.074, 119.244, -150.85, 119.93, 88.8837, 0, 0, 5.90697, -54.1479, 5.93509, -173.924, 5.97295, 65.8097, 0.0329068, -99.5403
0, 840.00000, 118.735, -31.074, 119.244, -150.85, 119.93, 88.8837, 0, 0, 5.90697, -54.1479, 5.93509, -173.924, 5.97295, 65.8097, 0.0329068, -99.5403
0, 900.00000, 118.735, -31.074, 119.244, -150.85, 119.93, 88.8837, 0, 0, 5.90697, -54.1479, 5.93509, -173.924, 5.97295, 65.8097, 0.0329068, -99.5403
0, 960.00000, 118.735, -31.074, 119.244, -150.85, 119.93, 88.8837, 0, 0, 5.90697, -54.1479, 5.93509, -173.924, 5.97295, 65.8097, 0.0329068, -99.5403
0, 1020.00000, 118.735, -31.074, 119.244, -150.85, 119.93, 88.8837, 0, 0, 5.90697, -54.1479, 5.93509, -173.924, 5.97295, 65.8097, 0.0329068, -99.5403
0, 1080.00000, 118.735, -31.074, 119.244, -150.85, 119.93, 88.8837, 0, 0, 5.90697, -54.1479, 5.93509, -173.924, 5.97295, 65.8097, 0.0329068, -99.5403
0, 1140.00000, 118.735, -31.074, 119.244, -150.85, 119.93, 88.8837, 0, 0, 5.90697, -54.1479, 5.93509, -173.924, 5.97295, 65.8097, 0.0329068, -99.5403
0, 1200.00000, 118.735, -31.074, 119.244, -150.85, 119.93, 88.8837, 0, 0, 5.90697, -54.1479, 5.93509, -173.924, 5.97295, 65.8097, 0.0329068, -99.5403
0, 1260.00000, 118.735, -31.074, 119.244, -150.85, 119.93, 88.8837, 0, 0, 5.90697, -54.1479, 5.93509, -173.924, 5.97295, 65.8097, 0.0329068, -99.5403
0, 1320.00000, 118.735, -31.074, 119.244, -150.85, 119.93, 88.8837, 0, 0, 5.90697, -54.1479, 5.93509, -173.924, 5.97295, 65.8097, 0.0329068, -99.5403
0, 1380.00000, 118.735, -31.074, 119.244, -150.85, 119.93, 88.8837, 0, 0, 5.90697, -54.1479, 5.93509, -173.924, 5.97295, 65.8097, 0.0329068, -99.5403
0, 1440.00000, 118.735, -31.074, 119.244, -150.85, 119.93, 88.8837, 0, 0, 5.90697, -54.1479, 5.93509, -173.924, 5.97295, 65.8097, 0.0329068, -99.5403
0, 1500.00000, 118.735, -31.074, 119.244, -150.85, 119.93, 88.8837, 0, 0, 5.90697, -54.1479, 5.93509, -173.924, 5.97295, 65.8097, 0.0329068, -99.5403
0, 1560.00000, 118.735, -31.074, 119.244, -150.85, 119.93, 88.8837, 0, 0, 5.90697, -54.1479, 5.93509, -173.924, 5.97295, 65.8097, 0.0329068, -99.5403
0, 1620.00000, 118.735, -31.074, 119.244, -150.85, 119.93, 88.8837, 0, 0, 5.90697, -54.1479, 5.93509, -173.924, 5.97295, 65.8097, 0.0329068, -99.5403
0, 1680.00000, 118.735, -31.074, 119.244, -150.85, 119.93, 88.8837, 0, 0, 5.90697, -54.1479, 5.93509, -173.924, 5.97295, 65.8097, 0.0329068, -99.5403
0, 1740.00000, 118.735, -31.074, 119.244, -150.85, 119.93, 88.8837, 0, 0, 5.90697, -54.1479, 5.93509, -173.924, 5.97295, 65.8097, 0.0329068, -99.5403
0, 1800.00000, 118.735, -31.074, 119.244, -150.85, 119.93, 88.8837, 0, 0, 5.90697, -54.1479, 5.93509, -173.924, 5.97295, 65.8097, 0.0329068, -99.5403
0, 1860.00000, 118.735, -31.074, 119.244, -150.85, 119.93, 88.8837, 0, 0, 5.90697, -54.1479, 5.93509, -173.924, 5.97295, 65.8097, 0.0329068, -99.5403
0, 1920.00000, 118.735, -31.074, 119.244, -150.85, 119.93, 88.8837, 0, 0, 5.90697, -54.1479, 5.93509, -173.924, 5.97295, 65.8097, 0.0329068, -99.5403
0, 1980.00000, 118.735, -31.074, 119.244, -150.85, 119.93, 88.8837, 0, 0, 5.90697, -54.1479, 5.93509, -173.924, 5.97295, 65.8097, 0.0329068, -99.5403
0, 2040.00000, 118.735, -31.074, 119.244, -150.85, 119.93, 88.8837, 0, 0, 5.90697, -54.1479, 5.93509, -173.924, 5.97295, 65.8097, 0.0329068, -99.5403
0, 2100.00000, 118.735, -31.074, 119.244, -150.85, 119.93, 88.8837, 0, 0, 5.90697, -54.1479, 5.93509, -173.924, 5.97295, 65.8097, 0.0329068, -99.5403
0, 2160.00000, 118.735, -31.074, 119.244, -150.85, 119.93, 88.8837, 0, 0, 5.90697, -54.1479, 5.93509, -173.924, 5.97295, 65.8097, 0.0329068, -99.5403
0, 2220.00000, 118.735, -31.074, 119.244, -150.85, 119.93, 88.8837, 0, 0, 5.90697, -54.1479, 5.93509, -173.924, 5.97295, 65.8097, 0.0329068, -99.5403
0, 2280.00000, 118.735, -31.074, 119.244, -150.85, 119.93, 88.8837, 0, 0, 5.90697, -54.1479, 5.93509, -173.924, 5.97295, 65.8097, 0.0329068, -99.5403
0, 2340.00000, 118.735, -31.074, 119.244, -150.85, 119.93, 88.8837, 0, 0, 5.90697, -54.1479, 5.93509, -173.924, 5.97295, 65.8097, 0.0329068, -99.5403
0, 2400.00000, 118.735, -31.074, 119.244, -150.85, 119.93, 88.8837, 0, 0, 5.90697, -54.1479, 5.93509, -173.924, 5.97295, 65.8097, 0.0329068, -99.5403
0, 2460.00000, 118.735, -31.074, 119.244, -150.85, 119.93, 88.8837, 0, 0, 5.90697, -54.1479, 5.93509, -173.924, 5.97295, 65.8097, 0.0329068, -99.5403
0, 2520.00000, 118.735, -31.074, 119.244, -150.85, 119.93, 88.8837, 0, 0, 5.90697, -54.1479, 5.93509, -173.924, 5.97295, 65.8097, 0.0329068, -99.5403
0, 2580.00000, 118.735, -31.074, 119.244, -150.85, 119.93, 88.8837, 0, 0, 5.90697, -54.1479, 5.93509, -173.924, 5.97295, 65.8097, 0.0329068, -99.5403
0, 2640.00000, 118.735, -31.074, 119.244, -150.85, 119.93, 88.8837, 0, 0, 5.90697, -54.1479, 5.93509, -173.924, 5.97295, 65.8097, 0.0329068, -99.5403
0, 2700.00000, 118.735, -31.074, 119.244, -150.85, 119.93, 88.8837, 0, 0, 5.90697, -54.1479, 5.93509, -173.924, 5.97295, 65.8097, 0.0329068, -99.5403
0, 2760.00000, 118.735, -31.074, 119.244, -150.85, 119.93, 88.8837, 0, 0, 5.90697, -54.1479, 5.93509, -173.924, 5.97295, 65.8097, 0.0329068, -99.5403
0, 2820.00000, 118.735, -31.074, 119.244, -150.85, 119.93, 88.8837, 0, 0, 5.90697, -54.1479, 5.93509, -173.924, 5.97295, 65.8097, 0.0329068, -99.5403
0, 2880.00000, 118.735, -31.074, 119.244, -150.85, 119.93, 88.8837, 0, 0, 5.90697, -54.1479, 5.93509, -173.924, 5.97295, 65.8097, 0.0329068, -99.5403
0, 2940.00000, 118.735, -31.074, 119.244, -150.85, 119.93, 88.8837, 0, 0, 5.90697, -54.1479, 5.93509, -173.924, 5.97295, 65.8097, 0.0329068, -99.5403
0, 3000.00000, 118.735, -31.074, 119.244, -150.85, 119.93, 88.8837, 0, 0, 5.90697, -54.1479, 5.93509, -173.924, 5.97295, 65.8097, 0.0329068, -99.5403
0, 3060.00000, 118.735, -31.074, 119.244, -150.85, 119.93, 88.8837, 0, 0, 5.90697, -54.1479, 5.93509, -173.924, 5.97295, 65.8097, 0.0329068, -99.5403
0, 3120.00000, 118.735, -31.074, 119.244, -150.85, 119.93, 88.8837, 0, 0, 5.90697, -54.1479, 5.93509, -173.924, 5.97295, 65.8097, 0.0329068, -99.5403
0, 3180.00000, 118.735, -31.074, 119.244, -150.85, 119.93, 88.8837, 0, 0, 5.90697, -54.1479, 5.93509, -173.924, 5.97295, 65.8097, 0.0329068, -99.5403
0, 3240.00000, 118.735, -31.074, 119.244, -150.85, 119.93, 88.8837, 0, 0, 5.90697, -54.1479, 5.93509, -173.924, 5.97295, 65.8097, 0.0329068, -99.5403
0, 3300.00000, 118.735, -31.074, 119.244, -150.85, 119.93, 88.8837, 0, 0, 5.90697, -54.1479, 5.93509, -173.924, 5.97295, 65.8097, 0.0329068, -99.5403
0, 3360.00000, 118.735, -31.074, 119.244, -150.85, 119.93, 88.8837, 0, 0, 5.90697, -54.1479, 5.93509, -173.924, 5.97295, 65.8097, 0.0329068, -99.5403
0, 3420.00000, 118.735, -31.074, 119.244, -150.85, 119.93, 88.8837, 0, 0, 5.90697, -54.1479, 5.93509, -173.924, 5.97295, 65.8097, 0.0329068, -99.5403
0, 3480.00000, 118.735, -31.074, 119.244, -150.85, 119.93, 88.8837, 0, 0, 5.90697, -54.1479, 5.93509, -173.924, 5.97295, 65.8097, 0.0329068, -99.5403
0, 3540.00000, 118.735, -31.074, 119.244, -150.85, 119.93, 88.8837, 0, 0, 5.90697, -54.1479, 5.93509, -173.924, 5.97295, 65.8097, 0.0329068, -99.5403
1, 0.00000, 118.735, -31.074, 119.244, -150.85, 119.93, 88.8837, 0, 0, 5.90697, -54.1479, 5.93509, -173.924, 5.97295, 65.8097, 0.0329068, -99.5403
1, 60.00000, 118.735, -31.074, 119.244, -150.85, 119.93, 88.8837, 0, 0, 5.90697, -54.1479, 5.93509, -173.924, 5.97295, 65.8097, 0.0329068, -99.5403
1, 120.00000, 118.735, -31.074, 119.244, -150.85, 119.93, 88.8837, 0, 0, 5.90697, -54.1479, 5.93509, -173.924, 5.97295, 65.8097, 0.0329068, -99.5403
1, 180.00000, 118.735, -31.074, 119.244, -150.85, 119.93, 88.8837, 0, 0, 5.90697, -54.1479, 5.93509, -173.924, 5.97295, 65.8097, 0.0329068, -99.5403
1, 240.00000, 118.735, -31.074, 119.244, -150.85, 119.93, 88.8837, 0, 0, 5.90697, -54.1479, 5.93509, -173.924, 5.97295, 65.8097, 0.0329068, -99.5403
1, 300.00000, 118.735, -31.074, 119.244, -150.85, 119.93, 88.8837, 0, 0, 5.90697, -54.1479, 5.93509, -173.924, 5.97295, 65.8097, 0.0329068, -99.5403
1, 360.00000, 118.735, -31.074, 119.244, -150.85, 119.93, 88.8837, 0, 0, 5.90697, -54.1479, 5.93509, -173.924, 5.97295, 65.8097, 0.0329068, -99.5403
1, 420.00000, 118.735, -31.074, 119.244, -150.85, 119.93, 88.8837, 0, 0, 5.90697, -54.1479, 5.93509, -173.924, 5.97295, 65.8097, 0.0329068, -99.5403
1, 480.00000, 118.735, -31.074, 119.244, -150.85, 119.93, 88.8837, 0, 0, 5.90697, -54.1479, 5.93509, -173.924, 5.97295, 65.8097, 0.0329068, -99.5403
1, 540.00000, 118.735, -31.074, 119.244, -150.85, 119.93, 88.8837, 0, 0, 5.90697, -54.1479, 5.93509, -173.924, 5.97295, 65.8097, 0.0329068, -99.5403
1, 600.00000, 118.735, -31.074, 119.244, -150.85, 119.93, 88.8837, 0, 0, 5.90697, -54.1479, 5.93509, -173.924, 5.97295, 65.8097, 0.0329068, -99.5403
1, 660.00000, 118.735, -31.074, 119.244, -150.85, 119.93, 88.8837, 0, 0, 5.90697, -54.1479, 5.93509, -173.924, 5.97295, 65.8097, 0.0329068, -99.5403
1, 720.00000, 118.735, -31.074, 119.244, -150.85, 119.93, 88.8837, 0, 0, 5.90697, -54.1479, 5.93509, -173.924, 5.97295, 65.8097, 0.0329068, -99.5403
1, 780.00000, 118.735, -31.074, 119.244, -150.85, 119.93, 88.8837, 0, 0, 5.90697, -54.1479, 5.93509, -173.924, 5.97295, 65.8097, 0.0329068, -99.5403
1, 840.00000, 118.735, -31.074, 119.244, -150.85, 119.93, 88.8837, 0, 0, 5.90697, -54.1479, 5.93509, -173.924, 5.97295, 65.8097, 0.0329068, -99.5403
1, 900.00000, 118.735, -31.074, 119.244, -150.85, 119.93, 88.8837, 0, 0, 5.90697, -54.1479, 5.93509, -173.924, 5.97295, 65.8097, 0.0329068, -99.5403
1, 960.00000, 118.735, -31.074, 119.244, -150.85, 119.93, 88.8837, 0, 0, 5.90697, -54.1479, 5.93509, -173.924, 5.97295, 65.8097, 0.0329068, -99.5403
1, 1020.00000, 118.735, -31.074, 119.244, -150.85, 119.93, 88.8837, 0, 0, 5.90697, -54.1479, 5.93509, -173.924, 5.97295, 65.8097, 0.0329068, -99.5403
1, 1080.00000, 118.735, -31.074, 119.244, -150.85, 119.93, 88.8837, 0, 0, 5.90697, -54.1479, 5.93509, -173.924, 5.97295, 65.8097, 0.0329068, -99.5403
1, 1140.00000, 118.735, -31.074, 119.244, -150.85, 119.93, 88.8837, 0, 0, 5.90697, -54.1479, 5.93509, -173.924, 5.97295, 65.8097, 0.0329068, -99.5403
1, 1200.00000, 118.735, -31.074, 119.244, -150.85, 119.93, 88.8837, 0, 0, 5.90697, -54.1479, 5.93509, -173.924, 5.97295, 65.8097, 0.0329068, -99.5403
1, 1260.00000, 118.735, -31.074, 119.244, -150.85, 119.93, 88.8837, 0, 0, 5.90697, -54.1479, 5.93509, -173.924, 5.97295, 65.8097, 0.0329068, -99.5403
1, 1320.00000, 118.735, -31.074, 119.244, -150.85, 119.93, 88.8837, 0, 0, 5.90697, -54.1479, 5.93509, -173.924, 5.97295, 65.8097, 0.0329068, -99.5403
1, 1380.00000, 118.735, -31.074, 119.244, -150.85, 119.93, 88.8837, 0, 0, 5.90697, -54.1479, 5.93509, -173.924, 5.97295, 65.8097, 0.0329068, -99.5403
1, 1440.00000, 118.735, -31.074, 119.244, -150.85, 119.93, 88.8837, 0, 0, 5.90697, -54.1479, 5.93509, -173.924, 5.97295, 65.8097, 0.0329068, -99.5403
1, 1500.00000, 118.735, -31.074, 119.244, -150.85, 119.93, 88.8837, 0, 0, 5.90697, -54.1479, 5.93509, -173.924, 5.97295, 65.8097, 0.0329068, -99.5403
1, 1560.00000, 118.735, -31.074, 119.244, -150.85, 119.93, 88.8837, 0, 0, 5.90697, -54.1479, 5.93509, -173.924, 5.97295, 65.8097, 0.0329068, -99.5403
1, 1620.00000, 118.735, -31.074, 119.244, -150.85, 119.93, 88.8837, 0, 0, 5.90697, -54.1479, 5.93509, -173.924, 5.97295, 65.8097, 0.0329068, -99.5403
1, 1680.00000, 118.735, -31.074, 119.244, -150.85, 119.93, 88.8837, 0, 0, 5.90697, -54.1479, 5.93509, -173.924, 5.97295, 65.8097, 0.0329068, -99.5403
1, 1740.00000, 118.735, -31.074, 119.244, -150.85, 119.93, 88.8837, 0, 0, 5.90697, -54.1479, 5.93509, -173.924, 5.97295, 65.8097, 0.0329068, -99.5403
1, 1800.00000, 118.735, -31.074, 119.244, -150.85, 119.93, 88.8837, 0, 0, 5.90697, -54.1479, 5.93509, -173.924, 5.97295, 65.8097, 0.0329068, -99.5403
1, 1860.00000, 118.735, -31.074, 119.244, -150.85, 119.93, 88.8837, 0, 0, 5.90697, -54.1479, 5.93509, -173.924, 5.97295, 65.8097, 0.0329068, -99.5403
1, 1920.00000, 118.735, -31.074, 119.244, -150.85, 119.93, 88.8837, 0, 0, 5.90697, -54.1479, 5.93509, -173.924, 5.97295, 65.8097, 0.0329068, -99.5403
1, 1980.00000, 118.735, -31.074, 119.244, -150.85, 119.93, 88.8837, 0, 0, 5.90697, -54.1479, 5.93509, -173.924, 5.97295, 65.8097, 0.0329068, -99.5403
1, 2040.00000, 118.735, -31.074, 119.244, -150.85, 119.93, 88.8837, 0, 0, 5.90697, -54.1479, 5.93509, -173.924, 5.97295, 65.8097, 0.0329068, -99.5403
1, 2100.00000, 118.735, -31.074, 119.244, -150.85, 119.93, 88.8837, 0, 0, 5.90697, -54.1479, 5.93509, -173.924, 5.97295, 65.8097, 0.0329068, -99.5403
1, 2160.00000, 118.735, -31.074, 119.244, -150.85, 119.93, 88.8837, 0, 0, 5.90697, -54.1479, 5.93509, -173.924, 5.97295, 65.8097, 0.0329068, -99.5403
1, 2220.00000, 118.735, -31.074, 119.244, -150.85, 119.93, 88.8837, 0, 0, 5.90697, -54.1479, 5.93509, -173.924, 5.97295, 65.8097, 0.0329068, -99.5403
1, 2280.00000, 118.735, -31.074, 119.244, -150.85, 119.93, 88.8837, 0, 0, 5.90697, -54.1479, 5.93509, -173.924, 5.97295, 65.8097, 0.0329068, -99.5403
1, 2340.00000, 118.735, -31.074, 119.244, -150.85, 119.93, 88.8837, 0, 0, 5.90697, -54.1479, 5.93509, -173.924, 5.97295, 65.8097, 0.0329068, -99.5403
1, 2400.00000, 118.735, -31.074, 119.244, -150.85, 119.93, 88.8837, 0, 0, 5.90697, -54.1479, 5.93509, -173.924, 5.97295, 65.8097, 0.0329068, -99.5403
1, 2460.00000, 118.735, -31.074, 119.244, -150.85, 119.93, 88.8837, 0, 0, 5.90697, -54.1479, 5.93509, -173.924, 5.97295, 65.8097, 0.0329068, -99.5403
1, 2520.00000, 118.735, -31.074, 119.244, -150.85, 119.93, 88.8837, 0, 0, 5.90697, -54.1479, 5.93509, -173.924, 5.97295, 65.8097, 0.0329068, -99.5403
1, 2580.00000, 118.735, -31.074, 119.244, -150.85, 119.93, 88.8837, 0, 0, 5.90697, -54.1479, 5.93509, -173.924, 5.97295, 65.8097, 0.0329068, -99.5403
1, 2640.00000, 118.735, -31.074, 119.244, -150.85, 119.93, 88.8837, 0, 0, 5.90697, -54.1479, 5.93509, -173.924, 5.97295, 65.8097, 0.0329068, -99.5403
1, 2700.00000, 118.735, -31.074, 119.244, -150.85, 119.93, 88.8837, 0, 0, 5.90697, -54.1479, 5.93509, -173.924, 5.97295, 65.8097, 0.0329068, -99.5403
1, 2760.00000, 118.735, -31.074, 119.244, -150.85, 119.93, 88.8837, 0, 0, 5.90697, -54.1479, 5.93509, -173.924, 5.97295, 65.8097, 0.0329068, -99.5403
1, 2820.00000, 118.735, -31.074, 119.244, -150.85, 119.93, 88.8837, 0, 0, 5.90697, -54.1479, 5.93509, -173.924, 5.97295, 65.8097, 0.0329068, -99.5403
1, 2880.00000, 118.735, -31.074, 119.244, -150.85, 119.93, 88.8837, 0, 0, 5.90697, -54.1479, 5.93509, -173.924, 5.97295, 65.8097, 0.0329068, -99.5403
1, 2940.00000, 118.735, -31.074, 119.244, -150.85, 119.93, 88.8837, 0, 0, 5.90697, -54.1479, 5.93509, -173.924, 5.97295, 65.8097, 0.0329068, -99.5403
1, 3000.00000, 118.735, -31.074, 119.244, -150.85, 119.93, 88.8837, 0, 0, 5.90697, -54.1479, 5.93509, -173.924, 5.97295, 65.8097, 0.0329068, -99.5403
1, 3060.00000, 118.735, -31.074, 119.244, -150.85, 119.93, 88.8837, 0, 0, 5.90697, -54.1479, 5.93509, -173.924, 5.97295, 65.8097, 0.0329068, -99.5403
1, 3120.00000, 118.735, -31.074, 119.244, -150.85, 119.93, 88.8837, 0, 0, 5.90697, -54.1479, 5.93509, -173.924, 5.97295, 65.8097, 0.0329068, -99.5403
1, 3180.00000, 118.735, -31.074, 119.244, -150.85, 119.93, 88.8837, 0, 0, 5.90697, -54.1479, 5.93509, -173.924, 5.97295, 65.8097, 0.0329068, -99.5403
1, 3240.00000, 118.735, -31.074, 119.244, -150.85, 119.93, 88.8837, 0, 0, 5.90697, -54.1479, 5.93509, -173.924, 5.97295, 65.8097, 0.0329068, -99.5403
1, 3300.00000, 118.735, -31.074, 119.244, -150.85, 119.93, 88.8837, 0, 0, 5.90697, -54.1479, 5.93509, -173.924, 5.97295, 65.8097, 0.0329068, -99.5403
1, 3360.00000, 118.735, -31.074, 119.244, -150.85, 119.93, 88.8837, 0, 0, 5.90697, -54.1479, 5.93509, -173.924, 5.97295, 65.8097, 0.0329068, -99.5403
1, 3420.00000, 118.735, -31.074, 119.244, -150.85, 119.93, 88.8837, 0, 0, 5.90697, -54.1479, 5.93509, -173.924, 5.97295, 65.8097, 0.0329068, -99.5403
1, 3480.00000, 118.735, -31.074, 119.244, -150.85, 119.93, 88.8837, 0, 0, 5.90697, -54.1479, 5.93509, -173.924, 5.97295, 65.8097, 0.0329068, -99.5403
1, 3540.00000, 118.735, -31.074, 119.244, -150.85, 119.93, 88.8837, 0, 0, 5.90697, -54.1479, 5.93509, -173.924, 5.97295, 65.8097, 0.0329068, -99.5403
2, 0.00000, 118.735, -31.074, 119.244, -150.85, 119.93, 88.8837, 0, 0, 5.90697, -54.1479, 5.93509, -173.924, 5.97295, 65.8097, 0.0329068, -99.5403
2, 60.00000, 118.735, -31.074, 119.244, -150.85, 119.93, 88.8837, 0, 0, 5.90697, -54.1479, 5.93509, -173.924, 5.97295, 65.8097, 0.0329068, -99.5403
2, 120.00000, 118.735, -31.074, 119.244, -150.85, 119.93, 88.8837, 0, 0, 5.90697, -54.1479, 5.93509, -173.924, 5.97295, 65.8097, 0.0329068, -99.5403
2, 180.00000, 118.735, -31.074, 119.244, -150.85, 119.93, 88.8837, 0, 0, 5.90697, -54.1479, 5.93509, -173.924, 5.97295, 65.8097, 0.0329068, -99.5403
2, 240.00000, 118.735, -31.074, 119.244, -150.85, 119.93, 88.8837, 0, 0, 5.90697, -54.1479, 5.93509, -173.924, 5.97295, 65.8097, 0.0329068, -99.5403
2, 300.00000, 118.735, -31.074, 119.244, -150.85, 119.93, 88.8837, 0, 0, 5.90697, -54.1479, 5.93509, -173.924, 5.97295, 65.8097, 0.0329068, -99.5403
2, 360.00000, 118.735, -31.074, 119.244, -150.85, 119.93, 88.8837, 0, 0, 5.90697, -54.1479, 5.93509, -173.924, 5.97295, 65.8097, 0.0329068, -99.5403
2, 420.00000, 118.735, -31.074, 119.244, -150.85, 119.93, 88.8837, 0, 0, 5.90697, -54.1479, 5.93509, -173.924, 5.97295, 65.8097, 0.0329068, -99.5403
2, 480.00000, 118.735, -31.074, 119.244, -150.85, 119.93, 88.8837, 0, 0, 5.90697, -54.1479, 5.93509, -173.924, 5.97295, 65.8097, 0.0329068, -99.5403
2, 540.00000, 118.735, -31.074, 119.244, -150.85, 119.93, 88.8837, 0, 0, 5.90697, -54.1479, 5.93509, -173.924, 5.97295, 65.8097, 0.0329068, -99.5403
2, 600.00000, 118.735, -31.074, 119.244, -150.85, 119.93, 88.8837, 0, 0, 5.90697, -54.1479, 5.93509, -173.924, 5.97295, 65.8097, 0.0329068, -99.5403
2, 660.00000, 118.735, -31.074, 119.244, -150.85, 119.93, 88.8837, 0, 0, 5.90697, -54.1479, 5.93509, -173.924, 5.97295, 65.8097, 0.0329068, -99.5403
2, 720.00000, 118.735, -31.074, 119.244, -150.85, 119.93, 88.8837, 0, 0, 5.90697, -54.1479, 5.93509, -173.924, 5.97295, 65.8097, 0.0329068, -99.5403
2, 780.00000, 118.735, -31.074, 119.244, -150.85, 119.93, 88.8837, 0, 0, 5.90697, -54.1479, 5.93509, -173.924, 5.97295, 65.8097, 0.0329068, -99.5403
