hour,t(sec),"P1 (kW)","Q1 (kvar)","P2 (kW)","Q2 (kvar)","P3 (kW)","Q3 (kvar)","P4 (kW)","Q4 (kvar)"
0, 60.00000, 0.707068, 0.301204, 0.702413, 0.299225, 0.729811, 0.310896, 0, 0
0, 120.00000, 0.707059, 0.301206, 0.702404, 0.299223, 0.729801, 0.310894, 0, 0
0, 180.00000, 0.707059, 0.301206, 0.702404, 0.299223, 0.729801, 0.310894, 0, 0
0, 240.00000, 0.707059, 0.301206, 0.702404, 0.299223, 0.729801, 0.310894, 0, 0
0, 300.00000, 0.707059, 0.301206, 0.702404, 0.299223, 0.729801, 0.310894, 0, 0
0, 360.00000, 0.707059, 0.301206, 0.702404, 0.299223, 0.729801, 0.310894, 0, 0
0, 420.00000, 0.707059, 0.301206, 0.702404, 0.299223, 0.729801, 0.310894, 0, 0
0, 480.00000, 0.624248, 0.265934, 0.61971, 0.263998, 0.643687, 0.274212, 0, 0
0, 540.00000, 0.62426, 0.265934, 0.619719, 0.263999, 0.643697, 0.274214, 0, 0
0, 600.00000, 0.62426, 0.265934, 0.619719, 0.263999, 0.643697, 0.274214, 0, 0
0, 660.00000, 0.62426, 0.265934, 0.619719, 0.263999, 0.643697, 0.274214, 0, 0
0, 720.00000, 0.62426, 0.265934, 0.619719, 0.263999, 0.643697, 0.274214, 0, 0
0, 780.00000, 0.62426, 0.265934, 0.619719, 0.263999, 0.643697, 0.274214, 0, 0
0, 840.00000, 0.62426, 0.265934, 0.619719, 0.263999, 0.643697, 0.274214, 0, 0
0, 900.00000, 0.62426, 0.265934, 0.619719, 0.263999, 0.643697, 0.274214, 0, 0
0, 960.00000, 0.619184, 0.263763, 0.614753, 0.261883, 0.634214, 0.270171, 0, 0
0, 1020.00000, 0.619166, 0.263764, 0.614751, 0.261883, 0.634198, 0.270167, 0, 0
0, 1080.00000, 0.619166, 0.263764, 0.614751, 0.261883, 0.634198, 0.270167, 0, 0
0, 1140.00000, 0.623954, 0.265809, 0.614725, 0.261872, 0.636562, 0.271174, 0, 0
0, 1200.00000, 0.623966, 0.265808, 0.614725, 0.261872, 0.636568, 0.271177, 0, 0
0, 1260.00000, 0.623966, 0.265808, 0.614724, 0.261872, 0.636568, 0.271177, 0, 0
0, 1320.00000, 0.623966, 0.265808, 0.614724, 0.261872, 0.636568, 0.271177, 0, 0
0, 1380.00000, 0.623966, 0.265808, 0.614724, 0.261872, 0.636568, 0.271177, 0, 0
0, 1440.00000, 0.623966, 0.265808, 0.614724, 0.261872, 0.636568, 0.271177, 0, 0
0, 1500.00000, 0.623966, 0.265808, 0.614724, 0.261872, 0.636568, 0.271177, 0, 0
0, 1560.00000, 0.623966, 0.265808, 0.614724, 0.261872, 0.636568, 0.271177, 0, 0
0, 1620.00000, 0.623966, 0.265808, 0.614724, 0.261872, 0.636568, 0.271177, 0, 0
0, 1680.00000, 0.623966, 0.265808, 0.614724, 0.261872, 0.636568, 0.271177, 0, 0
0, 1740.00000, 0.623966, 0.265808, 0.614724, 0.261872, 0.636568, 0.271177, 0, 0
0, 1800.00000, 0.620869, 0.264488, 0.60971, 0.259735, 0.636763, 0.271261, 0, 0
0, 1860.00000, 0.620865, 0.264487, 0.609706, 0.259734, 0.636765, 0.271261, 0, 0
0, 1920.00000, 0.620865, 0.264487, 0.609706, 0.259734, 0.636765, 0.271261, 0, 0
0, 1980.00000, 0.620865, 0.264487, 0.609706, 0.259734, 0.636765, 0.271261, 0, 0
0, 2040.00000, 0.620865, 0.264487, 0.609706, 0.259734, 0.636765, 0.271261, 0, 0
0, 2100.00000, 0.620865, 0.264487, 0.609706, 0.259734, 0.636765, 0.271261, 0, 0
0, 2160.00000, 0.620865, 0.264487, 0.609706, 0.259734, 0.636765, 0.271261, 0, 0
0, 2220.00000, 0.620865, 0.264487, 0.609706, 0.259734, 0.636765, 0.271261, 0, 0
0, 2280.00000, 0.620865, 0.264487, 0.609706, 0.259734, 0.636765, 0.271261, 0, 0
0, 2340.00000, 0.620865, 0.264487, 0.609706, 0.259734, 0.636765, 0.271261, 0, 0
0, 2400.00000, 0.620865, 0.264487, 0.609706, 0.259734, 0.636765, 0.271261, 0, 0
0, 2460.00000, 0.620865, 0.264487, 0.609706, 0.259734, 0.636765, 0.271261, 0, 0
0, 2520.00000, 0.620865, 0.264487, 0.609706, 0.259734, 0.636765, 0.271261, 0, 0
0, 2580.00000, 0.620865, 0.264487, 0.609706, 0.259734, 0.636765, 0.271261, 0, 0
0, 2640.00000, 0.620865, 0.264487, 0.609706, 0.259734, 0.636765, 0.271261, 0, 0
0, 2700.00000, 0.620865, 0.264487, 0.609706, 0.259734, 0.636765, 0.271261, 0, 0
0, 2760.00000, 0.62542, 0.266428, 0.616487, 0.262627, 0.636199, 0.27102, 0, 0
0, 2820.00000, 0.625427, 0.266431, 0.616499, 0.262627, 0.636195, 0.271018, 0, 0
0, 2880.00000, 0.625427, 0.266431, 0.616499, 0.262627, 0.636195, 0.271018, 0, 0
0, 2940.00000, 0.625427, 0.266431, 0.616499, 0.262627, 0.636195, 0.271018, 0, 0
0, 3000.00000, 0.625427, 0.266431, 0.616499, 0.262627, 0.636195, 0.271018, 0, 0
0, 3060.00000, 0.625427, 0.266431, 0.616499, 0.262627, 0.636195, 0.271018, 0, 0
0, 3120.00000, 0.625427, 0.266431, 0.616499, 0.262627, 0.636195, 0.271018, 0, 0
0, 3180.00000, 0.625427, 0.266431, 0.616499, 0.262627, 0.636195, 0.271018, 0, 0
0, 3240.00000, 0.625427, 0.266431, 0.616499, 0.262627, 0.636195, 0.271018, 0, 0
0, 3300.00000, 0.625427, 0.266431, 0.616499, 0.262627, 0.636195, 0.271018, 0, 0
0, 3360.00000, 0.625427, 0.266431, 0.616499, 0.262627, 0.636195, 0.271018, 0, 0
0, 3420.00000, 0.625427, 0.266431, 0.616499, 0.262627, 0.636195, 0.271018, 0, 0
0, 3480.00000, 0.625427, 0.266431, 0.616499, 0.262627, 0.636195, 0.271018, 0, 0
0, 3540.00000, 0.625427, 0.266431, 0.616499, 0.262627, 0.636195, 0.271018, 0, 0
1, 0.00000, 0.625427, 0.266431, 0.616499, 0.262627, 0.636195, 0.271018, 0, 0
1, 60.00000, 0.627693, 0.267396, 0.620956, 0.26453, 0.635967, 0.270921, 0, 0
1, 120.00000, 0.627697, 0.267398, 0.620965, 0.26453, 0.635964, 0.27092, 0, 0
1, 180.00000, 0.627697, 0.267398, 0.620965, 0.26453, 0.635964, 0.27092, 0, 0
1, 240.00000, 0.627697, 0.267398, 0.620965, 0.26453, 0.635964, 0.27092, 0, 0
1, 300.00000, 0.627697, 0.267398, 0.620965, 0.26453, 0.635964, 0.27092, 0, 0
1, 360.00000, 0.627697, 0.267398, 0.620965, 0.26453, 0.635964, 0.27092, 0, 0
1, 420.00000, 0.627697, 0.267398, 0.620965, 0.26453, 0.635964, 0.27092, 0, 0
1, 480.00000, 0.627697, 0.267398, 0.620965, 0.26453, 0.635964, 0.27092, 0, 0
1, 540.00000, 0.627697, 0.267398, 0.620965, 0.26453, 0.635964, 0.27092, 0, 0
1, 600.00000, 0.627697, 0.267398, 0.620965, 0.26453, 0.635964, 0.27092, 0, 0
1, 660.00000, 0.627697, 0.267398, 0.620965, 0.26453, 0.635964, 0.27092, 0, 0
1, 720.00000, 0.627697, 0.267398, 0.620965, 0.26453, 0.635964, 0.27092, 0, 0
1, 780.00000, 0.627788, 0.267437, 0.622588, 0.265221, 0.639816, 0.272563, 0, 0
1, 840.00000, 0.627786, 0.267436, 0.62259, 0.265222, 0.639826, 0.272565, 0, 0
1, 900.00000, 0.627786, 0.267436, 0.62259, 0.265222, 0.639826, 0.272565, 0, 0
1, 960.00000, 0.627786, 0.267436, 0.62259, 0.265222, 0.639826, 0.272565, 0, 0
1, 1020.00000, 0.627786, 0.267436, 0.62259, 0.265222, 0.639826, 0.272565, 0, 0
1, 1080.00000, 0.627786, 0.267436, 0.62259, 0.265222, 0.639826, 0.272565, 0, 0
1, 1140.00000, 0.627786, 0.267436, 0.62259, 0.265222, 0.639826, 0.272565, 0, 0
1, 1200.00000, 0.627786, 0.267436, 0.62259, 0.265222, 0.639826, 0.272565, 0, 0
1, 1260.00000, 0.627786, 0.267436, 0.62259, 0.265222, 0.639826, 0.272565, 0, 0
1, 1320.00000, 0.627786, 0.267436, 0.62259, 0.265222, 0.639826, 0.272565, 0, 0
1, 1380.00000, 0.627786, 0.267436, 0.62259, 0.265222, 0.639826, 0.272565, 0, 0
1, 1440.00000, 0.627786, 0.267436, 0.62259, 0.265222, 0.639826, 0.272565, 0, 0
1, 1500.00000, 0.627786, 0.267436, 0.62259, 0.265222, 0.639826, 0.272565, 0, 0
1, 1560.00000, 0.627786, 0.267436, 0.62259, 0.265222, 0.639826, 0.272565, 0, 0
1, 1620.00000, 0.627786, 0.267436, 0.62259, 0.265222, 0.639826, 0.272565, 0, 0
1, 1680.00000, 0.627786, 0.267436, 0.62259, 0.265222, 0.639826, 0.272565, 0, 0
1, 1740.00000, 0.627786, 0.267436, 0.62259, 0.265222, 0.639826, 0.272565, 0, 0
1, 1800.00000, 0.627786, 0.267436, 0.62259, 0.265222, 0.639826, 0.272565, 0, 0
1, 1860.00000, 0.627786, 0.267436, 0.62259, 0.265222, 0.639826, 0.272565, 0, 0
1, 1920.00000, 0.627786, 0.267436, 0.62259, 0.265222, 0.639826, 0.272565, 0, 0
1, 1980.00000, 0.627786, 0.267436, 0.62259, 0.265222, 0.639826, 0.272565, 0, 0
1, 2040.00000, 0.627786, 0.267436, 0.62259, 0.265222, 0.639826, 0.272565, 0, 0
1, 2100.00000, 0.627786, 0.267436, 0.62259, 0.265222, 0.639826, 0.272565, 0, 0
1, 2160.00000, 0.627786, 0.267436, 0.62259, 0.265222, 0.639826, 0.272565, 0, 0
1, 2220.00000, 0.630911, 0.268766, 0.627737, 0.267418, 0.639625, 0.272479, 0, 0
1, 2280.00000, 0.630912, 0.268767, 0.627745, 0.267418, 0.639623, 0.272478, 0, 0
1, 2340.00000, 0.630912, 0.268767, 0.627745, 0.267418, 0.639623, 0.272478, 0, 0
1, 2400.00000, 0.630912, 0.268767, 0.627745, 0.267418, 0.639623, 0.272478, 0, 0
1, 2460.00000, 0.630912, 0.268767, 0.627745, 0.267418, 0.639623, 0.272478, 0, 0
1, 2520.00000, 0.630912, 0.268767, 0.627745, 0.267418, 0.639623, 0.272478, 0, 0
1, 2580.00000, 0.630912, 0.268767, 0.627745, 0.267418, 0.639623, 0.272478, 0, 0
1, 2640.00000, 0.630912, 0.268767, 0.627745, 0.267418, 0.639623, 0.272478, 0, 0
1, 2700.00000, 0.630912, 0.268767, 0.627745, 0.267418, 0.639623, 0.272478, 0, 0
1, 2760.00000, 0.630912, 0.268767, 0.627745, 0.267418, 0.639623, 0.272478, 0, 0
1, 2820.00000, 0.630912, 0.268767, 0.627745, 0.267418, 0.639623, 0.272478, 0, 0
1, 2880.00000, 0.630912, 0.268767, 0.627745, 0.267418, 0.639623, 0.272478, 0, 0
1, 2940.00000, 0.630912, 0.268767, 0.627745, 0.267418, 0.639623, 0.272478, 0, 0
1, 3000.00000, 0.630912, 0.268767, 0.627745, 0.267418, 0.639623, 0.272478, 0, 0
1, 3060.00000, 0.630912, 0.268767, 0.627745, 0.267418, 0.639623, 0.272478, 0, 0
1, 3120.00000, 0.630912, 0.268767, 0.627745, 0.267418, 0.639623, 0.272478, 0, 0
1, 3180.00000, 0.630912, 0.268767, 0.627745, 0.267418, 0.639623, 0.272478, 0, 0
1, 3240.00000, 0.630912, 0.268767, 0.627745, 0.267418, 0.639623, 0.272478, 0, 0
1, 3300.00000, 0.630912, 0.268767, 0.627745, 0.267418, 0.639623, 0.272478, 0, 0
1, 3360.00000, 0.630912, 0.268767, 0.627745, 0.267418, 0.639623, 0.272478, 0, 0
1, 3420.00000, 0.630912, 0.268767, 0.627745, 0.267418, 0.639623, 0.272478, 0, 0
1, 3480.00000, 0.630912, 0.268767, 0.627745, 0.267418, 0.639623, 0.272478, 0, 0
1, 3540.00000, 0.630912, 0.268767, 0.627745, 0.267418, 0.639623, 0.272478, 0, 0
2, 0.00000, 0.630912, 0.268767, 0.627745, 0.267418, 0.639623, 0.272478, 0, 0
2, 60.00000, 0.630912, 0.268767, 0.627745, 0.267418, 0.639623, 0.272478, 0, 0
2, 120.00000, 0.630912, 0.268767, 0.627745, 0.267418, 0.639623, 0.272478, 0, 0
2, 180.00000, 0.630912, 0.268767, 0.627745, 0.267418, 0.639623, 0.272478, 0, 0
2, 240.00000, 0.630912, 0.268767, 0.627745, 0.267418, 0.639623, 0.272478, 0, 0
2, 300.00000, 0.630912, 0.268767, 0.627745, 0.267418, 0.639623, 0.272478, 0, 0
2, 360.00000, 0.630912, 0.268767, 0.627745, 0.267418, 0.639623, 0.272478, 0, 0
2, 420.00000, 0.630912, 0.268767, 0.627745, 0.267418, 0.639623, 0.272478, 0, 0
2, 480.00000, 0.630912, 0.268767, 0.627745, 0.267418, 0.639623, 0.272478, 0, 0
2, 540.00000, 0.630912, 0.268767, 0.627745, 0.267418, 0.639623, 0.272478, 0, 0
2, 600.00000, 0.630912, 0.268767, 0.627745, 0.267418, 0.639623, 0.272478, 0, 0
2, 660.00000, 0.630912, 0.268767, 0.627745, 0.267418, 0.639623, 0.272478, 0, 0
2, 720.00000, 0.630912, 0.268767, 0.627745, 0.267418, 0.639623, 0.272478, 0, 0
2, 780.00000, 0.630912, 0.268767, 0.627745, 0.267418, 0.639623, 0.272478, 0, 0
2, 840.00000, 0.631187, 0.268886, 0.632881, 0.269605, 0.645971, 0.275187, 0, 0
2, 900.00000, 0.631185, 0.268883, 0.632883, 0.269607, 0.645959, 0.275178, 0, 0
2, 960.00000, 0.631184, 0.268883, 0.632883, 0.269607, 0.645959, 0.275178, 0, 0
2, 1020.00000, 0.631184, 0.268883, 0.632883, 0.269607, 0.645959, 0.275178, 0, 0
2, 1080.00000, 0.631184, 0.268883, 0.632883, 0.269607, 0.645959, 0.275178, 0, 0
2, 1140.00000, 0.631184, 0.268883, 0.632883, 0.269607, 0.645959, 0.275178, 0, 0
2, 1200.00000, 0.631184, 0.268883, 0.632883, 0.269607, 0.645959, 0.275178, 0, 0
2, 1260.00000, 0.631184, 0.268883, 0.632883, 0.269607, 0.645959, 0.275178, 0, 0
2, 1320.00000, 0.631184, 0.268883, 0.632883, 0.269607, 0.645959, 0.275178, 0, 0
2, 1380.00000, 0.631184, 0.268883, 0.632883, 0.269607, 0.645959, 0.275178, 0, 0
2, 1440.00000, 0.631184, 0.268883, 0.632883, 0.269607, 0.645959, 0.275178, 0, 0
2, 1500.00000, 0.631184, 0.268883, 0.632883, 0.269607, 0.645959, 0.275178, 0, 0
2, 1560.00000, 0.631184, 0.268883, 0.632883, 0.269607, 0.645959, 0.275178, 0, 0
2, 1620.00000, 0.631184, 0.268883, 0.632883, 0.269607, 0.645959, 0.275178, 0, 0
2, 1680.00000, 0.631184, 0.268883, 0.632883, 0.269607, 0.645959, 0.275178, 0, 0
2, 1740.00000, 0.631184, 0.268883, 0.632883, 0.269607, 0.645959, 0.275178, 0, 0
2, 1800.00000, 0.631184, 0.268883, 0.632883, 0.269607, 0.645959, 0.275178, 0, 0
2, 1860.00000, 0.631184, 0.268883, 0.632883, 0.269607, 0.645959, 0.275178, 0, 0
2, 1920.00000, 0.631184, 0.268883, 0.632883, 0.269607, 0.645959, 0.275178, 0, 0
2, 1980.00000, 0.631184, 0.268883, 0.632883, 0.269607, 0.645959, 0.275178, 0, 0
2, 2040.00000, 0.631184, 0.268883, 0.632883, 0.269607, 0.645959, 0.275178, 0, 0
2, 2100.00000, 0.631184, 0.268883, 0.632883, 0.269607, 0.645959, 0.275178, 0, 0
2, 2160.00000, 0.631184, 0.268883, 0.632883, 0.269607, 0.645959, 0.275178, 0, 0
2, 2220.00000, 0.631184, 0.268883, 0.632883, 0.269607, 0.645959, 0.275178, 0, 0
2, 2280.00000, 0.631184, 0.268883, 0.632883, 0.269607, 0.645959, 0.275178, 0, 0
2, 2340.00000, 0.631184, 0.268883, 0.632883, 0.269607, 0.645959, 0.275178, 0, 0
2, 2400.00000, 0.6352, 0.2706, 0.632844, 0.26959, 0.645967, 0.275184, 0, 0
2, 2460.00000, 0.635212, 0.270599, 0.632841, 0.269589, 0.645959, 0.275178, 0, 0
2, 2520.00000, 0.635212, 0.270599, 0.632841, 0.269589, 0.645959, 0.275178, 0, 0
2, 2580.00000, 0.635212, 0.270599, 0.632841, 0.269589, 0.645959, 0.275178, 0, 0
2, 2640.00000, 0.635212, 0.270599, 0.632841, 0.269589, 0.645959, 0.275178, 0, 0
2, 2700.00000, 0.635006, 0.27051, 0.629634, 0.268224, 0.643065, 0.27394, 0, 0
2, 2760.00000, 0.635007, 0.270512, 0.629632, 0.268222, 0.643051, 0.273939, 0, 0
2, 2820.00000, 0.635007, 0.270512, 0.629632, 0.268222, 0.643051, 0.273939, 0, 0
2, 2880.00000, 0.635007, 0.270512, 0.629632, 0.268222, 0.643051, 0.273939, 0, 0
2, 2940.00000, 0.635007, 0.270512, 0.629632, 0.268222, 0.643051, 0.273939, 0, 0
2, 3000.00000, 0.635007, 0.270512, 0.629632, 0.268222, 0.643051, 0.273939, 0, 0
2, 3060.00000, 0.635305, 0.270641, 0.633041, 0.269672, 0.645973, 0.27519, 0, 0
2, 3120.00000, 0.635301, 0.270637, 0.633045, 0.269676, 0.645959, 0.275178, 0, 0
2, 3180.00000, 0.635301, 0.270637, 0.633045, 0.269676, 0.645959, 0.275178, 0, 0
2, 3240.00000, 0.635301, 0.270637, 0.633045, 0.269676, 0.645959, 0.275178, 0, 0
2, 3300.00000, 0.635301, 0.270637, 0.633045, 0.269676, 0.645959, 0.275178, 0, 0
2, 3360.00000, 0.635301, 0.270637, 0.633045, 0.269676, 0.645959, 0.275178, 0, 0
2, 3420.00000, 0.635301, 0.270637, 0.633045, 0.269676, 0.645959, 0.275178, 0, 0
2, 3480.00000, 0.635301, 0.270637, 0.633045, 0.269676, 0.645959, 0.275178, 0, 0
2, 3540.00000, 0.635301, 0.270637, 0.633045, 0.269676, 0.645959, 0.275178, 0, 0
3, 0.00000, 0.635301, 0.270637, 0.633045, 0.269676, 0.645959, 0.275178, 0, 0
3, 60.00000, 0.635301, 0.270637, 0.633045, 0.269676, 0.645959, 0.275178, 0, 0
3, 120.00000, 0.635301, 0.270637, 0.633045, 0.269676, 0.645959, 0.275178, 0, 0
3, 180.00000, 0.635301, 0.270637, 0.633045, 0.269676, 0.645959, 0.275178, 0, 0
3, 240.00000, 0.635301, 0.270637, 0.633045, 0.269676, 0.645959, 0.275178, 0, 0
3, 300.00000, 0.635301, 0.270637, 0.633045, 0.269676, 0.645959, 0.275178, 0, 0
3, 360.00000, 0.635301, 0.270637, 0.633045, 0.269676, 0.645959, 0.275178, 0, 0
3, 420.00000, 0.635301, 0.270637, 0.633045, 0.269676, 0.645959, 0.275178, 0, 0
3, 480.00000, 0.635301, 0.270637, 0.633045, 0.269676, 0.645959, 0.275178, 0, 0
3, 540.00000, 0.635301, 0.270637, 0.633045, 0.269676, 0.645959, 0.275178, 0, 0
3, 600.00000, 0.635301, 0.270637, 0.633045, 0.269676, 0.645959, 0.275178, 0, 0
3, 660.00000, 0.635301, 0.270637, 0.633045, 0.269676, 0.645959, 0.275178, 0, 0
3, 720.00000, 0.635301, 0.270637, 0.633045, 0.269676, 0.645959, 0.275178, 0, 0
3, 780.00000, 0.635301, 0.270637, 0.633045, 0.269676, 0.645959, 0.275178, 0, 0
3, 840.00000, 0.635301, 0.270637, 0.633045, 0.269676, 0.645959, 0.275178, 0, 0
3, 900.00000, 0.635301, 0.270637, 0.633045, 0.269676, 0.645959, 0.275178, 0, 0
3, 960.00000, 0.635301, 0.270637, 0.633045, 0.269676, 0.645959, 0.275178, 0, 0
3, 1020.00000, 0.635301, 0.270637, 0.633045, 0.269676, 0.645959, 0.275178, 0, 0
3, 1080.00000, 0.635301, 0.270637, 0.633045, 0.269676, 0.645959, 0.275178, 0, 0
3, 1140.00000, 0.635301, 0.270637, 0.633045, 0.269676, 0.645959, 0.275178, 0, 0
3, 1200.00000, 0.635301, 0.270637, 0.633045, 0.269676, 0.645959, 0.275178, 0, 0
3, 1260.00000, 0.635301, 0.270637, 0.633045, 0.269676, 0.645959, 0.275178, 0, 0
3, 1320.00000, 0.635301, 0.270637, 0.633045, 0.269676, 0.645959, 0.275178, 0, 0
3, 1380.00000, 0.635301, 0.270637, 0.633045, 0.269676, 0.645959, 0.275178, 0, 0
3, 1440.00000, 0.635301, 0.270637, 0.633045, 0.269676, 0.645959, 0.275178, 0, 0
3, 1500.00000, 0.635301, 0.270637, 0.633045, 0.269676, 0.645959, 0.275178, 0, 0
3, 1560.00000, 0.635301, 0.270637, 0.633045, 0.269676, 0.645959, 0.275178, 0, 0
3, 1620.00000, 0.635301, 0.270637, 0.633045, 0.269676, 0.645959, 0.275178, 0, 0
3, 1680.00000, 0.635301, 0.270637, 0.633045, 0.269676, 0.645959, 0.275178, 0, 0
3, 1740.00000, 0.635301, 0.270637, 0.633045, 0.269676, 0.645959, 0.275178, 0, 0
3, 1800.00000, 0.635301, 0.270637, 0.633045, 0.269676, 0.645959, 0.275178, 0, 0
3, 1860.00000, 0.635301, 0.270637, 0.633045, 0.269676, 0.645959, 0.275178, 0, 0
3, 1920.00000, 0.635301, 0.270637, 0.633045, 0.269676, 0.645959, 0.275178, 0, 0
3, 1980.00000, 0.635301, 0.270637, 0.633045, 0.269676, 0.645959, 0.275178, 0, 0
3, 2040.00000, 0.635301, 0.270637, 0.633045, 0.269676, 0.645959, 0.275178, 0, 0
3, 2100.00000, 0.635301, 0.270637, 0.633045, 0.269676, 0.645959, 0.275178, 0, 0
3, 2160.00000, 0.635301, 0.270637, 0.633045, 0.269676, 0.645959, 0.275178, 0, 0
3, 2220.00000, 0.635301, 0.270637, 0.633045, 0.269676, 0.645959, 0.275178, 0, 0
3, 2280.00000, 0.635301, 0.270637, 0.633045, 0.269676, 0.645959, 0.275178, 0, 0
3, 2340.00000, 0.635301, 0.270637, 0.633045, 0.269676, 0.645959, 0.275178, 0, 0
3, 2400.00000, 0.635301, 0.270637, 0.633045, 0.269676, 0.645959, 0.275178, 0, 0
3, 2460.00000, 0.635301, 0.270637, 0.633045, 0.269676, 0.645959, 0.275178, 0, 0
3, 2520.00000, 0.635301, 0.270637, 0.633045, 0.269676, 0.645959, 0.275178, 0, 0
3, 2580.00000, 0.635301, 0.270637, 0.633045, 0.269676, 0.645959, 0.275178, 0, 0
3, 2640.00000, 0.635301, 0.270637, 0.633045, 0.269676, 0.645959, 0.275178, 0, 0
3, 2700.00000, 0.635301, 0.270637, 0.633045, 0.269676, 0.645959, 0.275178, 0, 0
3, 2760.00000, 0.635301, 0.270637, 0.633045, 0.269676, 0.645959, 0.275178, 0, 0
3, 2820.00000, 0.635301, 0.270637, 0.633045, 0.269676, 0.645959, 0.275178, 0, 0
3, 2880.00000, 0.635301, 0.270637, 0.633045, 0.269676, 0.645959, 0.275178, 0, 0
3, 2940.00000, 0.635301, 0.270637, 0.633045, 0.269676, 0.645959, 0.275178, 0, 0
3, 3000.00000, 0.635301, 0.270637, 0.633045, 0.269676, 0.645959, 0.275178, 0, 0
3, 3060.00000, 0.635301, 0.270637, 0.633045, 0.269676, 0.645959, 0.275178, 0, 0
3, 3120.00000, 0.635301, 0.270637, 0.633045, 0.269676, 0.645959, 0.275178, 0, 0
3, 3180.00000, 0.669485, 0.285197, 0.667232, 0.28424, 0.683338, 0.291099, 0, 0
3, 3240.00000, 0.669481, 0.285198, 0.66723, 0.284239, 0.683342, 0.291102, 0, 0
3, 3300.00000, 0.669481, 0.285198, 0.66723, 0.284239, 0.683342, 0.291102, 0, 0
3, 3360.00000, 0.669481, 0.285198, 0.66723, 0.284239, 0.683342, 0.291102, 0, 0
3, 3420.00000, 0.669481, 0.285198, 0.66723, 0.284239, 0.683342, 0.291102, 0, 0
3, 3480.00000, 0.669481, 0.285198, 0.66723, 0.284239, 0.683342, 0.291102, 0, 0
3, 3540.00000, 0.669481, 0.285198, 0.66723, 0.284239, 0.683342, 0.291102, 0, 0
4, 0.00000, 0.668617, 0.284829, 0.645602, 0.275023, 0.661475, 0.28179, 0, 0
4, 60.00000, 0.668619, 0.28483, 0.645591, 0.275021, 0.661463, 0.281782, 0, 0
4, 120.00000, 0.668619, 0.28483, 0.645591, 0.275021, 0.661463, 0.281782, 0, 0
4, 180.00000, 0.668619, 0.28483, 0.645591, 0.275021, 0.661463, 0.281782, 0, 0
4, 240.00000, 0.668619, 0.28483, 0.645591, 0.275021, 0.661463, 0.281782, 0, 0
4, 300.00000, 0.668619, 0.28483, 0.645591, 0.275021, 0.661463, 0.281782, 0, 0
4, 360.00000, 0.668619, 0.28483, 0.645591, 0.275021, 0.661463, 0.281782, 0, 0
4, 420.00000, 0.668619, 0.28483, 0.645591, 0.275021, 0.661463, 0.281782, 0, 0
4, 480.00000, 0.668619, 0.28483, 0.645591, 0.275021, 0.661463, 0.281782, 0, 0
4, 540.00000, 0.668619, 0.28483, 0.645591, 0.275021, 0.661463, 0.281782, 0, 0
4, 600.00000, 0.668619, 0.28483, 0.645591, 0.275021, 0.661463, 0.281782, 0, 0
