hour,t(sec),"P1 (kW)","Q1 (kvar)","P2 (kW)","Q2 (kvar)","P3 (kW)","Q3 (kvar)","P4 (kW)","Q4 (kvar)"
0, 60.00000, 0.661146, 0.281643, 0.661147, 0.281644, 0.661145, 0.28164, 0, 0
0, 120.00000, 0.66115, 0.281648, 0.66115, 0.281648, 0.661149, 0.281648, 0, 0
0, 180.00000, 0.66115, 0.281649, 0.66115, 0.281649, 0.66115, 0.281649, 0, 0
0, 240.00000, 0.66115, 0.281649, 0.66115, 0.281649, 0.66115, 0.281649, 0, 0
0, 300.00000, 0.66115, 0.281649, 0.66115, 0.281649, 0.66115, 0.281649, 0, 0
0, 360.00000, 0.66115, 0.281649, 0.66115, 0.281649, 0.66115, 0.281649, 0, 0
0, 420.00000, 0.66115, 0.281649, 0.66115, 0.281649, 0.66115, 0.281649, 0, 0
0, 480.00000, 0.66115, 0.281649, 0.66115, 0.281649, 0.66115, 0.281649, 0, 0
0, 540.00000, 0.66115, 0.281649, 0.66115, 0.281649, 0.66115, 0.281649, 0, 0
0, 600.00000, 0.66115, 0.281649, 0.66115, 0.281649, 0.66115, 0.281649, 0, 0
0, 660.00000, 0.66115, 0.281649, 0.66115, 0.281649, 0.66115, 0.281649, 0, 0
0, 720.00000, 0.66115, 0.281649, 0.66115, 0.281649, 0.66115, 0.281649, 0, 0
0, 780.00000, 0.66115, 0.281649, 0.66115, 0.281649, 0.66115, 0.281649, 0, 0
0, 840.00000, 0.66115, 0.281649, 0.66115, 0.281649, 0.66115, 0.281649, 0, 0
0, 900.00000, 0.66115, 0.281649, 0.66115, 0.281649, 0.66115, 0.281649, 0, 0
0, 960.00000, 0.69941, 0.297943, 0.699407, 0.297944, 0.69941, 0.297947, 0, 0
0, 1020.00000, 0.699411, 0.297948, 0.699411, 0.297948, 0.699411, 0.297948, 0, 0
0, 1080.00000, 0.699411, 0.297948, 0.699411, 0.297948, 0.699411, 0.297948, 0, 0
0, 1140.00000, 0.699411, 0.297948, 0.699411, 0.297948, 0.699411, 0.297948, 0, 0
0, 1200.00000, 0.699411, 0.297948, 0.699411, 0.297948, 0.699411, 0.297948, 0, 0
0, 1260.00000, 0.699411, 0.297948, 0.699411, 0.297948, 0.699411, 0.297948, 0, 0
0, 1320.00000, 0.699411, 0.297948, 0.699411, 0.297948, 0.699411, 0.297948, 0, 0
0, 1380.00000, 0.699411, 0.297948, 0.699411, 0.297948, 0.699411, 0.297948, 0, 0
0, 1440.00000, 0.699411, 0.297948, 0.699411, 0.297948, 0.699411, 0.297948, 0, 0
0, 1500.00000, 0.699411, 0.297948, 0.699411, 0.297948, 0.699411, 0.297948, 0, 0
0, 1560.00000, 0.699411, 0.297948, 0.699411, 0.297948, 0.699411, 0.297948, 0, 0
0, 1620.00000, 0.699411, 0.297948, 0.699411, 0.297948, 0.699411, 0.297948, 0, 0
0, 1680.00000, 0.699411, 0.297948, 0.699411, 0.297948, 0.699411, 0.297948, 0, 0
0, 1740.00000, 0.699411, 0.297948, 0.699411, 0.297948, 0.699411, 0.297948, 0, 0
0, 1800.00000, 0.699411, 0.297948, 0.699411, 0.297948, 0.699411, 0.297948, 0, 0
0, 1860.00000, 0.701544, 0.298862, 0.701542, 0.298866, 0.701546, 0.298874, 0, 0
0, 1920.00000, 0.701535, 0.298853, 0.701535, 0.298853, 0.701535, 0.298853, 0, 0
0, 1980.00000, 0.701535, 0.298853, 0.701535, 0.298853, 0.701535, 0.298853, 0, 0
0, 2040.00000, 0.701535, 0.298853, 0.701535, 0.298853, 0.701535, 0.298853, 0, 0
0, 2100.00000, 0.701535, 0.298853, 0.701535, 0.298853, 0.701535, 0.298853, 0, 0
0, 2160.00000, 0.701535, 0.298853, 0.701535, 0.298853, 0.701535, 0.298853, 0, 0
0, 2220.00000, 0.701535, 0.298853, 0.701535, 0.298853, 0.701535, 0.298853, 0, 0
0, 2280.00000, 0.701535, 0.298853, 0.701535, 0.298853, 0.701535, 0.298853, 0, 0
0, 2340.00000, 0.701535, 0.298853, 0.701535, 0.298853, 0.701535, 0.298853, 0, 0
0, 2400.00000, 0.701535, 0.298853, 0.701535, 0.298853, 0.701535, 0.298853, 0, 0
0, 2460.00000, 0.701535, 0.298853, 0.701535, 0.298853, 0.701535, 0.298853, 0, 0
0, 2520.00000, 0.701535, 0.298853, 0.701535, 0.298853, 0.701535, 0.298853, 0, 0
0, 2580.00000, 0.701535, 0.298853, 0.701535, 0.298853, 0.701535, 0.298853, 0, 0
0, 2640.00000, 0.701535, 0.298853, 0.701535, 0.298853, 0.701535, 0.298853, 0, 0
0, 2700.00000, 0.701535, 0.298853, 0.701535, 0.298853, 0.701535, 0.298853, 0, 0
0, 2760.00000, 0.667262, 0.284254, 0.667261, 0.284253, 0.667263, 0.284257, 0, 0
0, 2820.00000, 0.667261, 0.284252, 0.667261, 0.284252, 0.667261, 0.284252, 0, 0
0, 2880.00000, 0.667261, 0.284252, 0.667261, 0.284252, 0.667261, 0.284252, 0, 0
0, 2940.00000, 0.667261, 0.284252, 0.667261, 0.284252, 0.667261, 0.284252, 0, 0
0, 3000.00000, 0.667261, 0.284252, 0.667261, 0.284252, 0.667261, 0.284252, 0, 0
0, 3060.00000, 0.667261, 0.284252, 0.667261, 0.284252, 0.667261, 0.284252, 0, 0
0, 3120.00000, 0.667261, 0.284252, 0.667261, 0.284252, 0.667261, 0.284252, 0, 0
0, 3180.00000, 0.667261, 0.284252, 0.667261, 0.284252, 0.667261, 0.284252, 0, 0
0, 3240.00000, 0.667261, 0.284252, 0.667261, 0.284252, 0.667261, 0.284252, 0, 0
0, 3300.00000, 0.667261, 0.284252, 0.667261, 0.284252, 0.667261, 0.284252, 0, 0
0, 3360.00000, 0.667261, 0.284252, 0.667261, 0.284252, 0.667261, 0.284252, 0, 0
0, 3420.00000, 0.667261, 0.284252, 0.667261, 0.284252, 0.667261, 0.284252, 0, 0
0, 3480.00000, 0.667261, 0.284252, 0.667261, 0.284252, 0.667261, 0.284252, 0, 0
0, 3540.00000, 0.667261, 0.284252, 0.667261, 0.284252, 0.667261, 0.284252, 0, 0
1, 0.00000, 0.667261, 0.284252, 0.667261, 0.284252, 0.667261, 0.284252, 0, 0
1, 60.00000, 0.659461, 0.28093, 0.65946, 0.28093, 0.659462, 0.280933, 0, 0
1, 120.00000, 0.65946, 0.280929, 0.65946, 0.280929, 0.65946, 0.280929, 0, 0
1, 180.00000, 0.65946, 0.280929, 0.65946, 0.280929, 0.65946, 0.280929, 0, 0
1, 240.00000, 0.65946, 0.280929, 0.65946, 0.280929, 0.65946, 0.280929, 0, 0
1, 300.00000, 0.65946, 0.280929, 0.65946, 0.280929, 0.65946, 0.280929, 0, 0
1, 360.00000, 0.65946, 0.280929, 0.65946, 0.280929, 0.65946, 0.280929, 0, 0
1, 420.00000, 0.65946, 0.280929, 0.65946, 0.280929, 0.65946, 0.280929, 0, 0
1, 480.00000, 0.65946, 0.280929, 0.65946, 0.280929, 0.65946, 0.280929, 0, 0
1, 540.00000, 0.65946, 0.280929, 0.65946, 0.280929, 0.65946, 0.280929, 0, 0
1, 600.00000, 0.65946, 0.280929, 0.65946, 0.280929, 0.65946, 0.280929, 0, 0
1, 660.00000, 0.65946, 0.280929, 0.65946, 0.280929, 0.65946, 0.280929, 0, 0
1, 720.00000, 0.65946, 0.280929, 0.65946, 0.280929, 0.65946, 0.280929, 0, 0
1, 780.00000, 0.65946, 0.280929, 0.65946, 0.280929, 0.65946, 0.280929, 0, 0
1, 840.00000, 0.65946, 0.280929, 0.65946, 0.280929, 0.65946, 0.280929, 0, 0
1, 900.00000, 0.65946, 0.280929, 0.65946, 0.280929, 0.65946, 0.280929, 0, 0
1, 960.00000, 0.656376, 0.279618, 0.656375, 0.279618, 0.656377, 0.279621, 0, 0
1, 1020.00000, 0.656373, 0.279614, 0.656373, 0.279614, 0.656373, 0.279614, 0, 0
1, 1080.00000, 0.656373, 0.279614, 0.656373, 0.279614, 0.656373, 0.279614, 0, 0
1, 1140.00000, 0.656373, 0.279614, 0.656373, 0.279614, 0.656373, 0.279614, 0, 0
1, 1200.00000, 0.656373, 0.279614, 0.656373, 0.279614, 0.656373, 0.279614, 0, 0
1, 1260.00000, 0.656373, 0.279614, 0.656373, 0.279614, 0.656373, 0.279614, 0, 0
1, 1320.00000, 0.656373, 0.279614, 0.656373, 0.279614, 0.656373, 0.279614, 0, 0
1, 1380.00000, 0.656373, 0.279614, 0.656373, 0.279614, 0.656373, 0.279614, 0, 0
1, 1440.00000, 0.656373, 0.279614, 0.656373, 0.279614, 0.656373, 0.279614, 0, 0
1, 1500.00000, 0.656373, 0.279614, 0.656373, 0.279614, 0.656373, 0.279614, 0, 0
1, 1560.00000, 0.656373, 0.279614, 0.656373, 0.279614, 0.656373, 0.279614, 0, 0
1, 1620.00000, 0.656373, 0.279614, 0.656373, 0.279614, 0.656373, 0.279614, 0, 0
1, 1680.00000, 0.656373, 0.279614, 0.656373, 0.279614, 0.656373, 0.279614, 0, 0
1, 1740.00000, 0.656373, 0.279614, 0.656373, 0.279614, 0.656373, 0.279614, 0, 0
1, 1800.00000, 0.656373, 0.279614, 0.656373, 0.279614, 0.656373, 0.279614, 0, 0
1, 1860.00000, 0.672203, 0.286356, 0.672203, 0.286357, 0.672201, 0.286353, 0, 0
1, 1920.00000, 0.672204, 0.286357, 0.672204, 0.286358, 0.672204, 0.286357, 0, 0
1, 1980.00000, 0.672204, 0.286358, 0.672204, 0.286358, 0.672204, 0.286358, 0, 0
1, 2040.00000, 0.672204, 0.286358, 0.672204, 0.286358, 0.672204, 0.286358, 0, 0
1, 2100.00000, 0.672204, 0.286358, 0.672204, 0.286358, 0.672204, 0.286358, 0, 0
1, 2160.00000, 0.672204, 0.286358, 0.672204, 0.286358, 0.672204, 0.286358, 0, 0
1, 2220.00000, 0.672204, 0.286358, 0.672204, 0.286358, 0.672204, 0.286358, 0, 0
1, 2280.00000, 0.672204, 0.286358, 0.672204, 0.286358, 0.672204, 0.286358, 0, 0
1, 2340.00000, 0.672204, 0.286358, 0.672204, 0.286358, 0.672204, 0.286358, 0, 0
1, 2400.00000, 0.672204, 0.286358, 0.672204, 0.286358, 0.672204, 0.286358, 0, 0
1, 2460.00000, 0.672204, 0.286358, 0.672204, 0.286358, 0.672204, 0.286358, 0, 0
1, 2520.00000, 0.672204, 0.286358, 0.672204, 0.286358, 0.672204, 0.286358, 0, 0
1, 2580.00000, 0.672204, 0.286358, 0.672204, 0.286358, 0.672204, 0.286358, 0, 0
1, 2640.00000, 0.672204, 0.286358, 0.672204, 0.286358, 0.672204, 0.286358, 0, 0
1, 2700.00000, 0.672203, 0.286357, 0.672202, 0.286356, 0.6722, 0.286351, 0, 0
1, 2760.00000, 0.633421, 0.269838, 0.63342, 0.269837, 0.63342, 0.269838, 0, 0
1, 2820.00000, 0.633419, 0.269835, 0.633419, 0.269835, 0.633419, 0.269835, 0, 0
1, 2880.00000, 0.633419, 0.269835, 0.633419, 0.269835, 0.633419, 0.269835, 0, 0
1, 2940.00000, 0.633419, 0.269835, 0.633419, 0.269835, 0.633419, 0.269835, 0, 0
1, 3000.00000, 0.633419, 0.269835, 0.633419, 0.269835, 0.633419, 0.269835, 0, 0
1, 3060.00000, 0.633419, 0.269835, 0.633419, 0.269835, 0.633419, 0.269835, 0, 0
1, 3120.00000, 0.633419, 0.269835, 0.633419, 0.269835, 0.633419, 0.269835, 0, 0
1, 3180.00000, 0.633419, 0.269835, 0.633419, 0.269835, 0.633419, 0.269835, 0, 0
1, 3240.00000, 0.633419, 0.269835, 0.633419, 0.269835, 0.633419, 0.269835, 0, 0
1, 3300.00000, 0.633419, 0.269835, 0.633419, 0.269835, 0.633419, 0.269835, 0, 0
1, 3360.00000, 0.633419, 0.269835, 0.633419, 0.269835, 0.633419, 0.269835, 0, 0
1, 3420.00000, 0.633419, 0.269835, 0.633419, 0.269835, 0.633419, 0.269835, 0, 0
1, 3480.00000, 0.633419, 0.269835, 0.633419, 0.269835, 0.633419, 0.269835, 0, 0
1, 3540.00000, 0.633419, 0.269835, 0.633419, 0.269835, 0.633419, 0.269835, 0, 0
2, 0.00000, 0.633419, 0.269835, 0.633419, 0.269835, 0.633419, 0.269835, 0, 0
2, 60.00000, 0.650416, 0.277075, 0.650417, 0.277076, 0.650416, 0.277075, 0, 0
2, 120.00000, 0.650417, 0.277077, 0.650417, 0.277077, 0.650417, 0.277077, 0, 0
2, 180.00000, 0.650417, 0.277077, 0.650417, 0.277077, 0.650417, 0.277077, 0, 0
2, 240.00000, 0.650417, 0.277077, 0.650417, 0.277077, 0.650417, 0.277077, 0, 0
2, 300.00000, 0.650417, 0.277077, 0.650417, 0.277077, 0.650417, 0.277077, 0, 0
2, 360.00000, 0.650417, 0.277077, 0.650417, 0.277077, 0.650417, 0.277077, 0, 0
2, 420.00000, 0.650417, 0.277077, 0.650417, 0.277077, 0.650417, 0.277077, 0, 0
2, 480.00000, 0.650417, 0.277077, 0.650417, 0.277077, 0.650417, 0.277077, 0, 0
2, 540.00000, 0.650419, 0.277079, 0.65042, 0.277081, 0.650417, 0.277076, 0, 0
2, 600.00000, 0.650417, 0.277077, 0.650417, 0.277077, 0.650417, 0.277077, 0, 0
2, 660.00000, 0.650417, 0.277077, 0.650417, 0.277077, 0.650417, 0.277077, 0, 0
2, 720.00000, 0.650417, 0.277077, 0.650417, 0.277077, 0.650417, 0.277077, 0, 0
2, 780.00000, 0.650417, 0.277077, 0.650417, 0.277077, 0.650417, 0.277077, 0, 0
2, 840.00000, 0.650417, 0.277077, 0.650417, 0.277077, 0.650417, 0.277077, 0, 0
2, 900.00000, 0.650417, 0.277077, 0.650417, 0.277077, 0.650417, 0.277077, 0, 0
2, 960.00000, 0.616275, 0.262534, 0.616275, 0.262534, 0.616275, 0.262534, 0, 0
2, 1020.00000, 0.616274, 0.262532, 0.616274, 0.262532, 0.616274, 0.262532, 0, 0
2, 1080.00000, 0.616274, 0.262532, 0.616274, 0.262532, 0.616274, 0.262532, 0, 0
2, 1140.00000, 0.616274, 0.262532, 0.616274, 0.262532, 0.616274, 0.262532, 0, 0
2, 1200.00000, 0.616274, 0.262532, 0.616274, 0.262532, 0.616274, 0.262532, 0, 0
2, 1260.00000, 0.616274, 0.262532, 0.616274, 0.262532, 0.616274, 0.262532, 0, 0
2, 1320.00000, 0.616274, 0.262532, 0.616274, 0.262532, 0.616274, 0.262532, 0, 0
2, 1380.00000, 0.616274, 0.262532, 0.616274, 0.262532, 0.616274, 0.262532, 0, 0
2, 1440.00000, 0.616274, 0.262532, 0.616274, 0.262532, 0.616274, 0.262532, 0, 0
2, 1500.00000, 0.616274, 0.262532, 0.616274, 0.262532, 0.616274, 0.262532, 0, 0
2, 1560.00000, 0.616274, 0.262532, 0.616274, 0.262532, 0.616274, 0.262532, 0, 0
2, 1620.00000, 0.616274, 0.262532, 0.616274, 0.262532, 0.616274, 0.262532, 0, 0
2, 1680.00000, 0.616274, 0.262532, 0.616274, 0.262532, 0.616274, 0.262532, 0, 0
2, 1740.00000, 0.616274, 0.262532, 0.616274, 0.262532, 0.616274, 0.262532, 0, 0
2, 1800.00000, 0.616274, 0.262532, 0.616274, 0.262532, 0.616274, 0.262532, 0, 0
2, 1860.00000, 0.615929, 0.262375, 0.61593, 0.262377, 0.615931, 0.262375, 0, 0
2, 1920.00000, 0.615937, 0.262388, 0.615937, 0.262388, 0.615937, 0.262388, 0, 0
2, 1980.00000, 0.615937, 0.262388, 0.615937, 0.262388, 0.615937, 0.262388, 0, 0
2, 2040.00000, 0.615937, 0.262388, 0.615937, 0.262388, 0.615937, 0.262388, 0, 0
2, 2100.00000, 0.615937, 0.262388, 0.615937, 0.262388, 0.615937, 0.262388, 0, 0
2, 2160.00000, 0.615937, 0.262388, 0.615937, 0.262388, 0.615937, 0.262388, 0, 0
2, 2220.00000, 0.615937, 0.262388, 0.615937, 0.262388, 0.615937, 0.262388, 0, 0
2, 2280.00000, 0.615937, 0.262388, 0.615937, 0.262388, 0.615937, 0.262388, 0, 0
2, 2340.00000, 0.615937, 0.262388, 0.615937, 0.262388, 0.615937, 0.262388, 0, 0
2, 2400.00000, 0.615937, 0.262388, 0.615937, 0.262388, 0.615937, 0.262388, 0, 0
2, 2460.00000, 0.615937, 0.262388, 0.615937, 0.262388, 0.615937, 0.262388, 0, 0
2, 2520.00000, 0.615937, 0.262388, 0.615937, 0.262388, 0.615937, 0.262388, 0, 0
2, 2580.00000, 0.615937, 0.262388, 0.615937, 0.262388, 0.615937, 0.262388, 0, 0
2, 2640.00000, 0.615937, 0.262388, 0.615937, 0.262388, 0.615937, 0.262388, 0, 0
2, 2700.00000, 0.615937, 0.262388, 0.615937, 0.262388, 0.615937, 0.262388, 0, 0
2, 2760.00000, 0.589306, 0.251046, 0.589306, 0.251045, 0.589306, 0.251046, 0, 0
2, 2820.00000, 0.589304, 0.251043, 0.589304, 0.251043, 0.589304, 0.251043, 0, 0
2, 2880.00000, 0.589304, 0.251043, 0.589304, 0.251043, 0.589304, 0.251043, 0, 0
2, 2940.00000, 0.589304, 0.251043, 0.589304, 0.251043, 0.589304, 0.251043, 0, 0
2, 3000.00000, 0.589304, 0.251043, 0.589304, 0.251043, 0.589304, 0.251043, 0, 0
2, 3060.00000, 0.589304, 0.251043, 0.589304, 0.251043, 0.589304, 0.251043, 0, 0
2, 3120.00000, 0.589304, 0.251042, 0.589308, 0.251051, 0.589312, 0.251058, 0, 0
2, 3180.00000, 0.589304, 0.251042, 0.589304, 0.251043, 0.589304, 0.251043, 0, 0
2, 3240.00000, 0.589304, 0.251043, 0.589304, 0.251043, 0.589304, 0.251043, 0, 0
2, 3300.00000, 0.589304, 0.251043, 0.589304, 0.251043, 0.589304, 0.251043, 0, 0
2, 3360.00000, 0.589304, 0.251043, 0.589304, 0.251043, 0.589304, 0.251043, 0, 0
2, 3420.00000, 0.589304, 0.251043, 0.589304, 0.251043, 0.589304, 0.251043, 0, 0
2, 3480.00000, 0.589304, 0.251043, 0.589304, 0.251043, 0.589304, 0.251043, 0, 0
2, 3540.00000, 0.589304, 0.251043, 0.589304, 0.251043, 0.589304, 0.251043, 0, 0
3, 0.00000, 0.589304, 0.251043, 0.589304, 0.251043, 0.589304, 0.251043, 0, 0
3, 60.00000, 0.604288, 0.257425, 0.604288, 0.257423, 0.604287, 0.257422, 0, 0
3, 120.00000, 0.604289, 0.257426, 0.604289, 0.257426, 0.604289, 0.257426, 0, 0
3, 180.00000, 0.604289, 0.257426, 0.604289, 0.257426, 0.604289, 0.257426, 0, 0
3, 240.00000, 0.604289, 0.257426, 0.604289, 0.257426, 0.604289, 0.257426, 0, 0
3, 300.00000, 0.604289, 0.257426, 0.604289, 0.257426, 0.604289, 0.257426, 0, 0
3, 360.00000, 0.604289, 0.257426, 0.604289, 0.257426, 0.604289, 0.257426, 0, 0
3, 420.00000, 0.604289, 0.257426, 0.604289, 0.257426, 0.604289, 0.257426, 0, 0
3, 480.00000, 0.604289, 0.257426, 0.604289, 0.257426, 0.604289, 0.257426, 0, 0
3, 540.00000, 0.604289, 0.257426, 0.604289, 0.257426, 0.604289, 0.257426, 0, 0
3, 600.00000, 0.604289, 0.257426, 0.604289, 0.257426, 0.604289, 0.257426, 0, 0
3, 660.00000, 0.604289, 0.257426, 0.604289, 0.257426, 0.604289, 0.257426, 0, 0
3, 720.00000, 0.604289, 0.257426, 0.604289, 0.257426, 0.604289, 0.257426, 0, 0
3, 780.00000, 0.604289, 0.257426, 0.604289, 0.257426, 0.604289, 0.257426, 0, 0
3, 840.00000, 0.604289, 0.257426, 0.604289, 0.257426, 0.604289, 0.257426, 0, 0
3, 900.00000, 0.604289, 0.257426, 0.604289, 0.257426, 0.604289, 0.257426, 0, 0
3, 960.00000, 0.620896, 0.264504, 0.620897, 0.264507, 0.620898, 0.264508, 0, 0
3, 1020.00000, 0.620893, 0.264499, 0.620893, 0.264499, 0.620893, 0.264499, 0, 0
3, 1080.00000, 0.620893, 0.264499, 0.620893, 0.264499, 0.620893, 0.264499, 0, 0
3, 1140.00000, 0.620893, 0.264499, 0.620893, 0.264499, 0.620893, 0.264499, 0, 0
3, 1200.00000, 0.620893, 0.264499, 0.620893, 0.264499, 0.620893, 0.264499, 0, 0
3, 1260.00000, 0.620893, 0.264499, 0.620893, 0.264499, 0.620893, 0.264499, 0, 0
3, 1320.00000, 0.620893, 0.264499, 0.620893, 0.264499, 0.620893, 0.264499, 0, 0
3, 1380.00000, 0.620893, 0.264499, 0.620893, 0.264499, 0.620893, 0.264499, 0, 0
3, 1440.00000, 0.620893, 0.264499, 0.620893, 0.264499, 0.620893, 0.264499, 0, 0
3, 1500.00000, 0.620893, 0.264499, 0.620893, 0.264499, 0.620893, 0.264499, 0, 0
3, 1560.00000, 0.620893, 0.264499, 0.620893, 0.264499, 0.620893, 0.264499, 0, 0
3, 1620.00000, 0.620893, 0.264499, 0.620893, 0.264499, 0.620893, 0.264499, 0, 0
3, 1680.00000, 0.620893, 0.264499, 0.620893, 0.264499, 0.620893, 0.264499, 0, 0
3, 1740.00000, 0.620893, 0.264499, 0.620893, 0.264499, 0.620893, 0.264499, 0, 0
3, 1800.00000, 0.620893, 0.264499, 0.620893, 0.264499, 0.620893, 0.264499, 0, 0
3, 1860.00000, 0.628488, 0.267738, 0.628488, 0.26774, 0.628489, 0.267741, 0, 0
3, 1920.00000, 0.628485, 0.267733, 0.628485, 0.267734, 0.628485, 0.267734, 0, 0
3, 1980.00000, 0.628485, 0.267733, 0.628485, 0.267733, 0.628485, 0.267733, 0, 0
3, 2040.00000, 0.628485, 0.267733, 0.628485, 0.267733, 0.628485, 0.267733, 0, 0
3, 2100.00000, 0.628485, 0.267733, 0.628485, 0.267733, 0.628485, 0.267733, 0, 0
3, 2160.00000, 0.628485, 0.267733, 0.628485, 0.267733, 0.628485, 0.267733, 0, 0
3, 2220.00000, 0.628485, 0.267733, 0.628485, 0.267733, 0.628485, 0.267733, 0, 0
3, 2280.00000, 0.628485, 0.267733, 0.628485, 0.267733, 0.628485, 0.267733, 0, 0
3, 2340.00000, 0.628485, 0.267733, 0.628485, 0.267733, 0.628485, 0.267733, 0, 0
3, 2400.00000, 0.628485, 0.267733, 0.628485, 0.267733, 0.628485, 0.267733, 0, 0
3, 2460.00000, 0.628485, 0.267733, 0.628485, 0.267733, 0.628485, 0.267733, 0, 0
3, 2520.00000, 0.628485, 0.267733, 0.628485, 0.267733, 0.628485, 0.267733, 0, 0
3, 2580.00000, 0.628485, 0.267733, 0.628485, 0.267733, 0.628485, 0.267733, 0, 0
3, 2640.00000, 0.628485, 0.267733, 0.628485, 0.267733, 0.628485, 0.267733, 0, 0
3, 2700.00000, 0.628485, 0.267733, 0.628485, 0.267733, 0.628485, 0.267733, 0, 0
3, 2760.00000, 0.575113, 0.245, 0.575113, 0.245002, 0.575114, 0.245003, 0, 0
3, 2820.00000, 0.575111, 0.244996, 0.575111, 0.244996, 0.575111, 0.244996, 0, 0
3, 2880.00000, 0.575111, 0.244996, 0.575111, 0.244996, 0.575111, 0.244996, 0, 0
3, 2940.00000, 0.575111, 0.244996, 0.575111, 0.244996, 0.575111, 0.244996, 0, 0
3, 3000.00000, 0.575111, 0.244996, 0.575111, 0.244996, 0.575111, 0.244996, 0, 0
3, 3060.00000, 0.575111, 0.244996, 0.575111, 0.244996, 0.575111, 0.244996, 0, 0
3, 3120.00000, 0.575116, 0.245006, 0.57511, 0.244995, 0.575113, 0.245002, 0, 0
3, 3180.00000, 0.575111, 0.244996, 0.575111, 0.244996, 0.575111, 0.244996, 0, 0
3, 3240.00000, 0.575111, 0.244996, 0.575111, 0.244996, 0.575111, 0.244996, 0, 0
3, 3300.00000, 0.575111, 0.244996, 0.575111, 0.244996, 0.575111, 0.244996, 0, 0
3, 3360.00000, 0.575111, 0.244996, 0.575111, 0.244996, 0.575111, 0.244996, 0, 0
3, 3420.00000, 0.575111, 0.244996, 0.575111, 0.244996, 0.575111, 0.244996, 0, 0
3, 3480.00000, 0.575111, 0.244996, 0.575111, 0.244996, 0.575111, 0.244996, 0, 0
3, 3540.00000, 0.575111, 0.244996, 0.575111, 0.244996, 0.575111, 0.244996, 0, 0
4, 0.00000, 0.575111, 0.244996, 0.575111, 0.244996, 0.575111, 0.244996, 0, 0
4, 60.00000, 0.615234, 0.262085, 0.615234, 0.262086, 0.615233, 0.262085, 0, 0
4, 120.00000, 0.615236, 0.262089, 0.615236, 0.262089, 0.615236, 0.262089, 0, 0
4, 180.00000, 0.615236, 0.262089, 0.615236, 0.262089, 0.615236, 0.262089, 0, 0
4, 240.00000, 0.615236, 0.262089, 0.615236, 0.262089, 0.615236, 0.262089, 0, 0
4, 300.00000, 0.615236, 0.262089, 0.615236, 0.262089, 0.615236, 0.262089, 0, 0
4, 360.00000, 0.615236, 0.262089, 0.615236, 0.262089, 0.615236, 0.262089, 0, 0
4, 420.00000, 0.615236, 0.262089, 0.615236, 0.262089, 0.615236, 0.262089, 0, 0
4, 480.00000, 0.615236, 0.262089, 0.615236, 0.262089, 0.615236, 0.262089, 0, 0
4, 540.00000, 0.615236, 0.262089, 0.615236, 0.262089, 0.615236, 0.262089, 0, 0
4, 600.00000, 0.615236, 0.262089, 0.615236, 0.262089, 0.615236, 0.262089, 0, 0
4, 660.00000, 0.615236, 0.262089, 0.615236, 0.262089, 0.615236, 0.262089, 0, 0
