hour,t(sec),V1,VAngle1,V2,VAngle2,V3,VAngle3,V4,VAngle4,I1,IAngle1,I2,IAngle2,I3,IAngle3,I4,IAngle4
0, 60.00000, 117.355, -31.7867, 117.313, -150.621, 119.823, 88.9108, 0, 0, 5.25693, -54.8602, 5.25482, -173.694, 5.37987, 65.8372, 0.0328861, -98.5196
0, 120.00000, 117.355, -31.7868, 117.312, -150.621, 119.823, 88.9108, 0, 0, 5.2569, -54.8607, 5.25478, -173.695, 5.37978, 65.8369, 0.0327995, -98.4961
0, 180.00000, 117.355, -31.7868, 117.312, -150.621, 119.823, 88.9108, 0, 0, 5.2569, -54.8607, 5.25478, -173.695, 5.37978, 65.8369, 0.0327991, -98.4961
0, 240.00000, 117.355, -31.7868, 117.312, -150.621, 119.823, 88.9108, 0, 0, 5.2569, -54.8607, 5.25478, -173.695, 5.37978, 65.8369, 0.0327991, -98.4961
0, 300.00000, 117.355, -31.7868, 117.312, -150.621, 119.823, 88.9108, 0, 0, 5.2569, -54.8607, 5.25478, -173.695, 5.37978, 65.8369, 0.0327991, -98.4961
0, 360.00000, 117.355, -31.7868, 117.312, -150.621, 119.823, 88.9108, 0, 0, 5.2569, -54.8607, 5.25478, -173.695, 5.37978, 65.8369, 0.0327991, -98.4961
0, 420.00000, 117.355, -31.7868, 117.312, -150.621, 119.823, 88.9108, 0, 0, 5.2569, -54.8607, 5.25478, -173.695, 5.37978, 65.8369, 0.0327991, -98.4961
0, 480.00000, 118.385, -31.691, 118.283, -150.541, 120.859, 89.0168, 0, 0, 4.61816, -54.7659, 4.6137, -173.614, 4.70975, 65.9422, 0.0153479, -87.0345
0, 540.00000, 118.385, -31.6909, 118.283, -150.541, 120.86, 89.0169, 0, 0, 4.61813, -54.7648, 4.61372, -173.615, 4.70941, 65.943, 0.0152181, -86.3292
0, 600.00000, 118.385, -31.6909, 118.283, -150.541, 120.86, 89.0169, 0, 0, 4.61813, -54.7648, 4.61372, -173.615, 4.7094, 65.943, 0.0152167, -86.3183
0, 660.00000, 118.385, -31.6909, 118.283, -150.541, 120.86, 89.0169, 0, 0, 4.61813, -54.7648, 4.61372, -173.615, 4.7094, 65.943, 0.0152167, -86.3181
0, 720.00000, 118.385, -31.6909, 118.283, -150.541, 120.86, 89.0169, 0, 0, 4.61813, -54.7648, 4.61372, -173.615, 4.7094, 65.943, 0.0152167, -86.3181
0, 780.00000, 118.385, -31.6909, 118.283, -150.541, 120.86, 89.0169, 0, 0, 4.61813, -54.7648, 4.61372, -173.615, 4.7094, 65.943, 0.0152167, -86.3181
0, 840.00000, 118.385, -31.6909, 118.283, -150.541, 120.86, 89.0169, 0, 0, 4.61813, -54.7648, 4.61372, -173.615, 4.7094, 65.943, 0.0152167, -86.3181
0, 900.00000, 118.385, -31.6909, 118.283, -150.541, 120.86, 89.0169, 0, 0, 4.61813, -54.7648, 4.61372, -173.615, 4.7094, 65.943, 0.0152167, -86.3181
0, 960.00000, 118.385, -31.6909, 118.283, -150.541, 120.86, 89.0169, 0, 0, 4.61813, -54.7648, 4.61372, -173.615, 4.7094, 65.943, 0.0152167, -86.3181
0, 1020.00000, 118.385, -31.6909, 118.283, -150.541, 120.86, 89.0169, 0, 0, 4.61813, -54.7648, 4.61372, -173.615, 4.7094, 65.943, 0.0152167, -86.3181
0, 1080.00000, 118.385, -31.6909, 118.283, -150.541, 120.86, 89.0169, 0, 0, 4.61813, -54.7648, 4.61372, -173.615, 4.7094, 65.943, 0.0152167, -86.3181
0, 1140.00000, 118.385, -31.6909, 118.283, -150.541, 120.86, 89.0169, 0, 0, 4.61813, -54.7648, 4.61372, -173.615, 4.7094, 65.943, 0.0152167, -86.3181
0, 1200.00000, 118.385, -31.6909, 118.283, -150.541, 120.86, 89.0169, 0, 0, 4.61813, -54.7648, 4.61372, -173.615, 4.7094, 65.943, 0.0152167, -86.3181
0, 1260.00000, 118.385, -31.6909, 118.283, -150.541, 120.86, 89.0169, 0, 0, 4.61813, -54.7648, 4.61372, -173.615, 4.7094, 65.943, 0.0152167, -86.3181
0, 1320.00000, 118.385, -31.6909, 118.283, -150.541, 120.86, 89.0169, 0, 0, 4.61813, -54.7648, 4.61372, -173.615, 4.7094, 65.943, 0.0152167, -86.3181
0, 1380.00000, 118.385, -31.6909, 118.283, -150.541, 120.86, 89.0169, 0, 0, 4.61813, -54.7648, 4.61372, -173.615, 4.7094, 65.943, 0.0152167, -86.3181
0, 1440.00000, 118.385, -31.6909, 118.283, -150.541, 120.86, 89.0169, 0, 0, 4.61813, -54.7648, 4.61372, -173.615, 4.7094, 65.943, 0.0152167, -86.3181
0, 1500.00000, 118.385, -31.6909, 118.283, -150.541, 120.86, 89.0169, 0, 0, 4.61813, -54.7648, 4.61372, -173.615, 4.7094, 65.943, 0.0152167, -86.3181
0, 1560.00000, 118.385, -31.6909, 118.283, -150.541, 120.86, 89.0169, 0, 0, 4.61813, -54.7648, 4.61372, -173.615, 4.7094, 65.943, 0.0152167, -86.3181
0, 1620.00000, 118.385, -31.6909, 118.283, -150.541, 120.86, 89.0169, 0, 0, 4.61813, -54.7648, 4.61372, -173.615, 4.7094, 65.943, 0.0152167, -86.3181
0, 1680.00000, 118.385, -31.6909, 118.283, -150.541, 120.86, 89.0169, 0, 0, 4.61813, -54.7648, 4.61372, -173.615, 4.7094, 65.943, 0.0152167, -86.3181
0, 1740.00000, 118.385, -31.6909, 118.283, -150.541, 120.86, 89.0169, 0, 0, 4.61813, -54.7648, 4.61372, -173.615, 4.7094, 65.943, 0.0152167, -86.3181
0, 1800.00000, 118.385, -31.6909, 118.283, -150.541, 120.86, 89.0169, 0, 0, 4.61813, -54.7648, 4.61372, -173.615, 4.7094, 65.943, 0.0152167, -86.3181
0, 1860.00000, 118.385, -31.6909, 118.283, -150.541, 120.86, 89.0169, 0, 0, 4.61813, -54.7648, 4.61372, -173.615, 4.7094, 65.943, 0.0152167, -86.3181
0, 1920.00000, 118.385, -31.6909, 118.283, -150.541, 120.86, 89.0169, 0, 0, 4.61813, -54.7648, 4.61372, -173.615, 4.7094, 65.943, 0.0152167, -86.3181
0, 1980.00000, 118.385, -31.6909, 118.283, -150.541, 120.86, 89.0169, 0, 0, 4.61813, -54.7648, 4.61372, -173.615, 4.7094, 65.943, 0.0152167, -86.3181
0, 2040.00000, 118.385, -31.6909, 118.283, -150.541, 120.86, 89.0169, 0, 0, 4.61813, -54.7648, 4.61372, -173.615, 4.7094, 65.943, 0.0152167, -86.3181
0, 2100.00000, 118.385, -31.6909, 118.283, -150.541, 120.86, 89.0169, 0, 0, 4.61813, -54.7648, 4.61372, -173.615, 4.7094, 65.943, 0.0152167, -86.3181
0, 2160.00000, 118.385, -31.6909, 118.283, -150.541, 120.86, 89.0169, 0, 0, 4.61813, -54.7648, 4.61372, -173.615, 4.7094, 65.943, 0.0152167, -86.3181
0, 2220.00000, 118.385, -31.6909, 118.283, -150.541, 120.86, 89.0169, 0, 0, 4.61813, -54.7648, 4.61372, -173.615, 4.7094, 65.943, 0.0152167, -86.3181
0, 2280.00000, 118.385, -31.6909, 118.283, -150.541, 120.86, 89.0169, 0, 0, 4.61813, -54.7648, 4.61372, -173.615, 4.7094, 65.943, 0.0152167, -86.3181
0, 2340.00000, 118.385, -31.6909, 118.283, -150.541, 120.86, 89.0169, 0, 0, 4.61813, -54.7648, 4.61372, -173.615, 4.7094, 65.943, 0.0152167, -86.3181
0, 2400.00000, 118.385, -31.6909, 118.283, -150.541, 120.86, 89.0169, 0, 0, 4.61813, -54.7648, 4.61372, -173.615, 4.7094, 65.943, 0.0152167, -86.3181
0, 2460.00000, 118.385, -31.6909, 118.283, -150.541, 120.86, 89.0169, 0, 0, 4.61813, -54.7648, 4.61372, -173.615, 4.7094, 65.943, 0.0152167, -86.3181
0, 2520.00000, 118.385, -31.6909, 118.283, -150.541, 120.86, 89.0169, 0, 0, 4.61813, -54.7648, 4.61372, -173.615, 4.7094, 65.943, 0.0152167, -86.3181
0, 2580.00000, 118.385, -31.6909, 118.283, -150.541, 120.86, 89.0169, 0, 0, 4.61813, -54.7648, 4.61372, -173.615, 4.7094, 65.943, 0.0152167, -86.3181
0, 2640.00000, 118.385, -31.6909, 118.283, -150.541, 120.86, 89.0169, 0, 0, 4.61813, -54.7648, 4.61372, -173.615, 4.7094, 65.943, 0.0152167, -86.3181
0, 2700.00000, 118.385, -31.6909, 118.283, -150.541, 120.86, 89.0169, 0, 0, 4.61813, -54.7648, 4.61372, -173.615, 4.7094, 65.943, 0.0152167, -86.3181
0, 2760.00000, 118.385, -31.6909, 118.283, -150.541, 120.86, 89.0169, 0, 0, 4.61813, -54.7648, 4.61372, -173.615, 4.7094, 65.943, 0.0152167, -86.3181
0, 2820.00000, 118.385, -31.6909, 118.283, -150.541, 120.86, 89.0169, 0, 0, 4.61813, -54.7648, 4.61372, -173.615, 4.7094, 65.943, 0.0152167, -86.3181
0, 2880.00000, 118.385, -31.6909, 118.283, -150.541, 120.86, 89.0169, 0, 0, 4.61813, -54.7648, 4.61372, -173.615, 4.7094, 65.943, 0.0152167, -86.3181
0, 2940.00000, 118.385, -31.6909, 118.283, -150.541, 120.86, 89.0169, 0, 0, 4.61813, -54.7648, 4.61372, -173.615, 4.7094, 65.943, 0.0152167, -86.3181
0, 3000.00000, 118.385, -31.6909, 118.283, -150.541, 120.86, 89.0169, 0, 0, 4.61813, -54.7648, 4.61372, -173.615, 4.7094, 65.943, 0.0152167, -86.3181
0, 3060.00000, 118.385, -31.6909, 118.283, -150.541, 120.86, 89.0169, 0, 0, 4.61813, -54.7648, 4.61372, -173.615, 4.7094, 65.943, 0.0152167, -86.3181
0, 3120.00000, 118.385, -31.6909, 118.283, -150.541, 120.86, 89.0169, 0, 0, 4.61813, -54.7648, 4.61372, -173.615, 4.7094, 65.943, 0.0152167, -86.3181
0, 3180.00000, 118.385, -31.6909, 118.283, -150.541, 120.86, 89.0169, 0, 0, 4.61813, -54.7648, 4.61372, -173.615, 4.7094, 65.943, 0.0152167, -86.3181
0, 3240.00000, 118.385, -31.6909, 118.283, -150.541, 120.86, 89.0169, 0, 0, 4.61813, -54.7648, 4.61372, -173.615, 4.7094, 65.943, 0.0152167, -86.3181
0, 3300.00000, 118.385, -31.6909, 118.283, -150.541, 120.86, 89.0169, 0, 0, 4.61813, -54.7648, 4.61372, -173.615, 4.7094, 65.943, 0.0152167, -86.3181
0, 3360.00000, 118.385, -31.6909, 118.283, -150.541, 120.86, 89.0169, 0, 0, 4.61813, -54.7648, 4.61372, -173.615, 4.7094, 65.943, 0.0152167, -86.3181
0, 3420.00000, 118.385, -31.6909, 118.283, -150.541, 120.86, 89.0169, 0, 0, 4.61813, -54.7648, 4.61372, -173.615, 4.7094, 65.943, 0.0152167, -86.3181
0, 3480.00000, 118.385, -31.6909, 118.283, -150.541, 120.86, 89.0169, 0, 0, 4.61813, -54.7648, 4.61372, -173.615, 4.7094, 65.943, 0.0152167, -86.3181
0, 3540.00000, 118.385, -31.6909, 118.283, -150.541, 120.86, 89.0169, 0, 0, 4.61813, -54.7648, 4.61372, -173.615, 4.7094, 65.943, 0.0152167, -86.3181
1, 0.00000, 118.385, -31.6909, 118.283, -150.541, 120.86, 89.0169, 0, 0, 4.61813, -54.7648, 4.61372, -173.615, 4.7094, 65.943, 0.0152167, -86.3181
1, 60.00000, 118.468, -31.561, 118.565, -150.509, 120.86, 89.0176, 0, 0, 4.62173, -54.6351, 4.62591, -173.583, 4.70942, 65.9437, 0.0145884, -81.1831
1, 120.00000, 118.468, -31.561, 118.565, -150.509, 120.86, 89.0176, 0, 0, 4.62174, -54.6349, 4.62595, -173.582, 4.70943, 65.9437, 0.0145659, -81.1169
1, 180.00000, 118.468, -31.561, 118.565, -150.509, 120.86, 89.0176, 0, 0, 4.62174, -54.6349, 4.62595, -173.582, 4.70943, 65.9437, 0.0145658, -81.1174
1, 240.00000, 118.468, -31.561, 118.565, -150.509, 120.86, 89.0176, 0, 0, 4.62174, -54.6349, 4.62595, -173.582, 4.70943, 65.9437, 0.0145658, -81.1175
1, 300.00000, 118.468, -31.561, 118.565, -150.509, 120.86, 89.0176, 0, 0, 4.62174, -54.6349, 4.62595, -173.582, 4.70943, 65.9437, 0.0145658, -81.1175
1, 360.00000, 118.468, -31.561, 118.565, -150.509, 120.86, 89.0176, 0, 0, 4.62174, -54.6349, 4.62595, -173.582, 4.70943, 65.9437, 0.0145658, -81.1175
1, 420.00000, 118.468, -31.561, 118.565, -150.509, 120.86, 89.0176, 0, 0, 4.62174, -54.6349, 4.62595, -173.582, 4.70943, 65.9437, 0.0145658, -81.1175
1, 480.00000, 118.468, -31.561, 118.565, -150.509, 120.86, 89.0176, 0, 0, 4.62174, -54.6349, 4.62595, -173.582, 4.70943, 65.9437, 0.0145658, -81.1175
1, 540.00000, 118.468, -31.561, 118.565, -150.509, 120.86, 89.0176, 0, 0, 4.62174, -54.6349, 4.62595, -173.582, 4.70943, 65.9437, 0.0145658, -81.1175
1, 600.00000, 118.468, -31.561, 118.565, -150.509, 120.86, 89.0176, 0, 0, 4.62174, -54.6349, 4.62595, -173.582, 4.70943, 65.9437, 0.0145658, -81.1175
1, 660.00000, 118.468, -31.561, 118.565, -150.509, 120.86, 89.0176, 0, 0, 4.62174, -54.6349, 4.62595, -173.582, 4.70943, 65.9437, 0.0145658, -81.1175
1, 720.00000, 118.468, -31.561, 118.565, -150.509, 120.86, 89.0176, 0, 0, 4.62174, -54.6349, 4.62595, -173.582, 4.70943, 65.9437, 0.0145658, -81.1175
1, 780.00000, 118.468, -31.561, 118.565, -150.509, 120.86, 89.0176, 0, 0, 4.62174, -54.6349, 4.62595, -173.582, 4.70943, 65.9437, 0.0145658, -81.1175
1, 840.00000, 118.468, -31.561, 118.565, -150.509, 120.86, 89.0176, 0, 0, 4.62174, -54.6349, 4.62595, -173.582, 4.70943, 65.9437, 0.0145658, -81.1175
1, 900.00000, 118.468, -31.561, 118.565, -150.509, 120.86, 89.0176, 0, 0, 4.62174, -54.6349, 4.62595, -173.582, 4.70943, 65.9437, 0.0145658, -81.1175
1, 960.00000, 118.468, -31.561, 118.565, -150.509, 120.86, 89.0176, 0, 0, 4.62174, -54.6349, 4.62595, -173.582, 4.70943, 65.9437, 0.0145658, -81.1175
1, 1020.00000, 118.468, -31.561, 118.565, -150.509, 120.86, 89.0176, 0, 0, 4.62174, -54.6349, 4.62595, -173.582, 4.70943, 65.9437, 0.0145658, -81.1175
1, 1080.00000, 118.468, -31.561, 118.565, -150.509, 120.86, 89.0176, 0, 0, 4.62174, -54.6349, 4.62595, -173.582, 4.70943, 65.9437, 0.0145658, -81.1175
1, 1140.00000, 118.468, -31.561, 118.565, -150.509, 120.86, 89.0176, 0, 0, 4.62174, -54.6349, 4.62595, -173.582, 4.70943, 65.9437, 0.0145658, -81.1175
1, 1200.00000, 118.468, -31.561, 118.565, -150.509, 120.86, 89.0176, 0, 0, 4.62174, -54.6349, 4.62595, -173.582, 4.70943, 65.9437, 0.0145658, -81.1175
1, 1260.00000, 118.468, -31.561, 118.565, -150.509, 120.86, 89.0176, 0, 0, 4.62174, -54.6349, 4.62595, -173.582, 4.70943, 65.9437, 0.0145658, -81.1175
1, 1320.00000, 118.468, -31.561, 118.565, -150.509, 120.86, 89.0176, 0, 0, 4.62174, -54.6349, 4.62595, -173.582, 4.70943, 65.9437, 0.0145658, -81.1175
1, 1380.00000, 118.468, -31.561, 118.565, -150.509, 120.86, 89.0176, 0, 0, 4.62174, -54.6349, 4.62595, -173.582, 4.70943, 65.9437, 0.0145658, -81.1175
1, 1440.00000, 118.468, -31.561, 118.565, -150.509, 120.86, 89.0176, 0, 0, 4.62174, -54.6349, 4.62595, -173.582, 4.70943, 65.9437, 0.0145658, -81.1175
1, 1500.00000, 118.468, -31.561, 118.565, -150.509, 120.86, 89.0176, 0, 0, 4.62174, -54.6349, 4.62595, -173.582, 4.70943, 65.9437, 0.0145658, -81.1175
1, 1560.00000, 118.468, -31.561, 118.565, -150.509, 120.86, 89.0176, 0, 0, 4.62174, -54.6349, 4.62595, -173.582, 4.70943, 65.9437, 0.0145658, -81.1175
1, 1620.00000, 118.468, -31.561, 118.565, -150.509, 120.86, 89.0176, 0, 0, 4.62174, -54.6349, 4.62595, -173.582, 4.70943, 65.9437, 0.0145658, -81.1175
1, 1680.00000, 118.468, -31.561, 118.565, -150.509, 120.86, 89.0176, 0, 0, 4.62174, -54.6349, 4.62595, -173.582, 4.70943, 65.9437, 0.0145658, -81.1175
1, 1740.00000, 118.468, -31.561, 118.565, -150.509, 120.86, 89.0176, 0, 0, 4.62174, -54.6349, 4.62595, -173.582, 4.70943, 65.9437, 0.0145658, -81.1175
1, 1800.00000, 118.468, -31.561, 118.565, -150.509, 120.86, 89.0176, 0, 0, 4.62174, -54.6349, 4.62595, -173.582, 4.70943, 65.9437, 0.0145658, -81.1175
1, 1860.00000, 118.468, -31.561, 118.565, -150.509, 120.86, 89.0176, 0, 0, 4.62174, -54.6349, 4.62595, -173.582, 4.70943, 65.9437, 0.0145658, -81.1175
1, 1920.00000, 118.468, -31.561, 118.565, -150.509, 120.86, 89.0176, 0, 0, 4.62174, -54.6349, 4.62595, -173.582, 4.70943, 65.9437, 0.0145658, -81.1175
1, 1980.00000, 118.468, -31.561, 118.565, -150.509, 120.86, 89.0176, 0, 0, 4.62174, -54.6349, 4.62595, -173.582, 4.70943, 65.9437, 0.0145658, -81.1175
1, 2040.00000, 118.468, -31.561, 118.565, -150.509, 120.86, 89.0176, 0, 0, 4.62174, -54.6349, 4.62595, -173.582, 4.70943, 65.9437, 0.0145658, -81.1175
1, 2100.00000, 118.468, -31.561, 118.565, -150.509, 120.86, 89.0176, 0, 0, 4.62174, -54.6349, 4.62595, -173.582, 4.70943, 65.9437, 0.0145658, -81.1175
1, 2160.00000, 118.468, -31.561, 118.565, -150.509, 120.86, 89.0176, 0, 0, 4.62174, -54.6349, 4.62595, -173.582, 4.70943, 65.9437, 0.0145658, -81.1175
1, 2220.00000, 118.468, -31.561, 118.565, -150.509, 120.86, 89.0176, 0, 0, 4.62174, -54.6349, 4.62595, -173.582, 4.70943, 65.9437, 0.0145658, -81.1175
1, 2280.00000, 118.468, -31.561, 118.565, -150.509, 120.86, 89.0176, 0, 0, 4.62174, -54.6349, 4.62595, -173.582, 4.70943, 65.9437, 0.0145658, -81.1175
1, 2340.00000, 118.468, -31.561, 118.565, -150.509, 120.86, 89.0176, 0, 0, 4.62174, -54.6349, 4.62595, -173.582, 4.70943, 65.9437, 0.0145658, -81.1175
1, 2400.00000, 118.468, -31.561, 118.565, -150.509, 120.86, 89.0176, 0, 0, 4.62174, -54.6349, 4.62595, -173.582, 4.70943, 65.9437, 0.0145658, -81.1175
1, 2460.00000, 118.468, -31.561, 118.565, -150.509, 120.86, 89.0176, 0, 0, 4.62174, -54.6349, 4.62595, -173.582, 4.70943, 65.9437, 0.0145658, -81.1175
1, 2520.00000, 118.468, -31.561, 118.565, -150.509, 120.86, 89.0176, 0, 0, 4.62174, -54.6349, 4.62595, -173.582, 4.70943, 65.9437, 0.0145658, -81.1175
1, 2580.00000, 118.468, -31.561, 118.565, -150.509, 120.86, 89.0176, 0, 0, 4.62174, -54.6349, 4.62595, -173.582, 4.70943, 65.9437, 0.0145658, -81.1175
1, 2640.00000, 118.468, -31.561, 118.565, -150.509, 120.86, 89.0176, 0, 0, 4.62174, -54.6349, 4.62595, -173.582, 4.70943, 65.9437, 0.0145658, -81.1175
1, 2700.00000, 118.468, -31.561, 118.565, -150.509, 120.86, 89.0176, 0, 0, 4.62174, -54.6349, 4.62595, -173.582, 4.70943, 65.9437, 0.0145658, -81.1175
1, 2760.00000, 118.468, -31.561, 118.565, -150.509, 120.86, 89.0176, 0, 0, 4.62174, -54.6349, 4.62595, -173.582, 4.70943, 65.9437, 0.0145658, -81.1175
1, 2820.00000, 118.468, -31.561, 118.565, -150.509, 120.86, 89.0176, 0, 0, 4.62174, -54.6349, 4.62595, -173.582, 4.70943, 65.9437, 0.0145658, -81.1175
1, 2880.00000, 118.468, -31.561, 118.565, -150.509, 120.86, 89.0176, 0, 0, 4.62174, -54.6349, 4.62595, -173.582, 4.70943, 65.9437, 0.0145658, -81.1175
1, 2940.00000, 118.468, -31.561, 118.565, -150.509, 120.86, 89.0176, 0, 0, 4.62174, -54.6349, 4.62595, -173.582, 4.70943, 65.9437, 0.0145658, -81.1175
1, 3000.00000, 118.468, -31.561, 118.565, -150.509, 120.86, 89.0176, 0, 0, 4.62174, -54.6349, 4.62595, -173.582, 4.70943, 65.9437, 0.0145658, -81.1175
1, 3060.00000, 118.468, -31.561, 118.565, -150.509, 120.86, 89.0176, 0, 0, 4.62174, -54.6349, 4.62595, -173.582, 4.70943, 65.9437, 0.0145658, -81.1175
1, 3120.00000, 118.468, -31.561, 118.565, -150.509, 120.86, 89.0176, 0, 0, 4.62174, -54.6349, 4.62595, -173.582, 4.70943, 65.9437, 0.0145658, -81.1175
1, 3180.00000, 118.468, -31.561, 118.565, -150.509, 120.86, 89.0176, 0, 0, 4.62174, -54.6349, 4.62595, -173.582, 4.70943, 65.9437, 0.0145658, -81.1175
1, 3240.00000, 118.468, -31.561, 118.565, -150.509, 120.86, 89.0176, 0, 0, 4.62174, -54.6349, 4.62595, -173.582, 4.70943, 65.9437, 0.0145658, -81.1175
1, 3300.00000, 118.468, -31.561, 118.565, -150.509, 120.86, 89.0176, 0, 0, 4.62174, -54.6349, 4.62595, -173.582, 4.70943, 65.9437, 0.0145658, -81.1175
1, 3360.00000, 118.468, -31.561, 118.565, -150.509, 120.86, 89.0176, 0, 0, 4.62174, -54.6349, 4.62595, -173.582, 4.70943, 65.9437, 0.0145658, -81.1175
1, 3420.00000, 118.468, -31.561, 118.565, -150.509, 120.86, 89.0176, 0, 0, 4.62174, -54.6349, 4.62595, -173.582, 4.70943, 65.9437, 0.0145658, -81.1175
1, 3480.00000, 118.468, -31.561, 118.565, -150.509, 120.86, 89.0176, 0, 0, 4.62174, -54.6349, 4.62595, -173.582, 4.70943, 65.9437, 0.0145658, -81.1175
1, 3540.00000, 118.468, -31.561, 118.565, -150.509, 120.86, 89.0176, 0, 0, 4.62174, -54.6349, 4.62595, -173.582, 4.70943, 65.9437, 0.0145658, -81.1175
2, 0.00000, 118.468, -31.561, 118.565, -150.509, 120.86, 89.0176, 0, 0, 4.62174, -54.6349, 4.62595, -173.582, 4.70943, 65.9437, 0.0145658, -81.1175
2, 60.00000, 118.468, -31.561, 118.565, -150.509, 120.86, 89.0176, 0, 0, 4.62174, -54.6349, 4.62595, -173.582, 4.70943, 65.9437, 0.0145658, -81.1175
2, 120.00000, 118.468, -31.561, 118.565, -150.509, 120.86, 89.0176, 0, 0, 4.62174, -54.6349, 4.62595, -173.582, 4.70943, 65.9437, 0.0145658, -81.1175
2, 180.00000, 118.468, -31.561, 118.565, -150.509, 120.86, 89.0176, 0, 0, 4.62174, -54.6349, 4.62595, -173.582, 4.70943, 65.9437, 0.0145658, -81.1175
2, 240.00000, 118.468, -31.561, 118.565, -150.509, 120.86, 89.0176, 0, 0, 4.62174, -54.6349, 4.62595, -173.582, 4.70943, 65.9437, 0.0145658, -81.1175
2, 300.00000, 118.468, -31.561, 118.565, -150.509, 120.86, 89.0176, 0, 0, 4.62174, -54.6349, 4.62595, -173.582, 4.70943, 65.9437, 0.0145658, -81.1175
2, 360.00000, 118.468, -31.561, 118.565, -150.509, 120.86, 89.0176, 0, 0, 4.62174, -54.6349, 4.62595, -173.582, 4.70943, 65.9437, 0.0145658, -81.1175
2, 420.00000, 118.468, -31.561, 118.565, -150.509, 120.86, 89.0176, 0, 0, 4.62174, -54.6349, 4.62595, -173.582, 4.70943, 65.9437, 0.0145658, -81.1175
2, 480.00000, 118.468, -31.561, 118.565, -150.509, 120.86, 89.0176, 0, 0, 4.62174, -54.6349, 4.62595, -173.582, 4.70943, 65.9437, 0.0145658, -81.1175
2, 540.00000, 118.468, -31.561, 118.565, -150.509, 120.86, 89.0176, 0, 0, 4.62174, -54.6349, 4.62595, -173.582, 4.70943, 65.9437, 0.0145658, -81.1175
2, 600.00000, 118.468, -31.561, 118.565, -150.509, 120.86, 89.0176, 0, 0, 4.62174, -54.6349, 4.62595, -173.582, 4.70943, 65.9437, 0.0145658, -81.1175
2, 660.00000, 118.468, -31.561, 118.565, -150.509, 120.86, 89.0176, 0, 0, 4.62174, -54.6349, 4.62595, -173.582, 4.70943, 65.9437, 0.0145658, -81.1175
2, 720.00000, 118.468, -31.561, 118.565, -150.509, 120.86, 89.0176, 0, 0, 4.62174, -54.6349, 4.62595, -173.582, 4.70943, 65.9437, 0.0145658, -81.1175
