hour,t(sec),V1,VAngle1,V2,VAngle2,V3,VAngle3,V4,VAngle4,I1,IAngle1,I2,IAngle2,I3,IAngle3,I4,IAngle4
0, 60.00000, 115.293, -33.5582, 115.341, -150.823, 121.147, 87.7725, 0, 0, 6.03329, -56.6322, 6.03588, -173.896, 6.32142, 64.6996, 0.0390088, -117.924
0, 120.00000, 115.288, -33.5811, 115.341, -150.823, 121.194, 87.7594, 0, 0, 6.03301, -56.6551, 6.03587, -173.896, 6.31897, 64.6864, 0.0347195, -118.142
0, 180.00000, 115.284, -33.6017, 115.341, -150.824, 121.235, 87.7475, 0, 0, 6.03275, -56.6757, 6.03586, -173.897, 6.31678, 64.6745, 0.030866, -118.391
0, 240.00000, 115.281, -33.6203, 115.341, -150.824, 121.272, 87.7369, 0, 0, 6.03252, -56.6942, 6.03585, -173.897, 6.3148, 64.6637, 0.0274008, -118.671
0, 300.00000, 115.278, -33.637, 115.341, -150.825, 121.306, 87.7272, 0, 0, 6.03231, -56.7109, 6.03584, -173.898, 6.31303, 64.6541, 0.0242847, -118.988
0, 360.00000, 115.275, -33.652, 115.341, -150.825, 121.336, 87.7186, 0, 0, 6.03213, -56.726, 6.03583, -173.898, 6.31143, 64.6453, 0.0214825, -119.35
0, 420.00000, 115.272, -33.6656, 115.34, -150.825, 121.363, 87.7108, 0, 0, 6.03195, -56.7395, 6.03583, -173.899, 6.30999, 64.6374, 0.0189626, -119.763
0, 480.00000, 116.366, -33.5996, 116.407, -150.764, 122.663, 87.8086, 0, 0, 5.30332, -56.6735, 5.30526, -173.838, 5.43157, 64.7352, 0.0984048, 64.2785
0, 540.00000, 116.364, -33.6106, 116.407, -150.765, 122.685, 87.8022, 0, 0, 5.3032, -56.6845, 5.30526, -173.838, 5.43055, 64.7288, 0.100204, 64.2627
0, 600.00000, 116.362, -33.6206, 116.407, -150.765, 122.705, 87.7965, 0, 0, 5.30309, -56.6944, 5.30526, -173.839, 5.42965, 64.723, 0.101818, 64.25
0, 660.00000, 116.361, -33.6295, 116.407, -150.765, 122.724, 87.7913, 0, 0, 5.30299, -56.7034, 5.30525, -173.839, 5.42883, 64.7178, 0.103271, 64.2388
0, 720.00000, 116.359, -33.6375, 116.406, -150.765, 122.74, 87.7867, 0, 0, 5.3029, -56.7114, 5.30525, -173.839, 5.42809, 64.7132, 0.104578, 64.2288
0, 780.00000, 116.358, -33.6448, 116.406, -150.766, 122.755, 87.7825, 0, 0, 5.30282, -56.7187, 5.30525, -173.839, 5.42743, 64.709, 0.105754, 64.2198
0, 840.00000, 116.356, -33.6513, 116.406, -150.766, 122.768, 87.7788, 0, 0, 5.30275, -56.7252, 5.30525, -173.839, 5.42683, 64.7052, 0.106812, 64.2119
0, 900.00000, 116.355, -33.6572, 116.406, -150.766, 122.78, 87.7754, 0, 0, 5.30269, -56.7311, 5.30524, -173.84, 5.4263, 64.7018, 0.107764, 64.2048
0, 960.00000, 115.003, -33.3374, 116.404, -150.75, 121.291, 87.3697, 0, 0, 5.23412, -56.4114, 5.30514, -173.824, 5.49288, 64.296, 0.0187311, -101.36
0, 1020.00000, 115.002, -33.3421, 116.404, -150.75, 121.301, 87.367, 0, 0, 5.23406, -56.4161, 5.30514, -173.824, 5.49245, 64.2932, 0.0180021, -100.732
0, 1080.00000, 115.001, -33.3463, 116.404, -150.75, 121.309, 87.3645, 0, 0, 5.23401, -56.4203, 5.30513, -173.824, 5.49206, 64.2908, 0.017346, -100.114
0, 1140.00000, 115, -33.3501, 116.404, -150.75, 121.317, 87.3624, 0, 0, 5.23396, -56.4241, 5.30513, -173.824, 5.49171, 64.2886, 0.0167575, -99.5165
0, 1200.00000, 114.999, -33.3535, 116.404, -150.75, 121.324, 87.3604, 0, 0, 5.23392, -56.4275, 5.30513, -173.824, 5.49139, 64.2866, 0.0162296, -98.9415
0, 1260.00000, 114.999, -33.3566, 116.404, -150.75, 121.33, 87.3586, 0, 0, 5.23388, -56.4305, 5.30513, -173.824, 5.49111, 64.2849, 0.0157561, -98.391
0, 1320.00000, 114.998, -33.3593, 116.404, -150.75, 121.335, 87.357, 0, 0, 5.23385, -56.4333, 5.30513, -173.824, 5.49085, 64.2832, 0.0153312, -97.8664
0, 1380.00000, 114.998, -33.3618, 116.404, -150.75, 121.34, 87.3556, 0, 0, 5.23382, -56.4358, 5.30513, -173.824, 5.49062, 64.2818, 0.0149501, -97.3688
0, 1440.00000, 114.997, -33.3641, 116.404, -150.75, 121.345, 87.3543, 0, 0, 5.23379, -56.438, 5.30513, -173.824, 5.49042, 64.2805, 0.0146081, -96.8988
0, 1500.00000, 114.997, -33.3661, 116.404, -150.75, 121.349, 87.3532, 0, 0, 5.23377, -56.44, 5.30513, -173.824, 5.49023, 64.2793, 0.0143012, -96.4566
0, 1560.00000, 114.996, -33.3679, 116.404, -150.75, 121.353, 87.3521, 0, 0, 5.23374, -56.4418, 5.30513, -173.824, 5.49006, 64.2783, 0.0140258, -96.042
0, 1620.00000, 114.996, -33.3695, 116.404, -150.751, 121.356, 87.3512, 0, 0, 5.23372, -56.4435, 5.30513, -173.824, 5.48991, 64.2773, 0.0137786, -95.6547
0, 1680.00000, 114.995, -33.371, 116.404, -150.751, 121.359, 87.3503, 0, 0, 5.23371, -56.4449, 5.30513, -173.824, 5.48978, 64.2765, 0.0135567, -95.2941
0, 1740.00000, 114.995, -33.3723, 116.404, -150.751, 121.362, 87.3496, 0, 0, 5.23369, -56.4462, 5.30513, -173.824, 5.48965, 64.2757, 0.0133575, -94.9593
0, 1800.00000, 114.995, -33.3735, 116.404, -150.751, 121.364, 87.3489, 0, 0, 5.23368, -56.4474, 5.30513, -173.825, 5.48954, 64.275, 0.0131786, -94.6493
0, 1860.00000, 114.995, -33.3746, 116.404, -150.751, 121.366, 87.3483, 0, 0, 5.23366, -56.4485, 5.30513, -173.825, 5.48944, 64.2744, 0.0130179, -94.363
0, 1920.00000, 114.994, -33.3755, 116.404, -150.751, 121.368, 87.3477, 0, 0, 5.23365, -56.4494, 5.30513, -173.825, 5.48936, 64.2738, 0.0128736, -94.0993
0, 1980.00000, 114.994, -33.3764, 116.404, -150.751, 121.37, 87.3472, 0, 0, 5.23364, -56.4503, 5.30513, -173.825, 5.48927, 64.2733, 0.012744, -93.8568
0, 2040.00000, 114.994, -33.3772, 116.404, -150.751, 121.371, 87.3468, 0, 0, 5.23363, -56.4511, 5.30512, -173.825, 5.4892, 64.2729, 0.0126275, -93.6343
0, 2100.00000, 114.994, -33.3779, 116.404, -150.751, 121.373, 87.3464, 0, 0, 5.23362, -56.4518, 5.30512, -173.825, 5.48914, 64.2725, 0.0125228, -93.4305
0, 2160.00000, 114.994, -33.3785, 116.404, -150.751, 121.374, 87.346, 0, 0, 5.23361, -56.4524, 5.30512, -173.825, 5.48908, 64.2721, 0.0124288, -93.2441
0, 2220.00000, 114.994, -33.3791, 116.404, -150.751, 121.375, 87.3457, 0, 0, 5.23361, -56.453, 5.30512, -173.825, 5.48903, 64.2718, 0.0123443, -93.074
0, 2280.00000, 114.994, -33.3796, 116.404, -150.751, 121.376, 87.3454, 0, 0, 5.2336, -56.4535, 5.30512, -173.825, 5.48898, 64.2715, 0.0122683, -92.9189
0, 2340.00000, 114.993, -33.38, 116.404, -150.751, 121.377, 87.3451, 0, 0, 5.23359, -56.454, 5.30512, -173.825, 5.48894, 64.2712, 0.0122, -92.7776
0, 2400.00000, 114.993, -33.3805, 116.404, -150.751, 121.378, 87.3449, 0, 0, 5.23359, -56.4544, 5.30512, -173.825, 5.4889, 64.271, 0.0121386, -92.6491
0, 2460.00000, 114.993, -33.3808, 116.404, -150.751, 121.379, 87.3447, 0, 0, 5.23358, -56.4548, 5.30512, -173.825, 5.48886, 64.2708, 0.0120834, -92.5324
0, 2520.00000, 114.993, -33.3812, 116.404, -150.751, 121.38, 87.3445, 0, 0, 5.23358, -56.4551, 5.30512, -173.825, 5.48883, 64.2706, 0.0120338, -92.4264
0, 2580.00000, 114.993, -33.3815, 116.404, -150.751, 121.38, 87.3443, 0, 0, 5.23358, -56.4554, 5.30512, -173.825, 5.48881, 64.2704, 0.0119891, -92.3302
0, 2640.00000, 114.993, -33.3817, 116.404, -150.751, 121.381, 87.3441, 0, 0, 5.23357, -56.4557, 5.30512, -173.825, 5.48878, 64.2702, 0.011949, -92.2431
0, 2700.00000, 114.993, -33.382, 116.404, -150.751, 121.381, 87.344, 0, 0, 5.23357, -56.4559, 5.30512, -173.825, 5.48876, 64.2701, 0.0119128, -92.1641
0, 2760.00000, 114.993, -33.3823, 116.592, -150.6, 121.849, 87.3578, 0, 0, 5.23358, -56.4562, 5.31468, -173.674, 5.4677, 64.2839, 0.0279287, 50.2413
0, 2820.00000, 114.993, -33.3825, 116.592, -150.6, 121.849, 87.3577, 0, 0, 5.23358, -56.4564, 5.31468, -173.674, 5.46768, 64.2837, 0.0279616, 50.2548
0, 2880.00000, 114.993, -33.3826, 116.592, -150.6, 121.849, 87.3576, 0, 0, 5.23358, -56.4566, 5.31468, -173.674, 5.46767, 64.2836, 0.0279896, 50.268
0, 2940.00000, 114.993, -33.3828, 116.592, -150.6, 121.85, 87.3575, 0, 0, 5.23357, -56.4567, 5.31468, -173.674, 5.46765, 64.2835, 0.0280149, 50.2799
0, 3000.00000, 114.993, -33.3829, 116.592, -150.6, 121.85, 87.3574, 0, 0, 5.23357, -56.4569, 5.31468, -173.674, 5.46764, 64.2835, 0.0280376, 50.2905
0, 3060.00000, 114.993, -33.3831, 116.592, -150.6, 121.85, 87.3573, 0, 0, 5.23357, -56.457, 5.31468, -173.674, 5.46763, 64.2834, 0.0280581, 50.3001
0, 3120.00000, 114.993, -33.3832, 116.592, -150.6, 121.851, 87.3572, 0, 0, 5.23357, -56.4571, 5.31468, -173.674, 5.46762, 64.2833, 0.0280765, 50.3087
0, 3180.00000, 114.993, -33.3833, 116.592, -150.6, 121.851, 87.3572, 0, 0, 5.23357, -56.4572, 5.31468, -173.674, 5.46761, 64.2833, 0.0280931, 50.3164
0, 3240.00000, 114.993, -33.3834, 116.592, -150.6, 121.851, 87.3571, 0, 0, 5.23357, -56.4573, 5.31468, -173.674, 5.4676, 64.2832, 0.028108, 50.3234
0, 3300.00000, 114.993, -33.3835, 116.592, -150.6, 121.851, 87.3571, 0, 0, 5.23357, -56.4574, 5.31468, -173.674, 5.46759, 64.2831, 0.0281214, 50.3297
0, 3360.00000, 114.993, -33.3835, 116.592, -150.6, 121.851, 87.357, 0, 0, 5.23356, -56.4575, 5.31468, -173.674, 5.46758, 64.2831, 0.0281335, 50.3353
0, 3420.00000, 114.993, -33.3836, 116.592, -150.6, 121.851, 87.357, 0, 0, 5.23356, -56.4575, 5.31468, -173.674, 5.46758, 64.2831, 0.0281444, 50.3403
0, 3480.00000, 114.993, -33.3837, 116.592, -150.6, 121.852, 87.3569, 0, 0, 5.23356, -56.4576, 5.31468, -173.674, 5.46757, 64.283, 0.0281542, 50.3449
0, 3540.00000, 114.993, -33.3837, 116.592, -150.6, 121.852, 87.3569, 0, 0, 5.23356, -56.4577, 5.31468, -173.674, 5.46756, 64.283, 0.028163, 50.349
1, 0.00000, 114.993, -33.3838, 116.592, -150.6, 121.852, 87.3569, 0, 0, 5.23356, -56.4577, 5.31468, -173.674, 5.46756, 64.283, 0.0281709, 50.3527
1, 60.00000, 115.108, -33.2417, 116.908, -150.577, 121.85, 87.3606, 0, 0, 5.23939, -56.3156, 5.33067, -173.651, 5.46765, 64.2867, 0.0303821, 49.1381
1, 120.00000, 115.108, -33.2417, 116.908, -150.577, 121.85, 87.3606, 0, 0, 5.23939, -56.3156, 5.33067, -173.651, 5.46764, 64.2867, 0.030389, 49.141
1, 180.00000, 115.108, -33.2417, 116.908, -150.577, 121.85, 87.3606, 0, 0, 5.23939, -56.3157, 5.33067, -173.651, 5.46764, 64.2867, 0.0303947, 49.1437
1, 240.00000, 115.108, -33.2418, 116.908, -150.577, 121.85, 87.3606, 0, 0, 5.23939, -56.3157, 5.33067, -173.651, 5.46764, 64.2866, 0.0303999, 49.1461
1, 300.00000, 115.108, -33.2418, 116.908, -150.577, 121.85, 87.3605, 0, 0, 5.23939, -56.3157, 5.33067, -173.651, 5.46763, 64.2866, 0.0304046, 49.1483
1, 360.00000, 115.108, -33.2418, 116.908, -150.577, 121.85, 87.3605, 0, 0, 5.23939, -56.3157, 5.33067, -173.651, 5.46763, 64.2866, 0.0304088, 49.1503
1, 420.00000, 115.108, -33.2418, 116.908, -150.577, 121.85, 87.3605, 0, 0, 5.23939, -56.3158, 5.33067, -173.651, 5.46763, 64.2866, 0.0304126, 49.1521
1, 480.00000, 115.108, -33.2419, 116.908, -150.577, 121.85, 87.3605, 0, 0, 5.23939, -56.3158, 5.33067, -173.651, 5.46763, 64.2866, 0.030416, 49.1537
1, 540.00000, 115.108, -33.2419, 116.908, -150.577, 121.85, 87.3605, 0, 0, 5.23939, -56.3158, 5.33067, -173.651, 5.46763, 64.2866, 0.030419, 49.1551
1, 600.00000, 115.108, -33.2419, 116.908, -150.577, 121.85, 87.3605, 0, 0, 5.23939, -56.3158, 5.33067, -173.651, 5.46762, 64.2866, 0.0304218, 49.1564
1, 660.00000, 115.108, -33.2419, 116.908, -150.577, 121.85, 87.3605, 0, 0, 5.23939, -56.3158, 5.33067, -173.651, 5.46762, 64.2866, 0.0304242, 49.1576
1, 720.00000, 115.108, -33.2419, 116.908, -150.577, 121.85, 87.3605, 0, 0, 5.23939, -56.3159, 5.33067, -173.651, 5.46762, 64.2866, 0.0304265, 49.1587
1, 780.00000, 115.108, -33.2419, 116.908, -150.577, 121.85, 87.3605, 0, 0, 5.23939, -56.3159, 5.33067, -173.651, 5.46762, 64.2865, 0.0304285, 49.1596
1, 840.00000, 115.108, -33.242, 116.908, -150.577, 121.85, 87.3605, 0, 0, 5.23939, -56.3159, 5.33067, -173.651, 5.46762, 64.2865, 0.0304303, 49.1605
1, 900.00000, 115.108, -33.242, 116.908, -150.577, 121.85, 87.3604, 0, 0, 5.23939, -56.3159, 5.33067, -173.651, 5.46762, 64.2865, 0.0304319, 49.1612
1, 960.00000, 115.108, -33.242, 116.908, -150.577, 121.85, 87.3604, 0, 0, 5.23939, -56.3159, 5.33067, -173.651, 5.46762, 64.2865, 0.0304334, 49.1619
1, 1020.00000, 115.108, -33.242, 116.908, -150.577, 121.85, 87.3604, 0, 0, 5.23939, -56.3159, 5.33067, -173.651, 5.46762, 64.2865, 0.0304347, 49.1625
1, 1080.00000, 115.108, -33.242, 116.908, -150.577, 121.85, 87.3604, 0, 0, 5.23939, -56.3159, 5.33067, -173.651, 5.46762, 64.2865, 0.0304359, 49.1631
1, 1140.00000, 115.108, -33.242, 116.908, -150.577, 121.85, 87.3604, 0, 0, 5.23939, -56.3159, 5.33067, -173.651, 5.46762, 64.2865, 0.0304369, 49.1636
1, 1200.00000, 115.108, -33.242, 116.908, -150.577, 121.85, 87.3604, 0, 0, 5.23939, -56.3159, 5.33067, -173.651, 5.46762, 64.2865, 0.0304379, 49.164
1, 1260.00000, 115.108, -33.242, 116.908, -150.577, 121.85, 87.3604, 0, 0, 5.23939, -56.3159, 5.33067, -173.651, 5.46761, 64.2865, 0.0304388, 49.1644
1, 1320.00000, 115.108, -33.242, 116.908, -150.577, 121.851, 87.3604, 0, 0, 5.23939, -56.3159, 5.33067, -173.651, 5.46761, 64.2865, 0.0304395, 49.1648
1, 1380.00000, 115.108, -33.242, 116.908, -150.577, 121.851, 87.3604, 0, 0, 5.23939, -56.3159, 5.33067, -173.651, 5.46761, 64.2865, 0.0304402, 49.1651
1, 1440.00000, 115.108, -33.242, 116.908, -150.577, 121.851, 87.3604, 0, 0, 5.23939, -56.3159, 5.33067, -173.651, 5.46761, 64.2865, 0.0304409, 49.1654
1, 1500.00000, 115.108, -33.242, 116.908, -150.577, 121.851, 87.3604, 0, 0, 5.23939, -56.3159, 5.33067, -173.651, 5.46761, 64.2865, 0.0304414, 49.1657
1, 1560.00000, 115.108, -33.242, 116.908, -150.577, 121.851, 87.3604, 0, 0, 5.23939, -56.316, 5.33067, -173.651, 5.46761, 64.2865, 0.030442, 49.1659
1, 1620.00000, 115.108, -33.242, 116.908, -150.577, 121.851, 87.3604, 0, 0, 5.23939, -56.316, 5.33067, -173.651, 5.46761, 64.2865, 0.0304424, 49.1662
1, 1680.00000, 115.108, -33.242, 116.908, -150.577, 121.851, 87.3604, 0, 0, 5.23939, -56.316, 5.33067, -173.651, 5.46761, 64.2865, 0.0304428, 49.1664
1, 1740.00000, 115.108, -33.242, 116.908, -150.577, 121.851, 87.3604, 0, 0, 5.23939, -56.316, 5.33067, -173.651, 5.46761, 64.2865, 0.0304432, 49.1665
1, 1800.00000, 115.108, -33.242, 116.908, -150.577, 121.851, 87.3604, 0, 0, 5.23939, -56.316, 5.33067, -173.651, 5.46761, 64.2865, 0.0304435, 49.1667
1, 1860.00000, 115.108, -33.242, 116.908, -150.577, 121.851, 87.3604, 0, 0, 5.23939, -56.316, 5.33067, -173.651, 5.46761, 64.2865, 0.0304438, 49.1668
1, 1920.00000, 115.108, -33.242, 116.908, -150.577, 121.851, 87.3604, 0, 0, 5.23939, -56.316, 5.33067, -173.651, 5.46761, 64.2865, 0.0304441, 49.167
1, 1980.00000, 115.108, -33.2421, 116.908, -150.577, 121.851, 87.3604, 0, 0, 5.23939, -56.316, 5.33067, -173.651, 5.46761, 64.2865, 0.0304443, 49.1671
1, 2040.00000, 115.108, -33.2421, 116.908, -150.577, 121.851, 87.3604, 0, 0, 5.23939, -56.316, 5.33067, -173.651, 5.46761, 64.2865, 0.0304446, 49.1672
1, 2100.00000, 115.108, -33.2421, 116.908, -150.577, 121.851, 87.3604, 0, 0, 5.23939, -56.316, 5.33067, -173.651, 5.46761, 64.2865, 0.0304448, 49.1673
1, 2160.00000, 115.108, -33.2421, 116.908, -150.577, 121.851, 87.3604, 0, 0, 5.23939, -56.316, 5.33067, -173.651, 5.46761, 64.2865, 0.0304449, 49.1674
1, 2220.00000, 115.108, -33.2421, 116.908, -150.577, 121.851, 87.3604, 0, 0, 5.23939, -56.316, 5.33067, -173.651, 5.46761, 64.2865, 0.0304451, 49.1674
1, 2280.00000, 115.108, -33.2421, 116.908, -150.577, 121.851, 87.3604, 0, 0, 5.23939, -56.316, 5.33067, -173.651, 5.46761, 64.2865, 0.0304452, 49.1675
1, 2340.00000, 115.108, -33.2421, 116.908, -150.577, 121.851, 87.3604, 0, 0, 5.23939, -56.316, 5.33067, -173.651, 5.46761, 64.2865, 0.0304454, 49.1676
1, 2400.00000, 115.108, -33.2421, 116.908, -150.577, 121.851, 87.3604, 0, 0, 5.23939, -56.316, 5.33067, -173.651, 5.46761, 64.2865, 0.0304455, 49.1676
1, 2460.00000, 115.108, -33.2421, 116.908, -150.577, 121.851, 87.3604, 0, 0, 5.23939, -56.316, 5.33067, -173.651, 5.46761, 64.2865, 0.0304456, 49.1677
1, 2520.00000, 115.108, -33.2421, 116.908, -150.577, 121.851, 87.3604, 0, 0, 5.23939, -56.316, 5.33067, -173.651, 5.46761, 64.2865, 0.0304457, 49.1677
1, 2580.00000, 115.108, -33.2421, 116.908, -150.577, 121.851, 87.3604, 0, 0, 5.23939, -56.316, 5.33067, -173.651, 5.46761, 64.2865, 0.0304458, 49.1678
1, 2640.00000, 115.108, -33.2421, 116.908, -150.577, 121.851, 87.3604, 0, 0, 5.23939, -56.316, 5.33067, -173.651, 5.46761, 64.2865, 0.0304459, 49.1678
1, 2700.00000, 115.108, -33.2421, 116.908, -150.577, 121.851, 87.3604, 0, 0, 5.23939, -56.316, 5.33067, -173.651, 5.46761, 64.2865, 0.0304459, 49.1678
1, 2760.00000, 115.108, -33.2421, 116.908, -150.577, 121.851, 87.3604, 0, 0, 5.23939, -56.316, 5.33067, -173.651, 5.46761, 64.2865, 0.030446, 49.1678
1, 2820.00000, 115.108, -33.2421, 116.908, -150.577, 121.851, 87.3604, 0, 0, 5.23939, -56.316, 5.33067, -173.651, 5.46761, 64.2865, 0.030446, 49.1679
1, 2880.00000, 115.108, -33.2421, 116.908, -150.577, 121.851, 87.3604, 0, 0, 5.23939, -56.316, 5.33067, -173.651, 5.46761, 64.2865, 0.0304461, 49.1679
1, 2940.00000, 115.108, -33.2421, 116.908, -150.577, 121.851, 87.3604, 0, 0, 5.23939, -56.316, 5.33067, -173.651, 5.46761, 64.2865, 0.0304461, 49.1679
1, 3000.00000, 115.108, -33.2421, 116.908, -150.577, 121.851, 87.3604, 0, 0, 5.23939, -56.316, 5.33067, -173.651, 5.46761, 64.2865, 0.0304462, 49.1679
1, 3060.00000, 115.108, -33.2421, 116.908, -150.577, 121.851, 87.3604, 0, 0, 5.23939, -56.316, 5.33067, -173.651, 5.46761, 64.2865, 0.0304462, 49.168
1, 3120.00000, 115.108, -33.2421, 116.908, -150.577, 121.851, 87.3604, 0, 0, 5.23939, -56.316, 5.33067, -173.651, 5.46761, 64.2865, 0.0304462, 49.168
1, 3180.00000, 115.108, -33.2421, 116.908, -150.577, 121.851, 87.3604, 0, 0, 5.23939, -56.316, 5.33067, -173.651, 5.46761, 64.2865, 0.0304463, 49.168
1, 3240.00000, 115.108, -33.2421, 116.908, -150.577, 121.851, 87.3604, 0, 0, 5.23939, -56.316, 5.33067, -173.651, 5.46761, 64.2865, 0.0304463, 49.168
1, 3300.00000, 115.108, -33.2421, 116.908, -150.577, 121.851, 87.3604, 0, 0, 5.23939, -56.316, 5.33067, -173.651, 5.46761, 64.2865, 0.0304463, 49.168
1, 3360.00000, 115.108, -33.2421, 116.908, -150.577, 121.851, 87.3604, 0, 0, 5.23939, -56.316, 5.33067, -173.651, 5.46761, 64.2865, 0.0304463, 49.168
1, 3420.00000, 115.108, -33.2421, 116.908, -150.577, 121.851, 87.3604, 0, 0, 5.23939, -56.316, 5.33067, -173.651, 5.46761, 64.2865, 0.0304464, 49.168
1, 3480.00000, 115.108, -33.2421, 116.908, -150.577, 121.851, 87.3604, 0, 0, 5.23939, -56.316, 5.33067, -173.651, 5.46761, 64.2865, 0.0304464, 49.168
1, 3540.00000, 115.108, -33.2421, 116.908, -150.577, 121.851, 87.3604, 0, 0, 5.23939, -56.316, 5.33067, -173.651, 5.46761, 64.2865, 0.0304464, 49.168
2, 0.00000, 115.108, -33.2421, 116.908, -150.577, 121.851, 87.3604, 0, 0, 5.23939, -56.316, 5.33067, -173.651, 5.46761, 64.2865, 0.0304464, 49.168
2, 60.00000, 115.108, -33.2421, 116.908, -150.577, 121.851, 87.3604, 0, 0, 5.23939, -56.316, 5.33067, -173.651, 5.46761, 64.2865, 0.0304464, 49.1681
2, 120.00000, 115.108, -33.2421, 116.908, -150.577, 121.851, 87.3604, 0, 0, 5.23939, -56.316, 5.33067, -173.651, 5.46761, 64.2865, 0.0304464, 49.1681
2, 180.00000, 115.108, -33.2421, 116.908, -150.577, 121.851, 87.3604, 0, 0, 5.23939, -56.316, 5.33067, -173.651, 5.46761, 64.2865, 0.0304464, 49.1681
2, 240.00000, 115.108, -33.2421, 116.908, -150.577, 121.851, 87.3604, 0, 0, 5.23939, -56.316, 5.33067, -173.651, 5.46761, 64.2865, 0.0304465, 49.1681
2, 300.00000, 115.108, -33.2421, 116.908, -150.577, 121.851, 87.3604, 0, 0, 5.23939, -56.316, 5.33067, -173.651, 5.46761, 64.2865, 0.0304465, 49.1681
2, 360.00000, 115.108, -33.2421, 116.908, -150.577, 121.851, 87.3604, 0, 0, 5.23939, -56.316, 5.33067, -173.651, 5.46761, 64.2865, 0.0304465, 49.1681
2, 420.00000, 115.108, -33.2421, 116.908, -150.577, 121.851, 87.3604, 0, 0, 5.23939, -56.316, 5.33067, -173.651, 5.46761, 64.2865, 0.0304465, 49.1681
2, 480.00000, 115.108, -33.2421, 116.908, -150.577, 121.851, 87.3604, 0, 0, 5.23939, -56.316, 5.33067, -173.651, 5.46761, 64.2865, 0.0304465, 49.1681
2, 540.00000, 115.108, -33.2421, 116.908, -150.577, 121.851, 87.3604, 0, 0, 5.23939, -56.316, 5.33067, -173.651, 5.46761, 64.2865, 0.0304465, 49.1681
2, 600.00000, 115.108, -33.2421, 116.908, -150.577, 121.851, 87.3604, 0, 0, 5.23939, -56.316, 5.33067, -173.651, 5.46761, 64.2865, 0.0304465, 49.1681
2, 660.00000, 115.108, -33.2421, 116.908, -150.577, 121.851, 87.3604, 0, 0, 5.23939, -56.316, 5.33067, -173.651, 5.46761, 64.2865, 0.0304465, 49.1681
2, 720.00000, 115.108, -33.2421, 116.908, -150.577, 121.851, 87.3604, 0, 0, 5.23939, -56.316, 5.33067, -173.651, 5.46761, 64.2865, 0.0304465, 49.1681
