hour,t(sec),V1,VAngle1,V2,VAngle2,V3,VAngle3,V4,VAngle4,I1,IAngle1,I2,IAngle2,I3,IAngle3,I4,IAngle4
0, 60.00000, 123.433, -32.0067, 123.011, -151.479, 124.749, 88.4539, 0, 0, 3.64191, -55.0806, 3.65442, -174.552, 3.6036, 65.3801, 0.077232, 47.7208
0, 120.00000, 123.44, -32.0135, 123.01, -151.479, 124.768, 88.4531, 0, 0, 3.64172, -55.0874, 3.65443, -174.553, 3.60304, 65.3792, 0.0781341, 47.6742
0, 180.00000, 123.445, -32.0197, 123.01, -151.479, 124.785, 88.4523, 0, 0, 3.64156, -55.0935, 3.65445, -174.553, 3.60253, 65.3784, 0.0789474, 47.6333
0, 240.00000, 123.45, -32.0252, 123.01, -151.479, 124.801, 88.4516, 0, 0, 3.64142, -55.099, 3.65446, -174.553, 3.60208, 65.3777, 0.0796833, 47.5969
0, 300.00000, 123.455, -32.0301, 123.009, -151.479, 124.815, 88.451, 0, 0, 3.64128, -55.104, 3.65446, -174.553, 3.60166, 65.3771, 0.0803482, 47.5647
0, 360.00000, 123.459, -32.0346, 123.009, -151.479, 124.828, 88.4504, 0, 0, 3.64117, -55.1085, 3.65447, -174.553, 3.60129, 65.3766, 0.080947, 47.5364
0, 420.00000, 123.462, -32.0387, 123.009, -151.479, 124.839, 88.4499, 0, 0, 3.64106, -55.1125, 3.65448, -174.553, 3.60095, 65.3761, 0.081486, 47.5117
0, 480.00000, 124.075, -31.921, 123.589, -151.354, 125.469, 88.5901, 0, 0, 3.1521, -54.9949, 3.1645, -174.428, 3.11712, 65.5162, 0.0720383, 46.5991
0, 540.00000, 124.078, -31.9244, 123.589, -151.354, 125.478, 88.5896, 0, 0, 3.15202, -54.9982, 3.1645, -174.428, 3.11688, 65.5158, 0.0724199, 46.5852
0, 600.00000, 124.08, -31.9273, 123.588, -151.354, 125.487, 88.5892, 0, 0, 3.15196, -55.0012, 3.16451, -174.428, 3.11667, 65.5154, 0.072762, 46.573
0, 660.00000, 124.083, -31.93, 123.588, -151.354, 125.494, 88.5889, 0, 0, 3.15189, -55.0039, 3.16451, -174.428, 3.11648, 65.515, 0.07307, 46.5623
0, 720.00000, 124.085, -31.9325, 123.588, -151.354, 125.501, 88.5886, 0, 0, 3.15184, -55.0063, 3.16451, -174.428, 3.11631, 65.5147, 0.0733473, 46.5528
0, 780.00000, 124.087, -31.9346, 123.588, -151.354, 125.507, 88.5883, 0, 0, 3.15179, -55.0085, 3.16452, -174.428, 3.11615, 65.5144, 0.0735968, 46.5444
0, 840.00000, 124.089, -31.9366, 123.588, -151.354, 125.513, 88.588, 0, 0, 3.15175, -55.0105, 3.16452, -174.428, 3.11602, 65.5141, 0.0738214, 46.537
0, 900.00000, 124.09, -31.9384, 123.588, -151.354, 125.517, 88.5878, 0, 0, 3.15171, -55.0122, 3.16452, -174.428, 3.11589, 65.5139, 0.0740236, 46.5304
0, 960.00000, 124.092, -31.94, 123.588, -151.354, 125.522, 88.5876, 0, 0, 3.15167, -55.0138, 3.16452, -174.428, 3.11578, 65.5137, 0.0742056, 46.5245
0, 1020.00000, 124.093, -31.9414, 123.588, -151.354, 125.526, 88.5874, 0, 0, 3.15164, -55.0153, 3.16453, -174.428, 3.11568, 65.5135, 0.0743693, 46.5193
0, 1080.00000, 124.094, -31.9427, 123.588, -151.354, 125.53, 88.5872, 0, 0, 3.15161, -55.0166, 3.16453, -174.428, 3.11559, 65.5133, 0.0745168, 46.5146
0, 1140.00000, 124.095, -31.9438, 123.587, -151.354, 125.533, 88.5871, 0, 0, 3.15159, -55.0177, 3.16453, -174.428, 3.11551, 65.5132, 0.0746495, 46.5105
0, 1200.00000, 124.096, -31.9449, 123.587, -151.354, 125.536, 88.5869, 0, 0, 3.15156, -55.0188, 3.16453, -174.428, 3.11543, 65.513, 0.0747689, 46.5068
0, 1260.00000, 124.097, -31.9458, 123.587, -151.354, 125.538, 88.5868, 0, 0, 3.15154, -55.0197, 3.16453, -174.428, 3.11537, 65.5129, 0.0748764, 46.5035
0, 1320.00000, 124.098, -31.9467, 123.587, -151.354, 125.541, 88.5867, 0, 0, 3.15152, -55.0206, 3.16453, -174.428, 3.11531, 65.5128, 0.0749731, 46.5005
0, 1380.00000, 124.098, -31.9474, 123.587, -151.354, 125.543, 88.5866, 0, 0, 3.15151, -55.0213, 3.16454, -174.428, 3.11525, 65.5127, 0.0750602, 46.4978
0, 1440.00000, 124.099, -31.9481, 123.587, -151.354, 125.545, 88.5865, 0, 0, 3.15149, -55.022, 3.16454, -174.428, 3.1152, 65.5126, 0.0751386, 46.4955
0, 1500.00000, 124.099, -31.9487, 123.587, -151.354, 125.546, 88.5864, 0, 0, 3.15148, -55.0226, 3.16454, -174.428, 3.11516, 65.5125, 0.0752091, 46.4934
0, 1560.00000, 124.1, -31.9493, 123.587, -151.354, 125.548, 88.5863, 0, 0, 3.15146, -55.0232, 3.16454, -174.428, 3.11512, 65.5124, 0.0752726, 46.4915
0, 1620.00000, 124.1, -31.9498, 123.587, -151.354, 125.549, 88.5863, 0, 0, 3.15145, -55.0237, 3.16454, -174.428, 3.11509, 65.5124, 0.0753297, 46.4898
0, 1680.00000, 124.101, -31.9502, 123.587, -151.354, 125.551, 88.5862, 0, 0, 3.15144, -55.0242, 3.16454, -174.428, 3.11505, 65.5123, 0.0753811, 46.4882
0, 1740.00000, 124.101, -31.9507, 123.587, -151.354, 125.552, 88.5862, 0, 0, 3.15143, -55.0246, 3.16454, -174.428, 3.11503, 65.5122, 0.0754274, 46.4869
0, 1800.00000, 124.101, -31.951, 123.587, -151.354, 125.553, 88.5861, 0, 0, 3.15143, -55.0249, 3.16454, -174.428, 3.115, 65.5122, 0.0754691, 46.4856
0, 1860.00000, 124.102, -31.9513, 123.587, -151.354, 125.554, 88.5861, 0, 0, 3.15142, -55.0253, 3.16454, -174.428, 3.11498, 65.5121, 0.0755066, 46.4845
0, 1920.00000, 124.102, -31.9516, 123.587, -151.354, 125.555, 88.586, 0, 0, 3.15141, -55.0256, 3.16454, -174.428, 3.11496, 65.5121, 0.0755403, 46.4835
0, 1980.00000, 124.102, -31.9519, 123.587, -151.354, 125.555, 88.586, 0, 0, 3.15141, -55.0258, 3.16454, -174.428, 3.11494, 65.5121, 0.0755707, 46.4826
0, 2040.00000, 124.102, -31.9521, 123.587, -151.354, 125.556, 88.586, 0, 0, 3.1514, -55.0261, 3.16454, -174.428, 3.11492, 65.512, 0.075598, 46.4818
0, 2100.00000, 124.103, -31.9524, 123.587, -151.354, 125.557, 88.5859, 0, 0, 3.1514, -55.0263, 3.16454, -174.428, 3.11491, 65.512, 0.0756226, 46.4811
0, 2160.00000, 124.103, -31.9526, 123.587, -151.354, 125.557, 88.5859, 0, 0, 3.15139, -55.0265, 3.16454, -174.428, 3.11489, 65.512, 0.0756448, 46.4805
0, 2220.00000, 124.103, -31.9527, 123.587, -151.354, 125.558, 88.5859, 0, 0, 3.15139, -55.0266, 3.16454, -174.428, 3.11488, 65.512, 0.0756647, 46.4799
0, 2280.00000, 124.103, -31.9529, 123.587, -151.354, 125.558, 88.5859, 0, 0, 3.15138, -55.0268, 3.16454, -174.428, 3.11487, 65.5119, 0.0756826, 46.4794
0, 2340.00000, 124.103, -31.953, 123.587, -151.354, 125.558, 88.5858, 0, 0, 3.15138, -55.0269, 3.16454, -174.428, 3.11486, 65.5119, 0.0756987, 46.4789
0, 2400.00000, 124.103, -31.9532, 123.587, -151.354, 125.559, 88.5858, 0, 0, 3.15138, -55.0271, 3.16454, -174.428, 3.11485, 65.5119, 0.0757133, 46.4785
0, 2460.00000, 124.103, -31.9533, 123.587, -151.354, 125.559, 88.5858, 0, 0, 3.15138, -55.0272, 3.16454, -174.428, 3.11484, 65.5119, 0.0757264, 46.4781
0, 2520.00000, 124.103, -31.9534, 123.587, -151.354, 125.559, 88.5858, 0, 0, 3.15137, -55.0273, 3.16454, -174.428, 3.11483, 65.5119, 0.0757381, 46.4778
0, 2580.00000, 124.104, -31.9535, 123.587, -151.354, 125.56, 88.5858, 0, 0, 3.15137, -55.0274, 3.16454, -174.428, 3.11483, 65.5119, 0.0757487, 46.4775
0, 2640.00000, 124.104, -31.9536, 123.587, -151.354, 125.56, 88.5858, 0, 0, 3.15137, -55.0275, 3.16454, -174.428, 3.11482, 65.5118, 0.0757582, 46.4772
0, 2700.00000, 124.104, -31.9536, 123.587, -151.354, 125.56, 88.5858, 0, 0, 3.15137, -55.0275, 3.16454, -174.428, 3.11482, 65.5118, 0.0757668, 46.4769
0, 2760.00000, 124.104, -31.9537, 123.587, -151.354, 125.56, 88.5857, 0, 0, 3.15137, -55.0276, 3.16454, -174.428, 3.11481, 65.5118, 0.0757745, 46.4767
0, 2820.00000, 124.104, -31.9538, 123.587, -151.354, 125.56, 88.5857, 0, 0, 3.15137, -55.0277, 3.16454, -174.428, 3.11481, 65.5118, 0.0757815, 46.4765
0, 2880.00000, 124.104, -31.9538, 123.587, -151.354, 125.561, 88.5857, 0, 0, 3.15136, -55.0277, 3.16455, -174.428, 3.1148, 65.5118, 0.0757877, 46.4763
0, 2940.00000, 124.104, -31.9539, 123.587, -151.354, 125.561, 88.5857, 0, 0, 3.15136, -55.0278, 3.16455, -174.428, 3.1148, 65.5118, 0.0757934, 46.4762
0, 3000.00000, 124.104, -31.9539, 123.587, -151.354, 125.561, 88.5857, 0, 0, 3.15136, -55.0278, 3.16455, -174.428, 3.1148, 65.5118, 0.0757984, 46.476
0, 3060.00000, 124.104, -31.9539, 123.587, -151.354, 125.561, 88.5857, 0, 0, 3.15136, -55.0279, 3.16455, -174.428, 3.11479, 65.5118, 0.075803, 46.4759
0, 3120.00000, 124.104, -31.954, 123.587, -151.354, 125.561, 88.5857, 0, 0, 3.15136, -55.0279, 3.16455, -174.428, 3.11479, 65.5118, 0.0758071, 46.4758
0, 3180.00000, 124.104, -31.954, 123.587, -151.354, 125.561, 88.5857, 0, 0, 3.15136, -55.0279, 3.16455, -174.428, 3.11479, 65.5118, 0.0758108, 46.4757
0, 3240.00000, 124.104, -31.954, 123.587, -151.354, 125.561, 88.5857, 0, 0, 3.15136, -55.028, 3.16455, -174.428, 3.11479, 65.5118, 0.0758141, 46.4756
0, 3300.00000, 124.104, -31.9541, 123.587, -151.354, 125.561, 88.5857, 0, 0, 3.15136, -55.028, 3.16455, -174.428, 3.11479, 65.5118, 0.0758171, 46.4755
0, 3360.00000, 124.104, -31.9541, 123.587, -151.354, 125.561, 88.5857, 0, 0, 3.15136, -55.028, 3.16455, -174.428, 3.11478, 65.5118, 0.0758198, 46.4754
0, 3420.00000, 124.104, -31.9541, 123.587, -151.354, 125.561, 88.5857, 0, 0, 3.15136, -55.028, 3.16455, -174.428, 3.11478, 65.5118, 0.0758222, 46.4753
0, 3480.00000, 124.104, -31.9541, 123.587, -151.354, 125.562, 88.5857, 0, 0, 3.15136, -55.028, 3.16455, -174.428, 3.11478, 65.5118, 0.0758244, 46.4753
0, 3540.00000, 124.104, -31.9541, 123.587, -151.354, 125.562, 88.5857, 0, 0, 3.15136, -55.0281, 3.16455, -174.428, 3.11478, 65.5118, 0.0758264, 46.4752
1, 0.00000, 124.104, -31.9542, 123.587, -151.354, 125.562, 88.5857, 0, 0, 3.15136, -55.0281, 3.16455, -174.428, 3.11478, 65.5118, 0.0758281, 46.4752
1, 60.00000, 124.104, -31.9542, 123.587, -151.354, 125.562, 88.5857, 0, 0, 3.15136, -55.0281, 3.16455, -174.428, 3.11478, 65.5118, 0.0758297, 46.4751
1, 120.00000, 124.104, -31.9542, 123.587, -151.354, 125.562, 88.5857, 0, 0, 3.15136, -55.0281, 3.16455, -174.428, 3.11478, 65.5118, 0.0758311, 46.4751
1, 180.00000, 124.104, -31.9542, 123.587, -151.354, 125.562, 88.5857, 0, 0, 3.15136, -55.0281, 3.16455, -174.428, 3.11478, 65.5118, 0.0758324, 46.4751
1, 240.00000, 124.104, -31.9542, 123.587, -151.354, 125.562, 88.5857, 0, 0, 3.15136, -55.0281, 3.16455, -174.428, 3.11477, 65.5118, 0.0758336, 46.475
1, 300.00000, 124.104, -31.9542, 123.587, -151.354, 125.562, 88.5857, 0, 0, 3.15136, -55.0281, 3.16455, -174.428, 3.11477, 65.5117, 0.0758346, 46.475
1, 360.00000, 124.104, -31.9542, 123.587, -151.354, 125.562, 88.5857, 0, 0, 3.15136, -55.0281, 3.16455, -174.428, 3.11477, 65.5117, 0.0758356, 46.475
1, 420.00000, 124.104, -31.9542, 123.587, -151.354, 125.562, 88.5857, 0, 0, 3.15135, -55.0282, 3.16455, -174.428, 3.11477, 65.5117, 0.0758364, 46.4749
1, 480.00000, 124.104, -31.9542, 123.587, -151.354, 125.562, 88.5857, 0, 0, 3.15135, -55.0282, 3.16455, -174.428, 3.11477, 65.5117, 0.0758372, 46.4749
1, 540.00000, 124.104, -31.9542, 123.587, -151.354, 125.562, 88.5857, 0, 0, 3.15135, -55.0282, 3.16455, -174.428, 3.11477, 65.5117, 0.0758379, 46.4749
1, 600.00000, 124.104, -31.9543, 123.587, -151.354, 125.562, 88.5857, 0, 0, 3.15135, -55.0282, 3.16455, -174.428, 3.11477, 65.5117, 0.0758385, 46.4749
1, 660.00000, 124.104, -31.9543, 123.587, -151.354, 125.562, 88.5857, 0, 0, 3.15135, -55.0282, 3.16455, -174.428, 3.11477, 65.5117, 0.075839, 46.4749
1, 720.00000, 124.104, -31.9543, 123.587, -151.354, 125.562, 88.5857, 0, 0, 3.15135, -55.0282, 3.16455, -174.428, 3.11477, 65.5117, 0.0758395, 46.4748
1, 780.00000, 124.104, -31.9543, 123.587, -151.354, 125.562, 88.5857, 0, 0, 3.15135, -55.0282, 3.16455, -174.428, 3.11477, 65.5117, 0.07584, 46.4748
1, 840.00000, 124.104, -31.9543, 123.587, -151.354, 125.562, 88.5857, 0, 0, 3.15135, -55.0282, 3.16455, -174.428, 3.11477, 65.5117, 0.0758404, 46.4748
1, 900.00000, 124.104, -31.9543, 123.587, -151.354, 125.562, 88.5857, 0, 0, 3.15135, -55.0282, 3.16455, -174.428, 3.11477, 65.5117, 0.0758407, 46.4748
1, 960.00000, 124.104, -31.9543, 123.587, -151.354, 125.562, 88.5857, 0, 0, 3.15135, -55.0282, 3.16455, -174.428, 3.11477, 65.5117, 0.0758411, 46.4748
1, 1020.00000, 124.104, -31.9543, 123.587, -151.354, 125.562, 88.5857, 0, 0, 3.15135, -55.0282, 3.16455, -174.428, 3.11477, 65.5117, 0.0758414, 46.4748
1, 1080.00000, 124.104, -31.9543, 123.587, -151.354, 125.562, 88.5857, 0, 0, 3.15135, -55.0282, 3.16455, -174.428, 3.11477, 65.5117, 0.0758416, 46.4748
1, 1140.00000, 124.104, -31.9543, 123.587, -151.354, 125.562, 88.5857, 0, 0, 3.15135, -55.0282, 3.16455, -174.428, 3.11477, 65.5117, 0.0758419, 46.4748
1, 1200.00000, 124.104, -31.9543, 123.587, -151.354, 125.562, 88.5857, 0, 0, 3.15135, -55.0282, 3.16455, -174.428, 3.11477, 65.5117, 0.0758421, 46.4748
1, 1260.00000, 124.104, -31.9543, 123.587, -151.354, 125.562, 88.5857, 0, 0, 3.15135, -55.0282, 3.16455, -174.428, 3.11477, 65.5117, 0.0758423, 46.4748
1, 1320.00000, 124.104, -31.9543, 123.587, -151.354, 125.562, 88.5857, 0, 0, 3.15135, -55.0282, 3.16455, -174.428, 3.11477, 65.5117, 0.0758424, 46.4748
1, 1380.00000, 124.104, -31.9543, 123.587, -151.354, 125.562, 88.5857, 0, 0, 3.15135, -55.0282, 3.16455, -174.428, 3.11477, 65.5117, 0.0758426, 46.4748
1, 1440.00000, 124.104, -31.9543, 123.587, -151.354, 125.562, 88.5857, 0, 0, 3.15135, -55.0282, 3.16455, -174.428, 3.11477, 65.5117, 0.0758427, 46.4748
1, 1500.00000, 124.104, -31.9543, 123.587, -151.354, 125.562, 88.5857, 0, 0, 3.15135, -55.0282, 3.16455, -174.428, 3.11477, 65.5117, 0.0758429, 46.4748
1, 1560.00000, 124.104, -31.9543, 123.587, -151.354, 125.562, 88.5857, 0, 0, 3.15135, -55.0282, 3.16455, -174.428, 3.11477, 65.5117, 0.075843, 46.4748
1, 1620.00000, 124.104, -31.9543, 123.587, -151.354, 125.562, 88.5857, 0, 0, 3.15135, -55.0282, 3.16455, -174.428, 3.11477, 65.5117, 0.0758431, 46.4747
1, 1680.00000, 124.104, -31.9543, 123.587, -151.354, 125.562, 88.5857, 0, 0, 3.15135, -55.0282, 3.16455, -174.428, 3.11477, 65.5117, 0.0758432, 46.4747
1, 1740.00000, 124.104, -31.9543, 123.587, -151.354, 125.562, 88.5857, 0, 0, 3.15135, -55.0282, 3.16455, -174.428, 3.11477, 65.5117, 0.0758433, 46.4747
1, 1800.00000, 124.104, -31.9543, 123.587, -151.354, 125.562, 88.5857, 0, 0, 3.15135, -55.0282, 3.16455, -174.428, 3.11477, 65.5117, 0.0758433, 46.4747
1, 1860.00000, 124.104, -31.9543, 123.587, -151.354, 125.562, 88.5857, 0, 0, 3.15135, -55.0282, 3.16455, -174.428, 3.11477, 65.5117, 0.0758434, 46.4747
1, 1920.00000, 124.104, -31.9543, 123.587, -151.354, 125.562, 88.5857, 0, 0, 3.15135, -55.0282, 3.16455, -174.428, 3.11477, 65.5117, 0.0758435, 46.4747
1, 1980.00000, 124.104, -31.9543, 123.587, -151.354, 125.562, 88.5857, 0, 0, 3.15135, -55.0282, 3.16455, -174.428, 3.11477, 65.5117, 0.0758435, 46.4747
1, 2040.00000, 124.104, -31.9543, 123.587, -151.354, 125.562, 88.5857, 0, 0, 3.15135, -55.0282, 3.16455, -174.428, 3.11477, 65.5117, 0.0758436, 46.4747
1, 2100.00000, 124.104, -31.9543, 123.587, -151.354, 125.562, 88.5857, 0, 0, 3.15135, -55.0282, 3.16455, -174.428, 3.11477, 65.5117, 0.0758436, 46.4747
1, 2160.00000, 124.104, -31.9543, 123.587, -151.354, 125.562, 88.5857, 0, 0, 3.15135, -55.0282, 3.16455, -174.428, 3.11477, 65.5117, 0.0758437, 46.4747
1, 2220.00000, 124.104, -31.9543, 123.587, -151.354, 125.562, 88.5857, 0, 0, 3.15135, -55.0282, 3.16455, -174.428, 3.11477, 65.5117, 0.0758437, 46.4747
1, 2280.00000, 124.104, -31.9543, 123.587, -151.354, 125.562, 88.5857, 0, 0, 3.15135, -55.0282, 3.16455, -174.428, 3.11477, 65.5117, 0.0758437, 46.4747
1, 2340.00000, 124.104, -31.9543, 123.587, -151.354, 125.562, 88.5857, 0, 0, 3.15135, -55.0282, 3.16455, -174.428, 3.11477, 65.5117, 0.0758438, 46.4747
1, 2400.00000, 124.104, -31.9543, 123.587, -151.354, 125.562, 88.5857, 0, 0, 3.15135, -55.0282, 3.16455, -174.428, 3.11477, 65.5117, 0.0758438, 46.4747
1, 2460.00000, 124.104, -31.9543, 123.587, -151.354, 125.562, 88.5857, 0, 0, 3.15135, -55.0282, 3.16455, -174.428, 3.11477, 65.5117, 0.0758438, 46.4747
1, 2520.00000, 124.104, -31.9543, 123.587, -151.354, 125.562, 88.5857, 0, 0, 3.15135, -55.0282, 3.16455, -174.428, 3.11477, 65.5117, 0.0758438, 46.4747
1, 2580.00000, 124.104, -31.9543, 123.587, -151.354, 125.562, 88.5857, 0, 0, 3.15135, -55.0282, 3.16455, -174.428, 3.11477, 65.5117, 0.0758438, 46.4747
1, 2640.00000, 124.104, -31.9543, 123.587, -151.354, 125.562, 88.5857, 0, 0, 3.15135, -55.0282, 3.16455, -174.428, 3.11477, 65.5117, 0.0758439, 46.4747
1, 2700.00000, 124.104, -31.9543, 123.587, -151.354, 125.562, 88.5857, 0, 0, 3.15135, -55.0282, 3.16455, -174.428, 3.11477, 65.5117, 0.0758439, 46.4747
1, 2760.00000, 124.104, -31.9543, 123.587, -151.354, 125.562, 88.5857, 0, 0, 3.15135, -55.0282, 3.16455, -174.428, 3.11477, 65.5117, 0.0758439, 46.4747
1, 2820.00000, 124.104, -31.9543, 123.587, -151.354, 125.562, 88.5857, 0, 0, 3.15135, -55.0282, 3.16455, -174.428, 3.11477, 65.5117, 0.0758439, 46.4747
1, 2880.00000, 124.104, -31.9543, 123.587, -151.354, 125.562, 88.5857, 0, 0, 3.15135, -55.0282, 3.16455, -174.428, 3.11477, 65.5117, 0.0758439, 46.4747
1, 2940.00000, 124.104, -31.9543, 123.587, -151.354, 125.562, 88.5857, 0, 0, 3.15135, -55.0282, 3.16455, -174.428, 3.11477, 65.5117, 0.0758439, 46.4747
1, 3000.00000, 124.104, -31.9543, 123.587, -151.354, 125.562, 88.5857, 0, 0, 3.15135, -55.0282, 3.16455, -174.428, 3.11477, 65.5117, 0.0758439, 46.4747
1, 3060.00000, 124.104, -31.9543, 123.587, -151.354, 125.562, 88.5857, 0, 0, 3.15135, -55.0282, 3.16455, -174.428, 3.11477, 65.5117, 0.0758439, 46.4747
1, 3120.00000, 124.104, -31.9543, 123.587, -151.354, 125.562, 88.5857, 0, 0, 3.15135, -55.0282, 3.16455, -174.428, 3.11477, 65.5117, 0.075844, 46.4747
1, 3180.00000, 124.104, -31.9543, 123.587, -151.354, 125.562, 88.5857, 0, 0, 3.15135, -55.0282, 3.16455, -174.428, 3.11477, 65.5117, 0.075844, 46.4747
1, 3240.00000, 124.104, -31.9543, 123.587, -151.354, 125.562, 88.5857, 0, 0, 3.15135, -55.0282, 3.16455, -174.428, 3.11477, 65.5117, 0.075844, 46.4747
1, 3300.00000, 124.104, -31.9543, 123.587, -151.354, 125.562, 88.5857, 0, 0, 3.15135, -55.0282, 3.16455, -174.428, 3.11477, 65.5117, 0.075844, 46.4747
1, 3360.00000, 124.104, -31.9543, 123.587, -151.354, 125.562, 88.5857, 0, 0, 3.15135, -55.0282, 3.16455, -174.428, 3.11477, 65.5117, 0.075844, 46.4747
1, 3420.00000, 124.104, -31.9543, 123.587, -151.354, 125.562, 88.5857, 0, 0, 3.15135, -55.0282, 3.16455, -174.428, 3.11477, 65.5117, 0.075844, 46.4747
1, 3480.00000, 124.104, -31.9543, 123.587, -151.354, 125.562, 88.5857, 0, 0, 3.15135, -55.0282, 3.16455, -174.428, 3.11477, 65.5117, 0.075844, 46.4747
1, 3540.00000, 124.104, -31.9543, 123.587, -151.354, 125.562, 88.5857, 0, 0, 3.15135, -55.0282, 3.16455, -174.428, 3.11477, 65.5117, 0.075844, 46.4747
2, 0.00000, 124.104, -31.9543, 123.587, -151.354, 125.562, 88.5857, 0, 0, 3.15135, -55.0282, 3.16455, -174.428, 3.11477, 65.5117, 0.075844, 46.4747
2, 60.00000, 124.104, -31.9543, 123.587, -151.354, 125.562, 88.5857, 0, 0, 3.15135, -55.0282, 3.16455, -174.428, 3.11477, 65.5117, 0.075844, 46.4747
2, 120.00000, 124.104, -31.9543, 123.587, -151.354, 125.562, 88.5857, 0, 0, 3.15135, -55.0282, 3.16455, -174.428, 3.11477, 65.5117, 0.075844, 46.4747
2, 180.00000, 124.104, -31.9543, 123.587, -151.354, 125.562, 88.5857, 0, 0, 3.15135, -55.0282, 3.16455, -174.428, 3.11477, 65.5117, 0.075844, 46.4747
2, 240.00000, 124.104, -31.9543, 123.587, -151.354, 125.562, 88.5857, 0, 0, 3.15135, -55.0282, 3.16455, -174.428, 3.11477, 65.5117, 0.075844, 46.4747
2, 300.00000, 124.104, -31.9543, 123.587, -151.354, 125.562, 88.5857, 0, 0, 3.15135, -55.0282, 3.16455, -174.428, 3.11477, 65.5117, 0.075844, 46.4747
2, 360.00000, 124.104, -31.9543, 123.587, -151.354, 125.562, 88.5857, 0, 0, 3.15135, -55.0282, 3.16455, -174.428, 3.11477, 65.5117, 0.075844, 46.4747
2, 420.00000, 124.104, -31.9543, 123.587, -151.354, 125.562, 88.5857, 0, 0, 3.15135, -55.0282, 3.16455, -174.428, 3.11477, 65.5117, 0.075844, 46.4747
2, 480.00000, 124.104, -31.9543, 123.587, -151.354, 125.562, 88.5857, 0, 0, 3.15135, -55.0282, 3.16455, -174.428, 3.11477, 65.5117, 0.075844, 46.4747
2, 540.00000, 124.104, -31.9543, 123.587, -151.354, 125.562, 88.5857, 0, 0, 3.15135, -55.0282, 3.16455, -174.428, 3.11477, 65.5117, 0.075844, 46.4747
2, 600.00000, 124.104, -31.9543, 123.587, -151.354, 125.562, 88.5857, 0, 0, 3.15135, -55.0282, 3.16455, -174.428, 3.11477, 65.5117, 0.075844, 46.4747
2, 660.00000, 124.104, -31.9543, 123.587, -151.354, 125.562, 88.5857, 0, 0, 3.15135, -55.0282, 3.16455, -174.428, 3.11477, 65.5117, 0.075844, 46.4747
