hour,t(sec),V1,VAngle1,V2,VAngle2,V3,VAngle3,V4,VAngle4,I1,IAngle1,I2,IAngle2,I3,IAngle3,I4,IAngle4
0, 60.00000, 121.211, -31.2092, 121.276, -151.036, 121.957, 88.9269, 0, 0, 1.26818, -54.2824, 1.26749, -174.111, 1.26036, 65.8536, 0.0107672, 63.0962
0, 120.00000, 121.212, -31.2093, 121.276, -151.036, 121.956, 88.9269, 0, 0, 1.26818, -54.2832, 1.2675, -174.11, 1.26044, 65.8529, 0.0107288, 63.0817
0, 180.00000, 121.212, -31.2093, 121.276, -151.036, 121.956, 88.9269, 0, 0, 1.26818, -54.2832, 1.2675, -174.11, 1.26044, 65.8529, 0.0107282, 63.0818
0, 240.00000, 121.212, -31.2093, 121.276, -151.036, 121.956, 88.9269, 0, 0, 1.26818, -54.2832, 1.2675, -174.11, 1.26044, 65.8529, 0.0107282, 63.0819
0, 300.00000, 121.212, -31.2093, 121.276, -151.036, 121.956, 88.9269, 0, 0, 1.26818, -54.2832, 1.2675, -174.11, 1.26044, 65.8529, 0.0107282, 63.0819
0, 360.00000, 121.212, -31.2093, 121.276, -151.036, 121.956, 88.9269, 0, 0, 1.26818, -54.2832, 1.2675, -174.11, 1.26044, 65.8529, 0.0107282, 63.0819
0, 420.00000, 121.212, -31.2093, 121.276, -151.036, 121.956, 88.9269, 0, 0, 1.26818, -54.2832, 1.2675, -174.11, 1.26044, 65.8529, 0.0107282, 63.0819
0, 480.00000, 121.212, -31.2093, 121.276, -151.036, 121.956, 88.9269, 0, 0, 1.26818, -54.2832, 1.2675, -174.11, 1.26044, 65.8529, 0.0107282, 63.0819
0, 540.00000, 121.212, -31.2093, 121.276, -151.036, 121.956, 88.9269, 0, 0, 1.26818, -54.2832, 1.2675, -174.11, 1.26044, 65.8529, 0.0107282, 63.0819
0, 600.00000, 121.212, -31.2093, 121.276, -151.036, 121.956, 88.9269, 0, 0, 1.26818, -54.2832, 1.2675, -174.11, 1.26044, 65.8529, 0.0107282, 63.0819
0, 660.00000, 121.212, -31.2093, 121.276, -151.036, 121.956, 88.9269, 0, 0, 1.26818, -54.2832, 1.2675, -174.11, 1.26044, 65.8529, 0.0107282, 63.0819
0, 720.00000, 121.212, -31.2093, 121.276, -151.036, 121.956, 88.9269, 0, 0, 1.26818, -54.2832, 1.2675, -174.11, 1.26044, 65.8529, 0.0107282, 63.0819
0, 780.00000, 121.212, -31.2093, 121.276, -151.036, 121.956, 88.9269, 0, 0, 1.26818, -54.2832, 1.2675, -174.11, 1.26044, 65.8529, 0.0107282, 63.0819
0, 840.00000, 121.212, -31.2093, 121.276, -151.036, 121.956, 88.9269, 0, 0, 1.26818, -54.2832, 1.2675, -174.11, 1.26044, 65.8529, 0.0107282, 63.0819
0, 900.00000, 121.212, -31.2093, 121.276, -151.036, 121.956, 88.9269, 0, 0, 1.26818, -54.2832, 1.2675, -174.11, 1.26044, 65.8529, 0.0107282, 63.0819
0, 960.00000, 121.011, -31.2361, 121.086, -151.061, 121.763, 88.8984, 0, 0, 1.25636, -54.3099, 1.25558, -174.135, 1.24859, 65.8245, 0.0107076, 63.9279
0, 1020.00000, 121.011, -31.2361, 121.086, -151.061, 121.763, 88.8984, 0, 0, 1.25636, -54.31, 1.25558, -174.135, 1.2486, 65.8244, 0.0107072, 63.9272
0, 1080.00000, 121.011, -31.2361, 121.086, -151.061, 121.763, 88.8984, 0, 0, 1.25636, -54.31, 1.25558, -174.135, 1.2486, 65.8244, 0.0107072, 63.9272
0, 1140.00000, 121.011, -31.2361, 121.086, -151.061, 121.763, 88.8984, 0, 0, 1.25636, -54.31, 1.25558, -174.135, 1.2486, 65.8244, 0.0107072, 63.9272
0, 1200.00000, 121.011, -31.2361, 121.086, -151.061, 121.763, 88.8984, 0, 0, 1.25636, -54.31, 1.25558, -174.135, 1.2486, 65.8244, 0.0107072, 63.9272
0, 1260.00000, 121.011, -31.2361, 121.086, -151.061, 121.763, 88.8984, 0, 0, 1.25636, -54.31, 1.25558, -174.135, 1.2486, 65.8244, 0.0107072, 63.9272
0, 1320.00000, 121.011, -31.2361, 121.086, -151.061, 121.763, 88.8984, 0, 0, 1.25636, -54.31, 1.25558, -174.135, 1.2486, 65.8244, 0.0107072, 63.9272
0, 1380.00000, 121.011, -31.2361, 121.086, -151.061, 121.763, 88.8984, 0, 0, 1.25636, -54.31, 1.25558, -174.135, 1.2486, 65.8244, 0.0107072, 63.9272
0, 1440.00000, 121.011, -31.2361, 121.086, -151.061, 121.763, 88.8984, 0, 0, 1.25636, -54.31, 1.25558, -174.135, 1.2486, 65.8244, 0.0107072, 63.9272
0, 1500.00000, 121.011, -31.2361, 121.086, -151.061, 121.763, 88.8984, 0, 0, 1.25636, -54.31, 1.25558, -174.135, 1.2486, 65.8244, 0.0107072, 63.9272
0, 1560.00000, 121.011, -31.2361, 121.086, -151.061, 121.763, 88.8984, 0, 0, 1.25636, -54.31, 1.25558, -174.135, 1.2486, 65.8244, 0.0107072, 63.9272
0, 1620.00000, 121.011, -31.2361, 121.086, -151.061, 121.763, 88.8984, 0, 0, 1.25636, -54.31, 1.25558, -174.135, 1.2486, 65.8244, 0.0107072, 63.9272
0, 1680.00000, 121.011, -31.2361, 121.086, -151.061, 121.763, 88.8984, 0, 0, 1.25636, -54.31, 1.25558, -174.135, 1.2486, 65.8244, 0.0107072, 63.9272
0, 1740.00000, 121.011, -31.2361, 121.086, -151.061, 121.763, 88.8984, 0, 0, 1.25636, -54.31, 1.25558, -174.135, 1.2486, 65.8244, 0.0107072, 63.9272
0, 1800.00000, 121.011, -31.2361, 121.086, -151.061, 121.763, 88.8984, 0, 0, 1.25636, -54.31, 1.25558, -174.135, 1.2486, 65.8244, 0.0107072, 63.9272
0, 1860.00000, 121.158, -31.2181, 121.223, -151.043, 121.898, 88.9186, 0, 0, 1.2526, -54.2931, 1.25192, -174.118, 1.24499, 65.8438, 0.0105861, 63.1737
0, 1920.00000, 121.158, -31.218, 121.224, -151.043, 121.898, 88.9186, 0, 0, 1.25253, -54.292, 1.25186, -174.117, 1.24493, 65.8447, 0.0105819, 63.1694
0, 1980.00000, 121.158, -31.218, 121.224, -151.043, 121.898, 88.9186, 0, 0, 1.25253, -54.292, 1.25186, -174.117, 1.24493, 65.8447, 0.0105819, 63.1694
0, 2040.00000, 121.158, -31.218, 121.224, -151.043, 121.898, 88.9186, 0, 0, 1.25253, -54.292, 1.25186, -174.117, 1.24493, 65.8447, 0.0105819, 63.1694
0, 2100.00000, 121.158, -31.218, 121.224, -151.043, 121.898, 88.9186, 0, 0, 1.25253, -54.292, 1.25186, -174.117, 1.24493, 65.8447, 0.0105819, 63.1694
0, 2160.00000, 121.158, -31.218, 121.224, -151.043, 121.898, 88.9186, 0, 0, 1.25253, -54.292, 1.25186, -174.117, 1.24493, 65.8447, 0.0105819, 63.1694
0, 2220.00000, 121.158, -31.218, 121.224, -151.043, 121.898, 88.9186, 0, 0, 1.25253, -54.292, 1.25186, -174.117, 1.24493, 65.8447, 0.0105819, 63.1694
0, 2280.00000, 121.158, -31.218, 121.224, -151.043, 121.898, 88.9186, 0, 0, 1.25253, -54.292, 1.25186, -174.117, 1.24493, 65.8447, 0.0105819, 63.1694
0, 2340.00000, 121.158, -31.218, 121.224, -151.043, 121.898, 88.9186, 0, 0, 1.25253, -54.292, 1.25186, -174.117, 1.24493, 65.8447, 0.0105819, 63.1694
0, 2400.00000, 121.158, -31.218, 121.224, -151.043, 121.898, 88.9186, 0, 0, 1.25253, -54.292, 1.25186, -174.117, 1.24493, 65.8447, 0.0105819, 63.1694
0, 2460.00000, 121.158, -31.218, 121.224, -151.043, 121.898, 88.9186, 0, 0, 1.25253, -54.292, 1.25186, -174.117, 1.24493, 65.8447, 0.0105819, 63.1694
0, 2520.00000, 121.158, -31.218, 121.224, -151.043, 121.898, 88.9186, 0, 0, 1.25253, -54.292, 1.25186, -174.117, 1.24493, 65.8447, 0.0105819, 63.1694
0, 2580.00000, 121.158, -31.218, 121.224, -151.043, 121.898, 88.9186, 0, 0, 1.25253, -54.292, 1.25186, -174.117, 1.24493, 65.8447, 0.0105819, 63.1694
0, 2640.00000, 121.158, -31.218, 121.224, -151.043, 121.898, 88.9186, 0, 0, 1.25253, -54.292, 1.25186, -174.117, 1.24493, 65.8447, 0.0105819, 63.1694
0, 2700.00000, 121.158, -31.218, 121.224, -151.043, 121.898, 88.9186, 0, 0, 1.25253, -54.292, 1.25186, -174.117, 1.24493, 65.8447, 0.0105819, 63.1694
0, 2760.00000, 121.446, -31.1795, 121.497, -151.011, 122.188, 88.9599, 0, 0, 1.30064, -54.2537, 1.30009, -174.085, 1.29277, 65.8857, 0.0109396, 61.8136
0, 2820.00000, 121.445, -31.1794, 121.497, -151.011, 122.189, 88.96, 0, 0, 1.30064, -54.2533, 1.30009, -174.085, 1.29273, 65.886, 0.0109609, 61.8129
0, 2880.00000, 121.445, -31.1794, 121.497, -151.011, 122.189, 88.96, 0, 0, 1.30064, -54.2533, 1.30009, -174.085, 1.29273, 65.8861, 0.0109612, 61.8128
0, 2940.00000, 121.445, -31.1794, 121.497, -151.011, 122.189, 88.96, 0, 0, 1.30064, -54.2533, 1.30009, -174.085, 1.29273, 65.8861, 0.0109612, 61.8128
0, 3000.00000, 121.445, -31.1794, 121.497, -151.011, 122.189, 88.96, 0, 0, 1.30064, -54.2533, 1.30009, -174.085, 1.29273, 65.8861, 0.0109612, 61.8128
0, 3060.00000, 121.445, -31.1794, 121.497, -151.011, 122.189, 88.96, 0, 0, 1.30064, -54.2533, 1.30009, -174.085, 1.29273, 65.8861, 0.0109612, 61.8128
0, 3120.00000, 121.445, -31.1794, 121.497, -151.011, 122.189, 88.96, 0, 0, 1.30064, -54.2533, 1.30009, -174.085, 1.29273, 65.8861, 0.0109612, 61.8128
0, 3180.00000, 121.445, -31.1794, 121.497, -151.011, 122.189, 88.96, 0, 0, 1.30064, -54.2533, 1.30009, -174.085, 1.29273, 65.8861, 0.0109612, 61.8128
0, 3240.00000, 121.445, -31.1794, 121.497, -151.011, 122.189, 88.96, 0, 0, 1.30064, -54.2533, 1.30009, -174.085, 1.29273, 65.8861, 0.0109612, 61.8128
0, 3300.00000, 121.445, -31.1794, 121.497, -151.011, 122.189, 88.96, 0, 0, 1.30064, -54.2533, 1.30009, -174.085, 1.29273, 65.8861, 0.0109612, 61.8128
0, 3360.00000, 121.445, -31.1794, 121.497, -151.011, 122.189, 88.96, 0, 0, 1.30064, -54.2533, 1.30009, -174.085, 1.29273, 65.8861, 0.0109612, 61.8128
0, 3420.00000, 121.445, -31.1794, 121.497, -151.011, 122.189, 88.96, 0, 0, 1.30064, -54.2533, 1.30009, -174.085, 1.29273, 65.8861, 0.0109612, 61.8128
0, 3480.00000, 121.445, -31.1794, 121.497, -151.011, 122.189, 88.96, 0, 0, 1.30064, -54.2533, 1.30009, -174.085, 1.29273, 65.8861, 0.0109612, 61.8128
0, 3540.00000, 121.445, -31.1794, 121.497, -151.011, 122.189, 88.96, 0, 0, 1.30064, -54.2533, 1.30009, -174.085, 1.29273, 65.8861, 0.0109612, 61.8128
1, 0.00000, 121.445, -31.1794, 121.497, -151.011, 122.189, 88.96, 0, 0, 1.30064, -54.2533, 1.30009, -174.085, 1.29273, 65.8861, 0.0109612, 61.8128
1, 60.00000, 121.667, -31.1525, 121.707, -150.99, 122.414, 88.9892, 0, 0, 1.31907, -54.2268, 1.31863, -174.064, 1.31105, 65.9149, 0.0110921, 60.6707
1, 120.00000, 121.667, -31.1525, 121.707, -150.99, 122.414, 88.9892, 0, 0, 1.31907, -54.2264, 1.31863, -174.064, 1.31102, 65.9153, 0.0111146, 60.6646
1, 180.00000, 121.667, -31.1525, 121.707, -150.99, 122.414, 88.9892, 0, 0, 1.31907, -54.2264, 1.31863, -174.064, 1.31102, 65.9153, 0.011115, 60.6644
1, 240.00000, 121.667, -31.1525, 121.707, -150.99, 122.414, 88.9892, 0, 0, 1.31907, -54.2264, 1.31863, -174.064, 1.31102, 65.9153, 0.011115, 60.6644
1, 300.00000, 121.667, -31.1525, 121.707, -150.99, 122.414, 88.9892, 0, 0, 1.31907, -54.2264, 1.31863, -174.064, 1.31102, 65.9153, 0.011115, 60.6644
1, 360.00000, 121.667, -31.1525, 121.707, -150.99, 122.414, 88.9892, 0, 0, 1.31907, -54.2264, 1.31863, -174.064, 1.31102, 65.9153, 0.011115, 60.6644
1, 420.00000, 121.667, -31.1525, 121.707, -150.99, 122.414, 88.9892, 0, 0, 1.31907, -54.2264, 1.31863, -174.064, 1.31102, 65.9153, 0.011115, 60.6644
1, 480.00000, 121.667, -31.1525, 121.707, -150.99, 122.414, 88.9892, 0, 0, 1.31907, -54.2264, 1.31863, -174.064, 1.31102, 65.9153, 0.011115, 60.6644
1, 540.00000, 121.667, -31.1525, 121.707, -150.99, 122.414, 88.9892, 0, 0, 1.31907, -54.2264, 1.31863, -174.064, 1.31102, 65.9153, 0.011115, 60.6644
1, 600.00000, 121.667, -31.1525, 121.707, -150.99, 122.414, 88.9892, 0, 0, 1.31907, -54.2264, 1.31863, -174.064, 1.31102, 65.9153, 0.011115, 60.6644
1, 660.00000, 121.667, -31.1525, 121.707, -150.99, 122.414, 88.9892, 0, 0, 1.31907, -54.2264, 1.31863, -174.064, 1.31102, 65.9153, 0.011115, 60.6644
1, 720.00000, 121.667, -31.1525, 121.707, -150.99, 122.414, 88.9892, 0, 0, 1.31907, -54.2264, 1.31863, -174.064, 1.31102, 65.9153, 0.011115, 60.6644
1, 780.00000, 121.667, -31.1525, 121.707, -150.99, 122.414, 88.9892, 0, 0, 1.31907, -54.2264, 1.31863, -174.064, 1.31102, 65.9153, 0.011115, 60.6644
1, 840.00000, 121.667, -31.1525, 121.707, -150.99, 122.414, 88.9892, 0, 0, 1.31907, -54.2264, 1.31863, -174.064, 1.31102, 65.9153, 0.011115, 60.6644
1, 900.00000, 121.667, -31.1525, 121.707, -150.99, 122.414, 88.9892, 0, 0, 1.31907, -54.2264, 1.31863, -174.064, 1.31102, 65.9153, 0.011115, 60.6644
1, 960.00000, 121.691, -31.1479, 121.731, -150.986, 122.439, 88.9942, 0, 0, 1.29725, -54.2223, 1.29684, -174.06, 1.28936, 65.9199, 0.0109171, 60.5401
1, 1020.00000, 121.691, -31.1478, 121.731, -150.986, 122.44, 88.9943, 0, 0, 1.29724, -54.2217, 1.29683, -174.06, 1.28932, 65.9203, 0.0109332, 60.5325
1, 1080.00000, 121.691, -31.1478, 121.731, -150.986, 122.44, 88.9943, 0, 0, 1.29724, -54.2217, 1.29683, -174.06, 1.28932, 65.9203, 0.0109337, 60.5323
1, 1140.00000, 121.691, -31.1478, 121.731, -150.986, 122.44, 88.9943, 0, 0, 1.29724, -54.2217, 1.29683, -174.06, 1.28932, 65.9203, 0.0109337, 60.5323
1, 1200.00000, 121.691, -31.1478, 121.731, -150.986, 122.44, 88.9943, 0, 0, 1.29724, -54.2217, 1.29683, -174.06, 1.28932, 65.9203, 0.0109337, 60.5323
1, 1260.00000, 121.691, -31.1478, 121.731, -150.986, 122.44, 88.9943, 0, 0, 1.29724, -54.2217, 1.29683, -174.06, 1.28932, 65.9203, 0.0109337, 60.5323
1, 1320.00000, 121.691, -31.1478, 121.731, -150.986, 122.44, 88.9943, 0, 0, 1.29724, -54.2217, 1.29683, -174.06, 1.28932, 65.9203, 0.0109337, 60.5323
1, 1380.00000, 121.691, -31.1478, 121.731, -150.986, 122.44, 88.9943, 0, 0, 1.29724, -54.2217, 1.29683, -174.06, 1.28932, 65.9203, 0.0109337, 60.5323
1, 1440.00000, 121.691, -31.1478, 121.731, -150.986, 122.44, 88.9943, 0, 0, 1.29724, -54.2217, 1.29683, -174.06, 1.28932, 65.9203, 0.0109337, 60.5323
1, 1500.00000, 121.691, -31.1478, 121.731, -150.986, 122.44, 88.9943, 0, 0, 1.29724, -54.2217, 1.29683, -174.06, 1.28932, 65.9203, 0.0109337, 60.5323
1, 1560.00000, 121.691, -31.1478, 121.731, -150.986, 122.44, 88.9943, 0, 0, 1.29724, -54.2217, 1.29683, -174.06, 1.28932, 65.9203, 0.0109337, 60.5323
1, 1620.00000, 121.691, -31.1478, 121.731, -150.986, 122.44, 88.9943, 0, 0, 1.29724, -54.2217, 1.29683, -174.06, 1.28932, 65.9203, 0.0109337, 60.5323
1, 1680.00000, 121.691, -31.1478, 121.731, -150.986, 122.44, 88.9943, 0, 0, 1.29724, -54.2217, 1.29683, -174.06, 1.28932, 65.9203, 0.0109337, 60.5323
1, 1740.00000, 121.691, -31.1478, 121.731, -150.986, 122.44, 88.9943, 0, 0, 1.29724, -54.2217, 1.29683, -174.06, 1.28932, 65.9203, 0.0109337, 60.5323
1, 1800.00000, 121.691, -31.1478, 121.731, -150.986, 122.44, 88.9943, 0, 0, 1.29724, -54.2217, 1.29683, -174.06, 1.28932, 65.9203, 0.0109337, 60.5323
1, 1860.00000, 121.491, -31.1729, 121.54, -151.006, 122.234, 88.9675, 0, 0, 1.2189, -54.2465, 1.2184, -174.08, 1.21146, 65.8938, 0.0102874, 61.507
1, 1920.00000, 121.491, -31.1729, 121.54, -151.006, 122.234, 88.9674, 0, 0, 1.2189, -54.2468, 1.2184, -174.08, 1.21149, 65.8935, 0.0102673, 61.514
1, 1980.00000, 121.491, -31.1729, 121.54, -151.006, 122.234, 88.9674, 0, 0, 1.2189, -54.2468, 1.2184, -174.08, 1.21149, 65.8935, 0.0102669, 61.5142
1, 2040.00000, 121.491, -31.1729, 121.54, -151.006, 122.234, 88.9674, 0, 0, 1.2189, -54.2468, 1.2184, -174.08, 1.21149, 65.8935, 0.0102669, 61.5142
1, 2100.00000, 121.491, -31.1729, 121.54, -151.006, 122.234, 88.9674, 0, 0, 1.2189, -54.2468, 1.2184, -174.08, 1.21149, 65.8935, 0.0102669, 61.5142
1, 2160.00000, 121.491, -31.1729, 121.54, -151.006, 122.234, 88.9674, 0, 0, 1.2189, -54.2468, 1.2184, -174.08, 1.21149, 65.8935, 0.0102669, 61.5142
1, 2220.00000, 121.491, -31.1729, 121.54, -151.006, 122.234, 88.9674, 0, 0, 1.2189, -54.2468, 1.2184, -174.08, 1.21149, 65.8935, 0.0102669, 61.5142
1, 2280.00000, 121.491, -31.1729, 121.54, -151.006, 122.234, 88.9674, 0, 0, 1.2189, -54.2468, 1.2184, -174.08, 1.21149, 65.8935, 0.0102669, 61.5142
1, 2340.00000, 121.491, -31.1729, 121.54, -151.006, 122.234, 88.9674, 0, 0, 1.2189, -54.2468, 1.2184, -174.08, 1.21149, 65.8935, 0.0102669, 61.5142
1, 2400.00000, 121.491, -31.1729, 121.54, -151.006, 122.234, 88.9674, 0, 0, 1.2189, -54.2468, 1.2184, -174.08, 1.21149, 65.8935, 0.0102669, 61.5142
1, 2460.00000, 121.491, -31.1729, 121.54, -151.006, 122.234, 88.9674, 0, 0, 1.2189, -54.2468, 1.2184, -174.08, 1.21149, 65.8935, 0.0102669, 61.5142
1, 2520.00000, 121.491, -31.1729, 121.54, -151.006, 122.234, 88.9674, 0, 0, 1.2189, -54.2468, 1.2184, -174.08, 1.21149, 65.8935, 0.0102669, 61.5142
1, 2580.00000, 121.491, -31.1729, 121.54, -151.006, 122.234, 88.9674, 0, 0, 1.2189, -54.2468, 1.2184, -174.08, 1.21149, 65.8935, 0.0102669, 61.5142
1, 2640.00000, 121.491, -31.1729, 121.54, -151.006, 122.234, 88.9674, 0, 0, 1.2189, -54.2468, 1.2184, -174.08, 1.21149, 65.8935, 0.0102669, 61.5142
1, 2700.00000, 121.491, -31.1729, 121.54, -151.006, 122.234, 88.9674, 0, 0, 1.2189, -54.2468, 1.2184, -174.08, 1.21149, 65.8935, 0.0102669, 61.5142
1, 2760.00000, 121.888, -31.1224, 121.925, -150.964, 122.637, 89.0238, 0, 0, 1.2093, -54.1968, 1.20895, -174.037, 1.20197, 65.9492, 0.0101323, 59.7357
1, 2820.00000, 121.888, -31.1224, 121.925, -150.964, 122.638, 89.0239, 0, 0, 1.2093, -54.1963, 1.20893, -174.038, 1.20191, 65.95, 0.0101626, 59.7741
1, 2880.00000, 121.888, -31.1224, 121.925, -150.964, 122.638, 89.0239, 0, 0, 1.2093, -54.1963, 1.20893, -174.038, 1.20191, 65.95, 0.0101633, 59.7749
1, 2940.00000, 121.888, -31.1224, 121.925, -150.964, 122.638, 89.0239, 0, 0, 1.2093, -54.1963, 1.20893, -174.038, 1.20191, 65.95, 0.0101633, 59.775
1, 3000.00000, 121.888, -31.1224, 121.925, -150.964, 122.638, 89.0239, 0, 0, 1.2093, -54.1963, 1.20893, -174.038, 1.20191, 65.95, 0.0101633, 59.775
1, 3060.00000, 121.888, -31.1224, 121.925, -150.964, 122.638, 89.0239, 0, 0, 1.2093, -54.1963, 1.20893, -174.038, 1.20191, 65.95, 0.0101633, 59.775
1, 3120.00000, 121.888, -31.1224, 121.925, -150.964, 122.638, 89.0239, 0, 0, 1.2093, -54.1963, 1.20893, -174.038, 1.20191, 65.95, 0.0101633, 59.775
1, 3180.00000, 121.888, -31.1224, 121.925, -150.964, 122.638, 89.0239, 0, 0, 1.2093, -54.1963, 1.20893, -174.038, 1.20191, 65.95, 0.0101633, 59.775
1, 3240.00000, 121.888, -31.1224, 121.925, -150.964, 122.638, 89.0239, 0, 0, 1.2093, -54.1963, 1.20893, -174.038, 1.20191, 65.95, 0.0101633, 59.775
1, 3300.00000, 121.888, -31.1224, 121.925, -150.964, 122.638, 89.0239, 0, 0, 1.2093, -54.1963, 1.20893, -174.038, 1.20191, 65.95, 0.0101633, 59.775
1, 3360.00000, 121.888, -31.1224, 121.925, -150.964, 122.638, 89.0239, 0, 0, 1.2093, -54.1963, 1.20893, -174.038, 1.20191, 65.95, 0.0101633, 59.775
1, 3420.00000, 121.888, -31.1224, 121.925, -150.964, 122.638, 89.0239, 0, 0, 1.2093, -54.1963, 1.20893, -174.038, 1.20191, 65.95, 0.0101633, 59.775
1, 3480.00000, 121.888, -31.1224, 121.925, -150.964, 122.638, 89.0239, 0, 0, 1.2093, -54.1963, 1.20893, -174.038, 1.20191, 65.95, 0.0101633, 59.775
1, 3540.00000, 121.888, -31.1224, 121.925, -150.964, 122.638, 89.0239, 0, 0, 1.2093, -54.1963, 1.20893, -174.038, 1.20191, 65.95, 0.0101633, 59.775
2, 0.00000, 121.888, -31.1224, 121.925, -150.964, 122.638, 89.0239, 0, 0, 1.2093, -54.1963, 1.20893, -174.038, 1.20191, 65.95, 0.0101633, 59.775
2, 60.00000, 121.64, -31.152, 121.683, -150.989, 122.389, 88.99, 0, 0, 1.26966, -54.2256, 1.26921, -174.063, 1.26186, 65.9164, 0.010732, 60.7473
2, 120.00000, 121.641, -31.152, 121.683, -150.989, 122.389, 88.9899, 0, 0, 1.26966, -54.2259, 1.26922, -174.063, 1.26189, 65.916, 0.0107096, 60.7441
2, 180.00000, 121.641, -31.152, 121.683, -150.989, 122.389, 88.9899, 0, 0, 1.26966, -54.2259, 1.26922, -174.063, 1.26189, 65.916, 0.0107091, 60.7442
2, 240.00000, 121.641, -31.152, 121.683, -150.989, 122.389, 88.9899, 0, 0, 1.26966, -54.2259, 1.26922, -174.063, 1.26189, 65.916, 0.0107091, 60.7442
2, 300.00000, 121.641, -31.152, 121.683, -150.989, 122.389, 88.9899, 0, 0, 1.26966, -54.2259, 1.26922, -174.063, 1.26189, 65.916, 0.0107091, 60.7442
2, 360.00000, 121.641, -31.152, 121.683, -150.989, 122.389, 88.9899, 0, 0, 1.26966, -54.2259, 1.26922, -174.063, 1.26189, 65.916, 0.0107091, 60.7442
2, 420.00000, 121.641, -31.152, 121.683, -150.989, 122.389, 88.9899, 0, 0, 1.26966, -54.2259, 1.26922, -174.063, 1.26189, 65.916, 0.0107091, 60.7442
2, 480.00000, 121.641, -31.152, 121.683, -150.989, 122.389, 88.9899, 0, 0, 1.26966, -54.2259, 1.26922, -174.063, 1.26189, 65.916, 0.0107091, 60.7442
2, 540.00000, 121.641, -31.152, 121.683, -150.989, 122.389, 88.9899, 0, 0, 1.26966, -54.2259, 1.26922, -174.063, 1.26189, 65.916, 0.0107091, 60.7442
2, 600.00000, 121.641, -31.152, 121.683, -150.989, 122.389, 88.9899, 0, 0, 1.26966, -54.2259, 1.26922, -174.063, 1.26189, 65.916, 0.0107091, 60.7442
2, 660.00000, 121.641, -31.152, 121.683, -150.989, 122.389, 88.9899, 0, 0, 1.26966, -54.2259, 1.26922, -174.063, 1.26189, 65.916, 0.0107091, 60.7442
2, 720.00000, 121.641, -31.152, 121.683, -150.989, 122.389, 88.9899, 0, 0, 1.26966, -54.2259, 1.26922, -174.063, 1.26189, 65.916, 0.0107091, 60.7442
2, 780.00000, 121.641, -31.152, 121.683, -150.989, 122.389, 88.9899, 0, 0, 1.26966, -54.2259, 1.26922, -174.063, 1.26189, 65.916, 0.0107091, 60.7442
