hour,t(sec),V1,VAngle1,V2,VAngle2,V3,VAngle3,V4,VAngle4,I1,IAngle1,I2,IAngle2,I3,IAngle3,I4,IAngle4
0, 60.00000, 121.747, -31.815, 121.307, -151.324, 122.943, 88.6251, 0, 0, 10.1976, -54.8885, 10.2345, -174.398, 10.0983, 65.5515, 0.204479, 46.4533
0, 120.00000, 121.747, -31.815, 121.307, -151.324, 122.943, 88.6251, 0, 0, 10.1977, -54.8889, 10.2346, -174.398, 10.0985, 65.5512, 0.204453, 46.4474
0, 180.00000, 121.747, -31.815, 121.307, -151.324, 122.943, 88.6251, 0, 0, 10.1977, -54.8889, 10.2346, -174.398, 10.0985, 65.5512, 0.204452, 46.4473
0, 240.00000, 121.747, -31.815, 121.307, -151.324, 122.943, 88.6251, 0, 0, 10.1977, -54.8889, 10.2346, -174.398, 10.0985, 65.5512, 0.204452, 46.4473
0, 300.00000, 121.747, -31.815, 121.307, -151.324, 122.943, 88.6251, 0, 0, 10.1977, -54.8889, 10.2346, -174.398, 10.0985, 65.5512, 0.204452, 46.4473
0, 360.00000, 121.747, -31.815, 121.307, -151.324, 122.943, 88.6251, 0, 0, 10.1977, -54.8889, 10.2346, -174.398, 10.0985, 65.5512, 0.204452, 46.4473
0, 420.00000, 121.747, -31.815, 121.307, -151.324, 122.943, 88.6251, 0, 0, 10.1977, -54.8889, 10.2346, -174.398, 10.0985, 65.5512, 0.204452, 46.4473
0, 480.00000, 122.443, -31.6894, 121.961, -151.205, 123.617, 88.7645, 0, 0, 8.82159, -54.7641, 8.8565, -174.278, 8.73811, 65.69, 0.17716, 44.8695
0, 540.00000, 122.443, -31.6893, 121.961, -151.205, 123.617, 88.7646, 0, 0, 8.82155, -54.7633, 8.85645, -174.278, 8.73776, 65.6907, 0.177332, 44.8717
0, 600.00000, 122.443, -31.6893, 121.961, -151.205, 123.617, 88.7646, 0, 0, 8.82155, -54.7633, 8.85645, -174.278, 8.73776, 65.6907, 0.177335, 44.8717
0, 660.00000, 122.443, -31.6893, 121.961, -151.205, 123.617, 88.7646, 0, 0, 8.82155, -54.7633, 8.85645, -174.278, 8.73776, 65.6907, 0.177335, 44.8717
0, 720.00000, 122.443, -31.6893, 121.961, -151.205, 123.617, 88.7646, 0, 0, 8.82155, -54.7633, 8.85645, -174.278, 8.73776, 65.6907, 0.177335, 44.8717
0, 780.00000, 122.443, -31.6893, 121.961, -151.205, 123.617, 88.7646, 0, 0, 8.82155, -54.7633, 8.85645, -174.278, 8.73776, 65.6907, 0.177335, 44.8717
0, 840.00000, 122.443, -31.6893, 121.961, -151.205, 123.617, 88.7646, 0, 0, 8.82155, -54.7633, 8.85645, -174.278, 8.73776, 65.6907, 0.177335, 44.8717
0, 900.00000, 122.443, -31.6893, 121.961, -151.205, 123.617, 88.7646, 0, 0, 8.82155, -54.7633, 8.85645, -174.278, 8.73776, 65.6907, 0.177335, 44.8717
0, 960.00000, 122.443, -31.6893, 121.961, -151.205, 123.617, 88.7646, 0, 0, 8.82155, -54.7633, 8.85645, -174.278, 8.73776, 65.6907, 0.177335, 44.8717
0, 1020.00000, 122.443, -31.6893, 121.961, -151.205, 123.617, 88.7646, 0, 0, 8.82155, -54.7633, 8.85645, -174.278, 8.73776, 65.6907, 0.177335, 44.8717
0, 1080.00000, 122.443, -31.6893, 121.961, -151.205, 123.617, 88.7646, 0, 0, 8.82155, -54.7633, 8.85645, -174.278, 8.73776, 65.6907, 0.177335, 44.8717
0, 1140.00000, 122.443, -31.6893, 121.961, -151.205, 123.617, 88.7646, 0, 0, 8.82155, -54.7633, 8.85645, -174.278, 8.73776, 65.6907, 0.177335, 44.8717
0, 1200.00000, 122.443, -31.6893, 121.961, -151.205, 123.617, 88.7646, 0, 0, 8.82155, -54.7633, 8.85645, -174.278, 8.73776, 65.6907, 0.177335, 44.8717
0, 1260.00000, 122.443, -31.6893, 121.961, -151.205, 123.617, 88.7646, 0, 0, 8.82155, -54.7633, 8.85645, -174.278, 8.73776, 65.6907, 0.177335, 44.8717
0, 1320.00000, 122.443, -31.6893, 121.961, -151.205, 123.617, 88.7646, 0, 0, 8.82155, -54.7633, 8.85645, -174.278, 8.73776, 65.6907, 0.177335, 44.8717
0, 1380.00000, 122.443, -31.6893, 121.961, -151.205, 123.617, 88.7646, 0, 0, 8.82155, -54.7633, 8.85645, -174.278, 8.73776, 65.6907, 0.177335, 44.8717
0, 1440.00000, 122.443, -31.6893, 121.961, -151.205, 123.617, 88.7646, 0, 0, 8.82155, -54.7633, 8.85645, -174.278, 8.73776, 65.6907, 0.177335, 44.8717
0, 1500.00000, 122.443, -31.6893, 121.961, -151.205, 123.617, 88.7646, 0, 0, 8.82155, -54.7633, 8.85645, -174.278, 8.73776, 65.6907, 0.177335, 44.8717
0, 1560.00000, 122.443, -31.6893, 121.961, -151.205, 123.617, 88.7646, 0, 0, 8.82155, -54.7633, 8.85645, -174.278, 8.73776, 65.6907, 0.177335, 44.8717
0, 1620.00000, 122.443, -31.6893, 121.961, -151.205, 123.617, 88.7646, 0, 0, 8.82155, -54.7633, 8.85645, -174.278, 8.73776, 65.6907, 0.177335, 44.8717
0, 1680.00000, 122.443, -31.6893, 121.961, -151.205, 123.617, 88.7646, 0, 0, 8.82155, -54.7633, 8.85645, -174.278, 8.73776, 65.6907, 0.177335, 44.8717
0, 1740.00000, 122.443, -31.6893, 121.961, -151.205, 123.617, 88.7646, 0, 0, 8.82155, -54.7633, 8.85645, -174.278, 8.73776, 65.6907, 0.177335, 44.8717
0, 1800.00000, 122.443, -31.6893, 121.961, -151.205, 123.617, 88.7646, 0, 0, 8.82155, -54.7633, 8.85645, -174.278, 8.73776, 65.6907, 0.177335, 44.8717
0, 1860.00000, 122.443, -31.6893, 121.961, -151.205, 123.617, 88.7646, 0, 0, 8.82155, -54.7633, 8.85645, -174.278, 8.73776, 65.6907, 0.177335, 44.8717
0, 1920.00000, 122.443, -31.6893, 121.961, -151.205, 123.617, 88.7646, 0, 0, 8.82155, -54.7633, 8.85645, -174.278, 8.73776, 65.6907, 0.177335, 44.8717
0, 1980.00000, 122.443, -31.6893, 121.961, -151.205, 123.617, 88.7646, 0, 0, 8.82155, -54.7633, 8.85645, -174.278, 8.73776, 65.6907, 0.177335, 44.8717
0, 2040.00000, 122.443, -31.6893, 121.961, -151.205, 123.617, 88.7646, 0, 0, 8.82155, -54.7633, 8.85645, -174.278, 8.73776, 65.6907, 0.177335, 44.8717
0, 2100.00000, 122.443, -31.6893, 121.961, -151.205, 123.617, 88.7646, 0, 0, 8.82155, -54.7633, 8.85645, -174.278, 8.73776, 65.6907, 0.177335, 44.8717
0, 2160.00000, 122.443, -31.6893, 121.961, -151.205, 123.617, 88.7646, 0, 0, 8.82155, -54.7633, 8.85645, -174.278, 8.73776, 65.6907, 0.177335, 44.8717
0, 2220.00000, 122.443, -31.6893, 121.961, -151.205, 123.617, 88.7646, 0, 0, 8.82155, -54.7633, 8.85645, -174.278, 8.73776, 65.6907, 0.177335, 44.8717
0, 2280.00000, 122.443, -31.6893, 121.961, -151.205, 123.617, 88.7646, 0, 0, 8.82155, -54.7633, 8.85645, -174.278, 8.73776, 65.6907, 0.177335, 44.8717
0, 2340.00000, 122.443, -31.6893, 121.961, -151.205, 123.617, 88.7646, 0, 0, 8.82155, -54.7633, 8.85645, -174.278, 8.73776, 65.6907, 0.177335, 44.8717
0, 2400.00000, 122.443, -31.6893, 121.961, -151.205, 123.617, 88.7646, 0, 0, 8.82155, -54.7633, 8.85645, -174.278, 8.73776, 65.6907, 0.177335, 44.8717
0, 2460.00000, 122.443, -31.6893, 121.961, -151.205, 123.617, 88.7646, 0, 0, 8.82155, -54.7633, 8.85645, -174.278, 8.73776, 65.6907, 0.177335, 44.8717
0, 2520.00000, 122.443, -31.6893, 121.961, -151.205, 123.617, 88.7646, 0, 0, 8.82155, -54.7633, 8.85645, -174.278, 8.73776, 65.6907, 0.177335, 44.8717
0, 2580.00000, 122.443, -31.6893, 121.961, -151.205, 123.617, 88.7646, 0, 0, 8.82155, -54.7633, 8.85645, -174.278, 8.73776, 65.6907, 0.177335, 44.8717
0, 2640.00000, 122.443, -31.6893, 121.961, -151.205, 123.617, 88.7646, 0, 0, 8.82155, -54.7633, 8.85645, -174.278, 8.73776, 65.6907, 0.177335, 44.8717
0, 2700.00000, 122.443, -31.6893, 121.961, -151.205, 123.617, 88.7646, 0, 0, 8.82155, -54.7633, 8.85645, -174.278, 8.73776, 65.6907, 0.177335, 44.8717
0, 2760.00000, 122.443, -31.6893, 121.961, -151.205, 123.617, 88.7646, 0, 0, 8.82155, -54.7633, 8.85645, -174.278, 8.73776, 65.6907, 0.177335, 44.8717
0, 2820.00000, 122.443, -31.6893, 121.961, -151.205, 123.617, 88.7646, 0, 0, 8.82155, -54.7633, 8.85645, -174.278, 8.73776, 65.6907, 0.177335, 44.8717
0, 2880.00000, 122.443, -31.6893, 121.961, -151.205, 123.617, 88.7646, 0, 0, 8.82155, -54.7633, 8.85645, -174.278, 8.73776, 65.6907, 0.177335, 44.8717
0, 2940.00000, 122.443, -31.6893, 121.961, -151.205, 123.617, 88.7646, 0, 0, 8.82155, -54.7633, 8.85645, -174.278, 8.73776, 65.6907, 0.177335, 44.8717
0, 3000.00000, 122.443, -31.6893, 121.961, -151.205, 123.617, 88.7646, 0, 0, 8.82155, -54.7633, 8.85645, -174.278, 8.73776, 65.6907, 0.177335, 44.8717
0, 3060.00000, 122.443, -31.6893, 121.961, -151.205, 123.617, 88.7646, 0, 0, 8.82155, -54.7633, 8.85645, -174.278, 8.73776, 65.6907, 0.177335, 44.8717
0, 3120.00000, 122.443, -31.6893, 121.961, -151.205, 123.617, 88.7646, 0, 0, 8.82155, -54.7633, 8.85645, -174.278, 8.73776, 65.6907, 0.177335, 44.8717
0, 3180.00000, 122.443, -31.6893, 121.961, -151.205, 123.617, 88.7646, 0, 0, 8.82155, -54.7633, 8.85645, -174.278, 8.73776, 65.6907, 0.177335, 44.8717
0, 3240.00000, 122.443, -31.6893, 121.961, -151.205, 123.617, 88.7646, 0, 0, 8.82155, -54.7633, 8.85645, -174.278, 8.73776, 65.6907, 0.177335, 44.8717
0, 3300.00000, 122.443, -31.6893, 121.961, -151.205, 123.617, 88.7646, 0, 0, 8.82155, -54.7633, 8.85645, -174.278, 8.73776, 65.6907, 0.177335, 44.8717
0, 3360.00000, 122.443, -31.6893, 121.961, -151.205, 123.617, 88.7646, 0, 0, 8.82155, -54.7633, 8.85645, -174.278, 8.73776, 65.6907, 0.177335, 44.8717
0, 3420.00000, 122.443, -31.6893, 121.961, -151.205, 123.617, 88.7646, 0, 0, 8.82155, -54.7633, 8.85645, -174.278, 8.73776, 65.6907, 0.177335, 44.8717
0, 3480.00000, 122.443, -31.6893, 121.961, -151.205, 123.617, 88.7646, 0, 0, 8.82155, -54.7633, 8.85645, -174.278, 8.73776, 65.6907, 0.177335, 44.8717
0, 3540.00000, 122.443, -31.6893, 121.961, -151.205, 123.617, 88.7646, 0, 0, 8.82155, -54.7633, 8.85645, -174.278, 8.73776, 65.6907, 0.177335, 44.8717
1, 0.00000, 122.443, -31.6893, 121.961, -151.205, 123.617, 88.7646, 0, 0, 8.82155, -54.7633, 8.85645, -174.278, 8.73776, 65.6907, 0.177335, 44.8717
1, 60.00000, 122.533, -31.56, 122.255, -151.171, 123.615, 88.7654, 0, 0, 8.81514, -54.634, 8.83519, -174.246, 8.73789, 65.6915, 0.143979, 50.5249
1, 120.00000, 122.533, -31.56, 122.255, -151.171, 123.615, 88.7653, 0, 0, 8.81511, -54.6339, 8.83511, -174.245, 8.73791, 65.6914, 0.143909, 50.5492
1, 180.00000, 122.533, -31.56, 122.255, -151.171, 123.615, 88.7653, 0, 0, 8.81511, -54.6339, 8.83511, -174.245, 8.73791, 65.6914, 0.143909, 50.5493
1, 240.00000, 122.533, -31.56, 122.255, -151.171, 123.615, 88.7653, 0, 0, 8.81511, -54.6339, 8.83511, -174.245, 8.73791, 65.6914, 0.143909, 50.5493
1, 300.00000, 122.533, -31.56, 122.255, -151.171, 123.615, 88.7653, 0, 0, 8.81511, -54.6339, 8.83511, -174.245, 8.73791, 65.6914, 0.143909, 50.5493
1, 360.00000, 122.533, -31.56, 122.255, -151.171, 123.615, 88.7653, 0, 0, 8.81511, -54.6339, 8.83511, -174.245, 8.73791, 65.6914, 0.143909, 50.5493
1, 420.00000, 122.533, -31.56, 122.255, -151.171, 123.615, 88.7653, 0, 0, 8.81511, -54.6339, 8.83511, -174.245, 8.73791, 65.6914, 0.143909, 50.5493
1, 480.00000, 122.533, -31.56, 122.255, -151.171, 123.615, 88.7653, 0, 0, 8.81511, -54.6339, 8.83511, -174.245, 8.73791, 65.6914, 0.143909, 50.5493
1, 540.00000, 122.533, -31.56, 122.255, -151.171, 123.615, 88.7653, 0, 0, 8.81511, -54.6339, 8.83511, -174.245, 8.73791, 65.6914, 0.143909, 50.5493
1, 600.00000, 122.533, -31.56, 122.255, -151.171, 123.615, 88.7653, 0, 0, 8.81511, -54.6339, 8.83511, -174.245, 8.73791, 65.6914, 0.143909, 50.5493
1, 660.00000, 122.533, -31.56, 122.255, -151.171, 123.615, 88.7653, 0, 0, 8.81511, -54.6339, 8.83511, -174.245, 8.73791, 65.6914, 0.143909, 50.5493
1, 720.00000, 122.533, -31.56, 122.255, -151.171, 123.615, 88.7653, 0, 0, 8.81511, -54.6339, 8.83511, -174.245, 8.73791, 65.6914, 0.143909, 50.5493
1, 780.00000, 122.533, -31.56, 122.255, -151.171, 123.615, 88.7653, 0, 0, 8.81511, -54.6339, 8.83511, -174.245, 8.73791, 65.6914, 0.143909, 50.5493
1, 840.00000, 122.533, -31.56, 122.255, -151.171, 123.615, 88.7653, 0, 0, 8.81511, -54.6339, 8.83511, -174.245, 8.73791, 65.6914, 0.143909, 50.5493
1, 900.00000, 122.533, -31.56, 122.255, -151.171, 123.615, 88.7653, 0, 0, 8.81511, -54.6339, 8.83511, -174.245, 8.73791, 65.6914, 0.143909, 50.5493
1, 960.00000, 122.533, -31.56, 122.255, -151.171, 123.615, 88.7653, 0, 0, 8.81511, -54.6339, 8.83511, -174.245, 8.73791, 65.6914, 0.143909, 50.5493
1, 1020.00000, 122.533, -31.56, 122.255, -151.171, 123.615, 88.7653, 0, 0, 8.81511, -54.6339, 8.83511, -174.245, 8.73791, 65.6914, 0.143909, 50.5493
1, 1080.00000, 122.533, -31.56, 122.255, -151.171, 123.615, 88.7653, 0, 0, 8.81511, -54.6339, 8.83511, -174.245, 8.73791, 65.6914, 0.143909, 50.5493
1, 1140.00000, 122.533, -31.56, 122.255, -151.171, 123.615, 88.7653, 0, 0, 8.81511, -54.6339, 8.83511, -174.245, 8.73791, 65.6914, 0.143909, 50.5493
1, 1200.00000, 122.533, -31.56, 122.255, -151.171, 123.615, 88.7653, 0, 0, 8.81511, -54.6339, 8.83511, -174.245, 8.73791, 65.6914, 0.143909, 50.5493
1, 1260.00000, 122.533, -31.56, 122.255, -151.171, 123.615, 88.7653, 0, 0, 8.81511, -54.6339, 8.83511, -174.245, 8.73791, 65.6914, 0.143909, 50.5493
1, 1320.00000, 122.533, -31.56, 122.255, -151.171, 123.615, 88.7653, 0, 0, 8.81511, -54.6339, 8.83511, -174.245, 8.73791, 65.6914, 0.143909, 50.5493
1, 1380.00000, 122.533, -31.56, 122.255, -151.171, 123.615, 88.7653, 0, 0, 8.81511, -54.6339, 8.83511, -174.245, 8.73791, 65.6914, 0.143909, 50.5493
1, 1440.00000, 122.533, -31.56, 122.255, -151.171, 123.615, 88.7653, 0, 0, 8.81511, -54.6339, 8.83511, -174.245, 8.73791, 65.6914, 0.143909, 50.5493
1, 1500.00000, 122.533, -31.56, 122.255, -151.171, 123.615, 88.7653, 0, 0, 8.81511, -54.6339, 8.83511, -174.245, 8.73791, 65.6914, 0.143909, 50.5493
1, 1560.00000, 122.533, -31.56, 122.255, -151.171, 123.615, 88.7653, 0, 0, 8.81511, -54.6339, 8.83511, -174.245, 8.73791, 65.6914, 0.143909, 50.5493
1, 1620.00000, 122.533, -31.56, 122.255, -151.171, 123.615, 88.7653, 0, 0, 8.81511, -54.6339, 8.83511, -174.245, 8.73791, 65.6914, 0.143909, 50.5493
1, 1680.00000, 122.533, -31.56, 122.255, -151.171, 123.615, 88.7653, 0, 0, 8.81511, -54.6339, 8.83511, -174.245, 8.73791, 65.6914, 0.143909, 50.5493
1, 1740.00000, 122.533, -31.56, 122.255, -151.171, 123.615, 88.7653, 0, 0, 8.81511, -54.6339, 8.83511, -174.245, 8.73791, 65.6914, 0.143909, 50.5493
1, 1800.00000, 122.533, -31.56, 122.255, -151.171, 123.615, 88.7653, 0, 0, 8.81511, -54.6339, 8.83511, -174.245, 8.73791, 65.6914, 0.143909, 50.5493
1, 1860.00000, 122.533, -31.56, 122.255, -151.171, 123.615, 88.7653, 0, 0, 8.81511, -54.6339, 8.83511, -174.245, 8.73791, 65.6914, 0.143909, 50.5493
1, 1920.00000, 122.533, -31.56, 122.255, -151.171, 123.615, 88.7653, 0, 0, 8.81511, -54.6339, 8.83511, -174.245, 8.73791, 65.6914, 0.143909, 50.5493
1, 1980.00000, 122.533, -31.56, 122.255, -151.171, 123.615, 88.7653, 0, 0, 8.81511, -54.6339, 8.83511, -174.245, 8.73791, 65.6914, 0.143909, 50.5493
1, 2040.00000, 122.533, -31.56, 122.255, -151.171, 123.615, 88.7653, 0, 0, 8.81511, -54.6339, 8.83511, -174.245, 8.73791, 65.6914, 0.143909, 50.5493
1, 2100.00000, 122.533, -31.56, 122.255, -151.171, 123.615, 88.7653, 0, 0, 8.81511, -54.6339, 8.83511, -174.245, 8.73791, 65.6914, 0.143909, 50.5493
1, 2160.00000, 122.533, -31.56, 122.255, -151.171, 123.615, 88.7653, 0, 0, 8.81511, -54.6339, 8.83511, -174.245, 8.73791, 65.6914, 0.143909, 50.5493
1, 2220.00000, 122.533, -31.56, 122.255, -151.171, 123.615, 88.7653, 0, 0, 8.81511, -54.6339, 8.83511, -174.245, 8.73791, 65.6914, 0.143909, 50.5493
1, 2280.00000, 122.533, -31.56, 122.255, -151.171, 123.615, 88.7653, 0, 0, 8.81511, -54.6339, 8.83511, -174.245, 8.73791, 65.6914, 0.143909, 50.5493
1, 2340.00000, 122.533, -31.56, 122.255, -151.171, 123.615, 88.7653, 0, 0, 8.81511, -54.6339, 8.83511, -174.245, 8.73791, 65.6914, 0.143909, 50.5493
1, 2400.00000, 122.533, -31.56, 122.255, -151.171, 123.615, 88.7653, 0, 0, 8.81511, -54.6339, 8.83511, -174.245, 8.73791, 65.6914, 0.143909, 50.5493
1, 2460.00000, 122.533, -31.56, 122.255, -151.171, 123.615, 88.7653, 0, 0, 8.81511, -54.6339, 8.83511, -174.245, 8.73791, 65.6914, 0.143909, 50.5493
1, 2520.00000, 122.533, -31.56, 122.255, -151.171, 123.615, 88.7653, 0, 0, 8.81511, -54.6339, 8.83511, -174.245, 8.73791, 65.6914, 0.143909, 50.5493
1, 2580.00000, 122.533, -31.56, 122.255, -151.171, 123.615, 88.7653, 0, 0, 8.81511, -54.6339, 8.83511, -174.245, 8.73791, 65.6914, 0.143909, 50.5493
1, 2640.00000, 122.533, -31.56, 122.255, -151.171, 123.615, 88.7653, 0, 0, 8.81511, -54.6339, 8.83511, -174.245, 8.73791, 65.6914, 0.143909, 50.5493
1, 2700.00000, 122.533, -31.56, 122.255, -151.171, 123.615, 88.7653, 0, 0, 8.81511, -54.6339, 8.83511, -174.245, 8.73791, 65.6914, 0.143909, 50.5493
1, 2760.00000, 122.533, -31.56, 122.255, -151.171, 123.615, 88.7653, 0, 0, 8.81511, -54.6339, 8.83511, -174.245, 8.73791, 65.6914, 0.143909, 50.5493
1, 2820.00000, 122.533, -31.56, 122.255, -151.171, 123.615, 88.7653, 0, 0, 8.81511, -54.6339, 8.83511, -174.245, 8.73791, 65.6914, 0.143909, 50.5493
1, 2880.00000, 122.533, -31.56, 122.255, -151.171, 123.615, 88.7653, 0, 0, 8.81511, -54.6339, 8.83511, -174.245, 8.73791, 65.6914, 0.143909, 50.5493
1, 2940.00000, 122.533, -31.56, 122.255, -151.171, 123.615, 88.7653, 0, 0, 8.81511, -54.6339, 8.83511, -174.245, 8.73791, 65.6914, 0.143909, 50.5493
1, 3000.00000, 122.533, -31.56, 122.255, -151.171, 123.615, 88.7653, 0, 0, 8.81511, -54.6339, 8.83511, -174.245, 8.73791, 65.6914, 0.143909, 50.5493
1, 3060.00000, 122.533, -31.56, 122.255, -151.171, 123.615, 88.7653, 0, 0, 8.81511, -54.6339, 8.83511, -174.245, 8.73791, 65.6914, 0.143909, 50.5493
1, 3120.00000, 122.533, -31.56, 122.255, -151.171, 123.615, 88.7653, 0, 0, 8.81511, -54.6339, 8.83511, -174.245, 8.73791, 65.6914, 0.143909, 50.5493
1, 3180.00000, 122.533, -31.56, 122.255, -151.171, 123.615, 88.7653, 0, 0, 8.81511, -54.6339, 8.83511, -174.245, 8.73791, 65.6914, 0.143909, 50.5493
1, 3240.00000, 122.533, -31.56, 122.255, -151.171, 123.615, 88.7653, 0, 0, 8.81511, -54.6339, 8.83511, -174.245, 8.73791, 65.6914, 0.143909, 50.5493
1, 3300.00000, 122.533, -31.56, 122.255, -151.171, 123.615, 88.7653, 0, 0, 8.81511, -54.6339, 8.83511, -174.245, 8.73791, 65.6914, 0.143909, 50.5493
1, 3360.00000, 122.533, -31.56, 122.255, -151.171, 123.615, 88.7653, 0, 0, 8.81511, -54.6339, 8.83511, -174.245, 8.73791, 65.6914, 0.143909, 50.5493
1, 3420.00000, 122.533, -31.56, 122.255, -151.171, 123.615, 88.7653, 0, 0, 8.81511, -54.6339, 8.83511, -174.245, 8.73791, 65.6914, 0.143909, 50.5493
1, 3480.00000, 122.533, -31.56, 122.255, -151.171, 123.615, 88.7653, 0, 0, 8.81511, -54.6339, 8.83511, -174.245, 8.73791, 65.6914, 0.143909, 50.5493
1, 3540.00000, 122.533, -31.56, 122.255, -151.171, 123.615, 88.7653, 0, 0, 8.81511, -54.6339, 8.83511, -174.245, 8.73791, 65.6914, 0.143909, 50.5493
2, 0.00000, 122.533, -31.56, 122.255, -151.171, 123.615, 88.7653, 0, 0, 8.81511, -54.6339, 8.83511, -174.245, 8.73791, 65.6914, 0.143909, 50.5493
2, 60.00000, 122.533, -31.56, 122.255, -151.171, 123.615, 88.7653, 0, 0, 8.81511, -54.6339, 8.83511, -174.245, 8.73791, 65.6914, 0.143909, 50.5493
2, 120.00000, 122.533, -31.56, 122.255, -151.171, 123.615, 88.7653, 0, 0, 8.81511, -54.6339, 8.83511, -174.245, 8.73791, 65.6914, 0.143909, 50.5493
2, 180.00000, 122.533, -31.56, 122.255, -151.171, 123.615, 88.7653, 0, 0, 8.81511, -54.6339, 8.83511, -174.245, 8.73791, 65.6914, 0.143909, 50.5493
2, 240.00000, 122.533, -31.56, 122.255, -151.171, 123.615, 88.7653, 0, 0, 8.81511, -54.6339, 8.83511, -174.245, 8.73791, 65.6914, 0.143909, 50.5493
2, 300.00000, 122.533, -31.56, 122.255, -151.171, 123.615, 88.7653, 0, 0, 8.81511, -54.6339, 8.83511, -174.245, 8.73791, 65.6914, 0.143909, 50.5493
2, 360.00000, 122.533, -31.56, 122.255, -151.171, 123.615, 88.7653, 0, 0, 8.81511, -54.6339, 8.83511, -174.245, 8.73791, 65.6914, 0.143909, 50.5493
2, 420.00000, 122.533, -31.56, 122.255, -151.171, 123.615, 88.7653, 0, 0, 8.81511, -54.6339, 8.83511, -174.245, 8.73791, 65.6914, 0.143909, 50.5493
2, 480.00000, 122.533, -31.56, 122.255, -151.171, 123.615, 88.7653, 0, 0, 8.81511, -54.6339, 8.83511, -174.245, 8.73791, 65.6914, 0.143909, 50.5493
2, 540.00000, 122.533, -31.56, 122.255, -151.171, 123.615, 88.7653, 0, 0, 8.81511, -54.6339, 8.83511, -174.245, 8.73791, 65.6914, 0.143909, 50.5493
2, 600.00000, 122.533, -31.56, 122.255, -151.171, 123.615, 88.7653, 0, 0, 8.81511, -54.6339, 8.83511, -174.245, 8.73791, 65.6914, 0.143909, 50.5493
2, 660.00000, 122.533, -31.56, 122.255, -151.171, 123.615, 88.7653, 0, 0, 8.81511, -54.6339, 8.83511, -174.245, 8.73791, 65.6914, 0.143909, 50.5493
2, 720.00000, 122.533, -31.56, 122.255, -151.171, 123.615, 88.7653, 0, 0, 8.81511, -54.6339, 8.83511, -174.245, 8.73791, 65.6914, 0.143909, 50.5493
2, 780.00000, 122.533, -31.56, 122.255, -151.171, 123.615, 88.7653, 0, 0, 8.81511, -54.6339, 8.83511, -174.245, 8.73791, 65.6914, 0.143909, 50.5493
