hour,t(sec),V1,VAngle1,V2,VAngle2,V3,VAngle3,V4,VAngle4,I1,IAngle1,I2,IAngle2,I3,IAngle3,I4,IAngle4
0, 60.00000, 120.844, -31.9613, 121.409, -151.556, 122.429, 88.0427, 0, 0, 7.56007, -55.0351, 7.52488, -174.63, 7.46235, 64.9689, 0.138289, 89.1815
0, 120.00000, 120.85, -31.9682, 121.408, -151.556, 122.447, 88.0418, 0, 0, 7.55966, -55.042, 7.52491, -174.63, 7.46124, 64.968, 0.139535, 88.624
0, 180.00000, 120.856, -31.9744, 121.408, -151.556, 122.463, 88.041, 0, 0, 7.55929, -55.0482, 7.52493, -174.63, 7.46024, 64.9672, 0.140668, 88.1312
0, 240.00000, 120.861, -31.98, 121.407, -151.557, 122.478, 88.0403, 0, 0, 7.55896, -55.0538, 7.52495, -174.63, 7.45934, 64.9665, 0.141698, 87.6949
0, 300.00000, 120.866, -31.985, 121.407, -151.557, 122.491, 88.0397, 0, 0, 7.55866, -55.0588, 7.52497, -174.63, 7.45853, 64.9658, 0.142633, 87.3078
0, 360.00000, 120.87, -31.9895, 121.407, -151.557, 122.503, 88.0391, 0, 0, 7.5584, -55.0633, 7.52499, -174.631, 7.4578, 64.9652, 0.143482, 86.9638
0, 420.00000, 120.874, -31.9936, 121.407, -151.557, 122.513, 88.0386, 0, 0, 7.55816, -55.0674, 7.52501, -174.631, 7.45714, 64.9647, 0.144253, 86.6569
0, 480.00000, 121.689, -31.8937, 122.155, -151.454, 123.288, 88.1658, 0, 0, 6.53161, -54.9675, 6.50666, -174.528, 6.44696, 65.0919, 0.122072, 84.1868
0, 540.00000, 121.692, -31.897, 122.155, -151.454, 123.297, 88.1654, 0, 0, 6.53145, -54.9708, 6.50667, -174.528, 6.44648, 65.0915, 0.122653, 83.9405
0, 600.00000, 121.695, -31.9, 122.155, -151.454, 123.305, 88.1651, 0, 0, 6.5313, -54.9738, 6.50668, -174.528, 6.44604, 65.0912, 0.12318, 83.7202
0, 660.00000, 121.697, -31.9026, 122.155, -151.454, 123.313, 88.1648, 0, 0, 6.53116, -54.9765, 6.50669, -174.528, 6.44565, 65.0909, 0.123656, 83.5237
0, 720.00000, 121.699, -31.9051, 122.155, -151.454, 123.319, 88.1645, 0, 0, 6.53104, -54.9789, 6.5067, -174.528, 6.4453, 65.0906, 0.124085, 83.3482
0, 780.00000, 121.701, -31.9072, 122.154, -151.455, 123.325, 88.1642, 0, 0, 6.53093, -54.9811, 6.50671, -174.528, 6.44498, 65.0903, 0.124473, 83.1913
0, 840.00000, 121.703, -31.9092, 122.154, -151.455, 123.331, 88.164, 0, 0, 6.53083, -54.9831, 6.50672, -174.529, 6.44469, 65.0901, 0.124823, 83.051
0, 900.00000, 121.705, -31.9109, 122.154, -151.455, 123.336, 88.1638, 0, 0, 6.53075, -54.9848, 6.50673, -174.529, 6.44444, 65.0899, 0.125139, 82.9255
0, 960.00000, 121.288, -32.223, 121.332, -151.464, 123.386, 88.1528, 0, 0, 6.55322, -55.2969, 6.5508, -174.538, 6.4418, 65.0789, 0.185268, 65.8606
0, 1020.00000, 121.289, -32.2245, 121.332, -151.464, 123.39, 88.1526, 0, 0, 6.55315, -55.2984, 6.5508, -174.538, 6.4416, 65.0787, 0.185578, 65.8193
0, 1080.00000, 121.29, -32.2257, 121.332, -151.464, 123.393, 88.1525, 0, 0, 6.55308, -55.2996, 6.55081, -174.538, 6.44141, 65.0786, 0.185856, 65.7821
0, 1140.00000, 121.552, -32.0524, 121.809, -151.467, 123.364, 88.1565, 0, 0, 6.53896, -55.1263, 6.52515, -174.541, 6.44294, 65.0826, 0.148362, 73.4352
0, 1200.00000, 121.553, -32.0535, 121.809, -151.467, 123.367, 88.1564, 0, 0, 6.53891, -55.1274, 6.52515, -174.541, 6.44279, 65.0825, 0.148572, 73.3865
0, 1260.00000, 121.554, -32.0544, 121.809, -151.467, 123.369, 88.1563, 0, 0, 6.53886, -55.1283, 6.52516, -174.541, 6.44266, 65.0824, 0.148762, 73.3428
0, 1320.00000, 121.555, -32.0552, 121.809, -151.467, 123.372, 88.1562, 0, 0, 6.53882, -55.1292, 6.52516, -174.541, 6.44253, 65.0823, 0.148933, 73.3036
0, 1380.00000, 121.555, -32.056, 121.809, -151.467, 123.374, 88.1561, 0, 0, 6.53878, -55.1299, 6.52516, -174.541, 6.44242, 65.0822, 0.149087, 73.2684
0, 1440.00000, 121.556, -32.0567, 121.809, -151.467, 123.376, 88.156, 0, 0, 6.53875, -55.1306, 6.52516, -174.541, 6.44232, 65.0821, 0.149226, 73.2368
0, 1500.00000, 121.556, -32.0573, 121.809, -151.467, 123.377, 88.1559, 0, 0, 6.53872, -55.1312, 6.52517, -174.541, 6.44223, 65.082, 0.149351, 73.2084
0, 1560.00000, 121.557, -32.0578, 121.809, -151.467, 123.379, 88.1559, 0, 0, 6.53869, -55.1318, 6.52517, -174.541, 6.44215, 65.0819, 0.149463, 73.1829
0, 1620.00000, 121.557, -32.0583, 121.809, -151.467, 123.38, 88.1558, 0, 0, 6.53867, -55.1323, 6.52517, -174.541, 6.44208, 65.0819, 0.149564, 73.16
0, 1680.00000, 121.558, -32.0588, 121.809, -151.467, 123.381, 88.1557, 0, 0, 6.53865, -55.1327, 6.52517, -174.541, 6.44202, 65.0818, 0.149655, 73.1394
0, 1740.00000, 121.558, -32.0592, 121.809, -151.467, 123.383, 88.1557, 0, 0, 6.53863, -55.1331, 6.52517, -174.541, 6.44196, 65.0818, 0.149737, 73.1208
0, 1800.00000, 121.204, -32.0778, 121.818, -151.465, 123.2, 88.0157, 0, 0, 6.55772, -55.1517, 6.52469, -174.539, 6.45151, 64.9418, 0.159084, 84.41
0, 1860.00000, 121.205, -32.0781, 121.818, -151.465, 123.201, 88.0156, 0, 0, 6.5577, -55.152, 6.52469, -174.539, 6.45147, 64.9417, 0.159139, 84.3919
0, 1920.00000, 121.205, -32.0784, 121.818, -151.465, 123.201, 88.0156, 0, 0, 6.55769, -55.1523, 6.52469, -174.539, 6.45143, 64.9417, 0.159189, 84.3755
0, 1980.00000, 121.205, -32.0787, 121.818, -151.465, 123.202, 88.0156, 0, 0, 6.55767, -55.1526, 6.52469, -174.539, 6.45139, 64.9417, 0.159234, 84.3608
0, 2040.00000, 121.205, -32.0789, 121.818, -151.465, 123.203, 88.0155, 0, 0, 6.55766, -55.1528, 6.52469, -174.539, 6.45136, 64.9416, 0.159275, 84.3475
0, 2100.00000, 121.206, -32.0791, 121.818, -151.465, 123.203, 88.0155, 0, 0, 6.55765, -55.153, 6.52469, -174.539, 6.45133, 64.9416, 0.159311, 84.3356
0, 2160.00000, 121.206, -32.0793, 121.818, -151.465, 123.204, 88.0155, 0, 0, 6.55764, -55.1532, 6.5247, -174.539, 6.4513, 64.9416, 0.159344, 84.3249
0, 2220.00000, 121.206, -32.0795, 121.818, -151.465, 123.204, 88.0155, 0, 0, 6.55763, -55.1534, 6.5247, -174.539, 6.45128, 64.9416, 0.159373, 84.3152
0, 2280.00000, 121.206, -32.0796, 121.818, -151.465, 123.205, 88.0154, 0, 0, 6.55763, -55.1535, 6.5247, -174.539, 6.45125, 64.9415, 0.1594, 84.3065
0, 2340.00000, 121.206, -32.0798, 121.818, -151.465, 123.205, 88.0154, 0, 0, 6.55762, -55.1537, 6.5247, -174.539, 6.45123, 64.9415, 0.159424, 84.2987
0, 2400.00000, 121.206, -32.0799, 121.818, -151.465, 123.205, 88.0154, 0, 0, 6.55761, -55.1538, 6.5247, -174.539, 6.45122, 64.9415, 0.159445, 84.2917
0, 2460.00000, 121.206, -32.08, 121.818, -151.465, 123.206, 88.0154, 0, 0, 6.55761, -55.1539, 6.5247, -174.539, 6.4512, 64.9415, 0.159465, 84.2854
0, 2520.00000, 121.206, -32.0801, 121.818, -151.465, 123.206, 88.0154, 0, 0, 6.5576, -55.154, 6.5247, -174.539, 6.45119, 64.9415, 0.159482, 84.2797
0, 2580.00000, 121.207, -32.0802, 121.818, -151.465, 123.206, 88.0154, 0, 0, 6.5576, -55.1541, 6.5247, -174.539, 6.45117, 64.9415, 0.159498, 84.2746
0, 2640.00000, 121.207, -32.0803, 121.818, -151.465, 123.206, 88.0154, 0, 0, 6.55759, -55.1542, 6.5247, -174.539, 6.45116, 64.9415, 0.159512, 84.27
0, 2700.00000, 121.207, -32.0803, 121.818, -151.466, 123.207, 88.0154, 0, 0, 6.55759, -55.1543, 6.5247, -174.539, 6.45115, 64.9414, 0.159525, 84.2658
0, 2760.00000, 122.009, -32.133, 121.807, -151.466, 123.736, 88.2872, 0, 0, 6.51449, -55.2069, 6.52528, -174.54, 6.42353, 65.2133, 0.163132, 58.4333
0, 2820.00000, 122.009, -32.1331, 121.807, -151.466, 123.736, 88.2872, 0, 0, 6.51449, -55.207, 6.52528, -174.54, 6.42352, 65.2133, 0.163148, 58.4313
0, 2880.00000, 122.009, -32.1331, 121.807, -151.466, 123.737, 88.2872, 0, 0, 6.51448, -55.207, 6.52528, -174.54, 6.42351, 65.2133, 0.16316, 58.4301
0, 2940.00000, 122.009, -32.1332, 121.807, -151.466, 123.737, 88.2872, 0, 0, 6.51448, -55.2071, 6.52528, -174.54, 6.42351, 65.2133, 0.163171, 58.4291
0, 3000.00000, 122.009, -32.1332, 121.807, -151.466, 123.737, 88.2872, 0, 0, 6.51448, -55.2071, 6.52528, -174.54, 6.4235, 65.2133, 0.163181, 58.4281
0, 3060.00000, 122.009, -32.1333, 121.807, -151.466, 123.737, 88.2872, 0, 0, 6.51448, -55.2072, 6.52528, -174.54, 6.42349, 65.2133, 0.163189, 58.4272
0, 3120.00000, 122.009, -32.1333, 121.807, -151.466, 123.737, 88.2872, 0, 0, 6.51448, -55.2072, 6.52528, -174.54, 6.42349, 65.2133, 0.163197, 58.4265
0, 3180.00000, 122.009, -32.1333, 121.807, -151.466, 123.737, 88.2872, 0, 0, 6.51447, -55.2072, 6.52528, -174.54, 6.42349, 65.2133, 0.163204, 58.4258
0, 3240.00000, 122.009, -32.1334, 121.807, -151.466, 123.737, 88.2872, 0, 0, 6.51447, -55.2073, 6.52528, -174.54, 6.42348, 65.2132, 0.163211, 58.4252
0, 3300.00000, 122.009, -32.1334, 121.807, -151.466, 123.737, 88.2872, 0, 0, 6.51447, -55.2073, 6.52528, -174.54, 6.42348, 65.2132, 0.163216, 58.4246
0, 3360.00000, 122.009, -32.1334, 121.807, -151.466, 123.737, 88.2872, 0, 0, 6.51447, -55.2073, 6.52528, -174.54, 6.42347, 65.2132, 0.163221, 58.4241
0, 3420.00000, 122.009, -32.1334, 121.807, -151.466, 123.737, 88.2872, 0, 0, 6.51447, -55.2073, 6.52528, -174.54, 6.42347, 65.2132, 0.163226, 58.4236
0, 3480.00000, 122.009, -32.1334, 121.807, -151.466, 123.737, 88.2872, 0, 0, 6.51447, -55.2074, 6.52528, -174.54, 6.42347, 65.2132, 0.16323, 58.4232
0, 3540.00000, 122.009, -32.1335, 121.807, -151.466, 123.738, 88.2872, 0, 0, 6.51447, -55.2074, 6.52528, -174.54, 6.42347, 65.2132, 0.163234, 58.4228
1, 0.00000, 122.009, -32.1335, 121.807, -151.466, 123.738, 88.2872, 0, 0, 6.51447, -55.2074, 6.52528, -174.54, 6.42346, 65.2132, 0.163237, 58.4225
1, 60.00000, 122.26, -31.964, 122.27, -151.471, 123.707, 88.2919, 0, 0, 6.50109, -55.0379, 6.50055, -174.545, 6.42506, 65.218, 0.124137, 64.9387
1, 120.00000, 122.26, -31.964, 122.27, -151.471, 123.707, 88.2919, 0, 0, 6.50109, -55.0379, 6.50055, -174.545, 6.42506, 65.218, 0.12414, 64.9383
1, 180.00000, 122.26, -31.964, 122.27, -151.471, 123.707, 88.2919, 0, 0, 6.50109, -55.0379, 6.50055, -174.545, 6.42506, 65.218, 0.124142, 64.9378
1, 240.00000, 122.26, -31.964, 122.27, -151.471, 123.707, 88.2919, 0, 0, 6.50109, -55.0379, 6.50055, -174.545, 6.42506, 65.218, 0.124144, 64.9374
1, 300.00000, 122.26, -31.964, 122.27, -151.471, 123.707, 88.2919, 0, 0, 6.50109, -55.0379, 6.50055, -174.545, 6.42506, 65.218, 0.124146, 64.9371
1, 360.00000, 122.26, -31.964, 122.27, -151.471, 123.707, 88.2919, 0, 0, 6.50109, -55.0379, 6.50055, -174.545, 6.42505, 65.218, 0.124148, 64.9367
1, 420.00000, 122.26, -31.964, 122.27, -151.471, 123.707, 88.2919, 0, 0, 6.50109, -55.0379, 6.50055, -174.545, 6.42505, 65.218, 0.124149, 64.9364
1, 480.00000, 122.26, -31.964, 122.27, -151.471, 123.707, 88.2919, 0, 0, 6.50109, -55.038, 6.50055, -174.545, 6.42505, 65.218, 0.124151, 64.9362
1, 540.00000, 122.26, -31.964, 122.27, -151.471, 123.707, 88.2919, 0, 0, 6.50109, -55.038, 6.50055, -174.545, 6.42505, 65.218, 0.124152, 64.936
1, 600.00000, 122.26, -31.964, 122.27, -151.471, 123.707, 88.2919, 0, 0, 6.50109, -55.038, 6.50055, -174.545, 6.42505, 65.218, 0.124153, 64.9357
1, 660.00000, 122.26, -31.9641, 122.27, -151.471, 123.707, 88.2919, 0, 0, 6.50109, -55.038, 6.50055, -174.545, 6.42505, 65.218, 0.124154, 64.9355
1, 720.00000, 122.26, -31.9641, 122.27, -151.471, 123.707, 88.2919, 0, 0, 6.50109, -55.038, 6.50055, -174.545, 6.42505, 65.218, 0.124155, 64.9354
1, 780.00000, 122.26, -31.964, 122.356, -151.351, 124.027, 88.3283, 0, 0, 6.50111, -55.0379, 6.49599, -174.425, 6.40847, 65.2544, 0.150307, 67.5525
1, 840.00000, 122.26, -31.964, 122.356, -151.351, 124.027, 88.3283, 0, 0, 6.50111, -55.0379, 6.49599, -174.425, 6.40846, 65.2544, 0.150309, 67.552
1, 900.00000, 122.26, -31.964, 122.356, -151.351, 124.027, 88.3283, 0, 0, 6.50111, -55.0379, 6.49599, -174.425, 6.40846, 65.2544, 0.15031, 67.5518
1, 960.00000, 122.26, -31.964, 122.356, -151.351, 124.027, 88.3283, 0, 0, 6.50111, -55.0379, 6.49599, -174.425, 6.40846, 65.2544, 0.15031, 67.5517
1, 1020.00000, 122.26, -31.964, 122.356, -151.351, 124.027, 88.3283, 0, 0, 6.50111, -55.0379, 6.49599, -174.425, 6.40846, 65.2544, 0.150311, 67.5516
1, 1080.00000, 122.26, -31.964, 122.356, -151.351, 124.027, 88.3283, 0, 0, 6.50111, -55.0379, 6.49599, -174.425, 6.40846, 65.2544, 0.150311, 67.5516
1, 1140.00000, 122.26, -31.964, 122.356, -151.351, 124.027, 88.3283, 0, 0, 6.50111, -55.0379, 6.49599, -174.425, 6.40846, 65.2544, 0.150312, 67.5515
1, 1200.00000, 122.26, -31.964, 122.356, -151.351, 124.027, 88.3283, 0, 0, 6.50111, -55.0379, 6.49599, -174.425, 6.40846, 65.2544, 0.150312, 67.5514
1, 1260.00000, 122.26, -31.964, 122.356, -151.351, 124.027, 88.3283, 0, 0, 6.50111, -55.0379, 6.49599, -174.425, 6.40846, 65.2544, 0.150313, 67.5513
1, 1320.00000, 122.26, -31.964, 122.356, -151.351, 124.027, 88.3283, 0, 0, 6.50111, -55.0379, 6.49599, -174.425, 6.40846, 65.2544, 0.150313, 67.5513
1, 1380.00000, 122.26, -31.964, 122.356, -151.351, 124.027, 88.3283, 0, 0, 6.50111, -55.0379, 6.49599, -174.425, 6.40846, 65.2544, 0.150313, 67.5512
1, 1440.00000, 122.26, -31.964, 122.356, -151.351, 124.027, 88.3283, 0, 0, 6.50111, -55.038, 6.49599, -174.425, 6.40846, 65.2544, 0.150313, 67.5512
1, 1500.00000, 122.26, -31.964, 122.356, -151.351, 124.027, 88.3283, 0, 0, 6.50111, -55.038, 6.49599, -174.425, 6.40846, 65.2544, 0.150314, 67.5512
1, 1560.00000, 122.26, -31.964, 122.356, -151.351, 124.027, 88.3283, 0, 0, 6.50111, -55.038, 6.49599, -174.425, 6.40846, 65.2544, 0.150314, 67.5511
1, 1620.00000, 122.26, -31.964, 122.356, -151.351, 124.027, 88.3283, 0, 0, 6.50111, -55.038, 6.49599, -174.425, 6.40846, 65.2544, 0.150314, 67.5511
1, 1680.00000, 122.26, -31.964, 122.356, -151.351, 124.027, 88.3283, 0, 0, 6.5011, -55.038, 6.49599, -174.425, 6.40846, 65.2544, 0.150314, 67.5511
1, 1740.00000, 122.26, -31.964, 122.356, -151.351, 124.027, 88.3283, 0, 0, 6.5011, -55.038, 6.49599, -174.425, 6.40846, 65.2544, 0.150314, 67.551
1, 1800.00000, 122.26, -31.964, 122.356, -151.351, 124.027, 88.3283, 0, 0, 6.5011, -55.038, 6.49599, -174.425, 6.40846, 65.2544, 0.150315, 67.551
1, 1860.00000, 122.26, -31.964, 122.356, -151.351, 124.027, 88.3283, 0, 0, 6.5011, -55.038, 6.49599, -174.425, 6.40846, 65.2544, 0.150315, 67.551
1, 1920.00000, 122.26, -31.964, 122.356, -151.351, 124.027, 88.3283, 0, 0, 6.5011, -55.038, 6.49599, -174.425, 6.40846, 65.2544, 0.150315, 67.551
1, 1980.00000, 122.26, -31.964, 122.356, -151.351, 124.027, 88.3283, 0, 0, 6.5011, -55.038, 6.49599, -174.425, 6.40846, 65.2544, 0.150315, 67.5509
1, 2040.00000, 122.26, -31.964, 122.356, -151.351, 124.027, 88.3283, 0, 0, 6.5011, -55.038, 6.49599, -174.425, 6.40846, 65.2544, 0.150315, 67.5509
1, 2100.00000, 122.26, -31.964, 122.356, -151.351, 124.027, 88.3283, 0, 0, 6.5011, -55.038, 6.49599, -174.425, 6.40846, 65.2544, 0.150315, 67.5509
1, 2160.00000, 122.26, -31.964, 122.356, -151.351, 124.027, 88.3283, 0, 0, 6.5011, -55.038, 6.49599, -174.425, 6.40846, 65.2544, 0.150315, 67.5509
1, 2220.00000, 122.612, -31.9446, 122.344, -151.353, 124.218, 88.4684, 0, 0, 6.48242, -55.0185, 6.49661, -174.427, 6.39862, 65.3944, 0.150959, 55.6064
1, 2280.00000, 122.612, -31.9446, 122.344, -151.353, 124.218, 88.4684, 0, 0, 6.48242, -55.0185, 6.49661, -174.427, 6.39861, 65.3944, 0.150961, 55.6061
1, 2340.00000, 122.612, -31.9446, 122.344, -151.353, 124.218, 88.4684, 0, 0, 6.48242, -55.0185, 6.49661, -174.427, 6.39861, 65.3944, 0.150961, 55.6061
1, 2400.00000, 122.612, -31.9446, 122.344, -151.353, 124.218, 88.4684, 0, 0, 6.48242, -55.0185, 6.49661, -174.427, 6.39861, 65.3944, 0.150961, 55.6061
1, 2460.00000, 122.612, -31.9446, 122.344, -151.353, 124.218, 88.4684, 0, 0, 6.48242, -55.0185, 6.49661, -174.427, 6.39861, 65.3944, 0.150961, 55.6061
1, 2520.00000, 122.612, -31.9446, 122.344, -151.353, 124.218, 88.4684, 0, 0, 6.48242, -55.0185, 6.49661, -174.427, 6.39861, 65.3944, 0.150961, 55.6061
1, 2580.00000, 122.612, -31.9446, 122.344, -151.353, 124.218, 88.4684, 0, 0, 6.48242, -55.0185, 6.49661, -174.427, 6.39861, 65.3944, 0.150961, 55.6061
1, 2640.00000, 122.612, -31.9446, 122.344, -151.353, 124.218, 88.4684, 0, 0, 6.48242, -55.0185, 6.49661, -174.427, 6.39861, 65.3944, 0.150961, 55.6061
1, 2700.00000, 122.612, -31.9446, 122.344, -151.353, 124.218, 88.4684, 0, 0, 6.48242, -55.0185, 6.49661, -174.427, 6.39861, 65.3944, 0.150961, 55.6061
1, 2760.00000, 122.612, -31.9446, 122.344, -151.353, 124.218, 88.4684, 0, 0, 6.48242, -55.0185, 6.49661, -174.427, 6.39861, 65.3944, 0.150961, 55.6061
1, 2820.00000, 122.612, -31.9446, 122.344, -151.353, 124.218, 88.4684, 0, 0, 6.48242, -55.0185, 6.49661, -174.427, 6.39861, 65.3944, 0.150961, 55.6061
1, 2880.00000, 122.612, -31.9446, 122.344, -151.353, 124.218, 88.4684, 0, 0, 6.48242, -55.0185, 6.49661, -174.427, 6.39861, 65.3944, 0.150962, 55.6061
1, 2940.00000, 122.612, -31.9446, 122.344, -151.353, 124.218, 88.4684, 0, 0, 6.48242, -55.0185, 6.49661, -174.427, 6.39861, 65.3944, 0.150962, 55.6061
1, 3000.00000, 122.612, -31.9446, 122.344, -151.353, 124.218, 88.4684, 0, 0, 6.48242, -55.0185, 6.49661, -174.427, 6.39861, 65.3944, 0.150962, 55.6061
1, 3060.00000, 122.612, -31.9446, 122.344, -151.353, 124.218, 88.4684, 0, 0, 6.48242, -55.0185, 6.49661, -174.427, 6.39861, 65.3944, 0.150962, 55.6061
1, 3120.00000, 122.612, -31.9446, 122.344, -151.353, 124.218, 88.4684, 0, 0, 6.48242, -55.0185, 6.49661, -174.427, 6.39861, 65.3944, 0.150962, 55.6061
1, 3180.00000, 122.612, -31.9446, 122.344, -151.353, 124.218, 88.4684, 0, 0, 6.48242, -55.0185, 6.49661, -174.427, 6.39861, 65.3944, 0.150962, 55.6061
1, 3240.00000, 122.612, -31.9446, 122.344, -151.353, 124.218, 88.4684, 0, 0, 6.48242, -55.0185, 6.49661, -174.427, 6.39861, 65.3944, 0.150962, 55.6061
1, 3300.00000, 122.612, -31.9446, 122.344, -151.353, 124.218, 88.4684, 0, 0, 6.48242, -55.0185, 6.49661, -174.427, 6.39861, 65.3944, 0.150962, 55.6061
1, 3360.00000, 122.612, -31.9446, 122.344, -151.353, 124.218, 88.4684, 0, 0, 6.48242, -55.0185, 6.49661, -174.427, 6.39861, 65.3944, 0.150962, 55.6061
1, 3420.00000, 122.612, -31.9446, 122.344, -151.353, 124.218, 88.4684, 0, 0, 6.48242, -55.0185, 6.49661, -174.427, 6.39861, 65.3944, 0.150962, 55.6061
1, 3480.00000, 122.612, -31.9446, 122.344, -151.353, 124.218, 88.4684, 0, 0, 6.48242, -55.0185, 6.49661, -174.427, 6.39861, 65.3944, 0.150962, 55.6061
1, 3540.00000, 122.612, -31.9446, 122.344, -151.353, 124.218, 88.4684, 0, 0, 6.48242, -55.0185, 6.49661, -174.427, 6.39861, 65.3944, 0.150962, 55.6061
2, 0.00000, 122.612, -31.9446, 122.344, -151.353, 124.218, 88.4684, 0, 0, 6.48242, -55.0185, 6.49661, -174.427, 6.39861, 65.3944, 0.150962, 55.6061
2, 60.00000, 122.612, -31.9446, 122.344, -151.353, 124.218, 88.4684, 0, 0, 6.48242, -55.0185, 6.49661, -174.427, 6.39861, 65.3944, 0.150962, 55.6061
2, 120.00000, 122.612, -31.9446, 122.344, -151.353, 124.218, 88.4684, 0, 0, 6.48242, -55.0185, 6.49661, -174.427, 6.39861, 65.3944, 0.150962, 55.6061
2, 180.00000, 122.612, -31.9446, 122.344, -151.353, 124.218, 88.4684, 0, 0, 6.48242, -55.0185, 6.49661, -174.427, 6.39861, 65.3944, 0.150962, 55.6061
2, 240.00000, 122.612, -31.9446, 122.344, -151.353, 124.218, 88.4684, 0, 0, 6.48242, -55.0185, 6.49661, -174.427, 6.39861, 65.3944, 0.150962, 55.6061
2, 300.00000, 122.612, -31.9446, 122.344, -151.353, 124.218, 88.4684, 0, 0, 6.48242, -55.0185, 6.49661, -174.427, 6.39861, 65.3944, 0.150962, 55.6061
2, 360.00000, 122.612, -31.9446, 122.344, -151.353, 124.218, 88.4684, 0, 0, 6.48242, -55.0185, 6.49661, -174.427, 6.39861, 65.3944, 0.150962, 55.6061
2, 420.00000, 122.612, -31.9446, 122.344, -151.353, 124.218, 88.4684, 0, 0, 6.48242, -55.0185, 6.49661, -174.427, 6.39861, 65.3944, 0.150962, 55.6061
2, 480.00000, 122.612, -31.9446, 122.344, -151.353, 124.218, 88.4684, 0, 0, 6.48242, -55.0185, 6.49661, -174.427, 6.39861, 65.3944, 0.150962, 55.6061
2, 540.00000, 122.612, -31.9446, 122.344, -151.353, 124.218, 88.4684, 0, 0, 6.48242, -55.0185, 6.49661, -174.427, 6.39861, 65.3944, 0.150962, 55.6061
2, 600.00000, 122.612, -31.9446, 122.344, -151.353, 124.218, 88.4684, 0, 0, 6.48242, -55.0185, 6.49661, -174.427, 6.39861, 65.3944, 0.150962, 55.6061
2, 660.00000, 122.612, -31.9446, 122.344, -151.353, 124.218, 88.4684, 0, 0, 6.48242, -55.0185, 6.49661, -174.427, 6.39861, 65.3944, 0.150962, 55.6061
2, 720.00000, 122.612, -31.9446, 122.344, -151.353, 124.218, 88.4684, 0, 0, 6.48242, -55.0185, 6.49661, -174.427, 6.39861, 65.3944, 0.150962, 55.6061
2, 780.00000, 122.612, -31.9446, 122.344, -151.353, 124.218, 88.4684, 0, 0, 6.48242, -55.0185, 6.49661, -174.427, 6.39861, 65.3944, 0.150962, 55.6061
