hour,t(sec),V1,VAngle1,V2,VAngle2,V3,VAngle3,V4,VAngle4,I1,IAngle1,I2,IAngle2,I3,IAngle3,I4,IAngle4
0, 60.00000, 121.018, -31.2266, 120.982, -151.02, 121.798, 88.9708, 0, 0, 6.4794, -54.3, 6.48135, -174.094, 6.43776, 65.8974, 0.0640085, 54.7442
0, 120.00000, 121.018, -31.2266, 120.981, -151.02, 121.798, 88.9708, 0, 0, 6.47946, -54.3005, 6.48144, -174.094, 6.438, 65.8969, 0.0639022, 54.7344
0, 180.00000, 121.018, -31.2266, 120.981, -151.02, 121.798, 88.9708, 0, 0, 6.47946, -54.3005, 6.48144, -174.094, 6.43801, 65.8969, 0.0639001, 54.7345
0, 240.00000, 121.018, -31.2266, 120.981, -151.02, 121.798, 88.9708, 0, 0, 6.47946, -54.3005, 6.48144, -174.094, 6.43801, 65.8969, 0.0639, 54.7345
0, 300.00000, 121.018, -31.2266, 120.981, -151.02, 121.798, 88.9708, 0, 0, 6.47946, -54.3005, 6.48144, -174.094, 6.43801, 65.8969, 0.0639, 54.7345
0, 360.00000, 121.018, -31.2266, 120.981, -151.02, 121.798, 88.9708, 0, 0, 6.47946, -54.3005, 6.48144, -174.094, 6.43801, 65.8969, 0.0639, 54.7345
0, 420.00000, 121.018, -31.2266, 120.981, -151.02, 121.798, 88.9708, 0, 0, 6.47946, -54.3005, 6.48144, -174.094, 6.43801, 65.8969, 0.0639, 54.7345
0, 480.00000, 121.018, -31.2266, 120.981, -151.02, 121.798, 88.9708, 0, 0, 6.47946, -54.3005, 6.48144, -174.094, 6.43801, 65.8969, 0.0639, 54.7345
0, 540.00000, 121.018, -31.2266, 120.981, -151.02, 121.798, 88.9708, 0, 0, 6.47946, -54.3005, 6.48144, -174.094, 6.43801, 65.8969, 0.0639, 54.7345
0, 600.00000, 121.018, -31.2266, 120.981, -151.02, 121.798, 88.9708, 0, 0, 6.47946, -54.3005, 6.48144, -174.094, 6.43801, 65.8969, 0.0639, 54.7345
0, 660.00000, 121.018, -31.2266, 120.981, -151.02, 121.798, 88.9708, 0, 0, 6.47946, -54.3005, 6.48144, -174.094, 6.43801, 65.8969, 0.0639, 54.7345
0, 720.00000, 121.018, -31.2266, 120.981, -151.02, 121.798, 88.9708, 0, 0, 6.47946, -54.3005, 6.48144, -174.094, 6.43801, 65.8969, 0.0639, 54.7345
0, 780.00000, 121.018, -31.2266, 120.981, -151.02, 121.798, 88.9708, 0, 0, 6.47946, -54.3005, 6.48144, -174.094, 6.43801, 65.8969, 0.0639, 54.7345
0, 840.00000, 121.018, -31.2266, 120.981, -151.02, 121.798, 88.9708, 0, 0, 6.47946, -54.3005, 6.48144, -174.094, 6.43801, 65.8969, 0.0639, 54.7345
0, 900.00000, 121.018, -31.2266, 120.981, -151.02, 121.798, 88.9708, 0, 0, 6.47946, -54.3005, 6.48144, -174.094, 6.43801, 65.8969, 0.0639, 54.7345
0, 960.00000, 120.842, -31.2558, 120.814, -151.047, 121.63, 88.9398, 0, 0, 6.86444, -54.3296, 6.86599, -174.121, 6.81991, 65.866, 0.0680318, 55.4333
0, 1020.00000, 120.842, -31.2558, 120.814, -151.047, 121.63, 88.9398, 0, 0, 6.86446, -54.3297, 6.86602, -174.121, 6.81995, 65.8659, 0.0680291, 55.4316
0, 1080.00000, 120.842, -31.2558, 120.814, -151.047, 121.63, 88.9398, 0, 0, 6.86446, -54.3297, 6.86602, -174.121, 6.81995, 65.8659, 0.0680291, 55.4316
0, 1140.00000, 120.842, -31.2558, 120.814, -151.047, 121.63, 88.9398, 0, 0, 6.86446, -54.3297, 6.86602, -174.121, 6.81995, 65.8659, 0.0680291, 55.4316
0, 1200.00000, 120.842, -31.2558, 120.814, -151.047, 121.63, 88.9398, 0, 0, 6.86446, -54.3297, 6.86602, -174.121, 6.81995, 65.8659, 0.0680291, 55.4316
0, 1260.00000, 120.842, -31.2558, 120.814, -151.047, 121.63, 88.9398, 0, 0, 6.86446, -54.3297, 6.86602, -174.121, 6.81995, 65.8659, 0.0680291, 55.4316
0, 1320.00000, 120.842, -31.2558, 120.814, -151.047, 121.63, 88.9398, 0, 0, 6.86446, -54.3297, 6.86602, -174.121, 6.81995, 65.8659, 0.0680291, 55.4316
0, 1380.00000, 120.842, -31.2558, 120.814, -151.047, 121.63, 88.9398, 0, 0, 6.86446, -54.3297, 6.86602, -174.121, 6.81995, 65.8659, 0.0680291, 55.4316
0, 1440.00000, 120.842, -31.2558, 120.814, -151.047, 121.63, 88.9398, 0, 0, 6.86446, -54.3297, 6.86602, -174.121, 6.81995, 65.8659, 0.0680291, 55.4316
0, 1500.00000, 120.842, -31.2558, 120.814, -151.047, 121.63, 88.9398, 0, 0, 6.86446, -54.3297, 6.86602, -174.121, 6.81995, 65.8659, 0.0680291, 55.4316
0, 1560.00000, 120.842, -31.2558, 120.814, -151.047, 121.63, 88.9398, 0, 0, 6.86446, -54.3297, 6.86602, -174.121, 6.81995, 65.8659, 0.0680291, 55.4316
0, 1620.00000, 120.842, -31.2558, 120.814, -151.047, 121.63, 88.9398, 0, 0, 6.86446, -54.3297, 6.86602, -174.121, 6.81995, 65.8659, 0.0680291, 55.4316
0, 1680.00000, 120.842, -31.2558, 120.814, -151.047, 121.63, 88.9398, 0, 0, 6.86446, -54.3297, 6.86602, -174.121, 6.81995, 65.8659, 0.0680291, 55.4316
0, 1740.00000, 120.842, -31.2558, 120.814, -151.047, 121.63, 88.9398, 0, 0, 6.86446, -54.3297, 6.86602, -174.121, 6.81995, 65.8659, 0.0680291, 55.4316
0, 1800.00000, 120.842, -31.2558, 120.814, -151.047, 121.63, 88.9398, 0, 0, 6.86446, -54.3297, 6.86602, -174.121, 6.81995, 65.8659, 0.0680291, 55.4316
0, 1860.00000, 121.008, -31.2394, 120.971, -151.032, 121.785, 88.9581, 0, 0, 6.87619, -54.3144, 6.87832, -174.107, 6.83235, 65.8835, 0.0677634, 54.6799
0, 1920.00000, 121.009, -31.2394, 120.971, -151.032, 121.785, 88.9582, 0, 0, 6.87581, -54.3133, 6.87795, -174.106, 6.83195, 65.8843, 0.0677496, 54.6889
0, 1980.00000, 121.009, -31.2394, 120.971, -151.032, 121.785, 88.9582, 0, 0, 6.8758, -54.3133, 6.87795, -174.106, 6.83195, 65.8843, 0.0677497, 54.6889
0, 2040.00000, 121.009, -31.2394, 120.971, -151.032, 121.785, 88.9582, 0, 0, 6.8758, -54.3133, 6.87795, -174.106, 6.83195, 65.8843, 0.0677497, 54.6889
0, 2100.00000, 121.009, -31.2394, 120.971, -151.032, 121.785, 88.9582, 0, 0, 6.8758, -54.3133, 6.87795, -174.106, 6.83195, 65.8843, 0.0677497, 54.6889
0, 2160.00000, 121.009, -31.2394, 120.971, -151.032, 121.785, 88.9582, 0, 0, 6.8758, -54.3133, 6.87795, -174.106, 6.83195, 65.8843, 0.0677497, 54.6889
0, 2220.00000, 121.009, -31.2394, 120.971, -151.032, 121.785, 88.9582, 0, 0, 6.8758, -54.3133, 6.87795, -174.106, 6.83195, 65.8843, 0.0677497, 54.6889
0, 2280.00000, 121.009, -31.2394, 120.971, -151.032, 121.785, 88.9582, 0, 0, 6.8758, -54.3133, 6.87795, -174.106, 6.83195, 65.8843, 0.0677497, 54.6889
0, 2340.00000, 121.009, -31.2394, 120.971, -151.032, 121.785, 88.9582, 0, 0, 6.8758, -54.3133, 6.87795, -174.106, 6.83195, 65.8843, 0.0677497, 54.6889
0, 2400.00000, 121.009, -31.2394, 120.971, -151.032, 121.785, 88.9582, 0, 0, 6.8758, -54.3133, 6.87795, -174.106, 6.83195, 65.8843, 0.0677497, 54.6889
0, 2460.00000, 121.009, -31.2394, 120.971, -151.032, 121.785, 88.9582, 0, 0, 6.8758, -54.3133, 6.87795, -174.106, 6.83195, 65.8843, 0.0677497, 54.6889
0, 2520.00000, 121.009, -31.2394, 120.971, -151.032, 121.785, 88.9582, 0, 0, 6.8758, -54.3133, 6.87795, -174.106, 6.83195, 65.8843, 0.0677497, 54.6889
0, 2580.00000, 121.009, -31.2394, 120.971, -151.032, 121.785, 88.9582, 0, 0, 6.8758, -54.3133, 6.87795, -174.106, 6.83195, 65.8843, 0.0677497, 54.6889
0, 2640.00000, 121.009, -31.2394, 120.971, -151.032, 121.785, 88.9582, 0, 0, 6.8758, -54.3133, 6.87795, -174.106, 6.83195, 65.8843, 0.0677497, 54.6889
0, 2700.00000, 121.009, -31.2394, 120.971, -151.032, 121.785, 88.9582, 0, 0, 6.8758, -54.3133, 6.87795, -174.106, 6.83195, 65.8843, 0.0677497, 54.6889
0, 2760.00000, 121.294, -31.2007, 121.239, -150.997, 122.06, 89, 0, 0, 6.52452, -54.2749, 6.52746, -174.071, 6.48364, 65.9258, 0.0639449, 53.4377
0, 2820.00000, 121.294, -31.2007, 121.239, -150.997, 122.061, 89, 0, 0, 6.5245, -54.2746, 6.52743, -174.071, 6.48352, 65.9261, 0.0640072, 53.4349
0, 2880.00000, 121.294, -31.2007, 121.239, -150.997, 122.061, 89, 0, 0, 6.5245, -54.2746, 6.52743, -174.071, 6.48351, 65.9261, 0.0640084, 53.4349
0, 2940.00000, 121.294, -31.2007, 121.239, -150.997, 122.061, 89, 0, 0, 6.5245, -54.2746, 6.52743, -174.071, 6.48351, 65.9261, 0.0640084, 53.4349
0, 3000.00000, 121.294, -31.2007, 121.239, -150.997, 122.061, 89, 0, 0, 6.5245, -54.2746, 6.52743, -174.071, 6.48351, 65.9261, 0.0640084, 53.4349
0, 3060.00000, 121.294, -31.2007, 121.239, -150.997, 122.061, 89, 0, 0, 6.5245, -54.2746, 6.52743, -174.071, 6.48351, 65.9261, 0.0640084, 53.4349
0, 3120.00000, 121.294, -31.2007, 121.239, -150.997, 122.061, 89, 0, 0, 6.5245, -54.2746, 6.52743, -174.071, 6.48351, 65.9261, 0.0640084, 53.4349
0, 3180.00000, 121.294, -31.2007, 121.239, -150.997, 122.061, 89, 0, 0, 6.5245, -54.2746, 6.52743, -174.071, 6.48351, 65.9261, 0.0640084, 53.4349
0, 3240.00000, 121.294, -31.2007, 121.239, -150.997, 122.061, 89, 0, 0, 6.5245, -54.2746, 6.52743, -174.071, 6.48351, 65.9261, 0.0640084, 53.4349
0, 3300.00000, 121.294, -31.2007, 121.239, -150.997, 122.061, 89, 0, 0, 6.5245, -54.2746, 6.52743, -174.071, 6.48351, 65.9261, 0.0640084, 53.4349
0, 3360.00000, 121.294, -31.2007, 121.239, -150.997, 122.061, 89, 0, 0, 6.5245, -54.2746, 6.52743, -174.071, 6.48351, 65.9261, 0.0640084, 53.4349
0, 3420.00000, 121.294, -31.2007, 121.239, -150.997, 122.061, 89, 0, 0, 6.5245, -54.2746, 6.52743, -174.071, 6.48351, 65.9261, 0.0640084, 53.4349
0, 3480.00000, 121.294, -31.2007, 121.239, -150.997, 122.061, 89, 0, 0, 6.5245, -54.2746, 6.52743, -174.071, 6.48351, 65.9261, 0.0640084, 53.4349
0, 3540.00000, 121.294, -31.2007, 121.239, -150.997, 122.061, 89, 0, 0, 6.5245, -54.2746, 6.52743, -174.071, 6.48351, 65.9261, 0.0640084, 53.4349
1, 0.00000, 121.294, -31.2007, 121.239, -150.997, 122.061, 89, 0, 0, 6.5245, -54.2746, 6.52743, -174.071, 6.48351, 65.9261, 0.0640084, 53.4349
1, 60.00000, 121.502, -31.173, 121.436, -150.974, 122.268, 89.0302, 0, 0, 6.43721, -54.2473, 6.44071, -174.047, 6.39701, 65.956, 0.0631087, 52.4988
1, 120.00000, 121.502, -31.173, 121.436, -150.974, 122.268, 89.0303, 0, 0, 6.43721, -54.2469, 6.4407, -174.048, 6.39685, 65.9563, 0.0631982, 52.5007
1, 180.00000, 121.502, -31.173, 121.436, -150.974, 122.268, 89.0303, 0, 0, 6.43721, -54.2469, 6.4407, -174.048, 6.39685, 65.9563, 0.0632, 52.5008
1, 240.00000, 121.502, -31.173, 121.436, -150.974, 122.268, 89.0303, 0, 0, 6.43721, -54.2469, 6.4407, -174.048, 6.39685, 65.9563, 0.0632, 52.5008
1, 300.00000, 121.502, -31.173, 121.436, -150.974, 122.268, 89.0303, 0, 0, 6.43721, -54.2469, 6.4407, -174.048, 6.39685, 65.9563, 0.0632, 52.5008
1, 360.00000, 121.502, -31.173, 121.436, -150.974, 122.268, 89.0303, 0, 0, 6.43721, -54.2469, 6.4407, -174.048, 6.39685, 65.9563, 0.0632, 52.5008
1, 420.00000, 121.502, -31.173, 121.436, -150.974, 122.268, 89.0303, 0, 0, 6.43721, -54.2469, 6.4407, -174.048, 6.39685, 65.9563, 0.0632, 52.5008
1, 480.00000, 121.502, -31.173, 121.436, -150.974, 122.268, 89.0303, 0, 0, 6.43721, -54.2469, 6.4407, -174.048, 6.39685, 65.9563, 0.0632, 52.5008
1, 540.00000, 121.502, -31.173, 121.436, -150.974, 122.268, 89.0303, 0, 0, 6.43721, -54.2469, 6.4407, -174.048, 6.39685, 65.9563, 0.0632, 52.5008
1, 600.00000, 121.502, -31.173, 121.436, -150.974, 122.268, 89.0303, 0, 0, 6.43721, -54.2469, 6.4407, -174.048, 6.39685, 65.9563, 0.0632, 52.5008
1, 660.00000, 121.502, -31.173, 121.436, -150.974, 122.268, 89.0303, 0, 0, 6.43721, -54.2469, 6.4407, -174.048, 6.39685, 65.9563, 0.0632, 52.5008
1, 720.00000, 121.502, -31.173, 121.436, -150.974, 122.268, 89.0303, 0, 0, 6.43721, -54.2469, 6.4407, -174.048, 6.39685, 65.9563, 0.0632, 52.5008
1, 780.00000, 121.502, -31.173, 121.436, -150.974, 122.268, 89.0303, 0, 0, 6.43721, -54.2469, 6.4407, -174.048, 6.39685, 65.9563, 0.0632, 52.5008
1, 840.00000, 121.502, -31.173, 121.436, -150.974, 122.268, 89.0303, 0, 0, 6.43721, -54.2469, 6.4407, -174.048, 6.39685, 65.9563, 0.0632, 52.5008
1, 900.00000, 121.502, -31.173, 121.436, -150.974, 122.268, 89.0303, 0, 0, 6.43721, -54.2469, 6.4407, -174.048, 6.39685, 65.9563, 0.0632, 52.5008
1, 960.00000, 121.541, -31.1695, 121.472, -150.971, 122.306, 89.0341, 0, 0, 6.40508, -54.2439, 6.40869, -174.045, 6.3651, 65.9598, 0.0628048, 52.3277
1, 1020.00000, 121.541, -31.1694, 121.472, -150.971, 122.307, 89.0341, 0, 0, 6.40502, -54.2434, 6.40861, -174.045, 6.36489, 65.9602, 0.0628843, 52.334
1, 1080.00000, 121.541, -31.1694, 121.472, -150.971, 122.307, 89.0341, 0, 0, 6.40502, -54.2434, 6.40861, -174.045, 6.36488, 65.9602, 0.0628864, 52.3341
1, 1140.00000, 121.541, -31.1694, 121.472, -150.971, 122.307, 89.0341, 0, 0, 6.40502, -54.2434, 6.40861, -174.045, 6.36488, 65.9602, 0.0628864, 52.3341
1, 1200.00000, 121.541, -31.1694, 121.472, -150.971, 122.307, 89.0341, 0, 0, 6.40502, -54.2434, 6.40861, -174.045, 6.36488, 65.9602, 0.0628864, 52.3341
1, 1260.00000, 121.541, -31.1694, 121.472, -150.971, 122.307, 89.0341, 0, 0, 6.40502, -54.2434, 6.40861, -174.045, 6.36488, 65.9602, 0.0628864, 52.3341
1, 1320.00000, 121.541, -31.1694, 121.472, -150.971, 122.307, 89.0341, 0, 0, 6.40502, -54.2434, 6.40861, -174.045, 6.36488, 65.9602, 0.0628864, 52.3341
1, 1380.00000, 121.541, -31.1694, 121.472, -150.971, 122.307, 89.0341, 0, 0, 6.40502, -54.2434, 6.40861, -174.045, 6.36488, 65.9602, 0.0628864, 52.3341
1, 1440.00000, 121.541, -31.1694, 121.472, -150.971, 122.307, 89.0341, 0, 0, 6.40502, -54.2434, 6.40861, -174.045, 6.36488, 65.9602, 0.0628864, 52.3341
1, 1500.00000, 121.541, -31.1694, 121.472, -150.971, 122.307, 89.0341, 0, 0, 6.40502, -54.2434, 6.40861, -174.045, 6.36488, 65.9602, 0.0628864, 52.3341
1, 1560.00000, 121.541, -31.1694, 121.472, -150.971, 122.307, 89.0341, 0, 0, 6.40502, -54.2434, 6.40861, -174.045, 6.36488, 65.9602, 0.0628864, 52.3341
1, 1620.00000, 121.541, -31.1694, 121.472, -150.971, 122.307, 89.0341, 0, 0, 6.40502, -54.2434, 6.40861, -174.045, 6.36488, 65.9602, 0.0628864, 52.3341
1, 1680.00000, 121.541, -31.1694, 121.472, -150.971, 122.307, 89.0341, 0, 0, 6.40502, -54.2434, 6.40861, -174.045, 6.36488, 65.9602, 0.0628864, 52.3341
1, 1740.00000, 121.541, -31.1694, 121.472, -150.971, 122.307, 89.0341, 0, 0, 6.40502, -54.2434, 6.40861, -174.045, 6.36488, 65.9602, 0.0628864, 52.3341
1, 1800.00000, 121.541, -31.1694, 121.472, -150.971, 122.307, 89.0341, 0, 0, 6.40502, -54.2434, 6.40861, -174.045, 6.36488, 65.9602, 0.0628864, 52.3341
1, 1860.00000, 121.371, -31.1969, 121.312, -150.995, 122.136, 89.0046, 0, 0, 6.56863, -54.2705, 6.57184, -174.069, 6.52736, 65.9309, 0.0644834, 53.0679
1, 1920.00000, 121.371, -31.1969, 121.312, -150.995, 122.136, 89.0045, 0, 0, 6.56863, -54.2708, 6.57186, -174.069, 6.52751, 65.9306, 0.0643958, 53.0667
1, 1980.00000, 121.371, -31.1969, 121.312, -150.995, 122.136, 89.0045, 0, 0, 6.56863, -54.2708, 6.57186, -174.069, 6.52751, 65.9306, 0.064394, 53.0667
1, 2040.00000, 121.371, -31.1969, 121.312, -150.995, 122.136, 89.0045, 0, 0, 6.56863, -54.2708, 6.57186, -174.069, 6.52751, 65.9306, 0.064394, 53.0667
1, 2100.00000, 121.371, -31.1969, 121.312, -150.995, 122.136, 89.0045, 0, 0, 6.56863, -54.2708, 6.57186, -174.069, 6.52751, 65.9306, 0.064394, 53.0667
1, 2160.00000, 121.371, -31.1969, 121.312, -150.995, 122.136, 89.0045, 0, 0, 6.56863, -54.2708, 6.57186, -174.069, 6.52751, 65.9306, 0.064394, 53.0667
1, 2220.00000, 121.371, -31.1969, 121.312, -150.995, 122.136, 89.0045, 0, 0, 6.56863, -54.2708, 6.57186, -174.069, 6.52751, 65.9306, 0.064394, 53.0667
1, 2280.00000, 121.371, -31.1969, 121.312, -150.995, 122.136, 89.0045, 0, 0, 6.56863, -54.2708, 6.57186, -174.069, 6.52751, 65.9306, 0.064394, 53.0667
1, 2340.00000, 121.371, -31.1969, 121.312, -150.995, 122.136, 89.0045, 0, 0, 6.56863, -54.2708, 6.57186, -174.069, 6.52751, 65.9306, 0.064394, 53.0667
1, 2400.00000, 121.371, -31.1969, 121.312, -150.995, 122.136, 89.0045, 0, 0, 6.56863, -54.2708, 6.57186, -174.069, 6.52751, 65.9306, 0.064394, 53.0667
1, 2460.00000, 121.371, -31.1969, 121.312, -150.995, 122.136, 89.0045, 0, 0, 6.56863, -54.2708, 6.57186, -174.069, 6.52751, 65.9306, 0.064394, 53.0667
1, 2520.00000, 121.371, -31.1969, 121.312, -150.995, 122.136, 89.0045, 0, 0, 6.56863, -54.2708, 6.57186, -174.069, 6.52751, 65.9306, 0.064394, 53.0667
1, 2580.00000, 121.371, -31.1969, 121.312, -150.995, 122.136, 89.0045, 0, 0, 6.56863, -54.2708, 6.57186, -174.069, 6.52751, 65.9306, 0.064394, 53.0667
1, 2640.00000, 121.371, -31.1969, 121.312, -150.995, 122.136, 89.0045, 0, 0, 6.56863, -54.2708, 6.57186, -174.069, 6.52751, 65.9306, 0.064394, 53.0667
1, 2700.00000, 121.371, -31.1969, 121.312, -150.995, 122.136, 89.0045, 0, 0, 6.56863, -54.2708, 6.57186, -174.069, 6.52751, 65.9306, 0.064394, 53.0667
1, 2760.00000, 121.758, -31.145, 121.682, -150.95, 122.524, 89.0615, 0, 0, 6.16999, -54.2194, 6.17392, -174.024, 6.13167, 65.987, 0.060433, 51.4811
1, 2820.00000, 121.758, -31.1449, 121.682, -150.95, 122.525, 89.0616, 0, 0, 6.16999, -54.2188, 6.17384, -174.024, 6.13139, 65.9877, 0.0605819, 51.5204
1, 2880.00000, 121.758, -31.1449, 121.682, -150.95, 122.525, 89.0616, 0, 0, 6.16999, -54.2188, 6.17384, -174.024, 6.13138, 65.9877, 0.0605851, 51.5213
1, 2940.00000, 121.758, -31.1449, 121.682, -150.95, 122.525, 89.0616, 0, 0, 6.16999, -54.2188, 6.17384, -174.024, 6.13138, 65.9877, 0.0605851, 51.5213
1, 3000.00000, 121.758, -31.1449, 121.682, -150.95, 122.525, 89.0616, 0, 0, 6.16999, -54.2188, 6.17384, -174.024, 6.13138, 65.9877, 0.0605851, 51.5213
1, 3060.00000, 121.758, -31.1449, 121.682, -150.95, 122.525, 89.0616, 0, 0, 6.16999, -54.2188, 6.17384, -174.024, 6.13138, 65.9877, 0.0605851, 51.5213
1, 3120.00000, 121.758, -31.1449, 121.682, -150.95, 122.525, 89.0616, 0, 0, 6.16999, -54.2188, 6.17384, -174.024, 6.13138, 65.9877, 0.0605851, 51.5213
1, 3180.00000, 121.758, -31.1449, 121.682, -150.95, 122.525, 89.0616, 0, 0, 6.16999, -54.2188, 6.17384, -174.024, 6.13138, 65.9877, 0.0605851, 51.5213
1, 3240.00000, 121.758, -31.1449, 121.682, -150.95, 122.525, 89.0616, 0, 0, 6.16999, -54.2188, 6.17384, -174.024, 6.13138, 65.9877, 0.0605851, 51.5213
1, 3300.00000, 121.758, -31.1449, 121.682, -150.95, 122.525, 89.0616, 0, 0, 6.16999, -54.2188, 6.17384, -174.024, 6.13138, 65.9877, 0.0605851, 51.5213
1, 3360.00000, 121.758, -31.1449, 121.682, -150.95, 122.525, 89.0616, 0, 0, 6.16999, -54.2188, 6.17384, -174.024, 6.13138, 65.9877, 0.0605851, 51.5213
1, 3420.00000, 121.758, -31.1449, 121.682, -150.95, 122.525, 89.0616, 0, 0, 6.16999, -54.2188, 6.17384, -174.024, 6.13138, 65.9877, 0.0605851, 51.5213
1, 3480.00000, 121.758, -31.1449, 121.682, -150.95, 122.525, 89.0616, 0, 0, 6.16999, -54.2188, 6.17384, -174.024, 6.13138, 65.9877, 0.0605851, 51.5213
1, 3540.00000, 121.758, -31.1449, 121.682, -150.95, 122.525, 89.0616, 0, 0, 6.16999, -54.2188, 6.17384, -174.024, 6.13138, 65.9877, 0.0605851, 51.5213
2, 0.00000, 121.758, -31.1449, 121.682, -150.95, 122.525, 89.0616, 0, 0, 6.16999, -54.2188, 6.17384, -174.024, 6.13138, 65.9877, 0.0605851, 51.5213
2, 60.00000, 121.533, -31.1768, 121.464, -150.979, 122.299, 89.0263, 0, 0, 6.34731, -54.2504, 6.35086, -174.053, 6.30737, 65.9527, 0.0624053, 52.3737
2, 120.00000, 121.533, -31.1768, 121.464, -150.979, 122.299, 89.0262, 0, 0, 6.34731, -54.2507, 6.35089, -174.052, 6.30754, 65.9523, 0.0623121, 52.3617
2, 180.00000, 121.533, -31.1768, 121.464, -150.979, 122.299, 89.0262, 0, 0, 6.34731, -54.2508, 6.35089, -174.052, 6.30754, 65.9523, 0.0623102, 52.3616
2, 240.00000, 121.533, -31.1768, 121.464, -150.979, 122.299, 89.0262, 0, 0, 6.34731, -54.2508, 6.35089, -174.052, 6.30754, 65.9523, 0.0623101, 52.3616
2, 300.00000, 121.533, -31.1768, 121.464, -150.979, 122.299, 89.0262, 0, 0, 6.34731, -54.2508, 6.35089, -174.052, 6.30754, 65.9523, 0.0623101, 52.3616
2, 360.00000, 121.533, -31.1768, 121.464, -150.979, 122.299, 89.0262, 0, 0, 6.34731, -54.2508, 6.35089, -174.052, 6.30754, 65.9523, 0.0623101, 52.3616
2, 420.00000, 121.533, -31.1768, 121.464, -150.979, 122.299, 89.0262, 0, 0, 6.34731, -54.2508, 6.35089, -174.052, 6.30754, 65.9523, 0.0623101, 52.3616
2, 480.00000, 121.533, -31.1768, 121.464, -150.979, 122.299, 89.0262, 0, 0, 6.34731, -54.2508, 6.35089, -174.052, 6.30754, 65.9523, 0.0623101, 52.3616
2, 540.00000, 121.533, -31.1768, 121.464, -150.979, 122.299, 89.0262, 0, 0, 6.34731, -54.2508, 6.35089, -174.052, 6.30754, 65.9523, 0.0623101, 52.3616
2, 600.00000, 121.533, -31.1768, 121.464, -150.979, 122.299, 89.0262, 0, 0, 6.34731, -54.2508, 6.35089, -174.052, 6.30754, 65.9523, 0.0623101, 52.3616
2, 660.00000, 121.533, -31.1768, 121.464, -150.979, 122.299, 89.0262, 0, 0, 6.34731, -54.2508, 6.35089, -174.052, 6.30754, 65.9523, 0.0623101, 52.3616
2, 720.00000, 121.533, -31.1768, 121.464, -150.979, 122.299, 89.0262, 0, 0, 6.34731, -54.2508, 6.35089, -174.052, 6.30754, 65.9523, 0.0623101, 52.3616
2, 780.00000, 121.533, -31.1768, 121.464, -150.979, 122.299, 89.0262, 0, 0, 6.34731, -54.2508, 6.35089, -174.052, 6.30754, 65.9523, 0.0623101, 52.3616
