hour,t(sec),V1,VAngle1,V2,VAngle2,V3,VAngle3,V4,VAngle4,I1,IAngle1,I2,IAngle2,I3,IAngle3,I4,IAngle4
0, 60.00000, 125.991, -32.161, 124.999, -151.659, 126.531, 88.4976, 0, 0, 6.55614, -55.2346, 6.6082, -174.733, 6.52829, 65.4236, 0.138358, 23.6669
0, 120.00000, 125.998, -32.1669, 124.999, -151.659, 126.547, 88.4975, 0, 0, 6.55581, -55.2405, 6.6082, -174.733, 6.52746, 65.4235, 0.139696, 23.8185
0, 180.00000, 126.004, -32.1722, 124.999, -151.659, 126.561, 88.4974, 0, 0, 6.55551, -55.2458, 6.6082, -174.733, 6.52671, 65.4234, 0.1409, 23.953
0, 240.00000, 126.009, -32.1769, 124.999, -151.659, 126.574, 88.4973, 0, 0, 6.55525, -55.2506, 6.6082, -174.733, 6.52604, 65.4233, 0.141984, 24.0726
0, 300.00000, 126.013, -32.1812, 124.999, -151.659, 126.586, 88.4972, 0, 0, 6.55501, -55.255, 6.60819, -174.733, 6.52544, 65.4232, 0.14296, 24.1791
0, 360.00000, 126.018, -32.1851, 124.999, -151.659, 126.596, 88.4971, 0, 0, 6.55479, -55.2588, 6.60819, -174.733, 6.5249, 65.4231, 0.143838, 24.2741
0, 420.00000, 126.021, -32.1886, 125, -151.659, 126.606, 88.497, 0, 0, 6.55459, -55.2623, 6.60819, -174.733, 6.52441, 65.423, 0.14463, 24.3589
0, 480.00000, 126.406, -32.071, 125.363, -151.532, 127.021, 88.6333, 0, 0, 5.68517, -55.1448, 5.73247, -174.606, 5.65769, 65.5593, 0.128724, 24.5262
0, 540.00000, 126.409, -32.0739, 125.363, -151.532, 127.029, 88.6333, 0, 0, 5.68503, -55.1477, 5.73247, -174.606, 5.65734, 65.5593, 0.129294, 24.5936
0, 600.00000, 126.412, -32.0765, 125.363, -151.532, 127.036, 88.6332, 0, 0, 5.68491, -55.1502, 5.73247, -174.606, 5.65702, 65.5593, 0.129806, 24.6537
0, 660.00000, 126.414, -32.0788, 125.363, -151.532, 127.042, 88.6332, 0, 0, 5.6848, -55.1526, 5.73247, -174.606, 5.65674, 65.5592, 0.130266, 24.7075
0, 720.00000, 126.417, -32.0809, 125.363, -151.532, 127.048, 88.6331, 0, 0, 5.6847, -55.1547, 5.73247, -174.606, 5.65648, 65.5592, 0.13068, 24.7557
0, 780.00000, 126.419, -32.0827, 125.363, -151.532, 127.053, 88.6331, 0, 0, 5.6846, -55.1566, 5.73247, -174.606, 5.65625, 65.5592, 0.131053, 24.7989
0, 840.00000, 126.421, -32.0844, 125.363, -151.532, 127.058, 88.6331, 0, 0, 5.68452, -55.1583, 5.73247, -174.606, 5.65604, 65.5591, 0.131389, 24.8377
0, 900.00000, 126.422, -32.0859, 125.363, -151.532, 127.062, 88.633, 0, 0, 5.68445, -55.1598, 5.73247, -174.606, 5.65585, 65.5591, 0.131691, 24.8724
0, 960.00000, 126.133, -32.111, 125.364, -151.533, 126.932, 88.5034, 0, 0, 5.69748, -55.1849, 5.73245, -174.607, 5.66162, 65.4295, 0.120646, 33.995
0, 1020.00000, 126.134, -32.1122, 125.364, -151.533, 126.936, 88.5033, 0, 0, 5.69742, -55.1861, 5.73245, -174.607, 5.66148, 65.4294, 0.120892, 34.0068
0, 1080.00000, 126.135, -32.1133, 125.364, -151.533, 126.939, 88.5033, 0, 0, 5.69737, -55.1872, 5.73245, -174.607, 5.66134, 65.4294, 0.121115, 34.0175
0, 1140.00000, 126.136, -32.1143, 125.364, -151.533, 126.941, 88.5033, 0, 0, 5.69732, -55.1882, 5.73245, -174.607, 5.66122, 65.4294, 0.121316, 34.0271
0, 1200.00000, 126.137, -32.1152, 125.364, -151.533, 126.944, 88.5033, 0, 0, 5.69728, -55.1891, 5.73244, -174.607, 5.66112, 65.4294, 0.121496, 34.0357
0, 1260.00000, 126.138, -32.116, 125.364, -151.533, 126.946, 88.5033, 0, 0, 5.69724, -55.1899, 5.73244, -174.607, 5.66102, 65.4293, 0.121659, 34.0434
0, 1320.00000, 126.139, -32.1167, 125.364, -151.533, 126.948, 88.5033, 0, 0, 5.69721, -55.1906, 5.73244, -174.607, 5.66093, 65.4293, 0.121805, 34.0504
0, 1380.00000, 126.14, -32.1173, 125.364, -151.533, 126.949, 88.5032, 0, 0, 5.69718, -55.1912, 5.73244, -174.607, 5.66085, 65.4293, 0.121937, 34.0566
0, 1440.00000, 126.14, -32.1179, 125.364, -151.533, 126.951, 88.5032, 0, 0, 5.69715, -55.1918, 5.73244, -174.607, 5.66078, 65.4293, 0.122056, 34.0623
0, 1500.00000, 126.141, -32.1185, 125.364, -151.533, 126.952, 88.5032, 0, 0, 5.69713, -55.1923, 5.73244, -174.607, 5.66072, 65.4293, 0.122162, 34.0673
0, 1560.00000, 126.141, -32.1189, 125.364, -151.533, 126.954, 88.5032, 0, 0, 5.6971, -55.1928, 5.73244, -174.607, 5.66066, 65.4293, 0.122258, 34.0719
0, 1620.00000, 126.142, -32.1193, 125.364, -151.533, 126.955, 88.5032, 0, 0, 5.69708, -55.1932, 5.73244, -174.607, 5.66061, 65.4293, 0.122345, 34.076
0, 1680.00000, 126.142, -32.1197, 125.364, -151.533, 126.956, 88.5032, 0, 0, 5.69707, -55.1936, 5.73244, -174.607, 5.66056, 65.4293, 0.122423, 34.0797
0, 1740.00000, 126.143, -32.1201, 125.364, -151.533, 126.957, 88.5032, 0, 0, 5.69705, -55.194, 5.73244, -174.607, 5.66052, 65.4292, 0.122493, 34.083
0, 1800.00000, 126.143, -32.1204, 125.364, -151.533, 126.958, 88.5032, 0, 0, 5.69704, -55.1943, 5.73244, -174.607, 5.66048, 65.4292, 0.122556, 34.086
0, 1860.00000, 126.143, -32.1207, 125.364, -151.533, 126.958, 88.5032, 0, 0, 5.69702, -55.1946, 5.73244, -174.607, 5.66045, 65.4292, 0.122612, 34.0887
0, 1920.00000, 126.143, -32.1209, 125.364, -151.533, 126.959, 88.5032, 0, 0, 5.69701, -55.1948, 5.73244, -174.607, 5.66042, 65.4292, 0.122664, 34.0911
0, 1980.00000, 126.144, -32.1211, 125.364, -151.533, 126.96, 88.5031, 0, 0, 5.697, -55.195, 5.73244, -174.607, 5.66039, 65.4292, 0.122709, 34.0933
0, 2040.00000, 126.144, -32.1213, 125.364, -151.533, 126.96, 88.5031, 0, 0, 5.69699, -55.1952, 5.73244, -174.607, 5.66036, 65.4292, 0.122751, 34.0952
0, 2100.00000, 126.144, -32.1215, 125.364, -151.533, 126.961, 88.5031, 0, 0, 5.69698, -55.1954, 5.73244, -174.607, 5.66034, 65.4292, 0.122788, 34.097
0, 2160.00000, 126.144, -32.1217, 125.364, -151.533, 126.961, 88.5031, 0, 0, 5.69697, -55.1956, 5.73244, -174.607, 5.66032, 65.4292, 0.122822, 34.0986
0, 2220.00000, 126.144, -32.1218, 125.364, -151.533, 126.962, 88.5031, 0, 0, 5.69697, -55.1957, 5.73244, -174.607, 5.6603, 65.4292, 0.122852, 34.1
0, 2280.00000, 126.145, -32.122, 125.364, -151.533, 126.962, 88.5031, 0, 0, 5.69696, -55.1959, 5.73244, -174.607, 5.66029, 65.4292, 0.122879, 34.1013
0, 2340.00000, 126.145, -32.1221, 125.364, -151.533, 126.962, 88.5031, 0, 0, 5.69696, -55.196, 5.73244, -174.607, 5.66027, 65.4292, 0.122903, 34.1024
0, 2400.00000, 126.145, -32.1222, 125.364, -151.533, 126.963, 88.5031, 0, 0, 5.69695, -55.1961, 5.73244, -174.607, 5.66026, 65.4292, 0.122925, 34.1035
0, 2460.00000, 126.145, -32.1223, 125.364, -151.533, 126.963, 88.5031, 0, 0, 5.69695, -55.1962, 5.73244, -174.607, 5.66025, 65.4292, 0.122945, 34.1044
0, 2520.00000, 126.145, -32.1224, 125.364, -151.533, 126.963, 88.5031, 0, 0, 5.69694, -55.1963, 5.73244, -174.607, 5.66024, 65.4292, 0.122963, 34.1052
0, 2580.00000, 126.145, -32.1225, 125.364, -151.533, 126.963, 88.5031, 0, 0, 5.69694, -55.1964, 5.73244, -174.607, 5.66023, 65.4292, 0.122979, 34.106
0, 2640.00000, 126.145, -32.1225, 125.364, -151.533, 126.963, 88.5031, 0, 0, 5.69693, -55.1964, 5.73244, -174.607, 5.66022, 65.4292, 0.122993, 34.1067
0, 2700.00000, 126.145, -32.1226, 125.364, -151.533, 126.964, 88.5031, 0, 0, 5.69693, -55.1965, 5.73244, -174.607, 5.66021, 65.4292, 0.123006, 34.1073
0, 2760.00000, 126.147, -32.1235, 125.45, -151.405, 127.267, 88.5418, 0, 0, 5.69683, -55.1974, 5.72851, -174.479, 5.64673, 65.4678, 0.140266, 40.9602
0, 2820.00000, 126.147, -32.1236, 125.45, -151.405, 127.267, 88.5418, 0, 0, 5.69683, -55.1975, 5.72851, -174.479, 5.64672, 65.4678, 0.140277, 40.9601
0, 2880.00000, 126.147, -32.1236, 125.45, -151.405, 127.267, 88.5418, 0, 0, 5.69683, -55.1975, 5.72851, -174.479, 5.64672, 65.4678, 0.140287, 40.96
0, 2940.00000, 126.148, -32.1237, 125.45, -151.405, 127.267, 88.5418, 0, 0, 5.69683, -55.1976, 5.72851, -174.479, 5.64671, 65.4678, 0.140295, 40.96
0, 3000.00000, 126.148, -32.1237, 125.45, -151.405, 127.267, 88.5418, 0, 0, 5.69683, -55.1976, 5.72851, -174.479, 5.64671, 65.4678, 0.140303, 40.9599
0, 3060.00000, 126.148, -32.1237, 125.45, -151.405, 127.267, 88.5418, 0, 0, 5.69682, -55.1977, 5.72851, -174.479, 5.6467, 65.4678, 0.14031, 40.9598
0, 3120.00000, 126.148, -32.1238, 125.45, -151.405, 127.267, 88.5418, 0, 0, 5.69682, -55.1977, 5.72851, -174.479, 5.6467, 65.4678, 0.140316, 40.9598
0, 3180.00000, 126.148, -32.1238, 125.45, -151.405, 127.267, 88.5418, 0, 0, 5.69682, -55.1977, 5.72851, -174.479, 5.6467, 65.4678, 0.140322, 40.9597
0, 3240.00000, 126.148, -32.1238, 125.45, -151.405, 127.268, 88.5418, 0, 0, 5.69682, -55.1977, 5.72851, -174.479, 5.64669, 65.4678, 0.140327, 40.9597
0, 3300.00000, 126.148, -32.1238, 125.45, -151.405, 127.268, 88.5418, 0, 0, 5.69682, -55.1978, 5.72851, -174.479, 5.64669, 65.4678, 0.140331, 40.9597
0, 3360.00000, 126.148, -32.1239, 125.45, -151.405, 127.268, 88.5418, 0, 0, 5.69682, -55.1978, 5.72851, -174.479, 5.64669, 65.4678, 0.140335, 40.9596
0, 3420.00000, 126.148, -32.1239, 125.45, -151.405, 127.268, 88.5418, 0, 0, 5.69682, -55.1978, 5.72851, -174.479, 5.64669, 65.4678, 0.140339, 40.9596
0, 3480.00000, 126.148, -32.1239, 125.45, -151.405, 127.268, 88.5417, 0, 0, 5.69682, -55.1978, 5.72851, -174.479, 5.64669, 65.4678, 0.140342, 40.9596
0, 3540.00000, 126.148, -32.1239, 125.45, -151.405, 127.268, 88.5417, 0, 0, 5.69682, -55.1978, 5.72851, -174.479, 5.64668, 65.4678, 0.140345, 40.9595
1, 0.00000, 126.148, -32.1239, 125.45, -151.405, 127.268, 88.5417, 0, 0, 5.69682, -55.1978, 5.72851, -174.479, 5.64668, 65.4678, 0.140348, 40.9595
1, 60.00000, 126.234, -31.9966, 125.74, -151.372, 127.268, 88.5425, 0, 0, 5.69293, -55.0705, 5.7153, -174.446, 5.64667, 65.4686, 0.11882, 44.7251
1, 120.00000, 126.234, -31.9966, 125.74, -151.372, 127.268, 88.5425, 0, 0, 5.69293, -55.0705, 5.7153, -174.446, 5.64667, 65.4686, 0.118822, 44.7251
1, 180.00000, 126.234, -31.9966, 125.74, -151.372, 127.268, 88.5425, 0, 0, 5.69293, -55.0705, 5.7153, -174.446, 5.64666, 65.4686, 0.118824, 44.725
1, 240.00000, 126.234, -31.9966, 125.74, -151.372, 127.268, 88.5425, 0, 0, 5.69293, -55.0705, 5.7153, -174.446, 5.64666, 65.4686, 0.118825, 44.7249
1, 300.00000, 126.234, -31.9966, 125.74, -151.372, 127.268, 88.5425, 0, 0, 5.69293, -55.0705, 5.7153, -174.446, 5.64666, 65.4686, 0.118827, 44.7249
1, 360.00000, 126.234, -31.9966, 125.74, -151.372, 127.268, 88.5425, 0, 0, 5.69292, -55.0705, 5.7153, -174.446, 5.64666, 65.4686, 0.118828, 44.7248
1, 420.00000, 126.234, -31.9966, 125.74, -151.372, 127.268, 88.5425, 0, 0, 5.69292, -55.0705, 5.7153, -174.446, 5.64666, 65.4686, 0.11883, 44.7248
1, 480.00000, 126.234, -31.9966, 125.74, -151.372, 127.268, 88.5425, 0, 0, 5.69292, -55.0706, 5.7153, -174.446, 5.64666, 65.4686, 0.118831, 44.7247
1, 540.00000, 126.234, -31.9966, 125.74, -151.372, 127.268, 88.5425, 0, 0, 5.69292, -55.0706, 5.7153, -174.446, 5.64666, 65.4686, 0.118832, 44.7247
1, 600.00000, 126.234, -31.9966, 125.74, -151.372, 127.268, 88.5425, 0, 0, 5.69292, -55.0706, 5.7153, -174.446, 5.64666, 65.4686, 0.118833, 44.7246
1, 660.00000, 126.234, -31.9967, 125.74, -151.372, 127.268, 88.5425, 0, 0, 5.69292, -55.0706, 5.7153, -174.446, 5.64666, 65.4686, 0.118834, 44.7246
1, 720.00000, 126.234, -31.9967, 125.74, -151.372, 127.268, 88.5425, 0, 0, 5.69292, -55.0706, 5.7153, -174.446, 5.64666, 65.4686, 0.118834, 44.7246
1, 780.00000, 126.234, -31.9967, 125.74, -151.372, 127.268, 88.5425, 0, 0, 5.69292, -55.0706, 5.7153, -174.446, 5.64666, 65.4686, 0.118835, 44.7245
1, 840.00000, 126.234, -31.9967, 125.74, -151.372, 127.268, 88.5425, 0, 0, 5.69292, -55.0706, 5.7153, -174.446, 5.64666, 65.4686, 0.118836, 44.7245
1, 900.00000, 126.234, -31.9967, 125.74, -151.372, 127.268, 88.5425, 0, 0, 5.69292, -55.0706, 5.7153, -174.446, 5.64666, 65.4686, 0.118836, 44.7245
1, 960.00000, 126.234, -31.9967, 125.74, -151.372, 127.268, 88.5425, 0, 0, 5.69292, -55.0706, 5.7153, -174.446, 5.64666, 65.4686, 0.118837, 44.7245
1, 1020.00000, 126.234, -31.9967, 125.74, -151.372, 127.268, 88.5425, 0, 0, 5.69292, -55.0706, 5.7153, -174.446, 5.64666, 65.4686, 0.118837, 44.7244
1, 1080.00000, 126.234, -31.9967, 125.74, -151.372, 127.268, 88.5425, 0, 0, 5.69292, -55.0706, 5.7153, -174.446, 5.64666, 65.4686, 0.118838, 44.7244
1, 1140.00000, 126.234, -31.9967, 125.74, -151.372, 127.268, 88.5425, 0, 0, 5.69292, -55.0706, 5.7153, -174.446, 5.64666, 65.4686, 0.118838, 44.7244
1, 1200.00000, 126.234, -31.9967, 125.74, -151.372, 127.268, 88.5425, 0, 0, 5.69292, -55.0706, 5.7153, -174.446, 5.64666, 65.4686, 0.118838, 44.7244
1, 1260.00000, 126.234, -31.9967, 125.74, -151.372, 127.268, 88.5425, 0, 0, 5.69292, -55.0706, 5.7153, -174.446, 5.64666, 65.4686, 0.118839, 44.7244
1, 1320.00000, 126.234, -31.9967, 125.74, -151.372, 127.268, 88.5425, 0, 0, 5.69292, -55.0706, 5.7153, -174.446, 5.64666, 65.4686, 0.118839, 44.7244
1, 1380.00000, 126.234, -31.9967, 125.74, -151.372, 127.268, 88.5425, 0, 0, 5.69292, -55.0706, 5.7153, -174.446, 5.64666, 65.4686, 0.118839, 44.7244
1, 1440.00000, 126.234, -31.9967, 125.74, -151.372, 127.268, 88.5425, 0, 0, 5.69292, -55.0706, 5.7153, -174.446, 5.64666, 65.4686, 0.118839, 44.7244
1, 1500.00000, 126.234, -31.9967, 125.74, -151.372, 127.268, 88.5425, 0, 0, 5.69292, -55.0706, 5.7153, -174.446, 5.64666, 65.4686, 0.11884, 44.7243
1, 1560.00000, 126.234, -31.9967, 125.74, -151.372, 127.268, 88.5425, 0, 0, 5.69292, -55.0706, 5.7153, -174.446, 5.64666, 65.4686, 0.11884, 44.7243
1, 1620.00000, 126.234, -31.9967, 125.74, -151.372, 127.268, 88.5425, 0, 0, 5.69292, -55.0706, 5.7153, -174.446, 5.64666, 65.4686, 0.11884, 44.7243
1, 1680.00000, 126.234, -31.9967, 125.74, -151.372, 127.268, 88.5425, 0, 0, 5.69292, -55.0706, 5.7153, -174.446, 5.64666, 65.4686, 0.11884, 44.7243
1, 1740.00000, 126.234, -31.9967, 125.74, -151.372, 127.268, 88.5425, 0, 0, 5.69292, -55.0706, 5.7153, -174.446, 5.64666, 65.4686, 0.11884, 44.7243
1, 1800.00000, 126.234, -31.9967, 125.74, -151.372, 127.268, 88.5425, 0, 0, 5.69292, -55.0706, 5.7153, -174.446, 5.64666, 65.4686, 0.11884, 44.7243
1, 1860.00000, 126.234, -31.9967, 125.74, -151.372, 127.268, 88.5425, 0, 0, 5.69292, -55.0706, 5.7153, -174.446, 5.64666, 65.4686, 0.11884, 44.7243
1, 1920.00000, 126.234, -31.9967, 125.74, -151.372, 127.268, 88.5425, 0, 0, 5.69292, -55.0706, 5.7153, -174.446, 5.64665, 65.4686, 0.11884, 44.7243
1, 1980.00000, 126.234, -31.9967, 125.74, -151.372, 127.268, 88.5425, 0, 0, 5.69292, -55.0706, 5.7153, -174.446, 5.64665, 65.4686, 0.118841, 44.7243
1, 2040.00000, 126.234, -31.9967, 125.74, -151.372, 127.268, 88.5425, 0, 0, 5.69292, -55.0706, 5.7153, -174.446, 5.64665, 65.4686, 0.118841, 44.7243
1, 2100.00000, 126.234, -31.9967, 125.74, -151.372, 127.268, 88.5425, 0, 0, 5.69292, -55.0706, 5.7153, -174.446, 5.64665, 65.4686, 0.118841, 44.7243
1, 2160.00000, 126.234, -31.9967, 125.74, -151.372, 127.268, 88.5425, 0, 0, 5.69292, -55.0706, 5.7153, -174.446, 5.64665, 65.4686, 0.118841, 44.7243
1, 2220.00000, 126.234, -31.9967, 125.74, -151.372, 127.268, 88.5425, 0, 0, 5.69292, -55.0706, 5.7153, -174.446, 5.64665, 65.4686, 0.118841, 44.7243
1, 2280.00000, 126.234, -31.9967, 125.74, -151.372, 127.268, 88.5425, 0, 0, 5.69292, -55.0706, 5.7153, -174.446, 5.64665, 65.4686, 0.118841, 44.7243
1, 2340.00000, 126.234, -31.9967, 125.74, -151.372, 127.268, 88.5425, 0, 0, 5.69292, -55.0706, 5.7153, -174.446, 5.64665, 65.4686, 0.118841, 44.7243
1, 2400.00000, 126.234, -31.9967, 125.74, -151.372, 127.268, 88.5425, 0, 0, 5.69292, -55.0706, 5.7153, -174.446, 5.64665, 65.4686, 0.118841, 44.7243
1, 2460.00000, 126.234, -31.9967, 125.74, -151.372, 127.268, 88.5425, 0, 0, 5.69292, -55.0706, 5.7153, -174.446, 5.64665, 65.4686, 0.118841, 44.7243
1, 2520.00000, 126.234, -31.9967, 125.74, -151.372, 127.268, 88.5425, 0, 0, 5.69292, -55.0706, 5.7153, -174.446, 5.64665, 65.4686, 0.118841, 44.7243
1, 2580.00000, 126.234, -31.9967, 125.74, -151.372, 127.268, 88.5425, 0, 0, 5.69292, -55.0706, 5.7153, -174.446, 5.64665, 65.4686, 0.118841, 44.7243
1, 2640.00000, 126.234, -31.9967, 125.74, -151.372, 127.268, 88.5425, 0, 0, 5.69292, -55.0706, 5.7153, -174.446, 5.64665, 65.4686, 0.118841, 44.7243
1, 2700.00000, 126.234, -31.9967, 125.74, -151.372, 127.268, 88.5425, 0, 0, 5.69292, -55.0706, 5.7153, -174.446, 5.64665, 65.4686, 0.118841, 44.7243
1, 2760.00000, 126.234, -31.9967, 125.74, -151.372, 127.268, 88.5425, 0, 0, 5.69292, -55.0706, 5.7153, -174.446, 5.64665, 65.4686, 0.118841, 44.7243
1, 2820.00000, 126.234, -31.9967, 125.74, -151.372, 127.268, 88.5425, 0, 0, 5.69292, -55.0706, 5.7153, -174.446, 5.64665, 65.4686, 0.118841, 44.7243
1, 2880.00000, 126.234, -31.9967, 125.74, -151.372, 127.268, 88.5425, 0, 0, 5.69292, -55.0706, 5.7153, -174.446, 5.64665, 65.4686, 0.118841, 44.7243
1, 2940.00000, 126.234, -31.9967, 125.74, -151.372, 127.268, 88.5425, 0, 0, 5.69292, -55.0706, 5.7153, -174.446, 5.64665, 65.4686, 0.118841, 44.7243
1, 3000.00000, 126.234, -31.9967, 125.74, -151.372, 127.268, 88.5425, 0, 0, 5.69292, -55.0706, 5.7153, -174.446, 5.64665, 65.4686, 0.118841, 44.7243
1, 3060.00000, 126.234, -31.9967, 125.74, -151.372, 127.268, 88.5425, 0, 0, 5.69292, -55.0706, 5.7153, -174.446, 5.64665, 65.4686, 0.118841, 44.7243
1, 3120.00000, 126.234, -31.9967, 125.74, -151.372, 127.268, 88.5425, 0, 0, 5.69292, -55.0706, 5.7153, -174.446, 5.64665, 65.4686, 0.118841, 44.7243
1, 3180.00000, 126.234, -31.9967, 125.74, -151.372, 127.268, 88.5425, 0, 0, 5.69292, -55.0706, 5.7153, -174.446, 5.64665, 65.4686, 0.118841, 44.7243
1, 3240.00000, 126.234, -31.9967, 125.74, -151.372, 127.268, 88.5425, 0, 0, 5.69292, -55.0706, 5.7153, -174.446, 5.64665, 65.4686, 0.118841, 44.7243
1, 3300.00000, 126.234, -31.9967, 125.74, -151.372, 127.268, 88.5425, 0, 0, 5.69292, -55.0706, 5.7153, -174.446, 5.64665, 65.4686, 0.118841, 44.7243
1, 3360.00000, 126.234, -31.9967, 125.74, -151.372, 127.268, 88.5425, 0, 0, 5.69292, -55.0706, 5.7153, -174.446, 5.64665, 65.4686, 0.118841, 44.7243
1, 3420.00000, 126.234, -31.9967, 125.74, -151.372, 127.268, 88.5425, 0, 0, 5.69292, -55.0706, 5.7153, -174.446, 5.64665, 65.4686, 0.118841, 44.7243
1, 3480.00000, 126.234, -31.9967, 125.74, -151.372, 127.268, 88.5425, 0, 0, 5.69292, -55.0706, 5.7153, -174.446, 5.64665, 65.4686, 0.118841, 44.7243
1, 3540.00000, 126.234, -31.9967, 125.74, -151.372, 127.268, 88.5425, 0, 0, 5.69292, -55.0706, 5.7153, -174.446, 5.64665, 65.4686, 0.118841, 44.7243
2, 0.00000, 126.234, -31.9967, 125.74, -151.372, 127.268, 88.5425, 0, 0, 5.69292, -55.0706, 5.7153, -174.446, 5.64665, 65.4686, 0.118841, 44.7243
2, 60.00000, 126.234, -31.9967, 125.74, -151.372, 127.268, 88.5425, 0, 0, 5.69292, -55.0706, 5.7153, -174.446, 5.64665, 65.4686, 0.118841, 44.7243
2, 120.00000, 126.234, -31.9967, 125.74, -151.372, 127.268, 88.5425, 0, 0, 5.69292, -55.0706, 5.7153, -174.446, 5.64665, 65.4686, 0.118841, 44.7243
2, 180.00000, 126.234, -31.9967, 125.74, -151.372, 127.268, 88.5425, 0, 0, 5.69292, -55.0706, 5.7153, -174.446, 5.64665, 65.4686, 0.118841, 44.7243
2, 240.00000, 126.234, -31.9967, 125.74, -151.372, 127.268, 88.5425, 0, 0, 5.69292, -55.0706, 5.7153, -174.446, 5.64665, 65.4686, 0.118841, 44.7243
2, 300.00000, 126.234, -31.9967, 125.74, -151.372, 127.268, 88.5425, 0, 0, 5.69292, -55.0706, 5.7153, -174.446, 5.64665, 65.4686, 0.118841, 44.7243
2, 360.00000, 126.234, -31.9967, 125.74, -151.372, 127.268, 88.5425, 0, 0, 5.69292, -55.0706, 5.7153, -174.446, 5.64665, 65.4686, 0.118841, 44.7243
2, 420.00000, 126.234, -31.9967, 125.74, -151.372, 127.268, 88.5425, 0, 0, 5.69292, -55.0706, 5.7153, -174.446, 5.64665, 65.4686, 0.118841, 44.7243
2, 480.00000, 126.234, -31.9967, 125.74, -151.372, 127.268, 88.5425, 0, 0, 5.69292, -55.0706, 5.7153, -174.446, 5.64665, 65.4686, 0.118841, 44.7243
2, 540.00000, 126.234, -31.9967, 125.74, -151.372, 127.268, 88.5425, 0, 0, 5.69292, -55.0706, 5.7153, -174.446, 5.64665, 65.4686, 0.118841, 44.7243
2, 600.00000, 126.234, -31.9967, 125.74, -151.372, 127.268, 88.5425, 0, 0, 5.69292, -55.0706, 5.7153, -174.446, 5.64665, 65.4686, 0.118841, 44.7243
2, 660.00000, 126.234, -31.9967, 125.74, -151.372, 127.268, 88.5425, 0, 0, 5.69292, -55.0706, 5.7153, -174.446, 5.64665, 65.4686, 0.118841, 44.7243
2, 720.00000, 126.234, -31.9967, 125.74, -151.372, 127.268, 88.5425, 0, 0, 5.69292, -55.0706, 5.7153, -174.446, 5.64665, 65.4686, 0.118841, 44.7243
2, 780.00000, 126.234, -31.9967, 125.74, -151.372, 127.268, 88.5425, 0, 0, 5.69292, -55.0706, 5.7153, -174.446, 5.64665, 65.4686, 0.118841, 44.7243
