hour,t(sec),"P1 (kW)","Q1 (kvar)","P2 (kW)","Q2 (kvar)","P3 (kW)","Q3 (kvar)","P4 (kW)","Q4 (kvar)"
0, 60.00000, 0.840736, 0.358145, 0.840728, 0.358151, 0.840714, 0.358134, 0, 0
0, 120.00000, 0.840739, 0.358153, 0.840739, 0.358154, 0.840739, 0.358153, 0, 0
0, 180.00000, 0.84074, 0.358154, 0.84074, 0.358154, 0.84074, 0.358154, 0, 0
0, 240.00000, 0.84074, 0.358154, 0.84074, 0.358154, 0.84074, 0.358154, 0, 0
0, 300.00000, 0.84074, 0.358154, 0.84074, 0.358154, 0.84074, 0.358154, 0, 0
0, 360.00000, 0.84074, 0.358154, 0.84074, 0.358154, 0.84074, 0.358154, 0, 0
0, 420.00000, 0.84074, 0.358154, 0.84074, 0.358154, 0.84074, 0.358154, 0, 0
0, 480.00000, 0.84074, 0.358154, 0.84074, 0.358154, 0.84074, 0.358154, 0, 0
0, 540.00000, 0.84074, 0.358154, 0.84074, 0.358154, 0.84074, 0.358154, 0, 0
0, 600.00000, 0.84074, 0.358154, 0.84074, 0.358154, 0.84074, 0.358154, 0, 0
0, 660.00000, 0.84074, 0.358154, 0.84074, 0.358154, 0.84074, 0.358154, 0, 0
0, 720.00000, 0.84074, 0.358154, 0.84074, 0.358154, 0.84074, 0.358154, 0, 0
0, 780.00000, 0.84074, 0.358154, 0.84074, 0.358154, 0.84074, 0.358154, 0, 0
0, 840.00000, 0.84074, 0.358154, 0.84074, 0.358154, 0.84074, 0.358154, 0, 0
0, 900.00000, 0.84074, 0.358154, 0.84074, 0.358154, 0.84074, 0.358154, 0, 0
0, 960.00000, 0.820747, 0.349632, 0.822769, 0.350497, 0.822777, 0.3505, 0, 0
0, 1020.00000, 0.820741, 0.349634, 0.822777, 0.350502, 0.822777, 0.350502, 0, 0
0, 1080.00000, 0.820741, 0.349634, 0.822777, 0.350502, 0.822777, 0.350502, 0, 0
0, 1140.00000, 0.820741, 0.349634, 0.822777, 0.350502, 0.822777, 0.350502, 0, 0
0, 1200.00000, 0.820741, 0.349634, 0.822777, 0.350502, 0.822777, 0.350502, 0, 0
0, 1260.00000, 0.820741, 0.349634, 0.822777, 0.350502, 0.822777, 0.350502, 0, 0
0, 1320.00000, 0.820741, 0.349634, 0.822777, 0.350502, 0.822777, 0.350502, 0, 0
0, 1380.00000, 0.820741, 0.349634, 0.822777, 0.350502, 0.822777, 0.350502, 0, 0
0, 1440.00000, 0.820741, 0.349634, 0.822777, 0.350502, 0.822777, 0.350502, 0, 0
0, 1500.00000, 0.820741, 0.349634, 0.822777, 0.350502, 0.822777, 0.350502, 0, 0
0, 1560.00000, 0.820741, 0.349634, 0.822777, 0.350502, 0.822777, 0.350502, 0, 0
0, 1620.00000, 0.820741, 0.349634, 0.822777, 0.350502, 0.822777, 0.350502, 0, 0
0, 1680.00000, 0.820741, 0.349634, 0.822777, 0.350502, 0.822777, 0.350502, 0, 0
0, 1740.00000, 0.820741, 0.349634, 0.822777, 0.350502, 0.822777, 0.350502, 0, 0
0, 1800.00000, 0.820741, 0.349634, 0.822777, 0.350502, 0.822777, 0.350502, 0, 0
0, 1860.00000, 0.77796, 0.331413, 0.777986, 0.331423, 0.777988, 0.331446, 0, 0
0, 1920.00000, 0.777956, 0.331408, 0.777956, 0.331408, 0.777956, 0.331408, 0, 0
0, 1980.00000, 0.777956, 0.331408, 0.777956, 0.331408, 0.777956, 0.331408, 0, 0
0, 2040.00000, 0.777956, 0.331408, 0.777956, 0.331408, 0.777956, 0.331408, 0, 0
0, 2100.00000, 0.777956, 0.331408, 0.777956, 0.331408, 0.777956, 0.331408, 0, 0
0, 2160.00000, 0.777956, 0.331408, 0.777956, 0.331408, 0.777956, 0.331408, 0, 0
0, 2220.00000, 0.777956, 0.331408, 0.777956, 0.331408, 0.777956, 0.331408, 0, 0
0, 2280.00000, 0.777956, 0.331408, 0.777956, 0.331408, 0.777956, 0.331408, 0, 0
0, 2340.00000, 0.777956, 0.331408, 0.777956, 0.331408, 0.777956, 0.331408, 0, 0
0, 2400.00000, 0.777956, 0.331408, 0.777956, 0.331408, 0.777956, 0.331408, 0, 0
0, 2460.00000, 0.777956, 0.331408, 0.777956, 0.331408, 0.777956, 0.331408, 0, 0
0, 2520.00000, 0.777956, 0.331408, 0.777956, 0.331408, 0.777956, 0.331408, 0, 0
0, 2580.00000, 0.777956, 0.331408, 0.777956, 0.331408, 0.777956, 0.331408, 0, 0
0, 2640.00000, 0.777956, 0.331408, 0.777956, 0.331408, 0.777956, 0.331408, 0, 0
0, 2700.00000, 0.777956, 0.331408, 0.777956, 0.331408, 0.777956, 0.331408, 0, 0
0, 2760.00000, 0.761486, 0.324396, 0.761492, 0.32439, 0.761504, 0.324404, 0, 0
0, 2820.00000, 0.761488, 0.324393, 0.761488, 0.324392, 0.761488, 0.324393, 0, 0
0, 2880.00000, 0.761488, 0.324392, 0.761488, 0.324392, 0.761488, 0.324392, 0, 0
0, 2940.00000, 0.761488, 0.324392, 0.761488, 0.324392, 0.761488, 0.324392, 0, 0
0, 3000.00000, 0.761488, 0.324392, 0.761488, 0.324392, 0.761488, 0.324392, 0, 0
0, 3060.00000, 0.761488, 0.324392, 0.761488, 0.324392, 0.761488, 0.324392, 0, 0
0, 3120.00000, 0.761488, 0.324392, 0.761488, 0.324392, 0.761488, 0.324392, 0, 0
0, 3180.00000, 0.761488, 0.324392, 0.761488, 0.324392, 0.761488, 0.324392, 0, 0
0, 3240.00000, 0.761488, 0.324392, 0.761488, 0.324392, 0.761488, 0.324392, 0, 0
0, 3300.00000, 0.761488, 0.324392, 0.761488, 0.324392, 0.761488, 0.324392, 0, 0
0, 3360.00000, 0.761488, 0.324392, 0.761488, 0.324392, 0.761488, 0.324392, 0, 0
0, 3420.00000, 0.761488, 0.324392, 0.761488, 0.324392, 0.761488, 0.324392, 0, 0
0, 3480.00000, 0.761488, 0.324392, 0.761488, 0.324392, 0.761488, 0.324392, 0, 0
0, 3540.00000, 0.761488, 0.324392, 0.761488, 0.324392, 0.761488, 0.324392, 0, 0
1, 0.00000, 0.761488, 0.324392, 0.761488, 0.324392, 0.761488, 0.324392, 0, 0
1, 60.00000, 0.698991, 0.297773, 0.698995, 0.297767, 0.699007, 0.29778, 0, 0
1, 120.00000, 0.698993, 0.29777, 0.698993, 0.29777, 0.698993, 0.29777, 0, 0
1, 180.00000, 0.698993, 0.29777, 0.698993, 0.29777, 0.698993, 0.29777, 0, 0
1, 240.00000, 0.698993, 0.29777, 0.698993, 0.29777, 0.698993, 0.29777, 0, 0
1, 300.00000, 0.698993, 0.29777, 0.698993, 0.29777, 0.698993, 0.29777, 0, 0
1, 360.00000, 0.698993, 0.29777, 0.698993, 0.29777, 0.698993, 0.29777, 0, 0
1, 420.00000, 0.698993, 0.29777, 0.698993, 0.29777, 0.698993, 0.29777, 0, 0
1, 480.00000, 0.698993, 0.29777, 0.698993, 0.29777, 0.698993, 0.29777, 0, 0
1, 540.00000, 0.698993, 0.29777, 0.698993, 0.29777, 0.698993, 0.29777, 0, 0
1, 600.00000, 0.698993, 0.29777, 0.698993, 0.29777, 0.698993, 0.29777, 0, 0
1, 660.00000, 0.698993, 0.29777, 0.698993, 0.29777, 0.698993, 0.29777, 0, 0
1, 720.00000, 0.698993, 0.29777, 0.698993, 0.29777, 0.698993, 0.29777, 0, 0
1, 780.00000, 0.698993, 0.29777, 0.698993, 0.29777, 0.698993, 0.29777, 0, 0
1, 840.00000, 0.698993, 0.29777, 0.698993, 0.29777, 0.698993, 0.29777, 0, 0
1, 900.00000, 0.698993, 0.29777, 0.698993, 0.29777, 0.698993, 0.29777, 0, 0
1, 960.00000, 0.706318, 0.300895, 0.70632, 0.30089, 0.706331, 0.300902, 0, 0
1, 1020.00000, 0.706314, 0.300889, 0.706314, 0.300889, 0.706315, 0.300889, 0, 0
1, 1080.00000, 0.706314, 0.300889, 0.706314, 0.300889, 0.706314, 0.300889, 0, 0
1, 1140.00000, 0.706314, 0.300889, 0.706314, 0.300889, 0.706314, 0.300889, 0, 0
1, 1200.00000, 0.706314, 0.300889, 0.706314, 0.300889, 0.706314, 0.300889, 0, 0
1, 1260.00000, 0.706314, 0.300889, 0.706314, 0.300889, 0.706314, 0.300889, 0, 0
1, 1320.00000, 0.706314, 0.300889, 0.706314, 0.300889, 0.706314, 0.300889, 0, 0
1, 1380.00000, 0.706314, 0.300889, 0.706314, 0.300889, 0.706314, 0.300889, 0, 0
1, 1440.00000, 0.706314, 0.300889, 0.706314, 0.300889, 0.706314, 0.300889, 0, 0
1, 1500.00000, 0.706314, 0.300889, 0.706314, 0.300889, 0.706314, 0.300889, 0, 0
1, 1560.00000, 0.706314, 0.300889, 0.706314, 0.300889, 0.706314, 0.300889, 0, 0
1, 1620.00000, 0.706314, 0.300889, 0.706314, 0.300889, 0.706314, 0.300889, 0, 0
1, 1680.00000, 0.706314, 0.300889, 0.706314, 0.300889, 0.706314, 0.300889, 0, 0
1, 1740.00000, 0.706314, 0.300889, 0.706314, 0.300889, 0.706314, 0.300889, 0, 0
1, 1800.00000, 0.706314, 0.300889, 0.706314, 0.300889, 0.706314, 0.300889, 0, 0
1, 1860.00000, 0.751456, 0.320115, 0.751452, 0.320121, 0.75144, 0.320108, 0, 0
1, 1920.00000, 0.751454, 0.320118, 0.751454, 0.320118, 0.751454, 0.320118, 0, 0
1, 1980.00000, 0.751454, 0.320118, 0.751454, 0.320118, 0.751454, 0.320118, 0, 0
1, 2040.00000, 0.751454, 0.320118, 0.751454, 0.320118, 0.751454, 0.320118, 0, 0
1, 2100.00000, 0.751454, 0.320118, 0.751454, 0.320118, 0.751454, 0.320118, 0, 0
1, 2160.00000, 0.751454, 0.320118, 0.751454, 0.320118, 0.751454, 0.320118, 0, 0
1, 2220.00000, 0.751454, 0.320118, 0.751454, 0.320118, 0.751454, 0.320118, 0, 0
1, 2280.00000, 0.751454, 0.320118, 0.751454, 0.320118, 0.751454, 0.320118, 0, 0
1, 2340.00000, 0.751454, 0.320118, 0.751454, 0.320118, 0.751454, 0.320118, 0, 0
1, 2400.00000, 0.751454, 0.320118, 0.751454, 0.320118, 0.751454, 0.320118, 0, 0
1, 2460.00000, 0.751454, 0.320118, 0.751454, 0.320118, 0.751454, 0.320118, 0, 0
1, 2520.00000, 0.751454, 0.320118, 0.751454, 0.320118, 0.751454, 0.320118, 0, 0
1, 2580.00000, 0.751454, 0.320118, 0.751454, 0.320118, 0.751454, 0.320118, 0, 0
1, 2640.00000, 0.751454, 0.320118, 0.751454, 0.320118, 0.751454, 0.320118, 0, 0
1, 2700.00000, 0.751458, 0.320117, 0.744549, 0.317182, 0.75112, 0.319968, 0, 0
1, 2760.00000, 0.709372, 0.302194, 0.707401, 0.301352, 0.709371, 0.302193, 0, 0
1, 2820.00000, 0.709367, 0.302189, 0.707403, 0.301352, 0.709367, 0.302189, 0, 0
1, 2880.00000, 0.709367, 0.302189, 0.707403, 0.301352, 0.709367, 0.302189, 0, 0
1, 2940.00000, 0.709367, 0.302189, 0.707403, 0.301352, 0.709367, 0.302189, 0, 0
1, 3000.00000, 0.709367, 0.302189, 0.707403, 0.301352, 0.709367, 0.302189, 0, 0
1, 3060.00000, 0.709367, 0.302189, 0.707403, 0.301352, 0.709367, 0.302189, 0, 0
1, 3120.00000, 0.709367, 0.302189, 0.707403, 0.301352, 0.709367, 0.302189, 0, 0
1, 3180.00000, 0.709367, 0.302189, 0.707403, 0.301352, 0.709367, 0.302189, 0, 0
1, 3240.00000, 0.709367, 0.302189, 0.707403, 0.301352, 0.709367, 0.302189, 0, 0
1, 3300.00000, 0.709367, 0.302189, 0.707403, 0.301352, 0.709367, 0.302189, 0, 0
1, 3360.00000, 0.709367, 0.302189, 0.707403, 0.301352, 0.709367, 0.302189, 0, 0
1, 3420.00000, 0.709367, 0.302189, 0.707403, 0.301352, 0.709367, 0.302189, 0, 0
1, 3480.00000, 0.709367, 0.302189, 0.707403, 0.301352, 0.709367, 0.302189, 0, 0
1, 3540.00000, 0.709367, 0.302189, 0.707403, 0.301352, 0.709367, 0.302189, 0, 0
2, 0.00000, 0.709367, 0.302189, 0.707403, 0.301352, 0.709367, 0.302189, 0, 0
2, 60.00000, 0.754871, 0.321572, 0.749741, 0.319388, 0.754872, 0.321573, 0, 0
2, 120.00000, 0.754874, 0.321575, 0.74974, 0.319388, 0.754874, 0.321575, 0, 0
2, 180.00000, 0.754874, 0.321575, 0.74974, 0.319388, 0.754874, 0.321575, 0, 0
2, 240.00000, 0.754874, 0.321575, 0.74974, 0.319388, 0.754874, 0.321575, 0, 0
2, 300.00000, 0.754874, 0.321575, 0.74974, 0.319388, 0.754874, 0.321575, 0, 0
2, 360.00000, 0.754874, 0.321575, 0.74974, 0.319388, 0.754874, 0.321575, 0, 0
2, 420.00000, 0.754874, 0.321575, 0.74974, 0.319388, 0.754874, 0.321575, 0, 0
2, 480.00000, 0.754874, 0.321575, 0.74974, 0.319388, 0.754874, 0.321575, 0, 0
2, 540.00000, 0.754879, 0.321577, 0.75479, 0.321544, 0.75487, 0.321573, 0, 0
2, 600.00000, 0.754874, 0.321575, 0.7548, 0.321544, 0.754874, 0.321575, 0, 0
2, 660.00000, 0.754874, 0.321575, 0.7548, 0.321544, 0.754874, 0.321575, 0, 0
2, 720.00000, 0.754874, 0.321575, 0.7548, 0.321544, 0.754874, 0.321575, 0, 0
2, 780.00000, 0.754874, 0.321575, 0.7548, 0.321544, 0.754874, 0.321575, 0, 0
2, 840.00000, 0.754874, 0.321575, 0.7548, 0.321544, 0.754874, 0.321575, 0, 0
2, 900.00000, 0.754874, 0.321575, 0.7548, 0.321544, 0.754874, 0.321575, 0, 0
2, 960.00000, 0.72563, 0.309119, 0.725629, 0.309118, 0.725628, 0.309118, 0, 0
2, 1020.00000, 0.725626, 0.309116, 0.725626, 0.309116, 0.725626, 0.309116, 0, 0
2, 1080.00000, 0.725626, 0.309116, 0.725626, 0.309116, 0.725626, 0.309116, 0, 0
2, 1140.00000, 0.725626, 0.309116, 0.725626, 0.309116, 0.725626, 0.309116, 0, 0
2, 1200.00000, 0.725626, 0.309116, 0.725626, 0.309116, 0.725626, 0.309116, 0, 0
2, 1260.00000, 0.725626, 0.309116, 0.725626, 0.309116, 0.725626, 0.309116, 0, 0
2, 1320.00000, 0.725626, 0.309116, 0.725626, 0.309116, 0.725626, 0.309116, 0, 0
2, 1380.00000, 0.725626, 0.309116, 0.725626, 0.309116, 0.725626, 0.309116, 0, 0
2, 1440.00000, 0.725626, 0.309116, 0.725626, 0.309116, 0.725626, 0.309116, 0, 0
2, 1500.00000, 0.725626, 0.309116, 0.725626, 0.309116, 0.725626, 0.309116, 0, 0
2, 1560.00000, 0.725626, 0.309116, 0.725626, 0.309116, 0.725626, 0.309116, 0, 0
2, 1620.00000, 0.725626, 0.309116, 0.725626, 0.309116, 0.725626, 0.309116, 0, 0
2, 1680.00000, 0.725626, 0.309116, 0.725626, 0.309116, 0.725626, 0.309116, 0, 0
2, 1740.00000, 0.725626, 0.309116, 0.725626, 0.309116, 0.725626, 0.309116, 0, 0
2, 1800.00000, 0.725626, 0.309116, 0.725626, 0.309116, 0.725626, 0.309116, 0, 0
2, 1860.00000, 0.774852, 0.330075, 0.774858, 0.330085, 0.774866, 0.330075, 0, 0
2, 1920.00000, 0.774879, 0.330097, 0.774879, 0.330097, 0.774879, 0.330097, 0, 0
2, 1980.00000, 0.774879, 0.330097, 0.774879, 0.330097, 0.774879, 0.330097, 0, 0
2, 2040.00000, 0.774879, 0.330097, 0.774879, 0.330097, 0.774879, 0.330097, 0, 0
2, 2100.00000, 0.774879, 0.330097, 0.774879, 0.330097, 0.774879, 0.330097, 0, 0
2, 2160.00000, 0.774879, 0.330097, 0.774879, 0.330097, 0.774879, 0.330097, 0, 0
2, 2220.00000, 0.774879, 0.330097, 0.774879, 0.330097, 0.774879, 0.330097, 0, 0
2, 2280.00000, 0.774879, 0.330097, 0.774879, 0.330097, 0.774879, 0.330097, 0, 0
2, 2340.00000, 0.774879, 0.330097, 0.774879, 0.330097, 0.774879, 0.330097, 0, 0
2, 2400.00000, 0.774879, 0.330097, 0.774879, 0.330097, 0.774879, 0.330097, 0, 0
2, 2460.00000, 0.774879, 0.330097, 0.774879, 0.330097, 0.774879, 0.330097, 0, 0
2, 2520.00000, 0.774879, 0.330097, 0.774879, 0.330097, 0.774879, 0.330097, 0, 0
2, 2580.00000, 0.774879, 0.330097, 0.774879, 0.330097, 0.774879, 0.330097, 0, 0
2, 2640.00000, 0.774879, 0.330097, 0.774879, 0.330097, 0.774879, 0.330097, 0, 0
2, 2700.00000, 0.774879, 0.330097, 0.774879, 0.330097, 0.774879, 0.330097, 0, 0
2, 2760.00000, 0.715306, 0.304722, 0.715298, 0.30472, 0.715301, 0.304717, 0, 0
2, 2820.00000, 0.715296, 0.304715, 0.715296, 0.304715, 0.715296, 0.304715, 0, 0
2, 2880.00000, 0.715296, 0.304715, 0.715296, 0.304715, 0.715296, 0.304715, 0, 0
2, 2940.00000, 0.715296, 0.304715, 0.715296, 0.304715, 0.715296, 0.304715, 0, 0
2, 3000.00000, 0.715296, 0.304715, 0.715296, 0.304715, 0.715296, 0.304715, 0, 0
2, 3060.00000, 0.715296, 0.304715, 0.715296, 0.304715, 0.715296, 0.304715, 0, 0
2, 3120.00000, 0.715277, 0.304705, 0.715342, 0.304722, 0.715341, 0.304763, 0, 0
2, 3180.00000, 0.715295, 0.304714, 0.715297, 0.304715, 0.715296, 0.304715, 0, 0
2, 3240.00000, 0.715296, 0.304715, 0.715296, 0.304715, 0.715296, 0.304715, 0, 0
2, 3300.00000, 0.715296, 0.304715, 0.715296, 0.304715, 0.715296, 0.304715, 0, 0
2, 3360.00000, 0.715296, 0.304715, 0.715296, 0.304715, 0.715296, 0.304715, 0, 0
2, 3420.00000, 0.715296, 0.304715, 0.715296, 0.304715, 0.715296, 0.304715, 0, 0
2, 3480.00000, 0.715296, 0.304715, 0.715296, 0.304715, 0.715296, 0.304715, 0, 0
2, 3540.00000, 0.715296, 0.304715, 0.715296, 0.304715, 0.715296, 0.304715, 0, 0
3, 0.00000, 0.715296, 0.304715, 0.715296, 0.304715, 0.715296, 0.304715, 0, 0
3, 60.00000, 0.766084, 0.32635, 0.766072, 0.326346, 0.766074, 0.32634, 0, 0
3, 120.00000, 0.766085, 0.326351, 0.766084, 0.326351, 0.766084, 0.32635, 0, 0
3, 180.00000, 0.766084, 0.326351, 0.766084, 0.326351, 0.766084, 0.326351, 0, 0
3, 240.00000, 0.766084, 0.326351, 0.766084, 0.326351, 0.766084, 0.326351, 0, 0
3, 300.00000, 0.766084, 0.326351, 0.766084, 0.326351, 0.766084, 0.326351, 0, 0
3, 360.00000, 0.766084, 0.326351, 0.766084, 0.326351, 0.766084, 0.326351, 0, 0
3, 420.00000, 0.766084, 0.326351, 0.766084, 0.326351, 0.766084, 0.326351, 0, 0
3, 480.00000, 0.766084, 0.326351, 0.766084, 0.326351, 0.766084, 0.326351, 0, 0
3, 540.00000, 0.766084, 0.326351, 0.766084, 0.326351, 0.766084, 0.326351, 0, 0
3, 600.00000, 0.766084, 0.326351, 0.766084, 0.326351, 0.766084, 0.326351, 0, 0
3, 660.00000, 0.766084, 0.326351, 0.766084, 0.326351, 0.766084, 0.326351, 0, 0
3, 720.00000, 0.766084, 0.326351, 0.766084, 0.326351, 0.766084, 0.326351, 0, 0
3, 780.00000, 0.766084, 0.326351, 0.766084, 0.326351, 0.766084, 0.326351, 0, 0
3, 840.00000, 0.766084, 0.326351, 0.766084, 0.326351, 0.766084, 0.326351, 0, 0
3, 900.00000, 0.766084, 0.326351, 0.766084, 0.326351, 0.766084, 0.326351, 0, 0
3, 960.00000, 0.707668, 0.301468, 0.707685, 0.301474, 0.707683, 0.301483, 0, 0
3, 1020.00000, 0.70766, 0.301462, 0.707661, 0.301462, 0.707661, 0.301462, 0, 0
3, 1080.00000, 0.707661, 0.301462, 0.707661, 0.301462, 0.707661, 0.301462, 0, 0
3, 1140.00000, 0.707661, 0.301462, 0.707661, 0.301462, 0.707661, 0.301462, 0, 0
3, 1200.00000, 0.707661, 0.301462, 0.707661, 0.301462, 0.707661, 0.301462, 0, 0
3, 1260.00000, 0.707661, 0.301462, 0.707661, 0.301462, 0.707661, 0.301462, 0, 0
3, 1320.00000, 0.707661, 0.301462, 0.707661, 0.301462, 0.707661, 0.301462, 0, 0
3, 1380.00000, 0.707661, 0.301462, 0.707661, 0.301462, 0.707661, 0.301462, 0, 0
3, 1440.00000, 0.707661, 0.301462, 0.707661, 0.301462, 0.707661, 0.301462, 0, 0
3, 1500.00000, 0.707661, 0.301462, 0.707661, 0.301462, 0.707661, 0.301462, 0, 0
3, 1560.00000, 0.707661, 0.301462, 0.707661, 0.301462, 0.707661, 0.301462, 0, 0
3, 1620.00000, 0.707661, 0.301462, 0.707661, 0.301462, 0.707661, 0.301462, 0, 0
3, 1680.00000, 0.707661, 0.301462, 0.707661, 0.301462, 0.707661, 0.301462, 0, 0
3, 1740.00000, 0.707661, 0.301462, 0.707661, 0.301462, 0.707661, 0.301462, 0, 0
3, 1800.00000, 0.707661, 0.301462, 0.707661, 0.301462, 0.707661, 0.301462, 0, 0
3, 1860.00000, 0.659419, 0.280912, 0.659436, 0.280919, 0.659431, 0.280926, 0, 0
3, 1920.00000, 0.659413, 0.280909, 0.659414, 0.280909, 0.659414, 0.280909, 0, 0
3, 1980.00000, 0.659414, 0.280909, 0.659414, 0.280909, 0.659414, 0.280909, 0, 0
3, 2040.00000, 0.659414, 0.280909, 0.659414, 0.280909, 0.659414, 0.280909, 0, 0
3, 2100.00000, 0.659414, 0.280909, 0.659414, 0.280909, 0.659414, 0.280909, 0, 0
3, 2160.00000, 0.659414, 0.280909, 0.659414, 0.280909, 0.659414, 0.280909, 0, 0
3, 2220.00000, 0.659414, 0.280909, 0.659414, 0.280909, 0.659414, 0.280909, 0, 0
3, 2280.00000, 0.659414, 0.280909, 0.659414, 0.280909, 0.659414, 0.280909, 0, 0
3, 2340.00000, 0.659414, 0.280909, 0.659414, 0.280909, 0.659414, 0.280909, 0, 0
3, 2400.00000, 0.659414, 0.280909, 0.659414, 0.280909, 0.659414, 0.280909, 0, 0
3, 2460.00000, 0.659414, 0.280909, 0.659414, 0.280909, 0.659414, 0.280909, 0, 0
3, 2520.00000, 0.659414, 0.280909, 0.659414, 0.280909, 0.659414, 0.280909, 0, 0
3, 2580.00000, 0.659414, 0.280909, 0.659414, 0.280909, 0.659414, 0.280909, 0, 0
3, 2640.00000, 0.659414, 0.280909, 0.659414, 0.280909, 0.659414, 0.280909, 0, 0
3, 2700.00000, 0.659414, 0.280909, 0.659414, 0.280909, 0.659414, 0.280909, 0, 0
3, 2760.00000, 0.695041, 0.29609, 0.695045, 0.29609, 0.695046, 0.296095, 0, 0
3, 2820.00000, 0.69503, 0.296082, 0.69503, 0.296082, 0.69503, 0.296082, 0, 0
3, 2880.00000, 0.69503, 0.296082, 0.69503, 0.296082, 0.69503, 0.296082, 0, 0
3, 2940.00000, 0.69503, 0.296082, 0.69503, 0.296082, 0.69503, 0.296082, 0, 0
3, 3000.00000, 0.69503, 0.296082, 0.69503, 0.296082, 0.69503, 0.296082, 0, 0
3, 3060.00000, 0.69503, 0.296082, 0.69503, 0.296082, 0.69503, 0.296082, 0, 0
3, 3120.00000, 0.695055, 0.296109, 0.695016, 0.296077, 0.695045, 0.296084, 0, 0
3, 3180.00000, 0.69503, 0.296082, 0.695029, 0.296081, 0.69503, 0.296082, 0, 0
3, 3240.00000, 0.69503, 0.296082, 0.69503, 0.296082, 0.69503, 0.296082, 0, 0
3, 3300.00000, 0.69503, 0.296082, 0.69503, 0.296082, 0.69503, 0.296082, 0, 0
3, 3360.00000, 0.69503, 0.296082, 0.69503, 0.296082, 0.69503, 0.296082, 0, 0
3, 3420.00000, 0.69503, 0.296082, 0.69503, 0.296082, 0.69503, 0.296082, 0, 0
3, 3480.00000, 0.69503, 0.296082, 0.69503, 0.296082, 0.69503, 0.296082, 0, 0
3, 3540.00000, 0.69503, 0.296082, 0.69503, 0.296082, 0.69503, 0.296082, 0, 0
4, 0.00000, 0.69503, 0.296082, 0.69503, 0.296082, 0.69503, 0.296082, 0, 0
4, 60.00000, 0.653275, 0.278291, 0.653277, 0.278293, 0.653274, 0.278291, 0, 0
4, 120.00000, 0.653284, 0.278298, 0.653284, 0.278298, 0.653284, 0.278298, 0, 0
4, 180.00000, 0.653284, 0.278298, 0.653284, 0.278298, 0.653284, 0.278298, 0, 0
4, 240.00000, 0.653284, 0.278298, 0.653284, 0.278298, 0.653284, 0.278298, 0, 0
4, 300.00000, 0.653284, 0.278298, 0.653284, 0.278298, 0.653284, 0.278298, 0, 0
4, 360.00000, 0.653284, 0.278298, 0.653284, 0.278298, 0.653284, 0.278298, 0, 0
4, 420.00000, 0.653284, 0.278298, 0.653284, 0.278298, 0.653284, 0.278298, 0, 0
4, 480.00000, 0.653284, 0.278298, 0.653284, 0.278298, 0.653284, 0.278298, 0, 0
4, 540.00000, 0.653284, 0.278298, 0.653284, 0.278298, 0.653284, 0.278298, 0, 0
4, 600.00000, 0.653284, 0.278298, 0.653284, 0.278298, 0.653284, 0.278298, 0, 0
4, 660.00000, 0.653284, 0.278298, 0.653284, 0.278298, 0.653284, 0.278298, 0, 0
