hour,t(sec),"P1 (kW)","Q1 (kvar)","P2 (kW)","Q2 (kvar)","P3 (kW)","Q3 (kvar)","P4 (kW)","Q4 (kvar)"
0, 60.00000, 0.72878, 0.310457, 0.786188, 0.334913, 0.743212, 0.316602, 0, 0
0, 120.00000, 0.728775, 0.310457, 0.786184, 0.334913, 0.743203, 0.316603, 0, 0
0, 180.00000, 0.728775, 0.310457, 0.786184, 0.334913, 0.743203, 0.316603, 0, 0
0, 240.00000, 0.728775, 0.310457, 0.786184, 0.334913, 0.743203, 0.316603, 0, 0
0, 300.00000, 0.728775, 0.310457, 0.786184, 0.334913, 0.743203, 0.316603, 0, 0
0, 360.00000, 0.728775, 0.310457, 0.786184, 0.334913, 0.743203, 0.316603, 0, 0
0, 420.00000, 0.728775, 0.310457, 0.786184, 0.334913, 0.743203, 0.316603, 0, 0
0, 480.00000, 0.645736, 0.275083, 0.696257, 0.296607, 0.657684, 0.280179, 0, 0
0, 540.00000, 0.645741, 0.275084, 0.696268, 0.296609, 0.65769, 0.280175, 0, 0
0, 600.00000, 0.645741, 0.275084, 0.696268, 0.296609, 0.65769, 0.280175, 0, 0
0, 660.00000, 0.645741, 0.275084, 0.696268, 0.296609, 0.65769, 0.280175, 0, 0
0, 720.00000, 0.645741, 0.275084, 0.696268, 0.296609, 0.65769, 0.280175, 0, 0
0, 780.00000, 0.645741, 0.275084, 0.696268, 0.296609, 0.65769, 0.280175, 0, 0
0, 840.00000, 0.645741, 0.275084, 0.696268, 0.296609, 0.65769, 0.280175, 0, 0
0, 900.00000, 0.645741, 0.275084, 0.696268, 0.296609, 0.65769, 0.280175, 0, 0
0, 960.00000, 0.639704, 0.272512, 0.696208, 0.296584, 0.654297, 0.278727, 0, 0
0, 1020.00000, 0.639701, 0.272511, 0.696209, 0.296584, 0.654294, 0.278728, 0, 0
0, 1080.00000, 0.639701, 0.272511, 0.696209, 0.296584, 0.654294, 0.278728, 0, 0
0, 1140.00000, 0.639701, 0.272511, 0.696209, 0.296584, 0.654294, 0.278728, 0, 0
0, 1200.00000, 0.639701, 0.272511, 0.696209, 0.296584, 0.654294, 0.278728, 0, 0
0, 1260.00000, 0.639701, 0.272511, 0.696209, 0.296584, 0.654294, 0.278728, 0, 0
0, 1320.00000, 0.639701, 0.272511, 0.696209, 0.296584, 0.654294, 0.278728, 0, 0
0, 1380.00000, 0.639701, 0.272511, 0.696209, 0.296584, 0.654294, 0.278728, 0, 0
0, 1440.00000, 0.639701, 0.272511, 0.696209, 0.296584, 0.654294, 0.278728, 0, 0
0, 1500.00000, 0.639701, 0.272511, 0.696209, 0.296584, 0.654294, 0.278728, 0, 0
0, 1560.00000, 0.639701, 0.272511, 0.696209, 0.296584, 0.654294, 0.278728, 0, 0
0, 1620.00000, 0.639701, 0.272511, 0.696209, 0.296584, 0.654294, 0.278728, 0, 0
0, 1680.00000, 0.639701, 0.272511, 0.696209, 0.296584, 0.654294, 0.278728, 0, 0
0, 1740.00000, 0.639701, 0.272511, 0.696209, 0.296584, 0.654294, 0.278728, 0, 0
0, 1800.00000, 0.633371, 0.269814, 0.696139, 0.296554, 0.650551, 0.27713, 0, 0
0, 1860.00000, 0.633367, 0.269813, 0.696139, 0.296554, 0.650548, 0.277132, 0, 0
0, 1920.00000, 0.633367, 0.269813, 0.696139, 0.296554, 0.650548, 0.277132, 0, 0
0, 1980.00000, 0.633367, 0.269813, 0.696139, 0.296554, 0.650548, 0.277132, 0, 0
0, 2040.00000, 0.633367, 0.269813, 0.696139, 0.296554, 0.650548, 0.277132, 0, 0
0, 2100.00000, 0.633367, 0.269813, 0.696139, 0.296554, 0.650548, 0.277132, 0, 0
0, 2160.00000, 0.633367, 0.269813, 0.696139, 0.296554, 0.650548, 0.277132, 0, 0
0, 2220.00000, 0.633367, 0.269813, 0.696139, 0.296554, 0.650548, 0.277132, 0, 0
0, 2280.00000, 0.633367, 0.269813, 0.696139, 0.296554, 0.650548, 0.277132, 0, 0
0, 2340.00000, 0.633367, 0.269813, 0.696139, 0.296554, 0.650548, 0.277132, 0, 0
0, 2400.00000, 0.633367, 0.269813, 0.696139, 0.296554, 0.650548, 0.277132, 0, 0
0, 2460.00000, 0.633367, 0.269813, 0.696139, 0.296554, 0.650548, 0.277132, 0, 0
0, 2520.00000, 0.633367, 0.269813, 0.696139, 0.296554, 0.650548, 0.277132, 0, 0
0, 2580.00000, 0.633367, 0.269813, 0.696139, 0.296554, 0.650548, 0.277132, 0, 0
0, 2640.00000, 0.633367, 0.269813, 0.696139, 0.296554, 0.650548, 0.277132, 0, 0
0, 2700.00000, 0.633367, 0.269813, 0.696139, 0.296554, 0.650548, 0.277132, 0, 0
0, 2760.00000, 0.636681, 0.271228, 0.696148, 0.296557, 0.651635, 0.277599, 0, 0
0, 2820.00000, 0.636686, 0.271227, 0.696147, 0.296557, 0.651641, 0.277598, 0, 0
0, 2880.00000, 0.636686, 0.271227, 0.696147, 0.296557, 0.651641, 0.277598, 0, 0
0, 2940.00000, 0.636686, 0.271227, 0.696147, 0.296557, 0.651641, 0.277598, 0, 0
0, 3000.00000, 0.636686, 0.271227, 0.696147, 0.296557, 0.651641, 0.277598, 0, 0
0, 3060.00000, 0.636686, 0.271227, 0.696147, 0.296557, 0.651641, 0.277598, 0, 0
0, 3120.00000, 0.636686, 0.271227, 0.696147, 0.296557, 0.651641, 0.277598, 0, 0
0, 3180.00000, 0.636686, 0.271227, 0.696147, 0.296557, 0.651641, 0.277598, 0, 0
0, 3240.00000, 0.636686, 0.271227, 0.696147, 0.296557, 0.651641, 0.277598, 0, 0
0, 3300.00000, 0.636686, 0.271227, 0.696147, 0.296557, 0.651641, 0.277598, 0, 0
0, 3360.00000, 0.636686, 0.271227, 0.696147, 0.296557, 0.651641, 0.277598, 0, 0
0, 3420.00000, 0.636686, 0.271227, 0.696147, 0.296557, 0.651641, 0.277598, 0, 0
0, 3480.00000, 0.636686, 0.271227, 0.696147, 0.296557, 0.651641, 0.277598, 0, 0
0, 3540.00000, 0.636686, 0.271227, 0.696147, 0.296557, 0.651641, 0.277598, 0, 0
1, 0.00000, 0.636686, 0.271227, 0.696147, 0.296557, 0.651641, 0.277598, 0, 0
1, 60.00000, 0.63985, 0.272577, 0.696161, 0.296563, 0.652603, 0.27801, 0, 0
1, 120.00000, 0.639854, 0.272577, 0.69616, 0.296563, 0.652606, 0.278009, 0, 0
1, 180.00000, 0.639854, 0.272577, 0.69616, 0.296563, 0.652606, 0.278009, 0, 0
1, 240.00000, 0.639854, 0.272577, 0.69616, 0.296563, 0.652606, 0.278009, 0, 0
1, 300.00000, 0.639854, 0.272577, 0.69616, 0.296563, 0.652606, 0.278009, 0, 0
1, 360.00000, 0.639854, 0.272577, 0.69616, 0.296563, 0.652606, 0.278009, 0, 0
1, 420.00000, 0.639854, 0.272577, 0.69616, 0.296563, 0.652606, 0.278009, 0, 0
1, 480.00000, 0.639854, 0.272577, 0.69616, 0.296563, 0.652606, 0.278009, 0, 0
1, 540.00000, 0.639854, 0.272577, 0.69616, 0.296563, 0.652606, 0.278009, 0, 0
1, 600.00000, 0.639854, 0.272577, 0.69616, 0.296563, 0.652606, 0.278009, 0, 0
1, 660.00000, 0.639854, 0.272577, 0.69616, 0.296563, 0.652606, 0.278009, 0, 0
1, 720.00000, 0.639854, 0.272577, 0.69616, 0.296563, 0.652606, 0.278009, 0, 0
1, 780.00000, 0.65791, 0.28027, 0.69578, 0.296401, 0.669609, 0.285255, 0, 0
1, 840.00000, 0.657916, 0.280271, 0.69578, 0.296401, 0.669612, 0.285254, 0, 0
1, 900.00000, 0.657916, 0.280271, 0.69578, 0.296401, 0.669612, 0.285254, 0, 0
1, 960.00000, 0.657916, 0.280271, 0.69578, 0.296401, 0.669612, 0.285254, 0, 0
1, 1020.00000, 0.657916, 0.280271, 0.69578, 0.296401, 0.669612, 0.285254, 0, 0
1, 1080.00000, 0.657916, 0.280271, 0.69578, 0.296401, 0.669612, 0.285254, 0, 0
1, 1140.00000, 0.657916, 0.280271, 0.69578, 0.296401, 0.669612, 0.285254, 0, 0
1, 1200.00000, 0.657916, 0.280271, 0.69578, 0.296401, 0.669612, 0.285254, 0, 0
1, 1260.00000, 0.657916, 0.280271, 0.69578, 0.296401, 0.669612, 0.285254, 0, 0
1, 1320.00000, 0.657916, 0.280271, 0.69578, 0.296401, 0.669612, 0.285254, 0, 0
1, 1380.00000, 0.657916, 0.280271, 0.69578, 0.296401, 0.669612, 0.285254, 0, 0
1, 1440.00000, 0.657916, 0.280271, 0.69578, 0.296401, 0.669612, 0.285254, 0, 0
1, 1500.00000, 0.657916, 0.280271, 0.69578, 0.296401, 0.669612, 0.285254, 0, 0
1, 1560.00000, 0.657916, 0.280271, 0.69578, 0.296401, 0.669612, 0.285254, 0, 0
1, 1620.00000, 0.657916, 0.280271, 0.69578, 0.296401, 0.669612, 0.285254, 0, 0
1, 1680.00000, 0.657916, 0.280271, 0.69578, 0.296401, 0.669612, 0.285254, 0, 0
1, 1740.00000, 0.657916, 0.280271, 0.69578, 0.296401, 0.669612, 0.285254, 0, 0
1, 1800.00000, 0.657916, 0.280271, 0.69578, 0.296401, 0.669612, 0.285254, 0, 0
1, 1860.00000, 0.657916, 0.280271, 0.69578, 0.296401, 0.669612, 0.285254, 0, 0
1, 1920.00000, 0.657916, 0.280271, 0.69578, 0.296401, 0.669612, 0.285254, 0, 0
1, 1980.00000, 0.657916, 0.280271, 0.69578, 0.296401, 0.669612, 0.285254, 0, 0
1, 2040.00000, 0.657916, 0.280271, 0.69578, 0.296401, 0.669612, 0.285254, 0, 0
1, 2100.00000, 0.657916, 0.280271, 0.69578, 0.296401, 0.669612, 0.285254, 0, 0
1, 2160.00000, 0.657916, 0.280271, 0.69578, 0.296401, 0.669612, 0.285254, 0, 0
1, 2220.00000, 0.664709, 0.283168, 0.695829, 0.296422, 0.673531, 0.286925, 0, 0
1, 2280.00000, 0.664715, 0.283168, 0.695829, 0.296422, 0.673533, 0.286924, 0, 0
1, 2340.00000, 0.664715, 0.283168, 0.695828, 0.296422, 0.673533, 0.286924, 0, 0
1, 2400.00000, 0.664715, 0.283168, 0.695828, 0.296422, 0.673533, 0.286924, 0, 0
1, 2460.00000, 0.664715, 0.283168, 0.695828, 0.296422, 0.673533, 0.286924, 0, 0
1, 2520.00000, 0.664715, 0.283168, 0.695828, 0.296422, 0.673533, 0.286924, 0, 0
1, 2580.00000, 0.664715, 0.283168, 0.695828, 0.296422, 0.673533, 0.286924, 0, 0
1, 2640.00000, 0.664715, 0.283168, 0.695828, 0.296422, 0.673533, 0.286924, 0, 0
1, 2700.00000, 0.664715, 0.283168, 0.695828, 0.296422, 0.673533, 0.286924, 0, 0
1, 2760.00000, 0.664715, 0.283168, 0.695828, 0.296422, 0.673533, 0.286924, 0, 0
1, 2820.00000, 0.664715, 0.283168, 0.695828, 0.296422, 0.673533, 0.286924, 0, 0
1, 2880.00000, 0.664715, 0.283168, 0.695828, 0.296422, 0.673533, 0.286924, 0, 0
1, 2940.00000, 0.664715, 0.283168, 0.695828, 0.296422, 0.673533, 0.286924, 0, 0
1, 3000.00000, 0.664715, 0.283168, 0.695828, 0.296422, 0.673533, 0.286924, 0, 0
1, 3060.00000, 0.664715, 0.283168, 0.695828, 0.296422, 0.673533, 0.286924, 0, 0
1, 3120.00000, 0.664715, 0.283168, 0.695828, 0.296422, 0.673533, 0.286924, 0, 0
1, 3180.00000, 0.664715, 0.283168, 0.695828, 0.296422, 0.673533, 0.286924, 0, 0
1, 3240.00000, 0.664715, 0.283168, 0.695828, 0.296422, 0.673533, 0.286924, 0, 0
1, 3300.00000, 0.664715, 0.283168, 0.695828, 0.296422, 0.673533, 0.286924, 0, 0
1, 3360.00000, 0.664715, 0.283168, 0.695828, 0.296422, 0.673533, 0.286924, 0, 0
1, 3420.00000, 0.664715, 0.283168, 0.695828, 0.296422, 0.673533, 0.286924, 0, 0
1, 3480.00000, 0.664715, 0.283168, 0.695828, 0.296422, 0.673533, 0.286924, 0, 0
1, 3540.00000, 0.664715, 0.283168, 0.695828, 0.296422, 0.673533, 0.286924, 0, 0
2, 0.00000, 0.664715, 0.283168, 0.695828, 0.296422, 0.673533, 0.286924, 0, 0
2, 60.00000, 0.664715, 0.283168, 0.695828, 0.296422, 0.673533, 0.286924, 0, 0
2, 120.00000, 0.664715, 0.283168, 0.695828, 0.296422, 0.673533, 0.286924, 0, 0
2, 180.00000, 0.664715, 0.283168, 0.695828, 0.296422, 0.673533, 0.286924, 0, 0
2, 240.00000, 0.664715, 0.283168, 0.695828, 0.296422, 0.673533, 0.286924, 0, 0
2, 300.00000, 0.664715, 0.283168, 0.695828, 0.296422, 0.673533, 0.286924, 0, 0
2, 360.00000, 0.664715, 0.283168, 0.695828, 0.296422, 0.673533, 0.286924, 0, 0
2, 420.00000, 0.664715, 0.283168, 0.695828, 0.296422, 0.673533, 0.286924, 0, 0
2, 480.00000, 0.664715, 0.283168, 0.695828, 0.296422, 0.673533, 0.286924, 0, 0
2, 540.00000, 0.664715, 0.283168, 0.695828, 0.296422, 0.673533, 0.286924, 0, 0
2, 600.00000, 0.664715, 0.283168, 0.695828, 0.296422, 0.673533, 0.286924, 0, 0
2, 660.00000, 0.664715, 0.283168, 0.695828, 0.296422, 0.673533, 0.286924, 0, 0
2, 720.00000, 0.664715, 0.283168, 0.695828, 0.296422, 0.673533, 0.286924, 0, 0
2, 780.00000, 0.664715, 0.283168, 0.695828, 0.296422, 0.673533, 0.286924, 0, 0
2, 840.00000, 0.671135, 0.285906, 0.695878, 0.296443, 0.677087, 0.28844, 0, 0
2, 900.00000, 0.671142, 0.285906, 0.695877, 0.296442, 0.677089, 0.288439, 0, 0
2, 960.00000, 0.671142, 0.285905, 0.695877, 0.296442, 0.677089, 0.288439, 0, 0
2, 1020.00000, 0.671142, 0.285905, 0.695877, 0.296442, 0.677089, 0.288439, 0, 0
2, 1080.00000, 0.671142, 0.285905, 0.695877, 0.296442, 0.677089, 0.288439, 0, 0
2, 1140.00000, 0.671142, 0.285905, 0.695877, 0.296442, 0.677089, 0.288439, 0, 0
2, 1200.00000, 0.671142, 0.285905, 0.695877, 0.296442, 0.677089, 0.288439, 0, 0
2, 1260.00000, 0.671142, 0.285905, 0.695877, 0.296442, 0.677089, 0.288439, 0, 0
2, 1320.00000, 0.671142, 0.285905, 0.695877, 0.296442, 0.677089, 0.288439, 0, 0
2, 1380.00000, 0.671142, 0.285905, 0.695877, 0.296442, 0.677089, 0.288439, 0, 0
2, 1440.00000, 0.671142, 0.285905, 0.695877, 0.296442, 0.677089, 0.288439, 0, 0
2, 1500.00000, 0.671142, 0.285905, 0.695877, 0.296442, 0.677089, 0.288439, 0, 0
2, 1560.00000, 0.671142, 0.285905, 0.695877, 0.296442, 0.677089, 0.288439, 0, 0
2, 1620.00000, 0.671142, 0.285905, 0.695877, 0.296442, 0.677089, 0.288439, 0, 0
2, 1680.00000, 0.671142, 0.285905, 0.695877, 0.296442, 0.677089, 0.288439, 0, 0
2, 1740.00000, 0.671142, 0.285905, 0.695877, 0.296442, 0.677089, 0.288439, 0, 0
2, 1800.00000, 0.671142, 0.285905, 0.695877, 0.296442, 0.677089, 0.288439, 0, 0
2, 1860.00000, 0.671142, 0.285905, 0.695877, 0.296442, 0.677089, 0.288439, 0, 0
2, 1920.00000, 0.671142, 0.285905, 0.695877, 0.296442, 0.677089, 0.288439, 0, 0
2, 1980.00000, 0.671142, 0.285905, 0.695877, 0.296442, 0.677089, 0.288439, 0, 0
2, 2040.00000, 0.671142, 0.285905, 0.695877, 0.296442, 0.677089, 0.288439, 0, 0
2, 2100.00000, 0.671142, 0.285905, 0.695877, 0.296442, 0.677089, 0.288439, 0, 0
2, 2160.00000, 0.671142, 0.285905, 0.695877, 0.296442, 0.677089, 0.288439, 0, 0
2, 2220.00000, 0.671142, 0.285905, 0.695877, 0.296442, 0.677089, 0.288439, 0, 0
2, 2280.00000, 0.671142, 0.285905, 0.695877, 0.296442, 0.677089, 0.288439, 0, 0
2, 2340.00000, 0.671142, 0.285905, 0.695877, 0.296442, 0.677089, 0.288439, 0, 0
2, 2400.00000, 0.690846, 0.294304, 0.695446, 0.296259, 0.695506, 0.296296, 0, 0
2, 2460.00000, 0.690879, 0.294313, 0.695442, 0.296257, 0.695529, 0.296294, 0, 0
2, 2520.00000, 0.690879, 0.294313, 0.695442, 0.296257, 0.695529, 0.296294, 0, 0
2, 2580.00000, 0.690879, 0.294313, 0.695442, 0.296257, 0.695529, 0.296294, 0, 0
2, 2640.00000, 0.690879, 0.294313, 0.695442, 0.296257, 0.695529, 0.296294, 0, 0
2, 2700.00000, 0.686451, 0.292425, 0.688456, 0.293278, 0.696078, 0.296527, 0, 0
2, 2760.00000, 0.686448, 0.292425, 0.688451, 0.293279, 0.696083, 0.29653, 0, 0
2, 2820.00000, 0.686448, 0.292425, 0.688451, 0.293279, 0.696083, 0.29653, 0, 0
2, 2880.00000, 0.686448, 0.292425, 0.688451, 0.293279, 0.696083, 0.29653, 0, 0
2, 2940.00000, 0.686448, 0.292425, 0.688451, 0.293279, 0.696083, 0.29653, 0, 0
2, 3000.00000, 0.686448, 0.292425, 0.688451, 0.293279, 0.696083, 0.29653, 0, 0
2, 3060.00000, 0.690007, 0.29395, 0.688429, 0.293269, 0.69724, 0.29703, 0, 0
2, 3120.00000, 0.690025, 0.29395, 0.688426, 0.293268, 0.697248, 0.297026, 0, 0
2, 3180.00000, 0.690026, 0.29395, 0.688426, 0.293268, 0.697248, 0.297026, 0, 0
2, 3240.00000, 0.690026, 0.29395, 0.688426, 0.293268, 0.697248, 0.297026, 0, 0
2, 3300.00000, 0.690026, 0.29395, 0.688426, 0.293268, 0.697248, 0.297026, 0, 0
2, 3360.00000, 0.690026, 0.29395, 0.688426, 0.293268, 0.697248, 0.297026, 0, 0
2, 3420.00000, 0.690026, 0.29395, 0.688426, 0.293268, 0.697248, 0.297026, 0, 0
2, 3480.00000, 0.690026, 0.29395, 0.688426, 0.293268, 0.697248, 0.297026, 0, 0
2, 3540.00000, 0.690026, 0.29395, 0.688426, 0.293268, 0.697248, 0.297026, 0, 0
3, 0.00000, 0.690026, 0.29395, 0.688426, 0.293268, 0.697248, 0.297026, 0, 0
3, 60.00000, 0.690026, 0.29395, 0.688426, 0.293268, 0.697248, 0.297026, 0, 0
3, 120.00000, 0.690026, 0.29395, 0.688426, 0.293268, 0.697248, 0.297026, 0, 0
3, 180.00000, 0.690026, 0.29395, 0.688426, 0.293268, 0.697248, 0.297026, 0, 0
3, 240.00000, 0.690026, 0.29395, 0.688426, 0.293268, 0.697248, 0.297026, 0, 0
3, 300.00000, 0.690026, 0.29395, 0.688426, 0.293268, 0.697248, 0.297026, 0, 0
3, 360.00000, 0.690026, 0.29395, 0.688426, 0.293268, 0.697248, 0.297026, 0, 0
3, 420.00000, 0.690026, 0.29395, 0.688426, 0.293268, 0.697248, 0.297026, 0, 0
3, 480.00000, 0.690026, 0.29395, 0.688426, 0.293268, 0.697248, 0.297026, 0, 0
3, 540.00000, 0.690026, 0.29395, 0.688426, 0.293268, 0.697248, 0.297026, 0, 0
3, 600.00000, 0.690026, 0.29395, 0.688426, 0.293268, 0.697248, 0.297026, 0, 0
3, 660.00000, 0.690026, 0.29395, 0.688426, 0.293268, 0.697248, 0.297026, 0, 0
3, 720.00000, 0.690026, 0.29395, 0.688426, 0.293268, 0.697248, 0.297026, 0, 0
3, 780.00000, 0.690026, 0.29395, 0.688426, 0.293268, 0.697248, 0.297026, 0, 0
3, 840.00000, 0.690026, 0.29395, 0.688426, 0.293268, 0.697248, 0.297026, 0, 0
3, 900.00000, 0.690026, 0.29395, 0.688426, 0.293268, 0.697248, 0.297026, 0, 0
3, 960.00000, 0.690026, 0.29395, 0.688426, 0.293268, 0.697248, 0.297026, 0, 0
3, 1020.00000, 0.690026, 0.29395, 0.688426, 0.293268, 0.697248, 0.297026, 0, 0
3, 1080.00000, 0.690026, 0.29395, 0.688426, 0.293268, 0.697248, 0.297026, 0, 0
3, 1140.00000, 0.690026, 0.29395, 0.688426, 0.293268, 0.697248, 0.297026, 0, 0
3, 1200.00000, 0.690026, 0.29395, 0.688426, 0.293268, 0.697248, 0.297026, 0, 0
3, 1260.00000, 0.690026, 0.29395, 0.688426, 0.293268, 0.697248, 0.297026, 0, 0
3, 1320.00000, 0.690026, 0.29395, 0.688426, 0.293268, 0.697248, 0.297026, 0, 0
3, 1380.00000, 0.690026, 0.29395, 0.688426, 0.293268, 0.697248, 0.297026, 0, 0
3, 1440.00000, 0.690026, 0.29395, 0.688426, 0.293268, 0.697248, 0.297026, 0, 0
3, 1500.00000, 0.690026, 0.29395, 0.688426, 0.293268, 0.697248, 0.297026, 0, 0
3, 1560.00000, 0.690026, 0.29395, 0.688426, 0.293268, 0.697248, 0.297026, 0, 0
3, 1620.00000, 0.690026, 0.29395, 0.688426, 0.293268, 0.697248, 0.297026, 0, 0
3, 1680.00000, 0.690026, 0.29395, 0.688426, 0.293268, 0.697248, 0.297026, 0, 0
3, 1740.00000, 0.690026, 0.29395, 0.688426, 0.293268, 0.697248, 0.297026, 0, 0
3, 1800.00000, 0.690026, 0.29395, 0.688426, 0.293268, 0.697248, 0.297026, 0, 0
3, 1860.00000, 0.690026, 0.29395, 0.688426, 0.293268, 0.697248, 0.297026, 0, 0
3, 1920.00000, 0.690026, 0.29395, 0.688426, 0.293268, 0.697248, 0.297026, 0, 0
3, 1980.00000, 0.690026, 0.29395, 0.688426, 0.293268, 0.697248, 0.297026, 0, 0
3, 2040.00000, 0.690026, 0.29395, 0.688426, 0.293268, 0.697248, 0.297026, 0, 0
3, 2100.00000, 0.690026, 0.29395, 0.688426, 0.293268, 0.697248, 0.297026, 0, 0
3, 2160.00000, 0.690026, 0.29395, 0.688426, 0.293268, 0.697248, 0.297026, 0, 0
3, 2220.00000, 0.690026, 0.29395, 0.688426, 0.293268, 0.697248, 0.297026, 0, 0
3, 2280.00000, 0.690026, 0.29395, 0.688426, 0.293268, 0.697248, 0.297026, 0, 0
3, 2340.00000, 0.690026, 0.29395, 0.688426, 0.293268, 0.697248, 0.297026, 0, 0
3, 2400.00000, 0.690026, 0.29395, 0.688426, 0.293268, 0.697248, 0.297026, 0, 0
3, 2460.00000, 0.690026, 0.29395, 0.688426, 0.293268, 0.697248, 0.297026, 0, 0
3, 2520.00000, 0.690026, 0.29395, 0.688426, 0.293268, 0.697248, 0.297026, 0, 0
3, 2580.00000, 0.690026, 0.29395, 0.688426, 0.293268, 0.697248, 0.297026, 0, 0
3, 2640.00000, 0.690026, 0.29395, 0.688426, 0.293268, 0.697248, 0.297026, 0, 0
3, 2700.00000, 0.690026, 0.29395, 0.688426, 0.293268, 0.697248, 0.297026, 0, 0
3, 2760.00000, 0.690026, 0.29395, 0.688426, 0.293268, 0.697248, 0.297026, 0, 0
3, 2820.00000, 0.690026, 0.29395, 0.688426, 0.293268, 0.697248, 0.297026, 0, 0
3, 2880.00000, 0.690026, 0.29395, 0.688426, 0.293268, 0.697248, 0.297026, 0, 0
3, 2940.00000, 0.690026, 0.29395, 0.688426, 0.293268, 0.697248, 0.297026, 0, 0
3, 3000.00000, 0.690026, 0.29395, 0.688426, 0.293268, 0.697248, 0.297026, 0, 0
3, 3060.00000, 0.690026, 0.29395, 0.688426, 0.293268, 0.697248, 0.297026, 0, 0
3, 3120.00000, 0.690026, 0.29395, 0.688426, 0.293268, 0.697248, 0.297026, 0, 0
3, 3180.00000, 0.726783, 0.309606, 0.725338, 0.308993, 0.73456, 0.312917, 0, 0
3, 3240.00000, 0.726777, 0.309606, 0.725338, 0.308993, 0.734552, 0.312918, 0, 0
3, 3300.00000, 0.726777, 0.309606, 0.725338, 0.308993, 0.734552, 0.312918, 0, 0
3, 3360.00000, 0.726777, 0.309606, 0.725338, 0.308993, 0.734552, 0.312918, 0, 0
3, 3420.00000, 0.726777, 0.309606, 0.725338, 0.308993, 0.734552, 0.312918, 0, 0
3, 3480.00000, 0.726777, 0.309606, 0.725338, 0.308993, 0.734552, 0.312918, 0, 0
3, 3540.00000, 0.726777, 0.309606, 0.725338, 0.308993, 0.734552, 0.312918, 0, 0
4, 0.00000, 0.726777, 0.309606, 0.725338, 0.308993, 0.734552, 0.312918, 0, 0
4, 60.00000, 0.726777, 0.309606, 0.725338, 0.308993, 0.734552, 0.312918, 0, 0
4, 120.00000, 0.726777, 0.309606, 0.725338, 0.308993, 0.734552, 0.312918, 0, 0
4, 180.00000, 0.726777, 0.309606, 0.725338, 0.308993, 0.734552, 0.312918, 0, 0
4, 240.00000, 0.726777, 0.309606, 0.725338, 0.308993, 0.734552, 0.312918, 0, 0
4, 300.00000, 0.726777, 0.309606, 0.725338, 0.308993, 0.734552, 0.312918, 0, 0
4, 360.00000, 0.726777, 0.309606, 0.725338, 0.308993, 0.734552, 0.312918, 0, 0
4, 420.00000, 0.726777, 0.309606, 0.725338, 0.308993, 0.734552, 0.312918, 0, 0
4, 480.00000, 0.726777, 0.309606, 0.725338, 0.308993, 0.734552, 0.312918, 0, 0
4, 540.00000, 0.726777, 0.309606, 0.725338, 0.308993, 0.734552, 0.312918, 0, 0
4, 600.00000, 0.726777, 0.309606, 0.725338, 0.308993, 0.734552, 0.312918, 0, 0
4, 660.00000, 0.726777, 0.309606, 0.725338, 0.308993, 0.734552, 0.312918, 0, 0
