hour,t(sec),"P1 (kW)","Q1 (kvar)","P2 (kW)","Q2 (kvar)","P3 (kW)","Q3 (kvar)","P4 (kW)","Q4 (kvar)"
0, 60.00000, 0.152618, 0.0650105, 0.14419, 0.0614256, 0.151637, 0.0645953, 0, 0
0, 120.00000, 0.152618, 0.0650104, 0.144159, 0.0614122, 0.151637, 0.0645955, 0, 0
0, 180.00000, 0.152617, 0.0650106, 0.144131, 0.0614001, 0.151637, 0.0645956, 0, 0
0, 240.00000, 0.152616, 0.0650106, 0.144105, 0.0613891, 0.151637, 0.0645958, 0, 0
0, 300.00000, 0.152616, 0.0650107, 0.144082, 0.0613791, 0.151637, 0.0645959, 0, 0
0, 360.00000, 0.152615, 0.0650107, 0.144061, 0.0613702, 0.151637, 0.0645961, 0, 0
0, 420.00000, 0.152614, 0.0650108, 0.144042, 0.0613621, 0.151637, 0.0645962, 0, 0
0, 480.00000, 0.152614, 0.0650108, 0.144025, 0.0613547, 0.151637, 0.0645963, 0, 0
0, 540.00000, 0.152614, 0.0650109, 0.144009, 0.0613481, 0.151637, 0.0645964, 0, 0
0, 600.00000, 0.152613, 0.0650109, 0.143996, 0.0613421, 0.151637, 0.0645965, 0, 0
0, 660.00000, 0.152613, 0.065011, 0.143983, 0.0613367, 0.151637, 0.0645966, 0, 0
0, 720.00000, 0.152613, 0.065011, 0.143972, 0.0613319, 0.151637, 0.0645967, 0, 0
0, 780.00000, 0.152612, 0.0650111, 0.143961, 0.0613275, 0.151637, 0.0645967, 0, 0
0, 840.00000, 0.152612, 0.0650111, 0.143952, 0.0613235, 0.151637, 0.0645968, 0, 0
0, 900.00000, 0.152612, 0.0650112, 0.143944, 0.06132, 0.151638, 0.0645968, 0, 0
0, 960.00000, 0.160968, 0.0685711, 0.151054, 0.0643488, 0.158521, 0.0675295, 0, 0
0, 1020.00000, 0.160968, 0.0685712, 0.151047, 0.0643458, 0.158522, 0.0675295, 0, 0
0, 1080.00000, 0.160968, 0.0685712, 0.15104, 0.0643431, 0.158522, 0.0675295, 0, 0
0, 1140.00000, 0.160968, 0.0685712, 0.151035, 0.0643406, 0.158522, 0.0675296, 0, 0
0, 1200.00000, 0.160968, 0.0685713, 0.151029, 0.0643384, 0.158522, 0.0675296, 0, 0
0, 1260.00000, 0.160968, 0.0685713, 0.151025, 0.0643364, 0.158522, 0.0675296, 0, 0
0, 1320.00000, 0.160968, 0.0685713, 0.151021, 0.0643346, 0.158522, 0.0675297, 0, 0
0, 1380.00000, 0.160968, 0.0685713, 0.151017, 0.064333, 0.158522, 0.0675297, 0, 0
0, 1440.00000, 0.160967, 0.0685714, 0.151013, 0.0643315, 0.158522, 0.0675297, 0, 0
0, 1500.00000, 0.160967, 0.0685714, 0.15101, 0.0643302, 0.158522, 0.0675298, 0, 0
0, 1560.00000, 0.160967, 0.0685714, 0.151008, 0.064329, 0.158522, 0.0675298, 0, 0
0, 1620.00000, 0.160967, 0.0685714, 0.151005, 0.0643279, 0.158522, 0.0675298, 0, 0
0, 1680.00000, 0.160967, 0.0685714, 0.151003, 0.064327, 0.158522, 0.0675298, 0, 0
0, 1740.00000, 0.160967, 0.0685714, 0.151001, 0.0643261, 0.158522, 0.0675298, 0, 0
0, 1800.00000, 0.160967, 0.0685714, 0.150999, 0.0643253, 0.158522, 0.0675298, 0, 0
0, 1860.00000, 0.155295, 0.0661553, 0.146178, 0.0622715, 0.153477, 0.0653808, 0, 0
0, 1920.00000, 0.155295, 0.0661553, 0.146176, 0.0622708, 0.153477, 0.0653809, 0, 0
0, 1980.00000, 0.155295, 0.0661553, 0.146175, 0.0622703, 0.153477, 0.0653809, 0, 0
0, 2040.00000, 0.155295, 0.0661553, 0.146174, 0.0622698, 0.153477, 0.0653809, 0, 0
0, 2100.00000, 0.155295, 0.0661553, 0.146173, 0.0622693, 0.153477, 0.0653809, 0, 0
0, 2160.00000, 0.155295, 0.0661553, 0.146172, 0.0622689, 0.153477, 0.0653809, 0, 0
0, 2220.00000, 0.155295, 0.0661553, 0.146171, 0.0622686, 0.153477, 0.0653809, 0, 0
0, 2280.00000, 0.155295, 0.0661553, 0.14617, 0.0622682, 0.153477, 0.0653809, 0, 0
0, 2340.00000, 0.155295, 0.0661553, 0.146169, 0.0622679, 0.153477, 0.0653809, 0, 0
0, 2400.00000, 0.155295, 0.0661553, 0.146169, 0.0622677, 0.153477, 0.0653809, 0, 0
0, 2460.00000, 0.155295, 0.0661553, 0.146168, 0.0622674, 0.153477, 0.0653809, 0, 0
0, 2520.00000, 0.155295, 0.0661553, 0.146168, 0.0622672, 0.153477, 0.0653809, 0, 0
0, 2580.00000, 0.155295, 0.0661553, 0.146167, 0.062267, 0.153477, 0.0653809, 0, 0
0, 2640.00000, 0.155295, 0.0661553, 0.146167, 0.0622669, 0.153477, 0.0653809, 0, 0
0, 2700.00000, 0.155295, 0.0661553, 0.146167, 0.0622667, 0.153477, 0.0653809, 0, 0
0, 2760.00000, 0.146804, 0.062538, 0.138945, 0.0591902, 0.145916, 0.0621601, 0, 0
0, 2820.00000, 0.146803, 0.0625379, 0.138944, 0.05919, 0.145916, 0.0621601, 0, 0
0, 2880.00000, 0.146803, 0.0625379, 0.138944, 0.0591899, 0.145916, 0.0621601, 0, 0
0, 2940.00000, 0.146803, 0.0625379, 0.138944, 0.0591898, 0.145916, 0.0621601, 0, 0
0, 3000.00000, 0.146803, 0.0625379, 0.138944, 0.0591898, 0.145916, 0.0621601, 0, 0
0, 3060.00000, 0.146803, 0.062538, 0.138943, 0.0591897, 0.145916, 0.0621601, 0, 0
0, 3120.00000, 0.146803, 0.062538, 0.138943, 0.0591896, 0.145916, 0.0621601, 0, 0
0, 3180.00000, 0.146803, 0.062538, 0.138943, 0.0591895, 0.145916, 0.0621601, 0, 0
0, 3240.00000, 0.146803, 0.062538, 0.138943, 0.0591895, 0.145916, 0.0621601, 0, 0
0, 3300.00000, 0.146803, 0.062538, 0.138943, 0.0591894, 0.145916, 0.0621601, 0, 0
0, 3360.00000, 0.146803, 0.062538, 0.138943, 0.0591894, 0.145916, 0.0621601, 0, 0
0, 3420.00000, 0.146803, 0.062538, 0.138943, 0.0591894, 0.145916, 0.0621601, 0, 0
0, 3480.00000, 0.146804, 0.062538, 0.140059, 0.0596651, 0.145844, 0.0621292, 0, 0
0, 3540.00000, 0.146803, 0.0625379, 0.140248, 0.0597456, 0.146604, 0.0624529, 0, 0
1, 0.00000, 0.146803, 0.062538, 0.140248, 0.0597456, 0.146604, 0.0624529, 0, 0
1, 60.00000, 0.148946, 0.0634509, 0.142882, 0.0608673, 0.148946, 0.0634508, 0, 0
1, 120.00000, 0.148946, 0.0634508, 0.142882, 0.0608673, 0.148946, 0.0634508, 0, 0
1, 180.00000, 0.148946, 0.0634508, 0.142881, 0.0608673, 0.148946, 0.0634508, 0, 0
1, 240.00000, 0.148946, 0.0634508, 0.142881, 0.0608672, 0.148946, 0.0634508, 0, 0
1, 300.00000, 0.148946, 0.0634508, 0.142881, 0.0608672, 0.148946, 0.0634508, 0, 0
1, 360.00000, 0.148946, 0.0634508, 0.142881, 0.0608672, 0.148946, 0.0634508, 0, 0
1, 420.00000, 0.148946, 0.0634508, 0.142881, 0.0608672, 0.148946, 0.0634508, 0, 0
1, 480.00000, 0.148946, 0.0634508, 0.142881, 0.0608672, 0.148946, 0.0634508, 0, 0
1, 540.00000, 0.148946, 0.0634508, 0.142881, 0.0608672, 0.148946, 0.0634508, 0, 0
1, 600.00000, 0.148946, 0.0634508, 0.142881, 0.0608672, 0.148946, 0.0634508, 0, 0
1, 660.00000, 0.148946, 0.0634508, 0.142881, 0.0608671, 0.148946, 0.0634508, 0, 0
1, 720.00000, 0.148946, 0.0634508, 0.142881, 0.0608671, 0.148946, 0.0634508, 0, 0
1, 780.00000, 0.148946, 0.0634508, 0.142881, 0.0608671, 0.148946, 0.0634508, 0, 0
1, 840.00000, 0.148946, 0.0634508, 0.142881, 0.0608671, 0.148946, 0.0634508, 0, 0
1, 900.00000, 0.148946, 0.0634508, 0.142881, 0.0608671, 0.148946, 0.0634508, 0, 0
1, 960.00000, 0.147431, 0.0628055, 0.141522, 0.0602881, 0.147431, 0.0628055, 0, 0
1, 1020.00000, 0.147431, 0.0628055, 0.141522, 0.0602881, 0.147431, 0.0628055, 0, 0
1, 1080.00000, 0.147431, 0.0628055, 0.141522, 0.0602881, 0.147431, 0.0628055, 0, 0
1, 1140.00000, 0.147431, 0.0628055, 0.141522, 0.0602881, 0.147431, 0.0628055, 0, 0
1, 1200.00000, 0.147431, 0.0628055, 0.141522, 0.0602881, 0.147431, 0.0628055, 0, 0
1, 1260.00000, 0.147431, 0.0628055, 0.141522, 0.0602881, 0.147431, 0.0628055, 0, 0
1, 1320.00000, 0.147431, 0.0628055, 0.141522, 0.0602881, 0.147431, 0.0628055, 0, 0
1, 1380.00000, 0.147431, 0.0628055, 0.141522, 0.0602881, 0.147431, 0.0628055, 0, 0
1, 1440.00000, 0.147431, 0.0628055, 0.141522, 0.0602881, 0.147431, 0.0628055, 0, 0
1, 1500.00000, 0.147431, 0.0628055, 0.141522, 0.0602881, 0.147431, 0.0628055, 0, 0
1, 1560.00000, 0.147431, 0.0628055, 0.141522, 0.0602881, 0.147431, 0.0628055, 0, 0
1, 1620.00000, 0.147431, 0.0628055, 0.141522, 0.0602881, 0.147431, 0.0628055, 0, 0
1, 1680.00000, 0.147431, 0.0628055, 0.141522, 0.0602881, 0.147431, 0.0628055, 0, 0
1, 1740.00000, 0.147431, 0.0628055, 0.141522, 0.0602881, 0.147431, 0.0628055, 0, 0
1, 1800.00000, 0.147431, 0.0628055, 0.141522, 0.0602881, 0.147431, 0.0628055, 0, 0
1, 1860.00000, 0.14782, 0.0629711, 0.142532, 0.0607183, 0.147761, 0.0629461, 0, 0
1, 1920.00000, 0.14782, 0.062971, 0.142532, 0.0607183, 0.147761, 0.0629461, 0, 0
1, 1980.00000, 0.14782, 0.062971, 0.142532, 0.0607183, 0.147761, 0.0629461, 0, 0
1, 2040.00000, 0.14782, 0.062971, 0.142532, 0.0607183, 0.147761, 0.0629461, 0, 0
1, 2100.00000, 0.14782, 0.062971, 0.142532, 0.0607183, 0.147761, 0.0629461, 0, 0
1, 2160.00000, 0.14782, 0.062971, 0.142532, 0.0607183, 0.147761, 0.0629461, 0, 0
1, 2220.00000, 0.14782, 0.062971, 0.142532, 0.0607183, 0.147761, 0.0629461, 0, 0
1, 2280.00000, 0.14782, 0.062971, 0.142532, 0.0607183, 0.147761, 0.0629461, 0, 0
1, 2340.00000, 0.14782, 0.062971, 0.142532, 0.0607183, 0.147761, 0.0629461, 0, 0
1, 2400.00000, 0.14782, 0.062971, 0.142532, 0.0607183, 0.147761, 0.0629461, 0, 0
1, 2460.00000, 0.14782, 0.062971, 0.142532, 0.0607183, 0.147761, 0.0629461, 0, 0
1, 2520.00000, 0.14782, 0.062971, 0.142532, 0.0607183, 0.147761, 0.0629461, 0, 0
1, 2580.00000, 0.14782, 0.062971, 0.142532, 0.0607183, 0.147761, 0.0629461, 0, 0
1, 2640.00000, 0.14782, 0.062971, 0.142532, 0.0607183, 0.147761, 0.0629461, 0, 0
1, 2700.00000, 0.14782, 0.062971, 0.142532, 0.0607183, 0.147761, 0.0629461, 0, 0
1, 2760.00000, 0.14122, 0.0601595, 0.137216, 0.058454, 0.14122, 0.0601594, 0, 0
1, 2820.00000, 0.14122, 0.0601594, 0.137216, 0.0584539, 0.14122, 0.0601594, 0, 0
1, 2880.00000, 0.14122, 0.0601594, 0.137216, 0.0584539, 0.14122, 0.0601594, 0, 0
1, 2940.00000, 0.14122, 0.0601594, 0.137216, 0.0584539, 0.14122, 0.0601594, 0, 0
1, 3000.00000, 0.14122, 0.0601594, 0.137216, 0.0584539, 0.14122, 0.0601594, 0, 0
1, 3060.00000, 0.14122, 0.0601594, 0.137216, 0.0584539, 0.14122, 0.0601594, 0, 0
1, 3120.00000, 0.14122, 0.0601594, 0.137216, 0.0584539, 0.14122, 0.0601594, 0, 0
1, 3180.00000, 0.14122, 0.0601594, 0.137216, 0.0584539, 0.14122, 0.0601594, 0, 0
1, 3240.00000, 0.14122, 0.0601594, 0.137216, 0.0584539, 0.14122, 0.0601594, 0, 0
1, 3300.00000, 0.14122, 0.0601594, 0.137216, 0.0584539, 0.14122, 0.0601594, 0, 0
1, 3360.00000, 0.14122, 0.0601594, 0.137216, 0.0584539, 0.14122, 0.0601594, 0, 0
1, 3420.00000, 0.14122, 0.0601594, 0.137216, 0.0584539, 0.14122, 0.0601594, 0, 0
1, 3480.00000, 0.14122, 0.0601594, 0.137216, 0.0584539, 0.14122, 0.0601594, 0, 0
1, 3540.00000, 0.14122, 0.0601594, 0.137216, 0.0584539, 0.14122, 0.0601594, 0, 0
2, 0.00000, 0.14122, 0.0601594, 0.137216, 0.0584539, 0.14122, 0.0601594, 0, 0
2, 60.00000, 0.141826, 0.0604178, 0.137172, 0.0584349, 0.141827, 0.0604179, 0, 0
2, 120.00000, 0.141827, 0.0604179, 0.137172, 0.058435, 0.141827, 0.0604179, 0, 0
2, 180.00000, 0.141827, 0.0604179, 0.137172, 0.058435, 0.141827, 0.0604179, 0, 0
2, 240.00000, 0.141827, 0.0604179, 0.137172, 0.058435, 0.141827, 0.0604179, 0, 0
2, 300.00000, 0.141827, 0.0604179, 0.137172, 0.058435, 0.141827, 0.0604179, 0, 0
2, 360.00000, 0.141827, 0.0604179, 0.137172, 0.058435, 0.141827, 0.0604179, 0, 0
2, 420.00000, 0.141827, 0.0604179, 0.137172, 0.058435, 0.141827, 0.0604179, 0, 0
2, 480.00000, 0.141827, 0.0604179, 0.137172, 0.058435, 0.141827, 0.0604179, 0, 0
2, 540.00000, 0.141827, 0.0604179, 0.137172, 0.058435, 0.141827, 0.0604179, 0, 0
2, 600.00000, 0.141827, 0.0604179, 0.137172, 0.058435, 0.141827, 0.0604179, 0, 0
2, 660.00000, 0.141827, 0.0604179, 0.137172, 0.058435, 0.141827, 0.0604179, 0, 0
2, 720.00000, 0.141827, 0.0604179, 0.137172, 0.058435, 0.141827, 0.0604179, 0, 0
2, 780.00000, 0.141827, 0.0604179, 0.137172, 0.058435, 0.141827, 0.0604179, 0, 0
2, 840.00000, 0.141827, 0.0604179, 0.137172, 0.058435, 0.141827, 0.0604179, 0, 0
2, 900.00000, 0.141827, 0.0604179, 0.137172, 0.058435, 0.141827, 0.0604179, 0, 0
2, 960.00000, 0.144691, 0.0616381, 0.140718, 0.0599455, 0.144691, 0.061638, 0, 0
2, 1020.00000, 0.144691, 0.061638, 0.140718, 0.0599454, 0.144691, 0.061638, 0, 0
2, 1080.00000, 0.144691, 0.061638, 0.140718, 0.0599454, 0.144691, 0.061638, 0, 0
2, 1140.00000, 0.144691, 0.061638, 0.140718, 0.0599454, 0.144691, 0.061638, 0, 0
2, 1200.00000, 0.144691, 0.061638, 0.140718, 0.0599454, 0.144691, 0.061638, 0, 0
2, 1260.00000, 0.144691, 0.061638, 0.140718, 0.0599454, 0.144691, 0.061638, 0, 0
2, 1320.00000, 0.144691, 0.061638, 0.140718, 0.0599454, 0.144691, 0.061638, 0, 0
2, 1380.00000, 0.144691, 0.061638, 0.140718, 0.0599454, 0.144691, 0.061638, 0, 0
2, 1440.00000, 0.144691, 0.061638, 0.140718, 0.0599454, 0.144691, 0.061638, 0, 0
2, 1500.00000, 0.144691, 0.061638, 0.140718, 0.0599454, 0.144691, 0.061638, 0, 0
2, 1560.00000, 0.144691, 0.061638, 0.140718, 0.0599454, 0.144691, 0.061638, 0, 0
2, 1620.00000, 0.144691, 0.061638, 0.140718, 0.0599454, 0.144691, 0.061638, 0, 0
2, 1680.00000, 0.144691, 0.061638, 0.140718, 0.0599454, 0.144691, 0.061638, 0, 0
2, 1740.00000, 0.144691, 0.061638, 0.140718, 0.0599454, 0.144691, 0.061638, 0, 0
2, 1800.00000, 0.144691, 0.061638, 0.140718, 0.0599454, 0.144691, 0.061638, 0, 0
2, 1860.00000, 0.141389, 0.0602313, 0.137194, 0.0584445, 0.141389, 0.0602313, 0, 0
2, 1920.00000, 0.141389, 0.0602313, 0.137194, 0.0584445, 0.141389, 0.0602313, 0, 0
2, 1980.00000, 0.141389, 0.0602313, 0.137194, 0.0584445, 0.141389, 0.0602313, 0, 0
2, 2040.00000, 0.141389, 0.0602313, 0.137194, 0.0584445, 0.141389, 0.0602313, 0, 0
2, 2100.00000, 0.141389, 0.0602313, 0.137194, 0.0584445, 0.141389, 0.0602313, 0, 0
2, 2160.00000, 0.141389, 0.0602313, 0.137194, 0.0584445, 0.141389, 0.0602313, 0, 0
2, 2220.00000, 0.141389, 0.0602313, 0.137194, 0.0584445, 0.141389, 0.0602313, 0, 0
2, 2280.00000, 0.141389, 0.0602313, 0.137194, 0.0584445, 0.141389, 0.0602313, 0, 0
2, 2340.00000, 0.141389, 0.0602313, 0.137194, 0.0584445, 0.141389, 0.0602313, 0, 0
2, 2400.00000, 0.141389, 0.0602313, 0.137194, 0.0584445, 0.141389, 0.0602313, 0, 0
2, 2460.00000, 0.141389, 0.0602313, 0.137194, 0.0584445, 0.141389, 0.0602313, 0, 0
2, 2520.00000, 0.141389, 0.0602313, 0.137194, 0.0584445, 0.141389, 0.0602313, 0, 0
2, 2580.00000, 0.141389, 0.0602313, 0.137194, 0.0584445, 0.141389, 0.0602313, 0, 0
2, 2640.00000, 0.141389, 0.0602313, 0.137194, 0.0584445, 0.141389, 0.0602313, 0, 0
2, 2700.00000, 0.141389, 0.0602313, 0.137194, 0.0584445, 0.141389, 0.0602313, 0, 0
2, 2760.00000, 0.133359, 0.0568107, 0.130321, 0.0555163, 0.133359, 0.0568107, 0, 0
2, 2820.00000, 0.133359, 0.0568107, 0.13032, 0.0555163, 0.133359, 0.0568107, 0, 0
2, 2880.00000, 0.133359, 0.0568107, 0.13032, 0.0555163, 0.133359, 0.0568107, 0, 0
2, 2940.00000, 0.133359, 0.0568107, 0.13032, 0.0555163, 0.133359, 0.0568107, 0, 0
2, 3000.00000, 0.133359, 0.0568107, 0.13032, 0.0555163, 0.133359, 0.0568107, 0, 0
2, 3060.00000, 0.133359, 0.0568107, 0.13032, 0.0555163, 0.133359, 0.0568107, 0, 0
2, 3120.00000, 0.133359, 0.0568107, 0.13032, 0.0555163, 0.133359, 0.0568107, 0, 0
2, 3180.00000, 0.133359, 0.0568107, 0.13032, 0.0555163, 0.133359, 0.0568107, 0, 0
2, 3240.00000, 0.133359, 0.0568107, 0.13032, 0.0555163, 0.133359, 0.0568107, 0, 0
2, 3300.00000, 0.133359, 0.0568107, 0.13032, 0.0555163, 0.133359, 0.0568107, 0, 0
2, 3360.00000, 0.133359, 0.0568107, 0.13032, 0.0555163, 0.133359, 0.0568107, 0, 0
2, 3420.00000, 0.133359, 0.0568107, 0.13032, 0.0555163, 0.133359, 0.0568107, 0, 0
2, 3480.00000, 0.133359, 0.0568107, 0.13032, 0.0555163, 0.133359, 0.0568107, 0, 0
2, 3540.00000, 0.133359, 0.0568107, 0.13032, 0.0555163, 0.133359, 0.0568107, 0, 0
3, 0.00000, 0.133359, 0.0568107, 0.13032, 0.0555163, 0.133359, 0.0568107, 0, 0
3, 60.00000, 0.121605, 0.0518034, 0.11846, 0.0504638, 0.121605, 0.0518035, 0, 0
3, 120.00000, 0.121605, 0.0518035, 0.11846, 0.0504639, 0.121605, 0.0518035, 0, 0
3, 180.00000, 0.121605, 0.0518035, 0.11846, 0.0504639, 0.121605, 0.0518035, 0, 0
3, 240.00000, 0.121605, 0.0518035, 0.11846, 0.0504639, 0.121605, 0.0518035, 0, 0
3, 300.00000, 0.121605, 0.0518035, 0.11846, 0.0504639, 0.121605, 0.0518035, 0, 0
3, 360.00000, 0.121605, 0.0518035, 0.11846, 0.0504639, 0.121605, 0.0518035, 0, 0
3, 420.00000, 0.121605, 0.0518035, 0.11846, 0.0504639, 0.121605, 0.0518035, 0, 0
3, 480.00000, 0.121605, 0.0518035, 0.11846, 0.0504639, 0.121605, 0.0518035, 0, 0
3, 540.00000, 0.121605, 0.0518035, 0.11846, 0.0504639, 0.121605, 0.0518035, 0, 0
3, 600.00000, 0.121605, 0.0518035, 0.11846, 0.0504639, 0.121605, 0.0518035, 0, 0
3, 660.00000, 0.121605, 0.0518035, 0.11846, 0.0504639, 0.121605, 0.0518035, 0, 0
3, 720.00000, 0.121605, 0.0518035, 0.11846, 0.0504639, 0.121605, 0.0518035, 0, 0
3, 780.00000, 0.121605, 0.0518035, 0.11846, 0.0504639, 0.121605, 0.0518035, 0, 0
3, 840.00000, 0.121605, 0.0518035, 0.11846, 0.0504639, 0.121605, 0.0518035, 0, 0
3, 900.00000, 0.121605, 0.0518035, 0.11846, 0.0504639, 0.121605, 0.0518035, 0, 0
3, 960.00000, 0.116483, 0.0496216, 0.113622, 0.0484028, 0.116483, 0.0496215, 0, 0
3, 1020.00000, 0.116483, 0.0496215, 0.113622, 0.0484028, 0.116483, 0.0496215, 0, 0
3, 1080.00000, 0.116483, 0.0496215, 0.113622, 0.0484028, 0.116483, 0.0496215, 0, 0
3, 1140.00000, 0.116483, 0.0496215, 0.113622, 0.0484028, 0.116483, 0.0496215, 0, 0
3, 1200.00000, 0.116483, 0.0496215, 0.113622, 0.0484028, 0.116483, 0.0496215, 0, 0
3, 1260.00000, 0.116483, 0.0496215, 0.113622, 0.0484028, 0.116483, 0.0496215, 0, 0
3, 1320.00000, 0.116483, 0.0496215, 0.113622, 0.0484028, 0.116483, 0.0496215, 0, 0
3, 1380.00000, 0.116483, 0.0496215, 0.113622, 0.0484028, 0.116483, 0.0496215, 0, 0
3, 1440.00000, 0.116483, 0.0496215, 0.113622, 0.0484028, 0.116483, 0.0496215, 0, 0
3, 1500.00000, 0.116483, 0.0496215, 0.113622, 0.0484028, 0.116483, 0.0496215, 0, 0
3, 1560.00000, 0.116483, 0.0496215, 0.113622, 0.0484028, 0.116483, 0.0496215, 0, 0
3, 1620.00000, 0.116483, 0.0496215, 0.113622, 0.0484028, 0.116483, 0.0496215, 0, 0
3, 1680.00000, 0.116483, 0.0496215, 0.113622, 0.0484028, 0.116483, 0.0496215, 0, 0
3, 1740.00000, 0.116483, 0.0496215, 0.113622, 0.0484028, 0.116483, 0.0496215, 0, 0
3, 1800.00000, 0.116483, 0.0496215, 0.113622, 0.0484028, 0.116483, 0.0496215, 0, 0
3, 1860.00000, 0.113555, 0.0483742, 0.110833, 0.0472145, 0.113555, 0.0483742, 0, 0
3, 1920.00000, 0.113555, 0.0483742, 0.110833, 0.0472145, 0.113555, 0.0483742, 0, 0
3, 1980.00000, 0.113555, 0.0483742, 0.110833, 0.0472145, 0.113555, 0.0483742, 0, 0
3, 2040.00000, 0.113555, 0.0483742, 0.110833, 0.0472145, 0.113555, 0.0483742, 0, 0
3, 2100.00000, 0.113555, 0.0483742, 0.110833, 0.0472145, 0.113555, 0.0483742, 0, 0
3, 2160.00000, 0.113555, 0.0483742, 0.110833, 0.0472145, 0.113555, 0.0483742, 0, 0
3, 2220.00000, 0.113555, 0.0483742, 0.110833, 0.0472145, 0.113555, 0.0483742, 0, 0
3, 2280.00000, 0.113555, 0.0483742, 0.110833, 0.0472145, 0.113555, 0.0483742, 0, 0
3, 2340.00000, 0.113555, 0.0483742, 0.110833, 0.0472145, 0.113555, 0.0483742, 0, 0
3, 2400.00000, 0.113555, 0.0483742, 0.110833, 0.0472145, 0.113555, 0.0483742, 0, 0
3, 2460.00000, 0.113555, 0.0483742, 0.110833, 0.0472145, 0.113555, 0.0483742, 0, 0
3, 2520.00000, 0.113555, 0.0483742, 0.110833, 0.0472145, 0.113555, 0.0483742, 0, 0
3, 2580.00000, 0.113555, 0.0483742, 0.110833, 0.0472145, 0.113555, 0.0483742, 0, 0
3, 2640.00000, 0.113555, 0.0483742, 0.110833, 0.0472145, 0.113555, 0.0483742, 0, 0
3, 2700.00000, 0.113555, 0.0483742, 0.110833, 0.0472145, 0.113555, 0.0483742, 0, 0
3, 2760.00000, 0.10987, 0.0468043, 0.107885, 0.0459589, 0.10987, 0.0468042, 0, 0
3, 2820.00000, 0.10987, 0.0468042, 0.107885, 0.0459589, 0.10987, 0.0468042, 0, 0
3, 2880.00000, 0.10987, 0.0468042, 0.107885, 0.0459589, 0.10987, 0.0468042, 0, 0
3, 2940.00000, 0.10987, 0.0468042, 0.107885, 0.0459589, 0.10987, 0.0468042, 0, 0
3, 3000.00000, 0.10987, 0.0468042, 0.107885, 0.0459589, 0.10987, 0.0468042, 0, 0
3, 3060.00000, 0.10987, 0.0468042, 0.107885, 0.0459589, 0.10987, 0.0468042, 0, 0
3, 3120.00000, 0.10987, 0.0468042, 0.107885, 0.0459589, 0.10987, 0.0468042, 0, 0
3, 3180.00000, 0.10987, 0.0468042, 0.107885, 0.0459589, 0.10987, 0.0468042, 0, 0
3, 3240.00000, 0.10987, 0.0468042, 0.107885, 0.0459589, 0.10987, 0.0468042, 0, 0
3, 3300.00000, 0.10987, 0.0468042, 0.107885, 0.0459589, 0.10987, 0.0468042, 0, 0
3, 3360.00000, 0.10987, 0.0468042, 0.107885, 0.0459589, 0.10987, 0.0468042, 0, 0
3, 3420.00000, 0.10987, 0.0468042, 0.107885, 0.0459589, 0.10987, 0.0468042, 0, 0
3, 3480.00000, 0.10987, 0.0468042, 0.107885, 0.0459589, 0.10987, 0.0468042, 0, 0
3, 3540.00000, 0.10987, 0.0468042, 0.107885, 0.0459589, 0.10987, 0.0468042, 0, 0
4, 0.00000, 0.10987, 0.0468042, 0.107885, 0.0459589, 0.10987, 0.0468042, 0, 0
4, 60.00000, 0.106664, 0.0454387, 0.10438, 0.0444656, 0.106664, 0.0454387, 0, 0
4, 120.00000, 0.106664, 0.0454387, 0.10438, 0.0444656, 0.106664, 0.0454387, 0, 0
4, 180.00000, 0.106664, 0.0454387, 0.10438, 0.0444656, 0.106664, 0.0454387, 0, 0
