hour,t(sec),"P1 (kW)","Q1 (kvar)","P2 (kW)","Q2 (kvar)","P3 (kW)","Q3 (kvar)","P4 (kW)","Q4 (kvar)"
0, 60.00000, 0.653004, 0.278175, 0.651113, 0.277371, 0.656314, 0.279586, 0, 0
0, 120.00000, 0.652995, 0.278175, 0.651107, 0.27737, 0.656304, 0.279584, 0, 0
0, 180.00000, 0.652995, 0.278175, 0.651107, 0.27737, 0.656304, 0.279584, 0, 0
0, 240.00000, 0.652995, 0.278175, 0.651107, 0.27737, 0.656304, 0.279584, 0, 0
0, 300.00000, 0.652995, 0.278175, 0.651107, 0.27737, 0.656304, 0.279584, 0, 0
0, 360.00000, 0.652995, 0.278175, 0.651107, 0.27737, 0.656304, 0.279584, 0, 0
0, 420.00000, 0.652995, 0.278175, 0.651107, 0.27737, 0.656304, 0.279584, 0, 0
0, 480.00000, 0.652995, 0.278175, 0.651107, 0.27737, 0.656304, 0.279584, 0, 0
0, 540.00000, 0.652995, 0.278175, 0.651107, 0.27737, 0.656304, 0.279584, 0, 0
0, 600.00000, 0.652995, 0.278175, 0.651107, 0.27737, 0.656304, 0.279584, 0, 0
0, 660.00000, 0.652995, 0.278175, 0.651107, 0.27737, 0.656304, 0.279584, 0, 0
0, 720.00000, 0.652995, 0.278175, 0.651107, 0.27737, 0.656304, 0.279584, 0, 0
0, 780.00000, 0.652995, 0.278175, 0.651107, 0.27737, 0.656304, 0.279584, 0, 0
0, 840.00000, 0.652995, 0.278175, 0.651107, 0.27737, 0.656304, 0.279584, 0, 0
0, 900.00000, 0.652995, 0.278175, 0.651107, 0.27737, 0.656304, 0.279584, 0, 0
0, 960.00000, 0.633773, 0.269983, 0.635254, 0.270616, 0.639425, 0.272393, 0, 0
0, 1020.00000, 0.633765, 0.269983, 0.635253, 0.270617, 0.63942, 0.272392, 0, 0
0, 1080.00000, 0.633765, 0.269983, 0.635253, 0.270617, 0.63942, 0.272392, 0, 0
0, 1140.00000, 0.633765, 0.269983, 0.635253, 0.270617, 0.63942, 0.272392, 0, 0
0, 1200.00000, 0.633765, 0.269983, 0.635253, 0.270617, 0.63942, 0.272392, 0, 0
0, 1260.00000, 0.633765, 0.269983, 0.635253, 0.270617, 0.63942, 0.272392, 0, 0
0, 1320.00000, 0.633765, 0.269983, 0.635253, 0.270617, 0.63942, 0.272392, 0, 0
0, 1380.00000, 0.633765, 0.269983, 0.635253, 0.270617, 0.63942, 0.272392, 0, 0
0, 1440.00000, 0.633765, 0.269983, 0.635253, 0.270617, 0.63942, 0.272392, 0, 0
0, 1500.00000, 0.633765, 0.269983, 0.635253, 0.270617, 0.63942, 0.272392, 0, 0
0, 1560.00000, 0.633765, 0.269983, 0.635253, 0.270617, 0.63942, 0.272392, 0, 0
0, 1620.00000, 0.633765, 0.269983, 0.635253, 0.270617, 0.63942, 0.272392, 0, 0
0, 1680.00000, 0.633765, 0.269983, 0.635253, 0.270617, 0.63942, 0.272392, 0, 0
0, 1740.00000, 0.633765, 0.269983, 0.635253, 0.270617, 0.63942, 0.272392, 0, 0
0, 1800.00000, 0.633765, 0.269983, 0.635253, 0.270617, 0.63942, 0.272392, 0, 0
0, 1860.00000, 0.601534, 0.256263, 0.602827, 0.256811, 0.606731, 0.258475, 0, 0
0, 1920.00000, 0.601565, 0.256266, 0.602854, 0.256815, 0.606765, 0.258481, 0, 0
0, 1980.00000, 0.601566, 0.256266, 0.602854, 0.256815, 0.606765, 0.258481, 0, 0
0, 2040.00000, 0.601566, 0.256266, 0.602854, 0.256815, 0.606765, 0.258481, 0, 0
0, 2100.00000, 0.601566, 0.256266, 0.602854, 0.256815, 0.606765, 0.258481, 0, 0
0, 2160.00000, 0.601566, 0.256266, 0.602854, 0.256815, 0.606765, 0.258481, 0, 0
0, 2220.00000, 0.601566, 0.256266, 0.602854, 0.256815, 0.606765, 0.258481, 0, 0
0, 2280.00000, 0.601566, 0.256266, 0.602854, 0.256815, 0.606765, 0.258481, 0, 0
0, 2340.00000, 0.601566, 0.256266, 0.602854, 0.256815, 0.606765, 0.258481, 0, 0
0, 2400.00000, 0.601566, 0.256266, 0.602854, 0.256815, 0.606765, 0.258481, 0, 0
0, 2460.00000, 0.601566, 0.256266, 0.602854, 0.256815, 0.606765, 0.258481, 0, 0
0, 2520.00000, 0.601566, 0.256266, 0.602854, 0.256815, 0.606765, 0.258481, 0, 0
0, 2580.00000, 0.601566, 0.256266, 0.602854, 0.256815, 0.606765, 0.258481, 0, 0
0, 2640.00000, 0.601566, 0.256266, 0.602854, 0.256815, 0.606765, 0.258481, 0, 0
0, 2700.00000, 0.601566, 0.256266, 0.602854, 0.256815, 0.606765, 0.258481, 0, 0
0, 2760.00000, 0.592297, 0.252319, 0.593363, 0.252772, 0.597156, 0.254388, 0, 0
0, 2820.00000, 0.592302, 0.252319, 0.593365, 0.252773, 0.59716, 0.254389, 0, 0
0, 2880.00000, 0.592302, 0.252319, 0.593365, 0.252773, 0.59716, 0.254389, 0, 0
0, 2940.00000, 0.592302, 0.252319, 0.593365, 0.252773, 0.59716, 0.254389, 0, 0
0, 3000.00000, 0.592302, 0.252319, 0.593365, 0.252773, 0.59716, 0.254389, 0, 0
0, 3060.00000, 0.592302, 0.252319, 0.593365, 0.252773, 0.59716, 0.254389, 0, 0
0, 3120.00000, 0.592302, 0.252319, 0.593365, 0.252773, 0.59716, 0.254389, 0, 0
0, 3180.00000, 0.592302, 0.252319, 0.593365, 0.252773, 0.59716, 0.254389, 0, 0
0, 3240.00000, 0.592302, 0.252319, 0.593365, 0.252773, 0.59716, 0.254389, 0, 0
0, 3300.00000, 0.592302, 0.252319, 0.593365, 0.252773, 0.59716, 0.254389, 0, 0
0, 3360.00000, 0.592302, 0.252319, 0.593365, 0.252773, 0.59716, 0.254389, 0, 0
0, 3420.00000, 0.592302, 0.252319, 0.593365, 0.252773, 0.59716, 0.254389, 0, 0
0, 3480.00000, 0.592302, 0.252319, 0.593365, 0.252773, 0.59716, 0.254389, 0, 0
0, 3540.00000, 0.595262, 0.253583, 0.593343, 0.252763, 0.598013, 0.254752, 0, 0
1, 0.00000, 0.59527, 0.253584, 0.593341, 0.252762, 0.598014, 0.254753, 0, 0
1, 60.00000, 0.548769, 0.23379, 0.546873, 0.23298, 0.551122, 0.234792, 0, 0
1, 120.00000, 0.548817, 0.233795, 0.546921, 0.232987, 0.551174, 0.234799, 0, 0
1, 180.00000, 0.548817, 0.233795, 0.546921, 0.232987, 0.551174, 0.234799, 0, 0
1, 240.00000, 0.548817, 0.233795, 0.546921, 0.232987, 0.551174, 0.234799, 0, 0
1, 300.00000, 0.548817, 0.233795, 0.546921, 0.232987, 0.551174, 0.234799, 0, 0
1, 360.00000, 0.548817, 0.233795, 0.546921, 0.232987, 0.551174, 0.234799, 0, 0
1, 420.00000, 0.548817, 0.233795, 0.546921, 0.232987, 0.551174, 0.234799, 0, 0
1, 480.00000, 0.548817, 0.233795, 0.546921, 0.232987, 0.551174, 0.234799, 0, 0
1, 540.00000, 0.548817, 0.233795, 0.546921, 0.232987, 0.551174, 0.234799, 0, 0
1, 600.00000, 0.548817, 0.233795, 0.546921, 0.232987, 0.551174, 0.234799, 0, 0
1, 660.00000, 0.548817, 0.233795, 0.546921, 0.232987, 0.551174, 0.234799, 0, 0
1, 720.00000, 0.548817, 0.233795, 0.546921, 0.232987, 0.551174, 0.234799, 0, 0
1, 780.00000, 0.548817, 0.233795, 0.546921, 0.232987, 0.551174, 0.234799, 0, 0
1, 840.00000, 0.548817, 0.233795, 0.546921, 0.232987, 0.551174, 0.234799, 0, 0
1, 900.00000, 0.548817, 0.233795, 0.546921, 0.232987, 0.551174, 0.234799, 0, 0
1, 960.00000, 0.555056, 0.236455, 0.553116, 0.235629, 0.557404, 0.237455, 0, 0
1, 1020.00000, 0.555065, 0.236457, 0.553125, 0.23563, 0.557413, 0.237457, 0, 0
1, 1080.00000, 0.555065, 0.236457, 0.553125, 0.23563, 0.557413, 0.237457, 0, 0
1, 1140.00000, 0.555065, 0.236457, 0.553125, 0.23563, 0.557413, 0.237457, 0, 0
1, 1200.00000, 0.555065, 0.236457, 0.553125, 0.23563, 0.557413, 0.237457, 0, 0
1, 1260.00000, 0.555065, 0.236457, 0.553125, 0.23563, 0.557413, 0.237457, 0, 0
1, 1320.00000, 0.555065, 0.236457, 0.553125, 0.23563, 0.557413, 0.237457, 0, 0
1, 1380.00000, 0.555065, 0.236457, 0.553125, 0.23563, 0.557413, 0.237457, 0, 0
1, 1440.00000, 0.555065, 0.236457, 0.553125, 0.23563, 0.557413, 0.237457, 0, 0
1, 1500.00000, 0.555065, 0.236457, 0.553125, 0.23563, 0.557413, 0.237457, 0, 0
1, 1560.00000, 0.555065, 0.236457, 0.553125, 0.23563, 0.557413, 0.237457, 0, 0
1, 1620.00000, 0.555065, 0.236457, 0.553125, 0.23563, 0.557413, 0.237457, 0, 0
1, 1680.00000, 0.555065, 0.236457, 0.553125, 0.23563, 0.557413, 0.237457, 0, 0
1, 1740.00000, 0.555065, 0.236457, 0.553125, 0.23563, 0.557413, 0.237457, 0, 0
1, 1800.00000, 0.555065, 0.236457, 0.553125, 0.23563, 0.557413, 0.237457, 0, 0
1, 1860.00000, 0.588817, 0.250838, 0.590109, 0.25138, 0.596718, 0.25421, 0, 0
1, 1920.00000, 0.588808, 0.250831, 0.590113, 0.251387, 0.596694, 0.254191, 0, 0
1, 1980.00000, 0.588808, 0.250831, 0.590113, 0.251387, 0.596694, 0.25419, 0, 0
1, 2040.00000, 0.588808, 0.250831, 0.590113, 0.251387, 0.596694, 0.25419, 0, 0
1, 2100.00000, 0.588808, 0.250831, 0.590113, 0.251387, 0.596694, 0.25419, 0, 0
1, 2160.00000, 0.588808, 0.250831, 0.590113, 0.251387, 0.596694, 0.25419, 0, 0
1, 2220.00000, 0.588808, 0.250831, 0.590113, 0.251387, 0.596694, 0.25419, 0, 0
1, 2280.00000, 0.588808, 0.250831, 0.590113, 0.251387, 0.596694, 0.25419, 0, 0
1, 2340.00000, 0.588808, 0.250831, 0.590113, 0.251387, 0.596694, 0.25419, 0, 0
1, 2400.00000, 0.588808, 0.250831, 0.590113, 0.251387, 0.596694, 0.25419, 0, 0
1, 2460.00000, 0.588808, 0.250831, 0.590113, 0.251387, 0.596694, 0.25419, 0, 0
1, 2520.00000, 0.588808, 0.250831, 0.590113, 0.251387, 0.596694, 0.25419, 0, 0
1, 2580.00000, 0.588808, 0.250831, 0.590113, 0.251387, 0.596694, 0.25419, 0, 0
1, 2640.00000, 0.588808, 0.250831, 0.590113, 0.251387, 0.596694, 0.25419, 0, 0
1, 2700.00000, 0.588808, 0.250831, 0.590113, 0.251387, 0.596694, 0.25419, 0, 0
1, 2760.00000, 0.560376, 0.238724, 0.561534, 0.239211, 0.563298, 0.239971, 0, 0
1, 2820.00000, 0.560379, 0.23872, 0.561549, 0.239219, 0.563275, 0.239954, 0, 0
1, 2880.00000, 0.560378, 0.23872, 0.561549, 0.239219, 0.563275, 0.239954, 0, 0
1, 2940.00000, 0.560378, 0.23872, 0.561549, 0.239219, 0.563275, 0.239954, 0, 0
1, 3000.00000, 0.560378, 0.23872, 0.561549, 0.239219, 0.563275, 0.239954, 0, 0
1, 3060.00000, 0.560378, 0.23872, 0.561549, 0.239219, 0.563275, 0.239954, 0, 0
1, 3120.00000, 0.560378, 0.23872, 0.561549, 0.239219, 0.563275, 0.239954, 0, 0
1, 3180.00000, 0.560378, 0.23872, 0.561549, 0.239219, 0.563275, 0.239954, 0, 0
1, 3240.00000, 0.560378, 0.23872, 0.561549, 0.239219, 0.563275, 0.239954, 0, 0
1, 3300.00000, 0.560378, 0.23872, 0.561549, 0.239219, 0.563275, 0.239954, 0, 0
1, 3360.00000, 0.560378, 0.23872, 0.561549, 0.239219, 0.563275, 0.239954, 0, 0
1, 3420.00000, 0.560378, 0.23872, 0.561549, 0.239219, 0.563275, 0.239954, 0, 0
1, 3480.00000, 0.560378, 0.23872, 0.561549, 0.239219, 0.563275, 0.239954, 0, 0
1, 3540.00000, 0.560378, 0.23872, 0.561549, 0.239219, 0.563275, 0.239954, 0, 0
2, 0.00000, 0.560378, 0.23872, 0.561549, 0.239219, 0.563275, 0.239954, 0, 0
2, 60.00000, 0.593624, 0.25288, 0.594938, 0.253443, 0.599395, 0.255336, 0, 0
2, 120.00000, 0.593623, 0.252882, 0.594928, 0.253438, 0.599409, 0.255347, 0, 0
2, 180.00000, 0.593623, 0.252882, 0.594928, 0.253438, 0.599409, 0.255347, 0, 0
2, 240.00000, 0.593623, 0.252882, 0.594928, 0.253438, 0.599409, 0.255347, 0, 0
2, 300.00000, 0.593623, 0.252882, 0.594928, 0.253438, 0.599409, 0.255347, 0, 0
2, 360.00000, 0.593623, 0.252882, 0.594928, 0.253438, 0.599409, 0.255347, 0, 0
2, 420.00000, 0.593623, 0.252882, 0.594928, 0.253438, 0.599409, 0.255347, 0, 0
2, 480.00000, 0.593623, 0.252882, 0.594928, 0.253438, 0.599409, 0.255347, 0, 0
2, 540.00000, 0.593623, 0.252882, 0.594928, 0.253438, 0.599409, 0.255347, 0, 0
2, 600.00000, 0.593623, 0.252882, 0.594928, 0.253438, 0.599409, 0.255347, 0, 0
2, 660.00000, 0.593623, 0.252882, 0.594928, 0.253438, 0.599409, 0.255347, 0, 0
2, 720.00000, 0.593623, 0.252882, 0.594928, 0.253438, 0.599409, 0.255347, 0, 0
2, 780.00000, 0.593623, 0.252882, 0.594928, 0.253438, 0.599409, 0.255347, 0, 0
2, 840.00000, 0.593623, 0.252882, 0.594928, 0.253438, 0.599409, 0.255347, 0, 0
2, 900.00000, 0.593623, 0.252882, 0.594928, 0.253438, 0.599409, 0.255347, 0, 0
2, 960.00000, 0.57394, 0.244502, 0.575115, 0.244998, 0.576203, 0.245467, 0, 0
2, 1020.00000, 0.573945, 0.2445, 0.575126, 0.245003, 0.576185, 0.245454, 0, 0
2, 1080.00000, 0.573945, 0.2445, 0.575126, 0.245003, 0.576185, 0.245454, 0, 0
2, 1140.00000, 0.573945, 0.2445, 0.575126, 0.245003, 0.576185, 0.245454, 0, 0
2, 1200.00000, 0.573945, 0.2445, 0.575126, 0.245003, 0.576185, 0.245454, 0, 0
2, 1260.00000, 0.573945, 0.2445, 0.575126, 0.245003, 0.576185, 0.245454, 0, 0
2, 1320.00000, 0.573945, 0.2445, 0.575126, 0.245003, 0.576185, 0.245454, 0, 0
2, 1380.00000, 0.573945, 0.2445, 0.575126, 0.245003, 0.576185, 0.245454, 0, 0
2, 1440.00000, 0.573945, 0.2445, 0.575126, 0.245003, 0.576185, 0.245454, 0, 0
2, 1500.00000, 0.573945, 0.2445, 0.575126, 0.245003, 0.576185, 0.245454, 0, 0
2, 1560.00000, 0.573945, 0.2445, 0.575126, 0.245003, 0.576185, 0.245454, 0, 0
2, 1620.00000, 0.573945, 0.2445, 0.575126, 0.245003, 0.576185, 0.245454, 0, 0
2, 1680.00000, 0.573945, 0.2445, 0.575126, 0.245003, 0.576185, 0.245454, 0, 0
2, 1740.00000, 0.573945, 0.2445, 0.575126, 0.245003, 0.576185, 0.245454, 0, 0
2, 1800.00000, 0.573945, 0.2445, 0.575126, 0.245003, 0.576185, 0.245454, 0, 0
2, 1860.00000, 0.611328, 0.260423, 0.612651, 0.260988, 0.615286, 0.262109, 0, 0
2, 1920.00000, 0.611325, 0.260423, 0.612647, 0.260987, 0.615294, 0.262114, 0, 0
2, 1980.00000, 0.611325, 0.260423, 0.612647, 0.260987, 0.615294, 0.262114, 0, 0
2, 2040.00000, 0.611325, 0.260423, 0.612647, 0.260987, 0.615294, 0.262114, 0, 0
2, 2100.00000, 0.611325, 0.260423, 0.612647, 0.260987, 0.615294, 0.262114, 0, 0
2, 2160.00000, 0.611325, 0.260423, 0.612647, 0.260987, 0.615294, 0.262114, 0, 0
2, 2220.00000, 0.611325, 0.260423, 0.612647, 0.260987, 0.615294, 0.262114, 0, 0
2, 2280.00000, 0.611325, 0.260423, 0.612647, 0.260987, 0.615294, 0.262114, 0, 0
2, 2340.00000, 0.611325, 0.260423, 0.612647, 0.260987, 0.615294, 0.262114, 0, 0
2, 2400.00000, 0.611325, 0.260423, 0.612647, 0.260987, 0.615294, 0.262114, 0, 0
2, 2460.00000, 0.611325, 0.260423, 0.612647, 0.260987, 0.615294, 0.262114, 0, 0
2, 2520.00000, 0.611325, 0.260423, 0.612647, 0.260987, 0.615294, 0.262114, 0, 0
2, 2580.00000, 0.611325, 0.260423, 0.612647, 0.260987, 0.615294, 0.262114, 0, 0
2, 2640.00000, 0.611325, 0.260423, 0.612647, 0.260987, 0.615294, 0.262114, 0, 0
2, 2700.00000, 0.611325, 0.260423, 0.612647, 0.260987, 0.615294, 0.262114, 0, 0
2, 2760.00000, 0.567988, 0.241966, 0.567996, 0.241966, 0.568002, 0.241974, 0, 0
2, 2820.00000, 0.567982, 0.241959, 0.567982, 0.241959, 0.567982, 0.24196, 0, 0
2, 2880.00000, 0.567982, 0.241959, 0.567982, 0.241959, 0.567982, 0.241959, 0, 0
2, 2940.00000, 0.567982, 0.241959, 0.567982, 0.241959, 0.567982, 0.241959, 0, 0
2, 3000.00000, 0.567982, 0.241959, 0.567982, 0.241959, 0.567982, 0.241959, 0, 0
2, 3060.00000, 0.567982, 0.241959, 0.567982, 0.241959, 0.567982, 0.241959, 0, 0
2, 3120.00000, 0.567982, 0.241959, 0.567982, 0.241959, 0.567982, 0.241959, 0, 0
2, 3180.00000, 0.567982, 0.241959, 0.567982, 0.241959, 0.567982, 0.241959, 0, 0
2, 3240.00000, 0.567982, 0.241959, 0.567982, 0.241959, 0.567982, 0.241959, 0, 0
2, 3300.00000, 0.567982, 0.241959, 0.567982, 0.241959, 0.567982, 0.241959, 0, 0
2, 3360.00000, 0.567982, 0.241959, 0.567982, 0.241959, 0.567982, 0.241959, 0, 0
2, 3420.00000, 0.567982, 0.241959, 0.567982, 0.241959, 0.567982, 0.241959, 0, 0
2, 3480.00000, 0.567982, 0.241959, 0.567982, 0.241959, 0.567982, 0.241959, 0, 0
2, 3540.00000, 0.567982, 0.241959, 0.567982, 0.241959, 0.567982, 0.241959, 0, 0
3, 0.00000, 0.567982, 0.241959, 0.567982, 0.241959, 0.567982, 0.241959, 0, 0
3, 60.00000, 0.606259, 0.258262, 0.607504, 0.258795, 0.608299, 0.259131, 0, 0
3, 120.00000, 0.606253, 0.258263, 0.607496, 0.258792, 0.608311, 0.259139, 0, 0
3, 180.00000, 0.606253, 0.258263, 0.607496, 0.258792, 0.608311, 0.259139, 0, 0
3, 240.00000, 0.606253, 0.258263, 0.607496, 0.258792, 0.608311, 0.259139, 0, 0
3, 300.00000, 0.606253, 0.258263, 0.607496, 0.258792, 0.608311, 0.259139, 0, 0
3, 360.00000, 0.606253, 0.258263, 0.607496, 0.258792, 0.608311, 0.259139, 0, 0
3, 420.00000, 0.606253, 0.258263, 0.607496, 0.258792, 0.608311, 0.259139, 0, 0
3, 480.00000, 0.606253, 0.258263, 0.607496, 0.258792, 0.608311, 0.259139, 0, 0
3, 540.00000, 0.606253, 0.258263, 0.607496, 0.258792, 0.608311, 0.259139, 0, 0
3, 600.00000, 0.606253, 0.258263, 0.607496, 0.258792, 0.608311, 0.259139, 0, 0
3, 660.00000, 0.606253, 0.258263, 0.607496, 0.258792, 0.608311, 0.259139, 0, 0
3, 720.00000, 0.606253, 0.258263, 0.607496, 0.258792, 0.608311, 0.259139, 0, 0
3, 780.00000, 0.606253, 0.258263, 0.607496, 0.258792, 0.608311, 0.259139, 0, 0
3, 840.00000, 0.606253, 0.258263, 0.607496, 0.258792, 0.608311, 0.259139, 0, 0
3, 900.00000, 0.606253, 0.258263, 0.607496, 0.258792, 0.608311, 0.259139, 0, 0
3, 960.00000, 0.560742, 0.238881, 0.561852, 0.239349, 0.561946, 0.239394, 0, 0
3, 1020.00000, 0.560757, 0.238882, 0.561873, 0.239357, 0.56192, 0.239377, 0, 0
3, 1080.00000, 0.560757, 0.238882, 0.561873, 0.239357, 0.561919, 0.239377, 0, 0
3, 1140.00000, 0.560757, 0.238882, 0.561873, 0.239357, 0.561919, 0.239377, 0, 0
3, 1200.00000, 0.560757, 0.238882, 0.561873, 0.239357, 0.561919, 0.239377, 0, 0
3, 1260.00000, 0.560757, 0.238882, 0.561873, 0.239357, 0.561919, 0.239377, 0, 0
3, 1320.00000, 0.560757, 0.238882, 0.561873, 0.239357, 0.561919, 0.239377, 0, 0
3, 1380.00000, 0.560757, 0.238882, 0.561873, 0.239357, 0.561919, 0.239377, 0, 0
3, 1440.00000, 0.560757, 0.238882, 0.561873, 0.239357, 0.561919, 0.239377, 0, 0
3, 1500.00000, 0.560757, 0.238882, 0.561873, 0.239357, 0.561919, 0.239377, 0, 0
3, 1560.00000, 0.560757, 0.238882, 0.561873, 0.239357, 0.561919, 0.239377, 0, 0
3, 1620.00000, 0.560757, 0.238882, 0.561873, 0.239357, 0.561919, 0.239377, 0, 0
3, 1680.00000, 0.560757, 0.238882, 0.561873, 0.239357, 0.561919, 0.239377, 0, 0
3, 1740.00000, 0.560757, 0.238882, 0.561873, 0.239357, 0.561919, 0.239377, 0, 0
3, 1800.00000, 0.560757, 0.238882, 0.561873, 0.239357, 0.561919, 0.239377, 0, 0
3, 1860.00000, 0.52263, 0.222644, 0.523617, 0.223064, 0.523618, 0.223065, 0, 0
3, 1920.00000, 0.522644, 0.222646, 0.523609, 0.223056, 0.523609, 0.223056, 0, 0
3, 1980.00000, 0.522644, 0.222646, 0.523609, 0.223056, 0.523609, 0.223056, 0, 0
3, 2040.00000, 0.522644, 0.222646, 0.523609, 0.223056, 0.523609, 0.223056, 0, 0
3, 2100.00000, 0.522644, 0.222646, 0.523609, 0.223056, 0.523609, 0.223056, 0, 0
3, 2160.00000, 0.522644, 0.222646, 0.523609, 0.223056, 0.523609, 0.223056, 0, 0
3, 2220.00000, 0.522644, 0.222646, 0.523609, 0.223056, 0.523609, 0.223056, 0, 0
3, 2280.00000, 0.522644, 0.222646, 0.523609, 0.223056, 0.523609, 0.223056, 0, 0
3, 2340.00000, 0.522644, 0.222646, 0.523609, 0.223056, 0.523609, 0.223056, 0, 0
3, 2400.00000, 0.522644, 0.222646, 0.523609, 0.223056, 0.523609, 0.223056, 0, 0
3, 2460.00000, 0.522644, 0.222646, 0.523609, 0.223056, 0.523609, 0.223056, 0, 0
3, 2520.00000, 0.522644, 0.222646, 0.523609, 0.223056, 0.523609, 0.223056, 0, 0
3, 2580.00000, 0.522644, 0.222646, 0.523609, 0.223056, 0.523609, 0.223056, 0, 0
3, 2640.00000, 0.522644, 0.222646, 0.523609, 0.223056, 0.523609, 0.223056, 0, 0
3, 2700.00000, 0.522644, 0.222646, 0.523609, 0.223056, 0.523609, 0.223056, 0, 0
3, 2760.00000, 0.5519, 0.235112, 0.551903, 0.235111, 0.551909, 0.235117, 0, 0
3, 2820.00000, 0.55189, 0.235104, 0.55189, 0.235104, 0.55189, 0.235104, 0, 0
3, 2880.00000, 0.55189, 0.235104, 0.55189, 0.235104, 0.55189, 0.235104, 0, 0
3, 2940.00000, 0.55189, 0.235104, 0.55189, 0.235104, 0.55189, 0.235104, 0, 0
3, 3000.00000, 0.55189, 0.235104, 0.55189, 0.235104, 0.55189, 0.235104, 0, 0
3, 3060.00000, 0.55189, 0.235104, 0.55189, 0.235104, 0.55189, 0.235104, 0, 0
3, 3120.00000, 0.55189, 0.235104, 0.55189, 0.235104, 0.55189, 0.235104, 0, 0
3, 3180.00000, 0.55189, 0.235104, 0.55189, 0.235104, 0.55189, 0.235104, 0, 0
3, 3240.00000, 0.55189, 0.235104, 0.55189, 0.235104, 0.55189, 0.235104, 0, 0
3, 3300.00000, 0.55189, 0.235104, 0.55189, 0.235104, 0.55189, 0.235104, 0, 0
3, 3360.00000, 0.55189, 0.235104, 0.55189, 0.235104, 0.55189, 0.235104, 0, 0
3, 3420.00000, 0.55189, 0.235104, 0.55189, 0.235104, 0.55189, 0.235104, 0, 0
3, 3480.00000, 0.55189, 0.235104, 0.55189, 0.235104, 0.55189, 0.235104, 0, 0
3, 3540.00000, 0.55189, 0.235104, 0.55189, 0.235104, 0.55189, 0.235104, 0, 0
4, 0.00000, 0.55189, 0.235104, 0.55189, 0.235104, 0.55189, 0.235104, 0, 0
4, 60.00000, 0.518736, 0.220978, 0.518734, 0.220979, 0.51873, 0.220975, 0, 0
4, 120.00000, 0.518742, 0.220983, 0.518742, 0.220983, 0.518741, 0.220983, 0, 0
4, 180.00000, 0.518742, 0.220983, 0.518742, 0.220983, 0.518742, 0.220983, 0, 0
4, 240.00000, 0.518742, 0.220983, 0.518742, 0.220983, 0.518742, 0.220983, 0, 0
4, 300.00000, 0.518742, 0.220983, 0.518742, 0.220983, 0.518742, 0.220983, 0, 0
4, 360.00000, 0.518742, 0.220983, 0.518742, 0.220983, 0.518742, 0.220983, 0, 0
4, 420.00000, 0.518742, 0.220983, 0.518742, 0.220983, 0.518742, 0.220983, 0, 0
4, 480.00000, 0.518742, 0.220983, 0.518742, 0.220983, 0.518742, 0.220983, 0, 0
4, 540.00000, 0.518742, 0.220983, 0.518742, 0.220983, 0.518742, 0.220983, 0, 0
4, 600.00000, 0.518742, 0.220983, 0.518742, 0.220983, 0.518742, 0.220983, 0, 0
4, 660.00000, 0.518742, 0.220983, 0.518742, 0.220983, 0.518742, 0.220983, 0, 0
