hour,t(sec),V1,VAngle1,V2,VAngle2,V3,VAngle3,V4,VAngle4,I1,IAngle1,I2,IAngle2,I3,IAngle3,I4,IAngle4
0, 60.00000, 122.988, -31.3356, 125.836, -151.596, 123.869, 87.6622, 0, 0, 8.03856, -54.409, 7.85692, -174.669, 7.98129, 64.5883, 0.286291, 168.352
0, 120.00000, 122.987, -31.3369, 125.866, -151.601, 123.869, 87.6497, 0, 0, 8.03862, -54.4104, 7.85506, -174.674, 7.98126, 64.5758, 0.289445, 168.48
0, 180.00000, 122.986, -31.3381, 125.892, -151.606, 123.87, 87.6385, 0, 0, 8.03867, -54.4116, 7.85339, -174.68, 7.98124, 64.5645, 0.29228, 168.593
0, 240.00000, 122.986, -31.3391, 125.916, -151.611, 123.87, 87.6283, 0, 0, 8.03872, -54.4127, 7.8519, -174.684, 7.98122, 64.5544, 0.294833, 168.694
0, 300.00000, 122.985, -31.3401, 125.937, -151.615, 123.871, 87.6192, 0, 0, 8.03877, -54.4137, 7.85055, -174.688, 7.98121, 64.5452, 0.29713, 168.784
0, 360.00000, 122.985, -31.341, 125.956, -151.618, 123.871, 87.6109, 0, 0, 8.03881, -54.4146, 7.84934, -174.692, 7.98119, 64.537, 0.299199, 168.864
0, 420.00000, 122.984, -31.3417, 125.973, -151.622, 123.872, 87.6035, 0, 0, 8.03885, -54.4154, 7.84825, -174.695, 7.98118, 64.5296, 0.301061, 168.936
0, 480.00000, 122.984, -31.3424, 125.989, -151.625, 123.872, 87.5969, 0, 0, 8.03888, -54.4162, 7.84727, -174.698, 7.98118, 64.5229, 0.302737, 169
0, 540.00000, 122.983, -31.3431, 126.003, -151.627, 123.872, 87.5909, 0, 0, 8.03891, -54.4168, 7.84639, -174.701, 7.98117, 64.5169, 0.304245, 169.057
0, 600.00000, 122.983, -31.3436, 126.015, -151.63, 123.872, 87.5854, 0, 0, 8.03894, -54.4174, 7.8456, -174.703, 7.98116, 64.5115, 0.305603, 169.108
0, 660.00000, 122.982, -31.3442, 126.027, -151.632, 123.872, 87.5806, 0, 0, 8.03896, -54.4179, 7.84488, -174.706, 7.98116, 64.5067, 0.306826, 169.154
0, 720.00000, 122.982, -31.3446, 126.037, -151.634, 123.872, 87.5762, 0, 0, 8.03899, -54.4184, 7.84424, -174.708, 7.98116, 64.5023, 0.307926, 169.195
0, 780.00000, 122.982, -31.345, 126.046, -151.636, 123.873, 87.5723, 0, 0, 8.03901, -54.4188, 7.84367, -174.709, 7.98116, 64.4983, 0.308916, 169.232
0, 840.00000, 122.981, -31.3454, 126.054, -151.637, 123.873, 87.5687, 0, 0, 8.03902, -54.4192, 7.84315, -174.711, 7.98115, 64.4948, 0.309808, 169.265
0, 900.00000, 122.981, -31.3457, 126.062, -151.639, 123.873, 87.5655, 0, 0, 8.03904, -54.4196, 7.84268, -174.713, 7.98115, 64.4916, 0.31061, 169.294
0, 960.00000, 122.84, -31.3765, 125.916, -151.67, 123.733, 87.5298, 0, 0, 7.87634, -54.4504, 7.68398, -174.744, 7.81944, 64.4559, 0.304876, 169.208
0, 1020.00000, 122.84, -31.3768, 125.922, -151.671, 123.734, 87.5273, 0, 0, 7.87635, -54.4506, 7.68361, -174.745, 7.81943, 64.4533, 0.305506, 169.232
0, 1080.00000, 122.84, -31.377, 125.927, -151.672, 123.734, 87.5249, 0, 0, 7.87636, -54.4509, 7.68328, -174.746, 7.81943, 64.451, 0.306079, 169.253
0, 1140.00000, 122.839, -31.3772, 125.932, -151.673, 123.734, 87.5228, 0, 0, 7.87637, -54.4511, 7.68298, -174.747, 7.81943, 64.4489, 0.306595, 169.273
0, 1200.00000, 122.839, -31.3774, 125.937, -151.674, 123.734, 87.521, 0, 0, 7.87638, -54.4513, 7.68271, -174.748, 7.81943, 64.447, 0.307059, 169.29
0, 1260.00000, 122.839, -31.3776, 125.941, -151.675, 123.734, 87.5193, 0, 0, 7.87639, -54.4515, 7.68246, -174.749, 7.81943, 64.4453, 0.307477, 169.306
0, 1320.00000, 122.839, -31.3778, 125.944, -151.676, 123.734, 87.5177, 0, 0, 7.8764, -54.4517, 7.68224, -174.749, 7.81943, 64.4438, 0.307853, 169.32
0, 1380.00000, 122.839, -31.3779, 125.947, -151.676, 123.734, 87.5164, 0, 0, 7.87641, -54.4518, 7.68205, -174.75, 7.81943, 64.4424, 0.308191, 169.332
0, 1440.00000, 122.839, -31.3781, 125.95, -151.677, 123.734, 87.5151, 0, 0, 7.87641, -54.4519, 7.68187, -174.751, 7.81943, 64.4412, 0.308496, 169.343
0, 1500.00000, 122.839, -31.3782, 125.953, -151.677, 123.734, 87.514, 0, 0, 7.87642, -54.4521, 7.68171, -174.751, 7.81943, 64.4401, 0.30877, 169.354
0, 1560.00000, 122.839, -31.3783, 125.955, -151.678, 123.734, 87.513, 0, 0, 7.87642, -54.4522, 7.68157, -174.752, 7.81943, 64.4391, 0.309017, 169.363
0, 1620.00000, 122.839, -31.3784, 125.957, -151.678, 123.734, 87.5121, 0, 0, 7.87643, -54.4523, 7.68144, -174.752, 7.81943, 64.4382, 0.309239, 169.371
0, 1680.00000, 122.839, -31.3785, 125.959, -151.678, 123.734, 87.5113, 0, 0, 7.87643, -54.4524, 7.68132, -174.752, 7.81943, 64.4374, 0.309439, 169.378
0, 1740.00000, 122.839, -31.3785, 125.961, -151.679, 123.734, 87.5106, 0, 0, 7.87644, -54.4524, 7.68121, -174.753, 7.81943, 64.4367, 0.309619, 169.385
0, 1800.00000, 122.839, -31.3786, 125.962, -151.679, 123.734, 87.5099, 0, 0, 7.87644, -54.4525, 7.68112, -174.753, 7.81944, 64.436, 0.30978, 169.391
0, 1860.00000, 122.967, -31.3587, 126.098, -151.661, 123.857, 87.5294, 0, 0, 7.43956, -54.4326, 7.25489, -174.735, 7.3861, 64.4555, 0.292856, 169.538
0, 1920.00000, 122.967, -31.3588, 126.099, -151.661, 123.857, 87.5289, 0, 0, 7.43956, -54.4327, 7.25481, -174.735, 7.38611, 64.4549, 0.292985, 169.543
0, 1980.00000, 122.967, -31.3588, 126.1, -151.662, 123.857, 87.5284, 0, 0, 7.43956, -54.4328, 7.25475, -174.736, 7.38611, 64.4545, 0.293096, 169.547
0, 2040.00000, 122.967, -31.3589, 126.101, -151.662, 123.857, 87.528, 0, 0, 7.43956, -54.4328, 7.25469, -174.736, 7.38611, 64.454, 0.293197, 169.551
0, 2100.00000, 122.967, -31.3589, 126.102, -151.662, 123.857, 87.5276, 0, 0, 7.43957, -54.4328, 7.25464, -174.736, 7.38611, 64.4536, 0.293287, 169.555
0, 2160.00000, 122.967, -31.359, 126.103, -151.662, 123.857, 87.5272, 0, 0, 7.43957, -54.4329, 7.25459, -174.736, 7.38611, 64.4533, 0.293368, 169.558
0, 2220.00000, 122.967, -31.359, 126.104, -151.662, 123.857, 87.5269, 0, 0, 7.43957, -54.4329, 7.25455, -174.736, 7.38611, 64.453, 0.293442, 169.561
0, 2280.00000, 122.967, -31.359, 126.104, -151.662, 123.857, 87.5266, 0, 0, 7.43957, -54.4329, 7.25451, -174.736, 7.38611, 64.4527, 0.293507, 169.563
0, 2340.00000, 122.967, -31.3591, 126.105, -151.663, 123.857, 87.5264, 0, 0, 7.43957, -54.433, 7.25448, -174.736, 7.38611, 64.4524, 0.293567, 169.566
0, 2400.00000, 122.967, -31.3591, 126.105, -151.663, 123.857, 87.5261, 0, 0, 7.43957, -54.433, 7.25444, -174.737, 7.38611, 64.4522, 0.29362, 169.568
0, 2460.00000, 122.967, -31.3591, 126.106, -151.663, 123.857, 87.5259, 0, 0, 7.43957, -54.433, 7.25442, -174.737, 7.38611, 64.452, 0.293668, 169.569
0, 2520.00000, 122.967, -31.3591, 126.106, -151.663, 123.857, 87.5257, 0, 0, 7.43957, -54.433, 7.25439, -174.737, 7.38611, 64.4518, 0.293711, 169.571
0, 2580.00000, 122.967, -31.3591, 126.107, -151.663, 123.857, 87.5256, 0, 0, 7.43957, -54.4331, 7.25437, -174.737, 7.38611, 64.4517, 0.29375, 169.573
0, 2640.00000, 122.967, -31.3592, 126.107, -151.663, 123.857, 87.5254, 0, 0, 7.43958, -54.4331, 7.25435, -174.737, 7.38611, 64.4515, 0.293785, 169.574
0, 2700.00000, 122.967, -31.3592, 126.107, -151.663, 123.857, 87.5253, 0, 0, 7.43958, -54.4331, 7.25433, -174.737, 7.38611, 64.4514, 0.293817, 169.575
0, 2760.00000, 123.191, -31.3171, 126.342, -151.623, 124.074, 87.5688, 0, 0, 7.26888, -54.391, 7.0876, -174.697, 7.2171, 64.4949, 0.287222, 169.788
0, 2820.00000, 123.191, -31.3171, 126.342, -151.623, 124.074, 87.5687, 0, 0, 7.26889, -54.391, 7.08758, -174.697, 7.21711, 64.4948, 0.287255, 169.789
0, 2880.00000, 123.191, -31.3171, 126.342, -151.623, 124.074, 87.5686, 0, 0, 7.26889, -54.391, 7.08757, -174.697, 7.21711, 64.4947, 0.287277, 169.79
0, 2940.00000, 123.191, -31.3171, 126.342, -151.623, 124.074, 87.5685, 0, 0, 7.26889, -54.391, 7.08755, -174.697, 7.21711, 64.4946, 0.287297, 169.791
0, 3000.00000, 123.191, -31.3171, 126.343, -151.623, 124.074, 87.5685, 0, 0, 7.26889, -54.391, 7.08754, -174.697, 7.21711, 64.4945, 0.287315, 169.791
0, 3060.00000, 123.191, -31.3171, 126.343, -151.623, 124.074, 87.5684, 0, 0, 7.26889, -54.391, 7.08753, -174.697, 7.21711, 64.4945, 0.287332, 169.792
0, 3120.00000, 123.191, -31.3171, 126.343, -151.624, 124.074, 87.5683, 0, 0, 7.26889, -54.391, 7.08753, -174.697, 7.21711, 64.4944, 0.287347, 169.793
0, 3180.00000, 123.191, -31.3171, 126.343, -151.624, 124.074, 87.5683, 0, 0, 7.26889, -54.391, 7.08752, -174.697, 7.21711, 64.4943, 0.28736, 169.793
0, 3240.00000, 123.191, -31.3171, 126.343, -151.624, 124.074, 87.5682, 0, 0, 7.26889, -54.391, 7.08751, -174.697, 7.21711, 64.4943, 0.287372, 169.794
0, 3300.00000, 123.191, -31.3171, 126.343, -151.624, 124.074, 87.5682, 0, 0, 7.26889, -54.391, 7.0875, -174.697, 7.21711, 64.4942, 0.287382, 169.794
0, 3360.00000, 123.191, -31.3171, 126.343, -151.624, 124.074, 87.5681, 0, 0, 7.26889, -54.391, 7.0875, -174.698, 7.21711, 64.4942, 0.287392, 169.794
0, 3420.00000, 123.191, -31.3171, 126.343, -151.624, 124.074, 87.5681, 0, 0, 7.26889, -54.3911, 7.08749, -174.698, 7.21711, 64.4942, 0.287401, 169.795
0, 3480.00000, 123.191, -31.3171, 126.343, -151.624, 124.074, 87.568, 0, 0, 7.26889, -54.3911, 7.08749, -174.698, 7.21711, 64.4941, 0.287409, 169.795
0, 3540.00000, 123.191, -31.3171, 126.344, -151.624, 124.074, 87.568, 0, 0, 7.26889, -54.3911, 7.08749, -174.698, 7.21711, 64.4941, 0.287416, 169.795
1, 0.00000, 123.191, -31.3171, 126.344, -151.624, 124.074, 87.568, 0, 0, 7.26889, -54.3911, 7.08748, -174.698, 7.21711, 64.4941, 0.287422, 169.796
1, 60.00000, 123.371, -31.2877, 126.528, -151.596, 124.248, 87.5983, 0, 0, 6.66257, -54.3616, 6.49635, -174.67, 6.61557, 64.5243, 0.263365, 169.975
1, 120.00000, 123.371, -31.2877, 126.528, -151.596, 124.248, 87.5982, 0, 0, 6.66257, -54.3616, 6.49634, -174.67, 6.61557, 64.5243, 0.263374, 169.975
1, 180.00000, 123.371, -31.2877, 126.528, -151.596, 124.248, 87.5982, 0, 0, 6.66257, -54.3616, 6.49634, -174.67, 6.61557, 64.5243, 0.263378, 169.976
1, 240.00000, 123.371, -31.2877, 126.528, -151.596, 124.248, 87.5982, 0, 0, 6.66257, -54.3616, 6.49634, -174.67, 6.61557, 64.5243, 0.263382, 169.976
1, 300.00000, 123.371, -31.2877, 126.528, -151.596, 124.248, 87.5982, 0, 0, 6.66257, -54.3616, 6.49633, -174.67, 6.61557, 64.5243, 0.263385, 169.976
1, 360.00000, 123.371, -31.2877, 126.528, -151.596, 124.248, 87.5982, 0, 0, 6.66257, -54.3616, 6.49633, -174.67, 6.61557, 64.5242, 0.263388, 169.976
1, 420.00000, 123.371, -31.2877, 126.528, -151.596, 124.248, 87.5981, 0, 0, 6.66257, -54.3616, 6.49633, -174.67, 6.61557, 64.5242, 0.263391, 169.976
1, 480.00000, 123.371, -31.2877, 126.528, -151.596, 124.248, 87.5981, 0, 0, 6.66257, -54.3616, 6.49633, -174.67, 6.61557, 64.5242, 0.263394, 169.976
1, 540.00000, 123.371, -31.2877, 126.528, -151.596, 124.248, 87.5981, 0, 0, 6.66258, -54.3616, 6.49633, -174.67, 6.61557, 64.5242, 0.263396, 169.976
1, 600.00000, 123.371, -31.2877, 126.528, -151.596, 124.248, 87.5981, 0, 0, 6.66258, -54.3616, 6.49633, -174.67, 6.61557, 64.5242, 0.263398, 169.977
1, 660.00000, 123.371, -31.2877, 126.528, -151.596, 124.248, 87.5981, 0, 0, 6.66258, -54.3616, 6.49633, -174.67, 6.61557, 64.5242, 0.2634, 169.977
1, 720.00000, 123.371, -31.2877, 126.528, -151.596, 124.248, 87.5981, 0, 0, 6.66258, -54.3616, 6.49632, -174.67, 6.61557, 64.5242, 0.263401, 169.977
1, 780.00000, 123.371, -31.2877, 126.528, -151.596, 124.248, 87.5981, 0, 0, 6.66258, -54.3616, 6.49632, -174.67, 6.61557, 64.5242, 0.263403, 169.977
1, 840.00000, 123.371, -31.2877, 126.528, -151.596, 124.248, 87.5981, 0, 0, 6.66258, -54.3616, 6.49632, -174.67, 6.61557, 64.5242, 0.263404, 169.977
1, 900.00000, 123.371, -31.2877, 126.528, -151.596, 124.248, 87.5981, 0, 0, 6.66258, -54.3616, 6.49632, -174.67, 6.61557, 64.5242, 0.263405, 169.977
1, 960.00000, 123.393, -31.2831, 126.551, -151.592, 124.269, 87.6024, 0, 0, 6.73115, -54.357, 6.56318, -174.666, 6.68372, 64.5285, 0.266167, 170.005
1, 1020.00000, 123.393, -31.2831, 126.551, -151.592, 124.269, 87.6024, 0, 0, 6.73115, -54.357, 6.56317, -174.666, 6.68372, 64.5285, 0.266172, 170.005
1, 1080.00000, 123.393, -31.2831, 126.551, -151.592, 124.269, 87.6024, 0, 0, 6.73115, -54.357, 6.56317, -174.666, 6.68372, 64.5285, 0.266173, 170.005
1, 1140.00000, 123.393, -31.2831, 126.551, -151.592, 124.269, 87.6024, 0, 0, 6.73115, -54.357, 6.56317, -174.666, 6.68372, 64.5285, 0.266174, 170.005
1, 1200.00000, 123.393, -31.2831, 126.551, -151.592, 124.269, 87.6024, 0, 0, 6.73115, -54.357, 6.56317, -174.666, 6.68372, 64.5285, 0.266175, 170.005
1, 1260.00000, 123.393, -31.2831, 126.551, -151.592, 124.269, 87.6024, 0, 0, 6.73115, -54.357, 6.56317, -174.666, 6.68372, 64.5285, 0.266175, 170.005
1, 1320.00000, 123.393, -31.2831, 126.551, -151.592, 124.269, 87.6024, 0, 0, 6.73115, -54.357, 6.56317, -174.666, 6.68372, 64.5285, 0.266176, 170.005
1, 1380.00000, 123.393, -31.2831, 126.551, -151.592, 124.269, 87.6024, 0, 0, 6.73115, -54.357, 6.56317, -174.666, 6.68372, 64.5285, 0.266176, 170.005
1, 1440.00000, 123.393, -31.2831, 126.551, -151.592, 124.269, 87.6024, 0, 0, 6.73115, -54.357, 6.56317, -174.666, 6.68372, 64.5285, 0.266177, 170.005
1, 1500.00000, 123.393, -31.2831, 126.551, -151.592, 124.269, 87.6024, 0, 0, 6.73115, -54.357, 6.56317, -174.666, 6.68372, 64.5285, 0.266177, 170.005
1, 1560.00000, 123.393, -31.2831, 126.551, -151.592, 124.269, 87.6024, 0, 0, 6.73115, -54.357, 6.56317, -174.666, 6.68372, 64.5285, 0.266178, 170.005
1, 1620.00000, 123.393, -31.2831, 126.551, -151.592, 124.269, 87.6024, 0, 0, 6.73115, -54.357, 6.56317, -174.666, 6.68372, 64.5285, 0.266178, 170.005
1, 1680.00000, 123.393, -31.2831, 126.551, -151.592, 124.269, 87.6024, 0, 0, 6.73115, -54.357, 6.56317, -174.666, 6.68372, 64.5285, 0.266178, 170.005
1, 1740.00000, 123.393, -31.2831, 126.551, -151.592, 124.269, 87.6024, 0, 0, 6.73115, -54.357, 6.56317, -174.666, 6.68372, 64.5285, 0.266179, 170.005
1, 1800.00000, 123.393, -31.2831, 126.551, -151.592, 124.269, 87.6024, 0, 0, 6.73115, -54.357, 6.56317, -174.666, 6.68372, 64.5285, 0.266179, 170.005
1, 1860.00000, 123.236, -31.3109, 126.392, -151.618, 124.117, 87.5734, 0, 0, 7.17044, -54.3848, 6.99143, -174.692, 7.11955, 64.4995, 0.283701, 169.862
1, 1920.00000, 123.236, -31.3109, 126.392, -151.618, 124.117, 87.5734, 0, 0, 7.17044, -54.3848, 6.99143, -174.692, 7.11955, 64.4995, 0.283697, 169.862
1, 1980.00000, 123.236, -31.3109, 126.392, -151.618, 124.117, 87.5734, 0, 0, 7.17044, -54.3848, 6.99143, -174.692, 7.11955, 64.4995, 0.283697, 169.862
1, 2040.00000, 123.236, -31.3109, 126.392, -151.618, 124.117, 87.5734, 0, 0, 7.17044, -54.3848, 6.99143, -174.692, 7.11955, 64.4995, 0.283698, 169.862
1, 2100.00000, 123.236, -31.3109, 126.392, -151.618, 124.117, 87.5734, 0, 0, 7.17044, -54.3848, 6.99143, -174.692, 7.11955, 64.4995, 0.283698, 169.862
1, 2160.00000, 123.236, -31.3109, 126.392, -151.618, 124.117, 87.5734, 0, 0, 7.17044, -54.3848, 6.99143, -174.692, 7.11955, 64.4995, 0.283698, 169.862
1, 2220.00000, 123.236, -31.3109, 126.392, -151.618, 124.117, 87.5734, 0, 0, 7.17044, -54.3848, 6.99143, -174.692, 7.11955, 64.4995, 0.283698, 169.862
1, 2280.00000, 123.236, -31.3109, 126.392, -151.618, 124.117, 87.5734, 0, 0, 7.17044, -54.3848, 6.99143, -174.692, 7.11955, 64.4995, 0.283698, 169.862
1, 2340.00000, 123.236, -31.3109, 126.392, -151.618, 124.117, 87.5734, 0, 0, 7.17044, -54.3848, 6.99143, -174.692, 7.11955, 64.4995, 0.283698, 169.862
1, 2400.00000, 123.236, -31.3109, 126.392, -151.618, 124.117, 87.5734, 0, 0, 7.17044, -54.3848, 6.99143, -174.692, 7.11955, 64.4995, 0.283698, 169.862
1, 2460.00000, 123.236, -31.3109, 126.392, -151.618, 124.117, 87.5734, 0, 0, 7.17044, -54.3848, 6.99143, -174.692, 7.11955, 64.4995, 0.283698, 169.862
1, 2520.00000, 123.236, -31.3109, 126.392, -151.618, 124.117, 87.5734, 0, 0, 7.17044, -54.3848, 6.99143, -174.692, 7.11955, 64.4995, 0.283698, 169.862
1, 2580.00000, 123.236, -31.3109, 126.392, -151.618, 124.117, 87.5734, 0, 0, 7.17044, -54.3848, 6.99143, -174.692, 7.11955, 64.4995, 0.283699, 169.862
1, 2640.00000, 123.236, -31.3109, 126.392, -151.618, 124.117, 87.5734, 0, 0, 7.17044, -54.3848, 6.99143, -174.692, 7.11955, 64.4995, 0.283699, 169.862
1, 2700.00000, 123.236, -31.3109, 126.392, -151.618, 124.117, 87.5734, 0, 0, 7.17044, -54.3848, 6.99143, -174.692, 7.11955, 64.4995, 0.283699, 169.862
1, 2760.00000, 123.549, -31.2541, 126.71, -151.566, 124.416, 87.6304, 0, 0, 6.75172, -54.328, 6.5833, -174.64, 6.70466, 64.5565, 0.267071, 170.194
1, 2820.00000, 123.549, -31.2541, 126.71, -151.566, 124.416, 87.6304, 0, 0, 6.75172, -54.328, 6.5833, -174.64, 6.70466, 64.5565, 0.267072, 170.194
1, 2880.00000, 123.549, -31.2541, 126.71, -151.566, 124.416, 87.6304, 0, 0, 6.75172, -54.328, 6.5833, -174.64, 6.70466, 64.5565, 0.267072, 170.194
1, 2940.00000, 123.549, -31.2541, 126.71, -151.566, 124.416, 87.6304, 0, 0, 6.75172, -54.328, 6.5833, -174.64, 6.70466, 64.5565, 0.267072, 170.194
1, 3000.00000, 123.549, -31.2541, 126.71, -151.566, 124.416, 87.6304, 0, 0, 6.75172, -54.328, 6.5833, -174.64, 6.70466, 64.5565, 0.267072, 170.194
1, 3060.00000, 123.549, -31.2541, 126.71, -151.566, 124.416, 87.6304, 0, 0, 6.75172, -54.328, 6.5833, -174.64, 6.70466, 64.5565, 0.267072, 170.194
1, 3120.00000, 123.549, -31.2541, 126.71, -151.566, 124.416, 87.6304, 0, 0, 6.75172, -54.328, 6.5833, -174.64, 6.70466, 64.5565, 0.267072, 170.194
1, 3180.00000, 123.549, -31.2541, 126.71, -151.566, 124.416, 87.6304, 0, 0, 6.75172, -54.328, 6.5833, -174.64, 6.70466, 64.5565, 0.267072, 170.194
1, 3240.00000, 123.549, -31.2541, 126.71, -151.566, 124.416, 87.6304, 0, 0, 6.75172, -54.328, 6.5833, -174.64, 6.70466, 64.5565, 0.267072, 170.194
1, 3300.00000, 123.549, -31.2541, 126.71, -151.566, 124.416, 87.6304, 0, 0, 6.75172, -54.328, 6.5833, -174.64, 6.70466, 64.5565, 0.267072, 170.194
1, 3360.00000, 123.549, -31.2541, 126.71, -151.566, 124.416, 87.6304, 0, 0, 6.75172, -54.328, 6.5833, -174.64, 6.70466, 64.5565, 0.267072, 170.194
1, 3420.00000, 123.549, -31.2541, 126.71, -151.566, 124.416, 87.6304, 0, 0, 6.75172, -54.328, 6.5833, -174.64, 6.70466, 64.5565, 0.267073, 170.194
1, 3480.00000, 123.549, -31.2541, 126.71, -151.566, 124.416, 87.6304, 0, 0, 6.75172, -54.328, 6.5833, -174.64, 6.70466, 64.5565, 0.267073, 170.194
1, 3540.00000, 123.549, -31.2541, 126.71, -151.566, 124.416, 87.6304, 0, 0, 6.75172, -54.328, 6.5833, -174.64, 6.70466, 64.5565, 0.267073, 170.194
2, 0.00000, 123.549, -31.2541, 126.71, -151.566, 124.416, 87.6304, 0, 0, 6.75172, -54.328, 6.5833, -174.64, 6.70466, 64.5565, 0.267073, 170.194
2, 60.00000, 123.354, -31.2885, 126.514, -151.598, 124.231, 87.5956, 0, 0, 7.19623, -54.3625, 7.01648, -174.672, 7.14543, 64.5217, 0.284844, 169.987
2, 120.00000, 123.354, -31.2885, 126.514, -151.598, 124.231, 87.5956, 0, 0, 7.19623, -54.3625, 7.01648, -174.672, 7.14543, 64.5217, 0.284839, 169.986
2, 180.00000, 123.354, -31.2885, 126.514, -151.598, 124.231, 87.5956, 0, 0, 7.19623, -54.3625, 7.01648, -174.672, 7.14543, 64.5217, 0.284839, 169.986
2, 240.00000, 123.354, -31.2885, 126.514, -151.598, 124.231, 87.5956, 0, 0, 7.19623, -54.3625, 7.01648, -174.672, 7.14543, 64.5217, 0.284839, 169.986
2, 300.00000, 123.354, -31.2885, 126.514, -151.598, 124.231, 87.5956, 0, 0, 7.19623, -54.3625, 7.01648, -174.672, 7.14543, 64.5217, 0.284839, 169.986
2, 360.00000, 123.354, -31.2885, 126.514, -151.598, 124.231, 87.5956, 0, 0, 7.19623, -54.3625, 7.01648, -174.672, 7.14543, 64.5217, 0.284839, 169.986
2, 420.00000, 123.354, -31.2885, 126.514, -151.598, 124.231, 87.5956, 0, 0, 7.19623, -54.3625, 7.01648, -174.672, 7.14543, 64.5217, 0.284839, 169.986
2, 480.00000, 123.354, -31.2885, 126.514, -151.598, 124.231, 87.5956, 0, 0, 7.19623, -54.3625, 7.01648, -174.672, 7.14543, 64.5217, 0.28484, 169.986
2, 540.00000, 123.354, -31.2885, 126.514, -151.598, 124.231, 87.5956, 0, 0, 7.19623, -54.3625, 7.01648, -174.672, 7.14543, 64.5217, 0.28484, 169.986
2, 600.00000, 123.354, -31.2885, 126.514, -151.598, 124.231, 87.5956, 0, 0, 7.19623, -54.3625, 7.01648, -174.672, 7.14543, 64.5217, 0.28484, 169.986
2, 660.00000, 123.354, -31.2885, 126.514, -151.598, 124.231, 87.5956, 0, 0, 7.19623, -54.3625, 7.01648, -174.672, 7.14543, 64.5217, 0.28484, 169.986
2, 720.00000, 123.354, -31.2885, 126.514, -151.598, 124.231, 87.5956, 0, 0, 7.19623, -54.3625, 7.01648, -174.672, 7.14543, 64.5217, 0.28484, 169.986
2, 780.00000, 123.354, -31.2885, 126.514, -151.598, 124.231, 87.5956, 0, 0, 7.19623, -54.3625, 7.01648, -174.672, 7.14543, 64.5217, 0.28484, 169.986
