hour,t(sec),V1,VAngle1,V2,VAngle2,V3,VAngle3,V4,VAngle4,I1,IAngle1,I2,IAngle2,I3,IAngle3,I4,IAngle4
0, 60.00000, 117.812, -31.1716, 118.334, -150.944, 119.038, 88.7697, 0, 0, 4.8202, -54.2453, 4.8439, -174.018, 4.8759, 65.6959, 0.027864, -102.039
0, 120.00000, 117.812, -31.1717, 118.334, -150.944, 119.038, 88.7697, 0, 0, 4.82016, -54.2456, 4.84386, -174.018, 4.87587, 65.6958, 0.0278718, -102.033
0, 180.00000, 117.812, -31.1717, 118.334, -150.944, 119.038, 88.7697, 0, 0, 4.82016, -54.2456, 4.84386, -174.018, 4.87587, 65.6958, 0.0278719, -102.033
0, 240.00000, 117.812, -31.1717, 118.334, -150.944, 119.038, 88.7697, 0, 0, 4.82016, -54.2456, 4.84386, -174.018, 4.87587, 65.6958, 0.0278719, -102.033
0, 300.00000, 117.812, -31.1717, 118.334, -150.944, 119.038, 88.7697, 0, 0, 4.82016, -54.2456, 4.84386, -174.018, 4.87587, 65.6958, 0.0278719, -102.033
0, 360.00000, 117.812, -31.1717, 118.334, -150.944, 119.038, 88.7697, 0, 0, 4.82016, -54.2456, 4.84386, -174.018, 4.87587, 65.6958, 0.0278719, -102.033
0, 420.00000, 117.812, -31.1717, 118.334, -150.944, 119.038, 88.7697, 0, 0, 4.82016, -54.2456, 4.84386, -174.018, 4.87587, 65.6958, 0.0278719, -102.033
0, 480.00000, 118.788, -31.076, 119.292, -150.853, 119.979, 88.8809, 0, 0, 4.65897, -54.1502, 4.68084, -173.927, 4.71077, 65.8065, 0.0258662, -100.194
0, 540.00000, 118.788, -31.076, 119.292, -150.853, 119.979, 88.881, 0, 0, 4.659, -54.1499, 4.68094, -173.927, 4.71087, 65.807, 0.0259355, -100.036
0, 600.00000, 118.788, -31.076, 119.292, -150.853, 119.979, 88.881, 0, 0, 4.659, -54.1499, 4.68094, -173.927, 4.71087, 65.807, 0.0259358, -100.035
0, 660.00000, 118.788, -31.076, 119.292, -150.853, 119.979, 88.881, 0, 0, 4.659, -54.1499, 4.68094, -173.927, 4.71087, 65.807, 0.0259358, -100.035
0, 720.00000, 118.788, -31.076, 119.292, -150.853, 119.979, 88.881, 0, 0, 4.659, -54.1499, 4.68094, -173.927, 4.71087, 65.807, 0.0259358, -100.035
0, 780.00000, 118.788, -31.076, 119.292, -150.853, 119.979, 88.881, 0, 0, 4.659, -54.1499, 4.68094, -173.927, 4.71087, 65.807, 0.0259358, -100.035
0, 840.00000, 118.788, -31.076, 119.292, -150.853, 119.979, 88.881, 0, 0, 4.659, -54.1499, 4.68094, -173.927, 4.71087, 65.807, 0.0259358, -100.035
0, 900.00000, 118.788, -31.076, 119.292, -150.853, 119.979, 88.881, 0, 0, 4.659, -54.1499, 4.68094, -173.927, 4.71087, 65.807, 0.0259358, -100.035
0, 960.00000, 118.788, -31.076, 119.292, -150.853, 119.979, 88.881, 0, 0, 4.659, -54.1499, 4.68094, -173.927, 4.71087, 65.807, 0.0259358, -100.035
0, 1020.00000, 118.788, -31.076, 119.292, -150.853, 119.979, 88.881, 0, 0, 4.659, -54.1499, 4.68094, -173.927, 4.71087, 65.807, 0.0259358, -100.035
0, 1080.00000, 118.788, -31.076, 119.292, -150.853, 119.979, 88.881, 0, 0, 4.659, -54.1499, 4.68094, -173.927, 4.71087, 65.807, 0.0259358, -100.035
0, 1140.00000, 118.788, -31.076, 119.292, -150.853, 119.979, 88.881, 0, 0, 4.659, -54.1499, 4.68094, -173.927, 4.71087, 65.807, 0.0259358, -100.035
0, 1200.00000, 118.788, -31.076, 119.292, -150.853, 119.979, 88.881, 0, 0, 4.659, -54.1499, 4.68094, -173.927, 4.71087, 65.807, 0.0259358, -100.035
0, 1260.00000, 118.788, -31.076, 119.292, -150.853, 119.979, 88.881, 0, 0, 4.659, -54.1499, 4.68094, -173.927, 4.71087, 65.807, 0.0259358, -100.035
0, 1320.00000, 118.788, -31.076, 119.292, -150.853, 119.979, 88.881, 0, 0, 4.659, -54.1499, 4.68094, -173.927, 4.71087, 65.807, 0.0259358, -100.035
0, 1380.00000, 118.788, -31.076, 119.292, -150.853, 119.979, 88.881, 0, 0, 4.659, -54.1499, 4.68094, -173.927, 4.71087, 65.807, 0.0259358, -100.035
0, 1440.00000, 118.788, -31.076, 119.292, -150.853, 119.979, 88.881, 0, 0, 4.659, -54.1499, 4.68094, -173.927, 4.71087, 65.807, 0.0259358, -100.035
0, 1500.00000, 118.788, -31.076, 119.292, -150.853, 119.979, 88.881, 0, 0, 4.659, -54.1499, 4.68094, -173.927, 4.71087, 65.807, 0.0259358, -100.035
0, 1560.00000, 118.788, -31.076, 119.292, -150.853, 119.979, 88.881, 0, 0, 4.659, -54.1499, 4.68094, -173.927, 4.71087, 65.807, 0.0259358, -100.035
0, 1620.00000, 118.788, -31.076, 119.292, -150.853, 119.979, 88.881, 0, 0, 4.659, -54.1499, 4.68094, -173.927, 4.71087, 65.807, 0.0259358, -100.035
0, 1680.00000, 118.788, -31.076, 119.292, -150.853, 119.979, 88.881, 0, 0, 4.659, -54.1499, 4.68094, -173.927, 4.71087, 65.807, 0.0259358, -100.035
0, 1740.00000, 118.788, -31.076, 119.292, -150.853, 119.979, 88.881, 0, 0, 4.659, -54.1499, 4.68094, -173.927, 4.71087, 65.807, 0.0259358, -100.035
0, 1800.00000, 118.788, -31.076, 119.292, -150.853, 119.979, 88.881, 0, 0, 4.659, -54.1499, 4.68094, -173.927, 4.71087, 65.807, 0.0259358, -100.035
0, 1860.00000, 118.788, -31.076, 119.292, -150.853, 119.979, 88.881, 0, 0, 4.659, -54.1499, 4.68094, -173.927, 4.71087, 65.807, 0.0259358, -100.035
0, 1920.00000, 118.788, -31.076, 119.292, -150.853, 119.979, 88.881, 0, 0, 4.659, -54.1499, 4.68094, -173.927, 4.71087, 65.807, 0.0259358, -100.035
0, 1980.00000, 118.788, -31.076, 119.292, -150.853, 119.979, 88.881, 0, 0, 4.659, -54.1499, 4.68094, -173.927, 4.71087, 65.807, 0.0259358, -100.035
0, 2040.00000, 118.788, -31.076, 119.292, -150.853, 119.979, 88.881, 0, 0, 4.659, -54.1499, 4.68094, -173.927, 4.71087, 65.807, 0.0259358, -100.035
0, 2100.00000, 118.788, -31.076, 119.292, -150.853, 119.979, 88.881, 0, 0, 4.659, -54.1499, 4.68094, -173.927, 4.71087, 65.807, 0.0259358, -100.035
0, 2160.00000, 118.788, -31.076, 119.292, -150.853, 119.979, 88.881, 0, 0, 4.659, -54.1499, 4.68094, -173.927, 4.71087, 65.807, 0.0259358, -100.035
0, 2220.00000, 118.788, -31.076, 119.292, -150.853, 119.979, 88.881, 0, 0, 4.659, -54.1499, 4.68094, -173.927, 4.71087, 65.807, 0.0259358, -100.035
0, 2280.00000, 118.788, -31.076, 119.292, -150.853, 119.979, 88.881, 0, 0, 4.659, -54.1499, 4.68094, -173.927, 4.71087, 65.807, 0.0259358, -100.035
0, 2340.00000, 118.788, -31.076, 119.292, -150.853, 119.979, 88.881, 0, 0, 4.659, -54.1499, 4.68094, -173.927, 4.71087, 65.807, 0.0259358, -100.035
0, 2400.00000, 118.788, -31.076, 119.292, -150.853, 119.979, 88.881, 0, 0, 4.659, -54.1499, 4.68094, -173.927, 4.71087, 65.807, 0.0259358, -100.035
0, 2460.00000, 118.788, -31.076, 119.292, -150.853, 119.979, 88.881, 0, 0, 4.659, -54.1499, 4.68094, -173.927, 4.71087, 65.807, 0.0259358, -100.035
0, 2520.00000, 118.788, -31.076, 119.292, -150.853, 119.979, 88.881, 0, 0, 4.659, -54.1499, 4.68094, -173.927, 4.71087, 65.807, 0.0259358, -100.035
0, 2580.00000, 118.788, -31.076, 119.292, -150.853, 119.979, 88.881, 0, 0, 4.659, -54.1499, 4.68094, -173.927, 4.71087, 65.807, 0.0259358, -100.035
0, 2640.00000, 118.788, -31.076, 119.292, -150.853, 119.979, 88.881, 0, 0, 4.659, -54.1499, 4.68094, -173.927, 4.71087, 65.807, 0.0259358, -100.035
0, 2700.00000, 118.788, -31.076, 119.292, -150.853, 119.979, 88.881, 0, 0, 4.659, -54.1499, 4.68094, -173.927, 4.71087, 65.807, 0.0259358, -100.035
0, 2760.00000, 118.788, -31.076, 119.292, -150.853, 119.979, 88.881, 0, 0, 4.659, -54.1499, 4.68094, -173.927, 4.71087, 65.807, 0.0259358, -100.035
0, 2820.00000, 118.788, -31.076, 119.292, -150.853, 119.979, 88.881, 0, 0, 4.659, -54.1499, 4.68094, -173.927, 4.71087, 65.807, 0.0259358, -100.035
0, 2880.00000, 118.788, -31.076, 119.292, -150.853, 119.979, 88.881, 0, 0, 4.659, -54.1499, 4.68094, -173.927, 4.71087, 65.807, 0.0259358, -100.035
0, 2940.00000, 118.788, -31.076, 119.292, -150.853, 119.979, 88.881, 0, 0, 4.659, -54.1499, 4.68094, -173.927, 4.71087, 65.807, 0.0259358, -100.035
0, 3000.00000, 118.788, -31.076, 119.292, -150.853, 119.979, 88.881, 0, 0, 4.659, -54.1499, 4.68094, -173.927, 4.71087, 65.807, 0.0259358, -100.035
0, 3060.00000, 118.788, -31.076, 119.292, -150.853, 119.979, 88.881, 0, 0, 4.659, -54.1499, 4.68094, -173.927, 4.71087, 65.807, 0.0259358, -100.035
0, 3120.00000, 118.788, -31.076, 119.292, -150.853, 119.979, 88.881, 0, 0, 4.659, -54.1499, 4.68094, -173.927, 4.71087, 65.807, 0.0259358, -100.035
0, 3180.00000, 118.788, -31.076, 119.292, -150.853, 119.979, 88.881, 0, 0, 4.659, -54.1499, 4.68094, -173.927, 4.71087, 65.807, 0.0259358, -100.035
0, 3240.00000, 118.788, -31.076, 119.292, -150.853, 119.979, 88.881, 0, 0, 4.659, -54.1499, 4.68094, -173.927, 4.71087, 65.807, 0.0259358, -100.035
0, 3300.00000, 118.788, -31.076, 119.292, -150.853, 119.979, 88.881, 0, 0, 4.659, -54.1499, 4.68094, -173.927, 4.71087, 65.807, 0.0259358, -100.035
0, 3360.00000, 118.788, -31.076, 119.292, -150.853, 119.979, 88.881, 0, 0, 4.659, -54.1499, 4.68094, -173.927, 4.71087, 65.807, 0.0259358, -100.035
0, 3420.00000, 118.788, -31.076, 119.292, -150.853, 119.979, 88.881, 0, 0, 4.659, -54.1499, 4.68094, -173.927, 4.71087, 65.807, 0.0259358, -100.035
0, 3480.00000, 118.788, -31.076, 119.292, -150.853, 119.979, 88.881, 0, 0, 4.659, -54.1499, 4.68094, -173.927, 4.71087, 65.807, 0.0259358, -100.035
0, 3540.00000, 118.788, -31.076, 119.292, -150.853, 119.979, 88.881, 0, 0, 4.659, -54.1499, 4.68094, -173.927, 4.71087, 65.807, 0.0259358, -100.035
1, 0.00000, 118.788, -31.076, 119.292, -150.853, 119.979, 88.881, 0, 0, 4.659, -54.1499, 4.68094, -173.927, 4.71087, 65.807, 0.0259358, -100.035
1, 60.00000, 118.788, -31.076, 119.292, -150.853, 119.979, 88.881, 0, 0, 4.659, -54.1499, 4.68094, -173.927, 4.71087, 65.807, 0.0259358, -100.035
1, 120.00000, 118.788, -31.076, 119.292, -150.853, 119.979, 88.881, 0, 0, 4.659, -54.1499, 4.68094, -173.927, 4.71087, 65.807, 0.0259358, -100.035
1, 180.00000, 118.788, -31.076, 119.292, -150.853, 119.979, 88.881, 0, 0, 4.659, -54.1499, 4.68094, -173.927, 4.71087, 65.807, 0.0259358, -100.035
1, 240.00000, 118.788, -31.076, 119.292, -150.853, 119.979, 88.881, 0, 0, 4.659, -54.1499, 4.68094, -173.927, 4.71087, 65.807, 0.0259358, -100.035
1, 300.00000, 118.788, -31.076, 119.292, -150.853, 119.979, 88.881, 0, 0, 4.659, -54.1499, 4.68094, -173.927, 4.71087, 65.807, 0.0259358, -100.035
1, 360.00000, 118.788, -31.076, 119.292, -150.853, 119.979, 88.881, 0, 0, 4.659, -54.1499, 4.68094, -173.927, 4.71087, 65.807, 0.0259358, -100.035
1, 420.00000, 118.788, -31.076, 119.292, -150.853, 119.979, 88.881, 0, 0, 4.659, -54.1499, 4.68094, -173.927, 4.71087, 65.807, 0.0259358, -100.035
1, 480.00000, 118.788, -31.076, 119.292, -150.853, 119.979, 88.881, 0, 0, 4.659, -54.1499, 4.68094, -173.927, 4.71087, 65.807, 0.0259358, -100.035
1, 540.00000, 118.788, -31.076, 119.292, -150.853, 119.979, 88.881, 0, 0, 4.659, -54.1499, 4.68094, -173.927, 4.71087, 65.807, 0.0259358, -100.035
1, 600.00000, 118.788, -31.076, 119.292, -150.853, 119.979, 88.881, 0, 0, 4.659, -54.1499, 4.68094, -173.927, 4.71087, 65.807, 0.0259358, -100.035
1, 660.00000, 118.788, -31.076, 119.292, -150.853, 119.979, 88.881, 0, 0, 4.659, -54.1499, 4.68094, -173.927, 4.71087, 65.807, 0.0259358, -100.035
1, 720.00000, 118.788, -31.076, 119.292, -150.853, 119.979, 88.881, 0, 0, 4.659, -54.1499, 4.68094, -173.927, 4.71087, 65.807, 0.0259358, -100.035
1, 780.00000, 118.788, -31.076, 119.292, -150.853, 119.979, 88.881, 0, 0, 4.659, -54.1499, 4.68094, -173.927, 4.71087, 65.807, 0.0259358, -100.035
1, 840.00000, 118.788, -31.076, 119.292, -150.853, 119.979, 88.881, 0, 0, 4.659, -54.1499, 4.68094, -173.927, 4.71087, 65.807, 0.0259358, -100.035
1, 900.00000, 118.788, -31.076, 119.292, -150.853, 119.979, 88.881, 0, 0, 4.659, -54.1499, 4.68094, -173.927, 4.71087, 65.807, 0.0259358, -100.035
1, 960.00000, 118.788, -31.076, 119.292, -150.853, 119.979, 88.881, 0, 0, 4.659, -54.1499, 4.68094, -173.927, 4.71087, 65.807, 0.0259358, -100.035
1, 1020.00000, 118.788, -31.076, 119.292, -150.853, 119.979, 88.881, 0, 0, 4.659, -54.1499, 4.68094, -173.927, 4.71087, 65.807, 0.0259358, -100.035
1, 1080.00000, 118.788, -31.076, 119.292, -150.853, 119.979, 88.881, 0, 0, 4.659, -54.1499, 4.68094, -173.927, 4.71087, 65.807, 0.0259358, -100.035
1, 1140.00000, 118.788, -31.076, 119.292, -150.853, 119.979, 88.881, 0, 0, 4.659, -54.1499, 4.68094, -173.927, 4.71087, 65.807, 0.0259358, -100.035
1, 1200.00000, 118.788, -31.076, 119.292, -150.853, 119.979, 88.881, 0, 0, 4.659, -54.1499, 4.68094, -173.927, 4.71087, 65.807, 0.0259358, -100.035
1, 1260.00000, 118.788, -31.076, 119.292, -150.853, 119.979, 88.881, 0, 0, 4.659, -54.1499, 4.68094, -173.927, 4.71087, 65.807, 0.0259358, -100.035
1, 1320.00000, 118.788, -31.076, 119.292, -150.853, 119.979, 88.881, 0, 0, 4.659, -54.1499, 4.68094, -173.927, 4.71087, 65.807, 0.0259358, -100.035
1, 1380.00000, 118.788, -31.076, 119.292, -150.853, 119.979, 88.881, 0, 0, 4.659, -54.1499, 4.68094, -173.927, 4.71087, 65.807, 0.0259358, -100.035
1, 1440.00000, 118.788, -31.076, 119.292, -150.853, 119.979, 88.881, 0, 0, 4.659, -54.1499, 4.68094, -173.927, 4.71087, 65.807, 0.0259358, -100.035
1, 1500.00000, 118.788, -31.076, 119.292, -150.853, 119.979, 88.881, 0, 0, 4.659, -54.1499, 4.68094, -173.927, 4.71087, 65.807, 0.0259358, -100.035
1, 1560.00000, 118.788, -31.076, 119.292, -150.853, 119.979, 88.881, 0, 0, 4.659, -54.1499, 4.68094, -173.927, 4.71087, 65.807, 0.0259358, -100.035
1, 1620.00000, 118.788, -31.076, 119.292, -150.853, 119.979, 88.881, 0, 0, 4.659, -54.1499, 4.68094, -173.927, 4.71087, 65.807, 0.0259358, -100.035
1, 1680.00000, 118.788, -31.076, 119.292, -150.853, 119.979, 88.881, 0, 0, 4.659, -54.1499, 4.68094, -173.927, 4.71087, 65.807, 0.0259358, -100.035
1, 1740.00000, 118.788, -31.076, 119.292, -150.853, 119.979, 88.881, 0, 0, 4.659, -54.1499, 4.68094, -173.927, 4.71087, 65.807, 0.0259358, -100.035
1, 1800.00000, 118.788, -31.076, 119.292, -150.853, 119.979, 88.881, 0, 0, 4.659, -54.1499, 4.68094, -173.927, 4.71087, 65.807, 0.0259358, -100.035
1, 1860.00000, 118.788, -31.076, 119.292, -150.853, 119.979, 88.881, 0, 0, 4.659, -54.1499, 4.68094, -173.927, 4.71087, 65.807, 0.0259358, -100.035
1, 1920.00000, 118.788, -31.076, 119.292, -150.853, 119.979, 88.881, 0, 0, 4.659, -54.1499, 4.68094, -173.927, 4.71087, 65.807, 0.0259358, -100.035
1, 1980.00000, 118.788, -31.076, 119.292, -150.853, 119.979, 88.881, 0, 0, 4.659, -54.1499, 4.68094, -173.927, 4.71087, 65.807, 0.0259358, -100.035
1, 2040.00000, 118.788, -31.076, 119.292, -150.853, 119.979, 88.881, 0, 0, 4.659, -54.1499, 4.68094, -173.927, 4.71087, 65.807, 0.0259358, -100.035
1, 2100.00000, 118.788, -31.076, 119.292, -150.853, 119.979, 88.881, 0, 0, 4.659, -54.1499, 4.68094, -173.927, 4.71087, 65.807, 0.0259358, -100.035
1, 2160.00000, 118.788, -31.076, 119.292, -150.853, 119.979, 88.881, 0, 0, 4.659, -54.1499, 4.68094, -173.927, 4.71087, 65.807, 0.0259358, -100.035
1, 2220.00000, 118.788, -31.076, 119.292, -150.853, 119.979, 88.881, 0, 0, 4.659, -54.1499, 4.68094, -173.927, 4.71087, 65.807, 0.0259358, -100.035
1, 2280.00000, 118.788, -31.076, 119.292, -150.853, 119.979, 88.881, 0, 0, 4.659, -54.1499, 4.68094, -173.927, 4.71087, 65.807, 0.0259358, -100.035
1, 2340.00000, 118.788, -31.076, 119.292, -150.853, 119.979, 88.881, 0, 0, 4.659, -54.1499, 4.68094, -173.927, 4.71087, 65.807, 0.0259358, -100.035
1, 2400.00000, 118.788, -31.076, 119.292, -150.853, 119.979, 88.881, 0, 0, 4.659, -54.1499, 4.68094, -173.927, 4.71087, 65.807, 0.0259358, -100.035
1, 2460.00000, 118.788, -31.076, 119.292, -150.853, 119.979, 88.881, 0, 0, 4.659, -54.1499, 4.68094, -173.927, 4.71087, 65.807, 0.0259358, -100.035
1, 2520.00000, 118.788, -31.076, 119.292, -150.853, 119.979, 88.881, 0, 0, 4.659, -54.1499, 4.68094, -173.927, 4.71087, 65.807, 0.0259358, -100.035
1, 2580.00000, 118.788, -31.076, 119.292, -150.853, 119.979, 88.881, 0, 0, 4.659, -54.1499, 4.68094, -173.927, 4.71087, 65.807, 0.0259358, -100.035
1, 2640.00000, 118.788, -31.076, 119.292, -150.853, 119.979, 88.881, 0, 0, 4.659, -54.1499, 4.68094, -173.927, 4.71087, 65.807, 0.0259358, -100.035
1, 2700.00000, 118.788, -31.076, 119.292, -150.853, 119.979, 88.881, 0, 0, 4.659, -54.1499, 4.68094, -173.927, 4.71087, 65.807, 0.0259358, -100.035
1, 2760.00000, 118.788, -31.076, 119.292, -150.853, 119.979, 88.881, 0, 0, 4.659, -54.1499, 4.68094, -173.927, 4.71087, 65.807, 0.0259358, -100.035
1, 2820.00000, 118.788, -31.076, 119.292, -150.853, 119.979, 88.881, 0, 0, 4.659, -54.1499, 4.68094, -173.927, 4.71087, 65.807, 0.0259358, -100.035
1, 2880.00000, 118.788, -31.076, 119.292, -150.853, 119.979, 88.881, 0, 0, 4.659, -54.1499, 4.68094, -173.927, 4.71087, 65.807, 0.0259358, -100.035
1, 2940.00000, 118.788, -31.076, 119.292, -150.853, 119.979, 88.881, 0, 0, 4.659, -54.1499, 4.68094, -173.927, 4.71087, 65.807, 0.0259358, -100.035
1, 3000.00000, 118.788, -31.076, 119.292, -150.853, 119.979, 88.881, 0, 0, 4.659, -54.1499, 4.68094, -173.927, 4.71087, 65.807, 0.0259358, -100.035
1, 3060.00000, 118.788, -31.076, 119.292, -150.853, 119.979, 88.881, 0, 0, 4.659, -54.1499, 4.68094, -173.927, 4.71087, 65.807, 0.0259358, -100.035
1, 3120.00000, 118.788, -31.076, 119.292, -150.853, 119.979, 88.881, 0, 0, 4.659, -54.1499, 4.68094, -173.927, 4.71087, 65.807, 0.0259358, -100.035
1, 3180.00000, 118.788, -31.076, 119.292, -150.853, 119.979, 88.881, 0, 0, 4.659, -54.1499, 4.68094, -173.927, 4.71087, 65.807, 0.0259358, -100.035
1, 3240.00000, 118.788, -31.076, 119.292, -150.853, 119.979, 88.881, 0, 0, 4.659, -54.1499, 4.68094, -173.927, 4.71087, 65.807, 0.0259358, -100.035
1, 3300.00000, 118.788, -31.076, 119.292, -150.853, 119.979, 88.881, 0, 0, 4.659, -54.1499, 4.68094, -173.927, 4.71087, 65.807, 0.0259358, -100.035
1, 3360.00000, 118.788, -31.076, 119.292, -150.853, 119.979, 88.881, 0, 0, 4.659, -54.1499, 4.68094, -173.927, 4.71087, 65.807, 0.0259358, -100.035
1, 3420.00000, 118.788, -31.076, 119.292, -150.853, 119.979, 88.881, 0, 0, 4.659, -54.1499, 4.68094, -173.927, 4.71087, 65.807, 0.0259358, -100.035
1, 3480.00000, 118.788, -31.076, 119.292, -150.853, 119.979, 88.881, 0, 0, 4.659, -54.1499, 4.68094, -173.927, 4.71087, 65.807, 0.0259358, -100.035
1, 3540.00000, 118.788, -31.076, 119.292, -150.853, 119.979, 88.881, 0, 0, 4.659, -54.1499, 4.68094, -173.927, 4.71087, 65.807, 0.0259358, -100.035
2, 0.00000, 118.788, -31.076, 119.292, -150.853, 119.979, 88.881, 0, 0, 4.659, -54.1499, 4.68094, -173.927, 4.71087, 65.807, 0.0259358, -100.035
2, 60.00000, 118.788, -31.076, 119.292, -150.853, 119.979, 88.881, 0, 0, 4.659, -54.1499, 4.68094, -173.927, 4.71087, 65.807, 0.0259358, -100.035
2, 120.00000, 118.788, -31.076, 119.292, -150.853, 119.979, 88.881, 0, 0, 4.659, -54.1499, 4.68094, -173.927, 4.71087, 65.807, 0.0259358, -100.035
2, 180.00000, 118.788, -31.076, 119.292, -150.853, 119.979, 88.881, 0, 0, 4.659, -54.1499, 4.68094, -173.927, 4.71087, 65.807, 0.0259358, -100.035
2, 240.00000, 118.788, -31.076, 119.292, -150.853, 119.979, 88.881, 0, 0, 4.659, -54.1499, 4.68094, -173.927, 4.71087, 65.807, 0.0259358, -100.035
2, 300.00000, 118.788, -31.076, 119.292, -150.853, 119.979, 88.881, 0, 0, 4.659, -54.1499, 4.68094, -173.927, 4.71087, 65.807, 0.0259358, -100.035
2, 360.00000, 118.788, -31.076, 119.292, -150.853, 119.979, 88.881, 0, 0, 4.659, -54.1499, 4.68094, -173.927, 4.71087, 65.807, 0.0259358, -100.035
2, 420.00000, 118.788, -31.076, 119.292, -150.853, 119.979, 88.881, 0, 0, 4.659, -54.1499, 4.68094, -173.927, 4.71087, 65.807, 0.0259358, -100.035
2, 480.00000, 118.788, -31.076, 119.292, -150.853, 119.979, 88.881, 0, 0, 4.659, -54.1499, 4.68094, -173.927, 4.71087, 65.807, 0.0259358, -100.035
2, 540.00000, 118.788, -31.076, 119.292, -150.853, 119.979, 88.881, 0, 0, 4.659, -54.1499, 4.68094, -173.927, 4.71087, 65.807, 0.0259358, -100.035
2, 600.00000, 118.788, -31.076, 119.292, -150.853, 119.979, 88.881, 0, 0, 4.659, -54.1499, 4.68094, -173.927, 4.71087, 65.807, 0.0259358, -100.035
2, 660.00000, 118.788, -31.076, 119.292, -150.853, 119.979, 88.881, 0, 0, 4.659, -54.1499, 4.68094, -173.927, 4.71087, 65.807, 0.0259358, -100.035
2, 720.00000, 118.788, -31.076, 119.292, -150.853, 119.979, 88.881, 0, 0, 4.659, -54.1499, 4.68094, -173.927, 4.71087, 65.807, 0.0259358, -100.035
2, 780.00000, 118.788, -31.076, 119.292, -150.853, 119.979, 88.881, 0, 0, 4.659, -54.1499, 4.68094, -173.927, 4.71087, 65.807, 0.0259358, -100.035
2, 840.00000, 118.788, -31.076, 119.292, -150.853, 119.979, 88.881, 0, 0, 4.659, -54.1499, 4.68094, -173.927, 4.71087, 65.807, 0.0259358, -100.035
