hour,t(sec),V1,VAngle1,V2,VAngle2,V3,VAngle3,V4,VAngle4,I1,IAngle1,I2,IAngle2,I3,IAngle3,I4,IAngle4
0, 60.00000, 118.823, -31.7373, 118.633, -151.328, 119.931, 88.6116, 0, 0, 3.41971, -54.8109, 3.41365, -174.402, 3.45512, 65.5379, 0.0176655, -103.316
0, 120.00000, 118.823, -31.7373, 118.633, -151.328, 119.931, 88.6116, 0, 0, 3.41969, -54.8112, 3.41362, -174.402, 3.4551, 65.5377, 0.0176628, -103.326
0, 180.00000, 118.823, -31.7373, 118.633, -151.328, 119.931, 88.6116, 0, 0, 3.41969, -54.8112, 3.41362, -174.402, 3.4551, 65.5377, 0.0176628, -103.326
0, 240.00000, 118.823, -31.7373, 118.633, -151.328, 119.931, 88.6116, 0, 0, 3.41969, -54.8112, 3.41362, -174.402, 3.4551, 65.5377, 0.0176628, -103.326
0, 300.00000, 118.823, -31.7373, 118.633, -151.328, 119.931, 88.6116, 0, 0, 3.41969, -54.8112, 3.41362, -174.402, 3.4551, 65.5377, 0.0176628, -103.326
0, 360.00000, 118.823, -31.7373, 118.633, -151.328, 119.931, 88.6116, 0, 0, 3.41969, -54.8112, 3.41362, -174.402, 3.4551, 65.5377, 0.0176628, -103.326
0, 420.00000, 118.823, -31.7373, 118.633, -151.328, 119.931, 88.6116, 0, 0, 3.41969, -54.8112, 3.41362, -174.402, 3.4551, 65.5377, 0.0176628, -103.326
0, 480.00000, 119.628, -31.626, 119.392, -151.222, 120.685, 88.7334, 0, 0, 3.11311, -54.7003, 3.1063, -174.296, 3.14264, 65.6593, 0.0141992, -103.355
0, 540.00000, 119.628, -31.626, 119.392, -151.222, 120.685, 88.7334, 0, 0, 3.11314, -54.6999, 3.10633, -174.296, 3.14261, 65.6595, 0.0141549, -103.326
0, 600.00000, 119.628, -31.626, 119.392, -151.222, 120.685, 88.7334, 0, 0, 3.11314, -54.6999, 3.10633, -174.296, 3.14261, 65.6595, 0.0141548, -103.325
0, 660.00000, 119.628, -31.626, 119.392, -151.222, 120.685, 88.7334, 0, 0, 3.11314, -54.6999, 3.10633, -174.296, 3.14261, 65.6595, 0.0141548, -103.325
0, 720.00000, 119.628, -31.626, 119.392, -151.222, 120.685, 88.7334, 0, 0, 3.11314, -54.6999, 3.10633, -174.296, 3.14261, 65.6595, 0.0141548, -103.325
0, 780.00000, 119.628, -31.626, 119.392, -151.222, 120.685, 88.7334, 0, 0, 3.11314, -54.6999, 3.10633, -174.296, 3.14261, 65.6595, 0.0141548, -103.325
0, 840.00000, 119.628, -31.626, 119.392, -151.222, 120.685, 88.7334, 0, 0, 3.11314, -54.6999, 3.10633, -174.296, 3.14261, 65.6595, 0.0141548, -103.325
0, 900.00000, 119.628, -31.626, 119.392, -151.222, 120.685, 88.7334, 0, 0, 3.11314, -54.6999, 3.10633, -174.296, 3.14261, 65.6595, 0.0141548, -103.325
0, 960.00000, 119.267, -31.6514, 118.653, -151.512, 119.676, 88.7672, 0, 0, 3.10273, -54.7249, 3.08498, -174.586, 3.11456, 65.6936, 0.014575, -100.367
0, 1020.00000, 119.267, -31.6515, 118.653, -151.512, 119.676, 88.7672, 0, 0, 3.10269, -54.7254, 3.08497, -174.586, 3.11451, 65.6933, 0.0145502, -100.251
0, 1080.00000, 119.267, -31.6515, 118.653, -151.512, 119.676, 88.7672, 0, 0, 3.10269, -54.7254, 3.08497, -174.586, 3.11451, 65.6933, 0.0145501, -100.25
0, 1140.00000, 119.569, -31.6163, 118.653, -151.511, 119.778, 88.9022, 0, 0, 3.1114, -54.6906, 3.08497, -174.585, 3.11744, 65.8282, 0.0144331, -104.731
0, 1200.00000, 119.569, -31.6163, 118.653, -151.511, 119.778, 88.9022, 0, 0, 3.11143, -54.6902, 3.08498, -174.585, 3.11746, 65.8283, 0.0144446, -104.843
0, 1260.00000, 119.569, -31.6163, 118.653, -151.511, 119.778, 88.9022, 0, 0, 3.11143, -54.6902, 3.08498, -174.585, 3.11746, 65.8283, 0.0144446, -104.843
0, 1320.00000, 119.569, -31.6163, 118.653, -151.511, 119.778, 88.9022, 0, 0, 3.11143, -54.6902, 3.08498, -174.585, 3.11746, 65.8283, 0.0144446, -104.843
0, 1380.00000, 119.569, -31.6163, 118.653, -151.511, 119.778, 88.9022, 0, 0, 3.11143, -54.6902, 3.08498, -174.585, 3.11746, 65.8283, 0.0144446, -104.843
0, 1440.00000, 119.569, -31.6163, 118.653, -151.511, 119.778, 88.9022, 0, 0, 3.11143, -54.6902, 3.08498, -174.585, 3.11746, 65.8283, 0.0144446, -104.843
0, 1500.00000, 119.569, -31.6163, 118.653, -151.511, 119.778, 88.9022, 0, 0, 3.11143, -54.6902, 3.08498, -174.585, 3.11746, 65.8283, 0.0144446, -104.843
0, 1560.00000, 119.569, -31.6163, 118.653, -151.511, 119.778, 88.9022, 0, 0, 3.11143, -54.6902, 3.08498, -174.585, 3.11746, 65.8283, 0.0144446, -104.843
0, 1620.00000, 119.569, -31.6163, 118.653, -151.511, 119.778, 88.9022, 0, 0, 3.11143, -54.6902, 3.08498, -174.585, 3.11746, 65.8283, 0.0144446, -104.843
0, 1680.00000, 119.569, -31.6163, 118.653, -151.511, 119.778, 88.9022, 0, 0, 3.11143, -54.6902, 3.08498, -174.585, 3.11746, 65.8283, 0.0144446, -104.843
0, 1740.00000, 119.569, -31.6163, 118.653, -151.511, 119.778, 88.9022, 0, 0, 3.11143, -54.6902, 3.08498, -174.585, 3.11746, 65.8283, 0.0144446, -104.843
0, 1800.00000, 118.728, -31.9246, 117.681, -151.31, 119.834, 88.8879, 0, 0, 3.08716, -54.9984, 3.05695, -174.384, 3.11907, 65.8139, 0.0184733, -110.286
0, 1860.00000, 118.728, -31.9246, 117.681, -151.31, 119.834, 88.8879, 0, 0, 3.08715, -54.9985, 3.05693, -174.384, 3.11907, 65.814, 0.0184874, -110.28
0, 1920.00000, 118.728, -31.9246, 117.681, -151.31, 119.834, 88.8879, 0, 0, 3.08715, -54.9985, 3.05693, -174.384, 3.11907, 65.814, 0.0184874, -110.28
0, 1980.00000, 118.728, -31.9246, 117.681, -151.31, 119.834, 88.8879, 0, 0, 3.08715, -54.9985, 3.05693, -174.384, 3.11907, 65.814, 0.0184874, -110.28
0, 2040.00000, 118.728, -31.9246, 117.681, -151.31, 119.834, 88.8879, 0, 0, 3.08715, -54.9985, 3.05693, -174.384, 3.11907, 65.814, 0.0184874, -110.28
0, 2100.00000, 118.728, -31.9246, 117.681, -151.31, 119.834, 88.8879, 0, 0, 3.08715, -54.9985, 3.05693, -174.384, 3.11907, 65.814, 0.0184874, -110.28
0, 2160.00000, 118.728, -31.9246, 117.681, -151.31, 119.834, 88.8879, 0, 0, 3.08715, -54.9985, 3.05693, -174.384, 3.11907, 65.814, 0.0184874, -110.28
0, 2220.00000, 118.728, -31.9246, 117.681, -151.31, 119.834, 88.8879, 0, 0, 3.08715, -54.9985, 3.05693, -174.384, 3.11907, 65.814, 0.0184874, -110.28
0, 2280.00000, 118.728, -31.9246, 117.681, -151.31, 119.834, 88.8879, 0, 0, 3.08715, -54.9985, 3.05693, -174.384, 3.11907, 65.814, 0.0184874, -110.28
0, 2340.00000, 118.728, -31.9246, 117.681, -151.31, 119.834, 88.8879, 0, 0, 3.08715, -54.9985, 3.05693, -174.384, 3.11907, 65.814, 0.0184874, -110.28
0, 2400.00000, 118.728, -31.9246, 117.681, -151.31, 119.834, 88.8879, 0, 0, 3.08715, -54.9985, 3.05693, -174.384, 3.11907, 65.814, 0.0184874, -110.28
0, 2460.00000, 118.728, -31.9246, 117.681, -151.31, 119.834, 88.8879, 0, 0, 3.08715, -54.9985, 3.05693, -174.384, 3.11907, 65.814, 0.0184874, -110.28
0, 2520.00000, 118.728, -31.9246, 117.681, -151.31, 119.834, 88.8879, 0, 0, 3.08715, -54.9985, 3.05693, -174.384, 3.11907, 65.814, 0.0184874, -110.28
0, 2580.00000, 118.728, -31.9246, 117.681, -151.31, 119.834, 88.8879, 0, 0, 3.08715, -54.9985, 3.05693, -174.384, 3.11907, 65.814, 0.0184874, -110.28
0, 2640.00000, 118.728, -31.9246, 117.681, -151.31, 119.834, 88.8879, 0, 0, 3.08715, -54.9985, 3.05693, -174.384, 3.11907, 65.814, 0.0184874, -110.28
0, 2700.00000, 118.728, -31.9246, 117.681, -151.31, 119.834, 88.8879, 0, 0, 3.08715, -54.9985, 3.05693, -174.384, 3.11907, 65.814, 0.0184874, -110.28
0, 2760.00000, 118.847, -31.7834, 118, -151.286, 119.826, 88.891, 0, 0, 3.09058, -54.8575, 3.0661, -174.36, 3.11885, 65.817, 0.0174281, -107.911
0, 2820.00000, 118.847, -31.7834, 118, -151.286, 119.826, 88.8909, 0, 0, 3.09059, -54.8573, 3.06613, -174.36, 3.11884, 65.817, 0.0173936, -107.904
0, 2880.00000, 118.847, -31.7834, 118, -151.286, 119.826, 88.8909, 0, 0, 3.09059, -54.8573, 3.06613, -174.36, 3.11884, 65.817, 0.0173934, -107.904
0, 2940.00000, 118.847, -31.7834, 118, -151.286, 119.826, 88.8909, 0, 0, 3.09059, -54.8573, 3.06613, -174.36, 3.11884, 65.817, 0.0173934, -107.904
0, 3000.00000, 118.847, -31.7834, 118, -151.286, 119.826, 88.8909, 0, 0, 3.09059, -54.8573, 3.06613, -174.36, 3.11884, 65.817, 0.0173934, -107.904
0, 3060.00000, 118.847, -31.7834, 118, -151.286, 119.826, 88.8909, 0, 0, 3.09059, -54.8573, 3.06613, -174.36, 3.11884, 65.817, 0.0173934, -107.904
0, 3120.00000, 118.847, -31.7834, 118, -151.286, 119.826, 88.8909, 0, 0, 3.09059, -54.8573, 3.06613, -174.36, 3.11884, 65.817, 0.0173934, -107.904
0, 3180.00000, 118.847, -31.7834, 118, -151.286, 119.826, 88.8909, 0, 0, 3.09059, -54.8573, 3.06613, -174.36, 3.11884, 65.817, 0.0173934, -107.904
0, 3240.00000, 118.847, -31.7834, 118, -151.286, 119.826, 88.8909, 0, 0, 3.09059, -54.8573, 3.06613, -174.36, 3.11884, 65.817, 0.0173934, -107.904
0, 3300.00000, 118.847, -31.7834, 118, -151.286, 119.826, 88.8909, 0, 0, 3.09059, -54.8573, 3.06613, -174.36, 3.11884, 65.817, 0.0173934, -107.904
0, 3360.00000, 118.847, -31.7834, 118, -151.286, 119.826, 88.8909, 0, 0, 3.09059, -54.8573, 3.06613, -174.36, 3.11884, 65.817, 0.0173934, -107.904
0, 3420.00000, 118.847, -31.7834, 118, -151.286, 119.826, 88.8909, 0, 0, 3.09059, -54.8573, 3.06613, -174.36, 3.11884, 65.817, 0.0173934, -107.904
0, 3480.00000, 118.847, -31.7834, 118, -151.286, 119.826, 88.8909, 0, 0, 3.09059, -54.8573, 3.06613, -174.36, 3.11884, 65.817, 0.0173934, -107.904
0, 3540.00000, 118.847, -31.7834, 118, -151.286, 119.826, 88.8909, 0, 0, 3.09059, -54.8573, 3.06613, -174.36, 3.11884, 65.817, 0.0173934, -107.904
1, 0.00000, 118.847, -31.7834, 118, -151.286, 119.826, 88.8909, 0, 0, 3.09059, -54.8573, 3.06613, -174.36, 3.11884, 65.817, 0.0173934, -107.904
1, 60.00000, 118.941, -31.6521, 118.289, -151.255, 119.823, 88.8929, 0, 0, 3.09328, -54.7261, 3.07445, -174.33, 3.11875, 65.819, 0.0165692, -105.508
1, 120.00000, 118.941, -31.6521, 118.289, -151.255, 119.823, 88.8929, 0, 0, 3.09329, -54.726, 3.07447, -174.329, 3.11875, 65.819, 0.0165422, -105.484
1, 180.00000, 118.941, -31.6521, 118.289, -151.255, 119.823, 88.8929, 0, 0, 3.09329, -54.726, 3.07447, -174.329, 3.11875, 65.819, 0.0165421, -105.484
1, 240.00000, 118.941, -31.6521, 118.289, -151.255, 119.823, 88.8929, 0, 0, 3.09329, -54.726, 3.07447, -174.329, 3.11875, 65.819, 0.0165421, -105.484
1, 300.00000, 118.941, -31.6521, 118.289, -151.255, 119.823, 88.8929, 0, 0, 3.09329, -54.726, 3.07447, -174.329, 3.11875, 65.819, 0.0165421, -105.484
1, 360.00000, 118.941, -31.6521, 118.289, -151.255, 119.823, 88.8929, 0, 0, 3.09329, -54.726, 3.07447, -174.329, 3.11875, 65.819, 0.0165421, -105.484
1, 420.00000, 118.941, -31.6521, 118.289, -151.255, 119.823, 88.8929, 0, 0, 3.09329, -54.726, 3.07447, -174.329, 3.11875, 65.819, 0.0165421, -105.484
1, 480.00000, 118.941, -31.6521, 118.289, -151.255, 119.823, 88.8929, 0, 0, 3.09329, -54.726, 3.07447, -174.329, 3.11875, 65.819, 0.0165421, -105.484
1, 540.00000, 118.941, -31.6521, 118.289, -151.255, 119.823, 88.8929, 0, 0, 3.09329, -54.726, 3.07447, -174.329, 3.11875, 65.819, 0.0165421, -105.484
1, 600.00000, 118.941, -31.6521, 118.289, -151.255, 119.823, 88.8929, 0, 0, 3.09329, -54.726, 3.07447, -174.329, 3.11875, 65.819, 0.0165421, -105.484
1, 660.00000, 118.941, -31.6521, 118.289, -151.255, 119.823, 88.8929, 0, 0, 3.09329, -54.726, 3.07447, -174.329, 3.11875, 65.819, 0.0165421, -105.484
1, 720.00000, 118.941, -31.6521, 118.289, -151.255, 119.823, 88.8929, 0, 0, 3.09329, -54.726, 3.07447, -174.329, 3.11875, 65.819, 0.0165421, -105.484
1, 780.00000, 118.974, -31.6585, 118.634, -151.053, 120.368, 88.8557, 0, 0, 3.09426, -54.7324, 3.08443, -174.127, 3.13446, 65.7817, 0.0171699, -104.056
1, 840.00000, 118.974, -31.6585, 118.634, -151.053, 120.368, 88.8558, 0, 0, 3.09425, -54.7324, 3.08444, -174.127, 3.13449, 65.7818, 0.0171917, -104.009
1, 900.00000, 118.974, -31.6585, 118.634, -151.053, 120.368, 88.8558, 0, 0, 3.09425, -54.7324, 3.08444, -174.127, 3.13449, 65.7818, 0.0171918, -104.009
1, 960.00000, 118.974, -31.6585, 118.634, -151.053, 120.368, 88.8558, 0, 0, 3.09425, -54.7324, 3.08444, -174.127, 3.13449, 65.7818, 0.0171918, -104.009
1, 1020.00000, 118.974, -31.6585, 118.634, -151.053, 120.368, 88.8558, 0, 0, 3.09425, -54.7324, 3.08444, -174.127, 3.13449, 65.7818, 0.0171918, -104.009
1, 1080.00000, 118.974, -31.6585, 118.634, -151.053, 120.368, 88.8558, 0, 0, 3.09425, -54.7324, 3.08444, -174.127, 3.13449, 65.7818, 0.0171918, -104.009
1, 1140.00000, 118.974, -31.6585, 118.634, -151.053, 120.368, 88.8558, 0, 0, 3.09425, -54.7324, 3.08444, -174.127, 3.13449, 65.7818, 0.0171918, -104.009
1, 1200.00000, 118.974, -31.6585, 118.634, -151.053, 120.368, 88.8558, 0, 0, 3.09425, -54.7324, 3.08444, -174.127, 3.13449, 65.7818, 0.0171918, -104.009
1, 1260.00000, 118.974, -31.6585, 118.634, -151.053, 120.368, 88.8558, 0, 0, 3.09425, -54.7324, 3.08444, -174.127, 3.13449, 65.7818, 0.0171918, -104.009
1, 1320.00000, 118.974, -31.6585, 118.634, -151.053, 120.368, 88.8558, 0, 0, 3.09425, -54.7324, 3.08444, -174.127, 3.13449, 65.7818, 0.0171918, -104.009
1, 1380.00000, 118.974, -31.6585, 118.634, -151.053, 120.368, 88.8558, 0, 0, 3.09425, -54.7324, 3.08444, -174.127, 3.13449, 65.7818, 0.0171918, -104.009
1, 1440.00000, 118.974, -31.6585, 118.634, -151.053, 120.368, 88.8558, 0, 0, 3.09425, -54.7324, 3.08444, -174.127, 3.13449, 65.7818, 0.0171918, -104.009
1, 1500.00000, 118.974, -31.6585, 118.634, -151.053, 120.368, 88.8558, 0, 0, 3.09425, -54.7324, 3.08444, -174.127, 3.13449, 65.7818, 0.0171918, -104.009
1, 1560.00000, 118.974, -31.6585, 118.634, -151.053, 120.368, 88.8558, 0, 0, 3.09425, -54.7324, 3.08444, -174.127, 3.13449, 65.7818, 0.0171918, -104.009
1, 1620.00000, 118.974, -31.6585, 118.634, -151.053, 120.368, 88.8558, 0, 0, 3.09425, -54.7324, 3.08444, -174.127, 3.13449, 65.7818, 0.0171918, -104.009
1, 1680.00000, 118.974, -31.6585, 118.634, -151.053, 120.368, 88.8558, 0, 0, 3.09425, -54.7324, 3.08444, -174.127, 3.13449, 65.7818, 0.0171918, -104.009
1, 1740.00000, 118.974, -31.6585, 118.634, -151.053, 120.368, 88.8558, 0, 0, 3.09425, -54.7324, 3.08444, -174.127, 3.13449, 65.7818, 0.0171918, -104.009
1, 1800.00000, 118.974, -31.6585, 118.634, -151.053, 120.368, 88.8558, 0, 0, 3.09425, -54.7324, 3.08444, -174.127, 3.13449, 65.7818, 0.0171918, -104.009
1, 1860.00000, 118.974, -31.6585, 118.634, -151.053, 120.368, 88.8558, 0, 0, 3.09425, -54.7324, 3.08444, -174.127, 3.13449, 65.7818, 0.0171918, -104.009
1, 1920.00000, 118.974, -31.6585, 118.634, -151.053, 120.368, 88.8558, 0, 0, 3.09425, -54.7324, 3.08444, -174.127, 3.13449, 65.7818, 0.0171918, -104.009
1, 1980.00000, 118.974, -31.6585, 118.634, -151.053, 120.368, 88.8558, 0, 0, 3.09425, -54.7324, 3.08444, -174.127, 3.13449, 65.7818, 0.0171918, -104.009
1, 2040.00000, 118.974, -31.6585, 118.634, -151.053, 120.368, 88.8558, 0, 0, 3.09425, -54.7324, 3.08444, -174.127, 3.13449, 65.7818, 0.0171918, -104.009
1, 2100.00000, 118.974, -31.6585, 118.634, -151.053, 120.368, 88.8558, 0, 0, 3.09425, -54.7324, 3.08444, -174.127, 3.13449, 65.7818, 0.0171918, -104.009
1, 2160.00000, 118.974, -31.6585, 118.634, -151.053, 120.368, 88.8558, 0, 0, 3.09425, -54.7324, 3.08444, -174.127, 3.13449, 65.7818, 0.0171918, -104.009
1, 2220.00000, 119.818, -31.3488, 119.614, -151.252, 120.312, 88.8695, 0, 0, 3.1186, -54.4228, 3.1127, -174.326, 3.13289, 65.7956, 0.0133465, -96.081
1, 2280.00000, 119.818, -31.3488, 119.614, -151.252, 120.312, 88.8695, 0, 0, 3.11861, -54.4227, 3.11272, -174.326, 3.13289, 65.7956, 0.0133266, -96.0245
1, 2340.00000, 119.818, -31.3488, 119.614, -151.252, 120.312, 88.8695, 0, 0, 3.11861, -54.4227, 3.11272, -174.326, 3.13289, 65.7956, 0.0133265, -96.0242
1, 2400.00000, 119.818, -31.3488, 119.614, -151.252, 120.312, 88.8695, 0, 0, 3.11861, -54.4227, 3.11272, -174.326, 3.13289, 65.7956, 0.0133265, -96.0242
1, 2460.00000, 119.818, -31.3488, 119.614, -151.252, 120.312, 88.8695, 0, 0, 3.11861, -54.4227, 3.11272, -174.326, 3.13289, 65.7956, 0.0133265, -96.0242
1, 2520.00000, 119.818, -31.3488, 119.614, -151.252, 120.312, 88.8695, 0, 0, 3.11861, -54.4227, 3.11272, -174.326, 3.13289, 65.7956, 0.0133265, -96.0242
1, 2580.00000, 119.818, -31.3488, 119.614, -151.252, 120.312, 88.8695, 0, 0, 3.11861, -54.4227, 3.11272, -174.326, 3.13289, 65.7956, 0.0133265, -96.0242
1, 2640.00000, 119.818, -31.3488, 119.614, -151.252, 120.312, 88.8695, 0, 0, 3.11861, -54.4227, 3.11272, -174.326, 3.13289, 65.7956, 0.0133265, -96.0242
1, 2700.00000, 119.818, -31.3488, 119.614, -151.252, 120.312, 88.8695, 0, 0, 3.11861, -54.4227, 3.11272, -174.326, 3.13289, 65.7956, 0.0133265, -96.0242
1, 2760.00000, 119.818, -31.3488, 119.614, -151.252, 120.312, 88.8695, 0, 0, 3.11861, -54.4227, 3.11272, -174.326, 3.13289, 65.7956, 0.0133265, -96.0242
1, 2820.00000, 119.818, -31.3488, 119.614, -151.252, 120.312, 88.8695, 0, 0, 3.11861, -54.4227, 3.11272, -174.326, 3.13289, 65.7956, 0.0133265, -96.0242
1, 2880.00000, 119.818, -31.3488, 119.614, -151.252, 120.312, 88.8695, 0, 0, 3.11861, -54.4227, 3.11272, -174.326, 3.13289, 65.7956, 0.0133265, -96.0242
1, 2940.00000, 119.818, -31.3488, 119.614, -151.252, 120.312, 88.8695, 0, 0, 3.11861, -54.4227, 3.11272, -174.326, 3.13289, 65.7956, 0.0133265, -96.0242
1, 3000.00000, 119.818, -31.3488, 119.614, -151.252, 120.312, 88.8695, 0, 0, 3.11861, -54.4227, 3.11272, -174.326, 3.13289, 65.7956, 0.0133265, -96.0242
1, 3060.00000, 119.818, -31.3488, 119.614, -151.252, 120.312, 88.8695, 0, 0, 3.11861, -54.4227, 3.11272, -174.326, 3.13289, 65.7956, 0.0133265, -96.0242
1, 3120.00000, 119.818, -31.3488, 119.614, -151.252, 120.312, 88.8695, 0, 0, 3.11861, -54.4227, 3.11272, -174.326, 3.13289, 65.7956, 0.0133265, -96.0242
1, 3180.00000, 119.818, -31.3488, 119.614, -151.252, 120.312, 88.8695, 0, 0, 3.11861, -54.4227, 3.11272, -174.326, 3.13289, 65.7956, 0.0133265, -96.0242
1, 3240.00000, 119.818, -31.3488, 119.614, -151.252, 120.312, 88.8695, 0, 0, 3.11861, -54.4227, 3.11272, -174.326, 3.13289, 65.7956, 0.0133265, -96.0242
1, 3300.00000, 119.818, -31.3488, 119.614, -151.252, 120.312, 88.8695, 0, 0, 3.11861, -54.4227, 3.11272, -174.326, 3.13289, 65.7956, 0.0133265, -96.0242
1, 3360.00000, 119.818, -31.3488, 119.614, -151.252, 120.312, 88.8695, 0, 0, 3.11861, -54.4227, 3.11272, -174.326, 3.13289, 65.7956, 0.0133265, -96.0242
1, 3420.00000, 119.818, -31.3488, 119.614, -151.252, 120.312, 88.8695, 0, 0, 3.11861, -54.4227, 3.11272, -174.326, 3.13289, 65.7956, 0.0133265, -96.0242
1, 3480.00000, 119.818, -31.3488, 119.614, -151.252, 120.312, 88.8695, 0, 0, 3.11861, -54.4227, 3.11272, -174.326, 3.13289, 65.7956, 0.0133265, -96.0242
1, 3540.00000, 119.818, -31.3488, 119.614, -151.252, 120.312, 88.8695, 0, 0, 3.11861, -54.4227, 3.11272, -174.326, 3.13289, 65.7956, 0.0133265, -96.0242
2, 0.00000, 119.818, -31.3488, 119.614, -151.252, 120.312, 88.8695, 0, 0, 3.11861, -54.4227, 3.11272, -174.326, 3.13289, 65.7956, 0.0133265, -96.0242
2, 60.00000, 119.818, -31.3488, 119.614, -151.252, 120.312, 88.8695, 0, 0, 3.11861, -54.4227, 3.11272, -174.326, 3.13289, 65.7956, 0.0133265, -96.0242
2, 120.00000, 119.818, -31.3488, 119.614, -151.252, 120.312, 88.8695, 0, 0, 3.11861, -54.4227, 3.11272, -174.326, 3.13289, 65.7956, 0.0133265, -96.0242
2, 180.00000, 119.818, -31.3488, 119.614, -151.252, 120.312, 88.8695, 0, 0, 3.11861, -54.4227, 3.11272, -174.326, 3.13289, 65.7956, 0.0133265, -96.0242
2, 240.00000, 119.818, -31.3488, 119.614, -151.252, 120.312, 88.8695, 0, 0, 3.11861, -54.4227, 3.11272, -174.326, 3.13289, 65.7956, 0.0133265, -96.0242
2, 300.00000, 119.818, -31.3488, 119.614, -151.252, 120.312, 88.8695, 0, 0, 3.11861, -54.4227, 3.11272, -174.326, 3.13289, 65.7956, 0.0133265, -96.0242
2, 360.00000, 119.818, -31.3488, 119.614, -151.252, 120.312, 88.8695, 0, 0, 3.11861, -54.4227, 3.11272, -174.326, 3.13289, 65.7956, 0.0133265, -96.0242
2, 420.00000, 119.818, -31.3488, 119.614, -151.252, 120.312, 88.8695, 0, 0, 3.11861, -54.4227, 3.11272, -174.326, 3.13289, 65.7956, 0.0133265, -96.0242
2, 480.00000, 119.818, -31.3488, 119.614, -151.252, 120.312, 88.8695, 0, 0, 3.11861, -54.4227, 3.11272, -174.326, 3.13289, 65.7956, 0.0133265, -96.0242
2, 540.00000, 119.818, -31.3488, 119.614, -151.252, 120.312, 88.8695, 0, 0, 3.11861, -54.4227, 3.11272, -174.326, 3.13289, 65.7956, 0.0133265, -96.0242
2, 600.00000, 119.818, -31.3488, 119.614, -151.252, 120.312, 88.8695, 0, 0, 3.11861, -54.4227, 3.11272, -174.326, 3.13289, 65.7956, 0.0133265, -96.0242
2, 660.00000, 119.818, -31.3488, 119.614, -151.252, 120.312, 88.8695, 0, 0, 3.11861, -54.4227, 3.11272, -174.326, 3.13289, 65.7956, 0.0133265, -96.0242
