hour,t(sec),V1,VAngle1,V2,VAngle2,V3,VAngle3,V4,VAngle4,I1,IAngle1,I2,IAngle2,I3,IAngle3,I4,IAngle4
0, 60.00000, 118.515, -31.142, 118.827, -150.773, 119.955, 88.9188, 0, 0, 1.34668, -54.2156, 1.35061, -173.847, 1.36486, 65.8452, 0.00870356, -111.037
0, 120.00000, 118.515, -31.142, 118.827, -150.773, 119.955, 88.9188, 0, 0, 1.34667, -54.2159, 1.3506, -173.847, 1.36483, 65.8449, 0.00868773, -111.047
0, 180.00000, 118.515, -31.142, 118.827, -150.773, 119.955, 88.9188, 0, 0, 1.34667, -54.2159, 1.3506, -173.847, 1.36483, 65.8449, 0.00868763, -111.047
0, 240.00000, 118.515, -31.142, 118.827, -150.773, 119.955, 88.9188, 0, 0, 1.34667, -54.2159, 1.3506, -173.847, 1.36483, 65.8449, 0.00868763, -111.047
0, 300.00000, 118.515, -31.142, 118.827, -150.773, 119.955, 88.9188, 0, 0, 1.34667, -54.2159, 1.3506, -173.847, 1.36483, 65.8449, 0.00868763, -111.047
0, 360.00000, 118.515, -31.142, 118.827, -150.773, 119.955, 88.9188, 0, 0, 1.34667, -54.2159, 1.3506, -173.847, 1.36483, 65.8449, 0.00868763, -111.047
0, 420.00000, 118.515, -31.142, 118.827, -150.773, 119.955, 88.9188, 0, 0, 1.34667, -54.2159, 1.3506, -173.847, 1.36483, 65.8449, 0.00868763, -111.047
0, 480.00000, 119.394, -31.0383, 119.678, -150.672, 120.807, 89.0383, 0, 0, 1.51517, -54.1127, 1.51916, -173.746, 1.53137, 65.9638, 0.00583512, -108.081
0, 540.00000, 119.394, -31.0382, 119.678, -150.672, 120.808, 89.0383, 0, 0, 1.51519, -54.1121, 1.51919, -173.746, 1.53131, 65.9644, 0.0057673, -107.877
0, 600.00000, 119.394, -31.0382, 119.678, -150.672, 120.808, 89.0383, 0, 0, 1.51519, -54.1121, 1.51919, -173.746, 1.53131, 65.9644, 0.0057669, -107.875
0, 660.00000, 119.394, -31.0382, 119.678, -150.672, 120.808, 89.0383, 0, 0, 1.51519, -54.1121, 1.51919, -173.746, 1.53131, 65.9644, 0.00576689, -107.875
0, 720.00000, 119.394, -31.0382, 119.678, -150.672, 120.808, 89.0383, 0, 0, 1.51519, -54.1121, 1.51919, -173.746, 1.53131, 65.9644, 0.00576689, -107.875
0, 780.00000, 119.394, -31.0382, 119.678, -150.672, 120.808, 89.0383, 0, 0, 1.51519, -54.1121, 1.51919, -173.746, 1.53131, 65.9644, 0.00576689, -107.875
0, 840.00000, 119.394, -31.0382, 119.678, -150.672, 120.808, 89.0383, 0, 0, 1.51519, -54.1121, 1.51919, -173.746, 1.53131, 65.9644, 0.00576689, -107.875
0, 900.00000, 119.394, -31.0382, 119.678, -150.672, 120.808, 89.0383, 0, 0, 1.51519, -54.1121, 1.51919, -173.746, 1.53131, 65.9644, 0.00576689, -107.875
0, 960.00000, 119.394, -31.0382, 119.678, -150.672, 120.808, 89.0383, 0, 0, 1.51519, -54.1121, 1.51919, -173.746, 1.53131, 65.9644, 0.00576689, -107.875
0, 1020.00000, 119.394, -31.0382, 119.678, -150.672, 120.808, 89.0383, 0, 0, 1.51519, -54.1121, 1.51919, -173.746, 1.53131, 65.9644, 0.00576689, -107.875
0, 1080.00000, 119.394, -31.0382, 119.678, -150.672, 120.808, 89.0383, 0, 0, 1.51519, -54.1121, 1.51919, -173.746, 1.53131, 65.9644, 0.00576689, -107.875
0, 1140.00000, 119.394, -31.0382, 119.678, -150.672, 120.808, 89.0383, 0, 0, 1.51519, -54.1121, 1.51919, -173.746, 1.53131, 65.9644, 0.00576689, -107.875
0, 1200.00000, 119.394, -31.0382, 119.678, -150.672, 120.808, 89.0383, 0, 0, 1.51519, -54.1121, 1.51919, -173.746, 1.53131, 65.9644, 0.00576689, -107.875
0, 1260.00000, 119.394, -31.0382, 119.678, -150.672, 120.808, 89.0383, 0, 0, 1.51519, -54.1121, 1.51919, -173.746, 1.53131, 65.9644, 0.00576689, -107.875
0, 1320.00000, 119.394, -31.0382, 119.678, -150.672, 120.808, 89.0383, 0, 0, 1.51519, -54.1121, 1.51919, -173.746, 1.53131, 65.9644, 0.00576689, -107.875
0, 1380.00000, 119.394, -31.0382, 119.678, -150.672, 120.808, 89.0383, 0, 0, 1.51519, -54.1121, 1.51919, -173.746, 1.53131, 65.9644, 0.00576689, -107.875
0, 1440.00000, 119.394, -31.0382, 119.678, -150.672, 120.808, 89.0383, 0, 0, 1.51519, -54.1121, 1.51919, -173.746, 1.53131, 65.9644, 0.00576689, -107.875
0, 1500.00000, 119.394, -31.0382, 119.678, -150.672, 120.808, 89.0383, 0, 0, 1.51519, -54.1121, 1.51919, -173.746, 1.53131, 65.9644, 0.00576689, -107.875
0, 1560.00000, 119.394, -31.0382, 119.678, -150.672, 120.808, 89.0383, 0, 0, 1.51519, -54.1121, 1.51919, -173.746, 1.53131, 65.9644, 0.00576689, -107.875
0, 1620.00000, 119.394, -31.0382, 119.678, -150.672, 120.808, 89.0383, 0, 0, 1.51519, -54.1121, 1.51919, -173.746, 1.53131, 65.9644, 0.00576689, -107.875
0, 1680.00000, 119.394, -31.0382, 119.678, -150.672, 120.808, 89.0383, 0, 0, 1.51519, -54.1121, 1.51919, -173.746, 1.53131, 65.9644, 0.00576689, -107.875
0, 1740.00000, 119.394, -31.0382, 119.678, -150.672, 120.808, 89.0383, 0, 0, 1.51519, -54.1121, 1.51919, -173.746, 1.53131, 65.9644, 0.00576689, -107.875
0, 1800.00000, 119.394, -31.0382, 119.678, -150.672, 120.808, 89.0383, 0, 0, 1.51519, -54.1121, 1.51919, -173.746, 1.53131, 65.9644, 0.00576689, -107.875
0, 1860.00000, 119.394, -31.0382, 119.678, -150.672, 120.808, 89.0383, 0, 0, 1.51519, -54.1121, 1.51919, -173.746, 1.53131, 65.9644, 0.00576689, -107.875
0, 1920.00000, 119.394, -31.0382, 119.678, -150.672, 120.808, 89.0383, 0, 0, 1.51519, -54.1121, 1.51919, -173.746, 1.53131, 65.9644, 0.00576689, -107.875
0, 1980.00000, 119.394, -31.0382, 119.678, -150.672, 120.808, 89.0383, 0, 0, 1.51519, -54.1121, 1.51919, -173.746, 1.53131, 65.9644, 0.00576689, -107.875
0, 2040.00000, 119.394, -31.0382, 119.678, -150.672, 120.808, 89.0383, 0, 0, 1.51519, -54.1121, 1.51919, -173.746, 1.53131, 65.9644, 0.00576689, -107.875
0, 2100.00000, 119.394, -31.0382, 119.678, -150.672, 120.808, 89.0383, 0, 0, 1.51519, -54.1121, 1.51919, -173.746, 1.53131, 65.9644, 0.00576689, -107.875
0, 2160.00000, 119.394, -31.0382, 119.678, -150.672, 120.808, 89.0383, 0, 0, 1.51519, -54.1121, 1.51919, -173.746, 1.53131, 65.9644, 0.00576689, -107.875
0, 2220.00000, 119.394, -31.0382, 119.678, -150.672, 120.808, 89.0383, 0, 0, 1.51519, -54.1121, 1.51919, -173.746, 1.53131, 65.9644, 0.00576689, -107.875
0, 2280.00000, 119.394, -31.0382, 119.678, -150.672, 120.808, 89.0383, 0, 0, 1.51519, -54.1121, 1.51919, -173.746, 1.53131, 65.9644, 0.00576689, -107.875
0, 2340.00000, 119.394, -31.0382, 119.678, -150.672, 120.808, 89.0383, 0, 0, 1.51519, -54.1121, 1.51919, -173.746, 1.53131, 65.9644, 0.00576689, -107.875
0, 2400.00000, 119.394, -31.0382, 119.678, -150.672, 120.808, 89.0383, 0, 0, 1.51519, -54.1121, 1.51919, -173.746, 1.53131, 65.9644, 0.00576689, -107.875
0, 2460.00000, 119.394, -31.0382, 119.678, -150.672, 120.808, 89.0383, 0, 0, 1.51519, -54.1121, 1.51919, -173.746, 1.53131, 65.9644, 0.00576689, -107.875
0, 2520.00000, 119.394, -31.0382, 119.678, -150.672, 120.808, 89.0383, 0, 0, 1.51519, -54.1121, 1.51919, -173.746, 1.53131, 65.9644, 0.00576689, -107.875
0, 2580.00000, 119.394, -31.0382, 119.678, -150.672, 120.808, 89.0383, 0, 0, 1.51519, -54.1121, 1.51919, -173.746, 1.53131, 65.9644, 0.00576689, -107.875
0, 2640.00000, 119.394, -31.0382, 119.678, -150.672, 120.808, 89.0383, 0, 0, 1.51519, -54.1121, 1.51919, -173.746, 1.53131, 65.9644, 0.00576689, -107.875
0, 2700.00000, 119.394, -31.0382, 119.678, -150.672, 120.808, 89.0383, 0, 0, 1.51519, -54.1121, 1.51919, -173.746, 1.53131, 65.9644, 0.00576689, -107.875
0, 2760.00000, 119.394, -31.0382, 119.678, -150.672, 120.808, 89.0383, 0, 0, 1.51519, -54.1121, 1.51919, -173.746, 1.53131, 65.9644, 0.00576689, -107.875
0, 2820.00000, 119.394, -31.0382, 119.678, -150.672, 120.808, 89.0383, 0, 0, 1.51519, -54.1121, 1.51919, -173.746, 1.53131, 65.9644, 0.00576689, -107.875
0, 2880.00000, 119.394, -31.0382, 119.678, -150.672, 120.808, 89.0383, 0, 0, 1.51519, -54.1121, 1.51919, -173.746, 1.53131, 65.9644, 0.00576689, -107.875
0, 2940.00000, 119.394, -31.0382, 119.678, -150.672, 120.808, 89.0383, 0, 0, 1.51519, -54.1121, 1.51919, -173.746, 1.53131, 65.9644, 0.00576689, -107.875
0, 3000.00000, 119.394, -31.0382, 119.678, -150.672, 120.808, 89.0383, 0, 0, 1.51519, -54.1121, 1.51919, -173.746, 1.53131, 65.9644, 0.00576689, -107.875
0, 3060.00000, 119.394, -31.0382, 119.678, -150.672, 120.808, 89.0383, 0, 0, 1.51519, -54.1121, 1.51919, -173.746, 1.53131, 65.9644, 0.00576689, -107.875
0, 3120.00000, 119.394, -31.0382, 119.678, -150.672, 120.808, 89.0383, 0, 0, 1.51519, -54.1121, 1.51919, -173.746, 1.53131, 65.9644, 0.00576689, -107.875
0, 3180.00000, 119.394, -31.0382, 119.678, -150.672, 120.808, 89.0383, 0, 0, 1.51519, -54.1121, 1.51919, -173.746, 1.53131, 65.9644, 0.00576689, -107.875
0, 3240.00000, 119.394, -31.0382, 119.678, -150.672, 120.808, 89.0383, 0, 0, 1.51519, -54.1121, 1.51919, -173.746, 1.53131, 65.9644, 0.00576689, -107.875
0, 3300.00000, 119.394, -31.0382, 119.678, -150.672, 120.808, 89.0383, 0, 0, 1.51519, -54.1121, 1.51919, -173.746, 1.53131, 65.9644, 0.00576689, -107.875
0, 3360.00000, 119.394, -31.0382, 119.678, -150.672, 120.808, 89.0383, 0, 0, 1.51519, -54.1121, 1.51919, -173.746, 1.53131, 65.9644, 0.00576689, -107.875
0, 3420.00000, 119.394, -31.0382, 119.678, -150.672, 120.808, 89.0383, 0, 0, 1.51519, -54.1121, 1.51919, -173.746, 1.53131, 65.9644, 0.00576689, -107.875
0, 3480.00000, 119.394, -31.0382, 119.678, -150.672, 120.808, 89.0383, 0, 0, 1.51519, -54.1121, 1.51919, -173.746, 1.53131, 65.9644, 0.00576689, -107.875
0, 3540.00000, 119.394, -31.0382, 119.678, -150.672, 120.808, 89.0383, 0, 0, 1.51519, -54.1121, 1.51919, -173.746, 1.53131, 65.9644, 0.00576689, -107.875
1, 0.00000, 119.394, -31.0382, 119.678, -150.672, 120.808, 89.0383, 0, 0, 1.51519, -54.1121, 1.51919, -173.746, 1.53131, 65.9644, 0.00576689, -107.875
1, 60.00000, 119.394, -31.0382, 119.678, -150.672, 120.808, 89.0383, 0, 0, 1.51519, -54.1121, 1.51919, -173.746, 1.53131, 65.9644, 0.00576689, -107.875
1, 120.00000, 119.394, -31.0382, 119.678, -150.672, 120.808, 89.0383, 0, 0, 1.51519, -54.1121, 1.51919, -173.746, 1.53131, 65.9644, 0.00576689, -107.875
1, 180.00000, 119.394, -31.0382, 119.678, -150.672, 120.808, 89.0383, 0, 0, 1.51519, -54.1121, 1.51919, -173.746, 1.53131, 65.9644, 0.00576689, -107.875
1, 240.00000, 119.394, -31.0382, 119.678, -150.672, 120.808, 89.0383, 0, 0, 1.51519, -54.1121, 1.51919, -173.746, 1.53131, 65.9644, 0.00576689, -107.875
1, 300.00000, 119.394, -31.0382, 119.678, -150.672, 120.808, 89.0383, 0, 0, 1.51519, -54.1121, 1.51919, -173.746, 1.53131, 65.9644, 0.00576689, -107.875
1, 360.00000, 119.394, -31.0382, 119.678, -150.672, 120.808, 89.0383, 0, 0, 1.51519, -54.1121, 1.51919, -173.746, 1.53131, 65.9644, 0.00576689, -107.875
1, 420.00000, 119.394, -31.0382, 119.678, -150.672, 120.808, 89.0383, 0, 0, 1.51519, -54.1121, 1.51919, -173.746, 1.53131, 65.9644, 0.00576689, -107.875
1, 480.00000, 119.394, -31.0382, 119.678, -150.672, 120.808, 89.0383, 0, 0, 1.51519, -54.1121, 1.51919, -173.746, 1.53131, 65.9644, 0.00576689, -107.875
1, 540.00000, 119.394, -31.0382, 119.678, -150.672, 120.808, 89.0383, 0, 0, 1.51519, -54.1121, 1.51919, -173.746, 1.53131, 65.9644, 0.00576689, -107.875
1, 600.00000, 119.394, -31.0382, 119.678, -150.672, 120.808, 89.0383, 0, 0, 1.51519, -54.1121, 1.51919, -173.746, 1.53131, 65.9644, 0.00576689, -107.875
1, 660.00000, 119.394, -31.0382, 119.678, -150.672, 120.808, 89.0383, 0, 0, 1.51519, -54.1121, 1.51919, -173.746, 1.53131, 65.9644, 0.00576689, -107.875
1, 720.00000, 119.394, -31.0382, 119.678, -150.672, 120.808, 89.0383, 0, 0, 1.51519, -54.1121, 1.51919, -173.746, 1.53131, 65.9644, 0.00576689, -107.875
1, 780.00000, 119.394, -31.0382, 119.678, -150.672, 120.808, 89.0383, 0, 0, 1.51519, -54.1121, 1.51919, -173.746, 1.53131, 65.9644, 0.00576689, -107.875
1, 840.00000, 119.394, -31.0382, 119.678, -150.672, 120.808, 89.0383, 0, 0, 1.51519, -54.1121, 1.51919, -173.746, 1.53131, 65.9644, 0.00576689, -107.875
1, 900.00000, 119.394, -31.0382, 119.678, -150.672, 120.808, 89.0383, 0, 0, 1.51519, -54.1121, 1.51919, -173.746, 1.53131, 65.9644, 0.00576689, -107.875
1, 960.00000, 119.394, -31.0382, 119.678, -150.672, 120.808, 89.0383, 0, 0, 1.51519, -54.1121, 1.51919, -173.746, 1.53131, 65.9644, 0.00576689, -107.875
1, 1020.00000, 119.394, -31.0382, 119.678, -150.672, 120.808, 89.0383, 0, 0, 1.51519, -54.1121, 1.51919, -173.746, 1.53131, 65.9644, 0.00576689, -107.875
1, 1080.00000, 119.394, -31.0382, 119.678, -150.672, 120.808, 89.0383, 0, 0, 1.51519, -54.1121, 1.51919, -173.746, 1.53131, 65.9644, 0.00576689, -107.875
1, 1140.00000, 119.394, -31.0382, 119.678, -150.672, 120.808, 89.0383, 0, 0, 1.51519, -54.1121, 1.51919, -173.746, 1.53131, 65.9644, 0.00576689, -107.875
1, 1200.00000, 119.394, -31.0382, 119.678, -150.672, 120.808, 89.0383, 0, 0, 1.51519, -54.1121, 1.51919, -173.746, 1.53131, 65.9644, 0.00576689, -107.875
1, 1260.00000, 119.394, -31.0382, 119.678, -150.672, 120.808, 89.0383, 0, 0, 1.51519, -54.1121, 1.51919, -173.746, 1.53131, 65.9644, 0.00576689, -107.875
1, 1320.00000, 119.394, -31.0382, 119.678, -150.672, 120.808, 89.0383, 0, 0, 1.51519, -54.1121, 1.51919, -173.746, 1.53131, 65.9644, 0.00576689, -107.875
1, 1380.00000, 119.394, -31.0382, 119.678, -150.672, 120.808, 89.0383, 0, 0, 1.51519, -54.1121, 1.51919, -173.746, 1.53131, 65.9644, 0.00576689, -107.875
1, 1440.00000, 119.394, -31.0382, 119.678, -150.672, 120.808, 89.0383, 0, 0, 1.51519, -54.1121, 1.51919, -173.746, 1.53131, 65.9644, 0.00576689, -107.875
1, 1500.00000, 119.394, -31.0382, 119.678, -150.672, 120.808, 89.0383, 0, 0, 1.51519, -54.1121, 1.51919, -173.746, 1.53131, 65.9644, 0.00576689, -107.875
1, 1560.00000, 119.394, -31.0382, 119.678, -150.672, 120.808, 89.0383, 0, 0, 1.51519, -54.1121, 1.51919, -173.746, 1.53131, 65.9644, 0.00576689, -107.875
1, 1620.00000, 119.394, -31.0382, 119.678, -150.672, 120.808, 89.0383, 0, 0, 1.51519, -54.1121, 1.51919, -173.746, 1.53131, 65.9644, 0.00576689, -107.875
1, 1680.00000, 119.394, -31.0382, 119.678, -150.672, 120.808, 89.0383, 0, 0, 1.51519, -54.1121, 1.51919, -173.746, 1.53131, 65.9644, 0.00576689, -107.875
1, 1740.00000, 119.394, -31.0382, 119.678, -150.672, 120.808, 89.0383, 0, 0, 1.51519, -54.1121, 1.51919, -173.746, 1.53131, 65.9644, 0.00576689, -107.875
1, 1800.00000, 119.394, -31.0382, 119.678, -150.672, 120.808, 89.0383, 0, 0, 1.51519, -54.1121, 1.51919, -173.746, 1.53131, 65.9644, 0.00576689, -107.875
1, 1860.00000, 119.394, -31.0382, 119.678, -150.672, 120.808, 89.0383, 0, 0, 1.51519, -54.1121, 1.51919, -173.746, 1.53131, 65.9644, 0.00576689, -107.875
1, 1920.00000, 119.394, -31.0382, 119.678, -150.672, 120.808, 89.0383, 0, 0, 1.51519, -54.1121, 1.51919, -173.746, 1.53131, 65.9644, 0.00576689, -107.875
1, 1980.00000, 119.394, -31.0382, 119.678, -150.672, 120.808, 89.0383, 0, 0, 1.51519, -54.1121, 1.51919, -173.746, 1.53131, 65.9644, 0.00576689, -107.875
1, 2040.00000, 119.394, -31.0382, 119.678, -150.672, 120.808, 89.0383, 0, 0, 1.51519, -54.1121, 1.51919, -173.746, 1.53131, 65.9644, 0.00576689, -107.875
1, 2100.00000, 119.394, -31.0382, 119.678, -150.672, 120.808, 89.0383, 0, 0, 1.51519, -54.1121, 1.51919, -173.746, 1.53131, 65.9644, 0.00576689, -107.875
1, 2160.00000, 119.394, -31.0382, 119.678, -150.672, 120.808, 89.0383, 0, 0, 1.51519, -54.1121, 1.51919, -173.746, 1.53131, 65.9644, 0.00576689, -107.875
1, 2220.00000, 119.394, -31.0382, 119.678, -150.672, 120.808, 89.0383, 0, 0, 1.51519, -54.1121, 1.51919, -173.746, 1.53131, 65.9644, 0.00576689, -107.875
1, 2280.00000, 119.394, -31.0382, 119.678, -150.672, 120.808, 89.0383, 0, 0, 1.51519, -54.1121, 1.51919, -173.746, 1.53131, 65.9644, 0.00576689, -107.875
1, 2340.00000, 119.394, -31.0382, 119.678, -150.672, 120.808, 89.0383, 0, 0, 1.51519, -54.1121, 1.51919, -173.746, 1.53131, 65.9644, 0.00576689, -107.875
1, 2400.00000, 119.394, -31.0382, 119.678, -150.672, 120.808, 89.0383, 0, 0, 1.51519, -54.1121, 1.51919, -173.746, 1.53131, 65.9644, 0.00576689, -107.875
1, 2460.00000, 119.394, -31.0382, 119.678, -150.672, 120.808, 89.0383, 0, 0, 1.51519, -54.1121, 1.51919, -173.746, 1.53131, 65.9644, 0.00576689, -107.875
1, 2520.00000, 119.394, -31.0382, 119.678, -150.672, 120.808, 89.0383, 0, 0, 1.51519, -54.1121, 1.51919, -173.746, 1.53131, 65.9644, 0.00576689, -107.875
1, 2580.00000, 119.394, -31.0382, 119.678, -150.672, 120.808, 89.0383, 0, 0, 1.51519, -54.1121, 1.51919, -173.746, 1.53131, 65.9644, 0.00576689, -107.875
1, 2640.00000, 119.394, -31.0382, 119.678, -150.672, 120.808, 89.0383, 0, 0, 1.51519, -54.1121, 1.51919, -173.746, 1.53131, 65.9644, 0.00576689, -107.875
1, 2700.00000, 119.394, -31.0382, 119.678, -150.672, 120.808, 89.0383, 0, 0, 1.51519, -54.1121, 1.51919, -173.746, 1.53131, 65.9644, 0.00576689, -107.875
1, 2760.00000, 119.394, -31.0382, 119.678, -150.672, 120.808, 89.0383, 0, 0, 1.51519, -54.1121, 1.51919, -173.746, 1.53131, 65.9644, 0.00576689, -107.875
1, 2820.00000, 119.394, -31.0382, 119.678, -150.672, 120.808, 89.0383, 0, 0, 1.51519, -54.1121, 1.51919, -173.746, 1.53131, 65.9644, 0.00576689, -107.875
1, 2880.00000, 119.394, -31.0382, 119.678, -150.672, 120.808, 89.0383, 0, 0, 1.51519, -54.1121, 1.51919, -173.746, 1.53131, 65.9644, 0.00576689, -107.875
1, 2940.00000, 119.394, -31.0382, 119.678, -150.672, 120.808, 89.0383, 0, 0, 1.51519, -54.1121, 1.51919, -173.746, 1.53131, 65.9644, 0.00576689, -107.875
1, 3000.00000, 119.394, -31.0382, 119.678, -150.672, 120.808, 89.0383, 0, 0, 1.51519, -54.1121, 1.51919, -173.746, 1.53131, 65.9644, 0.00576689, -107.875
1, 3060.00000, 119.394, -31.0382, 119.678, -150.672, 120.808, 89.0383, 0, 0, 1.51519, -54.1121, 1.51919, -173.746, 1.53131, 65.9644, 0.00576689, -107.875
1, 3120.00000, 119.394, -31.0382, 119.678, -150.672, 120.808, 89.0383, 0, 0, 1.51519, -54.1121, 1.51919, -173.746, 1.53131, 65.9644, 0.00576689, -107.875
1, 3180.00000, 119.394, -31.0382, 119.678, -150.672, 120.808, 89.0383, 0, 0, 1.51519, -54.1121, 1.51919, -173.746, 1.53131, 65.9644, 0.00576689, -107.875
1, 3240.00000, 119.394, -31.0382, 119.678, -150.672, 120.808, 89.0383, 0, 0, 1.51519, -54.1121, 1.51919, -173.746, 1.53131, 65.9644, 0.00576689, -107.875
1, 3300.00000, 119.394, -31.0382, 119.678, -150.672, 120.808, 89.0383, 0, 0, 1.51519, -54.1121, 1.51919, -173.746, 1.53131, 65.9644, 0.00576689, -107.875
1, 3360.00000, 119.394, -31.0382, 119.678, -150.672, 120.808, 89.0383, 0, 0, 1.51519, -54.1121, 1.51919, -173.746, 1.53131, 65.9644, 0.00576689, -107.875
1, 3420.00000, 119.394, -31.0382, 119.678, -150.672, 120.808, 89.0383, 0, 0, 1.51519, -54.1121, 1.51919, -173.746, 1.53131, 65.9644, 0.00576689, -107.875
1, 3480.00000, 119.394, -31.0382, 119.678, -150.672, 120.808, 89.0383, 0, 0, 1.51519, -54.1121, 1.51919, -173.746, 1.53131, 65.9644, 0.00576689, -107.875
1, 3540.00000, 119.394, -31.0382, 119.678, -150.672, 120.808, 89.0383, 0, 0, 1.51519, -54.1121, 1.51919, -173.746, 1.53131, 65.9644, 0.00576689, -107.875
2, 0.00000, 119.394, -31.0382, 119.678, -150.672, 120.808, 89.0383, 0, 0, 1.51519, -54.1121, 1.51919, -173.746, 1.53131, 65.9644, 0.00576689, -107.875
2, 60.00000, 119.394, -31.0382, 119.678, -150.672, 120.808, 89.0383, 0, 0, 1.51519, -54.1121, 1.51919, -173.746, 1.53131, 65.9644, 0.00576689, -107.875
2, 120.00000, 119.394, -31.0382, 119.678, -150.672, 120.808, 89.0383, 0, 0, 1.51519, -54.1121, 1.51919, -173.746, 1.53131, 65.9644, 0.00576689, -107.875
2, 180.00000, 119.394, -31.0382, 119.678, -150.672, 120.808, 89.0383, 0, 0, 1.51519, -54.1121, 1.51919, -173.746, 1.53131, 65.9644, 0.00576689, -107.875
2, 240.00000, 119.394, -31.0382, 119.678, -150.672, 120.808, 89.0383, 0, 0, 1.51519, -54.1121, 1.51919, -173.746, 1.53131, 65.9644, 0.00576689, -107.875
2, 300.00000, 119.394, -31.0382, 119.678, -150.672, 120.808, 89.0383, 0, 0, 1.51519, -54.1121, 1.51919, -173.746, 1.53131, 65.9644, 0.00576689, -107.875
2, 360.00000, 119.394, -31.0382, 119.678, -150.672, 120.808, 89.0383, 0, 0, 1.51519, -54.1121, 1.51919, -173.746, 1.53131, 65.9644, 0.00576689, -107.875
2, 420.00000, 119.394, -31.0382, 119.678, -150.672, 120.808, 89.0383, 0, 0, 1.51519, -54.1121, 1.51919, -173.746, 1.53131, 65.9644, 0.00576689, -107.875
2, 480.00000, 119.394, -31.0382, 119.678, -150.672, 120.808, 89.0383, 0, 0, 1.51519, -54.1121, 1.51919, -173.746, 1.53131, 65.9644, 0.00576689, -107.875
2, 540.00000, 119.394, -31.0382, 119.678, -150.672, 120.808, 89.0383, 0, 0, 1.51519, -54.1121, 1.51919, -173.746, 1.53131, 65.9644, 0.00576689, -107.875
