hour,t(sec),V1,VAngle1,V2,VAngle2,V3,VAngle3,V4,VAngle4,I1,IAngle1,I2,IAngle2,I3,IAngle3,I4,IAngle4
0, 60.00000, 122.799, -32.2509, 122.628, -151.301, 125.158, 88.3291, 0, 0, 3.19049, -55.3248, 3.19496, -174.375, 3.13045, 65.2551, 0.108436, 60.0812
0, 120.00000, 122.806, -32.2578, 122.627, -151.301, 125.178, 88.3284, 0, 0, 3.19033, -55.3316, 3.19497, -174.375, 3.12995, 65.2544, 0.109208, 59.9542
0, 180.00000, 122.811, -32.264, 122.627, -151.301, 125.196, 88.3277, 0, 0, 3.19018, -55.3378, 3.19498, -174.375, 3.1295, 65.2538, 0.109901, 59.8422
0, 240.00000, 122.816, -32.2695, 122.627, -151.301, 125.212, 88.3271, 0, 0, 3.19005, -55.3434, 3.19499, -174.375, 3.1291, 65.2532, 0.110526, 59.743
0, 300.00000, 122.821, -32.2745, 122.626, -151.301, 125.226, 88.3266, 0, 0, 3.18993, -55.3484, 3.195, -174.375, 3.12873, 65.2526, 0.111088, 59.6549
0, 360.00000, 122.825, -32.279, 122.626, -151.302, 125.239, 88.3261, 0, 0, 3.18983, -55.3529, 3.19501, -174.375, 3.12841, 65.2521, 0.111595, 59.5764
0, 420.00000, 122.829, -32.2831, 122.626, -151.302, 125.25, 88.3256, 0, 0, 3.18973, -55.357, 3.19501, -174.375, 3.12811, 65.2517, 0.112052, 59.5065
0, 480.00000, 123.45, -32.1672, 123.193, -151.178, 125.873, 88.4676, 0, 0, 2.86762, -55.241, 2.8736, -174.252, 2.81246, 65.3937, 0.101694, 58.4631
0, 540.00000, 123.453, -32.1705, 123.193, -151.178, 125.882, 88.4672, 0, 0, 2.86755, -55.2443, 2.8736, -174.252, 2.81224, 65.3933, 0.10203, 58.4113
0, 600.00000, 123.455, -32.1735, 123.192, -151.178, 125.89, 88.4669, 0, 0, 2.86749, -55.2474, 2.87361, -174.252, 2.81205, 65.393, 0.102331, 58.3654
0, 660.00000, 123.458, -32.1762, 123.192, -151.178, 125.898, 88.4665, 0, 0, 2.86743, -55.2501, 2.87361, -174.252, 2.81188, 65.3926, 0.102603, 58.3243
0, 720.00000, 123.46, -32.1787, 123.192, -151.178, 125.905, 88.4662, 0, 0, 2.86738, -55.2525, 2.87361, -174.252, 2.81173, 65.3923, 0.102847, 58.2877
0, 780.00000, 123.462, -32.1809, 123.192, -151.178, 125.911, 88.466, 0, 0, 2.86733, -55.2547, 2.87362, -174.252, 2.81159, 65.3921, 0.103067, 58.2548
0, 840.00000, 123.464, -32.1828, 123.192, -151.178, 125.916, 88.4657, 0, 0, 2.86729, -55.2567, 2.87362, -174.252, 2.81146, 65.3918, 0.103266, 58.2254
0, 900.00000, 123.465, -32.1846, 123.192, -151.178, 125.921, 88.4655, 0, 0, 2.86725, -55.2585, 2.87362, -174.252, 2.81135, 65.3916, 0.103444, 58.1991
0, 960.00000, 123.467, -32.1862, 123.192, -151.178, 125.926, 88.4653, 0, 0, 2.86722, -55.2601, 2.87363, -174.252, 2.81125, 65.3914, 0.103605, 58.1755
0, 1020.00000, 123.468, -32.1877, 123.192, -151.178, 125.93, 88.4651, 0, 0, 2.86719, -55.2615, 2.87363, -174.252, 2.81115, 65.3912, 0.103749, 58.1544
0, 1080.00000, 123.469, -32.189, 123.191, -151.178, 125.934, 88.465, 0, 0, 2.86716, -55.2628, 2.87363, -174.252, 2.81107, 65.391, 0.103879, 58.1354
0, 1140.00000, 123.47, -32.1901, 123.191, -151.178, 125.937, 88.4648, 0, 0, 2.86714, -55.264, 2.87363, -174.252, 2.811, 65.3909, 0.103996, 58.1184
0, 1200.00000, 123.471, -32.1912, 123.191, -151.178, 125.94, 88.4647, 0, 0, 2.86712, -55.2651, 2.87363, -174.252, 2.81093, 65.3908, 0.104102, 58.1032
0, 1260.00000, 123.472, -32.1921, 123.191, -151.178, 125.942, 88.4645, 0, 0, 2.8671, -55.266, 2.87363, -174.252, 2.81087, 65.3906, 0.104197, 58.0895
0, 1320.00000, 123.473, -32.193, 123.191, -151.178, 125.945, 88.4644, 0, 0, 2.86708, -55.2669, 2.87364, -174.252, 2.81082, 65.3905, 0.104282, 58.0772
0, 1380.00000, 123.474, -32.1937, 123.191, -151.178, 125.947, 88.4643, 0, 0, 2.86706, -55.2676, 2.87364, -174.252, 2.81077, 65.3904, 0.104359, 58.0661
0, 1440.00000, 123.474, -32.1944, 123.191, -151.178, 125.949, 88.4643, 0, 0, 2.86705, -55.2683, 2.87364, -174.252, 2.81072, 65.3903, 0.104428, 58.0562
0, 1500.00000, 123.475, -32.1951, 123.191, -151.178, 125.951, 88.4642, 0, 0, 2.86704, -55.269, 2.87364, -174.252, 2.81069, 65.3903, 0.104491, 58.0473
0, 1560.00000, 123.475, -32.1956, 123.191, -151.178, 125.952, 88.4641, 0, 0, 2.86703, -55.2695, 2.87364, -174.252, 2.81065, 65.3902, 0.104547, 58.0393
0, 1620.00000, 123.476, -32.1961, 123.191, -151.178, 125.954, 88.464, 0, 0, 2.86702, -55.27, 2.87364, -174.252, 2.81062, 65.3901, 0.104597, 58.0321
0, 1680.00000, 123.476, -32.1966, 123.191, -151.178, 125.955, 88.464, 0, 0, 2.86701, -55.2705, 2.87364, -174.252, 2.81059, 65.3901, 0.104643, 58.0256
0, 1740.00000, 123.476, -32.197, 123.191, -151.178, 125.956, 88.4639, 0, 0, 2.867, -55.2709, 2.87364, -174.252, 2.81056, 65.39, 0.104684, 58.0198
0, 1800.00000, 123.477, -32.1974, 123.191, -151.178, 125.957, 88.4639, 0, 0, 2.86699, -55.2713, 2.87364, -174.252, 2.81054, 65.39, 0.10472, 58.0145
0, 1860.00000, 123.477, -32.1977, 123.191, -151.178, 125.958, 88.4638, 0, 0, 2.86698, -55.2716, 2.87364, -174.252, 2.81052, 65.3899, 0.104754, 58.0098
0, 1920.00000, 123.477, -32.198, 123.191, -151.178, 125.959, 88.4638, 0, 0, 2.86698, -55.2719, 2.87364, -174.252, 2.8105, 65.3899, 0.104783, 58.0056
0, 1980.00000, 123.478, -32.1982, 123.191, -151.178, 125.959, 88.4638, 0, 0, 2.86697, -55.2722, 2.87364, -174.252, 2.81048, 65.3899, 0.10481, 58.0018
0, 2040.00000, 123.478, -32.1985, 123.191, -151.178, 125.96, 88.4637, 0, 0, 2.86697, -55.2724, 2.87364, -174.252, 2.81047, 65.3898, 0.104834, 57.9984
0, 2100.00000, 123.478, -32.1987, 123.191, -151.178, 125.961, 88.4637, 0, 0, 2.86696, -55.2726, 2.87364, -174.252, 2.81045, 65.3898, 0.104856, 57.9953
0, 2160.00000, 123.478, -32.1989, 123.191, -151.178, 125.961, 88.4637, 0, 0, 2.86696, -55.2728, 2.87364, -174.252, 2.81044, 65.3898, 0.104876, 57.9925
0, 2220.00000, 123.478, -32.1991, 123.191, -151.178, 125.962, 88.4637, 0, 0, 2.86695, -55.273, 2.87364, -174.252, 2.81043, 65.3898, 0.104893, 57.99
0, 2280.00000, 123.478, -32.1992, 123.191, -151.178, 125.962, 88.4636, 0, 0, 2.86695, -55.2732, 2.87364, -174.252, 2.81042, 65.3897, 0.104909, 57.9878
0, 2340.00000, 123.479, -32.1994, 123.191, -151.178, 125.963, 88.4636, 0, 0, 2.86695, -55.2733, 2.87364, -174.252, 2.81041, 65.3897, 0.104923, 57.9858
0, 2400.00000, 123.479, -32.1995, 123.191, -151.178, 125.963, 88.4636, 0, 0, 2.86695, -55.2734, 2.87364, -174.252, 2.8104, 65.3897, 0.104936, 57.9839
0, 2460.00000, 123.479, -32.1996, 123.191, -151.178, 125.963, 88.4636, 0, 0, 2.86694, -55.2735, 2.87364, -174.252, 2.8104, 65.3897, 0.104948, 57.9823
0, 2520.00000, 123.479, -32.1997, 123.191, -151.178, 125.964, 88.4636, 0, 0, 2.86694, -55.2736, 2.87364, -174.252, 2.81039, 65.3897, 0.104958, 57.9808
0, 2580.00000, 123.479, -32.1998, 123.191, -151.178, 125.964, 88.4636, 0, 0, 2.86694, -55.2737, 2.87364, -174.252, 2.81038, 65.3897, 0.104967, 57.9795
0, 2640.00000, 123.479, -32.1999, 123.191, -151.178, 125.964, 88.4636, 0, 0, 2.86694, -55.2738, 2.87364, -174.252, 2.81038, 65.3896, 0.104976, 57.9783
0, 2700.00000, 123.479, -32.2, 123.191, -151.178, 125.964, 88.4636, 0, 0, 2.86694, -55.2739, 2.87365, -174.252, 2.81037, 65.3896, 0.104983, 57.9773
0, 2760.00000, 123.479, -32.2, 123.191, -151.178, 125.965, 88.4635, 0, 0, 2.86693, -55.274, 2.87365, -174.252, 2.81037, 65.3896, 0.10499, 57.9763
0, 2820.00000, 123.479, -32.2001, 123.191, -151.178, 125.965, 88.4635, 0, 0, 2.86693, -55.274, 2.87365, -174.252, 2.81037, 65.3896, 0.104996, 57.9754
0, 2880.00000, 123.479, -32.2002, 123.191, -151.178, 125.965, 88.4635, 0, 0, 2.86693, -55.2741, 2.87365, -174.252, 2.81036, 65.3896, 0.105002, 57.9747
0, 2940.00000, 123.479, -32.2002, 123.191, -151.178, 125.965, 88.4635, 0, 0, 2.86693, -55.2741, 2.87365, -174.252, 2.81036, 65.3896, 0.105007, 57.974
0, 3000.00000, 123.479, -32.2003, 123.191, -151.178, 125.965, 88.4635, 0, 0, 2.86693, -55.2742, 2.87365, -174.252, 2.81036, 65.3896, 0.105011, 57.9733
0, 3060.00000, 123.479, -32.2003, 123.191, -151.178, 125.965, 88.4635, 0, 0, 2.86693, -55.2742, 2.87365, -174.252, 2.81035, 65.3896, 0.105015, 57.9728
0, 3120.00000, 123.479, -32.2003, 123.191, -151.178, 125.965, 88.4635, 0, 0, 2.86693, -55.2743, 2.87365, -174.252, 2.81035, 65.3896, 0.105019, 57.9722
0, 3180.00000, 123.479, -32.2004, 123.191, -151.178, 125.965, 88.4635, 0, 0, 2.86693, -55.2743, 2.87365, -174.252, 2.81035, 65.3896, 0.105022, 57.9718
0, 3240.00000, 123.479, -32.2004, 123.191, -151.178, 125.965, 88.4635, 0, 0, 2.86693, -55.2743, 2.87365, -174.252, 2.81035, 65.3896, 0.105025, 57.9714
0, 3300.00000, 123.48, -32.2004, 123.191, -151.178, 125.966, 88.4635, 0, 0, 2.86693, -55.2743, 2.87365, -174.252, 2.81035, 65.3896, 0.105028, 57.971
0, 3360.00000, 123.48, -32.2004, 123.191, -151.178, 125.966, 88.4635, 0, 0, 2.86693, -55.2744, 2.87365, -174.252, 2.81034, 65.3896, 0.10503, 57.9707
0, 3420.00000, 123.48, -32.2005, 123.191, -151.178, 125.966, 88.4635, 0, 0, 2.86693, -55.2744, 2.87365, -174.252, 2.81034, 65.3896, 0.105032, 57.9704
0, 3480.00000, 123.48, -32.2005, 123.191, -151.178, 125.966, 88.4635, 0, 0, 2.86693, -55.2744, 2.87365, -174.252, 2.81034, 65.3896, 0.105034, 57.9701
0, 3540.00000, 123.48, -32.2005, 123.191, -151.178, 125.966, 88.4635, 0, 0, 2.86693, -55.2744, 2.87365, -174.252, 2.81034, 65.3896, 0.105036, 57.9698
1, 0.00000, 123.48, -32.2005, 123.191, -151.178, 125.966, 88.4635, 0, 0, 2.86693, -55.2744, 2.87365, -174.252, 2.81034, 65.3896, 0.105038, 57.9696
1, 60.00000, 123.726, -32.03, 123.652, -151.184, 125.938, 88.4685, 0, 0, 2.86121, -55.1039, 2.86293, -174.258, 2.81095, 65.3946, 0.0877962, 61.9297
1, 120.00000, 123.726, -32.03, 123.652, -151.184, 125.938, 88.4685, 0, 0, 2.86121, -55.1039, 2.86293, -174.258, 2.81095, 65.3946, 0.0877974, 61.9294
1, 180.00000, 123.726, -32.03, 123.652, -151.184, 125.938, 88.4685, 0, 0, 2.86121, -55.1039, 2.86293, -174.258, 2.81095, 65.3946, 0.0877985, 61.9292
1, 240.00000, 123.726, -32.03, 123.652, -151.184, 125.939, 88.4685, 0, 0, 2.86121, -55.1039, 2.86293, -174.258, 2.81095, 65.3946, 0.0877995, 61.929
1, 300.00000, 123.726, -32.03, 123.652, -151.184, 125.939, 88.4685, 0, 0, 2.86121, -55.1039, 2.86293, -174.258, 2.81095, 65.3946, 0.0878004, 61.9288
1, 360.00000, 123.726, -32.03, 123.652, -151.184, 125.939, 88.4685, 0, 0, 2.86121, -55.1039, 2.86293, -174.258, 2.81095, 65.3946, 0.0878012, 61.9286
1, 420.00000, 123.726, -32.03, 123.652, -151.184, 125.939, 88.4685, 0, 0, 2.86121, -55.1039, 2.86293, -174.258, 2.81095, 65.3946, 0.0878019, 61.9284
1, 480.00000, 123.726, -32.03, 123.652, -151.184, 125.939, 88.4685, 0, 0, 2.86121, -55.1039, 2.86293, -174.258, 2.81095, 65.3946, 0.0878026, 61.9283
1, 540.00000, 123.726, -32.03, 123.652, -151.184, 125.939, 88.4685, 0, 0, 2.86121, -55.1039, 2.86293, -174.258, 2.81095, 65.3946, 0.0878032, 61.9282
1, 600.00000, 123.726, -32.03, 123.652, -151.184, 125.939, 88.4685, 0, 0, 2.86121, -55.104, 2.86293, -174.258, 2.81095, 65.3946, 0.0878037, 61.928
1, 660.00000, 123.726, -32.03, 123.652, -151.184, 125.939, 88.4685, 0, 0, 2.86121, -55.104, 2.86293, -174.258, 2.81095, 65.3946, 0.0878042, 61.9279
1, 720.00000, 123.726, -32.03, 123.652, -151.184, 125.939, 88.4685, 0, 0, 2.86121, -55.104, 2.86293, -174.258, 2.81095, 65.3946, 0.0878046, 61.9278
1, 780.00000, 123.726, -32.03, 123.652, -151.184, 125.939, 88.4685, 0, 0, 2.86121, -55.104, 2.86293, -174.258, 2.81095, 65.3946, 0.087805, 61.9278
1, 840.00000, 123.726, -32.0301, 123.652, -151.184, 125.939, 88.4685, 0, 0, 2.86121, -55.104, 2.86293, -174.258, 2.81095, 65.3946, 0.0878054, 61.9277
1, 900.00000, 123.726, -32.0301, 123.652, -151.184, 125.939, 88.4685, 0, 0, 2.86121, -55.104, 2.86293, -174.258, 2.81094, 65.3946, 0.0878057, 61.9276
1, 960.00000, 123.726, -32.0301, 123.652, -151.184, 125.939, 88.4685, 0, 0, 2.86121, -55.104, 2.86293, -174.258, 2.81094, 65.3946, 0.087806, 61.9276
1, 1020.00000, 123.726, -32.0301, 123.652, -151.184, 125.939, 88.4685, 0, 0, 2.86121, -55.104, 2.86293, -174.258, 2.81094, 65.3946, 0.0878062, 61.9275
1, 1080.00000, 123.726, -32.0301, 123.652, -151.184, 125.939, 88.4685, 0, 0, 2.86121, -55.104, 2.86293, -174.258, 2.81094, 65.3946, 0.0878065, 61.9275
1, 1140.00000, 123.726, -32.0301, 123.652, -151.184, 125.939, 88.4685, 0, 0, 2.86121, -55.104, 2.86293, -174.258, 2.81094, 65.3946, 0.0878067, 61.9274
1, 1200.00000, 123.726, -32.0301, 123.652, -151.184, 125.939, 88.4685, 0, 0, 2.86121, -55.104, 2.86293, -174.258, 2.81094, 65.3946, 0.0878068, 61.9274
1, 1260.00000, 123.726, -32.0301, 123.652, -151.184, 125.939, 88.4685, 0, 0, 2.86121, -55.104, 2.86293, -174.258, 2.81094, 65.3946, 0.087807, 61.9273
1, 1320.00000, 123.726, -32.0301, 123.652, -151.184, 125.939, 88.4685, 0, 0, 2.86121, -55.104, 2.86293, -174.258, 2.81094, 65.3946, 0.0878072, 61.9273
1, 1380.00000, 123.726, -32.0301, 123.652, -151.184, 125.939, 88.4685, 0, 0, 2.86121, -55.104, 2.86293, -174.258, 2.81094, 65.3946, 0.0878073, 61.9273
1, 1440.00000, 123.726, -32.0301, 123.652, -151.184, 125.939, 88.4685, 0, 0, 2.86121, -55.104, 2.86293, -174.258, 2.81094, 65.3946, 0.0878074, 61.9272
1, 1500.00000, 123.726, -32.0301, 123.652, -151.184, 125.939, 88.4685, 0, 0, 2.86121, -55.104, 2.86293, -174.258, 2.81094, 65.3946, 0.0878075, 61.9272
1, 1560.00000, 123.726, -32.0301, 123.652, -151.184, 125.939, 88.4685, 0, 0, 2.86121, -55.104, 2.86293, -174.258, 2.81094, 65.3946, 0.0878076, 61.9272
1, 1620.00000, 123.726, -32.0301, 123.652, -151.184, 125.939, 88.4685, 0, 0, 2.86121, -55.104, 2.86293, -174.258, 2.81094, 65.3946, 0.0878077, 61.9272
1, 1680.00000, 123.726, -32.0301, 123.652, -151.184, 125.939, 88.4685, 0, 0, 2.86121, -55.104, 2.86293, -174.258, 2.81094, 65.3946, 0.0878078, 61.9272
1, 1740.00000, 123.726, -32.0301, 123.652, -151.184, 125.939, 88.4685, 0, 0, 2.86121, -55.104, 2.86293, -174.258, 2.81094, 65.3946, 0.0878079, 61.9271
1, 1800.00000, 123.726, -32.0301, 123.652, -151.184, 125.939, 88.4685, 0, 0, 2.86121, -55.104, 2.86293, -174.258, 2.81094, 65.3946, 0.0878079, 61.9271
1, 1860.00000, 123.726, -32.0301, 123.652, -151.184, 125.939, 88.4685, 0, 0, 2.86121, -55.104, 2.86293, -174.258, 2.81094, 65.3946, 0.087808, 61.9271
1, 1920.00000, 123.726, -32.0301, 123.652, -151.184, 125.939, 88.4685, 0, 0, 2.86121, -55.104, 2.86293, -174.258, 2.81094, 65.3946, 0.0878081, 61.9271
1, 1980.00000, 123.726, -32.0301, 123.652, -151.184, 125.939, 88.4685, 0, 0, 2.86121, -55.104, 2.86293, -174.258, 2.81094, 65.3946, 0.0878081, 61.9271
1, 2040.00000, 123.726, -32.0301, 123.652, -151.184, 125.939, 88.4685, 0, 0, 2.86121, -55.104, 2.86293, -174.258, 2.81094, 65.3946, 0.0878081, 61.9271
1, 2100.00000, 123.726, -32.0301, 123.652, -151.184, 125.939, 88.4685, 0, 0, 2.86121, -55.104, 2.86293, -174.258, 2.81094, 65.3946, 0.0878082, 61.9271
1, 2160.00000, 123.726, -32.0301, 123.652, -151.184, 125.939, 88.4685, 0, 0, 2.86121, -55.104, 2.86293, -174.258, 2.81094, 65.3946, 0.0878082, 61.9271
1, 2220.00000, 123.726, -32.0301, 123.652, -151.184, 125.939, 88.4685, 0, 0, 2.86121, -55.104, 2.86293, -174.258, 2.81094, 65.3946, 0.0878082, 61.9271
1, 2280.00000, 123.726, -32.0301, 123.652, -151.184, 125.939, 88.4685, 0, 0, 2.86121, -55.104, 2.86293, -174.258, 2.81094, 65.3946, 0.0878083, 61.9271
1, 2340.00000, 123.726, -32.0301, 123.652, -151.184, 125.939, 88.4685, 0, 0, 2.86121, -55.104, 2.86293, -174.258, 2.81094, 65.3946, 0.0878083, 61.9271
1, 2400.00000, 123.726, -32.0301, 123.652, -151.184, 125.939, 88.4685, 0, 0, 2.86121, -55.104, 2.86293, -174.258, 2.81094, 65.3946, 0.0878083, 61.927
1, 2460.00000, 123.726, -32.0301, 123.652, -151.184, 125.939, 88.4685, 0, 0, 2.8612, -55.104, 2.86293, -174.258, 2.81094, 65.3946, 0.0878083, 61.927
1, 2520.00000, 123.726, -32.0301, 123.652, -151.184, 125.939, 88.4685, 0, 0, 2.8612, -55.104, 2.86293, -174.258, 2.81094, 65.3946, 0.0878084, 61.927
1, 2580.00000, 123.726, -32.0301, 123.652, -151.184, 125.939, 88.4685, 0, 0, 2.8612, -55.104, 2.86293, -174.258, 2.81094, 65.3946, 0.0878084, 61.927
1, 2640.00000, 123.726, -32.0301, 123.652, -151.184, 125.939, 88.4685, 0, 0, 2.8612, -55.104, 2.86293, -174.258, 2.81094, 65.3946, 0.0878084, 61.927
1, 2700.00000, 123.726, -32.0301, 123.652, -151.184, 125.939, 88.4685, 0, 0, 2.8612, -55.104, 2.86293, -174.258, 2.81094, 65.3946, 0.0878084, 61.927
1, 2760.00000, 123.726, -32.0301, 123.652, -151.184, 125.939, 88.4685, 0, 0, 2.8612, -55.104, 2.86293, -174.258, 2.81094, 65.3946, 0.0878084, 61.927
1, 2820.00000, 123.726, -32.0301, 123.652, -151.184, 125.939, 88.4685, 0, 0, 2.8612, -55.104, 2.86293, -174.258, 2.81094, 65.3946, 0.0878084, 61.927
1, 2880.00000, 123.726, -32.0301, 123.652, -151.184, 125.939, 88.4685, 0, 0, 2.8612, -55.104, 2.86293, -174.258, 2.81094, 65.3946, 0.0878084, 61.927
1, 2940.00000, 123.726, -32.0301, 123.652, -151.184, 125.939, 88.4685, 0, 0, 2.8612, -55.104, 2.86293, -174.258, 2.81094, 65.3946, 0.0878084, 61.927
1, 3000.00000, 123.726, -32.0301, 123.652, -151.184, 125.939, 88.4685, 0, 0, 2.8612, -55.104, 2.86293, -174.258, 2.81094, 65.3946, 0.0878084, 61.927
1, 3060.00000, 123.726, -32.0301, 123.652, -151.184, 125.939, 88.4685, 0, 0, 2.8612, -55.104, 2.86293, -174.258, 2.81094, 65.3946, 0.0878085, 61.927
1, 3120.00000, 123.726, -32.0301, 123.652, -151.184, 125.939, 88.4685, 0, 0, 2.8612, -55.104, 2.86293, -174.258, 2.81094, 65.3946, 0.0878085, 61.927
1, 3180.00000, 123.726, -32.0301, 123.652, -151.184, 125.939, 88.4685, 0, 0, 2.8612, -55.104, 2.86293, -174.258, 2.81094, 65.3946, 0.0878085, 61.927
1, 3240.00000, 123.726, -32.0301, 123.652, -151.184, 125.939, 88.4685, 0, 0, 2.8612, -55.104, 2.86293, -174.258, 2.81094, 65.3946, 0.0878085, 61.927
1, 3300.00000, 123.726, -32.0301, 123.652, -151.184, 125.939, 88.4685, 0, 0, 2.8612, -55.104, 2.86293, -174.258, 2.81094, 65.3946, 0.0878085, 61.927
1, 3360.00000, 123.726, -32.0301, 123.652, -151.184, 125.939, 88.4685, 0, 0, 2.8612, -55.104, 2.86293, -174.258, 2.81094, 65.3946, 0.0878085, 61.927
1, 3420.00000, 123.726, -32.0301, 123.652, -151.184, 125.939, 88.4685, 0, 0, 2.8612, -55.104, 2.86293, -174.258, 2.81094, 65.3946, 0.0878085, 61.927
1, 3480.00000, 123.726, -32.0301, 123.652, -151.184, 125.939, 88.4685, 0, 0, 2.8612, -55.104, 2.86293, -174.258, 2.81094, 65.3946, 0.0878085, 61.927
1, 3540.00000, 123.726, -32.0301, 123.652, -151.184, 125.939, 88.4685, 0, 0, 2.8612, -55.104, 2.86293, -174.258, 2.81094, 65.3946, 0.0878085, 61.927
2, 0.00000, 123.726, -32.0301, 123.652, -151.184, 125.939, 88.4685, 0, 0, 2.8612, -55.104, 2.86293, -174.258, 2.81094, 65.3946, 0.0878085, 61.927
2, 60.00000, 123.726, -32.0301, 123.652, -151.184, 125.939, 88.4685, 0, 0, 2.8612, -55.104, 2.86293, -174.258, 2.81094, 65.3946, 0.0878085, 61.927
2, 120.00000, 123.726, -32.0301, 123.652, -151.184, 125.939, 88.4685, 0, 0, 2.8612, -55.104, 2.86293, -174.258, 2.81094, 65.3946, 0.0878085, 61.927
2, 180.00000, 123.726, -32.0301, 123.652, -151.184, 125.939, 88.4685, 0, 0, 2.8612, -55.104, 2.86293, -174.258, 2.81094, 65.3946, 0.0878085, 61.927
2, 240.00000, 123.726, -32.0301, 123.652, -151.184, 125.939, 88.4685, 0, 0, 2.8612, -55.104, 2.86293, -174.258, 2.81094, 65.3946, 0.0878085, 61.927
2, 300.00000, 123.726, -32.0301, 123.652, -151.184, 125.939, 88.4685, 0, 0, 2.8612, -55.104, 2.86293, -174.258, 2.81094, 65.3946, 0.0878085, 61.927
2, 360.00000, 123.726, -32.0301, 123.652, -151.184, 125.939, 88.4685, 0, 0, 2.8612, -55.104, 2.86293, -174.258, 2.81094, 65.3946, 0.0878085, 61.927
2, 420.00000, 123.726, -32.0301, 123.652, -151.184, 125.939, 88.4685, 0, 0, 2.8612, -55.104, 2.86293, -174.258, 2.81094, 65.3946, 0.0878085, 61.927
2, 480.00000, 123.726, -32.0301, 123.652, -151.184, 125.939, 88.4685, 0, 0, 2.8612, -55.104, 2.86293, -174.258, 2.81094, 65.3946, 0.0878085, 61.927
2, 540.00000, 123.726, -32.0301, 123.652, -151.184, 125.939, 88.4685, 0, 0, 2.8612, -55.104, 2.86293, -174.258, 2.81094, 65.3946, 0.0878085, 61.927
2, 600.00000, 123.726, -32.0301, 123.652, -151.184, 125.939, 88.4685, 0, 0, 2.8612, -55.104, 2.86293, -174.258, 2.81094, 65.3946, 0.0878085, 61.927
2, 660.00000, 123.726, -32.0301, 123.652, -151.184, 125.939, 88.4685, 0, 0, 2.8612, -55.104, 2.86293, -174.258, 2.81094, 65.3946, 0.0878085, 61.927
2, 720.00000, 123.726, -32.0301, 123.652, -151.184, 125.939, 88.4685, 0, 0, 2.8612, -55.104, 2.86293, -174.258, 2.81094, 65.3946, 0.0878085, 61.927
2, 780.00000, 123.726, -32.0301, 123.652, -151.184, 125.939, 88.4685, 0, 0, 2.8612, -55.104, 2.86293, -174.258, 2.81094, 65.3946, 0.0878085, 61.927
