hour,t(sec),V1,VAngle1,V2,VAngle2,V3,VAngle3,V4,VAngle4,I1,IAngle1,I2,IAngle2,I3,IAngle3,I4,IAngle4
0, 60.00000, 116.326, -31.0643, 117.061, -151.405, 116.65, 88.5635, 0, 0, 4.7526, -54.138, 4.78601, -174.479, 4.76733, 65.4899, 0.0256836, -85.9123
0, 120.00000, 116.326, -31.0643, 117.061, -151.405, 116.649, 88.5635, 0, 0, 4.75257, -54.1382, 4.78599, -174.479, 4.76729, 65.4896, 0.0256541, -85.9189
0, 180.00000, 116.326, -31.0643, 117.061, -151.405, 116.649, 88.5635, 0, 0, 4.75257, -54.1382, 4.78599, -174.479, 4.76729, 65.4896, 0.025654, -85.9189
0, 240.00000, 116.326, -31.0643, 117.061, -151.405, 116.649, 88.5635, 0, 0, 4.75257, -54.1382, 4.78599, -174.479, 4.76729, 65.4896, 0.025654, -85.9189
0, 300.00000, 116.326, -31.0643, 117.061, -151.405, 116.649, 88.5635, 0, 0, 4.75257, -54.1382, 4.78599, -174.479, 4.76729, 65.4896, 0.025654, -85.9189
0, 360.00000, 116.326, -31.0643, 117.061, -151.405, 116.649, 88.5635, 0, 0, 4.75257, -54.1382, 4.78599, -174.479, 4.76729, 65.4896, 0.025654, -85.9189
0, 420.00000, 116.326, -31.0643, 117.061, -151.405, 116.649, 88.5635, 0, 0, 4.75257, -54.1382, 4.78599, -174.479, 4.76729, 65.4896, 0.025654, -85.9189
0, 480.00000, 117.277, -30.9722, 117.992, -151.316, 117.543, 88.6736, 0, 0, 4.59319, -54.0462, 4.62428, -174.39, 4.60477, 65.5991, 0.0234384, -82.6426
0, 540.00000, 117.277, -30.9722, 117.992, -151.316, 117.543, 88.6736, 0, 0, 4.59322, -54.0461, 4.62433, -174.39, 4.6048, 65.5997, 0.0234558, -82.534
0, 600.00000, 117.277, -30.9722, 117.992, -151.316, 117.543, 88.6736, 0, 0, 4.59322, -54.0461, 4.62433, -174.39, 4.6048, 65.5997, 0.0234558, -82.5338
0, 660.00000, 117.277, -30.9722, 117.992, -151.316, 117.543, 88.6736, 0, 0, 4.59322, -54.0461, 4.62433, -174.39, 4.6048, 65.5997, 0.0234558, -82.5338
0, 720.00000, 117.277, -30.9722, 117.992, -151.316, 117.543, 88.6736, 0, 0, 4.59322, -54.0461, 4.62433, -174.39, 4.6048, 65.5997, 0.0234558, -82.5338
0, 780.00000, 117.277, -30.9722, 117.992, -151.316, 117.543, 88.6736, 0, 0, 4.59322, -54.0461, 4.62433, -174.39, 4.6048, 65.5997, 0.0234558, -82.5338
0, 840.00000, 117.277, -30.9722, 117.992, -151.316, 117.543, 88.6736, 0, 0, 4.59322, -54.0461, 4.62433, -174.39, 4.6048, 65.5997, 0.0234558, -82.5338
0, 900.00000, 117.277, -30.9722, 117.992, -151.316, 117.543, 88.6736, 0, 0, 4.59322, -54.0461, 4.62433, -174.39, 4.6048, 65.5997, 0.0234558, -82.5338
0, 960.00000, 115.815, -30.6226, 117.985, -151.309, 116.226, 88.2183, 0, 0, 4.5296, -53.6966, 4.62404, -174.383, 4.54749, 65.1446, 0.0248046, -69.7418
0, 1020.00000, 115.815, -30.6226, 117.985, -151.309, 116.226, 88.2183, 0, 0, 4.52955, -53.6965, 4.62404, -174.383, 4.54745, 65.1443, 0.0248026, -69.687
0, 1080.00000, 115.815, -30.6226, 117.985, -151.309, 116.226, 88.2183, 0, 0, 4.52955, -53.6965, 4.62404, -174.383, 4.54745, 65.1443, 0.0248026, -69.6868
0, 1140.00000, 115.815, -30.6226, 117.985, -151.309, 116.226, 88.2183, 0, 0, 4.52955, -53.6965, 4.62404, -174.383, 4.54745, 65.1443, 0.0248026, -69.6868
0, 1200.00000, 115.815, -30.6226, 117.985, -151.309, 116.226, 88.2183, 0, 0, 4.52955, -53.6965, 4.62404, -174.383, 4.54745, 65.1443, 0.0248026, -69.6868
0, 1260.00000, 115.815, -30.6226, 117.985, -151.309, 116.226, 88.2183, 0, 0, 4.52955, -53.6965, 4.62404, -174.383, 4.54745, 65.1443, 0.0248026, -69.6868
0, 1320.00000, 115.815, -30.6226, 117.985, -151.309, 116.226, 88.2183, 0, 0, 4.52955, -53.6965, 4.62404, -174.383, 4.54745, 65.1443, 0.0248026, -69.6868
0, 1380.00000, 115.815, -30.6226, 117.985, -151.309, 116.226, 88.2183, 0, 0, 4.52955, -53.6965, 4.62404, -174.383, 4.54745, 65.1443, 0.0248026, -69.6868
0, 1440.00000, 115.815, -30.6226, 117.985, -151.309, 116.226, 88.2183, 0, 0, 4.52955, -53.6965, 4.62404, -174.383, 4.54745, 65.1443, 0.0248026, -69.6868
0, 1500.00000, 115.815, -30.6226, 117.985, -151.309, 116.226, 88.2183, 0, 0, 4.52955, -53.6965, 4.62404, -174.383, 4.54745, 65.1443, 0.0248026, -69.6868
0, 1560.00000, 115.815, -30.6226, 117.985, -151.309, 116.226, 88.2183, 0, 0, 4.52955, -53.6965, 4.62404, -174.383, 4.54745, 65.1443, 0.0248026, -69.6868
0, 1620.00000, 115.815, -30.6226, 117.985, -151.309, 116.226, 88.2183, 0, 0, 4.52955, -53.6965, 4.62404, -174.383, 4.54745, 65.1443, 0.0248026, -69.6868
0, 1680.00000, 115.815, -30.6226, 117.985, -151.309, 116.226, 88.2183, 0, 0, 4.52955, -53.6965, 4.62404, -174.383, 4.54745, 65.1443, 0.0248026, -69.6868
0, 1740.00000, 115.815, -30.6226, 117.985, -151.309, 116.226, 88.2183, 0, 0, 4.52955, -53.6965, 4.62404, -174.383, 4.54745, 65.1443, 0.0248026, -69.6868
0, 1800.00000, 114.904, -30.46, 117.993, -151.301, 115.485, 87.9077, 0, 0, 4.48994, -53.534, 4.62439, -174.375, 4.51521, 64.8342, 0.026248, -59.0306
0, 1860.00000, 114.904, -30.46, 117.993, -151.301, 115.485, 87.9077, 0, 0, 4.48988, -53.534, 4.6244, -174.375, 4.51517, 64.8338, 0.0262545, -58.9876
0, 1920.00000, 114.904, -30.46, 117.993, -151.301, 115.485, 87.9077, 0, 0, 4.48988, -53.534, 4.6244, -174.375, 4.51517, 64.8338, 0.0262544, -58.9875
0, 1980.00000, 114.904, -30.46, 117.993, -151.301, 115.485, 87.9077, 0, 0, 4.48988, -53.534, 4.6244, -174.375, 4.51517, 64.8338, 0.0262544, -58.9875
0, 2040.00000, 114.904, -30.46, 117.993, -151.301, 115.485, 87.9077, 0, 0, 4.48988, -53.534, 4.6244, -174.375, 4.51517, 64.8338, 0.0262544, -58.9875
0, 2100.00000, 114.904, -30.46, 117.993, -151.301, 115.485, 87.9077, 0, 0, 4.48988, -53.534, 4.6244, -174.375, 4.51517, 64.8338, 0.0262544, -58.9875
0, 2160.00000, 114.904, -30.46, 117.993, -151.301, 115.485, 87.9077, 0, 0, 4.48988, -53.534, 4.6244, -174.375, 4.51517, 64.8338, 0.0262544, -58.9875
0, 2220.00000, 114.904, -30.46, 117.993, -151.301, 115.485, 87.9077, 0, 0, 4.48988, -53.534, 4.6244, -174.375, 4.51517, 64.8338, 0.0262544, -58.9875
0, 2280.00000, 114.904, -30.46, 117.993, -151.301, 115.485, 87.9077, 0, 0, 4.48988, -53.534, 4.6244, -174.375, 4.51517, 64.8338, 0.0262544, -58.9875
0, 2340.00000, 114.904, -30.46, 117.993, -151.301, 115.485, 87.9077, 0, 0, 4.48988, -53.534, 4.6244, -174.375, 4.51517, 64.8338, 0.0262544, -58.9875
0, 2400.00000, 114.904, -30.46, 117.993, -151.301, 115.485, 87.9077, 0, 0, 4.48988, -53.534, 4.6244, -174.375, 4.51517, 64.8338, 0.0262544, -58.9875
0, 2460.00000, 114.904, -30.46, 117.993, -151.301, 115.485, 87.9077, 0, 0, 4.48988, -53.534, 4.6244, -174.375, 4.51517, 64.8338, 0.0262544, -58.9875
0, 2520.00000, 114.904, -30.46, 117.993, -151.301, 115.485, 87.9077, 0, 0, 4.48988, -53.534, 4.6244, -174.375, 4.51517, 64.8338, 0.0262544, -58.9875
0, 2580.00000, 114.904, -30.46, 117.993, -151.301, 115.485, 87.9077, 0, 0, 4.48988, -53.534, 4.6244, -174.375, 4.51517, 64.8338, 0.0262544, -58.9875
0, 2640.00000, 114.904, -30.46, 117.993, -151.301, 115.485, 87.9077, 0, 0, 4.48988, -53.534, 4.6244, -174.375, 4.51517, 64.8338, 0.0262544, -58.9875
0, 2700.00000, 114.904, -30.46, 117.993, -151.301, 115.485, 87.9077, 0, 0, 4.48988, -53.534, 4.6244, -174.375, 4.51517, 64.8338, 0.0262544, -58.9875
0, 2760.00000, 115.256, -30.4452, 117.993, -151.303, 115.64, 88.0649, 0, 0, 4.50516, -53.5193, 4.62439, -174.377, 4.52188, 64.9907, 0.0253363, -62.0191
0, 2820.00000, 115.256, -30.4451, 117.993, -151.303, 115.64, 88.0649, 0, 0, 4.50519, -53.5191, 4.62438, -174.377, 4.52191, 64.991, 0.0253538, -62.1159
0, 2880.00000, 115.256, -30.4451, 117.993, -151.303, 115.64, 88.0649, 0, 0, 4.50519, -53.5191, 4.62438, -174.377, 4.52191, 64.991, 0.0253539, -62.1164
0, 2940.00000, 115.256, -30.4451, 117.993, -151.303, 115.64, 88.0649, 0, 0, 4.50519, -53.5191, 4.62438, -174.377, 4.52191, 64.991, 0.0253539, -62.1164
0, 3000.00000, 115.256, -30.4451, 117.993, -151.303, 115.64, 88.0649, 0, 0, 4.50519, -53.5191, 4.62438, -174.377, 4.52191, 64.991, 0.0253539, -62.1164
0, 3060.00000, 115.256, -30.4451, 117.993, -151.303, 115.64, 88.0649, 0, 0, 4.50519, -53.5191, 4.62438, -174.377, 4.52191, 64.991, 0.0253539, -62.1164
0, 3120.00000, 115.256, -30.4451, 117.993, -151.303, 115.64, 88.0649, 0, 0, 4.50519, -53.5191, 4.62438, -174.377, 4.52191, 64.991, 0.0253539, -62.1164
0, 3180.00000, 115.256, -30.4451, 117.993, -151.303, 115.64, 88.0649, 0, 0, 4.50519, -53.5191, 4.62438, -174.377, 4.52191, 64.991, 0.0253539, -62.1164
0, 3240.00000, 115.256, -30.4451, 117.993, -151.303, 115.64, 88.0649, 0, 0, 4.50519, -53.5191, 4.62438, -174.377, 4.52191, 64.991, 0.0253539, -62.1164
0, 3300.00000, 115.256, -30.4451, 117.993, -151.303, 115.64, 88.0649, 0, 0, 4.50519, -53.5191, 4.62438, -174.377, 4.52191, 64.991, 0.0253539, -62.1164
0, 3360.00000, 115.256, -30.4451, 117.993, -151.303, 115.64, 88.0649, 0, 0, 4.50519, -53.5191, 4.62438, -174.377, 4.52191, 64.991, 0.0253539, -62.1164
0, 3420.00000, 115.256, -30.4451, 117.993, -151.303, 115.64, 88.0649, 0, 0, 4.50519, -53.5191, 4.62438, -174.377, 4.52191, 64.991, 0.0253539, -62.1164
0, 3480.00000, 115.256, -30.4451, 117.993, -151.303, 115.64, 88.0649, 0, 0, 4.50519, -53.5191, 4.62438, -174.377, 4.52191, 64.991, 0.0253539, -62.1164
0, 3540.00000, 115.256, -30.4451, 117.993, -151.303, 115.64, 88.0649, 0, 0, 4.50519, -53.5191, 4.62438, -174.377, 4.52191, 64.991, 0.0253539, -62.1164
1, 0.00000, 115.256, -30.4451, 117.993, -151.303, 115.64, 88.0649, 0, 0, 4.50519, -53.5191, 4.62438, -174.377, 4.52191, 64.991, 0.0253539, -62.1164
1, 60.00000, 115.553, -30.4206, 117.994, -151.304, 115.747, 88.2027, 0, 0, 4.51811, -53.4947, 4.62443, -174.378, 4.52656, 65.1286, 0.0244689, -64.3855
1, 120.00000, 115.553, -30.4206, 117.994, -151.304, 115.747, 88.2027, 0, 0, 4.51814, -53.4945, 4.62443, -174.378, 4.52658, 65.1287, 0.0244736, -64.4569
1, 180.00000, 115.553, -30.4206, 117.994, -151.304, 115.747, 88.2027, 0, 0, 4.51814, -53.4945, 4.62443, -174.378, 4.52658, 65.1287, 0.0244737, -64.4572
1, 240.00000, 115.553, -30.4206, 117.994, -151.304, 115.747, 88.2027, 0, 0, 4.51814, -53.4945, 4.62443, -174.378, 4.52658, 65.1287, 0.0244737, -64.4572
1, 300.00000, 115.553, -30.4206, 117.994, -151.304, 115.747, 88.2027, 0, 0, 4.51814, -53.4945, 4.62443, -174.378, 4.52658, 65.1287, 0.0244737, -64.4572
1, 360.00000, 115.553, -30.4206, 117.994, -151.304, 115.747, 88.2027, 0, 0, 4.51814, -53.4945, 4.62443, -174.378, 4.52658, 65.1287, 0.0244737, -64.4572
1, 420.00000, 115.553, -30.4206, 117.994, -151.304, 115.747, 88.2027, 0, 0, 4.51814, -53.4945, 4.62443, -174.378, 4.52658, 65.1287, 0.0244737, -64.4572
1, 480.00000, 115.553, -30.4206, 117.994, -151.304, 115.747, 88.2027, 0, 0, 4.51814, -53.4945, 4.62443, -174.378, 4.52658, 65.1287, 0.0244737, -64.4572
1, 540.00000, 115.553, -30.4206, 117.994, -151.304, 115.747, 88.2027, 0, 0, 4.51814, -53.4945, 4.62443, -174.378, 4.52658, 65.1287, 0.0244737, -64.4572
1, 600.00000, 115.553, -30.4206, 117.994, -151.304, 115.747, 88.2027, 0, 0, 4.51814, -53.4945, 4.62443, -174.378, 4.52658, 65.1287, 0.0244737, -64.4572
1, 660.00000, 115.553, -30.4206, 117.994, -151.304, 115.747, 88.2027, 0, 0, 4.51814, -53.4945, 4.62443, -174.378, 4.52658, 65.1287, 0.0244737, -64.4572
1, 720.00000, 115.553, -30.4206, 117.994, -151.304, 115.747, 88.2027, 0, 0, 4.51814, -53.4945, 4.62443, -174.378, 4.52658, 65.1287, 0.0244737, -64.4572
1, 780.00000, 116.061, -30.4465, 117.998, -151.306, 116.034, 88.4071, 0, 0, 4.54022, -53.5206, 4.6246, -174.38, 4.53908, 65.333, 0.0230358, -67.7958
1, 840.00000, 116.061, -30.4465, 117.998, -151.306, 116.034, 88.4071, 0, 0, 4.54026, -53.5204, 4.6246, -174.38, 4.53909, 65.3332, 0.0230211, -67.8647
1, 900.00000, 116.061, -30.4465, 117.998, -151.306, 116.034, 88.4071, 0, 0, 4.54026, -53.5204, 4.6246, -174.38, 4.53909, 65.3332, 0.0230211, -67.8651
1, 960.00000, 116.061, -30.4465, 117.998, -151.306, 116.034, 88.4071, 0, 0, 4.54026, -53.5204, 4.6246, -174.38, 4.53909, 65.3332, 0.0230211, -67.8651
1, 1020.00000, 116.061, -30.4465, 117.998, -151.306, 116.034, 88.4071, 0, 0, 4.54026, -53.5204, 4.6246, -174.38, 4.53909, 65.3332, 0.0230211, -67.8651
1, 1080.00000, 116.061, -30.4465, 117.998, -151.306, 116.034, 88.4071, 0, 0, 4.54026, -53.5204, 4.6246, -174.38, 4.53909, 65.3332, 0.0230211, -67.8651
1, 1140.00000, 116.061, -30.4465, 117.998, -151.306, 116.034, 88.4071, 0, 0, 4.54026, -53.5204, 4.6246, -174.38, 4.53909, 65.3332, 0.0230211, -67.8651
1, 1200.00000, 116.061, -30.4465, 117.998, -151.306, 116.034, 88.4071, 0, 0, 4.54026, -53.5204, 4.6246, -174.38, 4.53909, 65.3332, 0.0230211, -67.8651
1, 1260.00000, 116.061, -30.4465, 117.998, -151.306, 116.034, 88.4071, 0, 0, 4.54026, -53.5204, 4.6246, -174.38, 4.53909, 65.3332, 0.0230211, -67.8651
1, 1320.00000, 116.061, -30.4465, 117.998, -151.306, 116.034, 88.4071, 0, 0, 4.54026, -53.5204, 4.6246, -174.38, 4.53909, 65.3332, 0.0230211, -67.8651
1, 1380.00000, 116.061, -30.4465, 117.998, -151.306, 116.034, 88.4071, 0, 0, 4.54026, -53.5204, 4.6246, -174.38, 4.53909, 65.3332, 0.0230211, -67.8651
1, 1440.00000, 116.061, -30.4465, 117.998, -151.306, 116.034, 88.4071, 0, 0, 4.54026, -53.5204, 4.6246, -174.38, 4.53909, 65.3332, 0.0230211, -67.8651
1, 1500.00000, 116.061, -30.4465, 117.998, -151.306, 116.034, 88.4071, 0, 0, 4.54026, -53.5204, 4.6246, -174.38, 4.53909, 65.3332, 0.0230211, -67.8651
1, 1560.00000, 116.061, -30.4465, 117.998, -151.306, 116.034, 88.4071, 0, 0, 4.54026, -53.5204, 4.6246, -174.38, 4.53909, 65.3332, 0.0230211, -67.8651
1, 1620.00000, 116.061, -30.4465, 117.998, -151.306, 116.034, 88.4071, 0, 0, 4.54026, -53.5204, 4.6246, -174.38, 4.53909, 65.3332, 0.0230211, -67.8651
1, 1680.00000, 116.061, -30.4465, 117.998, -151.306, 116.034, 88.4071, 0, 0, 4.54026, -53.5204, 4.6246, -174.38, 4.53909, 65.3332, 0.0230211, -67.8651
1, 1740.00000, 116.061, -30.4465, 117.998, -151.306, 116.034, 88.4071, 0, 0, 4.54026, -53.5204, 4.6246, -174.38, 4.53909, 65.3332, 0.0230211, -67.8651
1, 1800.00000, 116.061, -30.4465, 117.998, -151.306, 116.034, 88.4071, 0, 0, 4.54026, -53.5204, 4.6246, -174.38, 4.53909, 65.3332, 0.0230211, -67.8651
1, 1860.00000, 116.061, -30.4465, 117.998, -151.306, 116.034, 88.4071, 0, 0, 4.54026, -53.5204, 4.6246, -174.38, 4.53909, 65.3332, 0.0230211, -67.8651
1, 1920.00000, 116.061, -30.4465, 117.998, -151.306, 116.034, 88.4071, 0, 0, 4.54026, -53.5204, 4.6246, -174.38, 4.53909, 65.3332, 0.0230211, -67.8651
1, 1980.00000, 116.061, -30.4465, 117.998, -151.306, 116.034, 88.4071, 0, 0, 4.54026, -53.5204, 4.6246, -174.38, 4.53909, 65.3332, 0.0230211, -67.8651
1, 2040.00000, 116.061, -30.4465, 117.998, -151.306, 116.034, 88.4071, 0, 0, 4.54026, -53.5204, 4.6246, -174.38, 4.53909, 65.3332, 0.0230211, -67.8651
1, 2100.00000, 116.061, -30.4465, 117.998, -151.306, 116.034, 88.4071, 0, 0, 4.54026, -53.5204, 4.6246, -174.38, 4.53909, 65.3332, 0.0230211, -67.8651
1, 2160.00000, 116.061, -30.4465, 117.998, -151.306, 116.034, 88.4071, 0, 0, 4.54026, -53.5204, 4.6246, -174.38, 4.53909, 65.3332, 0.0230211, -67.8651
1, 2220.00000, 116.998, -30.6038, 117.988, -151.313, 116.784, 88.7192, 0, 0, 4.58104, -53.6779, 4.62419, -174.386, 4.57171, 65.6451, 0.0218383, -81.4772
1, 2280.00000, 116.998, -30.6038, 117.988, -151.313, 116.784, 88.7192, 0, 0, 4.58108, -53.6777, 4.62418, -174.386, 4.57172, 65.6452, 0.0218261, -81.5727
1, 2340.00000, 116.998, -30.6038, 117.988, -151.313, 116.784, 88.7192, 0, 0, 4.58108, -53.6777, 4.62418, -174.386, 4.57172, 65.6452, 0.021826, -81.5731
1, 2400.00000, 116.998, -30.6038, 117.988, -151.313, 116.784, 88.7192, 0, 0, 4.58108, -53.6777, 4.62418, -174.386, 4.57172, 65.6452, 0.021826, -81.5731
1, 2460.00000, 116.998, -30.6038, 117.988, -151.313, 116.784, 88.7192, 0, 0, 4.58108, -53.6777, 4.62418, -174.386, 4.57172, 65.6452, 0.021826, -81.5731
1, 2520.00000, 116.998, -30.6038, 117.988, -151.313, 116.784, 88.7192, 0, 0, 4.58108, -53.6777, 4.62418, -174.386, 4.57172, 65.6452, 0.021826, -81.5731
1, 2580.00000, 116.998, -30.6038, 117.988, -151.313, 116.784, 88.7192, 0, 0, 4.58108, -53.6777, 4.62418, -174.386, 4.57172, 65.6452, 0.021826, -81.5731
1, 2640.00000, 116.998, -30.6038, 117.988, -151.313, 116.784, 88.7192, 0, 0, 4.58108, -53.6777, 4.62418, -174.386, 4.57172, 65.6452, 0.021826, -81.5731
1, 2700.00000, 116.998, -30.6038, 117.988, -151.313, 116.784, 88.7192, 0, 0, 4.58108, -53.6777, 4.62418, -174.386, 4.57172, 65.6452, 0.021826, -81.5731
1, 2760.00000, 116.998, -30.6038, 117.988, -151.313, 116.784, 88.7192, 0, 0, 4.58108, -53.6777, 4.62418, -174.386, 4.57172, 65.6452, 0.021826, -81.5731
1, 2820.00000, 116.998, -30.6038, 117.988, -151.313, 116.784, 88.7192, 0, 0, 4.58108, -53.6777, 4.62418, -174.386, 4.57172, 65.6452, 0.021826, -81.5731
1, 2880.00000, 116.998, -30.6038, 117.988, -151.313, 116.784, 88.7192, 0, 0, 4.58108, -53.6777, 4.62418, -174.386, 4.57172, 65.6452, 0.021826, -81.5731
1, 2940.00000, 116.998, -30.6038, 117.988, -151.313, 116.784, 88.7192, 0, 0, 4.58108, -53.6777, 4.62418, -174.386, 4.57172, 65.6452, 0.021826, -81.5731
1, 3000.00000, 116.998, -30.6038, 117.988, -151.313, 116.784, 88.7192, 0, 0, 4.58108, -53.6777, 4.62418, -174.386, 4.57172, 65.6452, 0.021826, -81.5731
1, 3060.00000, 116.998, -30.6038, 117.988, -151.313, 116.784, 88.7192, 0, 0, 4.58108, -53.6777, 4.62418, -174.386, 4.57172, 65.6452, 0.021826, -81.5731
1, 3120.00000, 116.998, -30.6038, 117.988, -151.313, 116.784, 88.7192, 0, 0, 4.58108, -53.6777, 4.62418, -174.386, 4.57172, 65.6452, 0.021826, -81.5731
1, 3180.00000, 116.998, -30.6038, 117.988, -151.313, 116.784, 88.7192, 0, 0, 4.58108, -53.6777, 4.62418, -174.386, 4.57172, 65.6452, 0.021826, -81.5731
1, 3240.00000, 116.998, -30.6038, 117.988, -151.313, 116.784, 88.7192, 0, 0, 4.58108, -53.6777, 4.62418, -174.386, 4.57172, 65.6452, 0.021826, -81.5731
1, 3300.00000, 116.998, -30.6038, 117.988, -151.313, 116.784, 88.7192, 0, 0, 4.58108, -53.6777, 4.62418, -174.386, 4.57172, 65.6452, 0.021826, -81.5731
1, 3360.00000, 116.998, -30.6038, 117.988, -151.313, 116.784, 88.7192, 0, 0, 4.58108, -53.6777, 4.62418, -174.386, 4.57172, 65.6452, 0.021826, -81.5731
1, 3420.00000, 116.998, -30.6038, 117.988, -151.313, 116.784, 88.7192, 0, 0, 4.58108, -53.6777, 4.62418, -174.386, 4.57172, 65.6452, 0.021826, -81.5731
1, 3480.00000, 116.998, -30.6038, 117.988, -151.313, 116.784, 88.7192, 0, 0, 4.58108, -53.6777, 4.62418, -174.386, 4.57172, 65.6452, 0.021826, -81.5731
1, 3540.00000, 116.998, -30.6038, 117.988, -151.313, 116.784, 88.7192, 0, 0, 4.58108, -53.6777, 4.62418, -174.386, 4.57172, 65.6452, 0.021826, -81.5731
2, 0.00000, 116.998, -30.6038, 117.988, -151.313, 116.784, 88.7192, 0, 0, 4.58108, -53.6777, 4.62418, -174.386, 4.57172, 65.6452, 0.021826, -81.5731
2, 60.00000, 116.998, -30.6038, 117.988, -151.313, 116.784, 88.7192, 0, 0, 4.58108, -53.6777, 4.62418, -174.386, 4.57172, 65.6452, 0.021826, -81.5731
2, 120.00000, 116.998, -30.6038, 117.988, -151.313, 116.784, 88.7192, 0, 0, 4.58108, -53.6777, 4.62418, -174.386, 4.57172, 65.6452, 0.021826, -81.5731
2, 180.00000, 116.998, -30.6038, 117.988, -151.313, 116.784, 88.7192, 0, 0, 4.58108, -53.6777, 4.62418, -174.386, 4.57172, 65.6452, 0.021826, -81.5731
2, 240.00000, 116.998, -30.6038, 117.988, -151.313, 116.784, 88.7192, 0, 0, 4.58108, -53.6777, 4.62418, -174.386, 4.57172, 65.6452, 0.021826, -81.5731
2, 300.00000, 116.998, -30.6038, 117.988, -151.313, 116.784, 88.7192, 0, 0, 4.58108, -53.6777, 4.62418, -174.386, 4.57172, 65.6452, 0.021826, -81.5731
2, 360.00000, 116.998, -30.6038, 117.988, -151.313, 116.784, 88.7192, 0, 0, 4.58108, -53.6777, 4.62418, -174.386, 4.57172, 65.6452, 0.021826, -81.5731
2, 420.00000, 116.998, -30.6038, 117.988, -151.313, 116.784, 88.7192, 0, 0, 4.58108, -53.6777, 4.62418, -174.386, 4.57172, 65.6452, 0.021826, -81.5731
2, 480.00000, 116.998, -30.6038, 117.988, -151.313, 116.784, 88.7192, 0, 0, 4.58108, -53.6777, 4.62418, -174.386, 4.57172, 65.6452, 0.021826, -81.5731
2, 540.00000, 116.998, -30.6038, 117.988, -151.313, 116.784, 88.7192, 0, 0, 4.58108, -53.6777, 4.62418, -174.386, 4.57172, 65.6452, 0.021826, -81.5731
2, 600.00000, 116.998, -30.6038, 117.988, -151.313, 116.784, 88.7192, 0, 0, 4.58108, -53.6777, 4.62418, -174.386, 4.57172, 65.6452, 0.021826, -81.5731
2, 660.00000, 116.998, -30.6038, 117.988, -151.313, 116.784, 88.7192, 0, 0, 4.58108, -53.6777, 4.62418, -174.386, 4.57172, 65.6452, 0.021826, -81.5731
