hour,t(sec),V1,VAngle1,V2,VAngle2,V3,VAngle3,V4,VAngle4,I1,IAngle1,I2,IAngle2,I3,IAngle3,I4,IAngle4
0, 60.00000, 117.158, -30.8736, 120.335, -151.281, 118.289, 87.7302, 0, 0, 8.11164, -53.9473, 8.35623, -174.355, 8.19873, 64.6566, 0.043897, -42.5032
0, 120.00000, 117.158, -30.8736, 120.335, -151.281, 118.289, 87.7302, 0, 0, 8.1116, -53.9475, 8.35619, -174.355, 8.19866, 64.6562, 0.0438646, -42.4604
0, 180.00000, 117.158, -30.8736, 120.335, -151.281, 118.289, 87.7302, 0, 0, 8.1116, -53.9475, 8.35619, -174.355, 8.19866, 64.6562, 0.0438644, -42.4602
0, 240.00000, 117.158, -30.8736, 120.335, -151.281, 118.289, 87.7302, 0, 0, 8.1116, -53.9475, 8.35619, -174.355, 8.19866, 64.6562, 0.0438644, -42.4602
0, 300.00000, 117.158, -30.8736, 120.335, -151.281, 118.289, 87.7302, 0, 0, 8.1116, -53.9475, 8.35619, -174.355, 8.19866, 64.6562, 0.0438644, -42.4602
0, 360.00000, 117.158, -30.8736, 120.335, -151.281, 118.289, 87.7302, 0, 0, 8.1116, -53.9475, 8.35619, -174.355, 8.19866, 64.6562, 0.0438644, -42.4602
0, 420.00000, 117.158, -30.8736, 120.335, -151.281, 118.289, 87.7302, 0, 0, 8.1116, -53.9475, 8.35619, -174.355, 8.19866, 64.6562, 0.0438644, -42.4602
0, 480.00000, 118.016, -30.7692, 121.201, -151.183, 119.094, 87.8437, 0, 0, 7.38893, -53.8431, 7.54002, -174.258, 7.46392, 64.7693, 0.0500883, -140.921
0, 540.00000, 118.016, -30.7692, 121.201, -151.183, 119.094, 87.8437, 0, 0, 7.38897, -53.8431, 7.53992, -174.257, 7.46397, 64.7698, 0.0501639, -140.978
0, 600.00000, 118.016, -30.7692, 121.201, -151.183, 119.094, 87.8437, 0, 0, 7.38897, -53.8431, 7.53992, -174.257, 7.46397, 64.7698, 0.0501642, -140.978
0, 660.00000, 118.016, -30.7692, 121.201, -151.183, 119.094, 87.8437, 0, 0, 7.38897, -53.8431, 7.53992, -174.257, 7.46397, 64.7698, 0.0501642, -140.978
0, 720.00000, 118.016, -30.7692, 121.201, -151.183, 119.094, 87.8437, 0, 0, 7.38897, -53.8431, 7.53992, -174.257, 7.46397, 64.7698, 0.0501642, -140.978
0, 780.00000, 118.016, -30.7692, 121.201, -151.183, 119.094, 87.8437, 0, 0, 7.38897, -53.8431, 7.53992, -174.257, 7.46397, 64.7698, 0.0501642, -140.978
0, 840.00000, 118.016, -30.7692, 121.201, -151.183, 119.094, 87.8437, 0, 0, 7.38897, -53.8431, 7.53992, -174.257, 7.46397, 64.7698, 0.0501642, -140.978
0, 900.00000, 118.016, -30.7692, 121.201, -151.183, 119.094, 87.8437, 0, 0, 7.38897, -53.8431, 7.53992, -174.257, 7.46397, 64.7698, 0.0501642, -140.978
0, 960.00000, 117.489, -30.7437, 121.197, -151.182, 118.798, 87.6338, 0, 0, 7.35239, -53.8176, 7.54019, -174.256, 7.44342, 64.5601, 0.0482681, -137.604
0, 1020.00000, 117.489, -30.7437, 121.197, -151.182, 118.798, 87.6338, 0, 0, 7.35236, -53.8176, 7.54019, -174.256, 7.44339, 64.5599, 0.048252, -137.601
0, 1080.00000, 117.489, -30.7437, 121.197, -151.182, 118.798, 87.6338, 0, 0, 7.35236, -53.8176, 7.54019, -174.256, 7.44339, 64.5599, 0.0482519, -137.601
0, 1140.00000, 117.489, -30.7437, 121.197, -151.182, 118.798, 87.6338, 0, 0, 7.35236, -53.8176, 7.54019, -174.256, 7.44339, 64.5599, 0.0482519, -137.601
0, 1200.00000, 117.489, -30.7437, 121.197, -151.182, 118.798, 87.6338, 0, 0, 7.35236, -53.8176, 7.54019, -174.256, 7.44339, 64.5599, 0.0482519, -137.601
0, 1260.00000, 117.489, -30.7437, 121.197, -151.182, 118.798, 87.6338, 0, 0, 7.35236, -53.8176, 7.54019, -174.256, 7.44339, 64.5599, 0.0482519, -137.601
0, 1320.00000, 117.489, -30.7437, 121.197, -151.182, 118.798, 87.6338, 0, 0, 7.35236, -53.8176, 7.54019, -174.256, 7.44339, 64.5599, 0.0482519, -137.601
0, 1380.00000, 117.489, -30.7437, 121.197, -151.182, 118.798, 87.6338, 0, 0, 7.35236, -53.8176, 7.54019, -174.256, 7.44339, 64.5599, 0.0482519, -137.601
0, 1440.00000, 117.489, -30.7437, 121.197, -151.182, 118.798, 87.6338, 0, 0, 7.35236, -53.8176, 7.54019, -174.256, 7.44339, 64.5599, 0.0482519, -137.601
0, 1500.00000, 117.489, -30.7437, 121.197, -151.182, 118.798, 87.6338, 0, 0, 7.35236, -53.8176, 7.54019, -174.256, 7.44339, 64.5599, 0.0482519, -137.601
0, 1560.00000, 117.489, -30.7437, 121.197, -151.182, 118.798, 87.6338, 0, 0, 7.35236, -53.8176, 7.54019, -174.256, 7.44339, 64.5599, 0.0482519, -137.601
0, 1620.00000, 117.489, -30.7437, 121.197, -151.182, 118.798, 87.6338, 0, 0, 7.35236, -53.8176, 7.54019, -174.256, 7.44339, 64.5599, 0.0482519, -137.601
0, 1680.00000, 117.489, -30.7437, 121.197, -151.182, 118.798, 87.6338, 0, 0, 7.35236, -53.8176, 7.54019, -174.256, 7.44339, 64.5599, 0.0482519, -137.601
0, 1740.00000, 117.489, -30.7437, 121.197, -151.182, 118.798, 87.6338, 0, 0, 7.35236, -53.8176, 7.54019, -174.256, 7.44339, 64.5599, 0.0482519, -137.601
0, 1800.00000, 116.934, -30.7085, 121.192, -151.18, 118.471, 87.412, 0, 0, 7.31381, -53.7823, 7.54052, -174.254, 7.42067, 64.3384, 0.0463384, -134.236
0, 1860.00000, 116.934, -30.7085, 121.192, -151.18, 118.471, 87.412, 0, 0, 7.31376, -53.7824, 7.54052, -174.254, 7.42065, 64.3381, 0.0463285, -134.226
0, 1920.00000, 116.934, -30.7085, 121.192, -151.18, 118.471, 87.412, 0, 0, 7.31376, -53.7824, 7.54052, -174.254, 7.42065, 64.3381, 0.0463285, -134.226
0, 1980.00000, 116.934, -30.7085, 121.192, -151.18, 118.471, 87.412, 0, 0, 7.31376, -53.7824, 7.54052, -174.254, 7.42065, 64.3381, 0.0463285, -134.226
0, 2040.00000, 116.934, -30.7085, 121.192, -151.18, 118.471, 87.412, 0, 0, 7.31376, -53.7824, 7.54052, -174.254, 7.42065, 64.3381, 0.0463285, -134.226
0, 2100.00000, 116.934, -30.7085, 121.192, -151.18, 118.471, 87.412, 0, 0, 7.31376, -53.7824, 7.54052, -174.254, 7.42065, 64.3381, 0.0463285, -134.226
0, 2160.00000, 116.934, -30.7085, 121.192, -151.18, 118.471, 87.412, 0, 0, 7.31376, -53.7824, 7.54052, -174.254, 7.42065, 64.3381, 0.0463285, -134.226
0, 2220.00000, 116.934, -30.7085, 121.192, -151.18, 118.471, 87.412, 0, 0, 7.31376, -53.7824, 7.54052, -174.254, 7.42065, 64.3381, 0.0463285, -134.226
0, 2280.00000, 116.934, -30.7085, 121.192, -151.18, 118.471, 87.412, 0, 0, 7.31376, -53.7824, 7.54052, -174.254, 7.42065, 64.3381, 0.0463285, -134.226
0, 2340.00000, 116.934, -30.7085, 121.192, -151.18, 118.471, 87.412, 0, 0, 7.31376, -53.7824, 7.54052, -174.254, 7.42065, 64.3381, 0.0463285, -134.226
0, 2400.00000, 116.934, -30.7085, 121.192, -151.18, 118.471, 87.412, 0, 0, 7.31376, -53.7824, 7.54052, -174.254, 7.42065, 64.3381, 0.0463285, -134.226
0, 2460.00000, 116.934, -30.7085, 121.192, -151.18, 118.471, 87.412, 0, 0, 7.31376, -53.7824, 7.54052, -174.254, 7.42065, 64.3381, 0.0463285, -134.226
0, 2520.00000, 116.934, -30.7085, 121.192, -151.18, 118.471, 87.412, 0, 0, 7.31376, -53.7824, 7.54052, -174.254, 7.42065, 64.3381, 0.0463285, -134.226
0, 2580.00000, 116.934, -30.7085, 121.192, -151.18, 118.471, 87.412, 0, 0, 7.31376, -53.7824, 7.54052, -174.254, 7.42065, 64.3381, 0.0463285, -134.226
0, 2640.00000, 116.934, -30.7085, 121.192, -151.18, 118.471, 87.412, 0, 0, 7.31376, -53.7824, 7.54052, -174.254, 7.42065, 64.3381, 0.0463285, -134.226
0, 2700.00000, 116.934, -30.7085, 121.192, -151.18, 118.471, 87.412, 0, 0, 7.31376, -53.7824, 7.54052, -174.254, 7.42065, 64.3381, 0.0463285, -134.226
0, 2760.00000, 117.225, -30.6804, 121.192, -151.181, 118.567, 87.5477, 0, 0, 7.33393, -53.7545, 7.54049, -174.255, 7.42731, 64.4735, 0.0472946, -136.29
0, 2820.00000, 117.225, -30.6804, 121.192, -151.181, 118.567, 87.5477, 0, 0, 7.33397, -53.7543, 7.54049, -174.255, 7.42735, 64.4738, 0.0473426, -136.269
0, 2880.00000, 117.225, -30.6804, 121.192, -151.181, 118.567, 87.5477, 0, 0, 7.33397, -53.7543, 7.54049, -174.255, 7.42735, 64.4738, 0.0473428, -136.269
0, 2940.00000, 117.225, -30.6804, 121.192, -151.181, 118.567, 87.5477, 0, 0, 7.33397, -53.7543, 7.54049, -174.255, 7.42735, 64.4738, 0.0473428, -136.269
0, 3000.00000, 117.225, -30.6804, 121.192, -151.181, 118.567, 87.5477, 0, 0, 7.33397, -53.7543, 7.54049, -174.255, 7.42735, 64.4738, 0.0473428, -136.269
0, 3060.00000, 117.225, -30.6804, 121.192, -151.181, 118.567, 87.5477, 0, 0, 7.33397, -53.7543, 7.54049, -174.255, 7.42735, 64.4738, 0.0473428, -136.269
0, 3120.00000, 117.225, -30.6804, 121.192, -151.181, 118.567, 87.5477, 0, 0, 7.33397, -53.7543, 7.54049, -174.255, 7.42735, 64.4738, 0.0473428, -136.269
0, 3180.00000, 117.225, -30.6804, 121.192, -151.181, 118.567, 87.5477, 0, 0, 7.33397, -53.7543, 7.54049, -174.255, 7.42735, 64.4738, 0.0473428, -136.269
0, 3240.00000, 117.225, -30.6804, 121.192, -151.181, 118.567, 87.5477, 0, 0, 7.33397, -53.7543, 7.54049, -174.255, 7.42735, 64.4738, 0.0473428, -136.269
0, 3300.00000, 117.225, -30.6804, 121.192, -151.181, 118.567, 87.5477, 0, 0, 7.33397, -53.7543, 7.54049, -174.255, 7.42735, 64.4738, 0.0473428, -136.269
0, 3360.00000, 117.225, -30.6804, 121.192, -151.181, 118.567, 87.5477, 0, 0, 7.33397, -53.7543, 7.54049, -174.255, 7.42735, 64.4738, 0.0473428, -136.269
0, 3420.00000, 117.225, -30.6804, 121.192, -151.181, 118.567, 87.5477, 0, 0, 7.33397, -53.7543, 7.54049, -174.255, 7.42735, 64.4738, 0.0473428, -136.269
0, 3480.00000, 117.225, -30.6804, 121.192, -151.181, 118.567, 87.5477, 0, 0, 7.33397, -53.7543, 7.54049, -174.255, 7.42735, 64.4738, 0.0473428, -136.269
0, 3540.00000, 117.225, -30.6804, 121.192, -151.181, 118.567, 87.5477, 0, 0, 7.33397, -53.7543, 7.54049, -174.255, 7.42735, 64.4738, 0.0473428, -136.269
1, 0.00000, 117.225, -30.6804, 121.192, -151.181, 118.567, 87.5477, 0, 0, 7.33397, -53.7543, 7.54049, -174.255, 7.42735, 64.4738, 0.0473428, -136.269
1, 60.00000, 117.502, -30.651, 121.193, -151.181, 118.653, 87.6776, 0, 0, 7.35318, -53.7251, 7.54044, -174.255, 7.43325, 64.6035, 0.0482014, -138.307
1, 120.00000, 117.502, -30.651, 121.193, -151.181, 118.653, 87.6776, 0, 0, 7.35321, -53.7249, 7.54044, -174.255, 7.43328, 64.6037, 0.0482353, -138.303
1, 180.00000, 117.502, -30.651, 121.193, -151.181, 118.653, 87.6776, 0, 0, 7.35321, -53.7249, 7.54044, -174.255, 7.43328, 64.6037, 0.0482354, -138.303
1, 240.00000, 117.502, -30.651, 121.193, -151.181, 118.653, 87.6776, 0, 0, 7.35321, -53.7249, 7.54044, -174.255, 7.43328, 64.6037, 0.0482354, -138.303
1, 300.00000, 117.502, -30.651, 121.193, -151.181, 118.653, 87.6776, 0, 0, 7.35321, -53.7249, 7.54044, -174.255, 7.43328, 64.6037, 0.0482354, -138.303
1, 360.00000, 117.502, -30.651, 121.193, -151.181, 118.653, 87.6776, 0, 0, 7.35321, -53.7249, 7.54044, -174.255, 7.43328, 64.6037, 0.0482354, -138.303
1, 420.00000, 117.502, -30.651, 121.193, -151.181, 118.653, 87.6776, 0, 0, 7.35321, -53.7249, 7.54044, -174.255, 7.43328, 64.6037, 0.0482354, -138.303
1, 480.00000, 117.502, -30.651, 121.193, -151.181, 118.653, 87.6776, 0, 0, 7.35321, -53.7249, 7.54044, -174.255, 7.43328, 64.6037, 0.0482354, -138.303
1, 540.00000, 117.502, -30.651, 121.193, -151.181, 118.653, 87.6776, 0, 0, 7.35321, -53.7249, 7.54044, -174.255, 7.43328, 64.6037, 0.0482354, -138.303
1, 600.00000, 117.502, -30.651, 121.193, -151.181, 118.653, 87.6776, 0, 0, 7.35321, -53.7249, 7.54044, -174.255, 7.43328, 64.6037, 0.0482354, -138.303
1, 660.00000, 117.502, -30.651, 121.193, -151.181, 118.653, 87.6776, 0, 0, 7.35321, -53.7249, 7.54044, -174.255, 7.43328, 64.6037, 0.0482354, -138.303
1, 720.00000, 117.502, -30.651, 121.193, -151.181, 118.653, 87.6776, 0, 0, 7.35321, -53.7249, 7.54044, -174.255, 7.43328, 64.6037, 0.0482354, -138.303
1, 780.00000, 118.589, -30.8537, 121.177, -151.185, 119.575, 88.029, 0, 0, 7.42883, -53.9278, 7.5414, -174.259, 7.49741, 64.9549, 0.0556918, -142.929
1, 840.00000, 118.589, -30.8537, 121.177, -151.185, 119.575, 88.029, 0, 0, 7.42889, -53.9276, 7.54141, -174.259, 7.49743, 64.9551, 0.0557157, -142.951
1, 900.00000, 118.589, -30.8537, 121.177, -151.185, 119.575, 88.029, 0, 0, 7.42889, -53.9276, 7.54141, -174.259, 7.49743, 64.9551, 0.0557157, -142.951
1, 960.00000, 118.589, -30.8537, 121.177, -151.185, 119.575, 88.029, 0, 0, 7.42889, -53.9276, 7.54141, -174.259, 7.49743, 64.9551, 0.0557157, -142.951
1, 1020.00000, 118.589, -30.8537, 121.177, -151.185, 119.575, 88.029, 0, 0, 7.42889, -53.9276, 7.54141, -174.259, 7.49743, 64.9551, 0.0557157, -142.951
1, 1080.00000, 118.589, -30.8537, 121.177, -151.185, 119.575, 88.029, 0, 0, 7.42889, -53.9276, 7.54141, -174.259, 7.49743, 64.9551, 0.0557157, -142.951
1, 1140.00000, 118.589, -30.8537, 121.177, -151.185, 119.575, 88.029, 0, 0, 7.42889, -53.9276, 7.54141, -174.259, 7.49743, 64.9551, 0.0557157, -142.951
1, 1200.00000, 118.589, -30.8537, 121.177, -151.185, 119.575, 88.029, 0, 0, 7.42889, -53.9276, 7.54141, -174.259, 7.49743, 64.9551, 0.0557157, -142.951
1, 1260.00000, 118.589, -30.8537, 121.177, -151.185, 119.575, 88.029, 0, 0, 7.42889, -53.9276, 7.54141, -174.259, 7.49743, 64.9551, 0.0557157, -142.951
1, 1320.00000, 118.589, -30.8537, 121.177, -151.185, 119.575, 88.029, 0, 0, 7.42889, -53.9276, 7.54141, -174.259, 7.49743, 64.9551, 0.0557157, -142.951
1, 1380.00000, 118.589, -30.8537, 121.177, -151.185, 119.575, 88.029, 0, 0, 7.42889, -53.9276, 7.54141, -174.259, 7.49743, 64.9551, 0.0557157, -142.951
1, 1440.00000, 118.589, -30.8537, 121.177, -151.185, 119.575, 88.029, 0, 0, 7.42889, -53.9276, 7.54141, -174.259, 7.49743, 64.9551, 0.0557157, -142.951
1, 1500.00000, 118.589, -30.8537, 121.177, -151.185, 119.575, 88.029, 0, 0, 7.42889, -53.9276, 7.54141, -174.259, 7.49743, 64.9551, 0.0557157, -142.951
1, 1560.00000, 118.589, -30.8537, 121.177, -151.185, 119.575, 88.029, 0, 0, 7.42889, -53.9276, 7.54141, -174.259, 7.49743, 64.9551, 0.0557157, -142.951
1, 1620.00000, 118.589, -30.8537, 121.177, -151.185, 119.575, 88.029, 0, 0, 7.42889, -53.9276, 7.54141, -174.259, 7.49743, 64.9551, 0.0557157, -142.951
1, 1680.00000, 118.589, -30.8537, 121.177, -151.185, 119.575, 88.029, 0, 0, 7.42889, -53.9276, 7.54141, -174.259, 7.49743, 64.9551, 0.0557157, -142.951
1, 1740.00000, 118.589, -30.8537, 121.177, -151.185, 119.575, 88.029, 0, 0, 7.42889, -53.9276, 7.54141, -174.259, 7.49743, 64.9551, 0.0557157, -142.951
1, 1800.00000, 118.589, -30.8537, 121.177, -151.185, 119.575, 88.029, 0, 0, 7.42889, -53.9276, 7.54141, -174.259, 7.49743, 64.9551, 0.0557157, -142.951
1, 1860.00000, 118.589, -30.8537, 121.177, -151.185, 119.575, 88.029, 0, 0, 7.42889, -53.9276, 7.54141, -174.259, 7.49743, 64.9551, 0.0557157, -142.951
1, 1920.00000, 118.589, -30.8537, 121.177, -151.185, 119.575, 88.029, 0, 0, 7.42889, -53.9276, 7.54141, -174.259, 7.49743, 64.9551, 0.0557157, -142.951
1, 1980.00000, 118.589, -30.8537, 121.177, -151.185, 119.575, 88.029, 0, 0, 7.42889, -53.9276, 7.54141, -174.259, 7.49743, 64.9551, 0.0557157, -142.951
1, 2040.00000, 118.589, -30.8537, 121.177, -151.185, 119.575, 88.029, 0, 0, 7.42889, -53.9276, 7.54141, -174.259, 7.49743, 64.9551, 0.0557157, -142.951
1, 2100.00000, 118.589, -30.8537, 121.177, -151.185, 119.575, 88.029, 0, 0, 7.42889, -53.9276, 7.54141, -174.259, 7.49743, 64.9551, 0.0557157, -142.951
1, 2160.00000, 118.589, -30.8537, 121.177, -151.185, 119.575, 88.029, 0, 0, 7.42889, -53.9276, 7.54141, -174.259, 7.49743, 64.9551, 0.0557157, -142.951
1, 2220.00000, 119.17, -30.8843, 121.181, -151.186, 119.909, 88.2523, 0, 0, 7.46922, -53.9584, 7.54118, -174.259, 7.52063, 65.1783, 0.0580853, -146.531
1, 2280.00000, 119.17, -30.8843, 121.181, -151.186, 119.909, 88.2523, 0, 0, 7.46927, -53.9582, 7.54119, -174.259, 7.52065, 65.1784, 0.0581091, -146.558
1, 2340.00000, 119.17, -30.8843, 121.181, -151.186, 119.909, 88.2523, 0, 0, 7.46927, -53.9582, 7.54119, -174.259, 7.52065, 65.1784, 0.0581092, -146.558
1, 2400.00000, 119.17, -30.8843, 121.181, -151.186, 119.909, 88.2523, 0, 0, 7.46927, -53.9582, 7.54119, -174.259, 7.52065, 65.1784, 0.0581092, -146.558
1, 2460.00000, 119.17, -30.8843, 121.181, -151.186, 119.909, 88.2523, 0, 0, 7.46927, -53.9582, 7.54119, -174.259, 7.52065, 65.1784, 0.0581092, -146.558
1, 2520.00000, 119.17, -30.8843, 121.181, -151.186, 119.909, 88.2523, 0, 0, 7.46927, -53.9582, 7.54119, -174.259, 7.52065, 65.1784, 0.0581092, -146.558
1, 2580.00000, 119.17, -30.8843, 121.181, -151.186, 119.909, 88.2523, 0, 0, 7.46927, -53.9582, 7.54119, -174.259, 7.52065, 65.1784, 0.0581092, -146.558
1, 2640.00000, 119.17, -30.8843, 121.181, -151.186, 119.909, 88.2523, 0, 0, 7.46927, -53.9582, 7.54119, -174.259, 7.52065, 65.1784, 0.0581092, -146.558
1, 2700.00000, 119.17, -30.8843, 121.181, -151.186, 119.909, 88.2523, 0, 0, 7.46927, -53.9582, 7.54119, -174.259, 7.52065, 65.1784, 0.0581092, -146.558
1, 2760.00000, 119.17, -30.8843, 121.181, -151.186, 119.909, 88.2523, 0, 0, 7.46927, -53.9582, 7.54119, -174.259, 7.52065, 65.1784, 0.0581092, -146.558
1, 2820.00000, 119.17, -30.8843, 121.181, -151.186, 119.909, 88.2523, 0, 0, 7.46927, -53.9582, 7.54119, -174.259, 7.52065, 65.1784, 0.0581092, -146.558
1, 2880.00000, 119.17, -30.8843, 121.181, -151.186, 119.909, 88.2523, 0, 0, 7.46927, -53.9582, 7.54119, -174.259, 7.52065, 65.1784, 0.0581092, -146.558
1, 2940.00000, 119.17, -30.8843, 121.181, -151.186, 119.909, 88.2523, 0, 0, 7.46927, -53.9582, 7.54119, -174.259, 7.52065, 65.1784, 0.0581092, -146.558
1, 3000.00000, 119.17, -30.8843, 121.181, -151.186, 119.909, 88.2523, 0, 0, 7.46927, -53.9582, 7.54119, -174.259, 7.52065, 65.1784, 0.0581092, -146.558
1, 3060.00000, 119.17, -30.8843, 121.181, -151.186, 119.909, 88.2523, 0, 0, 7.46927, -53.9582, 7.54119, -174.259, 7.52065, 65.1784, 0.0581092, -146.558
1, 3120.00000, 119.17, -30.8843, 121.181, -151.186, 119.909, 88.2523, 0, 0, 7.46927, -53.9582, 7.54119, -174.259, 7.52065, 65.1784, 0.0581092, -146.558
1, 3180.00000, 119.17, -30.8843, 121.181, -151.186, 119.909, 88.2523, 0, 0, 7.46927, -53.9582, 7.54119, -174.259, 7.52065, 65.1784, 0.0581092, -146.558
1, 3240.00000, 119.17, -30.8843, 121.181, -151.186, 119.909, 88.2523, 0, 0, 7.46927, -53.9582, 7.54119, -174.259, 7.52065, 65.1784, 0.0581092, -146.558
1, 3300.00000, 119.17, -30.8843, 121.181, -151.186, 119.909, 88.2523, 0, 0, 7.46927, -53.9582, 7.54119, -174.259, 7.52065, 65.1784, 0.0581092, -146.558
1, 3360.00000, 119.17, -30.8843, 121.181, -151.186, 119.909, 88.2523, 0, 0, 7.46927, -53.9582, 7.54119, -174.259, 7.52065, 65.1784, 0.0581092, -146.558
1, 3420.00000, 119.17, -30.8843, 121.181, -151.186, 119.909, 88.2523, 0, 0, 7.46927, -53.9582, 7.54119, -174.259, 7.52065, 65.1784, 0.0581092, -146.558
1, 3480.00000, 119.17, -30.8843, 121.181, -151.186, 119.909, 88.2523, 0, 0, 7.46927, -53.9582, 7.54119, -174.259, 7.52065, 65.1784, 0.0581092, -146.558
1, 3540.00000, 119.17, -30.8843, 121.181, -151.186, 119.909, 88.2523, 0, 0, 7.46927, -53.9582, 7.54119, -174.259, 7.52065, 65.1784, 0.0581092, -146.558
2, 0.00000, 119.17, -30.8843, 121.181, -151.186, 119.909, 88.2523, 0, 0, 7.46927, -53.9582, 7.54119, -174.259, 7.52065, 65.1784, 0.0581092, -146.558
2, 60.00000, 119.17, -30.8843, 121.181, -151.186, 119.909, 88.2523, 0, 0, 7.46927, -53.9582, 7.54119, -174.259, 7.52065, 65.1784, 0.0581092, -146.558
2, 120.00000, 119.17, -30.8843, 121.181, -151.186, 119.909, 88.2523, 0, 0, 7.46927, -53.9582, 7.54119, -174.259, 7.52065, 65.1784, 0.0581092, -146.558
2, 180.00000, 119.17, -30.8843, 121.181, -151.186, 119.909, 88.2523, 0, 0, 7.46927, -53.9582, 7.54119, -174.259, 7.52065, 65.1784, 0.0581092, -146.558
2, 240.00000, 119.17, -30.8843, 121.181, -151.186, 119.909, 88.2523, 0, 0, 7.46927, -53.9582, 7.54119, -174.259, 7.52065, 65.1784, 0.0581092, -146.558
2, 300.00000, 119.17, -30.8843, 121.181, -151.186, 119.909, 88.2523, 0, 0, 7.46927, -53.9582, 7.54119, -174.259, 7.52065, 65.1784, 0.0581092, -146.558
2, 360.00000, 119.17, -30.8843, 121.181, -151.186, 119.909, 88.2523, 0, 0, 7.46927, -53.9582, 7.54119, -174.259, 7.52065, 65.1784, 0.0581092, -146.558
2, 420.00000, 119.17, -30.8843, 121.181, -151.186, 119.909, 88.2523, 0, 0, 7.46927, -53.9582, 7.54119, -174.259, 7.52065, 65.1784, 0.0581092, -146.558
2, 480.00000, 119.17, -30.8843, 121.181, -151.186, 119.909, 88.2523, 0, 0, 7.46927, -53.9582, 7.54119, -174.259, 7.52065, 65.1784, 0.0581092, -146.558
2, 540.00000, 119.17, -30.8843, 121.181, -151.186, 119.909, 88.2523, 0, 0, 7.46927, -53.9582, 7.54119, -174.259, 7.52065, 65.1784, 0.0581092, -146.558
2, 600.00000, 119.17, -30.8843, 121.181, -151.186, 119.909, 88.2523, 0, 0, 7.46927, -53.9582, 7.54119, -174.259, 7.52065, 65.1784, 0.0581092, -146.558
2, 660.00000, 119.17, -30.8843, 121.181, -151.186, 119.909, 88.2523, 0, 0, 7.46927, -53.9582, 7.54119, -174.259, 7.52065, 65.1784, 0.0581092, -146.558
