hour,t(sec),V1,VAngle1,V2,VAngle2,V3,VAngle3,V4,VAngle4,I1,IAngle1,I2,IAngle2,I3,IAngle3,I4,IAngle4
0, 60.00000, 123.834, -31.8102, 123.364, -151.35, 124.855, 88.6308, 0, 0, 8.22684, -54.8839, 8.25815, -174.424, 8.15974, 65.5569, 0.151234, 43.1686
0, 120.00000, 123.84, -31.8163, 123.364, -151.35, 124.873, 88.6303, 0, 0, 8.22643, -54.8901, 8.25817, -174.424, 8.15858, 65.5564, 0.153108, 43.1475
0, 180.00000, 123.846, -31.8219, 123.364, -151.35, 124.889, 88.6299, 0, 0, 8.22605, -54.8957, 8.25818, -174.424, 8.15753, 65.556, 0.154798, 43.1292
0, 240.00000, 123.851, -31.8269, 123.364, -151.35, 124.903, 88.6296, 0, 0, 8.22572, -54.9007, 8.2582, -174.424, 8.15658, 65.5557, 0.156328, 43.1129
0, 300.00000, 123.855, -31.8314, 123.364, -151.351, 124.916, 88.6293, 0, 0, 8.22542, -54.9053, 8.25821, -174.424, 8.15572, 65.5554, 0.157711, 43.0985
0, 360.00000, 123.859, -31.8355, 123.363, -151.351, 124.928, 88.6291, 0, 0, 8.22514, -54.9093, 8.25822, -174.424, 8.15495, 65.5552, 0.158956, 43.0862
0, 420.00000, 123.863, -31.8392, 123.363, -151.351, 124.938, 88.6288, 0, 0, 8.2249, -54.913, 8.25823, -174.425, 8.15425, 65.5549, 0.160076, 43.0756
0, 480.00000, 124.465, -31.7372, 123.942, -151.237, 125.556, 88.7521, 0, 0, 7.39573, -54.811, 7.42694, -174.311, 7.33157, 65.6782, 0.147468, 42.4624
0, 540.00000, 124.468, -31.7402, 123.942, -151.237, 125.565, 88.7519, 0, 0, 7.39555, -54.814, 7.42695, -174.311, 7.33106, 65.678, 0.148292, 42.4582
0, 600.00000, 124.471, -31.7429, 123.942, -151.237, 125.572, 88.7517, 0, 0, 7.39539, -54.8167, 7.42695, -174.311, 7.33061, 65.6778, 0.14903, 42.4546
0, 660.00000, 124.473, -31.7453, 123.942, -151.237, 125.579, 88.7515, 0, 0, 7.39525, -54.8192, 7.42696, -174.311, 7.3302, 65.6777, 0.149694, 42.4515
0, 720.00000, 124.476, -31.7475, 123.942, -151.237, 125.585, 88.7514, 0, 0, 7.39512, -54.8214, 7.42697, -174.311, 7.32983, 65.6775, 0.150293, 42.4489
0, 780.00000, 124.478, -31.7495, 123.942, -151.237, 125.591, 88.7512, 0, 0, 7.395, -54.8233, 7.42697, -174.311, 7.3295, 65.6773, 0.150831, 42.4467
0, 840.00000, 124.479, -31.7513, 123.942, -151.237, 125.596, 88.7511, 0, 0, 7.3949, -54.8251, 7.42697, -174.311, 7.3292, 65.6772, 0.151316, 42.4447
0, 900.00000, 124.481, -31.7529, 123.942, -151.237, 125.6, 88.751, 0, 0, 7.3948, -54.8267, 7.42698, -174.311, 7.32893, 65.6771, 0.151752, 42.443
0, 960.00000, 124.482, -31.7543, 123.942, -151.237, 125.605, 88.7509, 0, 0, 7.39472, -54.8282, 7.42698, -174.311, 7.32869, 65.677, 0.152144, 42.4416
0, 1020.00000, 124.484, -31.7556, 123.942, -151.237, 125.608, 88.7508, 0, 0, 7.39464, -54.8295, 7.42698, -174.311, 7.32847, 65.6769, 0.152498, 42.4403
0, 1080.00000, 124.485, -31.7568, 123.942, -151.237, 125.612, 88.7507, 0, 0, 7.39457, -54.8307, 7.42699, -174.311, 7.32828, 65.6768, 0.152816, 42.4392
0, 1140.00000, 124.486, -31.7579, 123.942, -151.237, 125.615, 88.7506, 0, 0, 7.39451, -54.8317, 7.42699, -174.311, 7.3281, 65.6767, 0.153102, 42.4382
0, 1200.00000, 124.487, -31.7588, 123.942, -151.237, 125.617, 88.7505, 0, 0, 7.39446, -54.8327, 7.42699, -174.311, 7.32794, 65.6766, 0.15336, 42.4374
0, 1260.00000, 124.488, -31.7597, 123.941, -151.237, 125.62, 88.7505, 0, 0, 7.39441, -54.8335, 7.42699, -174.311, 7.3278, 65.6766, 0.153591, 42.4366
0, 1320.00000, 124.488, -31.7604, 123.941, -151.237, 125.622, 88.7504, 0, 0, 7.39436, -54.8343, 7.427, -174.311, 7.32767, 65.6765, 0.1538, 42.436
0, 1380.00000, 124.489, -31.7611, 123.941, -151.237, 125.624, 88.7504, 0, 0, 7.39432, -54.835, 7.427, -174.311, 7.32756, 65.6765, 0.153988, 42.4354
0, 1440.00000, 124.49, -31.7617, 123.941, -151.237, 125.625, 88.7503, 0, 0, 7.39428, -54.8356, 7.427, -174.311, 7.32745, 65.6764, 0.154157, 42.4349
0, 1500.00000, 124.49, -31.7623, 123.941, -151.237, 125.627, 88.7503, 0, 0, 7.39425, -54.8362, 7.427, -174.311, 7.32736, 65.6764, 0.154309, 42.4344
0, 1560.00000, 124.491, -31.7628, 123.941, -151.237, 125.628, 88.7502, 0, 0, 7.39422, -54.8367, 7.427, -174.311, 7.32728, 65.6763, 0.154446, 42.4341
0, 1620.00000, 124.491, -31.7633, 123.941, -151.237, 125.63, 88.7502, 0, 0, 7.39419, -54.8372, 7.427, -174.311, 7.3272, 65.6763, 0.154569, 42.4337
0, 1680.00000, 124.492, -31.7637, 123.941, -151.237, 125.631, 88.7502, 0, 0, 7.39417, -54.8376, 7.427, -174.311, 7.32713, 65.6763, 0.15468, 42.4334
0, 1740.00000, 124.492, -31.764, 123.941, -151.237, 125.632, 88.7501, 0, 0, 7.39415, -54.8379, 7.427, -174.311, 7.32707, 65.6762, 0.15478, 42.4331
0, 1800.00000, 124.492, -31.7644, 123.941, -151.237, 125.633, 88.7501, 0, 0, 7.39413, -54.8383, 7.427, -174.311, 7.32701, 65.6762, 0.15487, 42.4329
0, 1860.00000, 124.493, -31.7647, 123.941, -151.237, 125.634, 88.7501, 0, 0, 7.39411, -54.8386, 7.42701, -174.311, 7.32696, 65.6762, 0.154951, 42.4326
0, 1920.00000, 124.493, -31.7649, 123.941, -151.237, 125.634, 88.7501, 0, 0, 7.3941, -54.8388, 7.42701, -174.311, 7.32692, 65.6762, 0.155024, 42.4324
0, 1980.00000, 124.493, -31.7652, 123.941, -151.237, 125.635, 88.7501, 0, 0, 7.39408, -54.8391, 7.42701, -174.311, 7.32688, 65.6761, 0.155089, 42.4323
0, 2040.00000, 124.493, -31.7654, 123.941, -151.237, 125.636, 88.75, 0, 0, 7.39407, -54.8393, 7.42701, -174.311, 7.32684, 65.6761, 0.155148, 42.4321
0, 2100.00000, 124.494, -31.7656, 123.941, -151.237, 125.636, 88.75, 0, 0, 7.39406, -54.8395, 7.42701, -174.311, 7.32681, 65.6761, 0.155201, 42.432
0, 2160.00000, 124.494, -31.7658, 123.941, -151.237, 125.637, 88.75, 0, 0, 7.39405, -54.8397, 7.42701, -174.311, 7.32678, 65.6761, 0.155249, 42.4318
0, 2220.00000, 124.494, -31.7659, 123.941, -151.237, 125.637, 88.75, 0, 0, 7.39404, -54.8398, 7.42701, -174.311, 7.32676, 65.6761, 0.155292, 42.4317
0, 2280.00000, 124.494, -31.7661, 123.941, -151.237, 125.638, 88.75, 0, 0, 7.39403, -54.84, 7.42701, -174.311, 7.32673, 65.6761, 0.155331, 42.4316
0, 2340.00000, 124.494, -31.7662, 123.941, -151.237, 125.638, 88.75, 0, 0, 7.39402, -54.8401, 7.42701, -174.311, 7.32671, 65.6761, 0.155366, 42.4315
0, 2400.00000, 124.494, -31.7663, 123.941, -151.237, 125.638, 88.75, 0, 0, 7.39402, -54.8402, 7.42701, -174.311, 7.32669, 65.676, 0.155397, 42.4314
0, 2460.00000, 124.494, -31.7664, 123.941, -151.237, 125.639, 88.75, 0, 0, 7.39401, -54.8403, 7.42701, -174.311, 7.32667, 65.676, 0.155425, 42.4314
0, 2520.00000, 124.494, -31.7665, 123.941, -151.237, 125.639, 88.75, 0, 0, 7.394, -54.8404, 7.42701, -174.311, 7.32666, 65.676, 0.15545, 42.4313
0, 2580.00000, 124.495, -31.7666, 123.941, -151.237, 125.639, 88.7499, 0, 0, 7.394, -54.8405, 7.42701, -174.311, 7.32664, 65.676, 0.155473, 42.4312
0, 2640.00000, 124.495, -31.7667, 123.941, -151.237, 125.639, 88.7499, 0, 0, 7.394, -54.8406, 7.42701, -174.311, 7.32663, 65.676, 0.155494, 42.4312
0, 2700.00000, 124.495, -31.7667, 123.941, -151.237, 125.64, 88.7499, 0, 0, 7.39399, -54.8406, 7.42701, -174.311, 7.32662, 65.676, 0.155512, 42.4311
0, 2760.00000, 124.495, -31.7668, 123.941, -151.237, 125.64, 88.7499, 0, 0, 7.39399, -54.8407, 7.42701, -174.311, 7.32661, 65.676, 0.155529, 42.4311
0, 2820.00000, 124.495, -31.7668, 123.941, -151.237, 125.64, 88.7499, 0, 0, 7.39398, -54.8408, 7.42701, -174.311, 7.3266, 65.676, 0.155544, 42.4311
0, 2880.00000, 124.495, -31.7669, 123.941, -151.237, 125.64, 88.7499, 0, 0, 7.39398, -54.8408, 7.42701, -174.311, 7.32659, 65.676, 0.155558, 42.431
0, 2940.00000, 124.495, -31.7669, 123.941, -151.237, 125.64, 88.7499, 0, 0, 7.39398, -54.8409, 7.42701, -174.311, 7.32658, 65.676, 0.15557, 42.431
0, 3000.00000, 124.495, -31.767, 123.941, -151.237, 125.64, 88.7499, 0, 0, 7.39398, -54.8409, 7.42701, -174.311, 7.32658, 65.676, 0.155581, 42.431
0, 3060.00000, 124.495, -31.767, 123.941, -151.237, 125.64, 88.7499, 0, 0, 7.39397, -54.8409, 7.42701, -174.311, 7.32657, 65.676, 0.15559, 42.431
0, 3120.00000, 124.495, -31.767, 123.941, -151.237, 125.64, 88.7499, 0, 0, 7.39397, -54.841, 7.42701, -174.311, 7.32657, 65.676, 0.155599, 42.4309
0, 3180.00000, 124.495, -31.7671, 123.941, -151.237, 125.641, 88.7499, 0, 0, 7.39397, -54.841, 7.42701, -174.311, 7.32656, 65.676, 0.155607, 42.4309
0, 3240.00000, 124.495, -31.7671, 123.941, -151.237, 125.641, 88.7499, 0, 0, 7.39397, -54.841, 7.42701, -174.311, 7.32656, 65.676, 0.155614, 42.4309
0, 3300.00000, 124.495, -31.7671, 123.941, -151.237, 125.641, 88.7499, 0, 0, 7.39397, -54.841, 7.42701, -174.311, 7.32655, 65.676, 0.155621, 42.4309
0, 3360.00000, 124.495, -31.7672, 123.941, -151.237, 125.641, 88.7499, 0, 0, 7.39397, -54.8411, 7.42701, -174.311, 7.32655, 65.676, 0.155627, 42.4309
0, 3420.00000, 124.495, -31.7672, 123.941, -151.237, 125.641, 88.7499, 0, 0, 7.39397, -54.8411, 7.42701, -174.311, 7.32655, 65.676, 0.155632, 42.4308
0, 3480.00000, 124.495, -31.7672, 123.941, -151.237, 125.641, 88.7499, 0, 0, 7.39396, -54.8411, 7.42701, -174.311, 7.32654, 65.676, 0.155637, 42.4308
0, 3540.00000, 124.495, -31.7672, 123.941, -151.237, 125.641, 88.7499, 0, 0, 7.39396, -54.8411, 7.42701, -174.311, 7.32654, 65.676, 0.155641, 42.4308
1, 0.00000, 124.495, -31.7672, 123.941, -151.237, 125.641, 88.7499, 0, 0, 7.39396, -54.8411, 7.42701, -174.311, 7.32654, 65.676, 0.155645, 42.4308
1, 60.00000, 124.495, -31.7672, 123.941, -151.237, 125.641, 88.7499, 0, 0, 7.39396, -54.8411, 7.42701, -174.311, 7.32654, 65.676, 0.155648, 42.4308
1, 120.00000, 124.495, -31.7672, 123.941, -151.237, 125.641, 88.7499, 0, 0, 7.39396, -54.8412, 7.42701, -174.311, 7.32653, 65.676, 0.155651, 42.4308
1, 180.00000, 124.495, -31.7673, 123.941, -151.237, 125.641, 88.7499, 0, 0, 7.39396, -54.8412, 7.42701, -174.311, 7.32653, 65.676, 0.155654, 42.4308
1, 240.00000, 124.495, -31.7673, 123.941, -151.237, 125.641, 88.7499, 0, 0, 7.39396, -54.8412, 7.42701, -174.311, 7.32653, 65.676, 0.155656, 42.4308
1, 300.00000, 124.495, -31.7673, 123.941, -151.237, 125.641, 88.7499, 0, 0, 7.39396, -54.8412, 7.42701, -174.311, 7.32653, 65.676, 0.155659, 42.4308
1, 360.00000, 124.495, -31.7673, 123.941, -151.237, 125.641, 88.7499, 0, 0, 7.39396, -54.8412, 7.42701, -174.311, 7.32653, 65.676, 0.155661, 42.4308
1, 420.00000, 124.495, -31.7673, 123.941, -151.237, 125.641, 88.7499, 0, 0, 7.39396, -54.8412, 7.42701, -174.311, 7.32653, 65.676, 0.155663, 42.4308
1, 480.00000, 124.495, -31.7673, 123.941, -151.237, 125.641, 88.7499, 0, 0, 7.39396, -54.8412, 7.42701, -174.311, 7.32653, 65.676, 0.155664, 42.4308
1, 540.00000, 124.495, -31.7673, 123.941, -151.237, 125.641, 88.7499, 0, 0, 7.39396, -54.8412, 7.42701, -174.311, 7.32653, 65.676, 0.155666, 42.4308
1, 600.00000, 124.495, -31.7673, 123.941, -151.237, 125.641, 88.7499, 0, 0, 7.39396, -54.8412, 7.42701, -174.311, 7.32652, 65.676, 0.155667, 42.4308
1, 660.00000, 124.495, -31.7673, 123.941, -151.237, 125.641, 88.7499, 0, 0, 7.39396, -54.8412, 7.42701, -174.311, 7.32652, 65.676, 0.155668, 42.4308
1, 720.00000, 124.495, -31.7673, 123.941, -151.237, 125.641, 88.7499, 0, 0, 7.39396, -54.8412, 7.42701, -174.311, 7.32652, 65.676, 0.155669, 42.4308
1, 780.00000, 124.495, -31.7673, 123.941, -151.237, 125.641, 88.7499, 0, 0, 7.39396, -54.8412, 7.42701, -174.311, 7.32652, 65.676, 0.15567, 42.4307
1, 840.00000, 124.495, -31.7673, 123.941, -151.237, 125.641, 88.7499, 0, 0, 7.39396, -54.8412, 7.42701, -174.311, 7.32652, 65.676, 0.155671, 42.4307
1, 900.00000, 124.495, -31.7673, 123.941, -151.237, 125.641, 88.7499, 0, 0, 7.39396, -54.8412, 7.42701, -174.311, 7.32652, 65.676, 0.155672, 42.4307
1, 960.00000, 124.495, -31.7673, 123.941, -151.237, 125.641, 88.7499, 0, 0, 7.39396, -54.8412, 7.42701, -174.311, 7.32652, 65.676, 0.155673, 42.4307
1, 1020.00000, 124.495, -31.7673, 123.941, -151.237, 125.641, 88.7499, 0, 0, 7.39396, -54.8412, 7.42701, -174.311, 7.32652, 65.676, 0.155673, 42.4307
1, 1080.00000, 124.495, -31.7673, 123.941, -151.237, 125.641, 88.7499, 0, 0, 7.39396, -54.8412, 7.42701, -174.311, 7.32652, 65.676, 0.155674, 42.4307
1, 1140.00000, 124.495, -31.7673, 123.941, -151.237, 125.641, 88.7499, 0, 0, 7.39396, -54.8412, 7.42701, -174.311, 7.32652, 65.676, 0.155674, 42.4307
1, 1200.00000, 124.495, -31.7673, 123.941, -151.237, 125.641, 88.7499, 0, 0, 7.39396, -54.8412, 7.42701, -174.311, 7.32652, 65.676, 0.155675, 42.4307
1, 1260.00000, 124.495, -31.7673, 123.941, -151.237, 125.641, 88.7499, 0, 0, 7.39396, -54.8412, 7.42701, -174.311, 7.32652, 65.676, 0.155675, 42.4307
1, 1320.00000, 124.495, -31.7673, 123.941, -151.237, 125.641, 88.7499, 0, 0, 7.39396, -54.8413, 7.42701, -174.311, 7.32652, 65.676, 0.155676, 42.4307
1, 1380.00000, 124.495, -31.7673, 123.941, -151.237, 125.641, 88.7499, 0, 0, 7.39396, -54.8413, 7.42701, -174.311, 7.32652, 65.676, 0.155676, 42.4307
1, 1440.00000, 124.495, -31.7673, 123.941, -151.237, 125.641, 88.7499, 0, 0, 7.39396, -54.8413, 7.42701, -174.311, 7.32652, 65.676, 0.155676, 42.4307
1, 1500.00000, 124.495, -31.7673, 123.941, -151.237, 125.641, 88.7499, 0, 0, 7.39396, -54.8413, 7.42701, -174.311, 7.32652, 65.676, 0.155676, 42.4307
1, 1560.00000, 124.495, -31.7673, 123.941, -151.237, 125.641, 88.7499, 0, 0, 7.39396, -54.8413, 7.42701, -174.311, 7.32652, 65.676, 0.155677, 42.4307
1, 1620.00000, 124.495, -31.7673, 123.941, -151.237, 125.641, 88.7499, 0, 0, 7.39396, -54.8413, 7.42701, -174.311, 7.32652, 65.676, 0.155677, 42.4307
1, 1680.00000, 124.495, -31.7673, 123.941, -151.237, 125.641, 88.7499, 0, 0, 7.39396, -54.8413, 7.42701, -174.311, 7.32652, 65.676, 0.155677, 42.4307
1, 1740.00000, 124.495, -31.7673, 123.941, -151.237, 125.641, 88.7499, 0, 0, 7.39396, -54.8413, 7.42701, -174.311, 7.32652, 65.676, 0.155677, 42.4307
1, 1800.00000, 124.495, -31.7673, 123.941, -151.237, 125.641, 88.7499, 0, 0, 7.39396, -54.8413, 7.42701, -174.311, 7.32652, 65.676, 0.155677, 42.4307
1, 1860.00000, 124.495, -31.7673, 123.941, -151.237, 125.641, 88.7499, 0, 0, 7.39396, -54.8413, 7.42701, -174.311, 7.32652, 65.676, 0.155678, 42.4307
1, 1920.00000, 124.495, -31.7673, 123.941, -151.237, 125.641, 88.7499, 0, 0, 7.39396, -54.8413, 7.42701, -174.311, 7.32652, 65.676, 0.155678, 42.4307
1, 1980.00000, 124.495, -31.7673, 123.941, -151.237, 125.641, 88.7499, 0, 0, 7.39396, -54.8413, 7.42701, -174.311, 7.32652, 65.676, 0.155678, 42.4307
1, 2040.00000, 124.495, -31.7673, 123.941, -151.237, 125.641, 88.7499, 0, 0, 7.39396, -54.8413, 7.42701, -174.311, 7.32652, 65.676, 0.155678, 42.4307
1, 2100.00000, 124.495, -31.7673, 123.941, -151.237, 125.641, 88.7499, 0, 0, 7.39396, -54.8413, 7.42701, -174.311, 7.32652, 65.676, 0.155678, 42.4307
1, 2160.00000, 124.495, -31.7673, 123.941, -151.237, 125.641, 88.7499, 0, 0, 7.39396, -54.8413, 7.42701, -174.311, 7.32652, 65.676, 0.155678, 42.4307
1, 2220.00000, 124.495, -31.7673, 123.941, -151.237, 125.641, 88.7499, 0, 0, 7.39396, -54.8413, 7.42701, -174.311, 7.32652, 65.676, 0.155678, 42.4307
1, 2280.00000, 124.495, -31.7673, 123.941, -151.237, 125.641, 88.7499, 0, 0, 7.39396, -54.8413, 7.42701, -174.311, 7.32652, 65.676, 0.155678, 42.4307
1, 2340.00000, 124.495, -31.7673, 123.941, -151.237, 125.641, 88.7499, 0, 0, 7.39396, -54.8413, 7.42701, -174.311, 7.32652, 65.676, 0.155678, 42.4307
1, 2400.00000, 124.495, -31.7673, 123.941, -151.237, 125.641, 88.7499, 0, 0, 7.39396, -54.8413, 7.42701, -174.311, 7.32652, 65.676, 0.155678, 42.4307
1, 2460.00000, 124.495, -31.7673, 123.941, -151.237, 125.641, 88.7499, 0, 0, 7.39396, -54.8413, 7.42701, -174.311, 7.32652, 65.676, 0.155678, 42.4307
1, 2520.00000, 124.495, -31.7673, 123.941, -151.237, 125.641, 88.7499, 0, 0, 7.39396, -54.8413, 7.42701, -174.311, 7.32652, 65.676, 0.155679, 42.4307
1, 2580.00000, 124.495, -31.7673, 123.941, -151.237, 125.641, 88.7499, 0, 0, 7.39396, -54.8413, 7.42701, -174.311, 7.32652, 65.676, 0.155679, 42.4307
1, 2640.00000, 124.495, -31.7673, 123.941, -151.237, 125.641, 88.7499, 0, 0, 7.39396, -54.8413, 7.42701, -174.311, 7.32652, 65.676, 0.155679, 42.4307
1, 2700.00000, 124.495, -31.7673, 123.941, -151.237, 125.641, 88.7499, 0, 0, 7.39396, -54.8413, 7.42701, -174.311, 7.32652, 65.676, 0.155679, 42.4307
1, 2760.00000, 124.495, -31.7673, 123.941, -151.237, 125.641, 88.7499, 0, 0, 7.39396, -54.8413, 7.42701, -174.311, 7.32652, 65.676, 0.155679, 42.4307
1, 2820.00000, 124.495, -31.7673, 123.941, -151.237, 125.641, 88.7499, 0, 0, 7.39396, -54.8413, 7.42701, -174.311, 7.32652, 65.676, 0.155679, 42.4307
1, 2880.00000, 124.495, -31.7673, 123.941, -151.237, 125.641, 88.7499, 0, 0, 7.39396, -54.8413, 7.42701, -174.311, 7.32652, 65.676, 0.155679, 42.4307
1, 2940.00000, 124.495, -31.7673, 123.941, -151.237, 125.641, 88.7499, 0, 0, 7.39396, -54.8413, 7.42701, -174.311, 7.32652, 65.676, 0.155679, 42.4307
1, 3000.00000, 124.495, -31.7673, 123.941, -151.237, 125.641, 88.7499, 0, 0, 7.39396, -54.8413, 7.42701, -174.311, 7.32652, 65.676, 0.155679, 42.4307
1, 3060.00000, 124.495, -31.7673, 123.941, -151.237, 125.641, 88.7499, 0, 0, 7.39396, -54.8413, 7.42701, -174.311, 7.32652, 65.676, 0.155679, 42.4307
1, 3120.00000, 124.495, -31.7673, 123.941, -151.237, 125.641, 88.7499, 0, 0, 7.39396, -54.8413, 7.42701, -174.311, 7.32652, 65.676, 0.155679, 42.4307
1, 3180.00000, 124.495, -31.7673, 123.941, -151.237, 125.641, 88.7499, 0, 0, 7.39396, -54.8413, 7.42701, -174.311, 7.32652, 65.676, 0.155679, 42.4307
1, 3240.00000, 124.495, -31.7673, 123.941, -151.237, 125.641, 88.7499, 0, 0, 7.39396, -54.8413, 7.42701, -174.311, 7.32652, 65.676, 0.155679, 42.4307
1, 3300.00000, 124.495, -31.7673, 123.941, -151.237, 125.641, 88.7499, 0, 0, 7.39396, -54.8413, 7.42701, -174.311, 7.32652, 65.676, 0.155679, 42.4307
1, 3360.00000, 124.495, -31.7673, 123.941, -151.237, 125.641, 88.7499, 0, 0, 7.39396, -54.8413, 7.42701, -174.311, 7.32652, 65.676, 0.155679, 42.4307
1, 3420.00000, 124.495, -31.7673, 123.941, -151.237, 125.641, 88.7499, 0, 0, 7.39396, -54.8413, 7.42701, -174.311, 7.32652, 65.676, 0.155679, 42.4307
1, 3480.00000, 124.495, -31.7673, 123.941, -151.237, 125.641, 88.7499, 0, 0, 7.39396, -54.8413, 7.42701, -174.311, 7.32652, 65.676, 0.155679, 42.4307
1, 3540.00000, 124.495, -31.7673, 123.941, -151.237, 125.641, 88.7499, 0, 0, 7.39396, -54.8413, 7.42701, -174.311, 7.32652, 65.676, 0.155679, 42.4307
2, 0.00000, 124.495, -31.7673, 123.941, -151.237, 125.641, 88.7499, 0, 0, 7.39396, -54.8413, 7.42701, -174.311, 7.32652, 65.676, 0.155679, 42.4307
2, 60.00000, 124.495, -31.7673, 123.941, -151.237, 125.641, 88.7499, 0, 0, 7.39396, -54.8413, 7.42701, -174.311, 7.32652, 65.676, 0.155679, 42.4307
2, 120.00000, 124.495, -31.7673, 123.941, -151.237, 125.641, 88.7499, 0, 0, 7.39396, -54.8413, 7.42701, -174.311, 7.32652, 65.676, 0.155679, 42.4307
2, 180.00000, 124.495, -31.7673, 123.941, -151.237, 125.641, 88.7499, 0, 0, 7.39396, -54.8413, 7.42701, -174.311, 7.32652, 65.676, 0.155679, 42.4307
2, 240.00000, 124.495, -31.7673, 123.941, -151.237, 125.641, 88.7499, 0, 0, 7.39396, -54.8413, 7.42701, -174.311, 7.32652, 65.676, 0.155679, 42.4307
2, 300.00000, 124.495, -31.7673, 123.941, -151.237, 125.641, 88.7499, 0, 0, 7.39396, -54.8413, 7.42701, -174.311, 7.32652, 65.676, 0.155679, 42.4307
2, 360.00000, 124.495, -31.7673, 123.941, -151.237, 125.641, 88.7499, 0, 0, 7.39396, -54.8413, 7.42701, -174.311, 7.32652, 65.676, 0.155679, 42.4307
2, 420.00000, 124.495, -31.7673, 123.941, -151.237, 125.641, 88.7499, 0, 0, 7.39396, -54.8413, 7.42701, -174.311, 7.32652, 65.676, 0.155679, 42.4307
2, 480.00000, 124.495, -31.7673, 123.941, -151.237, 125.641, 88.7499, 0, 0, 7.39396, -54.8413, 7.42701, -174.311, 7.32652, 65.676, 0.155679, 42.4307
2, 540.00000, 124.495, -31.7673, 123.941, -151.237, 125.641, 88.7499, 0, 0, 7.39396, -54.8413, 7.42701, -174.311, 7.32652, 65.676, 0.155679, 42.4307
2, 600.00000, 124.495, -31.7673, 123.941, -151.237, 125.641, 88.7499, 0, 0, 7.39396, -54.8413, 7.42701, -174.311, 7.32652, 65.676, 0.155679, 42.4307
2, 660.00000, 124.495, -31.7673, 123.941, -151.237, 125.641, 88.7499, 0, 0, 7.39396, -54.8413, 7.42701, -174.311, 7.32652, 65.676, 0.155679, 42.4307
2, 720.00000, 124.495, -31.7673, 123.941, -151.237, 125.641, 88.7499, 0, 0, 7.39396, -54.8413, 7.42701, -174.311, 7.32652, 65.676, 0.155679, 42.4307
2, 780.00000, 124.495, -31.7673, 123.941, -151.237, 125.641, 88.7499, 0, 0, 7.39396, -54.8413, 7.42701, -174.311, 7.32652, 65.676, 0.155679, 42.4307
