hour,t(sec),"P1 (kW)","Q1 (kvar)","P2 (kW)","Q2 (kvar)","P3 (kW)","Q3 (kvar)","P4 (kW)","Q4 (kvar)"
0, 60.00000, 0.475054, 0.202364, 0.494927, 0.210819, 0.479804, 0.204398, 0, 0
0, 120.00000, 0.475049, 0.202363, 0.494923, 0.210819, 0.479674, 0.204342, 0, 0
0, 180.00000, 0.475045, 0.202362, 0.494921, 0.210819, 0.479556, 0.204292, 0, 0
0, 240.00000, 0.475042, 0.202361, 0.494918, 0.210819, 0.47945, 0.204246, 0, 0
0, 300.00000, 0.475038, 0.20236, 0.494916, 0.21082, 0.479354, 0.204205, 0, 0
0, 360.00000, 0.475035, 0.20236, 0.494913, 0.21082, 0.479267, 0.204168, 0, 0
0, 420.00000, 0.475032, 0.202359, 0.494912, 0.21082, 0.479189, 0.204135, 0, 0
0, 480.00000, 0.47503, 0.202358, 0.49491, 0.210821, 0.479118, 0.204104, 0, 0
0, 540.00000, 0.475028, 0.202358, 0.494908, 0.210821, 0.479054, 0.204077, 0, 0
0, 600.00000, 0.475026, 0.202357, 0.494907, 0.210821, 0.478996, 0.204052, 0, 0
0, 660.00000, 0.475024, 0.202357, 0.494906, 0.210821, 0.478944, 0.20403, 0, 0
0, 720.00000, 0.475022, 0.202356, 0.494905, 0.210822, 0.478897, 0.20401, 0, 0
0, 780.00000, 0.475021, 0.202356, 0.494904, 0.210822, 0.478855, 0.203992, 0, 0
0, 840.00000, 0.475019, 0.202355, 0.494903, 0.210822, 0.478817, 0.203976, 0, 0
0, 900.00000, 0.475018, 0.202355, 0.494902, 0.210822, 0.478782, 0.203961, 0, 0
0, 960.00000, 0.463009, 0.197239, 0.484327, 0.206318, 0.466786, 0.19885, 0, 0
0, 1020.00000, 0.463008, 0.197239, 0.484327, 0.206319, 0.466759, 0.198839, 0, 0
0, 1080.00000, 0.463007, 0.197239, 0.484326, 0.206319, 0.466734, 0.198828, 0, 0
0, 1140.00000, 0.463006, 0.197239, 0.484326, 0.206319, 0.466712, 0.198819, 0, 0
0, 1200.00000, 0.463005, 0.197238, 0.484325, 0.206319, 0.466692, 0.19881, 0, 0
0, 1260.00000, 0.463005, 0.197238, 0.484325, 0.206319, 0.466674, 0.198803, 0, 0
0, 1320.00000, 0.463004, 0.197238, 0.484325, 0.206319, 0.466658, 0.198796, 0, 0
0, 1380.00000, 0.463003, 0.197238, 0.484324, 0.206319, 0.466644, 0.19879, 0, 0
0, 1440.00000, 0.463003, 0.197238, 0.484324, 0.206319, 0.46663, 0.198784, 0, 0
0, 1500.00000, 0.463003, 0.197238, 0.484324, 0.206319, 0.466619, 0.198779, 0, 0
0, 1560.00000, 0.463002, 0.197238, 0.484323, 0.206319, 0.466608, 0.198774, 0, 0
0, 1620.00000, 0.463002, 0.197237, 0.484323, 0.206319, 0.466598, 0.19877, 0, 0
0, 1680.00000, 0.463001, 0.197237, 0.484323, 0.20632, 0.46659, 0.198766, 0, 0
0, 1740.00000, 0.463001, 0.197237, 0.484323, 0.20632, 0.466582, 0.198763, 0, 0
0, 1800.00000, 0.463001, 0.197237, 0.484323, 0.20632, 0.466575, 0.19876, 0, 0
0, 1860.00000, 0.439572, 0.187257, 0.457939, 0.19508, 0.442825, 0.188643, 0, 0
0, 1920.00000, 0.439572, 0.187257, 0.457939, 0.19508, 0.442819, 0.18864, 0, 0
0, 1980.00000, 0.439572, 0.187257, 0.457939, 0.19508, 0.442815, 0.188638, 0, 0
0, 2040.00000, 0.439572, 0.187257, 0.457938, 0.19508, 0.44281, 0.188636, 0, 0
0, 2100.00000, 0.439571, 0.187256, 0.457938, 0.19508, 0.442806, 0.188635, 0, 0
0, 2160.00000, 0.439571, 0.187256, 0.457938, 0.19508, 0.442803, 0.188633, 0, 0
0, 2220.00000, 0.439571, 0.187256, 0.457938, 0.19508, 0.4428, 0.188632, 0, 0
0, 2280.00000, 0.439571, 0.187256, 0.457938, 0.19508, 0.442797, 0.188631, 0, 0
0, 2340.00000, 0.439571, 0.187256, 0.457938, 0.19508, 0.442794, 0.18863, 0, 0
0, 2400.00000, 0.439571, 0.187256, 0.457938, 0.19508, 0.442792, 0.188629, 0, 0
0, 2460.00000, 0.439571, 0.187256, 0.457938, 0.19508, 0.44279, 0.188628, 0, 0
0, 2520.00000, 0.439571, 0.187256, 0.457938, 0.19508, 0.442788, 0.188627, 0, 0
0, 2580.00000, 0.439571, 0.187256, 0.457938, 0.19508, 0.442786, 0.188626, 0, 0
0, 2640.00000, 0.439571, 0.187256, 0.457938, 0.19508, 0.442785, 0.188625, 0, 0
0, 2700.00000, 0.439571, 0.187256, 0.457938, 0.19508, 0.442783, 0.188625, 0, 0
0, 2760.00000, 0.432973, 0.184446, 0.448245, 0.190951, 0.435937, 0.185708, 0, 0
0, 2820.00000, 0.432973, 0.184446, 0.448244, 0.190951, 0.435935, 0.185708, 0, 0
0, 2880.00000, 0.432973, 0.184446, 0.448244, 0.190951, 0.435934, 0.185707, 0, 0
0, 2940.00000, 0.432973, 0.184446, 0.448244, 0.190951, 0.435933, 0.185707, 0, 0
0, 3000.00000, 0.432973, 0.184446, 0.448244, 0.190951, 0.435933, 0.185707, 0, 0
0, 3060.00000, 0.432973, 0.184446, 0.448244, 0.190951, 0.435932, 0.185706, 0, 0
0, 3120.00000, 0.432973, 0.184446, 0.448244, 0.190951, 0.435931, 0.185706, 0, 0
0, 3180.00000, 0.432973, 0.184446, 0.448244, 0.190951, 0.435931, 0.185706, 0, 0
0, 3240.00000, 0.432973, 0.184446, 0.448244, 0.190951, 0.43593, 0.185705, 0, 0
0, 3300.00000, 0.432973, 0.184446, 0.448244, 0.190951, 0.43593, 0.185705, 0, 0
0, 3360.00000, 0.432973, 0.184446, 0.448244, 0.190951, 0.435929, 0.185705, 0, 0
0, 3420.00000, 0.432973, 0.184446, 0.448244, 0.190951, 0.435929, 0.185705, 0, 0
0, 3480.00000, 0.432973, 0.184446, 0.448244, 0.190951, 0.435929, 0.185705, 0, 0
0, 3540.00000, 0.432973, 0.184446, 0.448244, 0.190951, 0.435928, 0.185705, 0, 0
1, 0.00000, 0.432973, 0.184446, 0.448244, 0.190951, 0.435928, 0.185705, 0, 0
1, 60.00000, 0.399377, 0.170134, 0.411457, 0.17528, 0.401971, 0.171239, 0, 0
1, 120.00000, 0.399377, 0.170134, 0.411457, 0.17528, 0.40197, 0.171239, 0, 0
1, 180.00000, 0.399377, 0.170134, 0.411457, 0.17528, 0.40197, 0.171238, 0, 0
1, 240.00000, 0.399377, 0.170134, 0.411457, 0.17528, 0.40197, 0.171238, 0, 0
1, 300.00000, 0.399377, 0.170134, 0.411457, 0.17528, 0.40197, 0.171238, 0, 0
1, 360.00000, 0.399377, 0.170134, 0.411457, 0.17528, 0.401969, 0.171238, 0, 0
1, 420.00000, 0.399377, 0.170134, 0.411457, 0.17528, 0.401969, 0.171238, 0, 0
1, 480.00000, 0.399377, 0.170134, 0.411457, 0.17528, 0.401969, 0.171238, 0, 0
1, 540.00000, 0.399376, 0.170134, 0.411457, 0.17528, 0.401969, 0.171238, 0, 0
1, 600.00000, 0.399376, 0.170134, 0.411457, 0.17528, 0.401969, 0.171238, 0, 0
1, 660.00000, 0.399376, 0.170134, 0.411457, 0.17528, 0.401969, 0.171238, 0, 0
1, 720.00000, 0.399376, 0.170134, 0.411457, 0.17528, 0.401969, 0.171238, 0, 0
1, 780.00000, 0.399376, 0.170134, 0.411457, 0.17528, 0.401969, 0.171238, 0, 0
1, 840.00000, 0.399376, 0.170134, 0.411457, 0.17528, 0.401969, 0.171238, 0, 0
1, 900.00000, 0.399376, 0.170134, 0.411457, 0.17528, 0.401969, 0.171238, 0, 0
1, 960.00000, 0.403851, 0.17204, 0.415767, 0.177116, 0.406446, 0.173145, 0, 0
1, 1020.00000, 0.403851, 0.17204, 0.415766, 0.177116, 0.406445, 0.173145, 0, 0
1, 1080.00000, 0.403851, 0.17204, 0.415766, 0.177116, 0.406445, 0.173145, 0, 0
1, 1140.00000, 0.403851, 0.17204, 0.415766, 0.177116, 0.406445, 0.173145, 0, 0
1, 1200.00000, 0.403851, 0.17204, 0.415766, 0.177116, 0.406445, 0.173145, 0, 0
1, 1260.00000, 0.403851, 0.17204, 0.415766, 0.177116, 0.406445, 0.173145, 0, 0
1, 1320.00000, 0.403851, 0.17204, 0.415766, 0.177116, 0.406445, 0.173145, 0, 0
1, 1380.00000, 0.403851, 0.17204, 0.415766, 0.177116, 0.406445, 0.173145, 0, 0
1, 1440.00000, 0.403851, 0.17204, 0.415766, 0.177116, 0.406445, 0.173145, 0, 0
1, 1500.00000, 0.403851, 0.17204, 0.415766, 0.177116, 0.406445, 0.173145, 0, 0
1, 1560.00000, 0.403851, 0.17204, 0.415766, 0.177116, 0.406445, 0.173145, 0, 0
1, 1620.00000, 0.403851, 0.17204, 0.415766, 0.177116, 0.406445, 0.173145, 0, 0
1, 1680.00000, 0.403851, 0.17204, 0.415766, 0.177116, 0.406445, 0.173145, 0, 0
1, 1740.00000, 0.403851, 0.17204, 0.415766, 0.177116, 0.406445, 0.173145, 0, 0
1, 1800.00000, 0.403851, 0.17204, 0.415766, 0.177116, 0.406445, 0.173145, 0, 0
1, 1860.00000, 0.42805, 0.182349, 0.442337, 0.188435, 0.430906, 0.183565, 0, 0
1, 1920.00000, 0.42805, 0.182348, 0.442337, 0.188435, 0.430907, 0.183565, 0, 0
1, 1980.00000, 0.42805, 0.182348, 0.442337, 0.188435, 0.430907, 0.183565, 0, 0
1, 2040.00000, 0.42805, 0.182348, 0.442337, 0.188435, 0.430907, 0.183565, 0, 0
1, 2100.00000, 0.42805, 0.182348, 0.442337, 0.188435, 0.430907, 0.183565, 0, 0
1, 2160.00000, 0.42805, 0.182348, 0.442337, 0.188435, 0.430907, 0.183565, 0, 0
1, 2220.00000, 0.42805, 0.182348, 0.442337, 0.188435, 0.430907, 0.183565, 0, 0
1, 2280.00000, 0.42805, 0.182348, 0.442337, 0.188435, 0.430907, 0.183565, 0, 0
1, 2340.00000, 0.42805, 0.182348, 0.442337, 0.188435, 0.430907, 0.183565, 0, 0
1, 2400.00000, 0.42805, 0.182348, 0.442337, 0.188435, 0.430907, 0.183565, 0, 0
1, 2460.00000, 0.42805, 0.182348, 0.442337, 0.188435, 0.430907, 0.183565, 0, 0
1, 2520.00000, 0.42805, 0.182348, 0.442337, 0.188435, 0.430907, 0.183565, 0, 0
1, 2580.00000, 0.42805, 0.182348, 0.442337, 0.188435, 0.430907, 0.183565, 0, 0
1, 2640.00000, 0.42805, 0.182348, 0.442337, 0.188435, 0.430907, 0.183565, 0, 0
1, 2700.00000, 0.42805, 0.182348, 0.442337, 0.188435, 0.430907, 0.183565, 0, 0
1, 2760.00000, 0.407467, 0.17358, 0.417563, 0.177881, 0.409912, 0.174622, 0, 0
1, 2820.00000, 0.407467, 0.17358, 0.417563, 0.177881, 0.409912, 0.174622, 0, 0
1, 2880.00000, 0.407467, 0.17358, 0.417563, 0.177881, 0.409912, 0.174622, 0, 0
1, 2940.00000, 0.407467, 0.17358, 0.417563, 0.177881, 0.409912, 0.174622, 0, 0
1, 3000.00000, 0.407467, 0.17358, 0.417563, 0.177881, 0.409912, 0.174622, 0, 0
1, 3060.00000, 0.407467, 0.17358, 0.417563, 0.177881, 0.409912, 0.174622, 0, 0
1, 3120.00000, 0.407467, 0.17358, 0.417563, 0.177881, 0.409912, 0.174622, 0, 0
1, 3180.00000, 0.407467, 0.17358, 0.417563, 0.177881, 0.409912, 0.174622, 0, 0
1, 3240.00000, 0.407467, 0.17358, 0.417563, 0.177881, 0.409912, 0.174622, 0, 0
1, 3300.00000, 0.407467, 0.17358, 0.417563, 0.177881, 0.409912, 0.174622, 0, 0
1, 3360.00000, 0.407467, 0.17358, 0.417563, 0.177881, 0.409912, 0.174622, 0, 0
1, 3420.00000, 0.407467, 0.17358, 0.417563, 0.177881, 0.409912, 0.174622, 0, 0
1, 3480.00000, 0.407467, 0.17358, 0.417563, 0.177881, 0.409912, 0.174622, 0, 0
1, 3540.00000, 0.407467, 0.17358, 0.417563, 0.177881, 0.409912, 0.174622, 0, 0
2, 0.00000, 0.407467, 0.17358, 0.417563, 0.177881, 0.409912, 0.174622, 0, 0
2, 60.00000, 0.431416, 0.183783, 0.44435, 0.189292, 0.434188, 0.184963, 0, 0
2, 120.00000, 0.431416, 0.183783, 0.444351, 0.189293, 0.434188, 0.184963, 0, 0
2, 180.00000, 0.431416, 0.183783, 0.444351, 0.189293, 0.434188, 0.184963, 0, 0
2, 240.00000, 0.431416, 0.183783, 0.444351, 0.189293, 0.434188, 0.184963, 0, 0
2, 300.00000, 0.431416, 0.183783, 0.444351, 0.189293, 0.434188, 0.184963, 0, 0
2, 360.00000, 0.431416, 0.183783, 0.444351, 0.189293, 0.434188, 0.184963, 0, 0
2, 420.00000, 0.431416, 0.183783, 0.444351, 0.189293, 0.434188, 0.184963, 0, 0
2, 480.00000, 0.431416, 0.183783, 0.444351, 0.189293, 0.434188, 0.184963, 0, 0
2, 540.00000, 0.431416, 0.183783, 0.444351, 0.189293, 0.434188, 0.184963, 0, 0
2, 600.00000, 0.431416, 0.183783, 0.444351, 0.189293, 0.434188, 0.184963, 0, 0
2, 660.00000, 0.431416, 0.183783, 0.444351, 0.189293, 0.434188, 0.184963, 0, 0
2, 720.00000, 0.431416, 0.183783, 0.444351, 0.189293, 0.434188, 0.184963, 0, 0
2, 780.00000, 0.431416, 0.183783, 0.444351, 0.189293, 0.434188, 0.184963, 0, 0
2, 840.00000, 0.431416, 0.183783, 0.444351, 0.189293, 0.434188, 0.184963, 0, 0
2, 900.00000, 0.431416, 0.183783, 0.444351, 0.189293, 0.434188, 0.184963, 0, 0
2, 960.00000, 0.417274, 0.177758, 0.427135, 0.181959, 0.419723, 0.178801, 0, 0
2, 1020.00000, 0.417274, 0.177758, 0.427134, 0.181958, 0.419723, 0.178801, 0, 0
2, 1080.00000, 0.417274, 0.177758, 0.427134, 0.181958, 0.419723, 0.178801, 0, 0
2, 1140.00000, 0.417274, 0.177758, 0.427134, 0.181958, 0.419723, 0.178801, 0, 0
2, 1200.00000, 0.417274, 0.177758, 0.427134, 0.181958, 0.419723, 0.178801, 0, 0
2, 1260.00000, 0.417274, 0.177758, 0.427134, 0.181958, 0.419723, 0.178801, 0, 0
2, 1320.00000, 0.417274, 0.177758, 0.427134, 0.181958, 0.419723, 0.178801, 0, 0
2, 1380.00000, 0.417274, 0.177758, 0.427134, 0.181958, 0.419723, 0.178801, 0, 0
2, 1440.00000, 0.417274, 0.177758, 0.427134, 0.181958, 0.419723, 0.178801, 0, 0
2, 1500.00000, 0.417274, 0.177758, 0.427134, 0.181958, 0.419723, 0.178801, 0, 0
2, 1560.00000, 0.417274, 0.177758, 0.427134, 0.181958, 0.419723, 0.178801, 0, 0
2, 1620.00000, 0.417274, 0.177758, 0.427134, 0.181958, 0.419723, 0.178801, 0, 0
2, 1680.00000, 0.417274, 0.177758, 0.427134, 0.181958, 0.419723, 0.178801, 0, 0
2, 1740.00000, 0.417274, 0.177758, 0.427134, 0.181958, 0.419723, 0.178801, 0, 0
2, 1800.00000, 0.417274, 0.177758, 0.427134, 0.181958, 0.419723, 0.178801, 0, 0
2, 1860.00000, 0.444368, 0.1893, 0.456126, 0.194309, 0.447086, 0.190458, 0, 0
2, 1920.00000, 0.444368, 0.1893, 0.456126, 0.194309, 0.447086, 0.190458, 0, 0
2, 1980.00000, 0.444368, 0.1893, 0.456126, 0.194309, 0.447086, 0.190458, 0, 0
2, 2040.00000, 0.444368, 0.1893, 0.456126, 0.194309, 0.447086, 0.190458, 0, 0
2, 2100.00000, 0.444368, 0.1893, 0.456126, 0.194309, 0.447086, 0.190458, 0, 0
2, 2160.00000, 0.444368, 0.1893, 0.456126, 0.194309, 0.447086, 0.190458, 0, 0
2, 2220.00000, 0.444368, 0.1893, 0.456126, 0.194309, 0.447086, 0.190458, 0, 0
2, 2280.00000, 0.444368, 0.1893, 0.456126, 0.194309, 0.447086, 0.190458, 0, 0
2, 2340.00000, 0.444368, 0.1893, 0.456126, 0.194309, 0.447086, 0.190458, 0, 0
2, 2400.00000, 0.444368, 0.1893, 0.456126, 0.194309, 0.447086, 0.190458, 0, 0
2, 2460.00000, 0.444368, 0.1893, 0.456126, 0.194309, 0.447086, 0.190458, 0, 0
2, 2520.00000, 0.444368, 0.1893, 0.456126, 0.194309, 0.447086, 0.190458, 0, 0
2, 2580.00000, 0.444368, 0.1893, 0.456126, 0.194309, 0.447086, 0.190458, 0, 0
2, 2640.00000, 0.444368, 0.1893, 0.456126, 0.194309, 0.447086, 0.190458, 0, 0
2, 2700.00000, 0.444368, 0.1893, 0.456126, 0.194309, 0.447086, 0.190458, 0, 0
2, 2760.00000, 0.413404, 0.176109, 0.421054, 0.179368, 0.415615, 0.177051, 0, 0
2, 2820.00000, 0.413404, 0.176109, 0.421053, 0.179368, 0.415615, 0.177051, 0, 0
2, 2880.00000, 0.413404, 0.176109, 0.421053, 0.179368, 0.415615, 0.177051, 0, 0
2, 2940.00000, 0.413404, 0.176109, 0.421053, 0.179368, 0.415615, 0.177051, 0, 0
2, 3000.00000, 0.413404, 0.176109, 0.421053, 0.179368, 0.415615, 0.177051, 0, 0
2, 3060.00000, 0.413404, 0.176109, 0.421053, 0.179368, 0.415615, 0.177051, 0, 0
2, 3120.00000, 0.413404, 0.176109, 0.421053, 0.179368, 0.415615, 0.177051, 0, 0
2, 3180.00000, 0.413404, 0.176109, 0.421053, 0.179368, 0.415615, 0.177051, 0, 0
2, 3240.00000, 0.413404, 0.176109, 0.421053, 0.179368, 0.415615, 0.177051, 0, 0
2, 3300.00000, 0.413404, 0.176109, 0.421053, 0.179368, 0.415615, 0.177051, 0, 0
2, 3360.00000, 0.413404, 0.176109, 0.421053, 0.179368, 0.415615, 0.177051, 0, 0
2, 3420.00000, 0.413404, 0.176109, 0.421053, 0.179368, 0.415615, 0.177051, 0, 0
2, 3480.00000, 0.413404, 0.176109, 0.421053, 0.179368, 0.415615, 0.177051, 0, 0
2, 3540.00000, 0.413404, 0.176109, 0.421053, 0.179368, 0.415615, 0.177051, 0, 0
3, 0.00000, 0.413404, 0.176109, 0.421053, 0.179368, 0.415615, 0.177051, 0, 0
3, 60.00000, 0.441115, 0.187914, 0.450949, 0.192104, 0.443641, 0.18899, 0, 0
3, 120.00000, 0.441115, 0.187914, 0.450949, 0.192104, 0.443641, 0.18899, 0, 0
3, 180.00000, 0.441115, 0.187914, 0.450949, 0.192104, 0.443641, 0.18899, 0, 0
3, 240.00000, 0.441115, 0.187914, 0.450949, 0.192104, 0.443641, 0.18899, 0, 0
3, 300.00000, 0.441115, 0.187914, 0.450949, 0.192104, 0.443641, 0.18899, 0, 0
3, 360.00000, 0.441115, 0.187914, 0.450949, 0.192104, 0.443641, 0.18899, 0, 0
3, 420.00000, 0.441115, 0.187914, 0.450949, 0.192104, 0.443641, 0.18899, 0, 0
3, 480.00000, 0.441115, 0.187914, 0.450949, 0.192104, 0.443641, 0.18899, 0, 0
3, 540.00000, 0.441115, 0.187914, 0.450949, 0.192104, 0.443641, 0.18899, 0, 0
3, 600.00000, 0.441115, 0.187914, 0.450949, 0.192104, 0.443641, 0.18899, 0, 0
3, 660.00000, 0.441115, 0.187914, 0.450949, 0.192104, 0.443641, 0.18899, 0, 0
3, 720.00000, 0.441115, 0.187914, 0.450949, 0.192104, 0.443641, 0.18899, 0, 0
3, 780.00000, 0.441115, 0.187914, 0.450949, 0.192104, 0.443641, 0.18899, 0, 0
3, 840.00000, 0.441115, 0.187914, 0.450949, 0.192104, 0.443641, 0.18899, 0, 0
3, 900.00000, 0.441115, 0.187914, 0.450949, 0.192104, 0.443641, 0.18899, 0, 0
3, 960.00000, 0.408093, 0.173847, 0.416559, 0.177453, 0.410387, 0.174824, 0, 0
3, 1020.00000, 0.408093, 0.173847, 0.416559, 0.177453, 0.410387, 0.174824, 0, 0
3, 1080.00000, 0.408093, 0.173847, 0.416559, 0.177453, 0.410387, 0.174824, 0, 0
3, 1140.00000, 0.408093, 0.173847, 0.416559, 0.177453, 0.410387, 0.174824, 0, 0
3, 1200.00000, 0.408093, 0.173847, 0.416559, 0.177453, 0.410387, 0.174824, 0, 0
3, 1260.00000, 0.408093, 0.173847, 0.416559, 0.177453, 0.410387, 0.174824, 0, 0
3, 1320.00000, 0.408093, 0.173847, 0.416559, 0.177453, 0.410387, 0.174824, 0, 0
3, 1380.00000, 0.408093, 0.173847, 0.416559, 0.177453, 0.410387, 0.174824, 0, 0
3, 1440.00000, 0.408093, 0.173847, 0.416559, 0.177453, 0.410387, 0.174824, 0, 0
3, 1500.00000, 0.408093, 0.173847, 0.416559, 0.177453, 0.410387, 0.174824, 0, 0
3, 1560.00000, 0.408093, 0.173847, 0.416559, 0.177453, 0.410387, 0.174824, 0, 0
3, 1620.00000, 0.408093, 0.173847, 0.416559, 0.177453, 0.410387, 0.174824, 0, 0
3, 1680.00000, 0.408093, 0.173847, 0.416559, 0.177453, 0.410387, 0.174824, 0, 0
3, 1740.00000, 0.408093, 0.173847, 0.416559, 0.177453, 0.410387, 0.174824, 0, 0
3, 1800.00000, 0.408093, 0.173847, 0.416559, 0.177453, 0.410387, 0.174824, 0, 0
3, 1860.00000, 0.380534, 0.162107, 0.388159, 0.165355, 0.382656, 0.163011, 0, 0
3, 1920.00000, 0.380534, 0.162107, 0.388158, 0.165355, 0.382656, 0.163011, 0, 0
3, 1980.00000, 0.380534, 0.162107, 0.388158, 0.165355, 0.382656, 0.163011, 0, 0
3, 2040.00000, 0.380534, 0.162107, 0.388158, 0.165355, 0.382656, 0.163011, 0, 0
3, 2100.00000, 0.380534, 0.162107, 0.388158, 0.165355, 0.382656, 0.163011, 0, 0
3, 2160.00000, 0.380534, 0.162107, 0.388158, 0.165355, 0.382656, 0.163011, 0, 0
3, 2220.00000, 0.380534, 0.162107, 0.388158, 0.165355, 0.382656, 0.163011, 0, 0
3, 2280.00000, 0.380534, 0.162107, 0.388158, 0.165355, 0.382656, 0.163011, 0, 0
3, 2340.00000, 0.380534, 0.162107, 0.388158, 0.165355, 0.382656, 0.163011, 0, 0
3, 2400.00000, 0.380534, 0.162107, 0.388158, 0.165355, 0.382656, 0.163011, 0, 0
3, 2460.00000, 0.380534, 0.162107, 0.388158, 0.165355, 0.382656, 0.163011, 0, 0
3, 2520.00000, 0.380534, 0.162107, 0.388158, 0.165355, 0.382656, 0.163011, 0, 0
3, 2580.00000, 0.380534, 0.162107, 0.388158, 0.165355, 0.382656, 0.163011, 0, 0
3, 2640.00000, 0.380534, 0.162107, 0.388158, 0.165355, 0.382656, 0.163011, 0, 0
3, 2700.00000, 0.380534, 0.162107, 0.388158, 0.165355, 0.382656, 0.163011, 0, 0
3, 2760.00000, 0.403759, 0.172, 0.409124, 0.174286, 0.405678, 0.172818, 0, 0
3, 2820.00000, 0.403759, 0.172001, 0.409124, 0.174286, 0.405678, 0.172818, 0, 0
3, 2880.00000, 0.403759, 0.172001, 0.409124, 0.174286, 0.405678, 0.172818, 0, 0
3, 2940.00000, 0.403759, 0.172001, 0.409124, 0.174286, 0.405678, 0.172818, 0, 0
3, 3000.00000, 0.403759, 0.172001, 0.409124, 0.174286, 0.405678, 0.172818, 0, 0
3, 3060.00000, 0.403759, 0.172001, 0.409124, 0.174286, 0.405678, 0.172818, 0, 0
3, 3120.00000, 0.403759, 0.172001, 0.409124, 0.174286, 0.405678, 0.172818, 0, 0
3, 3180.00000, 0.403759, 0.172001, 0.409124, 0.174286, 0.405678, 0.172818, 0, 0
3, 3240.00000, 0.403759, 0.172001, 0.409124, 0.174286, 0.405678, 0.172818, 0, 0
3, 3300.00000, 0.403759, 0.172001, 0.409124, 0.174286, 0.405678, 0.172818, 0, 0
3, 3360.00000, 0.403759, 0.172001, 0.409124, 0.174286, 0.405678, 0.172818, 0, 0
3, 3420.00000, 0.403759, 0.172001, 0.409124, 0.174286, 0.405678, 0.172818, 0, 0
3, 3480.00000, 0.403759, 0.172001, 0.409124, 0.174286, 0.405678, 0.172818, 0, 0
3, 3540.00000, 0.403759, 0.172001, 0.409124, 0.174286, 0.405678, 0.172818, 0, 0
4, 0.00000, 0.403759, 0.172001, 0.409124, 0.174286, 0.405678, 0.172818, 0, 0
4, 60.00000, 0.378034, 0.161042, 0.38455, 0.163818, 0.380034, 0.161894, 0, 0
4, 120.00000, 0.378034, 0.161042, 0.38455, 0.163818, 0.380034, 0.161894, 0, 0
4, 180.00000, 0.378034, 0.161042, 0.38455, 0.163818, 0.380034, 0.161894, 0, 0
4, 240.00000, 0.378034, 0.161042, 0.38455, 0.163818, 0.380034, 0.161894, 0, 0
4, 300.00000, 0.378034, 0.161042, 0.38455, 0.163818, 0.380034, 0.161894, 0, 0
4, 360.00000, 0.378034, 0.161042, 0.38455, 0.163818, 0.380034, 0.161894, 0, 0
4, 420.00000, 0.378034, 0.161042, 0.38455, 0.163818, 0.380034, 0.161894, 0, 0
4, 480.00000, 0.378034, 0.161042, 0.38455, 0.163818, 0.380034, 0.161894, 0, 0
4, 540.00000, 0.378034, 0.161042, 0.38455, 0.163818, 0.380034, 0.161894, 0, 0
4, 600.00000, 0.378034, 0.161042, 0.38455, 0.163818, 0.380034, 0.161894, 0, 0
4, 660.00000, 0.378034, 0.161042, 0.38455, 0.163818, 0.380034, 0.161894, 0, 0
4, 720.00000, 0.378034, 0.161042, 0.38455, 0.163818, 0.380034, 0.161894, 0, 0
