hour,t(sec),"P1 (kW)","Q1 (kvar)","P2 (kW)","Q2 (kvar)","P3 (kW)","Q3 (kvar)","P4 (kW)","Q4 (kvar)"
0, 60.00000, 0.555185, 0.23651, 0.580001, 0.247067, 0.61298, 0.261096, 0, 0
0, 120.00000, 0.554989, 0.236426, 0.58, 0.247068, 0.612975, 0.261096, 0, 0
0, 180.00000, 0.554811, 0.23635, 0.58, 0.247069, 0.61297, 0.261097, 0, 0
0, 240.00000, 0.554651, 0.236282, 0.579999, 0.24707, 0.612967, 0.261098, 0, 0
0, 300.00000, 0.554506, 0.23622, 0.579999, 0.24707, 0.612963, 0.261099, 0, 0
0, 360.00000, 0.554375, 0.236164, 0.579998, 0.247071, 0.61296, 0.2611, 0, 0
0, 420.00000, 0.554257, 0.236113, 0.579998, 0.247072, 0.612958, 0.2611, 0, 0
0, 480.00000, 0.55415, 0.236068, 0.579998, 0.247072, 0.612955, 0.261101, 0, 0
0, 540.00000, 0.554054, 0.236027, 0.579998, 0.247073, 0.612953, 0.261102, 0, 0
0, 600.00000, 0.553967, 0.235989, 0.579997, 0.247073, 0.612951, 0.261102, 0, 0
0, 660.00000, 0.553888, 0.235956, 0.579997, 0.247074, 0.612949, 0.261103, 0, 0
0, 720.00000, 0.553818, 0.235926, 0.579997, 0.247074, 0.612947, 0.261103, 0, 0
0, 780.00000, 0.553754, 0.235899, 0.579997, 0.247074, 0.612946, 0.261104, 0, 0
0, 840.00000, 0.553697, 0.235874, 0.579997, 0.247074, 0.612945, 0.261104, 0, 0
0, 900.00000, 0.553645, 0.235852, 0.579997, 0.247075, 0.612944, 0.261105, 0, 0
0, 960.00000, 0.583073, 0.248388, 0.609881, 0.259806, 0.648414, 0.276215, 0, 0
0, 1020.00000, 0.583028, 0.248369, 0.609881, 0.259806, 0.648413, 0.276216, 0, 0
0, 1080.00000, 0.582989, 0.248352, 0.609881, 0.259806, 0.648412, 0.276216, 0, 0
0, 1140.00000, 0.582953, 0.248337, 0.609881, 0.259806, 0.648411, 0.276216, 0, 0
0, 1200.00000, 0.58292, 0.248323, 0.609881, 0.259806, 0.648411, 0.276217, 0, 0
0, 1260.00000, 0.582891, 0.248311, 0.609881, 0.259807, 0.64841, 0.276217, 0, 0
0, 1320.00000, 0.582865, 0.2483, 0.609881, 0.259807, 0.648409, 0.276217, 0, 0
0, 1380.00000, 0.582841, 0.248289, 0.609881, 0.259807, 0.648409, 0.276217, 0, 0
0, 1440.00000, 0.58282, 0.24828, 0.609881, 0.259807, 0.648408, 0.276217, 0, 0
0, 1500.00000, 0.582801, 0.248272, 0.609881, 0.259807, 0.648408, 0.276218, 0, 0
0, 1560.00000, 0.582783, 0.248265, 0.609881, 0.259807, 0.648408, 0.276218, 0, 0
0, 1620.00000, 0.582768, 0.248258, 0.609881, 0.259807, 0.648407, 0.276218, 0, 0
0, 1680.00000, 0.582754, 0.248252, 0.60988, 0.259807, 0.648407, 0.276218, 0, 0
0, 1740.00000, 0.582741, 0.248247, 0.60988, 0.259807, 0.648407, 0.276218, 0, 0
0, 1800.00000, 0.58273, 0.248242, 0.60988, 0.259807, 0.648406, 0.276218, 0, 0
0, 1860.00000, 0.586863, 0.250003, 0.614203, 0.261649, 0.650376, 0.277057, 0, 0
0, 1920.00000, 0.586853, 0.249998, 0.614203, 0.261649, 0.650375, 0.277057, 0, 0
0, 1980.00000, 0.586845, 0.249995, 0.614203, 0.261649, 0.650375, 0.277057, 0, 0
0, 2040.00000, 0.586837, 0.249992, 0.614203, 0.261649, 0.650375, 0.277057, 0, 0
0, 2100.00000, 0.586831, 0.249989, 0.614203, 0.261649, 0.650375, 0.277057, 0, 0
0, 2160.00000, 0.586824, 0.249986, 0.614203, 0.261649, 0.650374, 0.277057, 0, 0
0, 2220.00000, 0.586819, 0.249984, 0.614203, 0.261649, 0.650374, 0.277057, 0, 0
0, 2280.00000, 0.586814, 0.249982, 0.614203, 0.261649, 0.650374, 0.277057, 0, 0
0, 2340.00000, 0.58681, 0.24998, 0.614203, 0.261649, 0.650374, 0.277057, 0, 0
0, 2400.00000, 0.586806, 0.249978, 0.614203, 0.261649, 0.650374, 0.277058, 0, 0
0, 2460.00000, 0.586802, 0.249977, 0.614203, 0.261649, 0.650374, 0.277058, 0, 0
0, 2520.00000, 0.586799, 0.249975, 0.614203, 0.261649, 0.650374, 0.277058, 0, 0
0, 2580.00000, 0.586796, 0.249974, 0.614203, 0.261649, 0.650374, 0.277058, 0, 0
0, 2640.00000, 0.586793, 0.249973, 0.614203, 0.261649, 0.650374, 0.277058, 0, 0
0, 2700.00000, 0.586791, 0.249972, 0.614203, 0.261649, 0.650374, 0.277058, 0, 0
0, 2760.00000, 0.561674, 0.239272, 0.587864, 0.250429, 0.6186, 0.263522, 0, 0
0, 2820.00000, 0.561672, 0.239271, 0.587864, 0.250429, 0.618599, 0.263522, 0, 0
0, 2880.00000, 0.56167, 0.239271, 0.587864, 0.250429, 0.618599, 0.263522, 0, 0
0, 2940.00000, 0.561669, 0.23927, 0.587864, 0.250429, 0.618599, 0.263522, 0, 0
0, 3000.00000, 0.561668, 0.239269, 0.587864, 0.250429, 0.618599, 0.263522, 0, 0
0, 3060.00000, 0.561666, 0.239269, 0.587864, 0.250429, 0.618599, 0.263522, 0, 0
0, 3120.00000, 0.561665, 0.239268, 0.587864, 0.250429, 0.618599, 0.263522, 0, 0
0, 3180.00000, 0.561664, 0.239268, 0.587864, 0.250429, 0.618599, 0.263522, 0, 0
0, 3240.00000, 0.561664, 0.239268, 0.587864, 0.250429, 0.618599, 0.263522, 0, 0
0, 3300.00000, 0.561663, 0.239267, 0.587864, 0.250429, 0.618599, 0.263522, 0, 0
0, 3360.00000, 0.561662, 0.239267, 0.587864, 0.250429, 0.618598, 0.263522, 0, 0
0, 3420.00000, 0.561661, 0.239267, 0.587864, 0.250429, 0.618598, 0.263522, 0, 0
0, 3480.00000, 0.563206, 0.239925, 0.591644, 0.252039, 0.618599, 0.263522, 0, 0
0, 3540.00000, 0.563044, 0.239856, 0.592473, 0.252392, 0.618599, 0.263522, 0, 0
1, 0.00000, 0.563043, 0.239855, 0.592473, 0.252393, 0.618598, 0.263522, 0, 0
1, 60.00000, 0.559121, 0.238185, 0.588345, 0.250634, 0.611367, 0.260441, 0, 0
1, 120.00000, 0.55912, 0.238184, 0.588344, 0.250634, 0.611367, 0.260441, 0, 0
1, 180.00000, 0.55912, 0.238184, 0.588344, 0.250634, 0.611367, 0.260441, 0, 0
1, 240.00000, 0.559119, 0.238184, 0.588344, 0.250634, 0.611367, 0.260441, 0, 0
1, 300.00000, 0.559119, 0.238184, 0.588344, 0.250634, 0.611367, 0.260441, 0, 0
1, 360.00000, 0.559119, 0.238184, 0.588344, 0.250634, 0.611367, 0.260441, 0, 0
1, 420.00000, 0.559119, 0.238184, 0.588344, 0.250634, 0.611367, 0.260441, 0, 0
1, 480.00000, 0.559119, 0.238183, 0.588344, 0.250634, 0.611367, 0.260441, 0, 0
1, 540.00000, 0.559118, 0.238183, 0.588344, 0.250634, 0.611367, 0.260441, 0, 0
1, 600.00000, 0.57434, 0.244668, 0.588464, 0.250685, 0.611367, 0.260441, 0, 0
1, 660.00000, 0.574339, 0.244667, 0.588464, 0.250685, 0.611367, 0.260441, 0, 0
1, 720.00000, 0.574339, 0.244667, 0.588464, 0.250685, 0.611367, 0.260441, 0, 0
1, 780.00000, 0.574339, 0.244667, 0.588464, 0.250685, 0.611367, 0.260441, 0, 0
1, 840.00000, 0.574339, 0.244667, 0.588464, 0.250685, 0.611367, 0.260441, 0, 0
1, 900.00000, 0.574339, 0.244667, 0.588464, 0.250685, 0.611367, 0.260441, 0, 0
1, 960.00000, 0.572064, 0.243698, 0.586115, 0.249684, 0.608506, 0.259222, 0, 0
1, 1020.00000, 0.572064, 0.243698, 0.586115, 0.249684, 0.608505, 0.259222, 0, 0
1, 1080.00000, 0.572064, 0.243698, 0.586115, 0.249684, 0.608505, 0.259222, 0, 0
1, 1140.00000, 0.572064, 0.243698, 0.586115, 0.249684, 0.608505, 0.259222, 0, 0
1, 1200.00000, 0.572063, 0.243698, 0.586115, 0.249684, 0.608505, 0.259222, 0, 0
1, 1260.00000, 0.572063, 0.243698, 0.586115, 0.249684, 0.608505, 0.259222, 0, 0
1, 1320.00000, 0.572063, 0.243698, 0.586115, 0.249684, 0.608505, 0.259222, 0, 0
1, 1380.00000, 0.572063, 0.243698, 0.586115, 0.249684, 0.608505, 0.259222, 0, 0
1, 1440.00000, 0.572063, 0.243698, 0.586115, 0.249684, 0.608505, 0.259222, 0, 0
1, 1500.00000, 0.572063, 0.243698, 0.586115, 0.249684, 0.608505, 0.259222, 0, 0
1, 1560.00000, 0.572063, 0.243698, 0.586115, 0.249684, 0.608505, 0.259222, 0, 0
1, 1620.00000, 0.572063, 0.243698, 0.586115, 0.249684, 0.608505, 0.259222, 0, 0
1, 1680.00000, 0.572063, 0.243698, 0.586115, 0.249684, 0.608505, 0.259222, 0, 0
1, 1740.00000, 0.572063, 0.243698, 0.586115, 0.249684, 0.608505, 0.259222, 0, 0
1, 1800.00000, 0.572063, 0.243698, 0.586115, 0.249684, 0.608505, 0.259222, 0, 0
1, 1860.00000, 0.587193, 0.250143, 0.603873, 0.257249, 0.62318, 0.265474, 0, 0
1, 1920.00000, 0.587194, 0.250143, 0.603873, 0.257249, 0.623181, 0.265474, 0, 0
1, 1980.00000, 0.587194, 0.250143, 0.603873, 0.257249, 0.623181, 0.265474, 0, 0
1, 2040.00000, 0.587194, 0.250143, 0.603873, 0.257249, 0.623181, 0.265474, 0, 0
1, 2100.00000, 0.587194, 0.250143, 0.603873, 0.257249, 0.623181, 0.265474, 0, 0
1, 2160.00000, 0.587194, 0.250143, 0.603873, 0.257249, 0.623181, 0.265474, 0, 0
1, 2220.00000, 0.587194, 0.250143, 0.603873, 0.257249, 0.623181, 0.265474, 0, 0
1, 2280.00000, 0.587194, 0.250143, 0.603873, 0.257249, 0.623181, 0.265474, 0, 0
1, 2340.00000, 0.587194, 0.250143, 0.603873, 0.257249, 0.623181, 0.265474, 0, 0
1, 2400.00000, 0.587194, 0.250143, 0.603873, 0.257249, 0.623181, 0.265474, 0, 0
1, 2460.00000, 0.587194, 0.250143, 0.603873, 0.257249, 0.623181, 0.265474, 0, 0
1, 2520.00000, 0.587194, 0.250143, 0.603873, 0.257249, 0.623181, 0.265474, 0, 0
1, 2580.00000, 0.587194, 0.250143, 0.603873, 0.257249, 0.623181, 0.265474, 0, 0
1, 2640.00000, 0.587194, 0.250143, 0.603873, 0.257249, 0.623181, 0.265474, 0, 0
1, 2700.00000, 0.587194, 0.250143, 0.603873, 0.257249, 0.623181, 0.265474, 0, 0
1, 2760.00000, 0.557951, 0.237686, 0.573587, 0.244347, 0.587225, 0.250157, 0, 0
1, 2820.00000, 0.557951, 0.237686, 0.573587, 0.244347, 0.587225, 0.250157, 0, 0
1, 2880.00000, 0.557951, 0.237686, 0.573587, 0.244347, 0.587225, 0.250157, 0, 0
1, 2940.00000, 0.557951, 0.237686, 0.573587, 0.244347, 0.587225, 0.250157, 0, 0
1, 3000.00000, 0.557951, 0.237686, 0.573587, 0.244347, 0.587225, 0.250157, 0, 0
1, 3060.00000, 0.557951, 0.237686, 0.573587, 0.244347, 0.587225, 0.250157, 0, 0
1, 3120.00000, 0.557951, 0.237686, 0.573587, 0.244347, 0.587225, 0.250157, 0, 0
1, 3180.00000, 0.557951, 0.237686, 0.573587, 0.244347, 0.587225, 0.250157, 0, 0
1, 3240.00000, 0.557951, 0.237686, 0.573587, 0.244347, 0.587225, 0.250157, 0, 0
1, 3300.00000, 0.557951, 0.237686, 0.573587, 0.244347, 0.587225, 0.250157, 0, 0
1, 3360.00000, 0.557951, 0.237686, 0.573587, 0.244347, 0.587225, 0.250157, 0, 0
1, 3420.00000, 0.557951, 0.237686, 0.573587, 0.244347, 0.587225, 0.250157, 0, 0
1, 3480.00000, 0.557951, 0.237686, 0.573587, 0.244347, 0.587225, 0.250157, 0, 0
1, 3540.00000, 0.557951, 0.237686, 0.573587, 0.244347, 0.587225, 0.250157, 0, 0
2, 0.00000, 0.557951, 0.237686, 0.573587, 0.244347, 0.587225, 0.250157, 0, 0
2, 60.00000, 0.570122, 0.242871, 0.586216, 0.249727, 0.602983, 0.25687, 0, 0
2, 120.00000, 0.570122, 0.242871, 0.586216, 0.249727, 0.602983, 0.25687, 0, 0
2, 180.00000, 0.570122, 0.242871, 0.586216, 0.249727, 0.602983, 0.25687, 0, 0
2, 240.00000, 0.570122, 0.242871, 0.586216, 0.249727, 0.602983, 0.25687, 0, 0
2, 300.00000, 0.570011, 0.242824, 0.587528, 0.250286, 0.602984, 0.25687, 0, 0
2, 360.00000, 0.570011, 0.242824, 0.587528, 0.250286, 0.602983, 0.25687, 0, 0
2, 420.00000, 0.570011, 0.242824, 0.587528, 0.250286, 0.602983, 0.25687, 0, 0
2, 480.00000, 0.570011, 0.242824, 0.587528, 0.250286, 0.602983, 0.25687, 0, 0
2, 540.00000, 0.570011, 0.242824, 0.587528, 0.250286, 0.602983, 0.25687, 0, 0
2, 600.00000, 0.570011, 0.242824, 0.587528, 0.250286, 0.602983, 0.25687, 0, 0
2, 660.00000, 0.570011, 0.242824, 0.587528, 0.250286, 0.602983, 0.25687, 0, 0
2, 720.00000, 0.570011, 0.242824, 0.587528, 0.250286, 0.602983, 0.25687, 0, 0
2, 780.00000, 0.570011, 0.242824, 0.587528, 0.250286, 0.602983, 0.25687, 0, 0
2, 840.00000, 0.570011, 0.242824, 0.587528, 0.250286, 0.602983, 0.25687, 0, 0
2, 900.00000, 0.570011, 0.242824, 0.587528, 0.250286, 0.602983, 0.25687, 0, 0
2, 960.00000, 0.543851, 0.23168, 0.560402, 0.23873, 0.571331, 0.243386, 0, 0
2, 1020.00000, 0.54385, 0.231679, 0.560402, 0.23873, 0.57133, 0.243386, 0, 0
2, 1080.00000, 0.54385, 0.231679, 0.560402, 0.23873, 0.57133, 0.243386, 0, 0
2, 1140.00000, 0.54385, 0.231679, 0.560402, 0.23873, 0.57133, 0.243386, 0, 0
2, 1200.00000, 0.54385, 0.231679, 0.560402, 0.23873, 0.57133, 0.243386, 0, 0
2, 1260.00000, 0.54385, 0.231679, 0.560402, 0.23873, 0.57133, 0.243386, 0, 0
2, 1320.00000, 0.54385, 0.231679, 0.560402, 0.23873, 0.57133, 0.243386, 0, 0
2, 1380.00000, 0.54385, 0.231679, 0.560402, 0.23873, 0.57133, 0.243386, 0, 0
2, 1440.00000, 0.54385, 0.231679, 0.560402, 0.23873, 0.57133, 0.243386, 0, 0
2, 1500.00000, 0.54385, 0.231679, 0.560402, 0.23873, 0.57133, 0.243386, 0, 0
2, 1560.00000, 0.54385, 0.231679, 0.560402, 0.23873, 0.57133, 0.243386, 0, 0
2, 1620.00000, 0.54385, 0.231679, 0.560402, 0.23873, 0.57133, 0.243386, 0, 0
2, 1680.00000, 0.54385, 0.231679, 0.560402, 0.23873, 0.57133, 0.243386, 0, 0
2, 1740.00000, 0.54385, 0.231679, 0.560402, 0.23873, 0.57133, 0.243386, 0, 0
2, 1800.00000, 0.54385, 0.231679, 0.560402, 0.23873, 0.57133, 0.243386, 0, 0
2, 1860.00000, 0.542, 0.230891, 0.558555, 0.237944, 0.571018, 0.243253, 0, 0
2, 1920.00000, 0.542, 0.230891, 0.558555, 0.237943, 0.571018, 0.243253, 0, 0
2, 1980.00000, 0.542, 0.230891, 0.558555, 0.237943, 0.571018, 0.243253, 0, 0
2, 2040.00000, 0.542, 0.230891, 0.558555, 0.237943, 0.571018, 0.243253, 0, 0
2, 2100.00000, 0.542, 0.230891, 0.558555, 0.237943, 0.571018, 0.243253, 0, 0
2, 2160.00000, 0.542, 0.230891, 0.558555, 0.237943, 0.571018, 0.243253, 0, 0
2, 2220.00000, 0.542, 0.230891, 0.558555, 0.237943, 0.571018, 0.243253, 0, 0
2, 2280.00000, 0.542, 0.230891, 0.558555, 0.237943, 0.571018, 0.243253, 0, 0
2, 2340.00000, 0.542, 0.230891, 0.558555, 0.237943, 0.571018, 0.243253, 0, 0
2, 2400.00000, 0.542, 0.230891, 0.558555, 0.237943, 0.571018, 0.243253, 0, 0
2, 2460.00000, 0.542, 0.230891, 0.558555, 0.237943, 0.571018, 0.243253, 0, 0
2, 2520.00000, 0.542, 0.230891, 0.558555, 0.237943, 0.571018, 0.243253, 0, 0
2, 2580.00000, 0.542, 0.230891, 0.558555, 0.237943, 0.571018, 0.243253, 0, 0
2, 2640.00000, 0.542, 0.230891, 0.558555, 0.237943, 0.571018, 0.243253, 0, 0
2, 2700.00000, 0.542, 0.230891, 0.558555, 0.237943, 0.571018, 0.243253, 0, 0
2, 2760.00000, 0.522709, 0.222673, 0.538527, 0.229411, 0.546328, 0.232735, 0, 0
2, 2820.00000, 0.522709, 0.222673, 0.538527, 0.229412, 0.546327, 0.232734, 0, 0
2, 2880.00000, 0.522709, 0.222673, 0.538527, 0.229412, 0.546327, 0.232734, 0, 0
2, 2940.00000, 0.522709, 0.222673, 0.538527, 0.229412, 0.546327, 0.232734, 0, 0
2, 3000.00000, 0.522709, 0.222673, 0.538527, 0.229412, 0.546327, 0.232734, 0, 0
2, 3060.00000, 0.522709, 0.222673, 0.538527, 0.229412, 0.546327, 0.232734, 0, 0
2, 3120.00000, 0.522709, 0.222673, 0.538527, 0.229412, 0.546327, 0.232734, 0, 0
2, 3180.00000, 0.522709, 0.222673, 0.538527, 0.229412, 0.546327, 0.232734, 0, 0
2, 3240.00000, 0.522709, 0.222673, 0.538527, 0.229412, 0.546327, 0.232734, 0, 0
2, 3300.00000, 0.522709, 0.222673, 0.538527, 0.229412, 0.546327, 0.232734, 0, 0
2, 3360.00000, 0.522709, 0.222673, 0.538527, 0.229412, 0.546327, 0.232734, 0, 0
2, 3420.00000, 0.522709, 0.222673, 0.538527, 0.229412, 0.546327, 0.232734, 0, 0
2, 3480.00000, 0.522709, 0.222673, 0.538527, 0.229412, 0.546327, 0.232734, 0, 0
2, 3540.00000, 0.522709, 0.222673, 0.538527, 0.229412, 0.546327, 0.232734, 0, 0
3, 0.00000, 0.522709, 0.222673, 0.538527, 0.229412, 0.546327, 0.232734, 0, 0
3, 60.00000, 0.534191, 0.227565, 0.550406, 0.234472, 0.560219, 0.238652, 0, 0
3, 120.00000, 0.534192, 0.227565, 0.550406, 0.234472, 0.56022, 0.238653, 0, 0
3, 180.00000, 0.534192, 0.227565, 0.550406, 0.234472, 0.56022, 0.238653, 0, 0
3, 240.00000, 0.534192, 0.227565, 0.550406, 0.234472, 0.56022, 0.238653, 0, 0
3, 300.00000, 0.534192, 0.227565, 0.550406, 0.234472, 0.56022, 0.238653, 0, 0
3, 360.00000, 0.534192, 0.227565, 0.550406, 0.234472, 0.56022, 0.238653, 0, 0
3, 420.00000, 0.534192, 0.227565, 0.550406, 0.234472, 0.56022, 0.238653, 0, 0
3, 480.00000, 0.534192, 0.227565, 0.550406, 0.234472, 0.56022, 0.238653, 0, 0
3, 540.00000, 0.534192, 0.227565, 0.550406, 0.234472, 0.56022, 0.238653, 0, 0
3, 600.00000, 0.534192, 0.227565, 0.550406, 0.234472, 0.56022, 0.238653, 0, 0
3, 660.00000, 0.534192, 0.227565, 0.550406, 0.234472, 0.56022, 0.238653, 0, 0
3, 720.00000, 0.534192, 0.227565, 0.550406, 0.234472, 0.56022, 0.238653, 0, 0
3, 780.00000, 0.534192, 0.227565, 0.550406, 0.234472, 0.56022, 0.238653, 0, 0
3, 840.00000, 0.534192, 0.227565, 0.550406, 0.234472, 0.56022, 0.238653, 0, 0
3, 900.00000, 0.534192, 0.227565, 0.550406, 0.234472, 0.56022, 0.238653, 0, 0
3, 960.00000, 0.549074, 0.233904, 0.565727, 0.240998, 0.575613, 0.24521, 0, 0
3, 1020.00000, 0.549073, 0.233904, 0.565727, 0.240999, 0.575612, 0.24521, 0, 0
3, 1080.00000, 0.549073, 0.233904, 0.565727, 0.240999, 0.575612, 0.24521, 0, 0
3, 1140.00000, 0.549073, 0.233904, 0.565727, 0.240999, 0.575612, 0.24521, 0, 0
3, 1200.00000, 0.549073, 0.233904, 0.565727, 0.240999, 0.575612, 0.24521, 0, 0
3, 1260.00000, 0.549073, 0.233904, 0.565727, 0.240999, 0.575612, 0.24521, 0, 0
3, 1320.00000, 0.549073, 0.233904, 0.565727, 0.240999, 0.575612, 0.24521, 0, 0
3, 1380.00000, 0.549073, 0.233904, 0.565727, 0.240999, 0.575612, 0.24521, 0, 0
3, 1440.00000, 0.549073, 0.233904, 0.565727, 0.240999, 0.575612, 0.24521, 0, 0
3, 1500.00000, 0.549073, 0.233904, 0.565727, 0.240999, 0.575612, 0.24521, 0, 0
3, 1560.00000, 0.549073, 0.233904, 0.565727, 0.240999, 0.575612, 0.24521, 0, 0
3, 1620.00000, 0.549073, 0.233904, 0.565727, 0.240999, 0.575612, 0.24521, 0, 0
3, 1680.00000, 0.549073, 0.233904, 0.565727, 0.240999, 0.575612, 0.24521, 0, 0
3, 1740.00000, 0.549073, 0.233904, 0.565727, 0.240999, 0.575612, 0.24521, 0, 0
3, 1800.00000, 0.549073, 0.233904, 0.565727, 0.240999, 0.575612, 0.24521, 0, 0
3, 1860.00000, 0.55567, 0.236714, 0.572531, 0.243897, 0.582651, 0.248208, 0, 0
3, 1920.00000, 0.555669, 0.236714, 0.572531, 0.243897, 0.582651, 0.248208, 0, 0
3, 1980.00000, 0.555669, 0.236714, 0.572531, 0.243897, 0.582651, 0.248208, 0, 0
3, 2040.00000, 0.555669, 0.236714, 0.572531, 0.243897, 0.582651, 0.248208, 0, 0
3, 2100.00000, 0.555669, 0.236714, 0.572531, 0.243897, 0.582651, 0.248208, 0, 0
3, 2160.00000, 0.555669, 0.236714, 0.572531, 0.243897, 0.582651, 0.248208, 0, 0
3, 2220.00000, 0.555669, 0.236714, 0.572531, 0.243897, 0.582651, 0.248208, 0, 0
3, 2280.00000, 0.555669, 0.236714, 0.572531, 0.243897, 0.582651, 0.248208, 0, 0
3, 2340.00000, 0.555669, 0.236714, 0.572531, 0.243897, 0.582651, 0.248208, 0, 0
3, 2400.00000, 0.555669, 0.236714, 0.572531, 0.243897, 0.582651, 0.248208, 0, 0
3, 2460.00000, 0.555669, 0.236714, 0.572531, 0.243897, 0.582651, 0.248208, 0, 0
3, 2520.00000, 0.555669, 0.236714, 0.572531, 0.243897, 0.582651, 0.248208, 0, 0
3, 2580.00000, 0.555669, 0.236714, 0.572531, 0.243897, 0.582651, 0.248208, 0, 0
3, 2640.00000, 0.555669, 0.236714, 0.572531, 0.243897, 0.582651, 0.248208, 0, 0
3, 2700.00000, 0.555669, 0.236714, 0.572531, 0.243897, 0.582651, 0.248208, 0, 0
3, 2760.00000, 0.512504, 0.218326, 0.527987, 0.224921, 0.53317, 0.227129, 0, 0
3, 2820.00000, 0.512504, 0.218326, 0.527987, 0.224921, 0.533169, 0.227129, 0, 0
3, 2880.00000, 0.512504, 0.218326, 0.527987, 0.224921, 0.533169, 0.227129, 0, 0
3, 2940.00000, 0.512504, 0.218326, 0.527987, 0.224921, 0.533169, 0.227129, 0, 0
3, 3000.00000, 0.512504, 0.218326, 0.527987, 0.224921, 0.533169, 0.227129, 0, 0
3, 3060.00000, 0.512504, 0.218326, 0.527987, 0.224921, 0.533169, 0.227129, 0, 0
3, 3120.00000, 0.512504, 0.218326, 0.527987, 0.224921, 0.533169, 0.227129, 0, 0
3, 3180.00000, 0.512504, 0.218326, 0.527987, 0.224921, 0.533169, 0.227129, 0, 0
3, 3240.00000, 0.512504, 0.218326, 0.527987, 0.224921, 0.533169, 0.227129, 0, 0
3, 3300.00000, 0.512504, 0.218326, 0.527987, 0.224921, 0.533169, 0.227129, 0, 0
3, 3360.00000, 0.512504, 0.218326, 0.527987, 0.224921, 0.533169, 0.227129, 0, 0
3, 3420.00000, 0.512504, 0.218326, 0.527987, 0.224921, 0.533169, 0.227129, 0, 0
3, 3480.00000, 0.512504, 0.218326, 0.527987, 0.224921, 0.533169, 0.227129, 0, 0
3, 3540.00000, 0.512504, 0.218326, 0.527987, 0.224921, 0.533169, 0.227129, 0, 0
4, 0.00000, 0.512504, 0.218326, 0.527987, 0.224921, 0.533169, 0.227129, 0, 0
4, 60.00000, 0.54551, 0.232386, 0.562033, 0.239425, 0.570367, 0.242976, 0, 0
4, 120.00000, 0.54551, 0.232386, 0.562033, 0.239425, 0.570368, 0.242976, 0, 0
4, 180.00000, 0.54551, 0.232386, 0.562033, 0.239425, 0.570368, 0.242976, 0, 0
4, 240.00000, 0.54551, 0.232386, 0.562033, 0.239425, 0.570368, 0.242976, 0, 0
4, 300.00000, 0.54551, 0.232386, 0.562033, 0.239425, 0.570368, 0.242976, 0, 0
4, 360.00000, 0.54551, 0.232386, 0.562033, 0.239425, 0.570368, 0.242976, 0, 0
4, 420.00000, 0.54551, 0.232386, 0.562033, 0.239425, 0.570368, 0.242976, 0, 0
4, 480.00000, 0.54551, 0.232386, 0.562033, 0.239425, 0.570368, 0.242976, 0, 0
4, 540.00000, 0.54551, 0.232386, 0.562033, 0.239425, 0.570368, 0.242976, 0, 0
4, 600.00000, 0.54551, 0.232386, 0.562033, 0.239425, 0.570368, 0.242976, 0, 0
4, 660.00000, 0.54551, 0.232386, 0.562033, 0.239425, 0.570368, 0.242976, 0, 0
4, 720.00000, 0.54551, 0.232386, 0.562033, 0.239425, 0.570368, 0.242976, 0, 0
