hour,t(sec),V1,VAngle1,V2,VAngle2,V3,VAngle3,V4,VAngle4,I1,IAngle1,I2,IAngle2,I3,IAngle3,I4,IAngle4
0, 60.00000, 123.601, -31.9266, 123.076, -151.23, 124.923, 88.6299, 0, 0, 6.12329, -55.0002, 6.1494, -174.304, 6.05853, 65.5563, 0.149136, 47.9619
0, 120.00000, 123.601, -31.9266, 123.076, -151.23, 124.922, 88.6299, 0, 0, 6.12336, -55.0005, 6.14949, -174.304, 6.05859, 65.556, 0.149178, 47.9657
0, 180.00000, 123.601, -31.9266, 123.076, -151.23, 124.922, 88.6299, 0, 0, 6.12336, -55.0005, 6.14949, -174.304, 6.05859, 65.556, 0.149178, 47.9657
0, 240.00000, 123.601, -31.9266, 123.076, -151.23, 124.922, 88.6299, 0, 0, 6.12336, -55.0005, 6.14949, -174.304, 6.05859, 65.556, 0.149178, 47.9657
0, 300.00000, 123.601, -31.9266, 123.076, -151.23, 124.922, 88.6299, 0, 0, 6.12336, -55.0005, 6.14949, -174.304, 6.05859, 65.556, 0.149178, 47.9657
0, 360.00000, 123.601, -31.9266, 123.076, -151.23, 124.922, 88.6299, 0, 0, 6.12336, -55.0005, 6.14949, -174.304, 6.05859, 65.556, 0.149178, 47.9657
0, 420.00000, 123.601, -31.9266, 123.076, -151.23, 124.922, 88.6299, 0, 0, 6.12336, -55.0005, 6.14949, -174.304, 6.05859, 65.556, 0.149178, 47.9657
0, 480.00000, 124.088, -31.7995, 123.543, -151.105, 125.393, 88.7641, 0, 0, 5.30648, -54.8739, 5.32992, -174.179, 5.2513, 65.6896, 0.129058, 47.4018
0, 540.00000, 124.089, -31.7995, 123.543, -151.105, 125.393, 88.7642, 0, 0, 5.30641, -54.8734, 5.32986, -174.179, 5.2512, 65.6903, 0.129076, 47.387
0, 600.00000, 124.089, -31.7995, 123.543, -151.105, 125.393, 88.7642, 0, 0, 5.30641, -54.8734, 5.32986, -174.179, 5.25119, 65.6903, 0.129077, 47.3868
0, 660.00000, 124.089, -31.7995, 123.543, -151.105, 125.393, 88.7642, 0, 0, 5.30641, -54.8734, 5.32986, -174.179, 5.25119, 65.6903, 0.129077, 47.3868
0, 720.00000, 124.089, -31.7995, 123.543, -151.105, 125.393, 88.7642, 0, 0, 5.30641, -54.8734, 5.32986, -174.179, 5.25119, 65.6903, 0.129077, 47.3868
0, 780.00000, 124.089, -31.7995, 123.543, -151.105, 125.393, 88.7642, 0, 0, 5.30641, -54.8734, 5.32986, -174.179, 5.25119, 65.6903, 0.129077, 47.3868
0, 840.00000, 124.089, -31.7995, 123.543, -151.105, 125.393, 88.7642, 0, 0, 5.30641, -54.8734, 5.32986, -174.179, 5.25119, 65.6903, 0.129077, 47.3868
0, 900.00000, 124.089, -31.7995, 123.543, -151.105, 125.393, 88.7642, 0, 0, 5.30641, -54.8734, 5.32986, -174.179, 5.25119, 65.6903, 0.129077, 47.3868
0, 960.00000, 124.089, -31.7995, 123.543, -151.105, 125.393, 88.7642, 0, 0, 5.30641, -54.8734, 5.32986, -174.179, 5.25119, 65.6903, 0.129077, 47.3868
0, 1020.00000, 124.089, -31.7995, 123.543, -151.105, 125.393, 88.7642, 0, 0, 5.30641, -54.8734, 5.32986, -174.179, 5.25119, 65.6903, 0.129077, 47.3868
0, 1080.00000, 124.089, -31.7995, 123.543, -151.105, 125.393, 88.7642, 0, 0, 5.30641, -54.8734, 5.32986, -174.179, 5.25119, 65.6903, 0.129077, 47.3868
0, 1140.00000, 124.089, -31.7995, 123.543, -151.105, 125.393, 88.7642, 0, 0, 5.30641, -54.8734, 5.32986, -174.179, 5.25119, 65.6903, 0.129077, 47.3868
0, 1200.00000, 124.089, -31.7995, 123.543, -151.105, 125.393, 88.7642, 0, 0, 5.30641, -54.8734, 5.32986, -174.179, 5.25119, 65.6903, 0.129077, 47.3868
0, 1260.00000, 124.089, -31.7995, 123.543, -151.105, 125.393, 88.7642, 0, 0, 5.30641, -54.8734, 5.32986, -174.179, 5.25119, 65.6903, 0.129077, 47.3868
0, 1320.00000, 124.089, -31.7995, 123.543, -151.105, 125.393, 88.7642, 0, 0, 5.30641, -54.8734, 5.32986, -174.179, 5.25119, 65.6903, 0.129077, 47.3868
0, 1380.00000, 124.089, -31.7995, 123.543, -151.105, 125.393, 88.7642, 0, 0, 5.30641, -54.8734, 5.32986, -174.179, 5.25119, 65.6903, 0.129077, 47.3868
0, 1440.00000, 124.089, -31.7995, 123.543, -151.105, 125.393, 88.7642, 0, 0, 5.30641, -54.8734, 5.32986, -174.179, 5.25119, 65.6903, 0.129077, 47.3868
0, 1500.00000, 124.089, -31.7995, 123.543, -151.105, 125.393, 88.7642, 0, 0, 5.30641, -54.8734, 5.32986, -174.179, 5.25119, 65.6903, 0.129077, 47.3868
0, 1560.00000, 124.089, -31.7995, 123.543, -151.105, 125.393, 88.7642, 0, 0, 5.30641, -54.8734, 5.32986, -174.179, 5.25119, 65.6903, 0.129077, 47.3868
0, 1620.00000, 124.089, -31.7995, 123.543, -151.105, 125.393, 88.7642, 0, 0, 5.30641, -54.8734, 5.32986, -174.179, 5.25119, 65.6903, 0.129077, 47.3868
0, 1680.00000, 124.089, -31.7995, 123.543, -151.105, 125.393, 88.7642, 0, 0, 5.30641, -54.8734, 5.32986, -174.179, 5.25119, 65.6903, 0.129077, 47.3868
0, 1740.00000, 124.089, -31.7995, 123.543, -151.105, 125.393, 88.7642, 0, 0, 5.30641, -54.8734, 5.32986, -174.179, 5.25119, 65.6903, 0.129077, 47.3868
0, 1800.00000, 124.089, -31.7995, 123.543, -151.105, 125.393, 88.7642, 0, 0, 5.30641, -54.8734, 5.32986, -174.179, 5.25119, 65.6903, 0.129077, 47.3868
0, 1860.00000, 124.089, -31.7995, 123.543, -151.105, 125.393, 88.7642, 0, 0, 5.30641, -54.8734, 5.32986, -174.179, 5.25119, 65.6903, 0.129077, 47.3868
0, 1920.00000, 124.089, -31.7995, 123.543, -151.105, 125.393, 88.7642, 0, 0, 5.30641, -54.8734, 5.32986, -174.179, 5.25119, 65.6903, 0.129077, 47.3868
0, 1980.00000, 124.089, -31.7995, 123.543, -151.105, 125.393, 88.7642, 0, 0, 5.30641, -54.8734, 5.32986, -174.179, 5.25119, 65.6903, 0.129077, 47.3868
0, 2040.00000, 124.089, -31.7995, 123.543, -151.105, 125.393, 88.7642, 0, 0, 5.30641, -54.8734, 5.32986, -174.179, 5.25119, 65.6903, 0.129077, 47.3868
0, 2100.00000, 124.089, -31.7995, 123.543, -151.105, 125.393, 88.7642, 0, 0, 5.30641, -54.8734, 5.32986, -174.179, 5.25119, 65.6903, 0.129077, 47.3868
0, 2160.00000, 124.089, -31.7995, 123.543, -151.105, 125.393, 88.7642, 0, 0, 5.30641, -54.8734, 5.32986, -174.179, 5.25119, 65.6903, 0.129077, 47.3868
0, 2220.00000, 124.089, -31.7995, 123.543, -151.105, 125.393, 88.7642, 0, 0, 5.30641, -54.8734, 5.32986, -174.179, 5.25119, 65.6903, 0.129077, 47.3868
0, 2280.00000, 124.089, -31.7995, 123.543, -151.105, 125.393, 88.7642, 0, 0, 5.30641, -54.8734, 5.32986, -174.179, 5.25119, 65.6903, 0.129077, 47.3868
0, 2340.00000, 124.089, -31.7995, 123.543, -151.105, 125.393, 88.7642, 0, 0, 5.30641, -54.8734, 5.32986, -174.179, 5.25119, 65.6903, 0.129077, 47.3868
0, 2400.00000, 124.089, -31.7995, 123.543, -151.105, 125.393, 88.7642, 0, 0, 5.30641, -54.8734, 5.32986, -174.179, 5.25119, 65.6903, 0.129077, 47.3868
0, 2460.00000, 124.089, -31.7995, 123.543, -151.105, 125.393, 88.7642, 0, 0, 5.30641, -54.8734, 5.32986, -174.179, 5.25119, 65.6903, 0.129077, 47.3868
0, 2520.00000, 124.089, -31.7995, 123.543, -151.105, 125.393, 88.7642, 0, 0, 5.30641, -54.8734, 5.32986, -174.179, 5.25119, 65.6903, 0.129077, 47.3868
0, 2580.00000, 124.089, -31.7995, 123.543, -151.105, 125.393, 88.7642, 0, 0, 5.30641, -54.8734, 5.32986, -174.179, 5.25119, 65.6903, 0.129077, 47.3868
0, 2640.00000, 124.089, -31.7995, 123.543, -151.105, 125.393, 88.7642, 0, 0, 5.30641, -54.8734, 5.32986, -174.179, 5.25119, 65.6903, 0.129077, 47.3868
0, 2700.00000, 124.089, -31.7995, 123.543, -151.105, 125.393, 88.7642, 0, 0, 5.30641, -54.8734, 5.32986, -174.179, 5.25119, 65.6903, 0.129077, 47.3868
0, 2760.00000, 124.089, -31.7995, 123.543, -151.105, 125.393, 88.7642, 0, 0, 5.30641, -54.8734, 5.32986, -174.179, 5.25119, 65.6903, 0.129077, 47.3868
0, 2820.00000, 124.089, -31.7995, 123.543, -151.105, 125.393, 88.7642, 0, 0, 5.30641, -54.8734, 5.32986, -174.179, 5.25119, 65.6903, 0.129077, 47.3868
0, 2880.00000, 124.089, -31.7995, 123.543, -151.105, 125.393, 88.7642, 0, 0, 5.30641, -54.8734, 5.32986, -174.179, 5.25119, 65.6903, 0.129077, 47.3868
0, 2940.00000, 124.089, -31.7995, 123.543, -151.105, 125.393, 88.7642, 0, 0, 5.30641, -54.8734, 5.32986, -174.179, 5.25119, 65.6903, 0.129077, 47.3868
0, 3000.00000, 124.089, -31.7995, 123.543, -151.105, 125.393, 88.7642, 0, 0, 5.30641, -54.8734, 5.32986, -174.179, 5.25119, 65.6903, 0.129077, 47.3868
0, 3060.00000, 124.089, -31.7995, 123.543, -151.105, 125.393, 88.7642, 0, 0, 5.30641, -54.8734, 5.32986, -174.179, 5.25119, 65.6903, 0.129077, 47.3868
0, 3120.00000, 124.089, -31.7995, 123.543, -151.105, 125.393, 88.7642, 0, 0, 5.30641, -54.8734, 5.32986, -174.179, 5.25119, 65.6903, 0.129077, 47.3868
0, 3180.00000, 124.089, -31.7995, 123.543, -151.105, 125.393, 88.7642, 0, 0, 5.30641, -54.8734, 5.32986, -174.179, 5.25119, 65.6903, 0.129077, 47.3868
0, 3240.00000, 124.089, -31.7995, 123.543, -151.105, 125.393, 88.7642, 0, 0, 5.30641, -54.8734, 5.32986, -174.179, 5.25119, 65.6903, 0.129077, 47.3868
0, 3300.00000, 124.089, -31.7995, 123.543, -151.105, 125.393, 88.7642, 0, 0, 5.30641, -54.8734, 5.32986, -174.179, 5.25119, 65.6903, 0.129077, 47.3868
0, 3360.00000, 124.089, -31.7995, 123.543, -151.105, 125.393, 88.7642, 0, 0, 5.30641, -54.8734, 5.32986, -174.179, 5.25119, 65.6903, 0.129077, 47.3868
0, 3420.00000, 124.089, -31.7995, 123.543, -151.105, 125.393, 88.7642, 0, 0, 5.30641, -54.8734, 5.32986, -174.179, 5.25119, 65.6903, 0.129077, 47.3868
0, 3480.00000, 124.089, -31.7995, 123.543, -151.105, 125.393, 88.7642, 0, 0, 5.30641, -54.8734, 5.32986, -174.179, 5.25119, 65.6903, 0.129077, 47.3868
0, 3540.00000, 124.089, -31.7995, 123.543, -151.105, 125.393, 88.7642, 0, 0, 5.30641, -54.8734, 5.32986, -174.179, 5.25119, 65.6903, 0.129077, 47.3868
1, 0.00000, 124.089, -31.7995, 123.543, -151.105, 125.393, 88.7642, 0, 0, 5.30641, -54.8734, 5.32986, -174.179, 5.25119, 65.6903, 0.129077, 47.3868
1, 60.00000, 124.669, -31.5431, 124.325, -151.209, 125.35, 88.7727, 0, 0, 5.28172, -54.6171, 5.2964, -174.283, 5.25297, 65.6988, 0.0680646, 42.7651
1, 120.00000, 124.669, -31.5431, 124.325, -151.209, 125.35, 88.7727, 0, 0, 5.28169, -54.617, 5.29633, -174.283, 5.25299, 65.6988, 0.0679938, 42.7866
1, 180.00000, 124.669, -31.5431, 124.325, -151.209, 125.35, 88.7727, 0, 0, 5.28169, -54.617, 5.29633, -174.283, 5.25299, 65.6988, 0.0679934, 42.7867
1, 240.00000, 124.669, -31.5431, 124.325, -151.209, 125.35, 88.7727, 0, 0, 5.28169, -54.617, 5.29633, -174.283, 5.25299, 65.6988, 0.0679934, 42.7867
1, 300.00000, 124.669, -31.5431, 124.325, -151.209, 125.35, 88.7727, 0, 0, 5.28169, -54.617, 5.29633, -174.283, 5.25299, 65.6988, 0.0679934, 42.7867
1, 360.00000, 124.669, -31.5431, 124.325, -151.209, 125.35, 88.7727, 0, 0, 5.28169, -54.617, 5.29633, -174.283, 5.25299, 65.6988, 0.0679934, 42.7867
1, 420.00000, 124.669, -31.5431, 124.325, -151.209, 125.35, 88.7727, 0, 0, 5.28169, -54.617, 5.29633, -174.283, 5.25299, 65.6988, 0.0679934, 42.7867
1, 480.00000, 124.669, -31.5431, 124.325, -151.209, 125.35, 88.7727, 0, 0, 5.28169, -54.617, 5.29633, -174.283, 5.25299, 65.6988, 0.0679934, 42.7867
1, 540.00000, 124.669, -31.5431, 124.325, -151.209, 125.35, 88.7727, 0, 0, 5.28169, -54.617, 5.29633, -174.283, 5.25299, 65.6988, 0.0679934, 42.7867
1, 600.00000, 124.669, -31.5431, 124.325, -151.209, 125.35, 88.7727, 0, 0, 5.28169, -54.617, 5.29633, -174.283, 5.25299, 65.6988, 0.0679934, 42.7867
1, 660.00000, 124.669, -31.5431, 124.325, -151.209, 125.35, 88.7727, 0, 0, 5.28169, -54.617, 5.29633, -174.283, 5.25299, 65.6988, 0.0679934, 42.7867
1, 720.00000, 124.669, -31.5431, 124.325, -151.209, 125.35, 88.7727, 0, 0, 5.28169, -54.617, 5.29633, -174.283, 5.25299, 65.6988, 0.0679934, 42.7867
1, 780.00000, 124.669, -31.5431, 124.325, -151.209, 125.35, 88.7727, 0, 0, 5.28169, -54.617, 5.29633, -174.283, 5.25299, 65.6988, 0.0679934, 42.7867
1, 840.00000, 124.669, -31.5431, 124.325, -151.209, 125.35, 88.7727, 0, 0, 5.28169, -54.617, 5.29633, -174.283, 5.25299, 65.6988, 0.0679934, 42.7867
1, 900.00000, 124.669, -31.5431, 124.325, -151.209, 125.35, 88.7727, 0, 0, 5.28169, -54.617, 5.29633, -174.283, 5.25299, 65.6988, 0.0679934, 42.7867
1, 960.00000, 124.669, -31.5431, 124.325, -151.209, 125.35, 88.7727, 0, 0, 5.28169, -54.617, 5.29633, -174.283, 5.25299, 65.6988, 0.0679934, 42.7867
1, 1020.00000, 124.669, -31.5431, 124.325, -151.209, 125.35, 88.7727, 0, 0, 5.28169, -54.617, 5.29633, -174.283, 5.25299, 65.6988, 0.0679934, 42.7867
1, 1080.00000, 124.669, -31.5431, 124.325, -151.209, 125.35, 88.7727, 0, 0, 5.28169, -54.617, 5.29633, -174.283, 5.25299, 65.6988, 0.0679934, 42.7867
1, 1140.00000, 124.669, -31.5431, 124.325, -151.209, 125.35, 88.7727, 0, 0, 5.28169, -54.617, 5.29633, -174.283, 5.25299, 65.6988, 0.0679934, 42.7867
1, 1200.00000, 124.669, -31.5431, 124.325, -151.209, 125.35, 88.7727, 0, 0, 5.28169, -54.617, 5.29633, -174.283, 5.25299, 65.6988, 0.0679934, 42.7867
1, 1260.00000, 124.669, -31.5431, 124.325, -151.209, 125.35, 88.7727, 0, 0, 5.28169, -54.617, 5.29633, -174.283, 5.25299, 65.6988, 0.0679934, 42.7867
1, 1320.00000, 124.669, -31.5431, 124.325, -151.209, 125.35, 88.7727, 0, 0, 5.28169, -54.617, 5.29633, -174.283, 5.25299, 65.6988, 0.0679934, 42.7867
1, 1380.00000, 124.669, -31.5431, 124.325, -151.209, 125.35, 88.7727, 0, 0, 5.28169, -54.617, 5.29633, -174.283, 5.25299, 65.6988, 0.0679934, 42.7867
1, 1440.00000, 124.669, -31.5431, 124.325, -151.209, 125.35, 88.7727, 0, 0, 5.28169, -54.617, 5.29633, -174.283, 5.25299, 65.6988, 0.0679934, 42.7867
1, 1500.00000, 124.669, -31.5431, 124.325, -151.209, 125.35, 88.7727, 0, 0, 5.28169, -54.617, 5.29633, -174.283, 5.25299, 65.6988, 0.0679934, 42.7867
1, 1560.00000, 124.669, -31.5431, 124.325, -151.209, 125.35, 88.7727, 0, 0, 5.28169, -54.617, 5.29633, -174.283, 5.25299, 65.6988, 0.0679934, 42.7867
1, 1620.00000, 124.669, -31.5431, 124.325, -151.209, 125.35, 88.7727, 0, 0, 5.28169, -54.617, 5.29633, -174.283, 5.25299, 65.6988, 0.0679934, 42.7867
1, 1680.00000, 124.669, -31.5431, 124.325, -151.209, 125.35, 88.7727, 0, 0, 5.28169, -54.617, 5.29633, -174.283, 5.25299, 65.6988, 0.0679934, 42.7867
1, 1740.00000, 124.669, -31.5431, 124.325, -151.209, 125.35, 88.7727, 0, 0, 5.28169, -54.617, 5.29633, -174.283, 5.25299, 65.6988, 0.0679934, 42.7867
1, 1800.00000, 124.669, -31.5431, 124.325, -151.209, 125.35, 88.7727, 0, 0, 5.28169, -54.617, 5.29633, -174.283, 5.25299, 65.6988, 0.0679934, 42.7867
1, 1860.00000, 124.669, -31.5431, 124.325, -151.209, 125.35, 88.7727, 0, 0, 5.28169, -54.617, 5.29633, -174.283, 5.25299, 65.6988, 0.0679934, 42.7867
1, 1920.00000, 124.669, -31.5431, 124.325, -151.209, 125.35, 88.7727, 0, 0, 5.28169, -54.617, 5.29633, -174.283, 5.25299, 65.6988, 0.0679934, 42.7867
1, 1980.00000, 124.669, -31.5431, 124.325, -151.209, 125.35, 88.7727, 0, 0, 5.28169, -54.617, 5.29633, -174.283, 5.25299, 65.6988, 0.0679934, 42.7867
1, 2040.00000, 124.669, -31.5431, 124.325, -151.209, 125.35, 88.7727, 0, 0, 5.28169, -54.617, 5.29633, -174.283, 5.25299, 65.6988, 0.0679934, 42.7867
1, 2100.00000, 124.669, -31.5431, 124.325, -151.209, 125.35, 88.7727, 0, 0, 5.28169, -54.617, 5.29633, -174.283, 5.25299, 65.6988, 0.0679934, 42.7867
1, 2160.00000, 124.669, -31.5431, 124.325, -151.209, 125.35, 88.7727, 0, 0, 5.28169, -54.617, 5.29633, -174.283, 5.25299, 65.6988, 0.0679934, 42.7867
1, 2220.00000, 124.669, -31.5431, 124.325, -151.209, 125.35, 88.7727, 0, 0, 5.28169, -54.617, 5.29633, -174.283, 5.25299, 65.6988, 0.0679934, 42.7867
1, 2280.00000, 124.669, -31.5431, 124.325, -151.209, 125.35, 88.7727, 0, 0, 5.28169, -54.617, 5.29633, -174.283, 5.25299, 65.6988, 0.0679934, 42.7867
1, 2340.00000, 124.669, -31.5431, 124.325, -151.209, 125.35, 88.7727, 0, 0, 5.28169, -54.617, 5.29633, -174.283, 5.25299, 65.6988, 0.0679934, 42.7867
1, 2400.00000, 124.669, -31.5431, 124.325, -151.209, 125.35, 88.7727, 0, 0, 5.28169, -54.617, 5.29633, -174.283, 5.25299, 65.6988, 0.0679934, 42.7867
1, 2460.00000, 124.669, -31.5431, 124.325, -151.209, 125.35, 88.7727, 0, 0, 5.28169, -54.617, 5.29633, -174.283, 5.25299, 65.6988, 0.0679934, 42.7867
1, 2520.00000, 124.669, -31.5431, 124.325, -151.209, 125.35, 88.7727, 0, 0, 5.28169, -54.617, 5.29633, -174.283, 5.25299, 65.6988, 0.0679934, 42.7867
1, 2580.00000, 124.669, -31.5431, 124.325, -151.209, 125.35, 88.7727, 0, 0, 5.28169, -54.617, 5.29633, -174.283, 5.25299, 65.6988, 0.0679934, 42.7867
1, 2640.00000, 124.669, -31.5431, 124.325, -151.209, 125.35, 88.7727, 0, 0, 5.28169, -54.617, 5.29633, -174.283, 5.25299, 65.6988, 0.0679934, 42.7867
1, 2700.00000, 124.669, -31.5431, 124.325, -151.209, 125.35, 88.7727, 0, 0, 5.28169, -54.617, 5.29633, -174.283, 5.25299, 65.6988, 0.0679934, 42.7867
1, 2760.00000, 124.669, -31.5431, 124.325, -151.209, 125.35, 88.7727, 0, 0, 5.28169, -54.617, 5.29633, -174.283, 5.25299, 65.6988, 0.0679934, 42.7867
1, 2820.00000, 124.669, -31.5431, 124.325, -151.209, 125.35, 88.7727, 0, 0, 5.28169, -54.617, 5.29633, -174.283, 5.25299, 65.6988, 0.0679934, 42.7867
1, 2880.00000, 124.669, -31.5431, 124.325, -151.209, 125.35, 88.7727, 0, 0, 5.28169, -54.617, 5.29633, -174.283, 5.25299, 65.6988, 0.0679934, 42.7867
1, 2940.00000, 124.669, -31.5431, 124.325, -151.209, 125.35, 88.7727, 0, 0, 5.28169, -54.617, 5.29633, -174.283, 5.25299, 65.6988, 0.0679934, 42.7867
1, 3000.00000, 124.669, -31.5431, 124.325, -151.209, 125.35, 88.7727, 0, 0, 5.28169, -54.617, 5.29633, -174.283, 5.25299, 65.6988, 0.0679934, 42.7867
1, 3060.00000, 124.669, -31.5431, 124.325, -151.209, 125.35, 88.7727, 0, 0, 5.28169, -54.617, 5.29633, -174.283, 5.25299, 65.6988, 0.0679934, 42.7867
1, 3120.00000, 124.669, -31.5431, 124.325, -151.209, 125.35, 88.7727, 0, 0, 5.28169, -54.617, 5.29633, -174.283, 5.25299, 65.6988, 0.0679934, 42.7867
1, 3180.00000, 124.669, -31.5431, 124.325, -151.209, 125.35, 88.7727, 0, 0, 5.28169, -54.617, 5.29633, -174.283, 5.25299, 65.6988, 0.0679934, 42.7867
1, 3240.00000, 124.669, -31.5431, 124.325, -151.209, 125.35, 88.7727, 0, 0, 5.28169, -54.617, 5.29633, -174.283, 5.25299, 65.6988, 0.0679934, 42.7867
1, 3300.00000, 124.669, -31.5431, 124.325, -151.209, 125.35, 88.7727, 0, 0, 5.28169, -54.617, 5.29633, -174.283, 5.25299, 65.6988, 0.0679934, 42.7867
1, 3360.00000, 124.669, -31.5431, 124.325, -151.209, 125.35, 88.7727, 0, 0, 5.28169, -54.617, 5.29633, -174.283, 5.25299, 65.6988, 0.0679934, 42.7867
1, 3420.00000, 124.669, -31.5431, 124.325, -151.209, 125.35, 88.7727, 0, 0, 5.28169, -54.617, 5.29633, -174.283, 5.25299, 65.6988, 0.0679934, 42.7867
1, 3480.00000, 124.669, -31.5431, 124.325, -151.209, 125.35, 88.7727, 0, 0, 5.28169, -54.617, 5.29633, -174.283, 5.25299, 65.6988, 0.0679934, 42.7867
1, 3540.00000, 124.669, -31.5431, 124.325, -151.209, 125.35, 88.7727, 0, 0, 5.28169, -54.617, 5.29633, -174.283, 5.25299, 65.6988, 0.0679934, 42.7867
2, 0.00000, 124.669, -31.5431, 124.325, -151.209, 125.35, 88.7727, 0, 0, 5.28169, -54.617, 5.29633, -174.283, 5.25299, 65.6988, 0.0679934, 42.7867
2, 60.00000, 124.669, -31.5431, 124.325, -151.209, 125.35, 88.7727, 0, 0, 5.28169, -54.617, 5.29633, -174.283, 5.25299, 65.6988, 0.0679934, 42.7867
2, 120.00000, 124.669, -31.5431, 124.325, -151.209, 125.35, 88.7727, 0, 0, 5.28169, -54.617, 5.29633, -174.283, 5.25299, 65.6988, 0.0679934, 42.7867
2, 180.00000, 124.669, -31.5431, 124.325, -151.209, 125.35, 88.7727, 0, 0, 5.28169, -54.617, 5.29633, -174.283, 5.25299, 65.6988, 0.0679934, 42.7867
2, 240.00000, 124.669, -31.5431, 124.325, -151.209, 125.35, 88.7727, 0, 0, 5.28169, -54.617, 5.29633, -174.283, 5.25299, 65.6988, 0.0679934, 42.7867
2, 300.00000, 124.669, -31.5431, 124.325, -151.209, 125.35, 88.7727, 0, 0, 5.28169, -54.617, 5.29633, -174.283, 5.25299, 65.6988, 0.0679934, 42.7867
2, 360.00000, 124.669, -31.5431, 124.325, -151.209, 125.35, 88.7727, 0, 0, 5.28169, -54.617, 5.29633, -174.283, 5.25299, 65.6988, 0.0679934, 42.7867
2, 420.00000, 124.669, -31.5431, 124.325, -151.209, 125.35, 88.7727, 0, 0, 5.28169, -54.617, 5.29633, -174.283, 5.25299, 65.6988, 0.0679934, 42.7867
2, 480.00000, 124.669, -31.5431, 124.325, -151.209, 125.35, 88.7727, 0, 0, 5.28169, -54.617, 5.29633, -174.283, 5.25299, 65.6988, 0.0679934, 42.7867
2, 540.00000, 124.669, -31.5431, 124.325, -151.209, 125.35, 88.7727, 0, 0, 5.28169, -54.617, 5.29633, -174.283, 5.25299, 65.6988, 0.0679934, 42.7867
2, 600.00000, 124.669, -31.5431, 124.325, -151.209, 125.35, 88.7727, 0, 0, 5.28169, -54.617, 5.29633, -174.283, 5.25299, 65.6988, 0.0679934, 42.7867
2, 660.00000, 124.669, -31.5431, 124.325, -151.209, 125.35, 88.7727, 0, 0, 5.28169, -54.617, 5.29633, -174.283, 5.25299, 65.6988, 0.0679934, 42.7867
2, 720.00000, 124.669, -31.5431, 124.325, -151.209, 125.35, 88.7727, 0, 0, 5.28169, -54.617, 5.29633, -174.283, 5.25299, 65.6988, 0.0679934, 42.7867
