hour,t(sec),V1,VAngle1,V2,VAngle2,V3,VAngle3,V4,VAngle4,I1,IAngle1,I2,IAngle2,I3,IAngle3,I4,IAngle4
0, 60.00000, 118.419, -31.1966, 118.513, -150.577, 120.292, 89.0744, 0, 0, 1.34635, -54.27, 1.34753, -173.651, 1.37003, 66.001, 0.0105105, -113.38
0, 120.00000, 118.419, -31.1966, 118.513, -150.577, 120.292, 89.0743, 0, 0, 1.34633, -54.2705, 1.34751, -173.651, 1.36998, 66.0004, 0.0104662, -113.442
0, 180.00000, 118.419, -31.1966, 118.513, -150.577, 120.292, 89.0743, 0, 0, 1.34633, -54.2705, 1.34751, -173.651, 1.36997, 66.0004, 0.0104655, -113.442
0, 240.00000, 118.419, -31.1966, 118.513, -150.577, 120.292, 89.0743, 0, 0, 1.34633, -54.2705, 1.34751, -173.651, 1.36997, 66.0004, 0.0104654, -113.442
0, 300.00000, 118.419, -31.1966, 118.513, -150.577, 120.292, 89.0743, 0, 0, 1.34633, -54.2705, 1.34751, -173.651, 1.36997, 66.0004, 0.0104654, -113.442
0, 360.00000, 118.419, -31.1966, 118.513, -150.577, 120.292, 89.0743, 0, 0, 1.34633, -54.2705, 1.34751, -173.651, 1.36997, 66.0004, 0.0104654, -113.442
0, 420.00000, 118.419, -31.1966, 118.513, -150.577, 120.292, 89.0743, 0, 0, 1.34633, -54.2705, 1.34751, -173.651, 1.36997, 66.0004, 0.0104654, -113.442
0, 480.00000, 118.419, -31.1966, 118.513, -150.577, 120.292, 89.0743, 0, 0, 1.34633, -54.2705, 1.34751, -173.651, 1.36997, 66.0004, 0.0104654, -113.442
0, 540.00000, 118.419, -31.1966, 118.513, -150.577, 120.292, 89.0743, 0, 0, 1.34633, -54.2705, 1.34751, -173.651, 1.36997, 66.0004, 0.0104654, -113.442
0, 600.00000, 118.419, -31.1966, 118.513, -150.577, 120.292, 89.0743, 0, 0, 1.34633, -54.2705, 1.34751, -173.651, 1.36997, 66.0004, 0.0104654, -113.442
0, 660.00000, 118.419, -31.1966, 118.513, -150.577, 120.292, 89.0743, 0, 0, 1.34633, -54.2705, 1.34751, -173.651, 1.36997, 66.0004, 0.0104654, -113.442
0, 720.00000, 118.419, -31.1966, 118.513, -150.577, 120.292, 89.0743, 0, 0, 1.34633, -54.2705, 1.34751, -173.651, 1.36997, 66.0004, 0.0104654, -113.442
0, 780.00000, 118.419, -31.1966, 118.513, -150.577, 120.292, 89.0743, 0, 0, 1.34633, -54.2705, 1.34751, -173.651, 1.36997, 66.0004, 0.0104654, -113.442
0, 840.00000, 118.419, -31.1966, 118.513, -150.577, 120.292, 89.0743, 0, 0, 1.34633, -54.2705, 1.34751, -173.651, 1.36997, 66.0004, 0.0104654, -113.442
0, 900.00000, 118.419, -31.1966, 118.513, -150.577, 120.292, 89.0743, 0, 0, 1.34633, -54.2705, 1.34751, -173.651, 1.36997, 66.0004, 0.0104654, -113.442
0, 960.00000, 118.194, -31.2208, 118.296, -150.601, 120.076, 89.0463, 0, 0, 1.41706, -54.2946, 1.41842, -173.675, 1.44213, 65.9725, 0.0111172, -113.504
0, 1020.00000, 118.194, -31.2208, 118.296, -150.601, 120.076, 89.0463, 0, 0, 1.41706, -54.2947, 1.41842, -173.675, 1.44212, 65.9724, 0.0111118, -113.508
0, 1080.00000, 118.194, -31.2208, 118.296, -150.601, 120.076, 89.0463, 0, 0, 1.41706, -54.2947, 1.41842, -173.675, 1.44212, 65.9724, 0.0111117, -113.508
0, 1140.00000, 118.194, -31.2208, 118.296, -150.601, 120.076, 89.0463, 0, 0, 1.41706, -54.2947, 1.41842, -173.675, 1.44212, 65.9724, 0.0111117, -113.508
0, 1200.00000, 118.194, -31.2208, 118.296, -150.601, 120.076, 89.0463, 0, 0, 1.41706, -54.2947, 1.41842, -173.675, 1.44212, 65.9724, 0.0111117, -113.508
0, 1260.00000, 118.194, -31.2208, 118.296, -150.601, 120.076, 89.0463, 0, 0, 1.41706, -54.2947, 1.41842, -173.675, 1.44212, 65.9724, 0.0111117, -113.508
0, 1320.00000, 118.194, -31.2208, 118.296, -150.601, 120.076, 89.0463, 0, 0, 1.41706, -54.2947, 1.41842, -173.675, 1.44212, 65.9724, 0.0111117, -113.508
0, 1380.00000, 118.194, -31.2208, 118.296, -150.601, 120.076, 89.0463, 0, 0, 1.41706, -54.2947, 1.41842, -173.675, 1.44212, 65.9724, 0.0111117, -113.508
0, 1440.00000, 118.194, -31.2208, 118.296, -150.601, 120.076, 89.0463, 0, 0, 1.41706, -54.2947, 1.41842, -173.675, 1.44212, 65.9724, 0.0111117, -113.508
0, 1500.00000, 118.194, -31.2208, 118.296, -150.601, 120.076, 89.0463, 0, 0, 1.41706, -54.2947, 1.41842, -173.675, 1.44212, 65.9724, 0.0111117, -113.508
0, 1560.00000, 118.194, -31.2208, 118.296, -150.601, 120.076, 89.0463, 0, 0, 1.41706, -54.2947, 1.41842, -173.675, 1.44212, 65.9724, 0.0111117, -113.508
0, 1620.00000, 118.194, -31.2208, 118.296, -150.601, 120.076, 89.0463, 0, 0, 1.41706, -54.2947, 1.41842, -173.675, 1.44212, 65.9724, 0.0111117, -113.508
0, 1680.00000, 118.194, -31.2208, 118.296, -150.601, 120.076, 89.0463, 0, 0, 1.41706, -54.2947, 1.41842, -173.675, 1.44212, 65.9724, 0.0111117, -113.508
0, 1740.00000, 118.194, -31.2208, 118.296, -150.601, 120.076, 89.0463, 0, 0, 1.41706, -54.2947, 1.41842, -173.675, 1.44212, 65.9724, 0.0111117, -113.508
0, 1800.00000, 118.194, -31.2208, 118.296, -150.601, 120.076, 89.0463, 0, 0, 1.41706, -54.2947, 1.41842, -173.675, 1.44212, 65.9724, 0.0111117, -113.508
0, 1860.00000, 118.403, -31.21, 118.498, -150.59, 120.277, 89.0606, 0, 0, 1.36976, -54.2853, 1.37097, -173.665, 1.39379, 65.9858, 0.0105912, -113.482
0, 1920.00000, 118.403, -31.2099, 118.498, -150.59, 120.277, 89.0607, 0, 0, 1.36981, -54.2839, 1.37103, -173.664, 1.39389, 65.9867, 0.0106507, -113.442
0, 1980.00000, 118.403, -31.2099, 118.498, -150.59, 120.277, 89.0607, 0, 0, 1.36981, -54.2839, 1.37103, -173.664, 1.39389, 65.9867, 0.010651, -113.442
0, 2040.00000, 118.403, -31.2099, 118.498, -150.59, 120.277, 89.0607, 0, 0, 1.36981, -54.2839, 1.37103, -173.664, 1.39389, 65.9867, 0.010651, -113.442
0, 2100.00000, 118.403, -31.2099, 118.498, -150.59, 120.277, 89.0607, 0, 0, 1.36981, -54.2839, 1.37103, -173.664, 1.39389, 65.9867, 0.010651, -113.442
0, 2160.00000, 118.403, -31.2099, 118.498, -150.59, 120.277, 89.0607, 0, 0, 1.36981, -54.2839, 1.37103, -173.664, 1.39389, 65.9867, 0.010651, -113.442
0, 2220.00000, 118.403, -31.2099, 118.498, -150.59, 120.277, 89.0607, 0, 0, 1.36981, -54.2839, 1.37103, -173.664, 1.39389, 65.9867, 0.010651, -113.442
0, 2280.00000, 118.403, -31.2099, 118.498, -150.59, 120.277, 89.0607, 0, 0, 1.36981, -54.2839, 1.37103, -173.664, 1.39389, 65.9867, 0.010651, -113.442
0, 2340.00000, 118.403, -31.2099, 118.498, -150.59, 120.277, 89.0607, 0, 0, 1.36981, -54.2839, 1.37103, -173.664, 1.39389, 65.9867, 0.010651, -113.442
0, 2400.00000, 118.403, -31.2099, 118.498, -150.59, 120.277, 89.0607, 0, 0, 1.36981, -54.2839, 1.37103, -173.664, 1.39389, 65.9867, 0.010651, -113.442
0, 2460.00000, 118.403, -31.2099, 118.498, -150.59, 120.277, 89.0607, 0, 0, 1.36981, -54.2839, 1.37103, -173.664, 1.39389, 65.9867, 0.010651, -113.442
0, 2520.00000, 118.403, -31.2099, 118.498, -150.59, 120.277, 89.0607, 0, 0, 1.36981, -54.2839, 1.37103, -173.664, 1.39389, 65.9867, 0.010651, -113.442
0, 2580.00000, 118.403, -31.2099, 118.498, -150.59, 120.277, 89.0607, 0, 0, 1.36981, -54.2839, 1.37103, -173.664, 1.39389, 65.9867, 0.010651, -113.442
0, 2640.00000, 118.403, -31.2099, 118.498, -150.59, 120.277, 89.0607, 0, 0, 1.36981, -54.2839, 1.37103, -173.664, 1.39389, 65.9867, 0.010651, -113.442
0, 2700.00000, 118.403, -31.2099, 118.498, -150.59, 120.277, 89.0607, 0, 0, 1.36981, -54.2839, 1.37103, -173.664, 1.39389, 65.9867, 0.010651, -113.442
0, 2760.00000, 118.742, -31.1784, 118.824, -150.561, 120.607, 89.098, 0, 0, 1.29902, -54.2525, 1.30002, -173.635, 1.32166, 66.0238, 0.0100201, -113.317
0, 2820.00000, 118.742, -31.1783, 118.824, -150.561, 120.607, 89.098, 0, 0, 1.29903, -54.2523, 1.30003, -173.635, 1.32168, 66.0241, 0.0100464, -113.291
0, 2880.00000, 118.742, -31.1783, 118.824, -150.561, 120.607, 89.098, 0, 0, 1.29903, -54.2523, 1.30003, -173.635, 1.32168, 66.0241, 0.0100469, -113.291
0, 2940.00000, 118.742, -31.1783, 118.824, -150.561, 120.607, 89.098, 0, 0, 1.29903, -54.2523, 1.30003, -173.635, 1.32168, 66.0241, 0.0100469, -113.291
0, 3000.00000, 118.742, -31.1783, 118.824, -150.561, 120.607, 89.098, 0, 0, 1.29903, -54.2523, 1.30003, -173.635, 1.32168, 66.0241, 0.0100469, -113.291
0, 3060.00000, 118.742, -31.1783, 118.824, -150.561, 120.607, 89.098, 0, 0, 1.29903, -54.2523, 1.30003, -173.635, 1.32168, 66.0241, 0.0100469, -113.291
0, 3120.00000, 118.742, -31.1783, 118.824, -150.561, 120.607, 89.098, 0, 0, 1.29903, -54.2523, 1.30003, -173.635, 1.32168, 66.0241, 0.0100469, -113.291
0, 3180.00000, 118.742, -31.1783, 118.824, -150.561, 120.607, 89.098, 0, 0, 1.29903, -54.2523, 1.30003, -173.635, 1.32168, 66.0241, 0.0100469, -113.291
0, 3240.00000, 118.742, -31.1783, 118.824, -150.561, 120.607, 89.098, 0, 0, 1.29903, -54.2523, 1.30003, -173.635, 1.32168, 66.0241, 0.0100469, -113.291
0, 3300.00000, 118.742, -31.1783, 118.824, -150.561, 120.607, 89.098, 0, 0, 1.29903, -54.2523, 1.30003, -173.635, 1.32168, 66.0241, 0.0100469, -113.291
0, 3360.00000, 118.742, -31.1783, 118.824, -150.561, 120.607, 89.098, 0, 0, 1.29903, -54.2523, 1.30003, -173.635, 1.32168, 66.0241, 0.0100469, -113.291
0, 3420.00000, 118.742, -31.1783, 118.824, -150.561, 120.607, 89.098, 0, 0, 1.29903, -54.2523, 1.30003, -173.635, 1.32168, 66.0241, 0.0100469, -113.291
0, 3480.00000, 118.742, -31.1783, 118.824, -150.561, 120.607, 89.098, 0, 0, 1.29903, -54.2523, 1.30003, -173.635, 1.32168, 66.0241, 0.0100469, -113.291
0, 3540.00000, 118.742, -31.1783, 118.824, -150.561, 120.607, 89.098, 0, 0, 1.29903, -54.2523, 1.30003, -173.635, 1.32168, 66.0241, 0.0100469, -113.291
1, 0.00000, 118.742, -31.1783, 118.824, -150.561, 120.607, 89.098, 0, 0, 1.29903, -54.2523, 1.30003, -173.635, 1.32168, 66.0241, 0.0100469, -113.291
1, 60.00000, 118.988, -31.1566, 119.063, -150.542, 120.856, 89.124, 0, 0, 1.32101, -54.2308, 1.32193, -173.616, 1.33962, 66.0498, 0.00587792, -112.313
1, 120.00000, 118.988, -31.1566, 119.063, -150.542, 120.857, 89.124, 0, 0, 1.32101, -54.2305, 1.32194, -173.616, 1.33959, 66.0501, 0.0058538, -112.221
1, 180.00000, 118.988, -31.1566, 119.063, -150.542, 120.857, 89.124, 0, 0, 1.32101, -54.2305, 1.32194, -173.616, 1.33959, 66.0501, 0.00585351, -112.22
1, 240.00000, 118.988, -31.1566, 119.063, -150.542, 120.857, 89.124, 0, 0, 1.32101, -54.2305, 1.32194, -173.616, 1.33959, 66.0501, 0.00585351, -112.22
1, 300.00000, 118.988, -31.1566, 119.063, -150.542, 120.857, 89.124, 0, 0, 1.32101, -54.2305, 1.32194, -173.616, 1.33959, 66.0501, 0.00585351, -112.22
1, 360.00000, 118.988, -31.1566, 119.063, -150.542, 120.857, 89.124, 0, 0, 1.32101, -54.2305, 1.32194, -173.616, 1.33959, 66.0501, 0.00585351, -112.22
1, 420.00000, 118.988, -31.1566, 119.063, -150.542, 120.857, 89.124, 0, 0, 1.32101, -54.2305, 1.32194, -173.616, 1.33959, 66.0501, 0.00585351, -112.22
1, 480.00000, 118.988, -31.1566, 119.063, -150.542, 120.857, 89.124, 0, 0, 1.32101, -54.2305, 1.32194, -173.616, 1.33959, 66.0501, 0.00585351, -112.22
1, 540.00000, 118.988, -31.1566, 119.063, -150.542, 120.857, 89.124, 0, 0, 1.32101, -54.2305, 1.32194, -173.616, 1.33959, 66.0501, 0.00585351, -112.22
1, 600.00000, 118.988, -31.1566, 119.063, -150.542, 120.857, 89.124, 0, 0, 1.32101, -54.2305, 1.32194, -173.616, 1.33959, 66.0501, 0.00585351, -112.22
1, 660.00000, 118.988, -31.1566, 119.063, -150.542, 120.857, 89.124, 0, 0, 1.32101, -54.2305, 1.32194, -173.616, 1.33959, 66.0501, 0.00585351, -112.22
1, 720.00000, 118.988, -31.1566, 119.063, -150.542, 120.857, 89.124, 0, 0, 1.32101, -54.2305, 1.32194, -173.616, 1.33959, 66.0501, 0.00585351, -112.22
1, 780.00000, 118.988, -31.1566, 119.063, -150.542, 120.857, 89.124, 0, 0, 1.32101, -54.2305, 1.32194, -173.616, 1.33959, 66.0501, 0.00585351, -112.22
1, 840.00000, 118.988, -31.1566, 119.063, -150.542, 120.857, 89.124, 0, 0, 1.32101, -54.2305, 1.32194, -173.616, 1.33959, 66.0501, 0.00585351, -112.22
1, 900.00000, 118.988, -31.1566, 119.063, -150.542, 120.857, 89.124, 0, 0, 1.32101, -54.2305, 1.32194, -173.616, 1.33959, 66.0501, 0.00585351, -112.22
1, 960.00000, 119.028, -31.1534, 119.101, -150.539, 120.897, 89.1278, 0, 0, 1.30806, -54.2278, 1.30895, -173.613, 1.32556, 66.0535, 0.00492478, -111.991
1, 1020.00000, 119.028, -31.1533, 119.101, -150.539, 120.897, 89.1279, 0, 0, 1.30807, -54.2272, 1.30896, -173.613, 1.32552, 66.054, 0.00487606, -111.849
1, 1080.00000, 119.028, -31.1533, 119.101, -150.539, 120.898, 89.1279, 0, 0, 1.30807, -54.2272, 1.30896, -173.613, 1.32551, 66.054, 0.00487566, -111.847
1, 1140.00000, 119.028, -31.1533, 119.101, -150.539, 120.898, 89.1279, 0, 0, 1.30807, -54.2272, 1.30896, -173.613, 1.32551, 66.054, 0.00487566, -111.847
1, 1200.00000, 119.028, -31.1533, 119.101, -150.539, 120.898, 89.1279, 0, 0, 1.30807, -54.2272, 1.30896, -173.613, 1.32551, 66.054, 0.00487566, -111.847
1, 1260.00000, 119.028, -31.1533, 119.101, -150.539, 120.898, 89.1279, 0, 0, 1.30807, -54.2272, 1.30896, -173.613, 1.32551, 66.054, 0.00487566, -111.847
1, 1320.00000, 119.028, -31.1533, 119.101, -150.539, 120.898, 89.1279, 0, 0, 1.30807, -54.2272, 1.30896, -173.613, 1.32551, 66.054, 0.00487566, -111.847
1, 1380.00000, 119.028, -31.1533, 119.101, -150.539, 120.898, 89.1279, 0, 0, 1.30807, -54.2272, 1.30896, -173.613, 1.32551, 66.054, 0.00487566, -111.847
1, 1440.00000, 119.028, -31.1533, 119.101, -150.539, 120.898, 89.1279, 0, 0, 1.30807, -54.2272, 1.30896, -173.613, 1.32551, 66.054, 0.00487566, -111.847
1, 1500.00000, 119.028, -31.1533, 119.101, -150.539, 120.898, 89.1279, 0, 0, 1.30807, -54.2272, 1.30896, -173.613, 1.32551, 66.054, 0.00487566, -111.847
1, 1560.00000, 119.028, -31.1533, 119.101, -150.539, 120.898, 89.1279, 0, 0, 1.30807, -54.2272, 1.30896, -173.613, 1.32551, 66.054, 0.00487566, -111.847
1, 1620.00000, 119.028, -31.1533, 119.101, -150.539, 120.898, 89.1279, 0, 0, 1.30807, -54.2272, 1.30896, -173.613, 1.32551, 66.054, 0.00487566, -111.847
1, 1680.00000, 119.028, -31.1533, 119.101, -150.539, 120.898, 89.1279, 0, 0, 1.30807, -54.2272, 1.30896, -173.613, 1.32551, 66.054, 0.00487566, -111.847
1, 1740.00000, 119.028, -31.1533, 119.101, -150.539, 120.898, 89.1279, 0, 0, 1.30807, -54.2272, 1.30896, -173.613, 1.32551, 66.054, 0.00487566, -111.847
1, 1800.00000, 119.028, -31.1533, 119.101, -150.539, 120.898, 89.1279, 0, 0, 1.30807, -54.2272, 1.30896, -173.613, 1.32551, 66.054, 0.00487566, -111.847
1, 1860.00000, 118.833, -31.1767, 118.912, -150.56, 120.698, 89.1011, 0, 0, 1.30913, -54.2504, 1.3101, -173.634, 1.33118, 66.0275, 0.00938557, -113.119
1, 1920.00000, 118.833, -31.1768, 118.912, -150.56, 120.697, 89.1011, 0, 0, 1.30913, -54.2507, 1.3101, -173.634, 1.33121, 66.0272, 0.00940864, -113.17
1, 1980.00000, 118.833, -31.1768, 118.912, -150.56, 120.697, 89.1011, 0, 0, 1.30913, -54.2507, 1.3101, -173.634, 1.33121, 66.0272, 0.00940892, -113.171
1, 2040.00000, 118.833, -31.1768, 118.912, -150.56, 120.697, 89.1011, 0, 0, 1.30913, -54.2507, 1.3101, -173.634, 1.33121, 66.0272, 0.00940893, -113.171
1, 2100.00000, 118.833, -31.1768, 118.912, -150.56, 120.697, 89.1011, 0, 0, 1.30913, -54.2507, 1.3101, -173.634, 1.33121, 66.0272, 0.00940893, -113.171
1, 2160.00000, 118.833, -31.1768, 118.912, -150.56, 120.697, 89.1011, 0, 0, 1.30913, -54.2507, 1.3101, -173.634, 1.33121, 66.0272, 0.00940893, -113.171
1, 2220.00000, 118.833, -31.1768, 118.912, -150.56, 120.697, 89.1011, 0, 0, 1.30913, -54.2507, 1.3101, -173.634, 1.33121, 66.0272, 0.00940893, -113.171
1, 2280.00000, 118.833, -31.1768, 118.912, -150.56, 120.697, 89.1011, 0, 0, 1.30913, -54.2507, 1.3101, -173.634, 1.33121, 66.0272, 0.00940893, -113.171
1, 2340.00000, 118.833, -31.1768, 118.912, -150.56, 120.697, 89.1011, 0, 0, 1.30913, -54.2507, 1.3101, -173.634, 1.33121, 66.0272, 0.00940893, -113.171
1, 2400.00000, 118.833, -31.1768, 118.912, -150.56, 120.697, 89.1011, 0, 0, 1.30913, -54.2507, 1.3101, -173.634, 1.33121, 66.0272, 0.00940893, -113.171
1, 2460.00000, 118.833, -31.1768, 118.912, -150.56, 120.697, 89.1011, 0, 0, 1.30913, -54.2507, 1.3101, -173.634, 1.33121, 66.0272, 0.00940893, -113.171
1, 2520.00000, 118.833, -31.1768, 118.912, -150.56, 120.697, 89.1011, 0, 0, 1.30913, -54.2507, 1.3101, -173.634, 1.33121, 66.0272, 0.00940893, -113.171
1, 2580.00000, 118.833, -31.1768, 118.912, -150.56, 120.697, 89.1011, 0, 0, 1.30913, -54.2507, 1.3101, -173.634, 1.33121, 66.0272, 0.00940893, -113.171
1, 2640.00000, 118.833, -31.1768, 118.912, -150.56, 120.697, 89.1011, 0, 0, 1.30913, -54.2507, 1.3101, -173.634, 1.33121, 66.0272, 0.00940893, -113.171
1, 2700.00000, 118.833, -31.1768, 118.912, -150.56, 120.697, 89.1011, 0, 0, 1.30913, -54.2507, 1.3101, -173.634, 1.33121, 66.0272, 0.00940893, -113.171
1, 2760.00000, 119.27, -31.1327, 119.338, -150.522, 121.145, 89.1528, 0, 0, 1.25579, -54.2071, 1.25657, -173.595, 1.26713, 66.0783, 0.000686799, 47.0688
1, 2820.00000, 119.27, -31.1326, 119.338, -150.522, 121.146, 89.1529, 0, 0, 1.25579, -54.2065, 1.25659, -173.596, 1.26707, 66.079, 0.000748165, 46.6409
1, 2880.00000, 119.27, -31.1326, 119.338, -150.522, 121.146, 89.1529, 0, 0, 1.25579, -54.2065, 1.25659, -173.596, 1.26707, 66.079, 0.000749002, 46.6195
1, 2940.00000, 119.27, -31.1326, 119.338, -150.522, 121.146, 89.1529, 0, 0, 1.25579, -54.2065, 1.25659, -173.596, 1.26707, 66.079, 0.000749015, 46.619
1, 3000.00000, 119.27, -31.1326, 119.338, -150.522, 121.146, 89.1529, 0, 0, 1.25579, -54.2065, 1.25659, -173.596, 1.26707, 66.079, 0.000749015, 46.619
1, 3060.00000, 119.27, -31.1326, 119.338, -150.522, 121.146, 89.1529, 0, 0, 1.25579, -54.2065, 1.25659, -173.596, 1.26707, 66.079, 0.000749015, 46.619
1, 3120.00000, 119.27, -31.1326, 119.338, -150.522, 121.146, 89.1529, 0, 0, 1.25579, -54.2065, 1.25659, -173.596, 1.26707, 66.079, 0.000749015, 46.619
1, 3180.00000, 119.27, -31.1326, 119.338, -150.522, 121.146, 89.1529, 0, 0, 1.25579, -54.2065, 1.25659, -173.596, 1.26707, 66.079, 0.000749015, 46.619
1, 3240.00000, 119.27, -31.1326, 119.338, -150.522, 121.146, 89.1529, 0, 0, 1.25579, -54.2065, 1.25659, -173.596, 1.26707, 66.079, 0.000749015, 46.619
1, 3300.00000, 119.27, -31.1326, 119.338, -150.522, 121.146, 89.1529, 0, 0, 1.25579, -54.2065, 1.25659, -173.596, 1.26707, 66.079, 0.000749015, 46.619
1, 3360.00000, 119.27, -31.1326, 119.338, -150.522, 121.146, 89.1529, 0, 0, 1.25579, -54.2065, 1.25659, -173.596, 1.26707, 66.079, 0.000749015, 46.619
1, 3420.00000, 119.27, -31.1326, 119.338, -150.522, 121.146, 89.1529, 0, 0, 1.25579, -54.2065, 1.25659, -173.596, 1.26707, 66.079, 0.000749015, 46.619
1, 3480.00000, 119.27, -31.1326, 119.338, -150.522, 121.146, 89.1529, 0, 0, 1.25579, -54.2065, 1.25659, -173.596, 1.26707, 66.079, 0.000749015, 46.619
1, 3540.00000, 119.27, -31.1326, 119.338, -150.522, 121.146, 89.1529, 0, 0, 1.25579, -54.2065, 1.25659, -173.596, 1.26707, 66.079, 0.000749015, 46.619
2, 0.00000, 119.27, -31.1326, 119.338, -150.522, 121.146, 89.1529, 0, 0, 1.25579, -54.2065, 1.25659, -173.596, 1.26707, 66.079, 0.000749015, 46.619
2, 60.00000, 119.009, -31.1594, 119.082, -150.546, 120.878, 89.1213, 0, 0, 1.25812, -54.2331, 1.25898, -173.62, 1.2753, 66.0477, 0.00509669, -112.021
2, 120.00000, 119.009, -31.1595, 119.082, -150.546, 120.878, 89.1212, 0, 0, 1.25812, -54.2334, 1.25898, -173.619, 1.27533, 66.0473, 0.00512539, -112.165
2, 180.00000, 119.009, -31.1595, 119.082, -150.546, 120.878, 89.1212, 0, 0, 1.25812, -54.2334, 1.25898, -173.619, 1.27533, 66.0473, 0.0051257, -112.167
2, 240.00000, 119.009, -31.1595, 119.082, -150.546, 120.878, 89.1212, 0, 0, 1.25812, -54.2334, 1.25898, -173.619, 1.27533, 66.0473, 0.0051257, -112.167
2, 300.00000, 119.009, -31.1595, 119.082, -150.546, 120.878, 89.1212, 0, 0, 1.25812, -54.2334, 1.25898, -173.619, 1.27533, 66.0473, 0.0051257, -112.167
2, 360.00000, 119.009, -31.1595, 119.082, -150.546, 120.878, 89.1212, 0, 0, 1.25812, -54.2334, 1.25898, -173.619, 1.27533, 66.0473, 0.0051257, -112.167
2, 420.00000, 119.009, -31.1595, 119.082, -150.546, 120.878, 89.1212, 0, 0, 1.25812, -54.2334, 1.25898, -173.619, 1.27533, 66.0473, 0.0051257, -112.167
2, 480.00000, 119.009, -31.1595, 119.082, -150.546, 120.878, 89.1212, 0, 0, 1.25812, -54.2334, 1.25898, -173.619, 1.27533, 66.0473, 0.0051257, -112.167
2, 540.00000, 119.009, -31.1595, 119.082, -150.546, 120.878, 89.1212, 0, 0, 1.25812, -54.2334, 1.25898, -173.619, 1.27533, 66.0473, 0.0051257, -112.167
2, 600.00000, 119.009, -31.1595, 119.082, -150.546, 120.878, 89.1212, 0, 0, 1.25812, -54.2334, 1.25898, -173.619, 1.27533, 66.0473, 0.0051257, -112.167
2, 660.00000, 119.009, -31.1595, 119.082, -150.546, 120.878, 89.1212, 0, 0, 1.25812, -54.2334, 1.25898, -173.619, 1.27533, 66.0473, 0.0051257, -112.167
