hour,t(sec),"P1 (kW)","Q1 (kvar)","P2 (kW)","Q2 (kvar)","P3 (kW)","Q3 (kvar)","P4 (kW)","Q4 (kvar)"
0, 60.00000, 0.227963, 0.0971124, 0.227572, 0.096942, 0.247849, 0.105579, 0, 0
0, 120.00000, 0.227956, 0.097109, 0.227571, 0.0969421, 0.247848, 0.105579, 0, 0
0, 180.00000, 0.227949, 0.0971059, 0.227571, 0.0969421, 0.247846, 0.105579, 0, 0
0, 240.00000, 0.227942, 0.0971031, 0.22757, 0.0969421, 0.247845, 0.105579, 0, 0
0, 300.00000, 0.227936, 0.0971005, 0.22757, 0.0969422, 0.247844, 0.105579, 0, 0
0, 360.00000, 0.227931, 0.0970982, 0.227569, 0.0969422, 0.247843, 0.105578, 0, 0
0, 420.00000, 0.227926, 0.097096, 0.227569, 0.0969422, 0.247843, 0.105578, 0, 0
0, 480.00000, 0.201834, 0.0859809, 0.201416, 0.0858013, 0.215624, 0.0918535, 0, 0
0, 540.00000, 0.201831, 0.0859794, 0.201415, 0.0858014, 0.215623, 0.0918533, 0, 0
0, 600.00000, 0.201828, 0.0859781, 0.201415, 0.0858015, 0.215622, 0.0918532, 0, 0
0, 660.00000, 0.201825, 0.0859769, 0.201415, 0.0858015, 0.215622, 0.0918531, 0, 0
0, 720.00000, 0.201823, 0.0859759, 0.201415, 0.0858016, 0.215621, 0.0918531, 0, 0
0, 780.00000, 0.20182, 0.0859749, 0.201415, 0.0858016, 0.215621, 0.091853, 0, 0
0, 840.00000, 0.201818, 0.085974, 0.201415, 0.0858016, 0.215621, 0.091853, 0, 0
0, 900.00000, 0.201816, 0.0859732, 0.201415, 0.0858017, 0.21562, 0.0918529, 0, 0
0, 960.00000, 0.197919, 0.0843135, 0.201417, 0.085803, 0.21562, 0.0918528, 0, 0
0, 1020.00000, 0.197918, 0.0843127, 0.201417, 0.085803, 0.21562, 0.0918529, 0, 0
0, 1080.00000, 0.197916, 0.084312, 0.201417, 0.085803, 0.215619, 0.0918529, 0, 0
0, 1140.00000, 0.197915, 0.0843114, 0.201417, 0.085803, 0.215619, 0.0918528, 0, 0
0, 1200.00000, 0.197913, 0.0843108, 0.201417, 0.085803, 0.215619, 0.0918528, 0, 0
0, 1260.00000, 0.197912, 0.0843103, 0.201417, 0.085803, 0.215619, 0.0918528, 0, 0
0, 1320.00000, 0.197911, 0.0843099, 0.201417, 0.085803, 0.215619, 0.0918528, 0, 0
0, 1380.00000, 0.19791, 0.0843095, 0.201417, 0.0858031, 0.215619, 0.0918528, 0, 0
0, 1440.00000, 0.197909, 0.0843091, 0.201417, 0.0858031, 0.215618, 0.0918528, 0, 0
0, 1500.00000, 0.197909, 0.0843087, 0.201417, 0.0858031, 0.215618, 0.0918527, 0, 0
0, 1560.00000, 0.197908, 0.0843084, 0.201417, 0.0858031, 0.215618, 0.0918527, 0, 0
0, 1620.00000, 0.197907, 0.0843082, 0.201417, 0.0858031, 0.215618, 0.0918527, 0, 0
0, 1680.00000, 0.197907, 0.0843079, 0.201417, 0.0858031, 0.215618, 0.0918527, 0, 0
0, 1740.00000, 0.197906, 0.0843077, 0.201417, 0.0858031, 0.215618, 0.0918527, 0, 0
0, 1800.00000, 0.197906, 0.0843075, 0.201417, 0.0858031, 0.215618, 0.0918527, 0, 0
0, 1860.00000, 0.197905, 0.0843073, 0.201417, 0.0858031, 0.215618, 0.0918527, 0, 0
0, 1920.00000, 0.197905, 0.0843071, 0.201417, 0.0858031, 0.215618, 0.0918527, 0, 0
0, 1980.00000, 0.197905, 0.084307, 0.201417, 0.0858031, 0.215618, 0.0918527, 0, 0
0, 2040.00000, 0.197904, 0.0843069, 0.201417, 0.0858031, 0.215618, 0.0918527, 0, 0
0, 2100.00000, 0.197904, 0.0843068, 0.201417, 0.0858031, 0.215618, 0.0918527, 0, 0
0, 2160.00000, 0.197904, 0.0843066, 0.201417, 0.0858031, 0.215618, 0.0918527, 0, 0
0, 2220.00000, 0.197903, 0.0843065, 0.201417, 0.0858031, 0.215618, 0.0918527, 0, 0
0, 2280.00000, 0.197903, 0.0843065, 0.201417, 0.0858031, 0.215618, 0.0918527, 0, 0
0, 2340.00000, 0.197903, 0.0843064, 0.201417, 0.0858031, 0.215618, 0.0918527, 0, 0
0, 2400.00000, 0.197903, 0.0843063, 0.201417, 0.0858031, 0.215618, 0.0918527, 0, 0
0, 2460.00000, 0.197903, 0.0843062, 0.201417, 0.0858031, 0.215618, 0.0918527, 0, 0
0, 2520.00000, 0.197903, 0.0843062, 0.201417, 0.0858032, 0.215618, 0.0918527, 0, 0
0, 2580.00000, 0.197903, 0.0843061, 0.201417, 0.0858032, 0.215618, 0.0918527, 0, 0
0, 2640.00000, 0.197902, 0.0843061, 0.201417, 0.0858032, 0.215618, 0.0918527, 0, 0
0, 2700.00000, 0.197902, 0.0843061, 0.201417, 0.0858032, 0.215618, 0.0918527, 0, 0
0, 2760.00000, 0.197947, 0.0843252, 0.202414, 0.086228, 0.215618, 0.0918527, 0, 0
0, 2820.00000, 0.197947, 0.0843252, 0.202414, 0.086228, 0.215618, 0.0918527, 0, 0
0, 2880.00000, 0.197947, 0.0843251, 0.202414, 0.086228, 0.215618, 0.0918526, 0, 0
0, 2940.00000, 0.197947, 0.0843251, 0.202414, 0.086228, 0.215617, 0.0918526, 0, 0
0, 3000.00000, 0.197947, 0.0843251, 0.202414, 0.086228, 0.215617, 0.0918526, 0, 0
0, 3060.00000, 0.197947, 0.0843251, 0.202414, 0.086228, 0.215617, 0.0918526, 0, 0
0, 3120.00000, 0.197947, 0.0843251, 0.202414, 0.086228, 0.215617, 0.0918526, 0, 0
0, 3180.00000, 0.197947, 0.084325, 0.202414, 0.086228, 0.215617, 0.0918526, 0, 0
0, 3240.00000, 0.197947, 0.084325, 0.202414, 0.086228, 0.215617, 0.0918526, 0, 0
0, 3300.00000, 0.197947, 0.084325, 0.202414, 0.086228, 0.215617, 0.0918526, 0, 0
0, 3360.00000, 0.197947, 0.084325, 0.202414, 0.086228, 0.215617, 0.0918526, 0, 0
0, 3420.00000, 0.197947, 0.084325, 0.202414, 0.086228, 0.215617, 0.0918526, 0, 0
0, 3480.00000, 0.197947, 0.084325, 0.202414, 0.086228, 0.215617, 0.0918526, 0, 0
0, 3540.00000, 0.197947, 0.084325, 0.202414, 0.086228, 0.215617, 0.0918526, 0, 0
1, 0.00000, 0.197947, 0.084325, 0.202414, 0.086228, 0.215617, 0.0918526, 0, 0
1, 60.00000, 0.19848, 0.0845521, 0.203695, 0.0867737, 0.215617, 0.0918526, 0, 0
1, 120.00000, 0.19848, 0.084552, 0.203695, 0.0867737, 0.215617, 0.0918526, 0, 0
1, 180.00000, 0.19848, 0.084552, 0.203695, 0.0867737, 0.215617, 0.0918526, 0, 0
1, 240.00000, 0.19848, 0.084552, 0.203695, 0.0867737, 0.215617, 0.0918526, 0, 0
1, 300.00000, 0.19848, 0.084552, 0.203695, 0.0867737, 0.215617, 0.0918526, 0, 0
1, 360.00000, 0.19848, 0.084552, 0.203695, 0.0867737, 0.215617, 0.0918526, 0, 0
1, 420.00000, 0.19848, 0.084552, 0.203695, 0.0867737, 0.215617, 0.0918526, 0, 0
1, 480.00000, 0.19848, 0.084552, 0.203695, 0.0867737, 0.215617, 0.0918526, 0, 0
1, 540.00000, 0.19848, 0.084552, 0.203695, 0.0867737, 0.215617, 0.0918526, 0, 0
1, 600.00000, 0.19848, 0.084552, 0.203695, 0.0867737, 0.215617, 0.0918526, 0, 0
1, 660.00000, 0.19848, 0.084552, 0.203695, 0.0867737, 0.215617, 0.0918526, 0, 0
1, 720.00000, 0.19848, 0.084552, 0.203695, 0.0867737, 0.215617, 0.0918526, 0, 0
1, 780.00000, 0.19848, 0.084552, 0.203695, 0.0867737, 0.215617, 0.0918526, 0, 0
1, 840.00000, 0.19848, 0.084552, 0.203695, 0.0867737, 0.215617, 0.0918526, 0, 0
1, 900.00000, 0.19848, 0.084552, 0.203695, 0.0867737, 0.215617, 0.0918526, 0, 0
1, 960.00000, 0.19848, 0.084552, 0.203695, 0.0867737, 0.215617, 0.0918526, 0, 0
1, 1020.00000, 0.19848, 0.084552, 0.203695, 0.0867737, 0.215617, 0.0918526, 0, 0
1, 1080.00000, 0.19848, 0.084552, 0.203695, 0.0867737, 0.215617, 0.0918526, 0, 0
1, 1140.00000, 0.19848, 0.084552, 0.203695, 0.0867737, 0.215617, 0.0918526, 0, 0
1, 1200.00000, 0.19848, 0.084552, 0.203695, 0.0867737, 0.215617, 0.0918526, 0, 0
1, 1260.00000, 0.19848, 0.084552, 0.203695, 0.0867737, 0.215617, 0.0918526, 0, 0
1, 1320.00000, 0.19848, 0.084552, 0.203695, 0.0867737, 0.215617, 0.0918526, 0, 0
1, 1380.00000, 0.19848, 0.084552, 0.203695, 0.0867737, 0.215617, 0.0918526, 0, 0
1, 1440.00000, 0.19848, 0.084552, 0.203695, 0.0867737, 0.215617, 0.0918526, 0, 0
1, 1500.00000, 0.19848, 0.084552, 0.203695, 0.0867737, 0.215617, 0.0918526, 0, 0
1, 1560.00000, 0.19848, 0.084552, 0.203695, 0.0867737, 0.215617, 0.0918526, 0, 0
1, 1620.00000, 0.19848, 0.084552, 0.203695, 0.0867737, 0.215617, 0.0918526, 0, 0
1, 1680.00000, 0.19848, 0.084552, 0.203695, 0.0867737, 0.215617, 0.0918526, 0, 0
1, 1740.00000, 0.19848, 0.084552, 0.203695, 0.0867737, 0.215617, 0.0918526, 0, 0
1, 1800.00000, 0.19848, 0.084552, 0.203695, 0.0867737, 0.215617, 0.0918526, 0, 0
1, 1860.00000, 0.19848, 0.084552, 0.203695, 0.0867737, 0.215617, 0.0918526, 0, 0
1, 1920.00000, 0.19848, 0.084552, 0.203695, 0.0867737, 0.215617, 0.0918526, 0, 0
1, 1980.00000, 0.19848, 0.084552, 0.203695, 0.0867737, 0.215617, 0.0918526, 0, 0
1, 2040.00000, 0.19848, 0.084552, 0.203695, 0.0867737, 0.215617, 0.0918526, 0, 0
1, 2100.00000, 0.19848, 0.084552, 0.203695, 0.0867737, 0.215617, 0.0918526, 0, 0
1, 2160.00000, 0.19848, 0.084552, 0.203695, 0.0867737, 0.215617, 0.0918526, 0, 0
1, 2220.00000, 0.19848, 0.084552, 0.203695, 0.0867737, 0.215617, 0.0918526, 0, 0
1, 2280.00000, 0.19848, 0.084552, 0.203695, 0.0867737, 0.215617, 0.0918526, 0, 0
1, 2340.00000, 0.19848, 0.084552, 0.203695, 0.0867737, 0.215617, 0.0918526, 0, 0
1, 2400.00000, 0.19848, 0.084552, 0.203695, 0.0867737, 0.215617, 0.0918526, 0, 0
1, 2460.00000, 0.19848, 0.084552, 0.203695, 0.0867737, 0.215617, 0.0918526, 0, 0
1, 2520.00000, 0.19848, 0.084552, 0.203695, 0.0867737, 0.215617, 0.0918526, 0, 0
1, 2580.00000, 0.19848, 0.084552, 0.203695, 0.0867737, 0.215617, 0.0918526, 0, 0
1, 2640.00000, 0.19848, 0.084552, 0.203695, 0.0867737, 0.215617, 0.0918526, 0, 0
1, 2700.00000, 0.19848, 0.084552, 0.203695, 0.0867737, 0.215617, 0.0918526, 0, 0
1, 2760.00000, 0.19848, 0.084552, 0.203695, 0.0867737, 0.215617, 0.0918526, 0, 0
1, 2820.00000, 0.19848, 0.084552, 0.203695, 0.0867737, 0.215617, 0.0918526, 0, 0
1, 2880.00000, 0.19848, 0.084552, 0.203695, 0.0867737, 0.215617, 0.0918526, 0, 0
1, 2940.00000, 0.19848, 0.084552, 0.203695, 0.0867737, 0.215617, 0.0918526, 0, 0
1, 3000.00000, 0.19848, 0.084552, 0.203695, 0.0867737, 0.215617, 0.0918526, 0, 0
1, 3060.00000, 0.19848, 0.084552, 0.203695, 0.0867737, 0.215617, 0.0918526, 0, 0
1, 3120.00000, 0.19848, 0.084552, 0.203695, 0.0867737, 0.215617, 0.0918526, 0, 0
1, 3180.00000, 0.19848, 0.084552, 0.203695, 0.0867737, 0.215617, 0.0918526, 0, 0
1, 3240.00000, 0.19848, 0.084552, 0.203695, 0.0867737, 0.215617, 0.0918526, 0, 0
1, 3300.00000, 0.19848, 0.084552, 0.203695, 0.0867737, 0.215617, 0.0918526, 0, 0
1, 3360.00000, 0.19848, 0.084552, 0.203695, 0.0867737, 0.215617, 0.0918526, 0, 0
1, 3420.00000, 0.19848, 0.084552, 0.203695, 0.0867737, 0.215617, 0.0918526, 0, 0
1, 3480.00000, 0.19848, 0.084552, 0.203695, 0.0867737, 0.215617, 0.0918526, 0, 0
1, 3540.00000, 0.19848, 0.084552, 0.203695, 0.0867737, 0.215617, 0.0918526, 0, 0
2, 0.00000, 0.19848, 0.084552, 0.203695, 0.0867737, 0.215617, 0.0918526, 0, 0
2, 60.00000, 0.19848, 0.084552, 0.203695, 0.0867737, 0.215617, 0.0918526, 0, 0
2, 120.00000, 0.19848, 0.084552, 0.203695, 0.0867737, 0.215617, 0.0918526, 0, 0
2, 180.00000, 0.19848, 0.084552, 0.203695, 0.0867737, 0.215617, 0.0918526, 0, 0
2, 240.00000, 0.19848, 0.084552, 0.203695, 0.0867737, 0.215617, 0.0918526, 0, 0
2, 300.00000, 0.19848, 0.084552, 0.203695, 0.0867737, 0.215617, 0.0918526, 0, 0
2, 360.00000, 0.19848, 0.084552, 0.203695, 0.0867737, 0.215617, 0.0918526, 0, 0
2, 420.00000, 0.19848, 0.084552, 0.203695, 0.0867737, 0.215617, 0.0918526, 0, 0
2, 480.00000, 0.19848, 0.084552, 0.203695, 0.0867737, 0.215617, 0.0918526, 0, 0
2, 540.00000, 0.19848, 0.084552, 0.203695, 0.0867737, 0.215617, 0.0918526, 0, 0
2, 600.00000, 0.19848, 0.084552, 0.203695, 0.0867737, 0.215617, 0.0918526, 0, 0
2, 660.00000, 0.19848, 0.084552, 0.203695, 0.0867737, 0.215617, 0.0918526, 0, 0
2, 720.00000, 0.19848, 0.084552, 0.203695, 0.0867737, 0.215617, 0.0918526, 0, 0
2, 780.00000, 0.19848, 0.084552, 0.203695, 0.0867737, 0.215617, 0.0918526, 0, 0
2, 840.00000, 0.202392, 0.0862187, 0.203688, 0.0867705, 0.215618, 0.0918527, 0, 0
2, 900.00000, 0.202392, 0.0862187, 0.203688, 0.0867705, 0.215617, 0.0918526, 0, 0
2, 960.00000, 0.202392, 0.0862187, 0.203688, 0.0867705, 0.215617, 0.0918526, 0, 0
2, 1020.00000, 0.202392, 0.0862187, 0.203688, 0.0867705, 0.215617, 0.0918526, 0, 0
2, 1080.00000, 0.202392, 0.0862187, 0.203688, 0.0867705, 0.215617, 0.0918526, 0, 0
2, 1140.00000, 0.202392, 0.0862187, 0.203688, 0.0867705, 0.215617, 0.0918526, 0, 0
2, 1200.00000, 0.202392, 0.0862187, 0.203688, 0.0867705, 0.215617, 0.0918526, 0, 0
2, 1260.00000, 0.202392, 0.0862187, 0.203688, 0.0867705, 0.215617, 0.0918526, 0, 0
2, 1320.00000, 0.202392, 0.0862187, 0.203688, 0.0867705, 0.215617, 0.0918526, 0, 0
2, 1380.00000, 0.202392, 0.0862187, 0.203688, 0.0867705, 0.215617, 0.0918526, 0, 0
2, 1440.00000, 0.202392, 0.0862187, 0.203688, 0.0867705, 0.215617, 0.0918526, 0, 0
2, 1500.00000, 0.202392, 0.0862187, 0.203688, 0.0867705, 0.215617, 0.0918526, 0, 0
2, 1560.00000, 0.202392, 0.0862187, 0.203688, 0.0867705, 0.215617, 0.0918526, 0, 0
2, 1620.00000, 0.202392, 0.0862187, 0.203688, 0.0867705, 0.215617, 0.0918526, 0, 0
2, 1680.00000, 0.202392, 0.0862187, 0.203688, 0.0867705, 0.215617, 0.0918526, 0, 0
2, 1740.00000, 0.202392, 0.0862187, 0.203688, 0.0867705, 0.215617, 0.0918526, 0, 0
2, 1800.00000, 0.202392, 0.0862187, 0.203688, 0.0867705, 0.215617, 0.0918526, 0, 0
2, 1860.00000, 0.202392, 0.0862187, 0.203688, 0.0867705, 0.215617, 0.0918526, 0, 0
2, 1920.00000, 0.202392, 0.0862187, 0.203688, 0.0867705, 0.215617, 0.0918526, 0, 0
2, 1980.00000, 0.202392, 0.0862187, 0.203688, 0.0867705, 0.215617, 0.0918526, 0, 0
2, 2040.00000, 0.202392, 0.0862187, 0.203688, 0.0867705, 0.215617, 0.0918526, 0, 0
2, 2100.00000, 0.202392, 0.0862187, 0.203688, 0.0867705, 0.215617, 0.0918526, 0, 0
2, 2160.00000, 0.202392, 0.0862187, 0.203688, 0.0867705, 0.215617, 0.0918526, 0, 0
2, 2220.00000, 0.202392, 0.0862187, 0.203688, 0.0867705, 0.215617, 0.0918526, 0, 0
2, 2280.00000, 0.202392, 0.0862187, 0.203688, 0.0867705, 0.215617, 0.0918526, 0, 0
2, 2340.00000, 0.202392, 0.0862187, 0.203688, 0.0867705, 0.215617, 0.0918526, 0, 0
2, 2400.00000, 0.202394, 0.0862193, 0.204558, 0.0871415, 0.215618, 0.0918527, 0, 0
2, 2460.00000, 0.202394, 0.0862193, 0.204558, 0.0871415, 0.215617, 0.0918526, 0, 0
2, 2520.00000, 0.202394, 0.0862193, 0.204558, 0.0871415, 0.215617, 0.0918526, 0, 0
2, 2580.00000, 0.202394, 0.0862193, 0.204558, 0.0871415, 0.215617, 0.0918526, 0, 0
2, 2640.00000, 0.202394, 0.0862193, 0.204558, 0.0871415, 0.215617, 0.0918526, 0, 0
2, 2700.00000, 0.199801, 0.0851147, 0.20461, 0.0871635, 0.215617, 0.0918525, 0, 0
2, 2760.00000, 0.199801, 0.0851148, 0.20461, 0.0871635, 0.215617, 0.0918526, 0, 0
2, 2820.00000, 0.199801, 0.0851148, 0.20461, 0.0871635, 0.215617, 0.0918526, 0, 0
2, 2880.00000, 0.199801, 0.0851148, 0.20461, 0.0871635, 0.215617, 0.0918526, 0, 0
2, 2940.00000, 0.199801, 0.0851148, 0.20461, 0.0871635, 0.215617, 0.0918526, 0, 0
2, 3000.00000, 0.199801, 0.0851148, 0.20461, 0.0871635, 0.215617, 0.0918526, 0, 0
2, 3060.00000, 0.20136, 0.085779, 0.204587, 0.0871534, 0.215618, 0.0918528, 0, 0
2, 3120.00000, 0.20136, 0.085779, 0.204586, 0.0871535, 0.215617, 0.0918526, 0, 0
2, 3180.00000, 0.20136, 0.085779, 0.204586, 0.0871535, 0.215617, 0.0918526, 0, 0
2, 3240.00000, 0.20136, 0.085779, 0.204586, 0.0871535, 0.215617, 0.0918526, 0, 0
2, 3300.00000, 0.20136, 0.085779, 0.204586, 0.0871535, 0.215617, 0.0918526, 0, 0
2, 3360.00000, 0.20136, 0.085779, 0.204586, 0.0871535, 0.215617, 0.0918526, 0, 0
2, 3420.00000, 0.20136, 0.085779, 0.204586, 0.0871535, 0.215617, 0.0918526, 0, 0
2, 3480.00000, 0.20136, 0.085779, 0.204586, 0.0871535, 0.215617, 0.0918526, 0, 0
2, 3540.00000, 0.20136, 0.085779, 0.204586, 0.0871535, 0.215617, 0.0918526, 0, 0
3, 0.00000, 0.20136, 0.085779, 0.204586, 0.0871535, 0.215617, 0.0918526, 0, 0
3, 60.00000, 0.20136, 0.085779, 0.204586, 0.0871535, 0.215617, 0.0918526, 0, 0
3, 120.00000, 0.20136, 0.085779, 0.204586, 0.0871535, 0.215617, 0.0918526, 0, 0
3, 180.00000, 0.20136, 0.085779, 0.204586, 0.0871535, 0.215617, 0.0918526, 0, 0
3, 240.00000, 0.20136, 0.085779, 0.204586, 0.0871535, 0.215617, 0.0918526, 0, 0
3, 300.00000, 0.20136, 0.085779, 0.204586, 0.0871535, 0.215617, 0.0918526, 0, 0
3, 360.00000, 0.20136, 0.085779, 0.204586, 0.0871535, 0.215617, 0.0918526, 0, 0
3, 420.00000, 0.20136, 0.085779, 0.204586, 0.0871535, 0.215617, 0.0918526, 0, 0
3, 480.00000, 0.20136, 0.085779, 0.204586, 0.0871535, 0.215617, 0.0918526, 0, 0
3, 540.00000, 0.20136, 0.085779, 0.204586, 0.0871535, 0.215617, 0.0918526, 0, 0
3, 600.00000, 0.20136, 0.085779, 0.204586, 0.0871535, 0.215617, 0.0918526, 0, 0
3, 660.00000, 0.20136, 0.085779, 0.204586, 0.0871535, 0.215617, 0.0918526, 0, 0
3, 720.00000, 0.20136, 0.085779, 0.204586, 0.0871535, 0.215617, 0.0918526, 0, 0
3, 780.00000, 0.20136, 0.085779, 0.204586, 0.0871535, 0.215617, 0.0918526, 0, 0
3, 840.00000, 0.20136, 0.085779, 0.204586, 0.0871535, 0.215617, 0.0918526, 0, 0
3, 900.00000, 0.20136, 0.085779, 0.204586, 0.0871535, 0.215617, 0.0918526, 0, 0
3, 960.00000, 0.20136, 0.085779, 0.204586, 0.0871535, 0.215617, 0.0918526, 0, 0
3, 1020.00000, 0.20136, 0.085779, 0.204586, 0.0871535, 0.215617, 0.0918526, 0, 0
3, 1080.00000, 0.20136, 0.085779, 0.204586, 0.0871535, 0.215617, 0.0918526, 0, 0
3, 1140.00000, 0.20136, 0.085779, 0.204586, 0.0871535, 0.215617, 0.0918526, 0, 0
3, 1200.00000, 0.20136, 0.085779, 0.204586, 0.0871535, 0.215617, 0.0918526, 0, 0
3, 1260.00000, 0.20136, 0.085779, 0.204586, 0.0871535, 0.215617, 0.0918526, 0, 0
3, 1320.00000, 0.20136, 0.085779, 0.204586, 0.0871535, 0.215617, 0.0918526, 0, 0
3, 1380.00000, 0.20136, 0.085779, 0.204586, 0.0871535, 0.215617, 0.0918526, 0, 0
3, 1440.00000, 0.20136, 0.085779, 0.204586, 0.0871535, 0.215617, 0.0918526, 0, 0
3, 1500.00000, 0.20136, 0.085779, 0.204586, 0.0871535, 0.215617, 0.0918526, 0, 0
3, 1560.00000, 0.20136, 0.085779, 0.204586, 0.0871535, 0.215617, 0.0918526, 0, 0
3, 1620.00000, 0.20136, 0.085779, 0.204586, 0.0871535, 0.215617, 0.0918526, 0, 0
3, 1680.00000, 0.20136, 0.085779, 0.204586, 0.0871535, 0.215617, 0.0918526, 0, 0
3, 1740.00000, 0.20136, 0.085779, 0.204586, 0.0871535, 0.215617, 0.0918526, 0, 0
3, 1800.00000, 0.20136, 0.085779, 0.204586, 0.0871535, 0.215617, 0.0918526, 0, 0
3, 1860.00000, 0.20136, 0.085779, 0.204586, 0.0871535, 0.215617, 0.0918526, 0, 0
3, 1920.00000, 0.20136, 0.085779, 0.204586, 0.0871535, 0.215617, 0.0918526, 0, 0
3, 1980.00000, 0.20136, 0.085779, 0.204586, 0.0871535, 0.215617, 0.0918526, 0, 0
3, 2040.00000, 0.20136, 0.085779, 0.204586, 0.0871535, 0.215617, 0.0918526, 0, 0
3, 2100.00000, 0.20136, 0.085779, 0.204586, 0.0871535, 0.215617, 0.0918526, 0, 0
3, 2160.00000, 0.20136, 0.085779, 0.204586, 0.0871535, 0.215617, 0.0918526, 0, 0
3, 2220.00000, 0.20136, 0.085779, 0.204586, 0.0871535, 0.215617, 0.0918526, 0, 0
3, 2280.00000, 0.20136, 0.085779, 0.204586, 0.0871535, 0.215617, 0.0918526, 0, 0
3, 2340.00000, 0.20136, 0.085779, 0.204586, 0.0871535, 0.215617, 0.0918526, 0, 0
3, 2400.00000, 0.20136, 0.085779, 0.204586, 0.0871535, 0.215617, 0.0918526, 0, 0
3, 2460.00000, 0.20136, 0.085779, 0.204586, 0.0871535, 0.215617, 0.0918526, 0, 0
3, 2520.00000, 0.20136, 0.085779, 0.204586, 0.0871535, 0.215617, 0.0918526, 0, 0
3, 2580.00000, 0.20136, 0.085779, 0.204586, 0.0871535, 0.215617, 0.0918526, 0, 0
3, 2640.00000, 0.20136, 0.085779, 0.204586, 0.0871535, 0.215617, 0.0918526, 0, 0
3, 2700.00000, 0.20136, 0.085779, 0.204586, 0.0871535, 0.215617, 0.0918526, 0, 0
3, 2760.00000, 0.20136, 0.085779, 0.204586, 0.0871535, 0.215617, 0.0918526, 0, 0
3, 2820.00000, 0.20136, 0.085779, 0.204586, 0.0871535, 0.215617, 0.0918526, 0, 0
3, 2880.00000, 0.20136, 0.085779, 0.204586, 0.0871535, 0.215617, 0.0918526, 0, 0
3, 2940.00000, 0.20136, 0.085779, 0.204586, 0.0871535, 0.215617, 0.0918526, 0, 0
3, 3000.00000, 0.20136, 0.085779, 0.204586, 0.0871535, 0.215617, 0.0918526, 0, 0
3, 3060.00000, 0.20136, 0.085779, 0.204586, 0.0871535, 0.215617, 0.0918526, 0, 0
3, 3120.00000, 0.20136, 0.085779, 0.204586, 0.0871535, 0.215617, 0.0918526, 0, 0
3, 3180.00000, 0.212169, 0.0903835, 0.215595, 0.0918433, 0.228095, 0.097168, 0, 0
3, 3240.00000, 0.212169, 0.0903836, 0.215595, 0.0918432, 0.228095, 0.0971682, 0, 0
3, 3300.00000, 0.212169, 0.0903836, 0.215595, 0.0918432, 0.228095, 0.0971682, 0, 0
3, 3360.00000, 0.212169, 0.0903836, 0.215595, 0.0918432, 0.228095, 0.0971682, 0, 0
3, 3420.00000, 0.212169, 0.0903836, 0.215595, 0.0918432, 0.228095, 0.0971682, 0, 0
3, 3480.00000, 0.212169, 0.0903836, 0.215595, 0.0918432, 0.228095, 0.0971682, 0, 0
3, 3540.00000, 0.212169, 0.0903836, 0.215595, 0.0918432, 0.228095, 0.0971682, 0, 0
4, 0.00000, 0.212169, 0.0903836, 0.215595, 0.0918432, 0.228095, 0.0971682, 0, 0
4, 60.00000, 0.212169, 0.0903836, 0.215595, 0.0918432, 0.228095, 0.0971682, 0, 0
4, 120.00000, 0.212169, 0.0903836, 0.215595, 0.0918432, 0.228095, 0.0971682, 0, 0
4, 180.00000, 0.212169, 0.0903836, 0.215595, 0.0918432, 0.228095, 0.0971682, 0, 0
4, 240.00000, 0.212169, 0.0903836, 0.215595, 0.0918432, 0.228095, 0.0971682, 0, 0
