hour,t(sec),V1,VAngle1,V2,VAngle2,V3,VAngle3,V4,VAngle4,I1,IAngle1,I2,IAngle2,I3,IAngle3,I4,IAngle4
0, 60.00000, 116.454, -32.9887, 117.242, -150.928, 121.56, 87.7178, 0, 0, 6.10095, -56.0627, 6.14668, -174.001, 6.29996, 64.645, 0.0142651, 50.146
0, 120.00000, 116.449, -33.0115, 117.242, -150.928, 121.607, 87.7048, 0, 0, 6.10065, -56.0855, 6.14665, -174.002, 6.29751, 64.6318, 0.0184762, 53.2633
0, 180.00000, 116.444, -33.032, 117.241, -150.929, 121.649, 87.693, 0, 0, 6.10037, -56.106, 6.14663, -174.002, 6.29531, 64.62, 0.022295, 55.0522
0, 240.00000, 116.44, -33.0504, 117.241, -150.93, 121.687, 87.6824, 0, 0, 6.10012, -56.1244, 6.14661, -174.003, 6.29331, 64.6093, 0.0257515, 56.1975
0, 300.00000, 116.437, -33.067, 117.241, -150.93, 121.721, 87.6729, 0, 0, 6.09989, -56.141, 6.14659, -174.004, 6.2915, 64.5997, 0.0288728, 56.9871
0, 360.00000, 116.433, -33.082, 117.24, -150.931, 121.752, 87.6643, 0, 0, 6.09968, -56.156, 6.14657, -174.004, 6.28988, 64.591, 0.0316847, 57.5622
0, 420.00000, 116.43, -33.0954, 117.24, -150.931, 121.78, 87.6566, 0, 0, 6.09949, -56.1694, 6.14656, -174.005, 6.28841, 64.5833, 0.0342165, 57.9974
0, 480.00000, 117.533, -33.0306, 118.351, -150.867, 123.072, 87.7521, 0, 0, 5.3625, -56.1044, 5.40385, -173.94, 5.4135, 64.6788, 0.145032, 62.1367
0, 540.00000, 117.531, -33.0416, 118.35, -150.867, 123.095, 87.7458, 0, 0, 5.36236, -56.1154, 5.40384, -173.941, 5.41249, 64.6725, 0.146828, 62.1498
0, 600.00000, 117.529, -33.0515, 118.35, -150.867, 123.115, 87.7402, 0, 0, 5.36225, -56.1253, 5.40383, -173.941, 5.41158, 64.6667, 0.148439, 62.1619
0, 660.00000, 117.527, -33.0604, 118.35, -150.868, 123.133, 87.735, 0, 0, 5.36214, -56.1342, 5.40382, -173.941, 5.41077, 64.6616, 0.149889, 62.1724
0, 720.00000, 117.525, -33.0684, 118.35, -150.868, 123.15, 87.7304, 0, 0, 5.36204, -56.1423, 5.40381, -173.942, 5.41004, 64.6569, 0.151193, 62.1816
0, 780.00000, 117.523, -33.0756, 118.35, -150.868, 123.164, 87.7263, 0, 0, 5.36196, -56.1495, 5.4038, -173.942, 5.40938, 64.6527, 0.152367, 62.1897
0, 840.00000, 117.522, -33.0821, 118.35, -150.868, 123.178, 87.7225, 0, 0, 5.36188, -56.156, 5.40379, -173.942, 5.40878, 64.6489, 0.153423, 62.1967
0, 900.00000, 117.521, -33.088, 118.349, -150.868, 123.19, 87.7192, 0, 0, 5.36181, -56.1618, 5.40379, -173.942, 5.40825, 64.6455, 0.154374, 62.203
0, 960.00000, 117.52, -33.0932, 118.349, -150.869, 123.2, 87.7161, 0, 0, 5.36174, -56.1671, 5.40378, -173.942, 5.40777, 64.6425, 0.155229, 62.2085
0, 1020.00000, 117.518, -33.098, 118.349, -150.869, 123.21, 87.7134, 0, 0, 5.36168, -56.1718, 5.40378, -173.942, 5.40734, 64.6397, 0.155998, 62.2133
0, 1080.00000, 117.518, -33.1022, 118.349, -150.869, 123.219, 87.7109, 0, 0, 5.36163, -56.1761, 5.40377, -173.943, 5.40695, 64.6372, 0.156691, 62.2176
0, 1140.00000, 117.517, -33.1061, 118.349, -150.869, 123.227, 87.7087, 0, 0, 5.36158, -56.18, 5.40377, -173.943, 5.4066, 64.635, 0.157314, 62.2214
0, 1200.00000, 117.516, -33.1095, 118.349, -150.869, 123.234, 87.7067, 0, 0, 5.36154, -56.1834, 5.40376, -173.943, 5.40628, 64.633, 0.157874, 62.2248
0, 1260.00000, 117.515, -33.1126, 118.349, -150.869, 123.24, 87.7049, 0, 0, 5.3615, -56.1865, 5.40376, -173.943, 5.406, 64.6312, 0.158379, 62.2278
0, 1320.00000, 117.515, -33.1154, 118.349, -150.869, 123.246, 87.7033, 0, 0, 5.36147, -56.1893, 5.40376, -173.943, 5.40575, 64.6296, 0.158833, 62.2305
0, 1380.00000, 117.514, -33.118, 118.349, -150.869, 123.251, 87.7019, 0, 0, 5.36144, -56.1918, 5.40375, -173.943, 5.40552, 64.6281, 0.159242, 62.2329
0, 1440.00000, 117.513, -33.1202, 118.349, -150.869, 123.256, 87.7006, 0, 0, 5.36141, -56.1941, 5.40375, -173.943, 5.40531, 64.6268, 0.15961, 62.2351
0, 1500.00000, 117.513, -33.1223, 118.349, -150.869, 123.26, 87.6994, 0, 0, 5.36139, -56.1962, 5.40375, -173.943, 5.40513, 64.6256, 0.15994, 62.237
0, 1560.00000, 117.513, -33.1241, 118.349, -150.869, 123.264, 87.6983, 0, 0, 5.36136, -56.198, 5.40375, -173.943, 5.40496, 64.6245, 0.160238, 62.2387
0, 1620.00000, 117.512, -33.1257, 118.349, -150.869, 123.267, 87.6974, 0, 0, 5.36134, -56.1997, 5.40375, -173.943, 5.40481, 64.6236, 0.160506, 62.2402
0, 1680.00000, 117.512, -33.1272, 118.349, -150.869, 123.27, 87.6965, 0, 0, 5.36132, -56.2011, 5.40374, -173.943, 5.40467, 64.6227, 0.160748, 62.2416
0, 1740.00000, 117.512, -33.1286, 118.349, -150.869, 123.273, 87.6957, 0, 0, 5.36131, -56.2025, 5.40374, -173.943, 5.40455, 64.6219, 0.160965, 62.2428
0, 1800.00000, 117.511, -33.1298, 118.349, -150.87, 123.275, 87.6951, 0, 0, 5.36129, -56.2037, 5.40374, -173.943, 5.40444, 64.6212, 0.16116, 62.2439
0, 1860.00000, 117.511, -33.1309, 118.349, -150.87, 123.277, 87.6944, 0, 0, 5.36128, -56.2048, 5.40374, -173.943, 5.40434, 64.6206, 0.161336, 62.2449
0, 1920.00000, 117.511, -33.1318, 118.349, -150.87, 123.279, 87.6939, 0, 0, 5.36127, -56.2058, 5.40374, -173.943, 5.40425, 64.62, 0.161494, 62.2458
0, 1980.00000, 117.511, -33.1327, 118.348, -150.87, 123.281, 87.6934, 0, 0, 5.36126, -56.2066, 5.40374, -173.943, 5.40417, 64.6195, 0.161637, 62.2465
0, 2040.00000, 117.51, -33.1335, 118.348, -150.87, 123.283, 87.6929, 0, 0, 5.36125, -56.2074, 5.40374, -173.944, 5.4041, 64.619, 0.161765, 62.2472
0, 2100.00000, 117.51, -33.1342, 118.348, -150.87, 123.284, 87.6925, 0, 0, 5.36124, -56.2081, 5.40374, -173.944, 5.40404, 64.6186, 0.16188, 62.2479
0, 2160.00000, 117.51, -33.1349, 118.348, -150.87, 123.286, 87.6921, 0, 0, 5.36123, -56.2088, 5.40374, -173.944, 5.40398, 64.6182, 0.161984, 62.2485
0, 2220.00000, 117.51, -33.1354, 118.348, -150.87, 123.287, 87.6918, 0, 0, 5.36122, -56.2094, 5.40373, -173.944, 5.40393, 64.6179, 0.162077, 62.249
0, 2280.00000, 117.51, -33.136, 118.348, -150.87, 123.288, 87.6915, 0, 0, 5.36122, -56.2099, 5.40373, -173.944, 5.40388, 64.6176, 0.162161, 62.2494
0, 2340.00000, 117.51, -33.1364, 118.348, -150.87, 123.289, 87.6912, 0, 0, 5.36121, -56.2103, 5.40373, -173.944, 5.40384, 64.6173, 0.162237, 62.2498
0, 2400.00000, 117.51, -33.1368, 118.348, -150.87, 123.29, 87.691, 0, 0, 5.3612, -56.2108, 5.40373, -173.944, 5.4038, 64.6171, 0.162305, 62.2502
0, 2460.00000, 117.51, -33.1372, 118.348, -150.87, 123.29, 87.6908, 0, 0, 5.3612, -56.2111, 5.40373, -173.944, 5.40376, 64.6169, 0.162366, 62.2505
0, 2520.00000, 117.51, -33.1376, 118.348, -150.87, 123.291, 87.6906, 0, 0, 5.3612, -56.2115, 5.40373, -173.944, 5.40373, 64.6167, 0.162422, 62.2508
0, 2580.00000, 117.51, -33.1379, 118.348, -150.87, 123.292, 87.6904, 0, 0, 5.36119, -56.2118, 5.40373, -173.944, 5.4037, 64.6165, 0.162471, 62.2511
0, 2640.00000, 117.509, -33.1381, 118.348, -150.87, 123.292, 87.6902, 0, 0, 5.36119, -56.2121, 5.40373, -173.944, 5.40368, 64.6163, 0.162516, 62.2514
0, 2700.00000, 117.509, -33.1384, 118.348, -150.87, 123.293, 87.6901, 0, 0, 5.36119, -56.2123, 5.40373, -173.944, 5.40366, 64.6162, 0.162556, 62.2516
0, 2760.00000, 117.509, -33.1386, 118.348, -150.87, 123.293, 87.6899, 0, 0, 5.36118, -56.2125, 5.40373, -173.944, 5.40364, 64.616, 0.162592, 62.2518
0, 2820.00000, 117.509, -33.1388, 118.348, -150.87, 123.294, 87.6898, 0, 0, 5.36118, -56.2127, 5.40373, -173.944, 5.40362, 64.6159, 0.162625, 62.2519
0, 2880.00000, 117.509, -33.139, 118.348, -150.87, 123.294, 87.6897, 0, 0, 5.36118, -56.2129, 5.40373, -173.944, 5.4036, 64.6158, 0.162654, 62.2521
0, 2940.00000, 117.509, -33.1392, 118.348, -150.87, 123.294, 87.6896, 0, 0, 5.36118, -56.2131, 5.40373, -173.944, 5.40359, 64.6157, 0.162681, 62.2523
0, 3000.00000, 117.509, -33.1393, 118.348, -150.87, 123.295, 87.6896, 0, 0, 5.36117, -56.2132, 5.40373, -173.944, 5.40357, 64.6156, 0.162704, 62.2524
0, 3060.00000, 117.509, -33.1394, 118.348, -150.87, 123.295, 87.6895, 0, 0, 5.36117, -56.2134, 5.40373, -173.944, 5.40356, 64.6156, 0.162726, 62.2525
0, 3120.00000, 117.509, -33.1396, 118.348, -150.87, 123.295, 87.6894, 0, 0, 5.36117, -56.2135, 5.40373, -173.944, 5.40355, 64.6155, 0.162745, 62.2526
0, 3180.00000, 117.509, -33.1397, 118.348, -150.87, 123.295, 87.6893, 0, 0, 5.36117, -56.2136, 5.40373, -173.944, 5.40354, 64.6154, 0.162762, 62.2527
0, 3240.00000, 117.509, -33.1398, 118.348, -150.87, 123.296, 87.6893, 0, 0, 5.36117, -56.2137, 5.40373, -173.944, 5.40353, 64.6154, 0.162778, 62.2528
0, 3300.00000, 117.509, -33.1399, 118.348, -150.87, 123.296, 87.6892, 0, 0, 5.36117, -56.2138, 5.40373, -173.944, 5.40352, 64.6153, 0.162792, 62.2529
0, 3360.00000, 117.509, -33.1399, 118.348, -150.87, 123.296, 87.6892, 0, 0, 5.36117, -56.2138, 5.40373, -173.944, 5.40352, 64.6153, 0.162804, 62.2529
0, 3420.00000, 117.509, -33.14, 118.348, -150.87, 123.296, 87.6892, 0, 0, 5.36117, -56.2139, 5.40373, -173.944, 5.40351, 64.6152, 0.162816, 62.253
0, 3480.00000, 117.509, -33.1401, 118.348, -150.87, 123.296, 87.6891, 0, 0, 5.36116, -56.214, 5.40373, -173.944, 5.40351, 64.6152, 0.162826, 62.253
0, 3540.00000, 117.509, -33.1401, 118.348, -150.87, 123.296, 87.6891, 0, 0, 5.36116, -56.214, 5.40373, -173.944, 5.4035, 64.6152, 0.162835, 62.2531
1, 0.00000, 117.509, -33.1402, 118.348, -150.87, 123.296, 87.6891, 0, 0, 5.36116, -56.2141, 5.40373, -173.944, 5.4035, 64.6151, 0.162844, 62.2531
1, 60.00000, 117.509, -33.1402, 118.348, -150.87, 123.296, 87.689, 0, 0, 5.36116, -56.2141, 5.40373, -173.944, 5.40349, 64.6151, 0.162851, 62.2532
1, 120.00000, 117.509, -33.1403, 118.348, -150.87, 123.297, 87.689, 0, 0, 5.36116, -56.2142, 5.40373, -173.944, 5.40349, 64.6151, 0.162858, 62.2532
1, 180.00000, 117.509, -33.1403, 118.348, -150.87, 123.297, 87.689, 0, 0, 5.36116, -56.2142, 5.40373, -173.944, 5.40348, 64.6151, 0.162864, 62.2532
1, 240.00000, 117.509, -33.1403, 118.348, -150.87, 123.297, 87.689, 0, 0, 5.36116, -56.2142, 5.40373, -173.944, 5.40348, 64.615, 0.162869, 62.2533
1, 300.00000, 117.509, -33.1404, 118.348, -150.87, 123.297, 87.6889, 0, 0, 5.36116, -56.2143, 5.40373, -173.944, 5.40348, 64.615, 0.162874, 62.2533
1, 360.00000, 117.509, -33.1404, 118.348, -150.87, 123.297, 87.6889, 0, 0, 5.36116, -56.2143, 5.40373, -173.944, 5.40348, 64.615, 0.162878, 62.2533
1, 420.00000, 117.509, -33.1404, 118.348, -150.87, 123.297, 87.6889, 0, 0, 5.36116, -56.2143, 5.40373, -173.944, 5.40347, 64.615, 0.162882, 62.2533
1, 480.00000, 117.509, -33.1404, 118.348, -150.87, 123.297, 87.6889, 0, 0, 5.36116, -56.2144, 5.40373, -173.944, 5.40347, 64.615, 0.162886, 62.2534
1, 540.00000, 117.509, -33.1405, 118.348, -150.87, 123.297, 87.6889, 0, 0, 5.36116, -56.2144, 5.40373, -173.944, 5.40347, 64.615, 0.162889, 62.2534
1, 600.00000, 117.509, -33.1405, 118.348, -150.87, 123.297, 87.6889, 0, 0, 5.36116, -56.2144, 5.40373, -173.944, 5.40347, 64.615, 0.162892, 62.2534
1, 660.00000, 117.509, -33.1405, 118.348, -150.87, 123.297, 87.6889, 0, 0, 5.36116, -56.2144, 5.40373, -173.944, 5.40347, 64.615, 0.162895, 62.2534
1, 720.00000, 117.509, -33.1405, 118.348, -150.87, 123.297, 87.6889, 0, 0, 5.36116, -56.2144, 5.40373, -173.944, 5.40347, 64.6149, 0.162897, 62.2534
1, 780.00000, 117.509, -33.1405, 118.348, -150.87, 123.297, 87.6889, 0, 0, 5.36116, -56.2144, 5.40373, -173.944, 5.40346, 64.6149, 0.162899, 62.2534
1, 840.00000, 117.509, -33.1405, 118.348, -150.87, 123.297, 87.6889, 0, 0, 5.36116, -56.2144, 5.40373, -173.944, 5.40346, 64.6149, 0.162901, 62.2534
1, 900.00000, 117.509, -33.1405, 118.348, -150.87, 123.297, 87.6888, 0, 0, 5.36116, -56.2145, 5.40373, -173.944, 5.40346, 64.6149, 0.162903, 62.2534
1, 960.00000, 117.509, -33.1405, 118.348, -150.87, 123.297, 87.6888, 0, 0, 5.36116, -56.2145, 5.40373, -173.944, 5.40346, 64.6149, 0.162904, 62.2535
1, 1020.00000, 117.509, -33.1406, 118.348, -150.87, 123.297, 87.6888, 0, 0, 5.36116, -56.2145, 5.40373, -173.944, 5.40346, 64.6149, 0.162906, 62.2535
1, 1080.00000, 117.509, -33.1406, 118.348, -150.87, 123.297, 87.6888, 0, 0, 5.36116, -56.2145, 5.40373, -173.944, 5.40346, 64.6149, 0.162907, 62.2535
1, 1140.00000, 117.509, -33.1406, 118.348, -150.87, 123.297, 87.6888, 0, 0, 5.36116, -56.2145, 5.40373, -173.944, 5.40346, 64.6149, 0.162908, 62.2535
1, 1200.00000, 117.509, -33.1406, 118.348, -150.87, 123.297, 87.6888, 0, 0, 5.36116, -56.2145, 5.40373, -173.944, 5.40346, 64.6149, 0.162909, 62.2535
1, 1260.00000, 117.509, -33.1406, 118.348, -150.87, 123.297, 87.6888, 0, 0, 5.36116, -56.2145, 5.40373, -173.944, 5.40346, 64.6149, 0.16291, 62.2535
1, 1320.00000, 117.509, -33.1406, 118.348, -150.87, 123.297, 87.6888, 0, 0, 5.36116, -56.2145, 5.40373, -173.944, 5.40346, 64.6149, 0.162911, 62.2535
1, 1380.00000, 117.509, -33.1406, 118.348, -150.87, 123.297, 87.6888, 0, 0, 5.36116, -56.2145, 5.40373, -173.944, 5.40346, 64.6149, 0.162911, 62.2535
1, 1440.00000, 117.509, -33.1406, 118.348, -150.87, 123.297, 87.6888, 0, 0, 5.36116, -56.2145, 5.40373, -173.944, 5.40346, 64.6149, 0.162912, 62.2535
1, 1500.00000, 117.509, -33.1406, 118.348, -150.87, 123.297, 87.6888, 0, 0, 5.36116, -56.2145, 5.40373, -173.944, 5.40346, 64.6149, 0.162913, 62.2535
1, 1560.00000, 117.509, -33.1406, 118.348, -150.87, 123.297, 87.6888, 0, 0, 5.36116, -56.2145, 5.40373, -173.944, 5.40346, 64.6149, 0.162913, 62.2535
1, 1620.00000, 117.509, -33.1406, 118.348, -150.87, 123.297, 87.6888, 0, 0, 5.36116, -56.2145, 5.40373, -173.944, 5.40346, 64.6149, 0.162914, 62.2535
1, 1680.00000, 117.509, -33.1406, 118.348, -150.87, 123.297, 87.6888, 0, 0, 5.36116, -56.2145, 5.40373, -173.944, 5.40346, 64.6149, 0.162914, 62.2535
1, 1740.00000, 117.509, -33.1406, 118.348, -150.87, 123.297, 87.6888, 0, 0, 5.36116, -56.2145, 5.40373, -173.944, 5.40346, 64.6149, 0.162915, 62.2535
1, 1800.00000, 117.509, -33.1406, 118.348, -150.87, 123.297, 87.6888, 0, 0, 5.36116, -56.2145, 5.40373, -173.944, 5.40346, 64.6149, 0.162915, 62.2535
1, 1860.00000, 117.509, -33.1406, 118.348, -150.87, 123.297, 87.6888, 0, 0, 5.36116, -56.2145, 5.40373, -173.944, 5.40346, 64.6149, 0.162915, 62.2535
1, 1920.00000, 117.509, -33.1406, 118.348, -150.87, 123.297, 87.6888, 0, 0, 5.36116, -56.2145, 5.40373, -173.944, 5.40346, 64.6149, 0.162915, 62.2535
1, 1980.00000, 117.509, -33.1406, 118.348, -150.87, 123.297, 87.6888, 0, 0, 5.36116, -56.2145, 5.40373, -173.944, 5.40346, 64.6149, 0.162916, 62.2535
1, 2040.00000, 117.509, -33.1406, 118.348, -150.87, 123.297, 87.6888, 0, 0, 5.36116, -56.2145, 5.40373, -173.944, 5.40346, 64.6149, 0.162916, 62.2535
1, 2100.00000, 117.509, -33.1406, 118.348, -150.87, 123.297, 87.6888, 0, 0, 5.36116, -56.2145, 5.40373, -173.944, 5.40346, 64.6149, 0.162916, 62.2535
1, 2160.00000, 117.509, -33.1406, 118.348, -150.87, 123.297, 87.6888, 0, 0, 5.36116, -56.2145, 5.40373, -173.944, 5.40345, 64.6149, 0.162916, 62.2535
1, 2220.00000, 117.509, -33.1406, 118.348, -150.87, 123.297, 87.6888, 0, 0, 5.36116, -56.2145, 5.40373, -173.944, 5.40345, 64.6149, 0.162917, 62.2535
1, 2280.00000, 117.509, -33.1406, 118.348, -150.87, 123.297, 87.6888, 0, 0, 5.36116, -56.2145, 5.40373, -173.944, 5.40345, 64.6149, 0.162917, 62.2535
1, 2340.00000, 117.509, -33.1406, 118.348, -150.87, 123.297, 87.6888, 0, 0, 5.36116, -56.2145, 5.40373, -173.944, 5.40345, 64.6149, 0.162917, 62.2535
1, 2400.00000, 117.509, -33.1406, 118.348, -150.87, 123.297, 87.6888, 0, 0, 5.36116, -56.2145, 5.40373, -173.944, 5.40345, 64.6149, 0.162917, 62.2535
1, 2460.00000, 117.509, -33.1406, 118.348, -150.87, 123.297, 87.6888, 0, 0, 5.36116, -56.2145, 5.40373, -173.944, 5.40345, 64.6149, 0.162917, 62.2535
1, 2520.00000, 117.509, -33.1406, 118.348, -150.87, 123.297, 87.6888, 0, 0, 5.36116, -56.2145, 5.40373, -173.944, 5.40345, 64.6149, 0.162917, 62.2535
1, 2580.00000, 117.509, -33.1406, 118.348, -150.87, 123.297, 87.6888, 0, 0, 5.36116, -56.2145, 5.40373, -173.944, 5.40345, 64.6149, 0.162917, 62.2535
1, 2640.00000, 117.509, -33.1406, 118.348, -150.87, 123.297, 87.6888, 0, 0, 5.36116, -56.2145, 5.40373, -173.944, 5.40345, 64.6149, 0.162917, 62.2535
1, 2700.00000, 117.509, -33.1406, 118.348, -150.87, 123.297, 87.6888, 0, 0, 5.36116, -56.2145, 5.40373, -173.944, 5.40345, 64.6149, 0.162917, 62.2535
1, 2760.00000, 117.509, -33.1406, 118.348, -150.87, 123.297, 87.6888, 0, 0, 5.36116, -56.2146, 5.40373, -173.944, 5.40345, 64.6149, 0.162917, 62.2535
1, 2820.00000, 117.509, -33.1406, 118.348, -150.87, 123.297, 87.6888, 0, 0, 5.36116, -56.2146, 5.40373, -173.944, 5.40345, 64.6149, 0.162918, 62.2535
1, 2880.00000, 117.509, -33.1406, 118.348, -150.87, 123.297, 87.6888, 0, 0, 5.36116, -56.2146, 5.40373, -173.944, 5.40345, 64.6149, 0.162918, 62.2535
1, 2940.00000, 117.509, -33.1406, 118.348, -150.87, 123.297, 87.6888, 0, 0, 5.36116, -56.2146, 5.40373, -173.944, 5.40345, 64.6149, 0.162918, 62.2535
1, 3000.00000, 117.509, -33.1406, 118.348, -150.87, 123.297, 87.6888, 0, 0, 5.36116, -56.2146, 5.40373, -173.944, 5.40345, 64.6149, 0.162918, 62.2535
1, 3060.00000, 117.509, -33.1406, 118.348, -150.87, 123.297, 87.6888, 0, 0, 5.36116, -56.2146, 5.40373, -173.944, 5.40345, 64.6149, 0.162918, 62.2535
1, 3120.00000, 117.509, -33.1406, 118.348, -150.87, 123.297, 87.6888, 0, 0, 5.36116, -56.2146, 5.40373, -173.944, 5.40345, 64.6149, 0.162918, 62.2535
1, 3180.00000, 117.509, -33.1406, 118.348, -150.87, 123.297, 87.6888, 0, 0, 5.36116, -56.2146, 5.40373, -173.944, 5.40345, 64.6149, 0.162918, 62.2535
1, 3240.00000, 117.509, -33.1406, 118.348, -150.87, 123.297, 87.6888, 0, 0, 5.36116, -56.2146, 5.40373, -173.944, 5.40345, 64.6149, 0.162918, 62.2535
1, 3300.00000, 117.509, -33.1406, 118.348, -150.87, 123.297, 87.6888, 0, 0, 5.36116, -56.2146, 5.40373, -173.944, 5.40345, 64.6149, 0.162918, 62.2535
1, 3360.00000, 117.509, -33.1406, 118.348, -150.87, 123.297, 87.6888, 0, 0, 5.36116, -56.2146, 5.40373, -173.944, 5.40345, 64.6149, 0.162918, 62.2535
1, 3420.00000, 117.509, -33.1406, 118.348, -150.87, 123.297, 87.6888, 0, 0, 5.36116, -56.2146, 5.40373, -173.944, 5.40345, 64.6149, 0.162918, 62.2535
1, 3480.00000, 117.509, -33.1406, 118.348, -150.87, 123.297, 87.6888, 0, 0, 5.36116, -56.2146, 5.40373, -173.944, 5.40345, 64.6149, 0.162918, 62.2535
1, 3540.00000, 117.509, -33.1406, 118.348, -150.87, 123.297, 87.6888, 0, 0, 5.36116, -56.2146, 5.40373, -173.944, 5.40345, 64.6149, 0.162918, 62.2535
2, 0.00000, 117.509, -33.1406, 118.348, -150.87, 123.297, 87.6888, 0, 0, 5.36116, -56.2146, 5.40373, -173.944, 5.40345, 64.6149, 0.162918, 62.2535
2, 60.00000, 117.509, -33.1406, 118.348, -150.87, 123.297, 87.6888, 0, 0, 5.36116, -56.2146, 5.40373, -173.944, 5.40345, 64.6149, 0.162918, 62.2535
2, 120.00000, 117.509, -33.1406, 118.348, -150.87, 123.297, 87.6888, 0, 0, 5.36116, -56.2146, 5.40373, -173.944, 5.40345, 64.6149, 0.162918, 62.2535
2, 180.00000, 117.509, -33.1406, 118.348, -150.87, 123.297, 87.6888, 0, 0, 5.36116, -56.2146, 5.40373, -173.944, 5.40345, 64.6149, 0.162918, 62.2535
2, 240.00000, 117.509, -33.1406, 118.348, -150.87, 123.297, 87.6888, 0, 0, 5.36116, -56.2146, 5.40373, -173.944, 5.40345, 64.6149, 0.162918, 62.2535
2, 300.00000, 117.509, -33.1406, 118.348, -150.87, 123.297, 87.6888, 0, 0, 5.36116, -56.2146, 5.40373, -173.944, 5.40345, 64.6149, 0.162918, 62.2535
2, 360.00000, 117.509, -33.1406, 118.348, -150.87, 123.297, 87.6888, 0, 0, 5.36116, -56.2146, 5.40373, -173.944, 5.40345, 64.6149, 0.162918, 62.2535
2, 420.00000, 117.509, -33.1406, 118.348, -150.87, 123.297, 87.6888, 0, 0, 5.36116, -56.2146, 5.40373, -173.944, 5.40345, 64.6149, 0.162918, 62.2535
2, 480.00000, 117.509, -33.1406, 118.348, -150.87, 123.297, 87.6888, 0, 0, 5.36116, -56.2146, 5.40373, -173.944, 5.40345, 64.6149, 0.162918, 62.2535
2, 540.00000, 117.509, -33.1406, 118.348, -150.87, 123.297, 87.6888, 0, 0, 5.36116, -56.2146, 5.40373, -173.944, 5.40345, 64.6149, 0.162918, 62.2535
2, 600.00000, 117.509, -33.1406, 118.348, -150.87, 123.297, 87.6888, 0, 0, 5.36116, -56.2146, 5.40373, -173.944, 5.40345, 64.6149, 0.162918, 62.2535
2, 660.00000, 117.509, -33.1406, 118.348, -150.87, 123.297, 87.6888, 0, 0, 5.36116, -56.2146, 5.40373, -173.944, 5.40345, 64.6149, 0.162918, 62.2535
2, 720.00000, 117.509, -33.1406, 118.348, -150.87, 123.297, 87.6888, 0, 0, 5.36116, -56.2146, 5.40373, -173.944, 5.40345, 64.6149, 0.162918, 62.2535
2, 780.00000, 117.509, -33.1406, 118.348, -150.87, 123.297, 87.6888, 0, 0, 5.36116, -56.2146, 5.40373, -173.944, 5.40345, 64.6149, 0.162918, 62.2535
