hour,t(sec),V1,VAngle1,V2,VAngle2,V3,VAngle3,V4,VAngle4,I1,IAngle1,I2,IAngle2,I3,IAngle3,I4,IAngle4
0, 60.00000, 124.019, -32.2992, 123.533, -151.237, 126.177, 88.4551, 0, 0, 6.10271, -55.3729, 6.1267, -174.311, 5.99848, 65.3811, 0.218629, 53.5466
0, 120.00000, 124.025, -32.3054, 123.533, -151.237, 126.194, 88.4548, 0, 0, 6.1024, -55.3792, 6.12671, -174.311, 5.99763, 65.3808, 0.219997, 53.4627
0, 180.00000, 124.031, -32.3111, 123.533, -151.237, 126.21, 88.4546, 0, 0, 6.10212, -55.3848, 6.12672, -174.311, 5.99686, 65.3806, 0.221226, 53.3886
0, 240.00000, 124.036, -32.3161, 123.533, -151.237, 126.225, 88.4543, 0, 0, 6.10186, -55.3899, 6.12673, -174.311, 5.99617, 65.3804, 0.222333, 53.323
0, 300.00000, 124.041, -32.3207, 123.533, -151.237, 126.238, 88.4541, 0, 0, 6.10164, -55.3945, 6.12673, -174.311, 5.99555, 65.3801, 0.223329, 53.2647
0, 360.00000, 124.045, -32.3248, 123.533, -151.237, 126.249, 88.4539, 0, 0, 6.10143, -55.3986, 6.12674, -174.311, 5.99499, 65.38, 0.224227, 53.2128
0, 420.00000, 124.049, -32.3286, 123.533, -151.237, 126.26, 88.4537, 0, 0, 6.10125, -55.4024, 6.12675, -174.311, 5.99449, 65.3798, 0.225036, 53.1666
0, 480.00000, 124.551, -32.2116, 123.998, -151.111, 126.773, 88.5919, 0, 0, 5.28672, -55.2854, 5.3103, -174.185, 5.19412, 65.5179, 0.197111, 52.5835
0, 540.00000, 124.554, -32.2146, 123.997, -151.111, 126.781, 88.5917, 0, 0, 5.28658, -55.2884, 5.31031, -174.185, 5.19376, 65.5178, 0.197683, 52.5489
0, 600.00000, 124.557, -32.2174, 123.997, -151.111, 126.789, 88.5915, 0, 0, 5.28647, -55.2912, 5.31031, -174.185, 5.19345, 65.5176, 0.198196, 52.5181
0, 660.00000, 124.559, -32.2198, 123.997, -151.111, 126.795, 88.5914, 0, 0, 5.28636, -55.2937, 5.31031, -174.185, 5.19316, 65.5174, 0.198659, 52.4906
0, 720.00000, 124.561, -32.2221, 123.997, -151.111, 126.802, 88.5912, 0, 0, 5.28627, -55.2959, 5.31032, -174.185, 5.19291, 65.5173, 0.199075, 52.466
0, 780.00000, 124.563, -32.2241, 123.997, -151.111, 126.807, 88.5911, 0, 0, 5.28618, -55.2979, 5.31032, -174.185, 5.19268, 65.5172, 0.199449, 52.444
0, 840.00000, 124.565, -32.2259, 123.997, -151.111, 126.812, 88.591, 0, 0, 5.2861, -55.2997, 5.31032, -174.185, 5.19247, 65.5171, 0.199786, 52.4244
0, 900.00000, 124.567, -32.2275, 123.997, -151.111, 126.817, 88.5909, 0, 0, 5.28604, -55.3014, 5.31032, -174.185, 5.19228, 65.517, 0.20009, 52.4067
0, 960.00000, 124.568, -32.229, 123.997, -151.111, 126.821, 88.5908, 0, 0, 5.28597, -55.3028, 5.31032, -174.185, 5.19211, 65.5169, 0.200363, 52.3909
0, 1020.00000, 124.57, -32.2303, 123.997, -151.111, 126.824, 88.5907, 0, 0, 5.28592, -55.3042, 5.31033, -174.185, 5.19196, 65.5168, 0.200609, 52.3768
0, 1080.00000, 124.571, -32.2315, 123.997, -151.111, 126.828, 88.5906, 0, 0, 5.28587, -55.3053, 5.31033, -174.185, 5.19183, 65.5167, 0.20083, 52.3641
0, 1140.00000, 124.572, -32.2325, 123.997, -151.111, 126.831, 88.5906, 0, 0, 5.28582, -55.3064, 5.31033, -174.185, 5.1917, 65.5166, 0.201029, 52.3527
0, 1200.00000, 124.573, -32.2335, 123.997, -151.111, 126.833, 88.5905, 0, 0, 5.28578, -55.3074, 5.31033, -174.185, 5.19159, 65.5166, 0.201209, 52.3425
0, 1260.00000, 124.574, -32.2344, 123.997, -151.111, 126.836, 88.5904, 0, 0, 5.28574, -55.3083, 5.31033, -174.185, 5.1915, 65.5165, 0.20137, 52.3333
0, 1320.00000, 124.574, -32.2351, 123.997, -151.111, 126.838, 88.5904, 0, 0, 5.28571, -55.309, 5.31033, -174.185, 5.19141, 65.5165, 0.201516, 52.325
0, 1380.00000, 124.575, -32.2358, 123.997, -151.111, 126.84, 88.5903, 0, 0, 5.28568, -55.3097, 5.31033, -174.185, 5.19133, 65.5164, 0.201646, 52.3176
0, 1440.00000, 124.576, -32.2365, 123.997, -151.111, 126.841, 88.5903, 0, 0, 5.28566, -55.3104, 5.31033, -174.185, 5.19125, 65.5164, 0.201764, 52.311
0, 1500.00000, 124.576, -32.237, 123.997, -151.111, 126.843, 88.5903, 0, 0, 5.28563, -55.3109, 5.31033, -174.185, 5.19119, 65.5163, 0.20187, 52.305
0, 1560.00000, 124.577, -32.2376, 123.997, -151.111, 126.844, 88.5902, 0, 0, 5.28561, -55.3115, 5.31033, -174.185, 5.19113, 65.5163, 0.201965, 52.2996
0, 1620.00000, 124.577, -32.238, 123.997, -151.111, 126.846, 88.5902, 0, 0, 5.28559, -55.3119, 5.31033, -174.185, 5.19108, 65.5163, 0.202051, 52.2948
0, 1680.00000, 124.578, -32.2384, 123.997, -151.111, 126.847, 88.5902, 0, 0, 5.28557, -55.3123, 5.31034, -174.185, 5.19103, 65.5163, 0.202128, 52.2905
0, 1740.00000, 124.578, -32.2388, 123.997, -151.111, 126.848, 88.5901, 0, 0, 5.28556, -55.3127, 5.31034, -174.185, 5.19099, 65.5162, 0.202198, 52.2866
0, 1800.00000, 124.578, -32.2391, 123.997, -151.111, 126.849, 88.5901, 0, 0, 5.28554, -55.313, 5.31034, -174.185, 5.19095, 65.5162, 0.202261, 52.2831
0, 1860.00000, 124.579, -32.2394, 123.997, -151.111, 126.85, 88.5901, 0, 0, 5.28553, -55.3133, 5.31034, -174.185, 5.19091, 65.5162, 0.202317, 52.2799
0, 1920.00000, 124.579, -32.2397, 123.997, -151.111, 126.85, 88.5901, 0, 0, 5.28552, -55.3136, 5.31034, -174.185, 5.19088, 65.5162, 0.202368, 52.2771
0, 1980.00000, 124.579, -32.24, 123.997, -151.111, 126.851, 88.5901, 0, 0, 5.28551, -55.3139, 5.31034, -174.185, 5.19085, 65.5162, 0.202413, 52.2745
0, 2040.00000, 124.58, -32.2402, 123.997, -151.111, 126.852, 88.5901, 0, 0, 5.2855, -55.3141, 5.31034, -174.185, 5.19083, 65.5161, 0.202454, 52.2723
0, 2100.00000, 124.58, -32.2404, 123.997, -151.111, 126.852, 88.59, 0, 0, 5.28549, -55.3143, 5.31034, -174.185, 5.19081, 65.5161, 0.202491, 52.2702
0, 2160.00000, 124.58, -32.2406, 123.997, -151.111, 126.853, 88.59, 0, 0, 5.28548, -55.3145, 5.31034, -174.185, 5.19079, 65.5161, 0.202525, 52.2683
0, 2220.00000, 124.58, -32.2407, 123.997, -151.111, 126.853, 88.59, 0, 0, 5.28548, -55.3146, 5.31034, -174.185, 5.19077, 65.5161, 0.202555, 52.2667
0, 2280.00000, 124.58, -32.2409, 123.997, -151.111, 126.854, 88.59, 0, 0, 5.28547, -55.3148, 5.31034, -174.185, 5.19075, 65.5161, 0.202581, 52.2652
0, 2340.00000, 124.58, -32.241, 123.997, -151.111, 126.854, 88.59, 0, 0, 5.28547, -55.3149, 5.31034, -174.185, 5.19074, 65.5161, 0.202606, 52.2638
0, 2400.00000, 124.58, -32.2411, 123.997, -151.111, 126.854, 88.59, 0, 0, 5.28546, -55.315, 5.31034, -174.185, 5.19072, 65.5161, 0.202628, 52.2626
0, 2460.00000, 124.581, -32.2412, 123.997, -151.111, 126.855, 88.59, 0, 0, 5.28546, -55.3151, 5.31034, -174.185, 5.19071, 65.5161, 0.202647, 52.2615
0, 2520.00000, 124.581, -32.2413, 123.997, -151.111, 126.855, 88.59, 0, 0, 5.28545, -55.3152, 5.31034, -174.185, 5.1907, 65.5161, 0.202665, 52.2605
0, 2580.00000, 124.581, -32.2414, 123.997, -151.111, 126.855, 88.59, 0, 0, 5.28545, -55.3153, 5.31034, -174.185, 5.19069, 65.5161, 0.202681, 52.2596
0, 2640.00000, 124.581, -32.2415, 123.997, -151.111, 126.855, 88.59, 0, 0, 5.28545, -55.3154, 5.31034, -174.185, 5.19068, 65.5161, 0.202695, 52.2588
0, 2700.00000, 124.581, -32.2415, 123.997, -151.111, 126.855, 88.59, 0, 0, 5.28544, -55.3154, 5.31034, -174.185, 5.19067, 65.516, 0.202708, 52.2581
0, 2760.00000, 124.581, -32.2416, 123.997, -151.111, 126.856, 88.59, 0, 0, 5.28544, -55.3155, 5.31034, -174.185, 5.19067, 65.516, 0.20272, 52.2575
0, 2820.00000, 124.581, -32.2417, 123.997, -151.111, 126.856, 88.59, 0, 0, 5.28544, -55.3156, 5.31034, -174.185, 5.19066, 65.516, 0.20273, 52.2569
0, 2880.00000, 124.581, -32.2417, 123.997, -151.111, 126.856, 88.59, 0, 0, 5.28544, -55.3156, 5.31034, -174.185, 5.19065, 65.516, 0.202739, 52.2564
0, 2940.00000, 124.581, -32.2417, 123.997, -151.111, 126.856, 88.59, 0, 0, 5.28543, -55.3157, 5.31034, -174.185, 5.19065, 65.516, 0.202748, 52.2559
0, 3000.00000, 124.581, -32.2418, 123.997, -151.111, 126.856, 88.5899, 0, 0, 5.28543, -55.3157, 5.31034, -174.185, 5.19064, 65.516, 0.202756, 52.2555
0, 3060.00000, 124.581, -32.2418, 123.997, -151.111, 126.856, 88.5899, 0, 0, 5.28543, -55.3157, 5.31034, -174.185, 5.19064, 65.516, 0.202762, 52.2551
0, 3120.00000, 124.581, -32.2419, 123.997, -151.111, 126.856, 88.5899, 0, 0, 5.28543, -55.3158, 5.31034, -174.185, 5.19064, 65.516, 0.202769, 52.2548
0, 3180.00000, 124.581, -32.2419, 123.997, -151.111, 126.856, 88.5899, 0, 0, 5.28543, -55.3158, 5.31034, -174.185, 5.19063, 65.516, 0.202774, 52.2545
0, 3240.00000, 124.581, -32.2419, 123.997, -151.111, 126.856, 88.5899, 0, 0, 5.28543, -55.3158, 5.31034, -174.185, 5.19063, 65.516, 0.202779, 52.2542
0, 3300.00000, 124.581, -32.2419, 123.997, -151.111, 126.857, 88.5899, 0, 0, 5.28543, -55.3159, 5.31034, -174.185, 5.19063, 65.516, 0.202784, 52.2539
0, 3360.00000, 124.581, -32.242, 123.997, -151.111, 126.857, 88.5899, 0, 0, 5.28542, -55.3159, 5.31034, -174.185, 5.19062, 65.516, 0.202788, 52.2537
0, 3420.00000, 124.581, -32.242, 123.997, -151.111, 126.857, 88.5899, 0, 0, 5.28542, -55.3159, 5.31034, -174.185, 5.19062, 65.516, 0.202791, 52.2535
0, 3480.00000, 124.581, -32.242, 123.997, -151.111, 126.857, 88.5899, 0, 0, 5.28542, -55.3159, 5.31034, -174.185, 5.19062, 65.516, 0.202795, 52.2533
0, 3540.00000, 124.581, -32.242, 123.997, -151.111, 126.857, 88.5899, 0, 0, 5.28542, -55.3159, 5.31034, -174.185, 5.19062, 65.516, 0.202797, 52.2532
1, 0.00000, 124.581, -32.242, 123.997, -151.111, 126.857, 88.5899, 0, 0, 5.28542, -55.3159, 5.31034, -174.185, 5.19062, 65.516, 0.2028, 52.253
1, 60.00000, 125.159, -31.9864, 124.775, -151.216, 126.815, 88.5991, 0, 0, 5.26102, -55.0603, 5.27722, -174.29, 5.19233, 65.5252, 0.14175, 52.2314
1, 120.00000, 125.159, -31.9864, 124.775, -151.216, 126.815, 88.5991, 0, 0, 5.26102, -55.0603, 5.27722, -174.29, 5.19233, 65.5252, 0.141752, 52.2313
1, 180.00000, 125.159, -31.9864, 124.775, -151.216, 126.815, 88.5991, 0, 0, 5.26102, -55.0603, 5.27722, -174.29, 5.19233, 65.5252, 0.141754, 52.2312
1, 240.00000, 125.159, -31.9864, 124.775, -151.216, 126.815, 88.5991, 0, 0, 5.26102, -55.0603, 5.27722, -174.29, 5.19233, 65.5252, 0.141756, 52.231
1, 300.00000, 125.159, -31.9864, 124.775, -151.216, 126.815, 88.5991, 0, 0, 5.26102, -55.0603, 5.27722, -174.29, 5.19233, 65.5252, 0.141758, 52.2309
1, 360.00000, 125.159, -31.9864, 124.775, -151.216, 126.815, 88.5991, 0, 0, 5.26102, -55.0603, 5.27722, -174.29, 5.19233, 65.5252, 0.141759, 52.2308
1, 420.00000, 125.159, -31.9864, 124.775, -151.216, 126.815, 88.5991, 0, 0, 5.26102, -55.0603, 5.27722, -174.29, 5.19233, 65.5252, 0.14176, 52.2307
1, 480.00000, 125.159, -31.9864, 124.775, -151.216, 126.815, 88.5991, 0, 0, 5.26102, -55.0603, 5.27722, -174.29, 5.19233, 65.5252, 0.141761, 52.2306
1, 540.00000, 125.159, -31.9864, 124.775, -151.216, 126.815, 88.5991, 0, 0, 5.26102, -55.0603, 5.27722, -174.29, 5.19233, 65.5252, 0.141762, 52.2305
1, 600.00000, 125.159, -31.9864, 124.775, -151.216, 126.815, 88.5991, 0, 0, 5.26102, -55.0603, 5.27722, -174.29, 5.19232, 65.5252, 0.141763, 52.2304
1, 660.00000, 125.159, -31.9864, 124.775, -151.216, 126.815, 88.5991, 0, 0, 5.26102, -55.0603, 5.27722, -174.29, 5.19232, 65.5252, 0.141764, 52.2304
1, 720.00000, 125.159, -31.9864, 124.775, -151.216, 126.815, 88.5991, 0, 0, 5.26102, -55.0603, 5.27722, -174.29, 5.19232, 65.5252, 0.141765, 52.2303
1, 780.00000, 125.159, -31.9864, 124.775, -151.216, 126.815, 88.5991, 0, 0, 5.26102, -55.0604, 5.27722, -174.29, 5.19232, 65.5252, 0.141766, 52.2303
1, 840.00000, 125.159, -31.9864, 124.775, -151.216, 126.815, 88.5991, 0, 0, 5.26102, -55.0604, 5.27722, -174.29, 5.19232, 65.5251, 0.141766, 52.2302
1, 900.00000, 125.159, -31.9864, 124.775, -151.216, 126.815, 88.5991, 0, 0, 5.26102, -55.0604, 5.27722, -174.29, 5.19232, 65.5251, 0.141767, 52.2302
1, 960.00000, 125.159, -31.9864, 124.775, -151.216, 126.815, 88.5991, 0, 0, 5.26102, -55.0604, 5.27722, -174.29, 5.19232, 65.5251, 0.141767, 52.2301
1, 1020.00000, 125.159, -31.9864, 124.775, -151.216, 126.815, 88.5991, 0, 0, 5.26102, -55.0604, 5.27722, -174.29, 5.19232, 65.5251, 0.141768, 52.2301
1, 1080.00000, 125.159, -31.9864, 124.775, -151.216, 126.815, 88.5991, 0, 0, 5.26102, -55.0604, 5.27722, -174.29, 5.19232, 65.5251, 0.141768, 52.2301
1, 1140.00000, 125.159, -31.9865, 124.775, -151.216, 126.815, 88.5991, 0, 0, 5.26102, -55.0604, 5.27722, -174.29, 5.19232, 65.5251, 0.141768, 52.23
1, 1200.00000, 125.159, -31.9865, 124.775, -151.216, 126.815, 88.5991, 0, 0, 5.26102, -55.0604, 5.27722, -174.29, 5.19232, 65.5251, 0.141769, 52.23
1, 1260.00000, 125.159, -31.9865, 124.775, -151.216, 126.815, 88.5991, 0, 0, 5.26102, -55.0604, 5.27722, -174.29, 5.19232, 65.5251, 0.141769, 52.23
1, 1320.00000, 125.159, -31.9865, 124.775, -151.216, 126.815, 88.5991, 0, 0, 5.26102, -55.0604, 5.27722, -174.29, 5.19232, 65.5251, 0.141769, 52.23
1, 1380.00000, 125.159, -31.9865, 124.775, -151.216, 126.815, 88.5991, 0, 0, 5.26102, -55.0604, 5.27722, -174.29, 5.19232, 65.5251, 0.14177, 52.2299
1, 1440.00000, 125.159, -31.9865, 124.775, -151.216, 126.815, 88.5991, 0, 0, 5.26102, -55.0604, 5.27722, -174.29, 5.19232, 65.5251, 0.14177, 52.2299
1, 1500.00000, 125.159, -31.9865, 124.775, -151.216, 126.815, 88.5991, 0, 0, 5.26102, -55.0604, 5.27722, -174.29, 5.19232, 65.5251, 0.14177, 52.2299
1, 1560.00000, 125.159, -31.9865, 124.775, -151.216, 126.815, 88.5991, 0, 0, 5.26102, -55.0604, 5.27722, -174.29, 5.19232, 65.5251, 0.14177, 52.2299
1, 1620.00000, 125.159, -31.9865, 124.775, -151.216, 126.815, 88.5991, 0, 0, 5.26102, -55.0604, 5.27722, -174.29, 5.19232, 65.5251, 0.14177, 52.2299
1, 1680.00000, 125.159, -31.9865, 124.775, -151.216, 126.815, 88.5991, 0, 0, 5.26102, -55.0604, 5.27722, -174.29, 5.19232, 65.5251, 0.14177, 52.2299
1, 1740.00000, 125.159, -31.9865, 124.775, -151.216, 126.815, 88.5991, 0, 0, 5.26102, -55.0604, 5.27722, -174.29, 5.19232, 65.5251, 0.141771, 52.2299
1, 1800.00000, 125.159, -31.9865, 124.775, -151.216, 126.815, 88.5991, 0, 0, 5.26102, -55.0604, 5.27722, -174.29, 5.19232, 65.5251, 0.141771, 52.2299
1, 1860.00000, 125.159, -31.9865, 124.775, -151.216, 126.815, 88.5991, 0, 0, 5.26102, -55.0604, 5.27722, -174.29, 5.19232, 65.5251, 0.141771, 52.2299
1, 1920.00000, 125.159, -31.9865, 124.775, -151.216, 126.815, 88.5991, 0, 0, 5.26102, -55.0604, 5.27722, -174.29, 5.19232, 65.5251, 0.141771, 52.2299
1, 1980.00000, 125.159, -31.9865, 124.775, -151.216, 126.815, 88.5991, 0, 0, 5.26102, -55.0604, 5.27722, -174.29, 5.19232, 65.5251, 0.141771, 52.2298
1, 2040.00000, 125.159, -31.9865, 124.775, -151.216, 126.815, 88.5991, 0, 0, 5.26102, -55.0604, 5.27722, -174.29, 5.19232, 65.5251, 0.141771, 52.2298
1, 2100.00000, 125.159, -31.9865, 124.775, -151.216, 126.815, 88.5991, 0, 0, 5.26102, -55.0604, 5.27722, -174.29, 5.19232, 65.5251, 0.141771, 52.2298
1, 2160.00000, 125.159, -31.9865, 124.775, -151.216, 126.815, 88.5991, 0, 0, 5.26102, -55.0604, 5.27722, -174.29, 5.19232, 65.5251, 0.141771, 52.2298
1, 2220.00000, 125.159, -31.9865, 124.775, -151.216, 126.815, 88.5991, 0, 0, 5.26102, -55.0604, 5.27722, -174.29, 5.19232, 65.5251, 0.141771, 52.2298
1, 2280.00000, 125.159, -31.9865, 124.775, -151.216, 126.815, 88.5991, 0, 0, 5.26102, -55.0604, 5.27722, -174.29, 5.19232, 65.5251, 0.141771, 52.2298
1, 2340.00000, 125.159, -31.9865, 124.775, -151.216, 126.815, 88.5991, 0, 0, 5.26102, -55.0604, 5.27722, -174.29, 5.19232, 65.5251, 0.141771, 52.2298
1, 2400.00000, 125.159, -31.9865, 124.775, -151.216, 126.815, 88.5991, 0, 0, 5.26102, -55.0604, 5.27722, -174.29, 5.19232, 65.5251, 0.141771, 52.2298
1, 2460.00000, 125.159, -31.9865, 124.775, -151.216, 126.815, 88.5991, 0, 0, 5.26102, -55.0604, 5.27722, -174.29, 5.19232, 65.5251, 0.141771, 52.2298
1, 2520.00000, 125.159, -31.9865, 124.775, -151.216, 126.815, 88.5991, 0, 0, 5.26102, -55.0604, 5.27722, -174.29, 5.19232, 65.5251, 0.141771, 52.2298
1, 2580.00000, 125.159, -31.9865, 124.775, -151.216, 126.815, 88.5991, 0, 0, 5.26102, -55.0604, 5.27722, -174.29, 5.19232, 65.5251, 0.141771, 52.2298
1, 2640.00000, 125.159, -31.9865, 124.775, -151.216, 126.815, 88.5991, 0, 0, 5.26102, -55.0604, 5.27722, -174.29, 5.19232, 65.5251, 0.141771, 52.2298
1, 2700.00000, 125.159, -31.9865, 124.775, -151.216, 126.815, 88.5991, 0, 0, 5.26102, -55.0604, 5.27722, -174.29, 5.19232, 65.5251, 0.141771, 52.2298
1, 2760.00000, 125.159, -31.9865, 124.775, -151.216, 126.815, 88.5991, 0, 0, 5.26102, -55.0604, 5.27722, -174.29, 5.19232, 65.5251, 0.141771, 52.2298
1, 2820.00000, 125.159, -31.9865, 124.775, -151.216, 126.815, 88.5991, 0, 0, 5.26101, -55.0604, 5.27722, -174.29, 5.19232, 65.5251, 0.141771, 52.2298
1, 2880.00000, 125.159, -31.9865, 124.775, -151.216, 126.815, 88.5991, 0, 0, 5.26101, -55.0604, 5.27722, -174.29, 5.19232, 65.5251, 0.141772, 52.2298
1, 2940.00000, 125.159, -31.9865, 124.775, -151.216, 126.815, 88.5991, 0, 0, 5.26101, -55.0604, 5.27722, -174.29, 5.19232, 65.5251, 0.141772, 52.2298
1, 3000.00000, 125.159, -31.9865, 124.775, -151.216, 126.815, 88.5991, 0, 0, 5.26101, -55.0604, 5.27722, -174.29, 5.19232, 65.5251, 0.141772, 52.2298
1, 3060.00000, 125.159, -31.9865, 124.775, -151.216, 126.815, 88.5991, 0, 0, 5.26101, -55.0604, 5.27722, -174.29, 5.19232, 65.5251, 0.141772, 52.2298
1, 3120.00000, 125.159, -31.9865, 124.775, -151.216, 126.815, 88.5991, 0, 0, 5.26101, -55.0604, 5.27722, -174.29, 5.19232, 65.5251, 0.141772, 52.2298
1, 3180.00000, 125.159, -31.9865, 124.775, -151.216, 126.815, 88.5991, 0, 0, 5.26101, -55.0604, 5.27722, -174.29, 5.19232, 65.5251, 0.141772, 52.2298
1, 3240.00000, 125.159, -31.9865, 124.775, -151.216, 126.815, 88.5991, 0, 0, 5.26101, -55.0604, 5.27722, -174.29, 5.19232, 65.5251, 0.141772, 52.2298
1, 3300.00000, 125.159, -31.9865, 124.775, -151.216, 126.815, 88.5991, 0, 0, 5.26101, -55.0604, 5.27722, -174.29, 5.19232, 65.5251, 0.141772, 52.2298
1, 3360.00000, 125.159, -31.9865, 124.775, -151.216, 126.815, 88.5991, 0, 0, 5.26101, -55.0604, 5.27722, -174.29, 5.19232, 65.5251, 0.141772, 52.2298
1, 3420.00000, 125.159, -31.9865, 124.775, -151.216, 126.815, 88.5991, 0, 0, 5.26101, -55.0604, 5.27722, -174.29, 5.19232, 65.5251, 0.141772, 52.2298
1, 3480.00000, 125.159, -31.9865, 124.775, -151.216, 126.815, 88.5991, 0, 0, 5.26101, -55.0604, 5.27722, -174.29, 5.19232, 65.5251, 0.141772, 52.2298
1, 3540.00000, 125.159, -31.9865, 124.775, -151.216, 126.815, 88.5991, 0, 0, 5.26101, -55.0604, 5.27722, -174.29, 5.19232, 65.5251, 0.141772, 52.2298
2, 0.00000, 125.159, -31.9865, 124.775, -151.216, 126.815, 88.5991, 0, 0, 5.26101, -55.0604, 5.27722, -174.29, 5.19232, 65.5251, 0.141772, 52.2298
2, 60.00000, 125.159, -31.9865, 124.775, -151.216, 126.815, 88.5991, 0, 0, 5.26101, -55.0604, 5.27722, -174.29, 5.19232, 65.5251, 0.141772, 52.2298
2, 120.00000, 125.159, -31.9865, 124.775, -151.216, 126.815, 88.5991, 0, 0, 5.26101, -55.0604, 5.27722, -174.29, 5.19232, 65.5251, 0.141772, 52.2298
2, 180.00000, 125.159, -31.9865, 124.775, -151.216, 126.815, 88.5991, 0, 0, 5.26101, -55.0604, 5.27722, -174.29, 5.19232, 65.5251, 0.141772, 52.2298
2, 240.00000, 125.159, -31.9865, 124.775, -151.216, 126.815, 88.5991, 0, 0, 5.26101, -55.0604, 5.27722, -174.29, 5.19232, 65.5251, 0.141772, 52.2298
2, 300.00000, 125.159, -31.9865, 124.775, -151.216, 126.815, 88.5991, 0, 0, 5.26101, -55.0604, 5.27722, -174.29, 5.19232, 65.5251, 0.141772, 52.2298
2, 360.00000, 125.159, -31.9865, 124.775, -151.216, 126.815, 88.5991, 0, 0, 5.26101, -55.0604, 5.27722, -174.29, 5.19232, 65.5251, 0.141772, 52.2298
2, 420.00000, 125.159, -31.9865, 124.775, -151.216, 126.815, 88.5991, 0, 0, 5.26101, -55.0604, 5.27722, -174.29, 5.19232, 65.5251, 0.141772, 52.2298
2, 480.00000, 125.159, -31.9865, 124.775, -151.216, 126.815, 88.5991, 0, 0, 5.26101, -55.0604, 5.27722, -174.29, 5.19232, 65.5251, 0.141772, 52.2298
2, 540.00000, 125.159, -31.9865, 124.775, -151.216, 126.815, 88.5991, 0, 0, 5.26101, -55.0604, 5.27722, -174.29, 5.19232, 65.5251, 0.141772, 52.2298
2, 600.00000, 125.159, -31.9865, 124.775, -151.216, 126.815, 88.5991, 0, 0, 5.26101, -55.0604, 5.27722, -174.29, 5.19232, 65.5251, 0.141772, 52.2298
2, 660.00000, 125.159, -31.9865, 124.775, -151.216, 126.815, 88.5991, 0, 0, 5.26101, -55.0604, 5.27722, -174.29, 5.19232, 65.5251, 0.141772, 52.2298
2, 720.00000, 125.159, -31.9865, 124.775, -151.216, 126.815, 88.5991, 0, 0, 5.26101, -55.0604, 5.27722, -174.29, 5.19232, 65.5251, 0.141772, 52.2298
2, 780.00000, 125.159, -31.9865, 124.775, -151.216, 126.815, 88.5991, 0, 0, 5.26101, -55.0604, 5.27722, -174.29, 5.19232, 65.5251, 0.141772, 52.2298
