hour,t(sec),"P1 (kW)","Q1 (kvar)","P2 (kW)","Q2 (kvar)","P3 (kW)","Q3 (kvar)","P4 (kW)","Q4 (kvar)"
0, 60.00000, 0.807334, 0.343917, 0.8011, 0.341262, 0.829219, 0.353221, 0, 0
0, 120.00000, 0.807251, 0.343883, 0.801087, 0.341257, 0.829216, 0.353222, 0, 0
0, 180.00000, 0.807176, 0.343851, 0.801075, 0.341252, 0.829214, 0.353223, 0, 0
0, 240.00000, 0.807108, 0.343822, 0.801064, 0.341248, 0.829213, 0.353224, 0, 0
0, 300.00000, 0.807046, 0.343796, 0.801055, 0.341244, 0.829211, 0.353225, 0, 0
0, 360.00000, 0.806989, 0.343773, 0.801046, 0.341241, 0.829211, 0.353227, 0, 0
0, 420.00000, 0.806938, 0.343751, 0.801038, 0.341237, 0.82921, 0.353228, 0, 0
0, 480.00000, 0.712406, 0.303481, 0.70649, 0.300959, 0.721418, 0.307312, 0, 0
0, 540.00000, 0.712367, 0.303465, 0.706483, 0.300957, 0.721417, 0.307313, 0, 0
0, 600.00000, 0.712331, 0.30345, 0.706477, 0.300955, 0.721416, 0.307313, 0, 0
0, 660.00000, 0.712299, 0.303437, 0.706472, 0.300953, 0.721415, 0.307314, 0, 0
0, 720.00000, 0.712271, 0.303425, 0.706468, 0.300951, 0.721413, 0.307314, 0, 0
0, 780.00000, 0.712245, 0.303414, 0.706463, 0.30095, 0.721412, 0.307314, 0, 0
0, 840.00000, 0.712221, 0.303404, 0.706459, 0.300948, 0.721412, 0.307314, 0, 0
0, 900.00000, 0.7122, 0.303395, 0.706456, 0.300947, 0.721411, 0.307314, 0, 0
0, 960.00000, 0.70151, 0.298841, 0.691883, 0.294739, 0.72141, 0.307315, 0, 0
0, 1020.00000, 0.701493, 0.298834, 0.691881, 0.294738, 0.721409, 0.307315, 0, 0
0, 1080.00000, 0.701477, 0.298828, 0.691879, 0.294738, 0.721409, 0.307315, 0, 0
0, 1140.00000, 0.702646, 0.299325, 0.695585, 0.296317, 0.721408, 0.307315, 0, 0
0, 1200.00000, 0.702633, 0.29932, 0.695583, 0.296316, 0.721408, 0.307315, 0, 0
0, 1260.00000, 0.702622, 0.299315, 0.695582, 0.296316, 0.721407, 0.307315, 0, 0
0, 1320.00000, 0.702612, 0.299311, 0.695581, 0.296315, 0.721407, 0.307315, 0, 0
0, 1380.00000, 0.702602, 0.299307, 0.69558, 0.296315, 0.721406, 0.307316, 0, 0
0, 1440.00000, 0.702594, 0.299304, 0.695579, 0.296315, 0.721406, 0.307316, 0, 0
0, 1500.00000, 0.702587, 0.2993, 0.695578, 0.296314, 0.721406, 0.307316, 0, 0
0, 1560.00000, 0.70258, 0.299298, 0.695577, 0.296314, 0.721406, 0.307316, 0, 0
0, 1620.00000, 0.702574, 0.299295, 0.695576, 0.296314, 0.721405, 0.307316, 0, 0
0, 1680.00000, 0.702568, 0.299293, 0.695576, 0.296313, 0.721405, 0.307316, 0, 0
0, 1740.00000, 0.702564, 0.299291, 0.695575, 0.296313, 0.721405, 0.307316, 0, 0
0, 1800.00000, 0.684418, 0.291561, 0.696015, 0.296501, 0.721404, 0.307316, 0, 0
0, 1860.00000, 0.684414, 0.291559, 0.696015, 0.296501, 0.721404, 0.307316, 0, 0
0, 1920.00000, 0.684411, 0.291558, 0.696014, 0.296501, 0.721404, 0.307316, 0, 0
0, 1980.00000, 0.684408, 0.291557, 0.696014, 0.2965, 0.721404, 0.307316, 0, 0
0, 2040.00000, 0.684406, 0.291556, 0.696014, 0.2965, 0.721404, 0.307316, 0, 0
0, 2100.00000, 0.684403, 0.291555, 0.696013, 0.2965, 0.721404, 0.307316, 0, 0
0, 2160.00000, 0.684401, 0.291554, 0.696013, 0.2965, 0.721404, 0.307316, 0, 0
0, 2220.00000, 0.684399, 0.291553, 0.696013, 0.2965, 0.721404, 0.307316, 0, 0
0, 2280.00000, 0.684397, 0.291552, 0.696012, 0.2965, 0.721404, 0.307316, 0, 0
0, 2340.00000, 0.684396, 0.291551, 0.696012, 0.2965, 0.721404, 0.307316, 0, 0
0, 2400.00000, 0.684395, 0.291551, 0.696012, 0.2965, 0.721404, 0.307316, 0, 0
0, 2460.00000, 0.684393, 0.29155, 0.696012, 0.2965, 0.721404, 0.307316, 0, 0
0, 2520.00000, 0.684392, 0.29155, 0.696012, 0.2965, 0.721404, 0.307316, 0, 0
0, 2580.00000, 0.684391, 0.291549, 0.696012, 0.2965, 0.721404, 0.307316, 0, 0
0, 2640.00000, 0.68439, 0.291549, 0.696012, 0.2965, 0.721403, 0.307316, 0, 0
0, 2700.00000, 0.684389, 0.291549, 0.696011, 0.2965, 0.721403, 0.307316, 0, 0
0, 2760.00000, 0.688544, 0.293319, 0.695978, 0.296485, 0.721404, 0.307317, 0, 0
0, 2820.00000, 0.688543, 0.293318, 0.695977, 0.296485, 0.721403, 0.307316, 0, 0
0, 2880.00000, 0.688543, 0.293318, 0.695977, 0.296485, 0.721403, 0.307316, 0, 0
0, 2940.00000, 0.688542, 0.293318, 0.695977, 0.296485, 0.721403, 0.307316, 0, 0
0, 3000.00000, 0.688542, 0.293318, 0.695977, 0.296485, 0.721403, 0.307316, 0, 0
0, 3060.00000, 0.688541, 0.293317, 0.695977, 0.296485, 0.721403, 0.307316, 0, 0
0, 3120.00000, 0.688541, 0.293317, 0.695977, 0.296485, 0.721403, 0.307316, 0, 0
0, 3180.00000, 0.688541, 0.293317, 0.695977, 0.296485, 0.721403, 0.307316, 0, 0
0, 3240.00000, 0.68854, 0.293317, 0.695977, 0.296485, 0.721403, 0.307316, 0, 0
0, 3300.00000, 0.68854, 0.293317, 0.695977, 0.296485, 0.721403, 0.307316, 0, 0
0, 3360.00000, 0.68854, 0.293317, 0.695977, 0.296485, 0.721403, 0.307316, 0, 0
0, 3420.00000, 0.68854, 0.293317, 0.695977, 0.296485, 0.721403, 0.307316, 0, 0
0, 3480.00000, 0.688539, 0.293317, 0.695977, 0.296485, 0.721403, 0.307316, 0, 0
0, 3540.00000, 0.688539, 0.293316, 0.695977, 0.296485, 0.721403, 0.307316, 0, 0
1, 0.00000, 0.688539, 0.293316, 0.695977, 0.296485, 0.721403, 0.307316, 0, 0
1, 60.00000, 0.689668, 0.293797, 0.699597, 0.298027, 0.721403, 0.307316, 0, 0
1, 120.00000, 0.689668, 0.293797, 0.699597, 0.298027, 0.721403, 0.307316, 0, 0
1, 180.00000, 0.689668, 0.293797, 0.699597, 0.298027, 0.721403, 0.307316, 0, 0
1, 240.00000, 0.689668, 0.293797, 0.699597, 0.298027, 0.721403, 0.307316, 0, 0
1, 300.00000, 0.689668, 0.293797, 0.699597, 0.298027, 0.721403, 0.307316, 0, 0
1, 360.00000, 0.689668, 0.293797, 0.699597, 0.298027, 0.721403, 0.307316, 0, 0
1, 420.00000, 0.689668, 0.293797, 0.699597, 0.298027, 0.721403, 0.307316, 0, 0
1, 480.00000, 0.689667, 0.293797, 0.699597, 0.298027, 0.721403, 0.307316, 0, 0
1, 540.00000, 0.689667, 0.293797, 0.699597, 0.298027, 0.721403, 0.307316, 0, 0
1, 600.00000, 0.689667, 0.293797, 0.699597, 0.298027, 0.721403, 0.307316, 0, 0
1, 660.00000, 0.689667, 0.293797, 0.699597, 0.298027, 0.721403, 0.307316, 0, 0
1, 720.00000, 0.689667, 0.293797, 0.699597, 0.298027, 0.721403, 0.307316, 0, 0
1, 780.00000, 0.689892, 0.293893, 0.703742, 0.299793, 0.721404, 0.307317, 0, 0
1, 840.00000, 0.689892, 0.293893, 0.703742, 0.299793, 0.721403, 0.307316, 0, 0
1, 900.00000, 0.689892, 0.293893, 0.703742, 0.299793, 0.721403, 0.307316, 0, 0
1, 960.00000, 0.689892, 0.293893, 0.703742, 0.299793, 0.721403, 0.307316, 0, 0
1, 1020.00000, 0.689892, 0.293893, 0.703742, 0.299793, 0.721403, 0.307316, 0, 0
1, 1080.00000, 0.689892, 0.293893, 0.703742, 0.299793, 0.721403, 0.307316, 0, 0
1, 1140.00000, 0.689892, 0.293893, 0.703742, 0.299793, 0.721403, 0.307316, 0, 0
1, 1200.00000, 0.689892, 0.293893, 0.703742, 0.299793, 0.721403, 0.307316, 0, 0
1, 1260.00000, 0.689892, 0.293893, 0.703742, 0.299793, 0.721403, 0.307316, 0, 0
1, 1320.00000, 0.689892, 0.293893, 0.703742, 0.299793, 0.721403, 0.307316, 0, 0
1, 1380.00000, 0.689892, 0.293893, 0.703742, 0.299793, 0.721403, 0.307316, 0, 0
1, 1440.00000, 0.689892, 0.293893, 0.703742, 0.299793, 0.721403, 0.307316, 0, 0
1, 1500.00000, 0.689892, 0.293893, 0.703742, 0.299793, 0.721403, 0.307316, 0, 0
1, 1560.00000, 0.689892, 0.293893, 0.703742, 0.299793, 0.721403, 0.307316, 0, 0
1, 1620.00000, 0.689892, 0.293893, 0.703742, 0.299793, 0.721403, 0.307316, 0, 0
1, 1680.00000, 0.689892, 0.293893, 0.703742, 0.299793, 0.721403, 0.307316, 0, 0
1, 1740.00000, 0.689892, 0.293893, 0.703742, 0.299793, 0.721403, 0.307316, 0, 0
1, 1800.00000, 0.689892, 0.293893, 0.703742, 0.299793, 0.721403, 0.307316, 0, 0
1, 1860.00000, 0.689892, 0.293893, 0.703742, 0.299793, 0.721403, 0.307316, 0, 0
1, 1920.00000, 0.689892, 0.293893, 0.703742, 0.299793, 0.721403, 0.307316, 0, 0
1, 1980.00000, 0.689892, 0.293893, 0.703742, 0.299793, 0.721403, 0.307316, 0, 0
1, 2040.00000, 0.689892, 0.293893, 0.703742, 0.299793, 0.721403, 0.307316, 0, 0
1, 2100.00000, 0.689892, 0.293893, 0.703742, 0.299793, 0.721403, 0.307316, 0, 0
1, 2160.00000, 0.689892, 0.293893, 0.703742, 0.299793, 0.721403, 0.307316, 0, 0
1, 2220.00000, 0.707991, 0.301603, 0.703249, 0.299582, 0.721404, 0.307317, 0, 0
1, 2280.00000, 0.707991, 0.301603, 0.703248, 0.299583, 0.721403, 0.307316, 0, 0
1, 2340.00000, 0.707991, 0.301603, 0.703248, 0.299583, 0.721403, 0.307316, 0, 0
1, 2400.00000, 0.707991, 0.301603, 0.703248, 0.299583, 0.721403, 0.307316, 0, 0
1, 2460.00000, 0.707991, 0.301603, 0.703248, 0.299583, 0.721403, 0.307316, 0, 0
1, 2520.00000, 0.707991, 0.301603, 0.703248, 0.299583, 0.721403, 0.307316, 0, 0
1, 2580.00000, 0.707991, 0.301603, 0.703248, 0.299583, 0.721403, 0.307316, 0, 0
1, 2640.00000, 0.707991, 0.301603, 0.703248, 0.299583, 0.721403, 0.307316, 0, 0
1, 2700.00000, 0.707991, 0.301603, 0.703248, 0.299583, 0.721403, 0.307316, 0, 0
1, 2760.00000, 0.707991, 0.301603, 0.703248, 0.299583, 0.721403, 0.307316, 0, 0
1, 2820.00000, 0.707991, 0.301603, 0.703248, 0.299583, 0.721403, 0.307316, 0, 0
1, 2880.00000, 0.707991, 0.301603, 0.703248, 0.299583, 0.721403, 0.307316, 0, 0
1, 2940.00000, 0.707991, 0.301603, 0.703248, 0.299583, 0.721403, 0.307316, 0, 0
1, 3000.00000, 0.707991, 0.301603, 0.703248, 0.299583, 0.721403, 0.307316, 0, 0
1, 3060.00000, 0.707991, 0.301603, 0.703248, 0.299583, 0.721403, 0.307316, 0, 0
1, 3120.00000, 0.707991, 0.301603, 0.703248, 0.299583, 0.721403, 0.307316, 0, 0
1, 3180.00000, 0.707991, 0.301603, 0.703248, 0.299583, 0.721403, 0.307316, 0, 0
1, 3240.00000, 0.707991, 0.301603, 0.703248, 0.299583, 0.721403, 0.307316, 0, 0
1, 3300.00000, 0.707991, 0.301603, 0.703248, 0.299583, 0.721403, 0.307316, 0, 0
1, 3360.00000, 0.707991, 0.301603, 0.703248, 0.299583, 0.721403, 0.307316, 0, 0
1, 3420.00000, 0.707991, 0.301603, 0.703248, 0.299583, 0.721403, 0.307316, 0, 0
1, 3480.00000, 0.707991, 0.301603, 0.703248, 0.299583, 0.721403, 0.307316, 0, 0
1, 3540.00000, 0.707991, 0.301603, 0.703248, 0.299583, 0.721403, 0.307316, 0, 0
2, 0.00000, 0.707991, 0.301603, 0.703248, 0.299583, 0.721403, 0.307316, 0, 0
2, 60.00000, 0.707991, 0.301603, 0.703248, 0.299583, 0.721403, 0.307316, 0, 0
2, 120.00000, 0.707991, 0.301603, 0.703248, 0.299583, 0.721403, 0.307316, 0, 0
2, 180.00000, 0.707991, 0.301603, 0.703248, 0.299583, 0.721403, 0.307316, 0, 0
2, 240.00000, 0.707991, 0.301603, 0.703248, 0.299583, 0.721403, 0.307316, 0, 0
2, 300.00000, 0.707991, 0.301603, 0.703248, 0.299583, 0.721403, 0.307316, 0, 0
2, 360.00000, 0.707991, 0.301603, 0.703248, 0.299583, 0.721403, 0.307316, 0, 0
2, 420.00000, 0.707991, 0.301603, 0.703248, 0.299583, 0.721403, 0.307316, 0, 0
2, 480.00000, 0.707991, 0.301603, 0.703248, 0.299583, 0.721403, 0.307316, 0, 0
2, 540.00000, 0.707991, 0.301603, 0.703248, 0.299583, 0.721403, 0.307316, 0, 0
2, 600.00000, 0.707991, 0.301603, 0.703248, 0.299583, 0.721403, 0.307316, 0, 0
2, 660.00000, 0.707991, 0.301603, 0.703248, 0.299583, 0.721403, 0.307316, 0, 0
2, 720.00000, 0.707991, 0.301603, 0.703248, 0.299583, 0.721403, 0.307316, 0, 0
2, 780.00000, 0.707991, 0.301603, 0.703248, 0.299583, 0.721403, 0.307316, 0, 0
2, 840.00000, 0.717584, 0.30569, 0.714231, 0.304261, 0.721403, 0.307317, 0, 0
2, 900.00000, 0.717584, 0.305689, 0.714231, 0.304261, 0.721403, 0.307316, 0, 0
2, 960.00000, 0.717584, 0.305689, 0.714231, 0.304261, 0.721403, 0.307316, 0, 0
2, 1020.00000, 0.717584, 0.305689, 0.714231, 0.304261, 0.721403, 0.307316, 0, 0
2, 1080.00000, 0.717584, 0.305689, 0.714231, 0.304261, 0.721403, 0.307316, 0, 0
2, 1140.00000, 0.717584, 0.305689, 0.714231, 0.304261, 0.721403, 0.307316, 0, 0
2, 1200.00000, 0.717584, 0.305689, 0.714231, 0.304261, 0.721403, 0.307316, 0, 0
2, 1260.00000, 0.717584, 0.305689, 0.714231, 0.304261, 0.721403, 0.307316, 0, 0
2, 1320.00000, 0.717584, 0.305689, 0.714231, 0.304261, 0.721403, 0.307316, 0, 0
2, 1380.00000, 0.717584, 0.305689, 0.714231, 0.304261, 0.721403, 0.307316, 0, 0
2, 1440.00000, 0.717584, 0.305689, 0.714231, 0.304261, 0.721403, 0.307316, 0, 0
2, 1500.00000, 0.717584, 0.305689, 0.714231, 0.304261, 0.721403, 0.307316, 0, 0
2, 1560.00000, 0.717584, 0.305689, 0.714231, 0.304261, 0.721403, 0.307316, 0, 0
2, 1620.00000, 0.717584, 0.305689, 0.714231, 0.304261, 0.721403, 0.307316, 0, 0
2, 1680.00000, 0.717584, 0.305689, 0.714231, 0.304261, 0.721403, 0.307316, 0, 0
2, 1740.00000, 0.717584, 0.305689, 0.714231, 0.304261, 0.721403, 0.307316, 0, 0
2, 1800.00000, 0.717584, 0.305689, 0.714231, 0.304261, 0.721403, 0.307316, 0, 0
2, 1860.00000, 0.717584, 0.305689, 0.714231, 0.304261, 0.721403, 0.307316, 0, 0
2, 1920.00000, 0.717584, 0.305689, 0.714231, 0.304261, 0.721403, 0.307316, 0, 0
2, 1980.00000, 0.717584, 0.305689, 0.714231, 0.304261, 0.721403, 0.307316, 0, 0
2, 2040.00000, 0.717584, 0.305689, 0.714231, 0.304261, 0.721403, 0.307316, 0, 0
2, 2100.00000, 0.717584, 0.305689, 0.714231, 0.304261, 0.721403, 0.307316, 0, 0
2, 2160.00000, 0.717584, 0.305689, 0.714231, 0.304261, 0.721403, 0.307316, 0, 0
2, 2220.00000, 0.717584, 0.305689, 0.714231, 0.304261, 0.721403, 0.307316, 0, 0
2, 2280.00000, 0.717584, 0.305689, 0.714231, 0.304261, 0.721403, 0.307316, 0, 0
2, 2340.00000, 0.717584, 0.305689, 0.714231, 0.304261, 0.721403, 0.307316, 0, 0
2, 2400.00000, 0.717677, 0.305729, 0.718653, 0.306145, 0.721404, 0.307317, 0, 0
2, 2460.00000, 0.717677, 0.305729, 0.718653, 0.306145, 0.721403, 0.307316, 0, 0
2, 2520.00000, 0.717677, 0.305729, 0.718653, 0.306145, 0.721403, 0.307316, 0, 0
2, 2580.00000, 0.717677, 0.305729, 0.718653, 0.306145, 0.721403, 0.307316, 0, 0
2, 2640.00000, 0.717677, 0.305729, 0.718653, 0.306145, 0.721403, 0.307316, 0, 0
2, 2700.00000, 0.706749, 0.301074, 0.706439, 0.300942, 0.721403, 0.307316, 0, 0
2, 2760.00000, 0.70675, 0.301074, 0.70644, 0.300942, 0.721403, 0.307316, 0, 0
2, 2820.00000, 0.70675, 0.301074, 0.70644, 0.300942, 0.721403, 0.307316, 0, 0
2, 2880.00000, 0.70675, 0.301074, 0.70644, 0.300942, 0.721403, 0.307316, 0, 0
2, 2940.00000, 0.70675, 0.301074, 0.70644, 0.300942, 0.721403, 0.307316, 0, 0
2, 3000.00000, 0.70675, 0.301074, 0.70644, 0.300942, 0.721403, 0.307316, 0, 0
2, 3060.00000, 0.710703, 0.302758, 0.706386, 0.300919, 0.721404, 0.307317, 0, 0
2, 3120.00000, 0.710703, 0.302758, 0.706386, 0.300919, 0.721403, 0.307316, 0, 0
2, 3180.00000, 0.710703, 0.302758, 0.706386, 0.300919, 0.721403, 0.307316, 0, 0
2, 3240.00000, 0.710703, 0.302758, 0.706386, 0.300919, 0.721403, 0.307316, 0, 0
2, 3300.00000, 0.710703, 0.302758, 0.706386, 0.300919, 0.721403, 0.307316, 0, 0
2, 3360.00000, 0.710703, 0.302758, 0.706386, 0.300919, 0.721403, 0.307316, 0, 0
2, 3420.00000, 0.710703, 0.302758, 0.706386, 0.300919, 0.721403, 0.307316, 0, 0
2, 3480.00000, 0.710703, 0.302758, 0.706386, 0.300919, 0.721403, 0.307316, 0, 0
2, 3540.00000, 0.710703, 0.302758, 0.706386, 0.300919, 0.721403, 0.307316, 0, 0
3, 0.00000, 0.710703, 0.302758, 0.706386, 0.300919, 0.721403, 0.307316, 0, 0
3, 60.00000, 0.710703, 0.302758, 0.706386, 0.300919, 0.721403, 0.307316, 0, 0
3, 120.00000, 0.710703, 0.302758, 0.706386, 0.300919, 0.721403, 0.307316, 0, 0
3, 180.00000, 0.710703, 0.302758, 0.706386, 0.300919, 0.721403, 0.307316, 0, 0
3, 240.00000, 0.710703, 0.302758, 0.706386, 0.300919, 0.721403, 0.307316, 0, 0
3, 300.00000, 0.710703, 0.302758, 0.706386, 0.300919, 0.721403, 0.307316, 0, 0
3, 360.00000, 0.710703, 0.302758, 0.706386, 0.300919, 0.721403, 0.307316, 0, 0
3, 420.00000, 0.710703, 0.302758, 0.706386, 0.300919, 0.721403, 0.307316, 0, 0
3, 480.00000, 0.710703, 0.302758, 0.706386, 0.300919, 0.721403, 0.307316, 0, 0
3, 540.00000, 0.710703, 0.302758, 0.706386, 0.300919, 0.721403, 0.307316, 0, 0
3, 600.00000, 0.710703, 0.302758, 0.706386, 0.300919, 0.721403, 0.307316, 0, 0
3, 660.00000, 0.710703, 0.302758, 0.706386, 0.300919, 0.721403, 0.307316, 0, 0
3, 720.00000, 0.710703, 0.302758, 0.706386, 0.300919, 0.721403, 0.307316, 0, 0
3, 780.00000, 0.710703, 0.302758, 0.706386, 0.300919, 0.721403, 0.307316, 0, 0
3, 840.00000, 0.710703, 0.302758, 0.706386, 0.300919, 0.721403, 0.307316, 0, 0
3, 900.00000, 0.710703, 0.302758, 0.706386, 0.300919, 0.721403, 0.307316, 0, 0
3, 960.00000, 0.710703, 0.302758, 0.706386, 0.300919, 0.721403, 0.307316, 0, 0
3, 1020.00000, 0.710703, 0.302758, 0.706386, 0.300919, 0.721403, 0.307316, 0, 0
3, 1080.00000, 0.710703, 0.302758, 0.706386, 0.300919, 0.721403, 0.307316, 0, 0
3, 1140.00000, 0.710703, 0.302758, 0.706386, 0.300919, 0.721403, 0.307316, 0, 0
3, 1200.00000, 0.710703, 0.302758, 0.706386, 0.300919, 0.721403, 0.307316, 0, 0
3, 1260.00000, 0.710703, 0.302758, 0.706386, 0.300919, 0.721403, 0.307316, 0, 0
3, 1320.00000, 0.710703, 0.302758, 0.706386, 0.300919, 0.721403, 0.307316, 0, 0
3, 1380.00000, 0.710703, 0.302758, 0.706386, 0.300919, 0.721403, 0.307316, 0, 0
3, 1440.00000, 0.710703, 0.302758, 0.706386, 0.300919, 0.721403, 0.307316, 0, 0
3, 1500.00000, 0.710703, 0.302758, 0.706386, 0.300919, 0.721403, 0.307316, 0, 0
3, 1560.00000, 0.710703, 0.302758, 0.706386, 0.300919, 0.721403, 0.307316, 0, 0
3, 1620.00000, 0.710703, 0.302758, 0.706386, 0.300919, 0.721403, 0.307316, 0, 0
3, 1680.00000, 0.710703, 0.302758, 0.706386, 0.300919, 0.721403, 0.307316, 0, 0
3, 1740.00000, 0.710703, 0.302758, 0.706386, 0.300919, 0.721403, 0.307316, 0, 0
3, 1800.00000, 0.710703, 0.302758, 0.706386, 0.300919, 0.721403, 0.307316, 0, 0
3, 1860.00000, 0.710703, 0.302758, 0.706386, 0.300919, 0.721403, 0.307316, 0, 0
3, 1920.00000, 0.710703, 0.302758, 0.706386, 0.300919, 0.721403, 0.307316, 0, 0
3, 1980.00000, 0.710703, 0.302758, 0.706386, 0.300919, 0.721403, 0.307316, 0, 0
3, 2040.00000, 0.710703, 0.302758, 0.706386, 0.300919, 0.721403, 0.307316, 0, 0
3, 2100.00000, 0.710703, 0.302758, 0.706386, 0.300919, 0.721403, 0.307316, 0, 0
3, 2160.00000, 0.710703, 0.302758, 0.706386, 0.300919, 0.721403, 0.307316, 0, 0
3, 2220.00000, 0.710703, 0.302758, 0.706386, 0.300919, 0.721403, 0.307316, 0, 0
3, 2280.00000, 0.710703, 0.302758, 0.706386, 0.300919, 0.721403, 0.307316, 0, 0
3, 2340.00000, 0.710703, 0.302758, 0.706386, 0.300919, 0.721403, 0.307316, 0, 0
3, 2400.00000, 0.710703, 0.302758, 0.706386, 0.300919, 0.721403, 0.307316, 0, 0
3, 2460.00000, 0.710703, 0.302758, 0.706386, 0.300919, 0.721403, 0.307316, 0, 0
3, 2520.00000, 0.710703, 0.302758, 0.706386, 0.300919, 0.721403, 0.307316, 0, 0
3, 2580.00000, 0.710703, 0.302758, 0.706386, 0.300919, 0.721403, 0.307316, 0, 0
3, 2640.00000, 0.710703, 0.302758, 0.706386, 0.300919, 0.721403, 0.307316, 0, 0
3, 2700.00000, 0.710703, 0.302758, 0.706386, 0.300919, 0.721403, 0.307316, 0, 0
3, 2760.00000, 0.710703, 0.302758, 0.706386, 0.300919, 0.721403, 0.307316, 0, 0
3, 2820.00000, 0.710703, 0.302758, 0.706386, 0.300919, 0.721403, 0.307316, 0, 0
3, 2880.00000, 0.710703, 0.302758, 0.706386, 0.300919, 0.721403, 0.307316, 0, 0
3, 2940.00000, 0.710703, 0.302758, 0.706386, 0.300919, 0.721403, 0.307316, 0, 0
3, 3000.00000, 0.710703, 0.302758, 0.706386, 0.300919, 0.721403, 0.307316, 0, 0
3, 3060.00000, 0.710703, 0.302758, 0.706386, 0.300919, 0.721403, 0.307316, 0, 0
3, 3120.00000, 0.710703, 0.302758, 0.706386, 0.300919, 0.721403, 0.307316, 0, 0
3, 3180.00000, 0.749597, 0.319327, 0.745181, 0.317446, 0.763151, 0.325101, 0, 0
3, 3240.00000, 0.749597, 0.319327, 0.745182, 0.317446, 0.763151, 0.325101, 0, 0
3, 3300.00000, 0.749597, 0.319327, 0.745182, 0.317446, 0.763151, 0.325101, 0, 0
3, 3360.00000, 0.749597, 0.319327, 0.745182, 0.317446, 0.763151, 0.325101, 0, 0
3, 3420.00000, 0.749597, 0.319327, 0.745182, 0.317446, 0.763151, 0.325101, 0, 0
3, 3480.00000, 0.749597, 0.319327, 0.745182, 0.317446, 0.763151, 0.325101, 0, 0
3, 3540.00000, 0.749597, 0.319327, 0.745182, 0.317446, 0.763151, 0.325101, 0, 0
4, 0.00000, 0.743043, 0.316535, 0.745326, 0.317508, 0.763151, 0.325101, 0, 0
4, 60.00000, 0.743043, 0.316535, 0.745326, 0.317508, 0.763151, 0.325101, 0, 0
4, 120.00000, 0.743043, 0.316535, 0.745326, 0.317508, 0.763151, 0.325101, 0, 0
4, 180.00000, 0.743043, 0.316535, 0.745326, 0.317508, 0.763151, 0.325101, 0, 0
4, 240.00000, 0.743043, 0.316535, 0.745326, 0.317508, 0.763151, 0.325101, 0, 0
4, 300.00000, 0.743043, 0.316535, 0.745326, 0.317508, 0.763151, 0.325101, 0, 0
4, 360.00000, 0.743043, 0.316535, 0.745326, 0.317508, 0.763151, 0.325101, 0, 0
4, 420.00000, 0.743043, 0.316535, 0.745326, 0.317508, 0.763151, 0.325101, 0, 0
4, 480.00000, 0.743043, 0.316535, 0.745326, 0.317508, 0.763151, 0.325101, 0, 0
4, 540.00000, 0.743043, 0.316535, 0.745326, 0.317508, 0.763151, 0.325101, 0, 0
4, 600.00000, 0.743043, 0.316535, 0.745326, 0.317508, 0.763151, 0.325101, 0, 0
