hour,t(sec),V1,VAngle1,V2,VAngle2,V3,VAngle3,V4,VAngle4,I1,IAngle1,I2,IAngle2,I3,IAngle3,I4,IAngle4
0, 60.00000, 116.287, -31.0632, 117.248, -151.335, 116.828, 88.4883, 0, 0, 6.38786, -54.1369, 6.44656, -174.409, 6.42091, 65.4147, 0.0339747, -86.3423
0, 120.00000, 116.287, -31.0632, 117.248, -151.335, 116.828, 88.4883, 0, 0, 6.38782, -54.1371, 6.44653, -174.409, 6.42085, 65.4144, 0.0339352, -86.3492
0, 180.00000, 116.287, -31.0632, 117.248, -151.335, 116.828, 88.4883, 0, 0, 6.38782, -54.1371, 6.44653, -174.409, 6.42085, 65.4144, 0.033935, -86.3492
0, 240.00000, 116.287, -31.0632, 117.248, -151.335, 116.828, 88.4883, 0, 0, 6.38782, -54.1371, 6.44653, -174.409, 6.42085, 65.4144, 0.033935, -86.3492
0, 300.00000, 116.287, -31.0632, 117.248, -151.335, 116.828, 88.4883, 0, 0, 6.38782, -54.1371, 6.44653, -174.409, 6.42085, 65.4144, 0.033935, -86.3492
0, 360.00000, 116.287, -31.0632, 117.248, -151.335, 116.828, 88.4883, 0, 0, 6.38782, -54.1371, 6.44653, -174.409, 6.42085, 65.4144, 0.033935, -86.3492
0, 420.00000, 116.287, -31.0632, 117.248, -151.335, 116.828, 88.4883, 0, 0, 6.38782, -54.1371, 6.44653, -174.409, 6.42085, 65.4144, 0.033935, -86.3492
0, 480.00000, 117.249, -30.9715, 118.19, -151.246, 117.733, 88.5977, 0, 0, 5.82485, -54.0455, 5.87678, -174.321, 5.85155, 65.5233, 0.0291843, -83.155
0, 540.00000, 117.249, -30.9715, 118.19, -151.246, 117.733, 88.5977, 0, 0, 5.82488, -54.0454, 5.87684, -174.32, 5.8516, 65.5238, 0.0292059, -83.0442
0, 600.00000, 117.249, -30.9715, 118.19, -151.246, 117.733, 88.5977, 0, 0, 5.82488, -54.0454, 5.87684, -174.32, 5.8516, 65.5238, 0.029206, -83.0439
0, 660.00000, 117.249, -30.9715, 118.19, -151.246, 117.733, 88.5977, 0, 0, 5.82488, -54.0454, 5.87684, -174.32, 5.8516, 65.5238, 0.029206, -83.0439
0, 720.00000, 117.249, -30.9715, 118.19, -151.246, 117.733, 88.5977, 0, 0, 5.82488, -54.0454, 5.87684, -174.32, 5.8516, 65.5238, 0.029206, -83.0439
0, 780.00000, 117.249, -30.9715, 118.19, -151.246, 117.733, 88.5977, 0, 0, 5.82488, -54.0454, 5.87684, -174.32, 5.8516, 65.5238, 0.029206, -83.0439
0, 840.00000, 117.249, -30.9715, 118.19, -151.246, 117.733, 88.5977, 0, 0, 5.82488, -54.0454, 5.87684, -174.32, 5.8516, 65.5238, 0.029206, -83.0439
0, 900.00000, 117.249, -30.9715, 118.19, -151.246, 117.733, 88.5977, 0, 0, 5.82488, -54.0454, 5.87684, -174.32, 5.8516, 65.5238, 0.029206, -83.0439
0, 960.00000, 115.788, -30.622, 118.183, -151.24, 116.416, 88.1419, 0, 0, 5.74421, -53.696, 5.87648, -174.314, 5.7789, 65.0683, 0.0308718, -69.9777
0, 1020.00000, 115.788, -30.622, 118.183, -151.24, 116.416, 88.1419, 0, 0, 5.74416, -53.6959, 5.87648, -174.314, 5.77885, 65.068, 0.0308691, -69.9217
0, 1080.00000, 115.788, -30.622, 118.183, -151.24, 116.416, 88.1419, 0, 0, 5.74416, -53.6959, 5.87648, -174.314, 5.77885, 65.068, 0.0308691, -69.9215
0, 1140.00000, 115.788, -30.622, 118.183, -151.24, 116.416, 88.1419, 0, 0, 5.74416, -53.6959, 5.87648, -174.314, 5.77885, 65.068, 0.0308691, -69.9215
0, 1200.00000, 115.788, -30.622, 118.183, -151.24, 116.416, 88.1419, 0, 0, 5.74416, -53.6959, 5.87648, -174.314, 5.77885, 65.068, 0.0308691, -69.9215
0, 1260.00000, 115.788, -30.622, 118.183, -151.24, 116.416, 88.1419, 0, 0, 5.74416, -53.6959, 5.87648, -174.314, 5.77885, 65.068, 0.0308691, -69.9215
0, 1320.00000, 115.788, -30.622, 118.183, -151.24, 116.416, 88.1419, 0, 0, 5.74416, -53.6959, 5.87648, -174.314, 5.77885, 65.068, 0.0308691, -69.9215
0, 1380.00000, 115.788, -30.622, 118.183, -151.24, 116.416, 88.1419, 0, 0, 5.74416, -53.6959, 5.87648, -174.314, 5.77885, 65.068, 0.0308691, -69.9215
0, 1440.00000, 115.788, -30.622, 118.183, -151.24, 116.416, 88.1419, 0, 0, 5.74416, -53.6959, 5.87648, -174.314, 5.77885, 65.068, 0.0308691, -69.9215
0, 1500.00000, 115.788, -30.622, 118.183, -151.24, 116.416, 88.1419, 0, 0, 5.74416, -53.6959, 5.87648, -174.314, 5.77885, 65.068, 0.0308691, -69.9215
0, 1560.00000, 115.788, -30.622, 118.183, -151.24, 116.416, 88.1419, 0, 0, 5.74416, -53.6959, 5.87648, -174.314, 5.77885, 65.068, 0.0308691, -69.9215
0, 1620.00000, 115.788, -30.622, 118.183, -151.24, 116.416, 88.1419, 0, 0, 5.74416, -53.6959, 5.87648, -174.314, 5.77885, 65.068, 0.0308691, -69.9215
0, 1680.00000, 115.788, -30.622, 118.183, -151.24, 116.416, 88.1419, 0, 0, 5.74416, -53.6959, 5.87648, -174.314, 5.77885, 65.068, 0.0308691, -69.9215
0, 1740.00000, 115.788, -30.622, 118.183, -151.24, 116.416, 88.1419, 0, 0, 5.74416, -53.6959, 5.87648, -174.314, 5.77885, 65.068, 0.0308691, -69.9215
0, 1800.00000, 114.877, -30.4595, 118.191, -151.234, 115.674, 87.8311, 0, 0, 5.69393, -53.5335, 5.87694, -174.307, 5.73796, 64.7576, 0.0326892, -59.0561
0, 1860.00000, 114.877, -30.4595, 118.191, -151.234, 115.674, 87.8311, 0, 0, 5.69386, -53.5335, 5.87694, -174.307, 5.73791, 64.7572, 0.0326975, -59.0121
0, 1920.00000, 114.877, -30.4595, 118.191, -151.234, 115.674, 87.8311, 0, 0, 5.69386, -53.5335, 5.87694, -174.307, 5.73791, 64.7572, 0.0326975, -59.012
0, 1980.00000, 114.877, -30.4595, 118.191, -151.234, 115.674, 87.8311, 0, 0, 5.69386, -53.5335, 5.87694, -174.307, 5.73791, 64.7572, 0.0326975, -59.012
0, 2040.00000, 114.877, -30.4595, 118.191, -151.234, 115.674, 87.8311, 0, 0, 5.69386, -53.5335, 5.87694, -174.307, 5.73791, 64.7572, 0.0326975, -59.012
0, 2100.00000, 114.877, -30.4595, 118.191, -151.234, 115.674, 87.8311, 0, 0, 5.69386, -53.5335, 5.87694, -174.307, 5.73791, 64.7572, 0.0326975, -59.012
0, 2160.00000, 114.877, -30.4595, 118.191, -151.234, 115.674, 87.8311, 0, 0, 5.69386, -53.5335, 5.87694, -174.307, 5.73791, 64.7572, 0.0326975, -59.012
0, 2220.00000, 114.877, -30.4595, 118.191, -151.234, 115.674, 87.8311, 0, 0, 5.69386, -53.5335, 5.87694, -174.307, 5.73791, 64.7572, 0.0326975, -59.012
0, 2280.00000, 114.877, -30.4595, 118.191, -151.234, 115.674, 87.8311, 0, 0, 5.69386, -53.5335, 5.87694, -174.307, 5.73791, 64.7572, 0.0326975, -59.012
0, 2340.00000, 114.877, -30.4595, 118.191, -151.234, 115.674, 87.8311, 0, 0, 5.69386, -53.5335, 5.87694, -174.307, 5.73791, 64.7572, 0.0326975, -59.012
0, 2400.00000, 114.877, -30.4595, 118.191, -151.234, 115.674, 87.8311, 0, 0, 5.69386, -53.5335, 5.87694, -174.307, 5.73791, 64.7572, 0.0326975, -59.012
0, 2460.00000, 114.877, -30.4595, 118.191, -151.234, 115.674, 87.8311, 0, 0, 5.69386, -53.5335, 5.87694, -174.307, 5.73791, 64.7572, 0.0326975, -59.012
0, 2520.00000, 114.877, -30.4595, 118.191, -151.234, 115.674, 87.8311, 0, 0, 5.69386, -53.5335, 5.87694, -174.307, 5.73791, 64.7572, 0.0326975, -59.012
0, 2580.00000, 114.877, -30.4595, 118.191, -151.234, 115.674, 87.8311, 0, 0, 5.69386, -53.5335, 5.87694, -174.307, 5.73791, 64.7572, 0.0326975, -59.012
0, 2640.00000, 114.877, -30.4595, 118.191, -151.234, 115.674, 87.8311, 0, 0, 5.69386, -53.5335, 5.87694, -174.307, 5.73791, 64.7572, 0.0326975, -59.012
0, 2700.00000, 114.877, -30.4595, 118.191, -151.234, 115.674, 87.8311, 0, 0, 5.69386, -53.5335, 5.87694, -174.307, 5.73791, 64.7572, 0.0326975, -59.012
0, 2760.00000, 115.228, -30.4446, 118.191, -151.235, 115.829, 87.9883, 0, 0, 5.71323, -53.5188, 5.87692, -174.309, 5.7464, 64.9141, 0.0315362, -62.1011
0, 2820.00000, 115.228, -30.4446, 118.191, -151.235, 115.829, 87.9883, 0, 0, 5.71326, -53.5185, 5.87691, -174.309, 5.74644, 64.9144, 0.0315584, -62.1996
0, 2880.00000, 115.228, -30.4446, 118.191, -151.235, 115.829, 87.9883, 0, 0, 5.71326, -53.5185, 5.87691, -174.309, 5.74644, 64.9144, 0.0315585, -62.2001
0, 2940.00000, 115.228, -30.4446, 118.191, -151.235, 115.829, 87.9883, 0, 0, 5.71326, -53.5185, 5.87691, -174.309, 5.74644, 64.9144, 0.0315585, -62.2001
0, 3000.00000, 115.228, -30.4446, 118.191, -151.235, 115.829, 87.9883, 0, 0, 5.71326, -53.5185, 5.87691, -174.309, 5.74644, 64.9144, 0.0315585, -62.2001
0, 3060.00000, 115.228, -30.4446, 118.191, -151.235, 115.829, 87.9883, 0, 0, 5.71326, -53.5185, 5.87691, -174.309, 5.74644, 64.9144, 0.0315585, -62.2001
0, 3120.00000, 115.228, -30.4446, 118.191, -151.235, 115.829, 87.9883, 0, 0, 5.71326, -53.5185, 5.87691, -174.309, 5.74644, 64.9144, 0.0315585, -62.2001
0, 3180.00000, 115.228, -30.4446, 118.191, -151.235, 115.829, 87.9883, 0, 0, 5.71326, -53.5185, 5.87691, -174.309, 5.74644, 64.9144, 0.0315585, -62.2001
0, 3240.00000, 115.228, -30.4446, 118.191, -151.235, 115.829, 87.9883, 0, 0, 5.71326, -53.5185, 5.87691, -174.309, 5.74644, 64.9144, 0.0315585, -62.2001
0, 3300.00000, 115.228, -30.4446, 118.191, -151.235, 115.829, 87.9883, 0, 0, 5.71326, -53.5185, 5.87691, -174.309, 5.74644, 64.9144, 0.0315585, -62.2001
0, 3360.00000, 115.228, -30.4446, 118.191, -151.235, 115.829, 87.9883, 0, 0, 5.71326, -53.5185, 5.87691, -174.309, 5.74644, 64.9144, 0.0315585, -62.2001
0, 3420.00000, 115.228, -30.4446, 118.191, -151.235, 115.829, 87.9883, 0, 0, 5.71326, -53.5185, 5.87691, -174.309, 5.74644, 64.9144, 0.0315585, -62.2001
0, 3480.00000, 115.228, -30.4446, 118.191, -151.235, 115.829, 87.9883, 0, 0, 5.71326, -53.5185, 5.87691, -174.309, 5.74644, 64.9144, 0.0315585, -62.2001
0, 3540.00000, 115.228, -30.4446, 118.191, -151.235, 115.829, 87.9883, 0, 0, 5.71326, -53.5185, 5.87691, -174.309, 5.74644, 64.9144, 0.0315585, -62.2001
1, 0.00000, 115.228, -30.4446, 118.191, -151.235, 115.829, 87.9883, 0, 0, 5.71326, -53.5185, 5.87691, -174.309, 5.74644, 64.9144, 0.0315585, -62.2001
1, 60.00000, 115.525, -30.4201, 118.192, -151.237, 115.936, 88.126, 0, 0, 5.72965, -53.4942, 5.87695, -174.31, 5.75233, 65.0519, 0.0304403, -64.5153
1, 120.00000, 115.525, -30.4201, 118.192, -151.237, 115.936, 88.126, 0, 0, 5.72968, -53.494, 5.87695, -174.31, 5.75235, 65.0521, 0.0304463, -64.588
1, 180.00000, 115.525, -30.4201, 118.192, -151.237, 115.936, 88.126, 0, 0, 5.72968, -53.494, 5.87695, -174.31, 5.75235, 65.0521, 0.0304464, -64.5883
1, 240.00000, 115.525, -30.4201, 118.192, -151.237, 115.936, 88.126, 0, 0, 5.72968, -53.494, 5.87695, -174.31, 5.75235, 65.0521, 0.0304464, -64.5883
1, 300.00000, 115.525, -30.4201, 118.192, -151.237, 115.936, 88.126, 0, 0, 5.72968, -53.494, 5.87695, -174.31, 5.75235, 65.0521, 0.0304464, -64.5883
1, 360.00000, 115.525, -30.4201, 118.192, -151.237, 115.936, 88.126, 0, 0, 5.72968, -53.494, 5.87695, -174.31, 5.75235, 65.0521, 0.0304464, -64.5883
1, 420.00000, 115.525, -30.4201, 118.192, -151.237, 115.936, 88.126, 0, 0, 5.72968, -53.494, 5.87695, -174.31, 5.75235, 65.0521, 0.0304464, -64.5883
1, 480.00000, 115.525, -30.4201, 118.192, -151.237, 115.936, 88.126, 0, 0, 5.72968, -53.494, 5.87695, -174.31, 5.75235, 65.0521, 0.0304464, -64.5883
1, 540.00000, 115.525, -30.4201, 118.192, -151.237, 115.936, 88.126, 0, 0, 5.72968, -53.494, 5.87695, -174.31, 5.75235, 65.0521, 0.0304464, -64.5883
1, 600.00000, 115.525, -30.4201, 118.192, -151.237, 115.936, 88.126, 0, 0, 5.72968, -53.494, 5.87695, -174.31, 5.75235, 65.0521, 0.0304464, -64.5883
1, 660.00000, 115.525, -30.4201, 118.192, -151.237, 115.936, 88.126, 0, 0, 5.72968, -53.494, 5.87695, -174.31, 5.75235, 65.0521, 0.0304464, -64.5883
1, 720.00000, 115.525, -30.4201, 118.192, -151.237, 115.936, 88.126, 0, 0, 5.72968, -53.494, 5.87695, -174.31, 5.75235, 65.0521, 0.0304464, -64.5883
1, 780.00000, 116.033, -30.446, 118.195, -151.238, 116.223, 88.3305, 0, 0, 5.75768, -53.52, 5.87716, -174.312, 5.76818, 65.2565, 0.0286301, -68.0045
1, 840.00000, 116.033, -30.446, 118.195, -151.238, 116.223, 88.3305, 0, 0, 5.75772, -53.5199, 5.87715, -174.312, 5.7682, 65.2566, 0.0286117, -68.0749
1, 900.00000, 116.033, -30.446, 118.195, -151.238, 116.223, 88.3305, 0, 0, 5.75772, -53.5199, 5.87715, -174.312, 5.7682, 65.2566, 0.0286116, -68.0753
1, 960.00000, 116.033, -30.446, 118.195, -151.238, 116.223, 88.3305, 0, 0, 5.75772, -53.5199, 5.87715, -174.312, 5.7682, 65.2566, 0.0286116, -68.0753
1, 1020.00000, 116.033, -30.446, 118.195, -151.238, 116.223, 88.3305, 0, 0, 5.75772, -53.5199, 5.87715, -174.312, 5.7682, 65.2566, 0.0286116, -68.0753
1, 1080.00000, 116.033, -30.446, 118.195, -151.238, 116.223, 88.3305, 0, 0, 5.75772, -53.5199, 5.87715, -174.312, 5.7682, 65.2566, 0.0286116, -68.0753
1, 1140.00000, 116.033, -30.446, 118.195, -151.238, 116.223, 88.3305, 0, 0, 5.75772, -53.5199, 5.87715, -174.312, 5.7682, 65.2566, 0.0286116, -68.0753
1, 1200.00000, 116.033, -30.446, 118.195, -151.238, 116.223, 88.3305, 0, 0, 5.75772, -53.5199, 5.87715, -174.312, 5.7682, 65.2566, 0.0286116, -68.0753
1, 1260.00000, 116.033, -30.446, 118.195, -151.238, 116.223, 88.3305, 0, 0, 5.75772, -53.5199, 5.87715, -174.312, 5.7682, 65.2566, 0.0286116, -68.0753
1, 1320.00000, 116.033, -30.446, 118.195, -151.238, 116.223, 88.3305, 0, 0, 5.75772, -53.5199, 5.87715, -174.312, 5.7682, 65.2566, 0.0286116, -68.0753
1, 1380.00000, 116.033, -30.446, 118.195, -151.238, 116.223, 88.3305, 0, 0, 5.75772, -53.5199, 5.87715, -174.312, 5.7682, 65.2566, 0.0286116, -68.0753
1, 1440.00000, 116.033, -30.446, 118.195, -151.238, 116.223, 88.3305, 0, 0, 5.75772, -53.5199, 5.87715, -174.312, 5.7682, 65.2566, 0.0286116, -68.0753
1, 1500.00000, 116.033, -30.446, 118.195, -151.238, 116.223, 88.3305, 0, 0, 5.75772, -53.5199, 5.87715, -174.312, 5.7682, 65.2566, 0.0286116, -68.0753
1, 1560.00000, 116.033, -30.446, 118.195, -151.238, 116.223, 88.3305, 0, 0, 5.75772, -53.5199, 5.87715, -174.312, 5.7682, 65.2566, 0.0286116, -68.0753
1, 1620.00000, 116.033, -30.446, 118.195, -151.238, 116.223, 88.3305, 0, 0, 5.75772, -53.5199, 5.87715, -174.312, 5.7682, 65.2566, 0.0286116, -68.0753
1, 1680.00000, 116.033, -30.446, 118.195, -151.238, 116.223, 88.3305, 0, 0, 5.75772, -53.5199, 5.87715, -174.312, 5.7682, 65.2566, 0.0286116, -68.0753
1, 1740.00000, 116.033, -30.446, 118.195, -151.238, 116.223, 88.3305, 0, 0, 5.75772, -53.5199, 5.87715, -174.312, 5.7682, 65.2566, 0.0286116, -68.0753
1, 1800.00000, 116.033, -30.446, 118.195, -151.238, 116.223, 88.3305, 0, 0, 5.75772, -53.5199, 5.87715, -174.312, 5.7682, 65.2566, 0.0286116, -68.0753
1, 1860.00000, 116.033, -30.446, 118.195, -151.238, 116.223, 88.3305, 0, 0, 5.75772, -53.5199, 5.87715, -174.312, 5.7682, 65.2566, 0.0286116, -68.0753
1, 1920.00000, 116.033, -30.446, 118.195, -151.238, 116.223, 88.3305, 0, 0, 5.75772, -53.5199, 5.87715, -174.312, 5.7682, 65.2566, 0.0286116, -68.0753
1, 1980.00000, 116.033, -30.446, 118.195, -151.238, 116.223, 88.3305, 0, 0, 5.75772, -53.5199, 5.87715, -174.312, 5.7682, 65.2566, 0.0286116, -68.0753
1, 2040.00000, 116.033, -30.446, 118.195, -151.238, 116.223, 88.3305, 0, 0, 5.75772, -53.5199, 5.87715, -174.312, 5.7682, 65.2566, 0.0286116, -68.0753
1, 2100.00000, 116.033, -30.446, 118.195, -151.238, 116.223, 88.3305, 0, 0, 5.75772, -53.5199, 5.87715, -174.312, 5.7682, 65.2566, 0.0286116, -68.0753
1, 2160.00000, 116.033, -30.446, 118.195, -151.238, 116.223, 88.3305, 0, 0, 5.75772, -53.5199, 5.87715, -174.312, 5.7682, 65.2566, 0.0286116, -68.0753
1, 2220.00000, 116.97, -30.6032, 118.186, -151.244, 116.972, 88.6429, 0, 0, 5.80943, -53.6772, 5.87662, -174.318, 5.80957, 65.5688, 0.027154, -81.9847
1, 2280.00000, 116.97, -30.6032, 118.186, -151.244, 116.972, 88.6429, 0, 0, 5.80948, -53.6771, 5.87661, -174.318, 5.80959, 65.5689, 0.0271389, -82.0824
1, 2340.00000, 116.97, -30.6032, 118.186, -151.244, 116.972, 88.6429, 0, 0, 5.80948, -53.6771, 5.87661, -174.318, 5.80959, 65.5689, 0.0271388, -82.0829
1, 2400.00000, 116.97, -30.6032, 118.186, -151.244, 116.972, 88.6429, 0, 0, 5.80948, -53.6771, 5.87661, -174.318, 5.80959, 65.5689, 0.0271388, -82.0829
1, 2460.00000, 116.97, -30.6032, 118.186, -151.244, 116.972, 88.6429, 0, 0, 5.80948, -53.6771, 5.87661, -174.318, 5.80959, 65.5689, 0.0271388, -82.0829
1, 2520.00000, 116.97, -30.6032, 118.186, -151.244, 116.972, 88.6429, 0, 0, 5.80948, -53.6771, 5.87661, -174.318, 5.80959, 65.5689, 0.0271388, -82.0829
1, 2580.00000, 116.97, -30.6032, 118.186, -151.244, 116.972, 88.6429, 0, 0, 5.80948, -53.6771, 5.87661, -174.318, 5.80959, 65.5689, 0.0271388, -82.0829
1, 2640.00000, 116.97, -30.6032, 118.186, -151.244, 116.972, 88.6429, 0, 0, 5.80948, -53.6771, 5.87661, -174.318, 5.80959, 65.5689, 0.0271388, -82.0829
1, 2700.00000, 116.97, -30.6032, 118.186, -151.244, 116.972, 88.6429, 0, 0, 5.80948, -53.6771, 5.87661, -174.318, 5.80959, 65.5689, 0.0271388, -82.0829
1, 2760.00000, 116.97, -30.6032, 118.186, -151.244, 116.972, 88.6429, 0, 0, 5.80948, -53.6771, 5.87661, -174.318, 5.80959, 65.5689, 0.0271388, -82.0829
1, 2820.00000, 116.97, -30.6032, 118.186, -151.244, 116.972, 88.6429, 0, 0, 5.80948, -53.6771, 5.87661, -174.318, 5.80959, 65.5689, 0.0271388, -82.0829
1, 2880.00000, 116.97, -30.6032, 118.186, -151.244, 116.972, 88.6429, 0, 0, 5.80948, -53.6771, 5.87661, -174.318, 5.80959, 65.5689, 0.0271388, -82.0829
1, 2940.00000, 116.97, -30.6032, 118.186, -151.244, 116.972, 88.6429, 0, 0, 5.80948, -53.6771, 5.87661, -174.318, 5.80959, 65.5689, 0.0271388, -82.0829
1, 3000.00000, 116.97, -30.6032, 118.186, -151.244, 116.972, 88.6429, 0, 0, 5.80948, -53.6771, 5.87661, -174.318, 5.80959, 65.5689, 0.0271388, -82.0829
1, 3060.00000, 116.97, -30.6032, 118.186, -151.244, 116.972, 88.6429, 0, 0, 5.80948, -53.6771, 5.87661, -174.318, 5.80959, 65.5689, 0.0271388, -82.0829
1, 3120.00000, 116.97, -30.6032, 118.186, -151.244, 116.972, 88.6429, 0, 0, 5.80948, -53.6771, 5.87661, -174.318, 5.80959, 65.5689, 0.0271388, -82.0829
1, 3180.00000, 116.97, -30.6032, 118.186, -151.244, 116.972, 88.6429, 0, 0, 5.80948, -53.6771, 5.87661, -174.318, 5.80959, 65.5689, 0.0271388, -82.0829
1, 3240.00000, 116.97, -30.6032, 118.186, -151.244, 116.972, 88.6429, 0, 0, 5.80948, -53.6771, 5.87661, -174.318, 5.80959, 65.5689, 0.0271388, -82.0829
1, 3300.00000, 116.97, -30.6032, 118.186, -151.244, 116.972, 88.6429, 0, 0, 5.80948, -53.6771, 5.87661, -174.318, 5.80959, 65.5689, 0.0271388, -82.0829
1, 3360.00000, 116.97, -30.6032, 118.186, -151.244, 116.972, 88.6429, 0, 0, 5.80948, -53.6771, 5.87661, -174.318, 5.80959, 65.5689, 0.0271388, -82.0829
1, 3420.00000, 116.97, -30.6032, 118.186, -151.244, 116.972, 88.6429, 0, 0, 5.80948, -53.6771, 5.87661, -174.318, 5.80959, 65.5689, 0.0271388, -82.0829
1, 3480.00000, 116.97, -30.6032, 118.186, -151.244, 116.972, 88.6429, 0, 0, 5.80948, -53.6771, 5.87661, -174.318, 5.80959, 65.5689, 0.0271388, -82.0829
1, 3540.00000, 116.97, -30.6032, 118.186, -151.244, 116.972, 88.6429, 0, 0, 5.80948, -53.6771, 5.87661, -174.318, 5.80959, 65.5689, 0.0271388, -82.0829
2, 0.00000, 116.97, -30.6032, 118.186, -151.244, 116.972, 88.6429, 0, 0, 5.80948, -53.6771, 5.87661, -174.318, 5.80959, 65.5689, 0.0271388, -82.0829
2, 60.00000, 116.97, -30.6032, 118.186, -151.244, 116.972, 88.6429, 0, 0, 5.80948, -53.6771, 5.87661, -174.318, 5.80959, 65.5689, 0.0271388, -82.0829
2, 120.00000, 116.97, -30.6032, 118.186, -151.244, 116.972, 88.6429, 0, 0, 5.80948, -53.6771, 5.87661, -174.318, 5.80959, 65.5689, 0.0271388, -82.0829
2, 180.00000, 116.97, -30.6032, 118.186, -151.244, 116.972, 88.6429, 0, 0, 5.80948, -53.6771, 5.87661, -174.318, 5.80959, 65.5689, 0.0271388, -82.0829
2, 240.00000, 116.97, -30.6032, 118.186, -151.244, 116.972, 88.6429, 0, 0, 5.80948, -53.6771, 5.87661, -174.318, 5.80959, 65.5689, 0.0271388, -82.0829
2, 300.00000, 116.97, -30.6032, 118.186, -151.244, 116.972, 88.6429, 0, 0, 5.80948, -53.6771, 5.87661, -174.318, 5.80959, 65.5689, 0.0271388, -82.0829
2, 360.00000, 116.97, -30.6032, 118.186, -151.244, 116.972, 88.6429, 0, 0, 5.80948, -53.6771, 5.87661, -174.318, 5.80959, 65.5689, 0.0271388, -82.0829
2, 420.00000, 116.97, -30.6032, 118.186, -151.244, 116.972, 88.6429, 0, 0, 5.80948, -53.6771, 5.87661, -174.318, 5.80959, 65.5689, 0.0271388, -82.0829
2, 480.00000, 116.97, -30.6032, 118.186, -151.244, 116.972, 88.6429, 0, 0, 5.80948, -53.6771, 5.87661, -174.318, 5.80959, 65.5689, 0.0271388, -82.0829
2, 540.00000, 116.97, -30.6032, 118.186, -151.244, 116.972, 88.6429, 0, 0, 5.80948, -53.6771, 5.87661, -174.318, 5.80959, 65.5689, 0.0271388, -82.0829
2, 600.00000, 116.97, -30.6032, 118.186, -151.244, 116.972, 88.6429, 0, 0, 5.80948, -53.6771, 5.87661, -174.318, 5.80959, 65.5689, 0.0271388, -82.0829
2, 660.00000, 116.97, -30.6032, 118.186, -151.244, 116.972, 88.6429, 0, 0, 5.80948, -53.6771, 5.87661, -174.318, 5.80959, 65.5689, 0.0271388, -82.0829
