hour,t(sec),"P1 (kW)","Q1 (kvar)","P2 (kW)","Q2 (kvar)","P3 (kW)","Q3 (kvar)","P4 (kW)","Q4 (kvar)"
0, 60.00000, 0.515549, 0.219624, 0.50375, 0.214589, 0.523675, 0.223077, 0, 0
0, 120.00000, 0.515561, 0.219629, 0.503745, 0.214587, 0.523671, 0.223076, 0, 0
0, 180.00000, 0.515572, 0.219633, 0.50374, 0.214586, 0.523669, 0.223076, 0, 0
0, 240.00000, 0.515581, 0.219637, 0.503736, 0.214585, 0.523666, 0.223075, 0, 0
0, 300.00000, 0.515589, 0.219641, 0.503733, 0.214584, 0.523664, 0.223075, 0, 0
0, 360.00000, 0.515596, 0.219643, 0.503729, 0.214583, 0.523662, 0.223075, 0, 0
0, 420.00000, 0.515602, 0.219646, 0.503726, 0.214582, 0.523661, 0.223074, 0, 0
0, 480.00000, 0.515607, 0.219648, 0.503724, 0.214582, 0.523659, 0.223074, 0, 0
0, 540.00000, 0.515612, 0.21965, 0.503721, 0.214581, 0.523658, 0.223074, 0, 0
0, 600.00000, 0.515616, 0.219652, 0.503719, 0.21458, 0.523656, 0.223074, 0, 0
0, 660.00000, 0.51562, 0.219653, 0.503717, 0.21458, 0.523655, 0.223073, 0, 0
0, 720.00000, 0.515623, 0.219655, 0.503715, 0.214579, 0.523654, 0.223073, 0, 0
0, 780.00000, 0.515626, 0.219656, 0.503714, 0.214579, 0.523653, 0.223073, 0, 0
0, 840.00000, 0.515629, 0.219657, 0.503712, 0.214579, 0.523653, 0.223073, 0, 0
0, 900.00000, 0.515631, 0.219658, 0.503711, 0.214578, 0.523652, 0.223073, 0, 0
0, 960.00000, 0.542378, 0.231052, 0.52819, 0.225007, 0.553955, 0.235982, 0, 0
0, 1020.00000, 0.54238, 0.231053, 0.528189, 0.225006, 0.553955, 0.235982, 0, 0
0, 1080.00000, 0.542382, 0.231054, 0.528188, 0.225006, 0.553954, 0.235982, 0, 0
0, 1140.00000, 0.542383, 0.231054, 0.528187, 0.225006, 0.553954, 0.235982, 0, 0
0, 1200.00000, 0.542384, 0.231055, 0.528186, 0.225005, 0.553953, 0.235982, 0, 0
0, 1260.00000, 0.542386, 0.231055, 0.528186, 0.225005, 0.553953, 0.235982, 0, 0
0, 1320.00000, 0.542387, 0.231056, 0.528185, 0.225005, 0.553952, 0.235982, 0, 0
0, 1380.00000, 0.542388, 0.231056, 0.528184, 0.225005, 0.553952, 0.235982, 0, 0
0, 1440.00000, 0.542388, 0.231057, 0.528184, 0.225005, 0.553952, 0.235982, 0, 0
0, 1500.00000, 0.542389, 0.231057, 0.528183, 0.225005, 0.553952, 0.235982, 0, 0
0, 1560.00000, 0.54239, 0.231057, 0.528183, 0.225004, 0.553951, 0.235982, 0, 0
0, 1620.00000, 0.54239, 0.231057, 0.528183, 0.225004, 0.553951, 0.235982, 0, 0
0, 1680.00000, 0.542391, 0.231058, 0.528182, 0.225004, 0.553951, 0.235982, 0, 0
0, 1740.00000, 0.542391, 0.231058, 0.528182, 0.225004, 0.553951, 0.235982, 0, 0
0, 1800.00000, 0.542392, 0.231058, 0.528182, 0.225004, 0.553951, 0.235982, 0, 0
0, 1860.00000, 0.545505, 0.232384, 0.531099, 0.226247, 0.555633, 0.236698, 0, 0
0, 1920.00000, 0.545505, 0.232384, 0.531099, 0.226247, 0.555633, 0.236698, 0, 0
0, 1980.00000, 0.545505, 0.232384, 0.531099, 0.226247, 0.555632, 0.236698, 0, 0
0, 2040.00000, 0.545505, 0.232384, 0.531098, 0.226247, 0.555632, 0.236698, 0, 0
0, 2100.00000, 0.545506, 0.232384, 0.531098, 0.226247, 0.555632, 0.236698, 0, 0
0, 2160.00000, 0.545506, 0.232385, 0.531098, 0.226247, 0.555632, 0.236698, 0, 0
0, 2220.00000, 0.545506, 0.232385, 0.531098, 0.226247, 0.555632, 0.236698, 0, 0
0, 2280.00000, 0.545506, 0.232385, 0.531098, 0.226247, 0.555632, 0.236698, 0, 0
0, 2340.00000, 0.545506, 0.232385, 0.531098, 0.226247, 0.555632, 0.236698, 0, 0
0, 2400.00000, 0.545507, 0.232385, 0.531098, 0.226246, 0.555632, 0.236698, 0, 0
0, 2460.00000, 0.545507, 0.232385, 0.531098, 0.226246, 0.555632, 0.236698, 0, 0
0, 2520.00000, 0.545507, 0.232385, 0.531097, 0.226246, 0.555632, 0.236698, 0, 0
0, 2580.00000, 0.545507, 0.232385, 0.531097, 0.226246, 0.555632, 0.236698, 0, 0
0, 2640.00000, 0.545507, 0.232385, 0.531097, 0.226246, 0.555632, 0.236698, 0, 0
0, 2700.00000, 0.545507, 0.232385, 0.531097, 0.226246, 0.555632, 0.236698, 0, 0
0, 2760.00000, 0.521937, 0.222345, 0.507916, 0.216371, 0.528486, 0.225134, 0, 0
0, 2820.00000, 0.521937, 0.222344, 0.507915, 0.216371, 0.528486, 0.225134, 0, 0
0, 2880.00000, 0.521937, 0.222344, 0.507915, 0.216371, 0.528485, 0.225134, 0, 0
0, 2940.00000, 0.521937, 0.222344, 0.507915, 0.216371, 0.528485, 0.225134, 0, 0
0, 3000.00000, 0.521937, 0.222344, 0.507915, 0.216371, 0.528485, 0.225134, 0, 0
0, 3060.00000, 0.521937, 0.222344, 0.507915, 0.216371, 0.528485, 0.225134, 0, 0
0, 3120.00000, 0.521937, 0.222344, 0.507915, 0.216371, 0.528485, 0.225134, 0, 0
0, 3180.00000, 0.521938, 0.222344, 0.507915, 0.216371, 0.528485, 0.225134, 0, 0
0, 3240.00000, 0.521938, 0.222344, 0.507915, 0.216371, 0.528485, 0.225134, 0, 0
0, 3300.00000, 0.521938, 0.222344, 0.507915, 0.216371, 0.528485, 0.225134, 0, 0
0, 3360.00000, 0.521938, 0.222344, 0.507915, 0.216371, 0.528485, 0.225134, 0, 0
0, 3420.00000, 0.521938, 0.222345, 0.507915, 0.216371, 0.528485, 0.225134, 0, 0
0, 3480.00000, 0.52466, 0.223504, 0.507895, 0.216362, 0.528486, 0.225134, 0, 0
0, 3540.00000, 0.52539, 0.223815, 0.510353, 0.217409, 0.528485, 0.225134, 0, 0
1, 0.00000, 0.52539, 0.223815, 0.510353, 0.217409, 0.528485, 0.225134, 0, 0
1, 60.00000, 0.521519, 0.222166, 0.506424, 0.215736, 0.522308, 0.222502, 0, 0
1, 120.00000, 0.521519, 0.222166, 0.506424, 0.215736, 0.522307, 0.222502, 0, 0
1, 180.00000, 0.521519, 0.222166, 0.506424, 0.215736, 0.522307, 0.222502, 0, 0
1, 240.00000, 0.521519, 0.222166, 0.506424, 0.215736, 0.522307, 0.222502, 0, 0
1, 300.00000, 0.521519, 0.222166, 0.506424, 0.215736, 0.522307, 0.222502, 0, 0
1, 360.00000, 0.521519, 0.222166, 0.506424, 0.215736, 0.522307, 0.222502, 0, 0
1, 420.00000, 0.521519, 0.222166, 0.506424, 0.215736, 0.522307, 0.222502, 0, 0
1, 480.00000, 0.521519, 0.222166, 0.506424, 0.215736, 0.522307, 0.222502, 0, 0
1, 540.00000, 0.521519, 0.222166, 0.506424, 0.215736, 0.522307, 0.222502, 0, 0
1, 600.00000, 0.522307, 0.222502, 0.510239, 0.217361, 0.522307, 0.222502, 0, 0
1, 660.00000, 0.522307, 0.222502, 0.510238, 0.217361, 0.522307, 0.222502, 0, 0
1, 720.00000, 0.522307, 0.222502, 0.510238, 0.217361, 0.522307, 0.222502, 0, 0
1, 780.00000, 0.522307, 0.222502, 0.510238, 0.217361, 0.522307, 0.222502, 0, 0
1, 840.00000, 0.522307, 0.222502, 0.510238, 0.217361, 0.522307, 0.222502, 0, 0
1, 900.00000, 0.522307, 0.222502, 0.510238, 0.217361, 0.522307, 0.222502, 0, 0
1, 960.00000, 0.519862, 0.221461, 0.508067, 0.216436, 0.519863, 0.221461, 0, 0
1, 1020.00000, 0.519862, 0.22146, 0.508067, 0.216436, 0.519862, 0.22146, 0, 0
1, 1080.00000, 0.519862, 0.22146, 0.508067, 0.216436, 0.519862, 0.22146, 0, 0
1, 1140.00000, 0.519862, 0.22146, 0.508067, 0.216436, 0.519862, 0.22146, 0, 0
1, 1200.00000, 0.519862, 0.22146, 0.508067, 0.216436, 0.519862, 0.22146, 0, 0
1, 1260.00000, 0.519862, 0.22146, 0.508067, 0.216436, 0.519862, 0.22146, 0, 0
1, 1320.00000, 0.519862, 0.22146, 0.508067, 0.216436, 0.519862, 0.22146, 0, 0
1, 1380.00000, 0.519862, 0.22146, 0.508067, 0.216436, 0.519862, 0.22146, 0, 0
1, 1440.00000, 0.519862, 0.22146, 0.508067, 0.216436, 0.519862, 0.22146, 0, 0
1, 1500.00000, 0.519862, 0.22146, 0.508067, 0.216436, 0.519862, 0.22146, 0, 0
1, 1560.00000, 0.519862, 0.22146, 0.508067, 0.216436, 0.519862, 0.22146, 0, 0
1, 1620.00000, 0.519862, 0.22146, 0.508067, 0.216436, 0.519862, 0.22146, 0, 0
1, 1680.00000, 0.519862, 0.22146, 0.508067, 0.216436, 0.519862, 0.22146, 0, 0
1, 1740.00000, 0.519862, 0.22146, 0.508067, 0.216436, 0.519862, 0.22146, 0, 0
1, 1800.00000, 0.519862, 0.22146, 0.508067, 0.216436, 0.519862, 0.22146, 0, 0
1, 1860.00000, 0.5324, 0.226802, 0.5324, 0.226801, 0.532401, 0.226802, 0, 0
1, 1920.00000, 0.5324, 0.226802, 0.5324, 0.226802, 0.5324, 0.226802, 0, 0
1, 1980.00000, 0.5324, 0.226802, 0.5324, 0.226802, 0.5324, 0.226802, 0, 0
1, 2040.00000, 0.5324, 0.226802, 0.5324, 0.226802, 0.5324, 0.226802, 0, 0
1, 2100.00000, 0.5324, 0.226802, 0.5324, 0.226802, 0.5324, 0.226802, 0, 0
1, 2160.00000, 0.5324, 0.226802, 0.5324, 0.226802, 0.5324, 0.226802, 0, 0
1, 2220.00000, 0.5324, 0.226802, 0.5324, 0.226802, 0.5324, 0.226802, 0, 0
1, 2280.00000, 0.5324, 0.226802, 0.5324, 0.226802, 0.5324, 0.226802, 0, 0
1, 2340.00000, 0.5324, 0.226802, 0.5324, 0.226802, 0.5324, 0.226802, 0, 0
1, 2400.00000, 0.5324, 0.226802, 0.5324, 0.226802, 0.5324, 0.226802, 0, 0
1, 2460.00000, 0.5324, 0.226802, 0.5324, 0.226802, 0.5324, 0.226802, 0, 0
1, 2520.00000, 0.5324, 0.226802, 0.5324, 0.226802, 0.5324, 0.226802, 0, 0
1, 2580.00000, 0.5324, 0.226802, 0.5324, 0.226802, 0.5324, 0.226802, 0, 0
1, 2640.00000, 0.5324, 0.226802, 0.5324, 0.226802, 0.5324, 0.226802, 0, 0
1, 2700.00000, 0.5324, 0.226802, 0.5324, 0.226802, 0.5324, 0.226802, 0, 0
1, 2760.00000, 0.501682, 0.213716, 0.501682, 0.213716, 0.501683, 0.213716, 0, 0
1, 2820.00000, 0.501682, 0.213716, 0.501682, 0.213716, 0.501682, 0.213716, 0, 0
1, 2880.00000, 0.501682, 0.213716, 0.501682, 0.213716, 0.501682, 0.213716, 0, 0
1, 2940.00000, 0.501682, 0.213716, 0.501682, 0.213716, 0.501682, 0.213716, 0, 0
1, 3000.00000, 0.501682, 0.213716, 0.501682, 0.213716, 0.501682, 0.213716, 0, 0
1, 3060.00000, 0.501682, 0.213716, 0.501682, 0.213716, 0.501682, 0.213716, 0, 0
1, 3120.00000, 0.501682, 0.213716, 0.501682, 0.213716, 0.501682, 0.213716, 0, 0
1, 3180.00000, 0.501682, 0.213716, 0.501682, 0.213716, 0.501682, 0.213716, 0, 0
1, 3240.00000, 0.501682, 0.213716, 0.501682, 0.213716, 0.501682, 0.213716, 0, 0
1, 3300.00000, 0.501682, 0.213716, 0.501682, 0.213716, 0.501682, 0.213716, 0, 0
1, 3360.00000, 0.501682, 0.213716, 0.501682, 0.213716, 0.501682, 0.213716, 0, 0
1, 3420.00000, 0.501682, 0.213716, 0.501682, 0.213716, 0.501682, 0.213716, 0, 0
1, 3480.00000, 0.501682, 0.213716, 0.501682, 0.213716, 0.501682, 0.213716, 0, 0
1, 3540.00000, 0.501682, 0.213716, 0.501682, 0.213716, 0.501682, 0.213716, 0, 0
2, 0.00000, 0.501682, 0.213716, 0.501682, 0.213716, 0.501682, 0.213716, 0, 0
2, 60.00000, 0.515145, 0.219451, 0.515145, 0.219451, 0.515145, 0.219451, 0, 0
2, 120.00000, 0.515145, 0.219451, 0.515145, 0.219451, 0.515145, 0.219451, 0, 0
2, 180.00000, 0.515145, 0.219451, 0.515145, 0.219451, 0.515145, 0.219451, 0, 0
2, 240.00000, 0.515145, 0.219451, 0.515145, 0.219451, 0.515145, 0.219451, 0, 0
2, 300.00000, 0.515145, 0.219451, 0.515145, 0.219451, 0.515145, 0.219451, 0, 0
2, 360.00000, 0.515145, 0.219451, 0.515145, 0.219451, 0.515145, 0.219451, 0, 0
2, 420.00000, 0.515145, 0.219451, 0.515145, 0.219451, 0.515145, 0.219451, 0, 0
2, 480.00000, 0.515145, 0.219451, 0.515145, 0.219451, 0.515145, 0.219451, 0, 0
2, 540.00000, 0.515145, 0.219451, 0.515145, 0.219451, 0.515145, 0.219451, 0, 0
2, 600.00000, 0.515145, 0.219451, 0.515145, 0.219451, 0.515145, 0.219451, 0, 0
2, 660.00000, 0.515145, 0.219451, 0.515145, 0.219451, 0.515145, 0.219451, 0, 0
2, 720.00000, 0.515145, 0.219451, 0.515145, 0.219451, 0.515145, 0.219451, 0, 0
2, 780.00000, 0.515145, 0.219451, 0.515145, 0.219451, 0.515145, 0.219451, 0, 0
2, 840.00000, 0.515145, 0.219451, 0.515145, 0.219451, 0.515145, 0.219451, 0, 0
2, 900.00000, 0.515145, 0.219451, 0.515145, 0.219451, 0.515145, 0.219451, 0, 0
2, 960.00000, 0.488103, 0.207931, 0.488103, 0.207931, 0.488104, 0.207931, 0, 0
2, 1020.00000, 0.488103, 0.207931, 0.488103, 0.207931, 0.488103, 0.207931, 0, 0
2, 1080.00000, 0.488103, 0.207931, 0.488103, 0.207931, 0.488103, 0.207931, 0, 0
2, 1140.00000, 0.488103, 0.207931, 0.488103, 0.207931, 0.488103, 0.207931, 0, 0
2, 1200.00000, 0.488103, 0.207931, 0.488103, 0.207931, 0.488103, 0.207931, 0, 0
2, 1260.00000, 0.488103, 0.207931, 0.488103, 0.207931, 0.488103, 0.207931, 0, 0
2, 1320.00000, 0.488103, 0.207931, 0.488103, 0.207931, 0.488103, 0.207931, 0, 0
2, 1380.00000, 0.488103, 0.207931, 0.488103, 0.207931, 0.488103, 0.207931, 0, 0
2, 1440.00000, 0.488103, 0.207931, 0.488103, 0.207931, 0.488103, 0.207931, 0, 0
2, 1500.00000, 0.488103, 0.207931, 0.488103, 0.207931, 0.488103, 0.207931, 0, 0
2, 1560.00000, 0.488103, 0.207931, 0.488103, 0.207931, 0.488103, 0.207931, 0, 0
2, 1620.00000, 0.488103, 0.207931, 0.488103, 0.207931, 0.488103, 0.207931, 0, 0
2, 1680.00000, 0.488103, 0.207931, 0.488103, 0.207931, 0.488103, 0.207931, 0, 0
2, 1740.00000, 0.488103, 0.207931, 0.488103, 0.207931, 0.488103, 0.207931, 0, 0
2, 1800.00000, 0.488103, 0.207931, 0.488103, 0.207931, 0.488103, 0.207931, 0, 0
2, 1860.00000, 0.487836, 0.207817, 0.487836, 0.207817, 0.487836, 0.207817, 0, 0
2, 1920.00000, 0.487836, 0.207817, 0.487836, 0.207817, 0.487836, 0.207817, 0, 0
2, 1980.00000, 0.487836, 0.207817, 0.487836, 0.207817, 0.487836, 0.207817, 0, 0
2, 2040.00000, 0.487836, 0.207817, 0.487836, 0.207817, 0.487836, 0.207817, 0, 0
2, 2100.00000, 0.487836, 0.207817, 0.487836, 0.207817, 0.487836, 0.207817, 0, 0
2, 2160.00000, 0.487836, 0.207817, 0.487836, 0.207817, 0.487836, 0.207817, 0, 0
2, 2220.00000, 0.487836, 0.207817, 0.487836, 0.207817, 0.487836, 0.207817, 0, 0
2, 2280.00000, 0.487836, 0.207817, 0.487836, 0.207817, 0.487836, 0.207817, 0, 0
2, 2340.00000, 0.487836, 0.207817, 0.487836, 0.207817, 0.487836, 0.207817, 0, 0
2, 2400.00000, 0.487836, 0.207817, 0.487836, 0.207817, 0.487836, 0.207817, 0, 0
2, 2460.00000, 0.487836, 0.207817, 0.487836, 0.207817, 0.487836, 0.207817, 0, 0
2, 2520.00000, 0.487836, 0.207817, 0.487836, 0.207817, 0.487836, 0.207817, 0, 0
2, 2580.00000, 0.487836, 0.207817, 0.487836, 0.207817, 0.487836, 0.207817, 0, 0
2, 2640.00000, 0.487836, 0.207817, 0.487836, 0.207817, 0.487836, 0.207817, 0, 0
2, 2700.00000, 0.487836, 0.207817, 0.487836, 0.207817, 0.487836, 0.207817, 0, 0
2, 2760.00000, 0.466742, 0.198831, 0.466742, 0.198831, 0.466743, 0.198832, 0, 0
2, 2820.00000, 0.466742, 0.198831, 0.466742, 0.198831, 0.466742, 0.198831, 0, 0
2, 2880.00000, 0.466742, 0.198831, 0.466742, 0.198831, 0.466742, 0.198831, 0, 0
2, 2940.00000, 0.466742, 0.198831, 0.466742, 0.198831, 0.466742, 0.198831, 0, 0
2, 3000.00000, 0.466742, 0.198831, 0.466742, 0.198831, 0.466742, 0.198831, 0, 0
2, 3060.00000, 0.466742, 0.198831, 0.466742, 0.198831, 0.466742, 0.198831, 0, 0
2, 3120.00000, 0.466742, 0.198831, 0.466742, 0.198831, 0.466742, 0.198831, 0, 0
2, 3180.00000, 0.466742, 0.198831, 0.466742, 0.198831, 0.466742, 0.198831, 0, 0
2, 3240.00000, 0.466742, 0.198831, 0.466742, 0.198831, 0.466742, 0.198831, 0, 0
2, 3300.00000, 0.466742, 0.198831, 0.466742, 0.198831, 0.466742, 0.198831, 0, 0
2, 3360.00000, 0.466742, 0.198831, 0.466742, 0.198831, 0.466742, 0.198831, 0, 0
2, 3420.00000, 0.466742, 0.198831, 0.466742, 0.198831, 0.466742, 0.198831, 0, 0
2, 3480.00000, 0.466742, 0.198831, 0.466742, 0.198831, 0.466742, 0.198831, 0, 0
2, 3540.00000, 0.466742, 0.198831, 0.466742, 0.198831, 0.466742, 0.198831, 0, 0
3, 0.00000, 0.466742, 0.198831, 0.466742, 0.198831, 0.466742, 0.198831, 0, 0
3, 60.00000, 0.478611, 0.203887, 0.478611, 0.203887, 0.47861, 0.203887, 0, 0
3, 120.00000, 0.478611, 0.203887, 0.478611, 0.203887, 0.478611, 0.203887, 0, 0
3, 180.00000, 0.478611, 0.203887, 0.478611, 0.203887, 0.478611, 0.203887, 0, 0
3, 240.00000, 0.478611, 0.203887, 0.478611, 0.203887, 0.478611, 0.203887, 0, 0
3, 300.00000, 0.478611, 0.203887, 0.478611, 0.203887, 0.478611, 0.203887, 0, 0
3, 360.00000, 0.478611, 0.203887, 0.478611, 0.203887, 0.478611, 0.203887, 0, 0
3, 420.00000, 0.478611, 0.203887, 0.478611, 0.203887, 0.478611, 0.203887, 0, 0
3, 480.00000, 0.478611, 0.203887, 0.478611, 0.203887, 0.478611, 0.203887, 0, 0
3, 540.00000, 0.478611, 0.203887, 0.478611, 0.203887, 0.478611, 0.203887, 0, 0
3, 600.00000, 0.478611, 0.203887, 0.478611, 0.203887, 0.478611, 0.203887, 0, 0
3, 660.00000, 0.478611, 0.203887, 0.478611, 0.203887, 0.478611, 0.203887, 0, 0
3, 720.00000, 0.478611, 0.203887, 0.478611, 0.203887, 0.478611, 0.203887, 0, 0
3, 780.00000, 0.478611, 0.203887, 0.478611, 0.203887, 0.478611, 0.203887, 0, 0
3, 840.00000, 0.478611, 0.203887, 0.478611, 0.203887, 0.478611, 0.203887, 0, 0
3, 900.00000, 0.478611, 0.203887, 0.478611, 0.203887, 0.478611, 0.203887, 0, 0
3, 960.00000, 0.491761, 0.209489, 0.491761, 0.209489, 0.491762, 0.20949, 0, 0
3, 1020.00000, 0.491761, 0.209489, 0.491761, 0.209489, 0.491761, 0.209489, 0, 0
3, 1080.00000, 0.491761, 0.209489, 0.491761, 0.209489, 0.491761, 0.209489, 0, 0
3, 1140.00000, 0.491761, 0.209489, 0.491761, 0.209489, 0.491761, 0.209489, 0, 0
3, 1200.00000, 0.491761, 0.209489, 0.491761, 0.209489, 0.491761, 0.209489, 0, 0
3, 1260.00000, 0.491761, 0.209489, 0.491761, 0.209489, 0.491761, 0.209489, 0, 0
3, 1320.00000, 0.491761, 0.209489, 0.491761, 0.209489, 0.491761, 0.209489, 0, 0
3, 1380.00000, 0.491761, 0.209489, 0.491761, 0.209489, 0.491761, 0.209489, 0, 0
3, 1440.00000, 0.491761, 0.209489, 0.491761, 0.209489, 0.491761, 0.209489, 0, 0
3, 1500.00000, 0.491761, 0.209489, 0.491761, 0.209489, 0.491761, 0.209489, 0, 0
3, 1560.00000, 0.491761, 0.209489, 0.491761, 0.209489, 0.491761, 0.209489, 0, 0
3, 1620.00000, 0.491761, 0.209489, 0.491761, 0.209489, 0.491761, 0.209489, 0, 0
3, 1680.00000, 0.491761, 0.209489, 0.491761, 0.209489, 0.491761, 0.209489, 0, 0
3, 1740.00000, 0.491761, 0.209489, 0.491761, 0.209489, 0.491761, 0.209489, 0, 0
3, 1800.00000, 0.491761, 0.209489, 0.491761, 0.209489, 0.491761, 0.209489, 0, 0
3, 1860.00000, 0.497774, 0.212051, 0.497774, 0.212051, 0.497775, 0.212051, 0, 0
3, 1920.00000, 0.497774, 0.212051, 0.497774, 0.212051, 0.497774, 0.212051, 0, 0
3, 1980.00000, 0.497774, 0.212051, 0.497774, 0.212051, 0.497774, 0.212051, 0, 0
3, 2040.00000, 0.497774, 0.212051, 0.497774, 0.212051, 0.497774, 0.212051, 0, 0
3, 2100.00000, 0.497774, 0.212051, 0.497774, 0.212051, 0.497774, 0.212051, 0, 0
3, 2160.00000, 0.497774, 0.212051, 0.497774, 0.212051, 0.497774, 0.212051, 0, 0
3, 2220.00000, 0.497774, 0.212051, 0.497774, 0.212051, 0.497774, 0.212051, 0, 0
3, 2280.00000, 0.497774, 0.212051, 0.497774, 0.212051, 0.497774, 0.212051, 0, 0
3, 2340.00000, 0.497774, 0.212051, 0.497774, 0.212051, 0.497774, 0.212051, 0, 0
3, 2400.00000, 0.497774, 0.212051, 0.497774, 0.212051, 0.497774, 0.212051, 0, 0
3, 2460.00000, 0.497774, 0.212051, 0.497774, 0.212051, 0.497774, 0.212051, 0, 0
3, 2520.00000, 0.497774, 0.212051, 0.497774, 0.212051, 0.497774, 0.212051, 0, 0
3, 2580.00000, 0.497774, 0.212051, 0.497774, 0.212051, 0.497774, 0.212051, 0, 0
3, 2640.00000, 0.497774, 0.212051, 0.497774, 0.212051, 0.497774, 0.212051, 0, 0
3, 2700.00000, 0.497774, 0.212051, 0.497774, 0.212051, 0.497774, 0.212051, 0, 0
3, 2760.00000, 0.455501, 0.194042, 0.455501, 0.194042, 0.455501, 0.194043, 0, 0
3, 2820.00000, 0.455501, 0.194042, 0.455501, 0.194042, 0.455501, 0.194042, 0, 0
3, 2880.00000, 0.455501, 0.194042, 0.455501, 0.194042, 0.455501, 0.194042, 0, 0
3, 2940.00000, 0.455501, 0.194042, 0.455501, 0.194042, 0.455501, 0.194042, 0, 0
3, 3000.00000, 0.455501, 0.194042, 0.455501, 0.194042, 0.455501, 0.194042, 0, 0
3, 3060.00000, 0.455501, 0.194042, 0.455501, 0.194042, 0.455501, 0.194042, 0, 0
3, 3120.00000, 0.455501, 0.194042, 0.455501, 0.194042, 0.455501, 0.194042, 0, 0
3, 3180.00000, 0.455501, 0.194042, 0.455501, 0.194042, 0.455501, 0.194042, 0, 0
3, 3240.00000, 0.455501, 0.194042, 0.455501, 0.194042, 0.455501, 0.194042, 0, 0
3, 3300.00000, 0.455501, 0.194042, 0.455501, 0.194042, 0.455501, 0.194042, 0, 0
3, 3360.00000, 0.455501, 0.194042, 0.455501, 0.194042, 0.455501, 0.194042, 0, 0
3, 3420.00000, 0.455501, 0.194042, 0.455501, 0.194042, 0.455501, 0.194042, 0, 0
3, 3480.00000, 0.455501, 0.194042, 0.455501, 0.194042, 0.455501, 0.194042, 0, 0
3, 3540.00000, 0.455501, 0.194042, 0.455501, 0.194042, 0.455501, 0.194042, 0, 0
4, 0.00000, 0.455501, 0.194042, 0.455501, 0.194042, 0.455501, 0.194042, 0, 0
4, 60.00000, 0.487281, 0.207581, 0.48728, 0.207581, 0.48728, 0.20758, 0, 0
4, 120.00000, 0.487281, 0.207581, 0.487281, 0.207581, 0.487281, 0.207581, 0, 0
4, 180.00000, 0.487281, 0.207581, 0.487281, 0.207581, 0.487281, 0.207581, 0, 0
4, 240.00000, 0.487281, 0.207581, 0.487281, 0.207581, 0.487281, 0.207581, 0, 0
4, 300.00000, 0.487281, 0.207581, 0.487281, 0.207581, 0.487281, 0.207581, 0, 0
4, 360.00000, 0.487281, 0.207581, 0.487281, 0.207581, 0.487281, 0.207581, 0, 0
4, 420.00000, 0.487281, 0.207581, 0.487281, 0.207581, 0.487281, 0.207581, 0, 0
4, 480.00000, 0.487281, 0.207581, 0.487281, 0.207581, 0.487281, 0.207581, 0, 0
4, 540.00000, 0.487281, 0.207581, 0.487281, 0.207581, 0.487281, 0.207581, 0, 0
4, 600.00000, 0.487281, 0.207581, 0.487281, 0.207581, 0.487281, 0.207581, 0, 0
4, 660.00000, 0.487281, 0.207581, 0.487281, 0.207581, 0.487281, 0.207581, 0, 0
