hour,t(sec),V1,VAngle1,V2,VAngle2,V3,VAngle3,V4,VAngle4,I1,IAngle1,I2,IAngle2,I3,IAngle3,I4,IAngle4
0, 60.00000, 121.891, -31.2685, 122.208, -151.169, 122.667, 88.6787, 0, 0, 7.495, -54.3423, 7.47556, -174.243, 7.44754, 65.6051, 0.0575462, 97.3
0, 120.00000, 121.891, -31.2686, 122.208, -151.169, 122.667, 88.6787, 0, 0, 7.49513, -54.3425, 7.47567, -174.243, 7.44768, 65.6048, 0.0575534, 97.3322
0, 180.00000, 121.891, -31.2686, 122.208, -151.169, 122.667, 88.6787, 0, 0, 7.49513, -54.3425, 7.47567, -174.243, 7.44768, 65.6048, 0.0575533, 97.3325
0, 240.00000, 121.891, -31.2686, 122.208, -151.169, 122.667, 88.6787, 0, 0, 7.49513, -54.3425, 7.47567, -174.243, 7.44768, 65.6048, 0.0575533, 97.3325
0, 300.00000, 121.891, -31.2686, 122.208, -151.169, 122.667, 88.6787, 0, 0, 7.49513, -54.3425, 7.47567, -174.243, 7.44768, 65.6048, 0.0575533, 97.3325
0, 360.00000, 121.891, -31.2686, 122.208, -151.169, 122.667, 88.6787, 0, 0, 7.49513, -54.3425, 7.47567, -174.243, 7.44768, 65.6048, 0.0575533, 97.3325
0, 420.00000, 121.891, -31.2686, 122.208, -151.169, 122.667, 88.6787, 0, 0, 7.49513, -54.3425, 7.47567, -174.243, 7.44768, 65.6048, 0.0575533, 97.3325
0, 480.00000, 122.686, -31.1573, 122.967, -151.058, 123.411, 88.8038, 0, 0, 6.47864, -54.2316, 6.46385, -174.132, 6.44063, 65.7293, 0.046345, 95.2705
0, 540.00000, 122.687, -31.1573, 122.967, -151.058, 123.412, 88.8038, 0, 0, 6.47849, -54.2312, 6.46372, -174.132, 6.44043, 65.7299, 0.0463628, 95.1944
0, 600.00000, 122.687, -31.1573, 122.967, -151.058, 123.412, 88.8038, 0, 0, 6.47849, -54.2312, 6.46371, -174.132, 6.44042, 65.7299, 0.0463636, 95.1929
0, 660.00000, 122.687, -31.1573, 122.967, -151.058, 123.412, 88.8038, 0, 0, 6.47849, -54.2312, 6.46371, -174.132, 6.44042, 65.7299, 0.0463636, 95.1929
0, 720.00000, 122.687, -31.1573, 122.967, -151.058, 123.412, 88.8038, 0, 0, 6.47849, -54.2312, 6.46371, -174.132, 6.44042, 65.7299, 0.0463636, 95.1929
0, 780.00000, 122.687, -31.1573, 122.967, -151.058, 123.412, 88.8038, 0, 0, 6.47849, -54.2312, 6.46371, -174.132, 6.44042, 65.7299, 0.0463636, 95.1929
0, 840.00000, 122.687, -31.1573, 122.967, -151.058, 123.412, 88.8038, 0, 0, 6.47849, -54.2312, 6.46371, -174.132, 6.44042, 65.7299, 0.0463636, 95.1929
0, 900.00000, 122.687, -31.1573, 122.967, -151.058, 123.412, 88.8038, 0, 0, 6.47849, -54.2312, 6.46371, -174.132, 6.44042, 65.7299, 0.0463636, 95.1929
0, 960.00000, 122.687, -31.1573, 122.967, -151.058, 123.412, 88.8038, 0, 0, 6.47849, -54.2312, 6.46371, -174.132, 6.44042, 65.7299, 0.0463636, 95.1929
0, 1020.00000, 122.687, -31.1573, 122.967, -151.058, 123.412, 88.8038, 0, 0, 6.47849, -54.2312, 6.46371, -174.132, 6.44042, 65.7299, 0.0463636, 95.1929
0, 1080.00000, 122.687, -31.1573, 122.967, -151.058, 123.412, 88.8038, 0, 0, 6.47849, -54.2312, 6.46371, -174.132, 6.44042, 65.7299, 0.0463636, 95.1929
0, 1140.00000, 122.687, -31.1573, 122.967, -151.058, 123.412, 88.8038, 0, 0, 6.47849, -54.2312, 6.46371, -174.132, 6.44042, 65.7299, 0.0463636, 95.1929
0, 1200.00000, 122.687, -31.1573, 122.967, -151.058, 123.412, 88.8038, 0, 0, 6.47849, -54.2312, 6.46371, -174.132, 6.44042, 65.7299, 0.0463636, 95.1929
0, 1260.00000, 122.687, -31.1573, 122.967, -151.058, 123.412, 88.8038, 0, 0, 6.47849, -54.2312, 6.46371, -174.132, 6.44042, 65.7299, 0.0463636, 95.1929
0, 1320.00000, 122.687, -31.1573, 122.967, -151.058, 123.412, 88.8038, 0, 0, 6.47849, -54.2312, 6.46371, -174.132, 6.44042, 65.7299, 0.0463636, 95.1929
0, 1380.00000, 122.687, -31.1573, 122.967, -151.058, 123.412, 88.8038, 0, 0, 6.47849, -54.2312, 6.46371, -174.132, 6.44042, 65.7299, 0.0463636, 95.1929
0, 1440.00000, 122.687, -31.1573, 122.967, -151.058, 123.412, 88.8038, 0, 0, 6.47849, -54.2312, 6.46371, -174.132, 6.44042, 65.7299, 0.0463636, 95.1929
0, 1500.00000, 122.687, -31.1573, 122.967, -151.058, 123.412, 88.8038, 0, 0, 6.47849, -54.2312, 6.46371, -174.132, 6.44042, 65.7299, 0.0463636, 95.1929
0, 1560.00000, 122.687, -31.1573, 122.967, -151.058, 123.412, 88.8038, 0, 0, 6.47849, -54.2312, 6.46371, -174.132, 6.44042, 65.7299, 0.0463636, 95.1929
0, 1620.00000, 122.687, -31.1573, 122.967, -151.058, 123.412, 88.8038, 0, 0, 6.47849, -54.2312, 6.46371, -174.132, 6.44042, 65.7299, 0.0463636, 95.1929
0, 1680.00000, 122.687, -31.1573, 122.967, -151.058, 123.412, 88.8038, 0, 0, 6.47849, -54.2312, 6.46371, -174.132, 6.44042, 65.7299, 0.0463636, 95.1929
0, 1740.00000, 122.687, -31.1573, 122.967, -151.058, 123.412, 88.8038, 0, 0, 6.47849, -54.2312, 6.46371, -174.132, 6.44042, 65.7299, 0.0463636, 95.1929
0, 1800.00000, 122.687, -31.1573, 122.967, -151.058, 123.412, 88.8038, 0, 0, 6.47849, -54.2312, 6.46371, -174.132, 6.44042, 65.7299, 0.0463636, 95.1929
0, 1860.00000, 122.687, -31.1573, 122.967, -151.058, 123.412, 88.8038, 0, 0, 6.47849, -54.2312, 6.46371, -174.132, 6.44042, 65.7299, 0.0463636, 95.1929
0, 1920.00000, 122.687, -31.1573, 122.967, -151.058, 123.412, 88.8038, 0, 0, 6.47849, -54.2312, 6.46371, -174.132, 6.44042, 65.7299, 0.0463636, 95.1929
0, 1980.00000, 122.687, -31.1573, 122.967, -151.058, 123.412, 88.8038, 0, 0, 6.47849, -54.2312, 6.46371, -174.132, 6.44042, 65.7299, 0.0463636, 95.1929
0, 2040.00000, 122.687, -31.1573, 122.967, -151.058, 123.412, 88.8038, 0, 0, 6.47849, -54.2312, 6.46371, -174.132, 6.44042, 65.7299, 0.0463636, 95.1929
0, 2100.00000, 122.687, -31.1573, 122.967, -151.058, 123.412, 88.8038, 0, 0, 6.47849, -54.2312, 6.46371, -174.132, 6.44042, 65.7299, 0.0463636, 95.1929
0, 2160.00000, 122.687, -31.1573, 122.967, -151.058, 123.412, 88.8038, 0, 0, 6.47849, -54.2312, 6.46371, -174.132, 6.44042, 65.7299, 0.0463636, 95.1929
0, 2220.00000, 122.687, -31.1573, 122.967, -151.058, 123.412, 88.8038, 0, 0, 6.47849, -54.2312, 6.46371, -174.132, 6.44042, 65.7299, 0.0463636, 95.1929
0, 2280.00000, 122.687, -31.1573, 122.967, -151.058, 123.412, 88.8038, 0, 0, 6.47849, -54.2312, 6.46371, -174.132, 6.44042, 65.7299, 0.0463636, 95.1929
0, 2340.00000, 122.687, -31.1573, 122.967, -151.058, 123.412, 88.8038, 0, 0, 6.47849, -54.2312, 6.46371, -174.132, 6.44042, 65.7299, 0.0463636, 95.1929
0, 2400.00000, 122.687, -31.1573, 122.967, -151.058, 123.412, 88.8038, 0, 0, 6.47849, -54.2312, 6.46371, -174.132, 6.44042, 65.7299, 0.0463636, 95.1929
0, 2460.00000, 122.687, -31.1573, 122.967, -151.058, 123.412, 88.8038, 0, 0, 6.47849, -54.2312, 6.46371, -174.132, 6.44042, 65.7299, 0.0463636, 95.1929
0, 2520.00000, 122.687, -31.1573, 122.967, -151.058, 123.412, 88.8038, 0, 0, 6.47849, -54.2312, 6.46371, -174.132, 6.44042, 65.7299, 0.0463636, 95.1929
0, 2580.00000, 122.687, -31.1573, 122.967, -151.058, 123.412, 88.8038, 0, 0, 6.47849, -54.2312, 6.46371, -174.132, 6.44042, 65.7299, 0.0463636, 95.1929
0, 2640.00000, 122.687, -31.1573, 122.967, -151.058, 123.412, 88.8038, 0, 0, 6.47849, -54.2312, 6.46371, -174.132, 6.44042, 65.7299, 0.0463636, 95.1929
0, 2700.00000, 122.687, -31.1573, 122.967, -151.058, 123.412, 88.8038, 0, 0, 6.47849, -54.2312, 6.46371, -174.132, 6.44042, 65.7299, 0.0463636, 95.1929
0, 2760.00000, 122.687, -31.1573, 122.967, -151.058, 123.412, 88.8038, 0, 0, 6.47849, -54.2312, 6.46371, -174.132, 6.44042, 65.7299, 0.0463636, 95.1929
0, 2820.00000, 122.687, -31.1573, 122.967, -151.058, 123.412, 88.8038, 0, 0, 6.47849, -54.2312, 6.46371, -174.132, 6.44042, 65.7299, 0.0463636, 95.1929
0, 2880.00000, 122.687, -31.1573, 122.967, -151.058, 123.412, 88.8038, 0, 0, 6.47849, -54.2312, 6.46371, -174.132, 6.44042, 65.7299, 0.0463636, 95.1929
0, 2940.00000, 122.687, -31.1573, 122.967, -151.058, 123.412, 88.8038, 0, 0, 6.47849, -54.2312, 6.46371, -174.132, 6.44042, 65.7299, 0.0463636, 95.1929
0, 3000.00000, 122.687, -31.1573, 122.967, -151.058, 123.412, 88.8038, 0, 0, 6.47849, -54.2312, 6.46371, -174.132, 6.44042, 65.7299, 0.0463636, 95.1929
0, 3060.00000, 122.687, -31.1573, 122.967, -151.058, 123.412, 88.8038, 0, 0, 6.47849, -54.2312, 6.46371, -174.132, 6.44042, 65.7299, 0.0463636, 95.1929
0, 3120.00000, 122.687, -31.1573, 122.967, -151.058, 123.412, 88.8038, 0, 0, 6.47849, -54.2312, 6.46371, -174.132, 6.44042, 65.7299, 0.0463636, 95.1929
0, 3180.00000, 122.687, -31.1573, 122.967, -151.058, 123.412, 88.8038, 0, 0, 6.47849, -54.2312, 6.46371, -174.132, 6.44042, 65.7299, 0.0463636, 95.1929
0, 3240.00000, 122.687, -31.1573, 122.967, -151.058, 123.412, 88.8038, 0, 0, 6.47849, -54.2312, 6.46371, -174.132, 6.44042, 65.7299, 0.0463636, 95.1929
0, 3300.00000, 122.687, -31.1573, 122.967, -151.058, 123.412, 88.8038, 0, 0, 6.47849, -54.2312, 6.46371, -174.132, 6.44042, 65.7299, 0.0463636, 95.1929
0, 3360.00000, 122.687, -31.1573, 122.967, -151.058, 123.412, 88.8038, 0, 0, 6.47849, -54.2312, 6.46371, -174.132, 6.44042, 65.7299, 0.0463636, 95.1929
0, 3420.00000, 122.687, -31.1573, 122.967, -151.058, 123.412, 88.8038, 0, 0, 6.47849, -54.2312, 6.46371, -174.132, 6.44042, 65.7299, 0.0463636, 95.1929
0, 3480.00000, 122.687, -31.1573, 122.967, -151.058, 123.412, 88.8038, 0, 0, 6.47849, -54.2312, 6.46371, -174.132, 6.44042, 65.7299, 0.0463636, 95.1929
0, 3540.00000, 122.687, -31.1573, 122.967, -151.058, 123.412, 88.8038, 0, 0, 6.47849, -54.2312, 6.46371, -174.132, 6.44042, 65.7299, 0.0463636, 95.1929
1, 0.00000, 122.687, -31.1573, 122.967, -151.058, 123.412, 88.8038, 0, 0, 6.47849, -54.2312, 6.46371, -174.132, 6.44042, 65.7299, 0.0463636, 95.1929
1, 60.00000, 122.687, -31.1573, 122.967, -151.058, 123.412, 88.8038, 0, 0, 6.47849, -54.2312, 6.46371, -174.132, 6.44042, 65.7299, 0.0463636, 95.1929
1, 120.00000, 122.687, -31.1573, 122.967, -151.058, 123.412, 88.8038, 0, 0, 6.47849, -54.2312, 6.46371, -174.132, 6.44042, 65.7299, 0.0463636, 95.1929
1, 180.00000, 122.687, -31.1573, 122.967, -151.058, 123.412, 88.8038, 0, 0, 6.47849, -54.2312, 6.46371, -174.132, 6.44042, 65.7299, 0.0463636, 95.1929
1, 240.00000, 122.687, -31.1573, 122.967, -151.058, 123.412, 88.8038, 0, 0, 6.47849, -54.2312, 6.46371, -174.132, 6.44042, 65.7299, 0.0463636, 95.1929
1, 300.00000, 122.687, -31.1573, 122.967, -151.058, 123.412, 88.8038, 0, 0, 6.47849, -54.2312, 6.46371, -174.132, 6.44042, 65.7299, 0.0463636, 95.1929
1, 360.00000, 122.687, -31.1573, 122.967, -151.058, 123.412, 88.8038, 0, 0, 6.47849, -54.2312, 6.46371, -174.132, 6.44042, 65.7299, 0.0463636, 95.1929
1, 420.00000, 122.687, -31.1573, 122.967, -151.058, 123.412, 88.8038, 0, 0, 6.47849, -54.2312, 6.46371, -174.132, 6.44042, 65.7299, 0.0463636, 95.1929
1, 480.00000, 122.687, -31.1573, 122.967, -151.058, 123.412, 88.8038, 0, 0, 6.47849, -54.2312, 6.46371, -174.132, 6.44042, 65.7299, 0.0463636, 95.1929
1, 540.00000, 122.687, -31.1573, 122.967, -151.058, 123.412, 88.8038, 0, 0, 6.47849, -54.2312, 6.46371, -174.132, 6.44042, 65.7299, 0.0463636, 95.1929
1, 600.00000, 122.687, -31.1573, 122.967, -151.058, 123.412, 88.8038, 0, 0, 6.47849, -54.2312, 6.46371, -174.132, 6.44042, 65.7299, 0.0463636, 95.1929
1, 660.00000, 122.687, -31.1573, 122.967, -151.058, 123.412, 88.8038, 0, 0, 6.47849, -54.2312, 6.46371, -174.132, 6.44042, 65.7299, 0.0463636, 95.1929
1, 720.00000, 122.687, -31.1573, 122.967, -151.058, 123.412, 88.8038, 0, 0, 6.47849, -54.2312, 6.46371, -174.132, 6.44042, 65.7299, 0.0463636, 95.1929
1, 780.00000, 122.687, -31.1573, 122.967, -151.058, 123.412, 88.8038, 0, 0, 6.47849, -54.2312, 6.46371, -174.132, 6.44042, 65.7299, 0.0463636, 95.1929
1, 840.00000, 122.687, -31.1573, 122.967, -151.058, 123.412, 88.8038, 0, 0, 6.47849, -54.2312, 6.46371, -174.132, 6.44042, 65.7299, 0.0463636, 95.1929
1, 900.00000, 122.687, -31.1573, 122.967, -151.058, 123.412, 88.8038, 0, 0, 6.47849, -54.2312, 6.46371, -174.132, 6.44042, 65.7299, 0.0463636, 95.1929
1, 960.00000, 122.687, -31.1573, 122.967, -151.058, 123.412, 88.8038, 0, 0, 6.47849, -54.2312, 6.46371, -174.132, 6.44042, 65.7299, 0.0463636, 95.1929
1, 1020.00000, 122.687, -31.1573, 122.967, -151.058, 123.412, 88.8038, 0, 0, 6.47849, -54.2312, 6.46371, -174.132, 6.44042, 65.7299, 0.0463636, 95.1929
1, 1080.00000, 122.687, -31.1573, 122.967, -151.058, 123.412, 88.8038, 0, 0, 6.47849, -54.2312, 6.46371, -174.132, 6.44042, 65.7299, 0.0463636, 95.1929
1, 1140.00000, 122.687, -31.1573, 122.967, -151.058, 123.412, 88.8038, 0, 0, 6.47849, -54.2312, 6.46371, -174.132, 6.44042, 65.7299, 0.0463636, 95.1929
1, 1200.00000, 122.687, -31.1573, 122.967, -151.058, 123.412, 88.8038, 0, 0, 6.47849, -54.2312, 6.46371, -174.132, 6.44042, 65.7299, 0.0463636, 95.1929
1, 1260.00000, 122.687, -31.1573, 122.967, -151.058, 123.412, 88.8038, 0, 0, 6.47849, -54.2312, 6.46371, -174.132, 6.44042, 65.7299, 0.0463636, 95.1929
1, 1320.00000, 122.687, -31.1573, 122.967, -151.058, 123.412, 88.8038, 0, 0, 6.47849, -54.2312, 6.46371, -174.132, 6.44042, 65.7299, 0.0463636, 95.1929
1, 1380.00000, 122.687, -31.1573, 122.967, -151.058, 123.412, 88.8038, 0, 0, 6.47849, -54.2312, 6.46371, -174.132, 6.44042, 65.7299, 0.0463636, 95.1929
1, 1440.00000, 122.687, -31.1573, 122.967, -151.058, 123.412, 88.8038, 0, 0, 6.47849, -54.2312, 6.46371, -174.132, 6.44042, 65.7299, 0.0463636, 95.1929
1, 1500.00000, 122.687, -31.1573, 122.967, -151.058, 123.412, 88.8038, 0, 0, 6.47849, -54.2312, 6.46371, -174.132, 6.44042, 65.7299, 0.0463636, 95.1929
1, 1560.00000, 122.687, -31.1573, 122.967, -151.058, 123.412, 88.8038, 0, 0, 6.47849, -54.2312, 6.46371, -174.132, 6.44042, 65.7299, 0.0463636, 95.1929
1, 1620.00000, 122.687, -31.1573, 122.967, -151.058, 123.412, 88.8038, 0, 0, 6.47849, -54.2312, 6.46371, -174.132, 6.44042, 65.7299, 0.0463636, 95.1929
1, 1680.00000, 122.687, -31.1573, 122.967, -151.058, 123.412, 88.8038, 0, 0, 6.47849, -54.2312, 6.46371, -174.132, 6.44042, 65.7299, 0.0463636, 95.1929
1, 1740.00000, 122.687, -31.1573, 122.967, -151.058, 123.412, 88.8038, 0, 0, 6.47849, -54.2312, 6.46371, -174.132, 6.44042, 65.7299, 0.0463636, 95.1929
1, 1800.00000, 122.687, -31.1573, 122.967, -151.058, 123.412, 88.8038, 0, 0, 6.47849, -54.2312, 6.46371, -174.132, 6.44042, 65.7299, 0.0463636, 95.1929
1, 1860.00000, 122.687, -31.1573, 122.967, -151.058, 123.412, 88.8038, 0, 0, 6.47849, -54.2312, 6.46371, -174.132, 6.44042, 65.7299, 0.0463636, 95.1929
1, 1920.00000, 122.687, -31.1573, 122.967, -151.058, 123.412, 88.8038, 0, 0, 6.47849, -54.2312, 6.46371, -174.132, 6.44042, 65.7299, 0.0463636, 95.1929
1, 1980.00000, 122.687, -31.1573, 122.967, -151.058, 123.412, 88.8038, 0, 0, 6.47849, -54.2312, 6.46371, -174.132, 6.44042, 65.7299, 0.0463636, 95.1929
1, 2040.00000, 122.687, -31.1573, 122.967, -151.058, 123.412, 88.8038, 0, 0, 6.47849, -54.2312, 6.46371, -174.132, 6.44042, 65.7299, 0.0463636, 95.1929
1, 2100.00000, 122.687, -31.1573, 122.967, -151.058, 123.412, 88.8038, 0, 0, 6.47849, -54.2312, 6.46371, -174.132, 6.44042, 65.7299, 0.0463636, 95.1929
1, 2160.00000, 122.687, -31.1573, 122.967, -151.058, 123.412, 88.8038, 0, 0, 6.47849, -54.2312, 6.46371, -174.132, 6.44042, 65.7299, 0.0463636, 95.1929
1, 2220.00000, 122.687, -31.1573, 122.967, -151.058, 123.412, 88.8038, 0, 0, 6.47849, -54.2312, 6.46371, -174.132, 6.44042, 65.7299, 0.0463636, 95.1929
1, 2280.00000, 122.687, -31.1573, 122.967, -151.058, 123.412, 88.8038, 0, 0, 6.47849, -54.2312, 6.46371, -174.132, 6.44042, 65.7299, 0.0463636, 95.1929
1, 2340.00000, 122.687, -31.1573, 122.967, -151.058, 123.412, 88.8038, 0, 0, 6.47849, -54.2312, 6.46371, -174.132, 6.44042, 65.7299, 0.0463636, 95.1929
1, 2400.00000, 122.687, -31.1573, 122.967, -151.058, 123.412, 88.8038, 0, 0, 6.47849, -54.2312, 6.46371, -174.132, 6.44042, 65.7299, 0.0463636, 95.1929
1, 2460.00000, 122.687, -31.1573, 122.967, -151.058, 123.412, 88.8038, 0, 0, 6.47849, -54.2312, 6.46371, -174.132, 6.44042, 65.7299, 0.0463636, 95.1929
1, 2520.00000, 122.687, -31.1573, 122.967, -151.058, 123.412, 88.8038, 0, 0, 6.47849, -54.2312, 6.46371, -174.132, 6.44042, 65.7299, 0.0463636, 95.1929
1, 2580.00000, 122.687, -31.1573, 122.967, -151.058, 123.412, 88.8038, 0, 0, 6.47849, -54.2312, 6.46371, -174.132, 6.44042, 65.7299, 0.0463636, 95.1929
1, 2640.00000, 122.687, -31.1573, 122.967, -151.058, 123.412, 88.8038, 0, 0, 6.47849, -54.2312, 6.46371, -174.132, 6.44042, 65.7299, 0.0463636, 95.1929
1, 2700.00000, 122.687, -31.1573, 122.967, -151.058, 123.412, 88.8038, 0, 0, 6.47849, -54.2312, 6.46371, -174.132, 6.44042, 65.7299, 0.0463636, 95.1929
1, 2760.00000, 122.687, -31.1573, 122.967, -151.058, 123.412, 88.8038, 0, 0, 6.47849, -54.2312, 6.46371, -174.132, 6.44042, 65.7299, 0.0463636, 95.1929
1, 2820.00000, 122.687, -31.1573, 122.967, -151.058, 123.412, 88.8038, 0, 0, 6.47849, -54.2312, 6.46371, -174.132, 6.44042, 65.7299, 0.0463636, 95.1929
1, 2880.00000, 122.687, -31.1573, 122.967, -151.058, 123.412, 88.8038, 0, 0, 6.47849, -54.2312, 6.46371, -174.132, 6.44042, 65.7299, 0.0463636, 95.1929
1, 2940.00000, 122.687, -31.1573, 122.967, -151.058, 123.412, 88.8038, 0, 0, 6.47849, -54.2312, 6.46371, -174.132, 6.44042, 65.7299, 0.0463636, 95.1929
1, 3000.00000, 122.687, -31.1573, 122.967, -151.058, 123.412, 88.8038, 0, 0, 6.47849, -54.2312, 6.46371, -174.132, 6.44042, 65.7299, 0.0463636, 95.1929
1, 3060.00000, 122.687, -31.1573, 122.967, -151.058, 123.412, 88.8038, 0, 0, 6.47849, -54.2312, 6.46371, -174.132, 6.44042, 65.7299, 0.0463636, 95.1929
1, 3120.00000, 122.687, -31.1573, 122.967, -151.058, 123.412, 88.8038, 0, 0, 6.47849, -54.2312, 6.46371, -174.132, 6.44042, 65.7299, 0.0463636, 95.1929
1, 3180.00000, 122.687, -31.1573, 122.967, -151.058, 123.412, 88.8038, 0, 0, 6.47849, -54.2312, 6.46371, -174.132, 6.44042, 65.7299, 0.0463636, 95.1929
1, 3240.00000, 122.687, -31.1573, 122.967, -151.058, 123.412, 88.8038, 0, 0, 6.47849, -54.2312, 6.46371, -174.132, 6.44042, 65.7299, 0.0463636, 95.1929
1, 3300.00000, 122.687, -31.1573, 122.967, -151.058, 123.412, 88.8038, 0, 0, 6.47849, -54.2312, 6.46371, -174.132, 6.44042, 65.7299, 0.0463636, 95.1929
1, 3360.00000, 122.687, -31.1573, 122.967, -151.058, 123.412, 88.8038, 0, 0, 6.47849, -54.2312, 6.46371, -174.132, 6.44042, 65.7299, 0.0463636, 95.1929
1, 3420.00000, 122.687, -31.1573, 122.967, -151.058, 123.412, 88.8038, 0, 0, 6.47849, -54.2312, 6.46371, -174.132, 6.44042, 65.7299, 0.0463636, 95.1929
1, 3480.00000, 122.687, -31.1573, 122.967, -151.058, 123.412, 88.8038, 0, 0, 6.47849, -54.2312, 6.46371, -174.132, 6.44042, 65.7299, 0.0463636, 95.1929
1, 3540.00000, 122.687, -31.1573, 122.967, -151.058, 123.412, 88.8038, 0, 0, 6.47849, -54.2312, 6.46371, -174.132, 6.44042, 65.7299, 0.0463636, 95.1929
2, 0.00000, 122.687, -31.1573, 122.967, -151.058, 123.412, 88.8038, 0, 0, 6.47849, -54.2312, 6.46371, -174.132, 6.44042, 65.7299, 0.0463636, 95.1929
2, 60.00000, 122.687, -31.1573, 122.967, -151.058, 123.412, 88.8038, 0, 0, 6.47849, -54.2312, 6.46371, -174.132, 6.44042, 65.7299, 0.0463636, 95.1929
2, 120.00000, 122.687, -31.1573, 122.967, -151.058, 123.412, 88.8038, 0, 0, 6.47849, -54.2312, 6.46371, -174.132, 6.44042, 65.7299, 0.0463636, 95.1929
2, 180.00000, 122.687, -31.1573, 122.967, -151.058, 123.412, 88.8038, 0, 0, 6.47849, -54.2312, 6.46371, -174.132, 6.44042, 65.7299, 0.0463636, 95.1929
2, 240.00000, 122.687, -31.1573, 122.967, -151.058, 123.412, 88.8038, 0, 0, 6.47849, -54.2312, 6.46371, -174.132, 6.44042, 65.7299, 0.0463636, 95.1929
2, 300.00000, 122.687, -31.1573, 122.967, -151.058, 123.412, 88.8038, 0, 0, 6.47849, -54.2312, 6.46371, -174.132, 6.44042, 65.7299, 0.0463636, 95.1929
2, 360.00000, 122.687, -31.1573, 122.967, -151.058, 123.412, 88.8038, 0, 0, 6.47849, -54.2312, 6.46371, -174.132, 6.44042, 65.7299, 0.0463636, 95.1929
2, 420.00000, 122.687, -31.1573, 122.967, -151.058, 123.412, 88.8038, 0, 0, 6.47849, -54.2312, 6.46371, -174.132, 6.44042, 65.7299, 0.0463636, 95.1929
2, 480.00000, 122.687, -31.1573, 122.967, -151.058, 123.412, 88.8038, 0, 0, 6.47849, -54.2312, 6.46371, -174.132, 6.44042, 65.7299, 0.0463636, 95.1929
2, 540.00000, 122.687, -31.1573, 122.967, -151.058, 123.412, 88.8038, 0, 0, 6.47849, -54.2312, 6.46371, -174.132, 6.44042, 65.7299, 0.0463636, 95.1929
2, 600.00000, 122.687, -31.1573, 122.967, -151.058, 123.412, 88.8038, 0, 0, 6.47849, -54.2312, 6.46371, -174.132, 6.44042, 65.7299, 0.0463636, 95.1929
2, 660.00000, 122.687, -31.1573, 122.967, -151.058, 123.412, 88.8038, 0, 0, 6.47849, -54.2312, 6.46371, -174.132, 6.44042, 65.7299, 0.0463636, 95.1929
