hour,t(sec),"P1 (kW)","Q1 (kvar)","P2 (kW)","Q2 (kvar)","P3 (kW)","Q3 (kvar)","P4 (kW)","Q4 (kvar)"
0, 60.00000, 0.984921, 0.419566, 0.984188, 0.419261, 1.02916, 0.438416, 0, 0
0, 120.00000, 0.984912, 0.419571, 0.98418, 0.419259, 1.02914, 0.438413, 0, 0
0, 180.00000, 0.984912, 0.419571, 0.98418, 0.419259, 1.02914, 0.438413, 0, 0
0, 240.00000, 0.984912, 0.419571, 0.98418, 0.419259, 1.02914, 0.438413, 0, 0
0, 300.00000, 0.984912, 0.419571, 0.98418, 0.419259, 1.02914, 0.438413, 0, 0
0, 360.00000, 0.984912, 0.419571, 0.98418, 0.419259, 1.02914, 0.438413, 0, 0
0, 420.00000, 0.984912, 0.419571, 0.98418, 0.419259, 1.02914, 0.438413, 0, 0
0, 480.00000, 0.872851, 0.371851, 0.871287, 0.371153, 0.908951, 0.387225, 0, 0
0, 540.00000, 0.87285, 0.371833, 0.871287, 0.371166, 0.908898, 0.387189, 0, 0
0, 600.00000, 0.87285, 0.371832, 0.871287, 0.371167, 0.908897, 0.387188, 0, 0
0, 660.00000, 0.87285, 0.371832, 0.871287, 0.371167, 0.908897, 0.387188, 0, 0
0, 720.00000, 0.87285, 0.371832, 0.871287, 0.371167, 0.908897, 0.387188, 0, 0
0, 780.00000, 0.87285, 0.371832, 0.871287, 0.371167, 0.908897, 0.387188, 0, 0
0, 840.00000, 0.87285, 0.371832, 0.871287, 0.371167, 0.908897, 0.387188, 0, 0
0, 900.00000, 0.87285, 0.371832, 0.871287, 0.371167, 0.908897, 0.387188, 0, 0
0, 960.00000, 0.87285, 0.371832, 0.871287, 0.371167, 0.908897, 0.387188, 0, 0
0, 1020.00000, 0.87285, 0.371832, 0.871287, 0.371167, 0.908897, 0.387188, 0, 0
0, 1080.00000, 0.87285, 0.371832, 0.871287, 0.371167, 0.908897, 0.387188, 0, 0
0, 1140.00000, 0.87285, 0.371832, 0.871287, 0.371167, 0.908897, 0.387188, 0, 0
0, 1200.00000, 0.87285, 0.371832, 0.871287, 0.371167, 0.908897, 0.387188, 0, 0
0, 1260.00000, 0.87285, 0.371832, 0.871287, 0.371167, 0.908897, 0.387188, 0, 0
0, 1320.00000, 0.87285, 0.371832, 0.871287, 0.371167, 0.908897, 0.387188, 0, 0
0, 1380.00000, 0.87285, 0.371832, 0.871287, 0.371167, 0.908897, 0.387188, 0, 0
0, 1440.00000, 0.87285, 0.371832, 0.871287, 0.371167, 0.908897, 0.387188, 0, 0
0, 1500.00000, 0.87285, 0.371832, 0.871287, 0.371167, 0.908897, 0.387188, 0, 0
0, 1560.00000, 0.87285, 0.371832, 0.871287, 0.371167, 0.908897, 0.387188, 0, 0
0, 1620.00000, 0.87285, 0.371832, 0.871287, 0.371167, 0.908897, 0.387188, 0, 0
0, 1680.00000, 0.87285, 0.371832, 0.871287, 0.371167, 0.908897, 0.387188, 0, 0
0, 1740.00000, 0.87285, 0.371832, 0.871287, 0.371167, 0.908897, 0.387188, 0, 0
0, 1800.00000, 0.87285, 0.371832, 0.871287, 0.371167, 0.908897, 0.387188, 0, 0
0, 1860.00000, 0.87285, 0.371832, 0.871287, 0.371167, 0.908897, 0.387188, 0, 0
0, 1920.00000, 0.87285, 0.371832, 0.871287, 0.371167, 0.908897, 0.387188, 0, 0
0, 1980.00000, 0.87285, 0.371832, 0.871287, 0.371167, 0.908897, 0.387188, 0, 0
0, 2040.00000, 0.87285, 0.371832, 0.871287, 0.371167, 0.908897, 0.387188, 0, 0
0, 2100.00000, 0.87285, 0.371832, 0.871287, 0.371167, 0.908897, 0.387188, 0, 0
0, 2160.00000, 0.87285, 0.371832, 0.871287, 0.371167, 0.908897, 0.387188, 0, 0
0, 2220.00000, 0.87285, 0.371832, 0.871287, 0.371167, 0.908897, 0.387188, 0, 0
0, 2280.00000, 0.87285, 0.371832, 0.871287, 0.371167, 0.908897, 0.387188, 0, 0
0, 2340.00000, 0.87285, 0.371832, 0.871287, 0.371167, 0.908897, 0.387188, 0, 0
0, 2400.00000, 0.87285, 0.371832, 0.871287, 0.371167, 0.908897, 0.387188, 0, 0
0, 2460.00000, 0.87285, 0.371832, 0.871287, 0.371167, 0.908897, 0.387188, 0, 0
0, 2520.00000, 0.87285, 0.371832, 0.871287, 0.371167, 0.908897, 0.387188, 0, 0
0, 2580.00000, 0.87285, 0.371832, 0.871287, 0.371167, 0.908897, 0.387188, 0, 0
0, 2640.00000, 0.87285, 0.371832, 0.871287, 0.371167, 0.908897, 0.387188, 0, 0
0, 2700.00000, 0.87285, 0.371832, 0.871287, 0.371167, 0.908897, 0.387188, 0, 0
0, 2760.00000, 0.87285, 0.371832, 0.871287, 0.371167, 0.908897, 0.387188, 0, 0
0, 2820.00000, 0.87285, 0.371832, 0.871287, 0.371167, 0.908897, 0.387188, 0, 0
0, 2880.00000, 0.87285, 0.371832, 0.871287, 0.371167, 0.908897, 0.387188, 0, 0
0, 2940.00000, 0.87285, 0.371832, 0.871287, 0.371167, 0.908897, 0.387188, 0, 0
0, 3000.00000, 0.87285, 0.371832, 0.871287, 0.371167, 0.908897, 0.387188, 0, 0
0, 3060.00000, 0.87285, 0.371832, 0.871287, 0.371167, 0.908897, 0.387188, 0, 0
0, 3120.00000, 0.87285, 0.371832, 0.871287, 0.371167, 0.908897, 0.387188, 0, 0
0, 3180.00000, 0.87285, 0.371832, 0.871287, 0.371167, 0.908897, 0.387188, 0, 0
0, 3240.00000, 0.87285, 0.371832, 0.871287, 0.371167, 0.908897, 0.387188, 0, 0
0, 3300.00000, 0.87285, 0.371832, 0.871287, 0.371167, 0.908897, 0.387188, 0, 0
0, 3360.00000, 0.87285, 0.371832, 0.871287, 0.371167, 0.908897, 0.387188, 0, 0
0, 3420.00000, 0.87285, 0.371832, 0.871287, 0.371167, 0.908897, 0.387188, 0, 0
0, 3480.00000, 0.87285, 0.371832, 0.871287, 0.371167, 0.908897, 0.387188, 0, 0
0, 3540.00000, 0.87285, 0.371832, 0.871287, 0.371167, 0.908897, 0.387188, 0, 0
1, 0.00000, 0.87285, 0.371832, 0.871287, 0.371167, 0.908897, 0.387188, 0, 0
1, 60.00000, 0.874146, 0.372387, 0.875672, 0.373039, 0.908895, 0.387187, 0, 0
1, 120.00000, 0.87415, 0.372386, 0.875681, 0.373039, 0.908897, 0.387188, 0, 0
1, 180.00000, 0.87415, 0.372386, 0.875681, 0.373039, 0.908897, 0.387188, 0, 0
1, 240.00000, 0.87415, 0.372386, 0.875681, 0.373039, 0.908897, 0.387188, 0, 0
1, 300.00000, 0.87415, 0.372386, 0.875681, 0.373039, 0.908897, 0.387188, 0, 0
1, 360.00000, 0.87415, 0.372386, 0.875681, 0.373039, 0.908897, 0.387188, 0, 0
1, 420.00000, 0.87415, 0.372386, 0.875681, 0.373039, 0.908897, 0.387188, 0, 0
1, 480.00000, 0.87415, 0.372386, 0.875681, 0.373039, 0.908897, 0.387188, 0, 0
1, 540.00000, 0.87415, 0.372386, 0.875681, 0.373039, 0.908897, 0.387188, 0, 0
1, 600.00000, 0.87415, 0.372386, 0.875681, 0.373039, 0.908897, 0.387188, 0, 0
1, 660.00000, 0.87415, 0.372386, 0.875681, 0.373039, 0.908897, 0.387188, 0, 0
1, 720.00000, 0.87415, 0.372386, 0.875681, 0.373039, 0.908897, 0.387188, 0, 0
1, 780.00000, 0.87415, 0.372386, 0.875681, 0.373039, 0.908897, 0.387188, 0, 0
1, 840.00000, 0.87415, 0.372386, 0.875681, 0.373039, 0.908897, 0.387188, 0, 0
1, 900.00000, 0.87415, 0.372386, 0.875681, 0.373039, 0.908897, 0.387188, 0, 0
1, 960.00000, 0.87415, 0.372386, 0.875681, 0.373039, 0.908897, 0.387188, 0, 0
1, 1020.00000, 0.87415, 0.372386, 0.875681, 0.373039, 0.908897, 0.387188, 0, 0
1, 1080.00000, 0.87415, 0.372386, 0.875681, 0.373039, 0.908897, 0.387188, 0, 0
1, 1140.00000, 0.87415, 0.372386, 0.875681, 0.373039, 0.908897, 0.387188, 0, 0
1, 1200.00000, 0.87415, 0.372386, 0.875681, 0.373039, 0.908897, 0.387188, 0, 0
1, 1260.00000, 0.87415, 0.372386, 0.875681, 0.373039, 0.908897, 0.387188, 0, 0
1, 1320.00000, 0.87415, 0.372386, 0.875681, 0.373039, 0.908897, 0.387188, 0, 0
1, 1380.00000, 0.87415, 0.372386, 0.875681, 0.373039, 0.908897, 0.387188, 0, 0
1, 1440.00000, 0.87415, 0.372386, 0.875681, 0.373039, 0.908897, 0.387188, 0, 0
1, 1500.00000, 0.87415, 0.372386, 0.875681, 0.373039, 0.908897, 0.387188, 0, 0
1, 1560.00000, 0.87415, 0.372386, 0.875681, 0.373039, 0.908897, 0.387188, 0, 0
1, 1620.00000, 0.87415, 0.372386, 0.875681, 0.373039, 0.908897, 0.387188, 0, 0
1, 1680.00000, 0.87415, 0.372386, 0.875681, 0.373039, 0.908897, 0.387188, 0, 0
1, 1740.00000, 0.87415, 0.372386, 0.875681, 0.373039, 0.908897, 0.387188, 0, 0
1, 1800.00000, 0.87415, 0.372386, 0.875681, 0.373039, 0.908897, 0.387188, 0, 0
1, 1860.00000, 0.87415, 0.372386, 0.875681, 0.373039, 0.908897, 0.387188, 0, 0
1, 1920.00000, 0.87415, 0.372386, 0.875681, 0.373039, 0.908897, 0.387188, 0, 0
1, 1980.00000, 0.87415, 0.372386, 0.875681, 0.373039, 0.908897, 0.387188, 0, 0
1, 2040.00000, 0.87415, 0.372386, 0.875681, 0.373039, 0.908897, 0.387188, 0, 0
1, 2100.00000, 0.87415, 0.372386, 0.875681, 0.373039, 0.908897, 0.387188, 0, 0
1, 2160.00000, 0.87415, 0.372386, 0.875681, 0.373039, 0.908897, 0.387188, 0, 0
1, 2220.00000, 0.87415, 0.372386, 0.875681, 0.373039, 0.908897, 0.387188, 0, 0
1, 2280.00000, 0.87415, 0.372386, 0.875681, 0.373039, 0.908897, 0.387188, 0, 0
1, 2340.00000, 0.87415, 0.372386, 0.875681, 0.373039, 0.908897, 0.387188, 0, 0
1, 2400.00000, 0.87415, 0.372386, 0.875681, 0.373039, 0.908897, 0.387188, 0, 0
1, 2460.00000, 0.87415, 0.372386, 0.875681, 0.373039, 0.908897, 0.387188, 0, 0
1, 2520.00000, 0.87415, 0.372386, 0.875681, 0.373039, 0.908897, 0.387188, 0, 0
1, 2580.00000, 0.87415, 0.372386, 0.875681, 0.373039, 0.908897, 0.387188, 0, 0
1, 2640.00000, 0.87415, 0.372386, 0.875681, 0.373039, 0.908897, 0.387188, 0, 0
1, 2700.00000, 0.87415, 0.372386, 0.875681, 0.373039, 0.908897, 0.387188, 0, 0
1, 2760.00000, 0.87415, 0.372386, 0.875681, 0.373039, 0.908897, 0.387188, 0, 0
1, 2820.00000, 0.87415, 0.372386, 0.875681, 0.373039, 0.908897, 0.387188, 0, 0
1, 2880.00000, 0.87415, 0.372386, 0.875681, 0.373039, 0.908897, 0.387188, 0, 0
1, 2940.00000, 0.87415, 0.372386, 0.875681, 0.373039, 0.908897, 0.387188, 0, 0
1, 3000.00000, 0.87415, 0.372386, 0.875681, 0.373039, 0.908897, 0.387188, 0, 0
1, 3060.00000, 0.87415, 0.372386, 0.875681, 0.373039, 0.908897, 0.387188, 0, 0
1, 3120.00000, 0.87415, 0.372386, 0.875681, 0.373039, 0.908897, 0.387188, 0, 0
1, 3180.00000, 0.87415, 0.372386, 0.875681, 0.373039, 0.908897, 0.387188, 0, 0
1, 3240.00000, 0.87415, 0.372386, 0.875681, 0.373039, 0.908897, 0.387188, 0, 0
1, 3300.00000, 0.87415, 0.372386, 0.875681, 0.373039, 0.908897, 0.387188, 0, 0
1, 3360.00000, 0.87415, 0.372386, 0.875681, 0.373039, 0.908897, 0.387188, 0, 0
1, 3420.00000, 0.87415, 0.372386, 0.875681, 0.373039, 0.908897, 0.387188, 0, 0
1, 3480.00000, 0.87415, 0.372386, 0.875681, 0.373039, 0.908897, 0.387188, 0, 0
1, 3540.00000, 0.87415, 0.372386, 0.875681, 0.373039, 0.908897, 0.387188, 0, 0
2, 0.00000, 0.87415, 0.372386, 0.875681, 0.373039, 0.908897, 0.387188, 0, 0
2, 60.00000, 0.87415, 0.372386, 0.875681, 0.373039, 0.908897, 0.387188, 0, 0
2, 120.00000, 0.87415, 0.372386, 0.875681, 0.373039, 0.908897, 0.387188, 0, 0
2, 180.00000, 0.87415, 0.372386, 0.875681, 0.373039, 0.908897, 0.387188, 0, 0
2, 240.00000, 0.87415, 0.372386, 0.875681, 0.373039, 0.908897, 0.387188, 0, 0
2, 300.00000, 0.87415, 0.372386, 0.875681, 0.373039, 0.908897, 0.387188, 0, 0
2, 360.00000, 0.87415, 0.372386, 0.875681, 0.373039, 0.908897, 0.387188, 0, 0
2, 420.00000, 0.87415, 0.372386, 0.875681, 0.373039, 0.908897, 0.387188, 0, 0
2, 480.00000, 0.87415, 0.372386, 0.875681, 0.373039, 0.908897, 0.387188, 0, 0
2, 540.00000, 0.87415, 0.372386, 0.875681, 0.373039, 0.908897, 0.387188, 0, 0
2, 600.00000, 0.87415, 0.372386, 0.875681, 0.373039, 0.908897, 0.387188, 0, 0
2, 660.00000, 0.87415, 0.372386, 0.875681, 0.373039, 0.908897, 0.387188, 0, 0
2, 720.00000, 0.87415, 0.372386, 0.875681, 0.373039, 0.908897, 0.387188, 0, 0
2, 780.00000, 0.87415, 0.372386, 0.875681, 0.373039, 0.908897, 0.387188, 0, 0
2, 840.00000, 0.87415, 0.372386, 0.875681, 0.373039, 0.908897, 0.387188, 0, 0
2, 900.00000, 0.87415, 0.372386, 0.875681, 0.373039, 0.908897, 0.387188, 0, 0
2, 960.00000, 0.87415, 0.372386, 0.875681, 0.373039, 0.908897, 0.387188, 0, 0
2, 1020.00000, 0.87415, 0.372386, 0.875681, 0.373039, 0.908897, 0.387188, 0, 0
2, 1080.00000, 0.87415, 0.372386, 0.875681, 0.373039, 0.908897, 0.387188, 0, 0
2, 1140.00000, 0.87415, 0.372386, 0.875681, 0.373039, 0.908897, 0.387188, 0, 0
2, 1200.00000, 0.87415, 0.372386, 0.875681, 0.373039, 0.908897, 0.387188, 0, 0
2, 1260.00000, 0.87415, 0.372386, 0.875681, 0.373039, 0.908897, 0.387188, 0, 0
2, 1320.00000, 0.87415, 0.372386, 0.875681, 0.373039, 0.908897, 0.387188, 0, 0
2, 1380.00000, 0.87415, 0.372386, 0.875681, 0.373039, 0.908897, 0.387188, 0, 0
2, 1440.00000, 0.87415, 0.372386, 0.875681, 0.373039, 0.908897, 0.387188, 0, 0
2, 1500.00000, 0.87415, 0.372386, 0.875681, 0.373039, 0.908897, 0.387188, 0, 0
2, 1560.00000, 0.87415, 0.372386, 0.875681, 0.373039, 0.908897, 0.387188, 0, 0
2, 1620.00000, 0.87415, 0.372386, 0.875681, 0.373039, 0.908897, 0.387188, 0, 0
2, 1680.00000, 0.87415, 0.372386, 0.875681, 0.373039, 0.908897, 0.387188, 0, 0
2, 1740.00000, 0.87415, 0.372386, 0.875681, 0.373039, 0.908897, 0.387188, 0, 0
2, 1800.00000, 0.87415, 0.372386, 0.875681, 0.373039, 0.908897, 0.387188, 0, 0
2, 1860.00000, 0.87415, 0.372386, 0.875681, 0.373039, 0.908897, 0.387188, 0, 0
2, 1920.00000, 0.87415, 0.372386, 0.875681, 0.373039, 0.908897, 0.387188, 0, 0
2, 1980.00000, 0.87415, 0.372386, 0.875681, 0.373039, 0.908897, 0.387188, 0, 0
2, 2040.00000, 0.87415, 0.372386, 0.875681, 0.373039, 0.908897, 0.387188, 0, 0
2, 2100.00000, 0.87415, 0.372386, 0.875681, 0.373039, 0.908897, 0.387188, 0, 0
2, 2160.00000, 0.87415, 0.372386, 0.875681, 0.373039, 0.908897, 0.387188, 0, 0
2, 2220.00000, 0.87415, 0.372386, 0.875681, 0.373039, 0.908897, 0.387188, 0, 0
2, 2280.00000, 0.87415, 0.372386, 0.875681, 0.373039, 0.908897, 0.387188, 0, 0
2, 2340.00000, 0.87415, 0.372386, 0.875681, 0.373039, 0.908897, 0.387188, 0, 0
2, 2400.00000, 0.897572, 0.382365, 0.900213, 0.383501, 0.90888, 0.38718, 0, 0
2, 2460.00000, 0.897592, 0.382373, 0.900244, 0.383502, 0.908896, 0.387188, 0, 0
2, 2520.00000, 0.897592, 0.382373, 0.900244, 0.383502, 0.908897, 0.387188, 0, 0
2, 2580.00000, 0.897592, 0.382373, 0.900244, 0.383502, 0.908897, 0.387188, 0, 0
2, 2640.00000, 0.897592, 0.382373, 0.900244, 0.383502, 0.908897, 0.387188, 0, 0
2, 2700.00000, 0.897107, 0.382162, 0.894418, 0.381025, 0.900731, 0.383702, 0, 0
2, 2760.00000, 0.897112, 0.382168, 0.894415, 0.381019, 0.900707, 0.3837, 0, 0
2, 2820.00000, 0.897112, 0.382168, 0.894415, 0.381019, 0.900707, 0.3837, 0, 0
2, 2880.00000, 0.897112, 0.382168, 0.894415, 0.381019, 0.900707, 0.3837, 0, 0
2, 2940.00000, 0.897112, 0.382168, 0.894415, 0.381019, 0.900707, 0.3837, 0, 0
2, 3000.00000, 0.897112, 0.382168, 0.894415, 0.381019, 0.900707, 0.3837, 0, 0
2, 3060.00000, 0.898584, 0.382799, 0.899055, 0.383003, 0.900628, 0.383666, 0, 0
2, 3120.00000, 0.898592, 0.382798, 0.899073, 0.383004, 0.900622, 0.383663, 0, 0
2, 3180.00000, 0.898592, 0.382798, 0.899073, 0.383004, 0.900622, 0.383663, 0, 0
2, 3240.00000, 0.898592, 0.382798, 0.899073, 0.383004, 0.900622, 0.383663, 0, 0
2, 3300.00000, 0.898592, 0.382798, 0.899073, 0.383004, 0.900622, 0.383663, 0, 0
2, 3360.00000, 0.898592, 0.382798, 0.899073, 0.383004, 0.900622, 0.383663, 0, 0
2, 3420.00000, 0.898592, 0.382798, 0.899073, 0.383004, 0.900622, 0.383663, 0, 0
2, 3480.00000, 0.898592, 0.382798, 0.899073, 0.383004, 0.900622, 0.383663, 0, 0
2, 3540.00000, 0.898592, 0.382798, 0.899073, 0.383004, 0.900622, 0.383663, 0, 0
3, 0.00000, 0.898592, 0.382798, 0.899073, 0.383004, 0.900622, 0.383663, 0, 0
3, 60.00000, 0.898592, 0.382798, 0.899073, 0.383004, 0.900622, 0.383663, 0, 0
3, 120.00000, 0.898592, 0.382798, 0.899073, 0.383004, 0.900622, 0.383663, 0, 0
3, 180.00000, 0.898592, 0.382798, 0.899073, 0.383004, 0.900622, 0.383663, 0, 0
3, 240.00000, 0.898592, 0.382798, 0.899073, 0.383004, 0.900622, 0.383663, 0, 0
3, 300.00000, 0.898592, 0.382798, 0.899073, 0.383004, 0.900622, 0.383663, 0, 0
3, 360.00000, 0.898592, 0.382798, 0.899073, 0.383004, 0.900622, 0.383663, 0, 0
3, 420.00000, 0.898592, 0.382798, 0.899073, 0.383004, 0.900622, 0.383663, 0, 0
3, 480.00000, 0.898592, 0.382798, 0.899073, 0.383004, 0.900622, 0.383663, 0, 0
3, 540.00000, 0.898592, 0.382798, 0.899073, 0.383004, 0.900622, 0.383663, 0, 0
3, 600.00000, 0.898592, 0.382798, 0.899073, 0.383004, 0.900622, 0.383663, 0, 0
3, 660.00000, 0.898592, 0.382798, 0.899073, 0.383004, 0.900622, 0.383663, 0, 0
3, 720.00000, 0.898592, 0.382798, 0.899073, 0.383004, 0.900622, 0.383663, 0, 0
3, 780.00000, 0.898592, 0.382798, 0.899073, 0.383004, 0.900622, 0.383663, 0, 0
3, 840.00000, 0.898592, 0.382798, 0.899073, 0.383004, 0.900622, 0.383663, 0, 0
3, 900.00000, 0.898592, 0.382798, 0.899073, 0.383004, 0.900622, 0.383663, 0, 0
3, 960.00000, 0.898592, 0.382798, 0.899073, 0.383004, 0.900622, 0.383663, 0, 0
3, 1020.00000, 0.898592, 0.382798, 0.899073, 0.383004, 0.900622, 0.383663, 0, 0
3, 1080.00000, 0.898592, 0.382798, 0.899073, 0.383004, 0.900622, 0.383663, 0, 0
3, 1140.00000, 0.898592, 0.382798, 0.899073, 0.383004, 0.900622, 0.383663, 0, 0
3, 1200.00000, 0.898592, 0.382798, 0.899073, 0.383004, 0.900622, 0.383663, 0, 0
3, 1260.00000, 0.898592, 0.382798, 0.899073, 0.383004, 0.900622, 0.383663, 0, 0
3, 1320.00000, 0.898592, 0.382798, 0.899073, 0.383004, 0.900622, 0.383663, 0, 0
3, 1380.00000, 0.898592, 0.382798, 0.899073, 0.383004, 0.900622, 0.383663, 0, 0
3, 1440.00000, 0.898592, 0.382798, 0.899073, 0.383004, 0.900622, 0.383663, 0, 0
3, 1500.00000, 0.898592, 0.382798, 0.899073, 0.383004, 0.900622, 0.383663, 0, 0
3, 1560.00000, 0.898592, 0.382798, 0.899073, 0.383004, 0.900622, 0.383663, 0, 0
3, 1620.00000, 0.898592, 0.382798, 0.899073, 0.383004, 0.900622, 0.383663, 0, 0
3, 1680.00000, 0.898592, 0.382798, 0.899073, 0.383004, 0.900622, 0.383663, 0, 0
3, 1740.00000, 0.898592, 0.382798, 0.899073, 0.383004, 0.900622, 0.383663, 0, 0
3, 1800.00000, 0.898592, 0.382798, 0.899073, 0.383004, 0.900622, 0.383663, 0, 0
3, 1860.00000, 0.898592, 0.382798, 0.899073, 0.383004, 0.900622, 0.383663, 0, 0
3, 1920.00000, 0.898592, 0.382798, 0.899073, 0.383004, 0.900622, 0.383663, 0, 0
3, 1980.00000, 0.898592, 0.382798, 0.899073, 0.383004, 0.900622, 0.383663, 0, 0
3, 2040.00000, 0.898592, 0.382798, 0.899073, 0.383004, 0.900622, 0.383663, 0, 0
3, 2100.00000, 0.898592, 0.382798, 0.899073, 0.383004, 0.900622, 0.383663, 0, 0
3, 2160.00000, 0.898592, 0.382798, 0.899073, 0.383004, 0.900622, 0.383663, 0, 0
3, 2220.00000, 0.898592, 0.382798, 0.899073, 0.383004, 0.900622, 0.383663, 0, 0
3, 2280.00000, 0.898592, 0.382798, 0.899073, 0.383004, 0.900622, 0.383663, 0, 0
3, 2340.00000, 0.898592, 0.382798, 0.899073, 0.383004, 0.900622, 0.383663, 0, 0
3, 2400.00000, 0.898592, 0.382798, 0.899073, 0.383004, 0.900622, 0.383663, 0, 0
3, 2460.00000, 0.898592, 0.382798, 0.899073, 0.383004, 0.900622, 0.383663, 0, 0
3, 2520.00000, 0.898592, 0.382798, 0.899073, 0.383004, 0.900622, 0.383663, 0, 0
3, 2580.00000, 0.898592, 0.382798, 0.899073, 0.383004, 0.900622, 0.383663, 0, 0
3, 2640.00000, 0.898592, 0.382798, 0.899073, 0.383004, 0.900622, 0.383663, 0, 0
3, 2700.00000, 0.898592, 0.382798, 0.899073, 0.383004, 0.900622, 0.383663, 0, 0
3, 2760.00000, 0.898592, 0.382798, 0.899073, 0.383004, 0.900622, 0.383663, 0, 0
3, 2820.00000, 0.898592, 0.382798, 0.899073, 0.383004, 0.900622, 0.383663, 0, 0
3, 2880.00000, 0.898592, 0.382798, 0.899073, 0.383004, 0.900622, 0.383663, 0, 0
3, 2940.00000, 0.898592, 0.382798, 0.899073, 0.383004, 0.900622, 0.383663, 0, 0
3, 3000.00000, 0.898592, 0.382798, 0.899073, 0.383004, 0.900622, 0.383663, 0, 0
3, 3060.00000, 0.898592, 0.382798, 0.899073, 0.383004, 0.900622, 0.383663, 0, 0
3, 3120.00000, 0.898592, 0.382798, 0.899073, 0.383004, 0.900622, 0.383663, 0, 0
3, 3180.00000, 0.946418, 0.403169, 0.947226, 0.403515, 0.948871, 0.404216, 0, 0
3, 3240.00000, 0.94641, 0.403169, 0.947221, 0.403514, 0.948868, 0.404216, 0, 0
3, 3300.00000, 0.94641, 0.403169, 0.947221, 0.403514, 0.948868, 0.404216, 0, 0
3, 3360.00000, 0.94641, 0.403169, 0.947221, 0.403514, 0.948868, 0.404216, 0, 0
3, 3420.00000, 0.94641, 0.403169, 0.947221, 0.403514, 0.948868, 0.404216, 0, 0
3, 3480.00000, 0.94641, 0.403169, 0.947221, 0.403514, 0.948868, 0.404216, 0, 0
3, 3540.00000, 0.94641, 0.403169, 0.947221, 0.403514, 0.948868, 0.404216, 0, 0
4, 0.00000, 0.94641, 0.403169, 0.947221, 0.403514, 0.948868, 0.404216, 0, 0
4, 60.00000, 0.94641, 0.403169, 0.947221, 0.403514, 0.948868, 0.404216, 0, 0
4, 120.00000, 0.94641, 0.403169, 0.947221, 0.403514, 0.948868, 0.404216, 0, 0
4, 180.00000, 0.94641, 0.403169, 0.947221, 0.403514, 0.948868, 0.404216, 0, 0
4, 240.00000, 0.94641, 0.403169, 0.947221, 0.403514, 0.948868, 0.404216, 0, 0
4, 300.00000, 0.94641, 0.403169, 0.947221, 0.403514, 0.948868, 0.404216, 0, 0
4, 360.00000, 0.94641, 0.403169, 0.947221, 0.403514, 0.948868, 0.404216, 0, 0
4, 420.00000, 0.94641, 0.403169, 0.947221, 0.403514, 0.948868, 0.404216, 0, 0
4, 480.00000, 0.94641, 0.403169, 0.947221, 0.403514, 0.948868, 0.404216, 0, 0
4, 540.00000, 0.94641, 0.403169, 0.947221, 0.403514, 0.948868, 0.404216, 0, 0
4, 600.00000, 0.94641, 0.403169, 0.947221, 0.403514, 0.948868, 0.404216, 0, 0
4, 660.00000, 0.94641, 0.403169, 0.947221, 0.403514, 0.948868, 0.404216, 0, 0
4, 720.00000, 0.94641, 0.403169, 0.947221, 0.403514, 0.948868, 0.404216, 0, 0
