hour,t(sec),V1,VAngle1,V2,VAngle2,V3,VAngle3,V4,VAngle4,I1,IAngle1,I2,IAngle2,I3,IAngle3,I4,IAngle4
0, 60.00000, 121.521, -32.0619, 121.056, -151.43, 122.943, 88.4512, 0, 0, 3.22403, -55.1354, 3.23641, -174.504, 3.18673, 65.3775, 0.0773842, 48.9347
0, 120.00000, 121.521, -32.0619, 121.056, -151.43, 122.943, 88.4512, 0, 0, 3.22408, -55.1359, 3.23646, -174.504, 3.18677, 65.3773, 0.0774112, 48.9343
0, 180.00000, 121.521, -32.0619, 121.056, -151.43, 122.943, 88.4512, 0, 0, 3.22408, -55.1359, 3.23646, -174.504, 3.18678, 65.3773, 0.0774113, 48.9343
0, 240.00000, 121.521, -32.0619, 121.056, -151.43, 122.943, 88.4512, 0, 0, 3.22408, -55.1359, 3.23646, -174.504, 3.18678, 65.3773, 0.0774113, 48.9343
0, 300.00000, 121.521, -32.0619, 121.056, -151.43, 122.943, 88.4512, 0, 0, 3.22408, -55.1359, 3.23646, -174.504, 3.18678, 65.3773, 0.0774113, 48.9343
0, 360.00000, 121.521, -32.0619, 121.056, -151.43, 122.943, 88.4512, 0, 0, 3.22408, -55.1359, 3.23646, -174.504, 3.18678, 65.3773, 0.0774113, 48.9343
0, 420.00000, 121.521, -32.0619, 121.056, -151.43, 122.943, 88.4512, 0, 0, 3.22408, -55.1359, 3.23646, -174.504, 3.18678, 65.3773, 0.0774113, 48.9343
0, 480.00000, 122.124, -31.9338, 121.62, -151.309, 123.501, 88.5835, 0, 0, 2.8988, -55.0083, 2.91081, -174.383, 2.86647, 65.5094, 0.0689228, 47.895
0, 540.00000, 122.124, -31.9338, 121.62, -151.309, 123.501, 88.5835, 0, 0, 2.89875, -55.0077, 2.91076, -174.383, 2.86643, 65.5096, 0.0688952, 47.8888
0, 600.00000, 122.124, -31.9338, 121.62, -151.309, 123.501, 88.5835, 0, 0, 2.89875, -55.0077, 2.91076, -174.383, 2.86643, 65.5096, 0.0688951, 47.8888
0, 660.00000, 122.124, -31.9338, 121.62, -151.309, 123.501, 88.5835, 0, 0, 2.89875, -55.0077, 2.91076, -174.383, 2.86643, 65.5096, 0.0688951, 47.8888
0, 720.00000, 122.124, -31.9338, 121.62, -151.309, 123.501, 88.5835, 0, 0, 2.89875, -55.0077, 2.91076, -174.383, 2.86643, 65.5096, 0.0688951, 47.8888
0, 780.00000, 122.124, -31.9338, 121.62, -151.309, 123.501, 88.5835, 0, 0, 2.89875, -55.0077, 2.91076, -174.383, 2.86643, 65.5096, 0.0688951, 47.8888
0, 840.00000, 122.124, -31.9338, 121.62, -151.309, 123.501, 88.5835, 0, 0, 2.89875, -55.0077, 2.91076, -174.383, 2.86643, 65.5096, 0.0688951, 47.8888
0, 900.00000, 122.124, -31.9338, 121.62, -151.309, 123.501, 88.5835, 0, 0, 2.89875, -55.0077, 2.91076, -174.383, 2.86643, 65.5096, 0.0688951, 47.8888
0, 960.00000, 121.621, -31.939, 121.482, -151.449, 122.9, 88.3822, 0, 0, 2.91068, -55.0122, 2.91406, -174.523, 2.88039, 65.3085, 0.0539091, 58.0336
0, 1020.00000, 121.62, -31.9391, 121.482, -151.449, 122.9, 88.3822, 0, 0, 2.91075, -55.013, 2.91407, -174.523, 2.88045, 65.3083, 0.0539179, 58.0906
0, 1080.00000, 121.62, -31.9391, 121.482, -151.449, 122.9, 88.3822, 0, 0, 2.91075, -55.013, 2.91407, -174.523, 2.88045, 65.3083, 0.0539179, 58.0909
0, 1140.00000, 122.112, -31.9312, 121.48, -151.448, 123.151, 88.5664, 0, 0, 2.89909, -55.0057, 2.91412, -174.522, 2.87459, 65.4925, 0.0591988, 39.338
0, 1200.00000, 122.112, -31.9312, 121.48, -151.448, 123.151, 88.5664, 0, 0, 2.89904, -55.0051, 2.91412, -174.522, 2.87457, 65.4925, 0.0591885, 39.2994
0, 1260.00000, 122.112, -31.9312, 121.48, -151.448, 123.151, 88.5664, 0, 0, 2.89904, -55.0051, 2.91412, -174.522, 2.87457, 65.4925, 0.0591884, 39.2993
0, 1320.00000, 122.112, -31.9312, 121.48, -151.448, 123.151, 88.5664, 0, 0, 2.89904, -55.0051, 2.91412, -174.522, 2.87457, 65.4925, 0.0591884, 39.2993
0, 1380.00000, 122.112, -31.9312, 121.48, -151.448, 123.151, 88.5664, 0, 0, 2.89904, -55.0051, 2.91412, -174.522, 2.87457, 65.4925, 0.0591884, 39.2993
0, 1440.00000, 122.112, -31.9312, 121.48, -151.448, 123.151, 88.5664, 0, 0, 2.89904, -55.0051, 2.91412, -174.522, 2.87457, 65.4925, 0.0591884, 39.2993
0, 1500.00000, 122.112, -31.9312, 121.48, -151.448, 123.151, 88.5664, 0, 0, 2.89904, -55.0051, 2.91412, -174.522, 2.87457, 65.4925, 0.0591884, 39.2993
0, 1560.00000, 122.112, -31.9312, 121.48, -151.448, 123.151, 88.5664, 0, 0, 2.89904, -55.0051, 2.91412, -174.522, 2.87457, 65.4925, 0.0591884, 39.2993
0, 1620.00000, 122.112, -31.9312, 121.48, -151.448, 123.151, 88.5664, 0, 0, 2.89904, -55.0051, 2.91412, -174.522, 2.87457, 65.4925, 0.0591884, 39.2993
0, 1680.00000, 122.112, -31.9312, 121.48, -151.448, 123.151, 88.5664, 0, 0, 2.89904, -55.0051, 2.91412, -174.522, 2.87457, 65.4925, 0.0591884, 39.2993
0, 1740.00000, 122.112, -31.9312, 121.48, -151.448, 123.151, 88.5664, 0, 0, 2.89904, -55.0051, 2.91412, -174.522, 2.87457, 65.4925, 0.0591884, 39.2993
0, 1800.00000, 121.994, -32.0651, 121.166, -151.47, 123.159, 88.5637, 0, 0, 2.90182, -55.1389, 2.92165, -174.544, 2.8744, 65.4898, 0.0719375, 37.195
0, 1860.00000, 121.994, -32.0651, 121.166, -151.47, 123.159, 88.5637, 0, 0, 2.90184, -55.139, 2.92167, -174.544, 2.87439, 65.4898, 0.0719593, 37.1954
0, 1920.00000, 121.994, -32.0651, 121.166, -151.47, 123.159, 88.5637, 0, 0, 2.90184, -55.139, 2.92167, -174.544, 2.87439, 65.4898, 0.0719593, 37.1954
0, 1980.00000, 121.994, -32.0651, 121.166, -151.47, 123.159, 88.5637, 0, 0, 2.90184, -55.139, 2.92167, -174.544, 2.87439, 65.4898, 0.0719593, 37.1954
0, 2040.00000, 121.994, -32.0651, 121.166, -151.47, 123.159, 88.5637, 0, 0, 2.90184, -55.139, 2.92167, -174.544, 2.87439, 65.4898, 0.0719593, 37.1954
0, 2100.00000, 121.994, -32.0651, 121.166, -151.47, 123.159, 88.5637, 0, 0, 2.90184, -55.139, 2.92167, -174.544, 2.87439, 65.4898, 0.0719593, 37.1954
0, 2160.00000, 121.994, -32.0651, 121.166, -151.47, 123.159, 88.5637, 0, 0, 2.90184, -55.139, 2.92167, -174.544, 2.87439, 65.4898, 0.0719593, 37.1954
0, 2220.00000, 121.994, -32.0651, 121.166, -151.47, 123.159, 88.5637, 0, 0, 2.90184, -55.139, 2.92167, -174.544, 2.87439, 65.4898, 0.0719593, 37.1954
0, 2280.00000, 121.994, -32.0651, 121.166, -151.47, 123.159, 88.5637, 0, 0, 2.90184, -55.139, 2.92167, -174.544, 2.87439, 65.4898, 0.0719593, 37.1954
0, 2340.00000, 121.994, -32.0651, 121.166, -151.47, 123.159, 88.5637, 0, 0, 2.90184, -55.139, 2.92167, -174.544, 2.87439, 65.4898, 0.0719593, 37.1954
0, 2400.00000, 121.994, -32.0651, 121.166, -151.47, 123.159, 88.5637, 0, 0, 2.90184, -55.139, 2.92167, -174.544, 2.87439, 65.4898, 0.0719593, 37.1954
0, 2460.00000, 121.994, -32.0651, 121.166, -151.47, 123.159, 88.5637, 0, 0, 2.90184, -55.139, 2.92167, -174.544, 2.87439, 65.4898, 0.0719593, 37.1954
0, 2520.00000, 121.994, -32.0651, 121.166, -151.47, 123.159, 88.5637, 0, 0, 2.90184, -55.139, 2.92167, -174.544, 2.87439, 65.4898, 0.0719593, 37.1954
0, 2580.00000, 121.994, -32.0651, 121.166, -151.47, 123.159, 88.5637, 0, 0, 2.90184, -55.139, 2.92167, -174.544, 2.87439, 65.4898, 0.0719593, 37.1954
0, 2640.00000, 121.994, -32.0651, 121.166, -151.47, 123.159, 88.5637, 0, 0, 2.90184, -55.139, 2.92167, -174.544, 2.87439, 65.4898, 0.0719593, 37.1954
0, 2700.00000, 121.994, -32.0651, 121.166, -151.47, 123.159, 88.5637, 0, 0, 2.90184, -55.139, 2.92167, -174.544, 2.87439, 65.4898, 0.0719593, 37.1954
0, 2760.00000, 122.874, -31.7246, 122.246, -151.651, 123.075, 88.5787, 0, 0, 2.8811, -54.7986, 2.8959, -174.725, 2.87633, 65.5048, 0.0303933, 5.69576
0, 2820.00000, 122.874, -31.7246, 122.246, -151.651, 123.075, 88.5787, 0, 0, 2.88106, -54.7985, 2.89585, -174.725, 2.87635, 65.5048, 0.0303457, 5.64775
0, 2880.00000, 122.874, -31.7246, 122.246, -151.651, 123.075, 88.5787, 0, 0, 2.88106, -54.7985, 2.89585, -174.725, 2.87635, 65.5048, 0.0303455, 5.64751
0, 2940.00000, 122.874, -31.7246, 122.246, -151.651, 123.075, 88.5787, 0, 0, 2.88106, -54.7985, 2.89585, -174.725, 2.87635, 65.5048, 0.0303455, 5.64751
0, 3000.00000, 122.874, -31.7246, 122.246, -151.651, 123.075, 88.5787, 0, 0, 2.88106, -54.7985, 2.89585, -174.725, 2.87635, 65.5048, 0.0303455, 5.64751
0, 3060.00000, 122.874, -31.7246, 122.246, -151.651, 123.075, 88.5787, 0, 0, 2.88106, -54.7985, 2.89585, -174.725, 2.87635, 65.5048, 0.0303455, 5.64751
0, 3120.00000, 122.874, -31.7246, 122.246, -151.651, 123.075, 88.5787, 0, 0, 2.88106, -54.7985, 2.89585, -174.725, 2.87635, 65.5048, 0.0303455, 5.64751
0, 3180.00000, 122.874, -31.7246, 122.246, -151.651, 123.075, 88.5787, 0, 0, 2.88106, -54.7985, 2.89585, -174.725, 2.87635, 65.5048, 0.0303455, 5.64751
0, 3240.00000, 122.874, -31.7246, 122.246, -151.651, 123.075, 88.5787, 0, 0, 2.88106, -54.7985, 2.89585, -174.725, 2.87635, 65.5048, 0.0303455, 5.64751
0, 3300.00000, 122.874, -31.7246, 122.246, -151.651, 123.075, 88.5787, 0, 0, 2.88106, -54.7985, 2.89585, -174.725, 2.87635, 65.5048, 0.0303455, 5.64751
0, 3360.00000, 122.874, -31.7246, 122.246, -151.651, 123.075, 88.5787, 0, 0, 2.88106, -54.7985, 2.89585, -174.725, 2.87635, 65.5048, 0.0303455, 5.64751
0, 3420.00000, 122.874, -31.7246, 122.246, -151.651, 123.075, 88.5787, 0, 0, 2.88106, -54.7985, 2.89585, -174.725, 2.87635, 65.5048, 0.0303455, 5.64751
0, 3480.00000, 122.874, -31.7246, 122.246, -151.651, 123.075, 88.5787, 0, 0, 2.88106, -54.7985, 2.89585, -174.725, 2.87635, 65.5048, 0.0303455, 5.64751
0, 3540.00000, 122.874, -31.7246, 122.246, -151.651, 123.075, 88.5787, 0, 0, 2.88106, -54.7985, 2.89585, -174.725, 2.87635, 65.5048, 0.0303455, 5.64751
1, 0.00000, 122.874, -31.7246, 122.246, -151.651, 123.075, 88.5787, 0, 0, 2.88106, -54.7985, 2.89585, -174.725, 2.87635, 65.5048, 0.0303455, 5.64751
1, 60.00000, 123.122, -31.5546, 122.704, -151.655, 123.047, 88.5833, 0, 0, 2.87527, -54.6285, 2.88509, -174.73, 2.87698, 65.5094, 0.0180025, -28.4707
1, 120.00000, 123.122, -31.5546, 122.704, -151.655, 123.047, 88.5833, 0, 0, 2.87525, -54.6285, 2.88504, -174.729, 2.877, 65.5094, 0.0179764, -28.5629
1, 180.00000, 123.122, -31.5546, 122.704, -151.655, 123.047, 88.5833, 0, 0, 2.87525, -54.6285, 2.88504, -174.729, 2.877, 65.5094, 0.0179763, -28.5633
1, 240.00000, 123.122, -31.5546, 122.704, -151.655, 123.047, 88.5833, 0, 0, 2.87525, -54.6285, 2.88504, -174.729, 2.877, 65.5094, 0.0179763, -28.5633
1, 300.00000, 123.122, -31.5546, 122.704, -151.655, 123.047, 88.5833, 0, 0, 2.87525, -54.6285, 2.88504, -174.729, 2.877, 65.5094, 0.0179763, -28.5633
1, 360.00000, 123.122, -31.5546, 122.704, -151.655, 123.047, 88.5833, 0, 0, 2.87525, -54.6285, 2.88504, -174.729, 2.877, 65.5094, 0.0179763, -28.5633
1, 420.00000, 123.122, -31.5546, 122.704, -151.655, 123.047, 88.5833, 0, 0, 2.87525, -54.6285, 2.88504, -174.729, 2.877, 65.5094, 0.0179763, -28.5633
1, 480.00000, 123.122, -31.5546, 122.704, -151.655, 123.047, 88.5833, 0, 0, 2.87525, -54.6285, 2.88504, -174.729, 2.877, 65.5094, 0.0179763, -28.5633
1, 540.00000, 123.122, -31.5546, 122.704, -151.655, 123.047, 88.5833, 0, 0, 2.87525, -54.6285, 2.88504, -174.729, 2.877, 65.5094, 0.0179763, -28.5633
1, 600.00000, 123.122, -31.5546, 122.704, -151.655, 123.047, 88.5833, 0, 0, 2.87525, -54.6285, 2.88504, -174.729, 2.877, 65.5094, 0.0179763, -28.5633
1, 660.00000, 123.122, -31.5546, 122.704, -151.655, 123.047, 88.5833, 0, 0, 2.87525, -54.6285, 2.88504, -174.729, 2.877, 65.5094, 0.0179763, -28.5633
1, 720.00000, 123.122, -31.5546, 122.704, -151.655, 123.047, 88.5833, 0, 0, 2.87525, -54.6285, 2.88504, -174.729, 2.877, 65.5094, 0.0179763, -28.5633
1, 780.00000, 123.122, -31.5541, 122.794, -151.531, 123.338, 88.6134, 0, 0, 2.87524, -54.6281, 2.88294, -174.605, 2.87026, 65.5393, 0.0175019, 9.58689
1, 840.00000, 123.122, -31.5541, 122.794, -151.531, 123.338, 88.6135, 0, 0, 2.87525, -54.628, 2.88293, -174.605, 2.87022, 65.5395, 0.0175134, 9.67645
1, 900.00000, 123.122, -31.5541, 122.794, -151.531, 123.338, 88.6135, 0, 0, 2.87525, -54.628, 2.88293, -174.605, 2.87022, 65.5395, 0.0175134, 9.67684
1, 960.00000, 123.122, -31.5541, 122.794, -151.531, 123.338, 88.6135, 0, 0, 2.87525, -54.628, 2.88293, -174.605, 2.87022, 65.5395, 0.0175134, 9.67685
1, 1020.00000, 123.122, -31.5541, 122.794, -151.531, 123.338, 88.6135, 0, 0, 2.87525, -54.628, 2.88293, -174.605, 2.87022, 65.5395, 0.0175134, 9.67685
1, 1080.00000, 123.122, -31.5541, 122.794, -151.531, 123.338, 88.6135, 0, 0, 2.87525, -54.628, 2.88293, -174.605, 2.87022, 65.5395, 0.0175134, 9.67685
1, 1140.00000, 123.122, -31.5541, 122.794, -151.531, 123.338, 88.6135, 0, 0, 2.87525, -54.628, 2.88293, -174.605, 2.87022, 65.5395, 0.0175134, 9.67685
1, 1200.00000, 123.122, -31.5541, 122.794, -151.531, 123.338, 88.6135, 0, 0, 2.87525, -54.628, 2.88293, -174.605, 2.87022, 65.5395, 0.0175134, 9.67685
1, 1260.00000, 123.122, -31.5541, 122.794, -151.531, 123.338, 88.6135, 0, 0, 2.87525, -54.628, 2.88293, -174.605, 2.87022, 65.5395, 0.0175134, 9.67685
1, 1320.00000, 123.122, -31.5541, 122.794, -151.531, 123.338, 88.6135, 0, 0, 2.87525, -54.628, 2.88293, -174.605, 2.87022, 65.5395, 0.0175134, 9.67685
1, 1380.00000, 123.122, -31.5541, 122.794, -151.531, 123.338, 88.6135, 0, 0, 2.87525, -54.628, 2.88293, -174.605, 2.87022, 65.5395, 0.0175134, 9.67685
1, 1440.00000, 123.122, -31.5541, 122.794, -151.531, 123.338, 88.6135, 0, 0, 2.87525, -54.628, 2.88293, -174.605, 2.87022, 65.5395, 0.0175134, 9.67685
1, 1500.00000, 123.122, -31.5541, 122.794, -151.531, 123.338, 88.6135, 0, 0, 2.87525, -54.628, 2.88293, -174.605, 2.87022, 65.5395, 0.0175134, 9.67685
1, 1560.00000, 123.122, -31.5541, 122.794, -151.531, 123.338, 88.6135, 0, 0, 2.87525, -54.628, 2.88293, -174.605, 2.87022, 65.5395, 0.0175134, 9.67685
1, 1620.00000, 123.122, -31.5541, 122.794, -151.531, 123.338, 88.6135, 0, 0, 2.87525, -54.628, 2.88293, -174.605, 2.87022, 65.5395, 0.0175134, 9.67685
1, 1680.00000, 123.122, -31.5541, 122.794, -151.531, 123.338, 88.6135, 0, 0, 2.87525, -54.628, 2.88293, -174.605, 2.87022, 65.5395, 0.0175134, 9.67685
1, 1740.00000, 123.122, -31.5541, 122.794, -151.531, 123.338, 88.6135, 0, 0, 2.87525, -54.628, 2.88293, -174.605, 2.87022, 65.5395, 0.0175134, 9.67685
1, 1800.00000, 123.122, -31.5541, 122.794, -151.531, 123.338, 88.6135, 0, 0, 2.87525, -54.628, 2.88293, -174.605, 2.87022, 65.5395, 0.0175134, 9.67685
1, 1860.00000, 123.122, -31.5541, 122.794, -151.531, 123.338, 88.6135, 0, 0, 2.87525, -54.628, 2.88293, -174.605, 2.87022, 65.5395, 0.0175134, 9.67685
1, 1920.00000, 123.122, -31.5541, 122.794, -151.531, 123.338, 88.6135, 0, 0, 2.87525, -54.628, 2.88293, -174.605, 2.87022, 65.5395, 0.0175134, 9.67685
1, 1980.00000, 123.122, -31.5541, 122.794, -151.531, 123.338, 88.6135, 0, 0, 2.87525, -54.628, 2.88293, -174.605, 2.87022, 65.5395, 0.0175134, 9.67685
1, 2040.00000, 123.122, -31.5541, 122.794, -151.531, 123.338, 88.6135, 0, 0, 2.87525, -54.628, 2.88293, -174.605, 2.87022, 65.5395, 0.0175134, 9.67685
1, 2100.00000, 123.122, -31.5541, 122.794, -151.531, 123.338, 88.6135, 0, 0, 2.87525, -54.628, 2.88293, -174.605, 2.87022, 65.5395, 0.0175134, 9.67685
1, 2160.00000, 123.122, -31.5541, 122.794, -151.531, 123.338, 88.6135, 0, 0, 2.87525, -54.628, 2.88293, -174.605, 2.87022, 65.5395, 0.0175134, 9.67685
1, 2220.00000, 123.237, -31.4215, 123.113, -151.506, 123.33, 88.6164, 0, 0, 2.87258, -54.4954, 2.87549, -174.581, 2.8704, 65.5425, 0.00655863, -25.1122
1, 2280.00000, 123.237, -31.4215, 123.113, -151.506, 123.33, 88.6164, 0, 0, 2.87257, -54.4955, 2.87546, -174.58, 2.87041, 65.5425, 0.00653285, -25.2324
1, 2340.00000, 123.237, -31.4215, 123.113, -151.506, 123.33, 88.6164, 0, 0, 2.87257, -54.4955, 2.87546, -174.58, 2.87041, 65.5425, 0.00653275, -25.233
1, 2400.00000, 123.237, -31.4215, 123.113, -151.506, 123.33, 88.6164, 0, 0, 2.87257, -54.4955, 2.87546, -174.58, 2.87041, 65.5425, 0.00653275, -25.233
1, 2460.00000, 123.237, -31.4215, 123.113, -151.506, 123.33, 88.6164, 0, 0, 2.87257, -54.4955, 2.87546, -174.58, 2.87041, 65.5425, 0.00653275, -25.233
1, 2520.00000, 123.237, -31.4215, 123.113, -151.506, 123.33, 88.6164, 0, 0, 2.87257, -54.4955, 2.87546, -174.58, 2.87041, 65.5425, 0.00653275, -25.233
1, 2580.00000, 123.237, -31.4215, 123.113, -151.506, 123.33, 88.6164, 0, 0, 2.87257, -54.4955, 2.87546, -174.58, 2.87041, 65.5425, 0.00653275, -25.233
1, 2640.00000, 123.237, -31.4215, 123.113, -151.506, 123.33, 88.6164, 0, 0, 2.87257, -54.4955, 2.87546, -174.58, 2.87041, 65.5425, 0.00653275, -25.233
1, 2700.00000, 123.237, -31.4215, 123.113, -151.506, 123.33, 88.6164, 0, 0, 2.87257, -54.4955, 2.87546, -174.58, 2.87041, 65.5425, 0.00653275, -25.233
1, 2760.00000, 123.237, -31.4215, 123.113, -151.506, 123.33, 88.6164, 0, 0, 2.87257, -54.4955, 2.87546, -174.58, 2.87041, 65.5425, 0.00653275, -25.233
1, 2820.00000, 123.237, -31.4215, 123.113, -151.506, 123.33, 88.6164, 0, 0, 2.87257, -54.4955, 2.87546, -174.58, 2.87041, 65.5425, 0.00653275, -25.233
1, 2880.00000, 123.237, -31.4215, 123.113, -151.506, 123.33, 88.6164, 0, 0, 2.87257, -54.4955, 2.87546, -174.58, 2.87041, 65.5425, 0.00653275, -25.233
1, 2940.00000, 123.237, -31.4215, 123.113, -151.506, 123.33, 88.6164, 0, 0, 2.87257, -54.4955, 2.87546, -174.58, 2.87041, 65.5425, 0.00653275, -25.233
1, 3000.00000, 123.237, -31.4215, 123.113, -151.506, 123.33, 88.6164, 0, 0, 2.87257, -54.4955, 2.87546, -174.58, 2.87041, 65.5425, 0.00653275, -25.233
1, 3060.00000, 123.237, -31.4215, 123.113, -151.506, 123.33, 88.6164, 0, 0, 2.87257, -54.4955, 2.87546, -174.58, 2.87041, 65.5425, 0.00653275, -25.233
1, 3120.00000, 123.237, -31.4215, 123.113, -151.506, 123.33, 88.6164, 0, 0, 2.87257, -54.4955, 2.87546, -174.58, 2.87041, 65.5425, 0.00653275, -25.233
1, 3180.00000, 123.237, -31.4215, 123.113, -151.506, 123.33, 88.6164, 0, 0, 2.87257, -54.4955, 2.87546, -174.58, 2.87041, 65.5425, 0.00653275, -25.233
1, 3240.00000, 123.237, -31.4215, 123.113, -151.506, 123.33, 88.6164, 0, 0, 2.87257, -54.4955, 2.87546, -174.58, 2.87041, 65.5425, 0.00653275, -25.233
1, 3300.00000, 123.237, -31.4215, 123.113, -151.506, 123.33, 88.6164, 0, 0, 2.87257, -54.4955, 2.87546, -174.58, 2.87041, 65.5425, 0.00653275, -25.233
1, 3360.00000, 123.237, -31.4215, 123.113, -151.506, 123.33, 88.6164, 0, 0, 2.87257, -54.4955, 2.87546, -174.58, 2.87041, 65.5425, 0.00653275, -25.233
1, 3420.00000, 123.237, -31.4215, 123.113, -151.506, 123.33, 88.6164, 0, 0, 2.87257, -54.4955, 2.87546, -174.58, 2.87041, 65.5425, 0.00653275, -25.233
1, 3480.00000, 123.237, -31.4215, 123.113, -151.506, 123.33, 88.6164, 0, 0, 2.87257, -54.4955, 2.87546, -174.58, 2.87041, 65.5425, 0.00653275, -25.233
1, 3540.00000, 123.237, -31.4215, 123.113, -151.506, 123.33, 88.6164, 0, 0, 2.87257, -54.4955, 2.87546, -174.58, 2.87041, 65.5425, 0.00653275, -25.233
2, 0.00000, 123.237, -31.4215, 123.113, -151.506, 123.33, 88.6164, 0, 0, 2.87257, -54.4955, 2.87546, -174.58, 2.87041, 65.5425, 0.00653275, -25.233
2, 60.00000, 123.237, -31.4215, 123.113, -151.506, 123.33, 88.6164, 0, 0, 2.87257, -54.4955, 2.87546, -174.58, 2.87041, 65.5425, 0.00653275, -25.233
2, 120.00000, 123.237, -31.4215, 123.113, -151.506, 123.33, 88.6164, 0, 0, 2.87257, -54.4955, 2.87546, -174.58, 2.87041, 65.5425, 0.00653275, -25.233
2, 180.00000, 123.237, -31.4215, 123.113, -151.506, 123.33, 88.6164, 0, 0, 2.87257, -54.4955, 2.87546, -174.58, 2.87041, 65.5425, 0.00653275, -25.233
2, 240.00000, 123.237, -31.4215, 123.113, -151.506, 123.33, 88.6164, 0, 0, 2.87257, -54.4955, 2.87546, -174.58, 2.87041, 65.5425, 0.00653275, -25.233
2, 300.00000, 123.237, -31.4215, 123.113, -151.506, 123.33, 88.6164, 0, 0, 2.87257, -54.4955, 2.87546, -174.58, 2.87041, 65.5425, 0.00653275, -25.233
2, 360.00000, 123.237, -31.4215, 123.113, -151.506, 123.33, 88.6164, 0, 0, 2.87257, -54.4955, 2.87546, -174.58, 2.87041, 65.5425, 0.00653275, -25.233
2, 420.00000, 123.237, -31.4215, 123.113, -151.506, 123.33, 88.6164, 0, 0, 2.87257, -54.4955, 2.87546, -174.58, 2.87041, 65.5425, 0.00653275, -25.233
2, 480.00000, 123.237, -31.4215, 123.113, -151.506, 123.33, 88.6164, 0, 0, 2.87257, -54.4955, 2.87546, -174.58, 2.87041, 65.5425, 0.00653275, -25.233
2, 540.00000, 123.237, -31.4215, 123.113, -151.506, 123.33, 88.6164, 0, 0, 2.87257, -54.4955, 2.87546, -174.58, 2.87041, 65.5425, 0.00653275, -25.233
2, 600.00000, 123.237, -31.4215, 123.113, -151.506, 123.33, 88.6164, 0, 0, 2.87257, -54.4955, 2.87546, -174.58, 2.87041, 65.5425, 0.00653275, -25.233
2, 660.00000, 123.237, -31.4215, 123.113, -151.506, 123.33, 88.6164, 0, 0, 2.87257, -54.4955, 2.87546, -174.58, 2.87041, 65.5425, 0.00653275, -25.233
2, 720.00000, 123.237, -31.4215, 123.113, -151.506, 123.33, 88.6164, 0, 0, 2.87257, -54.4955, 2.87546, -174.58, 2.87041, 65.5425, 0.00653275, -25.233
