hour,t(sec),V1,VAngle1,V2,VAngle2,V3,VAngle3,V4,VAngle4,I1,IAngle1,I2,IAngle2,I3,IAngle3,I4,IAngle4
0, 60.00000, 116.721, -31.2203, 117.307, -150.685, 118.663, 88.8134, 0, 0, 4.75507, -54.294, 4.78161, -173.758, 4.84305, 65.7396, 0.0362442, -109.079
0, 120.00000, 116.721, -31.2203, 117.307, -150.685, 118.663, 88.8133, 0, 0, 4.75502, -54.2942, 4.78156, -173.759, 4.84301, 65.7394, 0.0362612, -109.078
0, 180.00000, 116.721, -31.2203, 117.307, -150.685, 118.663, 88.8133, 0, 0, 4.75502, -54.2942, 4.78156, -173.759, 4.84301, 65.7394, 0.0362613, -109.078
0, 240.00000, 116.721, -31.2203, 117.307, -150.685, 118.663, 88.8133, 0, 0, 4.75502, -54.2942, 4.78156, -173.759, 4.84301, 65.7394, 0.0362613, -109.078
0, 300.00000, 116.721, -31.2203, 117.307, -150.685, 118.663, 88.8133, 0, 0, 4.75502, -54.2942, 4.78156, -173.759, 4.84301, 65.7394, 0.0362613, -109.078
0, 360.00000, 116.721, -31.2203, 117.307, -150.685, 118.663, 88.8133, 0, 0, 4.75502, -54.2942, 4.78156, -173.759, 4.84301, 65.7394, 0.0362613, -109.078
0, 420.00000, 116.721, -31.2203, 117.307, -150.685, 118.663, 88.8133, 0, 0, 4.75502, -54.2942, 4.78156, -173.759, 4.84301, 65.7394, 0.0362613, -109.078
0, 480.00000, 117.718, -31.1291, 118.286, -150.596, 119.631, 88.9213, 0, 0, 4.33724, -54.2034, 4.36046, -173.67, 4.41549, 65.8469, 0.0317967, -107.819
0, 540.00000, 117.718, -31.1291, 118.287, -150.596, 119.631, 88.9213, 0, 0, 4.33728, -54.203, 4.36055, -173.67, 4.4156, 65.8474, 0.0318648, -107.712
0, 600.00000, 117.718, -31.1291, 118.287, -150.596, 119.631, 88.9213, 0, 0, 4.33728, -54.203, 4.36055, -173.67, 4.4156, 65.8474, 0.0318652, -107.711
0, 660.00000, 117.718, -31.1291, 118.287, -150.596, 119.631, 88.9213, 0, 0, 4.33728, -54.203, 4.36055, -173.67, 4.4156, 65.8474, 0.0318652, -107.711
0, 720.00000, 117.718, -31.1291, 118.287, -150.596, 119.631, 88.9213, 0, 0, 4.33728, -54.203, 4.36055, -173.67, 4.4156, 65.8474, 0.0318652, -107.711
0, 780.00000, 117.718, -31.1291, 118.287, -150.596, 119.631, 88.9213, 0, 0, 4.33728, -54.203, 4.36055, -173.67, 4.4156, 65.8474, 0.0318652, -107.711
0, 840.00000, 117.718, -31.1291, 118.287, -150.596, 119.631, 88.9213, 0, 0, 4.33728, -54.203, 4.36055, -173.67, 4.4156, 65.8474, 0.0318652, -107.711
0, 900.00000, 117.718, -31.1291, 118.287, -150.596, 119.631, 88.9213, 0, 0, 4.33728, -54.203, 4.36055, -173.67, 4.4156, 65.8474, 0.0318652, -107.711
0, 960.00000, 117.718, -31.1291, 118.287, -150.596, 119.631, 88.9213, 0, 0, 4.33728, -54.203, 4.36055, -173.67, 4.4156, 65.8474, 0.0318652, -107.711
0, 1020.00000, 117.718, -31.1291, 118.287, -150.596, 119.631, 88.9213, 0, 0, 4.33728, -54.203, 4.36055, -173.67, 4.4156, 65.8474, 0.0318652, -107.711
0, 1080.00000, 117.718, -31.1291, 118.287, -150.596, 119.631, 88.9213, 0, 0, 4.33728, -54.203, 4.36055, -173.67, 4.4156, 65.8474, 0.0318652, -107.711
0, 1140.00000, 117.718, -31.1291, 118.287, -150.596, 119.631, 88.9213, 0, 0, 4.33728, -54.203, 4.36055, -173.67, 4.4156, 65.8474, 0.0318652, -107.711
0, 1200.00000, 117.718, -31.1291, 118.287, -150.596, 119.631, 88.9213, 0, 0, 4.33728, -54.203, 4.36055, -173.67, 4.4156, 65.8474, 0.0318652, -107.711
0, 1260.00000, 117.718, -31.1291, 118.287, -150.596, 119.631, 88.9213, 0, 0, 4.33728, -54.203, 4.36055, -173.67, 4.4156, 65.8474, 0.0318652, -107.711
0, 1320.00000, 117.718, -31.1291, 118.287, -150.596, 119.631, 88.9213, 0, 0, 4.33728, -54.203, 4.36055, -173.67, 4.4156, 65.8474, 0.0318652, -107.711
0, 1380.00000, 117.718, -31.1291, 118.287, -150.596, 119.631, 88.9213, 0, 0, 4.33728, -54.203, 4.36055, -173.67, 4.4156, 65.8474, 0.0318652, -107.711
0, 1440.00000, 117.718, -31.1291, 118.287, -150.596, 119.631, 88.9213, 0, 0, 4.33728, -54.203, 4.36055, -173.67, 4.4156, 65.8474, 0.0318652, -107.711
0, 1500.00000, 117.718, -31.1291, 118.287, -150.596, 119.631, 88.9213, 0, 0, 4.33728, -54.203, 4.36055, -173.67, 4.4156, 65.8474, 0.0318652, -107.711
0, 1560.00000, 117.718, -31.1291, 118.287, -150.596, 119.631, 88.9213, 0, 0, 4.33728, -54.203, 4.36055, -173.67, 4.4156, 65.8474, 0.0318652, -107.711
0, 1620.00000, 117.718, -31.1291, 118.287, -150.596, 119.631, 88.9213, 0, 0, 4.33728, -54.203, 4.36055, -173.67, 4.4156, 65.8474, 0.0318652, -107.711
0, 1680.00000, 117.718, -31.1291, 118.287, -150.596, 119.631, 88.9213, 0, 0, 4.33728, -54.203, 4.36055, -173.67, 4.4156, 65.8474, 0.0318652, -107.711
0, 1740.00000, 117.718, -31.1291, 118.287, -150.596, 119.631, 88.9213, 0, 0, 4.33728, -54.203, 4.36055, -173.67, 4.4156, 65.8474, 0.0318652, -107.711
0, 1800.00000, 117.718, -31.1291, 118.287, -150.596, 119.631, 88.9213, 0, 0, 4.33728, -54.203, 4.36055, -173.67, 4.4156, 65.8474, 0.0318652, -107.711
0, 1860.00000, 117.718, -31.1291, 118.287, -150.596, 119.631, 88.9213, 0, 0, 4.33728, -54.203, 4.36055, -173.67, 4.4156, 65.8474, 0.0318652, -107.711
0, 1920.00000, 117.718, -31.1291, 118.287, -150.596, 119.631, 88.9213, 0, 0, 4.33728, -54.203, 4.36055, -173.67, 4.4156, 65.8474, 0.0318652, -107.711
0, 1980.00000, 117.718, -31.1291, 118.287, -150.596, 119.631, 88.9213, 0, 0, 4.33728, -54.203, 4.36055, -173.67, 4.4156, 65.8474, 0.0318652, -107.711
0, 2040.00000, 117.718, -31.1291, 118.287, -150.596, 119.631, 88.9213, 0, 0, 4.33728, -54.203, 4.36055, -173.67, 4.4156, 65.8474, 0.0318652, -107.711
0, 2100.00000, 117.718, -31.1291, 118.287, -150.596, 119.631, 88.9213, 0, 0, 4.33728, -54.203, 4.36055, -173.67, 4.4156, 65.8474, 0.0318652, -107.711
0, 2160.00000, 117.718, -31.1291, 118.287, -150.596, 119.631, 88.9213, 0, 0, 4.33728, -54.203, 4.36055, -173.67, 4.4156, 65.8474, 0.0318652, -107.711
0, 2220.00000, 117.718, -31.1291, 118.287, -150.596, 119.631, 88.9213, 0, 0, 4.33728, -54.203, 4.36055, -173.67, 4.4156, 65.8474, 0.0318652, -107.711
0, 2280.00000, 117.718, -31.1291, 118.287, -150.596, 119.631, 88.9213, 0, 0, 4.33728, -54.203, 4.36055, -173.67, 4.4156, 65.8474, 0.0318652, -107.711
0, 2340.00000, 117.718, -31.1291, 118.287, -150.596, 119.631, 88.9213, 0, 0, 4.33728, -54.203, 4.36055, -173.67, 4.4156, 65.8474, 0.0318652, -107.711
0, 2400.00000, 117.718, -31.1291, 118.287, -150.596, 119.631, 88.9213, 0, 0, 4.33728, -54.203, 4.36055, -173.67, 4.4156, 65.8474, 0.0318652, -107.711
0, 2460.00000, 117.718, -31.1291, 118.287, -150.596, 119.631, 88.9213, 0, 0, 4.33728, -54.203, 4.36055, -173.67, 4.4156, 65.8474, 0.0318652, -107.711
0, 2520.00000, 117.718, -31.1291, 118.287, -150.596, 119.631, 88.9213, 0, 0, 4.33728, -54.203, 4.36055, -173.67, 4.4156, 65.8474, 0.0318652, -107.711
0, 2580.00000, 117.718, -31.1291, 118.287, -150.596, 119.631, 88.9213, 0, 0, 4.33728, -54.203, 4.36055, -173.67, 4.4156, 65.8474, 0.0318652, -107.711
0, 2640.00000, 117.718, -31.1291, 118.287, -150.596, 119.631, 88.9213, 0, 0, 4.33728, -54.203, 4.36055, -173.67, 4.4156, 65.8474, 0.0318652, -107.711
0, 2700.00000, 117.718, -31.1291, 118.287, -150.596, 119.631, 88.9213, 0, 0, 4.33728, -54.203, 4.36055, -173.67, 4.4156, 65.8474, 0.0318652, -107.711
0, 2760.00000, 117.718, -31.1291, 118.287, -150.596, 119.631, 88.9213, 0, 0, 4.33728, -54.203, 4.36055, -173.67, 4.4156, 65.8474, 0.0318652, -107.711
0, 2820.00000, 117.718, -31.1291, 118.287, -150.596, 119.631, 88.9213, 0, 0, 4.33728, -54.203, 4.36055, -173.67, 4.4156, 65.8474, 0.0318652, -107.711
0, 2880.00000, 117.718, -31.1291, 118.287, -150.596, 119.631, 88.9213, 0, 0, 4.33728, -54.203, 4.36055, -173.67, 4.4156, 65.8474, 0.0318652, -107.711
0, 2940.00000, 117.718, -31.1291, 118.287, -150.596, 119.631, 88.9213, 0, 0, 4.33728, -54.203, 4.36055, -173.67, 4.4156, 65.8474, 0.0318652, -107.711
0, 3000.00000, 117.718, -31.1291, 118.287, -150.596, 119.631, 88.9213, 0, 0, 4.33728, -54.203, 4.36055, -173.67, 4.4156, 65.8474, 0.0318652, -107.711
0, 3060.00000, 117.718, -31.1291, 118.287, -150.596, 119.631, 88.9213, 0, 0, 4.33728, -54.203, 4.36055, -173.67, 4.4156, 65.8474, 0.0318652, -107.711
0, 3120.00000, 117.718, -31.1291, 118.287, -150.596, 119.631, 88.9213, 0, 0, 4.33728, -54.203, 4.36055, -173.67, 4.4156, 65.8474, 0.0318652, -107.711
0, 3180.00000, 117.718, -31.1291, 118.287, -150.596, 119.631, 88.9213, 0, 0, 4.33728, -54.203, 4.36055, -173.67, 4.4156, 65.8474, 0.0318652, -107.711
0, 3240.00000, 117.718, -31.1291, 118.287, -150.596, 119.631, 88.9213, 0, 0, 4.33728, -54.203, 4.36055, -173.67, 4.4156, 65.8474, 0.0318652, -107.711
0, 3300.00000, 117.718, -31.1291, 118.287, -150.596, 119.631, 88.9213, 0, 0, 4.33728, -54.203, 4.36055, -173.67, 4.4156, 65.8474, 0.0318652, -107.711
0, 3360.00000, 117.718, -31.1291, 118.287, -150.596, 119.631, 88.9213, 0, 0, 4.33728, -54.203, 4.36055, -173.67, 4.4156, 65.8474, 0.0318652, -107.711
0, 3420.00000, 117.718, -31.1291, 118.287, -150.596, 119.631, 88.9213, 0, 0, 4.33728, -54.203, 4.36055, -173.67, 4.4156, 65.8474, 0.0318652, -107.711
0, 3480.00000, 117.718, -31.1291, 118.287, -150.596, 119.631, 88.9213, 0, 0, 4.33728, -54.203, 4.36055, -173.67, 4.4156, 65.8474, 0.0318652, -107.711
0, 3540.00000, 117.718, -31.1291, 118.287, -150.596, 119.631, 88.9213, 0, 0, 4.33728, -54.203, 4.36055, -173.67, 4.4156, 65.8474, 0.0318652, -107.711
1, 0.00000, 117.718, -31.1291, 118.287, -150.596, 119.631, 88.9213, 0, 0, 4.33728, -54.203, 4.36055, -173.67, 4.4156, 65.8474, 0.0318652, -107.711
1, 60.00000, 117.718, -31.1291, 118.287, -150.596, 119.631, 88.9213, 0, 0, 4.33728, -54.203, 4.36055, -173.67, 4.4156, 65.8474, 0.0318652, -107.711
1, 120.00000, 117.718, -31.1291, 118.287, -150.596, 119.631, 88.9213, 0, 0, 4.33728, -54.203, 4.36055, -173.67, 4.4156, 65.8474, 0.0318652, -107.711
1, 180.00000, 117.718, -31.1291, 118.287, -150.596, 119.631, 88.9213, 0, 0, 4.33728, -54.203, 4.36055, -173.67, 4.4156, 65.8474, 0.0318652, -107.711
1, 240.00000, 117.718, -31.1291, 118.287, -150.596, 119.631, 88.9213, 0, 0, 4.33728, -54.203, 4.36055, -173.67, 4.4156, 65.8474, 0.0318652, -107.711
1, 300.00000, 117.718, -31.1291, 118.287, -150.596, 119.631, 88.9213, 0, 0, 4.33728, -54.203, 4.36055, -173.67, 4.4156, 65.8474, 0.0318652, -107.711
1, 360.00000, 117.718, -31.1291, 118.287, -150.596, 119.631, 88.9213, 0, 0, 4.33728, -54.203, 4.36055, -173.67, 4.4156, 65.8474, 0.0318652, -107.711
1, 420.00000, 117.718, -31.1291, 118.287, -150.596, 119.631, 88.9213, 0, 0, 4.33728, -54.203, 4.36055, -173.67, 4.4156, 65.8474, 0.0318652, -107.711
1, 480.00000, 117.718, -31.1291, 118.287, -150.596, 119.631, 88.9213, 0, 0, 4.33728, -54.203, 4.36055, -173.67, 4.4156, 65.8474, 0.0318652, -107.711
1, 540.00000, 117.718, -31.1291, 118.287, -150.596, 119.631, 88.9213, 0, 0, 4.33728, -54.203, 4.36055, -173.67, 4.4156, 65.8474, 0.0318652, -107.711
1, 600.00000, 117.718, -31.1291, 118.287, -150.596, 119.631, 88.9213, 0, 0, 4.33728, -54.203, 4.36055, -173.67, 4.4156, 65.8474, 0.0318652, -107.711
1, 660.00000, 117.718, -31.1291, 118.287, -150.596, 119.631, 88.9213, 0, 0, 4.33728, -54.203, 4.36055, -173.67, 4.4156, 65.8474, 0.0318652, -107.711
1, 720.00000, 117.718, -31.1291, 118.287, -150.596, 119.631, 88.9213, 0, 0, 4.33728, -54.203, 4.36055, -173.67, 4.4156, 65.8474, 0.0318652, -107.711
1, 780.00000, 117.718, -31.1291, 118.287, -150.596, 119.631, 88.9213, 0, 0, 4.33728, -54.203, 4.36055, -173.67, 4.4156, 65.8474, 0.0318652, -107.711
1, 840.00000, 117.718, -31.1291, 118.287, -150.596, 119.631, 88.9213, 0, 0, 4.33728, -54.203, 4.36055, -173.67, 4.4156, 65.8474, 0.0318652, -107.711
1, 900.00000, 117.718, -31.1291, 118.287, -150.596, 119.631, 88.9213, 0, 0, 4.33728, -54.203, 4.36055, -173.67, 4.4156, 65.8474, 0.0318652, -107.711
1, 960.00000, 117.718, -31.1291, 118.287, -150.596, 119.631, 88.9213, 0, 0, 4.33728, -54.203, 4.36055, -173.67, 4.4156, 65.8474, 0.0318652, -107.711
1, 1020.00000, 117.718, -31.1291, 118.287, -150.596, 119.631, 88.9213, 0, 0, 4.33728, -54.203, 4.36055, -173.67, 4.4156, 65.8474, 0.0318652, -107.711
1, 1080.00000, 117.718, -31.1291, 118.287, -150.596, 119.631, 88.9213, 0, 0, 4.33728, -54.203, 4.36055, -173.67, 4.4156, 65.8474, 0.0318652, -107.711
1, 1140.00000, 117.718, -31.1291, 118.287, -150.596, 119.631, 88.9213, 0, 0, 4.33728, -54.203, 4.36055, -173.67, 4.4156, 65.8474, 0.0318652, -107.711
1, 1200.00000, 117.718, -31.1291, 118.287, -150.596, 119.631, 88.9213, 0, 0, 4.33728, -54.203, 4.36055, -173.67, 4.4156, 65.8474, 0.0318652, -107.711
1, 1260.00000, 117.718, -31.1291, 118.287, -150.596, 119.631, 88.9213, 0, 0, 4.33728, -54.203, 4.36055, -173.67, 4.4156, 65.8474, 0.0318652, -107.711
1, 1320.00000, 117.718, -31.1291, 118.287, -150.596, 119.631, 88.9213, 0, 0, 4.33728, -54.203, 4.36055, -173.67, 4.4156, 65.8474, 0.0318652, -107.711
1, 1380.00000, 117.718, -31.1291, 118.287, -150.596, 119.631, 88.9213, 0, 0, 4.33728, -54.203, 4.36055, -173.67, 4.4156, 65.8474, 0.0318652, -107.711
1, 1440.00000, 117.718, -31.1291, 118.287, -150.596, 119.631, 88.9213, 0, 0, 4.33728, -54.203, 4.36055, -173.67, 4.4156, 65.8474, 0.0318652, -107.711
1, 1500.00000, 117.718, -31.1291, 118.287, -150.596, 119.631, 88.9213, 0, 0, 4.33728, -54.203, 4.36055, -173.67, 4.4156, 65.8474, 0.0318652, -107.711
1, 1560.00000, 117.718, -31.1291, 118.287, -150.596, 119.631, 88.9213, 0, 0, 4.33728, -54.203, 4.36055, -173.67, 4.4156, 65.8474, 0.0318652, -107.711
1, 1620.00000, 117.718, -31.1291, 118.287, -150.596, 119.631, 88.9213, 0, 0, 4.33728, -54.203, 4.36055, -173.67, 4.4156, 65.8474, 0.0318652, -107.711
1, 1680.00000, 117.718, -31.1291, 118.287, -150.596, 119.631, 88.9213, 0, 0, 4.33728, -54.203, 4.36055, -173.67, 4.4156, 65.8474, 0.0318652, -107.711
1, 1740.00000, 117.718, -31.1291, 118.287, -150.596, 119.631, 88.9213, 0, 0, 4.33728, -54.203, 4.36055, -173.67, 4.4156, 65.8474, 0.0318652, -107.711
1, 1800.00000, 117.718, -31.1291, 118.287, -150.596, 119.631, 88.9213, 0, 0, 4.33728, -54.203, 4.36055, -173.67, 4.4156, 65.8474, 0.0318652, -107.711
1, 1860.00000, 117.718, -31.1291, 118.287, -150.596, 119.631, 88.9213, 0, 0, 4.33728, -54.203, 4.36055, -173.67, 4.4156, 65.8474, 0.0318652, -107.711
1, 1920.00000, 117.718, -31.1291, 118.287, -150.596, 119.631, 88.9213, 0, 0, 4.33728, -54.203, 4.36055, -173.67, 4.4156, 65.8474, 0.0318652, -107.711
1, 1980.00000, 117.718, -31.1291, 118.287, -150.596, 119.631, 88.9213, 0, 0, 4.33728, -54.203, 4.36055, -173.67, 4.4156, 65.8474, 0.0318652, -107.711
1, 2040.00000, 117.718, -31.1291, 118.287, -150.596, 119.631, 88.9213, 0, 0, 4.33728, -54.203, 4.36055, -173.67, 4.4156, 65.8474, 0.0318652, -107.711
1, 2100.00000, 117.718, -31.1291, 118.287, -150.596, 119.631, 88.9213, 0, 0, 4.33728, -54.203, 4.36055, -173.67, 4.4156, 65.8474, 0.0318652, -107.711
1, 2160.00000, 117.718, -31.1291, 118.287, -150.596, 119.631, 88.9213, 0, 0, 4.33728, -54.203, 4.36055, -173.67, 4.4156, 65.8474, 0.0318652, -107.711
1, 2220.00000, 117.718, -31.1291, 118.287, -150.596, 119.631, 88.9213, 0, 0, 4.33728, -54.203, 4.36055, -173.67, 4.4156, 65.8474, 0.0318652, -107.711
1, 2280.00000, 117.718, -31.1291, 118.287, -150.596, 119.631, 88.9213, 0, 0, 4.33728, -54.203, 4.36055, -173.67, 4.4156, 65.8474, 0.0318652, -107.711
1, 2340.00000, 117.718, -31.1291, 118.287, -150.596, 119.631, 88.9213, 0, 0, 4.33728, -54.203, 4.36055, -173.67, 4.4156, 65.8474, 0.0318652, -107.711
1, 2400.00000, 117.718, -31.1291, 118.287, -150.596, 119.631, 88.9213, 0, 0, 4.33728, -54.203, 4.36055, -173.67, 4.4156, 65.8474, 0.0318652, -107.711
1, 2460.00000, 117.718, -31.1291, 118.287, -150.596, 119.631, 88.9213, 0, 0, 4.33728, -54.203, 4.36055, -173.67, 4.4156, 65.8474, 0.0318652, -107.711
1, 2520.00000, 117.718, -31.1291, 118.287, -150.596, 119.631, 88.9213, 0, 0, 4.33728, -54.203, 4.36055, -173.67, 4.4156, 65.8474, 0.0318652, -107.711
1, 2580.00000, 117.718, -31.1291, 118.287, -150.596, 119.631, 88.9213, 0, 0, 4.33728, -54.203, 4.36055, -173.67, 4.4156, 65.8474, 0.0318652, -107.711
1, 2640.00000, 117.718, -31.1291, 118.287, -150.596, 119.631, 88.9213, 0, 0, 4.33728, -54.203, 4.36055, -173.67, 4.4156, 65.8474, 0.0318652, -107.711
1, 2700.00000, 117.718, -31.1291, 118.287, -150.596, 119.631, 88.9213, 0, 0, 4.33728, -54.203, 4.36055, -173.67, 4.4156, 65.8474, 0.0318652, -107.711
1, 2760.00000, 117.718, -31.1291, 118.287, -150.596, 119.631, 88.9213, 0, 0, 4.33728, -54.203, 4.36055, -173.67, 4.4156, 65.8474, 0.0318652, -107.711
1, 2820.00000, 117.718, -31.1291, 118.287, -150.596, 119.631, 88.9213, 0, 0, 4.33728, -54.203, 4.36055, -173.67, 4.4156, 65.8474, 0.0318652, -107.711
1, 2880.00000, 117.718, -31.1291, 118.287, -150.596, 119.631, 88.9213, 0, 0, 4.33728, -54.203, 4.36055, -173.67, 4.4156, 65.8474, 0.0318652, -107.711
1, 2940.00000, 117.718, -31.1291, 118.287, -150.596, 119.631, 88.9213, 0, 0, 4.33728, -54.203, 4.36055, -173.67, 4.4156, 65.8474, 0.0318652, -107.711
1, 3000.00000, 117.718, -31.1291, 118.287, -150.596, 119.631, 88.9213, 0, 0, 4.33728, -54.203, 4.36055, -173.67, 4.4156, 65.8474, 0.0318652, -107.711
1, 3060.00000, 117.718, -31.1291, 118.287, -150.596, 119.631, 88.9213, 0, 0, 4.33728, -54.203, 4.36055, -173.67, 4.4156, 65.8474, 0.0318652, -107.711
1, 3120.00000, 117.718, -31.1291, 118.287, -150.596, 119.631, 88.9213, 0, 0, 4.33728, -54.203, 4.36055, -173.67, 4.4156, 65.8474, 0.0318652, -107.711
1, 3180.00000, 117.718, -31.1291, 118.287, -150.596, 119.631, 88.9213, 0, 0, 4.33728, -54.203, 4.36055, -173.67, 4.4156, 65.8474, 0.0318652, -107.711
1, 3240.00000, 117.718, -31.1291, 118.287, -150.596, 119.631, 88.9213, 0, 0, 4.33728, -54.203, 4.36055, -173.67, 4.4156, 65.8474, 0.0318652, -107.711
1, 3300.00000, 117.718, -31.1291, 118.287, -150.596, 119.631, 88.9213, 0, 0, 4.33728, -54.203, 4.36055, -173.67, 4.4156, 65.8474, 0.0318652, -107.711
1, 3360.00000, 117.718, -31.1291, 118.287, -150.596, 119.631, 88.9213, 0, 0, 4.33728, -54.203, 4.36055, -173.67, 4.4156, 65.8474, 0.0318652, -107.711
1, 3420.00000, 117.718, -31.1291, 118.287, -150.596, 119.631, 88.9213, 0, 0, 4.33728, -54.203, 4.36055, -173.67, 4.4156, 65.8474, 0.0318652, -107.711
1, 3480.00000, 117.718, -31.1291, 118.287, -150.596, 119.631, 88.9213, 0, 0, 4.33728, -54.203, 4.36055, -173.67, 4.4156, 65.8474, 0.0318652, -107.711
1, 3540.00000, 117.718, -31.1291, 118.287, -150.596, 119.631, 88.9213, 0, 0, 4.33728, -54.203, 4.36055, -173.67, 4.4156, 65.8474, 0.0318652, -107.711
2, 0.00000, 117.718, -31.1291, 118.287, -150.596, 119.631, 88.9213, 0, 0, 4.33728, -54.203, 4.36055, -173.67, 4.4156, 65.8474, 0.0318652, -107.711
2, 60.00000, 117.718, -31.1291, 118.287, -150.596, 119.631, 88.9213, 0, 0, 4.33728, -54.203, 4.36055, -173.67, 4.4156, 65.8474, 0.0318652, -107.711
2, 120.00000, 117.718, -31.1291, 118.287, -150.596, 119.631, 88.9213, 0, 0, 4.33728, -54.203, 4.36055, -173.67, 4.4156, 65.8474, 0.0318652, -107.711
2, 180.00000, 117.718, -31.1291, 118.287, -150.596, 119.631, 88.9213, 0, 0, 4.33728, -54.203, 4.36055, -173.67, 4.4156, 65.8474, 0.0318652, -107.711
2, 240.00000, 117.718, -31.1291, 118.287, -150.596, 119.631, 88.9213, 0, 0, 4.33728, -54.203, 4.36055, -173.67, 4.4156, 65.8474, 0.0318652, -107.711
2, 300.00000, 117.718, -31.1291, 118.287, -150.596, 119.631, 88.9213, 0, 0, 4.33728, -54.203, 4.36055, -173.67, 4.4156, 65.8474, 0.0318652, -107.711
2, 360.00000, 117.718, -31.1291, 118.287, -150.596, 119.631, 88.9213, 0, 0, 4.33728, -54.203, 4.36055, -173.67, 4.4156, 65.8474, 0.0318652, -107.711
2, 420.00000, 117.718, -31.1291, 118.287, -150.596, 119.631, 88.9213, 0, 0, 4.33728, -54.203, 4.36055, -173.67, 4.4156, 65.8474, 0.0318652, -107.711
2, 480.00000, 117.718, -31.1291, 118.287, -150.596, 119.631, 88.9213, 0, 0, 4.33728, -54.203, 4.36055, -173.67, 4.4156, 65.8474, 0.0318652, -107.711
2, 540.00000, 117.718, -31.1291, 118.287, -150.596, 119.631, 88.9213, 0, 0, 4.33728, -54.203, 4.36055, -173.67, 4.4156, 65.8474, 0.0318652, -107.711
2, 600.00000, 117.718, -31.1291, 118.287, -150.596, 119.631, 88.9213, 0, 0, 4.33728, -54.203, 4.36055, -173.67, 4.4156, 65.8474, 0.0318652, -107.711
2, 660.00000, 117.718, -31.1291, 118.287, -150.596, 119.631, 88.9213, 0, 0, 4.33728, -54.203, 4.36055, -173.67, 4.4156, 65.8474, 0.0318652, -107.711
2, 720.00000, 117.718, -31.1291, 118.287, -150.596, 119.631, 88.9213, 0, 0, 4.33728, -54.203, 4.36055, -173.67, 4.4156, 65.8474, 0.0318652, -107.711
