hour,t(sec),V1,VAngle1,V2,VAngle2,V3,VAngle3,V4,VAngle4,I1,IAngle1,I2,IAngle2,I3,IAngle3,I4,IAngle4
0, 60.00000, 119.933, -31.1099, 120.101, -150.912, 120.746, 89.0371, 0, 0, 6.28689, -54.183, 6.29672, -173.987, 6.3249, 65.9638, 0.0200478, -70.2451
0, 120.00000, 119.934, -31.11, 120.101, -150.912, 120.745, 89.037, 0, 0, 6.28692, -54.1839, 6.29664, -173.986, 6.32536, 65.9631, 0.0201739, -71.2175
0, 180.00000, 119.934, -31.11, 120.101, -150.912, 120.745, 89.037, 0, 0, 6.28692, -54.1839, 6.29664, -173.986, 6.32537, 65.9631, 0.0201746, -71.2281
0, 240.00000, 119.934, -31.11, 120.101, -150.912, 120.745, 89.037, 0, 0, 6.28692, -54.1839, 6.29664, -173.986, 6.32537, 65.9631, 0.0201746, -71.2282
0, 300.00000, 119.934, -31.11, 120.101, -150.912, 120.745, 89.037, 0, 0, 6.28692, -54.1839, 6.29664, -173.986, 6.32537, 65.9631, 0.0201746, -71.2282
0, 360.00000, 119.934, -31.11, 120.101, -150.912, 120.745, 89.037, 0, 0, 6.28692, -54.1839, 6.29664, -173.986, 6.32537, 65.9631, 0.0201746, -71.2282
0, 420.00000, 119.934, -31.11, 120.101, -150.912, 120.745, 89.037, 0, 0, 6.28692, -54.1839, 6.29664, -173.986, 6.32537, 65.9631, 0.0201746, -71.2282
0, 480.00000, 119.934, -31.11, 120.101, -150.912, 120.745, 89.037, 0, 0, 6.28692, -54.1839, 6.29664, -173.986, 6.32537, 65.9631, 0.0201746, -71.2282
0, 540.00000, 119.934, -31.11, 120.101, -150.912, 120.745, 89.037, 0, 0, 6.28692, -54.1839, 6.29664, -173.986, 6.32537, 65.9631, 0.0201746, -71.2282
0, 600.00000, 119.934, -31.11, 120.101, -150.912, 120.745, 89.037, 0, 0, 6.28692, -54.1839, 6.29664, -173.986, 6.32537, 65.9631, 0.0201746, -71.2282
0, 660.00000, 119.934, -31.11, 120.101, -150.912, 120.745, 89.037, 0, 0, 6.28692, -54.1839, 6.29664, -173.986, 6.32537, 65.9631, 0.0201746, -71.2282
0, 720.00000, 119.934, -31.11, 120.101, -150.912, 120.745, 89.037, 0, 0, 6.28692, -54.1839, 6.29664, -173.986, 6.32537, 65.9631, 0.0201746, -71.2282
0, 780.00000, 119.934, -31.11, 120.101, -150.912, 120.745, 89.037, 0, 0, 6.28692, -54.1839, 6.29664, -173.986, 6.32537, 65.9631, 0.0201746, -71.2282
0, 840.00000, 119.934, -31.11, 120.101, -150.912, 120.745, 89.037, 0, 0, 6.28692, -54.1839, 6.29664, -173.986, 6.32537, 65.9631, 0.0201746, -71.2282
0, 900.00000, 119.934, -31.11, 120.101, -150.912, 120.745, 89.037, 0, 0, 6.28692, -54.1839, 6.29664, -173.986, 6.32537, 65.9631, 0.0201746, -71.2282
0, 960.00000, 119.684, -31.133, 119.865, -150.931, 120.503, 89.0128, 0, 0, 6.63541, -54.2069, 6.64653, -174.005, 6.68577, 65.939, 0.0287017, -82.9203
0, 1020.00000, 119.684, -31.133, 119.865, -150.931, 120.503, 89.0128, 0, 0, 6.63538, -54.207, 6.6465, -174.005, 6.68574, 65.9389, 0.0286947, -82.9118
0, 1080.00000, 119.684, -31.133, 119.865, -150.931, 120.503, 89.0128, 0, 0, 6.63538, -54.207, 6.6465, -174.005, 6.68574, 65.9389, 0.0286947, -82.9118
0, 1140.00000, 119.684, -31.133, 119.865, -150.931, 120.503, 89.0128, 0, 0, 6.63538, -54.207, 6.6465, -174.005, 6.68574, 65.9389, 0.0286947, -82.9118
0, 1200.00000, 119.684, -31.133, 119.865, -150.931, 120.503, 89.0128, 0, 0, 6.63538, -54.207, 6.6465, -174.005, 6.68574, 65.9389, 0.0286947, -82.9118
0, 1260.00000, 119.684, -31.133, 119.865, -150.931, 120.503, 89.0128, 0, 0, 6.63538, -54.207, 6.6465, -174.005, 6.68574, 65.9389, 0.0286947, -82.9118
0, 1320.00000, 119.684, -31.133, 119.865, -150.931, 120.503, 89.0128, 0, 0, 6.63538, -54.207, 6.6465, -174.005, 6.68574, 65.9389, 0.0286947, -82.9118
0, 1380.00000, 119.684, -31.133, 119.865, -150.931, 120.503, 89.0128, 0, 0, 6.63538, -54.207, 6.6465, -174.005, 6.68574, 65.9389, 0.0286947, -82.9118
0, 1440.00000, 119.684, -31.133, 119.865, -150.931, 120.503, 89.0128, 0, 0, 6.63538, -54.207, 6.6465, -174.005, 6.68574, 65.9389, 0.0286947, -82.9118
0, 1500.00000, 119.684, -31.133, 119.865, -150.931, 120.503, 89.0128, 0, 0, 6.63538, -54.207, 6.6465, -174.005, 6.68574, 65.9389, 0.0286947, -82.9118
0, 1560.00000, 119.684, -31.133, 119.865, -150.931, 120.503, 89.0128, 0, 0, 6.63538, -54.207, 6.6465, -174.005, 6.68574, 65.9389, 0.0286947, -82.9118
0, 1620.00000, 119.684, -31.133, 119.865, -150.931, 120.503, 89.0128, 0, 0, 6.63538, -54.207, 6.6465, -174.005, 6.68574, 65.9389, 0.0286947, -82.9118
0, 1680.00000, 119.684, -31.133, 119.865, -150.931, 120.503, 89.0128, 0, 0, 6.63538, -54.207, 6.6465, -174.005, 6.68574, 65.9389, 0.0286947, -82.9118
0, 1740.00000, 119.684, -31.133, 119.865, -150.931, 120.503, 89.0128, 0, 0, 6.63538, -54.207, 6.6465, -174.005, 6.68574, 65.9389, 0.0286947, -82.9118
0, 1800.00000, 119.684, -31.133, 119.865, -150.931, 120.503, 89.0128, 0, 0, 6.63538, -54.207, 6.6465, -174.005, 6.68574, 65.9389, 0.0286947, -82.9118
0, 1860.00000, 119.841, -31.116, 120.012, -150.915, 120.647, 89.032, 0, 0, 6.6649, -54.191, 6.67545, -173.99, 6.71466, 65.9572, 0.0283489, -82.805
0, 1920.00000, 119.841, -31.1159, 120.012, -150.915, 120.648, 89.0321, 0, 0, 6.66524, -54.1899, 6.67578, -173.989, 6.71499, 65.9581, 0.0283507, -82.8614
0, 1980.00000, 119.841, -31.1159, 120.012, -150.915, 120.648, 89.0321, 0, 0, 6.66524, -54.1899, 6.67579, -173.989, 6.715, 65.9581, 0.0283513, -82.8618
0, 2040.00000, 119.841, -31.1159, 120.012, -150.915, 120.648, 89.0321, 0, 0, 6.66524, -54.1899, 6.67579, -173.989, 6.715, 65.9581, 0.0283513, -82.8618
0, 2100.00000, 119.841, -31.1159, 120.012, -150.915, 120.648, 89.0321, 0, 0, 6.66524, -54.1899, 6.67579, -173.989, 6.715, 65.9581, 0.0283513, -82.8618
0, 2160.00000, 119.841, -31.1159, 120.012, -150.915, 120.648, 89.0321, 0, 0, 6.66524, -54.1899, 6.67579, -173.989, 6.715, 65.9581, 0.0283513, -82.8618
0, 2220.00000, 119.841, -31.1159, 120.012, -150.915, 120.648, 89.0321, 0, 0, 6.66524, -54.1899, 6.67579, -173.989, 6.715, 65.9581, 0.0283513, -82.8618
0, 2280.00000, 119.841, -31.1159, 120.012, -150.915, 120.648, 89.0321, 0, 0, 6.66524, -54.1899, 6.67579, -173.989, 6.715, 65.9581, 0.0283513, -82.8618
0, 2340.00000, 119.841, -31.1159, 120.012, -150.915, 120.648, 89.0321, 0, 0, 6.66524, -54.1899, 6.67579, -173.989, 6.715, 65.9581, 0.0283513, -82.8618
0, 2400.00000, 119.841, -31.1159, 120.012, -150.915, 120.648, 89.0321, 0, 0, 6.66524, -54.1899, 6.67579, -173.989, 6.715, 65.9581, 0.0283513, -82.8618
0, 2460.00000, 119.841, -31.1159, 120.012, -150.915, 120.648, 89.0321, 0, 0, 6.66524, -54.1899, 6.67579, -173.989, 6.715, 65.9581, 0.0283513, -82.8618
0, 2520.00000, 119.841, -31.1159, 120.012, -150.915, 120.648, 89.0321, 0, 0, 6.66524, -54.1899, 6.67579, -173.989, 6.715, 65.9581, 0.0283513, -82.8618
0, 2580.00000, 119.841, -31.1159, 120.012, -150.915, 120.648, 89.0321, 0, 0, 6.66524, -54.1899, 6.67579, -173.989, 6.715, 65.9581, 0.0283513, -82.8618
0, 2640.00000, 119.841, -31.1159, 120.012, -150.915, 120.648, 89.0321, 0, 0, 6.66524, -54.1899, 6.67579, -173.989, 6.715, 65.9581, 0.0283513, -82.8618
0, 2700.00000, 119.841, -31.1159, 120.012, -150.915, 120.648, 89.0321, 0, 0, 6.66524, -54.1899, 6.67579, -173.989, 6.715, 65.9581, 0.0283513, -82.8618
0, 2760.00000, 120.181, -31.0811, 120.337, -150.89, 120.999, 89.0687, 0, 0, 6.35954, -54.1555, 6.36865, -173.964, 6.37064, 65.9944, 0.0182914, 16.503
0, 2820.00000, 120.181, -31.0811, 120.337, -150.89, 121, 89.0687, 0, 0, 6.35952, -54.155, 6.36868, -173.964, 6.3704, 65.9948, 0.0184514, 16.7189
0, 2880.00000, 120.181, -31.0811, 120.337, -150.89, 121, 89.0687, 0, 0, 6.35952, -54.155, 6.36868, -173.964, 6.37039, 65.9948, 0.0184533, 16.7202
0, 2940.00000, 120.181, -31.0811, 120.337, -150.89, 121, 89.0687, 0, 0, 6.35952, -54.155, 6.36868, -173.964, 6.37039, 65.9948, 0.0184533, 16.7203
0, 3000.00000, 120.181, -31.0811, 120.337, -150.89, 121, 89.0687, 0, 0, 6.35952, -54.155, 6.36868, -173.964, 6.37039, 65.9948, 0.0184533, 16.7203
0, 3060.00000, 120.181, -31.0811, 120.337, -150.89, 121, 89.0687, 0, 0, 6.35952, -54.155, 6.36868, -173.964, 6.37039, 65.9948, 0.0184533, 16.7203
0, 3120.00000, 120.181, -31.0811, 120.337, -150.89, 121, 89.0687, 0, 0, 6.35952, -54.155, 6.36868, -173.964, 6.37039, 65.9948, 0.0184533, 16.7203
0, 3180.00000, 120.181, -31.0811, 120.337, -150.89, 121, 89.0687, 0, 0, 6.35952, -54.155, 6.36868, -173.964, 6.37039, 65.9948, 0.0184533, 16.7203
0, 3240.00000, 120.181, -31.0811, 120.337, -150.89, 121, 89.0687, 0, 0, 6.35952, -54.155, 6.36868, -173.964, 6.37039, 65.9948, 0.0184533, 16.7203
0, 3300.00000, 120.181, -31.0811, 120.337, -150.89, 121, 89.0687, 0, 0, 6.35952, -54.155, 6.36868, -173.964, 6.37039, 65.9948, 0.0184533, 16.7203
0, 3360.00000, 120.181, -31.0811, 120.337, -150.89, 121, 89.0687, 0, 0, 6.35952, -54.155, 6.36868, -173.964, 6.37039, 65.9948, 0.0184533, 16.7203
0, 3420.00000, 120.181, -31.0811, 120.337, -150.89, 121, 89.0687, 0, 0, 6.35952, -54.155, 6.36868, -173.964, 6.37039, 65.9948, 0.0184533, 16.7203
0, 3480.00000, 120.181, -31.0811, 120.337, -150.89, 121, 89.0687, 0, 0, 6.35952, -54.155, 6.36868, -173.964, 6.37039, 65.9948, 0.0184533, 16.7203
0, 3540.00000, 120.181, -31.0811, 120.337, -150.89, 121, 89.0687, 0, 0, 6.35952, -54.155, 6.36868, -173.964, 6.37039, 65.9948, 0.0184533, 16.7203
1, 0.00000, 120.181, -31.0811, 120.337, -150.89, 121, 89.0687, 0, 0, 6.35952, -54.155, 6.36868, -173.964, 6.37039, 65.9948, 0.0184533, 16.7203
1, 60.00000, 120.431, -31.0563, 120.575, -150.873, 121.261, 89.0952, 0, 0, 6.29969, -54.1306, 6.30805, -173.947, 6.28254, 66.021, 0.0411981, 46.418
1, 120.00000, 120.43, -31.0562, 120.575, -150.874, 121.262, 89.0952, 0, 0, 6.29966, -54.1302, 6.30806, -173.947, 6.28232, 66.0213, 0.0413444, 46.3853
1, 180.00000, 120.43, -31.0562, 120.575, -150.874, 121.262, 89.0952, 0, 0, 6.29966, -54.1302, 6.30806, -173.947, 6.28231, 66.0213, 0.0413464, 46.3843
1, 240.00000, 120.43, -31.0562, 120.575, -150.874, 121.262, 89.0952, 0, 0, 6.29966, -54.1302, 6.30806, -173.947, 6.28231, 66.0213, 0.0413464, 46.3843
1, 300.00000, 120.43, -31.0562, 120.575, -150.874, 121.262, 89.0952, 0, 0, 6.29966, -54.1302, 6.30806, -173.947, 6.28231, 66.0213, 0.0413464, 46.3843
1, 360.00000, 120.43, -31.0562, 120.575, -150.874, 121.262, 89.0952, 0, 0, 6.29966, -54.1302, 6.30806, -173.947, 6.28231, 66.0213, 0.0413464, 46.3843
1, 420.00000, 120.43, -31.0562, 120.575, -150.874, 121.262, 89.0952, 0, 0, 6.29966, -54.1302, 6.30806, -173.947, 6.28231, 66.0213, 0.0413464, 46.3843
1, 480.00000, 120.43, -31.0562, 120.575, -150.874, 121.262, 89.0952, 0, 0, 6.29966, -54.1302, 6.30806, -173.947, 6.28231, 66.0213, 0.0413464, 46.3843
1, 540.00000, 120.43, -31.0562, 120.575, -150.874, 121.262, 89.0952, 0, 0, 6.29966, -54.1302, 6.30806, -173.947, 6.28231, 66.0213, 0.0413464, 46.3843
1, 600.00000, 120.43, -31.0562, 120.575, -150.874, 121.262, 89.0952, 0, 0, 6.29966, -54.1302, 6.30806, -173.947, 6.28231, 66.0213, 0.0413464, 46.3843
1, 660.00000, 120.43, -31.0562, 120.575, -150.874, 121.262, 89.0952, 0, 0, 6.29966, -54.1302, 6.30806, -173.947, 6.28231, 66.0213, 0.0413464, 46.3843
1, 720.00000, 120.43, -31.0562, 120.575, -150.874, 121.262, 89.0952, 0, 0, 6.29966, -54.1302, 6.30806, -173.947, 6.28231, 66.0213, 0.0413464, 46.3843
1, 780.00000, 120.43, -31.0562, 120.575, -150.874, 121.262, 89.0952, 0, 0, 6.29966, -54.1302, 6.30806, -173.947, 6.28231, 66.0213, 0.0413464, 46.3843
1, 840.00000, 120.43, -31.0562, 120.575, -150.874, 121.262, 89.0952, 0, 0, 6.29966, -54.1302, 6.30806, -173.947, 6.28231, 66.0213, 0.0413464, 46.3843
1, 900.00000, 120.43, -31.0562, 120.575, -150.874, 121.262, 89.0952, 0, 0, 6.29966, -54.1302, 6.30806, -173.947, 6.28231, 66.0213, 0.0413464, 46.3843
1, 960.00000, 120.457, -31.0517, 120.6, -150.87, 121.289, 89.1001, 0, 0, 6.27164, -54.1262, 6.27991, -173.943, 6.25171, 66.0258, 0.0436233, 47.5679
1, 1020.00000, 120.456, -31.0517, 120.6, -150.87, 121.29, 89.1001, 0, 0, 6.27168, -54.1256, 6.27998, -173.944, 6.25148, 66.0262, 0.0438313, 47.587
1, 1080.00000, 120.456, -31.0517, 120.6, -150.87, 121.29, 89.1001, 0, 0, 6.27168, -54.1256, 6.27998, -173.944, 6.25148, 66.0262, 0.0438338, 47.586
1, 1140.00000, 120.456, -31.0517, 120.6, -150.87, 121.29, 89.1001, 0, 0, 6.27168, -54.1256, 6.27998, -173.944, 6.25148, 66.0262, 0.0438339, 47.586
1, 1200.00000, 120.456, -31.0517, 120.6, -150.87, 121.29, 89.1001, 0, 0, 6.27168, -54.1256, 6.27998, -173.944, 6.25148, 66.0262, 0.0438339, 47.586
1, 1260.00000, 120.456, -31.0517, 120.6, -150.87, 121.29, 89.1001, 0, 0, 6.27168, -54.1256, 6.27998, -173.944, 6.25148, 66.0262, 0.0438339, 47.586
1, 1320.00000, 120.456, -31.0517, 120.6, -150.87, 121.29, 89.1001, 0, 0, 6.27168, -54.1256, 6.27998, -173.944, 6.25148, 66.0262, 0.0438339, 47.586
1, 1380.00000, 120.456, -31.0517, 120.6, -150.87, 121.29, 89.1001, 0, 0, 6.27168, -54.1256, 6.27998, -173.944, 6.25148, 66.0262, 0.0438339, 47.586
1, 1440.00000, 120.456, -31.0517, 120.6, -150.87, 121.29, 89.1001, 0, 0, 6.27168, -54.1256, 6.27998, -173.944, 6.25148, 66.0262, 0.0438339, 47.586
1, 1500.00000, 120.456, -31.0517, 120.6, -150.87, 121.29, 89.1001, 0, 0, 6.27168, -54.1256, 6.27998, -173.944, 6.25148, 66.0262, 0.0438339, 47.586
1, 1560.00000, 120.456, -31.0517, 120.6, -150.87, 121.29, 89.1001, 0, 0, 6.27168, -54.1256, 6.27998, -173.944, 6.25148, 66.0262, 0.0438339, 47.586
1, 1620.00000, 120.456, -31.0517, 120.6, -150.87, 121.29, 89.1001, 0, 0, 6.27168, -54.1256, 6.27998, -173.944, 6.25148, 66.0262, 0.0438339, 47.586
1, 1680.00000, 120.456, -31.0517, 120.6, -150.87, 121.29, 89.1001, 0, 0, 6.27168, -54.1256, 6.27998, -173.944, 6.25148, 66.0262, 0.0438339, 47.586
1, 1740.00000, 120.456, -31.0517, 120.6, -150.87, 121.29, 89.1001, 0, 0, 6.27168, -54.1256, 6.27998, -173.944, 6.25148, 66.0262, 0.0438339, 47.586
1, 1800.00000, 120.456, -31.0517, 120.6, -150.87, 121.29, 89.1001, 0, 0, 6.27168, -54.1256, 6.27998, -173.944, 6.25148, 66.0262, 0.0438339, 47.586
1, 1860.00000, 120.219, -31.0741, 120.374, -150.885, 121.041, 89.0766, 0, 0, 6.40891, -54.1476, 6.41807, -173.959, 6.4152, 66.003, 0.0218471, 25.3167
1, 1920.00000, 120.22, -31.0741, 120.374, -150.884, 121.041, 89.0766, 0, 0, 6.40893, -54.148, 6.41806, -173.958, 6.41542, 66.0027, 0.0217048, 25.234
1, 1980.00000, 120.22, -31.0741, 120.374, -150.884, 121.041, 89.0766, 0, 0, 6.40893, -54.1481, 6.41806, -173.958, 6.41543, 66.0027, 0.0217027, 25.2337
1, 2040.00000, 120.22, -31.0741, 120.374, -150.884, 121.041, 89.0766, 0, 0, 6.40893, -54.1481, 6.41806, -173.958, 6.41543, 66.0027, 0.0217026, 25.2337
1, 2100.00000, 120.22, -31.0741, 120.374, -150.884, 121.041, 89.0766, 0, 0, 6.40893, -54.1481, 6.41806, -173.958, 6.41543, 66.0027, 0.0217026, 25.2337
1, 2160.00000, 120.22, -31.0741, 120.374, -150.884, 121.041, 89.0766, 0, 0, 6.40893, -54.1481, 6.41806, -173.958, 6.41543, 66.0027, 0.0217026, 25.2337
1, 2220.00000, 120.22, -31.0741, 120.374, -150.884, 121.041, 89.0766, 0, 0, 6.40893, -54.1481, 6.41806, -173.958, 6.41543, 66.0027, 0.0217026, 25.2337
1, 2280.00000, 120.22, -31.0741, 120.374, -150.884, 121.041, 89.0766, 0, 0, 6.40893, -54.1481, 6.41806, -173.958, 6.41543, 66.0027, 0.0217026, 25.2337
1, 2340.00000, 120.22, -31.0741, 120.374, -150.884, 121.041, 89.0766, 0, 0, 6.40893, -54.1481, 6.41806, -173.958, 6.41543, 66.0027, 0.0217026, 25.2337
1, 2400.00000, 120.22, -31.0741, 120.374, -150.884, 121.041, 89.0766, 0, 0, 6.40893, -54.1481, 6.41806, -173.958, 6.41543, 66.0027, 0.0217026, 25.2337
1, 2460.00000, 120.22, -31.0741, 120.374, -150.884, 121.041, 89.0766, 0, 0, 6.40893, -54.1481, 6.41806, -173.958, 6.41543, 66.0027, 0.0217026, 25.2337
1, 2520.00000, 120.22, -31.0741, 120.374, -150.884, 121.041, 89.0766, 0, 0, 6.40893, -54.1481, 6.41806, -173.958, 6.41543, 66.0027, 0.0217026, 25.2337
1, 2580.00000, 120.22, -31.0741, 120.374, -150.884, 121.041, 89.0766, 0, 0, 6.40893, -54.1481, 6.41806, -173.958, 6.41543, 66.0027, 0.0217026, 25.2337
1, 2640.00000, 120.22, -31.0741, 120.374, -150.884, 121.041, 89.0766, 0, 0, 6.40893, -54.1481, 6.41806, -173.958, 6.41543, 66.0027, 0.0217026, 25.2337
1, 2700.00000, 120.22, -31.0741, 120.374, -150.884, 121.041, 89.0766, 0, 0, 6.40893, -54.1481, 6.41806, -173.958, 6.41543, 66.0027, 0.0217026, 25.2337
1, 2760.00000, 120.682, -31.0291, 120.827, -150.851, 121.52, 89.1273, 0, 0, 6.06322, -54.1035, 6.05608, -173.925, 6.02174, 66.0526, 0.0543013, 65.1067
1, 2820.00000, 120.682, -31.0291, 120.827, -150.851, 121.521, 89.1274, 0, 0, 6.06324, -54.103, 6.05594, -173.925, 6.02138, 66.0534, 0.05449, 65.1533
1, 2880.00000, 120.682, -31.0291, 120.827, -150.851, 121.521, 89.1274, 0, 0, 6.06324, -54.103, 6.05594, -173.925, 6.02138, 66.0535, 0.054494, 65.1543
1, 2940.00000, 120.682, -31.0291, 120.827, -150.851, 121.521, 89.1274, 0, 0, 6.06324, -54.103, 6.05594, -173.925, 6.02138, 66.0535, 0.0544941, 65.1544
1, 3000.00000, 120.682, -31.0291, 120.827, -150.851, 121.521, 89.1274, 0, 0, 6.06324, -54.103, 6.05594, -173.925, 6.02138, 66.0535, 0.0544941, 65.1544
1, 3060.00000, 120.682, -31.0291, 120.827, -150.851, 121.521, 89.1274, 0, 0, 6.06324, -54.103, 6.05594, -173.925, 6.02138, 66.0535, 0.0544941, 65.1544
1, 3120.00000, 120.682, -31.0291, 120.827, -150.851, 121.521, 89.1274, 0, 0, 6.06324, -54.103, 6.05594, -173.925, 6.02138, 66.0535, 0.0544941, 65.1544
1, 3180.00000, 120.682, -31.0291, 120.827, -150.851, 121.521, 89.1274, 0, 0, 6.06324, -54.103, 6.05594, -173.925, 6.02138, 66.0535, 0.0544941, 65.1544
1, 3240.00000, 120.682, -31.0291, 120.827, -150.851, 121.521, 89.1274, 0, 0, 6.06324, -54.103, 6.05594, -173.925, 6.02138, 66.0535, 0.0544941, 65.1544
1, 3300.00000, 120.682, -31.0291, 120.827, -150.851, 121.521, 89.1274, 0, 0, 6.06324, -54.103, 6.05594, -173.925, 6.02138, 66.0535, 0.0544941, 65.1544
1, 3360.00000, 120.682, -31.0291, 120.827, -150.851, 121.521, 89.1274, 0, 0, 6.06324, -54.103, 6.05594, -173.925, 6.02138, 66.0535, 0.0544941, 65.1544
1, 3420.00000, 120.682, -31.0291, 120.827, -150.851, 121.521, 89.1274, 0, 0, 6.06324, -54.103, 6.05594, -173.925, 6.02138, 66.0535, 0.0544941, 65.1544
1, 3480.00000, 120.682, -31.0291, 120.827, -150.851, 121.521, 89.1274, 0, 0, 6.06324, -54.103, 6.05594, -173.925, 6.02138, 66.0535, 0.0544941, 65.1544
1, 3540.00000, 120.682, -31.0291, 120.827, -150.851, 121.521, 89.1274, 0, 0, 6.06324, -54.103, 6.05594, -173.925, 6.02138, 66.0535, 0.0544941, 65.1544
2, 0.00000, 120.682, -31.0291, 120.827, -150.851, 121.521, 89.1274, 0, 0, 6.06324, -54.103, 6.05594, -173.925, 6.02138, 66.0535, 0.0544941, 65.1544
2, 60.00000, 120.399, -31.0553, 120.545, -150.872, 121.231, 89.0965, 0, 0, 6.21144, -54.1288, 6.21987, -173.946, 6.19755, 66.023, 0.0378761, 44.5462
2, 120.00000, 120.399, -31.0553, 120.545, -150.872, 121.23, 89.0965, 0, 0, 6.21147, -54.1292, 6.21984, -173.946, 6.19779, 66.0226, 0.0377022, 44.5883
2, 180.00000, 120.399, -31.0553, 120.545, -150.872, 121.23, 89.0965, 0, 0, 6.21147, -54.1293, 6.21984, -173.946, 6.19779, 66.0226, 0.0376999, 44.5894
2, 240.00000, 120.399, -31.0553, 120.545, -150.872, 121.23, 89.0965, 0, 0, 6.21147, -54.1293, 6.21984, -173.946, 6.19779, 66.0226, 0.0376999, 44.5894
2, 300.00000, 120.399, -31.0553, 120.545, -150.872, 121.23, 89.0965, 0, 0, 6.21147, -54.1293, 6.21984, -173.946, 6.19779, 66.0226, 0.0376999, 44.5894
2, 360.00000, 120.399, -31.0553, 120.545, -150.872, 121.23, 89.0965, 0, 0, 6.21147, -54.1293, 6.21984, -173.946, 6.19779, 66.0226, 0.0376999, 44.5894
2, 420.00000, 120.399, -31.0553, 120.545, -150.872, 121.23, 89.0965, 0, 0, 6.21147, -54.1293, 6.21984, -173.946, 6.19779, 66.0226, 0.0376999, 44.5894
2, 480.00000, 120.399, -31.0553, 120.545, -150.872, 121.23, 89.0965, 0, 0, 6.21147, -54.1293, 6.21984, -173.946, 6.19779, 66.0226, 0.0376999, 44.5894
2, 540.00000, 120.399, -31.0553, 120.545, -150.872, 121.23, 89.0965, 0, 0, 6.21147, -54.1293, 6.21984, -173.946, 6.19779, 66.0226, 0.0376999, 44.5894
2, 600.00000, 120.399, -31.0553, 120.545, -150.872, 121.23, 89.0965, 0, 0, 6.21147, -54.1293, 6.21984, -173.946, 6.19779, 66.0226, 0.0376999, 44.5894
2, 660.00000, 120.399, -31.0553, 120.545, -150.872, 121.23, 89.0965, 0, 0, 6.21147, -54.1293, 6.21984, -173.946, 6.19779, 66.0226, 0.0376999, 44.5894
2, 720.00000, 120.399, -31.0553, 120.545, -150.872, 121.23, 89.0965, 0, 0, 6.21147, -54.1293, 6.21984, -173.946, 6.19779, 66.0226, 0.0376999, 44.5894
2, 780.00000, 120.399, -31.0553, 120.545, -150.872, 121.23, 89.0965, 0, 0, 6.21147, -54.1293, 6.21984, -173.946, 6.19779, 66.0226, 0.0376999, 44.5894
