hour,t(sec),V1,VAngle1,V2,VAngle2,V3,VAngle3,V4,VAngle4,I1,IAngle1,I2,IAngle2,I3,IAngle3,I4,IAngle4
0, 60.00000, 117.885, -30.8858, 118.555, -150.684, 119.177, 88.9816, 0, 0, 5.3803, -53.9593, 5.41429, -173.757, 5.44591, 65.9081, 0.0329041, -101.2
0, 120.00000, 117.885, -30.8858, 118.555, -150.684, 119.177, 88.9815, 0, 0, 5.38023, -53.9597, 5.41422, -173.757, 5.44574, 65.9076, 0.0327814, -101.196
0, 180.00000, 117.885, -30.8858, 118.555, -150.684, 119.177, 88.9815, 0, 0, 5.38023, -53.9597, 5.41422, -173.757, 5.44574, 65.9076, 0.0327807, -101.196
0, 240.00000, 117.885, -30.8858, 118.555, -150.684, 119.177, 88.9815, 0, 0, 5.38023, -53.9597, 5.41422, -173.757, 5.44574, 65.9076, 0.0327807, -101.196
0, 300.00000, 117.885, -30.8858, 118.555, -150.684, 119.177, 88.9815, 0, 0, 5.38023, -53.9597, 5.41422, -173.757, 5.44574, 65.9076, 0.0327807, -101.196
0, 360.00000, 117.885, -30.8858, 118.555, -150.684, 119.177, 88.9815, 0, 0, 5.38023, -53.9597, 5.41422, -173.757, 5.44574, 65.9076, 0.0327807, -101.196
0, 420.00000, 117.885, -30.8858, 118.555, -150.684, 119.177, 88.9815, 0, 0, 5.38023, -53.9597, 5.41422, -173.757, 5.44574, 65.9076, 0.0327807, -101.196
0, 480.00000, 117.885, -30.8858, 118.555, -150.684, 119.177, 88.9815, 0, 0, 5.38023, -53.9597, 5.41422, -173.757, 5.44574, 65.9076, 0.0327807, -101.196
0, 540.00000, 117.885, -30.8858, 118.555, -150.684, 119.177, 88.9815, 0, 0, 5.38023, -53.9597, 5.41422, -173.757, 5.44574, 65.9076, 0.0327807, -101.196
0, 600.00000, 117.885, -30.8858, 118.555, -150.684, 119.177, 88.9815, 0, 0, 5.38023, -53.9597, 5.41422, -173.757, 5.44574, 65.9076, 0.0327807, -101.196
0, 660.00000, 117.885, -30.8858, 118.555, -150.684, 119.177, 88.9815, 0, 0, 5.38023, -53.9597, 5.41422, -173.757, 5.44574, 65.9076, 0.0327807, -101.196
0, 720.00000, 117.885, -30.8858, 118.555, -150.684, 119.177, 88.9815, 0, 0, 5.38023, -53.9597, 5.41422, -173.757, 5.44574, 65.9076, 0.0327807, -101.196
0, 780.00000, 117.885, -30.8858, 118.555, -150.684, 119.177, 88.9815, 0, 0, 5.38023, -53.9597, 5.41422, -173.757, 5.44574, 65.9076, 0.0327807, -101.196
0, 840.00000, 117.885, -30.8858, 118.555, -150.684, 119.177, 88.9815, 0, 0, 5.38023, -53.9597, 5.41422, -173.757, 5.44574, 65.9076, 0.0327807, -101.196
0, 900.00000, 117.885, -30.8858, 118.555, -150.684, 119.177, 88.9815, 0, 0, 5.38023, -53.9597, 5.41422, -173.757, 5.44574, 65.9076, 0.0327807, -101.196
0, 960.00000, 116.725, -31.2183, 117.266, -150.493, 118.971, 88.9489, 0, 0, 5.62946, -54.2917, 5.65847, -173.567, 5.74986, 65.8751, 0.0444595, -106.968
0, 1020.00000, 116.725, -31.2183, 117.266, -150.493, 118.971, 88.9489, 0, 0, 5.62936, -54.2922, 5.65837, -173.566, 5.74985, 65.875, 0.0444825, -106.976
0, 1080.00000, 116.725, -31.2183, 117.266, -150.493, 118.971, 88.9489, 0, 0, 5.62936, -54.2922, 5.65837, -173.566, 5.74985, 65.875, 0.0444826, -106.976
0, 1140.00000, 116.725, -31.2183, 117.266, -150.493, 118.971, 88.9489, 0, 0, 5.62936, -54.2922, 5.65837, -173.566, 5.74985, 65.875, 0.0444826, -106.976
0, 1200.00000, 116.725, -31.2183, 117.266, -150.493, 118.971, 88.9489, 0, 0, 5.62936, -54.2922, 5.65837, -173.566, 5.74985, 65.875, 0.0444826, -106.976
0, 1260.00000, 116.725, -31.2183, 117.266, -150.493, 118.971, 88.9489, 0, 0, 5.62936, -54.2922, 5.65837, -173.566, 5.74985, 65.875, 0.0444826, -106.976
0, 1320.00000, 116.725, -31.2183, 117.266, -150.493, 118.971, 88.9489, 0, 0, 5.62936, -54.2922, 5.65837, -173.566, 5.74985, 65.875, 0.0444826, -106.976
0, 1380.00000, 116.725, -31.2183, 117.266, -150.493, 118.971, 88.9489, 0, 0, 5.62936, -54.2922, 5.65837, -173.566, 5.74985, 65.875, 0.0444826, -106.976
0, 1440.00000, 116.725, -31.2183, 117.266, -150.493, 118.971, 88.9489, 0, 0, 5.62936, -54.2922, 5.65837, -173.566, 5.74985, 65.875, 0.0444826, -106.976
0, 1500.00000, 116.725, -31.2183, 117.266, -150.493, 118.971, 88.9489, 0, 0, 5.62936, -54.2922, 5.65837, -173.566, 5.74985, 65.875, 0.0444826, -106.976
0, 1560.00000, 116.725, -31.2183, 117.266, -150.493, 118.971, 88.9489, 0, 0, 5.62936, -54.2922, 5.65837, -173.566, 5.74985, 65.875, 0.0444826, -106.976
0, 1620.00000, 116.725, -31.2183, 117.266, -150.493, 118.971, 88.9489, 0, 0, 5.62936, -54.2922, 5.65837, -173.566, 5.74985, 65.875, 0.0444826, -106.976
0, 1680.00000, 116.725, -31.2183, 117.266, -150.493, 118.971, 88.9489, 0, 0, 5.62936, -54.2922, 5.65837, -173.566, 5.74985, 65.875, 0.0444826, -106.976
0, 1740.00000, 116.725, -31.2183, 117.266, -150.493, 118.971, 88.9489, 0, 0, 5.62936, -54.2922, 5.65837, -173.566, 5.74985, 65.875, 0.0444826, -106.976
0, 1800.00000, 116.725, -31.2183, 117.266, -150.493, 118.971, 88.9489, 0, 0, 5.62936, -54.2922, 5.65837, -173.566, 5.74985, 65.875, 0.0444826, -106.976
0, 1860.00000, 116.955, -31.2105, 117.49, -150.484, 119.196, 88.9621, 0, 0, 5.65891, -54.2845, 5.68755, -173.559, 5.77908, 65.8867, 0.0440252, -106.898
0, 1920.00000, 116.955, -31.2104, 117.49, -150.484, 119.197, 88.9622, 0, 0, 5.65882, -54.2843, 5.68764, -173.558, 5.77946, 65.8883, 0.0444106, -106.608
0, 1980.00000, 116.955, -31.2104, 117.49, -150.484, 119.197, 88.9622, 0, 0, 5.65882, -54.2843, 5.68764, -173.558, 5.77946, 65.8883, 0.0444124, -106.607
0, 2040.00000, 116.955, -31.2104, 117.49, -150.484, 119.197, 88.9622, 0, 0, 5.65882, -54.2843, 5.68764, -173.558, 5.77946, 65.8883, 0.0444124, -106.607
0, 2100.00000, 116.955, -31.2104, 117.49, -150.484, 119.197, 88.9622, 0, 0, 5.65882, -54.2843, 5.68764, -173.558, 5.77946, 65.8883, 0.0444124, -106.607
0, 2160.00000, 116.955, -31.2104, 117.49, -150.484, 119.197, 88.9622, 0, 0, 5.65882, -54.2843, 5.68764, -173.558, 5.77946, 65.8883, 0.0444124, -106.607
0, 2220.00000, 116.955, -31.2104, 117.49, -150.484, 119.197, 88.9622, 0, 0, 5.65882, -54.2843, 5.68764, -173.558, 5.77946, 65.8883, 0.0444124, -106.607
0, 2280.00000, 116.955, -31.2104, 117.49, -150.484, 119.197, 88.9622, 0, 0, 5.65882, -54.2843, 5.68764, -173.558, 5.77946, 65.8883, 0.0444124, -106.607
0, 2340.00000, 116.955, -31.2104, 117.49, -150.484, 119.197, 88.9622, 0, 0, 5.65882, -54.2843, 5.68764, -173.558, 5.77946, 65.8883, 0.0444124, -106.607
0, 2400.00000, 116.955, -31.2104, 117.49, -150.484, 119.197, 88.9622, 0, 0, 5.65882, -54.2843, 5.68764, -173.558, 5.77946, 65.8883, 0.0444124, -106.607
0, 2460.00000, 116.955, -31.2104, 117.49, -150.484, 119.197, 88.9622, 0, 0, 5.65882, -54.2843, 5.68764, -173.558, 5.77946, 65.8883, 0.0444124, -106.607
0, 2520.00000, 116.955, -31.2104, 117.49, -150.484, 119.197, 88.9622, 0, 0, 5.65882, -54.2843, 5.68764, -173.558, 5.77946, 65.8883, 0.0444124, -106.607
0, 2580.00000, 116.955, -31.2104, 117.49, -150.484, 119.197, 88.9622, 0, 0, 5.65882, -54.2843, 5.68764, -173.558, 5.77946, 65.8883, 0.0444124, -106.607
0, 2640.00000, 116.955, -31.2104, 117.49, -150.484, 119.197, 88.9622, 0, 0, 5.65882, -54.2843, 5.68764, -173.558, 5.77946, 65.8883, 0.0444124, -106.607
0, 2700.00000, 116.955, -31.2104, 117.49, -150.484, 119.197, 88.9622, 0, 0, 5.65882, -54.2843, 5.68764, -173.558, 5.77946, 65.8883, 0.0444124, -106.607
0, 2760.00000, 117.316, -31.183, 117.842, -150.457, 119.554, 88.998, 0, 0, 5.40083, -54.2571, 5.42773, -173.531, 5.51529, 65.9238, 0.0420818, -106.116
0, 2820.00000, 117.316, -31.1829, 117.842, -150.457, 119.554, 88.998, 0, 0, 5.40084, -54.2569, 5.42775, -173.531, 5.5154, 65.9241, 0.0421963, -106.101
0, 2880.00000, 117.316, -31.1829, 117.842, -150.457, 119.554, 88.998, 0, 0, 5.40084, -54.2569, 5.42775, -173.531, 5.5154, 65.9241, 0.0421981, -106.101
0, 2940.00000, 117.316, -31.1829, 117.842, -150.457, 119.554, 88.998, 0, 0, 5.40084, -54.2569, 5.42775, -173.531, 5.5154, 65.9241, 0.0421981, -106.101
0, 3000.00000, 117.316, -31.1829, 117.842, -150.457, 119.554, 88.998, 0, 0, 5.40084, -54.2569, 5.42775, -173.531, 5.5154, 65.9241, 0.0421982, -106.101
0, 3060.00000, 117.316, -31.1829, 117.842, -150.457, 119.554, 88.998, 0, 0, 5.40084, -54.2569, 5.42775, -173.531, 5.5154, 65.9241, 0.0421982, -106.101
0, 3120.00000, 117.316, -31.1829, 117.842, -150.457, 119.554, 88.998, 0, 0, 5.40084, -54.2569, 5.42775, -173.531, 5.5154, 65.9241, 0.0421982, -106.101
0, 3180.00000, 117.316, -31.1829, 117.842, -150.457, 119.554, 88.998, 0, 0, 5.40084, -54.2569, 5.42775, -173.531, 5.5154, 65.9241, 0.0421982, -106.101
0, 3240.00000, 117.316, -31.1829, 117.842, -150.457, 119.554, 88.998, 0, 0, 5.40084, -54.2569, 5.42775, -173.531, 5.5154, 65.9241, 0.0421982, -106.101
0, 3300.00000, 117.316, -31.1829, 117.842, -150.457, 119.554, 88.998, 0, 0, 5.40084, -54.2569, 5.42775, -173.531, 5.5154, 65.9241, 0.0421982, -106.101
0, 3360.00000, 117.316, -31.1829, 117.842, -150.457, 119.554, 88.998, 0, 0, 5.40084, -54.2569, 5.42775, -173.531, 5.5154, 65.9241, 0.0421982, -106.101
0, 3420.00000, 117.316, -31.1829, 117.842, -150.457, 119.554, 88.998, 0, 0, 5.40084, -54.2569, 5.42775, -173.531, 5.5154, 65.9241, 0.0421982, -106.101
0, 3480.00000, 117.316, -31.1829, 117.842, -150.457, 119.554, 88.998, 0, 0, 5.40084, -54.2569, 5.42775, -173.531, 5.5154, 65.9241, 0.0421982, -106.101
0, 3540.00000, 117.316, -31.1829, 117.842, -150.457, 119.554, 88.998, 0, 0, 5.40084, -54.2569, 5.42775, -173.531, 5.5154, 65.9241, 0.0421982, -106.101
1, 0.00000, 117.316, -31.1829, 117.842, -150.457, 119.554, 88.998, 0, 0, 5.40084, -54.2569, 5.42775, -173.531, 5.5154, 65.9241, 0.0421982, -106.101
1, 60.00000, 117.59, -31.1643, 118.105, -150.44, 119.826, 89.0224, 0, 0, 5.35157, -54.2384, 5.37763, -173.513, 5.46455, 65.9482, 0.041642, -105.99
1, 120.00000, 117.59, -31.1642, 118.105, -150.44, 119.826, 89.0224, 0, 0, 5.35157, -54.2382, 5.37763, -173.514, 5.46467, 65.9485, 0.0417994, -105.988
1, 180.00000, 117.59, -31.1642, 118.105, -150.44, 119.826, 89.0224, 0, 0, 5.35157, -54.2382, 5.37763, -173.514, 5.46468, 65.9485, 0.0418025, -105.988
1, 240.00000, 117.59, -31.1642, 118.105, -150.44, 119.826, 89.0224, 0, 0, 5.35157, -54.2382, 5.37763, -173.514, 5.46468, 65.9485, 0.0418025, -105.988
1, 300.00000, 117.59, -31.1642, 118.105, -150.44, 119.826, 89.0224, 0, 0, 5.35157, -54.2382, 5.37763, -173.514, 5.46468, 65.9485, 0.0418025, -105.988
1, 360.00000, 117.59, -31.1642, 118.105, -150.44, 119.826, 89.0224, 0, 0, 5.35157, -54.2382, 5.37763, -173.514, 5.46468, 65.9485, 0.0418025, -105.988
1, 420.00000, 117.59, -31.1642, 118.105, -150.44, 119.826, 89.0224, 0, 0, 5.35157, -54.2382, 5.37763, -173.514, 5.46468, 65.9485, 0.0418025, -105.988
1, 480.00000, 117.59, -31.1642, 118.105, -150.44, 119.826, 89.0224, 0, 0, 5.35157, -54.2382, 5.37763, -173.514, 5.46468, 65.9485, 0.0418025, -105.988
1, 540.00000, 117.59, -31.1642, 118.105, -150.44, 119.826, 89.0224, 0, 0, 5.35157, -54.2382, 5.37763, -173.514, 5.46468, 65.9485, 0.0418025, -105.988
1, 600.00000, 117.59, -31.1642, 118.105, -150.44, 119.826, 89.0224, 0, 0, 5.35157, -54.2382, 5.37763, -173.514, 5.46468, 65.9485, 0.0418025, -105.988
1, 660.00000, 117.59, -31.1642, 118.105, -150.44, 119.826, 89.0224, 0, 0, 5.35157, -54.2382, 5.37763, -173.514, 5.46468, 65.9485, 0.0418025, -105.988
1, 720.00000, 117.59, -31.1642, 118.105, -150.44, 119.826, 89.0224, 0, 0, 5.35157, -54.2382, 5.37763, -173.514, 5.46468, 65.9485, 0.0418025, -105.988
1, 780.00000, 117.59, -31.1642, 118.105, -150.44, 119.826, 89.0224, 0, 0, 5.35157, -54.2382, 5.37763, -173.514, 5.46468, 65.9485, 0.0418025, -105.988
1, 840.00000, 117.59, -31.1642, 118.105, -150.44, 119.826, 89.0224, 0, 0, 5.35157, -54.2382, 5.37763, -173.514, 5.46468, 65.9485, 0.0418025, -105.988
1, 900.00000, 117.59, -31.1642, 118.105, -150.44, 119.826, 89.0224, 0, 0, 5.35157, -54.2382, 5.37763, -173.514, 5.46468, 65.9485, 0.0418025, -105.988
1, 960.00000, 117.63, -31.1611, 118.143, -150.437, 119.867, 89.0261, 0, 0, 5.32852, -54.2353, 5.35434, -173.511, 5.44095, 65.9518, 0.041513, -106.033
1, 1020.00000, 117.63, -31.1611, 118.143, -150.437, 119.867, 89.0262, 0, 0, 5.32854, -54.235, 5.35438, -173.511, 5.44117, 65.9523, 0.0417479, -106.018
1, 1080.00000, 117.63, -31.1611, 118.143, -150.437, 119.868, 89.0262, 0, 0, 5.32854, -54.235, 5.35438, -173.511, 5.44118, 65.9523, 0.0417521, -106.018
1, 1140.00000, 117.63, -31.1611, 118.143, -150.437, 119.868, 89.0262, 0, 0, 5.32854, -54.235, 5.35438, -173.511, 5.44118, 65.9523, 0.0417522, -106.018
1, 1200.00000, 117.63, -31.1611, 118.143, -150.437, 119.868, 89.0262, 0, 0, 5.32854, -54.235, 5.35438, -173.511, 5.44118, 65.9523, 0.0417522, -106.018
1, 1260.00000, 117.63, -31.1611, 118.143, -150.437, 119.868, 89.0262, 0, 0, 5.32854, -54.235, 5.35438, -173.511, 5.44118, 65.9523, 0.0417522, -106.018
1, 1320.00000, 117.63, -31.1611, 118.143, -150.437, 119.868, 89.0262, 0, 0, 5.32854, -54.235, 5.35438, -173.511, 5.44118, 65.9523, 0.0417522, -106.018
1, 1380.00000, 117.63, -31.1611, 118.143, -150.437, 119.868, 89.0262, 0, 0, 5.32854, -54.235, 5.35438, -173.511, 5.44118, 65.9523, 0.0417522, -106.018
1, 1440.00000, 117.63, -31.1611, 118.143, -150.437, 119.868, 89.0262, 0, 0, 5.32854, -54.235, 5.35438, -173.511, 5.44118, 65.9523, 0.0417522, -106.018
1, 1500.00000, 117.63, -31.1611, 118.143, -150.437, 119.868, 89.0262, 0, 0, 5.32854, -54.235, 5.35438, -173.511, 5.44118, 65.9523, 0.0417522, -106.018
1, 1560.00000, 117.63, -31.1611, 118.143, -150.437, 119.868, 89.0262, 0, 0, 5.32854, -54.235, 5.35438, -173.511, 5.44118, 65.9523, 0.0417522, -106.018
1, 1620.00000, 117.63, -31.1611, 118.143, -150.437, 119.868, 89.0262, 0, 0, 5.32854, -54.235, 5.35438, -173.511, 5.44118, 65.9523, 0.0417522, -106.018
1, 1680.00000, 117.63, -31.1611, 118.143, -150.437, 119.868, 89.0262, 0, 0, 5.32854, -54.235, 5.35438, -173.511, 5.44118, 65.9523, 0.0417522, -106.018
1, 1740.00000, 117.63, -31.1611, 118.143, -150.437, 119.868, 89.0262, 0, 0, 5.32854, -54.235, 5.35438, -173.511, 5.44118, 65.9523, 0.0417522, -106.018
1, 1800.00000, 117.63, -31.1611, 118.143, -150.437, 119.868, 89.0262, 0, 0, 5.32854, -54.235, 5.35438, -173.511, 5.44118, 65.9523, 0.0417522, -106.018
1, 1860.00000, 117.449, -31.1855, 117.97, -150.46, 119.683, 88.9982, 0, 0, 5.4477, -54.2593, 5.47458, -173.534, 5.56297, 65.9245, 0.0424224, -106.015
1, 1920.00000, 117.449, -31.1856, 117.97, -150.46, 119.683, 88.9982, 0, 0, 5.44769, -54.2595, 5.47457, -173.534, 5.56288, 65.9243, 0.0423175, -106.01
1, 1980.00000, 117.449, -31.1856, 117.97, -150.46, 119.683, 88.9982, 0, 0, 5.44769, -54.2595, 5.47457, -173.534, 5.56287, 65.9243, 0.0423158, -106.01
1, 2040.00000, 117.449, -31.1856, 117.97, -150.46, 119.683, 88.9982, 0, 0, 5.44769, -54.2595, 5.47457, -173.534, 5.56287, 65.9243, 0.0423158, -106.01
1, 2100.00000, 117.449, -31.1856, 117.97, -150.46, 119.683, 88.9982, 0, 0, 5.44769, -54.2595, 5.47457, -173.534, 5.56287, 65.9243, 0.0423158, -106.01
1, 2160.00000, 117.449, -31.1856, 117.97, -150.46, 119.683, 88.9982, 0, 0, 5.44769, -54.2595, 5.47457, -173.534, 5.56287, 65.9243, 0.0423158, -106.01
1, 2220.00000, 117.449, -31.1856, 117.97, -150.46, 119.683, 88.9982, 0, 0, 5.44769, -54.2595, 5.47457, -173.534, 5.56287, 65.9243, 0.0423158, -106.01
1, 2280.00000, 117.449, -31.1856, 117.97, -150.46, 119.683, 88.9982, 0, 0, 5.44769, -54.2595, 5.47457, -173.534, 5.56287, 65.9243, 0.0423158, -106.01
1, 2340.00000, 117.449, -31.1856, 117.97, -150.46, 119.683, 88.9982, 0, 0, 5.44769, -54.2595, 5.47457, -173.534, 5.56287, 65.9243, 0.0423158, -106.01
1, 2400.00000, 117.449, -31.1856, 117.97, -150.46, 119.683, 88.9982, 0, 0, 5.44769, -54.2595, 5.47457, -173.534, 5.56287, 65.9243, 0.0423158, -106.01
1, 2460.00000, 117.449, -31.1856, 117.97, -150.46, 119.683, 88.9982, 0, 0, 5.44769, -54.2595, 5.47457, -173.534, 5.56287, 65.9243, 0.0423158, -106.01
1, 2520.00000, 117.449, -31.1856, 117.97, -150.46, 119.683, 88.9982, 0, 0, 5.44769, -54.2595, 5.47457, -173.534, 5.56287, 65.9243, 0.0423158, -106.01
1, 2580.00000, 117.449, -31.1856, 117.97, -150.46, 119.683, 88.9982, 0, 0, 5.44769, -54.2595, 5.47457, -173.534, 5.56287, 65.9243, 0.0423158, -106.01
1, 2640.00000, 117.449, -31.1856, 117.97, -150.46, 119.683, 88.9982, 0, 0, 5.44769, -54.2595, 5.47457, -173.534, 5.56287, 65.9243, 0.0423158, -106.01
1, 2700.00000, 117.422, -31.1812, 117.652, -150.653, 119.135, 89.0167, 0, 0, 5.44632, -54.255, 5.45821, -173.727, 5.53476, 65.9432, 0.0392342, -108.272
1, 2760.00000, 117.876, -31.1405, 118.081, -150.613, 119.566, 89.0656, 0, 0, 5.1541, -54.2146, 5.16405, -173.687, 5.2362, 65.9915, 0.0362057, -108.668
1, 2820.00000, 117.876, -31.1405, 118.081, -150.613, 119.566, 89.0656, 0, 0, 5.15415, -54.2144, 5.16407, -173.687, 5.23626, 65.9917, 0.036241, -108.703
1, 2880.00000, 117.876, -31.1405, 118.081, -150.613, 119.566, 89.0656, 0, 0, 5.15415, -54.2144, 5.16407, -173.687, 5.23626, 65.9917, 0.0362412, -108.703
1, 2940.00000, 117.876, -31.1405, 118.081, -150.613, 119.566, 89.0656, 0, 0, 5.15415, -54.2144, 5.16407, -173.687, 5.23626, 65.9917, 0.0362412, -108.703
1, 3000.00000, 117.876, -31.1405, 118.081, -150.613, 119.566, 89.0656, 0, 0, 5.15415, -54.2144, 5.16407, -173.687, 5.23626, 65.9917, 0.0362412, -108.703
1, 3060.00000, 117.876, -31.1405, 118.081, -150.613, 119.566, 89.0656, 0, 0, 5.15415, -54.2144, 5.16407, -173.687, 5.23626, 65.9917, 0.0362412, -108.703
1, 3120.00000, 117.876, -31.1405, 118.081, -150.613, 119.566, 89.0656, 0, 0, 5.15415, -54.2144, 5.16407, -173.687, 5.23626, 65.9917, 0.0362412, -108.703
1, 3180.00000, 117.876, -31.1405, 118.081, -150.613, 119.566, 89.0656, 0, 0, 5.15415, -54.2144, 5.16407, -173.687, 5.23626, 65.9917, 0.0362412, -108.703
1, 3240.00000, 117.876, -31.1405, 118.081, -150.613, 119.566, 89.0656, 0, 0, 5.15415, -54.2144, 5.16407, -173.687, 5.23626, 65.9917, 0.0362412, -108.703
1, 3300.00000, 117.876, -31.1405, 118.081, -150.613, 119.566, 89.0656, 0, 0, 5.15415, -54.2144, 5.16407, -173.687, 5.23626, 65.9917, 0.0362412, -108.703
1, 3360.00000, 117.876, -31.1405, 118.081, -150.613, 119.566, 89.0656, 0, 0, 5.15415, -54.2144, 5.16407, -173.687, 5.23626, 65.9917, 0.0362412, -108.703
1, 3420.00000, 117.876, -31.1405, 118.081, -150.613, 119.566, 89.0656, 0, 0, 5.15415, -54.2144, 5.16407, -173.687, 5.23626, 65.9917, 0.0362412, -108.703
1, 3480.00000, 117.876, -31.1405, 118.081, -150.613, 119.566, 89.0656, 0, 0, 5.15415, -54.2144, 5.16407, -173.687, 5.23626, 65.9917, 0.0362412, -108.703
1, 3540.00000, 117.876, -31.1405, 118.081, -150.613, 119.566, 89.0656, 0, 0, 5.15415, -54.2144, 5.16407, -173.687, 5.23626, 65.9917, 0.0362412, -108.703
2, 0.00000, 117.876, -31.1405, 118.081, -150.613, 119.566, 89.0656, 0, 0, 5.15415, -54.2144, 5.16407, -173.687, 5.23626, 65.9917, 0.0362412, -108.703
2, 60.00000, 117.611, -31.166, 117.83, -150.638, 119.314, 89.0352, 0, 0, 5.27925, -54.2398, 5.29014, -173.712, 5.36421, 65.9613, 0.037587, -108.579
2, 120.00000, 117.611, -31.166, 117.83, -150.638, 119.314, 89.0352, 0, 0, 5.27922, -54.2399, 5.29013, -173.712, 5.36417, 65.9612, 0.037564, -108.558
2, 180.00000, 117.611, -31.166, 117.83, -150.638, 119.314, 89.0352, 0, 0, 5.27922, -54.2399, 5.29013, -173.712, 5.36417, 65.9612, 0.0375638, -108.558
2, 240.00000, 117.611, -31.166, 117.83, -150.638, 119.314, 89.0352, 0, 0, 5.27922, -54.2399, 5.29013, -173.712, 5.36417, 65.9612, 0.0375638, -108.558
2, 300.00000, 117.611, -31.166, 117.83, -150.638, 119.314, 89.0352, 0, 0, 5.27922, -54.2399, 5.29013, -173.712, 5.36417, 65.9612, 0.0375638, -108.558
2, 360.00000, 117.611, -31.166, 117.83, -150.638, 119.314, 89.0352, 0, 0, 5.27922, -54.2399, 5.29013, -173.712, 5.36417, 65.9612, 0.0375638, -108.558
2, 420.00000, 117.611, -31.166, 117.83, -150.638, 119.314, 89.0352, 0, 0, 5.27922, -54.2399, 5.29013, -173.712, 5.36417, 65.9612, 0.0375638, -108.558
2, 480.00000, 117.611, -31.166, 117.83, -150.638, 119.314, 89.0352, 0, 0, 5.27922, -54.2399, 5.29013, -173.712, 5.36417, 65.9612, 0.0375638, -108.558
2, 540.00000, 118.522, -30.8505, 118.866, -150.848, 119.258, 89.0426, 0, 0, 5.32462, -53.9243, 5.34177, -173.923, 5.36145, 65.9686, 0.0285226, -104.321
2, 600.00000, 118.522, -30.8505, 118.866, -150.848, 119.258, 89.0426, 0, 0, 5.32467, -53.9244, 5.34185, -173.922, 5.36141, 65.9686, 0.0283859, -104.23
2, 660.00000, 118.522, -30.8505, 118.866, -150.848, 119.258, 89.0426, 0, 0, 5.32467, -53.9244, 5.34185, -173.922, 5.36141, 65.9686, 0.0283851, -104.23
