hour,t(sec),V1,VAngle1,V2,VAngle2,V3,VAngle3,V4,VAngle4,I1,IAngle1,I2,IAngle2,I3,IAngle3,I4,IAngle4
0, 60.00000, 124.063, -31.9754, 123.357, -151.554, 124.959, 88.56, 0, 0, 4.26185, -55.0492, 4.28625, -174.628, 4.23138, 65.4862, 0.0832052, 32.377
0, 120.00000, 124.069, -31.9819, 123.356, -151.554, 124.977, 88.5593, 0, 0, 4.26164, -55.0557, 4.28626, -174.628, 4.23075, 65.4855, 0.0842002, 32.5006
0, 180.00000, 124.074, -31.9877, 123.356, -151.554, 124.994, 88.5588, 0, 0, 4.26144, -55.0616, 4.28627, -174.628, 4.23019, 65.4849, 0.0850975, 32.6097
0, 240.00000, 124.079, -31.993, 123.356, -151.554, 125.009, 88.5583, 0, 0, 4.26127, -55.0669, 4.28628, -174.628, 4.22968, 65.4844, 0.0859099, 32.7065
0, 300.00000, 124.084, -31.9978, 123.356, -151.554, 125.022, 88.5578, 0, 0, 4.26112, -55.0716, 4.28628, -174.628, 4.22922, 65.4839, 0.0866441, 32.7924
0, 360.00000, 124.088, -32.0021, 123.355, -151.554, 125.034, 88.5574, 0, 0, 4.26098, -55.0759, 4.28629, -174.628, 4.2288, 65.4835, 0.0873053, 32.869
0, 420.00000, 124.092, -32.0059, 123.355, -151.554, 125.045, 88.557, 0, 0, 4.26085, -55.0798, 4.2863, -174.628, 4.22843, 65.4831, 0.0879006, 32.9372
0, 480.00000, 124.642, -31.8882, 123.881, -151.426, 125.618, 88.6951, 0, 0, 3.69058, -54.9621, 3.71326, -174.5, 3.66197, 65.6212, 0.0781471, 32.6604
0, 540.00000, 124.645, -31.8914, 123.881, -151.426, 125.627, 88.6948, 0, 0, 3.69049, -54.9652, 3.71326, -174.5, 3.66171, 65.6209, 0.0785679, 32.7164
0, 600.00000, 124.648, -31.8943, 123.881, -151.426, 125.635, 88.6945, 0, 0, 3.69041, -54.9681, 3.71326, -174.5, 3.66147, 65.6206, 0.0789453, 32.7662
0, 660.00000, 124.651, -31.8968, 123.881, -151.426, 125.642, 88.6942, 0, 0, 3.69034, -54.9707, 3.71327, -174.5, 3.66126, 65.6203, 0.079285, 32.8108
0, 720.00000, 124.653, -31.8992, 123.881, -151.426, 125.648, 88.694, 0, 0, 3.69028, -54.973, 3.71327, -174.5, 3.66107, 65.6201, 0.0795908, 32.8507
0, 780.00000, 124.655, -31.9012, 123.881, -151.426, 125.654, 88.6938, 0, 0, 3.69022, -54.9751, 3.71327, -174.5, 3.66089, 65.6199, 0.079866, 32.8865
0, 840.00000, 124.656, -31.9031, 123.881, -151.426, 125.659, 88.6936, 0, 0, 3.69017, -54.977, 3.71327, -174.5, 3.66074, 65.6197, 0.0801138, 32.9186
0, 900.00000, 124.658, -31.9048, 123.881, -151.427, 125.664, 88.6934, 0, 0, 3.69012, -54.9787, 3.71328, -174.5, 3.6606, 65.6195, 0.0803368, 32.9473
0, 960.00000, 124.659, -31.9063, 123.881, -151.427, 125.668, 88.6932, 0, 0, 3.69008, -54.9802, 3.71328, -174.5, 3.66048, 65.6193, 0.0805375, 32.973
0, 1020.00000, 124.661, -31.9077, 123.881, -151.427, 125.672, 88.6931, 0, 0, 3.69004, -54.9816, 3.71328, -174.5, 3.66036, 65.6192, 0.0807182, 32.9962
0, 1080.00000, 124.662, -31.9089, 123.881, -151.427, 125.676, 88.693, 0, 0, 3.69001, -54.9828, 3.71328, -174.5, 3.66026, 65.6191, 0.0808808, 33.0169
0, 1140.00000, 124.663, -31.91, 123.881, -151.427, 125.679, 88.6928, 0, 0, 3.68998, -54.9839, 3.71328, -174.5, 3.66017, 65.6189, 0.0810272, 33.0355
0, 1200.00000, 124.664, -31.911, 123.881, -151.427, 125.681, 88.6927, 0, 0, 3.68995, -54.9849, 3.71328, -174.5, 3.66009, 65.6188, 0.0811589, 33.0523
0, 1260.00000, 124.665, -31.9119, 123.881, -151.427, 125.684, 88.6926, 0, 0, 3.68992, -54.9858, 3.71328, -174.5, 3.66001, 65.6187, 0.0812775, 33.0673
0, 1320.00000, 124.666, -31.9127, 123.88, -151.427, 125.686, 88.6926, 0, 0, 3.6899, -54.9866, 3.71328, -174.501, 3.65995, 65.6186, 0.0813842, 33.0808
0, 1380.00000, 124.666, -31.9135, 123.88, -151.427, 125.688, 88.6925, 0, 0, 3.68988, -54.9874, 3.71329, -174.501, 3.65989, 65.6186, 0.0814803, 33.0929
0, 1440.00000, 124.667, -31.9141, 123.88, -151.427, 125.69, 88.6924, 0, 0, 3.68986, -54.988, 3.71329, -174.501, 3.65983, 65.6185, 0.0815668, 33.1038
0, 1500.00000, 124.667, -31.9147, 123.88, -151.427, 125.692, 88.6923, 0, 0, 3.68985, -54.9886, 3.71329, -174.501, 3.65978, 65.6184, 0.0816446, 33.1136
0, 1560.00000, 124.668, -31.9152, 123.88, -151.427, 125.693, 88.6923, 0, 0, 3.68983, -54.9892, 3.71329, -174.501, 3.65974, 65.6184, 0.0817146, 33.1224
0, 1620.00000, 124.668, -31.9157, 123.88, -151.427, 125.695, 88.6922, 0, 0, 3.68982, -54.9896, 3.71329, -174.501, 3.6597, 65.6183, 0.0817776, 33.1304
0, 1680.00000, 124.669, -31.9162, 123.88, -151.427, 125.696, 88.6922, 0, 0, 3.68981, -54.9901, 3.71329, -174.501, 3.65967, 65.6183, 0.0818344, 33.1375
0, 1740.00000, 124.669, -31.9165, 123.88, -151.427, 125.697, 88.6921, 0, 0, 3.6898, -54.9905, 3.71329, -174.501, 3.65963, 65.6182, 0.0818854, 33.1439
0, 1800.00000, 124.669, -31.9169, 123.88, -151.427, 125.698, 88.6921, 0, 0, 3.68979, -54.9908, 3.71329, -174.501, 3.65961, 65.6182, 0.0819314, 33.1496
0, 1860.00000, 124.67, -31.9172, 123.88, -151.427, 125.699, 88.6921, 0, 0, 3.68978, -54.9911, 3.71329, -174.501, 3.65958, 65.6182, 0.0819727, 33.1548
0, 1920.00000, 124.67, -31.9175, 123.88, -151.427, 125.699, 88.692, 0, 0, 3.68977, -54.9914, 3.71329, -174.501, 3.65956, 65.6181, 0.0820099, 33.1595
0, 1980.00000, 124.67, -31.9177, 123.88, -151.427, 125.7, 88.692, 0, 0, 3.68976, -54.9917, 3.71329, -174.501, 3.65953, 65.6181, 0.0820435, 33.1637
0, 2040.00000, 124.67, -31.918, 123.88, -151.427, 125.701, 88.692, 0, 0, 3.68976, -54.9919, 3.71329, -174.501, 3.65952, 65.6181, 0.0820736, 33.1674
0, 2100.00000, 124.671, -31.9182, 123.88, -151.427, 125.701, 88.692, 0, 0, 3.68975, -54.9921, 3.71329, -174.501, 3.6595, 65.618, 0.0821007, 33.1708
0, 2160.00000, 124.671, -31.9184, 123.88, -151.427, 125.702, 88.6919, 0, 0, 3.68975, -54.9923, 3.71329, -174.501, 3.65948, 65.618, 0.0821252, 33.1739
0, 2220.00000, 124.671, -31.9185, 123.88, -151.427, 125.702, 88.6919, 0, 0, 3.68974, -54.9924, 3.71329, -174.501, 3.65947, 65.618, 0.0821472, 33.1766
0, 2280.00000, 124.671, -31.9187, 123.88, -151.427, 125.703, 88.6919, 0, 0, 3.68974, -54.9926, 3.71329, -174.501, 3.65946, 65.618, 0.0821669, 33.1791
0, 2340.00000, 124.671, -31.9188, 123.88, -151.427, 125.703, 88.6919, 0, 0, 3.68973, -54.9927, 3.71329, -174.501, 3.65945, 65.618, 0.0821847, 33.1813
0, 2400.00000, 124.671, -31.9189, 123.88, -151.427, 125.703, 88.6919, 0, 0, 3.68973, -54.9929, 3.71329, -174.501, 3.65944, 65.618, 0.0822008, 33.1833
0, 2460.00000, 124.671, -31.919, 123.88, -151.427, 125.704, 88.6919, 0, 0, 3.68973, -54.993, 3.71329, -174.501, 3.65943, 65.618, 0.0822152, 33.1851
0, 2520.00000, 124.671, -31.9191, 123.88, -151.427, 125.704, 88.6919, 0, 0, 3.68973, -54.9931, 3.71329, -174.501, 3.65942, 65.6179, 0.0822282, 33.1867
0, 2580.00000, 124.672, -31.9192, 123.88, -151.427, 125.704, 88.6918, 0, 0, 3.68972, -54.9931, 3.71329, -174.501, 3.65941, 65.6179, 0.0822399, 33.1882
0, 2640.00000, 124.672, -31.9193, 123.88, -151.427, 125.704, 88.6918, 0, 0, 3.68972, -54.9932, 3.71329, -174.501, 3.65941, 65.6179, 0.0822504, 33.1895
0, 2700.00000, 124.672, -31.9194, 123.88, -151.427, 125.705, 88.6918, 0, 0, 3.68972, -54.9933, 3.71329, -174.501, 3.6594, 65.6179, 0.0822598, 33.1907
0, 2760.00000, 124.672, -31.9195, 123.88, -151.427, 125.705, 88.6918, 0, 0, 3.68972, -54.9934, 3.71329, -174.501, 3.65939, 65.6179, 0.0822683, 33.1917
0, 2820.00000, 124.672, -31.9195, 123.88, -151.427, 125.705, 88.6918, 0, 0, 3.68972, -54.9934, 3.71329, -174.501, 3.65939, 65.6179, 0.082276, 33.1927
0, 2880.00000, 124.672, -31.9196, 123.88, -151.427, 125.705, 88.6918, 0, 0, 3.68971, -54.9935, 3.71329, -174.501, 3.65939, 65.6179, 0.0822829, 33.1935
0, 2940.00000, 124.672, -31.9196, 123.88, -151.427, 125.705, 88.6918, 0, 0, 3.68971, -54.9935, 3.71329, -174.501, 3.65938, 65.6179, 0.0822891, 33.1943
0, 3000.00000, 124.672, -31.9197, 123.88, -151.427, 125.705, 88.6918, 0, 0, 3.68971, -54.9936, 3.71329, -174.501, 3.65938, 65.6179, 0.0822947, 33.195
0, 3060.00000, 124.672, -31.9197, 123.88, -151.427, 125.706, 88.6918, 0, 0, 3.68971, -54.9936, 3.71329, -174.501, 3.65937, 65.6179, 0.0822997, 33.1956
0, 3120.00000, 124.672, -31.9197, 123.88, -151.427, 125.706, 88.6918, 0, 0, 3.68971, -54.9936, 3.71329, -174.501, 3.65937, 65.6179, 0.0823043, 33.1962
0, 3180.00000, 124.672, -31.9198, 123.88, -151.427, 125.706, 88.6918, 0, 0, 3.68971, -54.9937, 3.71329, -174.501, 3.65937, 65.6179, 0.0823083, 33.1967
0, 3240.00000, 124.672, -31.9198, 123.88, -151.427, 125.706, 88.6918, 0, 0, 3.68971, -54.9937, 3.71329, -174.501, 3.65937, 65.6179, 0.082312, 33.1972
0, 3300.00000, 124.672, -31.9198, 123.88, -151.427, 125.706, 88.6918, 0, 0, 3.68971, -54.9937, 3.71329, -174.501, 3.65937, 65.6179, 0.0823153, 33.1976
0, 3360.00000, 124.672, -31.9198, 123.88, -151.427, 125.706, 88.6918, 0, 0, 3.68971, -54.9937, 3.71329, -174.501, 3.65936, 65.6179, 0.0823183, 33.1979
0, 3420.00000, 124.672, -31.9198, 123.88, -151.427, 125.706, 88.6918, 0, 0, 3.68971, -54.9938, 3.71329, -174.501, 3.65936, 65.6179, 0.0823209, 33.1983
0, 3480.00000, 124.672, -31.9199, 123.88, -151.427, 125.706, 88.6918, 0, 0, 3.68971, -54.9938, 3.71329, -174.501, 3.65936, 65.6179, 0.0823234, 33.1986
0, 3540.00000, 124.672, -31.9199, 123.88, -151.427, 125.706, 88.6918, 0, 0, 3.68971, -54.9938, 3.71329, -174.501, 3.65936, 65.6179, 0.0823255, 33.1988
1, 0.00000, 124.672, -31.9199, 123.88, -151.427, 125.706, 88.6918, 0, 0, 3.68971, -54.9938, 3.71329, -174.501, 3.65936, 65.6179, 0.0823275, 33.1991
1, 60.00000, 124.672, -31.9199, 123.88, -151.427, 125.706, 88.6918, 0, 0, 3.6897, -54.9938, 3.71329, -174.501, 3.65936, 65.6179, 0.0823292, 33.1993
1, 120.00000, 124.672, -31.9199, 123.88, -151.427, 125.706, 88.6918, 0, 0, 3.6897, -54.9938, 3.71329, -174.501, 3.65936, 65.6179, 0.0823308, 33.1995
1, 180.00000, 124.672, -31.9199, 123.88, -151.427, 125.706, 88.6918, 0, 0, 3.6897, -54.9939, 3.71329, -174.501, 3.65935, 65.6179, 0.0823322, 33.1997
1, 240.00000, 124.672, -31.9199, 123.88, -151.427, 125.706, 88.6918, 0, 0, 3.6897, -54.9939, 3.71329, -174.501, 3.65935, 65.6179, 0.0823335, 33.1998
1, 300.00000, 124.672, -31.92, 123.88, -151.427, 125.706, 88.6918, 0, 0, 3.6897, -54.9939, 3.71329, -174.501, 3.65935, 65.6179, 0.0823346, 33.2
1, 360.00000, 124.672, -31.92, 123.88, -151.427, 125.706, 88.6918, 0, 0, 3.6897, -54.9939, 3.71329, -174.501, 3.65935, 65.6179, 0.0823357, 33.2001
1, 420.00000, 124.672, -31.92, 123.88, -151.427, 125.706, 88.6918, 0, 0, 3.6897, -54.9939, 3.71329, -174.501, 3.65935, 65.6179, 0.0823366, 33.2002
1, 480.00000, 124.672, -31.92, 123.88, -151.427, 125.706, 88.6918, 0, 0, 3.6897, -54.9939, 3.71329, -174.501, 3.65935, 65.6179, 0.0823375, 33.2003
1, 540.00000, 124.672, -31.92, 123.88, -151.427, 125.706, 88.6918, 0, 0, 3.6897, -54.9939, 3.71329, -174.501, 3.65935, 65.6179, 0.0823382, 33.2004
1, 600.00000, 124.672, -31.92, 123.88, -151.427, 125.706, 88.6918, 0, 0, 3.6897, -54.9939, 3.71329, -174.501, 3.65935, 65.6179, 0.0823389, 33.2005
1, 660.00000, 124.672, -31.92, 123.88, -151.427, 125.706, 88.6918, 0, 0, 3.6897, -54.9939, 3.71329, -174.501, 3.65935, 65.6179, 0.0823395, 33.2006
1, 720.00000, 124.672, -31.92, 123.88, -151.427, 125.706, 88.6918, 0, 0, 3.6897, -54.9939, 3.71329, -174.501, 3.65935, 65.6178, 0.08234, 33.2006
1, 780.00000, 124.672, -31.92, 123.88, -151.427, 125.706, 88.6918, 0, 0, 3.6897, -54.9939, 3.71329, -174.501, 3.65935, 65.6178, 0.0823405, 33.2007
1, 840.00000, 124.672, -31.92, 123.88, -151.427, 125.706, 88.6918, 0, 0, 3.6897, -54.9939, 3.71329, -174.501, 3.65935, 65.6178, 0.082341, 33.2008
1, 900.00000, 124.672, -31.92, 123.88, -151.427, 125.706, 88.6918, 0, 0, 3.6897, -54.9939, 3.71329, -174.501, 3.65935, 65.6178, 0.0823414, 33.2008
1, 960.00000, 124.672, -31.92, 123.88, -151.427, 125.706, 88.6918, 0, 0, 3.6897, -54.9939, 3.71329, -174.501, 3.65935, 65.6178, 0.0823418, 33.2009
1, 1020.00000, 124.672, -31.92, 123.88, -151.427, 125.706, 88.6918, 0, 0, 3.6897, -54.9939, 3.71329, -174.501, 3.65935, 65.6178, 0.0823421, 33.2009
1, 1080.00000, 124.672, -31.92, 123.88, -151.427, 125.706, 88.6918, 0, 0, 3.6897, -54.9939, 3.71329, -174.501, 3.65935, 65.6178, 0.0823424, 33.2009
1, 1140.00000, 124.672, -31.92, 123.88, -151.427, 125.706, 88.6918, 0, 0, 3.6897, -54.9939, 3.71329, -174.501, 3.65935, 65.6178, 0.0823426, 33.201
1, 1200.00000, 124.672, -31.92, 123.88, -151.427, 125.706, 88.6918, 0, 0, 3.6897, -54.9939, 3.71329, -174.501, 3.65935, 65.6178, 0.0823429, 33.201
1, 1260.00000, 124.672, -31.92, 123.88, -151.427, 125.706, 88.6918, 0, 0, 3.6897, -54.9939, 3.71329, -174.501, 3.65935, 65.6178, 0.0823431, 33.201
1, 1320.00000, 124.672, -31.92, 123.88, -151.427, 125.706, 88.6918, 0, 0, 3.6897, -54.9939, 3.71329, -174.501, 3.65935, 65.6178, 0.0823433, 33.201
1, 1380.00000, 124.672, -31.92, 123.88, -151.427, 125.706, 88.6918, 0, 0, 3.6897, -54.9939, 3.71329, -174.501, 3.65935, 65.6178, 0.0823434, 33.2011
1, 1440.00000, 124.672, -31.92, 123.88, -151.427, 125.706, 88.6918, 0, 0, 3.6897, -54.9939, 3.71329, -174.501, 3.65935, 65.6178, 0.0823436, 33.2011
1, 1500.00000, 124.672, -31.92, 123.88, -151.427, 125.706, 88.6918, 0, 0, 3.6897, -54.9939, 3.71329, -174.501, 3.65935, 65.6178, 0.0823437, 33.2011
1, 1560.00000, 124.672, -31.92, 123.88, -151.427, 125.706, 88.6918, 0, 0, 3.6897, -54.9939, 3.71329, -174.501, 3.65935, 65.6178, 0.0823439, 33.2011
1, 1620.00000, 124.672, -31.92, 123.88, -151.427, 125.706, 88.6918, 0, 0, 3.6897, -54.9939, 3.71329, -174.501, 3.65935, 65.6178, 0.082344, 33.2011
1, 1680.00000, 124.672, -31.92, 123.88, -151.427, 125.706, 88.6918, 0, 0, 3.6897, -54.9939, 3.71329, -174.501, 3.65935, 65.6178, 0.0823441, 33.2011
1, 1740.00000, 124.672, -31.92, 123.88, -151.427, 125.706, 88.6918, 0, 0, 3.6897, -54.9939, 3.71329, -174.501, 3.65935, 65.6178, 0.0823442, 33.2012
1, 1800.00000, 124.672, -31.92, 123.88, -151.427, 125.706, 88.6918, 0, 0, 3.6897, -54.9939, 3.71329, -174.501, 3.65935, 65.6178, 0.0823443, 33.2012
1, 1860.00000, 124.672, -31.92, 123.88, -151.427, 125.706, 88.6918, 0, 0, 3.6897, -54.9939, 3.71329, -174.501, 3.65935, 65.6178, 0.0823443, 33.2012
1, 1920.00000, 124.672, -31.92, 123.88, -151.427, 125.706, 88.6918, 0, 0, 3.6897, -54.9939, 3.71329, -174.501, 3.65935, 65.6178, 0.0823444, 33.2012
1, 1980.00000, 124.672, -31.92, 123.88, -151.427, 125.706, 88.6918, 0, 0, 3.6897, -54.9939, 3.71329, -174.501, 3.65935, 65.6178, 0.0823445, 33.2012
1, 2040.00000, 124.672, -31.92, 123.88, -151.427, 125.706, 88.6918, 0, 0, 3.6897, -54.9939, 3.71329, -174.501, 3.65935, 65.6178, 0.0823445, 33.2012
1, 2100.00000, 124.672, -31.92, 123.88, -151.427, 125.706, 88.6918, 0, 0, 3.6897, -54.9939, 3.71329, -174.501, 3.65935, 65.6178, 0.0823446, 33.2012
1, 2160.00000, 124.672, -31.92, 123.88, -151.427, 125.706, 88.6918, 0, 0, 3.6897, -54.9939, 3.71329, -174.501, 3.65935, 65.6178, 0.0823446, 33.2012
1, 2220.00000, 124.672, -31.92, 123.88, -151.427, 125.706, 88.6918, 0, 0, 3.6897, -54.9939, 3.71329, -174.501, 3.65935, 65.6178, 0.0823446, 33.2012
1, 2280.00000, 124.672, -31.92, 123.88, -151.427, 125.706, 88.6918, 0, 0, 3.6897, -54.9939, 3.71329, -174.501, 3.65935, 65.6178, 0.0823447, 33.2012
1, 2340.00000, 124.672, -31.92, 123.88, -151.427, 125.706, 88.6918, 0, 0, 3.6897, -54.9939, 3.71329, -174.501, 3.65935, 65.6178, 0.0823447, 33.2012
1, 2400.00000, 124.672, -31.92, 123.88, -151.427, 125.706, 88.6918, 0, 0, 3.6897, -54.9939, 3.71329, -174.501, 3.65935, 65.6178, 0.0823447, 33.2012
1, 2460.00000, 124.672, -31.92, 123.88, -151.427, 125.706, 88.6918, 0, 0, 3.6897, -54.9939, 3.71329, -174.501, 3.65935, 65.6178, 0.0823448, 33.2012
1, 2520.00000, 124.672, -31.92, 123.88, -151.427, 125.706, 88.6918, 0, 0, 3.6897, -54.9939, 3.71329, -174.501, 3.65935, 65.6178, 0.0823448, 33.2012
1, 2580.00000, 124.672, -31.92, 123.88, -151.427, 125.706, 88.6918, 0, 0, 3.6897, -54.9939, 3.71329, -174.501, 3.65935, 65.6178, 0.0823448, 33.2012
1, 2640.00000, 124.672, -31.92, 123.88, -151.427, 125.706, 88.6918, 0, 0, 3.6897, -54.9939, 3.71329, -174.501, 3.65935, 65.6178, 0.0823448, 33.2012
1, 2700.00000, 124.672, -31.92, 123.88, -151.427, 125.706, 88.6918, 0, 0, 3.6897, -54.9939, 3.71329, -174.501, 3.65935, 65.6178, 0.0823448, 33.2012
1, 2760.00000, 124.672, -31.92, 123.88, -151.427, 125.706, 88.6918, 0, 0, 3.6897, -54.9939, 3.71329, -174.501, 3.65935, 65.6178, 0.0823449, 33.2012
1, 2820.00000, 124.672, -31.92, 123.88, -151.427, 125.706, 88.6918, 0, 0, 3.6897, -54.9939, 3.71329, -174.501, 3.65935, 65.6178, 0.0823449, 33.2012
1, 2880.00000, 124.672, -31.92, 123.88, -151.427, 125.706, 88.6918, 0, 0, 3.6897, -54.9939, 3.71329, -174.501, 3.65935, 65.6178, 0.0823449, 33.2012
1, 2940.00000, 124.672, -31.92, 123.88, -151.427, 125.706, 88.6918, 0, 0, 3.6897, -54.9939, 3.71329, -174.501, 3.65935, 65.6178, 0.0823449, 33.2013
1, 3000.00000, 124.672, -31.92, 123.88, -151.427, 125.706, 88.6918, 0, 0, 3.6897, -54.9939, 3.71329, -174.501, 3.65935, 65.6178, 0.0823449, 33.2013
1, 3060.00000, 124.672, -31.92, 123.88, -151.427, 125.706, 88.6918, 0, 0, 3.6897, -54.9939, 3.71329, -174.501, 3.65935, 65.6178, 0.0823449, 33.2013
1, 3120.00000, 124.672, -31.92, 123.88, -151.427, 125.706, 88.6918, 0, 0, 3.6897, -54.9939, 3.71329, -174.501, 3.65935, 65.6178, 0.0823449, 33.2013
1, 3180.00000, 124.672, -31.92, 123.88, -151.427, 125.706, 88.6918, 0, 0, 3.6897, -54.9939, 3.71329, -174.501, 3.65935, 65.6178, 0.0823449, 33.2013
1, 3240.00000, 124.672, -31.92, 123.88, -151.427, 125.706, 88.6918, 0, 0, 3.6897, -54.9939, 3.71329, -174.501, 3.65935, 65.6178, 0.0823449, 33.2013
1, 3300.00000, 124.672, -31.92, 123.88, -151.427, 125.706, 88.6918, 0, 0, 3.6897, -54.9939, 3.71329, -174.501, 3.65935, 65.6178, 0.0823449, 33.2013
1, 3360.00000, 124.672, -31.92, 123.88, -151.427, 125.706, 88.6918, 0, 0, 3.6897, -54.9939, 3.71329, -174.501, 3.65935, 65.6178, 0.0823449, 33.2013
1, 3420.00000, 124.672, -31.92, 123.88, -151.427, 125.706, 88.6918, 0, 0, 3.6897, -54.9939, 3.71329, -174.501, 3.65935, 65.6178, 0.082345, 33.2013
1, 3480.00000, 124.672, -31.92, 123.88, -151.427, 125.706, 88.6918, 0, 0, 3.6897, -54.9939, 3.71329, -174.501, 3.65935, 65.6178, 0.082345, 33.2013
1, 3540.00000, 124.672, -31.92, 123.88, -151.427, 125.706, 88.6918, 0, 0, 3.6897, -54.9939, 3.71329, -174.501, 3.65935, 65.6178, 0.082345, 33.2013
2, 0.00000, 124.672, -31.92, 123.88, -151.427, 125.706, 88.6918, 0, 0, 3.6897, -54.9939, 3.71329, -174.501, 3.65935, 65.6178, 0.082345, 33.2013
2, 60.00000, 124.672, -31.92, 123.88, -151.427, 125.706, 88.6918, 0, 0, 3.6897, -54.9939, 3.71329, -174.501, 3.65935, 65.6178, 0.082345, 33.2013
2, 120.00000, 124.672, -31.92, 123.88, -151.427, 125.706, 88.6918, 0, 0, 3.6897, -54.9939, 3.71329, -174.501, 3.65935, 65.6178, 0.082345, 33.2013
2, 180.00000, 124.672, -31.92, 123.88, -151.427, 125.706, 88.6918, 0, 0, 3.6897, -54.9939, 3.71329, -174.501, 3.65935, 65.6178, 0.082345, 33.2013
2, 240.00000, 124.672, -31.92, 123.88, -151.427, 125.706, 88.6918, 0, 0, 3.6897, -54.9939, 3.71329, -174.501, 3.65935, 65.6178, 0.082345, 33.2013
2, 300.00000, 124.672, -31.92, 123.88, -151.427, 125.706, 88.6918, 0, 0, 3.6897, -54.9939, 3.71329, -174.501, 3.65935, 65.6178, 0.082345, 33.2013
2, 360.00000, 124.672, -31.92, 123.88, -151.427, 125.706, 88.6918, 0, 0, 3.6897, -54.9939, 3.71329, -174.501, 3.65935, 65.6178, 0.082345, 33.2013
2, 420.00000, 124.672, -31.92, 123.88, -151.427, 125.706, 88.6918, 0, 0, 3.6897, -54.9939, 3.71329, -174.501, 3.65935, 65.6178, 0.082345, 33.2013
2, 480.00000, 124.672, -31.92, 123.88, -151.427, 125.706, 88.6918, 0, 0, 3.6897, -54.9939, 3.71329, -174.501, 3.65935, 65.6178, 0.082345, 33.2013
2, 540.00000, 124.672, -31.92, 123.88, -151.427, 125.706, 88.6918, 0, 0, 3.6897, -54.9939, 3.71329, -174.501, 3.65935, 65.6178, 0.082345, 33.2013
2, 600.00000, 124.672, -31.92, 123.88, -151.427, 125.706, 88.6918, 0, 0, 3.6897, -54.9939, 3.71329, -174.501, 3.65935, 65.6178, 0.082345, 33.2013
2, 660.00000, 124.672, -31.92, 123.88, -151.427, 125.706, 88.6918, 0, 0, 3.6897, -54.9939, 3.71329, -174.501, 3.65935, 65.6178, 0.082345, 33.2013
2, 720.00000, 124.672, -31.92, 123.88, -151.427, 125.706, 88.6918, 0, 0, 3.6897, -54.9939, 3.71329, -174.501, 3.65935, 65.6178, 0.082345, 33.2013
2, 780.00000, 124.672, -31.92, 123.88, -151.427, 125.706, 88.6918, 0, 0, 3.6897, -54.9939, 3.71329, -174.501, 3.65935, 65.6178, 0.082345, 33.2013
2, 840.00000, 124.672, -31.92, 123.88, -151.427, 125.706, 88.6918, 0, 0, 3.6897, -54.9939, 3.71329, -174.501, 3.65935, 65.6178, 0.082345, 33.2013
