hour,t(sec),"P1 (kW)","Q1 (kvar)","P2 (kW)","Q2 (kvar)","P3 (kW)","Q3 (kvar)","P4 (kW)","Q4 (kvar)"
0, 60.00000, 0.587619, 0.250322, 0.587233, 0.250159, 0.593642, 0.252888, 0, 0
0, 120.00000, 0.587612, 0.250322, 0.587227, 0.250158, 0.593632, 0.252886, 0, 0
0, 180.00000, 0.587612, 0.250322, 0.587227, 0.250158, 0.593632, 0.252886, 0, 0
0, 240.00000, 0.587612, 0.250322, 0.587227, 0.250158, 0.593632, 0.252886, 0, 0
0, 300.00000, 0.587612, 0.250322, 0.587227, 0.250158, 0.593632, 0.252886, 0, 0
0, 360.00000, 0.587612, 0.250322, 0.587227, 0.250158, 0.593632, 0.252886, 0, 0
0, 420.00000, 0.587612, 0.250322, 0.587227, 0.250158, 0.593632, 0.252886, 0, 0
0, 480.00000, 0.587612, 0.250322, 0.587227, 0.250158, 0.593632, 0.252886, 0, 0
0, 540.00000, 0.587612, 0.250322, 0.587227, 0.250158, 0.593632, 0.252886, 0, 0
0, 600.00000, 0.587612, 0.250322, 0.587227, 0.250158, 0.593632, 0.252886, 0, 0
0, 660.00000, 0.587612, 0.250322, 0.587227, 0.250158, 0.593632, 0.252886, 0, 0
0, 720.00000, 0.587612, 0.250322, 0.587227, 0.250158, 0.593632, 0.252886, 0, 0
0, 780.00000, 0.587612, 0.250322, 0.587227, 0.250158, 0.593632, 0.252886, 0, 0
0, 840.00000, 0.587612, 0.250322, 0.587227, 0.250158, 0.593632, 0.252886, 0, 0
0, 900.00000, 0.587612, 0.250322, 0.587227, 0.250158, 0.593632, 0.252886, 0, 0
0, 960.00000, 0.615506, 0.262201, 0.61835, 0.263415, 0.624253, 0.26593, 0, 0
0, 1020.00000, 0.615498, 0.262201, 0.618349, 0.263416, 0.624249, 0.265929, 0, 0
0, 1080.00000, 0.615498, 0.262201, 0.618349, 0.263416, 0.624249, 0.265929, 0, 0
0, 1140.00000, 0.615498, 0.262201, 0.618349, 0.263416, 0.624249, 0.265929, 0, 0
0, 1200.00000, 0.615498, 0.262201, 0.618349, 0.263416, 0.624249, 0.265929, 0, 0
0, 1260.00000, 0.615498, 0.262201, 0.618349, 0.263416, 0.624249, 0.265929, 0, 0
0, 1320.00000, 0.615498, 0.262201, 0.618349, 0.263416, 0.624249, 0.265929, 0, 0
0, 1380.00000, 0.615498, 0.262201, 0.618349, 0.263416, 0.624249, 0.265929, 0, 0
0, 1440.00000, 0.615498, 0.262201, 0.618349, 0.263416, 0.624249, 0.265929, 0, 0
0, 1500.00000, 0.615498, 0.262201, 0.618349, 0.263416, 0.624249, 0.265929, 0, 0
0, 1560.00000, 0.615498, 0.262201, 0.618349, 0.263416, 0.624249, 0.265929, 0, 0
0, 1620.00000, 0.615498, 0.262201, 0.618349, 0.263416, 0.624249, 0.265929, 0, 0
0, 1680.00000, 0.615498, 0.262201, 0.618349, 0.263416, 0.624249, 0.265929, 0, 0
0, 1740.00000, 0.615498, 0.262201, 0.618349, 0.263416, 0.624249, 0.265929, 0, 0
0, 1800.00000, 0.615498, 0.262201, 0.618349, 0.263416, 0.624249, 0.265929, 0, 0
0, 1860.00000, 0.619967, 0.264116, 0.622727, 0.265289, 0.628596, 0.26779, 0, 0
0, 1920.00000, 0.619995, 0.264117, 0.622751, 0.265291, 0.62863, 0.267795, 0, 0
0, 1980.00000, 0.619995, 0.264117, 0.622751, 0.265291, 0.628631, 0.267795, 0, 0
0, 2040.00000, 0.619995, 0.264117, 0.622751, 0.265291, 0.628631, 0.267795, 0, 0
0, 2100.00000, 0.619995, 0.264117, 0.622751, 0.265291, 0.628631, 0.267795, 0, 0
0, 2160.00000, 0.619995, 0.264117, 0.622751, 0.265291, 0.628631, 0.267795, 0, 0
0, 2220.00000, 0.619995, 0.264117, 0.622751, 0.265291, 0.628631, 0.267795, 0, 0
0, 2280.00000, 0.619995, 0.264117, 0.622751, 0.265291, 0.628631, 0.267795, 0, 0
0, 2340.00000, 0.619995, 0.264117, 0.622751, 0.265291, 0.628631, 0.267795, 0, 0
0, 2400.00000, 0.619995, 0.264117, 0.622751, 0.265291, 0.628631, 0.267795, 0, 0
0, 2460.00000, 0.619995, 0.264117, 0.622751, 0.265291, 0.628631, 0.267795, 0, 0
0, 2520.00000, 0.619995, 0.264117, 0.622751, 0.265291, 0.628631, 0.267795, 0, 0
0, 2580.00000, 0.619995, 0.264117, 0.622751, 0.265291, 0.628631, 0.267795, 0, 0
0, 2640.00000, 0.619995, 0.264117, 0.622751, 0.265291, 0.628631, 0.267795, 0, 0
0, 2700.00000, 0.619995, 0.264117, 0.622751, 0.265291, 0.628631, 0.267795, 0, 0
0, 2760.00000, 0.59363, 0.252887, 0.596063, 0.253923, 0.601617, 0.256289, 0, 0
0, 2820.00000, 0.593634, 0.252887, 0.596066, 0.253923, 0.601622, 0.25629, 0, 0
0, 2880.00000, 0.593634, 0.252887, 0.596066, 0.253923, 0.601622, 0.25629, 0, 0
0, 2940.00000, 0.593634, 0.252887, 0.596066, 0.253923, 0.601622, 0.25629, 0, 0
0, 3000.00000, 0.593634, 0.252887, 0.596066, 0.253923, 0.601622, 0.25629, 0, 0
0, 3060.00000, 0.593634, 0.252887, 0.596066, 0.253923, 0.601622, 0.25629, 0, 0
0, 3120.00000, 0.593634, 0.252887, 0.596066, 0.253923, 0.601622, 0.25629, 0, 0
0, 3180.00000, 0.593634, 0.252887, 0.596066, 0.253923, 0.601622, 0.25629, 0, 0
0, 3240.00000, 0.593634, 0.252887, 0.596066, 0.253923, 0.601622, 0.25629, 0, 0
0, 3300.00000, 0.593634, 0.252887, 0.596066, 0.253923, 0.601622, 0.25629, 0, 0
0, 3360.00000, 0.593634, 0.252887, 0.596066, 0.253923, 0.601622, 0.25629, 0, 0
0, 3420.00000, 0.593634, 0.252887, 0.596066, 0.253923, 0.601622, 0.25629, 0, 0
0, 3480.00000, 0.593634, 0.252887, 0.596066, 0.253923, 0.601622, 0.25629, 0, 0
0, 3540.00000, 0.596602, 0.254154, 0.596042, 0.253913, 0.60248, 0.256655, 0, 0
1, 0.00000, 0.596609, 0.254154, 0.596041, 0.253912, 0.602481, 0.256656, 0, 0
1, 60.00000, 0.592514, 0.252427, 0.591834, 0.252134, 0.59814, 0.254823, 0, 0
1, 120.00000, 0.592562, 0.252431, 0.591884, 0.252141, 0.598198, 0.254831, 0, 0
1, 180.00000, 0.592563, 0.252431, 0.591884, 0.252141, 0.598198, 0.254831, 0, 0
1, 240.00000, 0.592563, 0.252431, 0.591884, 0.252141, 0.598198, 0.254831, 0, 0
1, 300.00000, 0.592563, 0.252431, 0.591884, 0.252141, 0.598198, 0.254831, 0, 0
1, 360.00000, 0.592563, 0.252431, 0.591884, 0.252141, 0.598198, 0.254831, 0, 0
1, 420.00000, 0.592563, 0.252431, 0.591884, 0.252141, 0.598198, 0.254831, 0, 0
1, 480.00000, 0.592563, 0.252431, 0.591884, 0.252141, 0.598198, 0.254831, 0, 0
1, 540.00000, 0.592563, 0.252431, 0.591884, 0.252141, 0.598198, 0.254831, 0, 0
1, 600.00000, 0.592563, 0.252431, 0.591884, 0.252141, 0.598198, 0.254831, 0, 0
1, 660.00000, 0.592563, 0.252431, 0.591884, 0.252141, 0.598198, 0.254831, 0, 0
1, 720.00000, 0.592563, 0.252431, 0.591884, 0.252141, 0.598198, 0.254831, 0, 0
1, 780.00000, 0.592563, 0.252431, 0.591884, 0.252141, 0.598198, 0.254831, 0, 0
1, 840.00000, 0.592563, 0.252431, 0.591884, 0.252141, 0.598198, 0.254831, 0, 0
1, 900.00000, 0.592563, 0.252431, 0.591884, 0.252141, 0.598198, 0.254831, 0, 0
1, 960.00000, 0.59021, 0.251431, 0.589511, 0.251133, 0.595791, 0.253808, 0, 0
1, 1020.00000, 0.59022, 0.251432, 0.589521, 0.251135, 0.595801, 0.25381, 0, 0
1, 1080.00000, 0.59022, 0.251433, 0.589521, 0.251135, 0.595801, 0.25381, 0, 0
1, 1140.00000, 0.59022, 0.251433, 0.589521, 0.251135, 0.595801, 0.25381, 0, 0
1, 1200.00000, 0.59022, 0.251433, 0.589521, 0.251135, 0.595801, 0.25381, 0, 0
1, 1260.00000, 0.59022, 0.251433, 0.589521, 0.251135, 0.595801, 0.25381, 0, 0
1, 1320.00000, 0.59022, 0.251433, 0.589521, 0.251135, 0.595801, 0.25381, 0, 0
1, 1380.00000, 0.59022, 0.251433, 0.589521, 0.251135, 0.595801, 0.25381, 0, 0
1, 1440.00000, 0.59022, 0.251433, 0.589521, 0.251135, 0.595801, 0.25381, 0, 0
1, 1500.00000, 0.59022, 0.251433, 0.589521, 0.251135, 0.595801, 0.25381, 0, 0
1, 1560.00000, 0.59022, 0.251433, 0.589521, 0.251135, 0.595801, 0.25381, 0, 0
1, 1620.00000, 0.59022, 0.251433, 0.589521, 0.251135, 0.595801, 0.25381, 0, 0
1, 1680.00000, 0.59022, 0.251433, 0.589521, 0.251135, 0.595801, 0.25381, 0, 0
1, 1740.00000, 0.59022, 0.251433, 0.589521, 0.251135, 0.595801, 0.25381, 0, 0
1, 1800.00000, 0.59022, 0.251433, 0.589521, 0.251135, 0.595801, 0.25381, 0, 0
1, 1860.00000, 0.602719, 0.25676, 0.605175, 0.257798, 0.614063, 0.261599, 0, 0
1, 1920.00000, 0.60271, 0.256754, 0.605179, 0.257805, 0.614104, 0.261607, 0, 0
1, 1980.00000, 0.60271, 0.256753, 0.605179, 0.257805, 0.614105, 0.261608, 0, 0
1, 2040.00000, 0.60271, 0.256753, 0.605179, 0.257805, 0.614105, 0.261608, 0, 0
1, 2100.00000, 0.60271, 0.256753, 0.605179, 0.257805, 0.614105, 0.261608, 0, 0
1, 2160.00000, 0.60271, 0.256753, 0.605179, 0.257805, 0.614105, 0.261608, 0, 0
1, 2220.00000, 0.60271, 0.256753, 0.605179, 0.257805, 0.614105, 0.261608, 0, 0
1, 2280.00000, 0.60271, 0.256753, 0.605179, 0.257805, 0.614105, 0.261608, 0, 0
1, 2340.00000, 0.60271, 0.256753, 0.605179, 0.257805, 0.614105, 0.261608, 0, 0
1, 2400.00000, 0.60271, 0.256753, 0.605179, 0.257805, 0.614105, 0.261608, 0, 0
1, 2460.00000, 0.60271, 0.256753, 0.605179, 0.257805, 0.614105, 0.261608, 0, 0
1, 2520.00000, 0.60271, 0.256753, 0.605179, 0.257805, 0.614105, 0.261608, 0, 0
1, 2580.00000, 0.60271, 0.256753, 0.605179, 0.257805, 0.614105, 0.261608, 0, 0
1, 2640.00000, 0.60271, 0.256753, 0.605179, 0.257805, 0.614105, 0.261608, 0, 0
1, 2700.00000, 0.60271, 0.256753, 0.605179, 0.257805, 0.614105, 0.261608, 0, 0
1, 2760.00000, 0.572567, 0.243917, 0.574822, 0.244873, 0.58335, 0.248514, 0, 0
1, 2820.00000, 0.57257, 0.243914, 0.574838, 0.24488, 0.58339, 0.248523, 0, 0
1, 2880.00000, 0.57257, 0.243914, 0.574838, 0.24488, 0.58339, 0.248523, 0, 0
1, 2940.00000, 0.57257, 0.243914, 0.574838, 0.24488, 0.58339, 0.248523, 0, 0
1, 3000.00000, 0.57257, 0.243914, 0.574838, 0.24488, 0.58339, 0.248523, 0, 0
1, 3060.00000, 0.57257, 0.243914, 0.574838, 0.24488, 0.58339, 0.248523, 0, 0
1, 3120.00000, 0.57257, 0.243914, 0.574838, 0.24488, 0.58339, 0.248523, 0, 0
1, 3180.00000, 0.57257, 0.243914, 0.574838, 0.24488, 0.58339, 0.248523, 0, 0
1, 3240.00000, 0.57257, 0.243914, 0.574838, 0.24488, 0.58339, 0.248523, 0, 0
1, 3300.00000, 0.57257, 0.243914, 0.574838, 0.24488, 0.58339, 0.248523, 0, 0
1, 3360.00000, 0.57257, 0.243914, 0.574838, 0.24488, 0.58339, 0.248523, 0, 0
1, 3420.00000, 0.57257, 0.243914, 0.574838, 0.24488, 0.58339, 0.248523, 0, 0
1, 3480.00000, 0.57257, 0.243914, 0.574838, 0.24488, 0.58339, 0.248523, 0, 0
1, 3540.00000, 0.57257, 0.243914, 0.574838, 0.24488, 0.58339, 0.248523, 0, 0
2, 0.00000, 0.57257, 0.243914, 0.574838, 0.24488, 0.58339, 0.248523, 0, 0
2, 60.00000, 0.58513, 0.249262, 0.587521, 0.250283, 0.596236, 0.253991, 0, 0
2, 120.00000, 0.585129, 0.249264, 0.587511, 0.250279, 0.596214, 0.253986, 0, 0
2, 180.00000, 0.585129, 0.249264, 0.587511, 0.250279, 0.596213, 0.253986, 0, 0
2, 240.00000, 0.585129, 0.249264, 0.587511, 0.250279, 0.596213, 0.253986, 0, 0
2, 300.00000, 0.585129, 0.249264, 0.587511, 0.250279, 0.596213, 0.253986, 0, 0
2, 360.00000, 0.585129, 0.249264, 0.587511, 0.250279, 0.596213, 0.253986, 0, 0
2, 420.00000, 0.585129, 0.249264, 0.587511, 0.250279, 0.596213, 0.253986, 0, 0
2, 480.00000, 0.585129, 0.249264, 0.587511, 0.250279, 0.596213, 0.253986, 0, 0
2, 540.00000, 0.585129, 0.249264, 0.587511, 0.250279, 0.596213, 0.253986, 0, 0
2, 600.00000, 0.585129, 0.249264, 0.587511, 0.250279, 0.596213, 0.253986, 0, 0
2, 660.00000, 0.585129, 0.249264, 0.587511, 0.250279, 0.596213, 0.253986, 0, 0
2, 720.00000, 0.585129, 0.249264, 0.587511, 0.250279, 0.596213, 0.253986, 0, 0
2, 780.00000, 0.585129, 0.249264, 0.587511, 0.250279, 0.596213, 0.253986, 0, 0
2, 840.00000, 0.585129, 0.249264, 0.587511, 0.250279, 0.596213, 0.253986, 0, 0
2, 900.00000, 0.585129, 0.249264, 0.587511, 0.250279, 0.596213, 0.253986, 0, 0
2, 960.00000, 0.558189, 0.237791, 0.560365, 0.238714, 0.568681, 0.242262, 0, 0
2, 1020.00000, 0.558193, 0.237789, 0.560375, 0.238719, 0.568709, 0.242269, 0, 0
2, 1080.00000, 0.558193, 0.237789, 0.560375, 0.238719, 0.568709, 0.242269, 0, 0
2, 1140.00000, 0.558193, 0.237789, 0.560375, 0.238719, 0.568709, 0.242269, 0, 0
2, 1200.00000, 0.558193, 0.237789, 0.560375, 0.238719, 0.568709, 0.242269, 0, 0
2, 1260.00000, 0.558193, 0.237789, 0.560375, 0.238719, 0.568709, 0.242269, 0, 0
2, 1320.00000, 0.558193, 0.237789, 0.560375, 0.238719, 0.568709, 0.242269, 0, 0
2, 1380.00000, 0.558193, 0.237789, 0.560375, 0.238719, 0.568709, 0.242269, 0, 0
2, 1440.00000, 0.558193, 0.237789, 0.560375, 0.238719, 0.568709, 0.242269, 0, 0
2, 1500.00000, 0.558193, 0.237789, 0.560375, 0.238719, 0.568709, 0.242269, 0, 0
2, 1560.00000, 0.558193, 0.237789, 0.560375, 0.238719, 0.568709, 0.242269, 0, 0
2, 1620.00000, 0.558193, 0.237789, 0.560375, 0.238719, 0.568709, 0.242269, 0, 0
2, 1680.00000, 0.558193, 0.237789, 0.560375, 0.238719, 0.568709, 0.242269, 0, 0
2, 1740.00000, 0.558193, 0.237789, 0.560375, 0.238719, 0.568709, 0.242269, 0, 0
2, 1800.00000, 0.558193, 0.237789, 0.560375, 0.238719, 0.568709, 0.242269, 0, 0
2, 1860.00000, 0.556315, 0.236987, 0.558539, 0.237937, 0.566831, 0.241467, 0, 0
2, 1920.00000, 0.556312, 0.236988, 0.558536, 0.237935, 0.56682, 0.241464, 0, 0
2, 1980.00000, 0.556312, 0.236988, 0.558536, 0.237935, 0.56682, 0.241464, 0, 0
2, 2040.00000, 0.556312, 0.236988, 0.558536, 0.237935, 0.56682, 0.241464, 0, 0
2, 2100.00000, 0.556312, 0.236988, 0.558536, 0.237935, 0.56682, 0.241464, 0, 0
2, 2160.00000, 0.556312, 0.236988, 0.558536, 0.237935, 0.56682, 0.241464, 0, 0
2, 2220.00000, 0.556312, 0.236988, 0.558536, 0.237935, 0.56682, 0.241464, 0, 0
2, 2280.00000, 0.556312, 0.236988, 0.558536, 0.237935, 0.56682, 0.241464, 0, 0
2, 2340.00000, 0.556312, 0.236988, 0.558536, 0.237935, 0.56682, 0.241464, 0, 0
2, 2400.00000, 0.556312, 0.236988, 0.558536, 0.237935, 0.56682, 0.241464, 0, 0
2, 2460.00000, 0.556312, 0.236988, 0.558536, 0.237935, 0.56682, 0.241464, 0, 0
2, 2520.00000, 0.556312, 0.236988, 0.558536, 0.237935, 0.56682, 0.241464, 0, 0
2, 2580.00000, 0.556312, 0.236988, 0.558536, 0.237935, 0.56682, 0.241464, 0, 0
2, 2640.00000, 0.556312, 0.236988, 0.558536, 0.237935, 0.56682, 0.241464, 0, 0
2, 2700.00000, 0.556312, 0.236988, 0.558536, 0.237935, 0.56682, 0.241464, 0, 0
2, 2760.00000, 0.536448, 0.22853, 0.538475, 0.22939, 0.546348, 0.232749, 0, 0
2, 2820.00000, 0.536458, 0.22853, 0.538492, 0.229397, 0.546328, 0.232735, 0, 0
2, 2880.00000, 0.536458, 0.22853, 0.538492, 0.229397, 0.546327, 0.232734, 0, 0
2, 2940.00000, 0.536458, 0.22853, 0.538492, 0.229397, 0.546327, 0.232734, 0, 0
2, 3000.00000, 0.536458, 0.22853, 0.538492, 0.229397, 0.546327, 0.232734, 0, 0
2, 3060.00000, 0.536458, 0.22853, 0.538492, 0.229397, 0.546327, 0.232734, 0, 0
2, 3120.00000, 0.536458, 0.22853, 0.538492, 0.229397, 0.546327, 0.232734, 0, 0
2, 3180.00000, 0.536458, 0.22853, 0.538492, 0.229397, 0.546327, 0.232734, 0, 0
2, 3240.00000, 0.536458, 0.22853, 0.538492, 0.229397, 0.546327, 0.232734, 0, 0
2, 3300.00000, 0.536458, 0.22853, 0.538492, 0.229397, 0.546327, 0.232734, 0, 0
2, 3360.00000, 0.536458, 0.22853, 0.538492, 0.229397, 0.546327, 0.232734, 0, 0
2, 3420.00000, 0.536458, 0.22853, 0.538492, 0.229397, 0.546327, 0.232734, 0, 0
2, 3480.00000, 0.536458, 0.22853, 0.538492, 0.229397, 0.546327, 0.232734, 0, 0
2, 3540.00000, 0.536458, 0.22853, 0.538492, 0.229397, 0.546327, 0.232734, 0, 0
3, 0.00000, 0.536458, 0.22853, 0.538492, 0.229397, 0.546327, 0.232734, 0, 0
3, 60.00000, 0.548267, 0.233558, 0.550388, 0.234464, 0.55858, 0.237951, 0, 0
3, 120.00000, 0.548261, 0.233558, 0.55038, 0.234461, 0.558563, 0.237947, 0, 0
3, 180.00000, 0.548261, 0.233558, 0.55038, 0.234461, 0.558563, 0.237947, 0, 0
3, 240.00000, 0.548261, 0.233558, 0.55038, 0.234461, 0.558563, 0.237947, 0, 0
3, 300.00000, 0.548261, 0.233558, 0.55038, 0.234461, 0.558563, 0.237947, 0, 0
3, 360.00000, 0.548261, 0.233558, 0.55038, 0.234461, 0.558563, 0.237947, 0, 0
3, 420.00000, 0.548261, 0.233558, 0.55038, 0.234461, 0.558563, 0.237947, 0, 0
3, 480.00000, 0.548261, 0.233558, 0.55038, 0.234461, 0.558563, 0.237947, 0, 0
3, 540.00000, 0.548261, 0.233558, 0.55038, 0.234461, 0.558563, 0.237947, 0, 0
3, 600.00000, 0.548261, 0.233558, 0.55038, 0.234461, 0.558563, 0.237947, 0, 0
3, 660.00000, 0.548261, 0.233558, 0.55038, 0.234461, 0.558563, 0.237947, 0, 0
3, 720.00000, 0.548261, 0.233558, 0.55038, 0.234461, 0.558563, 0.237947, 0, 0
3, 780.00000, 0.548261, 0.233558, 0.55038, 0.234461, 0.558563, 0.237947, 0, 0
3, 840.00000, 0.548261, 0.233558, 0.55038, 0.234461, 0.558563, 0.237947, 0, 0
3, 900.00000, 0.548261, 0.233558, 0.55038, 0.234461, 0.558563, 0.237947, 0, 0
3, 960.00000, 0.563517, 0.240063, 0.565678, 0.240979, 0.574093, 0.244568, 0, 0
3, 1020.00000, 0.563532, 0.240064, 0.565699, 0.240987, 0.574134, 0.24458, 0, 0
3, 1080.00000, 0.563532, 0.240064, 0.565699, 0.240987, 0.574134, 0.24458, 0, 0
3, 1140.00000, 0.563532, 0.240064, 0.565699, 0.240987, 0.574134, 0.24458, 0, 0
3, 1200.00000, 0.563532, 0.240064, 0.565699, 0.240987, 0.574134, 0.24458, 0, 0
3, 1260.00000, 0.563532, 0.240064, 0.565699, 0.240987, 0.574134, 0.24458, 0, 0
3, 1320.00000, 0.563532, 0.240064, 0.565699, 0.240987, 0.574134, 0.24458, 0, 0
3, 1380.00000, 0.563532, 0.240064, 0.565699, 0.240987, 0.574134, 0.24458, 0, 0
3, 1440.00000, 0.563532, 0.240064, 0.565699, 0.240987, 0.574134, 0.24458, 0, 0
3, 1500.00000, 0.563532, 0.240064, 0.565699, 0.240987, 0.574134, 0.24458, 0, 0
3, 1560.00000, 0.563532, 0.240064, 0.565699, 0.240987, 0.574134, 0.24458, 0, 0
3, 1620.00000, 0.563532, 0.240064, 0.565699, 0.240987, 0.574134, 0.24458, 0, 0
3, 1680.00000, 0.563532, 0.240064, 0.565699, 0.240987, 0.574134, 0.24458, 0, 0
3, 1740.00000, 0.563532, 0.240064, 0.565699, 0.240987, 0.574134, 0.24458, 0, 0
3, 1800.00000, 0.563532, 0.240064, 0.565699, 0.240987, 0.574134, 0.24458, 0, 0
3, 1860.00000, 0.570291, 0.242948, 0.572484, 0.243882, 0.581029, 0.247522, 0, 0
3, 1920.00000, 0.570306, 0.242949, 0.5725, 0.243884, 0.581049, 0.247526, 0, 0
3, 1980.00000, 0.570306, 0.242949, 0.5725, 0.243884, 0.581049, 0.247526, 0, 0
3, 2040.00000, 0.570306, 0.242949, 0.5725, 0.243884, 0.581049, 0.247526, 0, 0
3, 2100.00000, 0.570306, 0.242949, 0.5725, 0.243884, 0.581049, 0.247526, 0, 0
3, 2160.00000, 0.570306, 0.242949, 0.5725, 0.243884, 0.581049, 0.247526, 0, 0
3, 2220.00000, 0.570306, 0.242949, 0.5725, 0.243884, 0.581049, 0.247526, 0, 0
3, 2280.00000, 0.570306, 0.242949, 0.5725, 0.243884, 0.581049, 0.247526, 0, 0
3, 2340.00000, 0.570306, 0.242949, 0.5725, 0.243884, 0.581049, 0.247526, 0, 0
3, 2400.00000, 0.570306, 0.242949, 0.5725, 0.243884, 0.581049, 0.247526, 0, 0
3, 2460.00000, 0.570306, 0.242949, 0.5725, 0.243884, 0.581049, 0.247526, 0, 0
3, 2520.00000, 0.570306, 0.242949, 0.5725, 0.243884, 0.581049, 0.247526, 0, 0
3, 2580.00000, 0.570306, 0.242949, 0.5725, 0.243884, 0.581049, 0.247526, 0, 0
3, 2640.00000, 0.570306, 0.242949, 0.5725, 0.243884, 0.581049, 0.247526, 0, 0
3, 2700.00000, 0.570306, 0.242949, 0.5725, 0.243884, 0.581049, 0.247526, 0, 0
3, 2760.00000, 0.526014, 0.224085, 0.527905, 0.224887, 0.53319, 0.227143, 0, 0
3, 2820.00000, 0.526028, 0.224087, 0.527922, 0.224894, 0.533169, 0.227129, 0, 0
3, 2880.00000, 0.526028, 0.224087, 0.527922, 0.224894, 0.533169, 0.227129, 0, 0
3, 2940.00000, 0.526028, 0.224087, 0.527922, 0.224894, 0.533169, 0.227129, 0, 0
3, 3000.00000, 0.526028, 0.224087, 0.527922, 0.224894, 0.533169, 0.227129, 0, 0
3, 3060.00000, 0.526028, 0.224087, 0.527922, 0.224894, 0.533169, 0.227129, 0, 0
3, 3120.00000, 0.526028, 0.224087, 0.527922, 0.224894, 0.533169, 0.227129, 0, 0
3, 3180.00000, 0.526028, 0.224087, 0.527922, 0.224894, 0.533169, 0.227129, 0, 0
3, 3240.00000, 0.526028, 0.224087, 0.527922, 0.224894, 0.533169, 0.227129, 0, 0
3, 3300.00000, 0.526028, 0.224087, 0.527922, 0.224894, 0.533169, 0.227129, 0, 0
3, 3360.00000, 0.526028, 0.224087, 0.527922, 0.224894, 0.533169, 0.227129, 0, 0
3, 3420.00000, 0.526028, 0.224087, 0.527922, 0.224894, 0.533169, 0.227129, 0, 0
3, 3480.00000, 0.526028, 0.224087, 0.527922, 0.224894, 0.533169, 0.227129, 0, 0
3, 3540.00000, 0.526028, 0.224087, 0.527922, 0.224894, 0.533169, 0.227129, 0, 0
4, 0.00000, 0.526028, 0.224087, 0.527922, 0.224894, 0.533169, 0.227129, 0, 0
4, 60.00000, 0.559874, 0.238502, 0.562006, 0.239414, 0.570352, 0.242966, 0, 0
4, 120.00000, 0.559865, 0.238501, 0.561995, 0.239409, 0.570354, 0.24297, 0, 0
4, 180.00000, 0.559865, 0.238501, 0.561995, 0.239409, 0.570353, 0.242969, 0, 0
4, 240.00000, 0.559865, 0.238501, 0.561995, 0.239409, 0.570353, 0.242969, 0, 0
4, 300.00000, 0.559865, 0.238501, 0.561995, 0.239409, 0.570353, 0.242969, 0, 0
4, 360.00000, 0.559865, 0.238501, 0.561995, 0.239409, 0.570353, 0.242969, 0, 0
4, 420.00000, 0.559865, 0.238501, 0.561995, 0.239409, 0.570353, 0.242969, 0, 0
4, 480.00000, 0.559865, 0.238501, 0.561995, 0.239409, 0.570353, 0.242969, 0, 0
4, 540.00000, 0.559865, 0.238501, 0.561995, 0.239409, 0.570353, 0.242969, 0, 0
4, 600.00000, 0.559865, 0.238501, 0.561995, 0.239409, 0.570353, 0.242969, 0, 0
4, 660.00000, 0.559865, 0.238501, 0.561995, 0.239409, 0.570353, 0.242969, 0, 0
4, 720.00000, 0.559865, 0.238501, 0.561995, 0.239409, 0.570353, 0.242969, 0, 0
