hour,t(sec),V1,VAngle1,V2,VAngle2,V3,VAngle3,V4,VAngle4,I1,IAngle1,I2,IAngle2,I3,IAngle3,I4,IAngle4
0, 60.00000, 118.958, -31.0723, 119.387, -150.961, 119.716, 88.9329, 0, 0, 7.16115, -54.146, 7.18986, -174.035, 7.21188, 65.8592, 0.030531, -76.8118
0, 120.00000, 118.958, -31.0723, 119.387, -150.961, 119.716, 88.9328, 0, 0, 7.16112, -54.1462, 7.18982, -174.035, 7.21176, 65.8589, 0.0304278, -76.7333
0, 180.00000, 118.958, -31.0723, 119.387, -150.961, 119.716, 88.9328, 0, 0, 7.16112, -54.1462, 7.18982, -174.035, 7.21176, 65.8589, 0.0304273, -76.7328
0, 240.00000, 118.958, -31.0723, 119.387, -150.961, 119.716, 88.9328, 0, 0, 7.16112, -54.1462, 7.18982, -174.035, 7.21176, 65.8589, 0.0304273, -76.7328
0, 300.00000, 118.958, -31.0723, 119.387, -150.961, 119.716, 88.9328, 0, 0, 7.16112, -54.1462, 7.18982, -174.035, 7.21176, 65.8589, 0.0304273, -76.7328
0, 360.00000, 118.958, -31.0723, 119.387, -150.961, 119.716, 88.9328, 0, 0, 7.16112, -54.1462, 7.18982, -174.035, 7.21176, 65.8589, 0.0304273, -76.7328
0, 420.00000, 118.958, -31.0723, 119.387, -150.961, 119.716, 88.9328, 0, 0, 7.16112, -54.1462, 7.18982, -174.035, 7.21176, 65.8589, 0.0304273, -76.7328
0, 480.00000, 120.032, -30.9778, 120.409, -150.878, 120.737, 89.0387, 0, 0, 6.29259, -54.0524, 6.31445, -173.952, 6.32607, 65.9641, 0.0199661, -64.4796
0, 540.00000, 120.032, -30.9778, 120.409, -150.878, 120.738, 89.0387, 0, 0, 6.29262, -54.0517, 6.31456, -173.952, 6.32574, 65.9648, 0.019861, -63.5841
0, 600.00000, 120.032, -30.9778, 120.409, -150.878, 120.738, 89.0387, 0, 0, 6.29262, -54.0517, 6.31456, -173.952, 6.32573, 65.9648, 0.0198609, -63.5743
0, 660.00000, 120.032, -30.9778, 120.409, -150.878, 120.738, 89.0387, 0, 0, 6.29262, -54.0517, 6.31456, -173.952, 6.32573, 65.9648, 0.0198609, -63.5741
0, 720.00000, 120.032, -30.9778, 120.409, -150.878, 120.738, 89.0387, 0, 0, 6.29262, -54.0517, 6.31456, -173.952, 6.32573, 65.9648, 0.0198609, -63.5741
0, 780.00000, 120.032, -30.9778, 120.409, -150.878, 120.738, 89.0387, 0, 0, 6.29262, -54.0517, 6.31456, -173.952, 6.32573, 65.9648, 0.0198609, -63.5741
0, 840.00000, 120.032, -30.9778, 120.409, -150.878, 120.738, 89.0387, 0, 0, 6.29262, -54.0517, 6.31456, -173.952, 6.32573, 65.9648, 0.0198609, -63.5741
0, 900.00000, 120.032, -30.9778, 120.409, -150.878, 120.738, 89.0387, 0, 0, 6.29262, -54.0517, 6.31456, -173.952, 6.32573, 65.9648, 0.0198609, -63.5741
0, 960.00000, 120.032, -30.9778, 120.409, -150.878, 120.738, 89.0387, 0, 0, 6.29262, -54.0517, 6.31456, -173.952, 6.32573, 65.9648, 0.0198609, -63.5741
0, 1020.00000, 120.032, -30.9778, 120.409, -150.878, 120.738, 89.0387, 0, 0, 6.29262, -54.0517, 6.31456, -173.952, 6.32573, 65.9648, 0.0198609, -63.5741
0, 1080.00000, 120.032, -30.9778, 120.409, -150.878, 120.738, 89.0387, 0, 0, 6.29262, -54.0517, 6.31456, -173.952, 6.32573, 65.9648, 0.0198609, -63.5741
0, 1140.00000, 120.032, -30.9778, 120.409, -150.878, 120.738, 89.0387, 0, 0, 6.29262, -54.0517, 6.31456, -173.952, 6.32573, 65.9648, 0.0198609, -63.5741
0, 1200.00000, 120.032, -30.9778, 120.409, -150.878, 120.738, 89.0387, 0, 0, 6.29262, -54.0517, 6.31456, -173.952, 6.32573, 65.9648, 0.0198609, -63.5741
0, 1260.00000, 120.032, -30.9778, 120.409, -150.878, 120.738, 89.0387, 0, 0, 6.29262, -54.0517, 6.31456, -173.952, 6.32573, 65.9648, 0.0198609, -63.5741
0, 1320.00000, 120.032, -30.9778, 120.409, -150.878, 120.738, 89.0387, 0, 0, 6.29262, -54.0517, 6.31456, -173.952, 6.32573, 65.9648, 0.0198609, -63.5741
0, 1380.00000, 120.032, -30.9778, 120.409, -150.878, 120.738, 89.0387, 0, 0, 6.29262, -54.0517, 6.31456, -173.952, 6.32573, 65.9648, 0.0198609, -63.5741
0, 1440.00000, 120.032, -30.9778, 120.409, -150.878, 120.738, 89.0387, 0, 0, 6.29262, -54.0517, 6.31456, -173.952, 6.32573, 65.9648, 0.0198609, -63.5741
0, 1500.00000, 120.032, -30.9778, 120.409, -150.878, 120.738, 89.0387, 0, 0, 6.29262, -54.0517, 6.31456, -173.952, 6.32573, 65.9648, 0.0198609, -63.5741
0, 1560.00000, 120.032, -30.9778, 120.409, -150.878, 120.738, 89.0387, 0, 0, 6.29262, -54.0517, 6.31456, -173.952, 6.32573, 65.9648, 0.0198609, -63.5741
0, 1620.00000, 120.032, -30.9778, 120.409, -150.878, 120.738, 89.0387, 0, 0, 6.29262, -54.0517, 6.31456, -173.952, 6.32573, 65.9648, 0.0198609, -63.5741
0, 1680.00000, 120.032, -30.9778, 120.409, -150.878, 120.738, 89.0387, 0, 0, 6.29262, -54.0517, 6.31456, -173.952, 6.32573, 65.9648, 0.0198609, -63.5741
0, 1740.00000, 120.032, -30.9778, 120.409, -150.878, 120.738, 89.0387, 0, 0, 6.29262, -54.0517, 6.31456, -173.952, 6.32573, 65.9648, 0.0198609, -63.5741
0, 1800.00000, 120.032, -30.9778, 120.409, -150.878, 120.738, 89.0387, 0, 0, 6.29262, -54.0517, 6.31456, -173.952, 6.32573, 65.9648, 0.0198609, -63.5741
0, 1860.00000, 120.032, -30.9778, 120.409, -150.878, 120.738, 89.0387, 0, 0, 6.29262, -54.0517, 6.31456, -173.952, 6.32573, 65.9648, 0.0198609, -63.5741
0, 1920.00000, 120.032, -30.9778, 120.409, -150.878, 120.738, 89.0387, 0, 0, 6.29262, -54.0517, 6.31456, -173.952, 6.32573, 65.9648, 0.0198609, -63.5741
0, 1980.00000, 120.032, -30.9778, 120.409, -150.878, 120.738, 89.0387, 0, 0, 6.29262, -54.0517, 6.31456, -173.952, 6.32573, 65.9648, 0.0198609, -63.5741
0, 2040.00000, 120.032, -30.9778, 120.409, -150.878, 120.738, 89.0387, 0, 0, 6.29262, -54.0517, 6.31456, -173.952, 6.32573, 65.9648, 0.0198609, -63.5741
0, 2100.00000, 120.032, -30.9778, 120.409, -150.878, 120.738, 89.0387, 0, 0, 6.29262, -54.0517, 6.31456, -173.952, 6.32573, 65.9648, 0.0198609, -63.5741
0, 2160.00000, 120.032, -30.9778, 120.409, -150.878, 120.738, 89.0387, 0, 0, 6.29262, -54.0517, 6.31456, -173.952, 6.32573, 65.9648, 0.0198609, -63.5741
0, 2220.00000, 120.032, -30.9778, 120.409, -150.878, 120.738, 89.0387, 0, 0, 6.29262, -54.0517, 6.31456, -173.952, 6.32573, 65.9648, 0.0198609, -63.5741
0, 2280.00000, 120.032, -30.9778, 120.409, -150.878, 120.738, 89.0387, 0, 0, 6.29262, -54.0517, 6.31456, -173.952, 6.32573, 65.9648, 0.0198609, -63.5741
0, 2340.00000, 120.032, -30.9778, 120.409, -150.878, 120.738, 89.0387, 0, 0, 6.29262, -54.0517, 6.31456, -173.952, 6.32573, 65.9648, 0.0198609, -63.5741
0, 2400.00000, 120.032, -30.9778, 120.409, -150.878, 120.738, 89.0387, 0, 0, 6.29262, -54.0517, 6.31456, -173.952, 6.32573, 65.9648, 0.0198609, -63.5741
0, 2460.00000, 120.032, -30.9778, 120.409, -150.878, 120.738, 89.0387, 0, 0, 6.29262, -54.0517, 6.31456, -173.952, 6.32573, 65.9648, 0.0198609, -63.5741
0, 2520.00000, 120.032, -30.9778, 120.409, -150.878, 120.738, 89.0387, 0, 0, 6.29262, -54.0517, 6.31456, -173.952, 6.32573, 65.9648, 0.0198609, -63.5741
0, 2580.00000, 120.032, -30.9778, 120.409, -150.878, 120.738, 89.0387, 0, 0, 6.29262, -54.0517, 6.31456, -173.952, 6.32573, 65.9648, 0.0198609, -63.5741
0, 2640.00000, 120.032, -30.9778, 120.409, -150.878, 120.738, 89.0387, 0, 0, 6.29262, -54.0517, 6.31456, -173.952, 6.32573, 65.9648, 0.0198609, -63.5741
0, 2700.00000, 120.032, -30.9778, 120.409, -150.878, 120.738, 89.0387, 0, 0, 6.29262, -54.0517, 6.31456, -173.952, 6.32573, 65.9648, 0.0198609, -63.5741
0, 2760.00000, 120.032, -30.9778, 120.409, -150.878, 120.738, 89.0387, 0, 0, 6.29262, -54.0517, 6.31456, -173.952, 6.32573, 65.9648, 0.0198609, -63.5741
0, 2820.00000, 120.032, -30.9778, 120.409, -150.878, 120.738, 89.0387, 0, 0, 6.29262, -54.0517, 6.31456, -173.952, 6.32573, 65.9648, 0.0198609, -63.5741
0, 2880.00000, 120.032, -30.9778, 120.409, -150.878, 120.738, 89.0387, 0, 0, 6.29262, -54.0517, 6.31456, -173.952, 6.32573, 65.9648, 0.0198609, -63.5741
0, 2940.00000, 120.032, -30.9778, 120.409, -150.878, 120.738, 89.0387, 0, 0, 6.29262, -54.0517, 6.31456, -173.952, 6.32573, 65.9648, 0.0198609, -63.5741
0, 3000.00000, 120.032, -30.9778, 120.409, -150.878, 120.738, 89.0387, 0, 0, 6.29262, -54.0517, 6.31456, -173.952, 6.32573, 65.9648, 0.0198609, -63.5741
0, 3060.00000, 120.032, -30.9778, 120.409, -150.878, 120.738, 89.0387, 0, 0, 6.29262, -54.0517, 6.31456, -173.952, 6.32573, 65.9648, 0.0198609, -63.5741
0, 3120.00000, 120.032, -30.9778, 120.409, -150.878, 120.738, 89.0387, 0, 0, 6.29262, -54.0517, 6.31456, -173.952, 6.32573, 65.9648, 0.0198609, -63.5741
0, 3180.00000, 120.032, -30.9778, 120.409, -150.878, 120.738, 89.0387, 0, 0, 6.29262, -54.0517, 6.31456, -173.952, 6.32573, 65.9648, 0.0198609, -63.5741
0, 3240.00000, 120.032, -30.9778, 120.409, -150.878, 120.738, 89.0387, 0, 0, 6.29262, -54.0517, 6.31456, -173.952, 6.32573, 65.9648, 0.0198609, -63.5741
0, 3300.00000, 120.032, -30.9778, 120.409, -150.878, 120.738, 89.0387, 0, 0, 6.29262, -54.0517, 6.31456, -173.952, 6.32573, 65.9648, 0.0198609, -63.5741
0, 3360.00000, 120.032, -30.9778, 120.409, -150.878, 120.738, 89.0387, 0, 0, 6.29262, -54.0517, 6.31456, -173.952, 6.32573, 65.9648, 0.0198609, -63.5741
0, 3420.00000, 120.032, -30.9778, 120.409, -150.878, 120.738, 89.0387, 0, 0, 6.29262, -54.0517, 6.31456, -173.952, 6.32573, 65.9648, 0.0198609, -63.5741
0, 3480.00000, 120.032, -30.9778, 120.409, -150.878, 120.738, 89.0387, 0, 0, 6.29262, -54.0517, 6.31456, -173.952, 6.32573, 65.9648, 0.0198609, -63.5741
0, 3540.00000, 120.032, -30.9778, 120.409, -150.878, 120.738, 89.0387, 0, 0, 6.29262, -54.0517, 6.31456, -173.952, 6.32573, 65.9648, 0.0198609, -63.5741
1, 0.00000, 120.032, -30.9778, 120.409, -150.878, 120.738, 89.0387, 0, 0, 6.29262, -54.0517, 6.31456, -173.952, 6.32573, 65.9648, 0.0198609, -63.5741
1, 60.00000, 120.032, -30.9778, 120.409, -150.878, 120.738, 89.0387, 0, 0, 6.29262, -54.0517, 6.31456, -173.952, 6.32573, 65.9648, 0.0198609, -63.5741
1, 120.00000, 120.032, -30.9778, 120.409, -150.878, 120.738, 89.0387, 0, 0, 6.29262, -54.0517, 6.31456, -173.952, 6.32573, 65.9648, 0.0198609, -63.5741
1, 180.00000, 120.032, -30.9778, 120.409, -150.878, 120.738, 89.0387, 0, 0, 6.29262, -54.0517, 6.31456, -173.952, 6.32573, 65.9648, 0.0198609, -63.5741
1, 240.00000, 120.032, -30.9778, 120.409, -150.878, 120.738, 89.0387, 0, 0, 6.29262, -54.0517, 6.31456, -173.952, 6.32573, 65.9648, 0.0198609, -63.5741
1, 300.00000, 120.032, -30.9778, 120.409, -150.878, 120.738, 89.0387, 0, 0, 6.29262, -54.0517, 6.31456, -173.952, 6.32573, 65.9648, 0.0198609, -63.5741
1, 360.00000, 120.032, -30.9778, 120.409, -150.878, 120.738, 89.0387, 0, 0, 6.29262, -54.0517, 6.31456, -173.952, 6.32573, 65.9648, 0.0198609, -63.5741
1, 420.00000, 120.032, -30.9778, 120.409, -150.878, 120.738, 89.0387, 0, 0, 6.29262, -54.0517, 6.31456, -173.952, 6.32573, 65.9648, 0.0198609, -63.5741
1, 480.00000, 120.032, -30.9778, 120.409, -150.878, 120.738, 89.0387, 0, 0, 6.29262, -54.0517, 6.31456, -173.952, 6.32573, 65.9648, 0.0198609, -63.5741
1, 540.00000, 120.032, -30.9778, 120.409, -150.878, 120.738, 89.0387, 0, 0, 6.29262, -54.0517, 6.31456, -173.952, 6.32573, 65.9648, 0.0198609, -63.5741
1, 600.00000, 120.032, -30.9778, 120.409, -150.878, 120.738, 89.0387, 0, 0, 6.29262, -54.0517, 6.31456, -173.952, 6.32573, 65.9648, 0.0198609, -63.5741
1, 660.00000, 120.032, -30.9778, 120.409, -150.878, 120.738, 89.0387, 0, 0, 6.29262, -54.0517, 6.31456, -173.952, 6.32573, 65.9648, 0.0198609, -63.5741
1, 720.00000, 120.032, -30.9778, 120.409, -150.878, 120.738, 89.0387, 0, 0, 6.29262, -54.0517, 6.31456, -173.952, 6.32573, 65.9648, 0.0198609, -63.5741
1, 780.00000, 120.032, -30.9778, 120.409, -150.878, 120.738, 89.0387, 0, 0, 6.29262, -54.0517, 6.31456, -173.952, 6.32573, 65.9648, 0.0198609, -63.5741
1, 840.00000, 120.032, -30.9778, 120.409, -150.878, 120.738, 89.0387, 0, 0, 6.29262, -54.0517, 6.31456, -173.952, 6.32573, 65.9648, 0.0198609, -63.5741
1, 900.00000, 120.032, -30.9778, 120.409, -150.878, 120.738, 89.0387, 0, 0, 6.29262, -54.0517, 6.31456, -173.952, 6.32573, 65.9648, 0.0198609, -63.5741
1, 960.00000, 120.032, -30.9778, 120.409, -150.878, 120.738, 89.0387, 0, 0, 6.29262, -54.0517, 6.31456, -173.952, 6.32573, 65.9648, 0.0198609, -63.5741
1, 1020.00000, 120.032, -30.9778, 120.409, -150.878, 120.738, 89.0387, 0, 0, 6.29262, -54.0517, 6.31456, -173.952, 6.32573, 65.9648, 0.0198609, -63.5741
1, 1080.00000, 120.032, -30.9778, 120.409, -150.878, 120.738, 89.0387, 0, 0, 6.29262, -54.0517, 6.31456, -173.952, 6.32573, 65.9648, 0.0198609, -63.5741
1, 1140.00000, 120.032, -30.9778, 120.409, -150.878, 120.738, 89.0387, 0, 0, 6.29262, -54.0517, 6.31456, -173.952, 6.32573, 65.9648, 0.0198609, -63.5741
1, 1200.00000, 120.032, -30.9778, 120.409, -150.878, 120.738, 89.0387, 0, 0, 6.29262, -54.0517, 6.31456, -173.952, 6.32573, 65.9648, 0.0198609, -63.5741
1, 1260.00000, 120.032, -30.9778, 120.409, -150.878, 120.738, 89.0387, 0, 0, 6.29262, -54.0517, 6.31456, -173.952, 6.32573, 65.9648, 0.0198609, -63.5741
1, 1320.00000, 120.032, -30.9778, 120.409, -150.878, 120.738, 89.0387, 0, 0, 6.29262, -54.0517, 6.31456, -173.952, 6.32573, 65.9648, 0.0198609, -63.5741
1, 1380.00000, 120.032, -30.9778, 120.409, -150.878, 120.738, 89.0387, 0, 0, 6.29262, -54.0517, 6.31456, -173.952, 6.32573, 65.9648, 0.0198609, -63.5741
1, 1440.00000, 120.032, -30.9778, 120.409, -150.878, 120.738, 89.0387, 0, 0, 6.29262, -54.0517, 6.31456, -173.952, 6.32573, 65.9648, 0.0198609, -63.5741
1, 1500.00000, 120.032, -30.9778, 120.409, -150.878, 120.738, 89.0387, 0, 0, 6.29262, -54.0517, 6.31456, -173.952, 6.32573, 65.9648, 0.0198609, -63.5741
1, 1560.00000, 120.032, -30.9778, 120.409, -150.878, 120.738, 89.0387, 0, 0, 6.29262, -54.0517, 6.31456, -173.952, 6.32573, 65.9648, 0.0198609, -63.5741
1, 1620.00000, 120.032, -30.9778, 120.409, -150.878, 120.738, 89.0387, 0, 0, 6.29262, -54.0517, 6.31456, -173.952, 6.32573, 65.9648, 0.0198609, -63.5741
1, 1680.00000, 120.032, -30.9778, 120.409, -150.878, 120.738, 89.0387, 0, 0, 6.29262, -54.0517, 6.31456, -173.952, 6.32573, 65.9648, 0.0198609, -63.5741
1, 1740.00000, 120.032, -30.9778, 120.409, -150.878, 120.738, 89.0387, 0, 0, 6.29262, -54.0517, 6.31456, -173.952, 6.32573, 65.9648, 0.0198609, -63.5741
1, 1800.00000, 120.032, -30.9778, 120.409, -150.878, 120.738, 89.0387, 0, 0, 6.29262, -54.0517, 6.31456, -173.952, 6.32573, 65.9648, 0.0198609, -63.5741
1, 1860.00000, 120.032, -30.9778, 120.409, -150.878, 120.738, 89.0387, 0, 0, 6.29262, -54.0517, 6.31456, -173.952, 6.32573, 65.9648, 0.0198609, -63.5741
1, 1920.00000, 120.032, -30.9778, 120.409, -150.878, 120.738, 89.0387, 0, 0, 6.29262, -54.0517, 6.31456, -173.952, 6.32573, 65.9648, 0.0198609, -63.5741
1, 1980.00000, 120.032, -30.9778, 120.409, -150.878, 120.738, 89.0387, 0, 0, 6.29262, -54.0517, 6.31456, -173.952, 6.32573, 65.9648, 0.0198609, -63.5741
1, 2040.00000, 120.032, -30.9778, 120.409, -150.878, 120.738, 89.0387, 0, 0, 6.29262, -54.0517, 6.31456, -173.952, 6.32573, 65.9648, 0.0198609, -63.5741
1, 2100.00000, 120.032, -30.9778, 120.409, -150.878, 120.738, 89.0387, 0, 0, 6.29262, -54.0517, 6.31456, -173.952, 6.32573, 65.9648, 0.0198609, -63.5741
1, 2160.00000, 120.032, -30.9778, 120.409, -150.878, 120.738, 89.0387, 0, 0, 6.29262, -54.0517, 6.31456, -173.952, 6.32573, 65.9648, 0.0198609, -63.5741
1, 2220.00000, 120.032, -30.9778, 120.409, -150.878, 120.738, 89.0387, 0, 0, 6.29262, -54.0517, 6.31456, -173.952, 6.32573, 65.9648, 0.0198609, -63.5741
1, 2280.00000, 120.032, -30.9778, 120.409, -150.878, 120.738, 89.0387, 0, 0, 6.29262, -54.0517, 6.31456, -173.952, 6.32573, 65.9648, 0.0198609, -63.5741
1, 2340.00000, 120.032, -30.9778, 120.409, -150.878, 120.738, 89.0387, 0, 0, 6.29262, -54.0517, 6.31456, -173.952, 6.32573, 65.9648, 0.0198609, -63.5741
1, 2400.00000, 120.032, -30.9778, 120.409, -150.878, 120.738, 89.0387, 0, 0, 6.29262, -54.0517, 6.31456, -173.952, 6.32573, 65.9648, 0.0198609, -63.5741
1, 2460.00000, 120.032, -30.9778, 120.409, -150.878, 120.738, 89.0387, 0, 0, 6.29262, -54.0517, 6.31456, -173.952, 6.32573, 65.9648, 0.0198609, -63.5741
1, 2520.00000, 120.032, -30.9778, 120.409, -150.878, 120.738, 89.0387, 0, 0, 6.29262, -54.0517, 6.31456, -173.952, 6.32573, 65.9648, 0.0198609, -63.5741
1, 2580.00000, 120.032, -30.9778, 120.409, -150.878, 120.738, 89.0387, 0, 0, 6.29262, -54.0517, 6.31456, -173.952, 6.32573, 65.9648, 0.0198609, -63.5741
1, 2640.00000, 120.032, -30.9778, 120.409, -150.878, 120.738, 89.0387, 0, 0, 6.29262, -54.0517, 6.31456, -173.952, 6.32573, 65.9648, 0.0198609, -63.5741
1, 2700.00000, 120.032, -30.9778, 120.409, -150.878, 120.738, 89.0387, 0, 0, 6.29262, -54.0517, 6.31456, -173.952, 6.32573, 65.9648, 0.0198609, -63.5741
1, 2760.00000, 120.032, -30.9778, 120.409, -150.878, 120.738, 89.0387, 0, 0, 6.29262, -54.0517, 6.31456, -173.952, 6.32573, 65.9648, 0.0198609, -63.5741
1, 2820.00000, 120.032, -30.9778, 120.409, -150.878, 120.738, 89.0387, 0, 0, 6.29262, -54.0517, 6.31456, -173.952, 6.32573, 65.9648, 0.0198609, -63.5741
1, 2880.00000, 120.032, -30.9778, 120.409, -150.878, 120.738, 89.0387, 0, 0, 6.29262, -54.0517, 6.31456, -173.952, 6.32573, 65.9648, 0.0198609, -63.5741
1, 2940.00000, 120.032, -30.9778, 120.409, -150.878, 120.738, 89.0387, 0, 0, 6.29262, -54.0517, 6.31456, -173.952, 6.32573, 65.9648, 0.0198609, -63.5741
1, 3000.00000, 120.032, -30.9778, 120.409, -150.878, 120.738, 89.0387, 0, 0, 6.29262, -54.0517, 6.31456, -173.952, 6.32573, 65.9648, 0.0198609, -63.5741
1, 3060.00000, 120.032, -30.9778, 120.409, -150.878, 120.738, 89.0387, 0, 0, 6.29262, -54.0517, 6.31456, -173.952, 6.32573, 65.9648, 0.0198609, -63.5741
1, 3120.00000, 120.032, -30.9778, 120.409, -150.878, 120.738, 89.0387, 0, 0, 6.29262, -54.0517, 6.31456, -173.952, 6.32573, 65.9648, 0.0198609, -63.5741
1, 3180.00000, 120.032, -30.9778, 120.409, -150.878, 120.738, 89.0387, 0, 0, 6.29262, -54.0517, 6.31456, -173.952, 6.32573, 65.9648, 0.0198609, -63.5741
1, 3240.00000, 120.032, -30.9778, 120.409, -150.878, 120.738, 89.0387, 0, 0, 6.29262, -54.0517, 6.31456, -173.952, 6.32573, 65.9648, 0.0198609, -63.5741
1, 3300.00000, 120.032, -30.9778, 120.409, -150.878, 120.738, 89.0387, 0, 0, 6.29262, -54.0517, 6.31456, -173.952, 6.32573, 65.9648, 0.0198609, -63.5741
1, 3360.00000, 120.032, -30.9778, 120.409, -150.878, 120.738, 89.0387, 0, 0, 6.29262, -54.0517, 6.31456, -173.952, 6.32573, 65.9648, 0.0198609, -63.5741
1, 3420.00000, 120.032, -30.9778, 120.409, -150.878, 120.738, 89.0387, 0, 0, 6.29262, -54.0517, 6.31456, -173.952, 6.32573, 65.9648, 0.0198609, -63.5741
1, 3480.00000, 120.032, -30.9778, 120.409, -150.878, 120.738, 89.0387, 0, 0, 6.29262, -54.0517, 6.31456, -173.952, 6.32573, 65.9648, 0.0198609, -63.5741
1, 3540.00000, 120.032, -30.9778, 120.409, -150.878, 120.738, 89.0387, 0, 0, 6.29262, -54.0517, 6.31456, -173.952, 6.32573, 65.9648, 0.0198609, -63.5741
2, 0.00000, 120.032, -30.9778, 120.409, -150.878, 120.738, 89.0387, 0, 0, 6.29262, -54.0517, 6.31456, -173.952, 6.32573, 65.9648, 0.0198609, -63.5741
2, 60.00000, 120.032, -30.9778, 120.409, -150.878, 120.738, 89.0387, 0, 0, 6.29262, -54.0517, 6.31456, -173.952, 6.32573, 65.9648, 0.0198609, -63.5741
2, 120.00000, 120.032, -30.9778, 120.409, -150.878, 120.738, 89.0387, 0, 0, 6.29262, -54.0517, 6.31456, -173.952, 6.32573, 65.9648, 0.0198609, -63.5741
2, 180.00000, 120.032, -30.9778, 120.409, -150.878, 120.738, 89.0387, 0, 0, 6.29262, -54.0517, 6.31456, -173.952, 6.32573, 65.9648, 0.0198609, -63.5741
2, 240.00000, 120.032, -30.9778, 120.409, -150.878, 120.738, 89.0387, 0, 0, 6.29262, -54.0517, 6.31456, -173.952, 6.32573, 65.9648, 0.0198609, -63.5741
2, 300.00000, 120.032, -30.9778, 120.409, -150.878, 120.738, 89.0387, 0, 0, 6.29262, -54.0517, 6.31456, -173.952, 6.32573, 65.9648, 0.0198609, -63.5741
2, 360.00000, 120.032, -30.9778, 120.409, -150.878, 120.738, 89.0387, 0, 0, 6.29262, -54.0517, 6.31456, -173.952, 6.32573, 65.9648, 0.0198609, -63.5741
2, 420.00000, 120.032, -30.9778, 120.409, -150.878, 120.738, 89.0387, 0, 0, 6.29262, -54.0517, 6.31456, -173.952, 6.32573, 65.9648, 0.0198609, -63.5741
2, 480.00000, 120.032, -30.9778, 120.409, -150.878, 120.738, 89.0387, 0, 0, 6.29262, -54.0517, 6.31456, -173.952, 6.32573, 65.9648, 0.0198609, -63.5741
2, 540.00000, 120.032, -30.9778, 120.409, -150.878, 120.738, 89.0387, 0, 0, 6.29262, -54.0517, 6.31456, -173.952, 6.32573, 65.9648, 0.0198609, -63.5741
2, 600.00000, 120.032, -30.9778, 120.409, -150.878, 120.738, 89.0387, 0, 0, 6.29262, -54.0517, 6.31456, -173.952, 6.32573, 65.9648, 0.0198609, -63.5741
