hour,t(sec),V1,VAngle1,V2,VAngle2,V3,VAngle3,V4,VAngle4,I1,IAngle1,I2,IAngle2,I3,IAngle3,I4,IAngle4
0, 60.00000, 123.972, -32.2982, 123.189, -151.524, 125.368, 88.4074, 0, 0, 6.10501, -55.3719, 6.14381, -174.598, 6.03716, 65.3335, 0.172409, 42.1404
0, 120.00000, 123.978, -32.3044, 123.189, -151.524, 125.385, 88.407, 0, 0, 6.1047, -55.3781, 6.14382, -174.598, 6.03632, 65.3331, 0.173785, 42.1286
0, 180.00000, 123.984, -32.31, 123.189, -151.524, 125.401, 88.4067, 0, 0, 6.10442, -55.3837, 6.14383, -174.598, 6.03557, 65.3327, 0.175021, 42.1186
0, 240.00000, 123.989, -32.315, 123.189, -151.524, 125.415, 88.4063, 0, 0, 6.10417, -55.3888, 6.14383, -174.598, 6.03489, 65.3324, 0.176135, 42.1101
0, 300.00000, 123.994, -32.3195, 123.189, -151.524, 125.427, 88.406, 0, 0, 6.10394, -55.3933, 6.14384, -174.598, 6.03428, 65.3321, 0.177137, 42.1029
0, 360.00000, 123.998, -32.3236, 123.189, -151.524, 125.438, 88.4057, 0, 0, 6.10374, -55.3974, 6.14384, -174.598, 6.03373, 65.3318, 0.178039, 42.0968
0, 420.00000, 124.002, -32.3273, 123.189, -151.524, 125.449, 88.4055, 0, 0, 6.10356, -55.4011, 6.14385, -174.598, 6.03324, 65.3316, 0.178852, 42.0915
0, 480.00000, 124.503, -32.2096, 123.654, -151.4, 125.966, 88.5449, 0, 0, 5.28875, -55.2834, 5.32505, -174.474, 5.22737, 65.471, 0.157645, 41.4805
0, 540.00000, 124.506, -32.2127, 123.654, -151.4, 125.975, 88.5448, 0, 0, 5.28862, -55.2865, 5.32505, -174.474, 5.22702, 65.4708, 0.158229, 41.4787
0, 600.00000, 124.509, -32.2154, 123.654, -151.4, 125.982, 88.5446, 0, 0, 5.2885, -55.2892, 5.32505, -174.474, 5.2267, 65.4707, 0.158752, 41.4773
0, 660.00000, 124.511, -32.2178, 123.654, -151.4, 125.989, 88.5444, 0, 0, 5.28839, -55.2917, 5.32505, -174.474, 5.22641, 65.4705, 0.159223, 41.4761
0, 720.00000, 124.513, -32.22, 123.654, -151.4, 125.995, 88.5443, 0, 0, 5.2883, -55.2939, 5.32506, -174.474, 5.22615, 65.4704, 0.159647, 41.4751
0, 780.00000, 124.515, -32.222, 123.654, -151.4, 126.001, 88.5442, 0, 0, 5.28822, -55.2959, 5.32506, -174.474, 5.22592, 65.4703, 0.160028, 41.4743
0, 840.00000, 124.517, -32.2238, 123.654, -151.4, 126.005, 88.5441, 0, 0, 5.28814, -55.2977, 5.32506, -174.474, 5.22571, 65.4701, 0.160372, 41.4736
0, 900.00000, 124.519, -32.2254, 123.654, -151.4, 126.01, 88.544, 0, 0, 5.28807, -55.2993, 5.32506, -174.474, 5.22552, 65.47, 0.160681, 41.473
0, 960.00000, 124.195, -32.2476, 123.658, -151.4, 125.843, 88.4061, 0, 0, 5.30186, -55.3215, 5.32487, -174.474, 5.23246, 65.3322, 0.154374, 49.7633
0, 1020.00000, 124.196, -32.2489, 123.658, -151.4, 125.846, 88.406, 0, 0, 5.30181, -55.3228, 5.32487, -174.474, 5.23231, 65.3321, 0.154616, 49.75
0, 1080.00000, 124.197, -32.2501, 123.658, -151.4, 125.85, 88.406, 0, 0, 5.30176, -55.324, 5.32487, -174.474, 5.23217, 65.332, 0.154836, 49.7379
0, 1140.00000, 124.198, -32.2511, 123.658, -151.4, 125.852, 88.4059, 0, 0, 5.30172, -55.325, 5.32487, -174.474, 5.23205, 65.332, 0.155033, 49.7271
0, 1200.00000, 124.199, -32.2521, 123.658, -151.4, 125.855, 88.4058, 0, 0, 5.30168, -55.326, 5.32487, -174.474, 5.23194, 65.3319, 0.155211, 49.7174
0, 1260.00000, 124.2, -32.2529, 123.658, -151.4, 125.857, 88.4058, 0, 0, 5.30164, -55.3268, 5.32487, -174.474, 5.23185, 65.3319, 0.155371, 49.7087
0, 1320.00000, 124.201, -32.2537, 123.658, -151.4, 125.859, 88.4057, 0, 0, 5.30161, -55.3276, 5.32487, -174.474, 5.23176, 65.3318, 0.155515, 49.7009
0, 1380.00000, 124.202, -32.2543, 123.658, -151.4, 125.861, 88.4057, 0, 0, 5.30158, -55.3282, 5.32487, -174.474, 5.23168, 65.3318, 0.155644, 49.6939
0, 1440.00000, 124.202, -32.255, 123.658, -151.4, 125.863, 88.4056, 0, 0, 5.30156, -55.3289, 5.32487, -174.474, 5.23161, 65.3317, 0.155761, 49.6876
0, 1500.00000, 124.203, -32.2555, 123.658, -151.4, 125.865, 88.4056, 0, 0, 5.30153, -55.3294, 5.32487, -174.474, 5.23154, 65.3317, 0.155866, 49.682
0, 1560.00000, 124.203, -32.256, 123.658, -151.4, 125.866, 88.4056, 0, 0, 5.30151, -55.3299, 5.32487, -174.474, 5.23149, 65.3316, 0.15596, 49.6769
0, 1620.00000, 124.204, -32.2565, 123.658, -151.4, 125.867, 88.4055, 0, 0, 5.30149, -55.3304, 5.32488, -174.474, 5.23143, 65.3316, 0.156045, 49.6723
0, 1680.00000, 124.204, -32.2569, 123.658, -151.4, 125.868, 88.4055, 0, 0, 5.30148, -55.3308, 5.32488, -174.474, 5.23139, 65.3316, 0.156122, 49.6683
0, 1740.00000, 124.204, -32.2572, 123.658, -151.4, 125.869, 88.4055, 0, 0, 5.30146, -55.3311, 5.32488, -174.474, 5.23134, 65.3316, 0.156191, 49.6646
0, 1800.00000, 124.205, -32.2576, 123.658, -151.4, 125.87, 88.4055, 0, 0, 5.30145, -55.3315, 5.32488, -174.474, 5.23131, 65.3316, 0.156253, 49.6613
0, 1860.00000, 124.205, -32.2578, 123.658, -151.4, 125.871, 88.4054, 0, 0, 5.30144, -55.3318, 5.32488, -174.474, 5.23127, 65.3315, 0.156308, 49.6583
0, 1920.00000, 124.205, -32.2581, 123.658, -151.4, 125.872, 88.4054, 0, 0, 5.30142, -55.332, 5.32488, -174.474, 5.23124, 65.3315, 0.156359, 49.6556
0, 1980.00000, 124.205, -32.2584, 123.658, -151.4, 125.872, 88.4054, 0, 0, 5.30141, -55.3323, 5.32488, -174.474, 5.23121, 65.3315, 0.156404, 49.6532
0, 2040.00000, 124.206, -32.2586, 123.658, -151.4, 125.873, 88.4054, 0, 0, 5.30141, -55.3325, 5.32488, -174.474, 5.23119, 65.3315, 0.156444, 49.6511
0, 2100.00000, 124.206, -32.2588, 123.658, -151.4, 125.874, 88.4054, 0, 0, 5.3014, -55.3327, 5.32488, -174.474, 5.23117, 65.3315, 0.156481, 49.6491
0, 2160.00000, 124.206, -32.2589, 123.658, -151.4, 125.874, 88.4054, 0, 0, 5.30139, -55.3328, 5.32488, -174.474, 5.23115, 65.3315, 0.156514, 49.6474
0, 2220.00000, 124.206, -32.2591, 123.658, -151.4, 125.874, 88.4054, 0, 0, 5.30138, -55.333, 5.32488, -174.474, 5.23113, 65.3314, 0.156544, 49.6458
0, 2280.00000, 124.206, -32.2592, 123.658, -151.4, 125.875, 88.4053, 0, 0, 5.30138, -55.3331, 5.32488, -174.474, 5.23111, 65.3314, 0.15657, 49.6444
0, 2340.00000, 124.206, -32.2594, 123.658, -151.4, 125.875, 88.4053, 0, 0, 5.30137, -55.3333, 5.32488, -174.474, 5.2311, 65.3314, 0.156594, 49.6431
0, 2400.00000, 124.207, -32.2595, 123.658, -151.4, 125.875, 88.4053, 0, 0, 5.30137, -55.3334, 5.32488, -174.474, 5.23108, 65.3314, 0.156616, 49.642
0, 2460.00000, 124.207, -32.2596, 123.658, -151.4, 125.876, 88.4053, 0, 0, 5.30136, -55.3335, 5.32488, -174.474, 5.23107, 65.3314, 0.156635, 49.6409
0, 2520.00000, 124.207, -32.2597, 123.658, -151.4, 125.876, 88.4053, 0, 0, 5.30136, -55.3336, 5.32488, -174.474, 5.23106, 65.3314, 0.156653, 49.64
0, 2580.00000, 124.207, -32.2597, 123.658, -151.4, 125.876, 88.4053, 0, 0, 5.30136, -55.3337, 5.32488, -174.474, 5.23105, 65.3314, 0.156669, 49.6392
0, 2640.00000, 124.207, -32.2598, 123.658, -151.4, 125.876, 88.4053, 0, 0, 5.30135, -55.3337, 5.32488, -174.474, 5.23104, 65.3314, 0.156683, 49.6384
0, 2700.00000, 124.207, -32.2599, 123.658, -151.4, 125.877, 88.4053, 0, 0, 5.30135, -55.3338, 5.32488, -174.474, 5.23103, 65.3314, 0.156696, 49.6378
0, 2760.00000, 124.229, -32.2634, 123.905, -151.23, 126.356, 88.4069, 0, 0, 5.30043, -55.3373, 5.31428, -174.304, 5.21121, 65.333, 0.180707, 56.9364
0, 2820.00000, 124.229, -32.2635, 123.905, -151.23, 126.356, 88.4069, 0, 0, 5.30043, -55.3374, 5.31428, -174.304, 5.2112, 65.333, 0.180718, 56.9354
0, 2880.00000, 124.229, -32.2635, 123.905, -151.23, 126.356, 88.4069, 0, 0, 5.30042, -55.3374, 5.31428, -174.304, 5.21119, 65.333, 0.180727, 56.9346
0, 2940.00000, 124.229, -32.2636, 123.905, -151.23, 126.356, 88.4069, 0, 0, 5.30042, -55.3375, 5.31428, -174.304, 5.21119, 65.333, 0.180735, 56.9339
0, 3000.00000, 124.229, -32.2636, 123.905, -151.23, 126.356, 88.4069, 0, 0, 5.30042, -55.3375, 5.31428, -174.304, 5.21118, 65.333, 0.180742, 56.9332
0, 3060.00000, 124.229, -32.2636, 123.905, -151.23, 126.356, 88.4069, 0, 0, 5.30042, -55.3375, 5.31428, -174.304, 5.21118, 65.333, 0.180749, 56.9326
0, 3120.00000, 124.229, -32.2637, 123.905, -151.23, 126.356, 88.4069, 0, 0, 5.30042, -55.3376, 5.31428, -174.304, 5.21118, 65.333, 0.180755, 56.9321
0, 3180.00000, 124.229, -32.2637, 123.905, -151.23, 126.356, 88.4069, 0, 0, 5.30042, -55.3376, 5.31428, -174.304, 5.21117, 65.333, 0.18076, 56.9316
0, 3240.00000, 124.229, -32.2637, 123.905, -151.23, 126.356, 88.4069, 0, 0, 5.30041, -55.3376, 5.31428, -174.304, 5.21117, 65.333, 0.180765, 56.9312
0, 3300.00000, 124.229, -32.2637, 123.905, -151.23, 126.357, 88.4069, 0, 0, 5.30041, -55.3377, 5.31428, -174.304, 5.21117, 65.333, 0.180769, 56.9308
0, 3360.00000, 124.229, -32.2638, 123.905, -151.23, 126.357, 88.4069, 0, 0, 5.30041, -55.3377, 5.31428, -174.304, 5.21116, 65.333, 0.180773, 56.9305
0, 3420.00000, 124.229, -32.2638, 123.905, -151.23, 126.357, 88.4069, 0, 0, 5.30041, -55.3377, 5.31428, -174.304, 5.21116, 65.333, 0.180777, 56.9302
0, 3480.00000, 124.229, -32.2638, 123.905, -151.23, 126.357, 88.4069, 0, 0, 5.30041, -55.3377, 5.31428, -174.304, 5.21116, 65.333, 0.18078, 56.9299
0, 3540.00000, 124.229, -32.2638, 123.905, -151.23, 126.357, 88.4069, 0, 0, 5.30041, -55.3377, 5.31428, -174.304, 5.21116, 65.3329, 0.180783, 56.9296
1, 0.00000, 124.229, -32.2638, 123.905, -151.23, 126.357, 88.4069, 0, 0, 5.30041, -55.3377, 5.31428, -174.304, 5.21116, 65.3329, 0.180785, 56.9294
1, 60.00000, 124.808, -32.0076, 124.684, -151.335, 126.315, 88.416, 0, 0, 5.27584, -55.0815, 5.28108, -174.408, 5.21289, 65.342, 0.119834, 59.2959
1, 120.00000, 124.808, -32.0076, 124.684, -151.335, 126.315, 88.416, 0, 0, 5.27584, -55.0815, 5.28108, -174.408, 5.21289, 65.342, 0.119836, 59.2956
1, 180.00000, 124.808, -32.0076, 124.684, -151.335, 126.315, 88.416, 0, 0, 5.27584, -55.0815, 5.28108, -174.408, 5.21289, 65.342, 0.119838, 59.2954
1, 240.00000, 124.808, -32.0076, 124.684, -151.335, 126.315, 88.416, 0, 0, 5.27584, -55.0815, 5.28108, -174.408, 5.21288, 65.342, 0.11984, 59.2951
1, 300.00000, 124.808, -32.0076, 124.684, -151.335, 126.315, 88.416, 0, 0, 5.27584, -55.0815, 5.28108, -174.408, 5.21288, 65.342, 0.119841, 59.2949
1, 360.00000, 124.808, -32.0076, 124.684, -151.335, 126.315, 88.416, 0, 0, 5.27584, -55.0815, 5.28108, -174.408, 5.21288, 65.342, 0.119843, 59.2947
1, 420.00000, 124.808, -32.0076, 124.684, -151.335, 126.315, 88.416, 0, 0, 5.27584, -55.0815, 5.28108, -174.408, 5.21288, 65.342, 0.119844, 59.2945
1, 480.00000, 124.808, -32.0076, 124.684, -151.335, 126.315, 88.416, 0, 0, 5.27584, -55.0816, 5.28108, -174.408, 5.21288, 65.342, 0.119845, 59.2943
1, 540.00000, 124.808, -32.0076, 124.684, -151.335, 126.315, 88.4159, 0, 0, 5.27584, -55.0816, 5.28108, -174.408, 5.21288, 65.342, 0.119846, 59.2942
1, 600.00000, 124.808, -32.0076, 124.684, -151.335, 126.315, 88.4159, 0, 0, 5.27584, -55.0816, 5.28108, -174.408, 5.21288, 65.342, 0.119847, 59.294
1, 660.00000, 124.808, -32.0076, 124.684, -151.335, 126.315, 88.4159, 0, 0, 5.27584, -55.0816, 5.28108, -174.408, 5.21288, 65.342, 0.119848, 59.2939
1, 720.00000, 124.808, -32.0077, 124.684, -151.335, 126.315, 88.4159, 0, 0, 5.27584, -55.0816, 5.28108, -174.408, 5.21288, 65.342, 0.119848, 59.2938
1, 780.00000, 124.808, -32.0077, 124.684, -151.335, 126.315, 88.4159, 0, 0, 5.27584, -55.0816, 5.28108, -174.408, 5.21288, 65.342, 0.119849, 59.2937
1, 840.00000, 124.808, -32.0077, 124.684, -151.335, 126.315, 88.4159, 0, 0, 5.27583, -55.0816, 5.28108, -174.408, 5.21288, 65.342, 0.11985, 59.2936
1, 900.00000, 124.808, -32.0077, 124.684, -151.335, 126.315, 88.4159, 0, 0, 5.27583, -55.0816, 5.28108, -174.408, 5.21288, 65.342, 0.11985, 59.2935
1, 960.00000, 124.808, -32.0077, 124.684, -151.335, 126.315, 88.4159, 0, 0, 5.27583, -55.0816, 5.28108, -174.408, 5.21288, 65.342, 0.119851, 59.2934
1, 1020.00000, 124.808, -32.0077, 124.684, -151.335, 126.315, 88.4159, 0, 0, 5.27583, -55.0816, 5.28108, -174.408, 5.21288, 65.342, 0.119851, 59.2934
1, 1080.00000, 124.808, -32.0077, 124.684, -151.335, 126.315, 88.4159, 0, 0, 5.27583, -55.0816, 5.28108, -174.408, 5.21288, 65.342, 0.119851, 59.2933
1, 1140.00000, 124.808, -32.0077, 124.684, -151.335, 126.315, 88.4159, 0, 0, 5.27583, -55.0816, 5.28108, -174.408, 5.21288, 65.342, 0.119852, 59.2933
1, 1200.00000, 124.808, -32.0077, 124.684, -151.335, 126.315, 88.4159, 0, 0, 5.27583, -55.0816, 5.28108, -174.408, 5.21288, 65.342, 0.119852, 59.2932
1, 1260.00000, 124.808, -32.0077, 124.684, -151.335, 126.315, 88.4159, 0, 0, 5.27583, -55.0816, 5.28108, -174.408, 5.21288, 65.342, 0.119852, 59.2932
1, 1320.00000, 124.808, -32.0077, 124.684, -151.335, 126.315, 88.4159, 0, 0, 5.27583, -55.0816, 5.28108, -174.408, 5.21288, 65.342, 0.119853, 59.2931
1, 1380.00000, 124.808, -32.0077, 124.684, -151.335, 126.315, 88.4159, 0, 0, 5.27583, -55.0816, 5.28108, -174.408, 5.21288, 65.342, 0.119853, 59.2931
1, 1440.00000, 124.808, -32.0077, 124.684, -151.335, 126.315, 88.4159, 0, 0, 5.27583, -55.0816, 5.28108, -174.408, 5.21288, 65.342, 0.119853, 59.2931
1, 1500.00000, 124.808, -32.0077, 124.684, -151.335, 126.315, 88.4159, 0, 0, 5.27583, -55.0816, 5.28108, -174.408, 5.21288, 65.342, 0.119853, 59.293
1, 1560.00000, 124.808, -32.0077, 124.684, -151.335, 126.315, 88.4159, 0, 0, 5.27583, -55.0816, 5.28108, -174.408, 5.21288, 65.342, 0.119853, 59.293
1, 1620.00000, 124.808, -32.0077, 124.684, -151.335, 126.315, 88.4159, 0, 0, 5.27583, -55.0816, 5.28108, -174.408, 5.21288, 65.342, 0.119853, 59.293
1, 1680.00000, 124.808, -32.0077, 124.684, -151.335, 126.315, 88.4159, 0, 0, 5.27583, -55.0816, 5.28108, -174.408, 5.21288, 65.342, 0.119854, 59.293
1, 1740.00000, 124.808, -32.0077, 124.684, -151.335, 126.315, 88.4159, 0, 0, 5.27583, -55.0816, 5.28108, -174.408, 5.21288, 65.342, 0.119854, 59.293
1, 1800.00000, 124.808, -32.0077, 124.684, -151.335, 126.315, 88.4159, 0, 0, 5.27583, -55.0816, 5.28108, -174.408, 5.21288, 65.342, 0.119854, 59.2929
1, 1860.00000, 124.808, -32.0077, 124.684, -151.335, 126.315, 88.4159, 0, 0, 5.27583, -55.0816, 5.28108, -174.408, 5.21288, 65.342, 0.119854, 59.2929
1, 1920.00000, 124.808, -32.0077, 124.684, -151.335, 126.315, 88.4159, 0, 0, 5.27583, -55.0816, 5.28108, -174.408, 5.21288, 65.342, 0.119854, 59.2929
1, 1980.00000, 124.808, -32.0077, 124.684, -151.335, 126.315, 88.4159, 0, 0, 5.27583, -55.0816, 5.28108, -174.408, 5.21288, 65.342, 0.119854, 59.2929
1, 2040.00000, 124.808, -32.0077, 124.684, -151.335, 126.315, 88.4159, 0, 0, 5.27583, -55.0816, 5.28108, -174.408, 5.21288, 65.342, 0.119854, 59.2929
1, 2100.00000, 124.808, -32.0077, 124.684, -151.335, 126.315, 88.4159, 0, 0, 5.27583, -55.0816, 5.28108, -174.408, 5.21288, 65.342, 0.119854, 59.2929
1, 2160.00000, 124.808, -32.0077, 124.684, -151.335, 126.315, 88.4159, 0, 0, 5.27583, -55.0816, 5.28108, -174.408, 5.21288, 65.342, 0.119854, 59.2929
1, 2220.00000, 124.808, -32.0077, 124.684, -151.335, 126.315, 88.4159, 0, 0, 5.27583, -55.0816, 5.28108, -174.408, 5.21288, 65.342, 0.119854, 59.2929
1, 2280.00000, 124.808, -32.0077, 124.684, -151.335, 126.315, 88.4159, 0, 0, 5.27583, -55.0816, 5.28108, -174.408, 5.21288, 65.342, 0.119854, 59.2929
1, 2340.00000, 124.808, -32.0077, 124.684, -151.335, 126.315, 88.4159, 0, 0, 5.27583, -55.0816, 5.28108, -174.408, 5.21288, 65.342, 0.119854, 59.2929
1, 2400.00000, 124.808, -32.0077, 124.684, -151.335, 126.315, 88.4159, 0, 0, 5.27583, -55.0816, 5.28108, -174.408, 5.21288, 65.342, 0.119854, 59.2928
1, 2460.00000, 124.808, -32.0077, 124.684, -151.335, 126.315, 88.4159, 0, 0, 5.27583, -55.0816, 5.28108, -174.408, 5.21288, 65.342, 0.119854, 59.2928
1, 2520.00000, 124.808, -32.0077, 124.684, -151.335, 126.315, 88.4159, 0, 0, 5.27583, -55.0816, 5.28108, -174.408, 5.21288, 65.342, 0.119854, 59.2928
1, 2580.00000, 124.808, -32.0077, 124.684, -151.335, 126.315, 88.4159, 0, 0, 5.27583, -55.0816, 5.28108, -174.408, 5.21288, 65.342, 0.119855, 59.2928
1, 2640.00000, 124.808, -32.0077, 124.684, -151.335, 126.315, 88.4159, 0, 0, 5.27583, -55.0816, 5.28108, -174.408, 5.21288, 65.342, 0.119855, 59.2928
1, 2700.00000, 124.808, -32.0077, 124.684, -151.335, 126.315, 88.4159, 0, 0, 5.27583, -55.0816, 5.28108, -174.408, 5.21288, 65.342, 0.119855, 59.2928
1, 2760.00000, 124.808, -32.0077, 124.684, -151.335, 126.315, 88.4159, 0, 0, 5.27583, -55.0816, 5.28108, -174.408, 5.21288, 65.342, 0.119855, 59.2928
1, 2820.00000, 124.808, -32.0077, 124.684, -151.335, 126.315, 88.4159, 0, 0, 5.27583, -55.0816, 5.28108, -174.408, 5.21288, 65.342, 0.119855, 59.2928
1, 2880.00000, 124.808, -32.0077, 124.684, -151.335, 126.315, 88.4159, 0, 0, 5.27583, -55.0816, 5.28108, -174.408, 5.21288, 65.342, 0.119855, 59.2928
1, 2940.00000, 124.808, -32.0077, 124.684, -151.335, 126.315, 88.4159, 0, 0, 5.27583, -55.0816, 5.28108, -174.408, 5.21288, 65.342, 0.119855, 59.2928
1, 3000.00000, 124.808, -32.0077, 124.684, -151.335, 126.315, 88.4159, 0, 0, 5.27583, -55.0816, 5.28108, -174.408, 5.21288, 65.342, 0.119855, 59.2928
1, 3060.00000, 124.808, -32.0077, 124.684, -151.335, 126.315, 88.4159, 0, 0, 5.27583, -55.0816, 5.28108, -174.408, 5.21288, 65.342, 0.119855, 59.2928
1, 3120.00000, 124.808, -32.0077, 124.684, -151.335, 126.315, 88.4159, 0, 0, 5.27583, -55.0816, 5.28108, -174.408, 5.21288, 65.342, 0.119855, 59.2928
1, 3180.00000, 124.808, -32.0077, 124.684, -151.335, 126.315, 88.4159, 0, 0, 5.27583, -55.0816, 5.28108, -174.408, 5.21288, 65.342, 0.119855, 59.2928
1, 3240.00000, 124.808, -32.0077, 124.684, -151.335, 126.315, 88.4159, 0, 0, 5.27583, -55.0816, 5.28108, -174.408, 5.21288, 65.342, 0.119855, 59.2928
1, 3300.00000, 124.808, -32.0077, 124.684, -151.335, 126.315, 88.4159, 0, 0, 5.27583, -55.0816, 5.28108, -174.408, 5.21288, 65.342, 0.119855, 59.2928
1, 3360.00000, 124.808, -32.0077, 124.684, -151.335, 126.315, 88.4159, 0, 0, 5.27583, -55.0816, 5.28108, -174.408, 5.21288, 65.342, 0.119855, 59.2928
1, 3420.00000, 124.808, -32.0077, 124.684, -151.335, 126.315, 88.4159, 0, 0, 5.27583, -55.0816, 5.28108, -174.408, 5.21288, 65.342, 0.119855, 59.2928
1, 3480.00000, 124.808, -32.0077, 124.684, -151.335, 126.315, 88.4159, 0, 0, 5.27583, -55.0816, 5.28108, -174.408, 5.21288, 65.342, 0.119855, 59.2928
1, 3540.00000, 124.808, -32.0077, 124.684, -151.335, 126.315, 88.4159, 0, 0, 5.27583, -55.0816, 5.28108, -174.408, 5.21288, 65.342, 0.119855, 59.2928
2, 0.00000, 124.808, -32.0077, 124.684, -151.335, 126.315, 88.4159, 0, 0, 5.27583, -55.0816, 5.28108, -174.408, 5.21288, 65.342, 0.119855, 59.2928
2, 60.00000, 124.808, -32.0077, 124.684, -151.335, 126.315, 88.4159, 0, 0, 5.27583, -55.0816, 5.28108, -174.408, 5.21288, 65.342, 0.119855, 59.2928
2, 120.00000, 124.808, -32.0077, 124.684, -151.335, 126.315, 88.4159, 0, 0, 5.27583, -55.0816, 5.28108, -174.408, 5.21288, 65.342, 0.119855, 59.2928
2, 180.00000, 124.808, -32.0077, 124.684, -151.335, 126.315, 88.4159, 0, 0, 5.27583, -55.0816, 5.28108, -174.408, 5.21288, 65.342, 0.119855, 59.2928
2, 240.00000, 124.808, -32.0077, 124.684, -151.335, 126.315, 88.4159, 0, 0, 5.27583, -55.0816, 5.28108, -174.408, 5.21288, 65.342, 0.119855, 59.2928
2, 300.00000, 124.808, -32.0077, 124.684, -151.335, 126.315, 88.4159, 0, 0, 5.27583, -55.0816, 5.28108, -174.408, 5.21288, 65.342, 0.119855, 59.2928
2, 360.00000, 124.808, -32.0077, 124.684, -151.335, 126.315, 88.4159, 0, 0, 5.27583, -55.0816, 5.28108, -174.408, 5.21288, 65.342, 0.119855, 59.2928
2, 420.00000, 124.808, -32.0077, 124.684, -151.335, 126.315, 88.4159, 0, 0, 5.27583, -55.0816, 5.28108, -174.408, 5.21288, 65.342, 0.119855, 59.2928
2, 480.00000, 124.808, -32.0077, 124.684, -151.335, 126.315, 88.4159, 0, 0, 5.27583, -55.0816, 5.28108, -174.408, 5.21288, 65.342, 0.119855, 59.2928
2, 540.00000, 124.808, -32.0077, 124.684, -151.335, 126.315, 88.4159, 0, 0, 5.27583, -55.0816, 5.28108, -174.408, 5.21288, 65.342, 0.119855, 59.2928
2, 600.00000, 124.808, -32.0077, 124.684, -151.335, 126.315, 88.4159, 0, 0, 5.27583, -55.0816, 5.28108, -174.408, 5.21288, 65.342, 0.119855, 59.2928
2, 660.00000, 124.808, -32.0077, 124.684, -151.335, 126.315, 88.4159, 0, 0, 5.27583, -55.0816, 5.28108, -174.408, 5.21288, 65.342, 0.119855, 59.2928
2, 720.00000, 124.808, -32.0077, 124.684, -151.335, 126.315, 88.4159, 0, 0, 5.27583, -55.0816, 5.28108, -174.408, 5.21288, 65.342, 0.119855, 59.2928
2, 780.00000, 124.808, -32.0077, 124.684, -151.335, 126.315, 88.4159, 0, 0, 5.27583, -55.0816, 5.28108, -174.408, 5.21288, 65.342, 0.119855, 59.2928
