hour,t(sec),V1,VAngle1,V2,VAngle2,V3,VAngle3,V4,VAngle4,I1,IAngle1,I2,IAngle2,I3,IAngle3,I4,IAngle4
0, 60.00000, 126.074, -32.1643, 125.074, -151.664, 126.606, 88.4937, 0, 0, 5.09014, -55.2379, 5.13087, -174.738, 5.06884, 65.4197, 0.107397, 23.4644
0, 120.00000, 126.081, -32.1701, 125.074, -151.664, 126.622, 88.4935, 0, 0, 5.08988, -55.2438, 5.13086, -174.738, 5.0682, 65.4196, 0.108434, 23.6178
0, 180.00000, 126.086, -32.1754, 125.074, -151.664, 126.636, 88.4934, 0, 0, 5.08965, -55.2491, 5.13086, -174.738, 5.06763, 65.4195, 0.109367, 23.7538
0, 240.00000, 126.092, -32.1802, 125.074, -151.664, 126.649, 88.4933, 0, 0, 5.08944, -55.2539, 5.13086, -174.738, 5.06711, 65.4194, 0.110208, 23.8749
0, 300.00000, 126.096, -32.1845, 125.074, -151.664, 126.66, 88.4932, 0, 0, 5.08925, -55.2582, 5.13086, -174.737, 5.06664, 65.4193, 0.110964, 23.9827
0, 360.00000, 126.1, -32.1884, 125.074, -151.663, 126.671, 88.4931, 0, 0, 5.08908, -55.2621, 5.13086, -174.737, 5.06622, 65.4192, 0.111646, 24.0788
0, 420.00000, 126.104, -32.1919, 125.074, -151.663, 126.68, 88.493, 0, 0, 5.08893, -55.2656, 5.13086, -174.737, 5.06584, 65.4191, 0.112259, 24.1646
0, 480.00000, 126.475, -32.0738, 125.425, -151.535, 127.084, 88.63, 0, 0, 4.58466, -55.1475, 4.62304, -174.609, 4.56276, 65.5561, 0.103782, 24.3678
0, 540.00000, 126.478, -32.0766, 125.425, -151.535, 127.091, 88.63, 0, 0, 4.58455, -55.1504, 4.62304, -174.609, 4.56247, 65.556, 0.104241, 24.4358
0, 600.00000, 126.481, -32.0792, 125.426, -151.535, 127.098, 88.6299, 0, 0, 4.58445, -55.153, 4.62304, -174.609, 4.56222, 65.556, 0.104653, 24.4965
0, 660.00000, 126.484, -32.0815, 125.426, -151.535, 127.105, 88.6299, 0, 0, 4.58436, -55.1553, 4.62304, -174.609, 4.56199, 65.5559, 0.105024, 24.5508
0, 720.00000, 126.486, -32.0836, 125.426, -151.535, 127.11, 88.6299, 0, 0, 4.58428, -55.1574, 4.62304, -174.609, 4.56178, 65.5559, 0.105357, 24.5995
0, 780.00000, 126.488, -32.0855, 125.426, -151.535, 127.115, 88.6298, 0, 0, 4.5842, -55.1593, 4.62304, -174.609, 4.5616, 65.5559, 0.105658, 24.6431
0, 840.00000, 126.49, -32.0872, 125.426, -151.535, 127.12, 88.6298, 0, 0, 4.58414, -55.161, 4.62304, -174.609, 4.56143, 65.5558, 0.105928, 24.6822
0, 900.00000, 126.491, -32.0887, 125.426, -151.535, 127.124, 88.6298, 0, 0, 4.58408, -55.1625, 4.62304, -174.609, 4.56128, 65.5558, 0.106172, 24.7173
0, 960.00000, 126.202, -32.1137, 125.426, -151.536, 126.995, 88.5, 0, 0, 4.59457, -55.1876, 4.62302, -174.61, 4.56593, 65.4261, 0.0972243, 33.8257
0, 1020.00000, 126.204, -32.1149, 125.426, -151.536, 126.998, 88.5, 0, 0, 4.59453, -55.1888, 4.62302, -174.61, 4.56581, 65.4261, 0.0974227, 33.8379
0, 1080.00000, 126.205, -32.116, 125.426, -151.536, 127.001, 88.5, 0, 0, 4.59448, -55.1899, 4.62302, -174.61, 4.5657, 65.4261, 0.0976024, 33.8489
0, 1140.00000, 126.206, -32.117, 125.426, -151.536, 127.004, 88.5, 0, 0, 4.59445, -55.1909, 4.62302, -174.61, 4.5656, 65.426, 0.0977642, 33.8587
0, 1200.00000, 126.207, -32.1179, 125.426, -151.536, 127.006, 88.4999, 0, 0, 4.59441, -55.1918, 4.62302, -174.61, 4.56552, 65.426, 0.0979098, 33.8676
0, 1260.00000, 126.208, -32.1187, 125.426, -151.536, 127.008, 88.4999, 0, 0, 4.59438, -55.1926, 4.62302, -174.61, 4.56544, 65.426, 0.0980408, 33.8755
0, 1320.00000, 126.208, -32.1194, 125.426, -151.536, 127.01, 88.4999, 0, 0, 4.59435, -55.1933, 4.62302, -174.61, 4.56537, 65.426, 0.0981587, 33.8827
0, 1380.00000, 126.209, -32.1201, 125.426, -151.536, 127.012, 88.4999, 0, 0, 4.59433, -55.1939, 4.62302, -174.61, 4.5653, 65.426, 0.0982649, 33.8891
0, 1440.00000, 126.21, -32.1206, 125.426, -151.536, 127.013, 88.4999, 0, 0, 4.59431, -55.1945, 4.62302, -174.61, 4.56525, 65.426, 0.0983604, 33.8949
0, 1500.00000, 126.21, -32.1212, 125.426, -151.536, 127.015, 88.4999, 0, 0, 4.59429, -55.1951, 4.62302, -174.61, 4.5652, 65.4259, 0.0984464, 33.9001
0, 1560.00000, 126.211, -32.1216, 125.426, -151.536, 127.016, 88.4999, 0, 0, 4.59427, -55.1955, 4.62302, -174.61, 4.56515, 65.4259, 0.0985238, 33.9048
0, 1620.00000, 126.211, -32.1221, 125.426, -151.536, 127.017, 88.4998, 0, 0, 4.59425, -55.196, 4.62302, -174.61, 4.56511, 65.4259, 0.0985934, 33.909
0, 1680.00000, 126.212, -32.1224, 125.426, -151.536, 127.018, 88.4998, 0, 0, 4.59424, -55.1963, 4.62302, -174.61, 4.56507, 65.4259, 0.0986561, 33.9128
0, 1740.00000, 126.212, -32.1228, 125.426, -151.536, 127.019, 88.4998, 0, 0, 4.59423, -55.1967, 4.62302, -174.61, 4.56504, 65.4259, 0.0987125, 33.9162
0, 1800.00000, 126.212, -32.1231, 125.426, -151.536, 127.02, 88.4998, 0, 0, 4.59421, -55.197, 4.62302, -174.61, 4.56501, 65.4259, 0.0987633, 33.9193
0, 1860.00000, 126.213, -32.1234, 125.426, -151.536, 127.021, 88.4998, 0, 0, 4.5942, -55.1973, 4.62302, -174.61, 4.56498, 65.4259, 0.098809, 33.922
0, 1920.00000, 126.213, -32.1236, 125.426, -151.536, 127.021, 88.4998, 0, 0, 4.59419, -55.1975, 4.62302, -174.61, 4.56495, 65.4259, 0.0988501, 33.9245
0, 1980.00000, 126.213, -32.1238, 125.426, -151.536, 127.022, 88.4998, 0, 0, 4.59419, -55.1978, 4.62302, -174.61, 4.56493, 65.4259, 0.0988872, 33.9268
0, 2040.00000, 126.213, -32.1241, 125.426, -151.536, 127.023, 88.4998, 0, 0, 4.59418, -55.198, 4.62302, -174.61, 4.56491, 65.4259, 0.0989205, 33.9288
0, 2100.00000, 126.214, -32.1242, 125.426, -151.536, 127.023, 88.4998, 0, 0, 4.59417, -55.1981, 4.62302, -174.61, 4.56489, 65.4259, 0.0989505, 33.9306
0, 2160.00000, 126.214, -32.1244, 125.426, -151.536, 127.024, 88.4998, 0, 0, 4.59417, -55.1983, 4.62302, -174.61, 4.56488, 65.4259, 0.0989774, 33.9322
0, 2220.00000, 126.214, -32.1245, 125.426, -151.536, 127.024, 88.4998, 0, 0, 4.59416, -55.1985, 4.62302, -174.61, 4.56486, 65.4259, 0.0990017, 33.9337
0, 2280.00000, 126.214, -32.1247, 125.426, -151.536, 127.024, 88.4998, 0, 0, 4.59415, -55.1986, 4.62302, -174.61, 4.56485, 65.4259, 0.0990236, 33.935
0, 2340.00000, 126.214, -32.1248, 125.426, -151.536, 127.025, 88.4998, 0, 0, 4.59415, -55.1987, 4.62302, -174.61, 4.56484, 65.4259, 0.0990433, 33.9362
0, 2400.00000, 126.214, -32.1249, 125.426, -151.536, 127.025, 88.4998, 0, 0, 4.59415, -55.1988, 4.62302, -174.61, 4.56483, 65.4259, 0.099061, 33.9373
0, 2460.00000, 126.214, -32.125, 125.426, -151.536, 127.025, 88.4998, 0, 0, 4.59414, -55.1989, 4.62302, -174.61, 4.56482, 65.4258, 0.0990769, 33.9382
0, 2520.00000, 126.214, -32.1251, 125.426, -151.536, 127.025, 88.4998, 0, 0, 4.59414, -55.199, 4.62302, -174.61, 4.56481, 65.4258, 0.0990912, 33.9391
0, 2580.00000, 126.215, -32.1252, 125.426, -151.536, 127.026, 88.4998, 0, 0, 4.59414, -55.1991, 4.62302, -174.61, 4.5648, 65.4258, 0.0991042, 33.9399
0, 2640.00000, 126.215, -32.1252, 125.426, -151.536, 127.026, 88.4998, 0, 0, 4.59413, -55.1992, 4.62302, -174.61, 4.5648, 65.4258, 0.0991158, 33.9406
0, 2700.00000, 126.215, -32.1253, 125.426, -151.536, 127.026, 88.4998, 0, 0, 4.59413, -55.1992, 4.62302, -174.61, 4.56479, 65.4258, 0.0991262, 33.9412
0, 2760.00000, 126.217, -32.1262, 125.512, -151.409, 127.329, 88.5384, 0, 0, 4.59405, -55.2002, 4.61986, -174.483, 4.55393, 65.4645, 0.113006, 40.8161
0, 2820.00000, 126.217, -32.1263, 125.512, -151.409, 127.329, 88.5384, 0, 0, 4.59405, -55.2002, 4.61986, -174.483, 4.55393, 65.4645, 0.113015, 40.816
0, 2880.00000, 126.217, -32.1263, 125.512, -151.409, 127.329, 88.5384, 0, 0, 4.59404, -55.2003, 4.61986, -174.483, 4.55392, 65.4645, 0.113023, 40.8159
0, 2940.00000, 126.217, -32.1264, 125.512, -151.409, 127.329, 88.5384, 0, 0, 4.59404, -55.2003, 4.61986, -174.483, 4.55392, 65.4645, 0.11303, 40.8159
0, 3000.00000, 126.217, -32.1264, 125.512, -151.409, 127.329, 88.5384, 0, 0, 4.59404, -55.2003, 4.61986, -174.483, 4.55391, 65.4645, 0.113036, 40.8158
0, 3060.00000, 126.217, -32.1265, 125.512, -151.409, 127.329, 88.5384, 0, 0, 4.59404, -55.2004, 4.61986, -174.483, 4.55391, 65.4645, 0.113041, 40.8157
0, 3120.00000, 126.217, -32.1265, 125.512, -151.409, 127.33, 88.5384, 0, 0, 4.59404, -55.2004, 4.61986, -174.483, 4.55391, 65.4645, 0.113046, 40.8157
0, 3180.00000, 126.217, -32.1265, 125.512, -151.409, 127.33, 88.5384, 0, 0, 4.59404, -55.2004, 4.61986, -174.483, 4.5539, 65.4645, 0.113051, 40.8157
0, 3240.00000, 126.217, -32.1265, 125.512, -151.409, 127.33, 88.5384, 0, 0, 4.59404, -55.2005, 4.61986, -174.483, 4.5539, 65.4645, 0.113055, 40.8156
0, 3300.00000, 126.217, -32.1266, 125.512, -151.409, 127.33, 88.5384, 0, 0, 4.59404, -55.2005, 4.61986, -174.483, 4.5539, 65.4645, 0.113059, 40.8156
0, 3360.00000, 126.217, -32.1266, 125.512, -151.409, 127.33, 88.5384, 0, 0, 4.59403, -55.2005, 4.61986, -174.483, 4.5539, 65.4645, 0.113062, 40.8156
0, 3420.00000, 126.217, -32.1266, 125.512, -151.409, 127.33, 88.5384, 0, 0, 4.59403, -55.2005, 4.61986, -174.483, 4.5539, 65.4645, 0.113065, 40.8155
0, 3480.00000, 126.217, -32.1266, 125.512, -151.409, 127.33, 88.5384, 0, 0, 4.59403, -55.2005, 4.61986, -174.483, 4.55389, 65.4645, 0.113068, 40.8155
0, 3540.00000, 126.217, -32.1266, 125.512, -151.409, 127.33, 88.5384, 0, 0, 4.59403, -55.2005, 4.61986, -174.483, 4.55389, 65.4645, 0.11307, 40.8155
1, 0.00000, 126.217, -32.1266, 125.512, -151.409, 127.33, 88.5384, 0, 0, 4.59403, -55.2006, 4.61986, -174.483, 4.55389, 65.4645, 0.113072, 40.8155
1, 60.00000, 126.303, -31.9992, 125.802, -151.375, 127.33, 88.5391, 0, 0, 4.5909, -55.0732, 4.60921, -174.449, 4.55388, 65.4652, 0.0957023, 44.5591
1, 120.00000, 126.303, -31.9993, 125.802, -151.375, 127.33, 88.5391, 0, 0, 4.5909, -55.0732, 4.60921, -174.449, 4.55387, 65.4652, 0.0957041, 44.5591
1, 180.00000, 126.303, -31.9993, 125.802, -151.375, 127.33, 88.5391, 0, 0, 4.5909, -55.0732, 4.60921, -174.449, 4.55387, 65.4652, 0.0957057, 44.559
1, 240.00000, 126.303, -31.9993, 125.802, -151.375, 127.331, 88.5391, 0, 0, 4.5909, -55.0732, 4.60921, -174.449, 4.55387, 65.4652, 0.0957071, 44.5589
1, 300.00000, 126.303, -31.9993, 125.802, -151.375, 127.331, 88.5391, 0, 0, 4.5909, -55.0732, 4.60921, -174.449, 4.55387, 65.4652, 0.0957084, 44.5589
1, 360.00000, 126.304, -31.9993, 125.802, -151.375, 127.331, 88.5391, 0, 0, 4.5909, -55.0732, 4.60921, -174.449, 4.55387, 65.4652, 0.0957095, 44.5588
1, 420.00000, 126.304, -31.9993, 125.802, -151.375, 127.331, 88.5391, 0, 0, 4.5909, -55.0732, 4.60921, -174.449, 4.55387, 65.4652, 0.0957106, 44.5588
1, 480.00000, 126.304, -31.9993, 125.802, -151.375, 127.331, 88.5391, 0, 0, 4.5909, -55.0732, 4.60921, -174.449, 4.55387, 65.4652, 0.0957115, 44.5587
1, 540.00000, 126.304, -31.9993, 125.802, -151.375, 127.331, 88.5391, 0, 0, 4.5909, -55.0732, 4.60921, -174.449, 4.55387, 65.4652, 0.0957123, 44.5587
1, 600.00000, 126.304, -31.9993, 125.802, -151.375, 127.331, 88.5391, 0, 0, 4.5909, -55.0732, 4.60921, -174.449, 4.55387, 65.4652, 0.0957131, 44.5586
1, 660.00000, 126.304, -31.9993, 125.802, -151.375, 127.331, 88.5391, 0, 0, 4.5909, -55.0732, 4.60921, -174.449, 4.55387, 65.4652, 0.0957138, 44.5586
1, 720.00000, 126.304, -31.9993, 125.802, -151.375, 127.331, 88.5391, 0, 0, 4.5909, -55.0732, 4.60921, -174.449, 4.55387, 65.4652, 0.0957144, 44.5586
1, 780.00000, 126.304, -31.9993, 125.802, -151.375, 127.331, 88.5391, 0, 0, 4.5909, -55.0732, 4.60921, -174.449, 4.55387, 65.4652, 0.0957149, 44.5586
1, 840.00000, 126.304, -31.9993, 125.802, -151.375, 127.331, 88.5391, 0, 0, 4.5909, -55.0732, 4.60921, -174.449, 4.55387, 65.4652, 0.0957154, 44.5585
1, 900.00000, 126.304, -31.9993, 125.802, -151.375, 127.331, 88.5391, 0, 0, 4.5909, -55.0732, 4.60921, -174.449, 4.55387, 65.4652, 0.0957158, 44.5585
1, 960.00000, 126.304, -31.9993, 125.802, -151.375, 127.331, 88.5391, 0, 0, 4.5909, -55.0732, 4.60921, -174.449, 4.55387, 65.4652, 0.0957162, 44.5585
1, 1020.00000, 126.304, -31.9993, 125.802, -151.375, 127.331, 88.5391, 0, 0, 4.5909, -55.0732, 4.60921, -174.449, 4.55387, 65.4652, 0.0957166, 44.5585
1, 1080.00000, 126.304, -31.9993, 125.802, -151.375, 127.331, 88.5391, 0, 0, 4.5909, -55.0732, 4.60921, -174.449, 4.55387, 65.4652, 0.0957169, 44.5585
1, 1140.00000, 126.304, -31.9993, 125.802, -151.375, 127.331, 88.5391, 0, 0, 4.5909, -55.0733, 4.60921, -174.449, 4.55387, 65.4652, 0.0957172, 44.5584
1, 1200.00000, 126.304, -31.9993, 125.802, -151.375, 127.331, 88.5391, 0, 0, 4.5909, -55.0733, 4.60921, -174.449, 4.55387, 65.4652, 0.0957175, 44.5584
1, 1260.00000, 126.304, -31.9993, 125.802, -151.375, 127.331, 88.5391, 0, 0, 4.5909, -55.0733, 4.60921, -174.449, 4.55387, 65.4652, 0.0957177, 44.5584
1, 1320.00000, 126.304, -31.9993, 125.802, -151.375, 127.331, 88.5391, 0, 0, 4.5909, -55.0733, 4.60921, -174.449, 4.55387, 65.4652, 0.0957179, 44.5584
1, 1380.00000, 126.304, -31.9993, 125.802, -151.375, 127.331, 88.5391, 0, 0, 4.5909, -55.0733, 4.60921, -174.449, 4.55387, 65.4652, 0.0957181, 44.5584
1, 1440.00000, 126.304, -31.9993, 125.802, -151.375, 127.331, 88.5391, 0, 0, 4.5909, -55.0733, 4.60921, -174.449, 4.55387, 65.4652, 0.0957183, 44.5584
1, 1500.00000, 126.304, -31.9993, 125.802, -151.375, 127.331, 88.5391, 0, 0, 4.5909, -55.0733, 4.60921, -174.449, 4.55387, 65.4652, 0.0957184, 44.5584
1, 1560.00000, 126.304, -31.9993, 125.802, -151.375, 127.331, 88.5391, 0, 0, 4.5909, -55.0733, 4.60921, -174.449, 4.55387, 65.4652, 0.0957186, 44.5584
1, 1620.00000, 126.304, -31.9993, 125.802, -151.375, 127.331, 88.5391, 0, 0, 4.5909, -55.0733, 4.60921, -174.449, 4.55387, 65.4652, 0.0957187, 44.5584
1, 1680.00000, 126.304, -31.9993, 125.802, -151.375, 127.331, 88.5391, 0, 0, 4.5909, -55.0733, 4.60921, -174.449, 4.55387, 65.4652, 0.0957188, 44.5584
1, 1740.00000, 126.304, -31.9993, 125.802, -151.375, 127.331, 88.5391, 0, 0, 4.5909, -55.0733, 4.60921, -174.449, 4.55387, 65.4652, 0.0957189, 44.5584
1, 1800.00000, 126.304, -31.9993, 125.802, -151.375, 127.331, 88.5391, 0, 0, 4.5909, -55.0733, 4.60921, -174.449, 4.55387, 65.4652, 0.095719, 44.5583
1, 1860.00000, 126.304, -31.9993, 125.802, -151.375, 127.331, 88.5391, 0, 0, 4.5909, -55.0733, 4.60921, -174.449, 4.55387, 65.4652, 0.0957191, 44.5583
1, 1920.00000, 126.304, -31.9993, 125.802, -151.375, 127.331, 88.5391, 0, 0, 4.5909, -55.0733, 4.60921, -174.449, 4.55386, 65.4652, 0.0957192, 44.5583
1, 1980.00000, 126.304, -31.9993, 125.802, -151.375, 127.331, 88.5391, 0, 0, 4.5909, -55.0733, 4.60921, -174.449, 4.55386, 65.4652, 0.0957192, 44.5583
1, 2040.00000, 126.304, -31.9993, 125.802, -151.375, 127.331, 88.5391, 0, 0, 4.5909, -55.0733, 4.60921, -174.449, 4.55386, 65.4652, 0.0957193, 44.5583
1, 2100.00000, 126.304, -31.9993, 125.802, -151.375, 127.331, 88.5391, 0, 0, 4.5909, -55.0733, 4.60921, -174.449, 4.55386, 65.4652, 0.0957193, 44.5583
1, 2160.00000, 126.304, -31.9993, 125.802, -151.375, 127.331, 88.5391, 0, 0, 4.5909, -55.0733, 4.60921, -174.449, 4.55386, 65.4652, 0.0957194, 44.5583
1, 2220.00000, 126.304, -31.9993, 125.802, -151.375, 127.331, 88.5391, 0, 0, 4.5909, -55.0733, 4.60921, -174.449, 4.55386, 65.4652, 0.0957194, 44.5583
1, 2280.00000, 126.304, -31.9993, 125.802, -151.375, 127.331, 88.5391, 0, 0, 4.5909, -55.0733, 4.60921, -174.449, 4.55386, 65.4652, 0.0957195, 44.5583
1, 2340.00000, 126.304, -31.9993, 125.802, -151.375, 127.331, 88.5391, 0, 0, 4.5909, -55.0733, 4.60921, -174.449, 4.55386, 65.4652, 0.0957195, 44.5583
1, 2400.00000, 126.304, -31.9993, 125.802, -151.375, 127.331, 88.5391, 0, 0, 4.5909, -55.0733, 4.60921, -174.449, 4.55386, 65.4652, 0.0957195, 44.5583
1, 2460.00000, 126.304, -31.9993, 125.802, -151.375, 127.331, 88.5391, 0, 0, 4.5909, -55.0733, 4.60921, -174.449, 4.55386, 65.4652, 0.0957196, 44.5583
1, 2520.00000, 126.304, -31.9993, 125.802, -151.375, 127.331, 88.5391, 0, 0, 4.5909, -55.0733, 4.60921, -174.449, 4.55386, 65.4652, 0.0957196, 44.5583
1, 2580.00000, 126.304, -31.9993, 125.802, -151.375, 127.331, 88.5391, 0, 0, 4.5909, -55.0733, 4.60921, -174.449, 4.55386, 65.4652, 0.0957196, 44.5583
1, 2640.00000, 126.304, -31.9993, 125.802, -151.375, 127.331, 88.5391, 0, 0, 4.5909, -55.0733, 4.60921, -174.449, 4.55386, 65.4652, 0.0957196, 44.5583
1, 2700.00000, 126.304, -31.9993, 125.802, -151.375, 127.331, 88.5391, 0, 0, 4.5909, -55.0733, 4.60921, -174.449, 4.55386, 65.4652, 0.0957197, 44.5583
1, 2760.00000, 126.304, -31.9993, 125.802, -151.375, 127.331, 88.5391, 0, 0, 4.5909, -55.0733, 4.60921, -174.449, 4.55386, 65.4652, 0.0957197, 44.5583
1, 2820.00000, 126.304, -31.9993, 125.802, -151.375, 127.331, 88.5391, 0, 0, 4.5909, -55.0733, 4.60921, -174.449, 4.55386, 65.4652, 0.0957197, 44.5583
1, 2880.00000, 126.304, -31.9993, 125.802, -151.375, 127.331, 88.5391, 0, 0, 4.5909, -55.0733, 4.60921, -174.449, 4.55386, 65.4652, 0.0957197, 44.5583
1, 2940.00000, 126.304, -31.9993, 125.802, -151.375, 127.331, 88.5391, 0, 0, 4.5909, -55.0733, 4.60921, -174.449, 4.55386, 65.4652, 0.0957197, 44.5583
1, 3000.00000, 126.304, -31.9993, 125.802, -151.375, 127.331, 88.5391, 0, 0, 4.5909, -55.0733, 4.60921, -174.449, 4.55386, 65.4652, 0.0957197, 44.5583
1, 3060.00000, 126.304, -31.9993, 125.802, -151.375, 127.331, 88.5391, 0, 0, 4.5909, -55.0733, 4.60921, -174.449, 4.55386, 65.4652, 0.0957197, 44.5583
1, 3120.00000, 126.304, -31.9993, 125.802, -151.375, 127.331, 88.5391, 0, 0, 4.5909, -55.0733, 4.60921, -174.449, 4.55386, 65.4652, 0.0957197, 44.5583
1, 3180.00000, 126.304, -31.9993, 125.802, -151.375, 127.331, 88.5391, 0, 0, 4.5909, -55.0733, 4.60921, -174.449, 4.55386, 65.4652, 0.0957198, 44.5583
1, 3240.00000, 126.304, -31.9993, 125.802, -151.375, 127.331, 88.5391, 0, 0, 4.5909, -55.0733, 4.60921, -174.449, 4.55386, 65.4652, 0.0957198, 44.5583
1, 3300.00000, 126.304, -31.9993, 125.802, -151.375, 127.331, 88.5391, 0, 0, 4.5909, -55.0733, 4.60921, -174.449, 4.55386, 65.4652, 0.0957198, 44.5583
1, 3360.00000, 126.304, -31.9993, 125.802, -151.375, 127.331, 88.5391, 0, 0, 4.5909, -55.0733, 4.60921, -174.449, 4.55386, 65.4652, 0.0957198, 44.5583
1, 3420.00000, 126.304, -31.9993, 125.802, -151.375, 127.331, 88.5391, 0, 0, 4.5909, -55.0733, 4.60921, -174.449, 4.55386, 65.4652, 0.0957198, 44.5583
1, 3480.00000, 126.304, -31.9993, 125.802, -151.375, 127.331, 88.5391, 0, 0, 4.5909, -55.0733, 4.60921, -174.449, 4.55386, 65.4652, 0.0957198, 44.5583
1, 3540.00000, 126.304, -31.9993, 125.802, -151.375, 127.331, 88.5391, 0, 0, 4.5909, -55.0733, 4.60921, -174.449, 4.55386, 65.4652, 0.0957198, 44.5583
2, 0.00000, 126.304, -31.9993, 125.802, -151.375, 127.331, 88.5391, 0, 0, 4.5909, -55.0733, 4.60921, -174.449, 4.55386, 65.4652, 0.0957198, 44.5583
2, 60.00000, 126.304, -31.9993, 125.802, -151.375, 127.331, 88.5391, 0, 0, 4.5909, -55.0733, 4.60921, -174.449, 4.55386, 65.4652, 0.0957198, 44.5583
2, 120.00000, 126.304, -31.9993, 125.802, -151.375, 127.331, 88.5391, 0, 0, 4.5909, -55.0733, 4.60921, -174.449, 4.55386, 65.4652, 0.0957198, 44.5583
2, 180.00000, 126.304, -31.9993, 125.802, -151.375, 127.331, 88.5391, 0, 0, 4.5909, -55.0733, 4.60921, -174.449, 4.55386, 65.4652, 0.0957198, 44.5583
2, 240.00000, 126.304, -31.9993, 125.802, -151.375, 127.331, 88.5391, 0, 0, 4.5909, -55.0733, 4.60921, -174.449, 4.55386, 65.4652, 0.0957198, 44.5583
2, 300.00000, 126.304, -31.9993, 125.802, -151.375, 127.331, 88.5391, 0, 0, 4.5909, -55.0733, 4.60921, -174.449, 4.55386, 65.4652, 0.0957198, 44.5583
2, 360.00000, 126.304, -31.9993, 125.802, -151.375, 127.331, 88.5391, 0, 0, 4.5909, -55.0733, 4.60921, -174.449, 4.55386, 65.4652, 0.0957198, 44.5583
2, 420.00000, 126.304, -31.9993, 125.802, -151.375, 127.331, 88.5391, 0, 0, 4.5909, -55.0733, 4.60921, -174.449, 4.55386, 65.4652, 0.0957198, 44.5583
2, 480.00000, 126.304, -31.9993, 125.802, -151.375, 127.331, 88.5391, 0, 0, 4.5909, -55.0733, 4.60921, -174.449, 4.55386, 65.4652, 0.0957198, 44.5583
2, 540.00000, 126.304, -31.9993, 125.802, -151.375, 127.331, 88.5391, 0, 0, 4.5909, -55.0733, 4.60921, -174.449, 4.55386, 65.4652, 0.0957198, 44.5583
2, 600.00000, 126.304, -31.9993, 125.802, -151.375, 127.331, 88.5391, 0, 0, 4.5909, -55.0733, 4.60921, -174.449, 4.55386, 65.4652, 0.0957198, 44.5583
2, 660.00000, 126.304, -31.9993, 125.802, -151.375, 127.331, 88.5391, 0, 0, 4.5909, -55.0733, 4.60921, -174.449, 4.55386, 65.4652, 0.0957198, 44.5583
2, 720.00000, 126.304, -31.9993, 125.802, -151.375, 127.331, 88.5391, 0, 0, 4.5909, -55.0733, 4.60921, -174.449, 4.55386, 65.4652, 0.0957198, 44.5583
