hour,t(sec),V1,VAngle1,V2,VAngle2,V3,VAngle3,V4,VAngle4,I1,IAngle1,I2,IAngle2,I3,IAngle3,I4,IAngle4
0, 60.00000, 121.802, -31.8171, 121.356, -151.327, 122.992, 88.6223, 0, 0, 8.9832, -54.8907, 9.01618, -174.401, 8.89618, 65.5487, 0.17992, 46.3114
0, 120.00000, 121.802, -31.8172, 121.356, -151.327, 122.992, 88.6223, 0, 0, 8.98325, -54.8911, 9.01625, -174.401, 8.89631, 65.5484, 0.179898, 46.3056
0, 180.00000, 121.802, -31.8172, 121.356, -151.327, 122.992, 88.6223, 0, 0, 8.98325, -54.8911, 9.01625, -174.401, 8.89631, 65.5484, 0.179898, 46.3056
0, 240.00000, 121.802, -31.8172, 121.356, -151.327, 122.992, 88.6223, 0, 0, 8.98325, -54.8911, 9.01625, -174.401, 8.89631, 65.5484, 0.179898, 46.3056
0, 300.00000, 121.802, -31.8172, 121.356, -151.327, 122.992, 88.6223, 0, 0, 8.98325, -54.8911, 9.01625, -174.401, 8.89631, 65.5484, 0.179898, 46.3056
0, 360.00000, 121.802, -31.8172, 121.356, -151.327, 122.992, 88.6223, 0, 0, 8.98325, -54.8911, 9.01625, -174.401, 8.89631, 65.5484, 0.179898, 46.3056
0, 420.00000, 121.802, -31.8172, 121.356, -151.327, 122.992, 88.6223, 0, 0, 8.98325, -54.8911, 9.01625, -174.401, 8.89631, 65.5484, 0.179898, 46.3056
0, 480.00000, 122.483, -31.691, 121.996, -151.207, 123.653, 88.7625, 0, 0, 8.07177, -54.7657, 8.10399, -174.28, 7.99568, 65.688, 0.161976, 44.7662
0, 540.00000, 122.483, -31.6909, 121.996, -151.207, 123.653, 88.7626, 0, 0, 8.07174, -54.7648, 8.10395, -174.281, 7.99537, 65.6887, 0.162132, 44.7684
0, 600.00000, 122.483, -31.6909, 121.996, -151.207, 123.653, 88.7626, 0, 0, 8.07174, -54.7648, 8.10395, -174.281, 7.99536, 65.6887, 0.162135, 44.7684
0, 660.00000, 122.483, -31.6909, 121.996, -151.207, 123.653, 88.7626, 0, 0, 8.07174, -54.7648, 8.10395, -174.281, 7.99536, 65.6887, 0.162135, 44.7684
0, 720.00000, 122.483, -31.6909, 121.996, -151.207, 123.653, 88.7626, 0, 0, 8.07174, -54.7648, 8.10395, -174.281, 7.99536, 65.6887, 0.162135, 44.7684
0, 780.00000, 122.483, -31.6909, 121.996, -151.207, 123.653, 88.7626, 0, 0, 8.07174, -54.7648, 8.10395, -174.281, 7.99536, 65.6887, 0.162135, 44.7684
0, 840.00000, 122.483, -31.6909, 121.996, -151.207, 123.653, 88.7626, 0, 0, 8.07174, -54.7648, 8.10395, -174.281, 7.99536, 65.6887, 0.162135, 44.7684
0, 900.00000, 122.483, -31.6909, 121.996, -151.207, 123.653, 88.7626, 0, 0, 8.07174, -54.7648, 8.10395, -174.281, 7.99536, 65.6887, 0.162135, 44.7684
0, 960.00000, 122.483, -31.6909, 121.996, -151.207, 123.653, 88.7626, 0, 0, 8.07174, -54.7648, 8.10395, -174.281, 7.99536, 65.6887, 0.162135, 44.7684
0, 1020.00000, 122.483, -31.6909, 121.996, -151.207, 123.653, 88.7626, 0, 0, 8.07174, -54.7648, 8.10395, -174.281, 7.99536, 65.6887, 0.162135, 44.7684
0, 1080.00000, 122.483, -31.6909, 121.996, -151.207, 123.653, 88.7626, 0, 0, 8.07174, -54.7648, 8.10395, -174.281, 7.99536, 65.6887, 0.162135, 44.7684
0, 1140.00000, 122.483, -31.6909, 121.996, -151.207, 123.653, 88.7626, 0, 0, 8.07174, -54.7648, 8.10395, -174.281, 7.99536, 65.6887, 0.162135, 44.7684
0, 1200.00000, 122.483, -31.6909, 121.996, -151.207, 123.653, 88.7626, 0, 0, 8.07174, -54.7648, 8.10395, -174.281, 7.99536, 65.6887, 0.162135, 44.7684
0, 1260.00000, 122.483, -31.6909, 121.996, -151.207, 123.653, 88.7626, 0, 0, 8.07174, -54.7648, 8.10395, -174.281, 7.99536, 65.6887, 0.162135, 44.7684
0, 1320.00000, 122.483, -31.6909, 121.996, -151.207, 123.653, 88.7626, 0, 0, 8.07174, -54.7648, 8.10395, -174.281, 7.99536, 65.6887, 0.162135, 44.7684
0, 1380.00000, 122.483, -31.6909, 121.996, -151.207, 123.653, 88.7626, 0, 0, 8.07174, -54.7648, 8.10395, -174.281, 7.99536, 65.6887, 0.162135, 44.7684
0, 1440.00000, 122.483, -31.6909, 121.996, -151.207, 123.653, 88.7626, 0, 0, 8.07174, -54.7648, 8.10395, -174.281, 7.99536, 65.6887, 0.162135, 44.7684
0, 1500.00000, 122.483, -31.6909, 121.996, -151.207, 123.653, 88.7626, 0, 0, 8.07174, -54.7648, 8.10395, -174.281, 7.99536, 65.6887, 0.162135, 44.7684
0, 1560.00000, 122.483, -31.6909, 121.996, -151.207, 123.653, 88.7626, 0, 0, 8.07174, -54.7648, 8.10395, -174.281, 7.99536, 65.6887, 0.162135, 44.7684
0, 1620.00000, 122.483, -31.6909, 121.996, -151.207, 123.653, 88.7626, 0, 0, 8.07174, -54.7648, 8.10395, -174.281, 7.99536, 65.6887, 0.162135, 44.7684
0, 1680.00000, 122.483, -31.6909, 121.996, -151.207, 123.653, 88.7626, 0, 0, 8.07174, -54.7648, 8.10395, -174.281, 7.99536, 65.6887, 0.162135, 44.7684
0, 1740.00000, 122.483, -31.6909, 121.996, -151.207, 123.653, 88.7626, 0, 0, 8.07174, -54.7648, 8.10395, -174.281, 7.99536, 65.6887, 0.162135, 44.7684
0, 1800.00000, 122.483, -31.6909, 121.996, -151.207, 123.653, 88.7626, 0, 0, 8.07174, -54.7648, 8.10395, -174.281, 7.99536, 65.6887, 0.162135, 44.7684
0, 1860.00000, 122.483, -31.6909, 121.996, -151.207, 123.653, 88.7626, 0, 0, 8.07174, -54.7648, 8.10395, -174.281, 7.99536, 65.6887, 0.162135, 44.7684
0, 1920.00000, 122.483, -31.6909, 121.996, -151.207, 123.653, 88.7626, 0, 0, 8.07174, -54.7648, 8.10395, -174.281, 7.99536, 65.6887, 0.162135, 44.7684
0, 1980.00000, 122.483, -31.6909, 121.996, -151.207, 123.653, 88.7626, 0, 0, 8.07174, -54.7648, 8.10395, -174.281, 7.99536, 65.6887, 0.162135, 44.7684
0, 2040.00000, 122.483, -31.6909, 121.996, -151.207, 123.653, 88.7626, 0, 0, 8.07174, -54.7648, 8.10395, -174.281, 7.99536, 65.6887, 0.162135, 44.7684
0, 2100.00000, 122.483, -31.6909, 121.996, -151.207, 123.653, 88.7626, 0, 0, 8.07174, -54.7648, 8.10395, -174.281, 7.99536, 65.6887, 0.162135, 44.7684
0, 2160.00000, 122.483, -31.6909, 121.996, -151.207, 123.653, 88.7626, 0, 0, 8.07174, -54.7648, 8.10395, -174.281, 7.99536, 65.6887, 0.162135, 44.7684
0, 2220.00000, 122.483, -31.6909, 121.996, -151.207, 123.653, 88.7626, 0, 0, 8.07174, -54.7648, 8.10395, -174.281, 7.99536, 65.6887, 0.162135, 44.7684
0, 2280.00000, 122.483, -31.6909, 121.996, -151.207, 123.653, 88.7626, 0, 0, 8.07174, -54.7648, 8.10395, -174.281, 7.99536, 65.6887, 0.162135, 44.7684
0, 2340.00000, 122.483, -31.6909, 121.996, -151.207, 123.653, 88.7626, 0, 0, 8.07174, -54.7648, 8.10395, -174.281, 7.99536, 65.6887, 0.162135, 44.7684
0, 2400.00000, 122.483, -31.6909, 121.996, -151.207, 123.653, 88.7626, 0, 0, 8.07174, -54.7648, 8.10395, -174.281, 7.99536, 65.6887, 0.162135, 44.7684
0, 2460.00000, 122.483, -31.6909, 121.996, -151.207, 123.653, 88.7626, 0, 0, 8.07174, -54.7648, 8.10395, -174.281, 7.99536, 65.6887, 0.162135, 44.7684
0, 2520.00000, 122.483, -31.6909, 121.996, -151.207, 123.653, 88.7626, 0, 0, 8.07174, -54.7648, 8.10395, -174.281, 7.99536, 65.6887, 0.162135, 44.7684
0, 2580.00000, 122.483, -31.6909, 121.996, -151.207, 123.653, 88.7626, 0, 0, 8.07174, -54.7648, 8.10395, -174.281, 7.99536, 65.6887, 0.162135, 44.7684
0, 2640.00000, 122.483, -31.6909, 121.996, -151.207, 123.653, 88.7626, 0, 0, 8.07174, -54.7648, 8.10395, -174.281, 7.99536, 65.6887, 0.162135, 44.7684
0, 2700.00000, 122.483, -31.6909, 121.996, -151.207, 123.653, 88.7626, 0, 0, 8.07174, -54.7648, 8.10395, -174.281, 7.99536, 65.6887, 0.162135, 44.7684
0, 2760.00000, 122.483, -31.6909, 121.996, -151.207, 123.653, 88.7626, 0, 0, 8.07174, -54.7648, 8.10395, -174.281, 7.99536, 65.6887, 0.162135, 44.7684
0, 2820.00000, 122.483, -31.6909, 121.996, -151.207, 123.653, 88.7626, 0, 0, 8.07174, -54.7648, 8.10395, -174.281, 7.99536, 65.6887, 0.162135, 44.7684
0, 2880.00000, 122.483, -31.6909, 121.996, -151.207, 123.653, 88.7626, 0, 0, 8.07174, -54.7648, 8.10395, -174.281, 7.99536, 65.6887, 0.162135, 44.7684
0, 2940.00000, 122.483, -31.6909, 121.996, -151.207, 123.653, 88.7626, 0, 0, 8.07174, -54.7648, 8.10395, -174.281, 7.99536, 65.6887, 0.162135, 44.7684
0, 3000.00000, 122.483, -31.6909, 121.996, -151.207, 123.653, 88.7626, 0, 0, 8.07174, -54.7648, 8.10395, -174.281, 7.99536, 65.6887, 0.162135, 44.7684
0, 3060.00000, 122.483, -31.6909, 121.996, -151.207, 123.653, 88.7626, 0, 0, 8.07174, -54.7648, 8.10395, -174.281, 7.99536, 65.6887, 0.162135, 44.7684
0, 3120.00000, 122.483, -31.6909, 121.996, -151.207, 123.653, 88.7626, 0, 0, 8.07174, -54.7648, 8.10395, -174.281, 7.99536, 65.6887, 0.162135, 44.7684
0, 3180.00000, 122.483, -31.6909, 121.996, -151.207, 123.653, 88.7626, 0, 0, 8.07174, -54.7648, 8.10395, -174.281, 7.99536, 65.6887, 0.162135, 44.7684
0, 3240.00000, 122.483, -31.6909, 121.996, -151.207, 123.653, 88.7626, 0, 0, 8.07174, -54.7648, 8.10395, -174.281, 7.99536, 65.6887, 0.162135, 44.7684
0, 3300.00000, 122.483, -31.6909, 121.996, -151.207, 123.653, 88.7626, 0, 0, 8.07174, -54.7648, 8.10395, -174.281, 7.99536, 65.6887, 0.162135, 44.7684
0, 3360.00000, 122.483, -31.6909, 121.996, -151.207, 123.653, 88.7626, 0, 0, 8.07174, -54.7648, 8.10395, -174.281, 7.99536, 65.6887, 0.162135, 44.7684
0, 3420.00000, 122.483, -31.6909, 121.996, -151.207, 123.653, 88.7626, 0, 0, 8.07174, -54.7648, 8.10395, -174.281, 7.99536, 65.6887, 0.162135, 44.7684
0, 3480.00000, 122.483, -31.6909, 121.996, -151.207, 123.653, 88.7626, 0, 0, 8.07174, -54.7648, 8.10395, -174.281, 7.99536, 65.6887, 0.162135, 44.7684
0, 3540.00000, 122.483, -31.6909, 121.996, -151.207, 123.653, 88.7626, 0, 0, 8.07174, -54.7648, 8.10395, -174.281, 7.99536, 65.6887, 0.162135, 44.7684
1, 0.00000, 122.483, -31.6909, 121.996, -151.207, 123.653, 88.7626, 0, 0, 8.07174, -54.7648, 8.10395, -174.281, 7.99536, 65.6887, 0.162135, 44.7684
1, 60.00000, 122.573, -31.5615, 122.291, -151.174, 123.651, 88.7633, 0, 0, 8.06588, -54.6355, 8.08451, -174.248, 7.99547, 65.6894, 0.131596, 50.4031
1, 120.00000, 122.573, -31.5615, 122.291, -151.174, 123.651, 88.7633, 0, 0, 8.06585, -54.6354, 8.08444, -174.248, 7.99549, 65.6894, 0.131532, 50.4273
1, 180.00000, 122.573, -31.5615, 122.291, -151.174, 123.651, 88.7633, 0, 0, 8.06585, -54.6354, 8.08444, -174.248, 7.99549, 65.6894, 0.131532, 50.4274
1, 240.00000, 122.573, -31.5615, 122.291, -151.174, 123.651, 88.7633, 0, 0, 8.06585, -54.6354, 8.08444, -174.248, 7.99549, 65.6894, 0.131532, 50.4274
1, 300.00000, 122.573, -31.5615, 122.291, -151.174, 123.651, 88.7633, 0, 0, 8.06585, -54.6354, 8.08444, -174.248, 7.99549, 65.6894, 0.131532, 50.4274
1, 360.00000, 122.573, -31.5615, 122.291, -151.174, 123.651, 88.7633, 0, 0, 8.06585, -54.6354, 8.08444, -174.248, 7.99549, 65.6894, 0.131532, 50.4274
1, 420.00000, 122.573, -31.5615, 122.291, -151.174, 123.651, 88.7633, 0, 0, 8.06585, -54.6354, 8.08444, -174.248, 7.99549, 65.6894, 0.131532, 50.4274
1, 480.00000, 122.573, -31.5615, 122.291, -151.174, 123.651, 88.7633, 0, 0, 8.06585, -54.6354, 8.08444, -174.248, 7.99549, 65.6894, 0.131532, 50.4274
1, 540.00000, 122.573, -31.5615, 122.291, -151.174, 123.651, 88.7633, 0, 0, 8.06585, -54.6354, 8.08444, -174.248, 7.99549, 65.6894, 0.131532, 50.4274
1, 600.00000, 122.573, -31.5615, 122.291, -151.174, 123.651, 88.7633, 0, 0, 8.06585, -54.6354, 8.08444, -174.248, 7.99549, 65.6894, 0.131532, 50.4274
1, 660.00000, 122.573, -31.5615, 122.291, -151.174, 123.651, 88.7633, 0, 0, 8.06585, -54.6354, 8.08444, -174.248, 7.99549, 65.6894, 0.131532, 50.4274
1, 720.00000, 122.573, -31.5615, 122.291, -151.174, 123.651, 88.7633, 0, 0, 8.06585, -54.6354, 8.08444, -174.248, 7.99549, 65.6894, 0.131532, 50.4274
1, 780.00000, 122.573, -31.5615, 122.291, -151.174, 123.651, 88.7633, 0, 0, 8.06585, -54.6354, 8.08444, -174.248, 7.99549, 65.6894, 0.131532, 50.4274
1, 840.00000, 122.573, -31.5615, 122.291, -151.174, 123.651, 88.7633, 0, 0, 8.06585, -54.6354, 8.08444, -174.248, 7.99549, 65.6894, 0.131532, 50.4274
1, 900.00000, 122.573, -31.5615, 122.291, -151.174, 123.651, 88.7633, 0, 0, 8.06585, -54.6354, 8.08444, -174.248, 7.99549, 65.6894, 0.131532, 50.4274
1, 960.00000, 122.573, -31.5615, 122.291, -151.174, 123.651, 88.7633, 0, 0, 8.06585, -54.6354, 8.08444, -174.248, 7.99549, 65.6894, 0.131532, 50.4274
1, 1020.00000, 122.573, -31.5615, 122.291, -151.174, 123.651, 88.7633, 0, 0, 8.06585, -54.6354, 8.08444, -174.248, 7.99549, 65.6894, 0.131532, 50.4274
1, 1080.00000, 122.573, -31.5615, 122.291, -151.174, 123.651, 88.7633, 0, 0, 8.06585, -54.6354, 8.08444, -174.248, 7.99549, 65.6894, 0.131532, 50.4274
1, 1140.00000, 122.573, -31.5615, 122.291, -151.174, 123.651, 88.7633, 0, 0, 8.06585, -54.6354, 8.08444, -174.248, 7.99549, 65.6894, 0.131532, 50.4274
1, 1200.00000, 122.573, -31.5615, 122.291, -151.174, 123.651, 88.7633, 0, 0, 8.06585, -54.6354, 8.08444, -174.248, 7.99549, 65.6894, 0.131532, 50.4274
1, 1260.00000, 122.573, -31.5615, 122.291, -151.174, 123.651, 88.7633, 0, 0, 8.06585, -54.6354, 8.08444, -174.248, 7.99549, 65.6894, 0.131532, 50.4274
1, 1320.00000, 122.573, -31.5615, 122.291, -151.174, 123.651, 88.7633, 0, 0, 8.06585, -54.6354, 8.08444, -174.248, 7.99549, 65.6894, 0.131532, 50.4274
1, 1380.00000, 122.573, -31.5615, 122.291, -151.174, 123.651, 88.7633, 0, 0, 8.06585, -54.6354, 8.08444, -174.248, 7.99549, 65.6894, 0.131532, 50.4274
1, 1440.00000, 122.573, -31.5615, 122.291, -151.174, 123.651, 88.7633, 0, 0, 8.06585, -54.6354, 8.08444, -174.248, 7.99549, 65.6894, 0.131532, 50.4274
1, 1500.00000, 122.573, -31.5615, 122.291, -151.174, 123.651, 88.7633, 0, 0, 8.06585, -54.6354, 8.08444, -174.248, 7.99549, 65.6894, 0.131532, 50.4274
1, 1560.00000, 122.573, -31.5615, 122.291, -151.174, 123.651, 88.7633, 0, 0, 8.06585, -54.6354, 8.08444, -174.248, 7.99549, 65.6894, 0.131532, 50.4274
1, 1620.00000, 122.573, -31.5615, 122.291, -151.174, 123.651, 88.7633, 0, 0, 8.06585, -54.6354, 8.08444, -174.248, 7.99549, 65.6894, 0.131532, 50.4274
1, 1680.00000, 122.573, -31.5615, 122.291, -151.174, 123.651, 88.7633, 0, 0, 8.06585, -54.6354, 8.08444, -174.248, 7.99549, 65.6894, 0.131532, 50.4274
1, 1740.00000, 122.573, -31.5615, 122.291, -151.174, 123.651, 88.7633, 0, 0, 8.06585, -54.6354, 8.08444, -174.248, 7.99549, 65.6894, 0.131532, 50.4274
1, 1800.00000, 122.573, -31.5615, 122.291, -151.174, 123.651, 88.7633, 0, 0, 8.06585, -54.6354, 8.08444, -174.248, 7.99549, 65.6894, 0.131532, 50.4274
1, 1860.00000, 122.573, -31.5615, 122.291, -151.174, 123.651, 88.7633, 0, 0, 8.06585, -54.6354, 8.08444, -174.248, 7.99549, 65.6894, 0.131532, 50.4274
1, 1920.00000, 122.573, -31.5615, 122.291, -151.174, 123.651, 88.7633, 0, 0, 8.06585, -54.6354, 8.08444, -174.248, 7.99549, 65.6894, 0.131532, 50.4274
1, 1980.00000, 122.573, -31.5615, 122.291, -151.174, 123.651, 88.7633, 0, 0, 8.06585, -54.6354, 8.08444, -174.248, 7.99549, 65.6894, 0.131532, 50.4274
1, 2040.00000, 122.573, -31.5615, 122.291, -151.174, 123.651, 88.7633, 0, 0, 8.06585, -54.6354, 8.08444, -174.248, 7.99549, 65.6894, 0.131532, 50.4274
1, 2100.00000, 122.573, -31.5615, 122.291, -151.174, 123.651, 88.7633, 0, 0, 8.06585, -54.6354, 8.08444, -174.248, 7.99549, 65.6894, 0.131532, 50.4274
1, 2160.00000, 122.573, -31.5615, 122.291, -151.174, 123.651, 88.7633, 0, 0, 8.06585, -54.6354, 8.08444, -174.248, 7.99549, 65.6894, 0.131532, 50.4274
1, 2220.00000, 122.573, -31.5615, 122.291, -151.174, 123.651, 88.7633, 0, 0, 8.06585, -54.6354, 8.08444, -174.248, 7.99549, 65.6894, 0.131532, 50.4274
1, 2280.00000, 122.573, -31.5615, 122.291, -151.174, 123.651, 88.7633, 0, 0, 8.06585, -54.6354, 8.08444, -174.248, 7.99549, 65.6894, 0.131532, 50.4274
1, 2340.00000, 122.573, -31.5615, 122.291, -151.174, 123.651, 88.7633, 0, 0, 8.06585, -54.6354, 8.08444, -174.248, 7.99549, 65.6894, 0.131532, 50.4274
1, 2400.00000, 122.573, -31.5615, 122.291, -151.174, 123.651, 88.7633, 0, 0, 8.06585, -54.6354, 8.08444, -174.248, 7.99549, 65.6894, 0.131532, 50.4274
1, 2460.00000, 122.573, -31.5615, 122.291, -151.174, 123.651, 88.7633, 0, 0, 8.06585, -54.6354, 8.08444, -174.248, 7.99549, 65.6894, 0.131532, 50.4274
1, 2520.00000, 122.573, -31.5615, 122.291, -151.174, 123.651, 88.7633, 0, 0, 8.06585, -54.6354, 8.08444, -174.248, 7.99549, 65.6894, 0.131532, 50.4274
1, 2580.00000, 122.573, -31.5615, 122.291, -151.174, 123.651, 88.7633, 0, 0, 8.06585, -54.6354, 8.08444, -174.248, 7.99549, 65.6894, 0.131532, 50.4274
1, 2640.00000, 122.573, -31.5615, 122.291, -151.174, 123.651, 88.7633, 0, 0, 8.06585, -54.6354, 8.08444, -174.248, 7.99549, 65.6894, 0.131532, 50.4274
1, 2700.00000, 122.573, -31.5615, 122.291, -151.174, 123.651, 88.7633, 0, 0, 8.06585, -54.6354, 8.08444, -174.248, 7.99549, 65.6894, 0.131532, 50.4274
1, 2760.00000, 122.573, -31.5615, 122.291, -151.174, 123.651, 88.7633, 0, 0, 8.06585, -54.6354, 8.08444, -174.248, 7.99549, 65.6894, 0.131532, 50.4274
1, 2820.00000, 122.573, -31.5615, 122.291, -151.174, 123.651, 88.7633, 0, 0, 8.06585, -54.6354, 8.08444, -174.248, 7.99549, 65.6894, 0.131532, 50.4274
1, 2880.00000, 122.573, -31.5615, 122.291, -151.174, 123.651, 88.7633, 0, 0, 8.06585, -54.6354, 8.08444, -174.248, 7.99549, 65.6894, 0.131532, 50.4274
1, 2940.00000, 122.573, -31.5615, 122.291, -151.174, 123.651, 88.7633, 0, 0, 8.06585, -54.6354, 8.08444, -174.248, 7.99549, 65.6894, 0.131532, 50.4274
1, 3000.00000, 122.573, -31.5615, 122.291, -151.174, 123.651, 88.7633, 0, 0, 8.06585, -54.6354, 8.08444, -174.248, 7.99549, 65.6894, 0.131532, 50.4274
1, 3060.00000, 122.573, -31.5615, 122.291, -151.174, 123.651, 88.7633, 0, 0, 8.06585, -54.6354, 8.08444, -174.248, 7.99549, 65.6894, 0.131532, 50.4274
1, 3120.00000, 122.573, -31.5615, 122.291, -151.174, 123.651, 88.7633, 0, 0, 8.06585, -54.6354, 8.08444, -174.248, 7.99549, 65.6894, 0.131532, 50.4274
1, 3180.00000, 122.573, -31.5615, 122.291, -151.174, 123.651, 88.7633, 0, 0, 8.06585, -54.6354, 8.08444, -174.248, 7.99549, 65.6894, 0.131532, 50.4274
1, 3240.00000, 122.573, -31.5615, 122.291, -151.174, 123.651, 88.7633, 0, 0, 8.06585, -54.6354, 8.08444, -174.248, 7.99549, 65.6894, 0.131532, 50.4274
1, 3300.00000, 122.573, -31.5615, 122.291, -151.174, 123.651, 88.7633, 0, 0, 8.06585, -54.6354, 8.08444, -174.248, 7.99549, 65.6894, 0.131532, 50.4274
1, 3360.00000, 122.573, -31.5615, 122.291, -151.174, 123.651, 88.7633, 0, 0, 8.06585, -54.6354, 8.08444, -174.248, 7.99549, 65.6894, 0.131532, 50.4274
1, 3420.00000, 122.573, -31.5615, 122.291, -151.174, 123.651, 88.7633, 0, 0, 8.06585, -54.6354, 8.08444, -174.248, 7.99549, 65.6894, 0.131532, 50.4274
1, 3480.00000, 122.573, -31.5615, 122.291, -151.174, 123.651, 88.7633, 0, 0, 8.06585, -54.6354, 8.08444, -174.248, 7.99549, 65.6894, 0.131532, 50.4274
1, 3540.00000, 122.573, -31.5615, 122.291, -151.174, 123.651, 88.7633, 0, 0, 8.06585, -54.6354, 8.08444, -174.248, 7.99549, 65.6894, 0.131532, 50.4274
2, 0.00000, 122.573, -31.5615, 122.291, -151.174, 123.651, 88.7633, 0, 0, 8.06585, -54.6354, 8.08444, -174.248, 7.99549, 65.6894, 0.131532, 50.4274
2, 60.00000, 122.573, -31.5615, 122.291, -151.174, 123.651, 88.7633, 0, 0, 8.06585, -54.6354, 8.08444, -174.248, 7.99549, 65.6894, 0.131532, 50.4274
2, 120.00000, 122.573, -31.5615, 122.291, -151.174, 123.651, 88.7633, 0, 0, 8.06585, -54.6354, 8.08444, -174.248, 7.99549, 65.6894, 0.131532, 50.4274
2, 180.00000, 122.573, -31.5615, 122.291, -151.174, 123.651, 88.7633, 0, 0, 8.06585, -54.6354, 8.08444, -174.248, 7.99549, 65.6894, 0.131532, 50.4274
2, 240.00000, 122.573, -31.5615, 122.291, -151.174, 123.651, 88.7633, 0, 0, 8.06585, -54.6354, 8.08444, -174.248, 7.99549, 65.6894, 0.131532, 50.4274
2, 300.00000, 122.573, -31.5615, 122.291, -151.174, 123.651, 88.7633, 0, 0, 8.06585, -54.6354, 8.08444, -174.248, 7.99549, 65.6894, 0.131532, 50.4274
2, 360.00000, 122.573, -31.5615, 122.291, -151.174, 123.651, 88.7633, 0, 0, 8.06585, -54.6354, 8.08444, -174.248, 7.99549, 65.6894, 0.131532, 50.4274
2, 420.00000, 122.573, -31.5615, 122.291, -151.174, 123.651, 88.7633, 0, 0, 8.06585, -54.6354, 8.08444, -174.248, 7.99549, 65.6894, 0.131532, 50.4274
2, 480.00000, 122.573, -31.5615, 122.291, -151.174, 123.651, 88.7633, 0, 0, 8.06585, -54.6354, 8.08444, -174.248, 7.99549, 65.6894, 0.131532, 50.4274
2, 540.00000, 122.573, -31.5615, 122.291, -151.174, 123.651, 88.7633, 0, 0, 8.06585, -54.6354, 8.08444, -174.248, 7.99549, 65.6894, 0.131532, 50.4274
2, 600.00000, 122.573, -31.5615, 122.291, -151.174, 123.651, 88.7633, 0, 0, 8.06585, -54.6354, 8.08444, -174.248, 7.99549, 65.6894, 0.131532, 50.4274
2, 660.00000, 122.573, -31.5615, 122.291, -151.174, 123.651, 88.7633, 0, 0, 8.06585, -54.6354, 8.08444, -174.248, 7.99549, 65.6894, 0.131532, 50.4274
2, 720.00000, 122.573, -31.5615, 122.291, -151.174, 123.651, 88.7633, 0, 0, 8.06585, -54.6354, 8.08444, -174.248, 7.99549, 65.6894, 0.131532, 50.4274
