hour,t(sec),V1,VAngle1,V2,VAngle2,V3,VAngle3,V4,VAngle4,I1,IAngle1,I2,IAngle2,I3,IAngle3,I4,IAngle4
0, 60.00000, 118.161, -31.2608, 117.337, -151.638, 117.49, 89.105, 0, 0, 9.19422, -54.3345, 9.12298, -174.712, 9.13615, 66.0313, 0.0396838, -72.3899
0, 120.00000, 118.161, -31.2608, 117.337, -151.638, 117.49, 89.105, 0, 0, 9.19414, -54.3348, 9.12291, -174.712, 9.13609, 66.031, 0.0396826, -72.4023
0, 180.00000, 118.161, -31.2608, 117.337, -151.638, 117.49, 89.105, 0, 0, 9.19414, -54.3348, 9.12291, -174.712, 9.13609, 66.031, 0.0396826, -72.4024
0, 240.00000, 118.161, -31.2608, 117.337, -151.638, 117.49, 89.105, 0, 0, 9.19414, -54.3348, 9.12291, -174.712, 9.13609, 66.031, 0.0396826, -72.4024
0, 300.00000, 118.161, -31.2608, 117.337, -151.638, 117.49, 89.105, 0, 0, 9.19414, -54.3348, 9.12291, -174.712, 9.13609, 66.031, 0.0396826, -72.4024
0, 360.00000, 118.161, -31.2608, 117.337, -151.638, 117.49, 89.105, 0, 0, 9.19414, -54.3348, 9.12291, -174.712, 9.13609, 66.031, 0.0396826, -72.4024
0, 420.00000, 118.161, -31.2608, 117.337, -151.638, 117.49, 89.105, 0, 0, 9.19414, -54.3348, 9.12291, -174.712, 9.13609, 66.031, 0.0396826, -72.4024
0, 480.00000, 119.216, -31.1675, 118.309, -151.56, 118.45, 89.2118, 0, 0, 8.07818, -54.2418, 8.00997, -174.634, 8.02061, 66.1375, 0.0320736, -72.6333
0, 540.00000, 119.216, -31.1675, 118.309, -151.56, 118.45, 89.2118, 0, 0, 8.07826, -54.2414, 8.01004, -174.634, 8.02067, 66.1379, 0.032067, -72.6211
0, 600.00000, 119.216, -31.1675, 118.309, -151.56, 118.45, 89.2118, 0, 0, 8.07826, -54.2414, 8.01004, -174.634, 8.02067, 66.1379, 0.0320669, -72.6211
0, 660.00000, 119.216, -31.1675, 118.309, -151.56, 118.45, 89.2118, 0, 0, 8.07826, -54.2414, 8.01004, -174.634, 8.02067, 66.1379, 0.0320669, -72.6211
0, 720.00000, 119.216, -31.1675, 118.309, -151.56, 118.45, 89.2118, 0, 0, 8.07826, -54.2414, 8.01004, -174.634, 8.02067, 66.1379, 0.0320669, -72.6211
0, 780.00000, 119.216, -31.1675, 118.309, -151.56, 118.45, 89.2118, 0, 0, 8.07826, -54.2414, 8.01004, -174.634, 8.02067, 66.1379, 0.0320669, -72.6211
0, 840.00000, 119.216, -31.1675, 118.309, -151.56, 118.45, 89.2118, 0, 0, 8.07826, -54.2414, 8.01004, -174.634, 8.02067, 66.1379, 0.0320669, -72.6211
0, 900.00000, 119.216, -31.1675, 118.309, -151.56, 118.45, 89.2118, 0, 0, 8.07826, -54.2414, 8.01004, -174.634, 8.02067, 66.1379, 0.0320669, -72.6211
0, 960.00000, 118.898, -31.3637, 117.8, -151.531, 118.487, 89.2018, 0, 0, 8.05436, -54.4375, 7.97177, -174.605, 8.02339, 66.1278, 0.035707, -81.8406
0, 1020.00000, 118.898, -31.3637, 117.8, -151.531, 118.487, 89.2018, 0, 0, 8.05434, -54.4376, 7.97173, -174.605, 8.02341, 66.1279, 0.0357399, -81.8807
0, 1080.00000, 118.898, -31.3637, 117.8, -151.531, 118.487, 89.2018, 0, 0, 8.05434, -54.4376, 7.97173, -174.605, 8.02341, 66.1279, 0.03574, -81.8808
0, 1140.00000, 118.898, -31.3637, 117.8, -151.531, 118.487, 89.2018, 0, 0, 8.05434, -54.4376, 7.97173, -174.605, 8.02341, 66.1279, 0.03574, -81.8808
0, 1200.00000, 118.898, -31.3637, 117.8, -151.531, 118.487, 89.2018, 0, 0, 8.05434, -54.4376, 7.97173, -174.605, 8.02341, 66.1279, 0.03574, -81.8808
0, 1260.00000, 118.898, -31.3637, 117.8, -151.531, 118.487, 89.2018, 0, 0, 8.05434, -54.4376, 7.97173, -174.605, 8.02341, 66.1279, 0.03574, -81.8808
0, 1320.00000, 118.898, -31.3637, 117.8, -151.531, 118.487, 89.2018, 0, 0, 8.05434, -54.4376, 7.97173, -174.605, 8.02341, 66.1279, 0.03574, -81.8808
0, 1380.00000, 118.898, -31.3637, 117.8, -151.531, 118.487, 89.2018, 0, 0, 8.05434, -54.4376, 7.97173, -174.605, 8.02341, 66.1279, 0.03574, -81.8808
0, 1440.00000, 118.898, -31.3637, 117.8, -151.531, 118.487, 89.2018, 0, 0, 8.05434, -54.4376, 7.97173, -174.605, 8.02341, 66.1279, 0.03574, -81.8808
0, 1500.00000, 118.898, -31.3637, 117.8, -151.531, 118.487, 89.2018, 0, 0, 8.05434, -54.4376, 7.97173, -174.605, 8.02341, 66.1279, 0.03574, -81.8808
0, 1560.00000, 118.898, -31.3637, 117.8, -151.531, 118.487, 89.2018, 0, 0, 8.05434, -54.4376, 7.97173, -174.605, 8.02341, 66.1279, 0.03574, -81.8808
0, 1620.00000, 118.898, -31.3637, 117.8, -151.531, 118.487, 89.2018, 0, 0, 8.05434, -54.4376, 7.97173, -174.605, 8.02341, 66.1279, 0.03574, -81.8808
0, 1680.00000, 118.898, -31.3637, 117.8, -151.531, 118.487, 89.2018, 0, 0, 8.05434, -54.4376, 7.97173, -174.605, 8.02341, 66.1279, 0.03574, -81.8808
0, 1740.00000, 118.898, -31.3637, 117.8, -151.531, 118.487, 89.2018, 0, 0, 8.05434, -54.4376, 7.97173, -174.605, 8.02341, 66.1279, 0.03574, -81.8808
0, 1800.00000, 118.898, -31.3637, 117.8, -151.531, 118.487, 89.2018, 0, 0, 8.05434, -54.4376, 7.97173, -174.605, 8.02341, 66.1279, 0.03574, -81.8808
0, 1860.00000, 118.898, -31.3637, 117.8, -151.531, 118.487, 89.2018, 0, 0, 8.05434, -54.4376, 7.97173, -174.605, 8.02341, 66.1279, 0.03574, -81.8808
0, 1920.00000, 118.898, -31.3637, 117.8, -151.531, 118.487, 89.2018, 0, 0, 8.05434, -54.4376, 7.97173, -174.605, 8.02341, 66.1279, 0.03574, -81.8808
0, 1980.00000, 118.898, -31.3637, 117.8, -151.531, 118.487, 89.2018, 0, 0, 8.05434, -54.4376, 7.97173, -174.605, 8.02341, 66.1279, 0.03574, -81.8808
0, 2040.00000, 118.898, -31.3637, 117.8, -151.531, 118.487, 89.2018, 0, 0, 8.05434, -54.4376, 7.97173, -174.605, 8.02341, 66.1279, 0.03574, -81.8808
0, 2100.00000, 118.898, -31.3637, 117.8, -151.531, 118.487, 89.2018, 0, 0, 8.05434, -54.4376, 7.97173, -174.605, 8.02341, 66.1279, 0.03574, -81.8808
0, 2160.00000, 118.898, -31.3637, 117.8, -151.531, 118.487, 89.2018, 0, 0, 8.05434, -54.4376, 7.97173, -174.605, 8.02341, 66.1279, 0.03574, -81.8808
0, 2220.00000, 118.898, -31.3637, 117.8, -151.531, 118.487, 89.2018, 0, 0, 8.05434, -54.4376, 7.97173, -174.605, 8.02341, 66.1279, 0.03574, -81.8808
0, 2280.00000, 118.898, -31.3637, 117.8, -151.531, 118.487, 89.2018, 0, 0, 8.05434, -54.4376, 7.97173, -174.605, 8.02341, 66.1279, 0.03574, -81.8808
0, 2340.00000, 118.898, -31.3637, 117.8, -151.531, 118.487, 89.2018, 0, 0, 8.05434, -54.4376, 7.97173, -174.605, 8.02341, 66.1279, 0.03574, -81.8808
0, 2400.00000, 118.898, -31.3637, 117.8, -151.531, 118.487, 89.2018, 0, 0, 8.05434, -54.4376, 7.97173, -174.605, 8.02341, 66.1279, 0.03574, -81.8808
0, 2460.00000, 118.898, -31.3637, 117.8, -151.531, 118.487, 89.2018, 0, 0, 8.05434, -54.4376, 7.97173, -174.605, 8.02341, 66.1279, 0.03574, -81.8808
0, 2520.00000, 118.898, -31.3637, 117.8, -151.531, 118.487, 89.2018, 0, 0, 8.05434, -54.4376, 7.97173, -174.605, 8.02341, 66.1279, 0.03574, -81.8808
0, 2580.00000, 118.898, -31.3637, 117.8, -151.531, 118.487, 89.2018, 0, 0, 8.05434, -54.4376, 7.97173, -174.605, 8.02341, 66.1279, 0.03574, -81.8808
0, 2640.00000, 118.898, -31.3637, 117.8, -151.531, 118.487, 89.2018, 0, 0, 8.05434, -54.4376, 7.97173, -174.605, 8.02341, 66.1279, 0.03574, -81.8808
0, 2700.00000, 118.898, -31.3637, 117.8, -151.531, 118.487, 89.2018, 0, 0, 8.05434, -54.4376, 7.97173, -174.605, 8.02341, 66.1279, 0.03574, -81.8808
0, 2760.00000, 118.992, -31.2297, 118.092, -151.497, 118.482, 89.204, 0, 0, 8.06139, -54.3038, 7.99369, -174.571, 8.02308, 66.1301, 0.0345881, -77.5068
0, 2820.00000, 118.992, -31.2297, 118.092, -151.497, 118.482, 89.204, 0, 0, 8.06142, -54.3036, 7.99375, -174.571, 8.02306, 66.1301, 0.0345215, -77.424
0, 2880.00000, 118.992, -31.2297, 118.092, -151.497, 118.482, 89.204, 0, 0, 8.06142, -54.3036, 7.99375, -174.571, 8.02306, 66.1301, 0.0345211, -77.4237
0, 2940.00000, 118.992, -31.2297, 118.092, -151.497, 118.482, 89.204, 0, 0, 8.06142, -54.3036, 7.99375, -174.571, 8.02306, 66.1301, 0.0345211, -77.4237
0, 3000.00000, 118.992, -31.2297, 118.092, -151.497, 118.482, 89.204, 0, 0, 8.06142, -54.3036, 7.99375, -174.571, 8.02306, 66.1301, 0.0345211, -77.4237
0, 3060.00000, 118.992, -31.2297, 118.092, -151.497, 118.482, 89.204, 0, 0, 8.06142, -54.3036, 7.99375, -174.571, 8.02306, 66.1301, 0.0345211, -77.4237
0, 3120.00000, 118.992, -31.2297, 118.092, -151.497, 118.482, 89.204, 0, 0, 8.06142, -54.3036, 7.99375, -174.571, 8.02306, 66.1301, 0.0345211, -77.4237
0, 3180.00000, 118.992, -31.2297, 118.092, -151.497, 118.482, 89.204, 0, 0, 8.06142, -54.3036, 7.99375, -174.571, 8.02306, 66.1301, 0.0345211, -77.4237
0, 3240.00000, 118.992, -31.2297, 118.092, -151.497, 118.482, 89.204, 0, 0, 8.06142, -54.3036, 7.99375, -174.571, 8.02306, 66.1301, 0.0345211, -77.4237
0, 3300.00000, 118.992, -31.2297, 118.092, -151.497, 118.482, 89.204, 0, 0, 8.06142, -54.3036, 7.99375, -174.571, 8.02306, 66.1301, 0.0345211, -77.4237
0, 3360.00000, 118.992, -31.2297, 118.092, -151.497, 118.482, 89.204, 0, 0, 8.06142, -54.3036, 7.99375, -174.571, 8.02306, 66.1301, 0.0345211, -77.4237
0, 3420.00000, 118.992, -31.2297, 118.092, -151.497, 118.482, 89.204, 0, 0, 8.06142, -54.3036, 7.99375, -174.571, 8.02306, 66.1301, 0.0345211, -77.4237
0, 3480.00000, 118.992, -31.2297, 118.092, -151.497, 118.482, 89.204, 0, 0, 8.06142, -54.3036, 7.99375, -174.571, 8.02306, 66.1301, 0.0345211, -77.4237
0, 3540.00000, 118.992, -31.2297, 118.092, -151.497, 118.482, 89.204, 0, 0, 8.06142, -54.3036, 7.99375, -174.571, 8.02306, 66.1301, 0.0345211, -77.4237
1, 0.00000, 118.992, -31.2297, 118.092, -151.497, 118.482, 89.204, 0, 0, 8.06142, -54.3036, 7.99375, -174.571, 8.02306, 66.1301, 0.0345211, -77.4237
1, 60.00000, 119.279, -31.1962, 118.094, -151.498, 118.571, 89.3342, 0, 0, 8.08291, -54.2704, 7.99385, -174.571, 8.02973, 66.2602, 0.0328961, -80.8076
1, 120.00000, 119.279, -31.1961, 118.094, -151.498, 118.571, 89.3342, 0, 0, 8.08298, -54.2701, 7.99385, -174.571, 8.02975, 66.2603, 0.0328776, -80.9284
1, 180.00000, 119.279, -31.1961, 118.094, -151.498, 118.571, 89.3342, 0, 0, 8.08298, -54.2701, 7.99385, -174.571, 8.02975, 66.2603, 0.0328776, -80.929
1, 240.00000, 119.279, -31.1961, 118.094, -151.498, 118.571, 89.3342, 0, 0, 8.08298, -54.2701, 7.99385, -174.571, 8.02975, 66.2603, 0.0328776, -80.929
1, 300.00000, 119.279, -31.1961, 118.094, -151.498, 118.571, 89.3342, 0, 0, 8.08298, -54.2701, 7.99385, -174.571, 8.02975, 66.2603, 0.0328776, -80.929
1, 360.00000, 119.279, -31.1961, 118.094, -151.498, 118.571, 89.3342, 0, 0, 8.08298, -54.2701, 7.99385, -174.571, 8.02975, 66.2603, 0.0328776, -80.929
1, 420.00000, 119.279, -31.1961, 118.094, -151.498, 118.571, 89.3342, 0, 0, 8.08298, -54.2701, 7.99385, -174.571, 8.02975, 66.2603, 0.0328776, -80.929
1, 480.00000, 119.279, -31.1961, 118.094, -151.498, 118.571, 89.3342, 0, 0, 8.08298, -54.2701, 7.99385, -174.571, 8.02975, 66.2603, 0.0328776, -80.929
1, 540.00000, 119.279, -31.1961, 118.094, -151.498, 118.571, 89.3342, 0, 0, 8.08298, -54.2701, 7.99385, -174.571, 8.02975, 66.2603, 0.0328776, -80.929
1, 600.00000, 119.279, -31.1961, 118.094, -151.498, 118.571, 89.3342, 0, 0, 8.08298, -54.2701, 7.99385, -174.571, 8.02975, 66.2603, 0.0328776, -80.929
1, 660.00000, 119.279, -31.1961, 118.094, -151.498, 118.571, 89.3342, 0, 0, 8.08298, -54.2701, 7.99385, -174.571, 8.02975, 66.2603, 0.0328776, -80.929
1, 720.00000, 119.279, -31.1961, 118.094, -151.498, 118.571, 89.3342, 0, 0, 8.08298, -54.2701, 7.99385, -174.571, 8.02975, 66.2603, 0.0328776, -80.929
1, 780.00000, 119.279, -31.1961, 118.094, -151.498, 118.571, 89.3342, 0, 0, 8.08298, -54.2701, 7.99385, -174.571, 8.02975, 66.2603, 0.0328776, -80.929
1, 840.00000, 119.279, -31.1961, 118.094, -151.498, 118.571, 89.3342, 0, 0, 8.08298, -54.2701, 7.99385, -174.571, 8.02975, 66.2603, 0.0328776, -80.929
1, 900.00000, 119.279, -31.1961, 118.094, -151.498, 118.571, 89.3342, 0, 0, 8.08298, -54.2701, 7.99385, -174.571, 8.02975, 66.2603, 0.0328776, -80.929
1, 960.00000, 119.279, -31.1961, 118.094, -151.498, 118.571, 89.3342, 0, 0, 8.08298, -54.2701, 7.99385, -174.571, 8.02975, 66.2603, 0.0328776, -80.929
1, 1020.00000, 119.279, -31.1961, 118.094, -151.498, 118.571, 89.3342, 0, 0, 8.08298, -54.2701, 7.99385, -174.571, 8.02975, 66.2603, 0.0328776, -80.929
1, 1080.00000, 119.279, -31.1961, 118.094, -151.498, 118.571, 89.3342, 0, 0, 8.08298, -54.2701, 7.99385, -174.571, 8.02975, 66.2603, 0.0328776, -80.929
1, 1140.00000, 119.279, -31.1961, 118.094, -151.498, 118.571, 89.3342, 0, 0, 8.08298, -54.2701, 7.99385, -174.571, 8.02975, 66.2603, 0.0328776, -80.929
1, 1200.00000, 119.279, -31.1961, 118.094, -151.498, 118.571, 89.3342, 0, 0, 8.08298, -54.2701, 7.99385, -174.571, 8.02975, 66.2603, 0.0328776, -80.929
1, 1260.00000, 119.279, -31.1961, 118.094, -151.498, 118.571, 89.3342, 0, 0, 8.08298, -54.2701, 7.99385, -174.571, 8.02975, 66.2603, 0.0328776, -80.929
1, 1320.00000, 119.279, -31.1961, 118.094, -151.498, 118.571, 89.3342, 0, 0, 8.08298, -54.2701, 7.99385, -174.571, 8.02975, 66.2603, 0.0328776, -80.929
1, 1380.00000, 119.279, -31.1961, 118.094, -151.498, 118.571, 89.3342, 0, 0, 8.08298, -54.2701, 7.99385, -174.571, 8.02975, 66.2603, 0.0328776, -80.929
1, 1440.00000, 119.279, -31.1961, 118.094, -151.498, 118.571, 89.3342, 0, 0, 8.08298, -54.2701, 7.99385, -174.571, 8.02975, 66.2603, 0.0328776, -80.929
1, 1500.00000, 119.279, -31.1961, 118.094, -151.498, 118.571, 89.3342, 0, 0, 8.08298, -54.2701, 7.99385, -174.571, 8.02975, 66.2603, 0.0328776, -80.929
1, 1560.00000, 119.279, -31.1961, 118.094, -151.498, 118.571, 89.3342, 0, 0, 8.08298, -54.2701, 7.99385, -174.571, 8.02975, 66.2603, 0.0328776, -80.929
1, 1620.00000, 119.279, -31.1961, 118.094, -151.498, 118.571, 89.3342, 0, 0, 8.08298, -54.2701, 7.99385, -174.571, 8.02975, 66.2603, 0.0328776, -80.929
1, 1680.00000, 119.279, -31.1961, 118.094, -151.498, 118.571, 89.3342, 0, 0, 8.08298, -54.2701, 7.99385, -174.571, 8.02975, 66.2603, 0.0328776, -80.929
1, 1740.00000, 119.279, -31.1961, 118.094, -151.498, 118.571, 89.3342, 0, 0, 8.08298, -54.2701, 7.99385, -174.571, 8.02975, 66.2603, 0.0328776, -80.929
1, 1800.00000, 119.279, -31.1961, 118.094, -151.498, 118.571, 89.3342, 0, 0, 8.08298, -54.2701, 7.99385, -174.571, 8.02975, 66.2603, 0.0328776, -80.929
1, 1860.00000, 119.279, -31.1961, 118.094, -151.498, 118.571, 89.3342, 0, 0, 8.08298, -54.2701, 7.99385, -174.571, 8.02975, 66.2603, 0.0328776, -80.929
1, 1920.00000, 119.279, -31.1961, 118.094, -151.498, 118.571, 89.3342, 0, 0, 8.08298, -54.2701, 7.99385, -174.571, 8.02975, 66.2603, 0.0328776, -80.929
1, 1980.00000, 119.279, -31.1961, 118.094, -151.498, 118.571, 89.3342, 0, 0, 8.08298, -54.2701, 7.99385, -174.571, 8.02975, 66.2603, 0.0328776, -80.929
1, 2040.00000, 119.279, -31.1961, 118.094, -151.498, 118.571, 89.3342, 0, 0, 8.08298, -54.2701, 7.99385, -174.571, 8.02975, 66.2603, 0.0328776, -80.929
1, 2100.00000, 119.279, -31.1961, 118.094, -151.498, 118.571, 89.3342, 0, 0, 8.08298, -54.2701, 7.99385, -174.571, 8.02975, 66.2603, 0.0328776, -80.929
1, 2160.00000, 119.279, -31.1961, 118.094, -151.498, 118.571, 89.3342, 0, 0, 8.08298, -54.2701, 7.99385, -174.571, 8.02975, 66.2603, 0.0328776, -80.929
1, 2220.00000, 119.279, -31.1961, 118.094, -151.498, 118.571, 89.3342, 0, 0, 8.08298, -54.2701, 7.99385, -174.571, 8.02975, 66.2603, 0.0328776, -80.929
1, 2280.00000, 119.279, -31.1961, 118.094, -151.498, 118.571, 89.3342, 0, 0, 8.08298, -54.2701, 7.99385, -174.571, 8.02975, 66.2603, 0.0328776, -80.929
1, 2340.00000, 119.279, -31.1961, 118.094, -151.498, 118.571, 89.3342, 0, 0, 8.08298, -54.2701, 7.99385, -174.571, 8.02975, 66.2603, 0.0328776, -80.929
1, 2400.00000, 119.279, -31.1961, 118.094, -151.498, 118.571, 89.3342, 0, 0, 8.08298, -54.2701, 7.99385, -174.571, 8.02975, 66.2603, 0.0328776, -80.929
1, 2460.00000, 119.279, -31.1961, 118.094, -151.498, 118.571, 89.3342, 0, 0, 8.08298, -54.2701, 7.99385, -174.571, 8.02975, 66.2603, 0.0328776, -80.929
1, 2520.00000, 119.279, -31.1961, 118.094, -151.498, 118.571, 89.3342, 0, 0, 8.08298, -54.2701, 7.99385, -174.571, 8.02975, 66.2603, 0.0328776, -80.929
1, 2580.00000, 119.279, -31.1961, 118.094, -151.498, 118.571, 89.3342, 0, 0, 8.08298, -54.2701, 7.99385, -174.571, 8.02975, 66.2603, 0.0328776, -80.929
1, 2640.00000, 119.279, -31.1961, 118.094, -151.498, 118.571, 89.3342, 0, 0, 8.08298, -54.2701, 7.99385, -174.571, 8.02975, 66.2603, 0.0328776, -80.929
1, 2700.00000, 119.279, -31.1961, 118.094, -151.498, 118.571, 89.3342, 0, 0, 8.08298, -54.2701, 7.99385, -174.571, 8.02975, 66.2603, 0.0328776, -80.929
1, 2760.00000, 119.279, -31.1961, 118.094, -151.498, 118.571, 89.3342, 0, 0, 8.08298, -54.2701, 7.99385, -174.571, 8.02975, 66.2603, 0.0328776, -80.929
1, 2820.00000, 119.279, -31.1961, 118.094, -151.498, 118.571, 89.3342, 0, 0, 8.08298, -54.2701, 7.99385, -174.571, 8.02975, 66.2603, 0.0328776, -80.929
1, 2880.00000, 119.279, -31.1961, 118.094, -151.498, 118.571, 89.3342, 0, 0, 8.08298, -54.2701, 7.99385, -174.571, 8.02975, 66.2603, 0.0328776, -80.929
1, 2940.00000, 119.279, -31.1961, 118.094, -151.498, 118.571, 89.3342, 0, 0, 8.08298, -54.2701, 7.99385, -174.571, 8.02975, 66.2603, 0.0328776, -80.929
1, 3000.00000, 119.279, -31.1961, 118.094, -151.498, 118.571, 89.3342, 0, 0, 8.08298, -54.2701, 7.99385, -174.571, 8.02975, 66.2603, 0.0328776, -80.929
1, 3060.00000, 119.279, -31.1961, 118.094, -151.498, 118.571, 89.3342, 0, 0, 8.08298, -54.2701, 7.99385, -174.571, 8.02975, 66.2603, 0.0328776, -80.929
1, 3120.00000, 119.279, -31.1961, 118.094, -151.498, 118.571, 89.3342, 0, 0, 8.08298, -54.2701, 7.99385, -174.571, 8.02975, 66.2603, 0.0328776, -80.929
1, 3180.00000, 119.279, -31.1961, 118.094, -151.498, 118.571, 89.3342, 0, 0, 8.08298, -54.2701, 7.99385, -174.571, 8.02975, 66.2603, 0.0328776, -80.929
1, 3240.00000, 119.279, -31.1961, 118.094, -151.498, 118.571, 89.3342, 0, 0, 8.08298, -54.2701, 7.99385, -174.571, 8.02975, 66.2603, 0.0328776, -80.929
1, 3300.00000, 119.279, -31.1961, 118.094, -151.498, 118.571, 89.3342, 0, 0, 8.08298, -54.2701, 7.99385, -174.571, 8.02975, 66.2603, 0.0328776, -80.929
1, 3360.00000, 119.279, -31.1961, 118.094, -151.498, 118.571, 89.3342, 0, 0, 8.08298, -54.2701, 7.99385, -174.571, 8.02975, 66.2603, 0.0328776, -80.929
1, 3420.00000, 119.279, -31.1961, 118.094, -151.498, 118.571, 89.3342, 0, 0, 8.08298, -54.2701, 7.99385, -174.571, 8.02975, 66.2603, 0.0328776, -80.929
1, 3480.00000, 119.279, -31.1961, 118.094, -151.498, 118.571, 89.3342, 0, 0, 8.08298, -54.2701, 7.99385, -174.571, 8.02975, 66.2603, 0.0328776, -80.929
1, 3540.00000, 119.279, -31.1961, 118.094, -151.498, 118.571, 89.3342, 0, 0, 8.08298, -54.2701, 7.99385, -174.571, 8.02975, 66.2603, 0.0328776, -80.929
2, 0.00000, 119.279, -31.1961, 118.094, -151.498, 118.571, 89.3342, 0, 0, 8.08298, -54.2701, 7.99385, -174.571, 8.02975, 66.2603, 0.0328776, -80.929
2, 60.00000, 119.279, -31.1961, 118.094, -151.498, 118.571, 89.3342, 0, 0, 8.08298, -54.2701, 7.99385, -174.571, 8.02975, 66.2603, 0.0328776, -80.929
2, 120.00000, 119.279, -31.1961, 118.094, -151.498, 118.571, 89.3342, 0, 0, 8.08298, -54.2701, 7.99385, -174.571, 8.02975, 66.2603, 0.0328776, -80.929
2, 180.00000, 119.279, -31.1961, 118.094, -151.498, 118.571, 89.3342, 0, 0, 8.08298, -54.2701, 7.99385, -174.571, 8.02975, 66.2603, 0.0328776, -80.929
2, 240.00000, 119.279, -31.1961, 118.094, -151.498, 118.571, 89.3342, 0, 0, 8.08298, -54.2701, 7.99385, -174.571, 8.02975, 66.2603, 0.0328776, -80.929
2, 300.00000, 119.279, -31.1961, 118.094, -151.498, 118.571, 89.3342, 0, 0, 8.08298, -54.2701, 7.99385, -174.571, 8.02975, 66.2603, 0.0328776, -80.929
2, 360.00000, 119.279, -31.1961, 118.094, -151.498, 118.571, 89.3342, 0, 0, 8.08298, -54.2701, 7.99385, -174.571, 8.02975, 66.2603, 0.0328776, -80.929
2, 420.00000, 119.279, -31.1961, 118.094, -151.498, 118.571, 89.3342, 0, 0, 8.08298, -54.2701, 7.99385, -174.571, 8.02975, 66.2603, 0.0328776, -80.929
2, 480.00000, 119.279, -31.1961, 118.094, -151.498, 118.571, 89.3342, 0, 0, 8.08298, -54.2701, 7.99385, -174.571, 8.02975, 66.2603, 0.0328776, -80.929
2, 540.00000, 119.279, -31.1961, 118.094, -151.498, 118.571, 89.3342, 0, 0, 8.08298, -54.2701, 7.99385, -174.571, 8.02975, 66.2603, 0.0328776, -80.929
2, 600.00000, 119.279, -31.1961, 118.094, -151.498, 118.571, 89.3342, 0, 0, 8.08298, -54.2701, 7.99385, -174.571, 8.02975, 66.2603, 0.0328776, -80.929
2, 660.00000, 119.279, -31.1961, 118.094, -151.498, 118.571, 89.3342, 0, 0, 8.08298, -54.2701, 7.99385, -174.571, 8.02975, 66.2603, 0.0328776, -80.929
