hour,t(sec),"P1 (kW)","Q1 (kvar)","P2 (kW)","Q2 (kvar)","P3 (kW)","Q3 (kvar)","P4 (kW)","Q4 (kvar)"
0, 60.00000, 0.721438, 0.30731, 0.710066, 0.302491, 0.721405, 0.307308, 0, 0
0, 120.00000, 0.721434, 0.30731, 0.709924, 0.30243, 0.721405, 0.307309, 0, 0
0, 180.00000, 0.721432, 0.307311, 0.709795, 0.302374, 0.721405, 0.307309, 0, 0
0, 240.00000, 0.721429, 0.307311, 0.709678, 0.302324, 0.721405, 0.30731, 0, 0
0, 300.00000, 0.721426, 0.307312, 0.709572, 0.302279, 0.721404, 0.307311, 0, 0
0, 360.00000, 0.721424, 0.307312, 0.709476, 0.302238, 0.721404, 0.307311, 0, 0
0, 420.00000, 0.721422, 0.307312, 0.70939, 0.302201, 0.721404, 0.307312, 0, 0
0, 480.00000, 0.72142, 0.307313, 0.709312, 0.302167, 0.721404, 0.307312, 0, 0
0, 540.00000, 0.721418, 0.307313, 0.709241, 0.302137, 0.721404, 0.307313, 0, 0
0, 600.00000, 0.721417, 0.307313, 0.709178, 0.30211, 0.721404, 0.307313, 0, 0
0, 660.00000, 0.721415, 0.307314, 0.70912, 0.302085, 0.721404, 0.307313, 0, 0
0, 720.00000, 0.721414, 0.307314, 0.709068, 0.302063, 0.721404, 0.307314, 0, 0
0, 780.00000, 0.721413, 0.307314, 0.709021, 0.302043, 0.721404, 0.307314, 0, 0
0, 840.00000, 0.721412, 0.307314, 0.708979, 0.302025, 0.721404, 0.307314, 0, 0
0, 900.00000, 0.721411, 0.307314, 0.708941, 0.302008, 0.721404, 0.307314, 0, 0
0, 960.00000, 0.763158, 0.325099, 0.746906, 0.318181, 0.763152, 0.325099, 0, 0
0, 1020.00000, 0.763158, 0.325099, 0.746874, 0.318168, 0.763152, 0.325099, 0, 0
0, 1080.00000, 0.763158, 0.3251, 0.746844, 0.318155, 0.763152, 0.3251, 0, 0
0, 1140.00000, 0.763157, 0.3251, 0.746818, 0.318144, 0.763152, 0.3251, 0, 0
0, 1200.00000, 0.763156, 0.3251, 0.746794, 0.318134, 0.763152, 0.3251, 0, 0
0, 1260.00000, 0.763156, 0.3251, 0.746773, 0.318124, 0.763152, 0.3251, 0, 0
0, 1320.00000, 0.763155, 0.3251, 0.746754, 0.318116, 0.763152, 0.3251, 0, 0
0, 1380.00000, 0.763155, 0.3251, 0.746736, 0.318109, 0.763152, 0.3251, 0, 0
0, 1440.00000, 0.763155, 0.3251, 0.746721, 0.318102, 0.763152, 0.3251, 0, 0
0, 1500.00000, 0.763154, 0.3251, 0.746706, 0.318096, 0.763152, 0.3251, 0, 0
0, 1560.00000, 0.763154, 0.3251, 0.746694, 0.31809, 0.763152, 0.325101, 0, 0
0, 1620.00000, 0.763154, 0.325101, 0.746682, 0.318086, 0.763152, 0.325101, 0, 0
0, 1680.00000, 0.763154, 0.325101, 0.746672, 0.318081, 0.763152, 0.325101, 0, 0
0, 1740.00000, 0.763153, 0.325101, 0.746663, 0.318077, 0.763152, 0.325101, 0, 0
0, 1800.00000, 0.763153, 0.325101, 0.746655, 0.318074, 0.763152, 0.325101, 0, 0
0, 1860.00000, 0.765471, 0.326088, 0.750823, 0.31985, 0.765469, 0.326088, 0, 0
0, 1920.00000, 0.765471, 0.326088, 0.750816, 0.319846, 0.765469, 0.326088, 0, 0
0, 1980.00000, 0.76547, 0.326088, 0.75081, 0.319844, 0.765469, 0.326088, 0, 0
0, 2040.00000, 0.76547, 0.326088, 0.750804, 0.319841, 0.765469, 0.326088, 0, 0
0, 2100.00000, 0.76547, 0.326088, 0.7508, 0.319839, 0.765469, 0.326088, 0, 0
0, 2160.00000, 0.76547, 0.326088, 0.750795, 0.319837, 0.765469, 0.326088, 0, 0
0, 2220.00000, 0.76547, 0.326088, 0.750791, 0.319836, 0.765469, 0.326088, 0, 0
0, 2280.00000, 0.76547, 0.326088, 0.750787, 0.319834, 0.765469, 0.326088, 0, 0
0, 2340.00000, 0.76547, 0.326088, 0.750784, 0.319833, 0.765469, 0.326088, 0, 0
0, 2400.00000, 0.76547, 0.326088, 0.750781, 0.319832, 0.765469, 0.326088, 0, 0
0, 2460.00000, 0.76547, 0.326088, 0.750779, 0.31983, 0.765469, 0.326088, 0, 0
0, 2520.00000, 0.76547, 0.326088, 0.750776, 0.319829, 0.765469, 0.326088, 0, 0
0, 2580.00000, 0.76547, 0.326088, 0.750774, 0.319828, 0.765469, 0.326088, 0, 0
0, 2640.00000, 0.76547, 0.326088, 0.750772, 0.319828, 0.765469, 0.326088, 0, 0
0, 2700.00000, 0.76547, 0.326088, 0.75077, 0.319827, 0.765469, 0.326088, 0, 0
0, 2760.00000, 0.728072, 0.310157, 0.71723, 0.305539, 0.728071, 0.310157, 0, 0
0, 2820.00000, 0.728071, 0.310157, 0.717228, 0.305538, 0.728071, 0.310157, 0, 0
0, 2880.00000, 0.728071, 0.310157, 0.717227, 0.305537, 0.728071, 0.310157, 0, 0
0, 2940.00000, 0.728071, 0.310157, 0.717226, 0.305537, 0.728071, 0.310157, 0, 0
0, 3000.00000, 0.728071, 0.310157, 0.717225, 0.305536, 0.728071, 0.310157, 0, 0
0, 3060.00000, 0.728071, 0.310157, 0.717224, 0.305536, 0.728071, 0.310157, 0, 0
0, 3120.00000, 0.728071, 0.310157, 0.717223, 0.305536, 0.728071, 0.310157, 0, 0
0, 3180.00000, 0.728071, 0.310157, 0.717222, 0.305535, 0.728071, 0.310157, 0, 0
0, 3240.00000, 0.728071, 0.310157, 0.717222, 0.305535, 0.728071, 0.310157, 0, 0
0, 3300.00000, 0.728071, 0.310157, 0.717221, 0.305535, 0.728071, 0.310157, 0, 0
0, 3360.00000, 0.728071, 0.310157, 0.71722, 0.305535, 0.728071, 0.310157, 0, 0
0, 3420.00000, 0.728071, 0.310157, 0.71722, 0.305534, 0.728071, 0.310157, 0, 0
0, 3480.00000, 0.728072, 0.310157, 0.721145, 0.307207, 0.728071, 0.310157, 0, 0
0, 3540.00000, 0.728071, 0.310157, 0.722105, 0.307615, 0.728071, 0.310157, 0, 0
1, 0.00000, 0.728071, 0.310157, 0.722104, 0.307615, 0.728071, 0.310157, 0, 0
1, 60.00000, 0.71956, 0.306531, 0.71598, 0.305006, 0.71956, 0.306531, 0, 0
1, 120.00000, 0.71956, 0.306531, 0.715979, 0.305006, 0.71956, 0.306531, 0, 0
1, 180.00000, 0.71956, 0.306531, 0.715979, 0.305006, 0.71956, 0.306531, 0, 0
1, 240.00000, 0.71956, 0.306531, 0.715979, 0.305006, 0.71956, 0.306531, 0, 0
1, 300.00000, 0.71956, 0.306531, 0.715979, 0.305006, 0.71956, 0.306531, 0, 0
1, 360.00000, 0.71956, 0.306531, 0.715978, 0.305006, 0.71956, 0.306531, 0, 0
1, 420.00000, 0.71956, 0.306531, 0.715978, 0.305005, 0.71956, 0.306531, 0, 0
1, 480.00000, 0.71956, 0.306531, 0.715978, 0.305005, 0.71956, 0.306531, 0, 0
1, 540.00000, 0.71956, 0.306531, 0.715978, 0.305005, 0.71956, 0.306531, 0, 0
1, 600.00000, 0.71956, 0.306531, 0.715978, 0.305005, 0.71956, 0.306531, 0, 0
1, 660.00000, 0.71956, 0.306531, 0.715978, 0.305005, 0.71956, 0.306531, 0, 0
1, 720.00000, 0.71956, 0.306531, 0.715978, 0.305005, 0.71956, 0.306531, 0, 0
1, 780.00000, 0.71956, 0.306531, 0.715978, 0.305005, 0.71956, 0.306531, 0, 0
1, 840.00000, 0.71956, 0.306531, 0.715977, 0.305005, 0.71956, 0.306531, 0, 0
1, 900.00000, 0.71956, 0.306531, 0.715977, 0.305005, 0.71956, 0.306531, 0, 0
1, 960.00000, 0.716192, 0.305097, 0.713063, 0.303763, 0.716192, 0.305096, 0, 0
1, 1020.00000, 0.716192, 0.305096, 0.713062, 0.303763, 0.716192, 0.305096, 0, 0
1, 1080.00000, 0.716192, 0.305096, 0.713062, 0.303763, 0.716192, 0.305096, 0, 0
1, 1140.00000, 0.716192, 0.305096, 0.713062, 0.303763, 0.716192, 0.305096, 0, 0
1, 1200.00000, 0.716192, 0.305096, 0.713062, 0.303763, 0.716192, 0.305096, 0, 0
1, 1260.00000, 0.716192, 0.305096, 0.713062, 0.303763, 0.716192, 0.305096, 0, 0
1, 1320.00000, 0.716192, 0.305096, 0.713062, 0.303763, 0.716192, 0.305096, 0, 0
1, 1380.00000, 0.716192, 0.305096, 0.713062, 0.303763, 0.716192, 0.305096, 0, 0
1, 1440.00000, 0.716192, 0.305096, 0.713062, 0.303763, 0.716192, 0.305096, 0, 0
1, 1500.00000, 0.716192, 0.305096, 0.713062, 0.303763, 0.716192, 0.305096, 0, 0
1, 1560.00000, 0.716192, 0.305096, 0.713062, 0.303763, 0.716192, 0.305096, 0, 0
1, 1620.00000, 0.716192, 0.305096, 0.713062, 0.303763, 0.716192, 0.305096, 0, 0
1, 1680.00000, 0.716192, 0.305096, 0.713062, 0.303763, 0.716192, 0.305096, 0, 0
1, 1740.00000, 0.716192, 0.305096, 0.713062, 0.303763, 0.716192, 0.305096, 0, 0
1, 1800.00000, 0.716192, 0.305096, 0.713062, 0.303763, 0.716192, 0.305096, 0, 0
1, 1860.00000, 0.733465, 0.312455, 0.733464, 0.312455, 0.733465, 0.312454, 0, 0
1, 1920.00000, 0.733465, 0.312455, 0.733465, 0.312455, 0.733465, 0.312455, 0, 0
1, 1980.00000, 0.733465, 0.312455, 0.733465, 0.312455, 0.733465, 0.312455, 0, 0
1, 2040.00000, 0.733465, 0.312455, 0.733465, 0.312455, 0.733465, 0.312455, 0, 0
1, 2100.00000, 0.733465, 0.312455, 0.733465, 0.312455, 0.733465, 0.312455, 0, 0
1, 2160.00000, 0.733465, 0.312455, 0.733465, 0.312455, 0.733465, 0.312455, 0, 0
1, 2220.00000, 0.733465, 0.312455, 0.733465, 0.312455, 0.733465, 0.312455, 0, 0
1, 2280.00000, 0.733465, 0.312455, 0.733465, 0.312455, 0.733465, 0.312455, 0, 0
1, 2340.00000, 0.733465, 0.312455, 0.733465, 0.312455, 0.733465, 0.312455, 0, 0
1, 2400.00000, 0.733465, 0.312455, 0.733465, 0.312455, 0.733465, 0.312455, 0, 0
1, 2460.00000, 0.733465, 0.312455, 0.733465, 0.312455, 0.733465, 0.312455, 0, 0
1, 2520.00000, 0.733465, 0.312455, 0.733465, 0.312455, 0.733465, 0.312455, 0, 0
1, 2580.00000, 0.733465, 0.312455, 0.733465, 0.312455, 0.733465, 0.312455, 0, 0
1, 2640.00000, 0.733465, 0.312455, 0.733465, 0.312455, 0.733465, 0.312455, 0, 0
1, 2700.00000, 0.733465, 0.312455, 0.733465, 0.312455, 0.733465, 0.312455, 0, 0
1, 2760.00000, 0.691146, 0.294427, 0.691145, 0.294427, 0.691146, 0.294427, 0, 0
1, 2820.00000, 0.691146, 0.294427, 0.691146, 0.294427, 0.691146, 0.294427, 0, 0
1, 2880.00000, 0.691146, 0.294427, 0.691146, 0.294427, 0.691146, 0.294427, 0, 0
1, 2940.00000, 0.691146, 0.294427, 0.691146, 0.294427, 0.691146, 0.294427, 0, 0
1, 3000.00000, 0.691146, 0.294427, 0.691146, 0.294427, 0.691146, 0.294427, 0, 0
1, 3060.00000, 0.691146, 0.294427, 0.691146, 0.294427, 0.691146, 0.294427, 0, 0
1, 3120.00000, 0.691146, 0.294427, 0.691146, 0.294427, 0.691146, 0.294427, 0, 0
1, 3180.00000, 0.691146, 0.294427, 0.691146, 0.294427, 0.691146, 0.294427, 0, 0
1, 3240.00000, 0.691146, 0.294427, 0.691146, 0.294427, 0.691146, 0.294427, 0, 0
1, 3300.00000, 0.691146, 0.294427, 0.691146, 0.294427, 0.691146, 0.294427, 0, 0
1, 3360.00000, 0.691146, 0.294427, 0.691146, 0.294427, 0.691146, 0.294427, 0, 0
1, 3420.00000, 0.691146, 0.294427, 0.691146, 0.294427, 0.691146, 0.294427, 0, 0
1, 3480.00000, 0.691146, 0.294427, 0.691146, 0.294427, 0.691146, 0.294427, 0, 0
1, 3540.00000, 0.691146, 0.294427, 0.691146, 0.294427, 0.691146, 0.294427, 0, 0
2, 0.00000, 0.691146, 0.294427, 0.691146, 0.294427, 0.691146, 0.294427, 0, 0
2, 60.00000, 0.709692, 0.302328, 0.709693, 0.302328, 0.709693, 0.302328, 0, 0
2, 120.00000, 0.709693, 0.302328, 0.709693, 0.302328, 0.709693, 0.302328, 0, 0
2, 180.00000, 0.709693, 0.302328, 0.709693, 0.302328, 0.709693, 0.302328, 0, 0
2, 240.00000, 0.709693, 0.302328, 0.709693, 0.302328, 0.709693, 0.302328, 0, 0
2, 300.00000, 0.709693, 0.302328, 0.709693, 0.302328, 0.709693, 0.302328, 0, 0
2, 360.00000, 0.709693, 0.302328, 0.709693, 0.302328, 0.709693, 0.302328, 0, 0
2, 420.00000, 0.709693, 0.302328, 0.709693, 0.302328, 0.709693, 0.302328, 0, 0
2, 480.00000, 0.709693, 0.302328, 0.709693, 0.302328, 0.709693, 0.302328, 0, 0
2, 540.00000, 0.709693, 0.302328, 0.709693, 0.302328, 0.709693, 0.302328, 0, 0
2, 600.00000, 0.709693, 0.302328, 0.709693, 0.302328, 0.709693, 0.302328, 0, 0
2, 660.00000, 0.709693, 0.302328, 0.709693, 0.302328, 0.709693, 0.302328, 0, 0
2, 720.00000, 0.709693, 0.302328, 0.709693, 0.302328, 0.709693, 0.302328, 0, 0
2, 780.00000, 0.709693, 0.302328, 0.709693, 0.302328, 0.709693, 0.302328, 0, 0
2, 840.00000, 0.709693, 0.302328, 0.709693, 0.302328, 0.709693, 0.302328, 0, 0
2, 900.00000, 0.709693, 0.302328, 0.709693, 0.302328, 0.709693, 0.302328, 0, 0
2, 960.00000, 0.672439, 0.286458, 0.672438, 0.286457, 0.672438, 0.286457, 0, 0
2, 1020.00000, 0.672438, 0.286457, 0.672438, 0.286457, 0.672438, 0.286457, 0, 0
2, 1080.00000, 0.672438, 0.286457, 0.672438, 0.286457, 0.672438, 0.286457, 0, 0
2, 1140.00000, 0.672438, 0.286457, 0.672438, 0.286457, 0.672438, 0.286457, 0, 0
2, 1200.00000, 0.672438, 0.286457, 0.672438, 0.286457, 0.672438, 0.286457, 0, 0
2, 1260.00000, 0.672438, 0.286457, 0.672438, 0.286457, 0.672438, 0.286457, 0, 0
2, 1320.00000, 0.672438, 0.286457, 0.672438, 0.286457, 0.672438, 0.286457, 0, 0
2, 1380.00000, 0.672438, 0.286457, 0.672438, 0.286457, 0.672438, 0.286457, 0, 0
2, 1440.00000, 0.672438, 0.286457, 0.672438, 0.286457, 0.672438, 0.286457, 0, 0
2, 1500.00000, 0.672438, 0.286457, 0.672438, 0.286457, 0.672438, 0.286457, 0, 0
2, 1560.00000, 0.672438, 0.286457, 0.672438, 0.286457, 0.672438, 0.286457, 0, 0
2, 1620.00000, 0.672438, 0.286457, 0.672438, 0.286457, 0.672438, 0.286457, 0, 0
2, 1680.00000, 0.672438, 0.286457, 0.672438, 0.286457, 0.672438, 0.286457, 0, 0
2, 1740.00000, 0.672438, 0.286457, 0.672438, 0.286457, 0.672438, 0.286457, 0, 0
2, 1800.00000, 0.672438, 0.286457, 0.672438, 0.286457, 0.672438, 0.286457, 0, 0
2, 1860.00000, 0.67207, 0.286301, 0.672071, 0.286301, 0.672071, 0.286301, 0, 0
2, 1920.00000, 0.672071, 0.286301, 0.672071, 0.286301, 0.672071, 0.286301, 0, 0
2, 1980.00000, 0.672071, 0.286301, 0.672071, 0.286301, 0.672071, 0.286301, 0, 0
2, 2040.00000, 0.672071, 0.286301, 0.672071, 0.286301, 0.672071, 0.286301, 0, 0
2, 2100.00000, 0.672071, 0.286301, 0.672071, 0.286301, 0.672071, 0.286301, 0, 0
2, 2160.00000, 0.672071, 0.286301, 0.672071, 0.286301, 0.672071, 0.286301, 0, 0
2, 2220.00000, 0.672071, 0.286301, 0.672071, 0.286301, 0.672071, 0.286301, 0, 0
2, 2280.00000, 0.672071, 0.286301, 0.672071, 0.286301, 0.672071, 0.286301, 0, 0
2, 2340.00000, 0.672071, 0.286301, 0.672071, 0.286301, 0.672071, 0.286301, 0, 0
2, 2400.00000, 0.672071, 0.286301, 0.672071, 0.286301, 0.672071, 0.286301, 0, 0
2, 2460.00000, 0.672071, 0.286301, 0.672071, 0.286301, 0.672071, 0.286301, 0, 0
2, 2520.00000, 0.672071, 0.286301, 0.672071, 0.286301, 0.672071, 0.286301, 0, 0
2, 2580.00000, 0.672071, 0.286301, 0.672071, 0.286301, 0.672071, 0.286301, 0, 0
2, 2640.00000, 0.672071, 0.286301, 0.672071, 0.286301, 0.672071, 0.286301, 0, 0
2, 2700.00000, 0.672071, 0.286301, 0.672071, 0.286301, 0.672071, 0.286301, 0, 0
2, 2760.00000, 0.643011, 0.273922, 0.64301, 0.273921, 0.643011, 0.273921, 0, 0
2, 2820.00000, 0.64301, 0.273921, 0.64301, 0.273921, 0.64301, 0.273921, 0, 0
2, 2880.00000, 0.64301, 0.273921, 0.64301, 0.273921, 0.64301, 0.273921, 0, 0
2, 2940.00000, 0.64301, 0.273921, 0.64301, 0.273921, 0.64301, 0.273921, 0, 0
2, 3000.00000, 0.64301, 0.273921, 0.64301, 0.273921, 0.64301, 0.273921, 0, 0
2, 3060.00000, 0.64301, 0.273921, 0.64301, 0.273921, 0.64301, 0.273921, 0, 0
2, 3120.00000, 0.64301, 0.273921, 0.64301, 0.273921, 0.64301, 0.273921, 0, 0
2, 3180.00000, 0.64301, 0.273921, 0.64301, 0.273921, 0.64301, 0.273921, 0, 0
2, 3240.00000, 0.64301, 0.273921, 0.64301, 0.273921, 0.64301, 0.273921, 0, 0
2, 3300.00000, 0.64301, 0.273921, 0.64301, 0.273921, 0.64301, 0.273921, 0, 0
2, 3360.00000, 0.64301, 0.273921, 0.64301, 0.273921, 0.64301, 0.273921, 0, 0
2, 3420.00000, 0.64301, 0.273921, 0.64301, 0.273921, 0.64301, 0.273921, 0, 0
2, 3480.00000, 0.64301, 0.273921, 0.64301, 0.273921, 0.64301, 0.273921, 0, 0
2, 3540.00000, 0.64301, 0.273921, 0.64301, 0.273921, 0.64301, 0.273921, 0, 0
3, 0.00000, 0.64301, 0.273921, 0.64301, 0.273921, 0.64301, 0.273921, 0, 0
3, 60.00000, 0.659361, 0.280886, 0.659361, 0.280887, 0.659361, 0.280887, 0, 0
3, 120.00000, 0.659361, 0.280887, 0.659361, 0.280887, 0.659361, 0.280887, 0, 0
3, 180.00000, 0.659361, 0.280887, 0.659361, 0.280887, 0.659361, 0.280887, 0, 0
3, 240.00000, 0.659361, 0.280887, 0.659361, 0.280887, 0.659361, 0.280887, 0, 0
3, 300.00000, 0.659361, 0.280887, 0.659361, 0.280887, 0.659361, 0.280887, 0, 0
3, 360.00000, 0.659361, 0.280887, 0.659361, 0.280887, 0.659361, 0.280887, 0, 0
3, 420.00000, 0.659361, 0.280887, 0.659361, 0.280887, 0.659361, 0.280887, 0, 0
3, 480.00000, 0.659361, 0.280887, 0.659361, 0.280887, 0.659361, 0.280887, 0, 0
3, 540.00000, 0.659361, 0.280887, 0.659361, 0.280887, 0.659361, 0.280887, 0, 0
3, 600.00000, 0.659361, 0.280887, 0.659361, 0.280887, 0.659361, 0.280887, 0, 0
3, 660.00000, 0.659361, 0.280887, 0.659361, 0.280887, 0.659361, 0.280887, 0, 0
3, 720.00000, 0.659361, 0.280887, 0.659361, 0.280887, 0.659361, 0.280887, 0, 0
3, 780.00000, 0.659361, 0.280887, 0.659361, 0.280887, 0.659361, 0.280887, 0, 0
3, 840.00000, 0.659361, 0.280887, 0.659361, 0.280887, 0.659361, 0.280887, 0, 0
3, 900.00000, 0.659361, 0.280887, 0.659361, 0.280887, 0.659361, 0.280887, 0, 0
3, 960.00000, 0.677478, 0.288605, 0.677478, 0.288604, 0.677478, 0.288604, 0, 0
3, 1020.00000, 0.677478, 0.288604, 0.677478, 0.288604, 0.677478, 0.288604, 0, 0
3, 1080.00000, 0.677478, 0.288604, 0.677478, 0.288604, 0.677478, 0.288604, 0, 0
3, 1140.00000, 0.677478, 0.288604, 0.677478, 0.288604, 0.677478, 0.288604, 0, 0
3, 1200.00000, 0.677478, 0.288604, 0.677478, 0.288604, 0.677478, 0.288604, 0, 0
3, 1260.00000, 0.677478, 0.288604, 0.677478, 0.288604, 0.677478, 0.288604, 0, 0
3, 1320.00000, 0.677478, 0.288604, 0.677478, 0.288604, 0.677478, 0.288604, 0, 0
3, 1380.00000, 0.677478, 0.288604, 0.677478, 0.288604, 0.677478, 0.288604, 0, 0
3, 1440.00000, 0.677478, 0.288604, 0.677478, 0.288604, 0.677478, 0.288604, 0, 0
3, 1500.00000, 0.677478, 0.288604, 0.677478, 0.288604, 0.677478, 0.288604, 0, 0
3, 1560.00000, 0.677478, 0.288604, 0.677478, 0.288604, 0.677478, 0.288604, 0, 0
3, 1620.00000, 0.677478, 0.288604, 0.677478, 0.288604, 0.677478, 0.288604, 0, 0
3, 1680.00000, 0.677478, 0.288604, 0.677478, 0.288604, 0.677478, 0.288604, 0, 0
3, 1740.00000, 0.677478, 0.288604, 0.677478, 0.288604, 0.677478, 0.288604, 0, 0
3, 1800.00000, 0.677478, 0.288604, 0.677478, 0.288604, 0.677478, 0.288604, 0, 0
3, 1860.00000, 0.685762, 0.292134, 0.685762, 0.292133, 0.685762, 0.292133, 0, 0
3, 1920.00000, 0.685762, 0.292133, 0.685762, 0.292133, 0.685762, 0.292133, 0, 0
3, 1980.00000, 0.685762, 0.292133, 0.685762, 0.292133, 0.685762, 0.292133, 0, 0
3, 2040.00000, 0.685762, 0.292133, 0.685762, 0.292133, 0.685762, 0.292133, 0, 0
3, 2100.00000, 0.685762, 0.292133, 0.685762, 0.292133, 0.685762, 0.292133, 0, 0
3, 2160.00000, 0.685762, 0.292133, 0.685762, 0.292133, 0.685762, 0.292133, 0, 0
3, 2220.00000, 0.685762, 0.292133, 0.685762, 0.292133, 0.685762, 0.292133, 0, 0
3, 2280.00000, 0.685762, 0.292133, 0.685762, 0.292133, 0.685762, 0.292133, 0, 0
3, 2340.00000, 0.685762, 0.292133, 0.685762, 0.292133, 0.685762, 0.292133, 0, 0
3, 2400.00000, 0.685762, 0.292133, 0.685762, 0.292133, 0.685762, 0.292133, 0, 0
3, 2460.00000, 0.685762, 0.292133, 0.685762, 0.292133, 0.685762, 0.292133, 0, 0
3, 2520.00000, 0.685762, 0.292133, 0.685762, 0.292133, 0.685762, 0.292133, 0, 0
3, 2580.00000, 0.685762, 0.292133, 0.685762, 0.292133, 0.685762, 0.292133, 0, 0
3, 2640.00000, 0.685762, 0.292133, 0.685762, 0.292133, 0.685762, 0.292133, 0, 0
3, 2700.00000, 0.685762, 0.292133, 0.685762, 0.292133, 0.685762, 0.292133, 0, 0
3, 2760.00000, 0.627524, 0.267324, 0.627523, 0.267324, 0.627524, 0.267324, 0, 0
3, 2820.00000, 0.627523, 0.267324, 0.627523, 0.267324, 0.627523, 0.267324, 0, 0
3, 2880.00000, 0.627523, 0.267324, 0.627523, 0.267324, 0.627523, 0.267324, 0, 0
3, 2940.00000, 0.627523, 0.267324, 0.627523, 0.267324, 0.627523, 0.267324, 0, 0
3, 3000.00000, 0.627523, 0.267324, 0.627523, 0.267324, 0.627523, 0.267324, 0, 0
3, 3060.00000, 0.627523, 0.267324, 0.627523, 0.267324, 0.627523, 0.267324, 0, 0
3, 3120.00000, 0.627523, 0.267324, 0.627523, 0.267324, 0.627523, 0.267324, 0, 0
3, 3180.00000, 0.627523, 0.267324, 0.627523, 0.267324, 0.627523, 0.267324, 0, 0
3, 3240.00000, 0.627523, 0.267324, 0.627523, 0.267324, 0.627523, 0.267324, 0, 0
3, 3300.00000, 0.627523, 0.267324, 0.627523, 0.267324, 0.627523, 0.267324, 0, 0
3, 3360.00000, 0.627523, 0.267324, 0.627523, 0.267324, 0.627523, 0.267324, 0, 0
3, 3420.00000, 0.627523, 0.267324, 0.627523, 0.267324, 0.627523, 0.267324, 0, 0
3, 3480.00000, 0.627523, 0.267324, 0.627523, 0.267324, 0.627523, 0.267324, 0, 0
3, 3540.00000, 0.627523, 0.267324, 0.627523, 0.267324, 0.627523, 0.267324, 0, 0
4, 0.00000, 0.627523, 0.267324, 0.627523, 0.267324, 0.627523, 0.267324, 0, 0
4, 60.00000, 0.671305, 0.285975, 0.671305, 0.285975, 0.671305, 0.285975, 0, 0
4, 120.00000, 0.671305, 0.285975, 0.671305, 0.285975, 0.671305, 0.285975, 0, 0
4, 180.00000, 0.671305, 0.285975, 0.671305, 0.285975, 0.671305, 0.285975, 0, 0
4, 240.00000, 0.671305, 0.285975, 0.671305, 0.285975, 0.671305, 0.285975, 0, 0
4, 300.00000, 0.671305, 0.285975, 0.671305, 0.285975, 0.671305, 0.285975, 0, 0
4, 360.00000, 0.671305, 0.285975, 0.671305, 0.285975, 0.671305, 0.285975, 0, 0
4, 420.00000, 0.671305, 0.285975, 0.671305, 0.285975, 0.671305, 0.285975, 0, 0
4, 480.00000, 0.671305, 0.285975, 0.671305, 0.285975, 0.671305, 0.285975, 0, 0
4, 540.00000, 0.671305, 0.285975, 0.671305, 0.285975, 0.671305, 0.285975, 0, 0
4, 600.00000, 0.671305, 0.285975, 0.671305, 0.285975, 0.671305, 0.285975, 0, 0
4, 660.00000, 0.671305, 0.285975, 0.671305, 0.285975, 0.671305, 0.285975, 0, 0
