hour,t(sec),V1,VAngle1,V2,VAngle2,V3,VAngle3,V4,VAngle4,I1,IAngle1,I2,IAngle2,I3,IAngle3,I4,IAngle4
0, 60.00000, 117.505, -32.9358, 117.573, -150.644, 122.713, 88.3648, 0, 0, 7.06419, -56.0099, 7.06859, -173.717, 7.15431, 65.2913, 0.157235, 56.6789
0, 120.00000, 117.507, -32.9497, 117.573, -150.645, 122.748, 88.3596, 0, 0, 7.06432, -56.0238, 7.06858, -173.718, 7.15221, 65.286, 0.160746, 56.8096
0, 180.00000, 117.509, -32.9623, 117.573, -150.646, 122.78, 88.3548, 0, 0, 7.06444, -56.0363, 7.06856, -173.719, 7.15033, 65.2812, 0.163899, 56.9231
0, 240.00000, 117.511, -32.9736, 117.573, -150.647, 122.809, 88.3505, 0, 0, 7.06455, -56.0476, 7.06855, -173.72, 7.14864, 65.2769, 0.166736, 57.0213
0, 300.00000, 117.513, -32.9838, 117.572, -150.647, 122.834, 88.3466, 0, 0, 7.06465, -56.0578, 7.06854, -173.721, 7.14712, 65.273, 0.16929, 57.1067
0, 360.00000, 117.514, -32.9929, 117.572, -150.648, 122.857, 88.3431, 0, 0, 7.06474, -56.067, 7.06853, -173.721, 7.14575, 65.2694, 0.171588, 57.1813
0, 420.00000, 117.515, -33.0012, 117.572, -150.649, 122.878, 88.3399, 0, 0, 7.06481, -56.0752, 7.06853, -173.722, 7.14452, 65.2662, 0.173657, 57.2467
0, 480.00000, 118.544, -32.917, 118.545, -150.579, 124.056, 88.4449, 0, 0, 6.20621, -55.9909, 6.20619, -173.653, 6.15673, 65.3712, 0.268345, 60.7481
0, 540.00000, 118.545, -32.9238, 118.545, -150.579, 124.072, 88.4423, 0, 0, 6.20627, -55.9977, 6.20619, -173.653, 6.15588, 65.3686, 0.26981, 60.7585
0, 600.00000, 118.546, -32.9299, 118.545, -150.58, 124.087, 88.4399, 0, 0, 6.20632, -56.0038, 6.20618, -173.653, 6.15512, 65.3662, 0.271125, 60.7682
0, 660.00000, 118.547, -32.9354, 118.545, -150.58, 124.101, 88.4378, 0, 0, 6.20637, -56.0093, 6.20618, -173.654, 6.15444, 65.3641, 0.272309, 60.7768
0, 720.00000, 118.548, -32.9404, 118.545, -150.58, 124.113, 88.4359, 0, 0, 6.20641, -56.0143, 6.20618, -173.654, 6.15383, 65.3621, 0.273373, 60.7845
0, 780.00000, 118.549, -32.9448, 118.545, -150.581, 124.124, 88.4341, 0, 0, 6.20645, -56.0187, 6.20617, -173.654, 6.15328, 65.3604, 0.274332, 60.7913
0, 840.00000, 118.549, -32.9488, 118.545, -150.581, 124.134, 88.4326, 0, 0, 6.20648, -56.0227, 6.20617, -173.655, 6.15278, 65.3588, 0.275194, 60.7974
0, 900.00000, 118.55, -32.9524, 118.545, -150.581, 124.143, 88.4312, 0, 0, 6.20652, -56.0264, 6.20617, -173.655, 6.15233, 65.3574, 0.27597, 60.8029
0, 960.00000, 118.551, -32.9557, 118.545, -150.581, 124.151, 88.4299, 0, 0, 6.20654, -56.0296, 6.20617, -173.655, 6.15193, 65.3561, 0.276668, 60.8077
0, 1020.00000, 118.551, -32.9586, 118.545, -150.581, 124.158, 88.4288, 0, 0, 6.20657, -56.0325, 6.20617, -173.655, 6.15157, 65.355, 0.277296, 60.8121
0, 1080.00000, 118.551, -32.9613, 118.545, -150.582, 124.164, 88.4277, 0, 0, 6.20659, -56.0352, 6.20616, -173.655, 6.15124, 65.3539, 0.277862, 60.8159
0, 1140.00000, 118.552, -32.9636, 118.545, -150.582, 124.17, 88.4268, 0, 0, 6.20661, -56.0375, 6.20616, -173.656, 6.15095, 65.353, 0.278371, 60.8194
0, 1200.00000, 118.552, -32.9658, 118.545, -150.582, 124.175, 88.426, 0, 0, 6.20663, -56.0397, 6.20616, -173.656, 6.15069, 65.3522, 0.278829, 60.8225
0, 1260.00000, 118.553, -32.9677, 118.545, -150.582, 124.18, 88.4252, 0, 0, 6.20664, -56.0416, 6.20616, -173.656, 6.15045, 65.3514, 0.279241, 60.8253
0, 1320.00000, 118.553, -32.9694, 118.544, -150.582, 124.184, 88.4246, 0, 0, 6.20666, -56.0433, 6.20616, -173.656, 6.15023, 65.3507, 0.279612, 60.8278
0, 1380.00000, 118.553, -32.971, 118.544, -150.582, 124.188, 88.424, 0, 0, 6.20667, -56.0449, 6.20616, -173.656, 6.15004, 65.3501, 0.279946, 60.83
0, 1440.00000, 118.553, -32.9724, 118.544, -150.582, 124.191, 88.4234, 0, 0, 6.20668, -56.0463, 6.20616, -173.656, 6.14987, 65.3496, 0.280246, 60.8321
0, 1500.00000, 118.553, -32.9736, 118.544, -150.582, 124.195, 88.4229, 0, 0, 6.20669, -56.0475, 6.20616, -173.656, 6.14971, 65.3491, 0.280517, 60.8339
0, 1560.00000, 118.554, -32.9748, 118.544, -150.582, 124.197, 88.4225, 0, 0, 6.2067, -56.0487, 6.20616, -173.656, 6.14957, 65.3486, 0.28076, 60.8355
0, 1620.00000, 118.554, -32.9758, 118.544, -150.582, 124.2, 88.4221, 0, 0, 6.20671, -56.0497, 6.20616, -173.656, 6.14945, 65.3482, 0.280979, 60.8369
0, 1680.00000, 118.554, -32.9767, 118.544, -150.582, 124.202, 88.4217, 0, 0, 6.20672, -56.0506, 6.20616, -173.656, 6.14933, 65.3478, 0.281176, 60.8382
0, 1740.00000, 118.554, -32.9775, 118.544, -150.582, 124.204, 88.4214, 0, 0, 6.20672, -56.0514, 6.20615, -173.656, 6.14923, 65.3475, 0.281354, 60.8394
0, 1800.00000, 118.554, -32.9783, 118.544, -150.582, 124.206, 88.4211, 0, 0, 6.20673, -56.0522, 6.20615, -173.656, 6.14914, 65.3472, 0.281513, 60.8405
0, 1860.00000, 118.554, -32.9789, 118.544, -150.583, 124.208, 88.4209, 0, 0, 6.20674, -56.0529, 6.20615, -173.656, 6.14906, 65.347, 0.281657, 60.8414
0, 1920.00000, 118.554, -32.9795, 118.544, -150.583, 124.209, 88.4206, 0, 0, 6.20674, -56.0535, 6.20615, -173.656, 6.14898, 65.3467, 0.281786, 60.8423
0, 1980.00000, 118.555, -32.9801, 118.544, -150.583, 124.21, 88.4204, 0, 0, 6.20675, -56.054, 6.20615, -173.656, 6.14892, 65.3465, 0.281903, 60.843
0, 2040.00000, 118.555, -32.9806, 118.544, -150.583, 124.212, 88.4202, 0, 0, 6.20675, -56.0545, 6.20615, -173.657, 6.14886, 65.3463, 0.282007, 60.8437
0, 2100.00000, 118.555, -32.981, 118.544, -150.583, 124.213, 88.42, 0, 0, 6.20675, -56.0549, 6.20615, -173.657, 6.1488, 65.3461, 0.282102, 60.8443
0, 2160.00000, 118.555, -32.9814, 118.544, -150.583, 124.214, 88.4199, 0, 0, 6.20676, -56.0553, 6.20615, -173.657, 6.14875, 65.346, 0.282187, 60.8449
0, 2220.00000, 118.555, -32.9818, 118.544, -150.583, 124.214, 88.4197, 0, 0, 6.20676, -56.0557, 6.20615, -173.657, 6.14871, 65.3458, 0.282263, 60.8454
0, 2280.00000, 118.555, -32.9821, 118.544, -150.583, 124.215, 88.4196, 0, 0, 6.20676, -56.056, 6.20615, -173.657, 6.14867, 65.3457, 0.282332, 60.8458
0, 2340.00000, 118.555, -32.9824, 118.544, -150.583, 124.216, 88.4195, 0, 0, 6.20676, -56.0563, 6.20615, -173.657, 6.14863, 65.3456, 0.282393, 60.8462
0, 2400.00000, 118.555, -32.9826, 118.544, -150.583, 124.217, 88.4194, 0, 0, 6.20677, -56.0565, 6.20615, -173.657, 6.1486, 65.3455, 0.282449, 60.8466
0, 2460.00000, 118.555, -32.9829, 118.544, -150.583, 124.217, 88.4193, 0, 0, 6.20677, -56.0568, 6.20615, -173.657, 6.14857, 65.3454, 0.282499, 60.8469
0, 2520.00000, 118.555, -32.9831, 118.544, -150.583, 124.218, 88.4192, 0, 0, 6.20677, -56.057, 6.20615, -173.657, 6.14855, 65.3453, 0.282544, 60.8472
0, 2580.00000, 118.555, -32.9833, 118.544, -150.583, 124.218, 88.4192, 0, 0, 6.20677, -56.0572, 6.20615, -173.657, 6.14852, 65.3453, 0.282585, 60.8475
0, 2640.00000, 118.555, -32.9834, 118.544, -150.583, 124.219, 88.4191, 0, 0, 6.20677, -56.0574, 6.20615, -173.657, 6.1485, 65.3452, 0.282621, 60.8477
0, 2700.00000, 118.555, -32.9836, 118.544, -150.583, 124.219, 88.419, 0, 0, 6.20677, -56.0575, 6.20615, -173.657, 6.14848, 65.3451, 0.282654, 60.8479
0, 2760.00000, 118.555, -32.9837, 118.544, -150.583, 124.219, 88.419, 0, 0, 6.20677, -56.0576, 6.20615, -173.657, 6.14847, 65.3451, 0.282684, 60.8481
0, 2820.00000, 118.555, -32.9838, 118.544, -150.583, 124.22, 88.4189, 0, 0, 6.20678, -56.0578, 6.20615, -173.657, 6.14845, 65.345, 0.28271, 60.8483
0, 2880.00000, 118.555, -32.984, 118.544, -150.583, 124.22, 88.4189, 0, 0, 6.20678, -56.0579, 6.20615, -173.657, 6.14844, 65.345, 0.282734, 60.8485
0, 2940.00000, 118.555, -32.9841, 118.544, -150.583, 124.22, 88.4189, 0, 0, 6.20678, -56.058, 6.20615, -173.657, 6.14843, 65.3449, 0.282756, 60.8486
0, 3000.00000, 118.555, -32.9841, 118.544, -150.583, 124.22, 88.4188, 0, 0, 6.20678, -56.0581, 6.20615, -173.657, 6.14841, 65.3449, 0.282775, 60.8487
0, 3060.00000, 118.555, -32.9842, 118.544, -150.583, 124.221, 88.4188, 0, 0, 6.20678, -56.0582, 6.20615, -173.657, 6.1484, 65.3449, 0.282793, 60.8489
0, 3120.00000, 118.555, -32.9843, 118.544, -150.583, 124.221, 88.4188, 0, 0, 6.20678, -56.0582, 6.20615, -173.657, 6.14839, 65.3448, 0.282809, 60.849
0, 3180.00000, 118.555, -32.9844, 118.544, -150.583, 124.221, 88.4187, 0, 0, 6.20678, -56.0583, 6.20615, -173.657, 6.14839, 65.3448, 0.282823, 60.849
0, 3240.00000, 118.555, -32.9844, 118.544, -150.583, 124.221, 88.4187, 0, 0, 6.20678, -56.0583, 6.20615, -173.657, 6.14838, 65.3448, 0.282835, 60.8491
0, 3300.00000, 118.555, -32.9845, 118.544, -150.583, 124.221, 88.4187, 0, 0, 6.20678, -56.0584, 6.20615, -173.657, 6.14837, 65.3448, 0.282847, 60.8492
0, 3360.00000, 118.555, -32.9845, 118.544, -150.583, 124.221, 88.4187, 0, 0, 6.20678, -56.0585, 6.20615, -173.657, 6.14837, 65.3447, 0.282857, 60.8493
0, 3420.00000, 118.555, -32.9846, 118.544, -150.583, 124.221, 88.4186, 0, 0, 6.20678, -56.0585, 6.20615, -173.657, 6.14836, 65.3447, 0.282866, 60.8493
0, 3480.00000, 118.555, -32.9846, 118.544, -150.583, 124.221, 88.4186, 0, 0, 6.20678, -56.0585, 6.20615, -173.657, 6.14836, 65.3447, 0.282875, 60.8494
0, 3540.00000, 118.555, -32.9846, 118.544, -150.583, 124.222, 88.4186, 0, 0, 6.20678, -56.0586, 6.20615, -173.657, 6.14835, 65.3447, 0.282882, 60.8494
1, 0.00000, 118.555, -32.9847, 118.544, -150.583, 124.222, 88.4186, 0, 0, 6.20678, -56.0586, 6.20615, -173.657, 6.14835, 65.3447, 0.282889, 60.8495
1, 60.00000, 118.637, -32.8546, 118.825, -150.551, 124.223, 88.4212, 0, 0, 6.21151, -55.9285, 6.22249, -173.625, 6.14829, 65.3473, 0.284824, 60.652
1, 120.00000, 118.637, -32.8546, 118.825, -150.551, 124.223, 88.4212, 0, 0, 6.21151, -55.9285, 6.22249, -173.625, 6.14829, 65.3473, 0.28483, 60.652
1, 180.00000, 118.637, -32.8546, 118.825, -150.551, 124.223, 88.4212, 0, 0, 6.21151, -55.9285, 6.22249, -173.625, 6.14828, 65.3473, 0.284835, 60.652
1, 240.00000, 118.637, -32.8546, 118.825, -150.551, 124.223, 88.4212, 0, 0, 6.21151, -55.9286, 6.22249, -173.625, 6.14828, 65.3473, 0.28484, 60.652
1, 300.00000, 118.637, -32.8547, 118.825, -150.551, 124.223, 88.4212, 0, 0, 6.21151, -55.9286, 6.22249, -173.625, 6.14828, 65.3473, 0.284844, 60.6521
1, 360.00000, 118.637, -32.8547, 118.825, -150.551, 124.223, 88.4212, 0, 0, 6.21151, -55.9286, 6.22249, -173.625, 6.14828, 65.3472, 0.284847, 60.6521
1, 420.00000, 118.637, -32.8547, 118.825, -150.551, 124.223, 88.4212, 0, 0, 6.21151, -55.9286, 6.22249, -173.625, 6.14827, 65.3472, 0.28485, 60.6521
1, 480.00000, 118.637, -32.8547, 118.825, -150.551, 124.223, 88.4212, 0, 0, 6.21151, -55.9286, 6.22249, -173.625, 6.14827, 65.3472, 0.284853, 60.6521
1, 540.00000, 118.637, -32.8547, 118.825, -150.551, 124.223, 88.4211, 0, 0, 6.21151, -55.9286, 6.22249, -173.625, 6.14827, 65.3472, 0.284856, 60.6522
1, 600.00000, 118.637, -32.8547, 118.825, -150.551, 124.223, 88.4211, 0, 0, 6.21151, -55.9286, 6.22249, -173.625, 6.14827, 65.3472, 0.284858, 60.6522
1, 660.00000, 118.637, -32.8547, 118.825, -150.551, 124.223, 88.4211, 0, 0, 6.21151, -55.9286, 6.22249, -173.625, 6.14827, 65.3472, 0.28486, 60.6522
1, 720.00000, 118.637, -32.8547, 118.825, -150.551, 124.223, 88.4211, 0, 0, 6.21151, -55.9287, 6.22249, -173.625, 6.14827, 65.3472, 0.284862, 60.6522
1, 780.00000, 118.637, -32.8548, 118.825, -150.551, 124.223, 88.4211, 0, 0, 6.21151, -55.9287, 6.22249, -173.625, 6.14827, 65.3472, 0.284864, 60.6522
1, 840.00000, 118.637, -32.8548, 118.825, -150.551, 124.223, 88.4211, 0, 0, 6.21151, -55.9287, 6.22249, -173.625, 6.14826, 65.3472, 0.284866, 60.6522
1, 900.00000, 118.637, -32.8548, 118.825, -150.551, 124.223, 88.4211, 0, 0, 6.21151, -55.9287, 6.22249, -173.625, 6.14826, 65.3472, 0.284867, 60.6522
1, 960.00000, 118.637, -32.8548, 118.825, -150.551, 124.223, 88.4211, 0, 0, 6.21151, -55.9287, 6.22249, -173.625, 6.14826, 65.3472, 0.284868, 60.6522
1, 1020.00000, 118.637, -32.8548, 118.825, -150.551, 124.223, 88.4211, 0, 0, 6.21151, -55.9287, 6.22249, -173.625, 6.14826, 65.3472, 0.284869, 60.6523
1, 1080.00000, 118.637, -32.8548, 118.825, -150.551, 124.223, 88.4211, 0, 0, 6.21151, -55.9287, 6.22249, -173.625, 6.14826, 65.3472, 0.28487, 60.6523
1, 1140.00000, 118.637, -32.8548, 118.825, -150.551, 124.223, 88.4211, 0, 0, 6.21151, -55.9287, 6.22249, -173.625, 6.14826, 65.3472, 0.284871, 60.6523
1, 1200.00000, 118.637, -32.8548, 118.825, -150.551, 124.223, 88.4211, 0, 0, 6.21151, -55.9287, 6.22249, -173.625, 6.14826, 65.3472, 0.284872, 60.6523
1, 1260.00000, 118.637, -32.8548, 118.825, -150.551, 124.223, 88.4211, 0, 0, 6.21151, -55.9287, 6.22249, -173.625, 6.14826, 65.3472, 0.284873, 60.6523
1, 1320.00000, 118.637, -32.8548, 118.825, -150.551, 124.223, 88.4211, 0, 0, 6.21151, -55.9287, 6.22249, -173.625, 6.14826, 65.3472, 0.284873, 60.6523
1, 1380.00000, 118.637, -32.8548, 118.825, -150.551, 124.223, 88.4211, 0, 0, 6.21151, -55.9287, 6.22249, -173.625, 6.14826, 65.3472, 0.284874, 60.6523
1, 1440.00000, 118.637, -32.8548, 118.825, -150.551, 124.223, 88.4211, 0, 0, 6.21151, -55.9287, 6.22249, -173.625, 6.14826, 65.3472, 0.284875, 60.6523
1, 1500.00000, 118.637, -32.8548, 118.825, -150.551, 124.223, 88.4211, 0, 0, 6.21151, -55.9287, 6.22249, -173.625, 6.14826, 65.3472, 0.284875, 60.6523
1, 1560.00000, 118.637, -32.8548, 118.825, -150.551, 124.223, 88.4211, 0, 0, 6.21151, -55.9287, 6.22249, -173.625, 6.14826, 65.3472, 0.284876, 60.6523
1, 1620.00000, 118.637, -32.8548, 118.825, -150.551, 124.223, 88.4211, 0, 0, 6.21151, -55.9287, 6.22249, -173.625, 6.14826, 65.3472, 0.284876, 60.6523
1, 1680.00000, 118.637, -32.8548, 118.825, -150.551, 124.223, 88.4211, 0, 0, 6.21151, -55.9287, 6.22249, -173.625, 6.14826, 65.3472, 0.284876, 60.6523
1, 1740.00000, 118.637, -32.8548, 118.825, -150.551, 124.223, 88.4211, 0, 0, 6.21151, -55.9287, 6.22249, -173.625, 6.14826, 65.3472, 0.284877, 60.6523
1, 1800.00000, 118.637, -32.8548, 118.825, -150.551, 124.223, 88.4211, 0, 0, 6.21151, -55.9287, 6.22249, -173.625, 6.14826, 65.3472, 0.284877, 60.6523
1, 1860.00000, 118.637, -32.8548, 118.825, -150.551, 124.223, 88.4211, 0, 0, 6.21151, -55.9287, 6.22249, -173.625, 6.14826, 65.3472, 0.284877, 60.6523
1, 1920.00000, 118.637, -32.8548, 118.825, -150.551, 124.223, 88.4211, 0, 0, 6.21151, -55.9287, 6.22249, -173.625, 6.14826, 65.3472, 0.284877, 60.6523
1, 1980.00000, 118.637, -32.8548, 118.825, -150.551, 124.223, 88.4211, 0, 0, 6.21151, -55.9287, 6.22249, -173.625, 6.14826, 65.3472, 0.284878, 60.6523
1, 2040.00000, 118.637, -32.8548, 118.825, -150.551, 124.223, 88.4211, 0, 0, 6.21151, -55.9287, 6.22249, -173.625, 6.14826, 65.3472, 0.284878, 60.6523
1, 2100.00000, 118.637, -32.8548, 118.825, -150.551, 124.223, 88.4211, 0, 0, 6.21151, -55.9287, 6.22249, -173.625, 6.14826, 65.3472, 0.284878, 60.6523
1, 2160.00000, 118.637, -32.8548, 118.825, -150.551, 124.223, 88.4211, 0, 0, 6.21151, -55.9287, 6.22249, -173.625, 6.14826, 65.3472, 0.284878, 60.6523
1, 2220.00000, 118.637, -32.8548, 118.825, -150.551, 124.223, 88.4211, 0, 0, 6.21151, -55.9287, 6.22249, -173.625, 6.14826, 65.3472, 0.284878, 60.6523
1, 2280.00000, 118.637, -32.8548, 118.825, -150.551, 124.223, 88.4211, 0, 0, 6.21151, -55.9287, 6.22249, -173.625, 6.14826, 65.3472, 0.284878, 60.6523
1, 2340.00000, 118.637, -32.8548, 118.825, -150.551, 124.223, 88.4211, 0, 0, 6.21151, -55.9287, 6.22249, -173.625, 6.14826, 65.3472, 0.284878, 60.6523
1, 2400.00000, 118.637, -32.8548, 118.825, -150.551, 124.223, 88.4211, 0, 0, 6.21151, -55.9287, 6.22249, -173.625, 6.14826, 65.3472, 0.284879, 60.6523
1, 2460.00000, 118.637, -32.8548, 118.825, -150.551, 124.223, 88.4211, 0, 0, 6.21151, -55.9287, 6.22249, -173.625, 6.14826, 65.3472, 0.284879, 60.6523
1, 2520.00000, 118.637, -32.8548, 118.825, -150.551, 124.223, 88.4211, 0, 0, 6.21151, -55.9287, 6.22249, -173.625, 6.14826, 65.3472, 0.284879, 60.6523
1, 2580.00000, 118.637, -32.8548, 118.825, -150.551, 124.223, 88.4211, 0, 0, 6.21151, -55.9287, 6.22249, -173.625, 6.14826, 65.3472, 0.284879, 60.6523
1, 2640.00000, 118.637, -32.8548, 118.825, -150.551, 124.223, 88.4211, 0, 0, 6.21151, -55.9287, 6.22249, -173.625, 6.14826, 65.3472, 0.284879, 60.6523
1, 2700.00000, 118.637, -32.8548, 118.825, -150.551, 124.223, 88.4211, 0, 0, 6.21151, -55.9287, 6.22249, -173.625, 6.14826, 65.3472, 0.284879, 60.6523
1, 2760.00000, 118.637, -32.8548, 118.825, -150.551, 124.223, 88.4211, 0, 0, 6.21151, -55.9287, 6.22249, -173.625, 6.14826, 65.3472, 0.284879, 60.6523
1, 2820.00000, 118.637, -32.8548, 118.825, -150.551, 124.223, 88.4211, 0, 0, 6.21151, -55.9287, 6.22249, -173.625, 6.14826, 65.3472, 0.284879, 60.6523
1, 2880.00000, 118.637, -32.8548, 118.825, -150.551, 124.223, 88.4211, 0, 0, 6.21151, -55.9287, 6.22249, -173.625, 6.14826, 65.3472, 0.284879, 60.6523
1, 2940.00000, 118.637, -32.8548, 118.825, -150.551, 124.223, 88.4211, 0, 0, 6.21151, -55.9287, 6.22249, -173.625, 6.14826, 65.3472, 0.284879, 60.6523
1, 3000.00000, 118.637, -32.8548, 118.825, -150.551, 124.223, 88.4211, 0, 0, 6.21151, -55.9287, 6.22249, -173.625, 6.14826, 65.3472, 0.284879, 60.6523
1, 3060.00000, 118.637, -32.8548, 118.825, -150.551, 124.223, 88.4211, 0, 0, 6.21151, -55.9287, 6.22249, -173.625, 6.14826, 65.3472, 0.284879, 60.6523
1, 3120.00000, 118.637, -32.8548, 118.825, -150.551, 124.223, 88.4211, 0, 0, 6.21151, -55.9287, 6.22249, -173.625, 6.14826, 65.3472, 0.284879, 60.6523
1, 3180.00000, 118.637, -32.8548, 118.825, -150.551, 124.223, 88.4211, 0, 0, 6.21151, -55.9287, 6.22249, -173.625, 6.14826, 65.3472, 0.284879, 60.6523
1, 3240.00000, 118.637, -32.8548, 118.825, -150.551, 124.223, 88.4211, 0, 0, 6.21151, -55.9287, 6.22249, -173.625, 6.14826, 65.3472, 0.284879, 60.6523
1, 3300.00000, 118.637, -32.8548, 118.825, -150.551, 124.223, 88.4211, 0, 0, 6.21151, -55.9287, 6.22249, -173.625, 6.14826, 65.3472, 0.284879, 60.6523
1, 3360.00000, 118.637, -32.8548, 118.825, -150.551, 124.223, 88.4211, 0, 0, 6.21151, -55.9287, 6.22249, -173.625, 6.14826, 65.3472, 0.284879, 60.6523
1, 3420.00000, 118.637, -32.8548, 118.825, -150.551, 124.223, 88.4211, 0, 0, 6.21151, -55.9287, 6.22249, -173.625, 6.14826, 65.3472, 0.284879, 60.6523
1, 3480.00000, 118.637, -32.8548, 118.825, -150.551, 124.223, 88.4211, 0, 0, 6.21151, -55.9287, 6.22249, -173.625, 6.14826, 65.3472, 0.284879, 60.6523
1, 3540.00000, 118.637, -32.8548, 118.825, -150.551, 124.223, 88.4211, 0, 0, 6.21151, -55.9287, 6.22249, -173.625, 6.14826, 65.3472, 0.284879, 60.6523
2, 0.00000, 118.637, -32.8548, 118.825, -150.551, 124.223, 88.4211, 0, 0, 6.21151, -55.9287, 6.22249, -173.625, 6.14826, 65.3472, 0.284879, 60.6523
2, 60.00000, 118.637, -32.8548, 118.825, -150.551, 124.223, 88.4211, 0, 0, 6.21151, -55.9287, 6.22249, -173.625, 6.14826, 65.3472, 0.284879, 60.6523
2, 120.00000, 118.637, -32.8548, 118.825, -150.551, 124.223, 88.4211, 0, 0, 6.21151, -55.9287, 6.22249, -173.625, 6.14826, 65.3472, 0.284879, 60.6523
2, 180.00000, 118.637, -32.8548, 118.825, -150.551, 124.223, 88.4211, 0, 0, 6.21151, -55.9287, 6.22249, -173.625, 6.14826, 65.3472, 0.284879, 60.6523
2, 240.00000, 118.637, -32.8548, 118.825, -150.551, 124.223, 88.4211, 0, 0, 6.21151, -55.9287, 6.22249, -173.625, 6.14826, 65.3472, 0.284879, 60.6523
2, 300.00000, 118.637, -32.8548, 118.825, -150.551, 124.223, 88.4211, 0, 0, 6.21151, -55.9287, 6.22249, -173.625, 6.14826, 65.3472, 0.284879, 60.6523
2, 360.00000, 118.637, -32.8548, 118.825, -150.551, 124.223, 88.4211, 0, 0, 6.21151, -55.9287, 6.22249, -173.625, 6.14826, 65.3472, 0.284879, 60.6523
2, 420.00000, 118.637, -32.8548, 118.825, -150.551, 124.223, 88.4211, 0, 0, 6.21151, -55.9287, 6.22249, -173.625, 6.14826, 65.3472, 0.284879, 60.6523
2, 480.00000, 118.637, -32.8548, 118.825, -150.551, 124.223, 88.4211, 0, 0, 6.21151, -55.9287, 6.22249, -173.625, 6.14826, 65.3472, 0.284879, 60.6523
2, 540.00000, 118.637, -32.8548, 118.825, -150.551, 124.223, 88.4211, 0, 0, 6.21151, -55.9287, 6.22249, -173.625, 6.14826, 65.3472, 0.284879, 60.6523
2, 600.00000, 118.637, -32.8548, 118.825, -150.551, 124.223, 88.4211, 0, 0, 6.21151, -55.9287, 6.22249, -173.625, 6.14826, 65.3472, 0.284879, 60.6523
2, 660.00000, 118.637, -32.8548, 118.825, -150.551, 124.223, 88.4211, 0, 0, 6.21151, -55.9287, 6.22249, -173.625, 6.14826, 65.3472, 0.284879, 60.6523
2, 720.00000, 118.637, -32.8548, 118.825, -150.551, 124.223, 88.4211, 0, 0, 6.21151, -55.9287, 6.22249, -173.625, 6.14826, 65.3472, 0.284879, 60.6523
