hour,t(sec),"P1 (kW)","Q1 (kvar)","P2 (kW)","Q2 (kvar)","P3 (kW)","Q3 (kvar)","P4 (kW)","Q4 (kvar)"
0, 60.00000, 0.255522, 0.10885, 0.254652, 0.10848, 0.266261, 0.113426, 0, 0
0, 120.00000, 0.25552, 0.108851, 0.254649, 0.10848, 0.266258, 0.113425, 0, 0
0, 180.00000, 0.25552, 0.108851, 0.254649, 0.10848, 0.266258, 0.113425, 0, 0
0, 240.00000, 0.25552, 0.108851, 0.254649, 0.10848, 0.266258, 0.113425, 0, 0
0, 300.00000, 0.25552, 0.108851, 0.254649, 0.10848, 0.266258, 0.113425, 0, 0
0, 360.00000, 0.25552, 0.108851, 0.254649, 0.10848, 0.266258, 0.113425, 0, 0
0, 420.00000, 0.25552, 0.108851, 0.254649, 0.10848, 0.266258, 0.113425, 0, 0
0, 480.00000, 0.234801, 0.100027, 0.233831, 0.0996125, 0.244394, 0.104112, 0, 0
0, 540.00000, 0.234805, 0.100026, 0.233834, 0.0996128, 0.244397, 0.104113, 0, 0
0, 600.00000, 0.234805, 0.100026, 0.233834, 0.0996128, 0.244397, 0.104113, 0, 0
0, 660.00000, 0.234805, 0.100026, 0.233834, 0.0996128, 0.244397, 0.104113, 0, 0
0, 720.00000, 0.234805, 0.100026, 0.233834, 0.0996128, 0.244397, 0.104113, 0, 0
0, 780.00000, 0.234805, 0.100026, 0.233834, 0.0996128, 0.244397, 0.104113, 0, 0
0, 840.00000, 0.234805, 0.100026, 0.233834, 0.0996128, 0.244397, 0.104113, 0, 0
0, 900.00000, 0.234805, 0.100026, 0.233834, 0.0996128, 0.244397, 0.104113, 0, 0
0, 960.00000, 0.233002, 0.0992556, 0.230605, 0.0982371, 0.239689, 0.102106, 0, 0
0, 1020.00000, 0.232997, 0.0992561, 0.230604, 0.0982369, 0.239683, 0.102105, 0, 0
0, 1080.00000, 0.232996, 0.0992561, 0.230604, 0.0982369, 0.239683, 0.102105, 0, 0
0, 1140.00000, 0.234624, 0.0999516, 0.230597, 0.0982338, 0.240432, 0.102424, 0, 0
0, 1200.00000, 0.234628, 0.0999512, 0.230596, 0.0982336, 0.240434, 0.102424, 0, 0
0, 1260.00000, 0.234628, 0.0999512, 0.230596, 0.0982336, 0.240434, 0.102424, 0, 0
0, 1320.00000, 0.234628, 0.0999512, 0.230596, 0.0982336, 0.240434, 0.102424, 0, 0
0, 1380.00000, 0.234628, 0.0999512, 0.230596, 0.0982336, 0.240434, 0.102424, 0, 0
0, 1440.00000, 0.234628, 0.0999512, 0.230596, 0.0982336, 0.240434, 0.102424, 0, 0
0, 1500.00000, 0.234628, 0.0999512, 0.230596, 0.0982336, 0.240434, 0.102424, 0, 0
0, 1560.00000, 0.234628, 0.0999512, 0.230596, 0.0982336, 0.240434, 0.102424, 0, 0
0, 1620.00000, 0.234628, 0.0999512, 0.230596, 0.0982336, 0.240434, 0.102424, 0, 0
0, 1680.00000, 0.234628, 0.0999512, 0.230596, 0.0982336, 0.240434, 0.102424, 0, 0
0, 1740.00000, 0.234628, 0.0999512, 0.230596, 0.0982336, 0.240434, 0.102424, 0, 0
0, 1800.00000, 0.232748, 0.0991497, 0.228064, 0.0971549, 0.240555, 0.102476, 0, 0
0, 1860.00000, 0.232747, 0.0991496, 0.228063, 0.0971543, 0.240555, 0.102476, 0, 0
0, 1920.00000, 0.232747, 0.0991496, 0.228063, 0.0971543, 0.240555, 0.102476, 0, 0
0, 1980.00000, 0.232747, 0.0991496, 0.228063, 0.0971543, 0.240555, 0.102476, 0, 0
0, 2040.00000, 0.232747, 0.0991496, 0.228063, 0.0971543, 0.240555, 0.102476, 0, 0
0, 2100.00000, 0.232747, 0.0991496, 0.228063, 0.0971543, 0.240555, 0.102476, 0, 0
0, 2160.00000, 0.232747, 0.0991496, 0.228063, 0.0971543, 0.240555, 0.102476, 0, 0
0, 2220.00000, 0.232747, 0.0991496, 0.228063, 0.0971543, 0.240555, 0.102476, 0, 0
0, 2280.00000, 0.232747, 0.0991496, 0.228063, 0.0971543, 0.240555, 0.102476, 0, 0
0, 2340.00000, 0.232747, 0.0991496, 0.228063, 0.0971543, 0.240555, 0.102476, 0, 0
0, 2400.00000, 0.232747, 0.0991496, 0.228063, 0.0971543, 0.240555, 0.102476, 0, 0
0, 2460.00000, 0.232747, 0.0991496, 0.228063, 0.0971543, 0.240555, 0.102476, 0, 0
0, 2520.00000, 0.232747, 0.0991496, 0.228063, 0.0971543, 0.240555, 0.102476, 0, 0
0, 2580.00000, 0.232747, 0.0991496, 0.228063, 0.0971543, 0.240555, 0.102476, 0, 0
0, 2640.00000, 0.232747, 0.0991496, 0.228063, 0.0971543, 0.240555, 0.102476, 0, 0
0, 2700.00000, 0.232747, 0.0991496, 0.228063, 0.0971543, 0.240555, 0.102476, 0, 0
0, 2760.00000, 0.234063, 0.0997108, 0.230208, 0.0980697, 0.2404, 0.10241, 0, 0
0, 2820.00000, 0.234065, 0.0997114, 0.230211, 0.0980696, 0.240399, 0.10241, 0, 0
0, 2880.00000, 0.234065, 0.0997114, 0.230211, 0.0980696, 0.240399, 0.10241, 0, 0
0, 2940.00000, 0.234065, 0.0997114, 0.230211, 0.0980696, 0.240399, 0.10241, 0, 0
0, 3000.00000, 0.234065, 0.0997114, 0.230211, 0.0980696, 0.240399, 0.10241, 0, 0
0, 3060.00000, 0.234065, 0.0997114, 0.230211, 0.0980696, 0.240399, 0.10241, 0, 0
0, 3120.00000, 0.234065, 0.0997114, 0.230211, 0.0980696, 0.240399, 0.10241, 0, 0
0, 3180.00000, 0.234065, 0.0997114, 0.230211, 0.0980696, 0.240399, 0.10241, 0, 0
0, 3240.00000, 0.234065, 0.0997114, 0.230211, 0.0980696, 0.240399, 0.10241, 0, 0
0, 3300.00000, 0.234065, 0.0997114, 0.230211, 0.0980696, 0.240399, 0.10241, 0, 0
0, 3360.00000, 0.234065, 0.0997114, 0.230211, 0.0980696, 0.240399, 0.10241, 0, 0
0, 3420.00000, 0.234065, 0.0997114, 0.230211, 0.0980696, 0.240399, 0.10241, 0, 0
0, 3480.00000, 0.234065, 0.0997114, 0.230211, 0.0980696, 0.240399, 0.10241, 0, 0
0, 3540.00000, 0.234065, 0.0997114, 0.230211, 0.0980696, 0.240399, 0.10241, 0, 0
1, 0.00000, 0.234065, 0.0997114, 0.230211, 0.0980696, 0.240399, 0.10241, 0, 0
1, 60.00000, 0.234763, 0.100009, 0.231724, 0.0987156, 0.240336, 0.102383, 0, 0
1, 120.00000, 0.234764, 0.100009, 0.231727, 0.0987155, 0.240336, 0.102383, 0, 0
1, 180.00000, 0.234764, 0.100009, 0.231727, 0.0987155, 0.240336, 0.102383, 0, 0
1, 240.00000, 0.234764, 0.100009, 0.231727, 0.0987155, 0.240336, 0.102383, 0, 0
1, 300.00000, 0.234764, 0.100009, 0.231727, 0.0987155, 0.240336, 0.102383, 0, 0
1, 360.00000, 0.234764, 0.100009, 0.231727, 0.0987155, 0.240336, 0.102383, 0, 0
1, 420.00000, 0.234764, 0.100009, 0.231727, 0.0987155, 0.240336, 0.102383, 0, 0
1, 480.00000, 0.234764, 0.100009, 0.231727, 0.0987155, 0.240336, 0.102383, 0, 0
1, 540.00000, 0.234764, 0.100009, 0.231727, 0.0987155, 0.240336, 0.102383, 0, 0
1, 600.00000, 0.234764, 0.100009, 0.231727, 0.0987155, 0.240336, 0.102383, 0, 0
1, 660.00000, 0.234764, 0.100009, 0.231727, 0.0987155, 0.240336, 0.102383, 0, 0
1, 720.00000, 0.234764, 0.100009, 0.231727, 0.0987155, 0.240336, 0.102383, 0, 0
1, 780.00000, 0.234833, 0.100039, 0.232592, 0.099084, 0.242056, 0.103116, 0, 0
1, 840.00000, 0.234832, 0.100038, 0.232593, 0.0990842, 0.242059, 0.103117, 0, 0
1, 900.00000, 0.234832, 0.100038, 0.232593, 0.0990842, 0.242059, 0.103117, 0, 0
1, 960.00000, 0.234832, 0.100038, 0.232593, 0.0990842, 0.242059, 0.103117, 0, 0
1, 1020.00000, 0.234832, 0.100038, 0.232593, 0.0990842, 0.242059, 0.103117, 0, 0
1, 1080.00000, 0.234832, 0.100038, 0.232593, 0.0990842, 0.242059, 0.103117, 0, 0
1, 1140.00000, 0.234832, 0.100038, 0.232593, 0.0990842, 0.242059, 0.103117, 0, 0
1, 1200.00000, 0.234832, 0.100038, 0.232593, 0.0990842, 0.242059, 0.103117, 0, 0
1, 1260.00000, 0.234832, 0.100038, 0.232593, 0.0990842, 0.242059, 0.103117, 0, 0
1, 1320.00000, 0.234832, 0.100038, 0.232593, 0.0990842, 0.242059, 0.103117, 0, 0
1, 1380.00000, 0.234832, 0.100038, 0.232593, 0.0990842, 0.242059, 0.103117, 0, 0
1, 1440.00000, 0.234832, 0.100038, 0.232593, 0.0990842, 0.242059, 0.103117, 0, 0
1, 1500.00000, 0.234832, 0.100038, 0.232593, 0.0990842, 0.242059, 0.103117, 0, 0
1, 1560.00000, 0.234832, 0.100038, 0.232593, 0.0990842, 0.242059, 0.103117, 0, 0
1, 1620.00000, 0.234832, 0.100038, 0.232593, 0.0990842, 0.242059, 0.103117, 0, 0
1, 1680.00000, 0.234832, 0.100038, 0.232593, 0.0990842, 0.242059, 0.103117, 0, 0
1, 1740.00000, 0.234832, 0.100038, 0.232593, 0.0990842, 0.242059, 0.103117, 0, 0
1, 1800.00000, 0.234832, 0.100038, 0.232593, 0.0990842, 0.242059, 0.103117, 0, 0
1, 1860.00000, 0.234832, 0.100038, 0.232593, 0.0990842, 0.242059, 0.103117, 0, 0
1, 1920.00000, 0.234832, 0.100038, 0.232593, 0.0990842, 0.242059, 0.103117, 0, 0
1, 1980.00000, 0.234832, 0.100038, 0.232593, 0.0990842, 0.242059, 0.103117, 0, 0
1, 2040.00000, 0.234832, 0.100038, 0.232593, 0.0990842, 0.242059, 0.103117, 0, 0
1, 2100.00000, 0.234832, 0.100038, 0.232593, 0.0990842, 0.242059, 0.103117, 0, 0
1, 2160.00000, 0.234832, 0.100038, 0.232593, 0.0990842, 0.242059, 0.103117, 0, 0
1, 2220.00000, 0.236728, 0.100845, 0.235182, 0.100188, 0.241937, 0.103065, 0, 0
1, 2280.00000, 0.236728, 0.100846, 0.235185, 0.100188, 0.241937, 0.103065, 0, 0
1, 2340.00000, 0.236728, 0.100846, 0.235185, 0.100188, 0.241937, 0.103065, 0, 0
1, 2400.00000, 0.236728, 0.100846, 0.235185, 0.100188, 0.241937, 0.103065, 0, 0
1, 2460.00000, 0.236728, 0.100846, 0.235185, 0.100188, 0.241937, 0.103065, 0, 0
1, 2520.00000, 0.236728, 0.100846, 0.235185, 0.100188, 0.241937, 0.103065, 0, 0
1, 2580.00000, 0.236728, 0.100846, 0.235185, 0.100188, 0.241937, 0.103065, 0, 0
1, 2640.00000, 0.236728, 0.100846, 0.235185, 0.100188, 0.241937, 0.103065, 0, 0
1, 2700.00000, 0.236728, 0.100846, 0.235185, 0.100188, 0.241937, 0.103065, 0, 0
1, 2760.00000, 0.236728, 0.100846, 0.235185, 0.100188, 0.241937, 0.103065, 0, 0
1, 2820.00000, 0.236728, 0.100846, 0.235185, 0.100188, 0.241937, 0.103065, 0, 0
1, 2880.00000, 0.236728, 0.100846, 0.235185, 0.100188, 0.241937, 0.103065, 0, 0
1, 2940.00000, 0.236728, 0.100846, 0.235185, 0.100188, 0.241937, 0.103065, 0, 0
1, 3000.00000, 0.236728, 0.100846, 0.235185, 0.100188, 0.241937, 0.103065, 0, 0
1, 3060.00000, 0.236728, 0.100846, 0.235185, 0.100188, 0.241937, 0.103065, 0, 0
1, 3120.00000, 0.236728, 0.100846, 0.235185, 0.100188, 0.241937, 0.103065, 0, 0
1, 3180.00000, 0.236728, 0.100846, 0.235185, 0.100188, 0.241937, 0.103065, 0, 0
1, 3240.00000, 0.236728, 0.100846, 0.235185, 0.100188, 0.241937, 0.103065, 0, 0
1, 3300.00000, 0.236728, 0.100846, 0.235185, 0.100188, 0.241937, 0.103065, 0, 0
1, 3360.00000, 0.236728, 0.100846, 0.235185, 0.100188, 0.241937, 0.103065, 0, 0
1, 3420.00000, 0.236728, 0.100846, 0.235185, 0.100188, 0.241937, 0.103065, 0, 0
1, 3480.00000, 0.236728, 0.100846, 0.235185, 0.100188, 0.241937, 0.103065, 0, 0
1, 3540.00000, 0.236728, 0.100846, 0.235185, 0.100188, 0.241937, 0.103065, 0, 0
2, 0.00000, 0.236728, 0.100846, 0.235185, 0.100188, 0.241937, 0.103065, 0, 0
2, 60.00000, 0.236728, 0.100846, 0.235185, 0.100188, 0.241937, 0.103065, 0, 0
2, 120.00000, 0.236728, 0.100846, 0.235185, 0.100188, 0.241937, 0.103065, 0, 0
2, 180.00000, 0.236728, 0.100846, 0.235185, 0.100188, 0.241937, 0.103065, 0, 0
2, 240.00000, 0.236728, 0.100846, 0.235185, 0.100188, 0.241937, 0.103065, 0, 0
2, 300.00000, 0.236728, 0.100846, 0.235185, 0.100188, 0.241937, 0.103065, 0, 0
2, 360.00000, 0.236728, 0.100846, 0.235185, 0.100188, 0.241937, 0.103065, 0, 0
2, 420.00000, 0.236728, 0.100846, 0.235185, 0.100188, 0.241937, 0.103065, 0, 0
2, 480.00000, 0.236728, 0.100846, 0.235185, 0.100188, 0.241937, 0.103065, 0, 0
2, 540.00000, 0.236728, 0.100846, 0.235185, 0.100188, 0.241937, 0.103065, 0, 0
2, 600.00000, 0.236728, 0.100846, 0.235185, 0.100188, 0.241937, 0.103065, 0, 0
2, 660.00000, 0.236728, 0.100846, 0.235185, 0.100188, 0.241937, 0.103065, 0, 0
2, 720.00000, 0.236728, 0.100846, 0.235185, 0.100188, 0.241937, 0.103065, 0, 0
2, 780.00000, 0.236728, 0.100846, 0.235185, 0.100188, 0.241937, 0.103065, 0, 0
2, 840.00000, 0.236897, 0.100918, 0.238502, 0.101601, 0.245991, 0.104793, 0, 0
2, 900.00000, 0.236896, 0.100917, 0.238503, 0.101602, 0.245997, 0.104794, 0, 0
2, 960.00000, 0.236896, 0.100917, 0.238503, 0.101602, 0.245997, 0.104794, 0, 0
2, 1020.00000, 0.236896, 0.100917, 0.238503, 0.101602, 0.245997, 0.104794, 0, 0
2, 1080.00000, 0.236896, 0.100917, 0.238503, 0.101602, 0.245997, 0.104794, 0, 0
2, 1140.00000, 0.236896, 0.100917, 0.238503, 0.101602, 0.245997, 0.104794, 0, 0
2, 1200.00000, 0.236896, 0.100917, 0.238503, 0.101602, 0.245997, 0.104794, 0, 0
2, 1260.00000, 0.236896, 0.100917, 0.238503, 0.101602, 0.245997, 0.104794, 0, 0
2, 1320.00000, 0.236896, 0.100917, 0.238503, 0.101602, 0.245997, 0.104794, 0, 0
2, 1380.00000, 0.236896, 0.100917, 0.238503, 0.101602, 0.245997, 0.104794, 0, 0
2, 1440.00000, 0.236896, 0.100917, 0.238503, 0.101602, 0.245997, 0.104794, 0, 0
2, 1500.00000, 0.236896, 0.100917, 0.238503, 0.101602, 0.245997, 0.104794, 0, 0
2, 1560.00000, 0.236896, 0.100917, 0.238503, 0.101602, 0.245997, 0.104794, 0, 0
2, 1620.00000, 0.236896, 0.100917, 0.238503, 0.101602, 0.245997, 0.104794, 0, 0
2, 1680.00000, 0.236896, 0.100917, 0.238503, 0.101602, 0.245997, 0.104794, 0, 0
2, 1740.00000, 0.236896, 0.100917, 0.238503, 0.101602, 0.245997, 0.104794, 0, 0
2, 1800.00000, 0.236896, 0.100917, 0.238503, 0.101602, 0.245997, 0.104794, 0, 0
2, 1860.00000, 0.236896, 0.100917, 0.238503, 0.101602, 0.245997, 0.104794, 0, 0
2, 1920.00000, 0.236896, 0.100917, 0.238503, 0.101602, 0.245997, 0.104794, 0, 0
2, 1980.00000, 0.236896, 0.100917, 0.238503, 0.101602, 0.245997, 0.104794, 0, 0
2, 2040.00000, 0.236896, 0.100917, 0.238503, 0.101602, 0.245997, 0.104794, 0, 0
2, 2100.00000, 0.236896, 0.100917, 0.238503, 0.101602, 0.245997, 0.104794, 0, 0
2, 2160.00000, 0.236896, 0.100917, 0.238503, 0.101602, 0.245997, 0.104794, 0, 0
2, 2220.00000, 0.236896, 0.100917, 0.238503, 0.101602, 0.245997, 0.104794, 0, 0
2, 2280.00000, 0.236896, 0.100917, 0.238503, 0.101602, 0.245997, 0.104794, 0, 0
2, 2340.00000, 0.236896, 0.100917, 0.238503, 0.101602, 0.245997, 0.104794, 0, 0
2, 2400.00000, 0.238706, 0.101691, 0.238488, 0.101595, 0.246955, 0.105204, 0, 0
2, 2460.00000, 0.23871, 0.10169, 0.238487, 0.101595, 0.246959, 0.105204, 0, 0
2, 2520.00000, 0.23871, 0.10169, 0.238487, 0.101595, 0.246959, 0.105204, 0, 0
2, 2580.00000, 0.23871, 0.10169, 0.238487, 0.101595, 0.246959, 0.105204, 0, 0
2, 2640.00000, 0.23871, 0.10169, 0.238487, 0.101595, 0.246959, 0.105204, 0, 0
2, 2700.00000, 0.238573, 0.101631, 0.236526, 0.10076, 0.244071, 0.103972, 0, 0
2, 2760.00000, 0.238574, 0.101632, 0.236526, 0.10076, 0.244067, 0.103972, 0, 0
2, 2820.00000, 0.238574, 0.101632, 0.236526, 0.10076, 0.244067, 0.103972, 0, 0
2, 2880.00000, 0.238574, 0.101632, 0.236526, 0.10076, 0.244067, 0.103972, 0, 0
2, 2940.00000, 0.238574, 0.101632, 0.236526, 0.10076, 0.244067, 0.103972, 0, 0
2, 3000.00000, 0.238574, 0.101632, 0.236526, 0.10076, 0.244067, 0.103972, 0, 0
2, 3060.00000, 0.238659, 0.101669, 0.237546, 0.101194, 0.246025, 0.104808, 0, 0
2, 3120.00000, 0.238658, 0.101668, 0.237547, 0.101195, 0.246032, 0.104809, 0, 0
2, 3180.00000, 0.238658, 0.101668, 0.237547, 0.101195, 0.246032, 0.104809, 0, 0
2, 3240.00000, 0.238658, 0.101668, 0.237547, 0.101195, 0.246032, 0.104809, 0, 0
2, 3300.00000, 0.238658, 0.101668, 0.237547, 0.101195, 0.246032, 0.104809, 0, 0
2, 3360.00000, 0.238658, 0.101668, 0.237547, 0.101195, 0.246032, 0.104809, 0, 0
2, 3420.00000, 0.238658, 0.101668, 0.237547, 0.101195, 0.246032, 0.104809, 0, 0
2, 3480.00000, 0.238658, 0.101668, 0.237547, 0.101195, 0.246032, 0.104809, 0, 0
2, 3540.00000, 0.238658, 0.101668, 0.237547, 0.101195, 0.246032, 0.104809, 0, 0
3, 0.00000, 0.238658, 0.101668, 0.237547, 0.101195, 0.246032, 0.104809, 0, 0
3, 60.00000, 0.238658, 0.101668, 0.237547, 0.101195, 0.246032, 0.104809, 0, 0
3, 120.00000, 0.238658, 0.101668, 0.237547, 0.101195, 0.246032, 0.104809, 0, 0
3, 180.00000, 0.238658, 0.101668, 0.237547, 0.101195, 0.246032, 0.104809, 0, 0
3, 240.00000, 0.238658, 0.101668, 0.237547, 0.101195, 0.246032, 0.104809, 0, 0
3, 300.00000, 0.238658, 0.101668, 0.237547, 0.101195, 0.246032, 0.104809, 0, 0
3, 360.00000, 0.238658, 0.101668, 0.237547, 0.101195, 0.246032, 0.104809, 0, 0
3, 420.00000, 0.238658, 0.101668, 0.237547, 0.101195, 0.246032, 0.104809, 0, 0
3, 480.00000, 0.238658, 0.101668, 0.237547, 0.101195, 0.246032, 0.104809, 0, 0
3, 540.00000, 0.238658, 0.101668, 0.237547, 0.101195, 0.246032, 0.104809, 0, 0
3, 600.00000, 0.238658, 0.101668, 0.237547, 0.101195, 0.246032, 0.104809, 0, 0
3, 660.00000, 0.238658, 0.101668, 0.237547, 0.101195, 0.246032, 0.104809, 0, 0
3, 720.00000, 0.238658, 0.101668, 0.237547, 0.101195, 0.246032, 0.104809, 0, 0
3, 780.00000, 0.238658, 0.101668, 0.237547, 0.101195, 0.246032, 0.104809, 0, 0
3, 840.00000, 0.238658, 0.101668, 0.237547, 0.101195, 0.246032, 0.104809, 0, 0
3, 900.00000, 0.238658, 0.101668, 0.237547, 0.101195, 0.246032, 0.104809, 0, 0
3, 960.00000, 0.238658, 0.101668, 0.237547, 0.101195, 0.246032, 0.104809, 0, 0
3, 1020.00000, 0.238658, 0.101668, 0.237547, 0.101195, 0.246032, 0.104809, 0, 0
3, 1080.00000, 0.238658, 0.101668, 0.237547, 0.101195, 0.246032, 0.104809, 0, 0
3, 1140.00000, 0.238658, 0.101668, 0.237547, 0.101195, 0.246032, 0.104809, 0, 0
3, 1200.00000, 0.238658, 0.101668, 0.237547, 0.101195, 0.246032, 0.104809, 0, 0
3, 1260.00000, 0.238658, 0.101668, 0.237547, 0.101195, 0.246032, 0.104809, 0, 0
3, 1320.00000, 0.238658, 0.101668, 0.237547, 0.101195, 0.246032, 0.104809, 0, 0
3, 1380.00000, 0.238658, 0.101668, 0.237547, 0.101195, 0.246032, 0.104809, 0, 0
3, 1440.00000, 0.238658, 0.101668, 0.237547, 0.101195, 0.246032, 0.104809, 0, 0
3, 1500.00000, 0.238658, 0.101668, 0.237547, 0.101195, 0.246032, 0.104809, 0, 0
3, 1560.00000, 0.238658, 0.101668, 0.237547, 0.101195, 0.246032, 0.104809, 0, 0
3, 1620.00000, 0.238658, 0.101668, 0.237547, 0.101195, 0.246032, 0.104809, 0, 0
3, 1680.00000, 0.238658, 0.101668, 0.237547, 0.101195, 0.246032, 0.104809, 0, 0
3, 1740.00000, 0.238658, 0.101668, 0.237547, 0.101195, 0.246032, 0.104809, 0, 0
3, 1800.00000, 0.238658, 0.101668, 0.237547, 0.101195, 0.246032, 0.104809, 0, 0
3, 1860.00000, 0.238658, 0.101668, 0.237547, 0.101195, 0.246032, 0.104809, 0, 0
3, 1920.00000, 0.238658, 0.101668, 0.237547, 0.101195, 0.246032, 0.104809, 0, 0
3, 1980.00000, 0.238658, 0.101668, 0.237547, 0.101195, 0.246032, 0.104809, 0, 0
3, 2040.00000, 0.238658, 0.101668, 0.237547, 0.101195, 0.246032, 0.104809, 0, 0
3, 2100.00000, 0.238658, 0.101668, 0.237547, 0.101195, 0.246032, 0.104809, 0, 0
3, 2160.00000, 0.238658, 0.101668, 0.237547, 0.101195, 0.246032, 0.104809, 0, 0
3, 2220.00000, 0.238658, 0.101668, 0.237547, 0.101195, 0.246032, 0.104809, 0, 0
3, 2280.00000, 0.238658, 0.101668, 0.237547, 0.101195, 0.246032, 0.104809, 0, 0
3, 2340.00000, 0.238658, 0.101668, 0.237547, 0.101195, 0.246032, 0.104809, 0, 0
3, 2400.00000, 0.238658, 0.101668, 0.237547, 0.101195, 0.246032, 0.104809, 0, 0
3, 2460.00000, 0.238658, 0.101668, 0.237547, 0.101195, 0.246032, 0.104809, 0, 0
3, 2520.00000, 0.238658, 0.101668, 0.237547, 0.101195, 0.246032, 0.104809, 0, 0
3, 2580.00000, 0.238658, 0.101668, 0.237547, 0.101195, 0.246032, 0.104809, 0, 0
3, 2640.00000, 0.238658, 0.101668, 0.237547, 0.101195, 0.246032, 0.104809, 0, 0
3, 2700.00000, 0.238658, 0.101668, 0.237547, 0.101195, 0.246032, 0.104809, 0, 0
3, 2760.00000, 0.238658, 0.101668, 0.237547, 0.101195, 0.246032, 0.104809, 0, 0
3, 2820.00000, 0.238658, 0.101668, 0.237547, 0.101195, 0.246032, 0.104809, 0, 0
3, 2880.00000, 0.238658, 0.101668, 0.237547, 0.101195, 0.246032, 0.104809, 0, 0
3, 2940.00000, 0.238658, 0.101668, 0.237547, 0.101195, 0.246032, 0.104809, 0, 0
3, 3000.00000, 0.238658, 0.101668, 0.237547, 0.101195, 0.246032, 0.104809, 0, 0
3, 3060.00000, 0.238658, 0.101668, 0.237547, 0.101195, 0.246032, 0.104809, 0, 0
3, 3120.00000, 0.238658, 0.101668, 0.237547, 0.101195, 0.246032, 0.104809, 0, 0
3, 3180.00000, 0.23265, 0.0991077, 0.231609, 0.0986649, 0.239889, 0.102192, 0, 0
3, 3240.00000, 0.232648, 0.0991078, 0.231608, 0.0986648, 0.239887, 0.102191, 0, 0
3, 3300.00000, 0.232648, 0.0991078, 0.231608, 0.0986648, 0.239887, 0.102191, 0, 0
3, 3360.00000, 0.232648, 0.0991078, 0.231608, 0.0986648, 0.239887, 0.102191, 0, 0
3, 3420.00000, 0.232648, 0.0991078, 0.231608, 0.0986648, 0.239887, 0.102191, 0, 0
3, 3480.00000, 0.232648, 0.0991078, 0.231608, 0.0986648, 0.239887, 0.102191, 0, 0
3, 3540.00000, 0.232648, 0.0991078, 0.231608, 0.0986648, 0.239887, 0.102191, 0, 0
4, 0.00000, 0.232417, 0.0990093, 0.226087, 0.0963117, 0.23384, 0.099616, 0, 0
4, 60.00000, 0.232418, 0.0990095, 0.226084, 0.0963112, 0.233836, 0.0996139, 0, 0
4, 120.00000, 0.232418, 0.0990095, 0.226084, 0.0963112, 0.233836, 0.0996139, 0, 0
4, 180.00000, 0.232418, 0.0990095, 0.226084, 0.0963112, 0.233836, 0.0996139, 0, 0
4, 240.00000, 0.232418, 0.0990095, 0.226084, 0.0963112, 0.233836, 0.0996139, 0, 0
4, 300.00000, 0.232418, 0.0990095, 0.226084, 0.0963112, 0.233836, 0.0996139, 0, 0
4, 360.00000, 0.232418, 0.0990095, 0.226084, 0.0963112, 0.233836, 0.0996139, 0, 0
4, 420.00000, 0.232418, 0.0990095, 0.226084, 0.0963112, 0.233836, 0.0996139, 0, 0
4, 480.00000, 0.232418, 0.0990095, 0.226084, 0.0963112, 0.233836, 0.0996139, 0, 0
