hour,t(sec),"P1 (kW)","Q1 (kvar)","P2 (kW)","Q2 (kvar)","P3 (kW)","Q3 (kvar)","P4 (kW)","Q4 (kvar)"
0, 60.00000, 0.544901, 0.232124, 0.543338, 0.231459, 0.564666, 0.240545, 0, 0
0, 120.00000, 0.544896, 0.232125, 0.543332, 0.231458, 0.564661, 0.240545, 0, 0
0, 180.00000, 0.544896, 0.232125, 0.543332, 0.231458, 0.564661, 0.240545, 0, 0
0, 240.00000, 0.544896, 0.232125, 0.543332, 0.231458, 0.564661, 0.240545, 0, 0
0, 300.00000, 0.544896, 0.232125, 0.543332, 0.231458, 0.564661, 0.240545, 0, 0
0, 360.00000, 0.544896, 0.232125, 0.543332, 0.231458, 0.564661, 0.240545, 0, 0
0, 420.00000, 0.544896, 0.232125, 0.543332, 0.231458, 0.564661, 0.240545, 0, 0
0, 480.00000, 0.482436, 0.205521, 0.480661, 0.204763, 0.499336, 0.212719, 0, 0
0, 540.00000, 0.482442, 0.205519, 0.480667, 0.204763, 0.499342, 0.212719, 0, 0
0, 600.00000, 0.482442, 0.205519, 0.480667, 0.204763, 0.499342, 0.212719, 0, 0
0, 660.00000, 0.482442, 0.205519, 0.480667, 0.204763, 0.499342, 0.212719, 0, 0
0, 720.00000, 0.482442, 0.205519, 0.480667, 0.204763, 0.499342, 0.212719, 0, 0
0, 780.00000, 0.482442, 0.205519, 0.480667, 0.204763, 0.499342, 0.212719, 0, 0
0, 840.00000, 0.482442, 0.205519, 0.480667, 0.204763, 0.499342, 0.212719, 0, 0
0, 900.00000, 0.482442, 0.205519, 0.480667, 0.204763, 0.499342, 0.212719, 0, 0
0, 960.00000, 0.478928, 0.204018, 0.467077, 0.198972, 0.483681, 0.206046, 0, 0
0, 1020.00000, 0.478919, 0.204019, 0.467072, 0.198972, 0.483671, 0.206043, 0, 0
0, 1080.00000, 0.478919, 0.204019, 0.467072, 0.198972, 0.483671, 0.206043, 0, 0
0, 1140.00000, 0.481623, 0.205174, 0.467073, 0.198973, 0.484666, 0.206468, 0, 0
0, 1200.00000, 0.481629, 0.205173, 0.467073, 0.198972, 0.484668, 0.206468, 0, 0
0, 1260.00000, 0.481629, 0.205173, 0.467073, 0.198972, 0.484668, 0.206468, 0, 0
0, 1320.00000, 0.481629, 0.205173, 0.467073, 0.198972, 0.484668, 0.206468, 0, 0
0, 1380.00000, 0.481629, 0.205173, 0.467073, 0.198972, 0.484668, 0.206468, 0, 0
0, 1440.00000, 0.481629, 0.205173, 0.467073, 0.198972, 0.484668, 0.206468, 0, 0
0, 1500.00000, 0.481629, 0.205173, 0.467073, 0.198972, 0.484668, 0.206468, 0, 0
0, 1560.00000, 0.481629, 0.205173, 0.467073, 0.198972, 0.484668, 0.206468, 0, 0
0, 1620.00000, 0.481629, 0.205173, 0.467073, 0.198972, 0.484668, 0.206468, 0, 0
0, 1680.00000, 0.481629, 0.205173, 0.467073, 0.198972, 0.484668, 0.206468, 0, 0
0, 1740.00000, 0.481629, 0.205173, 0.467073, 0.198972, 0.484668, 0.206468, 0, 0
0, 1800.00000, 0.475116, 0.202397, 0.459545, 0.195766, 0.485095, 0.206651, 0, 0
0, 1860.00000, 0.475113, 0.202397, 0.459542, 0.195764, 0.485097, 0.20665, 0, 0
0, 1920.00000, 0.475113, 0.202397, 0.459542, 0.195764, 0.485097, 0.20665, 0, 0
0, 1980.00000, 0.475113, 0.202397, 0.459542, 0.195764, 0.485097, 0.20665, 0, 0
0, 2040.00000, 0.475113, 0.202397, 0.459542, 0.195764, 0.485097, 0.20665, 0, 0
0, 2100.00000, 0.475113, 0.202397, 0.459542, 0.195764, 0.485097, 0.20665, 0, 0
0, 2160.00000, 0.475113, 0.202397, 0.459542, 0.195764, 0.485097, 0.20665, 0, 0
0, 2220.00000, 0.475113, 0.202397, 0.459542, 0.195764, 0.485097, 0.20665, 0, 0
0, 2280.00000, 0.475113, 0.202397, 0.459542, 0.195764, 0.485097, 0.20665, 0, 0
0, 2340.00000, 0.475113, 0.202397, 0.459542, 0.195764, 0.485097, 0.20665, 0, 0
0, 2400.00000, 0.475113, 0.202397, 0.459542, 0.195764, 0.485097, 0.20665, 0, 0
0, 2460.00000, 0.475113, 0.202397, 0.459542, 0.195764, 0.485097, 0.20665, 0, 0
0, 2520.00000, 0.475113, 0.202397, 0.459542, 0.195764, 0.485097, 0.20665, 0, 0
0, 2580.00000, 0.475113, 0.202397, 0.459542, 0.195764, 0.485097, 0.20665, 0, 0
0, 2640.00000, 0.475113, 0.202397, 0.459542, 0.195764, 0.485097, 0.20665, 0, 0
0, 2700.00000, 0.475113, 0.202397, 0.459542, 0.195764, 0.485097, 0.20665, 0, 0
0, 2760.00000, 0.476402, 0.202947, 0.46247, 0.197014, 0.484983, 0.206602, 0, 0
0, 2820.00000, 0.476405, 0.202948, 0.462475, 0.197013, 0.484981, 0.206601, 0, 0
0, 2880.00000, 0.476405, 0.202948, 0.462475, 0.197013, 0.484981, 0.206601, 0, 0
0, 2940.00000, 0.476405, 0.202948, 0.462475, 0.197013, 0.484981, 0.206601, 0, 0
0, 3000.00000, 0.476405, 0.202948, 0.462475, 0.197013, 0.484981, 0.206601, 0, 0
0, 3060.00000, 0.476405, 0.202948, 0.462475, 0.197013, 0.484981, 0.206601, 0, 0
0, 3120.00000, 0.476405, 0.202948, 0.462475, 0.197013, 0.484981, 0.206601, 0, 0
0, 3180.00000, 0.476405, 0.202948, 0.462475, 0.197013, 0.484981, 0.206601, 0, 0
0, 3240.00000, 0.476405, 0.202948, 0.462475, 0.197013, 0.484981, 0.206601, 0, 0
0, 3300.00000, 0.476405, 0.202948, 0.462475, 0.197013, 0.484981, 0.206601, 0, 0
0, 3360.00000, 0.476405, 0.202948, 0.462475, 0.197013, 0.484981, 0.206601, 0, 0
0, 3420.00000, 0.476405, 0.202948, 0.462475, 0.197013, 0.484981, 0.206601, 0, 0
0, 3480.00000, 0.476405, 0.202948, 0.462475, 0.197013, 0.484981, 0.206601, 0, 0
0, 3540.00000, 0.476405, 0.202948, 0.462475, 0.197013, 0.484981, 0.206601, 0, 0
1, 0.00000, 0.476405, 0.202948, 0.462475, 0.197013, 0.484981, 0.206601, 0, 0
1, 60.00000, 0.477297, 0.203328, 0.464981, 0.198083, 0.48493, 0.206579, 0, 0
1, 120.00000, 0.477298, 0.203328, 0.464985, 0.198083, 0.484929, 0.206579, 0, 0
1, 180.00000, 0.477298, 0.203328, 0.464985, 0.198083, 0.484929, 0.206579, 0, 0
1, 240.00000, 0.477298, 0.203328, 0.464985, 0.198083, 0.484929, 0.206579, 0, 0
1, 300.00000, 0.477298, 0.203328, 0.464985, 0.198083, 0.484929, 0.206579, 0, 0
1, 360.00000, 0.477298, 0.203328, 0.464985, 0.198083, 0.484929, 0.206579, 0, 0
1, 420.00000, 0.477298, 0.203328, 0.464985, 0.198083, 0.484929, 0.206579, 0, 0
1, 480.00000, 0.477298, 0.203328, 0.464985, 0.198083, 0.484929, 0.206579, 0, 0
1, 540.00000, 0.477298, 0.203328, 0.464985, 0.198083, 0.484929, 0.206579, 0, 0
1, 600.00000, 0.477298, 0.203328, 0.464985, 0.198083, 0.484929, 0.206579, 0, 0
1, 660.00000, 0.477298, 0.203328, 0.464985, 0.198083, 0.484929, 0.206579, 0, 0
1, 720.00000, 0.477298, 0.203328, 0.464985, 0.198083, 0.484929, 0.206579, 0, 0
1, 780.00000, 0.477557, 0.203439, 0.467642, 0.199215, 0.489357, 0.208467, 0, 0
1, 840.00000, 0.477556, 0.203438, 0.467644, 0.199215, 0.489361, 0.208467, 0, 0
1, 900.00000, 0.477556, 0.203438, 0.467644, 0.199215, 0.489361, 0.208467, 0, 0
1, 960.00000, 0.477556, 0.203438, 0.467644, 0.199215, 0.489361, 0.208467, 0, 0
1, 1020.00000, 0.477556, 0.203438, 0.467644, 0.199215, 0.489361, 0.208467, 0, 0
1, 1080.00000, 0.477556, 0.203438, 0.467644, 0.199215, 0.489361, 0.208467, 0, 0
1, 1140.00000, 0.477556, 0.203438, 0.467644, 0.199215, 0.489361, 0.208467, 0, 0
1, 1200.00000, 0.477556, 0.203438, 0.467644, 0.199215, 0.489361, 0.208467, 0, 0
1, 1260.00000, 0.477556, 0.203438, 0.467644, 0.199215, 0.489361, 0.208467, 0, 0
1, 1320.00000, 0.477556, 0.203438, 0.467644, 0.199215, 0.489361, 0.208467, 0, 0
1, 1380.00000, 0.477556, 0.203438, 0.467644, 0.199215, 0.489361, 0.208467, 0, 0
1, 1440.00000, 0.477556, 0.203438, 0.467644, 0.199215, 0.489361, 0.208467, 0, 0
1, 1500.00000, 0.477556, 0.203438, 0.467644, 0.199215, 0.489361, 0.208467, 0, 0
1, 1560.00000, 0.477556, 0.203438, 0.467644, 0.199215, 0.489361, 0.208467, 0, 0
1, 1620.00000, 0.477556, 0.203438, 0.467644, 0.199215, 0.489361, 0.208467, 0, 0
1, 1680.00000, 0.477556, 0.203438, 0.467644, 0.199215, 0.489361, 0.208467, 0, 0
1, 1740.00000, 0.477556, 0.203438, 0.467644, 0.199215, 0.489361, 0.208467, 0, 0
1, 1800.00000, 0.477556, 0.203438, 0.467644, 0.199215, 0.489361, 0.208467, 0, 0
1, 1860.00000, 0.477556, 0.203438, 0.467644, 0.199215, 0.489361, 0.208467, 0, 0
1, 1920.00000, 0.477556, 0.203438, 0.467644, 0.199215, 0.489361, 0.208467, 0, 0
1, 1980.00000, 0.477556, 0.203438, 0.467644, 0.199215, 0.489361, 0.208467, 0, 0
1, 2040.00000, 0.477556, 0.203438, 0.467644, 0.199215, 0.489361, 0.208467, 0, 0
1, 2100.00000, 0.477556, 0.203438, 0.467644, 0.199215, 0.489361, 0.208467, 0, 0
1, 2160.00000, 0.477556, 0.203438, 0.467644, 0.199215, 0.489361, 0.208467, 0, 0
1, 2220.00000, 0.484108, 0.206229, 0.475305, 0.20248, 0.488934, 0.208284, 0, 0
1, 2280.00000, 0.484109, 0.20623, 0.475309, 0.202481, 0.488933, 0.208285, 0, 0
1, 2340.00000, 0.484109, 0.20623, 0.475309, 0.202481, 0.488933, 0.208285, 0, 0
1, 2400.00000, 0.484109, 0.20623, 0.475309, 0.202481, 0.488933, 0.208285, 0, 0
1, 2460.00000, 0.484109, 0.20623, 0.475309, 0.202481, 0.488933, 0.208285, 0, 0
1, 2520.00000, 0.484109, 0.20623, 0.475309, 0.202481, 0.488933, 0.208285, 0, 0
1, 2580.00000, 0.484109, 0.20623, 0.475309, 0.202481, 0.488933, 0.208285, 0, 0
1, 2640.00000, 0.484109, 0.20623, 0.475309, 0.202481, 0.488933, 0.208285, 0, 0
1, 2700.00000, 0.484109, 0.20623, 0.475309, 0.202481, 0.488933, 0.208285, 0, 0
1, 2760.00000, 0.484109, 0.20623, 0.475309, 0.202481, 0.488933, 0.208285, 0, 0
1, 2820.00000, 0.484109, 0.20623, 0.475309, 0.202481, 0.488933, 0.208285, 0, 0
1, 2880.00000, 0.484109, 0.20623, 0.475309, 0.202481, 0.488933, 0.208285, 0, 0
1, 2940.00000, 0.484109, 0.20623, 0.475309, 0.202481, 0.488933, 0.208285, 0, 0
1, 3000.00000, 0.484109, 0.20623, 0.475309, 0.202481, 0.488933, 0.208285, 0, 0
1, 3060.00000, 0.484109, 0.20623, 0.475309, 0.202481, 0.488933, 0.208285, 0, 0
1, 3120.00000, 0.484109, 0.20623, 0.475309, 0.202481, 0.488933, 0.208285, 0, 0
1, 3180.00000, 0.484109, 0.20623, 0.475309, 0.202481, 0.488933, 0.208285, 0, 0
1, 3240.00000, 0.484109, 0.20623, 0.475309, 0.202481, 0.488933, 0.208285, 0, 0
1, 3300.00000, 0.484109, 0.20623, 0.475309, 0.202481, 0.488933, 0.208285, 0, 0
1, 3360.00000, 0.484109, 0.20623, 0.475309, 0.202481, 0.488933, 0.208285, 0, 0
1, 3420.00000, 0.484109, 0.20623, 0.475309, 0.202481, 0.488933, 0.208285, 0, 0
1, 3480.00000, 0.484109, 0.20623, 0.475309, 0.202481, 0.488933, 0.208285, 0, 0
1, 3540.00000, 0.484109, 0.20623, 0.475309, 0.202481, 0.488933, 0.208285, 0, 0
2, 0.00000, 0.484109, 0.20623, 0.475309, 0.202481, 0.488933, 0.208285, 0, 0
2, 60.00000, 0.484109, 0.20623, 0.475309, 0.202481, 0.488933, 0.208285, 0, 0
2, 120.00000, 0.484109, 0.20623, 0.475309, 0.202481, 0.488933, 0.208285, 0, 0
2, 180.00000, 0.484109, 0.20623, 0.475309, 0.202481, 0.488933, 0.208285, 0, 0
2, 240.00000, 0.484109, 0.20623, 0.475309, 0.202481, 0.488933, 0.208285, 0, 0
2, 300.00000, 0.484109, 0.20623, 0.475309, 0.202481, 0.488933, 0.208285, 0, 0
2, 360.00000, 0.484109, 0.20623, 0.475309, 0.202481, 0.488933, 0.208285, 0, 0
2, 420.00000, 0.484109, 0.20623, 0.475309, 0.202481, 0.488933, 0.208285, 0, 0
2, 480.00000, 0.484109, 0.20623, 0.475309, 0.202481, 0.488933, 0.208285, 0, 0
2, 540.00000, 0.484109, 0.20623, 0.475309, 0.202481, 0.488933, 0.208285, 0, 0
2, 600.00000, 0.484109, 0.20623, 0.475309, 0.202481, 0.488933, 0.208285, 0, 0
2, 660.00000, 0.484109, 0.20623, 0.475309, 0.202481, 0.488933, 0.208285, 0, 0
2, 720.00000, 0.484109, 0.20623, 0.475309, 0.202481, 0.488933, 0.208285, 0, 0
2, 780.00000, 0.484109, 0.20623, 0.475309, 0.202481, 0.488933, 0.208285, 0, 0
2, 840.00000, 0.484903, 0.206569, 0.489202, 0.208399, 0.50393, 0.214676, 0, 0
2, 900.00000, 0.484902, 0.206567, 0.489204, 0.2084, 0.503941, 0.214678, 0, 0
2, 960.00000, 0.484902, 0.206567, 0.489204, 0.2084, 0.503941, 0.214678, 0, 0
2, 1020.00000, 0.484902, 0.206567, 0.489204, 0.2084, 0.503941, 0.214678, 0, 0
2, 1080.00000, 0.484902, 0.206567, 0.489204, 0.2084, 0.503941, 0.214678, 0, 0
2, 1140.00000, 0.484902, 0.206567, 0.489204, 0.2084, 0.503941, 0.214678, 0, 0
2, 1200.00000, 0.484902, 0.206567, 0.489204, 0.2084, 0.503941, 0.214678, 0, 0
2, 1260.00000, 0.484902, 0.206567, 0.489204, 0.2084, 0.503941, 0.214678, 0, 0
2, 1320.00000, 0.484902, 0.206567, 0.489204, 0.2084, 0.503941, 0.214678, 0, 0
2, 1380.00000, 0.484902, 0.206567, 0.489204, 0.2084, 0.503941, 0.214678, 0, 0
2, 1440.00000, 0.484902, 0.206567, 0.489204, 0.2084, 0.503941, 0.214678, 0, 0
2, 1500.00000, 0.484902, 0.206567, 0.489204, 0.2084, 0.503941, 0.214678, 0, 0
2, 1560.00000, 0.484902, 0.206567, 0.489204, 0.2084, 0.503941, 0.214678, 0, 0
2, 1620.00000, 0.484902, 0.206567, 0.489204, 0.2084, 0.503941, 0.214678, 0, 0
2, 1680.00000, 0.484902, 0.206567, 0.489204, 0.2084, 0.503941, 0.214678, 0, 0
2, 1740.00000, 0.484902, 0.206567, 0.489204, 0.2084, 0.503941, 0.214678, 0, 0
2, 1800.00000, 0.484902, 0.206567, 0.489204, 0.2084, 0.503941, 0.214678, 0, 0
2, 1860.00000, 0.484902, 0.206567, 0.489204, 0.2084, 0.503941, 0.214678, 0, 0
2, 1920.00000, 0.484902, 0.206567, 0.489204, 0.2084, 0.503941, 0.214678, 0, 0
2, 1980.00000, 0.484902, 0.206567, 0.489204, 0.2084, 0.503941, 0.214678, 0, 0
2, 2040.00000, 0.484902, 0.206567, 0.489204, 0.2084, 0.503941, 0.214678, 0, 0
2, 2100.00000, 0.484902, 0.206567, 0.489204, 0.2084, 0.503941, 0.214678, 0, 0
2, 2160.00000, 0.484902, 0.206567, 0.489204, 0.2084, 0.503941, 0.214678, 0, 0
2, 2220.00000, 0.484902, 0.206567, 0.489204, 0.2084, 0.503941, 0.214678, 0, 0
2, 2280.00000, 0.484902, 0.206567, 0.489204, 0.2084, 0.503941, 0.214678, 0, 0
2, 2340.00000, 0.484902, 0.206567, 0.489204, 0.2084, 0.503941, 0.214678, 0, 0
2, 2400.00000, 0.489707, 0.208619, 0.48918, 0.208389, 0.506889, 0.215937, 0, 0
2, 2460.00000, 0.489714, 0.208617, 0.489178, 0.208389, 0.5069, 0.215938, 0, 0
2, 2520.00000, 0.489714, 0.208617, 0.489178, 0.208389, 0.5069, 0.215939, 0, 0
2, 2580.00000, 0.489714, 0.208617, 0.489178, 0.208389, 0.5069, 0.215939, 0, 0
2, 2640.00000, 0.489714, 0.208617, 0.489178, 0.208389, 0.5069, 0.215939, 0, 0
2, 2700.00000, 0.48922, 0.208406, 0.482429, 0.205514, 0.498354, 0.212295, 0, 0
2, 2760.00000, 0.48922, 0.208407, 0.482428, 0.205514, 0.498346, 0.212295, 0, 0
2, 2820.00000, 0.48922, 0.208407, 0.482428, 0.205514, 0.498346, 0.212295, 0, 0
2, 2880.00000, 0.48922, 0.208407, 0.482428, 0.205514, 0.498346, 0.212295, 0, 0
2, 2940.00000, 0.48922, 0.208407, 0.482428, 0.205514, 0.498346, 0.212295, 0, 0
2, 3000.00000, 0.48922, 0.208407, 0.482428, 0.205514, 0.498346, 0.212295, 0, 0
2, 3060.00000, 0.489289, 0.208437, 0.483543, 0.205988, 0.501296, 0.213555, 0, 0
2, 3120.00000, 0.489288, 0.208436, 0.483545, 0.205989, 0.501307, 0.213556, 0, 0
2, 3180.00000, 0.489288, 0.208436, 0.483545, 0.205989, 0.501307, 0.213556, 0, 0
2, 3240.00000, 0.489288, 0.208436, 0.483545, 0.205989, 0.501307, 0.213556, 0, 0
2, 3300.00000, 0.489288, 0.208436, 0.483545, 0.205989, 0.501307, 0.213556, 0, 0
2, 3360.00000, 0.489288, 0.208436, 0.483545, 0.205989, 0.501307, 0.213556, 0, 0
2, 3420.00000, 0.489288, 0.208436, 0.483545, 0.205989, 0.501307, 0.213556, 0, 0
2, 3480.00000, 0.489288, 0.208436, 0.483545, 0.205989, 0.501307, 0.213556, 0, 0
2, 3540.00000, 0.489288, 0.208436, 0.483545, 0.205989, 0.501307, 0.213556, 0, 0
3, 0.00000, 0.489288, 0.208436, 0.483545, 0.205989, 0.501307, 0.213556, 0, 0
3, 60.00000, 0.489288, 0.208436, 0.483545, 0.205989, 0.501307, 0.213556, 0, 0
3, 120.00000, 0.489288, 0.208436, 0.483545, 0.205989, 0.501307, 0.213556, 0, 0
3, 180.00000, 0.489288, 0.208436, 0.483545, 0.205989, 0.501307, 0.213556, 0, 0
3, 240.00000, 0.489288, 0.208436, 0.483545, 0.205989, 0.501307, 0.213556, 0, 0
3, 300.00000, 0.489288, 0.208436, 0.483545, 0.205989, 0.501307, 0.213556, 0, 0
3, 360.00000, 0.489288, 0.208436, 0.483545, 0.205989, 0.501307, 0.213556, 0, 0
3, 420.00000, 0.489288, 0.208436, 0.483545, 0.205989, 0.501307, 0.213556, 0, 0
3, 480.00000, 0.489288, 0.208436, 0.483545, 0.205989, 0.501307, 0.213556, 0, 0
3, 540.00000, 0.489288, 0.208436, 0.483545, 0.205989, 0.501307, 0.213556, 0, 0
3, 600.00000, 0.489288, 0.208436, 0.483545, 0.205989, 0.501307, 0.213556, 0, 0
3, 660.00000, 0.489288, 0.208436, 0.483545, 0.205989, 0.501307, 0.213556, 0, 0
3, 720.00000, 0.489288, 0.208436, 0.483545, 0.205989, 0.501307, 0.213556, 0, 0
3, 780.00000, 0.489288, 0.208436, 0.483545, 0.205989, 0.501307, 0.213556, 0, 0
3, 840.00000, 0.489288, 0.208436, 0.483545, 0.205989, 0.501307, 0.213556, 0, 0
3, 900.00000, 0.489288, 0.208436, 0.483545, 0.205989, 0.501307, 0.213556, 0, 0
3, 960.00000, 0.489288, 0.208436, 0.483545, 0.205989, 0.501307, 0.213556, 0, 0
3, 1020.00000, 0.489288, 0.208436, 0.483545, 0.205989, 0.501307, 0.213556, 0, 0
3, 1080.00000, 0.489288, 0.208436, 0.483545, 0.205989, 0.501307, 0.213556, 0, 0
3, 1140.00000, 0.489288, 0.208436, 0.483545, 0.205989, 0.501307, 0.213556, 0, 0
3, 1200.00000, 0.489288, 0.208436, 0.483545, 0.205989, 0.501307, 0.213556, 0, 0
3, 1260.00000, 0.489288, 0.208436, 0.483545, 0.205989, 0.501307, 0.213556, 0, 0
3, 1320.00000, 0.489288, 0.208436, 0.483545, 0.205989, 0.501307, 0.213556, 0, 0
3, 1380.00000, 0.489288, 0.208436, 0.483545, 0.205989, 0.501307, 0.213556, 0, 0
3, 1440.00000, 0.489288, 0.208436, 0.483545, 0.205989, 0.501307, 0.213556, 0, 0
3, 1500.00000, 0.489288, 0.208436, 0.483545, 0.205989, 0.501307, 0.213556, 0, 0
3, 1560.00000, 0.489288, 0.208436, 0.483545, 0.205989, 0.501307, 0.213556, 0, 0
3, 1620.00000, 0.489288, 0.208436, 0.483545, 0.205989, 0.501307, 0.213556, 0, 0
3, 1680.00000, 0.489288, 0.208436, 0.483545, 0.205989, 0.501307, 0.213556, 0, 0
3, 1740.00000, 0.489288, 0.208436, 0.483545, 0.205989, 0.501307, 0.213556, 0, 0
3, 1800.00000, 0.489288, 0.208436, 0.483545, 0.205989, 0.501307, 0.213556, 0, 0
3, 1860.00000, 0.489288, 0.208436, 0.483545, 0.205989, 0.501307, 0.213556, 0, 0
3, 1920.00000, 0.489288, 0.208436, 0.483545, 0.205989, 0.501307, 0.213556, 0, 0
3, 1980.00000, 0.489288, 0.208436, 0.483545, 0.205989, 0.501307, 0.213556, 0, 0
3, 2040.00000, 0.489288, 0.208436, 0.483545, 0.205989, 0.501307, 0.213556, 0, 0
3, 2100.00000, 0.489288, 0.208436, 0.483545, 0.205989, 0.501307, 0.213556, 0, 0
3, 2160.00000, 0.489288, 0.208436, 0.483545, 0.205989, 0.501307, 0.213556, 0, 0
3, 2220.00000, 0.489288, 0.208436, 0.483545, 0.205989, 0.501307, 0.213556, 0, 0
3, 2280.00000, 0.489288, 0.208436, 0.483545, 0.205989, 0.501307, 0.213556, 0, 0
3, 2340.00000, 0.489288, 0.208436, 0.483545, 0.205989, 0.501307, 0.213556, 0, 0
3, 2400.00000, 0.489288, 0.208436, 0.483545, 0.205989, 0.501307, 0.213556, 0, 0
3, 2460.00000, 0.489288, 0.208436, 0.483545, 0.205989, 0.501307, 0.213556, 0, 0
3, 2520.00000, 0.489288, 0.208436, 0.483545, 0.205989, 0.501307, 0.213556, 0, 0
3, 2580.00000, 0.489288, 0.208436, 0.483545, 0.205989, 0.501307, 0.213556, 0, 0
3, 2640.00000, 0.489288, 0.208436, 0.483545, 0.205989, 0.501307, 0.213556, 0, 0
3, 2700.00000, 0.489288, 0.208436, 0.483545, 0.205989, 0.501307, 0.213556, 0, 0
3, 2760.00000, 0.489288, 0.208436, 0.483545, 0.205989, 0.501307, 0.213556, 0, 0
3, 2820.00000, 0.489288, 0.208436, 0.483545, 0.205989, 0.501307, 0.213556, 0, 0
3, 2880.00000, 0.489288, 0.208436, 0.483545, 0.205989, 0.501307, 0.213556, 0, 0
3, 2940.00000, 0.489288, 0.208436, 0.483545, 0.205989, 0.501307, 0.213556, 0, 0
3, 3000.00000, 0.489288, 0.208436, 0.483545, 0.205989, 0.501307, 0.213556, 0, 0
3, 3060.00000, 0.489288, 0.208436, 0.483545, 0.205989, 0.501307, 0.213556, 0, 0
3, 3120.00000, 0.489288, 0.208436, 0.483545, 0.205989, 0.501307, 0.213556, 0, 0
3, 3180.00000, 0.515875, 0.21976, 0.509918, 0.217224, 0.528646, 0.225201, 0, 0
3, 3240.00000, 0.515873, 0.219761, 0.509917, 0.217224, 0.528643, 0.225201, 0, 0
3, 3300.00000, 0.515873, 0.219761, 0.509917, 0.217224, 0.528643, 0.225201, 0, 0
3, 3360.00000, 0.515873, 0.219761, 0.509917, 0.217224, 0.528643, 0.225201, 0, 0
3, 3420.00000, 0.515873, 0.219761, 0.509917, 0.217224, 0.528643, 0.225201, 0, 0
3, 3480.00000, 0.515873, 0.219761, 0.509917, 0.217224, 0.528643, 0.225201, 0, 0
3, 3540.00000, 0.515873, 0.219761, 0.509917, 0.217224, 0.528643, 0.225201, 0, 0
4, 0.00000, 0.515622, 0.219654, 0.505715, 0.215432, 0.522687, 0.222663, 0, 0
4, 60.00000, 0.515622, 0.219654, 0.505711, 0.215432, 0.522681, 0.222661, 0, 0
4, 120.00000, 0.515622, 0.219654, 0.505711, 0.215432, 0.522681, 0.222661, 0, 0
4, 180.00000, 0.515622, 0.219654, 0.505711, 0.215432, 0.522681, 0.222661, 0, 0
4, 240.00000, 0.515622, 0.219654, 0.505711, 0.215432, 0.522681, 0.222661, 0, 0
4, 300.00000, 0.515622, 0.219654, 0.505711, 0.215432, 0.522681, 0.222661, 0, 0
4, 360.00000, 0.515622, 0.219654, 0.505711, 0.215432, 0.522681, 0.222661, 0, 0
4, 420.00000, 0.515622, 0.219654, 0.505711, 0.215432, 0.522681, 0.222661, 0, 0
4, 480.00000, 0.515622, 0.219654, 0.505711, 0.215432, 0.522681, 0.222661, 0, 0
4, 540.00000, 0.515622, 0.219654, 0.505711, 0.215432, 0.522681, 0.222661, 0, 0
4, 600.00000, 0.515622, 0.219654, 0.505711, 0.215432, 0.522681, 0.222661, 0, 0
4, 660.00000, 0.515622, 0.219654, 0.505711, 0.215432, 0.522681, 0.222661, 0, 0
