hour,t(sec),V1,VAngle1,V2,VAngle2,V3,VAngle3,V4,VAngle4,I1,IAngle1,I2,IAngle2,I3,IAngle3,I4,IAngle4
0, 60.00000, 126.019, -32.1621, 125.024, -151.661, 126.556, 88.4963, 0, 0, 6.28916, -55.2357, 6.33922, -174.735, 6.26258, 65.4223, 0.132714, 23.5987
0, 120.00000, 126.026, -32.168, 125.024, -151.661, 126.572, 88.4962, 0, 0, 6.28884, -55.2416, 6.33922, -174.735, 6.26178, 65.4222, 0.133997, 23.7509
0, 180.00000, 126.032, -32.1733, 125.024, -151.661, 126.586, 88.496, 0, 0, 6.28855, -55.247, 6.33922, -174.735, 6.26107, 65.4221, 0.135151, 23.8859
0, 240.00000, 126.037, -32.178, 125.025, -151.661, 126.599, 88.4959, 0, 0, 6.2883, -55.2517, 6.33922, -174.735, 6.26043, 65.422, 0.13619, 24.006
0, 300.00000, 126.041, -32.1823, 125.025, -151.661, 126.611, 88.4958, 0, 0, 6.28806, -55.2561, 6.33922, -174.735, 6.25985, 65.4219, 0.137126, 24.1129
0, 360.00000, 126.046, -32.1862, 125.025, -151.661, 126.621, 88.4957, 0, 0, 6.28786, -55.2599, 6.33922, -174.735, 6.25933, 65.4218, 0.137968, 24.2083
0, 420.00000, 126.049, -32.1897, 125.025, -151.661, 126.631, 88.4957, 0, 0, 6.28767, -55.2635, 6.33922, -174.735, 6.25886, 65.4217, 0.138727, 24.2934
0, 480.00000, 126.426, -32.0718, 125.381, -151.533, 127.039, 88.6324, 0, 0, 5.66436, -55.1456, 5.71157, -174.607, 5.63707, 65.5584, 0.128244, 24.4808
0, 540.00000, 126.429, -32.0747, 125.381, -151.533, 127.047, 88.6323, 0, 0, 5.66422, -55.1484, 5.71157, -174.607, 5.63672, 65.5584, 0.128812, 24.5484
0, 600.00000, 126.432, -32.0772, 125.381, -151.533, 127.054, 88.6323, 0, 0, 5.6641, -55.151, 5.71157, -174.607, 5.63641, 65.5583, 0.129321, 24.6087
0, 660.00000, 126.434, -32.0796, 125.381, -151.533, 127.06, 88.6322, 0, 0, 5.66399, -55.1534, 5.71157, -174.607, 5.63612, 65.5583, 0.12978, 24.6627
0, 720.00000, 126.436, -32.0816, 125.381, -151.533, 127.066, 88.6322, 0, 0, 5.66389, -55.1555, 5.71157, -174.607, 5.63587, 65.5583, 0.130192, 24.711
0, 780.00000, 126.438, -32.0835, 125.381, -151.533, 127.071, 88.6322, 0, 0, 5.6638, -55.1573, 5.71157, -174.607, 5.63564, 65.5582, 0.130564, 24.7543
0, 840.00000, 126.44, -32.0852, 125.381, -151.533, 127.076, 88.6321, 0, 0, 5.66372, -55.159, 5.71157, -174.607, 5.63543, 65.5582, 0.130898, 24.7932
0, 900.00000, 126.442, -32.0867, 125.381, -151.533, 127.08, 88.6321, 0, 0, 5.66364, -55.1606, 5.71157, -174.607, 5.63525, 65.5582, 0.131199, 24.828
0, 960.00000, 126.153, -32.1118, 125.382, -151.534, 126.95, 88.5024, 0, 0, 5.67662, -55.1856, 5.71155, -174.608, 5.64099, 65.4285, 0.12018, 33.9465
0, 1020.00000, 126.154, -32.113, 125.382, -151.534, 126.953, 88.5024, 0, 0, 5.67656, -55.1869, 5.71155, -174.608, 5.64085, 65.4285, 0.120426, 33.9585
0, 1080.00000, 126.155, -32.1141, 125.382, -151.534, 126.956, 88.5024, 0, 0, 5.67651, -55.188, 5.71155, -174.608, 5.64071, 65.4284, 0.120648, 33.9692
0, 1140.00000, 126.156, -32.1151, 125.382, -151.534, 126.959, 88.5023, 0, 0, 5.67647, -55.1889, 5.71155, -174.608, 5.64059, 65.4284, 0.120848, 33.9789
0, 1200.00000, 126.157, -32.116, 125.382, -151.534, 126.961, 88.5023, 0, 0, 5.67642, -55.1898, 5.71155, -174.608, 5.64048, 65.4284, 0.121028, 33.9876
0, 1260.00000, 126.158, -32.1168, 125.382, -151.534, 126.964, 88.5023, 0, 0, 5.67639, -55.1906, 5.71155, -174.608, 5.64039, 65.4284, 0.12119, 33.9954
0, 1320.00000, 126.159, -32.1175, 125.382, -151.534, 126.966, 88.5023, 0, 0, 5.67635, -55.1914, 5.71155, -174.608, 5.6403, 65.4284, 0.121335, 34.0024
0, 1380.00000, 126.16, -32.1181, 125.382, -151.534, 126.967, 88.5023, 0, 0, 5.67632, -55.192, 5.71155, -174.608, 5.64022, 65.4284, 0.121467, 34.0087
0, 1440.00000, 126.16, -32.1187, 125.382, -151.534, 126.969, 88.5023, 0, 0, 5.67629, -55.1926, 5.71155, -174.608, 5.64015, 65.4283, 0.121585, 34.0144
0, 1500.00000, 126.161, -32.1192, 125.382, -151.534, 126.97, 88.5023, 0, 0, 5.67627, -55.1931, 5.71155, -174.608, 5.64009, 65.4283, 0.121691, 34.0195
0, 1560.00000, 126.161, -32.1197, 125.382, -151.534, 126.972, 88.5022, 0, 0, 5.67625, -55.1936, 5.71155, -174.608, 5.64003, 65.4283, 0.121787, 34.0241
0, 1620.00000, 126.162, -32.1201, 125.382, -151.534, 126.973, 88.5022, 0, 0, 5.67623, -55.194, 5.71155, -174.608, 5.63998, 65.4283, 0.121873, 34.0282
0, 1680.00000, 126.162, -32.1205, 125.382, -151.534, 126.974, 88.5022, 0, 0, 5.67621, -55.1944, 5.71155, -174.608, 5.63993, 65.4283, 0.12195, 34.0319
0, 1740.00000, 126.162, -32.1208, 125.382, -151.534, 126.975, 88.5022, 0, 0, 5.67619, -55.1948, 5.71155, -174.608, 5.63989, 65.4283, 0.12202, 34.0353
0, 1800.00000, 126.163, -32.1212, 125.382, -151.534, 126.975, 88.5022, 0, 0, 5.67618, -55.1951, 5.71155, -174.608, 5.63985, 65.4283, 0.122083, 34.0383
0, 1860.00000, 126.163, -32.1214, 125.382, -151.534, 126.976, 88.5022, 0, 0, 5.67617, -55.1953, 5.71155, -174.608, 5.63982, 65.4283, 0.122139, 34.041
0, 1920.00000, 126.163, -32.1217, 125.382, -151.534, 126.977, 88.5022, 0, 0, 5.67615, -55.1956, 5.71155, -174.608, 5.63979, 65.4283, 0.12219, 34.0434
0, 1980.00000, 126.164, -32.1219, 125.382, -151.534, 126.978, 88.5022, 0, 0, 5.67614, -55.1958, 5.71155, -174.608, 5.63976, 65.4283, 0.122236, 34.0456
0, 2040.00000, 126.164, -32.1221, 125.382, -151.534, 126.978, 88.5022, 0, 0, 5.67613, -55.196, 5.71155, -174.608, 5.63974, 65.4283, 0.122277, 34.0476
0, 2100.00000, 126.164, -32.1223, 125.382, -151.534, 126.979, 88.5022, 0, 0, 5.67613, -55.1962, 5.71155, -174.608, 5.63971, 65.4283, 0.122314, 34.0494
0, 2160.00000, 126.164, -32.1225, 125.382, -151.534, 126.979, 88.5022, 0, 0, 5.67612, -55.1964, 5.71155, -174.608, 5.63969, 65.4283, 0.122348, 34.051
0, 2220.00000, 126.164, -32.1226, 125.382, -151.534, 126.979, 88.5022, 0, 0, 5.67611, -55.1965, 5.71155, -174.608, 5.63968, 65.4282, 0.122378, 34.0524
0, 2280.00000, 126.164, -32.1227, 125.382, -151.534, 126.98, 88.5022, 0, 0, 5.6761, -55.1967, 5.71155, -174.608, 5.63966, 65.4282, 0.122405, 34.0537
0, 2340.00000, 126.165, -32.1229, 125.382, -151.534, 126.98, 88.5022, 0, 0, 5.6761, -55.1968, 5.71155, -174.608, 5.63965, 65.4282, 0.122429, 34.0548
0, 2400.00000, 126.165, -32.123, 125.382, -151.534, 126.98, 88.5022, 0, 0, 5.67609, -55.1969, 5.71155, -174.608, 5.63963, 65.4282, 0.122451, 34.0559
0, 2460.00000, 126.165, -32.1231, 125.382, -151.534, 126.981, 88.5022, 0, 0, 5.67609, -55.197, 5.71155, -174.608, 5.63962, 65.4282, 0.12247, 34.0568
0, 2520.00000, 126.165, -32.1232, 125.382, -151.534, 126.981, 88.5022, 0, 0, 5.67608, -55.1971, 5.71155, -174.608, 5.63961, 65.4282, 0.122488, 34.0577
0, 2580.00000, 126.165, -32.1232, 125.382, -151.534, 126.981, 88.5022, 0, 0, 5.67608, -55.1972, 5.71155, -174.608, 5.6396, 65.4282, 0.122504, 34.0584
0, 2640.00000, 126.165, -32.1233, 125.382, -151.534, 126.981, 88.5022, 0, 0, 5.67608, -55.1972, 5.71155, -174.608, 5.63959, 65.4282, 0.122519, 34.0591
0, 2700.00000, 126.165, -32.1234, 125.382, -151.534, 126.981, 88.5022, 0, 0, 5.67607, -55.1973, 5.71155, -174.608, 5.63958, 65.4282, 0.122531, 34.0598
0, 2760.00000, 126.167, -32.1243, 125.468, -151.406, 127.285, 88.5408, 0, 0, 5.67598, -55.1982, 5.70763, -174.48, 5.62616, 65.4669, 0.139714, 40.919
0, 2820.00000, 126.167, -32.1244, 125.468, -151.406, 127.285, 88.5408, 0, 0, 5.67597, -55.1983, 5.70763, -174.48, 5.62615, 65.4669, 0.139726, 40.9189
0, 2880.00000, 126.167, -32.1244, 125.468, -151.406, 127.285, 88.5408, 0, 0, 5.67597, -55.1983, 5.70763, -174.48, 5.62615, 65.4669, 0.139735, 40.9188
0, 2940.00000, 126.167, -32.1244, 125.468, -151.406, 127.285, 88.5408, 0, 0, 5.67597, -55.1984, 5.70763, -174.48, 5.62614, 65.4669, 0.139743, 40.9187
0, 3000.00000, 126.167, -32.1245, 125.468, -151.406, 127.285, 88.5408, 0, 0, 5.67597, -55.1984, 5.70763, -174.48, 5.62614, 65.4669, 0.139751, 40.9187
0, 3060.00000, 126.168, -32.1245, 125.468, -151.406, 127.285, 88.5408, 0, 0, 5.67597, -55.1984, 5.70763, -174.48, 5.62613, 65.4669, 0.139758, 40.9186
0, 3120.00000, 126.168, -32.1245, 125.468, -151.406, 127.285, 88.5408, 0, 0, 5.67596, -55.1985, 5.70763, -174.48, 5.62613, 65.4669, 0.139764, 40.9186
0, 3180.00000, 126.168, -32.1246, 125.468, -151.406, 127.285, 88.5408, 0, 0, 5.67596, -55.1985, 5.70763, -174.48, 5.62613, 65.4669, 0.13977, 40.9185
0, 3240.00000, 126.168, -32.1246, 125.468, -151.406, 127.285, 88.5408, 0, 0, 5.67596, -55.1985, 5.70763, -174.48, 5.62612, 65.4669, 0.139775, 40.9185
0, 3300.00000, 126.168, -32.1246, 125.468, -151.406, 127.285, 88.5408, 0, 0, 5.67596, -55.1985, 5.70763, -174.48, 5.62612, 65.4669, 0.139779, 40.9184
0, 3360.00000, 126.168, -32.1246, 125.468, -151.406, 127.285, 88.5408, 0, 0, 5.67596, -55.1986, 5.70763, -174.48, 5.62612, 65.4669, 0.139783, 40.9184
0, 3420.00000, 126.168, -32.1247, 125.468, -151.406, 127.285, 88.5408, 0, 0, 5.67596, -55.1986, 5.70763, -174.48, 5.62611, 65.4669, 0.139787, 40.9184
0, 3480.00000, 126.168, -32.1247, 125.468, -151.406, 127.285, 88.5408, 0, 0, 5.67596, -55.1986, 5.70763, -174.48, 5.62611, 65.4669, 0.13979, 40.9184
0, 3540.00000, 126.168, -32.1247, 125.468, -151.406, 127.286, 88.5408, 0, 0, 5.67596, -55.1986, 5.70763, -174.48, 5.62611, 65.4669, 0.139793, 40.9183
1, 0.00000, 126.168, -32.1247, 125.468, -151.406, 127.286, 88.5408, 0, 0, 5.67596, -55.1986, 5.70763, -174.48, 5.62611, 65.4669, 0.139796, 40.9183
1, 60.00000, 126.254, -31.9973, 125.758, -151.373, 127.286, 88.5415, 0, 0, 5.67209, -55.0713, 5.69447, -174.447, 5.62609, 65.4676, 0.118343, 44.6776
1, 120.00000, 126.254, -31.9974, 125.758, -151.373, 127.286, 88.5415, 0, 0, 5.67208, -55.0713, 5.69447, -174.447, 5.62609, 65.4676, 0.118346, 44.6776
1, 180.00000, 126.254, -31.9974, 125.758, -151.373, 127.286, 88.5415, 0, 0, 5.67208, -55.0713, 5.69447, -174.447, 5.62609, 65.4676, 0.118347, 44.6775
1, 240.00000, 126.254, -31.9974, 125.758, -151.373, 127.286, 88.5415, 0, 0, 5.67208, -55.0713, 5.69447, -174.447, 5.62609, 65.4676, 0.118349, 44.6774
1, 300.00000, 126.254, -31.9974, 125.758, -151.373, 127.286, 88.5415, 0, 0, 5.67208, -55.0713, 5.69447, -174.447, 5.62609, 65.4676, 0.118351, 44.6774
1, 360.00000, 126.254, -31.9974, 125.758, -151.373, 127.286, 88.5415, 0, 0, 5.67208, -55.0713, 5.69447, -174.447, 5.62609, 65.4676, 0.118352, 44.6773
1, 420.00000, 126.254, -31.9974, 125.758, -151.373, 127.286, 88.5415, 0, 0, 5.67208, -55.0713, 5.69447, -174.447, 5.62609, 65.4676, 0.118353, 44.6773
1, 480.00000, 126.254, -31.9974, 125.758, -151.373, 127.286, 88.5415, 0, 0, 5.67208, -55.0713, 5.69447, -174.447, 5.62609, 65.4676, 0.118355, 44.6772
1, 540.00000, 126.254, -31.9974, 125.758, -151.373, 127.286, 88.5415, 0, 0, 5.67208, -55.0713, 5.69447, -174.447, 5.62609, 65.4676, 0.118356, 44.6772
1, 600.00000, 126.254, -31.9974, 125.758, -151.373, 127.286, 88.5415, 0, 0, 5.67208, -55.0713, 5.69447, -174.447, 5.62609, 65.4676, 0.118357, 44.6771
1, 660.00000, 126.254, -31.9974, 125.758, -151.373, 127.286, 88.5415, 0, 0, 5.67208, -55.0713, 5.69447, -174.447, 5.62608, 65.4676, 0.118357, 44.6771
1, 720.00000, 126.254, -31.9974, 125.758, -151.373, 127.286, 88.5415, 0, 0, 5.67208, -55.0713, 5.69447, -174.447, 5.62608, 65.4676, 0.118358, 44.6771
1, 780.00000, 126.254, -31.9974, 125.758, -151.373, 127.286, 88.5415, 0, 0, 5.67208, -55.0713, 5.69447, -174.447, 5.62608, 65.4676, 0.118359, 44.677
1, 840.00000, 126.254, -31.9974, 125.758, -151.373, 127.286, 88.5415, 0, 0, 5.67208, -55.0713, 5.69447, -174.447, 5.62608, 65.4676, 0.118359, 44.677
1, 900.00000, 126.254, -31.9974, 125.758, -151.373, 127.286, 88.5415, 0, 0, 5.67208, -55.0713, 5.69447, -174.447, 5.62608, 65.4676, 0.11836, 44.677
1, 960.00000, 126.254, -31.9974, 125.758, -151.373, 127.286, 88.5415, 0, 0, 5.67208, -55.0713, 5.69447, -174.447, 5.62608, 65.4676, 0.11836, 44.677
1, 1020.00000, 126.254, -31.9974, 125.758, -151.373, 127.286, 88.5415, 0, 0, 5.67208, -55.0714, 5.69447, -174.447, 5.62608, 65.4676, 0.118361, 44.677
1, 1080.00000, 126.254, -31.9974, 125.758, -151.373, 127.286, 88.5415, 0, 0, 5.67208, -55.0714, 5.69447, -174.447, 5.62608, 65.4676, 0.118361, 44.6769
1, 1140.00000, 126.254, -31.9974, 125.758, -151.373, 127.286, 88.5415, 0, 0, 5.67208, -55.0714, 5.69447, -174.447, 5.62608, 65.4676, 0.118362, 44.6769
1, 1200.00000, 126.254, -31.9974, 125.758, -151.373, 127.286, 88.5415, 0, 0, 5.67208, -55.0714, 5.69447, -174.447, 5.62608, 65.4676, 0.118362, 44.6769
1, 1260.00000, 126.254, -31.9974, 125.758, -151.373, 127.286, 88.5415, 0, 0, 5.67208, -55.0714, 5.69447, -174.447, 5.62608, 65.4676, 0.118362, 44.6769
1, 1320.00000, 126.254, -31.9974, 125.758, -151.373, 127.286, 88.5415, 0, 0, 5.67208, -55.0714, 5.69447, -174.447, 5.62608, 65.4676, 0.118363, 44.6769
1, 1380.00000, 126.254, -31.9974, 125.758, -151.373, 127.286, 88.5415, 0, 0, 5.67208, -55.0714, 5.69447, -174.447, 5.62608, 65.4676, 0.118363, 44.6769
1, 1440.00000, 126.254, -31.9974, 125.758, -151.373, 127.286, 88.5415, 0, 0, 5.67208, -55.0714, 5.69447, -174.447, 5.62608, 65.4676, 0.118363, 44.6769
1, 1500.00000, 126.254, -31.9974, 125.758, -151.373, 127.286, 88.5415, 0, 0, 5.67208, -55.0714, 5.69447, -174.447, 5.62608, 65.4676, 0.118363, 44.6769
1, 1560.00000, 126.254, -31.9974, 125.758, -151.373, 127.286, 88.5415, 0, 0, 5.67208, -55.0714, 5.69447, -174.447, 5.62608, 65.4676, 0.118363, 44.6769
1, 1620.00000, 126.254, -31.9974, 125.758, -151.373, 127.286, 88.5415, 0, 0, 5.67208, -55.0714, 5.69447, -174.447, 5.62608, 65.4676, 0.118364, 44.6769
1, 1680.00000, 126.254, -31.9974, 125.758, -151.373, 127.286, 88.5415, 0, 0, 5.67208, -55.0714, 5.69447, -174.447, 5.62608, 65.4676, 0.118364, 44.6768
1, 1740.00000, 126.254, -31.9974, 125.758, -151.373, 127.286, 88.5415, 0, 0, 5.67208, -55.0714, 5.69447, -174.447, 5.62608, 65.4676, 0.118364, 44.6768
1, 1800.00000, 126.254, -31.9974, 125.758, -151.373, 127.286, 88.5415, 0, 0, 5.67208, -55.0714, 5.69447, -174.447, 5.62608, 65.4676, 0.118364, 44.6768
1, 1860.00000, 126.254, -31.9974, 125.758, -151.373, 127.286, 88.5415, 0, 0, 5.67208, -55.0714, 5.69447, -174.447, 5.62608, 65.4676, 0.118364, 44.6768
1, 1920.00000, 126.254, -31.9974, 125.758, -151.373, 127.286, 88.5415, 0, 0, 5.67208, -55.0714, 5.69447, -174.447, 5.62608, 65.4676, 0.118364, 44.6768
1, 1980.00000, 126.254, -31.9974, 125.758, -151.373, 127.286, 88.5415, 0, 0, 5.67208, -55.0714, 5.69447, -174.447, 5.62608, 65.4676, 0.118364, 44.6768
1, 2040.00000, 126.254, -31.9974, 125.758, -151.373, 127.286, 88.5415, 0, 0, 5.67208, -55.0714, 5.69447, -174.447, 5.62608, 65.4676, 0.118364, 44.6768
1, 2100.00000, 126.254, -31.9974, 125.758, -151.373, 127.286, 88.5415, 0, 0, 5.67208, -55.0714, 5.69447, -174.447, 5.62608, 65.4676, 0.118364, 44.6768
1, 2160.00000, 126.254, -31.9974, 125.758, -151.373, 127.286, 88.5415, 0, 0, 5.67208, -55.0714, 5.69447, -174.447, 5.62608, 65.4676, 0.118364, 44.6768
1, 2220.00000, 126.254, -31.9974, 125.758, -151.373, 127.286, 88.5415, 0, 0, 5.67208, -55.0714, 5.69447, -174.447, 5.62608, 65.4676, 0.118364, 44.6768
1, 2280.00000, 126.254, -31.9974, 125.758, -151.373, 127.286, 88.5415, 0, 0, 5.67208, -55.0714, 5.69447, -174.447, 5.62608, 65.4676, 0.118364, 44.6768
1, 2340.00000, 126.254, -31.9974, 125.758, -151.373, 127.286, 88.5415, 0, 0, 5.67208, -55.0714, 5.69447, -174.447, 5.62608, 65.4676, 0.118365, 44.6768
1, 2400.00000, 126.254, -31.9974, 125.758, -151.373, 127.286, 88.5415, 0, 0, 5.67208, -55.0714, 5.69447, -174.447, 5.62608, 65.4676, 0.118365, 44.6768
1, 2460.00000, 126.254, -31.9974, 125.758, -151.373, 127.286, 88.5415, 0, 0, 5.67208, -55.0714, 5.69447, -174.447, 5.62608, 65.4676, 0.118365, 44.6768
1, 2520.00000, 126.254, -31.9974, 125.758, -151.373, 127.286, 88.5415, 0, 0, 5.67208, -55.0714, 5.69447, -174.447, 5.62608, 65.4676, 0.118365, 44.6768
1, 2580.00000, 126.254, -31.9974, 125.758, -151.373, 127.286, 88.5415, 0, 0, 5.67208, -55.0714, 5.69447, -174.447, 5.62608, 65.4676, 0.118365, 44.6768
1, 2640.00000, 126.254, -31.9974, 125.758, -151.373, 127.286, 88.5415, 0, 0, 5.67208, -55.0714, 5.69447, -174.447, 5.62608, 65.4676, 0.118365, 44.6768
1, 2700.00000, 126.254, -31.9974, 125.758, -151.373, 127.286, 88.5415, 0, 0, 5.67208, -55.0714, 5.69447, -174.447, 5.62608, 65.4676, 0.118365, 44.6768
1, 2760.00000, 126.254, -31.9974, 125.758, -151.373, 127.286, 88.5415, 0, 0, 5.67208, -55.0714, 5.69447, -174.447, 5.62608, 65.4676, 0.118365, 44.6768
1, 2820.00000, 126.254, -31.9974, 125.758, -151.373, 127.286, 88.5415, 0, 0, 5.67208, -55.0714, 5.69447, -174.447, 5.62608, 65.4676, 0.118365, 44.6768
1, 2880.00000, 126.254, -31.9974, 125.758, -151.373, 127.286, 88.5415, 0, 0, 5.67208, -55.0714, 5.69447, -174.447, 5.62608, 65.4676, 0.118365, 44.6768
1, 2940.00000, 126.254, -31.9974, 125.758, -151.373, 127.286, 88.5415, 0, 0, 5.67208, -55.0714, 5.69447, -174.447, 5.62608, 65.4676, 0.118365, 44.6768
1, 3000.00000, 126.254, -31.9974, 125.758, -151.373, 127.286, 88.5415, 0, 0, 5.67208, -55.0714, 5.69447, -174.447, 5.62608, 65.4676, 0.118365, 44.6768
1, 3060.00000, 126.254, -31.9974, 125.758, -151.373, 127.286, 88.5415, 0, 0, 5.67208, -55.0714, 5.69447, -174.447, 5.62608, 65.4676, 0.118365, 44.6768
1, 3120.00000, 126.254, -31.9974, 125.758, -151.373, 127.286, 88.5415, 0, 0, 5.67208, -55.0714, 5.69447, -174.447, 5.62608, 65.4676, 0.118365, 44.6768
1, 3180.00000, 126.254, -31.9974, 125.758, -151.373, 127.286, 88.5415, 0, 0, 5.67208, -55.0714, 5.69447, -174.447, 5.62608, 65.4676, 0.118365, 44.6768
1, 3240.00000, 126.254, -31.9974, 125.758, -151.373, 127.286, 88.5415, 0, 0, 5.67208, -55.0714, 5.69447, -174.447, 5.62608, 65.4676, 0.118365, 44.6768
1, 3300.00000, 126.254, -31.9974, 125.758, -151.373, 127.286, 88.5415, 0, 0, 5.67208, -55.0714, 5.69447, -174.447, 5.62608, 65.4676, 0.118365, 44.6768
1, 3360.00000, 126.254, -31.9974, 125.758, -151.373, 127.286, 88.5415, 0, 0, 5.67208, -55.0714, 5.69447, -174.447, 5.62608, 65.4676, 0.118365, 44.6768
1, 3420.00000, 126.254, -31.9974, 125.758, -151.373, 127.286, 88.5415, 0, 0, 5.67208, -55.0714, 5.69447, -174.447, 5.62608, 65.4676, 0.118365, 44.6768
1, 3480.00000, 126.254, -31.9974, 125.758, -151.373, 127.286, 88.5415, 0, 0, 5.67208, -55.0714, 5.69447, -174.447, 5.62608, 65.4676, 0.118365, 44.6768
1, 3540.00000, 126.254, -31.9974, 125.758, -151.373, 127.286, 88.5415, 0, 0, 5.67208, -55.0714, 5.69447, -174.447, 5.62608, 65.4676, 0.118365, 44.6768
2, 0.00000, 126.254, -31.9974, 125.758, -151.373, 127.286, 88.5415, 0, 0, 5.67208, -55.0714, 5.69447, -174.447, 5.62608, 65.4676, 0.118365, 44.6768
2, 60.00000, 126.254, -31.9974, 125.758, -151.373, 127.286, 88.5415, 0, 0, 5.67208, -55.0714, 5.69447, -174.447, 5.62608, 65.4676, 0.118365, 44.6768
2, 120.00000, 126.254, -31.9974, 125.758, -151.373, 127.286, 88.5415, 0, 0, 5.67208, -55.0714, 5.69447, -174.447, 5.62608, 65.4676, 0.118365, 44.6768
2, 180.00000, 126.254, -31.9974, 125.758, -151.373, 127.286, 88.5415, 0, 0, 5.67208, -55.0714, 5.69447, -174.447, 5.62608, 65.4676, 0.118365, 44.6768
2, 240.00000, 126.254, -31.9974, 125.758, -151.373, 127.286, 88.5415, 0, 0, 5.67208, -55.0714, 5.69447, -174.447, 5.62608, 65.4676, 0.118365, 44.6768
2, 300.00000, 126.254, -31.9974, 125.758, -151.373, 127.286, 88.5415, 0, 0, 5.67208, -55.0714, 5.69447, -174.447, 5.62608, 65.4676, 0.118365, 44.6768
2, 360.00000, 126.254, -31.9974, 125.758, -151.373, 127.286, 88.5415, 0, 0, 5.67208, -55.0714, 5.69447, -174.447, 5.62608, 65.4676, 0.118365, 44.6768
2, 420.00000, 126.254, -31.9974, 125.758, -151.373, 127.286, 88.5415, 0, 0, 5.67208, -55.0714, 5.69447, -174.447, 5.62608, 65.4676, 0.118365, 44.6768
2, 480.00000, 126.254, -31.9974, 125.758, -151.373, 127.286, 88.5415, 0, 0, 5.67208, -55.0714, 5.69447, -174.447, 5.62608, 65.4676, 0.118365, 44.6768
2, 540.00000, 126.254, -31.9974, 125.758, -151.373, 127.286, 88.5415, 0, 0, 5.67208, -55.0714, 5.69447, -174.447, 5.62608, 65.4676, 0.118365, 44.6768
2, 600.00000, 126.254, -31.9974, 125.758, -151.373, 127.286, 88.5415, 0, 0, 5.67208, -55.0714, 5.69447, -174.447, 5.62608, 65.4676, 0.118365, 44.6768
2, 660.00000, 126.254, -31.9974, 125.758, -151.373, 127.286, 88.5415, 0, 0, 5.67208, -55.0714, 5.69447, -174.447, 5.62608, 65.4676, 0.118365, 44.6768
2, 720.00000, 126.254, -31.9974, 125.758, -151.373, 127.286, 88.5415, 0, 0, 5.67208, -55.0714, 5.69447, -174.447, 5.62608, 65.4676, 0.118365, 44.6768
