hour,t(sec),"P1 (kW)","Q1 (kvar)","P2 (kW)","Q2 (kvar)","P3 (kW)","Q3 (kvar)","P4 (kW)","Q4 (kvar)"
0, 60.00000, 0.874317, 0.372455, 0.925104, 0.394091, 0.892235, 0.380084, 0, 0
0, 120.00000, 0.874311, 0.372455, 0.925099, 0.394091, 0.892224, 0.380086, 0, 0
0, 180.00000, 0.874311, 0.372455, 0.925099, 0.394091, 0.892224, 0.380086, 0, 0
0, 240.00000, 0.874311, 0.372455, 0.925099, 0.394091, 0.892224, 0.380086, 0, 0
0, 300.00000, 0.874311, 0.372455, 0.925099, 0.394091, 0.892224, 0.380086, 0, 0
0, 360.00000, 0.874311, 0.372455, 0.925099, 0.394091, 0.892224, 0.380086, 0, 0
0, 420.00000, 0.874311, 0.372455, 0.925099, 0.394091, 0.892224, 0.380086, 0, 0
0, 480.00000, 0.802248, 0.341757, 0.840748, 0.358162, 0.817791, 0.348386, 0, 0
0, 540.00000, 0.802254, 0.341759, 0.84074, 0.358154, 0.817799, 0.348381, 0, 0
0, 600.00000, 0.802254, 0.341759, 0.84074, 0.358154, 0.817799, 0.348381, 0, 0
0, 660.00000, 0.802254, 0.341759, 0.84074, 0.358154, 0.817799, 0.348381, 0, 0
0, 720.00000, 0.802254, 0.341759, 0.84074, 0.358154, 0.817799, 0.348381, 0, 0
0, 780.00000, 0.802254, 0.341759, 0.84074, 0.358154, 0.817799, 0.348381, 0, 0
0, 840.00000, 0.802254, 0.341759, 0.84074, 0.358154, 0.817799, 0.348381, 0, 0
0, 900.00000, 0.802254, 0.341759, 0.84074, 0.358154, 0.817799, 0.348381, 0, 0
0, 960.00000, 0.794721, 0.338549, 0.84074, 0.358154, 0.813523, 0.346556, 0, 0
0, 1020.00000, 0.794717, 0.338548, 0.84074, 0.358154, 0.813519, 0.346558, 0, 0
0, 1080.00000, 0.794717, 0.338548, 0.84074, 0.358154, 0.813519, 0.346558, 0, 0
0, 1140.00000, 0.794717, 0.338548, 0.84074, 0.358154, 0.813519, 0.346558, 0, 0
0, 1200.00000, 0.794717, 0.338548, 0.84074, 0.358154, 0.813519, 0.346558, 0, 0
0, 1260.00000, 0.794717, 0.338548, 0.84074, 0.358154, 0.813519, 0.346558, 0, 0
0, 1320.00000, 0.794717, 0.338548, 0.84074, 0.358154, 0.813519, 0.346558, 0, 0
0, 1380.00000, 0.794717, 0.338548, 0.84074, 0.358154, 0.813519, 0.346558, 0, 0
0, 1440.00000, 0.794717, 0.338548, 0.84074, 0.358154, 0.813519, 0.346558, 0, 0
0, 1500.00000, 0.794717, 0.338548, 0.84074, 0.358154, 0.813519, 0.346558, 0, 0
0, 1560.00000, 0.794717, 0.338548, 0.84074, 0.358154, 0.813519, 0.346558, 0, 0
0, 1620.00000, 0.794717, 0.338548, 0.84074, 0.358154, 0.813519, 0.346558, 0, 0
0, 1680.00000, 0.794717, 0.338548, 0.84074, 0.358154, 0.813519, 0.346558, 0, 0
0, 1740.00000, 0.794717, 0.338548, 0.84074, 0.358154, 0.813519, 0.346558, 0, 0
0, 1800.00000, 0.786818, 0.335182, 0.84074, 0.358154, 0.808805, 0.344545, 0, 0
0, 1860.00000, 0.786813, 0.335181, 0.84074, 0.358154, 0.808801, 0.344548, 0, 0
0, 1920.00000, 0.786813, 0.335181, 0.84074, 0.358154, 0.808801, 0.344548, 0, 0
0, 1980.00000, 0.786813, 0.335181, 0.84074, 0.358154, 0.808801, 0.344548, 0, 0
0, 2040.00000, 0.786813, 0.335181, 0.84074, 0.358154, 0.808801, 0.344548, 0, 0
0, 2100.00000, 0.786813, 0.335181, 0.84074, 0.358154, 0.808801, 0.344548, 0, 0
0, 2160.00000, 0.786813, 0.335181, 0.84074, 0.358154, 0.808801, 0.344548, 0, 0
0, 2220.00000, 0.786813, 0.335181, 0.84074, 0.358154, 0.808801, 0.344548, 0, 0
0, 2280.00000, 0.786813, 0.335181, 0.84074, 0.358154, 0.808801, 0.344548, 0, 0
0, 2340.00000, 0.786813, 0.335181, 0.84074, 0.358154, 0.808801, 0.344548, 0, 0
0, 2400.00000, 0.786813, 0.335181, 0.84074, 0.358154, 0.808801, 0.344548, 0, 0
0, 2460.00000, 0.786813, 0.335181, 0.84074, 0.358154, 0.808801, 0.344548, 0, 0
0, 2520.00000, 0.786813, 0.335181, 0.84074, 0.358154, 0.808801, 0.344548, 0, 0
0, 2580.00000, 0.786813, 0.335181, 0.84074, 0.358154, 0.808801, 0.344548, 0, 0
0, 2640.00000, 0.786813, 0.335181, 0.84074, 0.358154, 0.808801, 0.344548, 0, 0
0, 2700.00000, 0.786813, 0.335181, 0.84074, 0.358154, 0.808801, 0.344548, 0, 0
0, 2760.00000, 0.790941, 0.336943, 0.840739, 0.358153, 0.810183, 0.345142, 0, 0
0, 2820.00000, 0.790947, 0.336942, 0.84074, 0.358154, 0.81019, 0.34514, 0, 0
0, 2880.00000, 0.790947, 0.336942, 0.84074, 0.358154, 0.81019, 0.34514, 0, 0
0, 2940.00000, 0.790947, 0.336942, 0.84074, 0.358154, 0.81019, 0.34514, 0, 0
0, 3000.00000, 0.790947, 0.336942, 0.84074, 0.358154, 0.81019, 0.34514, 0, 0
0, 3060.00000, 0.790947, 0.336942, 0.84074, 0.358154, 0.81019, 0.34514, 0, 0
0, 3120.00000, 0.790947, 0.336942, 0.84074, 0.358154, 0.81019, 0.34514, 0, 0
0, 3180.00000, 0.790947, 0.336942, 0.84074, 0.358154, 0.81019, 0.34514, 0, 0
0, 3240.00000, 0.790947, 0.336942, 0.84074, 0.358154, 0.81019, 0.34514, 0, 0
0, 3300.00000, 0.790947, 0.336942, 0.84074, 0.358154, 0.81019, 0.34514, 0, 0
0, 3360.00000, 0.790947, 0.336942, 0.84074, 0.358154, 0.81019, 0.34514, 0, 0
0, 3420.00000, 0.790947, 0.336942, 0.84074, 0.358154, 0.81019, 0.34514, 0, 0
0, 3480.00000, 0.790947, 0.336942, 0.84074, 0.358154, 0.81019, 0.34514, 0, 0
0, 3540.00000, 0.790947, 0.336942, 0.84074, 0.358154, 0.81019, 0.34514, 0, 0
1, 0.00000, 0.790947, 0.336942, 0.84074, 0.358154, 0.81019, 0.34514, 0, 0
1, 60.00000, 0.794888, 0.338624, 0.840739, 0.358153, 0.811416, 0.345665, 0, 0
1, 120.00000, 0.794893, 0.338623, 0.84074, 0.358154, 0.81142, 0.345663, 0, 0
1, 180.00000, 0.794893, 0.338623, 0.84074, 0.358154, 0.81142, 0.345663, 0, 0
1, 240.00000, 0.794893, 0.338623, 0.84074, 0.358154, 0.81142, 0.345663, 0, 0
1, 300.00000, 0.794893, 0.338623, 0.84074, 0.358154, 0.81142, 0.345663, 0, 0
1, 360.00000, 0.794893, 0.338623, 0.84074, 0.358154, 0.81142, 0.345663, 0, 0
1, 420.00000, 0.794893, 0.338623, 0.84074, 0.358154, 0.81142, 0.345663, 0, 0
1, 480.00000, 0.794893, 0.338623, 0.84074, 0.358154, 0.81142, 0.345663, 0, 0
1, 540.00000, 0.794893, 0.338623, 0.84074, 0.358154, 0.81142, 0.345663, 0, 0
1, 600.00000, 0.794893, 0.338623, 0.84074, 0.358154, 0.81142, 0.345663, 0, 0
1, 660.00000, 0.794893, 0.338623, 0.84074, 0.358154, 0.81142, 0.345663, 0, 0
1, 720.00000, 0.794893, 0.338623, 0.84074, 0.358154, 0.81142, 0.345663, 0, 0
1, 780.00000, 0.810502, 0.345275, 0.840739, 0.358153, 0.824779, 0.351358, 0, 0
1, 840.00000, 0.810509, 0.345275, 0.84074, 0.358154, 0.824783, 0.351356, 0, 0
1, 900.00000, 0.810509, 0.345275, 0.84074, 0.358154, 0.824783, 0.351356, 0, 0
1, 960.00000, 0.810509, 0.345275, 0.84074, 0.358154, 0.824783, 0.351356, 0, 0
1, 1020.00000, 0.810509, 0.345275, 0.84074, 0.358154, 0.824783, 0.351356, 0, 0
1, 1080.00000, 0.810509, 0.345275, 0.84074, 0.358154, 0.824783, 0.351356, 0, 0
1, 1140.00000, 0.810509, 0.345275, 0.84074, 0.358154, 0.824783, 0.351356, 0, 0
1, 1200.00000, 0.810509, 0.345275, 0.84074, 0.358154, 0.824783, 0.351356, 0, 0
1, 1260.00000, 0.810509, 0.345275, 0.84074, 0.358154, 0.824783, 0.351356, 0, 0
1, 1320.00000, 0.810509, 0.345275, 0.84074, 0.358154, 0.824783, 0.351356, 0, 0
1, 1380.00000, 0.810509, 0.345275, 0.84074, 0.358154, 0.824783, 0.351356, 0, 0
1, 1440.00000, 0.810509, 0.345275, 0.84074, 0.358154, 0.824783, 0.351356, 0, 0
1, 1500.00000, 0.810509, 0.345275, 0.84074, 0.358154, 0.824783, 0.351356, 0, 0
1, 1560.00000, 0.810509, 0.345275, 0.84074, 0.358154, 0.824783, 0.351356, 0, 0
1, 1620.00000, 0.810509, 0.345275, 0.84074, 0.358154, 0.824783, 0.351356, 0, 0
1, 1680.00000, 0.810509, 0.345275, 0.84074, 0.358154, 0.824783, 0.351356, 0, 0
1, 1740.00000, 0.810509, 0.345275, 0.84074, 0.358154, 0.824783, 0.351356, 0, 0
1, 1800.00000, 0.810509, 0.345275, 0.84074, 0.358154, 0.824783, 0.351356, 0, 0
1, 1860.00000, 0.810509, 0.345275, 0.84074, 0.358154, 0.824783, 0.351356, 0, 0
1, 1920.00000, 0.810509, 0.345275, 0.84074, 0.358154, 0.824783, 0.351356, 0, 0
1, 1980.00000, 0.810509, 0.345275, 0.84074, 0.358154, 0.824783, 0.351356, 0, 0
1, 2040.00000, 0.810509, 0.345275, 0.84074, 0.358154, 0.824783, 0.351356, 0, 0
1, 2100.00000, 0.810509, 0.345275, 0.84074, 0.358154, 0.824783, 0.351356, 0, 0
1, 2160.00000, 0.810509, 0.345275, 0.84074, 0.358154, 0.824783, 0.351356, 0, 0
1, 2220.00000, 0.818896, 0.348852, 0.840739, 0.358153, 0.829644, 0.353429, 0, 0
1, 2280.00000, 0.818904, 0.348852, 0.84074, 0.358154, 0.829647, 0.353428, 0, 0
1, 2340.00000, 0.818904, 0.348852, 0.84074, 0.358154, 0.829647, 0.353428, 0, 0
1, 2400.00000, 0.818904, 0.348852, 0.84074, 0.358154, 0.829647, 0.353428, 0, 0
1, 2460.00000, 0.818904, 0.348852, 0.84074, 0.358154, 0.829647, 0.353428, 0, 0
1, 2520.00000, 0.818904, 0.348852, 0.84074, 0.358154, 0.829647, 0.353428, 0, 0
1, 2580.00000, 0.818904, 0.348852, 0.84074, 0.358154, 0.829647, 0.353428, 0, 0
1, 2640.00000, 0.818904, 0.348852, 0.84074, 0.358154, 0.829647, 0.353428, 0, 0
1, 2700.00000, 0.818904, 0.348852, 0.84074, 0.358154, 0.829647, 0.353428, 0, 0
1, 2760.00000, 0.818904, 0.348852, 0.84074, 0.358154, 0.829647, 0.353428, 0, 0
1, 2820.00000, 0.818904, 0.348852, 0.84074, 0.358154, 0.829647, 0.353428, 0, 0
1, 2880.00000, 0.818904, 0.348852, 0.84074, 0.358154, 0.829647, 0.353428, 0, 0
1, 2940.00000, 0.818904, 0.348852, 0.84074, 0.358154, 0.829647, 0.353428, 0, 0
1, 3000.00000, 0.818904, 0.348852, 0.84074, 0.358154, 0.829647, 0.353428, 0, 0
1, 3060.00000, 0.818904, 0.348852, 0.84074, 0.358154, 0.829647, 0.353428, 0, 0
1, 3120.00000, 0.818904, 0.348852, 0.84074, 0.358154, 0.829647, 0.353428, 0, 0
1, 3180.00000, 0.818904, 0.348852, 0.84074, 0.358154, 0.829647, 0.353428, 0, 0
1, 3240.00000, 0.818904, 0.348852, 0.84074, 0.358154, 0.829647, 0.353428, 0, 0
1, 3300.00000, 0.818904, 0.348852, 0.84074, 0.358154, 0.829647, 0.353428, 0, 0
1, 3360.00000, 0.818904, 0.348852, 0.84074, 0.358154, 0.829647, 0.353428, 0, 0
1, 3420.00000, 0.818904, 0.348852, 0.84074, 0.358154, 0.829647, 0.353428, 0, 0
1, 3480.00000, 0.818904, 0.348852, 0.84074, 0.358154, 0.829647, 0.353428, 0, 0
1, 3540.00000, 0.818904, 0.348852, 0.84074, 0.358154, 0.829647, 0.353428, 0, 0
2, 0.00000, 0.818904, 0.348852, 0.84074, 0.358154, 0.829647, 0.353428, 0, 0
2, 60.00000, 0.818904, 0.348852, 0.84074, 0.358154, 0.829647, 0.353428, 0, 0
2, 120.00000, 0.818904, 0.348852, 0.84074, 0.358154, 0.829647, 0.353428, 0, 0
2, 180.00000, 0.818904, 0.348852, 0.84074, 0.358154, 0.829647, 0.353428, 0, 0
2, 240.00000, 0.818904, 0.348852, 0.84074, 0.358154, 0.829647, 0.353428, 0, 0
2, 300.00000, 0.818904, 0.348852, 0.84074, 0.358154, 0.829647, 0.353428, 0, 0
2, 360.00000, 0.818904, 0.348852, 0.84074, 0.358154, 0.829647, 0.353428, 0, 0
2, 420.00000, 0.818904, 0.348852, 0.84074, 0.358154, 0.829647, 0.353428, 0, 0
2, 480.00000, 0.818904, 0.348852, 0.84074, 0.358154, 0.829647, 0.353428, 0, 0
2, 540.00000, 0.818904, 0.348852, 0.84074, 0.358154, 0.829647, 0.353428, 0, 0
2, 600.00000, 0.818904, 0.348852, 0.84074, 0.358154, 0.829647, 0.353428, 0, 0
2, 660.00000, 0.818904, 0.348852, 0.84074, 0.358154, 0.829647, 0.353428, 0, 0
2, 720.00000, 0.818904, 0.348852, 0.84074, 0.358154, 0.829647, 0.353428, 0, 0
2, 780.00000, 0.818904, 0.348852, 0.84074, 0.358154, 0.829647, 0.353428, 0, 0
2, 840.00000, 0.82683, 0.352233, 0.840739, 0.358153, 0.834058, 0.35531, 0, 0
2, 900.00000, 0.826839, 0.352232, 0.84074, 0.358154, 0.83406, 0.355308, 0, 0
2, 960.00000, 0.826839, 0.352232, 0.84074, 0.358154, 0.83406, 0.355308, 0, 0
2, 1020.00000, 0.826839, 0.352232, 0.84074, 0.358154, 0.83406, 0.355308, 0, 0
2, 1080.00000, 0.826839, 0.352232, 0.84074, 0.358154, 0.83406, 0.355308, 0, 0
2, 1140.00000, 0.826839, 0.352232, 0.84074, 0.358154, 0.83406, 0.355308, 0, 0
2, 1200.00000, 0.826839, 0.352232, 0.84074, 0.358154, 0.83406, 0.355308, 0, 0
2, 1260.00000, 0.826839, 0.352232, 0.84074, 0.358154, 0.83406, 0.355308, 0, 0
2, 1320.00000, 0.826839, 0.352232, 0.84074, 0.358154, 0.83406, 0.355308, 0, 0
2, 1380.00000, 0.826839, 0.352232, 0.84074, 0.358154, 0.83406, 0.355308, 0, 0
2, 1440.00000, 0.826839, 0.352232, 0.84074, 0.358154, 0.83406, 0.355308, 0, 0
2, 1500.00000, 0.826839, 0.352232, 0.84074, 0.358154, 0.83406, 0.355308, 0, 0
2, 1560.00000, 0.826839, 0.352232, 0.84074, 0.358154, 0.83406, 0.355308, 0, 0
2, 1620.00000, 0.826839, 0.352232, 0.84074, 0.358154, 0.83406, 0.355308, 0, 0
2, 1680.00000, 0.826839, 0.352232, 0.84074, 0.358154, 0.83406, 0.355308, 0, 0
2, 1740.00000, 0.826839, 0.352232, 0.84074, 0.358154, 0.83406, 0.355308, 0, 0
2, 1800.00000, 0.826839, 0.352232, 0.84074, 0.358154, 0.83406, 0.355308, 0, 0
2, 1860.00000, 0.826839, 0.352232, 0.84074, 0.358154, 0.83406, 0.355308, 0, 0
2, 1920.00000, 0.826839, 0.352232, 0.84074, 0.358154, 0.83406, 0.355308, 0, 0
2, 1980.00000, 0.826839, 0.352232, 0.84074, 0.358154, 0.83406, 0.355308, 0, 0
2, 2040.00000, 0.826839, 0.352232, 0.84074, 0.358154, 0.83406, 0.355308, 0, 0
2, 2100.00000, 0.826839, 0.352232, 0.84074, 0.358154, 0.83406, 0.355308, 0, 0
2, 2160.00000, 0.826839, 0.352232, 0.84074, 0.358154, 0.83406, 0.355308, 0, 0
2, 2220.00000, 0.826839, 0.352232, 0.84074, 0.358154, 0.83406, 0.355308, 0, 0
2, 2280.00000, 0.826839, 0.352232, 0.84074, 0.358154, 0.83406, 0.355308, 0, 0
2, 2340.00000, 0.826839, 0.352232, 0.84074, 0.358154, 0.83406, 0.355308, 0, 0
2, 2400.00000, 0.840763, 0.358172, 0.840735, 0.358151, 0.840752, 0.358168, 0, 0
2, 2460.00000, 0.84074, 0.358154, 0.840739, 0.358154, 0.84074, 0.358154, 0, 0
2, 2520.00000, 0.84074, 0.358154, 0.84074, 0.358154, 0.84074, 0.358154, 0, 0
2, 2580.00000, 0.84074, 0.358154, 0.84074, 0.358154, 0.84074, 0.358154, 0, 0
2, 2640.00000, 0.84074, 0.358154, 0.84074, 0.358154, 0.84074, 0.358154, 0, 0
2, 2700.00000, 0.838436, 0.357171, 0.839534, 0.357637, 0.840745, 0.358155, 0, 0
2, 2760.00000, 0.838433, 0.357171, 0.839528, 0.357637, 0.84074, 0.358154, 0, 0
2, 2820.00000, 0.838433, 0.357171, 0.839528, 0.357637, 0.84074, 0.358154, 0, 0
2, 2880.00000, 0.838433, 0.357171, 0.839528, 0.357637, 0.84074, 0.358154, 0, 0
2, 2940.00000, 0.838433, 0.357171, 0.839528, 0.357637, 0.84074, 0.358154, 0, 0
2, 3000.00000, 0.838433, 0.357171, 0.839528, 0.357637, 0.84074, 0.358154, 0, 0
2, 3060.00000, 0.84075, 0.358167, 0.839496, 0.357623, 0.840742, 0.358161, 0, 0
2, 3120.00000, 0.84074, 0.358154, 0.839492, 0.357622, 0.84074, 0.358154, 0, 0
2, 3180.00000, 0.84074, 0.358154, 0.839492, 0.357622, 0.84074, 0.358154, 0, 0
2, 3240.00000, 0.84074, 0.358154, 0.839492, 0.357622, 0.84074, 0.358154, 0, 0
2, 3300.00000, 0.84074, 0.358154, 0.839492, 0.357622, 0.84074, 0.358154, 0, 0
2, 3360.00000, 0.84074, 0.358154, 0.839492, 0.357622, 0.84074, 0.358154, 0, 0
2, 3420.00000, 0.84074, 0.358154, 0.839492, 0.357622, 0.84074, 0.358154, 0, 0
2, 3480.00000, 0.84074, 0.358154, 0.839492, 0.357622, 0.84074, 0.358154, 0, 0
2, 3540.00000, 0.84074, 0.358154, 0.839492, 0.357622, 0.84074, 0.358154, 0, 0
3, 0.00000, 0.84074, 0.358154, 0.839492, 0.357622, 0.84074, 0.358154, 0, 0
3, 60.00000, 0.84074, 0.358154, 0.839492, 0.357622, 0.84074, 0.358154, 0, 0
3, 120.00000, 0.84074, 0.358154, 0.839492, 0.357622, 0.84074, 0.358154, 0, 0
3, 180.00000, 0.84074, 0.358154, 0.839492, 0.357622, 0.84074, 0.358154, 0, 0
3, 240.00000, 0.84074, 0.358154, 0.839492, 0.357622, 0.84074, 0.358154, 0, 0
3, 300.00000, 0.84074, 0.358154, 0.839492, 0.357622, 0.84074, 0.358154, 0, 0
3, 360.00000, 0.84074, 0.358154, 0.839492, 0.357622, 0.84074, 0.358154, 0, 0
3, 420.00000, 0.84074, 0.358154, 0.839492, 0.357622, 0.84074, 0.358154, 0, 0
3, 480.00000, 0.84074, 0.358154, 0.839492, 0.357622, 0.84074, 0.358154, 0, 0
3, 540.00000, 0.84074, 0.358154, 0.839492, 0.357622, 0.84074, 0.358154, 0, 0
3, 600.00000, 0.84074, 0.358154, 0.839492, 0.357622, 0.84074, 0.358154, 0, 0
3, 660.00000, 0.84074, 0.358154, 0.839492, 0.357622, 0.84074, 0.358154, 0, 0
3, 720.00000, 0.84074, 0.358154, 0.839492, 0.357622, 0.84074, 0.358154, 0, 0
3, 780.00000, 0.84074, 0.358154, 0.839492, 0.357622, 0.84074, 0.358154, 0, 0
3, 840.00000, 0.84074, 0.358154, 0.839492, 0.357622, 0.84074, 0.358154, 0, 0
3, 900.00000, 0.84074, 0.358154, 0.839492, 0.357622, 0.84074, 0.358154, 0, 0
3, 960.00000, 0.84074, 0.358154, 0.839492, 0.357622, 0.84074, 0.358154, 0, 0
3, 1020.00000, 0.84074, 0.358154, 0.839492, 0.357622, 0.84074, 0.358154, 0, 0
3, 1080.00000, 0.84074, 0.358154, 0.839492, 0.357622, 0.84074, 0.358154, 0, 0
3, 1140.00000, 0.84074, 0.358154, 0.839492, 0.357622, 0.84074, 0.358154, 0, 0
3, 1200.00000, 0.84074, 0.358154, 0.839492, 0.357622, 0.84074, 0.358154, 0, 0
3, 1260.00000, 0.84074, 0.358154, 0.839492, 0.357622, 0.84074, 0.358154, 0, 0
3, 1320.00000, 0.84074, 0.358154, 0.839492, 0.357622, 0.84074, 0.358154, 0, 0
3, 1380.00000, 0.84074, 0.358154, 0.839492, 0.357622, 0.84074, 0.358154, 0, 0
3, 1440.00000, 0.84074, 0.358154, 0.839492, 0.357622, 0.84074, 0.358154, 0, 0
3, 1500.00000, 0.84074, 0.358154, 0.839492, 0.357622, 0.84074, 0.358154, 0, 0
3, 1560.00000, 0.84074, 0.358154, 0.839492, 0.357622, 0.84074, 0.358154, 0, 0
3, 1620.00000, 0.84074, 0.358154, 0.839492, 0.357622, 0.84074, 0.358154, 0, 0
3, 1680.00000, 0.84074, 0.358154, 0.839492, 0.357622, 0.84074, 0.358154, 0, 0
3, 1740.00000, 0.84074, 0.358154, 0.839492, 0.357622, 0.84074, 0.358154, 0, 0
3, 1800.00000, 0.84074, 0.358154, 0.839492, 0.357622, 0.84074, 0.358154, 0, 0
3, 1860.00000, 0.84074, 0.358154, 0.839492, 0.357622, 0.84074, 0.358154, 0, 0
3, 1920.00000, 0.84074, 0.358154, 0.839492, 0.357622, 0.84074, 0.358154, 0, 0
3, 1980.00000, 0.84074, 0.358154, 0.839492, 0.357622, 0.84074, 0.358154, 0, 0
3, 2040.00000, 0.84074, 0.358154, 0.839492, 0.357622, 0.84074, 0.358154, 0, 0
3, 2100.00000, 0.84074, 0.358154, 0.839492, 0.357622, 0.84074, 0.358154, 0, 0
3, 2160.00000, 0.84074, 0.358154, 0.839492, 0.357622, 0.84074, 0.358154, 0, 0
3, 2220.00000, 0.84074, 0.358154, 0.839492, 0.357622, 0.84074, 0.358154, 0, 0
3, 2280.00000, 0.84074, 0.358154, 0.839492, 0.357622, 0.84074, 0.358154, 0, 0
3, 2340.00000, 0.84074, 0.358154, 0.839492, 0.357622, 0.84074, 0.358154, 0, 0
3, 2400.00000, 0.84074, 0.358154, 0.839492, 0.357622, 0.84074, 0.358154, 0, 0
3, 2460.00000, 0.84074, 0.358154, 0.839492, 0.357622, 0.84074, 0.358154, 0, 0
3, 2520.00000, 0.84074, 0.358154, 0.839492, 0.357622, 0.84074, 0.358154, 0, 0
3, 2580.00000, 0.84074, 0.358154, 0.839492, 0.357622, 0.84074, 0.358154, 0, 0
3, 2640.00000, 0.84074, 0.358154, 0.839492, 0.357622, 0.84074, 0.358154, 0, 0
3, 2700.00000, 0.84074, 0.358154, 0.839492, 0.357622, 0.84074, 0.358154, 0, 0
3, 2760.00000, 0.84074, 0.358154, 0.839492, 0.357622, 0.84074, 0.358154, 0, 0
3, 2820.00000, 0.84074, 0.358154, 0.839492, 0.357622, 0.84074, 0.358154, 0, 0
3, 2880.00000, 0.84074, 0.358154, 0.839492, 0.357622, 0.84074, 0.358154, 0, 0
3, 2940.00000, 0.84074, 0.358154, 0.839492, 0.357622, 0.84074, 0.358154, 0, 0
3, 3000.00000, 0.84074, 0.358154, 0.839492, 0.357622, 0.84074, 0.358154, 0, 0
3, 3060.00000, 0.84074, 0.358154, 0.839492, 0.357622, 0.84074, 0.358154, 0, 0
3, 3120.00000, 0.84074, 0.358154, 0.839492, 0.357622, 0.84074, 0.358154, 0, 0
3, 3180.00000, 0.821994, 0.350166, 0.818973, 0.348881, 0.822774, 0.350496, 0, 0
3, 3240.00000, 0.821989, 0.350166, 0.818972, 0.348881, 0.822777, 0.350502, 0, 0
3, 3300.00000, 0.821989, 0.350166, 0.818972, 0.348881, 0.822777, 0.350502, 0, 0
3, 3360.00000, 0.821989, 0.350166, 0.818972, 0.348881, 0.822777, 0.350502, 0, 0
3, 3420.00000, 0.821989, 0.350166, 0.818972, 0.348881, 0.822777, 0.350502, 0, 0
3, 3480.00000, 0.821989, 0.350166, 0.818972, 0.348881, 0.822777, 0.350502, 0, 0
3, 3540.00000, 0.821989, 0.350166, 0.818972, 0.348881, 0.822777, 0.350502, 0, 0
4, 0.00000, 0.821989, 0.350166, 0.818972, 0.348881, 0.822777, 0.350502, 0, 0
4, 60.00000, 0.821989, 0.350166, 0.818972, 0.348881, 0.822777, 0.350502, 0, 0
4, 120.00000, 0.821989, 0.350166, 0.818972, 0.348881, 0.822777, 0.350502, 0, 0
4, 180.00000, 0.821989, 0.350166, 0.818972, 0.348881, 0.822777, 0.350502, 0, 0
4, 240.00000, 0.821989, 0.350166, 0.818972, 0.348881, 0.822777, 0.350502, 0, 0
4, 300.00000, 0.821989, 0.350166, 0.818972, 0.348881, 0.822777, 0.350502, 0, 0
4, 360.00000, 0.821989, 0.350166, 0.818972, 0.348881, 0.822777, 0.350502, 0, 0
4, 420.00000, 0.821989, 0.350166, 0.818972, 0.348881, 0.822777, 0.350502, 0, 0
4, 480.00000, 0.821989, 0.350166, 0.818972, 0.348881, 0.822777, 0.350502, 0, 0
4, 540.00000, 0.821989, 0.350166, 0.818972, 0.348881, 0.822777, 0.350502, 0, 0
4, 600.00000, 0.821989, 0.350166, 0.818972, 0.348881, 0.822777, 0.350502, 0, 0
4, 660.00000, 0.821989, 0.350166, 0.818972, 0.348881, 0.822777, 0.350502, 0, 0
4, 720.00000, 0.821989, 0.350166, 0.818972, 0.348881, 0.822777, 0.350502, 0, 0
4, 780.00000, 0.821989, 0.350166, 0.818972, 0.348881, 0.822777, 0.350502, 0, 0
4, 840.00000, 0.821989, 0.350166, 0.818972, 0.348881, 0.822777, 0.350502, 0, 0
