hour,t(sec),V1,VAngle1,V2,VAngle2,V3,VAngle3,V4,VAngle4,I1,IAngle1,I2,IAngle2,I3,IAngle3,I4,IAngle4
0, 60.00000, 124.422, -32.2201, 123.613, -151.628, 125.461, 88.4059, 0, 0, 0.860537, -55.2939, 0.866171, -174.702, 0.85343, 65.332, 0.0201769, 36.0111
0, 120.00000, 124.428, -32.2263, 123.613, -151.628, 125.478, 88.4055, 0, 0, 0.860493, -55.3001, 0.866172, -174.702, 0.853312, 65.3316, 0.0203703, 36.0558
0, 180.00000, 124.434, -32.2319, 123.613, -151.628, 125.493, 88.4052, 0, 0, 0.860454, -55.3057, 0.866173, -174.702, 0.853206, 65.3312, 0.0205443, 36.0959
0, 240.00000, 124.439, -32.237, 123.612, -151.628, 125.507, 88.4048, 0, 0, 0.860419, -55.3107, 0.866174, -174.702, 0.85311, 65.3309, 0.0207008, 36.1319
0, 300.00000, 124.444, -32.2415, 123.612, -151.628, 125.52, 88.4045, 0, 0, 0.860387, -55.3153, 0.866175, -174.702, 0.853024, 65.3306, 0.0208417, 36.1643
0, 360.00000, 124.448, -32.2456, 123.612, -151.628, 125.531, 88.4042, 0, 0, 0.860358, -55.3194, 0.866175, -174.702, 0.852947, 65.3303, 0.0209686, 36.1934
0, 420.00000, 124.452, -32.2493, 123.612, -151.628, 125.541, 88.404, 0, 0, 0.860333, -55.3231, 0.866176, -174.702, 0.852877, 65.3301, 0.0210828, 36.2195
0, 480.00000, 124.931, -32.1314, 124.058, -151.503, 126.04, 88.5444, 0, 0, 0.955724, -55.2052, 0.962449, -174.576, 0.947322, 65.4705, 0.0239767, 35.6853
0, 540.00000, 124.934, -32.1344, 124.058, -151.503, 126.049, 88.5443, 0, 0, 0.955701, -55.2082, 0.962449, -174.576, 0.947258, 65.4703, 0.0240817, 35.7089
0, 600.00000, 124.937, -32.1372, 124.058, -151.503, 126.056, 88.5441, 0, 0, 0.95568, -55.211, 0.962449, -174.576, 0.9472, 65.4702, 0.0241759, 35.73
0, 660.00000, 124.939, -32.1396, 124.058, -151.503, 126.063, 88.544, 0, 0, 0.955661, -55.2134, 0.96245, -174.576, 0.947148, 65.47, 0.0242607, 35.749
0, 720.00000, 124.941, -32.1418, 124.058, -151.503, 126.069, 88.5438, 0, 0, 0.955644, -55.2157, 0.96245, -174.576, 0.947102, 65.4699, 0.0243371, 35.766
0, 780.00000, 124.943, -32.1438, 124.058, -151.503, 126.075, 88.5437, 0, 0, 0.955628, -55.2176, 0.96245, -174.576, 0.94706, 65.4698, 0.0244058, 35.7813
0, 840.00000, 124.945, -32.1456, 124.058, -151.503, 126.08, 88.5436, 0, 0, 0.955615, -55.2194, 0.962451, -174.576, 0.947022, 65.4697, 0.0244676, 35.7951
0, 900.00000, 124.947, -32.1472, 124.058, -151.503, 126.084, 88.5435, 0, 0, 0.955602, -55.2211, 0.962451, -174.576, 0.946988, 65.4696, 0.0245233, 35.8075
0, 960.00000, 124.623, -32.1689, 124.062, -151.503, 125.917, 88.4055, 0, 0, 0.958082, -55.2427, 0.962414, -174.576, 0.948242, 65.3316, 0.0230068, 45.4553
0, 1020.00000, 124.625, -32.1702, 124.062, -151.503, 125.921, 88.4054, 0, 0, 0.958072, -55.244, 0.962414, -174.576, 0.948215, 65.3315, 0.0230509, 45.4475
0, 1080.00000, 124.626, -32.1713, 124.062, -151.503, 125.924, 88.4054, 0, 0, 0.958063, -55.2452, 0.962414, -174.576, 0.948191, 65.3314, 0.0230909, 45.4404
0, 1140.00000, 124.627, -32.1724, 124.062, -151.503, 125.927, 88.4053, 0, 0, 0.958055, -55.2462, 0.962414, -174.576, 0.948169, 65.3314, 0.0231269, 45.4341
0, 1200.00000, 124.628, -32.1733, 124.062, -151.503, 125.929, 88.4052, 0, 0, 0.958048, -55.2472, 0.962414, -174.576, 0.948149, 65.3313, 0.0231593, 45.4284
0, 1260.00000, 124.629, -32.1741, 124.062, -151.503, 125.932, 88.4052, 0, 0, 0.958042, -55.248, 0.962415, -174.576, 0.948132, 65.3313, 0.0231885, 45.4233
0, 1320.00000, 124.629, -32.1749, 124.062, -151.503, 125.934, 88.4051, 0, 0, 0.958036, -55.2488, 0.962415, -174.576, 0.948116, 65.3312, 0.0232147, 45.4188
0, 1380.00000, 124.63, -32.1756, 124.062, -151.503, 125.936, 88.4051, 0, 0, 0.958031, -55.2495, 0.962415, -174.576, 0.948101, 65.3312, 0.0232383, 45.4147
0, 1440.00000, 124.631, -32.1762, 124.062, -151.503, 125.937, 88.405, 0, 0, 0.958026, -55.2501, 0.962415, -174.576, 0.948088, 65.3311, 0.0232596, 45.411
0, 1500.00000, 124.631, -32.1767, 124.062, -151.503, 125.939, 88.405, 0, 0, 0.958022, -55.2506, 0.962415, -174.576, 0.948077, 65.3311, 0.0232788, 45.4077
0, 1560.00000, 124.632, -32.1772, 124.062, -151.503, 125.94, 88.405, 0, 0, 0.958018, -55.2511, 0.962415, -174.576, 0.948066, 65.3311, 0.023296, 45.4048
0, 1620.00000, 124.632, -32.1777, 124.062, -151.503, 125.941, 88.4049, 0, 0, 0.958015, -55.2516, 0.962415, -174.576, 0.948057, 65.331, 0.0233115, 45.4022
0, 1680.00000, 124.632, -32.1781, 124.062, -151.503, 125.942, 88.4049, 0, 0, 0.958012, -55.252, 0.962415, -174.576, 0.948048, 65.331, 0.0233254, 45.3998
0, 1740.00000, 124.633, -32.1785, 124.062, -151.503, 125.943, 88.4049, 0, 0, 0.958009, -55.2524, 0.962415, -174.576, 0.948041, 65.331, 0.023338, 45.3977
0, 1800.00000, 124.633, -32.1788, 124.062, -151.503, 125.944, 88.4049, 0, 0, 0.958007, -55.2527, 0.962415, -174.576, 0.948034, 65.3309, 0.0233493, 45.3958
0, 1860.00000, 124.633, -32.1791, 124.062, -151.503, 125.945, 88.4048, 0, 0, 0.958005, -55.253, 0.962415, -174.576, 0.948028, 65.3309, 0.0233595, 45.394
0, 1920.00000, 124.634, -32.1793, 124.062, -151.503, 125.946, 88.4048, 0, 0, 0.958003, -55.2533, 0.962415, -174.576, 0.948022, 65.3309, 0.0233686, 45.3925
0, 1980.00000, 124.634, -32.1796, 124.062, -151.503, 125.947, 88.4048, 0, 0, 0.958001, -55.2535, 0.962415, -174.576, 0.948017, 65.3309, 0.0233769, 45.3911
0, 2040.00000, 124.634, -32.1798, 124.062, -151.503, 125.947, 88.4048, 0, 0, 0.957999, -55.2537, 0.962415, -174.576, 0.948013, 65.3309, 0.0233843, 45.3899
0, 2100.00000, 124.634, -32.18, 124.062, -151.503, 125.948, 88.4048, 0, 0, 0.957998, -55.2539, 0.962415, -174.576, 0.948009, 65.3309, 0.023391, 45.3887
0, 2160.00000, 124.635, -32.1802, 124.062, -151.503, 125.948, 88.4048, 0, 0, 0.957996, -55.2541, 0.962415, -174.576, 0.948005, 65.3309, 0.023397, 45.3877
0, 2220.00000, 124.635, -32.1803, 124.062, -151.503, 125.949, 88.4048, 0, 0, 0.957995, -55.2542, 0.962415, -174.576, 0.948002, 65.3308, 0.0234024, 45.3868
0, 2280.00000, 124.635, -32.1805, 124.062, -151.503, 125.949, 88.4048, 0, 0, 0.957994, -55.2544, 0.962415, -174.576, 0.947999, 65.3308, 0.0234072, 45.386
0, 2340.00000, 124.635, -32.1806, 124.062, -151.503, 125.949, 88.4047, 0, 0, 0.957993, -55.2545, 0.962415, -174.576, 0.947996, 65.3308, 0.0234116, 45.3853
0, 2400.00000, 124.635, -32.1807, 124.062, -151.503, 125.95, 88.4047, 0, 0, 0.957992, -55.2546, 0.962416, -174.576, 0.947994, 65.3308, 0.0234156, 45.3846
0, 2460.00000, 124.635, -32.1808, 124.062, -151.503, 125.95, 88.4047, 0, 0, 0.957992, -55.2547, 0.962416, -174.576, 0.947991, 65.3308, 0.0234191, 45.384
0, 2520.00000, 124.635, -32.1809, 124.062, -151.503, 125.95, 88.4047, 0, 0, 0.957991, -55.2548, 0.962416, -174.576, 0.947989, 65.3308, 0.0234223, 45.3835
0, 2580.00000, 124.635, -32.181, 124.062, -151.503, 125.95, 88.4047, 0, 0, 0.95799, -55.2549, 0.962416, -174.576, 0.947988, 65.3308, 0.0234252, 45.383
0, 2640.00000, 124.635, -32.1811, 124.062, -151.503, 125.951, 88.4047, 0, 0, 0.95799, -55.255, 0.962416, -174.576, 0.947986, 65.3308, 0.0234278, 45.3826
0, 2700.00000, 124.635, -32.1811, 124.062, -151.503, 125.951, 88.4047, 0, 0, 0.957989, -55.255, 0.962416, -174.576, 0.947985, 65.3308, 0.0234301, 45.3822
0, 2760.00000, 124.657, -32.1843, 124.308, -151.332, 126.429, 88.4062, 0, 0, 0.957824, -55.2583, 0.960511, -174.406, 0.944397, 65.3323, 0.0275617, 54.6545
0, 2820.00000, 124.657, -32.1844, 124.308, -151.332, 126.429, 88.4062, 0, 0, 0.957824, -55.2583, 0.960511, -174.406, 0.944396, 65.3323, 0.0275637, 54.6535
0, 2880.00000, 124.657, -32.1844, 124.308, -151.332, 126.43, 88.4062, 0, 0, 0.957823, -55.2584, 0.960511, -174.406, 0.944395, 65.3323, 0.0275653, 54.6526
0, 2940.00000, 124.657, -32.1845, 124.308, -151.332, 126.43, 88.4062, 0, 0, 0.957823, -55.2584, 0.960511, -174.406, 0.944394, 65.3323, 0.0275668, 54.6519
0, 3000.00000, 124.657, -32.1845, 124.308, -151.332, 126.43, 88.4062, 0, 0, 0.957823, -55.2584, 0.960511, -174.406, 0.944393, 65.3323, 0.0275682, 54.6512
0, 3060.00000, 124.657, -32.1846, 124.308, -151.332, 126.43, 88.4062, 0, 0, 0.957822, -55.2585, 0.960511, -174.406, 0.944392, 65.3322, 0.0275694, 54.6506
0, 3120.00000, 124.657, -32.1846, 124.308, -151.332, 126.43, 88.4062, 0, 0, 0.957822, -55.2585, 0.960511, -174.406, 0.944392, 65.3322, 0.0275704, 54.6501
0, 3180.00000, 124.657, -32.1846, 124.308, -151.332, 126.43, 88.4062, 0, 0, 0.957822, -55.2585, 0.960511, -174.406, 0.944391, 65.3322, 0.0275714, 54.6496
0, 3240.00000, 124.657, -32.1846, 124.308, -151.332, 126.43, 88.4062, 0, 0, 0.957822, -55.2586, 0.960511, -174.406, 0.944391, 65.3322, 0.0275723, 54.6492
0, 3300.00000, 124.657, -32.1847, 124.308, -151.332, 126.43, 88.4062, 0, 0, 0.957822, -55.2586, 0.960511, -174.406, 0.94439, 65.3322, 0.0275731, 54.6488
0, 3360.00000, 124.657, -32.1847, 124.308, -151.332, 126.43, 88.4062, 0, 0, 0.957821, -55.2586, 0.960511, -174.406, 0.94439, 65.3322, 0.0275738, 54.6485
0, 3420.00000, 124.657, -32.1847, 124.308, -151.332, 126.43, 88.4062, 0, 0, 0.957821, -55.2586, 0.960511, -174.406, 0.944389, 65.3322, 0.0275744, 54.6481
0, 3480.00000, 124.657, -32.1847, 124.308, -151.332, 126.43, 88.4062, 0, 0, 0.957821, -55.2586, 0.960511, -174.406, 0.944389, 65.3322, 0.027575, 54.6479
0, 3540.00000, 124.657, -32.1847, 124.308, -151.332, 126.43, 88.4062, 0, 0, 0.957821, -55.2587, 0.960511, -174.406, 0.944389, 65.3322, 0.0275755, 54.6476
1, 0.00000, 124.657, -32.1848, 124.308, -151.332, 126.43, 88.4062, 0, 0, 0.957821, -55.2587, 0.960511, -174.406, 0.944388, 65.3322, 0.027576, 54.6474
1, 60.00000, 124.908, -32.0114, 124.772, -151.34, 126.404, 88.4109, 0, 0, 0.955901, -55.0853, 0.956941, -174.414, 0.944586, 65.337, 0.0216554, 59.0948
1, 120.00000, 124.908, -32.0114, 124.772, -151.34, 126.404, 88.4109, 0, 0, 0.955901, -55.0853, 0.956941, -174.414, 0.944586, 65.337, 0.0216558, 59.0945
1, 180.00000, 124.908, -32.0114, 124.772, -151.34, 126.404, 88.4109, 0, 0, 0.955901, -55.0853, 0.956941, -174.414, 0.944586, 65.337, 0.0216561, 59.0942
1, 240.00000, 124.908, -32.0114, 124.772, -151.34, 126.404, 88.4109, 0, 0, 0.955901, -55.0853, 0.956941, -174.414, 0.944586, 65.337, 0.0216564, 59.0939
1, 300.00000, 124.908, -32.0114, 124.772, -151.34, 126.404, 88.4109, 0, 0, 0.955901, -55.0853, 0.956941, -174.414, 0.944585, 65.337, 0.0216567, 59.0937
1, 360.00000, 124.908, -32.0114, 124.772, -151.34, 126.404, 88.4109, 0, 0, 0.955901, -55.0853, 0.956941, -174.414, 0.944585, 65.337, 0.0216569, 59.0935
1, 420.00000, 124.908, -32.0114, 124.772, -151.34, 126.404, 88.4109, 0, 0, 0.955901, -55.0853, 0.956941, -174.414, 0.944585, 65.337, 0.0216572, 59.0933
1, 480.00000, 124.908, -32.0114, 124.772, -151.34, 126.404, 88.4109, 0, 0, 0.955901, -55.0853, 0.956941, -174.414, 0.944585, 65.337, 0.0216573, 59.0931
1, 540.00000, 124.908, -32.0114, 124.772, -151.34, 126.404, 88.4109, 0, 0, 0.955901, -55.0854, 0.956941, -174.414, 0.944585, 65.337, 0.0216575, 59.093
1, 600.00000, 124.908, -32.0114, 124.772, -151.34, 126.404, 88.4109, 0, 0, 0.955901, -55.0854, 0.956941, -174.414, 0.944585, 65.337, 0.0216577, 59.0929
1, 660.00000, 124.908, -32.0114, 124.772, -151.34, 126.404, 88.4109, 0, 0, 0.955901, -55.0854, 0.956941, -174.414, 0.944585, 65.337, 0.0216578, 59.0927
1, 720.00000, 124.908, -32.0114, 124.772, -151.34, 126.404, 88.4109, 0, 0, 0.955901, -55.0854, 0.956941, -174.414, 0.944585, 65.337, 0.021658, 59.0926
1, 780.00000, 124.908, -32.0114, 124.772, -151.34, 126.404, 88.4109, 0, 0, 0.955901, -55.0854, 0.956941, -174.414, 0.944584, 65.337, 0.0216581, 59.0925
1, 840.00000, 124.908, -32.0115, 124.772, -151.34, 126.404, 88.4109, 0, 0, 0.955901, -55.0854, 0.956941, -174.414, 0.944584, 65.337, 0.0216582, 59.0924
1, 900.00000, 124.908, -32.0115, 124.772, -151.34, 126.404, 88.4109, 0, 0, 0.955901, -55.0854, 0.956941, -174.414, 0.944584, 65.337, 0.0216583, 59.0924
1, 960.00000, 124.908, -32.0115, 124.772, -151.34, 126.404, 88.4109, 0, 0, 0.955901, -55.0854, 0.956941, -174.414, 0.944584, 65.337, 0.0216584, 59.0923
1, 1020.00000, 124.908, -32.0115, 124.772, -151.34, 126.404, 88.4109, 0, 0, 0.955901, -55.0854, 0.956941, -174.414, 0.944584, 65.337, 0.0216584, 59.0922
1, 1080.00000, 124.908, -32.0115, 124.772, -151.34, 126.404, 88.4109, 0, 0, 0.955901, -55.0854, 0.956941, -174.414, 0.944584, 65.337, 0.0216585, 59.0922
1, 1140.00000, 124.908, -32.0115, 124.772, -151.34, 126.404, 88.4109, 0, 0, 0.955901, -55.0854, 0.956941, -174.414, 0.944584, 65.337, 0.0216586, 59.0921
1, 1200.00000, 124.908, -32.0115, 124.772, -151.34, 126.404, 88.4109, 0, 0, 0.955901, -55.0854, 0.956941, -174.414, 0.944584, 65.337, 0.0216586, 59.0921
1, 1260.00000, 124.908, -32.0115, 124.772, -151.34, 126.404, 88.4109, 0, 0, 0.955901, -55.0854, 0.956941, -174.414, 0.944584, 65.337, 0.0216587, 59.092
1, 1320.00000, 124.908, -32.0115, 124.772, -151.34, 126.404, 88.4109, 0, 0, 0.955901, -55.0854, 0.956941, -174.414, 0.944584, 65.337, 0.0216587, 59.092
1, 1380.00000, 124.908, -32.0115, 124.772, -151.34, 126.404, 88.4109, 0, 0, 0.955901, -55.0854, 0.956941, -174.414, 0.944584, 65.337, 0.0216587, 59.092
1, 1440.00000, 124.908, -32.0115, 124.772, -151.34, 126.404, 88.4109, 0, 0, 0.955901, -55.0854, 0.956941, -174.414, 0.944584, 65.337, 0.0216588, 59.0919
1, 1500.00000, 124.908, -32.0115, 124.772, -151.34, 126.404, 88.4109, 0, 0, 0.955901, -55.0854, 0.956941, -174.414, 0.944584, 65.337, 0.0216588, 59.0919
1, 1560.00000, 124.908, -32.0115, 124.772, -151.34, 126.404, 88.4109, 0, 0, 0.955901, -55.0854, 0.956941, -174.414, 0.944584, 65.337, 0.0216588, 59.0919
1, 1620.00000, 124.908, -32.0115, 124.772, -151.34, 126.404, 88.4109, 0, 0, 0.955901, -55.0854, 0.956941, -174.414, 0.944584, 65.337, 0.0216589, 59.0919
1, 1680.00000, 124.908, -32.0115, 124.772, -151.34, 126.404, 88.4109, 0, 0, 0.955901, -55.0854, 0.956941, -174.414, 0.944584, 65.337, 0.0216589, 59.0918
1, 1740.00000, 124.908, -32.0115, 124.772, -151.34, 126.404, 88.4109, 0, 0, 0.9559, -55.0854, 0.956941, -174.414, 0.944584, 65.337, 0.0216589, 59.0918
1, 1800.00000, 124.908, -32.0115, 124.772, -151.34, 126.404, 88.4109, 0, 0, 0.9559, -55.0854, 0.956941, -174.414, 0.944584, 65.337, 0.0216589, 59.0918
1, 1860.00000, 124.908, -32.0115, 124.772, -151.34, 126.404, 88.4109, 0, 0, 0.9559, -55.0854, 0.956941, -174.414, 0.944584, 65.337, 0.021659, 59.0918
1, 1920.00000, 124.908, -32.0115, 124.772, -151.34, 126.404, 88.4109, 0, 0, 0.9559, -55.0854, 0.956941, -174.414, 0.944584, 65.337, 0.021659, 59.0918
1, 1980.00000, 124.908, -32.0115, 124.772, -151.34, 126.404, 88.4109, 0, 0, 0.9559, -55.0854, 0.956941, -174.414, 0.944584, 65.337, 0.021659, 59.0918
1, 2040.00000, 124.908, -32.0115, 124.772, -151.34, 126.404, 88.4109, 0, 0, 0.9559, -55.0854, 0.956941, -174.414, 0.944584, 65.337, 0.021659, 59.0917
1, 2100.00000, 124.908, -32.0115, 124.772, -151.34, 126.404, 88.4109, 0, 0, 0.9559, -55.0854, 0.956941, -174.414, 0.944584, 65.337, 0.021659, 59.0917
1, 2160.00000, 124.908, -32.0115, 124.772, -151.34, 126.404, 88.4109, 0, 0, 0.9559, -55.0854, 0.956941, -174.414, 0.944584, 65.337, 0.021659, 59.0917
1, 2220.00000, 124.908, -32.0115, 124.772, -151.34, 126.404, 88.4109, 0, 0, 0.9559, -55.0854, 0.956941, -174.414, 0.944584, 65.337, 0.021659, 59.0917
1, 2280.00000, 124.908, -32.0115, 124.772, -151.34, 126.404, 88.4109, 0, 0, 0.9559, -55.0854, 0.956941, -174.414, 0.944584, 65.337, 0.021659, 59.0917
1, 2340.00000, 124.908, -32.0115, 124.772, -151.34, 126.404, 88.4109, 0, 0, 0.9559, -55.0854, 0.956941, -174.414, 0.944584, 65.337, 0.021659, 59.0917
1, 2400.00000, 124.908, -32.0115, 124.772, -151.34, 126.404, 88.4109, 0, 0, 0.9559, -55.0854, 0.956941, -174.414, 0.944584, 65.337, 0.0216591, 59.0917
1, 2460.00000, 124.908, -32.0115, 124.772, -151.34, 126.404, 88.4109, 0, 0, 0.9559, -55.0854, 0.956941, -174.414, 0.944584, 65.337, 0.0216591, 59.0917
1, 2520.00000, 124.908, -32.0115, 124.772, -151.34, 126.404, 88.4109, 0, 0, 0.9559, -55.0854, 0.956941, -174.414, 0.944584, 65.337, 0.0216591, 59.0917
1, 2580.00000, 124.908, -32.0115, 124.772, -151.34, 126.404, 88.4109, 0, 0, 0.9559, -55.0854, 0.956941, -174.414, 0.944584, 65.337, 0.0216591, 59.0917
1, 2640.00000, 124.908, -32.0115, 124.772, -151.34, 126.404, 88.4109, 0, 0, 0.9559, -55.0854, 0.956941, -174.414, 0.944584, 65.337, 0.0216591, 59.0917
1, 2700.00000, 124.908, -32.0115, 124.772, -151.34, 126.404, 88.4109, 0, 0, 0.9559, -55.0854, 0.956941, -174.414, 0.944584, 65.337, 0.0216591, 59.0917
1, 2760.00000, 124.908, -32.0115, 124.772, -151.34, 126.404, 88.4109, 0, 0, 0.9559, -55.0854, 0.956941, -174.414, 0.944584, 65.337, 0.0216591, 59.0917
1, 2820.00000, 124.908, -32.0115, 124.772, -151.34, 126.404, 88.4109, 0, 0, 0.9559, -55.0854, 0.956941, -174.414, 0.944584, 65.337, 0.0216591, 59.0917
1, 2880.00000, 124.908, -32.0115, 124.772, -151.34, 126.404, 88.4109, 0, 0, 0.9559, -55.0854, 0.956941, -174.414, 0.944584, 65.337, 0.0216591, 59.0917
1, 2940.00000, 124.908, -32.0115, 124.772, -151.34, 126.404, 88.4109, 0, 0, 0.9559, -55.0854, 0.956941, -174.414, 0.944584, 65.337, 0.0216591, 59.0917
1, 3000.00000, 124.908, -32.0115, 124.772, -151.34, 126.404, 88.4109, 0, 0, 0.9559, -55.0854, 0.956941, -174.414, 0.944584, 65.337, 0.0216591, 59.0917
1, 3060.00000, 124.908, -32.0115, 124.772, -151.34, 126.404, 88.4109, 0, 0, 0.9559, -55.0854, 0.956941, -174.414, 0.944584, 65.337, 0.0216591, 59.0917
1, 3120.00000, 124.908, -32.0115, 124.772, -151.34, 126.404, 88.4109, 0, 0, 0.9559, -55.0854, 0.956941, -174.414, 0.944584, 65.337, 0.0216591, 59.0917
1, 3180.00000, 124.908, -32.0115, 124.772, -151.34, 126.404, 88.4109, 0, 0, 0.9559, -55.0854, 0.956941, -174.414, 0.944584, 65.337, 0.0216591, 59.0917
1, 3240.00000, 124.908, -32.0115, 124.772, -151.34, 126.404, 88.4109, 0, 0, 0.9559, -55.0854, 0.956941, -174.414, 0.944584, 65.337, 0.0216591, 59.0917
1, 3300.00000, 124.908, -32.0115, 124.772, -151.34, 126.404, 88.4109, 0, 0, 0.9559, -55.0854, 0.956941, -174.414, 0.944584, 65.337, 0.0216591, 59.0917
1, 3360.00000, 124.908, -32.0115, 124.772, -151.34, 126.404, 88.4109, 0, 0, 0.9559, -55.0854, 0.956941, -174.414, 0.944584, 65.337, 0.0216591, 59.0917
1, 3420.00000, 124.908, -32.0115, 124.772, -151.34, 126.404, 88.4109, 0, 0, 0.9559, -55.0854, 0.956941, -174.414, 0.944584, 65.337, 0.0216591, 59.0917
1, 3480.00000, 124.908, -32.0115, 124.772, -151.34, 126.404, 88.4109, 0, 0, 0.9559, -55.0854, 0.956941, -174.414, 0.944584, 65.337, 0.0216591, 59.0917
1, 3540.00000, 124.908, -32.0115, 124.772, -151.34, 126.404, 88.4109, 0, 0, 0.9559, -55.0854, 0.956941, -174.414, 0.944584, 65.337, 0.0216591, 59.0917
2, 0.00000, 124.908, -32.0115, 124.772, -151.34, 126.404, 88.4109, 0, 0, 0.9559, -55.0854, 0.956941, -174.414, 0.944584, 65.337, 0.0216591, 59.0917
2, 60.00000, 124.908, -32.0115, 124.772, -151.34, 126.404, 88.4109, 0, 0, 0.9559, -55.0854, 0.956941, -174.414, 0.944584, 65.337, 0.0216591, 59.0917
2, 120.00000, 124.908, -32.0115, 124.772, -151.34, 126.404, 88.4109, 0, 0, 0.9559, -55.0854, 0.956941, -174.414, 0.944584, 65.337, 0.0216591, 59.0917
2, 180.00000, 124.908, -32.0115, 124.772, -151.34, 126.404, 88.4109, 0, 0, 0.9559, -55.0854, 0.956941, -174.414, 0.944584, 65.337, 0.0216591, 59.0917
2, 240.00000, 124.908, -32.0115, 124.772, -151.34, 126.404, 88.4109, 0, 0, 0.9559, -55.0854, 0.956941, -174.414, 0.944584, 65.337, 0.0216591, 59.0917
2, 300.00000, 124.908, -32.0115, 124.772, -151.34, 126.404, 88.4109, 0, 0, 0.9559, -55.0854, 0.956941, -174.414, 0.944584, 65.337, 0.0216591, 59.0917
2, 360.00000, 124.908, -32.0115, 124.772, -151.34, 126.404, 88.4109, 0, 0, 0.9559, -55.0854, 0.956941, -174.414, 0.944584, 65.337, 0.0216591, 59.0917
2, 420.00000, 124.908, -32.0115, 124.772, -151.34, 126.404, 88.4109, 0, 0, 0.9559, -55.0854, 0.956941, -174.414, 0.944584, 65.337, 0.0216591, 59.0917
2, 480.00000, 124.908, -32.0115, 124.772, -151.34, 126.404, 88.4109, 0, 0, 0.9559, -55.0854, 0.956941, -174.414, 0.944584, 65.337, 0.0216591, 59.0917
2, 540.00000, 124.908, -32.0115, 124.772, -151.34, 126.404, 88.4109, 0, 0, 0.9559, -55.0854, 0.956941, -174.414, 0.944584, 65.337, 0.0216591, 59.0917
2, 600.00000, 124.908, -32.0115, 124.772, -151.34, 126.404, 88.4109, 0, 0, 0.9559, -55.0854, 0.956941, -174.414, 0.944584, 65.337, 0.0216591, 59.0917
