hour,t(sec),V1,VAngle1,V2,VAngle2,V3,VAngle3,V4,VAngle4,I1,IAngle1,I2,IAngle2,I3,IAngle3,I4,IAngle4
0, 60.00000, 123.102, -31.8036, 122.552, -151.544, 123.61, 88.5471, 0, 0, 2.76284, -54.8773, 2.77525, -174.618, 2.7515, 65.4734, 0.0355322, 28.3258
0, 120.00000, 123.102, -31.8036, 122.552, -151.544, 123.61, 88.5471, 0, 0, 2.76287, -54.8776, 2.77528, -174.618, 2.75152, 65.4732, 0.0355461, 28.3273
0, 180.00000, 123.102, -31.8036, 122.552, -151.544, 123.61, 88.5471, 0, 0, 2.76287, -54.8776, 2.77528, -174.618, 2.75152, 65.4732, 0.0355461, 28.3272
0, 240.00000, 123.102, -31.8036, 122.552, -151.544, 123.61, 88.5471, 0, 0, 2.76287, -54.8776, 2.77528, -174.618, 2.75152, 65.4732, 0.0355461, 28.3272
0, 300.00000, 123.102, -31.8036, 122.552, -151.544, 123.61, 88.5471, 0, 0, 2.76287, -54.8776, 2.77528, -174.618, 2.75152, 65.4732, 0.0355461, 28.3272
0, 360.00000, 123.102, -31.8036, 122.552, -151.544, 123.61, 88.5471, 0, 0, 2.76287, -54.8776, 2.77528, -174.618, 2.75152, 65.4732, 0.0355461, 28.3272
0, 420.00000, 123.102, -31.8036, 122.552, -151.544, 123.61, 88.5471, 0, 0, 2.76287, -54.8776, 2.77528, -174.618, 2.75152, 65.4732, 0.0355461, 28.3272
0, 480.00000, 123.636, -31.686, 123.065, -151.429, 124.117, 88.6687, 0, 0, 2.48566, -54.7602, 2.49719, -174.503, 2.47602, 65.5946, 0.0319464, 27.2025
0, 540.00000, 123.636, -31.6859, 123.065, -151.429, 124.117, 88.6687, 0, 0, 2.48563, -54.7599, 2.49716, -174.503, 2.47599, 65.5948, 0.0319358, 27.1947
0, 600.00000, 123.636, -31.6859, 123.065, -151.429, 124.117, 88.6687, 0, 0, 2.48563, -54.7599, 2.49716, -174.503, 2.47599, 65.5948, 0.0319357, 27.1946
0, 660.00000, 123.636, -31.6859, 123.065, -151.429, 124.117, 88.6687, 0, 0, 2.48563, -54.7599, 2.49716, -174.503, 2.47599, 65.5948, 0.0319357, 27.1946
0, 720.00000, 123.636, -31.6859, 123.065, -151.429, 124.117, 88.6687, 0, 0, 2.48563, -54.7599, 2.49716, -174.503, 2.47599, 65.5948, 0.0319357, 27.1946
0, 780.00000, 123.636, -31.6859, 123.065, -151.429, 124.117, 88.6687, 0, 0, 2.48563, -54.7599, 2.49716, -174.503, 2.47599, 65.5948, 0.0319357, 27.1946
0, 840.00000, 123.636, -31.6859, 123.065, -151.429, 124.117, 88.6687, 0, 0, 2.48563, -54.7599, 2.49716, -174.503, 2.47599, 65.5948, 0.0319357, 27.1946
0, 900.00000, 123.636, -31.6859, 123.065, -151.429, 124.117, 88.6687, 0, 0, 2.48563, -54.7599, 2.49716, -174.503, 2.47599, 65.5948, 0.0319357, 27.1946
0, 960.00000, 122.618, -31.4996, 122.976, -151.553, 122.931, 88.3495, 0, 0, 2.5062, -54.5729, 2.49898, -174.627, 2.49982, 65.2757, 0.0116918, 151.915
0, 1020.00000, 122.618, -31.4997, 122.976, -151.553, 122.931, 88.3495, 0, 0, 2.50627, -54.5736, 2.49897, -174.627, 2.4999, 65.2755, 0.0117535, 152.037
0, 1080.00000, 122.618, -31.4997, 122.976, -151.553, 122.931, 88.3495, 0, 0, 2.50627, -54.5736, 2.49897, -174.627, 2.4999, 65.2755, 0.0117537, 152.037
0, 1140.00000, 123.633, -31.6847, 122.967, -151.554, 123.815, 88.6411, 0, 0, 2.48574, -54.7592, 2.49916, -174.628, 2.48208, 65.5673, 0.0275715, 9.09686
0, 1200.00000, 123.633, -31.6847, 122.966, -151.554, 123.815, 88.6411, 0, 0, 2.4857, -54.7586, 2.49917, -174.628, 2.48205, 65.5672, 0.0275911, 9.05345
0, 1260.00000, 123.633, -31.6847, 122.966, -151.554, 123.815, 88.6411, 0, 0, 2.4857, -54.7586, 2.49917, -174.628, 2.48205, 65.5672, 0.0275911, 9.05328
0, 1320.00000, 123.633, -31.6847, 122.966, -151.554, 123.815, 88.6411, 0, 0, 2.4857, -54.7586, 2.49917, -174.628, 2.48205, 65.5672, 0.0275911, 9.05328
0, 1380.00000, 123.633, -31.6847, 122.966, -151.554, 123.815, 88.6411, 0, 0, 2.4857, -54.7586, 2.49917, -174.628, 2.48205, 65.5672, 0.0275911, 9.05328
0, 1440.00000, 123.633, -31.6847, 122.966, -151.554, 123.815, 88.6411, 0, 0, 2.4857, -54.7586, 2.49917, -174.628, 2.48205, 65.5672, 0.0275911, 9.05328
0, 1500.00000, 123.633, -31.6847, 122.966, -151.554, 123.815, 88.6411, 0, 0, 2.4857, -54.7586, 2.49917, -174.628, 2.48205, 65.5672, 0.0275911, 9.05328
0, 1560.00000, 123.633, -31.6847, 122.966, -151.554, 123.815, 88.6411, 0, 0, 2.4857, -54.7586, 2.49917, -174.628, 2.48205, 65.5672, 0.0275911, 9.05328
0, 1620.00000, 123.633, -31.6847, 122.966, -151.554, 123.815, 88.6411, 0, 0, 2.4857, -54.7586, 2.49917, -174.628, 2.48205, 65.5672, 0.0275911, 9.05328
0, 1680.00000, 123.633, -31.6847, 122.966, -151.554, 123.815, 88.6411, 0, 0, 2.4857, -54.7586, 2.49917, -174.628, 2.48205, 65.5672, 0.0275911, 9.05328
0, 1740.00000, 123.633, -31.6847, 122.966, -151.554, 123.815, 88.6411, 0, 0, 2.4857, -54.7586, 2.49917, -174.628, 2.48205, 65.5672, 0.0275911, 9.05328
0, 1800.00000, 123.537, -31.8098, 122.675, -151.583, 123.819, 88.6393, 0, 0, 2.48761, -54.8837, 2.50509, -174.656, 2.48196, 65.5653, 0.0375254, 13.0385
0, 1860.00000, 123.537, -31.8098, 122.675, -151.583, 123.819, 88.6393, 0, 0, 2.48762, -54.8837, 2.50511, -174.657, 2.48195, 65.5653, 0.0375409, 13.0462
0, 1920.00000, 123.537, -31.8098, 122.675, -151.583, 123.819, 88.6393, 0, 0, 2.48762, -54.8837, 2.50511, -174.657, 2.48195, 65.5653, 0.037541, 13.0462
0, 1980.00000, 123.537, -31.8098, 122.675, -151.583, 123.819, 88.6393, 0, 0, 2.48762, -54.8837, 2.50511, -174.657, 2.48195, 65.5653, 0.037541, 13.0462
0, 2040.00000, 123.537, -31.8098, 122.675, -151.583, 123.819, 88.6393, 0, 0, 2.48762, -54.8837, 2.50511, -174.657, 2.48195, 65.5653, 0.037541, 13.0462
0, 2100.00000, 123.537, -31.8098, 122.675, -151.583, 123.819, 88.6393, 0, 0, 2.48762, -54.8837, 2.50511, -174.657, 2.48195, 65.5653, 0.037541, 13.0462
0, 2160.00000, 123.537, -31.8098, 122.675, -151.583, 123.819, 88.6393, 0, 0, 2.48762, -54.8837, 2.50511, -174.657, 2.48195, 65.5653, 0.037541, 13.0462
0, 2220.00000, 123.537, -31.8098, 122.675, -151.583, 123.819, 88.6393, 0, 0, 2.48762, -54.8837, 2.50511, -174.657, 2.48195, 65.5653, 0.037541, 13.0462
0, 2280.00000, 123.537, -31.8098, 122.675, -151.583, 123.819, 88.6393, 0, 0, 2.48762, -54.8837, 2.50511, -174.657, 2.48195, 65.5653, 0.037541, 13.0462
0, 2340.00000, 123.537, -31.8098, 122.675, -151.583, 123.819, 88.6393, 0, 0, 2.48762, -54.8837, 2.50511, -174.657, 2.48195, 65.5653, 0.037541, 13.0462
0, 2400.00000, 123.537, -31.8098, 122.675, -151.583, 123.819, 88.6393, 0, 0, 2.48762, -54.8837, 2.50511, -174.657, 2.48195, 65.5653, 0.037541, 13.0462
0, 2460.00000, 123.537, -31.8098, 122.675, -151.583, 123.819, 88.6393, 0, 0, 2.48762, -54.8837, 2.50511, -174.657, 2.48195, 65.5653, 0.037541, 13.0462
0, 2520.00000, 123.537, -31.8098, 122.675, -151.583, 123.819, 88.6393, 0, 0, 2.48762, -54.8837, 2.50511, -174.657, 2.48195, 65.5653, 0.037541, 13.0462
0, 2580.00000, 123.537, -31.8098, 122.675, -151.583, 123.819, 88.6393, 0, 0, 2.48762, -54.8837, 2.50511, -174.657, 2.48195, 65.5653, 0.037541, 13.0462
0, 2640.00000, 123.537, -31.8098, 122.675, -151.583, 123.819, 88.6393, 0, 0, 2.48762, -54.8837, 2.50511, -174.657, 2.48195, 65.5653, 0.037541, 13.0462
0, 2700.00000, 123.537, -31.8098, 122.675, -151.583, 123.819, 88.6393, 0, 0, 2.48762, -54.8837, 2.50511, -174.657, 2.48195, 65.5653, 0.037541, 13.0462
0, 2760.00000, 123.794, -31.6373, 123.141, -151.588, 123.791, 88.6436, 0, 0, 2.48249, -54.7113, 2.49566, -174.662, 2.48252, 65.5697, 0.0240417, -4.18915
0, 2820.00000, 123.794, -31.6373, 123.141, -151.588, 123.79, 88.6436, 0, 0, 2.48246, -54.7112, 2.49562, -174.662, 2.48253, 65.5697, 0.0240109, -4.24269
0, 2880.00000, 123.794, -31.6373, 123.141, -151.588, 123.79, 88.6436, 0, 0, 2.48246, -54.7112, 2.49562, -174.662, 2.48253, 65.5696, 0.0240107, -4.24297
0, 2940.00000, 123.794, -31.6373, 123.141, -151.588, 123.79, 88.6436, 0, 0, 2.48246, -54.7112, 2.49562, -174.662, 2.48253, 65.5696, 0.0240107, -4.24297
0, 3000.00000, 123.794, -31.6373, 123.141, -151.588, 123.79, 88.6436, 0, 0, 2.48246, -54.7112, 2.49562, -174.662, 2.48253, 65.5696, 0.0240107, -4.24297
0, 3060.00000, 123.794, -31.6373, 123.141, -151.588, 123.79, 88.6436, 0, 0, 2.48246, -54.7112, 2.49562, -174.662, 2.48253, 65.5696, 0.0240107, -4.24297
0, 3120.00000, 123.794, -31.6373, 123.141, -151.588, 123.79, 88.6436, 0, 0, 2.48246, -54.7112, 2.49562, -174.662, 2.48253, 65.5696, 0.0240107, -4.24297
0, 3180.00000, 123.794, -31.6373, 123.141, -151.588, 123.79, 88.6436, 0, 0, 2.48246, -54.7112, 2.49562, -174.662, 2.48253, 65.5696, 0.0240107, -4.24297
0, 3240.00000, 123.794, -31.6373, 123.141, -151.588, 123.79, 88.6436, 0, 0, 2.48246, -54.7112, 2.49562, -174.662, 2.48253, 65.5696, 0.0240107, -4.24297
0, 3300.00000, 123.794, -31.6373, 123.141, -151.588, 123.79, 88.6436, 0, 0, 2.48246, -54.7112, 2.49562, -174.662, 2.48253, 65.5696, 0.0240107, -4.24297
0, 3360.00000, 123.794, -31.6373, 123.141, -151.588, 123.79, 88.6436, 0, 0, 2.48246, -54.7112, 2.49562, -174.662, 2.48253, 65.5696, 0.0240107, -4.24297
0, 3420.00000, 123.794, -31.6373, 123.141, -151.588, 123.79, 88.6436, 0, 0, 2.48246, -54.7112, 2.49562, -174.662, 2.48253, 65.5696, 0.0240107, -4.24297
0, 3480.00000, 123.794, -31.6373, 123.141, -151.588, 123.79, 88.6436, 0, 0, 2.48246, -54.7112, 2.49562, -174.662, 2.48253, 65.5696, 0.0240107, -4.24297
0, 3540.00000, 123.794, -31.6373, 123.141, -151.588, 123.79, 88.6436, 0, 0, 2.48246, -54.7112, 2.49562, -174.662, 2.48253, 65.5696, 0.0240107, -4.24297
1, 0.00000, 123.794, -31.6373, 123.141, -151.588, 123.79, 88.6436, 0, 0, 2.48246, -54.7112, 2.49562, -174.662, 2.48253, 65.5696, 0.0240107, -4.24297
1, 60.00000, 124.048, -31.466, 123.606, -151.594, 123.761, 88.6481, 0, 0, 2.47739, -54.5398, 2.48626, -174.668, 2.48311, 65.5742, 0.0165691, -46.1761
1, 120.00000, 124.048, -31.466, 123.607, -151.594, 123.761, 88.6481, 0, 0, 2.47738, -54.5399, 2.48623, -174.668, 2.48312, 65.5742, 0.0165576, -46.2645
1, 180.00000, 124.048, -31.466, 123.607, -151.594, 123.761, 88.6481, 0, 0, 2.47738, -54.5399, 2.48623, -174.668, 2.48312, 65.5742, 0.0165576, -46.2649
1, 240.00000, 124.048, -31.466, 123.607, -151.594, 123.761, 88.6481, 0, 0, 2.47738, -54.5399, 2.48623, -174.668, 2.48312, 65.5742, 0.0165576, -46.2649
1, 300.00000, 124.048, -31.466, 123.607, -151.594, 123.761, 88.6481, 0, 0, 2.47738, -54.5399, 2.48623, -174.668, 2.48312, 65.5742, 0.0165576, -46.2649
1, 360.00000, 124.048, -31.466, 123.607, -151.594, 123.761, 88.6481, 0, 0, 2.47738, -54.5399, 2.48623, -174.668, 2.48312, 65.5742, 0.0165576, -46.2649
1, 420.00000, 124.048, -31.466, 123.607, -151.594, 123.761, 88.6481, 0, 0, 2.47738, -54.5399, 2.48623, -174.668, 2.48312, 65.5742, 0.0165576, -46.2649
1, 480.00000, 124.048, -31.466, 123.607, -151.594, 123.761, 88.6481, 0, 0, 2.47738, -54.5399, 2.48623, -174.668, 2.48312, 65.5742, 0.0165576, -46.2649
1, 540.00000, 124.048, -31.466, 123.607, -151.594, 123.761, 88.6481, 0, 0, 2.47738, -54.5399, 2.48623, -174.668, 2.48312, 65.5742, 0.0165576, -46.2649
1, 600.00000, 124.048, -31.466, 123.607, -151.594, 123.761, 88.6481, 0, 0, 2.47738, -54.5399, 2.48623, -174.668, 2.48312, 65.5742, 0.0165576, -46.2649
1, 660.00000, 124.048, -31.466, 123.607, -151.594, 123.761, 88.6481, 0, 0, 2.47738, -54.5399, 2.48623, -174.668, 2.48312, 65.5742, 0.0165576, -46.2649
1, 720.00000, 124.048, -31.466, 123.607, -151.594, 123.761, 88.6481, 0, 0, 2.47738, -54.5399, 2.48623, -174.668, 2.48312, 65.5742, 0.0165576, -46.2649
1, 780.00000, 124.046, -31.4653, 123.689, -151.473, 124.042, 88.6796, 0, 0, 2.47742, -54.5393, 2.48457, -174.547, 2.47752, 65.6055, 0.0130232, -10.3971
1, 840.00000, 124.046, -31.4653, 123.689, -151.473, 124.042, 88.6796, 0, 0, 2.47742, -54.5392, 2.48456, -174.547, 2.4775, 65.6057, 0.0130249, -10.2919
1, 900.00000, 124.046, -31.4653, 123.689, -151.473, 124.042, 88.6796, 0, 0, 2.47742, -54.5392, 2.48456, -174.547, 2.4775, 65.6057, 0.0130249, -10.2915
1, 960.00000, 124.046, -31.4653, 123.689, -151.473, 124.042, 88.6796, 0, 0, 2.47742, -54.5392, 2.48456, -174.547, 2.4775, 65.6057, 0.0130249, -10.2914
1, 1020.00000, 124.046, -31.4653, 123.689, -151.473, 124.042, 88.6796, 0, 0, 2.47742, -54.5392, 2.48456, -174.547, 2.4775, 65.6057, 0.0130249, -10.2914
1, 1080.00000, 124.046, -31.4653, 123.689, -151.473, 124.042, 88.6796, 0, 0, 2.47742, -54.5392, 2.48456, -174.547, 2.4775, 65.6057, 0.0130249, -10.2914
1, 1140.00000, 124.046, -31.4653, 123.689, -151.473, 124.042, 88.6796, 0, 0, 2.47742, -54.5392, 2.48456, -174.547, 2.4775, 65.6057, 0.0130249, -10.2914
1, 1200.00000, 124.046, -31.4653, 123.689, -151.473, 124.042, 88.6796, 0, 0, 2.47742, -54.5392, 2.48456, -174.547, 2.4775, 65.6057, 0.0130249, -10.2914
1, 1260.00000, 124.046, -31.4653, 123.689, -151.473, 124.042, 88.6796, 0, 0, 2.47742, -54.5392, 2.48456, -174.547, 2.4775, 65.6057, 0.0130249, -10.2914
1, 1320.00000, 124.046, -31.4653, 123.689, -151.473, 124.042, 88.6796, 0, 0, 2.47742, -54.5392, 2.48456, -174.547, 2.4775, 65.6057, 0.0130249, -10.2914
1, 1380.00000, 124.046, -31.4653, 123.689, -151.473, 124.042, 88.6796, 0, 0, 2.47742, -54.5392, 2.48456, -174.547, 2.4775, 65.6057, 0.0130249, -10.2914
1, 1440.00000, 124.046, -31.4653, 123.689, -151.473, 124.042, 88.6796, 0, 0, 2.47742, -54.5392, 2.48456, -174.547, 2.4775, 65.6057, 0.0130249, -10.2914
1, 1500.00000, 124.046, -31.4653, 123.689, -151.473, 124.042, 88.6796, 0, 0, 2.47742, -54.5392, 2.48456, -174.547, 2.4775, 65.6057, 0.0130249, -10.2914
1, 1560.00000, 124.046, -31.4653, 123.689, -151.473, 124.042, 88.6796, 0, 0, 2.47742, -54.5392, 2.48456, -174.547, 2.4775, 65.6057, 0.0130249, -10.2914
1, 1620.00000, 124.046, -31.4653, 123.689, -151.473, 124.042, 88.6796, 0, 0, 2.47742, -54.5392, 2.48456, -174.547, 2.4775, 65.6057, 0.0130249, -10.2914
1, 1680.00000, 124.046, -31.4653, 123.689, -151.473, 124.042, 88.6796, 0, 0, 2.47742, -54.5392, 2.48456, -174.547, 2.4775, 65.6057, 0.0130249, -10.2914
1, 1740.00000, 124.046, -31.4653, 123.689, -151.473, 124.042, 88.6796, 0, 0, 2.47742, -54.5392, 2.48456, -174.547, 2.4775, 65.6057, 0.0130249, -10.2914
1, 1800.00000, 124.046, -31.4653, 123.689, -151.473, 124.042, 88.6796, 0, 0, 2.47742, -54.5392, 2.48456, -174.547, 2.4775, 65.6057, 0.0130249, -10.2914
1, 1860.00000, 124.046, -31.4653, 123.689, -151.473, 124.042, 88.6796, 0, 0, 2.47742, -54.5392, 2.48456, -174.547, 2.4775, 65.6057, 0.0130249, -10.2914
1, 1920.00000, 124.046, -31.4653, 123.689, -151.473, 124.042, 88.6796, 0, 0, 2.47742, -54.5392, 2.48456, -174.547, 2.4775, 65.6057, 0.0130249, -10.2914
1, 1980.00000, 124.046, -31.4653, 123.689, -151.473, 124.042, 88.6796, 0, 0, 2.47742, -54.5392, 2.48456, -174.547, 2.4775, 65.6057, 0.0130249, -10.2914
1, 2040.00000, 124.046, -31.4653, 123.689, -151.473, 124.042, 88.6796, 0, 0, 2.47742, -54.5392, 2.48456, -174.547, 2.4775, 65.6057, 0.0130249, -10.2914
1, 2100.00000, 124.046, -31.4653, 123.689, -151.473, 124.042, 88.6796, 0, 0, 2.47742, -54.5392, 2.48456, -174.547, 2.4775, 65.6057, 0.0130249, -10.2914
1, 2160.00000, 124.046, -31.4653, 123.689, -151.473, 124.042, 88.6796, 0, 0, 2.47742, -54.5392, 2.48456, -174.547, 2.4775, 65.6057, 0.0130249, -10.2914
1, 2220.00000, 124.139, -31.3405, 123.984, -151.443, 124.038, 88.6815, 0, 0, 2.47556, -54.4143, 2.47868, -174.517, 2.47758, 65.6076, 0.00728051, -60.6906
1, 2280.00000, 124.139, -31.3405, 123.984, -151.443, 124.038, 88.6815, 0, 0, 2.47556, -54.4144, 2.47866, -174.517, 2.47758, 65.6076, 0.00727083, -60.8348
1, 2340.00000, 124.139, -31.3405, 123.984, -151.443, 124.038, 88.6815, 0, 0, 2.47556, -54.4144, 2.47866, -174.517, 2.47758, 65.6076, 0.00727079, -60.8354
1, 2400.00000, 124.139, -31.3405, 123.984, -151.443, 124.038, 88.6815, 0, 0, 2.47556, -54.4144, 2.47866, -174.517, 2.47758, 65.6076, 0.00727079, -60.8354
1, 2460.00000, 124.139, -31.3405, 123.984, -151.443, 124.038, 88.6815, 0, 0, 2.47556, -54.4144, 2.47866, -174.517, 2.47758, 65.6076, 0.00727079, -60.8354
1, 2520.00000, 124.139, -31.3405, 123.984, -151.443, 124.038, 88.6815, 0, 0, 2.47556, -54.4144, 2.47866, -174.517, 2.47758, 65.6076, 0.00727079, -60.8354
1, 2580.00000, 124.139, -31.3405, 123.984, -151.443, 124.038, 88.6815, 0, 0, 2.47556, -54.4144, 2.47866, -174.517, 2.47758, 65.6076, 0.00727079, -60.8354
1, 2640.00000, 124.139, -31.3405, 123.984, -151.443, 124.038, 88.6815, 0, 0, 2.47556, -54.4144, 2.47866, -174.517, 2.47758, 65.6076, 0.00727079, -60.8354
1, 2700.00000, 124.139, -31.3405, 123.984, -151.443, 124.038, 88.6815, 0, 0, 2.47556, -54.4144, 2.47866, -174.517, 2.47758, 65.6076, 0.00727079, -60.8354
1, 2760.00000, 124.139, -31.3405, 123.984, -151.443, 124.038, 88.6815, 0, 0, 2.47556, -54.4144, 2.47866, -174.517, 2.47758, 65.6076, 0.00727079, -60.8354
1, 2820.00000, 124.139, -31.3405, 123.984, -151.443, 124.038, 88.6815, 0, 0, 2.47556, -54.4144, 2.47866, -174.517, 2.47758, 65.6076, 0.00727079, -60.8354
1, 2880.00000, 124.139, -31.3405, 123.984, -151.443, 124.038, 88.6815, 0, 0, 2.47556, -54.4144, 2.47866, -174.517, 2.47758, 65.6076, 0.00727079, -60.8354
1, 2940.00000, 124.139, -31.3405, 123.984, -151.443, 124.038, 88.6815, 0, 0, 2.47556, -54.4144, 2.47866, -174.517, 2.47758, 65.6076, 0.00727079, -60.8354
1, 3000.00000, 124.139, -31.3405, 123.984, -151.443, 124.038, 88.6815, 0, 0, 2.47556, -54.4144, 2.47866, -174.517, 2.47758, 65.6076, 0.00727079, -60.8354
1, 3060.00000, 124.139, -31.3405, 123.984, -151.443, 124.038, 88.6815, 0, 0, 2.47556, -54.4144, 2.47866, -174.517, 2.47758, 65.6076, 0.00727079, -60.8354
1, 3120.00000, 124.139, -31.3405, 123.984, -151.443, 124.038, 88.6815, 0, 0, 2.47556, -54.4144, 2.47866, -174.517, 2.47758, 65.6076, 0.00727079, -60.8354
1, 3180.00000, 124.139, -31.3405, 123.984, -151.443, 124.038, 88.6815, 0, 0, 2.47556, -54.4144, 2.47866, -174.517, 2.47758, 65.6076, 0.00727079, -60.8354
1, 3240.00000, 124.139, -31.3405, 123.984, -151.443, 124.038, 88.6815, 0, 0, 2.47556, -54.4144, 2.47866, -174.517, 2.47758, 65.6076, 0.00727079, -60.8354
1, 3300.00000, 124.139, -31.3405, 123.984, -151.443, 124.038, 88.6815, 0, 0, 2.47556, -54.4144, 2.47866, -174.517, 2.47758, 65.6076, 0.00727079, -60.8354
1, 3360.00000, 124.139, -31.3405, 123.984, -151.443, 124.038, 88.6815, 0, 0, 2.47556, -54.4144, 2.47866, -174.517, 2.47758, 65.6076, 0.00727079, -60.8354
1, 3420.00000, 124.139, -31.3405, 123.984, -151.443, 124.038, 88.6815, 0, 0, 2.47556, -54.4144, 2.47866, -174.517, 2.47758, 65.6076, 0.00727079, -60.8354
1, 3480.00000, 124.139, -31.3405, 123.984, -151.443, 124.038, 88.6815, 0, 0, 2.47556, -54.4144, 2.47866, -174.517, 2.47758, 65.6076, 0.00727079, -60.8354
1, 3540.00000, 124.139, -31.3405, 123.984, -151.443, 124.038, 88.6815, 0, 0, 2.47556, -54.4144, 2.47866, -174.517, 2.47758, 65.6076, 0.00727079, -60.8354
2, 0.00000, 124.139, -31.3405, 123.984, -151.443, 124.038, 88.6815, 0, 0, 2.47556, -54.4144, 2.47866, -174.517, 2.47758, 65.6076, 0.00727079, -60.8354
2, 60.00000, 124.139, -31.3405, 123.984, -151.443, 124.038, 88.6815, 0, 0, 2.47556, -54.4144, 2.47866, -174.517, 2.47758, 65.6076, 0.00727079, -60.8354
2, 120.00000, 124.139, -31.3405, 123.984, -151.443, 124.038, 88.6815, 0, 0, 2.47556, -54.4144, 2.47866, -174.517, 2.47758, 65.6076, 0.00727079, -60.8354
2, 180.00000, 124.139, -31.3405, 123.984, -151.443, 124.038, 88.6815, 0, 0, 2.47556, -54.4144, 2.47866, -174.517, 2.47758, 65.6076, 0.00727079, -60.8354
2, 240.00000, 124.139, -31.3405, 123.984, -151.443, 124.038, 88.6815, 0, 0, 2.47556, -54.4144, 2.47866, -174.517, 2.47758, 65.6076, 0.00727079, -60.8354
2, 300.00000, 124.139, -31.3405, 123.984, -151.443, 124.038, 88.6815, 0, 0, 2.47556, -54.4144, 2.47866, -174.517, 2.47758, 65.6076, 0.00727079, -60.8354
2, 360.00000, 124.139, -31.3405, 123.984, -151.443, 124.038, 88.6815, 0, 0, 2.47556, -54.4144, 2.47866, -174.517, 2.47758, 65.6076, 0.00727079, -60.8354
2, 420.00000, 124.139, -31.3405, 123.984, -151.443, 124.038, 88.6815, 0, 0, 2.47556, -54.4144, 2.47866, -174.517, 2.47758, 65.6076, 0.00727079, -60.8354
2, 480.00000, 124.139, -31.3405, 123.984, -151.443, 124.038, 88.6815, 0, 0, 2.47556, -54.4144, 2.47866, -174.517, 2.47758, 65.6076, 0.00727079, -60.8354
2, 540.00000, 124.139, -31.3405, 123.984, -151.443, 124.038, 88.6815, 0, 0, 2.47556, -54.4144, 2.47866, -174.517, 2.47758, 65.6076, 0.00727079, -60.8354
2, 600.00000, 124.139, -31.3405, 123.984, -151.443, 124.038, 88.6815, 0, 0, 2.47556, -54.4144, 2.47866, -174.517, 2.47758, 65.6076, 0.00727079, -60.8354
2, 660.00000, 124.139, -31.3405, 123.984, -151.443, 124.038, 88.6815, 0, 0, 2.47556, -54.4144, 2.47866, -174.517, 2.47758, 65.6076, 0.00727079, -60.8354
