hour,t(sec),V1,VAngle1,V2,VAngle2,V3,VAngle3,V4,VAngle4,I1,IAngle1,I2,IAngle2,I3,IAngle3,I4,IAngle4
0, 60.00000, 124.303, -31.3527, 124.175, -151.113, 124.931, 88.8304, 0, 0, 2.47227, -54.4264, 2.47482, -174.187, 2.45984, 65.757, 0.0231933, 53.4263
0, 120.00000, 124.303, -31.3528, 124.175, -151.113, 124.93, 88.8303, 0, 0, 2.4723, -54.4267, 2.47485, -174.187, 2.45988, 65.7564, 0.0231813, 53.4434
0, 180.00000, 124.303, -31.3528, 124.175, -151.113, 124.93, 88.8303, 0, 0, 2.4723, -54.4267, 2.47485, -174.187, 2.45988, 65.7564, 0.0231809, 53.4437
0, 240.00000, 124.303, -31.3528, 124.175, -151.113, 124.93, 88.8303, 0, 0, 2.4723, -54.4267, 2.47485, -174.187, 2.45988, 65.7564, 0.0231809, 53.4437
0, 300.00000, 124.303, -31.3528, 124.175, -151.113, 124.93, 88.8303, 0, 0, 2.4723, -54.4267, 2.47485, -174.187, 2.45988, 65.7564, 0.0231809, 53.4437
0, 360.00000, 124.303, -31.3528, 124.175, -151.113, 124.93, 88.8303, 0, 0, 2.4723, -54.4267, 2.47485, -174.187, 2.45988, 65.7564, 0.0231809, 53.4437
0, 420.00000, 124.303, -31.3528, 124.175, -151.113, 124.93, 88.8303, 0, 0, 2.4723, -54.4267, 2.47485, -174.187, 2.45988, 65.7564, 0.0231809, 53.4437
0, 480.00000, 124.303, -31.3528, 124.175, -151.113, 124.93, 88.8303, 0, 0, 2.4723, -54.4267, 2.47485, -174.187, 2.45988, 65.7564, 0.0231809, 53.4437
0, 540.00000, 124.303, -31.3528, 124.175, -151.113, 124.93, 88.8303, 0, 0, 2.4723, -54.4267, 2.47485, -174.187, 2.45988, 65.7564, 0.0231809, 53.4437
0, 600.00000, 124.303, -31.3528, 124.175, -151.113, 124.93, 88.8303, 0, 0, 2.4723, -54.4267, 2.47485, -174.187, 2.45988, 65.7564, 0.0231809, 53.4437
0, 660.00000, 124.303, -31.3528, 124.175, -151.113, 124.93, 88.8303, 0, 0, 2.4723, -54.4267, 2.47485, -174.187, 2.45988, 65.7564, 0.0231809, 53.4437
0, 720.00000, 124.303, -31.3528, 124.175, -151.113, 124.93, 88.8303, 0, 0, 2.4723, -54.4267, 2.47485, -174.187, 2.45988, 65.7564, 0.0231809, 53.4437
0, 780.00000, 124.303, -31.3528, 124.175, -151.113, 124.93, 88.8303, 0, 0, 2.4723, -54.4267, 2.47485, -174.187, 2.45988, 65.7564, 0.0231809, 53.4437
0, 840.00000, 124.303, -31.3528, 124.175, -151.113, 124.93, 88.8303, 0, 0, 2.4723, -54.4267, 2.47485, -174.187, 2.45988, 65.7564, 0.0231809, 53.4437
0, 900.00000, 124.303, -31.3528, 124.175, -151.113, 124.93, 88.8303, 0, 0, 2.4723, -54.4267, 2.47485, -174.187, 2.45988, 65.7564, 0.0231809, 53.4437
0, 960.00000, 124.18, -31.3834, 124.056, -151.143, 124.814, 88.7982, 0, 0, 2.42187, -54.4572, 2.42428, -174.217, 2.40957, 65.7244, 0.0227758, 53.8154
0, 1020.00000, 124.18, -31.3834, 124.056, -151.143, 124.814, 88.7982, 0, 0, 2.42188, -54.4573, 2.42429, -174.217, 2.40958, 65.7243, 0.0227773, 53.8176
0, 1080.00000, 124.18, -31.3834, 124.056, -151.143, 124.814, 88.7982, 0, 0, 2.42188, -54.4573, 2.42429, -174.217, 2.40958, 65.7243, 0.0227774, 53.8176
0, 1140.00000, 124.18, -31.3834, 124.056, -151.143, 124.814, 88.7982, 0, 0, 2.42188, -54.4573, 2.42429, -174.217, 2.40958, 65.7243, 0.0227774, 53.8176
0, 1200.00000, 124.18, -31.3834, 124.056, -151.143, 124.814, 88.7982, 0, 0, 2.42188, -54.4573, 2.42429, -174.217, 2.40958, 65.7243, 0.0227774, 53.8176
0, 1260.00000, 124.18, -31.3834, 124.056, -151.143, 124.814, 88.7982, 0, 0, 2.42188, -54.4573, 2.42429, -174.217, 2.40958, 65.7243, 0.0227774, 53.8176
0, 1320.00000, 124.18, -31.3834, 124.056, -151.143, 124.814, 88.7982, 0, 0, 2.42188, -54.4573, 2.42429, -174.217, 2.40958, 65.7243, 0.0227774, 53.8176
0, 1380.00000, 124.18, -31.3834, 124.056, -151.143, 124.814, 88.7982, 0, 0, 2.42188, -54.4573, 2.42429, -174.217, 2.40958, 65.7243, 0.0227774, 53.8176
0, 1440.00000, 124.18, -31.3834, 124.056, -151.143, 124.814, 88.7982, 0, 0, 2.42188, -54.4573, 2.42429, -174.217, 2.40958, 65.7243, 0.0227774, 53.8176
0, 1500.00000, 124.18, -31.3834, 124.056, -151.143, 124.814, 88.7982, 0, 0, 2.42188, -54.4573, 2.42429, -174.217, 2.40958, 65.7243, 0.0227774, 53.8176
0, 1560.00000, 124.18, -31.3834, 124.056, -151.143, 124.814, 88.7982, 0, 0, 2.42188, -54.4573, 2.42429, -174.217, 2.40958, 65.7243, 0.0227774, 53.8176
0, 1620.00000, 124.18, -31.3834, 124.056, -151.143, 124.814, 88.7982, 0, 0, 2.42188, -54.4573, 2.42429, -174.217, 2.40958, 65.7243, 0.0227774, 53.8176
0, 1680.00000, 124.18, -31.3834, 124.056, -151.143, 124.814, 88.7982, 0, 0, 2.42188, -54.4573, 2.42429, -174.217, 2.40958, 65.7243, 0.0227774, 53.8176
0, 1740.00000, 124.18, -31.3834, 124.056, -151.143, 124.814, 88.7982, 0, 0, 2.42188, -54.4573, 2.42429, -174.217, 2.40958, 65.7243, 0.0227774, 53.8176
0, 1800.00000, 124.18, -31.3834, 124.056, -151.143, 124.814, 88.7982, 0, 0, 2.42188, -54.4573, 2.42429, -174.217, 2.40958, 65.7243, 0.0227774, 53.8176
0, 1860.00000, 124.274, -31.365, 124.147, -151.125, 124.904, 88.8175, 0, 0, 2.2883, -54.44, 2.29064, -174.2, 2.27676, 65.7426, 0.021491, 53.5844
0, 1920.00000, 124.274, -31.3649, 124.148, -151.125, 124.904, 88.8175, 0, 0, 2.28821, -54.4389, 2.29054, -174.199, 2.27667, 65.7436, 0.0214776, 53.5699
0, 1980.00000, 124.274, -31.3649, 124.148, -151.125, 124.904, 88.8175, 0, 0, 2.2882, -54.4389, 2.29054, -174.199, 2.27667, 65.7436, 0.0214776, 53.5699
0, 2040.00000, 124.274, -31.3649, 124.148, -151.125, 124.904, 88.8175, 0, 0, 2.2882, -54.4389, 2.29054, -174.199, 2.27667, 65.7436, 0.0214776, 53.5699
0, 2100.00000, 124.274, -31.3649, 124.148, -151.125, 124.904, 88.8175, 0, 0, 2.2882, -54.4389, 2.29054, -174.199, 2.27667, 65.7436, 0.0214776, 53.5699
0, 2160.00000, 124.274, -31.3649, 124.148, -151.125, 124.904, 88.8175, 0, 0, 2.2882, -54.4389, 2.29054, -174.199, 2.27667, 65.7436, 0.0214776, 53.5699
0, 2220.00000, 124.274, -31.3649, 124.148, -151.125, 124.904, 88.8175, 0, 0, 2.2882, -54.4389, 2.29054, -174.199, 2.27667, 65.7436, 0.0214776, 53.5699
0, 2280.00000, 124.274, -31.3649, 124.148, -151.125, 124.904, 88.8175, 0, 0, 2.2882, -54.4389, 2.29054, -174.199, 2.27667, 65.7436, 0.0214776, 53.5699
0, 2340.00000, 124.274, -31.3649, 124.148, -151.125, 124.904, 88.8175, 0, 0, 2.2882, -54.4389, 2.29054, -174.199, 2.27667, 65.7436, 0.0214776, 53.5699
0, 2400.00000, 124.274, -31.3649, 124.148, -151.125, 124.904, 88.8175, 0, 0, 2.2882, -54.4389, 2.29054, -174.199, 2.27667, 65.7436, 0.0214776, 53.5699
0, 2460.00000, 124.274, -31.3649, 124.148, -151.125, 124.904, 88.8175, 0, 0, 2.2882, -54.4389, 2.29054, -174.199, 2.27667, 65.7436, 0.0214776, 53.5699
0, 2520.00000, 124.274, -31.3649, 124.148, -151.125, 124.904, 88.8175, 0, 0, 2.2882, -54.4389, 2.29054, -174.199, 2.27667, 65.7436, 0.0214776, 53.5699
0, 2580.00000, 124.274, -31.3649, 124.148, -151.125, 124.904, 88.8175, 0, 0, 2.2882, -54.4389, 2.29054, -174.199, 2.27667, 65.7436, 0.0214776, 53.5699
0, 2640.00000, 124.274, -31.3649, 124.148, -151.125, 124.904, 88.8175, 0, 0, 2.2882, -54.4389, 2.29054, -174.199, 2.27667, 65.7436, 0.0214776, 53.5699
0, 2700.00000, 124.274, -31.3649, 124.148, -151.125, 124.904, 88.8175, 0, 0, 2.2882, -54.4389, 2.29054, -174.199, 2.27667, 65.7436, 0.0214776, 53.5699
0, 2760.00000, 124.453, -31.3239, 124.32, -151.085, 125.076, 88.861, 0, 0, 2.23657, -54.398, 2.23896, -174.159, 2.22543, 65.7869, 0.0209424, 53.0225
0, 2820.00000, 124.453, -31.3239, 124.32, -151.085, 125.076, 88.8611, 0, 0, 2.23655, -54.3978, 2.23895, -174.159, 2.22541, 65.7871, 0.0209504, 53.0082
0, 2880.00000, 124.453, -31.3239, 124.32, -151.085, 125.076, 88.8611, 0, 0, 2.23655, -54.3978, 2.23895, -174.159, 2.22541, 65.7871, 0.0209506, 53.008
0, 2940.00000, 124.453, -31.3239, 124.32, -151.085, 125.076, 88.8611, 0, 0, 2.23655, -54.3978, 2.23895, -174.159, 2.22541, 65.7871, 0.0209506, 53.008
0, 3000.00000, 124.453, -31.3239, 124.32, -151.085, 125.076, 88.8611, 0, 0, 2.23655, -54.3978, 2.23895, -174.159, 2.22541, 65.7871, 0.0209506, 53.008
0, 3060.00000, 124.453, -31.3239, 124.32, -151.085, 125.076, 88.8611, 0, 0, 2.23655, -54.3978, 2.23895, -174.159, 2.22541, 65.7871, 0.0209506, 53.008
0, 3120.00000, 124.453, -31.3239, 124.32, -151.085, 125.076, 88.8611, 0, 0, 2.23655, -54.3978, 2.23895, -174.159, 2.22541, 65.7871, 0.0209506, 53.008
0, 3180.00000, 124.453, -31.3239, 124.32, -151.085, 125.076, 88.8611, 0, 0, 2.23655, -54.3978, 2.23895, -174.159, 2.22541, 65.7871, 0.0209506, 53.008
0, 3240.00000, 124.453, -31.3239, 124.32, -151.085, 125.076, 88.8611, 0, 0, 2.23655, -54.3978, 2.23895, -174.159, 2.22541, 65.7871, 0.0209506, 53.008
0, 3300.00000, 124.453, -31.3239, 124.32, -151.085, 125.076, 88.8611, 0, 0, 2.23655, -54.3978, 2.23895, -174.159, 2.22541, 65.7871, 0.0209506, 53.008
0, 3360.00000, 124.453, -31.3239, 124.32, -151.085, 125.076, 88.8611, 0, 0, 2.23655, -54.3978, 2.23895, -174.159, 2.22541, 65.7871, 0.0209506, 53.008
0, 3420.00000, 124.453, -31.3239, 124.32, -151.085, 125.076, 88.8611, 0, 0, 2.23655, -54.3978, 2.23895, -174.159, 2.22541, 65.7871, 0.0209506, 53.008
0, 3480.00000, 124.453, -31.3239, 124.32, -151.085, 125.076, 88.8611, 0, 0, 2.23655, -54.3978, 2.23895, -174.159, 2.22541, 65.7871, 0.0209506, 53.008
0, 3540.00000, 124.453, -31.3239, 124.32, -151.085, 125.076, 88.8611, 0, 0, 2.23655, -54.3978, 2.23895, -174.159, 2.22541, 65.7871, 0.0209506, 53.008
1, 0.00000, 124.453, -31.3239, 124.32, -151.085, 125.076, 88.8611, 0, 0, 2.23655, -54.3978, 2.23895, -174.159, 2.22541, 65.7871, 0.0209506, 53.008
1, 60.00000, 124.593, -31.2971, 124.455, -151.058, 125.213, 88.8901, 0, 0, 2.0507, -54.3711, 2.05298, -174.132, 2.04055, 65.8159, 0.019196, 52.5765
1, 120.00000, 124.593, -31.2971, 124.455, -151.058, 125.213, 88.8901, 0, 0, 2.05069, -54.371, 2.05297, -174.132, 2.04053, 65.8162, 0.0192074, 52.5604
1, 180.00000, 124.593, -31.2971, 124.455, -151.058, 125.213, 88.8901, 0, 0, 2.05069, -54.371, 2.05297, -174.132, 2.04053, 65.8162, 0.0192076, 52.5601
1, 240.00000, 124.593, -31.2971, 124.455, -151.058, 125.213, 88.8901, 0, 0, 2.05069, -54.371, 2.05297, -174.132, 2.04053, 65.8162, 0.0192077, 52.5601
1, 300.00000, 124.593, -31.2971, 124.455, -151.058, 125.213, 88.8901, 0, 0, 2.05069, -54.371, 2.05297, -174.132, 2.04053, 65.8162, 0.0192077, 52.5601
1, 360.00000, 124.593, -31.2971, 124.455, -151.058, 125.213, 88.8901, 0, 0, 2.05069, -54.371, 2.05297, -174.132, 2.04053, 65.8162, 0.0192077, 52.5601
1, 420.00000, 124.593, -31.2971, 124.455, -151.058, 125.213, 88.8901, 0, 0, 2.05069, -54.371, 2.05297, -174.132, 2.04053, 65.8162, 0.0192077, 52.5601
1, 480.00000, 124.593, -31.2971, 124.455, -151.058, 125.213, 88.8901, 0, 0, 2.05069, -54.371, 2.05297, -174.132, 2.04053, 65.8162, 0.0192077, 52.5601
1, 540.00000, 124.593, -31.2971, 124.455, -151.058, 125.213, 88.8901, 0, 0, 2.05069, -54.371, 2.05297, -174.132, 2.04053, 65.8162, 0.0192077, 52.5601
1, 600.00000, 124.593, -31.2971, 124.455, -151.058, 125.213, 88.8901, 0, 0, 2.05069, -54.371, 2.05297, -174.132, 2.04053, 65.8162, 0.0192077, 52.5601
1, 660.00000, 124.593, -31.2971, 124.455, -151.058, 125.213, 88.8901, 0, 0, 2.05069, -54.371, 2.05297, -174.132, 2.04053, 65.8162, 0.0192077, 52.5601
1, 720.00000, 124.593, -31.2971, 124.455, -151.058, 125.213, 88.8901, 0, 0, 2.05069, -54.371, 2.05297, -174.132, 2.04053, 65.8162, 0.0192077, 52.5601
1, 780.00000, 124.593, -31.2971, 124.455, -151.058, 125.213, 88.8901, 0, 0, 2.05069, -54.371, 2.05297, -174.132, 2.04053, 65.8162, 0.0192077, 52.5601
1, 840.00000, 124.593, -31.2971, 124.455, -151.058, 125.213, 88.8901, 0, 0, 2.05069, -54.371, 2.05297, -174.132, 2.04053, 65.8162, 0.0192077, 52.5601
1, 900.00000, 124.593, -31.2971, 124.455, -151.058, 125.213, 88.8901, 0, 0, 2.05069, -54.371, 2.05297, -174.132, 2.04053, 65.8162, 0.0192077, 52.5601
1, 960.00000, 124.609, -31.2921, 124.47, -151.053, 125.229, 88.8953, 0, 0, 2.07192, -54.3664, 2.07423, -174.127, 2.06168, 65.821, 0.0194011, 52.5132
1, 1020.00000, 124.609, -31.2921, 124.47, -151.053, 125.229, 88.8954, 0, 0, 2.0719, -54.366, 2.07421, -174.127, 2.06165, 65.8214, 0.0194067, 52.4971
1, 1080.00000, 124.609, -31.2921, 124.47, -151.053, 125.229, 88.8954, 0, 0, 2.0719, -54.366, 2.07421, -174.127, 2.06165, 65.8215, 0.019407, 52.4967
1, 1140.00000, 124.609, -31.2921, 124.47, -151.053, 125.229, 88.8954, 0, 0, 2.0719, -54.366, 2.07421, -174.127, 2.06165, 65.8215, 0.019407, 52.4967
1, 1200.00000, 124.609, -31.2921, 124.47, -151.053, 125.229, 88.8954, 0, 0, 2.0719, -54.366, 2.07421, -174.127, 2.06165, 65.8215, 0.019407, 52.4967
1, 1260.00000, 124.609, -31.2921, 124.47, -151.053, 125.229, 88.8954, 0, 0, 2.0719, -54.366, 2.07421, -174.127, 2.06165, 65.8215, 0.019407, 52.4967
1, 1320.00000, 124.609, -31.2921, 124.47, -151.053, 125.229, 88.8954, 0, 0, 2.0719, -54.366, 2.07421, -174.127, 2.06165, 65.8215, 0.019407, 52.4967
1, 1380.00000, 124.609, -31.2921, 124.47, -151.053, 125.229, 88.8954, 0, 0, 2.0719, -54.366, 2.07421, -174.127, 2.06165, 65.8215, 0.019407, 52.4967
1, 1440.00000, 124.609, -31.2921, 124.47, -151.053, 125.229, 88.8954, 0, 0, 2.0719, -54.366, 2.07421, -174.127, 2.06165, 65.8215, 0.019407, 52.4967
1, 1500.00000, 124.609, -31.2921, 124.47, -151.053, 125.229, 88.8954, 0, 0, 2.0719, -54.366, 2.07421, -174.127, 2.06165, 65.8215, 0.019407, 52.4967
1, 1560.00000, 124.609, -31.2921, 124.47, -151.053, 125.229, 88.8954, 0, 0, 2.0719, -54.366, 2.07421, -174.127, 2.06165, 65.8215, 0.019407, 52.4967
1, 1620.00000, 124.609, -31.2921, 124.47, -151.053, 125.229, 88.8954, 0, 0, 2.0719, -54.366, 2.07421, -174.127, 2.06165, 65.8215, 0.019407, 52.4967
1, 1680.00000, 124.609, -31.2921, 124.47, -151.053, 125.229, 88.8954, 0, 0, 2.0719, -54.366, 2.07421, -174.127, 2.06165, 65.8215, 0.019407, 52.4967
1, 1740.00000, 124.609, -31.2921, 124.47, -151.053, 125.229, 88.8954, 0, 0, 2.0719, -54.366, 2.07421, -174.127, 2.06165, 65.8215, 0.019407, 52.4967
1, 1800.00000, 124.609, -31.2921, 124.47, -151.053, 125.229, 88.8954, 0, 0, 2.0719, -54.366, 2.07421, -174.127, 2.06165, 65.8215, 0.019407, 52.4967
1, 1860.00000, 124.479, -31.3177, 124.344, -151.078, 125.102, 88.8678, 0, 0, 2.20662, -54.3915, 2.209, -174.152, 2.19561, 65.7941, 0.0206913, 52.9139
1, 1920.00000, 124.479, -31.3177, 124.344, -151.078, 125.102, 88.8677, 0, 0, 2.20663, -54.3916, 2.20901, -174.152, 2.19563, 65.7938, 0.0206797, 52.9296
1, 1980.00000, 124.479, -31.3177, 124.344, -151.078, 125.102, 88.8677, 0, 0, 2.20663, -54.3916, 2.20901, -174.152, 2.19563, 65.7938, 0.0206794, 52.9299
1, 2040.00000, 124.479, -31.3177, 124.344, -151.078, 125.102, 88.8677, 0, 0, 2.20663, -54.3916, 2.20901, -174.152, 2.19563, 65.7938, 0.0206794, 52.9299
1, 2100.00000, 124.479, -31.3177, 124.344, -151.078, 125.102, 88.8677, 0, 0, 2.20663, -54.3916, 2.20901, -174.152, 2.19563, 65.7938, 0.0206794, 52.9299
1, 2160.00000, 124.479, -31.3177, 124.344, -151.078, 125.102, 88.8677, 0, 0, 2.20663, -54.3916, 2.20901, -174.152, 2.19563, 65.7938, 0.0206794, 52.9299
1, 2220.00000, 124.479, -31.3177, 124.344, -151.078, 125.102, 88.8677, 0, 0, 2.20663, -54.3916, 2.20901, -174.152, 2.19563, 65.7938, 0.0206794, 52.9299
1, 2280.00000, 124.479, -31.3177, 124.344, -151.078, 125.102, 88.8677, 0, 0, 2.20663, -54.3916, 2.20901, -174.152, 2.19563, 65.7938, 0.0206794, 52.9299
1, 2340.00000, 124.479, -31.3177, 124.344, -151.078, 125.102, 88.8677, 0, 0, 2.20663, -54.3916, 2.20901, -174.152, 2.19563, 65.7938, 0.0206794, 52.9299
1, 2400.00000, 124.479, -31.3177, 124.344, -151.078, 125.102, 88.8677, 0, 0, 2.20663, -54.3916, 2.20901, -174.152, 2.19563, 65.7938, 0.0206794, 52.9299
1, 2460.00000, 124.479, -31.3177, 124.344, -151.078, 125.102, 88.8677, 0, 0, 2.20663, -54.3916, 2.20901, -174.152, 2.19563, 65.7938, 0.0206794, 52.9299
1, 2520.00000, 124.479, -31.3177, 124.344, -151.078, 125.102, 88.8677, 0, 0, 2.20663, -54.3916, 2.20901, -174.152, 2.19563, 65.7938, 0.0206794, 52.9299
1, 2580.00000, 124.479, -31.3177, 124.344, -151.078, 125.102, 88.8677, 0, 0, 2.20663, -54.3916, 2.20901, -174.152, 2.19563, 65.7938, 0.0206794, 52.9299
1, 2640.00000, 124.479, -31.3177, 124.344, -151.078, 125.102, 88.8677, 0, 0, 2.20663, -54.3916, 2.20901, -174.152, 2.19563, 65.7938, 0.0206794, 52.9299
1, 2700.00000, 124.479, -31.3177, 124.344, -151.078, 125.102, 88.8677, 0, 0, 2.20663, -54.3916, 2.20901, -174.152, 2.19563, 65.7938, 0.0206794, 52.9299
1, 2760.00000, 124.721, -31.2635, 124.58, -151.025, 125.339, 88.9259, 0, 0, 2.079, -54.3377, 2.08137, -174.099, 2.06877, 65.8515, 0.0194624, 52.2082
1, 2820.00000, 124.721, -31.2635, 124.58, -151.025, 125.34, 88.926, 0, 0, 2.07898, -54.3374, 2.08135, -174.099, 2.06873, 65.8521, 0.0194837, 52.1949
1, 2880.00000, 124.721, -31.2635, 124.58, -151.025, 125.34, 88.926, 0, 0, 2.07898, -54.3374, 2.08135, -174.099, 2.06873, 65.8521, 0.0194843, 52.1948
1, 2940.00000, 124.721, -31.2635, 124.58, -151.025, 125.34, 88.926, 0, 0, 2.07898, -54.3374, 2.08135, -174.099, 2.06873, 65.8521, 0.0194843, 52.1948
1, 3000.00000, 124.721, -31.2635, 124.58, -151.025, 125.34, 88.926, 0, 0, 2.07898, -54.3374, 2.08135, -174.099, 2.06873, 65.8521, 0.0194843, 52.1948
1, 3060.00000, 124.721, -31.2635, 124.58, -151.025, 125.34, 88.926, 0, 0, 2.07898, -54.3374, 2.08135, -174.099, 2.06873, 65.8521, 0.0194843, 52.1948
1, 3120.00000, 124.721, -31.2635, 124.58, -151.025, 125.34, 88.926, 0, 0, 2.07898, -54.3374, 2.08135, -174.099, 2.06873, 65.8521, 0.0194843, 52.1948
1, 3180.00000, 124.721, -31.2635, 124.58, -151.025, 125.34, 88.926, 0, 0, 2.07898, -54.3374, 2.08135, -174.099, 2.06873, 65.8521, 0.0194843, 52.1948
1, 3240.00000, 124.721, -31.2635, 124.58, -151.025, 125.34, 88.926, 0, 0, 2.07898, -54.3374, 2.08135, -174.099, 2.06873, 65.8521, 0.0194843, 52.1948
1, 3300.00000, 124.721, -31.2635, 124.58, -151.025, 125.34, 88.926, 0, 0, 2.07898, -54.3374, 2.08135, -174.099, 2.06873, 65.8521, 0.0194843, 52.1948
1, 3360.00000, 124.721, -31.2635, 124.58, -151.025, 125.34, 88.926, 0, 0, 2.07898, -54.3374, 2.08135, -174.099, 2.06873, 65.8521, 0.0194843, 52.1948
1, 3420.00000, 124.721, -31.2635, 124.58, -151.025, 125.34, 88.926, 0, 0, 2.07898, -54.3374, 2.08135, -174.099, 2.06873, 65.8521, 0.0194843, 52.1948
1, 3480.00000, 124.721, -31.2635, 124.58, -151.025, 125.34, 88.926, 0, 0, 2.07898, -54.3374, 2.08135, -174.099, 2.06873, 65.8521, 0.0194843, 52.1948
1, 3540.00000, 124.721, -31.2635, 124.58, -151.025, 125.34, 88.926, 0, 0, 2.07898, -54.3374, 2.08135, -174.099, 2.06873, 65.8521, 0.0194843, 52.1948
2, 0.00000, 124.721, -31.2635, 124.58, -151.025, 125.34, 88.926, 0, 0, 2.07898, -54.3374, 2.08135, -174.099, 2.06873, 65.8521, 0.0194843, 52.1948
2, 60.00000, 124.566, -31.2955, 124.429, -151.057, 125.189, 88.8915, 0, 0, 2.2151, -54.3692, 2.21754, -174.131, 2.20407, 65.8179, 0.0207828, 52.6193
2, 120.00000, 124.566, -31.2955, 124.429, -151.057, 125.189, 88.8915, 0, 0, 2.21511, -54.3694, 2.21755, -174.131, 2.2041, 65.8176, 0.0207698, 52.6316
2, 180.00000, 124.566, -31.2955, 124.429, -151.057, 125.189, 88.8915, 0, 0, 2.21511, -54.3694, 2.21755, -174.131, 2.2041, 65.8176, 0.0207694, 52.6319
2, 240.00000, 124.566, -31.2955, 124.429, -151.057, 125.189, 88.8915, 0, 0, 2.21511, -54.3694, 2.21755, -174.131, 2.2041, 65.8176, 0.0207694, 52.6319
2, 300.00000, 124.566, -31.2955, 124.429, -151.057, 125.189, 88.8915, 0, 0, 2.21511, -54.3694, 2.21755, -174.131, 2.2041, 65.8176, 0.0207694, 52.6319
2, 360.00000, 124.566, -31.2955, 124.429, -151.057, 125.189, 88.8915, 0, 0, 2.21511, -54.3694, 2.21755, -174.131, 2.2041, 65.8176, 0.0207694, 52.6319
2, 420.00000, 124.566, -31.2955, 124.429, -151.057, 125.189, 88.8915, 0, 0, 2.21511, -54.3694, 2.21755, -174.131, 2.2041, 65.8176, 0.0207694, 52.6319
2, 480.00000, 124.566, -31.2955, 124.429, -151.057, 125.189, 88.8915, 0, 0, 2.21511, -54.3694, 2.21755, -174.131, 2.2041, 65.8176, 0.0207694, 52.6319
2, 540.00000, 124.566, -31.2955, 124.429, -151.057, 125.189, 88.8915, 0, 0, 2.21511, -54.3694, 2.21755, -174.131, 2.2041, 65.8176, 0.0207694, 52.6319
2, 600.00000, 124.566, -31.2955, 124.429, -151.057, 125.189, 88.8915, 0, 0, 2.21511, -54.3694, 2.21755, -174.131, 2.2041, 65.8176, 0.0207694, 52.6319
2, 660.00000, 124.566, -31.2955, 124.429, -151.057, 125.189, 88.8915, 0, 0, 2.21511, -54.3694, 2.21755, -174.131, 2.2041, 65.8176, 0.0207694, 52.6319
2, 720.00000, 124.566, -31.2955, 124.429, -151.057, 125.189, 88.8915, 0, 0, 2.21511, -54.3694, 2.21755, -174.131, 2.2041, 65.8176, 0.0207694, 52.6319
