hour,t(sec),V1,VAngle1,V2,VAngle2,V3,VAngle3,V4,VAngle4,I1,IAngle1,I2,IAngle2,I3,IAngle3,I4,IAngle4
0, 60.00000, 119.058, -30.9739, 119.589, -150.826, 120.09, 88.9485, 0, 0, 5.92488, -54.0475, 5.95422, -173.9, 5.98196, 65.8751, 0.0307197, -95.725
0, 120.00000, 119.058, -30.9739, 119.589, -150.826, 120.089, 88.9485, 0, 0, 5.92481, -54.0479, 5.95414, -173.9, 5.98178, 65.8746, 0.030584, -95.7061
0, 180.00000, 119.058, -30.9739, 119.589, -150.826, 120.089, 88.9485, 0, 0, 5.92481, -54.0479, 5.95414, -173.9, 5.98178, 65.8746, 0.0305834, -95.7057
0, 240.00000, 119.058, -30.9739, 119.589, -150.826, 120.089, 88.9485, 0, 0, 5.92481, -54.0479, 5.95414, -173.9, 5.98178, 65.8746, 0.0305834, -95.7057
0, 300.00000, 119.058, -30.9739, 119.589, -150.826, 120.089, 88.9485, 0, 0, 5.92481, -54.0479, 5.95414, -173.9, 5.98178, 65.8746, 0.0305834, -95.7057
0, 360.00000, 119.058, -30.9739, 119.589, -150.826, 120.089, 88.9485, 0, 0, 5.92481, -54.0479, 5.95414, -173.9, 5.98178, 65.8746, 0.0305834, -95.7057
0, 420.00000, 119.058, -30.9739, 119.589, -150.826, 120.089, 88.9485, 0, 0, 5.92481, -54.0479, 5.95414, -173.9, 5.98178, 65.8746, 0.0305834, -95.7057
0, 480.00000, 119.058, -30.9739, 119.589, -150.826, 120.089, 88.9485, 0, 0, 5.92481, -54.0479, 5.95414, -173.9, 5.98178, 65.8746, 0.0305834, -95.7057
0, 540.00000, 119.058, -30.9739, 119.589, -150.826, 120.089, 88.9485, 0, 0, 5.92481, -54.0479, 5.95414, -173.9, 5.98178, 65.8746, 0.0305834, -95.7057
0, 600.00000, 119.058, -30.9739, 119.589, -150.826, 120.089, 88.9485, 0, 0, 5.92481, -54.0479, 5.95414, -173.9, 5.98178, 65.8746, 0.0305834, -95.7057
0, 660.00000, 119.058, -30.9739, 119.589, -150.826, 120.089, 88.9485, 0, 0, 5.92481, -54.0479, 5.95414, -173.9, 5.98178, 65.8746, 0.0305834, -95.7057
0, 720.00000, 119.058, -30.9739, 119.589, -150.826, 120.089, 88.9485, 0, 0, 5.92481, -54.0479, 5.95414, -173.9, 5.98178, 65.8746, 0.0305834, -95.7057
0, 780.00000, 119.058, -30.9739, 119.589, -150.826, 120.089, 88.9485, 0, 0, 5.92481, -54.0479, 5.95414, -173.9, 5.98178, 65.8746, 0.0305834, -95.7057
0, 840.00000, 119.058, -30.9739, 119.589, -150.826, 120.089, 88.9485, 0, 0, 5.92481, -54.0479, 5.95414, -173.9, 5.98178, 65.8746, 0.0305834, -95.7057
0, 900.00000, 119.058, -30.9739, 119.589, -150.826, 120.089, 88.9485, 0, 0, 5.92481, -54.0479, 5.95414, -173.9, 5.98178, 65.8746, 0.0305834, -95.7057
0, 960.00000, 118.261, -31.2504, 118.63, -150.728, 119.953, 88.9107, 0, 0, 5.75524, -54.3239, 5.77516, -173.802, 5.84662, 65.8369, 0.0366854, -103.064
0, 1020.00000, 118.261, -31.2504, 118.63, -150.728, 119.953, 88.9107, 0, 0, 5.75516, -54.3243, 5.77507, -173.802, 5.84661, 65.8368, 0.0367023, -103.083
0, 1080.00000, 118.261, -31.2504, 118.63, -150.728, 119.953, 88.9107, 0, 0, 5.75516, -54.3243, 5.77507, -173.802, 5.84661, 65.8368, 0.0367024, -103.083
0, 1140.00000, 118.261, -31.2504, 118.63, -150.728, 119.953, 88.9107, 0, 0, 5.75516, -54.3243, 5.77507, -173.802, 5.84661, 65.8368, 0.0367024, -103.083
0, 1200.00000, 118.261, -31.2504, 118.63, -150.728, 119.953, 88.9107, 0, 0, 5.75516, -54.3243, 5.77507, -173.802, 5.84661, 65.8368, 0.0367024, -103.083
0, 1260.00000, 118.261, -31.2504, 118.63, -150.728, 119.953, 88.9107, 0, 0, 5.75516, -54.3243, 5.77507, -173.802, 5.84661, 65.8368, 0.0367024, -103.083
0, 1320.00000, 118.261, -31.2504, 118.63, -150.728, 119.953, 88.9107, 0, 0, 5.75516, -54.3243, 5.77507, -173.802, 5.84661, 65.8368, 0.0367024, -103.083
0, 1380.00000, 118.261, -31.2504, 118.63, -150.728, 119.953, 88.9107, 0, 0, 5.75516, -54.3243, 5.77507, -173.802, 5.84661, 65.8368, 0.0367024, -103.083
0, 1440.00000, 118.261, -31.2504, 118.63, -150.728, 119.953, 88.9107, 0, 0, 5.75516, -54.3243, 5.77507, -173.802, 5.84661, 65.8368, 0.0367024, -103.083
0, 1500.00000, 118.261, -31.2504, 118.63, -150.728, 119.953, 88.9107, 0, 0, 5.75516, -54.3243, 5.77507, -173.802, 5.84661, 65.8368, 0.0367024, -103.083
0, 1560.00000, 118.261, -31.2504, 118.63, -150.728, 119.953, 88.9107, 0, 0, 5.75516, -54.3243, 5.77507, -173.802, 5.84661, 65.8368, 0.0367024, -103.083
0, 1620.00000, 118.261, -31.2504, 118.63, -150.728, 119.953, 88.9107, 0, 0, 5.75516, -54.3243, 5.77507, -173.802, 5.84661, 65.8368, 0.0367024, -103.083
0, 1680.00000, 118.261, -31.2504, 118.63, -150.728, 119.953, 88.9107, 0, 0, 5.75516, -54.3243, 5.77507, -173.802, 5.84661, 65.8368, 0.0367024, -103.083
0, 1740.00000, 118.261, -31.2504, 118.63, -150.728, 119.953, 88.9107, 0, 0, 5.75516, -54.3243, 5.77507, -173.802, 5.84661, 65.8368, 0.0367024, -103.083
0, 1800.00000, 118.261, -31.2504, 118.63, -150.728, 119.953, 88.9107, 0, 0, 5.75516, -54.3243, 5.77507, -173.802, 5.84661, 65.8368, 0.0367024, -103.083
0, 1860.00000, 118.473, -31.2399, 118.835, -150.718, 120.159, 88.9257, 0, 0, 5.4525, -54.314, 5.47083, -173.792, 5.5383, 65.8503, 0.034226, -103.123
0, 1920.00000, 118.473, -31.2398, 118.835, -150.718, 120.16, 88.9258, 0, 0, 5.45247, -54.3137, 5.47097, -173.792, 5.53868, 65.8519, 0.034591, -102.783
0, 1980.00000, 118.473, -31.2398, 118.835, -150.718, 120.16, 88.9258, 0, 0, 5.45247, -54.3137, 5.47097, -173.792, 5.53868, 65.8519, 0.0345926, -102.783
0, 2040.00000, 118.473, -31.2398, 118.835, -150.718, 120.16, 88.9258, 0, 0, 5.45247, -54.3137, 5.47097, -173.792, 5.53868, 65.8519, 0.0345926, -102.783
0, 2100.00000, 118.473, -31.2398, 118.835, -150.718, 120.16, 88.9258, 0, 0, 5.45247, -54.3137, 5.47097, -173.792, 5.53868, 65.8519, 0.0345926, -102.783
0, 2160.00000, 118.473, -31.2398, 118.835, -150.718, 120.16, 88.9258, 0, 0, 5.45247, -54.3137, 5.47097, -173.792, 5.53868, 65.8519, 0.0345926, -102.783
0, 2220.00000, 118.473, -31.2398, 118.835, -150.718, 120.16, 88.9258, 0, 0, 5.45247, -54.3137, 5.47097, -173.792, 5.53868, 65.8519, 0.0345926, -102.783
0, 2280.00000, 118.473, -31.2398, 118.835, -150.718, 120.16, 88.9258, 0, 0, 5.45247, -54.3137, 5.47097, -173.792, 5.53868, 65.8519, 0.0345926, -102.783
0, 2340.00000, 118.473, -31.2398, 118.835, -150.718, 120.16, 88.9258, 0, 0, 5.45247, -54.3137, 5.47097, -173.792, 5.53868, 65.8519, 0.0345926, -102.783
0, 2400.00000, 118.473, -31.2398, 118.835, -150.718, 120.16, 88.9258, 0, 0, 5.45247, -54.3137, 5.47097, -173.792, 5.53868, 65.8519, 0.0345926, -102.783
0, 2460.00000, 118.473, -31.2398, 118.835, -150.718, 120.16, 88.9258, 0, 0, 5.45247, -54.3137, 5.47097, -173.792, 5.53868, 65.8519, 0.0345926, -102.783
0, 2520.00000, 118.473, -31.2398, 118.835, -150.718, 120.16, 88.9258, 0, 0, 5.45247, -54.3137, 5.47097, -173.792, 5.53868, 65.8519, 0.0345926, -102.783
0, 2580.00000, 118.473, -31.2398, 118.835, -150.718, 120.16, 88.9258, 0, 0, 5.45247, -54.3137, 5.47097, -173.792, 5.53868, 65.8519, 0.0345926, -102.783
0, 2640.00000, 118.473, -31.2398, 118.835, -150.718, 120.16, 88.9258, 0, 0, 5.45247, -54.3137, 5.47097, -173.792, 5.53868, 65.8519, 0.0345926, -102.783
0, 2700.00000, 118.473, -31.2398, 118.835, -150.718, 120.16, 88.9258, 0, 0, 5.45247, -54.3137, 5.47097, -173.792, 5.53868, 65.8519, 0.0345926, -102.783
0, 2760.00000, 118.796, -31.2082, 119.148, -150.688, 120.478, 88.9646, 0, 0, 5.35318, -54.2824, 5.37081, -173.761, 5.43728, 65.8904, 0.0338183, -102.261
0, 2820.00000, 118.796, -31.2082, 119.148, -150.688, 120.479, 88.9646, 0, 0, 5.35319, -54.2821, 5.37082, -173.761, 5.43738, 65.8907, 0.033935, -102.253
0, 2880.00000, 118.796, -31.2082, 119.148, -150.688, 120.479, 88.9646, 0, 0, 5.35319, -54.2821, 5.37082, -173.761, 5.43738, 65.8907, 0.0339368, -102.253
0, 2940.00000, 118.796, -31.2082, 119.148, -150.688, 120.479, 88.9646, 0, 0, 5.35319, -54.2821, 5.37082, -173.761, 5.43738, 65.8907, 0.0339368, -102.253
0, 3000.00000, 118.796, -31.2082, 119.148, -150.688, 120.479, 88.9646, 0, 0, 5.35319, -54.2821, 5.37082, -173.761, 5.43738, 65.8907, 0.0339368, -102.253
0, 3060.00000, 118.796, -31.2082, 119.148, -150.688, 120.479, 88.9646, 0, 0, 5.35319, -54.2821, 5.37082, -173.761, 5.43738, 65.8907, 0.0339368, -102.253
0, 3120.00000, 118.796, -31.2082, 119.148, -150.688, 120.479, 88.9646, 0, 0, 5.35319, -54.2821, 5.37082, -173.761, 5.43738, 65.8907, 0.0339368, -102.253
0, 3180.00000, 118.796, -31.2082, 119.148, -150.688, 120.479, 88.9646, 0, 0, 5.35319, -54.2821, 5.37082, -173.761, 5.43738, 65.8907, 0.0339368, -102.253
0, 3240.00000, 118.796, -31.2082, 119.148, -150.688, 120.479, 88.9646, 0, 0, 5.35319, -54.2821, 5.37082, -173.761, 5.43738, 65.8907, 0.0339368, -102.253
0, 3300.00000, 118.796, -31.2082, 119.148, -150.688, 120.479, 88.9646, 0, 0, 5.35319, -54.2821, 5.37082, -173.761, 5.43738, 65.8907, 0.0339368, -102.253
0, 3360.00000, 118.796, -31.2082, 119.148, -150.688, 120.479, 88.9646, 0, 0, 5.35319, -54.2821, 5.37082, -173.761, 5.43738, 65.8907, 0.0339368, -102.253
0, 3420.00000, 118.796, -31.2082, 119.148, -150.688, 120.479, 88.9646, 0, 0, 5.35319, -54.2821, 5.37082, -173.761, 5.43738, 65.8907, 0.0339368, -102.253
0, 3480.00000, 118.796, -31.2082, 119.148, -150.688, 120.479, 88.9646, 0, 0, 5.35319, -54.2821, 5.37082, -173.761, 5.43738, 65.8907, 0.0339368, -102.253
0, 3540.00000, 118.796, -31.2082, 119.148, -150.688, 120.479, 88.9646, 0, 0, 5.35319, -54.2821, 5.37082, -173.761, 5.43738, 65.8907, 0.0339368, -102.253
1, 0.00000, 118.796, -31.2082, 119.148, -150.688, 120.479, 88.9646, 0, 0, 5.35319, -54.2821, 5.37082, -173.761, 5.43738, 65.8907, 0.0339368, -102.253
1, 60.00000, 119.042, -31.1856, 119.382, -150.667, 120.721, 88.9916, 0, 0, 4.92514, -54.2597, 4.94076, -173.741, 4.99756, 65.9174, 0.0266995, -100.363
1, 120.00000, 119.042, -31.1855, 119.382, -150.667, 120.722, 88.9916, 0, 0, 4.92515, -54.2594, 4.94076, -173.741, 4.99745, 65.9177, 0.0266292, -100.272
1, 180.00000, 119.042, -31.1855, 119.382, -150.667, 120.722, 88.9916, 0, 0, 4.92515, -54.2594, 4.94076, -173.741, 4.99745, 65.9177, 0.0266284, -100.27
1, 240.00000, 119.042, -31.1855, 119.382, -150.667, 120.722, 88.9916, 0, 0, 4.92515, -54.2594, 4.94076, -173.741, 4.99745, 65.9177, 0.0266284, -100.27
1, 300.00000, 119.042, -31.1855, 119.382, -150.667, 120.722, 88.9916, 0, 0, 4.92515, -54.2594, 4.94076, -173.741, 4.99745, 65.9177, 0.0266284, -100.27
1, 360.00000, 119.042, -31.1855, 119.382, -150.667, 120.722, 88.9916, 0, 0, 4.92515, -54.2594, 4.94076, -173.741, 4.99745, 65.9177, 0.0266284, -100.27
1, 420.00000, 119.042, -31.1855, 119.382, -150.667, 120.722, 88.9916, 0, 0, 4.92515, -54.2594, 4.94076, -173.741, 4.99745, 65.9177, 0.0266284, -100.27
1, 480.00000, 119.042, -31.1855, 119.382, -150.667, 120.722, 88.9916, 0, 0, 4.92515, -54.2594, 4.94076, -173.741, 4.99745, 65.9177, 0.0266284, -100.27
1, 540.00000, 119.042, -31.1855, 119.382, -150.667, 120.722, 88.9916, 0, 0, 4.92515, -54.2594, 4.94076, -173.741, 4.99745, 65.9177, 0.0266284, -100.27
1, 600.00000, 119.042, -31.1855, 119.382, -150.667, 120.722, 88.9916, 0, 0, 4.92515, -54.2594, 4.94076, -173.741, 4.99745, 65.9177, 0.0266284, -100.27
1, 660.00000, 119.042, -31.1855, 119.382, -150.667, 120.722, 88.9916, 0, 0, 4.92515, -54.2594, 4.94076, -173.741, 4.99745, 65.9177, 0.0266284, -100.27
1, 720.00000, 119.042, -31.1855, 119.382, -150.667, 120.722, 88.9916, 0, 0, 4.92515, -54.2594, 4.94076, -173.741, 4.99745, 65.9177, 0.0266284, -100.27
1, 780.00000, 119.042, -31.1855, 119.382, -150.667, 120.722, 88.9916, 0, 0, 4.92515, -54.2594, 4.94076, -173.741, 4.99745, 65.9177, 0.0266284, -100.27
1, 840.00000, 119.042, -31.1855, 119.382, -150.667, 120.722, 88.9916, 0, 0, 4.92515, -54.2594, 4.94076, -173.741, 4.99745, 65.9177, 0.0266284, -100.27
1, 900.00000, 119.042, -31.1855, 119.382, -150.667, 120.722, 88.9916, 0, 0, 4.92515, -54.2594, 4.94076, -173.741, 4.99745, 65.9177, 0.0266284, -100.27
1, 960.00000, 119.092, -31.1834, 119.43, -150.665, 120.772, 88.9946, 0, 0, 4.97903, -54.2576, 4.99471, -173.739, 5.04786, 65.9203, 0.0228511, -97.8161
1, 1020.00000, 119.092, -31.1833, 119.43, -150.665, 120.773, 88.9947, 0, 0, 4.97906, -54.2573, 4.99475, -173.739, 5.04766, 65.9207, 0.0226775, -97.5709
1, 1080.00000, 119.092, -31.1833, 119.43, -150.665, 120.773, 88.9947, 0, 0, 4.97906, -54.2573, 4.99475, -173.739, 5.04766, 65.9208, 0.0226762, -97.5679
1, 1140.00000, 119.092, -31.1833, 119.43, -150.665, 120.773, 88.9947, 0, 0, 4.97906, -54.2573, 4.99475, -173.739, 5.04766, 65.9208, 0.0226762, -97.5679
1, 1200.00000, 119.092, -31.1833, 119.43, -150.665, 120.773, 88.9947, 0, 0, 4.97906, -54.2573, 4.99475, -173.739, 5.04766, 65.9208, 0.0226762, -97.5679
1, 1260.00000, 119.092, -31.1833, 119.43, -150.665, 120.773, 88.9947, 0, 0, 4.97906, -54.2573, 4.99475, -173.739, 5.04766, 65.9208, 0.0226762, -97.5679
1, 1320.00000, 119.092, -31.1833, 119.43, -150.665, 120.773, 88.9947, 0, 0, 4.97906, -54.2573, 4.99475, -173.739, 5.04766, 65.9208, 0.0226762, -97.5679
1, 1380.00000, 119.092, -31.1833, 119.43, -150.665, 120.773, 88.9947, 0, 0, 4.97906, -54.2573, 4.99475, -173.739, 5.04766, 65.9208, 0.0226762, -97.5679
1, 1440.00000, 119.092, -31.1833, 119.43, -150.665, 120.773, 88.9947, 0, 0, 4.97906, -54.2573, 4.99475, -173.739, 5.04766, 65.9208, 0.0226762, -97.5679
1, 1500.00000, 119.092, -31.1833, 119.43, -150.665, 120.773, 88.9947, 0, 0, 4.97906, -54.2573, 4.99475, -173.739, 5.04766, 65.9208, 0.0226762, -97.5679
1, 1560.00000, 119.092, -31.1833, 119.43, -150.665, 120.773, 88.9947, 0, 0, 4.97906, -54.2573, 4.99475, -173.739, 5.04766, 65.9208, 0.0226762, -97.5679
1, 1620.00000, 119.092, -31.1833, 119.43, -150.665, 120.773, 88.9947, 0, 0, 4.97906, -54.2573, 4.99475, -173.739, 5.04766, 65.9208, 0.0226762, -97.5679
1, 1680.00000, 119.092, -31.1833, 119.43, -150.665, 120.773, 88.9947, 0, 0, 4.97906, -54.2573, 4.99475, -173.739, 5.04766, 65.9208, 0.0226762, -97.5679
1, 1740.00000, 119.092, -31.1833, 119.43, -150.665, 120.773, 88.9947, 0, 0, 4.97906, -54.2573, 4.99475, -173.739, 5.04766, 65.9208, 0.0226762, -97.5679
1, 1800.00000, 119.092, -31.1833, 119.43, -150.665, 120.773, 88.9947, 0, 0, 4.97906, -54.2573, 4.99475, -173.739, 5.04766, 65.9208, 0.0226762, -97.5679
1, 1860.00000, 118.902, -31.2078, 119.25, -150.687, 120.581, 88.9669, 0, 0, 5.28793, -54.2815, 5.30507, -173.761, 5.37088, 65.8932, 0.0334898, -102.301
1, 1920.00000, 118.902, -31.2078, 119.25, -150.687, 120.581, 88.9669, 0, 0, 5.28791, -54.2817, 5.30506, -173.761, 5.3708, 65.893, 0.0333847, -102.283
1, 1980.00000, 118.902, -31.2078, 119.25, -150.687, 120.581, 88.9669, 0, 0, 5.28791, -54.2817, 5.30506, -173.761, 5.37079, 65.893, 0.0333831, -102.283
1, 2040.00000, 118.902, -31.2078, 119.25, -150.687, 120.581, 88.9669, 0, 0, 5.28791, -54.2817, 5.30506, -173.761, 5.37079, 65.893, 0.033383, -102.283
1, 2100.00000, 118.902, -31.2078, 119.25, -150.687, 120.581, 88.9669, 0, 0, 5.28791, -54.2817, 5.30506, -173.761, 5.37079, 65.893, 0.033383, -102.283
1, 2160.00000, 118.902, -31.2078, 119.25, -150.687, 120.581, 88.9669, 0, 0, 5.28791, -54.2817, 5.30506, -173.761, 5.37079, 65.893, 0.033383, -102.283
1, 2220.00000, 118.902, -31.2078, 119.25, -150.687, 120.581, 88.9669, 0, 0, 5.28791, -54.2817, 5.30506, -173.761, 5.37079, 65.893, 0.033383, -102.283
1, 2280.00000, 118.902, -31.2078, 119.25, -150.687, 120.581, 88.9669, 0, 0, 5.28791, -54.2817, 5.30506, -173.761, 5.37079, 65.893, 0.033383, -102.283
1, 2340.00000, 118.902, -31.2078, 119.25, -150.687, 120.581, 88.9669, 0, 0, 5.28791, -54.2817, 5.30506, -173.761, 5.37079, 65.893, 0.033383, -102.283
1, 2400.00000, 118.902, -31.2078, 119.25, -150.687, 120.581, 88.9669, 0, 0, 5.28791, -54.2817, 5.30506, -173.761, 5.37079, 65.893, 0.033383, -102.283
1, 2460.00000, 118.902, -31.2078, 119.25, -150.687, 120.581, 88.9669, 0, 0, 5.28791, -54.2817, 5.30506, -173.761, 5.37079, 65.893, 0.033383, -102.283
1, 2520.00000, 118.902, -31.2078, 119.25, -150.687, 120.581, 88.9669, 0, 0, 5.28791, -54.2817, 5.30506, -173.761, 5.37079, 65.893, 0.033383, -102.283
1, 2580.00000, 118.902, -31.2078, 119.25, -150.687, 120.581, 88.9669, 0, 0, 5.28791, -54.2817, 5.30506, -173.761, 5.37079, 65.893, 0.033383, -102.283
1, 2640.00000, 118.902, -31.2078, 119.25, -150.687, 120.581, 88.9669, 0, 0, 5.28791, -54.2817, 5.30506, -173.761, 5.37079, 65.893, 0.033383, -102.283
1, 2700.00000, 118.873, -31.2032, 118.901, -150.888, 120, 88.9926, 0, 0, 5.28644, -54.277, 5.28788, -173.962, 5.34223, 65.9191, 0.0303411, -104.905
1, 2760.00000, 119.335, -31.1624, 119.336, -150.849, 120.435, 89.0413, 0, 0, 5.0119, -54.2365, 5.01195, -173.923, 5.06315, 65.9672, 0.0278043, -105.414
1, 2820.00000, 119.336, -31.1624, 119.336, -150.849, 120.435, 89.0413, 0, 0, 5.01194, -54.2363, 5.01196, -173.923, 5.0632, 65.9674, 0.0278326, -105.465
1, 2880.00000, 119.336, -31.1624, 119.336, -150.849, 120.435, 89.0413, 0, 0, 5.01194, -54.2363, 5.01196, -173.923, 5.0632, 65.9674, 0.0278329, -105.465
1, 2940.00000, 119.336, -31.1624, 119.336, -150.849, 120.435, 89.0413, 0, 0, 5.01194, -54.2363, 5.01196, -173.923, 5.0632, 65.9674, 0.0278329, -105.465
1, 3000.00000, 119.336, -31.1624, 119.336, -150.849, 120.435, 89.0413, 0, 0, 5.01194, -54.2363, 5.01196, -173.923, 5.0632, 65.9674, 0.0278329, -105.465
1, 3060.00000, 119.336, -31.1624, 119.336, -150.849, 120.435, 89.0413, 0, 0, 5.01194, -54.2363, 5.01196, -173.923, 5.0632, 65.9674, 0.0278329, -105.465
1, 3120.00000, 119.336, -31.1624, 119.336, -150.849, 120.435, 89.0413, 0, 0, 5.01194, -54.2363, 5.01196, -173.923, 5.0632, 65.9674, 0.0278329, -105.465
1, 3180.00000, 119.336, -31.1624, 119.336, -150.849, 120.435, 89.0413, 0, 0, 5.01194, -54.2363, 5.01196, -173.923, 5.0632, 65.9674, 0.0278329, -105.465
1, 3240.00000, 119.336, -31.1624, 119.336, -150.849, 120.435, 89.0413, 0, 0, 5.01194, -54.2363, 5.01196, -173.923, 5.0632, 65.9674, 0.0278329, -105.465
1, 3300.00000, 119.336, -31.1624, 119.336, -150.849, 120.435, 89.0413, 0, 0, 5.01194, -54.2363, 5.01196, -173.923, 5.0632, 65.9674, 0.0278329, -105.465
1, 3360.00000, 119.336, -31.1624, 119.336, -150.849, 120.435, 89.0413, 0, 0, 5.01194, -54.2363, 5.01196, -173.923, 5.0632, 65.9674, 0.0278329, -105.465
1, 3420.00000, 119.336, -31.1624, 119.336, -150.849, 120.435, 89.0413, 0, 0, 5.01194, -54.2363, 5.01196, -173.923, 5.0632, 65.9674, 0.0278329, -105.465
1, 3480.00000, 119.336, -31.1624, 119.336, -150.849, 120.435, 89.0413, 0, 0, 5.01194, -54.2363, 5.01196, -173.923, 5.0632, 65.9674, 0.0278329, -105.465
1, 3540.00000, 119.336, -31.1624, 119.336, -150.849, 120.435, 89.0413, 0, 0, 5.01194, -54.2363, 5.01196, -173.923, 5.0632, 65.9674, 0.0278329, -105.465
2, 0.00000, 119.336, -31.1624, 119.336, -150.849, 120.435, 89.0413, 0, 0, 5.01194, -54.2363, 5.01196, -173.923, 5.0632, 65.9674, 0.0278329, -105.465
2, 60.00000, 119.079, -31.1895, 119.096, -150.875, 120.194, 89.0098, 0, 0, 5.32077, -54.2633, 5.32157, -173.949, 5.37608, 65.936, 0.0299979, -105.194
2, 120.00000, 119.079, -31.1895, 119.096, -150.875, 120.194, 89.0098, 0, 0, 5.32074, -54.2635, 5.32156, -173.949, 5.37605, 65.9359, 0.0299786, -105.162
2, 180.00000, 119.079, -31.1896, 119.096, -150.875, 120.194, 89.0098, 0, 0, 5.32074, -54.2635, 5.32156, -173.949, 5.37604, 65.9359, 0.0299784, -105.162
2, 240.00000, 119.079, -31.1896, 119.096, -150.875, 120.194, 89.0098, 0, 0, 5.32074, -54.2635, 5.32156, -173.949, 5.37604, 65.9359, 0.0299784, -105.162
2, 300.00000, 119.079, -31.1896, 119.096, -150.875, 120.194, 89.0098, 0, 0, 5.32074, -54.2635, 5.32156, -173.949, 5.37604, 65.9359, 0.0299784, -105.162
2, 360.00000, 119.079, -31.1896, 119.096, -150.875, 120.194, 89.0098, 0, 0, 5.32074, -54.2635, 5.32156, -173.949, 5.37604, 65.9359, 0.0299784, -105.162
2, 420.00000, 119.079, -31.1896, 119.096, -150.875, 120.194, 89.0098, 0, 0, 5.32074, -54.2635, 5.32156, -173.949, 5.37604, 65.9359, 0.0299784, -105.162
2, 480.00000, 119.079, -31.1896, 119.096, -150.875, 120.194, 89.0098, 0, 0, 5.32074, -54.2635, 5.32156, -173.949, 5.37604, 65.9359, 0.0299784, -105.162
2, 540.00000, 119.711, -30.9377, 119.884, -151, 120.153, 89.0164, 0, 0, 5.35206, -54.0116, 5.3606, -174.074, 5.37404, 65.9425, 0.0235342, -99.2415
2, 600.00000, 119.711, -30.9377, 119.884, -151, 120.153, 89.0164, 0, 0, 5.35211, -54.0116, 5.36068, -174.074, 5.37399, 65.9425, 0.0234039, -99.1179
2, 660.00000, 119.711, -30.9377, 119.884, -151, 120.153, 89.0164, 0, 0, 5.35211, -54.0116, 5.36068, -174.074, 5.37399, 65.9425, 0.0234031, -99.1173
