hour,t(sec),V1,VAngle1,V2,VAngle2,V3,VAngle3,V4,VAngle4,I1,IAngle1,I2,IAngle2,I3,IAngle3,I4,IAngle4
0, 60.00000, 121.433, -32.13, 121.309, -151.201, 123.936, 88.4196, 0, 0, 11.9967, -55.2039, 12.009, -174.275, 11.7549, 65.3456, 0.417151, 61.4133
0, 120.00000, 121.44, -32.1369, 121.309, -151.201, 123.956, 88.4188, 0, 0, 11.9961, -55.2108, 12.0091, -174.275, 11.7529, 65.3449, 0.420068, 61.2798
0, 180.00000, 121.445, -32.143, 121.308, -151.201, 123.974, 88.4182, 0, 0, 11.9956, -55.2169, 12.0091, -174.275, 11.7512, 65.3442, 0.422688, 61.162
0, 240.00000, 121.45, -32.1486, 121.308, -151.201, 123.99, 88.4175, 0, 0, 11.9951, -55.2224, 12.0091, -174.275, 11.7496, 65.3436, 0.425049, 61.0575
0, 300.00000, 121.455, -32.1535, 121.308, -151.202, 124.005, 88.417, 0, 0, 11.9946, -55.2274, 12.0092, -174.275, 11.7482, 65.343, 0.427176, 60.9647
0, 360.00000, 121.459, -32.158, 121.307, -151.202, 124.018, 88.4165, 0, 0, 11.9942, -55.2319, 12.0092, -174.275, 11.747, 65.3425, 0.429093, 60.8821
0, 420.00000, 121.463, -32.1621, 121.307, -151.202, 124.029, 88.416, 0, 0, 11.9938, -55.236, 12.0092, -174.276, 11.7458, 65.3421, 0.430819, 60.8084
0, 480.00000, 122.289, -32.0647, 122.072, -151.093, 124.836, 88.5439, 0, 0, 10.3641, -55.1386, 10.3826, -174.167, 10.1529, 65.47, 0.374338, 59.5676
0, 540.00000, 122.292, -32.0681, 122.072, -151.093, 124.845, 88.5435, 0, 0, 10.3639, -55.1419, 10.3826, -174.167, 10.1521, 65.4696, 0.37556, 59.5132
0, 600.00000, 122.295, -32.0711, 122.071, -151.093, 124.854, 88.5432, 0, 0, 10.3637, -55.1449, 10.3826, -174.167, 10.1514, 65.4693, 0.376655, 59.4649
0, 660.00000, 122.298, -32.0738, 122.071, -151.093, 124.861, 88.5428, 0, 0, 10.3634, -55.1476, 10.3827, -174.167, 10.1508, 65.4689, 0.377641, 59.4217
0, 720.00000, 122.3, -32.0762, 122.071, -151.094, 124.868, 88.5425, 0, 0, 10.3633, -55.1501, 10.3827, -174.167, 10.1502, 65.4686, 0.378529, 59.3831
0, 780.00000, 122.302, -32.0784, 122.071, -151.094, 124.874, 88.5422, 0, 0, 10.3631, -55.1523, 10.3827, -174.167, 10.1497, 65.4683, 0.379329, 59.3486
0, 840.00000, 122.304, -32.0804, 122.071, -151.094, 124.88, 88.542, 0, 0, 10.3629, -55.1543, 10.3827, -174.167, 10.1492, 65.4681, 0.380049, 59.3176
0, 900.00000, 122.305, -32.0822, 122.071, -151.094, 124.885, 88.5418, 0, 0, 10.3628, -55.156, 10.3827, -174.168, 10.1488, 65.4679, 0.380697, 59.2899
0, 960.00000, 122.307, -32.0838, 122.071, -151.094, 124.89, 88.5416, 0, 0, 10.3627, -55.1576, 10.3827, -174.168, 10.1484, 65.4677, 0.38128, 59.2651
0, 1020.00000, 122.308, -32.0852, 122.071, -151.094, 124.894, 88.5414, 0, 0, 10.3626, -55.1591, 10.3827, -174.168, 10.1481, 65.4675, 0.381806, 59.2428
0, 1080.00000, 122.309, -32.0865, 122.071, -151.094, 124.897, 88.5412, 0, 0, 10.3625, -55.1604, 10.3827, -174.168, 10.1478, 65.4673, 0.382278, 59.2229
0, 1140.00000, 122.31, -32.0877, 122.07, -151.094, 124.901, 88.5411, 0, 0, 10.3624, -55.1616, 10.3827, -174.168, 10.1475, 65.4672, 0.382704, 59.205
0, 1200.00000, 122.311, -32.0887, 122.07, -151.094, 124.904, 88.5409, 0, 0, 10.3623, -55.1626, 10.3827, -174.168, 10.1473, 65.467, 0.383087, 59.1889
0, 1260.00000, 122.312, -32.0897, 122.07, -151.094, 124.906, 88.5408, 0, 0, 10.3622, -55.1636, 10.3827, -174.168, 10.147, 65.4669, 0.383432, 59.1745
0, 1320.00000, 122.313, -32.0905, 122.07, -151.094, 124.909, 88.5407, 0, 0, 10.3622, -55.1644, 10.3828, -174.168, 10.1468, 65.4668, 0.383743, 59.1615
0, 1380.00000, 122.313, -32.0913, 122.07, -151.094, 124.911, 88.5406, 0, 0, 10.3621, -55.1652, 10.3828, -174.168, 10.1467, 65.4667, 0.384022, 59.1499
0, 1440.00000, 122.314, -32.092, 122.07, -151.094, 124.913, 88.5405, 0, 0, 10.3621, -55.1659, 10.3828, -174.168, 10.1465, 65.4666, 0.384273, 59.1394
0, 1500.00000, 122.315, -32.0926, 122.07, -151.094, 124.915, 88.5404, 0, 0, 10.362, -55.1665, 10.3828, -174.168, 10.1464, 65.4665, 0.3845, 59.13
0, 1560.00000, 122.315, -32.0931, 122.07, -151.094, 124.916, 88.5404, 0, 0, 10.362, -55.167, 10.3828, -174.168, 10.1462, 65.4665, 0.384704, 59.1216
0, 1620.00000, 122.316, -32.0936, 122.07, -151.094, 124.918, 88.5403, 0, 0, 10.3619, -55.1675, 10.3828, -174.168, 10.1461, 65.4664, 0.384887, 59.114
0, 1680.00000, 122.316, -32.0941, 122.07, -151.094, 124.919, 88.5402, 0, 0, 10.3619, -55.168, 10.3828, -174.168, 10.146, 65.4663, 0.385052, 59.1072
0, 1740.00000, 122.316, -32.0945, 122.07, -151.094, 124.92, 88.5402, 0, 0, 10.3619, -55.1684, 10.3828, -174.168, 10.1459, 65.4663, 0.385201, 59.101
0, 1800.00000, 122.317, -32.0949, 122.07, -151.094, 124.921, 88.5401, 0, 0, 10.3618, -55.1688, 10.3828, -174.168, 10.1458, 65.4662, 0.385334, 59.0955
0, 1860.00000, 122.317, -32.0952, 122.07, -151.094, 124.922, 88.5401, 0, 0, 10.3618, -55.1691, 10.3828, -174.168, 10.1457, 65.4662, 0.385455, 59.0906
0, 1920.00000, 122.317, -32.0955, 122.07, -151.094, 124.923, 88.5401, 0, 0, 10.3618, -55.1694, 10.3828, -174.168, 10.1457, 65.4661, 0.385563, 59.0861
0, 1980.00000, 122.317, -32.0958, 122.07, -151.094, 124.924, 88.54, 0, 0, 10.3618, -55.1697, 10.3828, -174.168, 10.1456, 65.4661, 0.385661, 59.0821
0, 2040.00000, 122.318, -32.096, 122.07, -151.094, 124.924, 88.54, 0, 0, 10.3618, -55.1699, 10.3828, -174.168, 10.1456, 65.4661, 0.385748, 59.0785
0, 2100.00000, 122.318, -32.0962, 122.07, -151.094, 124.925, 88.54, 0, 0, 10.3617, -55.1701, 10.3828, -174.168, 10.1455, 65.466, 0.385827, 59.0752
0, 2160.00000, 122.318, -32.0964, 122.07, -151.094, 124.926, 88.5399, 0, 0, 10.3617, -55.1703, 10.3828, -174.168, 10.1455, 65.466, 0.385899, 59.0723
0, 2220.00000, 122.318, -32.0966, 122.07, -151.094, 124.926, 88.5399, 0, 0, 10.3617, -55.1705, 10.3828, -174.168, 10.1454, 65.466, 0.385963, 59.0697
0, 2280.00000, 122.318, -32.0967, 122.07, -151.094, 124.926, 88.5399, 0, 0, 10.3617, -55.1707, 10.3828, -174.168, 10.1454, 65.466, 0.38602, 59.0673
0, 2340.00000, 122.318, -32.0969, 122.07, -151.094, 124.927, 88.5399, 0, 0, 10.3617, -55.1708, 10.3828, -174.168, 10.1453, 65.466, 0.386072, 59.0652
0, 2400.00000, 122.319, -32.097, 122.07, -151.094, 124.927, 88.5399, 0, 0, 10.3617, -55.1709, 10.3828, -174.168, 10.1453, 65.466, 0.386119, 59.0633
0, 2460.00000, 122.319, -32.0971, 122.07, -151.094, 124.928, 88.5398, 0, 0, 10.3617, -55.1711, 10.3828, -174.168, 10.1453, 65.4659, 0.386161, 59.0616
0, 2520.00000, 122.319, -32.0972, 122.07, -151.094, 124.928, 88.5398, 0, 0, 10.3617, -55.1712, 10.3828, -174.168, 10.1453, 65.4659, 0.386198, 59.06
0, 2580.00000, 122.319, -32.0973, 122.07, -151.094, 124.928, 88.5398, 0, 0, 10.3617, -55.1712, 10.3828, -174.168, 10.1452, 65.4659, 0.386232, 59.0586
0, 2640.00000, 122.319, -32.0974, 122.07, -151.094, 124.928, 88.5398, 0, 0, 10.3616, -55.1713, 10.3828, -174.168, 10.1452, 65.4659, 0.386263, 59.0574
0, 2700.00000, 122.319, -32.0975, 122.07, -151.094, 124.929, 88.5398, 0, 0, 10.3616, -55.1714, 10.3828, -174.168, 10.1452, 65.4659, 0.386291, 59.0563
0, 2760.00000, 122.319, -32.0976, 122.07, -151.094, 124.929, 88.5398, 0, 0, 10.3616, -55.1715, 10.3828, -174.168, 10.1452, 65.4659, 0.386315, 59.0552
0, 2820.00000, 122.319, -32.0976, 122.07, -151.094, 124.929, 88.5398, 0, 0, 10.3616, -55.1715, 10.3828, -174.168, 10.1452, 65.4659, 0.386338, 59.0543
0, 2880.00000, 122.319, -32.0977, 122.07, -151.094, 124.929, 88.5398, 0, 0, 10.3616, -55.1716, 10.3828, -174.168, 10.1452, 65.4659, 0.386358, 59.0535
0, 2940.00000, 122.319, -32.0977, 122.07, -151.094, 124.929, 88.5398, 0, 0, 10.3616, -55.1716, 10.3828, -174.168, 10.1452, 65.4659, 0.386376, 59.0528
0, 3000.00000, 122.319, -32.0978, 122.07, -151.094, 124.929, 88.5398, 0, 0, 10.3616, -55.1717, 10.3828, -174.168, 10.1451, 65.4659, 0.386392, 59.0521
0, 3060.00000, 122.319, -32.0978, 122.07, -151.094, 124.929, 88.5398, 0, 0, 10.3616, -55.1717, 10.3828, -174.168, 10.1451, 65.4658, 0.386407, 59.0515
0, 3120.00000, 122.319, -32.0978, 122.07, -151.094, 124.93, 88.5398, 0, 0, 10.3616, -55.1718, 10.3828, -174.168, 10.1451, 65.4658, 0.38642, 59.051
0, 3180.00000, 122.319, -32.0979, 122.07, -151.094, 124.93, 88.5398, 0, 0, 10.3616, -55.1718, 10.3828, -174.168, 10.1451, 65.4658, 0.386432, 59.0505
0, 3240.00000, 122.319, -32.0979, 122.07, -151.094, 124.93, 88.5397, 0, 0, 10.3616, -55.1718, 10.3828, -174.168, 10.1451, 65.4658, 0.386442, 59.05
0, 3300.00000, 122.319, -32.0979, 122.07, -151.094, 124.93, 88.5397, 0, 0, 10.3616, -55.1719, 10.3828, -174.168, 10.1451, 65.4658, 0.386452, 59.0496
0, 3360.00000, 122.319, -32.098, 122.07, -151.094, 124.93, 88.5397, 0, 0, 10.3616, -55.1719, 10.3828, -174.168, 10.1451, 65.4658, 0.386461, 59.0493
0, 3420.00000, 122.319, -32.098, 122.07, -151.094, 124.93, 88.5397, 0, 0, 10.3616, -55.1719, 10.3828, -174.168, 10.1451, 65.4658, 0.386468, 59.049
0, 3480.00000, 122.319, -32.098, 122.07, -151.094, 124.93, 88.5397, 0, 0, 10.3616, -55.1719, 10.3828, -174.168, 10.1451, 65.4658, 0.386475, 59.0487
0, 3540.00000, 122.319, -32.098, 122.07, -151.094, 124.93, 88.5397, 0, 0, 10.3616, -55.1719, 10.3828, -174.168, 10.1451, 65.4658, 0.386482, 59.0484
1, 0.00000, 122.319, -32.098, 122.07, -151.094, 124.93, 88.5397, 0, 0, 10.3616, -55.1719, 10.3828, -174.168, 10.1451, 65.4658, 0.386487, 59.0482
1, 60.00000, 122.57, -31.9286, 122.536, -151.099, 124.9, 88.5446, 0, 0, 10.3404, -55.0025, 10.3433, -174.173, 10.1475, 65.4707, 0.323984, 63.1343
1, 120.00000, 122.57, -31.9286, 122.536, -151.099, 124.9, 88.5446, 0, 0, 10.3404, -55.0026, 10.3433, -174.173, 10.1475, 65.4707, 0.323988, 63.134
1, 180.00000, 122.57, -31.9286, 122.536, -151.099, 124.9, 88.5446, 0, 0, 10.3404, -55.0026, 10.3433, -174.173, 10.1475, 65.4707, 0.323992, 63.1338
1, 240.00000, 122.57, -31.9287, 122.536, -151.099, 124.9, 88.5446, 0, 0, 10.3404, -55.0026, 10.3433, -174.173, 10.1475, 65.4707, 0.323996, 63.1336
1, 300.00000, 122.57, -31.9287, 122.536, -151.099, 124.9, 88.5446, 0, 0, 10.3404, -55.0026, 10.3433, -174.173, 10.1475, 65.4707, 0.323999, 63.1334
1, 360.00000, 122.57, -31.9287, 122.536, -151.099, 124.9, 88.5446, 0, 0, 10.3404, -55.0026, 10.3433, -174.173, 10.1475, 65.4707, 0.324002, 63.1332
1, 420.00000, 122.57, -31.9287, 122.536, -151.099, 124.9, 88.5446, 0, 0, 10.3404, -55.0026, 10.3433, -174.173, 10.1475, 65.4707, 0.324004, 63.133
1, 480.00000, 122.57, -31.9287, 122.536, -151.099, 124.9, 88.5446, 0, 0, 10.3404, -55.0026, 10.3433, -174.173, 10.1475, 65.4707, 0.324007, 63.1329
1, 540.00000, 122.57, -31.9287, 122.536, -151.099, 124.9, 88.5446, 0, 0, 10.3404, -55.0026, 10.3433, -174.173, 10.1475, 65.4707, 0.324009, 63.1327
1, 600.00000, 122.57, -31.9287, 122.536, -151.099, 124.9, 88.5446, 0, 0, 10.3404, -55.0026, 10.3433, -174.173, 10.1475, 65.4707, 0.324011, 63.1326
1, 660.00000, 122.57, -31.9287, 122.536, -151.099, 124.9, 88.5446, 0, 0, 10.3404, -55.0026, 10.3433, -174.173, 10.1475, 65.4707, 0.324013, 63.1325
1, 720.00000, 122.57, -31.9287, 122.536, -151.099, 124.9, 88.5446, 0, 0, 10.3404, -55.0026, 10.3433, -174.173, 10.1475, 65.4707, 0.324014, 63.1324
1, 780.00000, 122.57, -31.9287, 122.536, -151.099, 124.9, 88.5446, 0, 0, 10.3404, -55.0026, 10.3433, -174.173, 10.1475, 65.4707, 0.324016, 63.1323
1, 840.00000, 122.57, -31.9287, 122.536, -151.099, 124.9, 88.5446, 0, 0, 10.3404, -55.0026, 10.3433, -174.173, 10.1475, 65.4707, 0.324017, 63.1322
1, 900.00000, 122.57, -31.9287, 122.536, -151.099, 124.9, 88.5446, 0, 0, 10.3404, -55.0026, 10.3433, -174.173, 10.1475, 65.4707, 0.324018, 63.1322
1, 960.00000, 122.57, -31.9287, 122.536, -151.099, 124.9, 88.5446, 0, 0, 10.3404, -55.0026, 10.3433, -174.173, 10.1475, 65.4707, 0.324019, 63.1321
1, 1020.00000, 122.57, -31.9287, 122.536, -151.099, 124.9, 88.5446, 0, 0, 10.3404, -55.0026, 10.3433, -174.173, 10.1475, 65.4707, 0.32402, 63.132
1, 1080.00000, 122.57, -31.9287, 122.536, -151.099, 124.9, 88.5446, 0, 0, 10.3404, -55.0026, 10.3433, -174.173, 10.1475, 65.4707, 0.324021, 63.132
1, 1140.00000, 122.57, -31.9287, 122.536, -151.099, 124.9, 88.5446, 0, 0, 10.3404, -55.0026, 10.3433, -174.173, 10.1475, 65.4707, 0.324022, 63.1319
1, 1200.00000, 122.57, -31.9287, 122.536, -151.099, 124.9, 88.5446, 0, 0, 10.3404, -55.0027, 10.3433, -174.173, 10.1475, 65.4707, 0.324022, 63.1319
1, 1260.00000, 122.57, -31.9287, 122.536, -151.099, 124.9, 88.5446, 0, 0, 10.3404, -55.0027, 10.3433, -174.173, 10.1475, 65.4707, 0.324023, 63.1319
1, 1320.00000, 122.57, -31.9287, 122.536, -151.099, 124.9, 88.5446, 0, 0, 10.3404, -55.0027, 10.3433, -174.173, 10.1475, 65.4707, 0.324023, 63.1318
1, 1380.00000, 122.57, -31.9287, 122.536, -151.099, 124.9, 88.5446, 0, 0, 10.3404, -55.0027, 10.3433, -174.173, 10.1475, 65.4707, 0.324024, 63.1318
1, 1440.00000, 122.57, -31.9287, 122.536, -151.099, 124.9, 88.5446, 0, 0, 10.3404, -55.0027, 10.3433, -174.173, 10.1475, 65.4707, 0.324024, 63.1318
1, 1500.00000, 122.57, -31.9287, 122.536, -151.099, 124.9, 88.5446, 0, 0, 10.3404, -55.0027, 10.3433, -174.173, 10.1475, 65.4707, 0.324025, 63.1317
1, 1560.00000, 122.57, -31.9287, 122.536, -151.099, 124.9, 88.5446, 0, 0, 10.3404, -55.0027, 10.3433, -174.173, 10.1475, 65.4707, 0.324025, 63.1317
1, 1620.00000, 122.57, -31.9287, 122.536, -151.099, 124.9, 88.5446, 0, 0, 10.3404, -55.0027, 10.3433, -174.173, 10.1475, 65.4707, 0.324025, 63.1317
1, 1680.00000, 122.57, -31.9287, 122.536, -151.099, 124.9, 88.5446, 0, 0, 10.3404, -55.0027, 10.3433, -174.173, 10.1475, 65.4707, 0.324026, 63.1317
1, 1740.00000, 122.57, -31.9287, 122.536, -151.099, 124.9, 88.5446, 0, 0, 10.3404, -55.0027, 10.3433, -174.173, 10.1475, 65.4707, 0.324026, 63.1317
1, 1800.00000, 122.57, -31.9287, 122.536, -151.099, 124.9, 88.5446, 0, 0, 10.3404, -55.0027, 10.3433, -174.173, 10.1475, 65.4707, 0.324026, 63.1317
1, 1860.00000, 122.57, -31.9287, 122.536, -151.099, 124.9, 88.5446, 0, 0, 10.3404, -55.0027, 10.3433, -174.173, 10.1475, 65.4707, 0.324026, 63.1316
1, 1920.00000, 122.57, -31.9287, 122.536, -151.099, 124.9, 88.5446, 0, 0, 10.3404, -55.0027, 10.3433, -174.173, 10.1475, 65.4707, 0.324027, 63.1316
1, 1980.00000, 122.57, -31.9287, 122.536, -151.099, 124.9, 88.5446, 0, 0, 10.3404, -55.0027, 10.3433, -174.173, 10.1475, 65.4707, 0.324027, 63.1316
1, 2040.00000, 122.57, -31.9287, 122.536, -151.099, 124.9, 88.5446, 0, 0, 10.3404, -55.0027, 10.3433, -174.173, 10.1475, 65.4707, 0.324027, 63.1316
1, 2100.00000, 122.57, -31.9287, 122.536, -151.099, 124.9, 88.5446, 0, 0, 10.3404, -55.0027, 10.3433, -174.173, 10.1475, 65.4707, 0.324027, 63.1316
1, 2160.00000, 122.57, -31.9287, 122.536, -151.099, 124.9, 88.5446, 0, 0, 10.3404, -55.0027, 10.3433, -174.173, 10.1475, 65.4707, 0.324027, 63.1316
1, 2220.00000, 122.57, -31.9287, 122.536, -151.099, 124.9, 88.5446, 0, 0, 10.3404, -55.0027, 10.3433, -174.173, 10.1475, 65.4707, 0.324027, 63.1316
1, 2280.00000, 122.57, -31.9287, 122.536, -151.099, 124.9, 88.5446, 0, 0, 10.3404, -55.0027, 10.3433, -174.173, 10.1475, 65.4707, 0.324027, 63.1316
1, 2340.00000, 122.57, -31.9287, 122.536, -151.099, 124.9, 88.5446, 0, 0, 10.3404, -55.0027, 10.3433, -174.173, 10.1475, 65.4707, 0.324027, 63.1316
1, 2400.00000, 122.57, -31.9287, 122.536, -151.099, 124.9, 88.5446, 0, 0, 10.3404, -55.0027, 10.3433, -174.173, 10.1475, 65.4707, 0.324028, 63.1316
1, 2460.00000, 122.57, -31.9287, 122.536, -151.099, 124.9, 88.5446, 0, 0, 10.3404, -55.0027, 10.3433, -174.173, 10.1475, 65.4707, 0.324028, 63.1316
1, 2520.00000, 122.57, -31.9287, 122.536, -151.099, 124.9, 88.5446, 0, 0, 10.3404, -55.0027, 10.3433, -174.173, 10.1475, 65.4707, 0.324028, 63.1316
1, 2580.00000, 122.57, -31.9287, 122.536, -151.099, 124.9, 88.5446, 0, 0, 10.3404, -55.0027, 10.3433, -174.173, 10.1475, 65.4707, 0.324028, 63.1316
1, 2640.00000, 122.57, -31.9287, 122.536, -151.099, 124.9, 88.5446, 0, 0, 10.3404, -55.0027, 10.3433, -174.173, 10.1475, 65.4707, 0.324028, 63.1315
1, 2700.00000, 122.57, -31.9287, 122.536, -151.099, 124.9, 88.5446, 0, 0, 10.3404, -55.0027, 10.3433, -174.173, 10.1475, 65.4707, 0.324028, 63.1315
1, 2760.00000, 122.57, -31.9287, 122.536, -151.099, 124.9, 88.5446, 0, 0, 10.3404, -55.0027, 10.3433, -174.173, 10.1475, 65.4707, 0.324028, 63.1315
1, 2820.00000, 122.57, -31.9287, 122.536, -151.099, 124.9, 88.5446, 0, 0, 10.3404, -55.0027, 10.3433, -174.173, 10.1475, 65.4707, 0.324028, 63.1315
1, 2880.00000, 122.57, -31.9287, 122.536, -151.099, 124.9, 88.5446, 0, 0, 10.3404, -55.0027, 10.3433, -174.173, 10.1475, 65.4707, 0.324028, 63.1315
1, 2940.00000, 122.57, -31.9287, 122.536, -151.099, 124.9, 88.5446, 0, 0, 10.3404, -55.0027, 10.3433, -174.173, 10.1475, 65.4707, 0.324028, 63.1315
1, 3000.00000, 122.57, -31.9287, 122.536, -151.099, 124.9, 88.5446, 0, 0, 10.3404, -55.0027, 10.3433, -174.173, 10.1475, 65.4707, 0.324028, 63.1315
1, 3060.00000, 122.57, -31.9287, 122.536, -151.099, 124.9, 88.5446, 0, 0, 10.3404, -55.0027, 10.3433, -174.173, 10.1475, 65.4707, 0.324028, 63.1315
1, 3120.00000, 122.57, -31.9287, 122.536, -151.099, 124.9, 88.5446, 0, 0, 10.3404, -55.0027, 10.3433, -174.173, 10.1475, 65.4707, 0.324028, 63.1315
1, 3180.00000, 122.57, -31.9287, 122.536, -151.099, 124.9, 88.5446, 0, 0, 10.3404, -55.0027, 10.3433, -174.173, 10.1475, 65.4707, 0.324028, 63.1315
1, 3240.00000, 122.57, -31.9287, 122.536, -151.099, 124.9, 88.5446, 0, 0, 10.3404, -55.0027, 10.3433, -174.173, 10.1475, 65.4707, 0.324028, 63.1315
1, 3300.00000, 122.57, -31.9287, 122.536, -151.099, 124.9, 88.5446, 0, 0, 10.3404, -55.0027, 10.3433, -174.173, 10.1475, 65.4707, 0.324028, 63.1315
1, 3360.00000, 122.57, -31.9287, 122.536, -151.099, 124.9, 88.5446, 0, 0, 10.3404, -55.0027, 10.3433, -174.173, 10.1475, 65.4707, 0.324028, 63.1315
1, 3420.00000, 122.57, -31.9287, 122.536, -151.099, 124.9, 88.5446, 0, 0, 10.3404, -55.0027, 10.3433, -174.173, 10.1475, 65.4707, 0.324028, 63.1315
1, 3480.00000, 122.57, -31.9287, 122.536, -151.099, 124.9, 88.5446, 0, 0, 10.3404, -55.0027, 10.3433, -174.173, 10.1475, 65.4707, 0.324028, 63.1315
1, 3540.00000, 122.57, -31.9287, 122.536, -151.099, 124.9, 88.5446, 0, 0, 10.3404, -55.0027, 10.3433, -174.173, 10.1475, 65.4707, 0.324028, 63.1315
2, 0.00000, 122.57, -31.9287, 122.536, -151.099, 124.9, 88.5446, 0, 0, 10.3404, -55.0027, 10.3433, -174.173, 10.1475, 65.4707, 0.324028, 63.1315
2, 60.00000, 122.57, -31.9287, 122.536, -151.099, 124.9, 88.5446, 0, 0, 10.3404, -55.0027, 10.3433, -174.173, 10.1475, 65.4707, 0.324028, 63.1315
2, 120.00000, 122.57, -31.9287, 122.536, -151.099, 124.9, 88.5446, 0, 0, 10.3404, -55.0027, 10.3433, -174.173, 10.1475, 65.4707, 0.324028, 63.1315
2, 180.00000, 122.57, -31.9287, 122.536, -151.099, 124.9, 88.5446, 0, 0, 10.3404, -55.0027, 10.3433, -174.173, 10.1475, 65.4707, 0.324028, 63.1315
2, 240.00000, 122.57, -31.9287, 122.536, -151.099, 124.9, 88.5446, 0, 0, 10.3404, -55.0027, 10.3433, -174.173, 10.1475, 65.4707, 0.324028, 63.1315
2, 300.00000, 122.57, -31.9287, 122.536, -151.099, 124.9, 88.5446, 0, 0, 10.3404, -55.0027, 10.3433, -174.173, 10.1475, 65.4707, 0.324028, 63.1315
2, 360.00000, 122.57, -31.9287, 122.536, -151.099, 124.9, 88.5446, 0, 0, 10.3404, -55.0027, 10.3433, -174.173, 10.1475, 65.4707, 0.324028, 63.1315
2, 420.00000, 122.57, -31.9287, 122.536, -151.099, 124.9, 88.5446, 0, 0, 10.3404, -55.0027, 10.3433, -174.173, 10.1475, 65.4707, 0.324028, 63.1315
2, 480.00000, 122.57, -31.9287, 122.536, -151.099, 124.9, 88.5446, 0, 0, 10.3404, -55.0027, 10.3433, -174.173, 10.1475, 65.4707, 0.324028, 63.1315
2, 540.00000, 122.57, -31.9287, 122.536, -151.099, 124.9, 88.5446, 0, 0, 10.3404, -55.0027, 10.3433, -174.173, 10.1475, 65.4707, 0.324028, 63.1315
2, 600.00000, 122.57, -31.9287, 122.536, -151.099, 124.9, 88.5446, 0, 0, 10.3404, -55.0027, 10.3433, -174.173, 10.1475, 65.4707, 0.324028, 63.1315
2, 660.00000, 122.57, -31.9287, 122.536, -151.099, 124.9, 88.5446, 0, 0, 10.3404, -55.0027, 10.3433, -174.173, 10.1475, 65.4707, 0.324028, 63.1315
2, 720.00000, 122.57, -31.9287, 122.536, -151.099, 124.9, 88.5446, 0, 0, 10.3404, -55.0027, 10.3433, -174.173, 10.1475, 65.4707, 0.324028, 63.1315
2, 780.00000, 122.57, -31.9287, 122.536, -151.099, 124.9, 88.5446, 0, 0, 10.3404, -55.0027, 10.3433, -174.173, 10.1475, 65.4707, 0.324028, 63.1315
2, 840.00000, 122.57, -31.9287, 122.536, -151.099, 124.9, 88.5446, 0, 0, 10.3404, -55.0027, 10.3433, -174.173, 10.1475, 65.4707, 0.324028, 63.1315
