hour,t(sec),V1,VAngle1,V2,VAngle2,V3,VAngle3,V4,VAngle4,I1,IAngle1,I2,IAngle2,I3,IAngle3,I4,IAngle4
0, 60.00000, 122.034, -32.9564, 121.232, -151.67, 124.776, 88.0634, 0, 0, 8.96603, -56.0303, 9.02548, -174.743, 8.76937, 64.99, 0.415501, 49.4337
0, 120.00000, 122.037, -32.9705, 121.231, -151.67, 124.808, 88.0579, 0, 0, 8.96582, -56.0443, 9.0255, -174.744, 8.76709, 64.9845, 0.419503, 49.5093
0, 180.00000, 122.04, -32.9831, 121.231, -151.67, 124.837, 88.053, 0, 0, 8.96562, -56.057, 9.02552, -174.744, 8.76505, 64.9796, 0.423103, 49.5767
0, 240.00000, 122.042, -32.9946, 121.231, -151.671, 124.863, 88.0486, 0, 0, 8.96545, -56.0684, 9.02554, -174.744, 8.7632, 64.9751, 0.426344, 49.6367
0, 300.00000, 122.044, -33.0048, 121.231, -151.671, 124.886, 88.0446, 0, 0, 8.9653, -56.0787, 9.02555, -174.745, 8.76155, 64.9711, 0.429261, 49.6903
0, 360.00000, 122.046, -33.0141, 121.231, -151.671, 124.907, 88.041, 0, 0, 8.96516, -56.0879, 9.02557, -174.745, 8.76006, 64.9674, 0.431887, 49.7381
0, 420.00000, 122.048, -33.0224, 121.23, -151.672, 124.926, 88.0378, 0, 0, 8.96504, -56.0963, 9.02558, -174.745, 8.75872, 64.9642, 0.43425, 49.7809
0, 480.00000, 122.737, -32.908, 121.862, -151.559, 125.68, 88.1785, 0, 0, 8.055, -55.9819, 8.11289, -174.632, 7.86654, 65.1049, 0.396475, 49.133
0, 540.00000, 122.738, -32.9148, 121.862, -151.559, 125.696, 88.1759, 0, 0, 8.05492, -55.9887, 8.1129, -174.633, 7.86552, 65.1022, 0.398227, 49.1704
0, 600.00000, 122.739, -32.9209, 121.862, -151.559, 125.711, 88.1736, 0, 0, 8.05484, -55.9948, 8.11291, -174.633, 7.86462, 65.0999, 0.3998, 49.2039
0, 660.00000, 122.741, -32.9264, 121.861, -151.559, 125.723, 88.1714, 0, 0, 8.05477, -56.0002, 8.11292, -174.633, 7.8638, 65.0977, 0.401215, 49.2339
0, 720.00000, 122.742, -32.9313, 121.861, -151.559, 125.735, 88.1695, 0, 0, 8.0547, -56.0052, 8.11293, -174.633, 7.86307, 65.0958, 0.402489, 49.2608
0, 780.00000, 122.743, -32.9357, 121.861, -151.56, 125.745, 88.1678, 0, 0, 8.05465, -56.0096, 8.11293, -174.633, 7.86241, 65.094, 0.403636, 49.2849
0, 840.00000, 122.743, -32.9397, 121.861, -151.56, 125.755, 88.1662, 0, 0, 8.0546, -56.0136, 8.11294, -174.634, 7.86181, 65.0924, 0.404668, 49.3065
0, 900.00000, 122.744, -32.9433, 121.861, -151.56, 125.763, 88.1648, 0, 0, 8.05455, -56.0172, 8.11295, -174.634, 7.86128, 65.091, 0.405597, 49.3259
0, 960.00000, 122.167, -32.9151, 121.87, -151.553, 125.314, 87.9511, 0, 0, 8.0926, -55.989, 8.11233, -174.627, 7.88947, 64.8774, 0.381651, 58.3001
0, 1020.00000, 122.168, -32.918, 121.87, -151.553, 125.32, 87.95, 0, 0, 8.09256, -55.9919, 8.11234, -174.627, 7.88905, 64.8762, 0.3824, 58.2992
0, 1080.00000, 122.168, -32.9206, 121.87, -151.553, 125.326, 87.949, 0, 0, 8.09253, -55.9945, 8.11234, -174.627, 7.88867, 64.8752, 0.383079, 58.2983
0, 1140.00000, 122.169, -32.9229, 121.87, -151.553, 125.332, 87.9481, 0, 0, 8.0925, -55.9968, 8.11235, -174.627, 7.88832, 64.8743, 0.383689, 58.2975
0, 1200.00000, 122.169, -32.925, 121.87, -151.553, 125.337, 87.9473, 0, 0, 8.09248, -55.9989, 8.11235, -174.627, 7.88801, 64.8735, 0.384238, 58.2969
0, 1260.00000, 122.169, -32.9269, 121.87, -151.553, 125.341, 87.9465, 0, 0, 8.09246, -56.0008, 8.11235, -174.627, 7.88773, 64.8727, 0.384733, 58.2963
0, 1320.00000, 122.17, -32.9286, 121.87, -151.553, 125.345, 87.9459, 0, 0, 8.09244, -56.0025, 8.11236, -174.627, 7.88748, 64.872, 0.385178, 58.2958
0, 1380.00000, 122.17, -32.9301, 121.87, -151.554, 125.349, 87.9453, 0, 0, 8.09242, -56.004, 8.11236, -174.627, 7.88725, 64.8714, 0.385578, 58.2953
0, 1440.00000, 122.17, -32.9315, 121.87, -151.554, 125.352, 87.9447, 0, 0, 8.09241, -56.0054, 8.11236, -174.627, 7.88705, 64.8709, 0.385939, 58.2949
0, 1500.00000, 122.17, -32.9327, 121.87, -151.554, 125.355, 87.9443, 0, 0, 8.09239, -56.0066, 8.11236, -174.627, 7.88686, 64.8704, 0.386263, 58.2946
0, 1560.00000, 122.171, -32.9338, 121.87, -151.554, 125.357, 87.9438, 0, 0, 8.09238, -56.0077, 8.11237, -174.628, 7.8867, 64.87, 0.386555, 58.2942
0, 1620.00000, 122.171, -32.9348, 121.87, -151.554, 125.36, 87.9434, 0, 0, 8.09237, -56.0087, 8.11237, -174.628, 7.88655, 64.8696, 0.386818, 58.294
0, 1680.00000, 122.171, -32.9357, 121.87, -151.554, 125.362, 87.9431, 0, 0, 8.09236, -56.0096, 8.11237, -174.628, 7.88642, 64.8692, 0.387054, 58.2937
0, 1740.00000, 122.171, -32.9365, 121.87, -151.554, 125.364, 87.9428, 0, 0, 8.09235, -56.0105, 8.11237, -174.628, 7.88629, 64.8689, 0.387267, 58.2935
0, 1800.00000, 122.171, -32.9373, 121.87, -151.554, 125.365, 87.9425, 0, 0, 8.09234, -56.0112, 8.11237, -174.628, 7.88619, 64.8686, 0.387459, 58.2933
0, 1860.00000, 122.171, -32.9379, 121.87, -151.554, 125.367, 87.9422, 0, 0, 8.09233, -56.0118, 8.11237, -174.628, 7.88609, 64.8683, 0.387631, 58.2931
0, 1920.00000, 122.172, -32.9385, 121.87, -151.554, 125.368, 87.942, 0, 0, 8.09233, -56.0124, 8.11237, -174.628, 7.886, 64.8681, 0.387786, 58.2929
0, 1980.00000, 122.172, -32.9391, 121.87, -151.554, 125.369, 87.9418, 0, 0, 8.09232, -56.013, 8.11237, -174.628, 7.88592, 64.8679, 0.387926, 58.2928
0, 2040.00000, 122.172, -32.9395, 121.87, -151.554, 125.371, 87.9416, 0, 0, 8.09231, -56.0135, 8.11238, -174.628, 7.88585, 64.8677, 0.388052, 58.2927
0, 2100.00000, 122.172, -32.94, 121.87, -151.554, 125.372, 87.9414, 0, 0, 8.09231, -56.0139, 8.11238, -174.628, 7.88579, 64.8675, 0.388165, 58.2925
0, 2160.00000, 122.172, -32.9404, 121.87, -151.554, 125.372, 87.9413, 0, 0, 8.09231, -56.0143, 8.11238, -174.628, 7.88573, 64.8674, 0.388267, 58.2924
0, 2220.00000, 122.172, -32.9407, 121.87, -151.554, 125.373, 87.9411, 0, 0, 8.0923, -56.0146, 8.11238, -174.628, 7.88568, 64.8672, 0.388358, 58.2924
0, 2280.00000, 122.172, -32.941, 121.87, -151.554, 125.374, 87.941, 0, 0, 8.0923, -56.0149, 8.11238, -174.628, 7.88563, 64.8671, 0.388441, 58.2923
0, 2340.00000, 122.172, -32.9413, 121.87, -151.554, 125.375, 87.9409, 0, 0, 8.09229, -56.0152, 8.11238, -174.628, 7.88559, 64.867, 0.388515, 58.2922
0, 2400.00000, 122.172, -32.9416, 121.87, -151.554, 125.375, 87.9408, 0, 0, 8.09229, -56.0155, 8.11238, -174.628, 7.88555, 64.8669, 0.388582, 58.2921
0, 2460.00000, 122.172, -32.9418, 121.87, -151.554, 125.376, 87.9407, 0, 0, 8.09229, -56.0157, 8.11238, -174.628, 7.88552, 64.8668, 0.388642, 58.2921
0, 2520.00000, 122.172, -32.942, 121.87, -151.554, 125.376, 87.9406, 0, 0, 8.09229, -56.0159, 8.11238, -174.628, 7.88549, 64.8667, 0.388696, 58.292
0, 2580.00000, 122.172, -32.9422, 121.87, -151.554, 125.377, 87.9406, 0, 0, 8.09228, -56.0161, 8.11238, -174.628, 7.88546, 64.8666, 0.388745, 58.292
0, 2640.00000, 122.172, -32.9424, 121.87, -151.554, 125.377, 87.9405, 0, 0, 8.09228, -56.0163, 8.11238, -174.628, 7.88543, 64.8666, 0.388789, 58.2919
0, 2700.00000, 122.172, -32.9425, 121.87, -151.554, 125.377, 87.9404, 0, 0, 8.09228, -56.0164, 8.11238, -174.628, 7.88541, 64.8665, 0.388828, 58.2919
0, 2760.00000, 122.171, -32.9412, 121.963, -151.426, 125.718, 87.9764, 0, 0, 8.09237, -56.0151, 8.10615, -174.5, 7.86407, 64.9025, 0.421388, 60.1425
0, 2820.00000, 122.171, -32.9413, 121.963, -151.426, 125.718, 87.9764, 0, 0, 8.09237, -56.0153, 8.10615, -174.5, 7.86405, 64.9025, 0.421422, 60.1423
0, 2880.00000, 122.171, -32.9415, 121.963, -151.426, 125.718, 87.9764, 0, 0, 8.09237, -56.0154, 8.10615, -174.5, 7.86403, 64.9024, 0.42145, 60.1422
0, 2940.00000, 122.171, -32.9416, 121.963, -151.426, 125.718, 87.9763, 0, 0, 8.09237, -56.0155, 8.10615, -174.5, 7.86402, 64.9024, 0.421476, 60.142
0, 3000.00000, 122.171, -32.9416, 121.963, -151.426, 125.719, 87.9763, 0, 0, 8.09237, -56.0156, 8.10615, -174.5, 7.86401, 64.9024, 0.421499, 60.1419
0, 3060.00000, 122.171, -32.9417, 121.963, -151.426, 125.719, 87.9762, 0, 0, 8.09237, -56.0156, 8.10615, -174.5, 7.864, 64.9023, 0.42152, 60.1418
0, 3120.00000, 122.171, -32.9418, 121.963, -151.426, 125.719, 87.9762, 0, 0, 8.09236, -56.0157, 8.10615, -174.5, 7.86398, 64.9023, 0.421539, 60.1417
0, 3180.00000, 122.171, -32.9419, 121.963, -151.426, 125.719, 87.9762, 0, 0, 8.09236, -56.0158, 8.10615, -174.5, 7.86398, 64.9023, 0.421556, 60.1416
0, 3240.00000, 122.171, -32.9419, 121.963, -151.426, 125.719, 87.9762, 0, 0, 8.09236, -56.0158, 8.10615, -174.5, 7.86397, 64.9023, 0.421571, 60.1415
0, 3300.00000, 122.171, -32.942, 121.963, -151.426, 125.719, 87.9762, 0, 0, 8.09236, -56.0159, 8.10615, -174.5, 7.86396, 64.9022, 0.421585, 60.1414
0, 3360.00000, 122.171, -32.942, 121.963, -151.426, 125.72, 87.9761, 0, 0, 8.09236, -56.0159, 8.10615, -174.5, 7.86395, 64.9022, 0.421597, 60.1414
0, 3420.00000, 122.171, -32.9421, 121.963, -151.426, 125.72, 87.9761, 0, 0, 8.09236, -56.016, 8.10615, -174.5, 7.86395, 64.9022, 0.421609, 60.1413
0, 3480.00000, 122.171, -32.9421, 121.963, -151.426, 125.72, 87.9761, 0, 0, 8.09236, -56.016, 8.10615, -174.5, 7.86394, 64.9022, 0.421618, 60.1412
0, 3540.00000, 122.171, -32.9421, 121.963, -151.426, 125.72, 87.9761, 0, 0, 8.09236, -56.016, 8.10615, -174.5, 7.86393, 64.9022, 0.421627, 60.1412
1, 0.00000, 122.171, -32.9422, 121.963, -151.426, 125.72, 87.9761, 0, 0, 8.09236, -56.0161, 8.10615, -174.5, 7.86393, 64.9022, 0.421636, 60.1412
1, 60.00000, 122.259, -32.8123, 122.256, -151.393, 125.72, 87.9787, 0, 0, 8.08657, -55.8862, 8.08677, -174.467, 7.86395, 64.9047, 0.395764, 63.1846
1, 120.00000, 122.259, -32.8123, 122.256, -151.393, 125.72, 87.9786, 0, 0, 8.08657, -55.8862, 8.08677, -174.467, 7.86394, 64.9047, 0.395771, 63.1846
1, 180.00000, 122.259, -32.8123, 122.256, -151.393, 125.72, 87.9786, 0, 0, 8.08657, -55.8863, 8.08677, -174.467, 7.86394, 64.9047, 0.395777, 63.1845
1, 240.00000, 122.259, -32.8124, 122.256, -151.393, 125.72, 87.9786, 0, 0, 8.08657, -55.8863, 8.08677, -174.467, 7.86394, 64.9047, 0.395782, 63.1844
1, 300.00000, 122.259, -32.8124, 122.256, -151.393, 125.72, 87.9786, 0, 0, 8.08657, -55.8863, 8.08677, -174.467, 7.86394, 64.9047, 0.395787, 63.1844
1, 360.00000, 122.259, -32.8124, 122.256, -151.393, 125.72, 87.9786, 0, 0, 8.08657, -55.8863, 8.08677, -174.467, 7.86393, 64.9047, 0.395792, 63.1843
1, 420.00000, 122.259, -32.8124, 122.256, -151.393, 125.72, 87.9786, 0, 0, 8.08657, -55.8863, 8.08677, -174.467, 7.86393, 64.9047, 0.395795, 63.1843
1, 480.00000, 122.259, -32.8124, 122.256, -151.393, 125.72, 87.9786, 0, 0, 8.08657, -55.8863, 8.08677, -174.467, 7.86393, 64.9047, 0.395799, 63.1842
1, 540.00000, 122.259, -32.8124, 122.256, -151.393, 125.72, 87.9786, 0, 0, 8.08657, -55.8864, 8.08677, -174.467, 7.86393, 64.9047, 0.395802, 63.1842
1, 600.00000, 122.259, -32.8125, 122.256, -151.393, 125.72, 87.9786, 0, 0, 8.08657, -55.8864, 8.08677, -174.467, 7.86393, 64.9047, 0.395805, 63.1841
1, 660.00000, 122.259, -32.8125, 122.256, -151.393, 125.72, 87.9786, 0, 0, 8.08657, -55.8864, 8.08677, -174.467, 7.86392, 64.9047, 0.395807, 63.1841
1, 720.00000, 122.259, -32.8125, 122.256, -151.393, 125.72, 87.9786, 0, 0, 8.08657, -55.8864, 8.08677, -174.467, 7.86392, 64.9047, 0.39581, 63.1841
1, 780.00000, 122.259, -32.8125, 122.256, -151.393, 125.72, 87.9786, 0, 0, 8.08657, -55.8864, 8.08677, -174.467, 7.86392, 64.9047, 0.395812, 63.184
1, 840.00000, 122.259, -32.8125, 122.256, -151.393, 125.72, 87.9786, 0, 0, 8.08657, -55.8864, 8.08677, -174.467, 7.86392, 64.9047, 0.395813, 63.184
1, 900.00000, 122.259, -32.8125, 122.256, -151.393, 125.72, 87.9786, 0, 0, 8.08656, -55.8864, 8.08677, -174.467, 7.86392, 64.9047, 0.395815, 63.184
1, 960.00000, 122.259, -32.8125, 122.256, -151.393, 125.72, 87.9786, 0, 0, 8.08656, -55.8864, 8.08677, -174.467, 7.86392, 64.9047, 0.395817, 63.184
1, 1020.00000, 122.259, -32.8125, 122.256, -151.393, 125.72, 87.9786, 0, 0, 8.08656, -55.8864, 8.08677, -174.467, 7.86392, 64.9046, 0.395818, 63.184
1, 1080.00000, 122.259, -32.8125, 122.256, -151.393, 125.72, 87.9786, 0, 0, 8.08656, -55.8864, 8.08677, -174.467, 7.86392, 64.9046, 0.395819, 63.1839
1, 1140.00000, 122.259, -32.8125, 122.256, -151.393, 125.72, 87.9786, 0, 0, 8.08656, -55.8864, 8.08677, -174.467, 7.86392, 64.9046, 0.39582, 63.1839
1, 1200.00000, 122.259, -32.8125, 122.256, -151.393, 125.72, 87.9786, 0, 0, 8.08656, -55.8864, 8.08677, -174.467, 7.86392, 64.9046, 0.395821, 63.1839
1, 1260.00000, 122.259, -32.8125, 122.256, -151.393, 125.72, 87.9786, 0, 0, 8.08656, -55.8864, 8.08677, -174.467, 7.86392, 64.9046, 0.395822, 63.1839
1, 1320.00000, 122.259, -32.8125, 122.256, -151.393, 125.72, 87.9786, 0, 0, 8.08656, -55.8864, 8.08677, -174.467, 7.86392, 64.9046, 0.395823, 63.1839
1, 1380.00000, 122.259, -32.8125, 122.256, -151.393, 125.72, 87.9786, 0, 0, 8.08656, -55.8864, 8.08677, -174.467, 7.86391, 64.9046, 0.395824, 63.1839
1, 1440.00000, 122.259, -32.8125, 122.256, -151.393, 125.72, 87.9786, 0, 0, 8.08656, -55.8864, 8.08677, -174.467, 7.86391, 64.9046, 0.395824, 63.1839
1, 1500.00000, 122.259, -32.8125, 122.256, -151.393, 125.72, 87.9786, 0, 0, 8.08656, -55.8864, 8.08677, -174.467, 7.86391, 64.9046, 0.395825, 63.1839
1, 1560.00000, 122.259, -32.8125, 122.256, -151.393, 125.72, 87.9786, 0, 0, 8.08656, -55.8865, 8.08677, -174.467, 7.86391, 64.9046, 0.395825, 63.1839
1, 1620.00000, 122.259, -32.8125, 122.256, -151.393, 125.72, 87.9786, 0, 0, 8.08656, -55.8865, 8.08677, -174.467, 7.86391, 64.9046, 0.395826, 63.1839
1, 1680.00000, 122.259, -32.8125, 122.256, -151.393, 125.72, 87.9786, 0, 0, 8.08656, -55.8865, 8.08677, -174.467, 7.86391, 64.9046, 0.395826, 63.1838
1, 1740.00000, 122.259, -32.8125, 122.256, -151.393, 125.72, 87.9786, 0, 0, 8.08656, -55.8865, 8.08677, -174.467, 7.86391, 64.9046, 0.395827, 63.1838
1, 1800.00000, 122.259, -32.8125, 122.256, -151.393, 125.72, 87.9786, 0, 0, 8.08656, -55.8865, 8.08677, -174.467, 7.86391, 64.9046, 0.395827, 63.1838
1, 1860.00000, 122.259, -32.8125, 122.256, -151.393, 125.72, 87.9786, 0, 0, 8.08656, -55.8865, 8.08677, -174.467, 7.86391, 64.9046, 0.395827, 63.1838
1, 1920.00000, 122.259, -32.8125, 122.256, -151.393, 125.72, 87.9786, 0, 0, 8.08656, -55.8865, 8.08677, -174.467, 7.86391, 64.9046, 0.395828, 63.1838
1, 1980.00000, 122.259, -32.8125, 122.256, -151.393, 125.72, 87.9786, 0, 0, 8.08656, -55.8865, 8.08677, -174.467, 7.86391, 64.9046, 0.395828, 63.1838
1, 2040.00000, 122.259, -32.8125, 122.256, -151.393, 125.72, 87.9786, 0, 0, 8.08656, -55.8865, 8.08677, -174.467, 7.86391, 64.9046, 0.395828, 63.1838
1, 2100.00000, 122.259, -32.8125, 122.256, -151.393, 125.72, 87.9786, 0, 0, 8.08656, -55.8865, 8.08677, -174.467, 7.86391, 64.9046, 0.395828, 63.1838
1, 2160.00000, 122.259, -32.8125, 122.256, -151.393, 125.72, 87.9786, 0, 0, 8.08656, -55.8865, 8.08677, -174.467, 7.86391, 64.9046, 0.395828, 63.1838
1, 2220.00000, 122.259, -32.8125, 122.256, -151.393, 125.72, 87.9786, 0, 0, 8.08656, -55.8865, 8.08677, -174.467, 7.86391, 64.9046, 0.395829, 63.1838
1, 2280.00000, 122.259, -32.8125, 122.256, -151.393, 125.72, 87.9786, 0, 0, 8.08656, -55.8865, 8.08677, -174.467, 7.86391, 64.9046, 0.395829, 63.1838
1, 2340.00000, 122.259, -32.8125, 122.256, -151.393, 125.72, 87.9786, 0, 0, 8.08656, -55.8865, 8.08677, -174.467, 7.86391, 64.9046, 0.395829, 63.1838
1, 2400.00000, 122.259, -32.8125, 122.256, -151.393, 125.72, 87.9786, 0, 0, 8.08656, -55.8865, 8.08677, -174.467, 7.86391, 64.9046, 0.395829, 63.1838
1, 2460.00000, 122.259, -32.8125, 122.256, -151.393, 125.72, 87.9786, 0, 0, 8.08656, -55.8865, 8.08677, -174.467, 7.86391, 64.9046, 0.395829, 63.1838
1, 2520.00000, 122.259, -32.8125, 122.256, -151.393, 125.72, 87.9786, 0, 0, 8.08656, -55.8865, 8.08677, -174.467, 7.86391, 64.9046, 0.395829, 63.1838
1, 2580.00000, 122.259, -32.8125, 122.256, -151.393, 125.72, 87.9786, 0, 0, 8.08656, -55.8865, 8.08677, -174.467, 7.86391, 64.9046, 0.395829, 63.1838
1, 2640.00000, 122.259, -32.8125, 122.256, -151.393, 125.72, 87.9786, 0, 0, 8.08656, -55.8865, 8.08677, -174.467, 7.86391, 64.9046, 0.395829, 63.1838
1, 2700.00000, 122.259, -32.8125, 122.256, -151.393, 125.72, 87.9786, 0, 0, 8.08656, -55.8865, 8.08677, -174.467, 7.86391, 64.9046, 0.395829, 63.1838
1, 2760.00000, 122.259, -32.8125, 122.256, -151.393, 125.72, 87.9786, 0, 0, 8.08656, -55.8865, 8.08677, -174.467, 7.86391, 64.9046, 0.39583, 63.1838
1, 2820.00000, 122.259, -32.8125, 122.256, -151.393, 125.72, 87.9786, 0, 0, 8.08656, -55.8865, 8.08677, -174.467, 7.86391, 64.9046, 0.39583, 63.1838
1, 2880.00000, 122.259, -32.8125, 122.256, -151.393, 125.72, 87.9786, 0, 0, 8.08656, -55.8865, 8.08677, -174.467, 7.86391, 64.9046, 0.39583, 63.1838
1, 2940.00000, 122.259, -32.8125, 122.256, -151.393, 125.72, 87.9786, 0, 0, 8.08656, -55.8865, 8.08677, -174.467, 7.86391, 64.9046, 0.39583, 63.1838
1, 3000.00000, 122.259, -32.8125, 122.256, -151.393, 125.72, 87.9786, 0, 0, 8.08656, -55.8865, 8.08677, -174.467, 7.86391, 64.9046, 0.39583, 63.1838
1, 3060.00000, 122.259, -32.8125, 122.256, -151.393, 125.72, 87.9786, 0, 0, 8.08656, -55.8865, 8.08677, -174.467, 7.86391, 64.9046, 0.39583, 63.1838
1, 3120.00000, 122.259, -32.8125, 122.256, -151.393, 125.72, 87.9786, 0, 0, 8.08656, -55.8865, 8.08677, -174.467, 7.86391, 64.9046, 0.39583, 63.1838
1, 3180.00000, 122.259, -32.8125, 122.256, -151.393, 125.72, 87.9786, 0, 0, 8.08656, -55.8865, 8.08677, -174.467, 7.86391, 64.9046, 0.39583, 63.1838
1, 3240.00000, 122.259, -32.8125, 122.256, -151.393, 125.72, 87.9786, 0, 0, 8.08656, -55.8865, 8.08677, -174.467, 7.86391, 64.9046, 0.39583, 63.1838
1, 3300.00000, 122.259, -32.8125, 122.256, -151.393, 125.72, 87.9786, 0, 0, 8.08656, -55.8865, 8.08677, -174.467, 7.86391, 64.9046, 0.39583, 63.1838
1, 3360.00000, 122.259, -32.8125, 122.256, -151.393, 125.72, 87.9786, 0, 0, 8.08656, -55.8865, 8.08677, -174.467, 7.86391, 64.9046, 0.39583, 63.1838
1, 3420.00000, 122.259, -32.8125, 122.256, -151.393, 125.72, 87.9786, 0, 0, 8.08656, -55.8865, 8.08677, -174.467, 7.86391, 64.9046, 0.39583, 63.1838
1, 3480.00000, 122.259, -32.8125, 122.256, -151.393, 125.72, 87.9786, 0, 0, 8.08656, -55.8865, 8.08677, -174.467, 7.86391, 64.9046, 0.39583, 63.1838
1, 3540.00000, 122.259, -32.8125, 122.256, -151.393, 125.72, 87.9786, 0, 0, 8.08656, -55.8865, 8.08677, -174.467, 7.86391, 64.9046, 0.39583, 63.1838
2, 0.00000, 122.259, -32.8125, 122.256, -151.393, 125.72, 87.9786, 0, 0, 8.08656, -55.8865, 8.08677, -174.467, 7.86391, 64.9046, 0.39583, 63.1838
2, 60.00000, 122.259, -32.8125, 122.256, -151.393, 125.72, 87.9786, 0, 0, 8.08656, -55.8865, 8.08677, -174.467, 7.86391, 64.9046, 0.39583, 63.1838
2, 120.00000, 122.259, -32.8125, 122.256, -151.393, 125.72, 87.9786, 0, 0, 8.08656, -55.8865, 8.08677, -174.467, 7.86391, 64.9046, 0.39583, 63.1838
2, 180.00000, 122.259, -32.8125, 122.256, -151.393, 125.72, 87.9786, 0, 0, 8.08656, -55.8865, 8.08677, -174.467, 7.86391, 64.9046, 0.39583, 63.1838
2, 240.00000, 122.259, -32.8125, 122.256, -151.393, 125.72, 87.9786, 0, 0, 8.08656, -55.8865, 8.08677, -174.467, 7.86391, 64.9046, 0.39583, 63.1838
2, 300.00000, 122.259, -32.8125, 122.256, -151.393, 125.72, 87.9786, 0, 0, 8.08656, -55.8865, 8.08677, -174.467, 7.86391, 64.9046, 0.39583, 63.1838
2, 360.00000, 122.259, -32.8125, 122.256, -151.393, 125.72, 87.9786, 0, 0, 8.08656, -55.8865, 8.08677, -174.467, 7.86391, 64.9046, 0.39583, 63.1838
2, 420.00000, 122.259, -32.8125, 122.256, -151.393, 125.72, 87.9786, 0, 0, 8.08656, -55.8865, 8.08677, -174.467, 7.86391, 64.9046, 0.39583, 63.1838
2, 480.00000, 122.259, -32.8125, 122.256, -151.393, 125.72, 87.9786, 0, 0, 8.08656, -55.8865, 8.08677, -174.467, 7.86391, 64.9046, 0.39583, 63.1838
2, 540.00000, 122.259, -32.8125, 122.256, -151.393, 125.72, 87.9786, 0, 0, 8.08656, -55.8865, 8.08677, -174.467, 7.86391, 64.9046, 0.39583, 63.1838
2, 600.00000, 122.259, -32.8125, 122.256, -151.393, 125.72, 87.9786, 0, 0, 8.08656, -55.8865, 8.08677, -174.467, 7.86391, 64.9046, 0.39583, 63.1838
2, 660.00000, 122.259, -32.8125, 122.256, -151.393, 125.72, 87.9786, 0, 0, 8.08656, -55.8865, 8.08677, -174.467, 7.86391, 64.9046, 0.39583, 63.1838
2, 720.00000, 122.259, -32.8125, 122.256, -151.393, 125.72, 87.9786, 0, 0, 8.08656, -55.8865, 8.08677, -174.467, 7.86391, 64.9046, 0.39583, 63.1838
2, 780.00000, 122.259, -32.8125, 122.256, -151.393, 125.72, 87.9786, 0, 0, 8.08656, -55.8865, 8.08677, -174.467, 7.86391, 64.9046, 0.39583, 63.1838
