hour,t(sec),V1,VAngle1,V2,VAngle2,V3,VAngle3,V4,VAngle4,I1,IAngle1,I2,IAngle2,I3,IAngle3,I4,IAngle4
0, 60.00000, 127.443, -31.4816, 126.193, -151.791, 126.258, 88.812, 0, 0, 4.5499, -54.5555, 4.5949, -174.865, 4.59256, 65.7381, 0.0856413, -53.6332
0, 120.00000, 127.459, -31.4818, 126.199, -151.797, 126.258, 88.812, 0, 0, 4.54934, -54.5557, 4.59469, -174.871, 4.59256, 65.7381, 0.0865011, -53.9079
0, 180.00000, 127.473, -31.482, 126.204, -151.802, 126.258, 88.812, 0, 0, 4.54883, -54.5559, 4.5945, -174.876, 4.59256, 65.7381, 0.0872771, -54.1493
0, 240.00000, 127.486, -31.4822, 126.209, -151.807, 126.258, 88.812, 0, 0, 4.54837, -54.5561, 4.59433, -174.881, 4.59255, 65.7381, 0.0879791, -54.3632
0, 300.00000, 127.497, -31.4824, 126.213, -151.812, 126.258, 88.812, 0, 0, 4.54796, -54.5563, 4.59418, -174.885, 4.59255, 65.7381, 0.0886125, -54.5523
0, 360.00000, 127.508, -31.4826, 126.217, -151.815, 126.258, 88.812, 0, 0, 4.54759, -54.5565, 4.59404, -174.889, 4.59255, 65.7381, 0.0891838, -54.7196
0, 420.00000, 127.517, -31.4827, 126.22, -151.819, 126.258, 88.812, 0, 0, 4.54725, -54.5566, 4.59392, -174.893, 4.59255, 65.7381, 0.0896989, -54.8681
0, 480.00000, 127.525, -31.4829, 126.223, -151.822, 126.258, 88.812, 0, 0, 4.54695, -54.5568, 4.59381, -174.896, 4.59255, 65.7381, 0.0901633, -55
0, 540.00000, 127.533, -31.483, 126.226, -151.825, 126.258, 88.812, 0, 0, 4.54668, -54.5569, 4.59371, -174.899, 4.59255, 65.7381, 0.0905819, -55.1173
0, 600.00000, 127.539, -31.4831, 126.228, -151.827, 126.258, 88.812, 0, 0, 4.54644, -54.557, 4.59362, -174.901, 4.59255, 65.7381, 0.0909591, -55.2218
0, 660.00000, 127.545, -31.4832, 126.231, -151.83, 126.258, 88.812, 0, 0, 4.54622, -54.5571, 4.59354, -174.903, 4.59255, 65.7381, 0.091299, -55.3149
0, 720.00000, 127.551, -31.4833, 126.233, -151.832, 126.258, 88.8121, 0, 0, 4.54602, -54.5572, 4.59347, -174.905, 4.59255, 65.7381, 0.0916052, -55.398
0, 780.00000, 127.556, -31.4834, 126.234, -151.834, 126.258, 88.8121, 0, 0, 4.54584, -54.5573, 4.59341, -174.907, 4.59255, 65.7381, 0.0918811, -55.4722
0, 840.00000, 127.56, -31.4835, 126.236, -151.835, 126.258, 88.8121, 0, 0, 4.54568, -54.5574, 4.59335, -174.909, 4.59255, 65.7381, 0.0921296, -55.5385
0, 900.00000, 127.564, -31.4836, 126.237, -151.837, 126.258, 88.8121, 0, 0, 4.54554, -54.5575, 4.5933, -174.911, 4.59255, 65.7381, 0.0923534, -55.5978
0, 960.00000, 127.476, -31.5164, 126.073, -151.994, 125.884, 88.7464, 0, 0, 4.45149, -54.5903, 4.50103, -175.068, 4.50779, 65.6724, 0.10421, -62.5168
0, 1020.00000, 127.48, -31.5165, 126.074, -151.995, 125.884, 88.7464, 0, 0, 4.45138, -54.5904, 4.50099, -175.069, 4.50779, 65.6724, 0.104393, -62.546
0, 1080.00000, 127.483, -31.5165, 126.075, -151.996, 125.884, 88.7464, 0, 0, 4.45127, -54.5904, 4.50096, -175.07, 4.50779, 65.6724, 0.104559, -62.5722
0, 1140.00000, 127.485, -31.5166, 126.076, -151.997, 125.884, 88.7464, 0, 0, 4.45118, -54.5905, 4.50092, -175.071, 4.50779, 65.6725, 0.104709, -62.5958
0, 1200.00000, 127.488, -31.5166, 126.077, -151.998, 125.884, 88.7464, 0, 0, 4.4511, -54.5905, 4.50089, -175.072, 4.50779, 65.6725, 0.104844, -62.6169
0, 1260.00000, 127.49, -31.5167, 126.078, -151.999, 125.884, 88.7464, 0, 0, 4.45103, -54.5906, 4.50087, -175.073, 4.50779, 65.6725, 0.104965, -62.6358
0, 1320.00000, 127.492, -31.5167, 126.078, -152, 125.884, 88.7464, 0, 0, 4.45096, -54.5906, 4.50084, -175.074, 4.50779, 65.6725, 0.105075, -62.6528
0, 1380.00000, 127.493, -31.5168, 126.079, -152, 125.884, 88.7464, 0, 0, 4.4509, -54.5907, 4.50082, -175.074, 4.50779, 65.6725, 0.105173, -62.6681
0, 1440.00000, 127.495, -31.5168, 126.079, -152.001, 125.884, 88.7464, 0, 0, 4.45084, -54.5907, 4.5008, -175.075, 4.50779, 65.6725, 0.105262, -62.6817
0, 1500.00000, 127.496, -31.5168, 126.08, -152.001, 125.884, 88.7464, 0, 0, 4.45079, -54.5907, 4.50078, -175.075, 4.50779, 65.6725, 0.105341, -62.694
0, 1560.00000, 127.497, -31.5168, 126.08, -152.002, 125.884, 88.7464, 0, 0, 4.45075, -54.5908, 4.50077, -175.076, 4.50779, 65.6725, 0.105413, -62.7051
0, 1620.00000, 127.499, -31.5169, 126.081, -152.002, 125.884, 88.7464, 0, 0, 4.45071, -54.5908, 4.50075, -175.076, 4.50779, 65.6725, 0.105477, -62.715
0, 1680.00000, 127.5, -31.5169, 126.081, -152.003, 125.884, 88.7464, 0, 0, 4.45068, -54.5908, 4.50074, -175.077, 4.50779, 65.6725, 0.105536, -62.7239
0, 1740.00000, 127.5, -31.5169, 126.081, -152.003, 125.884, 88.7464, 0, 0, 4.45064, -54.5908, 4.50073, -175.077, 4.50779, 65.6725, 0.105588, -62.7319
0, 1800.00000, 127.501, -31.5169, 126.082, -152.003, 125.884, 88.7464, 0, 0, 4.45061, -54.5908, 4.50072, -175.077, 4.50779, 65.6725, 0.105635, -62.7391
0, 1860.00000, 127.569, -31.4958, 126.142, -151.985, 125.944, 88.7675, 0, 0, 4.20592, -54.5697, 4.25349, -175.059, 4.26018, 65.6935, 0.100235, -62.7476
0, 1920.00000, 127.57, -31.4958, 126.143, -151.985, 125.944, 88.7675, 0, 0, 4.2059, -54.5697, 4.25349, -175.059, 4.26018, 65.6935, 0.100273, -62.7537
0, 1980.00000, 127.571, -31.4958, 126.143, -151.985, 125.944, 88.7675, 0, 0, 4.20588, -54.5697, 4.25348, -175.059, 4.26018, 65.6935, 0.100305, -62.7589
0, 2040.00000, 127.571, -31.4958, 126.143, -151.986, 125.944, 88.7675, 0, 0, 4.20586, -54.5697, 4.25347, -175.06, 4.26018, 65.6935, 0.100335, -62.7636
0, 2100.00000, 127.572, -31.4958, 126.143, -151.986, 125.944, 88.7675, 0, 0, 4.20584, -54.5697, 4.25347, -175.06, 4.26018, 65.6935, 0.100361, -62.7679
0, 2160.00000, 127.572, -31.4958, 126.143, -151.986, 125.944, 88.7675, 0, 0, 4.20583, -54.5697, 4.25346, -175.06, 4.26018, 65.6935, 0.100385, -62.7717
0, 2220.00000, 127.572, -31.4958, 126.143, -151.986, 125.944, 88.7675, 0, 0, 4.20582, -54.5697, 4.25346, -175.06, 4.26018, 65.6935, 0.100406, -62.7751
0, 2280.00000, 127.573, -31.4958, 126.144, -151.986, 125.944, 88.7675, 0, 0, 4.2058, -54.5697, 4.25345, -175.06, 4.26018, 65.6935, 0.100425, -62.7782
0, 2340.00000, 127.573, -31.4958, 126.144, -151.986, 125.944, 88.7675, 0, 0, 4.20579, -54.5698, 4.25345, -175.06, 4.26018, 65.6935, 0.100443, -62.7809
0, 2400.00000, 127.573, -31.4958, 126.144, -151.987, 125.944, 88.7675, 0, 0, 4.20578, -54.5698, 4.25345, -175.06, 4.26018, 65.6935, 0.100458, -62.7834
0, 2460.00000, 127.574, -31.4958, 126.144, -151.987, 125.944, 88.7675, 0, 0, 4.20578, -54.5698, 4.25344, -175.061, 4.26018, 65.6935, 0.100472, -62.7857
0, 2520.00000, 127.574, -31.4959, 126.144, -151.987, 125.944, 88.7675, 0, 0, 4.20577, -54.5698, 4.25344, -175.061, 4.26018, 65.6935, 0.100485, -62.7877
0, 2580.00000, 127.574, -31.4959, 126.144, -151.987, 125.944, 88.7675, 0, 0, 4.20576, -54.5698, 4.25344, -175.061, 4.26018, 65.6935, 0.100496, -62.7895
0, 2640.00000, 127.574, -31.4959, 126.144, -151.987, 125.944, 88.7675, 0, 0, 4.20575, -54.5698, 4.25343, -175.061, 4.26018, 65.6935, 0.100507, -62.7911
0, 2700.00000, 127.574, -31.4959, 126.144, -151.987, 125.944, 88.7675, 0, 0, 4.20575, -54.5698, 4.25343, -175.061, 4.26018, 65.6935, 0.100516, -62.7926
0, 2760.00000, 127.705, -31.4518, 126.264, -151.947, 126.065, 88.8113, 0, 0, 4.11252, -54.5257, 4.15946, -175.021, 4.16603, 65.7374, 0.0988395, -62.7778
0, 2820.00000, 127.705, -31.4518, 126.264, -151.947, 126.065, 88.8113, 0, 0, 4.11251, -54.5257, 4.15946, -175.021, 4.16603, 65.7374, 0.0988487, -62.7793
0, 2880.00000, 127.705, -31.4518, 126.264, -151.947, 126.065, 88.8113, 0, 0, 4.11251, -54.5257, 4.15946, -175.021, 4.16603, 65.7374, 0.0988553, -62.7804
0, 2940.00000, 127.705, -31.4518, 126.264, -151.947, 126.065, 88.8113, 0, 0, 4.11251, -54.5257, 4.15946, -175.021, 4.16603, 65.7374, 0.0988612, -62.7813
0, 3000.00000, 127.705, -31.4518, 126.264, -151.947, 126.065, 88.8113, 0, 0, 4.1125, -54.5257, 4.15945, -175.021, 4.16603, 65.7374, 0.0988666, -62.7822
0, 3060.00000, 127.705, -31.4518, 126.264, -151.947, 126.065, 88.8113, 0, 0, 4.1125, -54.5257, 4.15945, -175.021, 4.16603, 65.7374, 0.0988714, -62.783
0, 3120.00000, 127.705, -31.4518, 126.264, -151.947, 126.065, 88.8113, 0, 0, 4.1125, -54.5257, 4.15945, -175.021, 4.16603, 65.7374, 0.0988757, -62.7837
0, 3180.00000, 127.705, -31.4518, 126.264, -151.947, 126.065, 88.8113, 0, 0, 4.1125, -54.5257, 4.15945, -175.021, 4.16603, 65.7374, 0.0988796, -62.7843
0, 3240.00000, 127.706, -31.4518, 126.264, -151.947, 126.065, 88.8113, 0, 0, 4.11249, -54.5257, 4.15945, -175.021, 4.16603, 65.7374, 0.098883, -62.7849
0, 3300.00000, 127.706, -31.4518, 126.264, -151.947, 126.065, 88.8113, 0, 0, 4.11249, -54.5257, 4.15945, -175.021, 4.16603, 65.7374, 0.0988862, -62.7854
0, 3360.00000, 127.706, -31.4518, 126.264, -151.947, 126.065, 88.8113, 0, 0, 4.11249, -54.5257, 4.15945, -175.021, 4.16603, 65.7374, 0.098889, -62.7858
0, 3420.00000, 127.706, -31.4518, 126.264, -151.947, 126.065, 88.8113, 0, 0, 4.11249, -54.5257, 4.15945, -175.021, 4.16603, 65.7374, 0.0988916, -62.7863
0, 3480.00000, 127.802, -31.3248, 126.556, -151.914, 126.065, 88.8113, 0, 0, 4.10939, -54.3988, 4.14986, -174.988, 4.16602, 65.7374, 0.0987915, -72.415
0, 3540.00000, 127.802, -31.3241, 126.638, -151.788, 126.356, 88.8459, 0, 0, 4.10938, -54.398, 4.14715, -174.862, 4.15642, 65.772, 0.0841794, -67.2594
1, 0.00000, 127.802, -31.3241, 126.638, -151.788, 126.356, 88.8459, 0, 0, 4.10938, -54.398, 4.14715, -174.862, 4.15642, 65.772, 0.0841811, -67.2591
1, 60.00000, 127.898, -31.2931, 126.727, -151.759, 126.447, 88.8777, 0, 0, 3.7693, -54.3671, 3.80414, -174.833, 3.81256, 65.8038, 0.0775615, -67.1627
1, 120.00000, 127.898, -31.2931, 126.727, -151.759, 126.447, 88.8777, 0, 0, 3.7693, -54.3671, 3.80414, -174.833, 3.81256, 65.8038, 0.077564, -67.1627
1, 180.00000, 127.898, -31.2931, 126.727, -151.759, 126.447, 88.8777, 0, 0, 3.76929, -54.3671, 3.80414, -174.833, 3.81256, 65.8038, 0.0775653, -67.1629
1, 240.00000, 127.898, -31.2931, 126.727, -151.759, 126.447, 88.8777, 0, 0, 3.76929, -54.3671, 3.80414, -174.833, 3.81256, 65.8038, 0.0775664, -67.1631
1, 300.00000, 127.898, -31.2931, 126.727, -151.759, 126.447, 88.8777, 0, 0, 3.76929, -54.3671, 3.80414, -174.833, 3.81256, 65.8038, 0.0775675, -67.1632
1, 360.00000, 127.898, -31.2932, 126.727, -151.759, 126.447, 88.8777, 0, 0, 3.76929, -54.3671, 3.80414, -174.833, 3.81256, 65.8038, 0.0775684, -67.1634
1, 420.00000, 127.898, -31.2932, 126.727, -151.759, 126.447, 88.8777, 0, 0, 3.76929, -54.3671, 3.80414, -174.833, 3.81256, 65.8038, 0.0775692, -67.1635
1, 480.00000, 127.898, -31.2932, 126.727, -151.759, 126.447, 88.8777, 0, 0, 3.76929, -54.3671, 3.80414, -174.833, 3.81256, 65.8038, 0.07757, -67.1636
1, 540.00000, 127.898, -31.2932, 126.727, -151.759, 126.447, 88.8777, 0, 0, 3.76929, -54.3671, 3.80414, -174.833, 3.81256, 65.8038, 0.0775706, -67.1637
1, 600.00000, 127.898, -31.2932, 126.727, -151.759, 126.447, 88.8777, 0, 0, 3.76929, -54.3671, 3.80414, -174.833, 3.81256, 65.8038, 0.0775713, -67.1638
1, 660.00000, 127.898, -31.2932, 126.727, -151.759, 126.447, 88.8777, 0, 0, 3.76929, -54.3671, 3.80414, -174.833, 3.81256, 65.8038, 0.0775718, -67.1639
1, 720.00000, 127.898, -31.2932, 126.727, -151.759, 126.447, 88.8777, 0, 0, 3.76929, -54.3671, 3.80413, -174.833, 3.81256, 65.8038, 0.0775723, -67.1639
1, 780.00000, 127.898, -31.2932, 126.727, -151.759, 126.447, 88.8777, 0, 0, 3.76929, -54.3671, 3.80413, -174.833, 3.81256, 65.8038, 0.0775727, -67.164
1, 840.00000, 127.898, -31.2932, 126.727, -151.76, 126.447, 88.8777, 0, 0, 3.76929, -54.3671, 3.80413, -174.833, 3.81256, 65.8038, 0.0775731, -67.164
1, 900.00000, 127.898, -31.2932, 126.727, -151.76, 126.447, 88.8777, 0, 0, 3.76929, -54.3671, 3.80413, -174.833, 3.81256, 65.8038, 0.0775735, -67.1641
1, 960.00000, 127.912, -31.2886, 126.739, -151.755, 126.46, 88.8826, 0, 0, 3.80838, -54.3625, 3.84361, -174.829, 3.85211, 65.8087, 0.0784381, -67.1492
1, 1020.00000, 127.912, -31.2886, 126.739, -151.755, 126.46, 88.8826, 0, 0, 3.80837, -54.3625, 3.84361, -174.829, 3.85211, 65.8087, 0.0784398, -67.1489
1, 1080.00000, 127.912, -31.2886, 126.739, -151.755, 126.46, 88.8826, 0, 0, 3.80837, -54.3625, 3.84361, -174.829, 3.85211, 65.8087, 0.0784401, -67.149
1, 1140.00000, 127.912, -31.2886, 126.739, -151.755, 126.46, 88.8826, 0, 0, 3.80837, -54.3625, 3.84361, -174.829, 3.85211, 65.8087, 0.0784403, -67.149
1, 1200.00000, 127.912, -31.2886, 126.739, -151.755, 126.46, 88.8826, 0, 0, 3.80837, -54.3625, 3.84361, -174.829, 3.85211, 65.8087, 0.0784405, -67.149
1, 1260.00000, 127.912, -31.2886, 126.739, -151.755, 126.46, 88.8826, 0, 0, 3.80837, -54.3625, 3.84361, -174.829, 3.85211, 65.8087, 0.0784407, -67.1491
1, 1320.00000, 127.912, -31.2886, 126.739, -151.755, 126.46, 88.8826, 0, 0, 3.80837, -54.3625, 3.84361, -174.829, 3.85211, 65.8087, 0.0784409, -67.1491
1, 1380.00000, 127.912, -31.2886, 126.739, -151.755, 126.46, 88.8826, 0, 0, 3.80837, -54.3625, 3.84361, -174.829, 3.85211, 65.8087, 0.078441, -67.1491
1, 1440.00000, 127.912, -31.2886, 126.739, -151.755, 126.46, 88.8826, 0, 0, 3.80837, -54.3625, 3.84361, -174.829, 3.85211, 65.8087, 0.0784412, -67.1491
1, 1500.00000, 127.912, -31.2886, 126.739, -151.755, 126.46, 88.8826, 0, 0, 3.80837, -54.3625, 3.84361, -174.829, 3.85211, 65.8087, 0.0784413, -67.1492
1, 1560.00000, 127.912, -31.2886, 126.739, -151.755, 126.46, 88.8826, 0, 0, 3.80837, -54.3625, 3.84361, -174.829, 3.85211, 65.8087, 0.0784414, -67.1492
1, 1620.00000, 127.912, -31.2886, 126.739, -151.755, 126.46, 88.8826, 0, 0, 3.80837, -54.3625, 3.84361, -174.829, 3.85211, 65.8087, 0.0784415, -67.1492
1, 1680.00000, 127.912, -31.2886, 126.739, -151.755, 126.46, 88.8826, 0, 0, 3.80837, -54.3625, 3.84361, -174.829, 3.85211, 65.8087, 0.0784416, -67.1492
1, 1740.00000, 127.912, -31.2886, 126.739, -151.755, 126.46, 88.8826, 0, 0, 3.80837, -54.3625, 3.84361, -174.829, 3.85211, 65.8087, 0.0784417, -67.1492
1, 1800.00000, 127.912, -31.2886, 126.739, -151.755, 126.46, 88.8826, 0, 0, 3.80837, -54.3625, 3.84361, -174.829, 3.85211, 65.8087, 0.0784418, -67.1492
1, 1860.00000, 127.938, -31.1854, 126.953, -151.749, 126.374, 88.8526, 0, 0, 4.05092, -54.2593, 4.08235, -174.823, 4.10105, 65.7787, 0.0853889, -78.5316
1, 1920.00000, 127.938, -31.1854, 126.953, -151.749, 126.374, 88.8526, 0, 0, 4.05092, -54.2593, 4.08235, -174.823, 4.10105, 65.7787, 0.0853899, -78.5318
1, 1980.00000, 127.938, -31.1854, 126.953, -151.749, 126.374, 88.8526, 0, 0, 4.05092, -54.2593, 4.08235, -174.823, 4.10105, 65.7787, 0.0853899, -78.5318
1, 2040.00000, 127.938, -31.1854, 126.953, -151.749, 126.374, 88.8526, 0, 0, 4.05092, -54.2593, 4.08235, -174.823, 4.10105, 65.7787, 0.08539, -78.5318
1, 2100.00000, 127.938, -31.1854, 126.953, -151.749, 126.374, 88.8526, 0, 0, 4.05092, -54.2593, 4.08235, -174.823, 4.10105, 65.7787, 0.08539, -78.5318
1, 2160.00000, 127.938, -31.1854, 126.953, -151.749, 126.374, 88.8526, 0, 0, 4.05092, -54.2593, 4.08235, -174.823, 4.10105, 65.7787, 0.0853901, -78.5318
1, 2220.00000, 127.938, -31.1854, 126.953, -151.749, 126.374, 88.8526, 0, 0, 4.05092, -54.2593, 4.08235, -174.823, 4.10105, 65.7787, 0.0853901, -78.5318
1, 2280.00000, 127.938, -31.1854, 126.953, -151.749, 126.374, 88.8526, 0, 0, 4.05092, -54.2593, 4.08235, -174.823, 4.10105, 65.7787, 0.0853901, -78.5318
1, 2340.00000, 127.938, -31.1854, 126.953, -151.749, 126.374, 88.8526, 0, 0, 4.05092, -54.2593, 4.08235, -174.823, 4.10105, 65.7787, 0.0853902, -78.5318
1, 2400.00000, 127.938, -31.1854, 126.953, -151.749, 126.374, 88.8526, 0, 0, 4.05092, -54.2593, 4.08235, -174.823, 4.10105, 65.7787, 0.0853902, -78.5318
1, 2460.00000, 127.938, -31.1854, 126.953, -151.749, 126.374, 88.8526, 0, 0, 4.05092, -54.2593, 4.08235, -174.823, 4.10105, 65.7787, 0.0853902, -78.5318
1, 2520.00000, 127.938, -31.1854, 126.953, -151.749, 126.374, 88.8526, 0, 0, 4.05092, -54.2593, 4.08235, -174.823, 4.10105, 65.7787, 0.0853902, -78.5318
1, 2580.00000, 127.938, -31.1854, 126.953, -151.749, 126.374, 88.8526, 0, 0, 4.05092, -54.2593, 4.08235, -174.823, 4.10105, 65.7787, 0.0853903, -78.5318
1, 2640.00000, 127.938, -31.1854, 126.953, -151.749, 126.374, 88.8526, 0, 0, 4.05092, -54.2593, 4.08235, -174.823, 4.10105, 65.7787, 0.0853903, -78.5318
1, 2700.00000, 127.938, -31.1854, 126.953, -151.749, 126.374, 88.8526, 0, 0, 4.05092, -54.2593, 4.08235, -174.823, 4.10105, 65.7787, 0.0853903, -78.5318
1, 2760.00000, 128.111, -31.1268, 127.122, -151.694, 126.54, 88.9128, 0, 0, 3.81888, -54.2007, 3.8486, -174.768, 3.86628, 65.8389, 0.0808994, -78.4209
1, 2820.00000, 128.111, -31.1268, 127.122, -151.694, 126.54, 88.9128, 0, 0, 3.81888, -54.2007, 3.8486, -174.768, 3.86628, 65.8389, 0.0809017, -78.4206
1, 2880.00000, 128.111, -31.1268, 127.122, -151.694, 126.54, 88.9128, 0, 0, 3.81888, -54.2007, 3.8486, -174.768, 3.86628, 65.8389, 0.0809017, -78.4206
1, 2940.00000, 128.111, -31.1268, 127.122, -151.694, 126.54, 88.9128, 0, 0, 3.81888, -54.2007, 3.8486, -174.768, 3.86628, 65.8389, 0.0809017, -78.4206
1, 3000.00000, 128.111, -31.1268, 127.122, -151.694, 126.54, 88.9128, 0, 0, 3.81888, -54.2007, 3.8486, -174.768, 3.86628, 65.8389, 0.0809017, -78.4206
1, 3060.00000, 128.111, -31.1268, 127.122, -151.694, 126.54, 88.9128, 0, 0, 3.81888, -54.2007, 3.8486, -174.768, 3.86628, 65.8389, 0.0809017, -78.4206
1, 3120.00000, 128.111, -31.1268, 127.122, -151.694, 126.54, 88.9128, 0, 0, 3.81888, -54.2007, 3.8486, -174.768, 3.86628, 65.8389, 0.0809017, -78.4206
1, 3180.00000, 128.111, -31.1268, 127.122, -151.694, 126.54, 88.9128, 0, 0, 3.81888, -54.2007, 3.8486, -174.768, 3.86628, 65.8389, 0.0809017, -78.4206
1, 3240.00000, 128.111, -31.1268, 127.122, -151.694, 126.54, 88.9128, 0, 0, 3.81888, -54.2007, 3.8486, -174.768, 3.86628, 65.8389, 0.0809017, -78.4206
1, 3300.00000, 128.111, -31.1268, 127.122, -151.694, 126.54, 88.9128, 0, 0, 3.81888, -54.2007, 3.8486, -174.768, 3.86628, 65.8389, 0.0809017, -78.4206
1, 3360.00000, 128.111, -31.1268, 127.122, -151.694, 126.54, 88.9128, 0, 0, 3.81888, -54.2007, 3.8486, -174.768, 3.86628, 65.8389, 0.0809018, -78.4206
1, 3420.00000, 128.111, -31.1268, 127.122, -151.694, 126.54, 88.9128, 0, 0, 3.81888, -54.2007, 3.8486, -174.768, 3.86628, 65.8389, 0.0809018, -78.4206
1, 3480.00000, 128.111, -31.1268, 127.122, -151.694, 126.54, 88.9128, 0, 0, 3.81888, -54.2007, 3.8486, -174.768, 3.86628, 65.8389, 0.0809018, -78.4206
1, 3540.00000, 128.111, -31.1268, 127.122, -151.694, 126.54, 88.9128, 0, 0, 3.81888, -54.2007, 3.8486, -174.768, 3.86628, 65.8389, 0.0809018, -78.4206
2, 0.00000, 128.111, -31.1268, 127.122, -151.694, 126.54, 88.9128, 0, 0, 3.81888, -54.2007, 3.8486, -174.768, 3.86628, 65.8389, 0.0809018, -78.4206
2, 60.00000, 128.005, -31.1624, 127.018, -151.728, 126.438, 88.8764, 0, 0, 4.06723, -54.2363, 4.09884, -174.802, 4.11764, 65.8025, 0.0859367, -78.4787
2, 120.00000, 128.005, -31.1624, 127.018, -151.728, 126.438, 88.8764, 0, 0, 4.06723, -54.2363, 4.09884, -174.802, 4.11764, 65.8025, 0.0859352, -78.4788
2, 180.00000, 128.005, -31.1624, 127.018, -151.728, 126.438, 88.8764, 0, 0, 4.06723, -54.2363, 4.09884, -174.802, 4.11764, 65.8025, 0.0859352, -78.4788
2, 240.00000, 128.005, -31.1624, 127.018, -151.728, 126.438, 88.8764, 0, 0, 4.06723, -54.2363, 4.09884, -174.802, 4.11764, 65.8025, 0.0859352, -78.4788
2, 300.00000, 128.005, -31.1624, 127.018, -151.728, 126.438, 88.8764, 0, 0, 4.06723, -54.2363, 4.09884, -174.802, 4.11764, 65.8025, 0.0859352, -78.4788
2, 360.00000, 128.005, -31.1624, 127.018, -151.728, 126.438, 88.8764, 0, 0, 4.06723, -54.2363, 4.09884, -174.802, 4.11764, 65.8025, 0.0859352, -78.4788
2, 420.00000, 128.005, -31.1624, 127.018, -151.728, 126.438, 88.8764, 0, 0, 4.06723, -54.2363, 4.09884, -174.802, 4.11764, 65.8025, 0.0859352, -78.4788
2, 480.00000, 128.005, -31.1624, 127.018, -151.728, 126.438, 88.8764, 0, 0, 4.06723, -54.2363, 4.09884, -174.802, 4.11764, 65.8025, 0.0859352, -78.4788
2, 540.00000, 128.005, -31.1624, 127.018, -151.728, 126.438, 88.8764, 0, 0, 4.06723, -54.2363, 4.09884, -174.802, 4.11764, 65.8025, 0.0859352, -78.4788
2, 600.00000, 128.005, -31.1624, 127.018, -151.728, 126.438, 88.8764, 0, 0, 4.06723, -54.2363, 4.09884, -174.802, 4.11764, 65.8025, 0.0859352, -78.4788
2, 660.00000, 128.005, -31.1624, 127.018, -151.728, 126.438, 88.8764, 0, 0, 4.06723, -54.2363, 4.09884, -174.802, 4.11764, 65.8025, 0.0859352, -78.4788
