hour,t(sec),"P1 (kW)","Q1 (kvar)","P2 (kW)","Q2 (kvar)","P3 (kW)","Q3 (kvar)","P4 (kW)","Q4 (kvar)"
0, 60.00000, 0.514092, 0.218997, 0.513462, 0.218734, 0.523119, 0.222842, 0, 0
0, 120.00000, 0.514085, 0.218999, 0.513455, 0.218731, 0.523095, 0.222837, 0, 0
0, 180.00000, 0.514085, 0.218999, 0.513455, 0.218731, 0.523095, 0.222837, 0, 0
0, 240.00000, 0.514085, 0.218999, 0.513455, 0.218731, 0.523095, 0.222837, 0, 0
0, 300.00000, 0.514085, 0.218999, 0.513455, 0.218731, 0.523095, 0.222837, 0, 0
0, 360.00000, 0.514085, 0.218999, 0.513455, 0.218731, 0.523095, 0.222837, 0, 0
0, 420.00000, 0.514085, 0.218999, 0.513455, 0.218731, 0.523095, 0.222837, 0, 0
0, 480.00000, 0.514085, 0.218999, 0.513455, 0.218731, 0.523095, 0.222837, 0, 0
0, 540.00000, 0.514085, 0.218999, 0.513455, 0.218731, 0.523095, 0.222837, 0, 0
0, 600.00000, 0.514085, 0.218999, 0.513455, 0.218731, 0.523095, 0.222837, 0, 0
0, 660.00000, 0.514085, 0.218999, 0.513455, 0.218731, 0.523095, 0.222837, 0, 0
0, 720.00000, 0.514085, 0.218999, 0.513455, 0.218731, 0.523095, 0.222837, 0, 0
0, 780.00000, 0.514085, 0.218999, 0.513455, 0.218731, 0.523095, 0.222837, 0, 0
0, 840.00000, 0.514085, 0.218999, 0.513455, 0.218731, 0.523095, 0.222837, 0, 0
0, 900.00000, 0.514085, 0.218999, 0.513455, 0.218731, 0.523095, 0.222837, 0, 0
0, 960.00000, 0.424481, 0.180827, 0.424014, 0.180628, 0.431996, 0.184029, 0, 0
0, 1020.00000, 0.424479, 0.180827, 0.424011, 0.180628, 0.431993, 0.184028, 0, 0
0, 1080.00000, 0.424479, 0.180827, 0.424011, 0.180628, 0.431993, 0.184028, 0, 0
0, 1140.00000, 0.424479, 0.180827, 0.424011, 0.180628, 0.431993, 0.184028, 0, 0
0, 1200.00000, 0.424479, 0.180827, 0.424011, 0.180628, 0.431993, 0.184028, 0, 0
0, 1260.00000, 0.424479, 0.180827, 0.424011, 0.180628, 0.431993, 0.184028, 0, 0
0, 1320.00000, 0.424479, 0.180827, 0.424011, 0.180628, 0.431993, 0.184028, 0, 0
0, 1380.00000, 0.424479, 0.180827, 0.424011, 0.180628, 0.431993, 0.184028, 0, 0
0, 1440.00000, 0.424479, 0.180827, 0.424011, 0.180628, 0.431993, 0.184028, 0, 0
0, 1500.00000, 0.424479, 0.180827, 0.424011, 0.180628, 0.431993, 0.184028, 0, 0
0, 1560.00000, 0.424479, 0.180827, 0.424011, 0.180628, 0.431993, 0.184028, 0, 0
0, 1620.00000, 0.424479, 0.180827, 0.424011, 0.180628, 0.431993, 0.184028, 0, 0
0, 1680.00000, 0.424479, 0.180827, 0.424011, 0.180628, 0.431993, 0.184028, 0, 0
0, 1740.00000, 0.424479, 0.180827, 0.424011, 0.180628, 0.431993, 0.184028, 0, 0
0, 1800.00000, 0.424479, 0.180827, 0.424011, 0.180628, 0.431993, 0.184028, 0, 0
0, 1860.00000, 0.372763, 0.158805, 0.372281, 0.158597, 0.379255, 0.161568, 0, 0
0, 1920.00000, 0.372786, 0.158806, 0.372303, 0.158601, 0.379281, 0.161573, 0, 0
0, 1980.00000, 0.372786, 0.158806, 0.372303, 0.158601, 0.379281, 0.161573, 0, 0
0, 2040.00000, 0.372786, 0.158806, 0.372303, 0.158601, 0.379281, 0.161573, 0, 0
0, 2100.00000, 0.372786, 0.158806, 0.372303, 0.158601, 0.379281, 0.161573, 0, 0
0, 2160.00000, 0.372786, 0.158806, 0.372303, 0.158601, 0.379281, 0.161573, 0, 0
0, 2220.00000, 0.372786, 0.158806, 0.372303, 0.158601, 0.379281, 0.161573, 0, 0
0, 2280.00000, 0.372786, 0.158806, 0.372303, 0.158601, 0.379281, 0.161573, 0, 0
0, 2340.00000, 0.372786, 0.158806, 0.372303, 0.158601, 0.379281, 0.161573, 0, 0
0, 2400.00000, 0.372786, 0.158806, 0.372303, 0.158601, 0.379281, 0.161573, 0, 0
0, 2460.00000, 0.372786, 0.158806, 0.372303, 0.158601, 0.379281, 0.161573, 0, 0
0, 2520.00000, 0.372786, 0.158806, 0.372303, 0.158601, 0.379281, 0.161573, 0, 0
0, 2580.00000, 0.372786, 0.158806, 0.372303, 0.158601, 0.379281, 0.161573, 0, 0
0, 2640.00000, 0.372786, 0.158806, 0.372303, 0.158601, 0.379281, 0.161573, 0, 0
0, 2700.00000, 0.372786, 0.158806, 0.372303, 0.158601, 0.379281, 0.161573, 0, 0
0, 2760.00000, 0.364373, 0.155224, 0.363802, 0.154978, 0.370559, 0.157859, 0, 0
0, 2820.00000, 0.364375, 0.155223, 0.363803, 0.154979, 0.370553, 0.157855, 0, 0
0, 2880.00000, 0.364375, 0.155223, 0.363803, 0.154979, 0.370553, 0.157855, 0, 0
0, 2940.00000, 0.364375, 0.155223, 0.363803, 0.154979, 0.370553, 0.157855, 0, 0
0, 3000.00000, 0.364375, 0.155223, 0.363803, 0.154979, 0.370553, 0.157855, 0, 0
0, 3060.00000, 0.364375, 0.155223, 0.363803, 0.154979, 0.370553, 0.157855, 0, 0
0, 3120.00000, 0.364375, 0.155223, 0.363803, 0.154979, 0.370553, 0.157855, 0, 0
0, 3180.00000, 0.364375, 0.155223, 0.363803, 0.154979, 0.370553, 0.157855, 0, 0
0, 3240.00000, 0.364375, 0.155223, 0.363803, 0.154979, 0.370553, 0.157855, 0, 0
0, 3300.00000, 0.364375, 0.155223, 0.363803, 0.154979, 0.370553, 0.157855, 0, 0
0, 3360.00000, 0.364375, 0.155223, 0.363803, 0.154979, 0.370553, 0.157855, 0, 0
0, 3420.00000, 0.364375, 0.155223, 0.363803, 0.154979, 0.370553, 0.157855, 0, 0
0, 3480.00000, 0.364375, 0.155223, 0.363803, 0.154979, 0.370553, 0.157855, 0, 0
0, 3540.00000, 0.364375, 0.155223, 0.363803, 0.154979, 0.370553, 0.157855, 0, 0
1, 0.00000, 0.364375, 0.155223, 0.363803, 0.154979, 0.370553, 0.157855, 0, 0
1, 60.00000, 0.39181, 0.166913, 0.391133, 0.16662, 0.396831, 0.169051, 0, 0
1, 120.00000, 0.391811, 0.166911, 0.391134, 0.166622, 0.396822, 0.169046, 0, 0
1, 180.00000, 0.391811, 0.166911, 0.391134, 0.166622, 0.396822, 0.169046, 0, 0
1, 240.00000, 0.391811, 0.166911, 0.391134, 0.166622, 0.396822, 0.169046, 0, 0
1, 300.00000, 0.391811, 0.166911, 0.391134, 0.166622, 0.396822, 0.169046, 0, 0
1, 360.00000, 0.391811, 0.166911, 0.391134, 0.166622, 0.396822, 0.169046, 0, 0
1, 420.00000, 0.391811, 0.166911, 0.391134, 0.166622, 0.396822, 0.169046, 0, 0
1, 480.00000, 0.391811, 0.166911, 0.391134, 0.166622, 0.396822, 0.169046, 0, 0
1, 540.00000, 0.391811, 0.166911, 0.391134, 0.166622, 0.396822, 0.169046, 0, 0
1, 600.00000, 0.391811, 0.166911, 0.391134, 0.166622, 0.396822, 0.169046, 0, 0
1, 660.00000, 0.391811, 0.166911, 0.391134, 0.166622, 0.396822, 0.169046, 0, 0
1, 720.00000, 0.391811, 0.166911, 0.391134, 0.166622, 0.396822, 0.169046, 0, 0
1, 780.00000, 0.391811, 0.166911, 0.391134, 0.166622, 0.396822, 0.169046, 0, 0
1, 840.00000, 0.391811, 0.166911, 0.391134, 0.166622, 0.396822, 0.169046, 0, 0
1, 900.00000, 0.391811, 0.166911, 0.391134, 0.166622, 0.396822, 0.169046, 0, 0
1, 960.00000, 0.345093, 0.147013, 0.34448, 0.146747, 0.34916, 0.148744, 0, 0
1, 1020.00000, 0.345097, 0.147011, 0.344484, 0.14675, 0.349148, 0.148737, 0, 0
1, 1080.00000, 0.345097, 0.147011, 0.344484, 0.14675, 0.349148, 0.148737, 0, 0
1, 1140.00000, 0.345097, 0.147011, 0.344484, 0.14675, 0.349148, 0.148737, 0, 0
1, 1200.00000, 0.345097, 0.147011, 0.344484, 0.14675, 0.349148, 0.148737, 0, 0
1, 1260.00000, 0.345097, 0.147011, 0.344484, 0.14675, 0.349148, 0.148737, 0, 0
1, 1320.00000, 0.345097, 0.147011, 0.344484, 0.14675, 0.349148, 0.148737, 0, 0
1, 1380.00000, 0.345097, 0.147011, 0.344484, 0.14675, 0.349148, 0.148737, 0, 0
1, 1440.00000, 0.345097, 0.147011, 0.344484, 0.14675, 0.349148, 0.148737, 0, 0
1, 1500.00000, 0.345097, 0.147011, 0.344484, 0.14675, 0.349148, 0.148737, 0, 0
1, 1560.00000, 0.345097, 0.147011, 0.344484, 0.14675, 0.349148, 0.148737, 0, 0
1, 1620.00000, 0.345097, 0.147011, 0.344484, 0.14675, 0.349148, 0.148737, 0, 0
1, 1680.00000, 0.345097, 0.147011, 0.344484, 0.14675, 0.349148, 0.148737, 0, 0
1, 1740.00000, 0.345097, 0.147011, 0.344484, 0.14675, 0.349148, 0.148737, 0, 0
1, 1800.00000, 0.345097, 0.147011, 0.344484, 0.14675, 0.349148, 0.148737, 0, 0
1, 1860.00000, 0.319926, 0.136286, 0.319394, 0.136063, 0.324698, 0.138319, 0, 0
1, 1920.00000, 0.319926, 0.136288, 0.319393, 0.136061, 0.324704, 0.138323, 0, 0
1, 1980.00000, 0.319926, 0.136288, 0.319393, 0.136061, 0.324705, 0.138324, 0, 0
1, 2040.00000, 0.319926, 0.136288, 0.319393, 0.136061, 0.324705, 0.138324, 0, 0
1, 2100.00000, 0.319926, 0.136288, 0.319393, 0.136061, 0.324705, 0.138324, 0, 0
1, 2160.00000, 0.319926, 0.136288, 0.319393, 0.136061, 0.324705, 0.138324, 0, 0
1, 2220.00000, 0.319926, 0.136288, 0.319393, 0.136061, 0.324705, 0.138324, 0, 0
1, 2280.00000, 0.319926, 0.136288, 0.319393, 0.136061, 0.324705, 0.138324, 0, 0
1, 2340.00000, 0.319926, 0.136288, 0.319393, 0.136061, 0.324705, 0.138324, 0, 0
1, 2400.00000, 0.319926, 0.136288, 0.319393, 0.136061, 0.324705, 0.138324, 0, 0
1, 2460.00000, 0.319926, 0.136288, 0.319393, 0.136061, 0.324705, 0.138324, 0, 0
1, 2520.00000, 0.319926, 0.136288, 0.319393, 0.136061, 0.324705, 0.138324, 0, 0
1, 2580.00000, 0.319926, 0.136288, 0.319393, 0.136061, 0.324705, 0.138324, 0, 0
1, 2640.00000, 0.319926, 0.136288, 0.319393, 0.136061, 0.324705, 0.138324, 0, 0
1, 2700.00000, 0.319926, 0.136288, 0.319393, 0.136061, 0.324705, 0.138324, 0, 0
1, 2760.00000, 0.230852, 0.098345, 0.230407, 0.0981514, 0.232388, 0.0989995, 0, 0
1, 2820.00000, 0.230852, 0.0983427, 0.23041, 0.0981543, 0.232378, 0.0989926, 0, 0
1, 2880.00000, 0.230852, 0.0983426, 0.23041, 0.0981544, 0.232378, 0.0989925, 0, 0
1, 2940.00000, 0.230852, 0.0983426, 0.23041, 0.0981544, 0.232378, 0.0989925, 0, 0
1, 3000.00000, 0.230852, 0.0983426, 0.23041, 0.0981544, 0.232378, 0.0989925, 0, 0
1, 3060.00000, 0.230852, 0.0983426, 0.23041, 0.0981544, 0.232378, 0.0989925, 0, 0
1, 3120.00000, 0.230852, 0.0983426, 0.23041, 0.0981544, 0.232378, 0.0989925, 0, 0
1, 3180.00000, 0.230852, 0.0983426, 0.23041, 0.0981544, 0.232378, 0.0989925, 0, 0
1, 3240.00000, 0.230852, 0.0983426, 0.23041, 0.0981544, 0.232378, 0.0989925, 0, 0
1, 3300.00000, 0.230852, 0.0983426, 0.23041, 0.0981544, 0.232378, 0.0989925, 0, 0
1, 3360.00000, 0.230852, 0.0983426, 0.23041, 0.0981544, 0.232378, 0.0989925, 0, 0
1, 3420.00000, 0.230852, 0.0983426, 0.23041, 0.0981544, 0.232378, 0.0989925, 0, 0
1, 3480.00000, 0.230852, 0.0983426, 0.23041, 0.0981544, 0.232378, 0.0989925, 0, 0
1, 3540.00000, 0.230852, 0.0983426, 0.23041, 0.0981544, 0.232378, 0.0989925, 0, 0
2, 0.00000, 0.230852, 0.0983426, 0.23041, 0.0981544, 0.232378, 0.0989925, 0, 0
2, 60.00000, 0.21035, 0.0896074, 0.209966, 0.0894463, 0.212649, 0.0905865, 0, 0
2, 120.00000, 0.21035, 0.0896086, 0.209966, 0.089445, 0.212654, 0.0905902, 0, 0
2, 180.00000, 0.21035, 0.0896086, 0.209966, 0.089445, 0.212654, 0.0905902, 0, 0
2, 240.00000, 0.21035, 0.0896086, 0.209966, 0.089445, 0.212654, 0.0905902, 0, 0
2, 300.00000, 0.21035, 0.0896086, 0.209966, 0.089445, 0.212654, 0.0905902, 0, 0
2, 360.00000, 0.21035, 0.0896086, 0.209966, 0.089445, 0.212654, 0.0905902, 0, 0
2, 420.00000, 0.21035, 0.0896086, 0.209966, 0.089445, 0.212654, 0.0905902, 0, 0
2, 480.00000, 0.21035, 0.0896086, 0.209966, 0.089445, 0.212654, 0.0905902, 0, 0
2, 540.00000, 0.21035, 0.0896086, 0.209966, 0.089445, 0.212654, 0.0905902, 0, 0
2, 600.00000, 0.21035, 0.0896086, 0.209966, 0.089445, 0.212654, 0.0905902, 0, 0
2, 660.00000, 0.21035, 0.0896086, 0.209966, 0.089445, 0.212654, 0.0905902, 0, 0
2, 720.00000, 0.21035, 0.0896086, 0.209966, 0.089445, 0.212654, 0.0905902, 0, 0
2, 780.00000, 0.21035, 0.0896086, 0.209966, 0.089445, 0.212654, 0.0905902, 0, 0
2, 840.00000, 0.21035, 0.0896086, 0.209966, 0.089445, 0.212654, 0.0905902, 0, 0
2, 900.00000, 0.21035, 0.0896086, 0.209966, 0.089445, 0.212654, 0.0905902, 0, 0
2, 960.00000, 0.216585, 0.0922666, 0.21616, 0.0920829, 0.217731, 0.0927551, 0, 0
2, 1020.00000, 0.216586, 0.0922652, 0.216163, 0.0920849, 0.217725, 0.0927504, 0, 0
2, 1080.00000, 0.216586, 0.0922652, 0.216163, 0.0920849, 0.217725, 0.0927504, 0, 0
2, 1140.00000, 0.216586, 0.0922652, 0.216163, 0.0920849, 0.217725, 0.0927503, 0, 0
2, 1200.00000, 0.216586, 0.0922652, 0.216163, 0.0920849, 0.217725, 0.0927503, 0, 0
2, 1260.00000, 0.216586, 0.0922652, 0.216163, 0.0920849, 0.217725, 0.0927503, 0, 0
2, 1320.00000, 0.216586, 0.0922652, 0.216163, 0.0920849, 0.217725, 0.0927503, 0, 0
2, 1380.00000, 0.216586, 0.0922652, 0.216163, 0.0920849, 0.217725, 0.0927503, 0, 0
2, 1440.00000, 0.216586, 0.0922652, 0.216163, 0.0920849, 0.217725, 0.0927503, 0, 0
2, 1500.00000, 0.216586, 0.0922652, 0.216163, 0.0920849, 0.217725, 0.0927503, 0, 0
2, 1560.00000, 0.216586, 0.0922652, 0.216163, 0.0920849, 0.217725, 0.0927503, 0, 0
2, 1620.00000, 0.216586, 0.0922652, 0.216163, 0.0920849, 0.217725, 0.0927503, 0, 0
2, 1680.00000, 0.216586, 0.0922652, 0.216163, 0.0920849, 0.217725, 0.0927503, 0, 0
2, 1740.00000, 0.216586, 0.0922652, 0.216163, 0.0920849, 0.217725, 0.0927503, 0, 0
2, 1800.00000, 0.216586, 0.0922652, 0.216163, 0.0920849, 0.217725, 0.0927503, 0, 0
2, 1860.00000, 0.222916, 0.0949611, 0.222493, 0.0947819, 0.224628, 0.0956904, 0, 0
2, 1920.00000, 0.222916, 0.0949616, 0.222491, 0.0947809, 0.224631, 0.0956924, 0, 0
2, 1980.00000, 0.222916, 0.0949617, 0.222491, 0.0947809, 0.224631, 0.0956924, 0, 0
2, 2040.00000, 0.222916, 0.0949617, 0.222491, 0.0947809, 0.224631, 0.0956924, 0, 0
2, 2100.00000, 0.222916, 0.0949617, 0.222491, 0.0947809, 0.224631, 0.0956924, 0, 0
2, 2160.00000, 0.222916, 0.0949617, 0.222491, 0.0947809, 0.224631, 0.0956924, 0, 0
2, 2220.00000, 0.222916, 0.0949617, 0.222491, 0.0947809, 0.224631, 0.0956924, 0, 0
2, 2280.00000, 0.222916, 0.0949617, 0.222491, 0.0947809, 0.224631, 0.0956924, 0, 0
2, 2340.00000, 0.222916, 0.0949617, 0.222491, 0.0947809, 0.224631, 0.0956924, 0, 0
2, 2400.00000, 0.222916, 0.0949617, 0.222491, 0.0947809, 0.224631, 0.0956924, 0, 0
2, 2460.00000, 0.222916, 0.0949617, 0.222491, 0.0947809, 0.224631, 0.0956924, 0, 0
2, 2520.00000, 0.222916, 0.0949617, 0.222491, 0.0947809, 0.224631, 0.0956924, 0, 0
2, 2580.00000, 0.222916, 0.0949617, 0.222491, 0.0947809, 0.224631, 0.0956924, 0, 0
2, 2640.00000, 0.222916, 0.0949617, 0.222491, 0.0947809, 0.224631, 0.0956924, 0, 0
2, 2700.00000, 0.222916, 0.0949617, 0.222491, 0.0947809, 0.224631, 0.0956924, 0, 0
2, 2760.00000, 0.299453, 0.12757, 0.298829, 0.1273, 0.299908, 0.127763, 0, 0
2, 2820.00000, 0.299457, 0.127568, 0.298835, 0.127303, 0.299897, 0.127755, 0, 0
2, 2880.00000, 0.299457, 0.127568, 0.298835, 0.127303, 0.299896, 0.127755, 0, 0
2, 2940.00000, 0.299457, 0.127568, 0.298835, 0.127303, 0.299896, 0.127755, 0, 0
2, 3000.00000, 0.299457, 0.127568, 0.298835, 0.127303, 0.299896, 0.127755, 0, 0
2, 3060.00000, 0.299457, 0.127568, 0.298835, 0.127303, 0.299896, 0.127755, 0, 0
2, 3120.00000, 0.299457, 0.127568, 0.298835, 0.127303, 0.299896, 0.127755, 0, 0
2, 3180.00000, 0.299457, 0.127568, 0.298835, 0.127303, 0.299896, 0.127755, 0, 0
2, 3240.00000, 0.299457, 0.127568, 0.298835, 0.127303, 0.299896, 0.127755, 0, 0
2, 3300.00000, 0.299457, 0.127568, 0.298835, 0.127303, 0.299896, 0.127755, 0, 0
2, 3360.00000, 0.299457, 0.127568, 0.298835, 0.127303, 0.299896, 0.127755, 0, 0
2, 3420.00000, 0.299457, 0.127568, 0.298835, 0.127303, 0.299896, 0.127755, 0, 0
2, 3480.00000, 0.299457, 0.127568, 0.298835, 0.127303, 0.299896, 0.127755, 0, 0
2, 3540.00000, 0.299457, 0.127568, 0.298835, 0.127303, 0.299896, 0.127755, 0, 0
3, 0.00000, 0.299457, 0.127568, 0.298835, 0.127303, 0.299896, 0.127755, 0, 0
3, 60.00000, 0.266297, 0.11344, 0.265776, 0.11322, 0.267561, 0.113979, 0, 0
3, 120.00000, 0.266294, 0.113441, 0.265774, 0.113219, 0.267566, 0.113983, 0, 0
3, 180.00000, 0.266294, 0.113441, 0.265774, 0.113219, 0.267566, 0.113983, 0, 0
3, 240.00000, 0.266294, 0.113441, 0.265774, 0.113219, 0.267566, 0.113983, 0, 0
3, 300.00000, 0.266294, 0.113441, 0.265774, 0.113219, 0.267566, 0.113983, 0, 0
3, 360.00000, 0.266294, 0.113441, 0.265774, 0.113219, 0.267566, 0.113983, 0, 0
3, 420.00000, 0.266294, 0.113441, 0.265774, 0.113219, 0.267566, 0.113983, 0, 0
3, 480.00000, 0.266294, 0.113441, 0.265774, 0.113219, 0.267566, 0.113983, 0, 0
3, 540.00000, 0.266294, 0.113441, 0.265774, 0.113219, 0.267566, 0.113983, 0, 0
3, 600.00000, 0.266294, 0.113441, 0.265774, 0.113219, 0.267566, 0.113983, 0, 0
3, 660.00000, 0.266294, 0.113441, 0.265774, 0.113219, 0.267566, 0.113983, 0, 0
3, 720.00000, 0.266294, 0.113441, 0.265774, 0.113219, 0.267566, 0.113983, 0, 0
3, 780.00000, 0.266294, 0.113441, 0.265774, 0.113219, 0.267566, 0.113983, 0, 0
3, 840.00000, 0.266294, 0.113441, 0.265774, 0.113219, 0.267566, 0.113983, 0, 0
3, 900.00000, 0.266294, 0.113441, 0.265774, 0.113219, 0.267566, 0.113983, 0, 0
3, 960.00000, 0.228866, 0.0974995, 0.228405, 0.0973001, 0.229688, 0.0978489, 0, 0
3, 1020.00000, 0.228873, 0.0974993, 0.228412, 0.0973029, 0.229677, 0.0978422, 0, 0
3, 1080.00000, 0.228873, 0.0974993, 0.228412, 0.097303, 0.229677, 0.0978421, 0, 0
3, 1140.00000, 0.228873, 0.0974993, 0.228412, 0.097303, 0.229677, 0.0978421, 0, 0
3, 1200.00000, 0.228873, 0.0974993, 0.228412, 0.097303, 0.229677, 0.0978421, 0, 0
3, 1260.00000, 0.228873, 0.0974993, 0.228412, 0.097303, 0.229677, 0.0978421, 0, 0
3, 1320.00000, 0.228873, 0.0974993, 0.228412, 0.097303, 0.229677, 0.0978421, 0, 0
3, 1380.00000, 0.228873, 0.0974993, 0.228412, 0.097303, 0.229677, 0.0978421, 0, 0
3, 1440.00000, 0.228873, 0.0974993, 0.228412, 0.097303, 0.229677, 0.0978421, 0, 0
3, 1500.00000, 0.228873, 0.0974993, 0.228412, 0.097303, 0.229677, 0.0978421, 0, 0
3, 1560.00000, 0.228873, 0.0974993, 0.228412, 0.097303, 0.229677, 0.0978421, 0, 0
3, 1620.00000, 0.228873, 0.0974993, 0.228412, 0.097303, 0.229677, 0.0978421, 0, 0
3, 1680.00000, 0.228873, 0.0974993, 0.228412, 0.097303, 0.229677, 0.0978421, 0, 0
3, 1740.00000, 0.228873, 0.0974993, 0.228412, 0.097303, 0.229677, 0.0978421, 0, 0
3, 1800.00000, 0.228873, 0.0974993, 0.228412, 0.097303, 0.229677, 0.0978421, 0, 0
3, 1860.00000, 0.278963, 0.11884, 0.278404, 0.118602, 0.279969, 0.119268, 0, 0
3, 1920.00000, 0.27897, 0.118841, 0.278412, 0.118603, 0.279964, 0.119264, 0, 0
3, 1980.00000, 0.278971, 0.118841, 0.278412, 0.118603, 0.279964, 0.119264, 0, 0
3, 2040.00000, 0.278971, 0.118841, 0.278412, 0.118603, 0.279964, 0.119264, 0, 0
3, 2100.00000, 0.278971, 0.118841, 0.278412, 0.118603, 0.279964, 0.119264, 0, 0
3, 2160.00000, 0.278971, 0.118841, 0.278412, 0.118603, 0.279964, 0.119264, 0, 0
3, 2220.00000, 0.278971, 0.118841, 0.278412, 0.118603, 0.279964, 0.119264, 0, 0
3, 2280.00000, 0.278971, 0.118841, 0.278412, 0.118603, 0.279964, 0.119264, 0, 0
3, 2340.00000, 0.278971, 0.118841, 0.278412, 0.118603, 0.279964, 0.119264, 0, 0
3, 2400.00000, 0.278971, 0.118841, 0.278412, 0.118603, 0.279964, 0.119264, 0, 0
3, 2460.00000, 0.278971, 0.118841, 0.278412, 0.118603, 0.279964, 0.119264, 0, 0
3, 2520.00000, 0.278971, 0.118841, 0.278412, 0.118603, 0.279964, 0.119264, 0, 0
3, 2580.00000, 0.278971, 0.118841, 0.278412, 0.118603, 0.279964, 0.119264, 0, 0
3, 2640.00000, 0.278971, 0.118841, 0.278412, 0.118603, 0.279964, 0.119264, 0, 0
3, 2700.00000, 0.278971, 0.118841, 0.278412, 0.118603, 0.279964, 0.119264, 0, 0
3, 2760.00000, 0.254789, 0.108543, 0.254789, 0.10854, 0.254795, 0.108544, 0, 0
3, 2820.00000, 0.254786, 0.108538, 0.254786, 0.108538, 0.254786, 0.108538, 0, 0
3, 2880.00000, 0.254786, 0.108538, 0.254786, 0.108538, 0.254786, 0.108538, 0, 0
3, 2940.00000, 0.254786, 0.108538, 0.254786, 0.108538, 0.254786, 0.108538, 0, 0
3, 3000.00000, 0.254786, 0.108538, 0.254786, 0.108538, 0.254786, 0.108538, 0, 0
3, 3060.00000, 0.254786, 0.108538, 0.254786, 0.108538, 0.254786, 0.108538, 0, 0
3, 3120.00000, 0.254792, 0.108538, 0.254796, 0.108549, 0.25478, 0.108536, 0, 0
3, 3180.00000, 0.254786, 0.108538, 0.254786, 0.108538, 0.254786, 0.108538, 0, 0
3, 3240.00000, 0.254786, 0.108538, 0.254786, 0.108538, 0.254786, 0.108538, 0, 0
3, 3300.00000, 0.254786, 0.108538, 0.254786, 0.108538, 0.254786, 0.108538, 0, 0
3, 3360.00000, 0.254786, 0.108538, 0.254786, 0.108538, 0.254786, 0.108538, 0, 0
3, 3420.00000, 0.254786, 0.108538, 0.254786, 0.108538, 0.254786, 0.108538, 0, 0
3, 3480.00000, 0.254786, 0.108538, 0.254786, 0.108538, 0.254786, 0.108538, 0, 0
3, 3540.00000, 0.254786, 0.108538, 0.254786, 0.108538, 0.254786, 0.108538, 0, 0
4, 0.00000, 0.254786, 0.108538, 0.254786, 0.108538, 0.254786, 0.108538, 0, 0
4, 60.00000, 0.317814, 0.135387, 0.317813, 0.135387, 0.317811, 0.135385, 0, 0
4, 120.00000, 0.317818, 0.13539, 0.317818, 0.13539, 0.317818, 0.13539, 0, 0
4, 180.00000, 0.317818, 0.13539, 0.317818, 0.13539, 0.317818, 0.13539, 0, 0
4, 240.00000, 0.317818, 0.13539, 0.317818, 0.13539, 0.317818, 0.13539, 0, 0
4, 300.00000, 0.317818, 0.13539, 0.317818, 0.13539, 0.317818, 0.13539, 0, 0
4, 360.00000, 0.317818, 0.13539, 0.317818, 0.13539, 0.317818, 0.13539, 0, 0
4, 420.00000, 0.317818, 0.13539, 0.317818, 0.13539, 0.317818, 0.13539, 0, 0
4, 480.00000, 0.317818, 0.13539, 0.317818, 0.13539, 0.317818, 0.13539, 0, 0
