hour,t(sec),V1,VAngle1,V2,VAngle2,V3,VAngle3,V4,VAngle4,I1,IAngle1,I2,IAngle2,I3,IAngle3,I4,IAngle4
0, 60.00000, 122.122, -32.7955, 121.273, -151.967, 123.839, 88.0302, 0, 0, 4.50306, -55.8692, 4.53463, -175.041, 4.44076, 64.9569, 0.147066, 40.8241
0, 120.00000, 122.126, -32.8097, 121.273, -151.968, 123.869, 88.0247, 0, 0, 4.50293, -55.8834, 4.53465, -175.041, 4.43968, 64.9514, 0.14897, 41.0351
0, 180.00000, 122.129, -32.8225, 121.273, -151.968, 123.896, 88.0198, 0, 0, 4.50282, -55.8962, 4.53466, -175.042, 4.4387, 64.9464, 0.150686, 41.2212
0, 240.00000, 122.132, -32.834, 121.272, -151.968, 123.921, 88.0153, 0, 0, 4.50272, -55.9077, 4.53467, -175.042, 4.43782, 64.9419, 0.152231, 41.3856
0, 300.00000, 122.134, -32.8443, 121.272, -151.969, 123.943, 88.0113, 0, 0, 4.50264, -55.9181, 4.53468, -175.042, 4.43703, 64.9378, 0.153623, 41.5312
0, 360.00000, 122.136, -32.8536, 121.272, -151.969, 123.962, 88.0077, 0, 0, 4.50256, -55.9274, 4.53469, -175.043, 4.43632, 64.9342, 0.154878, 41.6604
0, 420.00000, 122.138, -32.862, 121.272, -151.969, 123.98, 88.0044, 0, 0, 4.50249, -55.9358, 4.5347, -175.043, 4.43567, 64.9309, 0.15601, 41.7752
0, 480.00000, 122.827, -32.749, 121.897, -151.857, 124.67, 88.1432, 0, 0, 3.89523, -55.8228, 3.92497, -174.931, 3.83772, 65.0695, 0.136871, 40.6841
0, 540.00000, 122.828, -32.7558, 121.897, -151.857, 124.685, 88.1405, 0, 0, 3.89518, -55.8296, 3.92498, -174.931, 3.83725, 65.0669, 0.137676, 40.7825
0, 600.00000, 122.83, -32.7619, 121.896, -151.858, 124.699, 88.1382, 0, 0, 3.89514, -55.8358, 3.92498, -174.931, 3.83682, 65.0645, 0.138403, 40.8702
0, 660.00000, 122.831, -32.7674, 121.896, -151.858, 124.711, 88.1361, 0, 0, 3.8951, -55.8413, 3.92499, -174.932, 3.83644, 65.0624, 0.139057, 40.9485
0, 720.00000, 122.832, -32.7724, 121.896, -151.858, 124.722, 88.1341, 0, 0, 3.89506, -55.8462, 3.925, -174.932, 3.8361, 65.0604, 0.139647, 41.0185
0, 780.00000, 122.833, -32.7769, 121.896, -151.858, 124.732, 88.1324, 0, 0, 3.89503, -55.8507, 3.925, -174.932, 3.83579, 65.0587, 0.140177, 41.081
0, 840.00000, 122.834, -32.7809, 121.896, -151.858, 124.741, 88.1309, 0, 0, 3.89501, -55.8547, 3.92501, -174.932, 3.83551, 65.0571, 0.140654, 41.1369
0, 900.00000, 122.835, -32.7845, 121.896, -151.858, 124.749, 88.1295, 0, 0, 3.89498, -55.8584, 3.92501, -174.932, 3.83526, 65.0557, 0.141084, 41.187
0, 960.00000, 122.404, -33.1117, 121.081, -151.86, 124.79, 88.112, 0, 0, 3.90869, -56.1856, 3.95142, -174.934, 3.83399, 65.0382, 0.18689, 40.1825
0, 1020.00000, 122.405, -33.1147, 121.081, -151.86, 124.797, 88.1108, 0, 0, 3.90867, -56.1885, 3.95142, -174.934, 3.83379, 65.037, 0.187235, 40.215
0, 1080.00000, 122.405, -33.1173, 121.081, -151.86, 124.802, 88.1098, 0, 0, 3.90866, -56.1912, 3.95143, -174.934, 3.83361, 65.036, 0.187545, 40.2443
0, 1140.00000, 122.497, -32.9859, 121.378, -151.825, 124.805, 88.1119, 0, 0, 3.90573, -56.0598, 3.94173, -174.899, 3.83353, 65.0381, 0.172009, 42.0953
0, 1200.00000, 122.498, -32.988, 121.378, -151.825, 124.81, 88.111, 0, 0, 3.90571, -56.0619, 3.94174, -174.899, 3.83338, 65.0372, 0.172263, 42.1185
0, 1260.00000, 122.498, -32.9899, 121.378, -151.825, 124.814, 88.1103, 0, 0, 3.9057, -56.0638, 3.94174, -174.899, 3.83325, 65.0365, 0.172491, 42.1393
0, 1320.00000, 122.498, -32.9917, 121.378, -151.825, 124.818, 88.1096, 0, 0, 3.90569, -56.0656, 3.94174, -174.899, 3.83313, 65.0358, 0.172697, 42.158
0, 1380.00000, 122.499, -32.9932, 121.378, -151.825, 124.821, 88.109, 0, 0, 3.90568, -56.0671, 3.94174, -174.899, 3.83302, 65.0352, 0.172882, 42.1748
0, 1440.00000, 122.499, -32.9946, 121.378, -151.825, 124.824, 88.1085, 0, 0, 3.90567, -56.0685, 3.94174, -174.899, 3.83293, 65.0346, 0.173049, 42.1898
0, 1500.00000, 122.499, -32.9959, 121.378, -151.825, 124.827, 88.108, 0, 0, 3.90566, -56.0698, 3.94174, -174.899, 3.83284, 65.0341, 0.173199, 42.2034
0, 1560.00000, 122.5, -32.997, 121.378, -151.825, 124.83, 88.1075, 0, 0, 3.90566, -56.0709, 3.94174, -174.899, 3.83276, 65.0337, 0.173334, 42.2156
0, 1620.00000, 122.5, -32.998, 121.378, -151.826, 124.832, 88.1071, 0, 0, 3.90565, -56.0719, 3.94175, -174.899, 3.83269, 65.0332, 0.173455, 42.2265
0, 1680.00000, 122.5, -32.9989, 121.378, -151.826, 124.834, 88.1068, 0, 0, 3.90564, -56.0728, 3.94175, -174.899, 3.83263, 65.0329, 0.173565, 42.2364
0, 1740.00000, 122.5, -32.9998, 121.378, -151.826, 124.836, 88.1064, 0, 0, 3.90564, -56.0737, 3.94175, -174.899, 3.83257, 65.0326, 0.173663, 42.2452
0, 1800.00000, 121.875, -32.9555, 121.38, -151.82, 124.379, 87.8842, 0, 0, 3.92566, -56.0294, 3.94169, -174.894, 3.84663, 64.8103, 0.157719, 52.8159
0, 1860.00000, 121.875, -32.9562, 121.38, -151.82, 124.381, 87.884, 0, 0, 3.92566, -56.0301, 3.94169, -174.894, 3.84659, 64.8101, 0.1578, 52.8181
0, 1920.00000, 121.876, -32.9568, 121.38, -151.82, 124.382, 87.8837, 0, 0, 3.92565, -56.0307, 3.94169, -174.894, 3.84655, 64.8098, 0.157873, 52.82
0, 1980.00000, 121.876, -32.9573, 121.38, -151.82, 124.383, 87.8835, 0, 0, 3.92565, -56.0312, 3.94169, -174.894, 3.84651, 64.8096, 0.157938, 52.8218
0, 2040.00000, 121.876, -32.9578, 121.38, -151.82, 124.384, 87.8833, 0, 0, 3.92565, -56.0317, 3.94169, -174.894, 3.84648, 64.8094, 0.157998, 52.8233
0, 2100.00000, 121.876, -32.9582, 121.38, -151.82, 124.385, 87.8832, 0, 0, 3.92564, -56.0322, 3.94169, -174.894, 3.84645, 64.8093, 0.158051, 52.8247
0, 2160.00000, 121.876, -32.9586, 121.38, -151.82, 124.386, 87.883, 0, 0, 3.92564, -56.0326, 3.94169, -174.894, 3.84642, 64.8091, 0.158099, 52.826
0, 2220.00000, 121.876, -32.959, 121.38, -151.82, 124.387, 87.8829, 0, 0, 3.92564, -56.0329, 3.94169, -174.894, 3.8464, 64.809, 0.158142, 52.8271
0, 2280.00000, 121.876, -32.9593, 121.38, -151.82, 124.388, 87.8828, 0, 0, 3.92564, -56.0332, 3.94169, -174.894, 3.84638, 64.8089, 0.158181, 52.8282
0, 2340.00000, 121.876, -32.9596, 121.38, -151.82, 124.388, 87.8827, 0, 0, 3.92563, -56.0335, 3.94169, -174.894, 3.84636, 64.8087, 0.158215, 52.8291
0, 2400.00000, 121.876, -32.9598, 121.38, -151.82, 124.389, 87.8826, 0, 0, 3.92563, -56.0338, 3.94169, -174.894, 3.84634, 64.8086, 0.158247, 52.8299
0, 2460.00000, 121.876, -32.9601, 121.38, -151.82, 124.389, 87.8825, 0, 0, 3.92563, -56.034, 3.94169, -174.894, 3.84633, 64.8086, 0.158275, 52.8307
0, 2520.00000, 121.876, -32.9603, 121.38, -151.82, 124.39, 87.8824, 0, 0, 3.92563, -56.0342, 3.94169, -174.894, 3.84631, 64.8085, 0.158301, 52.8314
0, 2580.00000, 121.876, -32.9605, 121.38, -151.82, 124.39, 87.8823, 0, 0, 3.92563, -56.0344, 3.94169, -174.894, 3.8463, 64.8084, 0.158324, 52.832
0, 2640.00000, 121.876, -32.9606, 121.38, -151.82, 124.391, 87.8822, 0, 0, 3.92563, -56.0346, 3.94169, -174.894, 3.84629, 64.8083, 0.158344, 52.8325
0, 2700.00000, 121.877, -32.9608, 121.38, -151.82, 124.391, 87.8822, 0, 0, 3.92563, -56.0347, 3.94169, -174.894, 3.84628, 64.8083, 0.158363, 52.833
0, 2760.00000, 122.192, -32.9281, 121.379, -151.821, 124.513, 88.017, 0, 0, 3.9155, -56.002, 3.94173, -174.895, 3.8425, 64.943, 0.15944, 46.7159
0, 2820.00000, 122.192, -32.9282, 121.379, -151.821, 124.513, 88.0169, 0, 0, 3.9155, -56.0021, 3.94173, -174.895, 3.84249, 64.943, 0.159456, 46.7168
0, 2880.00000, 122.192, -32.9283, 121.379, -151.821, 124.514, 88.0169, 0, 0, 3.91549, -56.0022, 3.94173, -174.895, 3.84248, 64.943, 0.159469, 46.7177
0, 2940.00000, 122.192, -32.9284, 121.379, -151.821, 124.514, 88.0168, 0, 0, 3.91549, -56.0023, 3.94173, -174.895, 3.84248, 64.9429, 0.159481, 46.7185
0, 3000.00000, 122.192, -32.9285, 121.379, -151.821, 124.514, 88.0168, 0, 0, 3.91549, -56.0024, 3.94173, -174.895, 3.84247, 64.9429, 0.159492, 46.7192
0, 3060.00000, 122.192, -32.9286, 121.379, -151.821, 124.514, 88.0168, 0, 0, 3.91549, -56.0025, 3.94173, -174.895, 3.84247, 64.9429, 0.159502, 46.7199
0, 3120.00000, 122.192, -32.9287, 121.379, -151.821, 124.514, 88.0167, 0, 0, 3.91549, -56.0026, 3.94173, -174.895, 3.84246, 64.9428, 0.159511, 46.7205
0, 3180.00000, 122.192, -32.9287, 121.379, -151.821, 124.515, 88.0167, 0, 0, 3.91549, -56.0026, 3.94173, -174.895, 3.84246, 64.9428, 0.159519, 46.721
0, 3240.00000, 122.192, -32.9288, 121.379, -151.821, 124.515, 88.0167, 0, 0, 3.91549, -56.0027, 3.94173, -174.895, 3.84245, 64.9428, 0.159526, 46.7215
0, 3300.00000, 122.192, -32.9288, 121.379, -151.821, 124.515, 88.0167, 0, 0, 3.91549, -56.0028, 3.94173, -174.895, 3.84245, 64.9428, 0.159532, 46.7219
0, 3360.00000, 122.192, -32.9289, 121.379, -151.821, 124.515, 88.0167, 0, 0, 3.91549, -56.0028, 3.94173, -174.895, 3.84245, 64.9427, 0.159538, 46.7223
0, 3420.00000, 122.192, -32.9289, 121.379, -151.821, 124.515, 88.0166, 0, 0, 3.91549, -56.0028, 3.94173, -174.895, 3.84244, 64.9427, 0.159543, 46.7226
0, 3480.00000, 122.192, -32.929, 121.379, -151.821, 124.515, 88.0166, 0, 0, 3.91549, -56.0029, 3.94173, -174.895, 3.84244, 64.9427, 0.159548, 46.7229
0, 3540.00000, 122.192, -32.929, 121.379, -151.821, 124.515, 88.0166, 0, 0, 3.91549, -56.0029, 3.94173, -174.895, 3.84244, 64.9427, 0.159552, 46.7232
1, 0.00000, 122.192, -32.929, 121.379, -151.821, 124.515, 88.0166, 0, 0, 3.91549, -56.0029, 3.94173, -174.895, 3.84244, 64.9427, 0.159556, 46.7234
1, 60.00000, 122.28, -32.7991, 121.668, -151.788, 124.513, 88.0194, 0, 0, 3.91268, -55.873, 3.93234, -174.862, 3.8425, 64.9454, 0.144925, 49.4681
1, 120.00000, 122.28, -32.7991, 121.668, -151.788, 124.513, 88.0194, 0, 0, 3.91268, -55.873, 3.93234, -174.862, 3.8425, 64.9454, 0.144928, 49.4683
1, 180.00000, 122.28, -32.7991, 121.668, -151.788, 124.513, 88.0193, 0, 0, 3.91268, -55.8731, 3.93234, -174.862, 3.8425, 64.9454, 0.144931, 49.4684
1, 240.00000, 122.28, -32.7992, 121.668, -151.788, 124.513, 88.0193, 0, 0, 3.91268, -55.8731, 3.93234, -174.862, 3.8425, 64.9454, 0.144933, 49.4686
1, 300.00000, 122.28, -32.7992, 121.668, -151.788, 124.513, 88.0193, 0, 0, 3.91268, -55.8731, 3.93234, -174.862, 3.8425, 64.9454, 0.144936, 49.4687
1, 360.00000, 122.28, -32.7992, 121.668, -151.788, 124.513, 88.0193, 0, 0, 3.91268, -55.8731, 3.93234, -174.862, 3.8425, 64.9454, 0.144938, 49.4688
1, 420.00000, 122.28, -32.7992, 121.668, -151.788, 124.513, 88.0193, 0, 0, 3.91268, -55.8731, 3.93234, -174.862, 3.84249, 64.9454, 0.144939, 49.4689
1, 480.00000, 122.28, -32.7992, 121.668, -151.788, 124.513, 88.0193, 0, 0, 3.91268, -55.8731, 3.93234, -174.862, 3.84249, 64.9454, 0.144941, 49.469
1, 540.00000, 122.28, -32.7992, 121.668, -151.788, 124.513, 88.0193, 0, 0, 3.91268, -55.8732, 3.93234, -174.862, 3.84249, 64.9454, 0.144943, 49.4691
1, 600.00000, 122.28, -32.7992, 121.668, -151.788, 124.513, 88.0193, 0, 0, 3.91268, -55.8732, 3.93234, -174.862, 3.84249, 64.9454, 0.144944, 49.4691
1, 660.00000, 122.28, -32.7993, 121.668, -151.788, 124.513, 88.0193, 0, 0, 3.91268, -55.8732, 3.93234, -174.862, 3.84249, 64.9454, 0.144945, 49.4692
1, 720.00000, 122.28, -32.7993, 121.668, -151.788, 124.513, 88.0193, 0, 0, 3.91268, -55.8732, 3.93234, -174.862, 3.84249, 64.9454, 0.144946, 49.4692
1, 780.00000, 122.311, -32.8035, 122.026, -151.588, 125.144, 87.986, 0, 0, 3.91169, -55.8775, 3.92082, -174.662, 3.82314, 64.9121, 0.166088, 57.8204
1, 840.00000, 122.311, -32.8035, 122.026, -151.588, 125.144, 87.986, 0, 0, 3.91169, -55.8775, 3.92082, -174.662, 3.82314, 64.9121, 0.16609, 57.8204
1, 900.00000, 122.311, -32.8035, 122.026, -151.588, 125.144, 87.986, 0, 0, 3.91169, -55.8775, 3.92082, -174.662, 3.82314, 64.9121, 0.166091, 57.8203
1, 960.00000, 122.311, -32.8036, 122.026, -151.588, 125.144, 87.986, 0, 0, 3.91169, -55.8775, 3.92082, -174.662, 3.82313, 64.9121, 0.166091, 57.8203
1, 1020.00000, 122.311, -32.8036, 122.026, -151.588, 125.144, 87.986, 0, 0, 3.91169, -55.8775, 3.92082, -174.662, 3.82313, 64.9121, 0.166092, 57.8203
1, 1080.00000, 122.311, -32.8036, 122.026, -151.588, 125.144, 87.986, 0, 0, 3.91169, -55.8775, 3.92082, -174.662, 3.82313, 64.9121, 0.166093, 57.8203
1, 1140.00000, 122.311, -32.8036, 122.026, -151.588, 125.144, 87.986, 0, 0, 3.91169, -55.8775, 3.92082, -174.662, 3.82313, 64.9121, 0.166093, 57.8203
1, 1200.00000, 122.311, -32.8036, 122.026, -151.588, 125.144, 87.986, 0, 0, 3.91169, -55.8775, 3.92082, -174.662, 3.82313, 64.9121, 0.166094, 57.8203
1, 1260.00000, 122.311, -32.8036, 122.026, -151.588, 125.144, 87.986, 0, 0, 3.91169, -55.8775, 3.92082, -174.662, 3.82313, 64.9121, 0.166094, 57.8203
1, 1320.00000, 122.311, -32.8036, 122.026, -151.588, 125.144, 87.986, 0, 0, 3.91169, -55.8775, 3.92082, -174.662, 3.82313, 64.9121, 0.166094, 57.8203
1, 1380.00000, 122.311, -32.8036, 122.026, -151.588, 125.144, 87.986, 0, 0, 3.91169, -55.8775, 3.92082, -174.662, 3.82313, 64.9121, 0.166095, 57.8203
1, 1440.00000, 122.311, -32.8036, 122.026, -151.588, 125.144, 87.986, 0, 0, 3.91169, -55.8775, 3.92082, -174.662, 3.82313, 64.9121, 0.166095, 57.8203
1, 1500.00000, 122.311, -32.8036, 122.026, -151.588, 125.144, 87.986, 0, 0, 3.91169, -55.8775, 3.92082, -174.662, 3.82313, 64.9121, 0.166095, 57.8203
1, 1560.00000, 122.311, -32.8036, 122.026, -151.588, 125.144, 87.986, 0, 0, 3.91169, -55.8775, 3.92082, -174.662, 3.82313, 64.9121, 0.166096, 57.8203
1, 1620.00000, 122.311, -32.8036, 122.026, -151.588, 125.144, 87.986, 0, 0, 3.91169, -55.8775, 3.92082, -174.662, 3.82313, 64.9121, 0.166096, 57.8203
1, 1680.00000, 122.311, -32.8036, 122.026, -151.588, 125.144, 87.986, 0, 0, 3.91169, -55.8775, 3.92082, -174.662, 3.82313, 64.9121, 0.166096, 57.8203
1, 1740.00000, 122.311, -32.8036, 122.026, -151.588, 125.144, 87.986, 0, 0, 3.91169, -55.8775, 3.92082, -174.662, 3.82313, 64.9121, 0.166096, 57.8203
1, 1800.00000, 122.311, -32.8036, 122.026, -151.588, 125.144, 87.986, 0, 0, 3.91169, -55.8775, 3.92082, -174.662, 3.82313, 64.9121, 0.166096, 57.8203
1, 1860.00000, 122.311, -32.8036, 122.026, -151.588, 125.144, 87.986, 0, 0, 3.91169, -55.8775, 3.92082, -174.662, 3.82313, 64.9121, 0.166096, 57.8203
1, 1920.00000, 122.311, -32.8036, 122.026, -151.588, 125.144, 87.986, 0, 0, 3.91169, -55.8775, 3.92082, -174.662, 3.82313, 64.9121, 0.166097, 57.8203
1, 1980.00000, 122.311, -32.8036, 122.026, -151.588, 125.144, 87.986, 0, 0, 3.91169, -55.8775, 3.92082, -174.662, 3.82313, 64.9121, 0.166097, 57.8203
1, 2040.00000, 122.311, -32.8036, 122.026, -151.588, 125.144, 87.986, 0, 0, 3.91169, -55.8775, 3.92082, -174.662, 3.82313, 64.9121, 0.166097, 57.8203
1, 2100.00000, 122.311, -32.8036, 122.026, -151.588, 125.144, 87.986, 0, 0, 3.91169, -55.8775, 3.92082, -174.662, 3.82313, 64.9121, 0.166097, 57.8203
1, 2160.00000, 122.311, -32.8036, 122.026, -151.588, 125.144, 87.986, 0, 0, 3.91169, -55.8775, 3.92082, -174.662, 3.82313, 64.9121, 0.166097, 57.8203
1, 2220.00000, 122.933, -32.846, 122.02, -151.595, 125.62, 88.2078, 0, 0, 3.89189, -55.9199, 3.92103, -174.669, 3.80866, 65.1339, 0.179688, 47.3661
1, 2280.00000, 122.933, -32.846, 122.019, -151.595, 125.62, 88.2078, 0, 0, 3.8919, -55.9199, 3.92103, -174.669, 3.80866, 65.1339, 0.17969, 47.3662
1, 2340.00000, 122.933, -32.846, 122.019, -151.595, 125.62, 88.2078, 0, 0, 3.8919, -55.9199, 3.92103, -174.669, 3.80866, 65.1339, 0.17969, 47.3662
1, 2400.00000, 122.933, -32.846, 122.019, -151.595, 125.62, 88.2078, 0, 0, 3.8919, -55.9199, 3.92103, -174.669, 3.80866, 65.1339, 0.17969, 47.3662
1, 2460.00000, 122.933, -32.846, 122.019, -151.595, 125.62, 88.2078, 0, 0, 3.8919, -55.9199, 3.92103, -174.669, 3.80866, 65.1339, 0.17969, 47.3662
1, 2520.00000, 122.933, -32.846, 122.019, -151.595, 125.62, 88.2078, 0, 0, 3.8919, -55.9199, 3.92103, -174.669, 3.80866, 65.1339, 0.17969, 47.3662
1, 2580.00000, 122.933, -32.846, 122.019, -151.595, 125.62, 88.2078, 0, 0, 3.8919, -55.9199, 3.92103, -174.669, 3.80866, 65.1339, 0.17969, 47.3662
1, 2640.00000, 122.933, -32.846, 122.019, -151.595, 125.62, 88.2078, 0, 0, 3.8919, -55.9199, 3.92103, -174.669, 3.80866, 65.1339, 0.17969, 47.3662
1, 2700.00000, 122.933, -32.846, 122.019, -151.595, 125.62, 88.2078, 0, 0, 3.8919, -55.9199, 3.92103, -174.669, 3.80866, 65.1339, 0.17969, 47.3662
1, 2760.00000, 122.933, -32.846, 122.019, -151.595, 125.62, 88.2078, 0, 0, 3.8919, -55.9199, 3.92103, -174.669, 3.80866, 65.1339, 0.17969, 47.3662
1, 2820.00000, 122.933, -32.846, 122.019, -151.595, 125.62, 88.2078, 0, 0, 3.8919, -55.9199, 3.92103, -174.669, 3.80866, 65.1339, 0.17969, 47.3662
1, 2880.00000, 122.933, -32.846, 122.019, -151.595, 125.62, 88.2078, 0, 0, 3.8919, -55.9199, 3.92103, -174.669, 3.80866, 65.1339, 0.17969, 47.3662
1, 2940.00000, 122.933, -32.846, 122.019, -151.595, 125.62, 88.2078, 0, 0, 3.8919, -55.9199, 3.92103, -174.669, 3.80866, 65.1339, 0.17969, 47.3662
1, 3000.00000, 122.933, -32.846, 122.019, -151.595, 125.62, 88.2078, 0, 0, 3.8919, -55.9199, 3.92103, -174.669, 3.80866, 65.1339, 0.17969, 47.3662
1, 3060.00000, 122.933, -32.846, 122.019, -151.595, 125.62, 88.2078, 0, 0, 3.8919, -55.9199, 3.92103, -174.669, 3.80866, 65.1339, 0.17969, 47.3662
1, 3120.00000, 122.933, -32.846, 122.019, -151.595, 125.62, 88.2078, 0, 0, 3.8919, -55.9199, 3.92103, -174.669, 3.80866, 65.1339, 0.17969, 47.3662
1, 3180.00000, 122.933, -32.846, 122.019, -151.595, 125.62, 88.2078, 0, 0, 3.8919, -55.9199, 3.92103, -174.669, 3.80866, 65.1339, 0.17969, 47.3662
1, 3240.00000, 122.933, -32.846, 122.019, -151.595, 125.62, 88.2078, 0, 0, 3.8919, -55.9199, 3.92103, -174.669, 3.80866, 65.1339, 0.17969, 47.3662
1, 3300.00000, 122.933, -32.846, 122.019, -151.595, 125.62, 88.2078, 0, 0, 3.8919, -55.9199, 3.92103, -174.669, 3.80866, 65.1339, 0.17969, 47.3662
1, 3360.00000, 122.933, -32.846, 122.019, -151.595, 125.62, 88.2078, 0, 0, 3.8919, -55.9199, 3.92103, -174.669, 3.80866, 65.1339, 0.17969, 47.3662
1, 3420.00000, 122.933, -32.846, 122.019, -151.595, 125.62, 88.2078, 0, 0, 3.8919, -55.9199, 3.92103, -174.669, 3.80866, 65.1339, 0.17969, 47.3662
1, 3480.00000, 122.933, -32.846, 122.019, -151.595, 125.62, 88.2078, 0, 0, 3.8919, -55.9199, 3.92103, -174.669, 3.80866, 65.1339, 0.17969, 47.3662
1, 3540.00000, 122.933, -32.846, 122.019, -151.595, 125.62, 88.2078, 0, 0, 3.8919, -55.9199, 3.92103, -174.669, 3.80866, 65.1339, 0.17969, 47.3662
2, 0.00000, 122.933, -32.846, 122.019, -151.595, 125.62, 88.2078, 0, 0, 3.8919, -55.9199, 3.92103, -174.669, 3.80866, 65.1339, 0.17969, 47.3662
2, 60.00000, 122.933, -32.846, 122.019, -151.595, 125.62, 88.2078, 0, 0, 3.8919, -55.9199, 3.92103, -174.669, 3.80866, 65.1339, 0.17969, 47.3662
2, 120.00000, 122.933, -32.846, 122.019, -151.595, 125.62, 88.2078, 0, 0, 3.8919, -55.9199, 3.92103, -174.669, 3.80866, 65.1339, 0.17969, 47.3662
2, 180.00000, 122.933, -32.846, 122.019, -151.595, 125.62, 88.2078, 0, 0, 3.8919, -55.9199, 3.92103, -174.669, 3.80866, 65.1339, 0.17969, 47.3662
2, 240.00000, 122.933, -32.846, 122.019, -151.595, 125.62, 88.2078, 0, 0, 3.8919, -55.9199, 3.92103, -174.669, 3.80866, 65.1339, 0.17969, 47.3662
2, 300.00000, 122.933, -32.846, 122.019, -151.595, 125.62, 88.2078, 0, 0, 3.8919, -55.9199, 3.92103, -174.669, 3.80866, 65.1339, 0.17969, 47.3662
2, 360.00000, 122.933, -32.846, 122.019, -151.595, 125.62, 88.2078, 0, 0, 3.8919, -55.9199, 3.92103, -174.669, 3.80866, 65.1339, 0.17969, 47.3662
2, 420.00000, 122.933, -32.846, 122.019, -151.595, 125.62, 88.2078, 0, 0, 3.8919, -55.9199, 3.92103, -174.669, 3.80866, 65.1339, 0.17969, 47.3662
2, 480.00000, 122.933, -32.846, 122.019, -151.595, 125.62, 88.2078, 0, 0, 3.8919, -55.9199, 3.92103, -174.669, 3.80866, 65.1339, 0.17969, 47.3662
2, 540.00000, 122.933, -32.846, 122.019, -151.595, 125.62, 88.2078, 0, 0, 3.8919, -55.9199, 3.92103, -174.669, 3.80866, 65.1339, 0.17969, 47.3662
2, 600.00000, 122.933, -32.846, 122.019, -151.595, 125.62, 88.2078, 0, 0, 3.8919, -55.9199, 3.92103, -174.669, 3.80866, 65.1339, 0.17969, 47.3662
2, 660.00000, 122.933, -32.846, 122.019, -151.595, 125.62, 88.2078, 0, 0, 3.8919, -55.9199, 3.92103, -174.669, 3.80866, 65.1339, 0.17969, 47.3662
2, 720.00000, 122.933, -32.846, 122.019, -151.595, 125.62, 88.2078, 0, 0, 3.8919, -55.9199, 3.92103, -174.669, 3.80866, 65.1339, 0.17969, 47.3662
2, 780.00000, 122.933, -32.846, 122.019, -151.595, 125.62, 88.2078, 0, 0, 3.8919, -55.9199, 3.92103, -174.669, 3.80866, 65.1339, 0.17969, 47.3662
2, 840.00000, 123.277, -32.6552, 122.54, -151.628, 125.588, 88.2205, 0, 0, 3.88104, -55.7291, 3.90439, -174.702, 3.80962, 65.1466, 0.150088, 47.6541
