hour,t(sec),V1,VAngle1,V2,VAngle2,V3,VAngle3,V4,VAngle4,I1,IAngle1,I2,IAngle2,I3,IAngle3,I4,IAngle4
0, 60.00000, 119.168, -31.1189, 120.446, -151.131, 120.112, 88.4464, 0, 0, 1.20007, -54.1926, 1.21436, -174.204, 1.21062, 65.3727, 0.00488876, -71.4917
0, 120.00000, 119.168, -31.119, 120.446, -151.131, 120.112, 88.4464, 0, 0, 1.20006, -54.1929, 1.21435, -174.205, 1.21062, 65.3725, 0.00488937, -71.4868
0, 180.00000, 119.168, -31.119, 120.446, -151.131, 120.112, 88.4464, 0, 0, 1.20006, -54.1929, 1.21435, -174.205, 1.21062, 65.3725, 0.00488938, -71.4869
0, 240.00000, 119.168, -31.119, 120.446, -151.131, 120.112, 88.4464, 0, 0, 1.20006, -54.1929, 1.21435, -174.205, 1.21062, 65.3725, 0.00488938, -71.4869
0, 300.00000, 119.168, -31.119, 120.446, -151.131, 120.112, 88.4464, 0, 0, 1.20006, -54.1929, 1.21435, -174.205, 1.21062, 65.3725, 0.00488938, -71.4869
0, 360.00000, 119.168, -31.119, 120.446, -151.131, 120.112, 88.4464, 0, 0, 1.20006, -54.1929, 1.21435, -174.205, 1.21062, 65.3725, 0.00488938, -71.4869
0, 420.00000, 119.168, -31.119, 120.446, -151.131, 120.112, 88.4464, 0, 0, 1.20006, -54.1929, 1.21435, -174.205, 1.21062, 65.3725, 0.00488938, -71.4869
0, 480.00000, 120.042, -31.0112, 121.307, -151.03, 120.941, 88.5642, 0, 0, 1.2666, -54.0854, 1.2672, -174.104, 1.27103, 65.4898, 0.009771, -176.949
0, 540.00000, 120.042, -31.0112, 121.307, -151.03, 120.941, 88.5643, 0, 0, 1.2666, -54.0851, 1.26718, -174.104, 1.27101, 65.4903, 0.00978288, -177.053
0, 600.00000, 120.042, -31.0112, 121.307, -151.03, 120.941, 88.5643, 0, 0, 1.2666, -54.0851, 1.26718, -174.104, 1.27101, 65.4903, 0.00978291, -177.053
0, 660.00000, 120.042, -31.0112, 121.307, -151.03, 120.941, 88.5643, 0, 0, 1.2666, -54.0851, 1.26718, -174.104, 1.27101, 65.4903, 0.00978291, -177.053
0, 720.00000, 120.042, -31.0112, 121.307, -151.03, 120.941, 88.5643, 0, 0, 1.2666, -54.0851, 1.26718, -174.104, 1.27101, 65.4903, 0.00978291, -177.053
0, 780.00000, 120.042, -31.0112, 121.307, -151.03, 120.941, 88.5643, 0, 0, 1.2666, -54.0851, 1.26718, -174.104, 1.27101, 65.4903, 0.00978291, -177.053
0, 840.00000, 120.042, -31.0112, 121.307, -151.03, 120.941, 88.5643, 0, 0, 1.2666, -54.0851, 1.26718, -174.104, 1.27101, 65.4903, 0.00978291, -177.053
0, 900.00000, 120.042, -31.0112, 121.307, -151.03, 120.941, 88.5643, 0, 0, 1.2666, -54.0851, 1.26718, -174.104, 1.27101, 65.4903, 0.00978291, -177.053
0, 960.00000, 120.042, -31.0112, 121.307, -151.03, 120.941, 88.5643, 0, 0, 1.2666, -54.0851, 1.26718, -174.104, 1.27101, 65.4903, 0.00978291, -177.053
0, 1020.00000, 120.042, -31.0112, 121.307, -151.03, 120.941, 88.5643, 0, 0, 1.2666, -54.0851, 1.26718, -174.104, 1.27101, 65.4903, 0.00978291, -177.053
0, 1080.00000, 120.042, -31.0112, 121.307, -151.03, 120.941, 88.5643, 0, 0, 1.2666, -54.0851, 1.26718, -174.104, 1.27101, 65.4903, 0.00978291, -177.053
0, 1140.00000, 120.042, -31.0112, 121.307, -151.03, 120.941, 88.5643, 0, 0, 1.2666, -54.0851, 1.26718, -174.104, 1.27101, 65.4903, 0.00978291, -177.053
0, 1200.00000, 120.042, -31.0112, 121.307, -151.03, 120.941, 88.5643, 0, 0, 1.2666, -54.0851, 1.26718, -174.104, 1.27101, 65.4903, 0.00978291, -177.053
0, 1260.00000, 120.042, -31.0112, 121.307, -151.03, 120.941, 88.5643, 0, 0, 1.2666, -54.0851, 1.26718, -174.104, 1.27101, 65.4903, 0.00978291, -177.053
0, 1320.00000, 120.042, -31.0112, 121.307, -151.03, 120.941, 88.5643, 0, 0, 1.2666, -54.0851, 1.26718, -174.104, 1.27101, 65.4903, 0.00978291, -177.053
0, 1380.00000, 120.042, -31.0112, 121.307, -151.03, 120.941, 88.5643, 0, 0, 1.2666, -54.0851, 1.26718, -174.104, 1.27101, 65.4903, 0.00978291, -177.053
0, 1440.00000, 120.042, -31.0112, 121.307, -151.03, 120.941, 88.5643, 0, 0, 1.2666, -54.0851, 1.26718, -174.104, 1.27101, 65.4903, 0.00978291, -177.053
0, 1500.00000, 120.042, -31.0112, 121.307, -151.03, 120.941, 88.5643, 0, 0, 1.2666, -54.0851, 1.26718, -174.104, 1.27101, 65.4903, 0.00978291, -177.053
0, 1560.00000, 120.042, -31.0112, 121.307, -151.03, 120.941, 88.5643, 0, 0, 1.2666, -54.0851, 1.26718, -174.104, 1.27101, 65.4903, 0.00978291, -177.053
0, 1620.00000, 120.042, -31.0112, 121.307, -151.03, 120.941, 88.5643, 0, 0, 1.2666, -54.0851, 1.26718, -174.104, 1.27101, 65.4903, 0.00978291, -177.053
0, 1680.00000, 120.042, -31.0112, 121.307, -151.03, 120.941, 88.5643, 0, 0, 1.2666, -54.0851, 1.26718, -174.104, 1.27101, 65.4903, 0.00978291, -177.053
0, 1740.00000, 120.042, -31.0112, 121.307, -151.03, 120.941, 88.5643, 0, 0, 1.2666, -54.0851, 1.26718, -174.104, 1.27101, 65.4903, 0.00978291, -177.053
0, 1800.00000, 120.042, -31.0112, 121.307, -151.03, 120.941, 88.5643, 0, 0, 1.2666, -54.0851, 1.26718, -174.104, 1.27101, 65.4903, 0.00978291, -177.053
0, 1860.00000, 120.042, -31.0112, 121.307, -151.03, 120.941, 88.5643, 0, 0, 1.2666, -54.0851, 1.26718, -174.104, 1.27101, 65.4903, 0.00978291, -177.053
0, 1920.00000, 120.042, -31.0112, 121.307, -151.03, 120.941, 88.5643, 0, 0, 1.2666, -54.0851, 1.26718, -174.104, 1.27101, 65.4903, 0.00978291, -177.053
0, 1980.00000, 120.042, -31.0112, 121.307, -151.03, 120.941, 88.5643, 0, 0, 1.2666, -54.0851, 1.26718, -174.104, 1.27101, 65.4903, 0.00978291, -177.053
0, 2040.00000, 120.042, -31.0112, 121.307, -151.03, 120.941, 88.5643, 0, 0, 1.2666, -54.0851, 1.26718, -174.104, 1.27101, 65.4903, 0.00978291, -177.053
0, 2100.00000, 120.042, -31.0112, 121.307, -151.03, 120.941, 88.5643, 0, 0, 1.2666, -54.0851, 1.26718, -174.104, 1.27101, 65.4903, 0.00978291, -177.053
0, 2160.00000, 120.042, -31.0112, 121.307, -151.03, 120.941, 88.5643, 0, 0, 1.2666, -54.0851, 1.26718, -174.104, 1.27101, 65.4903, 0.00978291, -177.053
0, 2220.00000, 120.042, -31.0112, 121.307, -151.03, 120.941, 88.5643, 0, 0, 1.2666, -54.0851, 1.26718, -174.104, 1.27101, 65.4903, 0.00978291, -177.053
0, 2280.00000, 120.042, -31.0112, 121.307, -151.03, 120.941, 88.5643, 0, 0, 1.2666, -54.0851, 1.26718, -174.104, 1.27101, 65.4903, 0.00978291, -177.053
0, 2340.00000, 120.042, -31.0112, 121.307, -151.03, 120.941, 88.5643, 0, 0, 1.2666, -54.0851, 1.26718, -174.104, 1.27101, 65.4903, 0.00978291, -177.053
0, 2400.00000, 120.042, -31.0112, 121.307, -151.03, 120.941, 88.5643, 0, 0, 1.2666, -54.0851, 1.26718, -174.104, 1.27101, 65.4903, 0.00978291, -177.053
0, 2460.00000, 120.042, -31.0112, 121.307, -151.03, 120.941, 88.5643, 0, 0, 1.2666, -54.0851, 1.26718, -174.104, 1.27101, 65.4903, 0.00978291, -177.053
0, 2520.00000, 120.042, -31.0112, 121.307, -151.03, 120.941, 88.5643, 0, 0, 1.2666, -54.0851, 1.26718, -174.104, 1.27101, 65.4903, 0.00978291, -177.053
0, 2580.00000, 120.042, -31.0112, 121.307, -151.03, 120.941, 88.5643, 0, 0, 1.2666, -54.0851, 1.26718, -174.104, 1.27101, 65.4903, 0.00978291, -177.053
0, 2640.00000, 120.042, -31.0112, 121.307, -151.03, 120.941, 88.5643, 0, 0, 1.2666, -54.0851, 1.26718, -174.104, 1.27101, 65.4903, 0.00978291, -177.053
0, 2700.00000, 120.042, -31.0112, 121.307, -151.03, 120.941, 88.5643, 0, 0, 1.2666, -54.0851, 1.26718, -174.104, 1.27101, 65.4903, 0.00978291, -177.053
0, 2760.00000, 120.042, -31.0112, 121.307, -151.03, 120.941, 88.5643, 0, 0, 1.2666, -54.0851, 1.26718, -174.104, 1.27101, 65.4903, 0.00978291, -177.053
0, 2820.00000, 120.042, -31.0112, 121.307, -151.03, 120.941, 88.5643, 0, 0, 1.2666, -54.0851, 1.26718, -174.104, 1.27101, 65.4903, 0.00978291, -177.053
0, 2880.00000, 120.042, -31.0112, 121.307, -151.03, 120.941, 88.5643, 0, 0, 1.2666, -54.0851, 1.26718, -174.104, 1.27101, 65.4903, 0.00978291, -177.053
0, 2940.00000, 120.042, -31.0112, 121.307, -151.03, 120.941, 88.5643, 0, 0, 1.2666, -54.0851, 1.26718, -174.104, 1.27101, 65.4903, 0.00978291, -177.053
0, 3000.00000, 120.042, -31.0112, 121.307, -151.03, 120.941, 88.5643, 0, 0, 1.2666, -54.0851, 1.26718, -174.104, 1.27101, 65.4903, 0.00978291, -177.053
0, 3060.00000, 120.042, -31.0112, 121.307, -151.03, 120.941, 88.5643, 0, 0, 1.2666, -54.0851, 1.26718, -174.104, 1.27101, 65.4903, 0.00978291, -177.053
0, 3120.00000, 120.042, -31.0112, 121.307, -151.03, 120.941, 88.5643, 0, 0, 1.2666, -54.0851, 1.26718, -174.104, 1.27101, 65.4903, 0.00978291, -177.053
0, 3180.00000, 120.042, -31.0112, 121.307, -151.03, 120.941, 88.5643, 0, 0, 1.2666, -54.0851, 1.26718, -174.104, 1.27101, 65.4903, 0.00978291, -177.053
0, 3240.00000, 120.042, -31.0112, 121.307, -151.03, 120.941, 88.5643, 0, 0, 1.2666, -54.0851, 1.26718, -174.104, 1.27101, 65.4903, 0.00978291, -177.053
0, 3300.00000, 120.042, -31.0112, 121.307, -151.03, 120.941, 88.5643, 0, 0, 1.2666, -54.0851, 1.26718, -174.104, 1.27101, 65.4903, 0.00978291, -177.053
0, 3360.00000, 120.042, -31.0112, 121.307, -151.03, 120.941, 88.5643, 0, 0, 1.2666, -54.0851, 1.26718, -174.104, 1.27101, 65.4903, 0.00978291, -177.053
0, 3420.00000, 120.042, -31.0112, 121.307, -151.03, 120.941, 88.5643, 0, 0, 1.2666, -54.0851, 1.26718, -174.104, 1.27101, 65.4903, 0.00978291, -177.053
0, 3480.00000, 120.042, -31.0112, 121.307, -151.03, 120.941, 88.5643, 0, 0, 1.2666, -54.0851, 1.26718, -174.104, 1.27101, 65.4903, 0.00978291, -177.053
0, 3540.00000, 120.042, -31.0112, 121.307, -151.03, 120.941, 88.5643, 0, 0, 1.2666, -54.0851, 1.26718, -174.104, 1.27101, 65.4903, 0.00978291, -177.053
1, 0.00000, 120.042, -31.0112, 121.307, -151.03, 120.941, 88.5643, 0, 0, 1.2666, -54.0851, 1.26718, -174.104, 1.27101, 65.4903, 0.00978291, -177.053
1, 60.00000, 120.042, -31.0112, 121.307, -151.03, 120.941, 88.5643, 0, 0, 1.2666, -54.0851, 1.26718, -174.104, 1.27101, 65.4903, 0.00978291, -177.053
1, 120.00000, 120.042, -31.0112, 121.307, -151.03, 120.941, 88.5643, 0, 0, 1.2666, -54.0851, 1.26718, -174.104, 1.27101, 65.4903, 0.00978291, -177.053
1, 180.00000, 120.042, -31.0112, 121.307, -151.03, 120.941, 88.5643, 0, 0, 1.2666, -54.0851, 1.26718, -174.104, 1.27101, 65.4903, 0.00978291, -177.053
1, 240.00000, 120.042, -31.0112, 121.307, -151.03, 120.941, 88.5643, 0, 0, 1.2666, -54.0851, 1.26718, -174.104, 1.27101, 65.4903, 0.00978291, -177.053
1, 300.00000, 120.042, -31.0112, 121.307, -151.03, 120.941, 88.5643, 0, 0, 1.2666, -54.0851, 1.26718, -174.104, 1.27101, 65.4903, 0.00978291, -177.053
1, 360.00000, 120.042, -31.0112, 121.307, -151.03, 120.941, 88.5643, 0, 0, 1.2666, -54.0851, 1.26718, -174.104, 1.27101, 65.4903, 0.00978291, -177.053
1, 420.00000, 120.042, -31.0112, 121.307, -151.03, 120.941, 88.5643, 0, 0, 1.2666, -54.0851, 1.26718, -174.104, 1.27101, 65.4903, 0.00978291, -177.053
1, 480.00000, 120.042, -31.0112, 121.307, -151.03, 120.941, 88.5643, 0, 0, 1.2666, -54.0851, 1.26718, -174.104, 1.27101, 65.4903, 0.00978291, -177.053
1, 540.00000, 120.042, -31.0112, 121.307, -151.03, 120.941, 88.5643, 0, 0, 1.2666, -54.0851, 1.26718, -174.104, 1.27101, 65.4903, 0.00978291, -177.053
1, 600.00000, 120.042, -31.0112, 121.307, -151.03, 120.941, 88.5643, 0, 0, 1.2666, -54.0851, 1.26718, -174.104, 1.27101, 65.4903, 0.00978291, -177.053
1, 660.00000, 120.042, -31.0112, 121.307, -151.03, 120.941, 88.5643, 0, 0, 1.2666, -54.0851, 1.26718, -174.104, 1.27101, 65.4903, 0.00978291, -177.053
1, 720.00000, 120.042, -31.0112, 121.307, -151.03, 120.941, 88.5643, 0, 0, 1.2666, -54.0851, 1.26718, -174.104, 1.27101, 65.4903, 0.00978291, -177.053
1, 780.00000, 120.042, -31.0112, 121.307, -151.03, 120.941, 88.5643, 0, 0, 1.2666, -54.0851, 1.26718, -174.104, 1.27101, 65.4903, 0.00978291, -177.053
1, 840.00000, 120.042, -31.0112, 121.307, -151.03, 120.941, 88.5643, 0, 0, 1.2666, -54.0851, 1.26718, -174.104, 1.27101, 65.4903, 0.00978291, -177.053
1, 900.00000, 120.042, -31.0112, 121.307, -151.03, 120.941, 88.5643, 0, 0, 1.2666, -54.0851, 1.26718, -174.104, 1.27101, 65.4903, 0.00978291, -177.053
1, 960.00000, 120.042, -31.0112, 121.307, -151.03, 120.941, 88.5643, 0, 0, 1.2666, -54.0851, 1.26718, -174.104, 1.27101, 65.4903, 0.00978291, -177.053
1, 1020.00000, 120.042, -31.0112, 121.307, -151.03, 120.941, 88.5643, 0, 0, 1.2666, -54.0851, 1.26718, -174.104, 1.27101, 65.4903, 0.00978291, -177.053
1, 1080.00000, 120.042, -31.0112, 121.307, -151.03, 120.941, 88.5643, 0, 0, 1.2666, -54.0851, 1.26718, -174.104, 1.27101, 65.4903, 0.00978291, -177.053
1, 1140.00000, 120.042, -31.0112, 121.307, -151.03, 120.941, 88.5643, 0, 0, 1.2666, -54.0851, 1.26718, -174.104, 1.27101, 65.4903, 0.00978291, -177.053
1, 1200.00000, 120.042, -31.0112, 121.307, -151.03, 120.941, 88.5643, 0, 0, 1.2666, -54.0851, 1.26718, -174.104, 1.27101, 65.4903, 0.00978291, -177.053
1, 1260.00000, 120.042, -31.0112, 121.307, -151.03, 120.941, 88.5643, 0, 0, 1.2666, -54.0851, 1.26718, -174.104, 1.27101, 65.4903, 0.00978291, -177.053
1, 1320.00000, 120.042, -31.0112, 121.307, -151.03, 120.941, 88.5643, 0, 0, 1.2666, -54.0851, 1.26718, -174.104, 1.27101, 65.4903, 0.00978291, -177.053
1, 1380.00000, 120.042, -31.0112, 121.307, -151.03, 120.941, 88.5643, 0, 0, 1.2666, -54.0851, 1.26718, -174.104, 1.27101, 65.4903, 0.00978291, -177.053
1, 1440.00000, 120.042, -31.0112, 121.307, -151.03, 120.941, 88.5643, 0, 0, 1.2666, -54.0851, 1.26718, -174.104, 1.27101, 65.4903, 0.00978291, -177.053
1, 1500.00000, 120.042, -31.0112, 121.307, -151.03, 120.941, 88.5643, 0, 0, 1.2666, -54.0851, 1.26718, -174.104, 1.27101, 65.4903, 0.00978291, -177.053
1, 1560.00000, 120.042, -31.0112, 121.307, -151.03, 120.941, 88.5643, 0, 0, 1.2666, -54.0851, 1.26718, -174.104, 1.27101, 65.4903, 0.00978291, -177.053
1, 1620.00000, 120.042, -31.0112, 121.307, -151.03, 120.941, 88.5643, 0, 0, 1.2666, -54.0851, 1.26718, -174.104, 1.27101, 65.4903, 0.00978291, -177.053
1, 1680.00000, 120.042, -31.0112, 121.307, -151.03, 120.941, 88.5643, 0, 0, 1.2666, -54.0851, 1.26718, -174.104, 1.27101, 65.4903, 0.00978291, -177.053
1, 1740.00000, 120.042, -31.0112, 121.307, -151.03, 120.941, 88.5643, 0, 0, 1.2666, -54.0851, 1.26718, -174.104, 1.27101, 65.4903, 0.00978291, -177.053
1, 1800.00000, 120.042, -31.0112, 121.307, -151.03, 120.941, 88.5643, 0, 0, 1.2666, -54.0851, 1.26718, -174.104, 1.27101, 65.4903, 0.00978291, -177.053
1, 1860.00000, 120.042, -31.0112, 121.307, -151.03, 120.941, 88.5643, 0, 0, 1.2666, -54.0851, 1.26718, -174.104, 1.27101, 65.4903, 0.00978291, -177.053
1, 1920.00000, 120.042, -31.0112, 121.307, -151.03, 120.941, 88.5643, 0, 0, 1.2666, -54.0851, 1.26718, -174.104, 1.27101, 65.4903, 0.00978291, -177.053
1, 1980.00000, 120.042, -31.0112, 121.307, -151.03, 120.941, 88.5643, 0, 0, 1.2666, -54.0851, 1.26718, -174.104, 1.27101, 65.4903, 0.00978291, -177.053
1, 2040.00000, 120.042, -31.0112, 121.307, -151.03, 120.941, 88.5643, 0, 0, 1.2666, -54.0851, 1.26718, -174.104, 1.27101, 65.4903, 0.00978291, -177.053
1, 2100.00000, 120.042, -31.0112, 121.307, -151.03, 120.941, 88.5643, 0, 0, 1.2666, -54.0851, 1.26718, -174.104, 1.27101, 65.4903, 0.00978291, -177.053
1, 2160.00000, 120.042, -31.0112, 121.307, -151.03, 120.941, 88.5643, 0, 0, 1.2666, -54.0851, 1.26718, -174.104, 1.27101, 65.4903, 0.00978291, -177.053
1, 2220.00000, 120.042, -31.0112, 121.307, -151.03, 120.941, 88.5643, 0, 0, 1.2666, -54.0851, 1.26718, -174.104, 1.27101, 65.4903, 0.00978291, -177.053
1, 2280.00000, 120.042, -31.0112, 121.307, -151.03, 120.941, 88.5643, 0, 0, 1.2666, -54.0851, 1.26718, -174.104, 1.27101, 65.4903, 0.00978291, -177.053
1, 2340.00000, 120.042, -31.0112, 121.307, -151.03, 120.941, 88.5643, 0, 0, 1.2666, -54.0851, 1.26718, -174.104, 1.27101, 65.4903, 0.00978291, -177.053
1, 2400.00000, 120.042, -31.0112, 121.307, -151.03, 120.941, 88.5643, 0, 0, 1.2666, -54.0851, 1.26718, -174.104, 1.27101, 65.4903, 0.00978291, -177.053
1, 2460.00000, 120.042, -31.0112, 121.307, -151.03, 120.941, 88.5643, 0, 0, 1.2666, -54.0851, 1.26718, -174.104, 1.27101, 65.4903, 0.00978291, -177.053
1, 2520.00000, 120.042, -31.0112, 121.307, -151.03, 120.941, 88.5643, 0, 0, 1.2666, -54.0851, 1.26718, -174.104, 1.27101, 65.4903, 0.00978291, -177.053
1, 2580.00000, 120.042, -31.0112, 121.307, -151.03, 120.941, 88.5643, 0, 0, 1.2666, -54.0851, 1.26718, -174.104, 1.27101, 65.4903, 0.00978291, -177.053
1, 2640.00000, 120.042, -31.0112, 121.307, -151.03, 120.941, 88.5643, 0, 0, 1.2666, -54.0851, 1.26718, -174.104, 1.27101, 65.4903, 0.00978291, -177.053
1, 2700.00000, 120.042, -31.0112, 121.307, -151.03, 120.941, 88.5643, 0, 0, 1.2666, -54.0851, 1.26718, -174.104, 1.27101, 65.4903, 0.00978291, -177.053
1, 2760.00000, 120.042, -31.0112, 121.307, -151.03, 120.941, 88.5643, 0, 0, 1.2666, -54.0851, 1.26718, -174.104, 1.27101, 65.4903, 0.00978291, -177.053
1, 2820.00000, 120.042, -31.0112, 121.307, -151.03, 120.941, 88.5643, 0, 0, 1.2666, -54.0851, 1.26718, -174.104, 1.27101, 65.4903, 0.00978291, -177.053
1, 2880.00000, 120.042, -31.0112, 121.307, -151.03, 120.941, 88.5643, 0, 0, 1.2666, -54.0851, 1.26718, -174.104, 1.27101, 65.4903, 0.00978291, -177.053
1, 2940.00000, 120.042, -31.0112, 121.307, -151.03, 120.941, 88.5643, 0, 0, 1.2666, -54.0851, 1.26718, -174.104, 1.27101, 65.4903, 0.00978291, -177.053
1, 3000.00000, 120.042, -31.0112, 121.307, -151.03, 120.941, 88.5643, 0, 0, 1.2666, -54.0851, 1.26718, -174.104, 1.27101, 65.4903, 0.00978291, -177.053
1, 3060.00000, 120.042, -31.0112, 121.307, -151.03, 120.941, 88.5643, 0, 0, 1.2666, -54.0851, 1.26718, -174.104, 1.27101, 65.4903, 0.00978291, -177.053
1, 3120.00000, 120.042, -31.0112, 121.307, -151.03, 120.941, 88.5643, 0, 0, 1.2666, -54.0851, 1.26718, -174.104, 1.27101, 65.4903, 0.00978291, -177.053
1, 3180.00000, 120.042, -31.0112, 121.307, -151.03, 120.941, 88.5643, 0, 0, 1.2666, -54.0851, 1.26718, -174.104, 1.27101, 65.4903, 0.00978291, -177.053
1, 3240.00000, 120.042, -31.0112, 121.307, -151.03, 120.941, 88.5643, 0, 0, 1.2666, -54.0851, 1.26718, -174.104, 1.27101, 65.4903, 0.00978291, -177.053
1, 3300.00000, 120.042, -31.0112, 121.307, -151.03, 120.941, 88.5643, 0, 0, 1.2666, -54.0851, 1.26718, -174.104, 1.27101, 65.4903, 0.00978291, -177.053
1, 3360.00000, 120.042, -31.0112, 121.307, -151.03, 120.941, 88.5643, 0, 0, 1.2666, -54.0851, 1.26718, -174.104, 1.27101, 65.4903, 0.00978291, -177.053
1, 3420.00000, 120.042, -31.0112, 121.307, -151.03, 120.941, 88.5643, 0, 0, 1.2666, -54.0851, 1.26718, -174.104, 1.27101, 65.4903, 0.00978291, -177.053
1, 3480.00000, 120.042, -31.0112, 121.307, -151.03, 120.941, 88.5643, 0, 0, 1.2666, -54.0851, 1.26718, -174.104, 1.27101, 65.4903, 0.00978291, -177.053
1, 3540.00000, 120.042, -31.0112, 121.307, -151.03, 120.941, 88.5643, 0, 0, 1.2666, -54.0851, 1.26718, -174.104, 1.27101, 65.4903, 0.00978291, -177.053
2, 0.00000, 120.042, -31.0112, 121.307, -151.03, 120.941, 88.5643, 0, 0, 1.2666, -54.0851, 1.26718, -174.104, 1.27101, 65.4903, 0.00978291, -177.053
2, 60.00000, 120.042, -31.0112, 121.307, -151.03, 120.941, 88.5643, 0, 0, 1.2666, -54.0851, 1.26718, -174.104, 1.27101, 65.4903, 0.00978291, -177.053
2, 120.00000, 120.042, -31.0112, 121.307, -151.03, 120.941, 88.5643, 0, 0, 1.2666, -54.0851, 1.26718, -174.104, 1.27101, 65.4903, 0.00978291, -177.053
2, 180.00000, 120.042, -31.0112, 121.307, -151.03, 120.941, 88.5643, 0, 0, 1.2666, -54.0851, 1.26718, -174.104, 1.27101, 65.4903, 0.00978291, -177.053
2, 240.00000, 120.042, -31.0112, 121.307, -151.03, 120.941, 88.5643, 0, 0, 1.2666, -54.0851, 1.26718, -174.104, 1.27101, 65.4903, 0.00978291, -177.053
2, 300.00000, 120.042, -31.0112, 121.307, -151.03, 120.941, 88.5643, 0, 0, 1.2666, -54.0851, 1.26718, -174.104, 1.27101, 65.4903, 0.00978291, -177.053
2, 360.00000, 120.042, -31.0112, 121.307, -151.03, 120.941, 88.5643, 0, 0, 1.2666, -54.0851, 1.26718, -174.104, 1.27101, 65.4903, 0.00978291, -177.053
2, 420.00000, 120.042, -31.0112, 121.307, -151.03, 120.941, 88.5643, 0, 0, 1.2666, -54.0851, 1.26718, -174.104, 1.27101, 65.4903, 0.00978291, -177.053
2, 480.00000, 120.042, -31.0112, 121.307, -151.03, 120.941, 88.5643, 0, 0, 1.2666, -54.0851, 1.26718, -174.104, 1.27101, 65.4903, 0.00978291, -177.053
2, 540.00000, 120.042, -31.0112, 121.307, -151.03, 120.941, 88.5643, 0, 0, 1.2666, -54.0851, 1.26718, -174.104, 1.27101, 65.4903, 0.00978291, -177.053
2, 600.00000, 120.042, -31.0112, 121.307, -151.03, 120.941, 88.5643, 0, 0, 1.2666, -54.0851, 1.26718, -174.104, 1.27101, 65.4903, 0.00978291, -177.053
2, 660.00000, 120.042, -31.0112, 121.307, -151.03, 120.941, 88.5643, 0, 0, 1.2666, -54.0851, 1.26718, -174.104, 1.27101, 65.4903, 0.00978291, -177.053
