hour,t(sec),"P1 (kW)","Q1 (kvar)","P2 (kW)","Q2 (kvar)","P3 (kW)","Q3 (kvar)","P4 (kW)","Q4 (kvar)"
0, 60.00000, 0.927961, 0.395307, 1.00112, 0.426471, 0.94638, 0.40315, 0, 0
0, 120.00000, 0.927955, 0.395307, 1.00111, 0.426471, 0.946369, 0.403151, 0, 0
0, 180.00000, 0.927955, 0.395307, 1.00111, 0.426471, 0.946369, 0.403151, 0, 0
0, 240.00000, 0.927955, 0.395307, 1.00111, 0.426471, 0.946369, 0.403151, 0, 0
0, 300.00000, 0.927955, 0.395307, 1.00111, 0.426471, 0.946369, 0.403151, 0, 0
0, 360.00000, 0.927955, 0.395307, 1.00111, 0.426471, 0.946369, 0.403151, 0, 0
0, 420.00000, 0.927955, 0.395307, 1.00111, 0.426471, 0.946369, 0.403151, 0, 0
0, 480.00000, 0.853921, 0.36377, 0.920783, 0.392256, 0.869761, 0.370525, 0, 0
0, 540.00000, 0.853927, 0.363771, 0.920797, 0.392258, 0.86977, 0.37052, 0, 0
0, 600.00000, 0.853927, 0.363771, 0.920797, 0.392258, 0.86977, 0.37052, 0, 0
0, 660.00000, 0.853927, 0.363771, 0.920797, 0.392258, 0.86977, 0.37052, 0, 0
0, 720.00000, 0.853927, 0.363771, 0.920797, 0.392258, 0.86977, 0.37052, 0, 0
0, 780.00000, 0.853927, 0.363771, 0.920797, 0.392258, 0.86977, 0.37052, 0, 0
0, 840.00000, 0.853927, 0.363771, 0.920797, 0.392258, 0.86977, 0.37052, 0, 0
0, 900.00000, 0.853927, 0.363771, 0.920797, 0.392258, 0.86977, 0.37052, 0, 0
0, 960.00000, 0.845944, 0.36037, 0.920719, 0.392225, 0.865282, 0.368606, 0, 0
0, 1020.00000, 0.845939, 0.360369, 0.920719, 0.392225, 0.865278, 0.368607, 0, 0
0, 1080.00000, 0.845939, 0.360369, 0.920719, 0.392225, 0.865278, 0.368607, 0, 0
0, 1140.00000, 0.845939, 0.360369, 0.920719, 0.392225, 0.865278, 0.368607, 0, 0
0, 1200.00000, 0.845939, 0.360369, 0.920719, 0.392225, 0.865278, 0.368607, 0, 0
0, 1260.00000, 0.845939, 0.360369, 0.920719, 0.392225, 0.865278, 0.368607, 0, 0
0, 1320.00000, 0.845939, 0.360369, 0.920719, 0.392225, 0.865278, 0.368607, 0, 0
0, 1380.00000, 0.845939, 0.360369, 0.920719, 0.392225, 0.865278, 0.368607, 0, 0
0, 1440.00000, 0.845939, 0.360369, 0.920719, 0.392225, 0.865278, 0.368607, 0, 0
0, 1500.00000, 0.845939, 0.360369, 0.920719, 0.392225, 0.865278, 0.368607, 0, 0
0, 1560.00000, 0.845939, 0.360369, 0.920719, 0.392225, 0.865278, 0.368607, 0, 0
0, 1620.00000, 0.845939, 0.360369, 0.920719, 0.392225, 0.865278, 0.368607, 0, 0
0, 1680.00000, 0.845939, 0.360369, 0.920719, 0.392225, 0.865278, 0.368607, 0, 0
0, 1740.00000, 0.845939, 0.360369, 0.920719, 0.392225, 0.865278, 0.368607, 0, 0
0, 1800.00000, 0.837569, 0.356802, 0.920627, 0.392185, 0.860329, 0.366494, 0, 0
0, 1860.00000, 0.837563, 0.3568, 0.920627, 0.392185, 0.860324, 0.366497, 0, 0
0, 1920.00000, 0.837563, 0.3568, 0.920627, 0.392185, 0.860324, 0.366497, 0, 0
0, 1980.00000, 0.837563, 0.3568, 0.920627, 0.392185, 0.860324, 0.366497, 0, 0
0, 2040.00000, 0.837563, 0.3568, 0.920627, 0.392185, 0.860324, 0.366497, 0, 0
0, 2100.00000, 0.837563, 0.3568, 0.920627, 0.392185, 0.860324, 0.366497, 0, 0
0, 2160.00000, 0.837563, 0.3568, 0.920627, 0.392185, 0.860324, 0.366497, 0, 0
0, 2220.00000, 0.837563, 0.3568, 0.920627, 0.392185, 0.860324, 0.366497, 0, 0
0, 2280.00000, 0.837563, 0.3568, 0.920627, 0.392185, 0.860324, 0.366497, 0, 0
0, 2340.00000, 0.837563, 0.3568, 0.920627, 0.392185, 0.860324, 0.366497, 0, 0
0, 2400.00000, 0.837563, 0.3568, 0.920627, 0.392185, 0.860324, 0.366497, 0, 0
0, 2460.00000, 0.837563, 0.3568, 0.920627, 0.392185, 0.860324, 0.366497, 0, 0
0, 2520.00000, 0.837563, 0.3568, 0.920627, 0.392185, 0.860324, 0.366497, 0, 0
0, 2580.00000, 0.837563, 0.3568, 0.920627, 0.392185, 0.860324, 0.366497, 0, 0
0, 2640.00000, 0.837563, 0.3568, 0.920627, 0.392185, 0.860324, 0.366497, 0, 0
0, 2700.00000, 0.837563, 0.3568, 0.920627, 0.392185, 0.860324, 0.366497, 0, 0
0, 2760.00000, 0.841947, 0.358671, 0.920638, 0.39219, 0.861762, 0.367114, 0, 0
0, 2820.00000, 0.841953, 0.35867, 0.920637, 0.39219, 0.86177, 0.367112, 0, 0
0, 2880.00000, 0.841953, 0.35867, 0.920637, 0.39219, 0.86177, 0.367112, 0, 0
0, 2940.00000, 0.841953, 0.35867, 0.920637, 0.39219, 0.86177, 0.367112, 0, 0
0, 3000.00000, 0.841953, 0.35867, 0.920637, 0.39219, 0.86177, 0.367112, 0, 0
0, 3060.00000, 0.841953, 0.35867, 0.920637, 0.39219, 0.86177, 0.367112, 0, 0
0, 3120.00000, 0.841953, 0.35867, 0.920637, 0.39219, 0.86177, 0.367112, 0, 0
0, 3180.00000, 0.841953, 0.35867, 0.920637, 0.39219, 0.86177, 0.367112, 0, 0
0, 3240.00000, 0.841953, 0.35867, 0.920637, 0.39219, 0.86177, 0.367112, 0, 0
0, 3300.00000, 0.841953, 0.35867, 0.920637, 0.39219, 0.86177, 0.367112, 0, 0
0, 3360.00000, 0.841953, 0.35867, 0.920637, 0.39219, 0.86177, 0.367112, 0, 0
0, 3420.00000, 0.841953, 0.35867, 0.920637, 0.39219, 0.86177, 0.367112, 0, 0
0, 3480.00000, 0.841953, 0.35867, 0.920637, 0.39219, 0.86177, 0.367112, 0, 0
0, 3540.00000, 0.841953, 0.35867, 0.920637, 0.39219, 0.86177, 0.367112, 0, 0
1, 0.00000, 0.841953, 0.35867, 0.920637, 0.39219, 0.86177, 0.367112, 0, 0
1, 60.00000, 0.846137, 0.360456, 0.920656, 0.392197, 0.863042, 0.367658, 0, 0
1, 120.00000, 0.846142, 0.360455, 0.920655, 0.392197, 0.863046, 0.367656, 0, 0
1, 180.00000, 0.846142, 0.360455, 0.920655, 0.392197, 0.863046, 0.367656, 0, 0
1, 240.00000, 0.846142, 0.360455, 0.920655, 0.392197, 0.863046, 0.367656, 0, 0
1, 300.00000, 0.846142, 0.360455, 0.920655, 0.392197, 0.863046, 0.367656, 0, 0
1, 360.00000, 0.846142, 0.360455, 0.920655, 0.392197, 0.863046, 0.367656, 0, 0
1, 420.00000, 0.846142, 0.360455, 0.920655, 0.392197, 0.863046, 0.367656, 0, 0
1, 480.00000, 0.846142, 0.360455, 0.920655, 0.392197, 0.863046, 0.367656, 0, 0
1, 540.00000, 0.846142, 0.360455, 0.920655, 0.392197, 0.863046, 0.367656, 0, 0
1, 600.00000, 0.846142, 0.360455, 0.920655, 0.392197, 0.863046, 0.367656, 0, 0
1, 660.00000, 0.846142, 0.360455, 0.920655, 0.392197, 0.863046, 0.367656, 0, 0
1, 720.00000, 0.846142, 0.360455, 0.920655, 0.392197, 0.863046, 0.367656, 0, 0
1, 780.00000, 0.87002, 0.370629, 0.920153, 0.391984, 0.885531, 0.377238, 0, 0
1, 840.00000, 0.870028, 0.37063, 0.920153, 0.391984, 0.885535, 0.377236, 0, 0
1, 900.00000, 0.870028, 0.37063, 0.920153, 0.391984, 0.885535, 0.377236, 0, 0
1, 960.00000, 0.870028, 0.37063, 0.920153, 0.391984, 0.885535, 0.377236, 0, 0
1, 1020.00000, 0.870028, 0.37063, 0.920153, 0.391984, 0.885535, 0.377236, 0, 0
1, 1080.00000, 0.870028, 0.37063, 0.920153, 0.391984, 0.885535, 0.377236, 0, 0
1, 1140.00000, 0.870028, 0.37063, 0.920153, 0.391984, 0.885535, 0.377236, 0, 0
1, 1200.00000, 0.870028, 0.37063, 0.920153, 0.391984, 0.885535, 0.377236, 0, 0
1, 1260.00000, 0.870028, 0.37063, 0.920153, 0.391984, 0.885535, 0.377236, 0, 0
1, 1320.00000, 0.870028, 0.37063, 0.920153, 0.391984, 0.885535, 0.377236, 0, 0
1, 1380.00000, 0.870028, 0.37063, 0.920153, 0.391984, 0.885535, 0.377236, 0, 0
1, 1440.00000, 0.870028, 0.37063, 0.920153, 0.391984, 0.885535, 0.377236, 0, 0
1, 1500.00000, 0.870028, 0.37063, 0.920153, 0.391984, 0.885535, 0.377236, 0, 0
1, 1560.00000, 0.870028, 0.37063, 0.920153, 0.391984, 0.885535, 0.377236, 0, 0
1, 1620.00000, 0.870028, 0.37063, 0.920153, 0.391984, 0.885535, 0.377236, 0, 0
1, 1680.00000, 0.870028, 0.37063, 0.920153, 0.391984, 0.885535, 0.377236, 0, 0
1, 1740.00000, 0.870028, 0.37063, 0.920153, 0.391984, 0.885535, 0.377236, 0, 0
1, 1800.00000, 0.870028, 0.37063, 0.920153, 0.391984, 0.885535, 0.377236, 0, 0
1, 1860.00000, 0.870028, 0.37063, 0.920153, 0.391984, 0.885535, 0.377236, 0, 0
1, 1920.00000, 0.870028, 0.37063, 0.920153, 0.391984, 0.885535, 0.377236, 0, 0
1, 1980.00000, 0.870028, 0.37063, 0.920153, 0.391984, 0.885535, 0.377236, 0, 0
1, 2040.00000, 0.870028, 0.37063, 0.920153, 0.391984, 0.885535, 0.377236, 0, 0
1, 2100.00000, 0.870028, 0.37063, 0.920153, 0.391984, 0.885535, 0.377236, 0, 0
1, 2160.00000, 0.870028, 0.37063, 0.920153, 0.391984, 0.885535, 0.377236, 0, 0
1, 2220.00000, 0.87901, 0.37446, 0.920218, 0.392012, 0.890717, 0.379447, 0, 0
1, 2280.00000, 0.879018, 0.37446, 0.920218, 0.392011, 0.890719, 0.379445, 0, 0
1, 2340.00000, 0.879018, 0.37446, 0.920218, 0.392011, 0.890719, 0.379445, 0, 0
1, 2400.00000, 0.879018, 0.37446, 0.920218, 0.392011, 0.890719, 0.379445, 0, 0
1, 2460.00000, 0.879018, 0.37446, 0.920218, 0.392011, 0.890719, 0.379445, 0, 0
1, 2520.00000, 0.879018, 0.37446, 0.920218, 0.392011, 0.890719, 0.379445, 0, 0
1, 2580.00000, 0.879018, 0.37446, 0.920218, 0.392011, 0.890719, 0.379445, 0, 0
1, 2640.00000, 0.879018, 0.37446, 0.920218, 0.392011, 0.890719, 0.379445, 0, 0
1, 2700.00000, 0.879018, 0.37446, 0.920218, 0.392011, 0.890719, 0.379445, 0, 0
1, 2760.00000, 0.879018, 0.37446, 0.920218, 0.392011, 0.890719, 0.379445, 0, 0
1, 2820.00000, 0.879018, 0.37446, 0.920218, 0.392011, 0.890719, 0.379445, 0, 0
1, 2880.00000, 0.879018, 0.37446, 0.920218, 0.392011, 0.890719, 0.379445, 0, 0
1, 2940.00000, 0.879018, 0.37446, 0.920218, 0.392011, 0.890719, 0.379445, 0, 0
1, 3000.00000, 0.879018, 0.37446, 0.920218, 0.392011, 0.890719, 0.379445, 0, 0
1, 3060.00000, 0.879018, 0.37446, 0.920218, 0.392011, 0.890719, 0.379445, 0, 0
1, 3120.00000, 0.879018, 0.37446, 0.920218, 0.392011, 0.890719, 0.379445, 0, 0
1, 3180.00000, 0.879018, 0.37446, 0.920218, 0.392011, 0.890719, 0.379445, 0, 0
1, 3240.00000, 0.879018, 0.37446, 0.920218, 0.392011, 0.890719, 0.379445, 0, 0
1, 3300.00000, 0.879018, 0.37446, 0.920218, 0.392011, 0.890719, 0.379445, 0, 0
1, 3360.00000, 0.879018, 0.37446, 0.920218, 0.392011, 0.890719, 0.379445, 0, 0
1, 3420.00000, 0.879018, 0.37446, 0.920218, 0.392011, 0.890719, 0.379445, 0, 0
1, 3480.00000, 0.879018, 0.37446, 0.920218, 0.392011, 0.890719, 0.379445, 0, 0
1, 3540.00000, 0.879018, 0.37446, 0.920218, 0.392011, 0.890719, 0.379445, 0, 0
2, 0.00000, 0.879018, 0.37446, 0.920218, 0.392011, 0.890719, 0.379445, 0, 0
2, 60.00000, 0.879018, 0.37446, 0.920218, 0.392011, 0.890719, 0.379445, 0, 0
2, 120.00000, 0.879018, 0.37446, 0.920218, 0.392011, 0.890719, 0.379445, 0, 0
2, 180.00000, 0.879018, 0.37446, 0.920218, 0.392011, 0.890719, 0.379445, 0, 0
2, 240.00000, 0.879018, 0.37446, 0.920218, 0.392011, 0.890719, 0.379445, 0, 0
2, 300.00000, 0.879018, 0.37446, 0.920218, 0.392011, 0.890719, 0.379445, 0, 0
2, 360.00000, 0.879018, 0.37446, 0.920218, 0.392011, 0.890719, 0.379445, 0, 0
2, 420.00000, 0.879018, 0.37446, 0.920218, 0.392011, 0.890719, 0.379445, 0, 0
2, 480.00000, 0.879018, 0.37446, 0.920218, 0.392011, 0.890719, 0.379445, 0, 0
2, 540.00000, 0.879018, 0.37446, 0.920218, 0.392011, 0.890719, 0.379445, 0, 0
2, 600.00000, 0.879018, 0.37446, 0.920218, 0.392011, 0.890719, 0.379445, 0, 0
2, 660.00000, 0.879018, 0.37446, 0.920218, 0.392011, 0.890719, 0.379445, 0, 0
2, 720.00000, 0.879018, 0.37446, 0.920218, 0.392011, 0.890719, 0.379445, 0, 0
2, 780.00000, 0.879018, 0.37446, 0.920218, 0.392011, 0.890719, 0.379445, 0, 0
2, 840.00000, 0.887508, 0.378082, 0.920283, 0.392039, 0.89542, 0.381451, 0, 0
2, 900.00000, 0.887518, 0.378081, 0.920282, 0.392038, 0.895422, 0.381448, 0, 0
2, 960.00000, 0.887518, 0.378081, 0.920282, 0.392038, 0.895422, 0.381448, 0, 0
2, 1020.00000, 0.887518, 0.378081, 0.920282, 0.392038, 0.895422, 0.381448, 0, 0
2, 1080.00000, 0.887518, 0.378081, 0.920282, 0.392038, 0.895422, 0.381448, 0, 0
2, 1140.00000, 0.887518, 0.378081, 0.920282, 0.392038, 0.895422, 0.381448, 0, 0
2, 1200.00000, 0.887518, 0.378081, 0.920282, 0.392038, 0.895422, 0.381448, 0, 0
2, 1260.00000, 0.887518, 0.378081, 0.920282, 0.392038, 0.895422, 0.381448, 0, 0
2, 1320.00000, 0.887518, 0.378081, 0.920282, 0.392038, 0.895422, 0.381448, 0, 0
2, 1380.00000, 0.887518, 0.378081, 0.920282, 0.392038, 0.895422, 0.381448, 0, 0
2, 1440.00000, 0.887518, 0.378081, 0.920282, 0.392038, 0.895422, 0.381448, 0, 0
2, 1500.00000, 0.887518, 0.378081, 0.920282, 0.392038, 0.895422, 0.381448, 0, 0
2, 1560.00000, 0.887518, 0.378081, 0.920282, 0.392038, 0.895422, 0.381448, 0, 0
2, 1620.00000, 0.887518, 0.378081, 0.920282, 0.392038, 0.895422, 0.381448, 0, 0
2, 1680.00000, 0.887518, 0.378081, 0.920282, 0.392038, 0.895422, 0.381448, 0, 0
2, 1740.00000, 0.887518, 0.378081, 0.920282, 0.392038, 0.895422, 0.381448, 0, 0
2, 1800.00000, 0.887518, 0.378081, 0.920282, 0.392038, 0.895422, 0.381448, 0, 0
2, 1860.00000, 0.887518, 0.378081, 0.920282, 0.392038, 0.895422, 0.381448, 0, 0
2, 1920.00000, 0.887518, 0.378081, 0.920282, 0.392038, 0.895422, 0.381448, 0, 0
2, 1980.00000, 0.887518, 0.378081, 0.920282, 0.392038, 0.895422, 0.381448, 0, 0
2, 2040.00000, 0.887518, 0.378081, 0.920282, 0.392038, 0.895422, 0.381448, 0, 0
2, 2100.00000, 0.887518, 0.378081, 0.920282, 0.392038, 0.895422, 0.381448, 0, 0
2, 2160.00000, 0.887518, 0.378081, 0.920282, 0.392038, 0.895422, 0.381448, 0, 0
2, 2220.00000, 0.887518, 0.378081, 0.920282, 0.392038, 0.895422, 0.381448, 0, 0
2, 2280.00000, 0.887518, 0.378081, 0.920282, 0.392038, 0.895422, 0.381448, 0, 0
2, 2340.00000, 0.887518, 0.378081, 0.920282, 0.392038, 0.895422, 0.381448, 0, 0
2, 2400.00000, 0.913574, 0.389187, 0.919713, 0.391796, 0.919777, 0.391838, 0, 0
2, 2460.00000, 0.913617, 0.389199, 0.919707, 0.391794, 0.919806, 0.391836, 0, 0
2, 2520.00000, 0.913618, 0.3892, 0.919707, 0.391794, 0.919806, 0.391836, 0, 0
2, 2580.00000, 0.913618, 0.3892, 0.919707, 0.391794, 0.919806, 0.391836, 0, 0
2, 2640.00000, 0.913618, 0.3892, 0.919707, 0.391794, 0.919806, 0.391836, 0, 0
2, 2700.00000, 0.907762, 0.386703, 0.910468, 0.387855, 0.920533, 0.392143, 0, 0
2, 2760.00000, 0.907758, 0.386703, 0.910462, 0.387855, 0.920539, 0.392148, 0, 0
2, 2820.00000, 0.907758, 0.386703, 0.910462, 0.387855, 0.920539, 0.392148, 0, 0
2, 2880.00000, 0.907758, 0.386703, 0.910462, 0.387855, 0.920539, 0.392148, 0, 0
2, 2940.00000, 0.907758, 0.386703, 0.910462, 0.387855, 0.920539, 0.392148, 0, 0
2, 3000.00000, 0.907758, 0.386703, 0.910462, 0.387855, 0.920539, 0.392148, 0, 0
2, 3060.00000, 0.912465, 0.388719, 0.910433, 0.387843, 0.922069, 0.392809, 0, 0
2, 3120.00000, 0.912489, 0.388719, 0.91043, 0.387841, 0.92208, 0.392804, 0, 0
2, 3180.00000, 0.912489, 0.388719, 0.91043, 0.387841, 0.92208, 0.392804, 0, 0
2, 3240.00000, 0.912489, 0.388719, 0.91043, 0.387841, 0.92208, 0.392804, 0, 0
2, 3300.00000, 0.912489, 0.388719, 0.91043, 0.387841, 0.92208, 0.392804, 0, 0
2, 3360.00000, 0.912489, 0.388719, 0.91043, 0.387841, 0.92208, 0.392804, 0, 0
2, 3420.00000, 0.912489, 0.388719, 0.91043, 0.387841, 0.92208, 0.392804, 0, 0
2, 3480.00000, 0.912489, 0.388719, 0.91043, 0.387841, 0.92208, 0.392804, 0, 0
2, 3540.00000, 0.912489, 0.388719, 0.91043, 0.387841, 0.92208, 0.392804, 0, 0
3, 0.00000, 0.912489, 0.388719, 0.91043, 0.387841, 0.92208, 0.392804, 0, 0
3, 60.00000, 0.912489, 0.388719, 0.91043, 0.387841, 0.92208, 0.392804, 0, 0
3, 120.00000, 0.912489, 0.388719, 0.91043, 0.387841, 0.92208, 0.392804, 0, 0
3, 180.00000, 0.912489, 0.388719, 0.91043, 0.387841, 0.92208, 0.392804, 0, 0
3, 240.00000, 0.912489, 0.388719, 0.91043, 0.387841, 0.92208, 0.392804, 0, 0
3, 300.00000, 0.912489, 0.388719, 0.91043, 0.387841, 0.92208, 0.392804, 0, 0
3, 360.00000, 0.912489, 0.388719, 0.91043, 0.387841, 0.92208, 0.392804, 0, 0
3, 420.00000, 0.912489, 0.388719, 0.91043, 0.387841, 0.92208, 0.392804, 0, 0
3, 480.00000, 0.912489, 0.388719, 0.91043, 0.387841, 0.92208, 0.392804, 0, 0
3, 540.00000, 0.912489, 0.388719, 0.91043, 0.387841, 0.92208, 0.392804, 0, 0
3, 600.00000, 0.912489, 0.388719, 0.91043, 0.387841, 0.92208, 0.392804, 0, 0
3, 660.00000, 0.912489, 0.388719, 0.91043, 0.387841, 0.92208, 0.392804, 0, 0
3, 720.00000, 0.912489, 0.388719, 0.91043, 0.387841, 0.92208, 0.392804, 0, 0
3, 780.00000, 0.912489, 0.388719, 0.91043, 0.387841, 0.92208, 0.392804, 0, 0
3, 840.00000, 0.912489, 0.388719, 0.91043, 0.387841, 0.92208, 0.392804, 0, 0
3, 900.00000, 0.912489, 0.388719, 0.91043, 0.387841, 0.92208, 0.392804, 0, 0
3, 960.00000, 0.912489, 0.388719, 0.91043, 0.387841, 0.92208, 0.392804, 0, 0
3, 1020.00000, 0.912489, 0.388719, 0.91043, 0.387841, 0.92208, 0.392804, 0, 0
3, 1080.00000, 0.912489, 0.388719, 0.91043, 0.387841, 0.92208, 0.392804, 0, 0
3, 1140.00000, 0.912489, 0.388719, 0.91043, 0.387841, 0.92208, 0.392804, 0, 0
3, 1200.00000, 0.912489, 0.388719, 0.91043, 0.387841, 0.92208, 0.392804, 0, 0
3, 1260.00000, 0.912489, 0.388719, 0.91043, 0.387841, 0.92208, 0.392804, 0, 0
3, 1320.00000, 0.912489, 0.388719, 0.91043, 0.387841, 0.92208, 0.392804, 0, 0
3, 1380.00000, 0.912489, 0.388719, 0.91043, 0.387841, 0.92208, 0.392804, 0, 0
3, 1440.00000, 0.912489, 0.388719, 0.91043, 0.387841, 0.92208, 0.392804, 0, 0
3, 1500.00000, 0.912489, 0.388719, 0.91043, 0.387841, 0.92208, 0.392804, 0, 0
3, 1560.00000, 0.912489, 0.388719, 0.91043, 0.387841, 0.92208, 0.392804, 0, 0
3, 1620.00000, 0.912489, 0.388719, 0.91043, 0.387841, 0.92208, 0.392804, 0, 0
3, 1680.00000, 0.912489, 0.388719, 0.91043, 0.387841, 0.92208, 0.392804, 0, 0
3, 1740.00000, 0.912489, 0.388719, 0.91043, 0.387841, 0.92208, 0.392804, 0, 0
3, 1800.00000, 0.912489, 0.388719, 0.91043, 0.387841, 0.92208, 0.392804, 0, 0
3, 1860.00000, 0.912489, 0.388719, 0.91043, 0.387841, 0.92208, 0.392804, 0, 0
3, 1920.00000, 0.912489, 0.388719, 0.91043, 0.387841, 0.92208, 0.392804, 0, 0
3, 1980.00000, 0.912489, 0.388719, 0.91043, 0.387841, 0.92208, 0.392804, 0, 0
3, 2040.00000, 0.912489, 0.388719, 0.91043, 0.387841, 0.92208, 0.392804, 0, 0
3, 2100.00000, 0.912489, 0.388719, 0.91043, 0.387841, 0.92208, 0.392804, 0, 0
3, 2160.00000, 0.912489, 0.388719, 0.91043, 0.387841, 0.92208, 0.392804, 0, 0
3, 2220.00000, 0.912489, 0.388719, 0.91043, 0.387841, 0.92208, 0.392804, 0, 0
3, 2280.00000, 0.912489, 0.388719, 0.91043, 0.387841, 0.92208, 0.392804, 0, 0
3, 2340.00000, 0.912489, 0.388719, 0.91043, 0.387841, 0.92208, 0.392804, 0, 0
3, 2400.00000, 0.912489, 0.388719, 0.91043, 0.387841, 0.92208, 0.392804, 0, 0
3, 2460.00000, 0.912489, 0.388719, 0.91043, 0.387841, 0.92208, 0.392804, 0, 0
3, 2520.00000, 0.912489, 0.388719, 0.91043, 0.387841, 0.92208, 0.392804, 0, 0
3, 2580.00000, 0.912489, 0.388719, 0.91043, 0.387841, 0.92208, 0.392804, 0, 0
3, 2640.00000, 0.912489, 0.388719, 0.91043, 0.387841, 0.92208, 0.392804, 0, 0
3, 2700.00000, 0.912489, 0.388719, 0.91043, 0.387841, 0.92208, 0.392804, 0, 0
3, 2760.00000, 0.912489, 0.388719, 0.91043, 0.387841, 0.92208, 0.392804, 0, 0
3, 2820.00000, 0.912489, 0.388719, 0.91043, 0.387841, 0.92208, 0.392804, 0, 0
3, 2880.00000, 0.912489, 0.388719, 0.91043, 0.387841, 0.92208, 0.392804, 0, 0
3, 2940.00000, 0.912489, 0.388719, 0.91043, 0.387841, 0.92208, 0.392804, 0, 0
3, 3000.00000, 0.912489, 0.388719, 0.91043, 0.387841, 0.92208, 0.392804, 0, 0
3, 3060.00000, 0.912489, 0.388719, 0.91043, 0.387841, 0.92208, 0.392804, 0, 0
3, 3120.00000, 0.912489, 0.388719, 0.91043, 0.387841, 0.92208, 0.392804, 0, 0
3, 3180.00000, 0.889245, 0.378814, 0.887517, 0.378081, 0.898789, 0.382877, 0, 0
3, 3240.00000, 0.889238, 0.378814, 0.887517, 0.378081, 0.89878, 0.382879, 0, 0
3, 3300.00000, 0.889238, 0.378814, 0.887517, 0.378081, 0.89878, 0.382879, 0, 0
3, 3360.00000, 0.889238, 0.378814, 0.887517, 0.378081, 0.89878, 0.382879, 0, 0
3, 3420.00000, 0.889238, 0.378814, 0.887517, 0.378081, 0.89878, 0.382879, 0, 0
3, 3480.00000, 0.889238, 0.378814, 0.887517, 0.378081, 0.89878, 0.382879, 0, 0
3, 3540.00000, 0.889238, 0.378814, 0.887517, 0.378081, 0.89878, 0.382879, 0, 0
4, 0.00000, 0.889238, 0.378814, 0.887517, 0.378081, 0.89878, 0.382879, 0, 0
4, 60.00000, 0.889238, 0.378814, 0.887517, 0.378081, 0.89878, 0.382879, 0, 0
4, 120.00000, 0.889238, 0.378814, 0.887517, 0.378081, 0.89878, 0.382879, 0, 0
4, 180.00000, 0.889238, 0.378814, 0.887517, 0.378081, 0.89878, 0.382879, 0, 0
4, 240.00000, 0.889238, 0.378814, 0.887517, 0.378081, 0.89878, 0.382879, 0, 0
4, 300.00000, 0.889238, 0.378814, 0.887517, 0.378081, 0.89878, 0.382879, 0, 0
4, 360.00000, 0.889238, 0.378814, 0.887517, 0.378081, 0.89878, 0.382879, 0, 0
4, 420.00000, 0.889238, 0.378814, 0.887517, 0.378081, 0.89878, 0.382879, 0, 0
4, 480.00000, 0.889238, 0.378814, 0.887517, 0.378081, 0.89878, 0.382879, 0, 0
4, 540.00000, 0.889238, 0.378814, 0.887517, 0.378081, 0.89878, 0.382879, 0, 0
4, 600.00000, 0.889238, 0.378814, 0.887517, 0.378081, 0.89878, 0.382879, 0, 0
4, 660.00000, 0.889238, 0.378814, 0.887517, 0.378081, 0.89878, 0.382879, 0, 0
4, 720.00000, 0.889238, 0.378814, 0.887517, 0.378081, 0.89878, 0.382879, 0, 0
4, 780.00000, 0.889238, 0.378814, 0.887517, 0.378081, 0.89878, 0.382879, 0, 0
