hour,t(sec),V1,VAngle1,V2,VAngle2,V3,VAngle3,V4,VAngle4,I1,IAngle1,I2,IAngle2,I3,IAngle3,I4,IAngle4
0, 60.00000, 118.585, -32.5632, 118.108, -151.178, 121.729, 88.3097, 0, 0, 3.93833, -55.6371, 3.92071, -174.252, 3.98015, 65.2361, 0.0314842, 69.8126
0, 120.00000, 118.587, -32.5746, 118.108, -151.179, 121.756, 88.3051, 0, 0, 3.93843, -55.6486, 3.9207, -174.252, 3.97923, 65.2315, 0.0330984, 69.5678
0, 180.00000, 118.59, -32.5849, 118.108, -151.179, 121.781, 88.301, 0, 0, 3.93851, -55.6589, 3.92069, -174.253, 3.9784, 65.2274, 0.0345495, 69.3686
0, 240.00000, 118.592, -32.5942, 118.108, -151.179, 121.804, 88.2973, 0, 0, 3.93858, -55.6682, 3.92069, -174.253, 3.97765, 65.2236, 0.0358555, 69.2029
0, 300.00000, 118.594, -32.6026, 118.108, -151.18, 121.824, 88.2939, 0, 0, 3.93865, -55.6765, 3.92068, -174.253, 3.97698, 65.2202, 0.0370307, 69.0634
0, 360.00000, 118.596, -32.6101, 118.108, -151.18, 121.842, 88.2909, 0, 0, 3.93871, -55.6841, 3.92068, -174.253, 3.97638, 65.2172, 0.0380884, 68.945
0, 420.00000, 118.597, -32.6169, 118.107, -151.18, 121.858, 88.2882, 0, 0, 3.93876, -55.6908, 3.92067, -174.254, 3.97584, 65.2144, 0.0390402, 68.8437
0, 480.00000, 119.407, -32.5217, 118.88, -151.083, 122.769, 88.412, 0, 0, 4.16444, -55.5956, 4.14402, -174.157, 4.14106, 65.3382, 0.103221, 66.2621
0, 540.00000, 119.408, -32.5272, 118.88, -151.083, 122.782, 88.4098, 0, 0, 4.16449, -55.6011, 4.14402, -174.157, 4.1406, 65.336, 0.104047, 66.2493
0, 600.00000, 119.41, -32.5322, 118.88, -151.083, 122.795, 88.4078, 0, 0, 4.16453, -55.6061, 4.14402, -174.157, 4.14018, 65.334, 0.104788, 66.2386
0, 660.00000, 119.411, -32.5367, 118.88, -151.084, 122.806, 88.406, 0, 0, 4.16457, -55.6106, 4.14402, -174.157, 4.1398, 65.3322, 0.105454, 66.229
0, 720.00000, 119.412, -32.5408, 118.88, -151.084, 122.815, 88.4043, 0, 0, 4.1646, -55.6147, 4.14402, -174.158, 4.13946, 65.3305, 0.106054, 66.2205
0, 780.00000, 119.412, -32.5444, 118.88, -151.084, 122.824, 88.4029, 0, 0, 4.16464, -55.6183, 4.14401, -174.158, 4.13916, 65.3291, 0.106594, 66.2129
0, 840.00000, 119.413, -32.5477, 118.88, -151.084, 122.832, 88.4016, 0, 0, 4.16466, -55.6216, 4.14401, -174.158, 4.13889, 65.3277, 0.107079, 66.2061
0, 900.00000, 119.414, -32.5506, 118.88, -151.084, 122.839, 88.4004, 0, 0, 4.16469, -55.6245, 4.14401, -174.158, 4.13864, 65.3265, 0.107516, 66.2
0, 960.00000, 118.756, -32.4671, 118.886, -151.077, 122.216, 88.1741, 0, 0, 4.13921, -55.5411, 4.14424, -174.15, 4.15976, 65.1003, 0.0687299, 64.8149
0, 1020.00000, 118.756, -32.4695, 118.886, -151.077, 122.221, 88.1732, 0, 0, 4.13923, -55.5434, 4.14424, -174.15, 4.15956, 65.0994, 0.0690746, 64.814
0, 1080.00000, 118.757, -32.4716, 118.886, -151.077, 122.226, 88.1724, 0, 0, 4.13925, -55.5455, 4.14424, -174.15, 4.15938, 65.0985, 0.0693865, 64.8124
0, 1140.00000, 118.757, -32.4735, 118.886, -151.077, 122.231, 88.1716, 0, 0, 4.13926, -55.5474, 4.14424, -174.151, 4.15923, 65.0977, 0.0696671, 64.811
0, 1200.00000, 118.757, -32.4752, 118.886, -151.077, 122.235, 88.1709, 0, 0, 4.13927, -55.5491, 4.14424, -174.151, 4.15908, 65.097, 0.0699197, 64.8098
0, 1260.00000, 118.758, -32.4768, 118.886, -151.077, 122.239, 88.1703, 0, 0, 4.13929, -55.5507, 4.14424, -174.151, 4.15895, 65.0964, 0.070147, 64.8087
0, 1320.00000, 118.758, -32.4781, 118.886, -151.077, 122.242, 88.1697, 0, 0, 4.1393, -55.5521, 4.14424, -174.151, 4.15884, 65.0958, 0.0703515, 64.8077
0, 1380.00000, 118.758, -32.4794, 118.886, -151.077, 122.245, 88.1692, 0, 0, 4.1393, -55.5533, 4.14424, -174.151, 4.15873, 65.0953, 0.0705356, 64.8067
0, 1440.00000, 118.758, -32.4805, 118.886, -151.077, 122.248, 88.1688, 0, 0, 4.13931, -55.5544, 4.14424, -174.151, 4.15864, 65.0949, 0.0707013, 64.8059
0, 1500.00000, 118.759, -32.4815, 118.886, -151.077, 122.25, 88.1684, 0, 0, 4.13932, -55.5554, 4.14424, -174.151, 4.15855, 65.0945, 0.0708504, 64.8052
0, 1560.00000, 118.759, -32.4824, 118.886, -151.077, 122.253, 88.168, 0, 0, 4.13933, -55.5564, 4.14424, -174.151, 4.15848, 65.0941, 0.0709846, 64.8045
0, 1620.00000, 118.759, -32.4832, 118.886, -151.077, 122.255, 88.1677, 0, 0, 4.13933, -55.5572, 4.14424, -174.151, 4.15841, 65.0938, 0.0711054, 64.804
0, 1680.00000, 118.759, -32.484, 118.886, -151.077, 122.256, 88.1674, 0, 0, 4.13934, -55.5579, 4.14424, -174.151, 4.15835, 65.0935, 0.0712141, 64.8034
0, 1740.00000, 118.759, -32.4846, 118.886, -151.077, 122.258, 88.1671, 0, 0, 4.13934, -55.5586, 4.14424, -174.151, 4.15829, 65.0932, 0.0713119, 64.8029
0, 1800.00000, 118.759, -32.4852, 118.886, -151.077, 122.259, 88.1669, 0, 0, 4.13935, -55.5592, 4.14423, -174.151, 4.15824, 65.093, 0.0713999, 64.8025
0, 1860.00000, 118.759, -32.4858, 118.886, -151.077, 122.261, 88.1666, 0, 0, 4.13935, -55.5597, 4.14423, -174.151, 4.1582, 65.0927, 0.0714792, 64.8021
0, 1920.00000, 118.76, -32.4863, 118.886, -151.077, 122.262, 88.1665, 0, 0, 4.13936, -55.5602, 4.14423, -174.151, 4.15816, 65.0925, 0.0715505, 64.8018
0, 1980.00000, 118.76, -32.4867, 118.886, -151.077, 122.263, 88.1663, 0, 0, 4.13936, -55.5606, 4.14423, -174.151, 4.15812, 65.0924, 0.0716146, 64.8015
0, 2040.00000, 118.76, -32.4871, 118.886, -151.077, 122.264, 88.1661, 0, 0, 4.13936, -55.561, 4.14423, -174.151, 4.15809, 65.0922, 0.0716724, 64.8012
0, 2100.00000, 118.76, -32.4874, 118.886, -151.077, 122.265, 88.166, 0, 0, 4.13936, -55.5614, 4.14423, -174.151, 4.15806, 65.0921, 0.0717244, 64.8009
0, 2160.00000, 118.76, -32.4878, 118.886, -151.077, 122.265, 88.1658, 0, 0, 4.13937, -55.5617, 4.14423, -174.151, 4.15803, 65.0919, 0.0717712, 64.8007
0, 2220.00000, 118.76, -32.4881, 118.886, -151.077, 122.266, 88.1657, 0, 0, 4.13937, -55.562, 4.14423, -174.151, 4.15801, 65.0918, 0.0718133, 64.8005
0, 2280.00000, 118.76, -32.4883, 118.886, -151.077, 122.267, 88.1656, 0, 0, 4.13937, -55.5622, 4.14423, -174.151, 4.15799, 65.0917, 0.0718512, 64.8003
0, 2340.00000, 118.76, -32.4885, 118.886, -151.077, 122.267, 88.1655, 0, 0, 4.13937, -55.5625, 4.14423, -174.151, 4.15797, 65.0916, 0.0718853, 64.8001
0, 2400.00000, 118.76, -32.4887, 118.886, -151.077, 122.268, 88.1655, 0, 0, 4.13937, -55.5627, 4.14423, -174.151, 4.15795, 65.0915, 0.071916, 64.8
0, 2460.00000, 118.76, -32.4889, 118.886, -151.077, 122.268, 88.1654, 0, 0, 4.13938, -55.5629, 4.14423, -174.151, 4.15793, 65.0915, 0.0719436, 64.7999
0, 2520.00000, 118.76, -32.4891, 118.886, -151.077, 122.269, 88.1653, 0, 0, 4.13938, -55.563, 4.14423, -174.151, 4.15792, 65.0914, 0.0719684, 64.7997
0, 2580.00000, 118.76, -32.4893, 118.886, -151.077, 122.269, 88.1652, 0, 0, 4.13938, -55.5632, 4.14423, -174.151, 4.15791, 65.0913, 0.0719908, 64.7996
0, 2640.00000, 118.76, -32.4894, 118.886, -151.077, 122.269, 88.1652, 0, 0, 4.13938, -55.5633, 4.14423, -174.151, 4.1579, 65.0913, 0.0720109, 64.7995
0, 2700.00000, 118.76, -32.4895, 118.886, -151.077, 122.27, 88.1651, 0, 0, 4.13938, -55.5634, 4.14423, -174.151, 4.15789, 65.0912, 0.0720291, 64.7994
0, 2760.00000, 118.794, -32.4944, 119.293, -150.864, 122.955, 88.1264, 0, 0, 4.14067, -55.5683, 4.16001, -173.938, 4.13472, 65.0525, 0.117541, 63.9914
0, 2820.00000, 118.794, -32.4945, 119.293, -150.864, 122.955, 88.1264, 0, 0, 4.14067, -55.5684, 4.16001, -173.938, 4.13471, 65.0525, 0.117556, 63.9912
0, 2880.00000, 118.794, -32.4946, 119.293, -150.864, 122.955, 88.1264, 0, 0, 4.14067, -55.5685, 4.16001, -173.938, 4.13471, 65.0525, 0.117569, 63.9912
0, 2940.00000, 118.794, -32.4947, 119.293, -150.864, 122.955, 88.1263, 0, 0, 4.14067, -55.5686, 4.16001, -173.938, 4.1347, 65.0524, 0.117581, 63.9912
0, 3000.00000, 118.794, -32.4948, 119.293, -150.864, 122.956, 88.1263, 0, 0, 4.14067, -55.5687, 4.16001, -173.938, 4.13469, 65.0524, 0.117592, 63.9913
0, 3060.00000, 118.794, -32.4948, 119.293, -150.864, 122.956, 88.1263, 0, 0, 4.14067, -55.5687, 4.16001, -173.938, 4.13469, 65.0524, 0.117601, 63.9913
0, 3120.00000, 118.794, -32.4949, 119.293, -150.864, 122.956, 88.1263, 0, 0, 4.14068, -55.5688, 4.16001, -173.938, 4.13468, 65.0523, 0.11761, 63.9913
0, 3180.00000, 118.794, -32.4949, 119.293, -150.864, 122.956, 88.1262, 0, 0, 4.14068, -55.5689, 4.16001, -173.938, 4.13468, 65.0523, 0.117618, 63.9913
0, 3240.00000, 118.794, -32.495, 119.293, -150.864, 122.956, 88.1262, 0, 0, 4.14068, -55.5689, 4.16001, -173.938, 4.13468, 65.0523, 0.117625, 63.9914
0, 3300.00000, 118.794, -32.495, 119.293, -150.864, 122.956, 88.1262, 0, 0, 4.14068, -55.569, 4.16001, -173.938, 4.13467, 65.0523, 0.117631, 63.9914
0, 3360.00000, 118.794, -32.4951, 119.293, -150.864, 122.956, 88.1262, 0, 0, 4.14068, -55.569, 4.16001, -173.938, 4.13467, 65.0523, 0.117636, 63.9914
0, 3420.00000, 118.794, -32.4951, 119.293, -150.864, 122.956, 88.1262, 0, 0, 4.14068, -55.569, 4.16001, -173.938, 4.13467, 65.0523, 0.117642, 63.9914
0, 3480.00000, 118.794, -32.4951, 119.293, -150.864, 122.956, 88.1262, 0, 0, 4.14068, -55.5691, 4.16001, -173.938, 4.13466, 65.0522, 0.117646, 63.9914
0, 3540.00000, 118.794, -32.4952, 119.293, -150.864, 122.956, 88.1262, 0, 0, 4.14068, -55.5691, 4.16001, -173.938, 4.13466, 65.0522, 0.11765, 63.9914
1, 0.00000, 118.794, -32.4952, 119.293, -150.864, 122.957, 88.1261, 0, 0, 4.14068, -55.5691, 4.16001, -173.938, 4.13466, 65.0522, 0.117654, 63.9914
1, 60.00000, 118.996, -32.3324, 119.704, -150.861, 122.937, 88.1308, 0, 0, 4.14852, -55.4063, 4.17589, -173.935, 4.13531, 65.0568, 0.119202, 63.4653
1, 120.00000, 118.996, -32.3324, 119.704, -150.861, 122.937, 88.1308, 0, 0, 4.14852, -55.4063, 4.17589, -173.935, 4.13531, 65.0568, 0.119205, 63.4653
1, 180.00000, 118.996, -32.3324, 119.704, -150.861, 122.937, 88.1308, 0, 0, 4.14852, -55.4063, 4.17589, -173.935, 4.1353, 65.0568, 0.119208, 63.4653
1, 240.00000, 118.996, -32.3324, 119.704, -150.861, 122.937, 88.1307, 0, 0, 4.14852, -55.4064, 4.17589, -173.935, 4.1353, 65.0568, 0.11921, 63.4653
1, 300.00000, 118.996, -32.3325, 119.704, -150.861, 122.937, 88.1307, 0, 0, 4.14852, -55.4064, 4.17589, -173.935, 4.1353, 65.0568, 0.119212, 63.4653
1, 360.00000, 118.996, -32.3325, 119.704, -150.861, 122.937, 88.1307, 0, 0, 4.14852, -55.4064, 4.17589, -173.935, 4.1353, 65.0568, 0.119214, 63.4654
1, 420.00000, 118.996, -32.3325, 119.704, -150.861, 122.937, 88.1307, 0, 0, 4.14852, -55.4064, 4.17589, -173.935, 4.1353, 65.0568, 0.119216, 63.4654
1, 480.00000, 118.996, -32.3325, 119.704, -150.861, 122.938, 88.1307, 0, 0, 4.14852, -55.4064, 4.17589, -173.935, 4.1353, 65.0568, 0.119218, 63.4654
1, 540.00000, 118.996, -32.3325, 119.704, -150.861, 122.938, 88.1307, 0, 0, 4.14852, -55.4064, 4.17589, -173.935, 4.1353, 65.0568, 0.119219, 63.4654
1, 600.00000, 118.996, -32.3325, 119.704, -150.861, 122.938, 88.1307, 0, 0, 4.14852, -55.4064, 4.17589, -173.935, 4.1353, 65.0568, 0.119221, 63.4654
1, 660.00000, 118.996, -32.3325, 119.704, -150.861, 122.938, 88.1307, 0, 0, 4.14852, -55.4064, 4.17589, -173.935, 4.1353, 65.0568, 0.119222, 63.4654
1, 720.00000, 118.996, -32.3325, 119.704, -150.861, 122.938, 88.1307, 0, 0, 4.14852, -55.4064, 4.17589, -173.935, 4.1353, 65.0568, 0.119223, 63.4654
1, 780.00000, 118.996, -32.3325, 119.704, -150.861, 122.938, 88.1307, 0, 0, 4.14852, -55.4064, 4.17589, -173.935, 4.13529, 65.0568, 0.119224, 63.4654
1, 840.00000, 118.996, -32.3325, 119.704, -150.861, 122.938, 88.1307, 0, 0, 4.14852, -55.4065, 4.17589, -173.935, 4.13529, 65.0568, 0.119225, 63.4654
1, 900.00000, 118.996, -32.3325, 119.704, -150.861, 122.938, 88.1307, 0, 0, 4.14852, -55.4065, 4.17589, -173.935, 4.13529, 65.0568, 0.119225, 63.4654
1, 960.00000, 118.996, -32.3325, 119.704, -150.861, 122.938, 88.1307, 0, 0, 4.14852, -55.4065, 4.17589, -173.935, 4.13529, 65.0568, 0.119226, 63.4654
1, 1020.00000, 118.996, -32.3326, 119.704, -150.861, 122.938, 88.1307, 0, 0, 4.14852, -55.4065, 4.17589, -173.935, 4.13529, 65.0568, 0.119227, 63.4654
1, 1080.00000, 118.996, -32.3326, 119.704, -150.861, 122.938, 88.1307, 0, 0, 4.14852, -55.4065, 4.17589, -173.935, 4.13529, 65.0568, 0.119227, 63.4654
1, 1140.00000, 118.996, -32.3326, 119.704, -150.861, 122.938, 88.1307, 0, 0, 4.14852, -55.4065, 4.17589, -173.935, 4.13529, 65.0568, 0.119228, 63.4655
1, 1200.00000, 118.996, -32.3326, 119.704, -150.861, 122.938, 88.1307, 0, 0, 4.14852, -55.4065, 4.17589, -173.935, 4.13529, 65.0568, 0.119228, 63.4655
1, 1260.00000, 118.996, -32.3326, 119.704, -150.861, 122.938, 88.1307, 0, 0, 4.14852, -55.4065, 4.17589, -173.935, 4.13529, 65.0568, 0.119229, 63.4655
1, 1320.00000, 118.996, -32.3326, 119.704, -150.861, 122.938, 88.1307, 0, 0, 4.14852, -55.4065, 4.17589, -173.935, 4.13529, 65.0568, 0.119229, 63.4655
1, 1380.00000, 118.996, -32.3326, 119.704, -150.861, 122.938, 88.1307, 0, 0, 4.14852, -55.4065, 4.17589, -173.935, 4.13529, 65.0568, 0.119229, 63.4655
1, 1440.00000, 118.996, -32.3326, 119.704, -150.861, 122.938, 88.1307, 0, 0, 4.14852, -55.4065, 4.17589, -173.935, 4.13529, 65.0568, 0.11923, 63.4655
1, 1500.00000, 118.996, -32.3326, 119.704, -150.861, 122.938, 88.1307, 0, 0, 4.14852, -55.4065, 4.17589, -173.935, 4.13529, 65.0568, 0.11923, 63.4655
1, 1560.00000, 118.996, -32.3326, 119.704, -150.861, 122.938, 88.1307, 0, 0, 4.14852, -55.4065, 4.17589, -173.935, 4.13529, 65.0568, 0.11923, 63.4655
1, 1620.00000, 118.996, -32.3326, 119.704, -150.861, 122.938, 88.1307, 0, 0, 4.14852, -55.4065, 4.17589, -173.935, 4.13529, 65.0568, 0.11923, 63.4655
1, 1680.00000, 118.996, -32.3326, 119.704, -150.861, 122.938, 88.1307, 0, 0, 4.14852, -55.4065, 4.17589, -173.935, 4.13529, 65.0568, 0.11923, 63.4655
1, 1740.00000, 118.996, -32.3326, 119.704, -150.861, 122.938, 88.1307, 0, 0, 4.14852, -55.4065, 4.17589, -173.935, 4.13529, 65.0568, 0.119231, 63.4655
1, 1800.00000, 118.996, -32.3326, 119.704, -150.861, 122.938, 88.1307, 0, 0, 4.14852, -55.4065, 4.17589, -173.935, 4.13529, 65.0568, 0.119231, 63.4655
1, 1860.00000, 118.996, -32.3326, 119.704, -150.861, 122.938, 88.1307, 0, 0, 4.14852, -55.4065, 4.17589, -173.935, 4.13529, 65.0568, 0.119231, 63.4655
1, 1920.00000, 118.996, -32.3326, 119.704, -150.861, 122.938, 88.1307, 0, 0, 4.14852, -55.4065, 4.17589, -173.935, 4.13529, 65.0568, 0.119231, 63.4655
1, 1980.00000, 118.996, -32.3326, 119.704, -150.861, 122.938, 88.1307, 0, 0, 4.14852, -55.4065, 4.17589, -173.935, 4.13529, 65.0568, 0.119231, 63.4655
1, 2040.00000, 118.996, -32.3326, 119.704, -150.861, 122.938, 88.1307, 0, 0, 4.14852, -55.4065, 4.17589, -173.935, 4.13529, 65.0568, 0.119231, 63.4655
1, 2100.00000, 118.996, -32.3326, 119.704, -150.861, 122.938, 88.1307, 0, 0, 4.14852, -55.4065, 4.17589, -173.935, 4.13529, 65.0568, 0.119231, 63.4655
1, 2160.00000, 118.996, -32.3326, 119.704, -150.861, 122.938, 88.1307, 0, 0, 4.14852, -55.4065, 4.17589, -173.935, 4.13529, 65.0568, 0.119231, 63.4655
1, 2220.00000, 118.996, -32.3326, 119.704, -150.861, 122.938, 88.1307, 0, 0, 4.14852, -55.4065, 4.17589, -173.935, 4.13529, 65.0568, 0.119232, 63.4655
1, 2280.00000, 118.996, -32.3326, 119.704, -150.861, 122.938, 88.1307, 0, 0, 4.14852, -55.4065, 4.17589, -173.935, 4.13529, 65.0568, 0.119232, 63.4655
1, 2340.00000, 118.996, -32.3326, 119.704, -150.861, 122.938, 88.1307, 0, 0, 4.14852, -55.4065, 4.17589, -173.935, 4.13529, 65.0568, 0.119232, 63.4655
1, 2400.00000, 118.996, -32.3326, 119.704, -150.861, 122.938, 88.1307, 0, 0, 4.14852, -55.4065, 4.17589, -173.935, 4.13529, 65.0568, 0.119232, 63.4655
1, 2460.00000, 118.996, -32.3326, 119.704, -150.861, 122.938, 88.1307, 0, 0, 4.14852, -55.4065, 4.17589, -173.935, 4.13529, 65.0568, 0.119232, 63.4655
1, 2520.00000, 118.996, -32.3326, 119.704, -150.861, 122.938, 88.1307, 0, 0, 4.14852, -55.4065, 4.17589, -173.935, 4.13529, 65.0568, 0.119232, 63.4655
1, 2580.00000, 118.996, -32.3326, 119.704, -150.861, 122.938, 88.1307, 0, 0, 4.14852, -55.4065, 4.17589, -173.935, 4.13529, 65.0568, 0.119232, 63.4655
1, 2640.00000, 118.996, -32.3326, 119.704, -150.861, 122.938, 88.1307, 0, 0, 4.14852, -55.4065, 4.17589, -173.935, 4.13529, 65.0568, 0.119232, 63.4655
1, 2700.00000, 118.996, -32.3326, 119.704, -150.861, 122.938, 88.1307, 0, 0, 4.14852, -55.4065, 4.17589, -173.935, 4.13529, 65.0568, 0.119232, 63.4655
1, 2760.00000, 118.996, -32.3326, 119.704, -150.861, 122.938, 88.1307, 0, 0, 4.14852, -55.4065, 4.17589, -173.935, 4.13529, 65.0568, 0.119232, 63.4655
1, 2820.00000, 118.996, -32.3326, 119.704, -150.861, 122.938, 88.1307, 0, 0, 4.14852, -55.4065, 4.17589, -173.935, 4.13529, 65.0568, 0.119232, 63.4655
1, 2880.00000, 118.996, -32.3326, 119.704, -150.861, 122.938, 88.1307, 0, 0, 4.14852, -55.4065, 4.17589, -173.935, 4.13529, 65.0568, 0.119232, 63.4655
1, 2940.00000, 118.996, -32.3326, 119.704, -150.861, 122.938, 88.1307, 0, 0, 4.14852, -55.4065, 4.17589, -173.935, 4.13529, 65.0568, 0.119232, 63.4655
1, 3000.00000, 118.996, -32.3326, 119.704, -150.861, 122.938, 88.1307, 0, 0, 4.14852, -55.4065, 4.17589, -173.935, 4.13529, 65.0568, 0.119232, 63.4655
1, 3060.00000, 118.996, -32.3326, 119.704, -150.861, 122.938, 88.1307, 0, 0, 4.14852, -55.4065, 4.17589, -173.935, 4.13529, 65.0568, 0.119232, 63.4655
1, 3120.00000, 118.996, -32.3326, 119.704, -150.861, 122.938, 88.1307, 0, 0, 4.14852, -55.4065, 4.17589, -173.935, 4.13529, 65.0568, 0.119232, 63.4655
1, 3180.00000, 118.996, -32.3326, 119.704, -150.861, 122.938, 88.1307, 0, 0, 4.14852, -55.4065, 4.17589, -173.935, 4.13529, 65.0568, 0.119232, 63.4655
1, 3240.00000, 118.996, -32.3326, 119.704, -150.861, 122.938, 88.1307, 0, 0, 4.14852, -55.4065, 4.17589, -173.935, 4.13529, 65.0568, 0.119232, 63.4655
1, 3300.00000, 118.996, -32.3326, 119.704, -150.861, 122.938, 88.1307, 0, 0, 4.14852, -55.4065, 4.17589, -173.935, 4.13529, 65.0568, 0.119232, 63.4655
1, 3360.00000, 118.996, -32.3326, 119.704, -150.861, 122.938, 88.1307, 0, 0, 4.14852, -55.4065, 4.17589, -173.935, 4.13529, 65.0568, 0.119232, 63.4655
1, 3420.00000, 118.996, -32.3326, 119.704, -150.861, 122.938, 88.1307, 0, 0, 4.14852, -55.4065, 4.17589, -173.935, 4.13529, 65.0568, 0.119232, 63.4655
1, 3480.00000, 118.996, -32.3326, 119.704, -150.861, 122.938, 88.1307, 0, 0, 4.14852, -55.4065, 4.17589, -173.935, 4.13529, 65.0568, 0.119232, 63.4655
1, 3540.00000, 118.996, -32.3326, 119.704, -150.861, 122.938, 88.1307, 0, 0, 4.14852, -55.4065, 4.17589, -173.935, 4.13529, 65.0568, 0.119232, 63.4655
2, 0.00000, 118.996, -32.3326, 119.704, -150.861, 122.938, 88.1307, 0, 0, 4.14852, -55.4065, 4.17589, -173.935, 4.13529, 65.0568, 0.119232, 63.4655
2, 60.00000, 118.996, -32.3326, 119.704, -150.861, 122.938, 88.1307, 0, 0, 4.14852, -55.4065, 4.17589, -173.935, 4.13529, 65.0568, 0.119232, 63.4655
2, 120.00000, 118.996, -32.3326, 119.704, -150.861, 122.938, 88.1307, 0, 0, 4.14852, -55.4065, 4.17589, -173.935, 4.13529, 65.0568, 0.119232, 63.4655
2, 180.00000, 118.996, -32.3326, 119.704, -150.861, 122.938, 88.1307, 0, 0, 4.14852, -55.4065, 4.17589, -173.935, 4.13529, 65.0568, 0.119232, 63.4655
2, 240.00000, 118.996, -32.3326, 119.704, -150.861, 122.938, 88.1307, 0, 0, 4.14852, -55.4065, 4.17589, -173.935, 4.13529, 65.0568, 0.119232, 63.4655
2, 300.00000, 118.996, -32.3326, 119.704, -150.861, 122.938, 88.1307, 0, 0, 4.14852, -55.4065, 4.17589, -173.935, 4.13529, 65.0568, 0.119232, 63.4655
2, 360.00000, 118.996, -32.3326, 119.704, -150.861, 122.938, 88.1307, 0, 0, 4.14852, -55.4065, 4.17589, -173.935, 4.13529, 65.0568, 0.119232, 63.4655
2, 420.00000, 118.996, -32.3326, 119.704, -150.861, 122.938, 88.1307, 0, 0, 4.14852, -55.4065, 4.17589, -173.935, 4.13529, 65.0568, 0.119232, 63.4655
2, 480.00000, 118.996, -32.3326, 119.704, -150.861, 122.938, 88.1307, 0, 0, 4.14852, -55.4065, 4.17589, -173.935, 4.13529, 65.0568, 0.119232, 63.4655
2, 540.00000, 118.996, -32.3326, 119.704, -150.861, 122.938, 88.1307, 0, 0, 4.14852, -55.4065, 4.17589, -173.935, 4.13529, 65.0568, 0.119232, 63.4655
2, 600.00000, 118.996, -32.3326, 119.704, -150.861, 122.938, 88.1307, 0, 0, 4.14852, -55.4065, 4.17589, -173.935, 4.13529, 65.0568, 0.119232, 63.4655
2, 660.00000, 118.996, -32.3326, 119.704, -150.861, 122.938, 88.1307, 0, 0, 4.14852, -55.4065, 4.17589, -173.935, 4.13529, 65.0568, 0.119232, 63.4655
2, 720.00000, 118.996, -32.3326, 119.704, -150.861, 122.938, 88.1307, 0, 0, 4.14852, -55.4065, 4.17589, -173.935, 4.13529, 65.0568, 0.119232, 63.4655
