hour,t(sec),V1,VAngle1,V2,VAngle2,V3,VAngle3,V4,VAngle4,I1,IAngle1,I2,IAngle2,I3,IAngle3,I4,IAngle4
0, 60.00000, 123.983, -32.2069, 123.331, -151.33, 125.865, 88.5155, 0, 0, 3.71017, -55.2806, 3.72984, -174.403, 3.65483, 65.4418, 0.119684, 48.1265
0, 120.00000, 123.989, -32.2139, 123.33, -151.33, 125.884, 88.5143, 0, 0, 3.71002, -55.2877, 3.72984, -174.403, 3.65426, 65.4406, 0.120616, 48.1172
0, 180.00000, 123.993, -32.2203, 123.33, -151.33, 125.901, 88.5132, 0, 0, 3.70988, -55.2941, 3.72985, -174.403, 3.65376, 65.4394, 0.121453, 48.1097
0, 240.00000, 123.997, -32.2261, 123.33, -151.33, 125.917, 88.5121, 0, 0, 3.70976, -55.2998, 3.72986, -174.404, 3.6533, 65.4384, 0.122207, 48.1035
0, 300.00000, 124.001, -32.2312, 123.33, -151.33, 125.931, 88.5112, 0, 0, 3.70965, -55.305, 3.72987, -174.404, 3.65289, 65.4374, 0.122886, 48.0984
0, 360.00000, 124.004, -32.2359, 123.329, -151.33, 125.943, 88.5104, 0, 0, 3.70955, -55.3097, 3.72987, -174.404, 3.65252, 65.4366, 0.123497, 48.0943
0, 420.00000, 124.007, -32.2401, 123.329, -151.33, 125.955, 88.5096, 0, 0, 3.70947, -55.3139, 3.72988, -174.404, 3.65218, 65.4358, 0.124047, 48.0909
0, 480.00000, 124.01, -32.2439, 123.329, -151.33, 125.965, 88.5089, 0, 0, 3.70939, -55.3177, 3.72988, -174.404, 3.65188, 65.4351, 0.124542, 48.088
0, 540.00000, 124.013, -32.2473, 123.329, -151.33, 125.974, 88.5083, 0, 0, 3.70932, -55.3211, 3.72989, -174.404, 3.65161, 65.4344, 0.124988, 48.0857
0, 600.00000, 124.015, -32.2504, 123.329, -151.33, 125.982, 88.5077, 0, 0, 3.70925, -55.3242, 3.72989, -174.404, 3.65137, 65.4339, 0.125389, 48.0837
0, 660.00000, 124.017, -32.2531, 123.329, -151.33, 125.99, 88.5072, 0, 0, 3.70919, -55.327, 3.72989, -174.404, 3.65115, 65.4333, 0.12575, 48.0821
0, 720.00000, 124.018, -32.2556, 123.329, -151.33, 125.996, 88.5067, 0, 0, 3.70914, -55.3294, 3.7299, -174.404, 3.65095, 65.4329, 0.126075, 48.0807
0, 780.00000, 124.02, -32.2578, 123.329, -151.33, 126.002, 88.5063, 0, 0, 3.7091, -55.3317, 3.7299, -174.404, 3.65078, 65.4324, 0.126368, 48.0796
0, 840.00000, 124.021, -32.2599, 123.329, -151.33, 126.008, 88.5059, 0, 0, 3.70906, -55.3337, 3.7299, -174.404, 3.65062, 65.4321, 0.126631, 48.0787
0, 900.00000, 124.023, -32.2617, 123.329, -151.33, 126.013, 88.5056, 0, 0, 3.70902, -55.3355, 3.7299, -174.404, 3.65047, 65.4317, 0.126868, 48.0778
0, 960.00000, 123.877, -32.2915, 123.106, -151.484, 125.565, 88.436, 0, 0, 3.92828, -55.3654, 3.95289, -174.558, 3.8755, 65.3621, 0.121078, 44.1714
0, 1020.00000, 123.878, -32.293, 123.106, -151.484, 125.569, 88.4357, 0, 0, 3.92825, -55.3669, 3.95289, -174.558, 3.87537, 65.3618, 0.121281, 44.1773
0, 1080.00000, 123.879, -32.2943, 123.106, -151.484, 125.573, 88.4355, 0, 0, 3.92822, -55.3682, 3.95289, -174.558, 3.87526, 65.3616, 0.121464, 44.1827
0, 1140.00000, 123.88, -32.2955, 123.106, -151.484, 125.576, 88.4352, 0, 0, 3.9282, -55.3694, 3.95289, -174.558, 3.87516, 65.3614, 0.121629, 44.1875
0, 1200.00000, 123.88, -32.2966, 123.106, -151.484, 125.579, 88.435, 0, 0, 3.92817, -55.3704, 3.9529, -174.558, 3.87507, 65.3612, 0.121777, 44.1919
0, 1260.00000, 123.881, -32.2975, 123.106, -151.484, 125.581, 88.4349, 0, 0, 3.92815, -55.3714, 3.9529, -174.558, 3.87499, 65.361, 0.121911, 44.1958
0, 1320.00000, 123.882, -32.2984, 123.106, -151.484, 125.584, 88.4347, 0, 0, 3.92814, -55.3723, 3.9529, -174.558, 3.87492, 65.3608, 0.122031, 44.1994
0, 1380.00000, 123.882, -32.2992, 123.106, -151.484, 125.586, 88.4345, 0, 0, 3.92812, -55.3731, 3.9529, -174.558, 3.87485, 65.3606, 0.122139, 44.2026
0, 1440.00000, 123.883, -32.2999, 123.106, -151.484, 125.588, 88.4344, 0, 0, 3.9281, -55.3738, 3.9529, -174.558, 3.87479, 65.3605, 0.122237, 44.2055
0, 1500.00000, 123.883, -32.3005, 123.106, -151.484, 125.589, 88.4343, 0, 0, 3.92809, -55.3744, 3.9529, -174.558, 3.87474, 65.3604, 0.122324, 44.2081
0, 1560.00000, 123.884, -32.3011, 123.106, -151.484, 125.591, 88.4342, 0, 0, 3.92808, -55.375, 3.9529, -174.558, 3.87469, 65.3603, 0.122403, 44.2104
0, 1620.00000, 123.884, -32.3016, 123.106, -151.484, 125.592, 88.4341, 0, 0, 3.92807, -55.3755, 3.9529, -174.558, 3.87465, 65.3602, 0.122474, 44.2125
0, 1680.00000, 123.884, -32.302, 123.106, -151.484, 125.593, 88.434, 0, 0, 3.92806, -55.3759, 3.9529, -174.558, 3.87461, 65.3601, 0.122538, 44.2144
0, 1740.00000, 123.884, -32.3024, 123.106, -151.484, 125.594, 88.4339, 0, 0, 3.92805, -55.3763, 3.9529, -174.558, 3.87457, 65.36, 0.122596, 44.2161
0, 1800.00000, 123.885, -32.3028, 123.106, -151.484, 125.595, 88.4338, 0, 0, 3.92804, -55.3767, 3.9529, -174.558, 3.87454, 65.3599, 0.122647, 44.2177
0, 1860.00000, 123.965, -32.2846, 123.182, -151.464, 125.683, 88.4554, 0, 0, 3.93742, -55.3585, 3.96245, -174.538, 3.88361, 65.3815, 0.123357, 44.1878
0, 1920.00000, 123.965, -32.2849, 123.182, -151.464, 125.683, 88.4553, 0, 0, 3.93741, -55.3588, 3.96245, -174.538, 3.88359, 65.3814, 0.1234, 44.1891
0, 1980.00000, 123.965, -32.2852, 123.182, -151.464, 125.684, 88.4553, 0, 0, 3.93741, -55.3591, 3.96245, -174.538, 3.88356, 65.3813, 0.123438, 44.1903
0, 2040.00000, 123.966, -32.2855, 123.182, -151.464, 125.685, 88.4552, 0, 0, 3.9374, -55.3594, 3.96245, -174.538, 3.88354, 65.3813, 0.123472, 44.1913
0, 2100.00000, 123.966, -32.2857, 123.182, -151.464, 125.685, 88.4552, 0, 0, 3.9374, -55.3596, 3.96245, -174.538, 3.88352, 65.3813, 0.123503, 44.1922
0, 2160.00000, 123.966, -32.2859, 123.182, -151.464, 125.686, 88.4551, 0, 0, 3.93739, -55.3598, 3.96245, -174.538, 3.88351, 65.3812, 0.123531, 44.1931
0, 2220.00000, 123.966, -32.2861, 123.182, -151.464, 125.686, 88.4551, 0, 0, 3.93739, -55.36, 3.96245, -174.538, 3.88349, 65.3812, 0.123555, 44.1938
0, 2280.00000, 123.966, -32.2862, 123.182, -151.464, 125.687, 88.4551, 0, 0, 3.93739, -55.3601, 3.96245, -174.538, 3.88348, 65.3812, 0.123578, 44.1945
0, 2340.00000, 123.966, -32.2864, 123.182, -151.464, 125.687, 88.455, 0, 0, 3.93738, -55.3603, 3.96245, -174.538, 3.88347, 65.3811, 0.123598, 44.1951
0, 2400.00000, 123.966, -32.2865, 123.182, -151.464, 125.688, 88.455, 0, 0, 3.93738, -55.3604, 3.96245, -174.538, 3.88346, 65.3811, 0.123616, 44.1957
0, 2460.00000, 123.966, -32.2866, 123.182, -151.464, 125.688, 88.455, 0, 0, 3.93738, -55.3605, 3.96245, -174.538, 3.88345, 65.3811, 0.123632, 44.1962
0, 2520.00000, 123.966, -32.2867, 123.182, -151.464, 125.688, 88.455, 0, 0, 3.93737, -55.3606, 3.96245, -174.538, 3.88344, 65.3811, 0.123647, 44.1966
0, 2580.00000, 123.966, -32.2868, 123.182, -151.464, 125.688, 88.4549, 0, 0, 3.93737, -55.3607, 3.96245, -174.538, 3.88343, 65.381, 0.12366, 44.197
0, 2640.00000, 123.967, -32.2869, 123.182, -151.464, 125.689, 88.4549, 0, 0, 3.93737, -55.3608, 3.96245, -174.538, 3.88342, 65.381, 0.123672, 44.1974
0, 2700.00000, 123.967, -32.287, 123.182, -151.464, 125.689, 88.4549, 0, 0, 3.93737, -55.3609, 3.96245, -174.538, 3.88342, 65.381, 0.123683, 44.1977
0, 2760.00000, 124.157, -32.2484, 123.363, -151.422, 125.881, 88.5, 0, 0, 3.73925, -55.3223, 3.76333, -174.496, 3.68805, 65.4261, 0.117908, 44.0354
0, 2820.00000, 124.157, -32.2485, 123.363, -151.422, 125.881, 88.5, 0, 0, 3.73925, -55.3224, 3.76333, -174.496, 3.68805, 65.4261, 0.117919, 44.0358
0, 2880.00000, 124.157, -32.2486, 123.363, -151.422, 125.881, 88.5, 0, 0, 3.73925, -55.3225, 3.76333, -174.496, 3.68804, 65.4261, 0.117926, 44.036
0, 2940.00000, 124.158, -32.2486, 123.363, -151.422, 125.881, 88.5, 0, 0, 3.73924, -55.3225, 3.76333, -174.496, 3.68804, 65.4261, 0.117933, 44.0363
0, 3000.00000, 124.158, -32.2486, 123.363, -151.422, 125.882, 88.5, 0, 0, 3.73924, -55.3226, 3.76333, -174.496, 3.68803, 65.4261, 0.117939, 44.0365
0, 3060.00000, 124.158, -32.2487, 123.363, -151.422, 125.882, 88.5, 0, 0, 3.73924, -55.3226, 3.76333, -174.496, 3.68803, 65.4261, 0.117944, 44.0367
0, 3120.00000, 124.158, -32.2487, 123.363, -151.422, 125.882, 88.5, 0, 0, 3.73924, -55.3226, 3.76333, -174.496, 3.68803, 65.426, 0.117949, 44.0368
0, 3180.00000, 124.158, -32.2488, 123.363, -151.422, 125.882, 88.5, 0, 0, 3.73924, -55.3227, 3.76333, -174.496, 3.68803, 65.426, 0.117953, 44.037
0, 3240.00000, 124.158, -32.2488, 123.363, -151.422, 125.882, 88.5, 0, 0, 3.73924, -55.3227, 3.76333, -174.496, 3.68802, 65.426, 0.117957, 44.0371
0, 3300.00000, 124.158, -32.2488, 123.363, -151.422, 125.882, 88.4999, 0, 0, 3.73924, -55.3227, 3.76333, -174.496, 3.68802, 65.426, 0.117961, 44.0372
0, 3360.00000, 124.158, -32.2488, 123.363, -151.422, 125.882, 88.4999, 0, 0, 3.73924, -55.3228, 3.76333, -174.496, 3.68802, 65.426, 0.117964, 44.0373
0, 3420.00000, 124.158, -32.2489, 123.363, -151.422, 125.882, 88.4999, 0, 0, 3.73924, -55.3228, 3.76333, -174.496, 3.68802, 65.426, 0.117967, 44.0374
0, 3480.00000, 124.543, -32.0392, 123.966, -151.461, 125.835, 88.5084, 0, 0, 3.72768, -55.1131, 3.74501, -174.535, 3.68939, 65.4345, 0.0856584, 43.522
0, 3540.00000, 124.54, -32.0389, 124.048, -151.337, 126.139, 88.5445, 0, 0, 3.72776, -55.1128, 3.74255, -174.411, 3.68051, 65.4706, 0.0982346, 48.8669
1, 0.00000, 124.54, -32.0389, 124.048, -151.337, 126.139, 88.5445, 0, 0, 3.72776, -55.1128, 3.74255, -174.411, 3.6805, 65.4706, 0.0982391, 48.8669
1, 60.00000, 124.657, -32.0114, 124.161, -151.307, 126.261, 88.5761, 0, 0, 3.68071, -55.0853, 3.69544, -174.38, 3.63398, 65.5022, 0.0973475, 48.7894
1, 120.00000, 124.657, -32.0114, 124.161, -151.307, 126.261, 88.5761, 0, 0, 3.68071, -55.0853, 3.69544, -174.38, 3.63397, 65.5022, 0.0973508, 48.7895
1, 180.00000, 124.657, -32.0114, 124.161, -151.307, 126.261, 88.5761, 0, 0, 3.68071, -55.0853, 3.69544, -174.38, 3.63397, 65.5022, 0.0973523, 48.7894
1, 240.00000, 124.657, -32.0114, 124.161, -151.307, 126.261, 88.5761, 0, 0, 3.68071, -55.0853, 3.69544, -174.38, 3.63397, 65.5022, 0.0973537, 48.7894
1, 300.00000, 124.657, -32.0114, 124.161, -151.307, 126.261, 88.5761, 0, 0, 3.68071, -55.0853, 3.69544, -174.38, 3.63397, 65.5021, 0.0973549, 48.7894
1, 360.00000, 124.657, -32.0114, 124.161, -151.307, 126.261, 88.5761, 0, 0, 3.68071, -55.0854, 3.69544, -174.38, 3.63397, 65.5021, 0.097356, 48.7894
1, 420.00000, 124.657, -32.0114, 124.161, -151.307, 126.261, 88.5761, 0, 0, 3.68071, -55.0854, 3.69544, -174.38, 3.63397, 65.5021, 0.097357, 48.7894
1, 480.00000, 124.657, -32.0114, 124.161, -151.307, 126.261, 88.5761, 0, 0, 3.68071, -55.0854, 3.69544, -174.38, 3.63397, 65.5021, 0.0973579, 48.7894
1, 540.00000, 124.657, -32.0115, 124.161, -151.307, 126.261, 88.5761, 0, 0, 3.68071, -55.0854, 3.69544, -174.38, 3.63397, 65.5021, 0.0973587, 48.7894
1, 600.00000, 125.104, -32.0143, 124.151, -151.309, 126.555, 88.7444, 0, 0, 3.66757, -55.0882, 3.69573, -174.383, 3.62552, 65.6704, 0.107713, 37.621
1, 660.00000, 125.104, -32.0143, 124.151, -151.309, 126.555, 88.7444, 0, 0, 3.66757, -55.0882, 3.69573, -174.383, 3.62552, 65.6705, 0.107715, 37.6213
1, 720.00000, 125.104, -32.0143, 124.151, -151.309, 126.555, 88.7444, 0, 0, 3.66757, -55.0882, 3.69573, -174.383, 3.62552, 65.6705, 0.107716, 37.6213
1, 780.00000, 125.104, -32.0143, 124.151, -151.309, 126.555, 88.7444, 0, 0, 3.66757, -55.0882, 3.69573, -174.383, 3.62552, 65.6704, 0.107716, 37.6214
1, 840.00000, 125.104, -32.0143, 124.151, -151.309, 126.555, 88.7444, 0, 0, 3.66757, -55.0882, 3.69573, -174.383, 3.62552, 65.6704, 0.107717, 37.6214
1, 900.00000, 125.104, -32.0143, 124.151, -151.309, 126.555, 88.7444, 0, 0, 3.66757, -55.0882, 3.69573, -174.383, 3.62552, 65.6704, 0.107717, 37.6215
1, 960.00000, 125.127, -32.0104, 124.172, -151.304, 126.577, 88.7491, 0, 0, 3.64973, -55.0843, 3.67779, -174.378, 3.60792, 65.6752, 0.107241, 37.5956
1, 1020.00000, 125.127, -32.0104, 124.172, -151.304, 126.577, 88.7491, 0, 0, 3.64973, -55.0843, 3.67779, -174.378, 3.60792, 65.6752, 0.107243, 37.5959
1, 1080.00000, 125.127, -32.0104, 124.172, -151.304, 126.577, 88.7491, 0, 0, 3.64973, -55.0843, 3.67779, -174.378, 3.60792, 65.6752, 0.107243, 37.596
1, 1140.00000, 125.127, -32.0104, 124.172, -151.304, 126.577, 88.7491, 0, 0, 3.64973, -55.0843, 3.67779, -174.378, 3.60792, 65.6752, 0.107244, 37.596
1, 1200.00000, 125.127, -32.0104, 124.172, -151.304, 126.577, 88.7491, 0, 0, 3.64973, -55.0843, 3.67779, -174.378, 3.60792, 65.6752, 0.107244, 37.596
1, 1260.00000, 125.127, -32.0104, 124.172, -151.304, 126.577, 88.7491, 0, 0, 3.64973, -55.0843, 3.67779, -174.378, 3.60792, 65.6752, 0.107244, 37.5961
1, 1320.00000, 125.127, -32.0104, 124.172, -151.304, 126.577, 88.7491, 0, 0, 3.64973, -55.0843, 3.67779, -174.378, 3.60792, 65.6752, 0.107244, 37.5961
1, 1380.00000, 125.127, -32.0104, 124.172, -151.304, 126.577, 88.7491, 0, 0, 3.64973, -55.0843, 3.67779, -174.378, 3.60792, 65.6752, 0.107244, 37.5961
1, 1440.00000, 125.127, -32.0104, 124.172, -151.304, 126.577, 88.7491, 0, 0, 3.64973, -55.0843, 3.67779, -174.378, 3.60792, 65.6752, 0.107245, 37.5961
1, 1500.00000, 125.127, -32.0104, 124.172, -151.304, 126.577, 88.7491, 0, 0, 3.64973, -55.0843, 3.67779, -174.378, 3.60792, 65.6752, 0.107245, 37.5961
1, 1560.00000, 125.127, -32.0104, 124.172, -151.304, 126.577, 88.7491, 0, 0, 3.64973, -55.0843, 3.67779, -174.378, 3.60792, 65.6752, 0.107245, 37.5961
1, 1620.00000, 125.127, -32.0104, 124.172, -151.304, 126.577, 88.7491, 0, 0, 3.64973, -55.0843, 3.67779, -174.378, 3.60792, 65.6752, 0.107245, 37.5961
1, 1680.00000, 125.127, -32.0104, 124.172, -151.304, 126.577, 88.7491, 0, 0, 3.64973, -55.0843, 3.67779, -174.378, 3.60792, 65.6752, 0.107245, 37.5962
1, 1740.00000, 125.127, -32.0104, 124.172, -151.304, 126.577, 88.7491, 0, 0, 3.64973, -55.0843, 3.67779, -174.378, 3.60792, 65.6752, 0.107245, 37.5962
1, 1800.00000, 125.127, -32.0104, 124.172, -151.304, 126.577, 88.7491, 0, 0, 3.64973, -55.0843, 3.67779, -174.378, 3.60792, 65.6752, 0.107245, 37.5962
1, 1860.00000, 125.102, -31.9112, 124.357, -151.299, 126.456, 88.7223, 0, 0, 3.7385, -54.9851, 3.76089, -174.373, 3.69848, 65.6484, 0.0949826, 40.1143
1, 1920.00000, 125.102, -31.9112, 124.357, -151.299, 126.456, 88.7223, 0, 0, 3.7385, -54.9851, 3.76089, -174.373, 3.69848, 65.6484, 0.0949809, 40.1141
1, 1980.00000, 125.102, -31.9112, 124.357, -151.299, 126.456, 88.7223, 0, 0, 3.7385, -54.9851, 3.76089, -174.373, 3.69848, 65.6484, 0.0949809, 40.1142
1, 2040.00000, 125.102, -31.9112, 124.357, -151.299, 126.456, 88.7223, 0, 0, 3.7385, -54.9851, 3.76089, -174.373, 3.69848, 65.6484, 0.094981, 40.1142
1, 2100.00000, 125.102, -31.9112, 124.357, -151.299, 126.456, 88.7223, 0, 0, 3.7385, -54.9851, 3.76089, -174.373, 3.69848, 65.6484, 0.094981, 40.1142
1, 2160.00000, 125.102, -31.9112, 124.357, -151.299, 126.456, 88.7223, 0, 0, 3.7385, -54.9851, 3.76089, -174.373, 3.69848, 65.6484, 0.0949811, 40.1142
1, 2220.00000, 125.102, -31.9112, 124.357, -151.299, 126.456, 88.7223, 0, 0, 3.7385, -54.9851, 3.76089, -174.373, 3.69848, 65.6484, 0.0949811, 40.1142
1, 2280.00000, 125.102, -31.9112, 124.357, -151.299, 126.456, 88.7223, 0, 0, 3.7385, -54.9851, 3.76089, -174.373, 3.69848, 65.6484, 0.0949812, 40.1142
1, 2340.00000, 125.102, -31.9112, 124.357, -151.299, 126.456, 88.7223, 0, 0, 3.7385, -54.9851, 3.76089, -174.373, 3.69848, 65.6484, 0.0949812, 40.1142
1, 2400.00000, 125.102, -31.9112, 124.357, -151.299, 126.456, 88.7223, 0, 0, 3.7385, -54.9851, 3.76089, -174.373, 3.69848, 65.6484, 0.0949812, 40.1142
1, 2460.00000, 125.102, -31.9112, 124.357, -151.299, 126.456, 88.7223, 0, 0, 3.7385, -54.9851, 3.76089, -174.373, 3.69848, 65.6484, 0.0949813, 40.1142
1, 2520.00000, 125.102, -31.9112, 124.357, -151.299, 126.456, 88.7223, 0, 0, 3.7385, -54.9851, 3.76089, -174.373, 3.69848, 65.6484, 0.0949813, 40.1142
1, 2580.00000, 125.102, -31.9112, 124.357, -151.299, 126.456, 88.7223, 0, 0, 3.7385, -54.9851, 3.76089, -174.373, 3.69848, 65.6484, 0.0949813, 40.1142
1, 2640.00000, 125.102, -31.9112, 124.357, -151.299, 126.456, 88.7223, 0, 0, 3.7385, -54.9851, 3.76089, -174.373, 3.69848, 65.6484, 0.0949813, 40.1142
1, 2700.00000, 125.102, -31.9112, 124.357, -151.299, 126.456, 88.7223, 0, 0, 3.7385, -54.9851, 3.76089, -174.373, 3.69848, 65.6484, 0.0949814, 40.1142
1, 2760.00000, 125.359, -31.8576, 124.599, -151.24, 126.7, 88.7824, 0, 0, 3.51558, -54.9315, 3.53703, -174.314, 3.47837, 65.7085, 0.0896043, 39.8427
1, 2820.00000, 125.359, -31.8576, 124.599, -151.24, 126.7, 88.7824, 0, 0, 3.51558, -54.9315, 3.53703, -174.314, 3.47837, 65.7085, 0.0896047, 39.8427
1, 2880.00000, 125.359, -31.8576, 124.599, -151.24, 126.7, 88.7824, 0, 0, 3.51558, -54.9315, 3.53703, -174.314, 3.47837, 65.7085, 0.0896048, 39.8427
1, 2940.00000, 125.359, -31.8576, 124.599, -151.24, 126.7, 88.7824, 0, 0, 3.51558, -54.9315, 3.53703, -174.314, 3.47837, 65.7085, 0.0896048, 39.8427
1, 3000.00000, 125.359, -31.8576, 124.599, -151.24, 126.7, 88.7824, 0, 0, 3.51558, -54.9315, 3.53703, -174.314, 3.47837, 65.7085, 0.0896048, 39.8427
1, 3060.00000, 125.359, -31.8576, 124.599, -151.24, 126.7, 88.7824, 0, 0, 3.51558, -54.9315, 3.53703, -174.314, 3.47837, 65.7085, 0.0896048, 39.8427
1, 3120.00000, 125.359, -31.8576, 124.599, -151.24, 126.7, 88.7824, 0, 0, 3.51558, -54.9315, 3.53703, -174.314, 3.47837, 65.7085, 0.0896048, 39.8427
1, 3180.00000, 125.359, -31.8576, 124.599, -151.24, 126.7, 88.7824, 0, 0, 3.51558, -54.9315, 3.53703, -174.314, 3.47837, 65.7085, 0.0896048, 39.8427
1, 3240.00000, 125.359, -31.8576, 124.599, -151.24, 126.7, 88.7824, 0, 0, 3.51558, -54.9315, 3.53703, -174.314, 3.47837, 65.7085, 0.0896048, 39.8427
1, 3300.00000, 125.359, -31.8576, 124.599, -151.24, 126.7, 88.7824, 0, 0, 3.51558, -54.9315, 3.53703, -174.314, 3.47837, 65.7085, 0.0896048, 39.8427
1, 3360.00000, 125.359, -31.8576, 124.599, -151.24, 126.7, 88.7824, 0, 0, 3.51558, -54.9315, 3.53703, -174.314, 3.47837, 65.7085, 0.0896048, 39.8427
1, 3420.00000, 125.359, -31.8576, 124.599, -151.24, 126.7, 88.7824, 0, 0, 3.51558, -54.9315, 3.53703, -174.314, 3.47837, 65.7085, 0.0896048, 39.8427
1, 3480.00000, 125.359, -31.8576, 124.599, -151.24, 126.7, 88.7824, 0, 0, 3.51558, -54.9315, 3.53703, -174.314, 3.47837, 65.7085, 0.0896048, 39.8427
1, 3540.00000, 125.359, -31.8576, 124.599, -151.24, 126.7, 88.7824, 0, 0, 3.51558, -54.9315, 3.53703, -174.314, 3.47837, 65.7085, 0.0896048, 39.8427
2, 0.00000, 125.359, -31.8576, 124.599, -151.24, 126.7, 88.7824, 0, 0, 3.51558, -54.9315, 3.53703, -174.314, 3.47837, 65.7085, 0.0896048, 39.8427
2, 60.00000, 125.206, -31.8905, 124.454, -151.276, 126.555, 88.7458, 0, 0, 3.61435, -54.9645, 3.63618, -174.35, 3.57581, 65.6719, 0.0919903, 39.9917
2, 120.00000, 125.206, -31.8905, 124.454, -151.276, 126.555, 88.7458, 0, 0, 3.61435, -54.9645, 3.63618, -174.35, 3.57581, 65.6719, 0.0919886, 39.9914
2, 180.00000, 125.206, -31.8905, 124.454, -151.276, 126.555, 88.7458, 0, 0, 3.61435, -54.9645, 3.63618, -174.35, 3.57581, 65.6719, 0.0919886, 39.9914
2, 240.00000, 125.206, -31.8905, 124.454, -151.276, 126.555, 88.7458, 0, 0, 3.61435, -54.9645, 3.63618, -174.35, 3.57581, 65.6719, 0.0919886, 39.9914
2, 300.00000, 125.224, -31.894, 124.701, -151.106, 127.033, 88.7467, 0, 0, 3.61382, -54.9679, 3.62896, -174.18, 3.56236, 65.6728, 0.106001, 49.8904
2, 360.00000, 125.224, -31.894, 124.701, -151.106, 127.033, 88.7467, 0, 0, 3.61382, -54.9679, 3.62896, -174.18, 3.56236, 65.6728, 0.106004, 49.8907
2, 420.00000, 125.224, -31.894, 124.701, -151.106, 127.033, 88.7467, 0, 0, 3.61382, -54.9679, 3.62896, -174.18, 3.56236, 65.6728, 0.106004, 49.8907
2, 480.00000, 125.224, -31.894, 124.701, -151.106, 127.033, 88.7467, 0, 0, 3.61382, -54.9679, 3.62896, -174.18, 3.56236, 65.6728, 0.106004, 49.8907
2, 540.00000, 125.224, -31.894, 124.701, -151.106, 127.033, 88.7467, 0, 0, 3.61382, -54.9679, 3.62896, -174.18, 3.56236, 65.6728, 0.106004, 49.8907
2, 600.00000, 125.224, -31.894, 124.701, -151.106, 127.033, 88.7467, 0, 0, 3.61382, -54.9679, 3.62896, -174.18, 3.56236, 65.6728, 0.106004, 49.8907
2, 660.00000, 125.224, -31.894, 124.701, -151.106, 127.033, 88.7467, 0, 0, 3.61382, -54.9679, 3.62896, -174.18, 3.56236, 65.6728, 0.106004, 49.8907
2, 720.00000, 125.224, -31.894, 124.701, -151.106, 127.033, 88.7467, 0, 0, 3.61382, -54.9679, 3.62896, -174.18, 3.56236, 65.6728, 0.106004, 49.8907
2, 780.00000, 125.224, -31.894, 124.701, -151.106, 127.033, 88.7467, 0, 0, 3.61382, -54.9679, 3.62896, -174.18, 3.56236, 65.6728, 0.106004, 49.8907
