hour,t(sec),V1,VAngle1,V2,VAngle2,V3,VAngle3,V4,VAngle4,I1,IAngle1,I2,IAngle2,I3,IAngle3,I4,IAngle4
0, 60.00000, 119.397, -32.9328, 119.273, -150.949, 123.979, 88.2485, 0, 0, 5.26276, -56.0068, 5.25659, -174.022, 5.18265, 65.175, 0.234366, 62.0917
0, 120.00000, 119.4, -32.9468, 119.273, -150.949, 124.014, 88.2432, 0, 0, 5.26287, -56.0208, 5.25658, -174.023, 5.18118, 65.1696, 0.236926, 62.0983
0, 180.00000, 119.402, -32.9594, 119.273, -150.95, 124.045, 88.2384, 0, 0, 5.26297, -56.0334, 5.25656, -174.023, 5.17986, 65.1648, 0.239226, 62.1044
0, 240.00000, 119.404, -32.9707, 119.273, -150.951, 124.073, 88.2341, 0, 0, 5.26307, -56.0447, 5.25655, -174.024, 5.17867, 65.1605, 0.241295, 62.1097
0, 300.00000, 119.406, -32.9809, 119.272, -150.951, 124.098, 88.2302, 0, 0, 5.26315, -56.0549, 5.25654, -174.025, 5.1776, 65.1565, 0.243156, 62.1142
0, 360.00000, 119.408, -32.9901, 119.272, -150.952, 124.121, 88.2267, 0, 0, 5.26322, -56.0641, 5.25653, -174.025, 5.17664, 65.153, 0.244832, 62.1182
0, 420.00000, 119.409, -32.9984, 119.272, -150.952, 124.141, 88.2235, 0, 0, 5.26328, -56.0724, 5.25652, -174.026, 5.17577, 65.1498, 0.24634, 62.1217
0, 480.00000, 120.297, -32.9026, 120.106, -150.862, 125.141, 88.3426, 0, 0, 4.61682, -55.9765, 4.60866, -173.936, 4.46694, 65.2689, 0.287558, 62.9388
0, 540.00000, 120.298, -32.9094, 120.106, -150.863, 125.158, 88.3399, 0, 0, 4.61687, -55.9833, 4.60866, -173.936, 4.46634, 65.2663, 0.288624, 62.938
0, 600.00000, 120.299, -32.9155, 120.106, -150.863, 125.173, 88.3376, 0, 0, 4.61691, -55.9894, 4.60865, -173.937, 4.4658, 65.2639, 0.28958, 62.9375
0, 660.00000, 120.3, -32.921, 120.105, -150.863, 125.186, 88.3354, 0, 0, 4.61695, -55.9949, 4.60865, -173.937, 4.46532, 65.2617, 0.290441, 62.9371
0, 720.00000, 120.301, -32.926, 120.105, -150.863, 125.198, 88.3335, 0, 0, 4.61699, -55.9999, 4.60865, -173.937, 4.46489, 65.2598, 0.291216, 62.9367
0, 780.00000, 120.302, -32.9305, 120.105, -150.864, 125.209, 88.3318, 0, 0, 4.61702, -56.0043, 4.60864, -173.937, 4.4645, 65.258, 0.291913, 62.9363
0, 840.00000, 120.302, -32.9345, 120.105, -150.864, 125.218, 88.3302, 0, 0, 4.61705, -56.0084, 4.60864, -173.938, 4.46415, 65.2565, 0.292541, 62.9359
0, 900.00000, 120.303, -32.9381, 120.105, -150.864, 125.227, 88.3288, 0, 0, 4.61707, -56.012, 4.60864, -173.938, 4.46383, 65.2551, 0.293105, 62.9356
0, 960.00000, 120.304, -32.9413, 120.105, -150.864, 125.235, 88.3276, 0, 0, 4.6171, -56.0152, 4.60863, -173.938, 4.46355, 65.2538, 0.293613, 62.9353
0, 1020.00000, 120.304, -32.9443, 120.105, -150.864, 125.242, 88.3264, 0, 0, 4.61712, -56.0182, 4.60863, -173.938, 4.46329, 65.2526, 0.29407, 62.935
0, 1080.00000, 120.305, -32.9469, 120.105, -150.864, 125.248, 88.3254, 0, 0, 4.61713, -56.0208, 4.60863, -173.938, 4.46306, 65.2516, 0.294482, 62.9348
0, 1140.00000, 120.305, -32.9493, 120.105, -150.865, 125.254, 88.3245, 0, 0, 4.61715, -56.0232, 4.60863, -173.938, 4.46286, 65.2506, 0.294852, 62.9346
0, 1200.00000, 120.305, -32.9514, 120.105, -150.865, 125.259, 88.3236, 0, 0, 4.61716, -56.0253, 4.60863, -173.938, 4.46267, 65.2498, 0.295186, 62.9344
0, 1260.00000, 120.306, -32.9534, 120.105, -150.865, 125.264, 88.3229, 0, 0, 4.61718, -56.0273, 4.60862, -173.939, 4.4625, 65.249, 0.295485, 62.9342
0, 1320.00000, 120.306, -32.9551, 120.105, -150.865, 125.268, 88.3222, 0, 0, 4.61719, -56.029, 4.60862, -173.939, 4.46235, 65.2484, 0.295755, 62.934
0, 1380.00000, 120.306, -32.9566, 120.105, -150.865, 125.272, 88.3216, 0, 0, 4.6172, -56.0306, 4.60862, -173.939, 4.46222, 65.2477, 0.295998, 62.9338
0, 1440.00000, 120.307, -32.958, 120.105, -150.865, 125.275, 88.3211, 0, 0, 4.61721, -56.032, 4.60862, -173.939, 4.46209, 65.2472, 0.296217, 62.9337
0, 1500.00000, 120.307, -32.9593, 120.105, -150.865, 125.278, 88.3206, 0, 0, 4.61722, -56.0332, 4.60862, -173.939, 4.46199, 65.2467, 0.296414, 62.9336
0, 1560.00000, 120.307, -32.9604, 120.105, -150.865, 125.281, 88.3201, 0, 0, 4.61723, -56.0344, 4.60862, -173.939, 4.46189, 65.2463, 0.296591, 62.9334
0, 1620.00000, 120.307, -32.9615, 120.105, -150.865, 125.283, 88.3197, 0, 0, 4.61723, -56.0354, 4.60862, -173.939, 4.4618, 65.2458, 0.29675, 62.9333
0, 1680.00000, 120.307, -32.9624, 120.105, -150.865, 125.285, 88.3194, 0, 0, 4.61724, -56.0363, 4.60862, -173.939, 4.46172, 65.2455, 0.296893, 62.9332
0, 1740.00000, 120.307, -32.9632, 120.105, -150.865, 125.287, 88.319, 0, 0, 4.61724, -56.0371, 4.60862, -173.939, 4.46164, 65.2452, 0.297023, 62.9332
0, 1800.00000, 120.308, -32.964, 120.105, -150.865, 125.289, 88.3187, 0, 0, 4.61725, -56.0379, 4.60862, -173.939, 4.46158, 65.2449, 0.297139, 62.9331
0, 1860.00000, 120.308, -32.9646, 120.105, -150.865, 125.291, 88.3185, 0, 0, 4.61725, -56.0386, 4.60862, -173.939, 4.46152, 65.2446, 0.297243, 62.933
0, 1920.00000, 120.308, -32.9652, 120.105, -150.865, 125.292, 88.3183, 0, 0, 4.61726, -56.0392, 4.60862, -173.939, 4.46147, 65.2444, 0.297337, 62.9329
0, 1980.00000, 120.308, -32.9658, 120.105, -150.865, 125.294, 88.318, 0, 0, 4.61726, -56.0397, 4.60862, -173.939, 4.46142, 65.2441, 0.297422, 62.9329
0, 2040.00000, 120.308, -32.9663, 120.105, -150.865, 125.295, 88.3178, 0, 0, 4.61726, -56.0402, 4.60861, -173.939, 4.46138, 65.2439, 0.297498, 62.9328
0, 2100.00000, 120.308, -32.9667, 120.105, -150.865, 125.296, 88.3177, 0, 0, 4.61727, -56.0406, 4.60861, -173.939, 4.46134, 65.2438, 0.297567, 62.9328
0, 2160.00000, 120.308, -32.9671, 120.105, -150.865, 125.297, 88.3175, 0, 0, 4.61727, -56.041, 4.60861, -173.939, 4.46131, 65.2436, 0.297628, 62.9327
0, 2220.00000, 120.308, -32.9675, 120.105, -150.865, 125.298, 88.3174, 0, 0, 4.61727, -56.0414, 4.60861, -173.939, 4.46128, 65.2435, 0.297684, 62.9327
0, 2280.00000, 120.308, -32.9678, 120.105, -150.865, 125.298, 88.3173, 0, 0, 4.61727, -56.0417, 4.60861, -173.939, 4.46125, 65.2434, 0.297734, 62.9327
0, 2340.00000, 120.308, -32.9681, 120.105, -150.865, 125.299, 88.3171, 0, 0, 4.61728, -56.042, 4.60861, -173.939, 4.46122, 65.2432, 0.297779, 62.9326
0, 2400.00000, 120.308, -32.9683, 120.105, -150.865, 125.3, 88.317, 0, 0, 4.61728, -56.0423, 4.60861, -173.939, 4.4612, 65.2431, 0.29782, 62.9326
0, 2460.00000, 120.308, -32.9686, 120.105, -150.865, 125.3, 88.3169, 0, 0, 4.61728, -56.0425, 4.60861, -173.939, 4.46118, 65.243, 0.297856, 62.9326
0, 2520.00000, 120.308, -32.9688, 120.105, -150.865, 125.301, 88.3169, 0, 0, 4.61728, -56.0427, 4.60861, -173.939, 4.46116, 65.243, 0.297889, 62.9326
0, 2580.00000, 120.308, -32.969, 120.105, -150.865, 125.301, 88.3168, 0, 0, 4.61728, -56.0429, 4.60861, -173.939, 4.46114, 65.2429, 0.297918, 62.9325
0, 2640.00000, 120.308, -32.9691, 120.105, -150.865, 125.302, 88.3167, 0, 0, 4.61728, -56.0431, 4.60861, -173.939, 4.46113, 65.2428, 0.297945, 62.9325
0, 2700.00000, 120.309, -32.9693, 120.105, -150.865, 125.302, 88.3167, 0, 0, 4.61728, -56.0432, 4.60861, -173.939, 4.46112, 65.2428, 0.297969, 62.9325
0, 2760.00000, 120.309, -32.9694, 120.105, -150.865, 125.302, 88.3166, 0, 0, 4.61729, -56.0434, 4.60861, -173.939, 4.4611, 65.2427, 0.29799, 62.9325
0, 2820.00000, 120.309, -32.9696, 120.105, -150.865, 125.303, 88.3166, 0, 0, 4.61729, -56.0435, 4.60861, -173.939, 4.46109, 65.2427, 0.29801, 62.9325
0, 2880.00000, 120.309, -32.9697, 120.105, -150.865, 125.303, 88.3165, 0, 0, 4.61729, -56.0436, 4.60861, -173.939, 4.46108, 65.2426, 0.298027, 62.9325
0, 2940.00000, 120.309, -32.9698, 120.105, -150.865, 125.303, 88.3165, 0, 0, 4.61729, -56.0437, 4.60861, -173.939, 4.46107, 65.2426, 0.298043, 62.9325
0, 3000.00000, 120.309, -32.9699, 120.105, -150.865, 125.303, 88.3164, 0, 0, 4.61729, -56.0438, 4.60861, -173.939, 4.46107, 65.2425, 0.298057, 62.9324
0, 3060.00000, 120.309, -32.9699, 120.105, -150.865, 125.304, 88.3164, 0, 0, 4.61729, -56.0439, 4.60861, -173.939, 4.46106, 65.2425, 0.29807, 62.9324
0, 3120.00000, 120.309, -32.97, 120.105, -150.866, 125.304, 88.3164, 0, 0, 4.61729, -56.0439, 4.60861, -173.939, 4.46105, 65.2425, 0.298081, 62.9324
0, 3180.00000, 120.309, -32.9701, 120.105, -150.866, 125.304, 88.3164, 0, 0, 4.61729, -56.044, 4.60861, -173.939, 4.46105, 65.2424, 0.298091, 62.9324
0, 3240.00000, 120.309, -32.9701, 120.105, -150.866, 125.304, 88.3163, 0, 0, 4.61729, -56.0441, 4.60861, -173.939, 4.46104, 65.2424, 0.298101, 62.9324
0, 3300.00000, 120.309, -32.9702, 120.105, -150.866, 125.304, 88.3163, 0, 0, 4.61729, -56.0441, 4.60861, -173.939, 4.46104, 65.2424, 0.298109, 62.9324
0, 3360.00000, 120.309, -32.9702, 120.105, -150.866, 125.304, 88.3163, 0, 0, 4.61729, -56.0442, 4.60861, -173.939, 4.46103, 65.2424, 0.298116, 62.9324
0, 3420.00000, 120.309, -32.9703, 120.105, -150.866, 125.304, 88.3163, 0, 0, 4.61729, -56.0442, 4.60861, -173.939, 4.46103, 65.2424, 0.298123, 62.9324
0, 3480.00000, 120.309, -32.9703, 120.105, -150.866, 125.304, 88.3163, 0, 0, 4.61729, -56.0443, 4.60861, -173.939, 4.46103, 65.2423, 0.298129, 62.9324
0, 3540.00000, 120.309, -32.9704, 120.105, -150.866, 125.305, 88.3163, 0, 0, 4.61729, -56.0443, 4.60861, -173.939, 4.46102, 65.2423, 0.298135, 62.9324
1, 0.00000, 120.309, -32.9704, 120.105, -150.866, 125.305, 88.3162, 0, 0, 4.61729, -56.0443, 4.60861, -173.939, 4.46102, 65.2423, 0.29814, 62.9324
1, 60.00000, 120.392, -32.8404, 120.39, -150.833, 125.305, 88.3188, 0, 0, 4.62085, -55.9143, 4.62077, -173.907, 4.46099, 65.2449, 0.299538, 62.7836
1, 120.00000, 120.392, -32.8404, 120.39, -150.833, 125.306, 88.3188, 0, 0, 4.62085, -55.9143, 4.62077, -173.907, 4.46099, 65.2449, 0.299542, 62.7836
1, 180.00000, 120.392, -32.8404, 120.39, -150.833, 125.306, 88.3188, 0, 0, 4.62085, -55.9143, 4.62077, -173.907, 4.46099, 65.2449, 0.299546, 62.7836
1, 240.00000, 120.392, -32.8404, 120.39, -150.833, 125.306, 88.3188, 0, 0, 4.62085, -55.9144, 4.62077, -173.907, 4.46099, 65.2449, 0.299549, 62.7836
1, 300.00000, 120.392, -32.8405, 120.39, -150.833, 125.306, 88.3188, 0, 0, 4.62085, -55.9144, 4.62077, -173.907, 4.46098, 65.2449, 0.299552, 62.7836
1, 360.00000, 120.392, -32.8405, 120.39, -150.833, 125.306, 88.3188, 0, 0, 4.62085, -55.9144, 4.62077, -173.907, 4.46098, 65.2449, 0.299555, 62.7836
1, 420.00000, 120.392, -32.8405, 120.39, -150.833, 125.306, 88.3188, 0, 0, 4.62085, -55.9144, 4.62077, -173.907, 4.46098, 65.2449, 0.299557, 62.7836
1, 480.00000, 120.392, -32.8405, 120.39, -150.833, 125.306, 88.3188, 0, 0, 4.62085, -55.9144, 4.62077, -173.907, 4.46098, 65.2449, 0.299559, 62.7836
1, 540.00000, 120.392, -32.8405, 120.39, -150.833, 125.306, 88.3188, 0, 0, 4.62085, -55.9144, 4.62077, -173.907, 4.46098, 65.2449, 0.299561, 62.7836
1, 600.00000, 120.392, -32.8405, 120.39, -150.833, 125.306, 88.3188, 0, 0, 4.62085, -55.9145, 4.62077, -173.907, 4.46098, 65.2448, 0.299563, 62.7836
1, 660.00000, 120.392, -32.8405, 120.39, -150.833, 125.306, 88.3188, 0, 0, 4.62085, -55.9145, 4.62077, -173.907, 4.46098, 65.2448, 0.299564, 62.7836
1, 720.00000, 120.392, -32.8406, 120.39, -150.833, 125.306, 88.3188, 0, 0, 4.62085, -55.9145, 4.62077, -173.907, 4.46098, 65.2448, 0.299566, 62.7836
1, 780.00000, 120.392, -32.8406, 120.39, -150.833, 125.306, 88.3187, 0, 0, 4.62085, -55.9145, 4.62077, -173.907, 4.46098, 65.2448, 0.299567, 62.7836
1, 840.00000, 120.392, -32.8406, 120.39, -150.833, 125.306, 88.3187, 0, 0, 4.62085, -55.9145, 4.62077, -173.907, 4.46098, 65.2448, 0.299568, 62.7836
1, 900.00000, 120.392, -32.8406, 120.39, -150.833, 125.306, 88.3187, 0, 0, 4.62085, -55.9145, 4.62077, -173.907, 4.46097, 65.2448, 0.299569, 62.7836
1, 960.00000, 120.392, -32.8406, 120.39, -150.833, 125.306, 88.3187, 0, 0, 4.62085, -55.9145, 4.62077, -173.907, 4.46097, 65.2448, 0.29957, 62.7836
1, 1020.00000, 120.392, -32.8406, 120.39, -150.833, 125.306, 88.3187, 0, 0, 4.62085, -55.9145, 4.62077, -173.907, 4.46097, 65.2448, 0.299571, 62.7836
1, 1080.00000, 120.392, -32.8406, 120.39, -150.833, 125.306, 88.3187, 0, 0, 4.62085, -55.9145, 4.62077, -173.907, 4.46097, 65.2448, 0.299572, 62.7836
1, 1140.00000, 120.392, -32.8406, 120.39, -150.833, 125.306, 88.3187, 0, 0, 4.62085, -55.9145, 4.62077, -173.907, 4.46097, 65.2448, 0.299572, 62.7836
1, 1200.00000, 120.392, -32.8406, 120.39, -150.833, 125.306, 88.3187, 0, 0, 4.62085, -55.9145, 4.62077, -173.907, 4.46097, 65.2448, 0.299573, 62.7836
1, 1260.00000, 120.392, -32.8406, 120.39, -150.833, 125.306, 88.3187, 0, 0, 4.62085, -55.9145, 4.62077, -173.907, 4.46097, 65.2448, 0.299573, 62.7836
1, 1320.00000, 120.392, -32.8406, 120.39, -150.833, 125.306, 88.3187, 0, 0, 4.62085, -55.9145, 4.62077, -173.907, 4.46097, 65.2448, 0.299574, 62.7836
1, 1380.00000, 120.392, -32.8406, 120.39, -150.833, 125.306, 88.3187, 0, 0, 4.62085, -55.9145, 4.62077, -173.907, 4.46097, 65.2448, 0.299574, 62.7836
1, 1440.00000, 120.392, -32.8406, 120.39, -150.833, 125.306, 88.3187, 0, 0, 4.62085, -55.9145, 4.62077, -173.907, 4.46097, 65.2448, 0.299575, 62.7836
1, 1500.00000, 120.392, -32.8406, 120.39, -150.833, 125.306, 88.3187, 0, 0, 4.62085, -55.9145, 4.62077, -173.907, 4.46097, 65.2448, 0.299575, 62.7836
1, 1560.00000, 120.392, -32.8406, 120.39, -150.833, 125.306, 88.3187, 0, 0, 4.62085, -55.9145, 4.62077, -173.907, 4.46097, 65.2448, 0.299575, 62.7836
1, 1620.00000, 120.392, -32.8406, 120.39, -150.833, 125.306, 88.3187, 0, 0, 4.62085, -55.9145, 4.62077, -173.907, 4.46097, 65.2448, 0.299576, 62.7836
1, 1680.00000, 120.392, -32.8406, 120.39, -150.833, 125.306, 88.3187, 0, 0, 4.62085, -55.9145, 4.62077, -173.907, 4.46097, 65.2448, 0.299576, 62.7836
1, 1740.00000, 120.392, -32.8406, 120.39, -150.833, 125.306, 88.3187, 0, 0, 4.62085, -55.9145, 4.62077, -173.907, 4.46097, 65.2448, 0.299576, 62.7836
1, 1800.00000, 120.392, -32.8406, 120.39, -150.833, 125.306, 88.3187, 0, 0, 4.62085, -55.9145, 4.62077, -173.907, 4.46097, 65.2448, 0.299576, 62.7836
1, 1860.00000, 120.392, -32.8406, 120.39, -150.833, 125.306, 88.3187, 0, 0, 4.62085, -55.9145, 4.62077, -173.907, 4.46097, 65.2448, 0.299576, 62.7836
1, 1920.00000, 120.392, -32.8406, 120.39, -150.833, 125.306, 88.3187, 0, 0, 4.62085, -55.9145, 4.62077, -173.907, 4.46097, 65.2448, 0.299577, 62.7836
1, 1980.00000, 120.392, -32.8406, 120.39, -150.833, 125.306, 88.3187, 0, 0, 4.62085, -55.9145, 4.62077, -173.907, 4.46097, 65.2448, 0.299577, 62.7836
1, 2040.00000, 120.392, -32.8406, 120.39, -150.833, 125.306, 88.3187, 0, 0, 4.62085, -55.9145, 4.62077, -173.907, 4.46097, 65.2448, 0.299577, 62.7836
1, 2100.00000, 120.392, -32.8406, 120.39, -150.833, 125.306, 88.3187, 0, 0, 4.62085, -55.9145, 4.62077, -173.907, 4.46097, 65.2448, 0.299577, 62.7836
1, 2160.00000, 120.392, -32.8406, 120.39, -150.833, 125.306, 88.3187, 0, 0, 4.62085, -55.9145, 4.62077, -173.907, 4.46097, 65.2448, 0.299577, 62.7836
1, 2220.00000, 120.392, -32.8406, 120.39, -150.833, 125.306, 88.3187, 0, 0, 4.62085, -55.9145, 4.62077, -173.907, 4.46097, 65.2448, 0.299577, 62.7836
1, 2280.00000, 120.392, -32.8406, 120.39, -150.833, 125.306, 88.3187, 0, 0, 4.62085, -55.9145, 4.62077, -173.907, 4.46097, 65.2448, 0.299577, 62.7836
1, 2340.00000, 120.392, -32.8406, 120.39, -150.833, 125.306, 88.3187, 0, 0, 4.62085, -55.9145, 4.62077, -173.907, 4.46097, 65.2448, 0.299577, 62.7836
1, 2400.00000, 120.392, -32.8406, 120.39, -150.833, 125.306, 88.3187, 0, 0, 4.62085, -55.9145, 4.62077, -173.907, 4.46097, 65.2448, 0.299578, 62.7836
1, 2460.00000, 120.392, -32.8406, 120.39, -150.833, 125.306, 88.3187, 0, 0, 4.62085, -55.9145, 4.62077, -173.907, 4.46097, 65.2448, 0.299578, 62.7836
1, 2520.00000, 120.392, -32.8406, 120.39, -150.833, 125.306, 88.3187, 0, 0, 4.62085, -55.9146, 4.62077, -173.907, 4.46097, 65.2448, 0.299578, 62.7836
1, 2580.00000, 120.392, -32.8406, 120.39, -150.833, 125.306, 88.3187, 0, 0, 4.62085, -55.9146, 4.62077, -173.907, 4.46097, 65.2448, 0.299578, 62.7836
1, 2640.00000, 120.392, -32.8406, 120.39, -150.833, 125.306, 88.3187, 0, 0, 4.62085, -55.9146, 4.62077, -173.907, 4.46097, 65.2448, 0.299578, 62.7836
1, 2700.00000, 120.392, -32.8406, 120.39, -150.833, 125.306, 88.3187, 0, 0, 4.62085, -55.9146, 4.62077, -173.907, 4.46097, 65.2448, 0.299578, 62.7836
1, 2760.00000, 120.392, -32.8406, 120.39, -150.833, 125.306, 88.3187, 0, 0, 4.62085, -55.9146, 4.62077, -173.907, 4.46097, 65.2448, 0.299578, 62.7836
1, 2820.00000, 120.392, -32.8406, 120.39, -150.833, 125.306, 88.3187, 0, 0, 4.62085, -55.9146, 4.62077, -173.907, 4.46097, 65.2448, 0.299578, 62.7836
1, 2880.00000, 120.392, -32.8406, 120.39, -150.833, 125.306, 88.3187, 0, 0, 4.62085, -55.9146, 4.62077, -173.907, 4.46097, 65.2448, 0.299578, 62.7836
1, 2940.00000, 120.392, -32.8406, 120.39, -150.833, 125.306, 88.3187, 0, 0, 4.62085, -55.9146, 4.62077, -173.907, 4.46097, 65.2448, 0.299578, 62.7836
1, 3000.00000, 120.392, -32.8406, 120.39, -150.833, 125.306, 88.3187, 0, 0, 4.62085, -55.9146, 4.62077, -173.907, 4.46097, 65.2448, 0.299578, 62.7836
1, 3060.00000, 120.392, -32.8406, 120.39, -150.833, 125.306, 88.3187, 0, 0, 4.62085, -55.9146, 4.62077, -173.907, 4.46097, 65.2448, 0.299578, 62.7836
1, 3120.00000, 120.392, -32.8406, 120.39, -150.833, 125.306, 88.3187, 0, 0, 4.62085, -55.9146, 4.62077, -173.907, 4.46097, 65.2448, 0.299578, 62.7836
1, 3180.00000, 120.392, -32.8406, 120.39, -150.833, 125.306, 88.3187, 0, 0, 4.62085, -55.9146, 4.62077, -173.907, 4.46097, 65.2448, 0.299578, 62.7836
1, 3240.00000, 120.392, -32.8406, 120.39, -150.833, 125.306, 88.3187, 0, 0, 4.62085, -55.9146, 4.62077, -173.907, 4.46097, 65.2448, 0.299578, 62.7836
1, 3300.00000, 120.392, -32.8406, 120.39, -150.833, 125.306, 88.3187, 0, 0, 4.62085, -55.9146, 4.62077, -173.907, 4.46097, 65.2448, 0.299578, 62.7836
1, 3360.00000, 120.392, -32.8406, 120.39, -150.833, 125.306, 88.3187, 0, 0, 4.62085, -55.9146, 4.62077, -173.907, 4.46097, 65.2448, 0.299578, 62.7836
1, 3420.00000, 120.392, -32.8406, 120.39, -150.833, 125.306, 88.3187, 0, 0, 4.62085, -55.9146, 4.62077, -173.907, 4.46097, 65.2448, 0.299578, 62.7836
1, 3480.00000, 120.392, -32.8406, 120.39, -150.833, 125.306, 88.3187, 0, 0, 4.62085, -55.9146, 4.62077, -173.907, 4.46097, 65.2448, 0.299578, 62.7836
1, 3540.00000, 120.392, -32.8406, 120.39, -150.833, 125.306, 88.3187, 0, 0, 4.62085, -55.9146, 4.62077, -173.907, 4.46097, 65.2448, 0.299578, 62.7836
2, 0.00000, 120.392, -32.8406, 120.39, -150.833, 125.306, 88.3187, 0, 0, 4.62085, -55.9146, 4.62077, -173.907, 4.46097, 65.2448, 0.299578, 62.7836
2, 60.00000, 120.392, -32.8406, 120.39, -150.833, 125.306, 88.3187, 0, 0, 4.62085, -55.9146, 4.62077, -173.907, 4.46097, 65.2448, 0.299578, 62.7836
2, 120.00000, 120.392, -32.8406, 120.39, -150.833, 125.306, 88.3187, 0, 0, 4.62085, -55.9146, 4.62077, -173.907, 4.46097, 65.2448, 0.299578, 62.7836
2, 180.00000, 120.392, -32.8406, 120.39, -150.833, 125.306, 88.3187, 0, 0, 4.62085, -55.9146, 4.62077, -173.907, 4.46097, 65.2448, 0.299578, 62.7836
2, 240.00000, 120.392, -32.8406, 120.39, -150.833, 125.306, 88.3187, 0, 0, 4.62085, -55.9146, 4.62077, -173.907, 4.46097, 65.2448, 0.299578, 62.7836
2, 300.00000, 120.392, -32.8406, 120.39, -150.833, 125.306, 88.3187, 0, 0, 4.62085, -55.9146, 4.62077, -173.907, 4.46097, 65.2448, 0.299578, 62.7836
2, 360.00000, 120.392, -32.8406, 120.39, -150.833, 125.306, 88.3187, 0, 0, 4.62085, -55.9146, 4.62077, -173.907, 4.46097, 65.2448, 0.299578, 62.7836
2, 420.00000, 120.392, -32.8406, 120.39, -150.833, 125.306, 88.3187, 0, 0, 4.62085, -55.9146, 4.62077, -173.907, 4.46097, 65.2448, 0.299578, 62.7836
2, 480.00000, 120.392, -32.8406, 120.39, -150.833, 125.306, 88.3187, 0, 0, 4.62085, -55.9146, 4.62077, -173.907, 4.46097, 65.2448, 0.299578, 62.7836
2, 540.00000, 120.392, -32.8406, 120.39, -150.833, 125.306, 88.3187, 0, 0, 4.62085, -55.9146, 4.62077, -173.907, 4.46097, 65.2448, 0.299578, 62.7836
2, 600.00000, 120.392, -32.8406, 120.39, -150.833, 125.306, 88.3187, 0, 0, 4.62085, -55.9146, 4.62077, -173.907, 4.46097, 65.2448, 0.299578, 62.7836
2, 660.00000, 120.392, -32.8406, 120.39, -150.833, 125.306, 88.3187, 0, 0, 4.62085, -55.9146, 4.62077, -173.907, 4.46097, 65.2448, 0.299578, 62.7836
2, 720.00000, 120.392, -32.8406, 120.39, -150.833, 125.306, 88.3187, 0, 0, 4.62085, -55.9146, 4.62077, -173.907, 4.46097, 65.2448, 0.299578, 62.7836
