hour,t(sec),V1,VAngle1,V2,VAngle2,V3,VAngle3,V4,VAngle4,I1,IAngle1,I2,IAngle2,I3,IAngle3,I4,IAngle4
0, 60.00000, 116.594, -31.4316, 116.281, -150.777, 118.33, 89.0349, 0, 0, 6.10892, -54.5051, 6.09072, -173.851, 6.21021, 65.9612, 0.0501958, -114.855
0, 120.00000, 116.594, -31.4316, 116.281, -150.777, 118.33, 89.0348, 0, 0, 6.10887, -54.5056, 6.09067, -173.851, 6.2101, 65.9609, 0.0500966, -114.875
0, 180.00000, 116.594, -31.4316, 116.281, -150.777, 118.33, 89.0348, 0, 0, 6.10887, -54.5056, 6.09067, -173.851, 6.2101, 65.9609, 0.0500961, -114.875
0, 240.00000, 116.594, -31.4316, 116.281, -150.777, 118.33, 89.0348, 0, 0, 6.10887, -54.5056, 6.09067, -173.851, 6.2101, 65.9609, 0.0500961, -114.875
0, 300.00000, 116.594, -31.4316, 116.281, -150.777, 118.33, 89.0348, 0, 0, 6.10887, -54.5056, 6.09067, -173.851, 6.2101, 65.9609, 0.0500961, -114.875
0, 360.00000, 116.594, -31.4316, 116.281, -150.777, 118.33, 89.0348, 0, 0, 6.10887, -54.5056, 6.09067, -173.851, 6.2101, 65.9609, 0.0500961, -114.875
0, 420.00000, 116.594, -31.4316, 116.281, -150.777, 118.33, 89.0348, 0, 0, 6.10887, -54.5056, 6.09067, -173.851, 6.2101, 65.9609, 0.0500961, -114.875
0, 480.00000, 117.721, -31.35, 117.36, -150.702, 119.435, 89.1378, 0, 0, 5.37187, -54.4247, 5.35355, -173.776, 5.45858, 66.0632, 0.0433341, -114.419
0, 540.00000, 117.721, -31.3499, 117.36, -150.702, 119.435, 89.1378, 0, 0, 5.3719, -54.4239, 5.35359, -173.776, 5.45884, 66.0639, 0.0436452, -114.357
0, 600.00000, 117.721, -31.3499, 117.36, -150.702, 119.435, 89.1378, 0, 0, 5.3719, -54.4239, 5.35359, -173.776, 5.45884, 66.0639, 0.0436498, -114.356
0, 660.00000, 117.721, -31.3499, 117.36, -150.702, 119.435, 89.1378, 0, 0, 5.3719, -54.4239, 5.35359, -173.776, 5.45884, 66.0639, 0.0436499, -114.356
0, 720.00000, 117.721, -31.3499, 117.36, -150.702, 119.435, 89.1378, 0, 0, 5.3719, -54.4239, 5.35359, -173.776, 5.45884, 66.0639, 0.0436499, -114.356
0, 780.00000, 117.721, -31.3499, 117.36, -150.702, 119.435, 89.1378, 0, 0, 5.3719, -54.4239, 5.35359, -173.776, 5.45884, 66.0639, 0.0436499, -114.356
0, 840.00000, 117.721, -31.3499, 117.36, -150.702, 119.435, 89.1378, 0, 0, 5.3719, -54.4239, 5.35359, -173.776, 5.45884, 66.0639, 0.0436499, -114.356
0, 900.00000, 117.721, -31.3499, 117.36, -150.702, 119.435, 89.1378, 0, 0, 5.3719, -54.4239, 5.35359, -173.776, 5.45884, 66.0639, 0.0436499, -114.356
0, 960.00000, 117.721, -31.3499, 117.36, -150.702, 119.435, 89.1378, 0, 0, 5.3719, -54.4239, 5.35359, -173.776, 5.45884, 66.0639, 0.0436499, -114.356
0, 1020.00000, 117.721, -31.3499, 117.36, -150.702, 119.435, 89.1378, 0, 0, 5.3719, -54.4239, 5.35359, -173.776, 5.45884, 66.0639, 0.0436499, -114.356
0, 1080.00000, 117.721, -31.3499, 117.36, -150.702, 119.435, 89.1378, 0, 0, 5.3719, -54.4239, 5.35359, -173.776, 5.45884, 66.0639, 0.0436499, -114.356
0, 1140.00000, 117.721, -31.3499, 117.36, -150.702, 119.435, 89.1378, 0, 0, 5.3719, -54.4239, 5.35359, -173.776, 5.45884, 66.0639, 0.0436499, -114.356
0, 1200.00000, 117.721, -31.3499, 117.36, -150.702, 119.435, 89.1378, 0, 0, 5.3719, -54.4239, 5.35359, -173.776, 5.45884, 66.0639, 0.0436499, -114.356
0, 1260.00000, 117.721, -31.3499, 117.36, -150.702, 119.435, 89.1378, 0, 0, 5.3719, -54.4239, 5.35359, -173.776, 5.45884, 66.0639, 0.0436499, -114.356
0, 1320.00000, 117.721, -31.3499, 117.36, -150.702, 119.435, 89.1378, 0, 0, 5.3719, -54.4239, 5.35359, -173.776, 5.45884, 66.0639, 0.0436499, -114.356
0, 1380.00000, 117.721, -31.3499, 117.36, -150.702, 119.435, 89.1378, 0, 0, 5.3719, -54.4239, 5.35359, -173.776, 5.45884, 66.0639, 0.0436499, -114.356
0, 1440.00000, 117.721, -31.3499, 117.36, -150.702, 119.435, 89.1378, 0, 0, 5.3719, -54.4239, 5.35359, -173.776, 5.45884, 66.0639, 0.0436499, -114.356
0, 1500.00000, 117.721, -31.3499, 117.36, -150.702, 119.435, 89.1378, 0, 0, 5.3719, -54.4239, 5.35359, -173.776, 5.45884, 66.0639, 0.0436499, -114.356
0, 1560.00000, 117.721, -31.3499, 117.36, -150.702, 119.435, 89.1378, 0, 0, 5.3719, -54.4239, 5.35359, -173.776, 5.45884, 66.0639, 0.0436499, -114.356
0, 1620.00000, 117.721, -31.3499, 117.36, -150.702, 119.435, 89.1378, 0, 0, 5.3719, -54.4239, 5.35359, -173.776, 5.45884, 66.0639, 0.0436499, -114.356
0, 1680.00000, 117.721, -31.3499, 117.36, -150.702, 119.435, 89.1378, 0, 0, 5.3719, -54.4239, 5.35359, -173.776, 5.45884, 66.0639, 0.0436499, -114.356
0, 1740.00000, 117.721, -31.3499, 117.36, -150.702, 119.435, 89.1378, 0, 0, 5.3719, -54.4239, 5.35359, -173.776, 5.45884, 66.0639, 0.0436499, -114.356
0, 1800.00000, 117.721, -31.3499, 117.36, -150.702, 119.435, 89.1378, 0, 0, 5.3719, -54.4239, 5.35359, -173.776, 5.45884, 66.0639, 0.0436499, -114.356
0, 1860.00000, 117.721, -31.3499, 117.36, -150.702, 119.435, 89.1378, 0, 0, 5.3719, -54.4239, 5.35359, -173.776, 5.45884, 66.0639, 0.0436499, -114.356
0, 1920.00000, 117.721, -31.3499, 117.36, -150.702, 119.435, 89.1378, 0, 0, 5.3719, -54.4239, 5.35359, -173.776, 5.45884, 66.0639, 0.0436499, -114.356
0, 1980.00000, 117.721, -31.3499, 117.36, -150.702, 119.435, 89.1378, 0, 0, 5.3719, -54.4239, 5.35359, -173.776, 5.45884, 66.0639, 0.0436499, -114.356
0, 2040.00000, 117.721, -31.3499, 117.36, -150.702, 119.435, 89.1378, 0, 0, 5.3719, -54.4239, 5.35359, -173.776, 5.45884, 66.0639, 0.0436499, -114.356
0, 2100.00000, 117.721, -31.3499, 117.36, -150.702, 119.435, 89.1378, 0, 0, 5.3719, -54.4239, 5.35359, -173.776, 5.45884, 66.0639, 0.0436499, -114.356
0, 2160.00000, 117.721, -31.3499, 117.36, -150.702, 119.435, 89.1378, 0, 0, 5.3719, -54.4239, 5.35359, -173.776, 5.45884, 66.0639, 0.0436499, -114.356
0, 2220.00000, 117.721, -31.3499, 117.36, -150.702, 119.435, 89.1378, 0, 0, 5.3719, -54.4239, 5.35359, -173.776, 5.45884, 66.0639, 0.0436499, -114.356
0, 2280.00000, 117.721, -31.3499, 117.36, -150.702, 119.435, 89.1378, 0, 0, 5.3719, -54.4239, 5.35359, -173.776, 5.45884, 66.0639, 0.0436499, -114.356
0, 2340.00000, 117.721, -31.3499, 117.36, -150.702, 119.435, 89.1378, 0, 0, 5.3719, -54.4239, 5.35359, -173.776, 5.45884, 66.0639, 0.0436499, -114.356
0, 2400.00000, 117.721, -31.3499, 117.36, -150.702, 119.435, 89.1378, 0, 0, 5.3719, -54.4239, 5.35359, -173.776, 5.45884, 66.0639, 0.0436499, -114.356
0, 2460.00000, 117.721, -31.3499, 117.36, -150.702, 119.435, 89.1378, 0, 0, 5.3719, -54.4239, 5.35359, -173.776, 5.45884, 66.0639, 0.0436499, -114.356
0, 2520.00000, 117.721, -31.3499, 117.36, -150.702, 119.435, 89.1378, 0, 0, 5.3719, -54.4239, 5.35359, -173.776, 5.45884, 66.0639, 0.0436499, -114.356
0, 2580.00000, 117.721, -31.3499, 117.36, -150.702, 119.435, 89.1378, 0, 0, 5.3719, -54.4239, 5.35359, -173.776, 5.45884, 66.0639, 0.0436499, -114.356
0, 2640.00000, 117.721, -31.3499, 117.36, -150.702, 119.435, 89.1378, 0, 0, 5.3719, -54.4239, 5.35359, -173.776, 5.45884, 66.0639, 0.0436499, -114.356
0, 2700.00000, 117.721, -31.3499, 117.36, -150.702, 119.435, 89.1378, 0, 0, 5.3719, -54.4239, 5.35359, -173.776, 5.45884, 66.0639, 0.0436499, -114.356
0, 2760.00000, 117.721, -31.3499, 117.36, -150.702, 119.435, 89.1378, 0, 0, 5.3719, -54.4239, 5.35359, -173.776, 5.45884, 66.0639, 0.0436499, -114.356
0, 2820.00000, 117.721, -31.3499, 117.36, -150.702, 119.435, 89.1378, 0, 0, 5.3719, -54.4239, 5.35359, -173.776, 5.45884, 66.0639, 0.0436499, -114.356
0, 2880.00000, 117.721, -31.3499, 117.36, -150.702, 119.435, 89.1378, 0, 0, 5.3719, -54.4239, 5.35359, -173.776, 5.45884, 66.0639, 0.0436499, -114.356
0, 2940.00000, 117.721, -31.3499, 117.36, -150.702, 119.435, 89.1378, 0, 0, 5.3719, -54.4239, 5.35359, -173.776, 5.45884, 66.0639, 0.0436499, -114.356
0, 3000.00000, 117.721, -31.3499, 117.36, -150.702, 119.435, 89.1378, 0, 0, 5.3719, -54.4239, 5.35359, -173.776, 5.45884, 66.0639, 0.0436499, -114.356
0, 3060.00000, 117.721, -31.3499, 117.36, -150.702, 119.435, 89.1378, 0, 0, 5.3719, -54.4239, 5.35359, -173.776, 5.45884, 66.0639, 0.0436499, -114.356
0, 3120.00000, 117.721, -31.3499, 117.36, -150.702, 119.435, 89.1378, 0, 0, 5.3719, -54.4239, 5.35359, -173.776, 5.45884, 66.0639, 0.0436499, -114.356
0, 3180.00000, 117.721, -31.3499, 117.36, -150.702, 119.435, 89.1378, 0, 0, 5.3719, -54.4239, 5.35359, -173.776, 5.45884, 66.0639, 0.0436499, -114.356
0, 3240.00000, 117.721, -31.3499, 117.36, -150.702, 119.435, 89.1378, 0, 0, 5.3719, -54.4239, 5.35359, -173.776, 5.45884, 66.0639, 0.0436499, -114.356
0, 3300.00000, 117.721, -31.3499, 117.36, -150.702, 119.435, 89.1378, 0, 0, 5.3719, -54.4239, 5.35359, -173.776, 5.45884, 66.0639, 0.0436499, -114.356
0, 3360.00000, 117.721, -31.3499, 117.36, -150.702, 119.435, 89.1378, 0, 0, 5.3719, -54.4239, 5.35359, -173.776, 5.45884, 66.0639, 0.0436499, -114.356
0, 3420.00000, 117.721, -31.3499, 117.36, -150.702, 119.435, 89.1378, 0, 0, 5.3719, -54.4239, 5.35359, -173.776, 5.45884, 66.0639, 0.0436499, -114.356
0, 3480.00000, 117.721, -31.3499, 117.36, -150.702, 119.435, 89.1378, 0, 0, 5.3719, -54.4239, 5.35359, -173.776, 5.45884, 66.0639, 0.0436499, -114.356
0, 3540.00000, 117.721, -31.3499, 117.36, -150.702, 119.435, 89.1378, 0, 0, 5.3719, -54.4239, 5.35359, -173.776, 5.45884, 66.0639, 0.0436499, -114.356
1, 0.00000, 117.721, -31.3499, 117.36, -150.702, 119.435, 89.1378, 0, 0, 5.3719, -54.4239, 5.35359, -173.776, 5.45884, 66.0639, 0.0436499, -114.356
1, 60.00000, 117.842, -31.2098, 117.68, -150.679, 119.428, 89.1397, 0, 0, 5.37803, -54.2838, 5.36977, -173.753, 5.45852, 66.0658, 0.0415646, -112.787
1, 120.00000, 117.842, -31.2098, 117.68, -150.679, 119.428, 89.1397, 0, 0, 5.37806, -54.2837, 5.36983, -173.753, 5.45849, 66.0658, 0.0414811, -112.774
1, 180.00000, 117.842, -31.2098, 117.68, -150.679, 119.428, 89.1397, 0, 0, 5.37806, -54.2837, 5.36983, -173.753, 5.45849, 66.0658, 0.0414804, -112.774
1, 240.00000, 117.842, -31.2098, 117.68, -150.679, 119.428, 89.1397, 0, 0, 5.37806, -54.2837, 5.36983, -173.753, 5.45849, 66.0658, 0.0414804, -112.774
1, 300.00000, 117.842, -31.2098, 117.68, -150.679, 119.428, 89.1397, 0, 0, 5.37806, -54.2837, 5.36983, -173.753, 5.45849, 66.0658, 0.0414804, -112.774
1, 360.00000, 117.842, -31.2098, 117.68, -150.679, 119.428, 89.1397, 0, 0, 5.37806, -54.2837, 5.36983, -173.753, 5.45849, 66.0658, 0.0414804, -112.774
1, 420.00000, 117.842, -31.2098, 117.68, -150.679, 119.428, 89.1397, 0, 0, 5.37806, -54.2837, 5.36983, -173.753, 5.45849, 66.0658, 0.0414804, -112.774
1, 480.00000, 117.842, -31.2098, 117.68, -150.679, 119.428, 89.1397, 0, 0, 5.37806, -54.2837, 5.36983, -173.753, 5.45849, 66.0658, 0.0414804, -112.774
1, 540.00000, 117.842, -31.2098, 117.68, -150.679, 119.428, 89.1397, 0, 0, 5.37806, -54.2837, 5.36983, -173.753, 5.45849, 66.0658, 0.0414804, -112.774
1, 600.00000, 117.842, -31.2098, 117.68, -150.679, 119.428, 89.1397, 0, 0, 5.37806, -54.2837, 5.36983, -173.753, 5.45849, 66.0658, 0.0414804, -112.774
1, 660.00000, 117.842, -31.2098, 117.68, -150.679, 119.428, 89.1397, 0, 0, 5.37806, -54.2837, 5.36983, -173.753, 5.45849, 66.0658, 0.0414804, -112.774
1, 720.00000, 117.842, -31.2098, 117.68, -150.679, 119.428, 89.1397, 0, 0, 5.37806, -54.2837, 5.36983, -173.753, 5.45849, 66.0658, 0.0414804, -112.774
1, 780.00000, 117.842, -31.2098, 117.68, -150.679, 119.428, 89.1397, 0, 0, 5.37806, -54.2837, 5.36983, -173.753, 5.45849, 66.0658, 0.0414804, -112.774
1, 840.00000, 117.842, -31.2098, 117.68, -150.679, 119.428, 89.1397, 0, 0, 5.37806, -54.2837, 5.36983, -173.753, 5.45849, 66.0658, 0.0414804, -112.774
1, 900.00000, 117.842, -31.2098, 117.68, -150.679, 119.428, 89.1397, 0, 0, 5.37806, -54.2837, 5.36983, -173.753, 5.45849, 66.0658, 0.0414804, -112.774
1, 960.00000, 117.842, -31.2098, 117.68, -150.679, 119.428, 89.1397, 0, 0, 5.37806, -54.2837, 5.36983, -173.753, 5.45849, 66.0658, 0.0414804, -112.774
1, 1020.00000, 117.842, -31.2098, 117.68, -150.679, 119.428, 89.1397, 0, 0, 5.37806, -54.2837, 5.36983, -173.753, 5.45849, 66.0658, 0.0414804, -112.774
1, 1080.00000, 117.842, -31.2098, 117.68, -150.679, 119.428, 89.1397, 0, 0, 5.37806, -54.2837, 5.36983, -173.753, 5.45849, 66.0658, 0.0414804, -112.774
1, 1140.00000, 117.842, -31.2098, 117.68, -150.679, 119.428, 89.1397, 0, 0, 5.37806, -54.2837, 5.36983, -173.753, 5.45849, 66.0658, 0.0414804, -112.774
1, 1200.00000, 117.842, -31.2098, 117.68, -150.679, 119.428, 89.1397, 0, 0, 5.37806, -54.2837, 5.36983, -173.753, 5.45849, 66.0658, 0.0414804, -112.774
1, 1260.00000, 117.842, -31.2098, 117.68, -150.679, 119.428, 89.1397, 0, 0, 5.37806, -54.2837, 5.36983, -173.753, 5.45849, 66.0658, 0.0414804, -112.774
1, 1320.00000, 117.842, -31.2098, 117.68, -150.679, 119.428, 89.1397, 0, 0, 5.37806, -54.2837, 5.36983, -173.753, 5.45849, 66.0658, 0.0414804, -112.774
1, 1380.00000, 117.842, -31.2098, 117.68, -150.679, 119.428, 89.1397, 0, 0, 5.37806, -54.2837, 5.36983, -173.753, 5.45849, 66.0658, 0.0414804, -112.774
1, 1440.00000, 117.842, -31.2098, 117.68, -150.679, 119.428, 89.1397, 0, 0, 5.37806, -54.2837, 5.36983, -173.753, 5.45849, 66.0658, 0.0414804, -112.774
1, 1500.00000, 117.842, -31.2098, 117.68, -150.679, 119.428, 89.1397, 0, 0, 5.37806, -54.2837, 5.36983, -173.753, 5.45849, 66.0658, 0.0414804, -112.774
1, 1560.00000, 117.842, -31.2098, 117.68, -150.679, 119.428, 89.1397, 0, 0, 5.37806, -54.2837, 5.36983, -173.753, 5.45849, 66.0658, 0.0414804, -112.774
1, 1620.00000, 117.842, -31.2098, 117.68, -150.679, 119.428, 89.1397, 0, 0, 5.37806, -54.2837, 5.36983, -173.753, 5.45849, 66.0658, 0.0414804, -112.774
1, 1680.00000, 117.842, -31.2098, 117.68, -150.679, 119.428, 89.1397, 0, 0, 5.37806, -54.2837, 5.36983, -173.753, 5.45849, 66.0658, 0.0414804, -112.774
1, 1740.00000, 117.842, -31.2098, 117.68, -150.679, 119.428, 89.1397, 0, 0, 5.37806, -54.2837, 5.36983, -173.753, 5.45849, 66.0658, 0.0414804, -112.774
1, 1800.00000, 117.842, -31.2098, 117.68, -150.679, 119.428, 89.1397, 0, 0, 5.37806, -54.2837, 5.36983, -173.753, 5.45849, 66.0658, 0.0414804, -112.774
1, 1860.00000, 117.842, -31.2098, 117.68, -150.679, 119.428, 89.1397, 0, 0, 5.37806, -54.2837, 5.36983, -173.753, 5.45849, 66.0658, 0.0414804, -112.774
1, 1920.00000, 117.842, -31.2098, 117.68, -150.679, 119.428, 89.1397, 0, 0, 5.37806, -54.2837, 5.36983, -173.753, 5.45849, 66.0658, 0.0414804, -112.774
1, 1980.00000, 117.842, -31.2098, 117.68, -150.679, 119.428, 89.1397, 0, 0, 5.37806, -54.2837, 5.36983, -173.753, 5.45849, 66.0658, 0.0414804, -112.774
1, 2040.00000, 117.842, -31.2098, 117.68, -150.679, 119.428, 89.1397, 0, 0, 5.37806, -54.2837, 5.36983, -173.753, 5.45849, 66.0658, 0.0414804, -112.774
1, 2100.00000, 117.842, -31.2098, 117.68, -150.679, 119.428, 89.1397, 0, 0, 5.37806, -54.2837, 5.36983, -173.753, 5.45849, 66.0658, 0.0414804, -112.774
1, 2160.00000, 117.842, -31.2098, 117.68, -150.679, 119.428, 89.1397, 0, 0, 5.37806, -54.2837, 5.36983, -173.753, 5.45849, 66.0658, 0.0414804, -112.774
1, 2220.00000, 117.842, -31.2098, 117.68, -150.679, 119.428, 89.1397, 0, 0, 5.37806, -54.2837, 5.36983, -173.753, 5.45849, 66.0658, 0.0414804, -112.774
1, 2280.00000, 117.842, -31.2098, 117.68, -150.679, 119.428, 89.1397, 0, 0, 5.37806, -54.2837, 5.36983, -173.753, 5.45849, 66.0658, 0.0414804, -112.774
1, 2340.00000, 117.842, -31.2098, 117.68, -150.679, 119.428, 89.1397, 0, 0, 5.37806, -54.2837, 5.36983, -173.753, 5.45849, 66.0658, 0.0414804, -112.774
1, 2400.00000, 117.842, -31.2098, 117.68, -150.679, 119.428, 89.1397, 0, 0, 5.37806, -54.2837, 5.36983, -173.753, 5.45849, 66.0658, 0.0414804, -112.774
1, 2460.00000, 117.842, -31.2098, 117.68, -150.679, 119.428, 89.1397, 0, 0, 5.37806, -54.2837, 5.36983, -173.753, 5.45849, 66.0658, 0.0414804, -112.774
1, 2520.00000, 117.842, -31.2098, 117.68, -150.679, 119.428, 89.1397, 0, 0, 5.37806, -54.2837, 5.36983, -173.753, 5.45849, 66.0658, 0.0414804, -112.774
1, 2580.00000, 117.842, -31.2098, 117.68, -150.679, 119.428, 89.1397, 0, 0, 5.37806, -54.2837, 5.36983, -173.753, 5.45849, 66.0658, 0.0414804, -112.774
1, 2640.00000, 117.842, -31.2098, 117.68, -150.679, 119.428, 89.1397, 0, 0, 5.37806, -54.2837, 5.36983, -173.753, 5.45849, 66.0658, 0.0414804, -112.774
1, 2700.00000, 117.842, -31.2098, 117.68, -150.679, 119.428, 89.1397, 0, 0, 5.37806, -54.2837, 5.36983, -173.753, 5.45849, 66.0658, 0.0414804, -112.774
1, 2760.00000, 117.842, -31.2098, 117.68, -150.679, 119.428, 89.1397, 0, 0, 5.37806, -54.2837, 5.36983, -173.753, 5.45849, 66.0658, 0.0414804, -112.774
1, 2820.00000, 117.842, -31.2098, 117.68, -150.679, 119.428, 89.1397, 0, 0, 5.37806, -54.2837, 5.36983, -173.753, 5.45849, 66.0658, 0.0414804, -112.774
1, 2880.00000, 117.842, -31.2098, 117.68, -150.679, 119.428, 89.1397, 0, 0, 5.37806, -54.2837, 5.36983, -173.753, 5.45849, 66.0658, 0.0414804, -112.774
1, 2940.00000, 117.842, -31.2098, 117.68, -150.679, 119.428, 89.1397, 0, 0, 5.37806, -54.2837, 5.36983, -173.753, 5.45849, 66.0658, 0.0414804, -112.774
1, 3000.00000, 117.842, -31.2098, 117.68, -150.679, 119.428, 89.1397, 0, 0, 5.37806, -54.2837, 5.36983, -173.753, 5.45849, 66.0658, 0.0414804, -112.774
1, 3060.00000, 117.842, -31.2098, 117.68, -150.679, 119.428, 89.1397, 0, 0, 5.37806, -54.2837, 5.36983, -173.753, 5.45849, 66.0658, 0.0414804, -112.774
1, 3120.00000, 117.842, -31.2098, 117.68, -150.679, 119.428, 89.1397, 0, 0, 5.37806, -54.2837, 5.36983, -173.753, 5.45849, 66.0658, 0.0414804, -112.774
1, 3180.00000, 117.842, -31.2098, 117.68, -150.679, 119.428, 89.1397, 0, 0, 5.37806, -54.2837, 5.36983, -173.753, 5.45849, 66.0658, 0.0414804, -112.774
1, 3240.00000, 117.842, -31.2098, 117.68, -150.679, 119.428, 89.1397, 0, 0, 5.37806, -54.2837, 5.36983, -173.753, 5.45849, 66.0658, 0.0414804, -112.774
1, 3300.00000, 117.842, -31.2098, 117.68, -150.679, 119.428, 89.1397, 0, 0, 5.37806, -54.2837, 5.36983, -173.753, 5.45849, 66.0658, 0.0414804, -112.774
1, 3360.00000, 117.842, -31.2098, 117.68, -150.679, 119.428, 89.1397, 0, 0, 5.37806, -54.2837, 5.36983, -173.753, 5.45849, 66.0658, 0.0414804, -112.774
1, 3420.00000, 117.842, -31.2098, 117.68, -150.679, 119.428, 89.1397, 0, 0, 5.37806, -54.2837, 5.36983, -173.753, 5.45849, 66.0658, 0.0414804, -112.774
1, 3480.00000, 117.842, -31.2098, 117.68, -150.679, 119.428, 89.1397, 0, 0, 5.37806, -54.2837, 5.36983, -173.753, 5.45849, 66.0658, 0.0414804, -112.774
1, 3540.00000, 117.842, -31.2098, 117.68, -150.679, 119.428, 89.1397, 0, 0, 5.37806, -54.2837, 5.36983, -173.753, 5.45849, 66.0658, 0.0414804, -112.774
2, 0.00000, 117.842, -31.2098, 117.68, -150.679, 119.428, 89.1397, 0, 0, 5.37806, -54.2837, 5.36983, -173.753, 5.45849, 66.0658, 0.0414804, -112.774
2, 60.00000, 117.842, -31.2098, 117.68, -150.679, 119.428, 89.1397, 0, 0, 5.37806, -54.2837, 5.36983, -173.753, 5.45849, 66.0658, 0.0414804, -112.774
2, 120.00000, 117.842, -31.2098, 117.68, -150.679, 119.428, 89.1397, 0, 0, 5.37806, -54.2837, 5.36983, -173.753, 5.45849, 66.0658, 0.0414804, -112.774
2, 180.00000, 117.842, -31.2098, 117.68, -150.679, 119.428, 89.1397, 0, 0, 5.37806, -54.2837, 5.36983, -173.753, 5.45849, 66.0658, 0.0414804, -112.774
2, 240.00000, 117.842, -31.2098, 117.68, -150.679, 119.428, 89.1397, 0, 0, 5.37806, -54.2837, 5.36983, -173.753, 5.45849, 66.0658, 0.0414804, -112.774
2, 300.00000, 117.842, -31.2098, 117.68, -150.679, 119.428, 89.1397, 0, 0, 5.37806, -54.2837, 5.36983, -173.753, 5.45849, 66.0658, 0.0414804, -112.774
2, 360.00000, 117.842, -31.2098, 117.68, -150.679, 119.428, 89.1397, 0, 0, 5.37806, -54.2837, 5.36983, -173.753, 5.45849, 66.0658, 0.0414804, -112.774
2, 420.00000, 117.842, -31.2098, 117.68, -150.679, 119.428, 89.1397, 0, 0, 5.37806, -54.2837, 5.36983, -173.753, 5.45849, 66.0658, 0.0414804, -112.774
2, 480.00000, 117.842, -31.2098, 117.68, -150.679, 119.428, 89.1397, 0, 0, 5.37806, -54.2837, 5.36983, -173.753, 5.45849, 66.0658, 0.0414804, -112.774
2, 540.00000, 117.842, -31.2098, 117.68, -150.679, 119.428, 89.1397, 0, 0, 5.37806, -54.2837, 5.36983, -173.753, 5.45849, 66.0658, 0.0414804, -112.774
2, 600.00000, 117.842, -31.2098, 117.68, -150.679, 119.428, 89.1397, 0, 0, 5.37806, -54.2837, 5.36983, -173.753, 5.45849, 66.0658, 0.0414804, -112.774
2, 660.00000, 117.842, -31.2098, 117.68, -150.679, 119.428, 89.1397, 0, 0, 5.37806, -54.2837, 5.36983, -173.753, 5.45849, 66.0658, 0.0414804, -112.774
