hour,t(sec),V1,VAngle1,V2,VAngle2,V3,VAngle3,V4,VAngle4,I1,IAngle1,I2,IAngle2,I3,IAngle3,I4,IAngle4
0, 60.00000, 119.585, -32.2388, 120.572, -151.25, 122.517, 87.9951, 0, 0, 5.2719, -55.3127, 5.32011, -174.323, 5.24444, 64.9217, 0.13181, 57.4535
0, 120.00000, 119.587, -32.2528, 120.572, -151.25, 122.549, 87.9898, 0, 0, 5.27202, -55.3268, 5.32009, -174.324, 5.24306, 64.9164, 0.134304, 57.5662
0, 180.00000, 119.59, -32.2654, 120.572, -151.251, 122.578, 87.985, 0, 0, 5.27213, -55.3394, 5.32008, -174.324, 5.24181, 64.9115, 0.136557, 57.6617
0, 240.00000, 119.591, -32.2767, 120.571, -151.251, 122.605, 87.9808, 0, 0, 5.27222, -55.3507, 5.32007, -174.325, 5.24065, 64.9072, 0.138598, 57.7412
0, 300.00000, 119.593, -32.2868, 120.571, -151.252, 122.63, 87.9769, 0, 0, 5.27229, -55.3608, 5.32005, -174.326, 5.23959, 64.9033, 0.140444, 57.8083
0, 360.00000, 119.595, -32.2959, 120.571, -151.252, 122.652, 87.9735, 0, 0, 5.27235, -55.3699, 5.32004, -174.326, 5.23864, 64.8998, 0.142105, 57.867
0, 420.00000, 119.596, -32.3041, 120.571, -151.253, 122.672, 87.9703, 0, 0, 5.27241, -55.3781, 5.32003, -174.326, 5.23778, 64.8967, 0.1436, 57.9185
0, 480.00000, 120.473, -32.2059, 121.446, -151.166, 123.669, 88.0898, 0, 0, 4.62433, -55.2798, 4.60276, -174.24, 4.52011, 65.0161, 0.16973, 77.5769
0, 540.00000, 120.474, -32.2126, 121.446, -151.166, 123.686, 88.0872, 0, 0, 4.62437, -55.2865, 4.60277, -174.24, 4.5195, 65.0135, 0.170764, 77.4802
0, 600.00000, 120.475, -32.2186, 121.445, -151.167, 123.7, 88.0849, 0, 0, 4.6244, -55.2925, 4.60277, -174.24, 4.51896, 65.0112, 0.171693, 77.395
0, 660.00000, 120.476, -32.2241, 121.445, -151.167, 123.713, 88.0828, 0, 0, 4.62444, -55.298, 4.60278, -174.241, 4.51847, 65.0091, 0.172529, 77.319
0, 720.00000, 120.477, -32.229, 121.445, -151.167, 123.725, 88.0809, 0, 0, 4.62446, -55.3029, 4.60278, -174.241, 4.51803, 65.0072, 0.173282, 77.2513
0, 780.00000, 120.477, -32.2334, 121.445, -151.167, 123.736, 88.0792, 0, 0, 4.62449, -55.3073, 4.60279, -174.241, 4.51764, 65.0055, 0.17396, 77.1908
0, 840.00000, 120.478, -32.2374, 121.445, -151.168, 123.745, 88.0777, 0, 0, 4.62451, -55.3113, 4.60279, -174.241, 4.51728, 65.0039, 0.17457, 77.1367
0, 900.00000, 120.478, -32.2409, 121.445, -151.168, 123.754, 88.0763, 0, 0, 4.62454, -55.3148, 4.6028, -174.242, 4.51696, 65.0025, 0.175119, 77.0884
0, 960.00000, 120.479, -32.2442, 121.445, -151.168, 123.762, 88.0751, 0, 0, 4.62455, -55.3181, 4.6028, -174.242, 4.51668, 65.0013, 0.175613, 77.0451
0, 1020.00000, 120.479, -32.2471, 121.445, -151.168, 123.769, 88.0739, 0, 0, 4.62457, -55.321, 4.6028, -174.242, 4.51642, 65.0001, 0.176058, 77.0064
0, 1080.00000, 120.48, -32.2497, 121.445, -151.168, 123.775, 88.0729, 0, 0, 4.62459, -55.3236, 4.6028, -174.242, 4.51618, 64.9991, 0.176458, 76.9717
0, 1140.00000, 120.48, -32.252, 121.445, -151.168, 123.781, 88.072, 0, 0, 4.6246, -55.3259, 4.60281, -174.242, 4.51597, 64.9982, 0.176819, 76.9406
0, 1200.00000, 120.48, -32.2541, 121.445, -151.168, 123.786, 88.0712, 0, 0, 4.62461, -55.328, 4.60281, -174.242, 4.51579, 64.9974, 0.177143, 76.9127
0, 1260.00000, 120.481, -32.256, 121.445, -151.169, 123.79, 88.0705, 0, 0, 4.62462, -55.3299, 4.60281, -174.242, 4.51562, 64.9966, 0.177435, 76.8877
0, 1320.00000, 120.481, -32.2577, 121.445, -151.169, 123.794, 88.0698, 0, 0, 4.62463, -55.3316, 4.60281, -174.242, 4.51546, 64.996, 0.177698, 76.8653
0, 1380.00000, 120.481, -32.2593, 121.444, -151.169, 123.798, 88.0692, 0, 0, 4.62464, -55.3332, 4.60281, -174.243, 4.51533, 64.9954, 0.177934, 76.8451
0, 1440.00000, 120.481, -32.2607, 121.444, -151.169, 123.801, 88.0687, 0, 0, 4.62465, -55.3346, 4.60282, -174.243, 4.5152, 64.9948, 0.178147, 76.8271
0, 1500.00000, 120.482, -32.2619, 121.444, -151.169, 123.804, 88.0682, 0, 0, 4.62466, -55.3358, 4.60282, -174.243, 4.51509, 64.9943, 0.178339, 76.8108
0, 1560.00000, 120.482, -32.263, 121.444, -151.169, 123.807, 88.0678, 0, 0, 4.62466, -55.337, 4.60282, -174.243, 4.51499, 64.9939, 0.178511, 76.7962
0, 1620.00000, 120.482, -32.2641, 121.444, -151.169, 123.81, 88.0674, 0, 0, 4.62467, -55.338, 4.60282, -174.243, 4.5149, 64.9935, 0.178666, 76.7831
0, 1680.00000, 120.482, -32.265, 121.444, -151.169, 123.812, 88.067, 0, 0, 4.62467, -55.3389, 4.60282, -174.243, 4.51482, 64.9931, 0.178806, 76.7714
0, 1740.00000, 120.482, -32.2658, 121.444, -151.169, 123.814, 88.0667, 0, 0, 4.62468, -55.3397, 4.60282, -174.243, 4.51475, 64.9928, 0.178932, 76.7608
0, 1800.00000, 120.482, -32.2665, 121.444, -151.169, 123.816, 88.0664, 0, 0, 4.62468, -55.3404, 4.60282, -174.243, 4.51468, 64.9925, 0.179045, 76.7513
0, 1860.00000, 120.482, -32.2672, 121.444, -151.169, 123.817, 88.0662, 0, 0, 4.62469, -55.3411, 4.60282, -174.243, 4.51462, 64.9923, 0.179147, 76.7427
0, 1920.00000, 120.482, -32.2678, 121.444, -151.169, 123.819, 88.0659, 0, 0, 4.62469, -55.3417, 4.60282, -174.243, 4.51457, 64.992, 0.179238, 76.735
0, 1980.00000, 120.483, -32.2683, 121.444, -151.169, 123.82, 88.0657, 0, 0, 4.62469, -55.3422, 4.60282, -174.243, 4.51452, 64.9918, 0.179321, 76.7281
0, 2040.00000, 120.483, -32.2688, 121.444, -151.169, 123.821, 88.0655, 0, 0, 4.62469, -55.3427, 4.60282, -174.243, 4.51448, 64.9916, 0.179395, 76.7219
0, 2100.00000, 120.483, -32.2692, 121.444, -151.169, 123.822, 88.0654, 0, 0, 4.6247, -55.3432, 4.60282, -174.243, 4.51444, 64.9915, 0.179462, 76.7163
0, 2160.00000, 120.483, -32.2696, 121.444, -151.169, 123.823, 88.0652, 0, 0, 4.6247, -55.3435, 4.60283, -174.243, 4.5144, 64.9913, 0.179522, 76.7113
0, 2220.00000, 120.483, -32.27, 121.444, -151.169, 123.824, 88.0651, 0, 0, 4.6247, -55.3439, 4.60283, -174.243, 4.51437, 64.9912, 0.179576, 76.7068
0, 2280.00000, 120.483, -32.2703, 121.444, -151.169, 123.825, 88.0649, 0, 0, 4.6247, -55.3442, 4.60283, -174.243, 4.51434, 64.991, 0.179625, 76.7027
0, 2340.00000, 120.483, -32.2706, 121.444, -151.169, 123.825, 88.0648, 0, 0, 4.6247, -55.3445, 4.60283, -174.243, 4.51432, 64.9909, 0.179669, 76.6991
0, 2400.00000, 120.483, -32.2708, 121.444, -151.169, 123.826, 88.0647, 0, 0, 4.62471, -55.3448, 4.60283, -174.243, 4.5143, 64.9908, 0.179708, 76.6958
0, 2460.00000, 120.483, -32.2711, 121.444, -151.169, 123.827, 88.0647, 0, 0, 4.62471, -55.345, 4.60283, -174.243, 4.51428, 64.9907, 0.179744, 76.6928
0, 2520.00000, 120.483, -32.2713, 121.444, -151.169, 123.827, 88.0646, 0, 0, 4.62471, -55.3452, 4.60283, -174.243, 4.51426, 64.9907, 0.179776, 76.6901
0, 2580.00000, 120.483, -32.2715, 121.444, -151.169, 123.827, 88.0645, 0, 0, 4.62471, -55.3454, 4.60283, -174.243, 4.51424, 64.9906, 0.179804, 76.6877
0, 2640.00000, 120.483, -32.2716, 121.444, -151.169, 123.828, 88.0644, 0, 0, 4.62471, -55.3456, 4.60283, -174.243, 4.51423, 64.9905, 0.17983, 76.6856
0, 2700.00000, 120.483, -32.2718, 121.444, -151.169, 123.828, 88.0644, 0, 0, 4.62471, -55.3457, 4.60283, -174.243, 4.51421, 64.9905, 0.179854, 76.6836
0, 2760.00000, 120.483, -32.2719, 121.444, -151.169, 123.829, 88.0643, 0, 0, 4.62471, -55.3458, 4.60283, -174.243, 4.5142, 64.9904, 0.179875, 76.6819
0, 2820.00000, 120.483, -32.272, 121.444, -151.169, 123.829, 88.0643, 0, 0, 4.62471, -55.346, 4.60283, -174.243, 4.51419, 64.9904, 0.179893, 76.6803
0, 2880.00000, 120.483, -32.2722, 121.444, -151.169, 123.829, 88.0642, 0, 0, 4.62471, -55.3461, 4.60283, -174.243, 4.51418, 64.9903, 0.17991, 76.6789
0, 2940.00000, 120.483, -32.2723, 121.444, -151.169, 123.829, 88.0642, 0, 0, 4.62471, -55.3462, 4.60283, -174.243, 4.51417, 64.9903, 0.179926, 76.6776
0, 3000.00000, 120.483, -32.2723, 121.444, -151.169, 123.83, 88.0642, 0, 0, 4.62471, -55.3463, 4.60283, -174.243, 4.51416, 64.9902, 0.17994, 76.6765
0, 3060.00000, 120.483, -32.2724, 121.444, -151.169, 123.83, 88.0641, 0, 0, 4.62471, -55.3463, 4.60283, -174.243, 4.51415, 64.9902, 0.179952, 76.6755
0, 3120.00000, 120.483, -32.2725, 121.444, -151.169, 123.83, 88.0641, 0, 0, 4.62471, -55.3464, 4.60283, -174.243, 4.51415, 64.9902, 0.179963, 76.6745
0, 3180.00000, 120.483, -32.2726, 121.444, -151.169, 123.83, 88.0641, 0, 0, 4.62472, -55.3465, 4.60283, -174.243, 4.51414, 64.9902, 0.179973, 76.6737
0, 3240.00000, 120.483, -32.2726, 121.444, -151.169, 123.83, 88.064, 0, 0, 4.62472, -55.3465, 4.60283, -174.243, 4.51414, 64.9901, 0.179982, 76.673
0, 3300.00000, 120.483, -32.2727, 121.444, -151.169, 123.83, 88.064, 0, 0, 4.62472, -55.3466, 4.60283, -174.243, 4.51413, 64.9901, 0.17999, 76.6723
0, 3360.00000, 120.483, -32.2727, 121.444, -151.169, 123.83, 88.064, 0, 0, 4.62472, -55.3466, 4.60283, -174.243, 4.51413, 64.9901, 0.179998, 76.6717
0, 3420.00000, 120.483, -32.2728, 121.444, -151.169, 123.831, 88.064, 0, 0, 4.62472, -55.3467, 4.60283, -174.243, 4.51412, 64.9901, 0.180004, 76.6711
0, 3480.00000, 120.483, -32.2728, 121.444, -151.169, 123.831, 88.064, 0, 0, 4.62472, -55.3467, 4.60283, -174.243, 4.51412, 64.9901, 0.18001, 76.6706
0, 3540.00000, 120.483, -32.2728, 121.444, -151.169, 123.831, 88.064, 0, 0, 4.62472, -55.3468, 4.60283, -174.243, 4.51412, 64.99, 0.180015, 76.6702
1, 0.00000, 120.483, -32.2729, 121.444, -151.169, 123.831, 88.0639, 0, 0, 4.62472, -55.3468, 4.60283, -174.243, 4.51411, 64.99, 0.18002, 76.6698
1, 60.00000, 120.483, -32.2729, 121.444, -151.169, 123.831, 88.0639, 0, 0, 4.62472, -55.3468, 4.60283, -174.243, 4.51411, 64.99, 0.180024, 76.6694
1, 120.00000, 120.483, -32.2729, 121.444, -151.169, 123.831, 88.0639, 0, 0, 4.62472, -55.3468, 4.60283, -174.243, 4.51411, 64.99, 0.180028, 76.6691
1, 180.00000, 120.483, -32.2729, 121.444, -151.169, 123.831, 88.0639, 0, 0, 4.62472, -55.3469, 4.60283, -174.243, 4.51411, 64.99, 0.180032, 76.6688
1, 240.00000, 120.483, -32.273, 121.444, -151.169, 123.831, 88.0639, 0, 0, 4.62472, -55.3469, 4.60283, -174.243, 4.51411, 64.99, 0.180035, 76.6686
1, 300.00000, 120.483, -32.273, 121.444, -151.169, 123.831, 88.0639, 0, 0, 4.62472, -55.3469, 4.60283, -174.243, 4.5141, 64.99, 0.180038, 76.6683
1, 360.00000, 120.483, -32.273, 121.444, -151.169, 123.831, 88.0639, 0, 0, 4.62472, -55.3469, 4.60283, -174.243, 4.5141, 64.99, 0.18004, 76.6681
1, 420.00000, 120.483, -32.273, 121.444, -151.169, 123.831, 88.0639, 0, 0, 4.62472, -55.3469, 4.60283, -174.243, 4.5141, 64.99, 0.180043, 76.6679
1, 480.00000, 120.483, -32.273, 121.444, -151.169, 123.831, 88.0639, 0, 0, 4.62472, -55.347, 4.60283, -174.243, 4.5141, 64.99, 0.180045, 76.6677
1, 540.00000, 120.483, -32.273, 121.444, -151.169, 123.831, 88.0639, 0, 0, 4.62472, -55.347, 4.60283, -174.243, 4.5141, 64.99, 0.180047, 76.6676
1, 600.00000, 120.483, -32.2731, 121.444, -151.169, 123.831, 88.0639, 0, 0, 4.62472, -55.347, 4.60283, -174.243, 4.5141, 64.99, 0.180048, 76.6674
1, 660.00000, 120.483, -32.2731, 121.444, -151.169, 123.831, 88.0639, 0, 0, 4.62472, -55.347, 4.60283, -174.243, 4.5141, 64.99, 0.18005, 76.6673
1, 720.00000, 120.483, -32.2731, 121.444, -151.169, 123.831, 88.0639, 0, 0, 4.62472, -55.347, 4.60283, -174.243, 4.5141, 64.99, 0.180051, 76.6672
1, 780.00000, 120.483, -32.2731, 121.444, -151.169, 123.831, 88.0639, 0, 0, 4.62472, -55.347, 4.60283, -174.243, 4.5141, 64.99, 0.180052, 76.6671
1, 840.00000, 120.483, -32.2731, 121.444, -151.169, 123.831, 88.0639, 0, 0, 4.62472, -55.347, 4.60283, -174.243, 4.5141, 64.99, 0.180053, 76.667
1, 900.00000, 120.483, -32.2731, 121.444, -151.169, 123.831, 88.0639, 0, 0, 4.62472, -55.347, 4.60283, -174.243, 4.51409, 64.9899, 0.180054, 76.6669
1, 960.00000, 120.483, -32.2731, 121.444, -151.169, 123.831, 88.0639, 0, 0, 4.62472, -55.347, 4.60283, -174.243, 4.51409, 64.9899, 0.180055, 76.6669
1, 1020.00000, 120.483, -32.2731, 121.444, -151.169, 123.831, 88.0639, 0, 0, 4.62472, -55.347, 4.60283, -174.243, 4.51409, 64.9899, 0.180056, 76.6668
1, 1080.00000, 120.483, -32.2731, 121.444, -151.169, 123.831, 88.0639, 0, 0, 4.62472, -55.347, 4.60283, -174.243, 4.51409, 64.9899, 0.180057, 76.6667
1, 1140.00000, 120.483, -32.2731, 121.444, -151.169, 123.831, 88.0639, 0, 0, 4.62472, -55.347, 4.60283, -174.243, 4.51409, 64.9899, 0.180057, 76.6667
1, 1200.00000, 120.483, -32.2731, 121.444, -151.169, 123.831, 88.0639, 0, 0, 4.62472, -55.347, 4.60283, -174.243, 4.51409, 64.9899, 0.180058, 76.6666
1, 1260.00000, 120.483, -32.2731, 121.444, -151.169, 123.831, 88.0639, 0, 0, 4.62472, -55.347, 4.60283, -174.243, 4.51409, 64.9899, 0.180059, 76.6666
1, 1320.00000, 120.483, -32.2731, 121.444, -151.169, 123.831, 88.0639, 0, 0, 4.62472, -55.347, 4.60283, -174.243, 4.51409, 64.9899, 0.180059, 76.6666
1, 1380.00000, 120.483, -32.2731, 121.444, -151.169, 123.831, 88.0639, 0, 0, 4.62472, -55.347, 4.60283, -174.243, 4.51409, 64.9899, 0.18006, 76.6665
1, 1440.00000, 120.483, -32.2731, 121.444, -151.169, 123.831, 88.0639, 0, 0, 4.62472, -55.347, 4.60283, -174.243, 4.51409, 64.9899, 0.18006, 76.6665
1, 1500.00000, 120.483, -32.2731, 121.444, -151.169, 123.831, 88.0639, 0, 0, 4.62472, -55.347, 4.60283, -174.243, 4.51409, 64.9899, 0.18006, 76.6665
1, 1560.00000, 120.483, -32.2731, 121.444, -151.169, 123.831, 88.0639, 0, 0, 4.62472, -55.3471, 4.60283, -174.243, 4.51409, 64.9899, 0.180061, 76.6664
1, 1620.00000, 120.483, -32.2731, 121.444, -151.169, 123.831, 88.0639, 0, 0, 4.62472, -55.3471, 4.60283, -174.243, 4.51409, 64.9899, 0.180061, 76.6664
1, 1680.00000, 120.483, -32.2731, 121.444, -151.169, 123.831, 88.0639, 0, 0, 4.62472, -55.3471, 4.60283, -174.243, 4.51409, 64.9899, 0.180061, 76.6664
1, 1740.00000, 120.483, -32.2731, 121.444, -151.169, 123.831, 88.0639, 0, 0, 4.62472, -55.3471, 4.60283, -174.243, 4.51409, 64.9899, 0.180061, 76.6664
1, 1800.00000, 120.483, -32.2731, 121.444, -151.169, 123.831, 88.0639, 0, 0, 4.62472, -55.3471, 4.60283, -174.243, 4.51409, 64.9899, 0.180062, 76.6664
1, 1860.00000, 120.483, -32.2731, 121.444, -151.169, 123.831, 88.0638, 0, 0, 4.62472, -55.3471, 4.60283, -174.243, 4.51409, 64.9899, 0.180062, 76.6663
1, 1920.00000, 120.483, -32.2731, 121.444, -151.169, 123.831, 88.0638, 0, 0, 4.62472, -55.3471, 4.60283, -174.243, 4.51409, 64.9899, 0.180062, 76.6663
1, 1980.00000, 120.483, -32.2731, 121.444, -151.169, 123.831, 88.0638, 0, 0, 4.62472, -55.3471, 4.60283, -174.243, 4.51409, 64.9899, 0.180062, 76.6663
1, 2040.00000, 120.483, -32.2731, 121.444, -151.169, 123.831, 88.0638, 0, 0, 4.62472, -55.3471, 4.60283, -174.243, 4.51409, 64.9899, 0.180062, 76.6663
1, 2100.00000, 120.483, -32.2731, 121.444, -151.169, 123.831, 88.0638, 0, 0, 4.62472, -55.3471, 4.60283, -174.243, 4.51409, 64.9899, 0.180062, 76.6663
1, 2160.00000, 120.483, -32.2731, 121.444, -151.169, 123.832, 88.0638, 0, 0, 4.62472, -55.3471, 4.60283, -174.243, 4.51409, 64.9899, 0.180062, 76.6663
1, 2220.00000, 120.483, -32.2731, 121.444, -151.169, 123.832, 88.0638, 0, 0, 4.62472, -55.3471, 4.60283, -174.243, 4.51409, 64.9899, 0.180062, 76.6663
1, 2280.00000, 120.483, -32.2731, 121.444, -151.169, 123.832, 88.0638, 0, 0, 4.62472, -55.3471, 4.60283, -174.243, 4.51409, 64.9899, 0.180063, 76.6663
1, 2340.00000, 120.483, -32.2731, 121.444, -151.169, 123.832, 88.0638, 0, 0, 4.62472, -55.3471, 4.60283, -174.243, 4.51409, 64.9899, 0.180063, 76.6663
1, 2400.00000, 120.483, -32.2732, 121.444, -151.169, 123.832, 88.0638, 0, 0, 4.62472, -55.3471, 4.60283, -174.243, 4.51409, 64.9899, 0.180063, 76.6663
1, 2460.00000, 120.483, -32.2732, 121.444, -151.169, 123.832, 88.0638, 0, 0, 4.62472, -55.3471, 4.60283, -174.243, 4.51409, 64.9899, 0.180063, 76.6662
1, 2520.00000, 120.483, -32.2732, 121.444, -151.169, 123.832, 88.0638, 0, 0, 4.62472, -55.3471, 4.60283, -174.243, 4.51409, 64.9899, 0.180063, 76.6662
1, 2580.00000, 120.483, -32.2732, 121.444, -151.169, 123.832, 88.0638, 0, 0, 4.62472, -55.3471, 4.60283, -174.243, 4.51409, 64.9899, 0.180063, 76.6662
1, 2640.00000, 120.483, -32.2732, 121.444, -151.169, 123.832, 88.0638, 0, 0, 4.62472, -55.3471, 4.60283, -174.243, 4.51409, 64.9899, 0.180063, 76.6662
1, 2700.00000, 120.483, -32.2732, 121.444, -151.169, 123.832, 88.0638, 0, 0, 4.62472, -55.3471, 4.60283, -174.243, 4.51409, 64.9899, 0.180063, 76.6662
1, 2760.00000, 120.483, -32.2732, 121.444, -151.169, 123.832, 88.0638, 0, 0, 4.62472, -55.3471, 4.60283, -174.243, 4.51409, 64.9899, 0.180063, 76.6662
1, 2820.00000, 120.483, -32.2732, 121.444, -151.169, 123.832, 88.0638, 0, 0, 4.62472, -55.3471, 4.60283, -174.243, 4.51409, 64.9899, 0.180063, 76.6662
1, 2880.00000, 120.483, -32.2732, 121.444, -151.169, 123.832, 88.0638, 0, 0, 4.62472, -55.3471, 4.60283, -174.243, 4.51409, 64.9899, 0.180063, 76.6662
1, 2940.00000, 120.483, -32.2732, 121.444, -151.169, 123.832, 88.0638, 0, 0, 4.62472, -55.3471, 4.60283, -174.243, 4.51409, 64.9899, 0.180063, 76.6662
1, 3000.00000, 120.483, -32.2732, 121.444, -151.169, 123.832, 88.0638, 0, 0, 4.62472, -55.3471, 4.60283, -174.243, 4.51409, 64.9899, 0.180063, 76.6662
1, 3060.00000, 120.483, -32.2732, 121.444, -151.169, 123.832, 88.0638, 0, 0, 4.62472, -55.3471, 4.60283, -174.243, 4.51409, 64.9899, 0.180063, 76.6662
1, 3120.00000, 120.483, -32.2732, 121.444, -151.169, 123.832, 88.0638, 0, 0, 4.62472, -55.3471, 4.60283, -174.243, 4.51409, 64.9899, 0.180063, 76.6662
1, 3180.00000, 120.483, -32.2732, 121.444, -151.169, 123.832, 88.0638, 0, 0, 4.62472, -55.3471, 4.60283, -174.243, 4.51409, 64.9899, 0.180063, 76.6662
1, 3240.00000, 120.483, -32.2732, 121.444, -151.169, 123.832, 88.0638, 0, 0, 4.62472, -55.3471, 4.60283, -174.243, 4.51409, 64.9899, 0.180063, 76.6662
1, 3300.00000, 120.483, -32.2732, 121.444, -151.169, 123.832, 88.0638, 0, 0, 4.62472, -55.3471, 4.60283, -174.243, 4.51409, 64.9899, 0.180063, 76.6662
1, 3360.00000, 120.483, -32.2732, 121.444, -151.169, 123.832, 88.0638, 0, 0, 4.62472, -55.3471, 4.60283, -174.243, 4.51409, 64.9899, 0.180063, 76.6662
1, 3420.00000, 120.483, -32.2732, 121.444, -151.169, 123.832, 88.0638, 0, 0, 4.62472, -55.3471, 4.60283, -174.243, 4.51409, 64.9899, 0.180063, 76.6662
1, 3480.00000, 120.483, -32.2732, 121.444, -151.169, 123.832, 88.0638, 0, 0, 4.62472, -55.3471, 4.60283, -174.243, 4.51409, 64.9899, 0.180063, 76.6662
1, 3540.00000, 120.483, -32.2732, 121.444, -151.169, 123.832, 88.0638, 0, 0, 4.62472, -55.3471, 4.60283, -174.243, 4.51409, 64.9899, 0.180063, 76.6662
2, 0.00000, 120.483, -32.2732, 121.444, -151.169, 123.832, 88.0638, 0, 0, 4.62472, -55.3471, 4.60283, -174.243, 4.51409, 64.9899, 0.180063, 76.6662
2, 60.00000, 120.483, -32.2732, 121.444, -151.169, 123.832, 88.0638, 0, 0, 4.62472, -55.3471, 4.60283, -174.243, 4.51409, 64.9899, 0.180063, 76.6662
2, 120.00000, 120.483, -32.2732, 121.444, -151.169, 123.832, 88.0638, 0, 0, 4.62472, -55.3471, 4.60283, -174.243, 4.51409, 64.9899, 0.180063, 76.6662
2, 180.00000, 120.483, -32.2732, 121.444, -151.169, 123.832, 88.0638, 0, 0, 4.62472, -55.3471, 4.60283, -174.243, 4.51409, 64.9899, 0.180063, 76.6662
2, 240.00000, 120.483, -32.2732, 121.444, -151.169, 123.832, 88.0638, 0, 0, 4.62472, -55.3471, 4.60283, -174.243, 4.51409, 64.9899, 0.180063, 76.6662
2, 300.00000, 120.483, -32.2732, 121.444, -151.169, 123.832, 88.0638, 0, 0, 4.62472, -55.3471, 4.60283, -174.243, 4.51409, 64.9899, 0.180063, 76.6662
2, 360.00000, 120.483, -32.2732, 121.444, -151.169, 123.832, 88.0638, 0, 0, 4.62472, -55.3471, 4.60283, -174.243, 4.51409, 64.9899, 0.180063, 76.6662
2, 420.00000, 120.483, -32.2732, 121.444, -151.169, 123.832, 88.0638, 0, 0, 4.62472, -55.3471, 4.60283, -174.243, 4.51409, 64.9899, 0.180063, 76.6662
2, 480.00000, 120.483, -32.2732, 121.444, -151.169, 123.832, 88.0638, 0, 0, 4.62472, -55.3471, 4.60283, -174.243, 4.51409, 64.9899, 0.180063, 76.6662
2, 540.00000, 120.483, -32.2732, 121.444, -151.169, 123.832, 88.0638, 0, 0, 4.62472, -55.3471, 4.60283, -174.243, 4.51409, 64.9899, 0.180063, 76.6662
2, 600.00000, 120.483, -32.2732, 121.444, -151.169, 123.832, 88.0638, 0, 0, 4.62472, -55.3471, 4.60283, -174.243, 4.51409, 64.9899, 0.180063, 76.6662
2, 660.00000, 120.483, -32.2732, 121.444, -151.169, 123.832, 88.0638, 0, 0, 4.62472, -55.3471, 4.60283, -174.243, 4.51409, 64.9899, 0.180063, 76.6662
2, 720.00000, 120.483, -32.2732, 121.444, -151.169, 123.832, 88.0638, 0, 0, 4.62472, -55.3471, 4.60283, -174.243, 4.51409, 64.9899, 0.180063, 76.6662
2, 780.00000, 120.483, -32.2732, 121.444, -151.169, 123.832, 88.0638, 0, 0, 4.62472, -55.3471, 4.60283, -174.243, 4.51409, 64.9899, 0.180063, 76.6662
