hour,t(sec),V1,VAngle1,V2,VAngle2,V3,VAngle3,V4,VAngle4,I1,IAngle1,I2,IAngle2,I3,IAngle3,I4,IAngle4
0, 60.00000, 114.961, -30.4554, 119.16, -151.141, 116.03, 87.6117, 0, 0, 5.1377, -53.5292, 5.34681, -174.215, 5.19095, 64.5381, 0.0377187, -25.5943
0, 120.00000, 114.961, -30.4554, 119.16, -151.141, 116.03, 87.6117, 0, 0, 5.13767, -53.5293, 5.34679, -174.215, 5.1909, 64.5377, 0.0377098, -25.5502
0, 180.00000, 114.961, -30.4554, 119.16, -151.141, 116.03, 87.6117, 0, 0, 5.13767, -53.5293, 5.34679, -174.215, 5.1909, 64.5377, 0.0377097, -25.5501
0, 240.00000, 114.961, -30.4554, 119.16, -151.141, 116.03, 87.6117, 0, 0, 5.13767, -53.5293, 5.34679, -174.215, 5.1909, 64.5377, 0.0377097, -25.5501
0, 300.00000, 114.961, -30.4554, 119.16, -151.141, 116.03, 87.6117, 0, 0, 5.13767, -53.5293, 5.34679, -174.215, 5.1909, 64.5377, 0.0377097, -25.5501
0, 360.00000, 114.961, -30.4554, 119.16, -151.141, 116.03, 87.6117, 0, 0, 5.13767, -53.5293, 5.34679, -174.215, 5.1909, 64.5377, 0.0377097, -25.5501
0, 420.00000, 114.961, -30.4554, 119.16, -151.141, 116.03, 87.6117, 0, 0, 5.13767, -53.5293, 5.34679, -174.215, 5.1909, 64.5377, 0.0377097, -25.5501
0, 480.00000, 115.956, -30.3634, 120.167, -151.06, 116.965, 87.7102, 0, 0, 4.5129, -53.4374, 4.69528, -174.134, 4.5566, 64.6358, 0.032976, -22.6205
0, 540.00000, 115.956, -30.3634, 120.167, -151.06, 116.965, 87.7102, 0, 0, 4.51292, -53.4373, 4.69534, -174.133, 4.55663, 64.6363, 0.0330341, -22.571
0, 600.00000, 115.956, -30.3634, 120.167, -151.06, 116.965, 87.7102, 0, 0, 4.51292, -53.4373, 4.69534, -174.133, 4.55663, 64.6363, 0.0330342, -22.5709
0, 660.00000, 115.956, -30.3634, 120.167, -151.06, 116.965, 87.7102, 0, 0, 4.51292, -53.4373, 4.69534, -174.133, 4.55663, 64.6363, 0.0330342, -22.5709
0, 720.00000, 115.956, -30.3634, 120.167, -151.06, 116.965, 87.7102, 0, 0, 4.51292, -53.4373, 4.69534, -174.133, 4.55663, 64.6363, 0.0330342, -22.5709
0, 780.00000, 115.956, -30.3634, 120.167, -151.06, 116.965, 87.7102, 0, 0, 4.51292, -53.4373, 4.69534, -174.133, 4.55663, 64.6363, 0.0330342, -22.5709
0, 840.00000, 115.956, -30.3634, 120.167, -151.06, 116.965, 87.7102, 0, 0, 4.51292, -53.4373, 4.69534, -174.133, 4.55663, 64.6363, 0.0330342, -22.5709
0, 900.00000, 115.956, -30.3634, 120.167, -151.06, 116.965, 87.7102, 0, 0, 4.51292, -53.4373, 4.69534, -174.133, 4.55663, 64.6363, 0.0330342, -22.5709
0, 960.00000, 115.442, -30.3368, 120.162, -151.058, 116.679, 87.5002, 0, 0, 4.49066, -53.4107, 4.69513, -174.132, 4.54424, 64.4264, 0.0348077, -22.5482
0, 1020.00000, 115.442, -30.3368, 120.162, -151.058, 116.679, 87.5002, 0, 0, 4.49063, -53.4107, 4.69513, -174.132, 4.54422, 64.4263, 0.0348178, -22.5309
0, 1080.00000, 115.442, -30.3368, 120.162, -151.058, 116.679, 87.5002, 0, 0, 4.49063, -53.4107, 4.69513, -174.132, 4.54422, 64.4263, 0.0348178, -22.5308
0, 1140.00000, 115.442, -30.3368, 120.162, -151.058, 116.679, 87.5002, 0, 0, 4.49063, -53.4107, 4.69513, -174.132, 4.54422, 64.4263, 0.0348178, -22.5308
0, 1200.00000, 115.442, -30.3368, 120.162, -151.058, 116.679, 87.5002, 0, 0, 4.49063, -53.4107, 4.69513, -174.132, 4.54422, 64.4263, 0.0348178, -22.5308
0, 1260.00000, 115.442, -30.3368, 120.162, -151.058, 116.679, 87.5002, 0, 0, 4.49063, -53.4107, 4.69513, -174.132, 4.54422, 64.4263, 0.0348178, -22.5308
0, 1320.00000, 115.442, -30.3368, 120.162, -151.058, 116.679, 87.5002, 0, 0, 4.49063, -53.4107, 4.69513, -174.132, 4.54422, 64.4263, 0.0348178, -22.5308
0, 1380.00000, 115.442, -30.3368, 120.162, -151.058, 116.679, 87.5002, 0, 0, 4.49063, -53.4107, 4.69513, -174.132, 4.54422, 64.4263, 0.0348178, -22.5308
0, 1440.00000, 115.442, -30.3368, 120.162, -151.058, 116.679, 87.5002, 0, 0, 4.49063, -53.4107, 4.69513, -174.132, 4.54422, 64.4263, 0.0348178, -22.5308
0, 1500.00000, 115.442, -30.3368, 120.162, -151.058, 116.679, 87.5002, 0, 0, 4.49063, -53.4107, 4.69513, -174.132, 4.54422, 64.4263, 0.0348178, -22.5308
0, 1560.00000, 115.442, -30.3368, 120.162, -151.058, 116.679, 87.5002, 0, 0, 4.49063, -53.4107, 4.69513, -174.132, 4.54422, 64.4263, 0.0348178, -22.5308
0, 1620.00000, 115.442, -30.3368, 120.162, -151.058, 116.679, 87.5002, 0, 0, 4.49063, -53.4107, 4.69513, -174.132, 4.54422, 64.4263, 0.0348178, -22.5308
0, 1680.00000, 115.442, -30.3368, 120.162, -151.058, 116.679, 87.5002, 0, 0, 4.49063, -53.4107, 4.69513, -174.132, 4.54422, 64.4263, 0.0348178, -22.5308
0, 1740.00000, 115.442, -30.3368, 120.162, -151.058, 116.679, 87.5002, 0, 0, 4.49063, -53.4107, 4.69513, -174.132, 4.54422, 64.4263, 0.0348178, -22.5308
0, 1800.00000, 114.9, -30.3003, 120.156, -151.057, 116.362, 87.2782, 0, 0, 4.46718, -53.3742, 4.69488, -174.131, 4.53052, 64.2046, 0.0364468, -22.3116
0, 1860.00000, 114.9, -30.3003, 120.156, -151.057, 116.362, 87.2782, 0, 0, 4.46715, -53.3743, 4.69488, -174.131, 4.5305, 64.2043, 0.0364579, -22.3031
0, 1920.00000, 114.9, -30.3003, 120.156, -151.057, 116.362, 87.2782, 0, 0, 4.46715, -53.3743, 4.69488, -174.131, 4.5305, 64.2043, 0.0364579, -22.303
0, 1980.00000, 114.9, -30.3003, 120.156, -151.057, 116.362, 87.2782, 0, 0, 4.46715, -53.3743, 4.69488, -174.131, 4.5305, 64.2043, 0.0364579, -22.303
0, 2040.00000, 114.9, -30.3003, 120.156, -151.057, 116.362, 87.2782, 0, 0, 4.46715, -53.3743, 4.69488, -174.131, 4.5305, 64.2043, 0.0364579, -22.303
0, 2100.00000, 114.9, -30.3003, 120.156, -151.057, 116.362, 87.2782, 0, 0, 4.46715, -53.3743, 4.69488, -174.131, 4.5305, 64.2043, 0.0364579, -22.303
0, 2160.00000, 114.9, -30.3003, 120.156, -151.057, 116.362, 87.2782, 0, 0, 4.46715, -53.3743, 4.69488, -174.131, 4.5305, 64.2043, 0.0364579, -22.303
0, 2220.00000, 114.9, -30.3003, 120.156, -151.057, 116.362, 87.2782, 0, 0, 4.46715, -53.3743, 4.69488, -174.131, 4.5305, 64.2043, 0.0364579, -22.303
0, 2280.00000, 114.9, -30.3003, 120.156, -151.057, 116.362, 87.2782, 0, 0, 4.46715, -53.3743, 4.69488, -174.131, 4.5305, 64.2043, 0.0364579, -22.303
0, 2340.00000, 114.9, -30.3003, 120.156, -151.057, 116.362, 87.2782, 0, 0, 4.46715, -53.3743, 4.69488, -174.131, 4.5305, 64.2043, 0.0364579, -22.303
0, 2400.00000, 114.9, -30.3003, 120.156, -151.057, 116.362, 87.2782, 0, 0, 4.46715, -53.3743, 4.69488, -174.131, 4.5305, 64.2043, 0.0364579, -22.303
0, 2460.00000, 114.9, -30.3003, 120.156, -151.057, 116.362, 87.2782, 0, 0, 4.46715, -53.3743, 4.69488, -174.131, 4.5305, 64.2043, 0.0364579, -22.303
0, 2520.00000, 114.9, -30.3003, 120.156, -151.057, 116.362, 87.2782, 0, 0, 4.46715, -53.3743, 4.69488, -174.131, 4.5305, 64.2043, 0.0364579, -22.303
0, 2580.00000, 114.9, -30.3003, 120.156, -151.057, 116.362, 87.2782, 0, 0, 4.46715, -53.3743, 4.69488, -174.131, 4.5305, 64.2043, 0.0364579, -22.303
0, 2640.00000, 114.9, -30.3003, 120.156, -151.057, 116.362, 87.2782, 0, 0, 4.46715, -53.3743, 4.69488, -174.131, 4.5305, 64.2043, 0.0364579, -22.303
0, 2700.00000, 114.9, -30.3003, 120.156, -151.057, 116.362, 87.2782, 0, 0, 4.46715, -53.3743, 4.69488, -174.131, 4.5305, 64.2043, 0.0364579, -22.303
0, 2760.00000, 115.184, -30.2731, 120.157, -151.057, 116.455, 87.4138, 0, 0, 4.47944, -53.3472, 4.69491, -174.131, 4.53448, 64.3396, 0.0353118, -22.4496
0, 2820.00000, 115.184, -30.273, 120.157, -151.057, 116.455, 87.4138, 0, 0, 4.47947, -53.347, 4.69491, -174.131, 4.53451, 64.3399, 0.0353054, -22.5034
0, 2880.00000, 115.184, -30.273, 120.157, -151.057, 116.455, 87.4138, 0, 0, 4.47947, -53.347, 4.69491, -174.131, 4.53451, 64.3399, 0.0353054, -22.5037
0, 2940.00000, 115.184, -30.273, 120.157, -151.057, 116.455, 87.4138, 0, 0, 4.47947, -53.347, 4.69491, -174.131, 4.53451, 64.3399, 0.0353054, -22.5037
0, 3000.00000, 115.184, -30.273, 120.157, -151.057, 116.455, 87.4138, 0, 0, 4.47947, -53.347, 4.69491, -174.131, 4.53451, 64.3399, 0.0353054, -22.5037
0, 3060.00000, 115.184, -30.273, 120.157, -151.057, 116.455, 87.4138, 0, 0, 4.47947, -53.347, 4.69491, -174.131, 4.53451, 64.3399, 0.0353054, -22.5037
0, 3120.00000, 115.184, -30.273, 120.157, -151.057, 116.455, 87.4138, 0, 0, 4.47947, -53.347, 4.69491, -174.131, 4.53451, 64.3399, 0.0353054, -22.5037
0, 3180.00000, 115.184, -30.273, 120.157, -151.057, 116.455, 87.4138, 0, 0, 4.47947, -53.347, 4.69491, -174.131, 4.53451, 64.3399, 0.0353054, -22.5037
0, 3240.00000, 115.184, -30.273, 120.157, -151.057, 116.455, 87.4138, 0, 0, 4.47947, -53.347, 4.69491, -174.131, 4.53451, 64.3399, 0.0353054, -22.5037
0, 3300.00000, 115.184, -30.273, 120.157, -151.057, 116.455, 87.4138, 0, 0, 4.47947, -53.347, 4.69491, -174.131, 4.53451, 64.3399, 0.0353054, -22.5037
0, 3360.00000, 115.184, -30.273, 120.157, -151.057, 116.455, 87.4138, 0, 0, 4.47947, -53.347, 4.69491, -174.131, 4.53451, 64.3399, 0.0353054, -22.5037
0, 3420.00000, 115.184, -30.273, 120.157, -151.057, 116.455, 87.4138, 0, 0, 4.47947, -53.347, 4.69491, -174.131, 4.53451, 64.3399, 0.0353054, -22.5037
0, 3480.00000, 115.184, -30.273, 120.157, -151.057, 116.455, 87.4138, 0, 0, 4.47947, -53.347, 4.69491, -174.131, 4.53451, 64.3399, 0.0353054, -22.5037
0, 3540.00000, 115.184, -30.273, 120.157, -151.057, 116.455, 87.4138, 0, 0, 4.47947, -53.347, 4.69491, -174.131, 4.53451, 64.3399, 0.0353054, -22.5037
1, 0.00000, 115.184, -30.273, 120.157, -151.057, 116.455, 87.4138, 0, 0, 4.47947, -53.347, 4.69491, -174.131, 4.53451, 64.3399, 0.0353054, -22.5037
1, 60.00000, 115.455, -30.2444, 120.158, -151.057, 116.536, 87.5435, 0, 0, 4.49118, -53.3185, 4.69496, -174.131, 4.53803, 64.4694, 0.0342064, -22.4614
1, 120.00000, 115.455, -30.2444, 120.158, -151.057, 116.536, 87.5435, 0, 0, 4.4912, -53.3183, 4.69496, -174.131, 4.53805, 64.4696, 0.034197, -22.4958
1, 180.00000, 115.455, -30.2444, 120.158, -151.057, 116.536, 87.5435, 0, 0, 4.4912, -53.3183, 4.69496, -174.131, 4.53805, 64.4696, 0.034197, -22.496
1, 240.00000, 115.455, -30.2444, 120.158, -151.057, 116.536, 87.5435, 0, 0, 4.4912, -53.3183, 4.69496, -174.131, 4.53805, 64.4696, 0.034197, -22.496
1, 300.00000, 115.455, -30.2444, 120.158, -151.057, 116.536, 87.5435, 0, 0, 4.4912, -53.3183, 4.69496, -174.131, 4.53805, 64.4696, 0.034197, -22.496
1, 360.00000, 115.455, -30.2444, 120.158, -151.057, 116.536, 87.5435, 0, 0, 4.4912, -53.3183, 4.69496, -174.131, 4.53805, 64.4696, 0.034197, -22.496
1, 420.00000, 115.455, -30.2444, 120.158, -151.057, 116.536, 87.5435, 0, 0, 4.4912, -53.3183, 4.69496, -174.131, 4.53805, 64.4696, 0.034197, -22.496
1, 480.00000, 115.455, -30.2444, 120.158, -151.057, 116.536, 87.5435, 0, 0, 4.4912, -53.3183, 4.69496, -174.131, 4.53805, 64.4696, 0.034197, -22.496
1, 540.00000, 115.455, -30.2444, 120.158, -151.057, 116.536, 87.5435, 0, 0, 4.4912, -53.3183, 4.69496, -174.131, 4.53805, 64.4696, 0.034197, -22.496
1, 600.00000, 115.455, -30.2444, 120.158, -151.057, 116.536, 87.5435, 0, 0, 4.4912, -53.3183, 4.69496, -174.131, 4.53805, 64.4696, 0.034197, -22.496
1, 660.00000, 115.455, -30.2444, 120.158, -151.057, 116.536, 87.5435, 0, 0, 4.4912, -53.3183, 4.69496, -174.131, 4.53805, 64.4696, 0.034197, -22.496
1, 720.00000, 115.455, -30.2444, 120.158, -151.057, 116.536, 87.5435, 0, 0, 4.4912, -53.3183, 4.69496, -174.131, 4.53805, 64.4696, 0.034197, -22.496
1, 780.00000, 116.986, -30.603, 120.127, -151.065, 117.965, 88.0143, 0, 0, 4.5575, -53.677, 4.69361, -174.139, 4.59991, 64.9401, 0.0263184, -36.5696
1, 840.00000, 116.986, -30.603, 120.127, -151.065, 117.965, 88.0143, 0, 0, 4.55754, -53.6769, 4.69361, -174.139, 4.59993, 64.9403, 0.0263004, -36.595
1, 900.00000, 116.986, -30.603, 120.127, -151.065, 117.965, 88.0143, 0, 0, 4.55754, -53.6769, 4.69361, -174.139, 4.59993, 64.9403, 0.0263003, -36.5952
1, 960.00000, 116.986, -30.603, 120.127, -151.065, 117.965, 88.0143, 0, 0, 4.55754, -53.6769, 4.69361, -174.139, 4.59993, 64.9403, 0.0263003, -36.5952
1, 1020.00000, 116.986, -30.603, 120.127, -151.065, 117.965, 88.0143, 0, 0, 4.55754, -53.6769, 4.69361, -174.139, 4.59993, 64.9403, 0.0263003, -36.5952
1, 1080.00000, 116.986, -30.603, 120.127, -151.065, 117.965, 88.0143, 0, 0, 4.55754, -53.6769, 4.69361, -174.139, 4.59993, 64.9403, 0.0263003, -36.5952
1, 1140.00000, 116.986, -30.603, 120.127, -151.065, 117.965, 88.0143, 0, 0, 4.55754, -53.6769, 4.69361, -174.139, 4.59993, 64.9403, 0.0263003, -36.5952
1, 1200.00000, 116.986, -30.603, 120.127, -151.065, 117.965, 88.0143, 0, 0, 4.55754, -53.6769, 4.69361, -174.139, 4.59993, 64.9403, 0.0263003, -36.5952
1, 1260.00000, 116.986, -30.603, 120.127, -151.065, 117.965, 88.0143, 0, 0, 4.55754, -53.6769, 4.69361, -174.139, 4.59993, 64.9403, 0.0263003, -36.5952
1, 1320.00000, 116.986, -30.603, 120.127, -151.065, 117.965, 88.0143, 0, 0, 4.55754, -53.6769, 4.69361, -174.139, 4.59993, 64.9403, 0.0263003, -36.5952
1, 1380.00000, 116.986, -30.603, 120.127, -151.065, 117.965, 88.0143, 0, 0, 4.55754, -53.6769, 4.69361, -174.139, 4.59993, 64.9403, 0.0263003, -36.5952
1, 1440.00000, 116.986, -30.603, 120.127, -151.065, 117.965, 88.0143, 0, 0, 4.55754, -53.6769, 4.69361, -174.139, 4.59993, 64.9403, 0.0263003, -36.5952
1, 1500.00000, 116.986, -30.603, 120.127, -151.065, 117.965, 88.0143, 0, 0, 4.55754, -53.6769, 4.69361, -174.139, 4.59993, 64.9403, 0.0263003, -36.5952
1, 1560.00000, 116.986, -30.603, 120.127, -151.065, 117.965, 88.0143, 0, 0, 4.55754, -53.6769, 4.69361, -174.139, 4.59993, 64.9403, 0.0263003, -36.5952
1, 1620.00000, 116.986, -30.603, 120.127, -151.065, 117.965, 88.0143, 0, 0, 4.55754, -53.6769, 4.69361, -174.139, 4.59993, 64.9403, 0.0263003, -36.5952
1, 1680.00000, 116.986, -30.603, 120.127, -151.065, 117.965, 88.0143, 0, 0, 4.55754, -53.6769, 4.69361, -174.139, 4.59993, 64.9403, 0.0263003, -36.5952
1, 1740.00000, 116.986, -30.603, 120.127, -151.065, 117.965, 88.0143, 0, 0, 4.55754, -53.6769, 4.69361, -174.139, 4.59993, 64.9403, 0.0263003, -36.5952
1, 1800.00000, 116.986, -30.603, 120.127, -151.065, 117.965, 88.0143, 0, 0, 4.55754, -53.6769, 4.69361, -174.139, 4.59993, 64.9403, 0.0263003, -36.5952
1, 1860.00000, 116.986, -30.603, 120.127, -151.065, 117.965, 88.0143, 0, 0, 4.55754, -53.6769, 4.69361, -174.139, 4.59993, 64.9403, 0.0263003, -36.5952
1, 1920.00000, 116.986, -30.603, 120.127, -151.065, 117.965, 88.0143, 0, 0, 4.55754, -53.6769, 4.69361, -174.139, 4.59993, 64.9403, 0.0263003, -36.5952
1, 1980.00000, 116.986, -30.603, 120.127, -151.065, 117.965, 88.0143, 0, 0, 4.55754, -53.6769, 4.69361, -174.139, 4.59993, 64.9403, 0.0263003, -36.5952
1, 2040.00000, 116.986, -30.603, 120.127, -151.065, 117.965, 88.0143, 0, 0, 4.55754, -53.6769, 4.69361, -174.139, 4.59993, 64.9403, 0.0263003, -36.5952
1, 2100.00000, 116.986, -30.603, 120.127, -151.065, 117.965, 88.0143, 0, 0, 4.55754, -53.6769, 4.69361, -174.139, 4.59993, 64.9403, 0.0263003, -36.5952
1, 2160.00000, 116.986, -30.603, 120.127, -151.065, 117.965, 88.0143, 0, 0, 4.55754, -53.6769, 4.69361, -174.139, 4.59993, 64.9403, 0.0263003, -36.5952
1, 2220.00000, 117.557, -30.6343, 120.131, -151.065, 118.291, 88.2377, 0, 0, 4.58224, -53.7084, 4.69378, -174.139, 4.61407, 65.1636, 0.024007, -37.6739
1, 2280.00000, 117.557, -30.6343, 120.131, -151.065, 118.291, 88.2377, 0, 0, 4.58227, -53.7082, 4.69378, -174.139, 4.61408, 65.1638, 0.0239808, -37.7072
1, 2340.00000, 117.557, -30.6343, 120.131, -151.065, 118.291, 88.2377, 0, 0, 4.58227, -53.7082, 4.69378, -174.139, 4.61408, 65.1638, 0.0239807, -37.7074
1, 2400.00000, 117.557, -30.6343, 120.131, -151.065, 118.291, 88.2377, 0, 0, 4.58227, -53.7082, 4.69378, -174.139, 4.61408, 65.1638, 0.0239807, -37.7074
1, 2460.00000, 117.557, -30.6343, 120.131, -151.065, 118.291, 88.2377, 0, 0, 4.58227, -53.7082, 4.69378, -174.139, 4.61408, 65.1638, 0.0239807, -37.7074
1, 2520.00000, 117.557, -30.6343, 120.131, -151.065, 118.291, 88.2377, 0, 0, 4.58227, -53.7082, 4.69378, -174.139, 4.61408, 65.1638, 0.0239807, -37.7074
1, 2580.00000, 117.557, -30.6343, 120.131, -151.065, 118.291, 88.2377, 0, 0, 4.58227, -53.7082, 4.69378, -174.139, 4.61408, 65.1638, 0.0239807, -37.7074
1, 2640.00000, 117.557, -30.6343, 120.131, -151.065, 118.291, 88.2377, 0, 0, 4.58227, -53.7082, 4.69378, -174.139, 4.61408, 65.1638, 0.0239807, -37.7074
1, 2700.00000, 117.557, -30.6343, 120.131, -151.065, 118.291, 88.2377, 0, 0, 4.58227, -53.7082, 4.69378, -174.139, 4.61408, 65.1638, 0.0239807, -37.7074
1, 2760.00000, 117.557, -30.6343, 120.131, -151.065, 118.291, 88.2377, 0, 0, 4.58227, -53.7082, 4.69378, -174.139, 4.61408, 65.1638, 0.0239807, -37.7074
1, 2820.00000, 117.557, -30.6343, 120.131, -151.065, 118.291, 88.2377, 0, 0, 4.58227, -53.7082, 4.69378, -174.139, 4.61408, 65.1638, 0.0239807, -37.7074
1, 2880.00000, 117.557, -30.6343, 120.131, -151.065, 118.291, 88.2377, 0, 0, 4.58227, -53.7082, 4.69378, -174.139, 4.61408, 65.1638, 0.0239807, -37.7074
1, 2940.00000, 117.557, -30.6343, 120.131, -151.065, 118.291, 88.2377, 0, 0, 4.58227, -53.7082, 4.69378, -174.139, 4.61408, 65.1638, 0.0239807, -37.7074
1, 3000.00000, 117.557, -30.6343, 120.131, -151.065, 118.291, 88.2377, 0, 0, 4.58227, -53.7082, 4.69378, -174.139, 4.61408, 65.1638, 0.0239807, -37.7074
1, 3060.00000, 117.557, -30.6343, 120.131, -151.065, 118.291, 88.2377, 0, 0, 4.58227, -53.7082, 4.69378, -174.139, 4.61408, 65.1638, 0.0239807, -37.7074
1, 3120.00000, 117.557, -30.6343, 120.131, -151.065, 118.291, 88.2377, 0, 0, 4.58227, -53.7082, 4.69378, -174.139, 4.61408, 65.1638, 0.0239807, -37.7074
1, 3180.00000, 117.557, -30.6343, 120.131, -151.065, 118.291, 88.2377, 0, 0, 4.58227, -53.7082, 4.69378, -174.139, 4.61408, 65.1638, 0.0239807, -37.7074
1, 3240.00000, 117.557, -30.6343, 120.131, -151.065, 118.291, 88.2377, 0, 0, 4.58227, -53.7082, 4.69378, -174.139, 4.61408, 65.1638, 0.0239807, -37.7074
1, 3300.00000, 117.557, -30.6343, 120.131, -151.065, 118.291, 88.2377, 0, 0, 4.58227, -53.7082, 4.69378, -174.139, 4.61408, 65.1638, 0.0239807, -37.7074
1, 3360.00000, 117.557, -30.6343, 120.131, -151.065, 118.291, 88.2377, 0, 0, 4.58227, -53.7082, 4.69378, -174.139, 4.61408, 65.1638, 0.0239807, -37.7074
1, 3420.00000, 117.557, -30.6343, 120.131, -151.065, 118.291, 88.2377, 0, 0, 4.58227, -53.7082, 4.69378, -174.139, 4.61408, 65.1638, 0.0239807, -37.7074
1, 3480.00000, 117.557, -30.6343, 120.131, -151.065, 118.291, 88.2377, 0, 0, 4.58227, -53.7082, 4.69378, -174.139, 4.61408, 65.1638, 0.0239807, -37.7074
1, 3540.00000, 117.557, -30.6343, 120.131, -151.065, 118.291, 88.2377, 0, 0, 4.58227, -53.7082, 4.69378, -174.139, 4.61408, 65.1638, 0.0239807, -37.7074
2, 0.00000, 117.557, -30.6343, 120.131, -151.065, 118.291, 88.2377, 0, 0, 4.58227, -53.7082, 4.69378, -174.139, 4.61408, 65.1638, 0.0239807, -37.7074
2, 60.00000, 117.557, -30.6343, 120.131, -151.065, 118.291, 88.2377, 0, 0, 4.58227, -53.7082, 4.69378, -174.139, 4.61408, 65.1638, 0.0239807, -37.7074
2, 120.00000, 117.557, -30.6343, 120.131, -151.065, 118.291, 88.2377, 0, 0, 4.58227, -53.7082, 4.69378, -174.139, 4.61408, 65.1638, 0.0239807, -37.7074
2, 180.00000, 117.557, -30.6343, 120.131, -151.065, 118.291, 88.2377, 0, 0, 4.58227, -53.7082, 4.69378, -174.139, 4.61408, 65.1638, 0.0239807, -37.7074
2, 240.00000, 117.557, -30.6343, 120.131, -151.065, 118.291, 88.2377, 0, 0, 4.58227, -53.7082, 4.69378, -174.139, 4.61408, 65.1638, 0.0239807, -37.7074
2, 300.00000, 117.557, -30.6343, 120.131, -151.065, 118.291, 88.2377, 0, 0, 4.58227, -53.7082, 4.69378, -174.139, 4.61408, 65.1638, 0.0239807, -37.7074
2, 360.00000, 117.557, -30.6343, 120.131, -151.065, 118.291, 88.2377, 0, 0, 4.58227, -53.7082, 4.69378, -174.139, 4.61408, 65.1638, 0.0239807, -37.7074
2, 420.00000, 117.557, -30.6343, 120.131, -151.065, 118.291, 88.2377, 0, 0, 4.58227, -53.7082, 4.69378, -174.139, 4.61408, 65.1638, 0.0239807, -37.7074
2, 480.00000, 117.557, -30.6343, 120.131, -151.065, 118.291, 88.2377, 0, 0, 4.58227, -53.7082, 4.69378, -174.139, 4.61408, 65.1638, 0.0239807, -37.7074
2, 540.00000, 117.557, -30.6343, 120.131, -151.065, 118.291, 88.2377, 0, 0, 4.58227, -53.7082, 4.69378, -174.139, 4.61408, 65.1638, 0.0239807, -37.7074
2, 600.00000, 117.557, -30.6343, 120.131, -151.065, 118.291, 88.2377, 0, 0, 4.58227, -53.7082, 4.69378, -174.139, 4.61408, 65.1638, 0.0239807, -37.7074
2, 660.00000, 117.557, -30.6343, 120.131, -151.065, 118.291, 88.2377, 0, 0, 4.58227, -53.7082, 4.69378, -174.139, 4.61408, 65.1638, 0.0239807, -37.7074
