hour,t(sec),"P1 (kW)","Q1 (kvar)","P2 (kW)","Q2 (kvar)","P3 (kW)","Q3 (kvar)","P4 (kW)","Q4 (kvar)"
0, 60.00000, 0.46112, 0.196432, 0.461286, 0.196507, 0.4677, 0.199235, 0, 0
0, 120.00000, 0.461113, 0.196433, 0.461278, 0.196504, 0.467712, 0.199245, 0, 0
0, 180.00000, 0.461113, 0.196433, 0.461278, 0.196504, 0.467713, 0.199245, 0, 0
0, 240.00000, 0.461113, 0.196433, 0.461278, 0.196504, 0.467713, 0.199245, 0, 0
0, 300.00000, 0.461113, 0.196433, 0.461278, 0.196504, 0.467713, 0.199245, 0, 0
0, 360.00000, 0.461113, 0.196433, 0.461278, 0.196504, 0.467713, 0.199245, 0, 0
0, 420.00000, 0.461113, 0.196433, 0.461278, 0.196504, 0.467713, 0.199245, 0, 0
0, 480.00000, 0.461113, 0.196433, 0.461278, 0.196504, 0.467713, 0.199245, 0, 0
0, 540.00000, 0.461113, 0.196433, 0.461278, 0.196504, 0.467713, 0.199245, 0, 0
0, 600.00000, 0.461113, 0.196433, 0.461278, 0.196504, 0.467713, 0.199245, 0, 0
0, 660.00000, 0.461113, 0.196433, 0.461278, 0.196504, 0.467713, 0.199245, 0, 0
0, 720.00000, 0.461113, 0.196433, 0.461278, 0.196504, 0.467713, 0.199245, 0, 0
0, 780.00000, 0.461113, 0.196433, 0.461278, 0.196504, 0.467713, 0.199245, 0, 0
0, 840.00000, 0.461113, 0.196433, 0.461278, 0.196504, 0.467713, 0.199245, 0, 0
0, 900.00000, 0.461113, 0.196433, 0.461278, 0.196504, 0.467713, 0.199245, 0, 0
0, 960.00000, 0.445334, 0.18971, 0.445558, 0.189807, 0.453407, 0.19315, 0, 0
0, 1020.00000, 0.445331, 0.18971, 0.445555, 0.189806, 0.45341, 0.193152, 0, 0
0, 1080.00000, 0.445331, 0.18971, 0.445555, 0.189806, 0.45341, 0.193152, 0, 0
0, 1140.00000, 0.445331, 0.18971, 0.445555, 0.189806, 0.45341, 0.193152, 0, 0
0, 1200.00000, 0.445331, 0.18971, 0.445555, 0.189806, 0.45341, 0.193152, 0, 0
0, 1260.00000, 0.445331, 0.18971, 0.445555, 0.189806, 0.45341, 0.193152, 0, 0
0, 1320.00000, 0.445331, 0.18971, 0.445555, 0.189806, 0.45341, 0.193152, 0, 0
0, 1380.00000, 0.445331, 0.18971, 0.445555, 0.189806, 0.45341, 0.193152, 0, 0
0, 1440.00000, 0.445331, 0.18971, 0.445555, 0.189806, 0.45341, 0.193152, 0, 0
0, 1500.00000, 0.445331, 0.18971, 0.445555, 0.189806, 0.45341, 0.193152, 0, 0
0, 1560.00000, 0.445331, 0.18971, 0.445555, 0.189806, 0.45341, 0.193152, 0, 0
0, 1620.00000, 0.445331, 0.18971, 0.445555, 0.189806, 0.45341, 0.193152, 0, 0
0, 1680.00000, 0.445331, 0.18971, 0.445555, 0.189806, 0.45341, 0.193152, 0, 0
0, 1740.00000, 0.445331, 0.18971, 0.445555, 0.189806, 0.45341, 0.193152, 0, 0
0, 1800.00000, 0.445331, 0.18971, 0.445555, 0.189806, 0.45341, 0.193152, 0, 0
0, 1860.00000, 0.432846, 0.184404, 0.433024, 0.18447, 0.439533, 0.187249, 0, 0
0, 1920.00000, 0.43287, 0.184402, 0.433049, 0.184478, 0.439504, 0.187228, 0, 0
0, 1980.00000, 0.43287, 0.184402, 0.433049, 0.184478, 0.439504, 0.187228, 0, 0
0, 2040.00000, 0.43287, 0.184402, 0.433049, 0.184478, 0.439504, 0.187228, 0, 0
0, 2100.00000, 0.43287, 0.184402, 0.433049, 0.184478, 0.439504, 0.187228, 0, 0
0, 2160.00000, 0.43287, 0.184402, 0.433049, 0.184478, 0.439504, 0.187228, 0, 0
0, 2220.00000, 0.43287, 0.184402, 0.433049, 0.184478, 0.439504, 0.187228, 0, 0
0, 2280.00000, 0.43287, 0.184402, 0.433049, 0.184478, 0.439504, 0.187228, 0, 0
0, 2340.00000, 0.43287, 0.184402, 0.433049, 0.184478, 0.439504, 0.187228, 0, 0
0, 2400.00000, 0.43287, 0.184402, 0.433049, 0.184478, 0.439504, 0.187228, 0, 0
0, 2460.00000, 0.43287, 0.184402, 0.433049, 0.184478, 0.439504, 0.187228, 0, 0
0, 2520.00000, 0.43287, 0.184402, 0.433049, 0.184478, 0.439504, 0.187228, 0, 0
0, 2580.00000, 0.43287, 0.184402, 0.433049, 0.184478, 0.439504, 0.187228, 0, 0
0, 2640.00000, 0.43287, 0.184402, 0.433049, 0.184478, 0.439504, 0.187228, 0, 0
0, 2700.00000, 0.43287, 0.184402, 0.433049, 0.184478, 0.439504, 0.187228, 0, 0
0, 2760.00000, 0.434741, 0.185201, 0.434835, 0.185238, 0.43909, 0.187054, 0, 0
0, 2820.00000, 0.434744, 0.1852, 0.434837, 0.18524, 0.439084, 0.187049, 0, 0
0, 2880.00000, 0.434744, 0.1852, 0.434837, 0.18524, 0.439084, 0.187049, 0, 0
0, 2940.00000, 0.434744, 0.1852, 0.434837, 0.18524, 0.439084, 0.187049, 0, 0
0, 3000.00000, 0.434744, 0.1852, 0.434837, 0.18524, 0.439084, 0.187049, 0, 0
0, 3060.00000, 0.434744, 0.1852, 0.434837, 0.18524, 0.439084, 0.187049, 0, 0
0, 3120.00000, 0.434744, 0.1852, 0.434837, 0.18524, 0.439084, 0.187049, 0, 0
0, 3180.00000, 0.434744, 0.1852, 0.434837, 0.18524, 0.439084, 0.187049, 0, 0
0, 3240.00000, 0.434744, 0.1852, 0.434837, 0.18524, 0.439084, 0.187049, 0, 0
0, 3300.00000, 0.434744, 0.1852, 0.434837, 0.18524, 0.439084, 0.187049, 0, 0
0, 3360.00000, 0.434744, 0.1852, 0.434837, 0.18524, 0.439084, 0.187049, 0, 0
0, 3420.00000, 0.434744, 0.1852, 0.434837, 0.18524, 0.439084, 0.187049, 0, 0
0, 3480.00000, 0.434744, 0.1852, 0.434837, 0.18524, 0.439084, 0.187049, 0, 0
0, 3540.00000, 0.434744, 0.1852, 0.434837, 0.18524, 0.439084, 0.187049, 0, 0
1, 0.00000, 0.434744, 0.1852, 0.434837, 0.18524, 0.439084, 0.187049, 0, 0
1, 60.00000, 0.429166, 0.182826, 0.429214, 0.182843, 0.431971, 0.184021, 0, 0
1, 120.00000, 0.429168, 0.182825, 0.429215, 0.182845, 0.431964, 0.184016, 0, 0
1, 180.00000, 0.429168, 0.182825, 0.429215, 0.182845, 0.431964, 0.184016, 0, 0
1, 240.00000, 0.429168, 0.182825, 0.429215, 0.182845, 0.431964, 0.184016, 0, 0
1, 300.00000, 0.429168, 0.182825, 0.429215, 0.182845, 0.431964, 0.184016, 0, 0
1, 360.00000, 0.429168, 0.182825, 0.429215, 0.182845, 0.431964, 0.184016, 0, 0
1, 420.00000, 0.429168, 0.182825, 0.429215, 0.182845, 0.431964, 0.184016, 0, 0
1, 480.00000, 0.429168, 0.182825, 0.429215, 0.182845, 0.431964, 0.184016, 0, 0
1, 540.00000, 0.429168, 0.182825, 0.429215, 0.182845, 0.431964, 0.184016, 0, 0
1, 600.00000, 0.429168, 0.182825, 0.429215, 0.182845, 0.431964, 0.184016, 0, 0
1, 660.00000, 0.429168, 0.182825, 0.429215, 0.182845, 0.431964, 0.184016, 0, 0
1, 720.00000, 0.429168, 0.182825, 0.429215, 0.182845, 0.431964, 0.184016, 0, 0
1, 780.00000, 0.429168, 0.182825, 0.429215, 0.182845, 0.431964, 0.184016, 0, 0
1, 840.00000, 0.429168, 0.182825, 0.429215, 0.182845, 0.431964, 0.184016, 0, 0
1, 900.00000, 0.429168, 0.182825, 0.429215, 0.182845, 0.431964, 0.184016, 0, 0
1, 960.00000, 0.422644, 0.18005, 0.422678, 0.18006, 0.425117, 0.181102, 0, 0
1, 1020.00000, 0.42265, 0.180048, 0.422684, 0.180063, 0.425106, 0.181094, 0, 0
1, 1080.00000, 0.42265, 0.180048, 0.422684, 0.180063, 0.425105, 0.181094, 0, 0
1, 1140.00000, 0.42265, 0.180048, 0.422684, 0.180063, 0.425105, 0.181094, 0, 0
1, 1200.00000, 0.42265, 0.180048, 0.422684, 0.180063, 0.425105, 0.181094, 0, 0
1, 1260.00000, 0.42265, 0.180048, 0.422684, 0.180063, 0.425105, 0.181094, 0, 0
1, 1320.00000, 0.42265, 0.180048, 0.422684, 0.180063, 0.425105, 0.181094, 0, 0
1, 1380.00000, 0.42265, 0.180048, 0.422684, 0.180063, 0.425105, 0.181094, 0, 0
1, 1440.00000, 0.42265, 0.180048, 0.422684, 0.180063, 0.425105, 0.181094, 0, 0
1, 1500.00000, 0.42265, 0.180048, 0.422684, 0.180063, 0.425105, 0.181094, 0, 0
1, 1560.00000, 0.42265, 0.180048, 0.422684, 0.180063, 0.425105, 0.181094, 0, 0
1, 1620.00000, 0.42265, 0.180048, 0.422684, 0.180063, 0.425105, 0.181094, 0, 0
1, 1680.00000, 0.42265, 0.180048, 0.422684, 0.180063, 0.425105, 0.181094, 0, 0
1, 1740.00000, 0.42265, 0.180048, 0.422684, 0.180063, 0.425105, 0.181094, 0, 0
1, 1800.00000, 0.42265, 0.180048, 0.422684, 0.180063, 0.425105, 0.181094, 0, 0
1, 1860.00000, 0.410425, 0.174838, 0.410496, 0.174872, 0.413998, 0.17636, 0, 0
1, 1920.00000, 0.410423, 0.17484, 0.410495, 0.17487, 0.414005, 0.176365, 0, 0
1, 1980.00000, 0.410423, 0.17484, 0.410495, 0.17487, 0.414005, 0.176365, 0, 0
1, 2040.00000, 0.410423, 0.17484, 0.410495, 0.17487, 0.414005, 0.176365, 0, 0
1, 2100.00000, 0.410423, 0.17484, 0.410495, 0.17487, 0.414005, 0.176365, 0, 0
1, 2160.00000, 0.410423, 0.17484, 0.410495, 0.17487, 0.414005, 0.176365, 0, 0
1, 2220.00000, 0.410423, 0.17484, 0.410495, 0.17487, 0.414005, 0.176365, 0, 0
1, 2280.00000, 0.410423, 0.17484, 0.410495, 0.17487, 0.414005, 0.176365, 0, 0
1, 2340.00000, 0.410423, 0.17484, 0.410495, 0.17487, 0.414005, 0.176365, 0, 0
1, 2400.00000, 0.410423, 0.17484, 0.410495, 0.17487, 0.414005, 0.176365, 0, 0
1, 2460.00000, 0.410423, 0.17484, 0.410495, 0.17487, 0.414005, 0.176365, 0, 0
1, 2520.00000, 0.410423, 0.17484, 0.410495, 0.17487, 0.414005, 0.176365, 0, 0
1, 2580.00000, 0.410423, 0.17484, 0.410495, 0.17487, 0.414005, 0.176365, 0, 0
1, 2640.00000, 0.410423, 0.17484, 0.410495, 0.17487, 0.414005, 0.176365, 0, 0
1, 2700.00000, 0.410423, 0.17484, 0.410495, 0.17487, 0.414005, 0.176365, 0, 0
1, 2760.00000, 0.417437, 0.177832, 0.41743, 0.177823, 0.418312, 0.178205, 0, 0
1, 2820.00000, 0.41744, 0.177829, 0.417435, 0.177827, 0.418298, 0.178194, 0, 0
1, 2880.00000, 0.41744, 0.177829, 0.417435, 0.177827, 0.418298, 0.178194, 0, 0
1, 2940.00000, 0.41744, 0.177829, 0.417435, 0.177827, 0.418298, 0.178194, 0, 0
1, 3000.00000, 0.41744, 0.177829, 0.417435, 0.177827, 0.418298, 0.178194, 0, 0
1, 3060.00000, 0.41744, 0.177829, 0.417435, 0.177827, 0.418298, 0.178194, 0, 0
1, 3120.00000, 0.41744, 0.177829, 0.417435, 0.177827, 0.418298, 0.178194, 0, 0
1, 3180.00000, 0.41744, 0.177829, 0.417435, 0.177827, 0.418298, 0.178194, 0, 0
1, 3240.00000, 0.41744, 0.177829, 0.417435, 0.177827, 0.418298, 0.178194, 0, 0
1, 3300.00000, 0.41744, 0.177829, 0.417435, 0.177827, 0.418298, 0.178194, 0, 0
1, 3360.00000, 0.41744, 0.177829, 0.417435, 0.177827, 0.418298, 0.178194, 0, 0
1, 3420.00000, 0.41744, 0.177829, 0.417435, 0.177827, 0.418298, 0.178194, 0, 0
1, 3480.00000, 0.41744, 0.177829, 0.417435, 0.177827, 0.418298, 0.178194, 0, 0
1, 3540.00000, 0.41744, 0.177829, 0.417435, 0.177827, 0.418298, 0.178194, 0, 0
2, 0.00000, 0.41744, 0.177829, 0.417435, 0.177827, 0.418298, 0.178194, 0, 0
2, 60.00000, 0.424315, 0.180755, 0.42435, 0.180774, 0.426885, 0.181849, 0, 0
2, 120.00000, 0.424314, 0.180757, 0.424348, 0.180772, 0.426892, 0.181855, 0, 0
2, 180.00000, 0.424314, 0.180757, 0.424348, 0.180772, 0.426893, 0.181855, 0, 0
2, 240.00000, 0.424314, 0.180757, 0.424348, 0.180772, 0.426893, 0.181855, 0, 0
2, 300.00000, 0.424314, 0.180757, 0.424348, 0.180772, 0.426893, 0.181855, 0, 0
2, 360.00000, 0.424314, 0.180757, 0.424348, 0.180772, 0.426893, 0.181855, 0, 0
2, 420.00000, 0.424314, 0.180757, 0.424348, 0.180772, 0.426893, 0.181855, 0, 0
2, 480.00000, 0.424314, 0.180757, 0.424348, 0.180772, 0.426893, 0.181855, 0, 0
2, 540.00000, 0.424314, 0.180757, 0.424348, 0.180772, 0.426893, 0.181855, 0, 0
2, 600.00000, 0.424314, 0.180757, 0.424348, 0.180772, 0.426893, 0.181855, 0, 0
2, 660.00000, 0.424314, 0.180757, 0.424348, 0.180772, 0.426893, 0.181855, 0, 0
2, 720.00000, 0.424314, 0.180757, 0.424348, 0.180772, 0.426893, 0.181855, 0, 0
2, 780.00000, 0.424314, 0.180757, 0.424348, 0.180772, 0.426893, 0.181855, 0, 0
2, 840.00000, 0.424314, 0.180757, 0.424348, 0.180772, 0.426893, 0.181855, 0, 0
2, 900.00000, 0.424314, 0.180757, 0.424348, 0.180772, 0.426893, 0.181855, 0, 0
2, 960.00000, 0.43792, 0.186556, 0.437902, 0.186545, 0.438498, 0.186803, 0, 0
2, 1020.00000, 0.437923, 0.186554, 0.437907, 0.186548, 0.438487, 0.186795, 0, 0
2, 1080.00000, 0.437923, 0.186554, 0.437907, 0.186548, 0.438487, 0.186795, 0, 0
2, 1140.00000, 0.437923, 0.186554, 0.437907, 0.186548, 0.438487, 0.186795, 0, 0
2, 1200.00000, 0.437923, 0.186554, 0.437907, 0.186548, 0.438487, 0.186795, 0, 0
2, 1260.00000, 0.437923, 0.186554, 0.437907, 0.186548, 0.438487, 0.186795, 0, 0
2, 1320.00000, 0.437923, 0.186554, 0.437907, 0.186548, 0.438487, 0.186795, 0, 0
2, 1380.00000, 0.437923, 0.186554, 0.437907, 0.186548, 0.438487, 0.186795, 0, 0
2, 1440.00000, 0.437923, 0.186554, 0.437907, 0.186548, 0.438487, 0.186795, 0, 0
2, 1500.00000, 0.437923, 0.186554, 0.437907, 0.186548, 0.438487, 0.186795, 0, 0
2, 1560.00000, 0.437923, 0.186554, 0.437907, 0.186548, 0.438487, 0.186795, 0, 0
2, 1620.00000, 0.437923, 0.186554, 0.437907, 0.186548, 0.438487, 0.186795, 0, 0
2, 1680.00000, 0.437923, 0.186554, 0.437907, 0.186548, 0.438487, 0.186795, 0, 0
2, 1740.00000, 0.437923, 0.186554, 0.437907, 0.186548, 0.438487, 0.186795, 0, 0
2, 1800.00000, 0.437923, 0.186554, 0.437907, 0.186548, 0.438487, 0.186795, 0, 0
2, 1860.00000, 0.4257, 0.181346, 0.425692, 0.181344, 0.42689, 0.181853, 0, 0
2, 1920.00000, 0.425699, 0.181347, 0.42569, 0.181343, 0.426895, 0.181856, 0, 0
2, 1980.00000, 0.425699, 0.181347, 0.42569, 0.181343, 0.426895, 0.181856, 0, 0
2, 2040.00000, 0.425699, 0.181347, 0.42569, 0.181343, 0.426895, 0.181856, 0, 0
2, 2100.00000, 0.425699, 0.181347, 0.42569, 0.181343, 0.426895, 0.181856, 0, 0
2, 2160.00000, 0.425699, 0.181347, 0.42569, 0.181343, 0.426895, 0.181856, 0, 0
2, 2220.00000, 0.425699, 0.181347, 0.42569, 0.181343, 0.426895, 0.181856, 0, 0
2, 2280.00000, 0.425699, 0.181347, 0.42569, 0.181343, 0.426895, 0.181856, 0, 0
2, 2340.00000, 0.425699, 0.181347, 0.42569, 0.181343, 0.426895, 0.181856, 0, 0
2, 2400.00000, 0.425699, 0.181347, 0.42569, 0.181343, 0.426895, 0.181856, 0, 0
2, 2460.00000, 0.425699, 0.181347, 0.42569, 0.181343, 0.426895, 0.181856, 0, 0
2, 2520.00000, 0.425699, 0.181347, 0.42569, 0.181343, 0.426895, 0.181856, 0, 0
2, 2580.00000, 0.425699, 0.181347, 0.42569, 0.181343, 0.426895, 0.181856, 0, 0
2, 2640.00000, 0.425699, 0.181347, 0.42569, 0.181343, 0.426895, 0.181856, 0, 0
2, 2700.00000, 0.425699, 0.181347, 0.42569, 0.181343, 0.426895, 0.181856, 0, 0
2, 2760.00000, 0.41716, 0.177713, 0.417163, 0.17771, 0.417168, 0.177717, 0, 0
2, 2820.00000, 0.417156, 0.177708, 0.417156, 0.177708, 0.417156, 0.177708, 0, 0
2, 2880.00000, 0.417156, 0.177708, 0.417156, 0.177708, 0.417156, 0.177708, 0, 0
2, 2940.00000, 0.417156, 0.177708, 0.417156, 0.177708, 0.417156, 0.177708, 0, 0
2, 3000.00000, 0.417156, 0.177708, 0.417156, 0.177708, 0.417156, 0.177708, 0, 0
2, 3060.00000, 0.417156, 0.177708, 0.417156, 0.177708, 0.417156, 0.177708, 0, 0
2, 3120.00000, 0.417156, 0.177708, 0.417156, 0.177708, 0.417156, 0.177708, 0, 0
2, 3180.00000, 0.417156, 0.177708, 0.417156, 0.177708, 0.417156, 0.177708, 0, 0
2, 3240.00000, 0.417156, 0.177708, 0.417156, 0.177708, 0.417156, 0.177708, 0, 0
2, 3300.00000, 0.417156, 0.177708, 0.417156, 0.177708, 0.417156, 0.177708, 0, 0
2, 3360.00000, 0.417156, 0.177708, 0.417156, 0.177708, 0.417156, 0.177708, 0, 0
2, 3420.00000, 0.417156, 0.177708, 0.417156, 0.177708, 0.417156, 0.177708, 0, 0
2, 3480.00000, 0.417156, 0.177708, 0.417156, 0.177708, 0.417156, 0.177708, 0, 0
2, 3540.00000, 0.417156, 0.177708, 0.417156, 0.177708, 0.417156, 0.177708, 0, 0
3, 0.00000, 0.417156, 0.177708, 0.417156, 0.177708, 0.417156, 0.177708, 0, 0
3, 60.00000, 0.423384, 0.180358, 0.423383, 0.18036, 0.42338, 0.180357, 0, 0
3, 120.00000, 0.423386, 0.180362, 0.423386, 0.180362, 0.423386, 0.180362, 0, 0
3, 180.00000, 0.423386, 0.180362, 0.423386, 0.180362, 0.423386, 0.180362, 0, 0
3, 240.00000, 0.423386, 0.180362, 0.423386, 0.180362, 0.423386, 0.180362, 0, 0
3, 300.00000, 0.423386, 0.180362, 0.423386, 0.180362, 0.423386, 0.180362, 0, 0
3, 360.00000, 0.423386, 0.180362, 0.423386, 0.180362, 0.423386, 0.180362, 0, 0
3, 420.00000, 0.423386, 0.180362, 0.423386, 0.180362, 0.423386, 0.180362, 0, 0
3, 480.00000, 0.423386, 0.180362, 0.423386, 0.180362, 0.423386, 0.180362, 0, 0
3, 540.00000, 0.423386, 0.180362, 0.423386, 0.180362, 0.423386, 0.180362, 0, 0
3, 600.00000, 0.423386, 0.180362, 0.423386, 0.180362, 0.423386, 0.180362, 0, 0
3, 660.00000, 0.423386, 0.180362, 0.423386, 0.180362, 0.423386, 0.180362, 0, 0
3, 720.00000, 0.423386, 0.180362, 0.423386, 0.180362, 0.423386, 0.180362, 0, 0
3, 780.00000, 0.423386, 0.180362, 0.423386, 0.180362, 0.423386, 0.180362, 0, 0
3, 840.00000, 0.423386, 0.180362, 0.423386, 0.180362, 0.423386, 0.180362, 0, 0
3, 900.00000, 0.423386, 0.180362, 0.423386, 0.180362, 0.423386, 0.180362, 0, 0
3, 960.00000, 0.407986, 0.173806, 0.407989, 0.173803, 0.407996, 0.17381, 0, 0
3, 1020.00000, 0.407981, 0.173799, 0.407981, 0.173799, 0.407981, 0.173799, 0, 0
3, 1080.00000, 0.407981, 0.173799, 0.407981, 0.173799, 0.407981, 0.173799, 0, 0
3, 1140.00000, 0.407981, 0.173799, 0.407981, 0.173799, 0.407981, 0.173799, 0, 0
3, 1200.00000, 0.407981, 0.173799, 0.407981, 0.173799, 0.407981, 0.173799, 0, 0
3, 1260.00000, 0.407981, 0.173799, 0.407981, 0.173799, 0.407981, 0.173799, 0, 0
3, 1320.00000, 0.407981, 0.173799, 0.407981, 0.173799, 0.407981, 0.173799, 0, 0
3, 1380.00000, 0.407981, 0.173799, 0.407981, 0.173799, 0.407981, 0.173799, 0, 0
3, 1440.00000, 0.407981, 0.173799, 0.407981, 0.173799, 0.407981, 0.173799, 0, 0
3, 1500.00000, 0.407981, 0.173799, 0.407981, 0.173799, 0.407981, 0.173799, 0, 0
3, 1560.00000, 0.407981, 0.173799, 0.407981, 0.173799, 0.407981, 0.173799, 0, 0
3, 1620.00000, 0.407981, 0.173799, 0.407981, 0.173799, 0.407981, 0.173799, 0, 0
3, 1680.00000, 0.407981, 0.173799, 0.407981, 0.173799, 0.407981, 0.173799, 0, 0
3, 1740.00000, 0.407981, 0.173799, 0.407981, 0.173799, 0.407981, 0.173799, 0, 0
3, 1800.00000, 0.407981, 0.173799, 0.407981, 0.173799, 0.407981, 0.173799, 0, 0
3, 1860.00000, 0.418982, 0.17849, 0.418983, 0.178488, 0.418983, 0.17849, 0, 0
3, 1920.00000, 0.418977, 0.178483, 0.418977, 0.178483, 0.418977, 0.178483, 0, 0
3, 1980.00000, 0.418977, 0.178483, 0.418977, 0.178483, 0.418977, 0.178483, 0, 0
3, 2040.00000, 0.418977, 0.178483, 0.418977, 0.178483, 0.418977, 0.178483, 0, 0
3, 2100.00000, 0.418977, 0.178483, 0.418977, 0.178483, 0.418977, 0.178483, 0, 0
3, 2160.00000, 0.418977, 0.178483, 0.418977, 0.178483, 0.418977, 0.178483, 0, 0
3, 2220.00000, 0.418977, 0.178483, 0.418977, 0.178483, 0.418977, 0.178483, 0, 0
3, 2280.00000, 0.418977, 0.178483, 0.418977, 0.178483, 0.418977, 0.178483, 0, 0
3, 2340.00000, 0.418977, 0.178483, 0.418977, 0.178483, 0.418977, 0.178483, 0, 0
3, 2400.00000, 0.418977, 0.178483, 0.418977, 0.178483, 0.418977, 0.178483, 0, 0
3, 2460.00000, 0.418977, 0.178483, 0.418977, 0.178483, 0.418977, 0.178483, 0, 0
3, 2520.00000, 0.418977, 0.178483, 0.418977, 0.178483, 0.418977, 0.178483, 0, 0
3, 2580.00000, 0.418977, 0.178483, 0.418977, 0.178483, 0.418977, 0.178483, 0, 0
3, 2640.00000, 0.418977, 0.178483, 0.418977, 0.178483, 0.418977, 0.178483, 0, 0
3, 2700.00000, 0.418977, 0.178483, 0.418977, 0.178483, 0.418977, 0.178483, 0, 0
3, 2760.00000, 0.41318, 0.176018, 0.41318, 0.176014, 0.413186, 0.17602, 0, 0
3, 2820.00000, 0.413174, 0.176012, 0.413174, 0.176011, 0.413174, 0.176012, 0, 0
3, 2880.00000, 0.413174, 0.176012, 0.413174, 0.176012, 0.413174, 0.176012, 0, 0
3, 2940.00000, 0.413174, 0.176012, 0.413174, 0.176012, 0.413174, 0.176012, 0, 0
3, 3000.00000, 0.413174, 0.176012, 0.413174, 0.176012, 0.413174, 0.176012, 0, 0
3, 3060.00000, 0.413174, 0.176012, 0.413174, 0.176012, 0.413174, 0.176012, 0, 0
3, 3120.00000, 0.413185, 0.176013, 0.413189, 0.176027, 0.413166, 0.176008, 0, 0
3, 3180.00000, 0.413174, 0.176012, 0.413174, 0.176012, 0.413174, 0.176011, 0, 0
3, 3240.00000, 0.413174, 0.176012, 0.413174, 0.176012, 0.413174, 0.176011, 0, 0
3, 3300.00000, 0.413174, 0.176012, 0.413174, 0.176012, 0.413174, 0.176012, 0, 0
3, 3360.00000, 0.413174, 0.176012, 0.413174, 0.176012, 0.413174, 0.176012, 0, 0
3, 3420.00000, 0.413174, 0.176012, 0.413174, 0.176012, 0.413174, 0.176012, 0, 0
3, 3480.00000, 0.413174, 0.176012, 0.413174, 0.176012, 0.413174, 0.176012, 0, 0
3, 3540.00000, 0.413174, 0.176012, 0.413174, 0.176012, 0.413174, 0.176012, 0, 0
4, 0.00000, 0.413174, 0.176012, 0.413174, 0.176012, 0.413174, 0.176012, 0, 0
4, 60.00000, 0.407657, 0.173659, 0.407656, 0.17366, 0.407654, 0.173658, 0, 0
4, 120.00000, 0.407661, 0.173663, 0.40766, 0.173663, 0.40766, 0.173663, 0, 0
4, 180.00000, 0.407661, 0.173663, 0.407661, 0.173663, 0.407661, 0.173663, 0, 0
4, 240.00000, 0.407661, 0.173663, 0.407661, 0.173663, 0.407661, 0.173663, 0, 0
4, 300.00000, 0.407661, 0.173663, 0.407661, 0.173663, 0.407661, 0.173663, 0, 0
4, 360.00000, 0.407661, 0.173663, 0.407661, 0.173663, 0.407661, 0.173663, 0, 0
4, 420.00000, 0.407661, 0.173663, 0.407661, 0.173663, 0.407661, 0.173663, 0, 0
4, 480.00000, 0.407661, 0.173663, 0.407661, 0.173663, 0.407661, 0.173663, 0, 0
4, 540.00000, 0.407661, 0.173663, 0.407661, 0.173663, 0.407661, 0.173663, 0, 0
4, 600.00000, 0.407661, 0.173663, 0.407661, 0.173663, 0.407661, 0.173663, 0, 0
4, 660.00000, 0.407661, 0.173663, 0.407661, 0.173663, 0.407661, 0.173663, 0, 0
4, 720.00000, 0.407661, 0.173663, 0.407661, 0.173663, 0.407661, 0.173663, 0, 0
