hour,t(sec),V1,VAngle1,V2,VAngle2,V3,VAngle3,V4,VAngle4,I1,IAngle1,I2,IAngle2,I3,IAngle3,I4,IAngle4
0, 60.00000, 123.319, -32.076, 122.861, -151.208, 125.246, 88.5764, 0, 0, 8.26119, -55.1498, 8.29198, -174.282, 8.13433, 65.5024, 0.257188, 52.3611
0, 120.00000, 123.325, -32.0822, 122.861, -151.208, 125.263, 88.5761, 0, 0, 8.26077, -55.156, 8.292, -174.282, 8.13314, 65.5022, 0.259069, 52.2746
0, 180.00000, 123.331, -32.0878, 122.861, -151.208, 125.28, 88.5758, 0, 0, 8.26038, -55.1616, 8.29202, -174.282, 8.13207, 65.5019, 0.260759, 52.1985
0, 240.00000, 123.336, -32.0928, 122.86, -151.208, 125.294, 88.5756, 0, 0, 8.26004, -55.1666, 8.29204, -174.282, 8.13111, 65.5016, 0.262282, 52.1312
0, 300.00000, 123.341, -32.0974, 122.86, -151.208, 125.307, 88.5753, 0, 0, 8.25973, -55.1712, 8.29205, -174.282, 8.13025, 65.5014, 0.263652, 52.0716
0, 360.00000, 123.345, -32.1015, 122.86, -151.208, 125.319, 88.5751, 0, 0, 8.25945, -55.1753, 8.29206, -174.282, 8.12947, 65.5012, 0.264887, 52.0186
0, 420.00000, 123.349, -32.1051, 122.86, -151.208, 125.33, 88.5749, 0, 0, 8.2592, -55.179, 8.29208, -174.282, 8.12877, 65.501, 0.265999, 51.9714
0, 480.00000, 123.961, -32.0047, 123.43, -151.096, 125.942, 88.6995, 0, 0, 7.42582, -55.0785, 7.45775, -174.17, 7.30909, 65.6256, 0.242106, 51.1696
0, 540.00000, 123.964, -32.0078, 123.43, -151.096, 125.951, 88.6993, 0, 0, 7.42563, -55.0816, 7.45776, -174.17, 7.30858, 65.6254, 0.242921, 51.1353
0, 600.00000, 123.967, -32.0105, 123.43, -151.096, 125.959, 88.6991, 0, 0, 7.42547, -55.0843, 7.45777, -174.17, 7.30813, 65.6252, 0.243653, 51.105
0, 660.00000, 123.969, -32.0129, 123.43, -151.096, 125.965, 88.699, 0, 0, 7.42532, -55.0868, 7.45777, -174.17, 7.30772, 65.6251, 0.244312, 51.0779
0, 720.00000, 123.972, -32.0152, 123.43, -151.096, 125.972, 88.6988, 0, 0, 7.42519, -55.089, 7.45778, -174.17, 7.30735, 65.6249, 0.244905, 51.0537
0, 780.00000, 123.974, -32.0172, 123.43, -151.096, 125.977, 88.6987, 0, 0, 7.42507, -55.091, 7.45778, -174.17, 7.30702, 65.6248, 0.245439, 51.032
0, 840.00000, 123.975, -32.0189, 123.43, -151.096, 125.982, 88.6986, 0, 0, 7.42496, -55.0928, 7.45779, -174.17, 7.30672, 65.6247, 0.245919, 51.0127
0, 900.00000, 123.977, -32.0206, 123.43, -151.096, 125.987, 88.6985, 0, 0, 7.42486, -55.0944, 7.45779, -174.17, 7.30645, 65.6245, 0.246352, 50.9954
0, 960.00000, 123.979, -32.022, 123.43, -151.096, 125.991, 88.6983, 0, 0, 7.42477, -55.0959, 7.4578, -174.17, 7.30621, 65.6244, 0.246741, 50.9799
0, 1020.00000, 123.98, -32.0233, 123.43, -151.096, 125.995, 88.6983, 0, 0, 7.42469, -55.0972, 7.4578, -174.17, 7.30599, 65.6243, 0.247092, 50.966
0, 1080.00000, 123.981, -32.0245, 123.429, -151.096, 125.998, 88.6982, 0, 0, 7.42462, -55.0984, 7.4578, -174.17, 7.3058, 65.6243, 0.247407, 50.9535
0, 1140.00000, 123.982, -32.0256, 123.429, -151.096, 126.001, 88.6981, 0, 0, 7.42456, -55.0994, 7.45781, -174.17, 7.30562, 65.6242, 0.247691, 50.9424
0, 1200.00000, 123.983, -32.0265, 123.429, -151.096, 126.004, 88.698, 0, 0, 7.4245, -55.1004, 7.45781, -174.17, 7.30546, 65.6241, 0.247947, 50.9324
0, 1260.00000, 123.984, -32.0274, 123.429, -151.096, 126.006, 88.698, 0, 0, 7.42445, -55.1013, 7.45781, -174.17, 7.30532, 65.6241, 0.248177, 50.9234
0, 1320.00000, 123.985, -32.0281, 123.429, -151.097, 126.008, 88.6979, 0, 0, 7.4244, -55.102, 7.45781, -174.17, 7.30519, 65.624, 0.248384, 50.9153
0, 1380.00000, 123.985, -32.0288, 123.429, -151.097, 126.01, 88.6979, 0, 0, 7.42436, -55.1027, 7.45781, -174.17, 7.30507, 65.624, 0.24857, 50.9081
0, 1440.00000, 123.986, -32.0295, 123.429, -151.097, 126.012, 88.6978, 0, 0, 7.42432, -55.1034, 7.45782, -174.17, 7.30497, 65.6239, 0.248738, 50.9016
0, 1500.00000, 123.987, -32.03, 123.429, -151.097, 126.014, 88.6978, 0, 0, 7.42429, -55.1039, 7.45782, -174.17, 7.30488, 65.6239, 0.248889, 50.8957
0, 1560.00000, 123.987, -32.0305, 123.429, -151.097, 126.015, 88.6977, 0, 0, 7.42426, -55.1044, 7.45782, -174.17, 7.30479, 65.6238, 0.249025, 50.8905
0, 1620.00000, 123.988, -32.031, 123.429, -151.097, 126.016, 88.6977, 0, 0, 7.42423, -55.1049, 7.45782, -174.17, 7.30472, 65.6238, 0.249147, 50.8858
0, 1680.00000, 123.988, -32.0314, 123.429, -151.097, 126.018, 88.6977, 0, 0, 7.42421, -55.1053, 7.45782, -174.17, 7.30465, 65.6238, 0.249257, 50.8815
0, 1740.00000, 123.988, -32.0318, 123.429, -151.097, 126.019, 88.6977, 0, 0, 7.42419, -55.1057, 7.45782, -174.17, 7.30459, 65.6237, 0.249356, 50.8777
0, 1800.00000, 123.989, -32.0321, 123.429, -151.097, 126.02, 88.6976, 0, 0, 7.42417, -55.106, 7.45782, -174.17, 7.30453, 65.6237, 0.249446, 50.8743
0, 1860.00000, 123.989, -32.0324, 123.429, -151.097, 126.02, 88.6976, 0, 0, 7.42415, -55.1063, 7.45782, -174.17, 7.30448, 65.6237, 0.249526, 50.8712
0, 1920.00000, 123.989, -32.0327, 123.429, -151.097, 126.021, 88.6976, 0, 0, 7.42413, -55.1066, 7.45782, -174.17, 7.30444, 65.6237, 0.249598, 50.8685
0, 1980.00000, 123.99, -32.0329, 123.429, -151.097, 126.022, 88.6976, 0, 0, 7.42412, -55.1068, 7.45782, -174.17, 7.3044, 65.6237, 0.249663, 50.866
0, 2040.00000, 123.99, -32.0331, 123.429, -151.097, 126.022, 88.6976, 0, 0, 7.42411, -55.107, 7.45782, -174.17, 7.30436, 65.6236, 0.249722, 50.8638
0, 2100.00000, 123.99, -32.0333, 123.429, -151.097, 126.023, 88.6975, 0, 0, 7.42409, -55.1072, 7.45783, -174.17, 7.30433, 65.6236, 0.249774, 50.8617
0, 2160.00000, 123.99, -32.0335, 123.429, -151.097, 126.024, 88.6975, 0, 0, 7.42408, -55.1074, 7.45783, -174.17, 7.3043, 65.6236, 0.249822, 50.8599
0, 2220.00000, 123.99, -32.0337, 123.429, -151.097, 126.024, 88.6975, 0, 0, 7.42407, -55.1076, 7.45783, -174.17, 7.30427, 65.6236, 0.249864, 50.8583
0, 2280.00000, 123.99, -32.0338, 123.429, -151.097, 126.024, 88.6975, 0, 0, 7.42406, -55.1077, 7.45783, -174.17, 7.30425, 65.6236, 0.249903, 50.8568
0, 2340.00000, 123.991, -32.0339, 123.429, -151.097, 126.025, 88.6975, 0, 0, 7.42406, -55.1079, 7.45783, -174.17, 7.30423, 65.6236, 0.249937, 50.8555
0, 2400.00000, 123.991, -32.0341, 123.429, -151.097, 126.025, 88.6975, 0, 0, 7.42405, -55.108, 7.45783, -174.17, 7.30421, 65.6236, 0.249968, 50.8543
0, 2460.00000, 123.991, -32.0342, 123.429, -151.097, 126.025, 88.6975, 0, 0, 7.42404, -55.1081, 7.45783, -174.17, 7.30419, 65.6236, 0.249996, 50.8533
0, 2520.00000, 123.991, -32.0343, 123.429, -151.097, 126.026, 88.6975, 0, 0, 7.42404, -55.1082, 7.45783, -174.17, 7.30417, 65.6236, 0.250022, 50.8523
0, 2580.00000, 123.991, -32.0343, 123.429, -151.097, 126.026, 88.6975, 0, 0, 7.42403, -55.1083, 7.45783, -174.17, 7.30416, 65.6236, 0.250044, 50.8514
0, 2640.00000, 123.991, -32.0344, 123.429, -151.097, 126.026, 88.6975, 0, 0, 7.42403, -55.1083, 7.45783, -174.17, 7.30415, 65.6236, 0.250065, 50.8507
0, 2700.00000, 123.991, -32.0345, 123.429, -151.097, 126.026, 88.6975, 0, 0, 7.42402, -55.1084, 7.45783, -174.17, 7.30414, 65.6235, 0.250083, 50.85
0, 2760.00000, 123.991, -32.0345, 123.429, -151.097, 126.026, 88.6975, 0, 0, 7.42402, -55.1085, 7.45783, -174.17, 7.30412, 65.6235, 0.2501, 50.8493
0, 2820.00000, 123.991, -32.0346, 123.429, -151.097, 126.027, 88.6974, 0, 0, 7.42402, -55.1085, 7.45783, -174.17, 7.30412, 65.6235, 0.250115, 50.8488
0, 2880.00000, 123.991, -32.0347, 123.429, -151.097, 126.027, 88.6974, 0, 0, 7.42401, -55.1086, 7.45783, -174.17, 7.30411, 65.6235, 0.250128, 50.8483
0, 2940.00000, 123.991, -32.0347, 123.429, -151.097, 126.027, 88.6974, 0, 0, 7.42401, -55.1086, 7.45783, -174.17, 7.3041, 65.6235, 0.25014, 50.8478
0, 3000.00000, 123.991, -32.0347, 123.429, -151.097, 126.027, 88.6974, 0, 0, 7.42401, -55.1087, 7.45783, -174.17, 7.30409, 65.6235, 0.250151, 50.8474
0, 3060.00000, 123.991, -32.0348, 123.429, -151.097, 126.027, 88.6974, 0, 0, 7.42401, -55.1087, 7.45783, -174.17, 7.30409, 65.6235, 0.250161, 50.847
0, 3120.00000, 123.991, -32.0348, 123.429, -151.097, 126.027, 88.6974, 0, 0, 7.42401, -55.1087, 7.45783, -174.17, 7.30408, 65.6235, 0.250169, 50.8467
0, 3180.00000, 123.991, -32.0348, 123.429, -151.097, 126.027, 88.6974, 0, 0, 7.424, -55.1088, 7.45783, -174.17, 7.30408, 65.6235, 0.250177, 50.8464
0, 3240.00000, 123.991, -32.0349, 123.429, -151.097, 126.027, 88.6974, 0, 0, 7.424, -55.1088, 7.45783, -174.17, 7.30407, 65.6235, 0.250184, 50.8461
0, 3300.00000, 123.991, -32.0349, 123.429, -151.097, 126.027, 88.6974, 0, 0, 7.424, -55.1088, 7.45783, -174.17, 7.30407, 65.6235, 0.250191, 50.8459
0, 3360.00000, 123.992, -32.0349, 123.429, -151.097, 126.027, 88.6974, 0, 0, 7.424, -55.1088, 7.45783, -174.17, 7.30406, 65.6235, 0.250197, 50.8457
0, 3420.00000, 123.992, -32.0349, 123.429, -151.097, 126.028, 88.6974, 0, 0, 7.424, -55.1088, 7.45783, -174.17, 7.30406, 65.6235, 0.250202, 50.8455
0, 3480.00000, 123.992, -32.0349, 123.429, -151.097, 126.028, 88.6974, 0, 0, 7.424, -55.1089, 7.45783, -174.17, 7.30406, 65.6235, 0.250206, 50.8453
0, 3540.00000, 123.992, -32.035, 123.429, -151.097, 126.028, 88.6974, 0, 0, 7.424, -55.1089, 7.45783, -174.17, 7.30406, 65.6235, 0.250211, 50.8451
1, 0.00000, 123.992, -32.035, 123.429, -151.097, 126.028, 88.6974, 0, 0, 7.424, -55.1089, 7.45783, -174.17, 7.30405, 65.6235, 0.250214, 50.845
1, 60.00000, 124.246, -31.864, 123.899, -151.103, 125.997, 88.7025, 0, 0, 7.40882, -54.9379, 7.42955, -174.177, 7.30584, 65.6286, 0.202847, 53.6047
1, 120.00000, 124.246, -31.864, 123.899, -151.103, 125.997, 88.7025, 0, 0, 7.40882, -54.9379, 7.42955, -174.177, 7.30584, 65.6286, 0.202849, 53.6045
1, 180.00000, 124.246, -31.864, 123.899, -151.103, 125.997, 88.7025, 0, 0, 7.40882, -54.9379, 7.42955, -174.177, 7.30584, 65.6286, 0.202852, 53.6044
1, 240.00000, 124.246, -31.864, 123.899, -151.103, 125.997, 88.7025, 0, 0, 7.40882, -54.9379, 7.42955, -174.177, 7.30583, 65.6286, 0.202855, 53.6042
1, 300.00000, 124.246, -31.864, 123.899, -151.103, 125.997, 88.7025, 0, 0, 7.40882, -54.9379, 7.42955, -174.177, 7.30583, 65.6286, 0.202857, 53.6041
1, 360.00000, 124.246, -31.864, 123.899, -151.103, 125.997, 88.7025, 0, 0, 7.40882, -54.9379, 7.42955, -174.177, 7.30583, 65.6286, 0.202859, 53.604
1, 420.00000, 124.246, -31.864, 123.899, -151.103, 125.997, 88.7025, 0, 0, 7.40882, -54.938, 7.42955, -174.177, 7.30583, 65.6286, 0.202861, 53.6038
1, 480.00000, 124.246, -31.864, 123.899, -151.103, 125.997, 88.7025, 0, 0, 7.40882, -54.938, 7.42955, -174.177, 7.30583, 65.6286, 0.202862, 53.6037
1, 540.00000, 124.246, -31.864, 123.899, -151.103, 125.997, 88.7025, 0, 0, 7.40882, -54.938, 7.42955, -174.177, 7.30583, 65.6286, 0.202864, 53.6037
1, 600.00000, 124.246, -31.8641, 123.899, -151.103, 125.997, 88.7025, 0, 0, 7.40882, -54.938, 7.42955, -174.177, 7.30583, 65.6286, 0.202865, 53.6036
1, 660.00000, 124.246, -31.8641, 123.899, -151.103, 125.997, 88.7025, 0, 0, 7.40882, -54.938, 7.42955, -174.177, 7.30583, 65.6286, 0.202866, 53.6035
1, 720.00000, 124.246, -31.8641, 123.899, -151.103, 125.997, 88.7025, 0, 0, 7.40882, -54.938, 7.42955, -174.177, 7.30583, 65.6286, 0.202867, 53.6034
1, 780.00000, 124.246, -31.8641, 123.899, -151.103, 125.997, 88.7025, 0, 0, 7.40882, -54.938, 7.42955, -174.177, 7.30583, 65.6286, 0.202868, 53.6034
1, 840.00000, 124.246, -31.8641, 123.899, -151.103, 125.997, 88.7025, 0, 0, 7.40882, -54.938, 7.42955, -174.177, 7.30583, 65.6286, 0.202869, 53.6033
1, 900.00000, 124.246, -31.8641, 123.899, -151.103, 125.997, 88.7025, 0, 0, 7.40882, -54.938, 7.42955, -174.177, 7.30583, 65.6286, 0.20287, 53.6033
1, 960.00000, 124.246, -31.8641, 123.899, -151.103, 125.997, 88.7025, 0, 0, 7.40882, -54.938, 7.42955, -174.177, 7.30582, 65.6286, 0.20287, 53.6032
1, 1020.00000, 124.246, -31.8641, 123.899, -151.103, 125.997, 88.7025, 0, 0, 7.40882, -54.938, 7.42955, -174.177, 7.30582, 65.6286, 0.202871, 53.6032
1, 1080.00000, 124.246, -31.8641, 123.899, -151.103, 125.997, 88.7025, 0, 0, 7.40882, -54.938, 7.42955, -174.177, 7.30582, 65.6286, 0.202872, 53.6032
1, 1140.00000, 124.246, -31.8641, 123.899, -151.103, 125.997, 88.7025, 0, 0, 7.40882, -54.938, 7.42955, -174.177, 7.30582, 65.6286, 0.202872, 53.6031
1, 1200.00000, 124.246, -31.8641, 123.899, -151.103, 125.997, 88.7025, 0, 0, 7.40882, -54.938, 7.42955, -174.177, 7.30582, 65.6286, 0.202873, 53.6031
1, 1260.00000, 124.246, -31.8641, 123.899, -151.103, 125.997, 88.7025, 0, 0, 7.40882, -54.938, 7.42955, -174.177, 7.30582, 65.6286, 0.202873, 53.6031
1, 1320.00000, 124.246, -31.8641, 123.899, -151.103, 125.997, 88.7025, 0, 0, 7.40882, -54.938, 7.42955, -174.177, 7.30582, 65.6286, 0.202873, 53.6031
1, 1380.00000, 124.246, -31.8641, 123.899, -151.103, 125.997, 88.7025, 0, 0, 7.40882, -54.938, 7.42955, -174.177, 7.30582, 65.6286, 0.202874, 53.603
1, 1440.00000, 124.246, -31.8641, 123.899, -151.103, 125.997, 88.7025, 0, 0, 7.40882, -54.938, 7.42955, -174.177, 7.30582, 65.6286, 0.202874, 53.603
1, 1500.00000, 124.246, -31.8641, 123.899, -151.103, 125.997, 88.7025, 0, 0, 7.40882, -54.938, 7.42955, -174.177, 7.30582, 65.6286, 0.202874, 53.603
1, 1560.00000, 124.246, -31.8641, 123.899, -151.103, 125.997, 88.7025, 0, 0, 7.40882, -54.938, 7.42955, -174.177, 7.30582, 65.6286, 0.202875, 53.603
1, 1620.00000, 124.246, -31.8641, 123.899, -151.103, 125.997, 88.7025, 0, 0, 7.40882, -54.938, 7.42955, -174.177, 7.30582, 65.6286, 0.202875, 53.603
1, 1680.00000, 124.246, -31.8641, 123.899, -151.103, 125.997, 88.7025, 0, 0, 7.40881, -54.938, 7.42955, -174.177, 7.30582, 65.6286, 0.202875, 53.603
1, 1740.00000, 124.246, -31.8641, 123.899, -151.103, 125.997, 88.7025, 0, 0, 7.40881, -54.938, 7.42955, -174.177, 7.30582, 65.6286, 0.202875, 53.603
1, 1800.00000, 124.246, -31.8641, 123.899, -151.103, 125.997, 88.7025, 0, 0, 7.40881, -54.938, 7.42955, -174.177, 7.30582, 65.6286, 0.202875, 53.603
1, 1860.00000, 124.246, -31.8641, 123.899, -151.103, 125.997, 88.7025, 0, 0, 7.40881, -54.938, 7.42955, -174.177, 7.30582, 65.6286, 0.202875, 53.6029
1, 1920.00000, 124.246, -31.8641, 123.899, -151.103, 125.997, 88.7025, 0, 0, 7.40881, -54.938, 7.42955, -174.177, 7.30582, 65.6286, 0.202876, 53.6029
1, 1980.00000, 124.246, -31.8641, 123.899, -151.103, 125.997, 88.7025, 0, 0, 7.40881, -54.938, 7.42955, -174.177, 7.30582, 65.6286, 0.202876, 53.6029
1, 2040.00000, 124.246, -31.8641, 123.899, -151.103, 125.997, 88.7025, 0, 0, 7.40881, -54.938, 7.42955, -174.177, 7.30582, 65.6286, 0.202876, 53.6029
1, 2100.00000, 124.246, -31.8641, 123.899, -151.103, 125.997, 88.7025, 0, 0, 7.40881, -54.938, 7.42955, -174.177, 7.30582, 65.6286, 0.202876, 53.6029
1, 2160.00000, 124.246, -31.8641, 123.899, -151.103, 125.997, 88.7025, 0, 0, 7.40881, -54.938, 7.42955, -174.177, 7.30582, 65.6286, 0.202876, 53.6029
1, 2220.00000, 124.246, -31.8641, 123.899, -151.103, 125.997, 88.7025, 0, 0, 7.40881, -54.938, 7.42955, -174.177, 7.30582, 65.6286, 0.202876, 53.6029
1, 2280.00000, 124.246, -31.8641, 123.899, -151.103, 125.997, 88.7025, 0, 0, 7.40881, -54.938, 7.42955, -174.177, 7.30582, 65.6286, 0.202876, 53.6029
1, 2340.00000, 124.246, -31.8641, 123.899, -151.103, 125.997, 88.7025, 0, 0, 7.40881, -54.938, 7.42955, -174.177, 7.30582, 65.6286, 0.202876, 53.6029
1, 2400.00000, 124.246, -31.8641, 123.899, -151.103, 125.997, 88.7025, 0, 0, 7.40881, -54.938, 7.42955, -174.177, 7.30582, 65.6286, 0.202876, 53.6029
1, 2460.00000, 124.246, -31.8641, 123.899, -151.103, 125.997, 88.7025, 0, 0, 7.40881, -54.938, 7.42955, -174.177, 7.30582, 65.6286, 0.202876, 53.6029
1, 2520.00000, 124.246, -31.8641, 123.899, -151.103, 125.997, 88.7025, 0, 0, 7.40881, -54.938, 7.42955, -174.177, 7.30582, 65.6286, 0.202876, 53.6029
1, 2580.00000, 124.246, -31.8641, 123.899, -151.103, 125.997, 88.7025, 0, 0, 7.40881, -54.938, 7.42955, -174.177, 7.30582, 65.6286, 0.202876, 53.6029
1, 2640.00000, 124.246, -31.8641, 123.899, -151.103, 125.997, 88.7025, 0, 0, 7.40881, -54.938, 7.42955, -174.177, 7.30582, 65.6286, 0.202876, 53.6029
1, 2700.00000, 124.246, -31.8641, 123.899, -151.103, 125.997, 88.7025, 0, 0, 7.40881, -54.938, 7.42955, -174.177, 7.30582, 65.6286, 0.202876, 53.6029
1, 2760.00000, 124.246, -31.8641, 123.899, -151.103, 125.997, 88.7025, 0, 0, 7.40881, -54.938, 7.42955, -174.177, 7.30582, 65.6286, 0.202876, 53.6029
1, 2820.00000, 124.246, -31.8641, 123.899, -151.103, 125.997, 88.7025, 0, 0, 7.40881, -54.938, 7.42955, -174.177, 7.30582, 65.6286, 0.202876, 53.6029
1, 2880.00000, 124.246, -31.8641, 123.899, -151.103, 125.997, 88.7025, 0, 0, 7.40881, -54.938, 7.42955, -174.177, 7.30582, 65.6286, 0.202877, 53.6029
1, 2940.00000, 124.246, -31.8641, 123.899, -151.103, 125.997, 88.7025, 0, 0, 7.40881, -54.938, 7.42955, -174.177, 7.30582, 65.6286, 0.202877, 53.6029
1, 3000.00000, 124.246, -31.8641, 123.899, -151.103, 125.997, 88.7025, 0, 0, 7.40881, -54.938, 7.42955, -174.177, 7.30582, 65.6286, 0.202877, 53.6029
1, 3060.00000, 124.246, -31.8641, 123.899, -151.103, 125.997, 88.7025, 0, 0, 7.40881, -54.938, 7.42955, -174.177, 7.30582, 65.6286, 0.202877, 53.6029
1, 3120.00000, 124.246, -31.8641, 123.899, -151.103, 125.997, 88.7025, 0, 0, 7.40881, -54.938, 7.42955, -174.177, 7.30582, 65.6286, 0.202877, 53.6029
1, 3180.00000, 124.246, -31.8641, 123.899, -151.103, 125.997, 88.7025, 0, 0, 7.40881, -54.938, 7.42955, -174.177, 7.30582, 65.6286, 0.202877, 53.6029
1, 3240.00000, 124.246, -31.8641, 123.899, -151.103, 125.997, 88.7025, 0, 0, 7.40881, -54.938, 7.42955, -174.177, 7.30582, 65.6286, 0.202877, 53.6029
1, 3300.00000, 124.246, -31.8641, 123.899, -151.103, 125.997, 88.7025, 0, 0, 7.40881, -54.938, 7.42955, -174.177, 7.30582, 65.6286, 0.202877, 53.6029
1, 3360.00000, 124.246, -31.8641, 123.899, -151.103, 125.997, 88.7025, 0, 0, 7.40881, -54.938, 7.42955, -174.177, 7.30582, 65.6286, 0.202877, 53.6029
1, 3420.00000, 124.246, -31.8641, 123.899, -151.103, 125.997, 88.7025, 0, 0, 7.40881, -54.938, 7.42955, -174.177, 7.30582, 65.6286, 0.202877, 53.6029
1, 3480.00000, 124.246, -31.8641, 123.899, -151.103, 125.997, 88.7025, 0, 0, 7.40881, -54.938, 7.42955, -174.177, 7.30582, 65.6286, 0.202877, 53.6029
1, 3540.00000, 124.246, -31.8641, 123.899, -151.103, 125.997, 88.7025, 0, 0, 7.40881, -54.938, 7.42955, -174.177, 7.30582, 65.6286, 0.202877, 53.6029
2, 0.00000, 124.246, -31.8641, 123.899, -151.103, 125.997, 88.7025, 0, 0, 7.40881, -54.938, 7.42955, -174.177, 7.30582, 65.6286, 0.202877, 53.6029
2, 60.00000, 124.246, -31.8641, 123.899, -151.103, 125.997, 88.7025, 0, 0, 7.40881, -54.938, 7.42955, -174.177, 7.30582, 65.6286, 0.202877, 53.6029
2, 120.00000, 124.246, -31.8641, 123.899, -151.103, 125.997, 88.7025, 0, 0, 7.40881, -54.938, 7.42955, -174.177, 7.30582, 65.6286, 0.202877, 53.6029
2, 180.00000, 124.246, -31.8641, 123.899, -151.103, 125.997, 88.7025, 0, 0, 7.40881, -54.938, 7.42955, -174.177, 7.30582, 65.6286, 0.202877, 53.6029
2, 240.00000, 124.246, -31.8641, 123.899, -151.103, 125.997, 88.7025, 0, 0, 7.40881, -54.938, 7.42955, -174.177, 7.30582, 65.6286, 0.202877, 53.6029
2, 300.00000, 124.246, -31.8641, 123.899, -151.103, 125.997, 88.7025, 0, 0, 7.40881, -54.938, 7.42955, -174.177, 7.30582, 65.6286, 0.202877, 53.6029
2, 360.00000, 124.246, -31.8641, 123.899, -151.103, 125.997, 88.7025, 0, 0, 7.40881, -54.938, 7.42955, -174.177, 7.30582, 65.6286, 0.202877, 53.6029
2, 420.00000, 124.246, -31.8641, 123.899, -151.103, 125.997, 88.7025, 0, 0, 7.40881, -54.938, 7.42955, -174.177, 7.30582, 65.6286, 0.202877, 53.6029
2, 480.00000, 124.246, -31.8641, 123.899, -151.103, 125.997, 88.7025, 0, 0, 7.40881, -54.938, 7.42955, -174.177, 7.30582, 65.6286, 0.202877, 53.6029
2, 540.00000, 124.246, -31.8641, 123.899, -151.103, 125.997, 88.7025, 0, 0, 7.40881, -54.938, 7.42955, -174.177, 7.30582, 65.6286, 0.202877, 53.6029
2, 600.00000, 124.246, -31.8641, 123.899, -151.103, 125.997, 88.7025, 0, 0, 7.40881, -54.938, 7.42955, -174.177, 7.30582, 65.6286, 0.202877, 53.6029
2, 660.00000, 124.246, -31.8641, 123.899, -151.103, 125.997, 88.7025, 0, 0, 7.40881, -54.938, 7.42955, -174.177, 7.30582, 65.6286, 0.202877, 53.6029
2, 720.00000, 124.246, -31.8641, 123.899, -151.103, 125.997, 88.7025, 0, 0, 7.40881, -54.938, 7.42955, -174.177, 7.30582, 65.6286, 0.202877, 53.6029
2, 780.00000, 124.246, -31.8641, 123.899, -151.103, 125.997, 88.7025, 0, 0, 7.40881, -54.938, 7.42955, -174.177, 7.30582, 65.6286, 0.202877, 53.6029
