hour,t(sec),"P1 (kW)","Q1 (kvar)","P2 (kW)","Q2 (kvar)","P3 (kW)","Q3 (kvar)","P4 (kW)","Q4 (kvar)"
0, 60.00000, 0.676723, 0.288278, 0.679202, 0.289338, 0.700837, 0.298551, 0, 0
0, 120.00000, 0.676717, 0.28828, 0.6792, 0.289338, 0.70082, 0.298548, 0, 0
0, 180.00000, 0.676717, 0.28828, 0.6792, 0.289338, 0.70082, 0.298548, 0, 0
0, 240.00000, 0.676717, 0.28828, 0.6792, 0.289338, 0.70082, 0.298548, 0, 0
0, 300.00000, 0.676717, 0.28828, 0.6792, 0.289338, 0.70082, 0.298548, 0, 0
0, 360.00000, 0.676717, 0.28828, 0.6792, 0.289338, 0.70082, 0.298548, 0, 0
0, 420.00000, 0.676717, 0.28828, 0.6792, 0.289338, 0.70082, 0.298548, 0, 0
0, 480.00000, 0.676717, 0.28828, 0.6792, 0.289338, 0.70082, 0.298548, 0, 0
0, 540.00000, 0.676717, 0.28828, 0.6792, 0.289338, 0.70082, 0.298548, 0, 0
0, 600.00000, 0.676717, 0.28828, 0.6792, 0.289338, 0.70082, 0.298548, 0, 0
0, 660.00000, 0.676717, 0.28828, 0.6792, 0.289338, 0.70082, 0.298548, 0, 0
0, 720.00000, 0.676717, 0.28828, 0.6792, 0.289338, 0.70082, 0.298548, 0, 0
0, 780.00000, 0.676717, 0.28828, 0.6792, 0.289338, 0.70082, 0.298548, 0, 0
0, 840.00000, 0.676717, 0.28828, 0.6792, 0.289338, 0.70082, 0.298548, 0, 0
0, 900.00000, 0.676717, 0.28828, 0.6792, 0.289338, 0.70082, 0.298548, 0, 0
0, 960.00000, 0.711852, 0.303246, 0.712182, 0.303386, 0.738278, 0.314503, 0, 0
0, 1020.00000, 0.71185, 0.303247, 0.712178, 0.303386, 0.738272, 0.314503, 0, 0
0, 1080.00000, 0.71185, 0.303247, 0.712177, 0.303386, 0.738272, 0.314503, 0, 0
0, 1140.00000, 0.71185, 0.303247, 0.712177, 0.303386, 0.738272, 0.314503, 0, 0
0, 1200.00000, 0.71185, 0.303247, 0.712177, 0.303386, 0.738272, 0.314503, 0, 0
0, 1260.00000, 0.71185, 0.303247, 0.712177, 0.303386, 0.738272, 0.314503, 0, 0
0, 1320.00000, 0.71185, 0.303247, 0.712177, 0.303386, 0.738272, 0.314503, 0, 0
0, 1380.00000, 0.71185, 0.303247, 0.712177, 0.303386, 0.738272, 0.314503, 0, 0
0, 1440.00000, 0.71185, 0.303247, 0.712177, 0.303386, 0.738272, 0.314503, 0, 0
0, 1500.00000, 0.71185, 0.303247, 0.712177, 0.303386, 0.738272, 0.314503, 0, 0
0, 1560.00000, 0.71185, 0.303247, 0.712177, 0.303386, 0.738272, 0.314503, 0, 0
0, 1620.00000, 0.71185, 0.303247, 0.712177, 0.303386, 0.738272, 0.314503, 0, 0
0, 1680.00000, 0.71185, 0.303247, 0.712177, 0.303386, 0.738272, 0.314503, 0, 0
0, 1740.00000, 0.71185, 0.303247, 0.712177, 0.303386, 0.738272, 0.314503, 0, 0
0, 1800.00000, 0.71185, 0.303247, 0.712177, 0.303386, 0.738272, 0.314503, 0, 0
0, 1860.00000, 0.715915, 0.304994, 0.716129, 0.305072, 0.742365, 0.316261, 0, 0
0, 1920.00000, 0.715924, 0.304982, 0.716135, 0.305072, 0.742423, 0.316271, 0, 0
0, 1980.00000, 0.715924, 0.304982, 0.716135, 0.305072, 0.742423, 0.316271, 0, 0
0, 2040.00000, 0.715924, 0.304982, 0.716135, 0.305072, 0.742423, 0.316271, 0, 0
0, 2100.00000, 0.715924, 0.304982, 0.716135, 0.305072, 0.742423, 0.316271, 0, 0
0, 2160.00000, 0.715924, 0.304982, 0.716135, 0.305072, 0.742423, 0.316271, 0, 0
0, 2220.00000, 0.715924, 0.304982, 0.716135, 0.305072, 0.742423, 0.316271, 0, 0
0, 2280.00000, 0.715924, 0.304982, 0.716135, 0.305072, 0.742423, 0.316271, 0, 0
0, 2340.00000, 0.715924, 0.304982, 0.716135, 0.305072, 0.742423, 0.316271, 0, 0
0, 2400.00000, 0.715924, 0.304982, 0.716135, 0.305072, 0.742423, 0.316271, 0, 0
0, 2460.00000, 0.715924, 0.304982, 0.716135, 0.305072, 0.742423, 0.316271, 0, 0
0, 2520.00000, 0.715924, 0.304982, 0.716135, 0.305072, 0.742423, 0.316271, 0, 0
0, 2580.00000, 0.715924, 0.304982, 0.716135, 0.305072, 0.742423, 0.316271, 0, 0
0, 2640.00000, 0.715924, 0.304982, 0.716135, 0.305072, 0.742423, 0.316271, 0, 0
0, 2700.00000, 0.715924, 0.304982, 0.716135, 0.305072, 0.742423, 0.316271, 0, 0
0, 2760.00000, 0.684977, 0.291803, 0.684923, 0.291773, 0.709166, 0.302107, 0, 0
0, 2820.00000, 0.684977, 0.291799, 0.684923, 0.291776, 0.709152, 0.302098, 0, 0
0, 2880.00000, 0.684977, 0.291799, 0.684923, 0.291776, 0.709152, 0.302097, 0, 0
0, 2940.00000, 0.684977, 0.291799, 0.684923, 0.291776, 0.709152, 0.302097, 0, 0
0, 3000.00000, 0.684977, 0.291799, 0.684923, 0.291776, 0.709152, 0.302097, 0, 0
0, 3060.00000, 0.684977, 0.291799, 0.684923, 0.291776, 0.709152, 0.302097, 0, 0
0, 3120.00000, 0.684977, 0.291799, 0.684923, 0.291776, 0.709152, 0.302097, 0, 0
0, 3180.00000, 0.684977, 0.291799, 0.684923, 0.291776, 0.709152, 0.302097, 0, 0
0, 3240.00000, 0.684977, 0.291799, 0.684923, 0.291776, 0.709152, 0.302097, 0, 0
0, 3300.00000, 0.684977, 0.291799, 0.684923, 0.291776, 0.709152, 0.302097, 0, 0
0, 3360.00000, 0.684977, 0.291799, 0.684923, 0.291776, 0.709152, 0.302097, 0, 0
0, 3420.00000, 0.684977, 0.291799, 0.684923, 0.291776, 0.709152, 0.302097, 0, 0
0, 3480.00000, 0.684926, 0.291784, 0.68603, 0.292237, 0.709187, 0.302121, 0, 0
0, 3540.00000, 0.685844, 0.292168, 0.689366, 0.293671, 0.709151, 0.302097, 0, 0
1, 0.00000, 0.685844, 0.292168, 0.689371, 0.293671, 0.709152, 0.302097, 0, 0
1, 60.00000, 0.680742, 0.29, 0.684138, 0.291435, 0.700883, 0.29858, 0, 0
1, 120.00000, 0.680739, 0.289994, 0.684136, 0.291441, 0.700862, 0.298566, 0, 0
1, 180.00000, 0.680739, 0.289994, 0.684136, 0.291441, 0.700862, 0.298566, 0, 0
1, 240.00000, 0.680739, 0.289994, 0.684136, 0.291441, 0.700862, 0.298566, 0, 0
1, 300.00000, 0.680739, 0.289994, 0.684136, 0.291441, 0.700862, 0.298566, 0, 0
1, 360.00000, 0.680739, 0.289994, 0.684136, 0.291441, 0.700862, 0.298566, 0, 0
1, 420.00000, 0.680739, 0.289994, 0.684136, 0.291441, 0.700862, 0.298566, 0, 0
1, 480.00000, 0.680739, 0.289994, 0.684136, 0.291441, 0.700862, 0.298566, 0, 0
1, 540.00000, 0.680739, 0.289994, 0.684136, 0.291441, 0.700862, 0.298566, 0, 0
1, 600.00000, 0.680739, 0.289994, 0.684136, 0.291441, 0.700862, 0.298566, 0, 0
1, 660.00000, 0.680739, 0.289994, 0.684136, 0.291441, 0.700862, 0.298566, 0, 0
1, 720.00000, 0.680739, 0.289994, 0.684136, 0.291441, 0.700862, 0.298566, 0, 0
1, 780.00000, 0.680739, 0.289994, 0.684136, 0.291441, 0.700862, 0.298566, 0, 0
1, 840.00000, 0.680739, 0.289994, 0.684136, 0.291441, 0.700862, 0.298566, 0, 0
1, 900.00000, 0.680739, 0.289994, 0.684136, 0.291441, 0.700862, 0.298566, 0, 0
1, 960.00000, 0.677854, 0.288771, 0.681224, 0.290198, 0.697601, 0.297183, 0, 0
1, 1020.00000, 0.677859, 0.288767, 0.681229, 0.290202, 0.697581, 0.297169, 0, 0
1, 1080.00000, 0.677859, 0.288767, 0.681229, 0.290202, 0.697581, 0.297168, 0, 0
1, 1140.00000, 0.677859, 0.288767, 0.681229, 0.290202, 0.697581, 0.297168, 0, 0
1, 1200.00000, 0.677859, 0.288767, 0.681229, 0.290202, 0.697581, 0.297168, 0, 0
1, 1260.00000, 0.677859, 0.288767, 0.681229, 0.290202, 0.697581, 0.297168, 0, 0
1, 1320.00000, 0.677859, 0.288767, 0.681229, 0.290202, 0.697581, 0.297168, 0, 0
1, 1380.00000, 0.677859, 0.288767, 0.681229, 0.290202, 0.697581, 0.297168, 0, 0
1, 1440.00000, 0.677859, 0.288767, 0.681229, 0.290202, 0.697581, 0.297168, 0, 0
1, 1500.00000, 0.677859, 0.288767, 0.681229, 0.290202, 0.697581, 0.297168, 0, 0
1, 1560.00000, 0.677859, 0.288767, 0.681229, 0.290202, 0.697581, 0.297168, 0, 0
1, 1620.00000, 0.677859, 0.288767, 0.681229, 0.290202, 0.697581, 0.297168, 0, 0
1, 1680.00000, 0.677859, 0.288767, 0.681229, 0.290202, 0.697581, 0.297168, 0, 0
1, 1740.00000, 0.677859, 0.288767, 0.681229, 0.290202, 0.697581, 0.297168, 0, 0
1, 1800.00000, 0.677859, 0.288767, 0.681229, 0.290202, 0.697581, 0.297168, 0, 0
1, 1860.00000, 0.710043, 0.302468, 0.714421, 0.304359, 0.714367, 0.304315, 0, 0
1, 1920.00000, 0.710058, 0.302483, 0.714405, 0.304336, 0.714404, 0.304335, 0, 0
1, 1980.00000, 0.710058, 0.302483, 0.714405, 0.304335, 0.714405, 0.304335, 0, 0
1, 2040.00000, 0.710058, 0.302483, 0.714405, 0.304335, 0.714405, 0.304335, 0, 0
1, 2100.00000, 0.710058, 0.302483, 0.714405, 0.304335, 0.714405, 0.304335, 0, 0
1, 2160.00000, 0.710058, 0.302483, 0.714405, 0.304335, 0.714405, 0.304335, 0, 0
1, 2220.00000, 0.710058, 0.302483, 0.714405, 0.304335, 0.714405, 0.304335, 0, 0
1, 2280.00000, 0.710058, 0.302483, 0.714405, 0.304335, 0.714405, 0.304335, 0, 0
1, 2340.00000, 0.710058, 0.302483, 0.714405, 0.304335, 0.714405, 0.304335, 0, 0
1, 2400.00000, 0.710058, 0.302483, 0.714405, 0.304335, 0.714405, 0.304335, 0, 0
1, 2460.00000, 0.710058, 0.302483, 0.714405, 0.304335, 0.714405, 0.304335, 0, 0
1, 2520.00000, 0.710058, 0.302483, 0.714405, 0.304335, 0.714405, 0.304335, 0, 0
1, 2580.00000, 0.710058, 0.302483, 0.714405, 0.304335, 0.714405, 0.304335, 0, 0
1, 2640.00000, 0.710058, 0.302483, 0.714405, 0.304335, 0.714405, 0.304335, 0, 0
1, 2700.00000, 0.710058, 0.302483, 0.714405, 0.304335, 0.714405, 0.304335, 0, 0
1, 2760.00000, 0.673194, 0.286782, 0.673216, 0.286787, 0.67321, 0.286796, 0, 0
1, 2820.00000, 0.673186, 0.286776, 0.673186, 0.286776, 0.673186, 0.286776, 0, 0
1, 2880.00000, 0.673186, 0.286776, 0.673186, 0.286776, 0.673186, 0.286776, 0, 0
1, 2940.00000, 0.673186, 0.286776, 0.673186, 0.286776, 0.673186, 0.286776, 0, 0
1, 3000.00000, 0.673186, 0.286776, 0.673186, 0.286776, 0.673186, 0.286776, 0, 0
1, 3060.00000, 0.673186, 0.286776, 0.673186, 0.286776, 0.673186, 0.286776, 0, 0
1, 3120.00000, 0.673186, 0.286776, 0.673186, 0.286776, 0.673186, 0.286776, 0, 0
1, 3180.00000, 0.673186, 0.286776, 0.673186, 0.286776, 0.673186, 0.286776, 0, 0
1, 3240.00000, 0.673186, 0.286776, 0.673186, 0.286776, 0.673186, 0.286776, 0, 0
1, 3300.00000, 0.673186, 0.286776, 0.673186, 0.286776, 0.673186, 0.286776, 0, 0
1, 3360.00000, 0.673186, 0.286776, 0.673186, 0.286776, 0.673186, 0.286776, 0, 0
1, 3420.00000, 0.673186, 0.286776, 0.673186, 0.286776, 0.673186, 0.286776, 0, 0
1, 3480.00000, 0.673186, 0.286776, 0.673186, 0.286776, 0.673186, 0.286776, 0, 0
1, 3540.00000, 0.673186, 0.286776, 0.673186, 0.286776, 0.673186, 0.286776, 0, 0
2, 0.00000, 0.673186, 0.286776, 0.673186, 0.286776, 0.673186, 0.286776, 0, 0
2, 60.00000, 0.689205, 0.293599, 0.69123, 0.294465, 0.691236, 0.294457, 0, 0
2, 120.00000, 0.689204, 0.2936, 0.691251, 0.294472, 0.691251, 0.294472, 0, 0
2, 180.00000, 0.689204, 0.2936, 0.691251, 0.294472, 0.691251, 0.294472, 0, 0
2, 240.00000, 0.689204, 0.2936, 0.691251, 0.294472, 0.691251, 0.294472, 0, 0
2, 300.00000, 0.689204, 0.2936, 0.691251, 0.294472, 0.691251, 0.294472, 0, 0
2, 360.00000, 0.689204, 0.2936, 0.691251, 0.294472, 0.691251, 0.294472, 0, 0
2, 420.00000, 0.689204, 0.2936, 0.691251, 0.294472, 0.691251, 0.294472, 0, 0
2, 480.00000, 0.689204, 0.2936, 0.691251, 0.294472, 0.691251, 0.294472, 0, 0
2, 540.00000, 0.689204, 0.2936, 0.691251, 0.294472, 0.691251, 0.294472, 0, 0
2, 600.00000, 0.689204, 0.2936, 0.691251, 0.294472, 0.691251, 0.294472, 0, 0
2, 660.00000, 0.689204, 0.2936, 0.691251, 0.294472, 0.691251, 0.294472, 0, 0
2, 720.00000, 0.689204, 0.2936, 0.691251, 0.294472, 0.691251, 0.294472, 0, 0
2, 780.00000, 0.689204, 0.2936, 0.691251, 0.294472, 0.691251, 0.294472, 0, 0
2, 840.00000, 0.689204, 0.2936, 0.691251, 0.294472, 0.691251, 0.294472, 0, 0
2, 900.00000, 0.689204, 0.2936, 0.691251, 0.294472, 0.691251, 0.294472, 0, 0
2, 960.00000, 0.654974, 0.279021, 0.654984, 0.279021, 0.654982, 0.279027, 0, 0
2, 1020.00000, 0.654965, 0.279014, 0.654965, 0.279014, 0.654965, 0.279014, 0, 0
2, 1080.00000, 0.654964, 0.279014, 0.654964, 0.279014, 0.654964, 0.279014, 0, 0
2, 1140.00000, 0.654964, 0.279014, 0.654964, 0.279014, 0.654964, 0.279014, 0, 0
2, 1200.00000, 0.654964, 0.279014, 0.654964, 0.279014, 0.654964, 0.279014, 0, 0
2, 1260.00000, 0.654964, 0.279014, 0.654964, 0.279014, 0.654964, 0.279014, 0, 0
2, 1320.00000, 0.654964, 0.279014, 0.654964, 0.279014, 0.654964, 0.279014, 0, 0
2, 1380.00000, 0.654964, 0.279014, 0.654964, 0.279014, 0.654964, 0.279014, 0, 0
2, 1440.00000, 0.654964, 0.279014, 0.654964, 0.279014, 0.654964, 0.279014, 0, 0
2, 1500.00000, 0.654964, 0.279014, 0.654964, 0.279014, 0.654964, 0.279014, 0, 0
2, 1560.00000, 0.654964, 0.279014, 0.654964, 0.279014, 0.654964, 0.279014, 0, 0
2, 1620.00000, 0.654964, 0.279014, 0.654964, 0.279014, 0.654964, 0.279014, 0, 0
2, 1680.00000, 0.654964, 0.279014, 0.654964, 0.279014, 0.654964, 0.279014, 0, 0
2, 1740.00000, 0.654964, 0.279014, 0.654964, 0.279014, 0.654964, 0.279014, 0, 0
2, 1800.00000, 0.654964, 0.279014, 0.654964, 0.279014, 0.654964, 0.279014, 0, 0
2, 1860.00000, 0.6546, 0.278856, 0.6546, 0.278859, 0.654599, 0.278857, 0, 0
2, 1920.00000, 0.654606, 0.278861, 0.654606, 0.278861, 0.654606, 0.278861, 0, 0
2, 1980.00000, 0.654606, 0.278861, 0.654606, 0.278861, 0.654606, 0.278861, 0, 0
2, 2040.00000, 0.654606, 0.278861, 0.654606, 0.278861, 0.654606, 0.278861, 0, 0
2, 2100.00000, 0.654606, 0.278861, 0.654606, 0.278861, 0.654606, 0.278861, 0, 0
2, 2160.00000, 0.654606, 0.278861, 0.654606, 0.278861, 0.654606, 0.278861, 0, 0
2, 2220.00000, 0.654606, 0.278861, 0.654606, 0.278861, 0.654606, 0.278861, 0, 0
2, 2280.00000, 0.654606, 0.278861, 0.654606, 0.278861, 0.654606, 0.278861, 0, 0
2, 2340.00000, 0.654606, 0.278861, 0.654606, 0.278861, 0.654606, 0.278861, 0, 0
2, 2400.00000, 0.654606, 0.278861, 0.654606, 0.278861, 0.654606, 0.278861, 0, 0
2, 2460.00000, 0.654606, 0.278861, 0.654606, 0.278861, 0.654606, 0.278861, 0, 0
2, 2520.00000, 0.654606, 0.278861, 0.654606, 0.278861, 0.654606, 0.278861, 0, 0
2, 2580.00000, 0.654606, 0.278861, 0.654606, 0.278861, 0.654606, 0.278861, 0, 0
2, 2640.00000, 0.654606, 0.278861, 0.654606, 0.278861, 0.654606, 0.278861, 0, 0
2, 2700.00000, 0.654606, 0.278861, 0.654606, 0.278861, 0.654606, 0.278861, 0, 0
2, 2760.00000, 0.62632, 0.266817, 0.626321, 0.266812, 0.626321, 0.266816, 0, 0
2, 2820.00000, 0.626301, 0.266803, 0.626302, 0.266803, 0.626302, 0.266803, 0, 0
2, 2880.00000, 0.626301, 0.266803, 0.626301, 0.266803, 0.626301, 0.266803, 0, 0
2, 2940.00000, 0.626301, 0.266803, 0.626301, 0.266803, 0.626301, 0.266803, 0, 0
2, 3000.00000, 0.626301, 0.266803, 0.626301, 0.266803, 0.626301, 0.266803, 0, 0
2, 3060.00000, 0.626301, 0.266803, 0.626301, 0.266803, 0.626301, 0.266803, 0, 0
2, 3120.00000, 0.626301, 0.266803, 0.626301, 0.266803, 0.626301, 0.266803, 0, 0
2, 3180.00000, 0.626301, 0.266803, 0.626301, 0.266803, 0.626301, 0.266803, 0, 0
2, 3240.00000, 0.626301, 0.266803, 0.626301, 0.266803, 0.626301, 0.266803, 0, 0
2, 3300.00000, 0.626301, 0.266803, 0.626301, 0.266803, 0.626301, 0.266803, 0, 0
2, 3360.00000, 0.626301, 0.266803, 0.626301, 0.266803, 0.626301, 0.266803, 0, 0
2, 3420.00000, 0.626301, 0.266803, 0.626301, 0.266803, 0.626301, 0.266803, 0, 0
2, 3480.00000, 0.626301, 0.266803, 0.626301, 0.266803, 0.626301, 0.266803, 0, 0
2, 3540.00000, 0.626301, 0.266803, 0.626301, 0.266803, 0.626301, 0.266803, 0, 0
3, 0.00000, 0.626301, 0.266803, 0.626301, 0.266803, 0.626301, 0.266803, 0, 0
3, 60.00000, 0.642216, 0.27358, 0.642216, 0.273582, 0.642216, 0.273581, 0, 0
3, 120.00000, 0.642227, 0.273588, 0.642227, 0.273588, 0.642227, 0.273588, 0, 0
3, 180.00000, 0.642227, 0.273588, 0.642227, 0.273588, 0.642227, 0.273588, 0, 0
3, 240.00000, 0.642227, 0.273588, 0.642227, 0.273588, 0.642227, 0.273588, 0, 0
3, 300.00000, 0.642227, 0.273588, 0.642227, 0.273588, 0.642227, 0.273588, 0, 0
3, 360.00000, 0.642227, 0.273588, 0.642227, 0.273588, 0.642227, 0.273588, 0, 0
3, 420.00000, 0.642227, 0.273588, 0.642227, 0.273588, 0.642227, 0.273588, 0, 0
3, 480.00000, 0.642227, 0.273588, 0.642227, 0.273588, 0.642227, 0.273588, 0, 0
3, 540.00000, 0.642227, 0.273588, 0.642227, 0.273588, 0.642227, 0.273588, 0, 0
3, 600.00000, 0.642227, 0.273588, 0.642227, 0.273588, 0.642227, 0.273588, 0, 0
3, 660.00000, 0.642227, 0.273588, 0.642227, 0.273588, 0.642227, 0.273588, 0, 0
3, 720.00000, 0.642227, 0.273588, 0.642227, 0.273588, 0.642227, 0.273588, 0, 0
3, 780.00000, 0.642227, 0.273588, 0.642227, 0.273588, 0.642227, 0.273588, 0, 0
3, 840.00000, 0.642227, 0.273588, 0.642227, 0.273588, 0.642227, 0.273588, 0, 0
3, 900.00000, 0.642227, 0.273588, 0.642227, 0.273588, 0.642227, 0.273588, 0, 0
3, 960.00000, 0.659898, 0.281123, 0.659898, 0.281118, 0.659899, 0.281121, 0, 0
3, 1020.00000, 0.659873, 0.281105, 0.659873, 0.281105, 0.659873, 0.281105, 0, 0
3, 1080.00000, 0.659873, 0.281105, 0.659873, 0.281105, 0.659873, 0.281105, 0, 0
3, 1140.00000, 0.659873, 0.281105, 0.659873, 0.281105, 0.659873, 0.281105, 0, 0
3, 1200.00000, 0.659873, 0.281105, 0.659873, 0.281105, 0.659873, 0.281105, 0, 0
3, 1260.00000, 0.659873, 0.281105, 0.659873, 0.281105, 0.659873, 0.281105, 0, 0
3, 1320.00000, 0.659873, 0.281105, 0.659873, 0.281105, 0.659873, 0.281105, 0, 0
3, 1380.00000, 0.659873, 0.281105, 0.659873, 0.281105, 0.659873, 0.281105, 0, 0
3, 1440.00000, 0.659873, 0.281105, 0.659873, 0.281105, 0.659873, 0.281105, 0, 0
3, 1500.00000, 0.659873, 0.281105, 0.659873, 0.281105, 0.659873, 0.281105, 0, 0
3, 1560.00000, 0.659873, 0.281105, 0.659873, 0.281105, 0.659873, 0.281105, 0, 0
3, 1620.00000, 0.659873, 0.281105, 0.659873, 0.281105, 0.659873, 0.281105, 0, 0
3, 1680.00000, 0.659873, 0.281105, 0.659873, 0.281105, 0.659873, 0.281105, 0, 0
3, 1740.00000, 0.659873, 0.281105, 0.659873, 0.281105, 0.659873, 0.281105, 0, 0
3, 1800.00000, 0.659873, 0.281105, 0.659873, 0.281105, 0.659873, 0.281105, 0, 0
3, 1860.00000, 0.667971, 0.28456, 0.667968, 0.284554, 0.667966, 0.284555, 0, 0
3, 1920.00000, 0.667942, 0.284542, 0.667942, 0.284542, 0.667942, 0.284542, 0, 0
3, 1980.00000, 0.667942, 0.284542, 0.667942, 0.284542, 0.667942, 0.284542, 0, 0
3, 2040.00000, 0.667942, 0.284542, 0.667942, 0.284542, 0.667942, 0.284542, 0, 0
3, 2100.00000, 0.667942, 0.284542, 0.667942, 0.284542, 0.667942, 0.284542, 0, 0
3, 2160.00000, 0.667942, 0.284542, 0.667942, 0.284542, 0.667942, 0.284542, 0, 0
3, 2220.00000, 0.667942, 0.284542, 0.667942, 0.284542, 0.667942, 0.284542, 0, 0
3, 2280.00000, 0.667942, 0.284542, 0.667942, 0.284542, 0.667942, 0.284542, 0, 0
3, 2340.00000, 0.667942, 0.284542, 0.667942, 0.284542, 0.667942, 0.284542, 0, 0
3, 2400.00000, 0.667942, 0.284542, 0.667942, 0.284542, 0.667942, 0.284542, 0, 0
3, 2460.00000, 0.667942, 0.284542, 0.667942, 0.284542, 0.667942, 0.284542, 0, 0
3, 2520.00000, 0.667942, 0.284542, 0.667942, 0.284542, 0.667942, 0.284542, 0, 0
3, 2580.00000, 0.667942, 0.284542, 0.667942, 0.284542, 0.667942, 0.284542, 0, 0
3, 2640.00000, 0.667942, 0.284542, 0.667942, 0.284542, 0.667942, 0.284542, 0, 0
3, 2700.00000, 0.667942, 0.284542, 0.667942, 0.284542, 0.667942, 0.284542, 0, 0
3, 2760.00000, 0.611235, 0.260391, 0.611234, 0.260387, 0.611234, 0.260388, 0, 0
3, 2820.00000, 0.611217, 0.260377, 0.611217, 0.260377, 0.611217, 0.260377, 0, 0
3, 2880.00000, 0.611217, 0.260377, 0.611217, 0.260377, 0.611217, 0.260377, 0, 0
3, 2940.00000, 0.611217, 0.260377, 0.611217, 0.260377, 0.611217, 0.260377, 0, 0
3, 3000.00000, 0.611217, 0.260377, 0.611217, 0.260377, 0.611217, 0.260377, 0, 0
3, 3060.00000, 0.611217, 0.260377, 0.611217, 0.260377, 0.611217, 0.260377, 0, 0
3, 3120.00000, 0.611217, 0.260377, 0.611217, 0.260377, 0.611217, 0.260377, 0, 0
3, 3180.00000, 0.611217, 0.260377, 0.611217, 0.260377, 0.611217, 0.260377, 0, 0
3, 3240.00000, 0.611217, 0.260377, 0.611217, 0.260377, 0.611217, 0.260377, 0, 0
3, 3300.00000, 0.611217, 0.260377, 0.611217, 0.260377, 0.611217, 0.260377, 0, 0
3, 3360.00000, 0.611217, 0.260377, 0.611217, 0.260377, 0.611217, 0.260377, 0, 0
3, 3420.00000, 0.611217, 0.260377, 0.611217, 0.260377, 0.611217, 0.260377, 0, 0
3, 3480.00000, 0.611217, 0.260377, 0.611217, 0.260377, 0.611217, 0.260377, 0, 0
3, 3540.00000, 0.611217, 0.260377, 0.611217, 0.260377, 0.611217, 0.260377, 0, 0
4, 0.00000, 0.611217, 0.260377, 0.611217, 0.260377, 0.611217, 0.260377, 0, 0
4, 60.00000, 0.653848, 0.278534, 0.653849, 0.278537, 0.653849, 0.278536, 0, 0
4, 120.00000, 0.653861, 0.278544, 0.653861, 0.278544, 0.653861, 0.278543, 0, 0
4, 180.00000, 0.653861, 0.278544, 0.653861, 0.278544, 0.653861, 0.278544, 0, 0
4, 240.00000, 0.653861, 0.278544, 0.653861, 0.278544, 0.653861, 0.278544, 0, 0
4, 300.00000, 0.653861, 0.278544, 0.653861, 0.278544, 0.653861, 0.278544, 0, 0
4, 360.00000, 0.653861, 0.278544, 0.653861, 0.278544, 0.653861, 0.278544, 0, 0
4, 420.00000, 0.653861, 0.278544, 0.653861, 0.278544, 0.653861, 0.278544, 0, 0
4, 480.00000, 0.653861, 0.278544, 0.653861, 0.278544, 0.653861, 0.278544, 0, 0
4, 540.00000, 0.653861, 0.278544, 0.653861, 0.278544, 0.653861, 0.278544, 0, 0
4, 600.00000, 0.653861, 0.278544, 0.653861, 0.278544, 0.653861, 0.278544, 0, 0
4, 660.00000, 0.653861, 0.278544, 0.653861, 0.278544, 0.653861, 0.278544, 0, 0
