hour,t(sec),V1,VAngle1,V2,VAngle2,V3,VAngle3,V4,VAngle4,I1,IAngle1,I2,IAngle2,I3,IAngle3,I4,IAngle4
0, 60.00000, 116.235, -31.7297, 116.083, -150.939, 118.216, 88.7643, 0, 0, 6.38463, -54.8034, 6.37535, -174.013, 6.50579, 65.6906, 0.0498218, -110.717
0, 120.00000, 116.235, -31.7297, 116.083, -150.939, 118.216, 88.7643, 0, 0, 6.38459, -54.8036, 6.3753, -174.013, 6.50574, 65.6904, 0.0498137, -110.723
0, 180.00000, 116.235, -31.7297, 116.083, -150.939, 118.216, 88.7643, 0, 0, 6.38459, -54.8036, 6.3753, -174.013, 6.50574, 65.6904, 0.0498136, -110.723
0, 240.00000, 116.235, -31.7297, 116.083, -150.939, 118.216, 88.7643, 0, 0, 6.38459, -54.8036, 6.3753, -174.013, 6.50574, 65.6904, 0.0498136, -110.723
0, 300.00000, 116.235, -31.7297, 116.083, -150.939, 118.216, 88.7643, 0, 0, 6.38459, -54.8036, 6.3753, -174.013, 6.50574, 65.6904, 0.0498136, -110.723
0, 360.00000, 116.235, -31.7297, 116.083, -150.939, 118.216, 88.7643, 0, 0, 6.38459, -54.8036, 6.3753, -174.013, 6.50574, 65.6904, 0.0498136, -110.723
0, 420.00000, 116.235, -31.7297, 116.083, -150.939, 118.216, 88.7643, 0, 0, 6.38459, -54.8036, 6.3753, -174.013, 6.50574, 65.6904, 0.0498136, -110.723
0, 480.00000, 117.205, -31.6365, 117.007, -150.848, 119.137, 88.8729, 0, 0, 5.82242, -54.7108, 5.81145, -173.922, 5.9291, 65.7988, 0.0430426, -111.026
0, 540.00000, 117.205, -31.6365, 117.007, -150.848, 119.137, 88.8729, 0, 0, 5.82247, -54.7104, 5.8115, -173.922, 5.92915, 65.799, 0.0430564, -111.035
0, 600.00000, 117.205, -31.6365, 117.007, -150.848, 119.137, 88.8729, 0, 0, 5.82247, -54.7104, 5.8115, -173.922, 5.92916, 65.799, 0.0430564, -111.035
0, 660.00000, 117.205, -31.6365, 117.007, -150.848, 119.137, 88.8729, 0, 0, 5.82247, -54.7104, 5.8115, -173.922, 5.92916, 65.799, 0.0430564, -111.035
0, 720.00000, 117.205, -31.6365, 117.007, -150.848, 119.137, 88.8729, 0, 0, 5.82247, -54.7104, 5.8115, -173.922, 5.92916, 65.799, 0.0430564, -111.035
0, 780.00000, 117.205, -31.6365, 117.007, -150.848, 119.137, 88.8729, 0, 0, 5.82247, -54.7104, 5.8115, -173.922, 5.92916, 65.799, 0.0430564, -111.035
0, 840.00000, 117.205, -31.6365, 117.007, -150.848, 119.137, 88.8729, 0, 0, 5.82247, -54.7104, 5.8115, -173.922, 5.92916, 65.799, 0.0430564, -111.035
0, 900.00000, 117.205, -31.6365, 117.007, -150.848, 119.137, 88.8729, 0, 0, 5.82247, -54.7104, 5.8115, -173.922, 5.92916, 65.799, 0.0430564, -111.035
0, 960.00000, 116.823, -31.6527, 115.667, -151.274, 117.584, 89.0892, 0, 0, 5.80142, -54.7262, 5.73755, -174.348, 5.84346, 66.0154, 0.0407325, -112.962
0, 1020.00000, 116.823, -31.6528, 115.667, -151.274, 117.584, 89.0892, 0, 0, 5.80134, -54.7267, 5.7375, -174.348, 5.84336, 66.0153, 0.0406684, -112.898
0, 1080.00000, 116.823, -31.6528, 115.667, -151.274, 117.584, 89.0892, 0, 0, 5.80134, -54.7267, 5.7375, -174.348, 5.84336, 66.0152, 0.0406681, -112.897
0, 1140.00000, 117.135, -31.6198, 115.667, -151.273, 117.698, 89.2287, 0, 0, 5.81855, -54.694, 5.7375, -174.347, 5.84965, 66.1547, 0.0409634, -116.087
0, 1200.00000, 117.135, -31.6197, 115.667, -151.273, 117.698, 89.2287, 0, 0, 5.8186, -54.6937, 5.7375, -174.347, 5.84967, 66.1548, 0.0409976, -116.162
0, 1260.00000, 117.135, -31.6197, 115.667, -151.273, 117.698, 89.2287, 0, 0, 5.8186, -54.6937, 5.7375, -174.347, 5.84967, 66.1548, 0.0409977, -116.163
0, 1320.00000, 117.135, -31.6197, 115.667, -151.273, 117.698, 89.2287, 0, 0, 5.8186, -54.6937, 5.7375, -174.347, 5.84967, 66.1548, 0.0409977, -116.163
0, 1380.00000, 117.135, -31.6197, 115.667, -151.273, 117.698, 89.2287, 0, 0, 5.8186, -54.6937, 5.7375, -174.347, 5.84967, 66.1548, 0.0409977, -116.163
0, 1440.00000, 117.135, -31.6197, 115.667, -151.273, 117.698, 89.2287, 0, 0, 5.8186, -54.6937, 5.7375, -174.347, 5.84967, 66.1548, 0.0409977, -116.163
0, 1500.00000, 117.135, -31.6197, 115.667, -151.273, 117.698, 89.2287, 0, 0, 5.8186, -54.6937, 5.7375, -174.347, 5.84967, 66.1548, 0.0409977, -116.163
0, 1560.00000, 117.135, -31.6197, 115.667, -151.273, 117.698, 89.2287, 0, 0, 5.8186, -54.6937, 5.7375, -174.347, 5.84967, 66.1548, 0.0409977, -116.163
0, 1620.00000, 117.135, -31.6197, 115.667, -151.273, 117.698, 89.2287, 0, 0, 5.8186, -54.6937, 5.7375, -174.347, 5.84967, 66.1548, 0.0409977, -116.163
0, 1680.00000, 117.135, -31.6197, 115.667, -151.273, 117.698, 89.2287, 0, 0, 5.8186, -54.6937, 5.7375, -174.347, 5.84967, 66.1548, 0.0409977, -116.163
0, 1740.00000, 117.135, -31.6197, 115.667, -151.273, 117.698, 89.2287, 0, 0, 5.8186, -54.6937, 5.7375, -174.347, 5.84967, 66.1548, 0.0409977, -116.163
0, 1800.00000, 116.382, -31.913, 114.782, -151.093, 117.747, 89.2134, 0, 0, 5.77705, -54.9868, 5.68867, -174.167, 5.85238, 66.1393, 0.048254, -118.229
0, 1860.00000, 116.382, -31.913, 114.782, -151.093, 117.747, 89.2134, 0, 0, 5.77702, -54.9869, 5.68863, -174.167, 5.85238, 66.1395, 0.0482836, -118.22
0, 1920.00000, 116.382, -31.913, 114.782, -151.093, 117.747, 89.2134, 0, 0, 5.77702, -54.9869, 5.68863, -174.167, 5.85238, 66.1395, 0.0482837, -118.22
0, 1980.00000, 116.382, -31.913, 114.782, -151.093, 117.747, 89.2134, 0, 0, 5.77702, -54.9869, 5.68863, -174.167, 5.85238, 66.1395, 0.0482837, -118.22
0, 2040.00000, 116.382, -31.913, 114.782, -151.093, 117.747, 89.2134, 0, 0, 5.77702, -54.9869, 5.68863, -174.167, 5.85238, 66.1395, 0.0482837, -118.22
0, 2100.00000, 116.382, -31.913, 114.782, -151.093, 117.747, 89.2134, 0, 0, 5.77702, -54.9869, 5.68863, -174.167, 5.85238, 66.1395, 0.0482837, -118.22
0, 2160.00000, 116.382, -31.913, 114.782, -151.093, 117.747, 89.2134, 0, 0, 5.77702, -54.9869, 5.68863, -174.167, 5.85238, 66.1395, 0.0482837, -118.22
0, 2220.00000, 116.382, -31.913, 114.782, -151.093, 117.747, 89.2134, 0, 0, 5.77702, -54.9869, 5.68863, -174.167, 5.85238, 66.1395, 0.0482837, -118.22
0, 2280.00000, 116.382, -31.913, 114.782, -151.093, 117.747, 89.2134, 0, 0, 5.77702, -54.9869, 5.68863, -174.167, 5.85238, 66.1395, 0.0482837, -118.22
0, 2340.00000, 116.382, -31.913, 114.782, -151.093, 117.747, 89.2134, 0, 0, 5.77702, -54.9869, 5.68863, -174.167, 5.85238, 66.1395, 0.0482837, -118.22
0, 2400.00000, 116.382, -31.913, 114.782, -151.093, 117.747, 89.2134, 0, 0, 5.77702, -54.9869, 5.68863, -174.167, 5.85238, 66.1395, 0.0482837, -118.22
0, 2460.00000, 116.382, -31.913, 114.782, -151.093, 117.747, 89.2134, 0, 0, 5.77702, -54.9869, 5.68863, -174.167, 5.85238, 66.1395, 0.0482837, -118.22
0, 2520.00000, 116.382, -31.913, 114.782, -151.093, 117.747, 89.2134, 0, 0, 5.77702, -54.9869, 5.68863, -174.167, 5.85238, 66.1395, 0.0482837, -118.22
0, 2580.00000, 116.382, -31.913, 114.782, -151.093, 117.747, 89.2134, 0, 0, 5.77702, -54.9869, 5.68863, -174.167, 5.85238, 66.1395, 0.0482837, -118.22
0, 2640.00000, 116.382, -31.913, 114.782, -151.093, 117.747, 89.2134, 0, 0, 5.77702, -54.9869, 5.68863, -174.167, 5.85238, 66.1395, 0.0482837, -118.22
0, 2700.00000, 116.382, -31.913, 114.782, -151.093, 117.747, 89.2134, 0, 0, 5.77702, -54.9869, 5.68863, -174.167, 5.85238, 66.1395, 0.0482837, -118.22
0, 2760.00000, 116.532, -31.7615, 115.128, -151.077, 117.734, 89.2179, 0, 0, 5.78526, -54.8355, 5.70767, -174.152, 5.85168, 66.1439, 0.0456004, -116.824
0, 2820.00000, 116.532, -31.7614, 115.128, -151.077, 117.734, 89.2179, 0, 0, 5.78529, -54.8354, 5.70772, -174.151, 5.85167, 66.1439, 0.0455277, -116.831
0, 2880.00000, 116.532, -31.7614, 115.128, -151.077, 117.734, 89.2179, 0, 0, 5.78529, -54.8354, 5.70772, -174.151, 5.85167, 66.1439, 0.0455274, -116.831
0, 2940.00000, 116.532, -31.7614, 115.128, -151.077, 117.734, 89.2179, 0, 0, 5.78529, -54.8354, 5.70772, -174.151, 5.85167, 66.1439, 0.0455274, -116.831
0, 3000.00000, 116.532, -31.7614, 115.128, -151.077, 117.734, 89.2179, 0, 0, 5.78529, -54.8354, 5.70772, -174.151, 5.85167, 66.1439, 0.0455274, -116.831
0, 3060.00000, 116.532, -31.7614, 115.128, -151.077, 117.734, 89.2179, 0, 0, 5.78529, -54.8354, 5.70772, -174.151, 5.85167, 66.1439, 0.0455274, -116.831
0, 3120.00000, 116.532, -31.7614, 115.128, -151.077, 117.734, 89.2179, 0, 0, 5.78529, -54.8354, 5.70772, -174.151, 5.85167, 66.1439, 0.0455274, -116.831
0, 3180.00000, 116.532, -31.7614, 115.128, -151.077, 117.734, 89.2179, 0, 0, 5.78529, -54.8354, 5.70772, -174.151, 5.85167, 66.1439, 0.0455274, -116.831
0, 3240.00000, 116.532, -31.7614, 115.128, -151.077, 117.734, 89.2179, 0, 0, 5.78529, -54.8354, 5.70772, -174.151, 5.85167, 66.1439, 0.0455274, -116.831
0, 3300.00000, 116.532, -31.7614, 115.128, -151.077, 117.734, 89.2179, 0, 0, 5.78529, -54.8354, 5.70772, -174.151, 5.85167, 66.1439, 0.0455274, -116.831
0, 3360.00000, 116.532, -31.7614, 115.128, -151.077, 117.734, 89.2179, 0, 0, 5.78529, -54.8354, 5.70772, -174.151, 5.85167, 66.1439, 0.0455274, -116.831
0, 3420.00000, 116.532, -31.7614, 115.128, -151.077, 117.734, 89.2179, 0, 0, 5.78529, -54.8354, 5.70772, -174.151, 5.85167, 66.1439, 0.0455274, -116.831
0, 3480.00000, 116.532, -31.7614, 115.128, -151.077, 117.734, 89.2179, 0, 0, 5.78529, -54.8354, 5.70772, -174.151, 5.85167, 66.1439, 0.0455274, -116.831
0, 3540.00000, 116.532, -31.7614, 115.128, -151.077, 117.734, 89.2179, 0, 0, 5.78529, -54.8354, 5.70772, -174.151, 5.85167, 66.1439, 0.0455274, -116.831
1, 0.00000, 116.532, -31.7614, 115.128, -151.077, 117.734, 89.2179, 0, 0, 5.78529, -54.8354, 5.70772, -174.151, 5.85167, 66.1439, 0.0455274, -116.831
1, 60.00000, 116.636, -31.6264, 115.423, -151.05, 117.728, 89.2207, 0, 0, 5.79098, -54.7004, 5.72398, -174.125, 5.85136, 66.1467, 0.043575, -115.401
1, 120.00000, 116.636, -31.6264, 115.423, -151.05, 117.728, 89.2207, 0, 0, 5.791, -54.7003, 5.72402, -174.124, 5.85135, 66.1468, 0.0435168, -115.394
1, 180.00000, 116.636, -31.6264, 115.423, -151.05, 117.728, 89.2207, 0, 0, 5.791, -54.7003, 5.72402, -174.124, 5.85135, 66.1468, 0.0435165, -115.394
1, 240.00000, 116.636, -31.6264, 115.423, -151.05, 117.728, 89.2207, 0, 0, 5.791, -54.7003, 5.72402, -174.124, 5.85135, 66.1468, 0.0435165, -115.394
1, 300.00000, 116.636, -31.6264, 115.423, -151.05, 117.728, 89.2207, 0, 0, 5.791, -54.7003, 5.72402, -174.124, 5.85135, 66.1468, 0.0435165, -115.394
1, 360.00000, 116.636, -31.6264, 115.423, -151.05, 117.728, 89.2207, 0, 0, 5.791, -54.7003, 5.72402, -174.124, 5.85135, 66.1468, 0.0435165, -115.394
1, 420.00000, 116.636, -31.6264, 115.423, -151.05, 117.728, 89.2207, 0, 0, 5.791, -54.7003, 5.72402, -174.124, 5.85135, 66.1468, 0.0435165, -115.394
1, 480.00000, 116.636, -31.6264, 115.423, -151.05, 117.728, 89.2207, 0, 0, 5.791, -54.7003, 5.72402, -174.124, 5.85135, 66.1468, 0.0435165, -115.394
1, 540.00000, 116.636, -31.6264, 115.423, -151.05, 117.728, 89.2207, 0, 0, 5.791, -54.7003, 5.72402, -174.124, 5.85135, 66.1468, 0.0435165, -115.394
1, 600.00000, 116.636, -31.6264, 115.423, -151.05, 117.728, 89.2207, 0, 0, 5.791, -54.7003, 5.72402, -174.124, 5.85135, 66.1468, 0.0435165, -115.394
1, 660.00000, 116.636, -31.6264, 115.423, -151.05, 117.728, 89.2207, 0, 0, 5.791, -54.7003, 5.72402, -174.124, 5.85135, 66.1468, 0.0435165, -115.394
1, 720.00000, 116.636, -31.6264, 115.423, -151.05, 117.728, 89.2207, 0, 0, 5.791, -54.7003, 5.72402, -174.124, 5.85135, 66.1468, 0.0435165, -115.394
1, 780.00000, 116.666, -31.633, 115.735, -150.855, 118.237, 89.1894, 0, 0, 5.79266, -54.707, 5.74126, -173.929, 5.87942, 66.1153, 0.0446529, -114.127
1, 840.00000, 116.666, -31.633, 115.735, -150.855, 118.237, 89.1894, 0, 0, 5.79265, -54.7069, 5.74128, -173.929, 5.87947, 66.1155, 0.0446923, -114.083
1, 900.00000, 116.666, -31.633, 115.735, -150.855, 118.237, 89.1894, 0, 0, 5.79265, -54.7069, 5.74128, -173.929, 5.87947, 66.1155, 0.0446924, -114.083
1, 960.00000, 116.666, -31.633, 115.735, -150.855, 118.237, 89.1894, 0, 0, 5.79265, -54.7069, 5.74128, -173.929, 5.87947, 66.1155, 0.0446924, -114.083
1, 1020.00000, 116.666, -31.633, 115.735, -150.855, 118.237, 89.1894, 0, 0, 5.79265, -54.7069, 5.74128, -173.929, 5.87947, 66.1155, 0.0446924, -114.083
1, 1080.00000, 116.666, -31.633, 115.735, -150.855, 118.237, 89.1894, 0, 0, 5.79265, -54.7069, 5.74128, -173.929, 5.87947, 66.1155, 0.0446924, -114.083
1, 1140.00000, 116.666, -31.633, 115.735, -150.855, 118.237, 89.1894, 0, 0, 5.79265, -54.7069, 5.74128, -173.929, 5.87947, 66.1155, 0.0446924, -114.083
1, 1200.00000, 116.666, -31.633, 115.735, -150.855, 118.237, 89.1894, 0, 0, 5.79265, -54.7069, 5.74128, -173.929, 5.87947, 66.1155, 0.0446924, -114.083
1, 1260.00000, 116.666, -31.633, 115.735, -150.855, 118.237, 89.1894, 0, 0, 5.79265, -54.7069, 5.74128, -173.929, 5.87947, 66.1155, 0.0446924, -114.083
1, 1320.00000, 116.666, -31.633, 115.735, -150.855, 118.237, 89.1894, 0, 0, 5.79265, -54.7069, 5.74128, -173.929, 5.87947, 66.1155, 0.0446924, -114.083
1, 1380.00000, 116.666, -31.633, 115.735, -150.855, 118.237, 89.1894, 0, 0, 5.79265, -54.7069, 5.74128, -173.929, 5.87947, 66.1155, 0.0446924, -114.083
1, 1440.00000, 116.666, -31.633, 115.735, -150.855, 118.237, 89.1894, 0, 0, 5.79265, -54.7069, 5.74128, -173.929, 5.87947, 66.1155, 0.0446924, -114.083
1, 1500.00000, 116.666, -31.633, 115.735, -150.855, 118.237, 89.1894, 0, 0, 5.79265, -54.7069, 5.74128, -173.929, 5.87947, 66.1155, 0.0446924, -114.083
1, 1560.00000, 116.666, -31.633, 115.735, -150.855, 118.237, 89.1894, 0, 0, 5.79265, -54.7069, 5.74128, -173.929, 5.87947, 66.1155, 0.0446924, -114.083
1, 1620.00000, 116.666, -31.633, 115.735, -150.855, 118.237, 89.1894, 0, 0, 5.79265, -54.7069, 5.74128, -173.929, 5.87947, 66.1155, 0.0446924, -114.083
1, 1680.00000, 116.666, -31.633, 115.735, -150.855, 118.237, 89.1894, 0, 0, 5.79265, -54.7069, 5.74128, -173.929, 5.87947, 66.1155, 0.0446924, -114.083
1, 1740.00000, 116.666, -31.633, 115.735, -150.855, 118.237, 89.1894, 0, 0, 5.79265, -54.7069, 5.74128, -173.929, 5.87947, 66.1155, 0.0446924, -114.083
1, 1800.00000, 116.666, -31.633, 115.735, -150.855, 118.237, 89.1894, 0, 0, 5.79265, -54.7069, 5.74128, -173.929, 5.87947, 66.1155, 0.0446924, -114.083
1, 1860.00000, 116.666, -31.633, 115.735, -150.855, 118.237, 89.1894, 0, 0, 5.79265, -54.7069, 5.74128, -173.929, 5.87947, 66.1155, 0.0446924, -114.083
1, 1920.00000, 116.666, -31.633, 115.735, -150.855, 118.237, 89.1894, 0, 0, 5.79265, -54.7069, 5.74128, -173.929, 5.87947, 66.1155, 0.0446924, -114.083
1, 1980.00000, 116.666, -31.633, 115.735, -150.855, 118.237, 89.1894, 0, 0, 5.79265, -54.7069, 5.74128, -173.929, 5.87947, 66.1155, 0.0446924, -114.083
1, 2040.00000, 116.666, -31.633, 115.735, -150.855, 118.237, 89.1894, 0, 0, 5.79265, -54.7069, 5.74128, -173.929, 5.87947, 66.1155, 0.0446924, -114.083
1, 2100.00000, 116.666, -31.633, 115.735, -150.855, 118.237, 89.1894, 0, 0, 5.79265, -54.7069, 5.74128, -173.929, 5.87947, 66.1155, 0.0446924, -114.083
1, 2160.00000, 116.666, -31.633, 115.735, -150.855, 118.237, 89.1894, 0, 0, 5.79265, -54.7069, 5.74128, -173.929, 5.87947, 66.1155, 0.0446924, -114.083
1, 2220.00000, 117.421, -31.3388, 116.628, -151.033, 118.188, 89.2043, 0, 0, 5.83435, -54.4127, 5.79055, -174.107, 5.87678, 66.1304, 0.0374645, -110.929
1, 2280.00000, 117.421, -31.3388, 116.628, -151.033, 118.188, 89.2043, 0, 0, 5.83436, -54.4127, 5.79059, -174.107, 5.87677, 66.1303, 0.037418, -110.903
1, 2340.00000, 117.421, -31.3388, 116.628, -151.033, 118.188, 89.2043, 0, 0, 5.83436, -54.4127, 5.79059, -174.107, 5.87677, 66.1303, 0.0374178, -110.903
1, 2400.00000, 117.421, -31.3388, 116.628, -151.033, 118.188, 89.2043, 0, 0, 5.83436, -54.4127, 5.79059, -174.107, 5.87677, 66.1303, 0.0374178, -110.903
1, 2460.00000, 117.421, -31.3388, 116.628, -151.033, 118.188, 89.2043, 0, 0, 5.83436, -54.4127, 5.79059, -174.107, 5.87677, 66.1303, 0.0374178, -110.903
1, 2520.00000, 117.421, -31.3388, 116.628, -151.033, 118.188, 89.2043, 0, 0, 5.83436, -54.4127, 5.79059, -174.107, 5.87677, 66.1303, 0.0374178, -110.903
1, 2580.00000, 117.421, -31.3388, 116.628, -151.033, 118.188, 89.2043, 0, 0, 5.83436, -54.4127, 5.79059, -174.107, 5.87677, 66.1303, 0.0374178, -110.903
1, 2640.00000, 117.421, -31.3388, 116.628, -151.033, 118.188, 89.2043, 0, 0, 5.83436, -54.4127, 5.79059, -174.107, 5.87677, 66.1303, 0.0374178, -110.903
1, 2700.00000, 117.421, -31.3388, 116.628, -151.033, 118.188, 89.2043, 0, 0, 5.83436, -54.4127, 5.79059, -174.107, 5.87677, 66.1303, 0.0374178, -110.903
1, 2760.00000, 117.421, -31.3388, 116.628, -151.033, 118.188, 89.2043, 0, 0, 5.83436, -54.4127, 5.79059, -174.107, 5.87677, 66.1303, 0.0374178, -110.903
1, 2820.00000, 117.421, -31.3388, 116.628, -151.033, 118.188, 89.2043, 0, 0, 5.83436, -54.4127, 5.79059, -174.107, 5.87677, 66.1303, 0.0374178, -110.903
1, 2880.00000, 117.421, -31.3388, 116.628, -151.033, 118.188, 89.2043, 0, 0, 5.83436, -54.4127, 5.79059, -174.107, 5.87677, 66.1303, 0.0374178, -110.903
1, 2940.00000, 117.421, -31.3388, 116.628, -151.033, 118.188, 89.2043, 0, 0, 5.83436, -54.4127, 5.79059, -174.107, 5.87677, 66.1303, 0.0374178, -110.903
1, 3000.00000, 117.421, -31.3388, 116.628, -151.033, 118.188, 89.2043, 0, 0, 5.83436, -54.4127, 5.79059, -174.107, 5.87677, 66.1303, 0.0374178, -110.903
1, 3060.00000, 117.421, -31.3388, 116.628, -151.033, 118.188, 89.2043, 0, 0, 5.83436, -54.4127, 5.79059, -174.107, 5.87677, 66.1303, 0.0374178, -110.903
1, 3120.00000, 117.421, -31.3388, 116.628, -151.033, 118.188, 89.2043, 0, 0, 5.83436, -54.4127, 5.79059, -174.107, 5.87677, 66.1303, 0.0374178, -110.903
1, 3180.00000, 117.421, -31.3388, 116.628, -151.033, 118.188, 89.2043, 0, 0, 5.83436, -54.4127, 5.79059, -174.107, 5.87677, 66.1303, 0.0374178, -110.903
1, 3240.00000, 117.421, -31.3388, 116.628, -151.033, 118.188, 89.2043, 0, 0, 5.83436, -54.4127, 5.79059, -174.107, 5.87677, 66.1303, 0.0374178, -110.903
1, 3300.00000, 117.421, -31.3388, 116.628, -151.033, 118.188, 89.2043, 0, 0, 5.83436, -54.4127, 5.79059, -174.107, 5.87677, 66.1303, 0.0374178, -110.903
1, 3360.00000, 117.421, -31.3388, 116.628, -151.033, 118.188, 89.2043, 0, 0, 5.83436, -54.4127, 5.79059, -174.107, 5.87677, 66.1303, 0.0374178, -110.903
1, 3420.00000, 117.421, -31.3388, 116.628, -151.033, 118.188, 89.2043, 0, 0, 5.83436, -54.4127, 5.79059, -174.107, 5.87677, 66.1303, 0.0374178, -110.903
1, 3480.00000, 117.421, -31.3388, 116.628, -151.033, 118.188, 89.2043, 0, 0, 5.83436, -54.4127, 5.79059, -174.107, 5.87677, 66.1303, 0.0374178, -110.903
1, 3540.00000, 117.421, -31.3388, 116.628, -151.033, 118.188, 89.2043, 0, 0, 5.83436, -54.4127, 5.79059, -174.107, 5.87677, 66.1303, 0.0374178, -110.903
2, 0.00000, 117.421, -31.3388, 116.628, -151.033, 118.188, 89.2043, 0, 0, 5.83436, -54.4127, 5.79059, -174.107, 5.87677, 66.1303, 0.0374178, -110.903
2, 60.00000, 117.421, -31.3388, 116.628, -151.033, 118.188, 89.2043, 0, 0, 5.83436, -54.4127, 5.79059, -174.107, 5.87677, 66.1303, 0.0374178, -110.903
2, 120.00000, 117.421, -31.3388, 116.628, -151.033, 118.188, 89.2043, 0, 0, 5.83436, -54.4127, 5.79059, -174.107, 5.87677, 66.1303, 0.0374178, -110.903
2, 180.00000, 117.421, -31.3388, 116.628, -151.033, 118.188, 89.2043, 0, 0, 5.83436, -54.4127, 5.79059, -174.107, 5.87677, 66.1303, 0.0374178, -110.903
2, 240.00000, 117.421, -31.3388, 116.628, -151.033, 118.188, 89.2043, 0, 0, 5.83436, -54.4127, 5.79059, -174.107, 5.87677, 66.1303, 0.0374178, -110.903
2, 300.00000, 117.421, -31.3388, 116.628, -151.033, 118.188, 89.2043, 0, 0, 5.83436, -54.4127, 5.79059, -174.107, 5.87677, 66.1303, 0.0374178, -110.903
2, 360.00000, 117.421, -31.3388, 116.628, -151.033, 118.188, 89.2043, 0, 0, 5.83436, -54.4127, 5.79059, -174.107, 5.87677, 66.1303, 0.0374178, -110.903
2, 420.00000, 117.421, -31.3388, 116.628, -151.033, 118.188, 89.2043, 0, 0, 5.83436, -54.4127, 5.79059, -174.107, 5.87677, 66.1303, 0.0374178, -110.903
2, 480.00000, 117.421, -31.3388, 116.628, -151.033, 118.188, 89.2043, 0, 0, 5.83436, -54.4127, 5.79059, -174.107, 5.87677, 66.1303, 0.0374178, -110.903
2, 540.00000, 117.421, -31.3388, 116.628, -151.033, 118.188, 89.2043, 0, 0, 5.83436, -54.4127, 5.79059, -174.107, 5.87677, 66.1303, 0.0374178, -110.903
2, 600.00000, 117.421, -31.3388, 116.628, -151.033, 118.188, 89.2043, 0, 0, 5.83436, -54.4127, 5.79059, -174.107, 5.87677, 66.1303, 0.0374178, -110.903
2, 660.00000, 117.421, -31.3388, 116.628, -151.033, 118.188, 89.2043, 0, 0, 5.83436, -54.4127, 5.79059, -174.107, 5.87677, 66.1303, 0.0374178, -110.903
