hour,t(sec),V1,VAngle1,V2,VAngle2,V3,VAngle3,V4,VAngle4,I1,IAngle1,I2,IAngle2,I3,IAngle3,I4,IAngle4
0, 60.00000, 116.684, -32.6996, 116.496, -151.315, 119.805, 88.063, 0, 0, 2.40825, -55.7734, 2.40391, -174.389, 2.47982, 64.9898, 0.0235604, -116.722
0, 120.00000, 116.684, -32.7161, 116.496, -151.315, 119.836, 88.0547, 0, 0, 2.40826, -55.7899, 2.40389, -174.389, 2.48054, 64.9815, 0.0236992, -116.757
0, 180.00000, 116.685, -32.731, 116.495, -151.315, 119.865, 88.0473, 0, 0, 2.40826, -55.8047, 2.40388, -174.389, 2.48119, 64.974, 0.0238238, -116.788
0, 240.00000, 116.685, -32.7443, 116.495, -151.315, 119.89, 88.0406, 0, 0, 2.40826, -55.8181, 2.40387, -174.389, 2.48178, 64.9672, 0.0239359, -116.816
0, 300.00000, 116.685, -32.7564, 116.494, -151.315, 119.913, 88.0345, 0, 0, 2.40827, -55.8302, 2.40386, -174.389, 2.4823, 64.9611, 0.0240368, -116.841
0, 360.00000, 116.685, -32.7672, 116.494, -151.315, 119.934, 88.0291, 0, 0, 2.40827, -55.841, 2.40385, -174.389, 2.48278, 64.9556, 0.0241294, -116.863
0, 420.00000, 116.686, -32.7769, 116.494, -151.316, 119.952, 88.0242, 0, 0, 2.40827, -55.8508, 2.40384, -174.389, 2.48321, 64.9507, 0.0242177, -116.879
0, 480.00000, 117.631, -32.696, 117.385, -151.236, 120.949, 88.136, 0, 0, 2.19562, -55.7698, 2.1905, -174.309, 2.25333, 65.0624, 0.0120392, -116.916
0, 540.00000, 117.631, -32.7039, 117.384, -151.236, 120.966, 88.132, 0, 0, 2.19561, -55.7777, 2.19049, -174.31, 2.25302, 65.0584, 0.0114808, -117.001
0, 600.00000, 117.63, -32.7109, 117.384, -151.236, 120.981, 88.1285, 0, 0, 2.19561, -55.7848, 2.19048, -174.31, 2.25273, 65.0548, 0.0109763, -117.079
0, 660.00000, 117.63, -32.7173, 117.384, -151.236, 120.995, 88.1253, 0, 0, 2.1956, -55.7912, 2.19048, -174.31, 2.25247, 65.0516, 0.0105223, -117.155
0, 720.00000, 117.63, -32.7231, 117.384, -151.237, 121.007, 88.1224, 0, 0, 2.1956, -55.7969, 2.19047, -174.31, 2.25224, 65.0487, 0.0101138, -117.229
0, 780.00000, 117.63, -32.7282, 117.384, -151.237, 121.018, 88.1198, 0, 0, 2.1956, -55.8021, 2.19047, -174.31, 2.25203, 65.0461, 0.00974624, -117.301
0, 840.00000, 117.63, -32.7329, 117.383, -151.237, 121.028, 88.1174, 0, 0, 2.19559, -55.8068, 2.19047, -174.311, 2.25184, 65.0437, 0.00941551, -117.37
0, 900.00000, 117.63, -32.7371, 117.383, -151.237, 121.037, 88.1153, 0, 0, 2.19559, -55.8109, 2.19046, -174.311, 2.25168, 65.0416, 0.00911792, -117.436
0, 960.00000, 116.679, -33.1826, 116.131, -151.063, 121.098, 88.0918, 0, 0, 2.17586, -56.2565, 2.16448, -174.137, 2.25053, 65.0181, 0.011267, -121.88
0, 1020.00000, 116.679, -33.186, 116.131, -151.063, 121.105, 88.0901, 0, 0, 2.17586, -56.2599, 2.16448, -174.137, 2.2504, 65.0163, 0.0110297, -122.019
0, 1080.00000, 116.679, -33.1891, 116.131, -151.063, 121.112, 88.0885, 0, 0, 2.17585, -56.263, 2.16448, -174.137, 2.25027, 65.0148, 0.0108157, -122.149
0, 1140.00000, 116.848, -33.033, 116.504, -151.05, 121.102, 88.0923, 0, 0, 2.17936, -56.1069, 2.17222, -174.124, 2.25046, 65.0185, 0.00981822, -120.109
0, 1200.00000, 116.848, -33.0355, 116.504, -151.05, 121.107, 88.0911, 0, 0, 2.17936, -56.1094, 2.17222, -174.124, 2.25036, 65.0172, 0.00964392, -120.194
0, 1260.00000, 116.847, -33.0377, 116.504, -151.05, 121.112, 88.0899, 0, 0, 2.17935, -56.1116, 2.17222, -174.124, 2.25027, 65.0161, 0.00948714, -120.272
0, 1320.00000, 116.847, -33.0397, 116.504, -151.05, 121.116, 88.0889, 0, 0, 2.17935, -56.1136, 2.17222, -174.124, 2.25019, 65.0151, 0.00934606, -120.345
0, 1380.00000, 116.847, -33.0415, 116.504, -151.05, 121.12, 88.088, 0, 0, 2.17935, -56.1154, 2.17222, -174.124, 2.25012, 65.0142, 0.00921912, -120.412
0, 1440.00000, 116.847, -33.0431, 116.504, -151.05, 121.123, 88.0872, 0, 0, 2.17935, -56.117, 2.17222, -174.124, 2.25006, 65.0133, 0.00910488, -120.474
0, 1500.00000, 116.847, -33.0446, 116.504, -151.051, 121.126, 88.0864, 0, 0, 2.17935, -56.1185, 2.17222, -174.124, 2.25, 65.0126, 0.00900208, -120.532
0, 1560.00000, 116.847, -33.0459, 116.504, -151.051, 121.129, 88.0858, 0, 0, 2.17935, -56.1198, 2.17222, -174.124, 2.24994, 65.0119, 0.00890958, -120.584
0, 1620.00000, 116.847, -33.0471, 116.504, -151.051, 121.132, 88.0852, 0, 0, 2.17934, -56.121, 2.17222, -174.124, 2.2499, 65.0113, 0.00882634, -120.632
0, 1680.00000, 116.847, -33.0481, 116.504, -151.051, 121.134, 88.0846, 0, 0, 2.17934, -56.1221, 2.17222, -174.125, 2.24985, 65.0107, 0.00875142, -120.677
0, 1740.00000, 116.847, -33.0491, 116.504, -151.051, 121.136, 88.0841, 0, 0, 2.17934, -56.123, 2.17221, -174.125, 2.24982, 65.0103, 0.00868401, -120.717
0, 1800.00000, 116.185, -32.9635, 116.514, -151.041, 120.536, 87.8612, 0, 0, 2.16561, -56.0374, 2.17242, -174.115, 2.25587, 64.7873, 0.0241342, -113.971
0, 1860.00000, 116.185, -32.9643, 116.514, -151.041, 120.538, 87.8608, 0, 0, 2.16561, -56.0382, 2.17242, -174.115, 2.2559, 64.7869, 0.0241416, -113.972
0, 1920.00000, 116.185, -32.965, 116.513, -151.041, 120.539, 87.8604, 0, 0, 2.16561, -56.0389, 2.17242, -174.115, 2.25593, 64.7865, 0.0241488, -113.973
0, 1980.00000, 116.185, -32.9656, 116.513, -151.041, 120.54, 87.8601, 0, 0, 2.16561, -56.0395, 2.17242, -174.115, 2.25596, 64.7862, 0.0241552, -113.974
0, 2040.00000, 116.185, -32.9662, 116.513, -151.041, 120.542, 87.8598, 0, 0, 2.16561, -56.0401, 2.17242, -174.115, 2.25598, 64.7859, 0.0241609, -113.975
0, 2100.00000, 116.185, -32.9667, 116.513, -151.041, 120.543, 87.8596, 0, 0, 2.16561, -56.0406, 2.17242, -174.115, 2.256, 64.7857, 0.0241661, -113.976
0, 2160.00000, 116.185, -32.9671, 116.513, -151.041, 120.543, 87.8594, 0, 0, 2.16561, -56.041, 2.17242, -174.115, 2.25602, 64.7854, 0.0241708, -113.976
0, 2220.00000, 116.185, -32.9675, 116.513, -151.041, 120.544, 87.8591, 0, 0, 2.16561, -56.0414, 2.17242, -174.115, 2.25604, 64.7852, 0.024175, -113.977
0, 2280.00000, 116.185, -32.9679, 116.513, -151.041, 120.545, 87.859, 0, 0, 2.16561, -56.0418, 2.17242, -174.115, 2.25605, 64.7851, 0.0241788, -113.977
0, 2340.00000, 116.185, -32.9682, 116.513, -151.041, 120.546, 87.8588, 0, 0, 2.16561, -56.0421, 2.17242, -174.115, 2.25606, 64.7849, 0.0241822, -113.978
0, 2400.00000, 116.185, -32.9685, 116.513, -151.041, 120.546, 87.8586, 0, 0, 2.16561, -56.0424, 2.17242, -174.115, 2.25608, 64.7847, 0.0241852, -113.978
0, 2460.00000, 116.185, -32.9688, 116.513, -151.041, 120.547, 87.8585, 0, 0, 2.16561, -56.0427, 2.17242, -174.115, 2.25609, 64.7846, 0.024188, -113.979
0, 2520.00000, 116.185, -32.969, 116.513, -151.041, 120.547, 87.8584, 0, 0, 2.16561, -56.043, 2.17242, -174.115, 2.2561, 64.7845, 0.0241905, -113.979
0, 2580.00000, 116.185, -32.9693, 116.513, -151.041, 120.548, 87.8583, 0, 0, 2.16561, -56.0432, 2.17242, -174.115, 2.25611, 64.7844, 0.0241927, -113.979
0, 2640.00000, 116.185, -32.9694, 116.513, -151.041, 120.548, 87.8582, 0, 0, 2.16561, -56.0434, 2.17242, -174.115, 2.25612, 64.7843, 0.0241947, -113.98
0, 2700.00000, 116.185, -32.9696, 116.513, -151.041, 120.548, 87.8581, 0, 0, 2.16561, -56.0435, 2.17242, -174.115, 2.25612, 64.7842, 0.0241965, -113.98
0, 2760.00000, 116.738, -32.9816, 116.509, -151.043, 120.896, 88.0685, 0, 0, 2.17707, -56.0555, 2.17232, -174.116, 2.25427, 64.9946, 0.016174, -118.282
0, 2820.00000, 116.738, -32.9817, 116.509, -151.043, 120.897, 88.0684, 0, 0, 2.17707, -56.0556, 2.17232, -174.116, 2.25426, 64.9945, 0.0161629, -118.284
0, 2880.00000, 116.738, -32.9818, 116.509, -151.043, 120.897, 88.0684, 0, 0, 2.17707, -56.0558, 2.17232, -174.116, 2.25426, 64.9944, 0.016154, -118.285
0, 2940.00000, 116.738, -32.9819, 116.509, -151.043, 120.897, 88.0683, 0, 0, 2.17707, -56.0559, 2.17232, -174.116, 2.25425, 64.9944, 0.016146, -118.287
0, 3000.00000, 116.738, -32.9821, 116.509, -151.043, 120.897, 88.0682, 0, 0, 2.17707, -56.056, 2.17232, -174.116, 2.25425, 64.9943, 0.0161388, -118.289
0, 3060.00000, 116.738, -32.9821, 116.509, -151.043, 120.898, 88.0682, 0, 0, 2.17707, -56.0561, 2.17232, -174.116, 2.25424, 64.9943, 0.0161323, -118.29
0, 3120.00000, 116.738, -32.9822, 116.509, -151.043, 120.898, 88.0682, 0, 0, 2.17707, -56.0561, 2.17232, -174.116, 2.25424, 64.9942, 0.0161264, -118.291
0, 3180.00000, 116.738, -32.9823, 116.509, -151.043, 120.898, 88.0681, 0, 0, 2.17707, -56.0562, 2.17232, -174.116, 2.25424, 64.9942, 0.0161212, -118.292
0, 3240.00000, 116.738, -32.9824, 116.509, -151.043, 120.898, 88.0681, 0, 0, 2.17707, -56.0563, 2.17232, -174.116, 2.25424, 64.9942, 0.0161164, -118.293
0, 3300.00000, 116.738, -32.9824, 116.509, -151.043, 120.898, 88.0681, 0, 0, 2.17707, -56.0564, 2.17232, -174.116, 2.25423, 64.9941, 0.0161122, -118.294
0, 3360.00000, 116.738, -32.9825, 116.509, -151.043, 120.898, 88.068, 0, 0, 2.17707, -56.0564, 2.17232, -174.116, 2.25423, 64.9941, 0.0161084, -118.295
0, 3420.00000, 116.738, -32.9825, 116.509, -151.043, 120.898, 88.068, 0, 0, 2.17707, -56.0565, 2.17232, -174.116, 2.25423, 64.9941, 0.0161049, -118.296
0, 3480.00000, 116.738, -32.9826, 116.509, -151.043, 120.899, 88.068, 0, 0, 2.17707, -56.0565, 2.17232, -174.116, 2.25423, 64.9941, 0.0161018, -118.296
0, 3540.00000, 116.738, -32.9826, 116.509, -151.043, 120.899, 88.068, 0, 0, 2.17707, -56.0565, 2.17232, -174.116, 2.25423, 64.994, 0.016099, -118.297
1, 0.00000, 116.738, -32.9827, 116.509, -151.043, 120.899, 88.0679, 0, 0, 2.17707, -56.0566, 2.17232, -174.116, 2.25423, 64.994, 0.0160965, -118.298
1, 60.00000, 116.901, -32.8284, 116.872, -151.031, 120.884, 88.0729, 0, 0, 2.18046, -55.9023, 2.17986, -174.105, 2.25449, 64.999, 0.0153968, -116.471
1, 120.00000, 116.901, -32.8284, 116.872, -151.031, 120.884, 88.0729, 0, 0, 2.18046, -55.9024, 2.17986, -174.105, 2.25449, 64.999, 0.0153947, -116.471
1, 180.00000, 116.901, -32.8285, 116.872, -151.031, 120.884, 88.0729, 0, 0, 2.18046, -55.9024, 2.17986, -174.105, 2.25449, 64.999, 0.0153928, -116.471
1, 240.00000, 116.901, -32.8285, 116.872, -151.031, 120.884, 88.0729, 0, 0, 2.18046, -55.9024, 2.17986, -174.105, 2.25449, 64.999, 0.0153912, -116.471
1, 300.00000, 116.901, -32.8285, 116.872, -151.031, 120.884, 88.0729, 0, 0, 2.18046, -55.9024, 2.17986, -174.105, 2.25449, 64.999, 0.0153897, -116.471
1, 360.00000, 116.901, -32.8285, 116.872, -151.031, 120.884, 88.0729, 0, 0, 2.18046, -55.9024, 2.17986, -174.105, 2.25449, 64.9989, 0.0153884, -116.472
1, 420.00000, 116.901, -32.8285, 116.872, -151.031, 120.884, 88.0729, 0, 0, 2.18046, -55.9025, 2.17986, -174.105, 2.25449, 64.9989, 0.0153872, -116.472
1, 480.00000, 116.901, -32.8286, 116.872, -151.031, 120.884, 88.0728, 0, 0, 2.18046, -55.9025, 2.17986, -174.105, 2.25449, 64.9989, 0.0153861, -116.472
1, 540.00000, 116.901, -32.8286, 116.872, -151.031, 120.885, 88.0728, 0, 0, 2.18046, -55.9025, 2.17986, -174.105, 2.25449, 64.9989, 0.0153851, -116.472
1, 600.00000, 116.901, -32.8286, 116.872, -151.031, 120.885, 88.0728, 0, 0, 2.18046, -55.9025, 2.17986, -174.105, 2.25449, 64.9989, 0.0153842, -116.472
1, 660.00000, 116.901, -32.8286, 116.872, -151.031, 120.885, 88.0728, 0, 0, 2.18046, -55.9025, 2.17986, -174.105, 2.25449, 64.9989, 0.0153834, -116.472
1, 720.00000, 116.901, -32.8286, 116.872, -151.031, 120.885, 88.0728, 0, 0, 2.18046, -55.9025, 2.17986, -174.105, 2.25449, 64.9989, 0.0153827, -116.472
1, 780.00000, 116.905, -32.8316, 117.071, -150.88, 121.36, 88.0781, 0, 0, 2.18054, -55.9055, 2.18399, -173.954, 2.24565, 65.0042, 0.000766139, 36.4214
1, 840.00000, 116.905, -32.8316, 117.071, -150.88, 121.36, 88.0781, 0, 0, 2.18054, -55.9055, 2.18399, -173.954, 2.24565, 65.0042, 0.000767648, 36.4443
1, 900.00000, 116.905, -32.8316, 117.071, -150.88, 121.36, 88.0781, 0, 0, 2.18054, -55.9055, 2.18399, -173.954, 2.24565, 65.0042, 0.000768118, 36.4628
1, 960.00000, 116.905, -32.8316, 117.071, -150.88, 121.36, 88.0781, 0, 0, 2.18054, -55.9055, 2.18399, -173.954, 2.24565, 65.0042, 0.00076854, 36.4794
1, 1020.00000, 116.905, -32.8316, 117.071, -150.88, 121.36, 88.0781, 0, 0, 2.18054, -55.9055, 2.18399, -173.954, 2.24565, 65.0042, 0.00076892, 36.4944
1, 1080.00000, 116.905, -32.8316, 117.071, -150.88, 121.36, 88.0781, 0, 0, 2.18054, -55.9055, 2.18399, -173.954, 2.24565, 65.0042, 0.000769262, 36.5078
1, 1140.00000, 116.905, -32.8316, 117.071, -150.88, 121.36, 88.0781, 0, 0, 2.18054, -55.9055, 2.18399, -173.954, 2.24565, 65.0042, 0.00076957, 36.5199
1, 1200.00000, 116.905, -32.8316, 117.071, -150.88, 121.36, 88.0781, 0, 0, 2.18054, -55.9055, 2.18399, -173.954, 2.24565, 65.0042, 0.000769847, 36.5307
1, 1260.00000, 116.905, -32.8316, 117.071, -150.88, 121.36, 88.0781, 0, 0, 2.18054, -55.9055, 2.18399, -173.954, 2.24565, 65.0042, 0.000770096, 36.5405
1, 1320.00000, 116.905, -32.8316, 117.071, -150.88, 121.36, 88.0781, 0, 0, 2.18054, -55.9055, 2.18399, -173.954, 2.24565, 65.0042, 0.00077032, 36.5493
1, 1380.00000, 116.905, -32.8316, 117.071, -150.88, 121.36, 88.0781, 0, 0, 2.18054, -55.9055, 2.18399, -173.954, 2.24565, 65.0042, 0.000770522, 36.5572
1, 1440.00000, 116.905, -32.8316, 117.071, -150.88, 121.36, 88.0781, 0, 0, 2.18054, -55.9055, 2.18399, -173.954, 2.24565, 65.0042, 0.000770704, 36.5643
1, 1500.00000, 116.905, -32.8316, 117.071, -150.88, 121.36, 88.0781, 0, 0, 2.18054, -55.9055, 2.18399, -173.954, 2.24565, 65.0042, 0.000770868, 36.5707
1, 1560.00000, 116.905, -32.8316, 117.071, -150.88, 121.36, 88.0781, 0, 0, 2.18054, -55.9055, 2.18399, -173.954, 2.24565, 65.0042, 0.000771015, 36.5764
1, 1620.00000, 116.905, -32.8316, 117.071, -150.88, 121.36, 88.0781, 0, 0, 2.18054, -55.9055, 2.18399, -173.954, 2.24565, 65.0042, 0.000771148, 36.5816
1, 1680.00000, 116.905, -32.8316, 117.071, -150.88, 121.36, 88.0781, 0, 0, 2.18054, -55.9055, 2.18399, -173.954, 2.24565, 65.0042, 0.000771267, 36.5863
1, 1740.00000, 116.905, -32.8316, 117.071, -150.88, 121.36, 88.0781, 0, 0, 2.18054, -55.9055, 2.18399, -173.954, 2.24565, 65.0042, 0.000771374, 36.5905
1, 1800.00000, 116.905, -32.8316, 117.071, -150.88, 121.36, 88.0781, 0, 0, 2.18054, -55.9055, 2.18399, -173.954, 2.24565, 65.0042, 0.000771471, 36.5942
1, 1860.00000, 116.905, -32.8316, 117.071, -150.88, 121.36, 88.0781, 0, 0, 2.18054, -55.9055, 2.18399, -173.954, 2.24565, 65.0042, 0.000771558, 36.5976
1, 1920.00000, 116.905, -32.8316, 117.071, -150.88, 121.36, 88.0781, 0, 0, 2.18054, -55.9055, 2.18399, -173.954, 2.24565, 65.0042, 0.000771636, 36.6007
1, 1980.00000, 116.905, -32.8316, 117.071, -150.88, 121.36, 88.0781, 0, 0, 2.18054, -55.9055, 2.18399, -173.954, 2.24565, 65.0042, 0.000771707, 36.6034
1, 2040.00000, 116.905, -32.8316, 117.071, -150.88, 121.36, 88.0781, 0, 0, 2.18054, -55.9055, 2.18399, -173.954, 2.24565, 65.0042, 0.00077177, 36.6059
1, 2100.00000, 116.905, -32.8316, 117.071, -150.88, 121.36, 88.0781, 0, 0, 2.18054, -55.9055, 2.18399, -173.954, 2.24565, 65.0042, 0.000771827, 36.6081
1, 2160.00000, 116.905, -32.8316, 117.071, -150.88, 121.36, 88.0781, 0, 0, 2.18054, -55.9055, 2.18399, -173.954, 2.24565, 65.0042, 0.000771879, 36.6101
1, 2220.00000, 117.562, -32.9149, 117.059, -150.892, 121.987, 88.2996, 0, 0, 2.19417, -55.9888, 2.18373, -173.966, 2.23412, 65.2257, 0.0214488, 67.7617
1, 2280.00000, 117.562, -32.9149, 117.059, -150.892, 121.987, 88.2996, 0, 0, 2.19416, -55.9888, 2.18373, -173.966, 2.23412, 65.2257, 0.0214499, 67.7599
1, 2340.00000, 117.562, -32.9149, 117.059, -150.892, 121.987, 88.2996, 0, 0, 2.19416, -55.9888, 2.18373, -173.966, 2.23412, 65.2257, 0.0214499, 67.7599
1, 2400.00000, 117.562, -32.9149, 117.059, -150.892, 121.987, 88.2996, 0, 0, 2.19416, -55.9888, 2.18373, -173.966, 2.23412, 65.2257, 0.02145, 67.7599
1, 2460.00000, 117.562, -32.9149, 117.059, -150.892, 121.987, 88.2996, 0, 0, 2.19416, -55.9888, 2.18373, -173.966, 2.23412, 65.2257, 0.02145, 67.7599
1, 2520.00000, 117.562, -32.9149, 117.059, -150.892, 121.987, 88.2996, 0, 0, 2.19416, -55.9888, 2.18373, -173.966, 2.23412, 65.2257, 0.02145, 67.7599
1, 2580.00000, 117.562, -32.9149, 117.059, -150.892, 121.987, 88.2996, 0, 0, 2.19416, -55.9888, 2.18373, -173.966, 2.23412, 65.2257, 0.02145, 67.7599
1, 2640.00000, 117.562, -32.9149, 117.059, -150.892, 121.987, 88.2996, 0, 0, 2.19416, -55.9888, 2.18373, -173.966, 2.23412, 65.2257, 0.0214501, 67.7599
1, 2700.00000, 117.562, -32.9149, 117.059, -150.892, 121.987, 88.2996, 0, 0, 2.19416, -55.9888, 2.18373, -173.966, 2.23412, 65.2257, 0.0214501, 67.7599
1, 2760.00000, 117.562, -32.9149, 117.059, -150.892, 121.987, 88.2996, 0, 0, 2.19416, -55.9888, 2.18373, -173.966, 2.23412, 65.2257, 0.0214501, 67.7599
1, 2820.00000, 117.562, -32.9149, 117.059, -150.892, 121.987, 88.2996, 0, 0, 2.19416, -55.9888, 2.18373, -173.966, 2.23412, 65.2257, 0.0214501, 67.7599
1, 2880.00000, 117.562, -32.9149, 117.059, -150.892, 121.987, 88.2996, 0, 0, 2.19416, -55.9888, 2.18373, -173.966, 2.23412, 65.2257, 0.0214501, 67.7599
1, 2940.00000, 117.562, -32.9149, 117.059, -150.892, 121.987, 88.2996, 0, 0, 2.19416, -55.9888, 2.18373, -173.966, 2.23412, 65.2257, 0.0214502, 67.7599
1, 3000.00000, 117.562, -32.9149, 117.059, -150.892, 121.987, 88.2996, 0, 0, 2.19416, -55.9888, 2.18373, -173.966, 2.23412, 65.2257, 0.0214502, 67.7599
1, 3060.00000, 117.562, -32.9149, 117.059, -150.892, 121.987, 88.2996, 0, 0, 2.19416, -55.9888, 2.18373, -173.966, 2.23412, 65.2257, 0.0214502, 67.7599
1, 3120.00000, 117.562, -32.9149, 117.059, -150.892, 121.987, 88.2996, 0, 0, 2.19416, -55.9888, 2.18373, -173.966, 2.23412, 65.2257, 0.0214502, 67.7599
1, 3180.00000, 117.562, -32.9149, 117.059, -150.892, 121.987, 88.2996, 0, 0, 2.19416, -55.9888, 2.18373, -173.966, 2.23412, 65.2257, 0.0214502, 67.7599
1, 3240.00000, 117.562, -32.9149, 117.059, -150.892, 121.987, 88.2996, 0, 0, 2.19416, -55.9888, 2.18373, -173.966, 2.23412, 65.2257, 0.0214502, 67.7599
1, 3300.00000, 117.562, -32.9149, 117.059, -150.892, 121.987, 88.2996, 0, 0, 2.19416, -55.9888, 2.18373, -173.966, 2.23412, 65.2257, 0.0214502, 67.7599
1, 3360.00000, 117.562, -32.9149, 117.059, -150.892, 121.987, 88.2996, 0, 0, 2.19416, -55.9888, 2.18373, -173.966, 2.23412, 65.2257, 0.0214502, 67.7599
1, 3420.00000, 117.562, -32.9149, 117.059, -150.892, 121.987, 88.2996, 0, 0, 2.19416, -55.9888, 2.18373, -173.966, 2.23412, 65.2257, 0.0214502, 67.7599
1, 3480.00000, 117.562, -32.9149, 117.059, -150.892, 121.987, 88.2996, 0, 0, 2.19416, -55.9888, 2.18373, -173.966, 2.23412, 65.2257, 0.0214502, 67.7599
1, 3540.00000, 117.562, -32.9149, 117.059, -150.892, 121.987, 88.2996, 0, 0, 2.19416, -55.9888, 2.18373, -173.966, 2.23412, 65.2257, 0.0214502, 67.7599
2, 0.00000, 117.562, -32.9149, 117.059, -150.892, 121.987, 88.2996, 0, 0, 2.19416, -55.9888, 2.18373, -173.966, 2.23412, 65.2257, 0.0214503, 67.7599
2, 60.00000, 117.562, -32.9149, 117.059, -150.892, 121.987, 88.2996, 0, 0, 2.19416, -55.9888, 2.18373, -173.966, 2.23412, 65.2257, 0.0214503, 67.7599
2, 120.00000, 117.562, -32.9149, 117.059, -150.892, 121.987, 88.2996, 0, 0, 2.19416, -55.9888, 2.18373, -173.966, 2.23412, 65.2257, 0.0214503, 67.7599
2, 180.00000, 117.562, -32.9149, 117.059, -150.892, 121.987, 88.2996, 0, 0, 2.19416, -55.9888, 2.18373, -173.966, 2.23412, 65.2257, 0.0214503, 67.7599
2, 240.00000, 117.562, -32.9149, 117.059, -150.892, 121.987, 88.2996, 0, 0, 2.19416, -55.9888, 2.18373, -173.966, 2.23412, 65.2257, 0.0214503, 67.7599
2, 300.00000, 117.562, -32.9149, 117.059, -150.892, 121.987, 88.2996, 0, 0, 2.19416, -55.9888, 2.18373, -173.966, 2.23412, 65.2257, 0.0214503, 67.7599
2, 360.00000, 117.562, -32.9149, 117.059, -150.892, 121.987, 88.2996, 0, 0, 2.19416, -55.9888, 2.18373, -173.966, 2.23412, 65.2257, 0.0214503, 67.7599
2, 420.00000, 117.562, -32.9149, 117.059, -150.892, 121.987, 88.2996, 0, 0, 2.19416, -55.9888, 2.18373, -173.966, 2.23412, 65.2257, 0.0214503, 67.7599
2, 480.00000, 117.562, -32.9149, 117.059, -150.892, 121.987, 88.2996, 0, 0, 2.19416, -55.9888, 2.18373, -173.966, 2.23412, 65.2257, 0.0214503, 67.7599
2, 540.00000, 117.562, -32.9149, 117.059, -150.892, 121.987, 88.2996, 0, 0, 2.19416, -55.9888, 2.18373, -173.966, 2.23412, 65.2257, 0.0214503, 67.7599
2, 600.00000, 117.562, -32.9149, 117.059, -150.892, 121.987, 88.2996, 0, 0, 2.19416, -55.9888, 2.18373, -173.966, 2.23412, 65.2257, 0.0214503, 67.7599
2, 660.00000, 117.562, -32.9149, 117.059, -150.892, 121.987, 88.2996, 0, 0, 2.19416, -55.9888, 2.18373, -173.966, 2.23412, 65.2257, 0.0214503, 67.7599
