hour,t(sec),V1,VAngle1,V2,VAngle2,V3,VAngle3,V4,VAngle4,I1,IAngle1,I2,IAngle2,I3,IAngle3,I4,IAngle4
0, 60.00000, 122.957, -31.4461, 123.166, -151.171, 123.85, 88.6374, 0, 0, 8.28539, -54.5199, 8.27137, -174.245, 8.22572, 65.5636, 0.0892448, 78.474
0, 120.00000, 122.957, -31.4461, 123.166, -151.171, 123.85, 88.6374, 0, 0, 8.2855, -54.52, 8.27149, -174.245, 8.22579, 65.5635, 0.0892825, 78.463
0, 180.00000, 122.957, -31.4461, 123.166, -151.171, 123.85, 88.6374, 0, 0, 8.2855, -54.52, 8.27149, -174.245, 8.22579, 65.5635, 0.0892827, 78.4629
0, 240.00000, 122.957, -31.4461, 123.166, -151.171, 123.85, 88.6374, 0, 0, 8.2855, -54.52, 8.27149, -174.245, 8.22579, 65.5635, 0.0892827, 78.4629
0, 300.00000, 122.957, -31.4461, 123.166, -151.171, 123.85, 88.6374, 0, 0, 8.2855, -54.52, 8.27149, -174.245, 8.22579, 65.5635, 0.0892827, 78.4629
0, 360.00000, 122.957, -31.4461, 123.166, -151.171, 123.85, 88.6374, 0, 0, 8.2855, -54.52, 8.27149, -174.245, 8.22579, 65.5635, 0.0892827, 78.4629
0, 420.00000, 122.957, -31.4461, 123.166, -151.171, 123.85, 88.6374, 0, 0, 8.2855, -54.52, 8.27149, -174.245, 8.22579, 65.5635, 0.0892827, 78.4629
0, 480.00000, 123.55, -31.3343, 123.743, -151.059, 124.418, 88.7547, 0, 0, 7.45063, -54.4085, 7.43901, -174.133, 7.39866, 65.6804, 0.0788362, 77.6985
0, 540.00000, 123.55, -31.3343, 123.744, -151.059, 124.418, 88.7547, 0, 0, 7.45053, -54.4082, 7.43888, -174.133, 7.39854, 65.6808, 0.0788421, 77.7077
0, 600.00000, 123.55, -31.3343, 123.744, -151.059, 124.418, 88.7547, 0, 0, 7.45053, -54.4082, 7.43888, -174.133, 7.39854, 65.6808, 0.0788422, 77.7078
0, 660.00000, 123.55, -31.3343, 123.744, -151.059, 124.418, 88.7547, 0, 0, 7.45053, -54.4082, 7.43888, -174.133, 7.39854, 65.6808, 0.0788422, 77.7078
0, 720.00000, 123.55, -31.3343, 123.744, -151.059, 124.418, 88.7547, 0, 0, 7.45053, -54.4082, 7.43888, -174.133, 7.39854, 65.6808, 0.0788422, 77.7078
0, 780.00000, 123.55, -31.3343, 123.744, -151.059, 124.418, 88.7547, 0, 0, 7.45053, -54.4082, 7.43888, -174.133, 7.39854, 65.6808, 0.0788422, 77.7078
0, 840.00000, 123.55, -31.3343, 123.744, -151.059, 124.418, 88.7547, 0, 0, 7.45053, -54.4082, 7.43888, -174.133, 7.39854, 65.6808, 0.0788422, 77.7078
0, 900.00000, 123.55, -31.3343, 123.744, -151.059, 124.418, 88.7547, 0, 0, 7.45053, -54.4082, 7.43888, -174.133, 7.39854, 65.6808, 0.0788422, 77.7078
0, 960.00000, 123.55, -31.3343, 123.744, -151.059, 124.418, 88.7547, 0, 0, 7.45053, -54.4082, 7.43888, -174.133, 7.39854, 65.6808, 0.0788422, 77.7078
0, 1020.00000, 123.55, -31.3343, 123.744, -151.059, 124.418, 88.7547, 0, 0, 7.45053, -54.4082, 7.43888, -174.133, 7.39854, 65.6808, 0.0788422, 77.7078
0, 1080.00000, 123.55, -31.3343, 123.744, -151.059, 124.418, 88.7547, 0, 0, 7.45053, -54.4082, 7.43888, -174.133, 7.39854, 65.6808, 0.0788422, 77.7078
0, 1140.00000, 123.55, -31.3343, 123.744, -151.059, 124.418, 88.7547, 0, 0, 7.45053, -54.4082, 7.43888, -174.133, 7.39854, 65.6808, 0.0788422, 77.7078
0, 1200.00000, 123.55, -31.3343, 123.744, -151.059, 124.418, 88.7547, 0, 0, 7.45053, -54.4082, 7.43888, -174.133, 7.39854, 65.6808, 0.0788422, 77.7078
0, 1260.00000, 123.55, -31.3343, 123.744, -151.059, 124.418, 88.7547, 0, 0, 7.45053, -54.4082, 7.43888, -174.133, 7.39854, 65.6808, 0.0788422, 77.7078
0, 1320.00000, 123.55, -31.3343, 123.744, -151.059, 124.418, 88.7547, 0, 0, 7.45053, -54.4082, 7.43888, -174.133, 7.39854, 65.6808, 0.0788422, 77.7078
0, 1380.00000, 123.55, -31.3343, 123.744, -151.059, 124.418, 88.7547, 0, 0, 7.45053, -54.4082, 7.43888, -174.133, 7.39854, 65.6808, 0.0788422, 77.7078
0, 1440.00000, 123.55, -31.3343, 123.744, -151.059, 124.418, 88.7547, 0, 0, 7.45053, -54.4082, 7.43888, -174.133, 7.39854, 65.6808, 0.0788422, 77.7078
0, 1500.00000, 123.55, -31.3343, 123.744, -151.059, 124.418, 88.7547, 0, 0, 7.45053, -54.4082, 7.43888, -174.133, 7.39854, 65.6808, 0.0788422, 77.7078
0, 1560.00000, 123.55, -31.3343, 123.744, -151.059, 124.418, 88.7547, 0, 0, 7.45053, -54.4082, 7.43888, -174.133, 7.39854, 65.6808, 0.0788422, 77.7078
0, 1620.00000, 123.55, -31.3343, 123.744, -151.059, 124.418, 88.7547, 0, 0, 7.45053, -54.4082, 7.43888, -174.133, 7.39854, 65.6808, 0.0788422, 77.7078
0, 1680.00000, 123.55, -31.3343, 123.744, -151.059, 124.418, 88.7547, 0, 0, 7.45053, -54.4082, 7.43888, -174.133, 7.39854, 65.6808, 0.0788422, 77.7078
0, 1740.00000, 123.55, -31.3343, 123.744, -151.059, 124.418, 88.7547, 0, 0, 7.45053, -54.4082, 7.43888, -174.133, 7.39854, 65.6808, 0.0788422, 77.7078
0, 1800.00000, 123.55, -31.3343, 123.744, -151.059, 124.418, 88.7547, 0, 0, 7.45053, -54.4082, 7.43888, -174.133, 7.39854, 65.6808, 0.0788422, 77.7078
0, 1860.00000, 123.55, -31.3343, 123.744, -151.059, 124.418, 88.7547, 0, 0, 7.45053, -54.4082, 7.43888, -174.133, 7.39854, 65.6808, 0.0788422, 77.7078
0, 1920.00000, 123.55, -31.3343, 123.744, -151.059, 124.418, 88.7547, 0, 0, 7.45053, -54.4082, 7.43888, -174.133, 7.39854, 65.6808, 0.0788422, 77.7078
0, 1980.00000, 123.55, -31.3343, 123.744, -151.059, 124.418, 88.7547, 0, 0, 7.45053, -54.4082, 7.43888, -174.133, 7.39854, 65.6808, 0.0788422, 77.7078
0, 2040.00000, 123.55, -31.3343, 123.744, -151.059, 124.418, 88.7547, 0, 0, 7.45053, -54.4082, 7.43888, -174.133, 7.39854, 65.6808, 0.0788422, 77.7078
0, 2100.00000, 123.55, -31.3343, 123.744, -151.059, 124.418, 88.7547, 0, 0, 7.45053, -54.4082, 7.43888, -174.133, 7.39854, 65.6808, 0.0788422, 77.7078
0, 2160.00000, 123.55, -31.3343, 123.744, -151.059, 124.418, 88.7547, 0, 0, 7.45053, -54.4082, 7.43888, -174.133, 7.39854, 65.6808, 0.0788422, 77.7078
0, 2220.00000, 123.55, -31.3343, 123.744, -151.059, 124.418, 88.7547, 0, 0, 7.45053, -54.4082, 7.43888, -174.133, 7.39854, 65.6808, 0.0788422, 77.7078
0, 2280.00000, 123.55, -31.3343, 123.744, -151.059, 124.418, 88.7547, 0, 0, 7.45053, -54.4082, 7.43888, -174.133, 7.39854, 65.6808, 0.0788422, 77.7078
0, 2340.00000, 123.55, -31.3343, 123.744, -151.059, 124.418, 88.7547, 0, 0, 7.45053, -54.4082, 7.43888, -174.133, 7.39854, 65.6808, 0.0788422, 77.7078
0, 2400.00000, 123.55, -31.3343, 123.744, -151.059, 124.418, 88.7547, 0, 0, 7.45053, -54.4082, 7.43888, -174.133, 7.39854, 65.6808, 0.0788422, 77.7078
0, 2460.00000, 123.55, -31.3343, 123.744, -151.059, 124.418, 88.7547, 0, 0, 7.45053, -54.4082, 7.43888, -174.133, 7.39854, 65.6808, 0.0788422, 77.7078
0, 2520.00000, 123.55, -31.3343, 123.744, -151.059, 124.418, 88.7547, 0, 0, 7.45053, -54.4082, 7.43888, -174.133, 7.39854, 65.6808, 0.0788422, 77.7078
0, 2580.00000, 123.55, -31.3343, 123.744, -151.059, 124.418, 88.7547, 0, 0, 7.45053, -54.4082, 7.43888, -174.133, 7.39854, 65.6808, 0.0788422, 77.7078
0, 2640.00000, 123.55, -31.3343, 123.744, -151.059, 124.418, 88.7547, 0, 0, 7.45053, -54.4082, 7.43888, -174.133, 7.39854, 65.6808, 0.0788422, 77.7078
0, 2700.00000, 123.55, -31.3343, 123.744, -151.059, 124.418, 88.7547, 0, 0, 7.45053, -54.4082, 7.43888, -174.133, 7.39854, 65.6808, 0.0788422, 77.7078
0, 2760.00000, 123.55, -31.3343, 123.744, -151.059, 124.418, 88.7547, 0, 0, 7.45053, -54.4082, 7.43888, -174.133, 7.39854, 65.6808, 0.0788422, 77.7078
0, 2820.00000, 123.55, -31.3343, 123.744, -151.059, 124.418, 88.7547, 0, 0, 7.45053, -54.4082, 7.43888, -174.133, 7.39854, 65.6808, 0.0788422, 77.7078
0, 2880.00000, 123.55, -31.3343, 123.744, -151.059, 124.418, 88.7547, 0, 0, 7.45053, -54.4082, 7.43888, -174.133, 7.39854, 65.6808, 0.0788422, 77.7078
0, 2940.00000, 123.55, -31.3343, 123.744, -151.059, 124.418, 88.7547, 0, 0, 7.45053, -54.4082, 7.43888, -174.133, 7.39854, 65.6808, 0.0788422, 77.7078
0, 3000.00000, 123.55, -31.3343, 123.744, -151.059, 124.418, 88.7547, 0, 0, 7.45053, -54.4082, 7.43888, -174.133, 7.39854, 65.6808, 0.0788422, 77.7078
0, 3060.00000, 123.55, -31.3343, 123.744, -151.059, 124.418, 88.7547, 0, 0, 7.45053, -54.4082, 7.43888, -174.133, 7.39854, 65.6808, 0.0788422, 77.7078
0, 3120.00000, 123.55, -31.3343, 123.744, -151.059, 124.418, 88.7547, 0, 0, 7.45053, -54.4082, 7.43888, -174.133, 7.39854, 65.6808, 0.0788422, 77.7078
0, 3180.00000, 123.55, -31.3343, 123.744, -151.059, 124.418, 88.7547, 0, 0, 7.45053, -54.4082, 7.43888, -174.133, 7.39854, 65.6808, 0.0788422, 77.7078
0, 3240.00000, 123.55, -31.3343, 123.744, -151.059, 124.418, 88.7547, 0, 0, 7.45053, -54.4082, 7.43888, -174.133, 7.39854, 65.6808, 0.0788422, 77.7078
0, 3300.00000, 123.55, -31.3343, 123.744, -151.059, 124.418, 88.7547, 0, 0, 7.45053, -54.4082, 7.43888, -174.133, 7.39854, 65.6808, 0.0788422, 77.7078
0, 3360.00000, 123.55, -31.3343, 123.744, -151.059, 124.418, 88.7547, 0, 0, 7.45053, -54.4082, 7.43888, -174.133, 7.39854, 65.6808, 0.0788422, 77.7078
0, 3420.00000, 123.55, -31.3343, 123.744, -151.059, 124.418, 88.7547, 0, 0, 7.45053, -54.4082, 7.43888, -174.133, 7.39854, 65.6808, 0.0788422, 77.7078
0, 3480.00000, 123.55, -31.3343, 123.744, -151.059, 124.418, 88.7547, 0, 0, 7.45053, -54.4082, 7.43888, -174.133, 7.39854, 65.6808, 0.0788422, 77.7078
0, 3540.00000, 123.55, -31.3343, 123.744, -151.059, 124.418, 88.7547, 0, 0, 7.45053, -54.4082, 7.43888, -174.133, 7.39854, 65.6808, 0.0788422, 77.7078
1, 0.00000, 123.55, -31.3343, 123.744, -151.059, 124.418, 88.7547, 0, 0, 7.45053, -54.4082, 7.43888, -174.133, 7.39854, 65.6808, 0.0788422, 77.7078
1, 60.00000, 123.55, -31.3343, 123.744, -151.059, 124.418, 88.7547, 0, 0, 7.45053, -54.4082, 7.43888, -174.133, 7.39854, 65.6808, 0.0788422, 77.7078
1, 120.00000, 123.55, -31.3343, 123.744, -151.059, 124.418, 88.7547, 0, 0, 7.45053, -54.4082, 7.43888, -174.133, 7.39854, 65.6808, 0.0788422, 77.7078
1, 180.00000, 123.55, -31.3343, 123.744, -151.059, 124.418, 88.7547, 0, 0, 7.45053, -54.4082, 7.43888, -174.133, 7.39854, 65.6808, 0.0788422, 77.7078
1, 240.00000, 123.55, -31.3343, 123.744, -151.059, 124.418, 88.7547, 0, 0, 7.45053, -54.4082, 7.43888, -174.133, 7.39854, 65.6808, 0.0788422, 77.7078
1, 300.00000, 123.55, -31.3343, 123.744, -151.059, 124.418, 88.7547, 0, 0, 7.45053, -54.4082, 7.43888, -174.133, 7.39854, 65.6808, 0.0788422, 77.7078
1, 360.00000, 123.55, -31.3343, 123.744, -151.059, 124.418, 88.7547, 0, 0, 7.45053, -54.4082, 7.43888, -174.133, 7.39854, 65.6808, 0.0788422, 77.7078
1, 420.00000, 123.55, -31.3343, 123.744, -151.059, 124.418, 88.7547, 0, 0, 7.45053, -54.4082, 7.43888, -174.133, 7.39854, 65.6808, 0.0788422, 77.7078
1, 480.00000, 123.55, -31.3343, 123.744, -151.059, 124.418, 88.7547, 0, 0, 7.45053, -54.4082, 7.43888, -174.133, 7.39854, 65.6808, 0.0788422, 77.7078
1, 540.00000, 123.55, -31.3343, 123.744, -151.059, 124.418, 88.7547, 0, 0, 7.45053, -54.4082, 7.43888, -174.133, 7.39854, 65.6808, 0.0788422, 77.7078
1, 600.00000, 123.55, -31.3343, 123.744, -151.059, 124.418, 88.7547, 0, 0, 7.45053, -54.4082, 7.43888, -174.133, 7.39854, 65.6808, 0.0788422, 77.7078
1, 660.00000, 123.55, -31.3343, 123.744, -151.059, 124.418, 88.7547, 0, 0, 7.45053, -54.4082, 7.43888, -174.133, 7.39854, 65.6808, 0.0788422, 77.7078
1, 720.00000, 123.55, -31.3343, 123.744, -151.059, 124.418, 88.7547, 0, 0, 7.45053, -54.4082, 7.43888, -174.133, 7.39854, 65.6808, 0.0788422, 77.7078
1, 780.00000, 123.55, -31.3343, 123.744, -151.059, 124.418, 88.7547, 0, 0, 7.45053, -54.4082, 7.43888, -174.133, 7.39854, 65.6808, 0.0788422, 77.7078
1, 840.00000, 123.55, -31.3343, 123.744, -151.059, 124.418, 88.7547, 0, 0, 7.45053, -54.4082, 7.43888, -174.133, 7.39854, 65.6808, 0.0788422, 77.7078
1, 900.00000, 123.55, -31.3343, 123.744, -151.059, 124.418, 88.7547, 0, 0, 7.45053, -54.4082, 7.43888, -174.133, 7.39854, 65.6808, 0.0788422, 77.7078
1, 960.00000, 123.55, -31.3343, 123.744, -151.059, 124.418, 88.7547, 0, 0, 7.45053, -54.4082, 7.43888, -174.133, 7.39854, 65.6808, 0.0788422, 77.7078
1, 1020.00000, 123.55, -31.3343, 123.744, -151.059, 124.418, 88.7547, 0, 0, 7.45053, -54.4082, 7.43888, -174.133, 7.39854, 65.6808, 0.0788422, 77.7078
1, 1080.00000, 123.55, -31.3343, 123.744, -151.059, 124.418, 88.7547, 0, 0, 7.45053, -54.4082, 7.43888, -174.133, 7.39854, 65.6808, 0.0788422, 77.7078
1, 1140.00000, 123.55, -31.3343, 123.744, -151.059, 124.418, 88.7547, 0, 0, 7.45053, -54.4082, 7.43888, -174.133, 7.39854, 65.6808, 0.0788422, 77.7078
1, 1200.00000, 123.55, -31.3343, 123.744, -151.059, 124.418, 88.7547, 0, 0, 7.45053, -54.4082, 7.43888, -174.133, 7.39854, 65.6808, 0.0788422, 77.7078
1, 1260.00000, 123.55, -31.3343, 123.744, -151.059, 124.418, 88.7547, 0, 0, 7.45053, -54.4082, 7.43888, -174.133, 7.39854, 65.6808, 0.0788422, 77.7078
1, 1320.00000, 123.55, -31.3343, 123.744, -151.059, 124.418, 88.7547, 0, 0, 7.45053, -54.4082, 7.43888, -174.133, 7.39854, 65.6808, 0.0788422, 77.7078
1, 1380.00000, 123.55, -31.3343, 123.744, -151.059, 124.418, 88.7547, 0, 0, 7.45053, -54.4082, 7.43888, -174.133, 7.39854, 65.6808, 0.0788422, 77.7078
1, 1440.00000, 123.55, -31.3343, 123.744, -151.059, 124.418, 88.7547, 0, 0, 7.45053, -54.4082, 7.43888, -174.133, 7.39854, 65.6808, 0.0788422, 77.7078
1, 1500.00000, 123.55, -31.3343, 123.744, -151.059, 124.418, 88.7547, 0, 0, 7.45053, -54.4082, 7.43888, -174.133, 7.39854, 65.6808, 0.0788422, 77.7078
1, 1560.00000, 123.55, -31.3343, 123.744, -151.059, 124.418, 88.7547, 0, 0, 7.45053, -54.4082, 7.43888, -174.133, 7.39854, 65.6808, 0.0788422, 77.7078
1, 1620.00000, 123.55, -31.3343, 123.744, -151.059, 124.418, 88.7547, 0, 0, 7.45053, -54.4082, 7.43888, -174.133, 7.39854, 65.6808, 0.0788422, 77.7078
1, 1680.00000, 123.55, -31.3343, 123.744, -151.059, 124.418, 88.7547, 0, 0, 7.45053, -54.4082, 7.43888, -174.133, 7.39854, 65.6808, 0.0788422, 77.7078
1, 1740.00000, 123.55, -31.3343, 123.744, -151.059, 124.418, 88.7547, 0, 0, 7.45053, -54.4082, 7.43888, -174.133, 7.39854, 65.6808, 0.0788422, 77.7078
1, 1800.00000, 123.55, -31.3343, 123.744, -151.059, 124.418, 88.7547, 0, 0, 7.45053, -54.4082, 7.43888, -174.133, 7.39854, 65.6808, 0.0788422, 77.7078
1, 1860.00000, 123.55, -31.3343, 123.744, -151.059, 124.418, 88.7547, 0, 0, 7.45053, -54.4082, 7.43888, -174.133, 7.39854, 65.6808, 0.0788422, 77.7078
1, 1920.00000, 123.55, -31.3343, 123.744, -151.059, 124.418, 88.7547, 0, 0, 7.45053, -54.4082, 7.43888, -174.133, 7.39854, 65.6808, 0.0788422, 77.7078
1, 1980.00000, 123.55, -31.3343, 123.744, -151.059, 124.418, 88.7547, 0, 0, 7.45053, -54.4082, 7.43888, -174.133, 7.39854, 65.6808, 0.0788422, 77.7078
1, 2040.00000, 123.55, -31.3343, 123.744, -151.059, 124.418, 88.7547, 0, 0, 7.45053, -54.4082, 7.43888, -174.133, 7.39854, 65.6808, 0.0788422, 77.7078
1, 2100.00000, 123.55, -31.3343, 123.744, -151.059, 124.418, 88.7547, 0, 0, 7.45053, -54.4082, 7.43888, -174.133, 7.39854, 65.6808, 0.0788422, 77.7078
1, 2160.00000, 123.55, -31.3343, 123.744, -151.059, 124.418, 88.7547, 0, 0, 7.45053, -54.4082, 7.43888, -174.133, 7.39854, 65.6808, 0.0788422, 77.7078
1, 2220.00000, 123.55, -31.3343, 123.744, -151.059, 124.418, 88.7547, 0, 0, 7.45053, -54.4082, 7.43888, -174.133, 7.39854, 65.6808, 0.0788422, 77.7078
1, 2280.00000, 123.55, -31.3343, 123.744, -151.059, 124.418, 88.7547, 0, 0, 7.45053, -54.4082, 7.43888, -174.133, 7.39854, 65.6808, 0.0788422, 77.7078
1, 2340.00000, 123.55, -31.3343, 123.744, -151.059, 124.418, 88.7547, 0, 0, 7.45053, -54.4082, 7.43888, -174.133, 7.39854, 65.6808, 0.0788422, 77.7078
1, 2400.00000, 123.55, -31.3343, 123.744, -151.059, 124.418, 88.7547, 0, 0, 7.45053, -54.4082, 7.43888, -174.133, 7.39854, 65.6808, 0.0788422, 77.7078
1, 2460.00000, 123.55, -31.3343, 123.744, -151.059, 124.418, 88.7547, 0, 0, 7.45053, -54.4082, 7.43888, -174.133, 7.39854, 65.6808, 0.0788422, 77.7078
1, 2520.00000, 123.55, -31.3343, 123.744, -151.059, 124.418, 88.7547, 0, 0, 7.45053, -54.4082, 7.43888, -174.133, 7.39854, 65.6808, 0.0788422, 77.7078
1, 2580.00000, 123.55, -31.3343, 123.744, -151.059, 124.418, 88.7547, 0, 0, 7.45053, -54.4082, 7.43888, -174.133, 7.39854, 65.6808, 0.0788422, 77.7078
1, 2640.00000, 123.55, -31.3343, 123.744, -151.059, 124.418, 88.7547, 0, 0, 7.45053, -54.4082, 7.43888, -174.133, 7.39854, 65.6808, 0.0788422, 77.7078
1, 2700.00000, 123.55, -31.3343, 123.744, -151.059, 124.418, 88.7547, 0, 0, 7.45053, -54.4082, 7.43888, -174.133, 7.39854, 65.6808, 0.0788422, 77.7078
1, 2760.00000, 123.55, -31.3343, 123.744, -151.059, 124.418, 88.7547, 0, 0, 7.45053, -54.4082, 7.43888, -174.133, 7.39854, 65.6808, 0.0788422, 77.7078
1, 2820.00000, 123.55, -31.3343, 123.744, -151.059, 124.418, 88.7547, 0, 0, 7.45053, -54.4082, 7.43888, -174.133, 7.39854, 65.6808, 0.0788422, 77.7078
1, 2880.00000, 123.55, -31.3343, 123.744, -151.059, 124.418, 88.7547, 0, 0, 7.45053, -54.4082, 7.43888, -174.133, 7.39854, 65.6808, 0.0788422, 77.7078
1, 2940.00000, 123.55, -31.3343, 123.744, -151.059, 124.418, 88.7547, 0, 0, 7.45053, -54.4082, 7.43888, -174.133, 7.39854, 65.6808, 0.0788422, 77.7078
1, 3000.00000, 123.55, -31.3343, 123.744, -151.059, 124.418, 88.7547, 0, 0, 7.45053, -54.4082, 7.43888, -174.133, 7.39854, 65.6808, 0.0788422, 77.7078
1, 3060.00000, 123.55, -31.3343, 123.744, -151.059, 124.418, 88.7547, 0, 0, 7.45053, -54.4082, 7.43888, -174.133, 7.39854, 65.6808, 0.0788422, 77.7078
1, 3120.00000, 123.55, -31.3343, 123.744, -151.059, 124.418, 88.7547, 0, 0, 7.45053, -54.4082, 7.43888, -174.133, 7.39854, 65.6808, 0.0788422, 77.7078
1, 3180.00000, 123.55, -31.3343, 123.744, -151.059, 124.418, 88.7547, 0, 0, 7.45053, -54.4082, 7.43888, -174.133, 7.39854, 65.6808, 0.0788422, 77.7078
1, 3240.00000, 123.55, -31.3343, 123.744, -151.059, 124.418, 88.7547, 0, 0, 7.45053, -54.4082, 7.43888, -174.133, 7.39854, 65.6808, 0.0788422, 77.7078
1, 3300.00000, 123.55, -31.3343, 123.744, -151.059, 124.418, 88.7547, 0, 0, 7.45053, -54.4082, 7.43888, -174.133, 7.39854, 65.6808, 0.0788422, 77.7078
1, 3360.00000, 123.55, -31.3343, 123.744, -151.059, 124.418, 88.7547, 0, 0, 7.45053, -54.4082, 7.43888, -174.133, 7.39854, 65.6808, 0.0788422, 77.7078
1, 3420.00000, 123.55, -31.3343, 123.744, -151.059, 124.418, 88.7547, 0, 0, 7.45053, -54.4082, 7.43888, -174.133, 7.39854, 65.6808, 0.0788422, 77.7078
1, 3480.00000, 123.55, -31.3343, 123.744, -151.059, 124.418, 88.7547, 0, 0, 7.45053, -54.4082, 7.43888, -174.133, 7.39854, 65.6808, 0.0788422, 77.7078
1, 3540.00000, 123.55, -31.3343, 123.744, -151.059, 124.418, 88.7547, 0, 0, 7.45053, -54.4082, 7.43888, -174.133, 7.39854, 65.6808, 0.0788422, 77.7078
2, 0.00000, 123.55, -31.3343, 123.744, -151.059, 124.418, 88.7547, 0, 0, 7.45053, -54.4082, 7.43888, -174.133, 7.39854, 65.6808, 0.0788422, 77.7078
2, 60.00000, 123.55, -31.3343, 123.744, -151.059, 124.418, 88.7547, 0, 0, 7.45053, -54.4082, 7.43888, -174.133, 7.39854, 65.6808, 0.0788422, 77.7078
2, 120.00000, 123.55, -31.3343, 123.744, -151.059, 124.418, 88.7547, 0, 0, 7.45053, -54.4082, 7.43888, -174.133, 7.39854, 65.6808, 0.0788422, 77.7078
2, 180.00000, 123.55, -31.3343, 123.744, -151.059, 124.418, 88.7547, 0, 0, 7.45053, -54.4082, 7.43888, -174.133, 7.39854, 65.6808, 0.0788422, 77.7078
2, 240.00000, 123.55, -31.3343, 123.744, -151.059, 124.418, 88.7547, 0, 0, 7.45053, -54.4082, 7.43888, -174.133, 7.39854, 65.6808, 0.0788422, 77.7078
2, 300.00000, 123.55, -31.3343, 123.744, -151.059, 124.418, 88.7547, 0, 0, 7.45053, -54.4082, 7.43888, -174.133, 7.39854, 65.6808, 0.0788422, 77.7078
2, 360.00000, 123.55, -31.3343, 123.744, -151.059, 124.418, 88.7547, 0, 0, 7.45053, -54.4082, 7.43888, -174.133, 7.39854, 65.6808, 0.0788422, 77.7078
2, 420.00000, 123.55, -31.3343, 123.744, -151.059, 124.418, 88.7547, 0, 0, 7.45053, -54.4082, 7.43888, -174.133, 7.39854, 65.6808, 0.0788422, 77.7078
2, 480.00000, 123.55, -31.3343, 123.744, -151.059, 124.418, 88.7547, 0, 0, 7.45053, -54.4082, 7.43888, -174.133, 7.39854, 65.6808, 0.0788422, 77.7078
2, 540.00000, 123.55, -31.3343, 123.744, -151.059, 124.418, 88.7547, 0, 0, 7.45053, -54.4082, 7.43888, -174.133, 7.39854, 65.6808, 0.0788422, 77.7078
2, 600.00000, 123.55, -31.3343, 123.744, -151.059, 124.418, 88.7547, 0, 0, 7.45053, -54.4082, 7.43888, -174.133, 7.39854, 65.6808, 0.0788422, 77.7078
2, 660.00000, 123.55, -31.3343, 123.744, -151.059, 124.418, 88.7547, 0, 0, 7.45053, -54.4082, 7.43888, -174.133, 7.39854, 65.6808, 0.0788422, 77.7078
2, 720.00000, 123.55, -31.3343, 123.744, -151.059, 124.418, 88.7547, 0, 0, 7.45053, -54.4082, 7.43888, -174.133, 7.39854, 65.6808, 0.0788422, 77.7078
