hour,t(sec),"P1 (kW)","Q1 (kvar)","P2 (kW)","Q2 (kvar)","P3 (kW)","Q3 (kvar)","P4 (kW)","Q4 (kvar)"
0, 60.00000, 0.205484, 0.0875343, 0.208517, 0.0888274, 0.211726, 0.0901929, 0, 0
0, 120.00000, 0.205481, 0.0875344, 0.208514, 0.0888266, 0.211719, 0.0901918, 0, 0
0, 180.00000, 0.205481, 0.0875344, 0.208514, 0.0888266, 0.211719, 0.0901918, 0, 0
0, 240.00000, 0.205481, 0.0875344, 0.208514, 0.0888266, 0.211719, 0.0901918, 0, 0
0, 300.00000, 0.205481, 0.0875344, 0.208514, 0.0888266, 0.211719, 0.0901918, 0, 0
0, 360.00000, 0.205481, 0.0875344, 0.208514, 0.0888266, 0.211719, 0.0901918, 0, 0
0, 420.00000, 0.205481, 0.0875344, 0.208514, 0.0888266, 0.211719, 0.0901918, 0, 0
0, 480.00000, 0.205481, 0.0875344, 0.208514, 0.0888266, 0.211719, 0.0901918, 0, 0
0, 540.00000, 0.205481, 0.0875344, 0.208514, 0.0888266, 0.211719, 0.0901918, 0, 0
0, 600.00000, 0.205481, 0.0875344, 0.208514, 0.0888266, 0.211719, 0.0901918, 0, 0
0, 660.00000, 0.205481, 0.0875344, 0.208514, 0.0888266, 0.211719, 0.0901918, 0, 0
0, 720.00000, 0.205481, 0.0875344, 0.208514, 0.0888266, 0.211719, 0.0901918, 0, 0
0, 780.00000, 0.205481, 0.0875344, 0.208514, 0.0888266, 0.211719, 0.0901918, 0, 0
0, 840.00000, 0.205481, 0.0875344, 0.208514, 0.0888266, 0.211719, 0.0901918, 0, 0
0, 900.00000, 0.205481, 0.0875344, 0.208514, 0.0888266, 0.211719, 0.0901918, 0, 0
0, 960.00000, 0.210629, 0.0897248, 0.213555, 0.0909768, 0.223461, 0.0951936, 0, 0
0, 1020.00000, 0.210622, 0.0897248, 0.213551, 0.0909723, 0.22346, 0.0951937, 0, 0
0, 1080.00000, 0.210622, 0.0897248, 0.213551, 0.0909723, 0.22346, 0.0951937, 0, 0
0, 1140.00000, 0.210622, 0.0897248, 0.213551, 0.0909723, 0.22346, 0.0951937, 0, 0
0, 1200.00000, 0.210622, 0.0897248, 0.213551, 0.0909723, 0.22346, 0.0951937, 0, 0
0, 1260.00000, 0.210622, 0.0897248, 0.213551, 0.0909723, 0.22346, 0.0951937, 0, 0
0, 1320.00000, 0.210622, 0.0897248, 0.213551, 0.0909723, 0.22346, 0.0951937, 0, 0
0, 1380.00000, 0.210622, 0.0897248, 0.213551, 0.0909723, 0.22346, 0.0951937, 0, 0
0, 1440.00000, 0.210622, 0.0897248, 0.213551, 0.0909723, 0.22346, 0.0951937, 0, 0
0, 1500.00000, 0.210622, 0.0897248, 0.213551, 0.0909723, 0.22346, 0.0951937, 0, 0
0, 1560.00000, 0.210622, 0.0897248, 0.213551, 0.0909723, 0.22346, 0.0951937, 0, 0
0, 1620.00000, 0.210622, 0.0897248, 0.213551, 0.0909723, 0.22346, 0.0951937, 0, 0
0, 1680.00000, 0.210622, 0.0897248, 0.213551, 0.0909723, 0.22346, 0.0951937, 0, 0
0, 1740.00000, 0.210622, 0.0897248, 0.213551, 0.0909723, 0.22346, 0.0951937, 0, 0
0, 1800.00000, 0.210622, 0.0897248, 0.213551, 0.0909723, 0.22346, 0.0951937, 0, 0
0, 1860.00000, 0.21208, 0.0903448, 0.215001, 0.0915931, 0.224957, 0.0958382, 0, 0
0, 1920.00000, 0.212076, 0.0903441, 0.215003, 0.0915911, 0.224977, 0.0958399, 0, 0
0, 1980.00000, 0.212076, 0.0903441, 0.215003, 0.0915911, 0.224977, 0.0958399, 0, 0
0, 2040.00000, 0.212076, 0.0903441, 0.215003, 0.0915911, 0.224977, 0.0958399, 0, 0
0, 2100.00000, 0.212076, 0.0903441, 0.215003, 0.0915911, 0.224977, 0.0958399, 0, 0
0, 2160.00000, 0.212076, 0.0903441, 0.215003, 0.0915911, 0.224977, 0.0958399, 0, 0
0, 2220.00000, 0.212076, 0.0903441, 0.215003, 0.0915911, 0.224977, 0.0958399, 0, 0
0, 2280.00000, 0.212076, 0.0903441, 0.215003, 0.0915911, 0.224977, 0.0958399, 0, 0
0, 2340.00000, 0.212076, 0.0903441, 0.215003, 0.0915911, 0.224977, 0.0958399, 0, 0
0, 2400.00000, 0.212076, 0.0903441, 0.215003, 0.0915911, 0.224977, 0.0958399, 0, 0
0, 2460.00000, 0.212076, 0.0903441, 0.215003, 0.0915911, 0.224977, 0.0958399, 0, 0
0, 2520.00000, 0.212076, 0.0903441, 0.215003, 0.0915911, 0.224977, 0.0958399, 0, 0
0, 2580.00000, 0.212076, 0.0903441, 0.215003, 0.0915911, 0.224977, 0.0958399, 0, 0
0, 2640.00000, 0.212076, 0.0903441, 0.215003, 0.0915911, 0.224977, 0.0958399, 0, 0
0, 2700.00000, 0.212076, 0.0903441, 0.215003, 0.0915911, 0.224977, 0.0958399, 0, 0
0, 2760.00000, 0.202949, 0.0864566, 0.20571, 0.0876318, 0.215257, 0.0917006, 0, 0
0, 2820.00000, 0.20295, 0.0864562, 0.205711, 0.0876324, 0.215262, 0.0917014, 0, 0
0, 2880.00000, 0.20295, 0.0864562, 0.205711, 0.0876324, 0.215262, 0.0917014, 0, 0
0, 2940.00000, 0.20295, 0.0864562, 0.205711, 0.0876324, 0.215262, 0.0917014, 0, 0
0, 3000.00000, 0.20295, 0.0864562, 0.205711, 0.0876324, 0.215262, 0.0917014, 0, 0
0, 3060.00000, 0.20295, 0.0864562, 0.205711, 0.0876324, 0.215262, 0.0917014, 0, 0
0, 3120.00000, 0.20295, 0.0864562, 0.205711, 0.0876324, 0.215262, 0.0917014, 0, 0
0, 3180.00000, 0.20295, 0.0864562, 0.205711, 0.0876324, 0.215262, 0.0917014, 0, 0
0, 3240.00000, 0.20295, 0.0864562, 0.205711, 0.0876324, 0.215262, 0.0917014, 0, 0
0, 3300.00000, 0.20295, 0.0864562, 0.205711, 0.0876324, 0.215262, 0.0917014, 0, 0
0, 3360.00000, 0.20295, 0.0864562, 0.205711, 0.0876324, 0.215262, 0.0917014, 0, 0
0, 3420.00000, 0.20295, 0.0864562, 0.205711, 0.0876324, 0.215262, 0.0917014, 0, 0
0, 3480.00000, 0.20295, 0.0864562, 0.205711, 0.0876324, 0.215262, 0.0917014, 0, 0
0, 3540.00000, 0.20295, 0.0864562, 0.205711, 0.0876324, 0.215262, 0.0917014, 0, 0
1, 0.00000, 0.20295, 0.0864562, 0.205711, 0.0876324, 0.215262, 0.0917014, 0, 0
1, 60.00000, 0.20151, 0.0858438, 0.204215, 0.0869946, 0.21371, 0.0910412, 0, 0
1, 120.00000, 0.201511, 0.0858433, 0.204215, 0.0869953, 0.213715, 0.0910424, 0, 0
1, 180.00000, 0.201511, 0.0858433, 0.204215, 0.0869953, 0.213716, 0.0910424, 0, 0
1, 240.00000, 0.201511, 0.0858433, 0.204215, 0.0869953, 0.213716, 0.0910424, 0, 0
1, 300.00000, 0.201511, 0.0858433, 0.204215, 0.0869953, 0.213716, 0.0910424, 0, 0
1, 360.00000, 0.201511, 0.0858433, 0.204215, 0.0869953, 0.213716, 0.0910424, 0, 0
1, 420.00000, 0.201511, 0.0858433, 0.204215, 0.0869953, 0.213716, 0.0910424, 0, 0
1, 480.00000, 0.201511, 0.0858433, 0.204215, 0.0869953, 0.213716, 0.0910424, 0, 0
1, 540.00000, 0.201511, 0.0858433, 0.204215, 0.0869953, 0.213716, 0.0910424, 0, 0
1, 600.00000, 0.201511, 0.0858433, 0.204215, 0.0869953, 0.213716, 0.0910424, 0, 0
1, 660.00000, 0.201511, 0.0858433, 0.204215, 0.0869953, 0.213716, 0.0910424, 0, 0
1, 720.00000, 0.201511, 0.0858433, 0.204215, 0.0869953, 0.213716, 0.0910424, 0, 0
1, 780.00000, 0.201511, 0.0858433, 0.204215, 0.0869953, 0.213716, 0.0910424, 0, 0
1, 840.00000, 0.201511, 0.0858433, 0.204215, 0.0869953, 0.213716, 0.0910424, 0, 0
1, 900.00000, 0.201511, 0.0858433, 0.204215, 0.0869953, 0.213716, 0.0910424, 0, 0
1, 960.00000, 0.200711, 0.0855032, 0.203397, 0.0866469, 0.212858, 0.0906793, 0, 0
1, 1020.00000, 0.200712, 0.0855029, 0.203398, 0.0866471, 0.212868, 0.0906816, 0, 0
1, 1080.00000, 0.200712, 0.0855029, 0.203398, 0.0866471, 0.212868, 0.0906816, 0, 0
1, 1140.00000, 0.200712, 0.0855029, 0.203398, 0.0866471, 0.212868, 0.0906816, 0, 0
1, 1200.00000, 0.200712, 0.0855029, 0.203398, 0.0866471, 0.212868, 0.0906816, 0, 0
1, 1260.00000, 0.200712, 0.0855029, 0.203398, 0.0866471, 0.212868, 0.0906816, 0, 0
1, 1320.00000, 0.200712, 0.0855029, 0.203398, 0.0866471, 0.212868, 0.0906816, 0, 0
1, 1380.00000, 0.200712, 0.0855029, 0.203398, 0.0866471, 0.212868, 0.0906816, 0, 0
1, 1440.00000, 0.200712, 0.0855029, 0.203398, 0.0866471, 0.212868, 0.0906816, 0, 0
1, 1500.00000, 0.200712, 0.0855029, 0.203398, 0.0866471, 0.212868, 0.0906816, 0, 0
1, 1560.00000, 0.200712, 0.0855029, 0.203398, 0.0866471, 0.212868, 0.0906816, 0, 0
1, 1620.00000, 0.200712, 0.0855029, 0.203398, 0.0866471, 0.212868, 0.0906816, 0, 0
1, 1680.00000, 0.200712, 0.0855029, 0.203398, 0.0866471, 0.212868, 0.0906816, 0, 0
1, 1740.00000, 0.200712, 0.0855029, 0.203398, 0.0866471, 0.212868, 0.0906816, 0, 0
1, 1800.00000, 0.200712, 0.0855029, 0.203398, 0.0866471, 0.212868, 0.0906816, 0, 0
1, 1860.00000, 0.204814, 0.0872499, 0.207586, 0.0884317, 0.217229, 0.0925383, 0, 0
1, 1920.00000, 0.204814, 0.0872502, 0.207586, 0.0884314, 0.217225, 0.0925375, 0, 0
1, 1980.00000, 0.204814, 0.0872502, 0.207586, 0.0884314, 0.217225, 0.0925375, 0, 0
1, 2040.00000, 0.204814, 0.0872502, 0.207586, 0.0884314, 0.217225, 0.0925375, 0, 0
1, 2100.00000, 0.204814, 0.0872502, 0.207586, 0.0884314, 0.217225, 0.0925375, 0, 0
1, 2160.00000, 0.204814, 0.0872502, 0.207586, 0.0884314, 0.217225, 0.0925375, 0, 0
1, 2220.00000, 0.204814, 0.0872502, 0.207586, 0.0884314, 0.217225, 0.0925375, 0, 0
1, 2280.00000, 0.204814, 0.0872502, 0.207586, 0.0884314, 0.217225, 0.0925375, 0, 0
1, 2340.00000, 0.204814, 0.0872502, 0.207586, 0.0884314, 0.217225, 0.0925375, 0, 0
1, 2400.00000, 0.204814, 0.0872502, 0.207586, 0.0884314, 0.217225, 0.0925375, 0, 0
1, 2460.00000, 0.204814, 0.0872502, 0.207586, 0.0884314, 0.217225, 0.0925375, 0, 0
1, 2520.00000, 0.204814, 0.0872502, 0.207586, 0.0884314, 0.217225, 0.0925375, 0, 0
1, 2580.00000, 0.204814, 0.0872502, 0.207586, 0.0884314, 0.217225, 0.0925375, 0, 0
1, 2640.00000, 0.204814, 0.0872502, 0.207586, 0.0884314, 0.217225, 0.0925375, 0, 0
1, 2700.00000, 0.204739, 0.087218, 0.206628, 0.0880241, 0.21538, 0.0917495, 0, 0
1, 2760.00000, 0.194495, 0.0828555, 0.196207, 0.083584, 0.204505, 0.0871193, 0, 0
1, 2820.00000, 0.194497, 0.0828556, 0.196208, 0.0835842, 0.204508, 0.0871199, 0, 0
1, 2880.00000, 0.194497, 0.0828556, 0.196208, 0.0835842, 0.204508, 0.0871199, 0, 0
1, 2940.00000, 0.194497, 0.0828556, 0.196208, 0.0835842, 0.204508, 0.0871199, 0, 0
1, 3000.00000, 0.194497, 0.0828556, 0.196208, 0.0835842, 0.204508, 0.0871199, 0, 0
1, 3060.00000, 0.194497, 0.0828556, 0.196208, 0.0835842, 0.204508, 0.0871199, 0, 0
1, 3120.00000, 0.194497, 0.0828556, 0.196208, 0.0835842, 0.204508, 0.0871199, 0, 0
1, 3180.00000, 0.194497, 0.0828556, 0.196208, 0.0835842, 0.204508, 0.0871199, 0, 0
1, 3240.00000, 0.194497, 0.0828556, 0.196208, 0.0835842, 0.204508, 0.0871199, 0, 0
1, 3300.00000, 0.194497, 0.0828556, 0.196208, 0.0835842, 0.204508, 0.0871199, 0, 0
1, 3360.00000, 0.194497, 0.0828556, 0.196208, 0.0835842, 0.204508, 0.0871199, 0, 0
1, 3420.00000, 0.194497, 0.0828556, 0.196208, 0.0835842, 0.204508, 0.0871199, 0, 0
1, 3480.00000, 0.194497, 0.0828556, 0.196208, 0.0835842, 0.204508, 0.0871199, 0, 0
1, 3540.00000, 0.194497, 0.0828556, 0.196208, 0.0835842, 0.204508, 0.0871199, 0, 0
2, 0.00000, 0.194497, 0.0828556, 0.196208, 0.0835842, 0.204508, 0.0871199, 0, 0
2, 60.00000, 0.198756, 0.0846691, 0.200551, 0.0854342, 0.209039, 0.0890497, 0, 0
2, 120.00000, 0.198755, 0.0846691, 0.20055, 0.085434, 0.209037, 0.0890494, 0, 0
2, 180.00000, 0.198755, 0.0846691, 0.20055, 0.085434, 0.209037, 0.0890494, 0, 0
2, 240.00000, 0.198755, 0.0846691, 0.20055, 0.085434, 0.209037, 0.0890494, 0, 0
2, 300.00000, 0.198755, 0.0846691, 0.20055, 0.085434, 0.209037, 0.0890494, 0, 0
2, 360.00000, 0.198755, 0.0846691, 0.20055, 0.085434, 0.209037, 0.0890494, 0, 0
2, 420.00000, 0.198755, 0.0846691, 0.20055, 0.085434, 0.209037, 0.0890494, 0, 0
2, 480.00000, 0.198755, 0.0846691, 0.20055, 0.085434, 0.209037, 0.0890494, 0, 0
2, 540.00000, 0.204351, 0.0870528, 0.206377, 0.0879178, 0.208709, 0.0889096, 0, 0
2, 600.00000, 0.204353, 0.087054, 0.206382, 0.0879182, 0.208707, 0.0889086, 0, 0
2, 660.00000, 0.204353, 0.087054, 0.206382, 0.0879182, 0.208707, 0.0889086, 0, 0
2, 720.00000, 0.204353, 0.087054, 0.206382, 0.0879182, 0.208707, 0.0889086, 0, 0
2, 780.00000, 0.204353, 0.087054, 0.206382, 0.0879182, 0.208707, 0.0889086, 0, 0
2, 840.00000, 0.204353, 0.087054, 0.206382, 0.0879182, 0.208707, 0.0889086, 0, 0
2, 900.00000, 0.204353, 0.087054, 0.206382, 0.0879182, 0.208707, 0.0889086, 0, 0
2, 960.00000, 0.19479, 0.0829805, 0.196682, 0.0837865, 0.198862, 0.0847155, 0, 0
2, 1020.00000, 0.194791, 0.0829808, 0.196684, 0.083787, 0.198864, 0.0847156, 0, 0
2, 1080.00000, 0.194791, 0.0829808, 0.196684, 0.083787, 0.198864, 0.0847156, 0, 0
2, 1140.00000, 0.194791, 0.0829808, 0.196684, 0.083787, 0.198864, 0.0847156, 0, 0
2, 1200.00000, 0.194791, 0.0829808, 0.196684, 0.083787, 0.198864, 0.0847156, 0, 0
2, 1260.00000, 0.194791, 0.0829808, 0.196684, 0.083787, 0.198864, 0.0847156, 0, 0
2, 1320.00000, 0.194791, 0.0829808, 0.196684, 0.083787, 0.198864, 0.0847156, 0, 0
2, 1380.00000, 0.194791, 0.0829808, 0.196684, 0.083787, 0.198864, 0.0847156, 0, 0
2, 1440.00000, 0.194791, 0.0829808, 0.196684, 0.083787, 0.198864, 0.0847156, 0, 0
2, 1500.00000, 0.194791, 0.0829808, 0.196684, 0.083787, 0.198864, 0.0847156, 0, 0
2, 1560.00000, 0.194791, 0.0829808, 0.196684, 0.083787, 0.198864, 0.0847156, 0, 0
2, 1620.00000, 0.194791, 0.0829808, 0.196684, 0.083787, 0.198864, 0.0847156, 0, 0
2, 1680.00000, 0.194791, 0.0829808, 0.196684, 0.083787, 0.198864, 0.0847156, 0, 0
2, 1740.00000, 0.194791, 0.0829808, 0.196684, 0.083787, 0.198864, 0.0847156, 0, 0
2, 1800.00000, 0.194791, 0.0829808, 0.196684, 0.083787, 0.198864, 0.0847156, 0, 0
2, 1860.00000, 0.194195, 0.0827242, 0.196098, 0.0835355, 0.198287, 0.084466, 0, 0
2, 1920.00000, 0.194187, 0.0827231, 0.196088, 0.083533, 0.198276, 0.0844654, 0, 0
2, 1980.00000, 0.194187, 0.0827231, 0.196088, 0.083533, 0.198276, 0.0844653, 0, 0
2, 2040.00000, 0.194187, 0.0827231, 0.196088, 0.083533, 0.198276, 0.0844653, 0, 0
2, 2100.00000, 0.194187, 0.0827231, 0.196088, 0.083533, 0.198276, 0.0844653, 0, 0
2, 2160.00000, 0.194187, 0.0827231, 0.196088, 0.083533, 0.198276, 0.0844653, 0, 0
2, 2220.00000, 0.194187, 0.0827231, 0.196088, 0.083533, 0.198276, 0.0844653, 0, 0
2, 2280.00000, 0.194187, 0.0827231, 0.196088, 0.083533, 0.198276, 0.0844653, 0, 0
2, 2340.00000, 0.194187, 0.0827231, 0.196088, 0.083533, 0.198276, 0.0844653, 0, 0
2, 2400.00000, 0.194187, 0.0827231, 0.196088, 0.083533, 0.198276, 0.0844653, 0, 0
2, 2460.00000, 0.194187, 0.0827231, 0.196088, 0.083533, 0.198276, 0.0844653, 0, 0
2, 2520.00000, 0.194187, 0.0827231, 0.196088, 0.083533, 0.198276, 0.0844653, 0, 0
2, 2580.00000, 0.194187, 0.0827231, 0.196088, 0.083533, 0.198276, 0.0844653, 0, 0
2, 2640.00000, 0.194187, 0.0827231, 0.196088, 0.083533, 0.198276, 0.0844653, 0, 0
2, 2700.00000, 0.194187, 0.0827231, 0.196088, 0.083533, 0.198276, 0.0844653, 0, 0
2, 2760.00000, 0.18717, 0.0797348, 0.188956, 0.0804956, 0.191027, 0.0813779, 0, 0
2, 2820.00000, 0.187173, 0.0797352, 0.188958, 0.080496, 0.19103, 0.0813783, 0, 0
2, 2880.00000, 0.187173, 0.0797352, 0.188958, 0.080496, 0.19103, 0.0813783, 0, 0
2, 2940.00000, 0.187173, 0.0797352, 0.188958, 0.080496, 0.19103, 0.0813783, 0, 0
2, 3000.00000, 0.187173, 0.0797352, 0.188958, 0.080496, 0.19103, 0.0813783, 0, 0
2, 3060.00000, 0.187173, 0.0797352, 0.188958, 0.080496, 0.19103, 0.0813783, 0, 0
2, 3120.00000, 0.187216, 0.0797547, 0.189892, 0.0808914, 0.1922, 0.0818829, 0, 0
2, 3180.00000, 0.187212, 0.0797519, 0.189902, 0.0808977, 0.192187, 0.0818714, 0, 0
2, 3240.00000, 0.187212, 0.0797518, 0.189902, 0.0808978, 0.192187, 0.0818713, 0, 0
2, 3300.00000, 0.187212, 0.0797518, 0.189902, 0.0808978, 0.192187, 0.0818713, 0, 0
2, 3360.00000, 0.187212, 0.0797518, 0.189902, 0.0808978, 0.192187, 0.0818713, 0, 0
2, 3420.00000, 0.187212, 0.0797518, 0.189902, 0.0808978, 0.192187, 0.0818713, 0, 0
2, 3480.00000, 0.187212, 0.0797518, 0.189902, 0.0808978, 0.192187, 0.0818713, 0, 0
2, 3540.00000, 0.187212, 0.0797518, 0.189902, 0.0808978, 0.192187, 0.0818713, 0, 0
3, 0.00000, 0.187212, 0.0797518, 0.189902, 0.0808978, 0.192187, 0.0818713, 0, 0
3, 60.00000, 0.191309, 0.0814968, 0.194056, 0.0826677, 0.197019, 0.0839285, 0, 0
3, 120.00000, 0.191308, 0.081497, 0.194054, 0.0826665, 0.197014, 0.0839276, 0, 0
3, 180.00000, 0.191308, 0.081497, 0.194054, 0.0826665, 0.197014, 0.0839276, 0, 0
3, 240.00000, 0.191308, 0.081497, 0.194054, 0.0826665, 0.197014, 0.0839276, 0, 0
3, 300.00000, 0.191308, 0.081497, 0.194054, 0.0826665, 0.197014, 0.0839276, 0, 0
3, 360.00000, 0.191308, 0.081497, 0.194054, 0.0826665, 0.197014, 0.0839276, 0, 0
3, 420.00000, 0.191308, 0.081497, 0.194054, 0.0826665, 0.197014, 0.0839276, 0, 0
3, 480.00000, 0.191308, 0.081497, 0.194054, 0.0826665, 0.197014, 0.0839276, 0, 0
3, 540.00000, 0.191308, 0.081497, 0.194054, 0.0826665, 0.197014, 0.0839276, 0, 0
3, 600.00000, 0.191308, 0.081497, 0.194054, 0.0826665, 0.197014, 0.0839276, 0, 0
3, 660.00000, 0.191308, 0.081497, 0.194054, 0.0826665, 0.197014, 0.0839276, 0, 0
3, 720.00000, 0.191308, 0.081497, 0.194054, 0.0826665, 0.197014, 0.0839276, 0, 0
3, 780.00000, 0.191308, 0.081497, 0.194054, 0.0826665, 0.197014, 0.0839276, 0, 0
3, 840.00000, 0.191308, 0.081497, 0.194054, 0.0826665, 0.197014, 0.0839276, 0, 0
3, 900.00000, 0.191308, 0.081497, 0.194054, 0.0826665, 0.197014, 0.0839276, 0, 0
3, 960.00000, 0.19682, 0.0838465, 0.199641, 0.0850467, 0.202497, 0.0862661, 0, 0
3, 1020.00000, 0.196822, 0.0838459, 0.199648, 0.0850498, 0.202489, 0.0862599, 0, 0
3, 1080.00000, 0.196822, 0.0838459, 0.199648, 0.0850499, 0.202489, 0.0862598, 0, 0
3, 1140.00000, 0.196822, 0.0838459, 0.199648, 0.0850499, 0.202489, 0.0862598, 0, 0
3, 1200.00000, 0.196822, 0.0838459, 0.199648, 0.0850499, 0.202489, 0.0862598, 0, 0
3, 1260.00000, 0.196822, 0.0838459, 0.199648, 0.0850499, 0.202489, 0.0862598, 0, 0
3, 1320.00000, 0.196822, 0.0838459, 0.199648, 0.0850499, 0.202489, 0.0862598, 0, 0
3, 1380.00000, 0.196822, 0.0838459, 0.199648, 0.0850499, 0.202489, 0.0862598, 0, 0
3, 1440.00000, 0.196822, 0.0838459, 0.199648, 0.0850499, 0.202489, 0.0862598, 0, 0
3, 1500.00000, 0.196822, 0.0838459, 0.199648, 0.0850499, 0.202489, 0.0862598, 0, 0
3, 1560.00000, 0.196822, 0.0838459, 0.199648, 0.0850499, 0.202489, 0.0862598, 0, 0
3, 1620.00000, 0.196822, 0.0838459, 0.199648, 0.0850499, 0.202489, 0.0862598, 0, 0
3, 1680.00000, 0.196822, 0.0838459, 0.199648, 0.0850499, 0.202489, 0.0862598, 0, 0
3, 1740.00000, 0.196822, 0.0838459, 0.199648, 0.0850499, 0.202489, 0.0862598, 0, 0
3, 1800.00000, 0.196822, 0.0838459, 0.199648, 0.0850499, 0.202489, 0.0862598, 0, 0
3, 1860.00000, 0.199335, 0.0849173, 0.202198, 0.0861369, 0.204969, 0.0873188, 0, 0
3, 1920.00000, 0.199337, 0.0849171, 0.202204, 0.0861385, 0.204965, 0.0873147, 0, 0
3, 1980.00000, 0.199337, 0.0849171, 0.202204, 0.0861386, 0.204965, 0.0873146, 0, 0
3, 2040.00000, 0.199337, 0.0849171, 0.202204, 0.0861386, 0.204965, 0.0873146, 0, 0
3, 2100.00000, 0.199337, 0.0849171, 0.202204, 0.0861386, 0.204965, 0.0873146, 0, 0
3, 2160.00000, 0.199337, 0.0849171, 0.202204, 0.0861386, 0.204965, 0.0873146, 0, 0
3, 2220.00000, 0.199337, 0.0849171, 0.202204, 0.0861386, 0.204965, 0.0873146, 0, 0
3, 2280.00000, 0.199337, 0.0849171, 0.202204, 0.0861386, 0.204965, 0.0873146, 0, 0
3, 2340.00000, 0.199337, 0.0849171, 0.202204, 0.0861386, 0.204965, 0.0873146, 0, 0
3, 2400.00000, 0.199337, 0.0849171, 0.202204, 0.0861386, 0.204965, 0.0873146, 0, 0
3, 2460.00000, 0.199337, 0.0849171, 0.202204, 0.0861386, 0.204965, 0.0873146, 0, 0
3, 2520.00000, 0.199337, 0.0849171, 0.202204, 0.0861386, 0.204965, 0.0873146, 0, 0
3, 2580.00000, 0.199337, 0.0849171, 0.202204, 0.0861386, 0.204965, 0.0873146, 0, 0
3, 2640.00000, 0.199337, 0.0849171, 0.202204, 0.0861386, 0.204965, 0.0873146, 0, 0
3, 2700.00000, 0.199337, 0.0849171, 0.202204, 0.0861386, 0.204965, 0.0873146, 0, 0
3, 2760.00000, 0.18359, 0.07821, 0.186219, 0.0793292, 0.187564, 0.0799041, 0, 0
3, 2820.00000, 0.183592, 0.0782101, 0.186225, 0.0793317, 0.187558, 0.0798995, 0, 0
3, 2880.00000, 0.183592, 0.0782101, 0.186225, 0.0793317, 0.187558, 0.0798994, 0, 0
3, 2940.00000, 0.183592, 0.0782101, 0.186225, 0.0793317, 0.187558, 0.0798994, 0, 0
3, 3000.00000, 0.183592, 0.0782101, 0.186225, 0.0793317, 0.187558, 0.0798994, 0, 0
3, 3060.00000, 0.183592, 0.0782101, 0.186225, 0.0793317, 0.187558, 0.0798994, 0, 0
3, 3120.00000, 0.185306, 0.0789445, 0.186192, 0.0793169, 0.187564, 0.0799015, 0, 0
3, 3180.00000, 0.185319, 0.0789455, 0.186187, 0.0793155, 0.187558, 0.0798994, 0, 0
3, 3240.00000, 0.185319, 0.0789455, 0.186187, 0.0793154, 0.187558, 0.0798994, 0, 0
3, 3300.00000, 0.185319, 0.0789455, 0.186187, 0.0793154, 0.187558, 0.0798994, 0, 0
3, 3360.00000, 0.185319, 0.0789455, 0.186187, 0.0793154, 0.187558, 0.0798994, 0, 0
3, 3420.00000, 0.185319, 0.0789455, 0.186187, 0.0793154, 0.187558, 0.0798994, 0, 0
3, 3480.00000, 0.185319, 0.0789455, 0.186187, 0.0793154, 0.187558, 0.0798994, 0, 0
3, 3540.00000, 0.185319, 0.0789455, 0.186187, 0.0793154, 0.187558, 0.0798994, 0, 0
4, 0.00000, 0.185319, 0.0789455, 0.186187, 0.0793154, 0.187558, 0.0798994, 0, 0
4, 60.00000, 0.197473, 0.0841222, 0.198435, 0.0845328, 0.200639, 0.0854708, 0, 0
4, 120.00000, 0.19747, 0.0841219, 0.198431, 0.0845314, 0.200644, 0.0854739, 0, 0
