hour,t(sec),"P1 (kW)","Q1 (kvar)","P2 (kW)","Q2 (kvar)","P3 (kW)","Q3 (kvar)","P4 (kW)","Q4 (kvar)"
0, 60.00000, 0.384916, 0.163972, 0.380461, 0.162075, 0.385071, 0.164037, 0, 0
0, 120.00000, 0.384912, 0.163972, 0.380457, 0.162074, 0.385067, 0.164038, 0, 0
0, 180.00000, 0.384912, 0.163972, 0.380457, 0.162074, 0.385067, 0.164038, 0, 0
0, 240.00000, 0.384912, 0.163972, 0.380457, 0.162074, 0.385067, 0.164038, 0, 0
0, 300.00000, 0.384912, 0.163972, 0.380457, 0.162074, 0.385067, 0.164038, 0, 0
0, 360.00000, 0.384912, 0.163972, 0.380457, 0.162074, 0.385067, 0.164038, 0, 0
0, 420.00000, 0.384912, 0.163972, 0.380457, 0.162074, 0.385067, 0.164038, 0, 0
0, 480.00000, 0.312413, 0.133089, 0.308488, 0.131417, 0.312036, 0.132929, 0, 0
0, 540.00000, 0.312417, 0.133089, 0.308492, 0.131417, 0.312039, 0.132928, 0, 0
0, 600.00000, 0.312417, 0.133089, 0.308492, 0.131417, 0.312039, 0.132928, 0, 0
0, 660.00000, 0.312417, 0.133089, 0.308492, 0.131417, 0.312039, 0.132928, 0, 0
0, 720.00000, 0.312417, 0.133089, 0.308492, 0.131417, 0.312039, 0.132928, 0, 0
0, 780.00000, 0.312417, 0.133089, 0.308492, 0.131417, 0.312039, 0.132928, 0, 0
0, 840.00000, 0.312417, 0.133089, 0.308492, 0.131417, 0.312039, 0.132928, 0, 0
0, 900.00000, 0.312417, 0.133089, 0.308492, 0.131417, 0.312039, 0.132928, 0, 0
0, 960.00000, 0.305615, 0.130191, 0.301344, 0.128372, 0.31242, 0.13309, 0, 0
0, 1020.00000, 0.305613, 0.13019, 0.301341, 0.128371, 0.312421, 0.133091, 0, 0
0, 1080.00000, 0.305613, 0.13019, 0.301341, 0.128371, 0.312421, 0.133091, 0, 0
0, 1140.00000, 0.305613, 0.13019, 0.301341, 0.128371, 0.312421, 0.133091, 0, 0
0, 1200.00000, 0.305613, 0.13019, 0.301341, 0.128371, 0.312421, 0.133091, 0, 0
0, 1260.00000, 0.305613, 0.13019, 0.301341, 0.128371, 0.312421, 0.133091, 0, 0
0, 1320.00000, 0.305613, 0.13019, 0.301341, 0.128371, 0.312421, 0.133091, 0, 0
0, 1380.00000, 0.305613, 0.13019, 0.301341, 0.128371, 0.312421, 0.133091, 0, 0
0, 1440.00000, 0.305613, 0.13019, 0.301341, 0.128371, 0.312421, 0.133091, 0, 0
0, 1500.00000, 0.305613, 0.13019, 0.301341, 0.128371, 0.312421, 0.133091, 0, 0
0, 1560.00000, 0.305613, 0.13019, 0.301341, 0.128371, 0.312421, 0.133091, 0, 0
0, 1620.00000, 0.305613, 0.13019, 0.301341, 0.128371, 0.312421, 0.133091, 0, 0
0, 1680.00000, 0.305613, 0.13019, 0.301341, 0.128371, 0.312421, 0.133091, 0, 0
0, 1740.00000, 0.305613, 0.13019, 0.301341, 0.128371, 0.312421, 0.133091, 0, 0
0, 1800.00000, 0.305613, 0.13019, 0.301341, 0.128371, 0.312421, 0.133091, 0, 0
0, 1860.00000, 0.305613, 0.13019, 0.301341, 0.128371, 0.312421, 0.133091, 0, 0
0, 1920.00000, 0.305613, 0.13019, 0.301341, 0.128371, 0.312421, 0.133091, 0, 0
0, 1980.00000, 0.305613, 0.13019, 0.301341, 0.128371, 0.312421, 0.133091, 0, 0
0, 2040.00000, 0.305613, 0.13019, 0.301341, 0.128371, 0.312421, 0.133091, 0, 0
0, 2100.00000, 0.305613, 0.13019, 0.301341, 0.128371, 0.312421, 0.133091, 0, 0
0, 2160.00000, 0.305613, 0.13019, 0.301341, 0.128371, 0.312421, 0.133091, 0, 0
0, 2220.00000, 0.305613, 0.13019, 0.301341, 0.128371, 0.312421, 0.133091, 0, 0
0, 2280.00000, 0.305613, 0.13019, 0.301341, 0.128371, 0.312421, 0.133091, 0, 0
0, 2340.00000, 0.305613, 0.13019, 0.301341, 0.128371, 0.312421, 0.133091, 0, 0
0, 2400.00000, 0.305613, 0.13019, 0.301341, 0.128371, 0.312421, 0.133091, 0, 0
0, 2460.00000, 0.305613, 0.13019, 0.301341, 0.128371, 0.312421, 0.133091, 0, 0
0, 2520.00000, 0.305613, 0.13019, 0.301341, 0.128371, 0.312421, 0.133091, 0, 0
0, 2580.00000, 0.305613, 0.13019, 0.301341, 0.128371, 0.312421, 0.133091, 0, 0
0, 2640.00000, 0.305613, 0.13019, 0.301341, 0.128371, 0.312421, 0.133091, 0, 0
0, 2700.00000, 0.305613, 0.13019, 0.301341, 0.128371, 0.312421, 0.133091, 0, 0
0, 2760.00000, 0.306637, 0.130627, 0.30347, 0.129279, 0.312318, 0.133047, 0, 0
0, 2820.00000, 0.306639, 0.130627, 0.303474, 0.129279, 0.312317, 0.133046, 0, 0
0, 2880.00000, 0.306639, 0.130628, 0.303474, 0.129279, 0.312317, 0.133046, 0, 0
0, 2940.00000, 0.306639, 0.130628, 0.303474, 0.129279, 0.312317, 0.133046, 0, 0
0, 3000.00000, 0.306639, 0.130628, 0.303474, 0.129279, 0.312317, 0.133046, 0, 0
0, 3060.00000, 0.306639, 0.130628, 0.303474, 0.129279, 0.312317, 0.133046, 0, 0
0, 3120.00000, 0.306639, 0.130628, 0.303474, 0.129279, 0.312317, 0.133046, 0, 0
0, 3180.00000, 0.306639, 0.130628, 0.303474, 0.129279, 0.312317, 0.133046, 0, 0
0, 3240.00000, 0.306639, 0.130628, 0.303474, 0.129279, 0.312317, 0.133046, 0, 0
0, 3300.00000, 0.306639, 0.130628, 0.303474, 0.129279, 0.312317, 0.133046, 0, 0
0, 3360.00000, 0.306639, 0.130628, 0.303474, 0.129279, 0.312317, 0.133046, 0, 0
0, 3420.00000, 0.306639, 0.130628, 0.303474, 0.129279, 0.312317, 0.133046, 0, 0
0, 3480.00000, 0.306639, 0.130628, 0.303474, 0.129279, 0.312317, 0.133046, 0, 0
0, 3540.00000, 0.306639, 0.130628, 0.303474, 0.129279, 0.312317, 0.133046, 0, 0
1, 0.00000, 0.306639, 0.130628, 0.303474, 0.129279, 0.312317, 0.133046, 0, 0
1, 60.00000, 0.308439, 0.131396, 0.303465, 0.129276, 0.313014, 0.133344, 0, 0
1, 120.00000, 0.308443, 0.131396, 0.303465, 0.129275, 0.313016, 0.133344, 0, 0
1, 180.00000, 0.308444, 0.131396, 0.303465, 0.129275, 0.313016, 0.133344, 0, 0
1, 240.00000, 0.308444, 0.131396, 0.303465, 0.129275, 0.313016, 0.133344, 0, 0
1, 300.00000, 0.308444, 0.131396, 0.303465, 0.129275, 0.313016, 0.133344, 0, 0
1, 360.00000, 0.308444, 0.131396, 0.303465, 0.129275, 0.313016, 0.133344, 0, 0
1, 420.00000, 0.308444, 0.131396, 0.303465, 0.129275, 0.313016, 0.133344, 0, 0
1, 480.00000, 0.308444, 0.131396, 0.303465, 0.129275, 0.313016, 0.133344, 0, 0
1, 540.00000, 0.308444, 0.131396, 0.303465, 0.129275, 0.313016, 0.133344, 0, 0
1, 600.00000, 0.308444, 0.131396, 0.303465, 0.129275, 0.313016, 0.133344, 0, 0
1, 660.00000, 0.308444, 0.131396, 0.303465, 0.129275, 0.313016, 0.133344, 0, 0
1, 720.00000, 0.308444, 0.131396, 0.303465, 0.129275, 0.313016, 0.133344, 0, 0
1, 780.00000, 0.308444, 0.131396, 0.303465, 0.129275, 0.313016, 0.133344, 0, 0
1, 840.00000, 0.308444, 0.131396, 0.303465, 0.129275, 0.313016, 0.133344, 0, 0
1, 900.00000, 0.308444, 0.131396, 0.303465, 0.129275, 0.313016, 0.133344, 0, 0
1, 960.00000, 0.308444, 0.131396, 0.303465, 0.129275, 0.313016, 0.133344, 0, 0
1, 1020.00000, 0.308444, 0.131396, 0.303465, 0.129275, 0.313016, 0.133344, 0, 0
1, 1080.00000, 0.308444, 0.131396, 0.303465, 0.129275, 0.313016, 0.133344, 0, 0
1, 1140.00000, 0.308444, 0.131396, 0.303465, 0.129275, 0.313016, 0.133344, 0, 0
1, 1200.00000, 0.308444, 0.131396, 0.303465, 0.129275, 0.313016, 0.133344, 0, 0
1, 1260.00000, 0.308444, 0.131396, 0.303465, 0.129275, 0.313016, 0.133344, 0, 0
1, 1320.00000, 0.308444, 0.131396, 0.303465, 0.129275, 0.313016, 0.133344, 0, 0
1, 1380.00000, 0.308444, 0.131396, 0.303465, 0.129275, 0.313016, 0.133344, 0, 0
1, 1440.00000, 0.308444, 0.131396, 0.303465, 0.129275, 0.313016, 0.133344, 0, 0
1, 1500.00000, 0.308444, 0.131396, 0.303465, 0.129275, 0.313016, 0.133344, 0, 0
1, 1560.00000, 0.308444, 0.131396, 0.303465, 0.129275, 0.313016, 0.133344, 0, 0
1, 1620.00000, 0.308444, 0.131396, 0.303465, 0.129275, 0.313016, 0.133344, 0, 0
1, 1680.00000, 0.308444, 0.131396, 0.303465, 0.129275, 0.313016, 0.133344, 0, 0
1, 1740.00000, 0.308444, 0.131396, 0.303465, 0.129275, 0.313016, 0.133344, 0, 0
1, 1800.00000, 0.308444, 0.131396, 0.303465, 0.129275, 0.313016, 0.133344, 0, 0
1, 1860.00000, 0.308444, 0.131396, 0.303465, 0.129275, 0.313016, 0.133344, 0, 0
1, 1920.00000, 0.308444, 0.131396, 0.303465, 0.129275, 0.313016, 0.133344, 0, 0
1, 1980.00000, 0.308444, 0.131396, 0.303465, 0.129275, 0.313016, 0.133344, 0, 0
1, 2040.00000, 0.308444, 0.131396, 0.303465, 0.129275, 0.313016, 0.133344, 0, 0
1, 2100.00000, 0.308444, 0.131396, 0.303465, 0.129275, 0.313016, 0.133344, 0, 0
1, 2160.00000, 0.308444, 0.131396, 0.303465, 0.129275, 0.313016, 0.133344, 0, 0
1, 2220.00000, 0.308444, 0.131396, 0.303465, 0.129275, 0.313016, 0.133344, 0, 0
1, 2280.00000, 0.308444, 0.131396, 0.303465, 0.129275, 0.313016, 0.133344, 0, 0
1, 2340.00000, 0.308444, 0.131396, 0.303465, 0.129275, 0.313016, 0.133344, 0, 0
1, 2400.00000, 0.308444, 0.131396, 0.303465, 0.129275, 0.313016, 0.133344, 0, 0
1, 2460.00000, 0.308444, 0.131396, 0.303465, 0.129275, 0.313016, 0.133344, 0, 0
1, 2520.00000, 0.308444, 0.131396, 0.303465, 0.129275, 0.313016, 0.133344, 0, 0
1, 2580.00000, 0.308444, 0.131396, 0.303465, 0.129275, 0.313016, 0.133344, 0, 0
1, 2640.00000, 0.308444, 0.131396, 0.303465, 0.129275, 0.313016, 0.133344, 0, 0
1, 2700.00000, 0.308444, 0.131396, 0.303465, 0.129275, 0.313016, 0.133344, 0, 0
1, 2760.00000, 0.308444, 0.131396, 0.303465, 0.129275, 0.313016, 0.133344, 0, 0
1, 2820.00000, 0.308444, 0.131396, 0.303465, 0.129275, 0.313016, 0.133344, 0, 0
1, 2880.00000, 0.308444, 0.131396, 0.303465, 0.129275, 0.313016, 0.133344, 0, 0
1, 2940.00000, 0.308444, 0.131396, 0.303465, 0.129275, 0.313016, 0.133344, 0, 0
1, 3000.00000, 0.308444, 0.131396, 0.303465, 0.129275, 0.313016, 0.133344, 0, 0
1, 3060.00000, 0.308444, 0.131396, 0.303465, 0.129275, 0.313016, 0.133344, 0, 0
1, 3120.00000, 0.308444, 0.131396, 0.303465, 0.129275, 0.313016, 0.133344, 0, 0
1, 3180.00000, 0.308444, 0.131396, 0.303465, 0.129275, 0.313016, 0.133344, 0, 0
1, 3240.00000, 0.308444, 0.131396, 0.303465, 0.129275, 0.313016, 0.133344, 0, 0
1, 3300.00000, 0.308444, 0.131396, 0.303465, 0.129275, 0.313016, 0.133344, 0, 0
1, 3360.00000, 0.308444, 0.131396, 0.303465, 0.129275, 0.313016, 0.133344, 0, 0
1, 3420.00000, 0.308444, 0.131396, 0.303465, 0.129275, 0.313016, 0.133344, 0, 0
1, 3480.00000, 0.308444, 0.131396, 0.303465, 0.129275, 0.313016, 0.133344, 0, 0
1, 3540.00000, 0.308444, 0.131396, 0.303465, 0.129275, 0.313016, 0.133344, 0, 0
2, 0.00000, 0.308444, 0.131396, 0.303465, 0.129275, 0.313016, 0.133344, 0, 0
2, 60.00000, 0.308444, 0.131396, 0.303465, 0.129275, 0.313016, 0.133344, 0, 0
2, 120.00000, 0.308444, 0.131396, 0.303465, 0.129275, 0.313016, 0.133344, 0, 0
2, 180.00000, 0.308444, 0.131396, 0.303465, 0.129275, 0.313016, 0.133344, 0, 0
2, 240.00000, 0.308444, 0.131396, 0.303465, 0.129275, 0.313016, 0.133344, 0, 0
2, 300.00000, 0.308444, 0.131396, 0.303465, 0.129275, 0.313016, 0.133344, 0, 0
2, 360.00000, 0.308444, 0.131396, 0.303465, 0.129275, 0.313016, 0.133344, 0, 0
2, 420.00000, 0.308444, 0.131396, 0.303465, 0.129275, 0.313016, 0.133344, 0, 0
2, 480.00000, 0.308444, 0.131396, 0.303465, 0.129275, 0.313016, 0.133344, 0, 0
2, 540.00000, 0.308444, 0.131396, 0.303465, 0.129275, 0.313016, 0.133344, 0, 0
2, 600.00000, 0.308444, 0.131396, 0.303465, 0.129275, 0.313016, 0.133344, 0, 0
2, 660.00000, 0.308444, 0.131396, 0.303465, 0.129275, 0.313016, 0.133344, 0, 0
2, 720.00000, 0.308444, 0.131396, 0.303465, 0.129275, 0.313016, 0.133344, 0, 0
2, 780.00000, 0.308444, 0.131396, 0.303465, 0.129275, 0.313016, 0.133344, 0, 0
2, 840.00000, 0.315336, 0.134333, 0.310677, 0.132349, 0.312628, 0.133179, 0, 0
2, 900.00000, 0.315337, 0.134333, 0.310679, 0.132349, 0.312627, 0.133179, 0, 0
2, 960.00000, 0.315337, 0.134333, 0.310679, 0.132349, 0.312627, 0.133179, 0, 0
2, 1020.00000, 0.315337, 0.134333, 0.310679, 0.132349, 0.312627, 0.133179, 0, 0
2, 1080.00000, 0.315337, 0.134333, 0.310679, 0.132349, 0.312627, 0.133179, 0, 0
2, 1140.00000, 0.315337, 0.134333, 0.310679, 0.132349, 0.312627, 0.133179, 0, 0
2, 1200.00000, 0.315337, 0.134333, 0.310679, 0.132349, 0.312627, 0.133179, 0, 0
2, 1260.00000, 0.315337, 0.134333, 0.310679, 0.132349, 0.312627, 0.133179, 0, 0
2, 1320.00000, 0.315337, 0.134333, 0.310679, 0.132349, 0.312627, 0.133179, 0, 0
2, 1380.00000, 0.315337, 0.134333, 0.310679, 0.132349, 0.312627, 0.133179, 0, 0
2, 1440.00000, 0.315337, 0.134333, 0.310679, 0.132349, 0.312627, 0.133179, 0, 0
2, 1500.00000, 0.315337, 0.134333, 0.310679, 0.132349, 0.312627, 0.133179, 0, 0
2, 1560.00000, 0.315337, 0.134333, 0.310679, 0.132349, 0.312627, 0.133179, 0, 0
2, 1620.00000, 0.315337, 0.134333, 0.310679, 0.132349, 0.312627, 0.133179, 0, 0
2, 1680.00000, 0.315337, 0.134333, 0.310679, 0.132349, 0.312627, 0.133179, 0, 0
2, 1740.00000, 0.315337, 0.134333, 0.310679, 0.132349, 0.312627, 0.133179, 0, 0
2, 1800.00000, 0.315337, 0.134333, 0.310679, 0.132349, 0.312627, 0.133179, 0, 0
2, 1860.00000, 0.315337, 0.134333, 0.310679, 0.132349, 0.312627, 0.133179, 0, 0
2, 1920.00000, 0.315337, 0.134333, 0.310679, 0.132349, 0.312627, 0.133179, 0, 0
2, 1980.00000, 0.315337, 0.134333, 0.310679, 0.132349, 0.312627, 0.133179, 0, 0
2, 2040.00000, 0.315337, 0.134333, 0.310679, 0.132349, 0.312627, 0.133179, 0, 0
2, 2100.00000, 0.315337, 0.134333, 0.310679, 0.132349, 0.312627, 0.133179, 0, 0
2, 2160.00000, 0.315337, 0.134333, 0.310679, 0.132349, 0.312627, 0.133179, 0, 0
2, 2220.00000, 0.315337, 0.134333, 0.310679, 0.132349, 0.312627, 0.133179, 0, 0
2, 2280.00000, 0.315337, 0.134333, 0.310679, 0.132349, 0.312627, 0.133179, 0, 0
2, 2340.00000, 0.315337, 0.134333, 0.310679, 0.132349, 0.312627, 0.133179, 0, 0
2, 2400.00000, 0.315491, 0.134399, 0.312305, 0.133042, 0.3154, 0.134362, 0, 0
2, 2460.00000, 0.315491, 0.134399, 0.312306, 0.133042, 0.315406, 0.134363, 0, 0
2, 2520.00000, 0.315491, 0.134399, 0.312306, 0.133042, 0.315406, 0.134363, 0, 0
2, 2580.00000, 0.315491, 0.134399, 0.312306, 0.133042, 0.315406, 0.134363, 0, 0
2, 2640.00000, 0.315491, 0.134399, 0.312306, 0.133042, 0.315406, 0.134363, 0, 0
2, 2700.00000, 0.31519, 0.13427, 0.308485, 0.131414, 0.310667, 0.132343, 0, 0
2, 2760.00000, 0.31519, 0.13427, 0.308483, 0.131413, 0.310664, 0.132342, 0, 0
2, 2820.00000, 0.31519, 0.13427, 0.308483, 0.131413, 0.310664, 0.132342, 0, 0
2, 2880.00000, 0.31519, 0.13427, 0.308483, 0.131413, 0.310664, 0.132342, 0, 0
2, 2940.00000, 0.31519, 0.13427, 0.308483, 0.131413, 0.310664, 0.132342, 0, 0
2, 3000.00000, 0.31519, 0.13427, 0.308483, 0.131413, 0.310664, 0.132342, 0, 0
2, 3060.00000, 0.317301, 0.135173, 0.308471, 0.131409, 0.311541, 0.132716, 0, 0
2, 3120.00000, 0.317309, 0.135173, 0.30847, 0.131408, 0.311541, 0.132716, 0, 0
2, 3180.00000, 0.317309, 0.135173, 0.30847, 0.131408, 0.311541, 0.132716, 0, 0
2, 3240.00000, 0.317309, 0.135173, 0.30847, 0.131408, 0.311541, 0.132716, 0, 0
2, 3300.00000, 0.317309, 0.135173, 0.30847, 0.131408, 0.311541, 0.132716, 0, 0
2, 3360.00000, 0.317309, 0.135173, 0.30847, 0.131408, 0.311541, 0.132716, 0, 0
2, 3420.00000, 0.317309, 0.135173, 0.30847, 0.131408, 0.311541, 0.132716, 0, 0
2, 3480.00000, 0.317309, 0.135173, 0.30847, 0.131408, 0.311541, 0.132716, 0, 0
2, 3540.00000, 0.317309, 0.135173, 0.30847, 0.131408, 0.311541, 0.132716, 0, 0
3, 0.00000, 0.317309, 0.135173, 0.30847, 0.131408, 0.311541, 0.132716, 0, 0
3, 60.00000, 0.317309, 0.135173, 0.30847, 0.131408, 0.311541, 0.132716, 0, 0
3, 120.00000, 0.317309, 0.135173, 0.30847, 0.131408, 0.311541, 0.132716, 0, 0
3, 180.00000, 0.317309, 0.135173, 0.30847, 0.131408, 0.311541, 0.132716, 0, 0
3, 240.00000, 0.317309, 0.135173, 0.30847, 0.131408, 0.311541, 0.132716, 0, 0
3, 300.00000, 0.317309, 0.135173, 0.30847, 0.131408, 0.311541, 0.132716, 0, 0
3, 360.00000, 0.317309, 0.135173, 0.30847, 0.131408, 0.311541, 0.132716, 0, 0
3, 420.00000, 0.317309, 0.135173, 0.30847, 0.131408, 0.311541, 0.132716, 0, 0
3, 480.00000, 0.317309, 0.135173, 0.30847, 0.131408, 0.311541, 0.132716, 0, 0
3, 540.00000, 0.317309, 0.135173, 0.30847, 0.131408, 0.311541, 0.132716, 0, 0
3, 600.00000, 0.317309, 0.135173, 0.30847, 0.131408, 0.311541, 0.132716, 0, 0
3, 660.00000, 0.317309, 0.135173, 0.30847, 0.131408, 0.311541, 0.132716, 0, 0
3, 720.00000, 0.317309, 0.135173, 0.30847, 0.131408, 0.311541, 0.132716, 0, 0
3, 780.00000, 0.317309, 0.135173, 0.30847, 0.131408, 0.311541, 0.132716, 0, 0
3, 840.00000, 0.317309, 0.135173, 0.30847, 0.131408, 0.311541, 0.132716, 0, 0
3, 900.00000, 0.317309, 0.135173, 0.30847, 0.131408, 0.311541, 0.132716, 0, 0
3, 960.00000, 0.317309, 0.135173, 0.30847, 0.131408, 0.311541, 0.132716, 0, 0
3, 1020.00000, 0.317309, 0.135173, 0.30847, 0.131408, 0.311541, 0.132716, 0, 0
3, 1080.00000, 0.317309, 0.135173, 0.30847, 0.131408, 0.311541, 0.132716, 0, 0
3, 1140.00000, 0.317309, 0.135173, 0.30847, 0.131408, 0.311541, 0.132716, 0, 0
3, 1200.00000, 0.317309, 0.135173, 0.30847, 0.131408, 0.311541, 0.132716, 0, 0
3, 1260.00000, 0.317309, 0.135173, 0.30847, 0.131408, 0.311541, 0.132716, 0, 0
3, 1320.00000, 0.317309, 0.135173, 0.30847, 0.131408, 0.311541, 0.132716, 0, 0
3, 1380.00000, 0.317309, 0.135173, 0.30847, 0.131408, 0.311541, 0.132716, 0, 0
3, 1440.00000, 0.317309, 0.135173, 0.30847, 0.131408, 0.311541, 0.132716, 0, 0
3, 1500.00000, 0.317309, 0.135173, 0.30847, 0.131408, 0.311541, 0.132716, 0, 0
3, 1560.00000, 0.317309, 0.135173, 0.30847, 0.131408, 0.311541, 0.132716, 0, 0
3, 1620.00000, 0.317309, 0.135173, 0.30847, 0.131408, 0.311541, 0.132716, 0, 0
3, 1680.00000, 0.317309, 0.135173, 0.30847, 0.131408, 0.311541, 0.132716, 0, 0
3, 1740.00000, 0.317309, 0.135173, 0.30847, 0.131408, 0.311541, 0.132716, 0, 0
3, 1800.00000, 0.317309, 0.135173, 0.30847, 0.131408, 0.311541, 0.132716, 0, 0
3, 1860.00000, 0.317309, 0.135173, 0.30847, 0.131408, 0.311541, 0.132716, 0, 0
3, 1920.00000, 0.317309, 0.135173, 0.30847, 0.131408, 0.311541, 0.132716, 0, 0
3, 1980.00000, 0.317309, 0.135173, 0.30847, 0.131408, 0.311541, 0.132716, 0, 0
3, 2040.00000, 0.317309, 0.135173, 0.30847, 0.131408, 0.311541, 0.132716, 0, 0
3, 2100.00000, 0.317309, 0.135173, 0.30847, 0.131408, 0.311541, 0.132716, 0, 0
3, 2160.00000, 0.317309, 0.135173, 0.30847, 0.131408, 0.311541, 0.132716, 0, 0
3, 2220.00000, 0.317309, 0.135173, 0.30847, 0.131408, 0.311541, 0.132716, 0, 0
3, 2280.00000, 0.317309, 0.135173, 0.30847, 0.131408, 0.311541, 0.132716, 0, 0
3, 2340.00000, 0.317309, 0.135173, 0.30847, 0.131408, 0.311541, 0.132716, 0, 0
3, 2400.00000, 0.317309, 0.135173, 0.30847, 0.131408, 0.311541, 0.132716, 0, 0
3, 2460.00000, 0.317309, 0.135173, 0.30847, 0.131408, 0.311541, 0.132716, 0, 0
3, 2520.00000, 0.317309, 0.135173, 0.30847, 0.131408, 0.311541, 0.132716, 0, 0
3, 2580.00000, 0.317309, 0.135173, 0.30847, 0.131408, 0.311541, 0.132716, 0, 0
3, 2640.00000, 0.317309, 0.135173, 0.30847, 0.131408, 0.311541, 0.132716, 0, 0
3, 2700.00000, 0.317309, 0.135173, 0.30847, 0.131408, 0.311541, 0.132716, 0, 0
3, 2760.00000, 0.317309, 0.135173, 0.30847, 0.131408, 0.311541, 0.132716, 0, 0
3, 2820.00000, 0.317309, 0.135173, 0.30847, 0.131408, 0.311541, 0.132716, 0, 0
3, 2880.00000, 0.317309, 0.135173, 0.30847, 0.131408, 0.311541, 0.132716, 0, 0
3, 2940.00000, 0.317309, 0.135173, 0.30847, 0.131408, 0.311541, 0.132716, 0, 0
3, 3000.00000, 0.317309, 0.135173, 0.30847, 0.131408, 0.311541, 0.132716, 0, 0
3, 3060.00000, 0.317309, 0.135173, 0.30847, 0.131408, 0.311541, 0.132716, 0, 0
3, 3120.00000, 0.317309, 0.135173, 0.30847, 0.131408, 0.311541, 0.132716, 0, 0
3, 3180.00000, 0.364802, 0.155404, 0.354739, 0.151117, 0.358331, 0.152648, 0, 0
3, 3240.00000, 0.364799, 0.155404, 0.354738, 0.151118, 0.35833, 0.152648, 0, 0
3, 3300.00000, 0.364799, 0.155404, 0.354738, 0.151118, 0.35833, 0.152648, 0, 0
3, 3360.00000, 0.364799, 0.155404, 0.354738, 0.151118, 0.35833, 0.152648, 0, 0
3, 3420.00000, 0.364799, 0.155404, 0.354738, 0.151118, 0.35833, 0.152648, 0, 0
3, 3480.00000, 0.364799, 0.155404, 0.354738, 0.151118, 0.35833, 0.152648, 0, 0
3, 3540.00000, 0.364799, 0.155404, 0.354738, 0.151118, 0.35833, 0.152648, 0, 0
4, 0.00000, 0.364799, 0.155404, 0.354738, 0.151118, 0.35833, 0.152648, 0, 0
4, 60.00000, 0.364799, 0.155404, 0.354738, 0.151118, 0.35833, 0.152648, 0, 0
4, 120.00000, 0.364799, 0.155404, 0.354738, 0.151118, 0.35833, 0.152648, 0, 0
4, 180.00000, 0.364799, 0.155404, 0.354738, 0.151118, 0.35833, 0.152648, 0, 0
4, 240.00000, 0.364799, 0.155404, 0.354738, 0.151118, 0.35833, 0.152648, 0, 0
4, 300.00000, 0.364799, 0.155404, 0.354738, 0.151118, 0.35833, 0.152648, 0, 0
4, 360.00000, 0.364799, 0.155404, 0.354738, 0.151118, 0.35833, 0.152648, 0, 0
4, 420.00000, 0.364799, 0.155404, 0.354738, 0.151118, 0.35833, 0.152648, 0, 0
4, 480.00000, 0.364799, 0.155404, 0.354738, 0.151118, 0.35833, 0.152648, 0, 0
4, 540.00000, 0.364799, 0.155404, 0.354738, 0.151118, 0.35833, 0.152648, 0, 0
4, 600.00000, 0.364799, 0.155404, 0.354738, 0.151118, 0.35833, 0.152648, 0, 0
4, 660.00000, 0.364799, 0.155404, 0.354738, 0.151118, 0.35833, 0.152648, 0, 0
