hour,t(sec),V1,VAngle1,V2,VAngle2,V3,VAngle3,V4,VAngle4,I1,IAngle1,I2,IAngle2,I3,IAngle3,I4,IAngle4
0, 60.00000, 123.844, -31.2991, 123.74, -151.059, 124.509, 88.8789, 0, 0, 7.43275, -54.3727, 7.43901, -174.133, 7.39303, 65.8055, 0.0710036, 55.2675
0, 120.00000, 123.844, -31.2991, 123.74, -151.059, 124.509, 88.8788, 0, 0, 7.43285, -54.373, 7.43911, -174.133, 7.39317, 65.8049, 0.0709705, 55.2859
0, 180.00000, 123.844, -31.2991, 123.74, -151.059, 124.509, 88.8788, 0, 0, 7.43285, -54.373, 7.43911, -174.133, 7.39317, 65.8049, 0.0709692, 55.2863
0, 240.00000, 123.844, -31.2991, 123.74, -151.059, 124.509, 88.8788, 0, 0, 7.43285, -54.373, 7.43911, -174.133, 7.39317, 65.8049, 0.0709692, 55.2863
0, 300.00000, 123.844, -31.2991, 123.74, -151.059, 124.509, 88.8788, 0, 0, 7.43285, -54.373, 7.43911, -174.133, 7.39317, 65.8049, 0.0709692, 55.2863
0, 360.00000, 123.844, -31.2991, 123.74, -151.059, 124.509, 88.8788, 0, 0, 7.43285, -54.373, 7.43911, -174.133, 7.39317, 65.8049, 0.0709692, 55.2863
0, 420.00000, 123.844, -31.2991, 123.74, -151.059, 124.509, 88.8788, 0, 0, 7.43285, -54.373, 7.43911, -174.133, 7.39317, 65.8049, 0.0709692, 55.2863
0, 480.00000, 123.844, -31.2991, 123.74, -151.059, 124.509, 88.8788, 0, 0, 7.43285, -54.373, 7.43911, -174.133, 7.39317, 65.8049, 0.0709692, 55.2863
0, 540.00000, 123.844, -31.2991, 123.74, -151.059, 124.509, 88.8788, 0, 0, 7.43285, -54.373, 7.43911, -174.133, 7.39317, 65.8049, 0.0709692, 55.2863
0, 600.00000, 123.844, -31.2991, 123.74, -151.059, 124.509, 88.8788, 0, 0, 7.43285, -54.373, 7.43911, -174.133, 7.39317, 65.8049, 0.0709692, 55.2863
0, 660.00000, 123.844, -31.2991, 123.74, -151.059, 124.509, 88.8788, 0, 0, 7.43285, -54.373, 7.43911, -174.133, 7.39317, 65.8049, 0.0709692, 55.2863
0, 720.00000, 123.844, -31.2991, 123.74, -151.059, 124.509, 88.8788, 0, 0, 7.43285, -54.373, 7.43911, -174.133, 7.39317, 65.8049, 0.0709692, 55.2863
0, 780.00000, 123.844, -31.2991, 123.74, -151.059, 124.509, 88.8788, 0, 0, 7.43285, -54.373, 7.43911, -174.133, 7.39317, 65.8049, 0.0709692, 55.2863
0, 840.00000, 123.844, -31.2991, 123.74, -151.059, 124.509, 88.8788, 0, 0, 7.43285, -54.373, 7.43911, -174.133, 7.39317, 65.8049, 0.0709692, 55.2863
0, 900.00000, 123.844, -31.2991, 123.74, -151.059, 124.509, 88.8788, 0, 0, 7.43285, -54.373, 7.43911, -174.133, 7.39317, 65.8049, 0.0709692, 55.2863
0, 960.00000, 123.718, -31.3292, 123.619, -151.089, 124.39, 88.8472, 0, 0, 7.28141, -54.403, 7.28728, -174.163, 7.24211, 65.7734, 0.0697498, 55.6564
0, 1020.00000, 123.718, -31.3292, 123.618, -151.089, 124.39, 88.8472, 0, 0, 7.28144, -54.4031, 7.28731, -174.163, 7.24214, 65.7733, 0.0697548, 55.6588
0, 1080.00000, 123.718, -31.3292, 123.618, -151.089, 124.39, 88.8472, 0, 0, 7.28144, -54.4031, 7.28731, -174.163, 7.24214, 65.7733, 0.0697548, 55.6589
0, 1140.00000, 123.718, -31.3292, 123.618, -151.089, 124.39, 88.8472, 0, 0, 7.28144, -54.4031, 7.28731, -174.163, 7.24214, 65.7733, 0.0697548, 55.6589
0, 1200.00000, 123.718, -31.3292, 123.618, -151.089, 124.39, 88.8472, 0, 0, 7.28144, -54.4031, 7.28731, -174.163, 7.24214, 65.7733, 0.0697548, 55.6589
0, 1260.00000, 123.718, -31.3292, 123.618, -151.089, 124.39, 88.8472, 0, 0, 7.28144, -54.4031, 7.28731, -174.163, 7.24214, 65.7733, 0.0697548, 55.6589
0, 1320.00000, 123.718, -31.3292, 123.618, -151.089, 124.39, 88.8472, 0, 0, 7.28144, -54.4031, 7.28731, -174.163, 7.24214, 65.7733, 0.0697548, 55.6589
0, 1380.00000, 123.718, -31.3292, 123.618, -151.089, 124.39, 88.8472, 0, 0, 7.28144, -54.4031, 7.28731, -174.163, 7.24214, 65.7733, 0.0697548, 55.6589
0, 1440.00000, 123.718, -31.3292, 123.618, -151.089, 124.39, 88.8472, 0, 0, 7.28144, -54.4031, 7.28731, -174.163, 7.24214, 65.7733, 0.0697548, 55.6589
0, 1500.00000, 123.718, -31.3292, 123.618, -151.089, 124.39, 88.8472, 0, 0, 7.28144, -54.4031, 7.28731, -174.163, 7.24214, 65.7733, 0.0697548, 55.6589
0, 1560.00000, 123.718, -31.3292, 123.618, -151.089, 124.39, 88.8472, 0, 0, 7.28144, -54.4031, 7.28731, -174.163, 7.24214, 65.7733, 0.0697548, 55.6589
0, 1620.00000, 123.718, -31.3292, 123.618, -151.089, 124.39, 88.8472, 0, 0, 7.28144, -54.4031, 7.28731, -174.163, 7.24214, 65.7733, 0.0697548, 55.6589
0, 1680.00000, 123.718, -31.3292, 123.618, -151.089, 124.39, 88.8472, 0, 0, 7.28144, -54.4031, 7.28731, -174.163, 7.24214, 65.7733, 0.0697548, 55.6589
0, 1740.00000, 123.718, -31.3292, 123.618, -151.089, 124.39, 88.8472, 0, 0, 7.28144, -54.4031, 7.28731, -174.163, 7.24214, 65.7733, 0.0697548, 55.6589
0, 1800.00000, 123.718, -31.3292, 123.618, -151.089, 124.39, 88.8472, 0, 0, 7.28144, -54.4031, 7.28731, -174.163, 7.24214, 65.7733, 0.0697548, 55.6589
0, 1860.00000, 123.829, -31.3127, 123.725, -151.073, 124.495, 88.8647, 0, 0, 6.87894, -54.3876, 6.88471, -174.147, 6.84214, 65.7899, 0.0657564, 55.3684
0, 1920.00000, 123.829, -31.3126, 123.725, -151.073, 124.495, 88.8648, 0, 0, 6.87861, -54.3865, 6.88438, -174.146, 6.84182, 65.7908, 0.0657124, 55.3506
0, 1980.00000, 123.829, -31.3126, 123.725, -151.073, 124.495, 88.8648, 0, 0, 6.87861, -54.3865, 6.88438, -174.146, 6.84181, 65.7908, 0.0657122, 55.3505
0, 2040.00000, 123.829, -31.3126, 123.725, -151.073, 124.495, 88.8648, 0, 0, 6.87861, -54.3865, 6.88438, -174.146, 6.84181, 65.7908, 0.0657122, 55.3505
0, 2100.00000, 123.829, -31.3126, 123.725, -151.073, 124.495, 88.8648, 0, 0, 6.87861, -54.3865, 6.88438, -174.146, 6.84181, 65.7908, 0.0657122, 55.3505
0, 2160.00000, 123.829, -31.3126, 123.725, -151.073, 124.495, 88.8648, 0, 0, 6.87861, -54.3865, 6.88438, -174.146, 6.84181, 65.7908, 0.0657122, 55.3505
0, 2220.00000, 123.829, -31.3126, 123.725, -151.073, 124.495, 88.8648, 0, 0, 6.87861, -54.3865, 6.88438, -174.146, 6.84181, 65.7908, 0.0657122, 55.3505
0, 2280.00000, 123.829, -31.3126, 123.725, -151.073, 124.495, 88.8648, 0, 0, 6.87861, -54.3865, 6.88438, -174.146, 6.84181, 65.7908, 0.0657122, 55.3505
0, 2340.00000, 123.829, -31.3126, 123.725, -151.073, 124.495, 88.8648, 0, 0, 6.87861, -54.3865, 6.88438, -174.146, 6.84181, 65.7908, 0.0657122, 55.3505
0, 2400.00000, 123.829, -31.3126, 123.725, -151.073, 124.495, 88.8648, 0, 0, 6.87861, -54.3865, 6.88438, -174.146, 6.84181, 65.7908, 0.0657122, 55.3505
0, 2460.00000, 123.829, -31.3126, 123.725, -151.073, 124.495, 88.8648, 0, 0, 6.87861, -54.3865, 6.88438, -174.146, 6.84181, 65.7908, 0.0657122, 55.3505
0, 2520.00000, 123.829, -31.3126, 123.725, -151.073, 124.495, 88.8648, 0, 0, 6.87861, -54.3865, 6.88438, -174.146, 6.84181, 65.7908, 0.0657122, 55.3505
0, 2580.00000, 123.829, -31.3126, 123.725, -151.073, 124.495, 88.8648, 0, 0, 6.87861, -54.3865, 6.88438, -174.146, 6.84181, 65.7908, 0.0657122, 55.3505
0, 2640.00000, 123.829, -31.3126, 123.725, -151.073, 124.495, 88.8648, 0, 0, 6.87861, -54.3865, 6.88438, -174.146, 6.84181, 65.7908, 0.0657122, 55.3505
0, 2700.00000, 123.829, -31.3126, 123.725, -151.073, 124.495, 88.8648, 0, 0, 6.87861, -54.3865, 6.88438, -174.146, 6.84181, 65.7908, 0.0657122, 55.3505
0, 2760.00000, 124.022, -31.2734, 123.911, -151.034, 124.68, 88.9066, 0, 0, 6.72256, -54.3475, 6.72859, -174.108, 6.6871, 65.8325, 0.064011, 54.7564
0, 2820.00000, 124.022, -31.2734, 123.911, -151.034, 124.68, 88.9067, 0, 0, 6.72252, -54.3473, 6.72855, -174.108, 6.68703, 65.8327, 0.0640352, 54.7414
0, 2880.00000, 124.022, -31.2734, 123.911, -151.034, 124.68, 88.9067, 0, 0, 6.72252, -54.3473, 6.72855, -174.108, 6.68702, 65.8327, 0.0640358, 54.7412
0, 2940.00000, 124.022, -31.2734, 123.911, -151.034, 124.68, 88.9067, 0, 0, 6.72252, -54.3473, 6.72855, -174.108, 6.68702, 65.8327, 0.0640358, 54.7412
0, 3000.00000, 124.022, -31.2734, 123.911, -151.034, 124.68, 88.9067, 0, 0, 6.72252, -54.3473, 6.72855, -174.108, 6.68702, 65.8327, 0.0640358, 54.7412
0, 3060.00000, 124.022, -31.2734, 123.911, -151.034, 124.68, 88.9067, 0, 0, 6.72252, -54.3473, 6.72855, -174.108, 6.68702, 65.8327, 0.0640358, 54.7412
0, 3120.00000, 124.022, -31.2734, 123.911, -151.034, 124.68, 88.9067, 0, 0, 6.72252, -54.3473, 6.72855, -174.108, 6.68702, 65.8327, 0.0640358, 54.7412
0, 3180.00000, 124.022, -31.2734, 123.911, -151.034, 124.68, 88.9067, 0, 0, 6.72252, -54.3473, 6.72855, -174.108, 6.68702, 65.8327, 0.0640358, 54.7412
0, 3240.00000, 124.022, -31.2734, 123.911, -151.034, 124.68, 88.9067, 0, 0, 6.72252, -54.3473, 6.72855, -174.108, 6.68702, 65.8327, 0.0640358, 54.7412
0, 3300.00000, 124.022, -31.2734, 123.911, -151.034, 124.68, 88.9067, 0, 0, 6.72252, -54.3473, 6.72855, -174.108, 6.68702, 65.8327, 0.0640358, 54.7412
0, 3360.00000, 124.022, -31.2734, 123.911, -151.034, 124.68, 88.9067, 0, 0, 6.72252, -54.3473, 6.72855, -174.108, 6.68702, 65.8327, 0.0640358, 54.7412
0, 3420.00000, 124.022, -31.2734, 123.911, -151.034, 124.68, 88.9067, 0, 0, 6.72252, -54.3473, 6.72855, -174.108, 6.68702, 65.8327, 0.0640358, 54.7412
0, 3480.00000, 124.022, -31.2734, 123.911, -151.034, 124.68, 88.9067, 0, 0, 6.72252, -54.3473, 6.72855, -174.108, 6.68702, 65.8327, 0.0640358, 54.7412
0, 3540.00000, 124.022, -31.2734, 123.911, -151.034, 124.68, 88.9067, 0, 0, 6.72252, -54.3473, 6.72855, -174.108, 6.68702, 65.8327, 0.0640358, 54.7412
1, 0.00000, 124.022, -31.2734, 123.911, -151.034, 124.68, 88.9067, 0, 0, 6.72252, -54.3473, 6.72855, -174.108, 6.68702, 65.8327, 0.0640358, 54.7412
1, 60.00000, 124.188, -31.2494, 124.07, -151.01, 124.84, 88.9331, 0, 0, 6.16261, -54.3235, 6.16845, -174.084, 6.13041, 65.8589, 0.0585872, 54.2127
1, 120.00000, 124.188, -31.2494, 124.07, -151.01, 124.841, 88.9331, 0, 0, 6.16259, -54.3233, 6.16843, -174.084, 6.13035, 65.8592, 0.0586216, 54.196
1, 180.00000, 124.188, -31.2494, 124.07, -151.01, 124.841, 88.9331, 0, 0, 6.16259, -54.3233, 6.16843, -174.084, 6.13035, 65.8592, 0.0586225, 54.1957
1, 240.00000, 124.188, -31.2494, 124.07, -151.01, 124.841, 88.9331, 0, 0, 6.16259, -54.3233, 6.16843, -174.084, 6.13035, 65.8592, 0.0586225, 54.1957
1, 300.00000, 124.188, -31.2494, 124.07, -151.01, 124.841, 88.9331, 0, 0, 6.16259, -54.3233, 6.16843, -174.084, 6.13035, 65.8592, 0.0586225, 54.1957
1, 360.00000, 124.188, -31.2494, 124.07, -151.01, 124.841, 88.9331, 0, 0, 6.16259, -54.3233, 6.16843, -174.084, 6.13035, 65.8592, 0.0586225, 54.1957
1, 420.00000, 124.188, -31.2494, 124.07, -151.01, 124.841, 88.9331, 0, 0, 6.16259, -54.3233, 6.16843, -174.084, 6.13035, 65.8592, 0.0586225, 54.1957
1, 480.00000, 124.188, -31.2494, 124.07, -151.01, 124.841, 88.9331, 0, 0, 6.16259, -54.3233, 6.16843, -174.084, 6.13035, 65.8592, 0.0586225, 54.1957
1, 540.00000, 124.188, -31.2494, 124.07, -151.01, 124.841, 88.9331, 0, 0, 6.16259, -54.3233, 6.16843, -174.084, 6.13035, 65.8592, 0.0586225, 54.1957
1, 600.00000, 124.188, -31.2494, 124.07, -151.01, 124.841, 88.9331, 0, 0, 6.16259, -54.3233, 6.16843, -174.084, 6.13035, 65.8592, 0.0586225, 54.1957
1, 660.00000, 124.188, -31.2494, 124.07, -151.01, 124.841, 88.9331, 0, 0, 6.16259, -54.3233, 6.16843, -174.084, 6.13035, 65.8592, 0.0586225, 54.1957
1, 720.00000, 124.188, -31.2494, 124.07, -151.01, 124.841, 88.9331, 0, 0, 6.16259, -54.3233, 6.16843, -174.084, 6.13035, 65.8592, 0.0586225, 54.1957
1, 780.00000, 124.188, -31.2494, 124.07, -151.01, 124.841, 88.9331, 0, 0, 6.16259, -54.3233, 6.16843, -174.084, 6.13035, 65.8592, 0.0586225, 54.1957
1, 840.00000, 124.188, -31.2494, 124.07, -151.01, 124.841, 88.9331, 0, 0, 6.16259, -54.3233, 6.16843, -174.084, 6.13035, 65.8592, 0.0586225, 54.1957
1, 900.00000, 124.188, -31.2494, 124.07, -151.01, 124.841, 88.9331, 0, 0, 6.16259, -54.3233, 6.16843, -174.084, 6.13035, 65.8592, 0.0586225, 54.1957
1, 960.00000, 124.202, -31.2443, 124.084, -151.005, 124.854, 88.9385, 0, 0, 6.22649, -54.3185, 6.23241, -174.079, 6.19396, 65.8642, 0.0592173, 54.1583
1, 1020.00000, 124.202, -31.2443, 124.084, -151.005, 124.855, 88.9385, 0, 0, 6.22642, -54.3182, 6.23235, -174.079, 6.19387, 65.8646, 0.0592335, 54.1414
1, 1080.00000, 124.202, -31.2443, 124.084, -151.005, 124.855, 88.9385, 0, 0, 6.22642, -54.3182, 6.23235, -174.079, 6.19387, 65.8646, 0.0592344, 54.1411
1, 1140.00000, 124.202, -31.2443, 124.084, -151.005, 124.855, 88.9385, 0, 0, 6.22642, -54.3182, 6.23235, -174.079, 6.19387, 65.8646, 0.0592345, 54.1411
1, 1200.00000, 124.202, -31.2443, 124.084, -151.005, 124.855, 88.9385, 0, 0, 6.22642, -54.3182, 6.23235, -174.079, 6.19387, 65.8646, 0.0592345, 54.1411
1, 1260.00000, 124.202, -31.2443, 124.084, -151.005, 124.855, 88.9385, 0, 0, 6.22642, -54.3182, 6.23235, -174.079, 6.19387, 65.8646, 0.0592345, 54.1411
1, 1320.00000, 124.202, -31.2443, 124.084, -151.005, 124.855, 88.9385, 0, 0, 6.22642, -54.3182, 6.23235, -174.079, 6.19387, 65.8646, 0.0592345, 54.1411
1, 1380.00000, 124.202, -31.2443, 124.084, -151.005, 124.855, 88.9385, 0, 0, 6.22642, -54.3182, 6.23235, -174.079, 6.19387, 65.8646, 0.0592345, 54.1411
1, 1440.00000, 124.202, -31.2443, 124.084, -151.005, 124.855, 88.9385, 0, 0, 6.22642, -54.3182, 6.23235, -174.079, 6.19387, 65.8646, 0.0592345, 54.1411
1, 1500.00000, 124.202, -31.2443, 124.084, -151.005, 124.855, 88.9385, 0, 0, 6.22642, -54.3182, 6.23235, -174.079, 6.19387, 65.8646, 0.0592345, 54.1411
1, 1560.00000, 124.202, -31.2443, 124.084, -151.005, 124.855, 88.9385, 0, 0, 6.22642, -54.3182, 6.23235, -174.079, 6.19387, 65.8646, 0.0592345, 54.1411
1, 1620.00000, 124.202, -31.2443, 124.084, -151.005, 124.855, 88.9385, 0, 0, 6.22642, -54.3182, 6.23235, -174.079, 6.19387, 65.8646, 0.0592345, 54.1411
1, 1680.00000, 124.202, -31.2443, 124.084, -151.005, 124.855, 88.9385, 0, 0, 6.22642, -54.3182, 6.23235, -174.079, 6.19387, 65.8646, 0.0592345, 54.1411
1, 1740.00000, 124.202, -31.2443, 124.084, -151.005, 124.855, 88.9385, 0, 0, 6.22642, -54.3182, 6.23235, -174.079, 6.19387, 65.8646, 0.0592345, 54.1411
1, 1800.00000, 124.202, -31.2443, 124.084, -151.005, 124.855, 88.9385, 0, 0, 6.22642, -54.3182, 6.23235, -174.079, 6.19387, 65.8646, 0.0592345, 54.1411
1, 1860.00000, 124.051, -31.2674, 123.938, -151.028, 124.709, 88.9131, 0, 0, 6.63239, -54.3412, 6.6384, -174.102, 6.59735, 65.8394, 0.0632313, 54.6356
1, 1920.00000, 124.051, -31.2674, 123.938, -151.028, 124.709, 88.9131, 0, 0, 6.63242, -54.3413, 6.63842, -174.102, 6.59741, 65.8391, 0.0631964, 54.6519
1, 1980.00000, 124.051, -31.2674, 123.938, -151.028, 124.709, 88.9131, 0, 0, 6.63242, -54.3413, 6.63842, -174.102, 6.59741, 65.8391, 0.0631954, 54.6522
1, 2040.00000, 124.051, -31.2674, 123.938, -151.028, 124.709, 88.9131, 0, 0, 6.63242, -54.3413, 6.63842, -174.102, 6.59741, 65.8391, 0.0631954, 54.6522
1, 2100.00000, 124.051, -31.2674, 123.938, -151.028, 124.709, 88.9131, 0, 0, 6.63242, -54.3413, 6.63842, -174.102, 6.59741, 65.8391, 0.0631954, 54.6522
1, 2160.00000, 124.051, -31.2674, 123.938, -151.028, 124.709, 88.9131, 0, 0, 6.63242, -54.3413, 6.63842, -174.102, 6.59741, 65.8391, 0.0631954, 54.6522
1, 2220.00000, 124.051, -31.2674, 123.938, -151.028, 124.709, 88.9131, 0, 0, 6.63242, -54.3413, 6.63842, -174.102, 6.59741, 65.8391, 0.0631954, 54.6522
1, 2280.00000, 124.051, -31.2674, 123.938, -151.028, 124.709, 88.9131, 0, 0, 6.63242, -54.3413, 6.63842, -174.102, 6.59741, 65.8391, 0.0631954, 54.6522
1, 2340.00000, 124.051, -31.2674, 123.938, -151.028, 124.709, 88.9131, 0, 0, 6.63242, -54.3413, 6.63842, -174.102, 6.59741, 65.8391, 0.0631954, 54.6522
1, 2400.00000, 124.051, -31.2674, 123.938, -151.028, 124.709, 88.9131, 0, 0, 6.63242, -54.3413, 6.63842, -174.102, 6.59741, 65.8391, 0.0631954, 54.6522
1, 2460.00000, 124.051, -31.2674, 123.938, -151.028, 124.709, 88.9131, 0, 0, 6.63242, -54.3413, 6.63842, -174.102, 6.59741, 65.8391, 0.0631954, 54.6522
1, 2520.00000, 124.051, -31.2674, 123.938, -151.028, 124.709, 88.9131, 0, 0, 6.63242, -54.3413, 6.63842, -174.102, 6.59741, 65.8391, 0.0631954, 54.6522
1, 2580.00000, 124.051, -31.2674, 123.938, -151.028, 124.709, 88.9131, 0, 0, 6.63242, -54.3413, 6.63842, -174.102, 6.59741, 65.8391, 0.0631954, 54.6522
1, 2640.00000, 124.051, -31.2674, 123.938, -151.028, 124.709, 88.9131, 0, 0, 6.63242, -54.3413, 6.63842, -174.102, 6.59741, 65.8391, 0.0631954, 54.6522
1, 2700.00000, 124.051, -31.2674, 123.938, -151.028, 124.709, 88.9131, 0, 0, 6.63242, -54.3413, 6.63842, -174.102, 6.59741, 65.8391, 0.0631954, 54.6522
1, 2760.00000, 124.319, -31.2163, 124.197, -150.977, 124.969, 88.9685, 0, 0, 6.2475, -54.2905, 6.25361, -174.051, 6.21505, 65.8941, 0.059381, 53.8391
1, 2820.00000, 124.319, -31.2163, 124.197, -150.977, 124.97, 88.9686, 0, 0, 6.24746, -54.2902, 6.25355, -174.051, 6.21492, 65.8946, 0.0594458, 53.8246
1, 2880.00000, 124.319, -31.2163, 124.197, -150.977, 124.97, 88.9686, 0, 0, 6.24746, -54.2902, 6.25355, -174.051, 6.21492, 65.8946, 0.0594475, 53.8245
1, 2940.00000, 124.319, -31.2163, 124.197, -150.977, 124.97, 88.9686, 0, 0, 6.24746, -54.2902, 6.25355, -174.051, 6.21492, 65.8946, 0.0594476, 53.8245
1, 3000.00000, 124.319, -31.2163, 124.197, -150.977, 124.97, 88.9686, 0, 0, 6.24746, -54.2902, 6.25355, -174.051, 6.21492, 65.8946, 0.0594476, 53.8245
1, 3060.00000, 124.319, -31.2163, 124.197, -150.977, 124.97, 88.9686, 0, 0, 6.24746, -54.2902, 6.25355, -174.051, 6.21492, 65.8946, 0.0594476, 53.8245
1, 3120.00000, 124.319, -31.2163, 124.197, -150.977, 124.97, 88.9686, 0, 0, 6.24746, -54.2902, 6.25355, -174.051, 6.21492, 65.8946, 0.0594476, 53.8245
1, 3180.00000, 124.319, -31.2163, 124.197, -150.977, 124.97, 88.9686, 0, 0, 6.24746, -54.2902, 6.25355, -174.051, 6.21492, 65.8946, 0.0594476, 53.8245
1, 3240.00000, 124.319, -31.2163, 124.197, -150.977, 124.97, 88.9686, 0, 0, 6.24746, -54.2902, 6.25355, -174.051, 6.21492, 65.8946, 0.0594476, 53.8245
1, 3300.00000, 124.319, -31.2163, 124.197, -150.977, 124.97, 88.9686, 0, 0, 6.24746, -54.2902, 6.25355, -174.051, 6.21492, 65.8946, 0.0594476, 53.8245
1, 3360.00000, 124.319, -31.2163, 124.197, -150.977, 124.97, 88.9686, 0, 0, 6.24746, -54.2902, 6.25355, -174.051, 6.21492, 65.8946, 0.0594476, 53.8245
1, 3420.00000, 124.319, -31.2163, 124.197, -150.977, 124.97, 88.9686, 0, 0, 6.24746, -54.2902, 6.25355, -174.051, 6.21492, 65.8946, 0.0594476, 53.8245
1, 3480.00000, 124.319, -31.2163, 124.197, -150.977, 124.97, 88.9686, 0, 0, 6.24746, -54.2902, 6.25355, -174.051, 6.21492, 65.8946, 0.0594476, 53.8245
1, 3540.00000, 124.319, -31.2163, 124.197, -150.977, 124.97, 88.9686, 0, 0, 6.24746, -54.2902, 6.25355, -174.051, 6.21492, 65.8946, 0.0594476, 53.8245
2, 0.00000, 124.319, -31.2163, 124.197, -150.977, 124.97, 88.9686, 0, 0, 6.24746, -54.2902, 6.25355, -174.051, 6.21492, 65.8946, 0.0594476, 53.8245
2, 60.00000, 124.143, -31.2458, 124.027, -151.007, 124.799, 88.9364, 0, 0, 6.65764, -54.3196, 6.66385, -174.081, 6.62257, 65.8627, 0.0634883, 54.3287
2, 120.00000, 124.142, -31.2458, 124.027, -151.007, 124.799, 88.9363, 0, 0, 6.65767, -54.3197, 6.66388, -174.081, 6.62265, 65.8624, 0.0634488, 54.3416
2, 180.00000, 124.142, -31.2458, 124.027, -151.007, 124.799, 88.9363, 0, 0, 6.65767, -54.3197, 6.66388, -174.081, 6.62265, 65.8624, 0.0634477, 54.3419
2, 240.00000, 124.142, -31.2458, 124.027, -151.007, 124.799, 88.9363, 0, 0, 6.65767, -54.3197, 6.66388, -174.081, 6.62265, 65.8624, 0.0634477, 54.3419
2, 300.00000, 124.142, -31.2458, 124.027, -151.007, 124.799, 88.9363, 0, 0, 6.65767, -54.3197, 6.66388, -174.081, 6.62265, 65.8624, 0.0634477, 54.3419
2, 360.00000, 124.142, -31.2458, 124.027, -151.007, 124.799, 88.9363, 0, 0, 6.65767, -54.3197, 6.66388, -174.081, 6.62265, 65.8624, 0.0634477, 54.3419
2, 420.00000, 124.142, -31.2458, 124.027, -151.007, 124.799, 88.9363, 0, 0, 6.65767, -54.3197, 6.66388, -174.081, 6.62265, 65.8624, 0.0634477, 54.3419
2, 480.00000, 124.142, -31.2458, 124.027, -151.007, 124.799, 88.9363, 0, 0, 6.65767, -54.3197, 6.66388, -174.081, 6.62265, 65.8624, 0.0634477, 54.3419
2, 540.00000, 124.142, -31.2458, 124.027, -151.007, 124.799, 88.9363, 0, 0, 6.65767, -54.3197, 6.66388, -174.081, 6.62265, 65.8624, 0.0634477, 54.3419
2, 600.00000, 124.142, -31.2458, 124.027, -151.007, 124.799, 88.9363, 0, 0, 6.65767, -54.3197, 6.66388, -174.081, 6.62265, 65.8624, 0.0634477, 54.3419
2, 660.00000, 124.142, -31.2458, 124.027, -151.007, 124.799, 88.9363, 0, 0, 6.65767, -54.3197, 6.66388, -174.081, 6.62265, 65.8624, 0.0634477, 54.3419
2, 720.00000, 124.142, -31.2458, 124.027, -151.007, 124.799, 88.9363, 0, 0, 6.65767, -54.3197, 6.66388, -174.081, 6.62265, 65.8624, 0.0634477, 54.3419
