hour,t(sec),V1,VAngle1,V2,VAngle2,V3,VAngle3,V4,VAngle4,I1,IAngle1,I2,IAngle2,I3,IAngle3,I4,IAngle4
0, 60.00000, 123.477, -31.5068, 123.655, -151.232, 124.325, 88.5818, 0, 0, 2.75446, -54.5805, 2.75049, -174.306, 2.73567, 65.508, 0.0288012, 77.0846
0, 120.00000, 123.477, -31.5068, 123.655, -151.232, 124.325, 88.5818, 0, 0, 2.75449, -54.5807, 2.75053, -174.306, 2.73569, 65.5079, 0.0288122, 77.0732
0, 180.00000, 123.477, -31.5068, 123.655, -151.232, 124.325, 88.5818, 0, 0, 2.75449, -54.5807, 2.75053, -174.306, 2.73569, 65.5079, 0.0288122, 77.0731
0, 240.00000, 123.477, -31.5068, 123.655, -151.232, 124.325, 88.5818, 0, 0, 2.75449, -54.5807, 2.75053, -174.306, 2.73569, 65.5079, 0.0288122, 77.0731
0, 300.00000, 123.477, -31.5068, 123.655, -151.232, 124.325, 88.5818, 0, 0, 2.75449, -54.5807, 2.75053, -174.306, 2.73569, 65.5079, 0.0288122, 77.0731
0, 360.00000, 123.477, -31.5068, 123.655, -151.232, 124.325, 88.5818, 0, 0, 2.75449, -54.5807, 2.75053, -174.306, 2.73569, 65.5079, 0.0288122, 77.0731
0, 420.00000, 123.477, -31.5068, 123.655, -151.232, 124.325, 88.5818, 0, 0, 2.75449, -54.5807, 2.75053, -174.306, 2.73569, 65.5079, 0.0288122, 77.0731
0, 480.00000, 124.011, -31.3879, 124.178, -151.113, 124.84, 88.7056, 0, 0, 2.47815, -54.4621, 2.47483, -174.187, 2.46169, 65.6313, 0.0255396, 76.4319
0, 540.00000, 124.011, -31.3879, 124.178, -151.113, 124.84, 88.7056, 0, 0, 2.47812, -54.4618, 2.47479, -174.187, 2.46165, 65.6317, 0.0255419, 76.4414
0, 600.00000, 124.011, -31.3879, 124.178, -151.113, 124.84, 88.7056, 0, 0, 2.47812, -54.4618, 2.47479, -174.187, 2.46165, 65.6317, 0.025542, 76.4415
0, 660.00000, 124.011, -31.3879, 124.178, -151.113, 124.84, 88.7056, 0, 0, 2.47812, -54.4618, 2.47479, -174.187, 2.46165, 65.6317, 0.025542, 76.4415
0, 720.00000, 124.011, -31.3879, 124.178, -151.113, 124.84, 88.7056, 0, 0, 2.47812, -54.4618, 2.47479, -174.187, 2.46165, 65.6317, 0.025542, 76.4415
0, 780.00000, 124.011, -31.3879, 124.178, -151.113, 124.84, 88.7056, 0, 0, 2.47812, -54.4618, 2.47479, -174.187, 2.46165, 65.6317, 0.025542, 76.4415
0, 840.00000, 124.011, -31.3879, 124.178, -151.113, 124.84, 88.7056, 0, 0, 2.47812, -54.4618, 2.47479, -174.187, 2.46165, 65.6317, 0.025542, 76.4415
0, 900.00000, 124.011, -31.3879, 124.178, -151.113, 124.84, 88.7056, 0, 0, 2.47812, -54.4618, 2.47479, -174.187, 2.46165, 65.6317, 0.025542, 76.4415
0, 960.00000, 124.011, -31.3879, 124.178, -151.113, 124.84, 88.7056, 0, 0, 2.47812, -54.4618, 2.47479, -174.187, 2.46165, 65.6317, 0.025542, 76.4415
0, 1020.00000, 124.011, -31.3879, 124.178, -151.113, 124.84, 88.7056, 0, 0, 2.47812, -54.4618, 2.47479, -174.187, 2.46165, 65.6317, 0.025542, 76.4415
0, 1080.00000, 124.011, -31.3879, 124.178, -151.113, 124.84, 88.7056, 0, 0, 2.47812, -54.4618, 2.47479, -174.187, 2.46165, 65.6317, 0.025542, 76.4415
0, 1140.00000, 124.011, -31.3879, 124.178, -151.113, 124.84, 88.7056, 0, 0, 2.47812, -54.4618, 2.47479, -174.187, 2.46165, 65.6317, 0.025542, 76.4415
0, 1200.00000, 124.011, -31.3879, 124.178, -151.113, 124.84, 88.7056, 0, 0, 2.47812, -54.4618, 2.47479, -174.187, 2.46165, 65.6317, 0.025542, 76.4415
0, 1260.00000, 124.011, -31.3879, 124.178, -151.113, 124.84, 88.7056, 0, 0, 2.47812, -54.4618, 2.47479, -174.187, 2.46165, 65.6317, 0.025542, 76.4415
0, 1320.00000, 124.011, -31.3879, 124.178, -151.113, 124.84, 88.7056, 0, 0, 2.47812, -54.4618, 2.47479, -174.187, 2.46165, 65.6317, 0.025542, 76.4415
0, 1380.00000, 124.011, -31.3879, 124.178, -151.113, 124.84, 88.7056, 0, 0, 2.47812, -54.4618, 2.47479, -174.187, 2.46165, 65.6317, 0.025542, 76.4415
0, 1440.00000, 124.011, -31.3879, 124.178, -151.113, 124.84, 88.7056, 0, 0, 2.47812, -54.4618, 2.47479, -174.187, 2.46165, 65.6317, 0.025542, 76.4415
0, 1500.00000, 124.011, -31.3879, 124.178, -151.113, 124.84, 88.7056, 0, 0, 2.47812, -54.4618, 2.47479, -174.187, 2.46165, 65.6317, 0.025542, 76.4415
0, 1560.00000, 124.011, -31.3879, 124.178, -151.113, 124.84, 88.7056, 0, 0, 2.47812, -54.4618, 2.47479, -174.187, 2.46165, 65.6317, 0.025542, 76.4415
0, 1620.00000, 124.011, -31.3879, 124.178, -151.113, 124.84, 88.7056, 0, 0, 2.47812, -54.4618, 2.47479, -174.187, 2.46165, 65.6317, 0.025542, 76.4415
0, 1680.00000, 124.011, -31.3879, 124.178, -151.113, 124.84, 88.7056, 0, 0, 2.47812, -54.4618, 2.47479, -174.187, 2.46165, 65.6317, 0.025542, 76.4415
0, 1740.00000, 124.011, -31.3879, 124.178, -151.113, 124.84, 88.7056, 0, 0, 2.47812, -54.4618, 2.47479, -174.187, 2.46165, 65.6317, 0.025542, 76.4415
0, 1800.00000, 124.011, -31.3879, 124.178, -151.113, 124.84, 88.7056, 0, 0, 2.47812, -54.4618, 2.47479, -174.187, 2.46165, 65.6317, 0.025542, 76.4415
0, 1860.00000, 124.011, -31.3879, 124.178, -151.113, 124.84, 88.7056, 0, 0, 2.47812, -54.4618, 2.47479, -174.187, 2.46165, 65.6317, 0.025542, 76.4415
0, 1920.00000, 124.011, -31.3879, 124.178, -151.113, 124.84, 88.7056, 0, 0, 2.47812, -54.4618, 2.47479, -174.187, 2.46165, 65.6317, 0.025542, 76.4415
0, 1980.00000, 124.011, -31.3879, 124.178, -151.113, 124.84, 88.7056, 0, 0, 2.47812, -54.4618, 2.47479, -174.187, 2.46165, 65.6317, 0.025542, 76.4415
0, 2040.00000, 124.011, -31.3879, 124.178, -151.113, 124.84, 88.7056, 0, 0, 2.47812, -54.4618, 2.47479, -174.187, 2.46165, 65.6317, 0.025542, 76.4415
0, 2100.00000, 124.011, -31.3879, 124.178, -151.113, 124.84, 88.7056, 0, 0, 2.47812, -54.4618, 2.47479, -174.187, 2.46165, 65.6317, 0.025542, 76.4415
0, 2160.00000, 124.011, -31.3879, 124.178, -151.113, 124.84, 88.7056, 0, 0, 2.47812, -54.4618, 2.47479, -174.187, 2.46165, 65.6317, 0.025542, 76.4415
0, 2220.00000, 124.011, -31.3879, 124.178, -151.113, 124.84, 88.7056, 0, 0, 2.47812, -54.4618, 2.47479, -174.187, 2.46165, 65.6317, 0.025542, 76.4415
0, 2280.00000, 124.011, -31.3879, 124.178, -151.113, 124.84, 88.7056, 0, 0, 2.47812, -54.4618, 2.47479, -174.187, 2.46165, 65.6317, 0.025542, 76.4415
0, 2340.00000, 124.011, -31.3879, 124.178, -151.113, 124.84, 88.7056, 0, 0, 2.47812, -54.4618, 2.47479, -174.187, 2.46165, 65.6317, 0.025542, 76.4415
0, 2400.00000, 124.011, -31.3879, 124.178, -151.113, 124.84, 88.7056, 0, 0, 2.47812, -54.4618, 2.47479, -174.187, 2.46165, 65.6317, 0.025542, 76.4415
0, 2460.00000, 124.011, -31.3879, 124.178, -151.113, 124.84, 88.7056, 0, 0, 2.47812, -54.4618, 2.47479, -174.187, 2.46165, 65.6317, 0.025542, 76.4415
0, 2520.00000, 124.011, -31.3879, 124.178, -151.113, 124.84, 88.7056, 0, 0, 2.47812, -54.4618, 2.47479, -174.187, 2.46165, 65.6317, 0.025542, 76.4415
0, 2580.00000, 124.011, -31.3879, 124.178, -151.113, 124.84, 88.7056, 0, 0, 2.47812, -54.4618, 2.47479, -174.187, 2.46165, 65.6317, 0.025542, 76.4415
0, 2640.00000, 124.011, -31.3879, 124.178, -151.113, 124.84, 88.7056, 0, 0, 2.47812, -54.4618, 2.47479, -174.187, 2.46165, 65.6317, 0.025542, 76.4415
0, 2700.00000, 124.011, -31.3879, 124.178, -151.113, 124.84, 88.7056, 0, 0, 2.47812, -54.4618, 2.47479, -174.187, 2.46165, 65.6317, 0.025542, 76.4415
0, 2760.00000, 124.011, -31.3879, 124.178, -151.113, 124.84, 88.7056, 0, 0, 2.47812, -54.4618, 2.47479, -174.187, 2.46165, 65.6317, 0.025542, 76.4415
0, 2820.00000, 124.011, -31.3879, 124.178, -151.113, 124.84, 88.7056, 0, 0, 2.47812, -54.4618, 2.47479, -174.187, 2.46165, 65.6317, 0.025542, 76.4415
0, 2880.00000, 124.011, -31.3879, 124.178, -151.113, 124.84, 88.7056, 0, 0, 2.47812, -54.4618, 2.47479, -174.187, 2.46165, 65.6317, 0.025542, 76.4415
0, 2940.00000, 124.011, -31.3879, 124.178, -151.113, 124.84, 88.7056, 0, 0, 2.47812, -54.4618, 2.47479, -174.187, 2.46165, 65.6317, 0.025542, 76.4415
0, 3000.00000, 124.011, -31.3879, 124.178, -151.113, 124.84, 88.7056, 0, 0, 2.47812, -54.4618, 2.47479, -174.187, 2.46165, 65.6317, 0.025542, 76.4415
0, 3060.00000, 124.011, -31.3879, 124.178, -151.113, 124.84, 88.7056, 0, 0, 2.47812, -54.4618, 2.47479, -174.187, 2.46165, 65.6317, 0.025542, 76.4415
0, 3120.00000, 124.011, -31.3879, 124.178, -151.113, 124.84, 88.7056, 0, 0, 2.47812, -54.4618, 2.47479, -174.187, 2.46165, 65.6317, 0.025542, 76.4415
0, 3180.00000, 124.011, -31.3879, 124.178, -151.113, 124.84, 88.7056, 0, 0, 2.47812, -54.4618, 2.47479, -174.187, 2.46165, 65.6317, 0.025542, 76.4415
0, 3240.00000, 124.011, -31.3879, 124.178, -151.113, 124.84, 88.7056, 0, 0, 2.47812, -54.4618, 2.47479, -174.187, 2.46165, 65.6317, 0.025542, 76.4415
0, 3300.00000, 124.011, -31.3879, 124.178, -151.113, 124.84, 88.7056, 0, 0, 2.47812, -54.4618, 2.47479, -174.187, 2.46165, 65.6317, 0.025542, 76.4415
0, 3360.00000, 124.011, -31.3879, 124.178, -151.113, 124.84, 88.7056, 0, 0, 2.47812, -54.4618, 2.47479, -174.187, 2.46165, 65.6317, 0.025542, 76.4415
0, 3420.00000, 124.011, -31.3879, 124.178, -151.113, 124.84, 88.7056, 0, 0, 2.47812, -54.4618, 2.47479, -174.187, 2.46165, 65.6317, 0.025542, 76.4415
0, 3480.00000, 124.011, -31.3879, 124.178, -151.113, 124.84, 88.7056, 0, 0, 2.47812, -54.4618, 2.47479, -174.187, 2.46165, 65.6317, 0.025542, 76.4415
0, 3540.00000, 124.011, -31.3879, 124.178, -151.113, 124.84, 88.7056, 0, 0, 2.47812, -54.4618, 2.47479, -174.187, 2.46165, 65.6317, 0.025542, 76.4415
1, 0.00000, 124.011, -31.3879, 124.178, -151.113, 124.84, 88.7056, 0, 0, 2.47812, -54.4618, 2.47479, -174.187, 2.46165, 65.6317, 0.025542, 76.4415
1, 60.00000, 124.011, -31.3879, 124.178, -151.113, 124.84, 88.7056, 0, 0, 2.47812, -54.4618, 2.47479, -174.187, 2.46165, 65.6317, 0.025542, 76.4415
1, 120.00000, 124.011, -31.3879, 124.178, -151.113, 124.84, 88.7056, 0, 0, 2.47812, -54.4618, 2.47479, -174.187, 2.46165, 65.6317, 0.025542, 76.4415
1, 180.00000, 124.011, -31.3879, 124.178, -151.113, 124.84, 88.7056, 0, 0, 2.47812, -54.4618, 2.47479, -174.187, 2.46165, 65.6317, 0.025542, 76.4415
1, 240.00000, 124.011, -31.3879, 124.178, -151.113, 124.84, 88.7056, 0, 0, 2.47812, -54.4618, 2.47479, -174.187, 2.46165, 65.6317, 0.025542, 76.4415
1, 300.00000, 124.011, -31.3879, 124.178, -151.113, 124.84, 88.7056, 0, 0, 2.47812, -54.4618, 2.47479, -174.187, 2.46165, 65.6317, 0.025542, 76.4415
1, 360.00000, 124.011, -31.3879, 124.178, -151.113, 124.84, 88.7056, 0, 0, 2.47812, -54.4618, 2.47479, -174.187, 2.46165, 65.6317, 0.025542, 76.4415
1, 420.00000, 124.011, -31.3879, 124.178, -151.113, 124.84, 88.7056, 0, 0, 2.47812, -54.4618, 2.47479, -174.187, 2.46165, 65.6317, 0.025542, 76.4415
1, 480.00000, 124.011, -31.3879, 124.178, -151.113, 124.84, 88.7056, 0, 0, 2.47812, -54.4618, 2.47479, -174.187, 2.46165, 65.6317, 0.025542, 76.4415
1, 540.00000, 124.011, -31.3879, 124.178, -151.113, 124.84, 88.7056, 0, 0, 2.47812, -54.4618, 2.47479, -174.187, 2.46165, 65.6317, 0.025542, 76.4415
1, 600.00000, 124.011, -31.3879, 124.178, -151.113, 124.84, 88.7056, 0, 0, 2.47812, -54.4618, 2.47479, -174.187, 2.46165, 65.6317, 0.025542, 76.4415
1, 660.00000, 124.011, -31.3879, 124.178, -151.113, 124.84, 88.7056, 0, 0, 2.47812, -54.4618, 2.47479, -174.187, 2.46165, 65.6317, 0.025542, 76.4415
1, 720.00000, 124.011, -31.3879, 124.178, -151.113, 124.84, 88.7056, 0, 0, 2.47812, -54.4618, 2.47479, -174.187, 2.46165, 65.6317, 0.025542, 76.4415
1, 780.00000, 124.011, -31.3879, 124.178, -151.113, 124.84, 88.7056, 0, 0, 2.47812, -54.4618, 2.47479, -174.187, 2.46165, 65.6317, 0.025542, 76.4415
1, 840.00000, 124.011, -31.3879, 124.178, -151.113, 124.84, 88.7056, 0, 0, 2.47812, -54.4618, 2.47479, -174.187, 2.46165, 65.6317, 0.025542, 76.4415
1, 900.00000, 124.011, -31.3879, 124.178, -151.113, 124.84, 88.7056, 0, 0, 2.47812, -54.4618, 2.47479, -174.187, 2.46165, 65.6317, 0.025542, 76.4415
1, 960.00000, 124.011, -31.3879, 124.178, -151.113, 124.84, 88.7056, 0, 0, 2.47812, -54.4618, 2.47479, -174.187, 2.46165, 65.6317, 0.025542, 76.4415
1, 1020.00000, 124.011, -31.3879, 124.178, -151.113, 124.84, 88.7056, 0, 0, 2.47812, -54.4618, 2.47479, -174.187, 2.46165, 65.6317, 0.025542, 76.4415
1, 1080.00000, 124.011, -31.3879, 124.178, -151.113, 124.84, 88.7056, 0, 0, 2.47812, -54.4618, 2.47479, -174.187, 2.46165, 65.6317, 0.025542, 76.4415
1, 1140.00000, 124.011, -31.3879, 124.178, -151.113, 124.84, 88.7056, 0, 0, 2.47812, -54.4618, 2.47479, -174.187, 2.46165, 65.6317, 0.025542, 76.4415
1, 1200.00000, 124.011, -31.3879, 124.178, -151.113, 124.84, 88.7056, 0, 0, 2.47812, -54.4618, 2.47479, -174.187, 2.46165, 65.6317, 0.025542, 76.4415
1, 1260.00000, 124.011, -31.3879, 124.178, -151.113, 124.84, 88.7056, 0, 0, 2.47812, -54.4618, 2.47479, -174.187, 2.46165, 65.6317, 0.025542, 76.4415
1, 1320.00000, 124.011, -31.3879, 124.178, -151.113, 124.84, 88.7056, 0, 0, 2.47812, -54.4618, 2.47479, -174.187, 2.46165, 65.6317, 0.025542, 76.4415
1, 1380.00000, 124.011, -31.3879, 124.178, -151.113, 124.84, 88.7056, 0, 0, 2.47812, -54.4618, 2.47479, -174.187, 2.46165, 65.6317, 0.025542, 76.4415
1, 1440.00000, 124.011, -31.3879, 124.178, -151.113, 124.84, 88.7056, 0, 0, 2.47812, -54.4618, 2.47479, -174.187, 2.46165, 65.6317, 0.025542, 76.4415
1, 1500.00000, 124.011, -31.3879, 124.178, -151.113, 124.84, 88.7056, 0, 0, 2.47812, -54.4618, 2.47479, -174.187, 2.46165, 65.6317, 0.025542, 76.4415
1, 1560.00000, 124.011, -31.3879, 124.178, -151.113, 124.84, 88.7056, 0, 0, 2.47812, -54.4618, 2.47479, -174.187, 2.46165, 65.6317, 0.025542, 76.4415
1, 1620.00000, 124.011, -31.3879, 124.178, -151.113, 124.84, 88.7056, 0, 0, 2.47812, -54.4618, 2.47479, -174.187, 2.46165, 65.6317, 0.025542, 76.4415
1, 1680.00000, 124.011, -31.3879, 124.178, -151.113, 124.84, 88.7056, 0, 0, 2.47812, -54.4618, 2.47479, -174.187, 2.46165, 65.6317, 0.025542, 76.4415
1, 1740.00000, 124.011, -31.3879, 124.178, -151.113, 124.84, 88.7056, 0, 0, 2.47812, -54.4618, 2.47479, -174.187, 2.46165, 65.6317, 0.025542, 76.4415
1, 1800.00000, 124.011, -31.3879, 124.178, -151.113, 124.84, 88.7056, 0, 0, 2.47812, -54.4618, 2.47479, -174.187, 2.46165, 65.6317, 0.025542, 76.4415
1, 1860.00000, 124.011, -31.3879, 124.178, -151.113, 124.84, 88.7056, 0, 0, 2.47812, -54.4618, 2.47479, -174.187, 2.46165, 65.6317, 0.025542, 76.4415
1, 1920.00000, 124.011, -31.3879, 124.178, -151.113, 124.84, 88.7056, 0, 0, 2.47812, -54.4618, 2.47479, -174.187, 2.46165, 65.6317, 0.025542, 76.4415
1, 1980.00000, 124.011, -31.3879, 124.178, -151.113, 124.84, 88.7056, 0, 0, 2.47812, -54.4618, 2.47479, -174.187, 2.46165, 65.6317, 0.025542, 76.4415
1, 2040.00000, 124.011, -31.3879, 124.178, -151.113, 124.84, 88.7056, 0, 0, 2.47812, -54.4618, 2.47479, -174.187, 2.46165, 65.6317, 0.025542, 76.4415
1, 2100.00000, 124.011, -31.3879, 124.178, -151.113, 124.84, 88.7056, 0, 0, 2.47812, -54.4618, 2.47479, -174.187, 2.46165, 65.6317, 0.025542, 76.4415
1, 2160.00000, 124.011, -31.3879, 124.178, -151.113, 124.84, 88.7056, 0, 0, 2.47812, -54.4618, 2.47479, -174.187, 2.46165, 65.6317, 0.025542, 76.4415
1, 2220.00000, 124.011, -31.3879, 124.178, -151.113, 124.84, 88.7056, 0, 0, 2.47812, -54.4618, 2.47479, -174.187, 2.46165, 65.6317, 0.025542, 76.4415
1, 2280.00000, 124.011, -31.3879, 124.178, -151.113, 124.84, 88.7056, 0, 0, 2.47812, -54.4618, 2.47479, -174.187, 2.46165, 65.6317, 0.025542, 76.4415
1, 2340.00000, 124.011, -31.3879, 124.178, -151.113, 124.84, 88.7056, 0, 0, 2.47812, -54.4618, 2.47479, -174.187, 2.46165, 65.6317, 0.025542, 76.4415
1, 2400.00000, 124.011, -31.3879, 124.178, -151.113, 124.84, 88.7056, 0, 0, 2.47812, -54.4618, 2.47479, -174.187, 2.46165, 65.6317, 0.025542, 76.4415
1, 2460.00000, 124.011, -31.3879, 124.178, -151.113, 124.84, 88.7056, 0, 0, 2.47812, -54.4618, 2.47479, -174.187, 2.46165, 65.6317, 0.025542, 76.4415
1, 2520.00000, 124.011, -31.3879, 124.178, -151.113, 124.84, 88.7056, 0, 0, 2.47812, -54.4618, 2.47479, -174.187, 2.46165, 65.6317, 0.025542, 76.4415
1, 2580.00000, 124.011, -31.3879, 124.178, -151.113, 124.84, 88.7056, 0, 0, 2.47812, -54.4618, 2.47479, -174.187, 2.46165, 65.6317, 0.025542, 76.4415
1, 2640.00000, 124.011, -31.3879, 124.178, -151.113, 124.84, 88.7056, 0, 0, 2.47812, -54.4618, 2.47479, -174.187, 2.46165, 65.6317, 0.025542, 76.4415
1, 2700.00000, 124.011, -31.3879, 124.178, -151.113, 124.84, 88.7056, 0, 0, 2.47812, -54.4618, 2.47479, -174.187, 2.46165, 65.6317, 0.025542, 76.4415
1, 2760.00000, 124.011, -31.3879, 124.178, -151.113, 124.84, 88.7056, 0, 0, 2.47812, -54.4618, 2.47479, -174.187, 2.46165, 65.6317, 0.025542, 76.4415
1, 2820.00000, 124.011, -31.3879, 124.178, -151.113, 124.84, 88.7056, 0, 0, 2.47812, -54.4618, 2.47479, -174.187, 2.46165, 65.6317, 0.025542, 76.4415
1, 2880.00000, 124.011, -31.3879, 124.178, -151.113, 124.84, 88.7056, 0, 0, 2.47812, -54.4618, 2.47479, -174.187, 2.46165, 65.6317, 0.025542, 76.4415
1, 2940.00000, 124.011, -31.3879, 124.178, -151.113, 124.84, 88.7056, 0, 0, 2.47812, -54.4618, 2.47479, -174.187, 2.46165, 65.6317, 0.025542, 76.4415
1, 3000.00000, 124.011, -31.3879, 124.178, -151.113, 124.84, 88.7056, 0, 0, 2.47812, -54.4618, 2.47479, -174.187, 2.46165, 65.6317, 0.025542, 76.4415
1, 3060.00000, 124.011, -31.3879, 124.178, -151.113, 124.84, 88.7056, 0, 0, 2.47812, -54.4618, 2.47479, -174.187, 2.46165, 65.6317, 0.025542, 76.4415
1, 3120.00000, 124.011, -31.3879, 124.178, -151.113, 124.84, 88.7056, 0, 0, 2.47812, -54.4618, 2.47479, -174.187, 2.46165, 65.6317, 0.025542, 76.4415
1, 3180.00000, 124.011, -31.3879, 124.178, -151.113, 124.84, 88.7056, 0, 0, 2.47812, -54.4618, 2.47479, -174.187, 2.46165, 65.6317, 0.025542, 76.4415
1, 3240.00000, 124.011, -31.3879, 124.178, -151.113, 124.84, 88.7056, 0, 0, 2.47812, -54.4618, 2.47479, -174.187, 2.46165, 65.6317, 0.025542, 76.4415
1, 3300.00000, 124.011, -31.3879, 124.178, -151.113, 124.84, 88.7056, 0, 0, 2.47812, -54.4618, 2.47479, -174.187, 2.46165, 65.6317, 0.025542, 76.4415
1, 3360.00000, 124.011, -31.3879, 124.178, -151.113, 124.84, 88.7056, 0, 0, 2.47812, -54.4618, 2.47479, -174.187, 2.46165, 65.6317, 0.025542, 76.4415
1, 3420.00000, 124.011, -31.3879, 124.178, -151.113, 124.84, 88.7056, 0, 0, 2.47812, -54.4618, 2.47479, -174.187, 2.46165, 65.6317, 0.025542, 76.4415
1, 3480.00000, 124.011, -31.3879, 124.178, -151.113, 124.84, 88.7056, 0, 0, 2.47812, -54.4618, 2.47479, -174.187, 2.46165, 65.6317, 0.025542, 76.4415
1, 3540.00000, 124.011, -31.3879, 124.178, -151.113, 124.84, 88.7056, 0, 0, 2.47812, -54.4618, 2.47479, -174.187, 2.46165, 65.6317, 0.025542, 76.4415
2, 0.00000, 124.011, -31.3879, 124.178, -151.113, 124.84, 88.7056, 0, 0, 2.47812, -54.4618, 2.47479, -174.187, 2.46165, 65.6317, 0.025542, 76.4415
2, 60.00000, 124.011, -31.3879, 124.178, -151.113, 124.84, 88.7056, 0, 0, 2.47812, -54.4618, 2.47479, -174.187, 2.46165, 65.6317, 0.025542, 76.4415
2, 120.00000, 124.011, -31.3879, 124.178, -151.113, 124.84, 88.7056, 0, 0, 2.47812, -54.4618, 2.47479, -174.187, 2.46165, 65.6317, 0.025542, 76.4415
2, 180.00000, 124.011, -31.3879, 124.178, -151.113, 124.84, 88.7056, 0, 0, 2.47812, -54.4618, 2.47479, -174.187, 2.46165, 65.6317, 0.025542, 76.4415
2, 240.00000, 124.011, -31.3879, 124.178, -151.113, 124.84, 88.7056, 0, 0, 2.47812, -54.4618, 2.47479, -174.187, 2.46165, 65.6317, 0.025542, 76.4415
2, 300.00000, 124.011, -31.3879, 124.178, -151.113, 124.84, 88.7056, 0, 0, 2.47812, -54.4618, 2.47479, -174.187, 2.46165, 65.6317, 0.025542, 76.4415
2, 360.00000, 124.011, -31.3879, 124.178, -151.113, 124.84, 88.7056, 0, 0, 2.47812, -54.4618, 2.47479, -174.187, 2.46165, 65.6317, 0.025542, 76.4415
2, 420.00000, 124.011, -31.3879, 124.178, -151.113, 124.84, 88.7056, 0, 0, 2.47812, -54.4618, 2.47479, -174.187, 2.46165, 65.6317, 0.025542, 76.4415
2, 480.00000, 124.011, -31.3879, 124.178, -151.113, 124.84, 88.7056, 0, 0, 2.47812, -54.4618, 2.47479, -174.187, 2.46165, 65.6317, 0.025542, 76.4415
2, 540.00000, 124.011, -31.3879, 124.178, -151.113, 124.84, 88.7056, 0, 0, 2.47812, -54.4618, 2.47479, -174.187, 2.46165, 65.6317, 0.025542, 76.4415
2, 600.00000, 124.011, -31.3879, 124.178, -151.113, 124.84, 88.7056, 0, 0, 2.47812, -54.4618, 2.47479, -174.187, 2.46165, 65.6317, 0.025542, 76.4415
2, 660.00000, 124.011, -31.3879, 124.178, -151.113, 124.84, 88.7056, 0, 0, 2.47812, -54.4618, 2.47479, -174.187, 2.46165, 65.6317, 0.025542, 76.4415
2, 720.00000, 124.011, -31.3879, 124.178, -151.113, 124.84, 88.7056, 0, 0, 2.47812, -54.4618, 2.47479, -174.187, 2.46165, 65.6317, 0.025542, 76.4415
