hour,t(sec),"P1 (kW)","Q1 (kvar)","P2 (kW)","Q2 (kvar)","P3 (kW)","Q3 (kvar)","P4 (kW)","Q4 (kvar)"
0, 60.00000, 0.316184, 0.134692, 0.315531, 0.134415, 0.322135, 0.137227, 0, 0
0, 120.00000, 0.316181, 0.134692, 0.315529, 0.134415, 0.322126, 0.137225, 0, 0
0, 180.00000, 0.316181, 0.134692, 0.315529, 0.134415, 0.322126, 0.137225, 0, 0
0, 240.00000, 0.316181, 0.134692, 0.315529, 0.134415, 0.322126, 0.137225, 0, 0
0, 300.00000, 0.316181, 0.134692, 0.315529, 0.134415, 0.322126, 0.137225, 0, 0
0, 360.00000, 0.316181, 0.134692, 0.315529, 0.134415, 0.322126, 0.137225, 0, 0
0, 420.00000, 0.316181, 0.134692, 0.315529, 0.134415, 0.322126, 0.137225, 0, 0
0, 480.00000, 0.316181, 0.134692, 0.315529, 0.134415, 0.322126, 0.137225, 0, 0
0, 540.00000, 0.316181, 0.134692, 0.315529, 0.134415, 0.322126, 0.137225, 0, 0
0, 600.00000, 0.316181, 0.134692, 0.315529, 0.134415, 0.322126, 0.137225, 0, 0
0, 660.00000, 0.316181, 0.134692, 0.315529, 0.134415, 0.322126, 0.137225, 0, 0
0, 720.00000, 0.316181, 0.134692, 0.315529, 0.134415, 0.322126, 0.137225, 0, 0
0, 780.00000, 0.316181, 0.134692, 0.315529, 0.134415, 0.322126, 0.137225, 0, 0
0, 840.00000, 0.316181, 0.134692, 0.315529, 0.134415, 0.322126, 0.137225, 0, 0
0, 900.00000, 0.316181, 0.134692, 0.315529, 0.134415, 0.322126, 0.137225, 0, 0
0, 960.00000, 0.363029, 0.154649, 0.361097, 0.153826, 0.370442, 0.157807, 0, 0
0, 1020.00000, 0.363027, 0.154649, 0.361094, 0.153825, 0.370439, 0.157806, 0, 0
0, 1080.00000, 0.363027, 0.154649, 0.361094, 0.153825, 0.370439, 0.157806, 0, 0
0, 1140.00000, 0.363027, 0.154649, 0.361094, 0.153825, 0.370439, 0.157806, 0, 0
0, 1200.00000, 0.363027, 0.154649, 0.361094, 0.153825, 0.370439, 0.157806, 0, 0
0, 1260.00000, 0.363027, 0.154649, 0.361094, 0.153825, 0.370439, 0.157806, 0, 0
0, 1320.00000, 0.363027, 0.154649, 0.361094, 0.153825, 0.370439, 0.157806, 0, 0
0, 1380.00000, 0.363027, 0.154649, 0.361094, 0.153825, 0.370439, 0.157806, 0, 0
0, 1440.00000, 0.363027, 0.154649, 0.361094, 0.153825, 0.370439, 0.157806, 0, 0
0, 1500.00000, 0.363027, 0.154649, 0.361094, 0.153825, 0.370439, 0.157806, 0, 0
0, 1560.00000, 0.363027, 0.154649, 0.361094, 0.153825, 0.370439, 0.157806, 0, 0
0, 1620.00000, 0.363027, 0.154649, 0.361094, 0.153825, 0.370439, 0.157806, 0, 0
0, 1680.00000, 0.363027, 0.154649, 0.361094, 0.153825, 0.370439, 0.157806, 0, 0
0, 1740.00000, 0.363027, 0.154649, 0.361094, 0.153825, 0.370439, 0.157806, 0, 0
0, 1800.00000, 0.363027, 0.154649, 0.361094, 0.153825, 0.370439, 0.157806, 0, 0
0, 1860.00000, 0.331659, 0.141294, 0.329834, 0.140509, 0.338346, 0.144141, 0, 0
0, 1920.00000, 0.331664, 0.141288, 0.329837, 0.14051, 0.338374, 0.144147, 0, 0
0, 1980.00000, 0.331664, 0.141288, 0.329837, 0.14051, 0.338374, 0.144147, 0, 0
0, 2040.00000, 0.331664, 0.141288, 0.329837, 0.14051, 0.338374, 0.144147, 0, 0
0, 2100.00000, 0.331664, 0.141288, 0.329837, 0.14051, 0.338374, 0.144147, 0, 0
0, 2160.00000, 0.331664, 0.141288, 0.329837, 0.14051, 0.338374, 0.144147, 0, 0
0, 2220.00000, 0.331664, 0.141288, 0.329837, 0.14051, 0.338374, 0.144147, 0, 0
0, 2280.00000, 0.331664, 0.141288, 0.329837, 0.14051, 0.338374, 0.144147, 0, 0
0, 2340.00000, 0.331664, 0.141288, 0.329837, 0.14051, 0.338374, 0.144147, 0, 0
0, 2400.00000, 0.331664, 0.141288, 0.329837, 0.14051, 0.338374, 0.144147, 0, 0
0, 2460.00000, 0.331664, 0.141288, 0.329837, 0.14051, 0.338374, 0.144147, 0, 0
0, 2520.00000, 0.331664, 0.141288, 0.329837, 0.14051, 0.338374, 0.144147, 0, 0
0, 2580.00000, 0.331664, 0.141288, 0.329837, 0.14051, 0.338374, 0.144147, 0, 0
0, 2640.00000, 0.331664, 0.141288, 0.329837, 0.14051, 0.338374, 0.144147, 0, 0
0, 2700.00000, 0.331664, 0.141288, 0.329837, 0.14051, 0.338374, 0.144147, 0, 0
0, 2760.00000, 0.323803, 0.137941, 0.321904, 0.13713, 0.330256, 0.14069, 0, 0
0, 2820.00000, 0.323804, 0.13794, 0.321904, 0.137131, 0.330262, 0.140691, 0, 0
0, 2880.00000, 0.323804, 0.13794, 0.321904, 0.137131, 0.330262, 0.140691, 0, 0
0, 2940.00000, 0.323804, 0.13794, 0.321904, 0.137131, 0.330262, 0.140691, 0, 0
0, 3000.00000, 0.323804, 0.13794, 0.321904, 0.137131, 0.330262, 0.140691, 0, 0
0, 3060.00000, 0.323804, 0.13794, 0.321904, 0.137131, 0.330262, 0.140691, 0, 0
0, 3120.00000, 0.323804, 0.13794, 0.321904, 0.137131, 0.330262, 0.140691, 0, 0
0, 3180.00000, 0.323804, 0.13794, 0.321904, 0.137131, 0.330262, 0.140691, 0, 0
0, 3240.00000, 0.323804, 0.13794, 0.321904, 0.137131, 0.330262, 0.140691, 0, 0
0, 3300.00000, 0.323804, 0.13794, 0.321904, 0.137131, 0.330262, 0.140691, 0, 0
0, 3360.00000, 0.323804, 0.13794, 0.321904, 0.137131, 0.330262, 0.140691, 0, 0
0, 3420.00000, 0.323804, 0.13794, 0.321904, 0.137131, 0.330262, 0.140691, 0, 0
0, 3480.00000, 0.323851, 0.137962, 0.322795, 0.137508, 0.332472, 0.141636, 0, 0
0, 3540.00000, 0.324304, 0.138153, 0.324395, 0.138193, 0.332484, 0.141638, 0, 0
1, 0.00000, 0.324304, 0.138153, 0.324398, 0.138193, 0.332483, 0.141637, 0, 0
1, 60.00000, 0.292636, 0.124664, 0.29267, 0.124676, 0.300014, 0.127807, 0, 0
1, 120.00000, 0.292636, 0.124663, 0.29267, 0.124677, 0.300025, 0.12781, 0, 0
1, 180.00000, 0.292636, 0.124662, 0.29267, 0.124677, 0.300025, 0.12781, 0, 0
1, 240.00000, 0.292636, 0.124662, 0.29267, 0.124677, 0.300025, 0.12781, 0, 0
1, 300.00000, 0.292636, 0.124662, 0.29267, 0.124677, 0.300025, 0.12781, 0, 0
1, 360.00000, 0.292636, 0.124662, 0.29267, 0.124677, 0.300025, 0.12781, 0, 0
1, 420.00000, 0.292636, 0.124662, 0.29267, 0.124677, 0.300025, 0.12781, 0, 0
1, 480.00000, 0.292636, 0.124662, 0.29267, 0.124677, 0.300025, 0.12781, 0, 0
1, 540.00000, 0.292636, 0.124662, 0.29267, 0.124677, 0.300025, 0.12781, 0, 0
1, 600.00000, 0.292636, 0.124662, 0.29267, 0.124677, 0.300025, 0.12781, 0, 0
1, 660.00000, 0.292636, 0.124662, 0.29267, 0.124677, 0.300025, 0.12781, 0, 0
1, 720.00000, 0.292636, 0.124662, 0.29267, 0.124677, 0.300025, 0.12781, 0, 0
1, 780.00000, 0.292636, 0.124662, 0.29267, 0.124677, 0.300025, 0.12781, 0, 0
1, 840.00000, 0.292636, 0.124662, 0.29267, 0.124677, 0.300025, 0.12781, 0, 0
1, 900.00000, 0.292636, 0.124662, 0.29267, 0.124677, 0.300025, 0.12781, 0, 0
1, 960.00000, 0.30542, 0.130111, 0.305447, 0.130119, 0.313122, 0.133392, 0, 0
1, 1020.00000, 0.305423, 0.13011, 0.305449, 0.130121, 0.313138, 0.133396, 0, 0
1, 1080.00000, 0.305423, 0.13011, 0.305449, 0.130121, 0.313138, 0.133396, 0, 0
1, 1140.00000, 0.305423, 0.13011, 0.305449, 0.130121, 0.313138, 0.133396, 0, 0
1, 1200.00000, 0.305423, 0.13011, 0.305449, 0.130121, 0.313138, 0.133396, 0, 0
1, 1260.00000, 0.305423, 0.13011, 0.305449, 0.130121, 0.313138, 0.133396, 0, 0
1, 1320.00000, 0.305423, 0.13011, 0.305449, 0.130121, 0.313138, 0.133396, 0, 0
1, 1380.00000, 0.305423, 0.13011, 0.305449, 0.130121, 0.313138, 0.133396, 0, 0
1, 1440.00000, 0.305423, 0.13011, 0.305449, 0.130121, 0.313138, 0.133396, 0, 0
1, 1500.00000, 0.305423, 0.13011, 0.305449, 0.130121, 0.313138, 0.133396, 0, 0
1, 1560.00000, 0.305423, 0.13011, 0.305449, 0.130121, 0.313138, 0.133396, 0, 0
1, 1620.00000, 0.305423, 0.13011, 0.305449, 0.130121, 0.313138, 0.133396, 0, 0
1, 1680.00000, 0.305423, 0.13011, 0.305449, 0.130121, 0.313138, 0.133396, 0, 0
1, 1740.00000, 0.305423, 0.13011, 0.305449, 0.130121, 0.313138, 0.133396, 0, 0
1, 1800.00000, 0.305423, 0.13011, 0.305449, 0.130121, 0.313138, 0.133396, 0, 0
1, 1860.00000, 0.282654, 0.120408, 0.283768, 0.120889, 0.287991, 0.122682, 0, 0
1, 1920.00000, 0.282657, 0.120411, 0.283778, 0.120889, 0.287975, 0.122677, 0, 0
1, 1980.00000, 0.282657, 0.120411, 0.283778, 0.120889, 0.287975, 0.122677, 0, 0
1, 2040.00000, 0.282657, 0.120411, 0.283778, 0.120889, 0.287975, 0.122677, 0, 0
1, 2100.00000, 0.282657, 0.120411, 0.283778, 0.120889, 0.287975, 0.122677, 0, 0
1, 2160.00000, 0.282657, 0.120411, 0.283778, 0.120889, 0.287975, 0.122677, 0, 0
1, 2220.00000, 0.282657, 0.120411, 0.283778, 0.120889, 0.287975, 0.122677, 0, 0
1, 2280.00000, 0.282657, 0.120411, 0.283778, 0.120889, 0.287975, 0.122677, 0, 0
1, 2340.00000, 0.282657, 0.120411, 0.283778, 0.120889, 0.287975, 0.122677, 0, 0
1, 2400.00000, 0.282657, 0.120411, 0.283778, 0.120889, 0.287975, 0.122677, 0, 0
1, 2460.00000, 0.282657, 0.120411, 0.283778, 0.120889, 0.287975, 0.122677, 0, 0
1, 2520.00000, 0.282657, 0.120411, 0.283778, 0.120889, 0.287975, 0.122677, 0, 0
1, 2580.00000, 0.282657, 0.120411, 0.283778, 0.120889, 0.287975, 0.122677, 0, 0
1, 2640.00000, 0.282657, 0.120411, 0.283778, 0.120889, 0.287975, 0.122677, 0, 0
1, 2700.00000, 0.282657, 0.120411, 0.283778, 0.120889, 0.287975, 0.122677, 0, 0
1, 2760.00000, 0.324206, 0.138114, 0.325451, 0.138641, 0.330292, 0.140708, 0, 0
1, 2820.00000, 0.324208, 0.138112, 0.32546, 0.138645, 0.330312, 0.140713, 0, 0
1, 2880.00000, 0.324208, 0.138112, 0.32546, 0.138646, 0.330313, 0.140713, 0, 0
1, 2940.00000, 0.324208, 0.138112, 0.32546, 0.138646, 0.330313, 0.140713, 0, 0
1, 3000.00000, 0.324208, 0.138112, 0.32546, 0.138646, 0.330313, 0.140713, 0, 0
1, 3060.00000, 0.324208, 0.138112, 0.32546, 0.138646, 0.330313, 0.140713, 0, 0
1, 3120.00000, 0.324208, 0.138112, 0.32546, 0.138646, 0.330313, 0.140713, 0, 0
1, 3180.00000, 0.324208, 0.138112, 0.32546, 0.138646, 0.330313, 0.140713, 0, 0
1, 3240.00000, 0.324208, 0.138112, 0.32546, 0.138646, 0.330313, 0.140713, 0, 0
1, 3300.00000, 0.324208, 0.138112, 0.32546, 0.138646, 0.330313, 0.140713, 0, 0
1, 3360.00000, 0.324208, 0.138112, 0.32546, 0.138646, 0.330313, 0.140713, 0, 0
1, 3420.00000, 0.324208, 0.138112, 0.32546, 0.138646, 0.330313, 0.140713, 0, 0
1, 3480.00000, 0.324208, 0.138112, 0.32546, 0.138646, 0.330313, 0.140713, 0, 0
1, 3540.00000, 0.324208, 0.138112, 0.32546, 0.138646, 0.330313, 0.140713, 0, 0
2, 0.00000, 0.324208, 0.138112, 0.32546, 0.138646, 0.330313, 0.140713, 0, 0
2, 60.00000, 0.319075, 0.135924, 0.320344, 0.136466, 0.325105, 0.138492, 0, 0
2, 120.00000, 0.319073, 0.135925, 0.320338, 0.136464, 0.325094, 0.138489, 0, 0
2, 180.00000, 0.319073, 0.135925, 0.320338, 0.136464, 0.325094, 0.138489, 0, 0
2, 240.00000, 0.319073, 0.135925, 0.320338, 0.136464, 0.325094, 0.138489, 0, 0
2, 300.00000, 0.319073, 0.135925, 0.320338, 0.136464, 0.325094, 0.138489, 0, 0
2, 360.00000, 0.319073, 0.135925, 0.320338, 0.136464, 0.325094, 0.138489, 0, 0
2, 420.00000, 0.319073, 0.135925, 0.320338, 0.136464, 0.325094, 0.138489, 0, 0
2, 480.00000, 0.319073, 0.135925, 0.320338, 0.136464, 0.325094, 0.138489, 0, 0
2, 540.00000, 0.319073, 0.135925, 0.320338, 0.136464, 0.325094, 0.138489, 0, 0
2, 600.00000, 0.319073, 0.135925, 0.320338, 0.136464, 0.325094, 0.138489, 0, 0
2, 660.00000, 0.319073, 0.135925, 0.320338, 0.136464, 0.325094, 0.138489, 0, 0
2, 720.00000, 0.319073, 0.135925, 0.320338, 0.136464, 0.325094, 0.138489, 0, 0
2, 780.00000, 0.319073, 0.135925, 0.320338, 0.136464, 0.325094, 0.138489, 0, 0
2, 840.00000, 0.319073, 0.135925, 0.320338, 0.136464, 0.325094, 0.138489, 0, 0
2, 900.00000, 0.319073, 0.135925, 0.320338, 0.136464, 0.325094, 0.138489, 0, 0
2, 960.00000, 0.29121, 0.124057, 0.292314, 0.124525, 0.296664, 0.126381, 0, 0
2, 1020.00000, 0.291213, 0.124056, 0.29232, 0.124528, 0.296677, 0.126384, 0, 0
2, 1080.00000, 0.291213, 0.124056, 0.29232, 0.124528, 0.296678, 0.126384, 0, 0
2, 1140.00000, 0.291213, 0.124056, 0.29232, 0.124528, 0.296678, 0.126384, 0, 0
2, 1200.00000, 0.291213, 0.124056, 0.29232, 0.124528, 0.296678, 0.126384, 0, 0
2, 1260.00000, 0.291213, 0.124056, 0.29232, 0.124528, 0.296678, 0.126384, 0, 0
2, 1320.00000, 0.291213, 0.124056, 0.29232, 0.124528, 0.296678, 0.126384, 0, 0
2, 1380.00000, 0.291213, 0.124056, 0.29232, 0.124528, 0.296678, 0.126384, 0, 0
2, 1440.00000, 0.291213, 0.124056, 0.29232, 0.124528, 0.296678, 0.126384, 0, 0
2, 1500.00000, 0.291213, 0.124056, 0.29232, 0.124528, 0.296678, 0.126384, 0, 0
2, 1560.00000, 0.291213, 0.124056, 0.29232, 0.124528, 0.296678, 0.126384, 0, 0
2, 1620.00000, 0.291213, 0.124056, 0.29232, 0.124528, 0.296678, 0.126384, 0, 0
2, 1680.00000, 0.291213, 0.124056, 0.29232, 0.124528, 0.296678, 0.126384, 0, 0
2, 1740.00000, 0.291213, 0.124056, 0.29232, 0.124528, 0.296678, 0.126384, 0, 0
2, 1800.00000, 0.291213, 0.124056, 0.29232, 0.124528, 0.296678, 0.126384, 0, 0
2, 1860.00000, 0.314827, 0.134114, 0.316055, 0.134639, 0.320756, 0.136641, 0, 0
2, 1920.00000, 0.314825, 0.134115, 0.316053, 0.134638, 0.32075, 0.136639, 0, 0
2, 1980.00000, 0.314825, 0.134115, 0.316053, 0.134638, 0.32075, 0.136639, 0, 0
2, 2040.00000, 0.314825, 0.134115, 0.316053, 0.134638, 0.32075, 0.136639, 0, 0
2, 2100.00000, 0.314825, 0.134115, 0.316053, 0.134638, 0.32075, 0.136639, 0, 0
2, 2160.00000, 0.314825, 0.134115, 0.316053, 0.134638, 0.32075, 0.136639, 0, 0
2, 2220.00000, 0.314825, 0.134115, 0.316053, 0.134638, 0.32075, 0.136639, 0, 0
2, 2280.00000, 0.314825, 0.134115, 0.316053, 0.134638, 0.32075, 0.136639, 0, 0
2, 2340.00000, 0.314825, 0.134115, 0.316053, 0.134638, 0.32075, 0.136639, 0, 0
2, 2400.00000, 0.314825, 0.134115, 0.316053, 0.134638, 0.32075, 0.136639, 0, 0
2, 2460.00000, 0.314825, 0.134115, 0.316053, 0.134638, 0.32075, 0.136639, 0, 0
2, 2520.00000, 0.314825, 0.134115, 0.316053, 0.134638, 0.32075, 0.136639, 0, 0
2, 2580.00000, 0.314825, 0.134115, 0.316053, 0.134638, 0.32075, 0.136639, 0, 0
2, 2640.00000, 0.314825, 0.134115, 0.316053, 0.134638, 0.32075, 0.136639, 0, 0
2, 2700.00000, 0.314825, 0.134115, 0.316053, 0.134638, 0.32075, 0.136639, 0, 0
2, 2760.00000, 0.270782, 0.115355, 0.271776, 0.115776, 0.275504, 0.117367, 0, 0
2, 2820.00000, 0.270787, 0.115355, 0.271785, 0.11578, 0.275494, 0.11736, 0, 0
2, 2880.00000, 0.270787, 0.115355, 0.271785, 0.11578, 0.275494, 0.11736, 0, 0
2, 2940.00000, 0.270787, 0.115355, 0.271785, 0.11578, 0.275494, 0.11736, 0, 0
2, 3000.00000, 0.270787, 0.115355, 0.271785, 0.11578, 0.275494, 0.11736, 0, 0
2, 3060.00000, 0.270787, 0.115355, 0.271785, 0.11578, 0.275494, 0.11736, 0, 0
2, 3120.00000, 0.270787, 0.115355, 0.271785, 0.11578, 0.275494, 0.11736, 0, 0
2, 3180.00000, 0.270787, 0.115355, 0.271785, 0.11578, 0.275494, 0.11736, 0, 0
2, 3240.00000, 0.270787, 0.115355, 0.271785, 0.11578, 0.275494, 0.11736, 0, 0
2, 3300.00000, 0.270787, 0.115355, 0.271785, 0.11578, 0.275494, 0.11736, 0, 0
2, 3360.00000, 0.270787, 0.115355, 0.271785, 0.11578, 0.275494, 0.11736, 0, 0
2, 3420.00000, 0.270787, 0.115355, 0.271785, 0.11578, 0.275494, 0.11736, 0, 0
2, 3480.00000, 0.270787, 0.115355, 0.271785, 0.11578, 0.275494, 0.11736, 0, 0
2, 3540.00000, 0.270787, 0.115355, 0.271785, 0.11578, 0.275494, 0.11736, 0, 0
3, 0.00000, 0.270787, 0.115355, 0.271785, 0.11578, 0.275494, 0.11736, 0, 0
3, 60.00000, 0.246703, 0.105094, 0.247627, 0.105488, 0.251321, 0.107061, 0, 0
3, 120.00000, 0.2467, 0.105094, 0.247624, 0.105487, 0.251314, 0.107059, 0, 0
3, 180.00000, 0.2467, 0.105094, 0.247623, 0.105487, 0.251314, 0.107059, 0, 0
3, 240.00000, 0.2467, 0.105094, 0.247623, 0.105487, 0.251314, 0.107059, 0, 0
3, 300.00000, 0.2467, 0.105094, 0.247623, 0.105487, 0.251314, 0.107059, 0, 0
3, 360.00000, 0.2467, 0.105094, 0.247623, 0.105487, 0.251314, 0.107059, 0, 0
3, 420.00000, 0.2467, 0.105094, 0.247623, 0.105487, 0.251314, 0.107059, 0, 0
3, 480.00000, 0.2467, 0.105094, 0.247623, 0.105487, 0.251314, 0.107059, 0, 0
3, 540.00000, 0.2467, 0.105094, 0.247623, 0.105487, 0.251314, 0.107059, 0, 0
3, 600.00000, 0.2467, 0.105094, 0.247623, 0.105487, 0.251314, 0.107059, 0, 0
3, 660.00000, 0.2467, 0.105094, 0.247623, 0.105487, 0.251314, 0.107059, 0, 0
3, 720.00000, 0.2467, 0.105094, 0.247623, 0.105487, 0.251314, 0.107059, 0, 0
3, 780.00000, 0.2467, 0.105094, 0.247623, 0.105487, 0.251314, 0.107059, 0, 0
3, 840.00000, 0.2467, 0.105094, 0.247623, 0.105487, 0.251314, 0.107059, 0, 0
3, 900.00000, 0.2467, 0.105094, 0.247623, 0.105487, 0.251314, 0.107059, 0, 0
3, 960.00000, 0.287365, 0.12242, 0.288435, 0.122873, 0.292736, 0.124708, 0, 0
3, 1020.00000, 0.287373, 0.12242, 0.288446, 0.122877, 0.292757, 0.124714, 0, 0
3, 1080.00000, 0.287373, 0.12242, 0.288446, 0.122877, 0.292757, 0.124714, 0, 0
3, 1140.00000, 0.287373, 0.12242, 0.288446, 0.122877, 0.292757, 0.124714, 0, 0
3, 1200.00000, 0.287373, 0.12242, 0.288446, 0.122877, 0.292757, 0.124714, 0, 0
3, 1260.00000, 0.287373, 0.12242, 0.288446, 0.122877, 0.292757, 0.124714, 0, 0
3, 1320.00000, 0.287373, 0.12242, 0.288446, 0.122877, 0.292757, 0.124714, 0, 0
3, 1380.00000, 0.287373, 0.12242, 0.288446, 0.122877, 0.292757, 0.124714, 0, 0
3, 1440.00000, 0.287373, 0.12242, 0.288446, 0.122877, 0.292757, 0.124714, 0, 0
3, 1500.00000, 0.287373, 0.12242, 0.288446, 0.122877, 0.292757, 0.124714, 0, 0
3, 1560.00000, 0.287373, 0.12242, 0.288446, 0.122877, 0.292757, 0.124714, 0, 0
3, 1620.00000, 0.287373, 0.12242, 0.288446, 0.122877, 0.292757, 0.124714, 0, 0
3, 1680.00000, 0.287373, 0.12242, 0.288446, 0.122877, 0.292757, 0.124714, 0, 0
3, 1740.00000, 0.287373, 0.12242, 0.288446, 0.122877, 0.292757, 0.124714, 0, 0
3, 1800.00000, 0.287373, 0.12242, 0.288446, 0.122877, 0.292757, 0.124714, 0, 0
3, 1860.00000, 0.309884, 0.132013, 0.311044, 0.132506, 0.315697, 0.134489, 0, 0
3, 1920.00000, 0.309893, 0.132014, 0.311053, 0.132508, 0.315708, 0.134491, 0, 0
3, 1980.00000, 0.309893, 0.132014, 0.311053, 0.132508, 0.315708, 0.134491, 0, 0
3, 2040.00000, 0.309893, 0.132014, 0.311053, 0.132508, 0.315708, 0.134491, 0, 0
3, 2100.00000, 0.309893, 0.132014, 0.311053, 0.132508, 0.315708, 0.134491, 0, 0
3, 2160.00000, 0.309893, 0.132014, 0.311053, 0.132508, 0.315708, 0.134491, 0, 0
3, 2220.00000, 0.309893, 0.132014, 0.311053, 0.132508, 0.315708, 0.134491, 0, 0
3, 2280.00000, 0.309893, 0.132014, 0.311053, 0.132508, 0.315708, 0.134491, 0, 0
3, 2340.00000, 0.309893, 0.132014, 0.311053, 0.132508, 0.315708, 0.134491, 0, 0
3, 2400.00000, 0.309893, 0.132014, 0.311053, 0.132508, 0.315708, 0.134491, 0, 0
3, 2460.00000, 0.309893, 0.132014, 0.311053, 0.132508, 0.315708, 0.134491, 0, 0
3, 2520.00000, 0.309893, 0.132014, 0.311053, 0.132508, 0.315708, 0.134491, 0, 0
3, 2580.00000, 0.309893, 0.132014, 0.311053, 0.132508, 0.315708, 0.134491, 0, 0
3, 2640.00000, 0.309893, 0.132014, 0.311053, 0.132508, 0.315708, 0.134491, 0, 0
3, 2700.00000, 0.309893, 0.132014, 0.311053, 0.132508, 0.315708, 0.134491, 0, 0
3, 2760.00000, 0.277842, 0.118363, 0.278813, 0.118774, 0.281372, 0.119866, 0, 0
3, 2820.00000, 0.27785, 0.118364, 0.278822, 0.118778, 0.281362, 0.11986, 0, 0
3, 2880.00000, 0.27785, 0.118364, 0.278822, 0.118778, 0.281361, 0.119859, 0, 0
3, 2940.00000, 0.27785, 0.118364, 0.278822, 0.118778, 0.281361, 0.119859, 0, 0
3, 3000.00000, 0.27785, 0.118364, 0.278822, 0.118778, 0.281361, 0.119859, 0, 0
3, 3060.00000, 0.27785, 0.118364, 0.278822, 0.118778, 0.281361, 0.119859, 0, 0
3, 3120.00000, 0.27785, 0.118364, 0.278822, 0.118778, 0.281361, 0.119859, 0, 0
3, 3180.00000, 0.27785, 0.118364, 0.278822, 0.118778, 0.281361, 0.119859, 0, 0
3, 3240.00000, 0.27785, 0.118364, 0.278822, 0.118778, 0.281361, 0.119859, 0, 0
3, 3300.00000, 0.27785, 0.118364, 0.278822, 0.118778, 0.281361, 0.119859, 0, 0
3, 3360.00000, 0.27785, 0.118364, 0.278822, 0.118778, 0.281361, 0.119859, 0, 0
3, 3420.00000, 0.27785, 0.118364, 0.278822, 0.118778, 0.281361, 0.119859, 0, 0
3, 3480.00000, 0.27785, 0.118364, 0.278822, 0.118778, 0.281361, 0.119859, 0, 0
3, 3540.00000, 0.27785, 0.118364, 0.278822, 0.118778, 0.281361, 0.119859, 0, 0
4, 0.00000, 0.27785, 0.118364, 0.278822, 0.118778, 0.281361, 0.119859, 0, 0
4, 60.00000, 0.292, 0.12439, 0.293081, 0.124852, 0.297166, 0.126591, 0, 0
4, 120.00000, 0.291994, 0.124389, 0.293074, 0.124849, 0.297174, 0.126596, 0, 0
4, 180.00000, 0.291994, 0.124389, 0.293074, 0.124849, 0.297174, 0.126596, 0, 0
4, 240.00000, 0.291994, 0.124389, 0.293074, 0.124849, 0.297174, 0.126596, 0, 0
4, 300.00000, 0.291994, 0.124389, 0.293074, 0.124849, 0.297174, 0.126596, 0, 0
4, 360.00000, 0.291994, 0.124389, 0.293074, 0.124849, 0.297174, 0.126596, 0, 0
4, 420.00000, 0.291994, 0.124389, 0.293074, 0.124849, 0.297174, 0.126596, 0, 0
4, 480.00000, 0.291994, 0.124389, 0.293074, 0.124849, 0.297174, 0.126596, 0, 0
4, 540.00000, 0.291994, 0.124389, 0.293074, 0.124849, 0.297174, 0.126596, 0, 0
4, 600.00000, 0.291994, 0.124389, 0.293074, 0.124849, 0.297174, 0.126596, 0, 0
4, 660.00000, 0.291994, 0.124389, 0.293074, 0.124849, 0.297174, 0.126596, 0, 0
4, 720.00000, 0.291994, 0.124389, 0.293074, 0.124849, 0.297174, 0.126596, 0, 0
