hour,t(sec),"P1 (kW)","Q1 (kvar)","P2 (kW)","Q2 (kvar)","P3 (kW)","Q3 (kvar)","P4 (kW)","Q4 (kvar)"
0, 60.00000, 0.231582, 0.0986515, 0.230461, 0.0981755, 0.240646, 0.102513, 0, 0
0, 120.00000, 0.231579, 0.0986522, 0.230458, 0.0981746, 0.24064, 0.102512, 0, 0
0, 180.00000, 0.231579, 0.0986522, 0.230458, 0.0981746, 0.24064, 0.102512, 0, 0
0, 240.00000, 0.231579, 0.0986522, 0.230458, 0.0981746, 0.24064, 0.102512, 0, 0
0, 300.00000, 0.231579, 0.0986522, 0.230458, 0.0981746, 0.24064, 0.102512, 0, 0
0, 360.00000, 0.231579, 0.0986522, 0.230458, 0.0981746, 0.24064, 0.102512, 0, 0
0, 420.00000, 0.231579, 0.0986522, 0.230458, 0.0981746, 0.24064, 0.102512, 0, 0
0, 480.00000, 0.205119, 0.0873835, 0.203979, 0.0868941, 0.213011, 0.0907451, 0, 0
0, 540.00000, 0.205122, 0.0873816, 0.203981, 0.0868955, 0.213023, 0.0907475, 0, 0
0, 600.00000, 0.205122, 0.0873816, 0.203981, 0.0868955, 0.213023, 0.0907475, 0, 0
0, 660.00000, 0.205122, 0.0873816, 0.203981, 0.0868955, 0.213023, 0.0907475, 0, 0
0, 720.00000, 0.205122, 0.0873816, 0.203981, 0.0868955, 0.213023, 0.0907475, 0, 0
0, 780.00000, 0.205122, 0.0873816, 0.203981, 0.0868955, 0.213023, 0.0907475, 0, 0
0, 840.00000, 0.205122, 0.0873816, 0.203981, 0.0868955, 0.213023, 0.0907475, 0, 0
0, 900.00000, 0.205122, 0.0873816, 0.203981, 0.0868955, 0.213023, 0.0907475, 0, 0
0, 960.00000, 0.205122, 0.0873816, 0.203981, 0.0868955, 0.213023, 0.0907475, 0, 0
0, 1020.00000, 0.205122, 0.0873816, 0.203981, 0.0868955, 0.213023, 0.0907475, 0, 0
0, 1080.00000, 0.205122, 0.0873816, 0.203981, 0.0868955, 0.213023, 0.0907475, 0, 0
0, 1140.00000, 0.205122, 0.0873816, 0.203981, 0.0868955, 0.213023, 0.0907475, 0, 0
0, 1200.00000, 0.205122, 0.0873816, 0.203981, 0.0868955, 0.213023, 0.0907475, 0, 0
0, 1260.00000, 0.205122, 0.0873816, 0.203981, 0.0868955, 0.213023, 0.0907475, 0, 0
0, 1320.00000, 0.205122, 0.0873816, 0.203981, 0.0868955, 0.213023, 0.0907475, 0, 0
0, 1380.00000, 0.205122, 0.0873816, 0.203981, 0.0868955, 0.213023, 0.0907475, 0, 0
0, 1440.00000, 0.205122, 0.0873816, 0.203981, 0.0868955, 0.213023, 0.0907475, 0, 0
0, 1500.00000, 0.205122, 0.0873816, 0.203981, 0.0868955, 0.213023, 0.0907475, 0, 0
0, 1560.00000, 0.205122, 0.0873816, 0.203981, 0.0868955, 0.213023, 0.0907475, 0, 0
0, 1620.00000, 0.205122, 0.0873816, 0.203981, 0.0868955, 0.213023, 0.0907475, 0, 0
0, 1680.00000, 0.205122, 0.0873816, 0.203981, 0.0868955, 0.213023, 0.0907475, 0, 0
0, 1740.00000, 0.205122, 0.0873816, 0.203981, 0.0868955, 0.213023, 0.0907475, 0, 0
0, 1800.00000, 0.205122, 0.0873816, 0.203981, 0.0868955, 0.213023, 0.0907475, 0, 0
0, 1860.00000, 0.205122, 0.0873816, 0.203981, 0.0868955, 0.213023, 0.0907475, 0, 0
0, 1920.00000, 0.205122, 0.0873816, 0.203981, 0.0868955, 0.213023, 0.0907475, 0, 0
0, 1980.00000, 0.205122, 0.0873816, 0.203981, 0.0868955, 0.213023, 0.0907475, 0, 0
0, 2040.00000, 0.205122, 0.0873816, 0.203981, 0.0868955, 0.213023, 0.0907475, 0, 0
0, 2100.00000, 0.205122, 0.0873816, 0.203981, 0.0868955, 0.213023, 0.0907475, 0, 0
0, 2160.00000, 0.205122, 0.0873816, 0.203981, 0.0868955, 0.213023, 0.0907475, 0, 0
0, 2220.00000, 0.205122, 0.0873816, 0.203981, 0.0868955, 0.213023, 0.0907475, 0, 0
0, 2280.00000, 0.205122, 0.0873816, 0.203981, 0.0868955, 0.213023, 0.0907475, 0, 0
0, 2340.00000, 0.205122, 0.0873816, 0.203981, 0.0868955, 0.213023, 0.0907475, 0, 0
0, 2400.00000, 0.205122, 0.0873816, 0.203981, 0.0868955, 0.213023, 0.0907475, 0, 0
0, 2460.00000, 0.205122, 0.0873816, 0.203981, 0.0868955, 0.213023, 0.0907475, 0, 0
0, 2520.00000, 0.205122, 0.0873816, 0.203981, 0.0868955, 0.213023, 0.0907475, 0, 0
0, 2580.00000, 0.205122, 0.0873816, 0.203981, 0.0868955, 0.213023, 0.0907475, 0, 0
0, 2640.00000, 0.205122, 0.0873816, 0.203981, 0.0868955, 0.213023, 0.0907475, 0, 0
0, 2700.00000, 0.205122, 0.0873816, 0.203981, 0.0868955, 0.213023, 0.0907475, 0, 0
0, 2760.00000, 0.205122, 0.0873816, 0.203981, 0.0868955, 0.213023, 0.0907475, 0, 0
0, 2820.00000, 0.205122, 0.0873816, 0.203981, 0.0868955, 0.213023, 0.0907475, 0, 0
0, 2880.00000, 0.205122, 0.0873816, 0.203981, 0.0868955, 0.213023, 0.0907475, 0, 0
0, 2940.00000, 0.205122, 0.0873816, 0.203981, 0.0868955, 0.213023, 0.0907475, 0, 0
0, 3000.00000, 0.205122, 0.0873816, 0.203981, 0.0868955, 0.213023, 0.0907475, 0, 0
0, 3060.00000, 0.205122, 0.0873816, 0.203981, 0.0868955, 0.213023, 0.0907475, 0, 0
0, 3120.00000, 0.205122, 0.0873816, 0.203981, 0.0868955, 0.213023, 0.0907475, 0, 0
0, 3180.00000, 0.205122, 0.0873816, 0.203981, 0.0868955, 0.213023, 0.0907475, 0, 0
0, 3240.00000, 0.205122, 0.0873816, 0.203981, 0.0868955, 0.213023, 0.0907475, 0, 0
0, 3300.00000, 0.205122, 0.0873816, 0.203981, 0.0868955, 0.213023, 0.0907475, 0, 0
0, 3360.00000, 0.205122, 0.0873816, 0.203981, 0.0868955, 0.213023, 0.0907475, 0, 0
0, 3420.00000, 0.205122, 0.0873816, 0.203981, 0.0868955, 0.213023, 0.0907475, 0, 0
0, 3480.00000, 0.205122, 0.0873816, 0.203981, 0.0868955, 0.213023, 0.0907475, 0, 0
0, 3540.00000, 0.205122, 0.0873816, 0.203981, 0.0868955, 0.213023, 0.0907475, 0, 0
1, 0.00000, 0.205122, 0.0873816, 0.203981, 0.0868955, 0.213023, 0.0907475, 0, 0
1, 60.00000, 0.205685, 0.0876216, 0.20528, 0.0874504, 0.212977, 0.090728, 0, 0
1, 120.00000, 0.205686, 0.0876219, 0.205284, 0.0874505, 0.212976, 0.0907275, 0, 0
1, 180.00000, 0.205686, 0.0876219, 0.205284, 0.0874505, 0.212976, 0.0907274, 0, 0
1, 240.00000, 0.205686, 0.0876219, 0.205284, 0.0874505, 0.212976, 0.0907274, 0, 0
1, 300.00000, 0.205686, 0.0876219, 0.205284, 0.0874505, 0.212976, 0.0907274, 0, 0
1, 360.00000, 0.205686, 0.0876219, 0.205284, 0.0874505, 0.212976, 0.0907274, 0, 0
1, 420.00000, 0.205686, 0.0876219, 0.205284, 0.0874505, 0.212976, 0.0907274, 0, 0
1, 480.00000, 0.205686, 0.0876219, 0.205284, 0.0874505, 0.212976, 0.0907274, 0, 0
1, 540.00000, 0.205686, 0.0876219, 0.205284, 0.0874505, 0.212976, 0.0907274, 0, 0
1, 600.00000, 0.205686, 0.0876219, 0.205284, 0.0874505, 0.212976, 0.0907274, 0, 0
1, 660.00000, 0.205686, 0.0876219, 0.205284, 0.0874505, 0.212976, 0.0907274, 0, 0
1, 720.00000, 0.205686, 0.0876219, 0.205284, 0.0874505, 0.212976, 0.0907274, 0, 0
1, 780.00000, 0.205686, 0.0876219, 0.205284, 0.0874505, 0.212976, 0.0907274, 0, 0
1, 840.00000, 0.205686, 0.0876219, 0.205284, 0.0874505, 0.212976, 0.0907274, 0, 0
1, 900.00000, 0.205686, 0.0876219, 0.205284, 0.0874505, 0.212976, 0.0907274, 0, 0
1, 960.00000, 0.205686, 0.0876219, 0.205284, 0.0874505, 0.212976, 0.0907274, 0, 0
1, 1020.00000, 0.205686, 0.0876219, 0.205284, 0.0874505, 0.212976, 0.0907274, 0, 0
1, 1080.00000, 0.205686, 0.0876219, 0.205284, 0.0874505, 0.212976, 0.0907274, 0, 0
1, 1140.00000, 0.205686, 0.0876219, 0.205284, 0.0874505, 0.212976, 0.0907274, 0, 0
1, 1200.00000, 0.205686, 0.0876219, 0.205284, 0.0874505, 0.212976, 0.0907274, 0, 0
1, 1260.00000, 0.205686, 0.0876219, 0.205284, 0.0874505, 0.212976, 0.0907274, 0, 0
1, 1320.00000, 0.205686, 0.0876219, 0.205284, 0.0874505, 0.212976, 0.0907274, 0, 0
1, 1380.00000, 0.205686, 0.0876219, 0.205284, 0.0874505, 0.212976, 0.0907274, 0, 0
1, 1440.00000, 0.205686, 0.0876219, 0.205284, 0.0874505, 0.212976, 0.0907274, 0, 0
1, 1500.00000, 0.205686, 0.0876219, 0.205284, 0.0874505, 0.212976, 0.0907274, 0, 0
1, 1560.00000, 0.205686, 0.0876219, 0.205284, 0.0874505, 0.212976, 0.0907274, 0, 0
1, 1620.00000, 0.205686, 0.0876219, 0.205284, 0.0874505, 0.212976, 0.0907274, 0, 0
1, 1680.00000, 0.205686, 0.0876219, 0.205284, 0.0874505, 0.212976, 0.0907274, 0, 0
1, 1740.00000, 0.205686, 0.0876219, 0.205284, 0.0874505, 0.212976, 0.0907274, 0, 0
1, 1800.00000, 0.205686, 0.0876219, 0.205284, 0.0874505, 0.212976, 0.0907274, 0, 0
1, 1860.00000, 0.205686, 0.0876219, 0.205284, 0.0874505, 0.212976, 0.0907274, 0, 0
1, 1920.00000, 0.205686, 0.0876219, 0.205284, 0.0874505, 0.212976, 0.0907274, 0, 0
1, 1980.00000, 0.205686, 0.0876219, 0.205284, 0.0874505, 0.212976, 0.0907274, 0, 0
1, 2040.00000, 0.205686, 0.0876219, 0.205284, 0.0874505, 0.212976, 0.0907274, 0, 0
1, 2100.00000, 0.205686, 0.0876219, 0.205284, 0.0874505, 0.212976, 0.0907274, 0, 0
1, 2160.00000, 0.205686, 0.0876219, 0.205284, 0.0874505, 0.212976, 0.0907274, 0, 0
1, 2220.00000, 0.205686, 0.0876219, 0.205284, 0.0874505, 0.212976, 0.0907274, 0, 0
1, 2280.00000, 0.205686, 0.0876219, 0.205284, 0.0874505, 0.212976, 0.0907274, 0, 0
1, 2340.00000, 0.205686, 0.0876219, 0.205284, 0.0874505, 0.212976, 0.0907274, 0, 0
1, 2400.00000, 0.205686, 0.0876219, 0.205284, 0.0874505, 0.212976, 0.0907274, 0, 0
1, 2460.00000, 0.205686, 0.0876219, 0.205284, 0.0874505, 0.212976, 0.0907274, 0, 0
1, 2520.00000, 0.205686, 0.0876219, 0.205284, 0.0874505, 0.212976, 0.0907274, 0, 0
1, 2580.00000, 0.205686, 0.0876219, 0.205284, 0.0874505, 0.212976, 0.0907274, 0, 0
1, 2640.00000, 0.205686, 0.0876219, 0.205284, 0.0874505, 0.212976, 0.0907274, 0, 0
1, 2700.00000, 0.205686, 0.0876219, 0.205284, 0.0874505, 0.212976, 0.0907274, 0, 0
1, 2760.00000, 0.205686, 0.0876219, 0.205284, 0.0874505, 0.212976, 0.0907274, 0, 0
1, 2820.00000, 0.205686, 0.0876219, 0.205284, 0.0874505, 0.212976, 0.0907274, 0, 0
1, 2880.00000, 0.205686, 0.0876219, 0.205284, 0.0874505, 0.212976, 0.0907274, 0, 0
1, 2940.00000, 0.205686, 0.0876219, 0.205284, 0.0874505, 0.212976, 0.0907274, 0, 0
1, 3000.00000, 0.205686, 0.0876219, 0.205284, 0.0874505, 0.212976, 0.0907274, 0, 0
1, 3060.00000, 0.205686, 0.0876219, 0.205284, 0.0874505, 0.212976, 0.0907274, 0, 0
1, 3120.00000, 0.205686, 0.0876219, 0.205284, 0.0874505, 0.212976, 0.0907274, 0, 0
1, 3180.00000, 0.205686, 0.0876219, 0.205284, 0.0874505, 0.212976, 0.0907274, 0, 0
1, 3240.00000, 0.205686, 0.0876219, 0.205284, 0.0874505, 0.212976, 0.0907274, 0, 0
1, 3300.00000, 0.205686, 0.0876219, 0.205284, 0.0874505, 0.212976, 0.0907274, 0, 0
1, 3360.00000, 0.205686, 0.0876219, 0.205284, 0.0874505, 0.212976, 0.0907274, 0, 0
1, 3420.00000, 0.205686, 0.0876219, 0.205284, 0.0874505, 0.212976, 0.0907274, 0, 0
1, 3480.00000, 0.205686, 0.0876219, 0.205284, 0.0874505, 0.212976, 0.0907274, 0, 0
1, 3540.00000, 0.205686, 0.0876219, 0.205284, 0.0874505, 0.212976, 0.0907274, 0, 0
2, 0.00000, 0.205686, 0.0876219, 0.205284, 0.0874505, 0.212976, 0.0907274, 0, 0
2, 60.00000, 0.205686, 0.0876219, 0.205284, 0.0874505, 0.212976, 0.0907274, 0, 0
2, 120.00000, 0.205686, 0.0876219, 0.205284, 0.0874505, 0.212976, 0.0907274, 0, 0
2, 180.00000, 0.205686, 0.0876219, 0.205284, 0.0874505, 0.212976, 0.0907274, 0, 0
2, 240.00000, 0.205686, 0.0876219, 0.205284, 0.0874505, 0.212976, 0.0907274, 0, 0
2, 300.00000, 0.205686, 0.0876219, 0.205284, 0.0874505, 0.212976, 0.0907274, 0, 0
2, 360.00000, 0.205686, 0.0876219, 0.205284, 0.0874505, 0.212976, 0.0907274, 0, 0
2, 420.00000, 0.205686, 0.0876219, 0.205284, 0.0874505, 0.212976, 0.0907274, 0, 0
2, 480.00000, 0.205686, 0.0876219, 0.205284, 0.0874505, 0.212976, 0.0907274, 0, 0
2, 540.00000, 0.205686, 0.0876219, 0.205284, 0.0874505, 0.212976, 0.0907274, 0, 0
2, 600.00000, 0.205686, 0.0876219, 0.205284, 0.0874505, 0.212976, 0.0907274, 0, 0
2, 660.00000, 0.205686, 0.0876219, 0.205284, 0.0874505, 0.212976, 0.0907274, 0, 0
2, 720.00000, 0.205686, 0.0876219, 0.205284, 0.0874505, 0.212976, 0.0907274, 0, 0
2, 780.00000, 0.205686, 0.0876219, 0.205284, 0.0874505, 0.212976, 0.0907274, 0, 0
2, 840.00000, 0.205686, 0.0876219, 0.205284, 0.0874505, 0.212976, 0.0907274, 0, 0
2, 900.00000, 0.205686, 0.0876219, 0.205284, 0.0874505, 0.212976, 0.0907274, 0, 0
2, 960.00000, 0.205686, 0.0876219, 0.205284, 0.0874505, 0.212976, 0.0907274, 0, 0
2, 1020.00000, 0.205686, 0.0876219, 0.205284, 0.0874505, 0.212976, 0.0907274, 0, 0
2, 1080.00000, 0.205686, 0.0876219, 0.205284, 0.0874505, 0.212976, 0.0907274, 0, 0
2, 1140.00000, 0.205686, 0.0876219, 0.205284, 0.0874505, 0.212976, 0.0907274, 0, 0
2, 1200.00000, 0.205686, 0.0876219, 0.205284, 0.0874505, 0.212976, 0.0907274, 0, 0
2, 1260.00000, 0.205686, 0.0876219, 0.205284, 0.0874505, 0.212976, 0.0907274, 0, 0
2, 1320.00000, 0.205686, 0.0876219, 0.205284, 0.0874505, 0.212976, 0.0907274, 0, 0
2, 1380.00000, 0.205686, 0.0876219, 0.205284, 0.0874505, 0.212976, 0.0907274, 0, 0
2, 1440.00000, 0.205686, 0.0876219, 0.205284, 0.0874505, 0.212976, 0.0907274, 0, 0
2, 1500.00000, 0.205686, 0.0876219, 0.205284, 0.0874505, 0.212976, 0.0907274, 0, 0
2, 1560.00000, 0.205686, 0.0876219, 0.205284, 0.0874505, 0.212976, 0.0907274, 0, 0
2, 1620.00000, 0.205686, 0.0876219, 0.205284, 0.0874505, 0.212976, 0.0907274, 0, 0
2, 1680.00000, 0.205686, 0.0876219, 0.205284, 0.0874505, 0.212976, 0.0907274, 0, 0
2, 1740.00000, 0.205686, 0.0876219, 0.205284, 0.0874505, 0.212976, 0.0907274, 0, 0
2, 1800.00000, 0.205686, 0.0876219, 0.205284, 0.0874505, 0.212976, 0.0907274, 0, 0
2, 1860.00000, 0.205686, 0.0876219, 0.205284, 0.0874505, 0.212976, 0.0907274, 0, 0
2, 1920.00000, 0.205686, 0.0876219, 0.205284, 0.0874505, 0.212976, 0.0907274, 0, 0
2, 1980.00000, 0.205686, 0.0876219, 0.205284, 0.0874505, 0.212976, 0.0907274, 0, 0
2, 2040.00000, 0.205686, 0.0876219, 0.205284, 0.0874505, 0.212976, 0.0907274, 0, 0
2, 2100.00000, 0.205686, 0.0876219, 0.205284, 0.0874505, 0.212976, 0.0907274, 0, 0
2, 2160.00000, 0.205686, 0.0876219, 0.205284, 0.0874505, 0.212976, 0.0907274, 0, 0
2, 2220.00000, 0.205686, 0.0876219, 0.205284, 0.0874505, 0.212976, 0.0907274, 0, 0
2, 2280.00000, 0.205686, 0.0876219, 0.205284, 0.0874505, 0.212976, 0.0907274, 0, 0
2, 2340.00000, 0.205686, 0.0876219, 0.205284, 0.0874505, 0.212976, 0.0907274, 0, 0
2, 2400.00000, 0.206574, 0.0880004, 0.206916, 0.0881483, 0.212872, 0.0906828, 0, 0
2, 2460.00000, 0.206577, 0.0880014, 0.206922, 0.0881485, 0.212869, 0.0906816, 0, 0
2, 2520.00000, 0.206577, 0.0880014, 0.206922, 0.0881485, 0.212868, 0.0906816, 0, 0
2, 2580.00000, 0.206577, 0.0880014, 0.206922, 0.0881485, 0.212868, 0.0906816, 0, 0
2, 2640.00000, 0.206577, 0.0880014, 0.206922, 0.0881485, 0.212868, 0.0906816, 0, 0
2, 2700.00000, 0.206441, 0.0879427, 0.204913, 0.0872939, 0.210083, 0.0894933, 0, 0
2, 2760.00000, 0.206442, 0.0879441, 0.204913, 0.0872925, 0.210077, 0.0894924, 0, 0
2, 2820.00000, 0.206442, 0.0879441, 0.204913, 0.0872925, 0.210077, 0.0894924, 0, 0
2, 2880.00000, 0.206442, 0.0879441, 0.204913, 0.0872925, 0.210077, 0.0894924, 0, 0
2, 2940.00000, 0.206442, 0.0879441, 0.204913, 0.0872925, 0.210077, 0.0894924, 0, 0
2, 3000.00000, 0.206442, 0.0879441, 0.204913, 0.0872925, 0.210077, 0.0894924, 0, 0
2, 3060.00000, 0.207231, 0.0882804, 0.206439, 0.0879444, 0.209989, 0.0894551, 0, 0
2, 3120.00000, 0.207233, 0.0882809, 0.206443, 0.0879443, 0.209987, 0.0894542, 0, 0
2, 3180.00000, 0.207233, 0.0882809, 0.206443, 0.0879443, 0.209987, 0.0894542, 0, 0
2, 3240.00000, 0.207233, 0.0882809, 0.206443, 0.0879443, 0.209987, 0.0894542, 0, 0
2, 3300.00000, 0.207233, 0.0882809, 0.206443, 0.0879443, 0.209987, 0.0894542, 0, 0
2, 3360.00000, 0.207233, 0.0882809, 0.206443, 0.0879443, 0.209987, 0.0894542, 0, 0
2, 3420.00000, 0.207233, 0.0882809, 0.206443, 0.0879443, 0.209987, 0.0894542, 0, 0
2, 3480.00000, 0.207233, 0.0882809, 0.206443, 0.0879443, 0.209987, 0.0894542, 0, 0
2, 3540.00000, 0.207233, 0.0882809, 0.206443, 0.0879443, 0.209987, 0.0894542, 0, 0
3, 0.00000, 0.207233, 0.0882809, 0.206443, 0.0879443, 0.209987, 0.0894542, 0, 0
3, 60.00000, 0.207233, 0.0882809, 0.206443, 0.0879443, 0.209987, 0.0894542, 0, 0
3, 120.00000, 0.207233, 0.0882809, 0.206443, 0.0879443, 0.209987, 0.0894542, 0, 0
3, 180.00000, 0.207233, 0.0882809, 0.206443, 0.0879443, 0.209987, 0.0894542, 0, 0
3, 240.00000, 0.207233, 0.0882809, 0.206443, 0.0879443, 0.209987, 0.0894542, 0, 0
3, 300.00000, 0.207233, 0.0882809, 0.206443, 0.0879443, 0.209987, 0.0894542, 0, 0
3, 360.00000, 0.207233, 0.0882809, 0.206443, 0.0879443, 0.209987, 0.0894542, 0, 0
3, 420.00000, 0.207233, 0.0882809, 0.206443, 0.0879443, 0.209987, 0.0894542, 0, 0
3, 480.00000, 0.207233, 0.0882809, 0.206443, 0.0879443, 0.209987, 0.0894542, 0, 0
3, 540.00000, 0.207233, 0.0882809, 0.206443, 0.0879443, 0.209987, 0.0894542, 0, 0
3, 600.00000, 0.207233, 0.0882809, 0.206443, 0.0879443, 0.209987, 0.0894542, 0, 0
3, 660.00000, 0.207233, 0.0882809, 0.206443, 0.0879443, 0.209987, 0.0894542, 0, 0
3, 720.00000, 0.207233, 0.0882809, 0.206443, 0.0879443, 0.209987, 0.0894542, 0, 0
3, 780.00000, 0.207233, 0.0882809, 0.206443, 0.0879443, 0.209987, 0.0894542, 0, 0
3, 840.00000, 0.207233, 0.0882809, 0.206443, 0.0879443, 0.209987, 0.0894542, 0, 0
3, 900.00000, 0.207233, 0.0882809, 0.206443, 0.0879443, 0.209987, 0.0894542, 0, 0
3, 960.00000, 0.207233, 0.0882809, 0.206443, 0.0879443, 0.209987, 0.0894542, 0, 0
3, 1020.00000, 0.207233, 0.0882809, 0.206443, 0.0879443, 0.209987, 0.0894542, 0, 0
3, 1080.00000, 0.207233, 0.0882809, 0.206443, 0.0879443, 0.209987, 0.0894542, 0, 0
3, 1140.00000, 0.207233, 0.0882809, 0.206443, 0.0879443, 0.209987, 0.0894542, 0, 0
3, 1200.00000, 0.207233, 0.0882809, 0.206443, 0.0879443, 0.209987, 0.0894542, 0, 0
3, 1260.00000, 0.207233, 0.0882809, 0.206443, 0.0879443, 0.209987, 0.0894542, 0, 0
3, 1320.00000, 0.207233, 0.0882809, 0.206443, 0.0879443, 0.209987, 0.0894542, 0, 0
3, 1380.00000, 0.207233, 0.0882809, 0.206443, 0.0879443, 0.209987, 0.0894542, 0, 0
3, 1440.00000, 0.207233, 0.0882809, 0.206443, 0.0879443, 0.209987, 0.0894542, 0, 0
3, 1500.00000, 0.207233, 0.0882809, 0.206443, 0.0879443, 0.209987, 0.0894542, 0, 0
3, 1560.00000, 0.207233, 0.0882809, 0.206443, 0.0879443, 0.209987, 0.0894542, 0, 0
3, 1620.00000, 0.207233, 0.0882809, 0.206443, 0.0879443, 0.209987, 0.0894542, 0, 0
3, 1680.00000, 0.207233, 0.0882809, 0.206443, 0.0879443, 0.209987, 0.0894542, 0, 0
3, 1740.00000, 0.207233, 0.0882809, 0.206443, 0.0879443, 0.209987, 0.0894542, 0, 0
3, 1800.00000, 0.207233, 0.0882809, 0.206443, 0.0879443, 0.209987, 0.0894542, 0, 0
3, 1860.00000, 0.207233, 0.0882809, 0.206443, 0.0879443, 0.209987, 0.0894542, 0, 0
3, 1920.00000, 0.207233, 0.0882809, 0.206443, 0.0879443, 0.209987, 0.0894542, 0, 0
3, 1980.00000, 0.207233, 0.0882809, 0.206443, 0.0879443, 0.209987, 0.0894542, 0, 0
3, 2040.00000, 0.207233, 0.0882809, 0.206443, 0.0879443, 0.209987, 0.0894542, 0, 0
3, 2100.00000, 0.207233, 0.0882809, 0.206443, 0.0879443, 0.209987, 0.0894542, 0, 0
3, 2160.00000, 0.207233, 0.0882809, 0.206443, 0.0879443, 0.209987, 0.0894542, 0, 0
3, 2220.00000, 0.207233, 0.0882809, 0.206443, 0.0879443, 0.209987, 0.0894542, 0, 0
3, 2280.00000, 0.207233, 0.0882809, 0.206443, 0.0879443, 0.209987, 0.0894542, 0, 0
3, 2340.00000, 0.207233, 0.0882809, 0.206443, 0.0879443, 0.209987, 0.0894542, 0, 0
3, 2400.00000, 0.207233, 0.0882809, 0.206443, 0.0879443, 0.209987, 0.0894542, 0, 0
3, 2460.00000, 0.207233, 0.0882809, 0.206443, 0.0879443, 0.209987, 0.0894542, 0, 0
3, 2520.00000, 0.207233, 0.0882809, 0.206443, 0.0879443, 0.209987, 0.0894542, 0, 0
3, 2580.00000, 0.207233, 0.0882809, 0.206443, 0.0879443, 0.209987, 0.0894542, 0, 0
3, 2640.00000, 0.207233, 0.0882809, 0.206443, 0.0879443, 0.209987, 0.0894542, 0, 0
3, 2700.00000, 0.207233, 0.0882809, 0.206443, 0.0879443, 0.209987, 0.0894542, 0, 0
3, 2760.00000, 0.207233, 0.0882809, 0.206443, 0.0879443, 0.209987, 0.0894542, 0, 0
3, 2820.00000, 0.207233, 0.0882809, 0.206443, 0.0879443, 0.209987, 0.0894542, 0, 0
3, 2880.00000, 0.207233, 0.0882809, 0.206443, 0.0879443, 0.209987, 0.0894542, 0, 0
3, 2940.00000, 0.207233, 0.0882809, 0.206443, 0.0879443, 0.209987, 0.0894542, 0, 0
3, 3000.00000, 0.207233, 0.0882809, 0.206443, 0.0879443, 0.209987, 0.0894542, 0, 0
3, 3060.00000, 0.207233, 0.0882809, 0.206443, 0.0879443, 0.209987, 0.0894542, 0, 0
3, 3120.00000, 0.207233, 0.0882809, 0.206443, 0.0879443, 0.209987, 0.0894542, 0, 0
3, 3180.00000, 0.218341, 0.0930121, 0.217558, 0.0926789, 0.221306, 0.0942758, 0, 0
3, 3240.00000, 0.218339, 0.0930122, 0.217557, 0.0926788, 0.221305, 0.0942756, 0, 0
3, 3300.00000, 0.218339, 0.0930121, 0.217557, 0.0926788, 0.221305, 0.0942756, 0, 0
3, 3360.00000, 0.218339, 0.0930121, 0.217557, 0.0926788, 0.221305, 0.0942756, 0, 0
3, 3420.00000, 0.218339, 0.0930121, 0.217557, 0.0926788, 0.221305, 0.0942756, 0, 0
3, 3480.00000, 0.218339, 0.0930121, 0.217557, 0.0926788, 0.221305, 0.0942756, 0, 0
3, 3540.00000, 0.218339, 0.0930121, 0.217557, 0.0926788, 0.221305, 0.0942756, 0, 0
4, 0.00000, 0.218339, 0.0930121, 0.217557, 0.0926788, 0.221305, 0.0942756, 0, 0
