hour,t(sec),V1,VAngle1,V2,VAngle2,V3,VAngle3,V4,VAngle4,I1,IAngle1,I2,IAngle2,I3,IAngle3,I4,IAngle4
0, 60.00000, 116.363, -33.87, 116.392, -150.939, 122.514, 87.5892, 0, 0, 6.39269, -56.944, 6.39422, -174.012, 6.55544, 64.5165, 0.119231, 64.196
0, 120.00000, 116.358, -33.895, 116.392, -150.939, 122.563, 87.5746, 0, 0, 6.39234, -56.9689, 6.39421, -174.013, 6.55279, 64.5017, 0.124001, 64.1651
0, 180.00000, 116.353, -33.9175, 116.392, -150.94, 122.607, 87.5614, 0, 0, 6.39202, -56.9914, 6.39419, -174.013, 6.55042, 64.4885, 0.128289, 64.139
0, 240.00000, 116.348, -33.9378, 116.391, -150.94, 122.646, 87.5495, 0, 0, 6.39172, -57.0117, 6.39418, -174.014, 6.54828, 64.4765, 0.132145, 64.1162
0, 300.00000, 116.344, -33.956, 116.391, -150.941, 122.682, 87.5388, 0, 0, 6.39146, -57.0299, 6.39417, -174.014, 6.54637, 64.4657, 0.135613, 64.0961
0, 360.00000, 116.341, -33.9725, 116.391, -150.941, 122.714, 87.5291, 0, 0, 6.39122, -57.0464, 6.39416, -174.015, 6.54464, 64.456, 0.138733, 64.0783
0, 420.00000, 116.337, -33.9873, 116.391, -150.941, 122.742, 87.5204, 0, 0, 6.39101, -57.0612, 6.39415, -174.015, 6.54309, 64.4472, 0.14154, 64.0625
0, 480.00000, 117.297, -33.9081, 117.318, -150.865, 123.889, 87.6279, 0, 0, 5.82766, -56.982, 5.8287, -173.939, 5.85735, 64.5546, 0.236824, 63.9538
0, 540.00000, 117.295, -33.9202, 117.318, -150.866, 123.913, 87.6208, 0, 0, 5.82751, -56.994, 5.82869, -173.939, 5.8562, 64.5474, 0.238902, 63.945
0, 600.00000, 117.292, -33.931, 117.318, -150.866, 123.934, 87.6144, 0, 0, 5.82736, -57.0048, 5.82869, -173.94, 5.85518, 64.541, 0.240767, 63.9377
0, 660.00000, 117.29, -33.9407, 117.318, -150.866, 123.953, 87.6087, 0, 0, 5.82723, -57.0146, 5.82868, -173.94, 5.85426, 64.5352, 0.242446, 63.931
0, 720.00000, 117.288, -33.9495, 117.318, -150.866, 123.971, 87.6035, 0, 0, 5.82712, -57.0234, 5.82868, -173.94, 5.85343, 64.53, 0.243956, 63.925
0, 780.00000, 117.286, -33.9574, 117.318, -150.866, 123.986, 87.5989, 0, 0, 5.82701, -57.0313, 5.82867, -173.94, 5.85268, 64.5253, 0.245315, 63.9196
0, 840.00000, 117.285, -33.9645, 117.318, -150.867, 124, 87.5947, 0, 0, 5.82692, -57.0384, 5.82867, -173.94, 5.85201, 64.5211, 0.246537, 63.9148
0, 900.00000, 117.283, -33.9709, 117.318, -150.867, 124.013, 87.5909, 0, 0, 5.82683, -57.0448, 5.82867, -173.94, 5.85141, 64.5173, 0.247637, 63.9104
0, 960.00000, 115.783, -33.6091, 117.316, -150.853, 122.391, 87.1529, 0, 0, 5.74393, -56.6831, 5.82856, -173.926, 5.92892, 64.0793, 0.0974489, 59.6861
0, 1020.00000, 115.781, -33.6142, 117.316, -150.853, 122.401, 87.1499, 0, 0, 5.74386, -56.6882, 5.82856, -173.926, 5.92844, 64.0762, 0.0983232, 59.7161
0, 1080.00000, 115.78, -33.6188, 117.316, -150.853, 122.41, 87.1472, 0, 0, 5.74379, -56.6928, 5.82856, -173.927, 5.928, 64.0735, 0.0991124, 59.7418
0, 1140.00000, 115.779, -33.6229, 117.316, -150.853, 122.418, 87.1448, 0, 0, 5.74373, -56.6969, 5.82856, -173.927, 5.9276, 64.0711, 0.0998227, 59.7644
0, 1200.00000, 115.778, -33.6267, 117.315, -150.853, 122.426, 87.1426, 0, 0, 5.74368, -56.7006, 5.82855, -173.927, 5.92724, 64.0689, 0.100462, 59.7845
0, 1260.00000, 115.777, -33.63, 117.315, -150.853, 122.432, 87.1407, 0, 0, 5.74363, -56.704, 5.82855, -173.927, 5.92692, 64.0669, 0.101037, 59.8024
0, 1320.00000, 115.777, -33.633, 117.315, -150.853, 122.438, 87.1389, 0, 0, 5.74358, -56.707, 5.82855, -173.927, 5.92663, 64.0651, 0.101555, 59.8183
0, 1380.00000, 115.776, -33.6357, 117.315, -150.853, 122.443, 87.1373, 0, 0, 5.74354, -56.7097, 5.82855, -173.927, 5.92637, 64.0635, 0.102021, 59.8324
0, 1440.00000, 115.775, -33.6382, 117.315, -150.853, 122.448, 87.1359, 0, 0, 5.74351, -56.7121, 5.82855, -173.927, 5.92614, 64.062, 0.10244, 59.845
0, 1500.00000, 115.775, -33.6404, 117.315, -150.853, 122.453, 87.1346, 0, 0, 5.74347, -56.7143, 5.82855, -173.927, 5.92593, 64.0607, 0.102817, 59.8562
0, 1560.00000, 115.774, -33.6424, 117.315, -150.853, 122.456, 87.1334, 0, 0, 5.74344, -56.7163, 5.82855, -173.927, 5.92574, 64.0596, 0.103157, 59.8662
0, 1620.00000, 115.774, -33.6441, 117.315, -150.853, 122.46, 87.1324, 0, 0, 5.74342, -56.7181, 5.82855, -173.927, 5.92557, 64.0585, 0.103462, 59.8752
0, 1680.00000, 115.773, -33.6457, 117.315, -150.853, 122.463, 87.1314, 0, 0, 5.74339, -56.7197, 5.82854, -173.927, 5.92542, 64.0576, 0.103737, 59.8832
0, 1740.00000, 115.773, -33.6472, 117.315, -150.853, 122.466, 87.1306, 0, 0, 5.74337, -56.7211, 5.82854, -173.927, 5.92528, 64.0567, 0.103985, 59.8904
0, 1800.00000, 115.773, -33.6485, 117.315, -150.853, 122.468, 87.1298, 0, 0, 5.74335, -56.7224, 5.82854, -173.927, 5.92515, 64.0559, 0.104207, 59.8968
0, 1860.00000, 115.772, -33.6496, 117.315, -150.853, 122.471, 87.1291, 0, 0, 5.74334, -56.7236, 5.82854, -173.927, 5.92504, 64.0553, 0.104408, 59.9025
0, 1920.00000, 115.772, -33.6507, 117.315, -150.853, 122.473, 87.1285, 0, 0, 5.74332, -56.7246, 5.82854, -173.927, 5.92494, 64.0546, 0.104588, 59.9077
0, 1980.00000, 115.772, -33.6516, 117.315, -150.853, 122.475, 87.1279, 0, 0, 5.74331, -56.7256, 5.82854, -173.927, 5.92485, 64.0541, 0.104751, 59.9123
0, 2040.00000, 115.772, -33.6525, 117.315, -150.853, 122.476, 87.1274, 0, 0, 5.74329, -56.7264, 5.82854, -173.927, 5.92477, 64.0536, 0.104897, 59.9164
0, 2100.00000, 115.772, -33.6533, 117.315, -150.853, 122.478, 87.127, 0, 0, 5.74328, -56.7272, 5.82854, -173.927, 5.9247, 64.0531, 0.105028, 59.9201
0, 2160.00000, 115.771, -33.6539, 117.315, -150.853, 122.479, 87.1266, 0, 0, 5.74327, -56.7279, 5.82854, -173.927, 5.92463, 64.0527, 0.105147, 59.9235
0, 2220.00000, 115.771, -33.6546, 117.315, -150.853, 122.48, 87.1262, 0, 0, 5.74326, -56.7285, 5.82854, -173.927, 5.92457, 64.0523, 0.105253, 59.9265
0, 2280.00000, 115.771, -33.6551, 117.315, -150.854, 122.481, 87.1259, 0, 0, 5.74325, -56.729, 5.82854, -173.927, 5.92452, 64.052, 0.105349, 59.9292
0, 2340.00000, 115.771, -33.6556, 117.315, -150.854, 122.482, 87.1256, 0, 0, 5.74325, -56.7295, 5.82854, -173.927, 5.92447, 64.0517, 0.105435, 59.9316
0, 2400.00000, 115.771, -33.6561, 117.315, -150.854, 122.483, 87.1253, 0, 0, 5.74324, -56.73, 5.82854, -173.927, 5.92443, 64.0514, 0.105513, 59.9338
0, 2460.00000, 115.771, -33.6565, 117.315, -150.854, 122.484, 87.1251, 0, 0, 5.74323, -56.7304, 5.82854, -173.927, 5.92439, 64.0512, 0.105583, 59.9357
0, 2520.00000, 115.771, -33.6569, 117.315, -150.854, 122.485, 87.1249, 0, 0, 5.74323, -56.7308, 5.82854, -173.927, 5.92435, 64.051, 0.105646, 59.9375
0, 2580.00000, 115.771, -33.6572, 117.315, -150.854, 122.485, 87.1247, 0, 0, 5.74322, -56.7311, 5.82854, -173.927, 5.92432, 64.0508, 0.105702, 59.939
0, 2640.00000, 115.771, -33.6575, 117.315, -150.854, 122.486, 87.1245, 0, 0, 5.74322, -56.7314, 5.82854, -173.927, 5.92429, 64.0506, 0.105753, 59.9404
0, 2700.00000, 115.77, -33.6577, 117.315, -150.854, 122.487, 87.1244, 0, 0, 5.74322, -56.7317, 5.82854, -173.927, 5.92427, 64.0504, 0.105799, 59.9417
0, 2760.00000, 115.767, -33.6577, 117.467, -150.712, 122.908, 87.1468, 0, 0, 5.74304, -56.7316, 5.83691, -173.786, 5.90395, 64.0729, 0.142696, 60.2382
0, 2820.00000, 115.767, -33.6579, 117.467, -150.712, 122.908, 87.1467, 0, 0, 5.74304, -56.7318, 5.83691, -173.786, 5.90393, 64.0728, 0.142734, 60.2385
0, 2880.00000, 115.767, -33.6581, 117.467, -150.712, 122.909, 87.1466, 0, 0, 5.74304, -56.732, 5.83691, -173.786, 5.90391, 64.0727, 0.142767, 60.2391
0, 2940.00000, 115.767, -33.6583, 117.467, -150.712, 122.909, 87.1465, 0, 0, 5.74303, -56.7322, 5.83691, -173.786, 5.9039, 64.0726, 0.142797, 60.2396
0, 3000.00000, 115.767, -33.6584, 117.467, -150.712, 122.909, 87.1464, 0, 0, 5.74303, -56.7323, 5.83691, -173.786, 5.90388, 64.0725, 0.142824, 60.2401
0, 3060.00000, 115.767, -33.6586, 117.467, -150.712, 122.91, 87.1463, 0, 0, 5.74303, -56.7325, 5.83691, -173.786, 5.90387, 64.0724, 0.142849, 60.2406
0, 3120.00000, 115.767, -33.6587, 117.467, -150.712, 122.91, 87.1462, 0, 0, 5.74303, -56.7326, 5.83691, -173.786, 5.90386, 64.0723, 0.14287, 60.2409
0, 3180.00000, 115.767, -33.6588, 117.467, -150.712, 122.91, 87.1462, 0, 0, 5.74302, -56.7327, 5.83691, -173.786, 5.90384, 64.0723, 0.14289, 60.2413
0, 3240.00000, 115.767, -33.6589, 117.467, -150.712, 122.91, 87.1461, 0, 0, 5.74302, -56.7328, 5.83691, -173.786, 5.90383, 64.0722, 0.142908, 60.2416
0, 3300.00000, 115.767, -33.659, 117.467, -150.712, 122.911, 87.1461, 0, 0, 5.74302, -56.7329, 5.83691, -173.786, 5.90383, 64.0721, 0.142924, 60.2419
0, 3360.00000, 115.767, -33.6591, 117.467, -150.712, 122.911, 87.146, 0, 0, 5.74302, -56.733, 5.83691, -173.786, 5.90382, 64.0721, 0.142938, 60.2421
0, 3420.00000, 115.767, -33.6592, 117.467, -150.712, 122.911, 87.146, 0, 0, 5.74302, -56.7331, 5.83691, -173.786, 5.90381, 64.072, 0.142951, 60.2424
0, 3480.00000, 115.767, -33.6592, 117.467, -150.712, 122.911, 87.1459, 0, 0, 5.74302, -56.7331, 5.83691, -173.786, 5.9038, 64.072, 0.142963, 60.2426
0, 3540.00000, 115.767, -33.6593, 117.467, -150.712, 122.911, 87.1459, 0, 0, 5.74302, -56.7332, 5.83691, -173.786, 5.9038, 64.072, 0.142973, 60.2428
1, 0.00000, 115.767, -33.6593, 117.467, -150.712, 122.911, 87.1459, 0, 0, 5.74302, -56.7333, 5.83691, -173.786, 5.90379, 64.0719, 0.142982, 60.2429
1, 60.00000, 115.869, -33.5212, 117.77, -150.686, 122.912, 87.1495, 0, 0, 5.74863, -56.5951, 5.85364, -173.76, 5.90376, 64.0755, 0.145245, 59.8292
1, 120.00000, 115.869, -33.5212, 117.77, -150.686, 122.912, 87.1494, 0, 0, 5.74863, -56.5952, 5.85364, -173.76, 5.90375, 64.0755, 0.145253, 59.8293
1, 180.00000, 115.869, -33.5213, 117.77, -150.686, 122.912, 87.1494, 0, 0, 5.74863, -56.5952, 5.85364, -173.76, 5.90375, 64.0755, 0.14526, 59.8294
1, 240.00000, 115.869, -33.5213, 117.77, -150.686, 122.912, 87.1494, 0, 0, 5.74863, -56.5952, 5.85364, -173.76, 5.90374, 64.0755, 0.145266, 59.8296
1, 300.00000, 115.869, -33.5214, 117.77, -150.686, 122.912, 87.1494, 0, 0, 5.74863, -56.5953, 5.85364, -173.76, 5.90374, 64.0755, 0.145272, 59.8297
1, 360.00000, 115.869, -33.5214, 117.77, -150.686, 122.912, 87.1494, 0, 0, 5.74863, -56.5953, 5.85364, -173.76, 5.90374, 64.0754, 0.145277, 59.8298
1, 420.00000, 115.868, -33.5214, 117.77, -150.686, 122.912, 87.1493, 0, 0, 5.74863, -56.5953, 5.85364, -173.76, 5.90374, 64.0754, 0.145281, 59.8299
1, 480.00000, 115.868, -33.5214, 117.77, -150.686, 122.912, 87.1493, 0, 0, 5.74863, -56.5953, 5.85364, -173.76, 5.90373, 64.0754, 0.145285, 59.8299
1, 540.00000, 115.868, -33.5215, 117.77, -150.686, 122.913, 87.1493, 0, 0, 5.74863, -56.5954, 5.85364, -173.76, 5.90373, 64.0754, 0.145289, 59.83
1, 600.00000, 115.868, -33.5215, 117.77, -150.686, 122.913, 87.1493, 0, 0, 5.74863, -56.5954, 5.85364, -173.76, 5.90373, 64.0754, 0.145292, 59.8301
1, 660.00000, 115.868, -33.5215, 117.77, -150.686, 122.913, 87.1493, 0, 0, 5.74863, -56.5954, 5.85364, -173.76, 5.90373, 64.0754, 0.145295, 59.8302
1, 720.00000, 115.868, -33.5215, 117.77, -150.686, 122.913, 87.1493, 0, 0, 5.74863, -56.5954, 5.85364, -173.76, 5.90373, 64.0754, 0.145298, 59.8302
1, 780.00000, 115.868, -33.5215, 117.77, -150.686, 122.913, 87.1493, 0, 0, 5.74863, -56.5954, 5.85364, -173.76, 5.90373, 64.0754, 0.1453, 59.8303
1, 840.00000, 115.868, -33.5215, 117.77, -150.686, 122.913, 87.1493, 0, 0, 5.74863, -56.5954, 5.85364, -173.76, 5.90372, 64.0753, 0.145302, 59.8303
1, 900.00000, 115.868, -33.5215, 117.77, -150.686, 122.913, 87.1493, 0, 0, 5.74863, -56.5955, 5.85364, -173.76, 5.90372, 64.0753, 0.145304, 59.8303
1, 960.00000, 115.868, -33.5216, 117.77, -150.686, 122.913, 87.1492, 0, 0, 5.74863, -56.5955, 5.85364, -173.76, 5.90372, 64.0753, 0.145306, 59.8304
1, 1020.00000, 115.868, -33.5216, 117.77, -150.686, 122.913, 87.1492, 0, 0, 5.74863, -56.5955, 5.85364, -173.76, 5.90372, 64.0753, 0.145307, 59.8304
1, 1080.00000, 115.868, -33.5216, 117.77, -150.686, 122.913, 87.1492, 0, 0, 5.74863, -56.5955, 5.85364, -173.76, 5.90372, 64.0753, 0.145309, 59.8304
1, 1140.00000, 115.868, -33.5216, 117.77, -150.686, 122.913, 87.1492, 0, 0, 5.74863, -56.5955, 5.85364, -173.76, 5.90372, 64.0753, 0.14531, 59.8305
1, 1200.00000, 115.868, -33.5216, 117.77, -150.686, 122.913, 87.1492, 0, 0, 5.74863, -56.5955, 5.85364, -173.76, 5.90372, 64.0753, 0.145311, 59.8305
1, 1260.00000, 115.868, -33.5216, 117.77, -150.686, 122.913, 87.1492, 0, 0, 5.74863, -56.5955, 5.85364, -173.76, 5.90372, 64.0753, 0.145312, 59.8305
1, 1320.00000, 115.868, -33.5216, 117.77, -150.686, 122.913, 87.1492, 0, 0, 5.74863, -56.5955, 5.85364, -173.76, 5.90372, 64.0753, 0.145313, 59.8305
1, 1380.00000, 115.868, -33.5216, 117.77, -150.686, 122.913, 87.1492, 0, 0, 5.74863, -56.5955, 5.85364, -173.76, 5.90372, 64.0753, 0.145314, 59.8305
1, 1440.00000, 115.868, -33.5216, 117.77, -150.686, 122.913, 87.1492, 0, 0, 5.74863, -56.5955, 5.85364, -173.76, 5.90372, 64.0753, 0.145315, 59.8306
1, 1500.00000, 115.868, -33.5216, 117.77, -150.686, 122.913, 87.1492, 0, 0, 5.74863, -56.5955, 5.85364, -173.76, 5.90372, 64.0753, 0.145315, 59.8306
1, 1560.00000, 115.868, -33.5216, 117.77, -150.686, 122.913, 87.1492, 0, 0, 5.74863, -56.5955, 5.85364, -173.76, 5.90372, 64.0753, 0.145316, 59.8306
1, 1620.00000, 115.868, -33.5216, 117.77, -150.686, 122.913, 87.1492, 0, 0, 5.74863, -56.5955, 5.85364, -173.76, 5.90372, 64.0753, 0.145317, 59.8306
1, 1680.00000, 115.868, -33.5216, 117.77, -150.686, 122.913, 87.1492, 0, 0, 5.74863, -56.5955, 5.85364, -173.76, 5.90372, 64.0753, 0.145317, 59.8306
1, 1740.00000, 115.868, -33.5216, 117.77, -150.686, 122.913, 87.1492, 0, 0, 5.74863, -56.5955, 5.85364, -173.76, 5.90372, 64.0753, 0.145318, 59.8306
1, 1800.00000, 115.868, -33.5216, 117.77, -150.686, 122.913, 87.1492, 0, 0, 5.74862, -56.5955, 5.85364, -173.76, 5.90372, 64.0753, 0.145318, 59.8306
1, 1860.00000, 115.868, -33.5216, 117.77, -150.686, 122.913, 87.1492, 0, 0, 5.74862, -56.5955, 5.85364, -173.76, 5.90371, 64.0753, 0.145318, 59.8306
1, 1920.00000, 115.868, -33.5216, 117.77, -150.686, 122.913, 87.1492, 0, 0, 5.74862, -56.5955, 5.85364, -173.76, 5.90371, 64.0753, 0.145319, 59.8306
1, 1980.00000, 115.868, -33.5216, 117.77, -150.686, 122.913, 87.1492, 0, 0, 5.74862, -56.5955, 5.85364, -173.76, 5.90371, 64.0753, 0.145319, 59.8306
1, 2040.00000, 115.868, -33.5216, 117.77, -150.686, 122.913, 87.1492, 0, 0, 5.74862, -56.5955, 5.85364, -173.76, 5.90371, 64.0753, 0.145319, 59.8306
1, 2100.00000, 115.868, -33.5216, 117.77, -150.686, 122.913, 87.1492, 0, 0, 5.74862, -56.5956, 5.85364, -173.76, 5.90371, 64.0753, 0.145319, 59.8306
1, 2160.00000, 115.868, -33.5216, 117.77, -150.686, 122.913, 87.1492, 0, 0, 5.74862, -56.5956, 5.85364, -173.76, 5.90371, 64.0753, 0.14532, 59.8307
1, 2220.00000, 115.868, -33.5216, 117.77, -150.686, 122.913, 87.1492, 0, 0, 5.74862, -56.5956, 5.85364, -173.76, 5.90371, 64.0753, 0.14532, 59.8307
1, 2280.00000, 115.868, -33.5216, 117.77, -150.686, 122.913, 87.1492, 0, 0, 5.74862, -56.5956, 5.85364, -173.76, 5.90371, 64.0753, 0.14532, 59.8307
1, 2340.00000, 115.868, -33.5216, 117.77, -150.686, 122.913, 87.1492, 0, 0, 5.74862, -56.5956, 5.85364, -173.76, 5.90371, 64.0753, 0.14532, 59.8307
1, 2400.00000, 115.868, -33.5216, 117.77, -150.686, 122.913, 87.1492, 0, 0, 5.74862, -56.5956, 5.85364, -173.76, 5.90371, 64.0753, 0.14532, 59.8307
1, 2460.00000, 115.868, -33.5216, 117.77, -150.686, 122.913, 87.1492, 0, 0, 5.74862, -56.5956, 5.85364, -173.76, 5.90371, 64.0753, 0.14532, 59.8307
1, 2520.00000, 115.868, -33.5216, 117.77, -150.686, 122.913, 87.1492, 0, 0, 5.74862, -56.5956, 5.85364, -173.76, 5.90371, 64.0753, 0.145321, 59.8307
1, 2580.00000, 115.868, -33.5216, 117.77, -150.686, 122.913, 87.1492, 0, 0, 5.74862, -56.5956, 5.85364, -173.76, 5.90371, 64.0753, 0.145321, 59.8307
1, 2640.00000, 115.868, -33.5216, 117.77, -150.686, 122.913, 87.1492, 0, 0, 5.74862, -56.5956, 5.85364, -173.76, 5.90371, 64.0753, 0.145321, 59.8307
1, 2700.00000, 115.868, -33.5216, 117.77, -150.686, 122.913, 87.1492, 0, 0, 5.74862, -56.5956, 5.85364, -173.76, 5.90371, 64.0753, 0.145321, 59.8307
1, 2760.00000, 115.868, -33.5216, 117.77, -150.686, 122.913, 87.1492, 0, 0, 5.74862, -56.5956, 5.85364, -173.76, 5.90371, 64.0753, 0.145321, 59.8307
1, 2820.00000, 115.868, -33.5216, 117.77, -150.686, 122.913, 87.1492, 0, 0, 5.74862, -56.5956, 5.85364, -173.76, 5.90371, 64.0753, 0.145321, 59.8307
1, 2880.00000, 115.868, -33.5216, 117.77, -150.686, 122.913, 87.1492, 0, 0, 5.74862, -56.5956, 5.85364, -173.76, 5.90371, 64.0753, 0.145321, 59.8307
1, 2940.00000, 115.868, -33.5216, 117.77, -150.686, 122.913, 87.1492, 0, 0, 5.74862, -56.5956, 5.85364, -173.76, 5.90371, 64.0753, 0.145321, 59.8307
1, 3000.00000, 115.868, -33.5216, 117.77, -150.686, 122.913, 87.1492, 0, 0, 5.74862, -56.5956, 5.85364, -173.76, 5.90371, 64.0753, 0.145321, 59.8307
1, 3060.00000, 115.868, -33.5216, 117.77, -150.686, 122.913, 87.1492, 0, 0, 5.74862, -56.5956, 5.85364, -173.76, 5.90371, 64.0753, 0.145321, 59.8307
1, 3120.00000, 115.868, -33.5216, 117.77, -150.686, 122.913, 87.1492, 0, 0, 5.74862, -56.5956, 5.85364, -173.76, 5.90371, 64.0753, 0.145321, 59.8307
1, 3180.00000, 115.868, -33.5216, 117.77, -150.686, 122.913, 87.1492, 0, 0, 5.74862, -56.5956, 5.85364, -173.76, 5.90371, 64.0753, 0.145321, 59.8307
1, 3240.00000, 115.868, -33.5216, 117.77, -150.686, 122.913, 87.1492, 0, 0, 5.74862, -56.5956, 5.85364, -173.76, 5.90371, 64.0753, 0.145321, 59.8307
1, 3300.00000, 115.868, -33.5216, 117.77, -150.686, 122.913, 87.1492, 0, 0, 5.74862, -56.5956, 5.85364, -173.76, 5.90371, 64.0753, 0.145321, 59.8307
1, 3360.00000, 115.868, -33.5216, 117.77, -150.686, 122.913, 87.1492, 0, 0, 5.74862, -56.5956, 5.85364, -173.76, 5.90371, 64.0753, 0.145321, 59.8307
1, 3420.00000, 115.868, -33.5216, 117.77, -150.686, 122.913, 87.1492, 0, 0, 5.74862, -56.5956, 5.85364, -173.76, 5.90371, 64.0753, 0.145321, 59.8307
1, 3480.00000, 115.868, -33.5216, 117.77, -150.686, 122.913, 87.1492, 0, 0, 5.74862, -56.5956, 5.85364, -173.76, 5.90371, 64.0753, 0.145321, 59.8307
1, 3540.00000, 115.868, -33.5216, 117.77, -150.686, 122.913, 87.1492, 0, 0, 5.74862, -56.5956, 5.85364, -173.76, 5.90371, 64.0753, 0.145321, 59.8307
2, 0.00000, 115.868, -33.5216, 117.77, -150.686, 122.913, 87.1492, 0, 0, 5.74862, -56.5956, 5.85364, -173.76, 5.90371, 64.0753, 0.145321, 59.8307
2, 60.00000, 115.868, -33.5216, 117.77, -150.686, 122.913, 87.1492, 0, 0, 5.74862, -56.5956, 5.85364, -173.76, 5.90371, 64.0753, 0.145321, 59.8307
2, 120.00000, 115.868, -33.5216, 117.77, -150.686, 122.913, 87.1492, 0, 0, 5.74862, -56.5956, 5.85364, -173.76, 5.90371, 64.0753, 0.145321, 59.8307
2, 180.00000, 115.868, -33.5216, 117.77, -150.686, 122.913, 87.1492, 0, 0, 5.74862, -56.5956, 5.85364, -173.76, 5.90371, 64.0753, 0.145321, 59.8307
2, 240.00000, 115.868, -33.5216, 117.77, -150.686, 122.913, 87.1492, 0, 0, 5.74862, -56.5956, 5.85364, -173.76, 5.90371, 64.0753, 0.145321, 59.8307
2, 300.00000, 115.868, -33.5216, 117.77, -150.686, 122.913, 87.1492, 0, 0, 5.74862, -56.5956, 5.85364, -173.76, 5.90371, 64.0753, 0.145321, 59.8307
2, 360.00000, 115.868, -33.5216, 117.77, -150.686, 122.913, 87.1492, 0, 0, 5.74862, -56.5956, 5.85364, -173.76, 5.90371, 64.0753, 0.145321, 59.8307
2, 420.00000, 115.868, -33.5216, 117.77, -150.686, 122.913, 87.1492, 0, 0, 5.74862, -56.5956, 5.85364, -173.76, 5.90371, 64.0753, 0.145321, 59.8307
2, 480.00000, 115.868, -33.5216, 117.77, -150.686, 122.913, 87.1492, 0, 0, 5.74862, -56.5956, 5.85364, -173.76, 5.90371, 64.0753, 0.145321, 59.8307
2, 540.00000, 115.868, -33.5216, 117.77, -150.686, 122.913, 87.1492, 0, 0, 5.74862, -56.5956, 5.85364, -173.76, 5.90371, 64.0753, 0.145321, 59.8307
2, 600.00000, 115.868, -33.5216, 117.77, -150.686, 122.913, 87.1492, 0, 0, 5.74862, -56.5956, 5.85364, -173.76, 5.90371, 64.0753, 0.145321, 59.8307
2, 660.00000, 115.868, -33.5216, 117.77, -150.686, 122.913, 87.1492, 0, 0, 5.74862, -56.5956, 5.85364, -173.76, 5.90371, 64.0753, 0.145321, 59.8307
2, 720.00000, 115.868, -33.5216, 117.77, -150.686, 122.913, 87.1492, 0, 0, 5.74862, -56.5956, 5.85364, -173.76, 5.90371, 64.0753, 0.145321, 59.8307
2, 780.00000, 115.868, -33.5216, 117.77, -150.686, 122.913, 87.1492, 0, 0, 5.74862, -56.5956, 5.85364, -173.76, 5.90371, 64.0753, 0.145321, 59.8307
