hour,t(sec),V1,VAngle1,V2,VAngle2,V3,VAngle3,V4,VAngle4,I1,IAngle1,I2,IAngle2,I3,IAngle3,I4,IAngle4
0, 60.00000, 119.601, -31.0409, 120.515, -150.781, 121.063, 88.7468, 0, 0, 4.17196, -54.1145, 4.20732, -173.855, 4.19919, 65.6734, 0.00887426, 27.5137
0, 120.00000, 119.601, -31.0409, 120.515, -150.781, 121.063, 88.7468, 0, 0, 4.1719, -54.1149, 4.20727, -173.855, 4.19932, 65.6729, 0.00873396, 26.9162
0, 180.00000, 119.601, -31.0409, 120.515, -150.781, 121.063, 88.7468, 0, 0, 4.1719, -54.1149, 4.20727, -173.855, 4.19933, 65.6729, 0.00873345, 26.9134
0, 240.00000, 119.601, -31.0409, 120.515, -150.781, 121.063, 88.7468, 0, 0, 4.1719, -54.1149, 4.20727, -173.855, 4.19933, 65.6729, 0.00873344, 26.9133
0, 300.00000, 119.601, -31.0409, 120.515, -150.781, 121.063, 88.7468, 0, 0, 4.1719, -54.1149, 4.20727, -173.855, 4.19933, 65.6729, 0.00873344, 26.9133
0, 360.00000, 119.601, -31.0409, 120.515, -150.781, 121.063, 88.7468, 0, 0, 4.1719, -54.1149, 4.20727, -173.855, 4.19933, 65.6729, 0.00873344, 26.9133
0, 420.00000, 119.601, -31.0409, 120.515, -150.781, 121.063, 88.7468, 0, 0, 4.1719, -54.1149, 4.20727, -173.855, 4.19933, 65.6729, 0.00873344, 26.9133
0, 480.00000, 119.601, -31.0409, 120.515, -150.781, 121.063, 88.7468, 0, 0, 4.1719, -54.1149, 4.20727, -173.855, 4.19933, 65.6729, 0.00873344, 26.9133
0, 540.00000, 119.601, -31.0409, 120.515, -150.781, 121.063, 88.7468, 0, 0, 4.1719, -54.1149, 4.20727, -173.855, 4.19933, 65.6729, 0.00873344, 26.9133
0, 600.00000, 119.601, -31.0409, 120.515, -150.781, 121.063, 88.7468, 0, 0, 4.1719, -54.1149, 4.20727, -173.855, 4.19933, 65.6729, 0.00873344, 26.9133
0, 660.00000, 119.601, -31.0409, 120.515, -150.781, 121.063, 88.7468, 0, 0, 4.1719, -54.1149, 4.20727, -173.855, 4.19933, 65.6729, 0.00873344, 26.9133
0, 720.00000, 119.601, -31.0409, 120.515, -150.781, 121.063, 88.7468, 0, 0, 4.1719, -54.1149, 4.20727, -173.855, 4.19933, 65.6729, 0.00873344, 26.9133
0, 780.00000, 119.601, -31.0409, 120.515, -150.781, 121.063, 88.7468, 0, 0, 4.1719, -54.1149, 4.20727, -173.855, 4.19933, 65.6729, 0.00873344, 26.9133
0, 840.00000, 119.601, -31.0409, 120.515, -150.781, 121.063, 88.7468, 0, 0, 4.1719, -54.1149, 4.20727, -173.855, 4.19933, 65.6729, 0.00873344, 26.9133
0, 900.00000, 119.601, -31.0409, 120.515, -150.781, 121.063, 88.7468, 0, 0, 4.1719, -54.1149, 4.20727, -173.855, 4.19933, 65.6729, 0.00873344, 26.9133
0, 960.00000, 117.83, -31.5281, 118.678, -150.406, 120.955, 88.7069, 0, 0, 3.97801, -54.6014, 4.00981, -173.48, 4.07453, 65.6331, 0.0137397, -96.2093
0, 1020.00000, 117.83, -31.5281, 118.678, -150.406, 120.955, 88.7069, 0, 0, 3.9779, -54.602, 4.00971, -173.48, 4.07454, 65.633, 0.0137866, -96.3014
0, 1080.00000, 117.83, -31.5281, 118.678, -150.406, 120.955, 88.7069, 0, 0, 3.9779, -54.602, 4.00971, -173.48, 4.07454, 65.633, 0.0137868, -96.3016
0, 1140.00000, 117.83, -31.5281, 118.678, -150.406, 120.955, 88.7069, 0, 0, 3.9779, -54.602, 4.00971, -173.48, 4.07454, 65.633, 0.0137868, -96.3016
0, 1200.00000, 117.83, -31.5281, 118.678, -150.406, 120.955, 88.7069, 0, 0, 3.9779, -54.602, 4.00971, -173.48, 4.07454, 65.633, 0.0137868, -96.3016
0, 1260.00000, 117.83, -31.5281, 118.678, -150.406, 120.955, 88.7069, 0, 0, 3.9779, -54.602, 4.00971, -173.48, 4.07454, 65.633, 0.0137868, -96.3016
0, 1320.00000, 117.83, -31.5281, 118.678, -150.406, 120.955, 88.7069, 0, 0, 3.9779, -54.602, 4.00971, -173.48, 4.07454, 65.633, 0.0137868, -96.3016
0, 1380.00000, 117.83, -31.5281, 118.678, -150.406, 120.955, 88.7069, 0, 0, 3.9779, -54.602, 4.00971, -173.48, 4.07454, 65.633, 0.0137868, -96.3016
0, 1440.00000, 117.83, -31.5281, 118.678, -150.406, 120.955, 88.7069, 0, 0, 3.9779, -54.602, 4.00971, -173.48, 4.07454, 65.633, 0.0137868, -96.3016
0, 1500.00000, 117.83, -31.5281, 118.678, -150.406, 120.955, 88.7069, 0, 0, 3.9779, -54.602, 4.00971, -173.48, 4.07454, 65.633, 0.0137868, -96.3016
0, 1560.00000, 117.83, -31.5281, 118.678, -150.406, 120.955, 88.7069, 0, 0, 3.9779, -54.602, 4.00971, -173.48, 4.07454, 65.633, 0.0137868, -96.3016
0, 1620.00000, 117.83, -31.5281, 118.678, -150.406, 120.955, 88.7069, 0, 0, 3.9779, -54.602, 4.00971, -173.48, 4.07454, 65.633, 0.0137868, -96.3016
0, 1680.00000, 117.83, -31.5281, 118.678, -150.406, 120.955, 88.7069, 0, 0, 3.9779, -54.602, 4.00971, -173.48, 4.07454, 65.633, 0.0137868, -96.3016
0, 1740.00000, 117.83, -31.5281, 118.678, -150.406, 120.955, 88.7069, 0, 0, 3.9779, -54.602, 4.00971, -173.48, 4.07454, 65.633, 0.0137868, -96.3016
0, 1800.00000, 117.83, -31.5281, 118.678, -150.406, 120.955, 88.7069, 0, 0, 3.9779, -54.602, 4.00971, -173.48, 4.07454, 65.633, 0.0137868, -96.3016
0, 1860.00000, 117.98, -31.5139, 118.825, -150.391, 121.108, 88.725, 0, 0, 3.86139, -54.5876, 3.89205, -173.466, 3.94488, 65.6496, 0.00483594, -55.895
0, 1920.00000, 117.98, -31.5139, 118.825, -150.391, 121.109, 88.7251, 0, 0, 3.86136, -54.5878, 3.89208, -173.465, 3.94457, 65.6512, 0.00479403, -51.2439
0, 1980.00000, 117.98, -31.5139, 118.825, -150.391, 121.109, 88.7251, 0, 0, 3.86136, -54.5878, 3.89208, -173.465, 3.94456, 65.6512, 0.00479372, -51.2263
0, 2040.00000, 117.98, -31.5139, 118.825, -150.391, 121.109, 88.7251, 0, 0, 3.86136, -54.5878, 3.89208, -173.465, 3.94456, 65.6512, 0.00479372, -51.2262
0, 2100.00000, 117.98, -31.5139, 118.825, -150.391, 121.109, 88.7251, 0, 0, 3.86136, -54.5878, 3.89208, -173.465, 3.94456, 65.6512, 0.00479372, -51.2262
0, 2160.00000, 117.98, -31.5139, 118.825, -150.391, 121.109, 88.7251, 0, 0, 3.86136, -54.5878, 3.89208, -173.465, 3.94456, 65.6512, 0.00479372, -51.2262
0, 2220.00000, 117.98, -31.5139, 118.825, -150.391, 121.109, 88.7251, 0, 0, 3.86136, -54.5878, 3.89208, -173.465, 3.94456, 65.6512, 0.00479372, -51.2262
0, 2280.00000, 117.98, -31.5139, 118.825, -150.391, 121.109, 88.7251, 0, 0, 3.86136, -54.5878, 3.89208, -173.465, 3.94456, 65.6512, 0.00479372, -51.2262
0, 2340.00000, 117.98, -31.5139, 118.825, -150.391, 121.109, 88.7251, 0, 0, 3.86136, -54.5878, 3.89208, -173.465, 3.94456, 65.6512, 0.00479372, -51.2262
0, 2400.00000, 117.98, -31.5139, 118.825, -150.391, 121.109, 88.7251, 0, 0, 3.86136, -54.5878, 3.89208, -173.465, 3.94456, 65.6512, 0.00479372, -51.2262
0, 2460.00000, 117.98, -31.5139, 118.825, -150.391, 121.109, 88.7251, 0, 0, 3.86136, -54.5878, 3.89208, -173.465, 3.94456, 65.6512, 0.00479372, -51.2262
0, 2520.00000, 117.98, -31.5139, 118.825, -150.391, 121.109, 88.7251, 0, 0, 3.86136, -54.5878, 3.89208, -173.465, 3.94456, 65.6512, 0.00479372, -51.2262
0, 2580.00000, 117.98, -31.5139, 118.825, -150.391, 121.109, 88.7251, 0, 0, 3.86136, -54.5878, 3.89208, -173.465, 3.94456, 65.6512, 0.00479372, -51.2262
0, 2640.00000, 117.98, -31.5139, 118.825, -150.391, 121.109, 88.7251, 0, 0, 3.86136, -54.5878, 3.89208, -173.465, 3.94456, 65.6512, 0.00479372, -51.2262
0, 2700.00000, 117.98, -31.5139, 118.825, -150.391, 121.109, 88.7251, 0, 0, 3.86136, -54.5878, 3.89208, -173.465, 3.94456, 65.6512, 0.00479372, -51.2262
0, 2760.00000, 118.27, -31.4808, 119.106, -150.358, 121.402, 88.766, 0, 0, 3.86817, -54.5548, 3.89856, -173.432, 3.93135, 65.6917, 0.0183955, 51.6629
0, 2820.00000, 118.27, -31.4807, 119.106, -150.358, 121.402, 88.766, 0, 0, 3.86818, -54.5547, 3.89858, -173.432, 3.93128, 65.6921, 0.0184679, 51.6625
0, 2880.00000, 118.27, -31.4807, 119.106, -150.358, 121.402, 88.766, 0, 0, 3.86818, -54.5547, 3.89858, -173.432, 3.93128, 65.6921, 0.0184685, 51.6624
0, 2940.00000, 118.27, -31.4807, 119.106, -150.358, 121.402, 88.766, 0, 0, 3.86818, -54.5547, 3.89858, -173.432, 3.93128, 65.6921, 0.0184685, 51.6623
0, 3000.00000, 118.27, -31.4807, 119.106, -150.358, 121.402, 88.766, 0, 0, 3.86818, -54.5547, 3.89858, -173.432, 3.93128, 65.6921, 0.0184685, 51.6623
0, 3060.00000, 118.27, -31.4807, 119.106, -150.358, 121.402, 88.766, 0, 0, 3.86818, -54.5547, 3.89858, -173.432, 3.93128, 65.6921, 0.0184685, 51.6623
0, 3120.00000, 118.27, -31.4807, 119.106, -150.358, 121.402, 88.766, 0, 0, 3.86818, -54.5547, 3.89858, -173.432, 3.93128, 65.6921, 0.0184685, 51.6623
0, 3180.00000, 118.27, -31.4807, 119.106, -150.358, 121.402, 88.766, 0, 0, 3.86818, -54.5547, 3.89858, -173.432, 3.93128, 65.6921, 0.0184685, 51.6623
0, 3240.00000, 118.27, -31.4807, 119.106, -150.358, 121.402, 88.766, 0, 0, 3.86818, -54.5547, 3.89858, -173.432, 3.93128, 65.6921, 0.0184685, 51.6623
0, 3300.00000, 118.27, -31.4807, 119.106, -150.358, 121.402, 88.766, 0, 0, 3.86818, -54.5547, 3.89858, -173.432, 3.93128, 65.6921, 0.0184685, 51.6623
0, 3360.00000, 118.27, -31.4807, 119.106, -150.358, 121.402, 88.766, 0, 0, 3.86818, -54.5547, 3.89858, -173.432, 3.93128, 65.6921, 0.0184685, 51.6623
0, 3420.00000, 118.27, -31.4807, 119.106, -150.358, 121.402, 88.766, 0, 0, 3.86818, -54.5547, 3.89858, -173.432, 3.93128, 65.6921, 0.0184685, 51.6623
0, 3480.00000, 118.27, -31.4807, 119.106, -150.358, 121.402, 88.766, 0, 0, 3.86818, -54.5547, 3.89858, -173.432, 3.93128, 65.6921, 0.0184685, 51.6623
0, 3540.00000, 118.27, -31.4807, 119.106, -150.358, 121.402, 88.766, 0, 0, 3.86818, -54.5547, 3.89858, -173.432, 3.93128, 65.6921, 0.0184685, 51.6623
1, 0.00000, 118.27, -31.4807, 119.106, -150.358, 121.402, 88.766, 0, 0, 3.86818, -54.5547, 3.89858, -173.432, 3.93128, 65.6921, 0.0184685, 51.6623
1, 60.00000, 118.46, -31.4563, 119.291, -150.333, 121.599, 88.795, 0, 0, 3.81227, -54.5304, 3.84197, -173.407, 3.86134, 65.7208, 0.0309794, 57.385
1, 120.00000, 118.46, -31.4563, 119.291, -150.333, 121.599, 88.795, 0, 0, 3.81228, -54.5302, 3.84198, -173.407, 3.86127, 65.7211, 0.0310385, 57.3735
1, 180.00000, 118.46, -31.4563, 119.291, -150.333, 121.599, 88.795, 0, 0, 3.81228, -54.5302, 3.84198, -173.407, 3.86127, 65.7211, 0.0310392, 57.3731
1, 240.00000, 118.46, -31.4563, 119.291, -150.333, 121.599, 88.795, 0, 0, 3.81228, -54.5302, 3.84198, -173.407, 3.86127, 65.7211, 0.0310392, 57.3731
1, 300.00000, 118.46, -31.4563, 119.291, -150.333, 121.599, 88.795, 0, 0, 3.81228, -54.5302, 3.84198, -173.407, 3.86127, 65.7211, 0.0310392, 57.3731
1, 360.00000, 118.46, -31.4563, 119.291, -150.333, 121.599, 88.795, 0, 0, 3.81228, -54.5302, 3.84198, -173.407, 3.86127, 65.7211, 0.0310392, 57.3731
1, 420.00000, 118.46, -31.4563, 119.291, -150.333, 121.599, 88.795, 0, 0, 3.81228, -54.5302, 3.84198, -173.407, 3.86127, 65.7211, 0.0310392, 57.3731
1, 480.00000, 118.46, -31.4563, 119.291, -150.333, 121.599, 88.795, 0, 0, 3.81228, -54.5302, 3.84198, -173.407, 3.86127, 65.7211, 0.0310392, 57.3731
1, 540.00000, 118.46, -31.4563, 119.291, -150.333, 121.599, 88.795, 0, 0, 3.81228, -54.5302, 3.84198, -173.407, 3.86127, 65.7211, 0.0310392, 57.3731
1, 600.00000, 118.46, -31.4563, 119.291, -150.333, 121.599, 88.795, 0, 0, 3.81228, -54.5302, 3.84198, -173.407, 3.86127, 65.7211, 0.0310392, 57.3731
1, 660.00000, 118.46, -31.4563, 119.291, -150.333, 121.599, 88.795, 0, 0, 3.81228, -54.5302, 3.84198, -173.407, 3.86127, 65.7211, 0.0310392, 57.3731
1, 720.00000, 118.46, -31.4563, 119.291, -150.333, 121.599, 88.795, 0, 0, 3.81228, -54.5302, 3.84198, -173.407, 3.86127, 65.7211, 0.0310392, 57.3731
1, 780.00000, 118.46, -31.4563, 119.291, -150.333, 121.599, 88.795, 0, 0, 3.81228, -54.5302, 3.84198, -173.407, 3.86127, 65.7211, 0.0310392, 57.3731
1, 840.00000, 118.46, -31.4563, 119.291, -150.333, 121.599, 88.795, 0, 0, 3.81228, -54.5302, 3.84198, -173.407, 3.86127, 65.7211, 0.0310392, 57.3731
1, 900.00000, 118.46, -31.4563, 119.291, -150.333, 121.599, 88.795, 0, 0, 3.81228, -54.5302, 3.84198, -173.407, 3.86127, 65.7211, 0.0310392, 57.3731
1, 960.00000, 118.499, -31.4532, 119.329, -150.33, 121.638, 88.7991, 0, 0, 3.75311, -54.5272, 3.78227, -173.404, 3.79885, 65.7247, 0.0329778, 58.0344
1, 1020.00000, 118.499, -31.4531, 119.329, -150.33, 121.638, 88.7991, 0, 0, 3.75312, -54.5271, 3.78229, -173.404, 3.79873, 65.7252, 0.0331156, 58.012
1, 1080.00000, 118.499, -31.4531, 119.329, -150.33, 121.638, 88.7991, 0, 0, 3.75312, -54.5271, 3.78229, -173.404, 3.79873, 65.7252, 0.0331167, 58.0116
1, 1140.00000, 118.499, -31.4531, 119.329, -150.33, 121.638, 88.7991, 0, 0, 3.75312, -54.5271, 3.78229, -173.404, 3.79873, 65.7252, 0.0331167, 58.0116
1, 1200.00000, 118.499, -31.4531, 119.329, -150.33, 121.638, 88.7991, 0, 0, 3.75312, -54.5271, 3.78229, -173.404, 3.79873, 65.7252, 0.0331167, 58.0116
1, 1260.00000, 118.499, -31.4531, 119.329, -150.33, 121.638, 88.7991, 0, 0, 3.75312, -54.5271, 3.78229, -173.404, 3.79873, 65.7252, 0.0331167, 58.0116
1, 1320.00000, 118.499, -31.4531, 119.329, -150.33, 121.638, 88.7991, 0, 0, 3.75312, -54.5271, 3.78229, -173.404, 3.79873, 65.7252, 0.0331167, 58.0116
1, 1380.00000, 118.499, -31.4531, 119.329, -150.33, 121.638, 88.7991, 0, 0, 3.75312, -54.5271, 3.78229, -173.404, 3.79873, 65.7252, 0.0331167, 58.0116
1, 1440.00000, 118.499, -31.4531, 119.329, -150.33, 121.638, 88.7991, 0, 0, 3.75312, -54.5271, 3.78229, -173.404, 3.79873, 65.7252, 0.0331167, 58.0116
1, 1500.00000, 118.499, -31.4531, 119.329, -150.33, 121.638, 88.7991, 0, 0, 3.75312, -54.5271, 3.78229, -173.404, 3.79873, 65.7252, 0.0331167, 58.0116
1, 1560.00000, 118.499, -31.4531, 119.329, -150.33, 121.638, 88.7991, 0, 0, 3.75312, -54.5271, 3.78229, -173.404, 3.79873, 65.7252, 0.0331167, 58.0116
1, 1620.00000, 118.499, -31.4531, 119.329, -150.33, 121.638, 88.7991, 0, 0, 3.75312, -54.5271, 3.78229, -173.404, 3.79873, 65.7252, 0.0331167, 58.0116
1, 1680.00000, 118.499, -31.4531, 119.329, -150.33, 121.638, 88.7991, 0, 0, 3.75312, -54.5271, 3.78229, -173.404, 3.79873, 65.7252, 0.0331167, 58.0116
1, 1740.00000, 118.499, -31.4531, 119.329, -150.33, 121.638, 88.7991, 0, 0, 3.75312, -54.5271, 3.78229, -173.404, 3.79873, 65.7252, 0.0331167, 58.0116
1, 1800.00000, 118.499, -31.4531, 119.329, -150.33, 121.638, 88.7991, 0, 0, 3.75312, -54.5271, 3.78229, -173.404, 3.79873, 65.7252, 0.0331167, 58.0116
1, 1860.00000, 118.338, -31.478, 119.173, -150.355, 121.472, 88.7703, 0, 0, 3.6496, -54.5518, 3.6782, -173.429, 3.70454, 65.6966, 0.0218795, 54.4611
1, 1920.00000, 118.338, -31.478, 119.173, -150.355, 121.472, 88.7703, 0, 0, 3.64959, -54.5519, 3.6782, -173.429, 3.70459, 65.6964, 0.0218289, 54.4615
1, 1980.00000, 118.338, -31.478, 119.173, -150.355, 121.472, 88.7703, 0, 0, 3.64959, -54.5519, 3.6782, -173.429, 3.70459, 65.6964, 0.0218285, 54.4616
1, 2040.00000, 118.338, -31.478, 119.173, -150.355, 121.472, 88.7703, 0, 0, 3.64959, -54.5519, 3.6782, -173.429, 3.70459, 65.6964, 0.0218285, 54.4616
1, 2100.00000, 118.338, -31.478, 119.173, -150.355, 121.472, 88.7703, 0, 0, 3.64959, -54.5519, 3.6782, -173.429, 3.70459, 65.6964, 0.0218285, 54.4616
1, 2160.00000, 118.338, -31.478, 119.173, -150.355, 121.472, 88.7703, 0, 0, 3.64959, -54.5519, 3.6782, -173.429, 3.70459, 65.6964, 0.0218285, 54.4616
1, 2220.00000, 118.338, -31.478, 119.173, -150.355, 121.472, 88.7703, 0, 0, 3.64959, -54.5519, 3.6782, -173.429, 3.70459, 65.6964, 0.0218285, 54.4616
1, 2280.00000, 118.338, -31.478, 119.173, -150.355, 121.472, 88.7703, 0, 0, 3.64959, -54.5519, 3.6782, -173.429, 3.70459, 65.6964, 0.0218285, 54.4616
1, 2340.00000, 118.338, -31.478, 119.173, -150.355, 121.472, 88.7703, 0, 0, 3.64959, -54.5519, 3.6782, -173.429, 3.70459, 65.6964, 0.0218285, 54.4616
1, 2400.00000, 118.338, -31.478, 119.173, -150.355, 121.472, 88.7703, 0, 0, 3.64959, -54.5519, 3.6782, -173.429, 3.70459, 65.6964, 0.0218285, 54.4616
1, 2460.00000, 118.338, -31.478, 119.173, -150.355, 121.472, 88.7703, 0, 0, 3.64959, -54.5519, 3.6782, -173.429, 3.70459, 65.6964, 0.0218285, 54.4616
1, 2520.00000, 118.338, -31.478, 119.173, -150.355, 121.472, 88.7703, 0, 0, 3.64959, -54.5519, 3.6782, -173.429, 3.70459, 65.6964, 0.0218285, 54.4616
1, 2580.00000, 118.338, -31.478, 119.173, -150.355, 121.472, 88.7703, 0, 0, 3.64959, -54.5519, 3.6782, -173.429, 3.70459, 65.6964, 0.0218285, 54.4616
1, 2640.00000, 118.338, -31.478, 119.173, -150.355, 121.472, 88.7703, 0, 0, 3.64959, -54.5519, 3.6782, -173.429, 3.70459, 65.6964, 0.0218285, 54.4616
1, 2700.00000, 118.329, -31.4764, 119.01, -150.503, 121.078, 88.7492, 0, 0, 3.64927, -54.5501, 3.6726, -173.577, 3.71655, 65.6757, 0.00369419, -54.356
1, 2760.00000, 118.7, -31.4303, 119.364, -150.457, 121.444, 88.8033, 0, 0, 3.69994, -54.5044, 3.72293, -173.531, 3.74394, 65.7292, 0.0222492, 57.5016
1, 2820.00000, 118.7, -31.4303, 119.364, -150.457, 121.444, 88.8033, 0, 0, 3.69997, -54.5042, 3.72295, -173.531, 3.74389, 65.7294, 0.0223091, 57.5352
1, 2880.00000, 118.7, -31.4303, 119.364, -150.457, 121.444, 88.8033, 0, 0, 3.69997, -54.5042, 3.72295, -173.531, 3.74389, 65.7294, 0.0223093, 57.5354
1, 2940.00000, 118.7, -31.4303, 119.364, -150.457, 121.444, 88.8033, 0, 0, 3.69997, -54.5042, 3.72295, -173.531, 3.74389, 65.7294, 0.0223093, 57.5354
1, 3000.00000, 118.7, -31.4303, 119.364, -150.457, 121.444, 88.8033, 0, 0, 3.69997, -54.5042, 3.72295, -173.531, 3.74389, 65.7294, 0.0223093, 57.5354
1, 3060.00000, 118.7, -31.4303, 119.364, -150.457, 121.444, 88.8033, 0, 0, 3.69997, -54.5042, 3.72295, -173.531, 3.74389, 65.7294, 0.0223093, 57.5354
1, 3120.00000, 118.7, -31.4303, 119.364, -150.457, 121.444, 88.8033, 0, 0, 3.69997, -54.5042, 3.72295, -173.531, 3.74389, 65.7294, 0.0223093, 57.5354
1, 3180.00000, 118.7, -31.4303, 119.364, -150.457, 121.444, 88.8033, 0, 0, 3.69997, -54.5042, 3.72295, -173.531, 3.74389, 65.7294, 0.0223093, 57.5354
1, 3240.00000, 118.7, -31.4303, 119.364, -150.457, 121.444, 88.8033, 0, 0, 3.69997, -54.5042, 3.72295, -173.531, 3.74389, 65.7294, 0.0223093, 57.5354
1, 3300.00000, 118.7, -31.4303, 119.364, -150.457, 121.444, 88.8033, 0, 0, 3.69997, -54.5042, 3.72295, -173.531, 3.74389, 65.7294, 0.0223093, 57.5354
1, 3360.00000, 118.7, -31.4303, 119.364, -150.457, 121.444, 88.8033, 0, 0, 3.69997, -54.5042, 3.72295, -173.531, 3.74389, 65.7294, 0.0223093, 57.5354
1, 3420.00000, 118.7, -31.4303, 119.364, -150.457, 121.444, 88.8033, 0, 0, 3.69997, -54.5042, 3.72295, -173.531, 3.74389, 65.7294, 0.0223093, 57.5354
1, 3480.00000, 118.7, -31.4303, 119.364, -150.457, 121.444, 88.8033, 0, 0, 3.69997, -54.5042, 3.72295, -173.531, 3.74389, 65.7294, 0.0223093, 57.5354
1, 3540.00000, 118.7, -31.4303, 119.364, -150.457, 121.444, 88.8033, 0, 0, 3.69997, -54.5042, 3.72295, -173.531, 3.74389, 65.7294, 0.0223093, 57.5354
2, 0.00000, 118.7, -31.4303, 119.364, -150.457, 121.444, 88.8033, 0, 0, 3.69997, -54.5042, 3.72295, -173.531, 3.74389, 65.7294, 0.0223093, 57.5354
2, 60.00000, 118.476, -31.4583, 119.149, -150.485, 121.222, 88.7705, 0, 0, 3.76809, -54.5321, 3.79186, -173.559, 3.82776, 65.6967, 0.00837762, 43.0429
2, 120.00000, 118.476, -31.4583, 119.149, -150.485, 121.222, 88.7705, 0, 0, 3.76807, -54.5322, 3.79185, -173.559, 3.8278, 65.6965, 0.00834261, 42.9233
2, 180.00000, 118.476, -31.4583, 119.149, -150.485, 121.222, 88.7705, 0, 0, 3.76807, -54.5322, 3.79185, -173.559, 3.8278, 65.6965, 0.0083425, 42.9226
2, 240.00000, 118.476, -31.4583, 119.149, -150.485, 121.222, 88.7705, 0, 0, 3.76807, -54.5322, 3.79185, -173.559, 3.8278, 65.6965, 0.0083425, 42.9226
2, 300.00000, 118.476, -31.4583, 119.149, -150.485, 121.222, 88.7705, 0, 0, 3.76807, -54.5322, 3.79185, -173.559, 3.8278, 65.6965, 0.0083425, 42.9226
2, 360.00000, 118.476, -31.4583, 119.149, -150.485, 121.222, 88.7705, 0, 0, 3.76807, -54.5322, 3.79185, -173.559, 3.8278, 65.6965, 0.0083425, 42.9226
2, 420.00000, 118.476, -31.4583, 119.149, -150.485, 121.222, 88.7705, 0, 0, 3.76807, -54.5322, 3.79185, -173.559, 3.8278, 65.6965, 0.0083425, 42.9226
2, 480.00000, 118.476, -31.4583, 119.149, -150.485, 121.222, 88.7705, 0, 0, 3.76807, -54.5322, 3.79185, -173.559, 3.8278, 65.6965, 0.0083425, 42.9226
2, 540.00000, 120.059, -30.9947, 120.799, -150.886, 121.123, 88.7802, 0, 0, 3.82394, -54.0684, 3.84129, -173.96, 3.83088, 65.7063, 0.00882606, 90.5024
2, 600.00000, 120.059, -30.9947, 120.799, -150.886, 121.123, 88.7802, 0, 0, 3.82398, -54.0686, 3.84121, -173.96, 3.83092, 65.7063, 0.00884687, 91.1837
2, 660.00000, 120.059, -30.9947, 120.799, -150.886, 121.123, 88.7802, 0, 0, 3.82398, -54.0686, 3.84121, -173.96, 3.83092, 65.7063, 0.00884687, 91.1874
2, 720.00000, 120.059, -30.9947, 120.799, -150.886, 121.123, 88.7802, 0, 0, 3.82398, -54.0686, 3.84121, -173.96, 3.83092, 65.7063, 0.00884687, 91.1874
