hour,t(sec),"P1 (kW)","Q1 (kvar)","P2 (kW)","Q2 (kvar)","P3 (kW)","Q3 (kvar)","P4 (kW)","Q4 (kvar)"
0, 60.00000, 0.707726, 0.301487, 0.713551, 0.30397, 0.723038, 0.308007, 0, 0
0, 120.00000, 0.707717, 0.301486, 0.71354, 0.303967, 0.723026, 0.308008, 0, 0
0, 180.00000, 0.707716, 0.301486, 0.71354, 0.303967, 0.723026, 0.308008, 0, 0
0, 240.00000, 0.707716, 0.301486, 0.71354, 0.303967, 0.723026, 0.308008, 0, 0
0, 300.00000, 0.707716, 0.301486, 0.71354, 0.303967, 0.723026, 0.308008, 0, 0
0, 360.00000, 0.707716, 0.301486, 0.71354, 0.303967, 0.723026, 0.308008, 0, 0
0, 420.00000, 0.707716, 0.301486, 0.71354, 0.303967, 0.723026, 0.308008, 0, 0
0, 480.00000, 0.624896, 0.266208, 0.629577, 0.268201, 0.637693, 0.271662, 0, 0
0, 540.00000, 0.624908, 0.26621, 0.629588, 0.268203, 0.637703, 0.27166, 0, 0
0, 600.00000, 0.624908, 0.26621, 0.629588, 0.268203, 0.637703, 0.27166, 0, 0
0, 660.00000, 0.624908, 0.26621, 0.629588, 0.268203, 0.637703, 0.27166, 0, 0
0, 720.00000, 0.624908, 0.26621, 0.629588, 0.268203, 0.637703, 0.27166, 0, 0
0, 780.00000, 0.624908, 0.26621, 0.629588, 0.268203, 0.637703, 0.27166, 0, 0
0, 840.00000, 0.624908, 0.26621, 0.629588, 0.268203, 0.637703, 0.27166, 0, 0
0, 900.00000, 0.624908, 0.26621, 0.629588, 0.268203, 0.637703, 0.27166, 0, 0
0, 960.00000, 0.619805, 0.264035, 0.622682, 0.26526, 0.638032, 0.2718, 0, 0
0, 1020.00000, 0.619802, 0.264034, 0.622675, 0.265259, 0.638034, 0.271801, 0, 0
0, 1080.00000, 0.619802, 0.264034, 0.622675, 0.265259, 0.638034, 0.271801, 0, 0
0, 1140.00000, 0.619802, 0.264034, 0.622675, 0.265259, 0.638034, 0.271801, 0, 0
0, 1200.00000, 0.619802, 0.264034, 0.622675, 0.265259, 0.638034, 0.271801, 0, 0
0, 1260.00000, 0.619802, 0.264034, 0.622675, 0.265259, 0.638034, 0.271801, 0, 0
0, 1320.00000, 0.619802, 0.264034, 0.622675, 0.265259, 0.638034, 0.271801, 0, 0
0, 1380.00000, 0.619802, 0.264034, 0.622675, 0.265259, 0.638034, 0.271801, 0, 0
0, 1440.00000, 0.619802, 0.264034, 0.622675, 0.265259, 0.638034, 0.271801, 0, 0
0, 1500.00000, 0.619802, 0.264034, 0.622675, 0.265259, 0.638034, 0.271801, 0, 0
0, 1560.00000, 0.619802, 0.264034, 0.622675, 0.265259, 0.638034, 0.271801, 0, 0
0, 1620.00000, 0.619802, 0.264034, 0.622675, 0.265259, 0.638034, 0.271801, 0, 0
0, 1680.00000, 0.619802, 0.264034, 0.622675, 0.265259, 0.638034, 0.271801, 0, 0
0, 1740.00000, 0.619802, 0.264034, 0.622675, 0.265259, 0.638034, 0.271801, 0, 0
0, 1800.00000, 0.619802, 0.264034, 0.622675, 0.265259, 0.638034, 0.271801, 0, 0
0, 1860.00000, 0.619802, 0.264034, 0.622675, 0.265259, 0.638034, 0.271801, 0, 0
0, 1920.00000, 0.619802, 0.264034, 0.622675, 0.265259, 0.638034, 0.271801, 0, 0
0, 1980.00000, 0.619802, 0.264034, 0.622675, 0.265259, 0.638034, 0.271801, 0, 0
0, 2040.00000, 0.619802, 0.264034, 0.622675, 0.265259, 0.638034, 0.271801, 0, 0
0, 2100.00000, 0.619802, 0.264034, 0.622675, 0.265259, 0.638034, 0.271801, 0, 0
0, 2160.00000, 0.619802, 0.264034, 0.622675, 0.265259, 0.638034, 0.271801, 0, 0
0, 2220.00000, 0.619802, 0.264034, 0.622675, 0.265259, 0.638034, 0.271801, 0, 0
0, 2280.00000, 0.619802, 0.264034, 0.622675, 0.265259, 0.638034, 0.271801, 0, 0
0, 2340.00000, 0.619802, 0.264034, 0.622675, 0.265259, 0.638034, 0.271801, 0, 0
0, 2400.00000, 0.619802, 0.264034, 0.622675, 0.265259, 0.638034, 0.271801, 0, 0
0, 2460.00000, 0.619802, 0.264034, 0.622675, 0.265259, 0.638034, 0.271801, 0, 0
0, 2520.00000, 0.619802, 0.264034, 0.622675, 0.265259, 0.638034, 0.271801, 0, 0
0, 2580.00000, 0.619802, 0.264034, 0.622675, 0.265259, 0.638034, 0.271801, 0, 0
0, 2640.00000, 0.619802, 0.264034, 0.622675, 0.265259, 0.638034, 0.271801, 0, 0
0, 2700.00000, 0.619802, 0.264034, 0.622675, 0.265259, 0.638034, 0.271801, 0, 0
0, 2760.00000, 0.624301, 0.265951, 0.629584, 0.268207, 0.63746, 0.271557, 0, 0
0, 2820.00000, 0.624308, 0.265954, 0.629598, 0.268207, 0.637454, 0.271554, 0, 0
0, 2880.00000, 0.624308, 0.265954, 0.629598, 0.268207, 0.637454, 0.271554, 0, 0
0, 2940.00000, 0.624308, 0.265954, 0.629598, 0.268207, 0.637454, 0.271554, 0, 0
0, 3000.00000, 0.624308, 0.265954, 0.629598, 0.268207, 0.637454, 0.271554, 0, 0
0, 3060.00000, 0.624308, 0.265954, 0.629598, 0.268207, 0.637454, 0.271554, 0, 0
0, 3120.00000, 0.624308, 0.265954, 0.629598, 0.268207, 0.637454, 0.271554, 0, 0
0, 3180.00000, 0.624308, 0.265954, 0.629598, 0.268207, 0.637454, 0.271554, 0, 0
0, 3240.00000, 0.624308, 0.265954, 0.629598, 0.268207, 0.637454, 0.271554, 0, 0
0, 3300.00000, 0.624308, 0.265954, 0.629598, 0.268207, 0.637454, 0.271554, 0, 0
0, 3360.00000, 0.624308, 0.265954, 0.629598, 0.268207, 0.637454, 0.271554, 0, 0
0, 3420.00000, 0.624308, 0.265954, 0.629598, 0.268207, 0.637454, 0.271554, 0, 0
0, 3480.00000, 0.624308, 0.265954, 0.629598, 0.268207, 0.637454, 0.271554, 0, 0
0, 3540.00000, 0.624308, 0.265954, 0.629598, 0.268207, 0.637454, 0.271554, 0, 0
1, 0.00000, 0.624308, 0.265954, 0.629598, 0.268207, 0.637454, 0.271554, 0, 0
1, 60.00000, 0.629051, 0.267979, 0.629561, 0.268192, 0.639758, 0.272536, 0, 0
1, 120.00000, 0.629066, 0.267981, 0.629558, 0.268191, 0.639763, 0.272538, 0, 0
1, 180.00000, 0.629066, 0.267981, 0.629558, 0.26819, 0.639763, 0.272538, 0, 0
1, 240.00000, 0.629066, 0.267981, 0.629558, 0.26819, 0.639763, 0.272538, 0, 0
1, 300.00000, 0.629066, 0.267981, 0.629558, 0.26819, 0.639763, 0.272538, 0, 0
1, 360.00000, 0.629066, 0.267981, 0.629558, 0.26819, 0.639763, 0.272538, 0, 0
1, 420.00000, 0.629066, 0.267981, 0.629558, 0.26819, 0.639763, 0.272538, 0, 0
1, 480.00000, 0.629066, 0.267981, 0.629558, 0.26819, 0.639763, 0.272538, 0, 0
1, 540.00000, 0.629066, 0.267981, 0.629558, 0.26819, 0.639763, 0.272538, 0, 0
1, 600.00000, 0.629066, 0.267981, 0.629558, 0.26819, 0.639763, 0.272538, 0, 0
1, 660.00000, 0.629066, 0.267981, 0.629558, 0.26819, 0.639763, 0.272538, 0, 0
1, 720.00000, 0.629066, 0.267981, 0.629558, 0.26819, 0.639763, 0.272538, 0, 0
1, 780.00000, 0.629066, 0.267981, 0.629558, 0.26819, 0.639763, 0.272538, 0, 0
1, 840.00000, 0.629066, 0.267981, 0.629558, 0.26819, 0.639763, 0.272538, 0, 0
1, 900.00000, 0.629066, 0.267981, 0.629558, 0.26819, 0.639763, 0.272538, 0, 0
1, 960.00000, 0.629066, 0.267981, 0.629558, 0.26819, 0.639763, 0.272538, 0, 0
1, 1020.00000, 0.629066, 0.267981, 0.629558, 0.26819, 0.639763, 0.272538, 0, 0
1, 1080.00000, 0.629066, 0.267981, 0.629558, 0.26819, 0.639763, 0.272538, 0, 0
1, 1140.00000, 0.629066, 0.267981, 0.629558, 0.26819, 0.639763, 0.272538, 0, 0
1, 1200.00000, 0.629066, 0.267981, 0.629558, 0.26819, 0.639763, 0.272538, 0, 0
1, 1260.00000, 0.629066, 0.267981, 0.629558, 0.26819, 0.639763, 0.272538, 0, 0
1, 1320.00000, 0.629066, 0.267981, 0.629558, 0.26819, 0.639763, 0.272538, 0, 0
1, 1380.00000, 0.629066, 0.267981, 0.629558, 0.26819, 0.639763, 0.272538, 0, 0
1, 1440.00000, 0.629066, 0.267981, 0.629558, 0.26819, 0.639763, 0.272538, 0, 0
1, 1500.00000, 0.629066, 0.267981, 0.629558, 0.26819, 0.639763, 0.272538, 0, 0
1, 1560.00000, 0.629066, 0.267981, 0.629558, 0.26819, 0.639763, 0.272538, 0, 0
1, 1620.00000, 0.629066, 0.267981, 0.629558, 0.26819, 0.639763, 0.272538, 0, 0
1, 1680.00000, 0.629066, 0.267981, 0.629558, 0.26819, 0.639763, 0.272538, 0, 0
1, 1740.00000, 0.629066, 0.267981, 0.629558, 0.26819, 0.639763, 0.272538, 0, 0
1, 1800.00000, 0.629066, 0.267981, 0.629558, 0.26819, 0.639763, 0.272538, 0, 0
1, 1860.00000, 0.629066, 0.267981, 0.629558, 0.26819, 0.639763, 0.272538, 0, 0
1, 1920.00000, 0.629066, 0.267981, 0.629558, 0.26819, 0.639763, 0.272538, 0, 0
1, 1980.00000, 0.629066, 0.267981, 0.629558, 0.26819, 0.639763, 0.272538, 0, 0
1, 2040.00000, 0.629066, 0.267981, 0.629558, 0.26819, 0.639763, 0.272538, 0, 0
1, 2100.00000, 0.629066, 0.267981, 0.629558, 0.26819, 0.639763, 0.272538, 0, 0
1, 2160.00000, 0.629066, 0.267981, 0.629558, 0.26819, 0.639763, 0.272538, 0, 0
1, 2220.00000, 0.629066, 0.267981, 0.629558, 0.26819, 0.639763, 0.272538, 0, 0
1, 2280.00000, 0.629066, 0.267981, 0.629558, 0.26819, 0.639763, 0.272538, 0, 0
1, 2340.00000, 0.629066, 0.267981, 0.629558, 0.26819, 0.639763, 0.272538, 0, 0
1, 2400.00000, 0.629066, 0.267981, 0.629558, 0.26819, 0.639763, 0.272538, 0, 0
1, 2460.00000, 0.629066, 0.267981, 0.629558, 0.26819, 0.639763, 0.272538, 0, 0
1, 2520.00000, 0.629066, 0.267981, 0.629558, 0.26819, 0.639763, 0.272538, 0, 0
1, 2580.00000, 0.629066, 0.267981, 0.629558, 0.26819, 0.639763, 0.272538, 0, 0
1, 2640.00000, 0.629066, 0.267981, 0.629558, 0.26819, 0.639763, 0.272538, 0, 0
1, 2700.00000, 0.629066, 0.267981, 0.629558, 0.26819, 0.639763, 0.272538, 0, 0
1, 2760.00000, 0.629066, 0.267981, 0.629558, 0.26819, 0.639763, 0.272538, 0, 0
1, 2820.00000, 0.629066, 0.267981, 0.629558, 0.26819, 0.639763, 0.272538, 0, 0
1, 2880.00000, 0.629066, 0.267981, 0.629558, 0.26819, 0.639763, 0.272538, 0, 0
1, 2940.00000, 0.629066, 0.267981, 0.629558, 0.26819, 0.639763, 0.272538, 0, 0
1, 3000.00000, 0.629066, 0.267981, 0.629558, 0.26819, 0.639763, 0.272538, 0, 0
1, 3060.00000, 0.629066, 0.267981, 0.629558, 0.26819, 0.639763, 0.272538, 0, 0
1, 3120.00000, 0.629066, 0.267981, 0.629558, 0.26819, 0.639763, 0.272538, 0, 0
1, 3180.00000, 0.629066, 0.267981, 0.629558, 0.26819, 0.639763, 0.272538, 0, 0
1, 3240.00000, 0.629066, 0.267981, 0.629558, 0.26819, 0.639763, 0.272538, 0, 0
1, 3300.00000, 0.629066, 0.267981, 0.629558, 0.26819, 0.639763, 0.272538, 0, 0
1, 3360.00000, 0.629066, 0.267981, 0.629558, 0.26819, 0.639763, 0.272538, 0, 0
1, 3420.00000, 0.629066, 0.267981, 0.629558, 0.26819, 0.639763, 0.272538, 0, 0
1, 3480.00000, 0.629066, 0.267981, 0.629558, 0.26819, 0.639763, 0.272538, 0, 0
1, 3540.00000, 0.629066, 0.267981, 0.629558, 0.26819, 0.639763, 0.272538, 0, 0
2, 0.00000, 0.629066, 0.267981, 0.629558, 0.26819, 0.639763, 0.272538, 0, 0
2, 60.00000, 0.629066, 0.267981, 0.629558, 0.26819, 0.639763, 0.272538, 0, 0
2, 120.00000, 0.629066, 0.267981, 0.629558, 0.26819, 0.639763, 0.272538, 0, 0
2, 180.00000, 0.629066, 0.267981, 0.629558, 0.26819, 0.639763, 0.272538, 0, 0
2, 240.00000, 0.629066, 0.267981, 0.629558, 0.26819, 0.639763, 0.272538, 0, 0
2, 300.00000, 0.629066, 0.267981, 0.629558, 0.26819, 0.639763, 0.272538, 0, 0
2, 360.00000, 0.629066, 0.267981, 0.629558, 0.26819, 0.639763, 0.272538, 0, 0
2, 420.00000, 0.629066, 0.267981, 0.629558, 0.26819, 0.639763, 0.272538, 0, 0
2, 480.00000, 0.629066, 0.267981, 0.629558, 0.26819, 0.639763, 0.272538, 0, 0
2, 540.00000, 0.629066, 0.267981, 0.629558, 0.26819, 0.639763, 0.272538, 0, 0
2, 600.00000, 0.629066, 0.267981, 0.629558, 0.26819, 0.639763, 0.272538, 0, 0
2, 660.00000, 0.629066, 0.267981, 0.629558, 0.26819, 0.639763, 0.272538, 0, 0
2, 720.00000, 0.629066, 0.267981, 0.629558, 0.26819, 0.639763, 0.272538, 0, 0
2, 780.00000, 0.629066, 0.267981, 0.629558, 0.26819, 0.639763, 0.272538, 0, 0
2, 840.00000, 0.634281, 0.270202, 0.636555, 0.271174, 0.63942, 0.272392, 0, 0
2, 900.00000, 0.634284, 0.270204, 0.636563, 0.271175, 0.639417, 0.27239, 0, 0
2, 960.00000, 0.634284, 0.270204, 0.636563, 0.271175, 0.639417, 0.27239, 0, 0
2, 1020.00000, 0.634284, 0.270204, 0.636563, 0.271175, 0.639417, 0.27239, 0, 0
2, 1080.00000, 0.634284, 0.270204, 0.636563, 0.271175, 0.639417, 0.27239, 0, 0
2, 1140.00000, 0.634284, 0.270204, 0.636563, 0.271175, 0.639417, 0.27239, 0, 0
2, 1200.00000, 0.634284, 0.270204, 0.636563, 0.271175, 0.639417, 0.27239, 0, 0
2, 1260.00000, 0.634284, 0.270204, 0.636563, 0.271175, 0.639417, 0.27239, 0, 0
2, 1320.00000, 0.634284, 0.270204, 0.636563, 0.271175, 0.639417, 0.27239, 0, 0
2, 1380.00000, 0.634284, 0.270204, 0.636563, 0.271175, 0.639417, 0.27239, 0, 0
2, 1440.00000, 0.634284, 0.270204, 0.636563, 0.271175, 0.639417, 0.27239, 0, 0
2, 1500.00000, 0.634284, 0.270204, 0.636563, 0.271175, 0.639417, 0.27239, 0, 0
2, 1560.00000, 0.634284, 0.270204, 0.636563, 0.271175, 0.639417, 0.27239, 0, 0
2, 1620.00000, 0.634284, 0.270204, 0.636563, 0.271175, 0.639417, 0.27239, 0, 0
2, 1680.00000, 0.634284, 0.270204, 0.636563, 0.271175, 0.639417, 0.27239, 0, 0
2, 1740.00000, 0.634284, 0.270204, 0.636563, 0.271175, 0.639417, 0.27239, 0, 0
2, 1800.00000, 0.634284, 0.270204, 0.636563, 0.271175, 0.639417, 0.27239, 0, 0
2, 1860.00000, 0.634284, 0.270204, 0.636563, 0.271175, 0.639417, 0.27239, 0, 0
2, 1920.00000, 0.634284, 0.270204, 0.636563, 0.271175, 0.639417, 0.27239, 0, 0
2, 1980.00000, 0.634284, 0.270204, 0.636563, 0.271175, 0.639417, 0.27239, 0, 0
2, 2040.00000, 0.634284, 0.270204, 0.636563, 0.271175, 0.639417, 0.27239, 0, 0
2, 2100.00000, 0.634284, 0.270204, 0.636563, 0.271175, 0.639417, 0.27239, 0, 0
2, 2160.00000, 0.634284, 0.270204, 0.636563, 0.271175, 0.639417, 0.27239, 0, 0
2, 2220.00000, 0.634284, 0.270204, 0.636563, 0.271175, 0.639417, 0.27239, 0, 0
2, 2280.00000, 0.634284, 0.270204, 0.636563, 0.271175, 0.639417, 0.27239, 0, 0
2, 2340.00000, 0.634284, 0.270204, 0.636563, 0.271175, 0.639417, 0.27239, 0, 0
2, 2400.00000, 0.63439, 0.270251, 0.638237, 0.271888, 0.643368, 0.274079, 0, 0
2, 2460.00000, 0.634391, 0.270249, 0.63824, 0.271889, 0.643381, 0.274079, 0, 0
2, 2520.00000, 0.634391, 0.270249, 0.63824, 0.271889, 0.643381, 0.274079, 0, 0
2, 2580.00000, 0.634391, 0.270249, 0.63824, 0.271889, 0.643381, 0.274079, 0, 0
2, 2640.00000, 0.634391, 0.270249, 0.63824, 0.271889, 0.643381, 0.274079, 0, 0
2, 2700.00000, 0.634159, 0.27015, 0.635053, 0.270532, 0.638006, 0.271787, 0, 0
2, 2760.00000, 0.634159, 0.27015, 0.635051, 0.270531, 0.637999, 0.271786, 0, 0
2, 2820.00000, 0.634159, 0.27015, 0.635051, 0.270531, 0.637999, 0.271786, 0, 0
2, 2880.00000, 0.634159, 0.27015, 0.635051, 0.270531, 0.637999, 0.271786, 0, 0
2, 2940.00000, 0.634159, 0.27015, 0.635051, 0.270531, 0.637999, 0.271786, 0, 0
2, 3000.00000, 0.634159, 0.27015, 0.635051, 0.270531, 0.637999, 0.271786, 0, 0
2, 3060.00000, 0.640304, 0.272776, 0.635001, 0.27051, 0.641386, 0.273229, 0, 0
2, 3120.00000, 0.640325, 0.272777, 0.634998, 0.270508, 0.641389, 0.273231, 0, 0
2, 3180.00000, 0.640325, 0.272777, 0.634998, 0.270508, 0.641389, 0.273231, 0, 0
2, 3240.00000, 0.640325, 0.272777, 0.634998, 0.270508, 0.641389, 0.273231, 0, 0
2, 3300.00000, 0.640325, 0.272777, 0.634998, 0.270508, 0.641389, 0.273231, 0, 0
2, 3360.00000, 0.640325, 0.272777, 0.634998, 0.270508, 0.641389, 0.273231, 0, 0
2, 3420.00000, 0.640325, 0.272777, 0.634998, 0.270508, 0.641389, 0.273231, 0, 0
2, 3480.00000, 0.640325, 0.272777, 0.634998, 0.270508, 0.641389, 0.273231, 0, 0
2, 3540.00000, 0.640325, 0.272777, 0.634998, 0.270508, 0.641389, 0.273231, 0, 0
3, 0.00000, 0.640325, 0.272777, 0.634998, 0.270508, 0.641389, 0.273231, 0, 0
3, 60.00000, 0.640325, 0.272777, 0.634998, 0.270508, 0.641389, 0.273231, 0, 0
3, 120.00000, 0.640325, 0.272777, 0.634998, 0.270508, 0.641389, 0.273231, 0, 0
3, 180.00000, 0.640325, 0.272777, 0.634998, 0.270508, 0.641389, 0.273231, 0, 0
3, 240.00000, 0.640325, 0.272777, 0.634998, 0.270508, 0.641389, 0.273231, 0, 0
3, 300.00000, 0.640325, 0.272777, 0.634998, 0.270508, 0.641389, 0.273231, 0, 0
3, 360.00000, 0.640325, 0.272777, 0.634998, 0.270508, 0.641389, 0.273231, 0, 0
3, 420.00000, 0.640325, 0.272777, 0.634998, 0.270508, 0.641389, 0.273231, 0, 0
3, 480.00000, 0.640325, 0.272777, 0.634998, 0.270508, 0.641389, 0.273231, 0, 0
3, 540.00000, 0.640325, 0.272777, 0.634998, 0.270508, 0.641389, 0.273231, 0, 0
3, 600.00000, 0.640325, 0.272777, 0.634998, 0.270508, 0.641389, 0.273231, 0, 0
3, 660.00000, 0.640325, 0.272777, 0.634998, 0.270508, 0.641389, 0.273231, 0, 0
3, 720.00000, 0.640325, 0.272777, 0.634998, 0.270508, 0.641389, 0.273231, 0, 0
3, 780.00000, 0.640325, 0.272777, 0.634998, 0.270508, 0.641389, 0.273231, 0, 0
3, 840.00000, 0.640325, 0.272777, 0.634998, 0.270508, 0.641389, 0.273231, 0, 0
3, 900.00000, 0.640325, 0.272777, 0.634998, 0.270508, 0.641389, 0.273231, 0, 0
3, 960.00000, 0.640325, 0.272777, 0.634998, 0.270508, 0.641389, 0.273231, 0, 0
3, 1020.00000, 0.640325, 0.272777, 0.634998, 0.270508, 0.641389, 0.273231, 0, 0
3, 1080.00000, 0.640325, 0.272777, 0.634998, 0.270508, 0.641389, 0.273231, 0, 0
3, 1140.00000, 0.640325, 0.272777, 0.634998, 0.270508, 0.641389, 0.273231, 0, 0
3, 1200.00000, 0.640325, 0.272777, 0.634998, 0.270508, 0.641389, 0.273231, 0, 0
3, 1260.00000, 0.640325, 0.272777, 0.634998, 0.270508, 0.641389, 0.273231, 0, 0
3, 1320.00000, 0.640325, 0.272777, 0.634998, 0.270508, 0.641389, 0.273231, 0, 0
3, 1380.00000, 0.640325, 0.272777, 0.634998, 0.270508, 0.641389, 0.273231, 0, 0
3, 1440.00000, 0.640325, 0.272777, 0.634998, 0.270508, 0.641389, 0.273231, 0, 0
3, 1500.00000, 0.640325, 0.272777, 0.634998, 0.270508, 0.641389, 0.273231, 0, 0
3, 1560.00000, 0.640325, 0.272777, 0.634998, 0.270508, 0.641389, 0.273231, 0, 0
3, 1620.00000, 0.640325, 0.272777, 0.634998, 0.270508, 0.641389, 0.273231, 0, 0
3, 1680.00000, 0.640325, 0.272777, 0.634998, 0.270508, 0.641389, 0.273231, 0, 0
3, 1740.00000, 0.640325, 0.272777, 0.634998, 0.270508, 0.641389, 0.273231, 0, 0
3, 1800.00000, 0.640325, 0.272777, 0.634998, 0.270508, 0.641389, 0.273231, 0, 0
3, 1860.00000, 0.640325, 0.272777, 0.634998, 0.270508, 0.641389, 0.273231, 0, 0
3, 1920.00000, 0.640325, 0.272777, 0.634998, 0.270508, 0.641389, 0.273231, 0, 0
3, 1980.00000, 0.640325, 0.272777, 0.634998, 0.270508, 0.641389, 0.273231, 0, 0
3, 2040.00000, 0.640325, 0.272777, 0.634998, 0.270508, 0.641389, 0.273231, 0, 0
3, 2100.00000, 0.640325, 0.272777, 0.634998, 0.270508, 0.641389, 0.273231, 0, 0
3, 2160.00000, 0.640325, 0.272777, 0.634998, 0.270508, 0.641389, 0.273231, 0, 0
3, 2220.00000, 0.640325, 0.272777, 0.634998, 0.270508, 0.641389, 0.273231, 0, 0
3, 2280.00000, 0.640325, 0.272777, 0.634998, 0.270508, 0.641389, 0.273231, 0, 0
3, 2340.00000, 0.640325, 0.272777, 0.634998, 0.270508, 0.641389, 0.273231, 0, 0
3, 2400.00000, 0.640325, 0.272777, 0.634998, 0.270508, 0.641389, 0.273231, 0, 0
3, 2460.00000, 0.640325, 0.272777, 0.634998, 0.270508, 0.641389, 0.273231, 0, 0
3, 2520.00000, 0.640325, 0.272777, 0.634998, 0.270508, 0.641389, 0.273231, 0, 0
3, 2580.00000, 0.640325, 0.272777, 0.634998, 0.270508, 0.641389, 0.273231, 0, 0
3, 2640.00000, 0.640325, 0.272777, 0.634998, 0.270508, 0.641389, 0.273231, 0, 0
3, 2700.00000, 0.640325, 0.272777, 0.634998, 0.270508, 0.641389, 0.273231, 0, 0
3, 2760.00000, 0.640325, 0.272777, 0.634998, 0.270508, 0.641389, 0.273231, 0, 0
3, 2820.00000, 0.640325, 0.272777, 0.634998, 0.270508, 0.641389, 0.273231, 0, 0
3, 2880.00000, 0.640325, 0.272777, 0.634998, 0.270508, 0.641389, 0.273231, 0, 0
3, 2940.00000, 0.640325, 0.272777, 0.634998, 0.270508, 0.641389, 0.273231, 0, 0
3, 3000.00000, 0.640325, 0.272777, 0.634998, 0.270508, 0.641389, 0.273231, 0, 0
3, 3060.00000, 0.640325, 0.272777, 0.634998, 0.270508, 0.641389, 0.273231, 0, 0
3, 3120.00000, 0.640325, 0.272777, 0.634998, 0.270508, 0.641389, 0.273231, 0, 0
3, 3180.00000, 0.674746, 0.287439, 0.669286, 0.285114, 0.676118, 0.288024, 0, 0
3, 3240.00000, 0.67474, 0.287438, 0.669283, 0.285113, 0.676116, 0.288024, 0, 0
3, 3300.00000, 0.67474, 0.287438, 0.669283, 0.285113, 0.676116, 0.288024, 0, 0
3, 3360.00000, 0.67474, 0.287438, 0.669283, 0.285113, 0.676116, 0.288024, 0, 0
3, 3420.00000, 0.67474, 0.287438, 0.669283, 0.285113, 0.676116, 0.288024, 0, 0
3, 3480.00000, 0.67474, 0.287438, 0.669283, 0.285113, 0.676116, 0.288024, 0, 0
3, 3540.00000, 0.67474, 0.287438, 0.669283, 0.285113, 0.676116, 0.288024, 0, 0
4, 0.00000, 0.67474, 0.287438, 0.669283, 0.285113, 0.676116, 0.288024, 0, 0
4, 60.00000, 0.67474, 0.287438, 0.669283, 0.285113, 0.676116, 0.288024, 0, 0
4, 120.00000, 0.67474, 0.287438, 0.669283, 0.285113, 0.676116, 0.288024, 0, 0
4, 180.00000, 0.67474, 0.287438, 0.669283, 0.285113, 0.676116, 0.288024, 0, 0
4, 240.00000, 0.67474, 0.287438, 0.669283, 0.285113, 0.676116, 0.288024, 0, 0
4, 300.00000, 0.67474, 0.287438, 0.669283, 0.285113, 0.676116, 0.288024, 0, 0
4, 360.00000, 0.67474, 0.287438, 0.669283, 0.285113, 0.676116, 0.288024, 0, 0
4, 420.00000, 0.67474, 0.287438, 0.669283, 0.285113, 0.676116, 0.288024, 0, 0
4, 480.00000, 0.67474, 0.287438, 0.669283, 0.285113, 0.676116, 0.288024, 0, 0
4, 540.00000, 0.67474, 0.287438, 0.669283, 0.285113, 0.676116, 0.288024, 0, 0
4, 600.00000, 0.67474, 0.287438, 0.669283, 0.285113, 0.676116, 0.288024, 0, 0
4, 660.00000, 0.67474, 0.287438, 0.669283, 0.285113, 0.676116, 0.288024, 0, 0
