hour,t(sec),V1,VAngle1,V2,VAngle2,V3,VAngle3,V4,VAngle4,I1,IAngle1,I2,IAngle2,I3,IAngle3,I4,IAngle4
0, 60.00000, 119.599, -31.3124, 120.189, -151.126, 120.627, 88.6237, 0, 0, 7.3962, -54.3861, 7.43668, -174.2, 7.46669, 65.5499, 0.032789, -87.9314
0, 120.00000, 119.599, -31.3124, 120.189, -151.126, 120.627, 88.6236, 0, 0, 7.39615, -54.3863, 7.43662, -174.2, 7.46664, 65.5497, 0.0327935, -87.9304
0, 180.00000, 119.599, -31.3124, 120.189, -151.126, 120.627, 88.6236, 0, 0, 7.39615, -54.3863, 7.43662, -174.2, 7.46664, 65.5497, 0.0327936, -87.9305
0, 240.00000, 119.599, -31.3124, 120.189, -151.126, 120.627, 88.6236, 0, 0, 7.39615, -54.3863, 7.43662, -174.2, 7.46664, 65.5497, 0.0327936, -87.9305
0, 300.00000, 119.599, -31.3124, 120.189, -151.126, 120.627, 88.6236, 0, 0, 7.39615, -54.3863, 7.43662, -174.2, 7.46664, 65.5497, 0.0327936, -87.9305
0, 360.00000, 119.599, -31.3124, 120.189, -151.126, 120.627, 88.6236, 0, 0, 7.39615, -54.3863, 7.43662, -174.2, 7.46664, 65.5497, 0.0327936, -87.9305
0, 420.00000, 119.599, -31.3124, 120.189, -151.126, 120.627, 88.6236, 0, 0, 7.39615, -54.3863, 7.43662, -174.2, 7.46664, 65.5497, 0.0327936, -87.9305
0, 480.00000, 120.427, -31.1998, 121.001, -151.022, 121.429, 88.7469, 0, 0, 6.48406, -54.274, 6.48054, -174.096, 6.45766, 65.6724, 0.0462683, 90.2463
0, 540.00000, 120.427, -31.1998, 121.001, -151.021, 121.429, 88.7469, 0, 0, 6.48408, -54.2737, 6.4804, -174.095, 6.45753, 65.673, 0.0463683, 90.3278
0, 600.00000, 120.427, -31.1998, 121.001, -151.021, 121.429, 88.7469, 0, 0, 6.48408, -54.2737, 6.4804, -174.095, 6.45753, 65.673, 0.0463687, 90.328
0, 660.00000, 120.427, -31.1998, 121.001, -151.021, 121.429, 88.7469, 0, 0, 6.48408, -54.2737, 6.4804, -174.095, 6.45753, 65.673, 0.0463687, 90.328
0, 720.00000, 120.427, -31.1998, 121.001, -151.021, 121.429, 88.7469, 0, 0, 6.48408, -54.2737, 6.4804, -174.095, 6.45753, 65.673, 0.0463687, 90.328
0, 780.00000, 120.427, -31.1998, 121.001, -151.021, 121.429, 88.7469, 0, 0, 6.48408, -54.2737, 6.4804, -174.095, 6.45753, 65.673, 0.0463687, 90.328
0, 840.00000, 120.427, -31.1998, 121.001, -151.021, 121.429, 88.7469, 0, 0, 6.48408, -54.2737, 6.4804, -174.095, 6.45753, 65.673, 0.0463687, 90.328
0, 900.00000, 120.427, -31.1998, 121.001, -151.021, 121.429, 88.7469, 0, 0, 6.48408, -54.2737, 6.4804, -174.095, 6.45753, 65.673, 0.0463687, 90.328
0, 960.00000, 120.427, -31.1998, 121.001, -151.021, 121.429, 88.7469, 0, 0, 6.48408, -54.2737, 6.4804, -174.095, 6.45753, 65.673, 0.0463687, 90.328
0, 1020.00000, 120.427, -31.1998, 121.001, -151.021, 121.429, 88.7469, 0, 0, 6.48408, -54.2737, 6.4804, -174.095, 6.45753, 65.673, 0.0463687, 90.328
0, 1080.00000, 120.427, -31.1998, 121.001, -151.021, 121.429, 88.7469, 0, 0, 6.48408, -54.2737, 6.4804, -174.095, 6.45753, 65.673, 0.0463687, 90.328
0, 1140.00000, 120.427, -31.1998, 121.001, -151.021, 121.429, 88.7469, 0, 0, 6.48408, -54.2737, 6.4804, -174.095, 6.45753, 65.673, 0.0463687, 90.328
0, 1200.00000, 120.427, -31.1998, 121.001, -151.021, 121.429, 88.7469, 0, 0, 6.48408, -54.2737, 6.4804, -174.095, 6.45753, 65.673, 0.0463687, 90.328
0, 1260.00000, 120.427, -31.1998, 121.001, -151.021, 121.429, 88.7469, 0, 0, 6.48408, -54.2737, 6.4804, -174.095, 6.45753, 65.673, 0.0463687, 90.328
0, 1320.00000, 120.427, -31.1998, 121.001, -151.021, 121.429, 88.7469, 0, 0, 6.48408, -54.2737, 6.4804, -174.095, 6.45753, 65.673, 0.0463687, 90.328
0, 1380.00000, 120.427, -31.1998, 121.001, -151.021, 121.429, 88.7469, 0, 0, 6.48408, -54.2737, 6.4804, -174.095, 6.45753, 65.673, 0.0463687, 90.328
0, 1440.00000, 120.427, -31.1998, 121.001, -151.021, 121.429, 88.7469, 0, 0, 6.48408, -54.2737, 6.4804, -174.095, 6.45753, 65.673, 0.0463687, 90.328
0, 1500.00000, 120.427, -31.1998, 121.001, -151.021, 121.429, 88.7469, 0, 0, 6.48408, -54.2737, 6.4804, -174.095, 6.45753, 65.673, 0.0463687, 90.328
0, 1560.00000, 120.427, -31.1998, 121.001, -151.021, 121.429, 88.7469, 0, 0, 6.48408, -54.2737, 6.4804, -174.095, 6.45753, 65.673, 0.0463687, 90.328
0, 1620.00000, 120.427, -31.1998, 121.001, -151.021, 121.429, 88.7469, 0, 0, 6.48408, -54.2737, 6.4804, -174.095, 6.45753, 65.673, 0.0463687, 90.328
0, 1680.00000, 120.427, -31.1998, 121.001, -151.021, 121.429, 88.7469, 0, 0, 6.48408, -54.2737, 6.4804, -174.095, 6.45753, 65.673, 0.0463687, 90.328
0, 1740.00000, 120.427, -31.1998, 121.001, -151.021, 121.429, 88.7469, 0, 0, 6.48408, -54.2737, 6.4804, -174.095, 6.45753, 65.673, 0.0463687, 90.328
0, 1800.00000, 120.427, -31.1998, 121.001, -151.021, 121.429, 88.7469, 0, 0, 6.48408, -54.2737, 6.4804, -174.095, 6.45753, 65.673, 0.0463687, 90.328
0, 1860.00000, 120.427, -31.1998, 121.001, -151.021, 121.429, 88.7469, 0, 0, 6.48408, -54.2737, 6.4804, -174.095, 6.45753, 65.673, 0.0463687, 90.328
0, 1920.00000, 120.427, -31.1998, 121.001, -151.021, 121.429, 88.7469, 0, 0, 6.48408, -54.2737, 6.4804, -174.095, 6.45753, 65.673, 0.0463687, 90.328
0, 1980.00000, 120.427, -31.1998, 121.001, -151.021, 121.429, 88.7469, 0, 0, 6.48408, -54.2737, 6.4804, -174.095, 6.45753, 65.673, 0.0463687, 90.328
0, 2040.00000, 120.427, -31.1998, 121.001, -151.021, 121.429, 88.7469, 0, 0, 6.48408, -54.2737, 6.4804, -174.095, 6.45753, 65.673, 0.0463687, 90.328
0, 2100.00000, 120.427, -31.1998, 121.001, -151.021, 121.429, 88.7469, 0, 0, 6.48408, -54.2737, 6.4804, -174.095, 6.45753, 65.673, 0.0463687, 90.328
0, 2160.00000, 120.427, -31.1998, 121.001, -151.021, 121.429, 88.7469, 0, 0, 6.48408, -54.2737, 6.4804, -174.095, 6.45753, 65.673, 0.0463687, 90.328
0, 2220.00000, 120.427, -31.1998, 121.001, -151.021, 121.429, 88.7469, 0, 0, 6.48408, -54.2737, 6.4804, -174.095, 6.45753, 65.673, 0.0463687, 90.328
0, 2280.00000, 120.427, -31.1998, 121.001, -151.021, 121.429, 88.7469, 0, 0, 6.48408, -54.2737, 6.4804, -174.095, 6.45753, 65.673, 0.0463687, 90.328
0, 2340.00000, 120.427, -31.1998, 121.001, -151.021, 121.429, 88.7469, 0, 0, 6.48408, -54.2737, 6.4804, -174.095, 6.45753, 65.673, 0.0463687, 90.328
0, 2400.00000, 120.427, -31.1998, 121.001, -151.021, 121.429, 88.7469, 0, 0, 6.48408, -54.2737, 6.4804, -174.095, 6.45753, 65.673, 0.0463687, 90.328
0, 2460.00000, 120.427, -31.1998, 121.001, -151.021, 121.429, 88.7469, 0, 0, 6.48408, -54.2737, 6.4804, -174.095, 6.45753, 65.673, 0.0463687, 90.328
0, 2520.00000, 120.427, -31.1998, 121.001, -151.021, 121.429, 88.7469, 0, 0, 6.48408, -54.2737, 6.4804, -174.095, 6.45753, 65.673, 0.0463687, 90.328
0, 2580.00000, 120.427, -31.1998, 121.001, -151.021, 121.429, 88.7469, 0, 0, 6.48408, -54.2737, 6.4804, -174.095, 6.45753, 65.673, 0.0463687, 90.328
0, 2640.00000, 120.427, -31.1998, 121.001, -151.021, 121.429, 88.7469, 0, 0, 6.48408, -54.2737, 6.4804, -174.095, 6.45753, 65.673, 0.0463687, 90.328
0, 2700.00000, 120.427, -31.1998, 121.001, -151.021, 121.429, 88.7469, 0, 0, 6.48408, -54.2737, 6.4804, -174.095, 6.45753, 65.673, 0.0463687, 90.328
0, 2760.00000, 120.427, -31.1998, 121.001, -151.021, 121.429, 88.7469, 0, 0, 6.48408, -54.2737, 6.4804, -174.095, 6.45753, 65.673, 0.0463687, 90.328
0, 2820.00000, 120.427, -31.1998, 121.001, -151.021, 121.429, 88.7469, 0, 0, 6.48408, -54.2737, 6.4804, -174.095, 6.45753, 65.673, 0.0463687, 90.328
0, 2880.00000, 120.427, -31.1998, 121.001, -151.021, 121.429, 88.7469, 0, 0, 6.48408, -54.2737, 6.4804, -174.095, 6.45753, 65.673, 0.0463687, 90.328
0, 2940.00000, 120.427, -31.1998, 121.001, -151.021, 121.429, 88.7469, 0, 0, 6.48408, -54.2737, 6.4804, -174.095, 6.45753, 65.673, 0.0463687, 90.328
0, 3000.00000, 120.427, -31.1998, 121.001, -151.021, 121.429, 88.7469, 0, 0, 6.48408, -54.2737, 6.4804, -174.095, 6.45753, 65.673, 0.0463687, 90.328
0, 3060.00000, 120.427, -31.1998, 121.001, -151.021, 121.429, 88.7469, 0, 0, 6.48408, -54.2737, 6.4804, -174.095, 6.45753, 65.673, 0.0463687, 90.328
0, 3120.00000, 120.427, -31.1998, 121.001, -151.021, 121.429, 88.7469, 0, 0, 6.48408, -54.2737, 6.4804, -174.095, 6.45753, 65.673, 0.0463687, 90.328
0, 3180.00000, 120.427, -31.1998, 121.001, -151.021, 121.429, 88.7469, 0, 0, 6.48408, -54.2737, 6.4804, -174.095, 6.45753, 65.673, 0.0463687, 90.328
0, 3240.00000, 120.427, -31.1998, 121.001, -151.021, 121.429, 88.7469, 0, 0, 6.48408, -54.2737, 6.4804, -174.095, 6.45753, 65.673, 0.0463687, 90.328
0, 3300.00000, 120.427, -31.1998, 121.001, -151.021, 121.429, 88.7469, 0, 0, 6.48408, -54.2737, 6.4804, -174.095, 6.45753, 65.673, 0.0463687, 90.328
0, 3360.00000, 120.427, -31.1998, 121.001, -151.021, 121.429, 88.7469, 0, 0, 6.48408, -54.2737, 6.4804, -174.095, 6.45753, 65.673, 0.0463687, 90.328
0, 3420.00000, 120.427, -31.1998, 121.001, -151.021, 121.429, 88.7469, 0, 0, 6.48408, -54.2737, 6.4804, -174.095, 6.45753, 65.673, 0.0463687, 90.328
0, 3480.00000, 120.427, -31.1998, 121.001, -151.021, 121.429, 88.7469, 0, 0, 6.48408, -54.2737, 6.4804, -174.095, 6.45753, 65.673, 0.0463687, 90.328
0, 3540.00000, 120.427, -31.1998, 121.001, -151.021, 121.429, 88.7469, 0, 0, 6.48408, -54.2737, 6.4804, -174.095, 6.45753, 65.673, 0.0463687, 90.328
1, 0.00000, 120.427, -31.1998, 121.001, -151.021, 121.429, 88.7469, 0, 0, 6.48408, -54.2737, 6.4804, -174.095, 6.45753, 65.673, 0.0463687, 90.328
1, 60.00000, 120.427, -31.1998, 121.001, -151.021, 121.429, 88.7469, 0, 0, 6.48408, -54.2737, 6.4804, -174.095, 6.45753, 65.673, 0.0463687, 90.328
1, 120.00000, 120.427, -31.1998, 121.001, -151.021, 121.429, 88.7469, 0, 0, 6.48408, -54.2737, 6.4804, -174.095, 6.45753, 65.673, 0.0463687, 90.328
1, 180.00000, 120.427, -31.1998, 121.001, -151.021, 121.429, 88.7469, 0, 0, 6.48408, -54.2737, 6.4804, -174.095, 6.45753, 65.673, 0.0463687, 90.328
1, 240.00000, 120.427, -31.1998, 121.001, -151.021, 121.429, 88.7469, 0, 0, 6.48408, -54.2737, 6.4804, -174.095, 6.45753, 65.673, 0.0463687, 90.328
1, 300.00000, 120.427, -31.1998, 121.001, -151.021, 121.429, 88.7469, 0, 0, 6.48408, -54.2737, 6.4804, -174.095, 6.45753, 65.673, 0.0463687, 90.328
1, 360.00000, 120.427, -31.1998, 121.001, -151.021, 121.429, 88.7469, 0, 0, 6.48408, -54.2737, 6.4804, -174.095, 6.45753, 65.673, 0.0463687, 90.328
1, 420.00000, 120.427, -31.1998, 121.001, -151.021, 121.429, 88.7469, 0, 0, 6.48408, -54.2737, 6.4804, -174.095, 6.45753, 65.673, 0.0463687, 90.328
1, 480.00000, 120.427, -31.1998, 121.001, -151.021, 121.429, 88.7469, 0, 0, 6.48408, -54.2737, 6.4804, -174.095, 6.45753, 65.673, 0.0463687, 90.328
1, 540.00000, 120.427, -31.1998, 121.001, -151.021, 121.429, 88.7469, 0, 0, 6.48408, -54.2737, 6.4804, -174.095, 6.45753, 65.673, 0.0463687, 90.328
1, 600.00000, 120.427, -31.1998, 121.001, -151.021, 121.429, 88.7469, 0, 0, 6.48408, -54.2737, 6.4804, -174.095, 6.45753, 65.673, 0.0463687, 90.328
1, 660.00000, 120.427, -31.1998, 121.001, -151.021, 121.429, 88.7469, 0, 0, 6.48408, -54.2737, 6.4804, -174.095, 6.45753, 65.673, 0.0463687, 90.328
1, 720.00000, 120.427, -31.1998, 121.001, -151.021, 121.429, 88.7469, 0, 0, 6.48408, -54.2737, 6.4804, -174.095, 6.45753, 65.673, 0.0463687, 90.328
1, 780.00000, 120.427, -31.1998, 121.001, -151.021, 121.429, 88.7469, 0, 0, 6.48408, -54.2737, 6.4804, -174.095, 6.45753, 65.673, 0.0463687, 90.328
1, 840.00000, 120.427, -31.1998, 121.001, -151.021, 121.429, 88.7469, 0, 0, 6.48408, -54.2737, 6.4804, -174.095, 6.45753, 65.673, 0.0463687, 90.328
1, 900.00000, 120.427, -31.1998, 121.001, -151.021, 121.429, 88.7469, 0, 0, 6.48408, -54.2737, 6.4804, -174.095, 6.45753, 65.673, 0.0463687, 90.328
1, 960.00000, 120.427, -31.1998, 121.001, -151.021, 121.429, 88.7469, 0, 0, 6.48408, -54.2737, 6.4804, -174.095, 6.45753, 65.673, 0.0463687, 90.328
1, 1020.00000, 120.427, -31.1998, 121.001, -151.021, 121.429, 88.7469, 0, 0, 6.48408, -54.2737, 6.4804, -174.095, 6.45753, 65.673, 0.0463687, 90.328
1, 1080.00000, 120.427, -31.1998, 121.001, -151.021, 121.429, 88.7469, 0, 0, 6.48408, -54.2737, 6.4804, -174.095, 6.45753, 65.673, 0.0463687, 90.328
1, 1140.00000, 120.427, -31.1998, 121.001, -151.021, 121.429, 88.7469, 0, 0, 6.48408, -54.2737, 6.4804, -174.095, 6.45753, 65.673, 0.0463687, 90.328
1, 1200.00000, 120.427, -31.1998, 121.001, -151.021, 121.429, 88.7469, 0, 0, 6.48408, -54.2737, 6.4804, -174.095, 6.45753, 65.673, 0.0463687, 90.328
1, 1260.00000, 120.427, -31.1998, 121.001, -151.021, 121.429, 88.7469, 0, 0, 6.48408, -54.2737, 6.4804, -174.095, 6.45753, 65.673, 0.0463687, 90.328
1, 1320.00000, 120.427, -31.1998, 121.001, -151.021, 121.429, 88.7469, 0, 0, 6.48408, -54.2737, 6.4804, -174.095, 6.45753, 65.673, 0.0463687, 90.328
1, 1380.00000, 120.427, -31.1998, 121.001, -151.021, 121.429, 88.7469, 0, 0, 6.48408, -54.2737, 6.4804, -174.095, 6.45753, 65.673, 0.0463687, 90.328
1, 1440.00000, 120.427, -31.1998, 121.001, -151.021, 121.429, 88.7469, 0, 0, 6.48408, -54.2737, 6.4804, -174.095, 6.45753, 65.673, 0.0463687, 90.328
1, 1500.00000, 120.427, -31.1998, 121.001, -151.021, 121.429, 88.7469, 0, 0, 6.48408, -54.2737, 6.4804, -174.095, 6.45753, 65.673, 0.0463687, 90.328
1, 1560.00000, 120.427, -31.1998, 121.001, -151.021, 121.429, 88.7469, 0, 0, 6.48408, -54.2737, 6.4804, -174.095, 6.45753, 65.673, 0.0463687, 90.328
1, 1620.00000, 120.427, -31.1998, 121.001, -151.021, 121.429, 88.7469, 0, 0, 6.48408, -54.2737, 6.4804, -174.095, 6.45753, 65.673, 0.0463687, 90.328
1, 1680.00000, 120.427, -31.1998, 121.001, -151.021, 121.429, 88.7469, 0, 0, 6.48408, -54.2737, 6.4804, -174.095, 6.45753, 65.673, 0.0463687, 90.328
1, 1740.00000, 120.427, -31.1998, 121.001, -151.021, 121.429, 88.7469, 0, 0, 6.48408, -54.2737, 6.4804, -174.095, 6.45753, 65.673, 0.0463687, 90.328
1, 1800.00000, 120.427, -31.1998, 121.001, -151.021, 121.429, 88.7469, 0, 0, 6.48408, -54.2737, 6.4804, -174.095, 6.45753, 65.673, 0.0463687, 90.328
1, 1860.00000, 120.427, -31.1998, 121.001, -151.021, 121.429, 88.7469, 0, 0, 6.48408, -54.2737, 6.4804, -174.095, 6.45753, 65.673, 0.0463687, 90.328
1, 1920.00000, 120.427, -31.1998, 121.001, -151.021, 121.429, 88.7469, 0, 0, 6.48408, -54.2737, 6.4804, -174.095, 6.45753, 65.673, 0.0463687, 90.328
1, 1980.00000, 120.427, -31.1998, 121.001, -151.021, 121.429, 88.7469, 0, 0, 6.48408, -54.2737, 6.4804, -174.095, 6.45753, 65.673, 0.0463687, 90.328
1, 2040.00000, 120.427, -31.1998, 121.001, -151.021, 121.429, 88.7469, 0, 0, 6.48408, -54.2737, 6.4804, -174.095, 6.45753, 65.673, 0.0463687, 90.328
1, 2100.00000, 120.427, -31.1998, 121.001, -151.021, 121.429, 88.7469, 0, 0, 6.48408, -54.2737, 6.4804, -174.095, 6.45753, 65.673, 0.0463687, 90.328
1, 2160.00000, 120.427, -31.1998, 121.001, -151.021, 121.429, 88.7469, 0, 0, 6.48408, -54.2737, 6.4804, -174.095, 6.45753, 65.673, 0.0463687, 90.328
1, 2220.00000, 120.427, -31.1998, 121.001, -151.021, 121.429, 88.7469, 0, 0, 6.48408, -54.2737, 6.4804, -174.095, 6.45753, 65.673, 0.0463687, 90.328
1, 2280.00000, 120.427, -31.1998, 121.001, -151.021, 121.429, 88.7469, 0, 0, 6.48408, -54.2737, 6.4804, -174.095, 6.45753, 65.673, 0.0463687, 90.328
1, 2340.00000, 120.427, -31.1998, 121.001, -151.021, 121.429, 88.7469, 0, 0, 6.48408, -54.2737, 6.4804, -174.095, 6.45753, 65.673, 0.0463687, 90.328
1, 2400.00000, 120.427, -31.1998, 121.001, -151.021, 121.429, 88.7469, 0, 0, 6.48408, -54.2737, 6.4804, -174.095, 6.45753, 65.673, 0.0463687, 90.328
1, 2460.00000, 120.427, -31.1998, 121.001, -151.021, 121.429, 88.7469, 0, 0, 6.48408, -54.2737, 6.4804, -174.095, 6.45753, 65.673, 0.0463687, 90.328
1, 2520.00000, 120.427, -31.1998, 121.001, -151.021, 121.429, 88.7469, 0, 0, 6.48408, -54.2737, 6.4804, -174.095, 6.45753, 65.673, 0.0463687, 90.328
1, 2580.00000, 120.427, -31.1998, 121.001, -151.021, 121.429, 88.7469, 0, 0, 6.48408, -54.2737, 6.4804, -174.095, 6.45753, 65.673, 0.0463687, 90.328
1, 2640.00000, 120.427, -31.1998, 121.001, -151.021, 121.429, 88.7469, 0, 0, 6.48408, -54.2737, 6.4804, -174.095, 6.45753, 65.673, 0.0463687, 90.328
1, 2700.00000, 120.427, -31.1998, 121.001, -151.021, 121.429, 88.7469, 0, 0, 6.48408, -54.2737, 6.4804, -174.095, 6.45753, 65.673, 0.0463687, 90.328
1, 2760.00000, 120.427, -31.1998, 121.001, -151.021, 121.429, 88.7469, 0, 0, 6.48408, -54.2737, 6.4804, -174.095, 6.45753, 65.673, 0.0463687, 90.328
1, 2820.00000, 120.427, -31.1998, 121.001, -151.021, 121.429, 88.7469, 0, 0, 6.48408, -54.2737, 6.4804, -174.095, 6.45753, 65.673, 0.0463687, 90.328
1, 2880.00000, 120.427, -31.1998, 121.001, -151.021, 121.429, 88.7469, 0, 0, 6.48408, -54.2737, 6.4804, -174.095, 6.45753, 65.673, 0.0463687, 90.328
1, 2940.00000, 120.427, -31.1998, 121.001, -151.021, 121.429, 88.7469, 0, 0, 6.48408, -54.2737, 6.4804, -174.095, 6.45753, 65.673, 0.0463687, 90.328
1, 3000.00000, 120.427, -31.1998, 121.001, -151.021, 121.429, 88.7469, 0, 0, 6.48408, -54.2737, 6.4804, -174.095, 6.45753, 65.673, 0.0463687, 90.328
1, 3060.00000, 120.427, -31.1998, 121.001, -151.021, 121.429, 88.7469, 0, 0, 6.48408, -54.2737, 6.4804, -174.095, 6.45753, 65.673, 0.0463687, 90.328
1, 3120.00000, 120.427, -31.1998, 121.001, -151.021, 121.429, 88.7469, 0, 0, 6.48408, -54.2737, 6.4804, -174.095, 6.45753, 65.673, 0.0463687, 90.328
1, 3180.00000, 120.427, -31.1998, 121.001, -151.021, 121.429, 88.7469, 0, 0, 6.48408, -54.2737, 6.4804, -174.095, 6.45753, 65.673, 0.0463687, 90.328
1, 3240.00000, 120.427, -31.1998, 121.001, -151.021, 121.429, 88.7469, 0, 0, 6.48408, -54.2737, 6.4804, -174.095, 6.45753, 65.673, 0.0463687, 90.328
1, 3300.00000, 120.427, -31.1998, 121.001, -151.021, 121.429, 88.7469, 0, 0, 6.48408, -54.2737, 6.4804, -174.095, 6.45753, 65.673, 0.0463687, 90.328
1, 3360.00000, 120.427, -31.1998, 121.001, -151.021, 121.429, 88.7469, 0, 0, 6.48408, -54.2737, 6.4804, -174.095, 6.45753, 65.673, 0.0463687, 90.328
1, 3420.00000, 120.427, -31.1998, 121.001, -151.021, 121.429, 88.7469, 0, 0, 6.48408, -54.2737, 6.4804, -174.095, 6.45753, 65.673, 0.0463687, 90.328
1, 3480.00000, 120.427, -31.1998, 121.001, -151.021, 121.429, 88.7469, 0, 0, 6.48408, -54.2737, 6.4804, -174.095, 6.45753, 65.673, 0.0463687, 90.328
1, 3540.00000, 120.427, -31.1998, 121.001, -151.021, 121.429, 88.7469, 0, 0, 6.48408, -54.2737, 6.4804, -174.095, 6.45753, 65.673, 0.0463687, 90.328
2, 0.00000, 120.427, -31.1998, 121.001, -151.021, 121.429, 88.7469, 0, 0, 6.48408, -54.2737, 6.4804, -174.095, 6.45753, 65.673, 0.0463687, 90.328
2, 60.00000, 120.427, -31.1998, 121.001, -151.021, 121.429, 88.7469, 0, 0, 6.48408, -54.2737, 6.4804, -174.095, 6.45753, 65.673, 0.0463687, 90.328
2, 120.00000, 120.427, -31.1998, 121.001, -151.021, 121.429, 88.7469, 0, 0, 6.48408, -54.2737, 6.4804, -174.095, 6.45753, 65.673, 0.0463687, 90.328
2, 180.00000, 120.427, -31.1998, 121.001, -151.021, 121.429, 88.7469, 0, 0, 6.48408, -54.2737, 6.4804, -174.095, 6.45753, 65.673, 0.0463687, 90.328
2, 240.00000, 120.427, -31.1998, 121.001, -151.021, 121.429, 88.7469, 0, 0, 6.48408, -54.2737, 6.4804, -174.095, 6.45753, 65.673, 0.0463687, 90.328
2, 300.00000, 120.427, -31.1998, 121.001, -151.021, 121.429, 88.7469, 0, 0, 6.48408, -54.2737, 6.4804, -174.095, 6.45753, 65.673, 0.0463687, 90.328
2, 360.00000, 120.427, -31.1998, 121.001, -151.021, 121.429, 88.7469, 0, 0, 6.48408, -54.2737, 6.4804, -174.095, 6.45753, 65.673, 0.0463687, 90.328
2, 420.00000, 120.427, -31.1998, 121.001, -151.021, 121.429, 88.7469, 0, 0, 6.48408, -54.2737, 6.4804, -174.095, 6.45753, 65.673, 0.0463687, 90.328
2, 480.00000, 120.427, -31.1998, 121.001, -151.021, 121.429, 88.7469, 0, 0, 6.48408, -54.2737, 6.4804, -174.095, 6.45753, 65.673, 0.0463687, 90.328
2, 540.00000, 120.427, -31.1998, 121.001, -151.021, 121.429, 88.7469, 0, 0, 6.48408, -54.2737, 6.4804, -174.095, 6.45753, 65.673, 0.0463687, 90.328
2, 600.00000, 120.427, -31.1998, 121.001, -151.021, 121.429, 88.7469, 0, 0, 6.48408, -54.2737, 6.4804, -174.095, 6.45753, 65.673, 0.0463687, 90.328
2, 660.00000, 120.427, -31.1998, 121.001, -151.021, 121.429, 88.7469, 0, 0, 6.48408, -54.2737, 6.4804, -174.095, 6.45753, 65.673, 0.0463687, 90.328
2, 720.00000, 120.427, -31.1998, 121.001, -151.021, 121.429, 88.7469, 0, 0, 6.48408, -54.2737, 6.4804, -174.095, 6.45753, 65.673, 0.0463687, 90.328
2, 780.00000, 120.427, -31.1998, 121.001, -151.021, 121.429, 88.7469, 0, 0, 6.48408, -54.2737, 6.4804, -174.095, 6.45753, 65.673, 0.0463687, 90.328
