hour,t(sec),"P1 (kW)","Q1 (kvar)","P2 (kW)","Q2 (kvar)","P3 (kW)","Q3 (kvar)","P4 (kW)","Q4 (kvar)"
0, 60.00000, 0.651508, 0.277534, 0.650775, 0.27723, 0.662994, 0.282427, 0, 0
0, 120.00000, 0.651499, 0.277537, 0.650767, 0.277225, 0.662963, 0.282421, 0, 0
0, 180.00000, 0.651499, 0.277537, 0.650767, 0.277225, 0.662963, 0.282421, 0, 0
0, 240.00000, 0.651499, 0.277537, 0.650767, 0.277225, 0.662963, 0.282421, 0, 0
0, 300.00000, 0.651499, 0.277537, 0.650767, 0.277225, 0.662963, 0.282421, 0, 0
0, 360.00000, 0.651499, 0.277537, 0.650767, 0.277225, 0.662963, 0.282421, 0, 0
0, 420.00000, 0.651499, 0.277537, 0.650767, 0.277225, 0.662963, 0.282421, 0, 0
0, 480.00000, 0.651499, 0.277537, 0.650767, 0.277225, 0.662963, 0.282421, 0, 0
0, 540.00000, 0.651499, 0.277537, 0.650767, 0.277225, 0.662963, 0.282421, 0, 0
0, 600.00000, 0.651499, 0.277537, 0.650767, 0.277225, 0.662963, 0.282421, 0, 0
0, 660.00000, 0.651499, 0.277537, 0.650767, 0.277225, 0.662963, 0.282421, 0, 0
0, 720.00000, 0.651499, 0.277537, 0.650767, 0.277225, 0.662963, 0.282421, 0, 0
0, 780.00000, 0.651499, 0.277537, 0.650767, 0.277225, 0.662963, 0.282421, 0, 0
0, 840.00000, 0.651499, 0.277537, 0.650767, 0.277225, 0.662963, 0.282421, 0, 0
0, 900.00000, 0.651499, 0.277537, 0.650767, 0.277225, 0.662963, 0.282421, 0, 0
0, 960.00000, 0.635488, 0.270715, 0.634865, 0.270451, 0.646792, 0.275531, 0, 0
0, 1020.00000, 0.635485, 0.270716, 0.634862, 0.27045, 0.646788, 0.275531, 0, 0
0, 1080.00000, 0.635485, 0.270716, 0.634862, 0.27045, 0.646788, 0.275531, 0, 0
0, 1140.00000, 0.635485, 0.270716, 0.634862, 0.27045, 0.646788, 0.275531, 0, 0
0, 1200.00000, 0.635485, 0.270716, 0.634862, 0.27045, 0.646788, 0.275531, 0, 0
0, 1260.00000, 0.635485, 0.270716, 0.634862, 0.27045, 0.646788, 0.275531, 0, 0
0, 1320.00000, 0.635485, 0.270716, 0.634862, 0.27045, 0.646788, 0.275531, 0, 0
0, 1380.00000, 0.635485, 0.270716, 0.634862, 0.27045, 0.646788, 0.275531, 0, 0
0, 1440.00000, 0.635485, 0.270716, 0.634862, 0.27045, 0.646788, 0.275531, 0, 0
0, 1500.00000, 0.635485, 0.270716, 0.634862, 0.27045, 0.646788, 0.275531, 0, 0
0, 1560.00000, 0.635485, 0.270716, 0.634862, 0.27045, 0.646788, 0.275531, 0, 0
0, 1620.00000, 0.635485, 0.270716, 0.634862, 0.27045, 0.646788, 0.275531, 0, 0
0, 1680.00000, 0.635485, 0.270716, 0.634862, 0.27045, 0.646788, 0.275531, 0, 0
0, 1740.00000, 0.635485, 0.270716, 0.634862, 0.27045, 0.646788, 0.275531, 0, 0
0, 1800.00000, 0.635485, 0.270716, 0.634862, 0.27045, 0.646788, 0.275531, 0, 0
0, 1860.00000, 0.603169, 0.256963, 0.602463, 0.256658, 0.613726, 0.261457, 0, 0
0, 1920.00000, 0.603206, 0.256965, 0.6025, 0.256664, 0.613768, 0.261464, 0, 0
0, 1980.00000, 0.603206, 0.256965, 0.6025, 0.256664, 0.613769, 0.261464, 0, 0
0, 2040.00000, 0.603206, 0.256965, 0.6025, 0.256664, 0.613769, 0.261464, 0, 0
0, 2100.00000, 0.603206, 0.256965, 0.6025, 0.256664, 0.613769, 0.261464, 0, 0
0, 2160.00000, 0.603206, 0.256965, 0.6025, 0.256664, 0.613769, 0.261464, 0, 0
0, 2220.00000, 0.603206, 0.256965, 0.6025, 0.256664, 0.613769, 0.261464, 0, 0
0, 2280.00000, 0.603206, 0.256965, 0.6025, 0.256664, 0.613769, 0.261464, 0, 0
0, 2340.00000, 0.603206, 0.256965, 0.6025, 0.256664, 0.613769, 0.261464, 0, 0
0, 2400.00000, 0.603206, 0.256965, 0.6025, 0.256664, 0.613769, 0.261464, 0, 0
0, 2460.00000, 0.603206, 0.256965, 0.6025, 0.256664, 0.613769, 0.261464, 0, 0
0, 2520.00000, 0.603206, 0.256965, 0.6025, 0.256664, 0.613769, 0.261464, 0, 0
0, 2580.00000, 0.603206, 0.256965, 0.6025, 0.256664, 0.613769, 0.261464, 0, 0
0, 2640.00000, 0.603206, 0.256965, 0.6025, 0.256664, 0.613769, 0.261464, 0, 0
0, 2700.00000, 0.603206, 0.256965, 0.6025, 0.256664, 0.613769, 0.261464, 0, 0
0, 2760.00000, 0.593902, 0.253005, 0.593043, 0.252634, 0.604138, 0.257365, 0, 0
0, 2820.00000, 0.593905, 0.253003, 0.593045, 0.252636, 0.604153, 0.257368, 0, 0
0, 2880.00000, 0.593905, 0.253003, 0.593045, 0.252636, 0.604153, 0.257368, 0, 0
0, 2940.00000, 0.593905, 0.253003, 0.593045, 0.252636, 0.604153, 0.257368, 0, 0
0, 3000.00000, 0.593905, 0.253003, 0.593045, 0.252636, 0.604153, 0.257368, 0, 0
0, 3060.00000, 0.593905, 0.253003, 0.593045, 0.252636, 0.604153, 0.257368, 0, 0
0, 3120.00000, 0.593905, 0.253003, 0.593045, 0.252636, 0.604153, 0.257368, 0, 0
0, 3180.00000, 0.593905, 0.253003, 0.593045, 0.252636, 0.604153, 0.257368, 0, 0
0, 3240.00000, 0.593905, 0.253003, 0.593045, 0.252636, 0.604153, 0.257368, 0, 0
0, 3300.00000, 0.593905, 0.253003, 0.593045, 0.252636, 0.604153, 0.257368, 0, 0
0, 3360.00000, 0.593905, 0.253003, 0.593045, 0.252636, 0.604153, 0.257368, 0, 0
0, 3420.00000, 0.593905, 0.253003, 0.593045, 0.252636, 0.604153, 0.257368, 0, 0
0, 3480.00000, 0.593905, 0.253003, 0.593045, 0.252636, 0.604153, 0.257368, 0, 0
0, 3540.00000, 0.593905, 0.253003, 0.593045, 0.252636, 0.604153, 0.257368, 0, 0
1, 0.00000, 0.593905, 0.253003, 0.593045, 0.252636, 0.604153, 0.257368, 0, 0
1, 60.00000, 0.547539, 0.233254, 0.546646, 0.232867, 0.555049, 0.236453, 0, 0
1, 120.00000, 0.54754, 0.233251, 0.546646, 0.23287, 0.555037, 0.236445, 0, 0
1, 180.00000, 0.54754, 0.233251, 0.546646, 0.23287, 0.555037, 0.236445, 0, 0
1, 240.00000, 0.54754, 0.233251, 0.546646, 0.23287, 0.555037, 0.236445, 0, 0
1, 300.00000, 0.54754, 0.233251, 0.546646, 0.23287, 0.555037, 0.236445, 0, 0
1, 360.00000, 0.54754, 0.233251, 0.546646, 0.23287, 0.555037, 0.236445, 0, 0
1, 420.00000, 0.54754, 0.233251, 0.546646, 0.23287, 0.555037, 0.236445, 0, 0
1, 480.00000, 0.54754, 0.233251, 0.546646, 0.23287, 0.555037, 0.236445, 0, 0
1, 540.00000, 0.54754, 0.233251, 0.546646, 0.23287, 0.555037, 0.236445, 0, 0
1, 600.00000, 0.54754, 0.233251, 0.546646, 0.23287, 0.555037, 0.236445, 0, 0
1, 660.00000, 0.54754, 0.233251, 0.546646, 0.23287, 0.555037, 0.236445, 0, 0
1, 720.00000, 0.54754, 0.233251, 0.546646, 0.23287, 0.555037, 0.236445, 0, 0
1, 780.00000, 0.54754, 0.233251, 0.546646, 0.23287, 0.555037, 0.236445, 0, 0
1, 840.00000, 0.54754, 0.233251, 0.546646, 0.23287, 0.555037, 0.236445, 0, 0
1, 900.00000, 0.54754, 0.233251, 0.546646, 0.23287, 0.555037, 0.236445, 0, 0
1, 960.00000, 0.553761, 0.235907, 0.552839, 0.235506, 0.560869, 0.238934, 0, 0
1, 1020.00000, 0.553767, 0.235904, 0.552845, 0.235511, 0.560851, 0.238921, 0, 0
1, 1080.00000, 0.553767, 0.235904, 0.552845, 0.235511, 0.56085, 0.238921, 0, 0
1, 1140.00000, 0.553767, 0.235904, 0.552845, 0.235511, 0.56085, 0.238921, 0, 0
1, 1200.00000, 0.553767, 0.235904, 0.552845, 0.235511, 0.56085, 0.238921, 0, 0
1, 1260.00000, 0.553767, 0.235904, 0.552845, 0.235511, 0.56085, 0.238921, 0, 0
1, 1320.00000, 0.553767, 0.235904, 0.552845, 0.235511, 0.56085, 0.238921, 0, 0
1, 1380.00000, 0.553767, 0.235904, 0.552845, 0.235511, 0.56085, 0.238921, 0, 0
1, 1440.00000, 0.553767, 0.235904, 0.552845, 0.235511, 0.56085, 0.238921, 0, 0
1, 1500.00000, 0.553767, 0.235904, 0.552845, 0.235511, 0.56085, 0.238921, 0, 0
1, 1560.00000, 0.553767, 0.235904, 0.552845, 0.235511, 0.56085, 0.238921, 0, 0
1, 1620.00000, 0.553767, 0.235904, 0.552845, 0.235511, 0.56085, 0.238921, 0, 0
1, 1680.00000, 0.553767, 0.235904, 0.552845, 0.235511, 0.56085, 0.238921, 0, 0
1, 1740.00000, 0.553767, 0.235904, 0.552845, 0.235511, 0.56085, 0.238921, 0, 0
1, 1800.00000, 0.553767, 0.235904, 0.552845, 0.235511, 0.56085, 0.238921, 0, 0
1, 1860.00000, 0.58719, 0.250138, 0.58629, 0.249761, 0.596681, 0.254182, 0, 0
1, 1920.00000, 0.587189, 0.250141, 0.586289, 0.249758, 0.596694, 0.25419, 0, 0
1, 1980.00000, 0.587189, 0.250142, 0.586289, 0.249758, 0.596694, 0.25419, 0, 0
1, 2040.00000, 0.587189, 0.250142, 0.586289, 0.249758, 0.596694, 0.25419, 0, 0
1, 2100.00000, 0.587189, 0.250142, 0.586289, 0.249758, 0.596694, 0.25419, 0, 0
1, 2160.00000, 0.587189, 0.250142, 0.586289, 0.249758, 0.596694, 0.25419, 0, 0
1, 2220.00000, 0.587189, 0.250142, 0.586289, 0.249758, 0.596694, 0.25419, 0, 0
1, 2280.00000, 0.587189, 0.250142, 0.586289, 0.249758, 0.596694, 0.25419, 0, 0
1, 2340.00000, 0.587189, 0.250142, 0.586289, 0.249758, 0.596694, 0.25419, 0, 0
1, 2400.00000, 0.587189, 0.250142, 0.586289, 0.249758, 0.596694, 0.25419, 0, 0
1, 2460.00000, 0.587189, 0.250142, 0.586289, 0.249758, 0.596694, 0.25419, 0, 0
1, 2520.00000, 0.587189, 0.250142, 0.586289, 0.249758, 0.596694, 0.25419, 0, 0
1, 2580.00000, 0.587189, 0.250142, 0.586289, 0.249758, 0.596694, 0.25419, 0, 0
1, 2640.00000, 0.587189, 0.250142, 0.586289, 0.249758, 0.596694, 0.25419, 0, 0
1, 2700.00000, 0.587189, 0.250142, 0.586289, 0.249758, 0.596694, 0.25419, 0, 0
1, 2760.00000, 0.558812, 0.238059, 0.55782, 0.237626, 0.563299, 0.239971, 0, 0
1, 2820.00000, 0.558813, 0.238053, 0.557827, 0.237633, 0.563275, 0.239954, 0, 0
1, 2880.00000, 0.558813, 0.238053, 0.557827, 0.237633, 0.563275, 0.239954, 0, 0
1, 2940.00000, 0.558813, 0.238053, 0.557827, 0.237633, 0.563275, 0.239954, 0, 0
1, 3000.00000, 0.558813, 0.238053, 0.557827, 0.237633, 0.563275, 0.239954, 0, 0
1, 3060.00000, 0.558813, 0.238053, 0.557827, 0.237633, 0.563275, 0.239954, 0, 0
1, 3120.00000, 0.558813, 0.238053, 0.557827, 0.237633, 0.563275, 0.239954, 0, 0
1, 3180.00000, 0.558813, 0.238053, 0.557827, 0.237633, 0.563275, 0.239954, 0, 0
1, 3240.00000, 0.558813, 0.238053, 0.557827, 0.237633, 0.563275, 0.239954, 0, 0
1, 3300.00000, 0.558813, 0.238053, 0.557827, 0.237633, 0.563275, 0.239954, 0, 0
1, 3360.00000, 0.558813, 0.238053, 0.557827, 0.237633, 0.563275, 0.239954, 0, 0
1, 3420.00000, 0.558813, 0.238053, 0.557827, 0.237633, 0.563275, 0.239954, 0, 0
1, 3480.00000, 0.558813, 0.238053, 0.557827, 0.237633, 0.563275, 0.239954, 0, 0
1, 3540.00000, 0.558813, 0.238053, 0.557827, 0.237633, 0.563275, 0.239954, 0, 0
2, 0.00000, 0.558813, 0.238053, 0.557827, 0.237633, 0.563275, 0.239954, 0, 0
2, 60.00000, 0.592, 0.252187, 0.59102, 0.251776, 0.599395, 0.255337, 0, 0
2, 120.00000, 0.591999, 0.252191, 0.591017, 0.251772, 0.599409, 0.255347, 0, 0
2, 180.00000, 0.592, 0.252191, 0.591017, 0.251772, 0.599409, 0.255347, 0, 0
2, 240.00000, 0.592, 0.252191, 0.591017, 0.251772, 0.599409, 0.255347, 0, 0
2, 300.00000, 0.592, 0.252191, 0.591017, 0.251772, 0.599409, 0.255347, 0, 0
2, 360.00000, 0.592, 0.252191, 0.591017, 0.251772, 0.599409, 0.255347, 0, 0
2, 420.00000, 0.592, 0.252191, 0.591017, 0.251772, 0.599409, 0.255347, 0, 0
2, 480.00000, 0.592, 0.252191, 0.591017, 0.251772, 0.599409, 0.255347, 0, 0
2, 540.00000, 0.592, 0.252191, 0.591017, 0.251772, 0.599409, 0.255347, 0, 0
2, 600.00000, 0.592, 0.252191, 0.591017, 0.251772, 0.599409, 0.255347, 0, 0
2, 660.00000, 0.592, 0.252191, 0.591017, 0.251772, 0.599409, 0.255347, 0, 0
2, 720.00000, 0.592, 0.252191, 0.591017, 0.251772, 0.599409, 0.255347, 0, 0
2, 780.00000, 0.592, 0.252191, 0.591017, 0.251772, 0.599409, 0.255347, 0, 0
2, 840.00000, 0.592, 0.252191, 0.591017, 0.251772, 0.599409, 0.255347, 0, 0
2, 900.00000, 0.592, 0.252191, 0.591017, 0.251772, 0.599409, 0.255347, 0, 0
2, 960.00000, 0.572337, 0.243819, 0.571306, 0.243373, 0.576203, 0.245467, 0, 0
2, 1020.00000, 0.572339, 0.243816, 0.571313, 0.243378, 0.576185, 0.245454, 0, 0
2, 1080.00000, 0.572339, 0.243815, 0.571313, 0.243378, 0.576185, 0.245454, 0, 0
2, 1140.00000, 0.572339, 0.243815, 0.571313, 0.243378, 0.576185, 0.245454, 0, 0
2, 1200.00000, 0.572339, 0.243815, 0.571313, 0.243378, 0.576185, 0.245454, 0, 0
2, 1260.00000, 0.572339, 0.243815, 0.571313, 0.243378, 0.576185, 0.245454, 0, 0
2, 1320.00000, 0.572339, 0.243815, 0.571313, 0.243378, 0.576185, 0.245454, 0, 0
2, 1380.00000, 0.572339, 0.243815, 0.571313, 0.243378, 0.576185, 0.245454, 0, 0
2, 1440.00000, 0.572339, 0.243815, 0.571313, 0.243378, 0.576185, 0.245454, 0, 0
2, 1500.00000, 0.572339, 0.243815, 0.571313, 0.243378, 0.576185, 0.245454, 0, 0
2, 1560.00000, 0.572339, 0.243815, 0.571313, 0.243378, 0.576185, 0.245454, 0, 0
2, 1620.00000, 0.572339, 0.243815, 0.571313, 0.243378, 0.576185, 0.245454, 0, 0
2, 1680.00000, 0.572339, 0.243815, 0.571313, 0.243378, 0.576185, 0.245454, 0, 0
2, 1740.00000, 0.572339, 0.243815, 0.571313, 0.243378, 0.576185, 0.245454, 0, 0
2, 1800.00000, 0.572339, 0.243815, 0.571313, 0.243378, 0.576185, 0.245454, 0, 0
2, 1860.00000, 0.609637, 0.259703, 0.608586, 0.259257, 0.615286, 0.262109, 0, 0
2, 1920.00000, 0.609637, 0.259704, 0.608582, 0.259255, 0.615294, 0.262114, 0, 0
2, 1980.00000, 0.609637, 0.259704, 0.608582, 0.259255, 0.615294, 0.262114, 0, 0
2, 2040.00000, 0.609637, 0.259704, 0.608582, 0.259255, 0.615294, 0.262114, 0, 0
2, 2100.00000, 0.609637, 0.259704, 0.608582, 0.259255, 0.615294, 0.262114, 0, 0
2, 2160.00000, 0.609637, 0.259704, 0.608582, 0.259255, 0.615294, 0.262114, 0, 0
2, 2220.00000, 0.609637, 0.259704, 0.608582, 0.259255, 0.615294, 0.262114, 0, 0
2, 2280.00000, 0.609637, 0.259704, 0.608582, 0.259255, 0.615294, 0.262114, 0, 0
2, 2340.00000, 0.609637, 0.259704, 0.608582, 0.259255, 0.615294, 0.262114, 0, 0
2, 2400.00000, 0.609637, 0.259704, 0.608582, 0.259255, 0.615294, 0.262114, 0, 0
2, 2460.00000, 0.609637, 0.259704, 0.608582, 0.259255, 0.615294, 0.262114, 0, 0
2, 2520.00000, 0.609637, 0.259704, 0.608582, 0.259255, 0.615294, 0.262114, 0, 0
2, 2580.00000, 0.609637, 0.259704, 0.608582, 0.259255, 0.615294, 0.262114, 0, 0
2, 2640.00000, 0.609637, 0.259704, 0.608582, 0.259255, 0.615294, 0.262114, 0, 0
2, 2700.00000, 0.609637, 0.259704, 0.608582, 0.259255, 0.615294, 0.262114, 0, 0
2, 2760.00000, 0.566461, 0.241317, 0.565357, 0.240839, 0.568004, 0.241974, 0, 0
2, 2820.00000, 0.566468, 0.241315, 0.565367, 0.240845, 0.567982, 0.24196, 0, 0
2, 2880.00000, 0.566468, 0.241315, 0.565367, 0.240846, 0.567982, 0.241959, 0, 0
2, 2940.00000, 0.566468, 0.241315, 0.565367, 0.240846, 0.567982, 0.241959, 0, 0
2, 3000.00000, 0.566468, 0.241315, 0.565367, 0.240846, 0.567982, 0.241959, 0, 0
2, 3060.00000, 0.566468, 0.241315, 0.565367, 0.240846, 0.567982, 0.241959, 0, 0
2, 3120.00000, 0.566468, 0.241315, 0.565367, 0.240846, 0.567982, 0.241959, 0, 0
2, 3180.00000, 0.566468, 0.241315, 0.565367, 0.240846, 0.567982, 0.241959, 0, 0
2, 3240.00000, 0.566468, 0.241315, 0.565367, 0.240846, 0.567982, 0.241959, 0, 0
2, 3300.00000, 0.566468, 0.241315, 0.565367, 0.240846, 0.567982, 0.241959, 0, 0
2, 3360.00000, 0.566468, 0.241315, 0.565367, 0.240846, 0.567982, 0.241959, 0, 0
2, 3420.00000, 0.566468, 0.241315, 0.565367, 0.240846, 0.567982, 0.241959, 0, 0
2, 3480.00000, 0.566468, 0.241315, 0.565367, 0.240846, 0.567982, 0.241959, 0, 0
2, 3540.00000, 0.566468, 0.241315, 0.565367, 0.240846, 0.567982, 0.241959, 0, 0
3, 0.00000, 0.566468, 0.241315, 0.565367, 0.240846, 0.567982, 0.241959, 0, 0
3, 60.00000, 0.604559, 0.257537, 0.603474, 0.257079, 0.608299, 0.259132, 0, 0
3, 120.00000, 0.604553, 0.257538, 0.603467, 0.257076, 0.608311, 0.259139, 0, 0
3, 180.00000, 0.604553, 0.257538, 0.603467, 0.257076, 0.608311, 0.259139, 0, 0
3, 240.00000, 0.604553, 0.257538, 0.603467, 0.257076, 0.608311, 0.259139, 0, 0
3, 300.00000, 0.604553, 0.257538, 0.603467, 0.257076, 0.608311, 0.259139, 0, 0
3, 360.00000, 0.604553, 0.257538, 0.603467, 0.257076, 0.608311, 0.259139, 0, 0
3, 420.00000, 0.604553, 0.257538, 0.603467, 0.257076, 0.608311, 0.259139, 0, 0
3, 480.00000, 0.604553, 0.257538, 0.603467, 0.257076, 0.608311, 0.259139, 0, 0
3, 540.00000, 0.604553, 0.257538, 0.603467, 0.257076, 0.608311, 0.259139, 0, 0
3, 600.00000, 0.604553, 0.257538, 0.603467, 0.257076, 0.608311, 0.259139, 0, 0
3, 660.00000, 0.604553, 0.257538, 0.603467, 0.257076, 0.608311, 0.259139, 0, 0
3, 720.00000, 0.604553, 0.257538, 0.603467, 0.257076, 0.608311, 0.259139, 0, 0
3, 780.00000, 0.604553, 0.257538, 0.603467, 0.257076, 0.608311, 0.259139, 0, 0
3, 840.00000, 0.604553, 0.257538, 0.603467, 0.257076, 0.608311, 0.259139, 0, 0
3, 900.00000, 0.604553, 0.257538, 0.603467, 0.257076, 0.608311, 0.259139, 0, 0
3, 960.00000, 0.559168, 0.238212, 0.558126, 0.237761, 0.561947, 0.239394, 0, 0
3, 1020.00000, 0.559183, 0.238211, 0.558143, 0.237768, 0.56192, 0.239377, 0, 0
3, 1080.00000, 0.559184, 0.238211, 0.558143, 0.237768, 0.561919, 0.239377, 0, 0
3, 1140.00000, 0.559184, 0.238211, 0.558143, 0.237768, 0.561919, 0.239377, 0, 0
3, 1200.00000, 0.559184, 0.238211, 0.558143, 0.237768, 0.561919, 0.239377, 0, 0
3, 1260.00000, 0.559184, 0.238211, 0.558143, 0.237768, 0.561919, 0.239377, 0, 0
3, 1320.00000, 0.559184, 0.238211, 0.558143, 0.237768, 0.561919, 0.239377, 0, 0
3, 1380.00000, 0.559184, 0.238211, 0.558143, 0.237768, 0.561919, 0.239377, 0, 0
3, 1440.00000, 0.559184, 0.238211, 0.558143, 0.237768, 0.561919, 0.239377, 0, 0
3, 1500.00000, 0.559184, 0.238211, 0.558143, 0.237768, 0.561919, 0.239377, 0, 0
3, 1560.00000, 0.559184, 0.238211, 0.558143, 0.237768, 0.561919, 0.239377, 0, 0
3, 1620.00000, 0.559184, 0.238211, 0.558143, 0.237768, 0.561919, 0.239377, 0, 0
3, 1680.00000, 0.559184, 0.238211, 0.558143, 0.237768, 0.561919, 0.239377, 0, 0
3, 1740.00000, 0.559184, 0.238211, 0.558143, 0.237768, 0.561919, 0.239377, 0, 0
3, 1800.00000, 0.559184, 0.238211, 0.558143, 0.237768, 0.561919, 0.239377, 0, 0
3, 1860.00000, 0.521163, 0.22202, 0.520184, 0.221601, 0.523618, 0.223065, 0, 0
3, 1920.00000, 0.521178, 0.222021, 0.520198, 0.221603, 0.523609, 0.223056, 0, 0
3, 1980.00000, 0.521178, 0.222021, 0.520198, 0.221603, 0.523609, 0.223056, 0, 0
3, 2040.00000, 0.521178, 0.222021, 0.520198, 0.221603, 0.523609, 0.223056, 0, 0
3, 2100.00000, 0.521178, 0.222021, 0.520198, 0.221603, 0.523609, 0.223056, 0, 0
3, 2160.00000, 0.521178, 0.222021, 0.520198, 0.221603, 0.523609, 0.223056, 0, 0
3, 2220.00000, 0.521178, 0.222021, 0.520198, 0.221603, 0.523609, 0.223056, 0, 0
3, 2280.00000, 0.521178, 0.222021, 0.520198, 0.221603, 0.523609, 0.223056, 0, 0
3, 2340.00000, 0.521178, 0.222021, 0.520198, 0.221603, 0.523609, 0.223056, 0, 0
3, 2400.00000, 0.521178, 0.222021, 0.520198, 0.221603, 0.523609, 0.223056, 0, 0
3, 2460.00000, 0.521178, 0.222021, 0.520198, 0.221603, 0.523609, 0.223056, 0, 0
3, 2520.00000, 0.521178, 0.222021, 0.520198, 0.221603, 0.523609, 0.223056, 0, 0
3, 2580.00000, 0.521178, 0.222021, 0.520198, 0.221603, 0.523609, 0.223056, 0, 0
3, 2640.00000, 0.521178, 0.222021, 0.520198, 0.221603, 0.523609, 0.223056, 0, 0
3, 2700.00000, 0.521178, 0.222021, 0.520198, 0.221603, 0.523609, 0.223056, 0, 0
3, 2760.00000, 0.551897, 0.235114, 0.551633, 0.234994, 0.551911, 0.235117, 0, 0
3, 2820.00000, 0.55189, 0.235104, 0.551642, 0.234999, 0.55189, 0.235104, 0, 0
3, 2880.00000, 0.55189, 0.235104, 0.551642, 0.234999, 0.55189, 0.235104, 0, 0
3, 2940.00000, 0.55189, 0.235104, 0.551642, 0.234999, 0.55189, 0.235104, 0, 0
3, 3000.00000, 0.55189, 0.235104, 0.551642, 0.234999, 0.55189, 0.235104, 0, 0
3, 3060.00000, 0.55189, 0.235104, 0.551642, 0.234999, 0.55189, 0.235104, 0, 0
3, 3120.00000, 0.551904, 0.235104, 0.551912, 0.235127, 0.551877, 0.235099, 0, 0
3, 3180.00000, 0.55189, 0.235104, 0.55189, 0.235105, 0.55189, 0.235104, 0, 0
3, 3240.00000, 0.55189, 0.235104, 0.55189, 0.235104, 0.55189, 0.235104, 0, 0
3, 3300.00000, 0.55189, 0.235104, 0.55189, 0.235104, 0.55189, 0.235104, 0, 0
3, 3360.00000, 0.55189, 0.235104, 0.55189, 0.235104, 0.55189, 0.235104, 0, 0
3, 3420.00000, 0.55189, 0.235104, 0.55189, 0.235104, 0.55189, 0.235104, 0, 0
3, 3480.00000, 0.55189, 0.235104, 0.55189, 0.235104, 0.55189, 0.235104, 0, 0
3, 3540.00000, 0.55189, 0.235104, 0.55189, 0.235104, 0.55189, 0.235104, 0, 0
4, 0.00000, 0.55189, 0.235104, 0.55189, 0.235104, 0.55189, 0.235104, 0, 0
4, 60.00000, 0.518736, 0.220978, 0.518734, 0.220979, 0.51873, 0.220976, 0, 0
4, 120.00000, 0.518742, 0.220983, 0.518742, 0.220983, 0.518742, 0.220983, 0, 0
4, 180.00000, 0.518742, 0.220983, 0.518742, 0.220983, 0.518742, 0.220983, 0, 0
4, 240.00000, 0.518742, 0.220983, 0.518742, 0.220983, 0.518742, 0.220983, 0, 0
4, 300.00000, 0.518742, 0.220983, 0.518742, 0.220983, 0.518742, 0.220983, 0, 0
4, 360.00000, 0.518742, 0.220983, 0.518742, 0.220983, 0.518742, 0.220983, 0, 0
4, 420.00000, 0.518742, 0.220983, 0.518742, 0.220983, 0.518742, 0.220983, 0, 0
4, 480.00000, 0.518742, 0.220983, 0.518742, 0.220983, 0.518742, 0.220983, 0, 0
4, 540.00000, 0.518742, 0.220983, 0.518742, 0.220983, 0.518742, 0.220983, 0, 0
4, 600.00000, 0.518742, 0.220983, 0.518742, 0.220983, 0.518742, 0.220983, 0, 0
4, 660.00000, 0.518742, 0.220983, 0.518742, 0.220983, 0.518742, 0.220983, 0, 0
4, 720.00000, 0.518742, 0.220983, 0.518742, 0.220983, 0.518742, 0.220983, 0, 0
