hour,t(sec),V1,VAngle1,V2,VAngle2,V3,VAngle3,V4,VAngle4,I1,IAngle1,I2,IAngle2,I3,IAngle3,I4,IAngle4
0, 60.00000, 122.222, -31.5647, 123.135, -151.503, 123.075, 88.1364, 0, 0, 4.9677, -54.6384, 4.93085, -174.577, 4.93328, 65.0629, 0.0637064, 136.46
0, 120.00000, 122.222, -31.5647, 123.135, -151.503, 123.075, 88.1364, 0, 0, 4.96776, -54.6386, 4.93092, -174.577, 4.93334, 65.0625, 0.0637333, 136.454
0, 180.00000, 122.222, -31.5647, 123.135, -151.503, 123.075, 88.1364, 0, 0, 4.96776, -54.6386, 4.93092, -174.577, 4.93334, 65.0625, 0.0637334, 136.454
0, 240.00000, 122.222, -31.5647, 123.135, -151.503, 123.075, 88.1364, 0, 0, 4.96776, -54.6386, 4.93092, -174.577, 4.93334, 65.0625, 0.0637334, 136.454
0, 300.00000, 122.222, -31.5647, 123.135, -151.503, 123.075, 88.1364, 0, 0, 4.96776, -54.6386, 4.93092, -174.577, 4.93334, 65.0625, 0.0637334, 136.454
0, 360.00000, 122.222, -31.5647, 123.135, -151.503, 123.075, 88.1364, 0, 0, 4.96776, -54.6386, 4.93092, -174.577, 4.93334, 65.0625, 0.0637334, 136.454
0, 420.00000, 122.222, -31.5647, 123.135, -151.503, 123.075, 88.1364, 0, 0, 4.96776, -54.6386, 4.93092, -174.577, 4.93334, 65.0625, 0.0637334, 136.454
0, 480.00000, 122.744, -31.4374, 123.636, -151.381, 123.563, 88.2733, 0, 0, 5.52027, -54.5116, 5.48045, -174.455, 5.48368, 65.1989, 0.0683376, 137.217
0, 540.00000, 122.744, -31.4374, 123.636, -151.381, 123.563, 88.2733, 0, 0, 5.52018, -54.5113, 5.48038, -174.455, 5.48362, 65.1994, 0.0682936, 137.233
0, 600.00000, 122.744, -31.4374, 123.636, -151.381, 123.563, 88.2733, 0, 0, 5.52018, -54.5113, 5.48038, -174.455, 5.48362, 65.1994, 0.0682934, 137.233
0, 660.00000, 122.744, -31.4374, 123.636, -151.381, 123.563, 88.2733, 0, 0, 5.52018, -54.5113, 5.48038, -174.455, 5.48362, 65.1994, 0.0682934, 137.233
0, 720.00000, 122.744, -31.4374, 123.636, -151.381, 123.563, 88.2733, 0, 0, 5.52018, -54.5113, 5.48038, -174.455, 5.48362, 65.1994, 0.0682934, 137.233
0, 780.00000, 122.744, -31.4374, 123.636, -151.381, 123.563, 88.2733, 0, 0, 5.52018, -54.5113, 5.48038, -174.455, 5.48362, 65.1994, 0.0682934, 137.233
0, 840.00000, 122.744, -31.4374, 123.636, -151.381, 123.563, 88.2733, 0, 0, 5.52018, -54.5113, 5.48038, -174.455, 5.48362, 65.1994, 0.0682934, 137.233
0, 900.00000, 122.744, -31.4374, 123.636, -151.381, 123.563, 88.2733, 0, 0, 5.52018, -54.5113, 5.48038, -174.455, 5.48362, 65.1994, 0.0682934, 137.233
0, 960.00000, 122.62, -31.5711, 123.313, -151.401, 123.573, 88.2703, 0, 0, 5.52577, -54.645, 5.4947, -174.475, 5.48317, 65.1964, 0.0649708, 116.025
0, 1020.00000, 122.62, -31.5711, 123.313, -151.401, 123.573, 88.2703, 0, 0, 5.52579, -54.645, 5.49474, -174.475, 5.48315, 65.1964, 0.0649721, 115.988
0, 1080.00000, 122.62, -31.5711, 123.313, -151.401, 123.573, 88.2703, 0, 0, 5.52579, -54.645, 5.49474, -174.475, 5.48315, 65.1964, 0.0649721, 115.987
0, 1140.00000, 122.62, -31.5711, 123.313, -151.401, 123.573, 88.2703, 0, 0, 5.52579, -54.645, 5.49474, -174.475, 5.48315, 65.1964, 0.0649721, 115.987
0, 1200.00000, 122.62, -31.5711, 123.313, -151.401, 123.573, 88.2703, 0, 0, 5.52579, -54.645, 5.49474, -174.475, 5.48315, 65.1964, 0.0649721, 115.987
0, 1260.00000, 122.62, -31.5711, 123.313, -151.401, 123.573, 88.2703, 0, 0, 5.52579, -54.645, 5.49474, -174.475, 5.48315, 65.1964, 0.0649721, 115.987
0, 1320.00000, 122.62, -31.5711, 123.313, -151.401, 123.573, 88.2703, 0, 0, 5.52579, -54.645, 5.49474, -174.475, 5.48315, 65.1964, 0.0649721, 115.987
0, 1380.00000, 122.62, -31.5711, 123.313, -151.401, 123.573, 88.2703, 0, 0, 5.52579, -54.645, 5.49474, -174.475, 5.48315, 65.1964, 0.0649721, 115.987
0, 1440.00000, 122.62, -31.5711, 123.313, -151.401, 123.573, 88.2703, 0, 0, 5.52579, -54.645, 5.49474, -174.475, 5.48315, 65.1964, 0.0649721, 115.987
0, 1500.00000, 122.62, -31.5711, 123.313, -151.401, 123.573, 88.2703, 0, 0, 5.52579, -54.645, 5.49474, -174.475, 5.48315, 65.1964, 0.0649721, 115.987
0, 1560.00000, 122.62, -31.5711, 123.313, -151.401, 123.573, 88.2703, 0, 0, 5.52579, -54.645, 5.49474, -174.475, 5.48315, 65.1964, 0.0649721, 115.987
0, 1620.00000, 122.62, -31.5711, 123.313, -151.401, 123.573, 88.2703, 0, 0, 5.52579, -54.645, 5.49474, -174.475, 5.48315, 65.1964, 0.0649721, 115.987
0, 1680.00000, 122.62, -31.5711, 123.313, -151.401, 123.573, 88.2703, 0, 0, 5.52579, -54.645, 5.49474, -174.475, 5.48315, 65.1964, 0.0649721, 115.987
0, 1740.00000, 122.62, -31.5711, 123.313, -151.401, 123.573, 88.2703, 0, 0, 5.52579, -54.645, 5.49474, -174.475, 5.48315, 65.1964, 0.0649721, 115.987
0, 1800.00000, 122.62, -31.5711, 123.313, -151.401, 123.573, 88.2703, 0, 0, 5.52579, -54.645, 5.49474, -174.475, 5.48315, 65.1964, 0.0649721, 115.987
0, 1860.00000, 122.62, -31.5711, 123.313, -151.401, 123.573, 88.2703, 0, 0, 5.52579, -54.645, 5.49474, -174.475, 5.48315, 65.1964, 0.0649721, 115.987
0, 1920.00000, 122.62, -31.5711, 123.313, -151.401, 123.573, 88.2703, 0, 0, 5.52579, -54.645, 5.49474, -174.475, 5.48315, 65.1964, 0.0649721, 115.987
0, 1980.00000, 122.62, -31.5711, 123.313, -151.401, 123.573, 88.2703, 0, 0, 5.52579, -54.645, 5.49474, -174.475, 5.48315, 65.1964, 0.0649721, 115.987
0, 2040.00000, 122.62, -31.5711, 123.313, -151.401, 123.573, 88.2703, 0, 0, 5.52579, -54.645, 5.49474, -174.475, 5.48315, 65.1964, 0.0649721, 115.987
0, 2100.00000, 122.62, -31.5711, 123.313, -151.401, 123.573, 88.2703, 0, 0, 5.52579, -54.645, 5.49474, -174.475, 5.48315, 65.1964, 0.0649721, 115.987
0, 2160.00000, 122.62, -31.5711, 123.313, -151.401, 123.573, 88.2703, 0, 0, 5.52579, -54.645, 5.49474, -174.475, 5.48315, 65.1964, 0.0649721, 115.987
0, 2220.00000, 122.62, -31.5711, 123.313, -151.401, 123.573, 88.2703, 0, 0, 5.52579, -54.645, 5.49474, -174.475, 5.48315, 65.1964, 0.0649721, 115.987
0, 2280.00000, 122.62, -31.5711, 123.313, -151.401, 123.573, 88.2703, 0, 0, 5.52579, -54.645, 5.49474, -174.475, 5.48315, 65.1964, 0.0649721, 115.987
0, 2340.00000, 122.62, -31.5711, 123.313, -151.401, 123.573, 88.2703, 0, 0, 5.52579, -54.645, 5.49474, -174.475, 5.48315, 65.1964, 0.0649721, 115.987
0, 2400.00000, 122.62, -31.5711, 123.313, -151.401, 123.573, 88.2703, 0, 0, 5.52579, -54.645, 5.49474, -174.475, 5.48315, 65.1964, 0.0649721, 115.987
0, 2460.00000, 122.62, -31.5711, 123.313, -151.401, 123.573, 88.2703, 0, 0, 5.52579, -54.645, 5.49474, -174.475, 5.48315, 65.1964, 0.0649721, 115.987
0, 2520.00000, 122.62, -31.5711, 123.313, -151.401, 123.573, 88.2703, 0, 0, 5.52579, -54.645, 5.49474, -174.475, 5.48315, 65.1964, 0.0649721, 115.987
0, 2580.00000, 122.62, -31.5711, 123.313, -151.401, 123.573, 88.2703, 0, 0, 5.52579, -54.645, 5.49474, -174.475, 5.48315, 65.1964, 0.0649721, 115.987
0, 2640.00000, 122.62, -31.5711, 123.313, -151.401, 123.573, 88.2703, 0, 0, 5.52579, -54.645, 5.49474, -174.475, 5.48315, 65.1964, 0.0649721, 115.987
0, 2700.00000, 122.62, -31.5711, 123.313, -151.401, 123.573, 88.2703, 0, 0, 5.52579, -54.645, 5.49474, -174.475, 5.48315, 65.1964, 0.0649721, 115.987
0, 2760.00000, 123.003, -31.3617, 123.915, -151.438, 123.526, 88.2766, 0, 0, 5.50863, -54.4355, 5.4681, -174.512, 5.48522, 65.2027, 0.066165, 158.22
0, 2820.00000, 123.003, -31.3617, 123.915, -151.438, 123.526, 88.2766, 0, 0, 5.50858, -54.4356, 5.46802, -174.512, 5.48526, 65.2027, 0.0662099, 158.278
0, 2880.00000, 123.003, -31.3617, 123.915, -151.438, 123.526, 88.2766, 0, 0, 5.50858, -54.4356, 5.46802, -174.512, 5.48526, 65.2027, 0.0662101, 158.278
0, 2940.00000, 123.003, -31.3617, 123.915, -151.438, 123.526, 88.2766, 0, 0, 5.50858, -54.4356, 5.46802, -174.512, 5.48526, 65.2027, 0.0662101, 158.278
0, 3000.00000, 123.003, -31.3617, 123.915, -151.438, 123.526, 88.2766, 0, 0, 5.50858, -54.4356, 5.46802, -174.512, 5.48526, 65.2027, 0.0662101, 158.278
0, 3060.00000, 123.003, -31.3617, 123.915, -151.438, 123.526, 88.2766, 0, 0, 5.50858, -54.4356, 5.46802, -174.512, 5.48526, 65.2027, 0.0662101, 158.278
0, 3120.00000, 123.003, -31.3617, 123.915, -151.438, 123.526, 88.2766, 0, 0, 5.50858, -54.4356, 5.46802, -174.512, 5.48526, 65.2027, 0.0662101, 158.278
0, 3180.00000, 123.003, -31.3617, 123.915, -151.438, 123.526, 88.2766, 0, 0, 5.50858, -54.4356, 5.46802, -174.512, 5.48526, 65.2027, 0.0662101, 158.278
0, 3240.00000, 123.003, -31.3617, 123.915, -151.438, 123.526, 88.2766, 0, 0, 5.50858, -54.4356, 5.46802, -174.512, 5.48526, 65.2027, 0.0662101, 158.278
0, 3300.00000, 123.003, -31.3617, 123.915, -151.438, 123.526, 88.2766, 0, 0, 5.50858, -54.4356, 5.46802, -174.512, 5.48526, 65.2027, 0.0662101, 158.278
0, 3360.00000, 123.003, -31.3617, 123.915, -151.438, 123.526, 88.2766, 0, 0, 5.50858, -54.4356, 5.46802, -174.512, 5.48526, 65.2027, 0.0662101, 158.278
0, 3420.00000, 123.003, -31.3617, 123.915, -151.438, 123.526, 88.2766, 0, 0, 5.50858, -54.4356, 5.46802, -174.512, 5.48526, 65.2027, 0.0662101, 158.278
0, 3480.00000, 123.003, -31.3617, 123.915, -151.438, 123.526, 88.2766, 0, 0, 5.50858, -54.4356, 5.46802, -174.512, 5.48526, 65.2027, 0.0662101, 158.278
0, 3540.00000, 123.003, -31.3617, 123.915, -151.438, 123.526, 88.2766, 0, 0, 5.50858, -54.4356, 5.46802, -174.512, 5.48526, 65.2027, 0.0662101, 158.278
1, 0.00000, 123.003, -31.3617, 123.915, -151.438, 123.526, 88.2766, 0, 0, 5.50858, -54.4356, 5.46802, -174.512, 5.48526, 65.2027, 0.0662101, 158.278
1, 60.00000, 123.488, -31.3605, 123.911, -151.437, 123.772, 88.4606, 0, 0, 5.48701, -54.4348, 5.46819, -174.511, 5.47439, 65.3866, 0.0298999, 161.397
1, 120.00000, 123.489, -31.3605, 123.911, -151.437, 123.772, 88.4606, 0, 0, 5.48691, -54.4344, 5.46821, -174.511, 5.47435, 65.3867, 0.0298189, 161.478
1, 180.00000, 123.489, -31.3605, 123.911, -151.437, 123.772, 88.4606, 0, 0, 5.48691, -54.4344, 5.46821, -174.511, 5.47435, 65.3867, 0.0298185, 161.479
1, 240.00000, 123.489, -31.3605, 123.911, -151.437, 123.772, 88.4606, 0, 0, 5.48691, -54.4344, 5.46821, -174.511, 5.47435, 65.3867, 0.0298185, 161.479
1, 300.00000, 123.489, -31.3605, 123.911, -151.437, 123.772, 88.4606, 0, 0, 5.48691, -54.4344, 5.46821, -174.511, 5.47435, 65.3867, 0.0298185, 161.479
1, 360.00000, 123.489, -31.3605, 123.911, -151.437, 123.772, 88.4606, 0, 0, 5.48691, -54.4344, 5.46821, -174.511, 5.47435, 65.3867, 0.0298185, 161.479
1, 420.00000, 123.489, -31.3605, 123.911, -151.437, 123.772, 88.4606, 0, 0, 5.48691, -54.4344, 5.46821, -174.511, 5.47435, 65.3867, 0.0298185, 161.479
1, 480.00000, 123.489, -31.3605, 123.911, -151.437, 123.772, 88.4606, 0, 0, 5.48691, -54.4344, 5.46821, -174.511, 5.47435, 65.3867, 0.0298185, 161.479
1, 540.00000, 123.489, -31.3605, 123.911, -151.437, 123.772, 88.4606, 0, 0, 5.48691, -54.4344, 5.46821, -174.511, 5.47435, 65.3867, 0.0298185, 161.479
1, 600.00000, 123.489, -31.3605, 123.911, -151.437, 123.772, 88.4606, 0, 0, 5.48691, -54.4344, 5.46821, -174.511, 5.47435, 65.3867, 0.0298185, 161.479
1, 660.00000, 123.489, -31.3605, 123.911, -151.437, 123.772, 88.4606, 0, 0, 5.48691, -54.4344, 5.46821, -174.511, 5.47435, 65.3867, 0.0298185, 161.479
1, 720.00000, 123.489, -31.3605, 123.911, -151.437, 123.772, 88.4606, 0, 0, 5.48691, -54.4344, 5.46821, -174.511, 5.47435, 65.3867, 0.0298185, 161.479
1, 780.00000, 123.489, -31.3605, 123.911, -151.437, 123.772, 88.4606, 0, 0, 5.48691, -54.4344, 5.46821, -174.511, 5.47435, 65.3867, 0.0298185, 161.479
1, 840.00000, 123.489, -31.3605, 123.911, -151.437, 123.772, 88.4606, 0, 0, 5.48691, -54.4344, 5.46821, -174.511, 5.47435, 65.3867, 0.0298185, 161.479
1, 900.00000, 123.489, -31.3605, 123.911, -151.437, 123.772, 88.4606, 0, 0, 5.48691, -54.4344, 5.46821, -174.511, 5.47435, 65.3867, 0.0298185, 161.479
1, 960.00000, 123.489, -31.3605, 123.911, -151.437, 123.772, 88.4606, 0, 0, 5.48691, -54.4344, 5.46821, -174.511, 5.47435, 65.3867, 0.0298185, 161.479
1, 1020.00000, 123.489, -31.3605, 123.911, -151.437, 123.772, 88.4606, 0, 0, 5.48691, -54.4344, 5.46821, -174.511, 5.47435, 65.3867, 0.0298185, 161.479
1, 1080.00000, 123.489, -31.3605, 123.911, -151.437, 123.772, 88.4606, 0, 0, 5.48691, -54.4344, 5.46821, -174.511, 5.47435, 65.3867, 0.0298185, 161.479
1, 1140.00000, 123.489, -31.3605, 123.911, -151.437, 123.772, 88.4606, 0, 0, 5.48691, -54.4344, 5.46821, -174.511, 5.47435, 65.3867, 0.0298185, 161.479
1, 1200.00000, 123.489, -31.3605, 123.911, -151.437, 123.772, 88.4606, 0, 0, 5.48691, -54.4344, 5.46821, -174.511, 5.47435, 65.3867, 0.0298185, 161.479
1, 1260.00000, 123.489, -31.3605, 123.911, -151.437, 123.772, 88.4606, 0, 0, 5.48691, -54.4344, 5.46821, -174.511, 5.47435, 65.3867, 0.0298185, 161.479
1, 1320.00000, 123.489, -31.3605, 123.911, -151.437, 123.772, 88.4606, 0, 0, 5.48691, -54.4344, 5.46821, -174.511, 5.47435, 65.3867, 0.0298185, 161.479
1, 1380.00000, 123.489, -31.3605, 123.911, -151.437, 123.772, 88.4606, 0, 0, 5.48691, -54.4344, 5.46821, -174.511, 5.47435, 65.3867, 0.0298185, 161.479
1, 1440.00000, 123.489, -31.3605, 123.911, -151.437, 123.772, 88.4606, 0, 0, 5.48691, -54.4344, 5.46821, -174.511, 5.47435, 65.3867, 0.0298185, 161.479
1, 1500.00000, 123.489, -31.3605, 123.911, -151.437, 123.772, 88.4606, 0, 0, 5.48691, -54.4344, 5.46821, -174.511, 5.47435, 65.3867, 0.0298185, 161.479
1, 1560.00000, 123.489, -31.3605, 123.911, -151.437, 123.772, 88.4606, 0, 0, 5.48691, -54.4344, 5.46821, -174.511, 5.47435, 65.3867, 0.0298185, 161.479
1, 1620.00000, 123.489, -31.3605, 123.911, -151.437, 123.772, 88.4606, 0, 0, 5.48691, -54.4344, 5.46821, -174.511, 5.47435, 65.3867, 0.0298185, 161.479
1, 1680.00000, 123.489, -31.3605, 123.911, -151.437, 123.772, 88.4606, 0, 0, 5.48691, -54.4344, 5.46821, -174.511, 5.47435, 65.3867, 0.0298185, 161.479
1, 1740.00000, 123.489, -31.3605, 123.911, -151.437, 123.772, 88.4606, 0, 0, 5.48691, -54.4344, 5.46821, -174.511, 5.47435, 65.3867, 0.0298185, 161.479
1, 1800.00000, 123.489, -31.3605, 123.911, -151.437, 123.772, 88.4606, 0, 0, 5.48691, -54.4344, 5.46821, -174.511, 5.47435, 65.3867, 0.0298185, 161.479
1, 1860.00000, 123.489, -31.3605, 123.911, -151.437, 123.772, 88.4606, 0, 0, 5.48691, -54.4344, 5.46821, -174.511, 5.47435, 65.3867, 0.0298185, 161.479
1, 1920.00000, 123.489, -31.3605, 123.911, -151.437, 123.772, 88.4606, 0, 0, 5.48691, -54.4344, 5.46821, -174.511, 5.47435, 65.3867, 0.0298185, 161.479
1, 1980.00000, 123.489, -31.3605, 123.911, -151.437, 123.772, 88.4606, 0, 0, 5.48691, -54.4344, 5.46821, -174.511, 5.47435, 65.3867, 0.0298185, 161.479
1, 2040.00000, 123.489, -31.3605, 123.911, -151.437, 123.772, 88.4606, 0, 0, 5.48691, -54.4344, 5.46821, -174.511, 5.47435, 65.3867, 0.0298185, 161.479
1, 2100.00000, 123.489, -31.3605, 123.911, -151.437, 123.772, 88.4606, 0, 0, 5.48691, -54.4344, 5.46821, -174.511, 5.47435, 65.3867, 0.0298185, 161.479
1, 2160.00000, 123.489, -31.3605, 123.911, -151.437, 123.772, 88.4606, 0, 0, 5.48691, -54.4344, 5.46821, -174.511, 5.47435, 65.3867, 0.0298185, 161.479
1, 2220.00000, 123.489, -31.3605, 123.911, -151.437, 123.772, 88.4606, 0, 0, 5.48691, -54.4344, 5.46821, -174.511, 5.47435, 65.3867, 0.0298185, 161.479
1, 2280.00000, 123.489, -31.3605, 123.911, -151.437, 123.772, 88.4606, 0, 0, 5.48691, -54.4344, 5.46821, -174.511, 5.47435, 65.3867, 0.0298185, 161.479
1, 2340.00000, 123.489, -31.3605, 123.911, -151.437, 123.772, 88.4606, 0, 0, 5.48691, -54.4344, 5.46821, -174.511, 5.47435, 65.3867, 0.0298185, 161.479
1, 2400.00000, 123.489, -31.3605, 123.911, -151.437, 123.772, 88.4606, 0, 0, 5.48691, -54.4344, 5.46821, -174.511, 5.47435, 65.3867, 0.0298185, 161.479
1, 2460.00000, 123.489, -31.3605, 123.911, -151.437, 123.772, 88.4606, 0, 0, 5.48691, -54.4344, 5.46821, -174.511, 5.47435, 65.3867, 0.0298185, 161.479
1, 2520.00000, 123.489, -31.3605, 123.911, -151.437, 123.772, 88.4606, 0, 0, 5.48691, -54.4344, 5.46821, -174.511, 5.47435, 65.3867, 0.0298185, 161.479
1, 2580.00000, 123.489, -31.3605, 123.911, -151.437, 123.772, 88.4606, 0, 0, 5.48691, -54.4344, 5.46821, -174.511, 5.47435, 65.3867, 0.0298185, 161.479
1, 2640.00000, 123.489, -31.3605, 123.911, -151.437, 123.772, 88.4606, 0, 0, 5.48691, -54.4344, 5.46821, -174.511, 5.47435, 65.3867, 0.0298185, 161.479
1, 2700.00000, 123.489, -31.3605, 123.911, -151.437, 123.772, 88.4606, 0, 0, 5.48691, -54.4344, 5.46821, -174.511, 5.47435, 65.3867, 0.0298185, 161.479
1, 2760.00000, 123.489, -31.3605, 123.911, -151.437, 123.772, 88.4606, 0, 0, 5.48691, -54.4344, 5.46821, -174.511, 5.47435, 65.3867, 0.0298185, 161.479
1, 2820.00000, 123.489, -31.3605, 123.911, -151.437, 123.772, 88.4606, 0, 0, 5.48691, -54.4344, 5.46821, -174.511, 5.47435, 65.3867, 0.0298185, 161.479
1, 2880.00000, 123.489, -31.3605, 123.911, -151.437, 123.772, 88.4606, 0, 0, 5.48691, -54.4344, 5.46821, -174.511, 5.47435, 65.3867, 0.0298185, 161.479
1, 2940.00000, 123.489, -31.3605, 123.911, -151.437, 123.772, 88.4606, 0, 0, 5.48691, -54.4344, 5.46821, -174.511, 5.47435, 65.3867, 0.0298185, 161.479
1, 3000.00000, 123.489, -31.3605, 123.911, -151.437, 123.772, 88.4606, 0, 0, 5.48691, -54.4344, 5.46821, -174.511, 5.47435, 65.3867, 0.0298185, 161.479
1, 3060.00000, 123.489, -31.3605, 123.911, -151.437, 123.772, 88.4606, 0, 0, 5.48691, -54.4344, 5.46821, -174.511, 5.47435, 65.3867, 0.0298185, 161.479
1, 3120.00000, 123.489, -31.3605, 123.911, -151.437, 123.772, 88.4606, 0, 0, 5.48691, -54.4344, 5.46821, -174.511, 5.47435, 65.3867, 0.0298185, 161.479
1, 3180.00000, 123.489, -31.3605, 123.911, -151.437, 123.772, 88.4606, 0, 0, 5.48691, -54.4344, 5.46821, -174.511, 5.47435, 65.3867, 0.0298185, 161.479
1, 3240.00000, 123.489, -31.3605, 123.911, -151.437, 123.772, 88.4606, 0, 0, 5.48691, -54.4344, 5.46821, -174.511, 5.47435, 65.3867, 0.0298185, 161.479
1, 3300.00000, 123.489, -31.3605, 123.911, -151.437, 123.772, 88.4606, 0, 0, 5.48691, -54.4344, 5.46821, -174.511, 5.47435, 65.3867, 0.0298185, 161.479
1, 3360.00000, 123.489, -31.3605, 123.911, -151.437, 123.772, 88.4606, 0, 0, 5.48691, -54.4344, 5.46821, -174.511, 5.47435, 65.3867, 0.0298185, 161.479
1, 3420.00000, 123.489, -31.3605, 123.911, -151.437, 123.772, 88.4606, 0, 0, 5.48691, -54.4344, 5.46821, -174.511, 5.47435, 65.3867, 0.0298185, 161.479
1, 3480.00000, 123.489, -31.3605, 123.911, -151.437, 123.772, 88.4606, 0, 0, 5.48691, -54.4344, 5.46821, -174.511, 5.47435, 65.3867, 0.0298185, 161.479
1, 3540.00000, 123.489, -31.3605, 123.911, -151.437, 123.772, 88.4606, 0, 0, 5.48691, -54.4344, 5.46821, -174.511, 5.47435, 65.3867, 0.0298185, 161.479
2, 0.00000, 123.489, -31.3605, 123.911, -151.437, 123.772, 88.4606, 0, 0, 5.48691, -54.4344, 5.46821, -174.511, 5.47435, 65.3867, 0.0298185, 161.479
2, 60.00000, 123.489, -31.3605, 123.911, -151.437, 123.772, 88.4606, 0, 0, 5.48691, -54.4344, 5.46821, -174.511, 5.47435, 65.3867, 0.0298185, 161.479
2, 120.00000, 123.489, -31.3605, 123.911, -151.437, 123.772, 88.4606, 0, 0, 5.48691, -54.4344, 5.46821, -174.511, 5.47435, 65.3867, 0.0298185, 161.479
2, 180.00000, 123.489, -31.3605, 123.911, -151.437, 123.772, 88.4606, 0, 0, 5.48691, -54.4344, 5.46821, -174.511, 5.47435, 65.3867, 0.0298185, 161.479
2, 240.00000, 123.489, -31.3605, 123.911, -151.437, 123.772, 88.4606, 0, 0, 5.48691, -54.4344, 5.46821, -174.511, 5.47435, 65.3867, 0.0298185, 161.479
2, 300.00000, 123.489, -31.3605, 123.911, -151.437, 123.772, 88.4606, 0, 0, 5.48691, -54.4344, 5.46821, -174.511, 5.47435, 65.3867, 0.0298185, 161.479
2, 360.00000, 123.489, -31.3605, 123.911, -151.437, 123.772, 88.4606, 0, 0, 5.48691, -54.4344, 5.46821, -174.511, 5.47435, 65.3867, 0.0298185, 161.479
2, 420.00000, 123.489, -31.3605, 123.911, -151.437, 123.772, 88.4606, 0, 0, 5.48691, -54.4344, 5.46821, -174.511, 5.47435, 65.3867, 0.0298185, 161.479
2, 480.00000, 123.489, -31.3605, 123.911, -151.437, 123.772, 88.4606, 0, 0, 5.48691, -54.4344, 5.46821, -174.511, 5.47435, 65.3867, 0.0298185, 161.479
2, 540.00000, 123.489, -31.3605, 123.911, -151.437, 123.772, 88.4606, 0, 0, 5.48691, -54.4344, 5.46821, -174.511, 5.47435, 65.3867, 0.0298185, 161.479
2, 600.00000, 123.489, -31.3605, 123.911, -151.437, 123.772, 88.4606, 0, 0, 5.48691, -54.4344, 5.46821, -174.511, 5.47435, 65.3867, 0.0298185, 161.479
2, 660.00000, 123.489, -31.3605, 123.911, -151.437, 123.772, 88.4606, 0, 0, 5.48691, -54.4344, 5.46821, -174.511, 5.47435, 65.3867, 0.0298185, 161.479
