hour,t(sec),"P1 (kW)","Q1 (kvar)","P2 (kW)","Q2 (kvar)","P3 (kW)","Q3 (kvar)","P4 (kW)","Q4 (kvar)"
0, 60.00000, 0.418431, 0.17825, 0.434864, 0.185251, 0.431499, 0.183814, 0, 0
0, 120.00000, 0.418427, 0.178249, 0.43486, 0.18525, 0.431491, 0.183814, 0, 0
0, 180.00000, 0.418427, 0.178249, 0.43486, 0.18525, 0.431491, 0.183814, 0, 0
0, 240.00000, 0.418427, 0.178249, 0.43486, 0.18525, 0.431491, 0.183814, 0, 0
0, 300.00000, 0.418427, 0.178249, 0.43486, 0.18525, 0.431491, 0.183814, 0, 0
0, 360.00000, 0.418427, 0.178249, 0.43486, 0.18525, 0.431491, 0.183814, 0, 0
0, 420.00000, 0.418427, 0.178249, 0.43486, 0.18525, 0.431491, 0.183814, 0, 0
0, 480.00000, 0.445316, 0.189704, 0.462638, 0.197084, 0.45888, 0.195488, 0, 0
0, 540.00000, 0.44532, 0.189706, 0.462645, 0.197086, 0.458889, 0.195486, 0, 0
0, 600.00000, 0.44532, 0.189706, 0.462645, 0.197086, 0.45889, 0.195486, 0, 0
0, 660.00000, 0.44532, 0.189706, 0.462645, 0.197086, 0.45889, 0.195486, 0, 0
0, 720.00000, 0.44532, 0.189706, 0.462645, 0.197086, 0.45889, 0.195486, 0, 0
0, 780.00000, 0.44532, 0.189706, 0.462645, 0.197086, 0.45889, 0.195486, 0, 0
0, 840.00000, 0.44532, 0.189706, 0.462645, 0.197086, 0.45889, 0.195486, 0, 0
0, 900.00000, 0.44532, 0.189706, 0.462645, 0.197086, 0.45889, 0.195486, 0, 0
0, 960.00000, 0.440273, 0.187555, 0.462647, 0.197087, 0.455234, 0.193927, 0, 0
0, 1020.00000, 0.44027, 0.187554, 0.462648, 0.197087, 0.45523, 0.193927, 0, 0
0, 1080.00000, 0.44027, 0.187554, 0.462648, 0.197087, 0.45523, 0.193927, 0, 0
0, 1140.00000, 0.44027, 0.187554, 0.462648, 0.197087, 0.45523, 0.193927, 0, 0
0, 1200.00000, 0.44027, 0.187554, 0.462648, 0.197087, 0.45523, 0.193927, 0, 0
0, 1260.00000, 0.44027, 0.187554, 0.462648, 0.197087, 0.45523, 0.193927, 0, 0
0, 1320.00000, 0.44027, 0.187554, 0.462648, 0.197087, 0.45523, 0.193927, 0, 0
0, 1380.00000, 0.44027, 0.187554, 0.462648, 0.197087, 0.45523, 0.193927, 0, 0
0, 1440.00000, 0.44027, 0.187554, 0.462648, 0.197087, 0.45523, 0.193927, 0, 0
0, 1500.00000, 0.44027, 0.187554, 0.462648, 0.197087, 0.45523, 0.193927, 0, 0
0, 1560.00000, 0.44027, 0.187554, 0.462648, 0.197087, 0.45523, 0.193927, 0, 0
0, 1620.00000, 0.44027, 0.187554, 0.462648, 0.197087, 0.45523, 0.193927, 0, 0
0, 1680.00000, 0.44027, 0.187554, 0.462648, 0.197087, 0.45523, 0.193927, 0, 0
0, 1740.00000, 0.44027, 0.187554, 0.462648, 0.197087, 0.45523, 0.193927, 0, 0
0, 1800.00000, 0.436612, 0.185995, 0.462685, 0.197103, 0.452987, 0.192969, 0, 0
0, 1860.00000, 0.436609, 0.185995, 0.462686, 0.197103, 0.452984, 0.19297, 0, 0
0, 1920.00000, 0.436609, 0.185995, 0.462686, 0.197103, 0.452984, 0.19297, 0, 0
0, 1980.00000, 0.436609, 0.185995, 0.462686, 0.197103, 0.452984, 0.19297, 0, 0
0, 2040.00000, 0.436609, 0.185995, 0.462686, 0.197103, 0.452984, 0.19297, 0, 0
0, 2100.00000, 0.436609, 0.185995, 0.462686, 0.197103, 0.452984, 0.19297, 0, 0
0, 2160.00000, 0.436609, 0.185995, 0.462686, 0.197103, 0.452984, 0.19297, 0, 0
0, 2220.00000, 0.436609, 0.185995, 0.462686, 0.197103, 0.452984, 0.19297, 0, 0
0, 2280.00000, 0.436609, 0.185995, 0.462686, 0.197103, 0.452984, 0.19297, 0, 0
0, 2340.00000, 0.436609, 0.185995, 0.462686, 0.197103, 0.452984, 0.19297, 0, 0
0, 2400.00000, 0.436609, 0.185995, 0.462686, 0.197103, 0.452984, 0.19297, 0, 0
0, 2460.00000, 0.436609, 0.185995, 0.462686, 0.197103, 0.452984, 0.19297, 0, 0
0, 2520.00000, 0.436609, 0.185995, 0.462686, 0.197103, 0.452984, 0.19297, 0, 0
0, 2580.00000, 0.436609, 0.185995, 0.462686, 0.197103, 0.452984, 0.19297, 0, 0
0, 2640.00000, 0.436609, 0.185995, 0.462686, 0.197103, 0.452984, 0.19297, 0, 0
0, 2700.00000, 0.436609, 0.185995, 0.462686, 0.197103, 0.452984, 0.19297, 0, 0
0, 2760.00000, 0.441758, 0.188191, 0.462662, 0.197092, 0.456289, 0.194381, 0, 0
0, 2820.00000, 0.441764, 0.188191, 0.46266, 0.197092, 0.456297, 0.194382, 0, 0
0, 2880.00000, 0.441764, 0.188191, 0.46266, 0.197092, 0.456298, 0.194382, 0, 0
0, 2940.00000, 0.441764, 0.188191, 0.46266, 0.197092, 0.456298, 0.194382, 0, 0
0, 3000.00000, 0.441764, 0.188191, 0.46266, 0.197092, 0.456298, 0.194382, 0, 0
0, 3060.00000, 0.441764, 0.188191, 0.46266, 0.197092, 0.456298, 0.194382, 0, 0
0, 3120.00000, 0.441764, 0.188191, 0.46266, 0.197092, 0.456298, 0.194382, 0, 0
0, 3180.00000, 0.441764, 0.188191, 0.46266, 0.197092, 0.456298, 0.194382, 0, 0
0, 3240.00000, 0.441764, 0.188191, 0.46266, 0.197092, 0.456298, 0.194382, 0, 0
0, 3300.00000, 0.441764, 0.188191, 0.46266, 0.197092, 0.456298, 0.194382, 0, 0
0, 3360.00000, 0.441764, 0.188191, 0.46266, 0.197092, 0.456298, 0.194382, 0, 0
0, 3420.00000, 0.441764, 0.188191, 0.46266, 0.197092, 0.456298, 0.194382, 0, 0
0, 3480.00000, 0.441764, 0.188191, 0.46266, 0.197092, 0.456298, 0.194382, 0, 0
0, 3540.00000, 0.441764, 0.188191, 0.46266, 0.197092, 0.456298, 0.194382, 0, 0
1, 0.00000, 0.441764, 0.188191, 0.46266, 0.197092, 0.456298, 0.194382, 0, 0
1, 60.00000, 0.445079, 0.189605, 0.462644, 0.197085, 0.457965, 0.195094, 0, 0
1, 120.00000, 0.445084, 0.189605, 0.462643, 0.197085, 0.45797, 0.195094, 0, 0
1, 180.00000, 0.445084, 0.189605, 0.462643, 0.197085, 0.45797, 0.195094, 0, 0
1, 240.00000, 0.445084, 0.189605, 0.462643, 0.197085, 0.45797, 0.195094, 0, 0
1, 300.00000, 0.445084, 0.189605, 0.462643, 0.197085, 0.45797, 0.195094, 0, 0
1, 360.00000, 0.445084, 0.189605, 0.462643, 0.197085, 0.45797, 0.195094, 0, 0
1, 420.00000, 0.445084, 0.189605, 0.462643, 0.197085, 0.45797, 0.195094, 0, 0
1, 480.00000, 0.445084, 0.189605, 0.462643, 0.197085, 0.45797, 0.195094, 0, 0
1, 540.00000, 0.445084, 0.189605, 0.462643, 0.197085, 0.45797, 0.195094, 0, 0
1, 600.00000, 0.445084, 0.189605, 0.462643, 0.197085, 0.45797, 0.195094, 0, 0
1, 660.00000, 0.445084, 0.189605, 0.462643, 0.197085, 0.45797, 0.195094, 0, 0
1, 720.00000, 0.445084, 0.189605, 0.462643, 0.197085, 0.45797, 0.195094, 0, 0
1, 780.00000, 0.447754, 0.190744, 0.462641, 0.197085, 0.459089, 0.195572, 0, 0
1, 840.00000, 0.44776, 0.190745, 0.46264, 0.197084, 0.459091, 0.195572, 0, 0
1, 900.00000, 0.44776, 0.190745, 0.46264, 0.197084, 0.459091, 0.195572, 0, 0
1, 960.00000, 0.44776, 0.190745, 0.46264, 0.197084, 0.459091, 0.195572, 0, 0
1, 1020.00000, 0.44776, 0.190745, 0.46264, 0.197084, 0.459091, 0.195572, 0, 0
1, 1080.00000, 0.44776, 0.190745, 0.46264, 0.197084, 0.459091, 0.195572, 0, 0
1, 1140.00000, 0.44776, 0.190745, 0.46264, 0.197084, 0.459091, 0.195572, 0, 0
1, 1200.00000, 0.44776, 0.190745, 0.46264, 0.197084, 0.459091, 0.195572, 0, 0
1, 1260.00000, 0.44776, 0.190745, 0.46264, 0.197084, 0.459091, 0.195572, 0, 0
1, 1320.00000, 0.44776, 0.190745, 0.46264, 0.197084, 0.459091, 0.195572, 0, 0
1, 1380.00000, 0.44776, 0.190745, 0.46264, 0.197084, 0.459091, 0.195572, 0, 0
1, 1440.00000, 0.44776, 0.190745, 0.46264, 0.197084, 0.459091, 0.195572, 0, 0
1, 1500.00000, 0.44776, 0.190745, 0.46264, 0.197084, 0.459091, 0.195572, 0, 0
1, 1560.00000, 0.44776, 0.190745, 0.46264, 0.197084, 0.459091, 0.195572, 0, 0
1, 1620.00000, 0.44776, 0.190745, 0.46264, 0.197084, 0.459091, 0.195572, 0, 0
1, 1680.00000, 0.44776, 0.190745, 0.46264, 0.197084, 0.459091, 0.195572, 0, 0
1, 1740.00000, 0.44776, 0.190745, 0.46264, 0.197084, 0.459091, 0.195572, 0, 0
1, 1800.00000, 0.44776, 0.190745, 0.46264, 0.197084, 0.459091, 0.195572, 0, 0
1, 1860.00000, 0.44776, 0.190745, 0.46264, 0.197084, 0.459091, 0.195572, 0, 0
1, 1920.00000, 0.44776, 0.190745, 0.46264, 0.197084, 0.459091, 0.195572, 0, 0
1, 1980.00000, 0.44776, 0.190745, 0.46264, 0.197084, 0.459091, 0.195572, 0, 0
1, 2040.00000, 0.44776, 0.190745, 0.46264, 0.197084, 0.459091, 0.195572, 0, 0
1, 2100.00000, 0.44776, 0.190745, 0.46264, 0.197084, 0.459091, 0.195572, 0, 0
1, 2160.00000, 0.44776, 0.190745, 0.46264, 0.197084, 0.459091, 0.195572, 0, 0
1, 2220.00000, 0.451614, 0.192388, 0.462596, 0.197066, 0.461376, 0.196546, 0, 0
1, 2280.00000, 0.45162, 0.192389, 0.462595, 0.197065, 0.461378, 0.196546, 0, 0
1, 2340.00000, 0.45162, 0.192389, 0.462595, 0.197065, 0.461378, 0.196546, 0, 0
1, 2400.00000, 0.45162, 0.192389, 0.462595, 0.197065, 0.461378, 0.196546, 0, 0
1, 2460.00000, 0.45162, 0.192389, 0.462595, 0.197065, 0.461378, 0.196546, 0, 0
1, 2520.00000, 0.45162, 0.192389, 0.462595, 0.197065, 0.461378, 0.196546, 0, 0
1, 2580.00000, 0.45162, 0.192389, 0.462595, 0.197065, 0.461378, 0.196546, 0, 0
1, 2640.00000, 0.45162, 0.192389, 0.462595, 0.197065, 0.461378, 0.196546, 0, 0
1, 2700.00000, 0.45162, 0.192389, 0.462595, 0.197065, 0.461378, 0.196546, 0, 0
1, 2760.00000, 0.45162, 0.192389, 0.462595, 0.197065, 0.461378, 0.196546, 0, 0
1, 2820.00000, 0.45162, 0.192389, 0.462595, 0.197065, 0.461378, 0.196546, 0, 0
1, 2880.00000, 0.45162, 0.192389, 0.462595, 0.197065, 0.461378, 0.196546, 0, 0
1, 2940.00000, 0.45162, 0.192389, 0.462595, 0.197065, 0.461378, 0.196546, 0, 0
1, 3000.00000, 0.45162, 0.192389, 0.462595, 0.197065, 0.461378, 0.196546, 0, 0
1, 3060.00000, 0.45162, 0.192389, 0.462595, 0.197065, 0.461378, 0.196546, 0, 0
1, 3120.00000, 0.45162, 0.192389, 0.462595, 0.197065, 0.461378, 0.196546, 0, 0
1, 3180.00000, 0.45162, 0.192389, 0.462595, 0.197065, 0.461378, 0.196546, 0, 0
1, 3240.00000, 0.45162, 0.192389, 0.462595, 0.197065, 0.461378, 0.196546, 0, 0
1, 3300.00000, 0.45162, 0.192389, 0.462595, 0.197065, 0.461378, 0.196546, 0, 0
1, 3360.00000, 0.45162, 0.192389, 0.462595, 0.197065, 0.461378, 0.196546, 0, 0
1, 3420.00000, 0.45162, 0.192389, 0.462595, 0.197065, 0.461378, 0.196546, 0, 0
1, 3480.00000, 0.45162, 0.192389, 0.462595, 0.197065, 0.461378, 0.196546, 0, 0
1, 3540.00000, 0.45162, 0.192389, 0.462595, 0.197065, 0.461378, 0.196546, 0, 0
2, 0.00000, 0.45162, 0.192389, 0.462595, 0.197065, 0.461378, 0.196546, 0, 0
2, 60.00000, 0.45162, 0.192389, 0.462595, 0.197065, 0.461378, 0.196546, 0, 0
2, 120.00000, 0.45162, 0.192389, 0.462595, 0.197065, 0.461378, 0.196546, 0, 0
2, 180.00000, 0.45162, 0.192389, 0.462595, 0.197065, 0.461378, 0.196546, 0, 0
2, 240.00000, 0.45162, 0.192389, 0.462595, 0.197065, 0.461378, 0.196546, 0, 0
2, 300.00000, 0.45162, 0.192389, 0.462595, 0.197065, 0.461378, 0.196546, 0, 0
2, 360.00000, 0.45162, 0.192389, 0.462595, 0.197065, 0.461378, 0.196546, 0, 0
2, 420.00000, 0.45162, 0.192389, 0.462595, 0.197065, 0.461378, 0.196546, 0, 0
2, 480.00000, 0.45162, 0.192389, 0.462595, 0.197065, 0.461378, 0.196546, 0, 0
2, 540.00000, 0.45162, 0.192389, 0.462595, 0.197065, 0.461378, 0.196546, 0, 0
2, 600.00000, 0.45162, 0.192389, 0.462595, 0.197065, 0.461378, 0.196546, 0, 0
2, 660.00000, 0.45162, 0.192389, 0.462595, 0.197065, 0.461378, 0.196546, 0, 0
2, 720.00000, 0.45162, 0.192389, 0.462595, 0.197065, 0.461378, 0.196546, 0, 0
2, 780.00000, 0.45162, 0.192389, 0.462595, 0.197065, 0.461378, 0.196546, 0, 0
2, 840.00000, 0.456877, 0.194632, 0.462588, 0.197062, 0.465086, 0.198126, 0, 0
2, 900.00000, 0.456885, 0.194632, 0.462586, 0.197061, 0.465088, 0.198127, 0, 0
2, 960.00000, 0.456885, 0.194632, 0.462586, 0.197061, 0.465088, 0.198127, 0, 0
2, 1020.00000, 0.456885, 0.194632, 0.462586, 0.197061, 0.465088, 0.198127, 0, 0
2, 1080.00000, 0.456885, 0.194632, 0.462586, 0.197061, 0.465088, 0.198127, 0, 0
2, 1140.00000, 0.456885, 0.194632, 0.462586, 0.197061, 0.465088, 0.198127, 0, 0
2, 1200.00000, 0.456885, 0.194632, 0.462586, 0.197061, 0.465088, 0.198127, 0, 0
2, 1260.00000, 0.456885, 0.194632, 0.462586, 0.197061, 0.465088, 0.198127, 0, 0
2, 1320.00000, 0.456885, 0.194632, 0.462586, 0.197061, 0.465088, 0.198127, 0, 0
2, 1380.00000, 0.456885, 0.194632, 0.462586, 0.197061, 0.465088, 0.198127, 0, 0
2, 1440.00000, 0.456885, 0.194632, 0.462586, 0.197061, 0.465088, 0.198127, 0, 0
2, 1500.00000, 0.456885, 0.194632, 0.462586, 0.197061, 0.465088, 0.198127, 0, 0
2, 1560.00000, 0.456885, 0.194632, 0.462586, 0.197061, 0.465088, 0.198127, 0, 0
2, 1620.00000, 0.456885, 0.194632, 0.462586, 0.197061, 0.465088, 0.198127, 0, 0
2, 1680.00000, 0.456885, 0.194632, 0.462586, 0.197061, 0.465088, 0.198127, 0, 0
2, 1740.00000, 0.456885, 0.194632, 0.462586, 0.197061, 0.465088, 0.198127, 0, 0
2, 1800.00000, 0.456885, 0.194632, 0.462586, 0.197061, 0.465088, 0.198127, 0, 0
2, 1860.00000, 0.456885, 0.194632, 0.462586, 0.197061, 0.465088, 0.198127, 0, 0
2, 1920.00000, 0.456885, 0.194632, 0.462586, 0.197061, 0.465088, 0.198127, 0, 0
2, 1980.00000, 0.456885, 0.194632, 0.462586, 0.197061, 0.465088, 0.198127, 0, 0
2, 2040.00000, 0.456885, 0.194632, 0.462586, 0.197061, 0.465088, 0.198127, 0, 0
2, 2100.00000, 0.456885, 0.194632, 0.462586, 0.197061, 0.465088, 0.198127, 0, 0
2, 2160.00000, 0.456885, 0.194632, 0.462586, 0.197061, 0.465088, 0.198127, 0, 0
2, 2220.00000, 0.456885, 0.194632, 0.462586, 0.197061, 0.465088, 0.198127, 0, 0
2, 2280.00000, 0.456885, 0.194632, 0.462586, 0.197061, 0.465088, 0.198127, 0, 0
2, 2340.00000, 0.456885, 0.194632, 0.462586, 0.197061, 0.465088, 0.198127, 0, 0
2, 2400.00000, 0.459821, 0.195888, 0.462575, 0.197057, 0.466311, 0.198651, 0, 0
2, 2460.00000, 0.459837, 0.19589, 0.462573, 0.197055, 0.466316, 0.19865, 0, 0
2, 2520.00000, 0.459837, 0.19589, 0.462573, 0.197055, 0.466316, 0.19865, 0, 0
2, 2580.00000, 0.459837, 0.19589, 0.462573, 0.197055, 0.466316, 0.19865, 0, 0
2, 2640.00000, 0.459837, 0.19589, 0.462573, 0.197055, 0.466316, 0.19865, 0, 0
2, 2700.00000, 0.457479, 0.194886, 0.458674, 0.195393, 0.466485, 0.198722, 0, 0
2, 2760.00000, 0.457478, 0.194885, 0.458669, 0.195392, 0.466489, 0.198724, 0, 0
2, 2820.00000, 0.457478, 0.194885, 0.458669, 0.195392, 0.466489, 0.198724, 0, 0
2, 2880.00000, 0.457478, 0.194885, 0.458669, 0.195392, 0.466489, 0.198724, 0, 0
2, 2940.00000, 0.457478, 0.194885, 0.458669, 0.195392, 0.466489, 0.198724, 0, 0
2, 3000.00000, 0.457478, 0.194885, 0.458669, 0.195392, 0.466489, 0.198724, 0, 0
2, 3060.00000, 0.461872, 0.196763, 0.458627, 0.195374, 0.467717, 0.199248, 0, 0
2, 3120.00000, 0.461885, 0.196762, 0.458624, 0.195373, 0.467713, 0.199245, 0, 0
2, 3180.00000, 0.461885, 0.196762, 0.458624, 0.195373, 0.467713, 0.199245, 0, 0
2, 3240.00000, 0.461885, 0.196762, 0.458624, 0.195373, 0.467713, 0.199245, 0, 0
2, 3300.00000, 0.461885, 0.196762, 0.458624, 0.195373, 0.467713, 0.199245, 0, 0
2, 3360.00000, 0.461885, 0.196762, 0.458624, 0.195373, 0.467713, 0.199245, 0, 0
2, 3420.00000, 0.461885, 0.196762, 0.458624, 0.195373, 0.467713, 0.199245, 0, 0
2, 3480.00000, 0.461885, 0.196762, 0.458624, 0.195373, 0.467713, 0.199245, 0, 0
2, 3540.00000, 0.461885, 0.196762, 0.458624, 0.195373, 0.467713, 0.199245, 0, 0
3, 0.00000, 0.461885, 0.196762, 0.458624, 0.195373, 0.467713, 0.199245, 0, 0
3, 60.00000, 0.461885, 0.196762, 0.458624, 0.195373, 0.467713, 0.199245, 0, 0
3, 120.00000, 0.461885, 0.196762, 0.458624, 0.195373, 0.467713, 0.199245, 0, 0
3, 180.00000, 0.461885, 0.196762, 0.458624, 0.195373, 0.467713, 0.199245, 0, 0
3, 240.00000, 0.461885, 0.196762, 0.458624, 0.195373, 0.467713, 0.199245, 0, 0
3, 300.00000, 0.461885, 0.196762, 0.458624, 0.195373, 0.467713, 0.199245, 0, 0
3, 360.00000, 0.461885, 0.196762, 0.458624, 0.195373, 0.467713, 0.199245, 0, 0
3, 420.00000, 0.461885, 0.196762, 0.458624, 0.195373, 0.467713, 0.199245, 0, 0
3, 480.00000, 0.461885, 0.196762, 0.458624, 0.195373, 0.467713, 0.199245, 0, 0
3, 540.00000, 0.461885, 0.196762, 0.458624, 0.195373, 0.467713, 0.199245, 0, 0
3, 600.00000, 0.461885, 0.196762, 0.458624, 0.195373, 0.467713, 0.199245, 0, 0
3, 660.00000, 0.461885, 0.196762, 0.458624, 0.195373, 0.467713, 0.199245, 0, 0
3, 720.00000, 0.461885, 0.196762, 0.458624, 0.195373, 0.467713, 0.199245, 0, 0
3, 780.00000, 0.461885, 0.196762, 0.458624, 0.195373, 0.467713, 0.199245, 0, 0
3, 840.00000, 0.461885, 0.196762, 0.458624, 0.195373, 0.467713, 0.199245, 0, 0
3, 900.00000, 0.461885, 0.196762, 0.458624, 0.195373, 0.467713, 0.199245, 0, 0
3, 960.00000, 0.461885, 0.196762, 0.458624, 0.195373, 0.467713, 0.199245, 0, 0
3, 1020.00000, 0.461885, 0.196762, 0.458624, 0.195373, 0.467713, 0.199245, 0, 0
3, 1080.00000, 0.461885, 0.196762, 0.458624, 0.195373, 0.467713, 0.199245, 0, 0
3, 1140.00000, 0.461885, 0.196762, 0.458624, 0.195373, 0.467713, 0.199245, 0, 0
3, 1200.00000, 0.461885, 0.196762, 0.458624, 0.195373, 0.467713, 0.199245, 0, 0
3, 1260.00000, 0.461885, 0.196762, 0.458624, 0.195373, 0.467713, 0.199245, 0, 0
3, 1320.00000, 0.461885, 0.196762, 0.458624, 0.195373, 0.467713, 0.199245, 0, 0
3, 1380.00000, 0.461885, 0.196762, 0.458624, 0.195373, 0.467713, 0.199245, 0, 0
3, 1440.00000, 0.461885, 0.196762, 0.458624, 0.195373, 0.467713, 0.199245, 0, 0
3, 1500.00000, 0.461885, 0.196762, 0.458624, 0.195373, 0.467713, 0.199245, 0, 0
3, 1560.00000, 0.461885, 0.196762, 0.458624, 0.195373, 0.467713, 0.199245, 0, 0
3, 1620.00000, 0.461885, 0.196762, 0.458624, 0.195373, 0.467713, 0.199245, 0, 0
3, 1680.00000, 0.461885, 0.196762, 0.458624, 0.195373, 0.467713, 0.199245, 0, 0
3, 1740.00000, 0.461885, 0.196762, 0.458624, 0.195373, 0.467713, 0.199245, 0, 0
3, 1800.00000, 0.461885, 0.196762, 0.458624, 0.195373, 0.467713, 0.199245, 0, 0
3, 1860.00000, 0.461885, 0.196762, 0.458624, 0.195373, 0.467713, 0.199245, 0, 0
3, 1920.00000, 0.461885, 0.196762, 0.458624, 0.195373, 0.467713, 0.199245, 0, 0
3, 1980.00000, 0.461885, 0.196762, 0.458624, 0.195373, 0.467713, 0.199245, 0, 0
3, 2040.00000, 0.461885, 0.196762, 0.458624, 0.195373, 0.467713, 0.199245, 0, 0
3, 2100.00000, 0.461885, 0.196762, 0.458624, 0.195373, 0.467713, 0.199245, 0, 0
3, 2160.00000, 0.461885, 0.196762, 0.458624, 0.195373, 0.467713, 0.199245, 0, 0
3, 2220.00000, 0.461885, 0.196762, 0.458624, 0.195373, 0.467713, 0.199245, 0, 0
3, 2280.00000, 0.461885, 0.196762, 0.458624, 0.195373, 0.467713, 0.199245, 0, 0
3, 2340.00000, 0.461885, 0.196762, 0.458624, 0.195373, 0.467713, 0.199245, 0, 0
3, 2400.00000, 0.461885, 0.196762, 0.458624, 0.195373, 0.467713, 0.199245, 0, 0
3, 2460.00000, 0.461885, 0.196762, 0.458624, 0.195373, 0.467713, 0.199245, 0, 0
3, 2520.00000, 0.461885, 0.196762, 0.458624, 0.195373, 0.467713, 0.199245, 0, 0
3, 2580.00000, 0.461885, 0.196762, 0.458624, 0.195373, 0.467713, 0.199245, 0, 0
3, 2640.00000, 0.461885, 0.196762, 0.458624, 0.195373, 0.467713, 0.199245, 0, 0
3, 2700.00000, 0.461885, 0.196762, 0.458624, 0.195373, 0.467713, 0.199245, 0, 0
3, 2760.00000, 0.461885, 0.196762, 0.458624, 0.195373, 0.467713, 0.199245, 0, 0
3, 2820.00000, 0.461885, 0.196762, 0.458624, 0.195373, 0.467713, 0.199245, 0, 0
3, 2880.00000, 0.461885, 0.196762, 0.458624, 0.195373, 0.467713, 0.199245, 0, 0
3, 2940.00000, 0.461885, 0.196762, 0.458624, 0.195373, 0.467713, 0.199245, 0, 0
3, 3000.00000, 0.461885, 0.196762, 0.458624, 0.195373, 0.467713, 0.199245, 0, 0
3, 3060.00000, 0.461885, 0.196762, 0.458624, 0.195373, 0.467713, 0.199245, 0, 0
3, 3120.00000, 0.461885, 0.196762, 0.458624, 0.195373, 0.467713, 0.199245, 0, 0
3, 3180.00000, 0.446105, 0.190039, 0.443033, 0.188731, 0.453076, 0.193008, 0, 0
3, 3240.00000, 0.446101, 0.190038, 0.443032, 0.188731, 0.453074, 0.193009, 0, 0
3, 3300.00000, 0.446101, 0.190038, 0.443032, 0.188731, 0.453074, 0.193009, 0, 0
3, 3360.00000, 0.446101, 0.190038, 0.443032, 0.188731, 0.453074, 0.193009, 0, 0
3, 3420.00000, 0.446101, 0.190038, 0.443032, 0.188731, 0.453074, 0.193009, 0, 0
3, 3480.00000, 0.446101, 0.190038, 0.443032, 0.188731, 0.453074, 0.193009, 0, 0
3, 3540.00000, 0.446101, 0.190038, 0.443032, 0.188731, 0.453074, 0.193009, 0, 0
4, 0.00000, 0.446101, 0.190038, 0.443032, 0.188731, 0.453074, 0.193009, 0, 0
4, 60.00000, 0.446101, 0.190038, 0.443032, 0.188731, 0.453074, 0.193009, 0, 0
4, 120.00000, 0.446101, 0.190038, 0.443032, 0.188731, 0.453074, 0.193009, 0, 0
4, 180.00000, 0.446101, 0.190038, 0.443032, 0.188731, 0.453074, 0.193009, 0, 0
4, 240.00000, 0.446101, 0.190038, 0.443032, 0.188731, 0.453074, 0.193009, 0, 0
4, 300.00000, 0.446101, 0.190038, 0.443032, 0.188731, 0.453074, 0.193009, 0, 0
4, 360.00000, 0.446101, 0.190038, 0.443032, 0.188731, 0.453074, 0.193009, 0, 0
4, 420.00000, 0.446101, 0.190038, 0.443032, 0.188731, 0.453074, 0.193009, 0, 0
4, 480.00000, 0.446101, 0.190038, 0.443032, 0.188731, 0.453074, 0.193009, 0, 0
4, 540.00000, 0.446101, 0.190038, 0.443032, 0.188731, 0.453074, 0.193009, 0, 0
4, 600.00000, 0.446101, 0.190038, 0.443032, 0.188731, 0.453074, 0.193009, 0, 0
4, 660.00000, 0.446101, 0.190038, 0.443032, 0.188731, 0.453074, 0.193009, 0, 0
4, 720.00000, 0.446101, 0.190038, 0.443032, 0.188731, 0.453074, 0.193009, 0, 0
