hour,t(sec),V1,VAngle1,V2,VAngle2,V3,VAngle3,V4,VAngle4,I1,IAngle1,I2,IAngle2,I3,IAngle3,I4,IAngle4
0, 60.00000, 120.346, -31.3844, 122.308, -151.501, 121.507, 87.806, 0, 0, 4.54406, -54.4582, 4.49626, -174.575, 4.52588, 64.7325, 0.101624, 163.006
0, 120.00000, 120.346, -31.3844, 122.308, -151.501, 121.507, 87.806, 0, 0, 4.54404, -54.4583, 4.49628, -174.575, 4.52592, 64.7321, 0.101607, 163.027
0, 180.00000, 120.346, -31.3844, 122.308, -151.501, 121.507, 87.806, 0, 0, 4.54404, -54.4583, 4.49628, -174.575, 4.52592, 64.7321, 0.101607, 163.027
0, 240.00000, 120.346, -31.3844, 122.308, -151.501, 121.507, 87.806, 0, 0, 4.54404, -54.4583, 4.49628, -174.575, 4.52592, 64.7321, 0.101607, 163.027
0, 300.00000, 120.346, -31.3844, 122.308, -151.501, 121.507, 87.806, 0, 0, 4.54404, -54.4583, 4.49628, -174.575, 4.52592, 64.7321, 0.101607, 163.027
0, 360.00000, 120.346, -31.3844, 122.308, -151.501, 121.507, 87.806, 0, 0, 4.54404, -54.4583, 4.49628, -174.575, 4.52592, 64.7321, 0.101607, 163.027
0, 420.00000, 120.346, -31.3844, 122.308, -151.501, 121.507, 87.806, 0, 0, 4.54404, -54.4583, 4.49628, -174.575, 4.52592, 64.7321, 0.101607, 163.027
0, 480.00000, 120.993, -31.2616, 122.954, -151.38, 122.117, 87.9406, 0, 0, 3.95431, -54.3356, 3.89126, -174.455, 3.91791, 64.8662, 0.105162, 156.615
0, 540.00000, 120.993, -31.2616, 122.954, -151.38, 122.117, 87.9406, 0, 0, 3.95429, -54.3356, 3.89122, -174.454, 3.91789, 64.8667, 0.105155, 156.614
0, 600.00000, 120.993, -31.2616, 122.954, -151.38, 122.117, 87.9406, 0, 0, 3.95429, -54.3356, 3.89122, -174.454, 3.91789, 64.8667, 0.105155, 156.614
0, 660.00000, 120.993, -31.2616, 122.954, -151.38, 122.117, 87.9406, 0, 0, 3.95429, -54.3356, 3.89122, -174.454, 3.91789, 64.8667, 0.105155, 156.614
0, 720.00000, 120.993, -31.2616, 122.954, -151.38, 122.117, 87.9406, 0, 0, 3.95429, -54.3356, 3.89122, -174.454, 3.91789, 64.8667, 0.105155, 156.614
0, 780.00000, 120.993, -31.2616, 122.954, -151.38, 122.117, 87.9406, 0, 0, 3.95429, -54.3356, 3.89122, -174.454, 3.91789, 64.8667, 0.105155, 156.614
0, 840.00000, 120.993, -31.2616, 122.954, -151.38, 122.117, 87.9406, 0, 0, 3.95429, -54.3356, 3.89122, -174.454, 3.91789, 64.8667, 0.105155, 156.614
0, 900.00000, 120.993, -31.2616, 122.954, -151.38, 122.117, 87.9406, 0, 0, 3.95429, -54.3356, 3.89122, -174.454, 3.91789, 64.8667, 0.105155, 156.614
0, 960.00000, 120.45, -31.2377, 122.951, -151.378, 121.808, 87.7309, 0, 0, 3.95713, -54.3116, 3.89133, -174.452, 3.92782, 64.6572, 0.123419, 160.91
0, 1020.00000, 120.45, -31.2377, 122.951, -151.378, 121.808, 87.7309, 0, 0, 3.95711, -54.3116, 3.89133, -174.452, 3.92783, 64.657, 0.123417, 160.918
0, 1080.00000, 120.45, -31.2377, 122.951, -151.378, 121.808, 87.7309, 0, 0, 3.95711, -54.3116, 3.89133, -174.452, 3.92783, 64.657, 0.123417, 160.918
0, 1140.00000, 120.45, -31.2377, 122.951, -151.378, 121.808, 87.7309, 0, 0, 3.95711, -54.3116, 3.89133, -174.452, 3.92783, 64.657, 0.123417, 160.918
0, 1200.00000, 120.45, -31.2377, 122.951, -151.378, 121.808, 87.7309, 0, 0, 3.95711, -54.3116, 3.89133, -174.452, 3.92783, 64.657, 0.123417, 160.918
0, 1260.00000, 120.45, -31.2377, 122.951, -151.378, 121.808, 87.7309, 0, 0, 3.95711, -54.3116, 3.89133, -174.452, 3.92783, 64.657, 0.123417, 160.918
0, 1320.00000, 120.45, -31.2377, 122.951, -151.378, 121.808, 87.7309, 0, 0, 3.95711, -54.3116, 3.89133, -174.452, 3.92783, 64.657, 0.123417, 160.918
0, 1380.00000, 120.45, -31.2377, 122.951, -151.378, 121.808, 87.7309, 0, 0, 3.95711, -54.3116, 3.89133, -174.452, 3.92783, 64.657, 0.123417, 160.918
0, 1440.00000, 120.45, -31.2377, 122.951, -151.378, 121.808, 87.7309, 0, 0, 3.95711, -54.3116, 3.89133, -174.452, 3.92783, 64.657, 0.123417, 160.918
0, 1500.00000, 120.45, -31.2377, 122.951, -151.378, 121.808, 87.7309, 0, 0, 3.95711, -54.3116, 3.89133, -174.452, 3.92783, 64.657, 0.123417, 160.918
0, 1560.00000, 120.45, -31.2377, 122.951, -151.378, 121.808, 87.7309, 0, 0, 3.95711, -54.3116, 3.89133, -174.452, 3.92783, 64.657, 0.123417, 160.918
0, 1620.00000, 120.45, -31.2377, 122.951, -151.378, 121.808, 87.7309, 0, 0, 3.95711, -54.3116, 3.89133, -174.452, 3.92783, 64.657, 0.123417, 160.918
0, 1680.00000, 120.45, -31.2377, 122.951, -151.378, 121.808, 87.7309, 0, 0, 3.95711, -54.3116, 3.89133, -174.452, 3.92783, 64.657, 0.123417, 160.918
0, 1740.00000, 120.45, -31.2377, 122.951, -151.378, 121.808, 87.7309, 0, 0, 3.95711, -54.3116, 3.89133, -174.452, 3.92783, 64.657, 0.123417, 160.918
0, 1800.00000, 119.877, -31.204, 122.946, -151.377, 121.467, 87.5094, 0, 0, 3.9363, -54.2778, 3.89148, -174.45, 3.93886, 64.4357, 0.126112, 171.431
0, 1860.00000, 119.877, -31.204, 122.946, -151.377, 121.467, 87.5094, 0, 0, 3.93627, -54.2779, 3.89148, -174.45, 3.93887, 64.4354, 0.126113, 171.44
0, 1920.00000, 119.877, -31.204, 122.946, -151.377, 121.467, 87.5094, 0, 0, 3.93627, -54.2779, 3.89148, -174.45, 3.93887, 64.4354, 0.126113, 171.44
0, 1980.00000, 119.877, -31.204, 122.946, -151.377, 121.467, 87.5094, 0, 0, 3.93627, -54.2779, 3.89148, -174.45, 3.93887, 64.4354, 0.126113, 171.44
0, 2040.00000, 119.877, -31.204, 122.946, -151.377, 121.467, 87.5094, 0, 0, 3.93627, -54.2779, 3.89148, -174.45, 3.93887, 64.4354, 0.126113, 171.44
0, 2100.00000, 119.877, -31.204, 122.946, -151.377, 121.467, 87.5094, 0, 0, 3.93627, -54.2779, 3.89148, -174.45, 3.93887, 64.4354, 0.126113, 171.44
0, 2160.00000, 119.877, -31.204, 122.946, -151.377, 121.467, 87.5094, 0, 0, 3.93627, -54.2779, 3.89148, -174.45, 3.93887, 64.4354, 0.126113, 171.44
0, 2220.00000, 119.877, -31.204, 122.946, -151.377, 121.467, 87.5094, 0, 0, 3.93627, -54.2779, 3.89148, -174.45, 3.93887, 64.4354, 0.126113, 171.44
0, 2280.00000, 119.877, -31.204, 122.946, -151.377, 121.467, 87.5094, 0, 0, 3.93627, -54.2779, 3.89148, -174.45, 3.93887, 64.4354, 0.126113, 171.44
0, 2340.00000, 119.877, -31.204, 122.946, -151.377, 121.467, 87.5094, 0, 0, 3.93627, -54.2779, 3.89148, -174.45, 3.93887, 64.4354, 0.126113, 171.44
0, 2400.00000, 119.877, -31.204, 122.946, -151.377, 121.467, 87.5094, 0, 0, 3.93627, -54.2779, 3.89148, -174.45, 3.93887, 64.4354, 0.126113, 171.44
0, 2460.00000, 119.877, -31.204, 122.946, -151.377, 121.467, 87.5094, 0, 0, 3.93627, -54.2779, 3.89148, -174.45, 3.93887, 64.4354, 0.126113, 171.44
0, 2520.00000, 119.877, -31.204, 122.946, -151.377, 121.467, 87.5094, 0, 0, 3.93627, -54.2779, 3.89148, -174.45, 3.93887, 64.4354, 0.126113, 171.44
0, 2580.00000, 119.877, -31.204, 122.946, -151.377, 121.467, 87.5094, 0, 0, 3.93627, -54.2779, 3.89148, -174.45, 3.93887, 64.4354, 0.126113, 171.44
0, 2640.00000, 119.877, -31.204, 122.946, -151.377, 121.467, 87.5094, 0, 0, 3.93627, -54.2779, 3.89148, -174.45, 3.93887, 64.4354, 0.126113, 171.44
0, 2700.00000, 119.877, -31.204, 122.946, -151.377, 121.467, 87.5094, 0, 0, 3.93627, -54.2779, 3.89148, -174.45, 3.93887, 64.4354, 0.126113, 171.44
0, 2760.00000, 120.176, -31.175, 122.946, -151.377, 121.568, 87.6452, 0, 0, 3.94714, -54.2491, 3.89147, -174.451, 3.9356, 64.571, 0.125432, 168.347
0, 2820.00000, 120.176, -31.175, 122.946, -151.377, 121.568, 87.6453, 0, 0, 3.94717, -54.2489, 3.89147, -174.451, 3.93558, 64.5713, 0.125428, 168.337
0, 2880.00000, 120.176, -31.175, 122.946, -151.377, 121.568, 87.6453, 0, 0, 3.94717, -54.2489, 3.89147, -174.451, 3.93558, 64.5713, 0.125427, 168.337
0, 2940.00000, 120.176, -31.175, 122.946, -151.377, 121.568, 87.6453, 0, 0, 3.94717, -54.2489, 3.89147, -174.451, 3.93558, 64.5713, 0.125427, 168.337
0, 3000.00000, 120.176, -31.175, 122.946, -151.377, 121.568, 87.6453, 0, 0, 3.94717, -54.2489, 3.89147, -174.451, 3.93558, 64.5713, 0.125427, 168.337
0, 3060.00000, 120.176, -31.175, 122.946, -151.377, 121.568, 87.6453, 0, 0, 3.94717, -54.2489, 3.89147, -174.451, 3.93558, 64.5713, 0.125427, 168.337
0, 3120.00000, 120.176, -31.175, 122.946, -151.377, 121.568, 87.6453, 0, 0, 3.94717, -54.2489, 3.89147, -174.451, 3.93558, 64.5713, 0.125427, 168.337
0, 3180.00000, 120.176, -31.175, 122.946, -151.377, 121.568, 87.6453, 0, 0, 3.94717, -54.2489, 3.89147, -174.451, 3.93558, 64.5713, 0.125427, 168.337
0, 3240.00000, 120.176, -31.175, 122.946, -151.377, 121.568, 87.6453, 0, 0, 3.94717, -54.2489, 3.89147, -174.451, 3.93558, 64.5713, 0.125427, 168.337
0, 3300.00000, 120.176, -31.175, 122.946, -151.377, 121.568, 87.6453, 0, 0, 3.94717, -54.2489, 3.89147, -174.451, 3.93558, 64.5713, 0.125427, 168.337
0, 3360.00000, 120.176, -31.175, 122.946, -151.377, 121.568, 87.6453, 0, 0, 3.94717, -54.2489, 3.89147, -174.451, 3.93558, 64.5713, 0.125427, 168.337
0, 3420.00000, 120.176, -31.175, 122.946, -151.377, 121.568, 87.6453, 0, 0, 3.94717, -54.2489, 3.89147, -174.451, 3.93558, 64.5713, 0.125427, 168.337
0, 3480.00000, 120.176, -31.175, 122.946, -151.377, 121.568, 87.6453, 0, 0, 3.94717, -54.2489, 3.89147, -174.451, 3.93558, 64.5713, 0.125427, 168.337
0, 3540.00000, 120.176, -31.175, 122.946, -151.377, 121.568, 87.6453, 0, 0, 3.94717, -54.2489, 3.89147, -174.451, 3.93558, 64.5713, 0.125427, 168.337
1, 0.00000, 120.176, -31.175, 122.946, -151.377, 121.568, 87.6453, 0, 0, 3.94717, -54.2489, 3.89147, -174.451, 3.93558, 64.5713, 0.125427, 168.337
1, 60.00000, 120.461, -31.1447, 122.947, -151.378, 121.658, 87.7753, 0, 0, 3.95752, -54.2188, 3.89146, -174.452, 3.93268, 64.7012, 0.125261, 165.527
1, 120.00000, 120.461, -31.1447, 122.947, -151.378, 121.658, 87.7753, 0, 0, 3.95753, -54.2186, 3.89146, -174.452, 3.93266, 64.7014, 0.125265, 165.522
1, 180.00000, 120.461, -31.1447, 122.947, -151.378, 121.658, 87.7753, 0, 0, 3.95753, -54.2186, 3.89146, -174.452, 3.93266, 64.7014, 0.125265, 165.522
1, 240.00000, 120.461, -31.1447, 122.947, -151.378, 121.658, 87.7753, 0, 0, 3.95753, -54.2186, 3.89146, -174.452, 3.93266, 64.7014, 0.125265, 165.522
1, 300.00000, 120.461, -31.1447, 122.947, -151.378, 121.658, 87.7753, 0, 0, 3.95753, -54.2186, 3.89146, -174.452, 3.93266, 64.7014, 0.125265, 165.522
1, 360.00000, 120.461, -31.1447, 122.947, -151.378, 121.658, 87.7753, 0, 0, 3.95753, -54.2186, 3.89146, -174.452, 3.93266, 64.7014, 0.125265, 165.522
1, 420.00000, 120.461, -31.1447, 122.947, -151.378, 121.658, 87.7753, 0, 0, 3.95753, -54.2186, 3.89146, -174.452, 3.93266, 64.7014, 0.125265, 165.522
1, 480.00000, 120.461, -31.1447, 122.947, -151.378, 121.658, 87.7753, 0, 0, 3.95753, -54.2186, 3.89146, -174.452, 3.93266, 64.7014, 0.125265, 165.522
1, 540.00000, 120.461, -31.1447, 122.947, -151.378, 121.658, 87.7753, 0, 0, 3.95753, -54.2186, 3.89146, -174.452, 3.93266, 64.7014, 0.125265, 165.522
1, 600.00000, 120.461, -31.1447, 122.947, -151.378, 121.658, 87.7753, 0, 0, 3.95753, -54.2186, 3.89146, -174.452, 3.93266, 64.7014, 0.125265, 165.522
1, 660.00000, 120.461, -31.1447, 122.947, -151.378, 121.658, 87.7753, 0, 0, 3.95753, -54.2186, 3.89146, -174.452, 3.93266, 64.7014, 0.125265, 165.522
1, 720.00000, 120.461, -31.1447, 122.947, -151.378, 121.658, 87.7753, 0, 0, 3.95753, -54.2186, 3.89146, -174.452, 3.93266, 64.7014, 0.125265, 165.522
1, 780.00000, 121.04, -31.1775, 122.948, -151.378, 122.003, 87.9948, 0, 0, 3.95277, -54.2516, 3.8914, -174.452, 3.92156, 64.9207, 0.103581, 161.773
1, 840.00000, 121.04, -31.1775, 122.948, -151.378, 122.003, 87.9948, 0, 0, 3.95275, -54.2514, 3.8914, -174.452, 3.92155, 64.9209, 0.103556, 161.782
1, 900.00000, 121.04, -31.1775, 122.948, -151.378, 122.003, 87.9948, 0, 0, 3.95275, -54.2514, 3.8914, -174.452, 3.92155, 64.9209, 0.103556, 161.782
1, 960.00000, 121.04, -31.1775, 122.948, -151.378, 122.003, 87.9948, 0, 0, 3.95275, -54.2514, 3.8914, -174.452, 3.92155, 64.9209, 0.103556, 161.782
1, 1020.00000, 121.04, -31.1775, 122.948, -151.378, 122.003, 87.9948, 0, 0, 3.95275, -54.2514, 3.8914, -174.452, 3.92155, 64.9209, 0.103556, 161.782
1, 1080.00000, 121.04, -31.1775, 122.948, -151.378, 122.003, 87.9948, 0, 0, 3.95275, -54.2514, 3.8914, -174.452, 3.92155, 64.9209, 0.103556, 161.782
1, 1140.00000, 121.04, -31.1775, 122.948, -151.378, 122.003, 87.9948, 0, 0, 3.95275, -54.2514, 3.8914, -174.452, 3.92155, 64.9209, 0.103556, 161.782
1, 1200.00000, 121.04, -31.1775, 122.948, -151.378, 122.003, 87.9948, 0, 0, 3.95275, -54.2514, 3.8914, -174.452, 3.92155, 64.9209, 0.103556, 161.782
1, 1260.00000, 121.04, -31.1775, 122.948, -151.378, 122.003, 87.9948, 0, 0, 3.95275, -54.2514, 3.8914, -174.452, 3.92155, 64.9209, 0.103556, 161.782
1, 1320.00000, 121.04, -31.1775, 122.948, -151.378, 122.003, 87.9948, 0, 0, 3.95275, -54.2514, 3.8914, -174.452, 3.92155, 64.9209, 0.103556, 161.782
1, 1380.00000, 121.04, -31.1775, 122.948, -151.378, 122.003, 87.9948, 0, 0, 3.95275, -54.2514, 3.8914, -174.452, 3.92155, 64.9209, 0.103556, 161.782
1, 1440.00000, 121.04, -31.1775, 122.948, -151.378, 122.003, 87.9948, 0, 0, 3.95275, -54.2514, 3.8914, -174.452, 3.92155, 64.9209, 0.103556, 161.782
1, 1500.00000, 121.04, -31.1775, 122.948, -151.378, 122.003, 87.9948, 0, 0, 3.95275, -54.2514, 3.8914, -174.452, 3.92155, 64.9209, 0.103556, 161.782
1, 1560.00000, 121.04, -31.1775, 122.948, -151.378, 122.003, 87.9948, 0, 0, 3.95275, -54.2514, 3.8914, -174.452, 3.92155, 64.9209, 0.103556, 161.782
1, 1620.00000, 121.04, -31.1775, 122.948, -151.378, 122.003, 87.9948, 0, 0, 3.95275, -54.2514, 3.8914, -174.452, 3.92155, 64.9209, 0.103556, 161.782
1, 1680.00000, 121.04, -31.1775, 122.948, -151.378, 122.003, 87.9948, 0, 0, 3.95275, -54.2514, 3.8914, -174.452, 3.92155, 64.9209, 0.103556, 161.782
1, 1740.00000, 121.04, -31.1775, 122.948, -151.378, 122.003, 87.9948, 0, 0, 3.95275, -54.2514, 3.8914, -174.452, 3.92155, 64.9209, 0.103556, 161.782
1, 1800.00000, 121.04, -31.1775, 122.948, -151.378, 122.003, 87.9948, 0, 0, 3.95275, -54.2514, 3.8914, -174.452, 3.92155, 64.9209, 0.103556, 161.782
1, 1860.00000, 121.04, -31.1775, 122.948, -151.378, 122.003, 87.9948, 0, 0, 3.95275, -54.2514, 3.8914, -174.452, 3.92155, 64.9209, 0.103556, 161.782
1, 1920.00000, 121.04, -31.1775, 122.948, -151.378, 122.003, 87.9948, 0, 0, 3.95275, -54.2514, 3.8914, -174.452, 3.92155, 64.9209, 0.103556, 161.782
1, 1980.00000, 121.04, -31.1775, 122.948, -151.378, 122.003, 87.9948, 0, 0, 3.95275, -54.2514, 3.8914, -174.452, 3.92155, 64.9209, 0.103556, 161.782
1, 2040.00000, 121.04, -31.1775, 122.948, -151.378, 122.003, 87.9948, 0, 0, 3.95275, -54.2514, 3.8914, -174.452, 3.92155, 64.9209, 0.103556, 161.782
1, 2100.00000, 121.04, -31.1775, 122.948, -151.378, 122.003, 87.9948, 0, 0, 3.95275, -54.2514, 3.8914, -174.452, 3.92155, 64.9209, 0.103556, 161.782
1, 2160.00000, 121.04, -31.1775, 122.948, -151.378, 122.003, 87.9948, 0, 0, 3.95275, -54.2514, 3.8914, -174.452, 3.92155, 64.9209, 0.103556, 161.782
1, 2220.00000, 121.636, -31.2069, 122.951, -151.379, 122.348, 88.2177, 0, 0, 3.93341, -54.2811, 3.89132, -174.453, 3.91051, 65.1437, 0.0703581, 162.28
1, 2280.00000, 121.636, -31.2069, 122.951, -151.379, 122.348, 88.2177, 0, 0, 3.93339, -54.2809, 3.89133, -174.453, 3.9105, 65.1438, 0.0703343, 162.295
1, 2340.00000, 121.636, -31.2069, 122.951, -151.379, 122.348, 88.2177, 0, 0, 3.93339, -54.2809, 3.89133, -174.453, 3.9105, 65.1438, 0.0703342, 162.295
1, 2400.00000, 121.636, -31.2069, 122.951, -151.379, 122.348, 88.2177, 0, 0, 3.93339, -54.2809, 3.89133, -174.453, 3.9105, 65.1438, 0.0703342, 162.295
1, 2460.00000, 121.636, -31.2069, 122.951, -151.379, 122.348, 88.2177, 0, 0, 3.93339, -54.2809, 3.89133, -174.453, 3.9105, 65.1438, 0.0703342, 162.295
1, 2520.00000, 121.636, -31.2069, 122.951, -151.379, 122.348, 88.2177, 0, 0, 3.93339, -54.2809, 3.89133, -174.453, 3.9105, 65.1438, 0.0703342, 162.295
1, 2580.00000, 121.636, -31.2069, 122.951, -151.379, 122.348, 88.2177, 0, 0, 3.93339, -54.2809, 3.89133, -174.453, 3.9105, 65.1438, 0.0703342, 162.295
1, 2640.00000, 121.636, -31.2069, 122.951, -151.379, 122.348, 88.2177, 0, 0, 3.93339, -54.2809, 3.89133, -174.453, 3.9105, 65.1438, 0.0703342, 162.295
1, 2700.00000, 121.636, -31.2069, 122.951, -151.379, 122.348, 88.2177, 0, 0, 3.93339, -54.2809, 3.89133, -174.453, 3.9105, 65.1438, 0.0703342, 162.295
1, 2760.00000, 121.636, -31.2069, 122.951, -151.379, 122.348, 88.2177, 0, 0, 3.93339, -54.2809, 3.89133, -174.453, 3.9105, 65.1438, 0.0703342, 162.295
1, 2820.00000, 121.636, -31.2069, 122.951, -151.379, 122.348, 88.2177, 0, 0, 3.93339, -54.2809, 3.89133, -174.453, 3.9105, 65.1438, 0.0703342, 162.295
1, 2880.00000, 121.636, -31.2069, 122.951, -151.379, 122.348, 88.2177, 0, 0, 3.93339, -54.2809, 3.89133, -174.453, 3.9105, 65.1438, 0.0703342, 162.295
1, 2940.00000, 121.636, -31.2069, 122.951, -151.379, 122.348, 88.2177, 0, 0, 3.93339, -54.2809, 3.89133, -174.453, 3.9105, 65.1438, 0.0703342, 162.295
1, 3000.00000, 121.636, -31.2069, 122.951, -151.379, 122.348, 88.2177, 0, 0, 3.93339, -54.2809, 3.89133, -174.453, 3.9105, 65.1438, 0.0703342, 162.295
1, 3060.00000, 121.636, -31.2069, 122.951, -151.379, 122.348, 88.2177, 0, 0, 3.93339, -54.2809, 3.89133, -174.453, 3.9105, 65.1438, 0.0703342, 162.295
1, 3120.00000, 121.636, -31.2069, 122.951, -151.379, 122.348, 88.2177, 0, 0, 3.93339, -54.2809, 3.89133, -174.453, 3.9105, 65.1438, 0.0703342, 162.295
1, 3180.00000, 121.636, -31.2069, 122.951, -151.379, 122.348, 88.2177, 0, 0, 3.93339, -54.2809, 3.89133, -174.453, 3.9105, 65.1438, 0.0703342, 162.295
1, 3240.00000, 121.636, -31.2069, 122.951, -151.379, 122.348, 88.2177, 0, 0, 3.93339, -54.2809, 3.89133, -174.453, 3.9105, 65.1438, 0.0703342, 162.295
1, 3300.00000, 121.636, -31.2069, 122.951, -151.379, 122.348, 88.2177, 0, 0, 3.93339, -54.2809, 3.89133, -174.453, 3.9105, 65.1438, 0.0703342, 162.295
1, 3360.00000, 121.636, -31.2069, 122.951, -151.379, 122.348, 88.2177, 0, 0, 3.93339, -54.2809, 3.89133, -174.453, 3.9105, 65.1438, 0.0703342, 162.295
1, 3420.00000, 121.636, -31.2069, 122.951, -151.379, 122.348, 88.2177, 0, 0, 3.93339, -54.2809, 3.89133, -174.453, 3.9105, 65.1438, 0.0703342, 162.295
1, 3480.00000, 121.636, -31.2069, 122.951, -151.379, 122.348, 88.2177, 0, 0, 3.93339, -54.2809, 3.89133, -174.453, 3.9105, 65.1438, 0.0703342, 162.295
1, 3540.00000, 121.636, -31.2069, 122.951, -151.379, 122.348, 88.2177, 0, 0, 3.93339, -54.2809, 3.89133, -174.453, 3.9105, 65.1438, 0.0703342, 162.295
2, 0.00000, 121.636, -31.2069, 122.951, -151.379, 122.348, 88.2177, 0, 0, 3.93339, -54.2809, 3.89133, -174.453, 3.9105, 65.1438, 0.0703342, 162.295
2, 60.00000, 121.636, -31.2069, 122.951, -151.379, 122.348, 88.2177, 0, 0, 3.93339, -54.2809, 3.89133, -174.453, 3.9105, 65.1438, 0.0703342, 162.295
2, 120.00000, 121.636, -31.2069, 122.951, -151.379, 122.348, 88.2177, 0, 0, 3.93339, -54.2809, 3.89133, -174.453, 3.9105, 65.1438, 0.0703342, 162.295
2, 180.00000, 121.636, -31.2069, 122.951, -151.379, 122.348, 88.2177, 0, 0, 3.93339, -54.2809, 3.89133, -174.453, 3.9105, 65.1438, 0.0703342, 162.295
2, 240.00000, 121.636, -31.2069, 122.951, -151.379, 122.348, 88.2177, 0, 0, 3.93339, -54.2809, 3.89133, -174.453, 3.9105, 65.1438, 0.0703342, 162.295
2, 300.00000, 121.636, -31.2069, 122.951, -151.379, 122.348, 88.2177, 0, 0, 3.93339, -54.2809, 3.89133, -174.453, 3.9105, 65.1438, 0.0703342, 162.295
2, 360.00000, 121.636, -31.2069, 122.951, -151.379, 122.348, 88.2177, 0, 0, 3.93339, -54.2809, 3.89133, -174.453, 3.9105, 65.1438, 0.0703342, 162.295
2, 420.00000, 121.636, -31.2069, 122.951, -151.379, 122.348, 88.2177, 0, 0, 3.93339, -54.2809, 3.89133, -174.453, 3.9105, 65.1438, 0.0703342, 162.295
2, 480.00000, 121.636, -31.2069, 122.951, -151.379, 122.348, 88.2177, 0, 0, 3.93339, -54.2809, 3.89133, -174.453, 3.9105, 65.1438, 0.0703342, 162.295
2, 540.00000, 121.636, -31.2069, 122.951, -151.379, 122.348, 88.2177, 0, 0, 3.93339, -54.2809, 3.89133, -174.453, 3.9105, 65.1438, 0.0703342, 162.295
2, 600.00000, 121.636, -31.2069, 122.951, -151.379, 122.348, 88.2177, 0, 0, 3.93339, -54.2809, 3.89133, -174.453, 3.9105, 65.1438, 0.0703342, 162.295
2, 660.00000, 121.636, -31.2069, 122.951, -151.379, 122.348, 88.2177, 0, 0, 3.93339, -54.2809, 3.89133, -174.453, 3.9105, 65.1438, 0.0703342, 162.295
2, 720.00000, 121.636, -31.2069, 122.951, -151.379, 122.348, 88.2177, 0, 0, 3.93339, -54.2809, 3.89133, -174.453, 3.9105, 65.1438, 0.0703342, 162.295
2, 780.00000, 121.636, -31.2069, 122.951, -151.379, 122.348, 88.2177, 0, 0, 3.93339, -54.2809, 3.89133, -174.453, 3.9105, 65.1438, 0.0703342, 162.295
