hour,t(sec),V1,VAngle1,V2,VAngle2,V3,VAngle3,V4,VAngle4,I1,IAngle1,I2,IAngle2,I3,IAngle3,I4,IAngle4
0, 60.00000, 122.277, -32.5797, 122.526, -151.462, 125.193, 87.9372, 0, 0, 4.49735, -55.6536, 4.48827, -174.536, 4.3928, 64.8639, 0.176052, 68.4877
0, 120.00000, 122.28, -32.5938, 122.526, -151.462, 125.225, 87.9319, 0, 0, 4.49725, -55.6676, 4.48828, -174.536, 4.39166, 64.8585, 0.178049, 68.3626
0, 180.00000, 122.282, -32.6064, 122.525, -151.463, 125.254, 87.9271, 0, 0, 4.49716, -55.6803, 4.48829, -174.537, 4.39063, 64.8536, 0.179851, 68.2524
0, 240.00000, 122.285, -32.6178, 122.525, -151.463, 125.281, 87.9228, 0, 0, 4.49708, -55.6917, 4.48831, -174.537, 4.38969, 64.8492, 0.181482, 68.1545
0, 300.00000, 122.287, -32.628, 122.525, -151.464, 125.305, 87.9189, 0, 0, 4.49701, -55.7019, 4.48832, -174.537, 4.38884, 64.8453, 0.182956, 68.0675
0, 360.00000, 122.289, -32.6372, 122.524, -151.464, 125.327, 87.9154, 0, 0, 4.49695, -55.7111, 4.48833, -174.538, 4.38807, 64.8418, 0.184284, 67.9906
0, 420.00000, 122.29, -32.6454, 122.524, -151.464, 125.346, 87.9122, 0, 0, 4.49689, -55.7193, 4.48834, -174.538, 4.38738, 64.8386, 0.18548, 67.9226
0, 480.00000, 122.961, -32.531, 123.176, -151.347, 126.09, 88.051, 0, 0, 3.89097, -55.6049, 3.8842, -174.421, 3.7945, 64.9773, 0.162581, 67.2719
0, 540.00000, 122.962, -32.5378, 123.176, -151.347, 126.106, 88.0484, 0, 0, 3.89094, -55.6116, 3.88421, -174.421, 3.79401, 64.9747, 0.163427, 67.2219
0, 600.00000, 122.963, -32.5439, 123.176, -151.348, 126.121, 88.046, 0, 0, 3.8909, -55.6177, 3.88421, -174.421, 3.79358, 64.9724, 0.164187, 67.1776
0, 660.00000, 122.965, -32.5494, 123.176, -151.348, 126.133, 88.0439, 0, 0, 3.89087, -55.6232, 3.88422, -174.422, 3.79319, 64.9702, 0.16487, 67.1381
0, 720.00000, 122.965, -32.5543, 123.176, -151.348, 126.145, 88.042, 0, 0, 3.89084, -55.6282, 3.88422, -174.422, 3.79283, 64.9683, 0.165486, 67.103
0, 780.00000, 122.966, -32.5588, 123.175, -151.348, 126.155, 88.0403, 0, 0, 3.89082, -55.6326, 3.88423, -174.422, 3.79252, 64.9666, 0.16604, 67.0716
0, 840.00000, 122.967, -32.5628, 123.175, -151.348, 126.165, 88.0387, 0, 0, 3.89079, -55.6366, 3.88423, -174.422, 3.79223, 64.965, 0.166539, 67.0437
0, 900.00000, 122.968, -32.5664, 123.175, -151.348, 126.173, 88.0374, 0, 0, 3.89077, -55.6402, 3.88423, -174.422, 3.79197, 64.9636, 0.166988, 67.0187
0, 960.00000, 122.968, -32.5696, 123.175, -151.348, 126.181, 88.0361, 0, 0, 3.89075, -55.6435, 3.88424, -174.422, 3.79174, 64.9623, 0.167392, 66.9963
0, 1020.00000, 122.969, -32.5725, 123.175, -151.349, 126.188, 88.035, 0, 0, 3.89074, -55.6464, 3.88424, -174.422, 3.79154, 64.9612, 0.167755, 66.9763
0, 1080.00000, 122.97, -32.5752, 123.175, -151.349, 126.194, 88.0339, 0, 0, 3.89072, -55.649, 3.88424, -174.423, 3.79135, 64.9601, 0.168083, 66.9584
0, 1140.00000, 122.97, -32.5775, 123.175, -151.349, 126.199, 88.033, 0, 0, 3.89071, -55.6514, 3.88424, -174.423, 3.79118, 64.9592, 0.168378, 66.9424
0, 1200.00000, 122.97, -32.5797, 123.175, -151.349, 126.204, 88.0322, 0, 0, 3.8907, -55.6535, 3.88425, -174.423, 3.79103, 64.9584, 0.168643, 66.928
0, 1260.00000, 122.971, -32.5816, 123.175, -151.349, 126.209, 88.0315, 0, 0, 3.89069, -55.6555, 3.88425, -174.423, 3.79089, 64.9576, 0.168882, 66.9151
0, 1320.00000, 122.971, -32.5833, 123.175, -151.349, 126.213, 88.0308, 0, 0, 3.89068, -55.6572, 3.88425, -174.423, 3.79077, 64.9569, 0.169097, 66.9036
0, 1380.00000, 122.971, -32.5848, 123.175, -151.349, 126.216, 88.0302, 0, 0, 3.89067, -55.6587, 3.88425, -174.423, 3.79066, 64.9563, 0.16929, 66.8932
0, 1440.00000, 122.972, -32.5862, 123.175, -151.349, 126.22, 88.0296, 0, 0, 3.89066, -55.6601, 3.88425, -174.423, 3.79056, 64.9558, 0.169464, 66.8839
0, 1500.00000, 122.972, -32.5875, 123.175, -151.349, 126.223, 88.0292, 0, 0, 3.89065, -55.6614, 3.88425, -174.423, 3.79047, 64.9553, 0.169621, 66.8755
0, 1560.00000, 122.972, -32.5886, 123.175, -151.349, 126.225, 88.0287, 0, 0, 3.89065, -55.6625, 3.88425, -174.423, 3.79039, 64.9548, 0.169762, 66.868
0, 1620.00000, 122.972, -32.5896, 123.175, -151.349, 126.228, 88.0283, 0, 0, 3.89064, -55.6636, 3.88426, -174.423, 3.79032, 64.9544, 0.169889, 66.8613
0, 1680.00000, 122.972, -32.5906, 123.175, -151.349, 126.23, 88.028, 0, 0, 3.89064, -55.6645, 3.88426, -174.423, 3.79025, 64.9541, 0.170003, 66.8553
0, 1740.00000, 122.973, -32.5914, 123.175, -151.349, 126.232, 88.0276, 0, 0, 3.89063, -55.6653, 3.88426, -174.423, 3.79019, 64.9538, 0.170106, 66.8498
0, 1800.00000, 122.973, -32.5921, 123.175, -151.349, 126.233, 88.0274, 0, 0, 3.89063, -55.666, 3.88426, -174.423, 3.79014, 64.9535, 0.170198, 66.8449
0, 1860.00000, 122.973, -32.5928, 123.175, -151.349, 126.235, 88.0271, 0, 0, 3.89063, -55.6667, 3.88426, -174.423, 3.79009, 64.9532, 0.170282, 66.8406
0, 1920.00000, 122.973, -32.5934, 123.174, -151.349, 126.236, 88.0269, 0, 0, 3.89062, -55.6673, 3.88426, -174.423, 3.79005, 64.953, 0.170357, 66.8366
0, 1980.00000, 122.973, -32.5939, 123.174, -151.349, 126.238, 88.0266, 0, 0, 3.89062, -55.6679, 3.88426, -174.423, 3.79001, 64.9528, 0.170424, 66.8331
0, 2040.00000, 122.973, -32.5944, 123.174, -151.349, 126.239, 88.0265, 0, 0, 3.89062, -55.6683, 3.88426, -174.423, 3.78998, 64.9526, 0.170485, 66.8299
0, 2100.00000, 122.973, -32.5949, 123.174, -151.349, 126.24, 88.0263, 0, 0, 3.89061, -55.6688, 3.88426, -174.423, 3.78995, 64.9524, 0.170539, 66.827
0, 2160.00000, 122.973, -32.5953, 123.174, -151.349, 126.241, 88.0261, 0, 0, 3.89061, -55.6692, 3.88426, -174.423, 3.78992, 64.9522, 0.170589, 66.8244
0, 2220.00000, 122.973, -32.5956, 123.174, -151.349, 126.242, 88.026, 0, 0, 3.89061, -55.6695, 3.88426, -174.423, 3.78989, 64.9521, 0.170633, 66.8221
0, 2280.00000, 122.973, -32.5959, 123.174, -151.349, 126.242, 88.0259, 0, 0, 3.89061, -55.6699, 3.88426, -174.423, 3.78987, 64.952, 0.170673, 66.82
0, 2340.00000, 122.973, -32.5962, 123.174, -151.349, 126.243, 88.0258, 0, 0, 3.89061, -55.6701, 3.88426, -174.423, 3.78985, 64.9519, 0.170709, 66.8181
0, 2400.00000, 122.974, -32.5965, 123.174, -151.349, 126.244, 88.0257, 0, 0, 3.89061, -55.6704, 3.88426, -174.423, 3.78983, 64.9518, 0.170741, 66.8164
0, 2460.00000, 122.974, -32.5967, 123.174, -151.349, 126.244, 88.0256, 0, 0, 3.8906, -55.6706, 3.88426, -174.423, 3.78981, 64.9517, 0.17077, 66.8149
0, 2520.00000, 122.974, -32.5969, 123.174, -151.349, 126.245, 88.0255, 0, 0, 3.8906, -55.6708, 3.88426, -174.423, 3.7898, 64.9516, 0.170796, 66.8136
0, 2580.00000, 122.974, -32.5971, 123.174, -151.349, 126.245, 88.0254, 0, 0, 3.8906, -55.671, 3.88426, -174.423, 3.78979, 64.9515, 0.17082, 66.8123
0, 2640.00000, 122.974, -32.5973, 123.174, -151.349, 126.246, 88.0253, 0, 0, 3.8906, -55.6712, 3.88426, -174.423, 3.78977, 64.9514, 0.170841, 66.8112
0, 2700.00000, 122.974, -32.5974, 123.174, -151.349, 126.246, 88.0253, 0, 0, 3.8906, -55.6714, 3.88426, -174.423, 3.78976, 64.9514, 0.17086, 66.8102
0, 2760.00000, 122.974, -32.5976, 123.174, -151.349, 126.246, 88.0252, 0, 0, 3.8906, -55.6715, 3.88426, -174.423, 3.78975, 64.9513, 0.170877, 66.8093
0, 2820.00000, 122.974, -32.5977, 123.174, -151.349, 126.246, 88.0252, 0, 0, 3.8906, -55.6716, 3.88426, -174.423, 3.78974, 64.9513, 0.170892, 66.8085
0, 2880.00000, 122.974, -32.5978, 123.174, -151.349, 126.247, 88.0251, 0, 0, 3.8906, -55.6717, 3.88426, -174.423, 3.78974, 64.9512, 0.170906, 66.8078
0, 2940.00000, 122.974, -32.5979, 123.174, -151.349, 126.247, 88.0251, 0, 0, 3.8906, -55.6718, 3.88426, -174.423, 3.78973, 64.9512, 0.170919, 66.8071
0, 3000.00000, 122.974, -32.598, 123.174, -151.349, 126.247, 88.0251, 0, 0, 3.8906, -55.6719, 3.88426, -174.423, 3.78972, 64.9511, 0.17093, 66.8066
0, 3060.00000, 122.974, -32.5981, 123.174, -151.349, 126.247, 88.025, 0, 0, 3.8906, -55.672, 3.88426, -174.423, 3.78972, 64.9511, 0.17094, 66.806
0, 3120.00000, 122.974, -32.5982, 123.174, -151.349, 126.248, 88.025, 0, 0, 3.8906, -55.6721, 3.88426, -174.423, 3.78971, 64.9511, 0.170949, 66.8055
0, 3180.00000, 122.974, -32.5982, 123.174, -151.349, 126.248, 88.025, 0, 0, 3.8906, -55.6721, 3.88426, -174.423, 3.78971, 64.9511, 0.170958, 66.8051
0, 3240.00000, 122.974, -32.5983, 123.174, -151.349, 126.248, 88.025, 0, 0, 3.8906, -55.6722, 3.88426, -174.423, 3.7897, 64.951, 0.170965, 66.8047
0, 3300.00000, 122.974, -32.5983, 123.174, -151.349, 126.248, 88.0249, 0, 0, 3.8906, -55.6723, 3.88426, -174.423, 3.7897, 64.951, 0.170972, 66.8044
0, 3360.00000, 122.974, -32.5984, 123.174, -151.349, 126.248, 88.0249, 0, 0, 3.8906, -55.6723, 3.88426, -174.423, 3.7897, 64.951, 0.170978, 66.8041
0, 3420.00000, 122.974, -32.5984, 123.174, -151.349, 126.248, 88.0249, 0, 0, 3.89059, -55.6724, 3.88426, -174.423, 3.78969, 64.951, 0.170983, 66.8038
0, 3480.00000, 122.974, -32.5985, 123.174, -151.349, 126.248, 88.0249, 0, 0, 3.89059, -55.6724, 3.88426, -174.423, 3.78969, 64.951, 0.170988, 66.8036
0, 3540.00000, 122.974, -32.5985, 123.174, -151.349, 126.248, 88.0249, 0, 0, 3.89059, -55.6724, 3.88426, -174.423, 3.78969, 64.951, 0.170992, 66.8033
1, 0.00000, 122.974, -32.5985, 123.174, -151.349, 126.248, 88.0249, 0, 0, 3.89059, -55.6725, 3.88426, -174.423, 3.78968, 64.9509, 0.170996, 66.8031
1, 60.00000, 122.974, -32.5986, 123.174, -151.349, 126.248, 88.0248, 0, 0, 3.89059, -55.6725, 3.88426, -174.423, 3.78968, 64.9509, 0.171, 66.8029
1, 120.00000, 122.974, -32.5986, 123.174, -151.349, 126.249, 88.0248, 0, 0, 3.89059, -55.6725, 3.88426, -174.423, 3.78968, 64.9509, 0.171003, 66.8028
1, 180.00000, 122.974, -32.5986, 123.174, -151.349, 126.249, 88.0248, 0, 0, 3.89059, -55.6725, 3.88426, -174.423, 3.78968, 64.9509, 0.171006, 66.8026
1, 240.00000, 122.974, -32.5986, 123.174, -151.349, 126.249, 88.0248, 0, 0, 3.89059, -55.6726, 3.88426, -174.423, 3.78968, 64.9509, 0.171008, 66.8025
1, 300.00000, 122.974, -32.5987, 123.174, -151.349, 126.249, 88.0248, 0, 0, 3.89059, -55.6726, 3.88426, -174.423, 3.78968, 64.9509, 0.171011, 66.8024
1, 360.00000, 122.974, -32.5987, 123.174, -151.349, 126.249, 88.0248, 0, 0, 3.89059, -55.6726, 3.88426, -174.423, 3.78968, 64.9509, 0.171013, 66.8023
1, 420.00000, 122.974, -32.5987, 123.174, -151.349, 126.249, 88.0248, 0, 0, 3.89059, -55.6726, 3.88426, -174.423, 3.78967, 64.9509, 0.171015, 66.8022
1, 480.00000, 122.974, -32.5987, 123.174, -151.349, 126.249, 88.0248, 0, 0, 3.89059, -55.6726, 3.88426, -174.423, 3.78967, 64.9509, 0.171016, 66.8021
1, 540.00000, 122.974, -32.5987, 123.174, -151.349, 126.249, 88.0248, 0, 0, 3.89059, -55.6726, 3.88426, -174.423, 3.78967, 64.9509, 0.171018, 66.802
1, 600.00000, 122.974, -32.5987, 123.174, -151.349, 126.249, 88.0248, 0, 0, 3.89059, -55.6726, 3.88426, -174.423, 3.78967, 64.9509, 0.171019, 66.8019
1, 660.00000, 122.974, -32.5987, 123.174, -151.349, 126.249, 88.0248, 0, 0, 3.89059, -55.6726, 3.88426, -174.423, 3.78967, 64.9509, 0.17102, 66.8019
1, 720.00000, 122.974, -32.5987, 123.174, -151.349, 126.249, 88.0248, 0, 0, 3.89059, -55.6727, 3.88426, -174.423, 3.78967, 64.9509, 0.171021, 66.8018
1, 780.00000, 122.974, -32.5988, 123.174, -151.349, 126.249, 88.0248, 0, 0, 3.89059, -55.6727, 3.88426, -174.423, 3.78967, 64.9509, 0.171022, 66.8017
1, 840.00000, 122.974, -32.5988, 123.174, -151.349, 126.249, 88.0248, 0, 0, 3.89059, -55.6727, 3.88426, -174.423, 3.78967, 64.9509, 0.171023, 66.8017
1, 900.00000, 122.974, -32.5988, 123.174, -151.349, 126.249, 88.0248, 0, 0, 3.89059, -55.6727, 3.88426, -174.423, 3.78967, 64.9509, 0.171024, 66.8017
1, 960.00000, 122.974, -32.5988, 123.174, -151.349, 126.249, 88.0248, 0, 0, 3.89059, -55.6727, 3.88426, -174.423, 3.78967, 64.9509, 0.171025, 66.8016
1, 1020.00000, 122.974, -32.5988, 123.174, -151.349, 126.249, 88.0248, 0, 0, 3.89059, -55.6727, 3.88426, -174.423, 3.78967, 64.9509, 0.171026, 66.8016
1, 1080.00000, 122.974, -32.5988, 123.174, -151.349, 126.249, 88.0248, 0, 0, 3.89059, -55.6727, 3.88426, -174.423, 3.78967, 64.9508, 0.171026, 66.8016
1, 1140.00000, 122.974, -32.5988, 123.174, -151.349, 126.249, 88.0248, 0, 0, 3.89059, -55.6727, 3.88426, -174.423, 3.78967, 64.9508, 0.171027, 66.8015
1, 1200.00000, 122.974, -32.5988, 123.174, -151.349, 126.249, 88.0248, 0, 0, 3.89059, -55.6727, 3.88426, -174.423, 3.78967, 64.9508, 0.171027, 66.8015
1, 1260.00000, 122.974, -32.5988, 123.174, -151.349, 126.249, 88.0248, 0, 0, 3.89059, -55.6727, 3.88426, -174.423, 3.78967, 64.9508, 0.171028, 66.8015
1, 1320.00000, 122.974, -32.5988, 123.174, -151.349, 126.249, 88.0248, 0, 0, 3.89059, -55.6727, 3.88426, -174.423, 3.78967, 64.9508, 0.171028, 66.8015
1, 1380.00000, 122.974, -32.5988, 123.174, -151.349, 126.249, 88.0248, 0, 0, 3.89059, -55.6727, 3.88426, -174.423, 3.78967, 64.9508, 0.171028, 66.8014
1, 1440.00000, 122.974, -32.5988, 123.174, -151.349, 126.249, 88.0248, 0, 0, 3.89059, -55.6727, 3.88426, -174.423, 3.78967, 64.9508, 0.171029, 66.8014
1, 1500.00000, 122.974, -32.5988, 123.174, -151.349, 126.249, 88.0248, 0, 0, 3.89059, -55.6727, 3.88426, -174.423, 3.78967, 64.9508, 0.171029, 66.8014
1, 1560.00000, 122.974, -32.5988, 123.174, -151.349, 126.249, 88.0248, 0, 0, 3.89059, -55.6727, 3.88426, -174.423, 3.78967, 64.9508, 0.171029, 66.8014
1, 1620.00000, 122.974, -32.5988, 123.174, -151.349, 126.249, 88.0248, 0, 0, 3.89059, -55.6727, 3.88426, -174.423, 3.78967, 64.9508, 0.171029, 66.8014
1, 1680.00000, 122.974, -32.5988, 123.174, -151.349, 126.249, 88.0248, 0, 0, 3.89059, -55.6727, 3.88426, -174.423, 3.78967, 64.9508, 0.17103, 66.8014
1, 1740.00000, 122.974, -32.5988, 123.174, -151.349, 126.249, 88.0248, 0, 0, 3.89059, -55.6727, 3.88426, -174.423, 3.78967, 64.9508, 0.17103, 66.8014
1, 1800.00000, 122.974, -32.5988, 123.174, -151.349, 126.249, 88.0247, 0, 0, 3.89059, -55.6727, 3.88426, -174.423, 3.78967, 64.9508, 0.17103, 66.8014
1, 1860.00000, 122.974, -32.5988, 123.174, -151.349, 126.249, 88.0247, 0, 0, 3.89059, -55.6727, 3.88426, -174.423, 3.78967, 64.9508, 0.17103, 66.8013
1, 1920.00000, 122.974, -32.5988, 123.174, -151.349, 126.249, 88.0247, 0, 0, 3.89059, -55.6727, 3.88426, -174.423, 3.78967, 64.9508, 0.17103, 66.8013
1, 1980.00000, 122.974, -32.5988, 123.174, -151.349, 126.249, 88.0247, 0, 0, 3.89059, -55.6727, 3.88426, -174.423, 3.78967, 64.9508, 0.17103, 66.8013
1, 2040.00000, 122.974, -32.5988, 123.174, -151.349, 126.249, 88.0247, 0, 0, 3.89059, -55.6727, 3.88426, -174.423, 3.78967, 64.9508, 0.17103, 66.8013
1, 2100.00000, 122.974, -32.5988, 123.174, -151.349, 126.249, 88.0247, 0, 0, 3.89059, -55.6727, 3.88426, -174.423, 3.78967, 64.9508, 0.171031, 66.8013
1, 2160.00000, 122.974, -32.5988, 123.174, -151.349, 126.249, 88.0247, 0, 0, 3.89059, -55.6727, 3.88426, -174.423, 3.78967, 64.9508, 0.171031, 66.8013
1, 2220.00000, 122.974, -32.5988, 123.174, -151.349, 126.249, 88.0247, 0, 0, 3.89059, -55.6727, 3.88426, -174.423, 3.78966, 64.9508, 0.171031, 66.8013
1, 2280.00000, 122.974, -32.5988, 123.174, -151.349, 126.249, 88.0247, 0, 0, 3.89059, -55.6727, 3.88426, -174.423, 3.78966, 64.9508, 0.171031, 66.8013
1, 2340.00000, 122.974, -32.5988, 123.174, -151.349, 126.249, 88.0247, 0, 0, 3.89059, -55.6727, 3.88426, -174.423, 3.78966, 64.9508, 0.171031, 66.8013
1, 2400.00000, 122.974, -32.5988, 123.174, -151.349, 126.249, 88.0247, 0, 0, 3.89059, -55.6727, 3.88426, -174.423, 3.78966, 64.9508, 0.171031, 66.8013
1, 2460.00000, 122.974, -32.5988, 123.174, -151.349, 126.249, 88.0247, 0, 0, 3.89059, -55.6727, 3.88426, -174.423, 3.78966, 64.9508, 0.171031, 66.8013
1, 2520.00000, 122.974, -32.5988, 123.174, -151.349, 126.249, 88.0247, 0, 0, 3.89059, -55.6727, 3.88426, -174.423, 3.78966, 64.9508, 0.171031, 66.8013
1, 2580.00000, 122.974, -32.5988, 123.174, -151.349, 126.249, 88.0247, 0, 0, 3.89059, -55.6727, 3.88426, -174.423, 3.78966, 64.9508, 0.171031, 66.8013
1, 2640.00000, 122.974, -32.5988, 123.174, -151.349, 126.249, 88.0247, 0, 0, 3.89059, -55.6727, 3.88426, -174.423, 3.78966, 64.9508, 0.171031, 66.8013
1, 2700.00000, 122.974, -32.5988, 123.174, -151.349, 126.249, 88.0247, 0, 0, 3.89059, -55.6727, 3.88426, -174.423, 3.78966, 64.9508, 0.171031, 66.8013
1, 2760.00000, 122.974, -32.5988, 123.174, -151.349, 126.249, 88.0247, 0, 0, 3.89059, -55.6727, 3.88426, -174.423, 3.78966, 64.9508, 0.171031, 66.8013
1, 2820.00000, 122.974, -32.5988, 123.174, -151.349, 126.249, 88.0247, 0, 0, 3.89059, -55.6727, 3.88426, -174.423, 3.78966, 64.9508, 0.171031, 66.8013
1, 2880.00000, 122.974, -32.5988, 123.174, -151.349, 126.249, 88.0247, 0, 0, 3.89059, -55.6727, 3.88426, -174.423, 3.78966, 64.9508, 0.171031, 66.8013
1, 2940.00000, 122.974, -32.5988, 123.174, -151.349, 126.249, 88.0247, 0, 0, 3.89059, -55.6727, 3.88426, -174.423, 3.78966, 64.9508, 0.171031, 66.8013
1, 3000.00000, 122.974, -32.5988, 123.174, -151.349, 126.249, 88.0247, 0, 0, 3.89059, -55.6727, 3.88426, -174.423, 3.78966, 64.9508, 0.171031, 66.8013
1, 3060.00000, 122.974, -32.5988, 123.174, -151.349, 126.249, 88.0247, 0, 0, 3.89059, -55.6727, 3.88426, -174.423, 3.78966, 64.9508, 0.171031, 66.8013
1, 3120.00000, 122.974, -32.5988, 123.174, -151.349, 126.249, 88.0247, 0, 0, 3.89059, -55.6727, 3.88426, -174.423, 3.78966, 64.9508, 0.171031, 66.8013
1, 3180.00000, 122.974, -32.5988, 123.174, -151.349, 126.249, 88.0247, 0, 0, 3.89059, -55.6727, 3.88426, -174.423, 3.78966, 64.9508, 0.171031, 66.8013
1, 3240.00000, 122.974, -32.5988, 123.174, -151.349, 126.249, 88.0247, 0, 0, 3.89059, -55.6727, 3.88426, -174.423, 3.78966, 64.9508, 0.171031, 66.8013
1, 3300.00000, 122.974, -32.5988, 123.174, -151.349, 126.249, 88.0247, 0, 0, 3.89059, -55.6727, 3.88426, -174.423, 3.78966, 64.9508, 0.171031, 66.8013
1, 3360.00000, 122.974, -32.5988, 123.174, -151.349, 126.249, 88.0247, 0, 0, 3.89059, -55.6727, 3.88426, -174.423, 3.78966, 64.9508, 0.171031, 66.8013
1, 3420.00000, 122.974, -32.5988, 123.174, -151.349, 126.249, 88.0247, 0, 0, 3.89059, -55.6727, 3.88426, -174.423, 3.78966, 64.9508, 0.171031, 66.8013
1, 3480.00000, 122.974, -32.5988, 123.174, -151.349, 126.249, 88.0247, 0, 0, 3.89059, -55.6727, 3.88426, -174.423, 3.78966, 64.9508, 0.171031, 66.8013
1, 3540.00000, 122.974, -32.5988, 123.174, -151.349, 126.249, 88.0247, 0, 0, 3.89059, -55.6727, 3.88426, -174.423, 3.78966, 64.9508, 0.171031, 66.8013
2, 0.00000, 122.974, -32.5988, 123.174, -151.349, 126.249, 88.0247, 0, 0, 3.89059, -55.6727, 3.88426, -174.423, 3.78966, 64.9508, 0.171031, 66.8013
2, 60.00000, 122.974, -32.5988, 123.174, -151.349, 126.249, 88.0247, 0, 0, 3.89059, -55.6727, 3.88426, -174.423, 3.78966, 64.9508, 0.171031, 66.8013
2, 120.00000, 122.974, -32.5988, 123.174, -151.349, 126.249, 88.0247, 0, 0, 3.89059, -55.6727, 3.88426, -174.423, 3.78966, 64.9508, 0.171031, 66.8013
2, 180.00000, 122.974, -32.5988, 123.174, -151.349, 126.249, 88.0247, 0, 0, 3.89059, -55.6727, 3.88426, -174.423, 3.78966, 64.9508, 0.171031, 66.8013
2, 240.00000, 122.974, -32.5988, 123.174, -151.349, 126.249, 88.0247, 0, 0, 3.89059, -55.6727, 3.88426, -174.423, 3.78966, 64.9508, 0.171031, 66.8013
2, 300.00000, 122.974, -32.5988, 123.174, -151.349, 126.249, 88.0247, 0, 0, 3.89059, -55.6727, 3.88426, -174.423, 3.78966, 64.9508, 0.171031, 66.8013
2, 360.00000, 122.974, -32.5988, 123.174, -151.349, 126.249, 88.0247, 0, 0, 3.89059, -55.6727, 3.88426, -174.423, 3.78966, 64.9508, 0.171031, 66.8013
2, 420.00000, 122.974, -32.5988, 123.174, -151.349, 126.249, 88.0247, 0, 0, 3.89059, -55.6727, 3.88426, -174.423, 3.78966, 64.9508, 0.171031, 66.8013
2, 480.00000, 122.974, -32.5988, 123.174, -151.349, 126.249, 88.0247, 0, 0, 3.89059, -55.6727, 3.88426, -174.423, 3.78966, 64.9508, 0.171031, 66.8013
2, 540.00000, 122.974, -32.5988, 123.174, -151.349, 126.249, 88.0247, 0, 0, 3.89059, -55.6727, 3.88426, -174.423, 3.78966, 64.9508, 0.171031, 66.8013
2, 600.00000, 122.974, -32.5988, 123.174, -151.349, 126.249, 88.0247, 0, 0, 3.89059, -55.6727, 3.88426, -174.423, 3.78966, 64.9508, 0.171031, 66.8013
2, 660.00000, 122.974, -32.5988, 123.174, -151.349, 126.249, 88.0247, 0, 0, 3.89059, -55.6727, 3.88426, -174.423, 3.78966, 64.9508, 0.171031, 66.8013
2, 720.00000, 122.974, -32.5988, 123.174, -151.349, 126.249, 88.0247, 0, 0, 3.89059, -55.6727, 3.88426, -174.423, 3.78966, 64.9508, 0.171031, 66.8013
