hour,t(sec),V1,VAngle1,V2,VAngle2,V3,VAngle3,V4,VAngle4,I1,IAngle1,I2,IAngle2,I3,IAngle3,I4,IAngle4
0, 60.00000, 119.539, -31.0386, 120.459, -150.777, 121.006, 88.75, 0, 0, 5.7586, -54.1121, 5.80777, -173.851, 5.80227, 65.6766, 0.0087858, 1.63898
0, 120.00000, 119.539, -31.0386, 120.459, -150.777, 121.006, 88.75, 0, 0, 5.75851, -54.1125, 5.8077, -173.851, 5.80246, 65.676, 0.00866615, 0.32804
0, 180.00000, 119.539, -31.0386, 120.459, -150.777, 121.006, 88.75, 0, 0, 5.75851, -54.1125, 5.8077, -173.851, 5.80246, 65.676, 0.00866577, 0.322429
0, 240.00000, 119.539, -31.0386, 120.459, -150.777, 121.006, 88.75, 0, 0, 5.75851, -54.1125, 5.8077, -173.851, 5.80246, 65.676, 0.00866577, 0.322404
0, 300.00000, 119.539, -31.0386, 120.459, -150.777, 121.006, 88.75, 0, 0, 5.75851, -54.1125, 5.8077, -173.851, 5.80246, 65.676, 0.00866577, 0.322404
0, 360.00000, 119.539, -31.0386, 120.459, -150.777, 121.006, 88.75, 0, 0, 5.75851, -54.1125, 5.8077, -173.851, 5.80246, 65.676, 0.00866577, 0.322404
0, 420.00000, 119.539, -31.0386, 120.459, -150.777, 121.006, 88.75, 0, 0, 5.75851, -54.1125, 5.8077, -173.851, 5.80246, 65.676, 0.00866577, 0.322404
0, 480.00000, 119.539, -31.0386, 120.459, -150.777, 121.006, 88.75, 0, 0, 5.75851, -54.1125, 5.8077, -173.851, 5.80246, 65.676, 0.00866577, 0.322404
0, 540.00000, 119.539, -31.0386, 120.459, -150.777, 121.006, 88.75, 0, 0, 5.75851, -54.1125, 5.8077, -173.851, 5.80246, 65.676, 0.00866577, 0.322404
0, 600.00000, 119.539, -31.0386, 120.459, -150.777, 121.006, 88.75, 0, 0, 5.75851, -54.1125, 5.8077, -173.851, 5.80246, 65.676, 0.00866577, 0.322404
0, 660.00000, 119.539, -31.0386, 120.459, -150.777, 121.006, 88.75, 0, 0, 5.75851, -54.1125, 5.8077, -173.851, 5.80246, 65.676, 0.00866577, 0.322404
0, 720.00000, 119.539, -31.0386, 120.459, -150.777, 121.006, 88.75, 0, 0, 5.75851, -54.1125, 5.8077, -173.851, 5.80246, 65.676, 0.00866577, 0.322404
0, 780.00000, 119.539, -31.0386, 120.459, -150.777, 121.006, 88.75, 0, 0, 5.75851, -54.1125, 5.8077, -173.851, 5.80246, 65.676, 0.00866577, 0.322404
0, 840.00000, 119.539, -31.0386, 120.459, -150.777, 121.006, 88.75, 0, 0, 5.75851, -54.1125, 5.8077, -173.851, 5.80246, 65.676, 0.00866577, 0.322404
0, 900.00000, 119.539, -31.0386, 120.459, -150.777, 121.006, 88.75, 0, 0, 5.75851, -54.1125, 5.8077, -173.851, 5.80246, 65.676, 0.00866577, 0.322404
0, 960.00000, 117.761, -31.5255, 118.616, -150.402, 120.89, 88.7105, 0, 0, 5.99142, -54.5988, 6.03974, -173.476, 6.14413, 65.6367, 0.0274916, -99.9738
0, 1020.00000, 117.761, -31.5255, 118.616, -150.402, 120.89, 88.7105, 0, 0, 5.99126, -54.5994, 6.03958, -173.476, 6.14414, 65.6366, 0.0275643, -100.033
0, 1080.00000, 117.761, -31.5255, 118.616, -150.402, 120.89, 88.7105, 0, 0, 5.99126, -54.5994, 6.03958, -173.476, 6.14414, 65.6366, 0.0275645, -100.034
0, 1140.00000, 117.761, -31.5255, 118.616, -150.402, 120.89, 88.7105, 0, 0, 5.99126, -54.5994, 6.03958, -173.476, 6.14414, 65.6366, 0.0275645, -100.034
0, 1200.00000, 117.761, -31.5255, 118.616, -150.402, 120.89, 88.7105, 0, 0, 5.99126, -54.5994, 6.03958, -173.476, 6.14414, 65.6366, 0.0275645, -100.034
0, 1260.00000, 117.761, -31.5255, 118.616, -150.402, 120.89, 88.7105, 0, 0, 5.99126, -54.5994, 6.03958, -173.476, 6.14414, 65.6366, 0.0275645, -100.034
0, 1320.00000, 117.761, -31.5255, 118.616, -150.402, 120.89, 88.7105, 0, 0, 5.99126, -54.5994, 6.03958, -173.476, 6.14414, 65.6366, 0.0275645, -100.034
0, 1380.00000, 117.761, -31.5255, 118.616, -150.402, 120.89, 88.7105, 0, 0, 5.99126, -54.5994, 6.03958, -173.476, 6.14414, 65.6366, 0.0275645, -100.034
0, 1440.00000, 117.761, -31.5255, 118.616, -150.402, 120.89, 88.7105, 0, 0, 5.99126, -54.5994, 6.03958, -173.476, 6.14414, 65.6366, 0.0275645, -100.034
0, 1500.00000, 117.761, -31.5255, 118.616, -150.402, 120.89, 88.7105, 0, 0, 5.99126, -54.5994, 6.03958, -173.476, 6.14414, 65.6366, 0.0275645, -100.034
0, 1560.00000, 117.761, -31.5255, 118.616, -150.402, 120.89, 88.7105, 0, 0, 5.99126, -54.5994, 6.03958, -173.476, 6.14414, 65.6366, 0.0275645, -100.034
0, 1620.00000, 117.761, -31.5255, 118.616, -150.402, 120.89, 88.7105, 0, 0, 5.99126, -54.5994, 6.03958, -173.476, 6.14414, 65.6366, 0.0275645, -100.034
0, 1680.00000, 117.761, -31.5255, 118.616, -150.402, 120.89, 88.7105, 0, 0, 5.99126, -54.5994, 6.03958, -173.476, 6.14414, 65.6366, 0.0275645, -100.034
0, 1740.00000, 117.761, -31.5255, 118.616, -150.402, 120.89, 88.7105, 0, 0, 5.99126, -54.5994, 6.03958, -173.476, 6.14414, 65.6366, 0.0275645, -100.034
0, 1800.00000, 117.761, -31.5255, 118.616, -150.402, 120.89, 88.7105, 0, 0, 5.99126, -54.5994, 6.03958, -173.476, 6.14414, 65.6366, 0.0275645, -100.034
0, 1860.00000, 117.909, -31.5112, 118.761, -150.387, 121.041, 88.7287, 0, 0, 6.01789, -54.5849, 6.06611, -173.461, 6.15557, 65.6533, 0.0130418, -82.823
0, 1920.00000, 117.909, -31.5112, 118.761, -150.387, 121.042, 88.7288, 0, 0, 6.01784, -54.5851, 6.06616, -173.461, 6.15506, 65.6549, 0.0126989, -80.5346
0, 1980.00000, 117.909, -31.5112, 118.761, -150.387, 121.042, 88.7288, 0, 0, 6.01784, -54.5851, 6.06616, -173.461, 6.15506, 65.6549, 0.0126973, -80.5265
0, 2040.00000, 117.909, -31.5112, 118.761, -150.387, 121.042, 88.7288, 0, 0, 6.01784, -54.5851, 6.06616, -173.461, 6.15506, 65.6549, 0.0126973, -80.5264
0, 2100.00000, 117.909, -31.5112, 118.761, -150.387, 121.042, 88.7288, 0, 0, 6.01784, -54.5851, 6.06616, -173.461, 6.15506, 65.6549, 0.0126973, -80.5264
0, 2160.00000, 117.909, -31.5112, 118.761, -150.387, 121.042, 88.7288, 0, 0, 6.01784, -54.5851, 6.06616, -173.461, 6.15506, 65.6549, 0.0126973, -80.5264
0, 2220.00000, 117.909, -31.5112, 118.761, -150.387, 121.042, 88.7288, 0, 0, 6.01784, -54.5851, 6.06616, -173.461, 6.15506, 65.6549, 0.0126973, -80.5264
0, 2280.00000, 117.909, -31.5112, 118.761, -150.387, 121.042, 88.7288, 0, 0, 6.01784, -54.5851, 6.06616, -173.461, 6.15506, 65.6549, 0.0126973, -80.5264
0, 2340.00000, 117.909, -31.5112, 118.761, -150.387, 121.042, 88.7288, 0, 0, 6.01784, -54.5851, 6.06616, -173.461, 6.15506, 65.6549, 0.0126973, -80.5264
0, 2400.00000, 117.909, -31.5112, 118.761, -150.387, 121.042, 88.7288, 0, 0, 6.01784, -54.5851, 6.06616, -173.461, 6.15506, 65.6549, 0.0126973, -80.5264
0, 2460.00000, 117.909, -31.5112, 118.761, -150.387, 121.042, 88.7288, 0, 0, 6.01784, -54.5851, 6.06616, -173.461, 6.15506, 65.6549, 0.0126973, -80.5264
0, 2520.00000, 117.909, -31.5112, 118.761, -150.387, 121.042, 88.7288, 0, 0, 6.01784, -54.5851, 6.06616, -173.461, 6.15506, 65.6549, 0.0126973, -80.5264
0, 2580.00000, 117.909, -31.5112, 118.761, -150.387, 121.042, 88.7288, 0, 0, 6.01784, -54.5851, 6.06616, -173.461, 6.15506, 65.6549, 0.0126973, -80.5264
0, 2640.00000, 117.909, -31.5112, 118.761, -150.387, 121.042, 88.7288, 0, 0, 6.01784, -54.5851, 6.06616, -173.461, 6.15506, 65.6549, 0.0126973, -80.5264
0, 2700.00000, 117.909, -31.5112, 118.761, -150.387, 121.042, 88.7288, 0, 0, 6.01784, -54.5851, 6.06616, -173.461, 6.15506, 65.6549, 0.0126973, -80.5264
0, 2760.00000, 118.204, -31.4783, 119.047, -150.354, 121.34, 88.7694, 0, 0, 5.73972, -54.5524, 5.78522, -173.428, 5.84003, 65.6952, 0.0214201, 46.6746
0, 2820.00000, 118.204, -31.4782, 119.047, -150.354, 121.341, 88.7694, 0, 0, 5.73974, -54.5522, 5.78524, -173.428, 5.83992, 65.6955, 0.021528, 46.6976
0, 2880.00000, 118.204, -31.4782, 119.047, -150.354, 121.341, 88.7694, 0, 0, 5.73974, -54.5522, 5.78524, -173.428, 5.83992, 65.6955, 0.0215288, 46.6976
0, 2940.00000, 118.204, -31.4782, 119.047, -150.354, 121.341, 88.7694, 0, 0, 5.73974, -54.5522, 5.78524, -173.428, 5.83992, 65.6955, 0.0215288, 46.6976
0, 3000.00000, 118.204, -31.4782, 119.047, -150.354, 121.341, 88.7694, 0, 0, 5.73974, -54.5522, 5.78524, -173.428, 5.83992, 65.6955, 0.0215288, 46.6976
0, 3060.00000, 118.204, -31.4782, 119.047, -150.354, 121.341, 88.7694, 0, 0, 5.73974, -54.5522, 5.78524, -173.428, 5.83992, 65.6955, 0.0215288, 46.6976
0, 3120.00000, 118.204, -31.4782, 119.047, -150.354, 121.341, 88.7694, 0, 0, 5.73974, -54.5522, 5.78524, -173.428, 5.83992, 65.6955, 0.0215288, 46.6976
0, 3180.00000, 118.204, -31.4782, 119.047, -150.354, 121.341, 88.7694, 0, 0, 5.73974, -54.5522, 5.78524, -173.428, 5.83992, 65.6955, 0.0215288, 46.6976
0, 3240.00000, 118.204, -31.4782, 119.047, -150.354, 121.341, 88.7694, 0, 0, 5.73974, -54.5522, 5.78524, -173.428, 5.83992, 65.6955, 0.0215288, 46.6976
0, 3300.00000, 118.204, -31.4782, 119.047, -150.354, 121.341, 88.7694, 0, 0, 5.73974, -54.5522, 5.78524, -173.428, 5.83992, 65.6955, 0.0215288, 46.6976
0, 3360.00000, 118.204, -31.4782, 119.047, -150.354, 121.341, 88.7694, 0, 0, 5.73974, -54.5522, 5.78524, -173.428, 5.83992, 65.6955, 0.0215288, 46.6976
0, 3420.00000, 118.204, -31.4782, 119.047, -150.354, 121.341, 88.7694, 0, 0, 5.73974, -54.5522, 5.78524, -173.428, 5.83992, 65.6955, 0.0215288, 46.6976
0, 3480.00000, 118.204, -31.4782, 119.047, -150.354, 121.341, 88.7694, 0, 0, 5.73974, -54.5522, 5.78524, -173.428, 5.83992, 65.6955, 0.0215288, 46.6976
0, 3540.00000, 118.204, -31.4782, 119.047, -150.354, 121.341, 88.7694, 0, 0, 5.73974, -54.5522, 5.78524, -173.428, 5.83992, 65.6955, 0.0215288, 46.6976
1, 0.00000, 118.204, -31.4782, 119.047, -150.354, 121.341, 88.7694, 0, 0, 5.73974, -54.5522, 5.78524, -173.428, 5.83992, 65.6955, 0.0215288, 46.6976
1, 60.00000, 118.395, -31.4538, 119.233, -150.33, 121.538, 88.7984, 0, 0, 5.68282, -54.5279, 5.72749, -173.403, 5.76237, 65.7242, 0.0402246, 55.6148
1, 120.00000, 118.395, -31.4538, 119.233, -150.33, 121.538, 88.7985, 0, 0, 5.68284, -54.5277, 5.7275, -173.404, 5.76227, 65.7245, 0.0403137, 55.6047
1, 180.00000, 118.395, -31.4538, 119.233, -150.33, 121.538, 88.7985, 0, 0, 5.68284, -54.5277, 5.7275, -173.404, 5.76227, 65.7245, 0.0403147, 55.6043
1, 240.00000, 118.395, -31.4538, 119.233, -150.33, 121.538, 88.7985, 0, 0, 5.68284, -54.5277, 5.7275, -173.404, 5.76227, 65.7245, 0.0403148, 55.6043
1, 300.00000, 118.395, -31.4538, 119.233, -150.33, 121.538, 88.7985, 0, 0, 5.68284, -54.5277, 5.7275, -173.404, 5.76227, 65.7245, 0.0403148, 55.6043
1, 360.00000, 118.395, -31.4538, 119.233, -150.33, 121.538, 88.7985, 0, 0, 5.68284, -54.5277, 5.7275, -173.404, 5.76227, 65.7245, 0.0403148, 55.6043
1, 420.00000, 118.395, -31.4538, 119.233, -150.33, 121.538, 88.7985, 0, 0, 5.68284, -54.5277, 5.7275, -173.404, 5.76227, 65.7245, 0.0403148, 55.6043
1, 480.00000, 118.395, -31.4538, 119.233, -150.33, 121.538, 88.7985, 0, 0, 5.68284, -54.5277, 5.7275, -173.404, 5.76227, 65.7245, 0.0403148, 55.6043
1, 540.00000, 118.395, -31.4538, 119.233, -150.33, 121.538, 88.7985, 0, 0, 5.68284, -54.5277, 5.7275, -173.404, 5.76227, 65.7245, 0.0403148, 55.6043
1, 600.00000, 118.395, -31.4538, 119.233, -150.33, 121.538, 88.7985, 0, 0, 5.68284, -54.5277, 5.7275, -173.404, 5.76227, 65.7245, 0.0403148, 55.6043
1, 660.00000, 118.395, -31.4538, 119.233, -150.33, 121.538, 88.7985, 0, 0, 5.68284, -54.5277, 5.7275, -173.404, 5.76227, 65.7245, 0.0403148, 55.6043
1, 720.00000, 118.395, -31.4538, 119.233, -150.33, 121.538, 88.7985, 0, 0, 5.68284, -54.5277, 5.7275, -173.404, 5.76227, 65.7245, 0.0403148, 55.6043
1, 780.00000, 118.395, -31.4538, 119.233, -150.33, 121.538, 88.7985, 0, 0, 5.68284, -54.5277, 5.7275, -173.404, 5.76227, 65.7245, 0.0403148, 55.6043
1, 840.00000, 118.395, -31.4538, 119.233, -150.33, 121.538, 88.7985, 0, 0, 5.68284, -54.5277, 5.7275, -173.404, 5.76227, 65.7245, 0.0403148, 55.6043
1, 900.00000, 118.395, -31.4538, 119.233, -150.33, 121.538, 88.7985, 0, 0, 5.68284, -54.5277, 5.7275, -173.404, 5.76227, 65.7245, 0.0403148, 55.6043
1, 960.00000, 118.434, -31.4507, 119.27, -150.327, 121.577, 88.8025, 0, 0, 5.65827, -54.5247, 5.70263, -173.401, 5.73363, 65.7281, 0.0437532, 56.4962
1, 1020.00000, 118.434, -31.4506, 119.27, -150.327, 121.578, 88.8026, 0, 0, 5.65829, -54.5245, 5.70266, -173.401, 5.73344, 65.7286, 0.0439626, 56.4762
1, 1080.00000, 118.434, -31.4506, 119.27, -150.327, 121.578, 88.8026, 0, 0, 5.65829, -54.5245, 5.70266, -173.401, 5.73344, 65.7286, 0.0439642, 56.4758
1, 1140.00000, 118.434, -31.4506, 119.27, -150.327, 121.578, 88.8026, 0, 0, 5.65829, -54.5245, 5.70266, -173.401, 5.73344, 65.7286, 0.0439642, 56.4758
1, 1200.00000, 118.434, -31.4506, 119.27, -150.327, 121.578, 88.8026, 0, 0, 5.65829, -54.5245, 5.70266, -173.401, 5.73344, 65.7286, 0.0439642, 56.4758
1, 1260.00000, 118.434, -31.4506, 119.27, -150.327, 121.578, 88.8026, 0, 0, 5.65829, -54.5245, 5.70266, -173.401, 5.73344, 65.7286, 0.0439642, 56.4758
1, 1320.00000, 118.434, -31.4506, 119.27, -150.327, 121.578, 88.8026, 0, 0, 5.65829, -54.5245, 5.70266, -173.401, 5.73344, 65.7286, 0.0439642, 56.4758
1, 1380.00000, 118.434, -31.4506, 119.27, -150.327, 121.578, 88.8026, 0, 0, 5.65829, -54.5245, 5.70266, -173.401, 5.73344, 65.7286, 0.0439642, 56.4758
1, 1440.00000, 118.434, -31.4506, 119.27, -150.327, 121.578, 88.8026, 0, 0, 5.65829, -54.5245, 5.70266, -173.401, 5.73344, 65.7286, 0.0439642, 56.4758
1, 1500.00000, 118.434, -31.4506, 119.27, -150.327, 121.578, 88.8026, 0, 0, 5.65829, -54.5245, 5.70266, -173.401, 5.73344, 65.7286, 0.0439642, 56.4758
1, 1560.00000, 118.434, -31.4506, 119.27, -150.327, 121.578, 88.8026, 0, 0, 5.65829, -54.5245, 5.70266, -173.401, 5.73344, 65.7286, 0.0439642, 56.4758
1, 1620.00000, 118.434, -31.4506, 119.27, -150.327, 121.578, 88.8026, 0, 0, 5.65829, -54.5245, 5.70266, -173.401, 5.73344, 65.7286, 0.0439642, 56.4758
1, 1680.00000, 118.434, -31.4506, 119.27, -150.327, 121.578, 88.8026, 0, 0, 5.65829, -54.5245, 5.70266, -173.401, 5.73344, 65.7286, 0.0439642, 56.4758
1, 1740.00000, 118.434, -31.4506, 119.27, -150.327, 121.578, 88.8026, 0, 0, 5.65829, -54.5245, 5.70266, -173.401, 5.73344, 65.7286, 0.0439642, 56.4758
1, 1800.00000, 118.434, -31.4506, 119.27, -150.327, 121.578, 88.8026, 0, 0, 5.65829, -54.5245, 5.70266, -173.401, 5.73344, 65.7286, 0.0439642, 56.4758
1, 1860.00000, 118.269, -31.4753, 119.111, -150.351, 121.408, 88.7739, 0, 0, 5.7858, -54.5491, 5.83156, -173.425, 5.87986, 65.7003, 0.0283083, 51.0683
1, 1920.00000, 118.269, -31.4753, 119.111, -150.351, 121.407, 88.7739, 0, 0, 5.78578, -54.5493, 5.83155, -173.425, 5.87994, 65.7, 0.0282277, 51.06
1, 1980.00000, 118.269, -31.4753, 119.111, -150.351, 121.407, 88.7739, 0, 0, 5.78578, -54.5493, 5.83155, -173.425, 5.87995, 65.7, 0.028227, 51.0602
1, 2040.00000, 118.269, -31.4753, 119.111, -150.351, 121.407, 88.7739, 0, 0, 5.78578, -54.5493, 5.83155, -173.425, 5.87995, 65.7, 0.0282269, 51.0602
1, 2100.00000, 118.269, -31.4753, 119.111, -150.351, 121.407, 88.7739, 0, 0, 5.78578, -54.5493, 5.83155, -173.425, 5.87995, 65.7, 0.0282269, 51.0602
1, 2160.00000, 118.269, -31.4753, 119.111, -150.351, 121.407, 88.7739, 0, 0, 5.78578, -54.5493, 5.83155, -173.425, 5.87995, 65.7, 0.0282269, 51.0602
1, 2220.00000, 118.269, -31.4753, 119.111, -150.351, 121.407, 88.7739, 0, 0, 5.78578, -54.5493, 5.83155, -173.425, 5.87995, 65.7, 0.0282269, 51.0602
1, 2280.00000, 118.269, -31.4753, 119.111, -150.351, 121.407, 88.7739, 0, 0, 5.78578, -54.5493, 5.83155, -173.425, 5.87995, 65.7, 0.0282269, 51.0602
1, 2340.00000, 118.269, -31.4753, 119.111, -150.351, 121.407, 88.7739, 0, 0, 5.78578, -54.5493, 5.83155, -173.425, 5.87995, 65.7, 0.0282269, 51.0602
1, 2400.00000, 118.269, -31.4753, 119.111, -150.351, 121.407, 88.7739, 0, 0, 5.78578, -54.5493, 5.83155, -173.425, 5.87995, 65.7, 0.0282269, 51.0602
1, 2460.00000, 118.269, -31.4753, 119.111, -150.351, 121.407, 88.7739, 0, 0, 5.78578, -54.5493, 5.83155, -173.425, 5.87995, 65.7, 0.0282269, 51.0602
1, 2520.00000, 118.269, -31.4753, 119.111, -150.351, 121.407, 88.7739, 0, 0, 5.78578, -54.5493, 5.83155, -173.425, 5.87995, 65.7, 0.0282269, 51.0602
1, 2580.00000, 118.269, -31.4753, 119.111, -150.351, 121.407, 88.7739, 0, 0, 5.78578, -54.5493, 5.83155, -173.425, 5.87995, 65.7, 0.0282269, 51.0602
1, 2640.00000, 118.269, -31.4753, 119.111, -150.351, 121.407, 88.7739, 0, 0, 5.78578, -54.5493, 5.83155, -173.425, 5.87995, 65.7, 0.0282269, 51.0602
1, 2700.00000, 118.26, -31.4738, 118.947, -150.499, 121.013, 88.7528, 0, 0, 5.78528, -54.5475, 5.82268, -173.573, 5.89896, 65.6793, 0.0110343, -84.7392
1, 2760.00000, 118.638, -31.4279, 119.308, -150.453, 121.386, 88.8066, 0, 0, 5.47081, -54.5021, 5.50517, -173.527, 5.54175, 65.7325, 0.0274299, 55.1462
1, 2820.00000, 118.638, -31.4279, 119.308, -150.453, 121.386, 88.8066, 0, 0, 5.47085, -54.5018, 5.50519, -173.527, 5.54168, 65.7327, 0.0275185, 55.1924
1, 2880.00000, 118.638, -31.4279, 119.308, -150.453, 121.386, 88.8066, 0, 0, 5.47085, -54.5018, 5.50519, -173.527, 5.54168, 65.7327, 0.0275188, 55.1927
1, 2940.00000, 118.638, -31.4279, 119.308, -150.453, 121.386, 88.8066, 0, 0, 5.47085, -54.5018, 5.50519, -173.527, 5.54168, 65.7327, 0.0275188, 55.1927
1, 3000.00000, 118.638, -31.4279, 119.308, -150.453, 121.386, 88.8066, 0, 0, 5.47085, -54.5018, 5.50519, -173.527, 5.54168, 65.7327, 0.0275188, 55.1927
1, 3060.00000, 118.638, -31.4279, 119.308, -150.453, 121.386, 88.8066, 0, 0, 5.47085, -54.5018, 5.50519, -173.527, 5.54168, 65.7327, 0.0275188, 55.1927
1, 3120.00000, 118.638, -31.4279, 119.308, -150.453, 121.386, 88.8066, 0, 0, 5.47085, -54.5018, 5.50519, -173.527, 5.54168, 65.7327, 0.0275188, 55.1927
1, 3180.00000, 118.638, -31.4279, 119.308, -150.453, 121.386, 88.8066, 0, 0, 5.47085, -54.5018, 5.50519, -173.527, 5.54168, 65.7327, 0.0275188, 55.1927
1, 3240.00000, 118.638, -31.4279, 119.308, -150.453, 121.386, 88.8066, 0, 0, 5.47085, -54.5018, 5.50519, -173.527, 5.54168, 65.7327, 0.0275188, 55.1927
1, 3300.00000, 118.638, -31.4279, 119.308, -150.453, 121.386, 88.8066, 0, 0, 5.47085, -54.5018, 5.50519, -173.527, 5.54168, 65.7327, 0.0275188, 55.1927
1, 3360.00000, 118.638, -31.4279, 119.308, -150.453, 121.386, 88.8066, 0, 0, 5.47085, -54.5018, 5.50519, -173.527, 5.54168, 65.7327, 0.0275188, 55.1927
1, 3420.00000, 118.638, -31.4279, 119.308, -150.453, 121.386, 88.8066, 0, 0, 5.47085, -54.5018, 5.50519, -173.527, 5.54168, 65.7327, 0.0275188, 55.1927
1, 3480.00000, 118.638, -31.4279, 119.308, -150.453, 121.386, 88.8066, 0, 0, 5.47085, -54.5018, 5.50519, -173.527, 5.54168, 65.7327, 0.0275188, 55.1927
1, 3540.00000, 118.638, -31.4279, 119.308, -150.453, 121.386, 88.8066, 0, 0, 5.47085, -54.5018, 5.50519, -173.527, 5.54168, 65.7327, 0.0275188, 55.1927
2, 0.00000, 118.638, -31.4279, 119.308, -150.453, 121.386, 88.8066, 0, 0, 5.47085, -54.5018, 5.50519, -173.527, 5.54168, 65.7327, 0.0275188, 55.1927
2, 60.00000, 118.412, -31.4559, 119.092, -150.481, 121.162, 88.7738, 0, 0, 5.60581, -54.5297, 5.64155, -173.555, 5.70085, 65.7, 0.0075714, 22.9107
2, 120.00000, 118.412, -31.4559, 119.092, -150.481, 121.162, 88.7738, 0, 0, 5.60579, -54.5298, 5.64154, -173.555, 5.7009, 65.6999, 0.00753082, 22.5902
2, 180.00000, 118.412, -31.4559, 119.092, -150.481, 121.162, 88.7738, 0, 0, 5.60579, -54.5298, 5.64154, -173.555, 5.7009, 65.6999, 0.00753071, 22.5888
2, 240.00000, 118.412, -31.4559, 119.092, -150.481, 121.162, 88.7738, 0, 0, 5.60579, -54.5298, 5.64154, -173.555, 5.7009, 65.6999, 0.00753071, 22.5888
2, 300.00000, 118.412, -31.4559, 119.092, -150.481, 121.162, 88.7738, 0, 0, 5.60579, -54.5298, 5.64154, -173.555, 5.7009, 65.6999, 0.00753071, 22.5888
2, 360.00000, 118.412, -31.4559, 119.092, -150.481, 121.162, 88.7738, 0, 0, 5.60579, -54.5298, 5.64154, -173.555, 5.7009, 65.6999, 0.00753071, 22.5888
2, 420.00000, 118.412, -31.4559, 119.092, -150.481, 121.162, 88.7738, 0, 0, 5.60579, -54.5298, 5.64154, -173.555, 5.7009, 65.6999, 0.00753071, 22.5888
2, 480.00000, 118.412, -31.4559, 119.092, -150.481, 121.162, 88.7738, 0, 0, 5.60579, -54.5298, 5.64154, -173.555, 5.7009, 65.6999, 0.00753071, 22.5888
2, 540.00000, 119.994, -30.9922, 120.74, -150.882, 121.063, 88.7836, 0, 0, 5.68891, -54.0659, 5.72092, -173.957, 5.70549, 65.7096, 0.00891113, 66.5616
2, 600.00000, 119.994, -30.9922, 120.741, -150.882, 121.063, 88.7836, 0, 0, 5.68897, -54.0661, 5.7208, -173.956, 5.70556, 65.7097, 0.00887528, 67.5732
2, 660.00000, 119.994, -30.9922, 120.741, -150.882, 121.063, 88.7836, 0, 0, 5.68897, -54.0661, 5.7208, -173.956, 5.70556, 65.7097, 0.00887493, 67.5784
