hour,t(sec),"P1 (kW)","Q1 (kvar)","P2 (kW)","Q2 (kvar)","P3 (kW)","Q3 (kvar)","P4 (kW)","Q4 (kvar)"
0, 60.00000, 0.483693, 0.206048, 0.480273, 0.204595, 0.492586, 0.209839, 0, 0
0, 120.00000, 0.483687, 0.20605, 0.480267, 0.204593, 0.492592, 0.209843, 0, 0
0, 180.00000, 0.483687, 0.20605, 0.480267, 0.204593, 0.492592, 0.209843, 0, 0
0, 240.00000, 0.483687, 0.20605, 0.480267, 0.204593, 0.492592, 0.209843, 0, 0
0, 300.00000, 0.483687, 0.20605, 0.480267, 0.204593, 0.492592, 0.209843, 0, 0
0, 360.00000, 0.483687, 0.20605, 0.480267, 0.204593, 0.492592, 0.209843, 0, 0
0, 420.00000, 0.483687, 0.20605, 0.480267, 0.204593, 0.492592, 0.209843, 0, 0
0, 480.00000, 0.426258, 0.181589, 0.422969, 0.180185, 0.428561, 0.182568, 0, 0
0, 540.00000, 0.426266, 0.181589, 0.422976, 0.180187, 0.428556, 0.182564, 0, 0
0, 600.00000, 0.426266, 0.181589, 0.422976, 0.180187, 0.428556, 0.182564, 0, 0
0, 660.00000, 0.426266, 0.181589, 0.422976, 0.180187, 0.428556, 0.182564, 0, 0
0, 720.00000, 0.426266, 0.181589, 0.422976, 0.180187, 0.428556, 0.182564, 0, 0
0, 780.00000, 0.426266, 0.181589, 0.422976, 0.180187, 0.428556, 0.182564, 0, 0
0, 840.00000, 0.426266, 0.181589, 0.422976, 0.180187, 0.428556, 0.182564, 0, 0
0, 900.00000, 0.426266, 0.181589, 0.422976, 0.180187, 0.428556, 0.182564, 0, 0
0, 960.00000, 0.422708, 0.180067, 0.420785, 0.179253, 0.428548, 0.182559, 0, 0
0, 1020.00000, 0.422695, 0.180067, 0.420784, 0.179253, 0.428556, 0.182564, 0, 0
0, 1080.00000, 0.422695, 0.180067, 0.420784, 0.179253, 0.428556, 0.182564, 0, 0
0, 1140.00000, 0.426117, 0.18153, 0.420764, 0.179245, 0.42856, 0.182566, 0, 0
0, 1200.00000, 0.426127, 0.181529, 0.420763, 0.179244, 0.428556, 0.182564, 0, 0
0, 1260.00000, 0.426127, 0.181529, 0.420763, 0.179244, 0.428556, 0.182564, 0, 0
0, 1320.00000, 0.426127, 0.181529, 0.420763, 0.179244, 0.428556, 0.182564, 0, 0
0, 1380.00000, 0.426127, 0.181529, 0.420763, 0.179244, 0.428556, 0.182564, 0, 0
0, 1440.00000, 0.426127, 0.181529, 0.420763, 0.179244, 0.428556, 0.182564, 0, 0
0, 1500.00000, 0.426127, 0.181529, 0.420763, 0.179244, 0.428556, 0.182564, 0, 0
0, 1560.00000, 0.426127, 0.181529, 0.420763, 0.179244, 0.428556, 0.182564, 0, 0
0, 1620.00000, 0.426127, 0.181529, 0.420763, 0.179244, 0.428556, 0.182564, 0, 0
0, 1680.00000, 0.426127, 0.181529, 0.420763, 0.179244, 0.428556, 0.182564, 0, 0
0, 1740.00000, 0.426127, 0.181529, 0.420763, 0.179244, 0.428556, 0.182564, 0, 0
0, 1800.00000, 0.424646, 0.180898, 0.417914, 0.17803, 0.428557, 0.182565, 0, 0
0, 1860.00000, 0.424643, 0.180897, 0.417911, 0.178029, 0.428556, 0.182564, 0, 0
0, 1920.00000, 0.424643, 0.180897, 0.417911, 0.178029, 0.428556, 0.182564, 0, 0
0, 1980.00000, 0.424643, 0.180897, 0.417911, 0.178029, 0.428556, 0.182564, 0, 0
0, 2040.00000, 0.424643, 0.180897, 0.417911, 0.178029, 0.428556, 0.182564, 0, 0
0, 2100.00000, 0.424643, 0.180897, 0.417911, 0.178029, 0.428556, 0.182564, 0, 0
0, 2160.00000, 0.424643, 0.180897, 0.417911, 0.178029, 0.428556, 0.182564, 0, 0
0, 2220.00000, 0.424643, 0.180897, 0.417911, 0.178029, 0.428556, 0.182564, 0, 0
0, 2280.00000, 0.424643, 0.180897, 0.417911, 0.178029, 0.428556, 0.182564, 0, 0
0, 2340.00000, 0.424643, 0.180897, 0.417911, 0.178029, 0.428556, 0.182564, 0, 0
0, 2400.00000, 0.424643, 0.180897, 0.417911, 0.178029, 0.428556, 0.182564, 0, 0
0, 2460.00000, 0.424643, 0.180897, 0.417911, 0.178029, 0.428556, 0.182564, 0, 0
0, 2520.00000, 0.424643, 0.180897, 0.417911, 0.178029, 0.428556, 0.182564, 0, 0
0, 2580.00000, 0.424643, 0.180897, 0.417911, 0.178029, 0.428556, 0.182564, 0, 0
0, 2640.00000, 0.424643, 0.180897, 0.417911, 0.178029, 0.428556, 0.182564, 0, 0
0, 2700.00000, 0.424643, 0.180897, 0.417911, 0.178029, 0.428556, 0.182564, 0, 0
0, 2760.00000, 0.42811, 0.182375, 0.42291, 0.180163, 0.428554, 0.182563, 0, 0
0, 2820.00000, 0.428116, 0.182377, 0.422919, 0.180163, 0.428556, 0.182564, 0, 0
0, 2880.00000, 0.428116, 0.182377, 0.422919, 0.180163, 0.428556, 0.182564, 0, 0
0, 2940.00000, 0.428116, 0.182377, 0.422919, 0.180163, 0.428556, 0.182564, 0, 0
0, 3000.00000, 0.428116, 0.182377, 0.422919, 0.180163, 0.428556, 0.182564, 0, 0
0, 3060.00000, 0.428116, 0.182377, 0.422919, 0.180163, 0.428556, 0.182564, 0, 0
0, 3120.00000, 0.428116, 0.182377, 0.422919, 0.180163, 0.428556, 0.182564, 0, 0
0, 3180.00000, 0.428116, 0.182377, 0.422919, 0.180163, 0.428556, 0.182564, 0, 0
0, 3240.00000, 0.428116, 0.182377, 0.422919, 0.180163, 0.428556, 0.182564, 0, 0
0, 3300.00000, 0.428116, 0.182377, 0.422919, 0.180163, 0.428556, 0.182564, 0, 0
0, 3360.00000, 0.428116, 0.182377, 0.422919, 0.180163, 0.428556, 0.182564, 0, 0
0, 3420.00000, 0.428116, 0.182377, 0.422919, 0.180163, 0.428556, 0.182564, 0, 0
0, 3480.00000, 0.428116, 0.182377, 0.422919, 0.180163, 0.428556, 0.182564, 0, 0
0, 3540.00000, 0.428116, 0.182377, 0.422919, 0.180163, 0.428556, 0.182564, 0, 0
1, 0.00000, 0.428116, 0.182377, 0.422919, 0.180163, 0.428556, 0.182564, 0, 0
1, 60.00000, 0.428559, 0.182565, 0.426111, 0.181526, 0.428554, 0.182564, 0, 0
1, 120.00000, 0.428556, 0.182564, 0.426119, 0.181526, 0.428556, 0.182564, 0, 0
1, 180.00000, 0.428556, 0.182564, 0.426119, 0.181526, 0.428556, 0.182564, 0, 0
1, 240.00000, 0.428556, 0.182564, 0.426119, 0.181526, 0.428556, 0.182564, 0, 0
1, 300.00000, 0.428556, 0.182564, 0.426119, 0.181526, 0.428556, 0.182564, 0, 0
1, 360.00000, 0.428556, 0.182564, 0.426119, 0.181526, 0.428556, 0.182564, 0, 0
1, 420.00000, 0.428556, 0.182564, 0.426119, 0.181526, 0.428556, 0.182564, 0, 0
1, 480.00000, 0.428556, 0.182564, 0.426119, 0.181526, 0.428556, 0.182564, 0, 0
1, 540.00000, 0.428556, 0.182564, 0.426119, 0.181526, 0.428556, 0.182564, 0, 0
1, 600.00000, 0.428556, 0.182564, 0.426119, 0.181526, 0.428556, 0.182564, 0, 0
1, 660.00000, 0.428556, 0.182564, 0.426119, 0.181526, 0.428556, 0.182564, 0, 0
1, 720.00000, 0.428556, 0.182564, 0.426119, 0.181526, 0.428556, 0.182564, 0, 0
1, 780.00000, 0.428555, 0.182564, 0.427003, 0.181902, 0.428561, 0.182568, 0, 0
1, 840.00000, 0.428556, 0.182564, 0.427004, 0.181903, 0.428556, 0.182564, 0, 0
1, 900.00000, 0.428556, 0.182564, 0.427004, 0.181903, 0.428556, 0.182564, 0, 0
1, 960.00000, 0.428556, 0.182564, 0.427004, 0.181903, 0.428556, 0.182564, 0, 0
1, 1020.00000, 0.428556, 0.182564, 0.427004, 0.181903, 0.428556, 0.182564, 0, 0
1, 1080.00000, 0.428556, 0.182564, 0.427004, 0.181903, 0.428556, 0.182564, 0, 0
1, 1140.00000, 0.428556, 0.182564, 0.427004, 0.181903, 0.428556, 0.182564, 0, 0
1, 1200.00000, 0.428556, 0.182564, 0.427004, 0.181903, 0.428556, 0.182564, 0, 0
1, 1260.00000, 0.428556, 0.182564, 0.427004, 0.181903, 0.428556, 0.182564, 0, 0
1, 1320.00000, 0.428556, 0.182564, 0.427004, 0.181903, 0.428556, 0.182564, 0, 0
1, 1380.00000, 0.428556, 0.182564, 0.427004, 0.181903, 0.428556, 0.182564, 0, 0
1, 1440.00000, 0.428556, 0.182564, 0.427004, 0.181903, 0.428556, 0.182564, 0, 0
1, 1500.00000, 0.428556, 0.182564, 0.427004, 0.181903, 0.428556, 0.182564, 0, 0
1, 1560.00000, 0.428556, 0.182564, 0.427004, 0.181903, 0.428556, 0.182564, 0, 0
1, 1620.00000, 0.428556, 0.182564, 0.427004, 0.181903, 0.428556, 0.182564, 0, 0
1, 1680.00000, 0.428556, 0.182564, 0.427004, 0.181903, 0.428556, 0.182564, 0, 0
1, 1740.00000, 0.428556, 0.182564, 0.427004, 0.181903, 0.428556, 0.182564, 0, 0
1, 1800.00000, 0.428556, 0.182564, 0.427004, 0.181903, 0.428556, 0.182564, 0, 0
1, 1860.00000, 0.428556, 0.182564, 0.427004, 0.181903, 0.428556, 0.182564, 0, 0
1, 1920.00000, 0.428556, 0.182564, 0.427004, 0.181903, 0.428556, 0.182564, 0, 0
1, 1980.00000, 0.428556, 0.182564, 0.427004, 0.181903, 0.428556, 0.182564, 0, 0
1, 2040.00000, 0.428556, 0.182564, 0.427004, 0.181903, 0.428556, 0.182564, 0, 0
1, 2100.00000, 0.428556, 0.182564, 0.427004, 0.181903, 0.428556, 0.182564, 0, 0
1, 2160.00000, 0.428556, 0.182564, 0.427004, 0.181903, 0.428556, 0.182564, 0, 0
1, 2220.00000, 0.428558, 0.182564, 0.42856, 0.182568, 0.428555, 0.182564, 0, 0
1, 2280.00000, 0.428556, 0.182564, 0.428556, 0.182564, 0.428556, 0.182564, 0, 0
1, 2340.00000, 0.428556, 0.182564, 0.428556, 0.182564, 0.428556, 0.182564, 0, 0
1, 2400.00000, 0.428556, 0.182564, 0.428556, 0.182564, 0.428556, 0.182564, 0, 0
1, 2460.00000, 0.428556, 0.182564, 0.428556, 0.182564, 0.428556, 0.182564, 0, 0
1, 2520.00000, 0.428556, 0.182564, 0.428556, 0.182564, 0.428556, 0.182564, 0, 0
1, 2580.00000, 0.428556, 0.182564, 0.428556, 0.182564, 0.428556, 0.182564, 0, 0
1, 2640.00000, 0.428556, 0.182564, 0.428556, 0.182564, 0.428556, 0.182564, 0, 0
1, 2700.00000, 0.428556, 0.182564, 0.428556, 0.182564, 0.428556, 0.182564, 0, 0
1, 2760.00000, 0.428556, 0.182564, 0.428556, 0.182564, 0.428556, 0.182564, 0, 0
1, 2820.00000, 0.428556, 0.182564, 0.428556, 0.182564, 0.428556, 0.182564, 0, 0
1, 2880.00000, 0.428556, 0.182564, 0.428556, 0.182564, 0.428556, 0.182564, 0, 0
1, 2940.00000, 0.428556, 0.182564, 0.428556, 0.182564, 0.428556, 0.182564, 0, 0
1, 3000.00000, 0.428556, 0.182564, 0.428556, 0.182564, 0.428556, 0.182564, 0, 0
1, 3060.00000, 0.428556, 0.182564, 0.428556, 0.182564, 0.428556, 0.182564, 0, 0
1, 3120.00000, 0.428556, 0.182564, 0.428556, 0.182564, 0.428556, 0.182564, 0, 0
1, 3180.00000, 0.428556, 0.182564, 0.428556, 0.182564, 0.428556, 0.182564, 0, 0
1, 3240.00000, 0.428556, 0.182564, 0.428556, 0.182564, 0.428556, 0.182564, 0, 0
1, 3300.00000, 0.428556, 0.182564, 0.428556, 0.182564, 0.428556, 0.182564, 0, 0
1, 3360.00000, 0.428556, 0.182564, 0.428556, 0.182564, 0.428556, 0.182564, 0, 0
1, 3420.00000, 0.428556, 0.182564, 0.428556, 0.182564, 0.428556, 0.182564, 0, 0
1, 3480.00000, 0.428556, 0.182564, 0.428556, 0.182564, 0.428556, 0.182564, 0, 0
1, 3540.00000, 0.428556, 0.182564, 0.428556, 0.182564, 0.428556, 0.182564, 0, 0
2, 0.00000, 0.428556, 0.182564, 0.428556, 0.182564, 0.428556, 0.182564, 0, 0
2, 60.00000, 0.428556, 0.182564, 0.428556, 0.182564, 0.428556, 0.182564, 0, 0
2, 120.00000, 0.428556, 0.182564, 0.428556, 0.182564, 0.428556, 0.182564, 0, 0
2, 180.00000, 0.428556, 0.182564, 0.428556, 0.182564, 0.428556, 0.182564, 0, 0
2, 240.00000, 0.428556, 0.182564, 0.428556, 0.182564, 0.428556, 0.182564, 0, 0
2, 300.00000, 0.428556, 0.182564, 0.428556, 0.182564, 0.428556, 0.182564, 0, 0
2, 360.00000, 0.428556, 0.182564, 0.428556, 0.182564, 0.428556, 0.182564, 0, 0
2, 420.00000, 0.428556, 0.182564, 0.428556, 0.182564, 0.428556, 0.182564, 0, 0
2, 480.00000, 0.428556, 0.182564, 0.428556, 0.182564, 0.428556, 0.182564, 0, 0
2, 540.00000, 0.428556, 0.182564, 0.428556, 0.182564, 0.428556, 0.182564, 0, 0
2, 600.00000, 0.428556, 0.182564, 0.428556, 0.182564, 0.428556, 0.182564, 0, 0
2, 660.00000, 0.428556, 0.182564, 0.428556, 0.182564, 0.428556, 0.182564, 0, 0
2, 720.00000, 0.428556, 0.182564, 0.428556, 0.182564, 0.428556, 0.182564, 0, 0
2, 780.00000, 0.428556, 0.182564, 0.428556, 0.182564, 0.428556, 0.182564, 0, 0
2, 840.00000, 0.428554, 0.182564, 0.428558, 0.182564, 0.428563, 0.18257, 0, 0
2, 900.00000, 0.428556, 0.182564, 0.428556, 0.182564, 0.428556, 0.182564, 0, 0
2, 960.00000, 0.428556, 0.182564, 0.428556, 0.182564, 0.428556, 0.182564, 0, 0
2, 1020.00000, 0.428556, 0.182564, 0.428556, 0.182564, 0.428556, 0.182564, 0, 0
2, 1080.00000, 0.428556, 0.182564, 0.428556, 0.182564, 0.428556, 0.182564, 0, 0
2, 1140.00000, 0.428556, 0.182564, 0.428556, 0.182564, 0.428556, 0.182564, 0, 0
2, 1200.00000, 0.428556, 0.182564, 0.428556, 0.182564, 0.428556, 0.182564, 0, 0
2, 1260.00000, 0.428556, 0.182564, 0.428556, 0.182564, 0.428556, 0.182564, 0, 0
2, 1320.00000, 0.428556, 0.182564, 0.428556, 0.182564, 0.428556, 0.182564, 0, 0
2, 1380.00000, 0.428556, 0.182564, 0.428556, 0.182564, 0.428556, 0.182564, 0, 0
2, 1440.00000, 0.428556, 0.182564, 0.428556, 0.182564, 0.428556, 0.182564, 0, 0
2, 1500.00000, 0.428556, 0.182564, 0.428556, 0.182564, 0.428556, 0.182564, 0, 0
2, 1560.00000, 0.428556, 0.182564, 0.428556, 0.182564, 0.428556, 0.182564, 0, 0
2, 1620.00000, 0.428556, 0.182564, 0.428556, 0.182564, 0.428556, 0.182564, 0, 0
2, 1680.00000, 0.428556, 0.182564, 0.428556, 0.182564, 0.428556, 0.182564, 0, 0
2, 1740.00000, 0.428556, 0.182564, 0.428556, 0.182564, 0.428556, 0.182564, 0, 0
2, 1800.00000, 0.428556, 0.182564, 0.428556, 0.182564, 0.428556, 0.182564, 0, 0
2, 1860.00000, 0.428556, 0.182564, 0.428556, 0.182564, 0.428556, 0.182564, 0, 0
2, 1920.00000, 0.428556, 0.182564, 0.428556, 0.182564, 0.428556, 0.182564, 0, 0
2, 1980.00000, 0.428556, 0.182564, 0.428556, 0.182564, 0.428556, 0.182564, 0, 0
2, 2040.00000, 0.428556, 0.182564, 0.428556, 0.182564, 0.428556, 0.182564, 0, 0
2, 2100.00000, 0.428556, 0.182564, 0.428556, 0.182564, 0.428556, 0.182564, 0, 0
2, 2160.00000, 0.428556, 0.182564, 0.428556, 0.182564, 0.428556, 0.182564, 0, 0
2, 2220.00000, 0.428556, 0.182564, 0.428556, 0.182564, 0.428556, 0.182564, 0, 0
2, 2280.00000, 0.428556, 0.182564, 0.428556, 0.182564, 0.428556, 0.182564, 0, 0
2, 2340.00000, 0.428556, 0.182564, 0.428556, 0.182564, 0.428556, 0.182564, 0, 0
2, 2400.00000, 0.428561, 0.18257, 0.428555, 0.182563, 0.428561, 0.182568, 0, 0
2, 2460.00000, 0.428556, 0.182564, 0.428556, 0.182564, 0.428556, 0.182564, 0, 0
2, 2520.00000, 0.428556, 0.182564, 0.428556, 0.182564, 0.428556, 0.182564, 0, 0
2, 2580.00000, 0.428556, 0.182564, 0.428556, 0.182564, 0.428556, 0.182564, 0, 0
2, 2640.00000, 0.428556, 0.182564, 0.428556, 0.182564, 0.428556, 0.182564, 0, 0
2, 2700.00000, 0.428558, 0.182564, 0.428555, 0.182565, 0.428551, 0.182559, 0, 0
2, 2760.00000, 0.428556, 0.182564, 0.428556, 0.182564, 0.428556, 0.182564, 0, 0
2, 2820.00000, 0.428556, 0.182564, 0.428556, 0.182564, 0.428556, 0.182564, 0, 0
2, 2880.00000, 0.428556, 0.182564, 0.428556, 0.182564, 0.428556, 0.182564, 0, 0
2, 2940.00000, 0.428556, 0.182564, 0.428556, 0.182564, 0.428556, 0.182564, 0, 0
2, 3000.00000, 0.428556, 0.182564, 0.428556, 0.182564, 0.428556, 0.182564, 0, 0
2, 3060.00000, 0.428554, 0.182564, 0.42856, 0.182564, 0.428564, 0.182572, 0, 0
2, 3120.00000, 0.428556, 0.182564, 0.428556, 0.182564, 0.428556, 0.182564, 0, 0
2, 3180.00000, 0.428556, 0.182564, 0.428556, 0.182564, 0.428556, 0.182564, 0, 0
2, 3240.00000, 0.428556, 0.182564, 0.428556, 0.182564, 0.428556, 0.182564, 0, 0
2, 3300.00000, 0.428556, 0.182564, 0.428556, 0.182564, 0.428556, 0.182564, 0, 0
2, 3360.00000, 0.428556, 0.182564, 0.428556, 0.182564, 0.428556, 0.182564, 0, 0
2, 3420.00000, 0.428556, 0.182564, 0.428556, 0.182564, 0.428556, 0.182564, 0, 0
2, 3480.00000, 0.428556, 0.182564, 0.428556, 0.182564, 0.428556, 0.182564, 0, 0
2, 3540.00000, 0.428556, 0.182564, 0.428556, 0.182564, 0.428556, 0.182564, 0, 0
3, 0.00000, 0.428556, 0.182564, 0.428556, 0.182564, 0.428556, 0.182564, 0, 0
3, 60.00000, 0.428556, 0.182564, 0.428556, 0.182564, 0.428556, 0.182564, 0, 0
3, 120.00000, 0.428556, 0.182564, 0.428556, 0.182564, 0.428556, 0.182564, 0, 0
3, 180.00000, 0.428556, 0.182564, 0.428556, 0.182564, 0.428556, 0.182564, 0, 0
3, 240.00000, 0.428556, 0.182564, 0.428556, 0.182564, 0.428556, 0.182564, 0, 0
3, 300.00000, 0.428556, 0.182564, 0.428556, 0.182564, 0.428556, 0.182564, 0, 0
3, 360.00000, 0.428556, 0.182564, 0.428556, 0.182564, 0.428556, 0.182564, 0, 0
3, 420.00000, 0.428556, 0.182564, 0.428556, 0.182564, 0.428556, 0.182564, 0, 0
3, 480.00000, 0.428556, 0.182564, 0.428556, 0.182564, 0.428556, 0.182564, 0, 0
3, 540.00000, 0.428556, 0.182564, 0.428556, 0.182564, 0.428556, 0.182564, 0, 0
3, 600.00000, 0.428556, 0.182564, 0.428556, 0.182564, 0.428556, 0.182564, 0, 0
3, 660.00000, 0.428556, 0.182564, 0.428556, 0.182564, 0.428556, 0.182564, 0, 0
3, 720.00000, 0.428556, 0.182564, 0.428556, 0.182564, 0.428556, 0.182564, 0, 0
3, 780.00000, 0.428556, 0.182564, 0.428556, 0.182564, 0.428556, 0.182564, 0, 0
3, 840.00000, 0.428556, 0.182564, 0.428556, 0.182564, 0.428556, 0.182564, 0, 0
3, 900.00000, 0.428556, 0.182564, 0.428556, 0.182564, 0.428556, 0.182564, 0, 0
3, 960.00000, 0.428556, 0.182564, 0.428556, 0.182564, 0.428556, 0.182564, 0, 0
3, 1020.00000, 0.428556, 0.182564, 0.428556, 0.182564, 0.428556, 0.182564, 0, 0
3, 1080.00000, 0.428556, 0.182564, 0.428556, 0.182564, 0.428556, 0.182564, 0, 0
3, 1140.00000, 0.428556, 0.182564, 0.428556, 0.182564, 0.428556, 0.182564, 0, 0
3, 1200.00000, 0.428556, 0.182564, 0.428556, 0.182564, 0.428556, 0.182564, 0, 0
3, 1260.00000, 0.428556, 0.182564, 0.428556, 0.182564, 0.428556, 0.182564, 0, 0
3, 1320.00000, 0.428556, 0.182564, 0.428556, 0.182564, 0.428556, 0.182564, 0, 0
3, 1380.00000, 0.428556, 0.182564, 0.428556, 0.182564, 0.428556, 0.182564, 0, 0
3, 1440.00000, 0.428556, 0.182564, 0.428556, 0.182564, 0.428556, 0.182564, 0, 0
3, 1500.00000, 0.428556, 0.182564, 0.428556, 0.182564, 0.428556, 0.182564, 0, 0
3, 1560.00000, 0.428556, 0.182564, 0.428556, 0.182564, 0.428556, 0.182564, 0, 0
3, 1620.00000, 0.428556, 0.182564, 0.428556, 0.182564, 0.428556, 0.182564, 0, 0
3, 1680.00000, 0.428556, 0.182564, 0.428556, 0.182564, 0.428556, 0.182564, 0, 0
3, 1740.00000, 0.428556, 0.182564, 0.428556, 0.182564, 0.428556, 0.182564, 0, 0
3, 1800.00000, 0.428556, 0.182564, 0.428556, 0.182564, 0.428556, 0.182564, 0, 0
3, 1860.00000, 0.428556, 0.182564, 0.428556, 0.182564, 0.428556, 0.182564, 0, 0
3, 1920.00000, 0.428556, 0.182564, 0.428556, 0.182564, 0.428556, 0.182564, 0, 0
3, 1980.00000, 0.428556, 0.182564, 0.428556, 0.182564, 0.428556, 0.182564, 0, 0
3, 2040.00000, 0.428556, 0.182564, 0.428556, 0.182564, 0.428556, 0.182564, 0, 0
3, 2100.00000, 0.428556, 0.182564, 0.428556, 0.182564, 0.428556, 0.182564, 0, 0
3, 2160.00000, 0.428556, 0.182564, 0.428556, 0.182564, 0.428556, 0.182564, 0, 0
3, 2220.00000, 0.428556, 0.182564, 0.428556, 0.182564, 0.428556, 0.182564, 0, 0
3, 2280.00000, 0.428556, 0.182564, 0.428556, 0.182564, 0.428556, 0.182564, 0, 0
3, 2340.00000, 0.428556, 0.182564, 0.428556, 0.182564, 0.428556, 0.182564, 0, 0
3, 2400.00000, 0.428556, 0.182564, 0.428556, 0.182564, 0.428556, 0.182564, 0, 0
3, 2460.00000, 0.428556, 0.182564, 0.428556, 0.182564, 0.428556, 0.182564, 0, 0
3, 2520.00000, 0.428556, 0.182564, 0.428556, 0.182564, 0.428556, 0.182564, 0, 0
3, 2580.00000, 0.428556, 0.182564, 0.428556, 0.182564, 0.428556, 0.182564, 0, 0
3, 2640.00000, 0.428556, 0.182564, 0.428556, 0.182564, 0.428556, 0.182564, 0, 0
3, 2700.00000, 0.428556, 0.182564, 0.428556, 0.182564, 0.428556, 0.182564, 0, 0
3, 2760.00000, 0.428556, 0.182564, 0.428556, 0.182564, 0.428556, 0.182564, 0, 0
3, 2820.00000, 0.428556, 0.182564, 0.428556, 0.182564, 0.428556, 0.182564, 0, 0
3, 2880.00000, 0.428556, 0.182564, 0.428556, 0.182564, 0.428556, 0.182564, 0, 0
3, 2940.00000, 0.428556, 0.182564, 0.428556, 0.182564, 0.428556, 0.182564, 0, 0
3, 3000.00000, 0.428556, 0.182564, 0.428556, 0.182564, 0.428556, 0.182564, 0, 0
3, 3060.00000, 0.428556, 0.182564, 0.428556, 0.182564, 0.428556, 0.182564, 0, 0
3, 3120.00000, 0.428556, 0.182564, 0.428556, 0.182564, 0.428556, 0.182564, 0, 0
3, 3180.00000, 0.453356, 0.193127, 0.453356, 0.193128, 0.453355, 0.193127, 0, 0
3, 3240.00000, 0.453357, 0.193129, 0.453357, 0.193129, 0.453357, 0.193129, 0, 0
3, 3300.00000, 0.453357, 0.193129, 0.453357, 0.193129, 0.453357, 0.193129, 0, 0
3, 3360.00000, 0.453357, 0.193129, 0.453357, 0.193129, 0.453357, 0.193129, 0, 0
3, 3420.00000, 0.453357, 0.193129, 0.453357, 0.193129, 0.453357, 0.193129, 0, 0
3, 3480.00000, 0.453357, 0.193129, 0.453357, 0.193129, 0.453357, 0.193129, 0, 0
3, 3540.00000, 0.453357, 0.193129, 0.453357, 0.193129, 0.453357, 0.193129, 0, 0
4, 0.00000, 0.453359, 0.19313, 0.447866, 0.190789, 0.453351, 0.193127, 0, 0
4, 60.00000, 0.453357, 0.193129, 0.44786, 0.190788, 0.453357, 0.193129, 0, 0
4, 120.00000, 0.453357, 0.193129, 0.44786, 0.190788, 0.453357, 0.193129, 0, 0
4, 180.00000, 0.453357, 0.193129, 0.44786, 0.190788, 0.453357, 0.193129, 0, 0
4, 240.00000, 0.453357, 0.193129, 0.44786, 0.190788, 0.453357, 0.193129, 0, 0
4, 300.00000, 0.453357, 0.193129, 0.44786, 0.190788, 0.453357, 0.193129, 0, 0
4, 360.00000, 0.453357, 0.193129, 0.44786, 0.190788, 0.453357, 0.193129, 0, 0
4, 420.00000, 0.453357, 0.193129, 0.44786, 0.190788, 0.453357, 0.193129, 0, 0
4, 480.00000, 0.453357, 0.193129, 0.44786, 0.190788, 0.453357, 0.193129, 0, 0
4, 540.00000, 0.453357, 0.193129, 0.44786, 0.190788, 0.453357, 0.193129, 0, 0
4, 600.00000, 0.453357, 0.193129, 0.44786, 0.190788, 0.453357, 0.193129, 0, 0
