hour,t(sec),V1,VAngle1,V2,VAngle2,V3,VAngle3,V4,VAngle4,I1,IAngle1,I2,IAngle2,I3,IAngle3,I4,IAngle4
0, 60.00000, 121.782, -31.1036, 122.887, -151.052, 122.802, 88.538, 0, 0, 10.4071, -54.1773, 10.3136, -174.126, 10.3206, 65.4646, 0.157599, 138.118
0, 120.00000, 121.782, -31.1036, 122.887, -151.052, 122.802, 88.5379, 0, 0, 10.4074, -54.1775, 10.3137, -174.126, 10.3209, 65.464, 0.157706, 138.159
0, 180.00000, 121.782, -31.1036, 122.887, -151.052, 122.802, 88.5379, 0, 0, 10.4074, -54.1776, 10.3137, -174.126, 10.3209, 65.464, 0.157707, 138.16
0, 240.00000, 121.782, -31.1036, 122.887, -151.052, 122.802, 88.5379, 0, 0, 10.4074, -54.1776, 10.3137, -174.126, 10.3209, 65.464, 0.157707, 138.16
0, 300.00000, 121.782, -31.1036, 122.887, -151.052, 122.802, 88.5379, 0, 0, 10.4074, -54.1776, 10.3137, -174.126, 10.3209, 65.464, 0.157707, 138.16
0, 360.00000, 121.782, -31.1036, 122.887, -151.052, 122.802, 88.5379, 0, 0, 10.4074, -54.1776, 10.3137, -174.126, 10.3209, 65.464, 0.157707, 138.16
0, 420.00000, 121.782, -31.1036, 122.887, -151.052, 122.802, 88.5379, 0, 0, 10.4074, -54.1776, 10.3137, -174.126, 10.3209, 65.464, 0.157707, 138.16
0, 480.00000, 121.782, -31.1036, 122.887, -151.052, 122.802, 88.5379, 0, 0, 10.4074, -54.1776, 10.3137, -174.126, 10.3209, 65.464, 0.157707, 138.16
0, 540.00000, 121.782, -31.1036, 122.887, -151.052, 122.802, 88.5379, 0, 0, 10.4074, -54.1776, 10.3137, -174.126, 10.3209, 65.464, 0.157707, 138.16
0, 600.00000, 121.782, -31.1036, 122.887, -151.052, 122.802, 88.5379, 0, 0, 10.4074, -54.1776, 10.3137, -174.126, 10.3209, 65.464, 0.157707, 138.16
0, 660.00000, 121.782, -31.1036, 122.887, -151.052, 122.802, 88.5379, 0, 0, 10.4074, -54.1776, 10.3137, -174.126, 10.3209, 65.464, 0.157707, 138.16
0, 720.00000, 121.782, -31.1036, 122.887, -151.052, 122.802, 88.5379, 0, 0, 10.4074, -54.1776, 10.3137, -174.126, 10.3209, 65.464, 0.157707, 138.16
0, 780.00000, 121.782, -31.1036, 122.887, -151.052, 122.802, 88.5379, 0, 0, 10.4074, -54.1776, 10.3137, -174.126, 10.3209, 65.464, 0.157707, 138.16
0, 840.00000, 121.782, -31.1036, 122.887, -151.052, 122.802, 88.5379, 0, 0, 10.4074, -54.1776, 10.3137, -174.126, 10.3209, 65.464, 0.157707, 138.16
0, 900.00000, 121.782, -31.1036, 122.887, -151.052, 122.802, 88.5379, 0, 0, 10.4074, -54.1776, 10.3137, -174.126, 10.3209, 65.464, 0.157707, 138.16
0, 960.00000, 121.2, -31.321, 122.1, -151.049, 122.63, 88.503, 0, 0, 11.0623, -54.3947, 10.9808, -174.123, 10.9335, 65.4292, 0.186373, 109.99
0, 1020.00000, 121.2, -31.321, 122.1, -151.049, 122.63, 88.503, 0, 0, 11.0625, -54.3949, 10.981, -174.123, 10.9335, 65.4291, 0.186485, 109.94
0, 1080.00000, 121.2, -31.321, 122.1, -151.049, 122.63, 88.503, 0, 0, 11.0625, -54.3949, 10.981, -174.123, 10.9335, 65.4291, 0.186485, 109.939
0, 1140.00000, 121.2, -31.321, 122.1, -151.049, 122.63, 88.503, 0, 0, 11.0625, -54.3949, 10.981, -174.123, 10.9335, 65.4291, 0.186485, 109.939
0, 1200.00000, 121.2, -31.321, 122.1, -151.049, 122.63, 88.503, 0, 0, 11.0625, -54.3949, 10.981, -174.123, 10.9335, 65.4291, 0.186485, 109.939
0, 1260.00000, 121.2, -31.321, 122.1, -151.049, 122.63, 88.503, 0, 0, 11.0625, -54.3949, 10.981, -174.123, 10.9335, 65.4291, 0.186485, 109.939
0, 1320.00000, 121.2, -31.321, 122.1, -151.049, 122.63, 88.503, 0, 0, 11.0625, -54.3949, 10.981, -174.123, 10.9335, 65.4291, 0.186485, 109.939
0, 1380.00000, 121.2, -31.321, 122.1, -151.049, 122.63, 88.503, 0, 0, 11.0625, -54.3949, 10.981, -174.123, 10.9335, 65.4291, 0.186485, 109.939
0, 1440.00000, 121.2, -31.321, 122.1, -151.049, 122.63, 88.503, 0, 0, 11.0625, -54.3949, 10.981, -174.123, 10.9335, 65.4291, 0.186485, 109.939
0, 1500.00000, 121.2, -31.321, 122.1, -151.049, 122.63, 88.503, 0, 0, 11.0625, -54.3949, 10.981, -174.123, 10.9335, 65.4291, 0.186485, 109.939
0, 1560.00000, 121.2, -31.321, 122.1, -151.049, 122.63, 88.503, 0, 0, 11.0625, -54.3949, 10.981, -174.123, 10.9335, 65.4291, 0.186485, 109.939
0, 1620.00000, 121.2, -31.321, 122.1, -151.049, 122.63, 88.503, 0, 0, 11.0625, -54.3949, 10.981, -174.123, 10.9335, 65.4291, 0.186485, 109.939
0, 1680.00000, 121.2, -31.321, 122.1, -151.049, 122.63, 88.503, 0, 0, 11.0625, -54.3949, 10.981, -174.123, 10.9335, 65.4291, 0.186485, 109.939
0, 1740.00000, 121.2, -31.321, 122.1, -151.049, 122.63, 88.503, 0, 0, 11.0625, -54.3949, 10.981, -174.123, 10.9335, 65.4291, 0.186485, 109.939
0, 1800.00000, 121.2, -31.321, 122.1, -151.049, 122.63, 88.503, 0, 0, 11.0625, -54.3949, 10.981, -174.123, 10.9335, 65.4291, 0.186485, 109.939
0, 1860.00000, 121.283, -31.3008, 122.179, -151.029, 122.712, 88.5254, 0, 0, 11.0889, -54.3747, 11.0076, -174.103, 10.96, 65.4502, 0.186403, 109.914
0, 1920.00000, 121.284, -31.3007, 122.179, -151.029, 122.713, 88.5255, 0, 0, 11.0884, -54.3746, 11.0072, -174.102, 10.9593, 65.4516, 0.186434, 109.777
0, 1980.00000, 121.284, -31.3007, 122.179, -151.029, 122.713, 88.5255, 0, 0, 11.0884, -54.3746, 11.0072, -174.102, 10.9593, 65.4516, 0.186435, 109.776
0, 2040.00000, 121.284, -31.3007, 122.179, -151.029, 122.713, 88.5255, 0, 0, 11.0884, -54.3746, 11.0072, -174.102, 10.9593, 65.4516, 0.186435, 109.776
0, 2100.00000, 121.284, -31.3007, 122.179, -151.029, 122.713, 88.5255, 0, 0, 11.0884, -54.3746, 11.0072, -174.102, 10.9593, 65.4516, 0.186435, 109.776
0, 2160.00000, 121.284, -31.3007, 122.179, -151.029, 122.713, 88.5255, 0, 0, 11.0884, -54.3746, 11.0072, -174.102, 10.9593, 65.4516, 0.186435, 109.776
0, 2220.00000, 121.284, -31.3007, 122.179, -151.029, 122.713, 88.5255, 0, 0, 11.0884, -54.3746, 11.0072, -174.102, 10.9593, 65.4516, 0.186435, 109.776
0, 2280.00000, 121.284, -31.3007, 122.179, -151.029, 122.713, 88.5255, 0, 0, 11.0884, -54.3746, 11.0072, -174.102, 10.9593, 65.4516, 0.186435, 109.776
0, 2340.00000, 121.284, -31.3007, 122.179, -151.029, 122.713, 88.5255, 0, 0, 11.0884, -54.3746, 11.0072, -174.102, 10.9593, 65.4516, 0.186435, 109.776
0, 2400.00000, 121.284, -31.3007, 122.179, -151.029, 122.713, 88.5255, 0, 0, 11.0884, -54.3746, 11.0072, -174.102, 10.9593, 65.4516, 0.186435, 109.776
0, 2460.00000, 121.284, -31.3007, 122.179, -151.029, 122.713, 88.5255, 0, 0, 11.0884, -54.3746, 11.0072, -174.102, 10.9593, 65.4516, 0.186435, 109.776
0, 2520.00000, 121.284, -31.3007, 122.179, -151.029, 122.713, 88.5255, 0, 0, 11.0884, -54.3746, 11.0072, -174.102, 10.9593, 65.4516, 0.186435, 109.776
0, 2580.00000, 121.284, -31.3007, 122.179, -151.029, 122.713, 88.5255, 0, 0, 11.0884, -54.3746, 11.0072, -174.102, 10.9593, 65.4516, 0.186435, 109.776
0, 2640.00000, 121.284, -31.3007, 122.179, -151.029, 122.713, 88.5255, 0, 0, 11.0884, -54.3746, 11.0072, -174.102, 10.9593, 65.4516, 0.186435, 109.776
0, 2700.00000, 121.284, -31.3007, 122.179, -151.029, 122.713, 88.5255, 0, 0, 11.0884, -54.3746, 11.0072, -174.102, 10.9593, 65.4516, 0.186435, 109.776
0, 2760.00000, 121.555, -31.2647, 122.435, -150.992, 122.969, 88.5683, 0, 0, 10.5232, -54.3387, 10.4476, -174.066, 10.4022, 65.494, 0.174768, 109.405
0, 2820.00000, 121.555, -31.2647, 122.435, -150.992, 122.97, 88.5683, 0, 0, 10.5231, -54.3386, 10.4475, -174.066, 10.4021, 65.4944, 0.174767, 109.37
0, 2880.00000, 121.555, -31.2647, 122.435, -150.992, 122.97, 88.5683, 0, 0, 10.5231, -54.3386, 10.4475, -174.066, 10.4021, 65.4944, 0.174767, 109.369
0, 2940.00000, 121.555, -31.2647, 122.435, -150.992, 122.97, 88.5683, 0, 0, 10.5231, -54.3386, 10.4475, -174.066, 10.4021, 65.4944, 0.174767, 109.369
0, 3000.00000, 121.555, -31.2647, 122.435, -150.992, 122.97, 88.5683, 0, 0, 10.5231, -54.3386, 10.4475, -174.066, 10.4021, 65.4944, 0.174767, 109.369
0, 3060.00000, 121.555, -31.2647, 122.435, -150.992, 122.97, 88.5683, 0, 0, 10.5231, -54.3386, 10.4475, -174.066, 10.4021, 65.4944, 0.174767, 109.369
0, 3120.00000, 121.555, -31.2647, 122.435, -150.992, 122.97, 88.5683, 0, 0, 10.5231, -54.3386, 10.4475, -174.066, 10.4021, 65.4944, 0.174767, 109.369
0, 3180.00000, 121.555, -31.2647, 122.435, -150.992, 122.97, 88.5683, 0, 0, 10.5231, -54.3386, 10.4475, -174.066, 10.4021, 65.4944, 0.174767, 109.369
0, 3240.00000, 121.555, -31.2647, 122.435, -150.992, 122.97, 88.5683, 0, 0, 10.5231, -54.3386, 10.4475, -174.066, 10.4021, 65.4944, 0.174767, 109.369
0, 3300.00000, 121.555, -31.2647, 122.435, -150.992, 122.97, 88.5683, 0, 0, 10.5231, -54.3386, 10.4475, -174.066, 10.4021, 65.4944, 0.174767, 109.369
0, 3360.00000, 121.555, -31.2647, 122.435, -150.992, 122.97, 88.5683, 0, 0, 10.5231, -54.3386, 10.4475, -174.066, 10.4021, 65.4944, 0.174767, 109.369
0, 3420.00000, 121.555, -31.2647, 122.435, -150.992, 122.97, 88.5683, 0, 0, 10.5231, -54.3386, 10.4475, -174.066, 10.4021, 65.4944, 0.174767, 109.369
0, 3480.00000, 121.555, -31.2647, 122.435, -150.992, 122.97, 88.5683, 0, 0, 10.5231, -54.3386, 10.4475, -174.066, 10.4021, 65.4944, 0.174767, 109.369
0, 3540.00000, 121.555, -31.2647, 122.435, -150.992, 122.97, 88.5683, 0, 0, 10.5231, -54.3386, 10.4475, -174.066, 10.4021, 65.4944, 0.174767, 109.369
1, 0.00000, 121.555, -31.2647, 122.435, -150.992, 122.97, 88.5683, 0, 0, 10.5231, -54.3386, 10.4475, -174.066, 10.4021, 65.4944, 0.174767, 109.369
1, 60.00000, 121.694, -31.2356, 122.565, -150.963, 123.105, 88.6008, 0, 0, 10.3883, -54.3096, 10.3144, -174.037, 10.2693, 65.5266, 0.171642, 109.129
1, 120.00000, 121.694, -31.2356, 122.565, -150.963, 123.105, 88.6008, 0, 0, 10.3883, -54.3095, 10.3144, -174.037, 10.2692, 65.5269, 0.171644, 109.096
1, 180.00000, 121.694, -31.2356, 122.565, -150.963, 123.105, 88.6008, 0, 0, 10.3882, -54.3095, 10.3144, -174.037, 10.2692, 65.5269, 0.171644, 109.095
1, 240.00000, 121.694, -31.2356, 122.565, -150.963, 123.105, 88.6008, 0, 0, 10.3882, -54.3095, 10.3144, -174.037, 10.2692, 65.5269, 0.171644, 109.095
1, 300.00000, 121.694, -31.2356, 122.565, -150.963, 123.105, 88.6008, 0, 0, 10.3882, -54.3095, 10.3144, -174.037, 10.2692, 65.5269, 0.171644, 109.095
1, 360.00000, 121.694, -31.2356, 122.565, -150.963, 123.105, 88.6008, 0, 0, 10.3882, -54.3095, 10.3144, -174.037, 10.2692, 65.5269, 0.171644, 109.095
1, 420.00000, 121.694, -31.2356, 122.565, -150.963, 123.105, 88.6008, 0, 0, 10.3882, -54.3095, 10.3144, -174.037, 10.2692, 65.5269, 0.171644, 109.095
1, 480.00000, 121.694, -31.2356, 122.565, -150.963, 123.105, 88.6008, 0, 0, 10.3882, -54.3095, 10.3144, -174.037, 10.2692, 65.5269, 0.171644, 109.095
1, 540.00000, 121.694, -31.2356, 122.565, -150.963, 123.105, 88.6008, 0, 0, 10.3882, -54.3095, 10.3144, -174.037, 10.2692, 65.5269, 0.171644, 109.095
1, 600.00000, 121.694, -31.2356, 122.565, -150.963, 123.105, 88.6008, 0, 0, 10.3882, -54.3095, 10.3144, -174.037, 10.2692, 65.5269, 0.171644, 109.095
1, 660.00000, 121.694, -31.2356, 122.565, -150.963, 123.105, 88.6008, 0, 0, 10.3882, -54.3095, 10.3144, -174.037, 10.2692, 65.5269, 0.171644, 109.095
1, 720.00000, 121.694, -31.2356, 122.565, -150.963, 123.105, 88.6008, 0, 0, 10.3882, -54.3095, 10.3144, -174.037, 10.2692, 65.5269, 0.171644, 109.095
1, 780.00000, 121.694, -31.2356, 122.565, -150.963, 123.105, 88.6008, 0, 0, 10.3882, -54.3095, 10.3144, -174.037, 10.2692, 65.5269, 0.171644, 109.095
1, 840.00000, 121.694, -31.2356, 122.565, -150.963, 123.105, 88.6008, 0, 0, 10.3882, -54.3095, 10.3144, -174.037, 10.2692, 65.5269, 0.171644, 109.095
1, 900.00000, 121.694, -31.2356, 122.565, -150.963, 123.105, 88.6008, 0, 0, 10.3882, -54.3095, 10.3144, -174.037, 10.2692, 65.5269, 0.171644, 109.095
1, 960.00000, 121.73, -31.2321, 122.599, -150.959, 123.139, 88.6052, 0, 0, 10.3367, -54.3062, 10.2634, -174.033, 10.2185, 65.5308, 0.170486, 109.081
1, 1020.00000, 121.731, -31.2321, 122.599, -150.959, 123.14, 88.6052, 0, 0, 10.3365, -54.306, 10.2633, -174.033, 10.2182, 65.5313, 0.170473, 109.032
1, 1080.00000, 121.731, -31.2321, 122.599, -150.959, 123.14, 88.6052, 0, 0, 10.3365, -54.306, 10.2633, -174.033, 10.2182, 65.5313, 0.170473, 109.031
1, 1140.00000, 121.731, -31.2321, 122.599, -150.959, 123.14, 88.6052, 0, 0, 10.3365, -54.306, 10.2633, -174.033, 10.2182, 65.5313, 0.170473, 109.031
1, 1200.00000, 121.731, -31.2321, 122.599, -150.959, 123.14, 88.6052, 0, 0, 10.3365, -54.306, 10.2633, -174.033, 10.2182, 65.5313, 0.170473, 109.031
1, 1260.00000, 121.731, -31.2321, 122.599, -150.959, 123.14, 88.6052, 0, 0, 10.3365, -54.306, 10.2633, -174.033, 10.2182, 65.5313, 0.170473, 109.031
1, 1320.00000, 121.731, -31.2321, 122.599, -150.959, 123.14, 88.6052, 0, 0, 10.3365, -54.306, 10.2633, -174.033, 10.2182, 65.5313, 0.170473, 109.031
1, 1380.00000, 121.731, -31.2321, 122.599, -150.959, 123.14, 88.6052, 0, 0, 10.3365, -54.306, 10.2633, -174.033, 10.2182, 65.5313, 0.170473, 109.031
1, 1440.00000, 121.731, -31.2321, 122.599, -150.959, 123.14, 88.6052, 0, 0, 10.3365, -54.306, 10.2633, -174.033, 10.2182, 65.5313, 0.170473, 109.031
1, 1500.00000, 121.731, -31.2321, 122.599, -150.959, 123.14, 88.6052, 0, 0, 10.3365, -54.306, 10.2633, -174.033, 10.2182, 65.5313, 0.170473, 109.031
1, 1560.00000, 121.731, -31.2321, 122.599, -150.959, 123.14, 88.6052, 0, 0, 10.3365, -54.306, 10.2633, -174.033, 10.2182, 65.5313, 0.170473, 109.031
1, 1620.00000, 121.731, -31.2321, 122.599, -150.959, 123.14, 88.6052, 0, 0, 10.3365, -54.306, 10.2633, -174.033, 10.2182, 65.5313, 0.170473, 109.031
1, 1680.00000, 121.731, -31.2321, 122.599, -150.959, 123.14, 88.6052, 0, 0, 10.3365, -54.306, 10.2633, -174.033, 10.2182, 65.5313, 0.170473, 109.031
1, 1740.00000, 121.731, -31.2321, 122.599, -150.959, 123.14, 88.6052, 0, 0, 10.3365, -54.306, 10.2633, -174.033, 10.2182, 65.5313, 0.170473, 109.031
1, 1800.00000, 121.731, -31.2321, 122.599, -150.959, 123.14, 88.6052, 0, 0, 10.3365, -54.306, 10.2633, -174.033, 10.2182, 65.5313, 0.170473, 109.031
1, 1860.00000, 121.571, -31.2574, 122.449, -150.985, 122.987, 88.5761, 0, 0, 10.5997, -54.3312, 10.5237, -174.058, 10.4776, 65.5024, 0.176031, 109.273
1, 1920.00000, 121.57, -31.2574, 122.449, -150.985, 122.986, 88.5761, 0, 0, 10.5997, -54.3313, 10.5237, -174.058, 10.4777, 65.5022, 0.176033, 109.303
1, 1980.00000, 121.57, -31.2574, 122.449, -150.985, 122.986, 88.5761, 0, 0, 10.5997, -54.3313, 10.5237, -174.058, 10.4777, 65.5021, 0.176032, 109.304
1, 2040.00000, 121.57, -31.2574, 122.449, -150.985, 122.986, 88.5761, 0, 0, 10.5997, -54.3313, 10.5237, -174.058, 10.4777, 65.5021, 0.176032, 109.304
1, 2100.00000, 121.57, -31.2574, 122.449, -150.985, 122.986, 88.5761, 0, 0, 10.5997, -54.3313, 10.5237, -174.058, 10.4777, 65.5021, 0.176032, 109.304
1, 2160.00000, 121.57, -31.2574, 122.449, -150.985, 122.986, 88.5761, 0, 0, 10.5997, -54.3313, 10.5237, -174.058, 10.4777, 65.5021, 0.176032, 109.304
1, 2220.00000, 121.57, -31.2574, 122.449, -150.985, 122.986, 88.5761, 0, 0, 10.5997, -54.3313, 10.5237, -174.058, 10.4777, 65.5021, 0.176032, 109.304
1, 2280.00000, 121.57, -31.2574, 122.449, -150.985, 122.986, 88.5761, 0, 0, 10.5997, -54.3313, 10.5237, -174.058, 10.4777, 65.5021, 0.176032, 109.304
1, 2340.00000, 121.57, -31.2574, 122.449, -150.985, 122.986, 88.5761, 0, 0, 10.5997, -54.3313, 10.5237, -174.058, 10.4777, 65.5021, 0.176032, 109.304
1, 2400.00000, 121.57, -31.2574, 122.449, -150.985, 122.986, 88.5761, 0, 0, 10.5997, -54.3313, 10.5237, -174.058, 10.4777, 65.5021, 0.176032, 109.304
1, 2460.00000, 121.57, -31.2574, 122.449, -150.985, 122.986, 88.5761, 0, 0, 10.5997, -54.3313, 10.5237, -174.058, 10.4777, 65.5021, 0.176032, 109.304
1, 2520.00000, 121.57, -31.2574, 122.449, -150.985, 122.986, 88.5761, 0, 0, 10.5997, -54.3313, 10.5237, -174.058, 10.4777, 65.5021, 0.176032, 109.304
1, 2580.00000, 121.57, -31.2574, 122.449, -150.985, 122.986, 88.5761, 0, 0, 10.5997, -54.3313, 10.5237, -174.058, 10.4777, 65.5021, 0.176032, 109.304
1, 2640.00000, 121.57, -31.2574, 122.449, -150.985, 122.986, 88.5761, 0, 0, 10.5997, -54.3313, 10.5237, -174.058, 10.4777, 65.5021, 0.176032, 109.304
1, 2700.00000, 121.57, -31.2584, 122.35, -151.114, 122.662, 88.5383, 0, 0, 10.5999, -54.3321, 10.5322, -174.188, 10.5052, 65.4649, 0.137557, 118.137
1, 2760.00000, 121.913, -31.2086, 122.671, -151.065, 122.982, 88.5949, 0, 0, 9.96023, -54.2827, 9.89861, -174.138, 9.87366, 65.5208, 0.126216, 117.901
1, 2820.00000, 121.913, -31.2086, 122.671, -151.065, 122.982, 88.5949, 0, 0, 9.96011, -54.2825, 9.89856, -174.138, 9.87353, 65.521, 0.126166, 117.872
1, 2880.00000, 121.913, -31.2086, 122.671, -151.065, 122.982, 88.5949, 0, 0, 9.96011, -54.2825, 9.89856, -174.138, 9.87353, 65.521, 0.126166, 117.872
1, 2940.00000, 121.913, -31.2086, 122.671, -151.065, 122.982, 88.5949, 0, 0, 9.96011, -54.2825, 9.89856, -174.138, 9.87353, 65.521, 0.126166, 117.872
1, 3000.00000, 121.913, -31.2086, 122.671, -151.065, 122.982, 88.5949, 0, 0, 9.96011, -54.2825, 9.89856, -174.138, 9.87353, 65.521, 0.126166, 117.872
1, 3060.00000, 121.913, -31.2086, 122.671, -151.065, 122.982, 88.5949, 0, 0, 9.96011, -54.2825, 9.89856, -174.138, 9.87353, 65.521, 0.126166, 117.872
1, 3120.00000, 121.913, -31.2086, 122.671, -151.065, 122.982, 88.5949, 0, 0, 9.96011, -54.2825, 9.89856, -174.138, 9.87353, 65.521, 0.126166, 117.872
1, 3180.00000, 121.913, -31.2086, 122.671, -151.065, 122.982, 88.5949, 0, 0, 9.96011, -54.2825, 9.89856, -174.138, 9.87353, 65.521, 0.126166, 117.872
1, 3240.00000, 121.913, -31.2086, 122.671, -151.065, 122.982, 88.5949, 0, 0, 9.96011, -54.2825, 9.89856, -174.138, 9.87353, 65.521, 0.126166, 117.872
1, 3300.00000, 121.913, -31.2086, 122.671, -151.065, 122.982, 88.5949, 0, 0, 9.96011, -54.2825, 9.89856, -174.138, 9.87353, 65.521, 0.126166, 117.872
1, 3360.00000, 121.913, -31.2086, 122.671, -151.065, 122.982, 88.5949, 0, 0, 9.96011, -54.2825, 9.89856, -174.138, 9.87353, 65.521, 0.126166, 117.872
1, 3420.00000, 121.913, -31.2086, 122.671, -151.065, 122.982, 88.5949, 0, 0, 9.96011, -54.2825, 9.89856, -174.138, 9.87353, 65.521, 0.126166, 117.872
1, 3480.00000, 121.913, -31.2086, 122.671, -151.065, 122.982, 88.5949, 0, 0, 9.96011, -54.2825, 9.89856, -174.138, 9.87353, 65.521, 0.126166, 117.872
1, 3540.00000, 121.913, -31.2086, 122.671, -151.065, 122.982, 88.5949, 0, 0, 9.96011, -54.2825, 9.89856, -174.138, 9.87353, 65.521, 0.126166, 117.872
2, 0.00000, 121.913, -31.2086, 122.671, -151.065, 122.982, 88.5949, 0, 0, 9.96011, -54.2825, 9.89856, -174.138, 9.87353, 65.521, 0.126166, 117.872
2, 60.00000, 121.708, -31.2389, 122.479, -151.095, 122.791, 88.5604, 0, 0, 10.2445, -54.3128, 10.1801, -174.169, 10.1542, 65.4866, 0.131539, 118.06
2, 120.00000, 121.708, -31.2389, 122.479, -151.095, 122.791, 88.5604, 0, 0, 10.2446, -54.3129, 10.1801, -174.169, 10.1543, 65.4865, 0.13157, 118.078
2, 180.00000, 121.708, -31.2389, 122.479, -151.095, 122.791, 88.5604, 0, 0, 10.2446, -54.3129, 10.1801, -174.169, 10.1543, 65.4865, 0.13157, 118.079
2, 240.00000, 121.708, -31.2389, 122.479, -151.095, 122.791, 88.5604, 0, 0, 10.2446, -54.3129, 10.1801, -174.169, 10.1543, 65.4865, 0.13157, 118.079
2, 300.00000, 121.708, -31.2389, 122.479, -151.095, 122.791, 88.5604, 0, 0, 10.2446, -54.3129, 10.1801, -174.169, 10.1543, 65.4865, 0.13157, 118.079
2, 360.00000, 121.708, -31.2389, 122.479, -151.095, 122.791, 88.5604, 0, 0, 10.2446, -54.3129, 10.1801, -174.169, 10.1543, 65.4865, 0.13157, 118.079
2, 420.00000, 121.708, -31.2389, 122.479, -151.095, 122.791, 88.5604, 0, 0, 10.2446, -54.3129, 10.1801, -174.169, 10.1543, 65.4865, 0.13157, 118.079
2, 480.00000, 121.708, -31.2389, 122.479, -151.095, 122.791, 88.5604, 0, 0, 10.2446, -54.3129, 10.1801, -174.169, 10.1543, 65.4865, 0.13157, 118.079
2, 540.00000, 122.06, -31.0433, 123.049, -151.123, 122.743, 88.5665, 0, 0, 10.2152, -54.117, 10.1332, -174.197, 10.1581, 65.4926, 0.133204, 154.148
2, 600.00000, 122.06, -31.0433, 123.049, -151.123, 122.743, 88.5665, 0, 0, 10.215, -54.1173, 10.133, -174.197, 10.1582, 65.4926, 0.13329, 154.228
2, 660.00000, 122.06, -31.0433, 123.049, -151.123, 122.743, 88.5665, 0, 0, 10.215, -54.1173, 10.133, -174.197, 10.1582, 65.4926, 0.133291, 154.228
2, 720.00000, 122.06, -31.0433, 123.049, -151.123, 122.743, 88.5665, 0, 0, 10.215, -54.1173, 10.133, -174.197, 10.1582, 65.4926, 0.133291, 154.228
2, 780.00000, 122.06, -31.0433, 123.049, -151.123, 122.743, 88.5665, 0, 0, 10.215, -54.1173, 10.133, -174.197, 10.1582, 65.4926, 0.133291, 154.228
