hour,t(sec),"P1 (kW)","Q1 (kvar)","P2 (kW)","Q2 (kvar)","P3 (kW)","Q3 (kvar)","P4 (kW)","Q4 (kvar)"
0, 60.00000, 0.937035, 0.39917, 0.934491, 0.398088, 0.971125, 0.413694, 0, 0
0, 120.00000, 0.937027, 0.399172, 0.934481, 0.398087, 0.971116, 0.413694, 0, 0
0, 180.00000, 0.937027, 0.399172, 0.934481, 0.398087, 0.971116, 0.413694, 0, 0
0, 240.00000, 0.937027, 0.399172, 0.934481, 0.398087, 0.971116, 0.413694, 0, 0
0, 300.00000, 0.937027, 0.399172, 0.934481, 0.398087, 0.971116, 0.413694, 0, 0
0, 360.00000, 0.937027, 0.399172, 0.934481, 0.398087, 0.971116, 0.413694, 0, 0
0, 420.00000, 0.937027, 0.399172, 0.934481, 0.398087, 0.971116, 0.413694, 0, 0
0, 480.00000, 0.829773, 0.353488, 0.826831, 0.352233, 0.858918, 0.365902, 0, 0
0, 540.00000, 0.829782, 0.353486, 0.82684, 0.352232, 0.858927, 0.365902, 0, 0
0, 600.00000, 0.829782, 0.353486, 0.82684, 0.352232, 0.858927, 0.365902, 0, 0
0, 660.00000, 0.829782, 0.353486, 0.82684, 0.352232, 0.858927, 0.365902, 0, 0
0, 720.00000, 0.829782, 0.353486, 0.82684, 0.352232, 0.858927, 0.365902, 0, 0
0, 780.00000, 0.829782, 0.353486, 0.82684, 0.352232, 0.858927, 0.365902, 0, 0
0, 840.00000, 0.829782, 0.353486, 0.82684, 0.352232, 0.858927, 0.365902, 0, 0
0, 900.00000, 0.829782, 0.353486, 0.82684, 0.352232, 0.858927, 0.365902, 0, 0
0, 960.00000, 0.824088, 0.351052, 0.806973, 0.343766, 0.835478, 0.35591, 0, 0
0, 1020.00000, 0.824073, 0.351054, 0.806965, 0.343766, 0.835463, 0.355906, 0, 0
0, 1080.00000, 0.824073, 0.351054, 0.806965, 0.343766, 0.835463, 0.355906, 0, 0
0, 1140.00000, 0.828725, 0.353041, 0.806965, 0.343766, 0.837173, 0.356636, 0, 0
0, 1200.00000, 0.828735, 0.35304, 0.806964, 0.343765, 0.837178, 0.356636, 0, 0
0, 1260.00000, 0.828735, 0.353039, 0.806964, 0.343765, 0.837178, 0.356636, 0, 0
0, 1320.00000, 0.828735, 0.353039, 0.806964, 0.343765, 0.837178, 0.356636, 0, 0
0, 1380.00000, 0.828735, 0.353039, 0.806964, 0.343765, 0.837178, 0.356636, 0, 0
0, 1440.00000, 0.828735, 0.353039, 0.806964, 0.343765, 0.837178, 0.356636, 0, 0
0, 1500.00000, 0.828735, 0.353039, 0.806964, 0.343765, 0.837178, 0.356636, 0, 0
0, 1560.00000, 0.828735, 0.353039, 0.806964, 0.343765, 0.837178, 0.356636, 0, 0
0, 1620.00000, 0.828735, 0.353039, 0.806964, 0.343765, 0.837178, 0.356636, 0, 0
0, 1680.00000, 0.828735, 0.353039, 0.806964, 0.343765, 0.837178, 0.356636, 0, 0
0, 1740.00000, 0.828735, 0.353039, 0.806964, 0.343765, 0.837178, 0.356636, 0, 0
0, 1800.00000, 0.81753, 0.348264, 0.793976, 0.338233, 0.837913, 0.356952, 0, 0
0, 1860.00000, 0.817525, 0.348264, 0.79397, 0.33823, 0.837915, 0.35695, 0, 0
0, 1920.00000, 0.817525, 0.348264, 0.79397, 0.33823, 0.837915, 0.35695, 0, 0
0, 1980.00000, 0.817525, 0.348264, 0.79397, 0.33823, 0.837915, 0.35695, 0, 0
0, 2040.00000, 0.817525, 0.348264, 0.79397, 0.33823, 0.837915, 0.35695, 0, 0
0, 2100.00000, 0.817525, 0.348264, 0.79397, 0.33823, 0.837915, 0.35695, 0, 0
0, 2160.00000, 0.817525, 0.348264, 0.79397, 0.33823, 0.837915, 0.35695, 0, 0
0, 2220.00000, 0.817525, 0.348264, 0.79397, 0.33823, 0.837915, 0.35695, 0, 0
0, 2280.00000, 0.817525, 0.348264, 0.79397, 0.33823, 0.837915, 0.35695, 0, 0
0, 2340.00000, 0.817525, 0.348264, 0.79397, 0.33823, 0.837915, 0.35695, 0, 0
0, 2400.00000, 0.817525, 0.348264, 0.79397, 0.33823, 0.837915, 0.35695, 0, 0
0, 2460.00000, 0.817525, 0.348264, 0.79397, 0.33823, 0.837915, 0.35695, 0, 0
0, 2520.00000, 0.817525, 0.348264, 0.79397, 0.33823, 0.837915, 0.35695, 0, 0
0, 2580.00000, 0.817525, 0.348264, 0.79397, 0.33823, 0.837915, 0.35695, 0, 0
0, 2640.00000, 0.817525, 0.348264, 0.79397, 0.33823, 0.837915, 0.35695, 0, 0
0, 2700.00000, 0.817525, 0.348264, 0.79397, 0.33823, 0.837915, 0.35695, 0, 0
0, 2760.00000, 0.819742, 0.349211, 0.799025, 0.340388, 0.837723, 0.356868, 0, 0
0, 2820.00000, 0.819748, 0.349211, 0.799034, 0.340387, 0.83772, 0.356867, 0, 0
0, 2880.00000, 0.819748, 0.349211, 0.799034, 0.340387, 0.83772, 0.356867, 0, 0
0, 2940.00000, 0.819748, 0.349211, 0.799034, 0.340387, 0.83772, 0.356867, 0, 0
0, 3000.00000, 0.819748, 0.349211, 0.799034, 0.340387, 0.83772, 0.356867, 0, 0
0, 3060.00000, 0.819748, 0.349211, 0.799034, 0.340387, 0.83772, 0.356867, 0, 0
0, 3120.00000, 0.819748, 0.349211, 0.799034, 0.340387, 0.83772, 0.356867, 0, 0
0, 3180.00000, 0.819748, 0.349211, 0.799034, 0.340387, 0.83772, 0.356867, 0, 0
0, 3240.00000, 0.819748, 0.349211, 0.799034, 0.340387, 0.83772, 0.356867, 0, 0
0, 3300.00000, 0.819748, 0.349211, 0.799034, 0.340387, 0.83772, 0.356867, 0, 0
0, 3360.00000, 0.819748, 0.349211, 0.799034, 0.340387, 0.83772, 0.356867, 0, 0
0, 3420.00000, 0.819748, 0.349211, 0.799034, 0.340387, 0.83772, 0.356867, 0, 0
0, 3480.00000, 0.819748, 0.349211, 0.799034, 0.340387, 0.83772, 0.356867, 0, 0
0, 3540.00000, 0.819748, 0.349211, 0.799034, 0.340387, 0.83772, 0.356867, 0, 0
1, 0.00000, 0.819748, 0.349211, 0.799034, 0.340387, 0.83772, 0.356867, 0, 0
1, 60.00000, 0.821282, 0.349866, 0.803361, 0.342234, 0.837636, 0.356832, 0, 0
1, 120.00000, 0.821285, 0.349866, 0.803369, 0.342234, 0.837634, 0.356831, 0, 0
1, 180.00000, 0.821285, 0.349866, 0.803369, 0.342234, 0.837634, 0.356831, 0, 0
1, 240.00000, 0.821285, 0.349866, 0.803369, 0.342234, 0.837634, 0.356831, 0, 0
1, 300.00000, 0.821285, 0.349866, 0.803369, 0.342234, 0.837634, 0.356831, 0, 0
1, 360.00000, 0.821285, 0.349866, 0.803369, 0.342234, 0.837634, 0.356831, 0, 0
1, 420.00000, 0.821285, 0.349866, 0.803369, 0.342234, 0.837634, 0.356831, 0, 0
1, 480.00000, 0.821285, 0.349866, 0.803369, 0.342234, 0.837634, 0.356831, 0, 0
1, 540.00000, 0.821285, 0.349866, 0.803369, 0.342234, 0.837634, 0.356831, 0, 0
1, 600.00000, 0.821285, 0.349866, 0.803369, 0.342234, 0.837634, 0.356831, 0, 0
1, 660.00000, 0.821285, 0.349866, 0.803369, 0.342234, 0.837634, 0.356831, 0, 0
1, 720.00000, 0.821285, 0.349866, 0.803369, 0.342234, 0.837634, 0.356831, 0, 0
1, 780.00000, 0.821732, 0.350057, 0.80797, 0.344195, 0.84529, 0.360095, 0, 0
1, 840.00000, 0.82173, 0.350056, 0.807973, 0.344195, 0.845298, 0.360096, 0, 0
1, 900.00000, 0.82173, 0.350056, 0.807973, 0.344195, 0.845298, 0.360096, 0, 0
1, 960.00000, 0.82173, 0.350056, 0.807973, 0.344195, 0.845298, 0.360096, 0, 0
1, 1020.00000, 0.82173, 0.350056, 0.807973, 0.344195, 0.845298, 0.360096, 0, 0
1, 1080.00000, 0.82173, 0.350056, 0.807973, 0.344195, 0.845298, 0.360096, 0, 0
1, 1140.00000, 0.82173, 0.350056, 0.807973, 0.344195, 0.845298, 0.360096, 0, 0
1, 1200.00000, 0.82173, 0.350056, 0.807973, 0.344195, 0.845298, 0.360096, 0, 0
1, 1260.00000, 0.82173, 0.350056, 0.807973, 0.344195, 0.845298, 0.360096, 0, 0
1, 1320.00000, 0.82173, 0.350056, 0.807973, 0.344195, 0.845298, 0.360096, 0, 0
1, 1380.00000, 0.82173, 0.350056, 0.807973, 0.344195, 0.845298, 0.360096, 0, 0
1, 1440.00000, 0.82173, 0.350056, 0.807973, 0.344195, 0.845298, 0.360096, 0, 0
1, 1500.00000, 0.82173, 0.350056, 0.807973, 0.344195, 0.845298, 0.360096, 0, 0
1, 1560.00000, 0.82173, 0.350056, 0.807973, 0.344195, 0.845298, 0.360096, 0, 0
1, 1620.00000, 0.82173, 0.350056, 0.807973, 0.344195, 0.845298, 0.360096, 0, 0
1, 1680.00000, 0.82173, 0.350056, 0.807973, 0.344195, 0.845298, 0.360096, 0, 0
1, 1740.00000, 0.82173, 0.350056, 0.807973, 0.344195, 0.845298, 0.360096, 0, 0
1, 1800.00000, 0.82173, 0.350056, 0.807973, 0.344195, 0.845298, 0.360096, 0, 0
1, 1860.00000, 0.82173, 0.350056, 0.807973, 0.344195, 0.845298, 0.360096, 0, 0
1, 1920.00000, 0.82173, 0.350056, 0.807973, 0.344195, 0.845298, 0.360096, 0, 0
1, 1980.00000, 0.82173, 0.350056, 0.807973, 0.344195, 0.845298, 0.360096, 0, 0
1, 2040.00000, 0.82173, 0.350056, 0.807973, 0.344195, 0.845298, 0.360096, 0, 0
1, 2100.00000, 0.82173, 0.350056, 0.807973, 0.344195, 0.845298, 0.360096, 0, 0
1, 2160.00000, 0.82173, 0.350056, 0.807973, 0.344195, 0.845298, 0.360096, 0, 0
1, 2220.00000, 0.833002, 0.354858, 0.821192, 0.349829, 0.844563, 0.359782, 0, 0
1, 2280.00000, 0.833004, 0.354858, 0.821199, 0.349829, 0.844561, 0.359782, 0, 0
1, 2340.00000, 0.833004, 0.354858, 0.821199, 0.349829, 0.844561, 0.359782, 0, 0
1, 2400.00000, 0.833004, 0.354858, 0.821199, 0.349829, 0.844561, 0.359782, 0, 0
1, 2460.00000, 0.833004, 0.354858, 0.821199, 0.349829, 0.844561, 0.359782, 0, 0
1, 2520.00000, 0.833004, 0.354858, 0.821199, 0.349829, 0.844561, 0.359782, 0, 0
1, 2580.00000, 0.833004, 0.354858, 0.821199, 0.349829, 0.844561, 0.359782, 0, 0
1, 2640.00000, 0.833004, 0.354858, 0.821199, 0.349829, 0.844561, 0.359782, 0, 0
1, 2700.00000, 0.833004, 0.354858, 0.821199, 0.349829, 0.844561, 0.359782, 0, 0
1, 2760.00000, 0.833004, 0.354858, 0.821199, 0.349829, 0.844561, 0.359782, 0, 0
1, 2820.00000, 0.833004, 0.354858, 0.821199, 0.349829, 0.844561, 0.359782, 0, 0
1, 2880.00000, 0.833004, 0.354858, 0.821199, 0.349829, 0.844561, 0.359782, 0, 0
1, 2940.00000, 0.833004, 0.354858, 0.821199, 0.349829, 0.844561, 0.359782, 0, 0
1, 3000.00000, 0.833004, 0.354858, 0.821199, 0.349829, 0.844561, 0.359782, 0, 0
1, 3060.00000, 0.833004, 0.354858, 0.821199, 0.349829, 0.844561, 0.359782, 0, 0
1, 3120.00000, 0.833004, 0.354858, 0.821199, 0.349829, 0.844561, 0.359782, 0, 0
1, 3180.00000, 0.833004, 0.354858, 0.821199, 0.349829, 0.844561, 0.359782, 0, 0
1, 3240.00000, 0.833004, 0.354858, 0.821199, 0.349829, 0.844561, 0.359782, 0, 0
1, 3300.00000, 0.833004, 0.354858, 0.821199, 0.349829, 0.844561, 0.359782, 0, 0
1, 3360.00000, 0.833004, 0.354858, 0.821199, 0.349829, 0.844561, 0.359782, 0, 0
1, 3420.00000, 0.833004, 0.354858, 0.821199, 0.349829, 0.844561, 0.359782, 0, 0
1, 3480.00000, 0.833004, 0.354858, 0.821199, 0.349829, 0.844561, 0.359782, 0, 0
1, 3540.00000, 0.833004, 0.354858, 0.821199, 0.349829, 0.844561, 0.359782, 0, 0
2, 0.00000, 0.833004, 0.354858, 0.821199, 0.349829, 0.844561, 0.359782, 0, 0
2, 60.00000, 0.833004, 0.354858, 0.821199, 0.349829, 0.844561, 0.359782, 0, 0
2, 120.00000, 0.833004, 0.354858, 0.821199, 0.349829, 0.844561, 0.359782, 0, 0
2, 180.00000, 0.833004, 0.354858, 0.821199, 0.349829, 0.844561, 0.359782, 0, 0
2, 240.00000, 0.833004, 0.354858, 0.821199, 0.349829, 0.844561, 0.359782, 0, 0
2, 300.00000, 0.833004, 0.354858, 0.821199, 0.349829, 0.844561, 0.359782, 0, 0
2, 360.00000, 0.833004, 0.354858, 0.821199, 0.349829, 0.844561, 0.359782, 0, 0
2, 420.00000, 0.833004, 0.354858, 0.821199, 0.349829, 0.844561, 0.359782, 0, 0
2, 480.00000, 0.833004, 0.354858, 0.821199, 0.349829, 0.844561, 0.359782, 0, 0
2, 540.00000, 0.833004, 0.354858, 0.821199, 0.349829, 0.844561, 0.359782, 0, 0
2, 600.00000, 0.833004, 0.354858, 0.821199, 0.349829, 0.844561, 0.359782, 0, 0
2, 660.00000, 0.833004, 0.354858, 0.821199, 0.349829, 0.844561, 0.359782, 0, 0
2, 720.00000, 0.833004, 0.354858, 0.821199, 0.349829, 0.844561, 0.359782, 0, 0
2, 780.00000, 0.833004, 0.354858, 0.821199, 0.349829, 0.844561, 0.359782, 0, 0
2, 840.00000, 0.834016, 0.355291, 0.841522, 0.358486, 0.866821, 0.369269, 0, 0
2, 900.00000, 0.834013, 0.355288, 0.841524, 0.358488, 0.866839, 0.369272, 0, 0
2, 960.00000, 0.834013, 0.355288, 0.841524, 0.358488, 0.866839, 0.369272, 0, 0
2, 1020.00000, 0.834013, 0.355288, 0.841524, 0.358488, 0.866839, 0.369272, 0, 0
2, 1080.00000, 0.834013, 0.355288, 0.841524, 0.358488, 0.866839, 0.369272, 0, 0
2, 1140.00000, 0.834013, 0.355288, 0.841524, 0.358488, 0.866839, 0.369272, 0, 0
2, 1200.00000, 0.834013, 0.355288, 0.841524, 0.358488, 0.866839, 0.369272, 0, 0
2, 1260.00000, 0.834013, 0.355288, 0.841524, 0.358488, 0.866839, 0.369272, 0, 0
2, 1320.00000, 0.834013, 0.355288, 0.841524, 0.358488, 0.866839, 0.369272, 0, 0
2, 1380.00000, 0.834013, 0.355288, 0.841524, 0.358488, 0.866839, 0.369272, 0, 0
2, 1440.00000, 0.834013, 0.355288, 0.841524, 0.358488, 0.866839, 0.369272, 0, 0
2, 1500.00000, 0.834013, 0.355288, 0.841524, 0.358488, 0.866839, 0.369272, 0, 0
2, 1560.00000, 0.834013, 0.355288, 0.841524, 0.358488, 0.866839, 0.369272, 0, 0
2, 1620.00000, 0.834013, 0.355288, 0.841524, 0.358488, 0.866839, 0.369272, 0, 0
2, 1680.00000, 0.834013, 0.355288, 0.841524, 0.358488, 0.866839, 0.369272, 0, 0
2, 1740.00000, 0.834013, 0.355288, 0.841524, 0.358488, 0.866839, 0.369272, 0, 0
2, 1800.00000, 0.834013, 0.355288, 0.841524, 0.358488, 0.866839, 0.369272, 0, 0
2, 1860.00000, 0.834013, 0.355288, 0.841524, 0.358488, 0.866839, 0.369272, 0, 0
2, 1920.00000, 0.834013, 0.355288, 0.841524, 0.358488, 0.866839, 0.369272, 0, 0
2, 1980.00000, 0.834013, 0.355288, 0.841524, 0.358488, 0.866839, 0.369272, 0, 0
2, 2040.00000, 0.834013, 0.355288, 0.841524, 0.358488, 0.866839, 0.369272, 0, 0
2, 2100.00000, 0.834013, 0.355288, 0.841524, 0.358488, 0.866839, 0.369272, 0, 0
2, 2160.00000, 0.834013, 0.355288, 0.841524, 0.358488, 0.866839, 0.369272, 0, 0
2, 2220.00000, 0.834013, 0.355288, 0.841524, 0.358488, 0.866839, 0.369272, 0, 0
2, 2280.00000, 0.834013, 0.355288, 0.841524, 0.358488, 0.866839, 0.369272, 0, 0
2, 2340.00000, 0.834013, 0.355288, 0.841524, 0.358488, 0.866839, 0.369272, 0, 0
2, 2400.00000, 0.842277, 0.358816, 0.841484, 0.35847, 0.871909, 0.371437, 0, 0
2, 2460.00000, 0.84229, 0.358814, 0.84148, 0.358469, 0.871928, 0.37144, 0, 0
2, 2520.00000, 0.84229, 0.358814, 0.84148, 0.358469, 0.871928, 0.37144, 0, 0
2, 2580.00000, 0.84229, 0.358814, 0.84148, 0.358469, 0.871928, 0.37144, 0, 0
2, 2640.00000, 0.84229, 0.358814, 0.84148, 0.358469, 0.871928, 0.37144, 0, 0
2, 2700.00000, 0.84144, 0.358451, 0.829872, 0.353525, 0.85723, 0.365173, 0, 0
2, 2760.00000, 0.84144, 0.358452, 0.829871, 0.353523, 0.857215, 0.365172, 0, 0
2, 2820.00000, 0.84144, 0.358452, 0.829871, 0.353523, 0.857215, 0.365172, 0, 0
2, 2880.00000, 0.84144, 0.358452, 0.829871, 0.353523, 0.857215, 0.365172, 0, 0
2, 2940.00000, 0.84144, 0.358452, 0.829871, 0.353523, 0.857215, 0.365172, 0, 0
2, 3000.00000, 0.84144, 0.358452, 0.829871, 0.353523, 0.857215, 0.365172, 0, 0
2, 3060.00000, 0.841559, 0.358505, 0.831788, 0.35434, 0.862289, 0.36734, 0, 0
2, 3120.00000, 0.841557, 0.358502, 0.83179, 0.354341, 0.862309, 0.367342, 0, 0
2, 3180.00000, 0.841557, 0.358502, 0.83179, 0.354341, 0.862309, 0.367342, 0, 0
2, 3240.00000, 0.841557, 0.358502, 0.83179, 0.354341, 0.862309, 0.367342, 0, 0
2, 3300.00000, 0.841557, 0.358502, 0.83179, 0.354341, 0.862309, 0.367342, 0, 0
2, 3360.00000, 0.841557, 0.358502, 0.83179, 0.354341, 0.862309, 0.367342, 0, 0
2, 3420.00000, 0.841557, 0.358502, 0.83179, 0.354341, 0.862309, 0.367342, 0, 0
2, 3480.00000, 0.841557, 0.358502, 0.83179, 0.354341, 0.862309, 0.367342, 0, 0
2, 3540.00000, 0.841557, 0.358502, 0.83179, 0.354341, 0.862309, 0.367342, 0, 0
3, 0.00000, 0.841557, 0.358502, 0.83179, 0.354341, 0.862309, 0.367342, 0, 0
3, 60.00000, 0.841557, 0.358502, 0.83179, 0.354341, 0.862309, 0.367342, 0, 0
3, 120.00000, 0.841557, 0.358502, 0.83179, 0.354341, 0.862309, 0.367342, 0, 0
3, 180.00000, 0.841557, 0.358502, 0.83179, 0.354341, 0.862309, 0.367342, 0, 0
3, 240.00000, 0.841557, 0.358502, 0.83179, 0.354341, 0.862309, 0.367342, 0, 0
3, 300.00000, 0.841557, 0.358502, 0.83179, 0.354341, 0.862309, 0.367342, 0, 0
3, 360.00000, 0.841557, 0.358502, 0.83179, 0.354341, 0.862309, 0.367342, 0, 0
3, 420.00000, 0.841557, 0.358502, 0.83179, 0.354341, 0.862309, 0.367342, 0, 0
3, 480.00000, 0.841557, 0.358502, 0.83179, 0.354341, 0.862309, 0.367342, 0, 0
3, 540.00000, 0.841557, 0.358502, 0.83179, 0.354341, 0.862309, 0.367342, 0, 0
3, 600.00000, 0.841557, 0.358502, 0.83179, 0.354341, 0.862309, 0.367342, 0, 0
3, 660.00000, 0.841557, 0.358502, 0.83179, 0.354341, 0.862309, 0.367342, 0, 0
3, 720.00000, 0.841557, 0.358502, 0.83179, 0.354341, 0.862309, 0.367342, 0, 0
3, 780.00000, 0.841557, 0.358502, 0.83179, 0.354341, 0.862309, 0.367342, 0, 0
3, 840.00000, 0.841557, 0.358502, 0.83179, 0.354341, 0.862309, 0.367342, 0, 0
3, 900.00000, 0.841557, 0.358502, 0.83179, 0.354341, 0.862309, 0.367342, 0, 0
3, 960.00000, 0.841557, 0.358502, 0.83179, 0.354341, 0.862309, 0.367342, 0, 0
3, 1020.00000, 0.841557, 0.358502, 0.83179, 0.354341, 0.862309, 0.367342, 0, 0
3, 1080.00000, 0.841557, 0.358502, 0.83179, 0.354341, 0.862309, 0.367342, 0, 0
3, 1140.00000, 0.841557, 0.358502, 0.83179, 0.354341, 0.862309, 0.367342, 0, 0
3, 1200.00000, 0.841557, 0.358502, 0.83179, 0.354341, 0.862309, 0.367342, 0, 0
3, 1260.00000, 0.841557, 0.358502, 0.83179, 0.354341, 0.862309, 0.367342, 0, 0
3, 1320.00000, 0.841557, 0.358502, 0.83179, 0.354341, 0.862309, 0.367342, 0, 0
3, 1380.00000, 0.841557, 0.358502, 0.83179, 0.354341, 0.862309, 0.367342, 0, 0
3, 1440.00000, 0.841557, 0.358502, 0.83179, 0.354341, 0.862309, 0.367342, 0, 0
3, 1500.00000, 0.841557, 0.358502, 0.83179, 0.354341, 0.862309, 0.367342, 0, 0
3, 1560.00000, 0.841557, 0.358502, 0.83179, 0.354341, 0.862309, 0.367342, 0, 0
3, 1620.00000, 0.841557, 0.358502, 0.83179, 0.354341, 0.862309, 0.367342, 0, 0
3, 1680.00000, 0.841557, 0.358502, 0.83179, 0.354341, 0.862309, 0.367342, 0, 0
3, 1740.00000, 0.841557, 0.358502, 0.83179, 0.354341, 0.862309, 0.367342, 0, 0
3, 1800.00000, 0.841557, 0.358502, 0.83179, 0.354341, 0.862309, 0.367342, 0, 0
3, 1860.00000, 0.841557, 0.358502, 0.83179, 0.354341, 0.862309, 0.367342, 0, 0
3, 1920.00000, 0.841557, 0.358502, 0.83179, 0.354341, 0.862309, 0.367342, 0, 0
3, 1980.00000, 0.841557, 0.358502, 0.83179, 0.354341, 0.862309, 0.367342, 0, 0
3, 2040.00000, 0.841557, 0.358502, 0.83179, 0.354341, 0.862309, 0.367342, 0, 0
3, 2100.00000, 0.841557, 0.358502, 0.83179, 0.354341, 0.862309, 0.367342, 0, 0
3, 2160.00000, 0.841557, 0.358502, 0.83179, 0.354341, 0.862309, 0.367342, 0, 0
3, 2220.00000, 0.841557, 0.358502, 0.83179, 0.354341, 0.862309, 0.367342, 0, 0
3, 2280.00000, 0.841557, 0.358502, 0.83179, 0.354341, 0.862309, 0.367342, 0, 0
3, 2340.00000, 0.841557, 0.358502, 0.83179, 0.354341, 0.862309, 0.367342, 0, 0
3, 2400.00000, 0.841557, 0.358502, 0.83179, 0.354341, 0.862309, 0.367342, 0, 0
3, 2460.00000, 0.841557, 0.358502, 0.83179, 0.354341, 0.862309, 0.367342, 0, 0
3, 2520.00000, 0.841557, 0.358502, 0.83179, 0.354341, 0.862309, 0.367342, 0, 0
3, 2580.00000, 0.841557, 0.358502, 0.83179, 0.354341, 0.862309, 0.367342, 0, 0
3, 2640.00000, 0.841557, 0.358502, 0.83179, 0.354341, 0.862309, 0.367342, 0, 0
3, 2700.00000, 0.841557, 0.358502, 0.83179, 0.354341, 0.862309, 0.367342, 0, 0
3, 2760.00000, 0.841557, 0.358502, 0.83179, 0.354341, 0.862309, 0.367342, 0, 0
3, 2820.00000, 0.841557, 0.358502, 0.83179, 0.354341, 0.862309, 0.367342, 0, 0
3, 2880.00000, 0.841557, 0.358502, 0.83179, 0.354341, 0.862309, 0.367342, 0, 0
3, 2940.00000, 0.841557, 0.358502, 0.83179, 0.354341, 0.862309, 0.367342, 0, 0
3, 3000.00000, 0.841557, 0.358502, 0.83179, 0.354341, 0.862309, 0.367342, 0, 0
3, 3060.00000, 0.841557, 0.358502, 0.83179, 0.354341, 0.862309, 0.367342, 0, 0
3, 3120.00000, 0.841557, 0.358502, 0.83179, 0.354341, 0.862309, 0.367342, 0, 0
3, 3180.00000, 0.887222, 0.377953, 0.877102, 0.373643, 0.909273, 0.387347, 0, 0
3, 3240.00000, 0.887218, 0.377953, 0.8771, 0.373643, 0.909268, 0.387347, 0, 0
3, 3300.00000, 0.887218, 0.377953, 0.8771, 0.373643, 0.909268, 0.387347, 0, 0
3, 3360.00000, 0.887218, 0.377953, 0.8771, 0.373643, 0.909268, 0.387347, 0, 0
3, 3420.00000, 0.887218, 0.377953, 0.8771, 0.373643, 0.909268, 0.387347, 0, 0
3, 3480.00000, 0.887218, 0.377953, 0.8771, 0.373643, 0.909268, 0.387347, 0, 0
3, 3540.00000, 0.887218, 0.377953, 0.8771, 0.373643, 0.909268, 0.387347, 0, 0
4, 0.00000, 0.886787, 0.377769, 0.869872, 0.370561, 0.899025, 0.382982, 0, 0
4, 60.00000, 0.886787, 0.37777, 0.869865, 0.370561, 0.899014, 0.382978, 0, 0
4, 120.00000, 0.886787, 0.37777, 0.869865, 0.370561, 0.899014, 0.382978, 0, 0
4, 180.00000, 0.886787, 0.37777, 0.869865, 0.370561, 0.899014, 0.382978, 0, 0
4, 240.00000, 0.886787, 0.37777, 0.869865, 0.370561, 0.899014, 0.382978, 0, 0
4, 300.00000, 0.886787, 0.37777, 0.869865, 0.370561, 0.899014, 0.382978, 0, 0
4, 360.00000, 0.886787, 0.37777, 0.869865, 0.370561, 0.899014, 0.382978, 0, 0
4, 420.00000, 0.886787, 0.37777, 0.869865, 0.370561, 0.899014, 0.382978, 0, 0
4, 480.00000, 0.886787, 0.37777, 0.869865, 0.370561, 0.899014, 0.382978, 0, 0
4, 540.00000, 0.886787, 0.37777, 0.869865, 0.370561, 0.899014, 0.382978, 0, 0
4, 600.00000, 0.886787, 0.37777, 0.869865, 0.370561, 0.899014, 0.382978, 0, 0
4, 660.00000, 0.886787, 0.37777, 0.869865, 0.370561, 0.899014, 0.382978, 0, 0
4, 720.00000, 0.886787, 0.37777, 0.869865, 0.370561, 0.899014, 0.382978, 0, 0
