hour,t(sec),"P1 (kW)","Q1 (kvar)","P2 (kW)","Q2 (kvar)","P3 (kW)","Q3 (kvar)","P4 (kW)","Q4 (kvar)"
0, 60.00000, 0.913944, 0.389328, 0.925158, 0.39412, 0.928719, 0.395623, 0, 0
0, 120.00000, 0.913934, 0.389334, 0.925147, 0.394111, 0.928672, 0.395613, 0, 0
0, 180.00000, 0.913934, 0.389334, 0.925147, 0.394111, 0.928672, 0.395613, 0, 0
0, 240.00000, 0.913934, 0.389334, 0.925147, 0.394111, 0.928672, 0.395613, 0, 0
0, 300.00000, 0.913934, 0.389334, 0.925147, 0.394111, 0.928672, 0.395613, 0, 0
0, 360.00000, 0.913934, 0.389334, 0.925147, 0.394111, 0.928672, 0.395613, 0, 0
0, 420.00000, 0.913934, 0.389334, 0.925147, 0.394111, 0.928672, 0.395613, 0, 0
0, 480.00000, 0.913934, 0.389334, 0.925147, 0.394111, 0.928672, 0.395613, 0, 0
0, 540.00000, 0.913934, 0.389334, 0.925147, 0.394111, 0.928672, 0.395613, 0, 0
0, 600.00000, 0.913934, 0.389334, 0.925147, 0.394111, 0.928672, 0.395613, 0, 0
0, 660.00000, 0.913934, 0.389334, 0.925147, 0.394111, 0.928672, 0.395613, 0, 0
0, 720.00000, 0.913934, 0.389334, 0.925147, 0.394111, 0.928672, 0.395613, 0, 0
0, 780.00000, 0.913934, 0.389334, 0.925147, 0.394111, 0.928672, 0.395613, 0, 0
0, 840.00000, 0.913934, 0.389334, 0.925147, 0.394111, 0.928672, 0.395613, 0, 0
0, 900.00000, 0.913934, 0.389334, 0.925147, 0.394111, 0.928672, 0.395613, 0, 0
0, 960.00000, 0.887896, 0.378236, 0.895697, 0.381564, 0.905496, 0.385738, 0, 0
0, 1020.00000, 0.887889, 0.378239, 0.895685, 0.38156, 0.905493, 0.385739, 0, 0
0, 1080.00000, 0.887889, 0.378239, 0.895685, 0.38156, 0.905493, 0.385739, 0, 0
0, 1140.00000, 0.887889, 0.378239, 0.895685, 0.38156, 0.905493, 0.385739, 0, 0
0, 1200.00000, 0.887889, 0.378239, 0.895685, 0.38156, 0.905493, 0.385739, 0, 0
0, 1260.00000, 0.887889, 0.378239, 0.895685, 0.38156, 0.905493, 0.385739, 0, 0
0, 1320.00000, 0.887889, 0.378239, 0.895685, 0.38156, 0.905493, 0.385739, 0, 0
0, 1380.00000, 0.887889, 0.378239, 0.895685, 0.38156, 0.905493, 0.385739, 0, 0
0, 1440.00000, 0.887889, 0.378239, 0.895685, 0.38156, 0.905493, 0.385739, 0, 0
0, 1500.00000, 0.887889, 0.378239, 0.895685, 0.38156, 0.905493, 0.385739, 0, 0
0, 1560.00000, 0.887889, 0.378239, 0.895685, 0.38156, 0.905493, 0.385739, 0, 0
0, 1620.00000, 0.887889, 0.378239, 0.895685, 0.38156, 0.905493, 0.385739, 0, 0
0, 1680.00000, 0.887889, 0.378239, 0.895685, 0.38156, 0.905493, 0.385739, 0, 0
0, 1740.00000, 0.887889, 0.378239, 0.895685, 0.38156, 0.905493, 0.385739, 0, 0
0, 1800.00000, 0.887889, 0.378239, 0.895685, 0.38156, 0.905493, 0.385739, 0, 0
0, 1860.00000, 0.841878, 0.358643, 0.849137, 0.361734, 0.858397, 0.365702, 0, 0
0, 1920.00000, 0.841885, 0.358642, 0.849172, 0.361746, 0.858458, 0.365702, 0, 0
0, 1980.00000, 0.841885, 0.358642, 0.849172, 0.361746, 0.858458, 0.365702, 0, 0
0, 2040.00000, 0.841885, 0.358642, 0.849172, 0.361746, 0.858458, 0.365702, 0, 0
0, 2100.00000, 0.841885, 0.358642, 0.849172, 0.361746, 0.858458, 0.365702, 0, 0
0, 2160.00000, 0.841885, 0.358642, 0.849172, 0.361746, 0.858458, 0.365702, 0, 0
0, 2220.00000, 0.841885, 0.358642, 0.849172, 0.361746, 0.858458, 0.365702, 0, 0
0, 2280.00000, 0.841885, 0.358642, 0.849172, 0.361746, 0.858458, 0.365702, 0, 0
0, 2340.00000, 0.841885, 0.358642, 0.849172, 0.361746, 0.858458, 0.365702, 0, 0
0, 2400.00000, 0.841885, 0.358642, 0.849172, 0.361746, 0.858458, 0.365702, 0, 0
0, 2460.00000, 0.841885, 0.358642, 0.849172, 0.361746, 0.858458, 0.365702, 0, 0
0, 2520.00000, 0.841885, 0.358642, 0.849172, 0.361746, 0.858458, 0.365702, 0, 0
0, 2580.00000, 0.841885, 0.358642, 0.849172, 0.361746, 0.858458, 0.365702, 0, 0
0, 2640.00000, 0.841885, 0.358642, 0.849172, 0.361746, 0.858458, 0.365702, 0, 0
0, 2700.00000, 0.841885, 0.358642, 0.849172, 0.361746, 0.858458, 0.365702, 0, 0
0, 2760.00000, 0.828938, 0.353132, 0.835887, 0.35608, 0.842107, 0.358742, 0, 0
0, 2820.00000, 0.828937, 0.353126, 0.835888, 0.356087, 0.842085, 0.358727, 0, 0
0, 2880.00000, 0.828937, 0.353126, 0.835888, 0.356087, 0.842085, 0.358727, 0, 0
0, 2940.00000, 0.828937, 0.353126, 0.835888, 0.356087, 0.842085, 0.358727, 0, 0
0, 3000.00000, 0.828937, 0.353126, 0.835888, 0.356087, 0.842085, 0.358727, 0, 0
0, 3060.00000, 0.828937, 0.353126, 0.835888, 0.356087, 0.842085, 0.358727, 0, 0
0, 3120.00000, 0.828937, 0.353126, 0.835888, 0.356087, 0.842085, 0.358727, 0, 0
0, 3180.00000, 0.828937, 0.353126, 0.835888, 0.356087, 0.842085, 0.358727, 0, 0
0, 3240.00000, 0.828937, 0.353126, 0.835888, 0.356087, 0.842085, 0.358727, 0, 0
0, 3300.00000, 0.828937, 0.353126, 0.835888, 0.356087, 0.842085, 0.358727, 0, 0
0, 3360.00000, 0.828937, 0.353126, 0.835888, 0.356087, 0.842085, 0.358727, 0, 0
0, 3420.00000, 0.828937, 0.353126, 0.835888, 0.356087, 0.842085, 0.358727, 0, 0
0, 3480.00000, 0.828937, 0.353126, 0.835888, 0.356087, 0.842085, 0.358727, 0, 0
0, 3540.00000, 0.828937, 0.353126, 0.835888, 0.356087, 0.842085, 0.358727, 0, 0
1, 0.00000, 0.828937, 0.353126, 0.835888, 0.356087, 0.842085, 0.358727, 0, 0
1, 60.00000, 0.76437, 0.325626, 0.770588, 0.328263, 0.772996, 0.329299, 0, 0
1, 120.00000, 0.764369, 0.32562, 0.770587, 0.328269, 0.772976, 0.329286, 0, 0
1, 180.00000, 0.764369, 0.32562, 0.770587, 0.328269, 0.772976, 0.329286, 0, 0
1, 240.00000, 0.764369, 0.32562, 0.770587, 0.328269, 0.772976, 0.329286, 0, 0
1, 300.00000, 0.764369, 0.32562, 0.770587, 0.328269, 0.772976, 0.329286, 0, 0
1, 360.00000, 0.764369, 0.32562, 0.770587, 0.328269, 0.772976, 0.329286, 0, 0
1, 420.00000, 0.764369, 0.32562, 0.770587, 0.328269, 0.772976, 0.329286, 0, 0
1, 480.00000, 0.764369, 0.32562, 0.770587, 0.328269, 0.772976, 0.329286, 0, 0
1, 540.00000, 0.764369, 0.32562, 0.770587, 0.328269, 0.772976, 0.329286, 0, 0
1, 600.00000, 0.764369, 0.32562, 0.770587, 0.328269, 0.772976, 0.329286, 0, 0
1, 660.00000, 0.764369, 0.32562, 0.770587, 0.328269, 0.772976, 0.329286, 0, 0
1, 720.00000, 0.764369, 0.32562, 0.770587, 0.328269, 0.772976, 0.329286, 0, 0
1, 780.00000, 0.764369, 0.32562, 0.770587, 0.328269, 0.772976, 0.329286, 0, 0
1, 840.00000, 0.764369, 0.32562, 0.770587, 0.328269, 0.772976, 0.329286, 0, 0
1, 900.00000, 0.764369, 0.32562, 0.770587, 0.328269, 0.772976, 0.329286, 0, 0
1, 960.00000, 0.772698, 0.329174, 0.77897, 0.331837, 0.781094, 0.332752, 0, 0
1, 1020.00000, 0.772704, 0.329171, 0.778975, 0.331842, 0.781072, 0.332735, 0, 0
1, 1080.00000, 0.772704, 0.329171, 0.778975, 0.331842, 0.781072, 0.332735, 0, 0
1, 1140.00000, 0.772704, 0.329171, 0.778975, 0.331842, 0.781072, 0.332735, 0, 0
1, 1200.00000, 0.772704, 0.329171, 0.778975, 0.331842, 0.781072, 0.332735, 0, 0
1, 1260.00000, 0.772704, 0.329171, 0.778975, 0.331842, 0.781072, 0.332735, 0, 0
1, 1320.00000, 0.772704, 0.329171, 0.778975, 0.331842, 0.781072, 0.332735, 0, 0
1, 1380.00000, 0.772704, 0.329171, 0.778975, 0.331842, 0.781072, 0.332735, 0, 0
1, 1440.00000, 0.772704, 0.329171, 0.778975, 0.331842, 0.781072, 0.332735, 0, 0
1, 1500.00000, 0.772704, 0.329171, 0.778975, 0.331842, 0.781072, 0.332735, 0, 0
1, 1560.00000, 0.772704, 0.329171, 0.778975, 0.331842, 0.781072, 0.332735, 0, 0
1, 1620.00000, 0.772704, 0.329171, 0.778975, 0.331842, 0.781072, 0.332735, 0, 0
1, 1680.00000, 0.772704, 0.329171, 0.778975, 0.331842, 0.781072, 0.332735, 0, 0
1, 1740.00000, 0.772704, 0.329171, 0.778975, 0.331842, 0.781072, 0.332735, 0, 0
1, 1800.00000, 0.772704, 0.329171, 0.778975, 0.331842, 0.781072, 0.332735, 0, 0
1, 1860.00000, 0.818605, 0.348719, 0.825436, 0.35164, 0.830969, 0.353987, 0, 0
1, 1920.00000, 0.818606, 0.348725, 0.825437, 0.351635, 0.830989, 0.354, 0, 0
1, 1980.00000, 0.818606, 0.348725, 0.825437, 0.351635, 0.830989, 0.354, 0, 0
1, 2040.00000, 0.818606, 0.348725, 0.825437, 0.351635, 0.830989, 0.354, 0, 0
1, 2100.00000, 0.818606, 0.348725, 0.825437, 0.351635, 0.830989, 0.354, 0, 0
1, 2160.00000, 0.818606, 0.348725, 0.825437, 0.351635, 0.830989, 0.354, 0, 0
1, 2220.00000, 0.818606, 0.348725, 0.825437, 0.351635, 0.830989, 0.354, 0, 0
1, 2280.00000, 0.818606, 0.348725, 0.825437, 0.351635, 0.830989, 0.354, 0, 0
1, 2340.00000, 0.818606, 0.348725, 0.825437, 0.351635, 0.830989, 0.354, 0, 0
1, 2400.00000, 0.818606, 0.348725, 0.825437, 0.351635, 0.830989, 0.354, 0, 0
1, 2460.00000, 0.818606, 0.348725, 0.825437, 0.351635, 0.830989, 0.354, 0, 0
1, 2520.00000, 0.818606, 0.348725, 0.825437, 0.351635, 0.830989, 0.354, 0, 0
1, 2580.00000, 0.818606, 0.348725, 0.825437, 0.351635, 0.830989, 0.354, 0, 0
1, 2640.00000, 0.818606, 0.348725, 0.825437, 0.351635, 0.830989, 0.354, 0, 0
1, 2700.00000, 0.817588, 0.348288, 0.810969, 0.345476, 0.817621, 0.348298, 0, 0
1, 2760.00000, 0.778189, 0.33151, 0.771356, 0.328597, 0.777733, 0.331315, 0, 0
1, 2820.00000, 0.778197, 0.331511, 0.771358, 0.328597, 0.77774, 0.331316, 0, 0
1, 2880.00000, 0.778197, 0.331511, 0.771358, 0.328597, 0.77774, 0.331316, 0, 0
1, 2940.00000, 0.778197, 0.331511, 0.771358, 0.328597, 0.77774, 0.331316, 0, 0
1, 3000.00000, 0.778197, 0.331511, 0.771358, 0.328597, 0.77774, 0.331316, 0, 0
1, 3060.00000, 0.778197, 0.331511, 0.771358, 0.328597, 0.77774, 0.331316, 0, 0
1, 3120.00000, 0.778197, 0.331511, 0.771358, 0.328597, 0.77774, 0.331316, 0, 0
1, 3180.00000, 0.778197, 0.331511, 0.771358, 0.328597, 0.77774, 0.331316, 0, 0
1, 3240.00000, 0.778197, 0.331511, 0.771358, 0.328597, 0.77774, 0.331316, 0, 0
1, 3300.00000, 0.778197, 0.331511, 0.771358, 0.328597, 0.77774, 0.331316, 0, 0
1, 3360.00000, 0.778197, 0.331511, 0.771358, 0.328597, 0.77774, 0.331316, 0, 0
1, 3420.00000, 0.778197, 0.331511, 0.771358, 0.328597, 0.77774, 0.331316, 0, 0
1, 3480.00000, 0.778197, 0.331511, 0.771358, 0.328597, 0.77774, 0.331316, 0, 0
1, 3540.00000, 0.778197, 0.331511, 0.771358, 0.328597, 0.77774, 0.331316, 0, 0
2, 0.00000, 0.778197, 0.331511, 0.771358, 0.328597, 0.77774, 0.331316, 0, 0
2, 60.00000, 0.8239, 0.350978, 0.817002, 0.348041, 0.823722, 0.350903, 0, 0
2, 120.00000, 0.823895, 0.350978, 0.817001, 0.348041, 0.823718, 0.350902, 0, 0
2, 180.00000, 0.823895, 0.350978, 0.817001, 0.348041, 0.823718, 0.350902, 0, 0
2, 240.00000, 0.823895, 0.350978, 0.817001, 0.348041, 0.823718, 0.350902, 0, 0
2, 300.00000, 0.823895, 0.350978, 0.817001, 0.348041, 0.823718, 0.350902, 0, 0
2, 360.00000, 0.823895, 0.350978, 0.817001, 0.348041, 0.823718, 0.350902, 0, 0
2, 420.00000, 0.823895, 0.350978, 0.817001, 0.348041, 0.823718, 0.350902, 0, 0
2, 480.00000, 0.823895, 0.350978, 0.817001, 0.348041, 0.823718, 0.350902, 0, 0
2, 540.00000, 0.826553, 0.352111, 0.822498, 0.350388, 0.823446, 0.350786, 0, 0
2, 600.00000, 0.826559, 0.352113, 0.822509, 0.350388, 0.82344, 0.350784, 0, 0
2, 660.00000, 0.826559, 0.352113, 0.822509, 0.350388, 0.82344, 0.350784, 0, 0
2, 720.00000, 0.826559, 0.352113, 0.822509, 0.350388, 0.82344, 0.350784, 0, 0
2, 780.00000, 0.826559, 0.352113, 0.822509, 0.350388, 0.82344, 0.350784, 0, 0
2, 840.00000, 0.826559, 0.352113, 0.822509, 0.350388, 0.82344, 0.350784, 0, 0
2, 900.00000, 0.826559, 0.352113, 0.822509, 0.350388, 0.82344, 0.350784, 0, 0
2, 960.00000, 0.799393, 0.340542, 0.795159, 0.338738, 0.796008, 0.3391, 0, 0
2, 1020.00000, 0.799399, 0.340543, 0.795163, 0.338738, 0.796013, 0.3391, 0, 0
2, 1080.00000, 0.799399, 0.340543, 0.795163, 0.338738, 0.796013, 0.3391, 0, 0
2, 1140.00000, 0.799399, 0.340543, 0.795163, 0.338738, 0.796013, 0.3391, 0, 0
2, 1200.00000, 0.799399, 0.340543, 0.795163, 0.338738, 0.796013, 0.3391, 0, 0
2, 1260.00000, 0.799399, 0.340543, 0.795163, 0.338738, 0.796013, 0.3391, 0, 0
2, 1320.00000, 0.799399, 0.340543, 0.795163, 0.338738, 0.796013, 0.3391, 0, 0
2, 1380.00000, 0.799399, 0.340543, 0.795163, 0.338738, 0.796013, 0.3391, 0, 0
2, 1440.00000, 0.799399, 0.340543, 0.795163, 0.338738, 0.796013, 0.3391, 0, 0
2, 1500.00000, 0.799399, 0.340543, 0.795163, 0.338738, 0.796013, 0.3391, 0, 0
2, 1560.00000, 0.799399, 0.340543, 0.795163, 0.338738, 0.796013, 0.3391, 0, 0
2, 1620.00000, 0.799399, 0.340543, 0.795163, 0.338738, 0.796013, 0.3391, 0, 0
2, 1680.00000, 0.799399, 0.340543, 0.795163, 0.338738, 0.796013, 0.3391, 0, 0
2, 1740.00000, 0.799399, 0.340543, 0.795163, 0.338738, 0.796013, 0.3391, 0, 0
2, 1800.00000, 0.799399, 0.340543, 0.795163, 0.338738, 0.796013, 0.3391, 0, 0
2, 1860.00000, 0.851523, 0.362735, 0.847144, 0.360877, 0.848075, 0.361261, 0, 0
2, 1920.00000, 0.85148, 0.362729, 0.847114, 0.360869, 0.848044, 0.361265, 0, 0
2, 1980.00000, 0.85148, 0.362729, 0.847114, 0.360869, 0.848044, 0.361265, 0, 0
2, 2040.00000, 0.85148, 0.362729, 0.847114, 0.360869, 0.848044, 0.361265, 0, 0
2, 2100.00000, 0.85148, 0.362729, 0.847114, 0.360869, 0.848044, 0.361265, 0, 0
2, 2160.00000, 0.85148, 0.362729, 0.847114, 0.360869, 0.848044, 0.361265, 0, 0
2, 2220.00000, 0.85148, 0.362729, 0.847114, 0.360869, 0.848044, 0.361265, 0, 0
2, 2280.00000, 0.85148, 0.362729, 0.847114, 0.360869, 0.848044, 0.361265, 0, 0
2, 2340.00000, 0.85148, 0.362729, 0.847114, 0.360869, 0.848044, 0.361265, 0, 0
2, 2400.00000, 0.85148, 0.362729, 0.847114, 0.360869, 0.848044, 0.361265, 0, 0
2, 2460.00000, 0.85148, 0.362729, 0.847114, 0.360869, 0.848044, 0.361265, 0, 0
2, 2520.00000, 0.85148, 0.362729, 0.847114, 0.360869, 0.848044, 0.361265, 0, 0
2, 2580.00000, 0.85148, 0.362729, 0.847114, 0.360869, 0.848044, 0.361265, 0, 0
2, 2640.00000, 0.85148, 0.362729, 0.847114, 0.360869, 0.848044, 0.361265, 0, 0
2, 2700.00000, 0.85148, 0.362729, 0.847114, 0.360869, 0.848044, 0.361265, 0, 0
2, 2760.00000, 0.791017, 0.336976, 0.787279, 0.335384, 0.788112, 0.335733, 0, 0
2, 2820.00000, 0.791004, 0.336966, 0.787283, 0.335381, 0.788119, 0.335737, 0, 0
2, 2880.00000, 0.791004, 0.336966, 0.787283, 0.335381, 0.788119, 0.335737, 0, 0
2, 2940.00000, 0.791004, 0.336966, 0.787283, 0.335381, 0.788119, 0.335737, 0, 0
2, 3000.00000, 0.791004, 0.336966, 0.787283, 0.335381, 0.788119, 0.335737, 0, 0
2, 3060.00000, 0.791004, 0.336966, 0.787283, 0.335381, 0.788119, 0.335737, 0, 0
2, 3120.00000, 0.790977, 0.336951, 0.791071, 0.336975, 0.791065, 0.337027, 0, 0
2, 3180.00000, 0.791003, 0.336966, 0.791005, 0.336966, 0.791005, 0.336967, 0, 0
2, 3240.00000, 0.791004, 0.336966, 0.791004, 0.336966, 0.791004, 0.336966, 0, 0
2, 3300.00000, 0.791004, 0.336966, 0.791004, 0.336966, 0.791004, 0.336966, 0, 0
2, 3360.00000, 0.791004, 0.336966, 0.791004, 0.336966, 0.791004, 0.336966, 0, 0
2, 3420.00000, 0.791004, 0.336966, 0.791004, 0.336966, 0.791004, 0.336966, 0, 0
2, 3480.00000, 0.791004, 0.336966, 0.791004, 0.336966, 0.791004, 0.336966, 0, 0
2, 3540.00000, 0.791004, 0.336966, 0.791004, 0.336966, 0.791004, 0.336966, 0, 0
3, 0.00000, 0.791004, 0.336966, 0.791004, 0.336966, 0.791004, 0.336966, 0, 0
3, 60.00000, 0.845049, 0.35999, 0.847149, 0.360886, 0.847154, 0.360878, 0, 0
3, 120.00000, 0.84505, 0.35999, 0.847168, 0.360892, 0.847168, 0.360892, 0, 0
3, 180.00000, 0.84505, 0.35999, 0.847168, 0.360892, 0.847168, 0.360892, 0, 0
3, 240.00000, 0.84505, 0.35999, 0.847168, 0.360892, 0.847168, 0.360892, 0, 0
3, 300.00000, 0.84505, 0.35999, 0.847168, 0.360892, 0.847168, 0.360892, 0, 0
3, 360.00000, 0.84505, 0.35999, 0.847168, 0.360892, 0.847168, 0.360892, 0, 0
3, 420.00000, 0.84505, 0.35999, 0.847168, 0.360892, 0.847168, 0.360892, 0, 0
3, 480.00000, 0.84505, 0.35999, 0.847168, 0.360892, 0.847168, 0.360892, 0, 0
3, 540.00000, 0.84505, 0.35999, 0.847168, 0.360892, 0.847168, 0.360892, 0, 0
3, 600.00000, 0.84505, 0.35999, 0.847168, 0.360892, 0.847168, 0.360892, 0, 0
3, 660.00000, 0.84505, 0.35999, 0.847168, 0.360892, 0.847168, 0.360892, 0, 0
3, 720.00000, 0.84505, 0.35999, 0.847168, 0.360892, 0.847168, 0.360892, 0, 0
3, 780.00000, 0.84505, 0.35999, 0.847168, 0.360892, 0.847168, 0.360892, 0, 0
3, 840.00000, 0.84505, 0.35999, 0.847168, 0.360892, 0.847168, 0.360892, 0, 0
3, 900.00000, 0.84505, 0.35999, 0.847168, 0.360892, 0.847168, 0.360892, 0, 0
3, 960.00000, 0.781353, 0.332856, 0.782595, 0.333383, 0.782589, 0.333395, 0, 0
3, 1020.00000, 0.78136, 0.332858, 0.782561, 0.333369, 0.782561, 0.33337, 0, 0
3, 1080.00000, 0.78136, 0.332858, 0.78256, 0.333369, 0.78256, 0.333369, 0, 0
3, 1140.00000, 0.78136, 0.332858, 0.78256, 0.333369, 0.78256, 0.333369, 0, 0
3, 1200.00000, 0.78136, 0.332858, 0.78256, 0.333369, 0.78256, 0.333369, 0, 0
3, 1260.00000, 0.78136, 0.332858, 0.78256, 0.333369, 0.78256, 0.333369, 0, 0
3, 1320.00000, 0.78136, 0.332858, 0.78256, 0.333369, 0.78256, 0.333369, 0, 0
3, 1380.00000, 0.78136, 0.332858, 0.78256, 0.333369, 0.78256, 0.333369, 0, 0
3, 1440.00000, 0.78136, 0.332858, 0.78256, 0.333369, 0.78256, 0.333369, 0, 0
3, 1500.00000, 0.78136, 0.332858, 0.78256, 0.333369, 0.78256, 0.333369, 0, 0
3, 1560.00000, 0.78136, 0.332858, 0.78256, 0.333369, 0.78256, 0.333369, 0, 0
3, 1620.00000, 0.78136, 0.332858, 0.78256, 0.333369, 0.78256, 0.333369, 0, 0
3, 1680.00000, 0.78136, 0.332858, 0.78256, 0.333369, 0.78256, 0.333369, 0, 0
3, 1740.00000, 0.78136, 0.332858, 0.78256, 0.333369, 0.78256, 0.333369, 0, 0
3, 1800.00000, 0.78136, 0.332858, 0.78256, 0.333369, 0.78256, 0.333369, 0, 0
3, 1860.00000, 0.72893, 0.310522, 0.729242, 0.310653, 0.72923, 0.310663, 0, 0
3, 1920.00000, 0.728933, 0.310524, 0.729207, 0.310641, 0.729207, 0.310641, 0, 0
3, 1980.00000, 0.728932, 0.310524, 0.729207, 0.310641, 0.729207, 0.310641, 0, 0
3, 2040.00000, 0.728932, 0.310524, 0.729207, 0.310641, 0.729207, 0.310641, 0, 0
3, 2100.00000, 0.728932, 0.310524, 0.729207, 0.310641, 0.729207, 0.310641, 0, 0
3, 2160.00000, 0.728932, 0.310524, 0.729207, 0.310641, 0.729207, 0.310641, 0, 0
3, 2220.00000, 0.728932, 0.310524, 0.729207, 0.310641, 0.729207, 0.310641, 0, 0
3, 2280.00000, 0.728932, 0.310524, 0.729207, 0.310641, 0.729207, 0.310641, 0, 0
3, 2340.00000, 0.728932, 0.310524, 0.729207, 0.310641, 0.729207, 0.310641, 0, 0
3, 2400.00000, 0.728932, 0.310524, 0.729207, 0.310641, 0.729207, 0.310641, 0, 0
3, 2460.00000, 0.728932, 0.310524, 0.729207, 0.310641, 0.729207, 0.310641, 0, 0
3, 2520.00000, 0.728932, 0.310524, 0.729207, 0.310641, 0.729207, 0.310641, 0, 0
3, 2580.00000, 0.728932, 0.310524, 0.729207, 0.310641, 0.729207, 0.310641, 0, 0
3, 2640.00000, 0.728932, 0.310524, 0.729207, 0.310641, 0.729207, 0.310641, 0, 0
3, 2700.00000, 0.728932, 0.310524, 0.729207, 0.310641, 0.729207, 0.310641, 0, 0
3, 2760.00000, 0.768609, 0.327429, 0.768613, 0.327429, 0.768614, 0.327435, 0, 0
3, 2820.00000, 0.768593, 0.327419, 0.768593, 0.327419, 0.768593, 0.327419, 0, 0
3, 2880.00000, 0.768593, 0.327419, 0.768593, 0.327419, 0.768593, 0.327419, 0, 0
3, 2940.00000, 0.768593, 0.327419, 0.768593, 0.327419, 0.768593, 0.327419, 0, 0
3, 3000.00000, 0.768593, 0.327419, 0.768593, 0.327419, 0.768593, 0.327419, 0, 0
3, 3060.00000, 0.768593, 0.327419, 0.768593, 0.327419, 0.768593, 0.327419, 0, 0
3, 3120.00000, 0.768627, 0.327453, 0.768574, 0.327413, 0.768614, 0.32742, 0, 0
3, 3180.00000, 0.768593, 0.32742, 0.768592, 0.327419, 0.768593, 0.327419, 0, 0
3, 3240.00000, 0.768593, 0.327419, 0.768593, 0.327419, 0.768593, 0.327419, 0, 0
3, 3300.00000, 0.768593, 0.327419, 0.768593, 0.327419, 0.768593, 0.327419, 0, 0
3, 3360.00000, 0.768593, 0.327419, 0.768593, 0.327419, 0.768593, 0.327419, 0, 0
3, 3420.00000, 0.768593, 0.327419, 0.768593, 0.327419, 0.768593, 0.327419, 0, 0
3, 3480.00000, 0.768593, 0.327419, 0.768593, 0.327419, 0.768593, 0.327419, 0, 0
3, 3540.00000, 0.768593, 0.327419, 0.768593, 0.327419, 0.768593, 0.327419, 0, 0
4, 0.00000, 0.768593, 0.327419, 0.768593, 0.327419, 0.768593, 0.327419, 0, 0
4, 60.00000, 0.722416, 0.307744, 0.722418, 0.307748, 0.722415, 0.307745, 0, 0
4, 120.00000, 0.722429, 0.307753, 0.722429, 0.307753, 0.722429, 0.307753, 0, 0
4, 180.00000, 0.722429, 0.307753, 0.722429, 0.307753, 0.722429, 0.307753, 0, 0
4, 240.00000, 0.722429, 0.307753, 0.722429, 0.307753, 0.722429, 0.307753, 0, 0
4, 300.00000, 0.722429, 0.307753, 0.722429, 0.307753, 0.722429, 0.307753, 0, 0
4, 360.00000, 0.722429, 0.307753, 0.722429, 0.307753, 0.722429, 0.307753, 0, 0
4, 420.00000, 0.722429, 0.307753, 0.722429, 0.307753, 0.722429, 0.307753, 0, 0
4, 480.00000, 0.722429, 0.307753, 0.722429, 0.307753, 0.722429, 0.307753, 0, 0
4, 540.00000, 0.722429, 0.307753, 0.722429, 0.307753, 0.722429, 0.307753, 0, 0
4, 600.00000, 0.722429, 0.307753, 0.722429, 0.307753, 0.722429, 0.307753, 0, 0
4, 660.00000, 0.722429, 0.307753, 0.722429, 0.307753, 0.722429, 0.307753, 0, 0
4, 720.00000, 0.722429, 0.307753, 0.722429, 0.307753, 0.722429, 0.307753, 0, 0
