hour,t(sec),V1,VAngle1,V2,VAngle2,V3,VAngle3,V4,VAngle4,I1,IAngle1,I2,IAngle2,I3,IAngle3,I4,IAngle4
0, 60.00000, 114.705, -30.3967, 119.134, -151.137, 115.772, 87.5532, 0, 0, 8.04348, -53.4704, 8.38963, -174.211, 8.12691, 64.4796, 0.06266, -22.8981
0, 120.00000, 114.705, -30.3967, 119.134, -151.137, 115.772, 87.5532, 0, 0, 8.04343, -53.4706, 8.3896, -174.211, 8.12683, 64.4793, 0.0626483, -22.8558
0, 180.00000, 114.705, -30.3967, 119.134, -151.137, 115.772, 87.5532, 0, 0, 8.04343, -53.4706, 8.3896, -174.211, 8.12683, 64.4793, 0.0626482, -22.8556
0, 240.00000, 114.705, -30.3967, 119.134, -151.137, 115.772, 87.5532, 0, 0, 8.04343, -53.4706, 8.3896, -174.211, 8.12683, 64.4793, 0.0626482, -22.8556
0, 300.00000, 114.705, -30.3967, 119.134, -151.137, 115.772, 87.5532, 0, 0, 8.04343, -53.4706, 8.3896, -174.211, 8.12683, 64.4793, 0.0626482, -22.8556
0, 360.00000, 114.705, -30.3967, 119.134, -151.137, 115.772, 87.5532, 0, 0, 8.04343, -53.4706, 8.3896, -174.211, 8.12683, 64.4793, 0.0626482, -22.8556
0, 420.00000, 114.705, -30.3967, 119.134, -151.137, 115.772, 87.5532, 0, 0, 8.04343, -53.4706, 8.3896, -174.211, 8.12683, 64.4793, 0.0626482, -22.8556
0, 480.00000, 115.703, -30.3049, 120.145, -151.056, 116.71, 87.6514, 0, 0, 7.06565, -53.3788, 7.36764, -174.13, 7.1341, 64.577, 0.0548746, -20.0827
0, 540.00000, 115.703, -30.3049, 120.145, -151.056, 116.71, 87.6514, 0, 0, 7.0657, -53.3788, 7.36774, -174.129, 7.13414, 64.5775, 0.0549677, -20.0403
0, 600.00000, 115.703, -30.3049, 120.145, -151.056, 116.71, 87.6514, 0, 0, 7.0657, -53.3788, 7.36774, -174.129, 7.13414, 64.5775, 0.0549679, -20.0402
0, 660.00000, 115.703, -30.3049, 120.145, -151.056, 116.71, 87.6514, 0, 0, 7.0657, -53.3788, 7.36774, -174.129, 7.13414, 64.5775, 0.0549679, -20.0402
0, 720.00000, 115.703, -30.3049, 120.145, -151.056, 116.71, 87.6514, 0, 0, 7.0657, -53.3788, 7.36774, -174.129, 7.13414, 64.5775, 0.0549679, -20.0402
0, 780.00000, 115.703, -30.3049, 120.145, -151.056, 116.71, 87.6514, 0, 0, 7.0657, -53.3788, 7.36774, -174.129, 7.13414, 64.5775, 0.0549679, -20.0402
0, 840.00000, 115.703, -30.3049, 120.145, -151.056, 116.71, 87.6514, 0, 0, 7.0657, -53.3788, 7.36774, -174.129, 7.13414, 64.5775, 0.0549679, -20.0402
0, 900.00000, 115.703, -30.3049, 120.145, -151.056, 116.71, 87.6514, 0, 0, 7.0657, -53.3788, 7.36774, -174.129, 7.13414, 64.5775, 0.0549679, -20.0402
0, 960.00000, 115.191, -30.278, 120.14, -151.054, 116.425, 87.4414, 0, 0, 7.03086, -53.3519, 7.3674, -174.128, 7.1148, 64.3677, 0.0577431, -20.1549
0, 1020.00000, 115.191, -30.278, 120.14, -151.054, 116.425, 87.4414, 0, 0, 7.03082, -53.3519, 7.36741, -174.128, 7.11477, 64.3675, 0.0577597, -20.1392
0, 1080.00000, 115.191, -30.278, 120.14, -151.054, 116.425, 87.4414, 0, 0, 7.03082, -53.3519, 7.36741, -174.128, 7.11477, 64.3675, 0.0577597, -20.1391
0, 1140.00000, 115.191, -30.278, 120.14, -151.054, 116.425, 87.4414, 0, 0, 7.03082, -53.3519, 7.36741, -174.128, 7.11477, 64.3675, 0.0577597, -20.1391
0, 1200.00000, 115.191, -30.278, 120.14, -151.054, 116.425, 87.4414, 0, 0, 7.03082, -53.3519, 7.36741, -174.128, 7.11477, 64.3675, 0.0577597, -20.1391
0, 1260.00000, 115.191, -30.278, 120.14, -151.054, 116.425, 87.4414, 0, 0, 7.03082, -53.3519, 7.36741, -174.128, 7.11477, 64.3675, 0.0577597, -20.1391
0, 1320.00000, 115.191, -30.278, 120.14, -151.054, 116.425, 87.4414, 0, 0, 7.03082, -53.3519, 7.36741, -174.128, 7.11477, 64.3675, 0.0577597, -20.1391
0, 1380.00000, 115.191, -30.278, 120.14, -151.054, 116.425, 87.4414, 0, 0, 7.03082, -53.3519, 7.36741, -174.128, 7.11477, 64.3675, 0.0577597, -20.1391
0, 1440.00000, 115.191, -30.278, 120.14, -151.054, 116.425, 87.4414, 0, 0, 7.03082, -53.3519, 7.36741, -174.128, 7.11477, 64.3675, 0.0577597, -20.1391
0, 1500.00000, 115.191, -30.278, 120.14, -151.054, 116.425, 87.4414, 0, 0, 7.03082, -53.3519, 7.36741, -174.128, 7.11477, 64.3675, 0.0577597, -20.1391
0, 1560.00000, 115.191, -30.278, 120.14, -151.054, 116.425, 87.4414, 0, 0, 7.03082, -53.3519, 7.36741, -174.128, 7.11477, 64.3675, 0.0577597, -20.1391
0, 1620.00000, 115.191, -30.278, 120.14, -151.054, 116.425, 87.4414, 0, 0, 7.03082, -53.3519, 7.36741, -174.128, 7.11477, 64.3675, 0.0577597, -20.1391
0, 1680.00000, 115.191, -30.278, 120.14, -151.054, 116.425, 87.4414, 0, 0, 7.03082, -53.3519, 7.36741, -174.128, 7.11477, 64.3675, 0.0577597, -20.1391
0, 1740.00000, 115.191, -30.278, 120.14, -151.054, 116.425, 87.4414, 0, 0, 7.03082, -53.3519, 7.36741, -174.128, 7.11477, 64.3675, 0.0577597, -20.1391
0, 1800.00000, 114.65, -30.2413, 120.135, -151.053, 116.11, 87.2195, 0, 0, 6.99413, -53.3152, 7.36701, -174.127, 7.09337, 64.1458, 0.0603158, -20.0471
0, 1860.00000, 114.65, -30.2413, 120.135, -151.053, 116.11, 87.2195, 0, 0, 6.99408, -53.3152, 7.36701, -174.127, 7.09334, 64.1455, 0.0603337, -20.0397
0, 1920.00000, 114.65, -30.2413, 120.135, -151.053, 116.11, 87.2195, 0, 0, 6.99408, -53.3152, 7.36701, -174.127, 7.09334, 64.1455, 0.0603337, -20.0396
0, 1980.00000, 114.65, -30.2413, 120.135, -151.053, 116.11, 87.2195, 0, 0, 6.99408, -53.3152, 7.36701, -174.127, 7.09334, 64.1455, 0.0603337, -20.0396
0, 2040.00000, 114.65, -30.2413, 120.135, -151.053, 116.11, 87.2195, 0, 0, 6.99408, -53.3152, 7.36701, -174.127, 7.09334, 64.1455, 0.0603337, -20.0396
0, 2100.00000, 114.65, -30.2413, 120.135, -151.053, 116.11, 87.2195, 0, 0, 6.99408, -53.3152, 7.36701, -174.127, 7.09334, 64.1455, 0.0603337, -20.0396
0, 2160.00000, 114.65, -30.2413, 120.135, -151.053, 116.11, 87.2195, 0, 0, 6.99408, -53.3152, 7.36701, -174.127, 7.09334, 64.1455, 0.0603337, -20.0396
0, 2220.00000, 114.65, -30.2413, 120.135, -151.053, 116.11, 87.2195, 0, 0, 6.99408, -53.3152, 7.36701, -174.127, 7.09334, 64.1455, 0.0603337, -20.0396
0, 2280.00000, 114.65, -30.2413, 120.135, -151.053, 116.11, 87.2195, 0, 0, 6.99408, -53.3152, 7.36701, -174.127, 7.09334, 64.1455, 0.0603337, -20.0396
0, 2340.00000, 114.65, -30.2413, 120.135, -151.053, 116.11, 87.2195, 0, 0, 6.99408, -53.3152, 7.36701, -174.127, 7.09334, 64.1455, 0.0603337, -20.0396
0, 2400.00000, 114.65, -30.2413, 120.135, -151.053, 116.11, 87.2195, 0, 0, 6.99408, -53.3152, 7.36701, -174.127, 7.09334, 64.1455, 0.0603337, -20.0396
0, 2460.00000, 114.65, -30.2413, 120.135, -151.053, 116.11, 87.2195, 0, 0, 6.99408, -53.3152, 7.36701, -174.127, 7.09334, 64.1455, 0.0603337, -20.0396
0, 2520.00000, 114.65, -30.2413, 120.135, -151.053, 116.11, 87.2195, 0, 0, 6.99408, -53.3152, 7.36701, -174.127, 7.09334, 64.1455, 0.0603337, -20.0396
0, 2580.00000, 114.65, -30.2413, 120.135, -151.053, 116.11, 87.2195, 0, 0, 6.99408, -53.3152, 7.36701, -174.127, 7.09334, 64.1455, 0.0603337, -20.0396
0, 2640.00000, 114.65, -30.2413, 120.135, -151.053, 116.11, 87.2195, 0, 0, 6.99408, -53.3152, 7.36701, -174.127, 7.09334, 64.1455, 0.0603337, -20.0396
0, 2700.00000, 114.65, -30.2413, 120.135, -151.053, 116.11, 87.2195, 0, 0, 6.99408, -53.3152, 7.36701, -174.127, 7.09334, 64.1455, 0.0603337, -20.0396
0, 2760.00000, 114.934, -30.2141, 120.135, -151.053, 116.202, 87.3549, 0, 0, 7.01333, -53.2882, 7.36706, -174.127, 7.09955, 64.2807, 0.0585321, -20.1002
0, 2820.00000, 114.934, -30.2141, 120.135, -151.053, 116.202, 87.3549, 0, 0, 7.01336, -53.2881, 7.36706, -174.127, 7.09959, 64.281, 0.05852, -20.1506
0, 2880.00000, 114.934, -30.2141, 120.135, -151.053, 116.202, 87.3549, 0, 0, 7.01336, -53.2881, 7.36706, -174.127, 7.09959, 64.281, 0.05852, -20.1509
0, 2940.00000, 114.934, -30.2141, 120.135, -151.053, 116.202, 87.3549, 0, 0, 7.01336, -53.2881, 7.36706, -174.127, 7.09959, 64.281, 0.05852, -20.1509
0, 3000.00000, 114.934, -30.2141, 120.135, -151.053, 116.202, 87.3549, 0, 0, 7.01336, -53.2881, 7.36706, -174.127, 7.09959, 64.281, 0.05852, -20.1509
0, 3060.00000, 114.934, -30.2141, 120.135, -151.053, 116.202, 87.3549, 0, 0, 7.01336, -53.2881, 7.36706, -174.127, 7.09959, 64.281, 0.05852, -20.1509
0, 3120.00000, 114.934, -30.2141, 120.135, -151.053, 116.202, 87.3549, 0, 0, 7.01336, -53.2881, 7.36706, -174.127, 7.09959, 64.281, 0.05852, -20.1509
0, 3180.00000, 114.934, -30.2141, 120.135, -151.053, 116.202, 87.3549, 0, 0, 7.01336, -53.2881, 7.36706, -174.127, 7.09959, 64.281, 0.05852, -20.1509
0, 3240.00000, 114.934, -30.2141, 120.135, -151.053, 116.202, 87.3549, 0, 0, 7.01336, -53.2881, 7.36706, -174.127, 7.09959, 64.281, 0.05852, -20.1509
0, 3300.00000, 114.934, -30.2141, 120.135, -151.053, 116.202, 87.3549, 0, 0, 7.01336, -53.2881, 7.36706, -174.127, 7.09959, 64.281, 0.05852, -20.1509
0, 3360.00000, 114.934, -30.2141, 120.135, -151.053, 116.202, 87.3549, 0, 0, 7.01336, -53.2881, 7.36706, -174.127, 7.09959, 64.281, 0.05852, -20.1509
0, 3420.00000, 114.934, -30.2141, 120.135, -151.053, 116.202, 87.3549, 0, 0, 7.01336, -53.2881, 7.36706, -174.127, 7.09959, 64.281, 0.05852, -20.1509
0, 3480.00000, 114.934, -30.2141, 120.135, -151.053, 116.202, 87.3549, 0, 0, 7.01336, -53.2881, 7.36706, -174.127, 7.09959, 64.281, 0.05852, -20.1509
0, 3540.00000, 114.934, -30.2141, 120.135, -151.053, 116.202, 87.3549, 0, 0, 7.01336, -53.2881, 7.36706, -174.127, 7.09959, 64.281, 0.05852, -20.1509
1, 0.00000, 114.934, -30.2141, 120.135, -151.053, 116.202, 87.3549, 0, 0, 7.01336, -53.2881, 7.36706, -174.127, 7.09959, 64.281, 0.05852, -20.1509
1, 60.00000, 115.204, -30.1857, 120.136, -151.053, 116.283, 87.4846, 0, 0, 7.0317, -53.2597, 7.36714, -174.127, 7.10508, 64.4105, 0.0567997, -20.0313
1, 120.00000, 115.204, -30.1856, 120.136, -151.053, 116.283, 87.4846, 0, 0, 7.03173, -53.2596, 7.36714, -174.127, 7.1051, 64.4107, 0.0567837, -20.0631
1, 180.00000, 115.204, -30.1856, 120.136, -151.053, 116.283, 87.4846, 0, 0, 7.03173, -53.2596, 7.36714, -174.127, 7.1051, 64.4107, 0.0567837, -20.0633
1, 240.00000, 115.204, -30.1856, 120.136, -151.053, 116.283, 87.4846, 0, 0, 7.03173, -53.2596, 7.36714, -174.127, 7.1051, 64.4107, 0.0567837, -20.0633
1, 300.00000, 115.204, -30.1856, 120.136, -151.053, 116.283, 87.4846, 0, 0, 7.03173, -53.2596, 7.36714, -174.127, 7.1051, 64.4107, 0.0567837, -20.0633
1, 360.00000, 115.204, -30.1856, 120.136, -151.053, 116.283, 87.4846, 0, 0, 7.03173, -53.2596, 7.36714, -174.127, 7.1051, 64.4107, 0.0567837, -20.0633
1, 420.00000, 115.204, -30.1856, 120.136, -151.053, 116.283, 87.4846, 0, 0, 7.03173, -53.2596, 7.36714, -174.127, 7.1051, 64.4107, 0.0567837, -20.0633
1, 480.00000, 115.204, -30.1856, 120.136, -151.053, 116.283, 87.4846, 0, 0, 7.03173, -53.2596, 7.36714, -174.127, 7.1051, 64.4107, 0.0567837, -20.0633
1, 540.00000, 115.204, -30.1856, 120.136, -151.053, 116.283, 87.4846, 0, 0, 7.03173, -53.2596, 7.36714, -174.127, 7.1051, 64.4107, 0.0567837, -20.0633
1, 600.00000, 115.204, -30.1856, 120.136, -151.053, 116.283, 87.4846, 0, 0, 7.03173, -53.2596, 7.36714, -174.127, 7.1051, 64.4107, 0.0567837, -20.0633
1, 660.00000, 115.204, -30.1856, 120.136, -151.053, 116.283, 87.4846, 0, 0, 7.03173, -53.2596, 7.36714, -174.127, 7.1051, 64.4107, 0.0567837, -20.0633
1, 720.00000, 115.204, -30.1856, 120.136, -151.053, 116.283, 87.4846, 0, 0, 7.03173, -53.2596, 7.36714, -174.127, 7.1051, 64.4107, 0.0567837, -20.0633
1, 780.00000, 116.73, -30.5448, 120.106, -151.061, 117.706, 87.9557, 0, 0, 7.13541, -53.6188, 7.36504, -174.135, 7.20182, 64.8816, 0.0438239, -32.4642
1, 840.00000, 116.73, -30.5448, 120.106, -151.061, 117.706, 87.9557, 0, 0, 7.13547, -53.6187, 7.36503, -174.135, 7.20184, 64.8818, 0.0437945, -32.4852
1, 900.00000, 116.73, -30.5448, 120.106, -151.061, 117.706, 87.9557, 0, 0, 7.13547, -53.6187, 7.36503, -174.135, 7.20184, 64.8818, 0.0437943, -32.4854
1, 960.00000, 116.73, -30.5448, 120.106, -151.061, 117.706, 87.9557, 0, 0, 7.13547, -53.6187, 7.36503, -174.135, 7.20184, 64.8818, 0.0437943, -32.4854
1, 1020.00000, 116.73, -30.5448, 120.106, -151.061, 117.706, 87.9557, 0, 0, 7.13547, -53.6187, 7.36503, -174.135, 7.20184, 64.8818, 0.0437943, -32.4854
1, 1080.00000, 116.73, -30.5448, 120.106, -151.061, 117.706, 87.9557, 0, 0, 7.13547, -53.6187, 7.36503, -174.135, 7.20184, 64.8818, 0.0437943, -32.4854
1, 1140.00000, 116.73, -30.5448, 120.106, -151.061, 117.706, 87.9557, 0, 0, 7.13547, -53.6187, 7.36503, -174.135, 7.20184, 64.8818, 0.0437943, -32.4854
1, 1200.00000, 116.73, -30.5448, 120.106, -151.061, 117.706, 87.9557, 0, 0, 7.13547, -53.6187, 7.36503, -174.135, 7.20184, 64.8818, 0.0437943, -32.4854
1, 1260.00000, 116.73, -30.5448, 120.106, -151.061, 117.706, 87.9557, 0, 0, 7.13547, -53.6187, 7.36503, -174.135, 7.20184, 64.8818, 0.0437943, -32.4854
1, 1320.00000, 116.73, -30.5448, 120.106, -151.061, 117.706, 87.9557, 0, 0, 7.13547, -53.6187, 7.36503, -174.135, 7.20184, 64.8818, 0.0437943, -32.4854
1, 1380.00000, 116.73, -30.5448, 120.106, -151.061, 117.706, 87.9557, 0, 0, 7.13547, -53.6187, 7.36503, -174.135, 7.20184, 64.8818, 0.0437943, -32.4854
1, 1440.00000, 116.73, -30.5448, 120.106, -151.061, 117.706, 87.9557, 0, 0, 7.13547, -53.6187, 7.36503, -174.135, 7.20184, 64.8818, 0.0437943, -32.4854
1, 1500.00000, 116.73, -30.5448, 120.106, -151.061, 117.706, 87.9557, 0, 0, 7.13547, -53.6187, 7.36503, -174.135, 7.20184, 64.8818, 0.0437943, -32.4854
1, 1560.00000, 116.73, -30.5448, 120.106, -151.061, 117.706, 87.9557, 0, 0, 7.13547, -53.6187, 7.36503, -174.135, 7.20184, 64.8818, 0.0437943, -32.4854
1, 1620.00000, 116.73, -30.5448, 120.106, -151.061, 117.706, 87.9557, 0, 0, 7.13547, -53.6187, 7.36503, -174.135, 7.20184, 64.8818, 0.0437943, -32.4854
1, 1680.00000, 116.73, -30.5448, 120.106, -151.061, 117.706, 87.9557, 0, 0, 7.13547, -53.6187, 7.36503, -174.135, 7.20184, 64.8818, 0.0437943, -32.4854
1, 1740.00000, 116.73, -30.5448, 120.106, -151.061, 117.706, 87.9557, 0, 0, 7.13547, -53.6187, 7.36503, -174.135, 7.20184, 64.8818, 0.0437943, -32.4854
1, 1800.00000, 116.73, -30.5448, 120.106, -151.061, 117.706, 87.9557, 0, 0, 7.13547, -53.6187, 7.36503, -174.135, 7.20184, 64.8818, 0.0437943, -32.4854
1, 1860.00000, 116.73, -30.5448, 120.106, -151.061, 117.706, 87.9557, 0, 0, 7.13547, -53.6187, 7.36503, -174.135, 7.20184, 64.8818, 0.0437943, -32.4854
1, 1920.00000, 116.73, -30.5448, 120.106, -151.061, 117.706, 87.9557, 0, 0, 7.13547, -53.6187, 7.36503, -174.135, 7.20184, 64.8818, 0.0437943, -32.4854
1, 1980.00000, 116.73, -30.5448, 120.106, -151.061, 117.706, 87.9557, 0, 0, 7.13547, -53.6187, 7.36503, -174.135, 7.20184, 64.8818, 0.0437943, -32.4854
1, 2040.00000, 116.73, -30.5448, 120.106, -151.061, 117.706, 87.9557, 0, 0, 7.13547, -53.6187, 7.36503, -174.135, 7.20184, 64.8818, 0.0437943, -32.4854
1, 2100.00000, 116.73, -30.5448, 120.106, -151.061, 117.706, 87.9557, 0, 0, 7.13547, -53.6187, 7.36503, -174.135, 7.20184, 64.8818, 0.0437943, -32.4854
1, 2160.00000, 116.73, -30.5448, 120.106, -151.061, 117.706, 87.9557, 0, 0, 7.13547, -53.6187, 7.36503, -174.135, 7.20184, 64.8818, 0.0437943, -32.4854
1, 2220.00000, 117.299, -30.5763, 120.11, -151.061, 118.031, 88.1792, 0, 0, 7.17412, -53.6504, 7.36532, -174.135, 7.22393, 65.1051, 0.0401533, -33.102
1, 2280.00000, 117.299, -30.5763, 120.11, -151.061, 118.031, 88.1792, 0, 0, 7.17417, -53.6502, 7.36531, -174.135, 7.22395, 65.1053, 0.0401107, -33.1284
1, 2340.00000, 117.299, -30.5763, 120.11, -151.061, 118.031, 88.1792, 0, 0, 7.17417, -53.6502, 7.36531, -174.135, 7.22395, 65.1053, 0.0401105, -33.1285
1, 2400.00000, 117.299, -30.5763, 120.11, -151.061, 118.031, 88.1792, 0, 0, 7.17417, -53.6502, 7.36531, -174.135, 7.22395, 65.1053, 0.0401105, -33.1285
1, 2460.00000, 117.299, -30.5763, 120.11, -151.061, 118.031, 88.1792, 0, 0, 7.17417, -53.6502, 7.36531, -174.135, 7.22395, 65.1053, 0.0401105, -33.1285
1, 2520.00000, 117.299, -30.5763, 120.11, -151.061, 118.031, 88.1792, 0, 0, 7.17417, -53.6502, 7.36531, -174.135, 7.22395, 65.1053, 0.0401105, -33.1285
1, 2580.00000, 117.299, -30.5763, 120.11, -151.061, 118.031, 88.1792, 0, 0, 7.17417, -53.6502, 7.36531, -174.135, 7.22395, 65.1053, 0.0401105, -33.1285
1, 2640.00000, 117.299, -30.5763, 120.11, -151.061, 118.031, 88.1792, 0, 0, 7.17417, -53.6502, 7.36531, -174.135, 7.22395, 65.1053, 0.0401105, -33.1285
1, 2700.00000, 117.299, -30.5763, 120.11, -151.061, 118.031, 88.1792, 0, 0, 7.17417, -53.6502, 7.36531, -174.135, 7.22395, 65.1053, 0.0401105, -33.1285
1, 2760.00000, 117.299, -30.5763, 120.11, -151.061, 118.031, 88.1792, 0, 0, 7.17417, -53.6502, 7.36531, -174.135, 7.22395, 65.1053, 0.0401105, -33.1285
1, 2820.00000, 117.299, -30.5763, 120.11, -151.061, 118.031, 88.1792, 0, 0, 7.17417, -53.6502, 7.36531, -174.135, 7.22395, 65.1053, 0.0401105, -33.1285
1, 2880.00000, 117.299, -30.5763, 120.11, -151.061, 118.031, 88.1792, 0, 0, 7.17417, -53.6502, 7.36531, -174.135, 7.22395, 65.1053, 0.0401105, -33.1285
1, 2940.00000, 117.299, -30.5763, 120.11, -151.061, 118.031, 88.1792, 0, 0, 7.17417, -53.6502, 7.36531, -174.135, 7.22395, 65.1053, 0.0401105, -33.1285
1, 3000.00000, 117.299, -30.5763, 120.11, -151.061, 118.031, 88.1792, 0, 0, 7.17417, -53.6502, 7.36531, -174.135, 7.22395, 65.1053, 0.0401105, -33.1285
1, 3060.00000, 117.299, -30.5763, 120.11, -151.061, 118.031, 88.1792, 0, 0, 7.17417, -53.6502, 7.36531, -174.135, 7.22395, 65.1053, 0.0401105, -33.1285
1, 3120.00000, 117.299, -30.5763, 120.11, -151.061, 118.031, 88.1792, 0, 0, 7.17417, -53.6502, 7.36531, -174.135, 7.22395, 65.1053, 0.0401105, -33.1285
1, 3180.00000, 117.299, -30.5763, 120.11, -151.061, 118.031, 88.1792, 0, 0, 7.17417, -53.6502, 7.36531, -174.135, 7.22395, 65.1053, 0.0401105, -33.1285
1, 3240.00000, 117.299, -30.5763, 120.11, -151.061, 118.031, 88.1792, 0, 0, 7.17417, -53.6502, 7.36531, -174.135, 7.22395, 65.1053, 0.0401105, -33.1285
1, 3300.00000, 117.299, -30.5763, 120.11, -151.061, 118.031, 88.1792, 0, 0, 7.17417, -53.6502, 7.36531, -174.135, 7.22395, 65.1053, 0.0401105, -33.1285
1, 3360.00000, 117.299, -30.5763, 120.11, -151.061, 118.031, 88.1792, 0, 0, 7.17417, -53.6502, 7.36531, -174.135, 7.22395, 65.1053, 0.0401105, -33.1285
1, 3420.00000, 117.299, -30.5763, 120.11, -151.061, 118.031, 88.1792, 0, 0, 7.17417, -53.6502, 7.36531, -174.135, 7.22395, 65.1053, 0.0401105, -33.1285
1, 3480.00000, 117.299, -30.5763, 120.11, -151.061, 118.031, 88.1792, 0, 0, 7.17417, -53.6502, 7.36531, -174.135, 7.22395, 65.1053, 0.0401105, -33.1285
1, 3540.00000, 117.299, -30.5763, 120.11, -151.061, 118.031, 88.1792, 0, 0, 7.17417, -53.6502, 7.36531, -174.135, 7.22395, 65.1053, 0.0401105, -33.1285
2, 0.00000, 117.299, -30.5763, 120.11, -151.061, 118.031, 88.1792, 0, 0, 7.17417, -53.6502, 7.36531, -174.135, 7.22395, 65.1053, 0.0401105, -33.1285
2, 60.00000, 117.299, -30.5763, 120.11, -151.061, 118.031, 88.1792, 0, 0, 7.17417, -53.6502, 7.36531, -174.135, 7.22395, 65.1053, 0.0401105, -33.1285
2, 120.00000, 117.299, -30.5763, 120.11, -151.061, 118.031, 88.1792, 0, 0, 7.17417, -53.6502, 7.36531, -174.135, 7.22395, 65.1053, 0.0401105, -33.1285
2, 180.00000, 117.299, -30.5763, 120.11, -151.061, 118.031, 88.1792, 0, 0, 7.17417, -53.6502, 7.36531, -174.135, 7.22395, 65.1053, 0.0401105, -33.1285
2, 240.00000, 117.299, -30.5763, 120.11, -151.061, 118.031, 88.1792, 0, 0, 7.17417, -53.6502, 7.36531, -174.135, 7.22395, 65.1053, 0.0401105, -33.1285
2, 300.00000, 117.299, -30.5763, 120.11, -151.061, 118.031, 88.1792, 0, 0, 7.17417, -53.6502, 7.36531, -174.135, 7.22395, 65.1053, 0.0401105, -33.1285
2, 360.00000, 117.299, -30.5763, 120.11, -151.061, 118.031, 88.1792, 0, 0, 7.17417, -53.6502, 7.36531, -174.135, 7.22395, 65.1053, 0.0401105, -33.1285
2, 420.00000, 117.299, -30.5763, 120.11, -151.061, 118.031, 88.1792, 0, 0, 7.17417, -53.6502, 7.36531, -174.135, 7.22395, 65.1053, 0.0401105, -33.1285
2, 480.00000, 117.299, -30.5763, 120.11, -151.061, 118.031, 88.1792, 0, 0, 7.17417, -53.6502, 7.36531, -174.135, 7.22395, 65.1053, 0.0401105, -33.1285
2, 540.00000, 117.299, -30.5763, 120.11, -151.061, 118.031, 88.1792, 0, 0, 7.17417, -53.6502, 7.36531, -174.135, 7.22395, 65.1053, 0.0401105, -33.1285
2, 600.00000, 117.299, -30.5763, 120.11, -151.061, 118.031, 88.1792, 0, 0, 7.17417, -53.6502, 7.36531, -174.135, 7.22395, 65.1053, 0.0401105, -33.1285
2, 660.00000, 117.299, -30.5763, 120.11, -151.061, 118.031, 88.1792, 0, 0, 7.17417, -53.6502, 7.36531, -174.135, 7.22395, 65.1053, 0.0401105, -33.1285
