hour,t(sec),"P1 (kW)","Q1 (kvar)","P2 (kW)","Q2 (kvar)","P3 (kW)","Q3 (kvar)","P4 (kW)","Q4 (kvar)"
0, 60.00000, 0.555464, 0.236624, 0.545036, 0.232181, 0.587607, 0.250304, 0, 0
0, 120.00000, 0.555418, 0.236604, 0.545025, 0.232177, 0.588056, 0.250496, 0, 0
0, 180.00000, 0.555376, 0.236586, 0.545015, 0.232173, 0.58846, 0.25067, 0, 0
0, 240.00000, 0.555337, 0.23657, 0.545006, 0.23217, 0.588823, 0.250826, 0, 0
0, 300.00000, 0.555303, 0.236556, 0.544999, 0.232166, 0.589078, 0.250935, 0, 0
0, 360.00000, 0.55527, 0.236542, 0.544992, 0.232163, 0.589078, 0.250936, 0, 0
0, 420.00000, 0.555241, 0.23653, 0.544985, 0.23216, 0.589078, 0.250937, 0, 0
0, 480.00000, 0.49163, 0.209432, 0.482099, 0.20537, 0.512504, 0.218319, 0, 0
0, 540.00000, 0.491607, 0.209422, 0.482094, 0.205368, 0.512503, 0.218319, 0, 0
0, 600.00000, 0.491585, 0.209413, 0.48209, 0.205367, 0.512502, 0.218319, 0, 0
0, 660.00000, 0.491566, 0.209405, 0.482086, 0.205365, 0.512501, 0.218319, 0, 0
0, 720.00000, 0.491548, 0.209398, 0.482083, 0.205364, 0.5125, 0.218319, 0, 0
0, 780.00000, 0.491532, 0.209391, 0.482079, 0.205363, 0.512499, 0.21832, 0, 0
0, 840.00000, 0.491518, 0.209385, 0.482077, 0.205362, 0.512498, 0.21832, 0, 0
0, 900.00000, 0.491505, 0.20938, 0.482074, 0.205361, 0.512497, 0.21832, 0, 0
0, 960.00000, 0.476732, 0.203087, 0.46557, 0.198331, 0.512497, 0.21832, 0, 0
0, 1020.00000, 0.476722, 0.203083, 0.465568, 0.19833, 0.512496, 0.21832, 0, 0
0, 1080.00000, 0.476713, 0.203079, 0.465567, 0.19833, 0.512496, 0.21832, 0, 0
0, 1140.00000, 0.477609, 0.20346, 0.468179, 0.199443, 0.512495, 0.21832, 0, 0
0, 1200.00000, 0.477602, 0.203457, 0.468178, 0.199442, 0.512495, 0.21832, 0, 0
0, 1260.00000, 0.477595, 0.203455, 0.468178, 0.199442, 0.512494, 0.21832, 0, 0
0, 1320.00000, 0.477589, 0.203452, 0.468177, 0.199442, 0.512494, 0.21832, 0, 0
0, 1380.00000, 0.477584, 0.20345, 0.468176, 0.199442, 0.512494, 0.21832, 0, 0
0, 1440.00000, 0.477579, 0.203448, 0.468176, 0.199442, 0.512493, 0.21832, 0, 0
0, 1500.00000, 0.477575, 0.203446, 0.468175, 0.199441, 0.512493, 0.21832, 0, 0
0, 1560.00000, 0.477571, 0.203444, 0.468175, 0.199441, 0.512493, 0.21832, 0, 0
0, 1620.00000, 0.477567, 0.203443, 0.468174, 0.199441, 0.512493, 0.21832, 0, 0
0, 1680.00000, 0.477564, 0.203441, 0.468174, 0.199441, 0.512493, 0.21832, 0, 0
0, 1740.00000, 0.477561, 0.20344, 0.468174, 0.199441, 0.512493, 0.21832, 0, 0
0, 1800.00000, 0.46922, 0.199887, 0.468293, 0.199492, 0.512492, 0.21832, 0, 0
0, 1860.00000, 0.469218, 0.199886, 0.468293, 0.199492, 0.512492, 0.21832, 0, 0
0, 1920.00000, 0.469216, 0.199885, 0.468293, 0.199492, 0.512492, 0.21832, 0, 0
0, 1980.00000, 0.469214, 0.199884, 0.468292, 0.199492, 0.512492, 0.21832, 0, 0
0, 2040.00000, 0.469213, 0.199884, 0.468292, 0.199491, 0.512492, 0.21832, 0, 0
0, 2100.00000, 0.469211, 0.199883, 0.468292, 0.199491, 0.512492, 0.21832, 0, 0
0, 2160.00000, 0.46921, 0.199883, 0.468292, 0.199491, 0.512492, 0.21832, 0, 0
0, 2220.00000, 0.469209, 0.199882, 0.468292, 0.199491, 0.512492, 0.21832, 0, 0
0, 2280.00000, 0.469208, 0.199882, 0.468292, 0.199491, 0.512492, 0.21832, 0, 0
0, 2340.00000, 0.469207, 0.199881, 0.468291, 0.199491, 0.512491, 0.21832, 0, 0
0, 2400.00000, 0.469206, 0.199881, 0.468291, 0.199491, 0.512491, 0.21832, 0, 0
0, 2460.00000, 0.469206, 0.199881, 0.468291, 0.199491, 0.512491, 0.21832, 0, 0
0, 2520.00000, 0.469205, 0.199881, 0.468291, 0.199491, 0.512491, 0.21832, 0, 0
0, 2580.00000, 0.469205, 0.19988, 0.468291, 0.199491, 0.512491, 0.21832, 0, 0
0, 2640.00000, 0.469204, 0.19988, 0.468291, 0.199491, 0.512491, 0.21832, 0, 0
0, 2700.00000, 0.469204, 0.19988, 0.468291, 0.199491, 0.512491, 0.21832, 0, 0
0, 2760.00000, 0.472372, 0.20123, 0.468263, 0.199479, 0.512492, 0.21832, 0, 0
0, 2820.00000, 0.472372, 0.20123, 0.468263, 0.199479, 0.512491, 0.21832, 0, 0
0, 2880.00000, 0.472372, 0.201229, 0.468263, 0.199479, 0.512491, 0.21832, 0, 0
0, 2940.00000, 0.472371, 0.201229, 0.468263, 0.199479, 0.512491, 0.21832, 0, 0
0, 3000.00000, 0.472371, 0.201229, 0.468263, 0.199479, 0.512491, 0.21832, 0, 0
0, 3060.00000, 0.472371, 0.201229, 0.468263, 0.199479, 0.512491, 0.21832, 0, 0
0, 3120.00000, 0.472371, 0.201229, 0.468263, 0.199479, 0.512491, 0.21832, 0, 0
0, 3180.00000, 0.47237, 0.201229, 0.468263, 0.199479, 0.512491, 0.21832, 0, 0
0, 3240.00000, 0.47237, 0.201229, 0.468263, 0.199479, 0.512491, 0.21832, 0, 0
0, 3300.00000, 0.47237, 0.201229, 0.468263, 0.199479, 0.512491, 0.21832, 0, 0
0, 3360.00000, 0.47237, 0.201229, 0.468263, 0.199479, 0.512491, 0.21832, 0, 0
0, 3420.00000, 0.47237, 0.201229, 0.468263, 0.199479, 0.512491, 0.21832, 0, 0
0, 3480.00000, 0.47237, 0.201229, 0.468263, 0.199479, 0.512491, 0.21832, 0, 0
0, 3540.00000, 0.472369, 0.201229, 0.468263, 0.199479, 0.512491, 0.21832, 0, 0
1, 0.00000, 0.472369, 0.201228, 0.468263, 0.199479, 0.512491, 0.21832, 0, 0
1, 60.00000, 0.473237, 0.201598, 0.470814, 0.200566, 0.512491, 0.21832, 0, 0
1, 120.00000, 0.473237, 0.201598, 0.470814, 0.200566, 0.512491, 0.21832, 0, 0
1, 180.00000, 0.473236, 0.201598, 0.470814, 0.200566, 0.512491, 0.21832, 0, 0
1, 240.00000, 0.473236, 0.201598, 0.470814, 0.200566, 0.512491, 0.21832, 0, 0
1, 300.00000, 0.473236, 0.201598, 0.470814, 0.200566, 0.512491, 0.21832, 0, 0
1, 360.00000, 0.473236, 0.201598, 0.470814, 0.200566, 0.512491, 0.21832, 0, 0
1, 420.00000, 0.473236, 0.201598, 0.470814, 0.200566, 0.512491, 0.21832, 0, 0
1, 480.00000, 0.473236, 0.201598, 0.470813, 0.200566, 0.512491, 0.21832, 0, 0
1, 540.00000, 0.473236, 0.201598, 0.470813, 0.200566, 0.512491, 0.21832, 0, 0
1, 600.00000, 0.473236, 0.201598, 0.470813, 0.200566, 0.512491, 0.21832, 0, 0
1, 660.00000, 0.473236, 0.201598, 0.470813, 0.200566, 0.512491, 0.21832, 0, 0
1, 720.00000, 0.473236, 0.201598, 0.470813, 0.200566, 0.512491, 0.21832, 0, 0
1, 780.00000, 0.473346, 0.201645, 0.473414, 0.201674, 0.512491, 0.21832, 0, 0
1, 840.00000, 0.473346, 0.201645, 0.473414, 0.201674, 0.512491, 0.21832, 0, 0
1, 900.00000, 0.473346, 0.201645, 0.473414, 0.201674, 0.512491, 0.21832, 0, 0
1, 960.00000, 0.473346, 0.201645, 0.473414, 0.201674, 0.512491, 0.21832, 0, 0
1, 1020.00000, 0.473346, 0.201645, 0.473414, 0.201674, 0.512491, 0.21832, 0, 0
1, 1080.00000, 0.473346, 0.201645, 0.473414, 0.201674, 0.512491, 0.21832, 0, 0
1, 1140.00000, 0.473346, 0.201645, 0.473414, 0.201674, 0.512491, 0.21832, 0, 0
1, 1200.00000, 0.473346, 0.201645, 0.473414, 0.201674, 0.512491, 0.21832, 0, 0
1, 1260.00000, 0.473346, 0.201645, 0.473414, 0.201674, 0.512491, 0.21832, 0, 0
1, 1320.00000, 0.473346, 0.201645, 0.473414, 0.201674, 0.512491, 0.21832, 0, 0
1, 1380.00000, 0.473346, 0.201645, 0.473414, 0.201674, 0.512491, 0.21832, 0, 0
1, 1440.00000, 0.473346, 0.201645, 0.473414, 0.201674, 0.512491, 0.21832, 0, 0
1, 1500.00000, 0.473346, 0.201645, 0.473414, 0.201674, 0.512491, 0.21832, 0, 0
1, 1560.00000, 0.473346, 0.201645, 0.473414, 0.201674, 0.512491, 0.21832, 0, 0
1, 1620.00000, 0.473346, 0.201645, 0.473414, 0.201674, 0.512491, 0.21832, 0, 0
1, 1680.00000, 0.473346, 0.201645, 0.473414, 0.201674, 0.512491, 0.21832, 0, 0
1, 1740.00000, 0.473346, 0.201645, 0.473414, 0.201674, 0.512491, 0.21832, 0, 0
1, 1800.00000, 0.473346, 0.201645, 0.473414, 0.201674, 0.512491, 0.21832, 0, 0
1, 1860.00000, 0.473346, 0.201645, 0.473414, 0.201674, 0.512491, 0.21832, 0, 0
1, 1920.00000, 0.473346, 0.201645, 0.473414, 0.201674, 0.512491, 0.21832, 0, 0
1, 1980.00000, 0.473346, 0.201645, 0.473414, 0.201674, 0.512491, 0.21832, 0, 0
1, 2040.00000, 0.473346, 0.201645, 0.473414, 0.201674, 0.512491, 0.21832, 0, 0
1, 2100.00000, 0.473346, 0.201645, 0.473414, 0.201674, 0.512491, 0.21832, 0, 0
1, 2160.00000, 0.473346, 0.201645, 0.473414, 0.201674, 0.512491, 0.21832, 0, 0
1, 2220.00000, 0.481659, 0.205186, 0.473262, 0.201609, 0.512491, 0.21832, 0, 0
1, 2280.00000, 0.481658, 0.205186, 0.473262, 0.201609, 0.512491, 0.21832, 0, 0
1, 2340.00000, 0.481658, 0.205186, 0.473262, 0.201609, 0.512491, 0.21832, 0, 0
1, 2400.00000, 0.481658, 0.205186, 0.473262, 0.201609, 0.512491, 0.21832, 0, 0
1, 2460.00000, 0.481658, 0.205186, 0.473262, 0.201609, 0.512491, 0.21832, 0, 0
1, 2520.00000, 0.481658, 0.205186, 0.473262, 0.201609, 0.512491, 0.21832, 0, 0
1, 2580.00000, 0.481658, 0.205186, 0.473262, 0.201609, 0.512491, 0.21832, 0, 0
1, 2640.00000, 0.481658, 0.205186, 0.473262, 0.201609, 0.512491, 0.21832, 0, 0
1, 2700.00000, 0.481658, 0.205186, 0.473262, 0.201609, 0.512491, 0.21832, 0, 0
1, 2760.00000, 0.481658, 0.205186, 0.473262, 0.201609, 0.512491, 0.21832, 0, 0
1, 2820.00000, 0.481658, 0.205186, 0.473262, 0.201609, 0.512491, 0.21832, 0, 0
1, 2880.00000, 0.481658, 0.205186, 0.473262, 0.201609, 0.512491, 0.21832, 0, 0
1, 2940.00000, 0.481658, 0.205186, 0.473262, 0.201609, 0.512491, 0.21832, 0, 0
1, 3000.00000, 0.481658, 0.205186, 0.473262, 0.201609, 0.512491, 0.21832, 0, 0
1, 3060.00000, 0.481658, 0.205186, 0.473262, 0.201609, 0.512491, 0.21832, 0, 0
1, 3120.00000, 0.481658, 0.205186, 0.473262, 0.201609, 0.512491, 0.21832, 0, 0
1, 3180.00000, 0.481658, 0.205186, 0.473262, 0.201609, 0.512491, 0.21832, 0, 0
1, 3240.00000, 0.481658, 0.205186, 0.473262, 0.201609, 0.512491, 0.21832, 0, 0
1, 3300.00000, 0.481658, 0.205186, 0.473262, 0.201609, 0.512491, 0.21832, 0, 0
1, 3360.00000, 0.481658, 0.205186, 0.473262, 0.201609, 0.512491, 0.21832, 0, 0
1, 3420.00000, 0.481658, 0.205186, 0.473262, 0.201609, 0.512491, 0.21832, 0, 0
1, 3480.00000, 0.481658, 0.205186, 0.473262, 0.201609, 0.512491, 0.21832, 0, 0
1, 3540.00000, 0.481658, 0.205186, 0.473262, 0.201609, 0.512491, 0.21832, 0, 0
2, 0.00000, 0.481658, 0.205186, 0.473262, 0.201609, 0.512491, 0.21832, 0, 0
2, 60.00000, 0.481658, 0.205186, 0.473262, 0.201609, 0.512491, 0.21832, 0, 0
2, 120.00000, 0.481658, 0.205186, 0.473262, 0.201609, 0.512491, 0.21832, 0, 0
2, 180.00000, 0.481658, 0.205186, 0.473262, 0.201609, 0.512491, 0.21832, 0, 0
2, 240.00000, 0.481658, 0.205186, 0.473262, 0.201609, 0.512491, 0.21832, 0, 0
2, 300.00000, 0.481658, 0.205186, 0.473262, 0.201609, 0.512491, 0.21832, 0, 0
2, 360.00000, 0.481658, 0.205186, 0.473262, 0.201609, 0.512491, 0.21832, 0, 0
2, 420.00000, 0.481658, 0.205186, 0.473262, 0.201609, 0.512491, 0.21832, 0, 0
2, 480.00000, 0.481658, 0.205186, 0.473262, 0.201609, 0.512491, 0.21832, 0, 0
2, 540.00000, 0.481658, 0.205186, 0.473262, 0.201609, 0.512491, 0.21832, 0, 0
2, 600.00000, 0.481658, 0.205186, 0.473262, 0.201609, 0.512491, 0.21832, 0, 0
2, 660.00000, 0.481658, 0.205186, 0.473262, 0.201609, 0.512491, 0.21832, 0, 0
2, 720.00000, 0.481658, 0.205186, 0.473262, 0.201609, 0.512491, 0.21832, 0, 0
2, 780.00000, 0.481658, 0.205186, 0.473262, 0.201609, 0.512491, 0.21832, 0, 0
2, 840.00000, 0.495654, 0.211148, 0.487298, 0.207588, 0.512491, 0.21832, 0, 0
2, 900.00000, 0.495653, 0.211148, 0.487298, 0.207588, 0.512491, 0.21832, 0, 0
2, 960.00000, 0.495653, 0.211148, 0.487298, 0.207588, 0.512491, 0.21832, 0, 0
2, 1020.00000, 0.495653, 0.211148, 0.487298, 0.207588, 0.512491, 0.21832, 0, 0
2, 1080.00000, 0.495653, 0.211148, 0.487298, 0.207588, 0.512491, 0.21832, 0, 0
2, 1140.00000, 0.495653, 0.211148, 0.487298, 0.207588, 0.512491, 0.21832, 0, 0
2, 1200.00000, 0.495653, 0.211148, 0.487298, 0.207588, 0.512491, 0.21832, 0, 0
2, 1260.00000, 0.495653, 0.211148, 0.487298, 0.207588, 0.512491, 0.21832, 0, 0
2, 1320.00000, 0.495653, 0.211148, 0.487298, 0.207588, 0.512491, 0.21832, 0, 0
2, 1380.00000, 0.495653, 0.211148, 0.487298, 0.207588, 0.512491, 0.21832, 0, 0
2, 1440.00000, 0.495653, 0.211148, 0.487298, 0.207588, 0.512491, 0.21832, 0, 0
2, 1500.00000, 0.495653, 0.211148, 0.487298, 0.207588, 0.512491, 0.21832, 0, 0
2, 1560.00000, 0.495653, 0.211148, 0.487298, 0.207588, 0.512491, 0.21832, 0, 0
2, 1620.00000, 0.495653, 0.211148, 0.487298, 0.207588, 0.512491, 0.21832, 0, 0
2, 1680.00000, 0.495653, 0.211148, 0.487298, 0.207588, 0.512491, 0.21832, 0, 0
2, 1740.00000, 0.495653, 0.211148, 0.487298, 0.207588, 0.512491, 0.21832, 0, 0
2, 1800.00000, 0.495653, 0.211148, 0.487298, 0.207588, 0.512491, 0.21832, 0, 0
2, 1860.00000, 0.495653, 0.211148, 0.487298, 0.207588, 0.512491, 0.21832, 0, 0
2, 1920.00000, 0.495653, 0.211148, 0.487298, 0.207588, 0.512491, 0.21832, 0, 0
2, 1980.00000, 0.495653, 0.211148, 0.487298, 0.207588, 0.512491, 0.21832, 0, 0
2, 2040.00000, 0.495653, 0.211148, 0.487298, 0.207588, 0.512491, 0.21832, 0, 0
2, 2100.00000, 0.495653, 0.211148, 0.487298, 0.207588, 0.512491, 0.21832, 0, 0
2, 2160.00000, 0.495653, 0.211148, 0.487298, 0.207588, 0.512491, 0.21832, 0, 0
2, 2220.00000, 0.495653, 0.211148, 0.487298, 0.207588, 0.512491, 0.21832, 0, 0
2, 2280.00000, 0.495653, 0.211148, 0.487298, 0.207588, 0.512491, 0.21832, 0, 0
2, 2340.00000, 0.495653, 0.211148, 0.487298, 0.207588, 0.512491, 0.21832, 0, 0
2, 2400.00000, 0.495681, 0.211159, 0.490132, 0.208795, 0.512492, 0.218321, 0, 0
2, 2460.00000, 0.495681, 0.211159, 0.490132, 0.208795, 0.512491, 0.21832, 0, 0
2, 2520.00000, 0.495681, 0.211159, 0.490132, 0.208795, 0.512491, 0.21832, 0, 0
2, 2580.00000, 0.495681, 0.211159, 0.490132, 0.208795, 0.512491, 0.21832, 0, 0
2, 2640.00000, 0.495681, 0.211159, 0.490132, 0.208795, 0.512491, 0.21832, 0, 0
2, 2700.00000, 0.488718, 0.208193, 0.482258, 0.205441, 0.512491, 0.21832, 0, 0
2, 2760.00000, 0.488718, 0.208193, 0.482258, 0.205441, 0.512491, 0.21832, 0, 0
2, 2820.00000, 0.488718, 0.208193, 0.482258, 0.205441, 0.512491, 0.21832, 0, 0
2, 2880.00000, 0.488718, 0.208193, 0.482258, 0.205441, 0.512491, 0.21832, 0, 0
2, 2940.00000, 0.488718, 0.208193, 0.482258, 0.205441, 0.512491, 0.21832, 0, 0
2, 3000.00000, 0.488718, 0.208193, 0.482258, 0.205441, 0.512491, 0.21832, 0, 0
2, 3060.00000, 0.491682, 0.209456, 0.482228, 0.205428, 0.512492, 0.218321, 0, 0
2, 3120.00000, 0.491682, 0.209456, 0.482228, 0.205428, 0.512491, 0.21832, 0, 0
2, 3180.00000, 0.491682, 0.209456, 0.482228, 0.205428, 0.512491, 0.21832, 0, 0
2, 3240.00000, 0.491682, 0.209456, 0.482228, 0.205428, 0.512491, 0.21832, 0, 0
2, 3300.00000, 0.491682, 0.209456, 0.482228, 0.205428, 0.512491, 0.21832, 0, 0
2, 3360.00000, 0.491682, 0.209456, 0.482228, 0.205428, 0.512491, 0.21832, 0, 0
2, 3420.00000, 0.491682, 0.209456, 0.482228, 0.205428, 0.512491, 0.21832, 0, 0
2, 3480.00000, 0.491682, 0.209456, 0.482228, 0.205428, 0.512491, 0.21832, 0, 0
2, 3540.00000, 0.491682, 0.209456, 0.482228, 0.205428, 0.512491, 0.21832, 0, 0
3, 0.00000, 0.491682, 0.209456, 0.482228, 0.205428, 0.512491, 0.21832, 0, 0
3, 60.00000, 0.491682, 0.209456, 0.482228, 0.205428, 0.512491, 0.21832, 0, 0
3, 120.00000, 0.491682, 0.209456, 0.482228, 0.205428, 0.512491, 0.21832, 0, 0
3, 180.00000, 0.491682, 0.209456, 0.482228, 0.205428, 0.512491, 0.21832, 0, 0
3, 240.00000, 0.491682, 0.209456, 0.482228, 0.205428, 0.512491, 0.21832, 0, 0
3, 300.00000, 0.491682, 0.209456, 0.482228, 0.205428, 0.512491, 0.21832, 0, 0
3, 360.00000, 0.491682, 0.209456, 0.482228, 0.205428, 0.512491, 0.21832, 0, 0
3, 420.00000, 0.491682, 0.209456, 0.482228, 0.205428, 0.512491, 0.21832, 0, 0
3, 480.00000, 0.491682, 0.209456, 0.482228, 0.205428, 0.512491, 0.21832, 0, 0
3, 540.00000, 0.491682, 0.209456, 0.482228, 0.205428, 0.512491, 0.21832, 0, 0
3, 600.00000, 0.491682, 0.209456, 0.482228, 0.205428, 0.512491, 0.21832, 0, 0
3, 660.00000, 0.491682, 0.209456, 0.482228, 0.205428, 0.512491, 0.21832, 0, 0
3, 720.00000, 0.491682, 0.209456, 0.482228, 0.205428, 0.512491, 0.21832, 0, 0
3, 780.00000, 0.491682, 0.209456, 0.482228, 0.205428, 0.512491, 0.21832, 0, 0
3, 840.00000, 0.491682, 0.209456, 0.482228, 0.205428, 0.512491, 0.21832, 0, 0
3, 900.00000, 0.491682, 0.209456, 0.482228, 0.205428, 0.512491, 0.21832, 0, 0
3, 960.00000, 0.491682, 0.209456, 0.482228, 0.205428, 0.512491, 0.21832, 0, 0
3, 1020.00000, 0.491682, 0.209456, 0.482228, 0.205428, 0.512491, 0.21832, 0, 0
3, 1080.00000, 0.491682, 0.209456, 0.482228, 0.205428, 0.512491, 0.21832, 0, 0
3, 1140.00000, 0.491682, 0.209456, 0.482228, 0.205428, 0.512491, 0.21832, 0, 0
3, 1200.00000, 0.491682, 0.209456, 0.482228, 0.205428, 0.512491, 0.21832, 0, 0
3, 1260.00000, 0.491682, 0.209456, 0.482228, 0.205428, 0.512491, 0.21832, 0, 0
3, 1320.00000, 0.491682, 0.209456, 0.482228, 0.205428, 0.512491, 0.21832, 0, 0
3, 1380.00000, 0.491682, 0.209456, 0.482228, 0.205428, 0.512491, 0.21832, 0, 0
3, 1440.00000, 0.491682, 0.209456, 0.482228, 0.205428, 0.512491, 0.21832, 0, 0
3, 1500.00000, 0.491682, 0.209456, 0.482228, 0.205428, 0.512491, 0.21832, 0, 0
3, 1560.00000, 0.491682, 0.209456, 0.482228, 0.205428, 0.512491, 0.21832, 0, 0
3, 1620.00000, 0.491682, 0.209456, 0.482228, 0.205428, 0.512491, 0.21832, 0, 0
3, 1680.00000, 0.491682, 0.209456, 0.482228, 0.205428, 0.512491, 0.21832, 0, 0
3, 1740.00000, 0.491682, 0.209456, 0.482228, 0.205428, 0.512491, 0.21832, 0, 0
3, 1800.00000, 0.491682, 0.209456, 0.482228, 0.205428, 0.512491, 0.21832, 0, 0
3, 1860.00000, 0.491682, 0.209456, 0.482228, 0.205428, 0.512491, 0.21832, 0, 0
3, 1920.00000, 0.491682, 0.209456, 0.482228, 0.205428, 0.512491, 0.21832, 0, 0
3, 1980.00000, 0.491682, 0.209456, 0.482228, 0.205428, 0.512491, 0.21832, 0, 0
3, 2040.00000, 0.491682, 0.209456, 0.482228, 0.205428, 0.512491, 0.21832, 0, 0
3, 2100.00000, 0.491682, 0.209456, 0.482228, 0.205428, 0.512491, 0.21832, 0, 0
3, 2160.00000, 0.491682, 0.209456, 0.482228, 0.205428, 0.512491, 0.21832, 0, 0
3, 2220.00000, 0.491682, 0.209456, 0.482228, 0.205428, 0.512491, 0.21832, 0, 0
3, 2280.00000, 0.491682, 0.209456, 0.482228, 0.205428, 0.512491, 0.21832, 0, 0
3, 2340.00000, 0.491682, 0.209456, 0.482228, 0.205428, 0.512491, 0.21832, 0, 0
3, 2400.00000, 0.491682, 0.209456, 0.482228, 0.205428, 0.512491, 0.21832, 0, 0
3, 2460.00000, 0.491682, 0.209456, 0.482228, 0.205428, 0.512491, 0.21832, 0, 0
3, 2520.00000, 0.491682, 0.209456, 0.482228, 0.205428, 0.512491, 0.21832, 0, 0
3, 2580.00000, 0.491682, 0.209456, 0.482228, 0.205428, 0.512491, 0.21832, 0, 0
3, 2640.00000, 0.491682, 0.209456, 0.482228, 0.205428, 0.512491, 0.21832, 0, 0
3, 2700.00000, 0.491682, 0.209456, 0.482228, 0.205428, 0.512491, 0.21832, 0, 0
3, 2760.00000, 0.491682, 0.209456, 0.482228, 0.205428, 0.512491, 0.21832, 0, 0
3, 2820.00000, 0.491682, 0.209456, 0.482228, 0.205428, 0.512491, 0.21832, 0, 0
3, 2880.00000, 0.491682, 0.209456, 0.482228, 0.205428, 0.512491, 0.21832, 0, 0
3, 2940.00000, 0.491682, 0.209456, 0.482228, 0.205428, 0.512491, 0.21832, 0, 0
3, 3000.00000, 0.491682, 0.209456, 0.482228, 0.205428, 0.512491, 0.21832, 0, 0
3, 3060.00000, 0.491682, 0.209456, 0.482228, 0.205428, 0.512491, 0.21832, 0, 0
3, 3120.00000, 0.491682, 0.209456, 0.482228, 0.205428, 0.512491, 0.21832, 0, 0
3, 3180.00000, 0.518417, 0.220845, 0.508522, 0.21663, 0.542149, 0.230954, 0, 0
3, 3240.00000, 0.518418, 0.220845, 0.508522, 0.216629, 0.542149, 0.230955, 0, 0
3, 3300.00000, 0.518418, 0.220845, 0.508522, 0.216629, 0.542149, 0.230955, 0, 0
3, 3360.00000, 0.518418, 0.220845, 0.508522, 0.216629, 0.542149, 0.230955, 0, 0
3, 3420.00000, 0.518418, 0.220845, 0.508522, 0.216629, 0.542149, 0.230955, 0, 0
3, 3480.00000, 0.518418, 0.220845, 0.508522, 0.216629, 0.542149, 0.230955, 0, 0
3, 3540.00000, 0.518418, 0.220845, 0.508522, 0.216629, 0.542149, 0.230955, 0, 0
4, 0.00000, 0.512242, 0.218214, 0.508565, 0.216648, 0.542149, 0.230955, 0, 0
4, 60.00000, 0.512242, 0.218214, 0.508565, 0.216648, 0.542149, 0.230955, 0, 0
4, 120.00000, 0.512242, 0.218214, 0.508565, 0.216648, 0.542149, 0.230955, 0, 0
4, 180.00000, 0.512242, 0.218214, 0.508565, 0.216648, 0.542149, 0.230955, 0, 0
4, 240.00000, 0.512242, 0.218214, 0.508565, 0.216648, 0.542149, 0.230955, 0, 0
4, 300.00000, 0.512242, 0.218214, 0.508565, 0.216648, 0.542149, 0.230955, 0, 0
4, 360.00000, 0.512242, 0.218214, 0.508565, 0.216648, 0.542149, 0.230955, 0, 0
4, 420.00000, 0.512242, 0.218214, 0.508565, 0.216648, 0.542149, 0.230955, 0, 0
4, 480.00000, 0.512242, 0.218214, 0.508565, 0.216648, 0.542149, 0.230955, 0, 0
4, 540.00000, 0.512242, 0.218214, 0.508565, 0.216648, 0.542149, 0.230955, 0, 0
4, 600.00000, 0.512242, 0.218214, 0.508565, 0.216648, 0.542149, 0.230955, 0, 0
4, 660.00000, 0.512242, 0.218214, 0.508565, 0.216648, 0.542149, 0.230955, 0, 0
4, 720.00000, 0.512242, 0.218214, 0.508565, 0.216648, 0.542149, 0.230955, 0, 0
4, 780.00000, 0.512242, 0.218214, 0.508565, 0.216648, 0.542149, 0.230955, 0, 0
