hour,t(sec),"P1 (kW)","Q1 (kvar)","P2 (kW)","Q2 (kvar)","P3 (kW)","Q3 (kvar)","P4 (kW)","Q4 (kvar)"
0, 60.00000, 0.840733, 0.358146, 0.838462, 0.357181, 0.840731, 0.358147, 0, 0
0, 120.00000, 0.840739, 0.358154, 0.838457, 0.357181, 0.840739, 0.358154, 0, 0
0, 180.00000, 0.84074, 0.358154, 0.838457, 0.357181, 0.84074, 0.358154, 0, 0
0, 240.00000, 0.84074, 0.358154, 0.838457, 0.357181, 0.84074, 0.358154, 0, 0
0, 300.00000, 0.84074, 0.358154, 0.838457, 0.357181, 0.84074, 0.358154, 0, 0
0, 360.00000, 0.84074, 0.358154, 0.838457, 0.357181, 0.84074, 0.358154, 0, 0
0, 420.00000, 0.84074, 0.358154, 0.838457, 0.357181, 0.84074, 0.358154, 0, 0
0, 480.00000, 0.84074, 0.358154, 0.838457, 0.357181, 0.84074, 0.358154, 0, 0
0, 540.00000, 0.84074, 0.358154, 0.838457, 0.357181, 0.84074, 0.358154, 0, 0
0, 600.00000, 0.84074, 0.358154, 0.838457, 0.357181, 0.84074, 0.358154, 0, 0
0, 660.00000, 0.84074, 0.358154, 0.838457, 0.357181, 0.84074, 0.358154, 0, 0
0, 720.00000, 0.84074, 0.358154, 0.838457, 0.357181, 0.84074, 0.358154, 0, 0
0, 780.00000, 0.84074, 0.358154, 0.838457, 0.357181, 0.84074, 0.358154, 0, 0
0, 840.00000, 0.84074, 0.358154, 0.838457, 0.357181, 0.84074, 0.358154, 0, 0
0, 900.00000, 0.84074, 0.358154, 0.838457, 0.357181, 0.84074, 0.358154, 0, 0
0, 960.00000, 0.822593, 0.350419, 0.817984, 0.348458, 0.819646, 0.349167, 0, 0
0, 1020.00000, 0.822582, 0.350418, 0.817983, 0.348459, 0.819642, 0.349166, 0, 0
0, 1080.00000, 0.822582, 0.350418, 0.817983, 0.348459, 0.819642, 0.349166, 0, 0
0, 1140.00000, 0.822582, 0.350418, 0.817983, 0.348459, 0.819642, 0.349166, 0, 0
0, 1200.00000, 0.822582, 0.350418, 0.817983, 0.348459, 0.819642, 0.349166, 0, 0
0, 1260.00000, 0.822582, 0.350418, 0.817983, 0.348459, 0.819642, 0.349166, 0, 0
0, 1320.00000, 0.822582, 0.350418, 0.817983, 0.348459, 0.819642, 0.349166, 0, 0
0, 1380.00000, 0.822582, 0.350418, 0.817983, 0.348459, 0.819642, 0.349166, 0, 0
0, 1440.00000, 0.822582, 0.350418, 0.817983, 0.348459, 0.819642, 0.349166, 0, 0
0, 1500.00000, 0.822582, 0.350418, 0.817983, 0.348459, 0.819642, 0.349166, 0, 0
0, 1560.00000, 0.822582, 0.350418, 0.817983, 0.348459, 0.819642, 0.349166, 0, 0
0, 1620.00000, 0.822582, 0.350418, 0.817983, 0.348459, 0.819642, 0.349166, 0, 0
0, 1680.00000, 0.822582, 0.350418, 0.817983, 0.348459, 0.819642, 0.349166, 0, 0
0, 1740.00000, 0.822582, 0.350418, 0.817983, 0.348459, 0.819642, 0.349166, 0, 0
0, 1800.00000, 0.822582, 0.350418, 0.817983, 0.348459, 0.819642, 0.349166, 0, 0
0, 1860.00000, 0.77799, 0.331438, 0.775287, 0.330286, 0.77683, 0.330936, 0, 0
0, 1920.00000, 0.777956, 0.331408, 0.775308, 0.33028, 0.776858, 0.33094, 0, 0
0, 1980.00000, 0.777956, 0.331408, 0.775308, 0.33028, 0.776858, 0.33094, 0, 0
0, 2040.00000, 0.777956, 0.331408, 0.775308, 0.33028, 0.776858, 0.33094, 0, 0
0, 2100.00000, 0.777956, 0.331408, 0.775308, 0.33028, 0.776858, 0.33094, 0, 0
0, 2160.00000, 0.777956, 0.331408, 0.775308, 0.33028, 0.776858, 0.33094, 0, 0
0, 2220.00000, 0.777956, 0.331408, 0.775308, 0.33028, 0.776858, 0.33094, 0, 0
0, 2280.00000, 0.777956, 0.331408, 0.775308, 0.33028, 0.776858, 0.33094, 0, 0
0, 2340.00000, 0.777956, 0.331408, 0.775308, 0.33028, 0.776858, 0.33094, 0, 0
0, 2400.00000, 0.777956, 0.331408, 0.775308, 0.33028, 0.776858, 0.33094, 0, 0
0, 2460.00000, 0.777956, 0.331408, 0.775308, 0.33028, 0.776858, 0.33094, 0, 0
0, 2520.00000, 0.777956, 0.331408, 0.775308, 0.33028, 0.776858, 0.33094, 0, 0
0, 2580.00000, 0.777956, 0.331408, 0.775308, 0.33028, 0.776858, 0.33094, 0, 0
0, 2640.00000, 0.777956, 0.331408, 0.775308, 0.33028, 0.776858, 0.33094, 0, 0
0, 2700.00000, 0.777956, 0.331408, 0.775308, 0.33028, 0.776858, 0.33094, 0, 0
0, 2760.00000, 0.761491, 0.324396, 0.76149, 0.324394, 0.761491, 0.324395, 0, 0
0, 2820.00000, 0.761488, 0.324392, 0.761488, 0.324392, 0.761488, 0.324392, 0, 0
0, 2880.00000, 0.761488, 0.324392, 0.761488, 0.324392, 0.761488, 0.324392, 0, 0
0, 2940.00000, 0.761488, 0.324392, 0.761488, 0.324392, 0.761488, 0.324392, 0, 0
0, 3000.00000, 0.761488, 0.324392, 0.761488, 0.324392, 0.761488, 0.324392, 0, 0
0, 3060.00000, 0.761488, 0.324392, 0.761488, 0.324392, 0.761488, 0.324392, 0, 0
0, 3120.00000, 0.761488, 0.324392, 0.761488, 0.324392, 0.761488, 0.324392, 0, 0
0, 3180.00000, 0.761488, 0.324392, 0.761488, 0.324392, 0.761488, 0.324392, 0, 0
0, 3240.00000, 0.761488, 0.324392, 0.761488, 0.324392, 0.761488, 0.324392, 0, 0
0, 3300.00000, 0.761488, 0.324392, 0.761488, 0.324392, 0.761488, 0.324392, 0, 0
0, 3360.00000, 0.761488, 0.324392, 0.761488, 0.324392, 0.761488, 0.324392, 0, 0
0, 3420.00000, 0.761488, 0.324392, 0.761488, 0.324392, 0.761488, 0.324392, 0, 0
0, 3480.00000, 0.761488, 0.324392, 0.761488, 0.324392, 0.761488, 0.324392, 0, 0
0, 3540.00000, 0.761493, 0.324398, 0.761486, 0.324392, 0.76149, 0.324392, 0, 0
1, 0.00000, 0.761488, 0.324393, 0.761488, 0.324392, 0.761488, 0.324392, 0, 0
1, 60.00000, 0.699036, 0.297807, 0.699031, 0.297803, 0.69903, 0.297805, 0, 0
1, 120.00000, 0.698993, 0.29777, 0.698993, 0.29777, 0.698993, 0.29777, 0, 0
1, 180.00000, 0.698993, 0.29777, 0.698993, 0.29777, 0.698993, 0.29777, 0, 0
1, 240.00000, 0.698993, 0.29777, 0.698993, 0.29777, 0.698993, 0.29777, 0, 0
1, 300.00000, 0.698993, 0.29777, 0.698993, 0.29777, 0.698993, 0.29777, 0, 0
1, 360.00000, 0.698993, 0.29777, 0.698993, 0.29777, 0.698993, 0.29777, 0, 0
1, 420.00000, 0.698993, 0.29777, 0.698993, 0.29777, 0.698993, 0.29777, 0, 0
1, 480.00000, 0.698993, 0.29777, 0.698993, 0.29777, 0.698993, 0.29777, 0, 0
1, 540.00000, 0.698993, 0.29777, 0.698993, 0.29777, 0.698993, 0.29777, 0, 0
1, 600.00000, 0.698993, 0.29777, 0.698993, 0.29777, 0.698993, 0.29777, 0, 0
1, 660.00000, 0.698993, 0.29777, 0.698993, 0.29777, 0.698993, 0.29777, 0, 0
1, 720.00000, 0.698993, 0.29777, 0.698993, 0.29777, 0.698993, 0.29777, 0, 0
1, 780.00000, 0.698993, 0.29777, 0.698993, 0.29777, 0.698993, 0.29777, 0, 0
1, 840.00000, 0.698993, 0.29777, 0.698993, 0.29777, 0.698993, 0.29777, 0, 0
1, 900.00000, 0.698993, 0.29777, 0.698993, 0.29777, 0.698993, 0.29777, 0, 0
1, 960.00000, 0.706321, 0.300895, 0.70632, 0.300895, 0.70632, 0.300894, 0, 0
1, 1020.00000, 0.706314, 0.300889, 0.706314, 0.300889, 0.706314, 0.300889, 0, 0
1, 1080.00000, 0.706314, 0.300889, 0.706314, 0.300889, 0.706314, 0.300889, 0, 0
1, 1140.00000, 0.706314, 0.300889, 0.706314, 0.300889, 0.706314, 0.300889, 0, 0
1, 1200.00000, 0.706314, 0.300889, 0.706314, 0.300889, 0.706314, 0.300889, 0, 0
1, 1260.00000, 0.706314, 0.300889, 0.706314, 0.300889, 0.706314, 0.300889, 0, 0
1, 1320.00000, 0.706314, 0.300889, 0.706314, 0.300889, 0.706314, 0.300889, 0, 0
1, 1380.00000, 0.706314, 0.300889, 0.706314, 0.300889, 0.706314, 0.300889, 0, 0
1, 1440.00000, 0.706314, 0.300889, 0.706314, 0.300889, 0.706314, 0.300889, 0, 0
1, 1500.00000, 0.706314, 0.300889, 0.706314, 0.300889, 0.706314, 0.300889, 0, 0
1, 1560.00000, 0.706314, 0.300889, 0.706314, 0.300889, 0.706314, 0.300889, 0, 0
1, 1620.00000, 0.706314, 0.300889, 0.706314, 0.300889, 0.706314, 0.300889, 0, 0
1, 1680.00000, 0.706314, 0.300889, 0.706314, 0.300889, 0.706314, 0.300889, 0, 0
1, 1740.00000, 0.706314, 0.300889, 0.706314, 0.300889, 0.706314, 0.300889, 0, 0
1, 1800.00000, 0.706314, 0.300889, 0.706314, 0.300889, 0.706314, 0.300889, 0, 0
1, 1860.00000, 0.75144, 0.320116, 0.75147, 0.320114, 0.751495, 0.320148, 0, 0
1, 1920.00000, 0.751454, 0.320118, 0.751454, 0.320118, 0.751455, 0.320119, 0, 0
1, 1980.00000, 0.751454, 0.320118, 0.751454, 0.320118, 0.751454, 0.320118, 0, 0
1, 2040.00000, 0.751454, 0.320118, 0.751454, 0.320118, 0.751454, 0.320118, 0, 0
1, 2100.00000, 0.751454, 0.320118, 0.751454, 0.320118, 0.751454, 0.320118, 0, 0
1, 2160.00000, 0.751454, 0.320118, 0.751454, 0.320118, 0.751454, 0.320118, 0, 0
1, 2220.00000, 0.751454, 0.320118, 0.751454, 0.320118, 0.751454, 0.320118, 0, 0
1, 2280.00000, 0.751454, 0.320118, 0.751454, 0.320118, 0.751454, 0.320118, 0, 0
1, 2340.00000, 0.751454, 0.320118, 0.751454, 0.320118, 0.751454, 0.320118, 0, 0
1, 2400.00000, 0.751454, 0.320118, 0.751454, 0.320118, 0.751454, 0.320118, 0, 0
1, 2460.00000, 0.751454, 0.320118, 0.751454, 0.320118, 0.751454, 0.320118, 0, 0
1, 2520.00000, 0.751454, 0.320118, 0.751454, 0.320118, 0.751454, 0.320118, 0, 0
1, 2580.00000, 0.751454, 0.320118, 0.751454, 0.320118, 0.751454, 0.320118, 0, 0
1, 2640.00000, 0.751454, 0.320118, 0.751454, 0.320118, 0.751454, 0.320118, 0, 0
1, 2700.00000, 0.751454, 0.320118, 0.751454, 0.320118, 0.751454, 0.320118, 0, 0
1, 2760.00000, 0.709371, 0.302193, 0.709391, 0.302199, 0.709393, 0.30221, 0, 0
1, 2820.00000, 0.709367, 0.302189, 0.709368, 0.302189, 0.709368, 0.30219, 0, 0
1, 2880.00000, 0.709367, 0.302189, 0.709367, 0.302189, 0.709367, 0.302189, 0, 0
1, 2940.00000, 0.709367, 0.302189, 0.709367, 0.302189, 0.709367, 0.302189, 0, 0
1, 3000.00000, 0.709367, 0.302189, 0.709367, 0.302189, 0.709367, 0.302189, 0, 0
1, 3060.00000, 0.709367, 0.302189, 0.709367, 0.302189, 0.709367, 0.302189, 0, 0
1, 3120.00000, 0.709367, 0.302189, 0.709367, 0.302189, 0.709367, 0.302189, 0, 0
1, 3180.00000, 0.709367, 0.302189, 0.709367, 0.302189, 0.709367, 0.302189, 0, 0
1, 3240.00000, 0.709367, 0.302189, 0.709367, 0.302189, 0.709367, 0.302189, 0, 0
1, 3300.00000, 0.709367, 0.302189, 0.709367, 0.302189, 0.709367, 0.302189, 0, 0
1, 3360.00000, 0.709367, 0.302189, 0.709367, 0.302189, 0.709367, 0.302189, 0, 0
1, 3420.00000, 0.709367, 0.302189, 0.709367, 0.302189, 0.709367, 0.302189, 0, 0
1, 3480.00000, 0.709367, 0.302189, 0.709367, 0.302189, 0.709367, 0.302189, 0, 0
1, 3540.00000, 0.709367, 0.302189, 0.709367, 0.302189, 0.709367, 0.302189, 0, 0
2, 0.00000, 0.709367, 0.302189, 0.709367, 0.302189, 0.709367, 0.302189, 0, 0
2, 60.00000, 0.754874, 0.321574, 0.754858, 0.321569, 0.754858, 0.321561, 0, 0
2, 120.00000, 0.754874, 0.321575, 0.754874, 0.321575, 0.754874, 0.321575, 0, 0
2, 180.00000, 0.754874, 0.321575, 0.754874, 0.321575, 0.754874, 0.321575, 0, 0
2, 240.00000, 0.754874, 0.321575, 0.754874, 0.321575, 0.754874, 0.321575, 0, 0
2, 300.00000, 0.754874, 0.321575, 0.754874, 0.321575, 0.754874, 0.321575, 0, 0
2, 360.00000, 0.754874, 0.321575, 0.754874, 0.321575, 0.754874, 0.321575, 0, 0
2, 420.00000, 0.754874, 0.321575, 0.754874, 0.321575, 0.754874, 0.321575, 0, 0
2, 480.00000, 0.754874, 0.321575, 0.754874, 0.321575, 0.754874, 0.321575, 0, 0
2, 540.00000, 0.754874, 0.321575, 0.754874, 0.321575, 0.754874, 0.321575, 0, 0
2, 600.00000, 0.754874, 0.321575, 0.754874, 0.321575, 0.754874, 0.321575, 0, 0
2, 660.00000, 0.754874, 0.321575, 0.754874, 0.321575, 0.754874, 0.321575, 0, 0
2, 720.00000, 0.754874, 0.321575, 0.754874, 0.321575, 0.754874, 0.321575, 0, 0
2, 780.00000, 0.754874, 0.321575, 0.754874, 0.321575, 0.754874, 0.321575, 0, 0
2, 840.00000, 0.754874, 0.321575, 0.754874, 0.321575, 0.754874, 0.321575, 0, 0
2, 900.00000, 0.754874, 0.321575, 0.754874, 0.321575, 0.754874, 0.321575, 0, 0
2, 960.00000, 0.725632, 0.309121, 0.725642, 0.309123, 0.725646, 0.30913, 0, 0
2, 1020.00000, 0.725626, 0.309116, 0.725627, 0.309116, 0.725627, 0.309116, 0, 0
2, 1080.00000, 0.725626, 0.309116, 0.725626, 0.309116, 0.725626, 0.309116, 0, 0
2, 1140.00000, 0.725626, 0.309116, 0.725626, 0.309116, 0.725626, 0.309116, 0, 0
2, 1200.00000, 0.725626, 0.309116, 0.725626, 0.309116, 0.725626, 0.309116, 0, 0
2, 1260.00000, 0.725626, 0.309116, 0.725626, 0.309116, 0.725626, 0.309116, 0, 0
2, 1320.00000, 0.725626, 0.309116, 0.725626, 0.309116, 0.725626, 0.309116, 0, 0
2, 1380.00000, 0.725626, 0.309116, 0.725626, 0.309116, 0.725626, 0.309116, 0, 0
2, 1440.00000, 0.725626, 0.309116, 0.725626, 0.309116, 0.725626, 0.309116, 0, 0
2, 1500.00000, 0.725626, 0.309116, 0.725626, 0.309116, 0.725626, 0.309116, 0, 0
2, 1560.00000, 0.725626, 0.309116, 0.725626, 0.309116, 0.725626, 0.309116, 0, 0
2, 1620.00000, 0.725626, 0.309116, 0.725626, 0.309116, 0.725626, 0.309116, 0, 0
2, 1680.00000, 0.725626, 0.309116, 0.725626, 0.309116, 0.725626, 0.309116, 0, 0
2, 1740.00000, 0.725626, 0.309116, 0.725626, 0.309116, 0.725626, 0.309116, 0, 0
2, 1800.00000, 0.725626, 0.309116, 0.725626, 0.309116, 0.725626, 0.309116, 0, 0
2, 1860.00000, 0.774874, 0.330093, 0.774874, 0.330094, 0.77487, 0.330091, 0, 0
2, 1920.00000, 0.774879, 0.330097, 0.774879, 0.330097, 0.774879, 0.330097, 0, 0
2, 1980.00000, 0.774879, 0.330097, 0.774879, 0.330097, 0.774879, 0.330097, 0, 0
2, 2040.00000, 0.774879, 0.330097, 0.774879, 0.330097, 0.774879, 0.330097, 0, 0
2, 2100.00000, 0.774879, 0.330097, 0.774879, 0.330097, 0.774879, 0.330097, 0, 0
2, 2160.00000, 0.774879, 0.330097, 0.774879, 0.330097, 0.774879, 0.330097, 0, 0
2, 2220.00000, 0.774879, 0.330097, 0.774879, 0.330097, 0.774879, 0.330097, 0, 0
2, 2280.00000, 0.774879, 0.330097, 0.774879, 0.330097, 0.774879, 0.330097, 0, 0
2, 2340.00000, 0.774879, 0.330097, 0.774879, 0.330097, 0.774879, 0.330097, 0, 0
2, 2400.00000, 0.774879, 0.330097, 0.774879, 0.330097, 0.774879, 0.330097, 0, 0
2, 2460.00000, 0.774879, 0.330097, 0.774879, 0.330097, 0.774879, 0.330097, 0, 0
2, 2520.00000, 0.774879, 0.330097, 0.774879, 0.330097, 0.774879, 0.330097, 0, 0
2, 2580.00000, 0.774879, 0.330097, 0.774879, 0.330097, 0.774879, 0.330097, 0, 0
2, 2640.00000, 0.774879, 0.330097, 0.774879, 0.330097, 0.774879, 0.330097, 0, 0
2, 2700.00000, 0.774879, 0.330097, 0.774879, 0.330097, 0.774879, 0.330097, 0, 0
2, 2760.00000, 0.715309, 0.304726, 0.715312, 0.304725, 0.715318, 0.30473, 0, 0
2, 2820.00000, 0.715296, 0.304715, 0.715296, 0.304715, 0.715296, 0.304715, 0, 0
2, 2880.00000, 0.715296, 0.304715, 0.715296, 0.304715, 0.715296, 0.304715, 0, 0
2, 2940.00000, 0.715296, 0.304715, 0.715296, 0.304715, 0.715296, 0.304715, 0, 0
2, 3000.00000, 0.715296, 0.304715, 0.715296, 0.304715, 0.715296, 0.304715, 0, 0
2, 3060.00000, 0.715296, 0.304715, 0.715296, 0.304715, 0.715296, 0.304715, 0, 0
2, 3120.00000, 0.715296, 0.304715, 0.715296, 0.304715, 0.715296, 0.304715, 0, 0
2, 3180.00000, 0.715296, 0.304715, 0.715296, 0.304715, 0.715296, 0.304715, 0, 0
2, 3240.00000, 0.715296, 0.304715, 0.715296, 0.304715, 0.715296, 0.304715, 0, 0
2, 3300.00000, 0.715296, 0.304715, 0.715296, 0.304715, 0.715296, 0.304715, 0, 0
2, 3360.00000, 0.715296, 0.304715, 0.715296, 0.304715, 0.715296, 0.304715, 0, 0
2, 3420.00000, 0.715296, 0.304715, 0.715296, 0.304715, 0.715296, 0.304715, 0, 0
2, 3480.00000, 0.715296, 0.304715, 0.715296, 0.304715, 0.715296, 0.304715, 0, 0
2, 3540.00000, 0.715296, 0.304715, 0.715296, 0.304715, 0.715296, 0.304715, 0, 0
3, 0.00000, 0.715296, 0.304715, 0.715296, 0.304715, 0.715296, 0.304715, 0, 0
3, 60.00000, 0.766076, 0.326344, 0.766075, 0.326344, 0.766071, 0.326342, 0, 0
3, 120.00000, 0.766084, 0.326351, 0.766084, 0.326351, 0.766084, 0.32635, 0, 0
3, 180.00000, 0.766084, 0.326351, 0.766084, 0.326351, 0.766084, 0.326351, 0, 0
3, 240.00000, 0.766084, 0.326351, 0.766084, 0.326351, 0.766084, 0.326351, 0, 0
3, 300.00000, 0.766084, 0.326351, 0.766084, 0.326351, 0.766084, 0.326351, 0, 0
3, 360.00000, 0.766084, 0.326351, 0.766084, 0.326351, 0.766084, 0.326351, 0, 0
3, 420.00000, 0.766084, 0.326351, 0.766084, 0.326351, 0.766084, 0.326351, 0, 0
3, 480.00000, 0.766084, 0.326351, 0.766084, 0.326351, 0.766084, 0.326351, 0, 0
3, 540.00000, 0.766084, 0.326351, 0.766084, 0.326351, 0.766084, 0.326351, 0, 0
3, 600.00000, 0.766084, 0.326351, 0.766084, 0.326351, 0.766084, 0.326351, 0, 0
3, 660.00000, 0.766084, 0.326351, 0.766084, 0.326351, 0.766084, 0.326351, 0, 0
3, 720.00000, 0.766084, 0.326351, 0.766084, 0.326351, 0.766084, 0.326351, 0, 0
3, 780.00000, 0.766084, 0.326351, 0.766084, 0.326351, 0.766084, 0.326351, 0, 0
3, 840.00000, 0.766084, 0.326351, 0.766084, 0.326351, 0.766084, 0.326351, 0, 0
3, 900.00000, 0.766084, 0.326351, 0.766084, 0.326351, 0.766084, 0.326351, 0, 0
3, 960.00000, 0.707682, 0.301477, 0.70768, 0.301476, 0.707686, 0.301479, 0, 0
3, 1020.00000, 0.707661, 0.301462, 0.707661, 0.301462, 0.707661, 0.301462, 0, 0
3, 1080.00000, 0.707661, 0.301462, 0.707661, 0.301462, 0.707661, 0.301462, 0, 0
3, 1140.00000, 0.707661, 0.301462, 0.707661, 0.301462, 0.707661, 0.301462, 0, 0
3, 1200.00000, 0.707661, 0.301462, 0.707661, 0.301462, 0.707661, 0.301462, 0, 0
3, 1260.00000, 0.707661, 0.301462, 0.707661, 0.301462, 0.707661, 0.301462, 0, 0
3, 1320.00000, 0.707661, 0.301462, 0.707661, 0.301462, 0.707661, 0.301462, 0, 0
3, 1380.00000, 0.707661, 0.301462, 0.707661, 0.301462, 0.707661, 0.301462, 0, 0
3, 1440.00000, 0.707661, 0.301462, 0.707661, 0.301462, 0.707661, 0.301462, 0, 0
3, 1500.00000, 0.707661, 0.301462, 0.707661, 0.301462, 0.707661, 0.301462, 0, 0
3, 1560.00000, 0.707661, 0.301462, 0.707661, 0.301462, 0.707661, 0.301462, 0, 0
3, 1620.00000, 0.707661, 0.301462, 0.707661, 0.301462, 0.707661, 0.301462, 0, 0
3, 1680.00000, 0.707661, 0.301462, 0.707661, 0.301462, 0.707661, 0.301462, 0, 0
3, 1740.00000, 0.707661, 0.301462, 0.707661, 0.301462, 0.707661, 0.301462, 0, 0
3, 1800.00000, 0.707661, 0.301462, 0.707661, 0.301462, 0.707661, 0.301462, 0, 0
3, 1860.00000, 0.659434, 0.280922, 0.659432, 0.280922, 0.659434, 0.28092, 0, 0
3, 1920.00000, 0.659414, 0.280909, 0.659414, 0.280909, 0.659414, 0.280909, 0, 0
3, 1980.00000, 0.659414, 0.280909, 0.659414, 0.280909, 0.659414, 0.280909, 0, 0
3, 2040.00000, 0.659414, 0.280909, 0.659414, 0.280909, 0.659414, 0.280909, 0, 0
3, 2100.00000, 0.659414, 0.280909, 0.659414, 0.280909, 0.659414, 0.280909, 0, 0
3, 2160.00000, 0.659414, 0.280909, 0.659414, 0.280909, 0.659414, 0.280909, 0, 0
3, 2220.00000, 0.659414, 0.280909, 0.659414, 0.280909, 0.659414, 0.280909, 0, 0
3, 2280.00000, 0.659414, 0.280909, 0.659414, 0.280909, 0.659414, 0.280909, 0, 0
3, 2340.00000, 0.659414, 0.280909, 0.659414, 0.280909, 0.659414, 0.280909, 0, 0
3, 2400.00000, 0.659414, 0.280909, 0.659414, 0.280909, 0.659414, 0.280909, 0, 0
3, 2460.00000, 0.659414, 0.280909, 0.659414, 0.280909, 0.659414, 0.280909, 0, 0
3, 2520.00000, 0.659414, 0.280909, 0.659414, 0.280909, 0.659414, 0.280909, 0, 0
3, 2580.00000, 0.659414, 0.280909, 0.659414, 0.280909, 0.659414, 0.280909, 0, 0
3, 2640.00000, 0.659414, 0.280909, 0.659414, 0.280909, 0.659414, 0.280909, 0, 0
3, 2700.00000, 0.659414, 0.280909, 0.659414, 0.280909, 0.659414, 0.280909, 0, 0
3, 2760.00000, 0.695044, 0.296093, 0.695044, 0.296092, 0.695049, 0.296095, 0, 0
3, 2820.00000, 0.69503, 0.296082, 0.69503, 0.296082, 0.69503, 0.296082, 0, 0
3, 2880.00000, 0.69503, 0.296082, 0.69503, 0.296082, 0.69503, 0.296082, 0, 0
3, 2940.00000, 0.69503, 0.296082, 0.69503, 0.296082, 0.69503, 0.296082, 0, 0
3, 3000.00000, 0.69503, 0.296082, 0.69503, 0.296082, 0.69503, 0.296082, 0, 0
3, 3060.00000, 0.69503, 0.296082, 0.69503, 0.296082, 0.69503, 0.296082, 0, 0
3, 3120.00000, 0.69503, 0.296082, 0.69503, 0.296082, 0.69503, 0.296082, 0, 0
3, 3180.00000, 0.69503, 0.296082, 0.69503, 0.296082, 0.69503, 0.296082, 0, 0
3, 3240.00000, 0.69503, 0.296082, 0.69503, 0.296082, 0.69503, 0.296082, 0, 0
3, 3300.00000, 0.69503, 0.296082, 0.69503, 0.296082, 0.69503, 0.296082, 0, 0
3, 3360.00000, 0.69503, 0.296082, 0.69503, 0.296082, 0.69503, 0.296082, 0, 0
3, 3420.00000, 0.69503, 0.296082, 0.69503, 0.296082, 0.69503, 0.296082, 0, 0
3, 3480.00000, 0.69503, 0.296082, 0.69503, 0.296082, 0.69503, 0.296082, 0, 0
3, 3540.00000, 0.69503, 0.296082, 0.69503, 0.296082, 0.69503, 0.296082, 0, 0
4, 0.00000, 0.69503, 0.296082, 0.69503, 0.296082, 0.69503, 0.296082, 0, 0
4, 60.00000, 0.653275, 0.278291, 0.653276, 0.278292, 0.653272, 0.27829, 0, 0
4, 120.00000, 0.653284, 0.278298, 0.653284, 0.278298, 0.653284, 0.278298, 0, 0
4, 180.00000, 0.653284, 0.278298, 0.653284, 0.278298, 0.653284, 0.278298, 0, 0
4, 240.00000, 0.653284, 0.278298, 0.653284, 0.278298, 0.653284, 0.278298, 0, 0
4, 300.00000, 0.653284, 0.278298, 0.653284, 0.278298, 0.653284, 0.278298, 0, 0
4, 360.00000, 0.653284, 0.278298, 0.653284, 0.278298, 0.653284, 0.278298, 0, 0
4, 420.00000, 0.653284, 0.278298, 0.653284, 0.278298, 0.653284, 0.278298, 0, 0
4, 480.00000, 0.653284, 0.278298, 0.653284, 0.278298, 0.653284, 0.278298, 0, 0
4, 540.00000, 0.653284, 0.278298, 0.653284, 0.278298, 0.653284, 0.278298, 0, 0
4, 600.00000, 0.653284, 0.278298, 0.653284, 0.278298, 0.653284, 0.278298, 0, 0
4, 660.00000, 0.653284, 0.278298, 0.653284, 0.278298, 0.653284, 0.278298, 0, 0
