hour,t(sec),V1,VAngle1,V2,VAngle2,V3,VAngle3,V4,VAngle4,I1,IAngle1,I2,IAngle2,I3,IAngle3,I4,IAngle4
0, 60.00000, 123.414, -31.5553, 124.071, -151.559, 123.903, 88.2012, 0, 0, 0.867559, -54.629, 0.862965, -174.633, 0.864136, 65.1277, 0.00769639, 147.27
0, 120.00000, 123.414, -31.5553, 124.071, -151.559, 123.903, 88.2012, 0, 0, 0.867568, -54.6292, 0.862974, -174.633, 0.864144, 65.1273, 0.00770007, 147.259
0, 180.00000, 123.414, -31.5553, 124.071, -151.559, 123.903, 88.2012, 0, 0, 0.867568, -54.6292, 0.862974, -174.633, 0.864144, 65.1273, 0.00770007, 147.259
0, 240.00000, 123.414, -31.5553, 124.071, -151.559, 123.903, 88.2012, 0, 0, 0.867568, -54.6292, 0.862974, -174.633, 0.864144, 65.1273, 0.00770007, 147.259
0, 300.00000, 123.414, -31.5553, 124.071, -151.559, 123.903, 88.2012, 0, 0, 0.867568, -54.6292, 0.862974, -174.633, 0.864144, 65.1273, 0.00770007, 147.259
0, 360.00000, 123.414, -31.5553, 124.071, -151.559, 123.903, 88.2012, 0, 0, 0.867568, -54.6292, 0.862974, -174.633, 0.864144, 65.1273, 0.00770007, 147.259
0, 420.00000, 123.414, -31.5553, 124.071, -151.559, 123.903, 88.2012, 0, 0, 0.867568, -54.6292, 0.862974, -174.633, 0.864144, 65.1273, 0.00770007, 147.259
0, 480.00000, 123.878, -31.4279, 124.519, -151.436, 124.342, 88.3349, 0, 0, 0.963861, -54.5022, 0.958897, -174.51, 0.960256, 65.2605, 0.00827648, 148.403
0, 540.00000, 123.878, -31.4279, 124.519, -151.436, 124.342, 88.3349, 0, 0, 0.963849, -54.5018, 0.958887, -174.509, 0.960248, 65.261, 0.0082711, 148.429
0, 600.00000, 123.878, -31.4279, 124.519, -151.436, 124.342, 88.3349, 0, 0, 0.963849, -54.5018, 0.958887, -174.509, 0.960248, 65.261, 0.00827108, 148.429
0, 660.00000, 123.878, -31.4279, 124.519, -151.436, 124.342, 88.3349, 0, 0, 0.963849, -54.5018, 0.958887, -174.509, 0.960248, 65.261, 0.00827108, 148.429
0, 720.00000, 123.878, -31.4279, 124.519, -151.436, 124.342, 88.3349, 0, 0, 0.963849, -54.5018, 0.958887, -174.509, 0.960248, 65.261, 0.00827108, 148.429
0, 780.00000, 123.878, -31.4279, 124.519, -151.436, 124.342, 88.3349, 0, 0, 0.963849, -54.5018, 0.958887, -174.509, 0.960248, 65.261, 0.00827108, 148.429
0, 840.00000, 123.878, -31.4279, 124.519, -151.436, 124.342, 88.3349, 0, 0, 0.963849, -54.5018, 0.958887, -174.509, 0.960248, 65.261, 0.00827108, 148.429
0, 900.00000, 123.878, -31.4279, 124.519, -151.436, 124.342, 88.3349, 0, 0, 0.963849, -54.5018, 0.958887, -174.509, 0.960248, 65.261, 0.00827108, 148.429
0, 960.00000, 123.774, -31.5553, 124.22, -151.461, 124.349, 88.3328, 0, 0, 0.964652, -54.6291, 0.961188, -174.535, 0.9602, 65.2589, 0.00698564, 119.574
0, 1020.00000, 123.774, -31.5553, 124.22, -151.461, 124.349, 88.3328, 0, 0, 0.964654, -54.6292, 0.961193, -174.535, 0.960198, 65.2589, 0.00698487, 119.524
0, 1080.00000, 123.774, -31.5553, 124.22, -151.461, 124.349, 88.3328, 0, 0, 0.964654, -54.6292, 0.961193, -174.535, 0.960198, 65.2589, 0.00698487, 119.524
0, 1140.00000, 123.774, -31.5553, 124.22, -151.461, 124.349, 88.3328, 0, 0, 0.964654, -54.6292, 0.961193, -174.535, 0.960198, 65.2589, 0.00698487, 119.524
0, 1200.00000, 123.774, -31.5553, 124.22, -151.461, 124.349, 88.3328, 0, 0, 0.964654, -54.6292, 0.961193, -174.535, 0.960198, 65.2589, 0.00698487, 119.524
0, 1260.00000, 123.774, -31.5553, 124.22, -151.461, 124.349, 88.3328, 0, 0, 0.964654, -54.6292, 0.961193, -174.535, 0.960198, 65.2589, 0.00698487, 119.524
0, 1320.00000, 123.774, -31.5553, 124.22, -151.461, 124.349, 88.3328, 0, 0, 0.964654, -54.6292, 0.961193, -174.535, 0.960198, 65.2589, 0.00698487, 119.524
0, 1380.00000, 123.774, -31.5553, 124.22, -151.461, 124.349, 88.3328, 0, 0, 0.964654, -54.6292, 0.961193, -174.535, 0.960198, 65.2589, 0.00698487, 119.524
0, 1440.00000, 123.774, -31.5553, 124.22, -151.461, 124.349, 88.3328, 0, 0, 0.964654, -54.6292, 0.961193, -174.535, 0.960198, 65.2589, 0.00698487, 119.524
0, 1500.00000, 123.774, -31.5553, 124.22, -151.461, 124.349, 88.3328, 0, 0, 0.964654, -54.6292, 0.961193, -174.535, 0.960198, 65.2589, 0.00698487, 119.524
0, 1560.00000, 123.774, -31.5553, 124.22, -151.461, 124.349, 88.3328, 0, 0, 0.964654, -54.6292, 0.961193, -174.535, 0.960198, 65.2589, 0.00698487, 119.524
0, 1620.00000, 123.774, -31.5553, 124.22, -151.461, 124.349, 88.3328, 0, 0, 0.964654, -54.6292, 0.961193, -174.535, 0.960198, 65.2589, 0.00698487, 119.524
0, 1680.00000, 123.774, -31.5553, 124.22, -151.461, 124.349, 88.3328, 0, 0, 0.964654, -54.6292, 0.961193, -174.535, 0.960198, 65.2589, 0.00698487, 119.524
0, 1740.00000, 123.774, -31.5553, 124.22, -151.461, 124.349, 88.3328, 0, 0, 0.964654, -54.6292, 0.961193, -174.535, 0.960198, 65.2589, 0.00698487, 119.524
0, 1800.00000, 123.774, -31.5553, 124.22, -151.461, 124.349, 88.3328, 0, 0, 0.964654, -54.6292, 0.961193, -174.535, 0.960198, 65.2589, 0.00698487, 119.524
0, 1860.00000, 123.774, -31.5553, 124.22, -151.461, 124.349, 88.3328, 0, 0, 0.964654, -54.6292, 0.961193, -174.535, 0.960198, 65.2589, 0.00698487, 119.524
0, 1920.00000, 123.774, -31.5553, 124.22, -151.461, 124.349, 88.3328, 0, 0, 0.964654, -54.6292, 0.961193, -174.535, 0.960198, 65.2589, 0.00698487, 119.524
0, 1980.00000, 123.774, -31.5553, 124.22, -151.461, 124.349, 88.3328, 0, 0, 0.964654, -54.6292, 0.961193, -174.535, 0.960198, 65.2589, 0.00698487, 119.524
0, 2040.00000, 123.774, -31.5553, 124.22, -151.461, 124.349, 88.3328, 0, 0, 0.964654, -54.6292, 0.961193, -174.535, 0.960198, 65.2589, 0.00698487, 119.524
0, 2100.00000, 123.774, -31.5553, 124.22, -151.461, 124.349, 88.3328, 0, 0, 0.964654, -54.6292, 0.961193, -174.535, 0.960198, 65.2589, 0.00698487, 119.524
0, 2160.00000, 123.774, -31.5553, 124.22, -151.461, 124.349, 88.3328, 0, 0, 0.964654, -54.6292, 0.961193, -174.535, 0.960198, 65.2589, 0.00698487, 119.524
0, 2220.00000, 123.774, -31.5553, 124.22, -151.461, 124.349, 88.3328, 0, 0, 0.964654, -54.6292, 0.961193, -174.535, 0.960198, 65.2589, 0.00698487, 119.524
0, 2280.00000, 123.774, -31.5553, 124.22, -151.461, 124.349, 88.3328, 0, 0, 0.964654, -54.6292, 0.961193, -174.535, 0.960198, 65.2589, 0.00698487, 119.524
0, 2340.00000, 123.774, -31.5553, 124.22, -151.461, 124.349, 88.3328, 0, 0, 0.964654, -54.6292, 0.961193, -174.535, 0.960198, 65.2589, 0.00698487, 119.524
0, 2400.00000, 123.774, -31.5553, 124.22, -151.461, 124.349, 88.3328, 0, 0, 0.964654, -54.6292, 0.961193, -174.535, 0.960198, 65.2589, 0.00698487, 119.524
0, 2460.00000, 123.774, -31.5553, 124.22, -151.461, 124.349, 88.3328, 0, 0, 0.964654, -54.6292, 0.961193, -174.535, 0.960198, 65.2589, 0.00698487, 119.524
0, 2520.00000, 123.774, -31.5553, 124.22, -151.461, 124.349, 88.3328, 0, 0, 0.964654, -54.6292, 0.961193, -174.535, 0.960198, 65.2589, 0.00698487, 119.524
0, 2580.00000, 123.774, -31.5553, 124.22, -151.461, 124.349, 88.3328, 0, 0, 0.964654, -54.6292, 0.961193, -174.535, 0.960198, 65.2589, 0.00698487, 119.524
0, 2640.00000, 123.774, -31.5553, 124.22, -151.461, 124.349, 88.3328, 0, 0, 0.964654, -54.6292, 0.961193, -174.535, 0.960198, 65.2589, 0.00698487, 119.524
0, 2700.00000, 123.774, -31.5553, 124.22, -151.461, 124.349, 88.3328, 0, 0, 0.964654, -54.6292, 0.961193, -174.535, 0.960198, 65.2589, 0.00698487, 119.524
0, 2760.00000, 124.025, -31.3827, 124.684, -151.465, 124.323, 88.3362, 0, 0, 0.962713, -54.4567, 0.957629, -174.539, 0.960395, 65.2623, 0.00853963, 165.051
0, 2820.00000, 124.025, -31.3827, 124.684, -151.465, 124.323, 88.3362, 0, 0, 0.962707, -54.4567, 0.957618, -174.539, 0.9604, 65.2623, 0.00854789, 165.102
0, 2880.00000, 124.025, -31.3827, 124.684, -151.465, 124.323, 88.3362, 0, 0, 0.962707, -54.4567, 0.957618, -174.539, 0.9604, 65.2623, 0.00854793, 165.103
0, 2940.00000, 124.025, -31.3827, 124.684, -151.465, 124.323, 88.3362, 0, 0, 0.962707, -54.4567, 0.957618, -174.539, 0.9604, 65.2623, 0.00854793, 165.103
0, 3000.00000, 124.025, -31.3827, 124.684, -151.465, 124.323, 88.3362, 0, 0, 0.962707, -54.4567, 0.957618, -174.539, 0.9604, 65.2623, 0.00854793, 165.103
0, 3060.00000, 124.025, -31.3827, 124.684, -151.465, 124.323, 88.3362, 0, 0, 0.962707, -54.4567, 0.957618, -174.539, 0.9604, 65.2623, 0.00854793, 165.103
0, 3120.00000, 124.025, -31.3827, 124.684, -151.465, 124.323, 88.3362, 0, 0, 0.962707, -54.4567, 0.957618, -174.539, 0.9604, 65.2623, 0.00854793, 165.103
0, 3180.00000, 124.025, -31.3827, 124.684, -151.465, 124.323, 88.3362, 0, 0, 0.962707, -54.4567, 0.957618, -174.539, 0.9604, 65.2623, 0.00854793, 165.103
0, 3240.00000, 124.025, -31.3827, 124.684, -151.465, 124.323, 88.3362, 0, 0, 0.962707, -54.4567, 0.957618, -174.539, 0.9604, 65.2623, 0.00854793, 165.103
0, 3300.00000, 124.025, -31.3827, 124.684, -151.465, 124.323, 88.3362, 0, 0, 0.962707, -54.4567, 0.957618, -174.539, 0.9604, 65.2623, 0.00854793, 165.103
0, 3360.00000, 124.025, -31.3827, 124.684, -151.465, 124.323, 88.3362, 0, 0, 0.962707, -54.4567, 0.957618, -174.539, 0.9604, 65.2623, 0.00854793, 165.103
0, 3420.00000, 124.025, -31.3827, 124.684, -151.465, 124.323, 88.3362, 0, 0, 0.962707, -54.4567, 0.957618, -174.539, 0.9604, 65.2623, 0.00854793, 165.103
0, 3480.00000, 124.025, -31.3827, 124.684, -151.465, 124.323, 88.3362, 0, 0, 0.962707, -54.4567, 0.957618, -174.539, 0.9604, 65.2623, 0.00854793, 165.103
0, 3540.00000, 124.025, -31.3827, 124.684, -151.465, 124.323, 88.3362, 0, 0, 0.962707, -54.4567, 0.957618, -174.539, 0.9604, 65.2623, 0.00854793, 165.103
1, 0.00000, 124.025, -31.3827, 124.684, -151.465, 124.323, 88.3362, 0, 0, 0.962707, -54.4567, 0.957618, -174.539, 0.9604, 65.2623, 0.00854793, 165.103
1, 60.00000, 124.511, -31.3818, 124.681, -151.465, 124.57, 88.5218, 0, 0, 0.958961, -54.456, 0.957636, -174.538, 0.9585, 65.4478, 0.00249409, -170.472
1, 120.00000, 124.511, -31.3818, 124.681, -151.465, 124.57, 88.5218, 0, 0, 0.958949, -54.4557, 0.957639, -174.538, 0.958496, 65.4479, 0.00248774, -170.213
1, 180.00000, 124.511, -31.3818, 124.681, -151.465, 124.57, 88.5218, 0, 0, 0.958949, -54.4557, 0.957639, -174.538, 0.958496, 65.4479, 0.00248771, -170.212
1, 240.00000, 124.511, -31.3818, 124.681, -151.465, 124.57, 88.5218, 0, 0, 0.958949, -54.4557, 0.957639, -174.538, 0.958496, 65.4479, 0.00248771, -170.212
1, 300.00000, 124.511, -31.3818, 124.681, -151.465, 124.57, 88.5218, 0, 0, 0.958949, -54.4557, 0.957639, -174.538, 0.958496, 65.4479, 0.00248771, -170.212
1, 360.00000, 124.511, -31.3818, 124.681, -151.465, 124.57, 88.5218, 0, 0, 0.958949, -54.4557, 0.957639, -174.538, 0.958496, 65.4479, 0.00248771, -170.212
1, 420.00000, 124.511, -31.3818, 124.681, -151.465, 124.57, 88.5218, 0, 0, 0.958949, -54.4557, 0.957639, -174.538, 0.958496, 65.4479, 0.00248771, -170.212
1, 480.00000, 124.511, -31.3818, 124.681, -151.465, 124.57, 88.5218, 0, 0, 0.958949, -54.4557, 0.957639, -174.538, 0.958496, 65.4479, 0.00248771, -170.212
1, 540.00000, 124.511, -31.3818, 124.681, -151.465, 124.57, 88.5218, 0, 0, 0.958949, -54.4557, 0.957639, -174.538, 0.958496, 65.4479, 0.00248771, -170.212
1, 600.00000, 124.511, -31.3818, 124.681, -151.465, 124.57, 88.5218, 0, 0, 0.958949, -54.4557, 0.957639, -174.538, 0.958496, 65.4479, 0.00248771, -170.212
1, 660.00000, 124.511, -31.3818, 124.681, -151.465, 124.57, 88.5218, 0, 0, 0.958949, -54.4557, 0.957639, -174.538, 0.958496, 65.4479, 0.00248771, -170.212
1, 720.00000, 124.511, -31.3818, 124.681, -151.465, 124.57, 88.5218, 0, 0, 0.958949, -54.4557, 0.957639, -174.538, 0.958496, 65.4479, 0.00248771, -170.212
1, 780.00000, 124.511, -31.3818, 124.681, -151.465, 124.57, 88.5218, 0, 0, 0.958949, -54.4557, 0.957639, -174.538, 0.958496, 65.4479, 0.00248771, -170.212
1, 840.00000, 124.511, -31.3818, 124.681, -151.465, 124.57, 88.5218, 0, 0, 0.958949, -54.4557, 0.957639, -174.538, 0.958496, 65.4479, 0.00248771, -170.212
1, 900.00000, 124.511, -31.3818, 124.681, -151.465, 124.57, 88.5218, 0, 0, 0.958949, -54.4557, 0.957639, -174.538, 0.958496, 65.4479, 0.00248771, -170.212
1, 960.00000, 124.511, -31.3818, 124.681, -151.465, 124.57, 88.5218, 0, 0, 0.958949, -54.4557, 0.957639, -174.538, 0.958496, 65.4479, 0.00248771, -170.212
1, 1020.00000, 124.511, -31.3818, 124.681, -151.465, 124.57, 88.5218, 0, 0, 0.958949, -54.4557, 0.957639, -174.538, 0.958496, 65.4479, 0.00248771, -170.212
1, 1080.00000, 124.511, -31.3818, 124.681, -151.465, 124.57, 88.5218, 0, 0, 0.958949, -54.4557, 0.957639, -174.538, 0.958496, 65.4479, 0.00248771, -170.212
1, 1140.00000, 124.511, -31.3818, 124.681, -151.465, 124.57, 88.5218, 0, 0, 0.958949, -54.4557, 0.957639, -174.538, 0.958496, 65.4479, 0.00248771, -170.212
1, 1200.00000, 124.511, -31.3818, 124.681, -151.465, 124.57, 88.5218, 0, 0, 0.958949, -54.4557, 0.957639, -174.538, 0.958496, 65.4479, 0.00248771, -170.212
1, 1260.00000, 124.511, -31.3818, 124.681, -151.465, 124.57, 88.5218, 0, 0, 0.958949, -54.4557, 0.957639, -174.538, 0.958496, 65.4479, 0.00248771, -170.212
1, 1320.00000, 124.511, -31.3818, 124.681, -151.465, 124.57, 88.5218, 0, 0, 0.958949, -54.4557, 0.957639, -174.538, 0.958496, 65.4479, 0.00248771, -170.212
1, 1380.00000, 124.511, -31.3818, 124.681, -151.465, 124.57, 88.5218, 0, 0, 0.958949, -54.4557, 0.957639, -174.538, 0.958496, 65.4479, 0.00248771, -170.212
1, 1440.00000, 124.511, -31.3818, 124.681, -151.465, 124.57, 88.5218, 0, 0, 0.958949, -54.4557, 0.957639, -174.538, 0.958496, 65.4479, 0.00248771, -170.212
1, 1500.00000, 124.511, -31.3818, 124.681, -151.465, 124.57, 88.5218, 0, 0, 0.958949, -54.4557, 0.957639, -174.538, 0.958496, 65.4479, 0.00248771, -170.212
1, 1560.00000, 124.511, -31.3818, 124.681, -151.465, 124.57, 88.5218, 0, 0, 0.958949, -54.4557, 0.957639, -174.538, 0.958496, 65.4479, 0.00248771, -170.212
1, 1620.00000, 124.511, -31.3818, 124.681, -151.465, 124.57, 88.5218, 0, 0, 0.958949, -54.4557, 0.957639, -174.538, 0.958496, 65.4479, 0.00248771, -170.212
1, 1680.00000, 124.511, -31.3818, 124.681, -151.465, 124.57, 88.5218, 0, 0, 0.958949, -54.4557, 0.957639, -174.538, 0.958496, 65.4479, 0.00248771, -170.212
1, 1740.00000, 124.511, -31.3818, 124.681, -151.465, 124.57, 88.5218, 0, 0, 0.958949, -54.4557, 0.957639, -174.538, 0.958496, 65.4479, 0.00248771, -170.212
1, 1800.00000, 124.511, -31.3818, 124.681, -151.465, 124.57, 88.5218, 0, 0, 0.958949, -54.4557, 0.957639, -174.538, 0.958496, 65.4479, 0.00248771, -170.212
1, 1860.00000, 124.511, -31.3818, 124.681, -151.465, 124.57, 88.5218, 0, 0, 0.958949, -54.4557, 0.957639, -174.538, 0.958496, 65.4479, 0.00248771, -170.212
1, 1920.00000, 124.511, -31.3818, 124.681, -151.465, 124.57, 88.5218, 0, 0, 0.958949, -54.4557, 0.957639, -174.538, 0.958496, 65.4479, 0.00248771, -170.212
1, 1980.00000, 124.511, -31.3818, 124.681, -151.465, 124.57, 88.5218, 0, 0, 0.958949, -54.4557, 0.957639, -174.538, 0.958496, 65.4479, 0.00248771, -170.212
1, 2040.00000, 124.511, -31.3818, 124.681, -151.465, 124.57, 88.5218, 0, 0, 0.958949, -54.4557, 0.957639, -174.538, 0.958496, 65.4479, 0.00248771, -170.212
1, 2100.00000, 124.511, -31.3818, 124.681, -151.465, 124.57, 88.5218, 0, 0, 0.958949, -54.4557, 0.957639, -174.538, 0.958496, 65.4479, 0.00248771, -170.212
1, 2160.00000, 124.511, -31.3818, 124.681, -151.465, 124.57, 88.5218, 0, 0, 0.958949, -54.4557, 0.957639, -174.538, 0.958496, 65.4479, 0.00248771, -170.212
1, 2220.00000, 124.511, -31.3818, 124.681, -151.465, 124.57, 88.5218, 0, 0, 0.958949, -54.4557, 0.957639, -174.538, 0.958496, 65.4479, 0.00248771, -170.212
1, 2280.00000, 124.511, -31.3818, 124.681, -151.465, 124.57, 88.5218, 0, 0, 0.958949, -54.4557, 0.957639, -174.538, 0.958496, 65.4479, 0.00248771, -170.212
1, 2340.00000, 124.511, -31.3818, 124.681, -151.465, 124.57, 88.5218, 0, 0, 0.958949, -54.4557, 0.957639, -174.538, 0.958496, 65.4479, 0.00248771, -170.212
1, 2400.00000, 124.511, -31.3818, 124.681, -151.465, 124.57, 88.5218, 0, 0, 0.958949, -54.4557, 0.957639, -174.538, 0.958496, 65.4479, 0.00248771, -170.212
1, 2460.00000, 124.511, -31.3818, 124.681, -151.465, 124.57, 88.5218, 0, 0, 0.958949, -54.4557, 0.957639, -174.538, 0.958496, 65.4479, 0.00248771, -170.212
1, 2520.00000, 124.511, -31.3818, 124.681, -151.465, 124.57, 88.5218, 0, 0, 0.958949, -54.4557, 0.957639, -174.538, 0.958496, 65.4479, 0.00248771, -170.212
1, 2580.00000, 124.511, -31.3818, 124.681, -151.465, 124.57, 88.5218, 0, 0, 0.958949, -54.4557, 0.957639, -174.538, 0.958496, 65.4479, 0.00248771, -170.212
1, 2640.00000, 124.511, -31.3818, 124.681, -151.465, 124.57, 88.5218, 0, 0, 0.958949, -54.4557, 0.957639, -174.538, 0.958496, 65.4479, 0.00248771, -170.212
1, 2700.00000, 124.511, -31.3818, 124.681, -151.465, 124.57, 88.5218, 0, 0, 0.958949, -54.4557, 0.957639, -174.538, 0.958496, 65.4479, 0.00248771, -170.212
1, 2760.00000, 124.511, -31.3818, 124.681, -151.465, 124.57, 88.5218, 0, 0, 0.958949, -54.4557, 0.957639, -174.538, 0.958496, 65.4479, 0.00248771, -170.212
1, 2820.00000, 124.511, -31.3818, 124.681, -151.465, 124.57, 88.5218, 0, 0, 0.958949, -54.4557, 0.957639, -174.538, 0.958496, 65.4479, 0.00248771, -170.212
1, 2880.00000, 124.511, -31.3818, 124.681, -151.465, 124.57, 88.5218, 0, 0, 0.958949, -54.4557, 0.957639, -174.538, 0.958496, 65.4479, 0.00248771, -170.212
1, 2940.00000, 124.511, -31.3818, 124.681, -151.465, 124.57, 88.5218, 0, 0, 0.958949, -54.4557, 0.957639, -174.538, 0.958496, 65.4479, 0.00248771, -170.212
1, 3000.00000, 124.511, -31.3818, 124.681, -151.465, 124.57, 88.5218, 0, 0, 0.958949, -54.4557, 0.957639, -174.538, 0.958496, 65.4479, 0.00248771, -170.212
1, 3060.00000, 124.511, -31.3818, 124.681, -151.465, 124.57, 88.5218, 0, 0, 0.958949, -54.4557, 0.957639, -174.538, 0.958496, 65.4479, 0.00248771, -170.212
1, 3120.00000, 124.511, -31.3818, 124.681, -151.465, 124.57, 88.5218, 0, 0, 0.958949, -54.4557, 0.957639, -174.538, 0.958496, 65.4479, 0.00248771, -170.212
1, 3180.00000, 124.511, -31.3818, 124.681, -151.465, 124.57, 88.5218, 0, 0, 0.958949, -54.4557, 0.957639, -174.538, 0.958496, 65.4479, 0.00248771, -170.212
1, 3240.00000, 124.511, -31.3818, 124.681, -151.465, 124.57, 88.5218, 0, 0, 0.958949, -54.4557, 0.957639, -174.538, 0.958496, 65.4479, 0.00248771, -170.212
1, 3300.00000, 124.511, -31.3818, 124.681, -151.465, 124.57, 88.5218, 0, 0, 0.958949, -54.4557, 0.957639, -174.538, 0.958496, 65.4479, 0.00248771, -170.212
1, 3360.00000, 124.511, -31.3818, 124.681, -151.465, 124.57, 88.5218, 0, 0, 0.958949, -54.4557, 0.957639, -174.538, 0.958496, 65.4479, 0.00248771, -170.212
1, 3420.00000, 124.511, -31.3818, 124.681, -151.465, 124.57, 88.5218, 0, 0, 0.958949, -54.4557, 0.957639, -174.538, 0.958496, 65.4479, 0.00248771, -170.212
1, 3480.00000, 124.511, -31.3818, 124.681, -151.465, 124.57, 88.5218, 0, 0, 0.958949, -54.4557, 0.957639, -174.538, 0.958496, 65.4479, 0.00248771, -170.212
1, 3540.00000, 124.511, -31.3818, 124.681, -151.465, 124.57, 88.5218, 0, 0, 0.958949, -54.4557, 0.957639, -174.538, 0.958496, 65.4479, 0.00248771, -170.212
2, 0.00000, 124.511, -31.3818, 124.681, -151.465, 124.57, 88.5218, 0, 0, 0.958949, -54.4557, 0.957639, -174.538, 0.958496, 65.4479, 0.00248771, -170.212
2, 60.00000, 124.511, -31.3818, 124.681, -151.465, 124.57, 88.5218, 0, 0, 0.958949, -54.4557, 0.957639, -174.538, 0.958496, 65.4479, 0.00248771, -170.212
2, 120.00000, 124.511, -31.3818, 124.681, -151.465, 124.57, 88.5218, 0, 0, 0.958949, -54.4557, 0.957639, -174.538, 0.958496, 65.4479, 0.00248771, -170.212
2, 180.00000, 124.511, -31.3818, 124.681, -151.465, 124.57, 88.5218, 0, 0, 0.958949, -54.4557, 0.957639, -174.538, 0.958496, 65.4479, 0.00248771, -170.212
2, 240.00000, 124.511, -31.3818, 124.681, -151.465, 124.57, 88.5218, 0, 0, 0.958949, -54.4557, 0.957639, -174.538, 0.958496, 65.4479, 0.00248771, -170.212
2, 300.00000, 124.511, -31.3818, 124.681, -151.465, 124.57, 88.5218, 0, 0, 0.958949, -54.4557, 0.957639, -174.538, 0.958496, 65.4479, 0.00248771, -170.212
2, 360.00000, 124.511, -31.3818, 124.681, -151.465, 124.57, 88.5218, 0, 0, 0.958949, -54.4557, 0.957639, -174.538, 0.958496, 65.4479, 0.00248771, -170.212
2, 420.00000, 124.511, -31.3818, 124.681, -151.465, 124.57, 88.5218, 0, 0, 0.958949, -54.4557, 0.957639, -174.538, 0.958496, 65.4479, 0.00248771, -170.212
2, 480.00000, 124.511, -31.3818, 124.681, -151.465, 124.57, 88.5218, 0, 0, 0.958949, -54.4557, 0.957639, -174.538, 0.958496, 65.4479, 0.00248771, -170.212
