hour,t(sec),"P1 (kW)","Q1 (kvar)","P2 (kW)","Q2 (kvar)","P3 (kW)","Q3 (kvar)","P4 (kW)","Q4 (kvar)"
0, 60.00000, 0.14614, 0.0622552, 0.142589, 0.0607419, 0.144515, 0.0615623, 0, 0
0, 120.00000, 0.146139, 0.062255, 0.142587, 0.0607416, 0.144513, 0.0615624, 0, 0
0, 180.00000, 0.146139, 0.062255, 0.142587, 0.0607416, 0.144513, 0.0615624, 0, 0
0, 240.00000, 0.146139, 0.062255, 0.142587, 0.0607416, 0.144513, 0.0615624, 0, 0
0, 300.00000, 0.146139, 0.062255, 0.142587, 0.0607416, 0.144513, 0.0615624, 0, 0
0, 360.00000, 0.146139, 0.062255, 0.142587, 0.0607416, 0.144513, 0.0615624, 0, 0
0, 420.00000, 0.146139, 0.062255, 0.142587, 0.0607416, 0.144513, 0.0615624, 0, 0
0, 480.00000, 0.146139, 0.062255, 0.142587, 0.0607416, 0.144513, 0.0615624, 0, 0
0, 540.00000, 0.146139, 0.062255, 0.142587, 0.0607416, 0.144513, 0.0615624, 0, 0
0, 600.00000, 0.146139, 0.062255, 0.142587, 0.0607416, 0.144513, 0.0615624, 0, 0
0, 660.00000, 0.146139, 0.062255, 0.142587, 0.0607416, 0.144513, 0.0615624, 0, 0
0, 720.00000, 0.146139, 0.062255, 0.142587, 0.0607416, 0.144513, 0.0615624, 0, 0
0, 780.00000, 0.146139, 0.062255, 0.142587, 0.0607416, 0.144513, 0.0615624, 0, 0
0, 840.00000, 0.146139, 0.062255, 0.142587, 0.0607416, 0.144513, 0.0615624, 0, 0
0, 900.00000, 0.146139, 0.062255, 0.142587, 0.0607416, 0.144513, 0.0615624, 0, 0
0, 960.00000, 0.153322, 0.0653147, 0.149086, 0.0635098, 0.151881, 0.0647007, 0, 0
0, 1020.00000, 0.153321, 0.0653145, 0.149084, 0.0635097, 0.151881, 0.0647009, 0, 0
0, 1080.00000, 0.153321, 0.0653145, 0.149084, 0.0635097, 0.151881, 0.0647009, 0, 0
0, 1140.00000, 0.153321, 0.0653145, 0.149084, 0.0635097, 0.151881, 0.0647009, 0, 0
0, 1200.00000, 0.153321, 0.0653145, 0.149084, 0.0635097, 0.151881, 0.0647009, 0, 0
0, 1260.00000, 0.153321, 0.0653145, 0.149084, 0.0635097, 0.151881, 0.0647009, 0, 0
0, 1320.00000, 0.153321, 0.0653145, 0.149084, 0.0635097, 0.151881, 0.0647009, 0, 0
0, 1380.00000, 0.153321, 0.0653145, 0.149084, 0.0635097, 0.151881, 0.0647009, 0, 0
0, 1440.00000, 0.153321, 0.0653145, 0.149084, 0.0635097, 0.151881, 0.0647009, 0, 0
0, 1500.00000, 0.153321, 0.0653145, 0.149084, 0.0635097, 0.151881, 0.0647009, 0, 0
0, 1560.00000, 0.153321, 0.0653145, 0.149084, 0.0635097, 0.151881, 0.0647009, 0, 0
0, 1620.00000, 0.153321, 0.0653145, 0.149084, 0.0635097, 0.151881, 0.0647009, 0, 0
0, 1680.00000, 0.153321, 0.0653145, 0.149084, 0.0635097, 0.151881, 0.0647009, 0, 0
0, 1740.00000, 0.153321, 0.0653145, 0.149084, 0.0635097, 0.151881, 0.0647009, 0, 0
0, 1800.00000, 0.153321, 0.0653145, 0.149084, 0.0635097, 0.151881, 0.0647009, 0, 0
0, 1860.00000, 0.148459, 0.0632451, 0.144335, 0.061488, 0.147025, 0.0626343, 0, 0
0, 1920.00000, 0.148462, 0.0632447, 0.144338, 0.0614877, 0.147027, 0.0626334, 0, 0
0, 1980.00000, 0.148462, 0.0632447, 0.144338, 0.0614877, 0.147027, 0.0626334, 0, 0
0, 2040.00000, 0.148462, 0.0632447, 0.144338, 0.0614877, 0.147027, 0.0626334, 0, 0
0, 2100.00000, 0.148462, 0.0632447, 0.144338, 0.0614877, 0.147027, 0.0626334, 0, 0
0, 2160.00000, 0.148462, 0.0632447, 0.144338, 0.0614877, 0.147027, 0.0626334, 0, 0
0, 2220.00000, 0.148462, 0.0632447, 0.144338, 0.0614877, 0.147027, 0.0626334, 0, 0
0, 2280.00000, 0.148462, 0.0632447, 0.144338, 0.0614877, 0.147027, 0.0626334, 0, 0
0, 2340.00000, 0.148462, 0.0632447, 0.144338, 0.0614877, 0.147027, 0.0626334, 0, 0
0, 2400.00000, 0.148462, 0.0632447, 0.144338, 0.0614877, 0.147027, 0.0626334, 0, 0
0, 2460.00000, 0.148462, 0.0632447, 0.144338, 0.0614877, 0.147027, 0.0626334, 0, 0
0, 2520.00000, 0.148462, 0.0632447, 0.144338, 0.0614877, 0.147027, 0.0626334, 0, 0
0, 2580.00000, 0.148462, 0.0632447, 0.144338, 0.0614877, 0.147027, 0.0626334, 0, 0
0, 2640.00000, 0.148462, 0.0632447, 0.144338, 0.0614877, 0.147027, 0.0626334, 0, 0
0, 2700.00000, 0.148462, 0.0632447, 0.144338, 0.0614877, 0.147027, 0.0626334, 0, 0
0, 2760.00000, 0.141179, 0.060142, 0.137226, 0.0584582, 0.13975, 0.0595333, 0, 0
0, 2820.00000, 0.141179, 0.0601421, 0.137227, 0.0584583, 0.13975, 0.0595334, 0, 0
0, 2880.00000, 0.141179, 0.0601421, 0.137227, 0.0584583, 0.13975, 0.0595334, 0, 0
0, 2940.00000, 0.141179, 0.0601421, 0.137227, 0.0584583, 0.13975, 0.0595334, 0, 0
0, 3000.00000, 0.141179, 0.0601421, 0.137227, 0.0584583, 0.13975, 0.0595334, 0, 0
0, 3060.00000, 0.141179, 0.0601421, 0.137227, 0.0584583, 0.13975, 0.0595334, 0, 0
0, 3120.00000, 0.141179, 0.0601421, 0.137227, 0.0584583, 0.13975, 0.0595334, 0, 0
0, 3180.00000, 0.141179, 0.0601421, 0.137227, 0.0584583, 0.13975, 0.0595334, 0, 0
0, 3240.00000, 0.141179, 0.0601421, 0.137227, 0.0584583, 0.13975, 0.0595334, 0, 0
0, 3300.00000, 0.141179, 0.0601421, 0.137227, 0.0584583, 0.13975, 0.0595334, 0, 0
0, 3360.00000, 0.141179, 0.0601421, 0.137227, 0.0584583, 0.13975, 0.0595334, 0, 0
0, 3420.00000, 0.141179, 0.0601421, 0.137227, 0.0584583, 0.13975, 0.0595334, 0, 0
0, 3480.00000, 0.141227, 0.0601625, 0.137809, 0.0587063, 0.140856, 0.0600053, 0, 0
0, 3540.00000, 0.141424, 0.060246, 0.1385, 0.0590012, 0.140849, 0.0600016, 0, 0
1, 0.00000, 0.141424, 0.0602463, 0.138502, 0.0590014, 0.140849, 0.0600012, 0, 0
1, 60.00000, 0.144104, 0.061391, 0.141101, 0.0601121, 0.143471, 0.061123, 0, 0
1, 120.00000, 0.144113, 0.0613918, 0.141111, 0.0601131, 0.143481, 0.0611226, 0, 0
1, 180.00000, 0.144113, 0.0613918, 0.141111, 0.0601132, 0.143481, 0.0611226, 0, 0
1, 240.00000, 0.144113, 0.0613918, 0.141111, 0.0601132, 0.143481, 0.0611226, 0, 0
1, 300.00000, 0.144113, 0.0613918, 0.141111, 0.0601132, 0.143481, 0.0611226, 0, 0
1, 360.00000, 0.144113, 0.0613918, 0.141111, 0.0601132, 0.143481, 0.0611226, 0, 0
1, 420.00000, 0.144113, 0.0613918, 0.141111, 0.0601132, 0.143481, 0.0611226, 0, 0
1, 480.00000, 0.144113, 0.0613918, 0.141111, 0.0601132, 0.143481, 0.0611226, 0, 0
1, 540.00000, 0.144113, 0.0613918, 0.141111, 0.0601132, 0.143481, 0.0611226, 0, 0
1, 600.00000, 0.144276, 0.0614613, 0.146197, 0.0622809, 0.1487, 0.0633469, 0, 0
1, 660.00000, 0.144274, 0.0614607, 0.146204, 0.0622828, 0.14871, 0.0633501, 0, 0
1, 720.00000, 0.144274, 0.0614607, 0.146204, 0.0622828, 0.14871, 0.0633501, 0, 0
1, 780.00000, 0.144274, 0.0614607, 0.146204, 0.0622828, 0.14871, 0.0633501, 0, 0
1, 840.00000, 0.144274, 0.0614607, 0.146204, 0.0622828, 0.14871, 0.0633501, 0, 0
1, 900.00000, 0.144274, 0.0614607, 0.146204, 0.0622828, 0.14871, 0.0633501, 0, 0
1, 960.00000, 0.142907, 0.0608786, 0.144814, 0.0616918, 0.147292, 0.0627467, 0, 0
1, 1020.00000, 0.142909, 0.0608789, 0.144819, 0.0616926, 0.147296, 0.0627477, 0, 0
1, 1080.00000, 0.142909, 0.0608789, 0.144819, 0.0616926, 0.147296, 0.0627477, 0, 0
1, 1140.00000, 0.142909, 0.0608789, 0.144819, 0.0616926, 0.147296, 0.0627477, 0, 0
1, 1200.00000, 0.142909, 0.0608789, 0.144819, 0.0616926, 0.147296, 0.0627477, 0, 0
1, 1260.00000, 0.142909, 0.0608789, 0.144819, 0.0616926, 0.147296, 0.0627477, 0, 0
1, 1320.00000, 0.142909, 0.0608789, 0.144819, 0.0616926, 0.147296, 0.0627477, 0, 0
1, 1380.00000, 0.142909, 0.0608789, 0.144819, 0.0616926, 0.147296, 0.0627477, 0, 0
1, 1440.00000, 0.142909, 0.0608789, 0.144819, 0.0616926, 0.147296, 0.0627477, 0, 0
1, 1500.00000, 0.142909, 0.0608789, 0.144819, 0.0616926, 0.147296, 0.0627477, 0, 0
1, 1560.00000, 0.142909, 0.0608789, 0.144819, 0.0616926, 0.147296, 0.0627477, 0, 0
1, 1620.00000, 0.142909, 0.0608789, 0.144819, 0.0616926, 0.147296, 0.0627477, 0, 0
1, 1680.00000, 0.142909, 0.0608789, 0.144819, 0.0616926, 0.147296, 0.0627477, 0, 0
1, 1740.00000, 0.142909, 0.0608789, 0.144819, 0.0616926, 0.147296, 0.0627477, 0, 0
1, 1800.00000, 0.142909, 0.0608789, 0.144819, 0.0616926, 0.147296, 0.0627477, 0, 0
1, 1860.00000, 0.14392, 0.0613119, 0.144685, 0.0616344, 0.147789, 0.0629587, 0, 0
1, 1920.00000, 0.143923, 0.0613111, 0.14468, 0.0616332, 0.147794, 0.0629602, 0, 0
1, 1980.00000, 0.143923, 0.0613111, 0.14468, 0.0616332, 0.147795, 0.0629602, 0, 0
1, 2040.00000, 0.143923, 0.0613111, 0.14468, 0.0616332, 0.147795, 0.0629602, 0, 0
1, 2100.00000, 0.143923, 0.0613111, 0.14468, 0.0616332, 0.147795, 0.0629602, 0, 0
1, 2160.00000, 0.143923, 0.0613111, 0.14468, 0.0616332, 0.147795, 0.0629602, 0, 0
1, 2220.00000, 0.143923, 0.0613111, 0.14468, 0.0616332, 0.147795, 0.0629602, 0, 0
1, 2280.00000, 0.143923, 0.0613111, 0.14468, 0.0616332, 0.147795, 0.0629602, 0, 0
1, 2340.00000, 0.143923, 0.0613111, 0.14468, 0.0616332, 0.147795, 0.0629602, 0, 0
1, 2400.00000, 0.143923, 0.0613111, 0.14468, 0.0616332, 0.147795, 0.0629602, 0, 0
1, 2460.00000, 0.143923, 0.0613111, 0.14468, 0.0616332, 0.147795, 0.0629602, 0, 0
1, 2520.00000, 0.143923, 0.0613111, 0.14468, 0.0616332, 0.147795, 0.0629602, 0, 0
1, 2580.00000, 0.143923, 0.0613111, 0.14468, 0.0616332, 0.147795, 0.0629602, 0, 0
1, 2640.00000, 0.143923, 0.0613111, 0.14468, 0.0616332, 0.147795, 0.0629602, 0, 0
1, 2700.00000, 0.143923, 0.0613111, 0.14468, 0.0616332, 0.147795, 0.0629602, 0, 0
1, 2760.00000, 0.138576, 0.0590342, 0.139285, 0.0593356, 0.141227, 0.060164, 0, 0
1, 2820.00000, 0.138577, 0.0590337, 0.139289, 0.059337, 0.14122, 0.0601595, 0, 0
1, 2880.00000, 0.138577, 0.0590337, 0.139289, 0.059337, 0.14122, 0.0601594, 0, 0
1, 2940.00000, 0.138577, 0.0590337, 0.139289, 0.059337, 0.14122, 0.0601594, 0, 0
1, 3000.00000, 0.138577, 0.0590337, 0.139289, 0.059337, 0.14122, 0.0601594, 0, 0
1, 3060.00000, 0.138577, 0.0590337, 0.139289, 0.059337, 0.14122, 0.0601594, 0, 0
1, 3120.00000, 0.138577, 0.0590337, 0.139289, 0.059337, 0.14122, 0.0601594, 0, 0
1, 3180.00000, 0.138577, 0.0590337, 0.139289, 0.059337, 0.14122, 0.0601594, 0, 0
1, 3240.00000, 0.138577, 0.0590337, 0.139289, 0.059337, 0.14122, 0.0601594, 0, 0
1, 3300.00000, 0.138577, 0.0590337, 0.139289, 0.059337, 0.14122, 0.0601594, 0, 0
1, 3360.00000, 0.138577, 0.0590337, 0.139289, 0.059337, 0.14122, 0.0601594, 0, 0
1, 3420.00000, 0.138577, 0.0590337, 0.139289, 0.059337, 0.14122, 0.0601594, 0, 0
1, 3480.00000, 0.138577, 0.0590337, 0.139289, 0.059337, 0.14122, 0.0601594, 0, 0
1, 3540.00000, 0.138577, 0.0590337, 0.139289, 0.059337, 0.14122, 0.0601594, 0, 0
2, 0.00000, 0.138577, 0.0590337, 0.139289, 0.059337, 0.14122, 0.0601594, 0, 0
2, 60.00000, 0.138519, 0.0590083, 0.139248, 0.059319, 0.141823, 0.0604153, 0, 0
2, 120.00000, 0.138518, 0.0590085, 0.139245, 0.0593183, 0.141827, 0.0604178, 0, 0
2, 180.00000, 0.138518, 0.0590085, 0.139245, 0.0593183, 0.141827, 0.0604179, 0, 0
2, 240.00000, 0.138518, 0.0590085, 0.139245, 0.0593183, 0.141827, 0.0604179, 0, 0
2, 300.00000, 0.138518, 0.0590085, 0.139245, 0.0593183, 0.141827, 0.0604179, 0, 0
2, 360.00000, 0.138518, 0.0590085, 0.139245, 0.0593183, 0.141827, 0.0604179, 0, 0
2, 420.00000, 0.138518, 0.0590085, 0.139245, 0.0593183, 0.141827, 0.0604179, 0, 0
2, 480.00000, 0.138518, 0.0590085, 0.139245, 0.0593183, 0.141827, 0.0604179, 0, 0
2, 540.00000, 0.138518, 0.0590085, 0.139245, 0.0593183, 0.141827, 0.0604179, 0, 0
2, 600.00000, 0.138518, 0.0590085, 0.139245, 0.0593183, 0.141827, 0.0604179, 0, 0
2, 660.00000, 0.138518, 0.0590085, 0.139245, 0.0593183, 0.141827, 0.0604179, 0, 0
2, 720.00000, 0.138518, 0.0590085, 0.139245, 0.0593183, 0.141827, 0.0604179, 0, 0
2, 780.00000, 0.138518, 0.0590085, 0.139245, 0.0593183, 0.141827, 0.0604179, 0, 0
2, 840.00000, 0.138518, 0.0590085, 0.139245, 0.0593183, 0.141827, 0.0604179, 0, 0
2, 900.00000, 0.138518, 0.0590085, 0.139245, 0.0593183, 0.141827, 0.0604179, 0, 0
2, 960.00000, 0.142118, 0.0605432, 0.142843, 0.0608511, 0.144696, 0.0616414, 0, 0
2, 1020.00000, 0.14212, 0.0605429, 0.142846, 0.060852, 0.144691, 0.0616381, 0, 0
2, 1080.00000, 0.14212, 0.0605429, 0.142846, 0.060852, 0.144691, 0.061638, 0, 0
2, 1140.00000, 0.14212, 0.0605429, 0.142846, 0.060852, 0.144691, 0.061638, 0, 0
2, 1200.00000, 0.14212, 0.0605429, 0.142846, 0.060852, 0.144691, 0.061638, 0, 0
2, 1260.00000, 0.14212, 0.0605429, 0.142846, 0.060852, 0.144691, 0.061638, 0, 0
2, 1320.00000, 0.14212, 0.0605429, 0.142846, 0.060852, 0.144691, 0.061638, 0, 0
2, 1380.00000, 0.14212, 0.0605429, 0.142846, 0.060852, 0.144691, 0.061638, 0, 0
2, 1440.00000, 0.14212, 0.0605429, 0.142846, 0.060852, 0.144691, 0.061638, 0, 0
2, 1500.00000, 0.14212, 0.0605429, 0.142846, 0.060852, 0.144691, 0.061638, 0, 0
2, 1560.00000, 0.14212, 0.0605429, 0.142846, 0.060852, 0.144691, 0.061638, 0, 0
2, 1620.00000, 0.14212, 0.0605429, 0.142846, 0.060852, 0.144691, 0.061638, 0, 0
2, 1680.00000, 0.14212, 0.0605429, 0.142846, 0.060852, 0.144691, 0.061638, 0, 0
2, 1740.00000, 0.14212, 0.0605429, 0.142846, 0.060852, 0.144691, 0.061638, 0, 0
2, 1800.00000, 0.14212, 0.0605429, 0.142846, 0.060852, 0.144691, 0.061638, 0, 0
2, 1860.00000, 0.138554, 0.0590231, 0.13927, 0.0593285, 0.141387, 0.06023, 0, 0
2, 1920.00000, 0.138553, 0.0590232, 0.139269, 0.0593282, 0.141389, 0.0602313, 0, 0
2, 1980.00000, 0.138553, 0.0590232, 0.139269, 0.0593282, 0.141389, 0.0602313, 0, 0
2, 2040.00000, 0.138553, 0.0590232, 0.139269, 0.0593282, 0.141389, 0.0602313, 0, 0
2, 2100.00000, 0.138553, 0.0590232, 0.139269, 0.0593282, 0.141389, 0.0602313, 0, 0
2, 2160.00000, 0.138553, 0.0590232, 0.139269, 0.0593282, 0.141389, 0.0602313, 0, 0
2, 2220.00000, 0.138553, 0.0590232, 0.139269, 0.0593282, 0.141389, 0.0602313, 0, 0
2, 2280.00000, 0.138553, 0.0590232, 0.139269, 0.0593282, 0.141389, 0.0602313, 0, 0
2, 2340.00000, 0.138553, 0.0590232, 0.139269, 0.0593282, 0.141389, 0.0602313, 0, 0
2, 2400.00000, 0.138553, 0.0590232, 0.139269, 0.0593282, 0.141389, 0.0602313, 0, 0
2, 2460.00000, 0.138553, 0.0590232, 0.139269, 0.0593282, 0.141389, 0.0602313, 0, 0
2, 2520.00000, 0.138553, 0.0590232, 0.139269, 0.0593282, 0.141389, 0.0602313, 0, 0
2, 2580.00000, 0.138553, 0.0590232, 0.139269, 0.0593282, 0.141389, 0.0602313, 0, 0
2, 2640.00000, 0.138553, 0.0590232, 0.139269, 0.0593282, 0.141389, 0.0602313, 0, 0
2, 2700.00000, 0.138553, 0.0590232, 0.139269, 0.0593282, 0.141389, 0.0602313, 0, 0
2, 2760.00000, 0.131635, 0.0560775, 0.132289, 0.0563555, 0.133365, 0.0568144, 0, 0
2, 2820.00000, 0.131638, 0.0560775, 0.132294, 0.0563568, 0.133359, 0.0568107, 0, 0
2, 2880.00000, 0.131638, 0.0560775, 0.132294, 0.0563568, 0.133359, 0.0568107, 0, 0
2, 2940.00000, 0.131638, 0.0560775, 0.132294, 0.0563568, 0.133359, 0.0568107, 0, 0
2, 3000.00000, 0.131638, 0.0560775, 0.132294, 0.0563568, 0.133359, 0.0568107, 0, 0
2, 3060.00000, 0.131638, 0.0560775, 0.132294, 0.0563568, 0.133359, 0.0568107, 0, 0
2, 3120.00000, 0.131638, 0.0560775, 0.132294, 0.0563568, 0.133359, 0.0568107, 0, 0
2, 3180.00000, 0.131638, 0.0560775, 0.132294, 0.0563568, 0.133359, 0.0568107, 0, 0
2, 3240.00000, 0.131638, 0.0560775, 0.132294, 0.0563568, 0.133359, 0.0568107, 0, 0
2, 3300.00000, 0.131638, 0.0560775, 0.132294, 0.0563568, 0.133359, 0.0568107, 0, 0
2, 3360.00000, 0.131638, 0.0560775, 0.132294, 0.0563568, 0.133359, 0.0568107, 0, 0
2, 3420.00000, 0.131638, 0.0560775, 0.132294, 0.0563568, 0.133359, 0.0568107, 0, 0
2, 3480.00000, 0.131638, 0.0560775, 0.132294, 0.0563568, 0.133359, 0.0568107, 0, 0
2, 3540.00000, 0.131638, 0.0560775, 0.132294, 0.0563568, 0.133359, 0.0568107, 0, 0
3, 0.00000, 0.131638, 0.0560775, 0.132294, 0.0563568, 0.133359, 0.0568107, 0, 0
3, 60.00000, 0.119647, 0.0509688, 0.12025, 0.0512261, 0.121602, 0.0518017, 0, 0
3, 120.00000, 0.119646, 0.0509688, 0.120248, 0.0512256, 0.121605, 0.0518034, 0, 0
3, 180.00000, 0.119646, 0.0509688, 0.120248, 0.0512256, 0.121605, 0.0518035, 0, 0
3, 240.00000, 0.119646, 0.0509688, 0.120248, 0.0512256, 0.121605, 0.0518035, 0, 0
3, 300.00000, 0.119646, 0.0509688, 0.120248, 0.0512256, 0.121605, 0.0518035, 0, 0
3, 360.00000, 0.119646, 0.0509688, 0.120248, 0.0512256, 0.121605, 0.0518035, 0, 0
3, 420.00000, 0.119646, 0.0509688, 0.120248, 0.0512256, 0.121605, 0.0518035, 0, 0
3, 480.00000, 0.119646, 0.0509688, 0.120248, 0.0512256, 0.121605, 0.0518035, 0, 0
3, 540.00000, 0.119646, 0.0509688, 0.120248, 0.0512256, 0.121605, 0.0518035, 0, 0
3, 600.00000, 0.119646, 0.0509688, 0.120248, 0.0512256, 0.121605, 0.0518035, 0, 0
3, 660.00000, 0.119646, 0.0509688, 0.120248, 0.0512256, 0.121605, 0.0518035, 0, 0
3, 720.00000, 0.119646, 0.0509688, 0.120248, 0.0512256, 0.121605, 0.0518035, 0, 0
3, 780.00000, 0.119646, 0.0509688, 0.120248, 0.0512256, 0.121605, 0.0518035, 0, 0
3, 840.00000, 0.119646, 0.0509688, 0.120248, 0.0512256, 0.121605, 0.0518035, 0, 0
3, 900.00000, 0.119646, 0.0509688, 0.120248, 0.0512256, 0.121605, 0.0518035, 0, 0
3, 960.00000, 0.114757, 0.0488876, 0.115331, 0.0491316, 0.116489, 0.049625, 0, 0
3, 1020.00000, 0.11476, 0.0488877, 0.115336, 0.0491329, 0.116483, 0.0496216, 0, 0
3, 1080.00000, 0.11476, 0.0488876, 0.115336, 0.0491329, 0.116483, 0.0496215, 0, 0
3, 1140.00000, 0.11476, 0.0488876, 0.115336, 0.0491329, 0.116483, 0.0496215, 0, 0
3, 1200.00000, 0.11476, 0.0488876, 0.115336, 0.0491329, 0.116483, 0.0496215, 0, 0
3, 1260.00000, 0.11476, 0.0488876, 0.115336, 0.0491329, 0.116483, 0.0496215, 0, 0
3, 1320.00000, 0.11476, 0.0488876, 0.115336, 0.0491329, 0.116483, 0.0496215, 0, 0
3, 1380.00000, 0.11476, 0.0488876, 0.115336, 0.0491329, 0.116483, 0.0496215, 0, 0
3, 1440.00000, 0.11476, 0.0488876, 0.115336, 0.0491329, 0.116483, 0.0496215, 0, 0
3, 1500.00000, 0.11476, 0.0488876, 0.115336, 0.0491329, 0.116483, 0.0496215, 0, 0
3, 1560.00000, 0.11476, 0.0488876, 0.115336, 0.0491329, 0.116483, 0.0496215, 0, 0
3, 1620.00000, 0.11476, 0.0488876, 0.115336, 0.0491329, 0.116483, 0.0496215, 0, 0
3, 1680.00000, 0.11476, 0.0488876, 0.115336, 0.0491329, 0.116483, 0.0496215, 0, 0
3, 1740.00000, 0.11476, 0.0488876, 0.115336, 0.0491329, 0.116483, 0.0496215, 0, 0
3, 1800.00000, 0.11476, 0.0488876, 0.115336, 0.0491329, 0.116483, 0.0496215, 0, 0
3, 1860.00000, 0.11194, 0.0476872, 0.1125, 0.0479261, 0.113558, 0.0483764, 0, 0
3, 1920.00000, 0.111943, 0.0476874, 0.112504, 0.0479264, 0.113555, 0.0483742, 0, 0
3, 1980.00000, 0.111943, 0.0476874, 0.112504, 0.0479264, 0.113555, 0.0483742, 0, 0
3, 2040.00000, 0.111943, 0.0476874, 0.112504, 0.0479264, 0.113555, 0.0483742, 0, 0
3, 2100.00000, 0.111943, 0.0476874, 0.112504, 0.0479264, 0.113555, 0.0483742, 0, 0
3, 2160.00000, 0.111943, 0.0476874, 0.112504, 0.0479264, 0.113555, 0.0483742, 0, 0
3, 2220.00000, 0.111943, 0.0476874, 0.112504, 0.0479264, 0.113555, 0.0483742, 0, 0
3, 2280.00000, 0.111943, 0.0476874, 0.112504, 0.0479264, 0.113555, 0.0483742, 0, 0
3, 2340.00000, 0.111943, 0.0476874, 0.112504, 0.0479264, 0.113555, 0.0483742, 0, 0
3, 2400.00000, 0.111943, 0.0476874, 0.112504, 0.0479264, 0.113555, 0.0483742, 0, 0
3, 2460.00000, 0.111943, 0.0476874, 0.112504, 0.0479264, 0.113555, 0.0483742, 0, 0
3, 2520.00000, 0.111943, 0.0476874, 0.112504, 0.0479264, 0.113555, 0.0483742, 0, 0
3, 2580.00000, 0.111943, 0.0476874, 0.112504, 0.0479264, 0.113555, 0.0483742, 0, 0
3, 2640.00000, 0.111943, 0.0476874, 0.112504, 0.0479264, 0.113555, 0.0483742, 0, 0
3, 2700.00000, 0.111943, 0.0476874, 0.112504, 0.0479264, 0.113555, 0.0483742, 0, 0
3, 2760.00000, 0.108999, 0.0464343, 0.10952, 0.0466559, 0.109874, 0.0468071, 0, 0
3, 2820.00000, 0.109002, 0.0464347, 0.109524, 0.046657, 0.10987, 0.0468043, 0, 0
3, 2880.00000, 0.109002, 0.0464347, 0.109524, 0.046657, 0.10987, 0.0468042, 0, 0
3, 2940.00000, 0.109002, 0.0464347, 0.109524, 0.046657, 0.10987, 0.0468042, 0, 0
3, 3000.00000, 0.109002, 0.0464347, 0.109524, 0.046657, 0.10987, 0.0468042, 0, 0
3, 3060.00000, 0.109002, 0.0464347, 0.109524, 0.046657, 0.10987, 0.0468042, 0, 0
3, 3120.00000, 0.109002, 0.0464347, 0.109524, 0.046657, 0.10987, 0.0468042, 0, 0
3, 3180.00000, 0.109002, 0.0464347, 0.109524, 0.046657, 0.10987, 0.0468042, 0, 0
3, 3240.00000, 0.109002, 0.0464347, 0.109524, 0.046657, 0.10987, 0.0468042, 0, 0
3, 3300.00000, 0.109002, 0.0464347, 0.109524, 0.046657, 0.10987, 0.0468042, 0, 0
3, 3360.00000, 0.109002, 0.0464347, 0.109524, 0.046657, 0.10987, 0.0468042, 0, 0
3, 3420.00000, 0.109002, 0.0464347, 0.109524, 0.046657, 0.10987, 0.0468042, 0, 0
3, 3480.00000, 0.109002, 0.0464347, 0.109524, 0.046657, 0.10987, 0.0468042, 0, 0
3, 3540.00000, 0.109002, 0.0464347, 0.109524, 0.046657, 0.10987, 0.0468042, 0, 0
4, 0.00000, 0.109002, 0.0464347, 0.109524, 0.046657, 0.10987, 0.0468042, 0, 0
4, 60.00000, 0.105436, 0.0449149, 0.105959, 0.045138, 0.106661, 0.0454369, 0, 0
4, 120.00000, 0.105434, 0.0449147, 0.105957, 0.0451374, 0.106664, 0.0454387, 0, 0
