hour,t(sec),V1,VAngle1,V2,VAngle2,V3,VAngle3,V4,VAngle4,I1,IAngle1,I2,IAngle2,I3,IAngle3,I4,IAngle4
0, 60.00000, 118.786, -31.6776, 118.435, -150.882, 120.753, 88.8514, 0, 0, 3.94575, -54.7511, 3.93281, -173.955, 4.01205, 65.7778, 0.0255587, -118.793
0, 120.00000, 118.786, -31.6776, 118.435, -150.882, 120.753, 88.8514, 0, 0, 3.9457, -54.7515, 3.93275, -173.955, 4.01214, 65.7775, 0.0256723, -118.817
0, 180.00000, 118.786, -31.6776, 118.435, -150.882, 120.753, 88.8514, 0, 0, 3.9457, -54.7515, 3.93275, -173.955, 4.01214, 65.7775, 0.0256727, -118.817
0, 240.00000, 118.786, -31.6776, 118.435, -150.882, 120.753, 88.8514, 0, 0, 3.9457, -54.7515, 3.93275, -173.955, 4.01214, 65.7775, 0.0256727, -118.817
0, 300.00000, 118.786, -31.6776, 118.435, -150.882, 120.753, 88.8514, 0, 0, 3.9457, -54.7515, 3.93275, -173.955, 4.01214, 65.7775, 0.0256727, -118.817
0, 360.00000, 118.786, -31.6776, 118.435, -150.882, 120.753, 88.8514, 0, 0, 3.9457, -54.7515, 3.93275, -173.955, 4.01214, 65.7775, 0.0256727, -118.817
0, 420.00000, 118.786, -31.6776, 118.435, -150.882, 120.753, 88.8514, 0, 0, 3.9457, -54.7515, 3.93275, -173.955, 4.01214, 65.7775, 0.0256727, -118.817
0, 480.00000, 119.599, -31.5698, 119.212, -150.779, 121.557, 88.9754, 0, 0, 4.1718, -54.6444, 4.15682, -173.853, 4.18243, 65.9008, 0.031673, 69.3914
0, 540.00000, 119.599, -31.5697, 119.212, -150.779, 121.558, 88.9754, 0, 0, 4.17185, -54.6437, 4.15686, -173.853, 4.18225, 65.9015, 0.0318404, 69.3105
0, 600.00000, 119.599, -31.5697, 119.212, -150.779, 121.558, 88.9754, 0, 0, 4.17185, -54.6437, 4.15686, -173.853, 4.18224, 65.9015, 0.0318417, 69.3092
0, 660.00000, 119.599, -31.5697, 119.212, -150.779, 121.558, 88.9754, 0, 0, 4.17185, -54.6437, 4.15686, -173.853, 4.18224, 65.9015, 0.0318417, 69.3092
0, 720.00000, 119.599, -31.5697, 119.212, -150.779, 121.558, 88.9754, 0, 0, 4.17185, -54.6437, 4.15686, -173.853, 4.18224, 65.9015, 0.0318417, 69.3092
0, 780.00000, 119.599, -31.5697, 119.212, -150.779, 121.558, 88.9754, 0, 0, 4.17185, -54.6437, 4.15686, -173.853, 4.18224, 65.9015, 0.0318417, 69.3092
0, 840.00000, 119.599, -31.5697, 119.212, -150.779, 121.558, 88.9754, 0, 0, 4.17185, -54.6437, 4.15686, -173.853, 4.18224, 65.9015, 0.0318417, 69.3092
0, 900.00000, 119.599, -31.5697, 119.212, -150.779, 121.558, 88.9754, 0, 0, 4.17185, -54.6437, 4.15686, -173.853, 4.18224, 65.9015, 0.0318417, 69.3092
0, 960.00000, 119.599, -31.5697, 119.212, -150.779, 121.558, 88.9754, 0, 0, 4.17185, -54.6437, 4.15686, -173.853, 4.18224, 65.9015, 0.0318417, 69.3092
0, 1020.00000, 119.599, -31.5697, 119.212, -150.779, 121.558, 88.9754, 0, 0, 4.17185, -54.6437, 4.15686, -173.853, 4.18224, 65.9015, 0.0318417, 69.3092
0, 1080.00000, 119.599, -31.5697, 119.212, -150.779, 121.558, 88.9754, 0, 0, 4.17185, -54.6437, 4.15686, -173.853, 4.18224, 65.9015, 0.0318417, 69.3092
0, 1140.00000, 119.599, -31.5697, 119.212, -150.779, 121.558, 88.9754, 0, 0, 4.17185, -54.6437, 4.15686, -173.853, 4.18224, 65.9015, 0.0318417, 69.3092
0, 1200.00000, 119.599, -31.5697, 119.212, -150.779, 121.558, 88.9754, 0, 0, 4.17185, -54.6437, 4.15686, -173.853, 4.18224, 65.9015, 0.0318417, 69.3092
0, 1260.00000, 119.599, -31.5697, 119.212, -150.779, 121.558, 88.9754, 0, 0, 4.17185, -54.6437, 4.15686, -173.853, 4.18224, 65.9015, 0.0318417, 69.3092
0, 1320.00000, 119.599, -31.5697, 119.212, -150.779, 121.558, 88.9754, 0, 0, 4.17185, -54.6437, 4.15686, -173.853, 4.18224, 65.9015, 0.0318417, 69.3092
0, 1380.00000, 119.599, -31.5697, 119.212, -150.779, 121.558, 88.9754, 0, 0, 4.17185, -54.6437, 4.15686, -173.853, 4.18224, 65.9015, 0.0318417, 69.3092
0, 1440.00000, 119.599, -31.5697, 119.212, -150.779, 121.558, 88.9754, 0, 0, 4.17185, -54.6437, 4.15686, -173.853, 4.18224, 65.9015, 0.0318417, 69.3092
0, 1500.00000, 119.599, -31.5697, 119.212, -150.779, 121.558, 88.9754, 0, 0, 4.17185, -54.6437, 4.15686, -173.853, 4.18224, 65.9015, 0.0318417, 69.3092
0, 1560.00000, 119.599, -31.5697, 119.212, -150.779, 121.558, 88.9754, 0, 0, 4.17185, -54.6437, 4.15686, -173.853, 4.18224, 65.9015, 0.0318417, 69.3092
0, 1620.00000, 119.599, -31.5697, 119.212, -150.779, 121.558, 88.9754, 0, 0, 4.17185, -54.6437, 4.15686, -173.853, 4.18224, 65.9015, 0.0318417, 69.3092
0, 1680.00000, 119.599, -31.5697, 119.212, -150.779, 121.558, 88.9754, 0, 0, 4.17185, -54.6437, 4.15686, -173.853, 4.18224, 65.9015, 0.0318417, 69.3092
0, 1740.00000, 119.599, -31.5697, 119.212, -150.779, 121.558, 88.9754, 0, 0, 4.17185, -54.6437, 4.15686, -173.853, 4.18224, 65.9015, 0.0318417, 69.3092
0, 1800.00000, 119.599, -31.5697, 119.212, -150.779, 121.558, 88.9754, 0, 0, 4.17185, -54.6437, 4.15686, -173.853, 4.18224, 65.9015, 0.0318417, 69.3092
0, 1860.00000, 119.599, -31.5697, 119.212, -150.779, 121.558, 88.9754, 0, 0, 4.17185, -54.6437, 4.15686, -173.853, 4.18224, 65.9015, 0.0318417, 69.3092
0, 1920.00000, 119.599, -31.5697, 119.212, -150.779, 121.558, 88.9754, 0, 0, 4.17185, -54.6437, 4.15686, -173.853, 4.18224, 65.9015, 0.0318417, 69.3092
0, 1980.00000, 119.599, -31.5697, 119.212, -150.779, 121.558, 88.9754, 0, 0, 4.17185, -54.6437, 4.15686, -173.853, 4.18224, 65.9015, 0.0318417, 69.3092
0, 2040.00000, 119.599, -31.5697, 119.212, -150.779, 121.558, 88.9754, 0, 0, 4.17185, -54.6437, 4.15686, -173.853, 4.18224, 65.9015, 0.0318417, 69.3092
0, 2100.00000, 119.599, -31.5697, 119.212, -150.779, 121.558, 88.9754, 0, 0, 4.17185, -54.6437, 4.15686, -173.853, 4.18224, 65.9015, 0.0318417, 69.3092
0, 2160.00000, 119.599, -31.5697, 119.212, -150.779, 121.558, 88.9754, 0, 0, 4.17185, -54.6437, 4.15686, -173.853, 4.18224, 65.9015, 0.0318417, 69.3092
0, 2220.00000, 119.599, -31.5697, 119.212, -150.779, 121.558, 88.9754, 0, 0, 4.17185, -54.6437, 4.15686, -173.853, 4.18224, 65.9015, 0.0318417, 69.3092
0, 2280.00000, 119.599, -31.5697, 119.212, -150.779, 121.558, 88.9754, 0, 0, 4.17185, -54.6437, 4.15686, -173.853, 4.18224, 65.9015, 0.0318417, 69.3092
0, 2340.00000, 119.599, -31.5697, 119.212, -150.779, 121.558, 88.9754, 0, 0, 4.17185, -54.6437, 4.15686, -173.853, 4.18224, 65.9015, 0.0318417, 69.3092
0, 2400.00000, 119.599, -31.5697, 119.212, -150.779, 121.558, 88.9754, 0, 0, 4.17185, -54.6437, 4.15686, -173.853, 4.18224, 65.9015, 0.0318417, 69.3092
0, 2460.00000, 119.599, -31.5697, 119.212, -150.779, 121.558, 88.9754, 0, 0, 4.17185, -54.6437, 4.15686, -173.853, 4.18224, 65.9015, 0.0318417, 69.3092
0, 2520.00000, 119.599, -31.5697, 119.212, -150.779, 121.558, 88.9754, 0, 0, 4.17185, -54.6437, 4.15686, -173.853, 4.18224, 65.9015, 0.0318417, 69.3092
0, 2580.00000, 119.599, -31.5697, 119.212, -150.779, 121.558, 88.9754, 0, 0, 4.17185, -54.6437, 4.15686, -173.853, 4.18224, 65.9015, 0.0318417, 69.3092
0, 2640.00000, 119.599, -31.5697, 119.212, -150.779, 121.558, 88.9754, 0, 0, 4.17185, -54.6437, 4.15686, -173.853, 4.18224, 65.9015, 0.0318417, 69.3092
0, 2700.00000, 119.599, -31.5697, 119.212, -150.779, 121.558, 88.9754, 0, 0, 4.17185, -54.6437, 4.15686, -173.853, 4.18224, 65.9015, 0.0318417, 69.3092
0, 2760.00000, 119.599, -31.5697, 119.212, -150.779, 121.558, 88.9754, 0, 0, 4.17185, -54.6437, 4.15686, -173.853, 4.18224, 65.9015, 0.0318417, 69.3092
0, 2820.00000, 119.599, -31.5697, 119.212, -150.779, 121.558, 88.9754, 0, 0, 4.17185, -54.6437, 4.15686, -173.853, 4.18224, 65.9015, 0.0318417, 69.3092
0, 2880.00000, 119.599, -31.5697, 119.212, -150.779, 121.558, 88.9754, 0, 0, 4.17185, -54.6437, 4.15686, -173.853, 4.18224, 65.9015, 0.0318417, 69.3092
0, 2940.00000, 119.599, -31.5697, 119.212, -150.779, 121.558, 88.9754, 0, 0, 4.17185, -54.6437, 4.15686, -173.853, 4.18224, 65.9015, 0.0318417, 69.3092
0, 3000.00000, 119.599, -31.5697, 119.212, -150.779, 121.558, 88.9754, 0, 0, 4.17185, -54.6437, 4.15686, -173.853, 4.18224, 65.9015, 0.0318417, 69.3092
0, 3060.00000, 119.599, -31.5697, 119.212, -150.779, 121.558, 88.9754, 0, 0, 4.17185, -54.6437, 4.15686, -173.853, 4.18224, 65.9015, 0.0318417, 69.3092
0, 3120.00000, 119.599, -31.5697, 119.212, -150.779, 121.558, 88.9754, 0, 0, 4.17185, -54.6437, 4.15686, -173.853, 4.18224, 65.9015, 0.0318417, 69.3092
0, 3180.00000, 119.599, -31.5697, 119.212, -150.779, 121.558, 88.9754, 0, 0, 4.17185, -54.6437, 4.15686, -173.853, 4.18224, 65.9015, 0.0318417, 69.3092
0, 3240.00000, 119.599, -31.5697, 119.212, -150.779, 121.558, 88.9754, 0, 0, 4.17185, -54.6437, 4.15686, -173.853, 4.18224, 65.9015, 0.0318417, 69.3092
0, 3300.00000, 119.599, -31.5697, 119.212, -150.779, 121.558, 88.9754, 0, 0, 4.17185, -54.6437, 4.15686, -173.853, 4.18224, 65.9015, 0.0318417, 69.3092
0, 3360.00000, 119.599, -31.5697, 119.212, -150.779, 121.558, 88.9754, 0, 0, 4.17185, -54.6437, 4.15686, -173.853, 4.18224, 65.9015, 0.0318417, 69.3092
0, 3420.00000, 119.599, -31.5697, 119.212, -150.779, 121.558, 88.9754, 0, 0, 4.17185, -54.6437, 4.15686, -173.853, 4.18224, 65.9015, 0.0318417, 69.3092
0, 3480.00000, 119.599, -31.5697, 119.212, -150.779, 121.558, 88.9754, 0, 0, 4.17185, -54.6437, 4.15686, -173.853, 4.18224, 65.9015, 0.0318417, 69.3092
0, 3540.00000, 119.599, -31.5697, 119.212, -150.779, 121.558, 88.9754, 0, 0, 4.17185, -54.6437, 4.15686, -173.853, 4.18224, 65.9015, 0.0318417, 69.3092
1, 0.00000, 119.599, -31.5697, 119.212, -150.779, 121.558, 88.9754, 0, 0, 4.17185, -54.6437, 4.15686, -173.853, 4.18224, 65.9015, 0.0318417, 69.3092
1, 60.00000, 119.806, -31.4074, 119.626, -150.777, 121.536, 88.9793, 0, 0, 4.17983, -54.4813, 4.17283, -173.851, 4.18297, 65.9053, 0.0330836, 67.2366
1, 120.00000, 119.806, -31.4074, 119.627, -150.777, 121.536, 88.9792, 0, 0, 4.17987, -54.4813, 4.1729, -173.851, 4.183, 65.9053, 0.0331303, 67.2031
1, 180.00000, 119.806, -31.4074, 119.627, -150.777, 121.536, 88.9792, 0, 0, 4.17987, -54.4813, 4.1729, -173.851, 4.183, 65.9053, 0.0331304, 67.2032
1, 240.00000, 119.806, -31.4074, 119.627, -150.777, 121.536, 88.9792, 0, 0, 4.17987, -54.4813, 4.1729, -173.851, 4.183, 65.9053, 0.0331304, 67.2032
1, 300.00000, 119.806, -31.4074, 119.627, -150.777, 121.536, 88.9792, 0, 0, 4.17987, -54.4813, 4.1729, -173.851, 4.183, 65.9053, 0.0331304, 67.2032
1, 360.00000, 119.806, -31.4074, 119.627, -150.777, 121.536, 88.9792, 0, 0, 4.17987, -54.4813, 4.1729, -173.851, 4.183, 65.9053, 0.0331304, 67.2032
1, 420.00000, 119.806, -31.4074, 119.627, -150.777, 121.536, 88.9792, 0, 0, 4.17987, -54.4813, 4.1729, -173.851, 4.183, 65.9053, 0.0331304, 67.2032
1, 480.00000, 119.806, -31.4074, 119.627, -150.777, 121.536, 88.9792, 0, 0, 4.17987, -54.4813, 4.1729, -173.851, 4.183, 65.9053, 0.0331304, 67.2032
1, 540.00000, 119.806, -31.4074, 119.627, -150.777, 121.536, 88.9792, 0, 0, 4.17987, -54.4813, 4.1729, -173.851, 4.183, 65.9053, 0.0331304, 67.2032
1, 600.00000, 119.806, -31.4074, 119.627, -150.777, 121.536, 88.9792, 0, 0, 4.17987, -54.4813, 4.1729, -173.851, 4.183, 65.9053, 0.0331304, 67.2032
1, 660.00000, 119.806, -31.4074, 119.627, -150.777, 121.536, 88.9792, 0, 0, 4.17987, -54.4813, 4.1729, -173.851, 4.183, 65.9053, 0.0331304, 67.2032
1, 720.00000, 119.806, -31.4074, 119.627, -150.777, 121.536, 88.9792, 0, 0, 4.17987, -54.4813, 4.1729, -173.851, 4.183, 65.9053, 0.0331304, 67.2032
1, 780.00000, 119.806, -31.4074, 119.627, -150.777, 121.536, 88.9792, 0, 0, 4.17987, -54.4813, 4.1729, -173.851, 4.183, 65.9053, 0.0331304, 67.2032
1, 840.00000, 119.806, -31.4074, 119.627, -150.777, 121.536, 88.9792, 0, 0, 4.17987, -54.4813, 4.1729, -173.851, 4.183, 65.9053, 0.0331304, 67.2032
1, 900.00000, 119.806, -31.4074, 119.627, -150.777, 121.536, 88.9792, 0, 0, 4.17987, -54.4813, 4.1729, -173.851, 4.183, 65.9053, 0.0331304, 67.2032
1, 960.00000, 119.806, -31.4074, 119.627, -150.777, 121.536, 88.9792, 0, 0, 4.17987, -54.4813, 4.1729, -173.851, 4.183, 65.9053, 0.0331304, 67.2032
1, 1020.00000, 119.806, -31.4074, 119.627, -150.777, 121.536, 88.9792, 0, 0, 4.17987, -54.4813, 4.1729, -173.851, 4.183, 65.9053, 0.0331304, 67.2032
1, 1080.00000, 119.806, -31.4074, 119.627, -150.777, 121.536, 88.9792, 0, 0, 4.17987, -54.4813, 4.1729, -173.851, 4.183, 65.9053, 0.0331304, 67.2032
1, 1140.00000, 119.806, -31.4074, 119.627, -150.777, 121.536, 88.9792, 0, 0, 4.17987, -54.4813, 4.1729, -173.851, 4.183, 65.9053, 0.0331304, 67.2032
1, 1200.00000, 119.806, -31.4074, 119.627, -150.777, 121.536, 88.9792, 0, 0, 4.17987, -54.4813, 4.1729, -173.851, 4.183, 65.9053, 0.0331304, 67.2032
1, 1260.00000, 119.806, -31.4074, 119.627, -150.777, 121.536, 88.9792, 0, 0, 4.17987, -54.4813, 4.1729, -173.851, 4.183, 65.9053, 0.0331304, 67.2032
1, 1320.00000, 119.806, -31.4074, 119.627, -150.777, 121.536, 88.9792, 0, 0, 4.17987, -54.4813, 4.1729, -173.851, 4.183, 65.9053, 0.0331304, 67.2032
1, 1380.00000, 119.806, -31.4074, 119.627, -150.777, 121.536, 88.9792, 0, 0, 4.17987, -54.4813, 4.1729, -173.851, 4.183, 65.9053, 0.0331304, 67.2032
1, 1440.00000, 119.806, -31.4074, 119.627, -150.777, 121.536, 88.9792, 0, 0, 4.17987, -54.4813, 4.1729, -173.851, 4.183, 65.9053, 0.0331304, 67.2032
1, 1500.00000, 119.806, -31.4074, 119.627, -150.777, 121.536, 88.9792, 0, 0, 4.17987, -54.4813, 4.1729, -173.851, 4.183, 65.9053, 0.0331304, 67.2032
1, 1560.00000, 119.806, -31.4074, 119.627, -150.777, 121.536, 88.9792, 0, 0, 4.17987, -54.4813, 4.1729, -173.851, 4.183, 65.9053, 0.0331304, 67.2032
1, 1620.00000, 119.806, -31.4074, 119.627, -150.777, 121.536, 88.9792, 0, 0, 4.17987, -54.4813, 4.1729, -173.851, 4.183, 65.9053, 0.0331304, 67.2032
1, 1680.00000, 119.806, -31.4074, 119.627, -150.777, 121.536, 88.9792, 0, 0, 4.17987, -54.4813, 4.1729, -173.851, 4.183, 65.9053, 0.0331304, 67.2032
1, 1740.00000, 119.806, -31.4074, 119.627, -150.777, 121.536, 88.9792, 0, 0, 4.17987, -54.4813, 4.1729, -173.851, 4.183, 65.9053, 0.0331304, 67.2032
1, 1800.00000, 119.806, -31.4074, 119.627, -150.777, 121.536, 88.9792, 0, 0, 4.17987, -54.4813, 4.1729, -173.851, 4.183, 65.9053, 0.0331304, 67.2032
1, 1860.00000, 119.806, -31.4074, 119.627, -150.777, 121.536, 88.9792, 0, 0, 4.17987, -54.4813, 4.1729, -173.851, 4.183, 65.9053, 0.0331304, 67.2032
1, 1920.00000, 119.806, -31.4074, 119.627, -150.777, 121.536, 88.9792, 0, 0, 4.17987, -54.4813, 4.1729, -173.851, 4.183, 65.9053, 0.0331304, 67.2032
1, 1980.00000, 119.806, -31.4074, 119.627, -150.777, 121.536, 88.9792, 0, 0, 4.17987, -54.4813, 4.1729, -173.851, 4.183, 65.9053, 0.0331304, 67.2032
1, 2040.00000, 119.806, -31.4074, 119.627, -150.777, 121.536, 88.9792, 0, 0, 4.17987, -54.4813, 4.1729, -173.851, 4.183, 65.9053, 0.0331304, 67.2032
1, 2100.00000, 119.806, -31.4074, 119.627, -150.777, 121.536, 88.9792, 0, 0, 4.17987, -54.4813, 4.1729, -173.851, 4.183, 65.9053, 0.0331304, 67.2032
1, 2160.00000, 119.806, -31.4074, 119.627, -150.777, 121.536, 88.9792, 0, 0, 4.17987, -54.4813, 4.1729, -173.851, 4.183, 65.9053, 0.0331304, 67.2032
1, 2220.00000, 119.806, -31.4074, 119.627, -150.777, 121.536, 88.9792, 0, 0, 4.17987, -54.4813, 4.1729, -173.851, 4.183, 65.9053, 0.0331304, 67.2032
1, 2280.00000, 119.806, -31.4074, 119.627, -150.777, 121.536, 88.9792, 0, 0, 4.17987, -54.4813, 4.1729, -173.851, 4.183, 65.9053, 0.0331304, 67.2032
1, 2340.00000, 119.806, -31.4074, 119.627, -150.777, 121.536, 88.9792, 0, 0, 4.17987, -54.4813, 4.1729, -173.851, 4.183, 65.9053, 0.0331304, 67.2032
1, 2400.00000, 119.806, -31.4074, 119.627, -150.777, 121.536, 88.9792, 0, 0, 4.17987, -54.4813, 4.1729, -173.851, 4.183, 65.9053, 0.0331304, 67.2032
1, 2460.00000, 119.806, -31.4074, 119.627, -150.777, 121.536, 88.9792, 0, 0, 4.17987, -54.4813, 4.1729, -173.851, 4.183, 65.9053, 0.0331304, 67.2032
1, 2520.00000, 119.806, -31.4074, 119.627, -150.777, 121.536, 88.9792, 0, 0, 4.17987, -54.4813, 4.1729, -173.851, 4.183, 65.9053, 0.0331304, 67.2032
1, 2580.00000, 119.806, -31.4074, 119.627, -150.777, 121.536, 88.9792, 0, 0, 4.17987, -54.4813, 4.1729, -173.851, 4.183, 65.9053, 0.0331304, 67.2032
1, 2640.00000, 119.806, -31.4074, 119.627, -150.777, 121.536, 88.9792, 0, 0, 4.17987, -54.4813, 4.1729, -173.851, 4.183, 65.9053, 0.0331304, 67.2032
1, 2700.00000, 119.806, -31.4074, 119.627, -150.777, 121.536, 88.9792, 0, 0, 4.17987, -54.4813, 4.1729, -173.851, 4.183, 65.9053, 0.0331304, 67.2032
1, 2760.00000, 119.806, -31.4074, 119.627, -150.777, 121.536, 88.9792, 0, 0, 4.17987, -54.4813, 4.1729, -173.851, 4.183, 65.9053, 0.0331304, 67.2032
1, 2820.00000, 119.806, -31.4074, 119.627, -150.777, 121.536, 88.9792, 0, 0, 4.17987, -54.4813, 4.1729, -173.851, 4.183, 65.9053, 0.0331304, 67.2032
1, 2880.00000, 119.806, -31.4074, 119.627, -150.777, 121.536, 88.9792, 0, 0, 4.17987, -54.4813, 4.1729, -173.851, 4.183, 65.9053, 0.0331304, 67.2032
1, 2940.00000, 119.806, -31.4074, 119.627, -150.777, 121.536, 88.9792, 0, 0, 4.17987, -54.4813, 4.1729, -173.851, 4.183, 65.9053, 0.0331304, 67.2032
1, 3000.00000, 119.806, -31.4074, 119.627, -150.777, 121.536, 88.9792, 0, 0, 4.17987, -54.4813, 4.1729, -173.851, 4.183, 65.9053, 0.0331304, 67.2032
1, 3060.00000, 119.806, -31.4074, 119.627, -150.777, 121.536, 88.9792, 0, 0, 4.17987, -54.4813, 4.1729, -173.851, 4.183, 65.9053, 0.0331304, 67.2032
1, 3120.00000, 119.806, -31.4074, 119.627, -150.777, 121.536, 88.9792, 0, 0, 4.17987, -54.4813, 4.1729, -173.851, 4.183, 65.9053, 0.0331304, 67.2032
1, 3180.00000, 119.806, -31.4074, 119.627, -150.777, 121.536, 88.9792, 0, 0, 4.17987, -54.4813, 4.1729, -173.851, 4.183, 65.9053, 0.0331304, 67.2032
1, 3240.00000, 119.806, -31.4074, 119.627, -150.777, 121.536, 88.9792, 0, 0, 4.17987, -54.4813, 4.1729, -173.851, 4.183, 65.9053, 0.0331304, 67.2032
1, 3300.00000, 119.806, -31.4074, 119.627, -150.777, 121.536, 88.9792, 0, 0, 4.17987, -54.4813, 4.1729, -173.851, 4.183, 65.9053, 0.0331304, 67.2032
1, 3360.00000, 119.806, -31.4074, 119.627, -150.777, 121.536, 88.9792, 0, 0, 4.17987, -54.4813, 4.1729, -173.851, 4.183, 65.9053, 0.0331304, 67.2032
1, 3420.00000, 119.806, -31.4074, 119.627, -150.777, 121.536, 88.9792, 0, 0, 4.17987, -54.4813, 4.1729, -173.851, 4.183, 65.9053, 0.0331304, 67.2032
1, 3480.00000, 119.806, -31.4074, 119.627, -150.777, 121.536, 88.9792, 0, 0, 4.17987, -54.4813, 4.1729, -173.851, 4.183, 65.9053, 0.0331304, 67.2032
1, 3540.00000, 119.806, -31.4074, 119.627, -150.777, 121.536, 88.9792, 0, 0, 4.17987, -54.4813, 4.1729, -173.851, 4.183, 65.9053, 0.0331304, 67.2032
2, 0.00000, 119.806, -31.4074, 119.627, -150.777, 121.536, 88.9792, 0, 0, 4.17987, -54.4813, 4.1729, -173.851, 4.183, 65.9053, 0.0331304, 67.2032
2, 60.00000, 119.806, -31.4074, 119.627, -150.777, 121.536, 88.9792, 0, 0, 4.17987, -54.4813, 4.1729, -173.851, 4.183, 65.9053, 0.0331304, 67.2032
2, 120.00000, 119.806, -31.4074, 119.627, -150.777, 121.536, 88.9792, 0, 0, 4.17987, -54.4813, 4.1729, -173.851, 4.183, 65.9053, 0.0331304, 67.2032
2, 180.00000, 119.806, -31.4074, 119.627, -150.777, 121.536, 88.9792, 0, 0, 4.17987, -54.4813, 4.1729, -173.851, 4.183, 65.9053, 0.0331304, 67.2032
2, 240.00000, 119.806, -31.4074, 119.627, -150.777, 121.536, 88.9792, 0, 0, 4.17987, -54.4813, 4.1729, -173.851, 4.183, 65.9053, 0.0331304, 67.2032
2, 300.00000, 119.806, -31.4074, 119.627, -150.777, 121.536, 88.9792, 0, 0, 4.17987, -54.4813, 4.1729, -173.851, 4.183, 65.9053, 0.0331304, 67.2032
2, 360.00000, 119.806, -31.4074, 119.627, -150.777, 121.536, 88.9792, 0, 0, 4.17987, -54.4813, 4.1729, -173.851, 4.183, 65.9053, 0.0331304, 67.2032
2, 420.00000, 119.806, -31.4074, 119.627, -150.777, 121.536, 88.9792, 0, 0, 4.17987, -54.4813, 4.1729, -173.851, 4.183, 65.9053, 0.0331304, 67.2032
2, 480.00000, 119.806, -31.4074, 119.627, -150.777, 121.536, 88.9792, 0, 0, 4.17987, -54.4813, 4.1729, -173.851, 4.183, 65.9053, 0.0331304, 67.2032
2, 540.00000, 119.806, -31.4074, 119.627, -150.777, 121.536, 88.9792, 0, 0, 4.17987, -54.4813, 4.1729, -173.851, 4.183, 65.9053, 0.0331304, 67.2032
2, 600.00000, 119.806, -31.4074, 119.627, -150.777, 121.536, 88.9792, 0, 0, 4.17987, -54.4813, 4.1729, -173.851, 4.183, 65.9053, 0.0331304, 67.2032
2, 660.00000, 119.806, -31.4074, 119.627, -150.777, 121.536, 88.9792, 0, 0, 4.17987, -54.4813, 4.1729, -173.851, 4.183, 65.9053, 0.0331304, 67.2032
2, 720.00000, 119.806, -31.4074, 119.627, -150.777, 121.536, 88.9792, 0, 0, 4.17987, -54.4813, 4.1729, -173.851, 4.183, 65.9053, 0.0331304, 67.2032
