hour,t(sec),V1,VAngle1,V2,VAngle2,V3,VAngle3,V4,VAngle4,I1,IAngle1,I2,IAngle2,I3,IAngle3,I4,IAngle4
0, 60.00000, 119.69, -31.0121, 120.384, -150.876, 120.602, 88.9071, 0, 0, 8.29988, -54.0855, 8.35333, -173.95, 8.37032, 65.8337, 0.036294, -71.3764
0, 120.00000, 119.69, -31.0121, 120.384, -150.876, 120.601, 88.9071, 0, 0, 8.29983, -54.086, 8.35322, -173.95, 8.36994, 65.8332, 0.0359321, -71.0668
0, 180.00000, 119.69, -31.0121, 120.384, -150.876, 120.601, 88.9071, 0, 0, 8.29983, -54.086, 8.35322, -173.95, 8.36994, 65.8332, 0.0359315, -71.0659
0, 240.00000, 119.69, -31.0121, 120.384, -150.876, 120.601, 88.9071, 0, 0, 8.29983, -54.086, 8.35322, -173.95, 8.36994, 65.8332, 0.0359315, -71.0659
0, 300.00000, 119.69, -31.0121, 120.384, -150.876, 120.601, 88.9071, 0, 0, 8.29983, -54.086, 8.35322, -173.95, 8.36994, 65.8332, 0.0359315, -71.0659
0, 360.00000, 119.69, -31.0121, 120.384, -150.876, 120.601, 88.9071, 0, 0, 8.29983, -54.086, 8.35322, -173.95, 8.36994, 65.8332, 0.0359315, -71.0659
0, 420.00000, 119.69, -31.0121, 120.384, -150.876, 120.601, 88.9071, 0, 0, 8.29983, -54.086, 8.35322, -173.95, 8.36994, 65.8332, 0.0359315, -71.0659
0, 480.00000, 119.69, -31.0121, 120.384, -150.876, 120.601, 88.9071, 0, 0, 8.29983, -54.086, 8.35322, -173.95, 8.36994, 65.8332, 0.0359315, -71.0659
0, 540.00000, 119.69, -31.0121, 120.384, -150.876, 120.601, 88.9071, 0, 0, 8.29983, -54.086, 8.35322, -173.95, 8.36994, 65.8332, 0.0359315, -71.0659
0, 600.00000, 119.69, -31.0121, 120.384, -150.876, 120.601, 88.9071, 0, 0, 8.29983, -54.086, 8.35322, -173.95, 8.36994, 65.8332, 0.0359315, -71.0659
0, 660.00000, 119.69, -31.0121, 120.384, -150.876, 120.601, 88.9071, 0, 0, 8.29983, -54.086, 8.35322, -173.95, 8.36994, 65.8332, 0.0359315, -71.0659
0, 720.00000, 119.69, -31.0121, 120.384, -150.876, 120.601, 88.9071, 0, 0, 8.29983, -54.086, 8.35322, -173.95, 8.36994, 65.8332, 0.0359315, -71.0659
0, 780.00000, 119.69, -31.0121, 120.384, -150.876, 120.601, 88.9071, 0, 0, 8.29983, -54.086, 8.35322, -173.95, 8.36994, 65.8332, 0.0359315, -71.0659
0, 840.00000, 119.69, -31.0121, 120.384, -150.876, 120.601, 88.9071, 0, 0, 8.29983, -54.086, 8.35322, -173.95, 8.36994, 65.8332, 0.0359315, -71.0659
0, 900.00000, 119.69, -31.0121, 120.384, -150.876, 120.601, 88.9071, 0, 0, 8.29983, -54.086, 8.35322, -173.95, 8.36994, 65.8332, 0.0359315, -71.0659
0, 960.00000, 119.276, -31.1853, 119.771, -150.907, 120.391, 88.8783, 0, 0, 8.09136, -54.2589, 8.1287, -173.981, 8.1753, 65.8045, 0.0378743, -79.5384
0, 1020.00000, 119.276, -31.1853, 119.771, -150.907, 120.391, 88.8783, 0, 0, 8.09132, -54.2592, 8.1286, -173.981, 8.17529, 65.8044, 0.0378695, -79.5994
0, 1080.00000, 119.276, -31.1853, 119.771, -150.907, 120.391, 88.8783, 0, 0, 8.09132, -54.2592, 8.1286, -173.981, 8.17529, 65.8044, 0.0378696, -79.5996
0, 1140.00000, 119.276, -31.1853, 119.771, -150.907, 120.391, 88.8783, 0, 0, 8.09132, -54.2592, 8.1286, -173.981, 8.17529, 65.8044, 0.0378696, -79.5996
0, 1200.00000, 119.276, -31.1853, 119.771, -150.907, 120.391, 88.8783, 0, 0, 8.09132, -54.2592, 8.1286, -173.981, 8.17529, 65.8044, 0.0378696, -79.5996
0, 1260.00000, 119.276, -31.1853, 119.771, -150.907, 120.391, 88.8783, 0, 0, 8.09132, -54.2592, 8.1286, -173.981, 8.17529, 65.8044, 0.0378696, -79.5996
0, 1320.00000, 119.276, -31.1853, 119.771, -150.907, 120.391, 88.8783, 0, 0, 8.09132, -54.2592, 8.1286, -173.981, 8.17529, 65.8044, 0.0378696, -79.5996
0, 1380.00000, 119.276, -31.1853, 119.771, -150.907, 120.391, 88.8783, 0, 0, 8.09132, -54.2592, 8.1286, -173.981, 8.17529, 65.8044, 0.0378696, -79.5996
0, 1440.00000, 119.276, -31.1853, 119.771, -150.907, 120.391, 88.8783, 0, 0, 8.09132, -54.2592, 8.1286, -173.981, 8.17529, 65.8044, 0.0378696, -79.5996
0, 1500.00000, 119.276, -31.1853, 119.771, -150.907, 120.391, 88.8783, 0, 0, 8.09132, -54.2592, 8.1286, -173.981, 8.17529, 65.8044, 0.0378696, -79.5996
0, 1560.00000, 119.276, -31.1853, 119.771, -150.907, 120.391, 88.8783, 0, 0, 8.09132, -54.2592, 8.1286, -173.981, 8.17529, 65.8044, 0.0378696, -79.5996
0, 1620.00000, 119.276, -31.1853, 119.771, -150.907, 120.391, 88.8783, 0, 0, 8.09132, -54.2592, 8.1286, -173.981, 8.17529, 65.8044, 0.0378696, -79.5996
0, 1680.00000, 119.276, -31.1853, 119.771, -150.907, 120.391, 88.8783, 0, 0, 8.09132, -54.2592, 8.1286, -173.981, 8.17529, 65.8044, 0.0378696, -79.5996
0, 1740.00000, 119.276, -31.1853, 119.771, -150.907, 120.391, 88.8783, 0, 0, 8.09132, -54.2592, 8.1286, -173.981, 8.17529, 65.8044, 0.0378696, -79.5996
0, 1800.00000, 119.276, -31.1853, 119.771, -150.907, 120.391, 88.8783, 0, 0, 8.09132, -54.2592, 8.1286, -173.981, 8.17529, 65.8044, 0.0378696, -79.5996
0, 1860.00000, 119.435, -31.1694, 119.924, -150.892, 120.543, 88.8976, 0, 0, 7.66182, -54.2435, 7.69637, -173.966, 7.74037, 65.8222, 0.0352858, -79.5584
0, 1920.00000, 119.435, -31.1693, 119.924, -150.892, 120.544, 88.8977, 0, 0, 7.66186, -54.2432, 7.69667, -173.966, 7.74081, 65.8238, 0.0357436, -79.2925
0, 1980.00000, 119.435, -31.1693, 119.924, -150.892, 120.544, 88.8977, 0, 0, 7.66186, -54.2432, 7.69667, -173.966, 7.74081, 65.8238, 0.0357453, -79.293
0, 2040.00000, 119.435, -31.1693, 119.924, -150.892, 120.544, 88.8977, 0, 0, 7.66186, -54.2432, 7.69667, -173.966, 7.74081, 65.8238, 0.0357453, -79.293
0, 2100.00000, 119.435, -31.1693, 119.924, -150.892, 120.544, 88.8977, 0, 0, 7.66186, -54.2432, 7.69667, -173.966, 7.74081, 65.8238, 0.0357453, -79.293
0, 2160.00000, 119.435, -31.1693, 119.924, -150.892, 120.544, 88.8977, 0, 0, 7.66186, -54.2432, 7.69667, -173.966, 7.74081, 65.8238, 0.0357453, -79.293
0, 2220.00000, 119.435, -31.1693, 119.924, -150.892, 120.544, 88.8977, 0, 0, 7.66186, -54.2432, 7.69667, -173.966, 7.74081, 65.8238, 0.0357453, -79.293
0, 2280.00000, 119.435, -31.1693, 119.924, -150.892, 120.544, 88.8977, 0, 0, 7.66186, -54.2432, 7.69667, -173.966, 7.74081, 65.8238, 0.0357453, -79.293
0, 2340.00000, 119.435, -31.1693, 119.924, -150.892, 120.544, 88.8977, 0, 0, 7.66186, -54.2432, 7.69667, -173.966, 7.74081, 65.8238, 0.0357453, -79.293
0, 2400.00000, 119.435, -31.1693, 119.924, -150.892, 120.544, 88.8977, 0, 0, 7.66186, -54.2432, 7.69667, -173.966, 7.74081, 65.8238, 0.0357453, -79.293
0, 2460.00000, 119.435, -31.1693, 119.924, -150.892, 120.544, 88.8977, 0, 0, 7.66186, -54.2432, 7.69667, -173.966, 7.74081, 65.8238, 0.0357453, -79.293
0, 2520.00000, 119.435, -31.1693, 119.924, -150.892, 120.544, 88.8977, 0, 0, 7.66186, -54.2432, 7.69667, -173.966, 7.74081, 65.8238, 0.0357453, -79.293
0, 2580.00000, 119.435, -31.1693, 119.924, -150.892, 120.544, 88.8977, 0, 0, 7.66186, -54.2432, 7.69667, -173.966, 7.74081, 65.8238, 0.0357453, -79.293
0, 2640.00000, 119.435, -31.1693, 119.924, -150.892, 120.544, 88.8977, 0, 0, 7.66186, -54.2432, 7.69667, -173.966, 7.74081, 65.8238, 0.0357453, -79.293
0, 2700.00000, 119.435, -31.1693, 119.924, -150.892, 120.544, 88.8977, 0, 0, 7.66186, -54.2432, 7.69667, -173.966, 7.74081, 65.8238, 0.0357453, -79.293
0, 2760.00000, 119.769, -31.1363, 120.244, -150.866, 120.886, 88.9345, 0, 0, 7.52299, -54.2105, 7.55604, -173.939, 7.57191, 65.8603, 0.0200896, -28.4205
0, 2820.00000, 119.769, -31.1362, 120.244, -150.866, 120.886, 88.9345, 0, 0, 7.52296, -54.2101, 7.55607, -173.94, 7.57167, 65.8606, 0.0201658, -27.9551
0, 2880.00000, 119.769, -31.1362, 120.244, -150.866, 120.886, 88.9345, 0, 0, 7.52296, -54.2101, 7.55607, -173.94, 7.57166, 65.8606, 0.0201668, -27.9504
0, 2940.00000, 119.769, -31.1362, 120.244, -150.866, 120.886, 88.9345, 0, 0, 7.52296, -54.2101, 7.55607, -173.94, 7.57166, 65.8606, 0.0201668, -27.9503
0, 3000.00000, 119.769, -31.1362, 120.244, -150.866, 120.886, 88.9345, 0, 0, 7.52296, -54.2101, 7.55607, -173.94, 7.57166, 65.8606, 0.0201668, -27.9503
0, 3060.00000, 119.769, -31.1362, 120.244, -150.866, 120.886, 88.9345, 0, 0, 7.52296, -54.2101, 7.55607, -173.94, 7.57166, 65.8606, 0.0201668, -27.9503
0, 3120.00000, 119.769, -31.1362, 120.244, -150.866, 120.886, 88.9345, 0, 0, 7.52296, -54.2101, 7.55607, -173.94, 7.57166, 65.8606, 0.0201668, -27.9503
0, 3180.00000, 119.769, -31.1362, 120.244, -150.866, 120.886, 88.9345, 0, 0, 7.52296, -54.2101, 7.55607, -173.94, 7.57166, 65.8606, 0.0201668, -27.9503
0, 3240.00000, 119.769, -31.1362, 120.244, -150.866, 120.886, 88.9345, 0, 0, 7.52296, -54.2101, 7.55607, -173.94, 7.57166, 65.8606, 0.0201668, -27.9503
0, 3300.00000, 119.769, -31.1362, 120.244, -150.866, 120.886, 88.9345, 0, 0, 7.52296, -54.2101, 7.55607, -173.94, 7.57166, 65.8606, 0.0201668, -27.9503
0, 3360.00000, 119.769, -31.1362, 120.244, -150.866, 120.886, 88.9345, 0, 0, 7.52296, -54.2101, 7.55607, -173.94, 7.57166, 65.8606, 0.0201668, -27.9503
0, 3420.00000, 119.769, -31.1362, 120.244, -150.866, 120.886, 88.9345, 0, 0, 7.52296, -54.2101, 7.55607, -173.94, 7.57166, 65.8606, 0.0201668, -27.9503
0, 3480.00000, 119.769, -31.1362, 120.244, -150.866, 120.886, 88.9345, 0, 0, 7.52296, -54.2101, 7.55607, -173.94, 7.57166, 65.8606, 0.0201668, -27.9503
0, 3540.00000, 119.769, -31.1362, 120.244, -150.866, 120.886, 88.9345, 0, 0, 7.52296, -54.2101, 7.55607, -173.94, 7.57166, 65.8606, 0.0201668, -27.9503
1, 0.00000, 119.769, -31.1362, 120.244, -150.866, 120.886, 88.9345, 0, 0, 7.52296, -54.2101, 7.55607, -173.94, 7.57166, 65.8606, 0.0201668, -27.9503
1, 60.00000, 120.027, -31.1126, 120.489, -150.849, 121.154, 88.9603, 0, 0, 6.92209, -54.1869, 6.95161, -173.923, 6.93511, 65.8861, 0.0346815, 33.9219
1, 120.00000, 120.027, -31.1126, 120.489, -150.849, 121.154, 88.9604, 0, 0, 6.92207, -54.1865, 6.95162, -173.923, 6.93489, 65.8865, 0.0348258, 33.9421
1, 180.00000, 120.027, -31.1126, 120.489, -150.849, 121.154, 88.9604, 0, 0, 6.92207, -54.1865, 6.95161, -173.923, 6.93488, 65.8865, 0.0348278, 33.9418
1, 240.00000, 120.027, -31.1126, 120.489, -150.849, 121.154, 88.9604, 0, 0, 6.92207, -54.1865, 6.95161, -173.923, 6.93488, 65.8865, 0.0348278, 33.9418
1, 300.00000, 120.027, -31.1126, 120.489, -150.849, 121.154, 88.9604, 0, 0, 6.92207, -54.1865, 6.95161, -173.923, 6.93488, 65.8865, 0.0348278, 33.9418
1, 360.00000, 120.027, -31.1126, 120.489, -150.849, 121.154, 88.9604, 0, 0, 6.92207, -54.1865, 6.95161, -173.923, 6.93488, 65.8865, 0.0348278, 33.9418
1, 420.00000, 120.027, -31.1126, 120.489, -150.849, 121.154, 88.9604, 0, 0, 6.92207, -54.1865, 6.95161, -173.923, 6.93488, 65.8865, 0.0348278, 33.9418
1, 480.00000, 120.027, -31.1126, 120.489, -150.849, 121.154, 88.9604, 0, 0, 6.92207, -54.1865, 6.95161, -173.923, 6.93488, 65.8865, 0.0348278, 33.9418
1, 540.00000, 120.027, -31.1126, 120.489, -150.849, 121.154, 88.9604, 0, 0, 6.92207, -54.1865, 6.95161, -173.923, 6.93488, 65.8865, 0.0348278, 33.9418
1, 600.00000, 120.027, -31.1126, 120.489, -150.849, 121.154, 88.9604, 0, 0, 6.92207, -54.1865, 6.95161, -173.923, 6.93488, 65.8865, 0.0348278, 33.9418
1, 660.00000, 120.027, -31.1126, 120.489, -150.849, 121.154, 88.9604, 0, 0, 6.92207, -54.1865, 6.95161, -173.923, 6.93488, 65.8865, 0.0348278, 33.9418
1, 720.00000, 120.027, -31.1126, 120.489, -150.849, 121.154, 88.9604, 0, 0, 6.92207, -54.1865, 6.95161, -173.923, 6.93488, 65.8865, 0.0348278, 33.9418
1, 780.00000, 120.027, -31.1126, 120.489, -150.849, 121.154, 88.9604, 0, 0, 6.92207, -54.1865, 6.95161, -173.923, 6.93488, 65.8865, 0.0348278, 33.9418
1, 840.00000, 120.027, -31.1126, 120.489, -150.849, 121.154, 88.9604, 0, 0, 6.92207, -54.1865, 6.95161, -173.923, 6.93488, 65.8865, 0.0348278, 33.9418
1, 900.00000, 120.027, -31.1126, 120.489, -150.849, 121.154, 88.9604, 0, 0, 6.92207, -54.1865, 6.95161, -173.923, 6.93488, 65.8865, 0.0348278, 33.9418
1, 960.00000, 120.051, -31.1081, 120.512, -150.846, 121.18, 88.9653, 0, 0, 6.99609, -54.1824, 7.02588, -173.919, 7.00626, 65.891, 0.0375499, 36.1846
1, 1020.00000, 120.051, -31.108, 120.512, -150.846, 121.181, 88.9654, 0, 0, 6.99613, -54.1819, 7.02593, -173.919, 7.006, 65.8915, 0.0377772, 36.2803
1, 1080.00000, 120.051, -31.108, 120.512, -150.846, 121.181, 88.9654, 0, 0, 6.99613, -54.1819, 7.02593, -173.92, 7.006, 65.8915, 0.03778, 36.2801
1, 1140.00000, 120.051, -31.108, 120.512, -150.846, 121.181, 88.9654, 0, 0, 6.99613, -54.1819, 7.02593, -173.92, 7.006, 65.8915, 0.03778, 36.28
1, 1200.00000, 120.051, -31.108, 120.512, -150.846, 121.181, 88.9654, 0, 0, 6.99613, -54.1819, 7.02593, -173.92, 7.006, 65.8915, 0.03778, 36.28
1, 1260.00000, 120.051, -31.108, 120.512, -150.846, 121.181, 88.9654, 0, 0, 6.99613, -54.1819, 7.02593, -173.92, 7.006, 65.8915, 0.03778, 36.28
1, 1320.00000, 120.051, -31.108, 120.512, -150.846, 121.181, 88.9654, 0, 0, 6.99613, -54.1819, 7.02593, -173.92, 7.006, 65.8915, 0.03778, 36.28
1, 1380.00000, 120.051, -31.108, 120.512, -150.846, 121.181, 88.9654, 0, 0, 6.99613, -54.1819, 7.02593, -173.92, 7.006, 65.8915, 0.03778, 36.28
1, 1440.00000, 120.051, -31.108, 120.512, -150.846, 121.181, 88.9654, 0, 0, 6.99613, -54.1819, 7.02593, -173.92, 7.006, 65.8915, 0.03778, 36.28
1, 1500.00000, 120.051, -31.108, 120.512, -150.846, 121.181, 88.9654, 0, 0, 6.99613, -54.1819, 7.02593, -173.92, 7.006, 65.8915, 0.03778, 36.28
1, 1560.00000, 120.051, -31.108, 120.512, -150.846, 121.181, 88.9654, 0, 0, 6.99613, -54.1819, 7.02593, -173.92, 7.006, 65.8915, 0.03778, 36.28
1, 1620.00000, 120.051, -31.108, 120.512, -150.846, 121.181, 88.9654, 0, 0, 6.99613, -54.1819, 7.02593, -173.92, 7.006, 65.8915, 0.03778, 36.28
1, 1680.00000, 120.051, -31.108, 120.512, -150.846, 121.181, 88.9654, 0, 0, 6.99613, -54.1819, 7.02593, -173.92, 7.006, 65.8915, 0.03778, 36.28
1, 1740.00000, 120.051, -31.108, 120.512, -150.846, 121.181, 88.9654, 0, 0, 6.99613, -54.1819, 7.02593, -173.92, 7.006, 65.8915, 0.03778, 36.28
1, 1800.00000, 120.051, -31.108, 120.512, -150.846, 121.181, 88.9654, 0, 0, 6.99613, -54.1819, 7.02593, -173.92, 7.006, 65.8915, 0.03778, 36.28
1, 1860.00000, 119.81, -31.1297, 120.283, -150.86, 120.929, 88.9422, 0, 0, 7.42664, -54.2033, 7.45919, -173.934, 7.46908, 65.8686, 0.0204054, -12.5932
1, 1920.00000, 119.81, -31.1297, 120.283, -150.86, 120.928, 88.9422, 0, 0, 7.42666, -54.2036, 7.45918, -173.934, 7.4693, 65.8683, 0.0203154, -12.9191
1, 1980.00000, 119.81, -31.1297, 120.283, -150.86, 120.928, 88.9422, 0, 0, 7.42666, -54.2036, 7.45918, -173.934, 7.46931, 65.8683, 0.0203142, -12.9224
1, 2040.00000, 119.81, -31.1297, 120.283, -150.86, 120.928, 88.9422, 0, 0, 7.42666, -54.2036, 7.45918, -173.934, 7.46931, 65.8683, 0.0203142, -12.9224
1, 2100.00000, 119.81, -31.1297, 120.283, -150.86, 120.928, 88.9422, 0, 0, 7.42666, -54.2036, 7.45918, -173.934, 7.46931, 65.8683, 0.0203142, -12.9224
1, 2160.00000, 119.81, -31.1297, 120.283, -150.86, 120.928, 88.9422, 0, 0, 7.42666, -54.2036, 7.45918, -173.934, 7.46931, 65.8683, 0.0203142, -12.9224
1, 2220.00000, 119.81, -31.1297, 120.283, -150.86, 120.928, 88.9422, 0, 0, 7.42666, -54.2036, 7.45918, -173.934, 7.46931, 65.8683, 0.0203142, -12.9224
1, 2280.00000, 119.81, -31.1297, 120.283, -150.86, 120.928, 88.9422, 0, 0, 7.42666, -54.2036, 7.45918, -173.934, 7.46931, 65.8683, 0.0203142, -12.9224
1, 2340.00000, 119.81, -31.1297, 120.283, -150.86, 120.928, 88.9422, 0, 0, 7.42666, -54.2036, 7.45918, -173.934, 7.46931, 65.8683, 0.0203142, -12.9224
1, 2400.00000, 119.81, -31.1297, 120.283, -150.86, 120.928, 88.9422, 0, 0, 7.42666, -54.2036, 7.45918, -173.934, 7.46931, 65.8683, 0.0203142, -12.9224
1, 2460.00000, 119.81, -31.1297, 120.283, -150.86, 120.928, 88.9422, 0, 0, 7.42666, -54.2036, 7.45918, -173.934, 7.46931, 65.8683, 0.0203142, -12.9224
1, 2520.00000, 119.81, -31.1297, 120.283, -150.86, 120.928, 88.9422, 0, 0, 7.42666, -54.2036, 7.45918, -173.934, 7.46931, 65.8683, 0.0203142, -12.9224
1, 2580.00000, 119.81, -31.1297, 120.283, -150.86, 120.928, 88.9422, 0, 0, 7.42666, -54.2036, 7.45918, -173.934, 7.46931, 65.8683, 0.0203142, -12.9224
1, 2640.00000, 119.81, -31.1297, 120.283, -150.86, 120.928, 88.9422, 0, 0, 7.42666, -54.2036, 7.45918, -173.934, 7.46931, 65.8683, 0.0203142, -12.9224
1, 2700.00000, 119.74, -31.1244, 119.279, -151.201, 119.741, 89.18, 0, 0, 7.42178, -54.1981, 7.39015, -174.275, 7.42201, 66.1066, 0.0299015, -79.4431
1, 2760.00000, 120.209, -31.0814, 119.707, -151.164, 120.176, 89.2273, 0, 0, 7.03656, -54.1555, 7.00401, -174.238, 7.03439, 66.1533, 0.0270911, -81.1732
1, 2820.00000, 120.209, -31.0814, 119.707, -151.164, 120.176, 89.2273, 0, 0, 7.03662, -54.1553, 7.00403, -174.238, 7.03444, 66.1534, 0.027098, -81.2728
1, 2880.00000, 120.209, -31.0814, 119.707, -151.164, 120.176, 89.2273, 0, 0, 7.03662, -54.1553, 7.00403, -174.238, 7.03444, 66.1534, 0.0270982, -81.2734
1, 2940.00000, 120.209, -31.0814, 119.707, -151.164, 120.176, 89.2273, 0, 0, 7.03662, -54.1553, 7.00403, -174.238, 7.03444, 66.1534, 0.0270982, -81.2734
1, 3000.00000, 120.209, -31.0814, 119.707, -151.164, 120.176, 89.2273, 0, 0, 7.03662, -54.1553, 7.00403, -174.238, 7.03444, 66.1534, 0.0270982, -81.2734
1, 3060.00000, 120.209, -31.0814, 119.707, -151.164, 120.176, 89.2273, 0, 0, 7.03662, -54.1553, 7.00403, -174.238, 7.03444, 66.1534, 0.0270982, -81.2734
1, 3120.00000, 120.209, -31.0814, 119.707, -151.164, 120.176, 89.2273, 0, 0, 7.03662, -54.1553, 7.00403, -174.238, 7.03444, 66.1534, 0.0270982, -81.2734
1, 3180.00000, 120.209, -31.0814, 119.707, -151.164, 120.176, 89.2273, 0, 0, 7.03662, -54.1553, 7.00403, -174.238, 7.03444, 66.1534, 0.0270982, -81.2734
1, 3240.00000, 120.209, -31.0814, 119.707, -151.164, 120.176, 89.2273, 0, 0, 7.03662, -54.1553, 7.00403, -174.238, 7.03444, 66.1534, 0.0270982, -81.2734
1, 3300.00000, 120.209, -31.0814, 119.707, -151.164, 120.176, 89.2273, 0, 0, 7.03662, -54.1553, 7.00403, -174.238, 7.03444, 66.1534, 0.0270982, -81.2734
1, 3360.00000, 120.209, -31.0814, 119.707, -151.164, 120.176, 89.2273, 0, 0, 7.03662, -54.1553, 7.00403, -174.238, 7.03444, 66.1534, 0.0270982, -81.2734
1, 3420.00000, 120.209, -31.0814, 119.707, -151.164, 120.176, 89.2273, 0, 0, 7.03662, -54.1553, 7.00403, -174.238, 7.03444, 66.1534, 0.0270982, -81.2734
1, 3480.00000, 120.209, -31.0814, 119.707, -151.164, 120.176, 89.2273, 0, 0, 7.03662, -54.1553, 7.00403, -174.238, 7.03444, 66.1534, 0.0270982, -81.2734
1, 3540.00000, 120.209, -31.0814, 119.707, -151.164, 120.176, 89.2273, 0, 0, 7.03662, -54.1553, 7.00403, -174.238, 7.03444, 66.1534, 0.0270982, -81.2734
2, 0.00000, 120.209, -31.0814, 119.707, -151.164, 120.176, 89.2273, 0, 0, 7.03662, -54.1553, 7.00403, -174.238, 7.03444, 66.1534, 0.0270982, -81.2734
2, 60.00000, 119.918, -31.1071, 119.441, -151.186, 119.906, 89.1989, 0, 0, 7.46795, -54.1809, 7.435, -174.26, 7.46711, 66.1251, 0.0294401, -80.1976
2, 120.00000, 119.918, -31.1071, 119.441, -151.186, 119.906, 89.1989, 0, 0, 7.46792, -54.181, 7.43499, -174.26, 7.46707, 66.125, 0.0294355, -80.134
2, 180.00000, 119.918, -31.1071, 119.441, -151.186, 119.906, 89.1989, 0, 0, 7.46792, -54.181, 7.43499, -174.26, 7.46707, 66.125, 0.0294355, -80.1336
2, 240.00000, 119.918, -31.1071, 119.441, -151.186, 119.906, 89.1989, 0, 0, 7.46792, -54.181, 7.43499, -174.26, 7.46707, 66.125, 0.0294355, -80.1336
2, 300.00000, 119.918, -31.1071, 119.441, -151.186, 119.906, 89.1989, 0, 0, 7.46792, -54.181, 7.43499, -174.26, 7.46707, 66.125, 0.0294355, -80.1336
2, 360.00000, 119.918, -31.1071, 119.441, -151.186, 119.906, 89.1989, 0, 0, 7.46792, -54.181, 7.43499, -174.26, 7.46707, 66.125, 0.0294355, -80.1336
2, 420.00000, 119.918, -31.1071, 119.441, -151.186, 119.906, 89.1989, 0, 0, 7.46792, -54.181, 7.43499, -174.26, 7.46707, 66.125, 0.0294355, -80.1336
2, 480.00000, 119.918, -31.1071, 119.441, -151.186, 119.906, 89.1989, 0, 0, 7.46792, -54.181, 7.43499, -174.26, 7.46707, 66.125, 0.0294355, -80.1336
2, 540.00000, 120.102, -30.9533, 119.822, -151.175, 119.887, 89.2028, 0, 0, 7.48055, -54.0272, 7.46123, -174.249, 7.46579, 66.1289, 0.026836, -71.9194
2, 600.00000, 120.102, -30.9533, 119.822, -151.175, 119.887, 89.2028, 0, 0, 7.4806, -54.0272, 7.46131, -174.249, 7.46575, 66.1289, 0.0267328, -71.7137
2, 660.00000, 120.102, -30.9533, 119.822, -151.175, 119.887, 89.2028, 0, 0, 7.4806, -54.0272, 7.46131, -174.249, 7.46575, 66.1289, 0.0267321, -71.7126
2, 720.00000, 120.102, -30.9533, 119.822, -151.175, 119.887, 89.2028, 0, 0, 7.4806, -54.0272, 7.46131, -174.249, 7.46575, 66.1289, 0.0267321, -71.7126
