hour,t(sec),V1,VAngle1,V2,VAngle2,V3,VAngle3,V4,VAngle4,I1,IAngle1,I2,IAngle2,I3,IAngle3,I4,IAngle4
0, 60.00000, 119.278, -31.7842, 119.055, -150.935, 121.154, 88.7927, 0, 0, 1.2013, -54.8577, 1.19881, -174.009, 1.21189, 65.7191, 0.00369103, 48.611
0, 120.00000, 119.278, -31.7842, 119.055, -150.935, 121.154, 88.7927, 0, 0, 1.2013, -54.8581, 1.1988, -174.009, 1.21191, 65.7188, 0.00366886, 48.563
0, 180.00000, 119.278, -31.7842, 119.055, -150.935, 121.154, 88.7927, 0, 0, 1.2013, -54.8581, 1.1988, -174.009, 1.21191, 65.7188, 0.00366878, 48.563
0, 240.00000, 119.278, -31.7842, 119.055, -150.935, 121.154, 88.7927, 0, 0, 1.2013, -54.8581, 1.1988, -174.009, 1.21191, 65.7188, 0.00366877, 48.563
0, 300.00000, 119.278, -31.7842, 119.055, -150.935, 121.154, 88.7927, 0, 0, 1.2013, -54.8581, 1.1988, -174.009, 1.21191, 65.7188, 0.00366877, 48.563
0, 360.00000, 119.278, -31.7842, 119.055, -150.935, 121.154, 88.7927, 0, 0, 1.2013, -54.8581, 1.1988, -174.009, 1.21191, 65.7188, 0.00366877, 48.563
0, 420.00000, 119.278, -31.7842, 119.055, -150.935, 121.154, 88.7927, 0, 0, 1.2013, -54.8581, 1.1988, -174.009, 1.21191, 65.7188, 0.00366877, 48.563
0, 480.00000, 120.152, -31.6751, 119.88, -150.838, 122.029, 88.9137, 0, 0, 1.26789, -54.7499, 1.2647, -173.911, 1.25975, 65.8391, 0.0225831, 63.1792
0, 540.00000, 120.151, -31.675, 119.88, -150.838, 122.029, 88.9138, 0, 0, 1.26789, -54.7489, 1.2647, -173.912, 1.25968, 65.8399, 0.0226296, 63.1306
0, 600.00000, 120.151, -31.675, 119.88, -150.838, 122.029, 88.9138, 0, 0, 1.26789, -54.7489, 1.2647, -173.912, 1.25968, 65.8399, 0.0226302, 63.1297
0, 660.00000, 120.151, -31.675, 119.88, -150.838, 122.029, 88.9138, 0, 0, 1.26789, -54.7489, 1.2647, -173.912, 1.25968, 65.8399, 0.0226302, 63.1297
0, 720.00000, 120.151, -31.675, 119.88, -150.838, 122.029, 88.9138, 0, 0, 1.26789, -54.7489, 1.2647, -173.912, 1.25968, 65.8399, 0.0226302, 63.1297
0, 780.00000, 120.151, -31.675, 119.88, -150.838, 122.029, 88.9138, 0, 0, 1.26789, -54.7489, 1.2647, -173.912, 1.25968, 65.8399, 0.0226302, 63.1297
0, 840.00000, 120.151, -31.675, 119.88, -150.838, 122.029, 88.9138, 0, 0, 1.26789, -54.7489, 1.2647, -173.912, 1.25968, 65.8399, 0.0226302, 63.1297
0, 900.00000, 120.151, -31.675, 119.88, -150.838, 122.029, 88.9138, 0, 0, 1.26789, -54.7489, 1.2647, -173.912, 1.25968, 65.8399, 0.0226302, 63.1297
0, 960.00000, 120.151, -31.675, 119.88, -150.838, 122.029, 88.9138, 0, 0, 1.26789, -54.7489, 1.2647, -173.912, 1.25968, 65.8399, 0.0226302, 63.1297
0, 1020.00000, 120.151, -31.675, 119.88, -150.838, 122.029, 88.9138, 0, 0, 1.26789, -54.7489, 1.2647, -173.912, 1.25968, 65.8399, 0.0226302, 63.1297
0, 1080.00000, 120.151, -31.675, 119.88, -150.838, 122.029, 88.9138, 0, 0, 1.26789, -54.7489, 1.2647, -173.912, 1.25968, 65.8399, 0.0226302, 63.1297
0, 1140.00000, 120.151, -31.675, 119.88, -150.838, 122.029, 88.9138, 0, 0, 1.26789, -54.7489, 1.2647, -173.912, 1.25968, 65.8399, 0.0226302, 63.1297
0, 1200.00000, 120.151, -31.675, 119.88, -150.838, 122.029, 88.9138, 0, 0, 1.26789, -54.7489, 1.2647, -173.912, 1.25968, 65.8399, 0.0226302, 63.1297
0, 1260.00000, 120.151, -31.675, 119.88, -150.838, 122.029, 88.9138, 0, 0, 1.26789, -54.7489, 1.2647, -173.912, 1.25968, 65.8399, 0.0226302, 63.1297
0, 1320.00000, 120.151, -31.675, 119.88, -150.838, 122.029, 88.9138, 0, 0, 1.26789, -54.7489, 1.2647, -173.912, 1.25968, 65.8399, 0.0226302, 63.1297
0, 1380.00000, 120.151, -31.675, 119.88, -150.838, 122.029, 88.9138, 0, 0, 1.26789, -54.7489, 1.2647, -173.912, 1.25968, 65.8399, 0.0226302, 63.1297
0, 1440.00000, 120.151, -31.675, 119.88, -150.838, 122.029, 88.9138, 0, 0, 1.26789, -54.7489, 1.2647, -173.912, 1.25968, 65.8399, 0.0226302, 63.1297
0, 1500.00000, 120.151, -31.675, 119.88, -150.838, 122.029, 88.9138, 0, 0, 1.26789, -54.7489, 1.2647, -173.912, 1.25968, 65.8399, 0.0226302, 63.1297
0, 1560.00000, 120.151, -31.675, 119.88, -150.838, 122.029, 88.9138, 0, 0, 1.26789, -54.7489, 1.2647, -173.912, 1.25968, 65.8399, 0.0226302, 63.1297
0, 1620.00000, 120.151, -31.675, 119.88, -150.838, 122.029, 88.9138, 0, 0, 1.26789, -54.7489, 1.2647, -173.912, 1.25968, 65.8399, 0.0226302, 63.1297
0, 1680.00000, 120.151, -31.675, 119.88, -150.838, 122.029, 88.9138, 0, 0, 1.26789, -54.7489, 1.2647, -173.912, 1.25968, 65.8399, 0.0226302, 63.1297
0, 1740.00000, 120.151, -31.675, 119.88, -150.838, 122.029, 88.9138, 0, 0, 1.26789, -54.7489, 1.2647, -173.912, 1.25968, 65.8399, 0.0226302, 63.1297
0, 1800.00000, 120.151, -31.675, 119.88, -150.838, 122.029, 88.9138, 0, 0, 1.26789, -54.7489, 1.2647, -173.912, 1.25968, 65.8399, 0.0226302, 63.1297
0, 1860.00000, 120.151, -31.675, 119.88, -150.838, 122.029, 88.9138, 0, 0, 1.26789, -54.7489, 1.2647, -173.912, 1.25968, 65.8399, 0.0226302, 63.1297
0, 1920.00000, 120.151, -31.675, 119.88, -150.838, 122.029, 88.9138, 0, 0, 1.26789, -54.7489, 1.2647, -173.912, 1.25968, 65.8399, 0.0226302, 63.1297
0, 1980.00000, 120.151, -31.675, 119.88, -150.838, 122.029, 88.9138, 0, 0, 1.26789, -54.7489, 1.2647, -173.912, 1.25968, 65.8399, 0.0226302, 63.1297
0, 2040.00000, 120.151, -31.675, 119.88, -150.838, 122.029, 88.9138, 0, 0, 1.26789, -54.7489, 1.2647, -173.912, 1.25968, 65.8399, 0.0226302, 63.1297
0, 2100.00000, 120.151, -31.675, 119.88, -150.838, 122.029, 88.9138, 0, 0, 1.26789, -54.7489, 1.2647, -173.912, 1.25968, 65.8399, 0.0226302, 63.1297
0, 2160.00000, 120.151, -31.675, 119.88, -150.838, 122.029, 88.9138, 0, 0, 1.26789, -54.7489, 1.2647, -173.912, 1.25968, 65.8399, 0.0226302, 63.1297
0, 2220.00000, 120.151, -31.675, 119.88, -150.838, 122.029, 88.9138, 0, 0, 1.26789, -54.7489, 1.2647, -173.912, 1.25968, 65.8399, 0.0226302, 63.1297
0, 2280.00000, 120.151, -31.675, 119.88, -150.838, 122.029, 88.9138, 0, 0, 1.26789, -54.7489, 1.2647, -173.912, 1.25968, 65.8399, 0.0226302, 63.1297
0, 2340.00000, 120.151, -31.675, 119.88, -150.838, 122.029, 88.9138, 0, 0, 1.26789, -54.7489, 1.2647, -173.912, 1.25968, 65.8399, 0.0226302, 63.1297
0, 2400.00000, 120.151, -31.675, 119.88, -150.838, 122.029, 88.9138, 0, 0, 1.26789, -54.7489, 1.2647, -173.912, 1.25968, 65.8399, 0.0226302, 63.1297
0, 2460.00000, 120.151, -31.675, 119.88, -150.838, 122.029, 88.9138, 0, 0, 1.26789, -54.7489, 1.2647, -173.912, 1.25968, 65.8399, 0.0226302, 63.1297
0, 2520.00000, 120.151, -31.675, 119.88, -150.838, 122.029, 88.9138, 0, 0, 1.26789, -54.7489, 1.2647, -173.912, 1.25968, 65.8399, 0.0226302, 63.1297
0, 2580.00000, 120.151, -31.675, 119.88, -150.838, 122.029, 88.9138, 0, 0, 1.26789, -54.7489, 1.2647, -173.912, 1.25968, 65.8399, 0.0226302, 63.1297
0, 2640.00000, 120.151, -31.675, 119.88, -150.838, 122.029, 88.9138, 0, 0, 1.26789, -54.7489, 1.2647, -173.912, 1.25968, 65.8399, 0.0226302, 63.1297
0, 2700.00000, 120.151, -31.675, 119.88, -150.838, 122.029, 88.9138, 0, 0, 1.26789, -54.7489, 1.2647, -173.912, 1.25968, 65.8399, 0.0226302, 63.1297
0, 2760.00000, 120.151, -31.675, 119.88, -150.838, 122.029, 88.9138, 0, 0, 1.26789, -54.7489, 1.2647, -173.912, 1.25968, 65.8399, 0.0226302, 63.1297
0, 2820.00000, 120.151, -31.675, 119.88, -150.838, 122.029, 88.9138, 0, 0, 1.26789, -54.7489, 1.2647, -173.912, 1.25968, 65.8399, 0.0226302, 63.1297
0, 2880.00000, 120.151, -31.675, 119.88, -150.838, 122.029, 88.9138, 0, 0, 1.26789, -54.7489, 1.2647, -173.912, 1.25968, 65.8399, 0.0226302, 63.1297
0, 2940.00000, 120.151, -31.675, 119.88, -150.838, 122.029, 88.9138, 0, 0, 1.26789, -54.7489, 1.2647, -173.912, 1.25968, 65.8399, 0.0226302, 63.1297
0, 3000.00000, 120.151, -31.675, 119.88, -150.838, 122.029, 88.9138, 0, 0, 1.26789, -54.7489, 1.2647, -173.912, 1.25968, 65.8399, 0.0226302, 63.1297
0, 3060.00000, 120.151, -31.675, 119.88, -150.838, 122.029, 88.9138, 0, 0, 1.26789, -54.7489, 1.2647, -173.912, 1.25968, 65.8399, 0.0226302, 63.1297
0, 3120.00000, 120.151, -31.675, 119.88, -150.838, 122.029, 88.9138, 0, 0, 1.26789, -54.7489, 1.2647, -173.912, 1.25968, 65.8399, 0.0226302, 63.1297
0, 3180.00000, 120.151, -31.675, 119.88, -150.838, 122.029, 88.9138, 0, 0, 1.26789, -54.7489, 1.2647, -173.912, 1.25968, 65.8399, 0.0226302, 63.1297
0, 3240.00000, 120.151, -31.675, 119.88, -150.838, 122.029, 88.9138, 0, 0, 1.26789, -54.7489, 1.2647, -173.912, 1.25968, 65.8399, 0.0226302, 63.1297
0, 3300.00000, 120.151, -31.675, 119.88, -150.838, 122.029, 88.9138, 0, 0, 1.26789, -54.7489, 1.2647, -173.912, 1.25968, 65.8399, 0.0226302, 63.1297
0, 3360.00000, 120.151, -31.675, 119.88, -150.838, 122.029, 88.9138, 0, 0, 1.26789, -54.7489, 1.2647, -173.912, 1.25968, 65.8399, 0.0226302, 63.1297
0, 3420.00000, 120.151, -31.675, 119.88, -150.838, 122.029, 88.9138, 0, 0, 1.26789, -54.7489, 1.2647, -173.912, 1.25968, 65.8399, 0.0226302, 63.1297
0, 3480.00000, 120.151, -31.675, 119.88, -150.838, 122.029, 88.9138, 0, 0, 1.26789, -54.7489, 1.2647, -173.912, 1.25968, 65.8399, 0.0226302, 63.1297
0, 3540.00000, 120.151, -31.675, 119.88, -150.838, 122.029, 88.9138, 0, 0, 1.26789, -54.7489, 1.2647, -173.912, 1.25968, 65.8399, 0.0226302, 63.1297
1, 0.00000, 120.151, -31.675, 119.88, -150.838, 122.029, 88.9138, 0, 0, 1.26789, -54.7489, 1.2647, -173.912, 1.25968, 65.8399, 0.0226302, 63.1297
1, 60.00000, 120.237, -31.5452, 120.167, -150.806, 122.028, 88.9146, 0, 0, 1.26889, -54.6193, 1.26805, -173.88, 1.25969, 65.8406, 0.0229724, 62.5997
1, 120.00000, 120.237, -31.5452, 120.167, -150.806, 122.028, 88.9145, 0, 0, 1.26889, -54.6191, 1.26806, -173.879, 1.25969, 65.8406, 0.0229804, 62.5991
1, 180.00000, 120.237, -31.5452, 120.167, -150.806, 122.028, 88.9145, 0, 0, 1.26889, -54.6191, 1.26806, -173.879, 1.25969, 65.8406, 0.0229804, 62.5992
1, 240.00000, 120.237, -31.5452, 120.167, -150.806, 122.028, 88.9145, 0, 0, 1.26889, -54.6191, 1.26806, -173.879, 1.25969, 65.8406, 0.0229804, 62.5992
1, 300.00000, 120.237, -31.5452, 120.167, -150.806, 122.028, 88.9145, 0, 0, 1.26889, -54.6191, 1.26806, -173.879, 1.25969, 65.8406, 0.0229804, 62.5992
1, 360.00000, 120.237, -31.5452, 120.167, -150.806, 122.028, 88.9145, 0, 0, 1.26889, -54.6191, 1.26806, -173.879, 1.25969, 65.8406, 0.0229804, 62.5992
1, 420.00000, 120.237, -31.5452, 120.167, -150.806, 122.028, 88.9145, 0, 0, 1.26889, -54.6191, 1.26806, -173.879, 1.25969, 65.8406, 0.0229804, 62.5992
1, 480.00000, 120.237, -31.5452, 120.167, -150.806, 122.028, 88.9145, 0, 0, 1.26889, -54.6191, 1.26806, -173.879, 1.25969, 65.8406, 0.0229804, 62.5992
1, 540.00000, 120.237, -31.5452, 120.167, -150.806, 122.028, 88.9145, 0, 0, 1.26889, -54.6191, 1.26806, -173.879, 1.25969, 65.8406, 0.0229804, 62.5992
1, 600.00000, 120.237, -31.5452, 120.167, -150.806, 122.028, 88.9145, 0, 0, 1.26889, -54.6191, 1.26806, -173.879, 1.25969, 65.8406, 0.0229804, 62.5992
1, 660.00000, 120.237, -31.5452, 120.167, -150.806, 122.028, 88.9145, 0, 0, 1.26889, -54.6191, 1.26806, -173.879, 1.25969, 65.8406, 0.0229804, 62.5992
1, 720.00000, 120.237, -31.5452, 120.167, -150.806, 122.028, 88.9145, 0, 0, 1.26889, -54.6191, 1.26806, -173.879, 1.25969, 65.8406, 0.0229804, 62.5992
1, 780.00000, 120.237, -31.5452, 120.167, -150.806, 122.028, 88.9145, 0, 0, 1.26889, -54.6191, 1.26806, -173.879, 1.25969, 65.8406, 0.0229804, 62.5992
1, 840.00000, 120.237, -31.5452, 120.167, -150.806, 122.028, 88.9145, 0, 0, 1.26889, -54.6191, 1.26806, -173.879, 1.25969, 65.8406, 0.0229804, 62.5992
1, 900.00000, 120.237, -31.5452, 120.167, -150.806, 122.028, 88.9145, 0, 0, 1.26889, -54.6191, 1.26806, -173.879, 1.25969, 65.8406, 0.0229804, 62.5992
1, 960.00000, 120.237, -31.5452, 120.167, -150.806, 122.028, 88.9145, 0, 0, 1.26889, -54.6191, 1.26806, -173.879, 1.25969, 65.8406, 0.0229804, 62.5992
1, 1020.00000, 120.237, -31.5452, 120.167, -150.806, 122.028, 88.9145, 0, 0, 1.26889, -54.6191, 1.26806, -173.879, 1.25969, 65.8406, 0.0229804, 62.5992
1, 1080.00000, 120.237, -31.5452, 120.167, -150.806, 122.028, 88.9145, 0, 0, 1.26889, -54.6191, 1.26806, -173.879, 1.25969, 65.8406, 0.0229804, 62.5992
1, 1140.00000, 120.237, -31.5452, 120.167, -150.806, 122.028, 88.9145, 0, 0, 1.26889, -54.6191, 1.26806, -173.879, 1.25969, 65.8406, 0.0229804, 62.5992
1, 1200.00000, 120.237, -31.5452, 120.167, -150.806, 122.028, 88.9145, 0, 0, 1.26889, -54.6191, 1.26806, -173.879, 1.25969, 65.8406, 0.0229804, 62.5992
1, 1260.00000, 120.237, -31.5452, 120.167, -150.806, 122.028, 88.9145, 0, 0, 1.26889, -54.6191, 1.26806, -173.879, 1.25969, 65.8406, 0.0229804, 62.5992
1, 1320.00000, 120.237, -31.5452, 120.167, -150.806, 122.028, 88.9145, 0, 0, 1.26889, -54.6191, 1.26806, -173.879, 1.25969, 65.8406, 0.0229804, 62.5992
1, 1380.00000, 120.237, -31.5452, 120.167, -150.806, 122.028, 88.9145, 0, 0, 1.26889, -54.6191, 1.26806, -173.879, 1.25969, 65.8406, 0.0229804, 62.5992
1, 1440.00000, 120.237, -31.5452, 120.167, -150.806, 122.028, 88.9145, 0, 0, 1.26889, -54.6191, 1.26806, -173.879, 1.25969, 65.8406, 0.0229804, 62.5992
1, 1500.00000, 120.237, -31.5452, 120.167, -150.806, 122.028, 88.9145, 0, 0, 1.26889, -54.6191, 1.26806, -173.879, 1.25969, 65.8406, 0.0229804, 62.5992
1, 1560.00000, 120.237, -31.5452, 120.167, -150.806, 122.028, 88.9145, 0, 0, 1.26889, -54.6191, 1.26806, -173.879, 1.25969, 65.8406, 0.0229804, 62.5992
1, 1620.00000, 120.237, -31.5452, 120.167, -150.806, 122.028, 88.9145, 0, 0, 1.26889, -54.6191, 1.26806, -173.879, 1.25969, 65.8406, 0.0229804, 62.5992
1, 1680.00000, 120.237, -31.5452, 120.167, -150.806, 122.028, 88.9145, 0, 0, 1.26889, -54.6191, 1.26806, -173.879, 1.25969, 65.8406, 0.0229804, 62.5992
1, 1740.00000, 120.237, -31.5452, 120.167, -150.806, 122.028, 88.9145, 0, 0, 1.26889, -54.6191, 1.26806, -173.879, 1.25969, 65.8406, 0.0229804, 62.5992
1, 1800.00000, 120.237, -31.5452, 120.167, -150.806, 122.028, 88.9145, 0, 0, 1.26889, -54.6191, 1.26806, -173.879, 1.25969, 65.8406, 0.0229804, 62.5992
1, 1860.00000, 120.237, -31.5452, 120.167, -150.806, 122.028, 88.9145, 0, 0, 1.26889, -54.6191, 1.26806, -173.879, 1.25969, 65.8406, 0.0229804, 62.5992
1, 1920.00000, 120.237, -31.5452, 120.167, -150.806, 122.028, 88.9145, 0, 0, 1.26889, -54.6191, 1.26806, -173.879, 1.25969, 65.8406, 0.0229804, 62.5992
1, 1980.00000, 120.237, -31.5452, 120.167, -150.806, 122.028, 88.9145, 0, 0, 1.26889, -54.6191, 1.26806, -173.879, 1.25969, 65.8406, 0.0229804, 62.5992
1, 2040.00000, 120.237, -31.5452, 120.167, -150.806, 122.028, 88.9145, 0, 0, 1.26889, -54.6191, 1.26806, -173.879, 1.25969, 65.8406, 0.0229804, 62.5992
1, 2100.00000, 120.237, -31.5452, 120.167, -150.806, 122.028, 88.9145, 0, 0, 1.26889, -54.6191, 1.26806, -173.879, 1.25969, 65.8406, 0.0229804, 62.5992
1, 2160.00000, 120.237, -31.5452, 120.167, -150.806, 122.028, 88.9145, 0, 0, 1.26889, -54.6191, 1.26806, -173.879, 1.25969, 65.8406, 0.0229804, 62.5992
1, 2220.00000, 120.237, -31.5452, 120.167, -150.806, 122.028, 88.9145, 0, 0, 1.26889, -54.6191, 1.26806, -173.879, 1.25969, 65.8406, 0.0229804, 62.5992
1, 2280.00000, 120.237, -31.5452, 120.167, -150.806, 122.028, 88.9145, 0, 0, 1.26889, -54.6191, 1.26806, -173.879, 1.25969, 65.8406, 0.0229804, 62.5992
1, 2340.00000, 120.237, -31.5452, 120.167, -150.806, 122.028, 88.9145, 0, 0, 1.26889, -54.6191, 1.26806, -173.879, 1.25969, 65.8406, 0.0229804, 62.5992
1, 2400.00000, 120.237, -31.5452, 120.167, -150.806, 122.028, 88.9145, 0, 0, 1.26889, -54.6191, 1.26806, -173.879, 1.25969, 65.8406, 0.0229804, 62.5992
1, 2460.00000, 120.237, -31.5452, 120.167, -150.806, 122.028, 88.9145, 0, 0, 1.26889, -54.6191, 1.26806, -173.879, 1.25969, 65.8406, 0.0229804, 62.5992
1, 2520.00000, 120.237, -31.5452, 120.167, -150.806, 122.028, 88.9145, 0, 0, 1.26889, -54.6191, 1.26806, -173.879, 1.25969, 65.8406, 0.0229804, 62.5992
1, 2580.00000, 120.237, -31.5452, 120.167, -150.806, 122.028, 88.9145, 0, 0, 1.26889, -54.6191, 1.26806, -173.879, 1.25969, 65.8406, 0.0229804, 62.5992
1, 2640.00000, 120.237, -31.5452, 120.167, -150.806, 122.028, 88.9145, 0, 0, 1.26889, -54.6191, 1.26806, -173.879, 1.25969, 65.8406, 0.0229804, 62.5992
1, 2700.00000, 120.237, -31.5452, 120.167, -150.806, 122.028, 88.9145, 0, 0, 1.26889, -54.6191, 1.26806, -173.879, 1.25969, 65.8406, 0.0229804, 62.5992
1, 2760.00000, 120.237, -31.5452, 120.167, -150.806, 122.028, 88.9145, 0, 0, 1.26889, -54.6191, 1.26806, -173.879, 1.25969, 65.8406, 0.0229804, 62.5992
1, 2820.00000, 120.237, -31.5452, 120.167, -150.806, 122.028, 88.9145, 0, 0, 1.26889, -54.6191, 1.26806, -173.879, 1.25969, 65.8406, 0.0229804, 62.5992
1, 2880.00000, 120.237, -31.5452, 120.167, -150.806, 122.028, 88.9145, 0, 0, 1.26889, -54.6191, 1.26806, -173.879, 1.25969, 65.8406, 0.0229804, 62.5992
1, 2940.00000, 120.237, -31.5452, 120.167, -150.806, 122.028, 88.9145, 0, 0, 1.26889, -54.6191, 1.26806, -173.879, 1.25969, 65.8406, 0.0229804, 62.5992
1, 3000.00000, 120.237, -31.5452, 120.167, -150.806, 122.028, 88.9145, 0, 0, 1.26889, -54.6191, 1.26806, -173.879, 1.25969, 65.8406, 0.0229804, 62.5992
1, 3060.00000, 120.237, -31.5452, 120.167, -150.806, 122.028, 88.9145, 0, 0, 1.26889, -54.6191, 1.26806, -173.879, 1.25969, 65.8406, 0.0229804, 62.5992
1, 3120.00000, 120.237, -31.5452, 120.167, -150.806, 122.028, 88.9145, 0, 0, 1.26889, -54.6191, 1.26806, -173.879, 1.25969, 65.8406, 0.0229804, 62.5992
1, 3180.00000, 120.237, -31.5452, 120.167, -150.806, 122.028, 88.9145, 0, 0, 1.26889, -54.6191, 1.26806, -173.879, 1.25969, 65.8406, 0.0229804, 62.5992
1, 3240.00000, 120.237, -31.5452, 120.167, -150.806, 122.028, 88.9145, 0, 0, 1.26889, -54.6191, 1.26806, -173.879, 1.25969, 65.8406, 0.0229804, 62.5992
1, 3300.00000, 120.237, -31.5452, 120.167, -150.806, 122.028, 88.9145, 0, 0, 1.26889, -54.6191, 1.26806, -173.879, 1.25969, 65.8406, 0.0229804, 62.5992
1, 3360.00000, 120.237, -31.5452, 120.167, -150.806, 122.028, 88.9145, 0, 0, 1.26889, -54.6191, 1.26806, -173.879, 1.25969, 65.8406, 0.0229804, 62.5992
1, 3420.00000, 120.237, -31.5452, 120.167, -150.806, 122.028, 88.9145, 0, 0, 1.26889, -54.6191, 1.26806, -173.879, 1.25969, 65.8406, 0.0229804, 62.5992
1, 3480.00000, 120.237, -31.5452, 120.167, -150.806, 122.028, 88.9145, 0, 0, 1.26889, -54.6191, 1.26806, -173.879, 1.25969, 65.8406, 0.0229804, 62.5992
1, 3540.00000, 120.237, -31.5452, 120.167, -150.806, 122.028, 88.9145, 0, 0, 1.26889, -54.6191, 1.26806, -173.879, 1.25969, 65.8406, 0.0229804, 62.5992
2, 0.00000, 120.237, -31.5452, 120.167, -150.806, 122.028, 88.9145, 0, 0, 1.26889, -54.6191, 1.26806, -173.879, 1.25969, 65.8406, 0.0229804, 62.5992
2, 60.00000, 120.237, -31.5452, 120.167, -150.806, 122.028, 88.9145, 0, 0, 1.26889, -54.6191, 1.26806, -173.879, 1.25969, 65.8406, 0.0229804, 62.5992
2, 120.00000, 120.237, -31.5452, 120.167, -150.806, 122.028, 88.9145, 0, 0, 1.26889, -54.6191, 1.26806, -173.879, 1.25969, 65.8406, 0.0229804, 62.5992
2, 180.00000, 120.237, -31.5452, 120.167, -150.806, 122.028, 88.9145, 0, 0, 1.26889, -54.6191, 1.26806, -173.879, 1.25969, 65.8406, 0.0229804, 62.5992
2, 240.00000, 120.237, -31.5452, 120.167, -150.806, 122.028, 88.9145, 0, 0, 1.26889, -54.6191, 1.26806, -173.879, 1.25969, 65.8406, 0.0229804, 62.5992
2, 300.00000, 120.237, -31.5452, 120.167, -150.806, 122.028, 88.9145, 0, 0, 1.26889, -54.6191, 1.26806, -173.879, 1.25969, 65.8406, 0.0229804, 62.5992
2, 360.00000, 120.237, -31.5452, 120.167, -150.806, 122.028, 88.9145, 0, 0, 1.26889, -54.6191, 1.26806, -173.879, 1.25969, 65.8406, 0.0229804, 62.5992
2, 420.00000, 120.237, -31.5452, 120.167, -150.806, 122.028, 88.9145, 0, 0, 1.26889, -54.6191, 1.26806, -173.879, 1.25969, 65.8406, 0.0229804, 62.5992
2, 480.00000, 120.237, -31.5452, 120.167, -150.806, 122.028, 88.9145, 0, 0, 1.26889, -54.6191, 1.26806, -173.879, 1.25969, 65.8406, 0.0229804, 62.5992
2, 540.00000, 120.237, -31.5452, 120.167, -150.806, 122.028, 88.9145, 0, 0, 1.26889, -54.6191, 1.26806, -173.879, 1.25969, 65.8406, 0.0229804, 62.5992
2, 600.00000, 120.237, -31.5452, 120.167, -150.806, 122.028, 88.9145, 0, 0, 1.26889, -54.6191, 1.26806, -173.879, 1.25969, 65.8406, 0.0229804, 62.5992
2, 660.00000, 120.237, -31.5452, 120.167, -150.806, 122.028, 88.9145, 0, 0, 1.26889, -54.6191, 1.26806, -173.879, 1.25969, 65.8406, 0.0229804, 62.5992
2, 720.00000, 120.237, -31.5452, 120.167, -150.806, 122.028, 88.9145, 0, 0, 1.26889, -54.6191, 1.26806, -173.879, 1.25969, 65.8406, 0.0229804, 62.5992
