hour,t(sec),V1,VAngle1,V2,VAngle2,V3,VAngle3,V4,VAngle4,I1,IAngle1,I2,IAngle2,I3,IAngle3,I4,IAngle4
0, 60.00000, 117.514, -31.4887, 124.139, -152.453, 118.938, 85.5583, 0, 0, 7.25313, -54.562, 7.26061, -175.525, 7.35107, 62.4844, 0.365778, -173.145
0, 120.00000, 117.514, -31.4909, 124.185, -152.469, 118.928, 85.5323, 0, 0, 7.25311, -54.5643, 7.25787, -175.542, 7.35039, 62.4584, 0.370713, -173.241
0, 180.00000, 117.514, -31.4928, 124.227, -152.483, 118.92, 85.5088, 0, 0, 7.25309, -54.5663, 7.25541, -175.556, 7.34977, 62.4349, 0.375149, -173.325
0, 240.00000, 117.513, -31.4946, 124.265, -152.497, 118.912, 85.4877, 0, 0, 7.25308, -54.5681, 7.2532, -175.57, 7.34921, 62.4138, 0.379139, -173.4
0, 300.00000, 117.513, -31.4962, 124.299, -152.508, 118.905, 85.4688, 0, 0, 7.25306, -54.5697, 7.2512, -175.581, 7.3487, 62.3948, 0.382731, -173.466
0, 360.00000, 117.513, -31.4977, 124.33, -152.519, 118.898, 85.4517, 0, 0, 7.25304, -54.5712, 7.2494, -175.592, 7.34825, 62.3777, 0.385965, -173.526
0, 420.00000, 117.513, -31.499, 124.357, -152.529, 118.892, 85.4363, 0, 0, 7.25303, -54.5726, 7.24777, -175.602, 7.34783, 62.3624, 0.388878, -173.579
0, 480.00000, 118.303, -31.4089, 125.329, -152.425, 119.635, 85.5393, 0, 0, 6.35734, -54.4824, 6.25671, -175.498, 6.43693, 62.4655, 0.433651, -174.405
0, 540.00000, 118.303, -31.41, 125.352, -152.433, 119.63, 85.5269, 0, 0, 6.35732, -54.4836, 6.25554, -175.506, 6.43662, 62.453, 0.435722, -174.437
0, 600.00000, 118.303, -31.411, 125.373, -152.44, 119.625, 85.5156, 0, 0, 6.35731, -54.4847, 6.25449, -175.513, 6.43635, 62.4417, 0.437583, -174.466
0, 660.00000, 118.302, -31.412, 125.392, -152.446, 119.621, 85.5055, 0, 0, 6.3573, -54.4856, 6.25355, -175.519, 6.4361, 62.4316, 0.439257, -174.492
0, 720.00000, 118.302, -31.4128, 125.409, -152.452, 119.618, 85.4964, 0, 0, 6.35729, -54.4865, 6.2527, -175.525, 6.43587, 62.4225, 0.440763, -174.515
0, 780.00000, 118.302, -31.4135, 125.424, -152.457, 119.614, 85.4882, 0, 0, 6.35728, -54.4873, 6.25194, -175.53, 6.43567, 62.4143, 0.442119, -174.536
0, 840.00000, 118.302, -31.4142, 125.437, -152.461, 119.612, 85.4809, 0, 0, 6.35727, -54.4879, 6.25126, -175.535, 6.43549, 62.407, 0.443338, -174.554
0, 900.00000, 118.302, -31.4148, 125.45, -152.465, 119.609, 85.4742, 0, 0, 6.35726, -54.4886, 6.25064, -175.539, 6.43533, 62.4003, 0.444435, -174.571
0, 960.00000, 118.25, -31.3912, 124.487, -152.744, 118.702, 85.6587, 0, 0, 6.35415, -54.465, 6.29895, -175.818, 6.38118, 62.5847, 0.350679, -174.367
0, 1020.00000, 118.25, -31.3917, 124.497, -152.748, 118.7, 85.6534, 0, 0, 6.35414, -54.4655, 6.29846, -175.821, 6.38105, 62.5794, 0.351552, -174.384
0, 1080.00000, 118.25, -31.3921, 124.506, -152.751, 118.698, 85.6486, 0, 0, 6.35414, -54.4659, 6.29802, -175.824, 6.38093, 62.5746, 0.352339, -174.399
0, 1140.00000, 118.25, -31.3925, 124.513, -152.753, 118.696, 85.6443, 0, 0, 6.35413, -54.4663, 6.29762, -175.827, 6.38082, 62.5703, 0.353047, -174.412
0, 1200.00000, 118.25, -31.3929, 124.52, -152.756, 118.694, 85.6404, 0, 0, 6.35413, -54.4667, 6.29726, -175.829, 6.38072, 62.5664, 0.353685, -174.424
0, 1260.00000, 118.249, -31.3932, 124.527, -152.758, 118.693, 85.6369, 0, 0, 6.35413, -54.467, 6.29693, -175.832, 6.38063, 62.563, 0.35426, -174.435
0, 1320.00000, 118.249, -31.3934, 124.533, -152.76, 118.692, 85.6338, 0, 0, 6.35412, -54.4673, 6.29664, -175.834, 6.38055, 62.5598, 0.354777, -174.445
0, 1380.00000, 118.249, -31.3937, 124.538, -152.762, 118.691, 85.631, 0, 0, 6.35412, -54.4675, 6.29638, -175.835, 6.38048, 62.557, 0.355242, -174.454
0, 1440.00000, 118.249, -31.3939, 124.542, -152.763, 118.69, 85.6284, 0, 0, 6.35412, -54.4678, 6.29614, -175.837, 6.38042, 62.5545, 0.35566, -174.462
0, 1500.00000, 118.249, -31.3941, 124.547, -152.765, 118.689, 85.6261, 0, 0, 6.35411, -54.468, 6.29593, -175.838, 6.38036, 62.5522, 0.356037, -174.469
0, 1560.00000, 118.249, -31.3943, 124.55, -152.766, 118.688, 85.6241, 0, 0, 6.35411, -54.4682, 6.29574, -175.84, 6.3803, 62.5501, 0.356376, -174.475
0, 1620.00000, 118.249, -31.3945, 124.554, -152.767, 118.687, 85.6222, 0, 0, 6.35411, -54.4683, 6.29556, -175.841, 6.38026, 62.5483, 0.356681, -174.481
0, 1680.00000, 118.249, -31.3946, 124.557, -152.768, 118.686, 85.6205, 0, 0, 6.35411, -54.4685, 6.29541, -175.842, 6.38021, 62.5466, 0.356956, -174.486
0, 1740.00000, 118.249, -31.3948, 124.559, -152.769, 118.686, 85.619, 0, 0, 6.3541, -54.4686, 6.29527, -175.843, 6.38018, 62.5451, 0.357203, -174.491
0, 1800.00000, 117, -31.8083, 123.05, -152.466, 118.806, 85.5999, 0, 0, 6.27956, -54.8822, 6.37249, -175.54, 6.38737, 62.526, 0.208907, -170.365
0, 1860.00000, 117, -31.8085, 123.052, -152.467, 118.806, 85.5987, 0, 0, 6.27956, -54.8823, 6.37238, -175.541, 6.38734, 62.5248, 0.209104, -170.374
0, 1920.00000, 117, -31.8085, 123.054, -152.468, 118.805, 85.5976, 0, 0, 6.27956, -54.8824, 6.37229, -175.542, 6.38731, 62.5237, 0.209281, -170.382
0, 1980.00000, 117, -31.8086, 123.056, -152.468, 118.805, 85.5966, 0, 0, 6.27956, -54.8825, 6.3722, -175.542, 6.38729, 62.5227, 0.209441, -170.39
0, 2040.00000, 117, -31.8087, 123.057, -152.469, 118.805, 85.5958, 0, 0, 6.27955, -54.8826, 6.37212, -175.543, 6.38727, 62.5218, 0.209584, -170.396
0, 2100.00000, 117, -31.8088, 123.059, -152.469, 118.804, 85.595, 0, 0, 6.27955, -54.8827, 6.37204, -175.543, 6.38725, 62.521, 0.209713, -170.402
0, 2160.00000, 117, -31.8088, 123.06, -152.47, 118.804, 85.5942, 0, 0, 6.27955, -54.8827, 6.37198, -175.544, 6.38723, 62.5203, 0.209829, -170.407
0, 2220.00000, 117, -31.8089, 123.061, -152.47, 118.804, 85.5936, 0, 0, 6.27955, -54.8828, 6.37192, -175.544, 6.38722, 62.5197, 0.209934, -170.412
0, 2280.00000, 117, -31.8089, 123.062, -152.471, 118.804, 85.593, 0, 0, 6.27955, -54.8828, 6.37187, -175.544, 6.3872, 62.5191, 0.210028, -170.416
0, 2340.00000, 117, -31.809, 123.063, -152.471, 118.803, 85.5925, 0, 0, 6.27955, -54.8829, 6.37182, -175.545, 6.38719, 62.5186, 0.210113, -170.42
0, 2400.00000, 117, -31.809, 123.064, -152.471, 118.803, 85.592, 0, 0, 6.27955, -54.8829, 6.37178, -175.545, 6.38718, 62.5181, 0.210189, -170.424
0, 2460.00000, 117, -31.8091, 123.064, -152.471, 118.803, 85.5916, 0, 0, 6.27955, -54.883, 6.37174, -175.545, 6.38717, 62.5177, 0.210258, -170.427
0, 2520.00000, 117, -31.8091, 123.065, -152.472, 118.803, 85.5912, 0, 0, 6.27955, -54.883, 6.3717, -175.546, 6.38716, 62.5173, 0.21032, -170.43
0, 2580.00000, 117, -31.8091, 123.066, -152.472, 118.803, 85.5909, 0, 0, 6.27955, -54.883, 6.37167, -175.546, 6.38715, 62.5169, 0.210376, -170.432
0, 2640.00000, 117, -31.8091, 123.066, -152.472, 118.803, 85.5906, 0, 0, 6.27955, -54.8831, 6.37164, -175.546, 6.38714, 62.5166, 0.210426, -170.434
0, 2700.00000, 117, -31.8092, 123.067, -152.472, 118.803, 85.5903, 0, 0, 6.27954, -54.8831, 6.37162, -175.546, 6.38714, 62.5164, 0.210471, -170.436
0, 2760.00000, 117.322, -31.7832, 123.068, -152.469, 118.927, 85.7384, 0, 0, 6.29876, -54.8571, 6.37154, -175.543, 6.39457, 62.6645, 0.212653, -170.585
0, 2820.00000, 117.322, -31.7832, 123.069, -152.47, 118.927, 85.7382, 0, 0, 6.29876, -54.8571, 6.37152, -175.543, 6.39457, 62.6643, 0.21269, -170.587
0, 2880.00000, 117.322, -31.7833, 123.069, -152.47, 118.927, 85.738, 0, 0, 6.29876, -54.8572, 6.3715, -175.544, 6.39456, 62.6641, 0.212723, -170.588
0, 2940.00000, 117.322, -31.7833, 123.069, -152.47, 118.927, 85.7378, 0, 0, 6.29876, -54.8572, 6.37148, -175.544, 6.39456, 62.6639, 0.212752, -170.59
0, 3000.00000, 117.322, -31.7833, 123.07, -152.47, 118.927, 85.7377, 0, 0, 6.29876, -54.8572, 6.37147, -175.544, 6.39455, 62.6637, 0.212779, -170.591
0, 3060.00000, 117.322, -31.7833, 123.07, -152.47, 118.927, 85.7375, 0, 0, 6.29876, -54.8572, 6.37145, -175.544, 6.39455, 62.6636, 0.212803, -170.592
0, 3120.00000, 117.322, -31.7833, 123.07, -152.47, 118.927, 85.7374, 0, 0, 6.29876, -54.8572, 6.37144, -175.544, 6.39455, 62.6635, 0.212825, -170.593
0, 3180.00000, 117.322, -31.7833, 123.07, -152.47, 118.927, 85.7373, 0, 0, 6.29876, -54.8572, 6.37143, -175.544, 6.39454, 62.6633, 0.212844, -170.594
0, 3240.00000, 117.322, -31.7833, 123.071, -152.47, 118.927, 85.7372, 0, 0, 6.29876, -54.8572, 6.37142, -175.544, 6.39454, 62.6632, 0.212862, -170.595
0, 3300.00000, 117.322, -31.7833, 123.071, -152.47, 118.927, 85.7371, 0, 0, 6.29876, -54.8573, 6.37141, -175.544, 6.39454, 62.6631, 0.212877, -170.595
0, 3360.00000, 117.322, -31.7833, 123.071, -152.47, 118.927, 85.737, 0, 0, 6.29876, -54.8573, 6.3714, -175.544, 6.39454, 62.663, 0.212891, -170.596
0, 3420.00000, 117.322, -31.7833, 123.071, -152.47, 118.927, 85.7369, 0, 0, 6.29876, -54.8573, 6.3714, -175.544, 6.39453, 62.663, 0.212904, -170.596
0, 3480.00000, 117.322, -31.7834, 123.071, -152.47, 118.926, 85.7368, 0, 0, 6.29876, -54.8573, 6.37139, -175.544, 6.39453, 62.6629, 0.212916, -170.597
0, 3540.00000, 117.322, -31.7834, 123.071, -152.47, 118.926, 85.7368, 0, 0, 6.29876, -54.8573, 6.37138, -175.544, 6.39453, 62.6628, 0.212926, -170.597
1, 0.00000, 117.322, -31.7834, 123.071, -152.47, 118.926, 85.7367, 0, 0, 6.29876, -54.8573, 6.37138, -175.544, 6.39453, 62.6628, 0.212935, -170.598
1, 60.00000, 117.616, -31.7519, 123.076, -152.468, 119.021, 85.8722, 0, 0, 6.31633, -54.8258, 6.37116, -175.542, 6.4002, 62.7982, 0.215147, -170.883
1, 120.00000, 117.616, -31.7519, 123.076, -152.468, 119.021, 85.8721, 0, 0, 6.31633, -54.8258, 6.37115, -175.542, 6.4002, 62.7982, 0.215155, -170.884
1, 180.00000, 117.616, -31.7519, 123.076, -152.468, 119.021, 85.8721, 0, 0, 6.31633, -54.8258, 6.37115, -175.542, 6.4002, 62.7982, 0.215162, -170.884
1, 240.00000, 117.616, -31.7519, 123.076, -152.468, 119.021, 85.872, 0, 0, 6.31633, -54.8258, 6.37114, -175.542, 6.4002, 62.7981, 0.215168, -170.884
1, 300.00000, 117.616, -31.7519, 123.076, -152.468, 119.021, 85.872, 0, 0, 6.31633, -54.8258, 6.37114, -175.542, 6.4002, 62.7981, 0.215174, -170.885
1, 360.00000, 117.616, -31.7519, 123.076, -152.468, 119.021, 85.872, 0, 0, 6.31633, -54.8258, 6.37114, -175.542, 6.4002, 62.7981, 0.215179, -170.885
1, 420.00000, 117.616, -31.7519, 123.076, -152.468, 119.021, 85.8719, 0, 0, 6.31633, -54.8258, 6.37114, -175.542, 6.4002, 62.798, 0.215184, -170.885
1, 480.00000, 117.616, -31.7519, 123.076, -152.468, 119.021, 85.8719, 0, 0, 6.31633, -54.8258, 6.37113, -175.542, 6.4002, 62.798, 0.215188, -170.885
1, 540.00000, 117.616, -31.7519, 123.076, -152.468, 119.021, 85.8719, 0, 0, 6.31633, -54.8258, 6.37113, -175.542, 6.40019, 62.798, 0.215191, -170.885
1, 600.00000, 117.616, -31.7519, 123.076, -152.468, 119.021, 85.8719, 0, 0, 6.31633, -54.8258, 6.37113, -175.542, 6.40019, 62.798, 0.215195, -170.885
1, 660.00000, 117.616, -31.7519, 123.076, -152.468, 119.021, 85.8719, 0, 0, 6.31633, -54.8258, 6.37113, -175.542, 6.40019, 62.798, 0.215198, -170.886
1, 720.00000, 117.616, -31.7519, 123.076, -152.468, 119.021, 85.8718, 0, 0, 6.31633, -54.8258, 6.37113, -175.542, 6.40019, 62.7979, 0.2152, -170.886
1, 780.00000, 118.188, -31.7808, 123.091, -152.461, 119.364, 86.0955, 0, 0, 6.35048, -54.8547, 6.37034, -175.535, 6.42067, 63.0216, 0.219959, -171.293
1, 840.00000, 118.188, -31.7808, 123.091, -152.461, 119.364, 86.0955, 0, 0, 6.35048, -54.8547, 6.37034, -175.535, 6.42067, 63.0216, 0.219962, -171.294
1, 900.00000, 118.188, -31.7808, 123.091, -152.461, 119.364, 86.0955, 0, 0, 6.35048, -54.8547, 6.37034, -175.535, 6.42067, 63.0216, 0.219964, -171.294
1, 960.00000, 118.188, -31.7808, 123.091, -152.461, 119.364, 86.0955, 0, 0, 6.35048, -54.8547, 6.37034, -175.535, 6.42067, 63.0216, 0.219965, -171.294
1, 1020.00000, 118.188, -31.7808, 123.091, -152.461, 119.364, 86.0955, 0, 0, 6.35048, -54.8547, 6.37034, -175.535, 6.42067, 63.0216, 0.219967, -171.294
1, 1080.00000, 118.188, -31.7808, 123.091, -152.461, 119.364, 86.0955, 0, 0, 6.35048, -54.8547, 6.37034, -175.535, 6.42067, 63.0216, 0.219968, -171.294
1, 1140.00000, 118.188, -31.7808, 123.091, -152.461, 119.364, 86.0955, 0, 0, 6.35048, -54.8547, 6.37034, -175.535, 6.42067, 63.0215, 0.21997, -171.294
1, 1200.00000, 118.188, -31.7808, 123.091, -152.461, 119.364, 86.0955, 0, 0, 6.35048, -54.8547, 6.37034, -175.535, 6.42067, 63.0215, 0.219971, -171.294
1, 1260.00000, 118.188, -31.7808, 123.091, -152.461, 119.364, 86.0955, 0, 0, 6.35048, -54.8547, 6.37034, -175.535, 6.42067, 63.0215, 0.219972, -171.294
1, 1320.00000, 118.188, -31.7808, 123.091, -152.461, 119.364, 86.0954, 0, 0, 6.35048, -54.8547, 6.37034, -175.535, 6.42067, 63.0215, 0.219973, -171.294
1, 1380.00000, 118.188, -31.7808, 123.091, -152.461, 119.364, 86.0954, 0, 0, 6.35048, -54.8547, 6.37033, -175.535, 6.42067, 63.0215, 0.219974, -171.294
1, 1440.00000, 118.188, -31.7808, 123.091, -152.461, 119.364, 86.0954, 0, 0, 6.35048, -54.8547, 6.37033, -175.535, 6.42067, 63.0215, 0.219974, -171.294
1, 1500.00000, 118.188, -31.7808, 123.091, -152.461, 119.364, 86.0954, 0, 0, 6.35048, -54.8547, 6.37033, -175.535, 6.42067, 63.0215, 0.219975, -171.294
1, 1560.00000, 118.188, -31.7808, 123.092, -152.461, 119.364, 86.0954, 0, 0, 6.35048, -54.8547, 6.37033, -175.535, 6.42067, 63.0215, 0.219976, -171.294
1, 1620.00000, 118.188, -31.7808, 123.092, -152.461, 119.364, 86.0954, 0, 0, 6.35048, -54.8547, 6.37033, -175.535, 6.42067, 63.0215, 0.219976, -171.294
1, 1680.00000, 118.188, -31.7808, 123.092, -152.461, 119.364, 86.0954, 0, 0, 6.35048, -54.8547, 6.37033, -175.535, 6.42067, 63.0215, 0.219977, -171.294
1, 1740.00000, 118.188, -31.7808, 123.092, -152.461, 119.364, 86.0954, 0, 0, 6.35048, -54.8547, 6.37033, -175.535, 6.42067, 63.0215, 0.219977, -171.294
1, 1800.00000, 118.188, -31.7808, 123.092, -152.461, 119.364, 86.0954, 0, 0, 6.35048, -54.8547, 6.37033, -175.535, 6.42067, 63.0215, 0.219978, -171.294
1, 1860.00000, 118.188, -31.7808, 123.092, -152.461, 119.364, 86.0954, 0, 0, 6.35048, -54.8547, 6.37033, -175.535, 6.42067, 63.0215, 0.219978, -171.294
1, 1920.00000, 118.188, -31.7808, 123.092, -152.461, 119.364, 86.0954, 0, 0, 6.35048, -54.8547, 6.37033, -175.535, 6.42067, 63.0215, 0.219978, -171.294
1, 1980.00000, 118.188, -31.7808, 123.092, -152.461, 119.364, 86.0954, 0, 0, 6.35048, -54.8547, 6.37033, -175.535, 6.42067, 63.0215, 0.219979, -171.294
1, 2040.00000, 118.188, -31.7808, 123.092, -152.461, 119.364, 86.0954, 0, 0, 6.35048, -54.8547, 6.37033, -175.535, 6.42067, 63.0215, 0.219979, -171.294
1, 2100.00000, 118.188, -31.7808, 123.092, -152.461, 119.364, 86.0954, 0, 0, 6.35048, -54.8547, 6.37033, -175.535, 6.42067, 63.0215, 0.219979, -171.294
1, 2160.00000, 118.188, -31.7808, 123.092, -152.461, 119.364, 86.0954, 0, 0, 6.35048, -54.8547, 6.37033, -175.535, 6.42067, 63.0215, 0.219979, -171.294
1, 2220.00000, 119.446, -31.3717, 124.599, -152.766, 119.24, 86.1135, 0, 0, 6.42551, -54.4457, 6.29326, -175.839, 6.41324, 63.0396, 0.368599, -175.005
1, 2280.00000, 119.446, -31.3717, 124.599, -152.766, 119.24, 86.1135, 0, 0, 6.42551, -54.4457, 6.29326, -175.839, 6.41324, 63.0396, 0.3686, -175.005
1, 2340.00000, 119.446, -31.3717, 124.599, -152.766, 119.24, 86.1135, 0, 0, 6.42551, -54.4457, 6.29326, -175.839, 6.41324, 63.0396, 0.3686, -175.005
1, 2400.00000, 119.446, -31.3717, 124.599, -152.766, 119.24, 86.1135, 0, 0, 6.42551, -54.4457, 6.29326, -175.839, 6.41324, 63.0396, 0.3686, -175.005
1, 2460.00000, 119.446, -31.3717, 124.599, -152.766, 119.24, 86.1135, 0, 0, 6.42551, -54.4457, 6.29326, -175.839, 6.41324, 63.0396, 0.3686, -175.005
1, 2520.00000, 119.446, -31.3717, 124.599, -152.766, 119.24, 86.1135, 0, 0, 6.42551, -54.4457, 6.29326, -175.839, 6.41324, 63.0396, 0.3686, -175.005
1, 2580.00000, 119.446, -31.3717, 124.599, -152.766, 119.24, 86.1135, 0, 0, 6.42551, -54.4457, 6.29326, -175.839, 6.41324, 63.0396, 0.368601, -175.005
1, 2640.00000, 119.446, -31.3717, 124.599, -152.766, 119.24, 86.1135, 0, 0, 6.42551, -54.4457, 6.29326, -175.839, 6.41324, 63.0396, 0.368601, -175.005
1, 2700.00000, 119.446, -31.3717, 124.599, -152.766, 119.24, 86.1135, 0, 0, 6.42551, -54.4457, 6.29326, -175.839, 6.41324, 63.0396, 0.368601, -175.005
1, 2760.00000, 119.446, -31.3717, 124.599, -152.766, 119.24, 86.1135, 0, 0, 6.42551, -54.4457, 6.29326, -175.839, 6.41324, 63.0396, 0.368601, -175.005
1, 2820.00000, 119.446, -31.3717, 124.599, -152.766, 119.24, 86.1135, 0, 0, 6.42551, -54.4457, 6.29326, -175.839, 6.41324, 63.0396, 0.368601, -175.005
1, 2880.00000, 119.446, -31.3717, 124.599, -152.766, 119.24, 86.1135, 0, 0, 6.42551, -54.4457, 6.29326, -175.839, 6.41324, 63.0396, 0.368601, -175.005
1, 2940.00000, 119.446, -31.3717, 124.599, -152.766, 119.24, 86.1135, 0, 0, 6.42551, -54.4457, 6.29326, -175.839, 6.41324, 63.0396, 0.368601, -175.005
1, 3000.00000, 119.446, -31.3717, 124.599, -152.766, 119.24, 86.1135, 0, 0, 6.42551, -54.4457, 6.29326, -175.839, 6.41324, 63.0396, 0.368601, -175.005
1, 3060.00000, 119.446, -31.3717, 124.599, -152.766, 119.24, 86.1135, 0, 0, 6.42551, -54.4457, 6.29326, -175.839, 6.41324, 63.0396, 0.368601, -175.005
1, 3120.00000, 119.446, -31.3717, 124.599, -152.766, 119.24, 86.1135, 0, 0, 6.42551, -54.4457, 6.29326, -175.839, 6.41324, 63.0396, 0.368601, -175.005
1, 3180.00000, 119.446, -31.3717, 124.599, -152.766, 119.24, 86.1135, 0, 0, 6.42551, -54.4457, 6.29326, -175.839, 6.41324, 63.0396, 0.368601, -175.005
1, 3240.00000, 119.446, -31.3717, 124.599, -152.766, 119.24, 86.1135, 0, 0, 6.42551, -54.4457, 6.29326, -175.839, 6.41324, 63.0396, 0.368601, -175.005
1, 3300.00000, 119.446, -31.3717, 124.599, -152.766, 119.24, 86.1135, 0, 0, 6.42551, -54.4457, 6.29326, -175.839, 6.41324, 63.0396, 0.368601, -175.005
1, 3360.00000, 119.446, -31.3717, 124.599, -152.766, 119.24, 86.1135, 0, 0, 6.42551, -54.4457, 6.29326, -175.839, 6.41324, 63.0396, 0.368601, -175.005
1, 3420.00000, 119.446, -31.3717, 124.599, -152.766, 119.24, 86.1135, 0, 0, 6.42551, -54.4457, 6.29326, -175.839, 6.41324, 63.0396, 0.368601, -175.005
1, 3480.00000, 119.446, -31.3717, 124.599, -152.766, 119.24, 86.1135, 0, 0, 6.42551, -54.4457, 6.29326, -175.839, 6.41324, 63.0396, 0.368601, -175.005
1, 3540.00000, 119.446, -31.3717, 124.599, -152.766, 119.24, 86.1135, 0, 0, 6.42551, -54.4457, 6.29326, -175.839, 6.41324, 63.0396, 0.368601, -175.005
2, 0.00000, 119.446, -31.3717, 124.599, -152.766, 119.24, 86.1135, 0, 0, 6.42551, -54.4457, 6.29326, -175.839, 6.41324, 63.0396, 0.368601, -175.005
2, 60.00000, 119.446, -31.3717, 124.599, -152.766, 119.24, 86.1135, 0, 0, 6.42551, -54.4457, 6.29326, -175.839, 6.41324, 63.0396, 0.368601, -175.005
2, 120.00000, 119.446, -31.3717, 124.599, -152.766, 119.24, 86.1135, 0, 0, 6.42551, -54.4457, 6.29326, -175.839, 6.41324, 63.0396, 0.368601, -175.005
2, 180.00000, 119.446, -31.3717, 124.599, -152.766, 119.24, 86.1135, 0, 0, 6.42551, -54.4457, 6.29326, -175.839, 6.41324, 63.0396, 0.368601, -175.005
2, 240.00000, 119.446, -31.3717, 124.599, -152.766, 119.24, 86.1135, 0, 0, 6.42551, -54.4457, 6.29326, -175.839, 6.41324, 63.0396, 0.368601, -175.005
2, 300.00000, 119.446, -31.3717, 124.599, -152.766, 119.24, 86.1135, 0, 0, 6.42551, -54.4457, 6.29326, -175.839, 6.41324, 63.0396, 0.368601, -175.005
2, 360.00000, 119.446, -31.3717, 124.599, -152.766, 119.24, 86.1135, 0, 0, 6.42551, -54.4457, 6.29326, -175.839, 6.41324, 63.0396, 0.368601, -175.005
2, 420.00000, 119.446, -31.3717, 124.599, -152.766, 119.24, 86.1135, 0, 0, 6.42551, -54.4457, 6.29326, -175.839, 6.41324, 63.0396, 0.368601, -175.005
2, 480.00000, 119.446, -31.3717, 124.599, -152.766, 119.24, 86.1135, 0, 0, 6.42551, -54.4457, 6.29326, -175.839, 6.41324, 63.0396, 0.368601, -175.005
2, 540.00000, 119.446, -31.3717, 124.599, -152.766, 119.24, 86.1135, 0, 0, 6.42551, -54.4457, 6.29326, -175.839, 6.41324, 63.0396, 0.368601, -175.005
2, 600.00000, 119.446, -31.3717, 124.599, -152.766, 119.24, 86.1135, 0, 0, 6.42551, -54.4457, 6.29326, -175.839, 6.41324, 63.0396, 0.368601, -175.005
2, 660.00000, 119.446, -31.3717, 124.599, -152.766, 119.24, 86.1135, 0, 0, 6.42551, -54.4457, 6.29326, -175.839, 6.41324, 63.0396, 0.368601, -175.005
2, 720.00000, 119.446, -31.3717, 124.599, -152.766, 119.24, 86.1135, 0, 0, 6.42551, -54.4457, 6.29326, -175.839, 6.41324, 63.0396, 0.368601, -175.005
