hour,t(sec),"P1 (kW)","Q1 (kvar)","P2 (kW)","Q2 (kvar)","P3 (kW)","Q3 (kvar)","P4 (kW)","Q4 (kvar)"
0, 60.00000, 0.49643, 0.211477, 0.51147, 0.217885, 0.510698, 0.217553, 0, 0
0, 120.00000, 0.496426, 0.211477, 0.511466, 0.217884, 0.51069, 0.217553, 0, 0
0, 180.00000, 0.496426, 0.211477, 0.511466, 0.217884, 0.51069, 0.217553, 0, 0
0, 240.00000, 0.496426, 0.211477, 0.511466, 0.217884, 0.51069, 0.217553, 0, 0
0, 300.00000, 0.496426, 0.211477, 0.511466, 0.217884, 0.51069, 0.217553, 0, 0
0, 360.00000, 0.496426, 0.211477, 0.511466, 0.217884, 0.51069, 0.217553, 0, 0
0, 420.00000, 0.496426, 0.211477, 0.511466, 0.217884, 0.51069, 0.217553, 0, 0
0, 480.00000, 0.456583, 0.194504, 0.470192, 0.200303, 0.469209, 0.199888, 0, 0
0, 540.00000, 0.456586, 0.194505, 0.470199, 0.200304, 0.469217, 0.199886, 0, 0
0, 600.00000, 0.456586, 0.194505, 0.470199, 0.200304, 0.469217, 0.199886, 0, 0
0, 660.00000, 0.456586, 0.194505, 0.470199, 0.200304, 0.469217, 0.199886, 0, 0
0, 720.00000, 0.456586, 0.194505, 0.470199, 0.200304, 0.469217, 0.199886, 0, 0
0, 780.00000, 0.456586, 0.194505, 0.470199, 0.200304, 0.469217, 0.199886, 0, 0
0, 840.00000, 0.456586, 0.194505, 0.470199, 0.200304, 0.469217, 0.199886, 0, 0
0, 900.00000, 0.456586, 0.194505, 0.470199, 0.200304, 0.469217, 0.199886, 0, 0
0, 960.00000, 0.447906, 0.190807, 0.470172, 0.200293, 0.461761, 0.196707, 0, 0
0, 1020.00000, 0.447903, 0.190806, 0.470173, 0.200293, 0.461756, 0.196707, 0, 0
0, 1080.00000, 0.447903, 0.190806, 0.470173, 0.200293, 0.461756, 0.196707, 0, 0
0, 1140.00000, 0.447903, 0.190806, 0.470173, 0.200293, 0.461756, 0.196707, 0, 0
0, 1200.00000, 0.447903, 0.190806, 0.470173, 0.200293, 0.461756, 0.196707, 0, 0
0, 1260.00000, 0.447903, 0.190806, 0.470173, 0.200293, 0.461756, 0.196707, 0, 0
0, 1320.00000, 0.447903, 0.190806, 0.470173, 0.200293, 0.461756, 0.196707, 0, 0
0, 1380.00000, 0.447903, 0.190806, 0.470173, 0.200293, 0.461756, 0.196707, 0, 0
0, 1440.00000, 0.447903, 0.190806, 0.470173, 0.200293, 0.461756, 0.196707, 0, 0
0, 1500.00000, 0.447903, 0.190806, 0.470173, 0.200293, 0.461756, 0.196707, 0, 0
0, 1560.00000, 0.447903, 0.190806, 0.470173, 0.200293, 0.461756, 0.196707, 0, 0
0, 1620.00000, 0.447903, 0.190806, 0.470173, 0.200293, 0.461756, 0.196707, 0, 0
0, 1680.00000, 0.447903, 0.190806, 0.470173, 0.200293, 0.461756, 0.196707, 0, 0
0, 1740.00000, 0.447903, 0.190806, 0.470173, 0.200293, 0.461756, 0.196707, 0, 0
0, 1800.00000, 0.442276, 0.188409, 0.470228, 0.200316, 0.457492, 0.194888, 0, 0
0, 1860.00000, 0.442272, 0.188407, 0.470229, 0.200317, 0.457488, 0.194889, 0, 0
0, 1920.00000, 0.442272, 0.188407, 0.470229, 0.200317, 0.457488, 0.194889, 0, 0
0, 1980.00000, 0.442272, 0.188407, 0.470229, 0.200317, 0.457488, 0.194889, 0, 0
0, 2040.00000, 0.442272, 0.188407, 0.470229, 0.200317, 0.457488, 0.194889, 0, 0
0, 2100.00000, 0.442272, 0.188407, 0.470229, 0.200317, 0.457488, 0.194889, 0, 0
0, 2160.00000, 0.442272, 0.188407, 0.470229, 0.200317, 0.457488, 0.194889, 0, 0
0, 2220.00000, 0.442272, 0.188407, 0.470229, 0.200317, 0.457488, 0.194889, 0, 0
0, 2280.00000, 0.442272, 0.188407, 0.470229, 0.200317, 0.457488, 0.194889, 0, 0
0, 2340.00000, 0.442272, 0.188407, 0.470229, 0.200317, 0.457488, 0.194889, 0, 0
0, 2400.00000, 0.442272, 0.188407, 0.470229, 0.200317, 0.457488, 0.194889, 0, 0
0, 2460.00000, 0.442272, 0.188407, 0.470229, 0.200317, 0.457488, 0.194889, 0, 0
0, 2520.00000, 0.442272, 0.188407, 0.470229, 0.200317, 0.457488, 0.194889, 0, 0
0, 2580.00000, 0.442272, 0.188407, 0.470229, 0.200317, 0.457488, 0.194889, 0, 0
0, 2640.00000, 0.442272, 0.188407, 0.470229, 0.200317, 0.457488, 0.194889, 0, 0
0, 2700.00000, 0.442272, 0.188407, 0.470229, 0.200317, 0.457488, 0.194889, 0, 0
0, 2760.00000, 0.446283, 0.190118, 0.470213, 0.200309, 0.459778, 0.195867, 0, 0
0, 2820.00000, 0.446288, 0.190118, 0.470211, 0.200309, 0.459784, 0.195867, 0, 0
0, 2880.00000, 0.446288, 0.190118, 0.470211, 0.200309, 0.459785, 0.195867, 0, 0
0, 2940.00000, 0.446288, 0.190118, 0.470211, 0.200309, 0.459785, 0.195867, 0, 0
0, 3000.00000, 0.446288, 0.190118, 0.470211, 0.200309, 0.459785, 0.195867, 0, 0
0, 3060.00000, 0.446288, 0.190118, 0.470211, 0.200309, 0.459785, 0.195867, 0, 0
0, 3120.00000, 0.446288, 0.190118, 0.470211, 0.200309, 0.459785, 0.195867, 0, 0
0, 3180.00000, 0.446288, 0.190118, 0.470211, 0.200309, 0.459785, 0.195867, 0, 0
0, 3240.00000, 0.446288, 0.190118, 0.470211, 0.200309, 0.459785, 0.195867, 0, 0
0, 3300.00000, 0.446288, 0.190118, 0.470211, 0.200309, 0.459785, 0.195867, 0, 0
0, 3360.00000, 0.446288, 0.190118, 0.470211, 0.200309, 0.459785, 0.195867, 0, 0
0, 3420.00000, 0.446288, 0.190118, 0.470211, 0.200309, 0.459785, 0.195867, 0, 0
0, 3480.00000, 0.446288, 0.190118, 0.470211, 0.200309, 0.459785, 0.195867, 0, 0
0, 3540.00000, 0.446288, 0.190118, 0.470211, 0.200309, 0.459785, 0.195867, 0, 0
1, 0.00000, 0.446288, 0.190118, 0.470211, 0.200309, 0.459785, 0.195867, 0, 0
1, 60.00000, 0.449169, 0.191347, 0.470204, 0.200306, 0.461063, 0.196414, 0, 0
1, 120.00000, 0.449173, 0.191347, 0.470203, 0.200306, 0.461067, 0.196414, 0, 0
1, 180.00000, 0.449173, 0.191347, 0.470203, 0.200306, 0.461067, 0.196414, 0, 0
1, 240.00000, 0.449173, 0.191347, 0.470203, 0.200306, 0.461067, 0.196414, 0, 0
1, 300.00000, 0.449173, 0.191347, 0.470203, 0.200306, 0.461067, 0.196414, 0, 0
1, 360.00000, 0.449173, 0.191347, 0.470203, 0.200306, 0.461067, 0.196414, 0, 0
1, 420.00000, 0.449173, 0.191347, 0.470203, 0.200306, 0.461067, 0.196414, 0, 0
1, 480.00000, 0.449173, 0.191347, 0.470203, 0.200306, 0.461067, 0.196414, 0, 0
1, 540.00000, 0.449173, 0.191347, 0.470203, 0.200306, 0.461067, 0.196414, 0, 0
1, 600.00000, 0.449173, 0.191347, 0.470203, 0.200306, 0.461067, 0.196414, 0, 0
1, 660.00000, 0.449173, 0.191347, 0.470203, 0.200306, 0.461067, 0.196414, 0, 0
1, 720.00000, 0.449173, 0.191347, 0.470203, 0.200306, 0.461067, 0.196414, 0, 0
1, 780.00000, 0.452631, 0.192821, 0.470216, 0.200311, 0.462845, 0.197172, 0, 0
1, 840.00000, 0.452636, 0.192822, 0.470215, 0.200311, 0.462847, 0.197172, 0, 0
1, 900.00000, 0.452636, 0.192822, 0.470215, 0.200311, 0.462847, 0.197172, 0, 0
1, 960.00000, 0.452636, 0.192822, 0.470215, 0.200311, 0.462847, 0.197172, 0, 0
1, 1020.00000, 0.452636, 0.192822, 0.470215, 0.200311, 0.462847, 0.197172, 0, 0
1, 1080.00000, 0.452636, 0.192822, 0.470215, 0.200311, 0.462847, 0.197172, 0, 0
1, 1140.00000, 0.452636, 0.192822, 0.470215, 0.200311, 0.462847, 0.197172, 0, 0
1, 1200.00000, 0.452636, 0.192822, 0.470215, 0.200311, 0.462847, 0.197172, 0, 0
1, 1260.00000, 0.452636, 0.192822, 0.470215, 0.200311, 0.462847, 0.197172, 0, 0
1, 1320.00000, 0.452636, 0.192822, 0.470215, 0.200311, 0.462847, 0.197172, 0, 0
1, 1380.00000, 0.452636, 0.192822, 0.470215, 0.200311, 0.462847, 0.197172, 0, 0
1, 1440.00000, 0.452636, 0.192822, 0.470215, 0.200311, 0.462847, 0.197172, 0, 0
1, 1500.00000, 0.452636, 0.192822, 0.470215, 0.200311, 0.462847, 0.197172, 0, 0
1, 1560.00000, 0.452636, 0.192822, 0.470215, 0.200311, 0.462847, 0.197172, 0, 0
1, 1620.00000, 0.452636, 0.192822, 0.470215, 0.200311, 0.462847, 0.197172, 0, 0
1, 1680.00000, 0.452636, 0.192822, 0.470215, 0.200311, 0.462847, 0.197172, 0, 0
1, 1740.00000, 0.452636, 0.192822, 0.470215, 0.200311, 0.462847, 0.197172, 0, 0
1, 1800.00000, 0.452636, 0.192822, 0.470215, 0.200311, 0.462847, 0.197172, 0, 0
1, 1860.00000, 0.452636, 0.192822, 0.470215, 0.200311, 0.462847, 0.197172, 0, 0
1, 1920.00000, 0.452636, 0.192822, 0.470215, 0.200311, 0.462847, 0.197172, 0, 0
1, 1980.00000, 0.452636, 0.192822, 0.470215, 0.200311, 0.462847, 0.197172, 0, 0
1, 2040.00000, 0.452636, 0.192822, 0.470215, 0.200311, 0.462847, 0.197172, 0, 0
1, 2100.00000, 0.452636, 0.192822, 0.470215, 0.200311, 0.462847, 0.197172, 0, 0
1, 2160.00000, 0.452636, 0.192822, 0.470215, 0.200311, 0.462847, 0.197172, 0, 0
1, 2220.00000, 0.458514, 0.195328, 0.470151, 0.200284, 0.467187, 0.199022, 0, 0
1, 2280.00000, 0.45852, 0.195329, 0.47015, 0.200283, 0.467189, 0.199022, 0, 0
1, 2340.00000, 0.45852, 0.195329, 0.47015, 0.200283, 0.467189, 0.199022, 0, 0
1, 2400.00000, 0.45852, 0.195329, 0.47015, 0.200283, 0.467189, 0.199022, 0, 0
1, 2460.00000, 0.45852, 0.195329, 0.47015, 0.200283, 0.467189, 0.199022, 0, 0
1, 2520.00000, 0.45852, 0.195329, 0.47015, 0.200283, 0.467189, 0.199022, 0, 0
1, 2580.00000, 0.45852, 0.195329, 0.47015, 0.200283, 0.467189, 0.199022, 0, 0
1, 2640.00000, 0.45852, 0.195329, 0.47015, 0.200283, 0.467189, 0.199022, 0, 0
1, 2700.00000, 0.45852, 0.195329, 0.47015, 0.200283, 0.467189, 0.199022, 0, 0
1, 2760.00000, 0.45852, 0.195329, 0.47015, 0.200283, 0.467189, 0.199022, 0, 0
1, 2820.00000, 0.45852, 0.195329, 0.47015, 0.200283, 0.467189, 0.199022, 0, 0
1, 2880.00000, 0.45852, 0.195329, 0.47015, 0.200283, 0.467189, 0.199022, 0, 0
1, 2940.00000, 0.45852, 0.195329, 0.47015, 0.200283, 0.467189, 0.199022, 0, 0
1, 3000.00000, 0.45852, 0.195329, 0.47015, 0.200283, 0.467189, 0.199022, 0, 0
1, 3060.00000, 0.45852, 0.195329, 0.47015, 0.200283, 0.467189, 0.199022, 0, 0
1, 3120.00000, 0.45852, 0.195329, 0.47015, 0.200283, 0.467189, 0.199022, 0, 0
1, 3180.00000, 0.45852, 0.195329, 0.47015, 0.200283, 0.467189, 0.199022, 0, 0
1, 3240.00000, 0.45852, 0.195329, 0.47015, 0.200283, 0.467189, 0.199022, 0, 0
1, 3300.00000, 0.45852, 0.195329, 0.47015, 0.200283, 0.467189, 0.199022, 0, 0
1, 3360.00000, 0.45852, 0.195329, 0.47015, 0.200283, 0.467189, 0.199022, 0, 0
1, 3420.00000, 0.45852, 0.195329, 0.47015, 0.200283, 0.467189, 0.199022, 0, 0
1, 3480.00000, 0.45852, 0.195329, 0.47015, 0.200283, 0.467189, 0.199022, 0, 0
1, 3540.00000, 0.45852, 0.195329, 0.47015, 0.200283, 0.467189, 0.199022, 0, 0
2, 0.00000, 0.45852, 0.195329, 0.47015, 0.200283, 0.467189, 0.199022, 0, 0
2, 60.00000, 0.45852, 0.195329, 0.47015, 0.200283, 0.467189, 0.199022, 0, 0
2, 120.00000, 0.45852, 0.195329, 0.47015, 0.200283, 0.467189, 0.199022, 0, 0
2, 180.00000, 0.45852, 0.195329, 0.47015, 0.200283, 0.467189, 0.199022, 0, 0
2, 240.00000, 0.45852, 0.195329, 0.47015, 0.200283, 0.467189, 0.199022, 0, 0
2, 300.00000, 0.45852, 0.195329, 0.47015, 0.200283, 0.467189, 0.199022, 0, 0
2, 360.00000, 0.45852, 0.195329, 0.47015, 0.200283, 0.467189, 0.199022, 0, 0
2, 420.00000, 0.45852, 0.195329, 0.47015, 0.200283, 0.467189, 0.199022, 0, 0
2, 480.00000, 0.45852, 0.195329, 0.47015, 0.200283, 0.467189, 0.199022, 0, 0
2, 540.00000, 0.45852, 0.195329, 0.47015, 0.200283, 0.467189, 0.199022, 0, 0
2, 600.00000, 0.45852, 0.195329, 0.47015, 0.200283, 0.467189, 0.199022, 0, 0
2, 660.00000, 0.45852, 0.195329, 0.47015, 0.200283, 0.467189, 0.199022, 0, 0
2, 720.00000, 0.45852, 0.195329, 0.47015, 0.200283, 0.467189, 0.199022, 0, 0
2, 780.00000, 0.45852, 0.195329, 0.47015, 0.200283, 0.467189, 0.199022, 0, 0
2, 840.00000, 0.467503, 0.199158, 0.470171, 0.200292, 0.47477, 0.202252, 0, 0
2, 900.00000, 0.46751, 0.199158, 0.47017, 0.200292, 0.474772, 0.202252, 0, 0
2, 960.00000, 0.46751, 0.199158, 0.47017, 0.200292, 0.474772, 0.202252, 0, 0
2, 1020.00000, 0.46751, 0.199158, 0.47017, 0.200292, 0.474772, 0.202252, 0, 0
2, 1080.00000, 0.46751, 0.199158, 0.47017, 0.200292, 0.474772, 0.202252, 0, 0
2, 1140.00000, 0.46751, 0.199158, 0.47017, 0.200292, 0.474772, 0.202252, 0, 0
2, 1200.00000, 0.46751, 0.199158, 0.47017, 0.200292, 0.474772, 0.202252, 0, 0
2, 1260.00000, 0.46751, 0.199158, 0.47017, 0.200292, 0.474772, 0.202252, 0, 0
2, 1320.00000, 0.46751, 0.199158, 0.47017, 0.200292, 0.474772, 0.202252, 0, 0
2, 1380.00000, 0.46751, 0.199158, 0.47017, 0.200292, 0.474772, 0.202252, 0, 0
2, 1440.00000, 0.46751, 0.199158, 0.47017, 0.200292, 0.474772, 0.202252, 0, 0
2, 1500.00000, 0.46751, 0.199158, 0.47017, 0.200292, 0.474772, 0.202252, 0, 0
2, 1560.00000, 0.46751, 0.199158, 0.47017, 0.200292, 0.474772, 0.202252, 0, 0
2, 1620.00000, 0.46751, 0.199158, 0.47017, 0.200292, 0.474772, 0.202252, 0, 0
2, 1680.00000, 0.46751, 0.199158, 0.47017, 0.200292, 0.474772, 0.202252, 0, 0
2, 1740.00000, 0.46751, 0.199158, 0.47017, 0.200292, 0.474772, 0.202252, 0, 0
2, 1800.00000, 0.46751, 0.199158, 0.47017, 0.200292, 0.474772, 0.202252, 0, 0
2, 1860.00000, 0.46751, 0.199158, 0.47017, 0.200292, 0.474772, 0.202252, 0, 0
2, 1920.00000, 0.46751, 0.199158, 0.47017, 0.200292, 0.474772, 0.202252, 0, 0
2, 1980.00000, 0.46751, 0.199158, 0.47017, 0.200292, 0.474772, 0.202252, 0, 0
2, 2040.00000, 0.46751, 0.199158, 0.47017, 0.200292, 0.474772, 0.202252, 0, 0
2, 2100.00000, 0.46751, 0.199158, 0.47017, 0.200292, 0.474772, 0.202252, 0, 0
2, 2160.00000, 0.46751, 0.199158, 0.47017, 0.200292, 0.474772, 0.202252, 0, 0
2, 2220.00000, 0.46751, 0.199158, 0.47017, 0.200292, 0.474772, 0.202252, 0, 0
2, 2280.00000, 0.46751, 0.199158, 0.47017, 0.200292, 0.474772, 0.202252, 0, 0
2, 2340.00000, 0.46751, 0.199158, 0.47017, 0.200292, 0.474772, 0.202252, 0, 0
2, 2400.00000, 0.471361, 0.200804, 0.47017, 0.200292, 0.476754, 0.2031, 0, 0
2, 2460.00000, 0.471377, 0.200806, 0.470168, 0.200291, 0.476759, 0.203099, 0, 0
2, 2520.00000, 0.471377, 0.200806, 0.470167, 0.200291, 0.476759, 0.203099, 0, 0
2, 2580.00000, 0.471377, 0.200806, 0.470167, 0.200291, 0.476759, 0.203099, 0, 0
2, 2640.00000, 0.471377, 0.200806, 0.470167, 0.200291, 0.476759, 0.203099, 0, 0
2, 2700.00000, 0.466848, 0.198877, 0.464275, 0.197779, 0.477073, 0.203232, 0, 0
2, 2760.00000, 0.466847, 0.198876, 0.464271, 0.197779, 0.477077, 0.203234, 0, 0
2, 2820.00000, 0.466847, 0.198876, 0.464271, 0.197779, 0.477077, 0.203234, 0, 0
2, 2880.00000, 0.466847, 0.198876, 0.464271, 0.197779, 0.477077, 0.203234, 0, 0
2, 2940.00000, 0.466847, 0.198876, 0.464271, 0.197779, 0.477077, 0.203234, 0, 0
2, 3000.00000, 0.466847, 0.198876, 0.464271, 0.197779, 0.477077, 0.203234, 0, 0
2, 3060.00000, 0.47047, 0.200425, 0.464237, 0.197764, 0.478919, 0.204021, 0, 0
2, 3120.00000, 0.470482, 0.200424, 0.464235, 0.197763, 0.478924, 0.204021, 0, 0
2, 3180.00000, 0.470482, 0.200424, 0.464235, 0.197763, 0.478924, 0.204021, 0, 0
2, 3240.00000, 0.470482, 0.200424, 0.464235, 0.197763, 0.478924, 0.204021, 0, 0
2, 3300.00000, 0.470482, 0.200424, 0.464235, 0.197763, 0.478924, 0.204021, 0, 0
2, 3360.00000, 0.470482, 0.200424, 0.464235, 0.197763, 0.478924, 0.204021, 0, 0
2, 3420.00000, 0.470482, 0.200424, 0.464235, 0.197763, 0.478924, 0.204021, 0, 0
2, 3480.00000, 0.470482, 0.200424, 0.464235, 0.197763, 0.478924, 0.204021, 0, 0
2, 3540.00000, 0.470482, 0.200424, 0.464235, 0.197763, 0.478924, 0.204021, 0, 0
3, 0.00000, 0.470482, 0.200424, 0.464235, 0.197763, 0.478924, 0.204021, 0, 0
3, 60.00000, 0.470482, 0.200424, 0.464235, 0.197763, 0.478924, 0.204021, 0, 0
3, 120.00000, 0.470482, 0.200424, 0.464235, 0.197763, 0.478924, 0.204021, 0, 0
3, 180.00000, 0.470482, 0.200424, 0.464235, 0.197763, 0.478924, 0.204021, 0, 0
3, 240.00000, 0.470482, 0.200424, 0.464235, 0.197763, 0.478924, 0.204021, 0, 0
3, 300.00000, 0.470482, 0.200424, 0.464235, 0.197763, 0.478924, 0.204021, 0, 0
3, 360.00000, 0.470482, 0.200424, 0.464235, 0.197763, 0.478924, 0.204021, 0, 0
3, 420.00000, 0.470482, 0.200424, 0.464235, 0.197763, 0.478924, 0.204021, 0, 0
3, 480.00000, 0.470482, 0.200424, 0.464235, 0.197763, 0.478924, 0.204021, 0, 0
3, 540.00000, 0.470482, 0.200424, 0.464235, 0.197763, 0.478924, 0.204021, 0, 0
3, 600.00000, 0.470482, 0.200424, 0.464235, 0.197763, 0.478924, 0.204021, 0, 0
3, 660.00000, 0.470482, 0.200424, 0.464235, 0.197763, 0.478924, 0.204021, 0, 0
3, 720.00000, 0.470482, 0.200424, 0.464235, 0.197763, 0.478924, 0.204021, 0, 0
3, 780.00000, 0.470482, 0.200424, 0.464235, 0.197763, 0.478924, 0.204021, 0, 0
3, 840.00000, 0.470482, 0.200424, 0.464235, 0.197763, 0.478924, 0.204021, 0, 0
3, 900.00000, 0.470482, 0.200424, 0.464235, 0.197763, 0.478924, 0.204021, 0, 0
3, 960.00000, 0.470482, 0.200424, 0.464235, 0.197763, 0.478924, 0.204021, 0, 0
3, 1020.00000, 0.470482, 0.200424, 0.464235, 0.197763, 0.478924, 0.204021, 0, 0
3, 1080.00000, 0.470482, 0.200424, 0.464235, 0.197763, 0.478924, 0.204021, 0, 0
3, 1140.00000, 0.470482, 0.200424, 0.464235, 0.197763, 0.478924, 0.204021, 0, 0
3, 1200.00000, 0.470482, 0.200424, 0.464235, 0.197763, 0.478924, 0.204021, 0, 0
3, 1260.00000, 0.470482, 0.200424, 0.464235, 0.197763, 0.478924, 0.204021, 0, 0
3, 1320.00000, 0.470482, 0.200424, 0.464235, 0.197763, 0.478924, 0.204021, 0, 0
3, 1380.00000, 0.470482, 0.200424, 0.464235, 0.197763, 0.478924, 0.204021, 0, 0
3, 1440.00000, 0.470482, 0.200424, 0.464235, 0.197763, 0.478924, 0.204021, 0, 0
3, 1500.00000, 0.470482, 0.200424, 0.464235, 0.197763, 0.478924, 0.204021, 0, 0
3, 1560.00000, 0.470482, 0.200424, 0.464235, 0.197763, 0.478924, 0.204021, 0, 0
3, 1620.00000, 0.470482, 0.200424, 0.464235, 0.197763, 0.478924, 0.204021, 0, 0
3, 1680.00000, 0.470482, 0.200424, 0.464235, 0.197763, 0.478924, 0.204021, 0, 0
3, 1740.00000, 0.470482, 0.200424, 0.464235, 0.197763, 0.478924, 0.204021, 0, 0
3, 1800.00000, 0.470482, 0.200424, 0.464235, 0.197763, 0.478924, 0.204021, 0, 0
3, 1860.00000, 0.470482, 0.200424, 0.464235, 0.197763, 0.478924, 0.204021, 0, 0
3, 1920.00000, 0.470482, 0.200424, 0.464235, 0.197763, 0.478924, 0.204021, 0, 0
3, 1980.00000, 0.470482, 0.200424, 0.464235, 0.197763, 0.478924, 0.204021, 0, 0
3, 2040.00000, 0.470482, 0.200424, 0.464235, 0.197763, 0.478924, 0.204021, 0, 0
3, 2100.00000, 0.470482, 0.200424, 0.464235, 0.197763, 0.478924, 0.204021, 0, 0
3, 2160.00000, 0.470482, 0.200424, 0.464235, 0.197763, 0.478924, 0.204021, 0, 0
3, 2220.00000, 0.470482, 0.200424, 0.464235, 0.197763, 0.478924, 0.204021, 0, 0
3, 2280.00000, 0.470482, 0.200424, 0.464235, 0.197763, 0.478924, 0.204021, 0, 0
3, 2340.00000, 0.470482, 0.200424, 0.464235, 0.197763, 0.478924, 0.204021, 0, 0
3, 2400.00000, 0.470482, 0.200424, 0.464235, 0.197763, 0.478924, 0.204021, 0, 0
3, 2460.00000, 0.470482, 0.200424, 0.464235, 0.197763, 0.478924, 0.204021, 0, 0
3, 2520.00000, 0.470482, 0.200424, 0.464235, 0.197763, 0.478924, 0.204021, 0, 0
3, 2580.00000, 0.470482, 0.200424, 0.464235, 0.197763, 0.478924, 0.204021, 0, 0
3, 2640.00000, 0.470482, 0.200424, 0.464235, 0.197763, 0.478924, 0.204021, 0, 0
3, 2700.00000, 0.470482, 0.200424, 0.464235, 0.197763, 0.478924, 0.204021, 0, 0
3, 2760.00000, 0.470482, 0.200424, 0.464235, 0.197763, 0.478924, 0.204021, 0, 0
3, 2820.00000, 0.470482, 0.200424, 0.464235, 0.197763, 0.478924, 0.204021, 0, 0
3, 2880.00000, 0.470482, 0.200424, 0.464235, 0.197763, 0.478924, 0.204021, 0, 0
3, 2940.00000, 0.470482, 0.200424, 0.464235, 0.197763, 0.478924, 0.204021, 0, 0
3, 3000.00000, 0.470482, 0.200424, 0.464235, 0.197763, 0.478924, 0.204021, 0, 0
3, 3060.00000, 0.470482, 0.200424, 0.464235, 0.197763, 0.478924, 0.204021, 0, 0
3, 3120.00000, 0.470482, 0.200424, 0.464235, 0.197763, 0.478924, 0.204021, 0, 0
3, 3180.00000, 0.458638, 0.195378, 0.452629, 0.192819, 0.466965, 0.198925, 0, 0
3, 3240.00000, 0.458635, 0.195378, 0.452628, 0.192819, 0.466962, 0.198925, 0, 0
3, 3300.00000, 0.458635, 0.195378, 0.452628, 0.192819, 0.466962, 0.198925, 0, 0
3, 3360.00000, 0.458635, 0.195378, 0.452628, 0.192819, 0.466962, 0.198925, 0, 0
3, 3420.00000, 0.458635, 0.195378, 0.452628, 0.192819, 0.466962, 0.198925, 0, 0
3, 3480.00000, 0.458635, 0.195378, 0.452628, 0.192819, 0.466962, 0.198925, 0, 0
3, 3540.00000, 0.458635, 0.195378, 0.452628, 0.192819, 0.466962, 0.198925, 0, 0
4, 0.00000, 0.458635, 0.195378, 0.452628, 0.192819, 0.466962, 0.198925, 0, 0
4, 60.00000, 0.458635, 0.195378, 0.452628, 0.192819, 0.466962, 0.198925, 0, 0
4, 120.00000, 0.458635, 0.195378, 0.452628, 0.192819, 0.466962, 0.198925, 0, 0
4, 180.00000, 0.458635, 0.195378, 0.452628, 0.192819, 0.466962, 0.198925, 0, 0
4, 240.00000, 0.458635, 0.195378, 0.452628, 0.192819, 0.466962, 0.198925, 0, 0
4, 300.00000, 0.458635, 0.195378, 0.452628, 0.192819, 0.466962, 0.198925, 0, 0
4, 360.00000, 0.458635, 0.195378, 0.452628, 0.192819, 0.466962, 0.198925, 0, 0
4, 420.00000, 0.458635, 0.195378, 0.452628, 0.192819, 0.466962, 0.198925, 0, 0
4, 480.00000, 0.458635, 0.195378, 0.452628, 0.192819, 0.466962, 0.198925, 0, 0
4, 540.00000, 0.458635, 0.195378, 0.452628, 0.192819, 0.466962, 0.198925, 0, 0
4, 600.00000, 0.458635, 0.195378, 0.452628, 0.192819, 0.466962, 0.198925, 0, 0
4, 660.00000, 0.458635, 0.195378, 0.452628, 0.192819, 0.466962, 0.198925, 0, 0
