hour,t(sec),V1,VAngle1,V2,VAngle2,V3,VAngle3,V4,VAngle4,I1,IAngle1,I2,IAngle2,I3,IAngle3,I4,IAngle4
0, 60.00000, 116.289, -35.3608, 118.61, -151.005, 126.467, 85.9858, 0, 0, 4.43132, -58.4346, 4.52931, -174.078, 4.40494, 62.9153, 0.368085, 60.7482
0, 120.00000, 116.265, -35.4088, 118.61, -151.005, 126.548, 85.954, 0, 0, 4.43027, -58.4825, 4.52929, -174.078, 4.4021, 62.8832, 0.373492, 60.7214
0, 180.00000, 116.244, -35.4519, 118.609, -151.006, 126.621, 85.9253, 0, 0, 4.42932, -58.5257, 4.52928, -174.079, 4.39955, 62.8542, 0.378352, 60.6973
0, 240.00000, 116.224, -35.4908, 118.609, -151.007, 126.686, 85.8994, 0, 0, 4.42846, -58.5646, 4.52926, -174.08, 4.39725, 62.8281, 0.38272, 60.6753
0, 300.00000, 116.206, -35.5258, 118.609, -151.007, 126.745, 85.8761, 0, 0, 4.42769, -58.5996, 4.52925, -174.08, 4.3952, 62.8045, 0.386646, 60.6554
0, 360.00000, 116.191, -35.5573, 118.608, -151.008, 126.798, 85.8551, 0, 0, 4.42699, -58.6311, 4.52924, -174.081, 4.39334, 62.7833, 0.390177, 60.6373
0, 420.00000, 116.176, -35.5857, 118.608, -151.008, 126.846, 85.8362, 0, 0, 4.42635, -58.6595, 4.52923, -174.081, 4.39168, 62.7642, 0.393351, 60.6209
0, 480.00000, 116.163, -35.6113, 118.608, -151.008, 126.889, 85.8192, 0, 0, 4.42578, -58.6851, 4.52922, -174.082, 4.39019, 62.747, 0.396205, 60.6061
0, 540.00000, 116.152, -35.6343, 118.608, -151.009, 126.928, 85.8038, 0, 0, 4.42527, -58.7081, 4.52921, -174.082, 4.38884, 62.7315, 0.398772, 60.5926
0, 600.00000, 116.141, -35.655, 118.607, -151.009, 126.962, 85.79, 0, 0, 4.4248, -58.7288, 4.52921, -174.083, 4.38763, 62.7175, 0.401081, 60.5805
0, 660.00000, 116.132, -35.6736, 118.607, -151.009, 126.994, 85.7776, 0, 0, 4.42438, -58.7475, 4.5292, -174.083, 4.38655, 62.705, 0.403157, 60.5695
0, 720.00000, 116.123, -35.6904, 118.607, -151.01, 127.022, 85.7664, 0, 0, 4.424, -58.7643, 4.52919, -174.083, 4.38557, 62.6936, 0.405025, 60.5596
0, 780.00000, 116.115, -35.7055, 118.607, -151.01, 127.047, 85.7563, 0, 0, 4.42366, -58.7794, 4.52919, -174.083, 4.38469, 62.6834, 0.406705, 60.5506
0, 840.00000, 116.108, -35.7191, 118.607, -151.01, 127.07, 85.7472, 0, 0, 4.42336, -58.793, 4.52918, -174.084, 4.3839, 62.6743, 0.408216, 60.5425
0, 900.00000, 116.102, -35.7314, 118.607, -151.01, 127.09, 85.739, 0, 0, 4.42308, -58.8052, 4.52918, -174.084, 4.38319, 62.666, 0.409576, 60.5352
0, 960.00000, 115.936, -35.7648, 118.351, -151.154, 126.567, 85.6668, 0, 0, 4.67159, -58.8387, 4.77983, -174.228, 4.65603, 62.5937, 0.396203, 60.4967
0, 1020.00000, 115.931, -35.7747, 118.351, -151.154, 126.583, 85.6602, 0, 0, 4.67136, -58.8486, 4.77982, -174.228, 4.65542, 62.587, 0.39737, 60.4908
0, 1080.00000, 115.927, -35.7836, 118.351, -151.154, 126.598, 85.6543, 0, 0, 4.67114, -58.8575, 4.77982, -174.228, 4.65486, 62.581, 0.39842, 60.4854
0, 1140.00000, 115.923, -35.7916, 118.351, -151.154, 126.612, 85.6489, 0, 0, 4.67095, -58.8655, 4.77982, -174.228, 4.65437, 62.5756, 0.399365, 60.4806
0, 1200.00000, 115.919, -35.7989, 118.351, -151.154, 126.624, 85.6441, 0, 0, 4.67078, -58.8727, 4.77981, -174.228, 4.65392, 62.5707, 0.400215, 60.4762
0, 1260.00000, 115.915, -35.8053, 118.351, -151.155, 126.634, 85.6397, 0, 0, 4.67062, -58.8792, 4.77981, -174.228, 4.65352, 62.5663, 0.40098, 60.4722
0, 1320.00000, 115.912, -35.8112, 118.351, -151.155, 126.644, 85.6358, 0, 0, 4.67048, -58.8851, 4.77981, -174.228, 4.65315, 62.5623, 0.401669, 60.4687
0, 1380.00000, 115.91, -35.8164, 118.351, -151.155, 126.653, 85.6323, 0, 0, 4.67035, -58.8903, 4.77981, -174.229, 4.65283, 62.5588, 0.402288, 60.4655
0, 1440.00000, 115.907, -35.8212, 118.351, -151.155, 126.661, 85.6291, 0, 0, 4.67024, -58.8951, 4.77981, -174.229, 4.65254, 62.5555, 0.402846, 60.4626
0, 1500.00000, 115.905, -35.8254, 118.351, -151.155, 126.668, 85.6263, 0, 0, 4.67014, -58.8993, 4.7798, -174.229, 4.65227, 62.5527, 0.403347, 60.46
0, 1560.00000, 115.903, -35.8293, 118.351, -151.155, 126.675, 85.6237, 0, 0, 4.67004, -58.9032, 4.7798, -174.229, 4.65203, 62.5501, 0.403799, 60.4576
0, 1620.00000, 115.901, -35.8327, 118.351, -151.155, 126.68, 85.6214, 0, 0, 4.66996, -58.9066, 4.7798, -174.229, 4.65182, 62.5477, 0.404205, 60.4555
0, 1680.00000, 115.9, -35.8358, 118.351, -151.155, 126.686, 85.6193, 0, 0, 4.66988, -58.9097, 4.7798, -174.229, 4.65163, 62.5456, 0.40457, 60.4536
0, 1740.00000, 115.898, -35.8386, 118.351, -151.155, 126.69, 85.6174, 0, 0, 4.66982, -58.9125, 4.7798, -174.229, 4.65146, 62.5437, 0.404899, 60.4519
0, 1800.00000, 115.897, -35.8411, 118.351, -151.155, 126.694, 85.6158, 0, 0, 4.66976, -58.9151, 4.7798, -174.229, 4.6513, 62.542, 0.405195, 60.4504
0, 1860.00000, 116.091, -35.8357, 118.548, -151.146, 126.928, 85.6262, 0, 0, 4.69268, -58.9097, 4.80318, -174.22, 4.65685, 62.5525, 0.424683, 60.5185
0, 1920.00000, 116.09, -35.8378, 118.548, -151.146, 126.931, 85.6248, 0, 0, 4.69263, -58.9117, 4.80318, -174.22, 4.65672, 62.5511, 0.424925, 60.517
0, 1980.00000, 116.089, -35.8396, 118.548, -151.146, 126.934, 85.6236, 0, 0, 4.69258, -58.9135, 4.80318, -174.22, 4.6566, 62.5498, 0.425141, 60.5159
0, 2040.00000, 116.089, -35.8413, 118.548, -151.146, 126.937, 85.6225, 0, 0, 4.69254, -58.9152, 4.80318, -174.22, 4.6565, 62.5487, 0.425336, 60.5149
0, 2100.00000, 116.088, -35.8428, 118.548, -151.146, 126.94, 85.6215, 0, 0, 4.69251, -58.9167, 4.80318, -174.22, 4.65641, 62.5477, 0.425511, 60.5139
0, 2160.00000, 116.087, -35.8441, 118.548, -151.146, 126.942, 85.6206, 0, 0, 4.69247, -58.918, 4.80318, -174.22, 4.65633, 62.5468, 0.425669, 60.5131
0, 2220.00000, 116.086, -35.8453, 118.548, -151.146, 126.944, 85.6198, 0, 0, 4.69245, -58.9192, 4.80318, -174.22, 4.65625, 62.546, 0.425811, 60.5123
0, 2280.00000, 116.086, -35.8464, 118.548, -151.146, 126.946, 85.6191, 0, 0, 4.69242, -58.9203, 4.80318, -174.22, 4.65619, 62.5452, 0.425939, 60.5117
0, 2340.00000, 116.085, -35.8474, 118.548, -151.146, 126.947, 85.6184, 0, 0, 4.6924, -58.9213, 4.80318, -174.22, 4.65613, 62.5446, 0.426054, 60.511
0, 2400.00000, 116.085, -35.8483, 118.548, -151.146, 126.949, 85.6178, 0, 0, 4.69237, -58.9222, 4.80318, -174.22, 4.65607, 62.544, 0.426157, 60.5105
0, 2460.00000, 116.085, -35.849, 118.548, -151.146, 126.95, 85.6173, 0, 0, 4.69236, -58.923, 4.80318, -174.22, 4.65602, 62.5434, 0.42625, 60.51
0, 2520.00000, 116.084, -35.8498, 118.548, -151.146, 126.951, 85.6168, 0, 0, 4.69234, -58.9237, 4.80318, -174.22, 4.65598, 62.543, 0.426334, 60.5096
0, 2580.00000, 116.084, -35.8504, 118.548, -151.146, 126.952, 85.6164, 0, 0, 4.69232, -58.9243, 4.80318, -174.22, 4.65594, 62.5425, 0.42641, 60.5092
0, 2640.00000, 116.084, -35.851, 118.548, -151.146, 126.953, 85.616, 0, 0, 4.69231, -58.9249, 4.80318, -174.22, 4.6559, 62.5421, 0.426477, 60.5088
0, 2700.00000, 116.083, -35.8515, 118.548, -151.146, 126.954, 85.6157, 0, 0, 4.6923, -58.9254, 4.80318, -174.22, 4.65587, 62.5418, 0.426539, 60.5085
0, 2760.00000, 116.392, -35.8253, 118.857, -151.118, 127.318, 85.649, 0, 0, 4.47626, -58.8992, 4.58176, -174.192, 4.41576, 62.5751, 0.432619, 60.6237
0, 2820.00000, 116.392, -35.8257, 118.857, -151.118, 127.319, 85.6487, 0, 0, 4.47624, -58.8996, 4.58176, -174.192, 4.41573, 62.5748, 0.432668, 60.623
0, 2880.00000, 116.391, -35.8261, 118.857, -151.118, 127.319, 85.6485, 0, 0, 4.47623, -58.9, 4.58176, -174.192, 4.41571, 62.5746, 0.432711, 60.6228
0, 2940.00000, 116.391, -35.8264, 118.857, -151.118, 127.32, 85.6482, 0, 0, 4.47623, -58.9004, 4.58176, -174.192, 4.41569, 62.5743, 0.432749, 60.6226
0, 3000.00000, 116.391, -35.8267, 118.857, -151.118, 127.32, 85.648, 0, 0, 4.47622, -58.9007, 4.58176, -174.192, 4.41567, 62.5741, 0.432783, 60.6224
0, 3060.00000, 116.391, -35.827, 118.857, -151.118, 127.321, 85.6478, 0, 0, 4.47621, -58.9009, 4.58176, -174.192, 4.41566, 62.5739, 0.432814, 60.6222
0, 3120.00000, 116.391, -35.8273, 118.857, -151.118, 127.321, 85.6477, 0, 0, 4.47621, -58.9012, 4.58176, -174.192, 4.41564, 62.5738, 0.432842, 60.6221
0, 3180.00000, 116.391, -35.8275, 118.857, -151.118, 127.322, 85.6475, 0, 0, 4.4762, -58.9014, 4.58176, -174.192, 4.41563, 62.5736, 0.432867, 60.6219
0, 3240.00000, 116.391, -35.8277, 118.857, -151.118, 127.322, 85.6474, 0, 0, 4.4762, -58.9016, 4.58176, -174.192, 4.41562, 62.5735, 0.43289, 60.6218
0, 3300.00000, 116.391, -35.8279, 118.857, -151.118, 127.322, 85.6473, 0, 0, 4.47619, -58.9018, 4.58176, -174.192, 4.41561, 62.5734, 0.43291, 60.6217
0, 3360.00000, 116.39, -35.828, 118.857, -151.118, 127.322, 85.6471, 0, 0, 4.47619, -58.902, 4.58176, -174.192, 4.4156, 62.5732, 0.432928, 60.6216
0, 3420.00000, 116.39, -35.8282, 118.857, -151.118, 127.323, 85.6471, 0, 0, 4.47619, -58.9021, 4.58176, -174.192, 4.41559, 62.5731, 0.432945, 60.6215
0, 3480.00000, 116.514, -35.6797, 119.192, -151.096, 127.325, 85.6543, 0, 0, 4.4815, -58.7536, 4.59609, -174.17, 4.4155, 62.5804, 0.435287, 60.5028
0, 3540.00000, 116.498, -35.6829, 119.271, -150.975, 127.647, 85.6906, 0, 0, 4.48081, -58.7569, 4.59946, -174.049, 4.40436, 62.6167, 0.456237, 60.4704
1, 0.00000, 116.498, -35.6831, 119.271, -150.975, 127.648, 85.6905, 0, 0, 4.48081, -58.757, 4.59946, -174.049, 4.40435, 62.6166, 0.456252, 60.47
1, 60.00000, 116.722, -35.6651, 119.499, -150.955, 127.906, 85.7148, 0, 0, 4.43787, -58.739, 4.55535, -174.029, 4.34408, 62.6408, 0.470076, 60.5305
1, 120.00000, 116.722, -35.6651, 119.499, -150.955, 127.906, 85.7147, 0, 0, 4.43787, -58.7391, 4.55535, -174.029, 4.34407, 62.6408, 0.470087, 60.5302
1, 180.00000, 116.722, -35.6652, 119.499, -150.955, 127.906, 85.7146, 0, 0, 4.43787, -58.7391, 4.55535, -174.029, 4.34407, 62.6407, 0.470096, 60.5302
1, 240.00000, 116.722, -35.6653, 119.499, -150.955, 127.906, 85.7146, 0, 0, 4.43786, -58.7392, 4.55535, -174.029, 4.34406, 62.6407, 0.470103, 60.5301
1, 300.00000, 116.721, -35.6654, 119.499, -150.955, 127.906, 85.7146, 0, 0, 4.43786, -58.7393, 4.55535, -174.029, 4.34406, 62.6406, 0.47011, 60.5301
1, 360.00000, 116.721, -35.6654, 119.499, -150.955, 127.906, 85.7145, 0, 0, 4.43786, -58.7393, 4.55535, -174.029, 4.34406, 62.6406, 0.470117, 60.5301
1, 420.00000, 116.721, -35.6655, 119.499, -150.955, 127.906, 85.7145, 0, 0, 4.43786, -58.7394, 4.55535, -174.029, 4.34405, 62.6406, 0.470122, 60.53
1, 480.00000, 116.721, -35.6655, 119.499, -150.955, 127.906, 85.7144, 0, 0, 4.43786, -58.7394, 4.55535, -174.029, 4.34405, 62.6405, 0.470127, 60.53
1, 540.00000, 116.721, -35.6656, 119.499, -150.955, 127.907, 85.7144, 0, 0, 4.43786, -58.7395, 4.55535, -174.029, 4.34405, 62.6405, 0.470132, 60.53
1, 600.00000, 117.813, -35.9144, 119.496, -150.971, 129.1, 86.0213, 0, 0, 4.48404, -58.9883, 4.55522, -174.044, 4.30388, 62.9474, 0.549731, 61.4226
1, 660.00000, 117.813, -35.9145, 119.496, -150.971, 129.101, 86.0213, 0, 0, 4.48404, -58.9884, 4.55522, -174.044, 4.30387, 62.9473, 0.549736, 61.4224
1, 720.00000, 117.813, -35.9145, 119.496, -150.971, 129.101, 86.0212, 0, 0, 4.48404, -58.9884, 4.55522, -174.044, 4.30387, 62.9473, 0.549739, 61.4224
1, 780.00000, 117.813, -35.9145, 119.496, -150.971, 129.101, 86.0212, 0, 0, 4.48404, -58.9884, 4.55522, -174.044, 4.30387, 62.9473, 0.549742, 61.4223
1, 840.00000, 117.813, -35.9145, 119.496, -150.971, 129.101, 86.0212, 0, 0, 4.48404, -58.9885, 4.55522, -174.044, 4.30387, 62.9473, 0.549745, 61.4223
1, 900.00000, 117.813, -35.9146, 119.496, -150.971, 129.101, 86.0212, 0, 0, 4.48404, -58.9885, 4.55522, -174.044, 4.30386, 62.9473, 0.549747, 61.4223
1, 960.00000, 117.865, -35.9142, 119.546, -150.968, 129.154, 86.0229, 0, 0, 4.46524, -58.9881, 4.53601, -174.042, 4.28196, 62.949, 0.55136, 61.4406
1, 1020.00000, 117.865, -35.9142, 119.546, -150.968, 129.154, 86.0229, 0, 0, 4.46523, -58.9882, 4.53601, -174.042, 4.28195, 62.949, 0.551364, 61.4402
1, 1080.00000, 117.865, -35.9143, 119.546, -150.968, 129.154, 86.0229, 0, 0, 4.46523, -58.9882, 4.53601, -174.042, 4.28195, 62.949, 0.551365, 61.4402
1, 1140.00000, 117.865, -35.9143, 119.546, -150.968, 129.154, 86.0229, 0, 0, 4.46523, -58.9882, 4.53601, -174.042, 4.28195, 62.949, 0.551367, 61.4402
1, 1200.00000, 117.865, -35.9143, 119.546, -150.968, 129.154, 86.0229, 0, 0, 4.46523, -58.9882, 4.53601, -174.042, 4.28195, 62.9489, 0.551368, 61.4402
1, 1260.00000, 117.865, -35.9143, 119.546, -150.968, 129.154, 86.0229, 0, 0, 4.46523, -58.9882, 4.53601, -174.042, 4.28195, 62.9489, 0.55137, 61.4402
1, 1320.00000, 117.865, -35.9143, 119.546, -150.968, 129.154, 86.0228, 0, 0, 4.46523, -58.9882, 4.53601, -174.042, 4.28195, 62.9489, 0.551371, 61.4402
1, 1380.00000, 117.865, -35.9143, 119.546, -150.968, 129.154, 86.0228, 0, 0, 4.46523, -58.9882, 4.53601, -174.042, 4.28195, 62.9489, 0.551372, 61.4402
1, 1440.00000, 117.865, -35.9143, 119.546, -150.968, 129.154, 86.0228, 0, 0, 4.46523, -58.9882, 4.53601, -174.042, 4.28195, 62.9489, 0.551373, 61.4402
1, 1500.00000, 117.865, -35.9143, 119.546, -150.968, 129.154, 86.0228, 0, 0, 4.46523, -58.9883, 4.53601, -174.042, 4.28195, 62.9489, 0.551374, 61.4402
1, 1560.00000, 117.865, -35.9143, 119.546, -150.968, 129.154, 86.0228, 0, 0, 4.46523, -58.9883, 4.53601, -174.042, 4.28195, 62.9489, 0.551375, 61.4402
1, 1620.00000, 117.865, -35.9143, 119.546, -150.968, 129.154, 86.0228, 0, 0, 4.46523, -58.9883, 4.53601, -174.042, 4.28195, 62.9489, 0.551375, 61.4402
1, 1680.00000, 117.865, -35.9144, 119.546, -150.968, 129.154, 86.0228, 0, 0, 4.46523, -58.9883, 4.53601, -174.042, 4.28195, 62.9489, 0.551376, 61.4402
1, 1740.00000, 117.865, -35.9144, 119.546, -150.968, 129.154, 86.0228, 0, 0, 4.46523, -58.9883, 4.53601, -174.042, 4.28195, 62.9489, 0.551376, 61.4402
1, 1800.00000, 117.865, -35.9144, 119.546, -150.968, 129.154, 86.0228, 0, 0, 4.46523, -58.9883, 4.53601, -174.042, 4.28195, 62.9489, 0.551377, 61.4402
1, 1860.00000, 118.017, -35.7268, 119.917, -151.019, 128.928, 86.0104, 0, 0, 4.57948, -58.8007, 4.66137, -174.093, 4.39291, 62.9365, 0.552979, 61.2828
1, 1920.00000, 118.017, -35.7268, 119.917, -151.019, 128.928, 86.0104, 0, 0, 4.57948, -58.8007, 4.66137, -174.093, 4.39292, 62.9365, 0.552978, 61.2831
1, 1980.00000, 118.017, -35.7268, 119.917, -151.019, 128.928, 86.0104, 0, 0, 4.57948, -58.8007, 4.66137, -174.093, 4.39292, 62.9365, 0.552978, 61.2831
1, 2040.00000, 118.017, -35.7268, 119.917, -151.019, 128.928, 86.0104, 0, 0, 4.57948, -58.8007, 4.66137, -174.093, 4.39291, 62.9365, 0.552979, 61.2831
1, 2100.00000, 118.017, -35.7268, 119.917, -151.019, 128.928, 86.0104, 0, 0, 4.57948, -58.8007, 4.66137, -174.093, 4.39291, 62.9365, 0.552979, 61.2831
1, 2160.00000, 118.017, -35.7268, 119.917, -151.019, 128.928, 86.0104, 0, 0, 4.57948, -58.8007, 4.66137, -174.093, 4.39291, 62.9365, 0.552979, 61.2831
1, 2220.00000, 118.017, -35.7268, 119.917, -151.019, 128.928, 86.0104, 0, 0, 4.57948, -58.8007, 4.66137, -174.093, 4.39291, 62.9365, 0.55298, 61.2831
1, 2280.00000, 118.017, -35.7268, 119.917, -151.019, 128.928, 86.0104, 0, 0, 4.57948, -58.8007, 4.66137, -174.093, 4.39291, 62.9365, 0.55298, 61.2831
1, 2340.00000, 118.017, -35.7268, 119.917, -151.019, 128.928, 86.0104, 0, 0, 4.57948, -58.8007, 4.66137, -174.093, 4.39291, 62.9365, 0.55298, 61.2831
1, 2400.00000, 118.017, -35.7268, 119.917, -151.019, 128.928, 86.0104, 0, 0, 4.57948, -58.8007, 4.66137, -174.093, 4.39291, 62.9365, 0.55298, 61.2831
1, 2460.00000, 118.017, -35.7268, 119.917, -151.019, 128.928, 86.0104, 0, 0, 4.57948, -58.8007, 4.66137, -174.093, 4.39291, 62.9365, 0.55298, 61.2831
1, 2520.00000, 118.017, -35.7268, 119.917, -151.019, 128.928, 86.0104, 0, 0, 4.57948, -58.8007, 4.66137, -174.093, 4.39291, 62.9365, 0.55298, 61.2831
1, 2580.00000, 118.017, -35.7268, 119.917, -151.019, 128.928, 86.0104, 0, 0, 4.57948, -58.8007, 4.66137, -174.093, 4.39291, 62.9365, 0.552981, 61.2831
1, 2640.00000, 118.017, -35.7268, 119.917, -151.019, 128.928, 86.0104, 0, 0, 4.57948, -58.8007, 4.66137, -174.093, 4.39291, 62.9365, 0.552981, 61.2831
1, 2700.00000, 118.017, -35.7268, 119.917, -151.019, 128.928, 86.0104, 0, 0, 4.57948, -58.8007, 4.66137, -174.093, 4.39291, 62.9365, 0.552981, 61.2831
1, 2760.00000, 118.487, -35.6949, 120.37, -150.976, 129.41, 86.053, 0, 0, 4.33435, -58.7688, 4.41084, -174.05, 4.12402, 62.9791, 0.557282, 61.4731
1, 2820.00000, 118.487, -35.6949, 120.37, -150.976, 129.41, 86.053, 0, 0, 4.33435, -58.7688, 4.41084, -174.05, 4.12402, 62.9791, 0.557282, 61.473
1, 2880.00000, 118.487, -35.6949, 120.37, -150.976, 129.41, 86.053, 0, 0, 4.33435, -58.7688, 4.41084, -174.05, 4.12402, 62.9791, 0.557282, 61.473
1, 2940.00000, 118.487, -35.6949, 120.37, -150.976, 129.41, 86.053, 0, 0, 4.33435, -58.7688, 4.41084, -174.05, 4.12402, 62.9791, 0.557282, 61.473
1, 3000.00000, 118.487, -35.6949, 120.37, -150.976, 129.41, 86.053, 0, 0, 4.33435, -58.7688, 4.41084, -174.05, 4.12402, 62.9791, 0.557282, 61.473
1, 3060.00000, 118.487, -35.6949, 120.37, -150.976, 129.41, 86.053, 0, 0, 4.33435, -58.7688, 4.41084, -174.05, 4.12402, 62.9791, 0.557282, 61.473
1, 3120.00000, 118.487, -35.6949, 120.37, -150.976, 129.41, 86.053, 0, 0, 4.33435, -58.7688, 4.41084, -174.05, 4.12402, 62.9791, 0.557282, 61.473
1, 3180.00000, 118.487, -35.6949, 120.37, -150.976, 129.41, 86.053, 0, 0, 4.33435, -58.7688, 4.41084, -174.05, 4.12402, 62.9791, 0.557282, 61.473
1, 3240.00000, 118.487, -35.6949, 120.37, -150.976, 129.41, 86.053, 0, 0, 4.33435, -58.7688, 4.41084, -174.05, 4.12402, 62.9791, 0.557283, 61.473
1, 3300.00000, 118.487, -35.6949, 120.37, -150.976, 129.41, 86.053, 0, 0, 4.33435, -58.7688, 4.41084, -174.05, 4.12402, 62.9791, 0.557283, 61.473
1, 3360.00000, 118.487, -35.6949, 120.37, -150.976, 129.41, 86.053, 0, 0, 4.33435, -58.7688, 4.41084, -174.05, 4.12402, 62.9791, 0.557283, 61.473
1, 3420.00000, 118.487, -35.6949, 120.37, -150.976, 129.41, 86.053, 0, 0, 4.33435, -58.7688, 4.41084, -174.05, 4.12402, 62.9791, 0.557283, 61.473
1, 3480.00000, 118.487, -35.6949, 120.37, -150.976, 129.41, 86.053, 0, 0, 4.33435, -58.7688, 4.41084, -174.05, 4.12402, 62.9791, 0.557283, 61.473
1, 3540.00000, 118.487, -35.6949, 120.37, -150.976, 129.41, 86.053, 0, 0, 4.33435, -58.7688, 4.41084, -174.05, 4.12402, 62.9791, 0.557283, 61.473
2, 0.00000, 118.487, -35.6949, 120.37, -150.976, 129.41, 86.053, 0, 0, 4.33435, -58.7688, 4.41084, -174.05, 4.12402, 62.9791, 0.557283, 61.473
2, 60.00000, 118.23, -35.7182, 120.121, -151.004, 129.145, 86.0239, 0, 0, 4.43991, -58.7921, 4.5188, -174.078, 4.24338, 62.95, 0.551887, 61.3725
2, 120.00000, 118.23, -35.7182, 120.121, -151.004, 129.145, 86.0239, 0, 0, 4.43992, -58.7921, 4.5188, -174.078, 4.24339, 62.95, 0.551884, 61.3728
2, 180.00000, 118.23, -35.7182, 120.121, -151.004, 129.145, 86.0239, 0, 0, 4.43992, -58.7921, 4.5188, -174.078, 4.24339, 62.95, 0.551884, 61.3728
2, 240.00000, 118.23, -35.7182, 120.121, -151.004, 129.145, 86.0239, 0, 0, 4.43992, -58.7921, 4.5188, -174.078, 4.24339, 62.95, 0.551884, 61.3728
2, 300.00000, 118.216, -35.7233, 120.233, -150.875, 129.505, 86.056, 0, 0, 4.43937, -58.7972, 4.52349, -173.949, 4.2316, 62.9821, 0.5749, 61.2973
2, 360.00000, 118.216, -35.7233, 120.233, -150.875, 129.505, 86.056, 0, 0, 4.43936, -58.7972, 4.52349, -173.949, 4.23159, 62.9821, 0.574902, 61.2966
2, 420.00000, 118.216, -35.7233, 120.233, -150.875, 129.505, 86.056, 0, 0, 4.43936, -58.7972, 4.52349, -173.949, 4.23159, 62.9821, 0.574902, 61.2966
2, 480.00000, 118.216, -35.7233, 120.233, -150.875, 129.505, 86.056, 0, 0, 4.43936, -58.7972, 4.52349, -173.949, 4.23159, 62.9821, 0.574902, 61.2966
2, 540.00000, 118.216, -35.7233, 120.233, -150.875, 129.505, 86.056, 0, 0, 4.43936, -58.7972, 4.52349, -173.949, 4.23159, 62.9821, 0.574902, 61.2966
2, 600.00000, 118.216, -35.7233, 120.233, -150.875, 129.505, 86.056, 0, 0, 4.43936, -58.7972, 4.52349, -173.949, 4.23159, 62.9821, 0.574902, 61.2966
2, 660.00000, 118.216, -35.7233, 120.233, -150.875, 129.505, 86.056, 0, 0, 4.43936, -58.7972, 4.52349, -173.949, 4.23159, 62.9821, 0.574902, 61.2966
2, 720.00000, 118.216, -35.7233, 120.233, -150.875, 129.505, 86.056, 0, 0, 4.43936, -58.7972, 4.52349, -173.949, 4.23159, 62.9821, 0.574902, 61.2966
2, 780.00000, 118.216, -35.7233, 120.233, -150.875, 129.505, 86.056, 0, 0, 4.43936, -58.7972, 4.52349, -173.949, 4.23159, 62.9821, 0.574902, 61.2966
