hour,t(sec),"P1 (kW)","Q1 (kvar)","P2 (kW)","Q2 (kvar)","P3 (kW)","Q3 (kvar)","P4 (kW)","Q4 (kvar)"
0, 60.00000, 0.638783, 0.272116, 0.636028, 0.270947, 0.645944, 0.275167, 0, 0
0, 120.00000, 0.638777, 0.272118, 0.636022, 0.270944, 0.645959, 0.275178, 0, 0
0, 180.00000, 0.638777, 0.272118, 0.636022, 0.270944, 0.645959, 0.275178, 0, 0
0, 240.00000, 0.638777, 0.272118, 0.636022, 0.270944, 0.645959, 0.275178, 0, 0
0, 300.00000, 0.638777, 0.272118, 0.636022, 0.270944, 0.645959, 0.275178, 0, 0
0, 360.00000, 0.638777, 0.272118, 0.636022, 0.270944, 0.645959, 0.275178, 0, 0
0, 420.00000, 0.638777, 0.272118, 0.636022, 0.270944, 0.645959, 0.275178, 0, 0
0, 480.00000, 0.638777, 0.272118, 0.636022, 0.270944, 0.645959, 0.275178, 0, 0
0, 540.00000, 0.638777, 0.272118, 0.636022, 0.270944, 0.645959, 0.275178, 0, 0
0, 600.00000, 0.638777, 0.272118, 0.636022, 0.270944, 0.645959, 0.275178, 0, 0
0, 660.00000, 0.638777, 0.272118, 0.636022, 0.270944, 0.645959, 0.275178, 0, 0
0, 720.00000, 0.638777, 0.272118, 0.636022, 0.270944, 0.645959, 0.275178, 0, 0
0, 780.00000, 0.638777, 0.272118, 0.636022, 0.270944, 0.645959, 0.275178, 0, 0
0, 840.00000, 0.638777, 0.272118, 0.636022, 0.270944, 0.645959, 0.275178, 0, 0
0, 900.00000, 0.638777, 0.272118, 0.636022, 0.270944, 0.645959, 0.275178, 0, 0
0, 960.00000, 0.672198, 0.286355, 0.667044, 0.284157, 0.683338, 0.291099, 0, 0
0, 1020.00000, 0.672195, 0.286354, 0.667035, 0.284156, 0.683342, 0.291102, 0, 0
0, 1080.00000, 0.672195, 0.286354, 0.667035, 0.284156, 0.683342, 0.291102, 0, 0
0, 1140.00000, 0.672195, 0.286354, 0.667035, 0.284156, 0.683342, 0.291102, 0, 0
0, 1200.00000, 0.672195, 0.286354, 0.667035, 0.284156, 0.683342, 0.291102, 0, 0
0, 1260.00000, 0.672195, 0.286354, 0.667035, 0.284156, 0.683342, 0.291102, 0, 0
0, 1320.00000, 0.672195, 0.286354, 0.667035, 0.284156, 0.683342, 0.291102, 0, 0
0, 1380.00000, 0.672195, 0.286354, 0.667035, 0.284156, 0.683342, 0.291102, 0, 0
0, 1440.00000, 0.672195, 0.286354, 0.667035, 0.284156, 0.683342, 0.291102, 0, 0
0, 1500.00000, 0.672195, 0.286354, 0.667035, 0.284156, 0.683342, 0.291102, 0, 0
0, 1560.00000, 0.672195, 0.286354, 0.667035, 0.284156, 0.683342, 0.291102, 0, 0
0, 1620.00000, 0.672195, 0.286354, 0.667035, 0.284156, 0.683342, 0.291102, 0, 0
0, 1680.00000, 0.672195, 0.286354, 0.667035, 0.284156, 0.683342, 0.291102, 0, 0
0, 1740.00000, 0.672195, 0.286354, 0.667035, 0.284156, 0.683342, 0.291102, 0, 0
0, 1800.00000, 0.672195, 0.286354, 0.667035, 0.284156, 0.683342, 0.291102, 0, 0
0, 1860.00000, 0.676029, 0.288002, 0.670781, 0.28575, 0.685465, 0.292021, 0, 0
0, 1920.00000, 0.676049, 0.287996, 0.6708, 0.285759, 0.685417, 0.291987, 0, 0
0, 1980.00000, 0.676049, 0.287996, 0.6708, 0.285759, 0.685417, 0.291986, 0, 0
0, 2040.00000, 0.676049, 0.287996, 0.6708, 0.285759, 0.685417, 0.291986, 0, 0
0, 2100.00000, 0.676049, 0.287996, 0.6708, 0.285759, 0.685417, 0.291986, 0, 0
0, 2160.00000, 0.676049, 0.287996, 0.6708, 0.285759, 0.685417, 0.291986, 0, 0
0, 2220.00000, 0.676049, 0.287996, 0.6708, 0.285759, 0.685417, 0.291986, 0, 0
0, 2280.00000, 0.676049, 0.287996, 0.6708, 0.285759, 0.685417, 0.291986, 0, 0
0, 2340.00000, 0.676049, 0.287996, 0.6708, 0.285759, 0.685417, 0.291986, 0, 0
0, 2400.00000, 0.676049, 0.287996, 0.6708, 0.285759, 0.685417, 0.291986, 0, 0
0, 2460.00000, 0.676049, 0.287996, 0.6708, 0.285759, 0.685417, 0.291986, 0, 0
0, 2520.00000, 0.676049, 0.287996, 0.6708, 0.285759, 0.685417, 0.291986, 0, 0
0, 2580.00000, 0.676049, 0.287996, 0.6708, 0.285759, 0.685417, 0.291986, 0, 0
0, 2640.00000, 0.676049, 0.287996, 0.6708, 0.285759, 0.685417, 0.291986, 0, 0
0, 2700.00000, 0.676049, 0.287996, 0.6708, 0.285759, 0.685417, 0.291986, 0, 0
0, 2760.00000, 0.646447, 0.275388, 0.641276, 0.273182, 0.651938, 0.277727, 0, 0
0, 2820.00000, 0.64645, 0.275387, 0.641278, 0.273183, 0.65193, 0.277721, 0, 0
0, 2880.00000, 0.64645, 0.275387, 0.641278, 0.273183, 0.65193, 0.277721, 0, 0
0, 2940.00000, 0.64645, 0.275387, 0.641278, 0.273183, 0.65193, 0.277721, 0, 0
0, 3000.00000, 0.64645, 0.275387, 0.641278, 0.273183, 0.65193, 0.277721, 0, 0
0, 3060.00000, 0.64645, 0.275387, 0.641278, 0.273183, 0.65193, 0.277721, 0, 0
0, 3120.00000, 0.64645, 0.275387, 0.641278, 0.273183, 0.65193, 0.277721, 0, 0
0, 3180.00000, 0.64645, 0.275387, 0.641278, 0.273183, 0.65193, 0.277721, 0, 0
0, 3240.00000, 0.64645, 0.275387, 0.641278, 0.273183, 0.65193, 0.277721, 0, 0
0, 3300.00000, 0.64645, 0.275387, 0.641278, 0.273183, 0.65193, 0.277721, 0, 0
0, 3360.00000, 0.64645, 0.275387, 0.641278, 0.273183, 0.65193, 0.277721, 0, 0
0, 3420.00000, 0.64645, 0.275387, 0.641278, 0.273183, 0.65193, 0.277721, 0, 0
0, 3480.00000, 0.646728, 0.275508, 0.644743, 0.274655, 0.651952, 0.277739, 0, 0
0, 3540.00000, 0.647636, 0.275891, 0.647959, 0.276032, 0.651928, 0.277721, 0, 0
1, 0.00000, 0.647637, 0.275892, 0.647966, 0.276033, 0.65193, 0.277721, 0, 0
1, 60.00000, 0.642248, 0.273599, 0.642508, 0.273706, 0.64432, 0.274483, 0, 0
1, 120.00000, 0.642249, 0.273597, 0.642509, 0.273708, 0.644309, 0.274475, 0, 0
1, 180.00000, 0.642249, 0.273597, 0.642509, 0.273708, 0.644309, 0.274474, 0, 0
1, 240.00000, 0.642249, 0.273597, 0.642509, 0.273708, 0.644309, 0.274474, 0, 0
1, 300.00000, 0.642249, 0.273597, 0.642509, 0.273708, 0.644309, 0.274474, 0, 0
1, 360.00000, 0.642249, 0.273597, 0.642509, 0.273708, 0.644309, 0.274474, 0, 0
1, 420.00000, 0.642249, 0.273597, 0.642509, 0.273708, 0.644309, 0.274474, 0, 0
1, 480.00000, 0.642249, 0.273597, 0.642509, 0.273708, 0.644309, 0.274474, 0, 0
1, 540.00000, 0.642249, 0.273597, 0.642509, 0.273708, 0.644309, 0.274474, 0, 0
1, 600.00000, 0.642249, 0.273597, 0.642509, 0.273708, 0.644309, 0.274474, 0, 0
1, 660.00000, 0.642249, 0.273597, 0.642509, 0.273708, 0.644309, 0.274474, 0, 0
1, 720.00000, 0.642249, 0.273597, 0.642509, 0.273708, 0.644309, 0.274474, 0, 0
1, 780.00000, 0.642249, 0.273597, 0.642509, 0.273708, 0.644309, 0.274474, 0, 0
1, 840.00000, 0.642249, 0.273597, 0.642509, 0.273708, 0.644309, 0.274474, 0, 0
1, 900.00000, 0.642249, 0.273597, 0.642509, 0.273708, 0.644309, 0.274474, 0, 0
1, 960.00000, 0.639678, 0.272507, 0.639917, 0.272603, 0.64131, 0.273202, 0, 0
1, 1020.00000, 0.639685, 0.272505, 0.639925, 0.272607, 0.641293, 0.27319, 0, 0
1, 1080.00000, 0.639685, 0.272505, 0.639925, 0.272607, 0.641293, 0.27319, 0, 0
1, 1140.00000, 0.639685, 0.272505, 0.639925, 0.272607, 0.641293, 0.27319, 0, 0
1, 1200.00000, 0.639685, 0.272505, 0.639925, 0.272607, 0.641293, 0.27319, 0, 0
1, 1260.00000, 0.639685, 0.272505, 0.639925, 0.272607, 0.641293, 0.27319, 0, 0
1, 1320.00000, 0.639685, 0.272505, 0.639925, 0.272607, 0.641293, 0.27319, 0, 0
1, 1380.00000, 0.639685, 0.272505, 0.639925, 0.272607, 0.641293, 0.27319, 0, 0
1, 1440.00000, 0.639685, 0.272505, 0.639925, 0.272607, 0.641293, 0.27319, 0, 0
1, 1500.00000, 0.639685, 0.272505, 0.639925, 0.272607, 0.641293, 0.27319, 0, 0
1, 1560.00000, 0.639685, 0.272505, 0.639925, 0.272607, 0.641293, 0.27319, 0, 0
1, 1620.00000, 0.639685, 0.272505, 0.639925, 0.272607, 0.641293, 0.27319, 0, 0
1, 1680.00000, 0.639685, 0.272505, 0.639925, 0.272607, 0.641293, 0.27319, 0, 0
1, 1740.00000, 0.639685, 0.272505, 0.639925, 0.272607, 0.641293, 0.27319, 0, 0
1, 1800.00000, 0.639685, 0.272505, 0.639925, 0.272607, 0.641293, 0.27319, 0, 0
1, 1860.00000, 0.654976, 0.279014, 0.656771, 0.279792, 0.656741, 0.279767, 0, 0
1, 1920.00000, 0.654979, 0.27902, 0.65676, 0.279779, 0.656759, 0.279778, 0, 0
1, 1980.00000, 0.654979, 0.27902, 0.65676, 0.279778, 0.65676, 0.279778, 0, 0
1, 2040.00000, 0.654979, 0.27902, 0.65676, 0.279778, 0.65676, 0.279778, 0, 0
1, 2100.00000, 0.654979, 0.27902, 0.65676, 0.279778, 0.65676, 0.279778, 0, 0
1, 2160.00000, 0.654979, 0.27902, 0.65676, 0.279778, 0.65676, 0.279778, 0, 0
1, 2220.00000, 0.654979, 0.27902, 0.65676, 0.279778, 0.65676, 0.279778, 0, 0
1, 2280.00000, 0.654979, 0.27902, 0.65676, 0.279778, 0.65676, 0.279778, 0, 0
1, 2340.00000, 0.654979, 0.27902, 0.65676, 0.279778, 0.65676, 0.279778, 0, 0
1, 2400.00000, 0.654979, 0.27902, 0.65676, 0.279778, 0.65676, 0.279778, 0, 0
1, 2460.00000, 0.654979, 0.27902, 0.65676, 0.279778, 0.65676, 0.279778, 0, 0
1, 2520.00000, 0.654979, 0.27902, 0.65676, 0.279778, 0.65676, 0.279778, 0, 0
1, 2580.00000, 0.654979, 0.27902, 0.65676, 0.279778, 0.65676, 0.279778, 0, 0
1, 2640.00000, 0.654979, 0.27902, 0.65676, 0.279778, 0.65676, 0.279778, 0, 0
1, 2700.00000, 0.654979, 0.27902, 0.65676, 0.279778, 0.65676, 0.279778, 0, 0
1, 2760.00000, 0.61887, 0.263642, 0.618878, 0.263642, 0.618885, 0.263651, 0, 0
1, 2820.00000, 0.618866, 0.263636, 0.618866, 0.263636, 0.618866, 0.263636, 0, 0
1, 2880.00000, 0.618866, 0.263636, 0.618866, 0.263636, 0.618866, 0.263636, 0, 0
1, 2940.00000, 0.618866, 0.263636, 0.618866, 0.263636, 0.618866, 0.263636, 0, 0
1, 3000.00000, 0.618866, 0.263636, 0.618866, 0.263636, 0.618866, 0.263636, 0, 0
1, 3060.00000, 0.618866, 0.263636, 0.618866, 0.263636, 0.618866, 0.263636, 0, 0
1, 3120.00000, 0.618866, 0.263636, 0.618866, 0.263636, 0.618866, 0.263636, 0, 0
1, 3180.00000, 0.618866, 0.263636, 0.618866, 0.263636, 0.618866, 0.263636, 0, 0
1, 3240.00000, 0.618866, 0.263636, 0.618866, 0.263636, 0.618866, 0.263636, 0, 0
1, 3300.00000, 0.618866, 0.263636, 0.618866, 0.263636, 0.618866, 0.263636, 0, 0
1, 3360.00000, 0.618866, 0.263636, 0.618866, 0.263636, 0.618866, 0.263636, 0, 0
1, 3420.00000, 0.618866, 0.263636, 0.618866, 0.263636, 0.618866, 0.263636, 0, 0
1, 3480.00000, 0.618866, 0.263636, 0.618866, 0.263636, 0.618866, 0.263636, 0, 0
1, 3540.00000, 0.618866, 0.263636, 0.618866, 0.263636, 0.618866, 0.263636, 0, 0
2, 0.00000, 0.618866, 0.263636, 0.618866, 0.263636, 0.618866, 0.263636, 0, 0
2, 60.00000, 0.635471, 0.270707, 0.635466, 0.270706, 0.635463, 0.270702, 0, 0
2, 120.00000, 0.635471, 0.270709, 0.635474, 0.270711, 0.635474, 0.270711, 0, 0
2, 180.00000, 0.635471, 0.270709, 0.635474, 0.270711, 0.635474, 0.270711, 0, 0
2, 240.00000, 0.635471, 0.270709, 0.635474, 0.270711, 0.635474, 0.270711, 0, 0
2, 300.00000, 0.635471, 0.270709, 0.635474, 0.270711, 0.635474, 0.270711, 0, 0
2, 360.00000, 0.635471, 0.270709, 0.635474, 0.270711, 0.635474, 0.270711, 0, 0
2, 420.00000, 0.635471, 0.270709, 0.635474, 0.270711, 0.635474, 0.270711, 0, 0
2, 480.00000, 0.635471, 0.270709, 0.635474, 0.270711, 0.635474, 0.270711, 0, 0
2, 540.00000, 0.635471, 0.270709, 0.635474, 0.270711, 0.635474, 0.270711, 0, 0
2, 600.00000, 0.635471, 0.270709, 0.635474, 0.270711, 0.635474, 0.270711, 0, 0
2, 660.00000, 0.635471, 0.270709, 0.635474, 0.270711, 0.635474, 0.270711, 0, 0
2, 720.00000, 0.635471, 0.270709, 0.635474, 0.270711, 0.635474, 0.270711, 0, 0
2, 780.00000, 0.635471, 0.270709, 0.635474, 0.270711, 0.635474, 0.270711, 0, 0
2, 840.00000, 0.635471, 0.270709, 0.635474, 0.270711, 0.635474, 0.270711, 0, 0
2, 900.00000, 0.635471, 0.270709, 0.635474, 0.270711, 0.635474, 0.270711, 0, 0
2, 960.00000, 0.602119, 0.256506, 0.602123, 0.256504, 0.602129, 0.256511, 0, 0
2, 1020.00000, 0.602115, 0.2565, 0.602115, 0.2565, 0.602115, 0.2565, 0, 0
2, 1080.00000, 0.602115, 0.2565, 0.602115, 0.2565, 0.602115, 0.2565, 0, 0
2, 1140.00000, 0.602115, 0.2565, 0.602115, 0.2565, 0.602115, 0.2565, 0, 0
2, 1200.00000, 0.602115, 0.2565, 0.602115, 0.2565, 0.602115, 0.2565, 0, 0
2, 1260.00000, 0.602115, 0.2565, 0.602115, 0.2565, 0.602115, 0.2565, 0, 0
2, 1320.00000, 0.602115, 0.2565, 0.602115, 0.2565, 0.602115, 0.2565, 0, 0
2, 1380.00000, 0.602115, 0.2565, 0.602115, 0.2565, 0.602115, 0.2565, 0, 0
2, 1440.00000, 0.602115, 0.2565, 0.602115, 0.2565, 0.602115, 0.2565, 0, 0
2, 1500.00000, 0.602115, 0.2565, 0.602115, 0.2565, 0.602115, 0.2565, 0, 0
2, 1560.00000, 0.602115, 0.2565, 0.602115, 0.2565, 0.602115, 0.2565, 0, 0
2, 1620.00000, 0.602115, 0.2565, 0.602115, 0.2565, 0.602115, 0.2565, 0, 0
2, 1680.00000, 0.602115, 0.2565, 0.602115, 0.2565, 0.602115, 0.2565, 0, 0
2, 1740.00000, 0.602115, 0.2565, 0.602115, 0.2565, 0.602115, 0.2565, 0, 0
2, 1800.00000, 0.602115, 0.2565, 0.602115, 0.2565, 0.602115, 0.2565, 0, 0
2, 1860.00000, 0.601784, 0.256357, 0.601783, 0.256358, 0.60178, 0.256356, 0, 0
2, 1920.00000, 0.601786, 0.25636, 0.601786, 0.25636, 0.601786, 0.25636, 0, 0
2, 1980.00000, 0.601786, 0.25636, 0.601786, 0.25636, 0.601786, 0.25636, 0, 0
2, 2040.00000, 0.601786, 0.25636, 0.601786, 0.25636, 0.601786, 0.25636, 0, 0
2, 2100.00000, 0.601786, 0.25636, 0.601786, 0.25636, 0.601786, 0.25636, 0, 0
2, 2160.00000, 0.601786, 0.25636, 0.601786, 0.25636, 0.601786, 0.25636, 0, 0
2, 2220.00000, 0.601786, 0.25636, 0.601786, 0.25636, 0.601786, 0.25636, 0, 0
2, 2280.00000, 0.601786, 0.25636, 0.601786, 0.25636, 0.601786, 0.25636, 0, 0
2, 2340.00000, 0.601786, 0.25636, 0.601786, 0.25636, 0.601786, 0.25636, 0, 0
2, 2400.00000, 0.601786, 0.25636, 0.601786, 0.25636, 0.601786, 0.25636, 0, 0
2, 2460.00000, 0.601786, 0.25636, 0.601786, 0.25636, 0.601786, 0.25636, 0, 0
2, 2520.00000, 0.601786, 0.25636, 0.601786, 0.25636, 0.601786, 0.25636, 0, 0
2, 2580.00000, 0.601786, 0.25636, 0.601786, 0.25636, 0.601786, 0.25636, 0, 0
2, 2640.00000, 0.601786, 0.25636, 0.601786, 0.25636, 0.601786, 0.25636, 0, 0
2, 2700.00000, 0.601786, 0.25636, 0.601786, 0.25636, 0.601786, 0.25636, 0, 0
2, 2760.00000, 0.575771, 0.245282, 0.575776, 0.245281, 0.575781, 0.245287, 0, 0
2, 2820.00000, 0.575765, 0.245275, 0.575765, 0.245275, 0.575765, 0.245275, 0, 0
2, 2880.00000, 0.575765, 0.245275, 0.575765, 0.245275, 0.575765, 0.245275, 0, 0
2, 2940.00000, 0.575765, 0.245275, 0.575765, 0.245275, 0.575765, 0.245275, 0, 0
2, 3000.00000, 0.575765, 0.245275, 0.575765, 0.245275, 0.575765, 0.245275, 0, 0
2, 3060.00000, 0.575765, 0.245275, 0.575765, 0.245275, 0.575765, 0.245275, 0, 0
2, 3120.00000, 0.575765, 0.245275, 0.575765, 0.245275, 0.575765, 0.245275, 0, 0
2, 3180.00000, 0.575765, 0.245275, 0.575765, 0.245275, 0.575765, 0.245275, 0, 0
2, 3240.00000, 0.575765, 0.245275, 0.575765, 0.245275, 0.575765, 0.245275, 0, 0
2, 3300.00000, 0.575765, 0.245275, 0.575765, 0.245275, 0.575765, 0.245275, 0, 0
2, 3360.00000, 0.575765, 0.245275, 0.575765, 0.245275, 0.575765, 0.245275, 0, 0
2, 3420.00000, 0.575765, 0.245275, 0.575765, 0.245275, 0.575765, 0.245275, 0, 0
2, 3480.00000, 0.575765, 0.245275, 0.575765, 0.245275, 0.575765, 0.245275, 0, 0
2, 3540.00000, 0.575765, 0.245275, 0.575765, 0.245275, 0.575765, 0.245275, 0, 0
3, 0.00000, 0.575765, 0.245275, 0.575765, 0.245275, 0.575765, 0.245275, 0, 0
3, 60.00000, 0.590402, 0.251507, 0.5904, 0.251508, 0.590397, 0.251505, 0, 0
3, 120.00000, 0.590406, 0.251512, 0.590406, 0.251512, 0.590406, 0.251512, 0, 0
3, 180.00000, 0.590406, 0.251512, 0.590406, 0.251512, 0.590406, 0.251512, 0, 0
3, 240.00000, 0.590406, 0.251512, 0.590406, 0.251512, 0.590406, 0.251512, 0, 0
3, 300.00000, 0.590406, 0.251512, 0.590406, 0.251512, 0.590406, 0.251512, 0, 0
3, 360.00000, 0.590406, 0.251512, 0.590406, 0.251512, 0.590406, 0.251512, 0, 0
3, 420.00000, 0.590406, 0.251512, 0.590406, 0.251512, 0.590406, 0.251512, 0, 0
3, 480.00000, 0.590406, 0.251512, 0.590406, 0.251512, 0.590406, 0.251512, 0, 0
3, 540.00000, 0.590406, 0.251512, 0.590406, 0.251512, 0.590406, 0.251512, 0, 0
3, 600.00000, 0.590406, 0.251512, 0.590406, 0.251512, 0.590406, 0.251512, 0, 0
3, 660.00000, 0.590406, 0.251512, 0.590406, 0.251512, 0.590406, 0.251512, 0, 0
3, 720.00000, 0.590406, 0.251512, 0.590406, 0.251512, 0.590406, 0.251512, 0, 0
3, 780.00000, 0.590406, 0.251512, 0.590406, 0.251512, 0.590406, 0.251512, 0, 0
3, 840.00000, 0.590406, 0.251512, 0.590406, 0.251512, 0.590406, 0.251512, 0, 0
3, 900.00000, 0.590406, 0.251512, 0.590406, 0.251512, 0.590406, 0.251512, 0, 0
3, 960.00000, 0.606637, 0.258433, 0.606641, 0.258431, 0.606649, 0.258438, 0, 0
3, 1020.00000, 0.606628, 0.258422, 0.606628, 0.258422, 0.606628, 0.258423, 0, 0
3, 1080.00000, 0.606628, 0.258422, 0.606628, 0.258422, 0.606628, 0.258422, 0, 0
3, 1140.00000, 0.606628, 0.258422, 0.606628, 0.258422, 0.606628, 0.258422, 0, 0
3, 1200.00000, 0.606628, 0.258422, 0.606628, 0.258422, 0.606628, 0.258422, 0, 0
3, 1260.00000, 0.606628, 0.258422, 0.606628, 0.258422, 0.606628, 0.258422, 0, 0
3, 1320.00000, 0.606628, 0.258422, 0.606628, 0.258422, 0.606628, 0.258422, 0, 0
3, 1380.00000, 0.606628, 0.258422, 0.606628, 0.258422, 0.606628, 0.258422, 0, 0
3, 1440.00000, 0.606628, 0.258422, 0.606628, 0.258422, 0.606628, 0.258422, 0, 0
3, 1500.00000, 0.606628, 0.258422, 0.606628, 0.258422, 0.606628, 0.258422, 0, 0
3, 1560.00000, 0.606628, 0.258422, 0.606628, 0.258422, 0.606628, 0.258422, 0, 0
3, 1620.00000, 0.606628, 0.258422, 0.606628, 0.258422, 0.606628, 0.258422, 0, 0
3, 1680.00000, 0.606628, 0.258422, 0.606628, 0.258422, 0.606628, 0.258422, 0, 0
3, 1740.00000, 0.606628, 0.258422, 0.606628, 0.258422, 0.606628, 0.258422, 0, 0
3, 1800.00000, 0.606628, 0.258422, 0.606628, 0.258422, 0.606628, 0.258422, 0, 0
3, 1860.00000, 0.614053, 0.261591, 0.614054, 0.26159, 0.614055, 0.261592, 0, 0
3, 1920.00000, 0.614045, 0.261582, 0.614046, 0.261582, 0.614046, 0.261582, 0, 0
3, 1980.00000, 0.614045, 0.261582, 0.614045, 0.261582, 0.614045, 0.261582, 0, 0
3, 2040.00000, 0.614045, 0.261582, 0.614045, 0.261582, 0.614045, 0.261582, 0, 0
3, 2100.00000, 0.614045, 0.261582, 0.614045, 0.261582, 0.614045, 0.261582, 0, 0
3, 2160.00000, 0.614045, 0.261582, 0.614045, 0.261582, 0.614045, 0.261582, 0, 0
3, 2220.00000, 0.614045, 0.261582, 0.614045, 0.261582, 0.614045, 0.261582, 0, 0
3, 2280.00000, 0.614045, 0.261582, 0.614045, 0.261582, 0.614045, 0.261582, 0, 0
3, 2340.00000, 0.614045, 0.261582, 0.614045, 0.261582, 0.614045, 0.261582, 0, 0
3, 2400.00000, 0.614045, 0.261582, 0.614045, 0.261582, 0.614045, 0.261582, 0, 0
3, 2460.00000, 0.614045, 0.261582, 0.614045, 0.261582, 0.614045, 0.261582, 0, 0
3, 2520.00000, 0.614045, 0.261582, 0.614045, 0.261582, 0.614045, 0.261582, 0, 0
3, 2580.00000, 0.614045, 0.261582, 0.614045, 0.261582, 0.614045, 0.261582, 0, 0
3, 2640.00000, 0.614045, 0.261582, 0.614045, 0.261582, 0.614045, 0.261582, 0, 0
3, 2700.00000, 0.614045, 0.261582, 0.614045, 0.261582, 0.614045, 0.261582, 0, 0
3, 2760.00000, 0.561906, 0.239376, 0.561908, 0.239374, 0.561912, 0.239378, 0, 0
3, 2820.00000, 0.561898, 0.239367, 0.561898, 0.239367, 0.561898, 0.239367, 0, 0
3, 2880.00000, 0.561898, 0.239367, 0.561898, 0.239367, 0.561898, 0.239367, 0, 0
3, 2940.00000, 0.561898, 0.239367, 0.561898, 0.239367, 0.561898, 0.239367, 0, 0
3, 3000.00000, 0.561898, 0.239367, 0.561898, 0.239367, 0.561898, 0.239367, 0, 0
3, 3060.00000, 0.561898, 0.239367, 0.561898, 0.239367, 0.561898, 0.239367, 0, 0
3, 3120.00000, 0.561898, 0.239367, 0.561898, 0.239367, 0.561898, 0.239367, 0, 0
3, 3180.00000, 0.561898, 0.239367, 0.561898, 0.239367, 0.561898, 0.239367, 0, 0
3, 3240.00000, 0.561898, 0.239367, 0.561898, 0.239367, 0.561898, 0.239367, 0, 0
3, 3300.00000, 0.561898, 0.239367, 0.561898, 0.239367, 0.561898, 0.239367, 0, 0
3, 3360.00000, 0.561898, 0.239367, 0.561898, 0.239367, 0.561898, 0.239367, 0, 0
3, 3420.00000, 0.561898, 0.239367, 0.561898, 0.239367, 0.561898, 0.239367, 0, 0
3, 3480.00000, 0.561898, 0.239367, 0.561898, 0.239367, 0.561898, 0.239367, 0, 0
3, 3540.00000, 0.561898, 0.239367, 0.561898, 0.239367, 0.561898, 0.239367, 0, 0
4, 0.00000, 0.561898, 0.239367, 0.561898, 0.239367, 0.561898, 0.239367, 0, 0
4, 60.00000, 0.601095, 0.256062, 0.601093, 0.256063, 0.60109, 0.25606, 0, 0
4, 120.00000, 0.601101, 0.256068, 0.601101, 0.256068, 0.601101, 0.256068, 0, 0
4, 180.00000, 0.601101, 0.256068, 0.601101, 0.256068, 0.601101, 0.256068, 0, 0
4, 240.00000, 0.601101, 0.256068, 0.601101, 0.256068, 0.601101, 0.256068, 0, 0
4, 300.00000, 0.601101, 0.256068, 0.601101, 0.256068, 0.601101, 0.256068, 0, 0
4, 360.00000, 0.601101, 0.256068, 0.601101, 0.256068, 0.601101, 0.256068, 0, 0
4, 420.00000, 0.601101, 0.256068, 0.601101, 0.256068, 0.601101, 0.256068, 0, 0
4, 480.00000, 0.601101, 0.256068, 0.601101, 0.256068, 0.601101, 0.256068, 0, 0
4, 540.00000, 0.601101, 0.256068, 0.601101, 0.256068, 0.601101, 0.256068, 0, 0
4, 600.00000, 0.601101, 0.256068, 0.601101, 0.256068, 0.601101, 0.256068, 0, 0
4, 660.00000, 0.601101, 0.256068, 0.601101, 0.256068, 0.601101, 0.256068, 0, 0
4, 720.00000, 0.601101, 0.256068, 0.601101, 0.256068, 0.601101, 0.256068, 0, 0
