hour,t(sec),"P1 (kW)","Q1 (kvar)","P2 (kW)","Q2 (kvar)","P3 (kW)","Q3 (kvar)","P4 (kW)","Q4 (kvar)"
0, 60.00000, 0.939247, 0.400118, 0.939761, 0.400321, 1.0145, 0.432152, 0, 0
0, 120.00000, 0.939152, 0.400077, 0.939756, 0.400321, 1.0145, 0.432151, 0, 0
0, 180.00000, 0.939066, 0.40004, 0.939751, 0.40032, 1.01449, 0.432151, 0, 0
0, 240.00000, 0.938987, 0.400007, 0.939747, 0.40032, 1.01449, 0.43215, 0, 0
0, 300.00000, 0.938916, 0.399976, 0.939743, 0.400319, 1.01448, 0.43215, 0, 0
0, 360.00000, 0.938851, 0.399949, 0.93974, 0.400319, 1.01448, 0.43215, 0, 0
0, 420.00000, 0.938793, 0.399924, 0.939737, 0.400318, 1.01447, 0.43215, 0, 0
0, 480.00000, 0.83117, 0.354076, 0.831496, 0.354209, 0.882596, 0.375973, 0, 0
0, 540.00000, 0.831128, 0.354058, 0.831494, 0.354209, 0.882593, 0.375972, 0, 0
0, 600.00000, 0.831091, 0.354042, 0.831492, 0.354209, 0.88259, 0.375972, 0, 0
0, 660.00000, 0.831057, 0.354028, 0.831491, 0.354209, 0.882588, 0.375972, 0, 0
0, 720.00000, 0.831026, 0.354015, 0.831489, 0.354209, 0.882586, 0.375972, 0, 0
0, 780.00000, 0.830999, 0.354003, 0.831488, 0.354209, 0.882584, 0.375972, 0, 0
0, 840.00000, 0.830974, 0.353993, 0.831487, 0.354209, 0.882583, 0.375972, 0, 0
0, 900.00000, 0.830952, 0.353983, 0.831486, 0.354209, 0.882582, 0.375972, 0, 0
0, 960.00000, 0.808649, 0.344484, 0.831457, 0.354197, 0.882578, 0.375972, 0, 0
0, 1020.00000, 0.80863, 0.344476, 0.831456, 0.354197, 0.882578, 0.375973, 0, 0
0, 1080.00000, 0.808613, 0.344469, 0.831456, 0.354196, 0.882577, 0.375973, 0, 0
0, 1140.00000, 0.808597, 0.344462, 0.831455, 0.354196, 0.882576, 0.375973, 0, 0
0, 1200.00000, 0.808583, 0.344456, 0.831454, 0.354196, 0.882575, 0.375973, 0, 0
0, 1260.00000, 0.80857, 0.34445, 0.831454, 0.354196, 0.882575, 0.375973, 0, 0
0, 1320.00000, 0.808559, 0.344445, 0.831453, 0.354196, 0.882574, 0.375973, 0, 0
0, 1380.00000, 0.808549, 0.344441, 0.831453, 0.354196, 0.882574, 0.375973, 0, 0
0, 1440.00000, 0.808539, 0.344437, 0.831453, 0.354196, 0.882573, 0.375973, 0, 0
0, 1500.00000, 0.808531, 0.344433, 0.831452, 0.354196, 0.882573, 0.375973, 0, 0
0, 1560.00000, 0.808523, 0.34443, 0.831452, 0.354196, 0.882572, 0.375973, 0, 0
0, 1620.00000, 0.808516, 0.344427, 0.831452, 0.354196, 0.882572, 0.375973, 0, 0
0, 1680.00000, 0.80851, 0.344424, 0.831452, 0.354196, 0.882572, 0.375973, 0, 0
0, 1740.00000, 0.808505, 0.344422, 0.831451, 0.354196, 0.882571, 0.375973, 0, 0
0, 1800.00000, 0.8085, 0.34442, 0.831451, 0.354196, 0.882571, 0.375973, 0, 0
0, 1860.00000, 0.808495, 0.344418, 0.831451, 0.354196, 0.882571, 0.375973, 0, 0
0, 1920.00000, 0.808491, 0.344416, 0.831451, 0.354196, 0.882571, 0.375973, 0, 0
0, 1980.00000, 0.808488, 0.344414, 0.831451, 0.354196, 0.882571, 0.375973, 0, 0
0, 2040.00000, 0.808484, 0.344413, 0.831451, 0.354196, 0.88257, 0.375973, 0, 0
0, 2100.00000, 0.808481, 0.344412, 0.83145, 0.354196, 0.88257, 0.375973, 0, 0
0, 2160.00000, 0.808479, 0.344411, 0.83145, 0.354196, 0.88257, 0.375973, 0, 0
0, 2220.00000, 0.808476, 0.34441, 0.83145, 0.354196, 0.88257, 0.375973, 0, 0
0, 2280.00000, 0.808474, 0.344409, 0.83145, 0.354196, 0.88257, 0.375973, 0, 0
0, 2340.00000, 0.808472, 0.344408, 0.83145, 0.354196, 0.88257, 0.375973, 0, 0
0, 2400.00000, 0.808471, 0.344407, 0.83145, 0.354196, 0.88257, 0.375973, 0, 0
0, 2460.00000, 0.808469, 0.344406, 0.83145, 0.354196, 0.88257, 0.375973, 0, 0
0, 2520.00000, 0.808468, 0.344406, 0.83145, 0.354196, 0.88257, 0.375973, 0, 0
0, 2580.00000, 0.808466, 0.344405, 0.83145, 0.354196, 0.88257, 0.375973, 0, 0
0, 2640.00000, 0.808465, 0.344405, 0.83145, 0.354196, 0.882569, 0.375973, 0, 0
0, 2700.00000, 0.808464, 0.344404, 0.83145, 0.354196, 0.882569, 0.375973, 0, 0
0, 2760.00000, 0.808417, 0.344384, 0.833719, 0.355163, 0.88257, 0.375973, 0, 0
0, 2820.00000, 0.808416, 0.344384, 0.833719, 0.355163, 0.882569, 0.375973, 0, 0
0, 2880.00000, 0.808416, 0.344384, 0.833719, 0.355163, 0.882569, 0.375973, 0, 0
0, 2940.00000, 0.808415, 0.344383, 0.833719, 0.355163, 0.882569, 0.375973, 0, 0
0, 3000.00000, 0.808414, 0.344383, 0.833719, 0.355163, 0.882569, 0.375973, 0, 0
0, 3060.00000, 0.808414, 0.344383, 0.833719, 0.355163, 0.882569, 0.375973, 0, 0
0, 3120.00000, 0.808413, 0.344383, 0.833719, 0.355163, 0.882569, 0.375973, 0, 0
0, 3180.00000, 0.808413, 0.344382, 0.833719, 0.355163, 0.882569, 0.375973, 0, 0
0, 3240.00000, 0.808412, 0.344382, 0.833719, 0.355163, 0.882569, 0.375973, 0, 0
0, 3300.00000, 0.808412, 0.344382, 0.833719, 0.355163, 0.882569, 0.375973, 0, 0
0, 3360.00000, 0.808412, 0.344382, 0.833719, 0.355163, 0.882569, 0.375973, 0, 0
0, 3420.00000, 0.808411, 0.344382, 0.833719, 0.355163, 0.882569, 0.375973, 0, 0
0, 3480.00000, 0.808411, 0.344382, 0.833719, 0.355163, 0.882569, 0.375973, 0, 0
0, 3540.00000, 0.808411, 0.344382, 0.833719, 0.355163, 0.882569, 0.375973, 0, 0
1, 0.00000, 0.808411, 0.344382, 0.833719, 0.355163, 0.882569, 0.375973, 0, 0
1, 60.00000, 0.809912, 0.345021, 0.838264, 0.357099, 0.882569, 0.375973, 0, 0
1, 120.00000, 0.809911, 0.345021, 0.838264, 0.357099, 0.882569, 0.375973, 0, 0
1, 180.00000, 0.809911, 0.345021, 0.838264, 0.357099, 0.882569, 0.375973, 0, 0
1, 240.00000, 0.809911, 0.345021, 0.838264, 0.357099, 0.882569, 0.375973, 0, 0
1, 300.00000, 0.809911, 0.345021, 0.838264, 0.357099, 0.882569, 0.375973, 0, 0
1, 360.00000, 0.809911, 0.345021, 0.838264, 0.357099, 0.882569, 0.375973, 0, 0
1, 420.00000, 0.809911, 0.345021, 0.838264, 0.357099, 0.882569, 0.375973, 0, 0
1, 480.00000, 0.809911, 0.345021, 0.838264, 0.357099, 0.882569, 0.375973, 0, 0
1, 540.00000, 0.809911, 0.345021, 0.838264, 0.357099, 0.882569, 0.375973, 0, 0
1, 600.00000, 0.809911, 0.34502, 0.838264, 0.357099, 0.882569, 0.375973, 0, 0
1, 660.00000, 0.80991, 0.34502, 0.838264, 0.357099, 0.882569, 0.375973, 0, 0
1, 720.00000, 0.80991, 0.34502, 0.838264, 0.357099, 0.882569, 0.375973, 0, 0
1, 780.00000, 0.80991, 0.34502, 0.838264, 0.357099, 0.882569, 0.375973, 0, 0
1, 840.00000, 0.80991, 0.34502, 0.838264, 0.357099, 0.882569, 0.375973, 0, 0
1, 900.00000, 0.80991, 0.34502, 0.838264, 0.357099, 0.882569, 0.375973, 0, 0
1, 960.00000, 0.80991, 0.34502, 0.838264, 0.357099, 0.882569, 0.375973, 0, 0
1, 1020.00000, 0.80991, 0.34502, 0.838264, 0.357099, 0.882569, 0.375973, 0, 0
1, 1080.00000, 0.80991, 0.34502, 0.838264, 0.357099, 0.882569, 0.375973, 0, 0
1, 1140.00000, 0.80991, 0.34502, 0.838264, 0.357099, 0.882569, 0.375973, 0, 0
1, 1200.00000, 0.80991, 0.34502, 0.838264, 0.357099, 0.882569, 0.375973, 0, 0
1, 1260.00000, 0.80991, 0.34502, 0.838264, 0.357099, 0.882569, 0.375973, 0, 0
1, 1320.00000, 0.80991, 0.34502, 0.838264, 0.357099, 0.882569, 0.375973, 0, 0
1, 1380.00000, 0.80991, 0.34502, 0.838264, 0.357099, 0.882569, 0.375973, 0, 0
1, 1440.00000, 0.80991, 0.34502, 0.838264, 0.357099, 0.882569, 0.375973, 0, 0
1, 1500.00000, 0.80991, 0.34502, 0.838264, 0.357099, 0.882569, 0.375973, 0, 0
1, 1560.00000, 0.80991, 0.34502, 0.838264, 0.357099, 0.882569, 0.375973, 0, 0
1, 1620.00000, 0.80991, 0.34502, 0.838264, 0.357099, 0.882569, 0.375973, 0, 0
1, 1680.00000, 0.80991, 0.34502, 0.838264, 0.357099, 0.882569, 0.375973, 0, 0
1, 1740.00000, 0.80991, 0.34502, 0.838264, 0.357099, 0.882569, 0.375973, 0, 0
1, 1800.00000, 0.80991, 0.34502, 0.838264, 0.357099, 0.882569, 0.375973, 0, 0
1, 1860.00000, 0.80991, 0.34502, 0.838264, 0.357099, 0.882569, 0.375973, 0, 0
1, 1920.00000, 0.80991, 0.34502, 0.838264, 0.357099, 0.882569, 0.375973, 0, 0
1, 1980.00000, 0.80991, 0.34502, 0.838264, 0.357099, 0.882569, 0.375973, 0, 0
1, 2040.00000, 0.80991, 0.34502, 0.838264, 0.357099, 0.882569, 0.375973, 0, 0
1, 2100.00000, 0.80991, 0.34502, 0.838264, 0.357099, 0.882569, 0.375973, 0, 0
1, 2160.00000, 0.80991, 0.34502, 0.838264, 0.357099, 0.882569, 0.375973, 0, 0
1, 2220.00000, 0.80991, 0.34502, 0.838264, 0.357099, 0.882569, 0.375973, 0, 0
1, 2280.00000, 0.80991, 0.34502, 0.838264, 0.357099, 0.882569, 0.375973, 0, 0
1, 2340.00000, 0.80991, 0.34502, 0.838264, 0.357099, 0.882569, 0.375973, 0, 0
1, 2400.00000, 0.80991, 0.34502, 0.838264, 0.357099, 0.882569, 0.375973, 0, 0
1, 2460.00000, 0.80991, 0.34502, 0.838264, 0.357099, 0.882569, 0.375973, 0, 0
1, 2520.00000, 0.80991, 0.34502, 0.838264, 0.357099, 0.882569, 0.375973, 0, 0
1, 2580.00000, 0.80991, 0.34502, 0.838264, 0.357099, 0.882569, 0.375973, 0, 0
1, 2640.00000, 0.80991, 0.34502, 0.838264, 0.357099, 0.882569, 0.375973, 0, 0
1, 2700.00000, 0.80991, 0.34502, 0.838264, 0.357099, 0.882569, 0.375973, 0, 0
1, 2760.00000, 0.80991, 0.34502, 0.838264, 0.357099, 0.882569, 0.375973, 0, 0
1, 2820.00000, 0.80991, 0.34502, 0.838264, 0.357099, 0.882569, 0.375973, 0, 0
1, 2880.00000, 0.80991, 0.34502, 0.838264, 0.357099, 0.882569, 0.375973, 0, 0
1, 2940.00000, 0.80991, 0.34502, 0.838264, 0.357099, 0.882569, 0.375973, 0, 0
1, 3000.00000, 0.80991, 0.34502, 0.838264, 0.357099, 0.882569, 0.375973, 0, 0
1, 3060.00000, 0.80991, 0.34502, 0.838264, 0.357099, 0.882569, 0.375973, 0, 0
1, 3120.00000, 0.80991, 0.34502, 0.838264, 0.357099, 0.882569, 0.375973, 0, 0
1, 3180.00000, 0.80991, 0.34502, 0.838264, 0.357099, 0.882569, 0.375973, 0, 0
1, 3240.00000, 0.80991, 0.34502, 0.838264, 0.357099, 0.882569, 0.375973, 0, 0
1, 3300.00000, 0.80991, 0.34502, 0.838264, 0.357099, 0.882569, 0.375973, 0, 0
1, 3360.00000, 0.80991, 0.34502, 0.838264, 0.357099, 0.882569, 0.375973, 0, 0
1, 3420.00000, 0.80991, 0.34502, 0.838264, 0.357099, 0.882569, 0.375973, 0, 0
1, 3480.00000, 0.80991, 0.34502, 0.838264, 0.357099, 0.882569, 0.375973, 0, 0
1, 3540.00000, 0.80991, 0.34502, 0.838264, 0.357099, 0.882569, 0.375973, 0, 0
2, 0.00000, 0.80991, 0.34502, 0.838264, 0.357099, 0.882569, 0.375973, 0, 0
2, 60.00000, 0.80991, 0.34502, 0.838264, 0.357099, 0.882569, 0.375973, 0, 0
2, 120.00000, 0.80991, 0.34502, 0.838264, 0.357099, 0.882569, 0.375973, 0, 0
2, 180.00000, 0.80991, 0.34502, 0.838264, 0.357099, 0.882569, 0.375973, 0, 0
2, 240.00000, 0.80991, 0.34502, 0.838264, 0.357099, 0.882569, 0.375973, 0, 0
2, 300.00000, 0.80991, 0.34502, 0.838264, 0.357099, 0.882569, 0.375973, 0, 0
2, 360.00000, 0.80991, 0.34502, 0.838264, 0.357099, 0.882569, 0.375973, 0, 0
2, 420.00000, 0.80991, 0.34502, 0.838264, 0.357099, 0.882569, 0.375973, 0, 0
2, 480.00000, 0.80991, 0.34502, 0.838264, 0.357099, 0.882569, 0.375973, 0, 0
2, 540.00000, 0.80991, 0.34502, 0.838264, 0.357099, 0.882569, 0.375973, 0, 0
2, 600.00000, 0.80991, 0.34502, 0.838264, 0.357099, 0.882569, 0.375973, 0, 0
2, 660.00000, 0.80991, 0.34502, 0.838264, 0.357099, 0.882569, 0.375973, 0, 0
2, 720.00000, 0.80991, 0.34502, 0.838264, 0.357099, 0.882569, 0.375973, 0, 0
2, 780.00000, 0.80991, 0.34502, 0.838264, 0.357099, 0.882569, 0.375973, 0, 0
2, 840.00000, 0.832266, 0.354544, 0.838277, 0.357104, 0.88257, 0.375973, 0, 0
2, 900.00000, 0.832266, 0.354544, 0.838277, 0.357104, 0.882569, 0.375973, 0, 0
2, 960.00000, 0.832266, 0.354544, 0.838277, 0.357104, 0.882569, 0.375973, 0, 0
2, 1020.00000, 0.832266, 0.354544, 0.838277, 0.357104, 0.882569, 0.375973, 0, 0
2, 1080.00000, 0.832266, 0.354544, 0.838277, 0.357104, 0.882569, 0.375973, 0, 0
2, 1140.00000, 0.832266, 0.354544, 0.838277, 0.357104, 0.882569, 0.375973, 0, 0
2, 1200.00000, 0.832266, 0.354544, 0.838277, 0.357104, 0.882569, 0.375973, 0, 0
2, 1260.00000, 0.832266, 0.354544, 0.838277, 0.357104, 0.882569, 0.375973, 0, 0
2, 1320.00000, 0.832266, 0.354544, 0.838277, 0.357104, 0.882569, 0.375973, 0, 0
2, 1380.00000, 0.832266, 0.354544, 0.838277, 0.357104, 0.882569, 0.375973, 0, 0
2, 1440.00000, 0.832266, 0.354544, 0.838277, 0.357104, 0.882569, 0.375973, 0, 0
2, 1500.00000, 0.832266, 0.354544, 0.838277, 0.357104, 0.882569, 0.375973, 0, 0
2, 1560.00000, 0.832266, 0.354544, 0.838277, 0.357104, 0.882569, 0.375973, 0, 0
2, 1620.00000, 0.832266, 0.354544, 0.838277, 0.357104, 0.882569, 0.375973, 0, 0
2, 1680.00000, 0.832266, 0.354544, 0.838277, 0.357104, 0.882569, 0.375973, 0, 0
2, 1740.00000, 0.832266, 0.354544, 0.838277, 0.357104, 0.882569, 0.375973, 0, 0
2, 1800.00000, 0.832266, 0.354544, 0.838277, 0.357104, 0.882569, 0.375973, 0, 0
2, 1860.00000, 0.832266, 0.354544, 0.838277, 0.357104, 0.882569, 0.375973, 0, 0
2, 1920.00000, 0.832266, 0.354544, 0.838277, 0.357104, 0.882569, 0.375973, 0, 0
2, 1980.00000, 0.832266, 0.354544, 0.838277, 0.357104, 0.882569, 0.375973, 0, 0
2, 2040.00000, 0.832266, 0.354544, 0.838277, 0.357104, 0.882569, 0.375973, 0, 0
2, 2100.00000, 0.832266, 0.354544, 0.838277, 0.357104, 0.882569, 0.375973, 0, 0
2, 2160.00000, 0.832266, 0.354544, 0.838277, 0.357104, 0.882569, 0.375973, 0, 0
2, 2220.00000, 0.832266, 0.354544, 0.838277, 0.357104, 0.882569, 0.375973, 0, 0
2, 2280.00000, 0.832266, 0.354544, 0.838277, 0.357104, 0.882569, 0.375973, 0, 0
2, 2340.00000, 0.832266, 0.354544, 0.838277, 0.357104, 0.882569, 0.375973, 0, 0
2, 2400.00000, 0.832343, 0.354577, 0.84314, 0.359176, 0.88257, 0.375973, 0, 0
2, 2460.00000, 0.832343, 0.354576, 0.84314, 0.359176, 0.882569, 0.375973, 0, 0
2, 2520.00000, 0.832343, 0.354576, 0.84314, 0.359176, 0.882569, 0.375973, 0, 0
2, 2580.00000, 0.832343, 0.354576, 0.84314, 0.359176, 0.882569, 0.375973, 0, 0
2, 2640.00000, 0.832343, 0.354576, 0.84314, 0.359176, 0.882569, 0.375973, 0, 0
2, 2700.00000, 0.818314, 0.3486, 0.843403, 0.359288, 0.882568, 0.375972, 0, 0
2, 2760.00000, 0.818314, 0.3486, 0.843403, 0.359288, 0.882569, 0.375973, 0, 0
2, 2820.00000, 0.818314, 0.3486, 0.843403, 0.359288, 0.882569, 0.375973, 0, 0
2, 2880.00000, 0.818314, 0.3486, 0.843403, 0.359288, 0.882569, 0.375973, 0, 0
2, 2940.00000, 0.818314, 0.3486, 0.843403, 0.359288, 0.882569, 0.375973, 0, 0
2, 3000.00000, 0.818314, 0.3486, 0.843403, 0.359288, 0.882569, 0.375973, 0, 0
2, 3060.00000, 0.82331, 0.350729, 0.843317, 0.359251, 0.882571, 0.375974, 0, 0
2, 3120.00000, 0.82331, 0.350728, 0.843317, 0.359252, 0.882569, 0.375973, 0, 0
2, 3180.00000, 0.82331, 0.350728, 0.843317, 0.359252, 0.882569, 0.375973, 0, 0
2, 3240.00000, 0.82331, 0.350728, 0.843317, 0.359252, 0.882569, 0.375973, 0, 0
2, 3300.00000, 0.82331, 0.350728, 0.843317, 0.359252, 0.882569, 0.375973, 0, 0
2, 3360.00000, 0.82331, 0.350728, 0.843317, 0.359252, 0.882569, 0.375973, 0, 0
2, 3420.00000, 0.82331, 0.350728, 0.843317, 0.359252, 0.882569, 0.375973, 0, 0
2, 3480.00000, 0.82331, 0.350728, 0.843317, 0.359252, 0.882569, 0.375973, 0, 0
2, 3540.00000, 0.82331, 0.350728, 0.843317, 0.359252, 0.882569, 0.375973, 0, 0
3, 0.00000, 0.82331, 0.350728, 0.843317, 0.359252, 0.882569, 0.375973, 0, 0
3, 60.00000, 0.82331, 0.350728, 0.843317, 0.359252, 0.882569, 0.375973, 0, 0
3, 120.00000, 0.82331, 0.350728, 0.843317, 0.359252, 0.882569, 0.375973, 0, 0
3, 180.00000, 0.82331, 0.350728, 0.843317, 0.359252, 0.882569, 0.375973, 0, 0
3, 240.00000, 0.82331, 0.350728, 0.843317, 0.359252, 0.882569, 0.375973, 0, 0
3, 300.00000, 0.82331, 0.350728, 0.843317, 0.359252, 0.882569, 0.375973, 0, 0
3, 360.00000, 0.82331, 0.350728, 0.843317, 0.359252, 0.882569, 0.375973, 0, 0
3, 420.00000, 0.82331, 0.350728, 0.843317, 0.359252, 0.882569, 0.375973, 0, 0
3, 480.00000, 0.82331, 0.350728, 0.843317, 0.359252, 0.882569, 0.375973, 0, 0
3, 540.00000, 0.82331, 0.350728, 0.843317, 0.359252, 0.882569, 0.375973, 0, 0
3, 600.00000, 0.82331, 0.350728, 0.843317, 0.359252, 0.882569, 0.375973, 0, 0
3, 660.00000, 0.82331, 0.350728, 0.843317, 0.359252, 0.882569, 0.375973, 0, 0
3, 720.00000, 0.82331, 0.350728, 0.843317, 0.359252, 0.882569, 0.375973, 0, 0
3, 780.00000, 0.82331, 0.350728, 0.843317, 0.359252, 0.882569, 0.375973, 0, 0
3, 840.00000, 0.82331, 0.350728, 0.843317, 0.359252, 0.882569, 0.375973, 0, 0
3, 900.00000, 0.82331, 0.350728, 0.843317, 0.359252, 0.882569, 0.375973, 0, 0
3, 960.00000, 0.82331, 0.350728, 0.843317, 0.359252, 0.882569, 0.375973, 0, 0
3, 1020.00000, 0.82331, 0.350728, 0.843317, 0.359252, 0.882569, 0.375973, 0, 0
3, 1080.00000, 0.82331, 0.350728, 0.843317, 0.359252, 0.882569, 0.375973, 0, 0
3, 1140.00000, 0.82331, 0.350728, 0.843317, 0.359252, 0.882569, 0.375973, 0, 0
3, 1200.00000, 0.82331, 0.350728, 0.843317, 0.359252, 0.882569, 0.375973, 0, 0
3, 1260.00000, 0.82331, 0.350728, 0.843317, 0.359252, 0.882569, 0.375973, 0, 0
3, 1320.00000, 0.82331, 0.350728, 0.843317, 0.359252, 0.882569, 0.375973, 0, 0
3, 1380.00000, 0.82331, 0.350728, 0.843317, 0.359252, 0.882569, 0.375973, 0, 0
3, 1440.00000, 0.82331, 0.350728, 0.843317, 0.359252, 0.882569, 0.375973, 0, 0
3, 1500.00000, 0.82331, 0.350728, 0.843317, 0.359252, 0.882569, 0.375973, 0, 0
3, 1560.00000, 0.82331, 0.350728, 0.843317, 0.359252, 0.882569, 0.375973, 0, 0
3, 1620.00000, 0.82331, 0.350728, 0.843317, 0.359252, 0.882569, 0.375973, 0, 0
3, 1680.00000, 0.82331, 0.350728, 0.843317, 0.359252, 0.882569, 0.375973, 0, 0
3, 1740.00000, 0.82331, 0.350728, 0.843317, 0.359252, 0.882569, 0.375973, 0, 0
3, 1800.00000, 0.82331, 0.350728, 0.843317, 0.359252, 0.882569, 0.375973, 0, 0
3, 1860.00000, 0.82331, 0.350728, 0.843317, 0.359252, 0.882569, 0.375973, 0, 0
3, 1920.00000, 0.82331, 0.350728, 0.843317, 0.359252, 0.882569, 0.375973, 0, 0
3, 1980.00000, 0.82331, 0.350728, 0.843317, 0.359252, 0.882569, 0.375973, 0, 0
3, 2040.00000, 0.82331, 0.350728, 0.843317, 0.359252, 0.882569, 0.375973, 0, 0
3, 2100.00000, 0.82331, 0.350728, 0.843317, 0.359252, 0.882569, 0.375973, 0, 0
3, 2160.00000, 0.82331, 0.350728, 0.843317, 0.359252, 0.882569, 0.375973, 0, 0
3, 2220.00000, 0.82331, 0.350728, 0.843317, 0.359252, 0.882569, 0.375973, 0, 0
3, 2280.00000, 0.82331, 0.350728, 0.843317, 0.359252, 0.882569, 0.375973, 0, 0
3, 2340.00000, 0.82331, 0.350728, 0.843317, 0.359252, 0.882569, 0.375973, 0, 0
3, 2400.00000, 0.82331, 0.350728, 0.843317, 0.359252, 0.882569, 0.375973, 0, 0
3, 2460.00000, 0.82331, 0.350728, 0.843317, 0.359252, 0.882569, 0.375973, 0, 0
3, 2520.00000, 0.82331, 0.350728, 0.843317, 0.359252, 0.882569, 0.375973, 0, 0
3, 2580.00000, 0.82331, 0.350728, 0.843317, 0.359252, 0.882569, 0.375973, 0, 0
3, 2640.00000, 0.82331, 0.350728, 0.843317, 0.359252, 0.882569, 0.375973, 0, 0
3, 2700.00000, 0.82331, 0.350728, 0.843317, 0.359252, 0.882569, 0.375973, 0, 0
3, 2760.00000, 0.82331, 0.350728, 0.843317, 0.359252, 0.882569, 0.375973, 0, 0
3, 2820.00000, 0.82331, 0.350728, 0.843317, 0.359252, 0.882569, 0.375973, 0, 0
3, 2880.00000, 0.82331, 0.350728, 0.843317, 0.359252, 0.882569, 0.375973, 0, 0
3, 2940.00000, 0.82331, 0.350728, 0.843317, 0.359252, 0.882569, 0.375973, 0, 0
3, 3000.00000, 0.82331, 0.350728, 0.843317, 0.359252, 0.882569, 0.375973, 0, 0
3, 3060.00000, 0.82331, 0.350728, 0.843317, 0.359252, 0.882569, 0.375973, 0, 0
3, 3120.00000, 0.82331, 0.350728, 0.843317, 0.359252, 0.882569, 0.375973, 0, 0
3, 3180.00000, 0.868004, 0.369768, 0.889214, 0.378804, 0.933643, 0.39773, 0, 0
3, 3240.00000, 0.868005, 0.369768, 0.889214, 0.378804, 0.933644, 0.397731, 0, 0
3, 3300.00000, 0.868005, 0.369768, 0.889214, 0.378804, 0.933644, 0.397731, 0, 0
3, 3360.00000, 0.868005, 0.369768, 0.889214, 0.378804, 0.933644, 0.397731, 0, 0
3, 3420.00000, 0.868005, 0.369768, 0.889214, 0.378804, 0.933644, 0.397731, 0, 0
3, 3480.00000, 0.868005, 0.369768, 0.889214, 0.378804, 0.933644, 0.397731, 0, 0
3, 3540.00000, 0.868005, 0.369768, 0.889214, 0.378804, 0.933644, 0.397731, 0, 0
4, 0.00000, 0.868005, 0.369768, 0.889214, 0.378804, 0.933644, 0.397731, 0, 0
4, 60.00000, 0.868005, 0.369768, 0.889214, 0.378804, 0.933644, 0.397731, 0, 0
4, 120.00000, 0.868005, 0.369768, 0.889214, 0.378804, 0.933644, 0.397731, 0, 0
4, 180.00000, 0.868005, 0.369768, 0.889214, 0.378804, 0.933644, 0.397731, 0, 0
4, 240.00000, 0.868005, 0.369768, 0.889214, 0.378804, 0.933644, 0.397731, 0, 0
4, 300.00000, 0.868005, 0.369768, 0.889214, 0.378804, 0.933644, 0.397731, 0, 0
4, 360.00000, 0.868005, 0.369768, 0.889214, 0.378804, 0.933644, 0.397731, 0, 0
4, 420.00000, 0.868005, 0.369768, 0.889214, 0.378804, 0.933644, 0.397731, 0, 0
4, 480.00000, 0.868005, 0.369768, 0.889214, 0.378804, 0.933644, 0.397731, 0, 0
4, 540.00000, 0.868005, 0.369768, 0.889214, 0.378804, 0.933644, 0.397731, 0, 0
4, 600.00000, 0.868005, 0.369768, 0.889214, 0.378804, 0.933644, 0.397731, 0, 0
4, 660.00000, 0.868005, 0.369768, 0.889214, 0.378804, 0.933644, 0.397731, 0, 0
4, 720.00000, 0.868005, 0.369768, 0.889214, 0.378804, 0.933644, 0.397731, 0, 0
4, 780.00000, 0.868005, 0.369768, 0.889214, 0.378804, 0.933644, 0.397731, 0, 0
