hour,t(sec),V1,VAngle1,V2,VAngle2,V3,VAngle3,V4,VAngle4,I1,IAngle1,I2,IAngle2,I3,IAngle3,I4,IAngle4
0, 60.00000, 120.175, -31.3788, 122.159, -151.491, 121.349, 87.8152, 0, 0, 10.2426, -54.4526, 10.1632, -174.565, 10.2311, 64.7417, 0.207503, 167.883
0, 120.00000, 120.175, -31.3788, 122.159, -151.491, 121.349, 87.8152, 0, 0, 10.2426, -54.4527, 10.1633, -174.565, 10.2311, 64.7413, 0.207472, 167.907
0, 180.00000, 120.175, -31.3788, 122.159, -151.491, 121.349, 87.8152, 0, 0, 10.2426, -54.4527, 10.1633, -174.565, 10.2311, 64.7413, 0.207472, 167.907
0, 240.00000, 120.175, -31.3788, 122.159, -151.491, 121.349, 87.8152, 0, 0, 10.2426, -54.4527, 10.1633, -174.565, 10.2311, 64.7413, 0.207472, 167.907
0, 300.00000, 120.175, -31.3788, 122.159, -151.491, 121.349, 87.8152, 0, 0, 10.2426, -54.4527, 10.1633, -174.565, 10.2311, 64.7413, 0.207472, 167.907
0, 360.00000, 120.175, -31.3788, 122.159, -151.491, 121.349, 87.8152, 0, 0, 10.2426, -54.4527, 10.1633, -174.565, 10.2311, 64.7413, 0.207472, 167.907
0, 420.00000, 120.175, -31.3788, 122.159, -151.491, 121.349, 87.8152, 0, 0, 10.2426, -54.4527, 10.1633, -174.565, 10.2311, 64.7413, 0.207472, 167.907
0, 480.00000, 120.843, -31.257, 122.826, -151.372, 121.98, 87.9488, 0, 0, 8.93839, -54.331, 8.79419, -174.446, 8.85511, 64.8744, 0.238908, 156.45
0, 540.00000, 120.843, -31.257, 122.826, -151.372, 121.98, 87.9488, 0, 0, 8.93834, -54.3309, 8.79409, -174.446, 8.85504, 64.8749, 0.238895, 156.448
0, 600.00000, 120.843, -31.257, 122.826, -151.372, 121.98, 87.9488, 0, 0, 8.93834, -54.3309, 8.79409, -174.446, 8.85504, 64.8749, 0.238895, 156.448
0, 660.00000, 120.843, -31.257, 122.826, -151.372, 121.98, 87.9488, 0, 0, 8.93834, -54.3309, 8.79409, -174.446, 8.85504, 64.8749, 0.238895, 156.448
0, 720.00000, 120.843, -31.257, 122.826, -151.372, 121.98, 87.9488, 0, 0, 8.93834, -54.3309, 8.79409, -174.446, 8.85504, 64.8749, 0.238895, 156.448
0, 780.00000, 120.843, -31.257, 122.826, -151.372, 121.98, 87.9488, 0, 0, 8.93834, -54.3309, 8.79409, -174.446, 8.85504, 64.8749, 0.238895, 156.448
0, 840.00000, 120.843, -31.257, 122.826, -151.372, 121.98, 87.9488, 0, 0, 8.93834, -54.3309, 8.79409, -174.446, 8.85504, 64.8749, 0.238895, 156.448
0, 900.00000, 120.843, -31.257, 122.826, -151.372, 121.98, 87.9488, 0, 0, 8.93834, -54.3309, 8.79409, -174.446, 8.85504, 64.8749, 0.238895, 156.448
0, 960.00000, 120.301, -31.2331, 122.822, -151.37, 121.67, 87.7392, 0, 0, 8.92145, -54.307, 8.79434, -174.443, 8.87756, 64.6654, 0.261391, 163.698
0, 1020.00000, 120.301, -31.2331, 122.822, -151.37, 121.67, 87.7392, 0, 0, 8.92141, -54.307, 8.79433, -174.443, 8.87759, 64.6652, 0.261388, 163.706
0, 1080.00000, 120.301, -31.2331, 122.822, -151.37, 121.67, 87.7392, 0, 0, 8.92141, -54.307, 8.79433, -174.443, 8.87759, 64.6652, 0.261388, 163.706
0, 1140.00000, 120.301, -31.2331, 122.822, -151.37, 121.67, 87.7392, 0, 0, 8.92141, -54.307, 8.79433, -174.443, 8.87759, 64.6652, 0.261388, 163.706
0, 1200.00000, 120.301, -31.2331, 122.822, -151.37, 121.67, 87.7392, 0, 0, 8.92141, -54.307, 8.79433, -174.443, 8.87759, 64.6652, 0.261388, 163.706
0, 1260.00000, 120.301, -31.2331, 122.822, -151.37, 121.67, 87.7392, 0, 0, 8.92141, -54.307, 8.79433, -174.443, 8.87759, 64.6652, 0.261388, 163.706
0, 1320.00000, 120.301, -31.2331, 122.822, -151.37, 121.67, 87.7392, 0, 0, 8.92141, -54.307, 8.79433, -174.443, 8.87759, 64.6652, 0.261388, 163.706
0, 1380.00000, 120.301, -31.2331, 122.822, -151.37, 121.67, 87.7392, 0, 0, 8.92141, -54.307, 8.79433, -174.443, 8.87759, 64.6652, 0.261388, 163.706
0, 1440.00000, 120.301, -31.2331, 122.822, -151.37, 121.67, 87.7392, 0, 0, 8.92141, -54.307, 8.79433, -174.443, 8.87759, 64.6652, 0.261388, 163.706
0, 1500.00000, 120.301, -31.2331, 122.822, -151.37, 121.67, 87.7392, 0, 0, 8.92141, -54.307, 8.79433, -174.443, 8.87759, 64.6652, 0.261388, 163.706
0, 1560.00000, 120.301, -31.2331, 122.822, -151.37, 121.67, 87.7392, 0, 0, 8.92141, -54.307, 8.79433, -174.443, 8.87759, 64.6652, 0.261388, 163.706
0, 1620.00000, 120.301, -31.2331, 122.822, -151.37, 121.67, 87.7392, 0, 0, 8.92141, -54.307, 8.79433, -174.443, 8.87759, 64.6652, 0.261388, 163.706
0, 1680.00000, 120.301, -31.2331, 122.822, -151.37, 121.67, 87.7392, 0, 0, 8.92141, -54.307, 8.79433, -174.443, 8.87759, 64.6652, 0.261388, 163.706
0, 1740.00000, 120.301, -31.2331, 122.822, -151.37, 121.67, 87.7392, 0, 0, 8.92141, -54.307, 8.79433, -174.443, 8.87759, 64.6652, 0.261388, 163.706
0, 1800.00000, 119.73, -31.1994, 122.818, -151.368, 121.328, 87.5175, 0, 0, 8.87451, -54.2733, 8.79467, -174.441, 8.9026, 64.4438, 0.270358, 174.758
0, 1860.00000, 119.73, -31.1994, 122.818, -151.368, 121.328, 87.5175, 0, 0, 8.87446, -54.2733, 8.79467, -174.441, 8.90263, 64.4436, 0.270364, 174.768
0, 1920.00000, 119.73, -31.1994, 122.818, -151.368, 121.328, 87.5175, 0, 0, 8.87446, -54.2733, 8.79467, -174.441, 8.90263, 64.4436, 0.270364, 174.768
0, 1980.00000, 119.73, -31.1994, 122.818, -151.368, 121.328, 87.5175, 0, 0, 8.87446, -54.2733, 8.79467, -174.441, 8.90263, 64.4436, 0.270364, 174.768
0, 2040.00000, 119.73, -31.1994, 122.818, -151.368, 121.328, 87.5175, 0, 0, 8.87446, -54.2733, 8.79467, -174.441, 8.90263, 64.4436, 0.270364, 174.768
0, 2100.00000, 119.73, -31.1994, 122.818, -151.368, 121.328, 87.5175, 0, 0, 8.87446, -54.2733, 8.79467, -174.441, 8.90263, 64.4436, 0.270364, 174.768
0, 2160.00000, 119.73, -31.1994, 122.818, -151.368, 121.328, 87.5175, 0, 0, 8.87446, -54.2733, 8.79467, -174.441, 8.90263, 64.4436, 0.270364, 174.768
0, 2220.00000, 119.73, -31.1994, 122.818, -151.368, 121.328, 87.5175, 0, 0, 8.87446, -54.2733, 8.79467, -174.441, 8.90263, 64.4436, 0.270364, 174.768
0, 2280.00000, 119.73, -31.1994, 122.818, -151.368, 121.328, 87.5175, 0, 0, 8.87446, -54.2733, 8.79467, -174.441, 8.90263, 64.4436, 0.270364, 174.768
0, 2340.00000, 119.73, -31.1994, 122.818, -151.368, 121.328, 87.5175, 0, 0, 8.87446, -54.2733, 8.79467, -174.441, 8.90263, 64.4436, 0.270364, 174.768
0, 2400.00000, 119.73, -31.1994, 122.818, -151.368, 121.328, 87.5175, 0, 0, 8.87446, -54.2733, 8.79467, -174.441, 8.90263, 64.4436, 0.270364, 174.768
0, 2460.00000, 119.73, -31.1994, 122.818, -151.368, 121.328, 87.5175, 0, 0, 8.87446, -54.2733, 8.79467, -174.441, 8.90263, 64.4436, 0.270364, 174.768
0, 2520.00000, 119.73, -31.1994, 122.818, -151.368, 121.328, 87.5175, 0, 0, 8.87446, -54.2733, 8.79467, -174.441, 8.90263, 64.4436, 0.270364, 174.768
0, 2580.00000, 119.73, -31.1994, 122.818, -151.368, 121.328, 87.5175, 0, 0, 8.87446, -54.2733, 8.79467, -174.441, 8.90263, 64.4436, 0.270364, 174.768
0, 2640.00000, 119.73, -31.1994, 122.818, -151.368, 121.328, 87.5175, 0, 0, 8.87446, -54.2733, 8.79467, -174.441, 8.90263, 64.4436, 0.270364, 174.768
0, 2700.00000, 119.73, -31.1994, 122.818, -151.368, 121.328, 87.5175, 0, 0, 8.87446, -54.2733, 8.79467, -174.441, 8.90263, 64.4436, 0.270364, 174.768
0, 2760.00000, 120.028, -31.1704, 122.818, -151.368, 121.43, 87.6534, 0, 0, 8.89896, -54.2445, 8.79466, -174.442, 8.89521, 64.5792, 0.267895, 171.53
0, 2820.00000, 120.028, -31.1704, 122.818, -151.368, 121.43, 87.6534, 0, 0, 8.89901, -54.2443, 8.79466, -174.442, 8.89516, 64.5795, 0.267881, 171.52
0, 2880.00000, 120.028, -31.1704, 122.818, -151.368, 121.43, 87.6534, 0, 0, 8.89901, -54.2443, 8.79466, -174.442, 8.89516, 64.5795, 0.267881, 171.52
0, 2940.00000, 120.028, -31.1704, 122.818, -151.368, 121.43, 87.6534, 0, 0, 8.89901, -54.2443, 8.79466, -174.442, 8.89516, 64.5795, 0.267881, 171.52
0, 3000.00000, 120.028, -31.1704, 122.818, -151.368, 121.43, 87.6534, 0, 0, 8.89901, -54.2443, 8.79466, -174.442, 8.89516, 64.5795, 0.267881, 171.52
0, 3060.00000, 120.028, -31.1704, 122.818, -151.368, 121.43, 87.6534, 0, 0, 8.89901, -54.2443, 8.79466, -174.442, 8.89516, 64.5795, 0.267881, 171.52
0, 3120.00000, 120.028, -31.1704, 122.818, -151.368, 121.43, 87.6534, 0, 0, 8.89901, -54.2443, 8.79466, -174.442, 8.89516, 64.5795, 0.267881, 171.52
0, 3180.00000, 120.028, -31.1704, 122.818, -151.368, 121.43, 87.6534, 0, 0, 8.89901, -54.2443, 8.79466, -174.442, 8.89516, 64.5795, 0.267881, 171.52
0, 3240.00000, 120.028, -31.1704, 122.818, -151.368, 121.43, 87.6534, 0, 0, 8.89901, -54.2443, 8.79466, -174.442, 8.89516, 64.5795, 0.267881, 171.52
0, 3300.00000, 120.028, -31.1704, 122.818, -151.368, 121.43, 87.6534, 0, 0, 8.89901, -54.2443, 8.79466, -174.442, 8.89516, 64.5795, 0.267881, 171.52
0, 3360.00000, 120.028, -31.1704, 122.818, -151.368, 121.43, 87.6534, 0, 0, 8.89901, -54.2443, 8.79466, -174.442, 8.89516, 64.5795, 0.267881, 171.52
0, 3420.00000, 120.028, -31.1704, 122.818, -151.368, 121.43, 87.6534, 0, 0, 8.89901, -54.2443, 8.79466, -174.442, 8.89516, 64.5795, 0.267881, 171.52
0, 3480.00000, 120.028, -31.1704, 122.818, -151.368, 121.43, 87.6534, 0, 0, 8.89901, -54.2443, 8.79466, -174.442, 8.89516, 64.5795, 0.267881, 171.52
0, 3540.00000, 120.028, -31.1704, 122.818, -151.368, 121.43, 87.6534, 0, 0, 8.89901, -54.2443, 8.79466, -174.442, 8.89516, 64.5795, 0.267881, 171.52
1, 0.00000, 120.028, -31.1704, 122.818, -151.368, 121.43, 87.6534, 0, 0, 8.89901, -54.2443, 8.79466, -174.442, 8.89516, 64.5795, 0.267881, 171.52
1, 60.00000, 120.312, -31.1402, 122.818, -151.369, 121.52, 87.7835, 0, 0, 8.92233, -54.2143, 8.79462, -174.443, 8.88858, 64.7094, 0.266694, 168.556
1, 120.00000, 120.312, -31.1402, 122.818, -151.369, 121.52, 87.7835, 0, 0, 8.92237, -54.2141, 8.79462, -174.443, 8.88855, 64.7096, 0.2667, 168.55
1, 180.00000, 120.312, -31.1402, 122.818, -151.369, 121.52, 87.7835, 0, 0, 8.92237, -54.2141, 8.79462, -174.443, 8.88855, 64.7096, 0.2667, 168.55
1, 240.00000, 120.312, -31.1402, 122.818, -151.369, 121.52, 87.7835, 0, 0, 8.92237, -54.2141, 8.79462, -174.443, 8.88855, 64.7096, 0.2667, 168.55
1, 300.00000, 120.312, -31.1402, 122.818, -151.369, 121.52, 87.7835, 0, 0, 8.92237, -54.2141, 8.79462, -174.443, 8.88855, 64.7096, 0.2667, 168.55
1, 360.00000, 120.312, -31.1402, 122.818, -151.369, 121.52, 87.7835, 0, 0, 8.92237, -54.2141, 8.79462, -174.443, 8.88855, 64.7096, 0.2667, 168.55
1, 420.00000, 120.312, -31.1402, 122.818, -151.369, 121.52, 87.7835, 0, 0, 8.92237, -54.2141, 8.79462, -174.443, 8.88855, 64.7096, 0.2667, 168.55
1, 480.00000, 120.312, -31.1402, 122.818, -151.369, 121.52, 87.7835, 0, 0, 8.92237, -54.2141, 8.79462, -174.443, 8.88855, 64.7096, 0.2667, 168.55
1, 540.00000, 120.312, -31.1402, 122.818, -151.369, 121.52, 87.7835, 0, 0, 8.92237, -54.2141, 8.79462, -174.443, 8.88855, 64.7096, 0.2667, 168.55
1, 600.00000, 120.312, -31.1402, 122.818, -151.369, 121.52, 87.7835, 0, 0, 8.92237, -54.2141, 8.79462, -174.443, 8.88855, 64.7096, 0.2667, 168.55
1, 660.00000, 120.312, -31.1402, 122.818, -151.369, 121.52, 87.7835, 0, 0, 8.92237, -54.2141, 8.79462, -174.443, 8.88855, 64.7096, 0.2667, 168.55
1, 720.00000, 120.312, -31.1402, 122.818, -151.369, 121.52, 87.7835, 0, 0, 8.92237, -54.2141, 8.79462, -174.443, 8.88855, 64.7096, 0.2667, 168.55
1, 780.00000, 120.891, -31.1729, 122.82, -151.37, 121.866, 88.003, 0, 0, 8.9349, -54.247, 8.79449, -174.443, 8.86337, 64.9289, 0.235261, 161.585
1, 840.00000, 120.891, -31.1728, 122.82, -151.37, 121.866, 88.003, 0, 0, 8.93484, -54.2468, 8.7945, -174.443, 8.86335, 64.929, 0.235204, 161.593
1, 900.00000, 120.891, -31.1728, 122.82, -151.37, 121.866, 88.003, 0, 0, 8.93484, -54.2468, 8.7945, -174.443, 8.86335, 64.929, 0.235203, 161.593
1, 960.00000, 120.891, -31.1728, 122.82, -151.37, 121.866, 88.003, 0, 0, 8.93484, -54.2468, 8.7945, -174.443, 8.86335, 64.929, 0.235203, 161.593
1, 1020.00000, 120.891, -31.1728, 122.82, -151.37, 121.866, 88.003, 0, 0, 8.93484, -54.2468, 8.7945, -174.443, 8.86335, 64.929, 0.235203, 161.593
1, 1080.00000, 120.891, -31.1728, 122.82, -151.37, 121.866, 88.003, 0, 0, 8.93484, -54.2468, 8.7945, -174.443, 8.86335, 64.929, 0.235203, 161.593
1, 1140.00000, 120.891, -31.1728, 122.82, -151.37, 121.866, 88.003, 0, 0, 8.93484, -54.2468, 8.7945, -174.443, 8.86335, 64.929, 0.235203, 161.593
1, 1200.00000, 120.891, -31.1728, 122.82, -151.37, 121.866, 88.003, 0, 0, 8.93484, -54.2468, 8.7945, -174.443, 8.86335, 64.929, 0.235203, 161.593
1, 1260.00000, 120.891, -31.1728, 122.82, -151.37, 121.866, 88.003, 0, 0, 8.93484, -54.2468, 8.7945, -174.443, 8.86335, 64.929, 0.235203, 161.593
1, 1320.00000, 120.891, -31.1728, 122.82, -151.37, 121.866, 88.003, 0, 0, 8.93484, -54.2468, 8.7945, -174.443, 8.86335, 64.929, 0.235203, 161.593
1, 1380.00000, 120.891, -31.1728, 122.82, -151.37, 121.866, 88.003, 0, 0, 8.93484, -54.2468, 8.7945, -174.443, 8.86335, 64.929, 0.235203, 161.593
1, 1440.00000, 120.891, -31.1728, 122.82, -151.37, 121.866, 88.003, 0, 0, 8.93484, -54.2468, 8.7945, -174.443, 8.86335, 64.929, 0.235203, 161.593
1, 1500.00000, 120.891, -31.1728, 122.82, -151.37, 121.866, 88.003, 0, 0, 8.93484, -54.2468, 8.7945, -174.443, 8.86335, 64.929, 0.235203, 161.593
1, 1560.00000, 120.891, -31.1728, 122.82, -151.37, 121.866, 88.003, 0, 0, 8.93484, -54.2468, 8.7945, -174.443, 8.86335, 64.929, 0.235203, 161.593
1, 1620.00000, 120.891, -31.1728, 122.82, -151.37, 121.866, 88.003, 0, 0, 8.93484, -54.2468, 8.7945, -174.443, 8.86335, 64.929, 0.235203, 161.593
1, 1680.00000, 120.891, -31.1728, 122.82, -151.37, 121.866, 88.003, 0, 0, 8.93484, -54.2468, 8.7945, -174.443, 8.86335, 64.929, 0.235203, 161.593
1, 1740.00000, 120.891, -31.1728, 122.82, -151.37, 121.866, 88.003, 0, 0, 8.93484, -54.2468, 8.7945, -174.443, 8.86335, 64.929, 0.235203, 161.593
1, 1800.00000, 120.891, -31.1728, 122.82, -151.37, 121.866, 88.003, 0, 0, 8.93484, -54.2468, 8.7945, -174.443, 8.86335, 64.929, 0.235203, 161.593
1, 1860.00000, 120.891, -31.1728, 122.82, -151.37, 121.866, 88.003, 0, 0, 8.93484, -54.2468, 8.7945, -174.443, 8.86335, 64.929, 0.235203, 161.593
1, 1920.00000, 120.891, -31.1728, 122.82, -151.37, 121.866, 88.003, 0, 0, 8.93484, -54.2468, 8.7945, -174.443, 8.86335, 64.929, 0.235203, 161.593
1, 1980.00000, 120.891, -31.1728, 122.82, -151.37, 121.866, 88.003, 0, 0, 8.93484, -54.2468, 8.7945, -174.443, 8.86335, 64.929, 0.235203, 161.593
1, 2040.00000, 120.891, -31.1728, 122.82, -151.37, 121.866, 88.003, 0, 0, 8.93484, -54.2468, 8.7945, -174.443, 8.86335, 64.929, 0.235203, 161.593
1, 2100.00000, 120.891, -31.1728, 122.82, -151.37, 121.866, 88.003, 0, 0, 8.93484, -54.2468, 8.7945, -174.443, 8.86335, 64.929, 0.235203, 161.593
1, 2160.00000, 120.891, -31.1728, 122.82, -151.37, 121.866, 88.003, 0, 0, 8.93484, -54.2468, 8.7945, -174.443, 8.86335, 64.929, 0.235203, 161.593
1, 2220.00000, 121.487, -31.2021, 122.822, -151.37, 122.211, 88.2257, 0, 0, 8.89101, -54.2762, 8.79437, -174.444, 8.83831, 65.1516, 0.160072, 161.997
1, 2280.00000, 121.488, -31.202, 122.822, -151.37, 122.211, 88.2257, 0, 0, 8.89095, -54.276, 8.79438, -174.444, 8.83829, 65.1517, 0.160016, 162.012
1, 2340.00000, 121.488, -31.202, 122.822, -151.37, 122.211, 88.2257, 0, 0, 8.89095, -54.276, 8.79438, -174.444, 8.83829, 65.1517, 0.160016, 162.013
1, 2400.00000, 121.488, -31.202, 122.822, -151.37, 122.211, 88.2257, 0, 0, 8.89095, -54.276, 8.79438, -174.444, 8.83829, 65.1517, 0.160016, 162.013
1, 2460.00000, 121.488, -31.202, 122.822, -151.37, 122.211, 88.2257, 0, 0, 8.89095, -54.276, 8.79438, -174.444, 8.83829, 65.1517, 0.160016, 162.013
1, 2520.00000, 121.488, -31.202, 122.822, -151.37, 122.211, 88.2257, 0, 0, 8.89095, -54.276, 8.79438, -174.444, 8.83829, 65.1517, 0.160016, 162.013
1, 2580.00000, 121.488, -31.202, 122.822, -151.37, 122.211, 88.2257, 0, 0, 8.89095, -54.276, 8.79438, -174.444, 8.83829, 65.1517, 0.160016, 162.013
1, 2640.00000, 121.488, -31.202, 122.822, -151.37, 122.211, 88.2257, 0, 0, 8.89095, -54.276, 8.79438, -174.444, 8.83829, 65.1517, 0.160016, 162.013
1, 2700.00000, 121.488, -31.202, 122.822, -151.37, 122.211, 88.2257, 0, 0, 8.89095, -54.276, 8.79438, -174.444, 8.83829, 65.1517, 0.160016, 162.013
1, 2760.00000, 121.488, -31.202, 122.822, -151.37, 122.211, 88.2257, 0, 0, 8.89095, -54.276, 8.79438, -174.444, 8.83829, 65.1517, 0.160016, 162.013
1, 2820.00000, 121.488, -31.202, 122.822, -151.37, 122.211, 88.2257, 0, 0, 8.89095, -54.276, 8.79438, -174.444, 8.83829, 65.1517, 0.160016, 162.013
1, 2880.00000, 121.488, -31.202, 122.822, -151.37, 122.211, 88.2257, 0, 0, 8.89095, -54.276, 8.79438, -174.444, 8.83829, 65.1517, 0.160016, 162.013
1, 2940.00000, 121.488, -31.202, 122.822, -151.37, 122.211, 88.2257, 0, 0, 8.89095, -54.276, 8.79438, -174.444, 8.83829, 65.1517, 0.160016, 162.013
1, 3000.00000, 121.488, -31.202, 122.822, -151.37, 122.211, 88.2257, 0, 0, 8.89095, -54.276, 8.79438, -174.444, 8.83829, 65.1517, 0.160016, 162.013
1, 3060.00000, 121.488, -31.202, 122.822, -151.37, 122.211, 88.2257, 0, 0, 8.89095, -54.276, 8.79438, -174.444, 8.83829, 65.1517, 0.160016, 162.013
1, 3120.00000, 121.488, -31.202, 122.822, -151.37, 122.211, 88.2257, 0, 0, 8.89095, -54.276, 8.79438, -174.444, 8.83829, 65.1517, 0.160016, 162.013
1, 3180.00000, 121.488, -31.202, 122.822, -151.37, 122.211, 88.2257, 0, 0, 8.89095, -54.276, 8.79438, -174.444, 8.83829, 65.1517, 0.160016, 162.013
1, 3240.00000, 121.488, -31.202, 122.822, -151.37, 122.211, 88.2257, 0, 0, 8.89095, -54.276, 8.79438, -174.444, 8.83829, 65.1517, 0.160016, 162.013
1, 3300.00000, 121.488, -31.202, 122.822, -151.37, 122.211, 88.2257, 0, 0, 8.89095, -54.276, 8.79438, -174.444, 8.83829, 65.1517, 0.160016, 162.013
1, 3360.00000, 121.488, -31.202, 122.822, -151.37, 122.211, 88.2257, 0, 0, 8.89095, -54.276, 8.79438, -174.444, 8.83829, 65.1517, 0.160016, 162.013
1, 3420.00000, 121.488, -31.202, 122.822, -151.37, 122.211, 88.2257, 0, 0, 8.89095, -54.276, 8.79438, -174.444, 8.83829, 65.1517, 0.160016, 162.013
1, 3480.00000, 121.488, -31.202, 122.822, -151.37, 122.211, 88.2257, 0, 0, 8.89095, -54.276, 8.79438, -174.444, 8.83829, 65.1517, 0.160016, 162.013
1, 3540.00000, 121.488, -31.202, 122.822, -151.37, 122.211, 88.2257, 0, 0, 8.89095, -54.276, 8.79438, -174.444, 8.83829, 65.1517, 0.160016, 162.013
2, 0.00000, 121.488, -31.202, 122.822, -151.37, 122.211, 88.2257, 0, 0, 8.89095, -54.276, 8.79438, -174.444, 8.83829, 65.1517, 0.160016, 162.013
2, 60.00000, 121.488, -31.202, 122.822, -151.37, 122.211, 88.2257, 0, 0, 8.89095, -54.276, 8.79438, -174.444, 8.83829, 65.1517, 0.160016, 162.013
2, 120.00000, 121.488, -31.202, 122.822, -151.37, 122.211, 88.2257, 0, 0, 8.89095, -54.276, 8.79438, -174.444, 8.83829, 65.1517, 0.160016, 162.013
2, 180.00000, 121.488, -31.202, 122.822, -151.37, 122.211, 88.2257, 0, 0, 8.89095, -54.276, 8.79438, -174.444, 8.83829, 65.1517, 0.160016, 162.013
2, 240.00000, 121.488, -31.202, 122.822, -151.37, 122.211, 88.2257, 0, 0, 8.89095, -54.276, 8.79438, -174.444, 8.83829, 65.1517, 0.160016, 162.013
2, 300.00000, 121.488, -31.202, 122.822, -151.37, 122.211, 88.2257, 0, 0, 8.89095, -54.276, 8.79438, -174.444, 8.83829, 65.1517, 0.160016, 162.013
2, 360.00000, 121.488, -31.202, 122.822, -151.37, 122.211, 88.2257, 0, 0, 8.89095, -54.276, 8.79438, -174.444, 8.83829, 65.1517, 0.160016, 162.013
2, 420.00000, 121.488, -31.202, 122.822, -151.37, 122.211, 88.2257, 0, 0, 8.89095, -54.276, 8.79438, -174.444, 8.83829, 65.1517, 0.160016, 162.013
2, 480.00000, 121.488, -31.202, 122.822, -151.37, 122.211, 88.2257, 0, 0, 8.89095, -54.276, 8.79438, -174.444, 8.83829, 65.1517, 0.160016, 162.013
2, 540.00000, 121.488, -31.202, 122.822, -151.37, 122.211, 88.2257, 0, 0, 8.89095, -54.276, 8.79438, -174.444, 8.83829, 65.1517, 0.160016, 162.013
2, 600.00000, 121.488, -31.202, 122.822, -151.37, 122.211, 88.2257, 0, 0, 8.89095, -54.276, 8.79438, -174.444, 8.83829, 65.1517, 0.160016, 162.013
2, 660.00000, 121.488, -31.202, 122.822, -151.37, 122.211, 88.2257, 0, 0, 8.89095, -54.276, 8.79438, -174.444, 8.83829, 65.1517, 0.160016, 162.013
2, 720.00000, 121.488, -31.202, 122.822, -151.37, 122.211, 88.2257, 0, 0, 8.89095, -54.276, 8.79438, -174.444, 8.83829, 65.1517, 0.160016, 162.013
2, 780.00000, 121.488, -31.202, 122.822, -151.37, 122.211, 88.2257, 0, 0, 8.89095, -54.276, 8.79438, -174.444, 8.83829, 65.1517, 0.160016, 162.013
2, 840.00000, 122.049, -31.2222, 122.823, -151.371, 122.524, 88.4366, 0, 0, 8.85014, -54.2964, 8.79425, -174.445, 8.81575, 65.3626, 0.0904403, 164.099
