hour,t(sec),V1,VAngle1,V2,VAngle2,V3,VAngle3,V4,VAngle4,I1,IAngle1,I2,IAngle2,I3,IAngle3,I4,IAngle4
0, 60.00000, 122.93, -31.9575, 122.904, -151.543, 124.014, 88.2841, 0, 0, 5.33109, -55.0313, 5.33219, -174.617, 5.2846, 65.2104, 0.0804992, 62.2321
0, 120.00000, 122.937, -31.9637, 122.904, -151.543, 124.03, 88.2837, 0, 0, 5.3308, -55.0374, 5.33221, -174.617, 5.28389, 65.2099, 0.0815835, 61.9148
0, 180.00000, 122.942, -31.9692, 122.904, -151.543, 124.045, 88.2832, 0, 0, 5.33055, -55.043, 5.33222, -174.617, 5.28326, 65.2094, 0.082562, 61.6371
0, 240.00000, 122.948, -31.9742, 122.904, -151.543, 124.058, 88.2828, 0, 0, 5.33032, -55.048, 5.33223, -174.617, 5.28268, 65.209, 0.083445, 61.3933
0, 300.00000, 122.952, -31.9788, 122.903, -151.544, 124.07, 88.2824, 0, 0, 5.33011, -55.0526, 5.33224, -174.617, 5.28216, 65.2086, 0.0842414, 61.1788
0, 360.00000, 122.957, -31.9828, 122.903, -151.544, 124.081, 88.2821, 0, 0, 5.32993, -55.0566, 5.33225, -174.618, 5.2817, 65.2083, 0.0849602, 60.9894
0, 420.00000, 122.961, -31.9865, 122.903, -151.544, 124.091, 88.2818, 0, 0, 5.32976, -55.0603, 5.33226, -174.618, 5.28128, 65.208, 0.0856096, 60.8214
0, 480.00000, 123.578, -31.8836, 123.475, -151.438, 124.689, 88.4036, 0, 0, 4.61376, -54.9575, 4.61759, -174.512, 4.5727, 65.3297, 0.0745048, 58.7503
0, 540.00000, 123.581, -31.8866, 123.475, -151.438, 124.697, 88.4034, 0, 0, 4.61364, -54.9605, 4.6176, -174.512, 4.57239, 65.3295, 0.0749788, 58.6264
0, 600.00000, 123.584, -31.8893, 123.475, -151.438, 124.704, 88.4032, 0, 0, 4.61354, -54.9632, 4.61761, -174.512, 4.57212, 65.3293, 0.0754068, 58.516
0, 660.00000, 123.586, -31.8918, 123.475, -151.438, 124.711, 88.4031, 0, 0, 4.61344, -54.9656, 4.61761, -174.512, 4.57187, 65.3292, 0.0757924, 58.4178
0, 720.00000, 123.588, -31.8939, 123.474, -151.438, 124.717, 88.4029, 0, 0, 4.61336, -54.9678, 4.61761, -174.512, 4.57165, 65.329, 0.0761398, 58.3305
0, 780.00000, 123.59, -31.8959, 123.474, -151.438, 124.722, 88.4028, 0, 0, 4.61328, -54.9697, 4.61762, -174.512, 4.57145, 65.3289, 0.0764526, 58.2526
0, 840.00000, 123.592, -31.8977, 123.474, -151.438, 124.727, 88.4027, 0, 0, 4.61321, -54.9715, 4.61762, -174.512, 4.57127, 65.3288, 0.0767343, 58.1832
0, 900.00000, 123.594, -31.8993, 123.474, -151.439, 124.731, 88.4026, 0, 0, 4.61315, -54.9731, 4.61763, -174.512, 4.5711, 65.3287, 0.076988, 58.1211
0, 960.00000, 121.716, -32.4608, 121.472, -150.981, 124.849, 88.3841, 0, 0, 4.68434, -55.5347, 4.69374, -174.055, 4.56678, 65.3102, 0.227338, 61.0532
0, 1020.00000, 121.717, -32.4621, 121.472, -150.981, 124.853, 88.384, 0, 0, 4.68429, -55.536, 4.69374, -174.055, 4.56665, 65.3101, 0.227541, 61.0338
0, 1080.00000, 121.718, -32.4633, 121.472, -150.981, 124.856, 88.3839, 0, 0, 4.68424, -55.5372, 4.69374, -174.055, 4.56653, 65.31, 0.227723, 61.0163
0, 1140.00000, 123.484, -32.0275, 123.175, -151.462, 124.752, 88.397, 0, 0, 4.61726, -55.1013, 4.62884, -174.536, 4.57035, 65.3231, 0.0946217, 52.1811
0, 1200.00000, 123.485, -32.0284, 123.175, -151.462, 124.755, 88.3969, 0, 0, 4.61723, -55.1023, 4.62884, -174.536, 4.57025, 65.323, 0.0947752, 52.1618
0, 1260.00000, 123.486, -32.0292, 123.175, -151.462, 124.757, 88.3968, 0, 0, 4.61719, -55.1031, 4.62884, -174.536, 4.57016, 65.3229, 0.0949136, 52.1445
0, 1320.00000, 123.487, -32.03, 123.175, -151.462, 124.759, 88.3968, 0, 0, 4.61716, -55.1039, 4.62884, -174.536, 4.57009, 65.3229, 0.0950382, 52.1291
0, 1380.00000, 123.487, -32.0307, 123.175, -151.462, 124.761, 88.3967, 0, 0, 4.61714, -55.1046, 4.62884, -174.536, 4.57002, 65.3228, 0.0951503, 52.1152
0, 1440.00000, 123.488, -32.0313, 123.175, -151.462, 124.763, 88.3967, 0, 0, 4.61711, -55.1052, 4.62885, -174.536, 4.56995, 65.3228, 0.0952513, 52.1027
0, 1500.00000, 123.488, -32.0319, 123.175, -151.462, 124.764, 88.3966, 0, 0, 4.61709, -55.1058, 4.62885, -174.536, 4.5699, 65.3227, 0.0953421, 52.0916
0, 1560.00000, 123.489, -32.0324, 123.175, -151.462, 124.765, 88.3966, 0, 0, 4.61707, -55.1063, 4.62885, -174.536, 4.56985, 65.3227, 0.0954239, 52.0815
0, 1620.00000, 123.489, -32.0328, 123.175, -151.462, 124.767, 88.3966, 0, 0, 4.61706, -55.1067, 4.62885, -174.536, 4.5698, 65.3226, 0.0954975, 52.0725
0, 1680.00000, 123.49, -32.0332, 123.175, -151.462, 124.768, 88.3965, 0, 0, 4.61704, -55.1071, 4.62885, -174.536, 4.56976, 65.3226, 0.0955638, 52.0644
0, 1740.00000, 123.49, -32.0336, 123.175, -151.462, 124.769, 88.3965, 0, 0, 4.61703, -55.1075, 4.62885, -174.536, 4.56972, 65.3226, 0.0956234, 52.0571
0, 1800.00000, 123.167, -32.0556, 123.18, -151.462, 124.621, 88.2652, 0, 0, 4.62916, -55.1295, 4.62867, -174.535, 4.57515, 65.1912, 0.0952855, 64.2813
0, 1860.00000, 123.167, -32.0559, 123.18, -151.462, 124.622, 88.2651, 0, 0, 4.62915, -55.1298, 4.62867, -174.535, 4.57512, 65.1912, 0.095329, 64.2695
0, 1920.00000, 123.167, -32.0562, 123.18, -151.462, 124.622, 88.2651, 0, 0, 4.62914, -55.1301, 4.62867, -174.535, 4.57509, 65.1912, 0.0953684, 64.2589
0, 1980.00000, 123.167, -32.0564, 123.18, -151.462, 124.623, 88.2651, 0, 0, 4.62913, -55.1303, 4.62867, -174.535, 4.57507, 65.1912, 0.0954039, 64.2493
0, 2040.00000, 123.168, -32.0566, 123.18, -151.462, 124.623, 88.2651, 0, 0, 4.62912, -55.1305, 4.62867, -174.535, 4.57505, 65.1912, 0.0954358, 64.2407
0, 2100.00000, 123.168, -32.0568, 123.18, -151.462, 124.624, 88.2651, 0, 0, 4.62911, -55.1307, 4.62867, -174.535, 4.57503, 65.1911, 0.0954646, 64.2329
0, 2160.00000, 123.168, -32.057, 123.18, -151.462, 124.624, 88.2651, 0, 0, 4.62911, -55.1309, 4.62867, -174.535, 4.57501, 65.1911, 0.0954904, 64.2259
0, 2220.00000, 123.168, -32.0571, 123.179, -151.462, 124.625, 88.265, 0, 0, 4.6291, -55.131, 4.62867, -174.535, 4.575, 65.1911, 0.0955137, 64.2197
0, 2280.00000, 123.168, -32.0573, 123.179, -151.462, 124.625, 88.265, 0, 0, 4.62909, -55.1312, 4.62867, -174.535, 4.57498, 65.1911, 0.0955347, 64.214
0, 2340.00000, 123.168, -32.0574, 123.179, -151.462, 124.626, 88.265, 0, 0, 4.62909, -55.1313, 4.62867, -174.535, 4.57497, 65.1911, 0.0955535, 64.2089
0, 2400.00000, 123.169, -32.0575, 123.179, -151.462, 124.626, 88.265, 0, 0, 4.62909, -55.1314, 4.62867, -174.535, 4.57496, 65.1911, 0.0955705, 64.2044
0, 2460.00000, 123.169, -32.0576, 123.179, -151.462, 124.626, 88.265, 0, 0, 4.62908, -55.1315, 4.62868, -174.535, 4.57495, 65.1911, 0.0955858, 64.2003
0, 2520.00000, 123.169, -32.0577, 123.179, -151.462, 124.626, 88.265, 0, 0, 4.62908, -55.1316, 4.62868, -174.535, 4.57494, 65.1911, 0.0955996, 64.1966
0, 2580.00000, 123.169, -32.0578, 123.179, -151.462, 124.627, 88.265, 0, 0, 4.62907, -55.1317, 4.62868, -174.535, 4.57493, 65.1911, 0.0956119, 64.1933
0, 2640.00000, 123.169, -32.0579, 123.179, -151.462, 124.627, 88.265, 0, 0, 4.62907, -55.1318, 4.62868, -174.535, 4.57492, 65.1911, 0.0956231, 64.1903
0, 2700.00000, 123.169, -32.0579, 123.179, -151.462, 124.627, 88.265, 0, 0, 4.62907, -55.1318, 4.62868, -174.535, 4.57492, 65.1911, 0.0956331, 64.1876
0, 2760.00000, 123.663, -32.0559, 123.173, -151.461, 124.892, 88.4457, 0, 0, 4.61057, -55.1298, 4.62894, -174.535, 4.56522, 65.3718, 0.10128, 46.6817
0, 2820.00000, 123.663, -32.056, 123.173, -151.461, 124.892, 88.4457, 0, 0, 4.61057, -55.1299, 4.62894, -174.535, 4.56522, 65.3718, 0.101291, 46.6807
0, 2880.00000, 123.663, -32.056, 123.173, -151.461, 124.892, 88.4457, 0, 0, 4.61057, -55.1299, 4.62894, -174.535, 4.56521, 65.3718, 0.101299, 46.6802
0, 2940.00000, 123.663, -32.056, 123.173, -151.461, 124.892, 88.4457, 0, 0, 4.61057, -55.13, 4.62894, -174.535, 4.56521, 65.3718, 0.101306, 46.6798
0, 3000.00000, 123.663, -32.0561, 123.173, -151.461, 124.892, 88.4457, 0, 0, 4.61056, -55.13, 4.62894, -174.535, 4.5652, 65.3718, 0.101312, 46.6794
0, 3060.00000, 123.663, -32.0561, 123.173, -151.461, 124.892, 88.4457, 0, 0, 4.61056, -55.13, 4.62894, -174.535, 4.5652, 65.3718, 0.101318, 46.679
0, 3120.00000, 123.663, -32.0561, 123.173, -151.461, 124.892, 88.4457, 0, 0, 4.61056, -55.1301, 4.62894, -174.535, 4.5652, 65.3718, 0.101323, 46.6787
0, 3180.00000, 123.663, -32.0562, 123.173, -151.461, 124.892, 88.4457, 0, 0, 4.61056, -55.1301, 4.62894, -174.535, 4.56519, 65.3718, 0.101328, 46.6784
0, 3240.00000, 123.663, -32.0562, 123.173, -151.461, 124.892, 88.4457, 0, 0, 4.61056, -55.1301, 4.62894, -174.535, 4.56519, 65.3718, 0.101332, 46.6782
0, 3300.00000, 123.663, -32.0562, 123.173, -151.461, 124.893, 88.4457, 0, 0, 4.61056, -55.1301, 4.62894, -174.535, 4.56519, 65.3718, 0.101336, 46.6779
0, 3360.00000, 123.664, -32.0562, 123.173, -151.461, 124.893, 88.4457, 0, 0, 4.61056, -55.1302, 4.62894, -174.535, 4.56519, 65.3718, 0.101339, 46.6777
0, 3420.00000, 123.664, -32.0563, 123.173, -151.461, 124.893, 88.4457, 0, 0, 4.61056, -55.1302, 4.62894, -174.535, 4.56518, 65.3718, 0.101342, 46.6775
0, 3480.00000, 123.664, -32.0563, 123.173, -151.461, 124.893, 88.4457, 0, 0, 4.61056, -55.1302, 4.62894, -174.535, 4.56518, 65.3718, 0.101345, 46.6774
0, 3540.00000, 123.664, -32.0563, 123.173, -151.461, 124.893, 88.4457, 0, 0, 4.61056, -55.1302, 4.62894, -174.535, 4.56518, 65.3718, 0.101348, 46.6772
1, 0.00000, 123.664, -32.0563, 123.173, -151.461, 124.893, 88.4457, 0, 0, 4.61056, -55.1302, 4.62894, -174.535, 4.56518, 65.3718, 0.10135, 46.6771
1, 60.00000, 123.919, -31.8854, 123.641, -151.467, 124.861, 88.4506, 0, 0, 4.60107, -54.9593, 4.6114, -174.541, 4.56635, 65.3767, 0.0715492, 49.8092
1, 120.00000, 123.919, -31.8854, 123.641, -151.467, 124.861, 88.4506, 0, 0, 4.60107, -54.9593, 4.61139, -174.541, 4.56634, 65.3767, 0.0715508, 49.809
1, 180.00000, 123.919, -31.8854, 123.641, -151.467, 124.861, 88.4506, 0, 0, 4.60107, -54.9593, 4.61139, -174.541, 4.56634, 65.3767, 0.0715524, 49.8088
1, 240.00000, 123.919, -31.8854, 123.641, -151.467, 124.861, 88.4506, 0, 0, 4.60107, -54.9593, 4.61139, -174.541, 4.56634, 65.3767, 0.0715539, 49.8086
1, 300.00000, 123.919, -31.8854, 123.641, -151.467, 124.861, 88.4506, 0, 0, 4.60107, -54.9593, 4.61139, -174.541, 4.56634, 65.3767, 0.0715552, 49.8084
1, 360.00000, 123.919, -31.8854, 123.641, -151.467, 124.861, 88.4506, 0, 0, 4.60107, -54.9593, 4.61139, -174.541, 4.56634, 65.3767, 0.0715564, 49.8082
1, 420.00000, 123.919, -31.8854, 123.641, -151.467, 124.861, 88.4506, 0, 0, 4.60107, -54.9594, 4.6114, -174.541, 4.56634, 65.3767, 0.0715574, 49.8081
1, 480.00000, 123.919, -31.8854, 123.641, -151.467, 124.861, 88.4506, 0, 0, 4.60107, -54.9594, 4.6114, -174.541, 4.56634, 65.3767, 0.0715584, 49.808
1, 540.00000, 123.919, -31.8854, 123.641, -151.467, 124.861, 88.4506, 0, 0, 4.60107, -54.9594, 4.6114, -174.541, 4.56634, 65.3767, 0.0715593, 49.8079
1, 600.00000, 123.919, -31.8855, 123.641, -151.467, 124.861, 88.4506, 0, 0, 4.60107, -54.9594, 4.6114, -174.541, 4.56634, 65.3767, 0.07156, 49.8078
1, 660.00000, 123.919, -31.8855, 123.641, -151.467, 124.861, 88.4506, 0, 0, 4.60107, -54.9594, 4.6114, -174.541, 4.56634, 65.3767, 0.0715607, 49.8077
1, 720.00000, 123.919, -31.8855, 123.641, -151.467, 124.861, 88.4506, 0, 0, 4.60107, -54.9594, 4.6114, -174.541, 4.56634, 65.3767, 0.0715614, 49.8076
1, 780.00000, 123.917, -31.8861, 123.72, -151.349, 125.164, 88.488, 0, 0, 4.60112, -54.96, 4.60845, -174.423, 4.55528, 65.4141, 0.0880557, 55.674
1, 840.00000, 123.917, -31.8861, 123.72, -151.349, 125.164, 88.488, 0, 0, 4.60112, -54.96, 4.60845, -174.423, 4.55528, 65.4141, 0.0880573, 55.6736
1, 900.00000, 123.917, -31.8861, 123.72, -151.349, 125.164, 88.488, 0, 0, 4.60112, -54.96, 4.60845, -174.423, 4.55528, 65.4141, 0.0880578, 55.6735
1, 960.00000, 123.917, -31.8861, 123.72, -151.349, 125.164, 88.488, 0, 0, 4.60112, -54.96, 4.60845, -174.423, 4.55528, 65.4141, 0.0880582, 55.6735
1, 1020.00000, 123.917, -31.8861, 123.72, -151.349, 125.164, 88.488, 0, 0, 4.60112, -54.96, 4.60845, -174.423, 4.55528, 65.4141, 0.0880586, 55.6734
1, 1080.00000, 123.917, -31.8861, 123.72, -151.349, 125.164, 88.488, 0, 0, 4.60112, -54.96, 4.60845, -174.423, 4.55528, 65.4141, 0.0880589, 55.6733
1, 1140.00000, 123.917, -31.8861, 123.72, -151.349, 125.164, 88.488, 0, 0, 4.60112, -54.96, 4.60845, -174.423, 4.55528, 65.4141, 0.0880592, 55.6733
1, 1200.00000, 123.917, -31.8861, 123.72, -151.349, 125.164, 88.488, 0, 0, 4.60112, -54.96, 4.60845, -174.423, 4.55528, 65.4141, 0.0880595, 55.6732
1, 1260.00000, 123.917, -31.8861, 123.72, -151.349, 125.164, 88.488, 0, 0, 4.60112, -54.96, 4.60845, -174.423, 4.55528, 65.4141, 0.0880597, 55.6732
1, 1320.00000, 123.917, -31.8861, 123.72, -151.349, 125.164, 88.488, 0, 0, 4.60112, -54.9601, 4.60845, -174.423, 4.55528, 65.4141, 0.0880599, 55.6732
1, 1380.00000, 123.917, -31.8861, 123.72, -151.349, 125.164, 88.488, 0, 0, 4.60112, -54.9601, 4.60845, -174.423, 4.55528, 65.4141, 0.0880601, 55.6731
1, 1440.00000, 123.917, -31.8861, 123.72, -151.349, 125.164, 88.488, 0, 0, 4.60112, -54.9601, 4.60845, -174.423, 4.55528, 65.4141, 0.0880603, 55.6731
1, 1500.00000, 123.917, -31.8861, 123.72, -151.349, 125.164, 88.488, 0, 0, 4.60112, -54.9601, 4.60845, -174.423, 4.55528, 65.4141, 0.0880605, 55.6731
1, 1560.00000, 123.917, -31.8861, 123.72, -151.349, 125.164, 88.488, 0, 0, 4.60112, -54.9601, 4.60845, -174.423, 4.55528, 65.4141, 0.0880606, 55.673
1, 1620.00000, 123.917, -31.8861, 123.72, -151.349, 125.164, 88.488, 0, 0, 4.60112, -54.9601, 4.60845, -174.423, 4.55528, 65.4141, 0.0880608, 55.673
1, 1680.00000, 123.917, -31.8861, 123.72, -151.349, 125.164, 88.488, 0, 0, 4.60112, -54.9601, 4.60845, -174.423, 4.55528, 65.4141, 0.0880609, 55.673
1, 1740.00000, 123.917, -31.8861, 123.72, -151.349, 125.164, 88.488, 0, 0, 4.60112, -54.9601, 4.60845, -174.423, 4.55528, 65.4141, 0.088061, 55.673
1, 1800.00000, 123.917, -31.8861, 123.72, -151.349, 125.164, 88.488, 0, 0, 4.60112, -54.9601, 4.60845, -174.423, 4.55528, 65.4141, 0.0880611, 55.673
1, 1860.00000, 123.917, -31.8861, 123.72, -151.349, 125.164, 88.488, 0, 0, 4.60112, -54.9601, 4.60845, -174.423, 4.55528, 65.4141, 0.0880612, 55.6729
1, 1920.00000, 123.917, -31.8861, 123.72, -151.349, 125.164, 88.488, 0, 0, 4.60112, -54.9601, 4.60845, -174.423, 4.55528, 65.4141, 0.0880612, 55.6729
1, 1980.00000, 123.917, -31.8861, 123.72, -151.349, 125.164, 88.488, 0, 0, 4.60112, -54.9601, 4.60845, -174.423, 4.55528, 65.4141, 0.0880613, 55.6729
1, 2040.00000, 123.917, -31.8861, 123.72, -151.349, 125.164, 88.488, 0, 0, 4.60112, -54.9601, 4.60845, -174.423, 4.55528, 65.4141, 0.0880614, 55.6729
1, 2100.00000, 123.917, -31.8861, 123.72, -151.349, 125.164, 88.488, 0, 0, 4.60112, -54.9601, 4.60845, -174.423, 4.55528, 65.4141, 0.0880614, 55.6729
1, 2160.00000, 123.917, -31.8861, 123.72, -151.349, 125.164, 88.488, 0, 0, 4.60112, -54.9601, 4.60845, -174.423, 4.55528, 65.4141, 0.0880615, 55.6729
1, 2220.00000, 124.24, -31.8642, 123.714, -151.35, 125.319, 88.6201, 0, 0, 4.58917, -54.9381, 4.60869, -174.424, 4.54966, 65.5462, 0.0919043, 43.0055
1, 2280.00000, 124.24, -31.8642, 123.714, -151.35, 125.319, 88.6201, 0, 0, 4.58917, -54.9381, 4.60869, -174.424, 4.54966, 65.5462, 0.0919058, 43.0054
1, 2340.00000, 124.24, -31.8642, 123.714, -151.35, 125.319, 88.6201, 0, 0, 4.58917, -54.9381, 4.60869, -174.424, 4.54966, 65.5462, 0.0919058, 43.0054
1, 2400.00000, 124.24, -31.8642, 123.714, -151.35, 125.319, 88.6201, 0, 0, 4.58917, -54.9381, 4.60869, -174.424, 4.54966, 65.5462, 0.0919059, 43.0054
1, 2460.00000, 124.24, -31.8642, 123.714, -151.35, 125.319, 88.6201, 0, 0, 4.58917, -54.9381, 4.60869, -174.424, 4.54966, 65.5462, 0.0919059, 43.0054
1, 2520.00000, 124.24, -31.8642, 123.714, -151.35, 125.319, 88.6201, 0, 0, 4.58917, -54.9381, 4.60869, -174.424, 4.54966, 65.5462, 0.0919059, 43.0054
1, 2580.00000, 124.24, -31.8642, 123.714, -151.35, 125.319, 88.6201, 0, 0, 4.58917, -54.9381, 4.60869, -174.424, 4.54966, 65.5462, 0.091906, 43.0054
1, 2640.00000, 124.24, -31.8642, 123.714, -151.35, 125.319, 88.6201, 0, 0, 4.58917, -54.9381, 4.60869, -174.424, 4.54966, 65.5462, 0.091906, 43.0054
1, 2700.00000, 124.24, -31.8642, 123.714, -151.35, 125.319, 88.6201, 0, 0, 4.58917, -54.9381, 4.60869, -174.424, 4.54966, 65.5462, 0.091906, 43.0054
1, 2760.00000, 124.24, -31.8642, 123.714, -151.35, 125.319, 88.6201, 0, 0, 4.58917, -54.9381, 4.60869, -174.424, 4.54966, 65.5462, 0.091906, 43.0054
1, 2820.00000, 124.24, -31.8642, 123.714, -151.35, 125.319, 88.6201, 0, 0, 4.58917, -54.9381, 4.60869, -174.424, 4.54966, 65.5462, 0.091906, 43.0054
1, 2880.00000, 124.24, -31.8642, 123.714, -151.35, 125.319, 88.6201, 0, 0, 4.58917, -54.9381, 4.60869, -174.424, 4.54966, 65.5462, 0.0919061, 43.0054
1, 2940.00000, 124.24, -31.8642, 123.714, -151.35, 125.319, 88.6201, 0, 0, 4.58917, -54.9381, 4.60869, -174.424, 4.54966, 65.5462, 0.0919061, 43.0054
1, 3000.00000, 124.24, -31.8642, 123.714, -151.35, 125.319, 88.6201, 0, 0, 4.58917, -54.9381, 4.60869, -174.424, 4.54966, 65.5462, 0.0919061, 43.0054
1, 3060.00000, 124.24, -31.8642, 123.714, -151.35, 125.319, 88.6201, 0, 0, 4.58917, -54.9381, 4.60869, -174.424, 4.54966, 65.5462, 0.0919061, 43.0054
1, 3120.00000, 124.24, -31.8642, 123.714, -151.35, 125.319, 88.6201, 0, 0, 4.58917, -54.9381, 4.60869, -174.424, 4.54966, 65.5462, 0.0919061, 43.0054
1, 3180.00000, 124.24, -31.8642, 123.714, -151.35, 125.319, 88.6201, 0, 0, 4.58917, -54.9381, 4.60869, -174.424, 4.54966, 65.5462, 0.0919061, 43.0054
1, 3240.00000, 124.24, -31.8642, 123.714, -151.35, 125.319, 88.6201, 0, 0, 4.58917, -54.9381, 4.60869, -174.424, 4.54966, 65.5462, 0.0919061, 43.0054
1, 3300.00000, 124.24, -31.8642, 123.714, -151.35, 125.319, 88.6201, 0, 0, 4.58917, -54.9381, 4.60869, -174.424, 4.54966, 65.5462, 0.0919061, 43.0054
1, 3360.00000, 124.24, -31.8642, 123.714, -151.35, 125.319, 88.6201, 0, 0, 4.58917, -54.9381, 4.60869, -174.424, 4.54966, 65.5462, 0.0919061, 43.0054
1, 3420.00000, 124.24, -31.8642, 123.714, -151.35, 125.319, 88.6201, 0, 0, 4.58917, -54.9381, 4.60869, -174.424, 4.54966, 65.5462, 0.0919061, 43.0054
1, 3480.00000, 124.24, -31.8642, 123.714, -151.35, 125.319, 88.6201, 0, 0, 4.58917, -54.9381, 4.60869, -174.424, 4.54966, 65.5462, 0.0919061, 43.0054
1, 3540.00000, 124.24, -31.8642, 123.714, -151.35, 125.319, 88.6201, 0, 0, 4.58917, -54.9381, 4.60869, -174.424, 4.54966, 65.5462, 0.0919062, 43.0054
2, 0.00000, 124.24, -31.8642, 123.714, -151.35, 125.319, 88.6201, 0, 0, 4.58917, -54.9381, 4.60869, -174.424, 4.54966, 65.5462, 0.0919062, 43.0054
2, 60.00000, 124.24, -31.8642, 123.714, -151.35, 125.319, 88.6201, 0, 0, 4.58917, -54.9381, 4.60869, -174.424, 4.54966, 65.5462, 0.0919062, 43.0054
2, 120.00000, 124.24, -31.8642, 123.714, -151.35, 125.319, 88.6201, 0, 0, 4.58917, -54.9381, 4.60869, -174.424, 4.54966, 65.5462, 0.0919062, 43.0054
2, 180.00000, 124.24, -31.8642, 123.714, -151.35, 125.319, 88.6201, 0, 0, 4.58917, -54.9381, 4.60869, -174.424, 4.54966, 65.5462, 0.0919062, 43.0054
2, 240.00000, 124.24, -31.8642, 123.714, -151.35, 125.319, 88.6201, 0, 0, 4.58917, -54.9381, 4.60869, -174.424, 4.54966, 65.5462, 0.0919062, 43.0054
2, 300.00000, 124.24, -31.8642, 123.714, -151.35, 125.319, 88.6201, 0, 0, 4.58917, -54.9381, 4.60869, -174.424, 4.54966, 65.5462, 0.0919062, 43.0054
2, 360.00000, 124.24, -31.8642, 123.714, -151.35, 125.319, 88.6201, 0, 0, 4.58917, -54.9381, 4.60869, -174.424, 4.54966, 65.5462, 0.0919062, 43.0054
2, 420.00000, 124.24, -31.8642, 123.714, -151.35, 125.319, 88.6201, 0, 0, 4.58917, -54.9381, 4.60869, -174.424, 4.54966, 65.5462, 0.0919062, 43.0054
2, 480.00000, 124.24, -31.8642, 123.714, -151.35, 125.319, 88.6201, 0, 0, 4.58917, -54.9381, 4.60869, -174.424, 4.54966, 65.5462, 0.0919062, 43.0054
2, 540.00000, 124.24, -31.8642, 123.714, -151.35, 125.319, 88.6201, 0, 0, 4.58917, -54.9381, 4.60869, -174.424, 4.54966, 65.5462, 0.0919062, 43.0054
2, 600.00000, 124.24, -31.8642, 123.714, -151.35, 125.319, 88.6201, 0, 0, 4.58917, -54.9381, 4.60869, -174.424, 4.54966, 65.5462, 0.0919062, 43.0054
2, 660.00000, 124.24, -31.8642, 123.714, -151.35, 125.319, 88.6201, 0, 0, 4.58917, -54.9381, 4.60869, -174.424, 4.54966, 65.5462, 0.0919062, 43.0054
2, 720.00000, 124.24, -31.8642, 123.714, -151.35, 125.319, 88.6201, 0, 0, 4.58917, -54.9381, 4.60869, -174.424, 4.54966, 65.5462, 0.0919062, 43.0054
