hour,t(sec),"P1 (kW)","Q1 (kvar)","P2 (kW)","Q2 (kvar)","P3 (kW)","Q3 (kvar)","P4 (kW)","Q4 (kvar)"
0, 60.00000, 0.842765, 0.359011, 0.836339, 0.356273, 0.866285, 0.36901, 0, 0
0, 120.00000, 0.842679, 0.358975, 0.836325, 0.356268, 0.866283, 0.369011, 0, 0
0, 180.00000, 0.8426, 0.358941, 0.836312, 0.356263, 0.86628, 0.369012, 0, 0
0, 240.00000, 0.842529, 0.358911, 0.836301, 0.356259, 0.866279, 0.369013, 0, 0
0, 300.00000, 0.842464, 0.358884, 0.836291, 0.356255, 0.866277, 0.369015, 0, 0
0, 360.00000, 0.842405, 0.35886, 0.836282, 0.356251, 0.866277, 0.369016, 0, 0
0, 420.00000, 0.842351, 0.358837, 0.836274, 0.356248, 0.866275, 0.369017, 0, 0
0, 480.00000, 0.896349, 0.38184, 0.889076, 0.37874, 0.909022, 0.387228, 0, 0
0, 540.00000, 0.8963, 0.38182, 0.889068, 0.378736, 0.909021, 0.387229, 0, 0
0, 600.00000, 0.896255, 0.381801, 0.88906, 0.378734, 0.909019, 0.38723, 0, 0
0, 660.00000, 0.896215, 0.381784, 0.889054, 0.378731, 0.909017, 0.38723, 0, 0
0, 720.00000, 0.896178, 0.381768, 0.889048, 0.378729, 0.909016, 0.38723, 0, 0
0, 780.00000, 0.896145, 0.381755, 0.889043, 0.378727, 0.909015, 0.387231, 0, 0
0, 840.00000, 0.896116, 0.381742, 0.889038, 0.378726, 0.909013, 0.387231, 0, 0
0, 900.00000, 0.896089, 0.381731, 0.889033, 0.378724, 0.909012, 0.387231, 0, 0
0, 960.00000, 0.882639, 0.376002, 0.870695, 0.370913, 0.909011, 0.387231, 0, 0
0, 1020.00000, 0.882617, 0.375993, 0.870692, 0.370912, 0.90901, 0.387232, 0, 0
0, 1080.00000, 0.882598, 0.375984, 0.87069, 0.370911, 0.90901, 0.387232, 0, 0
0, 1140.00000, 0.884067, 0.37661, 0.875354, 0.372898, 0.909009, 0.387232, 0, 0
0, 1200.00000, 0.884051, 0.376604, 0.875352, 0.372897, 0.909008, 0.387232, 0, 0
0, 1260.00000, 0.884037, 0.376598, 0.87535, 0.372896, 0.909008, 0.387232, 0, 0
0, 1320.00000, 0.884024, 0.376592, 0.875349, 0.372896, 0.909007, 0.387232, 0, 0
0, 1380.00000, 0.884013, 0.376587, 0.875347, 0.372895, 0.909007, 0.387232, 0, 0
0, 1440.00000, 0.884002, 0.376583, 0.875346, 0.372895, 0.909006, 0.387233, 0, 0
0, 1500.00000, 0.883993, 0.376579, 0.875345, 0.372894, 0.909006, 0.387233, 0, 0
0, 1560.00000, 0.883984, 0.376575, 0.875344, 0.372894, 0.909006, 0.387233, 0, 0
0, 1620.00000, 0.883977, 0.376572, 0.875343, 0.372894, 0.909005, 0.387233, 0, 0
0, 1680.00000, 0.88397, 0.376569, 0.875342, 0.372894, 0.909005, 0.387233, 0, 0
0, 1740.00000, 0.883964, 0.376567, 0.875341, 0.372893, 0.909005, 0.387233, 0, 0
0, 1800.00000, 0.867474, 0.369542, 0.875572, 0.372992, 0.909004, 0.387233, 0, 0
0, 1860.00000, 0.867469, 0.36954, 0.875571, 0.372991, 0.909004, 0.387233, 0, 0
0, 1920.00000, 0.867465, 0.369538, 0.875571, 0.372991, 0.909004, 0.387233, 0, 0
0, 1980.00000, 0.867461, 0.369537, 0.87557, 0.372991, 0.909004, 0.387233, 0, 0
0, 2040.00000, 0.867458, 0.369535, 0.87557, 0.372991, 0.909004, 0.387233, 0, 0
0, 2100.00000, 0.867455, 0.369534, 0.875569, 0.372991, 0.909004, 0.387233, 0, 0
0, 2160.00000, 0.867452, 0.369533, 0.875569, 0.372991, 0.909004, 0.387233, 0, 0
0, 2220.00000, 0.867449, 0.369532, 0.875569, 0.372991, 0.909003, 0.387233, 0, 0
0, 2280.00000, 0.867447, 0.369531, 0.875569, 0.37299, 0.909003, 0.387233, 0, 0
0, 2340.00000, 0.867445, 0.36953, 0.875568, 0.37299, 0.909003, 0.387233, 0, 0
0, 2400.00000, 0.867443, 0.369529, 0.875568, 0.37299, 0.909003, 0.387233, 0, 0
0, 2460.00000, 0.867442, 0.369529, 0.875568, 0.37299, 0.909003, 0.387233, 0, 0
0, 2520.00000, 0.86744, 0.369528, 0.875568, 0.37299, 0.909003, 0.387233, 0, 0
0, 2580.00000, 0.867439, 0.369527, 0.875568, 0.37299, 0.909003, 0.387233, 0, 0
0, 2640.00000, 0.867438, 0.369527, 0.875567, 0.37299, 0.909003, 0.387233, 0, 0
0, 2700.00000, 0.867437, 0.369527, 0.875567, 0.37299, 0.909003, 0.387233, 0, 0
0, 2760.00000, 0.87267, 0.371756, 0.875526, 0.372972, 0.909004, 0.387234, 0, 0
0, 2820.00000, 0.872669, 0.371756, 0.875526, 0.372972, 0.909003, 0.387233, 0, 0
0, 2880.00000, 0.872669, 0.371755, 0.875526, 0.372972, 0.909003, 0.387233, 0, 0
0, 2940.00000, 0.872668, 0.371755, 0.875526, 0.372972, 0.909003, 0.387233, 0, 0
0, 3000.00000, 0.872667, 0.371755, 0.875526, 0.372972, 0.909003, 0.387233, 0, 0
0, 3060.00000, 0.872667, 0.371754, 0.875526, 0.372972, 0.909003, 0.387233, 0, 0
0, 3120.00000, 0.872666, 0.371754, 0.875526, 0.372972, 0.909003, 0.387233, 0, 0
0, 3180.00000, 0.872666, 0.371754, 0.875526, 0.372972, 0.909003, 0.387233, 0, 0
0, 3240.00000, 0.872665, 0.371754, 0.875526, 0.372972, 0.909003, 0.387233, 0, 0
0, 3300.00000, 0.872665, 0.371754, 0.875525, 0.372972, 0.909003, 0.387233, 0, 0
0, 3360.00000, 0.872665, 0.371754, 0.875525, 0.372972, 0.909003, 0.387234, 0, 0
0, 3420.00000, 0.872664, 0.371753, 0.875525, 0.372972, 0.909003, 0.387234, 0, 0
0, 3480.00000, 0.872664, 0.371753, 0.875525, 0.372972, 0.909003, 0.387234, 0, 0
0, 3540.00000, 0.872664, 0.371753, 0.875525, 0.372972, 0.909003, 0.387234, 0, 0
1, 0.00000, 0.872663, 0.371753, 0.875525, 0.372972, 0.909003, 0.387234, 0, 0
1, 60.00000, 0.874088, 0.37236, 0.880079, 0.374912, 0.909003, 0.387234, 0, 0
1, 120.00000, 0.874088, 0.37236, 0.880079, 0.374912, 0.909003, 0.387234, 0, 0
1, 180.00000, 0.874088, 0.37236, 0.880079, 0.374912, 0.909003, 0.387234, 0, 0
1, 240.00000, 0.874088, 0.37236, 0.880079, 0.374912, 0.909003, 0.387234, 0, 0
1, 300.00000, 0.874087, 0.37236, 0.880079, 0.374912, 0.909003, 0.387234, 0, 0
1, 360.00000, 0.874087, 0.37236, 0.880079, 0.374912, 0.909003, 0.387234, 0, 0
1, 420.00000, 0.874087, 0.37236, 0.880079, 0.374912, 0.909003, 0.387234, 0, 0
1, 480.00000, 0.874087, 0.37236, 0.880079, 0.374912, 0.909003, 0.387234, 0, 0
1, 540.00000, 0.874087, 0.372359, 0.880079, 0.374912, 0.909003, 0.387234, 0, 0
1, 600.00000, 0.874087, 0.372359, 0.880079, 0.374912, 0.909003, 0.387234, 0, 0
1, 660.00000, 0.874087, 0.372359, 0.880079, 0.374912, 0.909003, 0.387234, 0, 0
1, 720.00000, 0.874087, 0.372359, 0.880079, 0.374912, 0.909003, 0.387234, 0, 0
1, 780.00000, 0.874344, 0.372469, 0.885295, 0.377134, 0.909003, 0.387234, 0, 0
1, 840.00000, 0.874344, 0.372469, 0.885295, 0.377134, 0.909003, 0.387234, 0, 0
1, 900.00000, 0.874344, 0.372469, 0.885295, 0.377134, 0.909003, 0.387234, 0, 0
1, 960.00000, 0.874344, 0.372469, 0.885295, 0.377134, 0.909003, 0.387234, 0, 0
1, 1020.00000, 0.874343, 0.372469, 0.885295, 0.377134, 0.909003, 0.387234, 0, 0
1, 1080.00000, 0.874343, 0.372469, 0.885295, 0.377134, 0.909003, 0.387234, 0, 0
1, 1140.00000, 0.874343, 0.372469, 0.885295, 0.377134, 0.909003, 0.387234, 0, 0
1, 1200.00000, 0.874343, 0.372469, 0.885295, 0.377134, 0.909003, 0.387234, 0, 0
1, 1260.00000, 0.874343, 0.372469, 0.885295, 0.377134, 0.909003, 0.387234, 0, 0
1, 1320.00000, 0.874343, 0.372469, 0.885295, 0.377134, 0.909003, 0.387234, 0, 0
1, 1380.00000, 0.874343, 0.372469, 0.885295, 0.377134, 0.909003, 0.387234, 0, 0
1, 1440.00000, 0.874343, 0.372469, 0.885295, 0.377134, 0.909003, 0.387234, 0, 0
1, 1500.00000, 0.874343, 0.372469, 0.885295, 0.377134, 0.909003, 0.387234, 0, 0
1, 1560.00000, 0.874343, 0.372469, 0.885295, 0.377134, 0.909003, 0.387234, 0, 0
1, 1620.00000, 0.874343, 0.372469, 0.885295, 0.377134, 0.909003, 0.387234, 0, 0
1, 1680.00000, 0.874343, 0.372469, 0.885295, 0.377134, 0.909003, 0.387234, 0, 0
1, 1740.00000, 0.874343, 0.372469, 0.885295, 0.377134, 0.909003, 0.387234, 0, 0
1, 1800.00000, 0.874343, 0.372469, 0.885295, 0.377134, 0.909003, 0.387234, 0, 0
1, 1860.00000, 0.874343, 0.372469, 0.885295, 0.377134, 0.909003, 0.387234, 0, 0
1, 1920.00000, 0.874343, 0.372469, 0.885295, 0.377134, 0.909003, 0.387234, 0, 0
1, 1980.00000, 0.874343, 0.372469, 0.885295, 0.377134, 0.909003, 0.387234, 0, 0
1, 2040.00000, 0.874343, 0.372469, 0.885295, 0.377134, 0.909003, 0.387234, 0, 0
1, 2100.00000, 0.874343, 0.372469, 0.885295, 0.377134, 0.909003, 0.387234, 0, 0
1, 2160.00000, 0.874343, 0.372469, 0.885295, 0.377134, 0.909003, 0.387234, 0, 0
1, 2220.00000, 0.890786, 0.379473, 0.884998, 0.377007, 0.909003, 0.387234, 0, 0
1, 2280.00000, 0.890785, 0.379473, 0.884998, 0.377008, 0.909003, 0.387234, 0, 0
1, 2340.00000, 0.890785, 0.379473, 0.884998, 0.377008, 0.909003, 0.387234, 0, 0
1, 2400.00000, 0.890785, 0.379473, 0.884998, 0.377008, 0.909003, 0.387234, 0, 0
1, 2460.00000, 0.890785, 0.379473, 0.884998, 0.377008, 0.909003, 0.387234, 0, 0
1, 2520.00000, 0.890785, 0.379473, 0.884998, 0.377008, 0.909003, 0.387234, 0, 0
1, 2580.00000, 0.890785, 0.379473, 0.884998, 0.377008, 0.909003, 0.387234, 0, 0
1, 2640.00000, 0.890785, 0.379473, 0.884998, 0.377008, 0.909003, 0.387234, 0, 0
1, 2700.00000, 0.890785, 0.379473, 0.884998, 0.377008, 0.909003, 0.387234, 0, 0
1, 2760.00000, 0.890785, 0.379473, 0.884998, 0.377008, 0.909003, 0.387234, 0, 0
1, 2820.00000, 0.890785, 0.379473, 0.884998, 0.377008, 0.909003, 0.387234, 0, 0
1, 2880.00000, 0.890785, 0.379473, 0.884998, 0.377008, 0.909003, 0.387234, 0, 0
1, 2940.00000, 0.890785, 0.379473, 0.884998, 0.377008, 0.909003, 0.387234, 0, 0
1, 3000.00000, 0.890785, 0.379473, 0.884998, 0.377008, 0.909003, 0.387234, 0, 0
1, 3060.00000, 0.890785, 0.379473, 0.884998, 0.377008, 0.909003, 0.387234, 0, 0
1, 3120.00000, 0.890785, 0.379473, 0.884998, 0.377008, 0.909003, 0.387234, 0, 0
1, 3180.00000, 0.890785, 0.379473, 0.884998, 0.377008, 0.909003, 0.387234, 0, 0
1, 3240.00000, 0.890785, 0.379473, 0.884998, 0.377008, 0.909003, 0.387234, 0, 0
1, 3300.00000, 0.890785, 0.379473, 0.884998, 0.377008, 0.909003, 0.387234, 0, 0
1, 3360.00000, 0.890785, 0.379473, 0.884998, 0.377008, 0.909003, 0.387234, 0, 0
1, 3420.00000, 0.890785, 0.379473, 0.884998, 0.377008, 0.909003, 0.387234, 0, 0
1, 3480.00000, 0.890785, 0.379473, 0.884998, 0.377008, 0.909003, 0.387234, 0, 0
1, 3540.00000, 0.890785, 0.379473, 0.884998, 0.377008, 0.909003, 0.387234, 0, 0
2, 0.00000, 0.890785, 0.379473, 0.884998, 0.377008, 0.909003, 0.387234, 0, 0
2, 60.00000, 0.890785, 0.379473, 0.884998, 0.377008, 0.909003, 0.387234, 0, 0
2, 120.00000, 0.890785, 0.379473, 0.884998, 0.377008, 0.909003, 0.387234, 0, 0
2, 180.00000, 0.890785, 0.379473, 0.884998, 0.377008, 0.909003, 0.387234, 0, 0
2, 240.00000, 0.890785, 0.379473, 0.884998, 0.377008, 0.909003, 0.387234, 0, 0
2, 300.00000, 0.890785, 0.379473, 0.884998, 0.377008, 0.909003, 0.387234, 0, 0
2, 360.00000, 0.890785, 0.379473, 0.884998, 0.377008, 0.909003, 0.387234, 0, 0
2, 420.00000, 0.890785, 0.379473, 0.884998, 0.377008, 0.909003, 0.387234, 0, 0
2, 480.00000, 0.890785, 0.379473, 0.884998, 0.377008, 0.909003, 0.387234, 0, 0
2, 540.00000, 0.890785, 0.379473, 0.884998, 0.377008, 0.909003, 0.387234, 0, 0
2, 600.00000, 0.890785, 0.379473, 0.884998, 0.377008, 0.909003, 0.387234, 0, 0
2, 660.00000, 0.890785, 0.379473, 0.884998, 0.377008, 0.909003, 0.387234, 0, 0
2, 720.00000, 0.890785, 0.379473, 0.884998, 0.377008, 0.909003, 0.387234, 0, 0
2, 780.00000, 0.890785, 0.379473, 0.884998, 0.377008, 0.909003, 0.387234, 0, 0
2, 840.00000, 0.902855, 0.384615, 0.898818, 0.382895, 0.909003, 0.387234, 0, 0
2, 900.00000, 0.902855, 0.384615, 0.898818, 0.382895, 0.909003, 0.387234, 0, 0
2, 960.00000, 0.902855, 0.384615, 0.898818, 0.382895, 0.909003, 0.387234, 0, 0
2, 1020.00000, 0.902855, 0.384615, 0.898818, 0.382895, 0.909003, 0.387234, 0, 0
2, 1080.00000, 0.902855, 0.384615, 0.898818, 0.382895, 0.909003, 0.387234, 0, 0
2, 1140.00000, 0.902855, 0.384615, 0.898818, 0.382895, 0.909003, 0.387234, 0, 0
2, 1200.00000, 0.902855, 0.384615, 0.898818, 0.382895, 0.909003, 0.387234, 0, 0
2, 1260.00000, 0.902855, 0.384615, 0.898818, 0.382895, 0.909003, 0.387234, 0, 0
2, 1320.00000, 0.902855, 0.384615, 0.898818, 0.382895, 0.909003, 0.387234, 0, 0
2, 1380.00000, 0.902855, 0.384615, 0.898818, 0.382895, 0.909003, 0.387234, 0, 0
2, 1440.00000, 0.902855, 0.384615, 0.898818, 0.382895, 0.909003, 0.387234, 0, 0
2, 1500.00000, 0.902855, 0.384615, 0.898818, 0.382895, 0.909003, 0.387234, 0, 0
2, 1560.00000, 0.902855, 0.384615, 0.898818, 0.382895, 0.909003, 0.387234, 0, 0
2, 1620.00000, 0.902855, 0.384615, 0.898818, 0.382895, 0.909003, 0.387234, 0, 0
2, 1680.00000, 0.902855, 0.384615, 0.898818, 0.382895, 0.909003, 0.387234, 0, 0
2, 1740.00000, 0.902855, 0.384615, 0.898818, 0.382895, 0.909003, 0.387234, 0, 0
2, 1800.00000, 0.902855, 0.384615, 0.898818, 0.382895, 0.909003, 0.387234, 0, 0
2, 1860.00000, 0.902855, 0.384615, 0.898818, 0.382895, 0.909003, 0.387234, 0, 0
2, 1920.00000, 0.902855, 0.384615, 0.898818, 0.382895, 0.909003, 0.387234, 0, 0
2, 1980.00000, 0.902855, 0.384615, 0.898818, 0.382895, 0.909003, 0.387234, 0, 0
2, 2040.00000, 0.902855, 0.384615, 0.898818, 0.382895, 0.909003, 0.387234, 0, 0
2, 2100.00000, 0.902855, 0.384615, 0.898818, 0.382895, 0.909003, 0.387234, 0, 0
2, 2160.00000, 0.902855, 0.384615, 0.898818, 0.382895, 0.909003, 0.387234, 0, 0
2, 2220.00000, 0.902855, 0.384615, 0.898818, 0.382895, 0.909003, 0.387234, 0, 0
2, 2280.00000, 0.902855, 0.384615, 0.898818, 0.382895, 0.909003, 0.387234, 0, 0
2, 2340.00000, 0.902855, 0.384615, 0.898818, 0.382895, 0.909003, 0.387234, 0, 0
2, 2400.00000, 0.902966, 0.384662, 0.904382, 0.385265, 0.909004, 0.387234, 0, 0
2, 2460.00000, 0.902966, 0.384662, 0.904382, 0.385265, 0.909003, 0.387234, 0, 0
2, 2520.00000, 0.902966, 0.384662, 0.904382, 0.385265, 0.909003, 0.387234, 0, 0
2, 2580.00000, 0.902966, 0.384662, 0.904382, 0.385265, 0.909003, 0.387234, 0, 0
2, 2640.00000, 0.902966, 0.384662, 0.904382, 0.385265, 0.909003, 0.387234, 0, 0
2, 2700.00000, 0.889217, 0.378805, 0.889014, 0.378718, 0.909002, 0.387233, 0, 0
2, 2760.00000, 0.889218, 0.378805, 0.889014, 0.378718, 0.909003, 0.387234, 0, 0
2, 2820.00000, 0.889218, 0.378805, 0.889014, 0.378718, 0.909003, 0.387234, 0, 0
2, 2880.00000, 0.889218, 0.378805, 0.889014, 0.378718, 0.909003, 0.387234, 0, 0
2, 2940.00000, 0.889218, 0.378805, 0.889014, 0.378718, 0.909003, 0.387234, 0, 0
2, 3000.00000, 0.889218, 0.378805, 0.889014, 0.378718, 0.909003, 0.387234, 0, 0
2, 3060.00000, 0.894191, 0.380924, 0.888947, 0.378689, 0.909004, 0.387234, 0, 0
2, 3120.00000, 0.89419, 0.380923, 0.888946, 0.37869, 0.909003, 0.387234, 0, 0
2, 3180.00000, 0.89419, 0.380923, 0.888946, 0.37869, 0.909003, 0.387234, 0, 0
2, 3240.00000, 0.89419, 0.380923, 0.888946, 0.37869, 0.909003, 0.387234, 0, 0
2, 3300.00000, 0.89419, 0.380923, 0.888946, 0.37869, 0.909003, 0.387234, 0, 0
2, 3360.00000, 0.89419, 0.380923, 0.888946, 0.37869, 0.909003, 0.387234, 0, 0
2, 3420.00000, 0.89419, 0.380923, 0.888946, 0.37869, 0.909003, 0.387234, 0, 0
2, 3480.00000, 0.89419, 0.380923, 0.888946, 0.37869, 0.909003, 0.387234, 0, 0
2, 3540.00000, 0.89419, 0.380923, 0.888946, 0.37869, 0.909003, 0.387234, 0, 0
3, 0.00000, 0.89419, 0.380923, 0.888946, 0.37869, 0.909003, 0.387234, 0, 0
3, 60.00000, 0.89419, 0.380923, 0.888946, 0.37869, 0.909003, 0.387234, 0, 0
3, 120.00000, 0.89419, 0.380923, 0.888946, 0.37869, 0.909003, 0.387234, 0, 0
3, 180.00000, 0.89419, 0.380923, 0.888946, 0.37869, 0.909003, 0.387234, 0, 0
3, 240.00000, 0.89419, 0.380923, 0.888946, 0.37869, 0.909003, 0.387234, 0, 0
3, 300.00000, 0.89419, 0.380923, 0.888946, 0.37869, 0.909003, 0.387234, 0, 0
3, 360.00000, 0.89419, 0.380923, 0.888946, 0.37869, 0.909003, 0.387234, 0, 0
3, 420.00000, 0.89419, 0.380923, 0.888946, 0.37869, 0.909003, 0.387234, 0, 0
3, 480.00000, 0.89419, 0.380923, 0.888946, 0.37869, 0.909003, 0.387234, 0, 0
3, 540.00000, 0.89419, 0.380923, 0.888946, 0.37869, 0.909003, 0.387234, 0, 0
3, 600.00000, 0.89419, 0.380923, 0.888946, 0.37869, 0.909003, 0.387234, 0, 0
3, 660.00000, 0.89419, 0.380923, 0.888946, 0.37869, 0.909003, 0.387234, 0, 0
3, 720.00000, 0.89419, 0.380923, 0.888946, 0.37869, 0.909003, 0.387234, 0, 0
3, 780.00000, 0.89419, 0.380923, 0.888946, 0.37869, 0.909003, 0.387234, 0, 0
3, 840.00000, 0.89419, 0.380923, 0.888946, 0.37869, 0.909003, 0.387234, 0, 0
3, 900.00000, 0.89419, 0.380923, 0.888946, 0.37869, 0.909003, 0.387234, 0, 0
3, 960.00000, 0.89419, 0.380923, 0.888946, 0.37869, 0.909003, 0.387234, 0, 0
3, 1020.00000, 0.89419, 0.380923, 0.888946, 0.37869, 0.909003, 0.387234, 0, 0
3, 1080.00000, 0.89419, 0.380923, 0.888946, 0.37869, 0.909003, 0.387234, 0, 0
3, 1140.00000, 0.89419, 0.380923, 0.888946, 0.37869, 0.909003, 0.387234, 0, 0
3, 1200.00000, 0.89419, 0.380923, 0.888946, 0.37869, 0.909003, 0.387234, 0, 0
3, 1260.00000, 0.89419, 0.380923, 0.888946, 0.37869, 0.909003, 0.387234, 0, 0
3, 1320.00000, 0.89419, 0.380923, 0.888946, 0.37869, 0.909003, 0.387234, 0, 0
3, 1380.00000, 0.89419, 0.380923, 0.888946, 0.37869, 0.909003, 0.387234, 0, 0
3, 1440.00000, 0.89419, 0.380923, 0.888946, 0.37869, 0.909003, 0.387234, 0, 0
3, 1500.00000, 0.89419, 0.380923, 0.888946, 0.37869, 0.909003, 0.387234, 0, 0
3, 1560.00000, 0.89419, 0.380923, 0.888946, 0.37869, 0.909003, 0.387234, 0, 0
3, 1620.00000, 0.89419, 0.380923, 0.888946, 0.37869, 0.909003, 0.387234, 0, 0
3, 1680.00000, 0.89419, 0.380923, 0.888946, 0.37869, 0.909003, 0.387234, 0, 0
3, 1740.00000, 0.89419, 0.380923, 0.888946, 0.37869, 0.909003, 0.387234, 0, 0
3, 1800.00000, 0.89419, 0.380923, 0.888946, 0.37869, 0.909003, 0.387234, 0, 0
3, 1860.00000, 0.89419, 0.380923, 0.888946, 0.37869, 0.909003, 0.387234, 0, 0
3, 1920.00000, 0.89419, 0.380923, 0.888946, 0.37869, 0.909003, 0.387234, 0, 0
3, 1980.00000, 0.89419, 0.380923, 0.888946, 0.37869, 0.909003, 0.387234, 0, 0
3, 2040.00000, 0.89419, 0.380923, 0.888946, 0.37869, 0.909003, 0.387234, 0, 0
3, 2100.00000, 0.89419, 0.380923, 0.888946, 0.37869, 0.909003, 0.387234, 0, 0
3, 2160.00000, 0.89419, 0.380923, 0.888946, 0.37869, 0.909003, 0.387234, 0, 0
3, 2220.00000, 0.89419, 0.380923, 0.888946, 0.37869, 0.909003, 0.387234, 0, 0
3, 2280.00000, 0.89419, 0.380923, 0.888946, 0.37869, 0.909003, 0.387234, 0, 0
3, 2340.00000, 0.89419, 0.380923, 0.888946, 0.37869, 0.909003, 0.387234, 0, 0
3, 2400.00000, 0.89419, 0.380923, 0.888946, 0.37869, 0.909003, 0.387234, 0, 0
3, 2460.00000, 0.89419, 0.380923, 0.888946, 0.37869, 0.909003, 0.387234, 0, 0
3, 2520.00000, 0.89419, 0.380923, 0.888946, 0.37869, 0.909003, 0.387234, 0, 0
3, 2580.00000, 0.89419, 0.380923, 0.888946, 0.37869, 0.909003, 0.387234, 0, 0
3, 2640.00000, 0.89419, 0.380923, 0.888946, 0.37869, 0.909003, 0.387234, 0, 0
3, 2700.00000, 0.89419, 0.380923, 0.888946, 0.37869, 0.909003, 0.387234, 0, 0
3, 2760.00000, 0.89419, 0.380923, 0.888946, 0.37869, 0.909003, 0.387234, 0, 0
3, 2820.00000, 0.89419, 0.380923, 0.888946, 0.37869, 0.909003, 0.387234, 0, 0
3, 2880.00000, 0.89419, 0.380923, 0.888946, 0.37869, 0.909003, 0.387234, 0, 0
3, 2940.00000, 0.89419, 0.380923, 0.888946, 0.37869, 0.909003, 0.387234, 0, 0
3, 3000.00000, 0.89419, 0.380923, 0.888946, 0.37869, 0.909003, 0.387234, 0, 0
3, 3060.00000, 0.89419, 0.380923, 0.888946, 0.37869, 0.909003, 0.387234, 0, 0
3, 3120.00000, 0.89419, 0.380923, 0.888946, 0.37869, 0.909003, 0.387234, 0, 0
3, 3180.00000, 0.864551, 0.368297, 0.859599, 0.366188, 0.881204, 0.375391, 0, 0
3, 3240.00000, 0.864551, 0.368297, 0.8596, 0.366188, 0.881205, 0.375392, 0, 0
3, 3300.00000, 0.864551, 0.368297, 0.8596, 0.366188, 0.881205, 0.375392, 0, 0
3, 3360.00000, 0.864551, 0.368297, 0.8596, 0.366188, 0.881205, 0.375392, 0, 0
3, 3420.00000, 0.864551, 0.368297, 0.8596, 0.366188, 0.881205, 0.375392, 0, 0
3, 3480.00000, 0.864551, 0.368297, 0.8596, 0.366188, 0.881205, 0.375392, 0, 0
3, 3540.00000, 0.864551, 0.368297, 0.8596, 0.366188, 0.881205, 0.375392, 0, 0
4, 0.00000, 0.856994, 0.365078, 0.859765, 0.366259, 0.881205, 0.375392, 0, 0
4, 60.00000, 0.856994, 0.365078, 0.859766, 0.366259, 0.881205, 0.375392, 0, 0
4, 120.00000, 0.856994, 0.365078, 0.859766, 0.366259, 0.881205, 0.375392, 0, 0
4, 180.00000, 0.856994, 0.365078, 0.859766, 0.366259, 0.881205, 0.375392, 0, 0
4, 240.00000, 0.856994, 0.365078, 0.859766, 0.366259, 0.881205, 0.375392, 0, 0
4, 300.00000, 0.856994, 0.365078, 0.859766, 0.366259, 0.881205, 0.375392, 0, 0
4, 360.00000, 0.856994, 0.365078, 0.859766, 0.366259, 0.881205, 0.375392, 0, 0
4, 420.00000, 0.856994, 0.365078, 0.859766, 0.366259, 0.881205, 0.375392, 0, 0
4, 480.00000, 0.856994, 0.365078, 0.859766, 0.366259, 0.881205, 0.375392, 0, 0
4, 540.00000, 0.856994, 0.365078, 0.859766, 0.366259, 0.881205, 0.375392, 0, 0
4, 600.00000, 0.856994, 0.365078, 0.859766, 0.366259, 0.881205, 0.375392, 0, 0
4, 660.00000, 0.856994, 0.365078, 0.859766, 0.366259, 0.881205, 0.375392, 0, 0
4, 720.00000, 0.856994, 0.365078, 0.859766, 0.366259, 0.881205, 0.375392, 0, 0
