hour,t(sec),"P1 (kW)","Q1 (kvar)","P2 (kW)","Q2 (kvar)","P3 (kW)","Q3 (kvar)","P4 (kW)","Q4 (kvar)"
0, 60.00000, 0.909555, 0.387461, 0.909551, 0.387466, 0.909543, 0.387454, 0, 0
0, 120.00000, 0.90956, 0.387471, 0.90956, 0.387471, 0.90956, 0.387471, 0, 0
0, 180.00000, 0.90956, 0.387471, 0.90956, 0.387471, 0.90956, 0.387471, 0, 0
0, 240.00000, 0.90956, 0.387471, 0.90956, 0.387471, 0.90956, 0.387471, 0, 0
0, 300.00000, 0.90956, 0.387471, 0.90956, 0.387471, 0.90956, 0.387471, 0, 0
0, 360.00000, 0.90956, 0.387471, 0.90956, 0.387471, 0.90956, 0.387471, 0, 0
0, 420.00000, 0.90956, 0.387471, 0.90956, 0.387471, 0.90956, 0.387471, 0, 0
0, 480.00000, 0.90956, 0.387471, 0.90956, 0.387471, 0.90956, 0.387471, 0, 0
0, 540.00000, 0.90956, 0.387471, 0.90956, 0.387471, 0.90956, 0.387471, 0, 0
0, 600.00000, 0.90956, 0.387471, 0.90956, 0.387471, 0.90956, 0.387471, 0, 0
0, 660.00000, 0.90956, 0.387471, 0.90956, 0.387471, 0.90956, 0.387471, 0, 0
0, 720.00000, 0.90956, 0.387471, 0.90956, 0.387471, 0.90956, 0.387471, 0, 0
0, 780.00000, 0.90956, 0.387471, 0.90956, 0.387471, 0.90956, 0.387471, 0, 0
0, 840.00000, 0.90956, 0.387471, 0.90956, 0.387471, 0.90956, 0.387471, 0, 0
0, 900.00000, 0.90956, 0.387471, 0.90956, 0.387471, 0.90956, 0.387471, 0, 0
0, 960.00000, 0.890126, 0.379186, 0.89012, 0.379188, 0.890127, 0.379191, 0, 0
0, 1020.00000, 0.890128, 0.379193, 0.890128, 0.379193, 0.890128, 0.379193, 0, 0
0, 1080.00000, 0.890128, 0.379193, 0.890128, 0.379193, 0.890128, 0.379193, 0, 0
0, 1140.00000, 0.890128, 0.379193, 0.890128, 0.379193, 0.890128, 0.379193, 0, 0
0, 1200.00000, 0.890128, 0.379193, 0.890128, 0.379193, 0.890128, 0.379193, 0, 0
0, 1260.00000, 0.890128, 0.379193, 0.890128, 0.379193, 0.890128, 0.379193, 0, 0
0, 1320.00000, 0.890128, 0.379193, 0.890128, 0.379193, 0.890128, 0.379193, 0, 0
0, 1380.00000, 0.890128, 0.379193, 0.890128, 0.379193, 0.890128, 0.379193, 0, 0
0, 1440.00000, 0.890128, 0.379193, 0.890128, 0.379193, 0.890128, 0.379193, 0, 0
0, 1500.00000, 0.890128, 0.379193, 0.890128, 0.379193, 0.890128, 0.379193, 0, 0
0, 1560.00000, 0.890128, 0.379193, 0.890128, 0.379193, 0.890128, 0.379193, 0, 0
0, 1620.00000, 0.890128, 0.379193, 0.890128, 0.379193, 0.890128, 0.379193, 0, 0
0, 1680.00000, 0.890128, 0.379193, 0.890128, 0.379193, 0.890128, 0.379193, 0, 0
0, 1740.00000, 0.890128, 0.379193, 0.890128, 0.379193, 0.890128, 0.379193, 0, 0
0, 1800.00000, 0.890128, 0.379193, 0.890128, 0.379193, 0.890128, 0.379193, 0, 0
0, 1860.00000, 0.841648, 0.358547, 0.84166, 0.358552, 0.84167, 0.358573, 0, 0
0, 1920.00000, 0.841638, 0.358536, 0.841638, 0.358536, 0.841638, 0.358536, 0, 0
0, 1980.00000, 0.841638, 0.358536, 0.841638, 0.358536, 0.841638, 0.358536, 0, 0
0, 2040.00000, 0.841638, 0.358536, 0.841638, 0.358536, 0.841638, 0.358536, 0, 0
0, 2100.00000, 0.841638, 0.358536, 0.841638, 0.358536, 0.841638, 0.358536, 0, 0
0, 2160.00000, 0.841638, 0.358536, 0.841638, 0.358536, 0.841638, 0.358536, 0, 0
0, 2220.00000, 0.841638, 0.358536, 0.841638, 0.358536, 0.841638, 0.358536, 0, 0
0, 2280.00000, 0.841638, 0.358536, 0.841638, 0.358536, 0.841638, 0.358536, 0, 0
0, 2340.00000, 0.841638, 0.358536, 0.841638, 0.358536, 0.841638, 0.358536, 0, 0
0, 2400.00000, 0.841638, 0.358536, 0.841638, 0.358536, 0.841638, 0.358536, 0, 0
0, 2460.00000, 0.841638, 0.358536, 0.841638, 0.358536, 0.841638, 0.358536, 0, 0
0, 2520.00000, 0.841638, 0.358536, 0.841638, 0.358536, 0.841638, 0.358536, 0, 0
0, 2580.00000, 0.841638, 0.358536, 0.841638, 0.358536, 0.841638, 0.358536, 0, 0
0, 2640.00000, 0.841638, 0.358536, 0.841638, 0.358536, 0.841638, 0.358536, 0, 0
0, 2700.00000, 0.841638, 0.358536, 0.841638, 0.358536, 0.841638, 0.358536, 0, 0
0, 2760.00000, 0.823822, 0.35095, 0.823824, 0.350946, 0.823831, 0.350956, 0, 0
0, 2820.00000, 0.823821, 0.350947, 0.823821, 0.350946, 0.823822, 0.350947, 0, 0
0, 2880.00000, 0.823821, 0.350946, 0.823821, 0.350946, 0.823821, 0.350946, 0, 0
0, 2940.00000, 0.823821, 0.350946, 0.823821, 0.350946, 0.823821, 0.350946, 0, 0
0, 3000.00000, 0.823821, 0.350946, 0.823821, 0.350946, 0.823821, 0.350946, 0, 0
0, 3060.00000, 0.823821, 0.350946, 0.823821, 0.350946, 0.823821, 0.350946, 0, 0
0, 3120.00000, 0.823821, 0.350946, 0.823821, 0.350946, 0.823821, 0.350946, 0, 0
0, 3180.00000, 0.823821, 0.350946, 0.823821, 0.350946, 0.823821, 0.350946, 0, 0
0, 3240.00000, 0.823821, 0.350946, 0.823821, 0.350946, 0.823821, 0.350946, 0, 0
0, 3300.00000, 0.823821, 0.350946, 0.823821, 0.350946, 0.823821, 0.350946, 0, 0
0, 3360.00000, 0.823821, 0.350946, 0.823821, 0.350946, 0.823821, 0.350946, 0, 0
0, 3420.00000, 0.823821, 0.350946, 0.823821, 0.350946, 0.823821, 0.350946, 0, 0
0, 3480.00000, 0.823821, 0.350946, 0.823821, 0.350946, 0.823821, 0.350946, 0, 0
0, 3540.00000, 0.823821, 0.350946, 0.823821, 0.350946, 0.823821, 0.350946, 0, 0
1, 0.00000, 0.823821, 0.350946, 0.823821, 0.350946, 0.823821, 0.350946, 0, 0
1, 60.00000, 0.756211, 0.322148, 0.756212, 0.322143, 0.756221, 0.322153, 0, 0
1, 120.00000, 0.756211, 0.322145, 0.756211, 0.322145, 0.756211, 0.322145, 0, 0
1, 180.00000, 0.756211, 0.322145, 0.756211, 0.322145, 0.756211, 0.322145, 0, 0
1, 240.00000, 0.756211, 0.322145, 0.756211, 0.322145, 0.756211, 0.322145, 0, 0
1, 300.00000, 0.756211, 0.322145, 0.756211, 0.322145, 0.756211, 0.322145, 0, 0
1, 360.00000, 0.756211, 0.322145, 0.756211, 0.322145, 0.756211, 0.322145, 0, 0
1, 420.00000, 0.756211, 0.322145, 0.756211, 0.322145, 0.756211, 0.322145, 0, 0
1, 480.00000, 0.756211, 0.322145, 0.756211, 0.322145, 0.756211, 0.322145, 0, 0
1, 540.00000, 0.756211, 0.322145, 0.756211, 0.322145, 0.756211, 0.322145, 0, 0
1, 600.00000, 0.756211, 0.322145, 0.756211, 0.322145, 0.756211, 0.322145, 0, 0
1, 660.00000, 0.756211, 0.322145, 0.756211, 0.322145, 0.756211, 0.322145, 0, 0
1, 720.00000, 0.756211, 0.322145, 0.756211, 0.322145, 0.756211, 0.322145, 0, 0
1, 780.00000, 0.756211, 0.322145, 0.756211, 0.322145, 0.756211, 0.322145, 0, 0
1, 840.00000, 0.756211, 0.322145, 0.756211, 0.322145, 0.756211, 0.322145, 0, 0
1, 900.00000, 0.756211, 0.322145, 0.756211, 0.322145, 0.756211, 0.322145, 0, 0
1, 960.00000, 0.764136, 0.325526, 0.764136, 0.325521, 0.764145, 0.325531, 0, 0
1, 1020.00000, 0.764131, 0.325519, 0.764132, 0.325519, 0.764132, 0.325519, 0, 0
1, 1080.00000, 0.764132, 0.325519, 0.764132, 0.325519, 0.764132, 0.325519, 0, 0
1, 1140.00000, 0.764132, 0.325519, 0.764132, 0.325519, 0.764132, 0.325519, 0, 0
1, 1200.00000, 0.764132, 0.325519, 0.764132, 0.325519, 0.764132, 0.325519, 0, 0
1, 1260.00000, 0.764132, 0.325519, 0.764132, 0.325519, 0.764132, 0.325519, 0, 0
1, 1320.00000, 0.764132, 0.325519, 0.764132, 0.325519, 0.764132, 0.325519, 0, 0
1, 1380.00000, 0.764132, 0.325519, 0.764132, 0.325519, 0.764132, 0.325519, 0, 0
1, 1440.00000, 0.764132, 0.325519, 0.764132, 0.325519, 0.764132, 0.325519, 0, 0
1, 1500.00000, 0.764132, 0.325519, 0.764132, 0.325519, 0.764132, 0.325519, 0, 0
1, 1560.00000, 0.764132, 0.325519, 0.764132, 0.325519, 0.764132, 0.325519, 0, 0
1, 1620.00000, 0.764132, 0.325519, 0.764132, 0.325519, 0.764132, 0.325519, 0, 0
1, 1680.00000, 0.764132, 0.325519, 0.764132, 0.325519, 0.764132, 0.325519, 0, 0
1, 1740.00000, 0.764132, 0.325519, 0.764132, 0.325519, 0.764132, 0.325519, 0, 0
1, 1800.00000, 0.764132, 0.325519, 0.764132, 0.325519, 0.764132, 0.325519, 0, 0
1, 1860.00000, 0.812966, 0.346319, 0.812965, 0.346323, 0.812957, 0.346315, 0, 0
1, 1920.00000, 0.812966, 0.346322, 0.812966, 0.346322, 0.812966, 0.346322, 0, 0
1, 1980.00000, 0.812966, 0.346322, 0.812966, 0.346322, 0.812966, 0.346322, 0, 0
1, 2040.00000, 0.812966, 0.346322, 0.812966, 0.346322, 0.812966, 0.346322, 0, 0
1, 2100.00000, 0.812966, 0.346322, 0.812966, 0.346322, 0.812966, 0.346322, 0, 0
1, 2160.00000, 0.812966, 0.346322, 0.812966, 0.346322, 0.812966, 0.346322, 0, 0
1, 2220.00000, 0.812966, 0.346322, 0.812966, 0.346322, 0.812966, 0.346322, 0, 0
1, 2280.00000, 0.812966, 0.346322, 0.812966, 0.346322, 0.812966, 0.346322, 0, 0
1, 2340.00000, 0.812966, 0.346322, 0.812966, 0.346322, 0.812966, 0.346322, 0, 0
1, 2400.00000, 0.812966, 0.346322, 0.812966, 0.346322, 0.812966, 0.346322, 0, 0
1, 2460.00000, 0.812966, 0.346322, 0.812966, 0.346322, 0.812966, 0.346322, 0, 0
1, 2520.00000, 0.812966, 0.346322, 0.812966, 0.346322, 0.812966, 0.346322, 0, 0
1, 2580.00000, 0.812966, 0.346322, 0.812966, 0.346322, 0.812966, 0.346322, 0, 0
1, 2640.00000, 0.812966, 0.346322, 0.812966, 0.346322, 0.812966, 0.346322, 0, 0
1, 2700.00000, 0.81297, 0.346321, 0.812963, 0.346324, 0.812955, 0.34631, 0, 0
1, 2760.00000, 0.767439, 0.326931, 0.767436, 0.326927, 0.767438, 0.32693, 0, 0
1, 2820.00000, 0.767434, 0.326926, 0.767434, 0.326926, 0.767434, 0.326926, 0, 0
1, 2880.00000, 0.767434, 0.326926, 0.767434, 0.326926, 0.767434, 0.326926, 0, 0
1, 2940.00000, 0.767434, 0.326926, 0.767434, 0.326926, 0.767434, 0.326926, 0, 0
1, 3000.00000, 0.767434, 0.326926, 0.767434, 0.326926, 0.767434, 0.326926, 0, 0
1, 3060.00000, 0.767434, 0.326926, 0.767434, 0.326926, 0.767434, 0.326926, 0, 0
1, 3120.00000, 0.767434, 0.326926, 0.767434, 0.326926, 0.767434, 0.326926, 0, 0
1, 3180.00000, 0.767434, 0.326926, 0.767434, 0.326926, 0.767434, 0.326926, 0, 0
1, 3240.00000, 0.767434, 0.326926, 0.767434, 0.326926, 0.767434, 0.326926, 0, 0
1, 3300.00000, 0.767434, 0.326926, 0.767434, 0.326926, 0.767434, 0.326926, 0, 0
1, 3360.00000, 0.767434, 0.326926, 0.767434, 0.326926, 0.767434, 0.326926, 0, 0
1, 3420.00000, 0.767434, 0.326926, 0.767434, 0.326926, 0.767434, 0.326926, 0, 0
1, 3480.00000, 0.767434, 0.326926, 0.767434, 0.326926, 0.767434, 0.326926, 0, 0
1, 3540.00000, 0.767434, 0.326926, 0.767434, 0.326926, 0.767434, 0.326926, 0, 0
2, 0.00000, 0.767434, 0.326926, 0.767434, 0.326926, 0.767434, 0.326926, 0, 0
2, 60.00000, 0.816664, 0.347895, 0.816666, 0.347897, 0.816664, 0.347896, 0, 0
2, 120.00000, 0.816666, 0.347898, 0.816666, 0.347898, 0.816666, 0.347898, 0, 0
2, 180.00000, 0.816666, 0.347898, 0.816666, 0.347898, 0.816666, 0.347898, 0, 0
2, 240.00000, 0.816666, 0.347898, 0.816666, 0.347898, 0.816666, 0.347898, 0, 0
2, 300.00000, 0.816666, 0.347898, 0.816666, 0.347898, 0.816666, 0.347898, 0, 0
2, 360.00000, 0.816666, 0.347898, 0.816666, 0.347898, 0.816666, 0.347898, 0, 0
2, 420.00000, 0.816666, 0.347898, 0.816666, 0.347898, 0.816666, 0.347898, 0, 0
2, 480.00000, 0.816666, 0.347898, 0.816666, 0.347898, 0.816666, 0.347898, 0, 0
2, 540.00000, 0.816671, 0.3479, 0.816672, 0.347906, 0.816662, 0.347896, 0, 0
2, 600.00000, 0.816666, 0.347898, 0.816666, 0.347898, 0.816666, 0.347898, 0, 0
2, 660.00000, 0.816666, 0.347898, 0.816666, 0.347898, 0.816666, 0.347898, 0, 0
2, 720.00000, 0.816666, 0.347898, 0.816666, 0.347898, 0.816666, 0.347898, 0, 0
2, 780.00000, 0.816666, 0.347898, 0.816666, 0.347898, 0.816666, 0.347898, 0, 0
2, 840.00000, 0.816666, 0.347898, 0.816666, 0.347898, 0.816666, 0.347898, 0, 0
2, 900.00000, 0.816666, 0.347898, 0.816666, 0.347898, 0.816666, 0.347898, 0, 0
2, 960.00000, 0.785028, 0.334422, 0.785027, 0.334422, 0.785026, 0.334422, 0, 0
2, 1020.00000, 0.785024, 0.334419, 0.785024, 0.334419, 0.785024, 0.334419, 0, 0
2, 1080.00000, 0.785024, 0.334419, 0.785024, 0.334419, 0.785024, 0.334419, 0, 0
2, 1140.00000, 0.785024, 0.334419, 0.785024, 0.334419, 0.785024, 0.334419, 0, 0
2, 1200.00000, 0.785024, 0.334419, 0.785024, 0.334419, 0.785024, 0.334419, 0, 0
2, 1260.00000, 0.785024, 0.334419, 0.785024, 0.334419, 0.785024, 0.334419, 0, 0
2, 1320.00000, 0.785024, 0.334419, 0.785024, 0.334419, 0.785024, 0.334419, 0, 0
2, 1380.00000, 0.785024, 0.334419, 0.785024, 0.334419, 0.785024, 0.334419, 0, 0
2, 1440.00000, 0.785024, 0.334419, 0.785024, 0.334419, 0.785024, 0.334419, 0, 0
2, 1500.00000, 0.785024, 0.334419, 0.785024, 0.334419, 0.785024, 0.334419, 0, 0
2, 1560.00000, 0.785024, 0.334419, 0.785024, 0.334419, 0.785024, 0.334419, 0, 0
2, 1620.00000, 0.785024, 0.334419, 0.785024, 0.334419, 0.785024, 0.334419, 0, 0
2, 1680.00000, 0.785024, 0.334419, 0.785024, 0.334419, 0.785024, 0.334419, 0, 0
2, 1740.00000, 0.785024, 0.334419, 0.785024, 0.334419, 0.785024, 0.334419, 0, 0
2, 1800.00000, 0.785024, 0.334419, 0.785024, 0.334419, 0.785024, 0.334419, 0, 0
2, 1860.00000, 0.838284, 0.357095, 0.838287, 0.357099, 0.838292, 0.357096, 0, 0
2, 1920.00000, 0.838308, 0.357118, 0.838308, 0.357118, 0.838308, 0.357118, 0, 0
2, 1980.00000, 0.838309, 0.357118, 0.838309, 0.357118, 0.838309, 0.357118, 0, 0
2, 2040.00000, 0.838309, 0.357118, 0.838309, 0.357118, 0.838309, 0.357118, 0, 0
2, 2100.00000, 0.838309, 0.357118, 0.838309, 0.357118, 0.838309, 0.357118, 0, 0
2, 2160.00000, 0.838309, 0.357118, 0.838309, 0.357118, 0.838309, 0.357118, 0, 0
2, 2220.00000, 0.838309, 0.357118, 0.838309, 0.357118, 0.838309, 0.357118, 0, 0
2, 2280.00000, 0.838309, 0.357118, 0.838309, 0.357118, 0.838309, 0.357118, 0, 0
2, 2340.00000, 0.838309, 0.357118, 0.838309, 0.357118, 0.838309, 0.357118, 0, 0
2, 2400.00000, 0.838309, 0.357118, 0.838309, 0.357118, 0.838309, 0.357118, 0, 0
2, 2460.00000, 0.838309, 0.357118, 0.838309, 0.357118, 0.838309, 0.357118, 0, 0
2, 2520.00000, 0.838309, 0.357118, 0.838309, 0.357118, 0.838309, 0.357118, 0, 0
2, 2580.00000, 0.838309, 0.357118, 0.838309, 0.357118, 0.838309, 0.357118, 0, 0
2, 2640.00000, 0.838309, 0.357118, 0.838309, 0.357118, 0.838309, 0.357118, 0, 0
2, 2700.00000, 0.838309, 0.357118, 0.838309, 0.357118, 0.838309, 0.357118, 0, 0
2, 2760.00000, 0.773855, 0.329664, 0.773851, 0.329663, 0.773852, 0.329662, 0, 0
2, 2820.00000, 0.773848, 0.329658, 0.773848, 0.329658, 0.773848, 0.329658, 0, 0
2, 2880.00000, 0.773848, 0.329658, 0.773848, 0.329658, 0.773848, 0.329658, 0, 0
2, 2940.00000, 0.773848, 0.329658, 0.773848, 0.329658, 0.773848, 0.329658, 0, 0
2, 3000.00000, 0.773848, 0.329658, 0.773848, 0.329658, 0.773848, 0.329658, 0, 0
2, 3060.00000, 0.773848, 0.329658, 0.773848, 0.329658, 0.773848, 0.329658, 0, 0
2, 3120.00000, 0.773835, 0.329655, 0.773876, 0.329664, 0.773882, 0.329698, 0, 0
2, 3180.00000, 0.773848, 0.329658, 0.773849, 0.329658, 0.773849, 0.329659, 0, 0
2, 3240.00000, 0.773848, 0.329658, 0.773848, 0.329658, 0.773848, 0.329658, 0, 0
2, 3300.00000, 0.773848, 0.329658, 0.773848, 0.329658, 0.773848, 0.329658, 0, 0
2, 3360.00000, 0.773848, 0.329658, 0.773848, 0.329658, 0.773848, 0.329658, 0, 0
2, 3420.00000, 0.773848, 0.329658, 0.773848, 0.329658, 0.773848, 0.329658, 0, 0
2, 3480.00000, 0.773848, 0.329658, 0.773848, 0.329658, 0.773848, 0.329658, 0, 0
2, 3540.00000, 0.773848, 0.329658, 0.773848, 0.329658, 0.773848, 0.329658, 0, 0
3, 0.00000, 0.773848, 0.329658, 0.773848, 0.329658, 0.773848, 0.329658, 0, 0
3, 60.00000, 0.828793, 0.353063, 0.828787, 0.353061, 0.828786, 0.353055, 0, 0
3, 120.00000, 0.828794, 0.353065, 0.828794, 0.353065, 0.828794, 0.353065, 0, 0
3, 180.00000, 0.828794, 0.353065, 0.828794, 0.353065, 0.828794, 0.353065, 0, 0
3, 240.00000, 0.828794, 0.353065, 0.828794, 0.353065, 0.828794, 0.353065, 0, 0
3, 300.00000, 0.828794, 0.353065, 0.828794, 0.353065, 0.828794, 0.353065, 0, 0
3, 360.00000, 0.828794, 0.353065, 0.828794, 0.353065, 0.828794, 0.353065, 0, 0
3, 420.00000, 0.828794, 0.353065, 0.828794, 0.353065, 0.828794, 0.353065, 0, 0
3, 480.00000, 0.828794, 0.353065, 0.828794, 0.353065, 0.828794, 0.353065, 0, 0
3, 540.00000, 0.828794, 0.353065, 0.828794, 0.353065, 0.828794, 0.353065, 0, 0
3, 600.00000, 0.828794, 0.353065, 0.828794, 0.353065, 0.828794, 0.353065, 0, 0
3, 660.00000, 0.828794, 0.353065, 0.828794, 0.353065, 0.828794, 0.353065, 0, 0
3, 720.00000, 0.828794, 0.353065, 0.828794, 0.353065, 0.828794, 0.353065, 0, 0
3, 780.00000, 0.828794, 0.353065, 0.828794, 0.353065, 0.828794, 0.353065, 0, 0
3, 840.00000, 0.828794, 0.353065, 0.828794, 0.353065, 0.828794, 0.353065, 0, 0
3, 900.00000, 0.828794, 0.353065, 0.828794, 0.353065, 0.828794, 0.353065, 0, 0
3, 960.00000, 0.765595, 0.326147, 0.765604, 0.32615, 0.765606, 0.326158, 0, 0
3, 1020.00000, 0.765588, 0.326139, 0.765588, 0.326139, 0.765588, 0.326139, 0, 0
3, 1080.00000, 0.765588, 0.326139, 0.765588, 0.326139, 0.765588, 0.326139, 0, 0
3, 1140.00000, 0.765588, 0.326139, 0.765588, 0.326139, 0.765588, 0.326139, 0, 0
3, 1200.00000, 0.765588, 0.326139, 0.765588, 0.326139, 0.765588, 0.326139, 0, 0
3, 1260.00000, 0.765588, 0.326139, 0.765588, 0.326139, 0.765588, 0.326139, 0, 0
3, 1320.00000, 0.765588, 0.326139, 0.765588, 0.326139, 0.765588, 0.326139, 0, 0
3, 1380.00000, 0.765588, 0.326139, 0.765588, 0.326139, 0.765588, 0.326139, 0, 0
3, 1440.00000, 0.765588, 0.326139, 0.765588, 0.326139, 0.765588, 0.326139, 0, 0
3, 1500.00000, 0.765588, 0.326139, 0.765588, 0.326139, 0.765588, 0.326139, 0, 0
3, 1560.00000, 0.765588, 0.326139, 0.765588, 0.326139, 0.765588, 0.326139, 0, 0
3, 1620.00000, 0.765588, 0.326139, 0.765588, 0.326139, 0.765588, 0.326139, 0, 0
3, 1680.00000, 0.765588, 0.326139, 0.765588, 0.326139, 0.765588, 0.326139, 0, 0
3, 1740.00000, 0.765588, 0.326139, 0.765588, 0.326139, 0.765588, 0.326139, 0, 0
3, 1800.00000, 0.765588, 0.326139, 0.765588, 0.326139, 0.765588, 0.326139, 0, 0
3, 1860.00000, 0.713396, 0.303909, 0.713404, 0.303912, 0.713403, 0.303917, 0, 0
3, 1920.00000, 0.713391, 0.303903, 0.713392, 0.303904, 0.713392, 0.303904, 0, 0
3, 1980.00000, 0.713391, 0.303903, 0.713391, 0.303903, 0.713391, 0.303904, 0, 0
3, 2040.00000, 0.713391, 0.303903, 0.713391, 0.303903, 0.713391, 0.303903, 0, 0
3, 2100.00000, 0.713391, 0.303903, 0.713391, 0.303903, 0.713391, 0.303903, 0, 0
3, 2160.00000, 0.713391, 0.303903, 0.713391, 0.303903, 0.713391, 0.303903, 0, 0
3, 2220.00000, 0.713391, 0.303903, 0.713391, 0.303903, 0.713391, 0.303903, 0, 0
3, 2280.00000, 0.713391, 0.303903, 0.713391, 0.303903, 0.713391, 0.303903, 0, 0
3, 2340.00000, 0.713391, 0.303903, 0.713391, 0.303903, 0.713391, 0.303903, 0, 0
3, 2400.00000, 0.713391, 0.303903, 0.713391, 0.303903, 0.713391, 0.303903, 0, 0
3, 2460.00000, 0.713391, 0.303903, 0.713391, 0.303903, 0.713391, 0.303903, 0, 0
3, 2520.00000, 0.713391, 0.303903, 0.713391, 0.303903, 0.713391, 0.303903, 0, 0
3, 2580.00000, 0.713391, 0.303903, 0.713391, 0.303903, 0.713391, 0.303903, 0, 0
3, 2640.00000, 0.713391, 0.303903, 0.713391, 0.303903, 0.713391, 0.303903, 0, 0
3, 2700.00000, 0.713391, 0.303903, 0.713391, 0.303903, 0.713391, 0.303903, 0, 0
3, 2760.00000, 0.75193, 0.320325, 0.751934, 0.320326, 0.751935, 0.320331, 0, 0
3, 2820.00000, 0.751923, 0.320318, 0.751924, 0.320318, 0.751924, 0.320318, 0, 0
3, 2880.00000, 0.751923, 0.320318, 0.751923, 0.320318, 0.751923, 0.320318, 0, 0
3, 2940.00000, 0.751923, 0.320318, 0.751923, 0.320318, 0.751923, 0.320318, 0, 0
3, 3000.00000, 0.751923, 0.320318, 0.751923, 0.320318, 0.751923, 0.320318, 0, 0
3, 3060.00000, 0.751923, 0.320318, 0.751923, 0.320318, 0.751923, 0.320318, 0, 0
3, 3120.00000, 0.751943, 0.320342, 0.751914, 0.320315, 0.751934, 0.320322, 0, 0
3, 3180.00000, 0.751924, 0.320318, 0.751923, 0.320318, 0.751924, 0.320318, 0, 0
3, 3240.00000, 0.751923, 0.320318, 0.751923, 0.320318, 0.751923, 0.320318, 0, 0
3, 3300.00000, 0.751923, 0.320318, 0.751923, 0.320318, 0.751923, 0.320318, 0, 0
3, 3360.00000, 0.751923, 0.320318, 0.751923, 0.320318, 0.751923, 0.320318, 0, 0
3, 3420.00000, 0.751923, 0.320318, 0.751923, 0.320318, 0.751923, 0.320318, 0, 0
3, 3480.00000, 0.751923, 0.320318, 0.751923, 0.320318, 0.751923, 0.320318, 0, 0
3, 3540.00000, 0.751923, 0.320318, 0.751923, 0.320318, 0.751923, 0.320318, 0, 0
4, 0.00000, 0.751923, 0.320318, 0.751923, 0.320318, 0.751923, 0.320318, 0, 0
4, 60.00000, 0.706754, 0.301072, 0.706755, 0.301074, 0.706753, 0.301071, 0, 0
4, 120.00000, 0.70676, 0.301079, 0.70676, 0.301079, 0.70676, 0.301079, 0, 0
4, 180.00000, 0.70676, 0.301079, 0.70676, 0.301079, 0.70676, 0.301079, 0, 0
4, 240.00000, 0.70676, 0.301079, 0.70676, 0.301079, 0.70676, 0.301079, 0, 0
4, 300.00000, 0.70676, 0.301079, 0.70676, 0.301079, 0.70676, 0.301079, 0, 0
4, 360.00000, 0.70676, 0.301079, 0.70676, 0.301079, 0.70676, 0.301079, 0, 0
4, 420.00000, 0.70676, 0.301079, 0.70676, 0.301079, 0.70676, 0.301079, 0, 0
4, 480.00000, 0.70676, 0.301079, 0.70676, 0.301079, 0.70676, 0.301079, 0, 0
4, 540.00000, 0.70676, 0.301079, 0.70676, 0.301079, 0.70676, 0.301079, 0, 0
4, 600.00000, 0.70676, 0.301079, 0.70676, 0.301079, 0.70676, 0.301079, 0, 0
