hour,t(sec),V1,VAngle1,V2,VAngle2,V3,VAngle3,V4,VAngle4,I1,IAngle1,I2,IAngle2,I3,IAngle3,I4,IAngle4
0, 60.00000, 121.036, -31.7635, 120.725, -151.152, 122.652, 88.6721, 0, 0, 12.0359, -54.8372, 12.0668, -174.226, 11.8774, 65.5984, 0.29015, 54.8022
0, 120.00000, 121.036, -31.7636, 120.725, -151.152, 122.652, 88.672, 0, 0, 12.0362, -54.8375, 12.0671, -174.226, 11.8776, 65.5981, 0.290254, 54.8083
0, 180.00000, 121.036, -31.7636, 120.725, -151.152, 122.652, 88.672, 0, 0, 12.0362, -54.8375, 12.0671, -174.226, 11.8776, 65.5981, 0.290255, 54.8083
0, 240.00000, 121.036, -31.7636, 120.725, -151.152, 122.652, 88.672, 0, 0, 12.0362, -54.8375, 12.0671, -174.226, 11.8776, 65.5981, 0.290255, 54.8083
0, 300.00000, 121.036, -31.7636, 120.725, -151.152, 122.652, 88.672, 0, 0, 12.0362, -54.8375, 12.0671, -174.226, 11.8776, 65.5981, 0.290255, 54.8083
0, 360.00000, 121.036, -31.7636, 120.725, -151.152, 122.652, 88.672, 0, 0, 12.0362, -54.8375, 12.0671, -174.226, 11.8776, 65.5981, 0.290255, 54.8083
0, 420.00000, 121.036, -31.7636, 120.725, -151.152, 122.652, 88.672, 0, 0, 12.0362, -54.8375, 12.0671, -174.226, 11.8776, 65.5981, 0.290255, 54.8083
0, 480.00000, 121.848, -31.6554, 121.494, -151.045, 123.409, 88.7965, 0, 0, 10.4019, -54.7299, 10.4322, -174.119, 10.2704, 65.722, 0.248307, 53.4022
0, 540.00000, 121.849, -31.6554, 121.494, -151.045, 123.41, 88.7966, 0, 0, 10.4017, -54.7293, 10.432, -174.119, 10.2701, 65.7227, 0.24838, 53.382
0, 600.00000, 121.849, -31.6554, 121.494, -151.045, 123.41, 88.7966, 0, 0, 10.4016, -54.7293, 10.432, -174.119, 10.2701, 65.7227, 0.248383, 53.3818
0, 660.00000, 121.849, -31.6554, 121.494, -151.045, 123.41, 88.7966, 0, 0, 10.4016, -54.7293, 10.432, -174.119, 10.2701, 65.7227, 0.248383, 53.3818
0, 720.00000, 121.849, -31.6554, 121.494, -151.045, 123.41, 88.7966, 0, 0, 10.4016, -54.7293, 10.432, -174.119, 10.2701, 65.7227, 0.248383, 53.3818
0, 780.00000, 121.849, -31.6554, 121.494, -151.045, 123.41, 88.7966, 0, 0, 10.4016, -54.7293, 10.432, -174.119, 10.2701, 65.7227, 0.248383, 53.3818
0, 840.00000, 121.849, -31.6554, 121.494, -151.045, 123.41, 88.7966, 0, 0, 10.4016, -54.7293, 10.432, -174.119, 10.2701, 65.7227, 0.248383, 53.3818
0, 900.00000, 121.849, -31.6554, 121.494, -151.045, 123.41, 88.7966, 0, 0, 10.4016, -54.7293, 10.432, -174.119, 10.2701, 65.7227, 0.248383, 53.3818
0, 960.00000, 121.849, -31.6554, 121.494, -151.045, 123.41, 88.7966, 0, 0, 10.4016, -54.7293, 10.432, -174.119, 10.2701, 65.7227, 0.248383, 53.3818
0, 1020.00000, 121.849, -31.6554, 121.494, -151.045, 123.41, 88.7966, 0, 0, 10.4016, -54.7293, 10.432, -174.119, 10.2701, 65.7227, 0.248383, 53.3818
0, 1080.00000, 121.849, -31.6554, 121.494, -151.045, 123.41, 88.7966, 0, 0, 10.4016, -54.7293, 10.432, -174.119, 10.2701, 65.7227, 0.248383, 53.3818
0, 1140.00000, 121.849, -31.6554, 121.494, -151.045, 123.41, 88.7966, 0, 0, 10.4016, -54.7293, 10.432, -174.119, 10.2701, 65.7227, 0.248383, 53.3818
0, 1200.00000, 121.849, -31.6554, 121.494, -151.045, 123.41, 88.7966, 0, 0, 10.4016, -54.7293, 10.432, -174.119, 10.2701, 65.7227, 0.248383, 53.3818
0, 1260.00000, 121.849, -31.6554, 121.494, -151.045, 123.41, 88.7966, 0, 0, 10.4016, -54.7293, 10.432, -174.119, 10.2701, 65.7227, 0.248383, 53.3818
0, 1320.00000, 121.849, -31.6554, 121.494, -151.045, 123.41, 88.7966, 0, 0, 10.4016, -54.7293, 10.432, -174.119, 10.2701, 65.7227, 0.248383, 53.3818
0, 1380.00000, 121.849, -31.6554, 121.494, -151.045, 123.41, 88.7966, 0, 0, 10.4016, -54.7293, 10.432, -174.119, 10.2701, 65.7227, 0.248383, 53.3818
0, 1440.00000, 121.849, -31.6554, 121.494, -151.045, 123.41, 88.7966, 0, 0, 10.4016, -54.7293, 10.432, -174.119, 10.2701, 65.7227, 0.248383, 53.3818
0, 1500.00000, 121.849, -31.6554, 121.494, -151.045, 123.41, 88.7966, 0, 0, 10.4016, -54.7293, 10.432, -174.119, 10.2701, 65.7227, 0.248383, 53.3818
0, 1560.00000, 121.849, -31.6554, 121.494, -151.045, 123.41, 88.7966, 0, 0, 10.4016, -54.7293, 10.432, -174.119, 10.2701, 65.7227, 0.248383, 53.3818
0, 1620.00000, 121.849, -31.6554, 121.494, -151.045, 123.41, 88.7966, 0, 0, 10.4016, -54.7293, 10.432, -174.119, 10.2701, 65.7227, 0.248383, 53.3818
0, 1680.00000, 121.849, -31.6554, 121.494, -151.045, 123.41, 88.7966, 0, 0, 10.4016, -54.7293, 10.432, -174.119, 10.2701, 65.7227, 0.248383, 53.3818
0, 1740.00000, 121.849, -31.6554, 121.494, -151.045, 123.41, 88.7966, 0, 0, 10.4016, -54.7293, 10.432, -174.119, 10.2701, 65.7227, 0.248383, 53.3818
0, 1800.00000, 121.849, -31.6554, 121.494, -151.045, 123.41, 88.7966, 0, 0, 10.4016, -54.7293, 10.432, -174.119, 10.2701, 65.7227, 0.248383, 53.3818
0, 1860.00000, 121.849, -31.6554, 121.494, -151.045, 123.41, 88.7966, 0, 0, 10.4016, -54.7293, 10.432, -174.119, 10.2701, 65.7227, 0.248383, 53.3818
0, 1920.00000, 121.849, -31.6554, 121.494, -151.045, 123.41, 88.7966, 0, 0, 10.4016, -54.7293, 10.432, -174.119, 10.2701, 65.7227, 0.248383, 53.3818
0, 1980.00000, 121.849, -31.6554, 121.494, -151.045, 123.41, 88.7966, 0, 0, 10.4016, -54.7293, 10.432, -174.119, 10.2701, 65.7227, 0.248383, 53.3818
0, 2040.00000, 121.849, -31.6554, 121.494, -151.045, 123.41, 88.7966, 0, 0, 10.4016, -54.7293, 10.432, -174.119, 10.2701, 65.7227, 0.248383, 53.3818
0, 2100.00000, 121.849, -31.6554, 121.494, -151.045, 123.41, 88.7966, 0, 0, 10.4016, -54.7293, 10.432, -174.119, 10.2701, 65.7227, 0.248383, 53.3818
0, 2160.00000, 121.849, -31.6554, 121.494, -151.045, 123.41, 88.7966, 0, 0, 10.4016, -54.7293, 10.432, -174.119, 10.2701, 65.7227, 0.248383, 53.3818
0, 2220.00000, 121.849, -31.6554, 121.494, -151.045, 123.41, 88.7966, 0, 0, 10.4016, -54.7293, 10.432, -174.119, 10.2701, 65.7227, 0.248383, 53.3818
0, 2280.00000, 121.849, -31.6554, 121.494, -151.045, 123.41, 88.7966, 0, 0, 10.4016, -54.7293, 10.432, -174.119, 10.2701, 65.7227, 0.248383, 53.3818
0, 2340.00000, 121.849, -31.6554, 121.494, -151.045, 123.41, 88.7966, 0, 0, 10.4016, -54.7293, 10.432, -174.119, 10.2701, 65.7227, 0.248383, 53.3818
0, 2400.00000, 121.849, -31.6554, 121.494, -151.045, 123.41, 88.7966, 0, 0, 10.4016, -54.7293, 10.432, -174.119, 10.2701, 65.7227, 0.248383, 53.3818
0, 2460.00000, 121.849, -31.6554, 121.494, -151.045, 123.41, 88.7966, 0, 0, 10.4016, -54.7293, 10.432, -174.119, 10.2701, 65.7227, 0.248383, 53.3818
0, 2520.00000, 121.849, -31.6554, 121.494, -151.045, 123.41, 88.7966, 0, 0, 10.4016, -54.7293, 10.432, -174.119, 10.2701, 65.7227, 0.248383, 53.3818
0, 2580.00000, 121.849, -31.6554, 121.494, -151.045, 123.41, 88.7966, 0, 0, 10.4016, -54.7293, 10.432, -174.119, 10.2701, 65.7227, 0.248383, 53.3818
0, 2640.00000, 121.849, -31.6554, 121.494, -151.045, 123.41, 88.7966, 0, 0, 10.4016, -54.7293, 10.432, -174.119, 10.2701, 65.7227, 0.248383, 53.3818
0, 2700.00000, 121.849, -31.6554, 121.494, -151.045, 123.41, 88.7966, 0, 0, 10.4016, -54.7293, 10.432, -174.119, 10.2701, 65.7227, 0.248383, 53.3818
0, 2760.00000, 121.849, -31.6554, 121.494, -151.045, 123.41, 88.7966, 0, 0, 10.4016, -54.7293, 10.432, -174.119, 10.2701, 65.7227, 0.248383, 53.3818
0, 2820.00000, 121.849, -31.6554, 121.494, -151.045, 123.41, 88.7966, 0, 0, 10.4016, -54.7293, 10.432, -174.119, 10.2701, 65.7227, 0.248383, 53.3818
0, 2880.00000, 121.849, -31.6554, 121.494, -151.045, 123.41, 88.7966, 0, 0, 10.4016, -54.7293, 10.432, -174.119, 10.2701, 65.7227, 0.248383, 53.3818
0, 2940.00000, 121.849, -31.6554, 121.494, -151.045, 123.41, 88.7966, 0, 0, 10.4016, -54.7293, 10.432, -174.119, 10.2701, 65.7227, 0.248383, 53.3818
0, 3000.00000, 121.849, -31.6554, 121.494, -151.045, 123.41, 88.7966, 0, 0, 10.4016, -54.7293, 10.432, -174.119, 10.2701, 65.7227, 0.248383, 53.3818
0, 3060.00000, 121.849, -31.6554, 121.494, -151.045, 123.41, 88.7966, 0, 0, 10.4016, -54.7293, 10.432, -174.119, 10.2701, 65.7227, 0.248383, 53.3818
0, 3120.00000, 121.849, -31.6554, 121.494, -151.045, 123.41, 88.7966, 0, 0, 10.4016, -54.7293, 10.432, -174.119, 10.2701, 65.7227, 0.248383, 53.3818
0, 3180.00000, 121.849, -31.6554, 121.494, -151.045, 123.41, 88.7966, 0, 0, 10.4016, -54.7293, 10.432, -174.119, 10.2701, 65.7227, 0.248383, 53.3818
0, 3240.00000, 121.849, -31.6554, 121.494, -151.045, 123.41, 88.7966, 0, 0, 10.4016, -54.7293, 10.432, -174.119, 10.2701, 65.7227, 0.248383, 53.3818
0, 3300.00000, 121.849, -31.6554, 121.494, -151.045, 123.41, 88.7966, 0, 0, 10.4016, -54.7293, 10.432, -174.119, 10.2701, 65.7227, 0.248383, 53.3818
0, 3360.00000, 121.849, -31.6554, 121.494, -151.045, 123.41, 88.7966, 0, 0, 10.4016, -54.7293, 10.432, -174.119, 10.2701, 65.7227, 0.248383, 53.3818
0, 3420.00000, 121.849, -31.6554, 121.494, -151.045, 123.41, 88.7966, 0, 0, 10.4016, -54.7293, 10.432, -174.119, 10.2701, 65.7227, 0.248383, 53.3818
0, 3480.00000, 121.849, -31.6554, 121.494, -151.045, 123.41, 88.7966, 0, 0, 10.4016, -54.7293, 10.432, -174.119, 10.2701, 65.7227, 0.248383, 53.3818
0, 3540.00000, 121.849, -31.6554, 121.494, -151.045, 123.41, 88.7966, 0, 0, 10.4016, -54.7293, 10.432, -174.119, 10.2701, 65.7227, 0.248383, 53.3818
1, 0.00000, 121.849, -31.6554, 121.494, -151.045, 123.41, 88.7966, 0, 0, 10.4016, -54.7293, 10.432, -174.119, 10.2701, 65.7227, 0.248383, 53.3818
1, 60.00000, 122.102, -31.485, 121.963, -151.05, 123.378, 88.8009, 0, 0, 10.3802, -54.5588, 10.3921, -174.125, 10.2726, 65.7269, 0.183115, 58.5734
1, 120.00000, 122.102, -31.4851, 121.963, -151.05, 123.378, 88.8009, 0, 0, 10.3801, -54.559, 10.3919, -174.124, 10.2727, 65.727, 0.182889, 58.6022
1, 180.00000, 122.102, -31.4851, 121.963, -151.05, 123.378, 88.8009, 0, 0, 10.3801, -54.559, 10.3919, -174.124, 10.2727, 65.727, 0.182888, 58.6023
1, 240.00000, 122.102, -31.4851, 121.963, -151.05, 123.378, 88.8009, 0, 0, 10.3801, -54.559, 10.3919, -174.124, 10.2727, 65.727, 0.182888, 58.6023
1, 300.00000, 122.102, -31.4851, 121.963, -151.05, 123.378, 88.8009, 0, 0, 10.3801, -54.559, 10.3919, -174.124, 10.2727, 65.727, 0.182888, 58.6023
1, 360.00000, 122.102, -31.4851, 121.963, -151.05, 123.378, 88.8009, 0, 0, 10.3801, -54.559, 10.3919, -174.124, 10.2727, 65.727, 0.182888, 58.6023
1, 420.00000, 122.102, -31.4851, 121.963, -151.05, 123.378, 88.8009, 0, 0, 10.3801, -54.559, 10.3919, -174.124, 10.2727, 65.727, 0.182888, 58.6023
1, 480.00000, 122.102, -31.4851, 121.963, -151.05, 123.378, 88.8009, 0, 0, 10.3801, -54.559, 10.3919, -174.124, 10.2727, 65.727, 0.182888, 58.6023
1, 540.00000, 122.102, -31.4851, 121.963, -151.05, 123.378, 88.8009, 0, 0, 10.3801, -54.559, 10.3919, -174.124, 10.2727, 65.727, 0.182888, 58.6023
1, 600.00000, 122.102, -31.4851, 121.963, -151.05, 123.378, 88.8009, 0, 0, 10.3801, -54.559, 10.3919, -174.124, 10.2727, 65.727, 0.182888, 58.6023
1, 660.00000, 122.102, -31.4851, 121.963, -151.05, 123.378, 88.8009, 0, 0, 10.3801, -54.559, 10.3919, -174.124, 10.2727, 65.727, 0.182888, 58.6023
1, 720.00000, 122.102, -31.4851, 121.963, -151.05, 123.378, 88.8009, 0, 0, 10.3801, -54.559, 10.3919, -174.124, 10.2727, 65.727, 0.182888, 58.6023
1, 780.00000, 122.102, -31.4851, 121.963, -151.05, 123.378, 88.8009, 0, 0, 10.3801, -54.559, 10.3919, -174.124, 10.2727, 65.727, 0.182888, 58.6023
1, 840.00000, 122.102, -31.4851, 121.963, -151.05, 123.378, 88.8009, 0, 0, 10.3801, -54.559, 10.3919, -174.124, 10.2727, 65.727, 0.182888, 58.6023
1, 900.00000, 122.102, -31.4851, 121.963, -151.05, 123.378, 88.8009, 0, 0, 10.3801, -54.559, 10.3919, -174.124, 10.2727, 65.727, 0.182888, 58.6023
1, 960.00000, 122.102, -31.4851, 121.963, -151.05, 123.378, 88.8009, 0, 0, 10.3801, -54.559, 10.3919, -174.124, 10.2727, 65.727, 0.182888, 58.6023
1, 1020.00000, 122.102, -31.4851, 121.963, -151.05, 123.378, 88.8009, 0, 0, 10.3801, -54.559, 10.3919, -174.124, 10.2727, 65.727, 0.182888, 58.6023
1, 1080.00000, 122.102, -31.4851, 121.963, -151.05, 123.378, 88.8009, 0, 0, 10.3801, -54.559, 10.3919, -174.124, 10.2727, 65.727, 0.182888, 58.6023
1, 1140.00000, 122.102, -31.4851, 121.963, -151.05, 123.378, 88.8009, 0, 0, 10.3801, -54.559, 10.3919, -174.124, 10.2727, 65.727, 0.182888, 58.6023
1, 1200.00000, 122.102, -31.4851, 121.963, -151.05, 123.378, 88.8009, 0, 0, 10.3801, -54.559, 10.3919, -174.124, 10.2727, 65.727, 0.182888, 58.6023
1, 1260.00000, 122.102, -31.4851, 121.963, -151.05, 123.378, 88.8009, 0, 0, 10.3801, -54.559, 10.3919, -174.124, 10.2727, 65.727, 0.182888, 58.6023
1, 1320.00000, 122.102, -31.4851, 121.963, -151.05, 123.378, 88.8009, 0, 0, 10.3801, -54.559, 10.3919, -174.124, 10.2727, 65.727, 0.182888, 58.6023
1, 1380.00000, 122.102, -31.4851, 121.963, -151.05, 123.378, 88.8009, 0, 0, 10.3801, -54.559, 10.3919, -174.124, 10.2727, 65.727, 0.182888, 58.6023
1, 1440.00000, 122.102, -31.4851, 121.963, -151.05, 123.378, 88.8009, 0, 0, 10.3801, -54.559, 10.3919, -174.124, 10.2727, 65.727, 0.182888, 58.6023
1, 1500.00000, 122.102, -31.4851, 121.963, -151.05, 123.378, 88.8009, 0, 0, 10.3801, -54.559, 10.3919, -174.124, 10.2727, 65.727, 0.182888, 58.6023
1, 1560.00000, 122.102, -31.4851, 121.963, -151.05, 123.378, 88.8009, 0, 0, 10.3801, -54.559, 10.3919, -174.124, 10.2727, 65.727, 0.182888, 58.6023
1, 1620.00000, 122.102, -31.4851, 121.963, -151.05, 123.378, 88.8009, 0, 0, 10.3801, -54.559, 10.3919, -174.124, 10.2727, 65.727, 0.182888, 58.6023
1, 1680.00000, 122.102, -31.4851, 121.963, -151.05, 123.378, 88.8009, 0, 0, 10.3801, -54.559, 10.3919, -174.124, 10.2727, 65.727, 0.182888, 58.6023
1, 1740.00000, 122.102, -31.4851, 121.963, -151.05, 123.378, 88.8009, 0, 0, 10.3801, -54.559, 10.3919, -174.124, 10.2727, 65.727, 0.182888, 58.6023
1, 1800.00000, 122.102, -31.4851, 121.963, -151.05, 123.378, 88.8009, 0, 0, 10.3801, -54.559, 10.3919, -174.124, 10.2727, 65.727, 0.182888, 58.6023
1, 1860.00000, 122.102, -31.4851, 121.963, -151.05, 123.378, 88.8009, 0, 0, 10.3801, -54.559, 10.3919, -174.124, 10.2727, 65.727, 0.182888, 58.6023
1, 1920.00000, 122.102, -31.4851, 121.963, -151.05, 123.378, 88.8009, 0, 0, 10.3801, -54.559, 10.3919, -174.124, 10.2727, 65.727, 0.182888, 58.6023
1, 1980.00000, 122.102, -31.4851, 121.963, -151.05, 123.378, 88.8009, 0, 0, 10.3801, -54.559, 10.3919, -174.124, 10.2727, 65.727, 0.182888, 58.6023
1, 2040.00000, 122.102, -31.4851, 121.963, -151.05, 123.378, 88.8009, 0, 0, 10.3801, -54.559, 10.3919, -174.124, 10.2727, 65.727, 0.182888, 58.6023
1, 2100.00000, 122.102, -31.4851, 121.963, -151.05, 123.378, 88.8009, 0, 0, 10.3801, -54.559, 10.3919, -174.124, 10.2727, 65.727, 0.182888, 58.6023
1, 2160.00000, 122.102, -31.4851, 121.963, -151.05, 123.378, 88.8009, 0, 0, 10.3801, -54.559, 10.3919, -174.124, 10.2727, 65.727, 0.182888, 58.6023
1, 2220.00000, 122.102, -31.4851, 121.963, -151.05, 123.378, 88.8009, 0, 0, 10.3801, -54.559, 10.3919, -174.124, 10.2727, 65.727, 0.182888, 58.6023
1, 2280.00000, 122.102, -31.4851, 121.963, -151.05, 123.378, 88.8009, 0, 0, 10.3801, -54.559, 10.3919, -174.124, 10.2727, 65.727, 0.182888, 58.6023
1, 2340.00000, 122.102, -31.4851, 121.963, -151.05, 123.378, 88.8009, 0, 0, 10.3801, -54.559, 10.3919, -174.124, 10.2727, 65.727, 0.182888, 58.6023
1, 2400.00000, 122.102, -31.4851, 121.963, -151.05, 123.378, 88.8009, 0, 0, 10.3801, -54.559, 10.3919, -174.124, 10.2727, 65.727, 0.182888, 58.6023
1, 2460.00000, 122.102, -31.4851, 121.963, -151.05, 123.378, 88.8009, 0, 0, 10.3801, -54.559, 10.3919, -174.124, 10.2727, 65.727, 0.182888, 58.6023
1, 2520.00000, 122.102, -31.4851, 121.963, -151.05, 123.378, 88.8009, 0, 0, 10.3801, -54.559, 10.3919, -174.124, 10.2727, 65.727, 0.182888, 58.6023
1, 2580.00000, 122.102, -31.4851, 121.963, -151.05, 123.378, 88.8009, 0, 0, 10.3801, -54.559, 10.3919, -174.124, 10.2727, 65.727, 0.182888, 58.6023
1, 2640.00000, 122.102, -31.4851, 121.963, -151.05, 123.378, 88.8009, 0, 0, 10.3801, -54.559, 10.3919, -174.124, 10.2727, 65.727, 0.182888, 58.6023
1, 2700.00000, 122.102, -31.4851, 121.963, -151.05, 123.378, 88.8009, 0, 0, 10.3801, -54.559, 10.3919, -174.124, 10.2727, 65.727, 0.182888, 58.6023
1, 2760.00000, 122.102, -31.4851, 121.963, -151.05, 123.378, 88.8009, 0, 0, 10.3801, -54.559, 10.3919, -174.124, 10.2727, 65.727, 0.182888, 58.6023
1, 2820.00000, 122.102, -31.4851, 121.963, -151.05, 123.378, 88.8009, 0, 0, 10.3801, -54.559, 10.3919, -174.124, 10.2727, 65.727, 0.182888, 58.6023
1, 2880.00000, 122.102, -31.4851, 121.963, -151.05, 123.378, 88.8009, 0, 0, 10.3801, -54.559, 10.3919, -174.124, 10.2727, 65.727, 0.182888, 58.6023
1, 2940.00000, 122.102, -31.4851, 121.963, -151.05, 123.378, 88.8009, 0, 0, 10.3801, -54.559, 10.3919, -174.124, 10.2727, 65.727, 0.182888, 58.6023
1, 3000.00000, 122.102, -31.4851, 121.963, -151.05, 123.378, 88.8009, 0, 0, 10.3801, -54.559, 10.3919, -174.124, 10.2727, 65.727, 0.182888, 58.6023
1, 3060.00000, 122.102, -31.4851, 121.963, -151.05, 123.378, 88.8009, 0, 0, 10.3801, -54.559, 10.3919, -174.124, 10.2727, 65.727, 0.182888, 58.6023
1, 3120.00000, 122.102, -31.4851, 121.963, -151.05, 123.378, 88.8009, 0, 0, 10.3801, -54.559, 10.3919, -174.124, 10.2727, 65.727, 0.182888, 58.6023
1, 3180.00000, 122.102, -31.4851, 121.963, -151.05, 123.378, 88.8009, 0, 0, 10.3801, -54.559, 10.3919, -174.124, 10.2727, 65.727, 0.182888, 58.6023
1, 3240.00000, 122.102, -31.4851, 121.963, -151.05, 123.378, 88.8009, 0, 0, 10.3801, -54.559, 10.3919, -174.124, 10.2727, 65.727, 0.182888, 58.6023
1, 3300.00000, 122.102, -31.4851, 121.963, -151.05, 123.378, 88.8009, 0, 0, 10.3801, -54.559, 10.3919, -174.124, 10.2727, 65.727, 0.182888, 58.6023
1, 3360.00000, 122.102, -31.4851, 121.963, -151.05, 123.378, 88.8009, 0, 0, 10.3801, -54.559, 10.3919, -174.124, 10.2727, 65.727, 0.182888, 58.6023
1, 3420.00000, 122.102, -31.4851, 121.963, -151.05, 123.378, 88.8009, 0, 0, 10.3801, -54.559, 10.3919, -174.124, 10.2727, 65.727, 0.182888, 58.6023
1, 3480.00000, 122.102, -31.4851, 121.963, -151.05, 123.378, 88.8009, 0, 0, 10.3801, -54.559, 10.3919, -174.124, 10.2727, 65.727, 0.182888, 58.6023
1, 3540.00000, 122.102, -31.4851, 121.963, -151.05, 123.378, 88.8009, 0, 0, 10.3801, -54.559, 10.3919, -174.124, 10.2727, 65.727, 0.182888, 58.6023
2, 0.00000, 122.102, -31.4851, 121.963, -151.05, 123.378, 88.8009, 0, 0, 10.3801, -54.559, 10.3919, -174.124, 10.2727, 65.727, 0.182888, 58.6023
2, 60.00000, 122.102, -31.4851, 121.963, -151.05, 123.378, 88.8009, 0, 0, 10.3801, -54.559, 10.3919, -174.124, 10.2727, 65.727, 0.182888, 58.6023
2, 120.00000, 122.102, -31.4851, 121.963, -151.05, 123.378, 88.8009, 0, 0, 10.3801, -54.559, 10.3919, -174.124, 10.2727, 65.727, 0.182888, 58.6023
2, 180.00000, 122.102, -31.4851, 121.963, -151.05, 123.378, 88.8009, 0, 0, 10.3801, -54.559, 10.3919, -174.124, 10.2727, 65.727, 0.182888, 58.6023
2, 240.00000, 122.102, -31.4851, 121.963, -151.05, 123.378, 88.8009, 0, 0, 10.3801, -54.559, 10.3919, -174.124, 10.2727, 65.727, 0.182888, 58.6023
2, 300.00000, 122.102, -31.4851, 121.963, -151.05, 123.378, 88.8009, 0, 0, 10.3801, -54.559, 10.3919, -174.124, 10.2727, 65.727, 0.182888, 58.6023
2, 360.00000, 122.102, -31.4851, 121.963, -151.05, 123.378, 88.8009, 0, 0, 10.3801, -54.559, 10.3919, -174.124, 10.2727, 65.727, 0.182888, 58.6023
2, 420.00000, 122.102, -31.4851, 121.963, -151.05, 123.378, 88.8009, 0, 0, 10.3801, -54.559, 10.3919, -174.124, 10.2727, 65.727, 0.182888, 58.6023
2, 480.00000, 122.102, -31.4851, 121.963, -151.05, 123.378, 88.8009, 0, 0, 10.3801, -54.559, 10.3919, -174.124, 10.2727, 65.727, 0.182888, 58.6023
2, 540.00000, 122.102, -31.4851, 121.963, -151.05, 123.378, 88.8009, 0, 0, 10.3801, -54.559, 10.3919, -174.124, 10.2727, 65.727, 0.182888, 58.6023
2, 600.00000, 122.102, -31.4851, 121.963, -151.05, 123.378, 88.8009, 0, 0, 10.3801, -54.559, 10.3919, -174.124, 10.2727, 65.727, 0.182888, 58.6023
2, 660.00000, 122.102, -31.4851, 121.963, -151.05, 123.378, 88.8009, 0, 0, 10.3801, -54.559, 10.3919, -174.124, 10.2727, 65.727, 0.182888, 58.6023
2, 720.00000, 122.102, -31.4851, 121.963, -151.05, 123.378, 88.8009, 0, 0, 10.3801, -54.559, 10.3919, -174.124, 10.2727, 65.727, 0.182888, 58.6023
2, 780.00000, 122.102, -31.4851, 121.963, -151.05, 123.378, 88.8009, 0, 0, 10.3801, -54.559, 10.3919, -174.124, 10.2727, 65.727, 0.182888, 58.6023
2, 840.00000, 122.102, -31.4851, 121.963, -151.05, 123.378, 88.8009, 0, 0, 10.3801, -54.559, 10.3919, -174.124, 10.2727, 65.727, 0.182888, 58.6023
