hour,t(sec),V1,VAngle1,V2,VAngle2,V3,VAngle3,V4,VAngle4,I1,IAngle1,I2,IAngle2,I3,IAngle3,I4,IAngle4
0, 60.00000, 123.429, -32.0066, 123.007, -151.478, 124.745, 88.4541, 0, 0, 3.1742, -55.0804, 3.1851, -174.552, 3.14081, 65.3803, 0.0673193, 47.7304
0, 120.00000, 123.436, -32.0134, 123.007, -151.479, 124.765, 88.4533, 0, 0, 3.17405, -55.0872, 3.18511, -174.552, 3.14032, 65.3794, 0.0681056, 47.6837
0, 180.00000, 123.441, -32.0195, 123.007, -151.479, 124.782, 88.4525, 0, 0, 3.1739, -55.0934, 3.18512, -174.552, 3.13988, 65.3786, 0.0688144, 47.6427
0, 240.00000, 123.446, -32.025, 123.006, -151.479, 124.798, 88.4518, 0, 0, 3.17378, -55.0989, 3.18513, -174.553, 3.13948, 65.3779, 0.0694558, 47.6062
0, 300.00000, 123.451, -32.03, 123.006, -151.479, 124.812, 88.4512, 0, 0, 3.17366, -55.1039, 3.18514, -174.553, 3.13912, 65.3773, 0.0700354, 47.5739
0, 360.00000, 123.455, -32.0345, 123.006, -151.479, 124.824, 88.4506, 0, 0, 3.17356, -55.1083, 3.18515, -174.553, 3.13879, 65.3768, 0.0705573, 47.5456
0, 420.00000, 123.458, -32.0385, 123.005, -151.479, 124.836, 88.4501, 0, 0, 3.17347, -55.1124, 3.18515, -174.553, 3.1385, 65.3763, 0.0710271, 47.5208
0, 480.00000, 124.069, -31.9208, 123.583, -151.354, 125.464, 88.5904, 0, 0, 2.85331, -54.9946, 2.86452, -174.427, 2.82163, 65.5165, 0.0652172, 46.6126
0, 540.00000, 124.072, -31.9241, 123.583, -151.354, 125.473, 88.5899, 0, 0, 2.85324, -54.998, 2.86452, -174.427, 2.82141, 65.5161, 0.0655626, 46.5987
0, 600.00000, 124.074, -31.9271, 123.583, -151.354, 125.481, 88.5895, 0, 0, 2.85318, -55.001, 2.86452, -174.428, 2.82122, 65.5157, 0.0658724, 46.5864
0, 660.00000, 124.077, -31.9298, 123.583, -151.354, 125.489, 88.5892, 0, 0, 2.85312, -55.0037, 2.86453, -174.428, 2.82105, 65.5153, 0.0661512, 46.5756
0, 720.00000, 124.079, -31.9322, 123.583, -151.354, 125.496, 88.5889, 0, 0, 2.85307, -55.0061, 2.86453, -174.428, 2.82089, 65.515, 0.0664021, 46.5661
0, 780.00000, 124.081, -31.9344, 123.583, -151.354, 125.502, 88.5886, 0, 0, 2.85303, -55.0083, 2.86453, -174.428, 2.82075, 65.5147, 0.066628, 46.5576
0, 840.00000, 124.083, -31.9364, 123.583, -151.354, 125.507, 88.5883, 0, 0, 2.85299, -55.0102, 2.86454, -174.428, 2.82063, 65.5144, 0.0668314, 46.5502
0, 900.00000, 124.084, -31.9381, 123.582, -151.354, 125.512, 88.5881, 0, 0, 2.85295, -55.012, 2.86454, -174.428, 2.82052, 65.5142, 0.0670144, 46.5435
0, 960.00000, 124.086, -31.9397, 123.582, -151.354, 125.517, 88.5879, 0, 0, 2.85292, -55.0136, 2.86454, -174.428, 2.82041, 65.514, 0.0671791, 46.5376
0, 1020.00000, 124.087, -31.9412, 123.582, -151.354, 125.521, 88.5877, 0, 0, 2.85289, -55.015, 2.86454, -174.428, 2.82032, 65.5138, 0.0673274, 46.5324
0, 1080.00000, 124.088, -31.9424, 123.582, -151.354, 125.524, 88.5875, 0, 0, 2.85287, -55.0163, 2.86454, -174.428, 2.82024, 65.5136, 0.0674608, 46.5277
0, 1140.00000, 124.089, -31.9436, 123.582, -151.354, 125.527, 88.5874, 0, 0, 2.85284, -55.0175, 2.86455, -174.428, 2.82017, 65.5135, 0.0675809, 46.5235
0, 1200.00000, 124.09, -31.9447, 123.582, -151.354, 125.53, 88.5872, 0, 0, 2.85282, -55.0185, 2.86455, -174.428, 2.8201, 65.5133, 0.067689, 46.5198
0, 1260.00000, 124.091, -31.9456, 123.582, -151.354, 125.533, 88.5871, 0, 0, 2.8528, -55.0195, 2.86455, -174.428, 2.82004, 65.5132, 0.0677864, 46.5165
0, 1320.00000, 124.092, -31.9464, 123.582, -151.354, 125.535, 88.587, 0, 0, 2.85279, -55.0203, 2.86455, -174.428, 2.81999, 65.5131, 0.0678739, 46.5135
0, 1380.00000, 124.092, -31.9472, 123.582, -151.354, 125.537, 88.5869, 0, 0, 2.85277, -55.0211, 2.86455, -174.428, 2.81994, 65.513, 0.0679528, 46.5108
0, 1440.00000, 124.093, -31.9479, 123.582, -151.354, 125.539, 88.5868, 0, 0, 2.85276, -55.0218, 2.86455, -174.428, 2.81989, 65.5129, 0.0680237, 46.5085
0, 1500.00000, 124.093, -31.9485, 123.582, -151.354, 125.541, 88.5867, 0, 0, 2.85274, -55.0224, 2.86455, -174.428, 2.81985, 65.5128, 0.0680875, 46.5063
0, 1560.00000, 124.094, -31.9491, 123.582, -151.354, 125.543, 88.5866, 0, 0, 2.85273, -55.023, 2.86455, -174.428, 2.81982, 65.5127, 0.068145, 46.5044
0, 1620.00000, 124.094, -31.9496, 123.582, -151.354, 125.544, 88.5866, 0, 0, 2.85272, -55.0235, 2.86455, -174.428, 2.81979, 65.5127, 0.0681967, 46.5027
0, 1680.00000, 124.095, -31.95, 123.582, -151.354, 125.545, 88.5865, 0, 0, 2.85271, -55.0239, 2.86455, -174.428, 2.81976, 65.5126, 0.0682433, 46.5012
0, 1740.00000, 124.095, -31.9504, 123.582, -151.354, 125.546, 88.5865, 0, 0, 2.85271, -55.0243, 2.86455, -174.428, 2.81973, 65.5125, 0.0682852, 46.4998
0, 1800.00000, 124.095, -31.9508, 123.582, -151.354, 125.547, 88.5864, 0, 0, 2.8527, -55.0247, 2.86456, -174.428, 2.81971, 65.5125, 0.0683229, 46.4986
0, 1860.00000, 124.096, -31.9511, 123.582, -151.354, 125.548, 88.5864, 0, 0, 2.85269, -55.025, 2.86456, -174.428, 2.81969, 65.5124, 0.0683568, 46.4974
0, 1920.00000, 124.096, -31.9514, 123.582, -151.354, 125.549, 88.5863, 0, 0, 2.85269, -55.0253, 2.86456, -174.428, 2.81967, 65.5124, 0.0683874, 46.4964
0, 1980.00000, 124.096, -31.9517, 123.582, -151.354, 125.55, 88.5863, 0, 0, 2.85268, -55.0256, 2.86456, -174.428, 2.81965, 65.5124, 0.0684149, 46.4956
0, 2040.00000, 124.096, -31.9519, 123.582, -151.354, 125.551, 88.5863, 0, 0, 2.85268, -55.0258, 2.86456, -174.428, 2.81964, 65.5123, 0.0684396, 46.4948
0, 2100.00000, 124.097, -31.9521, 123.582, -151.354, 125.551, 88.5862, 0, 0, 2.85267, -55.026, 2.86456, -174.428, 2.81962, 65.5123, 0.0684619, 46.494
0, 2160.00000, 124.097, -31.9523, 123.582, -151.354, 125.552, 88.5862, 0, 0, 2.85267, -55.0262, 2.86456, -174.428, 2.81961, 65.5123, 0.0684819, 46.4934
0, 2220.00000, 124.097, -31.9525, 123.582, -151.354, 125.552, 88.5862, 0, 0, 2.85266, -55.0264, 2.86456, -174.428, 2.8196, 65.5123, 0.0685, 46.4928
0, 2280.00000, 124.097, -31.9527, 123.582, -151.354, 125.553, 88.5862, 0, 0, 2.85266, -55.0266, 2.86456, -174.428, 2.81959, 65.5122, 0.0685162, 46.4923
0, 2340.00000, 124.097, -31.9528, 123.582, -151.354, 125.553, 88.5861, 0, 0, 2.85266, -55.0267, 2.86456, -174.428, 2.81958, 65.5122, 0.0685308, 46.4918
0, 2400.00000, 124.097, -31.9529, 123.582, -151.354, 125.553, 88.5861, 0, 0, 2.85266, -55.0268, 2.86456, -174.428, 2.81957, 65.5122, 0.068544, 46.4914
0, 2460.00000, 124.097, -31.953, 123.582, -151.354, 125.554, 88.5861, 0, 0, 2.85265, -55.0269, 2.86456, -174.428, 2.81957, 65.5122, 0.0685558, 46.491
0, 2520.00000, 124.097, -31.9531, 123.582, -151.354, 125.554, 88.5861, 0, 0, 2.85265, -55.0271, 2.86456, -174.428, 2.81956, 65.5122, 0.0685664, 46.4907
0, 2580.00000, 124.098, -31.9532, 123.582, -151.354, 125.554, 88.5861, 0, 0, 2.85265, -55.0271, 2.86456, -174.428, 2.81955, 65.5122, 0.068576, 46.4903
0, 2640.00000, 124.098, -31.9533, 123.582, -151.354, 125.554, 88.5861, 0, 0, 2.85265, -55.0272, 2.86456, -174.428, 2.81955, 65.5121, 0.0685847, 46.4901
0, 2700.00000, 124.098, -31.9534, 123.582, -151.354, 125.555, 88.5861, 0, 0, 2.85265, -55.0273, 2.86456, -174.428, 2.81954, 65.5121, 0.0685924, 46.4898
0, 2760.00000, 124.098, -31.9535, 123.582, -151.354, 125.555, 88.586, 0, 0, 2.85264, -55.0274, 2.86456, -174.428, 2.81954, 65.5121, 0.0685994, 46.4896
0, 2820.00000, 124.098, -31.9535, 123.582, -151.354, 125.555, 88.586, 0, 0, 2.85264, -55.0274, 2.86456, -174.428, 2.81953, 65.5121, 0.0686057, 46.4894
0, 2880.00000, 124.098, -31.9536, 123.582, -151.354, 125.555, 88.586, 0, 0, 2.85264, -55.0275, 2.86456, -174.428, 2.81953, 65.5121, 0.0686114, 46.4892
0, 2940.00000, 124.098, -31.9536, 123.582, -151.354, 125.555, 88.586, 0, 0, 2.85264, -55.0275, 2.86456, -174.428, 2.81953, 65.5121, 0.0686164, 46.4891
0, 3000.00000, 124.098, -31.9537, 123.582, -151.354, 125.555, 88.586, 0, 0, 2.85264, -55.0276, 2.86456, -174.428, 2.81953, 65.5121, 0.068621, 46.4889
0, 3060.00000, 124.098, -31.9537, 123.582, -151.354, 125.556, 88.586, 0, 0, 2.85264, -55.0276, 2.86456, -174.428, 2.81952, 65.5121, 0.0686252, 46.4888
0, 3120.00000, 124.098, -31.9537, 123.582, -151.354, 125.556, 88.586, 0, 0, 2.85264, -55.0277, 2.86456, -174.428, 2.81952, 65.5121, 0.0686289, 46.4887
0, 3180.00000, 124.098, -31.9538, 123.582, -151.354, 125.556, 88.586, 0, 0, 2.85264, -55.0277, 2.86456, -174.428, 2.81952, 65.5121, 0.0686322, 46.4885
0, 3240.00000, 124.098, -31.9538, 123.582, -151.354, 125.556, 88.586, 0, 0, 2.85264, -55.0277, 2.86456, -174.428, 2.81952, 65.5121, 0.0686352, 46.4884
0, 3300.00000, 124.098, -31.9538, 123.582, -151.354, 125.556, 88.586, 0, 0, 2.85264, -55.0277, 2.86456, -174.428, 2.81951, 65.5121, 0.0686379, 46.4884
0, 3360.00000, 124.098, -31.9539, 123.582, -151.354, 125.556, 88.586, 0, 0, 2.85264, -55.0278, 2.86456, -174.428, 2.81951, 65.5121, 0.0686404, 46.4883
0, 3420.00000, 124.098, -31.9539, 123.582, -151.354, 125.556, 88.586, 0, 0, 2.85264, -55.0278, 2.86456, -174.428, 2.81951, 65.5121, 0.0686426, 46.4882
0, 3480.00000, 124.098, -31.9539, 123.582, -151.354, 125.556, 88.586, 0, 0, 2.85264, -55.0278, 2.86456, -174.428, 2.81951, 65.5121, 0.0686445, 46.4882
0, 3540.00000, 124.098, -31.9539, 123.582, -151.354, 125.556, 88.586, 0, 0, 2.85264, -55.0278, 2.86456, -174.428, 2.81951, 65.5121, 0.0686463, 46.4881
1, 0.00000, 124.098, -31.9539, 123.582, -151.354, 125.556, 88.586, 0, 0, 2.85264, -55.0278, 2.86456, -174.428, 2.81951, 65.5121, 0.0686479, 46.488
1, 60.00000, 124.098, -31.9539, 123.582, -151.354, 125.556, 88.586, 0, 0, 2.85264, -55.0279, 2.86456, -174.428, 2.81951, 65.5121, 0.0686494, 46.488
1, 120.00000, 124.098, -31.954, 123.582, -151.354, 125.556, 88.586, 0, 0, 2.85263, -55.0279, 2.86456, -174.428, 2.81951, 65.5121, 0.0686506, 46.488
1, 180.00000, 124.098, -31.954, 123.582, -151.354, 125.556, 88.586, 0, 0, 2.85263, -55.0279, 2.86456, -174.428, 2.81951, 65.5121, 0.0686518, 46.4879
1, 240.00000, 124.098, -31.954, 123.582, -151.354, 125.556, 88.586, 0, 0, 2.85263, -55.0279, 2.86456, -174.428, 2.81951, 65.5121, 0.0686529, 46.4879
1, 300.00000, 124.098, -31.954, 123.582, -151.354, 125.556, 88.586, 0, 0, 2.85263, -55.0279, 2.86456, -174.428, 2.8195, 65.5121, 0.0686538, 46.4879
1, 360.00000, 124.098, -31.954, 123.582, -151.354, 125.556, 88.586, 0, 0, 2.85263, -55.0279, 2.86456, -174.428, 2.8195, 65.512, 0.0686547, 46.4878
1, 420.00000, 124.098, -31.954, 123.582, -151.354, 125.556, 88.586, 0, 0, 2.85263, -55.0279, 2.86456, -174.428, 2.8195, 65.512, 0.0686554, 46.4878
1, 480.00000, 124.098, -31.954, 123.582, -151.354, 125.556, 88.586, 0, 0, 2.85263, -55.0279, 2.86456, -174.428, 2.8195, 65.512, 0.0686561, 46.4878
1, 540.00000, 124.098, -31.954, 123.582, -151.354, 125.556, 88.586, 0, 0, 2.85263, -55.0279, 2.86456, -174.428, 2.8195, 65.512, 0.0686567, 46.4878
1, 600.00000, 124.098, -31.954, 123.582, -151.354, 125.556, 88.586, 0, 0, 2.85263, -55.0279, 2.86456, -174.428, 2.8195, 65.512, 0.0686573, 46.4877
1, 660.00000, 124.098, -31.954, 123.582, -151.354, 125.556, 88.586, 0, 0, 2.85263, -55.0279, 2.86456, -174.428, 2.8195, 65.512, 0.0686578, 46.4877
1, 720.00000, 124.098, -31.954, 123.582, -151.354, 125.556, 88.586, 0, 0, 2.85263, -55.0279, 2.86456, -174.428, 2.8195, 65.512, 0.0686582, 46.4877
1, 780.00000, 124.098, -31.954, 123.582, -151.354, 125.556, 88.586, 0, 0, 2.85263, -55.0279, 2.86456, -174.428, 2.8195, 65.512, 0.0686586, 46.4877
1, 840.00000, 124.098, -31.954, 123.582, -151.354, 125.557, 88.586, 0, 0, 2.85263, -55.028, 2.86456, -174.428, 2.8195, 65.512, 0.068659, 46.4877
1, 900.00000, 124.098, -31.954, 123.582, -151.354, 125.557, 88.586, 0, 0, 2.85263, -55.028, 2.86456, -174.428, 2.8195, 65.512, 0.0686593, 46.4877
1, 960.00000, 124.098, -31.954, 123.582, -151.354, 125.557, 88.586, 0, 0, 2.85263, -55.028, 2.86456, -174.428, 2.8195, 65.512, 0.0686596, 46.4877
1, 1020.00000, 124.098, -31.954, 123.582, -151.354, 125.557, 88.586, 0, 0, 2.85263, -55.028, 2.86456, -174.428, 2.8195, 65.512, 0.0686599, 46.4877
1, 1080.00000, 124.098, -31.954, 123.582, -151.354, 125.557, 88.586, 0, 0, 2.85263, -55.028, 2.86456, -174.428, 2.8195, 65.512, 0.0686601, 46.4877
1, 1140.00000, 124.098, -31.954, 123.582, -151.354, 125.557, 88.586, 0, 0, 2.85263, -55.028, 2.86456, -174.428, 2.8195, 65.512, 0.0686604, 46.4876
1, 1200.00000, 124.098, -31.954, 123.582, -151.354, 125.557, 88.586, 0, 0, 2.85263, -55.028, 2.86456, -174.428, 2.8195, 65.512, 0.0686606, 46.4876
1, 1260.00000, 124.098, -31.954, 123.582, -151.354, 125.557, 88.586, 0, 0, 2.85263, -55.028, 2.86456, -174.428, 2.8195, 65.512, 0.0686607, 46.4876
1, 1320.00000, 124.098, -31.9541, 123.582, -151.354, 125.557, 88.586, 0, 0, 2.85263, -55.028, 2.86456, -174.428, 2.8195, 65.512, 0.0686609, 46.4876
1, 1380.00000, 124.098, -31.9541, 123.582, -151.354, 125.557, 88.586, 0, 0, 2.85263, -55.028, 2.86456, -174.428, 2.8195, 65.512, 0.068661, 46.4876
1, 1440.00000, 124.098, -31.9541, 123.582, -151.354, 125.557, 88.586, 0, 0, 2.85263, -55.028, 2.86456, -174.428, 2.8195, 65.512, 0.0686612, 46.4876
1, 1500.00000, 124.098, -31.9541, 123.582, -151.354, 125.557, 88.586, 0, 0, 2.85263, -55.028, 2.86456, -174.428, 2.8195, 65.512, 0.0686613, 46.4876
1, 1560.00000, 124.098, -31.9541, 123.582, -151.354, 125.557, 88.586, 0, 0, 2.85263, -55.028, 2.86456, -174.428, 2.8195, 65.512, 0.0686614, 46.4876
1, 1620.00000, 124.098, -31.9541, 123.582, -151.354, 125.557, 88.586, 0, 0, 2.85263, -55.028, 2.86456, -174.428, 2.8195, 65.512, 0.0686615, 46.4876
1, 1680.00000, 124.098, -31.9541, 123.582, -151.354, 125.557, 88.586, 0, 0, 2.85263, -55.028, 2.86456, -174.428, 2.8195, 65.512, 0.0686616, 46.4876
1, 1740.00000, 124.098, -31.9541, 123.582, -151.354, 125.557, 88.586, 0, 0, 2.85263, -55.028, 2.86456, -174.428, 2.8195, 65.512, 0.0686616, 46.4876
1, 1800.00000, 124.098, -31.9541, 123.582, -151.354, 125.557, 88.586, 0, 0, 2.85263, -55.028, 2.86456, -174.428, 2.8195, 65.512, 0.0686617, 46.4876
1, 1860.00000, 124.098, -31.9541, 123.582, -151.354, 125.557, 88.586, 0, 0, 2.85263, -55.028, 2.86456, -174.428, 2.8195, 65.512, 0.0686618, 46.4876
1, 1920.00000, 124.098, -31.9541, 123.582, -151.354, 125.557, 88.586, 0, 0, 2.85263, -55.028, 2.86456, -174.428, 2.8195, 65.512, 0.0686618, 46.4876
1, 1980.00000, 124.098, -31.9541, 123.582, -151.354, 125.557, 88.586, 0, 0, 2.85263, -55.028, 2.86456, -174.428, 2.8195, 65.512, 0.0686619, 46.4876
1, 2040.00000, 124.098, -31.9541, 123.582, -151.354, 125.557, 88.586, 0, 0, 2.85263, -55.028, 2.86456, -174.428, 2.8195, 65.512, 0.0686619, 46.4876
1, 2100.00000, 124.098, -31.9541, 123.582, -151.354, 125.557, 88.586, 0, 0, 2.85263, -55.028, 2.86456, -174.428, 2.8195, 65.512, 0.0686619, 46.4876
1, 2160.00000, 124.098, -31.9541, 123.582, -151.354, 125.557, 88.586, 0, 0, 2.85263, -55.028, 2.86456, -174.428, 2.8195, 65.512, 0.068662, 46.4876
1, 2220.00000, 124.098, -31.9541, 123.582, -151.354, 125.557, 88.586, 0, 0, 2.85263, -55.028, 2.86456, -174.428, 2.8195, 65.512, 0.068662, 46.4876
1, 2280.00000, 124.098, -31.9541, 123.582, -151.354, 125.557, 88.586, 0, 0, 2.85263, -55.028, 2.86456, -174.428, 2.8195, 65.512, 0.068662, 46.4876
1, 2340.00000, 124.098, -31.9541, 123.582, -151.354, 125.557, 88.586, 0, 0, 2.85263, -55.028, 2.86456, -174.428, 2.8195, 65.512, 0.0686621, 46.4876
1, 2400.00000, 124.098, -31.9541, 123.582, -151.354, 125.557, 88.586, 0, 0, 2.85263, -55.028, 2.86456, -174.428, 2.8195, 65.512, 0.0686621, 46.4876
1, 2460.00000, 124.098, -31.9541, 123.582, -151.354, 125.557, 88.586, 0, 0, 2.85263, -55.028, 2.86456, -174.428, 2.8195, 65.512, 0.0686621, 46.4876
1, 2520.00000, 124.098, -31.9541, 123.582, -151.354, 125.557, 88.586, 0, 0, 2.85263, -55.028, 2.86456, -174.428, 2.8195, 65.512, 0.0686621, 46.4876
1, 2580.00000, 124.098, -31.9541, 123.582, -151.354, 125.557, 88.586, 0, 0, 2.85263, -55.028, 2.86456, -174.428, 2.8195, 65.512, 0.0686622, 46.4876
1, 2640.00000, 124.098, -31.9541, 123.582, -151.354, 125.557, 88.586, 0, 0, 2.85263, -55.028, 2.86456, -174.428, 2.8195, 65.512, 0.0686622, 46.4876
1, 2700.00000, 124.098, -31.9541, 123.582, -151.354, 125.557, 88.586, 0, 0, 2.85263, -55.028, 2.86456, -174.428, 2.8195, 65.512, 0.0686622, 46.4876
1, 2760.00000, 124.098, -31.9541, 123.582, -151.354, 125.557, 88.586, 0, 0, 2.85263, -55.028, 2.86456, -174.428, 2.8195, 65.512, 0.0686622, 46.4876
1, 2820.00000, 124.098, -31.9541, 123.582, -151.354, 125.557, 88.586, 0, 0, 2.85263, -55.028, 2.86456, -174.428, 2.8195, 65.512, 0.0686622, 46.4876
1, 2880.00000, 124.098, -31.9541, 123.582, -151.354, 125.557, 88.586, 0, 0, 2.85263, -55.028, 2.86456, -174.428, 2.8195, 65.512, 0.0686622, 46.4876
1, 2940.00000, 124.098, -31.9541, 123.582, -151.354, 125.557, 88.586, 0, 0, 2.85263, -55.028, 2.86456, -174.428, 2.8195, 65.512, 0.0686622, 46.4876
1, 3000.00000, 124.098, -31.9541, 123.582, -151.354, 125.557, 88.586, 0, 0, 2.85263, -55.028, 2.86456, -174.428, 2.8195, 65.512, 0.0686622, 46.4876
1, 3060.00000, 124.098, -31.9541, 123.582, -151.354, 125.557, 88.586, 0, 0, 2.85263, -55.028, 2.86456, -174.428, 2.8195, 65.512, 0.0686622, 46.4876
1, 3120.00000, 124.098, -31.9541, 123.582, -151.354, 125.557, 88.586, 0, 0, 2.85263, -55.028, 2.86456, -174.428, 2.8195, 65.512, 0.0686622, 46.4876
1, 3180.00000, 124.098, -31.9541, 123.582, -151.354, 125.557, 88.586, 0, 0, 2.85263, -55.028, 2.86456, -174.428, 2.8195, 65.512, 0.0686622, 46.4876
1, 3240.00000, 124.098, -31.9541, 123.582, -151.354, 125.557, 88.586, 0, 0, 2.85263, -55.028, 2.86456, -174.428, 2.8195, 65.512, 0.0686623, 46.4876
1, 3300.00000, 124.098, -31.9541, 123.582, -151.354, 125.557, 88.586, 0, 0, 2.85263, -55.028, 2.86456, -174.428, 2.8195, 65.512, 0.0686623, 46.4876
1, 3360.00000, 124.098, -31.9541, 123.582, -151.354, 125.557, 88.586, 0, 0, 2.85263, -55.028, 2.86456, -174.428, 2.8195, 65.512, 0.0686623, 46.4876
1, 3420.00000, 124.098, -31.9541, 123.582, -151.354, 125.557, 88.586, 0, 0, 2.85263, -55.028, 2.86456, -174.428, 2.8195, 65.512, 0.0686623, 46.4876
1, 3480.00000, 124.098, -31.9541, 123.582, -151.354, 125.557, 88.586, 0, 0, 2.85263, -55.028, 2.86456, -174.428, 2.8195, 65.512, 0.0686623, 46.4876
1, 3540.00000, 124.098, -31.9541, 123.582, -151.354, 125.557, 88.586, 0, 0, 2.85263, -55.028, 2.86456, -174.428, 2.8195, 65.512, 0.0686623, 46.4876
2, 0.00000, 124.098, -31.9541, 123.582, -151.354, 125.557, 88.586, 0, 0, 2.85263, -55.028, 2.86456, -174.428, 2.8195, 65.512, 0.0686623, 46.4876
2, 60.00000, 124.098, -31.9541, 123.582, -151.354, 125.557, 88.586, 0, 0, 2.85263, -55.028, 2.86456, -174.428, 2.8195, 65.512, 0.0686623, 46.4876
2, 120.00000, 124.098, -31.9541, 123.582, -151.354, 125.557, 88.586, 0, 0, 2.85263, -55.028, 2.86456, -174.428, 2.8195, 65.512, 0.0686623, 46.4876
2, 180.00000, 124.098, -31.9541, 123.582, -151.354, 125.557, 88.586, 0, 0, 2.85263, -55.028, 2.86456, -174.428, 2.8195, 65.512, 0.0686623, 46.4876
2, 240.00000, 124.098, -31.9541, 123.582, -151.354, 125.557, 88.586, 0, 0, 2.85263, -55.028, 2.86456, -174.428, 2.8195, 65.512, 0.0686623, 46.4876
2, 300.00000, 124.098, -31.9541, 123.582, -151.354, 125.557, 88.586, 0, 0, 2.85263, -55.028, 2.86456, -174.428, 2.8195, 65.512, 0.0686623, 46.4876
2, 360.00000, 124.098, -31.9541, 123.582, -151.354, 125.557, 88.586, 0, 0, 2.85263, -55.028, 2.86456, -174.428, 2.8195, 65.512, 0.0686623, 46.4876
2, 420.00000, 124.098, -31.9541, 123.582, -151.354, 125.557, 88.586, 0, 0, 2.85263, -55.028, 2.86456, -174.428, 2.8195, 65.512, 0.0686623, 46.4876
2, 480.00000, 124.098, -31.9541, 123.582, -151.354, 125.557, 88.586, 0, 0, 2.85263, -55.028, 2.86456, -174.428, 2.8195, 65.512, 0.0686623, 46.4876
2, 540.00000, 124.098, -31.9541, 123.582, -151.354, 125.557, 88.586, 0, 0, 2.85263, -55.028, 2.86456, -174.428, 2.8195, 65.512, 0.0686623, 46.4876
2, 600.00000, 124.098, -31.9541, 123.582, -151.354, 125.557, 88.586, 0, 0, 2.85263, -55.028, 2.86456, -174.428, 2.8195, 65.512, 0.0686623, 46.4876
2, 660.00000, 124.098, -31.9541, 123.582, -151.354, 125.557, 88.586, 0, 0, 2.85263, -55.028, 2.86456, -174.428, 2.8195, 65.512, 0.0686623, 46.4876
2, 720.00000, 124.098, -31.9541, 123.582, -151.354, 125.557, 88.586, 0, 0, 2.85263, -55.028, 2.86456, -174.428, 2.8195, 65.512, 0.0686623, 46.4876
2, 780.00000, 124.098, -31.9541, 123.582, -151.354, 125.557, 88.586, 0, 0, 2.85263, -55.028, 2.86456, -174.428, 2.8195, 65.512, 0.0686623, 46.4876
