hour,t(sec),V1,VAngle1,V2,VAngle2,V3,VAngle3,V4,VAngle4,I1,IAngle1,I2,IAngle2,I3,IAngle3,I4,IAngle4
0, 60.00000, 125.138, -31.5688, 125.274, -151.621, 125.093, 88.359, 0, 0, 6.60082, -54.6425, 6.59366, -174.694, 6.6032, 65.2854, 0.0160252, -160.627
0, 120.00000, 125.138, -31.5688, 125.274, -151.621, 125.093, 88.359, 0, 0, 6.60087, -54.6427, 6.5937, -174.695, 6.60323, 65.2851, 0.0160256, -160.682
0, 180.00000, 125.138, -31.5688, 125.274, -151.621, 125.093, 88.359, 0, 0, 6.60087, -54.6427, 6.5937, -174.695, 6.60323, 65.2851, 0.0160256, -160.682
0, 240.00000, 125.138, -31.5688, 125.274, -151.621, 125.093, 88.359, 0, 0, 6.60087, -54.6427, 6.5937, -174.695, 6.60323, 65.2851, 0.0160256, -160.682
0, 300.00000, 125.138, -31.5688, 125.274, -151.621, 125.093, 88.359, 0, 0, 6.60087, -54.6427, 6.5937, -174.695, 6.60323, 65.2851, 0.0160256, -160.682
0, 360.00000, 125.138, -31.5688, 125.274, -151.621, 125.093, 88.359, 0, 0, 6.60087, -54.6427, 6.5937, -174.695, 6.60323, 65.2851, 0.0160256, -160.682
0, 420.00000, 125.138, -31.5688, 125.274, -151.621, 125.093, 88.359, 0, 0, 6.60087, -54.6427, 6.5937, -174.695, 6.60323, 65.2851, 0.0160256, -160.682
0, 480.00000, 125.508, -31.4414, 125.639, -151.496, 125.457, 88.4872, 0, 0, 5.7259, -54.5156, 5.71991, -174.57, 5.72821, 65.413, 0.0138903, -158.281
0, 540.00000, 125.508, -31.4414, 125.639, -151.496, 125.457, 88.4872, 0, 0, 5.72586, -54.5153, 5.71987, -174.57, 5.72818, 65.4133, 0.0138959, -158.196
0, 600.00000, 125.508, -31.4414, 125.639, -151.496, 125.457, 88.4872, 0, 0, 5.72586, -54.5153, 5.71987, -174.57, 5.72818, 65.4133, 0.013896, -158.195
0, 660.00000, 125.508, -31.4414, 125.639, -151.496, 125.457, 88.4872, 0, 0, 5.72586, -54.5153, 5.71987, -174.57, 5.72818, 65.4133, 0.013896, -158.195
0, 720.00000, 125.508, -31.4414, 125.639, -151.496, 125.457, 88.4872, 0, 0, 5.72586, -54.5153, 5.71987, -174.57, 5.72818, 65.4133, 0.013896, -158.195
0, 780.00000, 125.508, -31.4414, 125.639, -151.496, 125.457, 88.4872, 0, 0, 5.72586, -54.5153, 5.71987, -174.57, 5.72818, 65.4133, 0.013896, -158.195
0, 840.00000, 125.508, -31.4414, 125.639, -151.496, 125.457, 88.4872, 0, 0, 5.72586, -54.5153, 5.71987, -174.57, 5.72818, 65.4133, 0.013896, -158.195
0, 900.00000, 125.508, -31.4414, 125.639, -151.496, 125.457, 88.4872, 0, 0, 5.72586, -54.5153, 5.71987, -174.57, 5.72818, 65.4133, 0.013896, -158.195
0, 960.00000, 125.43, -31.5611, 125.371, -151.528, 125.458, 88.4864, 0, 0, 5.72939, -54.6349, 5.73209, -174.602, 5.72813, 65.4124, 0.00768834, 20.3913
0, 1020.00000, 125.43, -31.5611, 125.371, -151.528, 125.458, 88.4864, 0, 0, 5.7294, -54.635, 5.73211, -174.602, 5.72813, 65.4124, 0.00771524, 20.3594
0, 1080.00000, 125.43, -31.5611, 125.371, -151.528, 125.458, 88.4864, 0, 0, 5.7294, -54.635, 5.73211, -174.602, 5.72813, 65.4124, 0.00771535, 20.3593
0, 1140.00000, 125.43, -31.5611, 125.371, -151.528, 125.458, 88.4864, 0, 0, 5.7294, -54.635, 5.73211, -174.602, 5.72813, 65.4124, 0.00771535, 20.3593
0, 1200.00000, 125.43, -31.5611, 125.371, -151.528, 125.458, 88.4864, 0, 0, 5.7294, -54.635, 5.73211, -174.602, 5.72813, 65.4124, 0.00771535, 20.3593
0, 1260.00000, 125.43, -31.5611, 125.371, -151.528, 125.458, 88.4864, 0, 0, 5.7294, -54.635, 5.73211, -174.602, 5.72813, 65.4124, 0.00771535, 20.3593
0, 1320.00000, 125.43, -31.5611, 125.371, -151.528, 125.458, 88.4864, 0, 0, 5.7294, -54.635, 5.73211, -174.602, 5.72813, 65.4124, 0.00771535, 20.3593
0, 1380.00000, 125.43, -31.5611, 125.371, -151.528, 125.458, 88.4864, 0, 0, 5.7294, -54.635, 5.73211, -174.602, 5.72813, 65.4124, 0.00771535, 20.3593
0, 1440.00000, 125.43, -31.5611, 125.371, -151.528, 125.458, 88.4864, 0, 0, 5.7294, -54.635, 5.73211, -174.602, 5.72813, 65.4124, 0.00771535, 20.3593
0, 1500.00000, 125.43, -31.5611, 125.371, -151.528, 125.458, 88.4864, 0, 0, 5.7294, -54.635, 5.73211, -174.602, 5.72813, 65.4124, 0.00771535, 20.3593
0, 1560.00000, 125.43, -31.5611, 125.371, -151.528, 125.458, 88.4864, 0, 0, 5.7294, -54.635, 5.73211, -174.602, 5.72813, 65.4124, 0.00771535, 20.3593
0, 1620.00000, 125.43, -31.5611, 125.371, -151.528, 125.458, 88.4864, 0, 0, 5.7294, -54.635, 5.73211, -174.602, 5.72813, 65.4124, 0.00771535, 20.3593
0, 1680.00000, 125.43, -31.5611, 125.371, -151.528, 125.458, 88.4864, 0, 0, 5.7294, -54.635, 5.73211, -174.602, 5.72813, 65.4124, 0.00771535, 20.3593
0, 1740.00000, 125.43, -31.5611, 125.371, -151.528, 125.458, 88.4864, 0, 0, 5.7294, -54.635, 5.73211, -174.602, 5.72813, 65.4124, 0.00771535, 20.3593
0, 1800.00000, 125.43, -31.5611, 125.371, -151.528, 125.458, 88.4864, 0, 0, 5.7294, -54.635, 5.73211, -174.602, 5.72813, 65.4124, 0.00771535, 20.3593
0, 1860.00000, 125.43, -31.5611, 125.371, -151.528, 125.458, 88.4864, 0, 0, 5.7294, -54.635, 5.73211, -174.602, 5.72813, 65.4124, 0.00771535, 20.3593
0, 1920.00000, 125.43, -31.5611, 125.371, -151.528, 125.458, 88.4864, 0, 0, 5.7294, -54.635, 5.73211, -174.602, 5.72813, 65.4124, 0.00771535, 20.3593
0, 1980.00000, 125.43, -31.5611, 125.371, -151.528, 125.458, 88.4864, 0, 0, 5.7294, -54.635, 5.73211, -174.602, 5.72813, 65.4124, 0.00771535, 20.3593
0, 2040.00000, 125.43, -31.5611, 125.371, -151.528, 125.458, 88.4864, 0, 0, 5.7294, -54.635, 5.73211, -174.602, 5.72813, 65.4124, 0.00771535, 20.3593
0, 2100.00000, 125.43, -31.5611, 125.371, -151.528, 125.458, 88.4864, 0, 0, 5.7294, -54.635, 5.73211, -174.602, 5.72813, 65.4124, 0.00771535, 20.3593
0, 2160.00000, 125.43, -31.5611, 125.371, -151.528, 125.458, 88.4864, 0, 0, 5.7294, -54.635, 5.73211, -174.602, 5.72813, 65.4124, 0.00771535, 20.3593
0, 2220.00000, 125.43, -31.5611, 125.371, -151.528, 125.458, 88.4864, 0, 0, 5.7294, -54.635, 5.73211, -174.602, 5.72813, 65.4124, 0.00771535, 20.3593
0, 2280.00000, 125.43, -31.5611, 125.371, -151.528, 125.458, 88.4864, 0, 0, 5.7294, -54.635, 5.73211, -174.602, 5.72813, 65.4124, 0.00771535, 20.3593
0, 2340.00000, 125.43, -31.5611, 125.371, -151.528, 125.458, 88.4864, 0, 0, 5.7294, -54.635, 5.73211, -174.602, 5.72813, 65.4124, 0.00771535, 20.3593
0, 2400.00000, 125.43, -31.5611, 125.371, -151.528, 125.458, 88.4864, 0, 0, 5.7294, -54.635, 5.73211, -174.602, 5.72813, 65.4124, 0.00771535, 20.3593
0, 2460.00000, 125.43, -31.5611, 125.371, -151.528, 125.458, 88.4864, 0, 0, 5.7294, -54.635, 5.73211, -174.602, 5.72813, 65.4124, 0.00771535, 20.3593
0, 2520.00000, 125.43, -31.5611, 125.371, -151.528, 125.458, 88.4864, 0, 0, 5.7294, -54.635, 5.73211, -174.602, 5.72813, 65.4124, 0.00771535, 20.3593
0, 2580.00000, 125.43, -31.5611, 125.371, -151.528, 125.458, 88.4864, 0, 0, 5.7294, -54.635, 5.73211, -174.602, 5.72813, 65.4124, 0.00771535, 20.3593
0, 2640.00000, 125.43, -31.5611, 125.371, -151.528, 125.458, 88.4864, 0, 0, 5.7294, -54.635, 5.73211, -174.602, 5.72813, 65.4124, 0.00771535, 20.3593
0, 2700.00000, 125.43, -31.5611, 125.371, -151.528, 125.458, 88.4864, 0, 0, 5.7294, -54.635, 5.73211, -174.602, 5.72813, 65.4124, 0.00771535, 20.3593
0, 2760.00000, 125.518, -31.4328, 125.663, -151.493, 125.459, 88.4862, 0, 0, 5.72543, -54.5069, 5.71882, -174.567, 5.7281, 65.4123, 0.0155603, -158.424
0, 2820.00000, 125.518, -31.4328, 125.663, -151.493, 125.459, 88.4861, 0, 0, 5.72541, -54.5067, 5.71878, -174.567, 5.72811, 65.4122, 0.0156068, -158.453
0, 2880.00000, 125.518, -31.4328, 125.663, -151.493, 125.459, 88.4861, 0, 0, 5.72541, -54.5067, 5.71878, -174.567, 5.72811, 65.4122, 0.015607, -158.453
0, 2940.00000, 125.518, -31.4328, 125.663, -151.493, 125.459, 88.4861, 0, 0, 5.72541, -54.5067, 5.71878, -174.567, 5.72811, 65.4122, 0.015607, -158.453
0, 3000.00000, 125.518, -31.4328, 125.663, -151.493, 125.459, 88.4861, 0, 0, 5.72541, -54.5067, 5.71878, -174.567, 5.72811, 65.4122, 0.015607, -158.453
0, 3060.00000, 125.518, -31.4328, 125.663, -151.493, 125.459, 88.4861, 0, 0, 5.72541, -54.5067, 5.71878, -174.567, 5.72811, 65.4122, 0.015607, -158.453
0, 3120.00000, 125.518, -31.4328, 125.663, -151.493, 125.459, 88.4861, 0, 0, 5.72541, -54.5067, 5.71878, -174.567, 5.72811, 65.4122, 0.015607, -158.453
0, 3180.00000, 125.518, -31.4328, 125.663, -151.493, 125.459, 88.4861, 0, 0, 5.72541, -54.5067, 5.71878, -174.567, 5.72811, 65.4122, 0.015607, -158.453
0, 3240.00000, 125.518, -31.4328, 125.663, -151.493, 125.459, 88.4861, 0, 0, 5.72541, -54.5067, 5.71878, -174.567, 5.72811, 65.4122, 0.015607, -158.453
0, 3300.00000, 125.518, -31.4328, 125.663, -151.493, 125.459, 88.4861, 0, 0, 5.72541, -54.5067, 5.71878, -174.567, 5.72811, 65.4122, 0.015607, -158.453
0, 3360.00000, 125.518, -31.4328, 125.663, -151.493, 125.459, 88.4861, 0, 0, 5.72541, -54.5067, 5.71878, -174.567, 5.72811, 65.4122, 0.015607, -158.453
0, 3420.00000, 125.518, -31.4328, 125.663, -151.493, 125.459, 88.4861, 0, 0, 5.72541, -54.5067, 5.71878, -174.567, 5.72811, 65.4122, 0.015607, -158.453
0, 3480.00000, 125.518, -31.4328, 125.663, -151.493, 125.459, 88.4861, 0, 0, 5.72541, -54.5067, 5.71878, -174.567, 5.72811, 65.4122, 0.015607, -158.453
0, 3540.00000, 125.518, -31.4328, 125.663, -151.493, 125.459, 88.4861, 0, 0, 5.72541, -54.5067, 5.71878, -174.567, 5.72811, 65.4122, 0.015607, -158.453
1, 0.00000, 125.518, -31.4328, 125.663, -151.493, 125.459, 88.4861, 0, 0, 5.72541, -54.5067, 5.71878, -174.567, 5.72811, 65.4122, 0.015607, -158.453
1, 60.00000, 125.809, -31.3986, 125.663, -151.493, 125.546, 88.6143, 0, 0, 5.71218, -54.4728, 5.71877, -174.567, 5.72415, 65.5403, 0.0205039, -79.6239
1, 120.00000, 125.809, -31.3986, 125.663, -151.493, 125.546, 88.6144, 0, 0, 5.71214, -54.4725, 5.71877, -174.567, 5.72413, 65.5404, 0.0205527, -79.5854
1, 180.00000, 125.809, -31.3986, 125.663, -151.493, 125.546, 88.6144, 0, 0, 5.71214, -54.4725, 5.71877, -174.567, 5.72413, 65.5404, 0.0205529, -79.5852
1, 240.00000, 125.809, -31.3986, 125.663, -151.493, 125.546, 88.6144, 0, 0, 5.71214, -54.4725, 5.71877, -174.567, 5.72413, 65.5404, 0.0205529, -79.5852
1, 300.00000, 125.809, -31.3986, 125.663, -151.493, 125.546, 88.6144, 0, 0, 5.71214, -54.4725, 5.71877, -174.567, 5.72413, 65.5404, 0.0205529, -79.5852
1, 360.00000, 125.809, -31.3986, 125.663, -151.493, 125.546, 88.6144, 0, 0, 5.71214, -54.4725, 5.71877, -174.567, 5.72413, 65.5404, 0.0205529, -79.5852
1, 420.00000, 125.809, -31.3986, 125.663, -151.493, 125.546, 88.6144, 0, 0, 5.71214, -54.4725, 5.71877, -174.567, 5.72413, 65.5404, 0.0205529, -79.5852
1, 480.00000, 125.809, -31.3986, 125.663, -151.493, 125.546, 88.6144, 0, 0, 5.71214, -54.4725, 5.71877, -174.567, 5.72413, 65.5404, 0.0205529, -79.5852
1, 540.00000, 125.809, -31.3986, 125.663, -151.493, 125.546, 88.6144, 0, 0, 5.71214, -54.4725, 5.71877, -174.567, 5.72413, 65.5404, 0.0205529, -79.5852
1, 600.00000, 125.809, -31.3986, 125.663, -151.493, 125.546, 88.6144, 0, 0, 5.71214, -54.4725, 5.71877, -174.567, 5.72413, 65.5404, 0.0205529, -79.5852
1, 660.00000, 125.809, -31.3986, 125.663, -151.493, 125.546, 88.6144, 0, 0, 5.71214, -54.4725, 5.71877, -174.567, 5.72413, 65.5404, 0.0205529, -79.5852
1, 720.00000, 125.809, -31.3986, 125.663, -151.493, 125.546, 88.6144, 0, 0, 5.71214, -54.4725, 5.71877, -174.567, 5.72413, 65.5404, 0.0205529, -79.5852
1, 780.00000, 125.809, -31.3986, 125.663, -151.493, 125.546, 88.6144, 0, 0, 5.71214, -54.4725, 5.71877, -174.567, 5.72413, 65.5404, 0.0205529, -79.5852
1, 840.00000, 125.809, -31.3986, 125.663, -151.493, 125.546, 88.6144, 0, 0, 5.71214, -54.4725, 5.71877, -174.567, 5.72413, 65.5404, 0.0205529, -79.5852
1, 900.00000, 125.809, -31.3986, 125.663, -151.493, 125.546, 88.6144, 0, 0, 5.71214, -54.4725, 5.71877, -174.567, 5.72413, 65.5404, 0.0205529, -79.5852
1, 960.00000, 125.809, -31.3986, 125.663, -151.493, 125.546, 88.6144, 0, 0, 5.71214, -54.4725, 5.71877, -174.567, 5.72413, 65.5404, 0.0205529, -79.5852
1, 1020.00000, 125.809, -31.3986, 125.663, -151.493, 125.546, 88.6144, 0, 0, 5.71214, -54.4725, 5.71877, -174.567, 5.72413, 65.5404, 0.0205529, -79.5852
1, 1080.00000, 125.809, -31.3986, 125.663, -151.493, 125.546, 88.6144, 0, 0, 5.71214, -54.4725, 5.71877, -174.567, 5.72413, 65.5404, 0.0205529, -79.5852
1, 1140.00000, 125.809, -31.3986, 125.663, -151.493, 125.546, 88.6144, 0, 0, 5.71214, -54.4725, 5.71877, -174.567, 5.72413, 65.5404, 0.0205529, -79.5852
1, 1200.00000, 125.809, -31.3986, 125.663, -151.493, 125.546, 88.6144, 0, 0, 5.71214, -54.4725, 5.71877, -174.567, 5.72413, 65.5404, 0.0205529, -79.5852
1, 1260.00000, 125.809, -31.3986, 125.663, -151.493, 125.546, 88.6144, 0, 0, 5.71214, -54.4725, 5.71877, -174.567, 5.72413, 65.5404, 0.0205529, -79.5852
1, 1320.00000, 125.809, -31.3986, 125.663, -151.493, 125.546, 88.6144, 0, 0, 5.71214, -54.4725, 5.71877, -174.567, 5.72413, 65.5404, 0.0205529, -79.5852
1, 1380.00000, 125.809, -31.3986, 125.663, -151.493, 125.546, 88.6144, 0, 0, 5.71214, -54.4725, 5.71877, -174.567, 5.72413, 65.5404, 0.0205529, -79.5852
1, 1440.00000, 125.809, -31.3986, 125.663, -151.493, 125.546, 88.6144, 0, 0, 5.71214, -54.4725, 5.71877, -174.567, 5.72413, 65.5404, 0.0205529, -79.5852
1, 1500.00000, 125.809, -31.3986, 125.663, -151.493, 125.546, 88.6144, 0, 0, 5.71214, -54.4725, 5.71877, -174.567, 5.72413, 65.5404, 0.0205529, -79.5852
1, 1560.00000, 125.809, -31.3986, 125.663, -151.493, 125.546, 88.6144, 0, 0, 5.71214, -54.4725, 5.71877, -174.567, 5.72413, 65.5404, 0.0205529, -79.5852
1, 1620.00000, 125.809, -31.3986, 125.663, -151.493, 125.546, 88.6144, 0, 0, 5.71214, -54.4725, 5.71877, -174.567, 5.72413, 65.5404, 0.0205529, -79.5852
1, 1680.00000, 125.809, -31.3986, 125.663, -151.493, 125.546, 88.6144, 0, 0, 5.71214, -54.4725, 5.71877, -174.567, 5.72413, 65.5404, 0.0205529, -79.5852
1, 1740.00000, 125.809, -31.3986, 125.663, -151.493, 125.546, 88.6144, 0, 0, 5.71214, -54.4725, 5.71877, -174.567, 5.72413, 65.5404, 0.0205529, -79.5852
1, 1800.00000, 125.809, -31.3986, 125.663, -151.493, 125.546, 88.6144, 0, 0, 5.71214, -54.4725, 5.71877, -174.567, 5.72413, 65.5404, 0.0205529, -79.5852
1, 1860.00000, 125.809, -31.3986, 125.663, -151.493, 125.546, 88.6144, 0, 0, 5.71214, -54.4725, 5.71877, -174.567, 5.72413, 65.5404, 0.0205529, -79.5852
1, 1920.00000, 125.809, -31.3986, 125.663, -151.493, 125.546, 88.6144, 0, 0, 5.71214, -54.4725, 5.71877, -174.567, 5.72413, 65.5404, 0.0205529, -79.5852
1, 1980.00000, 125.809, -31.3986, 125.663, -151.493, 125.546, 88.6144, 0, 0, 5.71214, -54.4725, 5.71877, -174.567, 5.72413, 65.5404, 0.0205529, -79.5852
1, 2040.00000, 125.809, -31.3986, 125.663, -151.493, 125.546, 88.6144, 0, 0, 5.71214, -54.4725, 5.71877, -174.567, 5.72413, 65.5404, 0.0205529, -79.5852
1, 2100.00000, 125.809, -31.3986, 125.663, -151.493, 125.546, 88.6144, 0, 0, 5.71214, -54.4725, 5.71877, -174.567, 5.72413, 65.5404, 0.0205529, -79.5852
1, 2160.00000, 125.809, -31.3986, 125.663, -151.493, 125.546, 88.6144, 0, 0, 5.71214, -54.4725, 5.71877, -174.567, 5.72413, 65.5404, 0.0205529, -79.5852
1, 2220.00000, 125.809, -31.3986, 125.663, -151.493, 125.546, 88.6144, 0, 0, 5.71214, -54.4725, 5.71877, -174.567, 5.72413, 65.5404, 0.0205529, -79.5852
1, 2280.00000, 125.809, -31.3986, 125.663, -151.493, 125.546, 88.6144, 0, 0, 5.71214, -54.4725, 5.71877, -174.567, 5.72413, 65.5404, 0.0205529, -79.5852
1, 2340.00000, 125.809, -31.3986, 125.663, -151.493, 125.546, 88.6144, 0, 0, 5.71214, -54.4725, 5.71877, -174.567, 5.72413, 65.5404, 0.0205529, -79.5852
1, 2400.00000, 125.809, -31.3986, 125.663, -151.493, 125.546, 88.6144, 0, 0, 5.71214, -54.4725, 5.71877, -174.567, 5.72413, 65.5404, 0.0205529, -79.5852
1, 2460.00000, 125.809, -31.3986, 125.663, -151.493, 125.546, 88.6144, 0, 0, 5.71214, -54.4725, 5.71877, -174.567, 5.72413, 65.5404, 0.0205529, -79.5852
1, 2520.00000, 125.809, -31.3986, 125.663, -151.493, 125.546, 88.6144, 0, 0, 5.71214, -54.4725, 5.71877, -174.567, 5.72413, 65.5404, 0.0205529, -79.5852
1, 2580.00000, 125.809, -31.3986, 125.663, -151.493, 125.546, 88.6144, 0, 0, 5.71214, -54.4725, 5.71877, -174.567, 5.72413, 65.5404, 0.0205529, -79.5852
1, 2640.00000, 125.809, -31.3986, 125.663, -151.493, 125.546, 88.6144, 0, 0, 5.71214, -54.4725, 5.71877, -174.567, 5.72413, 65.5404, 0.0205529, -79.5852
1, 2700.00000, 125.809, -31.3986, 125.663, -151.493, 125.546, 88.6144, 0, 0, 5.71214, -54.4725, 5.71877, -174.567, 5.72413, 65.5404, 0.0205529, -79.5852
1, 2760.00000, 125.809, -31.3986, 125.663, -151.493, 125.546, 88.6144, 0, 0, 5.71214, -54.4725, 5.71877, -174.567, 5.72413, 65.5404, 0.0205529, -79.5852
1, 2820.00000, 125.809, -31.3986, 125.663, -151.493, 125.546, 88.6144, 0, 0, 5.71214, -54.4725, 5.71877, -174.567, 5.72413, 65.5404, 0.0205529, -79.5852
1, 2880.00000, 125.809, -31.3986, 125.663, -151.493, 125.546, 88.6144, 0, 0, 5.71214, -54.4725, 5.71877, -174.567, 5.72413, 65.5404, 0.0205529, -79.5852
1, 2940.00000, 125.809, -31.3986, 125.663, -151.493, 125.546, 88.6144, 0, 0, 5.71214, -54.4725, 5.71877, -174.567, 5.72413, 65.5404, 0.0205529, -79.5852
1, 3000.00000, 125.809, -31.3986, 125.663, -151.493, 125.546, 88.6144, 0, 0, 5.71214, -54.4725, 5.71877, -174.567, 5.72413, 65.5404, 0.0205529, -79.5852
1, 3060.00000, 125.809, -31.3986, 125.663, -151.493, 125.546, 88.6144, 0, 0, 5.71214, -54.4725, 5.71877, -174.567, 5.72413, 65.5404, 0.0205529, -79.5852
1, 3120.00000, 125.809, -31.3986, 125.663, -151.493, 125.546, 88.6144, 0, 0, 5.71214, -54.4725, 5.71877, -174.567, 5.72413, 65.5404, 0.0205529, -79.5852
1, 3180.00000, 125.809, -31.3986, 125.663, -151.493, 125.546, 88.6144, 0, 0, 5.71214, -54.4725, 5.71877, -174.567, 5.72413, 65.5404, 0.0205529, -79.5852
1, 3240.00000, 125.809, -31.3986, 125.663, -151.493, 125.546, 88.6144, 0, 0, 5.71214, -54.4725, 5.71877, -174.567, 5.72413, 65.5404, 0.0205529, -79.5852
1, 3300.00000, 125.809, -31.3986, 125.663, -151.493, 125.546, 88.6144, 0, 0, 5.71214, -54.4725, 5.71877, -174.567, 5.72413, 65.5404, 0.0205529, -79.5852
1, 3360.00000, 125.809, -31.3986, 125.663, -151.493, 125.546, 88.6144, 0, 0, 5.71214, -54.4725, 5.71877, -174.567, 5.72413, 65.5404, 0.0205529, -79.5852
1, 3420.00000, 125.809, -31.3986, 125.663, -151.493, 125.546, 88.6144, 0, 0, 5.71214, -54.4725, 5.71877, -174.567, 5.72413, 65.5404, 0.0205529, -79.5852
1, 3480.00000, 125.809, -31.3986, 125.663, -151.493, 125.546, 88.6144, 0, 0, 5.71214, -54.4725, 5.71877, -174.567, 5.72413, 65.5404, 0.0205529, -79.5852
1, 3540.00000, 125.809, -31.3986, 125.663, -151.493, 125.546, 88.6144, 0, 0, 5.71214, -54.4725, 5.71877, -174.567, 5.72413, 65.5404, 0.0205529, -79.5852
2, 0.00000, 125.809, -31.3986, 125.663, -151.493, 125.546, 88.6144, 0, 0, 5.71214, -54.4725, 5.71877, -174.567, 5.72413, 65.5404, 0.0205529, -79.5852
2, 60.00000, 125.809, -31.3986, 125.663, -151.493, 125.546, 88.6144, 0, 0, 5.71214, -54.4725, 5.71877, -174.567, 5.72413, 65.5404, 0.0205529, -79.5852
2, 120.00000, 125.809, -31.3986, 125.663, -151.493, 125.546, 88.6144, 0, 0, 5.71214, -54.4725, 5.71877, -174.567, 5.72413, 65.5404, 0.0205529, -79.5852
2, 180.00000, 125.809, -31.3986, 125.663, -151.493, 125.546, 88.6144, 0, 0, 5.71214, -54.4725, 5.71877, -174.567, 5.72413, 65.5404, 0.0205529, -79.5852
2, 240.00000, 125.809, -31.3986, 125.663, -151.493, 125.546, 88.6144, 0, 0, 5.71214, -54.4725, 5.71877, -174.567, 5.72413, 65.5404, 0.0205529, -79.5852
2, 300.00000, 125.809, -31.3986, 125.663, -151.493, 125.546, 88.6144, 0, 0, 5.71214, -54.4725, 5.71877, -174.567, 5.72413, 65.5404, 0.0205529, -79.5852
2, 360.00000, 125.809, -31.3986, 125.663, -151.493, 125.546, 88.6144, 0, 0, 5.71214, -54.4725, 5.71877, -174.567, 5.72413, 65.5404, 0.0205529, -79.5852
2, 420.00000, 125.809, -31.3986, 125.663, -151.493, 125.546, 88.6144, 0, 0, 5.71214, -54.4725, 5.71877, -174.567, 5.72413, 65.5404, 0.0205529, -79.5852
2, 480.00000, 125.809, -31.3986, 125.663, -151.493, 125.546, 88.6144, 0, 0, 5.71214, -54.4725, 5.71877, -174.567, 5.72413, 65.5404, 0.0205529, -79.5852
2, 540.00000, 125.809, -31.3986, 125.663, -151.493, 125.546, 88.6144, 0, 0, 5.71214, -54.4725, 5.71877, -174.567, 5.72413, 65.5404, 0.0205529, -79.5852
2, 600.00000, 125.809, -31.3986, 125.663, -151.493, 125.546, 88.6144, 0, 0, 5.71214, -54.4725, 5.71877, -174.567, 5.72413, 65.5404, 0.0205529, -79.5852
2, 660.00000, 125.809, -31.3986, 125.663, -151.493, 125.546, 88.6144, 0, 0, 5.71214, -54.4725, 5.71877, -174.567, 5.72413, 65.5404, 0.0205529, -79.5852
