hour,t(sec),V1,VAngle1,V2,VAngle2,V3,VAngle3,V4,VAngle4,I1,IAngle1,I2,IAngle2,I3,IAngle3,I4,IAngle4
0, 60.00000, 117.272, -30.8523, 119.145, -150.986, 118.224, 88.4538, 0, 0, 9.11731, -53.9259, 9.27919, -174.06, 9.19964, 65.38, 0.0441591, -50.1899
0, 120.00000, 117.272, -30.8523, 119.145, -150.986, 118.224, 88.4538, 0, 0, 9.11725, -53.9262, 9.27913, -174.06, 9.19959, 65.3799, 0.044171, -50.1807
0, 180.00000, 117.272, -30.8523, 119.145, -150.986, 118.224, 88.4538, 0, 0, 9.11725, -53.9262, 9.27913, -174.06, 9.19959, 65.3799, 0.044171, -50.1809
0, 240.00000, 117.272, -30.8523, 119.145, -150.986, 118.224, 88.4538, 0, 0, 9.11725, -53.9262, 9.27913, -174.06, 9.19959, 65.3799, 0.044171, -50.1809
0, 300.00000, 117.272, -30.8523, 119.145, -150.986, 118.224, 88.4538, 0, 0, 9.11725, -53.9262, 9.27913, -174.06, 9.19959, 65.3799, 0.044171, -50.1809
0, 360.00000, 117.272, -30.8523, 119.145, -150.986, 118.224, 88.4538, 0, 0, 9.11725, -53.9262, 9.27913, -174.06, 9.19959, 65.3799, 0.044171, -50.1809
0, 420.00000, 117.272, -30.8523, 119.145, -150.986, 118.224, 88.4538, 0, 0, 9.11725, -53.9262, 9.27913, -174.06, 9.19959, 65.3799, 0.044171, -50.1809
0, 480.00000, 118.306, -30.7579, 120.16, -150.903, 119.205, 88.5562, 0, 0, 8.00977, -53.8321, 8.14906, -173.977, 8.07726, 65.4818, 0.0373728, -47.6992
0, 540.00000, 118.306, -30.7579, 120.16, -150.903, 119.205, 88.5562, 0, 0, 8.0098, -53.8318, 8.14923, -173.977, 8.07741, 65.4823, 0.0375325, -47.6793
0, 600.00000, 118.306, -30.7579, 120.16, -150.903, 119.205, 88.5562, 0, 0, 8.0098, -53.8318, 8.14923, -173.977, 8.07741, 65.4823, 0.0375333, -47.6791
0, 660.00000, 118.306, -30.7579, 120.16, -150.903, 119.205, 88.5562, 0, 0, 8.0098, -53.8318, 8.14923, -173.977, 8.07741, 65.4823, 0.0375333, -47.6791
0, 720.00000, 118.306, -30.7579, 120.16, -150.903, 119.205, 88.5562, 0, 0, 8.0098, -53.8318, 8.14923, -173.977, 8.07741, 65.4823, 0.0375333, -47.6791
0, 780.00000, 118.306, -30.7579, 120.16, -150.903, 119.205, 88.5562, 0, 0, 8.0098, -53.8318, 8.14923, -173.977, 8.07741, 65.4823, 0.0375333, -47.6791
0, 840.00000, 118.306, -30.7579, 120.16, -150.903, 119.205, 88.5562, 0, 0, 8.0098, -53.8318, 8.14923, -173.977, 8.07741, 65.4823, 0.0375333, -47.6791
0, 900.00000, 118.306, -30.7579, 120.16, -150.903, 119.205, 88.5562, 0, 0, 8.0098, -53.8318, 8.14923, -173.977, 8.07741, 65.4823, 0.0375333, -47.6791
0, 960.00000, 118.306, -30.7579, 120.16, -150.903, 119.205, 88.5562, 0, 0, 8.0098, -53.8318, 8.14923, -173.977, 8.07741, 65.4823, 0.0375333, -47.6791
0, 1020.00000, 118.306, -30.7579, 120.16, -150.903, 119.205, 88.5562, 0, 0, 8.0098, -53.8318, 8.14923, -173.977, 8.07741, 65.4823, 0.0375333, -47.6791
0, 1080.00000, 118.306, -30.7579, 120.16, -150.903, 119.205, 88.5562, 0, 0, 8.0098, -53.8318, 8.14923, -173.977, 8.07741, 65.4823, 0.0375333, -47.6791
0, 1140.00000, 118.306, -30.7579, 120.16, -150.903, 119.205, 88.5562, 0, 0, 8.0098, -53.8318, 8.14923, -173.977, 8.07741, 65.4823, 0.0375333, -47.6791
0, 1200.00000, 118.306, -30.7579, 120.16, -150.903, 119.205, 88.5562, 0, 0, 8.0098, -53.8318, 8.14923, -173.977, 8.07741, 65.4823, 0.0375333, -47.6791
0, 1260.00000, 118.306, -30.7579, 120.16, -150.903, 119.205, 88.5562, 0, 0, 8.0098, -53.8318, 8.14923, -173.977, 8.07741, 65.4823, 0.0375333, -47.6791
0, 1320.00000, 118.306, -30.7579, 120.16, -150.903, 119.205, 88.5562, 0, 0, 8.0098, -53.8318, 8.14923, -173.977, 8.07741, 65.4823, 0.0375333, -47.6791
0, 1380.00000, 118.306, -30.7579, 120.16, -150.903, 119.205, 88.5562, 0, 0, 8.0098, -53.8318, 8.14923, -173.977, 8.07741, 65.4823, 0.0375333, -47.6791
0, 1440.00000, 118.306, -30.7579, 120.16, -150.903, 119.205, 88.5562, 0, 0, 8.0098, -53.8318, 8.14923, -173.977, 8.07741, 65.4823, 0.0375333, -47.6791
0, 1500.00000, 118.306, -30.7579, 120.16, -150.903, 119.205, 88.5562, 0, 0, 8.0098, -53.8318, 8.14923, -173.977, 8.07741, 65.4823, 0.0375333, -47.6791
0, 1560.00000, 118.306, -30.7579, 120.16, -150.903, 119.205, 88.5562, 0, 0, 8.0098, -53.8318, 8.14923, -173.977, 8.07741, 65.4823, 0.0375333, -47.6791
0, 1620.00000, 118.306, -30.7579, 120.16, -150.903, 119.205, 88.5562, 0, 0, 8.0098, -53.8318, 8.14923, -173.977, 8.07741, 65.4823, 0.0375333, -47.6791
0, 1680.00000, 118.306, -30.7579, 120.16, -150.903, 119.205, 88.5562, 0, 0, 8.0098, -53.8318, 8.14923, -173.977, 8.07741, 65.4823, 0.0375333, -47.6791
0, 1740.00000, 118.306, -30.7579, 120.16, -150.903, 119.205, 88.5562, 0, 0, 8.0098, -53.8318, 8.14923, -173.977, 8.07741, 65.4823, 0.0375333, -47.6791
0, 1800.00000, 118.306, -30.7579, 120.16, -150.903, 119.205, 88.5562, 0, 0, 8.0098, -53.8318, 8.14923, -173.977, 8.07741, 65.4823, 0.0375333, -47.6791
0, 1860.00000, 118.306, -30.7579, 120.16, -150.903, 119.205, 88.5562, 0, 0, 8.0098, -53.8318, 8.14923, -173.977, 8.07741, 65.4823, 0.0375333, -47.6791
0, 1920.00000, 118.306, -30.7579, 120.16, -150.903, 119.205, 88.5562, 0, 0, 8.0098, -53.8318, 8.14923, -173.977, 8.07741, 65.4823, 0.0375333, -47.6791
0, 1980.00000, 118.306, -30.7579, 120.16, -150.903, 119.205, 88.5562, 0, 0, 8.0098, -53.8318, 8.14923, -173.977, 8.07741, 65.4823, 0.0375333, -47.6791
0, 2040.00000, 118.306, -30.7579, 120.16, -150.903, 119.205, 88.5562, 0, 0, 8.0098, -53.8318, 8.14923, -173.977, 8.07741, 65.4823, 0.0375333, -47.6791
0, 2100.00000, 118.306, -30.7579, 120.16, -150.903, 119.205, 88.5562, 0, 0, 8.0098, -53.8318, 8.14923, -173.977, 8.07741, 65.4823, 0.0375333, -47.6791
0, 2160.00000, 118.306, -30.7579, 120.16, -150.903, 119.205, 88.5562, 0, 0, 8.0098, -53.8318, 8.14923, -173.977, 8.07741, 65.4823, 0.0375333, -47.6791
0, 2220.00000, 118.306, -30.7579, 120.16, -150.903, 119.205, 88.5562, 0, 0, 8.0098, -53.8318, 8.14923, -173.977, 8.07741, 65.4823, 0.0375333, -47.6791
0, 2280.00000, 118.306, -30.7579, 120.16, -150.903, 119.205, 88.5562, 0, 0, 8.0098, -53.8318, 8.14923, -173.977, 8.07741, 65.4823, 0.0375333, -47.6791
0, 2340.00000, 118.306, -30.7579, 120.16, -150.903, 119.205, 88.5562, 0, 0, 8.0098, -53.8318, 8.14923, -173.977, 8.07741, 65.4823, 0.0375333, -47.6791
0, 2400.00000, 118.306, -30.7579, 120.16, -150.903, 119.205, 88.5562, 0, 0, 8.0098, -53.8318, 8.14923, -173.977, 8.07741, 65.4823, 0.0375333, -47.6791
0, 2460.00000, 118.306, -30.7579, 120.16, -150.903, 119.205, 88.5562, 0, 0, 8.0098, -53.8318, 8.14923, -173.977, 8.07741, 65.4823, 0.0375333, -47.6791
0, 2520.00000, 118.306, -30.7579, 120.16, -150.903, 119.205, 88.5562, 0, 0, 8.0098, -53.8318, 8.14923, -173.977, 8.07741, 65.4823, 0.0375333, -47.6791
0, 2580.00000, 118.306, -30.7579, 120.16, -150.903, 119.205, 88.5562, 0, 0, 8.0098, -53.8318, 8.14923, -173.977, 8.07741, 65.4823, 0.0375333, -47.6791
0, 2640.00000, 118.306, -30.7579, 120.16, -150.903, 119.205, 88.5562, 0, 0, 8.0098, -53.8318, 8.14923, -173.977, 8.07741, 65.4823, 0.0375333, -47.6791
0, 2700.00000, 118.306, -30.7579, 120.16, -150.903, 119.205, 88.5562, 0, 0, 8.0098, -53.8318, 8.14923, -173.977, 8.07741, 65.4823, 0.0375333, -47.6791
0, 2760.00000, 118.306, -30.7579, 120.16, -150.903, 119.205, 88.5562, 0, 0, 8.0098, -53.8318, 8.14923, -173.977, 8.07741, 65.4823, 0.0375333, -47.6791
0, 2820.00000, 118.306, -30.7579, 120.16, -150.903, 119.205, 88.5562, 0, 0, 8.0098, -53.8318, 8.14923, -173.977, 8.07741, 65.4823, 0.0375333, -47.6791
0, 2880.00000, 118.306, -30.7579, 120.16, -150.903, 119.205, 88.5562, 0, 0, 8.0098, -53.8318, 8.14923, -173.977, 8.07741, 65.4823, 0.0375333, -47.6791
0, 2940.00000, 118.306, -30.7579, 120.16, -150.903, 119.205, 88.5562, 0, 0, 8.0098, -53.8318, 8.14923, -173.977, 8.07741, 65.4823, 0.0375333, -47.6791
0, 3000.00000, 118.306, -30.7579, 120.16, -150.903, 119.205, 88.5562, 0, 0, 8.0098, -53.8318, 8.14923, -173.977, 8.07741, 65.4823, 0.0375333, -47.6791
0, 3060.00000, 118.306, -30.7579, 120.16, -150.903, 119.205, 88.5562, 0, 0, 8.0098, -53.8318, 8.14923, -173.977, 8.07741, 65.4823, 0.0375333, -47.6791
0, 3120.00000, 118.306, -30.7579, 120.16, -150.903, 119.205, 88.5562, 0, 0, 8.0098, -53.8318, 8.14923, -173.977, 8.07741, 65.4823, 0.0375333, -47.6791
0, 3180.00000, 118.306, -30.7579, 120.16, -150.903, 119.205, 88.5562, 0, 0, 8.0098, -53.8318, 8.14923, -173.977, 8.07741, 65.4823, 0.0375333, -47.6791
0, 3240.00000, 118.306, -30.7579, 120.16, -150.903, 119.205, 88.5562, 0, 0, 8.0098, -53.8318, 8.14923, -173.977, 8.07741, 65.4823, 0.0375333, -47.6791
0, 3300.00000, 118.306, -30.7579, 120.16, -150.903, 119.205, 88.5562, 0, 0, 8.0098, -53.8318, 8.14923, -173.977, 8.07741, 65.4823, 0.0375333, -47.6791
0, 3360.00000, 118.306, -30.7579, 120.16, -150.903, 119.205, 88.5562, 0, 0, 8.0098, -53.8318, 8.14923, -173.977, 8.07741, 65.4823, 0.0375333, -47.6791
0, 3420.00000, 118.306, -30.7579, 120.16, -150.903, 119.205, 88.5562, 0, 0, 8.0098, -53.8318, 8.14923, -173.977, 8.07741, 65.4823, 0.0375333, -47.6791
0, 3480.00000, 118.306, -30.7579, 120.16, -150.903, 119.205, 88.5562, 0, 0, 8.0098, -53.8318, 8.14923, -173.977, 8.07741, 65.4823, 0.0375333, -47.6791
0, 3540.00000, 118.306, -30.7579, 120.16, -150.903, 119.205, 88.5562, 0, 0, 8.0098, -53.8318, 8.14923, -173.977, 8.07741, 65.4823, 0.0375333, -47.6791
1, 0.00000, 118.306, -30.7579, 120.16, -150.903, 119.205, 88.5562, 0, 0, 8.0098, -53.8318, 8.14923, -173.977, 8.07741, 65.4823, 0.0375333, -47.6791
1, 60.00000, 118.306, -30.7579, 120.16, -150.903, 119.205, 88.5562, 0, 0, 8.0098, -53.8318, 8.14923, -173.977, 8.07741, 65.4823, 0.0375333, -47.6791
1, 120.00000, 118.306, -30.7579, 120.16, -150.903, 119.205, 88.5562, 0, 0, 8.0098, -53.8318, 8.14923, -173.977, 8.07741, 65.4823, 0.0375333, -47.6791
1, 180.00000, 118.306, -30.7579, 120.16, -150.903, 119.205, 88.5562, 0, 0, 8.0098, -53.8318, 8.14923, -173.977, 8.07741, 65.4823, 0.0375333, -47.6791
1, 240.00000, 118.306, -30.7579, 120.16, -150.903, 119.205, 88.5562, 0, 0, 8.0098, -53.8318, 8.14923, -173.977, 8.07741, 65.4823, 0.0375333, -47.6791
1, 300.00000, 118.306, -30.7579, 120.16, -150.903, 119.205, 88.5562, 0, 0, 8.0098, -53.8318, 8.14923, -173.977, 8.07741, 65.4823, 0.0375333, -47.6791
1, 360.00000, 118.306, -30.7579, 120.16, -150.903, 119.205, 88.5562, 0, 0, 8.0098, -53.8318, 8.14923, -173.977, 8.07741, 65.4823, 0.0375333, -47.6791
1, 420.00000, 118.306, -30.7579, 120.16, -150.903, 119.205, 88.5562, 0, 0, 8.0098, -53.8318, 8.14923, -173.977, 8.07741, 65.4823, 0.0375333, -47.6791
1, 480.00000, 118.306, -30.7579, 120.16, -150.903, 119.205, 88.5562, 0, 0, 8.0098, -53.8318, 8.14923, -173.977, 8.07741, 65.4823, 0.0375333, -47.6791
1, 540.00000, 118.306, -30.7579, 120.16, -150.903, 119.205, 88.5562, 0, 0, 8.0098, -53.8318, 8.14923, -173.977, 8.07741, 65.4823, 0.0375333, -47.6791
1, 600.00000, 118.306, -30.7579, 120.16, -150.903, 119.205, 88.5562, 0, 0, 8.0098, -53.8318, 8.14923, -173.977, 8.07741, 65.4823, 0.0375333, -47.6791
1, 660.00000, 118.306, -30.7579, 120.16, -150.903, 119.205, 88.5562, 0, 0, 8.0098, -53.8318, 8.14923, -173.977, 8.07741, 65.4823, 0.0375333, -47.6791
1, 720.00000, 118.306, -30.7579, 120.16, -150.903, 119.205, 88.5562, 0, 0, 8.0098, -53.8318, 8.14923, -173.977, 8.07741, 65.4823, 0.0375333, -47.6791
1, 780.00000, 118.306, -30.7579, 120.16, -150.903, 119.205, 88.5562, 0, 0, 8.0098, -53.8318, 8.14923, -173.977, 8.07741, 65.4823, 0.0375333, -47.6791
1, 840.00000, 118.306, -30.7579, 120.16, -150.903, 119.205, 88.5562, 0, 0, 8.0098, -53.8318, 8.14923, -173.977, 8.07741, 65.4823, 0.0375333, -47.6791
1, 900.00000, 118.306, -30.7579, 120.16, -150.903, 119.205, 88.5562, 0, 0, 8.0098, -53.8318, 8.14923, -173.977, 8.07741, 65.4823, 0.0375333, -47.6791
1, 960.00000, 118.306, -30.7579, 120.16, -150.903, 119.205, 88.5562, 0, 0, 8.0098, -53.8318, 8.14923, -173.977, 8.07741, 65.4823, 0.0375333, -47.6791
1, 1020.00000, 118.306, -30.7579, 120.16, -150.903, 119.205, 88.5562, 0, 0, 8.0098, -53.8318, 8.14923, -173.977, 8.07741, 65.4823, 0.0375333, -47.6791
1, 1080.00000, 118.306, -30.7579, 120.16, -150.903, 119.205, 88.5562, 0, 0, 8.0098, -53.8318, 8.14923, -173.977, 8.07741, 65.4823, 0.0375333, -47.6791
1, 1140.00000, 118.306, -30.7579, 120.16, -150.903, 119.205, 88.5562, 0, 0, 8.0098, -53.8318, 8.14923, -173.977, 8.07741, 65.4823, 0.0375333, -47.6791
1, 1200.00000, 118.306, -30.7579, 120.16, -150.903, 119.205, 88.5562, 0, 0, 8.0098, -53.8318, 8.14923, -173.977, 8.07741, 65.4823, 0.0375333, -47.6791
1, 1260.00000, 118.306, -30.7579, 120.16, -150.903, 119.205, 88.5562, 0, 0, 8.0098, -53.8318, 8.14923, -173.977, 8.07741, 65.4823, 0.0375333, -47.6791
1, 1320.00000, 118.306, -30.7579, 120.16, -150.903, 119.205, 88.5562, 0, 0, 8.0098, -53.8318, 8.14923, -173.977, 8.07741, 65.4823, 0.0375333, -47.6791
1, 1380.00000, 118.306, -30.7579, 120.16, -150.903, 119.205, 88.5562, 0, 0, 8.0098, -53.8318, 8.14923, -173.977, 8.07741, 65.4823, 0.0375333, -47.6791
1, 1440.00000, 118.306, -30.7579, 120.16, -150.903, 119.205, 88.5562, 0, 0, 8.0098, -53.8318, 8.14923, -173.977, 8.07741, 65.4823, 0.0375333, -47.6791
1, 1500.00000, 118.306, -30.7579, 120.16, -150.903, 119.205, 88.5562, 0, 0, 8.0098, -53.8318, 8.14923, -173.977, 8.07741, 65.4823, 0.0375333, -47.6791
1, 1560.00000, 118.306, -30.7579, 120.16, -150.903, 119.205, 88.5562, 0, 0, 8.0098, -53.8318, 8.14923, -173.977, 8.07741, 65.4823, 0.0375333, -47.6791
1, 1620.00000, 118.306, -30.7579, 120.16, -150.903, 119.205, 88.5562, 0, 0, 8.0098, -53.8318, 8.14923, -173.977, 8.07741, 65.4823, 0.0375333, -47.6791
1, 1680.00000, 118.306, -30.7579, 120.16, -150.903, 119.205, 88.5562, 0, 0, 8.0098, -53.8318, 8.14923, -173.977, 8.07741, 65.4823, 0.0375333, -47.6791
1, 1740.00000, 118.306, -30.7579, 120.16, -150.903, 119.205, 88.5562, 0, 0, 8.0098, -53.8318, 8.14923, -173.977, 8.07741, 65.4823, 0.0375333, -47.6791
1, 1800.00000, 118.306, -30.7579, 120.16, -150.903, 119.205, 88.5562, 0, 0, 8.0098, -53.8318, 8.14923, -173.977, 8.07741, 65.4823, 0.0375333, -47.6791
1, 1860.00000, 118.306, -30.7579, 120.16, -150.903, 119.205, 88.5562, 0, 0, 8.0098, -53.8318, 8.14923, -173.977, 8.07741, 65.4823, 0.0375333, -47.6791
1, 1920.00000, 118.306, -30.7579, 120.16, -150.903, 119.205, 88.5562, 0, 0, 8.0098, -53.8318, 8.14923, -173.977, 8.07741, 65.4823, 0.0375333, -47.6791
1, 1980.00000, 118.306, -30.7579, 120.16, -150.903, 119.205, 88.5562, 0, 0, 8.0098, -53.8318, 8.14923, -173.977, 8.07741, 65.4823, 0.0375333, -47.6791
1, 2040.00000, 118.306, -30.7579, 120.16, -150.903, 119.205, 88.5562, 0, 0, 8.0098, -53.8318, 8.14923, -173.977, 8.07741, 65.4823, 0.0375333, -47.6791
1, 2100.00000, 118.306, -30.7579, 120.16, -150.903, 119.205, 88.5562, 0, 0, 8.0098, -53.8318, 8.14923, -173.977, 8.07741, 65.4823, 0.0375333, -47.6791
1, 2160.00000, 118.306, -30.7579, 120.16, -150.903, 119.205, 88.5562, 0, 0, 8.0098, -53.8318, 8.14923, -173.977, 8.07741, 65.4823, 0.0375333, -47.6791
1, 2220.00000, 118.306, -30.7579, 120.16, -150.903, 119.205, 88.5562, 0, 0, 8.0098, -53.8318, 8.14923, -173.977, 8.07741, 65.4823, 0.0375333, -47.6791
1, 2280.00000, 118.306, -30.7579, 120.16, -150.903, 119.205, 88.5562, 0, 0, 8.0098, -53.8318, 8.14923, -173.977, 8.07741, 65.4823, 0.0375333, -47.6791
1, 2340.00000, 118.306, -30.7579, 120.16, -150.903, 119.205, 88.5562, 0, 0, 8.0098, -53.8318, 8.14923, -173.977, 8.07741, 65.4823, 0.0375333, -47.6791
1, 2400.00000, 118.306, -30.7579, 120.16, -150.903, 119.205, 88.5562, 0, 0, 8.0098, -53.8318, 8.14923, -173.977, 8.07741, 65.4823, 0.0375333, -47.6791
1, 2460.00000, 118.306, -30.7579, 120.16, -150.903, 119.205, 88.5562, 0, 0, 8.0098, -53.8318, 8.14923, -173.977, 8.07741, 65.4823, 0.0375333, -47.6791
1, 2520.00000, 118.306, -30.7579, 120.16, -150.903, 119.205, 88.5562, 0, 0, 8.0098, -53.8318, 8.14923, -173.977, 8.07741, 65.4823, 0.0375333, -47.6791
1, 2580.00000, 118.306, -30.7579, 120.16, -150.903, 119.205, 88.5562, 0, 0, 8.0098, -53.8318, 8.14923, -173.977, 8.07741, 65.4823, 0.0375333, -47.6791
1, 2640.00000, 118.306, -30.7579, 120.16, -150.903, 119.205, 88.5562, 0, 0, 8.0098, -53.8318, 8.14923, -173.977, 8.07741, 65.4823, 0.0375333, -47.6791
1, 2700.00000, 118.306, -30.7579, 120.16, -150.903, 119.205, 88.5562, 0, 0, 8.0098, -53.8318, 8.14923, -173.977, 8.07741, 65.4823, 0.0375333, -47.6791
1, 2760.00000, 118.306, -30.7579, 120.16, -150.903, 119.205, 88.5562, 0, 0, 8.0098, -53.8318, 8.14923, -173.977, 8.07741, 65.4823, 0.0375333, -47.6791
1, 2820.00000, 118.306, -30.7579, 120.16, -150.903, 119.205, 88.5562, 0, 0, 8.0098, -53.8318, 8.14923, -173.977, 8.07741, 65.4823, 0.0375333, -47.6791
1, 2880.00000, 118.306, -30.7579, 120.16, -150.903, 119.205, 88.5562, 0, 0, 8.0098, -53.8318, 8.14923, -173.977, 8.07741, 65.4823, 0.0375333, -47.6791
1, 2940.00000, 118.306, -30.7579, 120.16, -150.903, 119.205, 88.5562, 0, 0, 8.0098, -53.8318, 8.14923, -173.977, 8.07741, 65.4823, 0.0375333, -47.6791
1, 3000.00000, 118.306, -30.7579, 120.16, -150.903, 119.205, 88.5562, 0, 0, 8.0098, -53.8318, 8.14923, -173.977, 8.07741, 65.4823, 0.0375333, -47.6791
1, 3060.00000, 118.306, -30.7579, 120.16, -150.903, 119.205, 88.5562, 0, 0, 8.0098, -53.8318, 8.14923, -173.977, 8.07741, 65.4823, 0.0375333, -47.6791
1, 3120.00000, 118.306, -30.7579, 120.16, -150.903, 119.205, 88.5562, 0, 0, 8.0098, -53.8318, 8.14923, -173.977, 8.07741, 65.4823, 0.0375333, -47.6791
1, 3180.00000, 118.306, -30.7579, 120.16, -150.903, 119.205, 88.5562, 0, 0, 8.0098, -53.8318, 8.14923, -173.977, 8.07741, 65.4823, 0.0375333, -47.6791
1, 3240.00000, 118.306, -30.7579, 120.16, -150.903, 119.205, 88.5562, 0, 0, 8.0098, -53.8318, 8.14923, -173.977, 8.07741, 65.4823, 0.0375333, -47.6791
1, 3300.00000, 118.306, -30.7579, 120.16, -150.903, 119.205, 88.5562, 0, 0, 8.0098, -53.8318, 8.14923, -173.977, 8.07741, 65.4823, 0.0375333, -47.6791
1, 3360.00000, 118.306, -30.7579, 120.16, -150.903, 119.205, 88.5562, 0, 0, 8.0098, -53.8318, 8.14923, -173.977, 8.07741, 65.4823, 0.0375333, -47.6791
1, 3420.00000, 118.306, -30.7579, 120.16, -150.903, 119.205, 88.5562, 0, 0, 8.0098, -53.8318, 8.14923, -173.977, 8.07741, 65.4823, 0.0375333, -47.6791
1, 3480.00000, 118.306, -30.7579, 120.16, -150.903, 119.205, 88.5562, 0, 0, 8.0098, -53.8318, 8.14923, -173.977, 8.07741, 65.4823, 0.0375333, -47.6791
1, 3540.00000, 118.306, -30.7579, 120.16, -150.903, 119.205, 88.5562, 0, 0, 8.0098, -53.8318, 8.14923, -173.977, 8.07741, 65.4823, 0.0375333, -47.6791
2, 0.00000, 118.306, -30.7579, 120.16, -150.903, 119.205, 88.5562, 0, 0, 8.0098, -53.8318, 8.14923, -173.977, 8.07741, 65.4823, 0.0375333, -47.6791
2, 60.00000, 118.306, -30.7579, 120.16, -150.903, 119.205, 88.5562, 0, 0, 8.0098, -53.8318, 8.14923, -173.977, 8.07741, 65.4823, 0.0375333, -47.6791
2, 120.00000, 118.306, -30.7579, 120.16, -150.903, 119.205, 88.5562, 0, 0, 8.0098, -53.8318, 8.14923, -173.977, 8.07741, 65.4823, 0.0375333, -47.6791
2, 180.00000, 118.306, -30.7579, 120.16, -150.903, 119.205, 88.5562, 0, 0, 8.0098, -53.8318, 8.14923, -173.977, 8.07741, 65.4823, 0.0375333, -47.6791
2, 240.00000, 118.306, -30.7579, 120.16, -150.903, 119.205, 88.5562, 0, 0, 8.0098, -53.8318, 8.14923, -173.977, 8.07741, 65.4823, 0.0375333, -47.6791
2, 300.00000, 118.306, -30.7579, 120.16, -150.903, 119.205, 88.5562, 0, 0, 8.0098, -53.8318, 8.14923, -173.977, 8.07741, 65.4823, 0.0375333, -47.6791
2, 360.00000, 118.306, -30.7579, 120.16, -150.903, 119.205, 88.5562, 0, 0, 8.0098, -53.8318, 8.14923, -173.977, 8.07741, 65.4823, 0.0375333, -47.6791
2, 420.00000, 118.306, -30.7579, 120.16, -150.903, 119.205, 88.5562, 0, 0, 8.0098, -53.8318, 8.14923, -173.977, 8.07741, 65.4823, 0.0375333, -47.6791
2, 480.00000, 118.306, -30.7579, 120.16, -150.903, 119.205, 88.5562, 0, 0, 8.0098, -53.8318, 8.14923, -173.977, 8.07741, 65.4823, 0.0375333, -47.6791
2, 540.00000, 118.306, -30.7579, 120.16, -150.903, 119.205, 88.5562, 0, 0, 8.0098, -53.8318, 8.14923, -173.977, 8.07741, 65.4823, 0.0375333, -47.6791
2, 600.00000, 118.306, -30.7579, 120.16, -150.903, 119.205, 88.5562, 0, 0, 8.0098, -53.8318, 8.14923, -173.977, 8.07741, 65.4823, 0.0375333, -47.6791
2, 660.00000, 118.306, -30.7579, 120.16, -150.903, 119.205, 88.5562, 0, 0, 8.0098, -53.8318, 8.14923, -173.977, 8.07741, 65.4823, 0.0375333, -47.6791
2, 720.00000, 118.306, -30.7579, 120.16, -150.903, 119.205, 88.5562, 0, 0, 8.0098, -53.8318, 8.14923, -173.977, 8.07741, 65.4823, 0.0375333, -47.6791
