hour,t(sec),"P1 (kW)","Q1 (kvar)","P2 (kW)","Q2 (kvar)","P3 (kW)","Q3 (kvar)","P4 (kW)","Q4 (kvar)"
0, 60.00000, 0.494925, 0.210819, 0.466205, 0.198606, 0.488142, 0.20794, 0, 0
0, 120.00000, 0.494922, 0.210819, 0.466078, 0.198551, 0.488142, 0.207941, 0, 0
0, 180.00000, 0.494919, 0.210819, 0.465963, 0.198502, 0.488143, 0.207942, 0, 0
0, 240.00000, 0.494917, 0.21082, 0.465859, 0.198457, 0.488143, 0.207943, 0, 0
0, 300.00000, 0.494914, 0.21082, 0.465766, 0.198417, 0.488143, 0.207943, 0, 0
0, 360.00000, 0.494912, 0.21082, 0.465681, 0.198381, 0.488143, 0.207944, 0, 0
0, 420.00000, 0.494911, 0.210821, 0.465605, 0.198348, 0.488143, 0.207944, 0, 0
0, 480.00000, 0.494909, 0.210821, 0.465535, 0.198318, 0.488144, 0.207945, 0, 0
0, 540.00000, 0.494907, 0.210821, 0.465473, 0.198292, 0.488144, 0.207945, 0, 0
0, 600.00000, 0.494906, 0.210821, 0.465417, 0.198268, 0.488144, 0.207946, 0, 0
0, 660.00000, 0.494905, 0.210822, 0.465366, 0.198246, 0.488144, 0.207946, 0, 0
0, 720.00000, 0.494904, 0.210822, 0.46532, 0.198226, 0.488144, 0.207946, 0, 0
0, 780.00000, 0.494903, 0.210822, 0.465279, 0.198209, 0.488144, 0.207947, 0, 0
0, 840.00000, 0.494902, 0.210822, 0.465242, 0.198193, 0.488145, 0.207947, 0, 0
0, 900.00000, 0.494901, 0.210822, 0.465208, 0.198178, 0.488145, 0.207947, 0, 0
0, 960.00000, 0.484327, 0.206318, 0.453728, 0.193288, 0.475251, 0.202455, 0, 0
0, 1020.00000, 0.484326, 0.206318, 0.453701, 0.193276, 0.475251, 0.202455, 0, 0
0, 1080.00000, 0.484326, 0.206319, 0.453677, 0.193266, 0.475251, 0.202455, 0, 0
0, 1140.00000, 0.484325, 0.206319, 0.453656, 0.193257, 0.475251, 0.202455, 0, 0
0, 1200.00000, 0.484325, 0.206319, 0.453636, 0.193249, 0.475252, 0.202455, 0, 0
0, 1260.00000, 0.484325, 0.206319, 0.453619, 0.193241, 0.475252, 0.202456, 0, 0
0, 1320.00000, 0.484324, 0.206319, 0.453603, 0.193234, 0.475252, 0.202456, 0, 0
0, 1380.00000, 0.484324, 0.206319, 0.453589, 0.193228, 0.475252, 0.202456, 0, 0
0, 1440.00000, 0.484324, 0.206319, 0.453576, 0.193223, 0.475252, 0.202456, 0, 0
0, 1500.00000, 0.484324, 0.206319, 0.453565, 0.193218, 0.475252, 0.202456, 0, 0
0, 1560.00000, 0.484323, 0.206319, 0.453555, 0.193214, 0.475252, 0.202456, 0, 0
0, 1620.00000, 0.484323, 0.206319, 0.453545, 0.19321, 0.475253, 0.202456, 0, 0
0, 1680.00000, 0.484323, 0.206319, 0.453537, 0.193206, 0.475253, 0.202456, 0, 0
0, 1740.00000, 0.484323, 0.20632, 0.453529, 0.193203, 0.475253, 0.202456, 0, 0
0, 1800.00000, 0.484323, 0.20632, 0.453522, 0.1932, 0.475253, 0.202456, 0, 0
0, 1860.00000, 0.457939, 0.19508, 0.430402, 0.183351, 0.451081, 0.192159, 0, 0
0, 1920.00000, 0.457939, 0.19508, 0.430397, 0.183348, 0.451081, 0.192159, 0, 0
0, 1980.00000, 0.457938, 0.19508, 0.430392, 0.183346, 0.451081, 0.192159, 0, 0
0, 2040.00000, 0.457938, 0.19508, 0.430388, 0.183345, 0.451081, 0.192159, 0, 0
0, 2100.00000, 0.457938, 0.19508, 0.430384, 0.183343, 0.451081, 0.192159, 0, 0
0, 2160.00000, 0.457938, 0.19508, 0.430381, 0.183342, 0.451081, 0.192159, 0, 0
0, 2220.00000, 0.457938, 0.19508, 0.430378, 0.18334, 0.451081, 0.192159, 0, 0
0, 2280.00000, 0.457938, 0.19508, 0.430375, 0.183339, 0.451081, 0.192159, 0, 0
0, 2340.00000, 0.457938, 0.19508, 0.430373, 0.183338, 0.451081, 0.192159, 0, 0
0, 2400.00000, 0.457938, 0.19508, 0.43037, 0.183337, 0.451081, 0.19216, 0, 0
0, 2460.00000, 0.457938, 0.19508, 0.430368, 0.183336, 0.451081, 0.19216, 0, 0
0, 2520.00000, 0.457938, 0.19508, 0.430366, 0.183335, 0.451081, 0.19216, 0, 0
0, 2580.00000, 0.457938, 0.19508, 0.430365, 0.183335, 0.451081, 0.19216, 0, 0
0, 2640.00000, 0.457938, 0.19508, 0.430363, 0.183334, 0.451081, 0.19216, 0, 0
0, 2700.00000, 0.457938, 0.195081, 0.430362, 0.183333, 0.451081, 0.19216, 0, 0
0, 2760.00000, 0.448245, 0.190951, 0.423655, 0.180476, 0.444164, 0.189213, 0, 0
0, 2820.00000, 0.448244, 0.190951, 0.423654, 0.180476, 0.444164, 0.189213, 0, 0
0, 2880.00000, 0.448244, 0.190951, 0.423653, 0.180475, 0.444164, 0.189213, 0, 0
0, 2940.00000, 0.448244, 0.190951, 0.423652, 0.180475, 0.444164, 0.189213, 0, 0
0, 3000.00000, 0.448244, 0.190951, 0.423651, 0.180475, 0.444164, 0.189213, 0, 0
0, 3060.00000, 0.448244, 0.190951, 0.42365, 0.180474, 0.444164, 0.189213, 0, 0
0, 3120.00000, 0.448244, 0.190951, 0.42365, 0.180474, 0.444164, 0.189213, 0, 0
0, 3180.00000, 0.448244, 0.190951, 0.423649, 0.180474, 0.444164, 0.189213, 0, 0
0, 3240.00000, 0.448244, 0.190951, 0.423649, 0.180474, 0.444164, 0.189213, 0, 0
0, 3300.00000, 0.448244, 0.190951, 0.423648, 0.180473, 0.444164, 0.189213, 0, 0
0, 3360.00000, 0.448244, 0.190951, 0.423648, 0.180473, 0.444164, 0.189213, 0, 0
0, 3420.00000, 0.448244, 0.190951, 0.423648, 0.180473, 0.444164, 0.189213, 0, 0
0, 3480.00000, 0.448244, 0.190951, 0.423647, 0.180473, 0.444164, 0.189213, 0, 0
0, 3540.00000, 0.448244, 0.190951, 0.423545, 0.18043, 0.4448, 0.189484, 0, 0
1, 0.00000, 0.448244, 0.190951, 0.423545, 0.180429, 0.4448, 0.189484, 0, 0
1, 60.00000, 0.411457, 0.17528, 0.390536, 0.166368, 0.410244, 0.174763, 0, 0
1, 120.00000, 0.411457, 0.17528, 0.390536, 0.166368, 0.410244, 0.174763, 0, 0
1, 180.00000, 0.411457, 0.17528, 0.390536, 0.166368, 0.410244, 0.174763, 0, 0
1, 240.00000, 0.411457, 0.17528, 0.390536, 0.166368, 0.410244, 0.174763, 0, 0
1, 300.00000, 0.411457, 0.17528, 0.390536, 0.166367, 0.410244, 0.174763, 0, 0
1, 360.00000, 0.411457, 0.17528, 0.390535, 0.166367, 0.410244, 0.174763, 0, 0
1, 420.00000, 0.411457, 0.17528, 0.390535, 0.166367, 0.410244, 0.174763, 0, 0
1, 480.00000, 0.411457, 0.17528, 0.390535, 0.166367, 0.410244, 0.174763, 0, 0
1, 540.00000, 0.411457, 0.17528, 0.390535, 0.166367, 0.410244, 0.174763, 0, 0
1, 600.00000, 0.411457, 0.17528, 0.390535, 0.166367, 0.410244, 0.174763, 0, 0
1, 660.00000, 0.411457, 0.17528, 0.390535, 0.166367, 0.410244, 0.174763, 0, 0
1, 720.00000, 0.411457, 0.17528, 0.390535, 0.166367, 0.410244, 0.174763, 0, 0
1, 780.00000, 0.411457, 0.17528, 0.390535, 0.166367, 0.410244, 0.174763, 0, 0
1, 840.00000, 0.411457, 0.17528, 0.390535, 0.166367, 0.410244, 0.174763, 0, 0
1, 900.00000, 0.411457, 0.17528, 0.390535, 0.166367, 0.410244, 0.174763, 0, 0
1, 960.00000, 0.415767, 0.177116, 0.394882, 0.168219, 0.414832, 0.176718, 0, 0
1, 1020.00000, 0.415766, 0.177116, 0.394881, 0.168219, 0.414832, 0.176718, 0, 0
1, 1080.00000, 0.415766, 0.177116, 0.394881, 0.168219, 0.414832, 0.176718, 0, 0
1, 1140.00000, 0.415766, 0.177116, 0.394881, 0.168219, 0.414832, 0.176718, 0, 0
1, 1200.00000, 0.415766, 0.177116, 0.394881, 0.168219, 0.414832, 0.176718, 0, 0
1, 1260.00000, 0.415766, 0.177116, 0.394881, 0.168219, 0.414832, 0.176718, 0, 0
1, 1320.00000, 0.415766, 0.177116, 0.394881, 0.168219, 0.414832, 0.176718, 0, 0
1, 1380.00000, 0.415766, 0.177116, 0.394881, 0.168219, 0.414832, 0.176718, 0, 0
1, 1440.00000, 0.415766, 0.177116, 0.394881, 0.168219, 0.414832, 0.176718, 0, 0
1, 1500.00000, 0.415766, 0.177116, 0.394881, 0.168219, 0.414832, 0.176718, 0, 0
1, 1560.00000, 0.415766, 0.177116, 0.394881, 0.168219, 0.414832, 0.176718, 0, 0
1, 1620.00000, 0.415766, 0.177116, 0.394881, 0.168219, 0.414832, 0.176718, 0, 0
1, 1680.00000, 0.415766, 0.177116, 0.394881, 0.168219, 0.414832, 0.176718, 0, 0
1, 1740.00000, 0.415766, 0.177116, 0.394881, 0.168219, 0.414832, 0.176718, 0, 0
1, 1800.00000, 0.415766, 0.177116, 0.394881, 0.168219, 0.414832, 0.176718, 0, 0
1, 1860.00000, 0.442338, 0.188435, 0.422136, 0.179829, 0.439404, 0.187185, 0, 0
1, 1920.00000, 0.442337, 0.188435, 0.422136, 0.179829, 0.439404, 0.187185, 0, 0
1, 1980.00000, 0.442337, 0.188435, 0.422136, 0.179829, 0.439404, 0.187185, 0, 0
1, 2040.00000, 0.442337, 0.188435, 0.422136, 0.179829, 0.439404, 0.187185, 0, 0
1, 2100.00000, 0.442337, 0.188435, 0.422136, 0.179829, 0.439404, 0.187185, 0, 0
1, 2160.00000, 0.442337, 0.188435, 0.422136, 0.179829, 0.439404, 0.187185, 0, 0
1, 2220.00000, 0.442337, 0.188435, 0.422136, 0.179829, 0.439404, 0.187185, 0, 0
1, 2280.00000, 0.442337, 0.188435, 0.422136, 0.179829, 0.439404, 0.187185, 0, 0
1, 2340.00000, 0.442337, 0.188435, 0.422136, 0.179829, 0.439404, 0.187185, 0, 0
1, 2400.00000, 0.442337, 0.188435, 0.422136, 0.179829, 0.439404, 0.187185, 0, 0
1, 2460.00000, 0.442337, 0.188435, 0.422136, 0.179829, 0.439404, 0.187185, 0, 0
1, 2520.00000, 0.442337, 0.188435, 0.422136, 0.179829, 0.439404, 0.187185, 0, 0
1, 2580.00000, 0.442337, 0.188435, 0.422136, 0.179829, 0.439404, 0.187185, 0, 0
1, 2640.00000, 0.442337, 0.188435, 0.422136, 0.179829, 0.439404, 0.187185, 0, 0
1, 2700.00000, 0.442337, 0.188435, 0.422136, 0.179829, 0.439404, 0.187185, 0, 0
1, 2760.00000, 0.417564, 0.177882, 0.401692, 0.17112, 0.417564, 0.177881, 0, 0
1, 2820.00000, 0.417563, 0.177881, 0.401692, 0.17112, 0.417563, 0.177881, 0, 0
1, 2880.00000, 0.417563, 0.177881, 0.401692, 0.17112, 0.417563, 0.177881, 0, 0
1, 2940.00000, 0.417563, 0.177881, 0.401692, 0.17112, 0.417563, 0.177881, 0, 0
1, 3000.00000, 0.417563, 0.177881, 0.401692, 0.17112, 0.417563, 0.177881, 0, 0
1, 3060.00000, 0.417563, 0.177881, 0.401692, 0.17112, 0.417563, 0.177881, 0, 0
1, 3120.00000, 0.417563, 0.177881, 0.401692, 0.17112, 0.417563, 0.177881, 0, 0
1, 3180.00000, 0.417563, 0.177881, 0.401692, 0.17112, 0.417563, 0.177881, 0, 0
1, 3240.00000, 0.417563, 0.177881, 0.401692, 0.17112, 0.417563, 0.177881, 0, 0
1, 3300.00000, 0.417563, 0.177881, 0.401692, 0.17112, 0.417563, 0.177881, 0, 0
1, 3360.00000, 0.417563, 0.177881, 0.401692, 0.17112, 0.417563, 0.177881, 0, 0
1, 3420.00000, 0.417563, 0.177881, 0.401692, 0.17112, 0.417563, 0.177881, 0, 0
1, 3480.00000, 0.417563, 0.177881, 0.401692, 0.17112, 0.417563, 0.177881, 0, 0
1, 3540.00000, 0.417563, 0.177881, 0.401692, 0.17112, 0.417563, 0.177881, 0, 0
2, 0.00000, 0.417563, 0.177881, 0.401692, 0.17112, 0.417563, 0.177881, 0, 0
2, 60.00000, 0.44435, 0.189292, 0.425395, 0.181217, 0.442831, 0.188646, 0, 0
2, 120.00000, 0.444351, 0.189293, 0.425395, 0.181217, 0.442831, 0.188645, 0, 0
2, 180.00000, 0.444351, 0.189293, 0.425395, 0.181217, 0.442831, 0.188645, 0, 0
2, 240.00000, 0.444351, 0.189293, 0.425395, 0.181217, 0.442831, 0.188645, 0, 0
2, 300.00000, 0.444351, 0.189293, 0.425395, 0.181217, 0.442831, 0.188645, 0, 0
2, 360.00000, 0.444351, 0.189293, 0.425395, 0.181217, 0.442831, 0.188645, 0, 0
2, 420.00000, 0.444351, 0.189293, 0.425395, 0.181217, 0.442831, 0.188645, 0, 0
2, 480.00000, 0.444351, 0.189293, 0.425395, 0.181217, 0.442831, 0.188645, 0, 0
2, 540.00000, 0.444351, 0.189293, 0.425395, 0.181217, 0.442831, 0.188645, 0, 0
2, 600.00000, 0.444351, 0.189293, 0.425395, 0.181217, 0.442831, 0.188645, 0, 0
2, 660.00000, 0.444351, 0.189293, 0.425395, 0.181217, 0.442831, 0.188645, 0, 0
2, 720.00000, 0.444351, 0.189293, 0.425395, 0.181217, 0.442831, 0.188645, 0, 0
2, 780.00000, 0.444351, 0.189293, 0.425395, 0.181217, 0.442831, 0.188645, 0, 0
2, 840.00000, 0.444351, 0.189293, 0.425395, 0.181217, 0.442831, 0.188645, 0, 0
2, 900.00000, 0.444351, 0.189293, 0.425395, 0.181217, 0.442831, 0.188645, 0, 0
2, 960.00000, 0.427135, 0.181959, 0.411326, 0.175224, 0.427134, 0.181958, 0, 0
2, 1020.00000, 0.427134, 0.181958, 0.411326, 0.175224, 0.427134, 0.181958, 0, 0
2, 1080.00000, 0.427134, 0.181958, 0.411326, 0.175224, 0.427134, 0.181958, 0, 0
2, 1140.00000, 0.427134, 0.181958, 0.411326, 0.175224, 0.427134, 0.181958, 0, 0
2, 1200.00000, 0.427134, 0.181958, 0.411326, 0.175224, 0.427134, 0.181958, 0, 0
2, 1260.00000, 0.427134, 0.181958, 0.411326, 0.175224, 0.427134, 0.181958, 0, 0
2, 1320.00000, 0.427134, 0.181958, 0.411326, 0.175224, 0.427134, 0.181958, 0, 0
2, 1380.00000, 0.427134, 0.181958, 0.411326, 0.175224, 0.427134, 0.181958, 0, 0
2, 1440.00000, 0.427134, 0.181958, 0.411326, 0.175224, 0.427134, 0.181958, 0, 0
2, 1500.00000, 0.427134, 0.181958, 0.411326, 0.175224, 0.427134, 0.181958, 0, 0
2, 1560.00000, 0.427134, 0.181958, 0.411326, 0.175224, 0.427134, 0.181958, 0, 0
2, 1620.00000, 0.427134, 0.181958, 0.411326, 0.175224, 0.427134, 0.181958, 0, 0
2, 1680.00000, 0.427134, 0.181958, 0.411326, 0.175224, 0.427134, 0.181958, 0, 0
2, 1740.00000, 0.427134, 0.181958, 0.411326, 0.175224, 0.427134, 0.181958, 0, 0
2, 1800.00000, 0.427134, 0.181958, 0.411326, 0.175224, 0.427134, 0.181958, 0, 0
2, 1860.00000, 0.456126, 0.194309, 0.438096, 0.186628, 0.456062, 0.194282, 0, 0
2, 1920.00000, 0.456126, 0.194309, 0.438096, 0.186628, 0.456062, 0.194282, 0, 0
2, 1980.00000, 0.456126, 0.194309, 0.438096, 0.186628, 0.456062, 0.194282, 0, 0
2, 2040.00000, 0.456126, 0.194309, 0.438096, 0.186628, 0.456062, 0.194282, 0, 0
2, 2100.00000, 0.456126, 0.194309, 0.438096, 0.186628, 0.456062, 0.194282, 0, 0
2, 2160.00000, 0.456126, 0.194309, 0.438096, 0.186628, 0.456062, 0.194282, 0, 0
2, 2220.00000, 0.456126, 0.194309, 0.438096, 0.186628, 0.456062, 0.194282, 0, 0
2, 2280.00000, 0.456126, 0.194309, 0.438096, 0.186628, 0.456062, 0.194282, 0, 0
2, 2340.00000, 0.456126, 0.194309, 0.438096, 0.186628, 0.456062, 0.194282, 0, 0
2, 2400.00000, 0.456126, 0.194309, 0.438096, 0.186628, 0.456062, 0.194282, 0, 0
2, 2460.00000, 0.456126, 0.194309, 0.438096, 0.186628, 0.456062, 0.194282, 0, 0
2, 2520.00000, 0.456126, 0.194309, 0.438096, 0.186628, 0.456062, 0.194282, 0, 0
2, 2580.00000, 0.456126, 0.194309, 0.438096, 0.186628, 0.456062, 0.194282, 0, 0
2, 2640.00000, 0.456126, 0.194309, 0.438096, 0.186628, 0.456062, 0.194282, 0, 0
2, 2700.00000, 0.456126, 0.194309, 0.438096, 0.186628, 0.456062, 0.194282, 0, 0
2, 2760.00000, 0.421054, 0.179368, 0.407397, 0.173551, 0.421053, 0.179368, 0, 0
2, 2820.00000, 0.421053, 0.179368, 0.407397, 0.17355, 0.421053, 0.179368, 0, 0
2, 2880.00000, 0.421053, 0.179368, 0.407397, 0.17355, 0.421053, 0.179368, 0, 0
2, 2940.00000, 0.421053, 0.179368, 0.407397, 0.17355, 0.421053, 0.179368, 0, 0
2, 3000.00000, 0.421053, 0.179368, 0.407397, 0.17355, 0.421053, 0.179368, 0, 0
2, 3060.00000, 0.421053, 0.179368, 0.407397, 0.17355, 0.421053, 0.179368, 0, 0
2, 3120.00000, 0.421053, 0.179368, 0.407397, 0.17355, 0.421053, 0.179368, 0, 0
2, 3180.00000, 0.421053, 0.179368, 0.407397, 0.17355, 0.421053, 0.179368, 0, 0
2, 3240.00000, 0.421053, 0.179368, 0.407397, 0.17355, 0.421053, 0.179368, 0, 0
2, 3300.00000, 0.421053, 0.179368, 0.407397, 0.17355, 0.421053, 0.179368, 0, 0
2, 3360.00000, 0.421053, 0.179368, 0.407397, 0.17355, 0.421053, 0.179368, 0, 0
2, 3420.00000, 0.421053, 0.179368, 0.407397, 0.17355, 0.421053, 0.179368, 0, 0
2, 3480.00000, 0.421053, 0.179368, 0.407397, 0.17355, 0.421053, 0.179368, 0, 0
2, 3540.00000, 0.421053, 0.179368, 0.407397, 0.17355, 0.421053, 0.179368, 0, 0
3, 0.00000, 0.421053, 0.179368, 0.407397, 0.17355, 0.421053, 0.179368, 0, 0
3, 60.00000, 0.450949, 0.192103, 0.434801, 0.185224, 0.450949, 0.192104, 0, 0
3, 120.00000, 0.450949, 0.192104, 0.434801, 0.185225, 0.450949, 0.192104, 0, 0
3, 180.00000, 0.450949, 0.192104, 0.434801, 0.185225, 0.450949, 0.192104, 0, 0
3, 240.00000, 0.450949, 0.192104, 0.434801, 0.185225, 0.450949, 0.192104, 0, 0
3, 300.00000, 0.450949, 0.192104, 0.434801, 0.185225, 0.450949, 0.192104, 0, 0
3, 360.00000, 0.450949, 0.192104, 0.434801, 0.185225, 0.450949, 0.192104, 0, 0
3, 420.00000, 0.450949, 0.192104, 0.434801, 0.185225, 0.450949, 0.192104, 0, 0
3, 480.00000, 0.450949, 0.192104, 0.434801, 0.185225, 0.450949, 0.192104, 0, 0
3, 540.00000, 0.450949, 0.192104, 0.434801, 0.185225, 0.450949, 0.192104, 0, 0
3, 600.00000, 0.450949, 0.192104, 0.434801, 0.185225, 0.450949, 0.192104, 0, 0
3, 660.00000, 0.450949, 0.192104, 0.434801, 0.185225, 0.450949, 0.192104, 0, 0
3, 720.00000, 0.450949, 0.192104, 0.434801, 0.185225, 0.450949, 0.192104, 0, 0
3, 780.00000, 0.450949, 0.192104, 0.434801, 0.185225, 0.450949, 0.192104, 0, 0
3, 840.00000, 0.450949, 0.192104, 0.434801, 0.185225, 0.450949, 0.192104, 0, 0
3, 900.00000, 0.450949, 0.192104, 0.434801, 0.185225, 0.450949, 0.192104, 0, 0
3, 960.00000, 0.416559, 0.177453, 0.40223, 0.171349, 0.416559, 0.177453, 0, 0
3, 1020.00000, 0.416559, 0.177453, 0.402229, 0.171349, 0.416559, 0.177453, 0, 0
3, 1080.00000, 0.416559, 0.177453, 0.402229, 0.171349, 0.416559, 0.177453, 0, 0
3, 1140.00000, 0.416559, 0.177453, 0.402229, 0.171349, 0.416559, 0.177453, 0, 0
3, 1200.00000, 0.416559, 0.177453, 0.402229, 0.171349, 0.416559, 0.177453, 0, 0
3, 1260.00000, 0.416559, 0.177453, 0.402229, 0.171349, 0.416559, 0.177453, 0, 0
3, 1320.00000, 0.416559, 0.177453, 0.402229, 0.171349, 0.416559, 0.177453, 0, 0
3, 1380.00000, 0.416559, 0.177453, 0.402229, 0.171349, 0.416559, 0.177453, 0, 0
3, 1440.00000, 0.416559, 0.177453, 0.402229, 0.171349, 0.416559, 0.177453, 0, 0
3, 1500.00000, 0.416559, 0.177453, 0.402229, 0.171349, 0.416559, 0.177453, 0, 0
3, 1560.00000, 0.416559, 0.177453, 0.402229, 0.171349, 0.416559, 0.177453, 0, 0
3, 1620.00000, 0.416559, 0.177453, 0.402229, 0.171349, 0.416559, 0.177453, 0, 0
3, 1680.00000, 0.416559, 0.177453, 0.402229, 0.171349, 0.416559, 0.177453, 0, 0
3, 1740.00000, 0.416559, 0.177453, 0.402229, 0.171349, 0.416559, 0.177453, 0, 0
3, 1800.00000, 0.416559, 0.177453, 0.402229, 0.171349, 0.416559, 0.177453, 0, 0
3, 1860.00000, 0.388159, 0.165355, 0.37506, 0.159775, 0.388159, 0.165355, 0, 0
3, 1920.00000, 0.388158, 0.165355, 0.37506, 0.159775, 0.388158, 0.165355, 0, 0
3, 1980.00000, 0.388158, 0.165355, 0.37506, 0.159775, 0.388158, 0.165355, 0, 0
3, 2040.00000, 0.388158, 0.165355, 0.37506, 0.159775, 0.388158, 0.165355, 0, 0
3, 2100.00000, 0.388158, 0.165355, 0.37506, 0.159775, 0.388158, 0.165355, 0, 0
3, 2160.00000, 0.388158, 0.165355, 0.37506, 0.159775, 0.388158, 0.165355, 0, 0
3, 2220.00000, 0.388158, 0.165355, 0.37506, 0.159775, 0.388158, 0.165355, 0, 0
3, 2280.00000, 0.388158, 0.165355, 0.37506, 0.159775, 0.388158, 0.165355, 0, 0
3, 2340.00000, 0.388158, 0.165355, 0.37506, 0.159775, 0.388158, 0.165355, 0, 0
3, 2400.00000, 0.388158, 0.165355, 0.37506, 0.159775, 0.388158, 0.165355, 0, 0
3, 2460.00000, 0.388158, 0.165355, 0.37506, 0.159775, 0.388158, 0.165355, 0, 0
3, 2520.00000, 0.388158, 0.165355, 0.37506, 0.159775, 0.388158, 0.165355, 0, 0
3, 2580.00000, 0.388158, 0.165355, 0.37506, 0.159775, 0.388158, 0.165355, 0, 0
3, 2640.00000, 0.388158, 0.165355, 0.37506, 0.159775, 0.388158, 0.165355, 0, 0
3, 2700.00000, 0.388158, 0.165355, 0.37506, 0.159775, 0.388158, 0.165355, 0, 0
3, 2760.00000, 0.409124, 0.174286, 0.397743, 0.169438, 0.409124, 0.174286, 0, 0
3, 2820.00000, 0.409124, 0.174286, 0.397742, 0.169438, 0.409124, 0.174286, 0, 0
3, 2880.00000, 0.409124, 0.174286, 0.397742, 0.169438, 0.409124, 0.174286, 0, 0
3, 2940.00000, 0.409124, 0.174286, 0.397742, 0.169438, 0.409124, 0.174286, 0, 0
3, 3000.00000, 0.409124, 0.174286, 0.397742, 0.169438, 0.409124, 0.174286, 0, 0
3, 3060.00000, 0.409124, 0.174286, 0.397742, 0.169438, 0.409124, 0.174286, 0, 0
3, 3120.00000, 0.409124, 0.174286, 0.397742, 0.169438, 0.409124, 0.174286, 0, 0
3, 3180.00000, 0.409124, 0.174286, 0.397742, 0.169438, 0.409124, 0.174286, 0, 0
3, 3240.00000, 0.409124, 0.174286, 0.397742, 0.169438, 0.409124, 0.174286, 0, 0
3, 3300.00000, 0.409124, 0.174286, 0.397742, 0.169438, 0.409124, 0.174286, 0, 0
3, 3360.00000, 0.409124, 0.174286, 0.397742, 0.169438, 0.409124, 0.174286, 0, 0
3, 3420.00000, 0.409124, 0.174286, 0.397742, 0.169438, 0.409124, 0.174286, 0, 0
3, 3480.00000, 0.409124, 0.174286, 0.397742, 0.169438, 0.409124, 0.174286, 0, 0
3, 3540.00000, 0.409124, 0.174286, 0.397742, 0.169438, 0.409124, 0.174286, 0, 0
4, 0.00000, 0.409124, 0.174286, 0.397742, 0.169438, 0.409124, 0.174286, 0, 0
4, 60.00000, 0.38455, 0.163818, 0.372539, 0.158701, 0.38455, 0.163818, 0, 0
4, 120.00000, 0.38455, 0.163818, 0.372539, 0.158701, 0.38455, 0.163818, 0, 0
4, 180.00000, 0.38455, 0.163818, 0.372539, 0.158701, 0.38455, 0.163818, 0, 0
4, 240.00000, 0.38455, 0.163818, 0.372539, 0.158701, 0.38455, 0.163818, 0, 0
4, 300.00000, 0.38455, 0.163818, 0.372539, 0.158701, 0.38455, 0.163818, 0, 0
4, 360.00000, 0.38455, 0.163818, 0.372539, 0.158701, 0.38455, 0.163818, 0, 0
4, 420.00000, 0.38455, 0.163818, 0.372539, 0.158701, 0.38455, 0.163818, 0, 0
4, 480.00000, 0.38455, 0.163818, 0.372539, 0.158701, 0.38455, 0.163818, 0, 0
4, 540.00000, 0.38455, 0.163818, 0.372539, 0.158701, 0.38455, 0.163818, 0, 0
4, 600.00000, 0.38455, 0.163818, 0.372539, 0.158701, 0.38455, 0.163818, 0, 0
4, 660.00000, 0.38455, 0.163818, 0.372539, 0.158701, 0.38455, 0.163818, 0, 0
