hour,t(sec),V1,VAngle1,V2,VAngle2,V3,VAngle3,V4,VAngle4,I1,IAngle1,I2,IAngle2,I3,IAngle3,I4,IAngle4
0, 60.00000, 118.705, -31.6746, 118.363, -150.877, 120.677, 88.8556, 0, 0, 6.56783, -54.7482, 6.54683, -173.95, 6.6875, 65.782, 0.0513262, -117.466
0, 120.00000, 118.705, -31.6747, 118.363, -150.877, 120.677, 88.8556, 0, 0, 6.56775, -54.7486, 6.54673, -173.95, 6.68765, 65.7816, 0.0515166, -117.493
0, 180.00000, 118.705, -31.6747, 118.363, -150.877, 120.677, 88.8556, 0, 0, 6.56775, -54.7486, 6.54673, -173.95, 6.68765, 65.7816, 0.0515173, -117.493
0, 240.00000, 118.705, -31.6747, 118.363, -150.877, 120.677, 88.8556, 0, 0, 6.56775, -54.7486, 6.54673, -173.95, 6.68765, 65.7816, 0.0515173, -117.493
0, 300.00000, 118.705, -31.6747, 118.363, -150.877, 120.677, 88.8556, 0, 0, 6.56775, -54.7486, 6.54673, -173.95, 6.68765, 65.7816, 0.0515173, -117.493
0, 360.00000, 118.705, -31.6747, 118.363, -150.877, 120.677, 88.8556, 0, 0, 6.56775, -54.7486, 6.54673, -173.95, 6.68765, 65.7816, 0.0515173, -117.493
0, 420.00000, 118.705, -31.6747, 118.363, -150.877, 120.677, 88.8556, 0, 0, 6.56775, -54.7486, 6.54673, -173.95, 6.68765, 65.7816, 0.0515173, -117.493
0, 480.00000, 119.537, -31.5675, 119.157, -150.776, 121.5, 88.9786, 0, 0, 5.75837, -54.6421, 5.73806, -173.849, 5.77909, 65.904, 0.0379593, 69.3998
0, 540.00000, 119.537, -31.5674, 119.157, -150.776, 121.5, 88.9787, 0, 0, 5.75843, -54.6413, 5.73813, -173.85, 5.77883, 65.9047, 0.0381922, 69.3026
0, 600.00000, 119.537, -31.5674, 119.157, -150.776, 121.5, 88.9787, 0, 0, 5.75843, -54.6413, 5.73813, -173.85, 5.77883, 65.9047, 0.038194, 69.301
0, 660.00000, 119.537, -31.5674, 119.157, -150.776, 121.5, 88.9787, 0, 0, 5.75843, -54.6413, 5.73813, -173.85, 5.77883, 65.9047, 0.0381941, 69.301
0, 720.00000, 119.537, -31.5674, 119.157, -150.776, 121.5, 88.9787, 0, 0, 5.75843, -54.6413, 5.73813, -173.85, 5.77883, 65.9047, 0.0381941, 69.301
0, 780.00000, 119.537, -31.5674, 119.157, -150.776, 121.5, 88.9787, 0, 0, 5.75843, -54.6413, 5.73813, -173.85, 5.77883, 65.9047, 0.0381941, 69.301
0, 840.00000, 119.537, -31.5674, 119.157, -150.776, 121.5, 88.9787, 0, 0, 5.75843, -54.6413, 5.73813, -173.85, 5.77883, 65.9047, 0.0381941, 69.301
0, 900.00000, 119.537, -31.5674, 119.157, -150.776, 121.5, 88.9787, 0, 0, 5.75843, -54.6413, 5.73813, -173.85, 5.77883, 65.9047, 0.0381941, 69.301
0, 960.00000, 119.537, -31.5674, 119.157, -150.776, 121.5, 88.9787, 0, 0, 5.75843, -54.6413, 5.73813, -173.85, 5.77883, 65.9047, 0.0381941, 69.301
0, 1020.00000, 119.537, -31.5674, 119.157, -150.776, 121.5, 88.9787, 0, 0, 5.75843, -54.6413, 5.73813, -173.85, 5.77883, 65.9047, 0.0381941, 69.301
0, 1080.00000, 119.537, -31.5674, 119.157, -150.776, 121.5, 88.9787, 0, 0, 5.75843, -54.6413, 5.73813, -173.85, 5.77883, 65.9047, 0.0381941, 69.301
0, 1140.00000, 119.537, -31.5674, 119.157, -150.776, 121.5, 88.9787, 0, 0, 5.75843, -54.6413, 5.73813, -173.85, 5.77883, 65.9047, 0.0381941, 69.301
0, 1200.00000, 119.537, -31.5674, 119.157, -150.776, 121.5, 88.9787, 0, 0, 5.75843, -54.6413, 5.73813, -173.85, 5.77883, 65.9047, 0.0381941, 69.301
0, 1260.00000, 119.537, -31.5674, 119.157, -150.776, 121.5, 88.9787, 0, 0, 5.75843, -54.6413, 5.73813, -173.85, 5.77883, 65.9047, 0.0381941, 69.301
0, 1320.00000, 119.537, -31.5674, 119.157, -150.776, 121.5, 88.9787, 0, 0, 5.75843, -54.6413, 5.73813, -173.85, 5.77883, 65.9047, 0.0381941, 69.301
0, 1380.00000, 119.537, -31.5674, 119.157, -150.776, 121.5, 88.9787, 0, 0, 5.75843, -54.6413, 5.73813, -173.85, 5.77883, 65.9047, 0.0381941, 69.301
0, 1440.00000, 119.537, -31.5674, 119.157, -150.776, 121.5, 88.9787, 0, 0, 5.75843, -54.6413, 5.73813, -173.85, 5.77883, 65.9047, 0.0381941, 69.301
0, 1500.00000, 119.537, -31.5674, 119.157, -150.776, 121.5, 88.9787, 0, 0, 5.75843, -54.6413, 5.73813, -173.85, 5.77883, 65.9047, 0.0381941, 69.301
0, 1560.00000, 119.537, -31.5674, 119.157, -150.776, 121.5, 88.9787, 0, 0, 5.75843, -54.6413, 5.73813, -173.85, 5.77883, 65.9047, 0.0381941, 69.301
0, 1620.00000, 119.537, -31.5674, 119.157, -150.776, 121.5, 88.9787, 0, 0, 5.75843, -54.6413, 5.73813, -173.85, 5.77883, 65.9047, 0.0381941, 69.301
0, 1680.00000, 119.537, -31.5674, 119.157, -150.776, 121.5, 88.9787, 0, 0, 5.75843, -54.6413, 5.73813, -173.85, 5.77883, 65.9047, 0.0381941, 69.301
0, 1740.00000, 119.537, -31.5674, 119.157, -150.776, 121.5, 88.9787, 0, 0, 5.75843, -54.6413, 5.73813, -173.85, 5.77883, 65.9047, 0.0381941, 69.301
0, 1800.00000, 119.537, -31.5674, 119.157, -150.776, 121.5, 88.9787, 0, 0, 5.75843, -54.6413, 5.73813, -173.85, 5.77883, 65.9047, 0.0381941, 69.301
0, 1860.00000, 119.537, -31.5674, 119.157, -150.776, 121.5, 88.9787, 0, 0, 5.75843, -54.6413, 5.73813, -173.85, 5.77883, 65.9047, 0.0381941, 69.301
0, 1920.00000, 119.537, -31.5674, 119.157, -150.776, 121.5, 88.9787, 0, 0, 5.75843, -54.6413, 5.73813, -173.85, 5.77883, 65.9047, 0.0381941, 69.301
0, 1980.00000, 119.537, -31.5674, 119.157, -150.776, 121.5, 88.9787, 0, 0, 5.75843, -54.6413, 5.73813, -173.85, 5.77883, 65.9047, 0.0381941, 69.301
0, 2040.00000, 119.537, -31.5674, 119.157, -150.776, 121.5, 88.9787, 0, 0, 5.75843, -54.6413, 5.73813, -173.85, 5.77883, 65.9047, 0.0381941, 69.301
0, 2100.00000, 119.537, -31.5674, 119.157, -150.776, 121.5, 88.9787, 0, 0, 5.75843, -54.6413, 5.73813, -173.85, 5.77883, 65.9047, 0.0381941, 69.301
0, 2160.00000, 119.537, -31.5674, 119.157, -150.776, 121.5, 88.9787, 0, 0, 5.75843, -54.6413, 5.73813, -173.85, 5.77883, 65.9047, 0.0381941, 69.301
0, 2220.00000, 119.537, -31.5674, 119.157, -150.776, 121.5, 88.9787, 0, 0, 5.75843, -54.6413, 5.73813, -173.85, 5.77883, 65.9047, 0.0381941, 69.301
0, 2280.00000, 119.537, -31.5674, 119.157, -150.776, 121.5, 88.9787, 0, 0, 5.75843, -54.6413, 5.73813, -173.85, 5.77883, 65.9047, 0.0381941, 69.301
0, 2340.00000, 119.537, -31.5674, 119.157, -150.776, 121.5, 88.9787, 0, 0, 5.75843, -54.6413, 5.73813, -173.85, 5.77883, 65.9047, 0.0381941, 69.301
0, 2400.00000, 119.537, -31.5674, 119.157, -150.776, 121.5, 88.9787, 0, 0, 5.75843, -54.6413, 5.73813, -173.85, 5.77883, 65.9047, 0.0381941, 69.301
0, 2460.00000, 119.537, -31.5674, 119.157, -150.776, 121.5, 88.9787, 0, 0, 5.75843, -54.6413, 5.73813, -173.85, 5.77883, 65.9047, 0.0381941, 69.301
0, 2520.00000, 119.537, -31.5674, 119.157, -150.776, 121.5, 88.9787, 0, 0, 5.75843, -54.6413, 5.73813, -173.85, 5.77883, 65.9047, 0.0381941, 69.301
0, 2580.00000, 119.537, -31.5674, 119.157, -150.776, 121.5, 88.9787, 0, 0, 5.75843, -54.6413, 5.73813, -173.85, 5.77883, 65.9047, 0.0381941, 69.301
0, 2640.00000, 119.537, -31.5674, 119.157, -150.776, 121.5, 88.9787, 0, 0, 5.75843, -54.6413, 5.73813, -173.85, 5.77883, 65.9047, 0.0381941, 69.301
0, 2700.00000, 119.537, -31.5674, 119.157, -150.776, 121.5, 88.9787, 0, 0, 5.75843, -54.6413, 5.73813, -173.85, 5.77883, 65.9047, 0.0381941, 69.301
0, 2760.00000, 119.537, -31.5674, 119.157, -150.776, 121.5, 88.9787, 0, 0, 5.75843, -54.6413, 5.73813, -173.85, 5.77883, 65.9047, 0.0381941, 69.301
0, 2820.00000, 119.537, -31.5674, 119.157, -150.776, 121.5, 88.9787, 0, 0, 5.75843, -54.6413, 5.73813, -173.85, 5.77883, 65.9047, 0.0381941, 69.301
0, 2880.00000, 119.537, -31.5674, 119.157, -150.776, 121.5, 88.9787, 0, 0, 5.75843, -54.6413, 5.73813, -173.85, 5.77883, 65.9047, 0.0381941, 69.301
0, 2940.00000, 119.537, -31.5674, 119.157, -150.776, 121.5, 88.9787, 0, 0, 5.75843, -54.6413, 5.73813, -173.85, 5.77883, 65.9047, 0.0381941, 69.301
0, 3000.00000, 119.537, -31.5674, 119.157, -150.776, 121.5, 88.9787, 0, 0, 5.75843, -54.6413, 5.73813, -173.85, 5.77883, 65.9047, 0.0381941, 69.301
0, 3060.00000, 119.537, -31.5674, 119.157, -150.776, 121.5, 88.9787, 0, 0, 5.75843, -54.6413, 5.73813, -173.85, 5.77883, 65.9047, 0.0381941, 69.301
0, 3120.00000, 119.537, -31.5674, 119.157, -150.776, 121.5, 88.9787, 0, 0, 5.75843, -54.6413, 5.73813, -173.85, 5.77883, 65.9047, 0.0381941, 69.301
0, 3180.00000, 119.537, -31.5674, 119.157, -150.776, 121.5, 88.9787, 0, 0, 5.75843, -54.6413, 5.73813, -173.85, 5.77883, 65.9047, 0.0381941, 69.301
0, 3240.00000, 119.537, -31.5674, 119.157, -150.776, 121.5, 88.9787, 0, 0, 5.75843, -54.6413, 5.73813, -173.85, 5.77883, 65.9047, 0.0381941, 69.301
0, 3300.00000, 119.537, -31.5674, 119.157, -150.776, 121.5, 88.9787, 0, 0, 5.75843, -54.6413, 5.73813, -173.85, 5.77883, 65.9047, 0.0381941, 69.301
0, 3360.00000, 119.537, -31.5674, 119.157, -150.776, 121.5, 88.9787, 0, 0, 5.75843, -54.6413, 5.73813, -173.85, 5.77883, 65.9047, 0.0381941, 69.301
0, 3420.00000, 119.537, -31.5674, 119.157, -150.776, 121.5, 88.9787, 0, 0, 5.75843, -54.6413, 5.73813, -173.85, 5.77883, 65.9047, 0.0381941, 69.301
0, 3480.00000, 119.537, -31.5674, 119.157, -150.776, 121.5, 88.9787, 0, 0, 5.75843, -54.6413, 5.73813, -173.85, 5.77883, 65.9047, 0.0381941, 69.301
0, 3540.00000, 119.537, -31.5674, 119.157, -150.776, 121.5, 88.9787, 0, 0, 5.75843, -54.6413, 5.73813, -173.85, 5.77883, 65.9047, 0.0381941, 69.301
1, 0.00000, 119.537, -31.5674, 119.157, -150.776, 121.5, 88.9787, 0, 0, 5.75843, -54.6413, 5.73813, -173.85, 5.77883, 65.9047, 0.0381941, 69.301
1, 60.00000, 119.744, -31.4051, 119.571, -150.773, 121.479, 88.9825, 0, 0, 5.76945, -54.479, 5.76017, -173.848, 5.77983, 65.9085, 0.0399112, 66.9295
1, 120.00000, 119.744, -31.4051, 119.571, -150.773, 121.478, 88.9825, 0, 0, 5.7695, -54.479, 5.76027, -173.847, 5.77987, 65.9085, 0.0399756, 66.892
1, 180.00000, 119.744, -31.4051, 119.571, -150.773, 121.478, 88.9825, 0, 0, 5.7695, -54.479, 5.76027, -173.847, 5.77987, 65.9085, 0.0399757, 66.8921
1, 240.00000, 119.744, -31.4051, 119.571, -150.773, 121.478, 88.9825, 0, 0, 5.7695, -54.479, 5.76027, -173.847, 5.77987, 65.9085, 0.0399757, 66.8921
1, 300.00000, 119.744, -31.4051, 119.571, -150.773, 121.478, 88.9825, 0, 0, 5.7695, -54.479, 5.76027, -173.847, 5.77987, 65.9085, 0.0399757, 66.8921
1, 360.00000, 119.744, -31.4051, 119.571, -150.773, 121.478, 88.9825, 0, 0, 5.7695, -54.479, 5.76027, -173.847, 5.77987, 65.9085, 0.0399757, 66.8921
1, 420.00000, 119.744, -31.4051, 119.571, -150.773, 121.478, 88.9825, 0, 0, 5.7695, -54.479, 5.76027, -173.847, 5.77987, 65.9085, 0.0399757, 66.8921
1, 480.00000, 119.744, -31.4051, 119.571, -150.773, 121.478, 88.9825, 0, 0, 5.7695, -54.479, 5.76027, -173.847, 5.77987, 65.9085, 0.0399757, 66.8921
1, 540.00000, 119.744, -31.4051, 119.571, -150.773, 121.478, 88.9825, 0, 0, 5.7695, -54.479, 5.76027, -173.847, 5.77987, 65.9085, 0.0399757, 66.8921
1, 600.00000, 119.744, -31.4051, 119.571, -150.773, 121.478, 88.9825, 0, 0, 5.7695, -54.479, 5.76027, -173.847, 5.77987, 65.9085, 0.0399757, 66.8921
1, 660.00000, 119.744, -31.4051, 119.571, -150.773, 121.478, 88.9825, 0, 0, 5.7695, -54.479, 5.76027, -173.847, 5.77987, 65.9085, 0.0399757, 66.8921
1, 720.00000, 119.744, -31.4051, 119.571, -150.773, 121.478, 88.9825, 0, 0, 5.7695, -54.479, 5.76027, -173.847, 5.77987, 65.9085, 0.0399757, 66.8921
1, 780.00000, 119.744, -31.4051, 119.571, -150.773, 121.478, 88.9825, 0, 0, 5.7695, -54.479, 5.76027, -173.847, 5.77987, 65.9085, 0.0399757, 66.8921
1, 840.00000, 119.744, -31.4051, 119.571, -150.773, 121.478, 88.9825, 0, 0, 5.7695, -54.479, 5.76027, -173.847, 5.77987, 65.9085, 0.0399757, 66.8921
1, 900.00000, 119.744, -31.4051, 119.571, -150.773, 121.478, 88.9825, 0, 0, 5.7695, -54.479, 5.76027, -173.847, 5.77987, 65.9085, 0.0399757, 66.8921
1, 960.00000, 119.744, -31.4051, 119.571, -150.773, 121.478, 88.9825, 0, 0, 5.7695, -54.479, 5.76027, -173.847, 5.77987, 65.9085, 0.0399757, 66.8921
1, 1020.00000, 119.744, -31.4051, 119.571, -150.773, 121.478, 88.9825, 0, 0, 5.7695, -54.479, 5.76027, -173.847, 5.77987, 65.9085, 0.0399757, 66.8921
1, 1080.00000, 119.744, -31.4051, 119.571, -150.773, 121.478, 88.9825, 0, 0, 5.7695, -54.479, 5.76027, -173.847, 5.77987, 65.9085, 0.0399757, 66.8921
1, 1140.00000, 119.744, -31.4051, 119.571, -150.773, 121.478, 88.9825, 0, 0, 5.7695, -54.479, 5.76027, -173.847, 5.77987, 65.9085, 0.0399757, 66.8921
1, 1200.00000, 119.744, -31.4051, 119.571, -150.773, 121.478, 88.9825, 0, 0, 5.7695, -54.479, 5.76027, -173.847, 5.77987, 65.9085, 0.0399757, 66.8921
1, 1260.00000, 119.744, -31.4051, 119.571, -150.773, 121.478, 88.9825, 0, 0, 5.7695, -54.479, 5.76027, -173.847, 5.77987, 65.9085, 0.0399757, 66.8921
1, 1320.00000, 119.744, -31.4051, 119.571, -150.773, 121.478, 88.9825, 0, 0, 5.7695, -54.479, 5.76027, -173.847, 5.77987, 65.9085, 0.0399757, 66.8921
1, 1380.00000, 119.744, -31.4051, 119.571, -150.773, 121.478, 88.9825, 0, 0, 5.7695, -54.479, 5.76027, -173.847, 5.77987, 65.9085, 0.0399757, 66.8921
1, 1440.00000, 119.744, -31.4051, 119.571, -150.773, 121.478, 88.9825, 0, 0, 5.7695, -54.479, 5.76027, -173.847, 5.77987, 65.9085, 0.0399757, 66.8921
1, 1500.00000, 119.744, -31.4051, 119.571, -150.773, 121.478, 88.9825, 0, 0, 5.7695, -54.479, 5.76027, -173.847, 5.77987, 65.9085, 0.0399757, 66.8921
1, 1560.00000, 119.744, -31.4051, 119.571, -150.773, 121.478, 88.9825, 0, 0, 5.7695, -54.479, 5.76027, -173.847, 5.77987, 65.9085, 0.0399757, 66.8921
1, 1620.00000, 119.744, -31.4051, 119.571, -150.773, 121.478, 88.9825, 0, 0, 5.7695, -54.479, 5.76027, -173.847, 5.77987, 65.9085, 0.0399757, 66.8921
1, 1680.00000, 119.744, -31.4051, 119.571, -150.773, 121.478, 88.9825, 0, 0, 5.7695, -54.479, 5.76027, -173.847, 5.77987, 65.9085, 0.0399757, 66.8921
1, 1740.00000, 119.744, -31.4051, 119.571, -150.773, 121.478, 88.9825, 0, 0, 5.7695, -54.479, 5.76027, -173.847, 5.77987, 65.9085, 0.0399757, 66.8921
1, 1800.00000, 119.744, -31.4051, 119.571, -150.773, 121.478, 88.9825, 0, 0, 5.7695, -54.479, 5.76027, -173.847, 5.77987, 65.9085, 0.0399757, 66.8921
1, 1860.00000, 119.744, -31.4051, 119.571, -150.773, 121.478, 88.9825, 0, 0, 5.7695, -54.479, 5.76027, -173.847, 5.77987, 65.9085, 0.0399757, 66.8921
1, 1920.00000, 119.744, -31.4051, 119.571, -150.773, 121.478, 88.9825, 0, 0, 5.7695, -54.479, 5.76027, -173.847, 5.77987, 65.9085, 0.0399757, 66.8921
1, 1980.00000, 119.744, -31.4051, 119.571, -150.773, 121.478, 88.9825, 0, 0, 5.7695, -54.479, 5.76027, -173.847, 5.77987, 65.9085, 0.0399757, 66.8921
1, 2040.00000, 119.744, -31.4051, 119.571, -150.773, 121.478, 88.9825, 0, 0, 5.7695, -54.479, 5.76027, -173.847, 5.77987, 65.9085, 0.0399757, 66.8921
1, 2100.00000, 119.744, -31.4051, 119.571, -150.773, 121.478, 88.9825, 0, 0, 5.7695, -54.479, 5.76027, -173.847, 5.77987, 65.9085, 0.0399757, 66.8921
1, 2160.00000, 119.744, -31.4051, 119.571, -150.773, 121.478, 88.9825, 0, 0, 5.7695, -54.479, 5.76027, -173.847, 5.77987, 65.9085, 0.0399757, 66.8921
1, 2220.00000, 119.744, -31.4051, 119.571, -150.773, 121.478, 88.9825, 0, 0, 5.7695, -54.479, 5.76027, -173.847, 5.77987, 65.9085, 0.0399757, 66.8921
1, 2280.00000, 119.744, -31.4051, 119.571, -150.773, 121.478, 88.9825, 0, 0, 5.7695, -54.479, 5.76027, -173.847, 5.77987, 65.9085, 0.0399757, 66.8921
1, 2340.00000, 119.744, -31.4051, 119.571, -150.773, 121.478, 88.9825, 0, 0, 5.7695, -54.479, 5.76027, -173.847, 5.77987, 65.9085, 0.0399757, 66.8921
1, 2400.00000, 119.744, -31.4051, 119.571, -150.773, 121.478, 88.9825, 0, 0, 5.7695, -54.479, 5.76027, -173.847, 5.77987, 65.9085, 0.0399757, 66.8921
1, 2460.00000, 119.744, -31.4051, 119.571, -150.773, 121.478, 88.9825, 0, 0, 5.7695, -54.479, 5.76027, -173.847, 5.77987, 65.9085, 0.0399757, 66.8921
1, 2520.00000, 119.744, -31.4051, 119.571, -150.773, 121.478, 88.9825, 0, 0, 5.7695, -54.479, 5.76027, -173.847, 5.77987, 65.9085, 0.0399757, 66.8921
1, 2580.00000, 119.744, -31.4051, 119.571, -150.773, 121.478, 88.9825, 0, 0, 5.7695, -54.479, 5.76027, -173.847, 5.77987, 65.9085, 0.0399757, 66.8921
1, 2640.00000, 119.744, -31.4051, 119.571, -150.773, 121.478, 88.9825, 0, 0, 5.7695, -54.479, 5.76027, -173.847, 5.77987, 65.9085, 0.0399757, 66.8921
1, 2700.00000, 119.744, -31.4051, 119.571, -150.773, 121.478, 88.9825, 0, 0, 5.7695, -54.479, 5.76027, -173.847, 5.77987, 65.9085, 0.0399757, 66.8921
1, 2760.00000, 119.744, -31.4051, 119.571, -150.773, 121.478, 88.9825, 0, 0, 5.7695, -54.479, 5.76027, -173.847, 5.77987, 65.9085, 0.0399757, 66.8921
1, 2820.00000, 119.744, -31.4051, 119.571, -150.773, 121.478, 88.9825, 0, 0, 5.7695, -54.479, 5.76027, -173.847, 5.77987, 65.9085, 0.0399757, 66.8921
1, 2880.00000, 119.744, -31.4051, 119.571, -150.773, 121.478, 88.9825, 0, 0, 5.7695, -54.479, 5.76027, -173.847, 5.77987, 65.9085, 0.0399757, 66.8921
1, 2940.00000, 119.744, -31.4051, 119.571, -150.773, 121.478, 88.9825, 0, 0, 5.7695, -54.479, 5.76027, -173.847, 5.77987, 65.9085, 0.0399757, 66.8921
1, 3000.00000, 119.744, -31.4051, 119.571, -150.773, 121.478, 88.9825, 0, 0, 5.7695, -54.479, 5.76027, -173.847, 5.77987, 65.9085, 0.0399757, 66.8921
1, 3060.00000, 119.744, -31.4051, 119.571, -150.773, 121.478, 88.9825, 0, 0, 5.7695, -54.479, 5.76027, -173.847, 5.77987, 65.9085, 0.0399757, 66.8921
1, 3120.00000, 119.744, -31.4051, 119.571, -150.773, 121.478, 88.9825, 0, 0, 5.7695, -54.479, 5.76027, -173.847, 5.77987, 65.9085, 0.0399757, 66.8921
1, 3180.00000, 119.744, -31.4051, 119.571, -150.773, 121.478, 88.9825, 0, 0, 5.7695, -54.479, 5.76027, -173.847, 5.77987, 65.9085, 0.0399757, 66.8921
1, 3240.00000, 119.744, -31.4051, 119.571, -150.773, 121.478, 88.9825, 0, 0, 5.7695, -54.479, 5.76027, -173.847, 5.77987, 65.9085, 0.0399757, 66.8921
1, 3300.00000, 119.744, -31.4051, 119.571, -150.773, 121.478, 88.9825, 0, 0, 5.7695, -54.479, 5.76027, -173.847, 5.77987, 65.9085, 0.0399757, 66.8921
1, 3360.00000, 119.744, -31.4051, 119.571, -150.773, 121.478, 88.9825, 0, 0, 5.7695, -54.479, 5.76027, -173.847, 5.77987, 65.9085, 0.0399757, 66.8921
1, 3420.00000, 119.744, -31.4051, 119.571, -150.773, 121.478, 88.9825, 0, 0, 5.7695, -54.479, 5.76027, -173.847, 5.77987, 65.9085, 0.0399757, 66.8921
1, 3480.00000, 119.744, -31.4051, 119.571, -150.773, 121.478, 88.9825, 0, 0, 5.7695, -54.479, 5.76027, -173.847, 5.77987, 65.9085, 0.0399757, 66.8921
1, 3540.00000, 119.744, -31.4051, 119.571, -150.773, 121.478, 88.9825, 0, 0, 5.7695, -54.479, 5.76027, -173.847, 5.77987, 65.9085, 0.0399757, 66.8921
2, 0.00000, 119.744, -31.4051, 119.571, -150.773, 121.478, 88.9825, 0, 0, 5.7695, -54.479, 5.76027, -173.847, 5.77987, 65.9085, 0.0399757, 66.8921
2, 60.00000, 119.744, -31.4051, 119.571, -150.773, 121.478, 88.9825, 0, 0, 5.7695, -54.479, 5.76027, -173.847, 5.77987, 65.9085, 0.0399757, 66.8921
2, 120.00000, 119.744, -31.4051, 119.571, -150.773, 121.478, 88.9825, 0, 0, 5.7695, -54.479, 5.76027, -173.847, 5.77987, 65.9085, 0.0399757, 66.8921
2, 180.00000, 119.744, -31.4051, 119.571, -150.773, 121.478, 88.9825, 0, 0, 5.7695, -54.479, 5.76027, -173.847, 5.77987, 65.9085, 0.0399757, 66.8921
2, 240.00000, 119.744, -31.4051, 119.571, -150.773, 121.478, 88.9825, 0, 0, 5.7695, -54.479, 5.76027, -173.847, 5.77987, 65.9085, 0.0399757, 66.8921
2, 300.00000, 119.744, -31.4051, 119.571, -150.773, 121.478, 88.9825, 0, 0, 5.7695, -54.479, 5.76027, -173.847, 5.77987, 65.9085, 0.0399757, 66.8921
2, 360.00000, 119.744, -31.4051, 119.571, -150.773, 121.478, 88.9825, 0, 0, 5.7695, -54.479, 5.76027, -173.847, 5.77987, 65.9085, 0.0399757, 66.8921
2, 420.00000, 119.744, -31.4051, 119.571, -150.773, 121.478, 88.9825, 0, 0, 5.7695, -54.479, 5.76027, -173.847, 5.77987, 65.9085, 0.0399757, 66.8921
2, 480.00000, 119.744, -31.4051, 119.571, -150.773, 121.478, 88.9825, 0, 0, 5.7695, -54.479, 5.76027, -173.847, 5.77987, 65.9085, 0.0399757, 66.8921
2, 540.00000, 119.744, -31.4051, 119.571, -150.773, 121.478, 88.9825, 0, 0, 5.7695, -54.479, 5.76027, -173.847, 5.77987, 65.9085, 0.0399757, 66.8921
2, 600.00000, 119.744, -31.4051, 119.571, -150.773, 121.478, 88.9825, 0, 0, 5.7695, -54.479, 5.76027, -173.847, 5.77987, 65.9085, 0.0399757, 66.8921
2, 660.00000, 119.744, -31.4051, 119.571, -150.773, 121.478, 88.9825, 0, 0, 5.7695, -54.479, 5.76027, -173.847, 5.77987, 65.9085, 0.0399757, 66.8921
2, 720.00000, 119.744, -31.4051, 119.571, -150.773, 121.478, 88.9825, 0, 0, 5.7695, -54.479, 5.76027, -173.847, 5.77987, 65.9085, 0.0399757, 66.8921
2, 780.00000, 119.744, -31.4051, 119.571, -150.773, 121.478, 88.9825, 0, 0, 5.7695, -54.479, 5.76027, -173.847, 5.77987, 65.9085, 0.0399757, 66.8921
