hour,t(sec),"P1 (kW)","Q1 (kvar)","P2 (kW)","Q2 (kvar)","P3 (kW)","Q3 (kvar)","P4 (kW)","Q4 (kvar)"
0, 60.00000, 0.140129, 0.0596949, 0.139943, 0.0596138, 0.141427, 0.0602458, 0, 0
0, 120.00000, 0.140133, 0.0596965, 0.139942, 0.0596137, 0.141427, 0.0602456, 0, 0
0, 180.00000, 0.140136, 0.0596979, 0.139942, 0.0596135, 0.141426, 0.0602455, 0, 0
0, 240.00000, 0.140139, 0.0596991, 0.139941, 0.0596134, 0.141425, 0.0602454, 0, 0
0, 300.00000, 0.140142, 0.0597002, 0.13994, 0.0596133, 0.141425, 0.0602453, 0, 0
0, 360.00000, 0.140144, 0.0597011, 0.13994, 0.0596132, 0.141424, 0.0602452, 0, 0
0, 420.00000, 0.140146, 0.059702, 0.13994, 0.0596131, 0.141424, 0.0602452, 0, 0
0, 480.00000, 0.140148, 0.0597027, 0.139939, 0.059613, 0.141424, 0.0602451, 0, 0
0, 540.00000, 0.140149, 0.0597034, 0.139939, 0.0596129, 0.141423, 0.0602451, 0, 0
0, 600.00000, 0.140151, 0.0597039, 0.139938, 0.0596128, 0.141423, 0.060245, 0, 0
0, 660.00000, 0.140152, 0.0597045, 0.139938, 0.0596128, 0.141423, 0.060245, 0, 0
0, 720.00000, 0.140153, 0.0597049, 0.139938, 0.0596127, 0.141422, 0.060245, 0, 0
0, 780.00000, 0.140154, 0.0597053, 0.139938, 0.0596127, 0.141422, 0.060245, 0, 0
0, 840.00000, 0.140155, 0.0597057, 0.139937, 0.0596126, 0.141422, 0.060245, 0, 0
0, 900.00000, 0.140156, 0.059706, 0.139937, 0.0596126, 0.141422, 0.0602449, 0, 0
0, 960.00000, 0.138179, 0.0588641, 0.137776, 0.058692, 0.139872, 0.0595846, 0, 0
0, 1020.00000, 0.13818, 0.0588644, 0.137776, 0.058692, 0.139872, 0.0595846, 0, 0
0, 1080.00000, 0.13818, 0.0588646, 0.137776, 0.0586919, 0.139871, 0.0595846, 0, 0
0, 1140.00000, 0.138181, 0.0588648, 0.137776, 0.0586919, 0.139871, 0.0595846, 0, 0
0, 1200.00000, 0.138181, 0.058865, 0.137775, 0.0586919, 0.139871, 0.0595846, 0, 0
0, 1260.00000, 0.138182, 0.0588651, 0.137775, 0.0586919, 0.139871, 0.0595846, 0, 0
0, 1320.00000, 0.138182, 0.0588653, 0.137775, 0.0586918, 0.139871, 0.0595846, 0, 0
0, 1380.00000, 0.138182, 0.0588654, 0.137775, 0.0586918, 0.139871, 0.0595846, 0, 0
0, 1440.00000, 0.138183, 0.0588655, 0.137775, 0.0586918, 0.139871, 0.0595846, 0, 0
0, 1500.00000, 0.138183, 0.0588656, 0.137775, 0.0586918, 0.139871, 0.0595846, 0, 0
0, 1560.00000, 0.138183, 0.0588657, 0.137775, 0.0586918, 0.139871, 0.0595845, 0, 0
0, 1620.00000, 0.138183, 0.0588658, 0.137775, 0.0586918, 0.139871, 0.0595845, 0, 0
0, 1680.00000, 0.138183, 0.0588659, 0.137775, 0.0586918, 0.139871, 0.0595845, 0, 0
0, 1740.00000, 0.138184, 0.0588659, 0.137775, 0.0586918, 0.139871, 0.0595845, 0, 0
0, 1800.00000, 0.138184, 0.058866, 0.137775, 0.0586918, 0.139871, 0.0595845, 0, 0
0, 1860.00000, 0.138265, 0.0589007, 0.137842, 0.0587202, 0.139615, 0.0594755, 0, 0
0, 1920.00000, 0.138265, 0.0589007, 0.137842, 0.0587202, 0.139614, 0.0594754, 0, 0
0, 1980.00000, 0.138265, 0.0589007, 0.137842, 0.0587202, 0.139614, 0.0594754, 0, 0
0, 2040.00000, 0.138265, 0.0589008, 0.137842, 0.0587202, 0.139614, 0.0594754, 0, 0
0, 2100.00000, 0.138265, 0.0589008, 0.137842, 0.0587202, 0.139614, 0.0594754, 0, 0
0, 2160.00000, 0.138265, 0.0589008, 0.137842, 0.0587202, 0.139614, 0.0594754, 0, 0
0, 2220.00000, 0.138266, 0.0589009, 0.137842, 0.0587202, 0.139614, 0.0594754, 0, 0
0, 2280.00000, 0.138266, 0.0589009, 0.137842, 0.0587202, 0.139614, 0.0594754, 0, 0
0, 2340.00000, 0.138266, 0.0589009, 0.137842, 0.0587202, 0.139614, 0.0594754, 0, 0
0, 2400.00000, 0.138266, 0.0589009, 0.137841, 0.0587202, 0.139614, 0.0594754, 0, 0
0, 2460.00000, 0.138266, 0.0589009, 0.137841, 0.0587202, 0.139614, 0.0594754, 0, 0
0, 2520.00000, 0.138266, 0.058901, 0.137841, 0.0587202, 0.139614, 0.0594754, 0, 0
0, 2580.00000, 0.138266, 0.058901, 0.137841, 0.0587202, 0.139614, 0.0594754, 0, 0
0, 2640.00000, 0.138266, 0.058901, 0.137841, 0.0587202, 0.139614, 0.0594754, 0, 0
0, 2700.00000, 0.138266, 0.058901, 0.137841, 0.0587202, 0.139614, 0.0594754, 0, 0
0, 2760.00000, 0.14461, 0.0616037, 0.144137, 0.0614021, 0.145321, 0.0619064, 0, 0
0, 2820.00000, 0.14461, 0.0616036, 0.144137, 0.0614022, 0.14532, 0.0619063, 0, 0
0, 2880.00000, 0.14461, 0.0616037, 0.144137, 0.0614022, 0.14532, 0.0619063, 0, 0
0, 2940.00000, 0.14461, 0.0616037, 0.144137, 0.0614022, 0.14532, 0.0619063, 0, 0
0, 3000.00000, 0.14461, 0.0616037, 0.144137, 0.0614022, 0.14532, 0.0619062, 0, 0
0, 3060.00000, 0.14461, 0.0616037, 0.144137, 0.0614022, 0.14532, 0.0619062, 0, 0
0, 3120.00000, 0.14461, 0.0616037, 0.144137, 0.0614022, 0.14532, 0.0619062, 0, 0
0, 3180.00000, 0.14461, 0.0616037, 0.144137, 0.0614022, 0.14532, 0.0619062, 0, 0
0, 3240.00000, 0.14461, 0.0616037, 0.144137, 0.0614022, 0.14532, 0.0619062, 0, 0
0, 3300.00000, 0.14461, 0.0616037, 0.144137, 0.0614022, 0.14532, 0.0619062, 0, 0
0, 3360.00000, 0.14461, 0.0616037, 0.144137, 0.0614022, 0.14532, 0.0619062, 0, 0
0, 3420.00000, 0.14461, 0.0616037, 0.144137, 0.0614022, 0.14532, 0.0619062, 0, 0
0, 3480.00000, 0.144839, 0.0617012, 0.14488, 0.0617188, 0.14532, 0.0619063, 0, 0
0, 3540.00000, 0.14482, 0.061693, 0.145078, 0.0618031, 0.145321, 0.0619063, 0, 0
1, 0.00000, 0.14482, 0.061693, 0.145078, 0.0618032, 0.14532, 0.0619062, 0, 0
1, 60.00000, 0.147648, 0.0628978, 0.147648, 0.0628977, 0.147648, 0.0628978, 0, 0
1, 120.00000, 0.147648, 0.0628978, 0.147648, 0.0628978, 0.147648, 0.0628978, 0, 0
1, 180.00000, 0.147648, 0.0628978, 0.147648, 0.0628978, 0.147648, 0.0628978, 0, 0
1, 240.00000, 0.147648, 0.0628978, 0.147648, 0.0628978, 0.147648, 0.0628978, 0, 0
1, 300.00000, 0.147648, 0.0628978, 0.147648, 0.0628978, 0.147648, 0.0628978, 0, 0
1, 360.00000, 0.147648, 0.0628978, 0.147648, 0.0628978, 0.147648, 0.0628978, 0, 0
1, 420.00000, 0.147648, 0.0628978, 0.147648, 0.0628978, 0.147648, 0.0628978, 0, 0
1, 480.00000, 0.147648, 0.0628978, 0.147648, 0.0628978, 0.147648, 0.0628978, 0, 0
1, 540.00000, 0.147648, 0.0628978, 0.147648, 0.0628978, 0.147648, 0.0628978, 0, 0
1, 600.00000, 0.147648, 0.0628978, 0.147648, 0.0628977, 0.147648, 0.0628978, 0, 0
1, 660.00000, 0.147648, 0.0628978, 0.147648, 0.0628978, 0.147648, 0.0628978, 0, 0
1, 720.00000, 0.147648, 0.0628978, 0.147648, 0.0628978, 0.147648, 0.0628978, 0, 0
1, 780.00000, 0.147648, 0.0628978, 0.147648, 0.0628978, 0.147648, 0.0628978, 0, 0
1, 840.00000, 0.147648, 0.0628978, 0.147648, 0.0628978, 0.147648, 0.0628978, 0, 0
1, 900.00000, 0.147648, 0.0628978, 0.147648, 0.0628978, 0.147648, 0.0628978, 0, 0
1, 960.00000, 0.145234, 0.0618696, 0.145235, 0.0618696, 0.145235, 0.0618697, 0, 0
1, 1020.00000, 0.145235, 0.0618696, 0.145235, 0.0618696, 0.145235, 0.0618696, 0, 0
1, 1080.00000, 0.145235, 0.0618696, 0.145235, 0.0618696, 0.145235, 0.0618696, 0, 0
1, 1140.00000, 0.145235, 0.0618696, 0.145235, 0.0618696, 0.145235, 0.0618696, 0, 0
1, 1200.00000, 0.145235, 0.0618696, 0.145235, 0.0618696, 0.145235, 0.0618696, 0, 0
1, 1260.00000, 0.145235, 0.0618696, 0.145235, 0.0618696, 0.145235, 0.0618696, 0, 0
1, 1320.00000, 0.145235, 0.0618696, 0.145235, 0.0618696, 0.145235, 0.0618696, 0, 0
1, 1380.00000, 0.145235, 0.0618696, 0.145235, 0.0618696, 0.145235, 0.0618696, 0, 0
1, 1440.00000, 0.145235, 0.0618696, 0.145235, 0.0618696, 0.145235, 0.0618696, 0, 0
1, 1500.00000, 0.145235, 0.0618696, 0.145235, 0.0618696, 0.145235, 0.0618696, 0, 0
1, 1560.00000, 0.145235, 0.0618696, 0.145235, 0.0618696, 0.145235, 0.0618696, 0, 0
1, 1620.00000, 0.145235, 0.0618696, 0.145235, 0.0618696, 0.145235, 0.0618696, 0, 0
1, 1680.00000, 0.145235, 0.0618696, 0.145235, 0.0618696, 0.145235, 0.0618696, 0, 0
1, 1740.00000, 0.145235, 0.0618696, 0.145235, 0.0618696, 0.145235, 0.0618696, 0, 0
1, 1800.00000, 0.145235, 0.0618696, 0.145235, 0.0618696, 0.145235, 0.0618696, 0, 0
1, 1860.00000, 0.136238, 0.0580371, 0.136238, 0.0580372, 0.136238, 0.058037, 0, 0
1, 1920.00000, 0.136238, 0.0580371, 0.136238, 0.0580371, 0.136238, 0.0580371, 0, 0
1, 1980.00000, 0.136238, 0.0580371, 0.136238, 0.0580371, 0.136238, 0.0580371, 0, 0
1, 2040.00000, 0.136238, 0.0580371, 0.136238, 0.0580371, 0.136238, 0.0580371, 0, 0
1, 2100.00000, 0.136238, 0.0580371, 0.136238, 0.0580371, 0.136238, 0.0580371, 0, 0
1, 2160.00000, 0.136238, 0.0580371, 0.136238, 0.0580371, 0.136238, 0.0580371, 0, 0
1, 2220.00000, 0.136238, 0.0580371, 0.136238, 0.0580371, 0.136238, 0.0580371, 0, 0
1, 2280.00000, 0.136238, 0.0580371, 0.136238, 0.0580371, 0.136238, 0.0580371, 0, 0
1, 2340.00000, 0.136238, 0.0580371, 0.136238, 0.0580371, 0.136238, 0.0580371, 0, 0
1, 2400.00000, 0.136238, 0.0580371, 0.136238, 0.0580371, 0.136238, 0.0580371, 0, 0
1, 2460.00000, 0.136238, 0.0580371, 0.136238, 0.0580371, 0.136238, 0.0580371, 0, 0
1, 2520.00000, 0.136238, 0.0580371, 0.136238, 0.0580371, 0.136238, 0.0580371, 0, 0
1, 2580.00000, 0.136238, 0.0580371, 0.136238, 0.0580371, 0.136238, 0.0580371, 0, 0
1, 2640.00000, 0.136238, 0.0580371, 0.136238, 0.0580371, 0.136238, 0.0580371, 0, 0
1, 2700.00000, 0.136238, 0.0580371, 0.136238, 0.0580371, 0.136238, 0.0580371, 0, 0
1, 2760.00000, 0.135607, 0.0577684, 0.135607, 0.0577684, 0.135607, 0.0577684, 0, 0
1, 2820.00000, 0.135607, 0.0577684, 0.135607, 0.0577684, 0.135607, 0.0577684, 0, 0
1, 2880.00000, 0.135607, 0.0577684, 0.135607, 0.0577684, 0.135607, 0.0577684, 0, 0
1, 2940.00000, 0.135607, 0.0577684, 0.135607, 0.0577684, 0.135607, 0.0577684, 0, 0
1, 3000.00000, 0.135607, 0.0577684, 0.135607, 0.0577684, 0.135607, 0.0577684, 0, 0
1, 3060.00000, 0.135607, 0.0577684, 0.135607, 0.0577684, 0.135607, 0.0577684, 0, 0
1, 3120.00000, 0.135607, 0.0577684, 0.135607, 0.0577684, 0.135607, 0.0577684, 0, 0
1, 3180.00000, 0.135607, 0.0577684, 0.135607, 0.0577684, 0.135607, 0.0577684, 0, 0
1, 3240.00000, 0.135607, 0.0577684, 0.135607, 0.0577684, 0.135607, 0.0577684, 0, 0
1, 3300.00000, 0.135607, 0.0577684, 0.135607, 0.0577684, 0.135607, 0.0577684, 0, 0
1, 3360.00000, 0.135607, 0.0577684, 0.135607, 0.0577684, 0.135607, 0.0577684, 0, 0
1, 3420.00000, 0.135607, 0.0577684, 0.135607, 0.0577684, 0.135607, 0.0577684, 0, 0
1, 3480.00000, 0.135607, 0.0577684, 0.135607, 0.0577684, 0.135607, 0.0577684, 0, 0
1, 3540.00000, 0.135607, 0.0577684, 0.135607, 0.0577684, 0.135607, 0.0577684, 0, 0
2, 0.00000, 0.135607, 0.0577684, 0.135607, 0.0577684, 0.135607, 0.0577684, 0, 0
2, 60.00000, 0.142086, 0.0605285, 0.142086, 0.0605285, 0.142086, 0.0605284, 0, 0
2, 120.00000, 0.142086, 0.0605285, 0.142086, 0.0605285, 0.142086, 0.0605285, 0, 0
2, 180.00000, 0.142086, 0.0605285, 0.142086, 0.0605285, 0.142086, 0.0605285, 0, 0
2, 240.00000, 0.142086, 0.0605285, 0.142086, 0.0605285, 0.142086, 0.0605285, 0, 0
2, 300.00000, 0.142086, 0.0605284, 0.142086, 0.0605284, 0.142086, 0.0605286, 0, 0
2, 360.00000, 0.142086, 0.0605285, 0.142086, 0.0605285, 0.142086, 0.0605285, 0, 0
2, 420.00000, 0.142086, 0.0605285, 0.142086, 0.0605285, 0.142086, 0.0605285, 0, 0
2, 480.00000, 0.142086, 0.0605285, 0.142086, 0.0605285, 0.142086, 0.0605285, 0, 0
2, 540.00000, 0.142086, 0.0605285, 0.142086, 0.0605285, 0.142086, 0.0605285, 0, 0
2, 600.00000, 0.142086, 0.0605285, 0.142086, 0.0605285, 0.142086, 0.0605285, 0, 0
2, 660.00000, 0.142086, 0.0605285, 0.142086, 0.0605285, 0.142086, 0.0605285, 0, 0
2, 720.00000, 0.142086, 0.0605285, 0.142086, 0.0605285, 0.142086, 0.0605285, 0, 0
2, 780.00000, 0.142086, 0.0605285, 0.142086, 0.0605285, 0.142086, 0.0605285, 0, 0
2, 840.00000, 0.142086, 0.0605285, 0.142086, 0.0605285, 0.142086, 0.0605285, 0, 0
2, 900.00000, 0.142086, 0.0605285, 0.142086, 0.0605285, 0.142086, 0.0605285, 0, 0
2, 960.00000, 0.172875, 0.0736443, 0.172875, 0.0736442, 0.172875, 0.0736443, 0, 0
2, 1020.00000, 0.172875, 0.0736443, 0.172875, 0.0736443, 0.172875, 0.0736443, 0, 0
2, 1080.00000, 0.172875, 0.0736443, 0.172875, 0.0736443, 0.172875, 0.0736443, 0, 0
2, 1140.00000, 0.172875, 0.0736443, 0.172875, 0.0736443, 0.172875, 0.0736443, 0, 0
2, 1200.00000, 0.172875, 0.0736443, 0.172875, 0.0736443, 0.172875, 0.0736443, 0, 0
2, 1260.00000, 0.172875, 0.0736443, 0.172875, 0.0736443, 0.172875, 0.0736443, 0, 0
2, 1320.00000, 0.172875, 0.0736443, 0.172875, 0.0736443, 0.172875, 0.0736443, 0, 0
2, 1380.00000, 0.172875, 0.0736443, 0.172875, 0.0736443, 0.172875, 0.0736443, 0, 0
2, 1440.00000, 0.172875, 0.0736443, 0.172875, 0.0736443, 0.172875, 0.0736443, 0, 0
2, 1500.00000, 0.172875, 0.0736443, 0.172875, 0.0736443, 0.172875, 0.0736443, 0, 0
2, 1560.00000, 0.172875, 0.0736443, 0.172875, 0.0736443, 0.172875, 0.0736443, 0, 0
2, 1620.00000, 0.172875, 0.0736443, 0.172875, 0.0736443, 0.172875, 0.0736443, 0, 0
2, 1680.00000, 0.172875, 0.0736443, 0.172875, 0.0736443, 0.172875, 0.0736443, 0, 0
2, 1740.00000, 0.172875, 0.0736443, 0.172875, 0.0736443, 0.172875, 0.0736443, 0, 0
2, 1800.00000, 0.172875, 0.0736443, 0.172875, 0.0736443, 0.172875, 0.0736443, 0, 0
2, 1860.00000, 0.167249, 0.0712476, 0.167249, 0.0712476, 0.167249, 0.0712476, 0, 0
2, 1920.00000, 0.167249, 0.0712476, 0.167249, 0.0712476, 0.167249, 0.0712476, 0, 0
2, 1980.00000, 0.167249, 0.0712476, 0.167249, 0.0712476, 0.167249, 0.0712476, 0, 0
2, 2040.00000, 0.167249, 0.0712476, 0.167249, 0.0712476, 0.167249, 0.0712476, 0, 0
2, 2100.00000, 0.167249, 0.0712476, 0.167249, 0.0712476, 0.167249, 0.0712476, 0, 0
2, 2160.00000, 0.167249, 0.0712476, 0.167249, 0.0712476, 0.167249, 0.0712476, 0, 0
2, 2220.00000, 0.167249, 0.0712476, 0.167249, 0.0712476, 0.167249, 0.0712476, 0, 0
2, 2280.00000, 0.167249, 0.0712476, 0.167249, 0.0712476, 0.167249, 0.0712476, 0, 0
2, 2340.00000, 0.167249, 0.0712476, 0.167249, 0.0712476, 0.167249, 0.0712476, 0, 0
2, 2400.00000, 0.167249, 0.0712476, 0.167249, 0.0712476, 0.167249, 0.0712476, 0, 0
2, 2460.00000, 0.167249, 0.0712476, 0.167249, 0.0712476, 0.167249, 0.0712476, 0, 0
2, 2520.00000, 0.167249, 0.0712476, 0.167249, 0.0712476, 0.167249, 0.0712476, 0, 0
2, 2580.00000, 0.167249, 0.0712476, 0.167249, 0.0712476, 0.167249, 0.0712476, 0, 0
2, 2640.00000, 0.167249, 0.0712476, 0.167249, 0.0712476, 0.167249, 0.0712476, 0, 0
2, 2700.00000, 0.167249, 0.0712476, 0.167249, 0.0712476, 0.167249, 0.0712476, 0, 0
2, 2760.00000, 0.174306, 0.074254, 0.174306, 0.074254, 0.174306, 0.0742541, 0, 0
2, 2820.00000, 0.174306, 0.074254, 0.174306, 0.074254, 0.174306, 0.074254, 0, 0
2, 2880.00000, 0.174306, 0.074254, 0.174306, 0.074254, 0.174306, 0.074254, 0, 0
2, 2940.00000, 0.174306, 0.074254, 0.174306, 0.074254, 0.174306, 0.074254, 0, 0
2, 3000.00000, 0.174306, 0.074254, 0.174306, 0.074254, 0.174306, 0.074254, 0, 0
2, 3060.00000, 0.174306, 0.074254, 0.174306, 0.074254, 0.174306, 0.074254, 0, 0
2, 3120.00000, 0.174306, 0.074254, 0.174306, 0.074254, 0.174306, 0.074254, 0, 0
2, 3180.00000, 0.174306, 0.074254, 0.174306, 0.074254, 0.174306, 0.074254, 0, 0
2, 3240.00000, 0.174306, 0.074254, 0.174306, 0.074254, 0.174306, 0.074254, 0, 0
2, 3300.00000, 0.174306, 0.074254, 0.174306, 0.074254, 0.174306, 0.074254, 0, 0
2, 3360.00000, 0.174306, 0.074254, 0.174306, 0.074254, 0.174306, 0.074254, 0, 0
2, 3420.00000, 0.174306, 0.074254, 0.174306, 0.074254, 0.174306, 0.074254, 0, 0
2, 3480.00000, 0.174306, 0.074254, 0.174306, 0.074254, 0.174306, 0.074254, 0, 0
2, 3540.00000, 0.174306, 0.074254, 0.174306, 0.074254, 0.174306, 0.074254, 0, 0
3, 0.00000, 0.174306, 0.074254, 0.174306, 0.074254, 0.174306, 0.074254, 0, 0
3, 60.00000, 0.159312, 0.0678665, 0.159312, 0.0678665, 0.159312, 0.0678665, 0, 0
3, 120.00000, 0.159312, 0.0678665, 0.159312, 0.0678665, 0.159312, 0.0678665, 0, 0
3, 180.00000, 0.159312, 0.0678665, 0.159312, 0.0678665, 0.159312, 0.0678665, 0, 0
3, 240.00000, 0.159312, 0.0678665, 0.159312, 0.0678665, 0.159312, 0.0678665, 0, 0
3, 300.00000, 0.159312, 0.0678665, 0.159312, 0.0678665, 0.159312, 0.0678665, 0, 0
3, 360.00000, 0.159312, 0.0678665, 0.159312, 0.0678665, 0.159312, 0.0678665, 0, 0
3, 420.00000, 0.159312, 0.0678665, 0.159312, 0.0678665, 0.159312, 0.0678665, 0, 0
3, 480.00000, 0.159312, 0.0678665, 0.159312, 0.0678665, 0.159312, 0.0678665, 0, 0
3, 540.00000, 0.159312, 0.0678665, 0.159312, 0.0678665, 0.159312, 0.0678665, 0, 0
3, 600.00000, 0.159312, 0.0678665, 0.159312, 0.0678665, 0.159312, 0.0678665, 0, 0
3, 660.00000, 0.159312, 0.0678665, 0.159312, 0.0678665, 0.159312, 0.0678665, 0, 0
3, 720.00000, 0.159312, 0.0678665, 0.159312, 0.0678665, 0.159312, 0.0678665, 0, 0
3, 780.00000, 0.159312, 0.0678665, 0.159312, 0.0678665, 0.159312, 0.0678665, 0, 0
3, 840.00000, 0.159312, 0.0678665, 0.159312, 0.0678665, 0.159312, 0.0678665, 0, 0
3, 900.00000, 0.159312, 0.0678665, 0.159312, 0.0678665, 0.159312, 0.0678665, 0, 0
3, 960.00000, 0.168837, 0.0719243, 0.168837, 0.0719242, 0.168837, 0.0719243, 0, 0
3, 1020.00000, 0.168837, 0.0719243, 0.168837, 0.0719243, 0.168837, 0.0719243, 0, 0
3, 1080.00000, 0.168837, 0.0719243, 0.168837, 0.0719243, 0.168837, 0.0719243, 0, 0
3, 1140.00000, 0.168837, 0.0719243, 0.168837, 0.0719243, 0.168837, 0.0719243, 0, 0
3, 1200.00000, 0.168837, 0.0719243, 0.168837, 0.0719243, 0.168837, 0.0719243, 0, 0
3, 1260.00000, 0.168837, 0.0719243, 0.168837, 0.0719243, 0.168837, 0.0719243, 0, 0
3, 1320.00000, 0.168837, 0.0719243, 0.168837, 0.0719243, 0.168837, 0.0719243, 0, 0
3, 1380.00000, 0.168837, 0.0719243, 0.168837, 0.0719243, 0.168837, 0.0719243, 0, 0
3, 1440.00000, 0.168837, 0.0719243, 0.168837, 0.0719243, 0.168837, 0.0719243, 0, 0
3, 1500.00000, 0.168837, 0.0719243, 0.168837, 0.0719243, 0.168837, 0.0719243, 0, 0
3, 1560.00000, 0.168837, 0.0719243, 0.168837, 0.0719243, 0.168837, 0.0719243, 0, 0
3, 1620.00000, 0.168837, 0.0719243, 0.168837, 0.0719243, 0.168837, 0.0719243, 0, 0
3, 1680.00000, 0.168837, 0.0719243, 0.168837, 0.0719243, 0.168837, 0.0719243, 0, 0
3, 1740.00000, 0.168837, 0.0719243, 0.168837, 0.0719243, 0.168837, 0.0719243, 0, 0
3, 1800.00000, 0.168837, 0.0719243, 0.168837, 0.0719243, 0.168837, 0.0719243, 0, 0
3, 1860.00000, 0.160706, 0.0684604, 0.160706, 0.0684604, 0.160706, 0.0684604, 0, 0
3, 1920.00000, 0.160706, 0.0684604, 0.160706, 0.0684604, 0.160706, 0.0684604, 0, 0
3, 1980.00000, 0.160706, 0.0684604, 0.160706, 0.0684604, 0.160706, 0.0684604, 0, 0
3, 2040.00000, 0.160706, 0.0684604, 0.160706, 0.0684604, 0.160706, 0.0684604, 0, 0
3, 2100.00000, 0.160706, 0.0684604, 0.160706, 0.0684604, 0.160706, 0.0684604, 0, 0
3, 2160.00000, 0.160706, 0.0684604, 0.160706, 0.0684604, 0.160706, 0.0684604, 0, 0
3, 2220.00000, 0.160706, 0.0684604, 0.160706, 0.0684604, 0.160706, 0.0684604, 0, 0
3, 2280.00000, 0.160706, 0.0684604, 0.160706, 0.0684604, 0.160706, 0.0684604, 0, 0
3, 2340.00000, 0.160706, 0.0684604, 0.160706, 0.0684604, 0.160706, 0.0684604, 0, 0
3, 2400.00000, 0.160706, 0.0684604, 0.160706, 0.0684604, 0.160706, 0.0684604, 0, 0
3, 2460.00000, 0.160706, 0.0684604, 0.160706, 0.0684604, 0.160706, 0.0684604, 0, 0
3, 2520.00000, 0.160706, 0.0684604, 0.160706, 0.0684604, 0.160706, 0.0684604, 0, 0
3, 2580.00000, 0.160706, 0.0684604, 0.160706, 0.0684604, 0.160706, 0.0684604, 0, 0
3, 2640.00000, 0.160706, 0.0684604, 0.160706, 0.0684604, 0.160706, 0.0684604, 0, 0
3, 2700.00000, 0.160706, 0.0684604, 0.160706, 0.0684604, 0.160706, 0.0684604, 0, 0
3, 2760.00000, 0.177665, 0.0756848, 0.177665, 0.0756848, 0.177665, 0.0756849, 0, 0
3, 2820.00000, 0.177665, 0.0756848, 0.177665, 0.0756848, 0.177665, 0.0756848, 0, 0
3, 2880.00000, 0.177665, 0.0756848, 0.177665, 0.0756848, 0.177665, 0.0756848, 0, 0
3, 2940.00000, 0.177665, 0.0756848, 0.177665, 0.0756848, 0.177665, 0.0756848, 0, 0
3, 3000.00000, 0.177665, 0.0756848, 0.177665, 0.0756848, 0.177665, 0.0756848, 0, 0
3, 3060.00000, 0.177665, 0.0756848, 0.177665, 0.0756848, 0.177665, 0.0756848, 0, 0
3, 3120.00000, 0.177665, 0.0756848, 0.177665, 0.0756848, 0.177665, 0.0756848, 0, 0
3, 3180.00000, 0.177665, 0.0756848, 0.177665, 0.0756848, 0.177665, 0.0756848, 0, 0
3, 3240.00000, 0.177665, 0.0756848, 0.177665, 0.0756848, 0.177665, 0.0756848, 0, 0
3, 3300.00000, 0.177665, 0.0756848, 0.177665, 0.0756848, 0.177665, 0.0756848, 0, 0
3, 3360.00000, 0.177665, 0.0756848, 0.177665, 0.0756848, 0.177665, 0.0756848, 0, 0
3, 3420.00000, 0.177665, 0.0756848, 0.177665, 0.0756848, 0.177665, 0.0756848, 0, 0
3, 3480.00000, 0.177665, 0.0756848, 0.177665, 0.0756848, 0.177665, 0.0756848, 0, 0
3, 3540.00000, 0.177665, 0.0756848, 0.177665, 0.0756848, 0.177665, 0.0756848, 0, 0
4, 0.00000, 0.177665, 0.0756848, 0.177665, 0.0756848, 0.177665, 0.0756848, 0, 0
4, 60.00000, 0.172928, 0.0736669, 0.172928, 0.0736669, 0.172928, 0.0736668, 0, 0
