hour,t(sec),V1,VAngle1,V2,VAngle2,V3,VAngle3,V4,VAngle4,I1,IAngle1,I2,IAngle2,I3,IAngle3,I4,IAngle4
0, 60.00000, 124.405, -31.6485, 126.888, -151.376, 126.097, 87.55, 0, 0, 5.15847, -54.7224, 5.05754, -174.45, 5.08919, 64.4763, 0.175278, 142.057
0, 120.00000, 124.405, -31.6484, 126.904, -151.377, 126.104, 87.5442, 0, 0, 5.15847, -54.7223, 5.05692, -174.45, 5.08893, 64.4705, 0.176284, 142.157
0, 180.00000, 124.405, -31.6483, 126.918, -151.377, 126.11, 87.5389, 0, 0, 5.15847, -54.7222, 5.05636, -174.451, 5.0887, 64.4652, 0.17719, 142.246
0, 240.00000, 124.404, -31.6482, 126.93, -151.377, 126.115, 87.5342, 0, 0, 5.15847, -54.7222, 5.05586, -174.451, 5.08849, 64.4605, 0.178005, 142.326
0, 300.00000, 124.404, -31.6482, 126.942, -151.377, 126.12, 87.5299, 0, 0, 5.15847, -54.7221, 5.0554, -174.451, 5.08831, 64.4562, 0.178741, 142.398
0, 360.00000, 124.404, -31.6481, 126.952, -151.377, 126.124, 87.5261, 0, 0, 5.15847, -54.7221, 5.05499, -174.451, 5.08814, 64.4523, 0.179403, 142.462
0, 420.00000, 124.404, -31.6481, 126.961, -151.377, 126.128, 87.5226, 0, 0, 5.15847, -54.722, 5.05462, -174.451, 5.08799, 64.4489, 0.180002, 142.52
0, 480.00000, 124.746, -31.5248, 127.357, -151.241, 126.5, 87.6397, 0, 0, 4.64823, -54.5987, 4.55294, -174.315, 4.58376, 64.5659, 0.164839, 142.496
0, 540.00000, 124.746, -31.5247, 127.365, -151.241, 126.503, 87.6369, 0, 0, 4.64823, -54.5986, 4.55266, -174.315, 4.58364, 64.5631, 0.165287, 142.543
0, 600.00000, 124.746, -31.5247, 127.372, -151.241, 126.506, 87.6343, 0, 0, 4.64823, -54.5986, 4.55241, -174.315, 4.58354, 64.5605, 0.16569, 142.585
0, 660.00000, 124.746, -31.5246, 127.378, -151.241, 126.509, 87.632, 0, 0, 4.64823, -54.5986, 4.55219, -174.315, 4.58345, 64.5582, 0.166052, 142.623
0, 720.00000, 124.746, -31.5246, 127.384, -151.241, 126.511, 87.63, 0, 0, 4.64823, -54.5985, 4.55198, -174.315, 4.58337, 64.5561, 0.166378, 142.656
0, 780.00000, 124.746, -31.5246, 127.389, -151.241, 126.513, 87.6281, 0, 0, 4.64823, -54.5985, 4.5518, -174.315, 4.5833, 64.5543, 0.166672, 142.687
0, 840.00000, 124.746, -31.5246, 127.393, -151.241, 126.515, 87.6264, 0, 0, 4.64823, -54.5985, 4.55164, -174.315, 4.58324, 64.5526, 0.166936, 142.714
0, 900.00000, 124.746, -31.5245, 127.398, -151.241, 126.516, 87.6249, 0, 0, 4.64823, -54.5985, 4.55149, -174.315, 4.58318, 64.5511, 0.167174, 142.739
0, 960.00000, 124.747, -31.5255, 127.27, -151.371, 126.228, 87.5983, 0, 0, 4.64817, -54.5995, 4.55605, -174.445, 4.59363, 64.5244, 0.15739, 148.236
0, 1020.00000, 124.747, -31.5255, 127.273, -151.371, 126.23, 87.5971, 0, 0, 4.64817, -54.5994, 4.55594, -174.445, 4.59358, 64.5232, 0.157582, 148.25
0, 1080.00000, 124.747, -31.5255, 127.276, -151.371, 126.231, 87.596, 0, 0, 4.64818, -54.5994, 4.55583, -174.445, 4.59354, 64.5221, 0.157756, 148.263
0, 1140.00000, 124.747, -31.5255, 127.279, -151.371, 126.232, 87.595, 0, 0, 4.64818, -54.5994, 4.55574, -174.445, 4.5935, 64.5212, 0.157912, 148.274
0, 1200.00000, 124.747, -31.5255, 127.281, -151.372, 126.233, 87.5942, 0, 0, 4.64818, -54.5994, 4.55565, -174.445, 4.59347, 64.5203, 0.158053, 148.284
0, 1260.00000, 124.747, -31.5255, 127.283, -151.372, 126.234, 87.5934, 0, 0, 4.64818, -54.5994, 4.55558, -174.445, 4.59344, 64.5195, 0.15818, 148.294
0, 1320.00000, 124.747, -31.5255, 127.285, -151.372, 126.234, 87.5927, 0, 0, 4.64818, -54.5994, 4.55551, -174.445, 4.59341, 64.5188, 0.158294, 148.302
0, 1380.00000, 124.747, -31.5254, 127.287, -151.372, 126.235, 87.592, 0, 0, 4.64818, -54.5994, 4.55545, -174.446, 4.59339, 64.5181, 0.158397, 148.309
0, 1440.00000, 124.747, -31.5254, 127.288, -151.372, 126.236, 87.5914, 0, 0, 4.64818, -54.5994, 4.55539, -174.446, 4.59336, 64.5175, 0.15849, 148.316
0, 1500.00000, 124.747, -31.5254, 127.29, -151.372, 126.236, 87.5909, 0, 0, 4.64818, -54.5993, 4.55534, -174.446, 4.59334, 64.517, 0.158573, 148.322
0, 1560.00000, 124.747, -31.5254, 127.291, -151.372, 126.237, 87.5905, 0, 0, 4.64818, -54.5993, 4.55529, -174.446, 4.59333, 64.5166, 0.158648, 148.327
0, 1620.00000, 124.747, -31.5254, 127.292, -151.372, 126.237, 87.59, 0, 0, 4.64818, -54.5993, 4.55525, -174.446, 4.59331, 64.5161, 0.158715, 148.332
0, 1680.00000, 124.747, -31.5254, 127.293, -151.372, 126.238, 87.5897, 0, 0, 4.64818, -54.5993, 4.55522, -174.446, 4.5933, 64.5158, 0.158776, 148.337
0, 1740.00000, 124.747, -31.5254, 127.294, -151.372, 126.238, 87.5893, 0, 0, 4.64818, -54.5993, 4.55518, -174.446, 4.59328, 64.5154, 0.158831, 148.341
0, 1800.00000, 124.669, -31.6501, 126.989, -151.409, 126.238, 87.5924, 0, 0, 4.6511, -54.724, 4.56612, -174.483, 4.59327, 64.5185, 0.147555, 142.604
0, 1860.00000, 124.669, -31.6501, 126.99, -151.409, 126.239, 87.5921, 0, 0, 4.6511, -54.724, 4.56609, -174.483, 4.59326, 64.5182, 0.147597, 142.609
0, 1920.00000, 124.669, -31.6501, 126.99, -151.409, 126.239, 87.5919, 0, 0, 4.6511, -54.724, 4.56607, -174.483, 4.59325, 64.518, 0.147635, 142.613
0, 1980.00000, 124.669, -31.6501, 126.991, -151.409, 126.239, 87.5917, 0, 0, 4.6511, -54.724, 4.56605, -174.483, 4.59324, 64.5178, 0.14767, 142.617
0, 2040.00000, 124.669, -31.6501, 126.992, -151.409, 126.239, 87.5915, 0, 0, 4.6511, -54.724, 4.56603, -174.483, 4.59323, 64.5176, 0.147701, 142.621
0, 2100.00000, 124.669, -31.6501, 126.992, -151.409, 126.24, 87.5913, 0, 0, 4.6511, -54.724, 4.56601, -174.483, 4.59322, 64.5174, 0.147728, 142.624
0, 2160.00000, 124.669, -31.6501, 126.992, -151.409, 126.24, 87.5911, 0, 0, 4.6511, -54.724, 4.566, -174.483, 4.59322, 64.5172, 0.147753, 142.627
0, 2220.00000, 124.669, -31.6501, 126.993, -151.409, 126.24, 87.591, 0, 0, 4.6511, -54.724, 4.56598, -174.483, 4.59321, 64.5171, 0.147776, 142.63
0, 2280.00000, 124.669, -31.6501, 126.993, -151.409, 126.24, 87.5909, 0, 0, 4.6511, -54.724, 4.56597, -174.483, 4.5932, 64.5169, 0.147796, 142.632
0, 2340.00000, 124.669, -31.6501, 126.993, -151.409, 126.24, 87.5907, 0, 0, 4.6511, -54.724, 4.56596, -174.483, 4.5932, 64.5168, 0.147814, 142.634
0, 2400.00000, 124.669, -31.6501, 126.994, -151.409, 126.24, 87.5906, 0, 0, 4.6511, -54.724, 4.56595, -174.483, 4.5932, 64.5167, 0.147831, 142.636
0, 2460.00000, 124.669, -31.6501, 126.994, -151.409, 126.24, 87.5905, 0, 0, 4.6511, -54.724, 4.56594, -174.483, 4.59319, 64.5166, 0.147845, 142.638
0, 2520.00000, 124.669, -31.6501, 126.994, -151.409, 126.241, 87.5904, 0, 0, 4.6511, -54.724, 4.56593, -174.483, 4.59319, 64.5165, 0.147859, 142.639
0, 2580.00000, 124.669, -31.6501, 126.994, -151.409, 126.241, 87.5904, 0, 0, 4.6511, -54.724, 4.56592, -174.483, 4.59319, 64.5165, 0.147871, 142.641
0, 2640.00000, 124.669, -31.6501, 126.995, -151.409, 126.241, 87.5903, 0, 0, 4.6511, -54.724, 4.56592, -174.483, 4.59318, 64.5164, 0.147882, 142.642
0, 2700.00000, 124.669, -31.6501, 126.995, -151.409, 126.241, 87.5902, 0, 0, 4.6511, -54.724, 4.56591, -174.483, 4.59318, 64.5163, 0.147891, 142.643
0, 2760.00000, 124.963, -31.6191, 126.994, -151.408, 126.335, 87.7206, 0, 0, 4.64016, -54.693, 4.56593, -174.482, 4.58976, 64.6467, 0.128736, 142.676
0, 2820.00000, 124.963, -31.6191, 126.994, -151.408, 126.335, 87.7206, 0, 0, 4.64016, -54.693, 4.56592, -174.482, 4.58976, 64.6467, 0.128744, 142.677
0, 2880.00000, 124.963, -31.6191, 126.995, -151.408, 126.335, 87.7205, 0, 0, 4.64016, -54.693, 4.56592, -174.482, 4.58975, 64.6466, 0.128751, 142.678
0, 2940.00000, 124.963, -31.6191, 126.995, -151.408, 126.335, 87.7205, 0, 0, 4.64016, -54.693, 4.56591, -174.482, 4.58975, 64.6466, 0.128757, 142.679
0, 3000.00000, 124.963, -31.6191, 126.995, -151.408, 126.335, 87.7205, 0, 0, 4.64016, -54.693, 4.56591, -174.482, 4.58975, 64.6465, 0.128763, 142.68
0, 3060.00000, 124.963, -31.6191, 126.995, -151.408, 126.335, 87.7204, 0, 0, 4.64016, -54.693, 4.56591, -174.482, 4.58975, 64.6465, 0.128768, 142.68
0, 3120.00000, 124.963, -31.6191, 126.995, -151.408, 126.335, 87.7204, 0, 0, 4.64016, -54.693, 4.5659, -174.482, 4.58975, 64.6465, 0.128773, 142.681
0, 3180.00000, 124.963, -31.6191, 126.995, -151.408, 126.335, 87.7204, 0, 0, 4.64016, -54.693, 4.5659, -174.482, 4.58975, 64.6465, 0.128777, 142.681
0, 3240.00000, 124.963, -31.6191, 126.995, -151.408, 126.335, 87.7203, 0, 0, 4.64016, -54.693, 4.5659, -174.482, 4.58975, 64.6464, 0.128781, 142.682
0, 3300.00000, 124.963, -31.6191, 126.995, -151.408, 126.335, 87.7203, 0, 0, 4.64016, -54.693, 4.5659, -174.482, 4.58975, 64.6464, 0.128784, 142.682
0, 3360.00000, 124.963, -31.6191, 126.995, -151.408, 126.335, 87.7203, 0, 0, 4.64016, -54.693, 4.5659, -174.482, 4.58975, 64.6464, 0.128787, 142.683
0, 3420.00000, 124.963, -31.6191, 126.995, -151.408, 126.335, 87.7203, 0, 0, 4.64016, -54.693, 4.56589, -174.482, 4.58974, 64.6464, 0.12879, 142.683
0, 3480.00000, 124.963, -31.6191, 126.995, -151.408, 126.335, 87.7203, 0, 0, 4.64016, -54.693, 4.56589, -174.482, 4.58974, 64.6464, 0.128792, 142.683
0, 3540.00000, 124.963, -31.6191, 126.995, -151.408, 126.335, 87.7203, 0, 0, 4.64016, -54.693, 4.56589, -174.482, 4.58974, 64.6463, 0.128794, 142.684
1, 0.00000, 124.963, -31.6191, 126.995, -151.408, 126.335, 87.7202, 0, 0, 4.64016, -54.693, 4.56589, -174.482, 4.58974, 64.6463, 0.128796, 142.684
1, 60.00000, 125.253, -31.5868, 126.995, -151.407, 126.424, 87.8481, 0, 0, 4.6294, -54.6607, 4.56589, -174.481, 4.58651, 64.7742, 0.110014, 142.866
1, 120.00000, 125.253, -31.5868, 126.995, -151.407, 126.424, 87.8481, 0, 0, 4.6294, -54.6607, 4.56589, -174.481, 4.58651, 64.7742, 0.110015, 142.866
1, 180.00000, 125.253, -31.5868, 126.995, -151.407, 126.424, 87.8481, 0, 0, 4.6294, -54.6607, 4.56589, -174.481, 4.58651, 64.7742, 0.110017, 142.866
1, 240.00000, 125.253, -31.5868, 126.995, -151.407, 126.424, 87.8481, 0, 0, 4.6294, -54.6607, 4.56589, -174.481, 4.58651, 64.7742, 0.110018, 142.866
1, 300.00000, 125.253, -31.5868, 126.995, -151.407, 126.424, 87.8481, 0, 0, 4.6294, -54.6607, 4.56589, -174.481, 4.58651, 64.7742, 0.110019, 142.867
1, 360.00000, 125.253, -31.5868, 126.995, -151.407, 126.424, 87.8481, 0, 0, 4.6294, -54.6607, 4.56589, -174.481, 4.58651, 64.7742, 0.11002, 142.867
1, 420.00000, 125.253, -31.5868, 126.995, -151.407, 126.424, 87.8481, 0, 0, 4.6294, -54.6607, 4.56589, -174.481, 4.58651, 64.7742, 0.110021, 142.867
1, 480.00000, 125.253, -31.5868, 126.995, -151.407, 126.424, 87.8481, 0, 0, 4.6294, -54.6607, 4.56589, -174.481, 4.58651, 64.7742, 0.110022, 142.867
1, 540.00000, 125.253, -31.5868, 126.995, -151.407, 126.424, 87.8481, 0, 0, 4.6294, -54.6607, 4.56589, -174.481, 4.58651, 64.7741, 0.110023, 142.867
1, 600.00000, 125.253, -31.5868, 126.995, -151.407, 126.424, 87.8481, 0, 0, 4.6294, -54.6607, 4.56589, -174.481, 4.58651, 64.7741, 0.110024, 142.867
1, 660.00000, 125.253, -31.5868, 126.995, -151.407, 126.424, 87.8481, 0, 0, 4.6294, -54.6607, 4.56589, -174.481, 4.58651, 64.7741, 0.110024, 142.867
1, 720.00000, 125.253, -31.5868, 126.995, -151.407, 126.424, 87.8481, 0, 0, 4.6294, -54.6607, 4.56589, -174.481, 4.58651, 64.7741, 0.110025, 142.867
1, 780.00000, 125.523, -31.5574, 126.996, -151.404, 126.512, 87.9675, 0, 0, 4.61946, -54.6313, 4.56588, -174.478, 4.58335, 64.8936, 0.0927144, 142.886
1, 840.00000, 125.523, -31.5574, 126.996, -151.404, 126.512, 87.9675, 0, 0, 4.61946, -54.6313, 4.56588, -174.478, 4.58335, 64.8936, 0.0927149, 142.886
1, 900.00000, 125.523, -31.5574, 126.996, -151.404, 126.512, 87.9675, 0, 0, 4.61946, -54.6313, 4.56587, -174.478, 4.58335, 64.8936, 0.0927153, 142.886
1, 960.00000, 125.523, -31.5574, 126.996, -151.404, 126.512, 87.9675, 0, 0, 4.61946, -54.6313, 4.56587, -174.478, 4.58335, 64.8936, 0.0927157, 142.886
1, 1020.00000, 125.523, -31.5574, 126.996, -151.404, 126.512, 87.9675, 0, 0, 4.61946, -54.6313, 4.56587, -174.478, 4.58335, 64.8936, 0.092716, 142.886
1, 1080.00000, 125.523, -31.5574, 126.996, -151.404, 126.512, 87.9675, 0, 0, 4.61946, -54.6313, 4.56587, -174.478, 4.58335, 64.8936, 0.0927163, 142.886
1, 1140.00000, 125.523, -31.5574, 126.996, -151.404, 126.512, 87.9675, 0, 0, 4.61946, -54.6313, 4.56587, -174.478, 4.58335, 64.8936, 0.0927166, 142.886
1, 1200.00000, 125.523, -31.5574, 126.996, -151.404, 126.512, 87.9675, 0, 0, 4.61946, -54.6313, 4.56587, -174.478, 4.58335, 64.8936, 0.0927168, 142.886
1, 1260.00000, 125.523, -31.5574, 126.996, -151.404, 126.512, 87.9675, 0, 0, 4.61946, -54.6313, 4.56587, -174.478, 4.58335, 64.8936, 0.0927171, 142.886
1, 1320.00000, 125.523, -31.5574, 126.996, -151.404, 126.512, 87.9675, 0, 0, 4.61946, -54.6313, 4.56587, -174.478, 4.58335, 64.8936, 0.0927173, 142.887
1, 1380.00000, 125.523, -31.5574, 126.996, -151.404, 126.512, 87.9675, 0, 0, 4.61946, -54.6313, 4.56587, -174.478, 4.58335, 64.8936, 0.0927174, 142.887
1, 1440.00000, 125.523, -31.5574, 126.996, -151.404, 126.512, 87.9675, 0, 0, 4.61946, -54.6313, 4.56587, -174.478, 4.58335, 64.8936, 0.0927176, 142.887
1, 1500.00000, 125.523, -31.5574, 126.996, -151.404, 126.512, 87.9675, 0, 0, 4.61946, -54.6313, 4.56587, -174.478, 4.58335, 64.8936, 0.0927177, 142.887
1, 1560.00000, 125.523, -31.5574, 126.996, -151.404, 126.512, 87.9675, 0, 0, 4.61946, -54.6313, 4.56587, -174.478, 4.58335, 64.8936, 0.0927179, 142.887
1, 1620.00000, 125.523, -31.5574, 126.996, -151.404, 126.512, 87.9675, 0, 0, 4.61946, -54.6313, 4.56587, -174.478, 4.58335, 64.8936, 0.092718, 142.887
1, 1680.00000, 125.523, -31.5574, 126.996, -151.404, 126.512, 87.9675, 0, 0, 4.61946, -54.6313, 4.56587, -174.478, 4.58335, 64.8936, 0.0927181, 142.887
1, 1740.00000, 125.523, -31.5574, 126.996, -151.404, 126.512, 87.9675, 0, 0, 4.61946, -54.6313, 4.56587, -174.478, 4.58335, 64.8936, 0.0927182, 142.887
1, 1800.00000, 125.523, -31.5574, 126.996, -151.404, 126.512, 87.9675, 0, 0, 4.61946, -54.6313, 4.56587, -174.478, 4.58335, 64.8936, 0.0927183, 142.887
1, 1860.00000, 125.523, -31.5574, 126.996, -151.404, 126.512, 87.9675, 0, 0, 4.61946, -54.6313, 4.56587, -174.478, 4.58335, 64.8936, 0.0927183, 142.887
1, 1920.00000, 125.523, -31.5574, 126.996, -151.404, 126.512, 87.9675, 0, 0, 4.61946, -54.6313, 4.56587, -174.478, 4.58335, 64.8936, 0.0927184, 142.887
1, 1980.00000, 125.523, -31.5574, 126.996, -151.404, 126.512, 87.9675, 0, 0, 4.61946, -54.6313, 4.56587, -174.478, 4.58335, 64.8936, 0.0927185, 142.887
1, 2040.00000, 125.523, -31.5574, 126.996, -151.404, 126.512, 87.9675, 0, 0, 4.61946, -54.6313, 4.56587, -174.478, 4.58335, 64.8936, 0.0927185, 142.887
1, 2100.00000, 125.523, -31.5574, 126.996, -151.404, 126.512, 87.9675, 0, 0, 4.61946, -54.6313, 4.56587, -174.478, 4.58335, 64.8936, 0.0927186, 142.887
1, 2160.00000, 125.523, -31.5574, 126.996, -151.404, 126.512, 87.9675, 0, 0, 4.61946, -54.6313, 4.56587, -174.478, 4.58335, 64.8936, 0.0927186, 142.887
1, 2220.00000, 125.604, -31.4323, 127.301, -151.367, 126.51, 87.9643, 0, 0, 4.61646, -54.5062, 4.55492, -174.441, 4.58342, 64.8904, 0.104384, 151.652
1, 2280.00000, 125.604, -31.4323, 127.301, -151.367, 126.51, 87.9643, 0, 0, 4.61646, -54.5062, 4.55492, -174.441, 4.58342, 64.8904, 0.104385, 151.652
1, 2340.00000, 125.604, -31.4323, 127.301, -151.367, 126.51, 87.9643, 0, 0, 4.61646, -54.5062, 4.55492, -174.441, 4.58342, 64.8904, 0.104385, 151.652
1, 2400.00000, 125.604, -31.4323, 127.301, -151.367, 126.51, 87.9643, 0, 0, 4.61646, -54.5062, 4.55492, -174.441, 4.58342, 64.8904, 0.104385, 151.652
1, 2460.00000, 125.604, -31.4323, 127.301, -151.367, 126.51, 87.9643, 0, 0, 4.61646, -54.5062, 4.55492, -174.441, 4.58342, 64.8904, 0.104385, 151.652
1, 2520.00000, 125.604, -31.4323, 127.301, -151.367, 126.51, 87.9643, 0, 0, 4.61646, -54.5062, 4.55492, -174.441, 4.58342, 64.8904, 0.104385, 151.652
1, 2580.00000, 125.604, -31.4323, 127.301, -151.367, 126.51, 87.9643, 0, 0, 4.61646, -54.5062, 4.55492, -174.441, 4.58342, 64.8904, 0.104385, 151.652
1, 2640.00000, 125.604, -31.4323, 127.301, -151.367, 126.51, 87.9643, 0, 0, 4.61646, -54.5062, 4.55492, -174.441, 4.58342, 64.8904, 0.104385, 151.652
1, 2700.00000, 125.604, -31.4323, 127.301, -151.367, 126.51, 87.9643, 0, 0, 4.61646, -54.5062, 4.55492, -174.441, 4.58342, 64.8904, 0.104385, 151.652
1, 2760.00000, 125.604, -31.4323, 127.301, -151.367, 126.51, 87.9643, 0, 0, 4.61646, -54.5062, 4.55492, -174.441, 4.58342, 64.8904, 0.104385, 151.652
1, 2820.00000, 125.604, -31.4323, 127.301, -151.367, 126.51, 87.9643, 0, 0, 4.61646, -54.5062, 4.55492, -174.441, 4.58342, 64.8904, 0.104385, 151.652
1, 2880.00000, 125.604, -31.4323, 127.301, -151.367, 126.51, 87.9643, 0, 0, 4.61646, -54.5062, 4.55492, -174.441, 4.58342, 64.8904, 0.104385, 151.652
1, 2940.00000, 125.604, -31.4323, 127.301, -151.367, 126.51, 87.9643, 0, 0, 4.61646, -54.5062, 4.55492, -174.441, 4.58342, 64.8904, 0.104385, 151.652
1, 3000.00000, 125.604, -31.4323, 127.301, -151.367, 126.51, 87.9643, 0, 0, 4.61646, -54.5062, 4.55492, -174.441, 4.58342, 64.8904, 0.104385, 151.652
1, 3060.00000, 125.604, -31.4323, 127.301, -151.367, 126.51, 87.9643, 0, 0, 4.61646, -54.5062, 4.55492, -174.441, 4.58342, 64.8904, 0.104385, 151.652
1, 3120.00000, 125.604, -31.4323, 127.301, -151.367, 126.51, 87.9643, 0, 0, 4.61646, -54.5062, 4.55492, -174.441, 4.58342, 64.8904, 0.104385, 151.652
1, 3180.00000, 125.604, -31.4323, 127.301, -151.367, 126.51, 87.9643, 0, 0, 4.61646, -54.5062, 4.55492, -174.441, 4.58342, 64.8904, 0.104385, 151.652
1, 3240.00000, 125.604, -31.4323, 127.301, -151.367, 126.51, 87.9643, 0, 0, 4.61646, -54.5062, 4.55492, -174.441, 4.58342, 64.8904, 0.104385, 151.652
1, 3300.00000, 125.604, -31.4323, 127.301, -151.367, 126.51, 87.9643, 0, 0, 4.61646, -54.5062, 4.55492, -174.441, 4.58342, 64.8904, 0.104385, 151.652
1, 3360.00000, 125.604, -31.4323, 127.301, -151.367, 126.51, 87.9643, 0, 0, 4.61646, -54.5062, 4.55492, -174.441, 4.58342, 64.8904, 0.104385, 151.652
1, 3420.00000, 125.604, -31.4323, 127.301, -151.367, 126.51, 87.9643, 0, 0, 4.61646, -54.5062, 4.55492, -174.441, 4.58342, 64.8904, 0.104385, 151.652
1, 3480.00000, 125.604, -31.4323, 127.301, -151.367, 126.51, 87.9643, 0, 0, 4.61646, -54.5062, 4.55492, -174.441, 4.58342, 64.8904, 0.104385, 151.652
1, 3540.00000, 125.604, -31.4323, 127.301, -151.367, 126.51, 87.9643, 0, 0, 4.61646, -54.5062, 4.55492, -174.441, 4.58342, 64.8904, 0.104385, 151.652
2, 0.00000, 125.604, -31.4323, 127.301, -151.367, 126.51, 87.9643, 0, 0, 4.61646, -54.5062, 4.55492, -174.441, 4.58342, 64.8904, 0.104385, 151.652
2, 60.00000, 125.604, -31.4323, 127.301, -151.367, 126.51, 87.9643, 0, 0, 4.61646, -54.5062, 4.55492, -174.441, 4.58342, 64.8904, 0.104385, 151.652
2, 120.00000, 125.604, -31.4323, 127.301, -151.367, 126.51, 87.9643, 0, 0, 4.61646, -54.5062, 4.55492, -174.441, 4.58342, 64.8904, 0.104385, 151.652
2, 180.00000, 125.604, -31.4323, 127.301, -151.367, 126.51, 87.9643, 0, 0, 4.61646, -54.5062, 4.55492, -174.441, 4.58342, 64.8904, 0.104385, 151.652
2, 240.00000, 125.604, -31.4323, 127.301, -151.367, 126.51, 87.9643, 0, 0, 4.61646, -54.5062, 4.55492, -174.441, 4.58342, 64.8904, 0.104385, 151.652
2, 300.00000, 125.604, -31.4323, 127.301, -151.367, 126.51, 87.9643, 0, 0, 4.61646, -54.5062, 4.55492, -174.441, 4.58342, 64.8904, 0.104385, 151.652
2, 360.00000, 125.604, -31.4323, 127.301, -151.367, 126.51, 87.9643, 0, 0, 4.61646, -54.5062, 4.55492, -174.441, 4.58342, 64.8904, 0.104385, 151.652
2, 420.00000, 125.604, -31.4323, 127.301, -151.367, 126.51, 87.9643, 0, 0, 4.61646, -54.5062, 4.55492, -174.441, 4.58342, 64.8904, 0.104385, 151.652
2, 480.00000, 125.604, -31.4323, 127.301, -151.367, 126.51, 87.9643, 0, 0, 4.61646, -54.5062, 4.55492, -174.441, 4.58342, 64.8904, 0.104385, 151.652
2, 540.00000, 125.604, -31.4323, 127.301, -151.367, 126.51, 87.9643, 0, 0, 4.61646, -54.5062, 4.55492, -174.441, 4.58342, 64.8904, 0.104385, 151.652
2, 600.00000, 125.604, -31.4323, 127.301, -151.367, 126.51, 87.9643, 0, 0, 4.61646, -54.5062, 4.55492, -174.441, 4.58342, 64.8904, 0.104385, 151.652
2, 660.00000, 125.604, -31.4323, 127.301, -151.367, 126.51, 87.9643, 0, 0, 4.61646, -54.5062, 4.55492, -174.441, 4.58342, 64.8904, 0.104385, 151.652
2, 720.00000, 125.604, -31.4323, 127.301, -151.367, 126.51, 87.9643, 0, 0, 4.61646, -54.5062, 4.55492, -174.441, 4.58342, 64.8904, 0.104385, 151.652
2, 780.00000, 125.604, -31.4323, 127.301, -151.367, 126.51, 87.9643, 0, 0, 4.61646, -54.5062, 4.55492, -174.441, 4.58342, 64.8904, 0.104385, 151.652
