hour,t(sec),"P1 (kW)","Q1 (kvar)","P2 (kW)","Q2 (kvar)","P3 (kW)","Q3 (kvar)","P4 (kW)","Q4 (kvar)"
0, 60.00000, 0.636157, 0.270996, 0.636465, 0.271133, 0.645942, 0.275163, 0, 0
0, 120.00000, 0.636147, 0.270997, 0.636454, 0.271128, 0.645959, 0.275177, 0, 0
0, 180.00000, 0.636147, 0.270997, 0.636454, 0.271128, 0.645959, 0.275178, 0, 0
0, 240.00000, 0.636147, 0.270997, 0.636454, 0.271128, 0.645959, 0.275178, 0, 0
0, 300.00000, 0.636147, 0.270997, 0.636454, 0.271128, 0.645959, 0.275178, 0, 0
0, 360.00000, 0.636147, 0.270997, 0.636454, 0.271128, 0.645959, 0.275178, 0, 0
0, 420.00000, 0.636147, 0.270997, 0.636454, 0.271128, 0.645959, 0.275178, 0, 0
0, 480.00000, 0.636147, 0.270997, 0.636454, 0.271128, 0.645959, 0.275178, 0, 0
0, 540.00000, 0.636147, 0.270997, 0.636454, 0.271128, 0.645959, 0.275178, 0, 0
0, 600.00000, 0.636147, 0.270997, 0.636454, 0.271128, 0.645959, 0.275178, 0, 0
0, 660.00000, 0.636147, 0.270997, 0.636454, 0.271128, 0.645959, 0.275178, 0, 0
0, 720.00000, 0.636147, 0.270997, 0.636454, 0.271128, 0.645959, 0.275178, 0, 0
0, 780.00000, 0.636147, 0.270997, 0.636454, 0.271128, 0.645959, 0.275178, 0, 0
0, 840.00000, 0.636147, 0.270997, 0.636454, 0.271128, 0.645959, 0.275178, 0, 0
0, 900.00000, 0.636147, 0.270997, 0.636454, 0.271128, 0.645959, 0.275178, 0, 0
0, 960.00000, 0.670336, 0.28556, 0.670766, 0.285745, 0.683337, 0.291099, 0, 0
0, 1020.00000, 0.670332, 0.28556, 0.670762, 0.285744, 0.683342, 0.291102, 0, 0
0, 1080.00000, 0.670332, 0.28556, 0.670762, 0.285744, 0.683342, 0.291102, 0, 0
0, 1140.00000, 0.670332, 0.28556, 0.670762, 0.285744, 0.683342, 0.291102, 0, 0
0, 1200.00000, 0.670332, 0.28556, 0.670762, 0.285744, 0.683342, 0.291102, 0, 0
0, 1260.00000, 0.670332, 0.28556, 0.670762, 0.285744, 0.683342, 0.291102, 0, 0
0, 1320.00000, 0.670332, 0.28556, 0.670762, 0.285744, 0.683342, 0.291102, 0, 0
0, 1380.00000, 0.670332, 0.28556, 0.670762, 0.285744, 0.683342, 0.291102, 0, 0
0, 1440.00000, 0.670332, 0.28556, 0.670762, 0.285744, 0.683342, 0.291102, 0, 0
0, 1500.00000, 0.670332, 0.28556, 0.670762, 0.285744, 0.683342, 0.291102, 0, 0
0, 1560.00000, 0.670332, 0.28556, 0.670762, 0.285744, 0.683342, 0.291102, 0, 0
0, 1620.00000, 0.670332, 0.28556, 0.670762, 0.285744, 0.683342, 0.291102, 0, 0
0, 1680.00000, 0.670332, 0.28556, 0.670762, 0.285744, 0.683342, 0.291102, 0, 0
0, 1740.00000, 0.670332, 0.28556, 0.670762, 0.285744, 0.683342, 0.291102, 0, 0
0, 1800.00000, 0.670332, 0.28556, 0.670762, 0.285744, 0.683342, 0.291102, 0, 0
0, 1860.00000, 0.67417, 0.287216, 0.674545, 0.287358, 0.685463, 0.29202, 0, 0
0, 1920.00000, 0.674208, 0.287211, 0.674584, 0.287372, 0.685417, 0.291987, 0, 0
0, 1980.00000, 0.674208, 0.287211, 0.674584, 0.287372, 0.685417, 0.291986, 0, 0
0, 2040.00000, 0.674208, 0.287211, 0.674584, 0.287372, 0.685417, 0.291986, 0, 0
0, 2100.00000, 0.674208, 0.287211, 0.674584, 0.287372, 0.685417, 0.291986, 0, 0
0, 2160.00000, 0.674208, 0.287211, 0.674584, 0.287372, 0.685417, 0.291986, 0, 0
0, 2220.00000, 0.674208, 0.287211, 0.674584, 0.287372, 0.685417, 0.291986, 0, 0
0, 2280.00000, 0.674208, 0.287211, 0.674584, 0.287372, 0.685417, 0.291986, 0, 0
0, 2340.00000, 0.674208, 0.287211, 0.674584, 0.287372, 0.685417, 0.291986, 0, 0
0, 2400.00000, 0.674208, 0.287211, 0.674584, 0.287372, 0.685417, 0.291986, 0, 0
0, 2460.00000, 0.674208, 0.287211, 0.674584, 0.287372, 0.685417, 0.291986, 0, 0
0, 2520.00000, 0.674208, 0.287211, 0.674584, 0.287372, 0.685417, 0.291986, 0, 0
0, 2580.00000, 0.674208, 0.287211, 0.674584, 0.287372, 0.685417, 0.291986, 0, 0
0, 2640.00000, 0.674208, 0.287211, 0.674584, 0.287372, 0.685417, 0.291986, 0, 0
0, 2700.00000, 0.674208, 0.287211, 0.674584, 0.287372, 0.685417, 0.291986, 0, 0
0, 2760.00000, 0.644723, 0.274654, 0.644949, 0.274746, 0.651939, 0.277729, 0, 0
0, 2820.00000, 0.644728, 0.274653, 0.644953, 0.274749, 0.65193, 0.277721, 0, 0
0, 2880.00000, 0.644728, 0.274653, 0.644953, 0.274749, 0.65193, 0.277721, 0, 0
0, 2940.00000, 0.644728, 0.274653, 0.644953, 0.274749, 0.65193, 0.277721, 0, 0
0, 3000.00000, 0.644728, 0.274653, 0.644953, 0.274749, 0.65193, 0.277721, 0, 0
0, 3060.00000, 0.644728, 0.274653, 0.644953, 0.274749, 0.65193, 0.277721, 0, 0
0, 3120.00000, 0.644728, 0.274653, 0.644953, 0.274749, 0.65193, 0.277721, 0, 0
0, 3180.00000, 0.644728, 0.274653, 0.644953, 0.274749, 0.65193, 0.277721, 0, 0
0, 3240.00000, 0.644728, 0.274653, 0.644953, 0.274749, 0.65193, 0.277721, 0, 0
0, 3300.00000, 0.644728, 0.274653, 0.644953, 0.274749, 0.65193, 0.277721, 0, 0
0, 3360.00000, 0.644728, 0.274653, 0.644953, 0.274749, 0.65193, 0.277721, 0, 0
0, 3420.00000, 0.644728, 0.274653, 0.644953, 0.274749, 0.65193, 0.277721, 0, 0
0, 3480.00000, 0.644728, 0.274653, 0.644953, 0.274749, 0.65193, 0.277721, 0, 0
0, 3540.00000, 0.644728, 0.274653, 0.644953, 0.274749, 0.65193, 0.277721, 0, 0
1, 0.00000, 0.644728, 0.274653, 0.644953, 0.274749, 0.65193, 0.277721, 0, 0
1, 60.00000, 0.639388, 0.272381, 0.639546, 0.272444, 0.644319, 0.274482, 0, 0
1, 120.00000, 0.63939, 0.272379, 0.639547, 0.272446, 0.644309, 0.274475, 0, 0
1, 180.00000, 0.63939, 0.272379, 0.639547, 0.272446, 0.644309, 0.274474, 0, 0
1, 240.00000, 0.63939, 0.272379, 0.639547, 0.272446, 0.644309, 0.274474, 0, 0
1, 300.00000, 0.63939, 0.272379, 0.639547, 0.272446, 0.644309, 0.274474, 0, 0
1, 360.00000, 0.63939, 0.272379, 0.639547, 0.272446, 0.644309, 0.274474, 0, 0
1, 420.00000, 0.63939, 0.272379, 0.639547, 0.272446, 0.644309, 0.274474, 0, 0
1, 480.00000, 0.63939, 0.272379, 0.639547, 0.272446, 0.644309, 0.274474, 0, 0
1, 540.00000, 0.63939, 0.272379, 0.639547, 0.272446, 0.644309, 0.274474, 0, 0
1, 600.00000, 0.63939, 0.272379, 0.639547, 0.272446, 0.644309, 0.274474, 0, 0
1, 660.00000, 0.63939, 0.272379, 0.639547, 0.272446, 0.644309, 0.274474, 0, 0
1, 720.00000, 0.63939, 0.272379, 0.639547, 0.272446, 0.644309, 0.274474, 0, 0
1, 780.00000, 0.63939, 0.272379, 0.639547, 0.272446, 0.644309, 0.274474, 0, 0
1, 840.00000, 0.63939, 0.272379, 0.639547, 0.272446, 0.644309, 0.274474, 0, 0
1, 900.00000, 0.63939, 0.272379, 0.639547, 0.272446, 0.644309, 0.274474, 0, 0
1, 960.00000, 0.636832, 0.271295, 0.63697, 0.271347, 0.64131, 0.273202, 0, 0
1, 1020.00000, 0.636841, 0.271293, 0.636979, 0.271352, 0.641293, 0.27319, 0, 0
1, 1080.00000, 0.636841, 0.271293, 0.636979, 0.271352, 0.641293, 0.27319, 0, 0
1, 1140.00000, 0.636841, 0.271293, 0.636979, 0.271352, 0.641293, 0.27319, 0, 0
1, 1200.00000, 0.636841, 0.271293, 0.636979, 0.271352, 0.641293, 0.27319, 0, 0
1, 1260.00000, 0.636841, 0.271293, 0.636979, 0.271352, 0.641293, 0.27319, 0, 0
1, 1320.00000, 0.636841, 0.271293, 0.636979, 0.271352, 0.641293, 0.27319, 0, 0
1, 1380.00000, 0.636841, 0.271293, 0.636979, 0.271352, 0.641293, 0.27319, 0, 0
1, 1440.00000, 0.636841, 0.271293, 0.636979, 0.271352, 0.641293, 0.27319, 0, 0
1, 1500.00000, 0.636841, 0.271293, 0.636979, 0.271352, 0.641293, 0.27319, 0, 0
1, 1560.00000, 0.636841, 0.271293, 0.636979, 0.271352, 0.641293, 0.27319, 0, 0
1, 1620.00000, 0.636841, 0.271293, 0.636979, 0.271352, 0.641293, 0.27319, 0, 0
1, 1680.00000, 0.636841, 0.271293, 0.636979, 0.271352, 0.641293, 0.27319, 0, 0
1, 1740.00000, 0.636841, 0.271293, 0.636979, 0.271352, 0.641293, 0.27319, 0, 0
1, 1800.00000, 0.636841, 0.271293, 0.636979, 0.271352, 0.641293, 0.27319, 0, 0
1, 1860.00000, 0.650271, 0.277011, 0.650476, 0.277103, 0.656749, 0.279771, 0, 0
1, 1920.00000, 0.650268, 0.277013, 0.650475, 0.277101, 0.656759, 0.279778, 0, 0
1, 1980.00000, 0.650268, 0.277013, 0.650475, 0.277101, 0.65676, 0.279778, 0, 0
1, 2040.00000, 0.650268, 0.277013, 0.650475, 0.277101, 0.65676, 0.279778, 0, 0
1, 2100.00000, 0.650268, 0.277013, 0.650475, 0.277101, 0.65676, 0.279778, 0, 0
1, 2160.00000, 0.650268, 0.277013, 0.650475, 0.277101, 0.65676, 0.279778, 0, 0
1, 2220.00000, 0.650268, 0.277013, 0.650475, 0.277101, 0.65676, 0.279778, 0, 0
1, 2280.00000, 0.650268, 0.277013, 0.650475, 0.277101, 0.65676, 0.279778, 0, 0
1, 2340.00000, 0.650268, 0.277013, 0.650475, 0.277101, 0.65676, 0.279778, 0, 0
1, 2400.00000, 0.650268, 0.277013, 0.650475, 0.277101, 0.65676, 0.279778, 0, 0
1, 2460.00000, 0.650268, 0.277013, 0.650475, 0.277101, 0.65676, 0.279778, 0, 0
1, 2520.00000, 0.650268, 0.277013, 0.650475, 0.277101, 0.65676, 0.279778, 0, 0
1, 2580.00000, 0.650268, 0.277013, 0.650475, 0.277101, 0.65676, 0.279778, 0, 0
1, 2640.00000, 0.650268, 0.277013, 0.650475, 0.277101, 0.65676, 0.279778, 0, 0
1, 2700.00000, 0.650268, 0.277013, 0.650475, 0.277101, 0.65676, 0.279778, 0, 0
1, 2760.00000, 0.616903, 0.262805, 0.616973, 0.262827, 0.618887, 0.263652, 0, 0
1, 2820.00000, 0.616907, 0.262801, 0.616981, 0.262833, 0.618866, 0.263636, 0, 0
1, 2880.00000, 0.616907, 0.262801, 0.616981, 0.262833, 0.618866, 0.263636, 0, 0
1, 2940.00000, 0.616907, 0.262801, 0.616981, 0.262833, 0.618866, 0.263636, 0, 0
1, 3000.00000, 0.616907, 0.262801, 0.616981, 0.262833, 0.618866, 0.263636, 0, 0
1, 3060.00000, 0.616907, 0.262801, 0.616981, 0.262833, 0.618866, 0.263636, 0, 0
1, 3120.00000, 0.616907, 0.262801, 0.616981, 0.262833, 0.618866, 0.263636, 0, 0
1, 3180.00000, 0.616907, 0.262801, 0.616981, 0.262833, 0.618866, 0.263636, 0, 0
1, 3240.00000, 0.616907, 0.262801, 0.616981, 0.262833, 0.618866, 0.263636, 0, 0
1, 3300.00000, 0.616907, 0.262801, 0.616981, 0.262833, 0.618866, 0.263636, 0, 0
1, 3360.00000, 0.616907, 0.262801, 0.616981, 0.262833, 0.618866, 0.263636, 0, 0
1, 3420.00000, 0.616907, 0.262801, 0.616981, 0.262833, 0.618866, 0.263636, 0, 0
1, 3480.00000, 0.616907, 0.262801, 0.616981, 0.262833, 0.618866, 0.263636, 0, 0
1, 3540.00000, 0.616907, 0.262801, 0.616981, 0.262833, 0.618866, 0.263636, 0, 0
2, 0.00000, 0.616907, 0.262801, 0.616981, 0.262833, 0.618866, 0.263636, 0, 0
2, 60.00000, 0.630911, 0.268763, 0.631047, 0.268827, 0.635462, 0.270701, 0, 0
2, 120.00000, 0.630908, 0.268766, 0.631043, 0.268823, 0.635474, 0.270711, 0, 0
2, 180.00000, 0.630908, 0.268766, 0.631043, 0.268823, 0.635474, 0.270711, 0, 0
2, 240.00000, 0.630908, 0.268766, 0.631043, 0.268823, 0.635474, 0.270711, 0, 0
2, 300.00000, 0.630908, 0.268766, 0.631043, 0.268823, 0.635474, 0.270711, 0, 0
2, 360.00000, 0.630908, 0.268766, 0.631043, 0.268823, 0.635474, 0.270711, 0, 0
2, 420.00000, 0.630908, 0.268766, 0.631043, 0.268823, 0.635474, 0.270711, 0, 0
2, 480.00000, 0.630908, 0.268766, 0.631043, 0.268823, 0.635474, 0.270711, 0, 0
2, 540.00000, 0.630908, 0.268766, 0.631043, 0.268823, 0.635474, 0.270711, 0, 0
2, 600.00000, 0.630908, 0.268766, 0.631043, 0.268823, 0.635474, 0.270711, 0, 0
2, 660.00000, 0.630908, 0.268766, 0.631043, 0.268823, 0.635474, 0.270711, 0, 0
2, 720.00000, 0.630908, 0.268766, 0.631043, 0.268823, 0.635474, 0.270711, 0, 0
2, 780.00000, 0.630908, 0.268766, 0.631043, 0.268823, 0.635474, 0.270711, 0, 0
2, 840.00000, 0.630908, 0.268766, 0.631043, 0.268823, 0.635474, 0.270711, 0, 0
2, 900.00000, 0.630908, 0.268766, 0.631043, 0.268823, 0.635474, 0.270711, 0, 0
2, 960.00000, 0.600722, 0.255911, 0.60077, 0.255926, 0.60213, 0.256511, 0, 0
2, 1020.00000, 0.600726, 0.255908, 0.600777, 0.25593, 0.602115, 0.2565, 0, 0
2, 1080.00000, 0.600726, 0.255908, 0.600777, 0.25593, 0.602115, 0.2565, 0, 0
2, 1140.00000, 0.600726, 0.255908, 0.600777, 0.25593, 0.602115, 0.2565, 0, 0
2, 1200.00000, 0.600726, 0.255908, 0.600777, 0.25593, 0.602115, 0.2565, 0, 0
2, 1260.00000, 0.600726, 0.255908, 0.600777, 0.25593, 0.602115, 0.2565, 0, 0
2, 1320.00000, 0.600726, 0.255908, 0.600777, 0.25593, 0.602115, 0.2565, 0, 0
2, 1380.00000, 0.600726, 0.255908, 0.600777, 0.25593, 0.602115, 0.2565, 0, 0
2, 1440.00000, 0.600726, 0.255908, 0.600777, 0.25593, 0.602115, 0.2565, 0, 0
2, 1500.00000, 0.600726, 0.255908, 0.600777, 0.25593, 0.602115, 0.2565, 0, 0
2, 1560.00000, 0.600726, 0.255908, 0.600777, 0.25593, 0.602115, 0.2565, 0, 0
2, 1620.00000, 0.600726, 0.255908, 0.600777, 0.25593, 0.602115, 0.2565, 0, 0
2, 1680.00000, 0.600726, 0.255908, 0.600777, 0.25593, 0.602115, 0.2565, 0, 0
2, 1740.00000, 0.600726, 0.255908, 0.600777, 0.25593, 0.602115, 0.2565, 0, 0
2, 1800.00000, 0.600726, 0.255908, 0.600777, 0.25593, 0.602115, 0.2565, 0, 0
2, 1860.00000, 0.599475, 0.255374, 0.599538, 0.255403, 0.60178, 0.256355, 0, 0
2, 1920.00000, 0.599474, 0.255375, 0.599535, 0.255401, 0.601786, 0.25636, 0, 0
2, 1980.00000, 0.599474, 0.255375, 0.599535, 0.255401, 0.601786, 0.25636, 0, 0
2, 2040.00000, 0.599474, 0.255375, 0.599535, 0.255401, 0.601786, 0.25636, 0, 0
2, 2100.00000, 0.599474, 0.255375, 0.599535, 0.255401, 0.601786, 0.25636, 0, 0
2, 2160.00000, 0.599474, 0.255375, 0.599535, 0.255401, 0.601786, 0.25636, 0, 0
2, 2220.00000, 0.599474, 0.255375, 0.599535, 0.255401, 0.601786, 0.25636, 0, 0
2, 2280.00000, 0.599474, 0.255375, 0.599535, 0.255401, 0.601786, 0.25636, 0, 0
2, 2340.00000, 0.599474, 0.255375, 0.599535, 0.255401, 0.601786, 0.25636, 0, 0
2, 2400.00000, 0.599474, 0.255375, 0.599535, 0.255401, 0.601786, 0.25636, 0, 0
2, 2460.00000, 0.599474, 0.255375, 0.599535, 0.255401, 0.601786, 0.25636, 0, 0
2, 2520.00000, 0.599474, 0.255375, 0.599535, 0.255401, 0.601786, 0.25636, 0, 0
2, 2580.00000, 0.599474, 0.255375, 0.599535, 0.255401, 0.601786, 0.25636, 0, 0
2, 2640.00000, 0.599474, 0.255375, 0.599535, 0.255401, 0.601786, 0.25636, 0, 0
2, 2700.00000, 0.599474, 0.255375, 0.599535, 0.255401, 0.601786, 0.25636, 0, 0
2, 2760.00000, 0.575769, 0.245282, 0.575774, 0.245278, 0.575782, 0.245288, 0, 0
2, 2820.00000, 0.575765, 0.245275, 0.575765, 0.245275, 0.575765, 0.245275, 0, 0
2, 2880.00000, 0.575765, 0.245275, 0.575765, 0.245275, 0.575765, 0.245275, 0, 0
2, 2940.00000, 0.575765, 0.245275, 0.575765, 0.245275, 0.575765, 0.245275, 0, 0
2, 3000.00000, 0.575765, 0.245275, 0.575765, 0.245275, 0.575765, 0.245275, 0, 0
2, 3060.00000, 0.575765, 0.245275, 0.575765, 0.245275, 0.575765, 0.245275, 0, 0
2, 3120.00000, 0.575765, 0.245275, 0.575765, 0.245275, 0.575765, 0.245275, 0, 0
2, 3180.00000, 0.575765, 0.245275, 0.575765, 0.245275, 0.575765, 0.245275, 0, 0
2, 3240.00000, 0.575765, 0.245275, 0.575765, 0.245275, 0.575765, 0.245275, 0, 0
2, 3300.00000, 0.575765, 0.245275, 0.575765, 0.245275, 0.575765, 0.245275, 0, 0
2, 3360.00000, 0.575765, 0.245275, 0.575765, 0.245275, 0.575765, 0.245275, 0, 0
2, 3420.00000, 0.575765, 0.245275, 0.575765, 0.245275, 0.575765, 0.245275, 0, 0
2, 3480.00000, 0.575765, 0.245275, 0.575765, 0.245275, 0.575765, 0.245275, 0, 0
2, 3540.00000, 0.575765, 0.245275, 0.575765, 0.245275, 0.575765, 0.245275, 0, 0
3, 0.00000, 0.575765, 0.245275, 0.575765, 0.245275, 0.575765, 0.245275, 0, 0
3, 60.00000, 0.590085, 0.251372, 0.590094, 0.251379, 0.590397, 0.251505, 0, 0
3, 120.00000, 0.590079, 0.251373, 0.590088, 0.251376, 0.590405, 0.251512, 0, 0
3, 180.00000, 0.590079, 0.251373, 0.590088, 0.251376, 0.590406, 0.251512, 0, 0
3, 240.00000, 0.590079, 0.251373, 0.590088, 0.251376, 0.590406, 0.251512, 0, 0
3, 300.00000, 0.590079, 0.251373, 0.590088, 0.251376, 0.590406, 0.251512, 0, 0
3, 360.00000, 0.590079, 0.251373, 0.590088, 0.251376, 0.590406, 0.251512, 0, 0
3, 420.00000, 0.590079, 0.251373, 0.590088, 0.251376, 0.590406, 0.251512, 0, 0
3, 480.00000, 0.590079, 0.251373, 0.590088, 0.251376, 0.590406, 0.251512, 0, 0
3, 540.00000, 0.590079, 0.251373, 0.590088, 0.251376, 0.590406, 0.251512, 0, 0
3, 600.00000, 0.590079, 0.251373, 0.590088, 0.251376, 0.590406, 0.251512, 0, 0
3, 660.00000, 0.590079, 0.251373, 0.590088, 0.251376, 0.590406, 0.251512, 0, 0
3, 720.00000, 0.590079, 0.251373, 0.590088, 0.251376, 0.590406, 0.251512, 0, 0
3, 780.00000, 0.590079, 0.251373, 0.590088, 0.251376, 0.590406, 0.251512, 0, 0
3, 840.00000, 0.590079, 0.251373, 0.590088, 0.251376, 0.590406, 0.251512, 0, 0
3, 900.00000, 0.590079, 0.251373, 0.590088, 0.251376, 0.590406, 0.251512, 0, 0
3, 960.00000, 0.606634, 0.258432, 0.606639, 0.258428, 0.606649, 0.258438, 0, 0
3, 1020.00000, 0.606628, 0.258422, 0.606628, 0.258422, 0.606628, 0.258423, 0, 0
3, 1080.00000, 0.606628, 0.258422, 0.606628, 0.258422, 0.606628, 0.258422, 0, 0
3, 1140.00000, 0.606628, 0.258422, 0.606628, 0.258422, 0.606628, 0.258422, 0, 0
3, 1200.00000, 0.606628, 0.258422, 0.606628, 0.258422, 0.606628, 0.258422, 0, 0
3, 1260.00000, 0.606628, 0.258422, 0.606628, 0.258422, 0.606628, 0.258422, 0, 0
3, 1320.00000, 0.606628, 0.258422, 0.606628, 0.258422, 0.606628, 0.258422, 0, 0
3, 1380.00000, 0.606628, 0.258422, 0.606628, 0.258422, 0.606628, 0.258422, 0, 0
3, 1440.00000, 0.606628, 0.258422, 0.606628, 0.258422, 0.606628, 0.258422, 0, 0
3, 1500.00000, 0.606628, 0.258422, 0.606628, 0.258422, 0.606628, 0.258422, 0, 0
3, 1560.00000, 0.606628, 0.258422, 0.606628, 0.258422, 0.606628, 0.258422, 0, 0
3, 1620.00000, 0.606628, 0.258422, 0.606628, 0.258422, 0.606628, 0.258422, 0, 0
3, 1680.00000, 0.606628, 0.258422, 0.606628, 0.258422, 0.606628, 0.258422, 0, 0
3, 1740.00000, 0.606628, 0.258422, 0.606628, 0.258422, 0.606628, 0.258422, 0, 0
3, 1800.00000, 0.606628, 0.258422, 0.606628, 0.258422, 0.606628, 0.258422, 0, 0
3, 1860.00000, 0.614053, 0.261592, 0.614054, 0.26159, 0.614055, 0.261592, 0, 0
3, 1920.00000, 0.614045, 0.261582, 0.614046, 0.261582, 0.614046, 0.261582, 0, 0
3, 1980.00000, 0.614045, 0.261582, 0.614045, 0.261582, 0.614045, 0.261582, 0, 0
3, 2040.00000, 0.614045, 0.261582, 0.614045, 0.261582, 0.614045, 0.261582, 0, 0
3, 2100.00000, 0.614045, 0.261582, 0.614045, 0.261582, 0.614045, 0.261582, 0, 0
3, 2160.00000, 0.614045, 0.261582, 0.614045, 0.261582, 0.614045, 0.261582, 0, 0
3, 2220.00000, 0.614045, 0.261582, 0.614045, 0.261582, 0.614045, 0.261582, 0, 0
3, 2280.00000, 0.614045, 0.261582, 0.614045, 0.261582, 0.614045, 0.261582, 0, 0
3, 2340.00000, 0.614045, 0.261582, 0.614045, 0.261582, 0.614045, 0.261582, 0, 0
3, 2400.00000, 0.614045, 0.261582, 0.614045, 0.261582, 0.614045, 0.261582, 0, 0
3, 2460.00000, 0.614045, 0.261582, 0.614045, 0.261582, 0.614045, 0.261582, 0, 0
3, 2520.00000, 0.614045, 0.261582, 0.614045, 0.261582, 0.614045, 0.261582, 0, 0
3, 2580.00000, 0.614045, 0.261582, 0.614045, 0.261582, 0.614045, 0.261582, 0, 0
3, 2640.00000, 0.614045, 0.261582, 0.614045, 0.261582, 0.614045, 0.261582, 0, 0
3, 2700.00000, 0.614045, 0.261582, 0.614045, 0.261582, 0.614045, 0.261582, 0, 0
3, 2760.00000, 0.561905, 0.239376, 0.561906, 0.239371, 0.561913, 0.239378, 0, 0
3, 2820.00000, 0.561898, 0.239367, 0.561898, 0.239367, 0.561898, 0.239367, 0, 0
3, 2880.00000, 0.561898, 0.239367, 0.561898, 0.239367, 0.561898, 0.239367, 0, 0
3, 2940.00000, 0.561898, 0.239367, 0.561898, 0.239367, 0.561898, 0.239367, 0, 0
3, 3000.00000, 0.561898, 0.239367, 0.561898, 0.239367, 0.561898, 0.239367, 0, 0
3, 3060.00000, 0.561898, 0.239367, 0.561898, 0.239367, 0.561898, 0.239367, 0, 0
3, 3120.00000, 0.561912, 0.23937, 0.561918, 0.239389, 0.561886, 0.239362, 0, 0
3, 3180.00000, 0.561898, 0.239367, 0.561898, 0.239368, 0.561897, 0.239367, 0, 0
3, 3240.00000, 0.561898, 0.239367, 0.561898, 0.239367, 0.561898, 0.239367, 0, 0
3, 3300.00000, 0.561898, 0.239367, 0.561898, 0.239367, 0.561898, 0.239367, 0, 0
3, 3360.00000, 0.561898, 0.239367, 0.561898, 0.239367, 0.561898, 0.239367, 0, 0
3, 3420.00000, 0.561898, 0.239367, 0.561898, 0.239367, 0.561898, 0.239367, 0, 0
3, 3480.00000, 0.561898, 0.239367, 0.561898, 0.239367, 0.561898, 0.239367, 0, 0
3, 3540.00000, 0.561898, 0.239367, 0.561898, 0.239367, 0.561898, 0.239367, 0, 0
4, 0.00000, 0.561898, 0.239367, 0.561898, 0.239367, 0.561898, 0.239367, 0, 0
4, 60.00000, 0.601095, 0.256062, 0.601093, 0.256063, 0.60109, 0.25606, 0, 0
4, 120.00000, 0.601101, 0.256068, 0.601101, 0.256068, 0.601101, 0.256068, 0, 0
4, 180.00000, 0.601101, 0.256068, 0.601101, 0.256068, 0.601101, 0.256068, 0, 0
4, 240.00000, 0.601101, 0.256068, 0.601101, 0.256068, 0.601101, 0.256068, 0, 0
4, 300.00000, 0.601101, 0.256068, 0.601101, 0.256068, 0.601101, 0.256068, 0, 0
4, 360.00000, 0.601101, 0.256068, 0.601101, 0.256068, 0.601101, 0.256068, 0, 0
4, 420.00000, 0.601101, 0.256068, 0.601101, 0.256068, 0.601101, 0.256068, 0, 0
4, 480.00000, 0.601101, 0.256068, 0.601101, 0.256068, 0.601101, 0.256068, 0, 0
4, 540.00000, 0.601101, 0.256068, 0.601101, 0.256068, 0.601101, 0.256068, 0, 0
4, 600.00000, 0.601101, 0.256068, 0.601101, 0.256068, 0.601101, 0.256068, 0, 0
4, 660.00000, 0.601101, 0.256068, 0.601101, 0.256068, 0.601101, 0.256068, 0, 0
