hour,t(sec),"P1 (kW)","Q1 (kvar)","P2 (kW)","Q2 (kvar)","P3 (kW)","Q3 (kvar)","P4 (kW)","Q4 (kvar)"
0, 60.00000, 0.229341, 0.0976976, 0.228709, 0.0974289, 0.232703, 0.0991293, 0, 0
0, 120.00000, 0.229338, 0.0976976, 0.228706, 0.0974282, 0.2327, 0.0991297, 0, 0
0, 180.00000, 0.229338, 0.0976976, 0.228706, 0.0974282, 0.2327, 0.0991297, 0, 0
0, 240.00000, 0.229338, 0.0976976, 0.228706, 0.0974282, 0.2327, 0.0991297, 0, 0
0, 300.00000, 0.229338, 0.0976976, 0.228706, 0.0974282, 0.2327, 0.0991297, 0, 0
0, 360.00000, 0.229338, 0.0976976, 0.228706, 0.0974282, 0.2327, 0.0991297, 0, 0
0, 420.00000, 0.229338, 0.0976976, 0.228706, 0.0974282, 0.2327, 0.0991297, 0, 0
0, 480.00000, 0.203155, 0.0865451, 0.202416, 0.0862297, 0.205842, 0.0876902, 0, 0
0, 540.00000, 0.203159, 0.0865452, 0.202419, 0.0862302, 0.205845, 0.0876896, 0, 0
0, 600.00000, 0.203159, 0.0865452, 0.202419, 0.0862302, 0.205845, 0.0876896, 0, 0
0, 660.00000, 0.203159, 0.0865452, 0.202419, 0.0862302, 0.205845, 0.0876896, 0, 0
0, 720.00000, 0.203159, 0.0865452, 0.202419, 0.0862302, 0.205845, 0.0876896, 0, 0
0, 780.00000, 0.203159, 0.0865452, 0.202419, 0.0862302, 0.205845, 0.0876896, 0, 0
0, 840.00000, 0.203159, 0.0865452, 0.202419, 0.0862302, 0.205845, 0.0876896, 0, 0
0, 900.00000, 0.203159, 0.0865452, 0.202419, 0.0862302, 0.205845, 0.0876896, 0, 0
0, 960.00000, 0.199827, 0.0851255, 0.198712, 0.0846508, 0.206038, 0.0877716, 0, 0
0, 1020.00000, 0.199825, 0.0851252, 0.19871, 0.08465, 0.206038, 0.0877719, 0, 0
0, 1080.00000, 0.199825, 0.0851252, 0.19871, 0.08465, 0.206038, 0.0877719, 0, 0
0, 1140.00000, 0.199825, 0.0851252, 0.19871, 0.08465, 0.206038, 0.0877719, 0, 0
0, 1200.00000, 0.199825, 0.0851252, 0.19871, 0.08465, 0.206038, 0.0877719, 0, 0
0, 1260.00000, 0.199825, 0.0851252, 0.19871, 0.08465, 0.206038, 0.0877719, 0, 0
0, 1320.00000, 0.199825, 0.0851252, 0.19871, 0.08465, 0.206038, 0.0877719, 0, 0
0, 1380.00000, 0.199825, 0.0851252, 0.19871, 0.08465, 0.206038, 0.0877719, 0, 0
0, 1440.00000, 0.199825, 0.0851252, 0.19871, 0.08465, 0.206038, 0.0877719, 0, 0
0, 1500.00000, 0.199825, 0.0851252, 0.19871, 0.08465, 0.206038, 0.0877719, 0, 0
0, 1560.00000, 0.199825, 0.0851252, 0.19871, 0.08465, 0.206038, 0.0877719, 0, 0
0, 1620.00000, 0.199825, 0.0851252, 0.19871, 0.08465, 0.206038, 0.0877719, 0, 0
0, 1680.00000, 0.199825, 0.0851252, 0.19871, 0.08465, 0.206038, 0.0877719, 0, 0
0, 1740.00000, 0.199825, 0.0851252, 0.19871, 0.08465, 0.206038, 0.0877719, 0, 0
0, 1800.00000, 0.199825, 0.0851252, 0.19871, 0.08465, 0.206038, 0.0877719, 0, 0
0, 1860.00000, 0.199825, 0.0851252, 0.19871, 0.08465, 0.206038, 0.0877719, 0, 0
0, 1920.00000, 0.199825, 0.0851252, 0.19871, 0.08465, 0.206038, 0.0877719, 0, 0
0, 1980.00000, 0.199825, 0.0851252, 0.19871, 0.08465, 0.206038, 0.0877719, 0, 0
0, 2040.00000, 0.199825, 0.0851252, 0.19871, 0.08465, 0.206038, 0.0877719, 0, 0
0, 2100.00000, 0.199825, 0.0851252, 0.19871, 0.08465, 0.206038, 0.0877719, 0, 0
0, 2160.00000, 0.199825, 0.0851252, 0.19871, 0.08465, 0.206038, 0.0877719, 0, 0
0, 2220.00000, 0.199825, 0.0851252, 0.19871, 0.08465, 0.206038, 0.0877719, 0, 0
0, 2280.00000, 0.199825, 0.0851252, 0.19871, 0.08465, 0.206038, 0.0877719, 0, 0
0, 2340.00000, 0.199825, 0.0851252, 0.19871, 0.08465, 0.206038, 0.0877719, 0, 0
0, 2400.00000, 0.199825, 0.0851252, 0.19871, 0.08465, 0.206038, 0.0877719, 0, 0
0, 2460.00000, 0.199825, 0.0851252, 0.19871, 0.08465, 0.206038, 0.0877719, 0, 0
0, 2520.00000, 0.199825, 0.0851252, 0.19871, 0.08465, 0.206038, 0.0877719, 0, 0
0, 2580.00000, 0.199825, 0.0851252, 0.19871, 0.08465, 0.206038, 0.0877719, 0, 0
0, 2640.00000, 0.199825, 0.0851252, 0.19871, 0.08465, 0.206038, 0.0877719, 0, 0
0, 2700.00000, 0.199825, 0.0851252, 0.19871, 0.08465, 0.206038, 0.0877719, 0, 0
0, 2760.00000, 0.2008, 0.0855404, 0.200429, 0.0853839, 0.205925, 0.0877238, 0, 0
0, 2820.00000, 0.200802, 0.0855411, 0.200433, 0.0853839, 0.205924, 0.0877231, 0, 0
0, 2880.00000, 0.200802, 0.0855411, 0.200433, 0.0853839, 0.205924, 0.0877231, 0, 0
0, 2940.00000, 0.200802, 0.0855411, 0.200433, 0.0853839, 0.205924, 0.0877231, 0, 0
0, 3000.00000, 0.200802, 0.0855411, 0.200433, 0.0853839, 0.205924, 0.0877231, 0, 0
0, 3060.00000, 0.200802, 0.0855411, 0.200433, 0.0853839, 0.205924, 0.0877231, 0, 0
0, 3120.00000, 0.200802, 0.0855411, 0.200433, 0.0853839, 0.205924, 0.0877231, 0, 0
0, 3180.00000, 0.200802, 0.0855411, 0.200433, 0.0853839, 0.205924, 0.0877231, 0, 0
0, 3240.00000, 0.200802, 0.0855411, 0.200433, 0.0853839, 0.205924, 0.0877231, 0, 0
0, 3300.00000, 0.200802, 0.0855411, 0.200433, 0.0853839, 0.205924, 0.0877231, 0, 0
0, 3360.00000, 0.200802, 0.0855411, 0.200433, 0.0853839, 0.205924, 0.0877231, 0, 0
0, 3420.00000, 0.200802, 0.0855411, 0.200433, 0.0853839, 0.205924, 0.0877231, 0, 0
0, 3480.00000, 0.200802, 0.0855411, 0.200433, 0.0853839, 0.205924, 0.0877231, 0, 0
0, 3540.00000, 0.200802, 0.0855411, 0.200433, 0.0853839, 0.205924, 0.0877231, 0, 0
1, 0.00000, 0.200802, 0.0855411, 0.200433, 0.0853839, 0.205924, 0.0877231, 0, 0
1, 60.00000, 0.202119, 0.0861035, 0.200424, 0.0853802, 0.206496, 0.0879674, 0, 0
1, 120.00000, 0.202122, 0.0861037, 0.200423, 0.0853798, 0.206497, 0.0879675, 0, 0
1, 180.00000, 0.202122, 0.0861037, 0.200423, 0.0853798, 0.206497, 0.0879675, 0, 0
1, 240.00000, 0.202122, 0.0861037, 0.200423, 0.0853798, 0.206497, 0.0879675, 0, 0
1, 300.00000, 0.202122, 0.0861037, 0.200423, 0.0853798, 0.206497, 0.0879675, 0, 0
1, 360.00000, 0.202122, 0.0861037, 0.200423, 0.0853798, 0.206497, 0.0879675, 0, 0
1, 420.00000, 0.202122, 0.0861037, 0.200423, 0.0853798, 0.206497, 0.0879675, 0, 0
1, 480.00000, 0.202122, 0.0861037, 0.200423, 0.0853798, 0.206497, 0.0879675, 0, 0
1, 540.00000, 0.202122, 0.0861037, 0.200423, 0.0853798, 0.206497, 0.0879675, 0, 0
1, 600.00000, 0.202122, 0.0861037, 0.200423, 0.0853798, 0.206497, 0.0879675, 0, 0
1, 660.00000, 0.202122, 0.0861037, 0.200423, 0.0853798, 0.206497, 0.0879675, 0, 0
1, 720.00000, 0.202122, 0.0861037, 0.200423, 0.0853798, 0.206497, 0.0879675, 0, 0
1, 780.00000, 0.202122, 0.0861037, 0.200423, 0.0853798, 0.206497, 0.0879675, 0, 0
1, 840.00000, 0.202122, 0.0861037, 0.200423, 0.0853798, 0.206497, 0.0879675, 0, 0
1, 900.00000, 0.202122, 0.0861037, 0.200423, 0.0853798, 0.206497, 0.0879675, 0, 0
1, 960.00000, 0.202122, 0.0861037, 0.200423, 0.0853798, 0.206497, 0.0879675, 0, 0
1, 1020.00000, 0.202122, 0.0861037, 0.200423, 0.0853798, 0.206497, 0.0879675, 0, 0
1, 1080.00000, 0.202122, 0.0861037, 0.200423, 0.0853798, 0.206497, 0.0879675, 0, 0
1, 1140.00000, 0.202122, 0.0861037, 0.200423, 0.0853798, 0.206497, 0.0879675, 0, 0
1, 1200.00000, 0.202122, 0.0861037, 0.200423, 0.0853798, 0.206497, 0.0879675, 0, 0
1, 1260.00000, 0.202122, 0.0861037, 0.200423, 0.0853798, 0.206497, 0.0879675, 0, 0
1, 1320.00000, 0.202122, 0.0861037, 0.200423, 0.0853798, 0.206497, 0.0879675, 0, 0
1, 1380.00000, 0.202122, 0.0861037, 0.200423, 0.0853798, 0.206497, 0.0879675, 0, 0
1, 1440.00000, 0.202122, 0.0861037, 0.200423, 0.0853798, 0.206497, 0.0879675, 0, 0
1, 1500.00000, 0.202122, 0.0861037, 0.200423, 0.0853798, 0.206497, 0.0879675, 0, 0
1, 1560.00000, 0.202122, 0.0861037, 0.200423, 0.0853798, 0.206497, 0.0879675, 0, 0
1, 1620.00000, 0.202122, 0.0861037, 0.200423, 0.0853798, 0.206497, 0.0879675, 0, 0
1, 1680.00000, 0.202122, 0.0861037, 0.200423, 0.0853798, 0.206497, 0.0879675, 0, 0
1, 1740.00000, 0.202122, 0.0861037, 0.200423, 0.0853798, 0.206497, 0.0879675, 0, 0
1, 1800.00000, 0.202122, 0.0861037, 0.200423, 0.0853798, 0.206497, 0.0879675, 0, 0
1, 1860.00000, 0.202122, 0.0861037, 0.200423, 0.0853798, 0.206497, 0.0879675, 0, 0
1, 1920.00000, 0.202122, 0.0861037, 0.200423, 0.0853798, 0.206497, 0.0879675, 0, 0
1, 1980.00000, 0.202122, 0.0861037, 0.200423, 0.0853798, 0.206497, 0.0879675, 0, 0
1, 2040.00000, 0.202122, 0.0861037, 0.200423, 0.0853798, 0.206497, 0.0879675, 0, 0
1, 2100.00000, 0.202122, 0.0861037, 0.200423, 0.0853798, 0.206497, 0.0879675, 0, 0
1, 2160.00000, 0.202122, 0.0861037, 0.200423, 0.0853798, 0.206497, 0.0879675, 0, 0
1, 2220.00000, 0.202122, 0.0861037, 0.200423, 0.0853798, 0.206497, 0.0879675, 0, 0
1, 2280.00000, 0.202122, 0.0861037, 0.200423, 0.0853798, 0.206497, 0.0879675, 0, 0
1, 2340.00000, 0.202122, 0.0861037, 0.200423, 0.0853798, 0.206497, 0.0879675, 0, 0
1, 2400.00000, 0.202122, 0.0861037, 0.200423, 0.0853798, 0.206497, 0.0879675, 0, 0
1, 2460.00000, 0.202122, 0.0861037, 0.200423, 0.0853798, 0.206497, 0.0879675, 0, 0
1, 2520.00000, 0.202122, 0.0861037, 0.200423, 0.0853798, 0.206497, 0.0879675, 0, 0
1, 2580.00000, 0.202122, 0.0861037, 0.200423, 0.0853798, 0.206497, 0.0879675, 0, 0
1, 2640.00000, 0.202122, 0.0861037, 0.200423, 0.0853798, 0.206497, 0.0879675, 0, 0
1, 2700.00000, 0.202122, 0.0861037, 0.200423, 0.0853798, 0.206497, 0.0879675, 0, 0
1, 2760.00000, 0.202122, 0.0861037, 0.200423, 0.0853798, 0.206497, 0.0879675, 0, 0
1, 2820.00000, 0.202122, 0.0861037, 0.200423, 0.0853798, 0.206497, 0.0879675, 0, 0
1, 2880.00000, 0.202122, 0.0861037, 0.200423, 0.0853798, 0.206497, 0.0879675, 0, 0
1, 2940.00000, 0.202122, 0.0861037, 0.200423, 0.0853798, 0.206497, 0.0879675, 0, 0
1, 3000.00000, 0.202122, 0.0861037, 0.200423, 0.0853798, 0.206497, 0.0879675, 0, 0
1, 3060.00000, 0.202122, 0.0861037, 0.200423, 0.0853798, 0.206497, 0.0879675, 0, 0
1, 3120.00000, 0.202122, 0.0861037, 0.200423, 0.0853798, 0.206497, 0.0879675, 0, 0
1, 3180.00000, 0.202122, 0.0861037, 0.200423, 0.0853798, 0.206497, 0.0879675, 0, 0
1, 3240.00000, 0.202122, 0.0861037, 0.200423, 0.0853798, 0.206497, 0.0879675, 0, 0
1, 3300.00000, 0.202122, 0.0861037, 0.200423, 0.0853798, 0.206497, 0.0879675, 0, 0
1, 3360.00000, 0.202122, 0.0861037, 0.200423, 0.0853798, 0.206497, 0.0879675, 0, 0
1, 3420.00000, 0.202122, 0.0861037, 0.200423, 0.0853798, 0.206497, 0.0879675, 0, 0
1, 3480.00000, 0.202122, 0.0861037, 0.200423, 0.0853798, 0.206497, 0.0879675, 0, 0
1, 3540.00000, 0.202122, 0.0861037, 0.200423, 0.0853798, 0.206497, 0.0879675, 0, 0
2, 0.00000, 0.202122, 0.0861037, 0.200423, 0.0853798, 0.206497, 0.0879675, 0, 0
2, 60.00000, 0.202122, 0.0861037, 0.200423, 0.0853798, 0.206497, 0.0879675, 0, 0
2, 120.00000, 0.202122, 0.0861037, 0.200423, 0.0853798, 0.206497, 0.0879675, 0, 0
2, 180.00000, 0.202122, 0.0861037, 0.200423, 0.0853798, 0.206497, 0.0879675, 0, 0
2, 240.00000, 0.202122, 0.0861037, 0.200423, 0.0853798, 0.206497, 0.0879675, 0, 0
2, 300.00000, 0.202122, 0.0861037, 0.200423, 0.0853798, 0.206497, 0.0879675, 0, 0
2, 360.00000, 0.202122, 0.0861037, 0.200423, 0.0853798, 0.206497, 0.0879675, 0, 0
2, 420.00000, 0.202122, 0.0861037, 0.200423, 0.0853798, 0.206497, 0.0879675, 0, 0
2, 480.00000, 0.202122, 0.0861037, 0.200423, 0.0853798, 0.206497, 0.0879675, 0, 0
2, 540.00000, 0.202122, 0.0861037, 0.200423, 0.0853798, 0.206497, 0.0879675, 0, 0
2, 600.00000, 0.202122, 0.0861037, 0.200423, 0.0853798, 0.206497, 0.0879675, 0, 0
2, 660.00000, 0.202122, 0.0861037, 0.200423, 0.0853798, 0.206497, 0.0879675, 0, 0
2, 720.00000, 0.202122, 0.0861037, 0.200423, 0.0853798, 0.206497, 0.0879675, 0, 0
2, 780.00000, 0.202122, 0.0861037, 0.200423, 0.0853798, 0.206497, 0.0879675, 0, 0
2, 840.00000, 0.205506, 0.0875453, 0.204169, 0.0869765, 0.2063, 0.0878836, 0, 0
2, 900.00000, 0.205507, 0.0875456, 0.204171, 0.0869765, 0.2063, 0.0878832, 0, 0
2, 960.00000, 0.205507, 0.0875456, 0.204171, 0.0869765, 0.2063, 0.0878832, 0, 0
2, 1020.00000, 0.205507, 0.0875456, 0.204171, 0.0869765, 0.2063, 0.0878832, 0, 0
2, 1080.00000, 0.205507, 0.0875456, 0.204171, 0.0869765, 0.2063, 0.0878832, 0, 0
2, 1140.00000, 0.205507, 0.0875456, 0.204171, 0.0869765, 0.2063, 0.0878832, 0, 0
2, 1200.00000, 0.205507, 0.0875456, 0.204171, 0.0869765, 0.2063, 0.0878832, 0, 0
2, 1260.00000, 0.205507, 0.0875456, 0.204171, 0.0869765, 0.2063, 0.0878832, 0, 0
2, 1320.00000, 0.205507, 0.0875456, 0.204171, 0.0869765, 0.2063, 0.0878832, 0, 0
2, 1380.00000, 0.205507, 0.0875456, 0.204171, 0.0869765, 0.2063, 0.0878832, 0, 0
2, 1440.00000, 0.205507, 0.0875456, 0.204171, 0.0869765, 0.2063, 0.0878832, 0, 0
2, 1500.00000, 0.205507, 0.0875456, 0.204171, 0.0869765, 0.2063, 0.0878832, 0, 0
2, 1560.00000, 0.205507, 0.0875456, 0.204171, 0.0869765, 0.2063, 0.0878832, 0, 0
2, 1620.00000, 0.205507, 0.0875456, 0.204171, 0.0869765, 0.2063, 0.0878832, 0, 0
2, 1680.00000, 0.205507, 0.0875456, 0.204171, 0.0869765, 0.2063, 0.0878832, 0, 0
2, 1740.00000, 0.205507, 0.0875456, 0.204171, 0.0869765, 0.2063, 0.0878832, 0, 0
2, 1800.00000, 0.205507, 0.0875456, 0.204171, 0.0869765, 0.2063, 0.0878832, 0, 0
2, 1860.00000, 0.205507, 0.0875456, 0.204171, 0.0869765, 0.2063, 0.0878832, 0, 0
2, 1920.00000, 0.205507, 0.0875456, 0.204171, 0.0869765, 0.2063, 0.0878832, 0, 0
2, 1980.00000, 0.205507, 0.0875456, 0.204171, 0.0869765, 0.2063, 0.0878832, 0, 0
2, 2040.00000, 0.205507, 0.0875456, 0.204171, 0.0869765, 0.2063, 0.0878832, 0, 0
2, 2100.00000, 0.205507, 0.0875456, 0.204171, 0.0869765, 0.2063, 0.0878832, 0, 0
2, 2160.00000, 0.205507, 0.0875456, 0.204171, 0.0869765, 0.2063, 0.0878832, 0, 0
2, 2220.00000, 0.205507, 0.0875456, 0.204171, 0.0869765, 0.2063, 0.0878832, 0, 0
2, 2280.00000, 0.205507, 0.0875456, 0.204171, 0.0869765, 0.2063, 0.0878832, 0, 0
2, 2340.00000, 0.205507, 0.0875456, 0.204171, 0.0869765, 0.2063, 0.0878832, 0, 0
2, 2400.00000, 0.205582, 0.087578, 0.205031, 0.0873429, 0.207909, 0.0885706, 0, 0
2, 2460.00000, 0.205582, 0.0875776, 0.205032, 0.0873433, 0.207913, 0.0885708, 0, 0
2, 2520.00000, 0.205582, 0.0875776, 0.205032, 0.0873433, 0.207914, 0.0885708, 0, 0
2, 2580.00000, 0.205582, 0.0875776, 0.205032, 0.0873433, 0.207914, 0.0885708, 0, 0
2, 2640.00000, 0.205582, 0.0875776, 0.205032, 0.0873433, 0.207914, 0.0885708, 0, 0
2, 2700.00000, 0.205433, 0.0875141, 0.203107, 0.086523, 0.205337, 0.0874725, 0, 0
2, 2760.00000, 0.205433, 0.0875142, 0.203106, 0.0865227, 0.205335, 0.0874722, 0, 0
2, 2820.00000, 0.205433, 0.0875142, 0.203106, 0.0865227, 0.205335, 0.0874722, 0, 0
2, 2880.00000, 0.205433, 0.0875142, 0.203106, 0.0865227, 0.205335, 0.0874722, 0, 0
2, 2940.00000, 0.205433, 0.0875142, 0.203106, 0.0865227, 0.205335, 0.0874722, 0, 0
2, 3000.00000, 0.205433, 0.0875142, 0.203106, 0.0865227, 0.205335, 0.0874722, 0, 0
2, 3060.00000, 0.207053, 0.0882063, 0.203094, 0.0865179, 0.206117, 0.0878055, 0, 0
2, 3120.00000, 0.207059, 0.0882066, 0.203093, 0.0865172, 0.206118, 0.0878059, 0, 0
2, 3180.00000, 0.207059, 0.0882066, 0.203093, 0.0865171, 0.206118, 0.0878059, 0, 0
2, 3240.00000, 0.207059, 0.0882066, 0.203093, 0.0865171, 0.206118, 0.0878059, 0, 0
2, 3300.00000, 0.207059, 0.0882066, 0.203093, 0.0865171, 0.206118, 0.0878059, 0, 0
2, 3360.00000, 0.207059, 0.0882066, 0.203093, 0.0865171, 0.206118, 0.0878059, 0, 0
2, 3420.00000, 0.207059, 0.0882066, 0.203093, 0.0865171, 0.206118, 0.0878059, 0, 0
2, 3480.00000, 0.207059, 0.0882066, 0.203093, 0.0865171, 0.206118, 0.0878059, 0, 0
2, 3540.00000, 0.207059, 0.0882066, 0.203093, 0.0865171, 0.206118, 0.0878059, 0, 0
3, 0.00000, 0.207059, 0.0882066, 0.203093, 0.0865171, 0.206118, 0.0878059, 0, 0
3, 60.00000, 0.207059, 0.0882066, 0.203093, 0.0865171, 0.206118, 0.0878059, 0, 0
3, 120.00000, 0.207059, 0.0882066, 0.203093, 0.0865171, 0.206118, 0.0878059, 0, 0
3, 180.00000, 0.207059, 0.0882066, 0.203093, 0.0865171, 0.206118, 0.0878059, 0, 0
3, 240.00000, 0.207059, 0.0882066, 0.203093, 0.0865171, 0.206118, 0.0878059, 0, 0
3, 300.00000, 0.207059, 0.0882066, 0.203093, 0.0865171, 0.206118, 0.0878059, 0, 0
3, 360.00000, 0.207059, 0.0882066, 0.203093, 0.0865171, 0.206118, 0.0878059, 0, 0
3, 420.00000, 0.207059, 0.0882066, 0.203093, 0.0865171, 0.206118, 0.0878059, 0, 0
3, 480.00000, 0.207059, 0.0882066, 0.203093, 0.0865171, 0.206118, 0.0878059, 0, 0
3, 540.00000, 0.207059, 0.0882066, 0.203093, 0.0865171, 0.206118, 0.0878059, 0, 0
3, 600.00000, 0.207059, 0.0882066, 0.203093, 0.0865171, 0.206118, 0.0878059, 0, 0
3, 660.00000, 0.207059, 0.0882066, 0.203093, 0.0865171, 0.206118, 0.0878059, 0, 0
3, 720.00000, 0.207059, 0.0882066, 0.203093, 0.0865171, 0.206118, 0.0878059, 0, 0
3, 780.00000, 0.207059, 0.0882066, 0.203093, 0.0865171, 0.206118, 0.0878059, 0, 0
3, 840.00000, 0.207059, 0.0882066, 0.203093, 0.0865171, 0.206118, 0.0878059, 0, 0
3, 900.00000, 0.207059, 0.0882066, 0.203093, 0.0865171, 0.206118, 0.0878059, 0, 0
3, 960.00000, 0.207059, 0.0882066, 0.203093, 0.0865171, 0.206118, 0.0878059, 0, 0
3, 1020.00000, 0.207059, 0.0882066, 0.203093, 0.0865171, 0.206118, 0.0878059, 0, 0
3, 1080.00000, 0.207059, 0.0882066, 0.203093, 0.0865171, 0.206118, 0.0878059, 0, 0
3, 1140.00000, 0.207059, 0.0882066, 0.203093, 0.0865171, 0.206118, 0.0878059, 0, 0
3, 1200.00000, 0.207059, 0.0882066, 0.203093, 0.0865171, 0.206118, 0.0878059, 0, 0
3, 1260.00000, 0.207059, 0.0882066, 0.203093, 0.0865171, 0.206118, 0.0878059, 0, 0
3, 1320.00000, 0.207059, 0.0882066, 0.203093, 0.0865171, 0.206118, 0.0878059, 0, 0
3, 1380.00000, 0.207059, 0.0882066, 0.203093, 0.0865171, 0.206118, 0.0878059, 0, 0
3, 1440.00000, 0.207059, 0.0882066, 0.203093, 0.0865171, 0.206118, 0.0878059, 0, 0
3, 1500.00000, 0.207059, 0.0882066, 0.203093, 0.0865171, 0.206118, 0.0878059, 0, 0
3, 1560.00000, 0.207059, 0.0882066, 0.203093, 0.0865171, 0.206118, 0.0878059, 0, 0
3, 1620.00000, 0.207059, 0.0882066, 0.203093, 0.0865171, 0.206118, 0.0878059, 0, 0
3, 1680.00000, 0.207059, 0.0882066, 0.203093, 0.0865171, 0.206118, 0.0878059, 0, 0
3, 1740.00000, 0.207059, 0.0882066, 0.203093, 0.0865171, 0.206118, 0.0878059, 0, 0
3, 1800.00000, 0.207059, 0.0882066, 0.203093, 0.0865171, 0.206118, 0.0878059, 0, 0
3, 1860.00000, 0.207059, 0.0882066, 0.203093, 0.0865171, 0.206118, 0.0878059, 0, 0
3, 1920.00000, 0.207059, 0.0882066, 0.203093, 0.0865171, 0.206118, 0.0878059, 0, 0
3, 1980.00000, 0.207059, 0.0882066, 0.203093, 0.0865171, 0.206118, 0.0878059, 0, 0
3, 2040.00000, 0.207059, 0.0882066, 0.203093, 0.0865171, 0.206118, 0.0878059, 0, 0
3, 2100.00000, 0.207059, 0.0882066, 0.203093, 0.0865171, 0.206118, 0.0878059, 0, 0
3, 2160.00000, 0.207059, 0.0882066, 0.203093, 0.0865171, 0.206118, 0.0878059, 0, 0
3, 2220.00000, 0.207059, 0.0882066, 0.203093, 0.0865171, 0.206118, 0.0878059, 0, 0
3, 2280.00000, 0.207059, 0.0882066, 0.203093, 0.0865171, 0.206118, 0.0878059, 0, 0
3, 2340.00000, 0.207059, 0.0882066, 0.203093, 0.0865171, 0.206118, 0.0878059, 0, 0
3, 2400.00000, 0.207059, 0.0882066, 0.203093, 0.0865171, 0.206118, 0.0878059, 0, 0
3, 2460.00000, 0.207059, 0.0882066, 0.203093, 0.0865171, 0.206118, 0.0878059, 0, 0
3, 2520.00000, 0.207059, 0.0882066, 0.203093, 0.0865171, 0.206118, 0.0878059, 0, 0
3, 2580.00000, 0.207059, 0.0882066, 0.203093, 0.0865171, 0.206118, 0.0878059, 0, 0
3, 2640.00000, 0.207059, 0.0882066, 0.203093, 0.0865171, 0.206118, 0.0878059, 0, 0
3, 2700.00000, 0.207059, 0.0882066, 0.203093, 0.0865171, 0.206118, 0.0878059, 0, 0
3, 2760.00000, 0.207059, 0.0882066, 0.203093, 0.0865171, 0.206118, 0.0878059, 0, 0
3, 2820.00000, 0.207059, 0.0882066, 0.203093, 0.0865171, 0.206118, 0.0878059, 0, 0
3, 2880.00000, 0.207059, 0.0882066, 0.203093, 0.0865171, 0.206118, 0.0878059, 0, 0
3, 2940.00000, 0.207059, 0.0882066, 0.203093, 0.0865171, 0.206118, 0.0878059, 0, 0
3, 3000.00000, 0.207059, 0.0882066, 0.203093, 0.0865171, 0.206118, 0.0878059, 0, 0
3, 3060.00000, 0.207059, 0.0882066, 0.203093, 0.0865171, 0.206118, 0.0878059, 0, 0
3, 3120.00000, 0.207059, 0.0882066, 0.203093, 0.0865171, 0.206118, 0.0878059, 0, 0
3, 3180.00000, 0.218155, 0.0929329, 0.214028, 0.0911751, 0.217247, 0.0925465, 0, 0
3, 3240.00000, 0.218153, 0.0929327, 0.214027, 0.0911752, 0.217246, 0.0925465, 0, 0
3, 3300.00000, 0.218153, 0.0929327, 0.214027, 0.0911752, 0.217246, 0.0925465, 0, 0
3, 3360.00000, 0.218153, 0.0929327, 0.214027, 0.0911752, 0.217246, 0.0925465, 0, 0
3, 3420.00000, 0.218153, 0.0929327, 0.214027, 0.0911752, 0.217246, 0.0925465, 0, 0
3, 3480.00000, 0.218153, 0.0929327, 0.214027, 0.0911752, 0.217246, 0.0925465, 0, 0
3, 3540.00000, 0.218153, 0.0929327, 0.214027, 0.0911752, 0.217246, 0.0925465, 0, 0
4, 0.00000, 0.218153, 0.0929327, 0.214027, 0.0911752, 0.217246, 0.0925465, 0, 0
4, 60.00000, 0.218153, 0.0929327, 0.214027, 0.0911752, 0.217246, 0.0925465, 0, 0
4, 120.00000, 0.218153, 0.0929327, 0.214027, 0.0911752, 0.217246, 0.0925465, 0, 0
