hour,t(sec),V1,VAngle1,V2,VAngle2,V3,VAngle3,V4,VAngle4,I1,IAngle1,I2,IAngle2,I3,IAngle3,I4,IAngle4
0, 60.00000, 119.42, -31.245, 122.087, -151.306, 120.973, 87.7229, 0, 0, 7.48456, -54.3188, 7.48298, -174.38, 7.55178, 64.6495, 0.152374, -175.38
0, 120.00000, 119.42, -31.245, 122.087, -151.306, 120.973, 87.7228, 0, 0, 7.48451, -54.3189, 7.48309, -174.38, 7.55197, 64.6489, 0.152381, -175.328
0, 180.00000, 119.42, -31.245, 122.087, -151.306, 120.973, 87.7228, 0, 0, 7.48451, -54.3189, 7.48309, -174.38, 7.55197, 64.6489, 0.152381, -175.328
0, 240.00000, 119.42, -31.245, 122.087, -151.306, 120.973, 87.7228, 0, 0, 7.48451, -54.3189, 7.48309, -174.38, 7.55197, 64.6489, 0.152381, -175.328
0, 300.00000, 119.42, -31.245, 122.087, -151.306, 120.973, 87.7228, 0, 0, 7.48451, -54.3189, 7.48309, -174.38, 7.55197, 64.6489, 0.152381, -175.328
0, 360.00000, 119.42, -31.245, 122.087, -151.306, 120.973, 87.7228, 0, 0, 7.48451, -54.3189, 7.48309, -174.38, 7.55197, 64.6489, 0.152381, -175.328
0, 420.00000, 119.42, -31.245, 122.087, -151.306, 120.973, 87.7228, 0, 0, 7.48451, -54.3189, 7.48309, -174.38, 7.55197, 64.6489, 0.152381, -175.328
0, 480.00000, 120.166, -31.1394, 122.845, -151.201, 121.709, 87.8461, 0, 0, 6.55666, -54.2133, 6.47028, -174.275, 6.53067, 64.7715, 0.188354, 162.562
0, 540.00000, 120.166, -31.1394, 122.845, -151.201, 121.709, 87.8462, 0, 0, 6.55672, -54.2133, 6.47013, -174.275, 6.53053, 64.7723, 0.188428, 162.527
0, 600.00000, 120.166, -31.1394, 122.845, -151.201, 121.709, 87.8462, 0, 0, 6.55672, -54.2133, 6.47013, -174.275, 6.53053, 64.7723, 0.188428, 162.527
0, 660.00000, 120.166, -31.1394, 122.845, -151.201, 121.709, 87.8462, 0, 0, 6.55672, -54.2133, 6.47013, -174.275, 6.53053, 64.7723, 0.188428, 162.527
0, 720.00000, 120.166, -31.1394, 122.845, -151.201, 121.709, 87.8462, 0, 0, 6.55672, -54.2133, 6.47013, -174.275, 6.53053, 64.7723, 0.188428, 162.527
0, 780.00000, 120.166, -31.1394, 122.845, -151.201, 121.709, 87.8462, 0, 0, 6.55672, -54.2133, 6.47013, -174.275, 6.53053, 64.7723, 0.188428, 162.527
0, 840.00000, 120.166, -31.1394, 122.845, -151.201, 121.709, 87.8462, 0, 0, 6.55672, -54.2133, 6.47013, -174.275, 6.53053, 64.7723, 0.188428, 162.527
0, 900.00000, 120.166, -31.1394, 122.845, -151.201, 121.709, 87.8462, 0, 0, 6.55672, -54.2133, 6.47013, -174.275, 6.53053, 64.7723, 0.188428, 162.527
0, 960.00000, 119.824, -31.1568, 122.848, -151.199, 121.561, 87.7029, 0, 0, 6.53605, -54.2306, 6.47, -174.273, 6.53842, 64.6291, 0.188822, 167.466
0, 1020.00000, 119.824, -31.1569, 122.848, -151.199, 121.561, 87.7029, 0, 0, 6.53602, -54.2308, 6.46999, -174.273, 6.53846, 64.629, 0.188829, 167.479
0, 1080.00000, 119.824, -31.1569, 122.848, -151.199, 121.561, 87.7029, 0, 0, 6.53602, -54.2308, 6.46999, -174.273, 6.53846, 64.629, 0.188829, 167.479
0, 1140.00000, 119.824, -31.1569, 122.848, -151.199, 121.561, 87.7029, 0, 0, 6.53602, -54.2308, 6.46999, -174.273, 6.53846, 64.629, 0.188829, 167.479
0, 1200.00000, 119.824, -31.1569, 122.848, -151.199, 121.561, 87.7029, 0, 0, 6.53602, -54.2308, 6.46999, -174.273, 6.53846, 64.629, 0.188829, 167.479
0, 1260.00000, 119.824, -31.1569, 122.848, -151.199, 121.561, 87.7029, 0, 0, 6.53602, -54.2308, 6.46999, -174.273, 6.53846, 64.629, 0.188829, 167.479
0, 1320.00000, 119.824, -31.1569, 122.848, -151.199, 121.561, 87.7029, 0, 0, 6.53602, -54.2308, 6.46999, -174.273, 6.53846, 64.629, 0.188829, 167.479
0, 1380.00000, 119.824, -31.1569, 122.848, -151.199, 121.561, 87.7029, 0, 0, 6.53602, -54.2308, 6.46999, -174.273, 6.53846, 64.629, 0.188829, 167.479
0, 1440.00000, 119.824, -31.1569, 122.848, -151.199, 121.561, 87.7029, 0, 0, 6.53602, -54.2308, 6.46999, -174.273, 6.53846, 64.629, 0.188829, 167.479
0, 1500.00000, 119.824, -31.1569, 122.848, -151.199, 121.561, 87.7029, 0, 0, 6.53602, -54.2308, 6.46999, -174.273, 6.53846, 64.629, 0.188829, 167.479
0, 1560.00000, 119.824, -31.1569, 122.848, -151.199, 121.561, 87.7029, 0, 0, 6.53602, -54.2308, 6.46999, -174.273, 6.53846, 64.629, 0.188829, 167.479
0, 1620.00000, 119.824, -31.1569, 122.848, -151.199, 121.561, 87.7029, 0, 0, 6.53602, -54.2308, 6.46999, -174.273, 6.53846, 64.629, 0.188829, 167.479
0, 1680.00000, 119.824, -31.1569, 122.848, -151.199, 121.561, 87.7029, 0, 0, 6.53602, -54.2308, 6.46999, -174.273, 6.53846, 64.629, 0.188829, 167.479
0, 1740.00000, 119.824, -31.1569, 122.848, -151.199, 121.561, 87.7029, 0, 0, 6.53602, -54.2308, 6.46999, -174.273, 6.53846, 64.629, 0.188829, 167.479
0, 1800.00000, 119.519, -31.1798, 122.851, -151.198, 121.444, 87.5709, 0, 0, 6.5176, -54.2536, 6.46984, -174.272, 6.54476, 64.4971, 0.190052, 171.405
0, 1860.00000, 119.519, -31.1798, 122.851, -151.198, 121.444, 87.5709, 0, 0, 6.51757, -54.2538, 6.46983, -174.272, 6.54479, 64.4969, 0.190062, 171.414
0, 1920.00000, 119.519, -31.1798, 122.851, -151.198, 121.444, 87.5709, 0, 0, 6.51757, -54.2538, 6.46983, -174.272, 6.54479, 64.4969, 0.190062, 171.414
0, 1980.00000, 119.519, -31.1798, 122.851, -151.198, 121.444, 87.5709, 0, 0, 6.51757, -54.2538, 6.46983, -174.272, 6.54479, 64.4969, 0.190062, 171.414
0, 2040.00000, 119.519, -31.1798, 122.851, -151.198, 121.444, 87.5709, 0, 0, 6.51757, -54.2538, 6.46983, -174.272, 6.54479, 64.4969, 0.190062, 171.414
0, 2100.00000, 119.519, -31.1798, 122.851, -151.198, 121.444, 87.5709, 0, 0, 6.51757, -54.2538, 6.46983, -174.272, 6.54479, 64.4969, 0.190062, 171.414
0, 2160.00000, 119.519, -31.1798, 122.851, -151.198, 121.444, 87.5709, 0, 0, 6.51757, -54.2538, 6.46983, -174.272, 6.54479, 64.4969, 0.190062, 171.414
0, 2220.00000, 119.519, -31.1798, 122.851, -151.198, 121.444, 87.5709, 0, 0, 6.51757, -54.2538, 6.46983, -174.272, 6.54479, 64.4969, 0.190062, 171.414
0, 2280.00000, 119.519, -31.1798, 122.851, -151.198, 121.444, 87.5709, 0, 0, 6.51757, -54.2538, 6.46983, -174.272, 6.54479, 64.4969, 0.190062, 171.414
0, 2340.00000, 119.519, -31.1798, 122.851, -151.198, 121.444, 87.5709, 0, 0, 6.51757, -54.2538, 6.46983, -174.272, 6.54479, 64.4969, 0.190062, 171.414
0, 2400.00000, 119.519, -31.1798, 122.851, -151.198, 121.444, 87.5709, 0, 0, 6.51757, -54.2538, 6.46983, -174.272, 6.54479, 64.4969, 0.190062, 171.414
0, 2460.00000, 119.519, -31.1798, 122.851, -151.198, 121.444, 87.5709, 0, 0, 6.51757, -54.2538, 6.46983, -174.272, 6.54479, 64.4969, 0.190062, 171.414
0, 2520.00000, 119.519, -31.1798, 122.851, -151.198, 121.444, 87.5709, 0, 0, 6.51757, -54.2538, 6.46983, -174.272, 6.54479, 64.4969, 0.190062, 171.414
0, 2580.00000, 119.519, -31.1798, 122.851, -151.198, 121.444, 87.5709, 0, 0, 6.51757, -54.2538, 6.46983, -174.272, 6.54479, 64.4969, 0.190062, 171.414
0, 2640.00000, 119.519, -31.1798, 122.851, -151.198, 121.444, 87.5709, 0, 0, 6.51757, -54.2538, 6.46983, -174.272, 6.54479, 64.4969, 0.190062, 171.414
0, 2700.00000, 119.519, -31.1798, 122.851, -151.198, 121.444, 87.5709, 0, 0, 6.51757, -54.2538, 6.46983, -174.272, 6.54479, 64.4969, 0.190062, 171.414
0, 2760.00000, 120.288, -31.2419, 122.848, -151.201, 121.964, 87.8533, 0, 0, 6.56403, -54.3162, 6.46997, -174.274, 6.517, 64.779, 0.186806, 154.175
0, 2820.00000, 120.288, -31.2419, 122.848, -151.201, 121.964, 87.8533, 0, 0, 6.56411, -54.3158, 6.47, -174.274, 6.51685, 64.7794, 0.18681, 154.13
0, 2880.00000, 120.288, -31.2419, 122.848, -151.201, 121.964, 87.8533, 0, 0, 6.56411, -54.3158, 6.47, -174.274, 6.51685, 64.7794, 0.186809, 154.13
0, 2940.00000, 120.288, -31.2419, 122.848, -151.201, 121.964, 87.8533, 0, 0, 6.56411, -54.3158, 6.47, -174.274, 6.51685, 64.7794, 0.186809, 154.13
0, 3000.00000, 120.288, -31.2419, 122.848, -151.201, 121.964, 87.8533, 0, 0, 6.56411, -54.3158, 6.47, -174.274, 6.51685, 64.7794, 0.186809, 154.13
0, 3060.00000, 120.288, -31.2419, 122.848, -151.201, 121.964, 87.8533, 0, 0, 6.56411, -54.3158, 6.47, -174.274, 6.51685, 64.7794, 0.186809, 154.13
0, 3120.00000, 120.288, -31.2419, 122.848, -151.201, 121.964, 87.8533, 0, 0, 6.56411, -54.3158, 6.47, -174.274, 6.51685, 64.7794, 0.186809, 154.13
0, 3180.00000, 120.288, -31.2419, 122.848, -151.201, 121.964, 87.8533, 0, 0, 6.56411, -54.3158, 6.47, -174.274, 6.51685, 64.7794, 0.186809, 154.13
0, 3240.00000, 120.288, -31.2419, 122.848, -151.201, 121.964, 87.8533, 0, 0, 6.56411, -54.3158, 6.47, -174.274, 6.51685, 64.7794, 0.186809, 154.13
0, 3300.00000, 120.288, -31.2419, 122.848, -151.201, 121.964, 87.8533, 0, 0, 6.56411, -54.3158, 6.47, -174.274, 6.51685, 64.7794, 0.186809, 154.13
0, 3360.00000, 120.288, -31.2419, 122.848, -151.201, 121.964, 87.8533, 0, 0, 6.56411, -54.3158, 6.47, -174.274, 6.51685, 64.7794, 0.186809, 154.13
0, 3420.00000, 120.288, -31.2419, 122.848, -151.201, 121.964, 87.8533, 0, 0, 6.56411, -54.3158, 6.47, -174.274, 6.51685, 64.7794, 0.186809, 154.13
0, 3480.00000, 120.288, -31.2419, 122.848, -151.201, 121.964, 87.8533, 0, 0, 6.56411, -54.3158, 6.47, -174.274, 6.51685, 64.7794, 0.186809, 154.13
0, 3540.00000, 120.288, -31.2419, 122.848, -151.201, 121.964, 87.8533, 0, 0, 6.56411, -54.3158, 6.47, -174.274, 6.51685, 64.7794, 0.186809, 154.13
1, 0.00000, 120.288, -31.2419, 122.848, -151.201, 121.964, 87.8533, 0, 0, 6.56411, -54.3158, 6.47, -174.274, 6.51685, 64.7794, 0.186809, 154.13
1, 60.00000, 120.756, -31.2442, 122.845, -151.201, 122.215, 88.0374, 0, 0, 6.58211, -54.3185, 6.47013, -174.275, 6.50357, 64.9633, 0.183013, 147.099
1, 120.00000, 120.756, -31.2442, 122.845, -151.201, 122.215, 88.0374, 0, 0, 6.58204, -54.3181, 6.47015, -174.275, 6.50348, 64.9635, 0.182919, 147.089
1, 180.00000, 120.756, -31.2442, 122.845, -151.201, 122.215, 88.0374, 0, 0, 6.58204, -54.3181, 6.47015, -174.275, 6.50348, 64.9635, 0.182919, 147.089
1, 240.00000, 120.756, -31.2442, 122.845, -151.201, 122.215, 88.0374, 0, 0, 6.58204, -54.3181, 6.47015, -174.275, 6.50348, 64.9635, 0.182919, 147.089
1, 300.00000, 120.756, -31.2442, 122.845, -151.201, 122.215, 88.0374, 0, 0, 6.58204, -54.3181, 6.47015, -174.275, 6.50348, 64.9635, 0.182919, 147.089
1, 360.00000, 120.756, -31.2442, 122.845, -151.201, 122.215, 88.0374, 0, 0, 6.58204, -54.3181, 6.47015, -174.275, 6.50348, 64.9635, 0.182919, 147.089
1, 420.00000, 120.756, -31.2442, 122.845, -151.201, 122.215, 88.0374, 0, 0, 6.58204, -54.3181, 6.47015, -174.275, 6.50348, 64.9635, 0.182919, 147.089
1, 480.00000, 120.756, -31.2442, 122.845, -151.201, 122.215, 88.0374, 0, 0, 6.58204, -54.3181, 6.47015, -174.275, 6.50348, 64.9635, 0.182919, 147.089
1, 540.00000, 120.756, -31.2442, 122.845, -151.201, 122.215, 88.0374, 0, 0, 6.58204, -54.3181, 6.47015, -174.275, 6.50348, 64.9635, 0.182919, 147.089
1, 600.00000, 120.756, -31.2442, 122.845, -151.201, 122.215, 88.0374, 0, 0, 6.58204, -54.3181, 6.47015, -174.275, 6.50348, 64.9635, 0.182919, 147.089
1, 660.00000, 120.756, -31.2442, 122.845, -151.201, 122.215, 88.0374, 0, 0, 6.58204, -54.3181, 6.47015, -174.275, 6.50348, 64.9635, 0.182919, 147.089
1, 720.00000, 120.756, -31.2442, 122.845, -151.201, 122.215, 88.0374, 0, 0, 6.58204, -54.3181, 6.47015, -174.275, 6.50348, 64.9635, 0.182919, 147.089
1, 780.00000, 121.04, -31.2157, 122.841, -151.201, 122.303, 88.1564, 0, 0, 6.56674, -54.2898, 6.4703, -174.275, 6.49883, 65.0825, 0.157064, 147.816
1, 840.00000, 121.04, -31.2157, 122.841, -151.201, 122.303, 88.1564, 0, 0, 6.56664, -54.2896, 6.47033, -174.275, 6.4988, 65.0825, 0.156966, 147.821
1, 900.00000, 121.04, -31.2157, 122.841, -151.201, 122.303, 88.1564, 0, 0, 6.56664, -54.2896, 6.47033, -174.275, 6.4988, 65.0825, 0.156965, 147.821
1, 960.00000, 121.04, -31.2157, 122.841, -151.201, 122.303, 88.1564, 0, 0, 6.56664, -54.2896, 6.47033, -174.275, 6.4988, 65.0825, 0.156965, 147.821
1, 1020.00000, 121.04, -31.2157, 122.841, -151.201, 122.303, 88.1564, 0, 0, 6.56664, -54.2896, 6.47033, -174.275, 6.4988, 65.0825, 0.156965, 147.821
1, 1080.00000, 121.04, -31.2157, 122.841, -151.201, 122.303, 88.1564, 0, 0, 6.56664, -54.2896, 6.47033, -174.275, 6.4988, 65.0825, 0.156965, 147.821
1, 1140.00000, 121.04, -31.2157, 122.841, -151.201, 122.303, 88.1564, 0, 0, 6.56664, -54.2896, 6.47033, -174.275, 6.4988, 65.0825, 0.156965, 147.821
1, 1200.00000, 121.04, -31.2157, 122.841, -151.201, 122.303, 88.1564, 0, 0, 6.56664, -54.2896, 6.47033, -174.275, 6.4988, 65.0825, 0.156965, 147.821
1, 1260.00000, 121.04, -31.2157, 122.841, -151.201, 122.303, 88.1564, 0, 0, 6.56664, -54.2896, 6.47033, -174.275, 6.4988, 65.0825, 0.156965, 147.821
1, 1320.00000, 121.04, -31.2157, 122.841, -151.201, 122.303, 88.1564, 0, 0, 6.56664, -54.2896, 6.47033, -174.275, 6.4988, 65.0825, 0.156965, 147.821
1, 1380.00000, 121.04, -31.2157, 122.841, -151.201, 122.303, 88.1564, 0, 0, 6.56664, -54.2896, 6.47033, -174.275, 6.4988, 65.0825, 0.156965, 147.821
1, 1440.00000, 121.04, -31.2157, 122.841, -151.201, 122.303, 88.1564, 0, 0, 6.56664, -54.2896, 6.47033, -174.275, 6.4988, 65.0825, 0.156965, 147.821
1, 1500.00000, 121.04, -31.2157, 122.841, -151.201, 122.303, 88.1564, 0, 0, 6.56664, -54.2896, 6.47033, -174.275, 6.4988, 65.0825, 0.156965, 147.821
1, 1560.00000, 121.04, -31.2157, 122.841, -151.201, 122.303, 88.1564, 0, 0, 6.56664, -54.2896, 6.47033, -174.275, 6.4988, 65.0825, 0.156965, 147.821
1, 1620.00000, 121.04, -31.2157, 122.841, -151.201, 122.303, 88.1564, 0, 0, 6.56664, -54.2896, 6.47033, -174.275, 6.4988, 65.0825, 0.156965, 147.821
1, 1680.00000, 121.04, -31.2157, 122.841, -151.201, 122.303, 88.1564, 0, 0, 6.56664, -54.2896, 6.47033, -174.275, 6.4988, 65.0825, 0.156965, 147.821
1, 1740.00000, 121.04, -31.2157, 122.841, -151.201, 122.303, 88.1564, 0, 0, 6.56664, -54.2896, 6.47033, -174.275, 6.4988, 65.0825, 0.156965, 147.821
1, 1800.00000, 121.04, -31.2157, 122.841, -151.201, 122.303, 88.1564, 0, 0, 6.56664, -54.2896, 6.47033, -174.275, 6.4988, 65.0825, 0.156965, 147.821
1, 1860.00000, 121.04, -31.2157, 122.841, -151.201, 122.303, 88.1564, 0, 0, 6.56664, -54.2896, 6.47033, -174.275, 6.4988, 65.0825, 0.156965, 147.821
1, 1920.00000, 121.04, -31.2157, 122.841, -151.201, 122.303, 88.1564, 0, 0, 6.56664, -54.2896, 6.47033, -174.275, 6.4988, 65.0825, 0.156965, 147.821
1, 1980.00000, 121.04, -31.2157, 122.841, -151.201, 122.303, 88.1564, 0, 0, 6.56664, -54.2896, 6.47033, -174.275, 6.4988, 65.0825, 0.156965, 147.821
1, 2040.00000, 121.04, -31.2157, 122.841, -151.201, 122.303, 88.1564, 0, 0, 6.56664, -54.2896, 6.47033, -174.275, 6.4988, 65.0825, 0.156965, 147.821
1, 2100.00000, 121.04, -31.2157, 122.841, -151.201, 122.303, 88.1564, 0, 0, 6.56664, -54.2896, 6.47033, -174.275, 6.4988, 65.0825, 0.156965, 147.821
1, 2160.00000, 121.04, -31.2157, 122.841, -151.201, 122.303, 88.1564, 0, 0, 6.56664, -54.2896, 6.47033, -174.275, 6.4988, 65.0825, 0.156965, 147.821
1, 2220.00000, 121.368, -31.1886, 122.835, -151.201, 122.421, 88.2887, 0, 0, 6.54895, -54.2628, 6.47062, -174.275, 6.49255, 65.2148, 0.127416, 148.367
1, 2280.00000, 121.369, -31.1886, 122.835, -151.201, 122.421, 88.2887, 0, 0, 6.54885, -54.2625, 6.47065, -174.275, 6.49253, 65.2148, 0.127315, 148.376
1, 2340.00000, 121.369, -31.1886, 122.835, -151.201, 122.421, 88.2887, 0, 0, 6.54884, -54.2625, 6.47065, -174.275, 6.49253, 65.2148, 0.127314, 148.376
1, 2400.00000, 121.369, -31.1886, 122.835, -151.201, 122.421, 88.2887, 0, 0, 6.54884, -54.2625, 6.47065, -174.275, 6.49253, 65.2148, 0.127314, 148.376
1, 2460.00000, 121.369, -31.1886, 122.835, -151.201, 122.421, 88.2887, 0, 0, 6.54884, -54.2625, 6.47065, -174.275, 6.49253, 65.2148, 0.127314, 148.376
1, 2520.00000, 121.369, -31.1886, 122.835, -151.201, 122.421, 88.2887, 0, 0, 6.54884, -54.2625, 6.47065, -174.275, 6.49253, 65.2148, 0.127314, 148.376
1, 2580.00000, 121.369, -31.1886, 122.835, -151.201, 122.421, 88.2887, 0, 0, 6.54884, -54.2625, 6.47065, -174.275, 6.49253, 65.2148, 0.127314, 148.376
1, 2640.00000, 121.369, -31.1886, 122.835, -151.201, 122.421, 88.2887, 0, 0, 6.54884, -54.2625, 6.47065, -174.275, 6.49253, 65.2148, 0.127314, 148.376
1, 2700.00000, 121.369, -31.1886, 122.835, -151.201, 122.421, 88.2887, 0, 0, 6.54884, -54.2625, 6.47065, -174.275, 6.49253, 65.2148, 0.127314, 148.376
1, 2760.00000, 121.369, -31.1886, 122.835, -151.201, 122.421, 88.2887, 0, 0, 6.54884, -54.2625, 6.47065, -174.275, 6.49253, 65.2148, 0.127314, 148.376
1, 2820.00000, 121.369, -31.1886, 122.835, -151.201, 122.421, 88.2887, 0, 0, 6.54884, -54.2625, 6.47065, -174.275, 6.49253, 65.2148, 0.127314, 148.376
1, 2880.00000, 121.369, -31.1886, 122.835, -151.201, 122.421, 88.2887, 0, 0, 6.54884, -54.2625, 6.47065, -174.275, 6.49253, 65.2148, 0.127314, 148.376
1, 2940.00000, 121.369, -31.1886, 122.835, -151.201, 122.421, 88.2887, 0, 0, 6.54884, -54.2625, 6.47065, -174.275, 6.49253, 65.2148, 0.127314, 148.376
1, 3000.00000, 121.369, -31.1886, 122.835, -151.201, 122.421, 88.2887, 0, 0, 6.54884, -54.2625, 6.47065, -174.275, 6.49253, 65.2148, 0.127314, 148.376
1, 3060.00000, 121.369, -31.1886, 122.835, -151.201, 122.421, 88.2887, 0, 0, 6.54884, -54.2625, 6.47065, -174.275, 6.49253, 65.2148, 0.127314, 148.376
1, 3120.00000, 121.369, -31.1886, 122.835, -151.201, 122.421, 88.2887, 0, 0, 6.54884, -54.2625, 6.47065, -174.275, 6.49253, 65.2148, 0.127314, 148.376
1, 3180.00000, 121.369, -31.1886, 122.835, -151.201, 122.421, 88.2887, 0, 0, 6.54884, -54.2625, 6.47065, -174.275, 6.49253, 65.2148, 0.127314, 148.376
1, 3240.00000, 121.369, -31.1886, 122.835, -151.201, 122.421, 88.2887, 0, 0, 6.54884, -54.2625, 6.47065, -174.275, 6.49253, 65.2148, 0.127314, 148.376
1, 3300.00000, 121.369, -31.1886, 122.835, -151.201, 122.421, 88.2887, 0, 0, 6.54884, -54.2625, 6.47065, -174.275, 6.49253, 65.2148, 0.127314, 148.376
1, 3360.00000, 121.369, -31.1886, 122.835, -151.201, 122.421, 88.2887, 0, 0, 6.54884, -54.2625, 6.47065, -174.275, 6.49253, 65.2148, 0.127314, 148.376
1, 3420.00000, 121.369, -31.1886, 122.835, -151.201, 122.421, 88.2887, 0, 0, 6.54884, -54.2625, 6.47065, -174.275, 6.49253, 65.2148, 0.127314, 148.376
1, 3480.00000, 121.369, -31.1886, 122.835, -151.201, 122.421, 88.2887, 0, 0, 6.54884, -54.2625, 6.47065, -174.275, 6.49253, 65.2148, 0.127314, 148.376
1, 3540.00000, 121.369, -31.1886, 122.835, -151.201, 122.421, 88.2887, 0, 0, 6.54884, -54.2625, 6.47065, -174.275, 6.49253, 65.2148, 0.127314, 148.376
2, 0.00000, 121.369, -31.1886, 122.835, -151.201, 122.421, 88.2887, 0, 0, 6.54884, -54.2625, 6.47065, -174.275, 6.49253, 65.2148, 0.127314, 148.376
2, 60.00000, 121.369, -31.1886, 122.835, -151.201, 122.421, 88.2887, 0, 0, 6.54884, -54.2625, 6.47065, -174.275, 6.49253, 65.2148, 0.127314, 148.376
2, 120.00000, 121.369, -31.1886, 122.835, -151.201, 122.421, 88.2887, 0, 0, 6.54884, -54.2625, 6.47065, -174.275, 6.49253, 65.2148, 0.127314, 148.376
2, 180.00000, 121.369, -31.1886, 122.835, -151.201, 122.421, 88.2887, 0, 0, 6.54884, -54.2625, 6.47065, -174.275, 6.49253, 65.2148, 0.127314, 148.376
2, 240.00000, 121.369, -31.1886, 122.835, -151.201, 122.421, 88.2887, 0, 0, 6.54884, -54.2625, 6.47065, -174.275, 6.49253, 65.2148, 0.127314, 148.376
2, 300.00000, 121.369, -31.1886, 122.835, -151.201, 122.421, 88.2887, 0, 0, 6.54884, -54.2625, 6.47065, -174.275, 6.49253, 65.2148, 0.127314, 148.376
2, 360.00000, 121.369, -31.1886, 122.835, -151.201, 122.421, 88.2887, 0, 0, 6.54884, -54.2625, 6.47065, -174.275, 6.49253, 65.2148, 0.127314, 148.376
2, 420.00000, 121.369, -31.1886, 122.835, -151.201, 122.421, 88.2887, 0, 0, 6.54884, -54.2625, 6.47065, -174.275, 6.49253, 65.2148, 0.127314, 148.376
2, 480.00000, 121.369, -31.1886, 122.835, -151.201, 122.421, 88.2887, 0, 0, 6.54884, -54.2625, 6.47065, -174.275, 6.49253, 65.2148, 0.127314, 148.376
2, 540.00000, 121.369, -31.1886, 122.835, -151.201, 122.421, 88.2887, 0, 0, 6.54884, -54.2625, 6.47065, -174.275, 6.49253, 65.2148, 0.127314, 148.376
2, 600.00000, 121.369, -31.1886, 122.835, -151.201, 122.421, 88.2887, 0, 0, 6.54884, -54.2625, 6.47065, -174.275, 6.49253, 65.2148, 0.127314, 148.376
2, 660.00000, 121.369, -31.1886, 122.835, -151.201, 122.421, 88.2887, 0, 0, 6.54884, -54.2625, 6.47065, -174.275, 6.49253, 65.2148, 0.127314, 148.376
2, 720.00000, 121.369, -31.1886, 122.835, -151.201, 122.421, 88.2887, 0, 0, 6.54884, -54.2625, 6.47065, -174.275, 6.49253, 65.2148, 0.127314, 148.376
2, 780.00000, 121.369, -31.1886, 122.835, -151.201, 122.421, 88.2887, 0, 0, 6.54884, -54.2625, 6.47065, -174.275, 6.49253, 65.2148, 0.127314, 148.376
