hour,t(sec),V1,VAngle1,V2,VAngle2,V3,VAngle3,V4,VAngle4,I1,IAngle1,I2,IAngle2,I3,IAngle3,I4,IAngle4
0, 60.00000, 115.424, -34.6353, 116.935, -150.611, 124.869, 86.9239, 0, 0, 2.83968, -57.7093, 2.88088, -173.684, 2.88286, 63.8526, 0.150221, 59.6232
0, 120.00000, 115.406, -34.6726, 116.936, -150.612, 124.935, 86.8993, 0, 0, 2.83916, -57.7466, 2.88089, -173.685, 2.88131, 63.8278, 0.153044, 59.6241
0, 180.00000, 115.389, -34.7063, 116.936, -150.613, 124.995, 86.8772, 0, 0, 2.83869, -57.7802, 2.8809, -173.687, 2.87991, 63.8054, 0.15558, 59.6243
0, 240.00000, 115.374, -34.7365, 116.936, -150.614, 125.049, 86.8572, 0, 0, 2.83827, -57.8105, 2.8809, -173.688, 2.87865, 63.7853, 0.157859, 59.6237
0, 300.00000, 115.361, -34.7638, 116.937, -150.615, 125.098, 86.8392, 0, 0, 2.83788, -57.8377, 2.88091, -173.688, 2.87752, 63.7671, 0.159909, 59.6225
0, 360.00000, 115.349, -34.7883, 116.937, -150.616, 125.142, 86.823, 0, 0, 2.83754, -57.8623, 2.88092, -173.689, 2.87651, 63.7507, 0.161751, 59.6209
0, 420.00000, 115.338, -34.8104, 116.937, -150.617, 125.181, 86.8084, 0, 0, 2.83722, -57.8844, 2.88092, -173.69, 2.8756, 63.736, 0.163407, 59.6191
0, 480.00000, 115.328, -34.8303, 116.937, -150.617, 125.216, 86.7953, 0, 0, 2.83694, -57.9043, 2.88093, -173.691, 2.87478, 63.7227, 0.164897, 59.6172
0, 540.00000, 115.319, -34.8482, 116.938, -150.618, 125.248, 86.7834, 0, 0, 2.83668, -57.9222, 2.88093, -173.691, 2.87404, 63.7107, 0.166236, 59.6152
0, 600.00000, 115.311, -34.8644, 116.938, -150.618, 125.276, 86.7728, 0, 0, 2.83645, -57.9383, 2.88094, -173.692, 2.87338, 63.6999, 0.167441, 59.6133
0, 660.00000, 115.304, -34.8789, 116.938, -150.619, 125.302, 86.7632, 0, 0, 2.83625, -57.9528, 2.88094, -173.692, 2.87278, 63.6902, 0.168524, 59.6114
0, 720.00000, 115.297, -34.8919, 116.938, -150.619, 125.325, 86.7545, 0, 0, 2.83606, -57.9659, 2.88094, -173.693, 2.87225, 63.6815, 0.169499, 59.6096
0, 780.00000, 115.291, -34.9037, 116.938, -150.619, 125.346, 86.7467, 0, 0, 2.83589, -57.9776, 2.88095, -173.693, 2.87177, 63.6736, 0.170376, 59.6078
0, 840.00000, 115.286, -34.9143, 116.938, -150.62, 125.365, 86.7397, 0, 0, 2.83574, -57.9882, 2.88095, -173.693, 2.87133, 63.6665, 0.171164, 59.6062
0, 900.00000, 115.281, -34.9238, 116.938, -150.62, 125.382, 86.7334, 0, 0, 2.8356, -57.9977, 2.88095, -173.694, 2.87094, 63.6601, 0.171874, 59.6047
0, 960.00000, 114.943, -35.0789, 116.413, -150.669, 125.094, 86.6995, 0, 0, 3.26551, -58.1528, 3.31199, -173.742, 3.32468, 63.6262, 0.181498, 59.4404
0, 1020.00000, 114.939, -35.0866, 116.413, -150.669, 125.108, 86.6944, 0, 0, 3.26538, -58.1605, 3.31199, -173.743, 3.32432, 63.621, 0.182159, 59.4404
0, 1080.00000, 114.935, -35.0935, 116.413, -150.669, 125.12, 86.6898, 0, 0, 3.26527, -58.1674, 3.312, -173.743, 3.32399, 63.6163, 0.182755, 59.4398
0, 1140.00000, 114.932, -35.0998, 116.413, -150.669, 125.131, 86.6856, 0, 0, 3.26516, -58.1737, 3.312, -173.743, 3.3237, 63.6121, 0.183292, 59.4392
0, 1200.00000, 114.929, -35.1054, 116.413, -150.669, 125.141, 86.6819, 0, 0, 3.26507, -58.1793, 3.312, -173.743, 3.32343, 63.6083, 0.183775, 59.4387
0, 1260.00000, 114.927, -35.1105, 116.413, -150.67, 125.15, 86.6785, 0, 0, 3.26498, -58.1844, 3.312, -173.743, 3.32319, 63.6049, 0.18421, 59.4382
0, 1320.00000, 114.924, -35.115, 116.413, -150.67, 125.158, 86.6755, 0, 0, 3.26491, -58.1889, 3.312, -173.743, 3.32297, 63.6019, 0.184601, 59.4377
0, 1380.00000, 114.922, -35.1191, 116.413, -150.67, 125.165, 86.6728, 0, 0, 3.26484, -58.1931, 3.312, -173.744, 3.32278, 63.5991, 0.184953, 59.4373
0, 1440.00000, 114.92, -35.1228, 116.413, -150.67, 125.172, 86.6703, 0, 0, 3.26478, -58.1967, 3.312, -173.744, 3.3226, 63.5966, 0.18527, 59.4369
0, 1500.00000, 114.919, -35.1261, 116.413, -150.67, 125.178, 86.6681, 0, 0, 3.26472, -58.2001, 3.312, -173.744, 3.32245, 63.5944, 0.185555, 59.4365
0, 1560.00000, 114.917, -35.1291, 116.413, -150.67, 125.183, 86.6661, 0, 0, 3.26467, -58.2031, 3.31201, -173.744, 3.3223, 63.5924, 0.185811, 59.4362
0, 1620.00000, 114.916, -35.1318, 116.413, -150.67, 125.188, 86.6643, 0, 0, 3.26462, -58.2058, 3.31201, -173.744, 3.32218, 63.5906, 0.186042, 59.4359
0, 1680.00000, 114.915, -35.1343, 116.413, -150.67, 125.192, 86.6627, 0, 0, 3.26458, -58.2082, 3.31201, -173.744, 3.32206, 63.5889, 0.18625, 59.4356
0, 1740.00000, 114.913, -35.1364, 116.413, -150.67, 125.196, 86.6612, 0, 0, 3.26455, -58.2104, 3.31201, -173.744, 3.32196, 63.5875, 0.186437, 59.4354
0, 1800.00000, 114.912, -35.1384, 116.413, -150.67, 125.199, 86.6599, 0, 0, 3.26451, -58.2123, 3.31201, -173.744, 3.32187, 63.5862, 0.186605, 59.4351
0, 1860.00000, 115.144, -35.1367, 116.64, -150.664, 125.465, 86.6688, 0, 0, 2.97627, -58.2107, 3.01934, -173.738, 3.01536, 63.595, 0.183386, 59.7236
0, 1920.00000, 115.144, -35.1383, 116.64, -150.664, 125.468, 86.6677, 0, 0, 2.97625, -58.2122, 3.01934, -173.738, 3.01529, 63.5939, 0.183511, 59.7228
0, 1980.00000, 115.143, -35.1398, 116.64, -150.664, 125.471, 86.6668, 0, 0, 2.97622, -58.2137, 3.01934, -173.738, 3.01523, 63.5929, 0.183623, 59.7224
0, 2040.00000, 115.142, -35.1411, 116.64, -150.664, 125.473, 86.6659, 0, 0, 2.9762, -58.215, 3.01934, -173.738, 3.01518, 63.5921, 0.183723, 59.7221
0, 2100.00000, 115.142, -35.1422, 116.64, -150.664, 125.475, 86.6651, 0, 0, 2.97619, -58.2161, 3.01934, -173.738, 3.01513, 63.5913, 0.183813, 59.7218
0, 2160.00000, 115.141, -35.1433, 116.64, -150.664, 125.477, 86.6644, 0, 0, 2.97617, -58.2172, 3.01934, -173.738, 3.01508, 63.5906, 0.183894, 59.7215
0, 2220.00000, 115.141, -35.1442, 116.64, -150.664, 125.478, 86.6638, 0, 0, 2.97616, -58.2181, 3.01934, -173.738, 3.01504, 63.59, 0.183968, 59.7213
0, 2280.00000, 115.14, -35.1451, 116.64, -150.664, 125.48, 86.6632, 0, 0, 2.97614, -58.219, 3.01934, -173.738, 3.01501, 63.5894, 0.184033, 59.721
0, 2340.00000, 115.14, -35.1458, 116.64, -150.664, 125.481, 86.6627, 0, 0, 2.97613, -58.2197, 3.01934, -173.738, 3.01497, 63.5889, 0.184093, 59.7208
0, 2400.00000, 115.139, -35.1465, 116.64, -150.664, 125.482, 86.6623, 0, 0, 2.97612, -58.2204, 3.01934, -173.738, 3.01494, 63.5884, 0.184146, 59.7206
0, 2460.00000, 115.139, -35.1471, 116.64, -150.664, 125.483, 86.6619, 0, 0, 2.97611, -58.221, 3.01934, -173.738, 3.01492, 63.588, 0.184194, 59.7205
0, 2520.00000, 115.139, -35.1477, 116.64, -150.664, 125.484, 86.6615, 0, 0, 2.9761, -58.2216, 3.01934, -173.738, 3.01489, 63.5876, 0.184237, 59.7203
0, 2580.00000, 115.139, -35.1482, 116.64, -150.664, 125.485, 86.6612, 0, 0, 2.9761, -58.2221, 3.01934, -173.738, 3.01487, 63.5873, 0.184276, 59.7202
0, 2640.00000, 115.138, -35.1486, 116.64, -150.664, 125.486, 86.6609, 0, 0, 2.97609, -58.2225, 3.01934, -173.738, 3.01485, 63.587, 0.184311, 59.7201
0, 2700.00000, 115.138, -35.149, 116.64, -150.664, 125.487, 86.6606, 0, 0, 2.97608, -58.2229, 3.01934, -173.738, 3.01484, 63.5867, 0.184342, 59.72
0, 2760.00000, 115.486, -35.127, 116.979, -150.64, 125.883, 86.6925, 0, 0, 2.89647, -58.2009, 2.93818, -173.714, 2.91515, 63.6186, 0.198317, 60.0845
0, 2820.00000, 115.486, -35.1273, 116.979, -150.64, 125.883, 86.6923, 0, 0, 2.89647, -58.2012, 2.93818, -173.714, 2.91513, 63.6184, 0.198344, 60.0838
0, 2880.00000, 115.486, -35.1276, 116.979, -150.64, 125.884, 86.6921, 0, 0, 2.89646, -58.2015, 2.93818, -173.714, 2.91512, 63.6182, 0.198366, 60.0837
0, 2940.00000, 115.486, -35.1279, 116.979, -150.64, 125.884, 86.6919, 0, 0, 2.89646, -58.2018, 2.93818, -173.714, 2.91511, 63.618, 0.198386, 60.0836
0, 3000.00000, 115.485, -35.1281, 116.979, -150.64, 125.885, 86.6917, 0, 0, 2.89645, -58.202, 2.93818, -173.714, 2.9151, 63.6178, 0.198404, 60.0835
0, 3060.00000, 115.485, -35.1283, 116.979, -150.64, 125.885, 86.6916, 0, 0, 2.89645, -58.2022, 2.93818, -173.714, 2.91509, 63.6177, 0.198421, 60.0834
0, 3120.00000, 115.485, -35.1285, 116.979, -150.64, 125.886, 86.6915, 0, 0, 2.89645, -58.2024, 2.93818, -173.714, 2.91508, 63.6175, 0.198435, 60.0833
0, 3180.00000, 115.485, -35.1287, 116.979, -150.64, 125.886, 86.6913, 0, 0, 2.89645, -58.2026, 2.93818, -173.714, 2.91507, 63.6174, 0.198448, 60.0832
0, 3240.00000, 115.485, -35.1289, 116.979, -150.64, 125.886, 86.6912, 0, 0, 2.89644, -58.2028, 2.93818, -173.714, 2.91507, 63.6173, 0.19846, 60.0832
0, 3300.00000, 115.485, -35.129, 116.979, -150.64, 125.886, 86.6911, 0, 0, 2.89644, -58.2029, 2.93818, -173.714, 2.91506, 63.6172, 0.198471, 60.0831
0, 3360.00000, 115.485, -35.1291, 116.979, -150.64, 125.887, 86.691, 0, 0, 2.89644, -58.203, 2.93818, -173.714, 2.91505, 63.6171, 0.19848, 60.083
0, 3420.00000, 115.485, -35.1292, 116.979, -150.64, 125.887, 86.691, 0, 0, 2.89644, -58.2032, 2.93818, -173.714, 2.91505, 63.6171, 0.198489, 60.083
0, 3480.00000, 115.849, -35.1071, 116.974, -150.641, 126.086, 86.8385, 0, 0, 2.9066, -58.181, 2.93803, -173.715, 2.91045, 63.7646, 0.207253, 60.736
0, 3540.00000, 115.919, -34.9779, 117.243, -150.609, 126.091, 86.8433, 0, 0, 2.90856, -58.0518, 2.94555, -173.683, 2.91032, 63.7694, 0.208309, 60.5956
1, 0.00000, 115.919, -34.978, 117.243, -150.609, 126.091, 86.8432, 0, 0, 2.90856, -58.0519, 2.94555, -173.683, 2.91032, 63.7693, 0.208315, 60.5955
1, 60.00000, 116.191, -34.9645, 117.507, -150.593, 126.392, 86.8643, 0, 0, 2.61828, -58.0384, 2.65129, -173.666, 2.60682, 63.7904, 0.200507, 60.8069
1, 120.00000, 116.191, -34.9645, 117.507, -150.593, 126.393, 86.8642, 0, 0, 2.61828, -58.0384, 2.65129, -173.666, 2.60682, 63.7903, 0.200513, 60.8065
1, 180.00000, 116.191, -34.9646, 117.507, -150.593, 126.393, 86.8642, 0, 0, 2.61828, -58.0385, 2.65129, -173.666, 2.60681, 63.7903, 0.200517, 60.8064
1, 240.00000, 116.191, -34.9646, 117.507, -150.593, 126.393, 86.8642, 0, 0, 2.61828, -58.0386, 2.65129, -173.666, 2.60681, 63.7902, 0.200521, 60.8064
1, 300.00000, 116.191, -34.9647, 117.507, -150.593, 126.393, 86.8641, 0, 0, 2.61828, -58.0386, 2.65129, -173.666, 2.60681, 63.7902, 0.200524, 60.8064
1, 360.00000, 116.191, -34.9647, 117.507, -150.593, 126.393, 86.8641, 0, 0, 2.61828, -58.0387, 2.65129, -173.666, 2.60681, 63.7902, 0.200527, 60.8063
1, 420.00000, 116.191, -34.9648, 117.507, -150.593, 126.393, 86.8641, 0, 0, 2.61828, -58.0387, 2.65129, -173.666, 2.60681, 63.7901, 0.20053, 60.8063
1, 480.00000, 116.191, -34.9648, 117.507, -150.593, 126.393, 86.864, 0, 0, 2.61827, -58.0387, 2.65129, -173.666, 2.60681, 63.7901, 0.200532, 60.8063
1, 540.00000, 116.19, -34.9648, 117.507, -150.593, 126.393, 86.864, 0, 0, 2.61827, -58.0388, 2.65129, -173.666, 2.60681, 63.7901, 0.200534, 60.8063
1, 600.00000, 117.518, -34.5421, 118.886, -150.944, 126.353, 86.881, 0, 0, 2.65158, -57.6161, 2.68588, -174.017, 2.60763, 63.8071, 0.205327, 60.8239
1, 660.00000, 117.518, -34.5422, 118.886, -150.944, 126.353, 86.881, 0, 0, 2.65158, -57.6161, 2.68588, -174.017, 2.60763, 63.8071, 0.20533, 60.8239
1, 720.00000, 117.518, -34.5422, 118.886, -150.944, 126.353, 86.881, 0, 0, 2.65158, -57.6161, 2.68588, -174.017, 2.60763, 63.8071, 0.205331, 60.8238
1, 780.00000, 117.518, -34.5422, 118.886, -150.944, 126.353, 86.881, 0, 0, 2.65158, -57.6161, 2.68588, -174.017, 2.60763, 63.8071, 0.205333, 60.8238
1, 840.00000, 117.518, -34.5422, 118.886, -150.944, 126.353, 86.881, 0, 0, 2.65158, -57.6161, 2.68588, -174.017, 2.60763, 63.8071, 0.205334, 60.8238
1, 900.00000, 117.518, -34.5422, 118.886, -150.944, 126.353, 86.881, 0, 0, 2.65158, -57.6162, 2.68588, -174.017, 2.60763, 63.8071, 0.205335, 60.8238
1, 960.00000, 117.556, -34.5404, 118.922, -150.94, 126.393, 86.8838, 0, 0, 2.7666, -57.6143, 2.80234, -174.014, 2.71894, 63.8099, 0.216077, 60.8582
1, 1020.00000, 117.556, -34.5404, 118.922, -150.94, 126.393, 86.8838, 0, 0, 2.7666, -57.6144, 2.80234, -174.014, 2.71893, 63.8098, 0.21608, 60.8579
1, 1080.00000, 117.556, -34.5405, 118.922, -150.94, 126.393, 86.8838, 0, 0, 2.7666, -57.6144, 2.80234, -174.014, 2.71893, 63.8098, 0.216081, 60.8579
1, 1140.00000, 117.556, -34.5405, 118.922, -150.94, 126.393, 86.8837, 0, 0, 2.7666, -57.6144, 2.80234, -174.014, 2.71893, 63.8098, 0.216081, 60.8579
1, 1200.00000, 117.556, -34.5405, 118.922, -150.94, 126.393, 86.8837, 0, 0, 2.7666, -57.6144, 2.80234, -174.014, 2.71893, 63.8098, 0.216082, 60.8579
1, 1260.00000, 117.556, -34.5405, 118.922, -150.94, 126.393, 86.8837, 0, 0, 2.7666, -57.6144, 2.80234, -174.014, 2.71893, 63.8098, 0.216083, 60.8579
1, 1320.00000, 117.556, -34.5405, 118.922, -150.94, 126.393, 86.8837, 0, 0, 2.7666, -57.6144, 2.80234, -174.014, 2.71893, 63.8098, 0.216083, 60.8579
1, 1380.00000, 117.556, -34.5405, 118.922, -150.94, 126.393, 86.8837, 0, 0, 2.7666, -57.6144, 2.80234, -174.014, 2.71893, 63.8098, 0.216084, 60.8579
1, 1440.00000, 117.556, -34.5405, 118.922, -150.94, 126.393, 86.8837, 0, 0, 2.7666, -57.6144, 2.80234, -174.014, 2.71893, 63.8098, 0.216084, 60.8579
1, 1500.00000, 117.556, -34.5405, 118.922, -150.94, 126.393, 86.8837, 0, 0, 2.7666, -57.6144, 2.80234, -174.014, 2.71893, 63.8098, 0.216085, 60.8579
1, 1560.00000, 117.556, -34.5405, 118.922, -150.94, 126.393, 86.8837, 0, 0, 2.7666, -57.6144, 2.80234, -174.014, 2.71893, 63.8098, 0.216085, 60.8579
1, 1620.00000, 117.556, -34.5405, 118.922, -150.94, 126.393, 86.8837, 0, 0, 2.7666, -57.6144, 2.80234, -174.014, 2.71893, 63.8098, 0.216085, 60.8579
1, 1680.00000, 117.556, -34.5405, 118.922, -150.94, 126.393, 86.8837, 0, 0, 2.7666, -57.6144, 2.80234, -174.014, 2.71893, 63.8098, 0.216086, 60.8579
1, 1740.00000, 117.556, -34.5405, 118.922, -150.94, 126.393, 86.8837, 0, 0, 2.7666, -57.6144, 2.80234, -174.014, 2.71893, 63.8098, 0.216086, 60.8579
1, 1800.00000, 117.556, -34.5405, 118.922, -150.94, 126.393, 86.8837, 0, 0, 2.7666, -57.6145, 2.80234, -174.014, 2.71893, 63.8098, 0.216086, 60.8578
1, 1860.00000, 117.372, -34.5684, 119.064, -150.781, 126.85, 86.8468, 0, 0, 2.54986, -57.6423, 2.59071, -173.854, 2.50124, 63.7729, 0.215302, 60.5816
1, 1920.00000, 117.372, -34.5684, 119.064, -150.781, 126.85, 86.8468, 0, 0, 2.54986, -57.6423, 2.59071, -173.854, 2.50123, 63.7729, 0.215303, 60.5814
1, 1980.00000, 117.372, -34.5684, 119.064, -150.781, 126.85, 86.8468, 0, 0, 2.54986, -57.6423, 2.59071, -173.854, 2.50123, 63.7729, 0.215303, 60.5814
1, 2040.00000, 117.372, -34.5684, 119.064, -150.781, 126.85, 86.8468, 0, 0, 2.54986, -57.6423, 2.59071, -173.854, 2.50123, 63.7729, 0.215303, 60.5814
1, 2100.00000, 117.372, -34.5684, 119.064, -150.781, 126.85, 86.8468, 0, 0, 2.54986, -57.6423, 2.59071, -173.854, 2.50123, 63.7729, 0.215303, 60.5814
1, 2160.00000, 117.372, -34.5684, 119.064, -150.781, 126.85, 86.8468, 0, 0, 2.54986, -57.6423, 2.59071, -173.854, 2.50123, 63.7729, 0.215304, 60.5814
1, 2220.00000, 117.372, -34.5684, 119.064, -150.781, 126.85, 86.8468, 0, 0, 2.54986, -57.6423, 2.59071, -173.854, 2.50123, 63.7729, 0.215304, 60.5814
1, 2280.00000, 117.372, -34.5684, 119.064, -150.781, 126.85, 86.8468, 0, 0, 2.54986, -57.6423, 2.59071, -173.854, 2.50123, 63.7729, 0.215304, 60.5814
1, 2340.00000, 117.372, -34.5684, 119.064, -150.781, 126.85, 86.8468, 0, 0, 2.54986, -57.6423, 2.59071, -173.854, 2.50123, 63.7729, 0.215304, 60.5814
1, 2400.00000, 117.372, -34.5684, 119.064, -150.781, 126.85, 86.8468, 0, 0, 2.54986, -57.6423, 2.59071, -173.854, 2.50123, 63.7729, 0.215304, 60.5814
1, 2460.00000, 117.372, -34.5684, 119.064, -150.781, 126.85, 86.8468, 0, 0, 2.54986, -57.6423, 2.59071, -173.854, 2.50123, 63.7729, 0.215304, 60.5814
1, 2520.00000, 117.372, -34.5684, 119.064, -150.781, 126.85, 86.8468, 0, 0, 2.54986, -57.6423, 2.59071, -173.854, 2.50123, 63.7729, 0.215304, 60.5814
1, 2580.00000, 117.372, -34.5684, 119.064, -150.781, 126.85, 86.8468, 0, 0, 2.54986, -57.6423, 2.59071, -173.854, 2.50123, 63.7729, 0.215304, 60.5814
1, 2640.00000, 117.372, -34.5684, 119.064, -150.781, 126.85, 86.8468, 0, 0, 2.54986, -57.6423, 2.59071, -173.854, 2.50123, 63.7729, 0.215304, 60.5814
1, 2700.00000, 117.372, -34.5684, 119.064, -150.781, 126.85, 86.8468, 0, 0, 2.54986, -57.6423, 2.59071, -173.854, 2.50123, 63.7729, 0.215304, 60.5814
1, 2760.00000, 117.82, -34.536, 119.502, -150.737, 127.313, 86.8909, 0, 0, 2.91421, -57.6099, 2.96043, -173.811, 2.83621, 63.817, 0.26868, 60.9077
1, 2820.00000, 117.82, -34.536, 119.502, -150.737, 127.313, 86.8909, 0, 0, 2.91421, -57.6099, 2.96043, -173.811, 2.8362, 63.817, 0.268682, 60.9071
1, 2880.00000, 117.82, -34.536, 119.502, -150.737, 127.313, 86.8909, 0, 0, 2.91421, -57.6099, 2.96043, -173.811, 2.8362, 63.817, 0.268683, 60.9071
1, 2940.00000, 117.82, -34.536, 119.502, -150.737, 127.313, 86.8909, 0, 0, 2.91421, -57.6099, 2.96043, -173.811, 2.8362, 63.817, 0.268683, 60.9071
1, 3000.00000, 117.82, -34.536, 119.502, -150.737, 127.313, 86.8909, 0, 0, 2.91421, -57.6099, 2.96043, -173.811, 2.8362, 63.817, 0.268683, 60.9071
1, 3060.00000, 117.82, -34.536, 119.502, -150.737, 127.313, 86.8909, 0, 0, 2.91421, -57.6099, 2.96043, -173.811, 2.8362, 63.817, 0.268683, 60.9071
1, 3120.00000, 117.82, -34.536, 119.502, -150.737, 127.313, 86.8909, 0, 0, 2.91421, -57.6099, 2.96043, -173.811, 2.8362, 63.817, 0.268683, 60.9071
1, 3180.00000, 117.82, -34.536, 119.502, -150.737, 127.313, 86.8909, 0, 0, 2.91421, -57.6099, 2.96043, -173.811, 2.8362, 63.817, 0.268683, 60.9071
1, 3240.00000, 117.82, -34.536, 119.502, -150.737, 127.313, 86.8909, 0, 0, 2.91421, -57.6099, 2.96043, -173.811, 2.8362, 63.817, 0.268683, 60.9071
1, 3300.00000, 117.82, -34.536, 119.502, -150.737, 127.313, 86.8909, 0, 0, 2.91421, -57.6099, 2.96043, -173.811, 2.8362, 63.817, 0.268683, 60.9071
1, 3360.00000, 117.82, -34.536, 119.502, -150.737, 127.313, 86.8909, 0, 0, 2.91421, -57.6099, 2.96043, -173.811, 2.8362, 63.817, 0.268683, 60.9071
1, 3420.00000, 117.82, -34.536, 119.502, -150.737, 127.313, 86.8909, 0, 0, 2.91421, -57.6099, 2.96043, -173.811, 2.8362, 63.817, 0.268683, 60.9071
1, 3480.00000, 117.82, -34.536, 119.502, -150.737, 127.313, 86.8909, 0, 0, 2.91421, -57.6099, 2.96043, -173.811, 2.8362, 63.817, 0.268683, 60.9071
1, 3540.00000, 117.82, -34.536, 119.502, -150.737, 127.313, 86.8909, 0, 0, 2.91421, -57.6099, 2.96043, -173.811, 2.8362, 63.817, 0.268683, 60.9071
2, 0.00000, 117.82, -34.536, 119.502, -150.737, 127.313, 86.8909, 0, 0, 2.91421, -57.6099, 2.96043, -173.811, 2.8362, 63.817, 0.268683, 60.9071
2, 60.00000, 117.551, -34.5577, 119.24, -150.764, 127.037, 86.8628, 0, 0, 2.87426, -57.6316, 2.92018, -173.838, 2.81054, 63.7889, 0.251772, 60.7078
2, 120.00000, 117.551, -34.5577, 119.24, -150.764, 127.037, 86.8628, 0, 0, 2.87427, -57.6316, 2.92018, -173.838, 2.81055, 63.7889, 0.25177, 60.7081
2, 180.00000, 117.551, -34.5577, 119.24, -150.764, 127.037, 86.8628, 0, 0, 2.87427, -57.6316, 2.92018, -173.838, 2.81055, 63.7889, 0.25177, 60.7081
2, 240.00000, 117.551, -34.5577, 119.24, -150.764, 127.037, 86.8628, 0, 0, 2.87427, -57.6316, 2.92018, -173.838, 2.81055, 63.7889, 0.25177, 60.7081
2, 300.00000, 117.551, -34.5577, 119.24, -150.764, 127.037, 86.8628, 0, 0, 2.87427, -57.6316, 2.92018, -173.838, 2.81055, 63.7889, 0.25177, 60.7081
2, 360.00000, 117.551, -34.5577, 119.24, -150.764, 127.037, 86.8628, 0, 0, 2.87427, -57.6316, 2.92018, -173.838, 2.81055, 63.7889, 0.25177, 60.7081
2, 420.00000, 117.551, -34.5577, 119.24, -150.764, 127.037, 86.8628, 0, 0, 2.87427, -57.6316, 2.92018, -173.838, 2.81055, 63.7889, 0.25177, 60.7081
2, 480.00000, 117.551, -34.5577, 119.24, -150.764, 127.037, 86.8628, 0, 0, 2.87427, -57.6316, 2.92018, -173.838, 2.81055, 63.7889, 0.25177, 60.7081
2, 540.00000, 117.551, -34.5577, 119.24, -150.764, 127.037, 86.8628, 0, 0, 2.87427, -57.6316, 2.92018, -173.838, 2.81055, 63.7889, 0.25177, 60.7081
2, 600.00000, 117.551, -34.5577, 119.24, -150.764, 127.037, 86.8628, 0, 0, 2.87427, -57.6316, 2.92018, -173.838, 2.81055, 63.7889, 0.25177, 60.7081
2, 660.00000, 117.551, -34.5577, 119.24, -150.764, 127.037, 86.8628, 0, 0, 2.87427, -57.6316, 2.92018, -173.838, 2.81055, 63.7889, 0.25177, 60.7081
2, 720.00000, 117.551, -34.5577, 119.24, -150.764, 127.037, 86.8628, 0, 0, 2.87427, -57.6316, 2.92018, -173.838, 2.81055, 63.7889, 0.25177, 60.7081
2, 780.00000, 117.551, -34.5577, 119.24, -150.764, 127.037, 86.8628, 0, 0, 2.87427, -57.6316, 2.92018, -173.838, 2.81055, 63.7889, 0.25177, 60.7081
