hour,t(sec),"P1 (kW)","Q1 (kvar)","P2 (kW)","Q2 (kvar)","P3 (kW)","Q3 (kvar)","P4 (kW)","Q4 (kvar)"
0, 60.00000, 0.373834, 0.159251, 0.372575, 0.158715, 0.381228, 0.162401, 0, 0
0, 120.00000, 0.373831, 0.159251, 0.372571, 0.158715, 0.381225, 0.162401, 0, 0
0, 180.00000, 0.373831, 0.159251, 0.372571, 0.158715, 0.381225, 0.162401, 0, 0
0, 240.00000, 0.373831, 0.159251, 0.372571, 0.158715, 0.381225, 0.162401, 0, 0
0, 300.00000, 0.373831, 0.159251, 0.372571, 0.158715, 0.381225, 0.162401, 0, 0
0, 360.00000, 0.373831, 0.159251, 0.372571, 0.158715, 0.381225, 0.162401, 0, 0
0, 420.00000, 0.373831, 0.159251, 0.372571, 0.158715, 0.381225, 0.162401, 0, 0
0, 480.00000, 0.342622, 0.145959, 0.341198, 0.145352, 0.348927, 0.148644, 0, 0
0, 540.00000, 0.342626, 0.145958, 0.341202, 0.145352, 0.348925, 0.148641, 0, 0
0, 600.00000, 0.342626, 0.145958, 0.341202, 0.145352, 0.348925, 0.148641, 0, 0
0, 660.00000, 0.342626, 0.145958, 0.341202, 0.145352, 0.348925, 0.148641, 0, 0
0, 720.00000, 0.342626, 0.145958, 0.341202, 0.145352, 0.348925, 0.148641, 0, 0
0, 780.00000, 0.342626, 0.145958, 0.341202, 0.145352, 0.348925, 0.148641, 0, 0
0, 840.00000, 0.342626, 0.145958, 0.341202, 0.145352, 0.348925, 0.148641, 0, 0
0, 900.00000, 0.342626, 0.145958, 0.341202, 0.145352, 0.348925, 0.148641, 0, 0
0, 960.00000, 0.34045, 0.145028, 0.336758, 0.143457, 0.342919, 0.146081, 0, 0
0, 1020.00000, 0.340444, 0.145028, 0.336756, 0.143457, 0.342914, 0.146081, 0, 0
0, 1080.00000, 0.340444, 0.145028, 0.336756, 0.143457, 0.342914, 0.146081, 0, 0
0, 1140.00000, 0.342265, 0.145807, 0.336758, 0.143458, 0.343529, 0.146343, 0, 0
0, 1200.00000, 0.342269, 0.145806, 0.336758, 0.143458, 0.343531, 0.146343, 0, 0
0, 1260.00000, 0.342269, 0.145806, 0.336758, 0.143458, 0.343531, 0.146343, 0, 0
0, 1320.00000, 0.342269, 0.145806, 0.336758, 0.143458, 0.343531, 0.146343, 0, 0
0, 1380.00000, 0.342269, 0.145806, 0.336758, 0.143458, 0.343531, 0.146343, 0, 0
0, 1440.00000, 0.342269, 0.145806, 0.336758, 0.143458, 0.343531, 0.146343, 0, 0
0, 1500.00000, 0.342269, 0.145806, 0.336758, 0.143458, 0.343531, 0.146343, 0, 0
0, 1560.00000, 0.342269, 0.145806, 0.336758, 0.143458, 0.343531, 0.146343, 0, 0
0, 1620.00000, 0.342269, 0.145806, 0.336758, 0.143458, 0.343531, 0.146343, 0, 0
0, 1680.00000, 0.342269, 0.145806, 0.336758, 0.143458, 0.343531, 0.146343, 0, 0
0, 1740.00000, 0.342269, 0.145806, 0.336758, 0.143458, 0.343531, 0.146343, 0, 0
0, 1800.00000, 0.337211, 0.143651, 0.330967, 0.140991, 0.343868, 0.146488, 0, 0
0, 1860.00000, 0.337209, 0.143651, 0.330965, 0.14099, 0.343869, 0.146487, 0, 0
0, 1920.00000, 0.337209, 0.143651, 0.330965, 0.14099, 0.343869, 0.146487, 0, 0
0, 1980.00000, 0.337209, 0.143651, 0.330965, 0.14099, 0.343869, 0.146487, 0, 0
0, 2040.00000, 0.337209, 0.143651, 0.330965, 0.14099, 0.343869, 0.146487, 0, 0
0, 2100.00000, 0.337209, 0.143651, 0.330965, 0.14099, 0.343869, 0.146487, 0, 0
0, 2160.00000, 0.337209, 0.143651, 0.330965, 0.14099, 0.343869, 0.146487, 0, 0
0, 2220.00000, 0.337209, 0.143651, 0.330965, 0.14099, 0.343869, 0.146487, 0, 0
0, 2280.00000, 0.337209, 0.143651, 0.330965, 0.14099, 0.343869, 0.146487, 0, 0
0, 2340.00000, 0.337209, 0.143651, 0.330965, 0.14099, 0.343869, 0.146487, 0, 0
0, 2400.00000, 0.337209, 0.143651, 0.330965, 0.14099, 0.343869, 0.146487, 0, 0
0, 2460.00000, 0.337209, 0.143651, 0.330965, 0.14099, 0.343869, 0.146487, 0, 0
0, 2520.00000, 0.337209, 0.143651, 0.330965, 0.14099, 0.343869, 0.146487, 0, 0
0, 2580.00000, 0.337209, 0.143651, 0.330965, 0.14099, 0.343869, 0.146487, 0, 0
0, 2640.00000, 0.337209, 0.143651, 0.330965, 0.14099, 0.343869, 0.146487, 0, 0
0, 2700.00000, 0.337209, 0.143651, 0.330965, 0.14099, 0.343869, 0.146487, 0, 0
0, 2760.00000, 0.337922, 0.143955, 0.332855, 0.141797, 0.343822, 0.146468, 0, 0
0, 2820.00000, 0.337924, 0.143955, 0.332859, 0.141797, 0.343821, 0.146467, 0, 0
0, 2880.00000, 0.337924, 0.143955, 0.332859, 0.141797, 0.343821, 0.146467, 0, 0
0, 2940.00000, 0.337924, 0.143955, 0.332859, 0.141797, 0.343821, 0.146467, 0, 0
0, 3000.00000, 0.337924, 0.143955, 0.332859, 0.141797, 0.343821, 0.146467, 0, 0
0, 3060.00000, 0.337924, 0.143955, 0.332859, 0.141797, 0.343821, 0.146467, 0, 0
0, 3120.00000, 0.337924, 0.143955, 0.332859, 0.141797, 0.343821, 0.146467, 0, 0
0, 3180.00000, 0.337924, 0.143955, 0.332859, 0.141797, 0.343821, 0.146467, 0, 0
0, 3240.00000, 0.337924, 0.143955, 0.332859, 0.141797, 0.343821, 0.146467, 0, 0
0, 3300.00000, 0.337924, 0.143955, 0.332859, 0.141797, 0.343821, 0.146467, 0, 0
0, 3360.00000, 0.337924, 0.143955, 0.332859, 0.141797, 0.343821, 0.146467, 0, 0
0, 3420.00000, 0.337924, 0.143955, 0.332859, 0.141797, 0.343821, 0.146467, 0, 0
0, 3480.00000, 0.337924, 0.143955, 0.332859, 0.141797, 0.343821, 0.146467, 0, 0
0, 3540.00000, 0.337924, 0.143955, 0.332859, 0.141797, 0.343821, 0.146467, 0, 0
1, 0.00000, 0.337924, 0.143955, 0.332859, 0.141797, 0.343821, 0.146467, 0, 0
1, 60.00000, 0.338485, 0.144194, 0.334579, 0.142532, 0.343801, 0.146459, 0, 0
1, 120.00000, 0.338486, 0.144194, 0.334582, 0.142531, 0.343801, 0.146458, 0, 0
1, 180.00000, 0.338486, 0.144194, 0.334582, 0.142531, 0.343801, 0.146458, 0, 0
1, 240.00000, 0.338486, 0.144194, 0.334582, 0.142531, 0.343801, 0.146458, 0, 0
1, 300.00000, 0.338486, 0.144194, 0.334582, 0.142531, 0.343801, 0.146458, 0, 0
1, 360.00000, 0.338486, 0.144194, 0.334582, 0.142531, 0.343801, 0.146458, 0, 0
1, 420.00000, 0.338486, 0.144194, 0.334582, 0.142531, 0.343801, 0.146458, 0, 0
1, 480.00000, 0.338486, 0.144194, 0.334582, 0.142531, 0.343801, 0.146458, 0, 0
1, 540.00000, 0.338486, 0.144194, 0.334582, 0.142531, 0.343801, 0.146458, 0, 0
1, 600.00000, 0.338486, 0.144194, 0.334582, 0.142531, 0.343801, 0.146458, 0, 0
1, 660.00000, 0.338486, 0.144194, 0.334582, 0.142531, 0.343801, 0.146458, 0, 0
1, 720.00000, 0.338486, 0.144194, 0.334582, 0.142531, 0.343801, 0.146458, 0, 0
1, 780.00000, 0.338686, 0.14428, 0.336646, 0.143411, 0.347105, 0.147867, 0, 0
1, 840.00000, 0.338686, 0.144279, 0.336647, 0.143411, 0.347109, 0.147868, 0, 0
1, 900.00000, 0.338686, 0.144279, 0.336647, 0.143411, 0.347109, 0.147868, 0, 0
1, 960.00000, 0.338686, 0.144279, 0.336647, 0.143411, 0.347109, 0.147868, 0, 0
1, 1020.00000, 0.338686, 0.144279, 0.336647, 0.143411, 0.347109, 0.147868, 0, 0
1, 1080.00000, 0.338686, 0.144279, 0.336647, 0.143411, 0.347109, 0.147868, 0, 0
1, 1140.00000, 0.338686, 0.144279, 0.336647, 0.143411, 0.347109, 0.147868, 0, 0
1, 1200.00000, 0.338686, 0.144279, 0.336647, 0.143411, 0.347109, 0.147868, 0, 0
1, 1260.00000, 0.338686, 0.144279, 0.336647, 0.143411, 0.347109, 0.147868, 0, 0
1, 1320.00000, 0.338686, 0.144279, 0.336647, 0.143411, 0.347109, 0.147868, 0, 0
1, 1380.00000, 0.338686, 0.144279, 0.336647, 0.143411, 0.347109, 0.147868, 0, 0
1, 1440.00000, 0.338686, 0.144279, 0.336647, 0.143411, 0.347109, 0.147868, 0, 0
1, 1500.00000, 0.338686, 0.144279, 0.336647, 0.143411, 0.347109, 0.147868, 0, 0
1, 1560.00000, 0.338686, 0.144279, 0.336647, 0.143411, 0.347109, 0.147868, 0, 0
1, 1620.00000, 0.338686, 0.144279, 0.336647, 0.143411, 0.347109, 0.147868, 0, 0
1, 1680.00000, 0.338686, 0.144279, 0.336647, 0.143411, 0.347109, 0.147868, 0, 0
1, 1740.00000, 0.338686, 0.144279, 0.336647, 0.143411, 0.347109, 0.147868, 0, 0
1, 1800.00000, 0.338686, 0.144279, 0.336647, 0.143411, 0.347109, 0.147868, 0, 0
1, 1860.00000, 0.338686, 0.144279, 0.336647, 0.143411, 0.347109, 0.147868, 0, 0
1, 1920.00000, 0.338686, 0.144279, 0.336647, 0.143411, 0.347109, 0.147868, 0, 0
1, 1980.00000, 0.338686, 0.144279, 0.336647, 0.143411, 0.347109, 0.147868, 0, 0
1, 2040.00000, 0.338686, 0.144279, 0.336647, 0.143411, 0.347109, 0.147868, 0, 0
1, 2100.00000, 0.338686, 0.144279, 0.336647, 0.143411, 0.347109, 0.147868, 0, 0
1, 2160.00000, 0.338686, 0.144279, 0.336647, 0.143411, 0.347109, 0.147868, 0, 0
1, 2220.00000, 0.343771, 0.146446, 0.342536, 0.145921, 0.346772, 0.147724, 0, 0
1, 2280.00000, 0.343772, 0.146446, 0.342539, 0.145921, 0.346771, 0.147724, 0, 0
1, 2340.00000, 0.343772, 0.146446, 0.342539, 0.145921, 0.346771, 0.147724, 0, 0
1, 2400.00000, 0.343772, 0.146446, 0.342539, 0.145921, 0.346771, 0.147724, 0, 0
1, 2460.00000, 0.343772, 0.146446, 0.342539, 0.145921, 0.346771, 0.147724, 0, 0
1, 2520.00000, 0.343772, 0.146446, 0.342539, 0.145921, 0.346771, 0.147724, 0, 0
1, 2580.00000, 0.343772, 0.146446, 0.342539, 0.145921, 0.346771, 0.147724, 0, 0
1, 2640.00000, 0.343772, 0.146446, 0.342539, 0.145921, 0.346771, 0.147724, 0, 0
1, 2700.00000, 0.343772, 0.146446, 0.342539, 0.145921, 0.346771, 0.147724, 0, 0
1, 2760.00000, 0.343772, 0.146446, 0.342539, 0.145921, 0.346771, 0.147724, 0, 0
1, 2820.00000, 0.343772, 0.146446, 0.342539, 0.145921, 0.346771, 0.147724, 0, 0
1, 2880.00000, 0.343772, 0.146446, 0.342539, 0.145921, 0.346771, 0.147724, 0, 0
1, 2940.00000, 0.343772, 0.146446, 0.342539, 0.145921, 0.346771, 0.147724, 0, 0
1, 3000.00000, 0.343772, 0.146446, 0.342539, 0.145921, 0.346771, 0.147724, 0, 0
1, 3060.00000, 0.343772, 0.146446, 0.342539, 0.145921, 0.346771, 0.147724, 0, 0
1, 3120.00000, 0.343772, 0.146446, 0.342539, 0.145921, 0.346771, 0.147724, 0, 0
1, 3180.00000, 0.343772, 0.146446, 0.342539, 0.145921, 0.346771, 0.147724, 0, 0
1, 3240.00000, 0.343772, 0.146446, 0.342539, 0.145921, 0.346771, 0.147724, 0, 0
1, 3300.00000, 0.343772, 0.146446, 0.342539, 0.145921, 0.346771, 0.147724, 0, 0
1, 3360.00000, 0.343772, 0.146446, 0.342539, 0.145921, 0.346771, 0.147724, 0, 0
1, 3420.00000, 0.343772, 0.146446, 0.342539, 0.145921, 0.346771, 0.147724, 0, 0
1, 3480.00000, 0.343772, 0.146446, 0.342539, 0.145921, 0.346771, 0.147724, 0, 0
1, 3540.00000, 0.343772, 0.146446, 0.342539, 0.145921, 0.346771, 0.147724, 0, 0
2, 0.00000, 0.343772, 0.146446, 0.342539, 0.145921, 0.346771, 0.147724, 0, 0
2, 60.00000, 0.343772, 0.146446, 0.342539, 0.145921, 0.346771, 0.147724, 0, 0
2, 120.00000, 0.343772, 0.146446, 0.342539, 0.145921, 0.346771, 0.147724, 0, 0
2, 180.00000, 0.343772, 0.146446, 0.342539, 0.145921, 0.346771, 0.147724, 0, 0
2, 240.00000, 0.343772, 0.146446, 0.342539, 0.145921, 0.346771, 0.147724, 0, 0
2, 300.00000, 0.343772, 0.146446, 0.342539, 0.145921, 0.346771, 0.147724, 0, 0
2, 360.00000, 0.343772, 0.146446, 0.342539, 0.145921, 0.346771, 0.147724, 0, 0
2, 420.00000, 0.343772, 0.146446, 0.342539, 0.145921, 0.346771, 0.147724, 0, 0
2, 480.00000, 0.343772, 0.146446, 0.342539, 0.145921, 0.346771, 0.147724, 0, 0
2, 540.00000, 0.343772, 0.146446, 0.342539, 0.145921, 0.346771, 0.147724, 0, 0
2, 600.00000, 0.343772, 0.146446, 0.342539, 0.145921, 0.346771, 0.147724, 0, 0
2, 660.00000, 0.343772, 0.146446, 0.342539, 0.145921, 0.346771, 0.147724, 0, 0
2, 720.00000, 0.343772, 0.146446, 0.342539, 0.145921, 0.346771, 0.147724, 0, 0
2, 780.00000, 0.343772, 0.146446, 0.342539, 0.145921, 0.346771, 0.147724, 0, 0
2, 840.00000, 0.344111, 0.146591, 0.347098, 0.147863, 0.348929, 0.148645, 0, 0
2, 900.00000, 0.34411, 0.14659, 0.347099, 0.147864, 0.348925, 0.148641, 0, 0
2, 960.00000, 0.34411, 0.14659, 0.347099, 0.147864, 0.348925, 0.148641, 0, 0
2, 1020.00000, 0.34411, 0.14659, 0.347099, 0.147864, 0.348925, 0.148641, 0, 0
2, 1080.00000, 0.34411, 0.14659, 0.347099, 0.147864, 0.348925, 0.148641, 0, 0
2, 1140.00000, 0.34411, 0.14659, 0.347099, 0.147864, 0.348925, 0.148641, 0, 0
2, 1200.00000, 0.34411, 0.14659, 0.347099, 0.147864, 0.348925, 0.148641, 0, 0
2, 1260.00000, 0.34411, 0.14659, 0.347099, 0.147864, 0.348925, 0.148641, 0, 0
2, 1320.00000, 0.34411, 0.14659, 0.347099, 0.147864, 0.348925, 0.148641, 0, 0
2, 1380.00000, 0.34411, 0.14659, 0.347099, 0.147864, 0.348925, 0.148641, 0, 0
2, 1440.00000, 0.34411, 0.14659, 0.347099, 0.147864, 0.348925, 0.148641, 0, 0
2, 1500.00000, 0.34411, 0.14659, 0.347099, 0.147864, 0.348925, 0.148641, 0, 0
2, 1560.00000, 0.34411, 0.14659, 0.347099, 0.147864, 0.348925, 0.148641, 0, 0
2, 1620.00000, 0.34411, 0.14659, 0.347099, 0.147864, 0.348925, 0.148641, 0, 0
2, 1680.00000, 0.34411, 0.14659, 0.347099, 0.147864, 0.348925, 0.148641, 0, 0
2, 1740.00000, 0.34411, 0.14659, 0.347099, 0.147864, 0.348925, 0.148641, 0, 0
2, 1800.00000, 0.34411, 0.14659, 0.347099, 0.147864, 0.348925, 0.148641, 0, 0
2, 1860.00000, 0.34411, 0.14659, 0.347099, 0.147864, 0.348925, 0.148641, 0, 0
2, 1920.00000, 0.34411, 0.14659, 0.347099, 0.147864, 0.348925, 0.148641, 0, 0
2, 1980.00000, 0.34411, 0.14659, 0.347099, 0.147864, 0.348925, 0.148641, 0, 0
2, 2040.00000, 0.34411, 0.14659, 0.347099, 0.147864, 0.348925, 0.148641, 0, 0
2, 2100.00000, 0.34411, 0.14659, 0.347099, 0.147864, 0.348925, 0.148641, 0, 0
2, 2160.00000, 0.34411, 0.14659, 0.347099, 0.147864, 0.348925, 0.148641, 0, 0
2, 2220.00000, 0.34411, 0.14659, 0.347099, 0.147864, 0.348925, 0.148641, 0, 0
2, 2280.00000, 0.34411, 0.14659, 0.347099, 0.147864, 0.348925, 0.148641, 0, 0
2, 2340.00000, 0.34411, 0.14659, 0.347099, 0.147864, 0.348925, 0.148641, 0, 0
2, 2400.00000, 0.347678, 0.148114, 0.347089, 0.147859, 0.34893, 0.148646, 0, 0
2, 2460.00000, 0.347684, 0.148113, 0.347087, 0.147859, 0.348925, 0.148641, 0, 0
2, 2520.00000, 0.347684, 0.148113, 0.347087, 0.147859, 0.348925, 0.148641, 0, 0
2, 2580.00000, 0.347684, 0.148113, 0.347087, 0.147859, 0.348925, 0.148641, 0, 0
2, 2640.00000, 0.347684, 0.148113, 0.347087, 0.147859, 0.348925, 0.148641, 0, 0
2, 2700.00000, 0.347099, 0.147863, 0.339829, 0.144767, 0.346255, 0.147502, 0, 0
2, 2760.00000, 0.347099, 0.147864, 0.339829, 0.144767, 0.346249, 0.147501, 0, 0
2, 2820.00000, 0.347099, 0.147864, 0.339829, 0.144767, 0.346249, 0.147501, 0, 0
2, 2880.00000, 0.347099, 0.147864, 0.339829, 0.144767, 0.346249, 0.147501, 0, 0
2, 2940.00000, 0.347099, 0.147864, 0.339829, 0.144767, 0.346249, 0.147501, 0, 0
2, 3000.00000, 0.347099, 0.147864, 0.339829, 0.144767, 0.346249, 0.147501, 0, 0
2, 3060.00000, 0.347127, 0.147876, 0.340459, 0.145035, 0.348143, 0.148311, 0, 0
2, 3120.00000, 0.347126, 0.147875, 0.34046, 0.145035, 0.34815, 0.148311, 0, 0
2, 3180.00000, 0.347126, 0.147875, 0.34046, 0.145035, 0.34815, 0.148311, 0, 0
2, 3240.00000, 0.347126, 0.147875, 0.34046, 0.145035, 0.34815, 0.148311, 0, 0
2, 3300.00000, 0.347126, 0.147875, 0.34046, 0.145035, 0.34815, 0.148311, 0, 0
2, 3360.00000, 0.347126, 0.147875, 0.34046, 0.145035, 0.34815, 0.148311, 0, 0
2, 3420.00000, 0.347126, 0.147875, 0.34046, 0.145035, 0.34815, 0.148311, 0, 0
2, 3480.00000, 0.347126, 0.147875, 0.34046, 0.145035, 0.34815, 0.148311, 0, 0
2, 3540.00000, 0.347126, 0.147875, 0.34046, 0.145035, 0.34815, 0.148311, 0, 0
3, 0.00000, 0.347126, 0.147875, 0.34046, 0.145035, 0.34815, 0.148311, 0, 0
3, 60.00000, 0.347126, 0.147875, 0.34046, 0.145035, 0.34815, 0.148311, 0, 0
3, 120.00000, 0.347126, 0.147875, 0.34046, 0.145035, 0.34815, 0.148311, 0, 0
3, 180.00000, 0.347126, 0.147875, 0.34046, 0.145035, 0.34815, 0.148311, 0, 0
3, 240.00000, 0.347126, 0.147875, 0.34046, 0.145035, 0.34815, 0.148311, 0, 0
3, 300.00000, 0.347126, 0.147875, 0.34046, 0.145035, 0.34815, 0.148311, 0, 0
3, 360.00000, 0.347126, 0.147875, 0.34046, 0.145035, 0.34815, 0.148311, 0, 0
3, 420.00000, 0.347126, 0.147875, 0.34046, 0.145035, 0.34815, 0.148311, 0, 0
3, 480.00000, 0.347126, 0.147875, 0.34046, 0.145035, 0.34815, 0.148311, 0, 0
3, 540.00000, 0.347126, 0.147875, 0.34046, 0.145035, 0.34815, 0.148311, 0, 0
3, 600.00000, 0.347126, 0.147875, 0.34046, 0.145035, 0.34815, 0.148311, 0, 0
3, 660.00000, 0.347126, 0.147875, 0.34046, 0.145035, 0.34815, 0.148311, 0, 0
3, 720.00000, 0.347126, 0.147875, 0.34046, 0.145035, 0.34815, 0.148311, 0, 0
3, 780.00000, 0.347126, 0.147875, 0.34046, 0.145035, 0.34815, 0.148311, 0, 0
3, 840.00000, 0.347126, 0.147875, 0.34046, 0.145035, 0.34815, 0.148311, 0, 0
3, 900.00000, 0.347126, 0.147875, 0.34046, 0.145035, 0.34815, 0.148311, 0, 0
3, 960.00000, 0.347126, 0.147875, 0.34046, 0.145035, 0.34815, 0.148311, 0, 0
3, 1020.00000, 0.347126, 0.147875, 0.34046, 0.145035, 0.34815, 0.148311, 0, 0
3, 1080.00000, 0.347126, 0.147875, 0.34046, 0.145035, 0.34815, 0.148311, 0, 0
3, 1140.00000, 0.347126, 0.147875, 0.34046, 0.145035, 0.34815, 0.148311, 0, 0
3, 1200.00000, 0.347126, 0.147875, 0.34046, 0.145035, 0.34815, 0.148311, 0, 0
3, 1260.00000, 0.347126, 0.147875, 0.34046, 0.145035, 0.34815, 0.148311, 0, 0
3, 1320.00000, 0.347126, 0.147875, 0.34046, 0.145035, 0.34815, 0.148311, 0, 0
3, 1380.00000, 0.347126, 0.147875, 0.34046, 0.145035, 0.34815, 0.148311, 0, 0
3, 1440.00000, 0.347126, 0.147875, 0.34046, 0.145035, 0.34815, 0.148311, 0, 0
3, 1500.00000, 0.347126, 0.147875, 0.34046, 0.145035, 0.34815, 0.148311, 0, 0
3, 1560.00000, 0.347126, 0.147875, 0.34046, 0.145035, 0.34815, 0.148311, 0, 0
3, 1620.00000, 0.347126, 0.147875, 0.34046, 0.145035, 0.34815, 0.148311, 0, 0
3, 1680.00000, 0.347126, 0.147875, 0.34046, 0.145035, 0.34815, 0.148311, 0, 0
3, 1740.00000, 0.347126, 0.147875, 0.34046, 0.145035, 0.34815, 0.148311, 0, 0
3, 1800.00000, 0.347126, 0.147875, 0.34046, 0.145035, 0.34815, 0.148311, 0, 0
3, 1860.00000, 0.347126, 0.147875, 0.34046, 0.145035, 0.34815, 0.148311, 0, 0
3, 1920.00000, 0.347126, 0.147875, 0.34046, 0.145035, 0.34815, 0.148311, 0, 0
3, 1980.00000, 0.347126, 0.147875, 0.34046, 0.145035, 0.34815, 0.148311, 0, 0
3, 2040.00000, 0.347126, 0.147875, 0.34046, 0.145035, 0.34815, 0.148311, 0, 0
3, 2100.00000, 0.347126, 0.147875, 0.34046, 0.145035, 0.34815, 0.148311, 0, 0
3, 2160.00000, 0.347126, 0.147875, 0.34046, 0.145035, 0.34815, 0.148311, 0, 0
3, 2220.00000, 0.347126, 0.147875, 0.34046, 0.145035, 0.34815, 0.148311, 0, 0
3, 2280.00000, 0.347126, 0.147875, 0.34046, 0.145035, 0.34815, 0.148311, 0, 0
3, 2340.00000, 0.347126, 0.147875, 0.34046, 0.145035, 0.34815, 0.148311, 0, 0
3, 2400.00000, 0.347126, 0.147875, 0.34046, 0.145035, 0.34815, 0.148311, 0, 0
3, 2460.00000, 0.347126, 0.147875, 0.34046, 0.145035, 0.34815, 0.148311, 0, 0
3, 2520.00000, 0.347126, 0.147875, 0.34046, 0.145035, 0.34815, 0.148311, 0, 0
3, 2580.00000, 0.347126, 0.147875, 0.34046, 0.145035, 0.34815, 0.148311, 0, 0
3, 2640.00000, 0.347126, 0.147875, 0.34046, 0.145035, 0.34815, 0.148311, 0, 0
3, 2700.00000, 0.347126, 0.147875, 0.34046, 0.145035, 0.34815, 0.148311, 0, 0
3, 2760.00000, 0.347126, 0.147875, 0.34046, 0.145035, 0.34815, 0.148311, 0, 0
3, 2820.00000, 0.347126, 0.147875, 0.34046, 0.145035, 0.34815, 0.148311, 0, 0
3, 2880.00000, 0.347126, 0.147875, 0.34046, 0.145035, 0.34815, 0.148311, 0, 0
3, 2940.00000, 0.347126, 0.147875, 0.34046, 0.145035, 0.34815, 0.148311, 0, 0
3, 3000.00000, 0.347126, 0.147875, 0.34046, 0.145035, 0.34815, 0.148311, 0, 0
3, 3060.00000, 0.347126, 0.147875, 0.34046, 0.145035, 0.34815, 0.148311, 0, 0
3, 3120.00000, 0.347126, 0.147875, 0.34046, 0.145035, 0.34815, 0.148311, 0, 0
3, 3180.00000, 0.338764, 0.144312, 0.332318, 0.141566, 0.339816, 0.14476, 0, 0
3, 3240.00000, 0.338762, 0.144312, 0.332317, 0.141566, 0.339814, 0.14476, 0, 0
3, 3300.00000, 0.338762, 0.144312, 0.332317, 0.141566, 0.339814, 0.14476, 0, 0
3, 3360.00000, 0.338762, 0.144312, 0.332317, 0.141566, 0.339814, 0.14476, 0, 0
3, 3420.00000, 0.338762, 0.144312, 0.332317, 0.141566, 0.339814, 0.14476, 0, 0
3, 3480.00000, 0.338762, 0.144312, 0.332317, 0.141566, 0.339814, 0.14476, 0, 0
3, 3540.00000, 0.338762, 0.144312, 0.332317, 0.141566, 0.339814, 0.14476, 0, 0
4, 0.00000, 0.338637, 0.144259, 0.330713, 0.140882, 0.337019, 0.143569, 0, 0
4, 60.00000, 0.338637, 0.144259, 0.330711, 0.140882, 0.337015, 0.143568, 0, 0
4, 120.00000, 0.338637, 0.144259, 0.330711, 0.140882, 0.337015, 0.143568, 0, 0
4, 180.00000, 0.338637, 0.144259, 0.330711, 0.140882, 0.337015, 0.143568, 0, 0
4, 240.00000, 0.338637, 0.144259, 0.330711, 0.140882, 0.337015, 0.143568, 0, 0
4, 300.00000, 0.338637, 0.144259, 0.330711, 0.140882, 0.337015, 0.143568, 0, 0
4, 360.00000, 0.338637, 0.144259, 0.330711, 0.140882, 0.337015, 0.143568, 0, 0
4, 420.00000, 0.338637, 0.144259, 0.330711, 0.140882, 0.337015, 0.143568, 0, 0
4, 480.00000, 0.338637, 0.144259, 0.330711, 0.140882, 0.337015, 0.143568, 0, 0
4, 540.00000, 0.338637, 0.144259, 0.330711, 0.140882, 0.337015, 0.143568, 0, 0
4, 600.00000, 0.338637, 0.144259, 0.330711, 0.140882, 0.337015, 0.143568, 0, 0
4, 660.00000, 0.338637, 0.144259, 0.330711, 0.140882, 0.337015, 0.143568, 0, 0
4, 720.00000, 0.338637, 0.144259, 0.330711, 0.140882, 0.337015, 0.143568, 0, 0
