hour,t(sec),"P1 (kW)","Q1 (kvar)","P2 (kW)","Q2 (kvar)","P3 (kW)","Q3 (kvar)","P4 (kW)","Q4 (kvar)"
0, 60.00000, 0.699794, 0.298111, 0.710279, 0.302567, 0.73889, 0.314747, 0, 0
0, 120.00000, 0.699717, 0.298079, 0.710273, 0.302565, 0.738886, 0.314747, 0, 0
0, 180.00000, 0.699647, 0.298049, 0.710267, 0.302563, 0.738883, 0.314748, 0, 0
0, 240.00000, 0.699584, 0.298022, 0.710261, 0.302561, 0.73888, 0.314748, 0, 0
0, 300.00000, 0.699526, 0.297997, 0.710255, 0.30256, 0.738877, 0.314748, 0, 0
0, 360.00000, 0.699473, 0.297975, 0.71025, 0.302558, 0.738874, 0.314748, 0, 0
0, 420.00000, 0.699425, 0.297954, 0.710245, 0.302557, 0.738871, 0.314747, 0, 0
0, 480.00000, 0.642992, 0.273913, 0.652913, 0.278135, 0.667611, 0.284392, 0, 0
0, 540.00000, 0.642958, 0.273898, 0.652909, 0.278134, 0.667609, 0.284392, 0, 0
0, 600.00000, 0.642926, 0.273884, 0.652906, 0.278133, 0.667607, 0.284392, 0, 0
0, 660.00000, 0.642898, 0.273872, 0.652903, 0.278132, 0.667605, 0.284392, 0, 0
0, 720.00000, 0.642872, 0.273862, 0.652901, 0.278132, 0.667604, 0.284392, 0, 0
0, 780.00000, 0.642849, 0.273852, 0.652898, 0.278131, 0.667603, 0.284392, 0, 0
0, 840.00000, 0.642828, 0.273843, 0.652896, 0.27813, 0.667602, 0.284392, 0, 0
0, 900.00000, 0.642809, 0.273835, 0.652894, 0.27813, 0.6676, 0.284392, 0, 0
0, 960.00000, 0.642792, 0.273828, 0.652893, 0.278129, 0.6676, 0.284392, 0, 0
0, 1020.00000, 0.642777, 0.273821, 0.652891, 0.278129, 0.667599, 0.284392, 0, 0
0, 1080.00000, 0.642763, 0.273816, 0.65289, 0.278128, 0.667598, 0.284392, 0, 0
0, 1140.00000, 0.642751, 0.27381, 0.652889, 0.278128, 0.667597, 0.284392, 0, 0
0, 1200.00000, 0.64274, 0.273806, 0.652887, 0.278128, 0.667597, 0.284392, 0, 0
0, 1260.00000, 0.64273, 0.273801, 0.652886, 0.278127, 0.667596, 0.284392, 0, 0
0, 1320.00000, 0.642721, 0.273798, 0.652885, 0.278127, 0.667596, 0.284392, 0, 0
0, 1380.00000, 0.642712, 0.273794, 0.652885, 0.278127, 0.667595, 0.284392, 0, 0
0, 1440.00000, 0.642705, 0.273791, 0.652884, 0.278127, 0.667595, 0.284392, 0, 0
0, 1500.00000, 0.642698, 0.273788, 0.652883, 0.278126, 0.667594, 0.284392, 0, 0
0, 1560.00000, 0.642692, 0.273786, 0.652883, 0.278126, 0.667594, 0.284392, 0, 0
0, 1620.00000, 0.642687, 0.273783, 0.652882, 0.278126, 0.667594, 0.284392, 0, 0
0, 1680.00000, 0.642682, 0.273781, 0.652882, 0.278126, 0.667593, 0.284392, 0, 0
0, 1740.00000, 0.642678, 0.273779, 0.652881, 0.278126, 0.667593, 0.284392, 0, 0
0, 1800.00000, 0.642674, 0.273778, 0.652881, 0.278126, 0.667593, 0.284392, 0, 0
0, 1860.00000, 0.64267, 0.273776, 0.65288, 0.278126, 0.667593, 0.284392, 0, 0
0, 1920.00000, 0.642667, 0.273775, 0.65288, 0.278125, 0.667593, 0.284392, 0, 0
0, 1980.00000, 0.642664, 0.273774, 0.65288, 0.278125, 0.667592, 0.284392, 0, 0
0, 2040.00000, 0.642662, 0.273773, 0.65288, 0.278125, 0.667592, 0.284392, 0, 0
0, 2100.00000, 0.642659, 0.273772, 0.652879, 0.278125, 0.667592, 0.284393, 0, 0
0, 2160.00000, 0.642657, 0.273771, 0.652879, 0.278125, 0.667592, 0.284393, 0, 0
0, 2220.00000, 0.642655, 0.27377, 0.652879, 0.278125, 0.667592, 0.284393, 0, 0
0, 2280.00000, 0.642653, 0.273769, 0.652879, 0.278125, 0.667592, 0.284393, 0, 0
0, 2340.00000, 0.642652, 0.273769, 0.652879, 0.278125, 0.667592, 0.284393, 0, 0
0, 2400.00000, 0.642651, 0.273768, 0.652879, 0.278125, 0.667592, 0.284393, 0, 0
0, 2460.00000, 0.642649, 0.273767, 0.652878, 0.278125, 0.667592, 0.284393, 0, 0
0, 2520.00000, 0.642648, 0.273767, 0.652878, 0.278125, 0.667592, 0.284393, 0, 0
0, 2580.00000, 0.642647, 0.273767, 0.652878, 0.278125, 0.667591, 0.284393, 0, 0
0, 2640.00000, 0.642646, 0.273766, 0.652878, 0.278125, 0.667591, 0.284393, 0, 0
0, 2700.00000, 0.642645, 0.273766, 0.652878, 0.278125, 0.667591, 0.284393, 0, 0
0, 2760.00000, 0.642645, 0.273766, 0.652878, 0.278125, 0.667591, 0.284393, 0, 0
0, 2820.00000, 0.642644, 0.273765, 0.652878, 0.278125, 0.667591, 0.284393, 0, 0
0, 2880.00000, 0.642644, 0.273765, 0.652878, 0.278125, 0.667591, 0.284393, 0, 0
0, 2940.00000, 0.642643, 0.273765, 0.652878, 0.278125, 0.667591, 0.284393, 0, 0
0, 3000.00000, 0.642642, 0.273765, 0.652878, 0.278125, 0.667591, 0.284393, 0, 0
0, 3060.00000, 0.642642, 0.273764, 0.652878, 0.278125, 0.667591, 0.284393, 0, 0
0, 3120.00000, 0.642642, 0.273764, 0.652878, 0.278125, 0.667591, 0.284393, 0, 0
0, 3180.00000, 0.642641, 0.273764, 0.652878, 0.278125, 0.667591, 0.284393, 0, 0
0, 3240.00000, 0.642641, 0.273764, 0.652878, 0.278125, 0.667591, 0.284393, 0, 0
0, 3300.00000, 0.642641, 0.273764, 0.652878, 0.278125, 0.667591, 0.284393, 0, 0
0, 3360.00000, 0.64264, 0.273764, 0.652878, 0.278125, 0.667591, 0.284393, 0, 0
0, 3420.00000, 0.64264, 0.273764, 0.652878, 0.278125, 0.667591, 0.284393, 0, 0
0, 3480.00000, 0.64264, 0.273764, 0.652878, 0.278125, 0.667591, 0.284393, 0, 0
0, 3540.00000, 0.64264, 0.273763, 0.652878, 0.278125, 0.667591, 0.284393, 0, 0
1, 0.00000, 0.64264, 0.273763, 0.652877, 0.278125, 0.667591, 0.284393, 0, 0
1, 60.00000, 0.64264, 0.273763, 0.652877, 0.278125, 0.667591, 0.284393, 0, 0
1, 120.00000, 0.642639, 0.273763, 0.652877, 0.278125, 0.667591, 0.284393, 0, 0
1, 180.00000, 0.642639, 0.273763, 0.652877, 0.278125, 0.667591, 0.284393, 0, 0
1, 240.00000, 0.642639, 0.273763, 0.652877, 0.278125, 0.667591, 0.284393, 0, 0
1, 300.00000, 0.642639, 0.273763, 0.652877, 0.278125, 0.667591, 0.284393, 0, 0
1, 360.00000, 0.642639, 0.273763, 0.652877, 0.278125, 0.667591, 0.284393, 0, 0
1, 420.00000, 0.642639, 0.273763, 0.652877, 0.278125, 0.667591, 0.284393, 0, 0
1, 480.00000, 0.642639, 0.273763, 0.652877, 0.278125, 0.667591, 0.284393, 0, 0
1, 540.00000, 0.642639, 0.273763, 0.652877, 0.278125, 0.667591, 0.284393, 0, 0
1, 600.00000, 0.642639, 0.273763, 0.652877, 0.278125, 0.667591, 0.284393, 0, 0
1, 660.00000, 0.642639, 0.273763, 0.652877, 0.278125, 0.667591, 0.284393, 0, 0
1, 720.00000, 0.642639, 0.273763, 0.652877, 0.278125, 0.667591, 0.284393, 0, 0
1, 780.00000, 0.642639, 0.273763, 0.652877, 0.278125, 0.667591, 0.284393, 0, 0
1, 840.00000, 0.642639, 0.273763, 0.652877, 0.278125, 0.667591, 0.284393, 0, 0
1, 900.00000, 0.642638, 0.273763, 0.652877, 0.278125, 0.667591, 0.284393, 0, 0
1, 960.00000, 0.642638, 0.273763, 0.652877, 0.278125, 0.667591, 0.284393, 0, 0
1, 1020.00000, 0.642638, 0.273763, 0.652877, 0.278125, 0.667591, 0.284393, 0, 0
1, 1080.00000, 0.642638, 0.273763, 0.652877, 0.278125, 0.667591, 0.284393, 0, 0
1, 1140.00000, 0.642638, 0.273763, 0.652877, 0.278125, 0.667591, 0.284393, 0, 0
1, 1200.00000, 0.642638, 0.273763, 0.652877, 0.278125, 0.667591, 0.284393, 0, 0
1, 1260.00000, 0.642638, 0.273763, 0.652877, 0.278125, 0.667591, 0.284393, 0, 0
1, 1320.00000, 0.642638, 0.273763, 0.652877, 0.278125, 0.667591, 0.284393, 0, 0
1, 1380.00000, 0.642638, 0.273763, 0.652877, 0.278125, 0.667591, 0.284393, 0, 0
1, 1440.00000, 0.642638, 0.273763, 0.652877, 0.278125, 0.667591, 0.284393, 0, 0
1, 1500.00000, 0.642638, 0.273763, 0.652877, 0.278125, 0.667591, 0.284393, 0, 0
1, 1560.00000, 0.642638, 0.273763, 0.652877, 0.278125, 0.667591, 0.284393, 0, 0
1, 1620.00000, 0.642638, 0.273763, 0.652877, 0.278125, 0.667591, 0.284393, 0, 0
1, 1680.00000, 0.642638, 0.273763, 0.652877, 0.278125, 0.667591, 0.284393, 0, 0
1, 1740.00000, 0.642638, 0.273763, 0.652877, 0.278125, 0.667591, 0.284393, 0, 0
1, 1800.00000, 0.642638, 0.273763, 0.652877, 0.278125, 0.667591, 0.284393, 0, 0
1, 1860.00000, 0.642638, 0.273763, 0.652877, 0.278125, 0.667591, 0.284393, 0, 0
1, 1920.00000, 0.642638, 0.273763, 0.652877, 0.278125, 0.667591, 0.284393, 0, 0
1, 1980.00000, 0.642638, 0.273763, 0.652877, 0.278125, 0.667591, 0.284393, 0, 0
1, 2040.00000, 0.642638, 0.273763, 0.652877, 0.278125, 0.667591, 0.284393, 0, 0
1, 2100.00000, 0.642638, 0.273763, 0.652877, 0.278125, 0.667591, 0.284393, 0, 0
1, 2160.00000, 0.642638, 0.273763, 0.652877, 0.278125, 0.667591, 0.284393, 0, 0
1, 2220.00000, 0.642638, 0.273763, 0.652877, 0.278125, 0.667591, 0.284393, 0, 0
1, 2280.00000, 0.642638, 0.273763, 0.652877, 0.278125, 0.667591, 0.284393, 0, 0
1, 2340.00000, 0.642638, 0.273763, 0.652877, 0.278125, 0.667591, 0.284393, 0, 0
1, 2400.00000, 0.642638, 0.273763, 0.652877, 0.278125, 0.667591, 0.284393, 0, 0
1, 2460.00000, 0.642638, 0.273763, 0.652877, 0.278125, 0.667591, 0.284393, 0, 0
1, 2520.00000, 0.642638, 0.273763, 0.652877, 0.278125, 0.667591, 0.284393, 0, 0
1, 2580.00000, 0.642638, 0.273763, 0.652877, 0.278125, 0.667591, 0.284393, 0, 0
1, 2640.00000, 0.642638, 0.273763, 0.652877, 0.278125, 0.667591, 0.284393, 0, 0
1, 2700.00000, 0.642638, 0.273763, 0.652877, 0.278125, 0.667591, 0.284393, 0, 0
1, 2760.00000, 0.642638, 0.273763, 0.652877, 0.278125, 0.667591, 0.284393, 0, 0
1, 2820.00000, 0.642638, 0.273763, 0.652877, 0.278125, 0.667591, 0.284393, 0, 0
1, 2880.00000, 0.642638, 0.273763, 0.652877, 0.278125, 0.667591, 0.284393, 0, 0
1, 2940.00000, 0.642638, 0.273763, 0.652877, 0.278125, 0.667591, 0.284393, 0, 0
1, 3000.00000, 0.642638, 0.273763, 0.652877, 0.278125, 0.667591, 0.284393, 0, 0
1, 3060.00000, 0.642638, 0.273763, 0.652877, 0.278125, 0.667591, 0.284393, 0, 0
1, 3120.00000, 0.642638, 0.273763, 0.652877, 0.278125, 0.667591, 0.284393, 0, 0
1, 3180.00000, 0.642638, 0.273763, 0.652877, 0.278125, 0.667591, 0.284393, 0, 0
1, 3240.00000, 0.642638, 0.273763, 0.652877, 0.278125, 0.667591, 0.284393, 0, 0
1, 3300.00000, 0.642638, 0.273763, 0.652877, 0.278125, 0.667591, 0.284393, 0, 0
1, 3360.00000, 0.642638, 0.273763, 0.652877, 0.278125, 0.667591, 0.284393, 0, 0
1, 3420.00000, 0.642638, 0.273763, 0.652877, 0.278125, 0.667591, 0.284393, 0, 0
1, 3480.00000, 0.642638, 0.273763, 0.652877, 0.278125, 0.667591, 0.284393, 0, 0
1, 3540.00000, 0.642638, 0.273763, 0.652877, 0.278125, 0.667591, 0.284393, 0, 0
2, 0.00000, 0.642638, 0.273763, 0.652877, 0.278125, 0.667591, 0.284393, 0, 0
2, 60.00000, 0.642638, 0.273763, 0.652877, 0.278125, 0.667591, 0.284393, 0, 0
2, 120.00000, 0.642638, 0.273763, 0.652877, 0.278125, 0.667591, 0.284393, 0, 0
2, 180.00000, 0.642638, 0.273763, 0.652877, 0.278125, 0.667591, 0.284393, 0, 0
2, 240.00000, 0.642638, 0.273763, 0.652877, 0.278125, 0.667591, 0.284393, 0, 0
2, 300.00000, 0.642638, 0.273763, 0.652877, 0.278125, 0.667591, 0.284393, 0, 0
2, 360.00000, 0.642638, 0.273763, 0.652877, 0.278125, 0.667591, 0.284393, 0, 0
2, 420.00000, 0.642638, 0.273763, 0.652877, 0.278125, 0.667591, 0.284393, 0, 0
2, 480.00000, 0.642638, 0.273763, 0.652877, 0.278125, 0.667591, 0.284393, 0, 0
2, 540.00000, 0.642638, 0.273763, 0.652877, 0.278125, 0.667591, 0.284393, 0, 0
2, 600.00000, 0.642638, 0.273763, 0.652877, 0.278125, 0.667591, 0.284393, 0, 0
2, 660.00000, 0.642638, 0.273763, 0.652877, 0.278125, 0.667591, 0.284393, 0, 0
2, 720.00000, 0.642638, 0.273763, 0.652877, 0.278125, 0.667591, 0.284393, 0, 0
2, 780.00000, 0.642638, 0.273763, 0.652877, 0.278125, 0.667591, 0.284393, 0, 0
2, 840.00000, 0.642638, 0.273763, 0.652877, 0.278125, 0.667591, 0.284393, 0, 0
2, 900.00000, 0.642638, 0.273763, 0.652877, 0.278125, 0.667591, 0.284393, 0, 0
2, 960.00000, 0.642638, 0.273763, 0.652877, 0.278125, 0.667591, 0.284393, 0, 0
2, 1020.00000, 0.642638, 0.273763, 0.652877, 0.278125, 0.667591, 0.284393, 0, 0
2, 1080.00000, 0.642638, 0.273763, 0.652877, 0.278125, 0.667591, 0.284393, 0, 0
2, 1140.00000, 0.642638, 0.273763, 0.652877, 0.278125, 0.667591, 0.284393, 0, 0
2, 1200.00000, 0.642638, 0.273763, 0.652877, 0.278125, 0.667591, 0.284393, 0, 0
2, 1260.00000, 0.642638, 0.273763, 0.652877, 0.278125, 0.667591, 0.284393, 0, 0
2, 1320.00000, 0.642638, 0.273763, 0.652877, 0.278125, 0.667591, 0.284393, 0, 0
2, 1380.00000, 0.642638, 0.273763, 0.652877, 0.278125, 0.667591, 0.284393, 0, 0
2, 1440.00000, 0.642638, 0.273763, 0.652877, 0.278125, 0.667591, 0.284393, 0, 0
2, 1500.00000, 0.642638, 0.273763, 0.652877, 0.278125, 0.667591, 0.284393, 0, 0
2, 1560.00000, 0.642638, 0.273763, 0.652877, 0.278125, 0.667591, 0.284393, 0, 0
2, 1620.00000, 0.642638, 0.273763, 0.652877, 0.278125, 0.667591, 0.284393, 0, 0
2, 1680.00000, 0.642638, 0.273763, 0.652877, 0.278125, 0.667591, 0.284393, 0, 0
2, 1740.00000, 0.642638, 0.273763, 0.652877, 0.278125, 0.667591, 0.284393, 0, 0
2, 1800.00000, 0.642638, 0.273763, 0.652877, 0.278125, 0.667591, 0.284393, 0, 0
2, 1860.00000, 0.642638, 0.273763, 0.652877, 0.278125, 0.667591, 0.284393, 0, 0
2, 1920.00000, 0.642638, 0.273763, 0.652877, 0.278125, 0.667591, 0.284393, 0, 0
2, 1980.00000, 0.642638, 0.273763, 0.652877, 0.278125, 0.667591, 0.284393, 0, 0
2, 2040.00000, 0.642638, 0.273763, 0.652877, 0.278125, 0.667591, 0.284393, 0, 0
2, 2100.00000, 0.642638, 0.273763, 0.652877, 0.278125, 0.667591, 0.284393, 0, 0
2, 2160.00000, 0.642638, 0.273763, 0.652877, 0.278125, 0.667591, 0.284393, 0, 0
2, 2220.00000, 0.642638, 0.273763, 0.652877, 0.278125, 0.667591, 0.284393, 0, 0
2, 2280.00000, 0.642638, 0.273763, 0.652877, 0.278125, 0.667591, 0.284393, 0, 0
2, 2340.00000, 0.642638, 0.273763, 0.652877, 0.278125, 0.667591, 0.284393, 0, 0
2, 2400.00000, 0.649242, 0.276576, 0.652785, 0.278085, 0.667592, 0.284393, 0, 0
2, 2460.00000, 0.649242, 0.276576, 0.652785, 0.278085, 0.667591, 0.284393, 0, 0
2, 2520.00000, 0.649242, 0.276576, 0.652785, 0.278085, 0.667591, 0.284393, 0, 0
2, 2580.00000, 0.649242, 0.276576, 0.652785, 0.278085, 0.667591, 0.284393, 0, 0
2, 2640.00000, 0.649242, 0.276576, 0.652785, 0.278085, 0.667591, 0.284393, 0, 0
2, 2700.00000, 0.640133, 0.272695, 0.642258, 0.273601, 0.66759, 0.284392, 0, 0
2, 2760.00000, 0.640133, 0.272696, 0.642258, 0.273601, 0.667591, 0.284393, 0, 0
2, 2820.00000, 0.640133, 0.272696, 0.642258, 0.273601, 0.667591, 0.284393, 0, 0
2, 2880.00000, 0.640133, 0.272696, 0.642258, 0.273601, 0.667591, 0.284393, 0, 0
2, 2940.00000, 0.640133, 0.272696, 0.642258, 0.273601, 0.667591, 0.284393, 0, 0
2, 3000.00000, 0.640133, 0.272696, 0.642258, 0.273601, 0.667591, 0.284393, 0, 0
2, 3060.00000, 0.640082, 0.272674, 0.643725, 0.274226, 0.667591, 0.284393, 0, 0
2, 3120.00000, 0.640082, 0.272674, 0.643725, 0.274226, 0.667591, 0.284393, 0, 0
2, 3180.00000, 0.640082, 0.272674, 0.643725, 0.274226, 0.667591, 0.284393, 0, 0
2, 3240.00000, 0.640082, 0.272674, 0.643725, 0.274226, 0.667591, 0.284393, 0, 0
2, 3300.00000, 0.640082, 0.272674, 0.643725, 0.274226, 0.667591, 0.284393, 0, 0
2, 3360.00000, 0.640082, 0.272674, 0.643725, 0.274226, 0.667591, 0.284393, 0, 0
2, 3420.00000, 0.640082, 0.272674, 0.643725, 0.274226, 0.667591, 0.284393, 0, 0
2, 3480.00000, 0.640082, 0.272674, 0.643725, 0.274226, 0.667591, 0.284393, 0, 0
2, 3540.00000, 0.640082, 0.272674, 0.643725, 0.274226, 0.667591, 0.284393, 0, 0
3, 0.00000, 0.640082, 0.272674, 0.643725, 0.274226, 0.667591, 0.284393, 0, 0
3, 60.00000, 0.640082, 0.272674, 0.643725, 0.274226, 0.667591, 0.284393, 0, 0
3, 120.00000, 0.640082, 0.272674, 0.643725, 0.274226, 0.667591, 0.284393, 0, 0
3, 180.00000, 0.640082, 0.272674, 0.643725, 0.274226, 0.667591, 0.284393, 0, 0
3, 240.00000, 0.640082, 0.272674, 0.643725, 0.274226, 0.667591, 0.284393, 0, 0
3, 300.00000, 0.640082, 0.272674, 0.643725, 0.274226, 0.667591, 0.284393, 0, 0
3, 360.00000, 0.640082, 0.272674, 0.643725, 0.274226, 0.667591, 0.284393, 0, 0
3, 420.00000, 0.640082, 0.272674, 0.643725, 0.274226, 0.667591, 0.284393, 0, 0
3, 480.00000, 0.640082, 0.272674, 0.643725, 0.274226, 0.667591, 0.284393, 0, 0
3, 540.00000, 0.640082, 0.272674, 0.643725, 0.274226, 0.667591, 0.284393, 0, 0
3, 600.00000, 0.640082, 0.272674, 0.643725, 0.274226, 0.667591, 0.284393, 0, 0
3, 660.00000, 0.640082, 0.272674, 0.643725, 0.274226, 0.667591, 0.284393, 0, 0
3, 720.00000, 0.640082, 0.272674, 0.643725, 0.274226, 0.667591, 0.284393, 0, 0
3, 780.00000, 0.640082, 0.272674, 0.643725, 0.274226, 0.667591, 0.284393, 0, 0
3, 840.00000, 0.640082, 0.272674, 0.643725, 0.274226, 0.667591, 0.284393, 0, 0
3, 900.00000, 0.640082, 0.272674, 0.643725, 0.274226, 0.667591, 0.284393, 0, 0
3, 960.00000, 0.640082, 0.272674, 0.643725, 0.274226, 0.667591, 0.284393, 0, 0
3, 1020.00000, 0.640082, 0.272674, 0.643725, 0.274226, 0.667591, 0.284393, 0, 0
3, 1080.00000, 0.640082, 0.272674, 0.643725, 0.274226, 0.667591, 0.284393, 0, 0
3, 1140.00000, 0.640082, 0.272674, 0.643725, 0.274226, 0.667591, 0.284393, 0, 0
3, 1200.00000, 0.640082, 0.272674, 0.643725, 0.274226, 0.667591, 0.284393, 0, 0
3, 1260.00000, 0.640082, 0.272674, 0.643725, 0.274226, 0.667591, 0.284393, 0, 0
3, 1320.00000, 0.640082, 0.272674, 0.643725, 0.274226, 0.667591, 0.284393, 0, 0
3, 1380.00000, 0.640082, 0.272674, 0.643725, 0.274226, 0.667591, 0.284393, 0, 0
3, 1440.00000, 0.640082, 0.272674, 0.643725, 0.274226, 0.667591, 0.284393, 0, 0
3, 1500.00000, 0.640082, 0.272674, 0.643725, 0.274226, 0.667591, 0.284393, 0, 0
3, 1560.00000, 0.640082, 0.272674, 0.643725, 0.274226, 0.667591, 0.284393, 0, 0
3, 1620.00000, 0.640082, 0.272674, 0.643725, 0.274226, 0.667591, 0.284393, 0, 0
3, 1680.00000, 0.640082, 0.272674, 0.643725, 0.274226, 0.667591, 0.284393, 0, 0
3, 1740.00000, 0.640082, 0.272674, 0.643725, 0.274226, 0.667591, 0.284393, 0, 0
3, 1800.00000, 0.640082, 0.272674, 0.643725, 0.274226, 0.667591, 0.284393, 0, 0
3, 1860.00000, 0.640082, 0.272674, 0.643725, 0.274226, 0.667591, 0.284393, 0, 0
3, 1920.00000, 0.640082, 0.272674, 0.643725, 0.274226, 0.667591, 0.284393, 0, 0
3, 1980.00000, 0.640082, 0.272674, 0.643725, 0.274226, 0.667591, 0.284393, 0, 0
3, 2040.00000, 0.640082, 0.272674, 0.643725, 0.274226, 0.667591, 0.284393, 0, 0
3, 2100.00000, 0.640082, 0.272674, 0.643725, 0.274226, 0.667591, 0.284393, 0, 0
3, 2160.00000, 0.640082, 0.272674, 0.643725, 0.274226, 0.667591, 0.284393, 0, 0
3, 2220.00000, 0.640082, 0.272674, 0.643725, 0.274226, 0.667591, 0.284393, 0, 0
3, 2280.00000, 0.640082, 0.272674, 0.643725, 0.274226, 0.667591, 0.284393, 0, 0
3, 2340.00000, 0.640082, 0.272674, 0.643725, 0.274226, 0.667591, 0.284393, 0, 0
3, 2400.00000, 0.640082, 0.272674, 0.643725, 0.274226, 0.667591, 0.284393, 0, 0
3, 2460.00000, 0.640082, 0.272674, 0.643725, 0.274226, 0.667591, 0.284393, 0, 0
3, 2520.00000, 0.640082, 0.272674, 0.643725, 0.274226, 0.667591, 0.284393, 0, 0
3, 2580.00000, 0.640082, 0.272674, 0.643725, 0.274226, 0.667591, 0.284393, 0, 0
3, 2640.00000, 0.640082, 0.272674, 0.643725, 0.274226, 0.667591, 0.284393, 0, 0
3, 2700.00000, 0.640082, 0.272674, 0.643725, 0.274226, 0.667591, 0.284393, 0, 0
3, 2760.00000, 0.640082, 0.272674, 0.643725, 0.274226, 0.667591, 0.284393, 0, 0
3, 2820.00000, 0.640082, 0.272674, 0.643725, 0.274226, 0.667591, 0.284393, 0, 0
3, 2880.00000, 0.640082, 0.272674, 0.643725, 0.274226, 0.667591, 0.284393, 0, 0
3, 2940.00000, 0.640082, 0.272674, 0.643725, 0.274226, 0.667591, 0.284393, 0, 0
3, 3000.00000, 0.640082, 0.272674, 0.643725, 0.274226, 0.667591, 0.284393, 0, 0
3, 3060.00000, 0.640082, 0.272674, 0.643725, 0.274226, 0.667591, 0.284393, 0, 0
3, 3120.00000, 0.640082, 0.272674, 0.643725, 0.274226, 0.667591, 0.284393, 0, 0
3, 3180.00000, 0.624417, 0.266001, 0.628029, 0.26754, 0.653327, 0.278316, 0, 0
3, 3240.00000, 0.624417, 0.266001, 0.62803, 0.267539, 0.653328, 0.278317, 0, 0
3, 3300.00000, 0.624417, 0.266001, 0.62803, 0.267539, 0.653328, 0.278317, 0, 0
3, 3360.00000, 0.624417, 0.266001, 0.62803, 0.267539, 0.653328, 0.278317, 0, 0
3, 3420.00000, 0.624417, 0.266001, 0.62803, 0.267539, 0.653328, 0.278317, 0, 0
3, 3480.00000, 0.624417, 0.266001, 0.62803, 0.267539, 0.653328, 0.278317, 0, 0
3, 3540.00000, 0.624417, 0.266001, 0.62803, 0.267539, 0.653328, 0.278317, 0, 0
4, 0.00000, 0.624417, 0.266001, 0.62803, 0.267539, 0.653328, 0.278317, 0, 0
4, 60.00000, 0.624417, 0.266001, 0.62803, 0.267539, 0.653328, 0.278317, 0, 0
4, 120.00000, 0.624417, 0.266001, 0.62803, 0.267539, 0.653328, 0.278317, 0, 0
4, 180.00000, 0.624417, 0.266001, 0.62803, 0.267539, 0.653328, 0.278317, 0, 0
4, 240.00000, 0.624417, 0.266001, 0.62803, 0.267539, 0.653328, 0.278317, 0, 0
4, 300.00000, 0.624417, 0.266001, 0.62803, 0.267539, 0.653328, 0.278317, 0, 0
4, 360.00000, 0.624417, 0.266001, 0.62803, 0.267539, 0.653328, 0.278317, 0, 0
4, 420.00000, 0.624417, 0.266001, 0.62803, 0.267539, 0.653328, 0.278317, 0, 0
4, 480.00000, 0.624417, 0.266001, 0.62803, 0.267539, 0.653328, 0.278317, 0, 0
4, 540.00000, 0.624417, 0.266001, 0.62803, 0.267539, 0.653328, 0.278317, 0, 0
4, 600.00000, 0.624417, 0.266001, 0.62803, 0.267539, 0.653328, 0.278317, 0, 0
