hour,t(sec),"P1 (kW)","Q1 (kvar)","P2 (kW)","Q2 (kvar)","P3 (kW)","Q3 (kvar)","P4 (kW)","Q4 (kvar)"
0, 60.00000, 0.648975, 0.276457, 0.655096, 0.279069, 0.660904, 0.281537, 0, 0
0, 120.00000, 0.648965, 0.276458, 0.655087, 0.279066, 0.660881, 0.281534, 0, 0
0, 180.00000, 0.648965, 0.276458, 0.655087, 0.279066, 0.660881, 0.281534, 0, 0
0, 240.00000, 0.648965, 0.276458, 0.655087, 0.279066, 0.660881, 0.281534, 0, 0
0, 300.00000, 0.648965, 0.276458, 0.655087, 0.279066, 0.660881, 0.281534, 0, 0
0, 360.00000, 0.648965, 0.276458, 0.655087, 0.279066, 0.660881, 0.281534, 0, 0
0, 420.00000, 0.648965, 0.276458, 0.655087, 0.279066, 0.660881, 0.281534, 0, 0
0, 480.00000, 0.648965, 0.276458, 0.655087, 0.279066, 0.660881, 0.281534, 0, 0
0, 540.00000, 0.648965, 0.276458, 0.655087, 0.279066, 0.660881, 0.281534, 0, 0
0, 600.00000, 0.648965, 0.276458, 0.655087, 0.279066, 0.660881, 0.281534, 0, 0
0, 660.00000, 0.648965, 0.276458, 0.655087, 0.279066, 0.660881, 0.281534, 0, 0
0, 720.00000, 0.648965, 0.276458, 0.655087, 0.279066, 0.660881, 0.281534, 0, 0
0, 780.00000, 0.648965, 0.276458, 0.655087, 0.279066, 0.660881, 0.281534, 0, 0
0, 840.00000, 0.648965, 0.276458, 0.655087, 0.279066, 0.660881, 0.281534, 0, 0
0, 900.00000, 0.648965, 0.276458, 0.655087, 0.279066, 0.660881, 0.281534, 0, 0
0, 960.00000, 0.626174, 0.266744, 0.630297, 0.268508, 0.645215, 0.274859, 0, 0
0, 1020.00000, 0.626165, 0.266745, 0.630288, 0.268502, 0.645213, 0.27486, 0, 0
0, 1080.00000, 0.626164, 0.266745, 0.630288, 0.268502, 0.645213, 0.27486, 0, 0
0, 1140.00000, 0.626164, 0.266745, 0.630288, 0.268502, 0.645213, 0.27486, 0, 0
0, 1200.00000, 0.626164, 0.266745, 0.630288, 0.268502, 0.645213, 0.27486, 0, 0
0, 1260.00000, 0.626164, 0.266745, 0.630288, 0.268502, 0.645213, 0.27486, 0, 0
0, 1320.00000, 0.626164, 0.266745, 0.630288, 0.268502, 0.645213, 0.27486, 0, 0
0, 1380.00000, 0.626164, 0.266745, 0.630288, 0.268502, 0.645213, 0.27486, 0, 0
0, 1440.00000, 0.626164, 0.266745, 0.630288, 0.268502, 0.645213, 0.27486, 0, 0
0, 1500.00000, 0.626164, 0.266745, 0.630288, 0.268502, 0.645213, 0.27486, 0, 0
0, 1560.00000, 0.626164, 0.266745, 0.630288, 0.268502, 0.645213, 0.27486, 0, 0
0, 1620.00000, 0.626164, 0.266745, 0.630288, 0.268502, 0.645213, 0.27486, 0, 0
0, 1680.00000, 0.626164, 0.266745, 0.630288, 0.268502, 0.645213, 0.27486, 0, 0
0, 1740.00000, 0.626164, 0.266745, 0.630288, 0.268502, 0.645213, 0.27486, 0, 0
0, 1800.00000, 0.626164, 0.266745, 0.630288, 0.268502, 0.645213, 0.27486, 0, 0
0, 1860.00000, 0.594296, 0.253172, 0.598114, 0.254799, 0.612235, 0.260829, 0, 0
0, 1920.00000, 0.594294, 0.253168, 0.598132, 0.254803, 0.612285, 0.260832, 0, 0
0, 1980.00000, 0.594294, 0.253168, 0.598132, 0.254803, 0.612285, 0.260833, 0, 0
0, 2040.00000, 0.594294, 0.253168, 0.598132, 0.254803, 0.612285, 0.260833, 0, 0
0, 2100.00000, 0.594294, 0.253168, 0.598132, 0.254803, 0.612285, 0.260833, 0, 0
0, 2160.00000, 0.594294, 0.253168, 0.598132, 0.254803, 0.612285, 0.260833, 0, 0
0, 2220.00000, 0.594294, 0.253168, 0.598132, 0.254803, 0.612285, 0.260833, 0, 0
0, 2280.00000, 0.594294, 0.253168, 0.598132, 0.254803, 0.612285, 0.260833, 0, 0
0, 2340.00000, 0.594294, 0.253168, 0.598132, 0.254803, 0.612285, 0.260833, 0, 0
0, 2400.00000, 0.594294, 0.253168, 0.598132, 0.254803, 0.612285, 0.260833, 0, 0
0, 2460.00000, 0.594294, 0.253168, 0.598132, 0.254803, 0.612285, 0.260833, 0, 0
0, 2520.00000, 0.594294, 0.253168, 0.598132, 0.254803, 0.612285, 0.260833, 0, 0
0, 2580.00000, 0.594294, 0.253168, 0.598132, 0.254803, 0.612285, 0.260833, 0, 0
0, 2640.00000, 0.594294, 0.253168, 0.598132, 0.254803, 0.612285, 0.260833, 0, 0
0, 2700.00000, 0.594294, 0.253168, 0.598132, 0.254803, 0.612285, 0.260833, 0, 0
0, 2760.00000, 0.58506, 0.249237, 0.588729, 0.250796, 0.602668, 0.256739, 0, 0
0, 2820.00000, 0.585063, 0.249236, 0.58873, 0.250798, 0.602682, 0.256741, 0, 0
0, 2880.00000, 0.585063, 0.249236, 0.58873, 0.250798, 0.602682, 0.256741, 0, 0
0, 2940.00000, 0.585063, 0.249236, 0.58873, 0.250798, 0.602682, 0.256741, 0, 0
0, 3000.00000, 0.585063, 0.249236, 0.58873, 0.250798, 0.602682, 0.256741, 0, 0
0, 3060.00000, 0.585063, 0.249236, 0.58873, 0.250798, 0.602682, 0.256741, 0, 0
0, 3120.00000, 0.585063, 0.249236, 0.58873, 0.250798, 0.602682, 0.256741, 0, 0
0, 3180.00000, 0.585063, 0.249236, 0.58873, 0.250798, 0.602682, 0.256741, 0, 0
0, 3240.00000, 0.585063, 0.249236, 0.58873, 0.250798, 0.602682, 0.256741, 0, 0
0, 3300.00000, 0.585063, 0.249236, 0.58873, 0.250798, 0.602682, 0.256741, 0, 0
0, 3360.00000, 0.585063, 0.249236, 0.58873, 0.250798, 0.602682, 0.256741, 0, 0
0, 3420.00000, 0.585063, 0.249236, 0.58873, 0.250798, 0.602682, 0.256741, 0, 0
0, 3480.00000, 0.585063, 0.249236, 0.58873, 0.250798, 0.602682, 0.256741, 0, 0
0, 3540.00000, 0.585063, 0.249236, 0.58873, 0.250798, 0.602682, 0.256741, 0, 0
1, 0.00000, 0.585063, 0.249236, 0.58873, 0.250798, 0.602682, 0.256741, 0, 0
1, 60.00000, 0.539393, 0.229783, 0.54265, 0.231166, 0.555047, 0.236452, 0, 0
1, 120.00000, 0.539394, 0.229781, 0.54265, 0.231168, 0.555037, 0.236445, 0, 0
1, 180.00000, 0.539394, 0.229781, 0.54265, 0.231168, 0.555037, 0.236445, 0, 0
1, 240.00000, 0.539394, 0.229781, 0.54265, 0.231168, 0.555037, 0.236445, 0, 0
1, 300.00000, 0.539394, 0.229781, 0.54265, 0.231168, 0.555037, 0.236445, 0, 0
1, 360.00000, 0.539394, 0.229781, 0.54265, 0.231168, 0.555037, 0.236445, 0, 0
1, 420.00000, 0.539394, 0.229781, 0.54265, 0.231168, 0.555037, 0.236445, 0, 0
1, 480.00000, 0.539394, 0.229781, 0.54265, 0.231168, 0.555037, 0.236445, 0, 0
1, 540.00000, 0.539394, 0.229781, 0.54265, 0.231168, 0.555037, 0.236445, 0, 0
1, 600.00000, 0.539394, 0.229781, 0.54265, 0.231168, 0.555037, 0.236445, 0, 0
1, 660.00000, 0.539394, 0.229781, 0.54265, 0.231168, 0.555037, 0.236445, 0, 0
1, 720.00000, 0.539394, 0.229781, 0.54265, 0.231168, 0.555037, 0.236445, 0, 0
1, 780.00000, 0.539394, 0.229781, 0.54265, 0.231168, 0.555037, 0.236445, 0, 0
1, 840.00000, 0.539394, 0.229781, 0.54265, 0.231168, 0.555037, 0.236445, 0, 0
1, 900.00000, 0.539394, 0.229781, 0.54265, 0.231168, 0.555037, 0.236445, 0, 0
1, 960.00000, 0.545523, 0.232396, 0.548796, 0.233785, 0.560869, 0.238934, 0, 0
1, 1020.00000, 0.545528, 0.232394, 0.5488, 0.233788, 0.560851, 0.238921, 0, 0
1, 1080.00000, 0.545528, 0.232394, 0.5488, 0.233788, 0.56085, 0.238921, 0, 0
1, 1140.00000, 0.545528, 0.232394, 0.5488, 0.233788, 0.56085, 0.238921, 0, 0
1, 1200.00000, 0.545528, 0.232394, 0.5488, 0.233788, 0.56085, 0.238921, 0, 0
1, 1260.00000, 0.545528, 0.232394, 0.5488, 0.233788, 0.56085, 0.238921, 0, 0
1, 1320.00000, 0.545528, 0.232394, 0.5488, 0.233788, 0.56085, 0.238921, 0, 0
1, 1380.00000, 0.545528, 0.232394, 0.5488, 0.233788, 0.56085, 0.238921, 0, 0
1, 1440.00000, 0.545528, 0.232394, 0.5488, 0.233788, 0.56085, 0.238921, 0, 0
1, 1500.00000, 0.545528, 0.232394, 0.5488, 0.233788, 0.56085, 0.238921, 0, 0
1, 1560.00000, 0.545528, 0.232394, 0.5488, 0.233788, 0.56085, 0.238921, 0, 0
1, 1620.00000, 0.545528, 0.232394, 0.5488, 0.233788, 0.56085, 0.238921, 0, 0
1, 1680.00000, 0.545528, 0.232394, 0.5488, 0.233788, 0.56085, 0.238921, 0, 0
1, 1740.00000, 0.545528, 0.232394, 0.5488, 0.233788, 0.56085, 0.238921, 0, 0
1, 1800.00000, 0.545528, 0.232394, 0.5488, 0.233788, 0.56085, 0.238921, 0, 0
1, 1860.00000, 0.578448, 0.246416, 0.582017, 0.247939, 0.595819, 0.253815, 0, 0
1, 1920.00000, 0.578446, 0.246417, 0.582017, 0.247938, 0.595807, 0.253813, 0, 0
1, 1980.00000, 0.578446, 0.246417, 0.582017, 0.247938, 0.595807, 0.253813, 0, 0
1, 2040.00000, 0.578446, 0.246417, 0.582017, 0.247938, 0.595807, 0.253813, 0, 0
1, 2100.00000, 0.578446, 0.246417, 0.582017, 0.247938, 0.595807, 0.253813, 0, 0
1, 2160.00000, 0.578446, 0.246417, 0.582017, 0.247938, 0.595807, 0.253813, 0, 0
1, 2220.00000, 0.578446, 0.246417, 0.582017, 0.247938, 0.595807, 0.253813, 0, 0
1, 2280.00000, 0.578446, 0.246417, 0.582017, 0.247938, 0.595807, 0.253813, 0, 0
1, 2340.00000, 0.578446, 0.246417, 0.582017, 0.247938, 0.595807, 0.253813, 0, 0
1, 2400.00000, 0.578446, 0.246417, 0.582017, 0.247938, 0.595807, 0.253813, 0, 0
1, 2460.00000, 0.578446, 0.246417, 0.582017, 0.247938, 0.595807, 0.253813, 0, 0
1, 2520.00000, 0.578446, 0.246417, 0.582017, 0.247938, 0.595807, 0.253813, 0, 0
1, 2580.00000, 0.578446, 0.246417, 0.582017, 0.247938, 0.595807, 0.253813, 0, 0
1, 2640.00000, 0.578446, 0.246417, 0.582017, 0.247938, 0.595807, 0.253813, 0, 0
1, 2700.00000, 0.578143, 0.246286, 0.578436, 0.246416, 0.589785, 0.251242, 0, 0
1, 2760.00000, 0.550249, 0.234407, 0.550257, 0.234409, 0.561, 0.238987, 0, 0
1, 2820.00000, 0.550254, 0.234407, 0.550259, 0.23441, 0.561006, 0.238988, 0, 0
1, 2880.00000, 0.550254, 0.234407, 0.550259, 0.23441, 0.561006, 0.238988, 0, 0
1, 2940.00000, 0.550254, 0.234407, 0.550259, 0.23441, 0.561006, 0.238988, 0, 0
1, 3000.00000, 0.550254, 0.234407, 0.550259, 0.23441, 0.561006, 0.238988, 0, 0
1, 3060.00000, 0.550254, 0.234407, 0.550259, 0.23441, 0.561006, 0.238988, 0, 0
1, 3120.00000, 0.550254, 0.234407, 0.550259, 0.23441, 0.561006, 0.238988, 0, 0
1, 3180.00000, 0.550254, 0.234407, 0.550259, 0.23441, 0.561006, 0.238988, 0, 0
1, 3240.00000, 0.550254, 0.234407, 0.550259, 0.23441, 0.561006, 0.238988, 0, 0
1, 3300.00000, 0.550254, 0.234407, 0.550259, 0.23441, 0.561006, 0.238988, 0, 0
1, 3360.00000, 0.550254, 0.234407, 0.550259, 0.23441, 0.561006, 0.238988, 0, 0
1, 3420.00000, 0.550254, 0.234407, 0.550259, 0.23441, 0.561006, 0.238988, 0, 0
1, 3480.00000, 0.550254, 0.234407, 0.550259, 0.23441, 0.561006, 0.238988, 0, 0
1, 3540.00000, 0.550254, 0.234407, 0.550259, 0.23441, 0.561006, 0.238988, 0, 0
2, 0.00000, 0.550254, 0.234407, 0.550259, 0.23441, 0.561006, 0.238988, 0, 0
2, 60.00000, 0.582906, 0.248315, 0.583074, 0.248388, 0.59448, 0.253246, 0, 0
2, 120.00000, 0.582902, 0.248315, 0.583073, 0.248388, 0.594476, 0.253246, 0, 0
2, 180.00000, 0.582902, 0.248315, 0.583073, 0.248388, 0.594476, 0.253246, 0, 0
2, 240.00000, 0.582902, 0.248315, 0.583073, 0.248388, 0.594476, 0.253246, 0, 0
2, 300.00000, 0.582902, 0.248315, 0.583073, 0.248388, 0.594476, 0.253246, 0, 0
2, 360.00000, 0.582902, 0.248315, 0.583073, 0.248388, 0.594476, 0.253246, 0, 0
2, 420.00000, 0.582902, 0.248315, 0.583073, 0.248388, 0.594476, 0.253246, 0, 0
2, 480.00000, 0.582902, 0.248315, 0.583073, 0.248388, 0.594476, 0.253246, 0, 0
2, 540.00000, 0.589447, 0.251103, 0.591238, 0.251871, 0.59405, 0.253064, 0, 0
2, 600.00000, 0.589451, 0.251105, 0.591249, 0.251871, 0.594044, 0.253062, 0, 0
2, 660.00000, 0.589451, 0.251105, 0.591249, 0.251871, 0.594044, 0.253062, 0, 0
2, 720.00000, 0.589451, 0.251105, 0.591249, 0.251871, 0.594044, 0.253062, 0, 0
2, 780.00000, 0.589451, 0.251105, 0.591249, 0.251871, 0.594044, 0.253062, 0, 0
2, 840.00000, 0.589451, 0.251105, 0.591249, 0.251871, 0.594044, 0.253062, 0, 0
2, 900.00000, 0.589451, 0.251105, 0.591249, 0.251871, 0.594044, 0.253062, 0, 0
2, 960.00000, 0.569906, 0.24278, 0.57149, 0.243455, 0.574105, 0.244569, 0, 0
2, 1020.00000, 0.569911, 0.242781, 0.571495, 0.243456, 0.574109, 0.24457, 0, 0
2, 1080.00000, 0.569911, 0.242781, 0.571495, 0.243456, 0.574109, 0.24457, 0, 0
2, 1140.00000, 0.569911, 0.242781, 0.571495, 0.243456, 0.574109, 0.24457, 0, 0
2, 1200.00000, 0.569911, 0.242781, 0.571495, 0.243456, 0.574109, 0.24457, 0, 0
2, 1260.00000, 0.569911, 0.242781, 0.571495, 0.243456, 0.574109, 0.24457, 0, 0
2, 1320.00000, 0.569911, 0.242781, 0.571495, 0.243456, 0.574109, 0.24457, 0, 0
2, 1380.00000, 0.569911, 0.242781, 0.571495, 0.243456, 0.574109, 0.24457, 0, 0
2, 1440.00000, 0.569911, 0.242781, 0.571495, 0.243456, 0.574109, 0.24457, 0, 0
2, 1500.00000, 0.569911, 0.242781, 0.571495, 0.243456, 0.574109, 0.24457, 0, 0
2, 1560.00000, 0.569911, 0.242781, 0.571495, 0.243456, 0.574109, 0.24457, 0, 0
2, 1620.00000, 0.569911, 0.242781, 0.571495, 0.243456, 0.574109, 0.24457, 0, 0
2, 1680.00000, 0.569911, 0.242781, 0.571495, 0.243456, 0.574109, 0.24457, 0, 0
2, 1740.00000, 0.569911, 0.242781, 0.571495, 0.243456, 0.574109, 0.24457, 0, 0
2, 1800.00000, 0.569911, 0.242781, 0.571495, 0.243456, 0.574109, 0.24457, 0, 0
2, 1860.00000, 0.607076, 0.258605, 0.608835, 0.259357, 0.611659, 0.260555, 0, 0
2, 1920.00000, 0.607046, 0.2586, 0.608806, 0.25935, 0.611631, 0.260554, 0, 0
2, 1980.00000, 0.607046, 0.2586, 0.608806, 0.25935, 0.611631, 0.260554, 0, 0
2, 2040.00000, 0.607046, 0.2586, 0.608806, 0.25935, 0.611631, 0.260554, 0, 0
2, 2100.00000, 0.607046, 0.2586, 0.608806, 0.25935, 0.611631, 0.260554, 0, 0
2, 2160.00000, 0.607046, 0.2586, 0.608806, 0.25935, 0.611631, 0.260554, 0, 0
2, 2220.00000, 0.607046, 0.2586, 0.608806, 0.25935, 0.611631, 0.260554, 0, 0
2, 2280.00000, 0.607046, 0.2586, 0.608806, 0.25935, 0.611631, 0.260554, 0, 0
2, 2340.00000, 0.607046, 0.2586, 0.608806, 0.25935, 0.611631, 0.260554, 0, 0
2, 2400.00000, 0.607046, 0.2586, 0.608806, 0.25935, 0.611631, 0.260554, 0, 0
2, 2460.00000, 0.607046, 0.2586, 0.608806, 0.25935, 0.611631, 0.260554, 0, 0
2, 2520.00000, 0.607046, 0.2586, 0.608806, 0.25935, 0.611631, 0.260554, 0, 0
2, 2580.00000, 0.607046, 0.2586, 0.608806, 0.25935, 0.611631, 0.260554, 0, 0
2, 2640.00000, 0.607046, 0.2586, 0.608806, 0.25935, 0.611631, 0.260554, 0, 0
2, 2700.00000, 0.607046, 0.2586, 0.608806, 0.25935, 0.611631, 0.260554, 0, 0
2, 2760.00000, 0.564042, 0.240283, 0.565496, 0.240902, 0.567987, 0.241963, 0, 0
2, 2820.00000, 0.56405, 0.240284, 0.565502, 0.240903, 0.567982, 0.241959, 0, 0
2, 2880.00000, 0.56405, 0.240285, 0.565502, 0.240903, 0.567982, 0.241959, 0, 0
2, 2940.00000, 0.56405, 0.240285, 0.565502, 0.240903, 0.567982, 0.241959, 0, 0
2, 3000.00000, 0.56405, 0.240285, 0.565502, 0.240903, 0.567982, 0.241959, 0, 0
2, 3060.00000, 0.56405, 0.240285, 0.565502, 0.240903, 0.567982, 0.241959, 0, 0
2, 3120.00000, 0.56426, 0.240376, 0.568012, 0.241963, 0.568022, 0.241995, 0, 0
2, 3180.00000, 0.564243, 0.240367, 0.567983, 0.241959, 0.567983, 0.24196, 0, 0
2, 3240.00000, 0.564243, 0.240366, 0.567982, 0.241959, 0.567982, 0.241959, 0, 0
2, 3300.00000, 0.564243, 0.240366, 0.567982, 0.241959, 0.567982, 0.241959, 0, 0
2, 3360.00000, 0.564243, 0.240366, 0.567982, 0.241959, 0.567982, 0.241959, 0, 0
2, 3420.00000, 0.564243, 0.240366, 0.567982, 0.241959, 0.567982, 0.241959, 0, 0
2, 3480.00000, 0.564243, 0.240366, 0.567982, 0.241959, 0.567982, 0.241959, 0, 0
2, 3540.00000, 0.564243, 0.240366, 0.567982, 0.241959, 0.567982, 0.241959, 0, 0
3, 0.00000, 0.564243, 0.240366, 0.567982, 0.241959, 0.567982, 0.241959, 0, 0
3, 60.00000, 0.602212, 0.25654, 0.607592, 0.258834, 0.608301, 0.259131, 0, 0
3, 120.00000, 0.602211, 0.256541, 0.607583, 0.258829, 0.608311, 0.259139, 0, 0
3, 180.00000, 0.602211, 0.256541, 0.607583, 0.258829, 0.608311, 0.259139, 0, 0
3, 240.00000, 0.602211, 0.256541, 0.607583, 0.258829, 0.608311, 0.259139, 0, 0
3, 300.00000, 0.602211, 0.256541, 0.607583, 0.258829, 0.608311, 0.259139, 0, 0
3, 360.00000, 0.602211, 0.256541, 0.607583, 0.258829, 0.608311, 0.259139, 0, 0
3, 420.00000, 0.602211, 0.256541, 0.607583, 0.258829, 0.608311, 0.259139, 0, 0
3, 480.00000, 0.602211, 0.256541, 0.607583, 0.258829, 0.608311, 0.259139, 0, 0
3, 540.00000, 0.602211, 0.256541, 0.607583, 0.258829, 0.608311, 0.259139, 0, 0
3, 600.00000, 0.602211, 0.256541, 0.607583, 0.258829, 0.608311, 0.259139, 0, 0
3, 660.00000, 0.602211, 0.256541, 0.607583, 0.258829, 0.608311, 0.259139, 0, 0
3, 720.00000, 0.602211, 0.256541, 0.607583, 0.258829, 0.608311, 0.259139, 0, 0
3, 780.00000, 0.602211, 0.256541, 0.607583, 0.258829, 0.608311, 0.259139, 0, 0
3, 840.00000, 0.602211, 0.256541, 0.607583, 0.258829, 0.608311, 0.259139, 0, 0
3, 900.00000, 0.602211, 0.256541, 0.607583, 0.258829, 0.608311, 0.259139, 0, 0
3, 960.00000, 0.556999, 0.237285, 0.561934, 0.239383, 0.561944, 0.239395, 0, 0
3, 1020.00000, 0.557006, 0.237284, 0.56192, 0.239377, 0.56192, 0.239377, 0, 0
3, 1080.00000, 0.557006, 0.237283, 0.561919, 0.239377, 0.561919, 0.239377, 0, 0
3, 1140.00000, 0.557006, 0.237283, 0.561919, 0.239377, 0.561919, 0.239377, 0, 0
3, 1200.00000, 0.557006, 0.237283, 0.561919, 0.239377, 0.561919, 0.239377, 0, 0
3, 1260.00000, 0.557006, 0.237283, 0.561919, 0.239377, 0.561919, 0.239377, 0, 0
3, 1320.00000, 0.557006, 0.237283, 0.561919, 0.239377, 0.561919, 0.239377, 0, 0
3, 1380.00000, 0.557006, 0.237283, 0.561919, 0.239377, 0.561919, 0.239377, 0, 0
3, 1440.00000, 0.557006, 0.237283, 0.561919, 0.239377, 0.561919, 0.239377, 0, 0
3, 1500.00000, 0.557006, 0.237283, 0.561919, 0.239377, 0.561919, 0.239377, 0, 0
3, 1560.00000, 0.557006, 0.237283, 0.561919, 0.239377, 0.561919, 0.239377, 0, 0
3, 1620.00000, 0.557006, 0.237283, 0.561919, 0.239377, 0.561919, 0.239377, 0, 0
3, 1680.00000, 0.557006, 0.237283, 0.561919, 0.239377, 0.561919, 0.239377, 0, 0
3, 1740.00000, 0.557006, 0.237283, 0.561919, 0.239377, 0.561919, 0.239377, 0, 0
3, 1800.00000, 0.557006, 0.237283, 0.561919, 0.239377, 0.561919, 0.239377, 0, 0
3, 1860.00000, 0.51913, 0.221151, 0.523618, 0.223063, 0.523618, 0.223067, 0, 0
3, 1920.00000, 0.519135, 0.221151, 0.523609, 0.223056, 0.523609, 0.223057, 0, 0
3, 1980.00000, 0.519135, 0.221151, 0.523609, 0.223056, 0.523609, 0.223056, 0, 0
3, 2040.00000, 0.519135, 0.221151, 0.523609, 0.223056, 0.523609, 0.223056, 0, 0
3, 2100.00000, 0.519135, 0.221151, 0.523609, 0.223056, 0.523609, 0.223056, 0, 0
3, 2160.00000, 0.519135, 0.221151, 0.523609, 0.223056, 0.523609, 0.223056, 0, 0
3, 2220.00000, 0.519135, 0.221151, 0.523609, 0.223056, 0.523609, 0.223056, 0, 0
3, 2280.00000, 0.519135, 0.221151, 0.523609, 0.223056, 0.523609, 0.223056, 0, 0
3, 2340.00000, 0.519135, 0.221151, 0.523609, 0.223056, 0.523609, 0.223056, 0, 0
3, 2400.00000, 0.519135, 0.221151, 0.523609, 0.223056, 0.523609, 0.223056, 0, 0
3, 2460.00000, 0.519135, 0.221151, 0.523609, 0.223056, 0.523609, 0.223056, 0, 0
3, 2520.00000, 0.519135, 0.221151, 0.523609, 0.223056, 0.523609, 0.223056, 0, 0
3, 2580.00000, 0.519135, 0.221151, 0.523609, 0.223056, 0.523609, 0.223056, 0, 0
3, 2640.00000, 0.519135, 0.221151, 0.523609, 0.223056, 0.523609, 0.223056, 0, 0
3, 2700.00000, 0.519135, 0.221151, 0.523609, 0.223056, 0.523609, 0.223056, 0, 0
3, 2760.00000, 0.55063, 0.23457, 0.551905, 0.235111, 0.551906, 0.235117, 0, 0
3, 2820.00000, 0.550637, 0.23457, 0.55189, 0.235104, 0.55189, 0.235104, 0, 0
3, 2880.00000, 0.550637, 0.23457, 0.55189, 0.235104, 0.55189, 0.235104, 0, 0
3, 2940.00000, 0.550637, 0.23457, 0.55189, 0.235104, 0.55189, 0.235104, 0, 0
3, 3000.00000, 0.550637, 0.23457, 0.55189, 0.235104, 0.55189, 0.235104, 0, 0
3, 3060.00000, 0.550637, 0.23457, 0.55189, 0.235104, 0.55189, 0.235104, 0, 0
3, 3120.00000, 0.55191, 0.235126, 0.55188, 0.2351, 0.551907, 0.235108, 0, 0
3, 3180.00000, 0.55189, 0.235104, 0.55189, 0.235104, 0.55189, 0.235104, 0, 0
3, 3240.00000, 0.55189, 0.235104, 0.55189, 0.235104, 0.55189, 0.235104, 0, 0
3, 3300.00000, 0.55189, 0.235104, 0.55189, 0.235104, 0.55189, 0.235104, 0, 0
3, 3360.00000, 0.55189, 0.235104, 0.55189, 0.235104, 0.55189, 0.235104, 0, 0
3, 3420.00000, 0.55189, 0.235104, 0.55189, 0.235104, 0.55189, 0.235104, 0, 0
3, 3480.00000, 0.55189, 0.235104, 0.55189, 0.235104, 0.55189, 0.235104, 0, 0
3, 3540.00000, 0.55189, 0.235104, 0.55189, 0.235104, 0.55189, 0.235104, 0, 0
4, 0.00000, 0.55189, 0.235104, 0.55189, 0.235104, 0.55189, 0.235104, 0, 0
4, 60.00000, 0.518735, 0.220978, 0.518734, 0.220979, 0.51873, 0.220976, 0, 0
4, 120.00000, 0.518742, 0.220983, 0.518742, 0.220983, 0.518742, 0.220983, 0, 0
4, 180.00000, 0.518742, 0.220983, 0.518742, 0.220983, 0.518742, 0.220983, 0, 0
4, 240.00000, 0.518742, 0.220983, 0.518742, 0.220983, 0.518742, 0.220983, 0, 0
4, 300.00000, 0.518742, 0.220983, 0.518742, 0.220983, 0.518742, 0.220983, 0, 0
4, 360.00000, 0.518742, 0.220983, 0.518742, 0.220983, 0.518742, 0.220983, 0, 0
4, 420.00000, 0.518742, 0.220983, 0.518742, 0.220983, 0.518742, 0.220983, 0, 0
4, 480.00000, 0.518742, 0.220983, 0.518742, 0.220983, 0.518742, 0.220983, 0, 0
4, 540.00000, 0.518742, 0.220983, 0.518742, 0.220983, 0.518742, 0.220983, 0, 0
4, 600.00000, 0.518742, 0.220983, 0.518742, 0.220983, 0.518742, 0.220983, 0, 0
4, 660.00000, 0.518742, 0.220983, 0.518742, 0.220983, 0.518742, 0.220983, 0, 0
4, 720.00000, 0.518742, 0.220983, 0.518742, 0.220983, 0.518742, 0.220983, 0, 0
