hour,t(sec),"P1 (kW)","Q1 (kvar)","P2 (kW)","Q2 (kvar)","P3 (kW)","Q3 (kvar)","P4 (kW)","Q4 (kvar)"
0, 60.00000, 0.520148, 0.22158, 0.509364, 0.216986, 0.514117, 0.21901, 0, 0
0, 120.00000, 0.520143, 0.22158, 0.509359, 0.216986, 0.514111, 0.219011, 0, 0
0, 180.00000, 0.520143, 0.22158, 0.509359, 0.216986, 0.514111, 0.219011, 0, 0
0, 240.00000, 0.520143, 0.22158, 0.509359, 0.216986, 0.514111, 0.219011, 0, 0
0, 300.00000, 0.520143, 0.22158, 0.509359, 0.216986, 0.514111, 0.219011, 0, 0
0, 360.00000, 0.520143, 0.22158, 0.509359, 0.216986, 0.514111, 0.219011, 0, 0
0, 420.00000, 0.520143, 0.22158, 0.509359, 0.216986, 0.514111, 0.219011, 0, 0
0, 480.00000, 0.507, 0.215984, 0.496004, 0.211299, 0.500393, 0.21317, 0, 0
0, 540.00000, 0.507007, 0.215984, 0.49601, 0.211299, 0.500398, 0.213169, 0, 0
0, 600.00000, 0.507007, 0.215984, 0.49601, 0.211299, 0.500398, 0.213169, 0, 0
0, 660.00000, 0.507007, 0.215984, 0.49601, 0.211299, 0.500398, 0.213169, 0, 0
0, 720.00000, 0.507007, 0.215984, 0.49601, 0.211299, 0.500398, 0.213169, 0, 0
0, 780.00000, 0.507007, 0.215984, 0.49601, 0.211299, 0.500398, 0.213169, 0, 0
0, 840.00000, 0.507007, 0.215984, 0.49601, 0.211299, 0.500398, 0.213169, 0, 0
0, 900.00000, 0.507007, 0.215984, 0.49601, 0.211299, 0.500398, 0.213169, 0, 0
0, 960.00000, 0.494745, 0.210759, 0.483407, 0.205931, 0.501083, 0.213461, 0, 0
0, 1020.00000, 0.494741, 0.210759, 0.483403, 0.205929, 0.501084, 0.213461, 0, 0
0, 1080.00000, 0.49474, 0.210759, 0.483403, 0.205929, 0.501084, 0.213461, 0, 0
0, 1140.00000, 0.49474, 0.210759, 0.483403, 0.205929, 0.501084, 0.213461, 0, 0
0, 1200.00000, 0.49474, 0.210759, 0.483403, 0.205929, 0.501084, 0.213461, 0, 0
0, 1260.00000, 0.49474, 0.210759, 0.483403, 0.205929, 0.501084, 0.213461, 0, 0
0, 1320.00000, 0.49474, 0.210759, 0.483403, 0.205929, 0.501084, 0.213461, 0, 0
0, 1380.00000, 0.49474, 0.210759, 0.483403, 0.205929, 0.501084, 0.213461, 0, 0
0, 1440.00000, 0.49474, 0.210759, 0.483403, 0.205929, 0.501084, 0.213461, 0, 0
0, 1500.00000, 0.49474, 0.210759, 0.483403, 0.205929, 0.501084, 0.213461, 0, 0
0, 1560.00000, 0.49474, 0.210759, 0.483403, 0.205929, 0.501084, 0.213461, 0, 0
0, 1620.00000, 0.49474, 0.210759, 0.483403, 0.205929, 0.501084, 0.213461, 0, 0
0, 1680.00000, 0.49474, 0.210759, 0.483403, 0.205929, 0.501084, 0.213461, 0, 0
0, 1740.00000, 0.49474, 0.210759, 0.483403, 0.205929, 0.501084, 0.213461, 0, 0
0, 1800.00000, 0.49474, 0.210759, 0.483403, 0.205929, 0.501084, 0.213461, 0, 0
0, 1860.00000, 0.49474, 0.210759, 0.483403, 0.205929, 0.501084, 0.213461, 0, 0
0, 1920.00000, 0.49474, 0.210759, 0.483403, 0.205929, 0.501084, 0.213461, 0, 0
0, 1980.00000, 0.49474, 0.210759, 0.483403, 0.205929, 0.501084, 0.213461, 0, 0
0, 2040.00000, 0.49474, 0.210759, 0.483403, 0.205929, 0.501084, 0.213461, 0, 0
0, 2100.00000, 0.49474, 0.210759, 0.483403, 0.205929, 0.501084, 0.213461, 0, 0
0, 2160.00000, 0.49474, 0.210759, 0.483403, 0.205929, 0.501084, 0.213461, 0, 0
0, 2220.00000, 0.49474, 0.210759, 0.483403, 0.205929, 0.501084, 0.213461, 0, 0
0, 2280.00000, 0.49474, 0.210759, 0.483403, 0.205929, 0.501084, 0.213461, 0, 0
0, 2340.00000, 0.49474, 0.210759, 0.483403, 0.205929, 0.501084, 0.213461, 0, 0
0, 2400.00000, 0.49474, 0.210759, 0.483403, 0.205929, 0.501084, 0.213461, 0, 0
0, 2460.00000, 0.49474, 0.210759, 0.483403, 0.205929, 0.501084, 0.213461, 0, 0
0, 2520.00000, 0.49474, 0.210759, 0.483403, 0.205929, 0.501084, 0.213461, 0, 0
0, 2580.00000, 0.49474, 0.210759, 0.483403, 0.205929, 0.501084, 0.213461, 0, 0
0, 2640.00000, 0.49474, 0.210759, 0.483403, 0.205929, 0.501084, 0.213461, 0, 0
0, 2700.00000, 0.49474, 0.210759, 0.483403, 0.205929, 0.501084, 0.213461, 0, 0
0, 2760.00000, 0.496061, 0.211322, 0.486474, 0.20724, 0.500964, 0.21341, 0, 0
0, 2820.00000, 0.496064, 0.211322, 0.486479, 0.207239, 0.500962, 0.213409, 0, 0
0, 2880.00000, 0.496064, 0.211322, 0.486479, 0.207239, 0.500962, 0.213409, 0, 0
0, 2940.00000, 0.496064, 0.211322, 0.486479, 0.207239, 0.500962, 0.213409, 0, 0
0, 3000.00000, 0.496064, 0.211322, 0.486479, 0.207239, 0.500962, 0.213409, 0, 0
0, 3060.00000, 0.496064, 0.211322, 0.486479, 0.207239, 0.500962, 0.213409, 0, 0
0, 3120.00000, 0.496064, 0.211322, 0.486479, 0.207239, 0.500962, 0.213409, 0, 0
0, 3180.00000, 0.496064, 0.211322, 0.486479, 0.207239, 0.500962, 0.213409, 0, 0
0, 3240.00000, 0.496064, 0.211322, 0.486479, 0.207239, 0.500962, 0.213409, 0, 0
0, 3300.00000, 0.496064, 0.211322, 0.486479, 0.207239, 0.500962, 0.213409, 0, 0
0, 3360.00000, 0.496064, 0.211322, 0.486479, 0.207239, 0.500962, 0.213409, 0, 0
0, 3420.00000, 0.496064, 0.211322, 0.486479, 0.207239, 0.500962, 0.213409, 0, 0
0, 3480.00000, 0.496064, 0.211322, 0.486479, 0.207239, 0.500962, 0.213409, 0, 0
0, 3540.00000, 0.496064, 0.211322, 0.486479, 0.207239, 0.500962, 0.213409, 0, 0
1, 0.00000, 0.496064, 0.211322, 0.486479, 0.207239, 0.500962, 0.213409, 0, 0
1, 60.00000, 0.498825, 0.212502, 0.486471, 0.207236, 0.501963, 0.213836, 0, 0
1, 120.00000, 0.498832, 0.212501, 0.48647, 0.207235, 0.501965, 0.213836, 0, 0
1, 180.00000, 0.498832, 0.212501, 0.48647, 0.207235, 0.501965, 0.213836, 0, 0
1, 240.00000, 0.498832, 0.212501, 0.48647, 0.207235, 0.501965, 0.213836, 0, 0
1, 300.00000, 0.498832, 0.212501, 0.48647, 0.207235, 0.501965, 0.213836, 0, 0
1, 360.00000, 0.498832, 0.212501, 0.48647, 0.207235, 0.501965, 0.213836, 0, 0
1, 420.00000, 0.498832, 0.212501, 0.48647, 0.207235, 0.501965, 0.213836, 0, 0
1, 480.00000, 0.498832, 0.212501, 0.48647, 0.207235, 0.501965, 0.213836, 0, 0
1, 540.00000, 0.498832, 0.212501, 0.48647, 0.207235, 0.501965, 0.213836, 0, 0
1, 600.00000, 0.498832, 0.212501, 0.48647, 0.207235, 0.501965, 0.213836, 0, 0
1, 660.00000, 0.498832, 0.212501, 0.48647, 0.207235, 0.501965, 0.213836, 0, 0
1, 720.00000, 0.498832, 0.212501, 0.48647, 0.207235, 0.501965, 0.213836, 0, 0
1, 780.00000, 0.498832, 0.212501, 0.48647, 0.207235, 0.501965, 0.213836, 0, 0
1, 840.00000, 0.498832, 0.212501, 0.48647, 0.207235, 0.501965, 0.213836, 0, 0
1, 900.00000, 0.498832, 0.212501, 0.48647, 0.207235, 0.501965, 0.213836, 0, 0
1, 960.00000, 0.498832, 0.212501, 0.48647, 0.207235, 0.501965, 0.213836, 0, 0
1, 1020.00000, 0.498832, 0.212501, 0.48647, 0.207235, 0.501965, 0.213836, 0, 0
1, 1080.00000, 0.498832, 0.212501, 0.48647, 0.207235, 0.501965, 0.213836, 0, 0
1, 1140.00000, 0.498832, 0.212501, 0.48647, 0.207235, 0.501965, 0.213836, 0, 0
1, 1200.00000, 0.498832, 0.212501, 0.48647, 0.207235, 0.501965, 0.213836, 0, 0
1, 1260.00000, 0.498832, 0.212501, 0.48647, 0.207235, 0.501965, 0.213836, 0, 0
1, 1320.00000, 0.498832, 0.212501, 0.48647, 0.207235, 0.501965, 0.213836, 0, 0
1, 1380.00000, 0.498832, 0.212501, 0.48647, 0.207235, 0.501965, 0.213836, 0, 0
1, 1440.00000, 0.498832, 0.212501, 0.48647, 0.207235, 0.501965, 0.213836, 0, 0
1, 1500.00000, 0.498832, 0.212501, 0.48647, 0.207235, 0.501965, 0.213836, 0, 0
1, 1560.00000, 0.498832, 0.212501, 0.48647, 0.207235, 0.501965, 0.213836, 0, 0
1, 1620.00000, 0.498832, 0.212501, 0.48647, 0.207235, 0.501965, 0.213836, 0, 0
1, 1680.00000, 0.498832, 0.212501, 0.48647, 0.207235, 0.501965, 0.213836, 0, 0
1, 1740.00000, 0.498832, 0.212501, 0.48647, 0.207235, 0.501965, 0.213836, 0, 0
1, 1800.00000, 0.498832, 0.212501, 0.48647, 0.207235, 0.501965, 0.213836, 0, 0
1, 1860.00000, 0.498832, 0.212501, 0.48647, 0.207235, 0.501965, 0.213836, 0, 0
1, 1920.00000, 0.498832, 0.212501, 0.48647, 0.207235, 0.501965, 0.213836, 0, 0
1, 1980.00000, 0.498832, 0.212501, 0.48647, 0.207235, 0.501965, 0.213836, 0, 0
1, 2040.00000, 0.498832, 0.212501, 0.48647, 0.207235, 0.501965, 0.213836, 0, 0
1, 2100.00000, 0.498832, 0.212501, 0.48647, 0.207235, 0.501965, 0.213836, 0, 0
1, 2160.00000, 0.498832, 0.212501, 0.48647, 0.207235, 0.501965, 0.213836, 0, 0
1, 2220.00000, 0.498832, 0.212501, 0.48647, 0.207235, 0.501965, 0.213836, 0, 0
1, 2280.00000, 0.498832, 0.212501, 0.48647, 0.207235, 0.501965, 0.213836, 0, 0
1, 2340.00000, 0.498832, 0.212501, 0.48647, 0.207235, 0.501965, 0.213836, 0, 0
1, 2400.00000, 0.498832, 0.212501, 0.48647, 0.207235, 0.501965, 0.213836, 0, 0
1, 2460.00000, 0.498832, 0.212501, 0.48647, 0.207235, 0.501965, 0.213836, 0, 0
1, 2520.00000, 0.498832, 0.212501, 0.48647, 0.207235, 0.501965, 0.213836, 0, 0
1, 2580.00000, 0.498832, 0.212501, 0.48647, 0.207235, 0.501965, 0.213836, 0, 0
1, 2640.00000, 0.498832, 0.212501, 0.48647, 0.207235, 0.501965, 0.213836, 0, 0
1, 2700.00000, 0.498832, 0.212501, 0.48647, 0.207235, 0.501965, 0.213836, 0, 0
1, 2760.00000, 0.498832, 0.212501, 0.48647, 0.207235, 0.501965, 0.213836, 0, 0
1, 2820.00000, 0.498832, 0.212501, 0.48647, 0.207235, 0.501965, 0.213836, 0, 0
1, 2880.00000, 0.498832, 0.212501, 0.48647, 0.207235, 0.501965, 0.213836, 0, 0
1, 2940.00000, 0.498832, 0.212501, 0.48647, 0.207235, 0.501965, 0.213836, 0, 0
1, 3000.00000, 0.498832, 0.212501, 0.48647, 0.207235, 0.501965, 0.213836, 0, 0
1, 3060.00000, 0.498832, 0.212501, 0.48647, 0.207235, 0.501965, 0.213836, 0, 0
1, 3120.00000, 0.498832, 0.212501, 0.48647, 0.207235, 0.501965, 0.213836, 0, 0
1, 3180.00000, 0.498832, 0.212501, 0.48647, 0.207235, 0.501965, 0.213836, 0, 0
1, 3240.00000, 0.498832, 0.212501, 0.48647, 0.207235, 0.501965, 0.213836, 0, 0
1, 3300.00000, 0.498832, 0.212501, 0.48647, 0.207235, 0.501965, 0.213836, 0, 0
1, 3360.00000, 0.498832, 0.212501, 0.48647, 0.207235, 0.501965, 0.213836, 0, 0
1, 3420.00000, 0.498832, 0.212501, 0.48647, 0.207235, 0.501965, 0.213836, 0, 0
1, 3480.00000, 0.498832, 0.212501, 0.48647, 0.207235, 0.501965, 0.213836, 0, 0
1, 3540.00000, 0.498832, 0.212501, 0.48647, 0.207235, 0.501965, 0.213836, 0, 0
2, 0.00000, 0.498832, 0.212501, 0.48647, 0.207235, 0.501965, 0.213836, 0, 0
2, 60.00000, 0.498832, 0.212501, 0.48647, 0.207235, 0.501965, 0.213836, 0, 0
2, 120.00000, 0.498832, 0.212501, 0.48647, 0.207235, 0.501965, 0.213836, 0, 0
2, 180.00000, 0.498832, 0.212501, 0.48647, 0.207235, 0.501965, 0.213836, 0, 0
2, 240.00000, 0.498832, 0.212501, 0.48647, 0.207235, 0.501965, 0.213836, 0, 0
2, 300.00000, 0.498832, 0.212501, 0.48647, 0.207235, 0.501965, 0.213836, 0, 0
2, 360.00000, 0.498832, 0.212501, 0.48647, 0.207235, 0.501965, 0.213836, 0, 0
2, 420.00000, 0.498832, 0.212501, 0.48647, 0.207235, 0.501965, 0.213836, 0, 0
2, 480.00000, 0.498832, 0.212501, 0.48647, 0.207235, 0.501965, 0.213836, 0, 0
2, 540.00000, 0.498832, 0.212501, 0.48647, 0.207235, 0.501965, 0.213836, 0, 0
2, 600.00000, 0.498832, 0.212501, 0.48647, 0.207235, 0.501965, 0.213836, 0, 0
2, 660.00000, 0.498832, 0.212501, 0.48647, 0.207235, 0.501965, 0.213836, 0, 0
2, 720.00000, 0.498832, 0.212501, 0.48647, 0.207235, 0.501965, 0.213836, 0, 0
2, 780.00000, 0.498832, 0.212501, 0.48647, 0.207235, 0.501965, 0.213836, 0, 0
2, 840.00000, 0.511244, 0.21779, 0.499178, 0.212651, 0.501269, 0.21354, 0, 0
2, 900.00000, 0.511246, 0.21779, 0.499182, 0.21265, 0.501267, 0.213539, 0, 0
2, 960.00000, 0.511246, 0.21779, 0.499182, 0.21265, 0.501267, 0.213539, 0, 0
2, 1020.00000, 0.511246, 0.21779, 0.499182, 0.21265, 0.501267, 0.213539, 0, 0
2, 1080.00000, 0.511246, 0.21779, 0.499182, 0.21265, 0.501267, 0.213539, 0, 0
2, 1140.00000, 0.511246, 0.21779, 0.499182, 0.21265, 0.501267, 0.213539, 0, 0
2, 1200.00000, 0.511246, 0.21779, 0.499182, 0.21265, 0.501267, 0.213539, 0, 0
2, 1260.00000, 0.511246, 0.21779, 0.499182, 0.21265, 0.501267, 0.213539, 0, 0
2, 1320.00000, 0.511246, 0.21779, 0.499182, 0.21265, 0.501267, 0.213539, 0, 0
2, 1380.00000, 0.511246, 0.21779, 0.499182, 0.21265, 0.501267, 0.213539, 0, 0
2, 1440.00000, 0.511246, 0.21779, 0.499182, 0.21265, 0.501267, 0.213539, 0, 0
2, 1500.00000, 0.511246, 0.21779, 0.499182, 0.21265, 0.501267, 0.213539, 0, 0
2, 1560.00000, 0.511246, 0.21779, 0.499182, 0.21265, 0.501267, 0.213539, 0, 0
2, 1620.00000, 0.511246, 0.21779, 0.499182, 0.21265, 0.501267, 0.213539, 0, 0
2, 1680.00000, 0.511246, 0.21779, 0.499182, 0.21265, 0.501267, 0.213539, 0, 0
2, 1740.00000, 0.511246, 0.21779, 0.499182, 0.21265, 0.501267, 0.213539, 0, 0
2, 1800.00000, 0.511246, 0.21779, 0.499182, 0.21265, 0.501267, 0.213539, 0, 0
2, 1860.00000, 0.511246, 0.21779, 0.499182, 0.21265, 0.501267, 0.213539, 0, 0
2, 1920.00000, 0.511246, 0.21779, 0.499182, 0.21265, 0.501267, 0.213539, 0, 0
2, 1980.00000, 0.511246, 0.21779, 0.499182, 0.21265, 0.501267, 0.213539, 0, 0
2, 2040.00000, 0.511246, 0.21779, 0.499182, 0.21265, 0.501267, 0.213539, 0, 0
2, 2100.00000, 0.511246, 0.21779, 0.499182, 0.21265, 0.501267, 0.213539, 0, 0
2, 2160.00000, 0.511246, 0.21779, 0.499182, 0.21265, 0.501267, 0.213539, 0, 0
2, 2220.00000, 0.511246, 0.21779, 0.499182, 0.21265, 0.501267, 0.213539, 0, 0
2, 2280.00000, 0.511246, 0.21779, 0.499182, 0.21265, 0.501267, 0.213539, 0, 0
2, 2340.00000, 0.511246, 0.21779, 0.499182, 0.21265, 0.501267, 0.213539, 0, 0
2, 2400.00000, 0.511524, 0.217909, 0.502017, 0.213859, 0.505953, 0.215539, 0, 0
2, 2460.00000, 0.511524, 0.217909, 0.50202, 0.213859, 0.505963, 0.215539, 0, 0
2, 2520.00000, 0.511524, 0.217908, 0.50202, 0.213859, 0.505963, 0.215539, 0, 0
2, 2580.00000, 0.511524, 0.217908, 0.50202, 0.213859, 0.505963, 0.215539, 0, 0
2, 2640.00000, 0.511524, 0.217908, 0.50202, 0.213859, 0.505963, 0.215539, 0, 0
2, 2700.00000, 0.510984, 0.217678, 0.495246, 0.210973, 0.497768, 0.212047, 0, 0
2, 2760.00000, 0.510984, 0.217678, 0.495243, 0.210973, 0.497764, 0.212047, 0, 0
2, 2820.00000, 0.510984, 0.217678, 0.495243, 0.210973, 0.497764, 0.212047, 0, 0
2, 2880.00000, 0.510984, 0.217678, 0.495243, 0.210973, 0.497764, 0.212047, 0, 0
2, 2940.00000, 0.510984, 0.217678, 0.495243, 0.210973, 0.497764, 0.212047, 0, 0
2, 3000.00000, 0.510984, 0.217678, 0.495243, 0.210973, 0.497764, 0.212047, 0, 0
2, 3060.00000, 0.514137, 0.219027, 0.49523, 0.210968, 0.498952, 0.212553, 0, 0
2, 3120.00000, 0.514151, 0.219027, 0.495228, 0.210966, 0.498953, 0.212553, 0, 0
2, 3180.00000, 0.514151, 0.219027, 0.495228, 0.210966, 0.498953, 0.212553, 0, 0
2, 3240.00000, 0.514151, 0.219027, 0.495228, 0.210966, 0.498953, 0.212553, 0, 0
2, 3300.00000, 0.514151, 0.219027, 0.495228, 0.210966, 0.498953, 0.212553, 0, 0
2, 3360.00000, 0.514151, 0.219027, 0.495228, 0.210966, 0.498953, 0.212553, 0, 0
2, 3420.00000, 0.514151, 0.219027, 0.495228, 0.210966, 0.498953, 0.212553, 0, 0
2, 3480.00000, 0.514151, 0.219027, 0.495228, 0.210966, 0.498953, 0.212553, 0, 0
2, 3540.00000, 0.514151, 0.219027, 0.495228, 0.210966, 0.498953, 0.212553, 0, 0
3, 0.00000, 0.514151, 0.219027, 0.495228, 0.210966, 0.498953, 0.212553, 0, 0
3, 60.00000, 0.514151, 0.219027, 0.495228, 0.210966, 0.498953, 0.212553, 0, 0
3, 120.00000, 0.514151, 0.219027, 0.495228, 0.210966, 0.498953, 0.212553, 0, 0
3, 180.00000, 0.514151, 0.219027, 0.495228, 0.210966, 0.498953, 0.212553, 0, 0
3, 240.00000, 0.514151, 0.219027, 0.495228, 0.210966, 0.498953, 0.212553, 0, 0
3, 300.00000, 0.514151, 0.219027, 0.495228, 0.210966, 0.498953, 0.212553, 0, 0
3, 360.00000, 0.514151, 0.219027, 0.495228, 0.210966, 0.498953, 0.212553, 0, 0
3, 420.00000, 0.514151, 0.219027, 0.495228, 0.210966, 0.498953, 0.212553, 0, 0
3, 480.00000, 0.514151, 0.219027, 0.495228, 0.210966, 0.498953, 0.212553, 0, 0
3, 540.00000, 0.514151, 0.219027, 0.495228, 0.210966, 0.498953, 0.212553, 0, 0
3, 600.00000, 0.514151, 0.219027, 0.495228, 0.210966, 0.498953, 0.212553, 0, 0
3, 660.00000, 0.514151, 0.219027, 0.495228, 0.210966, 0.498953, 0.212553, 0, 0
3, 720.00000, 0.514151, 0.219027, 0.495228, 0.210966, 0.498953, 0.212553, 0, 0
3, 780.00000, 0.514151, 0.219027, 0.495228, 0.210966, 0.498953, 0.212553, 0, 0
3, 840.00000, 0.514151, 0.219027, 0.495228, 0.210966, 0.498953, 0.212553, 0, 0
3, 900.00000, 0.514151, 0.219027, 0.495228, 0.210966, 0.498953, 0.212553, 0, 0
3, 960.00000, 0.514151, 0.219027, 0.495228, 0.210966, 0.498953, 0.212553, 0, 0
3, 1020.00000, 0.514151, 0.219027, 0.495228, 0.210966, 0.498953, 0.212553, 0, 0
3, 1080.00000, 0.514151, 0.219027, 0.495228, 0.210966, 0.498953, 0.212553, 0, 0
3, 1140.00000, 0.514151, 0.219027, 0.495228, 0.210966, 0.498953, 0.212553, 0, 0
3, 1200.00000, 0.514151, 0.219027, 0.495228, 0.210966, 0.498953, 0.212553, 0, 0
3, 1260.00000, 0.514151, 0.219027, 0.495228, 0.210966, 0.498953, 0.212553, 0, 0
3, 1320.00000, 0.514151, 0.219027, 0.495228, 0.210966, 0.498953, 0.212553, 0, 0
3, 1380.00000, 0.514151, 0.219027, 0.495228, 0.210966, 0.498953, 0.212553, 0, 0
3, 1440.00000, 0.514151, 0.219027, 0.495228, 0.210966, 0.498953, 0.212553, 0, 0
3, 1500.00000, 0.514151, 0.219027, 0.495228, 0.210966, 0.498953, 0.212553, 0, 0
3, 1560.00000, 0.514151, 0.219027, 0.495228, 0.210966, 0.498953, 0.212553, 0, 0
3, 1620.00000, 0.514151, 0.219027, 0.495228, 0.210966, 0.498953, 0.212553, 0, 0
3, 1680.00000, 0.514151, 0.219027, 0.495228, 0.210966, 0.498953, 0.212553, 0, 0
3, 1740.00000, 0.514151, 0.219027, 0.495228, 0.210966, 0.498953, 0.212553, 0, 0
3, 1800.00000, 0.514151, 0.219027, 0.495228, 0.210966, 0.498953, 0.212553, 0, 0
3, 1860.00000, 0.514151, 0.219027, 0.495228, 0.210966, 0.498953, 0.212553, 0, 0
3, 1920.00000, 0.514151, 0.219027, 0.495228, 0.210966, 0.498953, 0.212553, 0, 0
3, 1980.00000, 0.514151, 0.219027, 0.495228, 0.210966, 0.498953, 0.212553, 0, 0
3, 2040.00000, 0.514151, 0.219027, 0.495228, 0.210966, 0.498953, 0.212553, 0, 0
3, 2100.00000, 0.514151, 0.219027, 0.495228, 0.210966, 0.498953, 0.212553, 0, 0
3, 2160.00000, 0.514151, 0.219027, 0.495228, 0.210966, 0.498953, 0.212553, 0, 0
3, 2220.00000, 0.514151, 0.219027, 0.495228, 0.210966, 0.498953, 0.212553, 0, 0
3, 2280.00000, 0.514151, 0.219027, 0.495228, 0.210966, 0.498953, 0.212553, 0, 0
3, 2340.00000, 0.514151, 0.219027, 0.495228, 0.210966, 0.498953, 0.212553, 0, 0
3, 2400.00000, 0.514151, 0.219027, 0.495228, 0.210966, 0.498953, 0.212553, 0, 0
3, 2460.00000, 0.514151, 0.219027, 0.495228, 0.210966, 0.498953, 0.212553, 0, 0
3, 2520.00000, 0.514151, 0.219027, 0.495228, 0.210966, 0.498953, 0.212553, 0, 0
3, 2580.00000, 0.514151, 0.219027, 0.495228, 0.210966, 0.498953, 0.212553, 0, 0
3, 2640.00000, 0.514151, 0.219027, 0.495228, 0.210966, 0.498953, 0.212553, 0, 0
3, 2700.00000, 0.514151, 0.219027, 0.495228, 0.210966, 0.498953, 0.212553, 0, 0
3, 2760.00000, 0.514151, 0.219027, 0.495228, 0.210966, 0.498953, 0.212553, 0, 0
3, 2820.00000, 0.514151, 0.219027, 0.495228, 0.210966, 0.498953, 0.212553, 0, 0
3, 2880.00000, 0.514151, 0.219027, 0.495228, 0.210966, 0.498953, 0.212553, 0, 0
3, 2940.00000, 0.514151, 0.219027, 0.495228, 0.210966, 0.498953, 0.212553, 0, 0
3, 3000.00000, 0.514151, 0.219027, 0.495228, 0.210966, 0.498953, 0.212553, 0, 0
3, 3060.00000, 0.514151, 0.219027, 0.495228, 0.210966, 0.498953, 0.212553, 0, 0
3, 3120.00000, 0.514151, 0.219027, 0.495228, 0.210966, 0.498953, 0.212553, 0, 0
3, 3180.00000, 0.424532, 0.180849, 0.408998, 0.174231, 0.412118, 0.175561, 0, 0
3, 3240.00000, 0.424529, 0.180849, 0.408997, 0.174232, 0.412117, 0.175561, 0, 0
3, 3300.00000, 0.424529, 0.180849, 0.408997, 0.174232, 0.412117, 0.175561, 0, 0
3, 3360.00000, 0.424529, 0.180849, 0.408997, 0.174232, 0.412117, 0.175561, 0, 0
3, 3420.00000, 0.424529, 0.180849, 0.408997, 0.174232, 0.412117, 0.175561, 0, 0
3, 3480.00000, 0.424529, 0.180849, 0.408997, 0.174232, 0.412117, 0.175561, 0, 0
3, 3540.00000, 0.424529, 0.180849, 0.408997, 0.174232, 0.412117, 0.175561, 0, 0
4, 0.00000, 0.424529, 0.180849, 0.408997, 0.174232, 0.412117, 0.175561, 0, 0
4, 60.00000, 0.424529, 0.180849, 0.408997, 0.174232, 0.412117, 0.175561, 0, 0
4, 120.00000, 0.424529, 0.180849, 0.408997, 0.174232, 0.412117, 0.175561, 0, 0
4, 180.00000, 0.424529, 0.180849, 0.408997, 0.174232, 0.412117, 0.175561, 0, 0
4, 240.00000, 0.424529, 0.180849, 0.408997, 0.174232, 0.412117, 0.175561, 0, 0
4, 300.00000, 0.424529, 0.180849, 0.408997, 0.174232, 0.412117, 0.175561, 0, 0
4, 360.00000, 0.424529, 0.180849, 0.408997, 0.174232, 0.412117, 0.175561, 0, 0
4, 420.00000, 0.424529, 0.180849, 0.408997, 0.174232, 0.412117, 0.175561, 0, 0
4, 480.00000, 0.424529, 0.180849, 0.408997, 0.174232, 0.412117, 0.175561, 0, 0
4, 540.00000, 0.424529, 0.180849, 0.408997, 0.174232, 0.412117, 0.175561, 0, 0
4, 600.00000, 0.424529, 0.180849, 0.408997, 0.174232, 0.412117, 0.175561, 0, 0
4, 660.00000, 0.424529, 0.180849, 0.408997, 0.174232, 0.412117, 0.175561, 0, 0
4, 720.00000, 0.424529, 0.180849, 0.408997, 0.174232, 0.412117, 0.175561, 0, 0
