hour,t(sec),V1,VAngle1,V2,VAngle2,V3,VAngle3,V4,VAngle4,I1,IAngle1,I2,IAngle2,I3,IAngle3,I4,IAngle4
0, 60.00000, 125.493, -31.5345, 125.467, -151.383, 125.774, 88.5612, 0, 0, 4.51546, -54.6081, 4.5164, -174.457, 4.50536, 65.4874, 0.0210339, 58.9651
0, 120.00000, 125.493, -31.5345, 125.466, -151.383, 125.774, 88.5612, 0, 0, 4.51548, -54.6084, 4.51643, -174.457, 4.50538, 65.4873, 0.0210408, 58.9409
0, 180.00000, 125.493, -31.5345, 125.466, -151.383, 125.774, 88.5612, 0, 0, 4.51548, -54.6084, 4.51643, -174.457, 4.50538, 65.4873, 0.0210408, 58.9408
0, 240.00000, 125.493, -31.5345, 125.466, -151.383, 125.774, 88.5612, 0, 0, 4.51548, -54.6084, 4.51643, -174.457, 4.50538, 65.4873, 0.0210408, 58.9408
0, 300.00000, 125.493, -31.5345, 125.466, -151.383, 125.774, 88.5612, 0, 0, 4.51548, -54.6084, 4.51643, -174.457, 4.50538, 65.4873, 0.0210408, 58.9408
0, 360.00000, 125.493, -31.5345, 125.466, -151.383, 125.774, 88.5612, 0, 0, 4.51548, -54.6084, 4.51643, -174.457, 4.50538, 65.4873, 0.0210408, 58.9408
0, 420.00000, 125.493, -31.5345, 125.466, -151.383, 125.774, 88.5612, 0, 0, 4.51548, -54.6084, 4.51643, -174.457, 4.50538, 65.4873, 0.0210408, 58.9408
0, 480.00000, 125.853, -31.4066, 125.832, -151.253, 126.142, 88.6892, 0, 0, 3.91727, -54.4808, 3.91794, -174.328, 3.9083, 65.6149, 0.0184631, 59.7288
0, 540.00000, 125.853, -31.4066, 125.832, -151.253, 126.142, 88.6892, 0, 0, 3.91725, -54.4805, 3.91791, -174.327, 3.90827, 65.6153, 0.018472, 59.7617
0, 600.00000, 125.853, -31.4066, 125.832, -151.253, 126.142, 88.6892, 0, 0, 3.91725, -54.4805, 3.91791, -174.327, 3.90827, 65.6153, 0.0184721, 59.7619
0, 660.00000, 125.853, -31.4066, 125.832, -151.253, 126.142, 88.6892, 0, 0, 3.91725, -54.4805, 3.91791, -174.327, 3.90827, 65.6153, 0.0184721, 59.7619
0, 720.00000, 125.853, -31.4066, 125.832, -151.253, 126.142, 88.6892, 0, 0, 3.91725, -54.4805, 3.91791, -174.327, 3.90827, 65.6153, 0.0184721, 59.7619
0, 780.00000, 125.853, -31.4066, 125.832, -151.253, 126.142, 88.6892, 0, 0, 3.91725, -54.4805, 3.91791, -174.327, 3.90827, 65.6153, 0.0184721, 59.7619
0, 840.00000, 125.853, -31.4066, 125.832, -151.253, 126.142, 88.6892, 0, 0, 3.91725, -54.4805, 3.91791, -174.327, 3.90827, 65.6153, 0.0184721, 59.7619
0, 900.00000, 125.853, -31.4066, 125.832, -151.253, 126.142, 88.6892, 0, 0, 3.91725, -54.4805, 3.91791, -174.327, 3.90827, 65.6153, 0.0184721, 59.7619
0, 960.00000, 125.853, -31.4066, 125.832, -151.253, 126.142, 88.6892, 0, 0, 3.91725, -54.4805, 3.91791, -174.327, 3.90827, 65.6153, 0.0184721, 59.7619
0, 1020.00000, 125.853, -31.4066, 125.832, -151.253, 126.142, 88.6892, 0, 0, 3.91725, -54.4805, 3.91791, -174.327, 3.90827, 65.6153, 0.0184721, 59.7619
0, 1080.00000, 125.853, -31.4066, 125.832, -151.253, 126.142, 88.6892, 0, 0, 3.91725, -54.4805, 3.91791, -174.327, 3.90827, 65.6153, 0.0184721, 59.7619
0, 1140.00000, 125.853, -31.4066, 125.832, -151.253, 126.142, 88.6892, 0, 0, 3.91725, -54.4805, 3.91791, -174.327, 3.90827, 65.6153, 0.0184721, 59.7619
0, 1200.00000, 125.853, -31.4066, 125.832, -151.253, 126.142, 88.6892, 0, 0, 3.91725, -54.4805, 3.91791, -174.327, 3.90827, 65.6153, 0.0184721, 59.7619
0, 1260.00000, 125.853, -31.4066, 125.832, -151.253, 126.142, 88.6892, 0, 0, 3.91725, -54.4805, 3.91791, -174.327, 3.90827, 65.6153, 0.0184721, 59.7619
0, 1320.00000, 125.853, -31.4066, 125.832, -151.253, 126.142, 88.6892, 0, 0, 3.91725, -54.4805, 3.91791, -174.327, 3.90827, 65.6153, 0.0184721, 59.7619
0, 1380.00000, 125.853, -31.4066, 125.832, -151.253, 126.142, 88.6892, 0, 0, 3.91725, -54.4805, 3.91791, -174.327, 3.90827, 65.6153, 0.0184721, 59.7619
0, 1440.00000, 125.853, -31.4066, 125.832, -151.253, 126.142, 88.6892, 0, 0, 3.91725, -54.4805, 3.91791, -174.327, 3.90827, 65.6153, 0.0184721, 59.7619
0, 1500.00000, 125.853, -31.4066, 125.832, -151.253, 126.142, 88.6892, 0, 0, 3.91725, -54.4805, 3.91791, -174.327, 3.90827, 65.6153, 0.0184721, 59.7619
0, 1560.00000, 125.853, -31.4066, 125.832, -151.253, 126.142, 88.6892, 0, 0, 3.91725, -54.4805, 3.91791, -174.327, 3.90827, 65.6153, 0.0184721, 59.7619
0, 1620.00000, 125.853, -31.4066, 125.832, -151.253, 126.142, 88.6892, 0, 0, 3.91725, -54.4805, 3.91791, -174.327, 3.90827, 65.6153, 0.0184721, 59.7619
0, 1680.00000, 125.853, -31.4066, 125.832, -151.253, 126.142, 88.6892, 0, 0, 3.91725, -54.4805, 3.91791, -174.327, 3.90827, 65.6153, 0.0184721, 59.7619
0, 1740.00000, 125.853, -31.4066, 125.832, -151.253, 126.142, 88.6892, 0, 0, 3.91725, -54.4805, 3.91791, -174.327, 3.90827, 65.6153, 0.0184721, 59.7619
0, 1800.00000, 125.853, -31.4066, 125.832, -151.253, 126.142, 88.6892, 0, 0, 3.91725, -54.4805, 3.91791, -174.327, 3.90827, 65.6153, 0.0184721, 59.7619
0, 1860.00000, 125.853, -31.4066, 125.832, -151.253, 126.142, 88.6892, 0, 0, 3.91725, -54.4805, 3.91791, -174.327, 3.90827, 65.6153, 0.0184721, 59.7619
0, 1920.00000, 125.853, -31.4066, 125.832, -151.253, 126.142, 88.6892, 0, 0, 3.91725, -54.4805, 3.91791, -174.327, 3.90827, 65.6153, 0.0184721, 59.7619
0, 1980.00000, 125.853, -31.4066, 125.832, -151.253, 126.142, 88.6892, 0, 0, 3.91725, -54.4805, 3.91791, -174.327, 3.90827, 65.6153, 0.0184721, 59.7619
0, 2040.00000, 125.853, -31.4066, 125.832, -151.253, 126.142, 88.6892, 0, 0, 3.91725, -54.4805, 3.91791, -174.327, 3.90827, 65.6153, 0.0184721, 59.7619
0, 2100.00000, 125.853, -31.4066, 125.832, -151.253, 126.142, 88.6892, 0, 0, 3.91725, -54.4805, 3.91791, -174.327, 3.90827, 65.6153, 0.0184721, 59.7619
0, 2160.00000, 125.853, -31.4066, 125.832, -151.253, 126.142, 88.6892, 0, 0, 3.91725, -54.4805, 3.91791, -174.327, 3.90827, 65.6153, 0.0184721, 59.7619
0, 2220.00000, 125.853, -31.4066, 125.832, -151.253, 126.142, 88.6892, 0, 0, 3.91725, -54.4805, 3.91791, -174.327, 3.90827, 65.6153, 0.0184721, 59.7619
0, 2280.00000, 125.853, -31.4066, 125.832, -151.253, 126.142, 88.6892, 0, 0, 3.91725, -54.4805, 3.91791, -174.327, 3.90827, 65.6153, 0.0184721, 59.7619
0, 2340.00000, 125.853, -31.4066, 125.832, -151.253, 126.142, 88.6892, 0, 0, 3.91725, -54.4805, 3.91791, -174.327, 3.90827, 65.6153, 0.0184721, 59.7619
0, 2400.00000, 125.853, -31.4066, 125.832, -151.253, 126.142, 88.6892, 0, 0, 3.91725, -54.4805, 3.91791, -174.327, 3.90827, 65.6153, 0.0184721, 59.7619
0, 2460.00000, 125.853, -31.4066, 125.832, -151.253, 126.142, 88.6892, 0, 0, 3.91725, -54.4805, 3.91791, -174.327, 3.90827, 65.6153, 0.0184721, 59.7619
0, 2520.00000, 125.853, -31.4066, 125.832, -151.253, 126.142, 88.6892, 0, 0, 3.91725, -54.4805, 3.91791, -174.327, 3.90827, 65.6153, 0.0184721, 59.7619
0, 2580.00000, 125.853, -31.4066, 125.832, -151.253, 126.142, 88.6892, 0, 0, 3.91725, -54.4805, 3.91791, -174.327, 3.90827, 65.6153, 0.0184721, 59.7619
0, 2640.00000, 125.853, -31.4066, 125.832, -151.253, 126.142, 88.6892, 0, 0, 3.91725, -54.4805, 3.91791, -174.327, 3.90827, 65.6153, 0.0184721, 59.7619
0, 2700.00000, 125.853, -31.4066, 125.832, -151.253, 126.142, 88.6892, 0, 0, 3.91725, -54.4805, 3.91791, -174.327, 3.90827, 65.6153, 0.0184721, 59.7619
0, 2760.00000, 125.853, -31.4066, 125.832, -151.253, 126.142, 88.6892, 0, 0, 3.91725, -54.4805, 3.91791, -174.327, 3.90827, 65.6153, 0.0184721, 59.7619
0, 2820.00000, 125.853, -31.4066, 125.832, -151.253, 126.142, 88.6892, 0, 0, 3.91725, -54.4805, 3.91791, -174.327, 3.90827, 65.6153, 0.0184721, 59.7619
0, 2880.00000, 125.853, -31.4066, 125.832, -151.253, 126.142, 88.6892, 0, 0, 3.91725, -54.4805, 3.91791, -174.327, 3.90827, 65.6153, 0.0184721, 59.7619
0, 2940.00000, 125.853, -31.4066, 125.832, -151.253, 126.142, 88.6892, 0, 0, 3.91725, -54.4805, 3.91791, -174.327, 3.90827, 65.6153, 0.0184721, 59.7619
0, 3000.00000, 125.853, -31.4066, 125.832, -151.253, 126.142, 88.6892, 0, 0, 3.91725, -54.4805, 3.91791, -174.327, 3.90827, 65.6153, 0.0184721, 59.7619
0, 3060.00000, 125.853, -31.4066, 125.832, -151.253, 126.142, 88.6892, 0, 0, 3.91725, -54.4805, 3.91791, -174.327, 3.90827, 65.6153, 0.0184721, 59.7619
0, 3120.00000, 125.853, -31.4066, 125.832, -151.253, 126.142, 88.6892, 0, 0, 3.91725, -54.4805, 3.91791, -174.327, 3.90827, 65.6153, 0.0184721, 59.7619
0, 3180.00000, 125.853, -31.4066, 125.832, -151.253, 126.142, 88.6892, 0, 0, 3.91725, -54.4805, 3.91791, -174.327, 3.90827, 65.6153, 0.0184721, 59.7619
0, 3240.00000, 125.853, -31.4066, 125.832, -151.253, 126.142, 88.6892, 0, 0, 3.91725, -54.4805, 3.91791, -174.327, 3.90827, 65.6153, 0.0184721, 59.7619
0, 3300.00000, 125.853, -31.4066, 125.832, -151.253, 126.142, 88.6892, 0, 0, 3.91725, -54.4805, 3.91791, -174.327, 3.90827, 65.6153, 0.0184721, 59.7619
0, 3360.00000, 125.853, -31.4066, 125.832, -151.253, 126.142, 88.6892, 0, 0, 3.91725, -54.4805, 3.91791, -174.327, 3.90827, 65.6153, 0.0184721, 59.7619
0, 3420.00000, 125.853, -31.4066, 125.832, -151.253, 126.142, 88.6892, 0, 0, 3.91725, -54.4805, 3.91791, -174.327, 3.90827, 65.6153, 0.0184721, 59.7619
0, 3480.00000, 125.853, -31.4066, 125.832, -151.253, 126.142, 88.6892, 0, 0, 3.91725, -54.4805, 3.91791, -174.327, 3.90827, 65.6153, 0.0184721, 59.7619
0, 3540.00000, 125.853, -31.4066, 125.832, -151.253, 126.142, 88.6892, 0, 0, 3.91725, -54.4805, 3.91791, -174.327, 3.90827, 65.6153, 0.0184721, 59.7619
1, 0.00000, 125.853, -31.4066, 125.832, -151.253, 126.142, 88.6892, 0, 0, 3.91725, -54.4805, 3.91791, -174.327, 3.90827, 65.6153, 0.0184721, 59.7619
1, 60.00000, 125.853, -31.4066, 125.832, -151.253, 126.142, 88.6892, 0, 0, 3.91725, -54.4805, 3.91791, -174.327, 3.90827, 65.6153, 0.0184721, 59.7619
1, 120.00000, 125.853, -31.4066, 125.832, -151.253, 126.142, 88.6892, 0, 0, 3.91725, -54.4805, 3.91791, -174.327, 3.90827, 65.6153, 0.0184721, 59.7619
1, 180.00000, 125.853, -31.4066, 125.832, -151.253, 126.142, 88.6892, 0, 0, 3.91725, -54.4805, 3.91791, -174.327, 3.90827, 65.6153, 0.0184721, 59.7619
1, 240.00000, 125.853, -31.4066, 125.832, -151.253, 126.142, 88.6892, 0, 0, 3.91725, -54.4805, 3.91791, -174.327, 3.90827, 65.6153, 0.0184721, 59.7619
1, 300.00000, 125.853, -31.4066, 125.832, -151.253, 126.142, 88.6892, 0, 0, 3.91725, -54.4805, 3.91791, -174.327, 3.90827, 65.6153, 0.0184721, 59.7619
1, 360.00000, 125.853, -31.4066, 125.832, -151.253, 126.142, 88.6892, 0, 0, 3.91725, -54.4805, 3.91791, -174.327, 3.90827, 65.6153, 0.0184721, 59.7619
1, 420.00000, 125.853, -31.4066, 125.832, -151.253, 126.142, 88.6892, 0, 0, 3.91725, -54.4805, 3.91791, -174.327, 3.90827, 65.6153, 0.0184721, 59.7619
1, 480.00000, 125.853, -31.4066, 125.832, -151.253, 126.142, 88.6892, 0, 0, 3.91725, -54.4805, 3.91791, -174.327, 3.90827, 65.6153, 0.0184721, 59.7619
1, 540.00000, 125.853, -31.4066, 125.832, -151.253, 126.142, 88.6892, 0, 0, 3.91725, -54.4805, 3.91791, -174.327, 3.90827, 65.6153, 0.0184721, 59.7619
1, 600.00000, 125.853, -31.4066, 125.832, -151.253, 126.142, 88.6892, 0, 0, 3.91725, -54.4805, 3.91791, -174.327, 3.90827, 65.6153, 0.0184721, 59.7619
1, 660.00000, 125.853, -31.4066, 125.832, -151.253, 126.142, 88.6892, 0, 0, 3.91725, -54.4805, 3.91791, -174.327, 3.90827, 65.6153, 0.0184721, 59.7619
1, 720.00000, 125.853, -31.4066, 125.832, -151.253, 126.142, 88.6892, 0, 0, 3.91725, -54.4805, 3.91791, -174.327, 3.90827, 65.6153, 0.0184721, 59.7619
1, 780.00000, 125.853, -31.4066, 125.832, -151.253, 126.142, 88.6892, 0, 0, 3.91725, -54.4805, 3.91791, -174.327, 3.90827, 65.6153, 0.0184721, 59.7619
1, 840.00000, 125.853, -31.4066, 125.832, -151.253, 126.142, 88.6892, 0, 0, 3.91725, -54.4805, 3.91791, -174.327, 3.90827, 65.6153, 0.0184721, 59.7619
1, 900.00000, 125.853, -31.4066, 125.832, -151.253, 126.142, 88.6892, 0, 0, 3.91725, -54.4805, 3.91791, -174.327, 3.90827, 65.6153, 0.0184721, 59.7619
1, 960.00000, 125.853, -31.4066, 125.832, -151.253, 126.142, 88.6892, 0, 0, 3.91725, -54.4805, 3.91791, -174.327, 3.90827, 65.6153, 0.0184721, 59.7619
1, 1020.00000, 125.853, -31.4066, 125.832, -151.253, 126.142, 88.6892, 0, 0, 3.91725, -54.4805, 3.91791, -174.327, 3.90827, 65.6153, 0.0184721, 59.7619
1, 1080.00000, 125.853, -31.4066, 125.832, -151.253, 126.142, 88.6892, 0, 0, 3.91725, -54.4805, 3.91791, -174.327, 3.90827, 65.6153, 0.0184721, 59.7619
1, 1140.00000, 125.853, -31.4066, 125.832, -151.253, 126.142, 88.6892, 0, 0, 3.91725, -54.4805, 3.91791, -174.327, 3.90827, 65.6153, 0.0184721, 59.7619
1, 1200.00000, 125.853, -31.4066, 125.832, -151.253, 126.142, 88.6892, 0, 0, 3.91725, -54.4805, 3.91791, -174.327, 3.90827, 65.6153, 0.0184721, 59.7619
1, 1260.00000, 125.853, -31.4066, 125.832, -151.253, 126.142, 88.6892, 0, 0, 3.91725, -54.4805, 3.91791, -174.327, 3.90827, 65.6153, 0.0184721, 59.7619
1, 1320.00000, 125.853, -31.4066, 125.832, -151.253, 126.142, 88.6892, 0, 0, 3.91725, -54.4805, 3.91791, -174.327, 3.90827, 65.6153, 0.0184721, 59.7619
1, 1380.00000, 125.853, -31.4066, 125.832, -151.253, 126.142, 88.6892, 0, 0, 3.91725, -54.4805, 3.91791, -174.327, 3.90827, 65.6153, 0.0184721, 59.7619
1, 1440.00000, 125.853, -31.4066, 125.832, -151.253, 126.142, 88.6892, 0, 0, 3.91725, -54.4805, 3.91791, -174.327, 3.90827, 65.6153, 0.0184721, 59.7619
1, 1500.00000, 125.853, -31.4066, 125.832, -151.253, 126.142, 88.6892, 0, 0, 3.91725, -54.4805, 3.91791, -174.327, 3.90827, 65.6153, 0.0184721, 59.7619
1, 1560.00000, 125.853, -31.4066, 125.832, -151.253, 126.142, 88.6892, 0, 0, 3.91725, -54.4805, 3.91791, -174.327, 3.90827, 65.6153, 0.0184721, 59.7619
1, 1620.00000, 125.853, -31.4066, 125.832, -151.253, 126.142, 88.6892, 0, 0, 3.91725, -54.4805, 3.91791, -174.327, 3.90827, 65.6153, 0.0184721, 59.7619
1, 1680.00000, 125.853, -31.4066, 125.832, -151.253, 126.142, 88.6892, 0, 0, 3.91725, -54.4805, 3.91791, -174.327, 3.90827, 65.6153, 0.0184721, 59.7619
1, 1740.00000, 125.853, -31.4066, 125.832, -151.253, 126.142, 88.6892, 0, 0, 3.91725, -54.4805, 3.91791, -174.327, 3.90827, 65.6153, 0.0184721, 59.7619
1, 1800.00000, 125.853, -31.4066, 125.832, -151.253, 126.142, 88.6892, 0, 0, 3.91725, -54.4805, 3.91791, -174.327, 3.90827, 65.6153, 0.0184721, 59.7619
1, 1860.00000, 125.853, -31.4066, 125.832, -151.253, 126.142, 88.6892, 0, 0, 3.91725, -54.4805, 3.91791, -174.327, 3.90827, 65.6153, 0.0184721, 59.7619
1, 1920.00000, 125.853, -31.4066, 125.832, -151.253, 126.142, 88.6892, 0, 0, 3.91725, -54.4805, 3.91791, -174.327, 3.90827, 65.6153, 0.0184721, 59.7619
1, 1980.00000, 125.853, -31.4066, 125.832, -151.253, 126.142, 88.6892, 0, 0, 3.91725, -54.4805, 3.91791, -174.327, 3.90827, 65.6153, 0.0184721, 59.7619
1, 2040.00000, 125.853, -31.4066, 125.832, -151.253, 126.142, 88.6892, 0, 0, 3.91725, -54.4805, 3.91791, -174.327, 3.90827, 65.6153, 0.0184721, 59.7619
1, 2100.00000, 125.853, -31.4066, 125.832, -151.253, 126.142, 88.6892, 0, 0, 3.91725, -54.4805, 3.91791, -174.327, 3.90827, 65.6153, 0.0184721, 59.7619
1, 2160.00000, 125.853, -31.4066, 125.832, -151.253, 126.142, 88.6892, 0, 0, 3.91725, -54.4805, 3.91791, -174.327, 3.90827, 65.6153, 0.0184721, 59.7619
1, 2220.00000, 125.853, -31.4066, 125.832, -151.253, 126.142, 88.6892, 0, 0, 3.91725, -54.4805, 3.91791, -174.327, 3.90827, 65.6153, 0.0184721, 59.7619
1, 2280.00000, 125.853, -31.4066, 125.832, -151.253, 126.142, 88.6892, 0, 0, 3.91725, -54.4805, 3.91791, -174.327, 3.90827, 65.6153, 0.0184721, 59.7619
1, 2340.00000, 125.853, -31.4066, 125.832, -151.253, 126.142, 88.6892, 0, 0, 3.91725, -54.4805, 3.91791, -174.327, 3.90827, 65.6153, 0.0184721, 59.7619
1, 2400.00000, 125.853, -31.4066, 125.832, -151.253, 126.142, 88.6892, 0, 0, 3.91725, -54.4805, 3.91791, -174.327, 3.90827, 65.6153, 0.0184721, 59.7619
1, 2460.00000, 125.853, -31.4066, 125.832, -151.253, 126.142, 88.6892, 0, 0, 3.91725, -54.4805, 3.91791, -174.327, 3.90827, 65.6153, 0.0184721, 59.7619
1, 2520.00000, 125.853, -31.4066, 125.832, -151.253, 126.142, 88.6892, 0, 0, 3.91725, -54.4805, 3.91791, -174.327, 3.90827, 65.6153, 0.0184721, 59.7619
1, 2580.00000, 125.853, -31.4066, 125.832, -151.253, 126.142, 88.6892, 0, 0, 3.91725, -54.4805, 3.91791, -174.327, 3.90827, 65.6153, 0.0184721, 59.7619
1, 2640.00000, 125.853, -31.4066, 125.832, -151.253, 126.142, 88.6892, 0, 0, 3.91725, -54.4805, 3.91791, -174.327, 3.90827, 65.6153, 0.0184721, 59.7619
1, 2700.00000, 125.853, -31.4066, 125.832, -151.253, 126.142, 88.6892, 0, 0, 3.91725, -54.4805, 3.91791, -174.327, 3.90827, 65.6153, 0.0184721, 59.7619
1, 2760.00000, 125.853, -31.4066, 125.832, -151.253, 126.142, 88.6892, 0, 0, 3.91725, -54.4805, 3.91791, -174.327, 3.90827, 65.6153, 0.0184721, 59.7619
1, 2820.00000, 125.853, -31.4066, 125.832, -151.253, 126.142, 88.6892, 0, 0, 3.91725, -54.4805, 3.91791, -174.327, 3.90827, 65.6153, 0.0184721, 59.7619
1, 2880.00000, 125.853, -31.4066, 125.832, -151.253, 126.142, 88.6892, 0, 0, 3.91725, -54.4805, 3.91791, -174.327, 3.90827, 65.6153, 0.0184721, 59.7619
1, 2940.00000, 125.853, -31.4066, 125.832, -151.253, 126.142, 88.6892, 0, 0, 3.91725, -54.4805, 3.91791, -174.327, 3.90827, 65.6153, 0.0184721, 59.7619
1, 3000.00000, 125.853, -31.4066, 125.832, -151.253, 126.142, 88.6892, 0, 0, 3.91725, -54.4805, 3.91791, -174.327, 3.90827, 65.6153, 0.0184721, 59.7619
1, 3060.00000, 125.853, -31.4066, 125.832, -151.253, 126.142, 88.6892, 0, 0, 3.91725, -54.4805, 3.91791, -174.327, 3.90827, 65.6153, 0.0184721, 59.7619
1, 3120.00000, 125.853, -31.4066, 125.832, -151.253, 126.142, 88.6892, 0, 0, 3.91725, -54.4805, 3.91791, -174.327, 3.90827, 65.6153, 0.0184721, 59.7619
1, 3180.00000, 125.853, -31.4066, 125.832, -151.253, 126.142, 88.6892, 0, 0, 3.91725, -54.4805, 3.91791, -174.327, 3.90827, 65.6153, 0.0184721, 59.7619
1, 3240.00000, 125.853, -31.4066, 125.832, -151.253, 126.142, 88.6892, 0, 0, 3.91725, -54.4805, 3.91791, -174.327, 3.90827, 65.6153, 0.0184721, 59.7619
1, 3300.00000, 125.853, -31.4066, 125.832, -151.253, 126.142, 88.6892, 0, 0, 3.91725, -54.4805, 3.91791, -174.327, 3.90827, 65.6153, 0.0184721, 59.7619
1, 3360.00000, 125.853, -31.4066, 125.832, -151.253, 126.142, 88.6892, 0, 0, 3.91725, -54.4805, 3.91791, -174.327, 3.90827, 65.6153, 0.0184721, 59.7619
1, 3420.00000, 125.853, -31.4066, 125.832, -151.253, 126.142, 88.6892, 0, 0, 3.91725, -54.4805, 3.91791, -174.327, 3.90827, 65.6153, 0.0184721, 59.7619
1, 3480.00000, 125.853, -31.4066, 125.832, -151.253, 126.142, 88.6892, 0, 0, 3.91725, -54.4805, 3.91791, -174.327, 3.90827, 65.6153, 0.0184721, 59.7619
1, 3540.00000, 125.853, -31.4066, 125.832, -151.253, 126.142, 88.6892, 0, 0, 3.91725, -54.4805, 3.91791, -174.327, 3.90827, 65.6153, 0.0184721, 59.7619
2, 0.00000, 125.853, -31.4066, 125.832, -151.253, 126.142, 88.6892, 0, 0, 3.91725, -54.4805, 3.91791, -174.327, 3.90827, 65.6153, 0.0184721, 59.7619
2, 60.00000, 125.853, -31.4066, 125.832, -151.253, 126.142, 88.6892, 0, 0, 3.91725, -54.4805, 3.91791, -174.327, 3.90827, 65.6153, 0.0184721, 59.7619
2, 120.00000, 125.853, -31.4066, 125.832, -151.253, 126.142, 88.6892, 0, 0, 3.91725, -54.4805, 3.91791, -174.327, 3.90827, 65.6153, 0.0184721, 59.7619
2, 180.00000, 125.853, -31.4066, 125.832, -151.253, 126.142, 88.6892, 0, 0, 3.91725, -54.4805, 3.91791, -174.327, 3.90827, 65.6153, 0.0184721, 59.7619
2, 240.00000, 125.853, -31.4066, 125.832, -151.253, 126.142, 88.6892, 0, 0, 3.91725, -54.4805, 3.91791, -174.327, 3.90827, 65.6153, 0.0184721, 59.7619
2, 300.00000, 125.853, -31.4066, 125.832, -151.253, 126.142, 88.6892, 0, 0, 3.91725, -54.4805, 3.91791, -174.327, 3.90827, 65.6153, 0.0184721, 59.7619
2, 360.00000, 125.853, -31.4066, 125.832, -151.253, 126.142, 88.6892, 0, 0, 3.91725, -54.4805, 3.91791, -174.327, 3.90827, 65.6153, 0.0184721, 59.7619
2, 420.00000, 125.853, -31.4066, 125.832, -151.253, 126.142, 88.6892, 0, 0, 3.91725, -54.4805, 3.91791, -174.327, 3.90827, 65.6153, 0.0184721, 59.7619
2, 480.00000, 125.853, -31.4066, 125.832, -151.253, 126.142, 88.6892, 0, 0, 3.91725, -54.4805, 3.91791, -174.327, 3.90827, 65.6153, 0.0184721, 59.7619
2, 540.00000, 125.853, -31.4066, 125.832, -151.253, 126.142, 88.6892, 0, 0, 3.91725, -54.4805, 3.91791, -174.327, 3.90827, 65.6153, 0.0184721, 59.7619
2, 600.00000, 125.853, -31.4066, 125.832, -151.253, 126.142, 88.6892, 0, 0, 3.91725, -54.4805, 3.91791, -174.327, 3.90827, 65.6153, 0.0184721, 59.7619
2, 660.00000, 125.853, -31.4066, 125.832, -151.253, 126.142, 88.6892, 0, 0, 3.91725, -54.4805, 3.91791, -174.327, 3.90827, 65.6153, 0.0184721, 59.7619
