hour,t(sec),V1,VAngle1,V2,VAngle2,V3,VAngle3,V4,VAngle4,I1,IAngle1,I2,IAngle2,I3,IAngle3,I4,IAngle4
0, 60.00000, 124.428, -31.5353, 125.667, -151.467, 125.144, 88.0262, 0, 0, 6.36959, -54.6091, 6.30677, -174.541, 6.33313, 64.9526, 0.107258, 149.11
0, 120.00000, 124.428, -31.5353, 125.667, -151.467, 125.144, 88.0261, 0, 0, 6.36963, -54.6092, 6.30679, -174.541, 6.33317, 64.9522, 0.107289, 149.118
0, 180.00000, 124.428, -31.5353, 125.667, -151.467, 125.144, 88.0261, 0, 0, 6.36963, -54.6092, 6.30679, -174.541, 6.33317, 64.9522, 0.107289, 149.118
0, 240.00000, 124.428, -31.5353, 125.667, -151.467, 125.144, 88.0261, 0, 0, 6.36963, -54.6092, 6.30679, -174.541, 6.33317, 64.9522, 0.107289, 149.118
0, 300.00000, 124.428, -31.5353, 125.667, -151.467, 125.144, 88.0261, 0, 0, 6.36963, -54.6092, 6.30679, -174.541, 6.33317, 64.9522, 0.107289, 149.118
0, 360.00000, 124.428, -31.5353, 125.667, -151.467, 125.144, 88.0261, 0, 0, 6.36963, -54.6092, 6.30679, -174.541, 6.33317, 64.9522, 0.107289, 149.118
0, 420.00000, 124.428, -31.5353, 125.667, -151.467, 125.144, 88.0261, 0, 0, 6.36963, -54.6092, 6.30679, -174.541, 6.33317, 64.9522, 0.107289, 149.118
0, 480.00000, 124.776, -31.4103, 126.026, -151.34, 125.503, 88.1511, 0, 0, 5.7393, -54.4844, 5.68236, -174.414, 5.70605, 65.0768, 0.0971279, 149.018
0, 540.00000, 124.776, -31.4103, 126.026, -151.34, 125.503, 88.1511, 0, 0, 5.73927, -54.4842, 5.68233, -174.414, 5.70601, 65.0772, 0.0971095, 149.012
0, 600.00000, 124.776, -31.4103, 126.026, -151.34, 125.503, 88.1511, 0, 0, 5.73927, -54.4842, 5.68233, -174.414, 5.70601, 65.0772, 0.0971093, 149.012
0, 660.00000, 124.776, -31.4103, 126.026, -151.34, 125.503, 88.1511, 0, 0, 5.73927, -54.4842, 5.68233, -174.414, 5.70601, 65.0772, 0.0971093, 149.012
0, 720.00000, 124.776, -31.4103, 126.026, -151.34, 125.503, 88.1511, 0, 0, 5.73927, -54.4842, 5.68233, -174.414, 5.70601, 65.0772, 0.0971093, 149.012
0, 780.00000, 124.776, -31.4103, 126.026, -151.34, 125.503, 88.1511, 0, 0, 5.73927, -54.4842, 5.68233, -174.414, 5.70601, 65.0772, 0.0971093, 149.012
0, 840.00000, 124.776, -31.4103, 126.026, -151.34, 125.503, 88.1511, 0, 0, 5.73927, -54.4842, 5.68233, -174.414, 5.70601, 65.0772, 0.0971093, 149.012
0, 900.00000, 124.776, -31.4103, 126.026, -151.34, 125.503, 88.1511, 0, 0, 5.73927, -54.4842, 5.68233, -174.414, 5.70601, 65.0772, 0.0971093, 149.012
0, 960.00000, 124.511, -31.4404, 126.025, -151.339, 125.427, 88.0339, 0, 0, 5.75145, -54.5143, 5.6824, -174.413, 5.70948, 64.9601, 0.118334, 147.536
0, 1020.00000, 124.511, -31.4404, 126.025, -151.339, 125.427, 88.0339, 0, 0, 5.75146, -54.5144, 5.6824, -174.413, 5.70949, 64.96, 0.118359, 147.536
0, 1080.00000, 124.511, -31.4404, 126.025, -151.339, 125.427, 88.0339, 0, 0, 5.75146, -54.5144, 5.6824, -174.413, 5.70949, 64.96, 0.118359, 147.536
0, 1140.00000, 124.511, -31.4404, 126.025, -151.339, 125.427, 88.0339, 0, 0, 5.75146, -54.5144, 5.6824, -174.413, 5.70949, 64.96, 0.118359, 147.536
0, 1200.00000, 124.511, -31.4404, 126.025, -151.339, 125.427, 88.0339, 0, 0, 5.75146, -54.5144, 5.6824, -174.413, 5.70949, 64.96, 0.118359, 147.536
0, 1260.00000, 124.511, -31.4404, 126.025, -151.339, 125.427, 88.0339, 0, 0, 5.75146, -54.5144, 5.6824, -174.413, 5.70949, 64.96, 0.118359, 147.536
0, 1320.00000, 124.511, -31.4404, 126.025, -151.339, 125.427, 88.0339, 0, 0, 5.75146, -54.5144, 5.6824, -174.413, 5.70949, 64.96, 0.118359, 147.536
0, 1380.00000, 124.511, -31.4404, 126.025, -151.339, 125.427, 88.0339, 0, 0, 5.75146, -54.5144, 5.6824, -174.413, 5.70949, 64.96, 0.118359, 147.536
0, 1440.00000, 124.511, -31.4404, 126.025, -151.339, 125.427, 88.0339, 0, 0, 5.75146, -54.5144, 5.6824, -174.413, 5.70949, 64.96, 0.118359, 147.536
0, 1500.00000, 124.511, -31.4404, 126.025, -151.339, 125.427, 88.0339, 0, 0, 5.75146, -54.5144, 5.6824, -174.413, 5.70949, 64.96, 0.118359, 147.536
0, 1560.00000, 124.511, -31.4404, 126.025, -151.339, 125.427, 88.0339, 0, 0, 5.75146, -54.5144, 5.6824, -174.413, 5.70949, 64.96, 0.118359, 147.536
0, 1620.00000, 124.511, -31.4404, 126.025, -151.339, 125.427, 88.0339, 0, 0, 5.75146, -54.5144, 5.6824, -174.413, 5.70949, 64.96, 0.118359, 147.536
0, 1680.00000, 124.511, -31.4404, 126.025, -151.339, 125.427, 88.0339, 0, 0, 5.75146, -54.5144, 5.6824, -174.413, 5.70949, 64.96, 0.118359, 147.536
0, 1740.00000, 124.511, -31.4404, 126.025, -151.339, 125.427, 88.0339, 0, 0, 5.75146, -54.5144, 5.6824, -174.413, 5.70949, 64.96, 0.118359, 147.536
0, 1800.00000, 124.245, -31.4691, 126.024, -151.339, 125.347, 87.9156, 0, 0, 5.76378, -54.543, 5.68244, -174.413, 5.7131, 64.8418, 0.139912, 146.612
0, 1860.00000, 124.245, -31.4691, 126.024, -151.339, 125.347, 87.9156, 0, 0, 5.7638, -54.543, 5.68244, -174.413, 5.71311, 64.8417, 0.139938, 146.611
0, 1920.00000, 124.245, -31.4691, 126.024, -151.339, 125.347, 87.9156, 0, 0, 5.7638, -54.5431, 5.68244, -174.413, 5.71311, 64.8417, 0.139938, 146.611
0, 1980.00000, 124.245, -31.4691, 126.024, -151.339, 125.347, 87.9156, 0, 0, 5.7638, -54.5431, 5.68244, -174.413, 5.71311, 64.8417, 0.139938, 146.611
0, 2040.00000, 124.245, -31.4691, 126.024, -151.339, 125.347, 87.9156, 0, 0, 5.7638, -54.5431, 5.68244, -174.413, 5.71311, 64.8417, 0.139938, 146.611
0, 2100.00000, 124.245, -31.4691, 126.024, -151.339, 125.347, 87.9156, 0, 0, 5.7638, -54.5431, 5.68244, -174.413, 5.71311, 64.8417, 0.139938, 146.611
0, 2160.00000, 124.245, -31.4691, 126.024, -151.339, 125.347, 87.9156, 0, 0, 5.7638, -54.5431, 5.68244, -174.413, 5.71311, 64.8417, 0.139938, 146.611
0, 2220.00000, 124.245, -31.4691, 126.024, -151.339, 125.347, 87.9156, 0, 0, 5.7638, -54.5431, 5.68244, -174.413, 5.71311, 64.8417, 0.139938, 146.611
0, 2280.00000, 124.245, -31.4691, 126.024, -151.339, 125.347, 87.9156, 0, 0, 5.7638, -54.5431, 5.68244, -174.413, 5.71311, 64.8417, 0.139938, 146.611
0, 2340.00000, 124.245, -31.4691, 126.024, -151.339, 125.347, 87.9156, 0, 0, 5.7638, -54.5431, 5.68244, -174.413, 5.71311, 64.8417, 0.139938, 146.611
0, 2400.00000, 124.245, -31.4691, 126.024, -151.339, 125.347, 87.9156, 0, 0, 5.7638, -54.5431, 5.68244, -174.413, 5.71311, 64.8417, 0.139938, 146.611
0, 2460.00000, 124.245, -31.4691, 126.024, -151.339, 125.347, 87.9156, 0, 0, 5.7638, -54.5431, 5.68244, -174.413, 5.71311, 64.8417, 0.139938, 146.611
0, 2520.00000, 124.245, -31.4691, 126.024, -151.339, 125.347, 87.9156, 0, 0, 5.7638, -54.5431, 5.68244, -174.413, 5.71311, 64.8417, 0.139938, 146.611
0, 2580.00000, 124.245, -31.4691, 126.024, -151.339, 125.347, 87.9156, 0, 0, 5.7638, -54.5431, 5.68244, -174.413, 5.71311, 64.8417, 0.139938, 146.611
0, 2640.00000, 124.245, -31.4691, 126.024, -151.339, 125.347, 87.9156, 0, 0, 5.7638, -54.5431, 5.68244, -174.413, 5.71311, 64.8417, 0.139938, 146.611
0, 2700.00000, 124.245, -31.4691, 126.024, -151.339, 125.347, 87.9156, 0, 0, 5.7638, -54.5431, 5.68244, -174.413, 5.71311, 64.8417, 0.139938, 146.611
0, 2760.00000, 124.537, -31.4381, 126.024, -151.339, 125.44, 88.0451, 0, 0, 5.75032, -54.5122, 5.68243, -174.413, 5.70893, 64.9709, 0.116371, 147.477
0, 2820.00000, 124.537, -31.4381, 126.024, -151.339, 125.44, 88.0451, 0, 0, 5.75028, -54.512, 5.68244, -174.413, 5.7089, 64.9712, 0.116314, 147.475
0, 2880.00000, 124.537, -31.4381, 126.024, -151.339, 125.44, 88.0451, 0, 0, 5.75028, -54.512, 5.68244, -174.413, 5.7089, 64.9712, 0.116314, 147.475
0, 2940.00000, 124.537, -31.4381, 126.024, -151.339, 125.44, 88.0451, 0, 0, 5.75028, -54.512, 5.68244, -174.413, 5.7089, 64.9712, 0.116314, 147.475
0, 3000.00000, 124.537, -31.4381, 126.024, -151.339, 125.44, 88.0451, 0, 0, 5.75028, -54.512, 5.68244, -174.413, 5.7089, 64.9712, 0.116314, 147.475
0, 3060.00000, 124.537, -31.4381, 126.024, -151.339, 125.44, 88.0451, 0, 0, 5.75028, -54.512, 5.68244, -174.413, 5.7089, 64.9712, 0.116314, 147.475
0, 3120.00000, 124.537, -31.4381, 126.024, -151.339, 125.44, 88.0451, 0, 0, 5.75028, -54.512, 5.68244, -174.413, 5.7089, 64.9712, 0.116314, 147.475
0, 3180.00000, 124.537, -31.4381, 126.024, -151.339, 125.44, 88.0451, 0, 0, 5.75028, -54.512, 5.68244, -174.413, 5.7089, 64.9712, 0.116314, 147.475
0, 3240.00000, 124.537, -31.4381, 126.024, -151.339, 125.44, 88.0451, 0, 0, 5.75028, -54.512, 5.68244, -174.413, 5.7089, 64.9712, 0.116314, 147.475
0, 3300.00000, 124.537, -31.4381, 126.024, -151.339, 125.44, 88.0451, 0, 0, 5.75028, -54.512, 5.68244, -174.413, 5.7089, 64.9712, 0.116314, 147.475
0, 3360.00000, 124.537, -31.4381, 126.024, -151.339, 125.44, 88.0451, 0, 0, 5.75028, -54.512, 5.68244, -174.413, 5.7089, 64.9712, 0.116314, 147.475
0, 3420.00000, 124.537, -31.4381, 126.024, -151.339, 125.44, 88.0451, 0, 0, 5.75028, -54.512, 5.68244, -174.413, 5.7089, 64.9712, 0.116314, 147.475
0, 3480.00000, 124.537, -31.4381, 126.024, -151.339, 125.44, 88.0451, 0, 0, 5.75028, -54.512, 5.68244, -174.413, 5.7089, 64.9712, 0.116314, 147.475
0, 3540.00000, 124.537, -31.4381, 126.024, -151.339, 125.44, 88.0451, 0, 0, 5.75028, -54.512, 5.68244, -174.413, 5.7089, 64.9712, 0.116314, 147.475
1, 0.00000, 124.537, -31.4381, 126.024, -151.339, 125.44, 88.0451, 0, 0, 5.75028, -54.512, 5.68244, -174.413, 5.7089, 64.9712, 0.116314, 147.475
1, 60.00000, 124.826, -31.4065, 126.024, -151.339, 125.528, 88.1731, 0, 0, 5.73699, -54.4806, 5.68243, -174.413, 5.70489, 65.099, 0.0931149, 148.859
1, 120.00000, 124.826, -31.4065, 126.024, -151.339, 125.528, 88.1731, 0, 0, 5.73697, -54.4804, 5.68243, -174.413, 5.70488, 65.0992, 0.0930785, 148.864
1, 180.00000, 124.826, -31.4065, 126.024, -151.339, 125.528, 88.1731, 0, 0, 5.73697, -54.4804, 5.68243, -174.413, 5.70488, 65.0992, 0.0930783, 148.864
1, 240.00000, 124.826, -31.4065, 126.024, -151.339, 125.528, 88.1731, 0, 0, 5.73697, -54.4804, 5.68243, -174.413, 5.70488, 65.0992, 0.0930783, 148.864
1, 300.00000, 124.826, -31.4065, 126.024, -151.339, 125.528, 88.1731, 0, 0, 5.73697, -54.4804, 5.68243, -174.413, 5.70488, 65.0992, 0.0930783, 148.864
1, 360.00000, 124.826, -31.4065, 126.024, -151.339, 125.528, 88.1731, 0, 0, 5.73697, -54.4804, 5.68243, -174.413, 5.70488, 65.0992, 0.0930783, 148.864
1, 420.00000, 124.826, -31.4065, 126.024, -151.339, 125.528, 88.1731, 0, 0, 5.73697, -54.4804, 5.68243, -174.413, 5.70488, 65.0992, 0.0930783, 148.864
1, 480.00000, 124.826, -31.4065, 126.024, -151.339, 125.528, 88.1731, 0, 0, 5.73697, -54.4804, 5.68243, -174.413, 5.70488, 65.0992, 0.0930783, 148.864
1, 540.00000, 124.826, -31.4065, 126.024, -151.339, 125.528, 88.1731, 0, 0, 5.73697, -54.4804, 5.68243, -174.413, 5.70488, 65.0992, 0.0930783, 148.864
1, 600.00000, 124.826, -31.4065, 126.024, -151.339, 125.528, 88.1731, 0, 0, 5.73697, -54.4804, 5.68243, -174.413, 5.70488, 65.0992, 0.0930783, 148.864
1, 660.00000, 124.826, -31.4065, 126.024, -151.339, 125.528, 88.1731, 0, 0, 5.73697, -54.4804, 5.68243, -174.413, 5.70488, 65.0992, 0.0930783, 148.864
1, 720.00000, 124.826, -31.4065, 126.024, -151.339, 125.528, 88.1731, 0, 0, 5.73697, -54.4804, 5.68243, -174.413, 5.70488, 65.0992, 0.0930783, 148.864
1, 780.00000, 125.085, -31.377, 126.025, -151.339, 125.603, 88.2877, 0, 0, 5.7251, -54.4511, 5.68239, -174.413, 5.70146, 65.2136, 0.072476, 151.057
1, 840.00000, 125.085, -31.377, 126.025, -151.339, 125.603, 88.2877, 0, 0, 5.72507, -54.4509, 5.68239, -174.413, 5.70146, 65.2137, 0.0724474, 151.072
1, 900.00000, 125.085, -31.377, 126.025, -151.339, 125.603, 88.2877, 0, 0, 5.72507, -54.4509, 5.68239, -174.413, 5.70146, 65.2137, 0.0724473, 151.072
1, 960.00000, 125.085, -31.377, 126.025, -151.339, 125.603, 88.2877, 0, 0, 5.72507, -54.4509, 5.68239, -174.413, 5.70146, 65.2137, 0.0724473, 151.072
1, 1020.00000, 125.085, -31.377, 126.025, -151.339, 125.603, 88.2877, 0, 0, 5.72507, -54.4509, 5.68239, -174.413, 5.70146, 65.2137, 0.0724473, 151.072
1, 1080.00000, 125.085, -31.377, 126.025, -151.339, 125.603, 88.2877, 0, 0, 5.72507, -54.4509, 5.68239, -174.413, 5.70146, 65.2137, 0.0724473, 151.072
1, 1140.00000, 125.085, -31.377, 126.025, -151.339, 125.603, 88.2877, 0, 0, 5.72507, -54.4509, 5.68239, -174.413, 5.70146, 65.2137, 0.0724473, 151.072
1, 1200.00000, 125.085, -31.377, 126.025, -151.339, 125.603, 88.2877, 0, 0, 5.72507, -54.4509, 5.68239, -174.413, 5.70146, 65.2137, 0.0724473, 151.072
1, 1260.00000, 125.085, -31.377, 126.025, -151.339, 125.603, 88.2877, 0, 0, 5.72507, -54.4509, 5.68239, -174.413, 5.70146, 65.2137, 0.0724473, 151.072
1, 1320.00000, 125.085, -31.377, 126.025, -151.339, 125.603, 88.2877, 0, 0, 5.72507, -54.4509, 5.68239, -174.413, 5.70146, 65.2137, 0.0724473, 151.072
1, 1380.00000, 125.085, -31.377, 126.025, -151.339, 125.603, 88.2877, 0, 0, 5.72507, -54.4509, 5.68239, -174.413, 5.70146, 65.2137, 0.0724473, 151.072
1, 1440.00000, 125.085, -31.377, 126.025, -151.339, 125.603, 88.2877, 0, 0, 5.72507, -54.4509, 5.68239, -174.413, 5.70146, 65.2137, 0.0724473, 151.072
1, 1500.00000, 125.085, -31.377, 126.025, -151.339, 125.603, 88.2877, 0, 0, 5.72507, -54.4509, 5.68239, -174.413, 5.70146, 65.2137, 0.0724473, 151.072
1, 1560.00000, 125.085, -31.377, 126.025, -151.339, 125.603, 88.2877, 0, 0, 5.72507, -54.4509, 5.68239, -174.413, 5.70146, 65.2137, 0.0724473, 151.072
1, 1620.00000, 125.085, -31.377, 126.025, -151.339, 125.603, 88.2877, 0, 0, 5.72507, -54.4509, 5.68239, -174.413, 5.70146, 65.2137, 0.0724473, 151.072
1, 1680.00000, 125.085, -31.377, 126.025, -151.339, 125.603, 88.2877, 0, 0, 5.72507, -54.4509, 5.68239, -174.413, 5.70146, 65.2137, 0.0724473, 151.072
1, 1740.00000, 125.085, -31.377, 126.025, -151.339, 125.603, 88.2877, 0, 0, 5.72507, -54.4509, 5.68239, -174.413, 5.70146, 65.2137, 0.0724473, 151.072
1, 1800.00000, 125.085, -31.377, 126.025, -151.339, 125.603, 88.2877, 0, 0, 5.72507, -54.4509, 5.68239, -174.413, 5.70146, 65.2137, 0.0724473, 151.072
1, 1860.00000, 125.085, -31.377, 126.025, -151.339, 125.603, 88.2877, 0, 0, 5.72507, -54.4509, 5.68239, -174.413, 5.70146, 65.2137, 0.0724473, 151.072
1, 1920.00000, 125.085, -31.377, 126.025, -151.339, 125.603, 88.2877, 0, 0, 5.72507, -54.4509, 5.68239, -174.413, 5.70146, 65.2137, 0.0724473, 151.072
1, 1980.00000, 125.085, -31.377, 126.025, -151.339, 125.603, 88.2877, 0, 0, 5.72507, -54.4509, 5.68239, -174.413, 5.70146, 65.2137, 0.0724473, 151.072
1, 2040.00000, 125.085, -31.377, 126.025, -151.339, 125.603, 88.2877, 0, 0, 5.72507, -54.4509, 5.68239, -174.413, 5.70146, 65.2137, 0.0724473, 151.072
1, 2100.00000, 125.085, -31.377, 126.025, -151.339, 125.603, 88.2877, 0, 0, 5.72507, -54.4509, 5.68239, -174.413, 5.70146, 65.2137, 0.0724473, 151.072
1, 2160.00000, 125.085, -31.377, 126.025, -151.339, 125.603, 88.2877, 0, 0, 5.72507, -54.4509, 5.68239, -174.413, 5.70146, 65.2137, 0.0724473, 151.072
1, 2220.00000, 125.36, -31.3451, 126.026, -151.339, 125.683, 88.408, 0, 0, 5.71256, -54.4192, 5.68233, -174.413, 5.69786, 65.3339, 0.0510302, 155.391
1, 2280.00000, 125.36, -31.3451, 126.026, -151.339, 125.683, 88.408, 0, 0, 5.71253, -54.419, 5.68233, -174.413, 5.69785, 65.3341, 0.0510044, 155.417
1, 2340.00000, 125.36, -31.3451, 126.026, -151.339, 125.683, 88.408, 0, 0, 5.71253, -54.419, 5.68233, -174.413, 5.69785, 65.3341, 0.0510043, 155.417
1, 2400.00000, 125.36, -31.3451, 126.026, -151.339, 125.683, 88.408, 0, 0, 5.71253, -54.419, 5.68233, -174.413, 5.69785, 65.3341, 0.0510043, 155.417
1, 2460.00000, 125.36, -31.3451, 126.026, -151.339, 125.683, 88.408, 0, 0, 5.71253, -54.419, 5.68233, -174.413, 5.69785, 65.3341, 0.0510043, 155.417
1, 2520.00000, 125.36, -31.3451, 126.026, -151.339, 125.683, 88.408, 0, 0, 5.71253, -54.419, 5.68233, -174.413, 5.69785, 65.3341, 0.0510043, 155.417
1, 2580.00000, 125.36, -31.3451, 126.026, -151.339, 125.683, 88.408, 0, 0, 5.71253, -54.419, 5.68233, -174.413, 5.69785, 65.3341, 0.0510043, 155.417
1, 2640.00000, 125.36, -31.3451, 126.026, -151.339, 125.683, 88.408, 0, 0, 5.71253, -54.419, 5.68233, -174.413, 5.69785, 65.3341, 0.0510043, 155.417
1, 2700.00000, 125.36, -31.3451, 126.026, -151.339, 125.683, 88.408, 0, 0, 5.71253, -54.419, 5.68233, -174.413, 5.69785, 65.3341, 0.0510043, 155.417
1, 2760.00000, 125.36, -31.3451, 126.026, -151.339, 125.683, 88.408, 0, 0, 5.71253, -54.419, 5.68233, -174.413, 5.69785, 65.3341, 0.0510043, 155.417
1, 2820.00000, 125.36, -31.3451, 126.026, -151.339, 125.683, 88.408, 0, 0, 5.71253, -54.419, 5.68233, -174.413, 5.69785, 65.3341, 0.0510043, 155.417
1, 2880.00000, 125.36, -31.3451, 126.026, -151.339, 125.683, 88.408, 0, 0, 5.71253, -54.419, 5.68233, -174.413, 5.69785, 65.3341, 0.0510043, 155.417
1, 2940.00000, 125.36, -31.3451, 126.026, -151.339, 125.683, 88.408, 0, 0, 5.71253, -54.419, 5.68233, -174.413, 5.69785, 65.3341, 0.0510043, 155.417
1, 3000.00000, 125.36, -31.3451, 126.026, -151.339, 125.683, 88.408, 0, 0, 5.71253, -54.419, 5.68233, -174.413, 5.69785, 65.3341, 0.0510043, 155.417
1, 3060.00000, 125.36, -31.3451, 126.026, -151.339, 125.683, 88.408, 0, 0, 5.71253, -54.419, 5.68233, -174.413, 5.69785, 65.3341, 0.0510043, 155.417
1, 3120.00000, 125.36, -31.3451, 126.026, -151.339, 125.683, 88.408, 0, 0, 5.71253, -54.419, 5.68233, -174.413, 5.69785, 65.3341, 0.0510043, 155.417
1, 3180.00000, 125.36, -31.3451, 126.026, -151.339, 125.683, 88.408, 0, 0, 5.71253, -54.419, 5.68233, -174.413, 5.69785, 65.3341, 0.0510043, 155.417
1, 3240.00000, 125.36, -31.3451, 126.026, -151.339, 125.683, 88.408, 0, 0, 5.71253, -54.419, 5.68233, -174.413, 5.69785, 65.3341, 0.0510043, 155.417
1, 3300.00000, 125.36, -31.3451, 126.026, -151.339, 125.683, 88.408, 0, 0, 5.71253, -54.419, 5.68233, -174.413, 5.69785, 65.3341, 0.0510043, 155.417
1, 3360.00000, 125.36, -31.3451, 126.026, -151.339, 125.683, 88.408, 0, 0, 5.71253, -54.419, 5.68233, -174.413, 5.69785, 65.3341, 0.0510043, 155.417
1, 3420.00000, 125.36, -31.3451, 126.026, -151.339, 125.683, 88.408, 0, 0, 5.71253, -54.419, 5.68233, -174.413, 5.69785, 65.3341, 0.0510043, 155.417
1, 3480.00000, 125.36, -31.3451, 126.026, -151.339, 125.683, 88.408, 0, 0, 5.71253, -54.419, 5.68233, -174.413, 5.69785, 65.3341, 0.0510043, 155.417
1, 3540.00000, 125.36, -31.3451, 126.026, -151.339, 125.683, 88.408, 0, 0, 5.71253, -54.419, 5.68233, -174.413, 5.69785, 65.3341, 0.0510043, 155.417
2, 0.00000, 125.36, -31.3451, 126.026, -151.339, 125.683, 88.408, 0, 0, 5.71253, -54.419, 5.68233, -174.413, 5.69785, 65.3341, 0.0510043, 155.417
2, 60.00000, 125.36, -31.3451, 126.026, -151.339, 125.683, 88.408, 0, 0, 5.71253, -54.419, 5.68233, -174.413, 5.69785, 65.3341, 0.0510043, 155.417
2, 120.00000, 125.36, -31.3451, 126.026, -151.339, 125.683, 88.408, 0, 0, 5.71253, -54.419, 5.68233, -174.413, 5.69785, 65.3341, 0.0510043, 155.417
2, 180.00000, 125.36, -31.3451, 126.026, -151.339, 125.683, 88.408, 0, 0, 5.71253, -54.419, 5.68233, -174.413, 5.69785, 65.3341, 0.0510043, 155.417
2, 240.00000, 125.36, -31.3451, 126.026, -151.339, 125.683, 88.408, 0, 0, 5.71253, -54.419, 5.68233, -174.413, 5.69785, 65.3341, 0.0510043, 155.417
2, 300.00000, 125.36, -31.3451, 126.026, -151.339, 125.683, 88.408, 0, 0, 5.71253, -54.419, 5.68233, -174.413, 5.69785, 65.3341, 0.0510043, 155.417
2, 360.00000, 125.36, -31.3451, 126.026, -151.339, 125.683, 88.408, 0, 0, 5.71253, -54.419, 5.68233, -174.413, 5.69785, 65.3341, 0.0510043, 155.417
2, 420.00000, 125.36, -31.3451, 126.026, -151.339, 125.683, 88.408, 0, 0, 5.71253, -54.419, 5.68233, -174.413, 5.69785, 65.3341, 0.0510043, 155.417
2, 480.00000, 125.36, -31.3451, 126.026, -151.339, 125.683, 88.408, 0, 0, 5.71253, -54.419, 5.68233, -174.413, 5.69785, 65.3341, 0.0510043, 155.417
2, 540.00000, 125.36, -31.3451, 126.026, -151.339, 125.683, 88.408, 0, 0, 5.71253, -54.419, 5.68233, -174.413, 5.69785, 65.3341, 0.0510043, 155.417
2, 600.00000, 125.36, -31.3451, 126.026, -151.339, 125.683, 88.408, 0, 0, 5.71253, -54.419, 5.68233, -174.413, 5.69785, 65.3341, 0.0510043, 155.417
2, 660.00000, 125.36, -31.3451, 126.026, -151.339, 125.683, 88.408, 0, 0, 5.71253, -54.419, 5.68233, -174.413, 5.69785, 65.3341, 0.0510043, 155.417
2, 720.00000, 125.36, -31.3451, 126.026, -151.339, 125.683, 88.408, 0, 0, 5.71253, -54.419, 5.68233, -174.413, 5.69785, 65.3341, 0.0510043, 155.417
2, 780.00000, 125.36, -31.3451, 126.026, -151.339, 125.683, 88.408, 0, 0, 5.71253, -54.419, 5.68233, -174.413, 5.69785, 65.3341, 0.0510043, 155.417
