hour,t(sec),V1,VAngle1,V2,VAngle2,V3,VAngle3,V4,VAngle4,I1,IAngle1,I2,IAngle2,I3,IAngle3,I4,IAngle4
0, 60.00000, 120.406, -31.2057, 120.608, -151.105, 121.081, 88.8415, 0, 0, 3.47029, -54.2793, 3.47674, -174.179, 3.4666, 65.7679, 0.0133318, 41.8821
0, 120.00000, 120.406, -31.2057, 120.608, -151.105, 121.081, 88.8415, 0, 0, 3.47027, -54.2796, 3.47672, -174.179, 3.46666, 65.7676, 0.0132688, 41.829
0, 180.00000, 120.406, -31.2057, 120.608, -151.105, 121.081, 88.8415, 0, 0, 3.47027, -54.2796, 3.47672, -174.179, 3.46666, 65.7676, 0.0132686, 41.8288
0, 240.00000, 120.406, -31.2057, 120.608, -151.105, 121.081, 88.8415, 0, 0, 3.47027, -54.2796, 3.47672, -174.179, 3.46666, 65.7676, 0.0132686, 41.8288
0, 300.00000, 120.406, -31.2057, 120.608, -151.105, 121.081, 88.8415, 0, 0, 3.47027, -54.2796, 3.47672, -174.179, 3.46666, 65.7676, 0.0132686, 41.8288
0, 360.00000, 120.406, -31.2057, 120.608, -151.105, 121.081, 88.8415, 0, 0, 3.47027, -54.2796, 3.47672, -174.179, 3.46666, 65.7676, 0.0132686, 41.8288
0, 420.00000, 120.406, -31.2057, 120.608, -151.105, 121.081, 88.8415, 0, 0, 3.47027, -54.2796, 3.47672, -174.179, 3.46666, 65.7676, 0.0132686, 41.8288
0, 480.00000, 121.244, -31.0919, 121.409, -150.998, 121.877, 88.9681, 0, 0, 3.12816, -54.1663, 3.12391, -174.072, 3.11196, 65.8936, 0.0187913, 75.0701
0, 540.00000, 121.244, -31.0919, 121.41, -150.998, 121.878, 88.9682, 0, 0, 3.12813, -54.1658, 3.12386, -174.072, 3.11185, 65.8942, 0.0188283, 75.0339
0, 600.00000, 121.244, -31.0919, 121.41, -150.998, 121.878, 88.9682, 0, 0, 3.12813, -54.1658, 3.12386, -174.072, 3.11185, 65.8942, 0.0188292, 75.0328
0, 660.00000, 121.244, -31.0919, 121.41, -150.998, 121.878, 88.9682, 0, 0, 3.12813, -54.1658, 3.12386, -174.072, 3.11185, 65.8942, 0.0188292, 75.0327
0, 720.00000, 121.244, -31.0919, 121.41, -150.998, 121.878, 88.9682, 0, 0, 3.12813, -54.1658, 3.12386, -174.072, 3.11185, 65.8942, 0.0188292, 75.0327
0, 780.00000, 121.244, -31.0919, 121.41, -150.998, 121.878, 88.9682, 0, 0, 3.12813, -54.1658, 3.12386, -174.072, 3.11185, 65.8942, 0.0188292, 75.0327
0, 840.00000, 121.244, -31.0919, 121.41, -150.998, 121.878, 88.9682, 0, 0, 3.12813, -54.1658, 3.12386, -174.072, 3.11185, 65.8942, 0.0188292, 75.0327
0, 900.00000, 121.244, -31.0919, 121.41, -150.998, 121.878, 88.9682, 0, 0, 3.12813, -54.1658, 3.12386, -174.072, 3.11185, 65.8942, 0.0188292, 75.0327
0, 960.00000, 121.244, -31.0919, 121.41, -150.998, 121.878, 88.9682, 0, 0, 3.12813, -54.1658, 3.12386, -174.072, 3.11185, 65.8942, 0.0188292, 75.0327
0, 1020.00000, 121.244, -31.0919, 121.41, -150.998, 121.878, 88.9682, 0, 0, 3.12813, -54.1658, 3.12386, -174.072, 3.11185, 65.8942, 0.0188292, 75.0327
0, 1080.00000, 121.244, -31.0919, 121.41, -150.998, 121.878, 88.9682, 0, 0, 3.12813, -54.1658, 3.12386, -174.072, 3.11185, 65.8942, 0.0188292, 75.0327
0, 1140.00000, 121.244, -31.0919, 121.41, -150.998, 121.878, 88.9682, 0, 0, 3.12813, -54.1658, 3.12386, -174.072, 3.11185, 65.8942, 0.0188292, 75.0327
0, 1200.00000, 121.244, -31.0919, 121.41, -150.998, 121.878, 88.9682, 0, 0, 3.12813, -54.1658, 3.12386, -174.072, 3.11185, 65.8942, 0.0188292, 75.0327
0, 1260.00000, 121.244, -31.0919, 121.41, -150.998, 121.878, 88.9682, 0, 0, 3.12813, -54.1658, 3.12386, -174.072, 3.11185, 65.8942, 0.0188292, 75.0327
0, 1320.00000, 121.244, -31.0919, 121.41, -150.998, 121.878, 88.9682, 0, 0, 3.12813, -54.1658, 3.12386, -174.072, 3.11185, 65.8942, 0.0188292, 75.0327
0, 1380.00000, 121.244, -31.0919, 121.41, -150.998, 121.878, 88.9682, 0, 0, 3.12813, -54.1658, 3.12386, -174.072, 3.11185, 65.8942, 0.0188292, 75.0327
0, 1440.00000, 121.244, -31.0919, 121.41, -150.998, 121.878, 88.9682, 0, 0, 3.12813, -54.1658, 3.12386, -174.072, 3.11185, 65.8942, 0.0188292, 75.0327
0, 1500.00000, 121.244, -31.0919, 121.41, -150.998, 121.878, 88.9682, 0, 0, 3.12813, -54.1658, 3.12386, -174.072, 3.11185, 65.8942, 0.0188292, 75.0327
0, 1560.00000, 121.244, -31.0919, 121.41, -150.998, 121.878, 88.9682, 0, 0, 3.12813, -54.1658, 3.12386, -174.072, 3.11185, 65.8942, 0.0188292, 75.0327
0, 1620.00000, 121.244, -31.0919, 121.41, -150.998, 121.878, 88.9682, 0, 0, 3.12813, -54.1658, 3.12386, -174.072, 3.11185, 65.8942, 0.0188292, 75.0327
0, 1680.00000, 121.244, -31.0919, 121.41, -150.998, 121.878, 88.9682, 0, 0, 3.12813, -54.1658, 3.12386, -174.072, 3.11185, 65.8942, 0.0188292, 75.0327
0, 1740.00000, 121.244, -31.0919, 121.41, -150.998, 121.878, 88.9682, 0, 0, 3.12813, -54.1658, 3.12386, -174.072, 3.11185, 65.8942, 0.0188292, 75.0327
0, 1800.00000, 121.244, -31.0919, 121.41, -150.998, 121.878, 88.9682, 0, 0, 3.12813, -54.1658, 3.12386, -174.072, 3.11185, 65.8942, 0.0188292, 75.0327
0, 1860.00000, 121.244, -31.0919, 121.41, -150.998, 121.878, 88.9682, 0, 0, 3.12813, -54.1658, 3.12386, -174.072, 3.11185, 65.8942, 0.0188292, 75.0327
0, 1920.00000, 121.244, -31.0919, 121.41, -150.998, 121.878, 88.9682, 0, 0, 3.12813, -54.1658, 3.12386, -174.072, 3.11185, 65.8942, 0.0188292, 75.0327
0, 1980.00000, 121.244, -31.0919, 121.41, -150.998, 121.878, 88.9682, 0, 0, 3.12813, -54.1658, 3.12386, -174.072, 3.11185, 65.8942, 0.0188292, 75.0327
0, 2040.00000, 121.244, -31.0919, 121.41, -150.998, 121.878, 88.9682, 0, 0, 3.12813, -54.1658, 3.12386, -174.072, 3.11185, 65.8942, 0.0188292, 75.0327
0, 2100.00000, 121.244, -31.0919, 121.41, -150.998, 121.878, 88.9682, 0, 0, 3.12813, -54.1658, 3.12386, -174.072, 3.11185, 65.8942, 0.0188292, 75.0327
0, 2160.00000, 121.244, -31.0919, 121.41, -150.998, 121.878, 88.9682, 0, 0, 3.12813, -54.1658, 3.12386, -174.072, 3.11185, 65.8942, 0.0188292, 75.0327
0, 2220.00000, 121.244, -31.0919, 121.41, -150.998, 121.878, 88.9682, 0, 0, 3.12813, -54.1658, 3.12386, -174.072, 3.11185, 65.8942, 0.0188292, 75.0327
0, 2280.00000, 121.244, -31.0919, 121.41, -150.998, 121.878, 88.9682, 0, 0, 3.12813, -54.1658, 3.12386, -174.072, 3.11185, 65.8942, 0.0188292, 75.0327
0, 2340.00000, 121.244, -31.0919, 121.41, -150.998, 121.878, 88.9682, 0, 0, 3.12813, -54.1658, 3.12386, -174.072, 3.11185, 65.8942, 0.0188292, 75.0327
0, 2400.00000, 121.244, -31.0919, 121.41, -150.998, 121.878, 88.9682, 0, 0, 3.12813, -54.1658, 3.12386, -174.072, 3.11185, 65.8942, 0.0188292, 75.0327
0, 2460.00000, 121.244, -31.0919, 121.41, -150.998, 121.878, 88.9682, 0, 0, 3.12813, -54.1658, 3.12386, -174.072, 3.11185, 65.8942, 0.0188292, 75.0327
0, 2520.00000, 121.244, -31.0919, 121.41, -150.998, 121.878, 88.9682, 0, 0, 3.12813, -54.1658, 3.12386, -174.072, 3.11185, 65.8942, 0.0188292, 75.0327
0, 2580.00000, 121.244, -31.0919, 121.41, -150.998, 121.878, 88.9682, 0, 0, 3.12813, -54.1658, 3.12386, -174.072, 3.11185, 65.8942, 0.0188292, 75.0327
0, 2640.00000, 121.244, -31.0919, 121.41, -150.998, 121.878, 88.9682, 0, 0, 3.12813, -54.1658, 3.12386, -174.072, 3.11185, 65.8942, 0.0188292, 75.0327
0, 2700.00000, 121.244, -31.0919, 121.41, -150.998, 121.878, 88.9682, 0, 0, 3.12813, -54.1658, 3.12386, -174.072, 3.11185, 65.8942, 0.0188292, 75.0327
0, 2760.00000, 121.244, -31.0919, 121.41, -150.998, 121.878, 88.9682, 0, 0, 3.12813, -54.1658, 3.12386, -174.072, 3.11185, 65.8942, 0.0188292, 75.0327
0, 2820.00000, 121.244, -31.0919, 121.41, -150.998, 121.878, 88.9682, 0, 0, 3.12813, -54.1658, 3.12386, -174.072, 3.11185, 65.8942, 0.0188292, 75.0327
0, 2880.00000, 121.244, -31.0919, 121.41, -150.998, 121.878, 88.9682, 0, 0, 3.12813, -54.1658, 3.12386, -174.072, 3.11185, 65.8942, 0.0188292, 75.0327
0, 2940.00000, 121.244, -31.0919, 121.41, -150.998, 121.878, 88.9682, 0, 0, 3.12813, -54.1658, 3.12386, -174.072, 3.11185, 65.8942, 0.0188292, 75.0327
0, 3000.00000, 121.244, -31.0919, 121.41, -150.998, 121.878, 88.9682, 0, 0, 3.12813, -54.1658, 3.12386, -174.072, 3.11185, 65.8942, 0.0188292, 75.0327
0, 3060.00000, 121.244, -31.0919, 121.41, -150.998, 121.878, 88.9682, 0, 0, 3.12813, -54.1658, 3.12386, -174.072, 3.11185, 65.8942, 0.0188292, 75.0327
0, 3120.00000, 121.244, -31.0919, 121.41, -150.998, 121.878, 88.9682, 0, 0, 3.12813, -54.1658, 3.12386, -174.072, 3.11185, 65.8942, 0.0188292, 75.0327
0, 3180.00000, 121.244, -31.0919, 121.41, -150.998, 121.878, 88.9682, 0, 0, 3.12813, -54.1658, 3.12386, -174.072, 3.11185, 65.8942, 0.0188292, 75.0327
0, 3240.00000, 121.244, -31.0919, 121.41, -150.998, 121.878, 88.9682, 0, 0, 3.12813, -54.1658, 3.12386, -174.072, 3.11185, 65.8942, 0.0188292, 75.0327
0, 3300.00000, 121.244, -31.0919, 121.41, -150.998, 121.878, 88.9682, 0, 0, 3.12813, -54.1658, 3.12386, -174.072, 3.11185, 65.8942, 0.0188292, 75.0327
0, 3360.00000, 121.244, -31.0919, 121.41, -150.998, 121.878, 88.9682, 0, 0, 3.12813, -54.1658, 3.12386, -174.072, 3.11185, 65.8942, 0.0188292, 75.0327
0, 3420.00000, 121.244, -31.0919, 121.41, -150.998, 121.878, 88.9682, 0, 0, 3.12813, -54.1658, 3.12386, -174.072, 3.11185, 65.8942, 0.0188292, 75.0327
0, 3480.00000, 121.244, -31.0919, 121.41, -150.998, 121.878, 88.9682, 0, 0, 3.12813, -54.1658, 3.12386, -174.072, 3.11185, 65.8942, 0.0188292, 75.0327
0, 3540.00000, 121.244, -31.0919, 121.41, -150.998, 121.878, 88.9682, 0, 0, 3.12813, -54.1658, 3.12386, -174.072, 3.11185, 65.8942, 0.0188292, 75.0327
1, 0.00000, 121.244, -31.0919, 121.41, -150.998, 121.878, 88.9682, 0, 0, 3.12813, -54.1658, 3.12386, -174.072, 3.11185, 65.8942, 0.0188292, 75.0327
1, 60.00000, 121.244, -31.0919, 121.41, -150.998, 121.878, 88.9682, 0, 0, 3.12813, -54.1658, 3.12386, -174.072, 3.11185, 65.8942, 0.0188292, 75.0327
1, 120.00000, 121.244, -31.0919, 121.41, -150.998, 121.878, 88.9682, 0, 0, 3.12813, -54.1658, 3.12386, -174.072, 3.11185, 65.8942, 0.0188292, 75.0327
1, 180.00000, 121.244, -31.0919, 121.41, -150.998, 121.878, 88.9682, 0, 0, 3.12813, -54.1658, 3.12386, -174.072, 3.11185, 65.8942, 0.0188292, 75.0327
1, 240.00000, 121.244, -31.0919, 121.41, -150.998, 121.878, 88.9682, 0, 0, 3.12813, -54.1658, 3.12386, -174.072, 3.11185, 65.8942, 0.0188292, 75.0327
1, 300.00000, 121.244, -31.0919, 121.41, -150.998, 121.878, 88.9682, 0, 0, 3.12813, -54.1658, 3.12386, -174.072, 3.11185, 65.8942, 0.0188292, 75.0327
1, 360.00000, 121.244, -31.0919, 121.41, -150.998, 121.878, 88.9682, 0, 0, 3.12813, -54.1658, 3.12386, -174.072, 3.11185, 65.8942, 0.0188292, 75.0327
1, 420.00000, 121.244, -31.0919, 121.41, -150.998, 121.878, 88.9682, 0, 0, 3.12813, -54.1658, 3.12386, -174.072, 3.11185, 65.8942, 0.0188292, 75.0327
1, 480.00000, 121.244, -31.0919, 121.41, -150.998, 121.878, 88.9682, 0, 0, 3.12813, -54.1658, 3.12386, -174.072, 3.11185, 65.8942, 0.0188292, 75.0327
1, 540.00000, 121.244, -31.0919, 121.41, -150.998, 121.878, 88.9682, 0, 0, 3.12813, -54.1658, 3.12386, -174.072, 3.11185, 65.8942, 0.0188292, 75.0327
1, 600.00000, 121.244, -31.0919, 121.41, -150.998, 121.878, 88.9682, 0, 0, 3.12813, -54.1658, 3.12386, -174.072, 3.11185, 65.8942, 0.0188292, 75.0327
1, 660.00000, 121.244, -31.0919, 121.41, -150.998, 121.878, 88.9682, 0, 0, 3.12813, -54.1658, 3.12386, -174.072, 3.11185, 65.8942, 0.0188292, 75.0327
1, 720.00000, 121.244, -31.0919, 121.41, -150.998, 121.878, 88.9682, 0, 0, 3.12813, -54.1658, 3.12386, -174.072, 3.11185, 65.8942, 0.0188292, 75.0327
1, 780.00000, 121.244, -31.0919, 121.41, -150.998, 121.878, 88.9682, 0, 0, 3.12813, -54.1658, 3.12386, -174.072, 3.11185, 65.8942, 0.0188292, 75.0327
1, 840.00000, 121.244, -31.0919, 121.41, -150.998, 121.878, 88.9682, 0, 0, 3.12813, -54.1658, 3.12386, -174.072, 3.11185, 65.8942, 0.0188292, 75.0327
1, 900.00000, 121.244, -31.0919, 121.41, -150.998, 121.878, 88.9682, 0, 0, 3.12813, -54.1658, 3.12386, -174.072, 3.11185, 65.8942, 0.0188292, 75.0327
1, 960.00000, 121.244, -31.0919, 121.41, -150.998, 121.878, 88.9682, 0, 0, 3.12813, -54.1658, 3.12386, -174.072, 3.11185, 65.8942, 0.0188292, 75.0327
1, 1020.00000, 121.244, -31.0919, 121.41, -150.998, 121.878, 88.9682, 0, 0, 3.12813, -54.1658, 3.12386, -174.072, 3.11185, 65.8942, 0.0188292, 75.0327
1, 1080.00000, 121.244, -31.0919, 121.41, -150.998, 121.878, 88.9682, 0, 0, 3.12813, -54.1658, 3.12386, -174.072, 3.11185, 65.8942, 0.0188292, 75.0327
1, 1140.00000, 121.244, -31.0919, 121.41, -150.998, 121.878, 88.9682, 0, 0, 3.12813, -54.1658, 3.12386, -174.072, 3.11185, 65.8942, 0.0188292, 75.0327
1, 1200.00000, 121.244, -31.0919, 121.41, -150.998, 121.878, 88.9682, 0, 0, 3.12813, -54.1658, 3.12386, -174.072, 3.11185, 65.8942, 0.0188292, 75.0327
1, 1260.00000, 121.244, -31.0919, 121.41, -150.998, 121.878, 88.9682, 0, 0, 3.12813, -54.1658, 3.12386, -174.072, 3.11185, 65.8942, 0.0188292, 75.0327
1, 1320.00000, 121.244, -31.0919, 121.41, -150.998, 121.878, 88.9682, 0, 0, 3.12813, -54.1658, 3.12386, -174.072, 3.11185, 65.8942, 0.0188292, 75.0327
1, 1380.00000, 121.244, -31.0919, 121.41, -150.998, 121.878, 88.9682, 0, 0, 3.12813, -54.1658, 3.12386, -174.072, 3.11185, 65.8942, 0.0188292, 75.0327
1, 1440.00000, 121.244, -31.0919, 121.41, -150.998, 121.878, 88.9682, 0, 0, 3.12813, -54.1658, 3.12386, -174.072, 3.11185, 65.8942, 0.0188292, 75.0327
1, 1500.00000, 121.244, -31.0919, 121.41, -150.998, 121.878, 88.9682, 0, 0, 3.12813, -54.1658, 3.12386, -174.072, 3.11185, 65.8942, 0.0188292, 75.0327
1, 1560.00000, 121.244, -31.0919, 121.41, -150.998, 121.878, 88.9682, 0, 0, 3.12813, -54.1658, 3.12386, -174.072, 3.11185, 65.8942, 0.0188292, 75.0327
1, 1620.00000, 121.244, -31.0919, 121.41, -150.998, 121.878, 88.9682, 0, 0, 3.12813, -54.1658, 3.12386, -174.072, 3.11185, 65.8942, 0.0188292, 75.0327
1, 1680.00000, 121.244, -31.0919, 121.41, -150.998, 121.878, 88.9682, 0, 0, 3.12813, -54.1658, 3.12386, -174.072, 3.11185, 65.8942, 0.0188292, 75.0327
1, 1740.00000, 121.244, -31.0919, 121.41, -150.998, 121.878, 88.9682, 0, 0, 3.12813, -54.1658, 3.12386, -174.072, 3.11185, 65.8942, 0.0188292, 75.0327
1, 1800.00000, 121.244, -31.0919, 121.41, -150.998, 121.878, 88.9682, 0, 0, 3.12813, -54.1658, 3.12386, -174.072, 3.11185, 65.8942, 0.0188292, 75.0327
1, 1860.00000, 121.244, -31.0919, 121.41, -150.998, 121.878, 88.9682, 0, 0, 3.12813, -54.1658, 3.12386, -174.072, 3.11185, 65.8942, 0.0188292, 75.0327
1, 1920.00000, 121.244, -31.0919, 121.41, -150.998, 121.878, 88.9682, 0, 0, 3.12813, -54.1658, 3.12386, -174.072, 3.11185, 65.8942, 0.0188292, 75.0327
1, 1980.00000, 121.244, -31.0919, 121.41, -150.998, 121.878, 88.9682, 0, 0, 3.12813, -54.1658, 3.12386, -174.072, 3.11185, 65.8942, 0.0188292, 75.0327
1, 2040.00000, 121.244, -31.0919, 121.41, -150.998, 121.878, 88.9682, 0, 0, 3.12813, -54.1658, 3.12386, -174.072, 3.11185, 65.8942, 0.0188292, 75.0327
1, 2100.00000, 121.244, -31.0919, 121.41, -150.998, 121.878, 88.9682, 0, 0, 3.12813, -54.1658, 3.12386, -174.072, 3.11185, 65.8942, 0.0188292, 75.0327
1, 2160.00000, 121.244, -31.0919, 121.41, -150.998, 121.878, 88.9682, 0, 0, 3.12813, -54.1658, 3.12386, -174.072, 3.11185, 65.8942, 0.0188292, 75.0327
1, 2220.00000, 121.244, -31.0919, 121.41, -150.998, 121.878, 88.9682, 0, 0, 3.12813, -54.1658, 3.12386, -174.072, 3.11185, 65.8942, 0.0188292, 75.0327
1, 2280.00000, 121.244, -31.0919, 121.41, -150.998, 121.878, 88.9682, 0, 0, 3.12813, -54.1658, 3.12386, -174.072, 3.11185, 65.8942, 0.0188292, 75.0327
1, 2340.00000, 121.244, -31.0919, 121.41, -150.998, 121.878, 88.9682, 0, 0, 3.12813, -54.1658, 3.12386, -174.072, 3.11185, 65.8942, 0.0188292, 75.0327
1, 2400.00000, 121.244, -31.0919, 121.41, -150.998, 121.878, 88.9682, 0, 0, 3.12813, -54.1658, 3.12386, -174.072, 3.11185, 65.8942, 0.0188292, 75.0327
1, 2460.00000, 121.244, -31.0919, 121.41, -150.998, 121.878, 88.9682, 0, 0, 3.12813, -54.1658, 3.12386, -174.072, 3.11185, 65.8942, 0.0188292, 75.0327
1, 2520.00000, 121.244, -31.0919, 121.41, -150.998, 121.878, 88.9682, 0, 0, 3.12813, -54.1658, 3.12386, -174.072, 3.11185, 65.8942, 0.0188292, 75.0327
1, 2580.00000, 121.244, -31.0919, 121.41, -150.998, 121.878, 88.9682, 0, 0, 3.12813, -54.1658, 3.12386, -174.072, 3.11185, 65.8942, 0.0188292, 75.0327
1, 2640.00000, 121.244, -31.0919, 121.41, -150.998, 121.878, 88.9682, 0, 0, 3.12813, -54.1658, 3.12386, -174.072, 3.11185, 65.8942, 0.0188292, 75.0327
1, 2700.00000, 121.244, -31.0919, 121.41, -150.998, 121.878, 88.9682, 0, 0, 3.12813, -54.1658, 3.12386, -174.072, 3.11185, 65.8942, 0.0188292, 75.0327
1, 2760.00000, 121.244, -31.0919, 121.41, -150.998, 121.878, 88.9682, 0, 0, 3.12813, -54.1658, 3.12386, -174.072, 3.11185, 65.8942, 0.0188292, 75.0327
1, 2820.00000, 121.244, -31.0919, 121.41, -150.998, 121.878, 88.9682, 0, 0, 3.12813, -54.1658, 3.12386, -174.072, 3.11185, 65.8942, 0.0188292, 75.0327
1, 2880.00000, 121.244, -31.0919, 121.41, -150.998, 121.878, 88.9682, 0, 0, 3.12813, -54.1658, 3.12386, -174.072, 3.11185, 65.8942, 0.0188292, 75.0327
1, 2940.00000, 121.244, -31.0919, 121.41, -150.998, 121.878, 88.9682, 0, 0, 3.12813, -54.1658, 3.12386, -174.072, 3.11185, 65.8942, 0.0188292, 75.0327
1, 3000.00000, 121.244, -31.0919, 121.41, -150.998, 121.878, 88.9682, 0, 0, 3.12813, -54.1658, 3.12386, -174.072, 3.11185, 65.8942, 0.0188292, 75.0327
1, 3060.00000, 121.244, -31.0919, 121.41, -150.998, 121.878, 88.9682, 0, 0, 3.12813, -54.1658, 3.12386, -174.072, 3.11185, 65.8942, 0.0188292, 75.0327
1, 3120.00000, 121.244, -31.0919, 121.41, -150.998, 121.878, 88.9682, 0, 0, 3.12813, -54.1658, 3.12386, -174.072, 3.11185, 65.8942, 0.0188292, 75.0327
1, 3180.00000, 121.244, -31.0919, 121.41, -150.998, 121.878, 88.9682, 0, 0, 3.12813, -54.1658, 3.12386, -174.072, 3.11185, 65.8942, 0.0188292, 75.0327
1, 3240.00000, 121.244, -31.0919, 121.41, -150.998, 121.878, 88.9682, 0, 0, 3.12813, -54.1658, 3.12386, -174.072, 3.11185, 65.8942, 0.0188292, 75.0327
1, 3300.00000, 121.244, -31.0919, 121.41, -150.998, 121.878, 88.9682, 0, 0, 3.12813, -54.1658, 3.12386, -174.072, 3.11185, 65.8942, 0.0188292, 75.0327
1, 3360.00000, 121.244, -31.0919, 121.41, -150.998, 121.878, 88.9682, 0, 0, 3.12813, -54.1658, 3.12386, -174.072, 3.11185, 65.8942, 0.0188292, 75.0327
1, 3420.00000, 121.244, -31.0919, 121.41, -150.998, 121.878, 88.9682, 0, 0, 3.12813, -54.1658, 3.12386, -174.072, 3.11185, 65.8942, 0.0188292, 75.0327
1, 3480.00000, 121.244, -31.0919, 121.41, -150.998, 121.878, 88.9682, 0, 0, 3.12813, -54.1658, 3.12386, -174.072, 3.11185, 65.8942, 0.0188292, 75.0327
1, 3540.00000, 121.244, -31.0919, 121.41, -150.998, 121.878, 88.9682, 0, 0, 3.12813, -54.1658, 3.12386, -174.072, 3.11185, 65.8942, 0.0188292, 75.0327
2, 0.00000, 121.244, -31.0919, 121.41, -150.998, 121.878, 88.9682, 0, 0, 3.12813, -54.1658, 3.12386, -174.072, 3.11185, 65.8942, 0.0188292, 75.0327
2, 60.00000, 121.244, -31.0919, 121.41, -150.998, 121.878, 88.9682, 0, 0, 3.12813, -54.1658, 3.12386, -174.072, 3.11185, 65.8942, 0.0188292, 75.0327
2, 120.00000, 121.244, -31.0919, 121.41, -150.998, 121.878, 88.9682, 0, 0, 3.12813, -54.1658, 3.12386, -174.072, 3.11185, 65.8942, 0.0188292, 75.0327
2, 180.00000, 121.244, -31.0919, 121.41, -150.998, 121.878, 88.9682, 0, 0, 3.12813, -54.1658, 3.12386, -174.072, 3.11185, 65.8942, 0.0188292, 75.0327
2, 240.00000, 121.244, -31.0919, 121.41, -150.998, 121.878, 88.9682, 0, 0, 3.12813, -54.1658, 3.12386, -174.072, 3.11185, 65.8942, 0.0188292, 75.0327
2, 300.00000, 121.244, -31.0919, 121.41, -150.998, 121.878, 88.9682, 0, 0, 3.12813, -54.1658, 3.12386, -174.072, 3.11185, 65.8942, 0.0188292, 75.0327
2, 360.00000, 121.244, -31.0919, 121.41, -150.998, 121.878, 88.9682, 0, 0, 3.12813, -54.1658, 3.12386, -174.072, 3.11185, 65.8942, 0.0188292, 75.0327
2, 420.00000, 121.244, -31.0919, 121.41, -150.998, 121.878, 88.9682, 0, 0, 3.12813, -54.1658, 3.12386, -174.072, 3.11185, 65.8942, 0.0188292, 75.0327
2, 480.00000, 121.244, -31.0919, 121.41, -150.998, 121.878, 88.9682, 0, 0, 3.12813, -54.1658, 3.12386, -174.072, 3.11185, 65.8942, 0.0188292, 75.0327
2, 540.00000, 121.244, -31.0919, 121.41, -150.998, 121.878, 88.9682, 0, 0, 3.12813, -54.1658, 3.12386, -174.072, 3.11185, 65.8942, 0.0188292, 75.0327
2, 600.00000, 121.244, -31.0919, 121.41, -150.998, 121.878, 88.9682, 0, 0, 3.12813, -54.1658, 3.12386, -174.072, 3.11185, 65.8942, 0.0188292, 75.0327
2, 660.00000, 121.244, -31.0919, 121.41, -150.998, 121.878, 88.9682, 0, 0, 3.12813, -54.1658, 3.12386, -174.072, 3.11185, 65.8942, 0.0188292, 75.0327
2, 720.00000, 121.244, -31.0919, 121.41, -150.998, 121.878, 88.9682, 0, 0, 3.12813, -54.1658, 3.12386, -174.072, 3.11185, 65.8942, 0.0188292, 75.0327
