hour,t(sec),V1,VAngle1,V2,VAngle2,V3,VAngle3,V4,VAngle4,I1,IAngle1,I2,IAngle2,I3,IAngle3,I4,IAngle4
0, 60.00000, 124.854, -31.4223, 124.702, -151.182, 125.437, 88.7686, 0, 0, 0.956306, -54.4959, 0.957472, -174.255, 0.95185, 65.6952, 0.00879156, 51.2235
0, 120.00000, 124.854, -31.4223, 124.701, -151.182, 125.437, 88.7686, 0, 0, 0.956315, -54.4963, 0.957482, -174.256, 0.951865, 65.6947, 0.00878655, 51.239
0, 180.00000, 124.854, -31.4223, 124.701, -151.182, 125.437, 88.7686, 0, 0, 0.956315, -54.4963, 0.957482, -174.256, 0.951866, 65.6946, 0.00878639, 51.2393
0, 240.00000, 124.854, -31.4223, 124.701, -151.182, 125.437, 88.7686, 0, 0, 0.956315, -54.4963, 0.957482, -174.256, 0.951866, 65.6946, 0.00878639, 51.2393
0, 300.00000, 124.854, -31.4223, 124.701, -151.182, 125.437, 88.7686, 0, 0, 0.956315, -54.4963, 0.957482, -174.256, 0.951866, 65.6946, 0.00878639, 51.2393
0, 360.00000, 124.854, -31.4223, 124.701, -151.182, 125.437, 88.7686, 0, 0, 0.956315, -54.4963, 0.957482, -174.256, 0.951866, 65.6946, 0.00878639, 51.2393
0, 420.00000, 124.854, -31.4223, 124.701, -151.182, 125.437, 88.7686, 0, 0, 0.956315, -54.4963, 0.957482, -174.256, 0.951866, 65.6946, 0.00878639, 51.2393
0, 480.00000, 124.854, -31.4223, 124.701, -151.182, 125.437, 88.7686, 0, 0, 0.956315, -54.4963, 0.957482, -174.256, 0.951866, 65.6946, 0.00878639, 51.2393
0, 540.00000, 124.854, -31.4223, 124.701, -151.182, 125.437, 88.7686, 0, 0, 0.956315, -54.4963, 0.957482, -174.256, 0.951866, 65.6946, 0.00878639, 51.2393
0, 600.00000, 124.854, -31.4223, 124.701, -151.182, 125.437, 88.7686, 0, 0, 0.956315, -54.4963, 0.957482, -174.256, 0.951866, 65.6946, 0.00878639, 51.2393
0, 660.00000, 124.854, -31.4223, 124.701, -151.182, 125.437, 88.7686, 0, 0, 0.956315, -54.4963, 0.957482, -174.256, 0.951866, 65.6946, 0.00878639, 51.2393
0, 720.00000, 124.854, -31.4223, 124.701, -151.182, 125.437, 88.7686, 0, 0, 0.956315, -54.4963, 0.957482, -174.256, 0.951866, 65.6946, 0.00878639, 51.2393
0, 780.00000, 124.854, -31.4223, 124.701, -151.182, 125.437, 88.7686, 0, 0, 0.956315, -54.4963, 0.957482, -174.256, 0.951866, 65.6946, 0.00878639, 51.2393
0, 840.00000, 124.854, -31.4223, 124.701, -151.182, 125.437, 88.7686, 0, 0, 0.956315, -54.4963, 0.957482, -174.256, 0.951866, 65.6946, 0.00878639, 51.2393
0, 900.00000, 124.854, -31.4223, 124.701, -151.182, 125.437, 88.7686, 0, 0, 0.956315, -54.4963, 0.957482, -174.256, 0.951866, 65.6946, 0.00878639, 51.2393
0, 960.00000, 124.732, -31.4533, 124.584, -151.212, 125.322, 88.7362, 0, 0, 0.970528, -54.5271, 0.971678, -174.286, 0.965959, 65.6624, 0.00894104, 51.6172
0, 1020.00000, 124.732, -31.4533, 124.584, -151.212, 125.322, 88.7362, 0, 0, 0.970531, -54.5272, 0.971681, -174.286, 0.965963, 65.6623, 0.00894164, 51.6192
0, 1080.00000, 124.732, -31.4533, 124.584, -151.212, 125.322, 88.7362, 0, 0, 0.970531, -54.5272, 0.971681, -174.286, 0.965963, 65.6623, 0.00894164, 51.6192
0, 1140.00000, 124.732, -31.4533, 124.584, -151.212, 125.322, 88.7362, 0, 0, 0.970531, -54.5272, 0.971681, -174.286, 0.965963, 65.6623, 0.00894164, 51.6192
0, 1200.00000, 124.732, -31.4533, 124.584, -151.212, 125.322, 88.7362, 0, 0, 0.970531, -54.5272, 0.971681, -174.286, 0.965963, 65.6623, 0.00894164, 51.6192
0, 1260.00000, 124.732, -31.4533, 124.584, -151.212, 125.322, 88.7362, 0, 0, 0.970531, -54.5272, 0.971681, -174.286, 0.965963, 65.6623, 0.00894164, 51.6192
0, 1320.00000, 124.732, -31.4533, 124.584, -151.212, 125.322, 88.7362, 0, 0, 0.970531, -54.5272, 0.971681, -174.286, 0.965963, 65.6623, 0.00894164, 51.6192
0, 1380.00000, 124.732, -31.4533, 124.584, -151.212, 125.322, 88.7362, 0, 0, 0.970531, -54.5272, 0.971681, -174.286, 0.965963, 65.6623, 0.00894164, 51.6192
0, 1440.00000, 124.732, -31.4533, 124.584, -151.212, 125.322, 88.7362, 0, 0, 0.970531, -54.5272, 0.971681, -174.286, 0.965963, 65.6623, 0.00894164, 51.6192
0, 1500.00000, 124.732, -31.4533, 124.584, -151.212, 125.322, 88.7362, 0, 0, 0.970531, -54.5272, 0.971681, -174.286, 0.965963, 65.6623, 0.00894164, 51.6192
0, 1560.00000, 124.732, -31.4533, 124.584, -151.212, 125.322, 88.7362, 0, 0, 0.970531, -54.5272, 0.971681, -174.286, 0.965963, 65.6623, 0.00894164, 51.6192
0, 1620.00000, 124.732, -31.4533, 124.584, -151.212, 125.322, 88.7362, 0, 0, 0.970531, -54.5272, 0.971681, -174.286, 0.965963, 65.6623, 0.00894164, 51.6192
0, 1680.00000, 124.732, -31.4533, 124.584, -151.212, 125.322, 88.7362, 0, 0, 0.970531, -54.5272, 0.971681, -174.286, 0.965963, 65.6623, 0.00894164, 51.6192
0, 1740.00000, 124.732, -31.4533, 124.584, -151.212, 125.322, 88.7362, 0, 0, 0.970531, -54.5272, 0.971681, -174.286, 0.965963, 65.6623, 0.00894164, 51.6192
0, 1800.00000, 124.732, -31.4533, 124.584, -151.212, 125.322, 88.7362, 0, 0, 0.970531, -54.5272, 0.971681, -174.286, 0.965963, 65.6623, 0.00894164, 51.6192
0, 1860.00000, 124.804, -31.4323, 124.654, -151.192, 125.391, 88.7578, 0, 0, 1.01909, -54.5074, 1.02032, -174.266, 1.01432, 65.6828, 0.00938491, 51.4697
0, 1920.00000, 124.804, -31.4322, 124.654, -151.192, 125.392, 88.7579, 0, 0, 1.01906, -54.5061, 1.02028, -174.266, 1.01428, 65.6839, 0.00937945, 51.4592
0, 1980.00000, 124.804, -31.4322, 124.654, -151.192, 125.392, 88.7579, 0, 0, 1.01906, -54.5061, 1.02028, -174.266, 1.01428, 65.684, 0.00937944, 51.4591
0, 2040.00000, 124.804, -31.4322, 124.654, -151.192, 125.392, 88.7579, 0, 0, 1.01906, -54.5061, 1.02028, -174.266, 1.01428, 65.684, 0.00937944, 51.4591
0, 2100.00000, 124.804, -31.4322, 124.654, -151.192, 125.392, 88.7579, 0, 0, 1.01906, -54.5061, 1.02028, -174.266, 1.01428, 65.684, 0.00937944, 51.4591
0, 2160.00000, 124.804, -31.4322, 124.654, -151.192, 125.392, 88.7579, 0, 0, 1.01906, -54.5061, 1.02028, -174.266, 1.01428, 65.684, 0.00937944, 51.4591
0, 2220.00000, 124.804, -31.4322, 124.654, -151.192, 125.392, 88.7579, 0, 0, 1.01906, -54.5061, 1.02028, -174.266, 1.01428, 65.684, 0.00937944, 51.4591
0, 2280.00000, 124.804, -31.4322, 124.654, -151.192, 125.392, 88.7579, 0, 0, 1.01906, -54.5061, 1.02028, -174.266, 1.01428, 65.684, 0.00937944, 51.4591
0, 2340.00000, 124.804, -31.4322, 124.654, -151.192, 125.392, 88.7579, 0, 0, 1.01906, -54.5061, 1.02028, -174.266, 1.01428, 65.684, 0.00937944, 51.4591
0, 2400.00000, 124.804, -31.4322, 124.654, -151.192, 125.392, 88.7579, 0, 0, 1.01906, -54.5061, 1.02028, -174.266, 1.01428, 65.684, 0.00937944, 51.4591
0, 2460.00000, 124.804, -31.4322, 124.654, -151.192, 125.392, 88.7579, 0, 0, 1.01906, -54.5061, 1.02028, -174.266, 1.01428, 65.684, 0.00937944, 51.4591
0, 2520.00000, 124.804, -31.4322, 124.654, -151.192, 125.392, 88.7579, 0, 0, 1.01906, -54.5061, 1.02028, -174.266, 1.01428, 65.684, 0.00937944, 51.4591
0, 2580.00000, 124.804, -31.4322, 124.654, -151.192, 125.392, 88.7579, 0, 0, 1.01906, -54.5061, 1.02028, -174.266, 1.01428, 65.684, 0.00937944, 51.4591
0, 2640.00000, 124.804, -31.4322, 124.654, -151.192, 125.392, 88.7579, 0, 0, 1.01906, -54.5061, 1.02028, -174.266, 1.01428, 65.684, 0.00937944, 51.4591
0, 2700.00000, 124.804, -31.4322, 124.654, -151.192, 125.392, 88.7579, 0, 0, 1.01906, -54.5061, 1.02028, -174.266, 1.01428, 65.684, 0.00937944, 51.4591
0, 2760.00000, 124.964, -31.3889, 124.809, -151.149, 125.546, 88.8035, 0, 0, 1.07742, -54.463, 1.07876, -174.223, 1.07242, 65.7293, 0.00990309, 50.9788
0, 2820.00000, 124.964, -31.3889, 124.809, -151.149, 125.547, 88.8035, 0, 0, 1.07741, -54.4628, 1.07875, -174.223, 1.07241, 65.7296, 0.00990695, 50.9652
0, 2880.00000, 124.964, -31.3889, 124.809, -151.149, 125.547, 88.8035, 0, 0, 1.07741, -54.4628, 1.07875, -174.223, 1.07241, 65.7296, 0.00990705, 50.965
0, 2940.00000, 124.964, -31.3889, 124.809, -151.149, 125.547, 88.8035, 0, 0, 1.07741, -54.4628, 1.07875, -174.223, 1.07241, 65.7296, 0.00990705, 50.965
0, 3000.00000, 124.964, -31.3889, 124.809, -151.149, 125.547, 88.8035, 0, 0, 1.07741, -54.4628, 1.07875, -174.223, 1.07241, 65.7296, 0.00990705, 50.965
0, 3060.00000, 124.964, -31.3889, 124.809, -151.149, 125.547, 88.8035, 0, 0, 1.07741, -54.4628, 1.07875, -174.223, 1.07241, 65.7296, 0.00990705, 50.965
0, 3120.00000, 124.964, -31.3889, 124.809, -151.149, 125.547, 88.8035, 0, 0, 1.07741, -54.4628, 1.07875, -174.223, 1.07241, 65.7296, 0.00990705, 50.965
0, 3180.00000, 124.964, -31.3889, 124.809, -151.149, 125.547, 88.8035, 0, 0, 1.07741, -54.4628, 1.07875, -174.223, 1.07241, 65.7296, 0.00990705, 50.965
0, 3240.00000, 124.964, -31.3889, 124.809, -151.149, 125.547, 88.8035, 0, 0, 1.07741, -54.4628, 1.07875, -174.223, 1.07241, 65.7296, 0.00990705, 50.965
0, 3300.00000, 124.964, -31.3889, 124.809, -151.149, 125.547, 88.8035, 0, 0, 1.07741, -54.4628, 1.07875, -174.223, 1.07241, 65.7296, 0.00990705, 50.965
0, 3360.00000, 124.964, -31.3889, 124.809, -151.149, 125.547, 88.8035, 0, 0, 1.07741, -54.4628, 1.07875, -174.223, 1.07241, 65.7296, 0.00990705, 50.965
0, 3420.00000, 124.964, -31.3889, 124.809, -151.149, 125.547, 88.8035, 0, 0, 1.07741, -54.4628, 1.07875, -174.223, 1.07241, 65.7296, 0.00990705, 50.965
0, 3480.00000, 124.964, -31.3889, 124.809, -151.149, 125.547, 88.8035, 0, 0, 1.07741, -54.4628, 1.07875, -174.223, 1.07241, 65.7296, 0.00990705, 50.965
0, 3540.00000, 124.964, -31.3889, 124.809, -151.149, 125.547, 88.8035, 0, 0, 1.07741, -54.4628, 1.07875, -174.223, 1.07241, 65.7296, 0.00990705, 50.965
1, 0.00000, 124.964, -31.3889, 124.809, -151.149, 125.547, 88.8035, 0, 0, 1.07741, -54.4628, 1.07875, -174.223, 1.07241, 65.7296, 0.00990705, 50.965
1, 60.00000, 125.072, -31.3581, 124.913, -151.118, 125.654, 88.8361, 0, 0, 1.04857, -54.4321, 1.0499, -174.192, 1.04372, 65.7619, 0.0096488, 50.6595
1, 120.00000, 125.072, -31.3581, 124.913, -151.118, 125.654, 88.8361, 0, 0, 1.04857, -54.432, 1.0499, -174.192, 1.04371, 65.7622, 0.00965452, 50.6442
1, 180.00000, 125.072, -31.3581, 124.913, -151.118, 125.654, 88.8361, 0, 0, 1.04857, -54.432, 1.0499, -174.192, 1.04371, 65.7622, 0.00965466, 50.6439
1, 240.00000, 125.072, -31.3581, 124.913, -151.118, 125.654, 88.8361, 0, 0, 1.04857, -54.432, 1.0499, -174.192, 1.04371, 65.7622, 0.00965467, 50.6439
1, 300.00000, 125.072, -31.3581, 124.913, -151.118, 125.654, 88.8361, 0, 0, 1.04857, -54.432, 1.0499, -174.192, 1.04371, 65.7622, 0.00965467, 50.6439
1, 360.00000, 125.072, -31.3581, 124.913, -151.118, 125.654, 88.8361, 0, 0, 1.04857, -54.432, 1.0499, -174.192, 1.04371, 65.7622, 0.00965467, 50.6439
1, 420.00000, 125.072, -31.3581, 124.913, -151.118, 125.654, 88.8361, 0, 0, 1.04857, -54.432, 1.0499, -174.192, 1.04371, 65.7622, 0.00965467, 50.6439
1, 480.00000, 125.072, -31.3581, 124.913, -151.118, 125.654, 88.8361, 0, 0, 1.04857, -54.432, 1.0499, -174.192, 1.04371, 65.7622, 0.00965467, 50.6439
1, 540.00000, 125.072, -31.3581, 124.913, -151.118, 125.654, 88.8361, 0, 0, 1.04857, -54.432, 1.0499, -174.192, 1.04371, 65.7622, 0.00965467, 50.6439
1, 600.00000, 125.072, -31.3581, 124.913, -151.118, 125.654, 88.8361, 0, 0, 1.04857, -54.432, 1.0499, -174.192, 1.04371, 65.7622, 0.00965467, 50.6439
1, 660.00000, 125.072, -31.3581, 124.913, -151.118, 125.654, 88.8361, 0, 0, 1.04857, -54.432, 1.0499, -174.192, 1.04371, 65.7622, 0.00965467, 50.6439
1, 720.00000, 125.072, -31.3581, 124.913, -151.118, 125.654, 88.8361, 0, 0, 1.04857, -54.432, 1.0499, -174.192, 1.04371, 65.7622, 0.00965467, 50.6439
1, 780.00000, 125.072, -31.3581, 124.913, -151.118, 125.654, 88.8361, 0, 0, 1.04857, -54.432, 1.0499, -174.192, 1.04371, 65.7622, 0.00965467, 50.6439
1, 840.00000, 125.072, -31.3581, 124.913, -151.118, 125.654, 88.8361, 0, 0, 1.04857, -54.432, 1.0499, -174.192, 1.04371, 65.7622, 0.00965467, 50.6439
1, 900.00000, 125.072, -31.3581, 124.913, -151.118, 125.654, 88.8361, 0, 0, 1.04857, -54.432, 1.0499, -174.192, 1.04371, 65.7622, 0.00965467, 50.6439
1, 960.00000, 125.094, -31.3536, 124.934, -151.114, 125.675, 88.8409, 0, 0, 0.900062, -54.4278, 0.901212, -174.188, 0.895902, 65.7666, 0.00828327, 50.5677
1, 1020.00000, 125.094, -31.3536, 124.934, -151.114, 125.675, 88.8409, 0, 0, 0.900054, -54.4275, 0.901205, -174.188, 0.89589, 65.767, 0.00828582, 50.5525
1, 1080.00000, 125.094, -31.3536, 124.934, -151.114, 125.675, 88.8409, 0, 0, 0.900054, -54.4275, 0.901204, -174.188, 0.89589, 65.767, 0.00828595, 50.5522
1, 1140.00000, 125.094, -31.3536, 124.934, -151.114, 125.675, 88.8409, 0, 0, 0.900054, -54.4275, 0.901204, -174.188, 0.89589, 65.767, 0.00828595, 50.5522
1, 1200.00000, 125.094, -31.3536, 124.934, -151.114, 125.675, 88.8409, 0, 0, 0.900054, -54.4275, 0.901204, -174.188, 0.89589, 65.767, 0.00828595, 50.5522
1, 1260.00000, 125.094, -31.3536, 124.934, -151.114, 125.675, 88.8409, 0, 0, 0.900054, -54.4275, 0.901204, -174.188, 0.89589, 65.767, 0.00828595, 50.5522
1, 1320.00000, 125.094, -31.3536, 124.934, -151.114, 125.675, 88.8409, 0, 0, 0.900054, -54.4275, 0.901204, -174.188, 0.89589, 65.767, 0.00828595, 50.5522
1, 1380.00000, 125.094, -31.3536, 124.934, -151.114, 125.675, 88.8409, 0, 0, 0.900054, -54.4275, 0.901204, -174.188, 0.89589, 65.767, 0.00828595, 50.5522
1, 1440.00000, 125.094, -31.3536, 124.934, -151.114, 125.675, 88.8409, 0, 0, 0.900054, -54.4275, 0.901204, -174.188, 0.89589, 65.767, 0.00828595, 50.5522
1, 1500.00000, 125.094, -31.3536, 124.934, -151.114, 125.675, 88.8409, 0, 0, 0.900054, -54.4275, 0.901204, -174.188, 0.89589, 65.767, 0.00828595, 50.5522
1, 1560.00000, 125.094, -31.3536, 124.934, -151.114, 125.675, 88.8409, 0, 0, 0.900054, -54.4275, 0.901204, -174.188, 0.89589, 65.767, 0.00828595, 50.5522
1, 1620.00000, 125.094, -31.3536, 124.934, -151.114, 125.675, 88.8409, 0, 0, 0.900054, -54.4275, 0.901204, -174.188, 0.89589, 65.767, 0.00828595, 50.5522
1, 1680.00000, 125.094, -31.3536, 124.934, -151.114, 125.675, 88.8409, 0, 0, 0.900054, -54.4275, 0.901204, -174.188, 0.89589, 65.767, 0.00828595, 50.5522
1, 1740.00000, 125.094, -31.3536, 124.934, -151.114, 125.675, 88.8409, 0, 0, 0.900054, -54.4275, 0.901204, -174.188, 0.89589, 65.767, 0.00828595, 50.5522
1, 1800.00000, 125.094, -31.3536, 124.934, -151.114, 125.675, 88.8409, 0, 0, 0.900054, -54.4275, 0.901204, -174.188, 0.89589, 65.767, 0.00828595, 50.5522
1, 1860.00000, 124.99, -31.3823, 124.834, -151.142, 125.573, 88.8104, 0, 0, 0.888343, -54.4561, 0.889456, -174.216, 0.884214, 65.7367, 0.00817701, 50.866
1, 1920.00000, 124.99, -31.3823, 124.833, -151.142, 125.573, 88.8104, 0, 0, 0.888345, -54.4563, 0.889458, -174.216, 0.884222, 65.7365, 0.00817242, 50.8809
1, 1980.00000, 124.99, -31.3823, 124.833, -151.142, 125.573, 88.8104, 0, 0, 0.888345, -54.4563, 0.889458, -174.216, 0.884222, 65.7365, 0.0081723, 50.8812
1, 2040.00000, 124.99, -31.3823, 124.833, -151.142, 125.573, 88.8104, 0, 0, 0.888345, -54.4563, 0.889458, -174.216, 0.884222, 65.7365, 0.0081723, 50.8812
1, 2100.00000, 124.99, -31.3823, 124.833, -151.142, 125.573, 88.8104, 0, 0, 0.888345, -54.4563, 0.889458, -174.216, 0.884222, 65.7365, 0.0081723, 50.8812
1, 2160.00000, 124.99, -31.3823, 124.833, -151.142, 125.573, 88.8104, 0, 0, 0.888345, -54.4563, 0.889458, -174.216, 0.884222, 65.7365, 0.0081723, 50.8812
1, 2220.00000, 124.99, -31.3823, 124.833, -151.142, 125.573, 88.8104, 0, 0, 0.888345, -54.4563, 0.889458, -174.216, 0.884222, 65.7365, 0.0081723, 50.8812
1, 2280.00000, 124.99, -31.3823, 124.833, -151.142, 125.573, 88.8104, 0, 0, 0.888345, -54.4563, 0.889458, -174.216, 0.884222, 65.7365, 0.0081723, 50.8812
1, 2340.00000, 124.99, -31.3823, 124.833, -151.142, 125.573, 88.8104, 0, 0, 0.888345, -54.4563, 0.889458, -174.216, 0.884222, 65.7365, 0.0081723, 50.8812
1, 2400.00000, 124.99, -31.3823, 124.833, -151.142, 125.573, 88.8104, 0, 0, 0.888345, -54.4563, 0.889458, -174.216, 0.884222, 65.7365, 0.0081723, 50.8812
1, 2460.00000, 124.99, -31.3823, 124.833, -151.142, 125.573, 88.8104, 0, 0, 0.888345, -54.4563, 0.889458, -174.216, 0.884222, 65.7365, 0.0081723, 50.8812
1, 2520.00000, 124.99, -31.3823, 124.833, -151.142, 125.573, 88.8104, 0, 0, 0.888345, -54.4563, 0.889458, -174.216, 0.884222, 65.7365, 0.0081723, 50.8812
1, 2580.00000, 124.99, -31.3823, 124.833, -151.142, 125.573, 88.8104, 0, 0, 0.888345, -54.4563, 0.889458, -174.216, 0.884222, 65.7365, 0.0081723, 50.8812
1, 2640.00000, 124.99, -31.3823, 124.833, -151.142, 125.573, 88.8104, 0, 0, 0.888345, -54.4563, 0.889458, -174.216, 0.884222, 65.7365, 0.0081723, 50.8812
1, 2700.00000, 124.99, -31.3823, 124.833, -151.142, 125.573, 88.8104, 0, 0, 0.888345, -54.4563, 0.889458, -174.216, 0.884222, 65.7365, 0.0081723, 50.8812
1, 2760.00000, 125.202, -31.3243, 125.039, -151.085, 125.782, 88.8721, 0, 0, 0.882831, -54.3985, 0.88398, -174.159, 0.87877, 65.7976, 0.00812577, 50.2779
1, 2820.00000, 125.202, -31.3243, 125.039, -151.085, 125.782, 88.8721, 0, 0, 0.882827, -54.3982, 0.883973, -174.159, 0.878755, 65.7982, 0.00813465, 50.2659
1, 2880.00000, 125.202, -31.3243, 125.039, -151.085, 125.782, 88.8721, 0, 0, 0.882827, -54.3982, 0.883973, -174.159, 0.878754, 65.7982, 0.00813488, 50.2657
1, 2940.00000, 125.202, -31.3243, 125.039, -151.085, 125.782, 88.8721, 0, 0, 0.882827, -54.3982, 0.883973, -174.159, 0.878754, 65.7982, 0.00813488, 50.2657
1, 3000.00000, 125.202, -31.3243, 125.039, -151.085, 125.782, 88.8721, 0, 0, 0.882827, -54.3982, 0.883973, -174.159, 0.878754, 65.7982, 0.00813488, 50.2657
1, 3060.00000, 125.202, -31.3243, 125.039, -151.085, 125.782, 88.8721, 0, 0, 0.882827, -54.3982, 0.883973, -174.159, 0.878754, 65.7982, 0.00813488, 50.2657
1, 3120.00000, 125.202, -31.3243, 125.039, -151.085, 125.782, 88.8721, 0, 0, 0.882827, -54.3982, 0.883973, -174.159, 0.878754, 65.7982, 0.00813488, 50.2657
1, 3180.00000, 125.202, -31.3243, 125.039, -151.085, 125.782, 88.8721, 0, 0, 0.882827, -54.3982, 0.883973, -174.159, 0.878754, 65.7982, 0.00813488, 50.2657
1, 3240.00000, 125.202, -31.3243, 125.039, -151.085, 125.782, 88.8721, 0, 0, 0.882827, -54.3982, 0.883973, -174.159, 0.878754, 65.7982, 0.00813488, 50.2657
1, 3300.00000, 125.202, -31.3243, 125.039, -151.085, 125.782, 88.8721, 0, 0, 0.882827, -54.3982, 0.883973, -174.159, 0.878754, 65.7982, 0.00813488, 50.2657
1, 3360.00000, 125.202, -31.3243, 125.039, -151.085, 125.782, 88.8721, 0, 0, 0.882827, -54.3982, 0.883973, -174.159, 0.878754, 65.7982, 0.00813488, 50.2657
1, 3420.00000, 125.202, -31.3243, 125.039, -151.085, 125.782, 88.8721, 0, 0, 0.882827, -54.3982, 0.883973, -174.159, 0.878754, 65.7982, 0.00813488, 50.2657
1, 3480.00000, 125.202, -31.3243, 125.039, -151.085, 125.782, 88.8721, 0, 0, 0.882827, -54.3982, 0.883973, -174.159, 0.878754, 65.7982, 0.00813488, 50.2657
1, 3540.00000, 125.202, -31.3243, 125.039, -151.085, 125.782, 88.8721, 0, 0, 0.882827, -54.3982, 0.883973, -174.159, 0.878754, 65.7982, 0.00813488, 50.2657
2, 0.00000, 125.202, -31.3243, 125.039, -151.085, 125.782, 88.8721, 0, 0, 0.882827, -54.3982, 0.883973, -174.159, 0.878754, 65.7982, 0.00813488, 50.2657
2, 60.00000, 125.073, -31.3595, 124.914, -151.12, 125.655, 88.8347, 0, 0, 0.908975, -54.4333, 0.910134, -174.194, 0.904759, 65.7611, 0.00837496, 50.588
2, 120.00000, 125.073, -31.3595, 124.914, -151.12, 125.655, 88.8347, 0, 0, 0.908978, -54.4334, 0.910137, -174.194, 0.904769, 65.7608, 0.00836965, 50.5998
2, 180.00000, 125.073, -31.3595, 124.914, -151.12, 125.655, 88.8347, 0, 0, 0.908978, -54.4334, 0.910137, -174.194, 0.904769, 65.7608, 0.00836952, 50.6001
2, 240.00000, 125.073, -31.3595, 124.914, -151.12, 125.655, 88.8347, 0, 0, 0.908978, -54.4334, 0.910137, -174.194, 0.904769, 65.7608, 0.00836952, 50.6001
2, 300.00000, 125.073, -31.3595, 124.914, -151.12, 125.655, 88.8347, 0, 0, 0.908978, -54.4334, 0.910137, -174.194, 0.904769, 65.7608, 0.00836952, 50.6001
2, 360.00000, 125.073, -31.3595, 124.914, -151.12, 125.655, 88.8347, 0, 0, 0.908978, -54.4334, 0.910137, -174.194, 0.904769, 65.7608, 0.00836952, 50.6001
2, 420.00000, 125.073, -31.3595, 124.914, -151.12, 125.655, 88.8347, 0, 0, 0.908978, -54.4334, 0.910137, -174.194, 0.904769, 65.7608, 0.00836952, 50.6001
2, 480.00000, 125.073, -31.3595, 124.914, -151.12, 125.655, 88.8347, 0, 0, 0.908978, -54.4334, 0.910137, -174.194, 0.904769, 65.7608, 0.00836952, 50.6001
2, 540.00000, 125.073, -31.3595, 124.914, -151.12, 125.655, 88.8347, 0, 0, 0.908978, -54.4334, 0.910137, -174.194, 0.904769, 65.7608, 0.00836952, 50.6001
