hour,t(sec),V1,VAngle1,V2,VAngle2,V3,VAngle3,V4,VAngle4,I1,IAngle1,I2,IAngle2,I3,IAngle3,I4,IAngle4
0, 60.00000, 116.312, -31.2584, 116.16, -151.162, 117.116, 88.8883, 0, 0, 2.14322, -54.332, 2.14011, -174.236, 2.15971, 65.8147, 0.0149695, -110.344
0, 120.00000, 116.312, -31.2584, 116.16, -151.162, 117.116, 88.8882, 0, 0, 2.1432, -54.3323, 2.14009, -174.236, 2.15969, 65.8143, 0.0149654, -110.379
0, 180.00000, 116.312, -31.2584, 116.16, -151.162, 117.116, 88.8882, 0, 0, 2.1432, -54.3323, 2.14009, -174.236, 2.15969, 65.8143, 0.0149654, -110.379
0, 240.00000, 116.312, -31.2584, 116.16, -151.162, 117.116, 88.8882, 0, 0, 2.1432, -54.3323, 2.14009, -174.236, 2.15969, 65.8143, 0.0149654, -110.379
0, 300.00000, 116.312, -31.2584, 116.16, -151.162, 117.116, 88.8882, 0, 0, 2.1432, -54.3323, 2.14009, -174.236, 2.15969, 65.8143, 0.0149654, -110.379
0, 360.00000, 116.312, -31.2584, 116.16, -151.162, 117.116, 88.8882, 0, 0, 2.1432, -54.3323, 2.14009, -174.236, 2.15969, 65.8143, 0.0149654, -110.379
0, 420.00000, 116.312, -31.2584, 116.16, -151.162, 117.116, 88.8882, 0, 0, 2.1432, -54.3323, 2.14009, -174.236, 2.15969, 65.8143, 0.0149654, -110.379
0, 480.00000, 117.31, -31.1681, 117.108, -151.078, 118.042, 89.0004, 0, 0, 1.88238, -54.2423, 1.87877, -174.152, 1.89544, 65.926, 0.012335, -109.785
0, 540.00000, 117.31, -31.1681, 117.108, -151.078, 118.042, 89.0004, 0, 0, 1.8824, -54.242, 1.87879, -174.152, 1.89546, 65.9265, 0.0123329, -109.765
0, 600.00000, 117.31, -31.1681, 117.108, -151.078, 118.042, 89.0004, 0, 0, 1.8824, -54.242, 1.87879, -174.152, 1.89546, 65.9265, 0.0123328, -109.765
0, 660.00000, 117.31, -31.1681, 117.108, -151.078, 118.042, 89.0004, 0, 0, 1.8824, -54.242, 1.87879, -174.152, 1.89546, 65.9265, 0.0123328, -109.765
0, 720.00000, 117.31, -31.1681, 117.108, -151.078, 118.042, 89.0004, 0, 0, 1.8824, -54.242, 1.87879, -174.152, 1.89546, 65.9265, 0.0123328, -109.765
0, 780.00000, 117.31, -31.1681, 117.108, -151.078, 118.042, 89.0004, 0, 0, 1.8824, -54.242, 1.87879, -174.152, 1.89546, 65.9265, 0.0123328, -109.765
0, 840.00000, 117.31, -31.1681, 117.108, -151.078, 118.042, 89.0004, 0, 0, 1.8824, -54.242, 1.87879, -174.152, 1.89546, 65.9265, 0.0123328, -109.765
0, 900.00000, 117.31, -31.1681, 117.108, -151.078, 118.042, 89.0004, 0, 0, 1.8824, -54.242, 1.87879, -174.152, 1.89546, 65.9265, 0.0123328, -109.765
0, 960.00000, 116.395, -31.4885, 116.087, -150.852, 118.095, 88.9865, 0, 0, 1.86609, -54.5623, 1.8606, -173.926, 1.89639, 65.9126, 0.0151615, -112.541
0, 1020.00000, 116.395, -31.4885, 116.087, -150.852, 118.095, 88.9865, 0, 0, 1.86607, -54.5624, 1.86058, -173.926, 1.8964, 65.9126, 0.0151802, -112.554
0, 1080.00000, 116.395, -31.4885, 116.087, -150.852, 118.095, 88.9865, 0, 0, 1.86607, -54.5624, 1.86058, -173.926, 1.8964, 65.9126, 0.0151802, -112.554
0, 1140.00000, 116.395, -31.4885, 116.087, -150.852, 118.095, 88.9865, 0, 0, 1.86607, -54.5624, 1.86058, -173.926, 1.8964, 65.9126, 0.0151802, -112.554
0, 1200.00000, 116.395, -31.4885, 116.087, -150.852, 118.095, 88.9865, 0, 0, 1.86607, -54.5624, 1.86058, -173.926, 1.8964, 65.9126, 0.0151802, -112.554
0, 1260.00000, 116.395, -31.4885, 116.087, -150.852, 118.095, 88.9865, 0, 0, 1.86607, -54.5624, 1.86058, -173.926, 1.8964, 65.9126, 0.0151802, -112.554
0, 1320.00000, 116.395, -31.4885, 116.087, -150.852, 118.095, 88.9865, 0, 0, 1.86607, -54.5624, 1.86058, -173.926, 1.8964, 65.9126, 0.0151802, -112.554
0, 1380.00000, 116.395, -31.4885, 116.087, -150.852, 118.095, 88.9865, 0, 0, 1.86607, -54.5624, 1.86058, -173.926, 1.8964, 65.9126, 0.0151802, -112.554
0, 1440.00000, 116.395, -31.4885, 116.087, -150.852, 118.095, 88.9865, 0, 0, 1.86607, -54.5624, 1.86058, -173.926, 1.8964, 65.9126, 0.0151802, -112.554
0, 1500.00000, 116.395, -31.4885, 116.087, -150.852, 118.095, 88.9865, 0, 0, 1.86607, -54.5624, 1.86058, -173.926, 1.8964, 65.9126, 0.0151802, -112.554
0, 1560.00000, 116.395, -31.4885, 116.087, -150.852, 118.095, 88.9865, 0, 0, 1.86607, -54.5624, 1.86058, -173.926, 1.8964, 65.9126, 0.0151802, -112.554
0, 1620.00000, 116.395, -31.4885, 116.087, -150.852, 118.095, 88.9865, 0, 0, 1.86607, -54.5624, 1.86058, -173.926, 1.8964, 65.9126, 0.0151802, -112.554
0, 1680.00000, 116.395, -31.4885, 116.087, -150.852, 118.095, 88.9865, 0, 0, 1.86607, -54.5624, 1.86058, -173.926, 1.8964, 65.9126, 0.0151802, -112.554
0, 1740.00000, 116.395, -31.4885, 116.087, -150.852, 118.095, 88.9865, 0, 0, 1.86607, -54.5624, 1.86058, -173.926, 1.8964, 65.9126, 0.0151802, -112.554
0, 1800.00000, 116.395, -31.4885, 116.087, -150.852, 118.095, 88.9865, 0, 0, 1.86607, -54.5624, 1.86058, -173.926, 1.8964, 65.9126, 0.0151802, -112.554
0, 1860.00000, 116.395, -31.4885, 116.087, -150.852, 118.095, 88.9865, 0, 0, 1.86607, -54.5624, 1.86058, -173.926, 1.8964, 65.9126, 0.0151802, -112.554
0, 1920.00000, 116.395, -31.4885, 116.087, -150.852, 118.095, 88.9865, 0, 0, 1.86607, -54.5624, 1.86058, -173.926, 1.8964, 65.9126, 0.0151802, -112.554
0, 1980.00000, 116.395, -31.4885, 116.087, -150.852, 118.095, 88.9865, 0, 0, 1.86607, -54.5624, 1.86058, -173.926, 1.8964, 65.9126, 0.0151802, -112.554
0, 2040.00000, 116.395, -31.4885, 116.087, -150.852, 118.095, 88.9865, 0, 0, 1.86607, -54.5624, 1.86058, -173.926, 1.8964, 65.9126, 0.0151802, -112.554
0, 2100.00000, 116.395, -31.4885, 116.087, -150.852, 118.095, 88.9865, 0, 0, 1.86607, -54.5624, 1.86058, -173.926, 1.8964, 65.9126, 0.0151802, -112.554
0, 2160.00000, 116.395, -31.4885, 116.087, -150.852, 118.095, 88.9865, 0, 0, 1.86607, -54.5624, 1.86058, -173.926, 1.8964, 65.9126, 0.0151802, -112.554
0, 2220.00000, 116.395, -31.4885, 116.087, -150.852, 118.095, 88.9865, 0, 0, 1.86607, -54.5624, 1.86058, -173.926, 1.8964, 65.9126, 0.0151802, -112.554
0, 2280.00000, 116.395, -31.4885, 116.087, -150.852, 118.095, 88.9865, 0, 0, 1.86607, -54.5624, 1.86058, -173.926, 1.8964, 65.9126, 0.0151802, -112.554
0, 2340.00000, 116.395, -31.4885, 116.087, -150.852, 118.095, 88.9865, 0, 0, 1.86607, -54.5624, 1.86058, -173.926, 1.8964, 65.9126, 0.0151802, -112.554
0, 2400.00000, 116.395, -31.4885, 116.087, -150.852, 118.095, 88.9865, 0, 0, 1.86607, -54.5624, 1.86058, -173.926, 1.8964, 65.9126, 0.0151802, -112.554
0, 2460.00000, 116.395, -31.4885, 116.087, -150.852, 118.095, 88.9865, 0, 0, 1.86607, -54.5624, 1.86058, -173.926, 1.8964, 65.9126, 0.0151802, -112.554
0, 2520.00000, 116.395, -31.4885, 116.087, -150.852, 118.095, 88.9865, 0, 0, 1.86607, -54.5624, 1.86058, -173.926, 1.8964, 65.9126, 0.0151802, -112.554
0, 2580.00000, 116.395, -31.4885, 116.087, -150.852, 118.095, 88.9865, 0, 0, 1.86607, -54.5624, 1.86058, -173.926, 1.8964, 65.9126, 0.0151802, -112.554
0, 2640.00000, 116.395, -31.4885, 116.087, -150.852, 118.095, 88.9865, 0, 0, 1.86607, -54.5624, 1.86058, -173.926, 1.8964, 65.9126, 0.0151802, -112.554
0, 2700.00000, 116.395, -31.4885, 116.087, -150.852, 118.095, 88.9865, 0, 0, 1.86607, -54.5624, 1.86058, -173.926, 1.8964, 65.9126, 0.0151802, -112.554
0, 2760.00000, 116.664, -31.3024, 116.562, -150.867, 118.064, 88.9929, 0, 0, 1.87086, -54.3764, 1.86903, -173.942, 1.89585, 65.9189, 0.0136696, -109.95
0, 2820.00000, 116.664, -31.3024, 116.562, -150.867, 118.064, 88.9929, 0, 0, 1.87087, -54.3764, 1.86906, -173.941, 1.89584, 65.919, 0.0136301, -109.916
0, 2880.00000, 116.664, -31.3024, 116.562, -150.867, 118.064, 88.9929, 0, 0, 1.87087, -54.3764, 1.86906, -173.941, 1.89584, 65.919, 0.0136299, -109.916
0, 2940.00000, 116.664, -31.3024, 116.562, -150.867, 118.064, 88.9929, 0, 0, 1.87087, -54.3764, 1.86906, -173.941, 1.89584, 65.919, 0.0136299, -109.916
0, 3000.00000, 116.664, -31.3024, 116.562, -150.867, 118.064, 88.9929, 0, 0, 1.87087, -54.3764, 1.86906, -173.941, 1.89584, 65.919, 0.0136299, -109.916
0, 3060.00000, 116.664, -31.3024, 116.562, -150.867, 118.064, 88.9929, 0, 0, 1.87087, -54.3764, 1.86906, -173.941, 1.89584, 65.919, 0.0136299, -109.916
0, 3120.00000, 116.664, -31.3024, 116.562, -150.867, 118.064, 88.9929, 0, 0, 1.87087, -54.3764, 1.86906, -173.941, 1.89584, 65.919, 0.0136299, -109.916
0, 3180.00000, 116.664, -31.3024, 116.562, -150.867, 118.064, 88.9929, 0, 0, 1.87087, -54.3764, 1.86906, -173.941, 1.89584, 65.919, 0.0136299, -109.916
0, 3240.00000, 116.664, -31.3024, 116.562, -150.867, 118.064, 88.9929, 0, 0, 1.87087, -54.3764, 1.86906, -173.941, 1.89584, 65.919, 0.0136299, -109.916
0, 3300.00000, 116.664, -31.3024, 116.562, -150.867, 118.064, 88.9929, 0, 0, 1.87087, -54.3764, 1.86906, -173.941, 1.89584, 65.919, 0.0136299, -109.916
0, 3360.00000, 116.664, -31.3024, 116.562, -150.867, 118.064, 88.9929, 0, 0, 1.87087, -54.3764, 1.86906, -173.941, 1.89584, 65.919, 0.0136299, -109.916
0, 3420.00000, 116.664, -31.3024, 116.562, -150.867, 118.064, 88.9929, 0, 0, 1.87087, -54.3764, 1.86906, -173.941, 1.89584, 65.919, 0.0136299, -109.916
0, 3480.00000, 116.664, -31.3024, 116.562, -150.867, 118.064, 88.9929, 0, 0, 1.87087, -54.3764, 1.86906, -173.941, 1.89584, 65.919, 0.0136299, -109.916
0, 3540.00000, 116.664, -31.3024, 116.562, -150.867, 118.064, 88.9929, 0, 0, 1.87087, -54.3764, 1.86906, -173.941, 1.89584, 65.919, 0.0136299, -109.916
1, 0.00000, 116.664, -31.3024, 116.562, -150.867, 118.064, 88.9929, 0, 0, 1.87087, -54.3764, 1.86906, -173.941, 1.89584, 65.919, 0.0136299, -109.916
1, 60.00000, 117.026, -31.2823, 116.56, -150.866, 118.219, 89.1464, 0, 0, 1.87731, -54.3566, 1.86902, -173.94, 1.89861, 66.0724, 0.0136622, -113.519
1, 120.00000, 117.026, -31.2823, 116.56, -150.866, 118.219, 89.1464, 0, 0, 1.87734, -54.3562, 1.86901, -173.94, 1.89862, 66.0725, 0.0136688, -113.651
1, 180.00000, 117.026, -31.2823, 116.56, -150.866, 118.219, 89.1464, 0, 0, 1.87734, -54.3562, 1.86901, -173.94, 1.89862, 66.0725, 0.0136689, -113.651
1, 240.00000, 117.026, -31.2823, 116.56, -150.866, 118.219, 89.1464, 0, 0, 1.87734, -54.3562, 1.86901, -173.94, 1.89862, 66.0725, 0.0136689, -113.651
1, 300.00000, 117.026, -31.2823, 116.56, -150.866, 118.219, 89.1464, 0, 0, 1.87734, -54.3562, 1.86901, -173.94, 1.89862, 66.0725, 0.0136689, -113.651
1, 360.00000, 117.026, -31.2823, 116.56, -150.866, 118.219, 89.1464, 0, 0, 1.87734, -54.3562, 1.86901, -173.94, 1.89862, 66.0725, 0.0136689, -113.651
1, 420.00000, 117.026, -31.2823, 116.56, -150.866, 118.219, 89.1464, 0, 0, 1.87734, -54.3562, 1.86901, -173.94, 1.89862, 66.0725, 0.0136689, -113.651
1, 480.00000, 117.026, -31.2823, 116.56, -150.866, 118.219, 89.1464, 0, 0, 1.87734, -54.3562, 1.86901, -173.94, 1.89862, 66.0725, 0.0136689, -113.651
1, 540.00000, 117.026, -31.2823, 116.56, -150.866, 118.219, 89.1464, 0, 0, 1.87734, -54.3562, 1.86901, -173.94, 1.89862, 66.0725, 0.0136689, -113.651
1, 600.00000, 117.026, -31.2823, 116.56, -150.866, 118.219, 89.1464, 0, 0, 1.87734, -54.3562, 1.86901, -173.94, 1.89862, 66.0725, 0.0136689, -113.651
1, 660.00000, 117.026, -31.2823, 116.56, -150.866, 118.219, 89.1464, 0, 0, 1.87734, -54.3562, 1.86901, -173.94, 1.89862, 66.0725, 0.0136689, -113.651
1, 720.00000, 117.026, -31.2823, 116.56, -150.866, 118.219, 89.1464, 0, 0, 1.87734, -54.3562, 1.86901, -173.94, 1.89862, 66.0725, 0.0136689, -113.651
1, 780.00000, 117.026, -31.2823, 116.56, -150.866, 118.219, 89.1464, 0, 0, 1.87734, -54.3562, 1.86901, -173.94, 1.89862, 66.0725, 0.0136689, -113.651
1, 840.00000, 117.026, -31.2823, 116.56, -150.866, 118.219, 89.1464, 0, 0, 1.87734, -54.3562, 1.86901, -173.94, 1.89862, 66.0725, 0.0136689, -113.651
1, 900.00000, 117.026, -31.2823, 116.56, -150.866, 118.219, 89.1464, 0, 0, 1.87734, -54.3562, 1.86901, -173.94, 1.89862, 66.0725, 0.0136689, -113.651
1, 960.00000, 117.026, -31.2823, 116.56, -150.866, 118.219, 89.1464, 0, 0, 1.87734, -54.3562, 1.86901, -173.94, 1.89862, 66.0725, 0.0136689, -113.651
1, 1020.00000, 117.026, -31.2823, 116.56, -150.866, 118.219, 89.1464, 0, 0, 1.87734, -54.3562, 1.86901, -173.94, 1.89862, 66.0725, 0.0136689, -113.651
1, 1080.00000, 117.026, -31.2823, 116.56, -150.866, 118.219, 89.1464, 0, 0, 1.87734, -54.3562, 1.86901, -173.94, 1.89862, 66.0725, 0.0136689, -113.651
1, 1140.00000, 117.026, -31.2823, 116.56, -150.866, 118.219, 89.1464, 0, 0, 1.87734, -54.3562, 1.86901, -173.94, 1.89862, 66.0725, 0.0136689, -113.651
1, 1200.00000, 117.026, -31.2823, 116.56, -150.866, 118.219, 89.1464, 0, 0, 1.87734, -54.3562, 1.86901, -173.94, 1.89862, 66.0725, 0.0136689, -113.651
1, 1260.00000, 117.026, -31.2823, 116.56, -150.866, 118.219, 89.1464, 0, 0, 1.87734, -54.3562, 1.86901, -173.94, 1.89862, 66.0725, 0.0136689, -113.651
1, 1320.00000, 117.026, -31.2823, 116.56, -150.866, 118.219, 89.1464, 0, 0, 1.87734, -54.3562, 1.86901, -173.94, 1.89862, 66.0725, 0.0136689, -113.651
1, 1380.00000, 117.026, -31.2823, 116.56, -150.866, 118.219, 89.1464, 0, 0, 1.87734, -54.3562, 1.86901, -173.94, 1.89862, 66.0725, 0.0136689, -113.651
1, 1440.00000, 117.026, -31.2823, 116.56, -150.866, 118.219, 89.1464, 0, 0, 1.87734, -54.3562, 1.86901, -173.94, 1.89862, 66.0725, 0.0136689, -113.651
1, 1500.00000, 117.026, -31.2823, 116.56, -150.866, 118.219, 89.1464, 0, 0, 1.87734, -54.3562, 1.86901, -173.94, 1.89862, 66.0725, 0.0136689, -113.651
1, 1560.00000, 117.026, -31.2823, 116.56, -150.866, 118.219, 89.1464, 0, 0, 1.87734, -54.3562, 1.86901, -173.94, 1.89862, 66.0725, 0.0136689, -113.651
1, 1620.00000, 117.026, -31.2823, 116.56, -150.866, 118.219, 89.1464, 0, 0, 1.87734, -54.3562, 1.86901, -173.94, 1.89862, 66.0725, 0.0136689, -113.651
1, 1680.00000, 117.026, -31.2823, 116.56, -150.866, 118.219, 89.1464, 0, 0, 1.87734, -54.3562, 1.86901, -173.94, 1.89862, 66.0725, 0.0136689, -113.651
1, 1740.00000, 117.026, -31.2823, 116.56, -150.866, 118.219, 89.1464, 0, 0, 1.87734, -54.3562, 1.86901, -173.94, 1.89862, 66.0725, 0.0136689, -113.651
1, 1800.00000, 117.026, -31.2823, 116.56, -150.866, 118.219, 89.1464, 0, 0, 1.87734, -54.3562, 1.86901, -173.94, 1.89862, 66.0725, 0.0136689, -113.651
1, 1860.00000, 117.026, -31.2823, 116.56, -150.866, 118.219, 89.1464, 0, 0, 1.87734, -54.3562, 1.86901, -173.94, 1.89862, 66.0725, 0.0136689, -113.651
1, 1920.00000, 117.026, -31.2823, 116.56, -150.866, 118.219, 89.1464, 0, 0, 1.87734, -54.3562, 1.86901, -173.94, 1.89862, 66.0725, 0.0136689, -113.651
1, 1980.00000, 117.026, -31.2823, 116.56, -150.866, 118.219, 89.1464, 0, 0, 1.87734, -54.3562, 1.86901, -173.94, 1.89862, 66.0725, 0.0136689, -113.651
1, 2040.00000, 117.026, -31.2823, 116.56, -150.866, 118.219, 89.1464, 0, 0, 1.87734, -54.3562, 1.86901, -173.94, 1.89862, 66.0725, 0.0136689, -113.651
1, 2100.00000, 117.026, -31.2823, 116.56, -150.866, 118.219, 89.1464, 0, 0, 1.87734, -54.3562, 1.86901, -173.94, 1.89862, 66.0725, 0.0136689, -113.651
1, 2160.00000, 117.026, -31.2823, 116.56, -150.866, 118.219, 89.1464, 0, 0, 1.87734, -54.3562, 1.86901, -173.94, 1.89862, 66.0725, 0.0136689, -113.651
1, 2220.00000, 117.026, -31.2823, 116.56, -150.866, 118.219, 89.1464, 0, 0, 1.87734, -54.3562, 1.86901, -173.94, 1.89862, 66.0725, 0.0136689, -113.651
1, 2280.00000, 117.026, -31.2823, 116.56, -150.866, 118.219, 89.1464, 0, 0, 1.87734, -54.3562, 1.86901, -173.94, 1.89862, 66.0725, 0.0136689, -113.651
1, 2340.00000, 117.026, -31.2823, 116.56, -150.866, 118.219, 89.1464, 0, 0, 1.87734, -54.3562, 1.86901, -173.94, 1.89862, 66.0725, 0.0136689, -113.651
1, 2400.00000, 117.026, -31.2823, 116.56, -150.866, 118.219, 89.1464, 0, 0, 1.87734, -54.3562, 1.86901, -173.94, 1.89862, 66.0725, 0.0136689, -113.651
1, 2460.00000, 117.026, -31.2823, 116.56, -150.866, 118.219, 89.1464, 0, 0, 1.87734, -54.3562, 1.86901, -173.94, 1.89862, 66.0725, 0.0136689, -113.651
1, 2520.00000, 117.026, -31.2823, 116.56, -150.866, 118.219, 89.1464, 0, 0, 1.87734, -54.3562, 1.86901, -173.94, 1.89862, 66.0725, 0.0136689, -113.651
1, 2580.00000, 117.026, -31.2823, 116.56, -150.866, 118.219, 89.1464, 0, 0, 1.87734, -54.3562, 1.86901, -173.94, 1.89862, 66.0725, 0.0136689, -113.651
1, 2640.00000, 117.026, -31.2823, 116.56, -150.866, 118.219, 89.1464, 0, 0, 1.87734, -54.3562, 1.86901, -173.94, 1.89862, 66.0725, 0.0136689, -113.651
1, 2700.00000, 117.026, -31.2823, 116.56, -150.866, 118.219, 89.1464, 0, 0, 1.87734, -54.3562, 1.86901, -173.94, 1.89862, 66.0725, 0.0136689, -113.651
1, 2760.00000, 117.026, -31.2823, 116.56, -150.866, 118.219, 89.1464, 0, 0, 1.87734, -54.3562, 1.86901, -173.94, 1.89862, 66.0725, 0.0136689, -113.651
1, 2820.00000, 117.026, -31.2823, 116.56, -150.866, 118.219, 89.1464, 0, 0, 1.87734, -54.3562, 1.86901, -173.94, 1.89862, 66.0725, 0.0136689, -113.651
1, 2880.00000, 117.026, -31.2823, 116.56, -150.866, 118.219, 89.1464, 0, 0, 1.87734, -54.3562, 1.86901, -173.94, 1.89862, 66.0725, 0.0136689, -113.651
1, 2940.00000, 117.026, -31.2823, 116.56, -150.866, 118.219, 89.1464, 0, 0, 1.87734, -54.3562, 1.86901, -173.94, 1.89862, 66.0725, 0.0136689, -113.651
1, 3000.00000, 117.026, -31.2823, 116.56, -150.866, 118.219, 89.1464, 0, 0, 1.87734, -54.3562, 1.86901, -173.94, 1.89862, 66.0725, 0.0136689, -113.651
1, 3060.00000, 117.026, -31.2823, 116.56, -150.866, 118.219, 89.1464, 0, 0, 1.87734, -54.3562, 1.86901, -173.94, 1.89862, 66.0725, 0.0136689, -113.651
1, 3120.00000, 117.026, -31.2823, 116.56, -150.866, 118.219, 89.1464, 0, 0, 1.87734, -54.3562, 1.86901, -173.94, 1.89862, 66.0725, 0.0136689, -113.651
1, 3180.00000, 117.026, -31.2823, 116.56, -150.866, 118.219, 89.1464, 0, 0, 1.87734, -54.3562, 1.86901, -173.94, 1.89862, 66.0725, 0.0136689, -113.651
1, 3240.00000, 117.026, -31.2823, 116.56, -150.866, 118.219, 89.1464, 0, 0, 1.87734, -54.3562, 1.86901, -173.94, 1.89862, 66.0725, 0.0136689, -113.651
1, 3300.00000, 117.026, -31.2823, 116.56, -150.866, 118.219, 89.1464, 0, 0, 1.87734, -54.3562, 1.86901, -173.94, 1.89862, 66.0725, 0.0136689, -113.651
1, 3360.00000, 117.026, -31.2823, 116.56, -150.866, 118.219, 89.1464, 0, 0, 1.87734, -54.3562, 1.86901, -173.94, 1.89862, 66.0725, 0.0136689, -113.651
1, 3420.00000, 117.026, -31.2823, 116.56, -150.866, 118.219, 89.1464, 0, 0, 1.87734, -54.3562, 1.86901, -173.94, 1.89862, 66.0725, 0.0136689, -113.651
1, 3480.00000, 117.026, -31.2823, 116.56, -150.866, 118.219, 89.1464, 0, 0, 1.87734, -54.3562, 1.86901, -173.94, 1.89862, 66.0725, 0.0136689, -113.651
1, 3540.00000, 117.026, -31.2823, 116.56, -150.866, 118.219, 89.1464, 0, 0, 1.87734, -54.3562, 1.86901, -173.94, 1.89862, 66.0725, 0.0136689, -113.651
2, 0.00000, 117.026, -31.2823, 116.56, -150.866, 118.219, 89.1464, 0, 0, 1.87734, -54.3562, 1.86901, -173.94, 1.89862, 66.0725, 0.0136689, -113.651
2, 60.00000, 117.026, -31.2823, 116.56, -150.866, 118.219, 89.1464, 0, 0, 1.87734, -54.3562, 1.86901, -173.94, 1.89862, 66.0725, 0.0136689, -113.651
2, 120.00000, 117.026, -31.2823, 116.56, -150.866, 118.219, 89.1464, 0, 0, 1.87734, -54.3562, 1.86901, -173.94, 1.89862, 66.0725, 0.0136689, -113.651
2, 180.00000, 117.026, -31.2823, 116.56, -150.866, 118.219, 89.1464, 0, 0, 1.87734, -54.3562, 1.86901, -173.94, 1.89862, 66.0725, 0.0136689, -113.651
2, 240.00000, 117.026, -31.2823, 116.56, -150.866, 118.219, 89.1464, 0, 0, 1.87734, -54.3562, 1.86901, -173.94, 1.89862, 66.0725, 0.0136689, -113.651
2, 300.00000, 117.026, -31.2823, 116.56, -150.866, 118.219, 89.1464, 0, 0, 1.87734, -54.3562, 1.86901, -173.94, 1.89862, 66.0725, 0.0136689, -113.651
2, 360.00000, 117.026, -31.2823, 116.56, -150.866, 118.219, 89.1464, 0, 0, 1.87734, -54.3562, 1.86901, -173.94, 1.89862, 66.0725, 0.0136689, -113.651
2, 420.00000, 117.026, -31.2823, 116.56, -150.866, 118.219, 89.1464, 0, 0, 1.87734, -54.3562, 1.86901, -173.94, 1.89862, 66.0725, 0.0136689, -113.651
2, 480.00000, 117.026, -31.2823, 116.56, -150.866, 118.219, 89.1464, 0, 0, 1.87734, -54.3562, 1.86901, -173.94, 1.89862, 66.0725, 0.0136689, -113.651
2, 540.00000, 117.026, -31.2823, 116.56, -150.866, 118.219, 89.1464, 0, 0, 1.87734, -54.3562, 1.86901, -173.94, 1.89862, 66.0725, 0.0136689, -113.651
2, 600.00000, 117.026, -31.2823, 116.56, -150.866, 118.219, 89.1464, 0, 0, 1.87734, -54.3562, 1.86901, -173.94, 1.89862, 66.0725, 0.0136689, -113.651
2, 660.00000, 117.026, -31.2823, 116.56, -150.866, 118.219, 89.1464, 0, 0, 1.87734, -54.3562, 1.86901, -173.94, 1.89862, 66.0725, 0.0136689, -113.651
