hour,t(sec),"P1 (kW)","Q1 (kvar)","P2 (kW)","Q2 (kvar)","P3 (kW)","Q3 (kvar)","P4 (kW)","Q4 (kvar)"
0, 60.00000, 0.84072, 0.358147, 0.831791, 0.354331, 0.840782, 0.35816, 0, 0
0, 120.00000, 0.840722, 0.358147, 0.831784, 0.354329, 0.840777, 0.358159, 0, 0
0, 180.00000, 0.840724, 0.358148, 0.831777, 0.354327, 0.840773, 0.358158, 0, 0
0, 240.00000, 0.840726, 0.358148, 0.831771, 0.354325, 0.84077, 0.358157, 0, 0
0, 300.00000, 0.840727, 0.358149, 0.831766, 0.354324, 0.840767, 0.358157, 0, 0
0, 360.00000, 0.840728, 0.358149, 0.831761, 0.354322, 0.840764, 0.358157, 0, 0
0, 420.00000, 0.840729, 0.358149, 0.831757, 0.354321, 0.840762, 0.358156, 0, 0
0, 480.00000, 0.84073, 0.35815, 0.831753, 0.35432, 0.84076, 0.358156, 0, 0
0, 540.00000, 0.840731, 0.35815, 0.831749, 0.354319, 0.840758, 0.358156, 0, 0
0, 600.00000, 0.840732, 0.35815, 0.831746, 0.354318, 0.840756, 0.358155, 0, 0
0, 660.00000, 0.840733, 0.358151, 0.831743, 0.354317, 0.840754, 0.358155, 0, 0
0, 720.00000, 0.840733, 0.358151, 0.83174, 0.354317, 0.840753, 0.358155, 0, 0
0, 780.00000, 0.840734, 0.358151, 0.831738, 0.354316, 0.840751, 0.358155, 0, 0
0, 840.00000, 0.840734, 0.358151, 0.831736, 0.354315, 0.84075, 0.358155, 0, 0
0, 900.00000, 0.840735, 0.358152, 0.831734, 0.354315, 0.840749, 0.358155, 0, 0
0, 960.00000, 0.822774, 0.3505, 0.807521, 0.344001, 0.822785, 0.350502, 0, 0
0, 1020.00000, 0.822774, 0.3505, 0.80752, 0.344, 0.822785, 0.350503, 0, 0
0, 1080.00000, 0.822774, 0.3505, 0.807518, 0.344, 0.822784, 0.350502, 0, 0
0, 1140.00000, 0.822774, 0.3505, 0.807517, 0.343999, 0.822784, 0.350502, 0, 0
0, 1200.00000, 0.822775, 0.350501, 0.807516, 0.343999, 0.822783, 0.350502, 0, 0
0, 1260.00000, 0.822775, 0.350501, 0.807515, 0.343999, 0.822782, 0.350502, 0, 0
0, 1320.00000, 0.822775, 0.350501, 0.807514, 0.343998, 0.822782, 0.350502, 0, 0
0, 1380.00000, 0.822775, 0.350501, 0.807513, 0.343998, 0.822782, 0.350502, 0, 0
0, 1440.00000, 0.822776, 0.350501, 0.807512, 0.343998, 0.822781, 0.350502, 0, 0
0, 1500.00000, 0.822776, 0.350501, 0.807512, 0.343998, 0.822781, 0.350502, 0, 0
0, 1560.00000, 0.822776, 0.350501, 0.807511, 0.343998, 0.82278, 0.350502, 0, 0
0, 1620.00000, 0.822776, 0.350501, 0.807511, 0.343997, 0.82278, 0.350502, 0, 0
0, 1680.00000, 0.822776, 0.350501, 0.80751, 0.343997, 0.82278, 0.350502, 0, 0
0, 1740.00000, 0.822776, 0.350501, 0.80751, 0.343997, 0.82278, 0.350502, 0, 0
0, 1800.00000, 0.822776, 0.350501, 0.807509, 0.343997, 0.822779, 0.350502, 0, 0
0, 1860.00000, 0.777955, 0.331408, 0.765339, 0.326032, 0.777958, 0.331408, 0, 0
0, 1920.00000, 0.777955, 0.331408, 0.765339, 0.326032, 0.777958, 0.331408, 0, 0
0, 1980.00000, 0.777955, 0.331408, 0.765338, 0.326032, 0.777957, 0.331408, 0, 0
0, 2040.00000, 0.777956, 0.331408, 0.765338, 0.326032, 0.777957, 0.331408, 0, 0
0, 2100.00000, 0.777956, 0.331408, 0.765338, 0.326032, 0.777957, 0.331408, 0, 0
0, 2160.00000, 0.777956, 0.331408, 0.765338, 0.326032, 0.777957, 0.331408, 0, 0
0, 2220.00000, 0.777956, 0.331408, 0.765338, 0.326032, 0.777957, 0.331408, 0, 0
0, 2280.00000, 0.777956, 0.331408, 0.765337, 0.326032, 0.777957, 0.331408, 0, 0
0, 2340.00000, 0.777956, 0.331408, 0.765337, 0.326032, 0.777957, 0.331408, 0, 0
0, 2400.00000, 0.777956, 0.331408, 0.765337, 0.326032, 0.777957, 0.331408, 0, 0
0, 2460.00000, 0.777956, 0.331408, 0.765337, 0.326032, 0.777957, 0.331408, 0, 0
0, 2520.00000, 0.777956, 0.331408, 0.765337, 0.326032, 0.777957, 0.331408, 0, 0
0, 2580.00000, 0.777956, 0.331408, 0.765337, 0.326032, 0.777957, 0.331408, 0, 0
0, 2640.00000, 0.777956, 0.331408, 0.765337, 0.326032, 0.777957, 0.331408, 0, 0
0, 2700.00000, 0.777956, 0.331408, 0.765337, 0.326032, 0.777956, 0.331408, 0, 0
0, 2760.00000, 0.761487, 0.324392, 0.752581, 0.320598, 0.761489, 0.324393, 0, 0
0, 2820.00000, 0.761488, 0.324392, 0.75258, 0.320598, 0.761488, 0.324393, 0, 0
0, 2880.00000, 0.761488, 0.324392, 0.75258, 0.320598, 0.761488, 0.324393, 0, 0
0, 2940.00000, 0.761488, 0.324392, 0.75258, 0.320598, 0.761488, 0.324393, 0, 0
0, 3000.00000, 0.761488, 0.324392, 0.75258, 0.320598, 0.761488, 0.324393, 0, 0
0, 3060.00000, 0.761488, 0.324392, 0.75258, 0.320598, 0.761488, 0.324392, 0, 0
0, 3120.00000, 0.761488, 0.324392, 0.75258, 0.320598, 0.761488, 0.324392, 0, 0
0, 3180.00000, 0.761488, 0.324392, 0.75258, 0.320598, 0.761488, 0.324392, 0, 0
0, 3240.00000, 0.761488, 0.324392, 0.75258, 0.320598, 0.761488, 0.324392, 0, 0
0, 3300.00000, 0.761488, 0.324392, 0.75258, 0.320598, 0.761488, 0.324392, 0, 0
0, 3360.00000, 0.761488, 0.324392, 0.75258, 0.320598, 0.761488, 0.324392, 0, 0
0, 3420.00000, 0.761488, 0.324392, 0.75258, 0.320598, 0.761488, 0.324392, 0, 0
0, 3480.00000, 0.761488, 0.324392, 0.752535, 0.320578, 0.761489, 0.324393, 0, 0
0, 3540.00000, 0.761488, 0.324392, 0.756176, 0.322129, 0.761488, 0.324393, 0, 0
1, 0.00000, 0.761488, 0.324392, 0.756176, 0.322129, 0.761488, 0.324392, 0, 0
1, 60.00000, 0.698993, 0.29777, 0.69665, 0.296772, 0.698994, 0.29777, 0, 0
1, 120.00000, 0.698993, 0.29777, 0.69665, 0.296772, 0.698993, 0.29777, 0, 0
1, 180.00000, 0.698993, 0.29777, 0.69665, 0.296772, 0.698993, 0.29777, 0, 0
1, 240.00000, 0.698993, 0.29777, 0.69665, 0.296772, 0.698993, 0.29777, 0, 0
1, 300.00000, 0.698993, 0.29777, 0.69665, 0.296772, 0.698993, 0.29777, 0, 0
1, 360.00000, 0.698993, 0.29777, 0.69665, 0.296772, 0.698993, 0.29777, 0, 0
1, 420.00000, 0.698993, 0.29777, 0.69665, 0.296772, 0.698993, 0.29777, 0, 0
1, 480.00000, 0.698993, 0.29777, 0.69665, 0.296772, 0.698993, 0.29777, 0, 0
1, 540.00000, 0.698993, 0.29777, 0.69665, 0.296772, 0.698993, 0.29777, 0, 0
1, 600.00000, 0.698993, 0.29777, 0.698993, 0.29777, 0.698994, 0.29777, 0, 0
1, 660.00000, 0.698993, 0.29777, 0.698993, 0.29777, 0.698993, 0.29777, 0, 0
1, 720.00000, 0.698993, 0.29777, 0.698993, 0.29777, 0.698993, 0.29777, 0, 0
1, 780.00000, 0.698993, 0.29777, 0.698993, 0.29777, 0.698993, 0.29777, 0, 0
1, 840.00000, 0.698993, 0.29777, 0.698993, 0.29777, 0.698993, 0.29777, 0, 0
1, 900.00000, 0.698993, 0.29777, 0.698993, 0.29777, 0.698993, 0.29777, 0, 0
1, 960.00000, 0.706314, 0.300889, 0.706314, 0.300888, 0.706315, 0.300889, 0, 0
1, 1020.00000, 0.706314, 0.300889, 0.706314, 0.300889, 0.706314, 0.300889, 0, 0
1, 1080.00000, 0.706314, 0.300889, 0.706314, 0.300889, 0.706314, 0.300889, 0, 0
1, 1140.00000, 0.706314, 0.300889, 0.706314, 0.300889, 0.706314, 0.300889, 0, 0
1, 1200.00000, 0.706314, 0.300889, 0.706314, 0.300889, 0.706314, 0.300889, 0, 0
1, 1260.00000, 0.706314, 0.300889, 0.706314, 0.300889, 0.706314, 0.300889, 0, 0
1, 1320.00000, 0.706314, 0.300889, 0.706314, 0.300889, 0.706314, 0.300889, 0, 0
1, 1380.00000, 0.706314, 0.300889, 0.706314, 0.300889, 0.706314, 0.300889, 0, 0
1, 1440.00000, 0.706314, 0.300889, 0.706314, 0.300889, 0.706314, 0.300889, 0, 0
1, 1500.00000, 0.706314, 0.300889, 0.706314, 0.300889, 0.706314, 0.300889, 0, 0
1, 1560.00000, 0.706314, 0.300889, 0.706314, 0.300889, 0.706314, 0.300889, 0, 0
1, 1620.00000, 0.706314, 0.300889, 0.706314, 0.300889, 0.706314, 0.300889, 0, 0
1, 1680.00000, 0.706314, 0.300889, 0.706314, 0.300889, 0.706314, 0.300889, 0, 0
1, 1740.00000, 0.706314, 0.300889, 0.706314, 0.300889, 0.706314, 0.300889, 0, 0
1, 1800.00000, 0.706314, 0.300889, 0.706314, 0.300889, 0.706314, 0.300889, 0, 0
1, 1860.00000, 0.751454, 0.320118, 0.751454, 0.320118, 0.751454, 0.320118, 0, 0
1, 1920.00000, 0.751454, 0.320118, 0.751454, 0.320118, 0.751454, 0.320118, 0, 0
1, 1980.00000, 0.751454, 0.320118, 0.751454, 0.320118, 0.751454, 0.320118, 0, 0
1, 2040.00000, 0.751454, 0.320118, 0.751454, 0.320118, 0.751454, 0.320118, 0, 0
1, 2100.00000, 0.751454, 0.320118, 0.751454, 0.320118, 0.751454, 0.320118, 0, 0
1, 2160.00000, 0.751454, 0.320118, 0.751454, 0.320118, 0.751454, 0.320118, 0, 0
1, 2220.00000, 0.751454, 0.320118, 0.751454, 0.320118, 0.751454, 0.320118, 0, 0
1, 2280.00000, 0.751454, 0.320118, 0.751454, 0.320118, 0.751454, 0.320118, 0, 0
1, 2340.00000, 0.751454, 0.320118, 0.751454, 0.320118, 0.751454, 0.320118, 0, 0
1, 2400.00000, 0.751454, 0.320118, 0.751454, 0.320118, 0.751454, 0.320118, 0, 0
1, 2460.00000, 0.751454, 0.320118, 0.751454, 0.320118, 0.751454, 0.320118, 0, 0
1, 2520.00000, 0.751454, 0.320118, 0.751454, 0.320118, 0.751454, 0.320118, 0, 0
1, 2580.00000, 0.751454, 0.320118, 0.751454, 0.320118, 0.751454, 0.320118, 0, 0
1, 2640.00000, 0.751454, 0.320118, 0.751454, 0.320118, 0.751454, 0.320118, 0, 0
1, 2700.00000, 0.751454, 0.320118, 0.751454, 0.320118, 0.751454, 0.320118, 0, 0
1, 2760.00000, 0.709367, 0.302189, 0.709368, 0.302189, 0.709368, 0.30219, 0, 0
1, 2820.00000, 0.709367, 0.302189, 0.709367, 0.302189, 0.709367, 0.302189, 0, 0
1, 2880.00000, 0.709367, 0.302189, 0.709367, 0.302189, 0.709367, 0.302189, 0, 0
1, 2940.00000, 0.709367, 0.302189, 0.709367, 0.302189, 0.709367, 0.302189, 0, 0
1, 3000.00000, 0.709367, 0.302189, 0.709367, 0.302189, 0.709367, 0.302189, 0, 0
1, 3060.00000, 0.709367, 0.302189, 0.709367, 0.302189, 0.709367, 0.302189, 0, 0
1, 3120.00000, 0.709367, 0.302189, 0.709367, 0.302189, 0.709367, 0.302189, 0, 0
1, 3180.00000, 0.709367, 0.302189, 0.709367, 0.302189, 0.709367, 0.302189, 0, 0
1, 3240.00000, 0.709367, 0.302189, 0.709367, 0.302189, 0.709367, 0.302189, 0, 0
1, 3300.00000, 0.709367, 0.302189, 0.709367, 0.302189, 0.709367, 0.302189, 0, 0
1, 3360.00000, 0.709367, 0.302189, 0.709367, 0.302189, 0.709367, 0.302189, 0, 0
1, 3420.00000, 0.709367, 0.302189, 0.709367, 0.302189, 0.709367, 0.302189, 0, 0
1, 3480.00000, 0.709367, 0.302189, 0.709367, 0.302189, 0.709367, 0.302189, 0, 0
1, 3540.00000, 0.709367, 0.302189, 0.709367, 0.302189, 0.709367, 0.302189, 0, 0
2, 0.00000, 0.709367, 0.302189, 0.709367, 0.302189, 0.709367, 0.302189, 0, 0
2, 60.00000, 0.754874, 0.321575, 0.754874, 0.321575, 0.754874, 0.321575, 0, 0
2, 120.00000, 0.754874, 0.321575, 0.754874, 0.321575, 0.754874, 0.321575, 0, 0
2, 180.00000, 0.754874, 0.321575, 0.754874, 0.321575, 0.754874, 0.321575, 0, 0
2, 240.00000, 0.754874, 0.321575, 0.754874, 0.321575, 0.754874, 0.321575, 0, 0
2, 300.00000, 0.754874, 0.321575, 0.754874, 0.321575, 0.754874, 0.321575, 0, 0
2, 360.00000, 0.754874, 0.321575, 0.754874, 0.321575, 0.754874, 0.321575, 0, 0
2, 420.00000, 0.754874, 0.321575, 0.754874, 0.321575, 0.754874, 0.321575, 0, 0
2, 480.00000, 0.754874, 0.321575, 0.754874, 0.321575, 0.754874, 0.321575, 0, 0
2, 540.00000, 0.754874, 0.321575, 0.754874, 0.321575, 0.754874, 0.321575, 0, 0
2, 600.00000, 0.754874, 0.321575, 0.754874, 0.321575, 0.754874, 0.321575, 0, 0
2, 660.00000, 0.754874, 0.321575, 0.754874, 0.321575, 0.754874, 0.321575, 0, 0
2, 720.00000, 0.754874, 0.321575, 0.754874, 0.321575, 0.754874, 0.321575, 0, 0
2, 780.00000, 0.754874, 0.321575, 0.754874, 0.321575, 0.754874, 0.321575, 0, 0
2, 840.00000, 0.754874, 0.321575, 0.754874, 0.321575, 0.754874, 0.321575, 0, 0
2, 900.00000, 0.754874, 0.321575, 0.754874, 0.321575, 0.754874, 0.321575, 0, 0
2, 960.00000, 0.725626, 0.309116, 0.725626, 0.309115, 0.725627, 0.309116, 0, 0
2, 1020.00000, 0.725626, 0.309116, 0.725626, 0.309116, 0.725626, 0.309116, 0, 0
2, 1080.00000, 0.725626, 0.309116, 0.725626, 0.309116, 0.725626, 0.309116, 0, 0
2, 1140.00000, 0.725626, 0.309116, 0.725626, 0.309116, 0.725626, 0.309116, 0, 0
2, 1200.00000, 0.725626, 0.309116, 0.725626, 0.309116, 0.725626, 0.309116, 0, 0
2, 1260.00000, 0.725626, 0.309116, 0.725626, 0.309116, 0.725626, 0.309116, 0, 0
2, 1320.00000, 0.725626, 0.309116, 0.725626, 0.309116, 0.725626, 0.309116, 0, 0
2, 1380.00000, 0.725626, 0.309116, 0.725626, 0.309116, 0.725626, 0.309116, 0, 0
2, 1440.00000, 0.725626, 0.309116, 0.725626, 0.309116, 0.725626, 0.309116, 0, 0
2, 1500.00000, 0.725626, 0.309116, 0.725626, 0.309116, 0.725626, 0.309116, 0, 0
2, 1560.00000, 0.725626, 0.309116, 0.725626, 0.309116, 0.725626, 0.309116, 0, 0
2, 1620.00000, 0.725626, 0.309116, 0.725626, 0.309116, 0.725626, 0.309116, 0, 0
2, 1680.00000, 0.725626, 0.309116, 0.725626, 0.309116, 0.725626, 0.309116, 0, 0
2, 1740.00000, 0.725626, 0.309116, 0.725626, 0.309116, 0.725626, 0.309116, 0, 0
2, 1800.00000, 0.725626, 0.309116, 0.725626, 0.309116, 0.725626, 0.309116, 0, 0
2, 1860.00000, 0.774879, 0.330097, 0.774879, 0.330097, 0.774879, 0.330097, 0, 0
2, 1920.00000, 0.774879, 0.330097, 0.774879, 0.330097, 0.774879, 0.330097, 0, 0
2, 1980.00000, 0.774879, 0.330097, 0.774879, 0.330097, 0.774879, 0.330097, 0, 0
2, 2040.00000, 0.774879, 0.330097, 0.774879, 0.330097, 0.774879, 0.330097, 0, 0
2, 2100.00000, 0.774879, 0.330097, 0.774879, 0.330097, 0.774879, 0.330097, 0, 0
2, 2160.00000, 0.774879, 0.330097, 0.774879, 0.330097, 0.774879, 0.330097, 0, 0
2, 2220.00000, 0.774879, 0.330097, 0.774879, 0.330097, 0.774879, 0.330097, 0, 0
2, 2280.00000, 0.774879, 0.330097, 0.774879, 0.330097, 0.774879, 0.330097, 0, 0
2, 2340.00000, 0.774879, 0.330097, 0.774879, 0.330097, 0.774879, 0.330097, 0, 0
2, 2400.00000, 0.774879, 0.330097, 0.774879, 0.330097, 0.774879, 0.330097, 0, 0
2, 2460.00000, 0.774879, 0.330097, 0.774879, 0.330097, 0.774879, 0.330097, 0, 0
2, 2520.00000, 0.774879, 0.330097, 0.774879, 0.330097, 0.774879, 0.330097, 0, 0
2, 2580.00000, 0.774879, 0.330097, 0.774879, 0.330097, 0.774879, 0.330097, 0, 0
2, 2640.00000, 0.774879, 0.330097, 0.774879, 0.330097, 0.774879, 0.330097, 0, 0
2, 2700.00000, 0.774879, 0.330097, 0.774879, 0.330097, 0.774879, 0.330097, 0, 0
2, 2760.00000, 0.715296, 0.304715, 0.715296, 0.304715, 0.715297, 0.304715, 0, 0
2, 2820.00000, 0.715296, 0.304715, 0.715296, 0.304715, 0.715296, 0.304715, 0, 0
2, 2880.00000, 0.715296, 0.304715, 0.715296, 0.304715, 0.715296, 0.304715, 0, 0
2, 2940.00000, 0.715296, 0.304715, 0.715296, 0.304715, 0.715296, 0.304715, 0, 0
2, 3000.00000, 0.715296, 0.304715, 0.715296, 0.304715, 0.715296, 0.304715, 0, 0
2, 3060.00000, 0.715296, 0.304715, 0.715296, 0.304715, 0.715296, 0.304715, 0, 0
2, 3120.00000, 0.715296, 0.304715, 0.715296, 0.304715, 0.715296, 0.304715, 0, 0
2, 3180.00000, 0.715296, 0.304715, 0.715296, 0.304715, 0.715296, 0.304715, 0, 0
2, 3240.00000, 0.715296, 0.304715, 0.715296, 0.304715, 0.715296, 0.304715, 0, 0
2, 3300.00000, 0.715296, 0.304715, 0.715296, 0.304715, 0.715296, 0.304715, 0, 0
2, 3360.00000, 0.715296, 0.304715, 0.715296, 0.304715, 0.715296, 0.304715, 0, 0
2, 3420.00000, 0.715296, 0.304715, 0.715296, 0.304715, 0.715296, 0.304715, 0, 0
2, 3480.00000, 0.715296, 0.304715, 0.715296, 0.304715, 0.715296, 0.304715, 0, 0
2, 3540.00000, 0.715296, 0.304715, 0.715296, 0.304715, 0.715296, 0.304715, 0, 0
3, 0.00000, 0.715296, 0.304715, 0.715296, 0.304715, 0.715296, 0.304715, 0, 0
3, 60.00000, 0.766085, 0.326351, 0.766084, 0.326351, 0.766084, 0.32635, 0, 0
3, 120.00000, 0.766084, 0.326351, 0.766084, 0.326351, 0.766084, 0.326351, 0, 0
3, 180.00000, 0.766084, 0.326351, 0.766084, 0.326351, 0.766084, 0.326351, 0, 0
3, 240.00000, 0.766084, 0.326351, 0.766084, 0.326351, 0.766084, 0.326351, 0, 0
3, 300.00000, 0.766084, 0.326351, 0.766084, 0.326351, 0.766084, 0.326351, 0, 0
3, 360.00000, 0.766084, 0.326351, 0.766084, 0.326351, 0.766084, 0.326351, 0, 0
3, 420.00000, 0.766084, 0.326351, 0.766084, 0.326351, 0.766084, 0.326351, 0, 0
3, 480.00000, 0.766084, 0.326351, 0.766084, 0.326351, 0.766084, 0.326351, 0, 0
3, 540.00000, 0.766084, 0.326351, 0.766084, 0.326351, 0.766084, 0.326351, 0, 0
3, 600.00000, 0.766084, 0.326351, 0.766084, 0.326351, 0.766084, 0.326351, 0, 0
3, 660.00000, 0.766084, 0.326351, 0.766084, 0.326351, 0.766084, 0.326351, 0, 0
3, 720.00000, 0.766084, 0.326351, 0.766084, 0.326351, 0.766084, 0.326351, 0, 0
3, 780.00000, 0.766084, 0.326351, 0.766084, 0.326351, 0.766084, 0.326351, 0, 0
3, 840.00000, 0.766084, 0.326351, 0.766084, 0.326351, 0.766084, 0.326351, 0, 0
3, 900.00000, 0.766084, 0.326351, 0.766084, 0.326351, 0.766084, 0.326351, 0, 0
3, 960.00000, 0.707661, 0.301462, 0.707661, 0.301462, 0.707661, 0.301462, 0, 0
3, 1020.00000, 0.707661, 0.301462, 0.707661, 0.301462, 0.707661, 0.301462, 0, 0
3, 1080.00000, 0.707661, 0.301462, 0.707661, 0.301462, 0.707661, 0.301462, 0, 0
3, 1140.00000, 0.707661, 0.301462, 0.707661, 0.301462, 0.707661, 0.301462, 0, 0
3, 1200.00000, 0.707661, 0.301462, 0.707661, 0.301462, 0.707661, 0.301462, 0, 0
3, 1260.00000, 0.707661, 0.301462, 0.707661, 0.301462, 0.707661, 0.301462, 0, 0
3, 1320.00000, 0.707661, 0.301462, 0.707661, 0.301462, 0.707661, 0.301462, 0, 0
3, 1380.00000, 0.707661, 0.301462, 0.707661, 0.301462, 0.707661, 0.301462, 0, 0
3, 1440.00000, 0.707661, 0.301462, 0.707661, 0.301462, 0.707661, 0.301462, 0, 0
3, 1500.00000, 0.707661, 0.301462, 0.707661, 0.301462, 0.707661, 0.301462, 0, 0
3, 1560.00000, 0.707661, 0.301462, 0.707661, 0.301462, 0.707661, 0.301462, 0, 0
3, 1620.00000, 0.707661, 0.301462, 0.707661, 0.301462, 0.707661, 0.301462, 0, 0
3, 1680.00000, 0.707661, 0.301462, 0.707661, 0.301462, 0.707661, 0.301462, 0, 0
3, 1740.00000, 0.707661, 0.301462, 0.707661, 0.301462, 0.707661, 0.301462, 0, 0
3, 1800.00000, 0.707661, 0.301462, 0.707661, 0.301462, 0.707661, 0.301462, 0, 0
3, 1860.00000, 0.659414, 0.280909, 0.659414, 0.280909, 0.659414, 0.280909, 0, 0
3, 1920.00000, 0.659414, 0.280909, 0.659414, 0.280909, 0.659414, 0.280909, 0, 0
3, 1980.00000, 0.659414, 0.280909, 0.659414, 0.280909, 0.659414, 0.280909, 0, 0
3, 2040.00000, 0.659414, 0.280909, 0.659414, 0.280909, 0.659414, 0.280909, 0, 0
3, 2100.00000, 0.659414, 0.280909, 0.659414, 0.280909, 0.659414, 0.280909, 0, 0
3, 2160.00000, 0.659414, 0.280909, 0.659414, 0.280909, 0.659414, 0.280909, 0, 0
3, 2220.00000, 0.659414, 0.280909, 0.659414, 0.280909, 0.659414, 0.280909, 0, 0
3, 2280.00000, 0.659414, 0.280909, 0.659414, 0.280909, 0.659414, 0.280909, 0, 0
3, 2340.00000, 0.659414, 0.280909, 0.659414, 0.280909, 0.659414, 0.280909, 0, 0
3, 2400.00000, 0.659414, 0.280909, 0.659414, 0.280909, 0.659414, 0.280909, 0, 0
3, 2460.00000, 0.659414, 0.280909, 0.659414, 0.280909, 0.659414, 0.280909, 0, 0
3, 2520.00000, 0.659414, 0.280909, 0.659414, 0.280909, 0.659414, 0.280909, 0, 0
3, 2580.00000, 0.659414, 0.280909, 0.659414, 0.280909, 0.659414, 0.280909, 0, 0
3, 2640.00000, 0.659414, 0.280909, 0.659414, 0.280909, 0.659414, 0.280909, 0, 0
3, 2700.00000, 0.659414, 0.280909, 0.659414, 0.280909, 0.659414, 0.280909, 0, 0
3, 2760.00000, 0.69503, 0.296081, 0.69503, 0.296082, 0.69503, 0.296082, 0, 0
3, 2820.00000, 0.69503, 0.296082, 0.69503, 0.296082, 0.69503, 0.296082, 0, 0
3, 2880.00000, 0.69503, 0.296082, 0.69503, 0.296082, 0.69503, 0.296082, 0, 0
3, 2940.00000, 0.69503, 0.296082, 0.69503, 0.296082, 0.69503, 0.296082, 0, 0
3, 3000.00000, 0.69503, 0.296082, 0.69503, 0.296082, 0.69503, 0.296082, 0, 0
3, 3060.00000, 0.69503, 0.296082, 0.69503, 0.296082, 0.69503, 0.296082, 0, 0
3, 3120.00000, 0.69503, 0.296082, 0.69503, 0.296082, 0.69503, 0.296082, 0, 0
3, 3180.00000, 0.69503, 0.296082, 0.69503, 0.296082, 0.69503, 0.296082, 0, 0
3, 3240.00000, 0.69503, 0.296082, 0.69503, 0.296082, 0.69503, 0.296082, 0, 0
3, 3300.00000, 0.69503, 0.296082, 0.69503, 0.296082, 0.69503, 0.296082, 0, 0
3, 3360.00000, 0.69503, 0.296082, 0.69503, 0.296082, 0.69503, 0.296082, 0, 0
3, 3420.00000, 0.69503, 0.296082, 0.69503, 0.296082, 0.69503, 0.296082, 0, 0
3, 3480.00000, 0.69503, 0.296082, 0.69503, 0.296082, 0.69503, 0.296082, 0, 0
3, 3540.00000, 0.69503, 0.296082, 0.69503, 0.296082, 0.69503, 0.296082, 0, 0
4, 0.00000, 0.69503, 0.296082, 0.69503, 0.296082, 0.69503, 0.296082, 0, 0
4, 60.00000, 0.653284, 0.278298, 0.653284, 0.278298, 0.653284, 0.278298, 0, 0
4, 120.00000, 0.653284, 0.278298, 0.653284, 0.278298, 0.653284, 0.278298, 0, 0
4, 180.00000, 0.653284, 0.278298, 0.653284, 0.278298, 0.653284, 0.278298, 0, 0
4, 240.00000, 0.653284, 0.278298, 0.653284, 0.278298, 0.653284, 0.278298, 0, 0
4, 300.00000, 0.653284, 0.278298, 0.653284, 0.278298, 0.653284, 0.278298, 0, 0
4, 360.00000, 0.653284, 0.278298, 0.653284, 0.278298, 0.653284, 0.278298, 0, 0
4, 420.00000, 0.653284, 0.278298, 0.653284, 0.278298, 0.653284, 0.278298, 0, 0
4, 480.00000, 0.653284, 0.278298, 0.653284, 0.278298, 0.653284, 0.278298, 0, 0
4, 540.00000, 0.653284, 0.278298, 0.653284, 0.278298, 0.653284, 0.278298, 0, 0
4, 600.00000, 0.653284, 0.278298, 0.653284, 0.278298, 0.653284, 0.278298, 0, 0
4, 660.00000, 0.653284, 0.278298, 0.653284, 0.278298, 0.653284, 0.278298, 0, 0
