hour,t(sec),"P1 (kW)","Q1 (kvar)","P2 (kW)","Q2 (kvar)","P3 (kW)","Q3 (kvar)","P4 (kW)","Q4 (kvar)"
0, 60.00000, 0.145245, 0.0618744, 0.145586, 0.0620175, 0.152518, 0.0649713, 0, 0
0, 120.00000, 0.145247, 0.0618752, 0.145585, 0.0620173, 0.152518, 0.064971, 0, 0
0, 180.00000, 0.145249, 0.061876, 0.145584, 0.0620171, 0.152517, 0.0649708, 0, 0
0, 240.00000, 0.145251, 0.0618767, 0.145583, 0.0620169, 0.152516, 0.0649706, 0, 0
0, 300.00000, 0.145252, 0.0618773, 0.145582, 0.0620167, 0.152516, 0.0649704, 0, 0
0, 360.00000, 0.145253, 0.0618778, 0.145582, 0.0620166, 0.152515, 0.0649703, 0, 0
0, 420.00000, 0.145255, 0.0618783, 0.145581, 0.0620165, 0.152515, 0.0649702, 0, 0
0, 480.00000, 0.164622, 0.0701284, 0.164892, 0.0702427, 0.170198, 0.0725033, 0, 0
0, 540.00000, 0.164623, 0.0701289, 0.164891, 0.0702426, 0.170198, 0.0725031, 0, 0
0, 600.00000, 0.164624, 0.0701293, 0.164891, 0.0702425, 0.170197, 0.072503, 0, 0
0, 660.00000, 0.164625, 0.0701297, 0.16489, 0.0702424, 0.170197, 0.072503, 0, 0
0, 720.00000, 0.164626, 0.0701301, 0.16489, 0.0702423, 0.170197, 0.0725029, 0, 0
0, 780.00000, 0.164626, 0.0701304, 0.16489, 0.0702422, 0.170197, 0.0725028, 0, 0
0, 840.00000, 0.164627, 0.0701307, 0.164889, 0.0702422, 0.170196, 0.0725028, 0, 0
0, 900.00000, 0.164628, 0.070131, 0.164889, 0.0702421, 0.170196, 0.0725028, 0, 0
0, 960.00000, 0.164628, 0.0701312, 0.164889, 0.0702421, 0.170196, 0.0725027, 0, 0
0, 1020.00000, 0.164629, 0.0701314, 0.164889, 0.070242, 0.170196, 0.0725027, 0, 0
0, 1080.00000, 0.164629, 0.0701316, 0.164889, 0.070242, 0.170196, 0.0725027, 0, 0
0, 1140.00000, 0.164629, 0.0701317, 0.164888, 0.0702419, 0.170195, 0.0725026, 0, 0
0, 1200.00000, 0.16463, 0.0701319, 0.164888, 0.0702419, 0.170195, 0.0725026, 0, 0
0, 1260.00000, 0.16463, 0.070132, 0.164888, 0.0702419, 0.170195, 0.0725026, 0, 0
0, 1320.00000, 0.16463, 0.0701321, 0.164888, 0.0702418, 0.170195, 0.0725026, 0, 0
0, 1380.00000, 0.16463, 0.0701322, 0.164888, 0.0702418, 0.170195, 0.0725026, 0, 0
0, 1440.00000, 0.164631, 0.0701323, 0.164888, 0.0702418, 0.170195, 0.0725025, 0, 0
0, 1500.00000, 0.164631, 0.0701324, 0.164888, 0.0702418, 0.170195, 0.0725025, 0, 0
0, 1560.00000, 0.164631, 0.0701325, 0.164888, 0.0702417, 0.170195, 0.0725025, 0, 0
0, 1620.00000, 0.164631, 0.0701326, 0.164888, 0.0702417, 0.170195, 0.0725025, 0, 0
0, 1680.00000, 0.164631, 0.0701326, 0.164888, 0.0702417, 0.170195, 0.0725025, 0, 0
0, 1740.00000, 0.164631, 0.0701327, 0.164888, 0.0702417, 0.170195, 0.0725025, 0, 0
0, 1800.00000, 0.164632, 0.0701327, 0.164887, 0.0702417, 0.170195, 0.0725025, 0, 0
0, 1860.00000, 0.164632, 0.0701328, 0.164887, 0.0702417, 0.170195, 0.0725025, 0, 0
0, 1920.00000, 0.164632, 0.0701328, 0.164887, 0.0702417, 0.170195, 0.0725025, 0, 0
0, 1980.00000, 0.164632, 0.0701328, 0.164887, 0.0702417, 0.170194, 0.0725025, 0, 0
0, 2040.00000, 0.164632, 0.0701329, 0.164887, 0.0702417, 0.170194, 0.0725025, 0, 0
0, 2100.00000, 0.164632, 0.0701329, 0.164887, 0.0702416, 0.170194, 0.0725025, 0, 0
0, 2160.00000, 0.164632, 0.0701329, 0.164887, 0.0702416, 0.170194, 0.0725025, 0, 0
0, 2220.00000, 0.164632, 0.070133, 0.164887, 0.0702416, 0.170194, 0.0725024, 0, 0
0, 2280.00000, 0.164632, 0.070133, 0.164887, 0.0702416, 0.170194, 0.0725024, 0, 0
0, 2340.00000, 0.164632, 0.070133, 0.164887, 0.0702416, 0.170194, 0.0725024, 0, 0
0, 2400.00000, 0.164632, 0.070133, 0.164887, 0.0702416, 0.170194, 0.0725024, 0, 0
0, 2460.00000, 0.164632, 0.070133, 0.164887, 0.0702416, 0.170194, 0.0725024, 0, 0
0, 2520.00000, 0.164632, 0.070133, 0.164887, 0.0702416, 0.170194, 0.0725024, 0, 0
0, 2580.00000, 0.164632, 0.0701331, 0.164887, 0.0702416, 0.170194, 0.0725024, 0, 0
0, 2640.00000, 0.164632, 0.0701331, 0.164887, 0.0702416, 0.170194, 0.0725024, 0, 0
0, 2700.00000, 0.164632, 0.0701331, 0.164887, 0.0702416, 0.170194, 0.0725024, 0, 0
0, 2760.00000, 0.164632, 0.0701331, 0.164887, 0.0702416, 0.170194, 0.0725024, 0, 0
0, 2820.00000, 0.164632, 0.0701331, 0.164887, 0.0702416, 0.170194, 0.0725024, 0, 0
0, 2880.00000, 0.164632, 0.0701331, 0.164887, 0.0702416, 0.170194, 0.0725024, 0, 0
0, 2940.00000, 0.164632, 0.0701331, 0.164887, 0.0702416, 0.170194, 0.0725024, 0, 0
0, 3000.00000, 0.164632, 0.0701331, 0.164887, 0.0702416, 0.170194, 0.0725024, 0, 0
0, 3060.00000, 0.164632, 0.0701331, 0.164887, 0.0702416, 0.170194, 0.0725024, 0, 0
0, 3120.00000, 0.164632, 0.0701331, 0.164887, 0.0702416, 0.170194, 0.0725024, 0, 0
0, 3180.00000, 0.164632, 0.0701331, 0.164887, 0.0702416, 0.170194, 0.0725024, 0, 0
0, 3240.00000, 0.164632, 0.0701331, 0.164887, 0.0702416, 0.170194, 0.0725024, 0, 0
0, 3300.00000, 0.164632, 0.0701331, 0.164887, 0.0702416, 0.170194, 0.0725024, 0, 0
0, 3360.00000, 0.164632, 0.0701331, 0.164887, 0.0702416, 0.170194, 0.0725024, 0, 0
0, 3420.00000, 0.164632, 0.0701331, 0.164887, 0.0702416, 0.170194, 0.0725024, 0, 0
0, 3480.00000, 0.164632, 0.0701331, 0.164887, 0.0702416, 0.170194, 0.0725024, 0, 0
0, 3540.00000, 0.164632, 0.0701331, 0.164887, 0.0702416, 0.170194, 0.0725024, 0, 0
1, 0.00000, 0.164632, 0.0701331, 0.164887, 0.0702416, 0.170194, 0.0725024, 0, 0
1, 60.00000, 0.16517, 0.0703621, 0.166032, 0.0707294, 0.170194, 0.0725024, 0, 0
1, 120.00000, 0.16517, 0.0703621, 0.166032, 0.0707294, 0.170194, 0.0725024, 0, 0
1, 180.00000, 0.16517, 0.0703621, 0.166032, 0.0707294, 0.170194, 0.0725024, 0, 0
1, 240.00000, 0.16517, 0.0703621, 0.166032, 0.0707294, 0.170194, 0.0725024, 0, 0
1, 300.00000, 0.16517, 0.0703621, 0.166032, 0.0707294, 0.170194, 0.0725024, 0, 0
1, 360.00000, 0.16517, 0.0703621, 0.166032, 0.0707294, 0.170194, 0.0725024, 0, 0
1, 420.00000, 0.16517, 0.0703621, 0.166032, 0.0707294, 0.170194, 0.0725024, 0, 0
1, 480.00000, 0.16517, 0.0703621, 0.166032, 0.0707294, 0.170194, 0.0725024, 0, 0
1, 540.00000, 0.16517, 0.0703621, 0.166032, 0.0707294, 0.170194, 0.0725024, 0, 0
1, 600.00000, 0.16517, 0.0703621, 0.166032, 0.0707294, 0.170194, 0.0725024, 0, 0
1, 660.00000, 0.16517, 0.0703621, 0.166032, 0.0707294, 0.170194, 0.0725024, 0, 0
1, 720.00000, 0.16517, 0.0703621, 0.166032, 0.0707294, 0.170194, 0.0725024, 0, 0
1, 780.00000, 0.16517, 0.0703621, 0.166032, 0.0707294, 0.170194, 0.0725024, 0, 0
1, 840.00000, 0.16517, 0.0703621, 0.166032, 0.0707294, 0.170194, 0.0725024, 0, 0
1, 900.00000, 0.16517, 0.0703621, 0.166032, 0.0707294, 0.170194, 0.0725024, 0, 0
1, 960.00000, 0.16517, 0.0703621, 0.166032, 0.0707294, 0.170194, 0.0725024, 0, 0
1, 1020.00000, 0.16517, 0.0703621, 0.166032, 0.0707294, 0.170194, 0.0725024, 0, 0
1, 1080.00000, 0.16517, 0.0703621, 0.166032, 0.0707294, 0.170194, 0.0725024, 0, 0
1, 1140.00000, 0.16517, 0.0703621, 0.166032, 0.0707294, 0.170194, 0.0725024, 0, 0
1, 1200.00000, 0.16517, 0.0703621, 0.166032, 0.0707294, 0.170194, 0.0725024, 0, 0
1, 1260.00000, 0.16517, 0.0703621, 0.166032, 0.0707294, 0.170194, 0.0725024, 0, 0
1, 1320.00000, 0.16517, 0.0703621, 0.166032, 0.0707294, 0.170194, 0.0725024, 0, 0
1, 1380.00000, 0.16517, 0.0703621, 0.166032, 0.0707294, 0.170194, 0.0725024, 0, 0
1, 1440.00000, 0.16517, 0.0703621, 0.166032, 0.0707294, 0.170194, 0.0725024, 0, 0
1, 1500.00000, 0.16517, 0.0703621, 0.166032, 0.0707294, 0.170194, 0.0725024, 0, 0
1, 1560.00000, 0.16517, 0.0703621, 0.166032, 0.0707294, 0.170194, 0.0725024, 0, 0
1, 1620.00000, 0.16517, 0.0703621, 0.166032, 0.0707294, 0.170194, 0.0725024, 0, 0
1, 1680.00000, 0.16517, 0.0703621, 0.166032, 0.0707294, 0.170194, 0.0725024, 0, 0
1, 1740.00000, 0.16517, 0.0703621, 0.166032, 0.0707294, 0.170194, 0.0725024, 0, 0
1, 1800.00000, 0.16517, 0.0703621, 0.166032, 0.0707294, 0.170194, 0.0725024, 0, 0
1, 1860.00000, 0.16517, 0.0703621, 0.166032, 0.0707294, 0.170194, 0.0725024, 0, 0
1, 1920.00000, 0.16517, 0.0703621, 0.166032, 0.0707294, 0.170194, 0.0725024, 0, 0
1, 1980.00000, 0.16517, 0.0703621, 0.166032, 0.0707294, 0.170194, 0.0725024, 0, 0
1, 2040.00000, 0.16517, 0.0703621, 0.166032, 0.0707294, 0.170194, 0.0725024, 0, 0
1, 2100.00000, 0.16517, 0.0703621, 0.166032, 0.0707294, 0.170194, 0.0725024, 0, 0
1, 2160.00000, 0.16517, 0.0703621, 0.166032, 0.0707294, 0.170194, 0.0725024, 0, 0
1, 2220.00000, 0.16517, 0.0703621, 0.166032, 0.0707294, 0.170194, 0.0725024, 0, 0
1, 2280.00000, 0.16517, 0.0703621, 0.166032, 0.0707294, 0.170194, 0.0725024, 0, 0
1, 2340.00000, 0.16517, 0.0703621, 0.166032, 0.0707294, 0.170194, 0.0725024, 0, 0
1, 2400.00000, 0.16517, 0.0703621, 0.166032, 0.0707294, 0.170194, 0.0725024, 0, 0
1, 2460.00000, 0.16517, 0.0703621, 0.166032, 0.0707294, 0.170194, 0.0725024, 0, 0
1, 2520.00000, 0.16517, 0.0703621, 0.166032, 0.0707294, 0.170194, 0.0725024, 0, 0
1, 2580.00000, 0.16517, 0.0703621, 0.166032, 0.0707294, 0.170194, 0.0725024, 0, 0
1, 2640.00000, 0.16517, 0.0703621, 0.166032, 0.0707294, 0.170194, 0.0725024, 0, 0
1, 2700.00000, 0.16517, 0.0703621, 0.166032, 0.0707294, 0.170194, 0.0725024, 0, 0
1, 2760.00000, 0.16517, 0.0703621, 0.166032, 0.0707294, 0.170194, 0.0725024, 0, 0
1, 2820.00000, 0.16517, 0.0703621, 0.166032, 0.0707294, 0.170194, 0.0725024, 0, 0
1, 2880.00000, 0.16517, 0.0703621, 0.166032, 0.0707294, 0.170194, 0.0725024, 0, 0
1, 2940.00000, 0.16517, 0.0703621, 0.166032, 0.0707294, 0.170194, 0.0725024, 0, 0
1, 3000.00000, 0.16517, 0.0703621, 0.166032, 0.0707294, 0.170194, 0.0725024, 0, 0
1, 3060.00000, 0.16517, 0.0703621, 0.166032, 0.0707294, 0.170194, 0.0725024, 0, 0
1, 3120.00000, 0.16517, 0.0703621, 0.166032, 0.0707294, 0.170194, 0.0725024, 0, 0
1, 3180.00000, 0.16517, 0.0703621, 0.166032, 0.0707294, 0.170194, 0.0725024, 0, 0
1, 3240.00000, 0.16517, 0.0703621, 0.166032, 0.0707294, 0.170194, 0.0725024, 0, 0
1, 3300.00000, 0.16517, 0.0703621, 0.166032, 0.0707294, 0.170194, 0.0725024, 0, 0
1, 3360.00000, 0.16517, 0.0703621, 0.166032, 0.0707294, 0.170194, 0.0725024, 0, 0
1, 3420.00000, 0.16517, 0.0703621, 0.166032, 0.0707294, 0.170194, 0.0725024, 0, 0
1, 3480.00000, 0.16517, 0.0703621, 0.166032, 0.0707294, 0.170194, 0.0725024, 0, 0
1, 3540.00000, 0.16517, 0.0703621, 0.166032, 0.0707294, 0.170194, 0.0725024, 0, 0
2, 0.00000, 0.16517, 0.0703621, 0.166032, 0.0707294, 0.170194, 0.0725024, 0, 0
2, 60.00000, 0.16517, 0.0703621, 0.166032, 0.0707294, 0.170194, 0.0725024, 0, 0
2, 120.00000, 0.16517, 0.0703621, 0.166032, 0.0707294, 0.170194, 0.0725024, 0, 0
2, 180.00000, 0.16517, 0.0703621, 0.166032, 0.0707294, 0.170194, 0.0725024, 0, 0
2, 240.00000, 0.16517, 0.0703621, 0.166032, 0.0707294, 0.170194, 0.0725024, 0, 0
2, 300.00000, 0.16517, 0.0703621, 0.166032, 0.0707294, 0.170194, 0.0725024, 0, 0
2, 360.00000, 0.16517, 0.0703621, 0.166032, 0.0707294, 0.170194, 0.0725024, 0, 0
2, 420.00000, 0.16517, 0.0703621, 0.166032, 0.0707294, 0.170194, 0.0725024, 0, 0
2, 480.00000, 0.16517, 0.0703621, 0.166032, 0.0707294, 0.170194, 0.0725024, 0, 0
2, 540.00000, 0.16517, 0.0703621, 0.166032, 0.0707294, 0.170194, 0.0725024, 0, 0
2, 600.00000, 0.16517, 0.0703621, 0.166032, 0.0707294, 0.170194, 0.0725024, 0, 0
2, 660.00000, 0.16517, 0.0703621, 0.166032, 0.0707294, 0.170194, 0.0725024, 0, 0
2, 720.00000, 0.16517, 0.0703621, 0.166032, 0.0707294, 0.170194, 0.0725024, 0, 0
2, 780.00000, 0.16517, 0.0703621, 0.166032, 0.0707294, 0.170194, 0.0725024, 0, 0
2, 840.00000, 0.16517, 0.0703621, 0.166032, 0.0707294, 0.170194, 0.0725024, 0, 0
2, 900.00000, 0.16517, 0.0703621, 0.166032, 0.0707294, 0.170194, 0.0725024, 0, 0
2, 960.00000, 0.16517, 0.0703621, 0.166032, 0.0707294, 0.170194, 0.0725024, 0, 0
2, 1020.00000, 0.16517, 0.0703621, 0.166032, 0.0707294, 0.170194, 0.0725024, 0, 0
2, 1080.00000, 0.16517, 0.0703621, 0.166032, 0.0707294, 0.170194, 0.0725024, 0, 0
2, 1140.00000, 0.16517, 0.0703621, 0.166032, 0.0707294, 0.170194, 0.0725024, 0, 0
2, 1200.00000, 0.16517, 0.0703621, 0.166032, 0.0707294, 0.170194, 0.0725024, 0, 0
2, 1260.00000, 0.16517, 0.0703621, 0.166032, 0.0707294, 0.170194, 0.0725024, 0, 0
2, 1320.00000, 0.16517, 0.0703621, 0.166032, 0.0707294, 0.170194, 0.0725024, 0, 0
2, 1380.00000, 0.16517, 0.0703621, 0.166032, 0.0707294, 0.170194, 0.0725024, 0, 0
2, 1440.00000, 0.16517, 0.0703621, 0.166032, 0.0707294, 0.170194, 0.0725024, 0, 0
2, 1500.00000, 0.16517, 0.0703621, 0.166032, 0.0707294, 0.170194, 0.0725024, 0, 0
2, 1560.00000, 0.16517, 0.0703621, 0.166032, 0.0707294, 0.170194, 0.0725024, 0, 0
2, 1620.00000, 0.16517, 0.0703621, 0.166032, 0.0707294, 0.170194, 0.0725024, 0, 0
2, 1680.00000, 0.16517, 0.0703621, 0.166032, 0.0707294, 0.170194, 0.0725024, 0, 0
2, 1740.00000, 0.16517, 0.0703621, 0.166032, 0.0707294, 0.170194, 0.0725024, 0, 0
2, 1800.00000, 0.16517, 0.0703621, 0.166032, 0.0707294, 0.170194, 0.0725024, 0, 0
2, 1860.00000, 0.16517, 0.0703621, 0.166032, 0.0707294, 0.170194, 0.0725024, 0, 0
2, 1920.00000, 0.16517, 0.0703621, 0.166032, 0.0707294, 0.170194, 0.0725024, 0, 0
2, 1980.00000, 0.16517, 0.0703621, 0.166032, 0.0707294, 0.170194, 0.0725024, 0, 0
2, 2040.00000, 0.16517, 0.0703621, 0.166032, 0.0707294, 0.170194, 0.0725024, 0, 0
2, 2100.00000, 0.16517, 0.0703621, 0.166032, 0.0707294, 0.170194, 0.0725024, 0, 0
2, 2160.00000, 0.16517, 0.0703621, 0.166032, 0.0707294, 0.170194, 0.0725024, 0, 0
2, 2220.00000, 0.16517, 0.0703621, 0.166032, 0.0707294, 0.170194, 0.0725024, 0, 0
2, 2280.00000, 0.16517, 0.0703621, 0.166032, 0.0707294, 0.170194, 0.0725024, 0, 0
2, 2340.00000, 0.16517, 0.0703621, 0.166032, 0.0707294, 0.170194, 0.0725024, 0, 0
2, 2400.00000, 0.165712, 0.070593, 0.167184, 0.07122, 0.170194, 0.0725024, 0, 0
2, 2460.00000, 0.165712, 0.070593, 0.167184, 0.07122, 0.170194, 0.0725024, 0, 0
2, 2520.00000, 0.165712, 0.070593, 0.167184, 0.07122, 0.170194, 0.0725024, 0, 0
2, 2580.00000, 0.165712, 0.070593, 0.167184, 0.07122, 0.170194, 0.0725024, 0, 0
2, 2640.00000, 0.165712, 0.070593, 0.167184, 0.07122, 0.170194, 0.0725024, 0, 0
2, 2700.00000, 0.164026, 0.0698747, 0.167217, 0.0712344, 0.170194, 0.0725023, 0, 0
2, 2760.00000, 0.164026, 0.0698747, 0.167217, 0.0712344, 0.170194, 0.0725024, 0, 0
2, 2820.00000, 0.164026, 0.0698747, 0.167217, 0.0712344, 0.170194, 0.0725024, 0, 0
2, 2880.00000, 0.164026, 0.0698747, 0.167217, 0.0712344, 0.170194, 0.0725024, 0, 0
2, 2940.00000, 0.164026, 0.0698747, 0.167217, 0.0712344, 0.170194, 0.0725024, 0, 0
2, 3000.00000, 0.164026, 0.0698747, 0.167217, 0.0712344, 0.170194, 0.0725024, 0, 0
2, 3060.00000, 0.165498, 0.070502, 0.167201, 0.0712273, 0.170194, 0.0725026, 0, 0
2, 3120.00000, 0.165498, 0.070502, 0.167201, 0.0712273, 0.170194, 0.0725024, 0, 0
2, 3180.00000, 0.165498, 0.070502, 0.167201, 0.0712273, 0.170194, 0.0725024, 0, 0
2, 3240.00000, 0.165498, 0.070502, 0.167201, 0.0712273, 0.170194, 0.0725024, 0, 0
2, 3300.00000, 0.165498, 0.070502, 0.167201, 0.0712273, 0.170194, 0.0725024, 0, 0
2, 3360.00000, 0.165498, 0.070502, 0.167201, 0.0712273, 0.170194, 0.0725024, 0, 0
2, 3420.00000, 0.165498, 0.070502, 0.167201, 0.0712273, 0.170194, 0.0725024, 0, 0
2, 3480.00000, 0.165498, 0.070502, 0.167201, 0.0712273, 0.170194, 0.0725024, 0, 0
2, 3540.00000, 0.165498, 0.070502, 0.167201, 0.0712273, 0.170194, 0.0725024, 0, 0
3, 0.00000, 0.165498, 0.070502, 0.167201, 0.0712273, 0.170194, 0.0725024, 0, 0
3, 60.00000, 0.165498, 0.070502, 0.167201, 0.0712273, 0.170194, 0.0725024, 0, 0
3, 120.00000, 0.165498, 0.070502, 0.167201, 0.0712273, 0.170194, 0.0725024, 0, 0
3, 180.00000, 0.165498, 0.070502, 0.167201, 0.0712273, 0.170194, 0.0725024, 0, 0
3, 240.00000, 0.165498, 0.070502, 0.167201, 0.0712273, 0.170194, 0.0725024, 0, 0
3, 300.00000, 0.165498, 0.070502, 0.167201, 0.0712273, 0.170194, 0.0725024, 0, 0
3, 360.00000, 0.165498, 0.070502, 0.167201, 0.0712273, 0.170194, 0.0725024, 0, 0
3, 420.00000, 0.165498, 0.070502, 0.167201, 0.0712273, 0.170194, 0.0725024, 0, 0
3, 480.00000, 0.165498, 0.070502, 0.167201, 0.0712273, 0.170194, 0.0725024, 0, 0
3, 540.00000, 0.165498, 0.070502, 0.167201, 0.0712273, 0.170194, 0.0725024, 0, 0
3, 600.00000, 0.165498, 0.070502, 0.167201, 0.0712273, 0.170194, 0.0725024, 0, 0
3, 660.00000, 0.165498, 0.070502, 0.167201, 0.0712273, 0.170194, 0.0725024, 0, 0
3, 720.00000, 0.165498, 0.070502, 0.167201, 0.0712273, 0.170194, 0.0725024, 0, 0
3, 780.00000, 0.165498, 0.070502, 0.167201, 0.0712273, 0.170194, 0.0725024, 0, 0
3, 840.00000, 0.165498, 0.070502, 0.167201, 0.0712273, 0.170194, 0.0725024, 0, 0
3, 900.00000, 0.165498, 0.070502, 0.167201, 0.0712273, 0.170194, 0.0725024, 0, 0
3, 960.00000, 0.165498, 0.070502, 0.167201, 0.0712273, 0.170194, 0.0725024, 0, 0
3, 1020.00000, 0.165498, 0.070502, 0.167201, 0.0712273, 0.170194, 0.0725024, 0, 0
3, 1080.00000, 0.165498, 0.070502, 0.167201, 0.0712273, 0.170194, 0.0725024, 0, 0
3, 1140.00000, 0.165498, 0.070502, 0.167201, 0.0712273, 0.170194, 0.0725024, 0, 0
3, 1200.00000, 0.165498, 0.070502, 0.167201, 0.0712273, 0.170194, 0.0725024, 0, 0
3, 1260.00000, 0.165498, 0.070502, 0.167201, 0.0712273, 0.170194, 0.0725024, 0, 0
3, 1320.00000, 0.165498, 0.070502, 0.167201, 0.0712273, 0.170194, 0.0725024, 0, 0
3, 1380.00000, 0.165498, 0.070502, 0.167201, 0.0712273, 0.170194, 0.0725024, 0, 0
3, 1440.00000, 0.165498, 0.070502, 0.167201, 0.0712273, 0.170194, 0.0725024, 0, 0
3, 1500.00000, 0.165498, 0.070502, 0.167201, 0.0712273, 0.170194, 0.0725024, 0, 0
3, 1560.00000, 0.165498, 0.070502, 0.167201, 0.0712273, 0.170194, 0.0725024, 0, 0
3, 1620.00000, 0.165498, 0.070502, 0.167201, 0.0712273, 0.170194, 0.0725024, 0, 0
3, 1680.00000, 0.165498, 0.070502, 0.167201, 0.0712273, 0.170194, 0.0725024, 0, 0
3, 1740.00000, 0.165498, 0.070502, 0.167201, 0.0712273, 0.170194, 0.0725024, 0, 0
3, 1800.00000, 0.165498, 0.070502, 0.167201, 0.0712273, 0.170194, 0.0725024, 0, 0
3, 1860.00000, 0.165498, 0.070502, 0.167201, 0.0712273, 0.170194, 0.0725024, 0, 0
3, 1920.00000, 0.165498, 0.070502, 0.167201, 0.0712273, 0.170194, 0.0725024, 0, 0
3, 1980.00000, 0.165498, 0.070502, 0.167201, 0.0712273, 0.170194, 0.0725024, 0, 0
3, 2040.00000, 0.165498, 0.070502, 0.167201, 0.0712273, 0.170194, 0.0725024, 0, 0
3, 2100.00000, 0.165498, 0.070502, 0.167201, 0.0712273, 0.170194, 0.0725024, 0, 0
3, 2160.00000, 0.165498, 0.070502, 0.167201, 0.0712273, 0.170194, 0.0725024, 0, 0
3, 2220.00000, 0.165498, 0.070502, 0.167201, 0.0712273, 0.170194, 0.0725024, 0, 0
3, 2280.00000, 0.165498, 0.070502, 0.167201, 0.0712273, 0.170194, 0.0725024, 0, 0
3, 2340.00000, 0.165498, 0.070502, 0.167201, 0.0712273, 0.170194, 0.0725024, 0, 0
3, 2400.00000, 0.165498, 0.070502, 0.167201, 0.0712273, 0.170194, 0.0725024, 0, 0
3, 2460.00000, 0.165498, 0.070502, 0.167201, 0.0712273, 0.170194, 0.0725024, 0, 0
3, 2520.00000, 0.165498, 0.070502, 0.167201, 0.0712273, 0.170194, 0.0725024, 0, 0
3, 2580.00000, 0.165498, 0.070502, 0.167201, 0.0712273, 0.170194, 0.0725024, 0, 0
3, 2640.00000, 0.165498, 0.070502, 0.167201, 0.0712273, 0.170194, 0.0725024, 0, 0
3, 2700.00000, 0.165498, 0.070502, 0.167201, 0.0712273, 0.170194, 0.0725024, 0, 0
3, 2760.00000, 0.165498, 0.070502, 0.167201, 0.0712273, 0.170194, 0.0725024, 0, 0
3, 2820.00000, 0.165498, 0.070502, 0.167201, 0.0712273, 0.170194, 0.0725024, 0, 0
3, 2880.00000, 0.165498, 0.070502, 0.167201, 0.0712273, 0.170194, 0.0725024, 0, 0
3, 2940.00000, 0.165498, 0.070502, 0.167201, 0.0712273, 0.170194, 0.0725024, 0, 0
3, 3000.00000, 0.165498, 0.070502, 0.167201, 0.0712273, 0.170194, 0.0725024, 0, 0
3, 3060.00000, 0.165498, 0.070502, 0.167201, 0.0712273, 0.170194, 0.0725024, 0, 0
3, 3120.00000, 0.165498, 0.070502, 0.167201, 0.0712273, 0.170194, 0.0725024, 0, 0
3, 3180.00000, 0.173875, 0.0740705, 0.175686, 0.0748421, 0.179514, 0.0764725, 0, 0
3, 3240.00000, 0.173875, 0.0740705, 0.175686, 0.074842, 0.179514, 0.0764726, 0, 0
3, 3300.00000, 0.173875, 0.0740705, 0.175686, 0.074842, 0.179514, 0.0764726, 0, 0
3, 3360.00000, 0.173875, 0.0740705, 0.175686, 0.074842, 0.179514, 0.0764726, 0, 0
3, 3420.00000, 0.173875, 0.0740705, 0.175686, 0.074842, 0.179514, 0.0764726, 0, 0
3, 3480.00000, 0.173875, 0.0740705, 0.175686, 0.074842, 0.179514, 0.0764726, 0, 0
3, 3540.00000, 0.173875, 0.0740705, 0.175686, 0.074842, 0.179514, 0.0764726, 0, 0
4, 0.00000, 0.173875, 0.0740705, 0.175686, 0.074842, 0.179514, 0.0764726, 0, 0
4, 60.00000, 0.173875, 0.0740705, 0.175686, 0.074842, 0.179514, 0.0764726, 0, 0
4, 120.00000, 0.173875, 0.0740705, 0.175686, 0.074842, 0.179514, 0.0764726, 0, 0
4, 180.00000, 0.173875, 0.0740705, 0.175686, 0.074842, 0.179514, 0.0764726, 0, 0
