hour,t(sec),V1,VAngle1,V2,VAngle2,V3,VAngle3,V4,VAngle4,I1,IAngle1,I2,IAngle2,I3,IAngle3,I4,IAngle4
0, 60.00000, 126.253, -31.9177, 125.708, -151.475, 126.901, 88.5385, 0, 0, 5.08291, -54.9913, 5.10498, -174.549, 5.05704, 65.4646, 0.0813693, 35.955
0, 120.00000, 126.26, -31.9236, 125.708, -151.475, 126.917, 88.5384, 0, 0, 5.08266, -54.9973, 5.10498, -174.549, 5.0564, 65.4645, 0.0824448, 35.9996
0, 180.00000, 126.265, -31.9289, 125.708, -151.475, 126.932, 88.5384, 0, 0, 5.08243, -55.0026, 5.10498, -174.549, 5.05582, 65.4644, 0.0834149, 36.0392
0, 240.00000, 126.27, -31.9337, 125.708, -151.475, 126.945, 88.5383, 0, 0, 5.08222, -55.0074, 5.10498, -174.549, 5.0553, 65.4643, 0.0842932, 36.0743
0, 300.00000, 126.275, -31.938, 125.708, -151.475, 126.957, 88.5383, 0, 0, 5.08204, -55.0118, 5.10498, -174.549, 5.05482, 65.4643, 0.0850871, 36.1055
0, 360.00000, 126.279, -31.9419, 125.708, -151.475, 126.967, 88.5382, 0, 0, 5.08187, -55.0157, 5.10498, -174.549, 5.0544, 65.4643, 0.085802, 36.1335
0, 420.00000, 126.283, -31.9454, 125.708, -151.475, 126.977, 88.5382, 0, 0, 5.08172, -55.0192, 5.10498, -174.549, 5.05401, 65.4642, 0.0864455, 36.1587
0, 480.00000, 126.648, -31.8267, 126.067, -151.343, 127.381, 88.6728, 0, 0, 4.57842, -54.9005, 4.5995, -174.417, 4.55209, 65.5989, 0.0803198, 36.5482
0, 540.00000, 126.651, -31.8296, 126.067, -151.343, 127.389, 88.6727, 0, 0, 4.57831, -54.9034, 4.5995, -174.417, 4.55181, 65.5988, 0.0807941, 36.5665
0, 600.00000, 126.654, -31.8322, 126.067, -151.343, 127.396, 88.6727, 0, 0, 4.57821, -54.906, 4.5995, -174.417, 4.55155, 65.5988, 0.0812196, 36.583
0, 660.00000, 126.656, -31.8345, 126.067, -151.343, 127.402, 88.6727, 0, 0, 4.57812, -54.9083, 4.5995, -174.417, 4.55133, 65.5987, 0.0816026, 36.5978
0, 720.00000, 126.658, -31.8366, 126.067, -151.343, 127.408, 88.6726, 0, 0, 4.57804, -54.9104, 4.5995, -174.417, 4.55112, 65.5987, 0.0819474, 36.6111
0, 780.00000, 126.66, -31.8385, 126.067, -151.343, 127.413, 88.6726, 0, 0, 4.57796, -54.9123, 4.5995, -174.417, 4.55094, 65.5986, 0.0822577, 36.6231
0, 840.00000, 126.662, -31.8402, 126.067, -151.343, 127.418, 88.6725, 0, 0, 4.5779, -54.914, 4.5995, -174.417, 4.55077, 65.5986, 0.082537, 36.6339
0, 900.00000, 126.664, -31.8417, 126.067, -151.343, 127.422, 88.6725, 0, 0, 4.57784, -54.9155, 4.5995, -174.417, 4.55062, 65.5986, 0.0827885, 36.6437
0, 960.00000, 126.665, -31.8431, 126.067, -151.343, 127.426, 88.6725, 0, 0, 4.57779, -54.9169, 4.5995, -174.417, 4.55049, 65.5985, 0.0830147, 36.6524
0, 1020.00000, 126.666, -31.8443, 126.067, -151.343, 127.429, 88.6724, 0, 0, 4.57774, -54.9182, 4.5995, -174.417, 4.55036, 65.5985, 0.0832184, 36.6603
0, 1080.00000, 126.668, -31.8454, 126.068, -151.343, 127.432, 88.6724, 0, 0, 4.5777, -54.9193, 4.5995, -174.417, 4.55026, 65.5985, 0.0834017, 36.6674
0, 1140.00000, 126.669, -31.8464, 126.068, -151.343, 127.435, 88.6724, 0, 0, 4.57766, -54.9203, 4.59949, -174.417, 4.55016, 65.5985, 0.0835667, 36.6738
0, 1200.00000, 126.67, -31.8474, 126.068, -151.343, 127.437, 88.6724, 0, 0, 4.57763, -54.9212, 4.59949, -174.417, 4.55007, 65.5984, 0.0837152, 36.6795
0, 1260.00000, 126.671, -31.8482, 126.068, -151.343, 127.439, 88.6724, 0, 0, 4.5776, -54.922, 4.59949, -174.417, 4.54999, 65.5984, 0.0838488, 36.6847
0, 1320.00000, 126.671, -31.8489, 126.068, -151.343, 127.441, 88.6723, 0, 0, 4.57757, -54.9228, 4.59949, -174.417, 4.54992, 65.5984, 0.0839691, 36.6893
0, 1380.00000, 126.672, -31.8496, 126.068, -151.343, 127.443, 88.6723, 0, 0, 4.57754, -54.9234, 4.59949, -174.417, 4.54985, 65.5984, 0.0840774, 36.6935
0, 1440.00000, 126.673, -31.8502, 126.068, -151.343, 127.445, 88.6723, 0, 0, 4.57752, -54.924, 4.59949, -174.417, 4.5498, 65.5984, 0.0841748, 36.6973
0, 1500.00000, 126.673, -31.8507, 126.068, -151.343, 127.446, 88.6723, 0, 0, 4.5775, -54.9246, 4.59949, -174.417, 4.54974, 65.5984, 0.0842625, 36.7007
0, 1560.00000, 126.674, -31.8512, 126.068, -151.343, 127.448, 88.6723, 0, 0, 4.57748, -54.9251, 4.59949, -174.417, 4.5497, 65.5984, 0.0843415, 36.7037
0, 1620.00000, 126.674, -31.8516, 126.068, -151.343, 127.449, 88.6723, 0, 0, 4.57747, -54.9255, 4.59949, -174.417, 4.54965, 65.5984, 0.0844125, 36.7065
0, 1680.00000, 126.675, -31.852, 126.068, -151.343, 127.45, 88.6723, 0, 0, 4.57745, -54.9259, 4.59949, -174.417, 4.54962, 65.5983, 0.0844764, 36.7089
0, 1740.00000, 126.675, -31.8523, 126.068, -151.343, 127.451, 88.6722, 0, 0, 4.57744, -54.9262, 4.59949, -174.417, 4.54958, 65.5983, 0.084534, 36.7112
0, 1800.00000, 126.675, -31.8527, 126.068, -151.343, 127.452, 88.6722, 0, 0, 4.57743, -54.9266, 4.59949, -174.417, 4.54955, 65.5983, 0.0845858, 36.7132
0, 1860.00000, 126.676, -31.8529, 126.068, -151.343, 127.452, 88.6722, 0, 0, 4.57742, -54.9268, 4.59949, -174.417, 4.54952, 65.5983, 0.0846324, 36.715
0, 1920.00000, 126.676, -31.8532, 126.068, -151.343, 127.453, 88.6722, 0, 0, 4.57741, -54.9271, 4.59949, -174.417, 4.5495, 65.5983, 0.0846744, 36.7166
0, 1980.00000, 126.676, -31.8534, 126.068, -151.343, 127.454, 88.6722, 0, 0, 4.5774, -54.9273, 4.59949, -174.417, 4.54948, 65.5983, 0.0847121, 36.7181
0, 2040.00000, 126.676, -31.8536, 126.068, -151.343, 127.454, 88.6722, 0, 0, 4.57739, -54.9275, 4.59949, -174.417, 4.54946, 65.5983, 0.0847461, 36.7194
0, 2100.00000, 126.677, -31.8538, 126.068, -151.343, 127.455, 88.6722, 0, 0, 4.57738, -54.9277, 4.59949, -174.417, 4.54944, 65.5983, 0.0847767, 36.7206
0, 2160.00000, 126.677, -31.854, 126.068, -151.343, 127.455, 88.6722, 0, 0, 4.57738, -54.9279, 4.59949, -174.417, 4.54942, 65.5983, 0.0848042, 36.7216
0, 2220.00000, 126.677, -31.8541, 126.068, -151.343, 127.456, 88.6722, 0, 0, 4.57737, -54.9281, 4.59949, -174.417, 4.54941, 65.5983, 0.084829, 36.7226
0, 2280.00000, 126.677, -31.8543, 126.068, -151.343, 127.456, 88.6722, 0, 0, 4.57736, -54.9282, 4.59949, -174.417, 4.54939, 65.5983, 0.0848513, 36.7234
0, 2340.00000, 126.677, -31.8544, 126.068, -151.343, 127.456, 88.6722, 0, 0, 4.57736, -54.9283, 4.59949, -174.417, 4.54938, 65.5983, 0.0848713, 36.7242
0, 2400.00000, 126.677, -31.8545, 126.068, -151.343, 127.457, 88.6722, 0, 0, 4.57736, -54.9284, 4.59949, -174.417, 4.54937, 65.5983, 0.0848894, 36.7249
0, 2460.00000, 126.677, -31.8546, 126.068, -151.343, 127.457, 88.6722, 0, 0, 4.57735, -54.9285, 4.59949, -174.417, 4.54936, 65.5983, 0.0849057, 36.7255
0, 2520.00000, 126.677, -31.8547, 126.068, -151.343, 127.457, 88.6722, 0, 0, 4.57735, -54.9286, 4.59949, -174.417, 4.54935, 65.5983, 0.0849203, 36.7261
0, 2580.00000, 126.678, -31.8548, 126.068, -151.343, 127.457, 88.6722, 0, 0, 4.57735, -54.9287, 4.59949, -174.417, 4.54934, 65.5983, 0.0849335, 36.7266
0, 2640.00000, 126.678, -31.8548, 126.068, -151.343, 127.457, 88.6722, 0, 0, 4.57734, -54.9288, 4.59949, -174.417, 4.54934, 65.5983, 0.0849453, 36.7271
0, 2700.00000, 126.678, -31.8549, 126.068, -151.343, 127.458, 88.6722, 0, 0, 4.57734, -54.9288, 4.59949, -174.417, 4.54933, 65.5983, 0.084956, 36.7275
0, 2760.00000, 126.678, -31.855, 126.068, -151.343, 127.458, 88.6722, 0, 0, 4.57734, -54.9289, 4.59949, -174.417, 4.54933, 65.5983, 0.0849656, 36.7279
0, 2820.00000, 126.678, -31.855, 126.068, -151.343, 127.458, 88.6722, 0, 0, 4.57734, -54.9289, 4.59949, -174.417, 4.54932, 65.5983, 0.0849742, 36.7282
0, 2880.00000, 126.678, -31.8551, 126.068, -151.343, 127.458, 88.6722, 0, 0, 4.57733, -54.929, 4.59949, -174.417, 4.54932, 65.5983, 0.084982, 36.7285
0, 2940.00000, 126.678, -31.8551, 126.068, -151.343, 127.458, 88.6722, 0, 0, 4.57733, -54.929, 4.59949, -174.417, 4.54931, 65.5983, 0.084989, 36.7288
0, 3000.00000, 126.678, -31.8552, 126.068, -151.343, 127.458, 88.6722, 0, 0, 4.57733, -54.9291, 4.59949, -174.417, 4.54931, 65.5983, 0.0849953, 36.729
0, 3060.00000, 126.678, -31.8552, 126.068, -151.343, 127.458, 88.6722, 0, 0, 4.57733, -54.9291, 4.59949, -174.417, 4.5493, 65.5983, 0.0850009, 36.7292
0, 3120.00000, 126.678, -31.8552, 126.068, -151.343, 127.458, 88.6722, 0, 0, 4.57733, -54.9291, 4.59949, -174.417, 4.5493, 65.5983, 0.085006, 36.7294
0, 3180.00000, 126.678, -31.8552, 126.068, -151.343, 127.459, 88.6722, 0, 0, 4.57733, -54.9292, 4.59949, -174.417, 4.5493, 65.5983, 0.0850106, 36.7296
0, 3240.00000, 126.678, -31.8553, 126.068, -151.343, 127.459, 88.6722, 0, 0, 4.57733, -54.9292, 4.59949, -174.417, 4.5493, 65.5983, 0.0850148, 36.7298
0, 3300.00000, 126.678, -31.8553, 126.068, -151.343, 127.459, 88.6722, 0, 0, 4.57733, -54.9292, 4.59949, -174.417, 4.54929, 65.5983, 0.0850185, 36.7299
0, 3360.00000, 126.678, -31.8553, 126.068, -151.343, 127.459, 88.6722, 0, 0, 4.57733, -54.9292, 4.59949, -174.417, 4.54929, 65.5983, 0.0850218, 36.73
0, 3420.00000, 126.678, -31.8553, 126.068, -151.343, 127.459, 88.6722, 0, 0, 4.57733, -54.9293, 4.59949, -174.417, 4.54929, 65.5983, 0.0850248, 36.7302
0, 3480.00000, 126.678, -31.8554, 126.068, -151.343, 127.459, 88.6722, 0, 0, 4.57732, -54.9293, 4.59949, -174.417, 4.54929, 65.5983, 0.0850276, 36.7303
0, 3540.00000, 126.678, -31.8554, 126.068, -151.343, 127.459, 88.6722, 0, 0, 4.57732, -54.9293, 4.59949, -174.417, 4.54929, 65.5983, 0.08503, 36.7304
1, 0.00000, 126.678, -31.8554, 126.068, -151.343, 127.459, 88.6722, 0, 0, 4.57732, -54.9293, 4.59949, -174.417, 4.54929, 65.5983, 0.0850322, 36.7304
1, 60.00000, 126.678, -31.8554, 126.068, -151.343, 127.459, 88.6722, 0, 0, 4.57732, -54.9293, 4.59949, -174.417, 4.54928, 65.5983, 0.0850342, 36.7305
1, 120.00000, 126.678, -31.8554, 126.068, -151.343, 127.459, 88.6722, 0, 0, 4.57732, -54.9293, 4.59949, -174.417, 4.54928, 65.5983, 0.0850359, 36.7306
1, 180.00000, 126.678, -31.8554, 126.068, -151.343, 127.459, 88.6722, 0, 0, 4.57732, -54.9293, 4.59949, -174.417, 4.54928, 65.5983, 0.0850375, 36.7306
1, 240.00000, 126.678, -31.8554, 126.068, -151.343, 127.459, 88.6722, 0, 0, 4.57732, -54.9293, 4.59949, -174.417, 4.54928, 65.5983, 0.085039, 36.7307
1, 300.00000, 126.678, -31.8554, 126.068, -151.343, 127.459, 88.6722, 0, 0, 4.57732, -54.9293, 4.59949, -174.417, 4.54928, 65.5983, 0.0850403, 36.7308
1, 360.00000, 126.678, -31.8554, 126.068, -151.343, 127.459, 88.6722, 0, 0, 4.57732, -54.9294, 4.59949, -174.417, 4.54928, 65.5983, 0.0850414, 36.7308
1, 420.00000, 126.678, -31.8554, 126.068, -151.343, 127.459, 88.6722, 0, 0, 4.57732, -54.9294, 4.59949, -174.417, 4.54928, 65.5983, 0.0850425, 36.7308
1, 480.00000, 126.678, -31.8554, 126.068, -151.343, 127.459, 88.6722, 0, 0, 4.57732, -54.9294, 4.59949, -174.417, 4.54928, 65.5983, 0.0850434, 36.7309
1, 540.00000, 126.678, -31.8555, 126.068, -151.343, 127.459, 88.6722, 0, 0, 4.57732, -54.9294, 4.59949, -174.417, 4.54928, 65.5983, 0.0850443, 36.7309
1, 600.00000, 126.678, -31.8555, 126.068, -151.343, 127.459, 88.6722, 0, 0, 4.57732, -54.9294, 4.59949, -174.417, 4.54928, 65.5983, 0.0850451, 36.7309
1, 660.00000, 126.678, -31.8555, 126.068, -151.343, 127.459, 88.6722, 0, 0, 4.57732, -54.9294, 4.59949, -174.417, 4.54928, 65.5983, 0.0850458, 36.731
1, 720.00000, 126.678, -31.8555, 126.068, -151.343, 127.459, 88.6722, 0, 0, 4.57732, -54.9294, 4.59949, -174.417, 4.54928, 65.5983, 0.0850464, 36.731
1, 780.00000, 126.678, -31.8555, 126.068, -151.343, 127.459, 88.6722, 0, 0, 4.57732, -54.9294, 4.59949, -174.417, 4.54928, 65.5983, 0.0850469, 36.731
1, 840.00000, 126.678, -31.8555, 126.068, -151.343, 127.459, 88.6722, 0, 0, 4.57732, -54.9294, 4.59949, -174.417, 4.54928, 65.5983, 0.0850474, 36.731
1, 900.00000, 126.678, -31.8555, 126.068, -151.343, 127.459, 88.6722, 0, 0, 4.57732, -54.9294, 4.59949, -174.417, 4.54928, 65.5983, 0.0850479, 36.731
1, 960.00000, 126.678, -31.8555, 126.068, -151.343, 127.459, 88.6722, 0, 0, 4.57732, -54.9294, 4.59949, -174.417, 4.54928, 65.5983, 0.0850483, 36.7311
1, 1020.00000, 126.678, -31.8555, 126.068, -151.343, 127.459, 88.6722, 0, 0, 4.57732, -54.9294, 4.59949, -174.417, 4.54928, 65.5983, 0.0850487, 36.7311
1, 1080.00000, 126.678, -31.8555, 126.068, -151.343, 127.459, 88.6722, 0, 0, 4.57732, -54.9294, 4.59949, -174.417, 4.54928, 65.5983, 0.085049, 36.7311
1, 1140.00000, 126.678, -31.8555, 126.068, -151.343, 127.459, 88.6722, 0, 0, 4.57732, -54.9294, 4.59949, -174.417, 4.54928, 65.5983, 0.0850493, 36.7311
1, 1200.00000, 126.678, -31.8555, 126.068, -151.343, 127.459, 88.6722, 0, 0, 4.57732, -54.9294, 4.59949, -174.417, 4.54928, 65.5983, 0.0850496, 36.7311
1, 1260.00000, 126.678, -31.8555, 126.068, -151.343, 127.459, 88.6722, 0, 0, 4.57732, -54.9294, 4.59949, -174.417, 4.54928, 65.5983, 0.0850498, 36.7311
1, 1320.00000, 126.678, -31.8555, 126.068, -151.343, 127.459, 88.6722, 0, 0, 4.57732, -54.9294, 4.59949, -174.417, 4.54927, 65.5983, 0.08505, 36.7311
1, 1380.00000, 126.678, -31.8555, 126.068, -151.343, 127.459, 88.6722, 0, 0, 4.57732, -54.9294, 4.59949, -174.417, 4.54927, 65.5983, 0.0850502, 36.7311
1, 1440.00000, 126.678, -31.8555, 126.068, -151.343, 127.459, 88.6722, 0, 0, 4.57732, -54.9294, 4.59949, -174.417, 4.54927, 65.5983, 0.0850504, 36.7311
1, 1500.00000, 126.678, -31.8555, 126.068, -151.343, 127.459, 88.6722, 0, 0, 4.57732, -54.9294, 4.59949, -174.417, 4.54927, 65.5983, 0.0850505, 36.7311
1, 1560.00000, 126.678, -31.8555, 126.068, -151.343, 127.459, 88.6722, 0, 0, 4.57732, -54.9294, 4.59949, -174.417, 4.54927, 65.5983, 0.0850507, 36.7312
1, 1620.00000, 126.678, -31.8555, 126.068, -151.343, 127.459, 88.6722, 0, 0, 4.57732, -54.9294, 4.59949, -174.417, 4.54927, 65.5983, 0.0850508, 36.7312
1, 1680.00000, 126.678, -31.8555, 126.068, -151.343, 127.459, 88.6722, 0, 0, 4.57732, -54.9294, 4.59949, -174.417, 4.54927, 65.5983, 0.0850509, 36.7312
1, 1740.00000, 126.678, -31.8555, 126.068, -151.343, 127.459, 88.6722, 0, 0, 4.57732, -54.9294, 4.59949, -174.417, 4.54927, 65.5983, 0.085051, 36.7312
1, 1800.00000, 126.678, -31.8555, 126.068, -151.343, 127.459, 88.6722, 0, 0, 4.57732, -54.9294, 4.59949, -174.417, 4.54927, 65.5983, 0.0850511, 36.7312
1, 1860.00000, 126.678, -31.8555, 126.068, -151.343, 127.459, 88.6722, 0, 0, 4.57732, -54.9294, 4.59949, -174.417, 4.54927, 65.5983, 0.0850512, 36.7312
1, 1920.00000, 126.678, -31.8555, 126.068, -151.343, 127.459, 88.6722, 0, 0, 4.57732, -54.9294, 4.59949, -174.417, 4.54927, 65.5983, 0.0850513, 36.7312
1, 1980.00000, 126.678, -31.8555, 126.068, -151.343, 127.459, 88.6722, 0, 0, 4.57732, -54.9294, 4.59949, -174.417, 4.54927, 65.5983, 0.0850513, 36.7312
1, 2040.00000, 126.678, -31.8555, 126.068, -151.343, 127.459, 88.6722, 0, 0, 4.57732, -54.9294, 4.59949, -174.417, 4.54927, 65.5983, 0.0850514, 36.7312
1, 2100.00000, 126.678, -31.8555, 126.068, -151.343, 127.459, 88.6722, 0, 0, 4.57732, -54.9294, 4.59949, -174.417, 4.54927, 65.5983, 0.0850515, 36.7312
1, 2160.00000, 126.678, -31.8555, 126.068, -151.343, 127.459, 88.6722, 0, 0, 4.57732, -54.9294, 4.59949, -174.417, 4.54927, 65.5983, 0.0850515, 36.7312
1, 2220.00000, 126.678, -31.8555, 126.068, -151.343, 127.459, 88.6722, 0, 0, 4.57732, -54.9294, 4.59949, -174.417, 4.54927, 65.5983, 0.0850516, 36.7312
1, 2280.00000, 126.678, -31.8555, 126.068, -151.343, 127.459, 88.6722, 0, 0, 4.57732, -54.9294, 4.59949, -174.417, 4.54927, 65.5983, 0.0850516, 36.7312
1, 2340.00000, 126.678, -31.8555, 126.068, -151.343, 127.459, 88.6722, 0, 0, 4.57732, -54.9294, 4.59949, -174.417, 4.54927, 65.5983, 0.0850516, 36.7312
1, 2400.00000, 126.678, -31.8555, 126.068, -151.343, 127.459, 88.6722, 0, 0, 4.57732, -54.9294, 4.59949, -174.417, 4.54927, 65.5983, 0.0850517, 36.7312
1, 2460.00000, 126.678, -31.8555, 126.068, -151.343, 127.459, 88.6722, 0, 0, 4.57732, -54.9294, 4.59949, -174.417, 4.54927, 65.5983, 0.0850517, 36.7312
1, 2520.00000, 126.678, -31.8555, 126.068, -151.343, 127.459, 88.6722, 0, 0, 4.57732, -54.9294, 4.59949, -174.417, 4.54927, 65.5983, 0.0850517, 36.7312
1, 2580.00000, 126.678, -31.8555, 126.068, -151.343, 127.459, 88.6722, 0, 0, 4.57732, -54.9294, 4.59949, -174.417, 4.54927, 65.5983, 0.0850517, 36.7312
1, 2640.00000, 126.678, -31.8555, 126.068, -151.343, 127.459, 88.6722, 0, 0, 4.57732, -54.9294, 4.59949, -174.417, 4.54927, 65.5983, 0.0850518, 36.7312
1, 2700.00000, 126.678, -31.8555, 126.068, -151.343, 127.459, 88.6722, 0, 0, 4.57732, -54.9294, 4.59949, -174.417, 4.54927, 65.5983, 0.0850518, 36.7312
1, 2760.00000, 126.678, -31.8555, 126.068, -151.343, 127.459, 88.6722, 0, 0, 4.57732, -54.9294, 4.59949, -174.417, 4.54927, 65.5983, 0.0850518, 36.7312
1, 2820.00000, 126.678, -31.8555, 126.068, -151.343, 127.459, 88.6722, 0, 0, 4.57732, -54.9294, 4.59949, -174.417, 4.54927, 65.5983, 0.0850518, 36.7312
1, 2880.00000, 126.678, -31.8555, 126.068, -151.343, 127.459, 88.6722, 0, 0, 4.57732, -54.9294, 4.59949, -174.417, 4.54927, 65.5983, 0.0850518, 36.7312
1, 2940.00000, 126.678, -31.8555, 126.068, -151.343, 127.459, 88.6722, 0, 0, 4.57732, -54.9294, 4.59949, -174.417, 4.54927, 65.5983, 0.0850518, 36.7312
1, 3000.00000, 126.678, -31.8555, 126.068, -151.343, 127.459, 88.6722, 0, 0, 4.57732, -54.9294, 4.59949, -174.417, 4.54927, 65.5983, 0.0850518, 36.7312
1, 3060.00000, 126.678, -31.8555, 126.068, -151.343, 127.459, 88.6722, 0, 0, 4.57732, -54.9294, 4.59949, -174.417, 4.54927, 65.5983, 0.0850519, 36.7312
1, 3120.00000, 126.678, -31.8555, 126.068, -151.343, 127.459, 88.6722, 0, 0, 4.57732, -54.9294, 4.59949, -174.417, 4.54927, 65.5983, 0.0850519, 36.7312
1, 3180.00000, 126.678, -31.8555, 126.068, -151.343, 127.459, 88.6722, 0, 0, 4.57732, -54.9294, 4.59949, -174.417, 4.54927, 65.5983, 0.0850519, 36.7312
1, 3240.00000, 126.678, -31.8555, 126.068, -151.343, 127.459, 88.6722, 0, 0, 4.57732, -54.9294, 4.59949, -174.417, 4.54927, 65.5983, 0.0850519, 36.7312
1, 3300.00000, 126.678, -31.8555, 126.068, -151.343, 127.459, 88.6722, 0, 0, 4.57732, -54.9294, 4.59949, -174.417, 4.54927, 65.5983, 0.0850519, 36.7312
1, 3360.00000, 126.678, -31.8555, 126.068, -151.343, 127.459, 88.6722, 0, 0, 4.57732, -54.9294, 4.59949, -174.417, 4.54927, 65.5983, 0.0850519, 36.7312
1, 3420.00000, 126.678, -31.8555, 126.068, -151.343, 127.459, 88.6722, 0, 0, 4.57732, -54.9294, 4.59949, -174.417, 4.54927, 65.5983, 0.0850519, 36.7312
1, 3480.00000, 126.678, -31.8555, 126.068, -151.343, 127.459, 88.6722, 0, 0, 4.57732, -54.9294, 4.59949, -174.417, 4.54927, 65.5983, 0.0850519, 36.7312
1, 3540.00000, 126.678, -31.8555, 126.068, -151.343, 127.459, 88.6722, 0, 0, 4.57732, -54.9294, 4.59949, -174.417, 4.54927, 65.5983, 0.0850519, 36.7312
2, 0.00000, 126.678, -31.8555, 126.068, -151.343, 127.459, 88.6722, 0, 0, 4.57732, -54.9294, 4.59949, -174.417, 4.54927, 65.5983, 0.0850519, 36.7312
2, 60.00000, 126.678, -31.8555, 126.068, -151.343, 127.459, 88.6722, 0, 0, 4.57732, -54.9294, 4.59949, -174.417, 4.54927, 65.5983, 0.0850519, 36.7312
2, 120.00000, 126.678, -31.8555, 126.068, -151.343, 127.459, 88.6722, 0, 0, 4.57732, -54.9294, 4.59949, -174.417, 4.54927, 65.5983, 0.0850519, 36.7312
2, 180.00000, 126.678, -31.8555, 126.068, -151.343, 127.459, 88.6722, 0, 0, 4.57732, -54.9294, 4.59949, -174.417, 4.54927, 65.5983, 0.0850519, 36.7312
2, 240.00000, 126.678, -31.8555, 126.068, -151.343, 127.459, 88.6722, 0, 0, 4.57732, -54.9294, 4.59949, -174.417, 4.54927, 65.5983, 0.0850519, 36.7312
2, 300.00000, 126.678, -31.8555, 126.068, -151.343, 127.459, 88.6722, 0, 0, 4.57732, -54.9294, 4.59949, -174.417, 4.54927, 65.5983, 0.0850519, 36.7312
2, 360.00000, 126.678, -31.8555, 126.068, -151.343, 127.459, 88.6722, 0, 0, 4.57732, -54.9294, 4.59949, -174.417, 4.54927, 65.5983, 0.0850519, 36.7312
2, 420.00000, 126.678, -31.8555, 126.068, -151.343, 127.459, 88.6722, 0, 0, 4.57732, -54.9294, 4.59949, -174.417, 4.54927, 65.5983, 0.0850519, 36.7312
2, 480.00000, 126.678, -31.8555, 126.068, -151.343, 127.459, 88.6722, 0, 0, 4.57732, -54.9294, 4.59949, -174.417, 4.54927, 65.5983, 0.0850519, 36.7312
2, 540.00000, 126.678, -31.8555, 126.068, -151.343, 127.459, 88.6722, 0, 0, 4.57732, -54.9294, 4.59949, -174.417, 4.54927, 65.5983, 0.0850519, 36.7312
2, 600.00000, 126.678, -31.8555, 126.068, -151.343, 127.459, 88.6722, 0, 0, 4.57732, -54.9294, 4.59949, -174.417, 4.54927, 65.5983, 0.0850519, 36.7312
2, 660.00000, 126.678, -31.8555, 126.068, -151.343, 127.459, 88.6722, 0, 0, 4.57732, -54.9294, 4.59949, -174.417, 4.54927, 65.5983, 0.0850519, 36.7312
