hour,t(sec),V1,VAngle1,V2,VAngle2,V3,VAngle3,V4,VAngle4,I1,IAngle1,I2,IAngle2,I3,IAngle3,I4,IAngle4
0, 60.00000, 120.998, -31.1129, 121.593, -151.003, 121.843, 88.7954, 0, 0, 1.27041, -54.1863, 1.26419, -174.077, 1.26156, 65.722, 0.0116474, 113.566
0, 120.00000, 120.997, -31.1129, 121.593, -151.003, 121.843, 88.7954, 0, 0, 1.27042, -54.1868, 1.2642, -174.076, 1.26161, 65.7215, 0.0116363, 113.646
0, 180.00000, 120.997, -31.1129, 121.593, -151.003, 121.843, 88.7954, 0, 0, 1.27042, -54.1868, 1.2642, -174.076, 1.26161, 65.7215, 0.0116363, 113.647
0, 240.00000, 120.997, -31.1129, 121.593, -151.003, 121.843, 88.7954, 0, 0, 1.27042, -54.1868, 1.2642, -174.076, 1.26161, 65.7215, 0.0116363, 113.647
0, 300.00000, 120.997, -31.1129, 121.593, -151.003, 121.843, 88.7954, 0, 0, 1.27042, -54.1868, 1.2642, -174.076, 1.26161, 65.7215, 0.0116363, 113.647
0, 360.00000, 120.997, -31.1129, 121.593, -151.003, 121.843, 88.7954, 0, 0, 1.27042, -54.1868, 1.2642, -174.076, 1.26161, 65.7215, 0.0116363, 113.647
0, 420.00000, 120.997, -31.1129, 121.593, -151.003, 121.843, 88.7954, 0, 0, 1.27042, -54.1868, 1.2642, -174.076, 1.26161, 65.7215, 0.0116363, 113.647
0, 480.00000, 120.997, -31.1129, 121.593, -151.003, 121.843, 88.7954, 0, 0, 1.27042, -54.1868, 1.2642, -174.076, 1.26161, 65.7215, 0.0116363, 113.647
0, 540.00000, 120.997, -31.1129, 121.593, -151.003, 121.843, 88.7954, 0, 0, 1.27042, -54.1868, 1.2642, -174.076, 1.26161, 65.7215, 0.0116363, 113.647
0, 600.00000, 120.997, -31.1129, 121.593, -151.003, 121.843, 88.7954, 0, 0, 1.27042, -54.1868, 1.2642, -174.076, 1.26161, 65.7215, 0.0116363, 113.647
0, 660.00000, 120.997, -31.1129, 121.593, -151.003, 121.843, 88.7954, 0, 0, 1.27042, -54.1868, 1.2642, -174.076, 1.26161, 65.7215, 0.0116363, 113.647
0, 720.00000, 120.997, -31.1129, 121.593, -151.003, 121.843, 88.7954, 0, 0, 1.27042, -54.1868, 1.2642, -174.076, 1.26161, 65.7215, 0.0116363, 113.647
0, 780.00000, 120.997, -31.1129, 121.593, -151.003, 121.843, 88.7954, 0, 0, 1.27042, -54.1868, 1.2642, -174.076, 1.26161, 65.7215, 0.0116363, 113.647
0, 840.00000, 120.997, -31.1129, 121.593, -151.003, 121.843, 88.7954, 0, 0, 1.27042, -54.1868, 1.2642, -174.076, 1.26161, 65.7215, 0.0116363, 113.647
0, 900.00000, 120.997, -31.1129, 121.593, -151.003, 121.843, 88.7954, 0, 0, 1.27042, -54.1868, 1.2642, -174.076, 1.26161, 65.7215, 0.0116363, 113.647
0, 960.00000, 120.621, -31.2894, 121.013, -151.038, 121.672, 88.7628, 0, 0, 1.25943, -54.363, 1.25632, -174.111, 1.24953, 65.6889, 0.0138186, 83.8931
0, 1020.00000, 120.621, -31.2894, 121.013, -151.038, 121.672, 88.7628, 0, 0, 1.25943, -54.3633, 1.25634, -174.112, 1.24953, 65.6888, 0.0138182, 83.8097
0, 1080.00000, 120.621, -31.2894, 121.013, -151.038, 121.672, 88.7628, 0, 0, 1.25943, -54.3633, 1.25634, -174.112, 1.24953, 65.6888, 0.0138182, 83.8096
0, 1140.00000, 120.621, -31.2894, 121.013, -151.038, 121.672, 88.7628, 0, 0, 1.25943, -54.3633, 1.25634, -174.112, 1.24953, 65.6888, 0.0138182, 83.8096
0, 1200.00000, 120.621, -31.2894, 121.013, -151.038, 121.672, 88.7628, 0, 0, 1.25943, -54.3633, 1.25634, -174.112, 1.24953, 65.6888, 0.0138182, 83.8096
0, 1260.00000, 120.621, -31.2894, 121.013, -151.038, 121.672, 88.7628, 0, 0, 1.25943, -54.3633, 1.25634, -174.112, 1.24953, 65.6888, 0.0138182, 83.8096
0, 1320.00000, 120.621, -31.2894, 121.013, -151.038, 121.672, 88.7628, 0, 0, 1.25943, -54.3633, 1.25634, -174.112, 1.24953, 65.6888, 0.0138182, 83.8096
0, 1380.00000, 120.621, -31.2894, 121.013, -151.038, 121.672, 88.7628, 0, 0, 1.25943, -54.3633, 1.25634, -174.112, 1.24953, 65.6888, 0.0138182, 83.8096
0, 1440.00000, 120.621, -31.2894, 121.013, -151.038, 121.672, 88.7628, 0, 0, 1.25943, -54.3633, 1.25634, -174.112, 1.24953, 65.6888, 0.0138182, 83.8096
0, 1500.00000, 120.621, -31.2894, 121.013, -151.038, 121.672, 88.7628, 0, 0, 1.25943, -54.3633, 1.25634, -174.112, 1.24953, 65.6888, 0.0138182, 83.8096
0, 1560.00000, 120.621, -31.2894, 121.013, -151.038, 121.672, 88.7628, 0, 0, 1.25943, -54.3633, 1.25634, -174.112, 1.24953, 65.6888, 0.0138182, 83.8096
0, 1620.00000, 120.621, -31.2894, 121.013, -151.038, 121.672, 88.7628, 0, 0, 1.25943, -54.3633, 1.25634, -174.112, 1.24953, 65.6888, 0.0138182, 83.8096
0, 1680.00000, 120.621, -31.2894, 121.013, -151.038, 121.672, 88.7628, 0, 0, 1.25943, -54.3633, 1.25634, -174.112, 1.24953, 65.6888, 0.0138182, 83.8096
0, 1740.00000, 120.621, -31.2894, 121.013, -151.038, 121.672, 88.7628, 0, 0, 1.25943, -54.3633, 1.25634, -174.112, 1.24953, 65.6888, 0.0138182, 83.8096
0, 1800.00000, 120.621, -31.2894, 121.013, -151.038, 121.672, 88.7628, 0, 0, 1.25943, -54.3633, 1.25634, -174.112, 1.24953, 65.6888, 0.0138182, 83.8096
0, 1860.00000, 120.763, -31.2722, 121.149, -151.021, 121.808, 88.7834, 0, 0, 1.25664, -54.3463, 1.25267, -174.095, 1.24591, 65.7081, 0.0143935, 86.0372
0, 1920.00000, 120.763, -31.2721, 121.15, -151.021, 121.809, 88.7835, 0, 0, 1.25663, -54.3461, 1.25262, -174.095, 1.24585, 65.7096, 0.0144295, 86.001
0, 1980.00000, 120.763, -31.2721, 121.15, -151.021, 121.809, 88.7835, 0, 0, 1.25663, -54.3461, 1.25262, -174.095, 1.24585, 65.7096, 0.0144297, 86.0005
0, 2040.00000, 120.763, -31.2721, 121.15, -151.021, 121.809, 88.7835, 0, 0, 1.25663, -54.3461, 1.25262, -174.095, 1.24585, 65.7096, 0.0144297, 86.0005
0, 2100.00000, 120.763, -31.2721, 121.15, -151.021, 121.809, 88.7835, 0, 0, 1.25663, -54.3461, 1.25262, -174.095, 1.24585, 65.7096, 0.0144297, 86.0005
0, 2160.00000, 120.763, -31.2721, 121.15, -151.021, 121.809, 88.7835, 0, 0, 1.25663, -54.3461, 1.25262, -174.095, 1.24585, 65.7096, 0.0144297, 86.0005
0, 2220.00000, 120.763, -31.2721, 121.15, -151.021, 121.809, 88.7835, 0, 0, 1.25663, -54.3461, 1.25262, -174.095, 1.24585, 65.7096, 0.0144297, 86.0005
0, 2280.00000, 120.763, -31.2721, 121.15, -151.021, 121.809, 88.7835, 0, 0, 1.25663, -54.3461, 1.25262, -174.095, 1.24585, 65.7096, 0.0144297, 86.0005
0, 2340.00000, 120.763, -31.2721, 121.15, -151.021, 121.809, 88.7835, 0, 0, 1.25663, -54.3461, 1.25262, -174.095, 1.24585, 65.7096, 0.0144297, 86.0005
0, 2400.00000, 120.763, -31.2721, 121.15, -151.021, 121.809, 88.7835, 0, 0, 1.25663, -54.3461, 1.25262, -174.095, 1.24585, 65.7096, 0.0144297, 86.0005
0, 2460.00000, 120.763, -31.2721, 121.15, -151.021, 121.809, 88.7835, 0, 0, 1.25663, -54.3461, 1.25262, -174.095, 1.24585, 65.7096, 0.0144297, 86.0005
0, 2520.00000, 120.763, -31.2721, 121.15, -151.021, 121.809, 88.7835, 0, 0, 1.25663, -54.3461, 1.25262, -174.095, 1.24585, 65.7096, 0.0144297, 86.0005
0, 2580.00000, 120.763, -31.2721, 121.15, -151.021, 121.809, 88.7835, 0, 0, 1.25663, -54.3461, 1.25262, -174.095, 1.24585, 65.7096, 0.0144297, 86.0005
0, 2640.00000, 120.763, -31.2721, 121.15, -151.021, 121.809, 88.7835, 0, 0, 1.25663, -54.3461, 1.25262, -174.095, 1.24585, 65.7096, 0.0144297, 86.0005
0, 2700.00000, 120.763, -31.2721, 121.15, -151.021, 121.809, 88.7835, 0, 0, 1.25663, -54.3461, 1.25262, -174.095, 1.24585, 65.7096, 0.0144297, 86.0005
0, 2760.00000, 121.048, -31.2352, 121.422, -150.989, 122.094, 88.825, 0, 0, 1.30492, -54.3094, 1.3009, -174.062, 1.29376, 65.7507, 0.0148454, 85.1126
0, 2820.00000, 121.048, -31.2352, 121.422, -150.989, 122.094, 88.825, 0, 0, 1.30492, -54.3091, 1.3009, -174.063, 1.29373, 65.7511, 0.0148624, 85.0753
0, 2880.00000, 121.048, -31.2352, 121.422, -150.989, 122.094, 88.825, 0, 0, 1.30492, -54.3091, 1.3009, -174.063, 1.29373, 65.7511, 0.0148627, 85.0747
0, 2940.00000, 121.048, -31.2352, 121.422, -150.989, 122.094, 88.825, 0, 0, 1.30492, -54.3091, 1.3009, -174.063, 1.29373, 65.7511, 0.0148627, 85.0747
0, 3000.00000, 121.048, -31.2352, 121.422, -150.989, 122.094, 88.825, 0, 0, 1.30492, -54.3091, 1.3009, -174.063, 1.29373, 65.7511, 0.0148627, 85.0747
0, 3060.00000, 121.048, -31.2352, 121.422, -150.989, 122.094, 88.825, 0, 0, 1.30492, -54.3091, 1.3009, -174.063, 1.29373, 65.7511, 0.0148627, 85.0747
0, 3120.00000, 121.048, -31.2352, 121.422, -150.989, 122.094, 88.825, 0, 0, 1.30492, -54.3091, 1.3009, -174.063, 1.29373, 65.7511, 0.0148627, 85.0747
0, 3180.00000, 121.048, -31.2352, 121.422, -150.989, 122.094, 88.825, 0, 0, 1.30492, -54.3091, 1.3009, -174.063, 1.29373, 65.7511, 0.0148627, 85.0747
0, 3240.00000, 121.048, -31.2352, 121.422, -150.989, 122.094, 88.825, 0, 0, 1.30492, -54.3091, 1.3009, -174.063, 1.29373, 65.7511, 0.0148627, 85.0747
0, 3300.00000, 121.048, -31.2352, 121.422, -150.989, 122.094, 88.825, 0, 0, 1.30492, -54.3091, 1.3009, -174.063, 1.29373, 65.7511, 0.0148627, 85.0747
0, 3360.00000, 121.048, -31.2352, 121.422, -150.989, 122.094, 88.825, 0, 0, 1.30492, -54.3091, 1.3009, -174.063, 1.29373, 65.7511, 0.0148627, 85.0747
0, 3420.00000, 121.048, -31.2352, 121.422, -150.989, 122.094, 88.825, 0, 0, 1.30492, -54.3091, 1.3009, -174.063, 1.29373, 65.7511, 0.0148627, 85.0747
0, 3480.00000, 121.048, -31.2352, 121.422, -150.989, 122.094, 88.825, 0, 0, 1.30492, -54.3091, 1.3009, -174.063, 1.29373, 65.7511, 0.0148627, 85.0747
0, 3540.00000, 121.048, -31.2352, 121.422, -150.989, 122.094, 88.825, 0, 0, 1.30492, -54.3091, 1.3009, -174.063, 1.29373, 65.7511, 0.0148627, 85.0747
1, 0.00000, 121.048, -31.2352, 121.422, -150.989, 122.094, 88.825, 0, 0, 1.30492, -54.3091, 1.3009, -174.063, 1.29373, 65.7511, 0.0148627, 85.0747
1, 60.00000, 121.269, -31.2092, 121.63, -150.967, 122.317, 88.8539, 0, 0, 1.3234, -54.2834, 1.31947, -174.041, 1.31208, 65.7797, 0.0149644, 84.2845
1, 120.00000, 121.268, -31.2091, 121.63, -150.967, 122.318, 88.854, 0, 0, 1.3234, -54.283, 1.31947, -174.041, 1.31205, 65.7801, 0.0149817, 84.2425
1, 180.00000, 121.268, -31.2091, 121.63, -150.967, 122.318, 88.854, 0, 0, 1.3234, -54.283, 1.31947, -174.041, 1.31205, 65.7801, 0.014982, 84.2417
1, 240.00000, 121.268, -31.2091, 121.63, -150.967, 122.318, 88.854, 0, 0, 1.3234, -54.283, 1.31947, -174.041, 1.31205, 65.7801, 0.014982, 84.2417
1, 300.00000, 121.268, -31.2091, 121.63, -150.967, 122.318, 88.854, 0, 0, 1.3234, -54.283, 1.31947, -174.041, 1.31205, 65.7801, 0.014982, 84.2417
1, 360.00000, 121.268, -31.2091, 121.63, -150.967, 122.318, 88.854, 0, 0, 1.3234, -54.283, 1.31947, -174.041, 1.31205, 65.7801, 0.014982, 84.2417
1, 420.00000, 121.268, -31.2091, 121.63, -150.967, 122.318, 88.854, 0, 0, 1.3234, -54.283, 1.31947, -174.041, 1.31205, 65.7801, 0.014982, 84.2417
1, 480.00000, 121.268, -31.2091, 121.63, -150.967, 122.318, 88.854, 0, 0, 1.3234, -54.283, 1.31947, -174.041, 1.31205, 65.7801, 0.014982, 84.2417
1, 540.00000, 121.268, -31.2091, 121.63, -150.967, 122.318, 88.854, 0, 0, 1.3234, -54.283, 1.31947, -174.041, 1.31205, 65.7801, 0.014982, 84.2417
1, 600.00000, 121.268, -31.2091, 121.63, -150.967, 122.318, 88.854, 0, 0, 1.3234, -54.283, 1.31947, -174.041, 1.31205, 65.7801, 0.014982, 84.2417
1, 660.00000, 121.268, -31.2091, 121.63, -150.967, 122.318, 88.854, 0, 0, 1.3234, -54.283, 1.31947, -174.041, 1.31205, 65.7801, 0.014982, 84.2417
1, 720.00000, 121.268, -31.2091, 121.63, -150.967, 122.318, 88.854, 0, 0, 1.3234, -54.283, 1.31947, -174.041, 1.31205, 65.7801, 0.014982, 84.2417
1, 780.00000, 121.268, -31.2091, 121.63, -150.967, 122.318, 88.854, 0, 0, 1.3234, -54.283, 1.31947, -174.041, 1.31205, 65.7801, 0.014982, 84.2417
1, 840.00000, 121.268, -31.2091, 121.63, -150.967, 122.318, 88.854, 0, 0, 1.3234, -54.283, 1.31947, -174.041, 1.31205, 65.7801, 0.014982, 84.2417
1, 900.00000, 121.268, -31.2091, 121.63, -150.967, 122.318, 88.854, 0, 0, 1.3234, -54.283, 1.31947, -174.041, 1.31205, 65.7801, 0.014982, 84.2417
1, 960.00000, 121.293, -31.2046, 121.653, -150.963, 122.343, 88.859, 0, 0, 1.30152, -54.2789, 1.29766, -174.037, 1.29037, 65.7846, 0.014713, 84.1841
1, 1020.00000, 121.293, -31.2045, 121.653, -150.963, 122.343, 88.8591, 0, 0, 1.30151, -54.2785, 1.29765, -174.037, 1.29034, 65.7851, 0.0147291, 84.1302
1, 1080.00000, 121.293, -31.2045, 121.653, -150.963, 122.343, 88.8591, 0, 0, 1.30151, -54.2785, 1.29765, -174.037, 1.29033, 65.7851, 0.0147295, 84.1292
1, 1140.00000, 121.293, -31.2045, 121.653, -150.963, 122.343, 88.8591, 0, 0, 1.30151, -54.2785, 1.29765, -174.037, 1.29033, 65.7851, 0.0147295, 84.1292
1, 1200.00000, 121.293, -31.2045, 121.653, -150.963, 122.343, 88.8591, 0, 0, 1.30151, -54.2785, 1.29765, -174.037, 1.29033, 65.7851, 0.0147295, 84.1292
1, 1260.00000, 121.293, -31.2045, 121.653, -150.963, 122.343, 88.8591, 0, 0, 1.30151, -54.2785, 1.29765, -174.037, 1.29033, 65.7851, 0.0147295, 84.1292
1, 1320.00000, 121.293, -31.2045, 121.653, -150.963, 122.343, 88.8591, 0, 0, 1.30151, -54.2785, 1.29765, -174.037, 1.29033, 65.7851, 0.0147295, 84.1292
1, 1380.00000, 121.293, -31.2045, 121.653, -150.963, 122.343, 88.8591, 0, 0, 1.30151, -54.2785, 1.29765, -174.037, 1.29033, 65.7851, 0.0147295, 84.1292
1, 1440.00000, 121.293, -31.2045, 121.653, -150.963, 122.343, 88.8591, 0, 0, 1.30151, -54.2785, 1.29765, -174.037, 1.29033, 65.7851, 0.0147295, 84.1292
1, 1500.00000, 121.293, -31.2045, 121.653, -150.963, 122.343, 88.8591, 0, 0, 1.30151, -54.2785, 1.29765, -174.037, 1.29033, 65.7851, 0.0147295, 84.1292
1, 1560.00000, 121.293, -31.2045, 121.653, -150.963, 122.343, 88.8591, 0, 0, 1.30151, -54.2785, 1.29765, -174.037, 1.29033, 65.7851, 0.0147295, 84.1292
1, 1620.00000, 121.293, -31.2045, 121.653, -150.963, 122.343, 88.8591, 0, 0, 1.30151, -54.2785, 1.29765, -174.037, 1.29033, 65.7851, 0.0147295, 84.1292
1, 1680.00000, 121.293, -31.2045, 121.653, -150.963, 122.343, 88.8591, 0, 0, 1.30151, -54.2785, 1.29765, -174.037, 1.29033, 65.7851, 0.0147295, 84.1292
1, 1740.00000, 121.293, -31.2045, 121.653, -150.963, 122.343, 88.8591, 0, 0, 1.30151, -54.2785, 1.29765, -174.037, 1.29033, 65.7851, 0.0147295, 84.1292
1, 1800.00000, 121.293, -31.2045, 121.653, -150.963, 122.343, 88.8591, 0, 0, 1.30151, -54.2785, 1.29765, -174.037, 1.29033, 65.7851, 0.0147295, 84.1292
1, 1860.00000, 121.093, -31.229, 121.464, -150.983, 122.139, 88.8324, 0, 0, 1.22291, -54.3027, 1.21917, -174.057, 1.21241, 65.7587, 0.0139186, 84.834
1, 1920.00000, 121.093, -31.2291, 121.464, -150.983, 122.138, 88.8323, 0, 0, 1.2229, -54.303, 1.21917, -174.057, 1.21243, 65.7584, 0.0139039, 84.8718
1, 1980.00000, 121.093, -31.2291, 121.464, -150.983, 122.138, 88.8323, 0, 0, 1.2229, -54.303, 1.21917, -174.057, 1.21243, 65.7584, 0.0139037, 84.8724
1, 2040.00000, 121.093, -31.2291, 121.464, -150.983, 122.138, 88.8323, 0, 0, 1.2229, -54.303, 1.21917, -174.057, 1.21243, 65.7584, 0.0139037, 84.8724
1, 2100.00000, 121.093, -31.2291, 121.464, -150.983, 122.138, 88.8323, 0, 0, 1.2229, -54.303, 1.21917, -174.057, 1.21243, 65.7584, 0.0139037, 84.8724
1, 2160.00000, 121.093, -31.2291, 121.464, -150.983, 122.138, 88.8323, 0, 0, 1.2229, -54.303, 1.21917, -174.057, 1.21243, 65.7584, 0.0139037, 84.8724
1, 2220.00000, 121.093, -31.2291, 121.464, -150.983, 122.138, 88.8323, 0, 0, 1.2229, -54.303, 1.21917, -174.057, 1.21243, 65.7584, 0.0139037, 84.8724
1, 2280.00000, 121.093, -31.2291, 121.464, -150.983, 122.138, 88.8323, 0, 0, 1.2229, -54.303, 1.21917, -174.057, 1.21243, 65.7584, 0.0139037, 84.8724
1, 2340.00000, 121.093, -31.2291, 121.464, -150.983, 122.138, 88.8323, 0, 0, 1.2229, -54.303, 1.21917, -174.057, 1.21243, 65.7584, 0.0139037, 84.8724
1, 2400.00000, 121.093, -31.2291, 121.464, -150.983, 122.138, 88.8323, 0, 0, 1.2229, -54.303, 1.21917, -174.057, 1.21243, 65.7584, 0.0139037, 84.8724
1, 2460.00000, 121.093, -31.2291, 121.464, -150.983, 122.138, 88.8323, 0, 0, 1.2229, -54.303, 1.21917, -174.057, 1.21243, 65.7584, 0.0139037, 84.8724
1, 2520.00000, 121.093, -31.2291, 121.464, -150.983, 122.138, 88.8323, 0, 0, 1.2229, -54.303, 1.21917, -174.057, 1.21243, 65.7584, 0.0139037, 84.8724
1, 2580.00000, 121.093, -31.2291, 121.464, -150.983, 122.138, 88.8323, 0, 0, 1.2229, -54.303, 1.21917, -174.057, 1.21243, 65.7584, 0.0139037, 84.8724
1, 2640.00000, 121.093, -31.2291, 121.464, -150.983, 122.138, 88.8323, 0, 0, 1.2229, -54.303, 1.21917, -174.057, 1.21243, 65.7584, 0.0139037, 84.8724
1, 2700.00000, 121.018, -31.2231, 120.449, -151.325, 120.945, 89.0705, 0, 0, 1.22366, -54.2968, 1.22477, -174.399, 1.22437, 65.997, 0.00858575, -38.0435
1, 2760.00000, 121.419, -31.1744, 120.813, -151.281, 121.315, 89.1239, 0, 0, 1.21398, -54.2485, 1.22006, -174.355, 1.21501, 66.0499, 0.0127276, -23.9802
1, 2820.00000, 121.419, -31.1744, 120.813, -151.281, 121.315, 89.1239, 0, 0, 1.21397, -54.2483, 1.22006, -174.355, 1.21501, 66.05, 0.0127342, -23.9839
1, 2880.00000, 121.419, -31.1744, 120.813, -151.281, 121.315, 89.1239, 0, 0, 1.21397, -54.2483, 1.22006, -174.355, 1.21501, 66.05, 0.0127342, -23.9839
1, 2940.00000, 121.419, -31.1744, 120.813, -151.281, 121.315, 89.1239, 0, 0, 1.21397, -54.2483, 1.22006, -174.355, 1.21501, 66.05, 0.0127342, -23.9839
1, 3000.00000, 121.419, -31.1744, 120.813, -151.281, 121.315, 89.1239, 0, 0, 1.21397, -54.2483, 1.22006, -174.355, 1.21501, 66.05, 0.0127342, -23.9839
1, 3060.00000, 121.419, -31.1744, 120.813, -151.281, 121.315, 89.1239, 0, 0, 1.21397, -54.2483, 1.22006, -174.355, 1.21501, 66.05, 0.0127342, -23.9839
1, 3120.00000, 121.419, -31.1744, 120.813, -151.281, 121.315, 89.1239, 0, 0, 1.21397, -54.2483, 1.22006, -174.355, 1.21501, 66.05, 0.0127342, -23.9839
1, 3180.00000, 121.419, -31.1744, 120.813, -151.281, 121.315, 89.1239, 0, 0, 1.21397, -54.2483, 1.22006, -174.355, 1.21501, 66.05, 0.0127342, -23.9839
1, 3240.00000, 121.419, -31.1744, 120.813, -151.281, 121.315, 89.1239, 0, 0, 1.21397, -54.2483, 1.22006, -174.355, 1.21501, 66.05, 0.0127342, -23.9839
1, 3300.00000, 121.419, -31.1744, 120.813, -151.281, 121.315, 89.1239, 0, 0, 1.21397, -54.2483, 1.22006, -174.355, 1.21501, 66.05, 0.0127342, -23.9839
1, 3360.00000, 121.419, -31.1744, 120.813, -151.281, 121.315, 89.1239, 0, 0, 1.21397, -54.2483, 1.22006, -174.355, 1.21501, 66.05, 0.0127342, -23.9839
1, 3420.00000, 121.419, -31.1744, 120.813, -151.281, 121.315, 89.1239, 0, 0, 1.21397, -54.2483, 1.22006, -174.355, 1.21501, 66.05, 0.0127342, -23.9839
1, 3480.00000, 121.419, -31.1744, 120.813, -151.281, 121.315, 89.1239, 0, 0, 1.21397, -54.2483, 1.22006, -174.355, 1.21501, 66.05, 0.0127342, -23.9839
1, 3540.00000, 121.419, -31.1744, 120.813, -151.281, 121.315, 89.1239, 0, 0, 1.21397, -54.2483, 1.22006, -174.355, 1.21501, 66.05, 0.0127342, -23.9839
2, 0.00000, 121.419, -31.1744, 120.813, -151.281, 121.315, 89.1239, 0, 0, 1.21397, -54.2483, 1.22006, -174.355, 1.21501, 66.05, 0.0127342, -23.9839
2, 60.00000, 121.17, -31.2035, 120.586, -151.307, 121.085, 89.0919, 0, 0, 1.27458, -54.2773, 1.27896, -174.381, 1.27547, 66.018, 0.0115462, -27.7279
2, 120.00000, 121.17, -31.2035, 120.586, -151.307, 121.085, 89.0919, 0, 0, 1.27459, -54.2774, 1.27896, -174.381, 1.27548, 66.0179, 0.0115398, -27.7349
2, 180.00000, 121.17, -31.2035, 120.586, -151.307, 121.085, 89.0919, 0, 0, 1.27459, -54.2774, 1.27896, -174.381, 1.27548, 66.0179, 0.0115398, -27.7349
2, 240.00000, 121.17, -31.2035, 120.586, -151.307, 121.085, 89.0919, 0, 0, 1.27459, -54.2774, 1.27896, -174.381, 1.27548, 66.0179, 0.0115398, -27.7349
2, 300.00000, 121.17, -31.2035, 120.586, -151.307, 121.085, 89.0919, 0, 0, 1.27459, -54.2774, 1.27896, -174.381, 1.27548, 66.0179, 0.0115398, -27.7349
2, 360.00000, 121.17, -31.2035, 120.586, -151.307, 121.085, 89.0919, 0, 0, 1.27459, -54.2774, 1.27896, -174.381, 1.27548, 66.0179, 0.0115398, -27.7349
2, 420.00000, 121.17, -31.2035, 120.586, -151.307, 121.085, 89.0919, 0, 0, 1.27459, -54.2774, 1.27896, -174.381, 1.27548, 66.0179, 0.0115398, -27.7349
2, 480.00000, 121.17, -31.2035, 120.586, -151.307, 121.085, 89.0919, 0, 0, 1.27459, -54.2774, 1.27896, -174.381, 1.27548, 66.0179, 0.0115398, -27.7349
2, 540.00000, 121.356, -31.0499, 120.971, -151.296, 121.065, 89.0957, 0, 0, 1.27264, -54.1239, 1.27669, -174.37, 1.27568, 66.0218, 0.0111018, -55.4277
2, 600.00000, 121.356, -31.0499, 120.971, -151.296, 121.065, 89.0957, 0, 0, 1.27263, -54.1239, 1.27668, -174.37, 1.27569, 66.0218, 0.0111009, -55.4983
2, 660.00000, 121.356, -31.0499, 120.971, -151.296, 121.065, 89.0957, 0, 0, 1.27263, -54.1239, 1.27668, -174.37, 1.27569, 66.0218, 0.0111009, -55.4988
2, 720.00000, 121.356, -31.0499, 120.971, -151.296, 121.065, 89.0957, 0, 0, 1.27263, -54.1239, 1.27668, -174.37, 1.27569, 66.0218, 0.0111009, -55.4988
