hour,t(sec),"P1 (kW)","Q1 (kvar)","P2 (kW)","Q2 (kvar)","P3 (kW)","Q3 (kvar)","P4 (kW)","Q4 (kvar)"
0, 60.00000, 0.561627, 0.239249, 0.56205, 0.23943, 0.558533, 0.237932, 0, 0
0, 120.00000, 0.561623, 0.23925, 0.562045, 0.23943, 0.558528, 0.237932, 0, 0
0, 180.00000, 0.561623, 0.23925, 0.562045, 0.23943, 0.558528, 0.237932, 0, 0
0, 240.00000, 0.561623, 0.23925, 0.562045, 0.23943, 0.558528, 0.237932, 0, 0
0, 300.00000, 0.561623, 0.23925, 0.562045, 0.23943, 0.558528, 0.237932, 0, 0
0, 360.00000, 0.561623, 0.23925, 0.562045, 0.23943, 0.558528, 0.237932, 0, 0
0, 420.00000, 0.561623, 0.23925, 0.562045, 0.23943, 0.558528, 0.237932, 0, 0
0, 480.00000, 0.497731, 0.212036, 0.497547, 0.211957, 0.494282, 0.210566, 0, 0
0, 540.00000, 0.497736, 0.212035, 0.497552, 0.211956, 0.494287, 0.210565, 0, 0
0, 600.00000, 0.497736, 0.212035, 0.497552, 0.211956, 0.494287, 0.210565, 0, 0
0, 660.00000, 0.497736, 0.212035, 0.497552, 0.211956, 0.494287, 0.210565, 0, 0
0, 720.00000, 0.497736, 0.212035, 0.497552, 0.211956, 0.494287, 0.210565, 0, 0
0, 780.00000, 0.497736, 0.212035, 0.497552, 0.211956, 0.494287, 0.210565, 0, 0
0, 840.00000, 0.497736, 0.212035, 0.497552, 0.211956, 0.494287, 0.210565, 0, 0
0, 900.00000, 0.497736, 0.212035, 0.497552, 0.211956, 0.494287, 0.210565, 0, 0
0, 960.00000, 0.494934, 0.210836, 0.494833, 0.210797, 0.489022, 0.208319, 0, 0
0, 1020.00000, 0.494926, 0.210837, 0.494831, 0.210797, 0.489014, 0.208319, 0, 0
0, 1080.00000, 0.494926, 0.210837, 0.494831, 0.210797, 0.489014, 0.208319, 0, 0
0, 1140.00000, 0.497467, 0.211924, 0.494854, 0.210807, 0.489793, 0.208652, 0, 0
0, 1200.00000, 0.497473, 0.211922, 0.494854, 0.210807, 0.489796, 0.208652, 0, 0
0, 1260.00000, 0.497473, 0.211922, 0.494854, 0.210807, 0.489796, 0.208652, 0, 0
0, 1320.00000, 0.497473, 0.211922, 0.494854, 0.210807, 0.489796, 0.208652, 0, 0
0, 1380.00000, 0.497473, 0.211922, 0.494854, 0.210807, 0.489796, 0.208652, 0, 0
0, 1440.00000, 0.497473, 0.211922, 0.494854, 0.210807, 0.489796, 0.208652, 0, 0
0, 1500.00000, 0.497473, 0.211922, 0.494854, 0.210807, 0.489796, 0.208652, 0, 0
0, 1560.00000, 0.497473, 0.211922, 0.494854, 0.210807, 0.489796, 0.208652, 0, 0
0, 1620.00000, 0.497473, 0.211922, 0.494854, 0.210807, 0.489796, 0.208652, 0, 0
0, 1680.00000, 0.497473, 0.211922, 0.494854, 0.210807, 0.489796, 0.208652, 0, 0
0, 1740.00000, 0.497473, 0.211922, 0.494854, 0.210807, 0.489796, 0.208652, 0, 0
0, 1800.00000, 0.494356, 0.210594, 0.490041, 0.208756, 0.490136, 0.208797, 0, 0
0, 1860.00000, 0.494355, 0.210594, 0.490038, 0.208755, 0.490136, 0.208797, 0, 0
0, 1920.00000, 0.494355, 0.210594, 0.490038, 0.208755, 0.490136, 0.208797, 0, 0
0, 1980.00000, 0.494355, 0.210594, 0.490038, 0.208755, 0.490136, 0.208797, 0, 0
0, 2040.00000, 0.494355, 0.210594, 0.490038, 0.208755, 0.490136, 0.208797, 0, 0
0, 2100.00000, 0.494355, 0.210594, 0.490038, 0.208755, 0.490136, 0.208797, 0, 0
0, 2160.00000, 0.494355, 0.210594, 0.490038, 0.208755, 0.490136, 0.208797, 0, 0
0, 2220.00000, 0.494355, 0.210594, 0.490038, 0.208755, 0.490136, 0.208797, 0, 0
0, 2280.00000, 0.494355, 0.210594, 0.490038, 0.208755, 0.490136, 0.208797, 0, 0
0, 2340.00000, 0.494355, 0.210594, 0.490038, 0.208755, 0.490136, 0.208797, 0, 0
0, 2400.00000, 0.494355, 0.210594, 0.490038, 0.208755, 0.490136, 0.208797, 0, 0
0, 2460.00000, 0.494355, 0.210594, 0.490038, 0.208755, 0.490136, 0.208797, 0, 0
0, 2520.00000, 0.494355, 0.210594, 0.490038, 0.208755, 0.490136, 0.208797, 0, 0
0, 2580.00000, 0.494355, 0.210594, 0.490038, 0.208755, 0.490136, 0.208797, 0, 0
0, 2640.00000, 0.494355, 0.210594, 0.490038, 0.208755, 0.490136, 0.208797, 0, 0
0, 2700.00000, 0.494355, 0.210594, 0.490038, 0.208755, 0.490136, 0.208797, 0, 0
0, 2760.00000, 0.495217, 0.210963, 0.492621, 0.209858, 0.490106, 0.208784, 0, 0
0, 2820.00000, 0.49522, 0.210963, 0.492626, 0.209858, 0.490106, 0.208784, 0, 0
0, 2880.00000, 0.49522, 0.210963, 0.492626, 0.209858, 0.490106, 0.208784, 0, 0
0, 2940.00000, 0.49522, 0.210963, 0.492626, 0.209858, 0.490106, 0.208784, 0, 0
0, 3000.00000, 0.49522, 0.210963, 0.492626, 0.209858, 0.490106, 0.208784, 0, 0
0, 3060.00000, 0.49522, 0.210963, 0.492626, 0.209858, 0.490106, 0.208784, 0, 0
0, 3120.00000, 0.49522, 0.210963, 0.492626, 0.209858, 0.490106, 0.208784, 0, 0
0, 3180.00000, 0.49522, 0.210963, 0.492626, 0.209858, 0.490106, 0.208784, 0, 0
0, 3240.00000, 0.49522, 0.210963, 0.492626, 0.209858, 0.490106, 0.208784, 0, 0
0, 3300.00000, 0.49522, 0.210963, 0.492626, 0.209858, 0.490106, 0.208784, 0, 0
0, 3360.00000, 0.49522, 0.210963, 0.492626, 0.209858, 0.490106, 0.208784, 0, 0
0, 3420.00000, 0.49522, 0.210963, 0.492626, 0.209858, 0.490106, 0.208784, 0, 0
0, 3480.00000, 0.49522, 0.210963, 0.492626, 0.209858, 0.490106, 0.208784, 0, 0
0, 3540.00000, 0.49522, 0.210963, 0.492626, 0.209858, 0.490106, 0.208784, 0, 0
1, 0.00000, 0.49522, 0.210963, 0.492626, 0.209858, 0.490106, 0.208784, 0, 0
1, 60.00000, 0.49599, 0.211292, 0.495091, 0.21091, 0.490095, 0.20878, 0, 0
1, 120.00000, 0.495992, 0.211292, 0.495095, 0.210909, 0.490095, 0.208779, 0, 0
1, 180.00000, 0.495992, 0.211292, 0.495095, 0.210909, 0.490095, 0.208779, 0, 0
1, 240.00000, 0.495992, 0.211292, 0.495095, 0.210909, 0.490095, 0.208779, 0, 0
1, 300.00000, 0.495992, 0.211292, 0.495095, 0.210909, 0.490095, 0.208779, 0, 0
1, 360.00000, 0.495992, 0.211292, 0.495095, 0.210909, 0.490095, 0.208779, 0, 0
1, 420.00000, 0.495992, 0.211292, 0.495095, 0.210909, 0.490095, 0.208779, 0, 0
1, 480.00000, 0.495992, 0.211292, 0.495095, 0.210909, 0.490095, 0.208779, 0, 0
1, 540.00000, 0.495992, 0.211292, 0.495095, 0.210909, 0.490095, 0.208779, 0, 0
1, 600.00000, 0.495992, 0.211292, 0.495095, 0.210909, 0.490095, 0.208779, 0, 0
1, 660.00000, 0.495992, 0.211292, 0.495095, 0.210909, 0.490095, 0.208779, 0, 0
1, 720.00000, 0.495992, 0.211292, 0.495095, 0.210909, 0.490095, 0.208779, 0, 0
1, 780.00000, 0.496977, 0.211712, 0.508202, 0.216495, 0.50368, 0.214568, 0, 0
1, 840.00000, 0.496977, 0.211711, 0.508206, 0.216495, 0.503686, 0.214569, 0, 0
1, 900.00000, 0.496977, 0.211711, 0.508206, 0.216495, 0.503686, 0.214569, 0, 0
1, 960.00000, 0.496977, 0.211711, 0.508206, 0.216495, 0.503686, 0.214569, 0, 0
1, 1020.00000, 0.496977, 0.211711, 0.508206, 0.216495, 0.503686, 0.214569, 0, 0
1, 1080.00000, 0.496977, 0.211711, 0.508206, 0.216495, 0.503686, 0.214569, 0, 0
1, 1140.00000, 0.496977, 0.211711, 0.508206, 0.216495, 0.503686, 0.214569, 0, 0
1, 1200.00000, 0.496977, 0.211711, 0.508206, 0.216495, 0.503686, 0.214569, 0, 0
1, 1260.00000, 0.496977, 0.211711, 0.508206, 0.216495, 0.503686, 0.214569, 0, 0
1, 1320.00000, 0.496977, 0.211711, 0.508206, 0.216495, 0.503686, 0.214569, 0, 0
1, 1380.00000, 0.496977, 0.211711, 0.508206, 0.216495, 0.503686, 0.214569, 0, 0
1, 1440.00000, 0.496977, 0.211711, 0.508206, 0.216495, 0.503686, 0.214569, 0, 0
1, 1500.00000, 0.496977, 0.211711, 0.508206, 0.216495, 0.503686, 0.214569, 0, 0
1, 1560.00000, 0.496977, 0.211711, 0.508206, 0.216495, 0.503686, 0.214569, 0, 0
1, 1620.00000, 0.496977, 0.211711, 0.508206, 0.216495, 0.503686, 0.214569, 0, 0
1, 1680.00000, 0.496977, 0.211711, 0.508206, 0.216495, 0.503686, 0.214569, 0, 0
1, 1740.00000, 0.496977, 0.211711, 0.508206, 0.216495, 0.503686, 0.214569, 0, 0
1, 1800.00000, 0.496977, 0.211711, 0.508206, 0.216495, 0.503686, 0.214569, 0, 0
1, 1860.00000, 0.496977, 0.211711, 0.508206, 0.216495, 0.503686, 0.214569, 0, 0
1, 1920.00000, 0.496977, 0.211711, 0.508206, 0.216495, 0.503686, 0.214569, 0, 0
1, 1980.00000, 0.496977, 0.211711, 0.508206, 0.216495, 0.503686, 0.214569, 0, 0
1, 2040.00000, 0.496977, 0.211711, 0.508206, 0.216495, 0.503686, 0.214569, 0, 0
1, 2100.00000, 0.496977, 0.211711, 0.508206, 0.216495, 0.503686, 0.214569, 0, 0
1, 2160.00000, 0.496977, 0.211711, 0.508206, 0.216495, 0.503686, 0.214569, 0, 0
1, 2220.00000, 0.500104, 0.213044, 0.513175, 0.218614, 0.503353, 0.214427, 0, 0
1, 2280.00000, 0.500105, 0.213044, 0.51318, 0.218614, 0.503353, 0.214427, 0, 0
1, 2340.00000, 0.500105, 0.213044, 0.51318, 0.218614, 0.503353, 0.214427, 0, 0
1, 2400.00000, 0.500105, 0.213044, 0.51318, 0.218614, 0.503353, 0.214427, 0, 0
1, 2460.00000, 0.500105, 0.213044, 0.51318, 0.218614, 0.503353, 0.214427, 0, 0
1, 2520.00000, 0.500105, 0.213044, 0.51318, 0.218614, 0.503353, 0.214427, 0, 0
1, 2580.00000, 0.500105, 0.213044, 0.51318, 0.218614, 0.503353, 0.214427, 0, 0
1, 2640.00000, 0.500105, 0.213044, 0.51318, 0.218614, 0.503353, 0.214427, 0, 0
1, 2700.00000, 0.500105, 0.213044, 0.51318, 0.218614, 0.503353, 0.214427, 0, 0
1, 2760.00000, 0.500105, 0.213044, 0.51318, 0.218614, 0.503353, 0.214427, 0, 0
1, 2820.00000, 0.500105, 0.213044, 0.51318, 0.218614, 0.503353, 0.214427, 0, 0
1, 2880.00000, 0.500105, 0.213044, 0.51318, 0.218614, 0.503353, 0.214427, 0, 0
1, 2940.00000, 0.500105, 0.213044, 0.51318, 0.218614, 0.503353, 0.214427, 0, 0
1, 3000.00000, 0.500105, 0.213044, 0.51318, 0.218614, 0.503353, 0.214427, 0, 0
1, 3060.00000, 0.500105, 0.213044, 0.51318, 0.218614, 0.503353, 0.214427, 0, 0
1, 3120.00000, 0.500105, 0.213044, 0.51318, 0.218614, 0.503353, 0.214427, 0, 0
1, 3180.00000, 0.500105, 0.213044, 0.51318, 0.218614, 0.503353, 0.214427, 0, 0
1, 3240.00000, 0.500105, 0.213044, 0.51318, 0.218614, 0.503353, 0.214427, 0, 0
1, 3300.00000, 0.500105, 0.213044, 0.51318, 0.218614, 0.503353, 0.214427, 0, 0
1, 3360.00000, 0.500105, 0.213044, 0.51318, 0.218614, 0.503353, 0.214427, 0, 0
1, 3420.00000, 0.500105, 0.213044, 0.51318, 0.218614, 0.503353, 0.214427, 0, 0
1, 3480.00000, 0.500105, 0.213044, 0.51318, 0.218614, 0.503353, 0.214427, 0, 0
1, 3540.00000, 0.500105, 0.213044, 0.51318, 0.218614, 0.503353, 0.214427, 0, 0
2, 0.00000, 0.500105, 0.213044, 0.51318, 0.218614, 0.503353, 0.214427, 0, 0
2, 60.00000, 0.500105, 0.213044, 0.51318, 0.218614, 0.503353, 0.214427, 0, 0
2, 120.00000, 0.500105, 0.213044, 0.51318, 0.218614, 0.503353, 0.214427, 0, 0
2, 180.00000, 0.500105, 0.213044, 0.51318, 0.218614, 0.503353, 0.214427, 0, 0
2, 240.00000, 0.500105, 0.213044, 0.51318, 0.218614, 0.503353, 0.214427, 0, 0
2, 300.00000, 0.500105, 0.213044, 0.51318, 0.218614, 0.503353, 0.214427, 0, 0
2, 360.00000, 0.500105, 0.213044, 0.51318, 0.218614, 0.503353, 0.214427, 0, 0
2, 420.00000, 0.500105, 0.213044, 0.51318, 0.218614, 0.503353, 0.214427, 0, 0
2, 480.00000, 0.500105, 0.213044, 0.51318, 0.218614, 0.503353, 0.214427, 0, 0
2, 540.00000, 0.500105, 0.213044, 0.51318, 0.218614, 0.503353, 0.214427, 0, 0
2, 600.00000, 0.500105, 0.213044, 0.51318, 0.218614, 0.503353, 0.214427, 0, 0
2, 660.00000, 0.500105, 0.213044, 0.51318, 0.218614, 0.503353, 0.214427, 0, 0
2, 720.00000, 0.500105, 0.213044, 0.51318, 0.218614, 0.503353, 0.214427, 0, 0
2, 780.00000, 0.500105, 0.213044, 0.51318, 0.218614, 0.503353, 0.214427, 0, 0
2, 840.00000, 0.500363, 0.213154, 0.516075, 0.219849, 0.508078, 0.216443, 0, 0
2, 900.00000, 0.500362, 0.213153, 0.516079, 0.219849, 0.508086, 0.216444, 0, 0
2, 960.00000, 0.500362, 0.213153, 0.516079, 0.219849, 0.508086, 0.216444, 0, 0
2, 1020.00000, 0.500362, 0.213153, 0.516079, 0.219849, 0.508086, 0.216444, 0, 0
2, 1080.00000, 0.500362, 0.213153, 0.516079, 0.219849, 0.508086, 0.216444, 0, 0
2, 1140.00000, 0.500362, 0.213153, 0.516079, 0.219849, 0.508086, 0.216444, 0, 0
2, 1200.00000, 0.500362, 0.213153, 0.516079, 0.219849, 0.508086, 0.216444, 0, 0
2, 1260.00000, 0.500362, 0.213153, 0.516079, 0.219849, 0.508086, 0.216444, 0, 0
2, 1320.00000, 0.500362, 0.213153, 0.516079, 0.219849, 0.508086, 0.216444, 0, 0
2, 1380.00000, 0.500362, 0.213153, 0.516079, 0.219849, 0.508086, 0.216444, 0, 0
2, 1440.00000, 0.500362, 0.213153, 0.516079, 0.219849, 0.508086, 0.216444, 0, 0
2, 1500.00000, 0.500362, 0.213153, 0.516079, 0.219849, 0.508086, 0.216444, 0, 0
2, 1560.00000, 0.500362, 0.213153, 0.516079, 0.219849, 0.508086, 0.216444, 0, 0
2, 1620.00000, 0.500362, 0.213153, 0.516079, 0.219849, 0.508086, 0.216444, 0, 0
2, 1680.00000, 0.500362, 0.213153, 0.516079, 0.219849, 0.508086, 0.216444, 0, 0
2, 1740.00000, 0.500362, 0.213153, 0.516079, 0.219849, 0.508086, 0.216444, 0, 0
2, 1800.00000, 0.500362, 0.213153, 0.516079, 0.219849, 0.508086, 0.216444, 0, 0
2, 1860.00000, 0.500362, 0.213153, 0.516079, 0.219849, 0.508086, 0.216444, 0, 0
2, 1920.00000, 0.500362, 0.213153, 0.516079, 0.219849, 0.508086, 0.216444, 0, 0
2, 1980.00000, 0.500362, 0.213153, 0.516079, 0.219849, 0.508086, 0.216444, 0, 0
2, 2040.00000, 0.500362, 0.213153, 0.516079, 0.219849, 0.508086, 0.216444, 0, 0
2, 2100.00000, 0.500362, 0.213153, 0.516079, 0.219849, 0.508086, 0.216444, 0, 0
2, 2160.00000, 0.500362, 0.213153, 0.516079, 0.219849, 0.508086, 0.216444, 0, 0
2, 2220.00000, 0.500362, 0.213153, 0.516079, 0.219849, 0.508086, 0.216444, 0, 0
2, 2280.00000, 0.500362, 0.213153, 0.516079, 0.219849, 0.508086, 0.216444, 0, 0
2, 2340.00000, 0.500362, 0.213153, 0.516079, 0.219849, 0.508086, 0.216444, 0, 0
2, 2400.00000, 0.515068, 0.219422, 0.515731, 0.219702, 0.522054, 0.2224, 0, 0
2, 2460.00000, 0.515079, 0.219423, 0.515728, 0.219699, 0.522072, 0.222402, 0, 0
2, 2520.00000, 0.515079, 0.219423, 0.515728, 0.219699, 0.522072, 0.222402, 0, 0
2, 2580.00000, 0.515079, 0.219423, 0.515728, 0.219699, 0.522072, 0.222402, 0, 0
2, 2640.00000, 0.515079, 0.219423, 0.515728, 0.219699, 0.522072, 0.222402, 0, 0
2, 2700.00000, 0.514781, 0.219296, 0.512478, 0.218314, 0.516661, 0.220093, 0, 0
2, 2760.00000, 0.514782, 0.219296, 0.512476, 0.218314, 0.516647, 0.220091, 0, 0
2, 2820.00000, 0.514782, 0.219296, 0.512476, 0.218314, 0.516647, 0.220091, 0, 0
2, 2880.00000, 0.514782, 0.219296, 0.512476, 0.218314, 0.516647, 0.220091, 0, 0
2, 2940.00000, 0.514782, 0.219296, 0.512476, 0.218314, 0.516647, 0.220091, 0, 0
2, 3000.00000, 0.514782, 0.219296, 0.512476, 0.218314, 0.516647, 0.220091, 0, 0
2, 3060.00000, 0.514791, 0.219301, 0.513286, 0.21866, 0.519335, 0.22124, 0, 0
2, 3120.00000, 0.51479, 0.2193, 0.513288, 0.21866, 0.519348, 0.221241, 0, 0
2, 3180.00000, 0.51479, 0.2193, 0.513288, 0.21866, 0.519348, 0.221241, 0, 0
2, 3240.00000, 0.51479, 0.2193, 0.513288, 0.21866, 0.519348, 0.221241, 0, 0
2, 3300.00000, 0.51479, 0.2193, 0.513288, 0.21866, 0.519348, 0.221241, 0, 0
2, 3360.00000, 0.51479, 0.2193, 0.513288, 0.21866, 0.519348, 0.221241, 0, 0
2, 3420.00000, 0.51479, 0.2193, 0.513288, 0.21866, 0.519348, 0.221241, 0, 0
2, 3480.00000, 0.51479, 0.2193, 0.513288, 0.21866, 0.519348, 0.221241, 0, 0
2, 3540.00000, 0.51479, 0.2193, 0.513288, 0.21866, 0.519348, 0.221241, 0, 0
3, 0.00000, 0.51479, 0.2193, 0.513288, 0.21866, 0.519348, 0.221241, 0, 0
3, 60.00000, 0.51479, 0.2193, 0.513288, 0.21866, 0.519348, 0.221241, 0, 0
3, 120.00000, 0.51479, 0.2193, 0.513288, 0.21866, 0.519348, 0.221241, 0, 0
3, 180.00000, 0.51479, 0.2193, 0.513288, 0.21866, 0.519348, 0.221241, 0, 0
3, 240.00000, 0.51479, 0.2193, 0.513288, 0.21866, 0.519348, 0.221241, 0, 0
3, 300.00000, 0.51479, 0.2193, 0.513288, 0.21866, 0.519348, 0.221241, 0, 0
3, 360.00000, 0.51479, 0.2193, 0.513288, 0.21866, 0.519348, 0.221241, 0, 0
3, 420.00000, 0.51479, 0.2193, 0.513288, 0.21866, 0.519348, 0.221241, 0, 0
3, 480.00000, 0.51479, 0.2193, 0.513288, 0.21866, 0.519348, 0.221241, 0, 0
3, 540.00000, 0.51479, 0.2193, 0.513288, 0.21866, 0.519348, 0.221241, 0, 0
3, 600.00000, 0.51479, 0.2193, 0.513288, 0.21866, 0.519348, 0.221241, 0, 0
3, 660.00000, 0.51479, 0.2193, 0.513288, 0.21866, 0.519348, 0.221241, 0, 0
3, 720.00000, 0.51479, 0.2193, 0.513288, 0.21866, 0.519348, 0.221241, 0, 0
3, 780.00000, 0.51479, 0.2193, 0.513288, 0.21866, 0.519348, 0.221241, 0, 0
3, 840.00000, 0.51479, 0.2193, 0.513288, 0.21866, 0.519348, 0.221241, 0, 0
3, 900.00000, 0.51479, 0.2193, 0.513288, 0.21866, 0.519348, 0.221241, 0, 0
3, 960.00000, 0.51479, 0.2193, 0.513288, 0.21866, 0.519348, 0.221241, 0, 0
3, 1020.00000, 0.51479, 0.2193, 0.513288, 0.21866, 0.519348, 0.221241, 0, 0
3, 1080.00000, 0.51479, 0.2193, 0.513288, 0.21866, 0.519348, 0.221241, 0, 0
3, 1140.00000, 0.51479, 0.2193, 0.513288, 0.21866, 0.519348, 0.221241, 0, 0
3, 1200.00000, 0.51479, 0.2193, 0.513288, 0.21866, 0.519348, 0.221241, 0, 0
3, 1260.00000, 0.51479, 0.2193, 0.513288, 0.21866, 0.519348, 0.221241, 0, 0
3, 1320.00000, 0.51479, 0.2193, 0.513288, 0.21866, 0.519348, 0.221241, 0, 0
3, 1380.00000, 0.51479, 0.2193, 0.513288, 0.21866, 0.519348, 0.221241, 0, 0
3, 1440.00000, 0.51479, 0.2193, 0.513288, 0.21866, 0.519348, 0.221241, 0, 0
3, 1500.00000, 0.51479, 0.2193, 0.513288, 0.21866, 0.519348, 0.221241, 0, 0
3, 1560.00000, 0.51479, 0.2193, 0.513288, 0.21866, 0.519348, 0.221241, 0, 0
3, 1620.00000, 0.51479, 0.2193, 0.513288, 0.21866, 0.519348, 0.221241, 0, 0
3, 1680.00000, 0.51479, 0.2193, 0.513288, 0.21866, 0.519348, 0.221241, 0, 0
3, 1740.00000, 0.51479, 0.2193, 0.513288, 0.21866, 0.519348, 0.221241, 0, 0
3, 1800.00000, 0.51479, 0.2193, 0.513288, 0.21866, 0.519348, 0.221241, 0, 0
3, 1860.00000, 0.51479, 0.2193, 0.513288, 0.21866, 0.519348, 0.221241, 0, 0
3, 1920.00000, 0.51479, 0.2193, 0.513288, 0.21866, 0.519348, 0.221241, 0, 0
3, 1980.00000, 0.51479, 0.2193, 0.513288, 0.21866, 0.519348, 0.221241, 0, 0
3, 2040.00000, 0.51479, 0.2193, 0.513288, 0.21866, 0.519348, 0.221241, 0, 0
3, 2100.00000, 0.51479, 0.2193, 0.513288, 0.21866, 0.519348, 0.221241, 0, 0
3, 2160.00000, 0.51479, 0.2193, 0.513288, 0.21866, 0.519348, 0.221241, 0, 0
3, 2220.00000, 0.51479, 0.2193, 0.513288, 0.21866, 0.519348, 0.221241, 0, 0
3, 2280.00000, 0.51479, 0.2193, 0.513288, 0.21866, 0.519348, 0.221241, 0, 0
3, 2340.00000, 0.51479, 0.2193, 0.513288, 0.21866, 0.519348, 0.221241, 0, 0
3, 2400.00000, 0.51479, 0.2193, 0.513288, 0.21866, 0.519348, 0.221241, 0, 0
3, 2460.00000, 0.51479, 0.2193, 0.513288, 0.21866, 0.519348, 0.221241, 0, 0
3, 2520.00000, 0.51479, 0.2193, 0.513288, 0.21866, 0.519348, 0.221241, 0, 0
3, 2580.00000, 0.51479, 0.2193, 0.513288, 0.21866, 0.519348, 0.221241, 0, 0
3, 2640.00000, 0.51479, 0.2193, 0.513288, 0.21866, 0.519348, 0.221241, 0, 0
3, 2700.00000, 0.51479, 0.2193, 0.513288, 0.21866, 0.519348, 0.221241, 0, 0
3, 2760.00000, 0.51479, 0.2193, 0.513288, 0.21866, 0.519348, 0.221241, 0, 0
3, 2820.00000, 0.51479, 0.2193, 0.513288, 0.21866, 0.519348, 0.221241, 0, 0
3, 2880.00000, 0.51479, 0.2193, 0.513288, 0.21866, 0.519348, 0.221241, 0, 0
3, 2940.00000, 0.51479, 0.2193, 0.513288, 0.21866, 0.519348, 0.221241, 0, 0
3, 3000.00000, 0.51479, 0.2193, 0.513288, 0.21866, 0.519348, 0.221241, 0, 0
3, 3060.00000, 0.51479, 0.2193, 0.513288, 0.21866, 0.519348, 0.221241, 0, 0
3, 3120.00000, 0.51479, 0.2193, 0.513288, 0.21866, 0.519348, 0.221241, 0, 0
3, 3180.00000, 0.542218, 0.230983, 0.540823, 0.230388, 0.54716, 0.233088, 0, 0
3, 3240.00000, 0.542215, 0.230983, 0.540821, 0.230389, 0.547156, 0.233087, 0, 0
3, 3300.00000, 0.542215, 0.230983, 0.540821, 0.230389, 0.547156, 0.233087, 0, 0
3, 3360.00000, 0.542215, 0.230983, 0.540821, 0.230389, 0.547156, 0.233087, 0, 0
3, 3420.00000, 0.542215, 0.230983, 0.540821, 0.230389, 0.547156, 0.233087, 0, 0
3, 3480.00000, 0.542215, 0.230983, 0.540821, 0.230389, 0.547156, 0.233087, 0, 0
3, 3540.00000, 0.542215, 0.230983, 0.540821, 0.230389, 0.547156, 0.233087, 0, 0
4, 0.00000, 0.542121, 0.230942, 0.539434, 0.229796, 0.543758, 0.231638, 0, 0
4, 60.00000, 0.542121, 0.230942, 0.539432, 0.229797, 0.543751, 0.231637, 0, 0
4, 120.00000, 0.542121, 0.230942, 0.539432, 0.229797, 0.543751, 0.231637, 0, 0
4, 180.00000, 0.542121, 0.230942, 0.539432, 0.229797, 0.543751, 0.231637, 0, 0
4, 240.00000, 0.542121, 0.230942, 0.539432, 0.229797, 0.543751, 0.231637, 0, 0
4, 300.00000, 0.542121, 0.230942, 0.539432, 0.229797, 0.543751, 0.231637, 0, 0
4, 360.00000, 0.542121, 0.230942, 0.539432, 0.229797, 0.543751, 0.231637, 0, 0
4, 420.00000, 0.542121, 0.230942, 0.539432, 0.229797, 0.543751, 0.231637, 0, 0
4, 480.00000, 0.542121, 0.230942, 0.539432, 0.229797, 0.543751, 0.231637, 0, 0
4, 540.00000, 0.542121, 0.230942, 0.539432, 0.229797, 0.543751, 0.231637, 0, 0
4, 600.00000, 0.542121, 0.230942, 0.539432, 0.229797, 0.543751, 0.231637, 0, 0
4, 660.00000, 0.542121, 0.230942, 0.539432, 0.229797, 0.543751, 0.231637, 0, 0
4, 720.00000, 0.542121, 0.230942, 0.539432, 0.229797, 0.543751, 0.231637, 0, 0
4, 780.00000, 0.542121, 0.230942, 0.539432, 0.229797, 0.543751, 0.231637, 0, 0
