hour,t(sec),V1,VAngle1,V2,VAngle2,V3,VAngle3,V4,VAngle4,I1,IAngle1,I2,IAngle2,I3,IAngle3,I4,IAngle4
0, 60.00000, 121.191, -31.7731, 120.938, -151.675, 121.74, 88.4012, 0, 0, 9.02848, -54.8467, 9.04732, -174.749, 8.98778, 65.3274, 0.0729887, 35.71
0, 120.00000, 121.191, -31.7731, 120.938, -151.675, 121.74, 88.4011, 0, 0, 9.02854, -54.847, 9.04739, -174.749, 8.98784, 65.3272, 0.0730117, 35.6981
0, 180.00000, 121.191, -31.7731, 120.938, -151.675, 121.74, 88.4011, 0, 0, 9.02854, -54.847, 9.04739, -174.749, 8.98784, 65.3272, 0.0730117, 35.698
0, 240.00000, 121.191, -31.7731, 120.938, -151.675, 121.74, 88.4011, 0, 0, 9.02854, -54.847, 9.04739, -174.749, 8.98784, 65.3272, 0.0730117, 35.698
0, 300.00000, 121.191, -31.7731, 120.938, -151.675, 121.74, 88.4011, 0, 0, 9.02854, -54.847, 9.04739, -174.749, 8.98784, 65.3272, 0.0730117, 35.698
0, 360.00000, 121.191, -31.7731, 120.938, -151.675, 121.74, 88.4011, 0, 0, 9.02854, -54.847, 9.04739, -174.749, 8.98784, 65.3272, 0.0730117, 35.698
0, 420.00000, 121.191, -31.7731, 120.938, -151.675, 121.74, 88.4011, 0, 0, 9.02854, -54.847, 9.04739, -174.749, 8.98784, 65.3272, 0.0730117, 35.698
0, 480.00000, 121.866, -31.6493, 121.576, -151.554, 122.36, 88.5363, 0, 0, 8.11269, -54.7236, 8.13205, -174.629, 8.07993, 65.4622, 0.0651427, 31.5045
0, 540.00000, 121.866, -31.6493, 121.576, -151.554, 122.36, 88.5364, 0, 0, 8.11263, -54.7232, 8.13198, -174.628, 8.07987, 65.4624, 0.0651213, 31.5087
0, 600.00000, 121.866, -31.6493, 121.576, -151.554, 122.36, 88.5364, 0, 0, 8.11263, -54.7232, 8.13198, -174.628, 8.07987, 65.4624, 0.0651212, 31.5087
0, 660.00000, 121.866, -31.6493, 121.576, -151.554, 122.36, 88.5364, 0, 0, 8.11263, -54.7232, 8.13198, -174.628, 8.07987, 65.4624, 0.0651212, 31.5087
0, 720.00000, 121.866, -31.6493, 121.576, -151.554, 122.36, 88.5364, 0, 0, 8.11263, -54.7232, 8.13198, -174.628, 8.07987, 65.4624, 0.0651212, 31.5087
0, 780.00000, 121.866, -31.6493, 121.576, -151.554, 122.36, 88.5364, 0, 0, 8.11263, -54.7232, 8.13198, -174.628, 8.07987, 65.4624, 0.0651212, 31.5087
0, 840.00000, 121.866, -31.6493, 121.576, -151.554, 122.36, 88.5364, 0, 0, 8.11263, -54.7232, 8.13198, -174.628, 8.07987, 65.4624, 0.0651212, 31.5087
0, 900.00000, 121.866, -31.6493, 121.576, -151.554, 122.36, 88.5364, 0, 0, 8.11263, -54.7232, 8.13198, -174.628, 8.07987, 65.4624, 0.0651212, 31.5087
0, 960.00000, 121.536, -31.6789, 121.257, -151.749, 121.734, 88.4318, 0, 0, 8.13459, -54.7523, 8.15335, -174.823, 8.1213, 65.3582, 0.0394868, -3.9817
0, 1020.00000, 121.535, -31.6789, 121.257, -151.749, 121.734, 88.4318, 0, 0, 8.13469, -54.7528, 8.15337, -174.823, 8.12139, 65.3579, 0.0394289, -3.92621
0, 1080.00000, 121.535, -31.6789, 121.257, -151.749, 121.734, 88.4318, 0, 0, 8.13469, -54.7528, 8.15337, -174.823, 8.12139, 65.3579, 0.0394287, -3.92589
0, 1140.00000, 121.834, -31.6424, 121.257, -151.748, 121.828, 88.5636, 0, 0, 8.11485, -54.7166, 8.15334, -174.822, 8.1152, 65.4896, 0.0703019, -19.8913
0, 1200.00000, 121.834, -31.6424, 121.257, -151.748, 121.828, 88.5636, 0, 0, 8.11478, -54.7163, 8.15334, -174.822, 8.11517, 65.4897, 0.0703402, -19.926
0, 1260.00000, 121.834, -31.6424, 121.257, -151.748, 121.828, 88.5636, 0, 0, 8.11478, -54.7163, 8.15334, -174.822, 8.11517, 65.4897, 0.0703404, -19.9261
0, 1320.00000, 121.834, -31.6424, 121.257, -151.748, 121.828, 88.5636, 0, 0, 8.11478, -54.7163, 8.15334, -174.822, 8.11517, 65.4897, 0.0703404, -19.9261
0, 1380.00000, 121.834, -31.6424, 121.257, -151.748, 121.828, 88.5636, 0, 0, 8.11478, -54.7163, 8.15334, -174.822, 8.11517, 65.4897, 0.0703404, -19.9261
0, 1440.00000, 121.834, -31.6424, 121.257, -151.748, 121.828, 88.5636, 0, 0, 8.11478, -54.7163, 8.15334, -174.822, 8.11517, 65.4897, 0.0703404, -19.9261
0, 1500.00000, 121.834, -31.6424, 121.257, -151.748, 121.828, 88.5636, 0, 0, 8.11478, -54.7163, 8.15334, -174.822, 8.11517, 65.4897, 0.0703404, -19.9261
0, 1560.00000, 121.834, -31.6424, 121.257, -151.748, 121.828, 88.5636, 0, 0, 8.11478, -54.7163, 8.15334, -174.822, 8.11517, 65.4897, 0.0703404, -19.9261
0, 1620.00000, 121.834, -31.6424, 121.257, -151.748, 121.828, 88.5636, 0, 0, 8.11478, -54.7163, 8.15334, -174.822, 8.11517, 65.4897, 0.0703404, -19.9261
0, 1680.00000, 121.834, -31.6424, 121.257, -151.748, 121.828, 88.5636, 0, 0, 8.11478, -54.7163, 8.15334, -174.822, 8.11517, 65.4897, 0.0703404, -19.9261
0, 1740.00000, 121.834, -31.6424, 121.257, -151.748, 121.828, 88.5636, 0, 0, 8.11478, -54.7163, 8.15334, -174.822, 8.11517, 65.4897, 0.0703404, -19.9261
0, 1800.00000, 121.471, -31.847, 120.695, -151.71, 121.87, 88.5558, 0, 0, 8.13897, -54.9208, 8.19129, -174.783, 8.11234, 65.4818, 0.115964, 12.2044
0, 1860.00000, 121.471, -31.847, 120.695, -151.71, 121.87, 88.5558, 0, 0, 8.139, -54.9209, 8.19132, -174.783, 8.11233, 65.4818, 0.116013, 12.211
0, 1920.00000, 121.471, -31.847, 120.695, -151.71, 121.87, 88.5558, 0, 0, 8.139, -54.9209, 8.19132, -174.783, 8.11233, 65.4818, 0.116013, 12.2111
0, 1980.00000, 121.471, -31.847, 120.695, -151.71, 121.87, 88.5558, 0, 0, 8.139, -54.9209, 8.19132, -174.783, 8.11233, 65.4818, 0.116013, 12.2111
0, 2040.00000, 121.471, -31.847, 120.695, -151.71, 121.87, 88.5558, 0, 0, 8.139, -54.9209, 8.19132, -174.783, 8.11233, 65.4818, 0.116013, 12.2111
0, 2100.00000, 121.471, -31.847, 120.695, -151.71, 121.87, 88.5558, 0, 0, 8.139, -54.9209, 8.19132, -174.783, 8.11233, 65.4818, 0.116013, 12.2111
0, 2160.00000, 121.471, -31.847, 120.695, -151.71, 121.87, 88.5558, 0, 0, 8.139, -54.9209, 8.19132, -174.783, 8.11233, 65.4818, 0.116013, 12.2111
0, 2220.00000, 121.471, -31.847, 120.695, -151.71, 121.87, 88.5558, 0, 0, 8.139, -54.9209, 8.19132, -174.783, 8.11233, 65.4818, 0.116013, 12.2111
0, 2280.00000, 121.471, -31.847, 120.695, -151.71, 121.87, 88.5558, 0, 0, 8.139, -54.9209, 8.19132, -174.783, 8.11233, 65.4818, 0.116013, 12.2111
0, 2340.00000, 121.471, -31.847, 120.695, -151.71, 121.87, 88.5558, 0, 0, 8.139, -54.9209, 8.19132, -174.783, 8.11233, 65.4818, 0.116013, 12.2111
0, 2400.00000, 121.471, -31.847, 120.695, -151.71, 121.87, 88.5558, 0, 0, 8.139, -54.9209, 8.19132, -174.783, 8.11233, 65.4818, 0.116013, 12.2111
0, 2460.00000, 121.471, -31.847, 120.695, -151.71, 121.87, 88.5558, 0, 0, 8.139, -54.9209, 8.19132, -174.783, 8.11233, 65.4818, 0.116013, 12.2111
0, 2520.00000, 121.471, -31.847, 120.695, -151.71, 121.87, 88.5558, 0, 0, 8.139, -54.9209, 8.19132, -174.783, 8.11233, 65.4818, 0.116013, 12.2111
0, 2580.00000, 121.471, -31.847, 120.695, -151.71, 121.87, 88.5558, 0, 0, 8.139, -54.9209, 8.19132, -174.783, 8.11233, 65.4818, 0.116013, 12.2111
0, 2640.00000, 121.471, -31.847, 120.695, -151.71, 121.87, 88.5558, 0, 0, 8.139, -54.9209, 8.19132, -174.783, 8.11233, 65.4818, 0.116013, 12.2111
0, 2700.00000, 121.471, -31.847, 120.695, -151.71, 121.87, 88.5558, 0, 0, 8.139, -54.9209, 8.19132, -174.783, 8.11233, 65.4818, 0.116013, 12.2111
0, 2760.00000, 121.571, -31.7131, 120.998, -151.678, 121.866, 88.5574, 0, 0, 8.13233, -54.7872, 8.17085, -174.752, 8.11263, 65.4835, 0.0816656, 7.31621
0, 2820.00000, 121.571, -31.7131, 120.998, -151.678, 121.866, 88.5574, 0, 0, 8.13229, -54.787, 8.17078, -174.752, 8.11265, 65.4835, 0.0815878, 7.30948
0, 2880.00000, 121.571, -31.7131, 120.998, -151.678, 121.866, 88.5574, 0, 0, 8.13229, -54.787, 8.17078, -174.752, 8.11265, 65.4835, 0.0815875, 7.30942
0, 2940.00000, 121.571, -31.7131, 120.998, -151.678, 121.866, 88.5574, 0, 0, 8.13229, -54.787, 8.17078, -174.752, 8.11265, 65.4835, 0.0815875, 7.30942
0, 3000.00000, 121.571, -31.7131, 120.998, -151.678, 121.866, 88.5574, 0, 0, 8.13229, -54.787, 8.17078, -174.752, 8.11265, 65.4835, 0.0815875, 7.30942
0, 3060.00000, 121.571, -31.7131, 120.998, -151.678, 121.866, 88.5574, 0, 0, 8.13229, -54.787, 8.17078, -174.752, 8.11265, 65.4835, 0.0815875, 7.30942
0, 3120.00000, 121.571, -31.7131, 120.998, -151.678, 121.866, 88.5574, 0, 0, 8.13229, -54.787, 8.17078, -174.752, 8.11265, 65.4835, 0.0815875, 7.30942
0, 3180.00000, 121.571, -31.7131, 120.998, -151.678, 121.866, 88.5574, 0, 0, 8.13229, -54.787, 8.17078, -174.752, 8.11265, 65.4835, 0.0815875, 7.30942
0, 3240.00000, 121.571, -31.7131, 120.998, -151.678, 121.866, 88.5574, 0, 0, 8.13229, -54.787, 8.17078, -174.752, 8.11265, 65.4835, 0.0815875, 7.30942
0, 3300.00000, 121.571, -31.7131, 120.998, -151.678, 121.866, 88.5574, 0, 0, 8.13229, -54.787, 8.17078, -174.752, 8.11265, 65.4835, 0.0815875, 7.30942
0, 3360.00000, 121.571, -31.7131, 120.998, -151.678, 121.866, 88.5574, 0, 0, 8.13229, -54.787, 8.17078, -174.752, 8.11265, 65.4835, 0.0815875, 7.30942
0, 3420.00000, 121.571, -31.7131, 120.998, -151.678, 121.866, 88.5574, 0, 0, 8.13229, -54.787, 8.17078, -174.752, 8.11265, 65.4835, 0.0815875, 7.30942
0, 3480.00000, 121.571, -31.7131, 120.998, -151.678, 121.866, 88.5574, 0, 0, 8.13229, -54.787, 8.17078, -174.752, 8.11265, 65.4835, 0.0815875, 7.30942
0, 3540.00000, 121.571, -31.7131, 120.998, -151.678, 121.866, 88.5574, 0, 0, 8.13229, -54.787, 8.17078, -174.752, 8.11265, 65.4835, 0.0815875, 7.30942
1, 0.00000, 121.571, -31.7131, 120.998, -151.678, 121.866, 88.5574, 0, 0, 8.13229, -54.787, 8.17078, -174.752, 8.11265, 65.4835, 0.0815875, 7.30942
1, 60.00000, 121.66, -31.5846, 121.287, -151.645, 121.863, 88.5586, 0, 0, 8.12636, -54.6586, 8.15139, -174.719, 8.1128, 65.4847, 0.0498734, -2.64348
1, 120.00000, 121.66, -31.5846, 121.287, -151.645, 121.863, 88.5586, 0, 0, 8.12634, -54.6585, 8.15133, -174.718, 8.11281, 65.4847, 0.0498153, -2.64881
1, 180.00000, 121.66, -31.5846, 121.287, -151.645, 121.863, 88.5586, 0, 0, 8.12634, -54.6585, 8.15133, -174.718, 8.11281, 65.4847, 0.0498151, -2.64887
1, 240.00000, 121.66, -31.5846, 121.287, -151.645, 121.863, 88.5586, 0, 0, 8.12634, -54.6585, 8.15133, -174.718, 8.11281, 65.4847, 0.0498151, -2.64887
1, 300.00000, 121.66, -31.5846, 121.287, -151.645, 121.863, 88.5586, 0, 0, 8.12634, -54.6585, 8.15133, -174.718, 8.11281, 65.4847, 0.0498151, -2.64887
1, 360.00000, 121.66, -31.5846, 121.287, -151.645, 121.863, 88.5586, 0, 0, 8.12634, -54.6585, 8.15133, -174.718, 8.11281, 65.4847, 0.0498151, -2.64887
1, 420.00000, 121.66, -31.5846, 121.287, -151.645, 121.863, 88.5586, 0, 0, 8.12634, -54.6585, 8.15133, -174.718, 8.11281, 65.4847, 0.0498151, -2.64887
1, 480.00000, 121.66, -31.5846, 121.287, -151.645, 121.863, 88.5586, 0, 0, 8.12634, -54.6585, 8.15133, -174.718, 8.11281, 65.4847, 0.0498151, -2.64887
1, 540.00000, 121.66, -31.5846, 121.287, -151.645, 121.863, 88.5586, 0, 0, 8.12634, -54.6585, 8.15133, -174.718, 8.11281, 65.4847, 0.0498151, -2.64887
1, 600.00000, 121.66, -31.5846, 121.287, -151.645, 121.863, 88.5586, 0, 0, 8.12634, -54.6585, 8.15133, -174.718, 8.11281, 65.4847, 0.0498151, -2.64887
1, 660.00000, 121.66, -31.5846, 121.287, -151.645, 121.863, 88.5586, 0, 0, 8.12634, -54.6585, 8.15133, -174.718, 8.11281, 65.4847, 0.0498151, -2.64887
1, 720.00000, 121.66, -31.5846, 121.287, -151.645, 121.863, 88.5586, 0, 0, 8.12634, -54.6585, 8.15133, -174.718, 8.11281, 65.4847, 0.0498151, -2.64887
1, 780.00000, 121.697, -31.59, 121.659, -151.437, 122.44, 88.5171, 0, 0, 8.1239, -54.6639, 8.12643, -174.511, 8.07468, 65.443, 0.0695038, 60.0396
1, 840.00000, 121.697, -31.59, 121.659, -151.437, 122.44, 88.5171, 0, 0, 8.12391, -54.6639, 8.1264, -174.511, 8.07462, 65.4432, 0.0695681, 60.0545
1, 900.00000, 121.697, -31.59, 121.659, -151.437, 122.44, 88.5171, 0, 0, 8.12391, -54.6639, 8.1264, -174.511, 8.07462, 65.4432, 0.0695684, 60.0546
1, 960.00000, 121.697, -31.59, 121.659, -151.437, 122.44, 88.5171, 0, 0, 8.12391, -54.6639, 8.1264, -174.511, 8.07462, 65.4432, 0.0695684, 60.0546
1, 1020.00000, 121.697, -31.59, 121.659, -151.437, 122.44, 88.5171, 0, 0, 8.12391, -54.6639, 8.1264, -174.511, 8.07462, 65.4432, 0.0695684, 60.0546
1, 1080.00000, 121.697, -31.59, 121.659, -151.437, 122.44, 88.5171, 0, 0, 8.12391, -54.6639, 8.1264, -174.511, 8.07462, 65.4432, 0.0695684, 60.0546
1, 1140.00000, 121.697, -31.59, 121.659, -151.437, 122.44, 88.5171, 0, 0, 8.12391, -54.6639, 8.1264, -174.511, 8.07462, 65.4432, 0.0695684, 60.0546
1, 1200.00000, 121.697, -31.59, 121.659, -151.437, 122.44, 88.5171, 0, 0, 8.12391, -54.6639, 8.1264, -174.511, 8.07462, 65.4432, 0.0695684, 60.0546
1, 1260.00000, 121.697, -31.59, 121.659, -151.437, 122.44, 88.5171, 0, 0, 8.12391, -54.6639, 8.1264, -174.511, 8.07462, 65.4432, 0.0695684, 60.0546
1, 1320.00000, 121.697, -31.59, 121.659, -151.437, 122.44, 88.5171, 0, 0, 8.12391, -54.6639, 8.1264, -174.511, 8.07462, 65.4432, 0.0695684, 60.0546
1, 1380.00000, 121.697, -31.59, 121.659, -151.437, 122.44, 88.5171, 0, 0, 8.12391, -54.6639, 8.1264, -174.511, 8.07462, 65.4432, 0.0695684, 60.0546
1, 1440.00000, 121.697, -31.59, 121.659, -151.437, 122.44, 88.5171, 0, 0, 8.12391, -54.6639, 8.1264, -174.511, 8.07462, 65.4432, 0.0695684, 60.0546
1, 1500.00000, 121.697, -31.59, 121.659, -151.437, 122.44, 88.5171, 0, 0, 8.12391, -54.6639, 8.1264, -174.511, 8.07462, 65.4432, 0.0695684, 60.0546
1, 1560.00000, 121.697, -31.59, 121.659, -151.437, 122.44, 88.5171, 0, 0, 8.12391, -54.6639, 8.1264, -174.511, 8.07462, 65.4432, 0.0695684, 60.0546
1, 1620.00000, 121.697, -31.59, 121.659, -151.437, 122.44, 88.5171, 0, 0, 8.12391, -54.6639, 8.1264, -174.511, 8.07462, 65.4432, 0.0695684, 60.0546
1, 1680.00000, 121.697, -31.59, 121.659, -151.437, 122.44, 88.5171, 0, 0, 8.12391, -54.6639, 8.1264, -174.511, 8.07462, 65.4432, 0.0695684, 60.0546
1, 1740.00000, 121.697, -31.59, 121.659, -151.437, 122.44, 88.5171, 0, 0, 8.12391, -54.6639, 8.1264, -174.511, 8.07462, 65.4432, 0.0695684, 60.0546
1, 1800.00000, 121.697, -31.59, 121.659, -151.437, 122.44, 88.5171, 0, 0, 8.12391, -54.6639, 8.1264, -174.511, 8.07462, 65.4432, 0.0695684, 60.0546
1, 1860.00000, 121.697, -31.59, 121.659, -151.437, 122.44, 88.5171, 0, 0, 8.12391, -54.6639, 8.1264, -174.511, 8.07462, 65.4432, 0.0695684, 60.0546
1, 1920.00000, 121.697, -31.59, 121.659, -151.437, 122.44, 88.5171, 0, 0, 8.12391, -54.6639, 8.1264, -174.511, 8.07462, 65.4432, 0.0695684, 60.0546
1, 1980.00000, 121.697, -31.59, 121.659, -151.437, 122.44, 88.5171, 0, 0, 8.12391, -54.6639, 8.1264, -174.511, 8.07462, 65.4432, 0.0695684, 60.0546
1, 2040.00000, 121.697, -31.59, 121.659, -151.437, 122.44, 88.5171, 0, 0, 8.12391, -54.6639, 8.1264, -174.511, 8.07462, 65.4432, 0.0695684, 60.0546
1, 2100.00000, 121.697, -31.59, 121.659, -151.437, 122.44, 88.5171, 0, 0, 8.12391, -54.6639, 8.1264, -174.511, 8.07462, 65.4432, 0.0695684, 60.0546
1, 2160.00000, 121.697, -31.59, 121.659, -151.437, 122.44, 88.5171, 0, 0, 8.12391, -54.6639, 8.1264, -174.511, 8.07462, 65.4432, 0.0695684, 60.0546
1, 2220.00000, 122.059, -31.3846, 122.227, -151.475, 122.398, 88.5243, 0, 0, 8.0998, -54.4585, 8.08873, -174.549, 8.07737, 65.4504, 0.0170646, 135.547
1, 2280.00000, 122.059, -31.3846, 122.227, -151.475, 122.398, 88.5243, 0, 0, 8.09979, -54.4585, 8.08869, -174.549, 8.07738, 65.4504, 0.0171071, 135.647
1, 2340.00000, 122.059, -31.3846, 122.227, -151.475, 122.398, 88.5243, 0, 0, 8.09979, -54.4585, 8.08869, -174.549, 8.07738, 65.4504, 0.0171073, 135.647
1, 2400.00000, 122.059, -31.3846, 122.227, -151.475, 122.398, 88.5243, 0, 0, 8.09979, -54.4585, 8.08869, -174.549, 8.07738, 65.4504, 0.0171073, 135.647
1, 2460.00000, 122.059, -31.3846, 122.227, -151.475, 122.398, 88.5243, 0, 0, 8.09979, -54.4585, 8.08869, -174.549, 8.07738, 65.4504, 0.0171073, 135.647
1, 2520.00000, 122.059, -31.3846, 122.227, -151.475, 122.398, 88.5243, 0, 0, 8.09979, -54.4585, 8.08869, -174.549, 8.07738, 65.4504, 0.0171073, 135.647
1, 2580.00000, 122.059, -31.3846, 122.227, -151.475, 122.398, 88.5243, 0, 0, 8.09979, -54.4585, 8.08869, -174.549, 8.07738, 65.4504, 0.0171073, 135.647
1, 2640.00000, 122.059, -31.3846, 122.227, -151.475, 122.398, 88.5243, 0, 0, 8.09979, -54.4585, 8.08869, -174.549, 8.07738, 65.4504, 0.0171073, 135.647
1, 2700.00000, 122.059, -31.3846, 122.227, -151.475, 122.398, 88.5243, 0, 0, 8.09979, -54.4585, 8.08869, -174.549, 8.07738, 65.4504, 0.0171073, 135.647
1, 2760.00000, 122.059, -31.3846, 122.227, -151.475, 122.398, 88.5243, 0, 0, 8.09979, -54.4585, 8.08869, -174.549, 8.07738, 65.4504, 0.0171073, 135.647
1, 2820.00000, 122.059, -31.3846, 122.227, -151.475, 122.398, 88.5243, 0, 0, 8.09979, -54.4585, 8.08869, -174.549, 8.07738, 65.4504, 0.0171073, 135.647
1, 2880.00000, 122.059, -31.3846, 122.227, -151.475, 122.398, 88.5243, 0, 0, 8.09979, -54.4585, 8.08869, -174.549, 8.07738, 65.4504, 0.0171073, 135.647
1, 2940.00000, 122.059, -31.3846, 122.227, -151.475, 122.398, 88.5243, 0, 0, 8.09979, -54.4585, 8.08869, -174.549, 8.07738, 65.4504, 0.0171073, 135.647
1, 3000.00000, 122.059, -31.3846, 122.227, -151.475, 122.398, 88.5243, 0, 0, 8.09979, -54.4585, 8.08869, -174.549, 8.07738, 65.4504, 0.0171073, 135.647
1, 3060.00000, 122.059, -31.3846, 122.227, -151.475, 122.398, 88.5243, 0, 0, 8.09979, -54.4585, 8.08869, -174.549, 8.07738, 65.4504, 0.0171073, 135.647
1, 3120.00000, 122.059, -31.3846, 122.227, -151.475, 122.398, 88.5243, 0, 0, 8.09979, -54.4585, 8.08869, -174.549, 8.07738, 65.4504, 0.0171073, 135.647
1, 3180.00000, 122.059, -31.3846, 122.227, -151.475, 122.398, 88.5243, 0, 0, 8.09979, -54.4585, 8.08869, -174.549, 8.07738, 65.4504, 0.0171073, 135.647
1, 3240.00000, 122.059, -31.3846, 122.227, -151.475, 122.398, 88.5243, 0, 0, 8.09979, -54.4585, 8.08869, -174.549, 8.07738, 65.4504, 0.0171073, 135.647
1, 3300.00000, 122.059, -31.3846, 122.227, -151.475, 122.398, 88.5243, 0, 0, 8.09979, -54.4585, 8.08869, -174.549, 8.07738, 65.4504, 0.0171073, 135.647
1, 3360.00000, 122.059, -31.3846, 122.227, -151.475, 122.398, 88.5243, 0, 0, 8.09979, -54.4585, 8.08869, -174.549, 8.07738, 65.4504, 0.0171073, 135.647
1, 3420.00000, 122.059, -31.3846, 122.227, -151.475, 122.398, 88.5243, 0, 0, 8.09979, -54.4585, 8.08869, -174.549, 8.07738, 65.4504, 0.0171073, 135.647
1, 3480.00000, 122.059, -31.3846, 122.227, -151.475, 122.398, 88.5243, 0, 0, 8.09979, -54.4585, 8.08869, -174.549, 8.07738, 65.4504, 0.0171073, 135.647
1, 3540.00000, 122.059, -31.3846, 122.227, -151.475, 122.398, 88.5243, 0, 0, 8.09979, -54.4585, 8.08869, -174.549, 8.07738, 65.4504, 0.0171073, 135.647
2, 0.00000, 122.059, -31.3846, 122.227, -151.475, 122.398, 88.5243, 0, 0, 8.09979, -54.4585, 8.08869, -174.549, 8.07738, 65.4504, 0.0171073, 135.647
2, 60.00000, 122.059, -31.3846, 122.227, -151.475, 122.398, 88.5243, 0, 0, 8.09979, -54.4585, 8.08869, -174.549, 8.07738, 65.4504, 0.0171073, 135.647
2, 120.00000, 122.059, -31.3846, 122.227, -151.475, 122.398, 88.5243, 0, 0, 8.09979, -54.4585, 8.08869, -174.549, 8.07738, 65.4504, 0.0171073, 135.647
2, 180.00000, 122.059, -31.3846, 122.227, -151.475, 122.398, 88.5243, 0, 0, 8.09979, -54.4585, 8.08869, -174.549, 8.07738, 65.4504, 0.0171073, 135.647
2, 240.00000, 122.059, -31.3846, 122.227, -151.475, 122.398, 88.5243, 0, 0, 8.09979, -54.4585, 8.08869, -174.549, 8.07738, 65.4504, 0.0171073, 135.647
2, 300.00000, 122.059, -31.3846, 122.227, -151.475, 122.398, 88.5243, 0, 0, 8.09979, -54.4585, 8.08869, -174.549, 8.07738, 65.4504, 0.0171073, 135.647
2, 360.00000, 122.059, -31.3846, 122.227, -151.475, 122.398, 88.5243, 0, 0, 8.09979, -54.4585, 8.08869, -174.549, 8.07738, 65.4504, 0.0171073, 135.647
2, 420.00000, 122.059, -31.3846, 122.227, -151.475, 122.398, 88.5243, 0, 0, 8.09979, -54.4585, 8.08869, -174.549, 8.07738, 65.4504, 0.0171073, 135.647
2, 480.00000, 122.059, -31.3846, 122.227, -151.475, 122.398, 88.5243, 0, 0, 8.09979, -54.4585, 8.08869, -174.549, 8.07738, 65.4504, 0.0171073, 135.647
2, 540.00000, 122.059, -31.3846, 122.227, -151.475, 122.398, 88.5243, 0, 0, 8.09979, -54.4585, 8.08869, -174.549, 8.07738, 65.4504, 0.0171073, 135.647
2, 600.00000, 122.059, -31.3846, 122.227, -151.475, 122.398, 88.5243, 0, 0, 8.09979, -54.4585, 8.08869, -174.549, 8.07738, 65.4504, 0.0171073, 135.647
2, 660.00000, 122.059, -31.3846, 122.227, -151.475, 122.398, 88.5243, 0, 0, 8.09979, -54.4585, 8.08869, -174.549, 8.07738, 65.4504, 0.0171073, 135.647
2, 720.00000, 122.059, -31.3846, 122.227, -151.475, 122.398, 88.5243, 0, 0, 8.09979, -54.4585, 8.08869, -174.549, 8.07738, 65.4504, 0.0171073, 135.647
