hour,t(sec),V1,VAngle1,V2,VAngle2,V3,VAngle3,V4,VAngle4,I1,IAngle1,I2,IAngle2,I3,IAngle3,I4,IAngle4
0, 60.00000, 119.133, -33.9746, 119.556, -151.119, 125.53, 87.3538, 0, 0, 7.69369, -57.0485, 7.72368, -174.193, 7.50123, 64.2811, 0.537959, 63.0257
0, 120.00000, 119.127, -34.0015, 119.555, -151.12, 125.583, 87.3379, 0, 0, 7.69318, -57.0754, 7.72362, -174.193, 7.49805, 64.2652, 0.54386, 63.0164
0, 180.00000, 119.12, -34.0257, 119.554, -151.12, 125.63, 87.3236, 0, 0, 7.69272, -57.0996, 7.72357, -174.194, 7.4952, 64.2508, 0.549162, 63.0082
0, 240.00000, 119.115, -34.0475, 119.554, -151.121, 125.673, 87.3107, 0, 0, 7.6923, -57.1214, 7.72353, -174.194, 7.49264, 64.2378, 0.553931, 63.0007
0, 300.00000, 119.11, -34.0671, 119.553, -151.121, 125.711, 87.2991, 0, 0, 7.69192, -57.141, 7.72348, -174.195, 7.49033, 64.2261, 0.55822, 62.9938
0, 360.00000, 119.105, -34.0848, 119.553, -151.121, 125.745, 87.2887, 0, 0, 7.69158, -57.1587, 7.72345, -174.195, 7.48826, 64.2155, 0.56208, 62.9875
0, 420.00000, 119.101, -34.1007, 119.552, -151.122, 125.776, 87.2792, 0, 0, 7.69127, -57.1746, 7.72341, -174.195, 7.4864, 64.206, 0.565553, 62.9817
0, 480.00000, 119.885, -34.007, 120.301, -151.024, 126.701, 87.3982, 0, 0, 8.12966, -57.0808, 8.1608, -174.097, 7.79841, 64.325, 0.711517, 63.2153
0, 540.00000, 119.882, -34.02, 120.301, -151.024, 126.726, 87.3905, 0, 0, 8.12939, -57.0938, 8.16078, -174.097, 7.79684, 64.3172, 0.714474, 63.2099
0, 600.00000, 119.879, -34.0317, 120.3, -151.024, 126.749, 87.3836, 0, 0, 8.12916, -57.1055, 8.16075, -174.098, 7.79544, 64.3102, 0.717131, 63.2052
0, 660.00000, 119.876, -34.0422, 120.3, -151.024, 126.769, 87.3773, 0, 0, 8.12894, -57.116, 8.16073, -174.098, 7.79419, 64.3039, 0.719521, 63.201
0, 720.00000, 119.873, -34.0517, 120.3, -151.024, 126.787, 87.3717, 0, 0, 8.12875, -57.1255, 8.16071, -174.098, 7.79305, 64.2982, 0.721672, 63.1971
0, 780.00000, 119.871, -34.0602, 120.3, -151.024, 126.804, 87.3666, 0, 0, 8.12857, -57.1341, 8.16069, -174.098, 7.79203, 64.2931, 0.723607, 63.1936
0, 840.00000, 119.869, -34.0679, 120.299, -151.024, 126.818, 87.3621, 0, 0, 8.12842, -57.1417, 8.16068, -174.098, 7.79112, 64.2885, 0.725348, 63.1905
0, 900.00000, 119.868, -34.0748, 120.299, -151.025, 126.832, 87.3579, 0, 0, 8.12827, -57.1487, 8.16066, -174.098, 7.79029, 64.2844, 0.726915, 63.1876
0, 960.00000, 119.866, -34.081, 120.299, -151.025, 126.844, 87.3542, 0, 0, 8.12815, -57.1549, 8.16065, -174.098, 7.78955, 64.2806, 0.728325, 63.185
0, 1020.00000, 119.865, -34.0866, 120.299, -151.025, 126.854, 87.3509, 0, 0, 8.12803, -57.1605, 8.16064, -174.099, 7.78888, 64.2773, 0.729594, 63.1827
0, 1080.00000, 119.863, -34.0917, 120.299, -151.025, 126.864, 87.3479, 0, 0, 8.12793, -57.1655, 8.16063, -174.099, 7.78828, 64.2743, 0.730735, 63.1806
0, 1140.00000, 119.862, -34.0962, 120.299, -151.025, 126.873, 87.3452, 0, 0, 8.12783, -57.1701, 8.16062, -174.099, 7.78774, 64.2715, 0.731762, 63.1787
0, 1200.00000, 119.861, -34.1003, 120.298, -151.025, 126.881, 87.3428, 0, 0, 8.12775, -57.1742, 8.16061, -174.099, 7.78725, 64.2691, 0.732687, 63.177
0, 1260.00000, 119.86, -34.104, 120.298, -151.025, 126.888, 87.3406, 0, 0, 8.12767, -57.1778, 8.1606, -174.099, 7.78682, 64.2669, 0.733519, 63.1755
0, 1320.00000, 119.859, -34.1073, 120.298, -151.025, 126.894, 87.3386, 0, 0, 8.1276, -57.1812, 8.16059, -174.099, 7.78642, 64.2649, 0.734267, 63.1741
0, 1380.00000, 119.858, -34.1102, 120.298, -151.025, 126.9, 87.3369, 0, 0, 8.12754, -57.1841, 8.16059, -174.099, 7.78607, 64.2631, 0.734941, 63.1728
0, 1440.00000, 119.858, -34.1129, 120.298, -151.025, 126.905, 87.3353, 0, 0, 8.12749, -57.1868, 8.16058, -174.099, 7.78575, 64.2615, 0.735547, 63.1717
0, 1500.00000, 119.857, -34.1153, 120.298, -151.025, 126.91, 87.3338, 0, 0, 8.12744, -57.1892, 8.16058, -174.099, 7.78546, 64.26, 0.736093, 63.1707
0, 1560.00000, 119.857, -34.1175, 120.298, -151.025, 126.914, 87.3325, 0, 0, 8.12739, -57.1914, 8.16057, -174.099, 7.7852, 64.2587, 0.736584, 63.1698
0, 1620.00000, 119.856, -34.1195, 120.298, -151.025, 126.917, 87.3314, 0, 0, 8.12735, -57.1934, 8.16057, -174.099, 7.78497, 64.2576, 0.737026, 63.169
0, 1680.00000, 119.856, -34.1212, 120.298, -151.025, 126.921, 87.3303, 0, 0, 8.12731, -57.1951, 8.16056, -174.099, 7.78476, 64.2565, 0.737423, 63.1682
0, 1740.00000, 119.855, -34.1228, 120.298, -151.025, 126.924, 87.3294, 0, 0, 8.12728, -57.1967, 8.16056, -174.099, 7.78457, 64.2556, 0.737781, 63.1676
0, 1800.00000, 119.855, -34.1242, 120.298, -151.025, 126.927, 87.3285, 0, 0, 8.12725, -57.1981, 8.16056, -174.099, 7.78441, 64.2547, 0.738103, 63.167
0, 1860.00000, 119.854, -34.1255, 120.298, -151.025, 126.929, 87.3278, 0, 0, 8.12722, -57.1994, 8.16056, -174.099, 7.78425, 64.2539, 0.738393, 63.1664
0, 1920.00000, 119.854, -34.1267, 120.298, -151.025, 126.931, 87.3271, 0, 0, 8.1272, -57.2006, 8.16055, -174.099, 7.78412, 64.2532, 0.738654, 63.1659
0, 1980.00000, 119.854, -34.1277, 120.298, -151.025, 126.933, 87.3265, 0, 0, 8.12718, -57.2016, 8.16055, -174.099, 7.78399, 64.2526, 0.738889, 63.1655
0, 2040.00000, 119.854, -34.1286, 120.298, -151.025, 126.935, 87.3259, 0, 0, 8.12716, -57.2025, 8.16055, -174.099, 7.78388, 64.252, 0.7391, 63.1651
0, 2100.00000, 119.853, -34.1295, 120.298, -151.025, 126.937, 87.3254, 0, 0, 8.12714, -57.2034, 8.16055, -174.099, 7.78378, 64.2515, 0.73929, 63.1647
0, 2160.00000, 119.853, -34.1302, 120.298, -151.025, 126.938, 87.325, 0, 0, 8.12713, -57.2041, 8.16055, -174.099, 7.78369, 64.2511, 0.739461, 63.1644
0, 2220.00000, 119.853, -34.1309, 120.298, -151.025, 126.939, 87.3246, 0, 0, 8.12711, -57.2048, 8.16054, -174.099, 7.78361, 64.2507, 0.739615, 63.1641
0, 2280.00000, 119.853, -34.1315, 120.298, -151.025, 126.941, 87.3242, 0, 0, 8.1271, -57.2054, 8.16054, -174.099, 7.78354, 64.2503, 0.739754, 63.1639
0, 2340.00000, 119.853, -34.1321, 120.298, -151.025, 126.942, 87.3239, 0, 0, 8.12709, -57.206, 8.16054, -174.099, 7.78347, 64.25, 0.739879, 63.1636
0, 2400.00000, 119.853, -34.1326, 120.298, -151.025, 126.943, 87.3236, 0, 0, 8.12708, -57.2065, 8.16054, -174.099, 7.78341, 64.2497, 0.739991, 63.1634
0, 2460.00000, 119.853, -34.133, 120.298, -151.025, 126.944, 87.3233, 0, 0, 8.12707, -57.2069, 8.16054, -174.099, 7.78336, 64.2494, 0.740092, 63.1632
0, 2520.00000, 119.852, -34.1334, 120.298, -151.025, 126.944, 87.3231, 0, 0, 8.12706, -57.2073, 8.16054, -174.099, 7.78331, 64.2492, 0.740183, 63.1631
0, 2580.00000, 119.852, -34.1338, 120.298, -151.025, 126.945, 87.3228, 0, 0, 8.12705, -57.2077, 8.16054, -174.099, 7.78327, 64.2489, 0.740265, 63.1629
0, 2640.00000, 119.852, -34.1341, 120.298, -151.025, 126.946, 87.3226, 0, 0, 8.12705, -57.208, 8.16054, -174.099, 7.78323, 64.2487, 0.740338, 63.1628
0, 2700.00000, 119.852, -34.1344, 120.298, -151.025, 126.946, 87.3225, 0, 0, 8.12704, -57.2083, 8.16054, -174.099, 7.7832, 64.2486, 0.740405, 63.1626
0, 2760.00000, 119.852, -34.1347, 120.298, -151.025, 126.947, 87.3223, 0, 0, 8.12703, -57.2086, 8.16054, -174.099, 7.78316, 64.2484, 0.740464, 63.1625
0, 2820.00000, 119.852, -34.1349, 120.298, -151.026, 126.947, 87.3222, 0, 0, 8.12703, -57.2088, 8.16054, -174.099, 7.78314, 64.2483, 0.740518, 63.1624
0, 2880.00000, 119.852, -34.1351, 120.298, -151.026, 126.948, 87.3221, 0, 0, 8.12702, -57.209, 8.16054, -174.099, 7.78311, 64.2481, 0.740566, 63.1623
0, 2940.00000, 119.852, -34.1353, 120.298, -151.026, 126.948, 87.3219, 0, 0, 8.12702, -57.2092, 8.16054, -174.099, 7.78309, 64.248, 0.74061, 63.1623
0, 3000.00000, 119.852, -34.1355, 120.298, -151.026, 126.948, 87.3218, 0, 0, 8.12702, -57.2094, 8.16053, -174.099, 7.78307, 64.2479, 0.740649, 63.1622
0, 3060.00000, 119.852, -34.1356, 120.298, -151.026, 126.949, 87.3217, 0, 0, 8.12701, -57.2096, 8.16053, -174.099, 7.78305, 64.2478, 0.740684, 63.1621
0, 3120.00000, 119.852, -34.1358, 120.298, -151.026, 126.949, 87.3217, 0, 0, 8.12701, -57.2097, 8.16053, -174.099, 7.78303, 64.2477, 0.740716, 63.162
0, 3180.00000, 119.852, -34.1359, 120.298, -151.026, 126.949, 87.3216, 0, 0, 8.12701, -57.2098, 8.16053, -174.099, 7.78302, 64.2477, 0.740744, 63.162
0, 3240.00000, 119.852, -34.136, 120.298, -151.026, 126.949, 87.3215, 0, 0, 8.12701, -57.2099, 8.16053, -174.099, 7.783, 64.2476, 0.74077, 63.1619
0, 3300.00000, 119.852, -34.1361, 120.298, -151.026, 126.949, 87.3214, 0, 0, 8.127, -57.21, 8.16053, -174.099, 7.78299, 64.2475, 0.740793, 63.1619
0, 3360.00000, 119.852, -34.1362, 120.298, -151.026, 126.95, 87.3214, 0, 0, 8.127, -57.2101, 8.16053, -174.099, 7.78298, 64.2475, 0.740814, 63.1619
0, 3420.00000, 119.852, -34.1363, 120.298, -151.026, 126.95, 87.3214, 0, 0, 8.127, -57.2102, 8.16053, -174.099, 7.78297, 64.2474, 0.740833, 63.1618
0, 3480.00000, 119.852, -34.1364, 120.298, -151.026, 126.95, 87.3213, 0, 0, 8.127, -57.2103, 8.16053, -174.099, 7.78296, 64.2474, 0.74085, 63.1618
0, 3540.00000, 119.852, -34.1364, 120.298, -151.026, 126.95, 87.3213, 0, 0, 8.127, -57.2104, 8.16053, -174.099, 7.78295, 64.2473, 0.740865, 63.1618
1, 0.00000, 119.852, -34.1365, 120.298, -151.026, 126.95, 87.3212, 0, 0, 8.127, -57.2104, 8.16053, -174.099, 7.78295, 64.2473, 0.740878, 63.1617
1, 60.00000, 119.943, -34.0022, 120.595, -150.995, 126.952, 87.3254, 0, 0, 8.1339, -57.0761, 8.1829, -174.069, 7.78284, 64.2515, 0.743731, 63.048
1, 120.00000, 119.943, -34.0022, 120.595, -150.995, 126.952, 87.3254, 0, 0, 8.1339, -57.0761, 8.1829, -174.069, 7.78283, 64.2515, 0.743743, 63.0479
1, 180.00000, 119.943, -34.0023, 120.595, -150.995, 126.952, 87.3254, 0, 0, 8.13389, -57.0762, 8.1829, -174.069, 7.78282, 64.2515, 0.743753, 63.0479
1, 240.00000, 119.943, -34.0023, 120.595, -150.995, 126.952, 87.3253, 0, 0, 8.13389, -57.0762, 8.1829, -174.069, 7.78282, 64.2514, 0.743762, 63.0479
1, 300.00000, 119.943, -34.0023, 120.595, -150.995, 126.952, 87.3253, 0, 0, 8.13389, -57.0763, 8.1829, -174.069, 7.78282, 64.2514, 0.74377, 63.0479
1, 360.00000, 119.943, -34.0024, 120.595, -150.995, 126.952, 87.3253, 0, 0, 8.13389, -57.0763, 8.1829, -174.069, 7.78281, 64.2514, 0.743777, 63.0479
1, 420.00000, 119.943, -34.0024, 120.595, -150.995, 126.952, 87.3253, 0, 0, 8.13389, -57.0763, 8.1829, -174.069, 7.78281, 64.2514, 0.743784, 63.0479
1, 480.00000, 119.943, -34.0024, 120.595, -150.995, 126.952, 87.3253, 0, 0, 8.13389, -57.0763, 8.1829, -174.069, 7.78281, 64.2514, 0.743789, 63.0478
1, 540.00000, 119.943, -34.0024, 120.595, -150.995, 126.953, 87.3253, 0, 0, 8.13389, -57.0764, 8.1829, -174.069, 7.7828, 64.2513, 0.743795, 63.0478
1, 600.00000, 119.943, -34.0025, 120.595, -150.995, 126.953, 87.3252, 0, 0, 8.13389, -57.0764, 8.1829, -174.069, 7.7828, 64.2513, 0.7438, 63.0478
1, 660.00000, 119.943, -34.0025, 120.595, -150.995, 126.953, 87.3252, 0, 0, 8.13389, -57.0764, 8.1829, -174.069, 7.7828, 64.2513, 0.743804, 63.0478
1, 720.00000, 119.943, -34.0025, 120.595, -150.995, 126.953, 87.3252, 0, 0, 8.13389, -57.0764, 8.1829, -174.069, 7.7828, 64.2513, 0.743808, 63.0478
1, 780.00000, 119.943, -34.0025, 120.595, -150.995, 126.953, 87.3252, 0, 0, 8.13389, -57.0764, 8.1829, -174.069, 7.78279, 64.2513, 0.743811, 63.0478
1, 840.00000, 119.943, -34.0025, 120.595, -150.995, 126.953, 87.3252, 0, 0, 8.13389, -57.0764, 8.1829, -174.069, 7.78279, 64.2513, 0.743814, 63.0478
1, 900.00000, 119.943, -34.0025, 120.595, -150.995, 126.953, 87.3252, 0, 0, 8.13389, -57.0765, 8.1829, -174.069, 7.78279, 64.2513, 0.743817, 63.0478
1, 960.00000, 119.943, -34.0026, 120.595, -150.995, 126.953, 87.3252, 0, 0, 8.13389, -57.0765, 8.1829, -174.069, 7.78279, 64.2513, 0.74382, 63.0478
1, 1020.00000, 119.943, -34.0026, 120.595, -150.995, 126.953, 87.3252, 0, 0, 8.13389, -57.0765, 8.1829, -174.069, 7.78279, 64.2513, 0.743822, 63.0478
1, 1080.00000, 119.943, -34.0026, 120.595, -150.995, 126.953, 87.3252, 0, 0, 8.13389, -57.0765, 8.1829, -174.069, 7.78279, 64.2513, 0.743824, 63.0478
1, 1140.00000, 119.943, -34.0026, 120.595, -150.995, 126.953, 87.3252, 0, 0, 8.13389, -57.0765, 8.1829, -174.069, 7.78279, 64.2513, 0.743826, 63.0478
1, 1200.00000, 119.943, -34.0026, 120.595, -150.995, 126.953, 87.3252, 0, 0, 8.13389, -57.0765, 8.1829, -174.069, 7.78279, 64.2513, 0.743827, 63.0478
1, 1260.00000, 119.943, -34.0026, 120.595, -150.995, 126.953, 87.3252, 0, 0, 8.13389, -57.0765, 8.1829, -174.069, 7.78278, 64.2513, 0.743829, 63.0478
1, 1320.00000, 119.943, -34.0026, 120.595, -150.995, 126.953, 87.3252, 0, 0, 8.13389, -57.0765, 8.1829, -174.069, 7.78278, 64.2513, 0.74383, 63.0478
1, 1380.00000, 119.943, -34.0026, 120.595, -150.995, 126.953, 87.3252, 0, 0, 8.13389, -57.0765, 8.1829, -174.069, 7.78278, 64.2512, 0.743831, 63.0478
1, 1440.00000, 119.943, -34.0026, 120.595, -150.995, 126.953, 87.3252, 0, 0, 8.13389, -57.0765, 8.1829, -174.069, 7.78278, 64.2512, 0.743833, 63.0478
1, 1500.00000, 119.943, -34.0026, 120.595, -150.995, 126.953, 87.3252, 0, 0, 8.13389, -57.0765, 8.1829, -174.069, 7.78278, 64.2512, 0.743834, 63.0478
1, 1560.00000, 119.943, -34.0026, 120.595, -150.995, 126.953, 87.3252, 0, 0, 8.13389, -57.0765, 8.1829, -174.069, 7.78278, 64.2512, 0.743834, 63.0478
1, 1620.00000, 119.943, -34.0026, 120.595, -150.995, 126.953, 87.3252, 0, 0, 8.13389, -57.0765, 8.1829, -174.069, 7.78278, 64.2512, 0.743835, 63.0478
1, 1680.00000, 119.943, -34.0026, 120.595, -150.995, 126.953, 87.3251, 0, 0, 8.13389, -57.0765, 8.1829, -174.069, 7.78278, 64.2512, 0.743836, 63.0478
1, 1740.00000, 119.943, -34.0026, 120.595, -150.995, 126.953, 87.3251, 0, 0, 8.13389, -57.0765, 8.1829, -174.069, 7.78278, 64.2512, 0.743837, 63.0478
1, 1800.00000, 119.943, -34.0026, 120.595, -150.995, 126.953, 87.3251, 0, 0, 8.13389, -57.0765, 8.1829, -174.069, 7.78278, 64.2512, 0.743837, 63.0478
1, 1860.00000, 119.943, -34.0026, 120.595, -150.995, 126.953, 87.3251, 0, 0, 8.13389, -57.0765, 8.1829, -174.069, 7.78278, 64.2512, 0.743838, 63.0478
1, 1920.00000, 119.943, -34.0026, 120.595, -150.995, 126.953, 87.3251, 0, 0, 8.13389, -57.0766, 8.1829, -174.069, 7.78278, 64.2512, 0.743838, 63.0478
1, 1980.00000, 119.943, -34.0026, 120.595, -150.995, 126.953, 87.3251, 0, 0, 8.13389, -57.0766, 8.1829, -174.069, 7.78278, 64.2512, 0.743839, 63.0478
1, 2040.00000, 119.943, -34.0026, 120.595, -150.995, 126.953, 87.3251, 0, 0, 8.13389, -57.0766, 8.1829, -174.069, 7.78278, 64.2512, 0.743839, 63.0478
1, 2100.00000, 119.943, -34.0026, 120.595, -150.995, 126.953, 87.3251, 0, 0, 8.13389, -57.0766, 8.1829, -174.069, 7.78278, 64.2512, 0.743839, 63.0478
1, 2160.00000, 119.943, -34.0026, 120.595, -150.995, 126.953, 87.3251, 0, 0, 8.13389, -57.0766, 8.1829, -174.069, 7.78278, 64.2512, 0.74384, 63.0478
1, 2220.00000, 119.943, -34.0026, 120.595, -150.995, 126.953, 87.3251, 0, 0, 8.13389, -57.0766, 8.1829, -174.069, 7.78278, 64.2512, 0.74384, 63.0478
1, 2280.00000, 119.943, -34.0026, 120.595, -150.995, 126.953, 87.3251, 0, 0, 8.13389, -57.0766, 8.1829, -174.069, 7.78278, 64.2512, 0.74384, 63.0478
1, 2340.00000, 119.943, -34.0026, 120.595, -150.995, 126.953, 87.3251, 0, 0, 8.13389, -57.0766, 8.1829, -174.069, 7.78278, 64.2512, 0.74384, 63.0478
1, 2400.00000, 119.943, -34.0026, 120.595, -150.995, 126.953, 87.3251, 0, 0, 8.13389, -57.0766, 8.1829, -174.069, 7.78278, 64.2512, 0.743841, 63.0478
1, 2460.00000, 119.943, -34.0026, 120.595, -150.995, 126.953, 87.3251, 0, 0, 8.13389, -57.0766, 8.1829, -174.069, 7.78278, 64.2512, 0.743841, 63.0478
1, 2520.00000, 119.943, -34.0026, 120.595, -150.995, 126.953, 87.3251, 0, 0, 8.13389, -57.0766, 8.1829, -174.069, 7.78278, 64.2512, 0.743841, 63.0478
1, 2580.00000, 119.943, -34.0026, 120.595, -150.995, 126.953, 87.3251, 0, 0, 8.13389, -57.0766, 8.1829, -174.069, 7.78278, 64.2512, 0.743841, 63.0478
1, 2640.00000, 119.943, -34.0026, 120.595, -150.995, 126.953, 87.3251, 0, 0, 8.13389, -57.0766, 8.1829, -174.069, 7.78278, 64.2512, 0.743841, 63.0478
1, 2700.00000, 119.943, -34.0026, 120.595, -150.995, 126.953, 87.3251, 0, 0, 8.13389, -57.0766, 8.1829, -174.069, 7.78278, 64.2512, 0.743841, 63.0478
1, 2760.00000, 119.943, -34.0027, 120.595, -150.995, 126.953, 87.3251, 0, 0, 8.13389, -57.0766, 8.1829, -174.069, 7.78278, 64.2512, 0.743841, 63.0478
1, 2820.00000, 119.943, -34.0027, 120.595, -150.995, 126.953, 87.3251, 0, 0, 8.13389, -57.0766, 8.1829, -174.069, 7.78278, 64.2512, 0.743842, 63.0478
1, 2880.00000, 119.943, -34.0027, 120.595, -150.995, 126.953, 87.3251, 0, 0, 8.13389, -57.0766, 8.1829, -174.069, 7.78278, 64.2512, 0.743842, 63.0478
1, 2940.00000, 119.943, -34.0027, 120.595, -150.995, 126.953, 87.3251, 0, 0, 8.13389, -57.0766, 8.1829, -174.069, 7.78278, 64.2512, 0.743842, 63.0478
1, 3000.00000, 119.943, -34.0027, 120.595, -150.995, 126.953, 87.3251, 0, 0, 8.13389, -57.0766, 8.1829, -174.069, 7.78278, 64.2512, 0.743842, 63.0478
1, 3060.00000, 119.943, -34.0027, 120.595, -150.995, 126.953, 87.3251, 0, 0, 8.13389, -57.0766, 8.1829, -174.069, 7.78278, 64.2512, 0.743842, 63.0478
1, 3120.00000, 119.943, -34.0027, 120.595, -150.995, 126.953, 87.3251, 0, 0, 8.13389, -57.0766, 8.1829, -174.069, 7.78278, 64.2512, 0.743842, 63.0478
1, 3180.00000, 119.943, -34.0027, 120.595, -150.995, 126.953, 87.3251, 0, 0, 8.13389, -57.0766, 8.1829, -174.069, 7.78278, 64.2512, 0.743842, 63.0478
1, 3240.00000, 119.943, -34.0027, 120.595, -150.995, 126.953, 87.3251, 0, 0, 8.13389, -57.0766, 8.1829, -174.069, 7.78278, 64.2512, 0.743842, 63.0478
1, 3300.00000, 119.943, -34.0027, 120.595, -150.995, 126.953, 87.3251, 0, 0, 8.13389, -57.0766, 8.1829, -174.069, 7.78278, 64.2512, 0.743842, 63.0478
1, 3360.00000, 119.943, -34.0027, 120.595, -150.995, 126.953, 87.3251, 0, 0, 8.13389, -57.0766, 8.1829, -174.069, 7.78278, 64.2512, 0.743842, 63.0478
1, 3420.00000, 119.943, -34.0027, 120.595, -150.995, 126.953, 87.3251, 0, 0, 8.13389, -57.0766, 8.1829, -174.069, 7.78278, 64.2512, 0.743842, 63.0478
1, 3480.00000, 119.943, -34.0027, 120.595, -150.995, 126.953, 87.3251, 0, 0, 8.13389, -57.0766, 8.1829, -174.069, 7.78278, 64.2512, 0.743842, 63.0478
1, 3540.00000, 119.943, -34.0027, 120.595, -150.995, 126.953, 87.3251, 0, 0, 8.13389, -57.0766, 8.1829, -174.069, 7.78278, 64.2512, 0.743842, 63.0478
2, 0.00000, 119.943, -34.0027, 120.595, -150.995, 126.953, 87.3251, 0, 0, 8.13389, -57.0766, 8.1829, -174.069, 7.78278, 64.2512, 0.743842, 63.0478
2, 60.00000, 119.943, -34.0027, 120.595, -150.995, 126.953, 87.3251, 0, 0, 8.13389, -57.0766, 8.1829, -174.069, 7.78278, 64.2512, 0.743842, 63.0478
2, 120.00000, 119.943, -34.0027, 120.595, -150.995, 126.953, 87.3251, 0, 0, 8.13389, -57.0766, 8.1829, -174.069, 7.78278, 64.2512, 0.743842, 63.0478
2, 180.00000, 119.943, -34.0027, 120.595, -150.995, 126.953, 87.3251, 0, 0, 8.13389, -57.0766, 8.1829, -174.069, 7.78278, 64.2512, 0.743842, 63.0478
2, 240.00000, 119.943, -34.0027, 120.595, -150.995, 126.953, 87.3251, 0, 0, 8.13389, -57.0766, 8.1829, -174.069, 7.78278, 64.2512, 0.743842, 63.0478
2, 300.00000, 119.943, -34.0027, 120.595, -150.995, 126.953, 87.3251, 0, 0, 8.13389, -57.0766, 8.1829, -174.069, 7.78278, 64.2512, 0.743842, 63.0478
2, 360.00000, 119.943, -34.0027, 120.595, -150.995, 126.953, 87.3251, 0, 0, 8.13389, -57.0766, 8.1829, -174.069, 7.78278, 64.2512, 0.743842, 63.0478
2, 420.00000, 119.943, -34.0027, 120.595, -150.995, 126.953, 87.3251, 0, 0, 8.13389, -57.0766, 8.1829, -174.069, 7.78278, 64.2512, 0.743842, 63.0478
2, 480.00000, 119.943, -34.0027, 120.595, -150.995, 126.953, 87.3251, 0, 0, 8.13389, -57.0766, 8.1829, -174.069, 7.78278, 64.2512, 0.743842, 63.0478
2, 540.00000, 119.943, -34.0027, 120.595, -150.995, 126.953, 87.3251, 0, 0, 8.13389, -57.0766, 8.1829, -174.069, 7.78278, 64.2512, 0.743842, 63.0478
2, 600.00000, 119.943, -34.0027, 120.595, -150.995, 126.953, 87.3251, 0, 0, 8.13389, -57.0766, 8.1829, -174.069, 7.78278, 64.2512, 0.743842, 63.0478
2, 660.00000, 119.943, -34.0027, 120.595, -150.995, 126.953, 87.3251, 0, 0, 8.13389, -57.0766, 8.1829, -174.069, 7.78278, 64.2512, 0.743842, 63.0478
2, 720.00000, 119.943, -34.0027, 120.595, -150.995, 126.953, 87.3251, 0, 0, 8.13389, -57.0766, 8.1829, -174.069, 7.78278, 64.2512, 0.743842, 63.0478
2, 780.00000, 119.943, -34.0027, 120.595, -150.995, 126.953, 87.3251, 0, 0, 8.13389, -57.0766, 8.1829, -174.069, 7.78278, 64.2512, 0.743842, 63.0478
