hour,t(sec),V1,VAngle1,V2,VAngle2,V3,VAngle3,V4,VAngle4,I1,IAngle1,I2,IAngle2,I3,IAngle3,I4,IAngle4
0, 60.00000, 117.042, -32.8782, 117.286, -150.729, 122.242, 88.106, 0, 0, 2.41649, -55.9522, 2.42202, -173.803, 2.46755, 65.0326, 0.0299044, 63.4706
0, 120.00000, 117.042, -32.8945, 117.285, -150.73, 122.279, 88.0978, 0, 0, 2.41647, -55.9685, 2.42202, -173.803, 2.46679, 65.0245, 0.0312174, 63.488
0, 180.00000, 117.041, -32.9092, 117.285, -150.73, 122.312, 88.0905, 0, 0, 2.41645, -55.9832, 2.42201, -173.804, 2.46611, 65.0171, 0.0323961, 63.5038
0, 240.00000, 117.04, -32.9225, 117.285, -150.731, 122.342, 88.0839, 0, 0, 2.41643, -55.9964, 2.422, -173.804, 2.4655, 65.0104, 0.0334564, 63.5166
0, 300.00000, 117.04, -32.9344, 117.285, -150.731, 122.369, 88.0779, 0, 0, 2.41642, -56.0084, 2.422, -173.805, 2.46495, 65.0044, 0.0344103, 63.5269
0, 360.00000, 117.039, -32.9451, 117.284, -150.731, 122.393, 88.0725, 0, 0, 2.4164, -56.0191, 2.42199, -173.805, 2.46445, 64.9989, 0.0352694, 63.5354
0, 420.00000, 117.039, -32.9548, 117.284, -150.732, 122.415, 88.0676, 0, 0, 2.41639, -56.0288, 2.42199, -173.805, 2.464, 64.9941, 0.0360428, 63.5425
0, 480.00000, 117.977, -32.8749, 118.191, -150.648, 123.485, 88.1785, 0, 0, 2.20281, -55.9487, 2.20722, -173.721, 2.20706, 65.1049, 0.0717815, 63.9939
0, 540.00000, 117.977, -32.8828, 118.191, -150.648, 123.503, 88.1745, 0, 0, 2.2028, -55.9566, 2.20722, -173.722, 2.20674, 65.1009, 0.072348, 63.9926
0, 600.00000, 117.976, -32.8899, 118.191, -150.648, 123.519, 88.1709, 0, 0, 2.20279, -55.9638, 2.20721, -173.722, 2.20645, 65.0972, 0.0728564, 63.9919
0, 660.00000, 117.976, -32.8963, 118.191, -150.648, 123.533, 88.1676, 0, 0, 2.20278, -55.9702, 2.20721, -173.722, 2.2062, 65.094, 0.0733138, 63.9913
0, 720.00000, 117.976, -32.9021, 118.191, -150.649, 123.546, 88.1647, 0, 0, 2.20277, -55.976, 2.20721, -173.722, 2.20596, 65.091, 0.0737254, 63.9907
0, 780.00000, 117.976, -32.9073, 118.19, -150.649, 123.557, 88.1621, 0, 0, 2.20277, -55.9812, 2.20721, -173.722, 2.20576, 65.0884, 0.0740957, 63.9901
0, 840.00000, 117.975, -32.912, 118.19, -150.649, 123.567, 88.1597, 0, 0, 2.20276, -55.9859, 2.20721, -173.723, 2.20557, 65.086, 0.074429, 63.9895
0, 900.00000, 117.975, -32.9162, 118.19, -150.649, 123.577, 88.1576, 0, 0, 2.20276, -55.9901, 2.2072, -173.723, 2.2054, 65.0838, 0.0747289, 63.989
0, 960.00000, 117.975, -32.92, 118.19, -150.649, 123.585, 88.1556, 0, 0, 2.20275, -55.9939, 2.2072, -173.723, 2.20525, 65.0819, 0.0749987, 63.9885
0, 1020.00000, 117.975, -32.9234, 118.19, -150.649, 123.593, 88.1539, 0, 0, 2.20275, -55.9973, 2.2072, -173.723, 2.20511, 65.0801, 0.0752416, 63.9881
0, 1080.00000, 117.975, -32.9265, 118.19, -150.649, 123.599, 88.1524, 0, 0, 2.20274, -56.0004, 2.2072, -173.723, 2.20499, 65.0786, 0.0754601, 63.9877
0, 1140.00000, 117.975, -32.9292, 118.19, -150.649, 123.605, 88.151, 0, 0, 2.20274, -56.0031, 2.2072, -173.723, 2.20488, 65.0772, 0.0756567, 63.9873
0, 1200.00000, 117.975, -32.9317, 118.19, -150.649, 123.611, 88.1497, 0, 0, 2.20274, -56.0056, 2.2072, -173.723, 2.20478, 65.0759, 0.0758337, 63.987
0, 1260.00000, 117.974, -32.934, 118.19, -150.649, 123.616, 88.1486, 0, 0, 2.20273, -56.0079, 2.2072, -173.723, 2.20469, 65.0747, 0.075993, 63.9866
0, 1320.00000, 117.974, -32.936, 118.19, -150.649, 123.62, 88.1475, 0, 0, 2.20273, -56.0099, 2.2072, -173.723, 2.20461, 65.0737, 0.0761363, 63.9864
0, 1380.00000, 117.974, -32.9378, 118.19, -150.649, 123.624, 88.1466, 0, 0, 2.20273, -56.0117, 2.2072, -173.723, 2.20454, 65.0728, 0.0762653, 63.9861
0, 1440.00000, 117.974, -32.9394, 118.19, -150.65, 123.628, 88.1458, 0, 0, 2.20273, -56.0133, 2.2072, -173.723, 2.20447, 65.0719, 0.0763814, 63.9858
0, 1500.00000, 117.974, -32.9409, 118.19, -150.65, 123.631, 88.145, 0, 0, 2.20272, -56.0148, 2.20719, -173.723, 2.20441, 65.0712, 0.0764858, 63.9856
0, 1560.00000, 117.974, -32.9422, 118.19, -150.65, 123.634, 88.1444, 0, 0, 2.20272, -56.0161, 2.20719, -173.723, 2.20436, 65.0705, 0.0765798, 63.9854
0, 1620.00000, 117.974, -32.9434, 118.19, -150.65, 123.637, 88.1438, 0, 0, 2.20272, -56.0173, 2.20719, -173.723, 2.20431, 65.0699, 0.0766645, 63.9852
0, 1680.00000, 117.974, -32.9445, 118.19, -150.65, 123.639, 88.1432, 0, 0, 2.20272, -56.0184, 2.20719, -173.724, 2.20427, 65.0693, 0.0767406, 63.9851
0, 1740.00000, 117.974, -32.9455, 118.19, -150.65, 123.641, 88.1427, 0, 0, 2.20272, -56.0194, 2.20719, -173.724, 2.20423, 65.0688, 0.0768091, 63.9849
0, 1800.00000, 117.974, -32.9463, 118.19, -150.65, 123.643, 88.1423, 0, 0, 2.20272, -56.0202, 2.20719, -173.724, 2.2042, 65.0684, 0.0768708, 63.9848
0, 1860.00000, 117.974, -32.9471, 118.19, -150.65, 123.645, 88.1419, 0, 0, 2.20272, -56.021, 2.20719, -173.724, 2.20416, 65.068, 0.0769263, 63.9847
0, 1920.00000, 117.974, -32.9478, 118.19, -150.65, 123.646, 88.1415, 0, 0, 2.20272, -56.0217, 2.20719, -173.724, 2.20414, 65.0676, 0.0769763, 63.9846
0, 1980.00000, 117.974, -32.9484, 118.19, -150.65, 123.648, 88.1412, 0, 0, 2.20271, -56.0224, 2.20719, -173.724, 2.20411, 65.0673, 0.0770212, 63.9845
0, 2040.00000, 117.974, -32.949, 118.19, -150.65, 123.649, 88.1409, 0, 0, 2.20271, -56.0229, 2.20719, -173.724, 2.20409, 65.067, 0.0770617, 63.9844
0, 2100.00000, 117.974, -32.9495, 118.19, -150.65, 123.65, 88.1407, 0, 0, 2.20271, -56.0234, 2.20719, -173.724, 2.20407, 65.0668, 0.0770981, 63.9843
0, 2160.00000, 117.974, -32.95, 118.19, -150.65, 123.651, 88.1404, 0, 0, 2.20271, -56.0239, 2.20719, -173.724, 2.20405, 65.0665, 0.0771308, 63.9842
0, 2220.00000, 117.974, -32.9504, 118.19, -150.65, 123.652, 88.1402, 0, 0, 2.20271, -56.0243, 2.20719, -173.724, 2.20403, 65.0663, 0.0771603, 63.9842
0, 2280.00000, 117.974, -32.9508, 118.19, -150.65, 123.653, 88.14, 0, 0, 2.20271, -56.0247, 2.20719, -173.724, 2.20402, 65.0661, 0.0771869, 63.9841
0, 2340.00000, 117.974, -32.9511, 118.19, -150.65, 123.654, 88.1399, 0, 0, 2.20271, -56.025, 2.20719, -173.724, 2.204, 65.0659, 0.0772108, 63.984
0, 2400.00000, 117.974, -32.9514, 118.19, -150.65, 123.654, 88.1397, 0, 0, 2.20271, -56.0253, 2.20719, -173.724, 2.20399, 65.0658, 0.0772323, 63.984
0, 2460.00000, 117.974, -32.9517, 118.19, -150.65, 123.655, 88.1396, 0, 0, 2.20271, -56.0256, 2.20719, -173.724, 2.20398, 65.0657, 0.0772516, 63.984
0, 2520.00000, 117.974, -32.9519, 118.19, -150.65, 123.655, 88.1394, 0, 0, 2.20271, -56.0259, 2.20719, -173.724, 2.20397, 65.0655, 0.077269, 63.9839
0, 2580.00000, 117.974, -32.9522, 118.19, -150.65, 123.656, 88.1393, 0, 0, 2.20271, -56.0261, 2.20719, -173.724, 2.20396, 65.0654, 0.0772847, 63.9839
0, 2640.00000, 117.974, -32.9524, 118.19, -150.65, 123.656, 88.1392, 0, 0, 2.20271, -56.0263, 2.20719, -173.724, 2.20395, 65.0653, 0.0772988, 63.9838
0, 2700.00000, 117.974, -32.9525, 118.19, -150.65, 123.657, 88.1391, 0, 0, 2.20271, -56.0265, 2.20719, -173.724, 2.20395, 65.0652, 0.0773115, 63.9838
0, 2760.00000, 117.974, -32.9527, 118.19, -150.65, 123.657, 88.139, 0, 0, 2.20271, -56.0266, 2.20719, -173.724, 2.20394, 65.0651, 0.0773229, 63.9838
0, 2820.00000, 117.974, -32.9528, 118.19, -150.65, 123.657, 88.139, 0, 0, 2.20271, -56.0268, 2.20719, -173.724, 2.20394, 65.0651, 0.0773332, 63.9838
0, 2880.00000, 117.974, -32.953, 118.19, -150.65, 123.658, 88.1389, 0, 0, 2.20271, -56.0269, 2.20719, -173.724, 2.20393, 65.065, 0.0773425, 63.9837
0, 2940.00000, 117.974, -32.9531, 118.19, -150.65, 123.658, 88.1388, 0, 0, 2.20271, -56.027, 2.20719, -173.724, 2.20393, 65.0649, 0.0773508, 63.9837
0, 3000.00000, 117.974, -32.9532, 118.19, -150.65, 123.658, 88.1388, 0, 0, 2.20271, -56.0271, 2.20719, -173.724, 2.20392, 65.0649, 0.0773583, 63.9837
0, 3060.00000, 117.974, -32.9533, 118.19, -150.65, 123.658, 88.1387, 0, 0, 2.20271, -56.0272, 2.20719, -173.724, 2.20392, 65.0648, 0.077365, 63.9837
0, 3120.00000, 117.974, -32.9534, 118.19, -150.65, 123.659, 88.1387, 0, 0, 2.20271, -56.0273, 2.20719, -173.724, 2.20391, 65.0648, 0.0773711, 63.9837
0, 3180.00000, 117.974, -32.9535, 118.19, -150.65, 123.659, 88.1387, 0, 0, 2.20271, -56.0274, 2.20719, -173.724, 2.20391, 65.0648, 0.0773766, 63.9837
0, 3240.00000, 117.974, -32.9535, 118.19, -150.65, 123.659, 88.1386, 0, 0, 2.20271, -56.0274, 2.20719, -173.724, 2.20391, 65.0647, 0.0773815, 63.9837
0, 3300.00000, 117.974, -32.9536, 118.19, -150.65, 123.659, 88.1386, 0, 0, 2.20271, -56.0275, 2.20719, -173.724, 2.20391, 65.0647, 0.0773859, 63.9836
0, 3360.00000, 117.974, -32.9536, 118.19, -150.65, 123.659, 88.1386, 0, 0, 2.20271, -56.0276, 2.20719, -173.724, 2.2039, 65.0647, 0.0773899, 63.9836
0, 3420.00000, 117.974, -32.9537, 118.19, -150.65, 123.659, 88.1385, 0, 0, 2.20271, -56.0276, 2.20719, -173.724, 2.2039, 65.0646, 0.0773935, 63.9836
0, 3480.00000, 117.974, -32.9537, 118.19, -150.65, 123.659, 88.1385, 0, 0, 2.20271, -56.0277, 2.20719, -173.724, 2.2039, 65.0646, 0.0773967, 63.9836
0, 3540.00000, 117.974, -32.9538, 118.19, -150.65, 123.659, 88.1385, 0, 0, 2.20271, -56.0277, 2.20719, -173.724, 2.2039, 65.0646, 0.0773996, 63.9836
1, 0.00000, 117.974, -32.9538, 118.19, -150.65, 123.66, 88.1385, 0, 0, 2.20271, -56.0277, 2.20719, -173.724, 2.2039, 65.0646, 0.0774022, 63.9836
1, 60.00000, 118.138, -32.7997, 118.56, -150.639, 123.647, 88.1431, 0, 0, 2.20612, -55.8736, 2.21486, -173.713, 2.20412, 65.0692, 0.0782041, 63.5963
1, 120.00000, 118.138, -32.7997, 118.56, -150.639, 123.647, 88.1431, 0, 0, 2.20612, -55.8736, 2.21486, -173.713, 2.20412, 65.0692, 0.0782064, 63.5963
1, 180.00000, 118.138, -32.7997, 118.56, -150.639, 123.647, 88.1431, 0, 0, 2.20612, -55.8737, 2.21486, -173.713, 2.20412, 65.0692, 0.0782083, 63.5963
1, 240.00000, 118.138, -32.7998, 118.56, -150.639, 123.647, 88.1431, 0, 0, 2.20612, -55.8737, 2.21486, -173.713, 2.20412, 65.0692, 0.07821, 63.5963
1, 300.00000, 118.138, -32.7998, 118.56, -150.639, 123.647, 88.1431, 0, 0, 2.20612, -55.8737, 2.21486, -173.713, 2.20411, 65.0691, 0.0782116, 63.5963
1, 360.00000, 118.138, -32.7998, 118.56, -150.639, 123.647, 88.1431, 0, 0, 2.20612, -55.8737, 2.21486, -173.713, 2.20411, 65.0691, 0.078213, 63.5963
1, 420.00000, 118.138, -32.7998, 118.56, -150.639, 123.647, 88.143, 0, 0, 2.20612, -55.8737, 2.21486, -173.713, 2.20411, 65.0691, 0.0782142, 63.5963
1, 480.00000, 118.138, -32.7998, 118.56, -150.639, 123.647, 88.143, 0, 0, 2.20612, -55.8738, 2.21486, -173.713, 2.20411, 65.0691, 0.0782154, 63.5963
1, 540.00000, 118.138, -32.7999, 118.56, -150.639, 123.647, 88.143, 0, 0, 2.20612, -55.8738, 2.21486, -173.713, 2.20411, 65.0691, 0.0782164, 63.5963
1, 600.00000, 118.138, -32.7999, 118.56, -150.639, 123.647, 88.143, 0, 0, 2.20612, -55.8738, 2.21486, -173.713, 2.20411, 65.0691, 0.0782173, 63.5963
1, 660.00000, 118.138, -32.7999, 118.56, -150.639, 123.647, 88.143, 0, 0, 2.20612, -55.8738, 2.21486, -173.713, 2.20411, 65.0691, 0.0782181, 63.5963
1, 720.00000, 118.138, -32.7999, 118.56, -150.639, 123.647, 88.143, 0, 0, 2.20612, -55.8738, 2.21486, -173.713, 2.20411, 65.0691, 0.0782188, 63.5963
1, 780.00000, 118.138, -32.7999, 118.56, -150.639, 123.648, 88.143, 0, 0, 2.20612, -55.8738, 2.21486, -173.713, 2.20411, 65.0691, 0.0782195, 63.5963
1, 840.00000, 118.138, -32.7999, 118.56, -150.639, 123.648, 88.143, 0, 0, 2.20612, -55.8738, 2.21486, -173.713, 2.20411, 65.0691, 0.0782201, 63.5963
1, 900.00000, 118.138, -32.7999, 118.56, -150.639, 123.648, 88.143, 0, 0, 2.20612, -55.8738, 2.21486, -173.713, 2.20411, 65.0691, 0.0782206, 63.5963
1, 960.00000, 118.138, -32.7999, 118.56, -150.639, 123.648, 88.143, 0, 0, 2.20612, -55.8738, 2.21486, -173.713, 2.20411, 65.0691, 0.0782211, 63.5963
1, 1020.00000, 118.138, -32.7999, 118.56, -150.639, 123.648, 88.143, 0, 0, 2.20612, -55.8738, 2.21486, -173.713, 2.20411, 65.0691, 0.0782216, 63.5963
1, 1080.00000, 118.138, -32.7999, 118.56, -150.639, 123.648, 88.143, 0, 0, 2.20612, -55.8738, 2.21486, -173.713, 2.20411, 65.0691, 0.078222, 63.5963
1, 1140.00000, 118.138, -32.7999, 118.56, -150.639, 123.648, 88.143, 0, 0, 2.20612, -55.8739, 2.21486, -173.713, 2.20411, 65.0691, 0.0782223, 63.5963
1, 1200.00000, 118.138, -32.7999, 118.56, -150.639, 123.648, 88.143, 0, 0, 2.20612, -55.8739, 2.21486, -173.713, 2.20411, 65.0691, 0.0782226, 63.5963
1, 1260.00000, 118.138, -32.7999, 118.56, -150.639, 123.648, 88.143, 0, 0, 2.20612, -55.8739, 2.21486, -173.713, 2.20411, 65.0691, 0.0782229, 63.5963
1, 1320.00000, 118.138, -32.7999, 118.56, -150.639, 123.648, 88.143, 0, 0, 2.20612, -55.8739, 2.21486, -173.713, 2.20411, 65.0691, 0.0782232, 63.5963
1, 1380.00000, 118.138, -32.7999, 118.56, -150.639, 123.648, 88.143, 0, 0, 2.20612, -55.8739, 2.21486, -173.713, 2.20411, 65.0691, 0.0782234, 63.5963
1, 1440.00000, 118.138, -32.8, 118.56, -150.639, 123.648, 88.143, 0, 0, 2.20612, -55.8739, 2.21486, -173.713, 2.20411, 65.0691, 0.0782236, 63.5963
1, 1500.00000, 118.138, -32.8, 118.56, -150.639, 123.648, 88.143, 0, 0, 2.20612, -55.8739, 2.21486, -173.713, 2.20411, 65.0691, 0.0782238, 63.5963
1, 1560.00000, 118.138, -32.8, 118.56, -150.639, 123.648, 88.143, 0, 0, 2.20612, -55.8739, 2.21486, -173.713, 2.20411, 65.0691, 0.078224, 63.5963
1, 1620.00000, 118.138, -32.8, 118.56, -150.639, 123.648, 88.143, 0, 0, 2.20612, -55.8739, 2.21486, -173.713, 2.20411, 65.0691, 0.0782241, 63.5963
1, 1680.00000, 118.138, -32.8, 118.56, -150.639, 123.648, 88.143, 0, 0, 2.20612, -55.8739, 2.21486, -173.713, 2.20411, 65.0691, 0.0782243, 63.5963
1, 1740.00000, 118.138, -32.8, 118.56, -150.639, 123.648, 88.143, 0, 0, 2.20612, -55.8739, 2.21486, -173.713, 2.20411, 65.0691, 0.0782244, 63.5963
1, 1800.00000, 118.138, -32.8, 118.56, -150.639, 123.648, 88.143, 0, 0, 2.20612, -55.8739, 2.21486, -173.713, 2.20411, 65.0691, 0.0782245, 63.5963
1, 1860.00000, 118.138, -32.8, 118.56, -150.639, 123.648, 88.143, 0, 0, 2.20612, -55.8739, 2.21486, -173.713, 2.20411, 65.0691, 0.0782246, 63.5963
1, 1920.00000, 118.138, -32.8, 118.56, -150.639, 123.648, 88.143, 0, 0, 2.20612, -55.8739, 2.21486, -173.713, 2.20411, 65.0691, 0.0782247, 63.5963
1, 1980.00000, 118.138, -32.8, 118.56, -150.639, 123.648, 88.143, 0, 0, 2.20612, -55.8739, 2.21486, -173.713, 2.20411, 65.0691, 0.0782248, 63.5963
1, 2040.00000, 118.138, -32.8, 118.56, -150.639, 123.648, 88.143, 0, 0, 2.20612, -55.8739, 2.21486, -173.713, 2.20411, 65.0691, 0.0782248, 63.5963
1, 2100.00000, 118.138, -32.8, 118.56, -150.639, 123.648, 88.143, 0, 0, 2.20612, -55.8739, 2.21486, -173.713, 2.20411, 65.0691, 0.0782249, 63.5963
1, 2160.00000, 118.138, -32.8, 118.56, -150.639, 123.648, 88.143, 0, 0, 2.20612, -55.8739, 2.21486, -173.713, 2.20411, 65.0691, 0.078225, 63.5963
1, 2220.00000, 118.138, -32.8, 118.56, -150.639, 123.648, 88.143, 0, 0, 2.20612, -55.8739, 2.21486, -173.713, 2.20411, 65.0691, 0.078225, 63.5963
1, 2280.00000, 118.138, -32.8, 118.56, -150.639, 123.648, 88.143, 0, 0, 2.20612, -55.8739, 2.21486, -173.713, 2.20411, 65.069, 0.0782251, 63.5963
1, 2340.00000, 118.138, -32.8, 118.56, -150.639, 123.648, 88.143, 0, 0, 2.20612, -55.8739, 2.21486, -173.713, 2.20411, 65.069, 0.0782251, 63.5963
1, 2400.00000, 118.138, -32.8, 118.56, -150.639, 123.648, 88.143, 0, 0, 2.20612, -55.8739, 2.21486, -173.713, 2.20411, 65.069, 0.0782251, 63.5963
1, 2460.00000, 118.138, -32.8, 118.56, -150.639, 123.648, 88.143, 0, 0, 2.20612, -55.8739, 2.21486, -173.713, 2.20411, 65.069, 0.0782252, 63.5963
1, 2520.00000, 118.138, -32.8, 118.56, -150.639, 123.648, 88.143, 0, 0, 2.20612, -55.8739, 2.21486, -173.713, 2.20411, 65.069, 0.0782252, 63.5963
1, 2580.00000, 118.138, -32.8, 118.56, -150.639, 123.648, 88.143, 0, 0, 2.20612, -55.8739, 2.21486, -173.713, 2.20411, 65.069, 0.0782252, 63.5963
1, 2640.00000, 118.138, -32.8, 118.56, -150.639, 123.648, 88.143, 0, 0, 2.20612, -55.8739, 2.21486, -173.713, 2.20411, 65.069, 0.0782253, 63.5963
1, 2700.00000, 118.138, -32.8, 118.56, -150.639, 123.648, 88.143, 0, 0, 2.20612, -55.8739, 2.21486, -173.713, 2.20411, 65.069, 0.0782253, 63.5963
1, 2760.00000, 118.138, -32.8, 118.56, -150.639, 123.648, 88.143, 0, 0, 2.20612, -55.8739, 2.21486, -173.713, 2.20411, 65.069, 0.0782253, 63.5963
1, 2820.00000, 118.138, -32.8, 118.56, -150.639, 123.648, 88.143, 0, 0, 2.20612, -55.8739, 2.21486, -173.713, 2.20411, 65.069, 0.0782253, 63.5963
1, 2880.00000, 118.138, -32.8, 118.56, -150.639, 123.648, 88.143, 0, 0, 2.20612, -55.8739, 2.21486, -173.713, 2.20411, 65.069, 0.0782253, 63.5963
1, 2940.00000, 118.138, -32.8, 118.56, -150.639, 123.648, 88.143, 0, 0, 2.20612, -55.8739, 2.21486, -173.713, 2.20411, 65.069, 0.0782254, 63.5963
1, 3000.00000, 118.138, -32.8, 118.56, -150.639, 123.648, 88.143, 0, 0, 2.20612, -55.8739, 2.21486, -173.713, 2.20411, 65.069, 0.0782254, 63.5963
1, 3060.00000, 118.138, -32.8, 118.56, -150.639, 123.648, 88.143, 0, 0, 2.20612, -55.8739, 2.21486, -173.713, 2.20411, 65.069, 0.0782254, 63.5963
1, 3120.00000, 118.138, -32.8, 118.56, -150.639, 123.648, 88.143, 0, 0, 2.20612, -55.8739, 2.21486, -173.713, 2.20411, 65.069, 0.0782254, 63.5963
1, 3180.00000, 118.138, -32.8, 118.56, -150.639, 123.648, 88.143, 0, 0, 2.20612, -55.8739, 2.21486, -173.713, 2.20411, 65.069, 0.0782254, 63.5963
1, 3240.00000, 118.138, -32.8, 118.56, -150.639, 123.648, 88.143, 0, 0, 2.20612, -55.8739, 2.21486, -173.713, 2.20411, 65.069, 0.0782254, 63.5963
1, 3300.00000, 118.138, -32.8, 118.56, -150.639, 123.648, 88.143, 0, 0, 2.20612, -55.8739, 2.21486, -173.713, 2.20411, 65.069, 0.0782254, 63.5963
1, 3360.00000, 118.138, -32.8, 118.56, -150.639, 123.648, 88.143, 0, 0, 2.20612, -55.8739, 2.21486, -173.713, 2.20411, 65.069, 0.0782254, 63.5963
1, 3420.00000, 118.138, -32.8, 118.56, -150.639, 123.648, 88.143, 0, 0, 2.20612, -55.8739, 2.21486, -173.713, 2.20411, 65.069, 0.0782254, 63.5963
1, 3480.00000, 118.138, -32.8, 118.56, -150.639, 123.648, 88.143, 0, 0, 2.20612, -55.8739, 2.21486, -173.713, 2.20411, 65.069, 0.0782254, 63.5963
1, 3540.00000, 118.138, -32.8, 118.56, -150.639, 123.648, 88.143, 0, 0, 2.20612, -55.8739, 2.21486, -173.713, 2.20411, 65.069, 0.0782254, 63.5963
2, 0.00000, 118.138, -32.8, 118.56, -150.639, 123.648, 88.143, 0, 0, 2.20612, -55.8739, 2.21486, -173.713, 2.20411, 65.069, 0.0782254, 63.5963
2, 60.00000, 118.138, -32.8, 118.56, -150.639, 123.648, 88.143, 0, 0, 2.20612, -55.8739, 2.21486, -173.713, 2.20411, 65.069, 0.0782255, 63.5963
2, 120.00000, 118.138, -32.8, 118.56, -150.639, 123.648, 88.143, 0, 0, 2.20612, -55.8739, 2.21486, -173.713, 2.20411, 65.069, 0.0782255, 63.5963
2, 180.00000, 118.138, -32.8, 118.56, -150.639, 123.648, 88.143, 0, 0, 2.20612, -55.8739, 2.21486, -173.713, 2.20411, 65.069, 0.0782255, 63.5963
2, 240.00000, 118.138, -32.8, 118.56, -150.639, 123.648, 88.143, 0, 0, 2.20612, -55.8739, 2.21486, -173.713, 2.20411, 65.069, 0.0782255, 63.5963
2, 300.00000, 118.138, -32.8, 118.56, -150.639, 123.648, 88.143, 0, 0, 2.20612, -55.8739, 2.21486, -173.713, 2.20411, 65.069, 0.0782255, 63.5963
2, 360.00000, 118.138, -32.8, 118.56, -150.639, 123.648, 88.143, 0, 0, 2.20612, -55.8739, 2.21486, -173.713, 2.20411, 65.069, 0.0782255, 63.5963
2, 420.00000, 118.138, -32.8, 118.56, -150.639, 123.648, 88.143, 0, 0, 2.20612, -55.8739, 2.21486, -173.713, 2.20411, 65.069, 0.0782255, 63.5963
2, 480.00000, 118.138, -32.8, 118.56, -150.639, 123.648, 88.143, 0, 0, 2.20612, -55.8739, 2.21486, -173.713, 2.20411, 65.069, 0.0782255, 63.5963
2, 540.00000, 118.138, -32.8, 118.56, -150.639, 123.648, 88.143, 0, 0, 2.20612, -55.8739, 2.21486, -173.713, 2.20411, 65.069, 0.0782255, 63.5963
2, 600.00000, 118.138, -32.8, 118.56, -150.639, 123.648, 88.143, 0, 0, 2.20612, -55.8739, 2.21486, -173.713, 2.20411, 65.069, 0.0782255, 63.5963
2, 660.00000, 118.138, -32.8, 118.56, -150.639, 123.648, 88.143, 0, 0, 2.20612, -55.8739, 2.21486, -173.713, 2.20411, 65.069, 0.0782255, 63.5963
2, 720.00000, 118.138, -32.8, 118.56, -150.639, 123.648, 88.143, 0, 0, 2.20612, -55.8739, 2.21486, -173.713, 2.20411, 65.069, 0.0782255, 63.5963
2, 780.00000, 118.138, -32.8, 118.56, -150.639, 123.648, 88.143, 0, 0, 2.20612, -55.8739, 2.21486, -173.713, 2.20411, 65.069, 0.0782255, 63.5963
2, 840.00000, 118.138, -32.8, 118.56, -150.639, 123.648, 88.143, 0, 0, 2.20612, -55.8739, 2.21486, -173.713, 2.20411, 65.069, 0.0782255, 63.5963
