hour,t(sec),V1,VAngle1,V2,VAngle2,V3,VAngle3,V4,VAngle4,I1,IAngle1,I2,IAngle2,I3,IAngle3,I4,IAngle4
0, 60.00000, 119.302, -33.5778, 120.299, -151.245, 124.8, 87.2436, 0, 0, 7.7058, -56.6516, 7.77697, -174.319, 7.54507, 64.171, 0.468084, 62.6042
0, 120.00000, 119.295, -33.6046, 120.299, -151.246, 124.851, 87.2277, 0, 0, 7.70529, -56.6784, 7.77692, -174.319, 7.54194, 64.155, 0.473967, 62.6025
0, 180.00000, 119.289, -33.6287, 120.298, -151.246, 124.898, 87.2134, 0, 0, 7.70482, -56.7025, 7.77688, -174.319, 7.53912, 64.1406, 0.479261, 62.6004
0, 240.00000, 119.284, -33.6503, 120.298, -151.246, 124.94, 87.2006, 0, 0, 7.7044, -56.7242, 7.77683, -174.32, 7.53657, 64.1276, 0.484031, 62.5977
0, 300.00000, 119.279, -33.6698, 120.297, -151.247, 124.978, 87.189, 0, 0, 7.70401, -56.7437, 7.77679, -174.32, 7.53426, 64.116, 0.488327, 62.5947
0, 360.00000, 119.274, -33.6874, 120.296, -151.247, 125.012, 87.1786, 0, 0, 7.70366, -56.7613, 7.77676, -174.321, 7.53218, 64.1055, 0.492192, 62.5918
0, 420.00000, 119.27, -33.7032, 120.296, -151.247, 125.043, 87.1692, 0, 0, 7.70334, -56.7771, 7.77672, -174.321, 7.53031, 64.096, 0.495669, 62.5891
0, 480.00000, 120.044, -33.6086, 121.076, -151.15, 125.969, 87.2884, 0, 0, 8.14162, -56.6825, 8.16057, -174.223, 7.84374, 64.2152, 0.609288, 67.2986
0, 540.00000, 120.04, -33.6215, 121.075, -151.15, 125.994, 87.2808, 0, 0, 8.14135, -56.6953, 8.16059, -174.223, 7.84216, 64.2075, 0.612267, 67.2686
0, 600.00000, 120.037, -33.6331, 121.075, -151.15, 126.016, 87.2739, 0, 0, 8.1411, -56.707, 8.16062, -174.224, 7.84075, 64.2006, 0.614943, 67.242
0, 660.00000, 120.035, -33.6436, 121.075, -151.15, 126.037, 87.2677, 0, 0, 8.14088, -56.7174, 8.16064, -174.224, 7.83948, 64.1943, 0.617352, 67.2183
0, 720.00000, 120.032, -33.653, 121.074, -151.15, 126.055, 87.2621, 0, 0, 8.14068, -56.7268, 8.16066, -174.224, 7.83834, 64.1886, 0.619518, 67.197
0, 780.00000, 120.03, -33.6614, 121.074, -151.15, 126.071, 87.257, 0, 0, 8.1405, -56.7353, 8.16067, -174.224, 7.83731, 64.1836, 0.621468, 67.178
0, 840.00000, 120.028, -33.6691, 121.074, -151.151, 126.086, 87.2525, 0, 0, 8.14034, -56.7429, 8.16069, -174.224, 7.83638, 64.179, 0.623222, 67.1609
0, 900.00000, 120.026, -33.6759, 121.074, -151.151, 126.099, 87.2484, 0, 0, 8.1402, -56.7498, 8.1607, -174.224, 7.83555, 64.1749, 0.624801, 67.1456
0, 960.00000, 120.024, -33.6821, 121.073, -151.151, 126.111, 87.2448, 0, 0, 8.14006, -56.756, 8.16072, -174.225, 7.8348, 64.1712, 0.626221, 67.1319
0, 1020.00000, 120.023, -33.6877, 121.073, -151.151, 126.122, 87.2414, 0, 0, 8.13995, -56.7615, 8.16073, -174.225, 7.83413, 64.1678, 0.6275, 67.1196
0, 1080.00000, 120.022, -33.6927, 121.073, -151.151, 126.131, 87.2385, 0, 0, 8.13984, -56.7665, 8.16074, -174.225, 7.83352, 64.1648, 0.62865, 67.1085
0, 1140.00000, 120.02, -33.6972, 121.073, -151.151, 126.14, 87.2358, 0, 0, 8.13974, -56.771, 8.16074, -174.225, 7.83298, 64.1621, 0.629685, 67.0986
0, 1200.00000, 120.019, -33.7012, 121.073, -151.151, 126.148, 87.2334, 0, 0, 8.13966, -56.7751, 8.16075, -174.225, 7.83249, 64.1597, 0.630616, 67.0897
0, 1260.00000, 120.018, -33.7049, 121.073, -151.151, 126.155, 87.2312, 0, 0, 8.13958, -56.7787, 8.16076, -174.225, 7.83204, 64.1575, 0.631455, 67.0817
0, 1320.00000, 120.017, -33.7081, 121.073, -151.151, 126.161, 87.2292, 0, 0, 8.13951, -56.782, 8.16077, -174.225, 7.83165, 64.1555, 0.632209, 67.0745
0, 1380.00000, 120.017, -33.7111, 121.073, -151.151, 126.167, 87.2275, 0, 0, 8.13944, -56.785, 8.16077, -174.225, 7.83129, 64.1537, 0.632888, 67.068
0, 1440.00000, 120.016, -33.7138, 121.073, -151.151, 126.172, 87.2259, 0, 0, 8.13939, -56.7877, 8.16078, -174.225, 7.83097, 64.1521, 0.633499, 67.0622
0, 1500.00000, 120.015, -33.7162, 121.072, -151.151, 126.177, 87.2245, 0, 0, 8.13933, -56.7901, 8.16078, -174.225, 7.83068, 64.1507, 0.634048, 67.057
0, 1560.00000, 120.015, -33.7183, 121.072, -151.151, 126.181, 87.2232, 0, 0, 8.13929, -56.7922, 8.16079, -174.225, 7.83042, 64.1494, 0.634543, 67.0523
0, 1620.00000, 120.014, -33.7202, 121.072, -151.151, 126.185, 87.222, 0, 0, 8.13925, -56.7941, 8.16079, -174.225, 7.83018, 64.1482, 0.634988, 67.0481
0, 1680.00000, 120.014, -33.722, 121.072, -151.151, 126.188, 87.221, 0, 0, 8.13921, -56.7959, 8.1608, -174.225, 7.82997, 64.1471, 0.635389, 67.0443
0, 1740.00000, 120.013, -33.7236, 121.072, -151.151, 126.191, 87.22, 0, 0, 8.13917, -56.7975, 8.1608, -174.225, 7.82978, 64.1462, 0.63575, 67.0409
0, 1800.00000, 120.013, -33.725, 121.072, -151.151, 126.194, 87.2192, 0, 0, 8.13914, -56.7989, 8.1608, -174.225, 7.82961, 64.1454, 0.636074, 67.0378
0, 1860.00000, 120.013, -33.7262, 121.072, -151.151, 126.196, 87.2184, 0, 0, 8.13912, -56.8002, 8.1608, -174.225, 7.82946, 64.1446, 0.636366, 67.035
0, 1920.00000, 120.012, -33.7274, 121.072, -151.152, 126.198, 87.2178, 0, 0, 8.13909, -56.8013, 8.16081, -174.225, 7.82932, 64.1439, 0.636629, 67.0326
0, 1980.00000, 120.012, -33.7284, 121.072, -151.152, 126.2, 87.2171, 0, 0, 8.13907, -56.8023, 8.16081, -174.225, 7.82919, 64.1433, 0.636866, 67.0303
0, 2040.00000, 120.012, -33.7294, 121.072, -151.152, 126.202, 87.2166, 0, 0, 8.13905, -56.8033, 8.16081, -174.225, 7.82908, 64.1427, 0.637079, 67.0283
0, 2100.00000, 120.011, -33.7302, 121.072, -151.152, 126.204, 87.2161, 0, 0, 8.13903, -56.8041, 8.16081, -174.225, 7.82898, 64.1422, 0.63727, 67.0265
0, 2160.00000, 120.011, -33.7309, 121.072, -151.152, 126.205, 87.2156, 0, 0, 8.13901, -56.8048, 8.16081, -174.225, 7.82889, 64.1418, 0.637443, 67.0249
0, 2220.00000, 120.011, -33.7316, 121.072, -151.152, 126.207, 87.2152, 0, 0, 8.139, -56.8055, 8.16081, -174.225, 7.82881, 64.1414, 0.637598, 67.0234
0, 2280.00000, 120.011, -33.7322, 121.072, -151.152, 126.208, 87.2149, 0, 0, 8.13899, -56.8061, 8.16082, -174.225, 7.82873, 64.141, 0.637738, 67.0221
0, 2340.00000, 120.011, -33.7328, 121.072, -151.152, 126.209, 87.2145, 0, 0, 8.13897, -56.8067, 8.16082, -174.225, 7.82867, 64.1407, 0.637863, 67.0209
0, 2400.00000, 120.011, -33.7333, 121.072, -151.152, 126.21, 87.2142, 0, 0, 8.13896, -56.8072, 8.16082, -174.226, 7.82861, 64.1404, 0.637977, 67.0199
0, 2460.00000, 120.011, -33.7337, 121.072, -151.152, 126.211, 87.214, 0, 0, 8.13895, -56.8076, 8.16082, -174.226, 7.82856, 64.1401, 0.638078, 67.0189
0, 2520.00000, 120.01, -33.7341, 121.072, -151.152, 126.211, 87.2138, 0, 0, 8.13895, -56.808, 8.16082, -174.226, 7.82851, 64.1399, 0.63817, 67.018
0, 2580.00000, 120.01, -33.7345, 121.072, -151.152, 126.212, 87.2135, 0, 0, 8.13894, -56.8084, 8.16082, -174.226, 7.82846, 64.1396, 0.638253, 67.0173
0, 2640.00000, 120.01, -33.7348, 121.072, -151.152, 126.213, 87.2133, 0, 0, 8.13893, -56.8087, 8.16082, -174.226, 7.82842, 64.1394, 0.638327, 67.0166
0, 2700.00000, 120.01, -33.7351, 121.072, -151.152, 126.213, 87.2132, 0, 0, 8.13892, -56.809, 8.16082, -174.226, 7.82839, 64.1393, 0.638394, 67.0159
0, 2760.00000, 120.01, -33.7353, 121.072, -151.152, 126.214, 87.213, 0, 0, 8.13892, -56.8093, 8.16082, -174.226, 7.82836, 64.1391, 0.638454, 67.0154
0, 2820.00000, 120.01, -33.7356, 121.072, -151.152, 126.214, 87.2129, 0, 0, 8.13891, -56.8095, 8.16082, -174.226, 7.82833, 64.139, 0.638508, 67.0148
0, 2880.00000, 120.01, -33.7358, 121.072, -151.152, 126.215, 87.2127, 0, 0, 8.13891, -56.8097, 8.16082, -174.226, 7.8283, 64.1388, 0.638556, 67.0144
0, 2940.00000, 120.01, -33.736, 121.072, -151.152, 126.215, 87.2126, 0, 0, 8.1389, -56.8099, 8.16082, -174.226, 7.82828, 64.1387, 0.6386, 67.014
0, 3000.00000, 120.01, -33.7362, 121.072, -151.152, 126.215, 87.2125, 0, 0, 8.1389, -56.8101, 8.16082, -174.226, 7.82826, 64.1386, 0.63864, 67.0136
0, 3060.00000, 120.01, -33.7363, 121.072, -151.152, 126.216, 87.2124, 0, 0, 8.1389, -56.8102, 8.16082, -174.226, 7.82824, 64.1385, 0.638675, 67.0133
0, 3120.00000, 120.01, -33.7364, 121.072, -151.152, 126.216, 87.2123, 0, 0, 8.13889, -56.8104, 8.16082, -174.226, 7.82822, 64.1384, 0.638707, 67.013
0, 3180.00000, 120.01, -33.7366, 121.072, -151.152, 126.216, 87.2123, 0, 0, 8.13889, -56.8105, 8.16082, -174.226, 7.82821, 64.1384, 0.638736, 67.0127
0, 3240.00000, 120.01, -33.7367, 121.072, -151.152, 126.216, 87.2122, 0, 0, 8.13889, -56.8106, 8.16082, -174.226, 7.8282, 64.1383, 0.638762, 67.0125
0, 3300.00000, 120.01, -33.7368, 121.072, -151.152, 126.217, 87.2122, 0, 0, 8.13889, -56.8107, 8.16082, -174.226, 7.82818, 64.1382, 0.638785, 67.0122
0, 3360.00000, 120.01, -33.7369, 121.072, -151.152, 126.217, 87.2121, 0, 0, 8.13888, -56.8108, 8.16082, -174.226, 7.82817, 64.1382, 0.638806, 67.012
0, 3420.00000, 120.01, -33.737, 121.072, -151.152, 126.217, 87.212, 0, 0, 8.13888, -56.8109, 8.16083, -174.226, 7.82816, 64.1381, 0.638825, 67.0119
0, 3480.00000, 120.01, -33.737, 121.072, -151.152, 126.217, 87.212, 0, 0, 8.13888, -56.811, 8.16083, -174.226, 7.82815, 64.1381, 0.638842, 67.0117
0, 3540.00000, 120.01, -33.7371, 121.072, -151.152, 126.217, 87.212, 0, 0, 8.13888, -56.811, 8.16083, -174.226, 7.82815, 64.138, 0.638857, 67.0116
1, 0.00000, 120.01, -33.7372, 121.072, -151.152, 126.217, 87.2119, 0, 0, 8.13888, -56.8111, 8.16083, -174.226, 7.82814, 64.138, 0.638871, 67.0114
1, 60.00000, 120.01, -33.7372, 121.072, -151.152, 126.217, 87.2119, 0, 0, 8.13888, -56.8111, 8.16083, -174.226, 7.82813, 64.138, 0.638883, 67.0113
1, 120.00000, 120.01, -33.7373, 121.072, -151.152, 126.218, 87.2119, 0, 0, 8.13888, -56.8112, 8.16083, -174.226, 7.82813, 64.1379, 0.638894, 67.0112
1, 180.00000, 120.01, -33.7373, 121.072, -151.152, 126.218, 87.2118, 0, 0, 8.13888, -56.8112, 8.16083, -174.226, 7.82812, 64.1379, 0.638905, 67.0111
1, 240.00000, 120.01, -33.7373, 121.072, -151.152, 126.218, 87.2118, 0, 0, 8.13888, -56.8113, 8.16083, -174.226, 7.82812, 64.1379, 0.638914, 67.011
1, 300.00000, 120.01, -33.7374, 121.072, -151.152, 126.218, 87.2118, 0, 0, 8.13887, -56.8113, 8.16083, -174.226, 7.82811, 64.1379, 0.638922, 67.011
1, 360.00000, 120.01, -33.7374, 121.072, -151.152, 126.218, 87.2118, 0, 0, 8.13887, -56.8113, 8.16083, -174.226, 7.82811, 64.1379, 0.638929, 67.0109
1, 420.00000, 120.01, -33.7374, 121.072, -151.152, 126.218, 87.2118, 0, 0, 8.13887, -56.8114, 8.16083, -174.226, 7.8281, 64.1378, 0.638936, 67.0108
1, 480.00000, 120.01, -33.7375, 121.072, -151.152, 126.218, 87.2117, 0, 0, 8.13887, -56.8114, 8.16083, -174.226, 7.8281, 64.1378, 0.638941, 67.0108
1, 540.00000, 120.01, -33.7375, 121.072, -151.152, 126.218, 87.2117, 0, 0, 8.13887, -56.8114, 8.16083, -174.226, 7.8281, 64.1378, 0.638947, 67.0107
1, 600.00000, 120.01, -33.7375, 121.072, -151.152, 126.218, 87.2117, 0, 0, 8.13887, -56.8114, 8.16083, -174.226, 7.8281, 64.1378, 0.638952, 67.0107
1, 660.00000, 120.009, -33.7375, 121.072, -151.152, 126.218, 87.2117, 0, 0, 8.13887, -56.8114, 8.16083, -174.226, 7.82809, 64.1378, 0.638956, 67.0106
1, 720.00000, 120.009, -33.7375, 121.072, -151.152, 126.218, 87.2117, 0, 0, 8.13887, -56.8115, 8.16083, -174.226, 7.82809, 64.1378, 0.63896, 67.0106
1, 780.00000, 120.009, -33.7376, 121.072, -151.152, 126.218, 87.2117, 0, 0, 8.13887, -56.8115, 8.16083, -174.226, 7.82809, 64.1378, 0.638963, 67.0106
1, 840.00000, 120.009, -33.7376, 121.072, -151.152, 126.218, 87.2117, 0, 0, 8.13887, -56.8115, 8.16083, -174.226, 7.82809, 64.1378, 0.638966, 67.0105
1, 900.00000, 120.009, -33.7376, 121.072, -151.152, 126.218, 87.2117, 0, 0, 8.13887, -56.8115, 8.16083, -174.226, 7.82809, 64.1378, 0.638969, 67.0105
1, 960.00000, 120.009, -33.7376, 121.072, -151.152, 126.218, 87.2117, 0, 0, 8.13887, -56.8115, 8.16083, -174.226, 7.82808, 64.1377, 0.638972, 67.0105
1, 1020.00000, 120.009, -33.7376, 121.072, -151.152, 126.218, 87.2117, 0, 0, 8.13887, -56.8115, 8.16083, -174.226, 7.82808, 64.1377, 0.638974, 67.0105
1, 1080.00000, 120.009, -33.7376, 121.072, -151.152, 126.218, 87.2117, 0, 0, 8.13887, -56.8115, 8.16083, -174.226, 7.82808, 64.1377, 0.638976, 67.0104
1, 1140.00000, 120.009, -33.7376, 121.072, -151.152, 126.218, 87.2116, 0, 0, 8.13887, -56.8115, 8.16083, -174.226, 7.82808, 64.1377, 0.638978, 67.0104
1, 1200.00000, 120.009, -33.7376, 121.072, -151.152, 126.218, 87.2116, 0, 0, 8.13887, -56.8116, 8.16083, -174.226, 7.82808, 64.1377, 0.63898, 67.0104
1, 1260.00000, 120.009, -33.7376, 121.072, -151.152, 126.218, 87.2116, 0, 0, 8.13887, -56.8116, 8.16083, -174.226, 7.82808, 64.1377, 0.638981, 67.0104
1, 1320.00000, 120.009, -33.7376, 121.072, -151.152, 126.218, 87.2116, 0, 0, 8.13887, -56.8116, 8.16083, -174.226, 7.82808, 64.1377, 0.638983, 67.0104
1, 1380.00000, 120.009, -33.7377, 121.072, -151.152, 126.218, 87.2116, 0, 0, 8.13887, -56.8116, 8.16083, -174.226, 7.82808, 64.1377, 0.638984, 67.0104
1, 1440.00000, 120.009, -33.7377, 121.072, -151.152, 126.218, 87.2116, 0, 0, 8.13887, -56.8116, 8.16083, -174.226, 7.82808, 64.1377, 0.638985, 67.0104
1, 1500.00000, 120.009, -33.7377, 121.072, -151.152, 126.218, 87.2116, 0, 0, 8.13887, -56.8116, 8.16083, -174.226, 7.82808, 64.1377, 0.638986, 67.0104
1, 1560.00000, 120.009, -33.7377, 121.072, -151.152, 126.218, 87.2116, 0, 0, 8.13887, -56.8116, 8.16083, -174.226, 7.82808, 64.1377, 0.638987, 67.0103
1, 1620.00000, 120.009, -33.7377, 121.072, -151.152, 126.218, 87.2116, 0, 0, 8.13887, -56.8116, 8.16083, -174.226, 7.82808, 64.1377, 0.638988, 67.0103
1, 1680.00000, 120.009, -33.7377, 121.072, -151.152, 126.218, 87.2116, 0, 0, 8.13887, -56.8116, 8.16083, -174.226, 7.82808, 64.1377, 0.638988, 67.0103
1, 1740.00000, 120.009, -33.7377, 121.072, -151.152, 126.218, 87.2116, 0, 0, 8.13887, -56.8116, 8.16083, -174.226, 7.82808, 64.1377, 0.638989, 67.0103
1, 1800.00000, 120.009, -33.7377, 121.072, -151.152, 126.218, 87.2116, 0, 0, 8.13887, -56.8116, 8.16083, -174.226, 7.82808, 64.1377, 0.63899, 67.0103
1, 1860.00000, 120.009, -33.7377, 121.072, -151.152, 126.218, 87.2116, 0, 0, 8.13887, -56.8116, 8.16083, -174.226, 7.82807, 64.1377, 0.63899, 67.0103
1, 1920.00000, 120.009, -33.7377, 121.072, -151.152, 126.218, 87.2116, 0, 0, 8.13887, -56.8116, 8.16083, -174.226, 7.82807, 64.1377, 0.638991, 67.0103
1, 1980.00000, 120.009, -33.7377, 121.072, -151.152, 126.218, 87.2116, 0, 0, 8.13887, -56.8116, 8.16083, -174.226, 7.82807, 64.1377, 0.638991, 67.0103
1, 2040.00000, 120.009, -33.7377, 121.072, -151.152, 126.218, 87.2116, 0, 0, 8.13887, -56.8116, 8.16083, -174.226, 7.82807, 64.1377, 0.638991, 67.0103
1, 2100.00000, 120.009, -33.7377, 121.072, -151.152, 126.218, 87.2116, 0, 0, 8.13887, -56.8116, 8.16083, -174.226, 7.82807, 64.1377, 0.638992, 67.0103
1, 2160.00000, 120.009, -33.7377, 121.072, -151.152, 126.218, 87.2116, 0, 0, 8.13887, -56.8116, 8.16083, -174.226, 7.82807, 64.1377, 0.638992, 67.0103
1, 2220.00000, 120.009, -33.7377, 121.072, -151.152, 126.218, 87.2116, 0, 0, 8.13887, -56.8116, 8.16083, -174.226, 7.82807, 64.1377, 0.638992, 67.0103
1, 2280.00000, 120.009, -33.7377, 121.072, -151.152, 126.218, 87.2116, 0, 0, 8.13887, -56.8116, 8.16083, -174.226, 7.82807, 64.1377, 0.638992, 67.0103
1, 2340.00000, 120.009, -33.7377, 121.072, -151.152, 126.218, 87.2116, 0, 0, 8.13887, -56.8116, 8.16083, -174.226, 7.82807, 64.1377, 0.638993, 67.0103
1, 2400.00000, 120.009, -33.7377, 121.072, -151.152, 126.218, 87.2116, 0, 0, 8.13887, -56.8116, 8.16083, -174.226, 7.82807, 64.1377, 0.638993, 67.0103
1, 2460.00000, 120.009, -33.7377, 121.072, -151.152, 126.218, 87.2116, 0, 0, 8.13887, -56.8116, 8.16083, -174.226, 7.82807, 64.1377, 0.638993, 67.0103
1, 2520.00000, 120.009, -33.7377, 121.072, -151.152, 126.218, 87.2116, 0, 0, 8.13887, -56.8116, 8.16083, -174.226, 7.82807, 64.1377, 0.638993, 67.0103
1, 2580.00000, 120.009, -33.7377, 121.072, -151.152, 126.218, 87.2116, 0, 0, 8.13887, -56.8116, 8.16083, -174.226, 7.82807, 64.1377, 0.638993, 67.0103
1, 2640.00000, 120.009, -33.7377, 121.072, -151.152, 126.218, 87.2116, 0, 0, 8.13887, -56.8116, 8.16083, -174.226, 7.82807, 64.1377, 0.638994, 67.0103
1, 2700.00000, 120.009, -33.7377, 121.072, -151.152, 126.218, 87.2116, 0, 0, 8.13887, -56.8116, 8.16083, -174.226, 7.82807, 64.1377, 0.638994, 67.0103
1, 2760.00000, 120.009, -33.7377, 121.072, -151.152, 126.218, 87.2116, 0, 0, 8.13887, -56.8116, 8.16083, -174.226, 7.82807, 64.1377, 0.638994, 67.0103
1, 2820.00000, 120.009, -33.7377, 121.072, -151.152, 126.218, 87.2116, 0, 0, 8.13887, -56.8116, 8.16083, -174.226, 7.82807, 64.1377, 0.638994, 67.0103
1, 2880.00000, 120.009, -33.7377, 121.072, -151.152, 126.218, 87.2116, 0, 0, 8.13887, -56.8116, 8.16083, -174.226, 7.82807, 64.1377, 0.638994, 67.0103
1, 2940.00000, 120.009, -33.7377, 121.072, -151.152, 126.218, 87.2116, 0, 0, 8.13887, -56.8116, 8.16083, -174.226, 7.82807, 64.1377, 0.638994, 67.0103
1, 3000.00000, 120.009, -33.7377, 121.072, -151.152, 126.218, 87.2116, 0, 0, 8.13887, -56.8116, 8.16083, -174.226, 7.82807, 64.1377, 0.638994, 67.0103
1, 3060.00000, 120.009, -33.7377, 121.072, -151.152, 126.218, 87.2116, 0, 0, 8.13887, -56.8116, 8.16083, -174.226, 7.82807, 64.1377, 0.638994, 67.0103
1, 3120.00000, 120.009, -33.7377, 121.072, -151.152, 126.218, 87.2116, 0, 0, 8.13887, -56.8116, 8.16083, -174.226, 7.82807, 64.1377, 0.638994, 67.0103
1, 3180.00000, 120.009, -33.7377, 121.072, -151.152, 126.218, 87.2116, 0, 0, 8.13887, -56.8116, 8.16083, -174.226, 7.82807, 64.1377, 0.638994, 67.0103
1, 3240.00000, 120.009, -33.7377, 121.072, -151.152, 126.218, 87.2116, 0, 0, 8.13887, -56.8116, 8.16083, -174.226, 7.82807, 64.1377, 0.638994, 67.0103
1, 3300.00000, 120.009, -33.7377, 121.072, -151.152, 126.218, 87.2116, 0, 0, 8.13887, -56.8116, 8.16083, -174.226, 7.82807, 64.1377, 0.638994, 67.0103
1, 3360.00000, 120.009, -33.7377, 121.072, -151.152, 126.218, 87.2116, 0, 0, 8.13887, -56.8116, 8.16083, -174.226, 7.82807, 64.1377, 0.638994, 67.0103
1, 3420.00000, 120.009, -33.7377, 121.072, -151.152, 126.218, 87.2116, 0, 0, 8.13887, -56.8116, 8.16083, -174.226, 7.82807, 64.1377, 0.638994, 67.0103
1, 3480.00000, 120.009, -33.7377, 121.072, -151.152, 126.218, 87.2116, 0, 0, 8.13887, -56.8116, 8.16083, -174.226, 7.82807, 64.1377, 0.638995, 67.0103
1, 3540.00000, 120.009, -33.7377, 121.072, -151.152, 126.218, 87.2116, 0, 0, 8.13887, -56.8116, 8.16083, -174.226, 7.82807, 64.1377, 0.638995, 67.0103
2, 0.00000, 120.009, -33.7377, 121.072, -151.152, 126.218, 87.2116, 0, 0, 8.13887, -56.8116, 8.16083, -174.226, 7.82807, 64.1377, 0.638995, 67.0103
2, 60.00000, 120.009, -33.7377, 121.072, -151.152, 126.218, 87.2116, 0, 0, 8.13887, -56.8116, 8.16083, -174.226, 7.82807, 64.1377, 0.638995, 67.0103
2, 120.00000, 120.009, -33.7377, 121.072, -151.152, 126.218, 87.2116, 0, 0, 8.13887, -56.8116, 8.16083, -174.226, 7.82807, 64.1377, 0.638995, 67.0103
2, 180.00000, 120.009, -33.7377, 121.072, -151.152, 126.218, 87.2116, 0, 0, 8.13887, -56.8116, 8.16083, -174.226, 7.82807, 64.1377, 0.638995, 67.0103
2, 240.00000, 120.009, -33.7377, 121.072, -151.152, 126.218, 87.2116, 0, 0, 8.13887, -56.8116, 8.16083, -174.226, 7.82807, 64.1377, 0.638995, 67.0103
2, 300.00000, 120.009, -33.7377, 121.072, -151.152, 126.218, 87.2116, 0, 0, 8.13887, -56.8116, 8.16083, -174.226, 7.82807, 64.1377, 0.638995, 67.0103
2, 360.00000, 120.009, -33.7377, 121.072, -151.152, 126.218, 87.2116, 0, 0, 8.13887, -56.8116, 8.16083, -174.226, 7.82807, 64.1377, 0.638995, 67.0103
2, 420.00000, 120.009, -33.7377, 121.072, -151.152, 126.218, 87.2116, 0, 0, 8.13887, -56.8116, 8.16083, -174.226, 7.82807, 64.1377, 0.638995, 67.0103
2, 480.00000, 120.009, -33.7377, 121.072, -151.152, 126.218, 87.2116, 0, 0, 8.13887, -56.8116, 8.16083, -174.226, 7.82807, 64.1377, 0.638995, 67.0103
2, 540.00000, 120.009, -33.7377, 121.072, -151.152, 126.218, 87.2116, 0, 0, 8.13887, -56.8116, 8.16083, -174.226, 7.82807, 64.1377, 0.638995, 67.0103
2, 600.00000, 120.009, -33.7377, 121.072, -151.152, 126.218, 87.2116, 0, 0, 8.13887, -56.8116, 8.16083, -174.226, 7.82807, 64.1377, 0.638995, 67.0103
2, 660.00000, 120.009, -33.7377, 121.072, -151.152, 126.218, 87.2116, 0, 0, 8.13887, -56.8116, 8.16083, -174.226, 7.82807, 64.1377, 0.638995, 67.0103
2, 720.00000, 120.009, -33.7377, 121.072, -151.152, 126.218, 87.2116, 0, 0, 8.13887, -56.8116, 8.16083, -174.226, 7.82807, 64.1377, 0.638995, 67.0103
2, 780.00000, 120.009, -33.7377, 121.072, -151.152, 126.218, 87.2116, 0, 0, 8.13887, -56.8116, 8.16083, -174.226, 7.82807, 64.1377, 0.638995, 67.0103
