hour,t(sec),V1,VAngle1,V2,VAngle2,V3,VAngle3,V4,VAngle4,I1,IAngle1,I2,IAngle2,I3,IAngle3,I4,IAngle4
0, 60.00000, 121.963, -32.9693, 121.586, -151.329, 125.788, 88.0762, 0, 0, 10.1794, -56.0433, 10.2111, -174.402, 9.87041, 65.0027, 0.580556, 58.246
0, 120.00000, 121.966, -32.9833, 121.586, -151.329, 125.822, 88.0709, 0, 0, 10.1792, -56.0573, 10.2111, -174.403, 9.86773, 64.9974, 0.585228, 58.2358
0, 180.00000, 121.969, -32.996, 121.585, -151.33, 125.852, 88.0661, 0, 0, 10.179, -56.0699, 10.2112, -174.403, 9.86532, 64.9926, 0.589426, 58.2273
0, 240.00000, 121.971, -33.0074, 121.585, -151.33, 125.879, 88.0618, 0, 0, 10.1788, -56.0813, 10.2112, -174.404, 9.86316, 64.9882, 0.593204, 58.22
0, 300.00000, 121.973, -33.0176, 121.585, -151.331, 125.904, 88.0579, 0, 0, 10.1786, -56.0916, 10.2112, -174.404, 9.86122, 64.9843, 0.596605, 58.2138
0, 360.00000, 121.975, -33.0269, 121.585, -151.331, 125.926, 88.0543, 0, 0, 10.1785, -56.1008, 10.2113, -174.404, 9.85947, 64.9807, 0.599668, 58.2084
0, 420.00000, 121.977, -33.0352, 121.584, -151.331, 125.946, 88.0512, 0, 0, 10.1784, -56.1091, 10.2113, -174.405, 9.85789, 64.9775, 0.602424, 58.2036
0, 480.00000, 122.681, -32.9239, 122.234, -151.215, 126.707, 88.1888, 0, 0, 8.80441, -55.9977, 8.83661, -174.288, 8.52484, 65.1152, 0.526817, 57.6531
0, 540.00000, 122.682, -32.9307, 122.234, -151.215, 126.723, 88.1862, 0, 0, 8.80431, -56.0045, 8.83663, -174.289, 8.52374, 65.1125, 0.528753, 57.6521
0, 600.00000, 122.683, -32.9368, 122.234, -151.215, 126.738, 88.1838, 0, 0, 8.80423, -56.0107, 8.83664, -174.289, 8.52276, 65.1101, 0.530492, 57.6514
0, 660.00000, 122.685, -32.9423, 122.234, -151.215, 126.751, 88.1817, 0, 0, 8.80415, -56.0162, 8.83665, -174.289, 8.52188, 65.1079, 0.532057, 57.6508
0, 720.00000, 122.686, -32.9473, 122.234, -151.215, 126.762, 88.1797, 0, 0, 8.80408, -56.0212, 8.83666, -174.289, 8.52108, 65.106, 0.533465, 57.6504
0, 780.00000, 122.687, -32.9518, 122.234, -151.216, 126.773, 88.178, 0, 0, 8.80402, -56.0257, 8.83667, -174.289, 8.52037, 65.1042, 0.534733, 57.65
0, 840.00000, 122.687, -32.9558, 122.234, -151.216, 126.782, 88.1764, 0, 0, 8.80397, -56.0297, 8.83668, -174.29, 8.51972, 65.1027, 0.535874, 57.6497
0, 900.00000, 122.688, -32.9594, 122.234, -151.216, 126.791, 88.175, 0, 0, 8.80392, -56.0333, 8.83668, -174.29, 8.51914, 65.1012, 0.536901, 57.6494
0, 960.00000, 122.689, -32.9627, 122.233, -151.216, 126.798, 88.1738, 0, 0, 8.80387, -56.0366, 8.83669, -174.29, 8.51862, 65.1, 0.537825, 57.6493
0, 1020.00000, 122.689, -32.9657, 122.233, -151.216, 126.805, 88.1726, 0, 0, 8.80383, -56.0395, 8.8367, -174.29, 8.51815, 65.0988, 0.538657, 57.6491
0, 1080.00000, 122.69, -32.9683, 122.233, -151.216, 126.811, 88.1716, 0, 0, 8.8038, -56.0422, 8.8367, -174.29, 8.51773, 65.0978, 0.539405, 57.649
0, 1140.00000, 122.69, -32.9707, 122.233, -151.216, 126.817, 88.1707, 0, 0, 8.80377, -56.0446, 8.83671, -174.29, 8.51735, 65.0968, 0.540079, 57.6489
0, 1200.00000, 122.691, -32.9728, 122.233, -151.216, 126.822, 88.1698, 0, 0, 8.80374, -56.0467, 8.83671, -174.29, 8.51701, 65.096, 0.540686, 57.6488
0, 1260.00000, 122.691, -32.9748, 122.233, -151.216, 126.827, 88.1691, 0, 0, 8.80371, -56.0487, 8.83671, -174.29, 8.5167, 65.0952, 0.541232, 57.6488
0, 1320.00000, 122.692, -32.9765, 122.233, -151.216, 126.831, 88.1684, 0, 0, 8.80369, -56.0504, 8.83672, -174.29, 8.51643, 65.0945, 0.541723, 57.6487
0, 1380.00000, 122.692, -32.9781, 122.233, -151.216, 126.834, 88.1678, 0, 0, 8.80367, -56.052, 8.83672, -174.29, 8.51618, 65.0939, 0.542165, 57.6487
0, 1440.00000, 122.692, -32.9795, 122.233, -151.216, 126.838, 88.1672, 0, 0, 8.80365, -56.0534, 8.83672, -174.29, 8.51595, 65.0934, 0.542563, 57.6487
0, 1500.00000, 122.692, -32.9807, 122.233, -151.217, 126.841, 88.1667, 0, 0, 8.80363, -56.0546, 8.83673, -174.29, 8.51575, 65.0929, 0.542921, 57.6487
0, 1560.00000, 122.693, -32.9819, 122.233, -151.217, 126.843, 88.1663, 0, 0, 8.80362, -56.0558, 8.83673, -174.29, 8.51557, 65.0924, 0.543244, 57.6486
0, 1620.00000, 122.693, -32.9829, 122.233, -151.217, 126.846, 88.1659, 0, 0, 8.80361, -56.0568, 8.83673, -174.29, 8.51541, 65.092, 0.543534, 57.6486
0, 1680.00000, 122.693, -32.9838, 122.233, -151.217, 126.848, 88.1655, 0, 0, 8.80359, -56.0577, 8.83673, -174.291, 8.51526, 65.0917, 0.543795, 57.6486
0, 1740.00000, 122.693, -32.9847, 122.233, -151.217, 126.85, 88.1652, 0, 0, 8.80358, -56.0586, 8.83673, -174.291, 8.51513, 65.0913, 0.54403, 57.6486
0, 1800.00000, 122.693, -32.9854, 122.233, -151.217, 126.852, 88.1649, 0, 0, 8.80357, -56.0593, 8.83673, -174.291, 8.51501, 65.091, 0.544242, 57.6486
0, 1860.00000, 122.693, -32.9861, 122.233, -151.217, 126.853, 88.1647, 0, 0, 8.80356, -56.06, 8.83674, -174.291, 8.5149, 65.0908, 0.544432, 57.6486
0, 1920.00000, 122.694, -32.9867, 122.233, -151.217, 126.855, 88.1644, 0, 0, 8.80356, -56.0606, 8.83674, -174.291, 8.5148, 65.0905, 0.544603, 57.6486
0, 1980.00000, 122.694, -32.9872, 122.233, -151.217, 126.856, 88.1642, 0, 0, 8.80355, -56.0611, 8.83674, -174.291, 8.51472, 65.0903, 0.544757, 57.6486
0, 2040.00000, 122.694, -32.9877, 122.233, -151.217, 126.857, 88.164, 0, 0, 8.80354, -56.0616, 8.83674, -174.291, 8.51464, 65.0901, 0.544896, 57.6486
0, 2100.00000, 122.694, -32.9882, 122.233, -151.217, 126.858, 88.1638, 0, 0, 8.80354, -56.0621, 8.83674, -174.291, 8.51457, 65.0899, 0.545021, 57.6486
0, 2160.00000, 122.694, -32.9886, 122.233, -151.217, 126.859, 88.1637, 0, 0, 8.80353, -56.0625, 8.83674, -174.291, 8.5145, 65.0898, 0.545134, 57.6486
0, 2220.00000, 122.694, -32.9889, 122.233, -151.217, 126.86, 88.1635, 0, 0, 8.80353, -56.0628, 8.83674, -174.291, 8.51445, 65.0896, 0.545235, 57.6486
0, 2280.00000, 122.694, -32.9892, 122.233, -151.217, 126.861, 88.1634, 0, 0, 8.80352, -56.0632, 8.83674, -174.291, 8.5144, 65.0895, 0.545326, 57.6486
0, 2340.00000, 122.694, -32.9895, 122.233, -151.217, 126.861, 88.1633, 0, 0, 8.80352, -56.0634, 8.83674, -174.291, 8.51435, 65.0894, 0.545408, 57.6486
0, 2400.00000, 122.694, -32.9898, 122.233, -151.217, 126.862, 88.1632, 0, 0, 8.80351, -56.0637, 8.83674, -174.291, 8.51431, 65.0893, 0.545482, 57.6486
0, 2460.00000, 122.694, -32.99, 122.233, -151.217, 126.862, 88.1631, 0, 0, 8.80351, -56.0639, 8.83674, -174.291, 8.51427, 65.0892, 0.545548, 57.6486
0, 2520.00000, 122.694, -32.9902, 122.233, -151.217, 126.863, 88.163, 0, 0, 8.80351, -56.0642, 8.83674, -174.291, 8.51424, 65.0891, 0.545608, 57.6486
0, 2580.00000, 122.694, -32.9904, 122.233, -151.217, 126.863, 88.163, 0, 0, 8.80351, -56.0643, 8.83675, -174.291, 8.51421, 65.089, 0.545661, 57.6486
0, 2640.00000, 122.694, -32.9906, 122.233, -151.217, 126.864, 88.1629, 0, 0, 8.8035, -56.0645, 8.83675, -174.291, 8.51418, 65.089, 0.54571, 57.6486
0, 2700.00000, 122.694, -32.9908, 122.233, -151.217, 126.864, 88.1628, 0, 0, 8.8035, -56.0647, 8.83675, -174.291, 8.51416, 65.0889, 0.545753, 57.6486
0, 2760.00000, 122.694, -32.9909, 122.233, -151.217, 126.864, 88.1628, 0, 0, 8.8035, -56.0648, 8.83675, -174.291, 8.51413, 65.0889, 0.545793, 57.6486
0, 2820.00000, 122.694, -32.991, 122.233, -151.217, 126.865, 88.1627, 0, 0, 8.8035, -56.0649, 8.83675, -174.291, 8.51411, 65.0888, 0.545828, 57.6486
0, 2880.00000, 122.694, -32.9911, 122.233, -151.217, 126.865, 88.1627, 0, 0, 8.8035, -56.065, 8.83675, -174.291, 8.5141, 65.0888, 0.54586, 57.6486
0, 2940.00000, 122.694, -32.9912, 122.233, -151.217, 126.865, 88.1626, 0, 0, 8.8035, -56.0651, 8.83675, -174.291, 8.51408, 65.0887, 0.545888, 57.6486
0, 3000.00000, 122.694, -32.9913, 122.233, -151.217, 126.865, 88.1626, 0, 0, 8.80349, -56.0652, 8.83675, -174.291, 8.51407, 65.0887, 0.545914, 57.6486
0, 3060.00000, 122.694, -32.9914, 122.233, -151.217, 126.866, 88.1626, 0, 0, 8.80349, -56.0653, 8.83675, -174.291, 8.51405, 65.0887, 0.545937, 57.6486
0, 3120.00000, 122.694, -32.9915, 122.233, -151.217, 126.866, 88.1625, 0, 0, 8.80349, -56.0654, 8.83675, -174.291, 8.51404, 65.0886, 0.545958, 57.6486
0, 3180.00000, 122.694, -32.9915, 122.233, -151.217, 126.866, 88.1625, 0, 0, 8.80349, -56.0655, 8.83675, -174.291, 8.51403, 65.0886, 0.545977, 57.6486
0, 3240.00000, 122.694, -32.9916, 122.233, -151.217, 126.866, 88.1625, 0, 0, 8.80349, -56.0655, 8.83675, -174.291, 8.51402, 65.0886, 0.545993, 57.6486
0, 3300.00000, 122.695, -32.9917, 122.233, -151.217, 126.866, 88.1625, 0, 0, 8.80349, -56.0656, 8.83675, -174.291, 8.51401, 65.0886, 0.546009, 57.6486
0, 3360.00000, 122.695, -32.9917, 122.233, -151.217, 126.866, 88.1625, 0, 0, 8.80349, -56.0656, 8.83675, -174.291, 8.514, 65.0885, 0.546022, 57.6486
0, 3420.00000, 122.695, -32.9917, 122.233, -151.217, 126.866, 88.1624, 0, 0, 8.80349, -56.0657, 8.83675, -174.291, 8.514, 65.0885, 0.546035, 57.6486
0, 3480.00000, 122.695, -32.9918, 122.233, -151.217, 126.866, 88.1624, 0, 0, 8.80349, -56.0657, 8.83675, -174.291, 8.51399, 65.0885, 0.546046, 57.6486
0, 3540.00000, 122.695, -32.9918, 122.233, -151.217, 126.867, 88.1624, 0, 0, 8.80349, -56.0657, 8.83675, -174.291, 8.51399, 65.0885, 0.546056, 57.6486
1, 0.00000, 122.695, -32.9919, 122.233, -151.217, 126.867, 88.1624, 0, 0, 8.80349, -56.0658, 8.83675, -174.291, 8.51398, 65.0885, 0.546065, 57.6486
1, 60.00000, 122.782, -32.8622, 122.526, -151.184, 126.866, 88.165, 0, 0, 8.79723, -55.9362, 8.81559, -174.258, 8.514, 65.0911, 0.516719, 60.0481
1, 120.00000, 122.782, -32.8623, 122.526, -151.184, 126.866, 88.165, 0, 0, 8.79723, -55.9362, 8.81559, -174.258, 8.514, 65.0911, 0.516726, 60.0481
1, 180.00000, 122.782, -32.8623, 122.526, -151.184, 126.866, 88.165, 0, 0, 8.79723, -55.9362, 8.81559, -174.258, 8.51399, 65.0911, 0.516733, 60.048
1, 240.00000, 122.782, -32.8623, 122.526, -151.184, 126.867, 88.165, 0, 0, 8.79723, -55.9362, 8.81559, -174.258, 8.51399, 65.0911, 0.516739, 60.048
1, 300.00000, 122.782, -32.8623, 122.526, -151.184, 126.867, 88.165, 0, 0, 8.79723, -55.9363, 8.81559, -174.258, 8.51399, 65.0911, 0.516744, 60.048
1, 360.00000, 122.782, -32.8624, 122.526, -151.184, 126.867, 88.165, 0, 0, 8.79723, -55.9363, 8.81559, -174.258, 8.51398, 65.091, 0.516749, 60.048
1, 420.00000, 122.782, -32.8624, 122.526, -151.184, 126.867, 88.165, 0, 0, 8.79723, -55.9363, 8.81559, -174.258, 8.51398, 65.091, 0.516753, 60.0479
1, 480.00000, 122.782, -32.8624, 122.526, -151.184, 126.867, 88.165, 0, 0, 8.79723, -55.9363, 8.81559, -174.258, 8.51398, 65.091, 0.516757, 60.0479
1, 540.00000, 122.782, -32.8624, 122.526, -151.184, 126.867, 88.1649, 0, 0, 8.79723, -55.9363, 8.81559, -174.258, 8.51398, 65.091, 0.51676, 60.0479
1, 600.00000, 122.782, -32.8624, 122.526, -151.184, 126.867, 88.1649, 0, 0, 8.79723, -55.9363, 8.81559, -174.258, 8.51397, 65.091, 0.516764, 60.0479
1, 660.00000, 122.782, -32.8624, 122.526, -151.184, 126.867, 88.1649, 0, 0, 8.79723, -55.9363, 8.81559, -174.258, 8.51397, 65.091, 0.516766, 60.0479
1, 720.00000, 122.782, -32.8624, 122.526, -151.184, 126.867, 88.1649, 0, 0, 8.79723, -55.9363, 8.81559, -174.258, 8.51397, 65.091, 0.516769, 60.0479
1, 780.00000, 122.782, -32.8624, 122.526, -151.184, 126.867, 88.1649, 0, 0, 8.79723, -55.9363, 8.81559, -174.258, 8.51397, 65.091, 0.516771, 60.0479
1, 840.00000, 122.782, -32.8624, 122.526, -151.184, 126.867, 88.1649, 0, 0, 8.79723, -55.9364, 8.81559, -174.258, 8.51397, 65.091, 0.516773, 60.0479
1, 900.00000, 122.782, -32.8624, 122.526, -151.184, 126.867, 88.1649, 0, 0, 8.79723, -55.9364, 8.81559, -174.258, 8.51397, 65.091, 0.516775, 60.0478
1, 960.00000, 122.782, -32.8624, 122.526, -151.184, 126.867, 88.1649, 0, 0, 8.79723, -55.9364, 8.81559, -174.258, 8.51397, 65.091, 0.516777, 60.0478
1, 1020.00000, 122.782, -32.8625, 122.526, -151.184, 126.867, 88.1649, 0, 0, 8.79723, -55.9364, 8.81559, -174.258, 8.51397, 65.091, 0.516778, 60.0478
1, 1080.00000, 122.782, -32.8625, 122.526, -151.184, 126.867, 88.1649, 0, 0, 8.79723, -55.9364, 8.81559, -174.258, 8.51397, 65.091, 0.51678, 60.0478
1, 1140.00000, 122.782, -32.8625, 122.526, -151.184, 126.867, 88.1649, 0, 0, 8.79723, -55.9364, 8.81559, -174.258, 8.51396, 65.091, 0.516781, 60.0478
1, 1200.00000, 122.782, -32.8625, 122.526, -151.184, 126.867, 88.1649, 0, 0, 8.79723, -55.9364, 8.81559, -174.258, 8.51396, 65.091, 0.516782, 60.0478
1, 1260.00000, 122.782, -32.8625, 122.526, -151.184, 126.867, 88.1649, 0, 0, 8.79723, -55.9364, 8.81559, -174.258, 8.51396, 65.091, 0.516783, 60.0478
1, 1320.00000, 122.782, -32.8625, 122.526, -151.184, 126.867, 88.1649, 0, 0, 8.79723, -55.9364, 8.81559, -174.258, 8.51396, 65.091, 0.516784, 60.0478
1, 1380.00000, 122.782, -32.8625, 122.526, -151.184, 126.867, 88.1649, 0, 0, 8.79723, -55.9364, 8.81559, -174.258, 8.51396, 65.091, 0.516785, 60.0478
1, 1440.00000, 122.782, -32.8625, 122.526, -151.184, 126.867, 88.1649, 0, 0, 8.79723, -55.9364, 8.81559, -174.258, 8.51396, 65.091, 0.516785, 60.0478
1, 1500.00000, 122.782, -32.8625, 122.526, -151.184, 126.867, 88.1649, 0, 0, 8.79723, -55.9364, 8.81559, -174.258, 8.51396, 65.091, 0.516786, 60.0478
1, 1560.00000, 122.782, -32.8625, 122.526, -151.184, 126.867, 88.1649, 0, 0, 8.79723, -55.9364, 8.81559, -174.258, 8.51396, 65.091, 0.516787, 60.0478
1, 1620.00000, 122.782, -32.8625, 122.526, -151.184, 126.867, 88.1649, 0, 0, 8.79723, -55.9364, 8.81559, -174.258, 8.51396, 65.091, 0.516787, 60.0478
1, 1680.00000, 122.782, -32.8625, 122.526, -151.184, 126.867, 88.1649, 0, 0, 8.79723, -55.9364, 8.81559, -174.258, 8.51396, 65.091, 0.516787, 60.0478
1, 1740.00000, 122.782, -32.8625, 122.526, -151.184, 126.867, 88.1649, 0, 0, 8.79723, -55.9364, 8.81559, -174.258, 8.51396, 65.091, 0.516788, 60.0478
1, 1800.00000, 122.782, -32.8625, 122.526, -151.184, 126.867, 88.1649, 0, 0, 8.79723, -55.9364, 8.81559, -174.258, 8.51396, 65.091, 0.516788, 60.0478
1, 1860.00000, 122.782, -32.8625, 122.526, -151.184, 126.867, 88.1649, 0, 0, 8.79723, -55.9364, 8.81559, -174.258, 8.51396, 65.091, 0.516789, 60.0478
1, 1920.00000, 122.782, -32.8625, 122.526, -151.184, 126.867, 88.1649, 0, 0, 8.79723, -55.9364, 8.81559, -174.258, 8.51396, 65.091, 0.516789, 60.0478
1, 1980.00000, 122.782, -32.8625, 122.526, -151.184, 126.867, 88.1649, 0, 0, 8.79723, -55.9364, 8.81559, -174.258, 8.51396, 65.091, 0.516789, 60.0478
1, 2040.00000, 122.782, -32.8625, 122.526, -151.184, 126.867, 88.1649, 0, 0, 8.79723, -55.9364, 8.81559, -174.258, 8.51396, 65.091, 0.516789, 60.0478
1, 2100.00000, 122.782, -32.8625, 122.526, -151.184, 126.867, 88.1649, 0, 0, 8.79723, -55.9364, 8.81559, -174.258, 8.51396, 65.091, 0.51679, 60.0478
1, 2160.00000, 122.782, -32.8625, 122.526, -151.184, 126.867, 88.1649, 0, 0, 8.79723, -55.9364, 8.81559, -174.258, 8.51396, 65.091, 0.51679, 60.0478
1, 2220.00000, 122.782, -32.8625, 122.526, -151.184, 126.867, 88.1649, 0, 0, 8.79723, -55.9364, 8.81559, -174.258, 8.51396, 65.091, 0.51679, 60.0478
1, 2280.00000, 122.782, -32.8625, 122.526, -151.184, 126.867, 88.1649, 0, 0, 8.79723, -55.9364, 8.81559, -174.258, 8.51396, 65.091, 0.51679, 60.0478
1, 2340.00000, 122.782, -32.8625, 122.526, -151.184, 126.867, 88.1649, 0, 0, 8.79723, -55.9364, 8.81559, -174.258, 8.51396, 65.091, 0.51679, 60.0478
1, 2400.00000, 122.782, -32.8625, 122.526, -151.184, 126.867, 88.1649, 0, 0, 8.79723, -55.9364, 8.81559, -174.258, 8.51396, 65.091, 0.516791, 60.0478
1, 2460.00000, 122.782, -32.8625, 122.526, -151.184, 126.867, 88.1649, 0, 0, 8.79723, -55.9364, 8.81559, -174.258, 8.51396, 65.091, 0.516791, 60.0478
1, 2520.00000, 122.782, -32.8625, 122.526, -151.184, 126.867, 88.1649, 0, 0, 8.79723, -55.9364, 8.81559, -174.258, 8.51396, 65.091, 0.516791, 60.0478
1, 2580.00000, 122.782, -32.8625, 122.526, -151.184, 126.867, 88.1649, 0, 0, 8.79723, -55.9364, 8.81559, -174.258, 8.51396, 65.091, 0.516791, 60.0478
1, 2640.00000, 122.782, -32.8625, 122.526, -151.184, 126.867, 88.1649, 0, 0, 8.79723, -55.9364, 8.81559, -174.258, 8.51396, 65.091, 0.516791, 60.0478
1, 2700.00000, 122.782, -32.8625, 122.526, -151.184, 126.867, 88.1649, 0, 0, 8.79723, -55.9364, 8.81559, -174.258, 8.51396, 65.091, 0.516791, 60.0478
1, 2760.00000, 122.782, -32.8625, 122.526, -151.184, 126.867, 88.1649, 0, 0, 8.79723, -55.9364, 8.81559, -174.258, 8.51396, 65.091, 0.516791, 60.0478
1, 2820.00000, 122.782, -32.8625, 122.526, -151.184, 126.867, 88.1649, 0, 0, 8.79723, -55.9364, 8.81559, -174.258, 8.51396, 65.091, 0.516791, 60.0478
1, 2880.00000, 122.782, -32.8625, 122.526, -151.184, 126.867, 88.1649, 0, 0, 8.79723, -55.9364, 8.81559, -174.258, 8.51396, 65.091, 0.516791, 60.0478
1, 2940.00000, 122.782, -32.8625, 122.526, -151.184, 126.867, 88.1649, 0, 0, 8.79723, -55.9364, 8.81559, -174.258, 8.51396, 65.091, 0.516791, 60.0478
1, 3000.00000, 122.782, -32.8625, 122.526, -151.184, 126.867, 88.1649, 0, 0, 8.79723, -55.9364, 8.81559, -174.258, 8.51396, 65.091, 0.516791, 60.0478
1, 3060.00000, 122.782, -32.8625, 122.526, -151.184, 126.867, 88.1649, 0, 0, 8.79723, -55.9364, 8.81559, -174.258, 8.51396, 65.091, 0.516791, 60.0478
1, 3120.00000, 122.782, -32.8625, 122.526, -151.184, 126.867, 88.1649, 0, 0, 8.79723, -55.9364, 8.81559, -174.258, 8.51396, 65.091, 0.516791, 60.0478
1, 3180.00000, 122.782, -32.8625, 122.526, -151.184, 126.867, 88.1649, 0, 0, 8.79723, -55.9364, 8.81559, -174.258, 8.51396, 65.091, 0.516791, 60.0478
1, 3240.00000, 122.782, -32.8625, 122.526, -151.184, 126.867, 88.1649, 0, 0, 8.79723, -55.9364, 8.81559, -174.258, 8.51396, 65.091, 0.516791, 60.0478
1, 3300.00000, 122.782, -32.8625, 122.526, -151.184, 126.867, 88.1649, 0, 0, 8.79723, -55.9364, 8.81559, -174.258, 8.51396, 65.091, 0.516791, 60.0478
1, 3360.00000, 122.782, -32.8625, 122.526, -151.184, 126.867, 88.1649, 0, 0, 8.79723, -55.9364, 8.81559, -174.258, 8.51396, 65.091, 0.516792, 60.0478
1, 3420.00000, 122.782, -32.8625, 122.526, -151.184, 126.867, 88.1649, 0, 0, 8.79723, -55.9364, 8.81559, -174.258, 8.51396, 65.091, 0.516792, 60.0478
1, 3480.00000, 122.782, -32.8625, 122.526, -151.184, 126.867, 88.1649, 0, 0, 8.79723, -55.9364, 8.81559, -174.258, 8.51396, 65.091, 0.516792, 60.0478
1, 3540.00000, 122.782, -32.8625, 122.526, -151.184, 126.867, 88.1649, 0, 0, 8.79723, -55.9364, 8.81559, -174.258, 8.51396, 65.091, 0.516792, 60.0478
2, 0.00000, 122.782, -32.8625, 122.526, -151.184, 126.867, 88.1649, 0, 0, 8.79723, -55.9364, 8.81559, -174.258, 8.51396, 65.091, 0.516792, 60.0478
2, 60.00000, 122.782, -32.8625, 122.526, -151.184, 126.867, 88.1649, 0, 0, 8.79723, -55.9364, 8.81559, -174.258, 8.51396, 65.091, 0.516792, 60.0478
2, 120.00000, 122.782, -32.8625, 122.526, -151.184, 126.867, 88.1649, 0, 0, 8.79723, -55.9364, 8.81559, -174.258, 8.51396, 65.091, 0.516792, 60.0478
2, 180.00000, 122.782, -32.8625, 122.526, -151.184, 126.867, 88.1649, 0, 0, 8.79723, -55.9364, 8.81559, -174.258, 8.51396, 65.091, 0.516792, 60.0478
2, 240.00000, 122.782, -32.8625, 122.526, -151.184, 126.867, 88.1649, 0, 0, 8.79723, -55.9364, 8.81559, -174.258, 8.51396, 65.091, 0.516792, 60.0478
2, 300.00000, 122.782, -32.8625, 122.526, -151.184, 126.867, 88.1649, 0, 0, 8.79723, -55.9364, 8.81559, -174.258, 8.51396, 65.091, 0.516792, 60.0478
2, 360.00000, 122.782, -32.8625, 122.526, -151.184, 126.867, 88.1649, 0, 0, 8.79723, -55.9364, 8.81559, -174.258, 8.51396, 65.091, 0.516792, 60.0478
2, 420.00000, 122.782, -32.8625, 122.526, -151.184, 126.867, 88.1649, 0, 0, 8.79723, -55.9364, 8.81559, -174.258, 8.51396, 65.091, 0.516792, 60.0478
2, 480.00000, 122.782, -32.8625, 122.526, -151.184, 126.867, 88.1649, 0, 0, 8.79723, -55.9364, 8.81559, -174.258, 8.51396, 65.091, 0.516792, 60.0478
2, 540.00000, 122.782, -32.8625, 122.526, -151.184, 126.867, 88.1649, 0, 0, 8.79723, -55.9364, 8.81559, -174.258, 8.51396, 65.091, 0.516792, 60.0478
2, 600.00000, 122.782, -32.8625, 122.526, -151.184, 126.867, 88.1649, 0, 0, 8.79723, -55.9364, 8.81559, -174.258, 8.51396, 65.091, 0.516792, 60.0478
2, 660.00000, 122.782, -32.8625, 122.526, -151.184, 126.867, 88.1649, 0, 0, 8.79723, -55.9364, 8.81559, -174.258, 8.51396, 65.091, 0.516792, 60.0478
2, 720.00000, 122.782, -32.8625, 122.526, -151.184, 126.867, 88.1649, 0, 0, 8.79723, -55.9364, 8.81559, -174.258, 8.51396, 65.091, 0.516792, 60.0478
2, 780.00000, 122.782, -32.8625, 122.526, -151.184, 126.867, 88.1649, 0, 0, 8.79723, -55.9364, 8.81559, -174.258, 8.51396, 65.091, 0.516792, 60.0478
