hour,t(sec),V1,VAngle1,V2,VAngle2,V3,VAngle3,V4,VAngle4,I1,IAngle1,I2,IAngle2,I3,IAngle3,I4,IAngle4
0, 60.00000, 115.631, -31.7077, 115.485, -150.797, 117.943, 88.8021, 0, 0, 2.12927, -54.7813, 2.12626, -173.87, 2.17667, 65.7283, 0.0196838, -115.88
0, 120.00000, 115.631, -31.7077, 115.485, -150.797, 117.943, 88.802, 0, 0, 2.12925, -54.7816, 2.12624, -173.871, 2.17664, 65.7281, 0.019676, -115.886
0, 180.00000, 115.631, -31.7077, 115.485, -150.797, 117.943, 88.802, 0, 0, 2.12925, -54.7816, 2.12624, -173.871, 2.17664, 65.7281, 0.0196759, -115.887
0, 240.00000, 115.631, -31.7077, 115.485, -150.797, 117.943, 88.802, 0, 0, 2.12925, -54.7816, 2.12624, -173.871, 2.17664, 65.7281, 0.0196759, -115.887
0, 300.00000, 115.631, -31.7077, 115.485, -150.797, 117.943, 88.802, 0, 0, 2.12925, -54.7816, 2.12624, -173.871, 2.17664, 65.7281, 0.0196759, -115.887
0, 360.00000, 115.631, -31.7077, 115.485, -150.797, 117.943, 88.802, 0, 0, 2.12925, -54.7816, 2.12624, -173.871, 2.17664, 65.7281, 0.0196759, -115.887
0, 420.00000, 115.631, -31.7077, 115.485, -150.797, 117.943, 88.802, 0, 0, 2.12925, -54.7816, 2.12624, -173.871, 2.17664, 65.7281, 0.0196759, -115.887
0, 480.00000, 116.614, -31.6179, 116.424, -150.708, 118.879, 88.9079, 0, 0, 1.86996, -54.6922, 1.86657, -173.782, 1.91037, 65.8337, 0.0164665, -116.168
0, 540.00000, 116.614, -31.6179, 116.424, -150.708, 118.879, 88.9079, 0, 0, 1.86998, -54.6918, 1.86659, -173.782, 1.91039, 65.834, 0.0164729, -116.181
0, 600.00000, 116.614, -31.6179, 116.424, -150.708, 118.879, 88.9079, 0, 0, 1.86998, -54.6918, 1.86659, -173.782, 1.91039, 65.834, 0.0164729, -116.181
0, 660.00000, 116.614, -31.6179, 116.424, -150.708, 118.879, 88.9079, 0, 0, 1.86998, -54.6918, 1.86659, -173.782, 1.91039, 65.834, 0.0164729, -116.181
0, 720.00000, 116.614, -31.6179, 116.424, -150.708, 118.879, 88.9079, 0, 0, 1.86998, -54.6918, 1.86659, -173.782, 1.91039, 65.834, 0.0164729, -116.181
0, 780.00000, 116.614, -31.6179, 116.424, -150.708, 118.879, 88.9079, 0, 0, 1.86998, -54.6918, 1.86659, -173.782, 1.91039, 65.834, 0.0164729, -116.181
0, 840.00000, 116.614, -31.6179, 116.424, -150.708, 118.879, 88.9079, 0, 0, 1.86998, -54.6918, 1.86659, -173.782, 1.91039, 65.834, 0.0164729, -116.181
0, 900.00000, 116.614, -31.6179, 116.424, -150.708, 118.879, 88.9079, 0, 0, 1.86998, -54.6918, 1.86659, -173.782, 1.91039, 65.834, 0.0164729, -116.181
0, 960.00000, 116.199, -31.6292, 115.523, -151.032, 117.678, 88.9729, 0, 0, 1.86261, -54.7025, 1.85054, -174.105, 1.88899, 65.8991, 0.0156642, -115.993
0, 1020.00000, 116.199, -31.6292, 115.523, -151.032, 117.677, 88.9728, 0, 0, 1.86258, -54.7031, 1.85052, -174.105, 1.88895, 65.8989, 0.0156347, -115.91
0, 1080.00000, 116.199, -31.6292, 115.523, -151.032, 117.677, 88.9728, 0, 0, 1.86258, -54.7031, 1.85052, -174.105, 1.88895, 65.8989, 0.0156346, -115.909
0, 1140.00000, 116.566, -31.6053, 115.522, -151.03, 117.837, 89.1283, 0, 0, 1.8691, -54.6796, 1.8505, -174.104, 1.8918, 66.0544, 0.015845, -119.187
0, 1200.00000, 116.566, -31.6053, 115.522, -151.03, 117.837, 89.1283, 0, 0, 1.86912, -54.6792, 1.8505, -174.104, 1.89181, 66.0544, 0.0158606, -119.276
0, 1260.00000, 116.566, -31.6053, 115.522, -151.03, 117.837, 89.1283, 0, 0, 1.86912, -54.6792, 1.8505, -174.104, 1.89181, 66.0544, 0.0158606, -119.276
0, 1320.00000, 116.566, -31.6053, 115.522, -151.03, 117.837, 89.1283, 0, 0, 1.86912, -54.6792, 1.8505, -174.104, 1.89181, 66.0544, 0.0158606, -119.276
0, 1380.00000, 116.566, -31.6053, 115.522, -151.03, 117.837, 89.1283, 0, 0, 1.86912, -54.6792, 1.8505, -174.104, 1.89181, 66.0544, 0.0158606, -119.276
0, 1440.00000, 116.566, -31.6053, 115.522, -151.03, 117.837, 89.1283, 0, 0, 1.86912, -54.6792, 1.8505, -174.104, 1.89181, 66.0544, 0.0158606, -119.276
0, 1500.00000, 116.566, -31.6053, 115.522, -151.03, 117.837, 89.1283, 0, 0, 1.86912, -54.6792, 1.8505, -174.104, 1.89181, 66.0544, 0.0158606, -119.276
0, 1560.00000, 116.566, -31.6053, 115.522, -151.03, 117.837, 89.1283, 0, 0, 1.86912, -54.6792, 1.8505, -174.104, 1.89181, 66.0544, 0.0158606, -119.276
0, 1620.00000, 116.566, -31.6053, 115.522, -151.03, 117.837, 89.1283, 0, 0, 1.86912, -54.6792, 1.8505, -174.104, 1.89181, 66.0544, 0.0158606, -119.276
0, 1680.00000, 116.566, -31.6053, 115.522, -151.03, 117.837, 89.1283, 0, 0, 1.86912, -54.6792, 1.8505, -174.104, 1.89181, 66.0544, 0.0158606, -119.276
0, 1740.00000, 116.566, -31.6053, 115.522, -151.03, 117.837, 89.1283, 0, 0, 1.86912, -54.6792, 1.8505, -174.104, 1.89181, 66.0544, 0.0158606, -119.276
0, 1800.00000, 116.049, -31.8416, 114.853, -150.923, 117.87, 89.1176, 0, 0, 1.85992, -54.9154, 1.83858, -173.997, 1.89239, 66.0436, 0.0175644, -120.637
0, 1860.00000, 116.049, -31.8416, 114.853, -150.923, 117.87, 89.1176, 0, 0, 1.85991, -54.9155, 1.83856, -173.997, 1.8924, 66.0437, 0.0175756, -120.626
0, 1920.00000, 116.049, -31.8416, 114.853, -150.923, 117.87, 89.1176, 0, 0, 1.85991, -54.9155, 1.83856, -173.997, 1.8924, 66.0437, 0.0175756, -120.626
0, 1980.00000, 116.049, -31.8416, 114.853, -150.923, 117.87, 89.1176, 0, 0, 1.85991, -54.9155, 1.83856, -173.997, 1.8924, 66.0437, 0.0175756, -120.626
0, 2040.00000, 116.049, -31.8416, 114.853, -150.923, 117.87, 89.1176, 0, 0, 1.85991, -54.9155, 1.83856, -173.997, 1.8924, 66.0437, 0.0175756, -120.626
0, 2100.00000, 116.049, -31.8416, 114.853, -150.923, 117.87, 89.1176, 0, 0, 1.85991, -54.9155, 1.83856, -173.997, 1.8924, 66.0437, 0.0175756, -120.626
0, 2160.00000, 116.049, -31.8416, 114.853, -150.923, 117.87, 89.1176, 0, 0, 1.85991, -54.9155, 1.83856, -173.997, 1.8924, 66.0437, 0.0175756, -120.626
0, 2220.00000, 116.049, -31.8416, 114.853, -150.923, 117.87, 89.1176, 0, 0, 1.85991, -54.9155, 1.83856, -173.997, 1.8924, 66.0437, 0.0175756, -120.626
0, 2280.00000, 116.049, -31.8416, 114.853, -150.923, 117.87, 89.1176, 0, 0, 1.85991, -54.9155, 1.83856, -173.997, 1.8924, 66.0437, 0.0175756, -120.626
0, 2340.00000, 116.049, -31.8416, 114.853, -150.923, 117.87, 89.1176, 0, 0, 1.85991, -54.9155, 1.83856, -173.997, 1.8924, 66.0437, 0.0175756, -120.626
0, 2400.00000, 116.049, -31.8416, 114.853, -150.923, 117.87, 89.1176, 0, 0, 1.85991, -54.9155, 1.83856, -173.997, 1.8924, 66.0437, 0.0175756, -120.626
0, 2460.00000, 116.049, -31.8416, 114.853, -150.923, 117.87, 89.1176, 0, 0, 1.85991, -54.9155, 1.83856, -173.997, 1.8924, 66.0437, 0.0175756, -120.626
0, 2520.00000, 116.049, -31.8416, 114.853, -150.923, 117.87, 89.1176, 0, 0, 1.85991, -54.9155, 1.83856, -173.997, 1.8924, 66.0437, 0.0175756, -120.626
0, 2580.00000, 116.049, -31.8416, 114.853, -150.923, 117.87, 89.1176, 0, 0, 1.85991, -54.9155, 1.83856, -173.997, 1.8924, 66.0437, 0.0175756, -120.626
0, 2640.00000, 116.049, -31.8416, 114.853, -150.923, 117.87, 89.1176, 0, 0, 1.85991, -54.9155, 1.83856, -173.997, 1.8924, 66.0437, 0.0175756, -120.626
0, 2700.00000, 116.049, -31.8416, 114.853, -150.923, 117.87, 89.1176, 0, 0, 1.85991, -54.9155, 1.83856, -173.997, 1.8924, 66.0437, 0.0175756, -120.626
0, 2760.00000, 116.321, -31.6541, 115.324, -150.941, 117.84, 89.1244, 0, 0, 1.86474, -54.7281, 1.84694, -174.015, 1.89186, 66.0504, 0.0160583, -119.464
0, 2820.00000, 116.321, -31.6541, 115.324, -150.941, 117.84, 89.1244, 0, 0, 1.86476, -54.728, 1.84697, -174.015, 1.89185, 66.0504, 0.0160241, -119.476
0, 2880.00000, 116.321, -31.6541, 115.324, -150.941, 117.84, 89.1244, 0, 0, 1.86476, -54.728, 1.84697, -174.015, 1.89185, 66.0504, 0.0160239, -119.476
0, 2940.00000, 116.321, -31.6541, 115.324, -150.941, 117.84, 89.1244, 0, 0, 1.86476, -54.728, 1.84697, -174.015, 1.89185, 66.0504, 0.0160239, -119.476
0, 3000.00000, 116.321, -31.6541, 115.324, -150.941, 117.84, 89.1244, 0, 0, 1.86476, -54.728, 1.84697, -174.015, 1.89185, 66.0504, 0.0160239, -119.476
0, 3060.00000, 116.321, -31.6541, 115.324, -150.941, 117.84, 89.1244, 0, 0, 1.86476, -54.728, 1.84697, -174.015, 1.89185, 66.0504, 0.0160239, -119.476
0, 3120.00000, 116.321, -31.6541, 115.324, -150.941, 117.84, 89.1244, 0, 0, 1.86476, -54.728, 1.84697, -174.015, 1.89185, 66.0504, 0.0160239, -119.476
0, 3180.00000, 116.321, -31.6541, 115.324, -150.941, 117.84, 89.1244, 0, 0, 1.86476, -54.728, 1.84697, -174.015, 1.89185, 66.0504, 0.0160239, -119.476
0, 3240.00000, 116.321, -31.6541, 115.324, -150.941, 117.84, 89.1244, 0, 0, 1.86476, -54.728, 1.84697, -174.015, 1.89185, 66.0504, 0.0160239, -119.476
0, 3300.00000, 116.321, -31.6541, 115.324, -150.941, 117.84, 89.1244, 0, 0, 1.86476, -54.728, 1.84697, -174.015, 1.89185, 66.0504, 0.0160239, -119.476
0, 3360.00000, 116.321, -31.6541, 115.324, -150.941, 117.84, 89.1244, 0, 0, 1.86476, -54.728, 1.84697, -174.015, 1.89185, 66.0504, 0.0160239, -119.476
0, 3420.00000, 116.321, -31.6541, 115.324, -150.941, 117.84, 89.1244, 0, 0, 1.86476, -54.728, 1.84697, -174.015, 1.89185, 66.0504, 0.0160239, -119.476
0, 3480.00000, 116.321, -31.6541, 115.324, -150.941, 117.84, 89.1244, 0, 0, 1.86476, -54.728, 1.84697, -174.015, 1.89185, 66.0504, 0.0160239, -119.476
0, 3540.00000, 116.321, -31.6541, 115.324, -150.941, 117.84, 89.1244, 0, 0, 1.86476, -54.728, 1.84697, -174.015, 1.89185, 66.0504, 0.0160239, -119.476
1, 0.00000, 116.321, -31.6541, 115.324, -150.941, 117.84, 89.1244, 0, 0, 1.86476, -54.728, 1.84697, -174.015, 1.89185, 66.0504, 0.0160239, -119.476
1, 60.00000, 116.471, -31.5062, 115.667, -150.926, 117.827, 89.1279, 0, 0, 1.86742, -54.5801, 1.85308, -174, 1.89163, 66.054, 0.0150993, -118.179
1, 120.00000, 116.471, -31.5062, 115.667, -150.926, 117.827, 89.1279, 0, 0, 1.86743, -54.5801, 1.8531, -174, 1.89163, 66.054, 0.0150723, -118.172
1, 180.00000, 116.471, -31.5062, 115.667, -150.926, 117.827, 89.1279, 0, 0, 1.86743, -54.5801, 1.8531, -174, 1.89163, 66.054, 0.0150722, -118.172
1, 240.00000, 116.471, -31.5062, 115.667, -150.926, 117.827, 89.1279, 0, 0, 1.86743, -54.5801, 1.8531, -174, 1.89163, 66.054, 0.0150722, -118.172
1, 300.00000, 116.471, -31.5062, 115.667, -150.926, 117.827, 89.1279, 0, 0, 1.86743, -54.5801, 1.8531, -174, 1.89163, 66.054, 0.0150722, -118.172
1, 360.00000, 116.471, -31.5062, 115.667, -150.926, 117.827, 89.1279, 0, 0, 1.86743, -54.5801, 1.8531, -174, 1.89163, 66.054, 0.0150722, -118.172
1, 420.00000, 116.471, -31.5062, 115.667, -150.926, 117.827, 89.1279, 0, 0, 1.86743, -54.5801, 1.8531, -174, 1.89163, 66.054, 0.0150722, -118.172
1, 480.00000, 116.471, -31.5062, 115.667, -150.926, 117.827, 89.1279, 0, 0, 1.86743, -54.5801, 1.8531, -174, 1.89163, 66.054, 0.0150722, -118.172
1, 540.00000, 116.471, -31.5062, 115.667, -150.926, 117.827, 89.1279, 0, 0, 1.86743, -54.5801, 1.8531, -174, 1.89163, 66.054, 0.0150722, -118.172
1, 600.00000, 116.471, -31.5062, 115.667, -150.926, 117.827, 89.1279, 0, 0, 1.86743, -54.5801, 1.8531, -174, 1.89163, 66.054, 0.0150722, -118.172
1, 660.00000, 116.471, -31.5062, 115.667, -150.926, 117.827, 89.1279, 0, 0, 1.86743, -54.5801, 1.8531, -174, 1.89163, 66.054, 0.0150722, -118.172
1, 720.00000, 116.471, -31.5062, 115.667, -150.926, 117.827, 89.1279, 0, 0, 1.86743, -54.5801, 1.8531, -174, 1.89163, 66.054, 0.0150722, -118.172
1, 780.00000, 116.49, -31.5107, 115.898, -150.756, 118.253, 89.1191, 0, 0, 1.86777, -54.5846, 1.8572, -173.83, 1.8992, 66.045, 0.0155255, -116.986
1, 840.00000, 116.49, -31.5107, 115.898, -150.756, 118.253, 89.1191, 0, 0, 1.86777, -54.5846, 1.8572, -173.83, 1.89922, 66.0452, 0.0155429, -116.934
1, 900.00000, 116.49, -31.5107, 115.898, -150.756, 118.253, 89.1191, 0, 0, 1.86777, -54.5846, 1.8572, -173.83, 1.89922, 66.0452, 0.015543, -116.934
1, 960.00000, 116.49, -31.5107, 115.898, -150.756, 118.253, 89.1191, 0, 0, 1.86777, -54.5846, 1.8572, -173.83, 1.89922, 66.0452, 0.015543, -116.934
1, 1020.00000, 116.49, -31.5107, 115.898, -150.756, 118.253, 89.1191, 0, 0, 1.86777, -54.5846, 1.8572, -173.83, 1.89922, 66.0452, 0.015543, -116.934
1, 1080.00000, 116.49, -31.5107, 115.898, -150.756, 118.253, 89.1191, 0, 0, 1.86777, -54.5846, 1.8572, -173.83, 1.89922, 66.0452, 0.015543, -116.934
1, 1140.00000, 116.49, -31.5107, 115.898, -150.756, 118.253, 89.1191, 0, 0, 1.86777, -54.5846, 1.8572, -173.83, 1.89922, 66.0452, 0.015543, -116.934
1, 1200.00000, 116.49, -31.5107, 115.898, -150.756, 118.253, 89.1191, 0, 0, 1.86777, -54.5846, 1.8572, -173.83, 1.89922, 66.0452, 0.015543, -116.934
1, 1260.00000, 116.49, -31.5107, 115.898, -150.756, 118.253, 89.1191, 0, 0, 1.86777, -54.5846, 1.8572, -173.83, 1.89922, 66.0452, 0.015543, -116.934
1, 1320.00000, 116.49, -31.5107, 115.898, -150.756, 118.253, 89.1191, 0, 0, 1.86777, -54.5846, 1.8572, -173.83, 1.89922, 66.0452, 0.015543, -116.934
1, 1380.00000, 116.49, -31.5107, 115.898, -150.756, 118.253, 89.1191, 0, 0, 1.86777, -54.5846, 1.8572, -173.83, 1.89922, 66.0452, 0.015543, -116.934
1, 1440.00000, 116.49, -31.5107, 115.898, -150.756, 118.253, 89.1191, 0, 0, 1.86777, -54.5846, 1.8572, -173.83, 1.89922, 66.0452, 0.015543, -116.934
1, 1500.00000, 116.49, -31.5107, 115.898, -150.756, 118.253, 89.1191, 0, 0, 1.86777, -54.5846, 1.8572, -173.83, 1.89922, 66.0452, 0.015543, -116.934
1, 1560.00000, 116.49, -31.5107, 115.898, -150.756, 118.253, 89.1191, 0, 0, 1.86777, -54.5846, 1.8572, -173.83, 1.89922, 66.0452, 0.015543, -116.934
1, 1620.00000, 116.49, -31.5107, 115.898, -150.756, 118.253, 89.1191, 0, 0, 1.86777, -54.5846, 1.8572, -173.83, 1.89922, 66.0452, 0.015543, -116.934
1, 1680.00000, 116.49, -31.5107, 115.898, -150.756, 118.253, 89.1191, 0, 0, 1.86777, -54.5846, 1.8572, -173.83, 1.89922, 66.0452, 0.015543, -116.934
1, 1740.00000, 116.49, -31.5107, 115.898, -150.756, 118.253, 89.1191, 0, 0, 1.86777, -54.5846, 1.8572, -173.83, 1.89922, 66.0452, 0.015543, -116.934
1, 1800.00000, 116.49, -31.5107, 115.898, -150.756, 118.253, 89.1191, 0, 0, 1.86777, -54.5846, 1.8572, -173.83, 1.89922, 66.0452, 0.015543, -116.934
1, 1860.00000, 116.49, -31.5107, 115.898, -150.756, 118.253, 89.1191, 0, 0, 1.86777, -54.5846, 1.8572, -173.83, 1.89922, 66.0452, 0.015543, -116.934
1, 1920.00000, 116.49, -31.5107, 115.898, -150.756, 118.253, 89.1191, 0, 0, 1.86777, -54.5846, 1.8572, -173.83, 1.89922, 66.0452, 0.015543, -116.934
1, 1980.00000, 116.49, -31.5107, 115.898, -150.756, 118.253, 89.1191, 0, 0, 1.86777, -54.5846, 1.8572, -173.83, 1.89922, 66.0452, 0.015543, -116.934
1, 2040.00000, 116.49, -31.5107, 115.898, -150.756, 118.253, 89.1191, 0, 0, 1.86777, -54.5846, 1.8572, -173.83, 1.89922, 66.0452, 0.015543, -116.934
1, 2100.00000, 116.49, -31.5107, 115.898, -150.756, 118.253, 89.1191, 0, 0, 1.86777, -54.5846, 1.8572, -173.83, 1.89922, 66.0452, 0.015543, -116.934
1, 2160.00000, 116.49, -31.5107, 115.898, -150.756, 118.253, 89.1191, 0, 0, 1.86777, -54.5846, 1.8572, -173.83, 1.89922, 66.0452, 0.015543, -116.934
1, 2220.00000, 117.008, -31.2743, 116.575, -150.861, 118.22, 89.1297, 0, 0, 1.87701, -54.3482, 1.86926, -173.935, 1.89864, 66.0558, 0.0138083, -114.763
1, 2280.00000, 117.008, -31.2743, 116.575, -150.861, 118.22, 89.1297, 0, 0, 1.87701, -54.3482, 1.86928, -173.935, 1.89863, 66.0558, 0.0137884, -114.731
1, 2340.00000, 117.008, -31.2743, 116.575, -150.861, 118.22, 89.1297, 0, 0, 1.87701, -54.3482, 1.86928, -173.935, 1.89863, 66.0558, 0.0137883, -114.731
1, 2400.00000, 117.008, -31.2743, 116.575, -150.861, 118.22, 89.1297, 0, 0, 1.87701, -54.3482, 1.86928, -173.935, 1.89863, 66.0558, 0.0137883, -114.731
1, 2460.00000, 117.008, -31.2743, 116.575, -150.861, 118.22, 89.1297, 0, 0, 1.87701, -54.3482, 1.86928, -173.935, 1.89863, 66.0558, 0.0137883, -114.731
1, 2520.00000, 117.008, -31.2743, 116.575, -150.861, 118.22, 89.1297, 0, 0, 1.87701, -54.3482, 1.86928, -173.935, 1.89863, 66.0558, 0.0137883, -114.731
1, 2580.00000, 117.008, -31.2743, 116.575, -150.861, 118.22, 89.1297, 0, 0, 1.87701, -54.3482, 1.86928, -173.935, 1.89863, 66.0558, 0.0137883, -114.731
1, 2640.00000, 117.008, -31.2743, 116.575, -150.861, 118.22, 89.1297, 0, 0, 1.87701, -54.3482, 1.86928, -173.935, 1.89863, 66.0558, 0.0137883, -114.731
1, 2700.00000, 117.008, -31.2743, 116.575, -150.861, 118.22, 89.1297, 0, 0, 1.87701, -54.3482, 1.86928, -173.935, 1.89863, 66.0558, 0.0137883, -114.731
1, 2760.00000, 117.008, -31.2743, 116.575, -150.861, 118.22, 89.1297, 0, 0, 1.87701, -54.3482, 1.86928, -173.935, 1.89863, 66.0558, 0.0137883, -114.731
1, 2820.00000, 117.008, -31.2743, 116.575, -150.861, 118.22, 89.1297, 0, 0, 1.87701, -54.3482, 1.86928, -173.935, 1.89863, 66.0558, 0.0137883, -114.731
1, 2880.00000, 117.008, -31.2743, 116.575, -150.861, 118.22, 89.1297, 0, 0, 1.87701, -54.3482, 1.86928, -173.935, 1.89863, 66.0558, 0.0137883, -114.731
1, 2940.00000, 117.008, -31.2743, 116.575, -150.861, 118.22, 89.1297, 0, 0, 1.87701, -54.3482, 1.86928, -173.935, 1.89863, 66.0558, 0.0137883, -114.731
1, 3000.00000, 117.008, -31.2743, 116.575, -150.861, 118.22, 89.1297, 0, 0, 1.87701, -54.3482, 1.86928, -173.935, 1.89863, 66.0558, 0.0137883, -114.731
1, 3060.00000, 117.008, -31.2743, 116.575, -150.861, 118.22, 89.1297, 0, 0, 1.87701, -54.3482, 1.86928, -173.935, 1.89863, 66.0558, 0.0137883, -114.731
1, 3120.00000, 117.008, -31.2743, 116.575, -150.861, 118.22, 89.1297, 0, 0, 1.87701, -54.3482, 1.86928, -173.935, 1.89863, 66.0558, 0.0137883, -114.731
1, 3180.00000, 117.008, -31.2743, 116.575, -150.861, 118.22, 89.1297, 0, 0, 1.87701, -54.3482, 1.86928, -173.935, 1.89863, 66.0558, 0.0137883, -114.731
1, 3240.00000, 117.008, -31.2743, 116.575, -150.861, 118.22, 89.1297, 0, 0, 1.87701, -54.3482, 1.86928, -173.935, 1.89863, 66.0558, 0.0137883, -114.731
1, 3300.00000, 117.008, -31.2743, 116.575, -150.861, 118.22, 89.1297, 0, 0, 1.87701, -54.3482, 1.86928, -173.935, 1.89863, 66.0558, 0.0137883, -114.731
1, 3360.00000, 117.008, -31.2743, 116.575, -150.861, 118.22, 89.1297, 0, 0, 1.87701, -54.3482, 1.86928, -173.935, 1.89863, 66.0558, 0.0137883, -114.731
1, 3420.00000, 117.008, -31.2743, 116.575, -150.861, 118.22, 89.1297, 0, 0, 1.87701, -54.3482, 1.86928, -173.935, 1.89863, 66.0558, 0.0137883, -114.731
1, 3480.00000, 117.008, -31.2743, 116.575, -150.861, 118.22, 89.1297, 0, 0, 1.87701, -54.3482, 1.86928, -173.935, 1.89863, 66.0558, 0.0137883, -114.731
1, 3540.00000, 117.008, -31.2743, 116.575, -150.861, 118.22, 89.1297, 0, 0, 1.87701, -54.3482, 1.86928, -173.935, 1.89863, 66.0558, 0.0137883, -114.731
2, 0.00000, 117.008, -31.2743, 116.575, -150.861, 118.22, 89.1297, 0, 0, 1.87701, -54.3482, 1.86928, -173.935, 1.89863, 66.0558, 0.0137883, -114.731
2, 60.00000, 117.008, -31.2743, 116.575, -150.861, 118.22, 89.1297, 0, 0, 1.87701, -54.3482, 1.86928, -173.935, 1.89863, 66.0558, 0.0137883, -114.731
2, 120.00000, 117.008, -31.2743, 116.575, -150.861, 118.22, 89.1297, 0, 0, 1.87701, -54.3482, 1.86928, -173.935, 1.89863, 66.0558, 0.0137883, -114.731
2, 180.00000, 117.008, -31.2743, 116.575, -150.861, 118.22, 89.1297, 0, 0, 1.87701, -54.3482, 1.86928, -173.935, 1.89863, 66.0558, 0.0137883, -114.731
2, 240.00000, 117.008, -31.2743, 116.575, -150.861, 118.22, 89.1297, 0, 0, 1.87701, -54.3482, 1.86928, -173.935, 1.89863, 66.0558, 0.0137883, -114.731
2, 300.00000, 117.008, -31.2743, 116.575, -150.861, 118.22, 89.1297, 0, 0, 1.87701, -54.3482, 1.86928, -173.935, 1.89863, 66.0558, 0.0137883, -114.731
2, 360.00000, 117.008, -31.2743, 116.575, -150.861, 118.22, 89.1297, 0, 0, 1.87701, -54.3482, 1.86928, -173.935, 1.89863, 66.0558, 0.0137883, -114.731
2, 420.00000, 117.008, -31.2743, 116.575, -150.861, 118.22, 89.1297, 0, 0, 1.87701, -54.3482, 1.86928, -173.935, 1.89863, 66.0558, 0.0137883, -114.731
2, 480.00000, 117.008, -31.2743, 116.575, -150.861, 118.22, 89.1297, 0, 0, 1.87701, -54.3482, 1.86928, -173.935, 1.89863, 66.0558, 0.0137883, -114.731
2, 540.00000, 117.008, -31.2743, 116.575, -150.861, 118.22, 89.1297, 0, 0, 1.87701, -54.3482, 1.86928, -173.935, 1.89863, 66.0558, 0.0137883, -114.731
2, 600.00000, 117.008, -31.2743, 116.575, -150.861, 118.22, 89.1297, 0, 0, 1.87701, -54.3482, 1.86928, -173.935, 1.89863, 66.0558, 0.0137883, -114.731
2, 660.00000, 117.008, -31.2743, 116.575, -150.861, 118.22, 89.1297, 0, 0, 1.87701, -54.3482, 1.86928, -173.935, 1.89863, 66.0558, 0.0137883, -114.731
2, 720.00000, 117.008, -31.2743, 116.575, -150.861, 118.22, 89.1297, 0, 0, 1.87701, -54.3482, 1.86928, -173.935, 1.89863, 66.0558, 0.0137883, -114.731
