hour,t(sec),"P1 (kW)","Q1 (kvar)","P2 (kW)","Q2 (kvar)","P3 (kW)","Q3 (kvar)","P4 (kW)","Q4 (kvar)"
0, 60.00000, 0.917931, 0.391024, 0.929773, 0.39607, 0.929702, 0.396054, 0, 0
0, 120.00000, 0.917917, 0.39102, 0.929767, 0.396068, 0.929705, 0.396055, 0, 0
0, 180.00000, 0.917904, 0.391015, 0.929763, 0.396067, 0.929706, 0.396056, 0, 0
0, 240.00000, 0.917893, 0.391012, 0.929759, 0.396066, 0.929708, 0.396056, 0, 0
0, 300.00000, 0.917883, 0.391008, 0.929756, 0.396066, 0.92971, 0.396057, 0, 0
0, 360.00000, 0.917874, 0.391005, 0.929753, 0.396065, 0.929711, 0.396057, 0, 0
0, 420.00000, 0.917865, 0.391002, 0.92975, 0.396065, 0.929712, 0.396057, 0, 0
0, 480.00000, 0.917858, 0.391, 0.929747, 0.396064, 0.929714, 0.396058, 0, 0
0, 540.00000, 0.917851, 0.390997, 0.929745, 0.396064, 0.929715, 0.396058, 0, 0
0, 600.00000, 0.917845, 0.390995, 0.929743, 0.396064, 0.929716, 0.396058, 0, 0
0, 660.00000, 0.917839, 0.390993, 0.929741, 0.396063, 0.929717, 0.396058, 0, 0
0, 720.00000, 0.917834, 0.390992, 0.92974, 0.396063, 0.929717, 0.396059, 0, 0
0, 780.00000, 0.91783, 0.39099, 0.929738, 0.396063, 0.929718, 0.396059, 0, 0
0, 840.00000, 0.917826, 0.390989, 0.929737, 0.396063, 0.929719, 0.396059, 0, 0
0, 900.00000, 0.917822, 0.390988, 0.929736, 0.396062, 0.929719, 0.396059, 0, 0
0, 960.00000, 0.894468, 0.38104, 0.90987, 0.3876, 0.909857, 0.387598, 0, 0
0, 1020.00000, 0.894465, 0.381038, 0.90987, 0.387601, 0.909857, 0.387598, 0, 0
0, 1080.00000, 0.894463, 0.381037, 0.909869, 0.3876, 0.909857, 0.387598, 0, 0
0, 1140.00000, 0.89446, 0.381037, 0.909868, 0.3876, 0.909858, 0.387598, 0, 0
0, 1200.00000, 0.894458, 0.381036, 0.909868, 0.3876, 0.909858, 0.387598, 0, 0
0, 1260.00000, 0.894456, 0.381035, 0.909867, 0.3876, 0.909859, 0.387598, 0, 0
0, 1320.00000, 0.894455, 0.381035, 0.909867, 0.3876, 0.909859, 0.387599, 0, 0
0, 1380.00000, 0.894453, 0.381034, 0.909866, 0.3876, 0.909859, 0.387599, 0, 0
0, 1440.00000, 0.894452, 0.381034, 0.909866, 0.3876, 0.909859, 0.387599, 0, 0
0, 1500.00000, 0.89445, 0.381033, 0.909865, 0.3876, 0.909859, 0.387599, 0, 0
0, 1560.00000, 0.894449, 0.381033, 0.909865, 0.3876, 0.90986, 0.387599, 0, 0
0, 1620.00000, 0.894448, 0.381033, 0.909864, 0.3876, 0.90986, 0.387599, 0, 0
0, 1680.00000, 0.894447, 0.381032, 0.909864, 0.3876, 0.90986, 0.387599, 0, 0
0, 1740.00000, 0.894446, 0.381032, 0.909864, 0.3876, 0.90986, 0.387599, 0, 0
0, 1800.00000, 0.894446, 0.381032, 0.909864, 0.3876, 0.90986, 0.387599, 0, 0
0, 1860.00000, 0.848129, 0.361301, 0.860299, 0.366485, 0.860295, 0.366484, 0, 0
0, 1920.00000, 0.848129, 0.361301, 0.860298, 0.366485, 0.860295, 0.366484, 0, 0
0, 1980.00000, 0.848128, 0.361301, 0.860298, 0.366485, 0.860295, 0.366484, 0, 0
0, 2040.00000, 0.848128, 0.3613, 0.860298, 0.366485, 0.860295, 0.366484, 0, 0
0, 2100.00000, 0.848127, 0.3613, 0.860297, 0.366485, 0.860296, 0.366484, 0, 0
0, 2160.00000, 0.848127, 0.3613, 0.860297, 0.366485, 0.860296, 0.366484, 0, 0
0, 2220.00000, 0.848127, 0.3613, 0.860297, 0.366485, 0.860296, 0.366484, 0, 0
0, 2280.00000, 0.848126, 0.3613, 0.860297, 0.366485, 0.860296, 0.366484, 0, 0
0, 2340.00000, 0.848126, 0.3613, 0.860297, 0.366485, 0.860296, 0.366484, 0, 0
0, 2400.00000, 0.848126, 0.3613, 0.860297, 0.366485, 0.860296, 0.366485, 0, 0
0, 2460.00000, 0.848126, 0.3613, 0.860297, 0.366485, 0.860296, 0.366485, 0, 0
0, 2520.00000, 0.848125, 0.3613, 0.860297, 0.366485, 0.860296, 0.366485, 0, 0
0, 2580.00000, 0.848125, 0.3613, 0.860297, 0.366485, 0.860296, 0.366485, 0, 0
0, 2640.00000, 0.848125, 0.3613, 0.860297, 0.366485, 0.860296, 0.366485, 0, 0
0, 2700.00000, 0.848125, 0.3613, 0.860297, 0.366485, 0.860296, 0.366485, 0, 0
0, 2760.00000, 0.8351, 0.35575, 0.842087, 0.358727, 0.842084, 0.358727, 0, 0
0, 2820.00000, 0.835099, 0.355751, 0.842085, 0.358727, 0.842085, 0.358727, 0, 0
0, 2880.00000, 0.835099, 0.355751, 0.842085, 0.358727, 0.842085, 0.358727, 0, 0
0, 2940.00000, 0.835099, 0.355751, 0.842085, 0.358727, 0.842085, 0.358727, 0, 0
0, 3000.00000, 0.835099, 0.355751, 0.842085, 0.358727, 0.842085, 0.358727, 0, 0
0, 3060.00000, 0.835099, 0.355751, 0.842085, 0.358727, 0.842085, 0.358727, 0, 0
0, 3120.00000, 0.835099, 0.355751, 0.842085, 0.358727, 0.842085, 0.358727, 0, 0
0, 3180.00000, 0.835099, 0.355751, 0.842085, 0.358727, 0.842085, 0.358727, 0, 0
0, 3240.00000, 0.835099, 0.355751, 0.842085, 0.358727, 0.842085, 0.358727, 0, 0
0, 3300.00000, 0.835099, 0.355751, 0.842085, 0.358727, 0.842085, 0.358727, 0, 0
0, 3360.00000, 0.835099, 0.355751, 0.842085, 0.358727, 0.842085, 0.358727, 0, 0
0, 3420.00000, 0.835099, 0.355751, 0.842085, 0.358727, 0.842085, 0.358727, 0, 0
0, 3480.00000, 0.835099, 0.355751, 0.842085, 0.358727, 0.842085, 0.358727, 0, 0
0, 3540.00000, 0.835099, 0.355751, 0.842085, 0.358727, 0.842085, 0.358727, 0, 0
1, 0.00000, 0.835099, 0.355751, 0.842085, 0.358727, 0.842085, 0.358727, 0, 0
1, 60.00000, 0.770059, 0.328044, 0.772977, 0.329287, 0.772975, 0.329286, 0, 0
1, 120.00000, 0.770059, 0.328044, 0.772976, 0.329286, 0.772976, 0.329286, 0, 0
1, 180.00000, 0.770059, 0.328044, 0.772976, 0.329286, 0.772976, 0.329286, 0, 0
1, 240.00000, 0.770059, 0.328044, 0.772976, 0.329286, 0.772976, 0.329286, 0, 0
1, 300.00000, 0.770059, 0.328044, 0.772976, 0.329286, 0.772976, 0.329286, 0, 0
1, 360.00000, 0.770059, 0.328044, 0.772976, 0.329286, 0.772976, 0.329286, 0, 0
1, 420.00000, 0.770059, 0.328044, 0.772976, 0.329286, 0.772976, 0.329286, 0, 0
1, 480.00000, 0.770059, 0.328044, 0.772976, 0.329286, 0.772976, 0.329286, 0, 0
1, 540.00000, 0.770059, 0.328044, 0.772976, 0.329286, 0.772976, 0.329286, 0, 0
1, 600.00000, 0.770059, 0.328044, 0.772976, 0.329286, 0.772976, 0.329286, 0, 0
1, 660.00000, 0.770059, 0.328044, 0.772976, 0.329286, 0.772976, 0.329286, 0, 0
1, 720.00000, 0.770059, 0.328044, 0.772976, 0.329286, 0.772976, 0.329286, 0, 0
1, 780.00000, 0.770059, 0.328044, 0.772976, 0.329286, 0.772976, 0.329286, 0, 0
1, 840.00000, 0.770059, 0.328044, 0.772976, 0.329286, 0.772976, 0.329286, 0, 0
1, 900.00000, 0.770059, 0.328044, 0.772976, 0.329286, 0.772976, 0.329286, 0, 0
1, 960.00000, 0.778461, 0.331623, 0.781073, 0.332736, 0.781071, 0.332735, 0, 0
1, 1020.00000, 0.77846, 0.331623, 0.781072, 0.332735, 0.781072, 0.332735, 0, 0
1, 1080.00000, 0.77846, 0.331623, 0.781072, 0.332735, 0.781072, 0.332735, 0, 0
1, 1140.00000, 0.77846, 0.331623, 0.781072, 0.332735, 0.781072, 0.332735, 0, 0
1, 1200.00000, 0.77846, 0.331623, 0.781072, 0.332735, 0.781072, 0.332735, 0, 0
1, 1260.00000, 0.77846, 0.331623, 0.781072, 0.332735, 0.781072, 0.332735, 0, 0
1, 1320.00000, 0.77846, 0.331623, 0.781072, 0.332735, 0.781072, 0.332735, 0, 0
1, 1380.00000, 0.77846, 0.331623, 0.781072, 0.332735, 0.781072, 0.332735, 0, 0
1, 1440.00000, 0.77846, 0.331623, 0.781072, 0.332735, 0.781072, 0.332735, 0, 0
1, 1500.00000, 0.77846, 0.331623, 0.781072, 0.332735, 0.781072, 0.332735, 0, 0
1, 1560.00000, 0.77846, 0.331623, 0.781072, 0.332735, 0.781072, 0.332735, 0, 0
1, 1620.00000, 0.77846, 0.331623, 0.781072, 0.332735, 0.781072, 0.332735, 0, 0
1, 1680.00000, 0.77846, 0.331623, 0.781072, 0.332735, 0.781072, 0.332735, 0, 0
1, 1740.00000, 0.77846, 0.331623, 0.781072, 0.332735, 0.781072, 0.332735, 0, 0
1, 1800.00000, 0.77846, 0.331623, 0.781072, 0.332735, 0.781072, 0.332735, 0, 0
1, 1860.00000, 0.824698, 0.35132, 0.830988, 0.353999, 0.83099, 0.354, 0, 0
1, 1920.00000, 0.824698, 0.35132, 0.830989, 0.354, 0.830989, 0.354, 0, 0
1, 1980.00000, 0.824698, 0.35132, 0.830989, 0.354, 0.830989, 0.354, 0, 0
1, 2040.00000, 0.824698, 0.35132, 0.830989, 0.354, 0.830989, 0.354, 0, 0
1, 2100.00000, 0.824698, 0.35132, 0.830989, 0.354, 0.830989, 0.354, 0, 0
1, 2160.00000, 0.824698, 0.35132, 0.830989, 0.354, 0.830989, 0.354, 0, 0
1, 2220.00000, 0.824698, 0.35132, 0.830989, 0.354, 0.830989, 0.354, 0, 0
1, 2280.00000, 0.824698, 0.35132, 0.830989, 0.354, 0.830989, 0.354, 0, 0
1, 2340.00000, 0.824698, 0.35132, 0.830989, 0.354, 0.830989, 0.354, 0, 0
1, 2400.00000, 0.824698, 0.35132, 0.830989, 0.354, 0.830989, 0.354, 0, 0
1, 2460.00000, 0.824698, 0.35132, 0.830989, 0.354, 0.830989, 0.354, 0, 0
1, 2520.00000, 0.824698, 0.35132, 0.830989, 0.354, 0.830989, 0.354, 0, 0
1, 2580.00000, 0.824698, 0.35132, 0.830989, 0.354, 0.830989, 0.354, 0, 0
1, 2640.00000, 0.824698, 0.35132, 0.830989, 0.354, 0.830989, 0.354, 0, 0
1, 2700.00000, 0.824698, 0.35132, 0.830989, 0.354, 0.830989, 0.354, 0, 0
1, 2760.00000, 0.784448, 0.334173, 0.784448, 0.334174, 0.784448, 0.334173, 0, 0
1, 2820.00000, 0.784448, 0.334173, 0.784448, 0.334173, 0.784448, 0.334173, 0, 0
1, 2880.00000, 0.784448, 0.334173, 0.784448, 0.334173, 0.784448, 0.334173, 0, 0
1, 2940.00000, 0.784448, 0.334173, 0.784448, 0.334173, 0.784448, 0.334173, 0, 0
1, 3000.00000, 0.784448, 0.334173, 0.784448, 0.334173, 0.784448, 0.334173, 0, 0
1, 3060.00000, 0.784448, 0.334173, 0.784448, 0.334173, 0.784448, 0.334173, 0, 0
1, 3120.00000, 0.784448, 0.334173, 0.784448, 0.334173, 0.784448, 0.334173, 0, 0
1, 3180.00000, 0.784448, 0.334173, 0.784448, 0.334173, 0.784448, 0.334173, 0, 0
1, 3240.00000, 0.784448, 0.334173, 0.784448, 0.334173, 0.784448, 0.334173, 0, 0
1, 3300.00000, 0.784448, 0.334173, 0.784448, 0.334173, 0.784448, 0.334173, 0, 0
1, 3360.00000, 0.784448, 0.334173, 0.784448, 0.334173, 0.784448, 0.334173, 0, 0
1, 3420.00000, 0.784448, 0.334173, 0.784448, 0.334173, 0.784448, 0.334173, 0, 0
1, 3480.00000, 0.784448, 0.334173, 0.784448, 0.334173, 0.784448, 0.334173, 0, 0
1, 3540.00000, 0.784448, 0.334173, 0.784448, 0.334173, 0.784448, 0.334173, 0, 0
2, 0.00000, 0.784448, 0.334173, 0.784448, 0.334173, 0.784448, 0.334173, 0, 0
2, 60.00000, 0.831016, 0.354012, 0.83477, 0.355611, 0.834772, 0.355611, 0, 0
2, 120.00000, 0.831016, 0.354011, 0.834771, 0.355611, 0.834771, 0.355611, 0, 0
2, 180.00000, 0.831016, 0.354011, 0.834771, 0.355611, 0.834771, 0.355611, 0, 0
2, 240.00000, 0.831016, 0.354011, 0.834771, 0.355611, 0.834771, 0.355611, 0, 0
2, 300.00000, 0.831016, 0.354011, 0.834771, 0.355611, 0.834771, 0.355611, 0, 0
2, 360.00000, 0.831016, 0.354011, 0.834771, 0.355611, 0.834771, 0.355611, 0, 0
2, 420.00000, 0.831016, 0.354011, 0.834771, 0.355611, 0.834771, 0.355611, 0, 0
2, 480.00000, 0.831016, 0.354011, 0.834771, 0.355611, 0.834771, 0.355611, 0, 0
2, 540.00000, 0.831016, 0.354011, 0.834771, 0.355611, 0.834771, 0.355611, 0, 0
2, 600.00000, 0.831016, 0.354011, 0.834771, 0.355611, 0.834771, 0.355611, 0, 0
2, 660.00000, 0.831016, 0.354011, 0.834771, 0.355611, 0.834771, 0.355611, 0, 0
2, 720.00000, 0.831016, 0.354011, 0.834771, 0.355611, 0.834771, 0.355611, 0, 0
2, 780.00000, 0.831016, 0.354011, 0.834771, 0.355611, 0.834771, 0.355611, 0, 0
2, 840.00000, 0.831016, 0.354011, 0.834771, 0.355611, 0.834771, 0.355611, 0, 0
2, 900.00000, 0.831016, 0.354011, 0.834771, 0.355611, 0.834771, 0.355611, 0, 0
2, 960.00000, 0.802428, 0.341832, 0.802429, 0.341833, 0.802427, 0.341833, 0, 0
2, 1020.00000, 0.802428, 0.341833, 0.802428, 0.341833, 0.802428, 0.341833, 0, 0
2, 1080.00000, 0.802428, 0.341833, 0.802428, 0.341833, 0.802428, 0.341833, 0, 0
2, 1140.00000, 0.802428, 0.341833, 0.802428, 0.341833, 0.802428, 0.341833, 0, 0
2, 1200.00000, 0.802428, 0.341833, 0.802428, 0.341833, 0.802428, 0.341833, 0, 0
2, 1260.00000, 0.802428, 0.341833, 0.802428, 0.341833, 0.802428, 0.341833, 0, 0
2, 1320.00000, 0.802428, 0.341833, 0.802428, 0.341833, 0.802428, 0.341833, 0, 0
2, 1380.00000, 0.802428, 0.341833, 0.802428, 0.341833, 0.802428, 0.341833, 0, 0
2, 1440.00000, 0.802428, 0.341833, 0.802428, 0.341833, 0.802428, 0.341833, 0, 0
2, 1500.00000, 0.802428, 0.341833, 0.802428, 0.341833, 0.802428, 0.341833, 0, 0
2, 1560.00000, 0.802428, 0.341833, 0.802428, 0.341833, 0.802428, 0.341833, 0, 0
2, 1620.00000, 0.802428, 0.341833, 0.802428, 0.341833, 0.802428, 0.341833, 0, 0
2, 1680.00000, 0.802428, 0.341833, 0.802428, 0.341833, 0.802428, 0.341833, 0, 0
2, 1740.00000, 0.802428, 0.341833, 0.802428, 0.341833, 0.802428, 0.341833, 0, 0
2, 1800.00000, 0.802428, 0.341833, 0.802428, 0.341833, 0.802428, 0.341833, 0, 0
2, 1860.00000, 0.856025, 0.364665, 0.856893, 0.365035, 0.856893, 0.365035, 0, 0
2, 1920.00000, 0.856025, 0.364665, 0.856893, 0.365035, 0.856893, 0.365035, 0, 0
2, 1980.00000, 0.856025, 0.364665, 0.856893, 0.365035, 0.856893, 0.365035, 0, 0
2, 2040.00000, 0.856025, 0.364665, 0.856893, 0.365035, 0.856893, 0.365035, 0, 0
2, 2100.00000, 0.856025, 0.364665, 0.856893, 0.365035, 0.856893, 0.365035, 0, 0
2, 2160.00000, 0.856025, 0.364665, 0.856893, 0.365035, 0.856893, 0.365035, 0, 0
2, 2220.00000, 0.856025, 0.364665, 0.856893, 0.365035, 0.856893, 0.365035, 0, 0
2, 2280.00000, 0.856025, 0.364665, 0.856893, 0.365035, 0.856893, 0.365035, 0, 0
2, 2340.00000, 0.856025, 0.364665, 0.856893, 0.365035, 0.856893, 0.365035, 0, 0
2, 2400.00000, 0.856025, 0.364665, 0.856893, 0.365035, 0.856893, 0.365035, 0, 0
2, 2460.00000, 0.856025, 0.364665, 0.856893, 0.365035, 0.856893, 0.365035, 0, 0
2, 2520.00000, 0.856025, 0.364665, 0.856893, 0.365035, 0.856893, 0.365035, 0, 0
2, 2580.00000, 0.856025, 0.364665, 0.856893, 0.365035, 0.856893, 0.365035, 0, 0
2, 2640.00000, 0.856025, 0.364665, 0.856893, 0.365035, 0.856893, 0.365035, 0, 0
2, 2700.00000, 0.856025, 0.364665, 0.856893, 0.365035, 0.856893, 0.365035, 0, 0
2, 2760.00000, 0.791004, 0.336966, 0.791005, 0.336967, 0.791003, 0.336966, 0, 0
2, 2820.00000, 0.791004, 0.336966, 0.791004, 0.336966, 0.791004, 0.336966, 0, 0
2, 2880.00000, 0.791004, 0.336966, 0.791004, 0.336966, 0.791004, 0.336966, 0, 0
2, 2940.00000, 0.791004, 0.336966, 0.791004, 0.336966, 0.791004, 0.336966, 0, 0
2, 3000.00000, 0.791004, 0.336966, 0.791004, 0.336966, 0.791004, 0.336966, 0, 0
2, 3060.00000, 0.791004, 0.336966, 0.791004, 0.336966, 0.791004, 0.336966, 0, 0
2, 3120.00000, 0.791004, 0.336966, 0.791004, 0.336966, 0.791004, 0.336966, 0, 0
2, 3180.00000, 0.791004, 0.336966, 0.791004, 0.336966, 0.791004, 0.336966, 0, 0
2, 3240.00000, 0.791004, 0.336966, 0.791004, 0.336966, 0.791004, 0.336966, 0, 0
2, 3300.00000, 0.791004, 0.336966, 0.791004, 0.336966, 0.791004, 0.336966, 0, 0
2, 3360.00000, 0.791004, 0.336966, 0.791004, 0.336966, 0.791004, 0.336966, 0, 0
2, 3420.00000, 0.791004, 0.336966, 0.791004, 0.336966, 0.791004, 0.336966, 0, 0
2, 3480.00000, 0.791004, 0.336966, 0.791004, 0.336966, 0.791004, 0.336966, 0, 0
2, 3540.00000, 0.791004, 0.336966, 0.791004, 0.336966, 0.791004, 0.336966, 0, 0
3, 0.00000, 0.791004, 0.336966, 0.791004, 0.336966, 0.791004, 0.336966, 0, 0
3, 60.00000, 0.847168, 0.360892, 0.847168, 0.360892, 0.847168, 0.360892, 0, 0
3, 120.00000, 0.847168, 0.360892, 0.847168, 0.360892, 0.847168, 0.360892, 0, 0
3, 180.00000, 0.847168, 0.360892, 0.847168, 0.360892, 0.847168, 0.360892, 0, 0
3, 240.00000, 0.847168, 0.360892, 0.847168, 0.360892, 0.847168, 0.360892, 0, 0
3, 300.00000, 0.847168, 0.360892, 0.847168, 0.360892, 0.847168, 0.360892, 0, 0
3, 360.00000, 0.847168, 0.360892, 0.847168, 0.360892, 0.847168, 0.360892, 0, 0
3, 420.00000, 0.847168, 0.360892, 0.847168, 0.360892, 0.847168, 0.360892, 0, 0
3, 480.00000, 0.847168, 0.360892, 0.847168, 0.360892, 0.847168, 0.360892, 0, 0
3, 540.00000, 0.847168, 0.360892, 0.847168, 0.360892, 0.847168, 0.360892, 0, 0
3, 600.00000, 0.847168, 0.360892, 0.847168, 0.360892, 0.847168, 0.360892, 0, 0
3, 660.00000, 0.847168, 0.360892, 0.847168, 0.360892, 0.847168, 0.360892, 0, 0
3, 720.00000, 0.847168, 0.360892, 0.847168, 0.360892, 0.847168, 0.360892, 0, 0
3, 780.00000, 0.847168, 0.360892, 0.847168, 0.360892, 0.847168, 0.360892, 0, 0
3, 840.00000, 0.847168, 0.360892, 0.847168, 0.360892, 0.847168, 0.360892, 0, 0
3, 900.00000, 0.847168, 0.360892, 0.847168, 0.360892, 0.847168, 0.360892, 0, 0
3, 960.00000, 0.782561, 0.333369, 0.782561, 0.33337, 0.78256, 0.333369, 0, 0
3, 1020.00000, 0.78256, 0.333369, 0.78256, 0.333369, 0.78256, 0.333369, 0, 0
3, 1080.00000, 0.78256, 0.333369, 0.78256, 0.333369, 0.78256, 0.333369, 0, 0
3, 1140.00000, 0.78256, 0.333369, 0.78256, 0.333369, 0.78256, 0.333369, 0, 0
3, 1200.00000, 0.78256, 0.333369, 0.78256, 0.333369, 0.78256, 0.333369, 0, 0
3, 1260.00000, 0.78256, 0.333369, 0.78256, 0.333369, 0.78256, 0.333369, 0, 0
3, 1320.00000, 0.78256, 0.333369, 0.78256, 0.333369, 0.78256, 0.333369, 0, 0
3, 1380.00000, 0.78256, 0.333369, 0.78256, 0.333369, 0.78256, 0.333369, 0, 0
3, 1440.00000, 0.78256, 0.333369, 0.78256, 0.333369, 0.78256, 0.333369, 0, 0
3, 1500.00000, 0.78256, 0.333369, 0.78256, 0.333369, 0.78256, 0.333369, 0, 0
3, 1560.00000, 0.78256, 0.333369, 0.78256, 0.333369, 0.78256, 0.333369, 0, 0
3, 1620.00000, 0.78256, 0.333369, 0.78256, 0.333369, 0.78256, 0.333369, 0, 0
3, 1680.00000, 0.78256, 0.333369, 0.78256, 0.333369, 0.78256, 0.333369, 0, 0
3, 1740.00000, 0.78256, 0.333369, 0.78256, 0.333369, 0.78256, 0.333369, 0, 0
3, 1800.00000, 0.78256, 0.333369, 0.78256, 0.333369, 0.78256, 0.333369, 0, 0
3, 1860.00000, 0.729207, 0.310641, 0.729207, 0.310641, 0.729207, 0.310641, 0, 0
3, 1920.00000, 0.729207, 0.310641, 0.729207, 0.310641, 0.729207, 0.310641, 0, 0
3, 1980.00000, 0.729207, 0.310641, 0.729207, 0.310641, 0.729207, 0.310641, 0, 0
3, 2040.00000, 0.729207, 0.310641, 0.729207, 0.310641, 0.729207, 0.310641, 0, 0
3, 2100.00000, 0.729207, 0.310641, 0.729207, 0.310641, 0.729207, 0.310641, 0, 0
3, 2160.00000, 0.729207, 0.310641, 0.729207, 0.310641, 0.729207, 0.310641, 0, 0
3, 2220.00000, 0.729207, 0.310641, 0.729207, 0.310641, 0.729207, 0.310641, 0, 0
3, 2280.00000, 0.729207, 0.310641, 0.729207, 0.310641, 0.729207, 0.310641, 0, 0
3, 2340.00000, 0.729207, 0.310641, 0.729207, 0.310641, 0.729207, 0.310641, 0, 0
3, 2400.00000, 0.729207, 0.310641, 0.729207, 0.310641, 0.729207, 0.310641, 0, 0
3, 2460.00000, 0.729207, 0.310641, 0.729207, 0.310641, 0.729207, 0.310641, 0, 0
3, 2520.00000, 0.729207, 0.310641, 0.729207, 0.310641, 0.729207, 0.310641, 0, 0
3, 2580.00000, 0.729207, 0.310641, 0.729207, 0.310641, 0.729207, 0.310641, 0, 0
3, 2640.00000, 0.729207, 0.310641, 0.729207, 0.310641, 0.729207, 0.310641, 0, 0
3, 2700.00000, 0.729207, 0.310641, 0.729207, 0.310641, 0.729207, 0.310641, 0, 0
3, 2760.00000, 0.768593, 0.327419, 0.768594, 0.32742, 0.768593, 0.327419, 0, 0
3, 2820.00000, 0.768593, 0.327419, 0.768593, 0.327419, 0.768593, 0.327419, 0, 0
3, 2880.00000, 0.768593, 0.327419, 0.768593, 0.327419, 0.768593, 0.327419, 0, 0
3, 2940.00000, 0.768593, 0.327419, 0.768593, 0.327419, 0.768593, 0.327419, 0, 0
3, 3000.00000, 0.768593, 0.327419, 0.768593, 0.327419, 0.768593, 0.327419, 0, 0
3, 3060.00000, 0.768593, 0.327419, 0.768593, 0.327419, 0.768593, 0.327419, 0, 0
3, 3120.00000, 0.768593, 0.327419, 0.768593, 0.327419, 0.768593, 0.327419, 0, 0
3, 3180.00000, 0.768593, 0.327419, 0.768593, 0.327419, 0.768593, 0.327419, 0, 0
3, 3240.00000, 0.768593, 0.327419, 0.768593, 0.327419, 0.768593, 0.327419, 0, 0
3, 3300.00000, 0.768593, 0.327419, 0.768593, 0.327419, 0.768593, 0.327419, 0, 0
3, 3360.00000, 0.768593, 0.327419, 0.768593, 0.327419, 0.768593, 0.327419, 0, 0
3, 3420.00000, 0.768593, 0.327419, 0.768593, 0.327419, 0.768593, 0.327419, 0, 0
3, 3480.00000, 0.768593, 0.327419, 0.768593, 0.327419, 0.768593, 0.327419, 0, 0
3, 3540.00000, 0.768593, 0.327419, 0.768593, 0.327419, 0.768593, 0.327419, 0, 0
4, 0.00000, 0.768593, 0.327419, 0.768593, 0.327419, 0.768593, 0.327419, 0, 0
4, 60.00000, 0.722429, 0.307753, 0.722428, 0.307753, 0.722429, 0.307753, 0, 0
4, 120.00000, 0.722429, 0.307753, 0.722429, 0.307753, 0.722429, 0.307753, 0, 0
4, 180.00000, 0.722429, 0.307753, 0.722429, 0.307753, 0.722429, 0.307753, 0, 0
4, 240.00000, 0.722429, 0.307753, 0.722429, 0.307753, 0.722429, 0.307753, 0, 0
4, 300.00000, 0.722429, 0.307753, 0.722429, 0.307753, 0.722429, 0.307753, 0, 0
4, 360.00000, 0.722429, 0.307753, 0.722429, 0.307753, 0.722429, 0.307753, 0, 0
4, 420.00000, 0.722429, 0.307753, 0.722429, 0.307753, 0.722429, 0.307753, 0, 0
4, 480.00000, 0.722429, 0.307753, 0.722429, 0.307753, 0.722429, 0.307753, 0, 0
4, 540.00000, 0.722429, 0.307753, 0.722429, 0.307753, 0.722429, 0.307753, 0, 0
4, 600.00000, 0.722429, 0.307753, 0.722429, 0.307753, 0.722429, 0.307753, 0, 0
4, 660.00000, 0.722429, 0.307753, 0.722429, 0.307753, 0.722429, 0.307753, 0, 0
4, 720.00000, 0.722429, 0.307753, 0.722429, 0.307753, 0.722429, 0.307753, 0, 0
