hour,t(sec),"P1 (kW)","Q1 (kvar)","P2 (kW)","Q2 (kvar)","P3 (kW)","Q3 (kvar)","P4 (kW)","Q4 (kvar)"
0, 60.00000, 0.206352, 0.0879033, 0.206684, 0.0880468, 0.212915, 0.0906993, 0, 0
0, 120.00000, 0.206349, 0.0879041, 0.206681, 0.0880456, 0.212906, 0.0906974, 0, 0
0, 180.00000, 0.206349, 0.0879041, 0.206681, 0.0880455, 0.212906, 0.0906974, 0, 0
0, 240.00000, 0.206349, 0.0879041, 0.206681, 0.0880455, 0.212906, 0.0906974, 0, 0
0, 300.00000, 0.206349, 0.0879041, 0.206681, 0.0880455, 0.212906, 0.0906974, 0, 0
0, 360.00000, 0.206349, 0.0879041, 0.206681, 0.0880455, 0.212906, 0.0906974, 0, 0
0, 420.00000, 0.206349, 0.0879041, 0.206681, 0.0880455, 0.212906, 0.0906974, 0, 0
0, 480.00000, 0.206349, 0.0879041, 0.206681, 0.0880455, 0.212906, 0.0906974, 0, 0
0, 540.00000, 0.206349, 0.0879041, 0.206681, 0.0880455, 0.212906, 0.0906974, 0, 0
0, 600.00000, 0.206349, 0.0879041, 0.206681, 0.0880455, 0.212906, 0.0906974, 0, 0
0, 660.00000, 0.206349, 0.0879041, 0.206681, 0.0880455, 0.212906, 0.0906974, 0, 0
0, 720.00000, 0.206349, 0.0879041, 0.206681, 0.0880455, 0.212906, 0.0906974, 0, 0
0, 780.00000, 0.206349, 0.0879041, 0.206681, 0.0880455, 0.212906, 0.0906974, 0, 0
0, 840.00000, 0.206349, 0.0879041, 0.206681, 0.0880455, 0.212906, 0.0906974, 0, 0
0, 900.00000, 0.206349, 0.0879041, 0.206681, 0.0880455, 0.212906, 0.0906974, 0, 0
0, 960.00000, 0.217406, 0.0926141, 0.21779, 0.0927781, 0.224367, 0.0955795, 0, 0
0, 1020.00000, 0.217405, 0.0926141, 0.217789, 0.0927778, 0.224365, 0.0955791, 0, 0
0, 1080.00000, 0.217405, 0.0926141, 0.217789, 0.0927778, 0.224365, 0.0955791, 0, 0
0, 1140.00000, 0.217405, 0.0926141, 0.217789, 0.0927778, 0.224365, 0.0955791, 0, 0
0, 1200.00000, 0.217405, 0.0926141, 0.217789, 0.0927778, 0.224365, 0.0955791, 0, 0
0, 1260.00000, 0.217405, 0.0926141, 0.217789, 0.0927778, 0.224365, 0.0955791, 0, 0
0, 1320.00000, 0.217405, 0.0926141, 0.217789, 0.0927778, 0.224365, 0.0955791, 0, 0
0, 1380.00000, 0.217405, 0.0926141, 0.217789, 0.0927778, 0.224365, 0.0955791, 0, 0
0, 1440.00000, 0.217405, 0.0926141, 0.217789, 0.0927778, 0.224365, 0.0955791, 0, 0
0, 1500.00000, 0.217405, 0.0926141, 0.217789, 0.0927778, 0.224365, 0.0955791, 0, 0
0, 1560.00000, 0.217405, 0.0926141, 0.217789, 0.0927778, 0.224365, 0.0955791, 0, 0
0, 1620.00000, 0.217405, 0.0926141, 0.217789, 0.0927778, 0.224365, 0.0955791, 0, 0
0, 1680.00000, 0.217405, 0.0926141, 0.217789, 0.0927778, 0.224365, 0.0955791, 0, 0
0, 1740.00000, 0.217405, 0.0926141, 0.217789, 0.0927778, 0.224365, 0.0955791, 0, 0
0, 1800.00000, 0.217405, 0.0926141, 0.217789, 0.0927778, 0.224365, 0.0955791, 0, 0
0, 1860.00000, 0.218915, 0.0932631, 0.219271, 0.0934116, 0.225867, 0.096223, 0, 0
0, 1920.00000, 0.218927, 0.0932624, 0.219283, 0.0934141, 0.225885, 0.0962266, 0, 0
0, 1980.00000, 0.218927, 0.0932624, 0.219283, 0.0934141, 0.225885, 0.0962266, 0, 0
0, 2040.00000, 0.218927, 0.0932624, 0.219283, 0.0934141, 0.225885, 0.0962266, 0, 0
0, 2100.00000, 0.218927, 0.0932624, 0.219283, 0.0934141, 0.225885, 0.0962266, 0, 0
0, 2160.00000, 0.218927, 0.0932624, 0.219283, 0.0934141, 0.225885, 0.0962266, 0, 0
0, 2220.00000, 0.218927, 0.0932624, 0.219283, 0.0934141, 0.225885, 0.0962266, 0, 0
0, 2280.00000, 0.218927, 0.0932624, 0.219283, 0.0934141, 0.225885, 0.0962266, 0, 0
0, 2340.00000, 0.218927, 0.0932624, 0.219283, 0.0934141, 0.225885, 0.0962266, 0, 0
0, 2400.00000, 0.218927, 0.0932624, 0.219283, 0.0934141, 0.225885, 0.0962266, 0, 0
0, 2460.00000, 0.218927, 0.0932624, 0.219283, 0.0934141, 0.225885, 0.0962266, 0, 0
0, 2520.00000, 0.218927, 0.0932624, 0.219283, 0.0934141, 0.225885, 0.0962266, 0, 0
0, 2580.00000, 0.218927, 0.0932624, 0.219283, 0.0934141, 0.225885, 0.0962266, 0, 0
0, 2640.00000, 0.218927, 0.0932624, 0.219283, 0.0934141, 0.225885, 0.0962266, 0, 0
0, 2700.00000, 0.218927, 0.0932624, 0.219283, 0.0934141, 0.225885, 0.0962266, 0, 0
0, 2760.00000, 0.209527, 0.0892593, 0.209816, 0.0893811, 0.216126, 0.0920702, 0, 0
0, 2820.00000, 0.209528, 0.0892587, 0.209817, 0.0893817, 0.216131, 0.0920713, 0, 0
0, 2880.00000, 0.209528, 0.0892587, 0.209817, 0.0893817, 0.216131, 0.0920713, 0, 0
0, 2940.00000, 0.209528, 0.0892587, 0.209817, 0.0893817, 0.216131, 0.0920713, 0, 0
0, 3000.00000, 0.209528, 0.0892587, 0.209817, 0.0893817, 0.216131, 0.0920713, 0, 0
0, 3060.00000, 0.209528, 0.0892587, 0.209817, 0.0893817, 0.216131, 0.0920713, 0, 0
0, 3120.00000, 0.209528, 0.0892587, 0.209817, 0.0893817, 0.216131, 0.0920713, 0, 0
0, 3180.00000, 0.209528, 0.0892587, 0.209817, 0.0893817, 0.216131, 0.0920713, 0, 0
0, 3240.00000, 0.209528, 0.0892587, 0.209817, 0.0893817, 0.216131, 0.0920713, 0, 0
0, 3300.00000, 0.209528, 0.0892587, 0.209817, 0.0893817, 0.216131, 0.0920713, 0, 0
0, 3360.00000, 0.209528, 0.0892587, 0.209817, 0.0893817, 0.216131, 0.0920713, 0, 0
0, 3420.00000, 0.209528, 0.0892587, 0.209817, 0.0893817, 0.216131, 0.0920713, 0, 0
0, 3480.00000, 0.209528, 0.0892587, 0.209817, 0.0893817, 0.216131, 0.0920713, 0, 0
0, 3540.00000, 0.209528, 0.0892587, 0.209817, 0.0893817, 0.216131, 0.0920713, 0, 0
1, 0.00000, 0.209528, 0.0892587, 0.209817, 0.0893817, 0.216131, 0.0920713, 0, 0
1, 60.00000, 0.208044, 0.0886275, 0.208301, 0.088735, 0.21459, 0.091416, 0, 0
1, 120.00000, 0.208044, 0.0886266, 0.208301, 0.0887359, 0.214596, 0.0914177, 0, 0
1, 180.00000, 0.208044, 0.0886266, 0.208301, 0.0887359, 0.214596, 0.0914177, 0, 0
1, 240.00000, 0.208044, 0.0886266, 0.208301, 0.0887359, 0.214596, 0.0914177, 0, 0
1, 300.00000, 0.208044, 0.0886266, 0.208301, 0.0887359, 0.214596, 0.0914177, 0, 0
1, 360.00000, 0.208044, 0.0886266, 0.208301, 0.0887359, 0.214596, 0.0914177, 0, 0
1, 420.00000, 0.208044, 0.0886266, 0.208301, 0.0887359, 0.214596, 0.0914177, 0, 0
1, 480.00000, 0.208044, 0.0886266, 0.208301, 0.0887359, 0.214596, 0.0914177, 0, 0
1, 540.00000, 0.208044, 0.0886266, 0.208301, 0.0887359, 0.214596, 0.0914177, 0, 0
1, 600.00000, 0.208044, 0.0886266, 0.208301, 0.0887359, 0.214596, 0.0914177, 0, 0
1, 660.00000, 0.208044, 0.0886266, 0.208301, 0.0887359, 0.214596, 0.0914177, 0, 0
1, 720.00000, 0.208044, 0.0886266, 0.208301, 0.0887359, 0.214596, 0.0914177, 0, 0
1, 780.00000, 0.208044, 0.0886266, 0.208301, 0.0887359, 0.214596, 0.0914177, 0, 0
1, 840.00000, 0.208044, 0.0886266, 0.208301, 0.0887359, 0.214596, 0.0914177, 0, 0
1, 900.00000, 0.208044, 0.0886266, 0.208301, 0.0887359, 0.214596, 0.0914177, 0, 0
1, 960.00000, 0.207218, 0.0882765, 0.207467, 0.0883801, 0.213735, 0.0910526, 0, 0
1, 1020.00000, 0.20722, 0.0882755, 0.20747, 0.0883816, 0.213746, 0.0910553, 0, 0
1, 1080.00000, 0.20722, 0.0882754, 0.20747, 0.0883817, 0.213746, 0.0910553, 0, 0
1, 1140.00000, 0.20722, 0.0882754, 0.20747, 0.0883817, 0.213746, 0.0910553, 0, 0
1, 1200.00000, 0.20722, 0.0882754, 0.20747, 0.0883817, 0.213746, 0.0910553, 0, 0
1, 1260.00000, 0.20722, 0.0882754, 0.20747, 0.0883817, 0.213746, 0.0910553, 0, 0
1, 1320.00000, 0.20722, 0.0882754, 0.20747, 0.0883817, 0.213746, 0.0910553, 0, 0
1, 1380.00000, 0.20722, 0.0882754, 0.20747, 0.0883817, 0.213746, 0.0910553, 0, 0
1, 1440.00000, 0.20722, 0.0882754, 0.20747, 0.0883817, 0.213746, 0.0910553, 0, 0
1, 1500.00000, 0.20722, 0.0882754, 0.20747, 0.0883817, 0.213746, 0.0910553, 0, 0
1, 1560.00000, 0.20722, 0.0882754, 0.20747, 0.0883817, 0.213746, 0.0910553, 0, 0
1, 1620.00000, 0.20722, 0.0882754, 0.20747, 0.0883817, 0.213746, 0.0910553, 0, 0
1, 1680.00000, 0.20722, 0.0882754, 0.20747, 0.0883817, 0.213746, 0.0910553, 0, 0
1, 1740.00000, 0.20722, 0.0882754, 0.20747, 0.0883817, 0.213746, 0.0910553, 0, 0
1, 1800.00000, 0.20722, 0.0882754, 0.20747, 0.0883817, 0.213746, 0.0910553, 0, 0
1, 1860.00000, 0.211455, 0.0900783, 0.211733, 0.0901987, 0.218115, 0.0929154, 0, 0
1, 1920.00000, 0.211454, 0.0900792, 0.211733, 0.0901978, 0.218108, 0.0929137, 0, 0
1, 1980.00000, 0.211454, 0.0900792, 0.211733, 0.0901978, 0.218108, 0.0929137, 0, 0
1, 2040.00000, 0.211454, 0.0900792, 0.211733, 0.0901978, 0.218108, 0.0929137, 0, 0
1, 2100.00000, 0.211454, 0.0900792, 0.211733, 0.0901978, 0.218108, 0.0929137, 0, 0
1, 2160.00000, 0.211454, 0.0900792, 0.211733, 0.0901978, 0.218108, 0.0929137, 0, 0
1, 2220.00000, 0.211454, 0.0900792, 0.211733, 0.0901978, 0.218108, 0.0929137, 0, 0
1, 2280.00000, 0.211454, 0.0900792, 0.211733, 0.0901978, 0.218108, 0.0929137, 0, 0
1, 2340.00000, 0.211454, 0.0900792, 0.211733, 0.0901978, 0.218108, 0.0929137, 0, 0
1, 2400.00000, 0.211454, 0.0900792, 0.211733, 0.0901978, 0.218108, 0.0929137, 0, 0
1, 2460.00000, 0.211454, 0.0900792, 0.211733, 0.0901978, 0.218108, 0.0929137, 0, 0
1, 2520.00000, 0.211454, 0.0900792, 0.211733, 0.0901978, 0.218108, 0.0929137, 0, 0
1, 2580.00000, 0.211454, 0.0900792, 0.211733, 0.0901978, 0.218108, 0.0929137, 0, 0
1, 2640.00000, 0.211454, 0.0900792, 0.211733, 0.0901978, 0.218108, 0.0929137, 0, 0
1, 2700.00000, 0.211454, 0.0900792, 0.211733, 0.0901978, 0.218108, 0.0929137, 0, 0
1, 2760.00000, 0.200867, 0.0855712, 0.201089, 0.0856619, 0.206583, 0.0880063, 0, 0
1, 2820.00000, 0.200868, 0.0855693, 0.201091, 0.0856644, 0.206574, 0.0880002, 0, 0
1, 2880.00000, 0.200868, 0.0855693, 0.201091, 0.0856644, 0.206574, 0.0880001, 0, 0
1, 2940.00000, 0.200868, 0.0855693, 0.201091, 0.0856644, 0.206574, 0.0880001, 0, 0
1, 3000.00000, 0.200868, 0.0855693, 0.201091, 0.0856644, 0.206574, 0.0880001, 0, 0
1, 3060.00000, 0.200868, 0.0855693, 0.201091, 0.0856644, 0.206574, 0.0880001, 0, 0
1, 3120.00000, 0.200868, 0.0855693, 0.201091, 0.0856644, 0.206574, 0.0880001, 0, 0
1, 3180.00000, 0.200868, 0.0855693, 0.201091, 0.0856644, 0.206574, 0.0880001, 0, 0
1, 3240.00000, 0.200868, 0.0855693, 0.201091, 0.0856644, 0.206574, 0.0880001, 0, 0
1, 3300.00000, 0.200868, 0.0855693, 0.201091, 0.0856644, 0.206574, 0.0880001, 0, 0
1, 3360.00000, 0.200868, 0.0855693, 0.201091, 0.0856644, 0.206574, 0.0880001, 0, 0
1, 3420.00000, 0.200868, 0.0855693, 0.201091, 0.0856644, 0.206574, 0.0880001, 0, 0
1, 3480.00000, 0.200868, 0.0855693, 0.201091, 0.0856644, 0.206574, 0.0880001, 0, 0
1, 3540.00000, 0.200868, 0.0855693, 0.201091, 0.0856644, 0.206574, 0.0880001, 0, 0
2, 0.00000, 0.200868, 0.0855693, 0.201091, 0.0856644, 0.206574, 0.0880001, 0, 0
2, 60.00000, 0.20527, 0.0874434, 0.205517, 0.0875507, 0.211741, 0.0902, 0, 0
2, 120.00000, 0.205269, 0.0874444, 0.205516, 0.0875495, 0.211734, 0.0901981, 0, 0
2, 180.00000, 0.205269, 0.0874444, 0.205516, 0.0875495, 0.211733, 0.0901981, 0, 0
2, 240.00000, 0.205269, 0.0874444, 0.205516, 0.0875495, 0.211733, 0.0901981, 0, 0
2, 300.00000, 0.205269, 0.0874444, 0.205516, 0.0875495, 0.211733, 0.0901981, 0, 0
2, 360.00000, 0.205269, 0.0874444, 0.205516, 0.0875495, 0.211733, 0.0901981, 0, 0
2, 420.00000, 0.205269, 0.0874444, 0.205516, 0.0875495, 0.211733, 0.0901981, 0, 0
2, 480.00000, 0.205269, 0.0874444, 0.205516, 0.0875495, 0.211733, 0.0901981, 0, 0
2, 540.00000, 0.205269, 0.0874444, 0.205516, 0.0875495, 0.211733, 0.0901981, 0, 0
2, 600.00000, 0.205269, 0.0874444, 0.205516, 0.0875495, 0.211733, 0.0901981, 0, 0
2, 660.00000, 0.205269, 0.0874444, 0.205516, 0.0875495, 0.211733, 0.0901981, 0, 0
2, 720.00000, 0.205269, 0.0874444, 0.205516, 0.0875495, 0.211733, 0.0901981, 0, 0
2, 780.00000, 0.205269, 0.0874444, 0.205516, 0.0875495, 0.211733, 0.0901981, 0, 0
2, 840.00000, 0.205269, 0.0874444, 0.205516, 0.0875495, 0.211733, 0.0901981, 0, 0
2, 900.00000, 0.205269, 0.0874444, 0.205516, 0.0875495, 0.211733, 0.0901981, 0, 0
2, 960.00000, 0.195653, 0.0833493, 0.195863, 0.0834363, 0.200989, 0.0856226, 0, 0
2, 1020.00000, 0.195653, 0.083348, 0.195865, 0.083438, 0.200983, 0.0856182, 0, 0
2, 1080.00000, 0.195653, 0.083348, 0.195865, 0.0834381, 0.200982, 0.0856182, 0, 0
2, 1140.00000, 0.195653, 0.083348, 0.195865, 0.0834381, 0.200982, 0.0856182, 0, 0
2, 1200.00000, 0.195653, 0.083348, 0.195865, 0.0834381, 0.200982, 0.0856182, 0, 0
2, 1260.00000, 0.195653, 0.083348, 0.195865, 0.0834381, 0.200982, 0.0856182, 0, 0
2, 1320.00000, 0.195653, 0.083348, 0.195865, 0.0834381, 0.200982, 0.0856182, 0, 0
2, 1380.00000, 0.195653, 0.083348, 0.195865, 0.0834381, 0.200982, 0.0856182, 0, 0
2, 1440.00000, 0.195653, 0.083348, 0.195865, 0.0834381, 0.200982, 0.0856182, 0, 0
2, 1500.00000, 0.195653, 0.083348, 0.195865, 0.0834381, 0.200982, 0.0856182, 0, 0
2, 1560.00000, 0.195653, 0.083348, 0.195865, 0.0834381, 0.200982, 0.0856182, 0, 0
2, 1620.00000, 0.195653, 0.083348, 0.195865, 0.0834381, 0.200982, 0.0856182, 0, 0
2, 1680.00000, 0.195653, 0.083348, 0.195865, 0.0834381, 0.200982, 0.0856182, 0, 0
2, 1740.00000, 0.195653, 0.083348, 0.195865, 0.0834381, 0.200982, 0.0856182, 0, 0
2, 1800.00000, 0.195653, 0.083348, 0.195865, 0.0834381, 0.200982, 0.0856182, 0, 0
2, 1860.00000, 0.195049, 0.0830899, 0.195266, 0.0831834, 0.20087, 0.0855695, 0, 0
2, 1920.00000, 0.195049, 0.0830904, 0.195265, 0.0831827, 0.200873, 0.0855713, 0, 0
2, 1980.00000, 0.195049, 0.0830904, 0.195265, 0.0831827, 0.200873, 0.0855714, 0, 0
2, 2040.00000, 0.195049, 0.0830904, 0.195265, 0.0831827, 0.200873, 0.0855714, 0, 0
2, 2100.00000, 0.195049, 0.0830904, 0.195265, 0.0831827, 0.200873, 0.0855714, 0, 0
2, 2160.00000, 0.195049, 0.0830904, 0.195265, 0.0831827, 0.200873, 0.0855714, 0, 0
2, 2220.00000, 0.195049, 0.0830904, 0.195265, 0.0831827, 0.200873, 0.0855714, 0, 0
2, 2280.00000, 0.195049, 0.0830904, 0.195265, 0.0831827, 0.200873, 0.0855714, 0, 0
2, 2340.00000, 0.195049, 0.0830904, 0.195265, 0.0831827, 0.200873, 0.0855714, 0, 0
2, 2400.00000, 0.195049, 0.0830904, 0.195265, 0.0831827, 0.200873, 0.0855714, 0, 0
2, 2460.00000, 0.195049, 0.0830904, 0.195265, 0.0831827, 0.200873, 0.0855714, 0, 0
2, 2520.00000, 0.195049, 0.0830904, 0.195265, 0.0831827, 0.200873, 0.0855714, 0, 0
2, 2580.00000, 0.195049, 0.0830904, 0.195265, 0.0831827, 0.200873, 0.0855714, 0, 0
2, 2640.00000, 0.195049, 0.0830904, 0.195265, 0.0831827, 0.200873, 0.0855714, 0, 0
2, 2700.00000, 0.195049, 0.0830904, 0.195265, 0.0831827, 0.200873, 0.0855714, 0, 0
2, 2760.00000, 0.188005, 0.0800917, 0.188179, 0.0801634, 0.192195, 0.0818764, 0, 0
2, 2820.00000, 0.188007, 0.0800909, 0.188183, 0.0801655, 0.192187, 0.0818714, 0, 0
2, 2880.00000, 0.188007, 0.0800908, 0.188183, 0.0801655, 0.192187, 0.0818713, 0, 0
2, 2940.00000, 0.188007, 0.0800908, 0.188183, 0.0801656, 0.192187, 0.0818713, 0, 0
2, 3000.00000, 0.188007, 0.0800908, 0.188183, 0.0801656, 0.192187, 0.0818713, 0, 0
2, 3060.00000, 0.188007, 0.0800908, 0.188183, 0.0801656, 0.192187, 0.0818713, 0, 0
2, 3120.00000, 0.188007, 0.0800908, 0.188183, 0.0801656, 0.192187, 0.0818713, 0, 0
2, 3180.00000, 0.188007, 0.0800908, 0.188183, 0.0801656, 0.192187, 0.0818713, 0, 0
2, 3240.00000, 0.188007, 0.0800908, 0.188183, 0.0801656, 0.192187, 0.0818713, 0, 0
2, 3300.00000, 0.188007, 0.0800908, 0.188183, 0.0801656, 0.192187, 0.0818713, 0, 0
2, 3360.00000, 0.188007, 0.0800908, 0.188183, 0.0801656, 0.192187, 0.0818713, 0, 0
2, 3420.00000, 0.188007, 0.0800908, 0.188183, 0.0801656, 0.192187, 0.0818713, 0, 0
2, 3480.00000, 0.188007, 0.0800908, 0.188183, 0.0801656, 0.192187, 0.0818713, 0, 0
2, 3540.00000, 0.188007, 0.0800908, 0.188183, 0.0801656, 0.192187, 0.0818713, 0, 0
3, 0.00000, 0.188007, 0.0800908, 0.188183, 0.0801656, 0.192187, 0.0818713, 0, 0
3, 60.00000, 0.192111, 0.0818377, 0.192311, 0.0819243, 0.19707, 0.0839506, 0, 0
3, 120.00000, 0.192109, 0.0818381, 0.192309, 0.0819233, 0.197074, 0.0839531, 0, 0
3, 180.00000, 0.192109, 0.0818381, 0.192309, 0.0819233, 0.197074, 0.0839531, 0, 0
3, 240.00000, 0.192109, 0.0818381, 0.192309, 0.0819233, 0.197074, 0.0839531, 0, 0
3, 300.00000, 0.192109, 0.0818381, 0.192309, 0.0819233, 0.197074, 0.0839531, 0, 0
3, 360.00000, 0.192109, 0.0818381, 0.192309, 0.0819233, 0.197074, 0.0839531, 0, 0
3, 420.00000, 0.192109, 0.0818381, 0.192309, 0.0819233, 0.197074, 0.0839531, 0, 0
3, 480.00000, 0.192109, 0.0818381, 0.192309, 0.0819233, 0.197074, 0.0839531, 0, 0
3, 540.00000, 0.192109, 0.0818381, 0.192309, 0.0819233, 0.197074, 0.0839531, 0, 0
3, 600.00000, 0.192109, 0.0818381, 0.192309, 0.0819233, 0.197074, 0.0839531, 0, 0
3, 660.00000, 0.192109, 0.0818381, 0.192309, 0.0819233, 0.197074, 0.0839531, 0, 0
3, 720.00000, 0.192109, 0.0818381, 0.192309, 0.0819233, 0.197074, 0.0839531, 0, 0
3, 780.00000, 0.192109, 0.0818381, 0.192309, 0.0819233, 0.197074, 0.0839531, 0, 0
3, 840.00000, 0.192109, 0.0818381, 0.192309, 0.0819233, 0.197074, 0.0839531, 0, 0
3, 900.00000, 0.192109, 0.0818381, 0.192309, 0.0819233, 0.197074, 0.0839531, 0, 0
3, 960.00000, 0.197645, 0.0841991, 0.197845, 0.0842814, 0.202499, 0.0862662, 0, 0
3, 1020.00000, 0.19765, 0.0841984, 0.19785, 0.0842839, 0.202489, 0.0862599, 0, 0
3, 1080.00000, 0.19765, 0.0841984, 0.19785, 0.0842839, 0.202489, 0.0862598, 0, 0
3, 1140.00000, 0.19765, 0.0841984, 0.19785, 0.0842839, 0.202489, 0.0862598, 0, 0
3, 1200.00000, 0.19765, 0.0841984, 0.19785, 0.0842839, 0.202489, 0.0862598, 0, 0
3, 1260.00000, 0.19765, 0.0841984, 0.19785, 0.0842839, 0.202489, 0.0862598, 0, 0
3, 1320.00000, 0.19765, 0.0841984, 0.19785, 0.0842839, 0.202489, 0.0862598, 0, 0
3, 1380.00000, 0.19765, 0.0841984, 0.19785, 0.0842839, 0.202489, 0.0862598, 0, 0
3, 1440.00000, 0.19765, 0.0841984, 0.19785, 0.0842839, 0.202489, 0.0862598, 0, 0
3, 1500.00000, 0.19765, 0.0841984, 0.19785, 0.0842839, 0.202489, 0.0862598, 0, 0
3, 1560.00000, 0.19765, 0.0841984, 0.19785, 0.0842839, 0.202489, 0.0862598, 0, 0
3, 1620.00000, 0.19765, 0.0841984, 0.19785, 0.0842839, 0.202489, 0.0862598, 0, 0
3, 1680.00000, 0.19765, 0.0841984, 0.19785, 0.0842839, 0.202489, 0.0862598, 0, 0
3, 1740.00000, 0.19765, 0.0841984, 0.19785, 0.0842839, 0.202489, 0.0862598, 0, 0
3, 1800.00000, 0.19765, 0.0841984, 0.19785, 0.0842839, 0.202489, 0.0862598, 0, 0
3, 1860.00000, 0.200174, 0.0852758, 0.200377, 0.0853612, 0.204969, 0.0873181, 0, 0
3, 1920.00000, 0.200179, 0.0852761, 0.200382, 0.0853622, 0.204965, 0.0873146, 0, 0
3, 1980.00000, 0.200179, 0.0852761, 0.200382, 0.0853622, 0.204965, 0.0873146, 0, 0
3, 2040.00000, 0.200179, 0.0852761, 0.200382, 0.0853622, 0.204965, 0.0873146, 0, 0
3, 2100.00000, 0.200179, 0.0852761, 0.200382, 0.0853622, 0.204965, 0.0873146, 0, 0
3, 2160.00000, 0.200179, 0.0852761, 0.200382, 0.0853622, 0.204965, 0.0873146, 0, 0
3, 2220.00000, 0.200179, 0.0852761, 0.200382, 0.0853622, 0.204965, 0.0873146, 0, 0
3, 2280.00000, 0.200179, 0.0852761, 0.200382, 0.0853622, 0.204965, 0.0873146, 0, 0
3, 2340.00000, 0.200179, 0.0852761, 0.200382, 0.0853622, 0.204965, 0.0873146, 0, 0
3, 2400.00000, 0.200179, 0.0852761, 0.200382, 0.0853622, 0.204965, 0.0873146, 0, 0
3, 2460.00000, 0.200179, 0.0852761, 0.200382, 0.0853622, 0.204965, 0.0873146, 0, 0
3, 2520.00000, 0.200179, 0.0852761, 0.200382, 0.0853622, 0.204965, 0.0873146, 0, 0
3, 2580.00000, 0.200179, 0.0852761, 0.200382, 0.0853622, 0.204965, 0.0873146, 0, 0
3, 2640.00000, 0.200179, 0.0852761, 0.200382, 0.0853622, 0.204965, 0.0873146, 0, 0
3, 2700.00000, 0.200179, 0.0852761, 0.200382, 0.0853622, 0.204965, 0.0873146, 0, 0
3, 2760.00000, 0.184382, 0.0785487, 0.184517, 0.0786034, 0.187565, 0.0799039, 0, 0
3, 2820.00000, 0.184387, 0.0785485, 0.18452, 0.0786052, 0.187558, 0.0798995, 0, 0
3, 2880.00000, 0.184387, 0.0785485, 0.18452, 0.0786052, 0.187558, 0.0798994, 0, 0
3, 2940.00000, 0.184387, 0.0785485, 0.18452, 0.0786052, 0.187558, 0.0798994, 0, 0
3, 3000.00000, 0.184387, 0.0785485, 0.18452, 0.0786052, 0.187558, 0.0798994, 0, 0
3, 3060.00000, 0.184387, 0.0785485, 0.18452, 0.0786052, 0.187558, 0.0798994, 0, 0
3, 3120.00000, 0.185314, 0.0789417, 0.186174, 0.079314, 0.187554, 0.0798976, 0, 0
3, 3180.00000, 0.185319, 0.0789454, 0.186187, 0.0793154, 0.187558, 0.0798993, 0, 0
3, 3240.00000, 0.185319, 0.0789455, 0.186187, 0.0793154, 0.187558, 0.0798994, 0, 0
3, 3300.00000, 0.185319, 0.0789455, 0.186187, 0.0793154, 0.187558, 0.0798994, 0, 0
3, 3360.00000, 0.185319, 0.0789455, 0.186187, 0.0793154, 0.187558, 0.0798994, 0, 0
3, 3420.00000, 0.185319, 0.0789455, 0.186187, 0.0793154, 0.187558, 0.0798994, 0, 0
3, 3480.00000, 0.185319, 0.0789455, 0.186187, 0.0793154, 0.187558, 0.0798994, 0, 0
3, 3540.00000, 0.185319, 0.0789455, 0.186187, 0.0793154, 0.187558, 0.0798994, 0, 0
4, 0.00000, 0.185319, 0.0789455, 0.186187, 0.0793154, 0.187558, 0.0798994, 0, 0
4, 60.00000, 0.197473, 0.0841222, 0.198435, 0.0845329, 0.200639, 0.0854709, 0, 0
