hour,t(sec),V1,VAngle1,V2,VAngle2,V3,VAngle3,V4,VAngle4,I1,IAngle1,I2,IAngle2,I3,IAngle3,I4,IAngle4
0, 60.00000, 122.651, -31.2063, 124.801, -151.154, 123.934, 88.1449, 0, 0, 6.48034, -54.2799, 6.3689, -174.228, 6.41323, 65.071, 0.172894, 150.131
0, 120.00000, 122.651, -31.2068, 124.822, -151.156, 123.938, 88.1373, 0, 0, 6.48037, -54.2805, 6.36782, -174.229, 6.41302, 65.0634, 0.174522, 150.317
0, 180.00000, 122.65, -31.2073, 124.841, -151.157, 123.942, 88.1304, 0, 0, 6.48039, -54.2811, 6.36685, -174.231, 6.41282, 65.0566, 0.175985, 150.482
0, 240.00000, 122.65, -31.2078, 124.858, -151.158, 123.945, 88.1243, 0, 0, 6.48041, -54.2815, 6.36598, -174.232, 6.41265, 65.0505, 0.177302, 150.629
0, 300.00000, 122.65, -31.2082, 124.873, -151.16, 123.948, 88.1188, 0, 0, 6.48043, -54.282, 6.3652, -174.233, 6.41249, 65.0449, 0.178488, 150.76
0, 360.00000, 122.649, -31.2086, 124.886, -151.161, 123.951, 88.1138, 0, 0, 6.48044, -54.2824, 6.36449, -174.235, 6.41236, 65.0399, 0.179557, 150.877
0, 420.00000, 122.649, -31.2089, 124.898, -151.162, 123.954, 88.1093, 0, 0, 6.48046, -54.2827, 6.36386, -174.236, 6.41223, 65.0354, 0.180519, 150.981
0, 480.00000, 122.649, -31.2092, 124.909, -151.163, 123.956, 88.1052, 0, 0, 6.48047, -54.283, 6.36329, -174.237, 6.41212, 65.0314, 0.181385, 151.074
0, 540.00000, 122.649, -31.2095, 124.919, -151.164, 123.958, 88.1016, 0, 0, 6.48048, -54.2833, 6.36277, -174.237, 6.41202, 65.0277, 0.182164, 151.158
0, 600.00000, 122.648, -31.2097, 124.928, -151.164, 123.96, 88.0983, 0, 0, 6.48049, -54.2836, 6.36231, -174.238, 6.41193, 65.0244, 0.182866, 151.232
0, 660.00000, 122.648, -31.2099, 124.936, -151.165, 123.961, 88.0954, 0, 0, 6.4805, -54.2838, 6.3619, -174.239, 6.41185, 65.0215, 0.183498, 151.299
0, 720.00000, 122.648, -31.2101, 124.944, -151.166, 123.963, 88.0927, 0, 0, 6.48051, -54.284, 6.36152, -174.24, 6.41178, 65.0188, 0.184067, 151.359
0, 780.00000, 122.648, -31.2103, 124.95, -151.166, 123.964, 88.0903, 0, 0, 6.48052, -54.2842, 6.36119, -174.24, 6.41171, 65.0164, 0.184579, 151.412
0, 840.00000, 122.648, -31.2105, 124.956, -151.167, 123.965, 88.0882, 0, 0, 6.48053, -54.2843, 6.36088, -174.241, 6.41166, 65.0143, 0.18504, 151.461
0, 900.00000, 122.648, -31.2106, 124.961, -151.167, 123.966, 88.0862, 0, 0, 6.48054, -54.2845, 6.36061, -174.241, 6.4116, 65.0123, 0.185455, 151.504
0, 960.00000, 122.417, -31.2355, 124.741, -151.193, 123.753, 88.0569, 0, 0, 6.86847, -54.3094, 6.74059, -174.267, 6.79435, 64.983, 0.197736, 151.33
0, 1020.00000, 122.417, -31.2356, 124.745, -151.193, 123.754, 88.0553, 0, 0, 6.86847, -54.3095, 6.74036, -174.267, 6.7943, 64.9814, 0.198088, 151.364
0, 1080.00000, 122.417, -31.2357, 124.749, -151.194, 123.754, 88.0539, 0, 0, 6.86848, -54.3096, 6.74015, -174.268, 6.79426, 64.98, 0.198409, 151.396
0, 1140.00000, 122.417, -31.2358, 124.752, -151.194, 123.755, 88.0526, 0, 0, 6.86848, -54.3097, 6.73996, -174.268, 6.79423, 64.9787, 0.198697, 151.424
0, 1200.00000, 122.417, -31.2359, 124.755, -151.194, 123.756, 88.0515, 0, 0, 6.86849, -54.3098, 6.73979, -174.268, 6.7942, 64.9776, 0.198957, 151.449
0, 1260.00000, 122.417, -31.236, 124.758, -151.194, 123.756, 88.0504, 0, 0, 6.86849, -54.3099, 6.73963, -174.268, 6.79417, 64.9765, 0.199191, 151.472
0, 1320.00000, 122.417, -31.2361, 124.761, -151.195, 123.757, 88.0495, 0, 0, 6.86849, -54.31, 6.7395, -174.269, 6.79414, 64.9756, 0.199401, 151.492
0, 1380.00000, 122.417, -31.2361, 124.763, -151.195, 123.757, 88.0487, 0, 0, 6.8685, -54.31, 6.73937, -174.269, 6.79412, 64.9748, 0.199591, 151.511
0, 1440.00000, 122.417, -31.2362, 124.765, -151.195, 123.757, 88.0479, 0, 0, 6.8685, -54.3101, 6.73926, -174.269, 6.7941, 64.974, 0.199761, 151.527
0, 1500.00000, 122.417, -31.2362, 124.767, -151.195, 123.758, 88.0473, 0, 0, 6.8685, -54.3101, 6.73916, -174.269, 6.79408, 64.9734, 0.199915, 151.542
0, 1560.00000, 122.417, -31.2363, 124.768, -151.195, 123.758, 88.0467, 0, 0, 6.86851, -54.3102, 6.73907, -174.269, 6.79406, 64.9727, 0.200053, 151.555
0, 1620.00000, 122.417, -31.2363, 124.77, -151.196, 123.758, 88.0461, 0, 0, 6.86851, -54.3102, 6.73898, -174.269, 6.79405, 64.9722, 0.200177, 151.567
0, 1680.00000, 122.417, -31.2364, 124.771, -151.196, 123.759, 88.0456, 0, 0, 6.86851, -54.3103, 6.73891, -174.27, 6.79403, 64.9717, 0.200289, 151.578
0, 1740.00000, 122.417, -31.2364, 124.772, -151.196, 123.759, 88.0452, 0, 0, 6.86851, -54.3103, 6.73884, -174.27, 6.79402, 64.9713, 0.20039, 151.588
0, 1800.00000, 122.417, -31.2364, 124.774, -151.196, 123.759, 88.0448, 0, 0, 6.86851, -54.3103, 6.73878, -174.27, 6.79401, 64.9709, 0.20048, 151.597
0, 1860.00000, 122.503, -31.2155, 124.866, -151.175, 123.844, 88.0651, 0, 0, 6.88454, -54.2894, 6.75425, -174.249, 6.80999, 64.9912, 0.2012, 151.709
0, 1920.00000, 122.503, -31.2155, 124.867, -151.175, 123.844, 88.0647, 0, 0, 6.88454, -54.2894, 6.75419, -174.249, 6.80998, 64.9908, 0.201277, 151.717
0, 1980.00000, 122.503, -31.2156, 124.868, -151.176, 123.844, 88.0645, 0, 0, 6.88454, -54.2895, 6.75415, -174.249, 6.80997, 64.9905, 0.201343, 151.723
0, 2040.00000, 122.503, -31.2156, 124.868, -151.176, 123.844, 88.0642, 0, 0, 6.88454, -54.2895, 6.75411, -174.249, 6.80996, 64.9903, 0.201403, 151.729
0, 2100.00000, 122.503, -31.2156, 124.869, -151.176, 123.844, 88.064, 0, 0, 6.88454, -54.2895, 6.75408, -174.25, 6.80996, 64.99, 0.201457, 151.734
0, 2160.00000, 122.503, -31.2156, 124.87, -151.176, 123.844, 88.0637, 0, 0, 6.88454, -54.2895, 6.75404, -174.25, 6.80995, 64.9898, 0.201505, 151.739
0, 2220.00000, 122.503, -31.2156, 124.87, -151.176, 123.845, 88.0636, 0, 0, 6.88454, -54.2895, 6.75402, -174.25, 6.80995, 64.9896, 0.201549, 151.743
0, 2280.00000, 122.503, -31.2156, 124.871, -151.176, 123.845, 88.0634, 0, 0, 6.88454, -54.2896, 6.75399, -174.25, 6.80994, 64.9895, 0.201588, 151.747
0, 2340.00000, 122.503, -31.2157, 124.871, -151.176, 123.845, 88.0632, 0, 0, 6.88454, -54.2896, 6.75397, -174.25, 6.80994, 64.9893, 0.201623, 151.75
0, 2400.00000, 122.503, -31.2157, 124.871, -151.176, 123.845, 88.0631, 0, 0, 6.88454, -54.2896, 6.75395, -174.25, 6.80993, 64.9892, 0.201655, 151.753
0, 2460.00000, 122.503, -31.2157, 124.872, -151.176, 123.845, 88.063, 0, 0, 6.88454, -54.2896, 6.75393, -174.25, 6.80993, 64.989, 0.201683, 151.756
0, 2520.00000, 122.503, -31.2157, 124.872, -151.176, 123.845, 88.0628, 0, 0, 6.88455, -54.2896, 6.75391, -174.25, 6.80993, 64.9889, 0.201709, 151.758
0, 2580.00000, 122.503, -31.2157, 124.872, -151.176, 123.845, 88.0627, 0, 0, 6.88455, -54.2896, 6.7539, -174.25, 6.80992, 64.9888, 0.201732, 151.76
0, 2640.00000, 122.503, -31.2157, 124.873, -151.176, 123.845, 88.0627, 0, 0, 6.88455, -54.2896, 6.75388, -174.25, 6.80992, 64.9887, 0.201753, 151.762
0, 2700.00000, 122.503, -31.2157, 124.873, -151.176, 123.845, 88.0626, 0, 0, 6.88455, -54.2896, 6.75387, -174.25, 6.80992, 64.9887, 0.201771, 151.764
0, 2760.00000, 122.77, -31.1781, 125.139, -151.139, 124.098, 88.102, 0, 0, 6.5339, -54.252, 6.41024, -174.212, 6.46402, 65.0281, 0.190928, 152.026
0, 2820.00000, 122.77, -31.1781, 125.139, -151.139, 124.098, 88.102, 0, 0, 6.5339, -54.252, 6.41022, -174.212, 6.46402, 65.028, 0.190948, 152.028
0, 2880.00000, 122.77, -31.1781, 125.139, -151.139, 124.098, 88.1019, 0, 0, 6.5339, -54.252, 6.41021, -174.212, 6.46401, 65.028, 0.190961, 152.029
0, 2940.00000, 122.77, -31.1781, 125.14, -151.139, 124.098, 88.1019, 0, 0, 6.5339, -54.252, 6.41021, -174.212, 6.46401, 65.0279, 0.190972, 152.031
0, 3000.00000, 122.77, -31.1781, 125.14, -151.139, 124.098, 88.1018, 0, 0, 6.5339, -54.252, 6.4102, -174.213, 6.46401, 65.0279, 0.190983, 152.032
0, 3060.00000, 122.77, -31.1781, 125.14, -151.139, 124.098, 88.1018, 0, 0, 6.5339, -54.252, 6.41019, -174.213, 6.46401, 65.0278, 0.190992, 152.033
0, 3120.00000, 122.77, -31.1781, 125.14, -151.139, 124.098, 88.1017, 0, 0, 6.5339, -54.252, 6.41019, -174.213, 6.46401, 65.0278, 0.191001, 152.033
0, 3180.00000, 122.77, -31.1781, 125.14, -151.139, 124.098, 88.1017, 0, 0, 6.5339, -54.252, 6.41018, -174.213, 6.46401, 65.0278, 0.191008, 152.034
0, 3240.00000, 122.77, -31.1781, 125.14, -151.139, 124.098, 88.1016, 0, 0, 6.5339, -54.252, 6.41018, -174.213, 6.46401, 65.0277, 0.191015, 152.035
0, 3300.00000, 122.77, -31.1781, 125.14, -151.139, 124.098, 88.1016, 0, 0, 6.5339, -54.252, 6.41017, -174.213, 6.46401, 65.0277, 0.191021, 152.036
0, 3360.00000, 122.77, -31.1781, 125.14, -151.139, 124.098, 88.1016, 0, 0, 6.5339, -54.252, 6.41017, -174.213, 6.46401, 65.0277, 0.191027, 152.036
0, 3420.00000, 122.77, -31.1781, 125.14, -151.139, 124.098, 88.1016, 0, 0, 6.5339, -54.252, 6.41017, -174.213, 6.464, 65.0277, 0.191032, 152.037
0, 3480.00000, 122.77, -31.1781, 125.14, -151.139, 124.098, 88.1015, 0, 0, 6.5339, -54.252, 6.41016, -174.213, 6.464, 65.0276, 0.191037, 152.037
0, 3540.00000, 122.77, -31.1781, 125.14, -151.139, 124.098, 88.1015, 0, 0, 6.5339, -54.252, 6.41016, -174.213, 6.464, 65.0276, 0.191041, 152.037
1, 0.00000, 122.77, -31.1781, 125.141, -151.139, 124.098, 88.1015, 0, 0, 6.5339, -54.252, 6.41016, -174.213, 6.464, 65.0276, 0.191044, 152.038
1, 60.00000, 122.909, -31.1485, 125.282, -151.109, 124.232, 88.1314, 0, 0, 6.45027, -54.2224, 6.32807, -174.183, 6.38155, 65.0575, 0.188561, 152.172
1, 120.00000, 122.909, -31.1485, 125.282, -151.109, 124.232, 88.1314, 0, 0, 6.45027, -54.2224, 6.32806, -174.183, 6.38155, 65.0575, 0.188567, 152.173
1, 180.00000, 122.909, -31.1485, 125.282, -151.109, 124.232, 88.1314, 0, 0, 6.45027, -54.2224, 6.32806, -174.183, 6.38155, 65.0575, 0.18857, 152.173
1, 240.00000, 122.909, -31.1485, 125.282, -151.109, 124.232, 88.1314, 0, 0, 6.45027, -54.2224, 6.32806, -174.183, 6.38155, 65.0574, 0.188572, 152.173
1, 300.00000, 122.909, -31.1485, 125.282, -151.109, 124.232, 88.1313, 0, 0, 6.45027, -54.2224, 6.32805, -174.183, 6.38155, 65.0574, 0.188574, 152.173
1, 360.00000, 122.909, -31.1485, 125.282, -151.109, 124.232, 88.1313, 0, 0, 6.45027, -54.2224, 6.32805, -174.183, 6.38155, 65.0574, 0.188576, 152.174
1, 420.00000, 122.909, -31.1485, 125.282, -151.109, 124.232, 88.1313, 0, 0, 6.45027, -54.2224, 6.32805, -174.183, 6.38155, 65.0574, 0.188578, 152.174
1, 480.00000, 122.909, -31.1485, 125.282, -151.109, 124.232, 88.1313, 0, 0, 6.45027, -54.2225, 6.32805, -174.183, 6.38155, 65.0574, 0.188579, 152.174
1, 540.00000, 122.909, -31.1485, 125.282, -151.109, 124.232, 88.1313, 0, 0, 6.45027, -54.2225, 6.32805, -174.183, 6.38155, 65.0574, 0.188581, 152.174
1, 600.00000, 122.909, -31.1485, 125.282, -151.109, 124.232, 88.1313, 0, 0, 6.45027, -54.2225, 6.32805, -174.183, 6.38155, 65.0574, 0.188582, 152.174
1, 660.00000, 122.909, -31.1485, 125.282, -151.109, 124.232, 88.1313, 0, 0, 6.45027, -54.2225, 6.32805, -174.183, 6.38155, 65.0574, 0.188583, 152.174
1, 720.00000, 122.909, -31.1485, 125.282, -151.109, 124.232, 88.1313, 0, 0, 6.45027, -54.2225, 6.32805, -174.183, 6.38155, 65.0574, 0.188584, 152.174
1, 780.00000, 122.909, -31.1485, 125.282, -151.109, 124.232, 88.1313, 0, 0, 6.45027, -54.2225, 6.32805, -174.183, 6.38155, 65.0574, 0.188585, 152.175
1, 840.00000, 122.909, -31.1485, 125.282, -151.109, 124.232, 88.1313, 0, 0, 6.45027, -54.2225, 6.32805, -174.183, 6.38155, 65.0574, 0.188586, 152.175
1, 900.00000, 122.909, -31.1485, 125.282, -151.109, 124.232, 88.1313, 0, 0, 6.45027, -54.2225, 6.32805, -174.183, 6.38155, 65.0574, 0.188587, 152.175
1, 960.00000, 122.945, -31.1449, 125.318, -151.106, 124.266, 88.135, 0, 0, 6.41818, -54.2188, 6.29666, -174.18, 6.34995, 65.0611, 0.187544, 152.216
1, 1020.00000, 122.945, -31.1449, 125.318, -151.106, 124.266, 88.135, 0, 0, 6.41818, -54.2188, 6.29666, -174.18, 6.34996, 65.0611, 0.187548, 152.217
1, 1080.00000, 122.945, -31.1449, 125.318, -151.106, 124.266, 88.135, 0, 0, 6.41818, -54.2188, 6.29666, -174.18, 6.34996, 65.0611, 0.187549, 152.217
1, 1140.00000, 122.945, -31.1449, 125.318, -151.106, 124.266, 88.135, 0, 0, 6.41818, -54.2188, 6.29666, -174.18, 6.34996, 65.061, 0.187549, 152.217
1, 1200.00000, 122.945, -31.1449, 125.318, -151.106, 124.266, 88.135, 0, 0, 6.41818, -54.2188, 6.29666, -174.18, 6.34996, 65.061, 0.18755, 152.217
1, 1260.00000, 122.945, -31.1449, 125.318, -151.106, 124.266, 88.135, 0, 0, 6.41818, -54.2188, 6.29666, -174.18, 6.34995, 65.061, 0.18755, 152.217
1, 1320.00000, 122.945, -31.1449, 125.318, -151.106, 124.266, 88.135, 0, 0, 6.41818, -54.2188, 6.29666, -174.18, 6.34995, 65.061, 0.187551, 152.217
1, 1380.00000, 122.945, -31.1449, 125.318, -151.106, 124.266, 88.135, 0, 0, 6.41818, -54.2188, 6.29665, -174.18, 6.34995, 65.061, 0.187551, 152.217
1, 1440.00000, 122.945, -31.1449, 125.318, -151.106, 124.266, 88.135, 0, 0, 6.41818, -54.2188, 6.29665, -174.18, 6.34995, 65.061, 0.187551, 152.217
1, 1500.00000, 122.945, -31.1449, 125.318, -151.106, 124.266, 88.135, 0, 0, 6.41818, -54.2188, 6.29665, -174.18, 6.34995, 65.061, 0.187551, 152.217
1, 1560.00000, 122.945, -31.1449, 125.318, -151.106, 124.266, 88.1349, 0, 0, 6.41818, -54.2188, 6.29665, -174.18, 6.34995, 65.061, 0.187552, 152.217
1, 1620.00000, 122.945, -31.1449, 125.318, -151.106, 124.266, 88.1349, 0, 0, 6.41818, -54.2188, 6.29665, -174.18, 6.34995, 65.061, 0.187552, 152.217
1, 1680.00000, 122.945, -31.1449, 125.318, -151.106, 124.266, 88.1349, 0, 0, 6.41818, -54.2188, 6.29665, -174.18, 6.34995, 65.061, 0.187552, 152.217
1, 1740.00000, 122.945, -31.1449, 125.318, -151.106, 124.266, 88.1349, 0, 0, 6.41818, -54.2188, 6.29665, -174.18, 6.34995, 65.061, 0.187552, 152.217
1, 1800.00000, 122.945, -31.1449, 125.318, -151.106, 124.266, 88.1349, 0, 0, 6.41818, -54.2188, 6.29665, -174.18, 6.34995, 65.061, 0.187552, 152.217
1, 1860.00000, 122.787, -31.1708, 125.161, -151.132, 124.116, 88.1079, 0, 0, 6.58141, -54.2447, 6.45658, -174.206, 6.51095, 65.034, 0.192666, 152.078
1, 1920.00000, 122.787, -31.1708, 125.161, -151.132, 124.116, 88.1079, 0, 0, 6.58141, -54.2447, 6.45658, -174.206, 6.51095, 65.034, 0.192663, 152.078
1, 1980.00000, 122.787, -31.1708, 125.161, -151.132, 124.116, 88.1079, 0, 0, 6.58141, -54.2447, 6.45658, -174.206, 6.51095, 65.034, 0.192663, 152.078
1, 2040.00000, 122.787, -31.1708, 125.161, -151.132, 124.116, 88.1079, 0, 0, 6.58141, -54.2447, 6.45658, -174.206, 6.51095, 65.034, 0.192663, 152.078
1, 2100.00000, 122.787, -31.1708, 125.161, -151.132, 124.116, 88.1079, 0, 0, 6.58141, -54.2447, 6.45658, -174.206, 6.51095, 65.034, 0.192663, 152.078
1, 2160.00000, 122.787, -31.1708, 125.161, -151.132, 124.116, 88.1079, 0, 0, 6.58141, -54.2447, 6.45658, -174.206, 6.51095, 65.034, 0.192663, 152.078
1, 2220.00000, 122.787, -31.1708, 125.161, -151.132, 124.116, 88.1079, 0, 0, 6.58141, -54.2447, 6.45658, -174.206, 6.51095, 65.034, 0.192663, 152.078
1, 2280.00000, 122.787, -31.1708, 125.161, -151.132, 124.116, 88.1079, 0, 0, 6.58141, -54.2447, 6.45658, -174.206, 6.51095, 65.034, 0.192664, 152.078
1, 2340.00000, 122.787, -31.1708, 125.161, -151.132, 124.116, 88.1079, 0, 0, 6.58141, -54.2447, 6.45658, -174.206, 6.51095, 65.034, 0.192664, 152.078
1, 2400.00000, 122.787, -31.1708, 125.161, -151.132, 124.116, 88.1079, 0, 0, 6.58141, -54.2447, 6.45658, -174.206, 6.51095, 65.034, 0.192664, 152.078
1, 2460.00000, 122.787, -31.1708, 125.161, -151.132, 124.116, 88.1079, 0, 0, 6.58141, -54.2447, 6.45658, -174.206, 6.51095, 65.034, 0.192664, 152.078
1, 2520.00000, 122.787, -31.1708, 125.161, -151.132, 124.116, 88.1079, 0, 0, 6.58141, -54.2447, 6.45658, -174.206, 6.51095, 65.034, 0.192664, 152.078
1, 2580.00000, 122.787, -31.1708, 125.161, -151.132, 124.116, 88.1079, 0, 0, 6.58141, -54.2447, 6.45658, -174.206, 6.51095, 65.034, 0.192664, 152.078
1, 2640.00000, 122.787, -31.1708, 125.161, -151.132, 124.116, 88.1079, 0, 0, 6.58141, -54.2447, 6.45658, -174.206, 6.51095, 65.034, 0.192664, 152.078
1, 2700.00000, 122.787, -31.1708, 125.161, -151.132, 124.116, 88.1079, 0, 0, 6.58141, -54.2447, 6.45658, -174.206, 6.51095, 65.034, 0.192664, 152.078
1, 2760.00000, 123.127, -31.119, 125.496, -151.081, 124.436, 88.1606, 0, 0, 6.18454, -54.1929, 6.06784, -174.155, 6.11952, 65.0867, 0.180335, 152.431
1, 2820.00000, 123.127, -31.119, 125.496, -151.081, 124.436, 88.1606, 0, 0, 6.18454, -54.1929, 6.06783, -174.155, 6.11952, 65.0867, 0.180336, 152.431
1, 2880.00000, 123.127, -31.119, 125.496, -151.081, 124.436, 88.1606, 0, 0, 6.18454, -54.1929, 6.06783, -174.155, 6.11952, 65.0867, 0.180336, 152.431
1, 2940.00000, 123.127, -31.119, 125.496, -151.081, 124.436, 88.1606, 0, 0, 6.18454, -54.1929, 6.06783, -174.155, 6.11952, 65.0867, 0.180336, 152.431
1, 3000.00000, 123.127, -31.119, 125.496, -151.081, 124.436, 88.1606, 0, 0, 6.18454, -54.1929, 6.06783, -174.155, 6.11952, 65.0867, 0.180336, 152.431
1, 3060.00000, 123.127, -31.119, 125.496, -151.081, 124.436, 88.1606, 0, 0, 6.18454, -54.1929, 6.06783, -174.155, 6.11952, 65.0867, 0.180336, 152.431
1, 3120.00000, 123.127, -31.119, 125.496, -151.081, 124.436, 88.1606, 0, 0, 6.18454, -54.1929, 6.06783, -174.155, 6.11952, 65.0867, 0.180336, 152.431
1, 3180.00000, 123.127, -31.119, 125.496, -151.081, 124.436, 88.1606, 0, 0, 6.18454, -54.1929, 6.06783, -174.155, 6.11952, 65.0867, 0.180336, 152.431
1, 3240.00000, 123.127, -31.119, 125.496, -151.081, 124.436, 88.1606, 0, 0, 6.18454, -54.1929, 6.06783, -174.155, 6.11952, 65.0867, 0.180336, 152.431
1, 3300.00000, 123.127, -31.119, 125.496, -151.081, 124.436, 88.1606, 0, 0, 6.18454, -54.1929, 6.06783, -174.155, 6.11952, 65.0867, 0.180336, 152.431
1, 3360.00000, 123.127, -31.119, 125.496, -151.081, 124.436, 88.1606, 0, 0, 6.18454, -54.1929, 6.06783, -174.155, 6.11952, 65.0867, 0.180336, 152.431
1, 3420.00000, 123.127, -31.119, 125.496, -151.081, 124.436, 88.1606, 0, 0, 6.18454, -54.1929, 6.06783, -174.155, 6.11952, 65.0867, 0.180336, 152.431
1, 3480.00000, 123.127, -31.119, 125.496, -151.081, 124.436, 88.1606, 0, 0, 6.18454, -54.1929, 6.06783, -174.155, 6.11952, 65.0867, 0.180336, 152.431
1, 3540.00000, 123.127, -31.119, 125.496, -151.081, 124.436, 88.1606, 0, 0, 6.18454, -54.1929, 6.06783, -174.155, 6.11952, 65.0867, 0.180336, 152.431
2, 0.00000, 123.127, -31.119, 125.496, -151.081, 124.436, 88.1606, 0, 0, 6.18454, -54.1929, 6.06783, -174.155, 6.11952, 65.0867, 0.180336, 152.431
2, 60.00000, 122.923, -31.1506, 125.296, -151.112, 124.244, 88.1283, 0, 0, 6.36107, -54.2245, 6.2406, -174.186, 6.29342, 65.0544, 0.185981, 152.221
2, 120.00000, 122.923, -31.1506, 125.296, -151.112, 124.244, 88.1283, 0, 0, 6.36107, -54.2245, 6.24061, -174.186, 6.29342, 65.0544, 0.185977, 152.22
2, 180.00000, 122.923, -31.1506, 125.296, -151.112, 124.244, 88.1283, 0, 0, 6.36107, -54.2245, 6.24061, -174.186, 6.29342, 65.0544, 0.185977, 152.22
2, 240.00000, 122.923, -31.1506, 125.296, -151.112, 124.244, 88.1283, 0, 0, 6.36107, -54.2245, 6.24061, -174.186, 6.29342, 65.0544, 0.185977, 152.22
2, 300.00000, 122.923, -31.1506, 125.296, -151.112, 124.244, 88.1283, 0, 0, 6.36107, -54.2245, 6.24061, -174.186, 6.29342, 65.0544, 0.185977, 152.22
2, 360.00000, 122.923, -31.1506, 125.296, -151.112, 124.244, 88.1283, 0, 0, 6.36107, -54.2245, 6.24061, -174.186, 6.29342, 65.0544, 0.185977, 152.22
2, 420.00000, 122.923, -31.1506, 125.296, -151.112, 124.244, 88.1283, 0, 0, 6.36107, -54.2245, 6.24061, -174.186, 6.29342, 65.0544, 0.185977, 152.22
2, 480.00000, 122.923, -31.1506, 125.296, -151.112, 124.244, 88.1283, 0, 0, 6.36107, -54.2245, 6.24061, -174.186, 6.29342, 65.0544, 0.185977, 152.22
2, 540.00000, 122.923, -31.1506, 125.296, -151.112, 124.244, 88.1283, 0, 0, 6.36107, -54.2245, 6.24061, -174.186, 6.29342, 65.0544, 0.185977, 152.22
2, 600.00000, 122.923, -31.1506, 125.296, -151.112, 124.244, 88.1283, 0, 0, 6.36107, -54.2245, 6.24061, -174.186, 6.29342, 65.0544, 0.185977, 152.22
2, 660.00000, 122.923, -31.1506, 125.296, -151.112, 124.244, 88.1283, 0, 0, 6.36107, -54.2245, 6.24061, -174.186, 6.29342, 65.0544, 0.185978, 152.22
2, 720.00000, 122.923, -31.1506, 125.296, -151.112, 124.244, 88.1283, 0, 0, 6.36107, -54.2245, 6.24061, -174.186, 6.29342, 65.0544, 0.185978, 152.22
2, 780.00000, 122.923, -31.1506, 125.296, -151.112, 124.244, 88.1283, 0, 0, 6.36107, -54.2245, 6.24061, -174.186, 6.29342, 65.0544, 0.185978, 152.22
