hour,t(sec),"P1 (kW)","Q1 (kvar)","P2 (kW)","Q2 (kvar)","P3 (kW)","Q3 (kvar)","P4 (kW)","Q4 (kvar)"
0, 60.00000, 0.940298, 0.400562, 1.01733, 0.433378, 0.958864, 0.408468, 0, 0
0, 120.00000, 0.940291, 0.400562, 1.01732, 0.433378, 0.958852, 0.408469, 0, 0
0, 180.00000, 0.940291, 0.400562, 1.01732, 0.433378, 0.958852, 0.408469, 0, 0
0, 240.00000, 0.940291, 0.400562, 1.01732, 0.433378, 0.958852, 0.408469, 0, 0
0, 300.00000, 0.940291, 0.400562, 1.01732, 0.433378, 0.958852, 0.408469, 0, 0
0, 360.00000, 0.940291, 0.400562, 1.01732, 0.433378, 0.958852, 0.408469, 0, 0
0, 420.00000, 0.940291, 0.400562, 1.01732, 0.433378, 0.958852, 0.408469, 0, 0
0, 480.00000, 0.833121, 0.354909, 0.900929, 0.383799, 0.84849, 0.361463, 0, 0
0, 540.00000, 0.833127, 0.354911, 0.900944, 0.3838, 0.848498, 0.361459, 0, 0
0, 600.00000, 0.833127, 0.354911, 0.900944, 0.3838, 0.848498, 0.361459, 0, 0
0, 660.00000, 0.833127, 0.354911, 0.900944, 0.3838, 0.848498, 0.361459, 0, 0
0, 720.00000, 0.833127, 0.354911, 0.900944, 0.3838, 0.848498, 0.361459, 0, 0
0, 780.00000, 0.833127, 0.354911, 0.900944, 0.3838, 0.848498, 0.361459, 0, 0
0, 840.00000, 0.833127, 0.354911, 0.900944, 0.3838, 0.848498, 0.361459, 0, 0
0, 900.00000, 0.833127, 0.354911, 0.900944, 0.3838, 0.848498, 0.361459, 0, 0
0, 960.00000, 0.825343, 0.351594, 0.900866, 0.383768, 0.844128, 0.359594, 0, 0
0, 1020.00000, 0.825338, 0.351593, 0.900867, 0.383768, 0.844124, 0.359595, 0, 0
0, 1080.00000, 0.825338, 0.351593, 0.900867, 0.383768, 0.844124, 0.359595, 0, 0
0, 1140.00000, 0.825338, 0.351593, 0.900867, 0.383768, 0.844124, 0.359595, 0, 0
0, 1200.00000, 0.825338, 0.351593, 0.900867, 0.383768, 0.844124, 0.359595, 0, 0
0, 1260.00000, 0.825338, 0.351593, 0.900867, 0.383768, 0.844124, 0.359595, 0, 0
0, 1320.00000, 0.825338, 0.351593, 0.900867, 0.383768, 0.844124, 0.359595, 0, 0
0, 1380.00000, 0.825338, 0.351593, 0.900867, 0.383768, 0.844124, 0.359595, 0, 0
0, 1440.00000, 0.825338, 0.351593, 0.900867, 0.383768, 0.844124, 0.359595, 0, 0
0, 1500.00000, 0.825338, 0.351593, 0.900867, 0.383768, 0.844124, 0.359595, 0, 0
0, 1560.00000, 0.825338, 0.351593, 0.900867, 0.383768, 0.844124, 0.359595, 0, 0
0, 1620.00000, 0.825338, 0.351593, 0.900867, 0.383768, 0.844124, 0.359595, 0, 0
0, 1680.00000, 0.825338, 0.351593, 0.900867, 0.383768, 0.844124, 0.359595, 0, 0
0, 1740.00000, 0.825338, 0.351593, 0.900867, 0.383768, 0.844124, 0.359595, 0, 0
0, 1800.00000, 0.817177, 0.348116, 0.900776, 0.383729, 0.839305, 0.357538, 0, 0
0, 1860.00000, 0.817172, 0.348114, 0.900776, 0.383729, 0.8393, 0.35754, 0, 0
0, 1920.00000, 0.817172, 0.348114, 0.900776, 0.383729, 0.8393, 0.35754, 0, 0
0, 1980.00000, 0.817172, 0.348114, 0.900776, 0.383729, 0.8393, 0.35754, 0, 0
0, 2040.00000, 0.817172, 0.348114, 0.900776, 0.383729, 0.8393, 0.35754, 0, 0
0, 2100.00000, 0.817172, 0.348114, 0.900776, 0.383729, 0.8393, 0.35754, 0, 0
0, 2160.00000, 0.817172, 0.348114, 0.900776, 0.383729, 0.8393, 0.35754, 0, 0
0, 2220.00000, 0.817172, 0.348114, 0.900776, 0.383729, 0.8393, 0.35754, 0, 0
0, 2280.00000, 0.817172, 0.348114, 0.900776, 0.383729, 0.8393, 0.35754, 0, 0
0, 2340.00000, 0.817172, 0.348114, 0.900776, 0.383729, 0.8393, 0.35754, 0, 0
0, 2400.00000, 0.817172, 0.348114, 0.900776, 0.383729, 0.8393, 0.35754, 0, 0
0, 2460.00000, 0.817172, 0.348114, 0.900776, 0.383729, 0.8393, 0.35754, 0, 0
0, 2520.00000, 0.817172, 0.348114, 0.900776, 0.383729, 0.8393, 0.35754, 0, 0
0, 2580.00000, 0.817172, 0.348114, 0.900776, 0.383729, 0.8393, 0.35754, 0, 0
0, 2640.00000, 0.817172, 0.348114, 0.900776, 0.383729, 0.8393, 0.35754, 0, 0
0, 2700.00000, 0.817172, 0.348114, 0.900776, 0.383729, 0.8393, 0.35754, 0, 0
0, 2760.00000, 0.821447, 0.349938, 0.900787, 0.383733, 0.840699, 0.358141, 0, 0
0, 2820.00000, 0.821453, 0.349937, 0.900787, 0.383733, 0.840706, 0.358139, 0, 0
0, 2880.00000, 0.821453, 0.349937, 0.900787, 0.383733, 0.840706, 0.358139, 0, 0
0, 2940.00000, 0.821453, 0.349937, 0.900787, 0.383733, 0.840706, 0.358139, 0, 0
0, 3000.00000, 0.821453, 0.349937, 0.900787, 0.383733, 0.840706, 0.358139, 0, 0
0, 3060.00000, 0.821453, 0.349937, 0.900787, 0.383733, 0.840706, 0.358139, 0, 0
0, 3120.00000, 0.821453, 0.349937, 0.900787, 0.383733, 0.840706, 0.358139, 0, 0
0, 3180.00000, 0.821453, 0.349937, 0.900787, 0.383733, 0.840706, 0.358139, 0, 0
0, 3240.00000, 0.821453, 0.349937, 0.900787, 0.383733, 0.840706, 0.358139, 0, 0
0, 3300.00000, 0.821453, 0.349937, 0.900787, 0.383733, 0.840706, 0.358139, 0, 0
0, 3360.00000, 0.821453, 0.349937, 0.900787, 0.383733, 0.840706, 0.358139, 0, 0
0, 3420.00000, 0.821453, 0.349937, 0.900787, 0.383733, 0.840706, 0.358139, 0, 0
0, 3480.00000, 0.821453, 0.349937, 0.900787, 0.383733, 0.840706, 0.358139, 0, 0
0, 3540.00000, 0.821453, 0.349937, 0.900787, 0.383733, 0.840706, 0.358139, 0, 0
1, 0.00000, 0.821453, 0.349937, 0.900787, 0.383733, 0.840706, 0.358139, 0, 0
1, 60.00000, 0.825534, 0.351679, 0.900804, 0.383741, 0.841943, 0.358669, 0, 0
1, 120.00000, 0.825539, 0.351678, 0.900804, 0.383741, 0.841947, 0.358668, 0, 0
1, 180.00000, 0.825539, 0.351678, 0.900804, 0.383741, 0.841947, 0.358668, 0, 0
1, 240.00000, 0.825539, 0.351678, 0.900804, 0.383741, 0.841947, 0.358668, 0, 0
1, 300.00000, 0.825539, 0.351678, 0.900804, 0.383741, 0.841947, 0.358668, 0, 0
1, 360.00000, 0.825539, 0.351678, 0.900804, 0.383741, 0.841947, 0.358668, 0, 0
1, 420.00000, 0.825539, 0.351678, 0.900804, 0.383741, 0.841947, 0.358668, 0, 0
1, 480.00000, 0.825539, 0.351678, 0.900804, 0.383741, 0.841947, 0.358668, 0, 0
1, 540.00000, 0.825539, 0.351678, 0.900804, 0.383741, 0.841947, 0.358668, 0, 0
1, 600.00000, 0.825539, 0.351678, 0.900804, 0.383741, 0.841947, 0.358668, 0, 0
1, 660.00000, 0.825539, 0.351678, 0.900804, 0.383741, 0.841947, 0.358668, 0, 0
1, 720.00000, 0.825539, 0.351678, 0.900804, 0.383741, 0.841947, 0.358668, 0, 0
1, 780.00000, 0.851215, 0.362618, 0.90019, 0.38348, 0.866335, 0.369061, 0, 0
1, 840.00000, 0.851223, 0.36262, 0.90019, 0.383479, 0.86634, 0.369059, 0, 0
1, 900.00000, 0.851223, 0.36262, 0.90019, 0.383479, 0.86634, 0.369059, 0, 0
1, 960.00000, 0.851223, 0.36262, 0.90019, 0.383479, 0.86634, 0.369059, 0, 0
1, 1020.00000, 0.851223, 0.36262, 0.90019, 0.383479, 0.86634, 0.369059, 0, 0
1, 1080.00000, 0.851223, 0.36262, 0.90019, 0.383479, 0.86634, 0.369059, 0, 0
1, 1140.00000, 0.851223, 0.36262, 0.90019, 0.383479, 0.86634, 0.369059, 0, 0
1, 1200.00000, 0.851223, 0.36262, 0.90019, 0.383479, 0.86634, 0.369059, 0, 0
1, 1260.00000, 0.851223, 0.36262, 0.90019, 0.383479, 0.86634, 0.369059, 0, 0
1, 1320.00000, 0.851223, 0.36262, 0.90019, 0.383479, 0.86634, 0.369059, 0, 0
1, 1380.00000, 0.851223, 0.36262, 0.90019, 0.383479, 0.86634, 0.369059, 0, 0
1, 1440.00000, 0.851223, 0.36262, 0.90019, 0.383479, 0.86634, 0.369059, 0, 0
1, 1500.00000, 0.851223, 0.36262, 0.90019, 0.383479, 0.86634, 0.369059, 0, 0
1, 1560.00000, 0.851223, 0.36262, 0.90019, 0.383479, 0.86634, 0.369059, 0, 0
1, 1620.00000, 0.851223, 0.36262, 0.90019, 0.383479, 0.86634, 0.369059, 0, 0
1, 1680.00000, 0.851223, 0.36262, 0.90019, 0.383479, 0.86634, 0.369059, 0, 0
1, 1740.00000, 0.851223, 0.36262, 0.90019, 0.383479, 0.86634, 0.369059, 0, 0
1, 1800.00000, 0.851223, 0.36262, 0.90019, 0.383479, 0.86634, 0.369059, 0, 0
1, 1860.00000, 0.851223, 0.36262, 0.90019, 0.383479, 0.86634, 0.369059, 0, 0
1, 1920.00000, 0.851223, 0.36262, 0.90019, 0.383479, 0.86634, 0.369059, 0, 0
1, 1980.00000, 0.851223, 0.36262, 0.90019, 0.383479, 0.86634, 0.369059, 0, 0
1, 2040.00000, 0.851223, 0.36262, 0.90019, 0.383479, 0.86634, 0.369059, 0, 0
1, 2100.00000, 0.851223, 0.36262, 0.90019, 0.383479, 0.86634, 0.369059, 0, 0
1, 2160.00000, 0.851223, 0.36262, 0.90019, 0.383479, 0.86634, 0.369059, 0, 0
1, 2220.00000, 0.860012, 0.366367, 0.900254, 0.383507, 0.871409, 0.371222, 0, 0
1, 2280.00000, 0.86002, 0.366367, 0.900253, 0.383506, 0.871412, 0.37122, 0, 0
1, 2340.00000, 0.86002, 0.366367, 0.900253, 0.383506, 0.871412, 0.37122, 0, 0
1, 2400.00000, 0.86002, 0.366367, 0.900253, 0.383506, 0.871412, 0.37122, 0, 0
1, 2460.00000, 0.86002, 0.366367, 0.900253, 0.383506, 0.871412, 0.37122, 0, 0
1, 2520.00000, 0.86002, 0.366367, 0.900253, 0.383506, 0.871412, 0.37122, 0, 0
1, 2580.00000, 0.86002, 0.366367, 0.900253, 0.383506, 0.871412, 0.37122, 0, 0
1, 2640.00000, 0.86002, 0.366367, 0.900253, 0.383506, 0.871412, 0.37122, 0, 0
1, 2700.00000, 0.86002, 0.366367, 0.900253, 0.383506, 0.871412, 0.37122, 0, 0
1, 2760.00000, 0.86002, 0.366367, 0.900253, 0.383506, 0.871412, 0.37122, 0, 0
1, 2820.00000, 0.86002, 0.366367, 0.900253, 0.383506, 0.871412, 0.37122, 0, 0
1, 2880.00000, 0.86002, 0.366367, 0.900253, 0.383506, 0.871412, 0.37122, 0, 0
1, 2940.00000, 0.86002, 0.366367, 0.900253, 0.383506, 0.871412, 0.37122, 0, 0
1, 3000.00000, 0.86002, 0.366367, 0.900253, 0.383506, 0.871412, 0.37122, 0, 0
1, 3060.00000, 0.86002, 0.366367, 0.900253, 0.383506, 0.871412, 0.37122, 0, 0
1, 3120.00000, 0.86002, 0.366367, 0.900253, 0.383506, 0.871412, 0.37122, 0, 0
1, 3180.00000, 0.86002, 0.366367, 0.900253, 0.383506, 0.871412, 0.37122, 0, 0
1, 3240.00000, 0.86002, 0.366367, 0.900253, 0.383506, 0.871412, 0.37122, 0, 0
1, 3300.00000, 0.86002, 0.366367, 0.900253, 0.383506, 0.871412, 0.37122, 0, 0
1, 3360.00000, 0.86002, 0.366367, 0.900253, 0.383506, 0.871412, 0.37122, 0, 0
1, 3420.00000, 0.86002, 0.366367, 0.900253, 0.383506, 0.871412, 0.37122, 0, 0
1, 3480.00000, 0.86002, 0.366367, 0.900253, 0.383506, 0.871412, 0.37122, 0, 0
1, 3540.00000, 0.86002, 0.366367, 0.900253, 0.383506, 0.871412, 0.37122, 0, 0
2, 0.00000, 0.86002, 0.366367, 0.900253, 0.383506, 0.871412, 0.37122, 0, 0
2, 60.00000, 0.86002, 0.366367, 0.900253, 0.383506, 0.871412, 0.37122, 0, 0
2, 120.00000, 0.86002, 0.366367, 0.900253, 0.383506, 0.871412, 0.37122, 0, 0
2, 180.00000, 0.86002, 0.366367, 0.900253, 0.383506, 0.871412, 0.37122, 0, 0
2, 240.00000, 0.86002, 0.366367, 0.900253, 0.383506, 0.871412, 0.37122, 0, 0
2, 300.00000, 0.86002, 0.366367, 0.900253, 0.383506, 0.871412, 0.37122, 0, 0
2, 360.00000, 0.86002, 0.366367, 0.900253, 0.383506, 0.871412, 0.37122, 0, 0
2, 420.00000, 0.86002, 0.366367, 0.900253, 0.383506, 0.871412, 0.37122, 0, 0
2, 480.00000, 0.86002, 0.366367, 0.900253, 0.383506, 0.871412, 0.37122, 0, 0
2, 540.00000, 0.86002, 0.366367, 0.900253, 0.383506, 0.871412, 0.37122, 0, 0
2, 600.00000, 0.86002, 0.366367, 0.900253, 0.383506, 0.871412, 0.37122, 0, 0
2, 660.00000, 0.86002, 0.366367, 0.900253, 0.383506, 0.871412, 0.37122, 0, 0
2, 720.00000, 0.86002, 0.366367, 0.900253, 0.383506, 0.871412, 0.37122, 0, 0
2, 780.00000, 0.86002, 0.366367, 0.900253, 0.383506, 0.871412, 0.37122, 0, 0
2, 840.00000, 0.868325, 0.36991, 0.900316, 0.383533, 0.87601, 0.373182, 0, 0
2, 900.00000, 0.868335, 0.369909, 0.900315, 0.383533, 0.876013, 0.37318, 0, 0
2, 960.00000, 0.868335, 0.369909, 0.900315, 0.383533, 0.876013, 0.37318, 0, 0
2, 1020.00000, 0.868335, 0.369909, 0.900315, 0.383533, 0.876013, 0.37318, 0, 0
2, 1080.00000, 0.868335, 0.369909, 0.900315, 0.383533, 0.876013, 0.37318, 0, 0
2, 1140.00000, 0.868335, 0.369909, 0.900315, 0.383533, 0.876013, 0.37318, 0, 0
2, 1200.00000, 0.868335, 0.369909, 0.900315, 0.383533, 0.876013, 0.37318, 0, 0
2, 1260.00000, 0.868335, 0.369909, 0.900315, 0.383533, 0.876013, 0.37318, 0, 0
2, 1320.00000, 0.868335, 0.369909, 0.900315, 0.383533, 0.876013, 0.37318, 0, 0
2, 1380.00000, 0.868335, 0.369909, 0.900315, 0.383533, 0.876013, 0.37318, 0, 0
2, 1440.00000, 0.868335, 0.369909, 0.900315, 0.383533, 0.876013, 0.37318, 0, 0
2, 1500.00000, 0.868335, 0.369909, 0.900315, 0.383533, 0.876013, 0.37318, 0, 0
2, 1560.00000, 0.868335, 0.369909, 0.900315, 0.383533, 0.876013, 0.37318, 0, 0
2, 1620.00000, 0.868335, 0.369909, 0.900315, 0.383533, 0.876013, 0.37318, 0, 0
2, 1680.00000, 0.868335, 0.369909, 0.900315, 0.383533, 0.876013, 0.37318, 0, 0
2, 1740.00000, 0.868335, 0.369909, 0.900315, 0.383533, 0.876013, 0.37318, 0, 0
2, 1800.00000, 0.868335, 0.369909, 0.900315, 0.383533, 0.876013, 0.37318, 0, 0
2, 1860.00000, 0.868335, 0.369909, 0.900315, 0.383533, 0.876013, 0.37318, 0, 0
2, 1920.00000, 0.868335, 0.369909, 0.900315, 0.383533, 0.876013, 0.37318, 0, 0
2, 1980.00000, 0.868335, 0.369909, 0.900315, 0.383533, 0.876013, 0.37318, 0, 0
2, 2040.00000, 0.868335, 0.369909, 0.900315, 0.383533, 0.876013, 0.37318, 0, 0
2, 2100.00000, 0.868335, 0.369909, 0.900315, 0.383533, 0.876013, 0.37318, 0, 0
2, 2160.00000, 0.868335, 0.369909, 0.900315, 0.383533, 0.876013, 0.37318, 0, 0
2, 2220.00000, 0.868335, 0.369909, 0.900315, 0.383533, 0.876013, 0.37318, 0, 0
2, 2280.00000, 0.868335, 0.369909, 0.900315, 0.383533, 0.876013, 0.37318, 0, 0
2, 2340.00000, 0.868335, 0.369909, 0.900315, 0.383533, 0.876013, 0.37318, 0, 0
2, 2400.00000, 0.893828, 0.380774, 0.899757, 0.383295, 0.899841, 0.383345, 0, 0
2, 2460.00000, 0.893871, 0.380788, 0.899752, 0.383293, 0.89987, 0.383343, 0, 0
2, 2520.00000, 0.893871, 0.380788, 0.899752, 0.383293, 0.89987, 0.383343, 0, 0
2, 2580.00000, 0.893871, 0.380788, 0.899752, 0.383293, 0.89987, 0.383343, 0, 0
2, 2640.00000, 0.893871, 0.380788, 0.899752, 0.383293, 0.89987, 0.383343, 0, 0
2, 2700.00000, 0.888142, 0.378345, 0.890713, 0.379439, 0.900581, 0.383644, 0, 0
2, 2760.00000, 0.888137, 0.378345, 0.890707, 0.37944, 0.900587, 0.383649, 0, 0
2, 2820.00000, 0.888137, 0.378345, 0.890707, 0.37944, 0.900587, 0.383649, 0, 0
2, 2880.00000, 0.888137, 0.378345, 0.890707, 0.37944, 0.900587, 0.383649, 0, 0
2, 2940.00000, 0.888137, 0.378345, 0.890707, 0.37944, 0.900587, 0.383649, 0, 0
2, 3000.00000, 0.888137, 0.378345, 0.890707, 0.37944, 0.900587, 0.383649, 0, 0
2, 3060.00000, 0.892742, 0.380317, 0.890679, 0.379427, 0.902085, 0.384296, 0, 0
2, 3120.00000, 0.892766, 0.380317, 0.890675, 0.379426, 0.902095, 0.384291, 0, 0
2, 3180.00000, 0.892767, 0.380317, 0.890675, 0.379426, 0.902095, 0.384291, 0, 0
2, 3240.00000, 0.892767, 0.380317, 0.890675, 0.379426, 0.902095, 0.384291, 0, 0
2, 3300.00000, 0.892767, 0.380317, 0.890675, 0.379426, 0.902095, 0.384291, 0, 0
2, 3360.00000, 0.892767, 0.380317, 0.890675, 0.379426, 0.902095, 0.384291, 0, 0
2, 3420.00000, 0.892767, 0.380317, 0.890675, 0.379426, 0.902095, 0.384291, 0, 0
2, 3480.00000, 0.892767, 0.380317, 0.890675, 0.379426, 0.902095, 0.384291, 0, 0
2, 3540.00000, 0.892767, 0.380317, 0.890675, 0.379426, 0.902095, 0.384291, 0, 0
3, 0.00000, 0.892767, 0.380317, 0.890675, 0.379426, 0.902095, 0.384291, 0, 0
3, 60.00000, 0.892767, 0.380317, 0.890675, 0.379426, 0.902095, 0.384291, 0, 0
3, 120.00000, 0.892767, 0.380317, 0.890675, 0.379426, 0.902095, 0.384291, 0, 0
3, 180.00000, 0.892767, 0.380317, 0.890675, 0.379426, 0.902095, 0.384291, 0, 0
3, 240.00000, 0.892767, 0.380317, 0.890675, 0.379426, 0.902095, 0.384291, 0, 0
3, 300.00000, 0.892767, 0.380317, 0.890675, 0.379426, 0.902095, 0.384291, 0, 0
3, 360.00000, 0.892767, 0.380317, 0.890675, 0.379426, 0.902095, 0.384291, 0, 0
3, 420.00000, 0.892767, 0.380317, 0.890675, 0.379426, 0.902095, 0.384291, 0, 0
3, 480.00000, 0.892767, 0.380317, 0.890675, 0.379426, 0.902095, 0.384291, 0, 0
3, 540.00000, 0.892767, 0.380317, 0.890675, 0.379426, 0.902095, 0.384291, 0, 0
3, 600.00000, 0.892767, 0.380317, 0.890675, 0.379426, 0.902095, 0.384291, 0, 0
3, 660.00000, 0.892767, 0.380317, 0.890675, 0.379426, 0.902095, 0.384291, 0, 0
3, 720.00000, 0.892767, 0.380317, 0.890675, 0.379426, 0.902095, 0.384291, 0, 0
3, 780.00000, 0.892767, 0.380317, 0.890675, 0.379426, 0.902095, 0.384291, 0, 0
3, 840.00000, 0.892767, 0.380317, 0.890675, 0.379426, 0.902095, 0.384291, 0, 0
3, 900.00000, 0.892767, 0.380317, 0.890675, 0.379426, 0.902095, 0.384291, 0, 0
3, 960.00000, 0.892767, 0.380317, 0.890675, 0.379426, 0.902095, 0.384291, 0, 0
3, 1020.00000, 0.892767, 0.380317, 0.890675, 0.379426, 0.902095, 0.384291, 0, 0
3, 1080.00000, 0.892767, 0.380317, 0.890675, 0.379426, 0.902095, 0.384291, 0, 0
3, 1140.00000, 0.892767, 0.380317, 0.890675, 0.379426, 0.902095, 0.384291, 0, 0
3, 1200.00000, 0.892767, 0.380317, 0.890675, 0.379426, 0.902095, 0.384291, 0, 0
3, 1260.00000, 0.892767, 0.380317, 0.890675, 0.379426, 0.902095, 0.384291, 0, 0
3, 1320.00000, 0.892767, 0.380317, 0.890675, 0.379426, 0.902095, 0.384291, 0, 0
3, 1380.00000, 0.892767, 0.380317, 0.890675, 0.379426, 0.902095, 0.384291, 0, 0
3, 1440.00000, 0.892767, 0.380317, 0.890675, 0.379426, 0.902095, 0.384291, 0, 0
3, 1500.00000, 0.892767, 0.380317, 0.890675, 0.379426, 0.902095, 0.384291, 0, 0
3, 1560.00000, 0.892767, 0.380317, 0.890675, 0.379426, 0.902095, 0.384291, 0, 0
3, 1620.00000, 0.892767, 0.380317, 0.890675, 0.379426, 0.902095, 0.384291, 0, 0
3, 1680.00000, 0.892767, 0.380317, 0.890675, 0.379426, 0.902095, 0.384291, 0, 0
3, 1740.00000, 0.892767, 0.380317, 0.890675, 0.379426, 0.902095, 0.384291, 0, 0
3, 1800.00000, 0.892767, 0.380317, 0.890675, 0.379426, 0.902095, 0.384291, 0, 0
3, 1860.00000, 0.892767, 0.380317, 0.890675, 0.379426, 0.902095, 0.384291, 0, 0
3, 1920.00000, 0.892767, 0.380317, 0.890675, 0.379426, 0.902095, 0.384291, 0, 0
3, 1980.00000, 0.892767, 0.380317, 0.890675, 0.379426, 0.902095, 0.384291, 0, 0
3, 2040.00000, 0.892767, 0.380317, 0.890675, 0.379426, 0.902095, 0.384291, 0, 0
3, 2100.00000, 0.892767, 0.380317, 0.890675, 0.379426, 0.902095, 0.384291, 0, 0
3, 2160.00000, 0.892767, 0.380317, 0.890675, 0.379426, 0.902095, 0.384291, 0, 0
3, 2220.00000, 0.892767, 0.380317, 0.890675, 0.379426, 0.902095, 0.384291, 0, 0
3, 2280.00000, 0.892767, 0.380317, 0.890675, 0.379426, 0.902095, 0.384291, 0, 0
3, 2340.00000, 0.892767, 0.380317, 0.890675, 0.379426, 0.902095, 0.384291, 0, 0
3, 2400.00000, 0.892767, 0.380317, 0.890675, 0.379426, 0.902095, 0.384291, 0, 0
3, 2460.00000, 0.892767, 0.380317, 0.890675, 0.379426, 0.902095, 0.384291, 0, 0
3, 2520.00000, 0.892767, 0.380317, 0.890675, 0.379426, 0.902095, 0.384291, 0, 0
3, 2580.00000, 0.892767, 0.380317, 0.890675, 0.379426, 0.902095, 0.384291, 0, 0
3, 2640.00000, 0.892767, 0.380317, 0.890675, 0.379426, 0.902095, 0.384291, 0, 0
3, 2700.00000, 0.892767, 0.380317, 0.890675, 0.379426, 0.902095, 0.384291, 0, 0
3, 2760.00000, 0.892767, 0.380317, 0.890675, 0.379426, 0.902095, 0.384291, 0, 0
3, 2820.00000, 0.892767, 0.380317, 0.890675, 0.379426, 0.902095, 0.384291, 0, 0
3, 2880.00000, 0.892767, 0.380317, 0.890675, 0.379426, 0.902095, 0.384291, 0, 0
3, 2940.00000, 0.892767, 0.380317, 0.890675, 0.379426, 0.902095, 0.384291, 0, 0
3, 3000.00000, 0.892767, 0.380317, 0.890675, 0.379426, 0.902095, 0.384291, 0, 0
3, 3060.00000, 0.892767, 0.380317, 0.890675, 0.379426, 0.902095, 0.384291, 0, 0
3, 3120.00000, 0.892767, 0.380317, 0.890675, 0.379426, 0.902095, 0.384291, 0, 0
3, 3180.00000, 0.940336, 0.400579, 0.938442, 0.399775, 0.950381, 0.404855, 0, 0
3, 3240.00000, 0.940329, 0.400578, 0.938442, 0.399774, 0.950371, 0.404856, 0, 0
3, 3300.00000, 0.940329, 0.400578, 0.938442, 0.399774, 0.950371, 0.404856, 0, 0
3, 3360.00000, 0.940329, 0.400578, 0.938442, 0.399774, 0.950371, 0.404856, 0, 0
3, 3420.00000, 0.940329, 0.400578, 0.938442, 0.399774, 0.950371, 0.404856, 0, 0
3, 3480.00000, 0.940329, 0.400578, 0.938442, 0.399774, 0.950371, 0.404856, 0, 0
3, 3540.00000, 0.940329, 0.400578, 0.938442, 0.399774, 0.950371, 0.404856, 0, 0
4, 0.00000, 0.940329, 0.400578, 0.938442, 0.399774, 0.950371, 0.404856, 0, 0
4, 60.00000, 0.940329, 0.400578, 0.938442, 0.399774, 0.950371, 0.404856, 0, 0
4, 120.00000, 0.940329, 0.400578, 0.938442, 0.399774, 0.950371, 0.404856, 0, 0
4, 180.00000, 0.940329, 0.400578, 0.938442, 0.399774, 0.950371, 0.404856, 0, 0
4, 240.00000, 0.940329, 0.400578, 0.938442, 0.399774, 0.950371, 0.404856, 0, 0
4, 300.00000, 0.940329, 0.400578, 0.938442, 0.399774, 0.950371, 0.404856, 0, 0
4, 360.00000, 0.940329, 0.400578, 0.938442, 0.399774, 0.950371, 0.404856, 0, 0
4, 420.00000, 0.940329, 0.400578, 0.938442, 0.399774, 0.950371, 0.404856, 0, 0
4, 480.00000, 0.940329, 0.400578, 0.938442, 0.399774, 0.950371, 0.404856, 0, 0
4, 540.00000, 0.940329, 0.400578, 0.938442, 0.399774, 0.950371, 0.404856, 0, 0
4, 600.00000, 0.940329, 0.400578, 0.938442, 0.399774, 0.950371, 0.404856, 0, 0
4, 660.00000, 0.940329, 0.400578, 0.938442, 0.399774, 0.950371, 0.404856, 0, 0
4, 720.00000, 0.940329, 0.400578, 0.938442, 0.399774, 0.950371, 0.404856, 0, 0
4, 780.00000, 0.940329, 0.400578, 0.938442, 0.399774, 0.950371, 0.404856, 0, 0
