hour,t(sec),"P1 (kW)","Q1 (kvar)","P2 (kW)","Q2 (kvar)","P3 (kW)","Q3 (kvar)","P4 (kW)","Q4 (kvar)"
0, 60.00000, 0.539146, 0.229672, 0.599033, 0.255181, 0.574777, 0.244854, 0, 0
0, 120.00000, 0.53914, 0.229669, 0.599328, 0.255307, 0.574797, 0.244862, 0, 0
0, 180.00000, 0.539134, 0.229667, 0.599594, 0.25542, 0.574814, 0.244869, 0, 0
0, 240.00000, 0.539128, 0.229665, 0.599833, 0.255523, 0.574829, 0.244876, 0, 0
0, 300.00000, 0.539124, 0.229663, 0.600048, 0.255615, 0.574843, 0.244882, 0, 0
0, 360.00000, 0.539119, 0.229661, 0.600243, 0.255699, 0.574855, 0.244887, 0, 0
0, 420.00000, 0.539115, 0.22966, 0.60042, 0.255774, 0.574865, 0.244891, 0, 0
0, 480.00000, 0.477555, 0.203434, 0.523658, 0.223075, 0.508588, 0.216658, 0, 0
0, 540.00000, 0.477552, 0.203433, 0.523656, 0.223074, 0.508592, 0.216659, 0, 0
0, 600.00000, 0.477549, 0.203432, 0.523655, 0.223074, 0.508595, 0.216661, 0, 0
0, 660.00000, 0.477546, 0.203431, 0.523654, 0.223074, 0.508599, 0.216662, 0, 0
0, 720.00000, 0.477544, 0.203431, 0.523653, 0.223074, 0.508601, 0.216663, 0, 0
0, 780.00000, 0.477542, 0.20343, 0.523652, 0.223073, 0.508604, 0.216664, 0, 0
0, 840.00000, 0.47754, 0.203429, 0.523652, 0.223073, 0.508606, 0.216665, 0, 0
0, 900.00000, 0.477538, 0.203429, 0.523651, 0.223073, 0.508608, 0.216666, 0, 0
0, 960.00000, 0.477361, 0.203354, 0.52365, 0.223073, 0.50399, 0.214699, 0, 0
0, 1020.00000, 0.47736, 0.203353, 0.523649, 0.223073, 0.503991, 0.2147, 0, 0
0, 1080.00000, 0.477358, 0.203353, 0.523649, 0.223073, 0.503992, 0.2147, 0, 0
0, 1140.00000, 0.477357, 0.203352, 0.523649, 0.223073, 0.503993, 0.2147, 0, 0
0, 1200.00000, 0.477356, 0.203352, 0.523648, 0.223073, 0.503994, 0.214701, 0, 0
0, 1260.00000, 0.477356, 0.203352, 0.523648, 0.223072, 0.503995, 0.214701, 0, 0
0, 1320.00000, 0.477355, 0.203352, 0.523648, 0.223072, 0.503996, 0.214701, 0, 0
0, 1380.00000, 0.477354, 0.203351, 0.523648, 0.223072, 0.503996, 0.214702, 0, 0
0, 1440.00000, 0.477353, 0.203351, 0.523647, 0.223072, 0.503997, 0.214702, 0, 0
0, 1500.00000, 0.477353, 0.203351, 0.523647, 0.223072, 0.503998, 0.214702, 0, 0
0, 1560.00000, 0.477352, 0.203351, 0.523647, 0.223072, 0.503998, 0.214702, 0, 0
0, 1620.00000, 0.477352, 0.203351, 0.523647, 0.223072, 0.503998, 0.214703, 0, 0
0, 1680.00000, 0.477352, 0.20335, 0.523647, 0.223072, 0.503999, 0.214703, 0, 0
0, 1740.00000, 0.477351, 0.20335, 0.523646, 0.223072, 0.503999, 0.214703, 0, 0
0, 1800.00000, 0.474414, 0.202099, 0.523646, 0.223072, 0.504621, 0.214967, 0, 0
0, 1860.00000, 0.474414, 0.202099, 0.523646, 0.223072, 0.504621, 0.214968, 0, 0
0, 1920.00000, 0.474413, 0.202099, 0.523646, 0.223072, 0.504622, 0.214968, 0, 0
0, 1980.00000, 0.474413, 0.202099, 0.523646, 0.223072, 0.504622, 0.214968, 0, 0
0, 2040.00000, 0.474413, 0.202099, 0.523646, 0.223072, 0.504623, 0.214968, 0, 0
0, 2100.00000, 0.474413, 0.202099, 0.523646, 0.223072, 0.504623, 0.214969, 0, 0
0, 2160.00000, 0.474412, 0.202099, 0.523646, 0.223072, 0.504623, 0.214969, 0, 0
0, 2220.00000, 0.474412, 0.202099, 0.523646, 0.223072, 0.504624, 0.214969, 0, 0
0, 2280.00000, 0.474412, 0.202099, 0.523646, 0.223072, 0.504624, 0.214969, 0, 0
0, 2340.00000, 0.474412, 0.202099, 0.523646, 0.223072, 0.504624, 0.214969, 0, 0
0, 2400.00000, 0.474412, 0.202099, 0.523646, 0.223072, 0.504624, 0.214969, 0, 0
0, 2460.00000, 0.474412, 0.202098, 0.523645, 0.223072, 0.504625, 0.214969, 0, 0
0, 2520.00000, 0.474412, 0.202098, 0.523645, 0.223072, 0.504625, 0.214969, 0, 0
0, 2580.00000, 0.474412, 0.202098, 0.523645, 0.223072, 0.504625, 0.214969, 0, 0
0, 2640.00000, 0.474412, 0.202098, 0.523645, 0.223072, 0.504625, 0.214969, 0, 0
0, 2700.00000, 0.474411, 0.202098, 0.523645, 0.223072, 0.504625, 0.214969, 0, 0
0, 2760.00000, 0.476928, 0.20317, 0.523645, 0.223072, 0.505502, 0.215343, 0, 0
0, 2820.00000, 0.476928, 0.20317, 0.523645, 0.223072, 0.505502, 0.215343, 0, 0
0, 2880.00000, 0.476928, 0.20317, 0.523645, 0.223072, 0.505502, 0.215343, 0, 0
0, 2940.00000, 0.476928, 0.20317, 0.523645, 0.223072, 0.505503, 0.215343, 0, 0
0, 3000.00000, 0.476928, 0.20317, 0.523645, 0.223072, 0.505503, 0.215343, 0, 0
0, 3060.00000, 0.476928, 0.20317, 0.523645, 0.223072, 0.505503, 0.215343, 0, 0
0, 3120.00000, 0.476928, 0.20317, 0.523645, 0.223072, 0.505503, 0.215343, 0, 0
0, 3180.00000, 0.476928, 0.20317, 0.523645, 0.223072, 0.505503, 0.215343, 0, 0
0, 3240.00000, 0.476928, 0.20317, 0.523645, 0.223072, 0.505503, 0.215343, 0, 0
0, 3300.00000, 0.476927, 0.20317, 0.523645, 0.223072, 0.505503, 0.215343, 0, 0
0, 3360.00000, 0.476927, 0.20317, 0.523645, 0.223072, 0.505503, 0.215343, 0, 0
0, 3420.00000, 0.476927, 0.20317, 0.523645, 0.223072, 0.505503, 0.215343, 0, 0
0, 3480.00000, 0.476927, 0.20317, 0.523645, 0.223072, 0.505503, 0.215343, 0, 0
0, 3540.00000, 0.476927, 0.20317, 0.523645, 0.223072, 0.505503, 0.215343, 0, 0
1, 0.00000, 0.476927, 0.20317, 0.523645, 0.223072, 0.505503, 0.215343, 0, 0
1, 60.00000, 0.479343, 0.204199, 0.523645, 0.223072, 0.506263, 0.215667, 0, 0
1, 120.00000, 0.479343, 0.204199, 0.523645, 0.223072, 0.506263, 0.215667, 0, 0
1, 180.00000, 0.479343, 0.204199, 0.523645, 0.223072, 0.506263, 0.215667, 0, 0
1, 240.00000, 0.479343, 0.204199, 0.523645, 0.223072, 0.506263, 0.215667, 0, 0
1, 300.00000, 0.479343, 0.204199, 0.523645, 0.223072, 0.506263, 0.215667, 0, 0
1, 360.00000, 0.479343, 0.204199, 0.523645, 0.223072, 0.506263, 0.215667, 0, 0
1, 420.00000, 0.479343, 0.204199, 0.523645, 0.223072, 0.506263, 0.215667, 0, 0
1, 480.00000, 0.479343, 0.204199, 0.523645, 0.223072, 0.506263, 0.215667, 0, 0
1, 540.00000, 0.479343, 0.204199, 0.523645, 0.223072, 0.506263, 0.215667, 0, 0
1, 600.00000, 0.479343, 0.204199, 0.523645, 0.223072, 0.506263, 0.215667, 0, 0
1, 660.00000, 0.479343, 0.204199, 0.523645, 0.223072, 0.506263, 0.215667, 0, 0
1, 720.00000, 0.479343, 0.204199, 0.523645, 0.223072, 0.506263, 0.215667, 0, 0
1, 780.00000, 0.493247, 0.210122, 0.523622, 0.223062, 0.519933, 0.221491, 0, 0
1, 840.00000, 0.493247, 0.210122, 0.523622, 0.223062, 0.519933, 0.221491, 0, 0
1, 900.00000, 0.493247, 0.210122, 0.523622, 0.223062, 0.519933, 0.221491, 0, 0
1, 960.00000, 0.493247, 0.210122, 0.523622, 0.223062, 0.519933, 0.221491, 0, 0
1, 1020.00000, 0.493247, 0.210122, 0.523622, 0.223062, 0.519933, 0.221491, 0, 0
1, 1080.00000, 0.493247, 0.210122, 0.523622, 0.223062, 0.519933, 0.221491, 0, 0
1, 1140.00000, 0.493247, 0.210122, 0.523622, 0.223062, 0.519933, 0.221491, 0, 0
1, 1200.00000, 0.493247, 0.210122, 0.523622, 0.223062, 0.519933, 0.221491, 0, 0
1, 1260.00000, 0.493247, 0.210122, 0.523623, 0.223062, 0.519933, 0.221491, 0, 0
1, 1320.00000, 0.493247, 0.210122, 0.523623, 0.223062, 0.519933, 0.221491, 0, 0
1, 1380.00000, 0.493247, 0.210122, 0.523623, 0.223062, 0.519933, 0.221491, 0, 0
1, 1440.00000, 0.493247, 0.210122, 0.523623, 0.223062, 0.519933, 0.221491, 0, 0
1, 1500.00000, 0.493247, 0.210122, 0.523623, 0.223062, 0.519933, 0.221491, 0, 0
1, 1560.00000, 0.493247, 0.210122, 0.523623, 0.223062, 0.519933, 0.221491, 0, 0
1, 1620.00000, 0.493246, 0.210122, 0.523623, 0.223062, 0.519933, 0.221491, 0, 0
1, 1680.00000, 0.493246, 0.210122, 0.523623, 0.223062, 0.519933, 0.221491, 0, 0
1, 1740.00000, 0.493246, 0.210122, 0.523623, 0.223062, 0.519933, 0.221491, 0, 0
1, 1800.00000, 0.493246, 0.210122, 0.523623, 0.223062, 0.519933, 0.221491, 0, 0
1, 1860.00000, 0.493246, 0.210122, 0.523623, 0.223062, 0.519933, 0.221491, 0, 0
1, 1920.00000, 0.493246, 0.210122, 0.523623, 0.223062, 0.519933, 0.221491, 0, 0
1, 1980.00000, 0.493246, 0.210122, 0.523623, 0.223062, 0.519933, 0.221491, 0, 0
1, 2040.00000, 0.493246, 0.210122, 0.523623, 0.223062, 0.519933, 0.221491, 0, 0
1, 2100.00000, 0.493246, 0.210122, 0.523623, 0.223062, 0.519933, 0.221491, 0, 0
1, 2160.00000, 0.493246, 0.210122, 0.523623, 0.223062, 0.519933, 0.221491, 0, 0
1, 2220.00000, 0.496312, 0.211428, 0.523645, 0.223072, 0.519255, 0.221202, 0, 0
1, 2280.00000, 0.496311, 0.211428, 0.523645, 0.223072, 0.519255, 0.221202, 0, 0
1, 2340.00000, 0.496311, 0.211428, 0.523645, 0.223072, 0.519255, 0.221202, 0, 0
1, 2400.00000, 0.496311, 0.211428, 0.523645, 0.223072, 0.519255, 0.221202, 0, 0
1, 2460.00000, 0.496311, 0.211428, 0.523645, 0.223072, 0.519255, 0.221202, 0, 0
1, 2520.00000, 0.496311, 0.211428, 0.523645, 0.223072, 0.519255, 0.221202, 0, 0
1, 2580.00000, 0.496311, 0.211428, 0.523645, 0.223072, 0.519255, 0.221202, 0, 0
1, 2640.00000, 0.496311, 0.211428, 0.523645, 0.223072, 0.519255, 0.221202, 0, 0
1, 2700.00000, 0.496311, 0.211428, 0.523645, 0.223072, 0.519255, 0.221202, 0, 0
1, 2760.00000, 0.496311, 0.211428, 0.523645, 0.223072, 0.519255, 0.221202, 0, 0
1, 2820.00000, 0.496311, 0.211428, 0.523645, 0.223072, 0.519255, 0.221202, 0, 0
1, 2880.00000, 0.496311, 0.211428, 0.523645, 0.223072, 0.519255, 0.221202, 0, 0
1, 2940.00000, 0.496311, 0.211428, 0.523645, 0.223072, 0.519255, 0.221202, 0, 0
1, 3000.00000, 0.496311, 0.211428, 0.523645, 0.223072, 0.519255, 0.221202, 0, 0
1, 3060.00000, 0.496311, 0.211428, 0.523645, 0.223072, 0.519255, 0.221202, 0, 0
1, 3120.00000, 0.496311, 0.211428, 0.523645, 0.223072, 0.519255, 0.221202, 0, 0
1, 3180.00000, 0.496311, 0.211428, 0.523645, 0.223072, 0.519255, 0.221202, 0, 0
1, 3240.00000, 0.496311, 0.211428, 0.523645, 0.223072, 0.519255, 0.221202, 0, 0
1, 3300.00000, 0.496311, 0.211428, 0.523645, 0.223072, 0.519255, 0.221202, 0, 0
1, 3360.00000, 0.496311, 0.211428, 0.523645, 0.223072, 0.519255, 0.221202, 0, 0
1, 3420.00000, 0.496311, 0.211428, 0.523645, 0.223072, 0.519255, 0.221202, 0, 0
1, 3480.00000, 0.496311, 0.211428, 0.523645, 0.223072, 0.519255, 0.221202, 0, 0
1, 3540.00000, 0.496311, 0.211428, 0.523645, 0.223072, 0.519255, 0.221202, 0, 0
2, 0.00000, 0.496311, 0.211428, 0.523645, 0.223072, 0.519255, 0.221202, 0, 0
2, 60.00000, 0.496311, 0.211428, 0.523645, 0.223072, 0.519255, 0.221202, 0, 0
2, 120.00000, 0.496311, 0.211428, 0.523645, 0.223072, 0.519255, 0.221202, 0, 0
2, 180.00000, 0.496311, 0.211428, 0.523645, 0.223072, 0.519255, 0.221202, 0, 0
2, 240.00000, 0.496311, 0.211428, 0.523645, 0.223072, 0.519255, 0.221202, 0, 0
2, 300.00000, 0.496311, 0.211428, 0.523645, 0.223072, 0.519255, 0.221202, 0, 0
2, 360.00000, 0.496311, 0.211428, 0.523645, 0.223072, 0.519255, 0.221202, 0, 0
2, 420.00000, 0.496311, 0.211428, 0.523645, 0.223072, 0.519255, 0.221202, 0, 0
2, 480.00000, 0.496311, 0.211428, 0.523645, 0.223072, 0.519255, 0.221202, 0, 0
2, 540.00000, 0.496311, 0.211428, 0.523645, 0.223072, 0.519255, 0.221202, 0, 0
2, 600.00000, 0.496311, 0.211428, 0.523645, 0.223072, 0.519255, 0.221202, 0, 0
2, 660.00000, 0.496311, 0.211428, 0.523645, 0.223072, 0.519255, 0.221202, 0, 0
2, 720.00000, 0.496311, 0.211428, 0.523645, 0.223072, 0.519255, 0.221202, 0, 0
2, 780.00000, 0.496311, 0.211428, 0.523645, 0.223072, 0.519255, 0.221202, 0, 0
2, 840.00000, 0.496485, 0.211501, 0.523646, 0.223072, 0.523645, 0.223072, 0, 0
2, 900.00000, 0.496485, 0.211502, 0.523645, 0.223072, 0.523645, 0.223072, 0, 0
2, 960.00000, 0.496485, 0.211502, 0.523645, 0.223072, 0.523645, 0.223072, 0, 0
2, 1020.00000, 0.496485, 0.211502, 0.523645, 0.223072, 0.523645, 0.223072, 0, 0
2, 1080.00000, 0.496485, 0.211502, 0.523645, 0.223072, 0.523645, 0.223072, 0, 0
2, 1140.00000, 0.496485, 0.211502, 0.523645, 0.223072, 0.523645, 0.223072, 0, 0
2, 1200.00000, 0.496485, 0.211502, 0.523645, 0.223072, 0.523645, 0.223072, 0, 0
2, 1260.00000, 0.496485, 0.211502, 0.523645, 0.223072, 0.523645, 0.223072, 0, 0
2, 1320.00000, 0.496485, 0.211502, 0.523645, 0.223072, 0.523645, 0.223072, 0, 0
2, 1380.00000, 0.496485, 0.211502, 0.523645, 0.223072, 0.523645, 0.223072, 0, 0
2, 1440.00000, 0.496485, 0.211502, 0.523645, 0.223072, 0.523645, 0.223072, 0, 0
2, 1500.00000, 0.496485, 0.211502, 0.523645, 0.223072, 0.523645, 0.223072, 0, 0
2, 1560.00000, 0.496485, 0.211502, 0.523645, 0.223072, 0.523645, 0.223072, 0, 0
2, 1620.00000, 0.496485, 0.211502, 0.523645, 0.223072, 0.523645, 0.223072, 0, 0
2, 1680.00000, 0.496485, 0.211502, 0.523645, 0.223072, 0.523645, 0.223072, 0, 0
2, 1740.00000, 0.496485, 0.211502, 0.523645, 0.223072, 0.523645, 0.223072, 0, 0
2, 1800.00000, 0.496485, 0.211502, 0.523645, 0.223072, 0.523645, 0.223072, 0, 0
2, 1860.00000, 0.496485, 0.211502, 0.523645, 0.223072, 0.523645, 0.223072, 0, 0
2, 1920.00000, 0.496485, 0.211502, 0.523645, 0.223072, 0.523645, 0.223072, 0, 0
2, 1980.00000, 0.496485, 0.211502, 0.523645, 0.223072, 0.523645, 0.223072, 0, 0
2, 2040.00000, 0.496485, 0.211502, 0.523645, 0.223072, 0.523645, 0.223072, 0, 0
2, 2100.00000, 0.496485, 0.211502, 0.523645, 0.223072, 0.523645, 0.223072, 0, 0
2, 2160.00000, 0.496485, 0.211502, 0.523645, 0.223072, 0.523645, 0.223072, 0, 0
2, 2220.00000, 0.496485, 0.211502, 0.523645, 0.223072, 0.523645, 0.223072, 0, 0
2, 2280.00000, 0.496485, 0.211502, 0.523645, 0.223072, 0.523645, 0.223072, 0, 0
2, 2340.00000, 0.496485, 0.211502, 0.523645, 0.223072, 0.523645, 0.223072, 0, 0
2, 2400.00000, 0.509836, 0.217189, 0.523646, 0.223072, 0.522844, 0.222731, 0, 0
2, 2460.00000, 0.509836, 0.217189, 0.523645, 0.223072, 0.522844, 0.222731, 0, 0
2, 2520.00000, 0.509836, 0.217189, 0.523645, 0.223072, 0.522844, 0.222731, 0, 0
2, 2580.00000, 0.509836, 0.217189, 0.523645, 0.223072, 0.522844, 0.222731, 0, 0
2, 2640.00000, 0.509836, 0.217189, 0.523645, 0.223072, 0.522844, 0.222731, 0, 0
2, 2700.00000, 0.506721, 0.215862, 0.523645, 0.223072, 0.523575, 0.223042, 0, 0
2, 2760.00000, 0.506721, 0.215862, 0.523645, 0.223072, 0.523575, 0.223042, 0, 0
2, 2820.00000, 0.506721, 0.215862, 0.523645, 0.223072, 0.523575, 0.223042, 0, 0
2, 2880.00000, 0.506721, 0.215862, 0.523645, 0.223072, 0.523575, 0.223042, 0, 0
2, 2940.00000, 0.506721, 0.215862, 0.523645, 0.223072, 0.523575, 0.223042, 0, 0
2, 3000.00000, 0.506721, 0.215862, 0.523645, 0.223072, 0.523575, 0.223042, 0, 0
2, 3060.00000, 0.509334, 0.216975, 0.523645, 0.223072, 0.523645, 0.223072, 0, 0
2, 3120.00000, 0.509334, 0.216975, 0.523645, 0.223072, 0.523645, 0.223072, 0, 0
2, 3180.00000, 0.509334, 0.216975, 0.523645, 0.223072, 0.523645, 0.223072, 0, 0
2, 3240.00000, 0.509334, 0.216975, 0.523645, 0.223072, 0.523645, 0.223072, 0, 0
2, 3300.00000, 0.509334, 0.216975, 0.523645, 0.223072, 0.523645, 0.223072, 0, 0
2, 3360.00000, 0.509334, 0.216975, 0.523645, 0.223072, 0.523645, 0.223072, 0, 0
2, 3420.00000, 0.509334, 0.216975, 0.523645, 0.223072, 0.523645, 0.223072, 0, 0
2, 3480.00000, 0.509334, 0.216975, 0.523645, 0.223072, 0.523645, 0.223072, 0, 0
2, 3540.00000, 0.509334, 0.216975, 0.523645, 0.223072, 0.523645, 0.223072, 0, 0
3, 0.00000, 0.509334, 0.216975, 0.523645, 0.223072, 0.523645, 0.223072, 0, 0
3, 60.00000, 0.509334, 0.216975, 0.523645, 0.223072, 0.523645, 0.223072, 0, 0
3, 120.00000, 0.509334, 0.216975, 0.523645, 0.223072, 0.523645, 0.223072, 0, 0
3, 180.00000, 0.509334, 0.216975, 0.523645, 0.223072, 0.523645, 0.223072, 0, 0
3, 240.00000, 0.509334, 0.216975, 0.523645, 0.223072, 0.523645, 0.223072, 0, 0
3, 300.00000, 0.509334, 0.216975, 0.523645, 0.223072, 0.523645, 0.223072, 0, 0
3, 360.00000, 0.509334, 0.216975, 0.523645, 0.223072, 0.523645, 0.223072, 0, 0
3, 420.00000, 0.509334, 0.216975, 0.523645, 0.223072, 0.523645, 0.223072, 0, 0
3, 480.00000, 0.509334, 0.216975, 0.523645, 0.223072, 0.523645, 0.223072, 0, 0
3, 540.00000, 0.509334, 0.216975, 0.523645, 0.223072, 0.523645, 0.223072, 0, 0
3, 600.00000, 0.509334, 0.216975, 0.523645, 0.223072, 0.523645, 0.223072, 0, 0
3, 660.00000, 0.509334, 0.216975, 0.523645, 0.223072, 0.523645, 0.223072, 0, 0
3, 720.00000, 0.509334, 0.216975, 0.523645, 0.223072, 0.523645, 0.223072, 0, 0
3, 780.00000, 0.509334, 0.216975, 0.523645, 0.223072, 0.523645, 0.223072, 0, 0
3, 840.00000, 0.509334, 0.216975, 0.523645, 0.223072, 0.523645, 0.223072, 0, 0
3, 900.00000, 0.509334, 0.216975, 0.523645, 0.223072, 0.523645, 0.223072, 0, 0
3, 960.00000, 0.509334, 0.216975, 0.523645, 0.223072, 0.523645, 0.223072, 0, 0
3, 1020.00000, 0.509334, 0.216975, 0.523645, 0.223072, 0.523645, 0.223072, 0, 0
3, 1080.00000, 0.509334, 0.216975, 0.523645, 0.223072, 0.523645, 0.223072, 0, 0
3, 1140.00000, 0.509334, 0.216975, 0.523645, 0.223072, 0.523645, 0.223072, 0, 0
3, 1200.00000, 0.509334, 0.216975, 0.523645, 0.223072, 0.523645, 0.223072, 0, 0
3, 1260.00000, 0.509334, 0.216975, 0.523645, 0.223072, 0.523645, 0.223072, 0, 0
3, 1320.00000, 0.509334, 0.216975, 0.523645, 0.223072, 0.523645, 0.223072, 0, 0
3, 1380.00000, 0.509334, 0.216975, 0.523645, 0.223072, 0.523645, 0.223072, 0, 0
3, 1440.00000, 0.509334, 0.216975, 0.523645, 0.223072, 0.523645, 0.223072, 0, 0
3, 1500.00000, 0.509334, 0.216975, 0.523645, 0.223072, 0.523645, 0.223072, 0, 0
3, 1560.00000, 0.509334, 0.216975, 0.523645, 0.223072, 0.523645, 0.223072, 0, 0
3, 1620.00000, 0.509334, 0.216975, 0.523645, 0.223072, 0.523645, 0.223072, 0, 0
3, 1680.00000, 0.509334, 0.216975, 0.523645, 0.223072, 0.523645, 0.223072, 0, 0
3, 1740.00000, 0.509334, 0.216975, 0.523645, 0.223072, 0.523645, 0.223072, 0, 0
3, 1800.00000, 0.509334, 0.216975, 0.523645, 0.223072, 0.523645, 0.223072, 0, 0
3, 1860.00000, 0.509334, 0.216975, 0.523645, 0.223072, 0.523645, 0.223072, 0, 0
3, 1920.00000, 0.509334, 0.216975, 0.523645, 0.223072, 0.523645, 0.223072, 0, 0
3, 1980.00000, 0.509334, 0.216975, 0.523645, 0.223072, 0.523645, 0.223072, 0, 0
3, 2040.00000, 0.509334, 0.216975, 0.523645, 0.223072, 0.523645, 0.223072, 0, 0
3, 2100.00000, 0.509334, 0.216975, 0.523645, 0.223072, 0.523645, 0.223072, 0, 0
3, 2160.00000, 0.509334, 0.216975, 0.523645, 0.223072, 0.523645, 0.223072, 0, 0
3, 2220.00000, 0.509334, 0.216975, 0.523645, 0.223072, 0.523645, 0.223072, 0, 0
3, 2280.00000, 0.509334, 0.216975, 0.523645, 0.223072, 0.523645, 0.223072, 0, 0
3, 2340.00000, 0.509334, 0.216975, 0.523645, 0.223072, 0.523645, 0.223072, 0, 0
3, 2400.00000, 0.509334, 0.216975, 0.523645, 0.223072, 0.523645, 0.223072, 0, 0
3, 2460.00000, 0.509334, 0.216975, 0.523645, 0.223072, 0.523645, 0.223072, 0, 0
3, 2520.00000, 0.509334, 0.216975, 0.523645, 0.223072, 0.523645, 0.223072, 0, 0
3, 2580.00000, 0.509334, 0.216975, 0.523645, 0.223072, 0.523645, 0.223072, 0, 0
3, 2640.00000, 0.509334, 0.216975, 0.523645, 0.223072, 0.523645, 0.223072, 0, 0
3, 2700.00000, 0.509334, 0.216975, 0.523645, 0.223072, 0.523645, 0.223072, 0, 0
3, 2760.00000, 0.509334, 0.216975, 0.523645, 0.223072, 0.523645, 0.223072, 0, 0
3, 2820.00000, 0.509334, 0.216975, 0.523645, 0.223072, 0.523645, 0.223072, 0, 0
3, 2880.00000, 0.509334, 0.216975, 0.523645, 0.223072, 0.523645, 0.223072, 0, 0
3, 2940.00000, 0.509334, 0.216975, 0.523645, 0.223072, 0.523645, 0.223072, 0, 0
3, 3000.00000, 0.509334, 0.216975, 0.523645, 0.223072, 0.523645, 0.223072, 0, 0
3, 3060.00000, 0.509334, 0.216975, 0.523645, 0.223072, 0.523645, 0.223072, 0, 0
3, 3120.00000, 0.509334, 0.216975, 0.523645, 0.223072, 0.523645, 0.223072, 0, 0
3, 3180.00000, 0.536521, 0.228557, 0.553948, 0.235981, 0.552579, 0.235397, 0, 0
3, 3240.00000, 0.536521, 0.228557, 0.553949, 0.235981, 0.552579, 0.235398, 0, 0
3, 3300.00000, 0.536521, 0.228557, 0.553949, 0.235981, 0.552579, 0.235398, 0, 0
3, 3360.00000, 0.536521, 0.228557, 0.553949, 0.235981, 0.552579, 0.235398, 0, 0
3, 3420.00000, 0.536521, 0.228557, 0.553949, 0.235981, 0.552579, 0.235398, 0, 0
3, 3480.00000, 0.536521, 0.228557, 0.553949, 0.235981, 0.552579, 0.235398, 0, 0
3, 3540.00000, 0.536521, 0.228557, 0.553949, 0.235981, 0.552579, 0.235398, 0, 0
4, 0.00000, 0.536521, 0.228557, 0.553949, 0.235981, 0.552579, 0.235398, 0, 0
4, 60.00000, 0.536521, 0.228557, 0.553949, 0.235981, 0.552579, 0.235398, 0, 0
4, 120.00000, 0.536521, 0.228557, 0.553949, 0.235981, 0.552579, 0.235398, 0, 0
4, 180.00000, 0.536521, 0.228557, 0.553949, 0.235981, 0.552579, 0.235398, 0, 0
4, 240.00000, 0.536521, 0.228557, 0.553949, 0.235981, 0.552579, 0.235398, 0, 0
4, 300.00000, 0.536521, 0.228557, 0.553949, 0.235981, 0.552579, 0.235398, 0, 0
4, 360.00000, 0.536521, 0.228557, 0.553949, 0.235981, 0.552579, 0.235398, 0, 0
4, 420.00000, 0.536521, 0.228557, 0.553949, 0.235981, 0.552579, 0.235398, 0, 0
4, 480.00000, 0.536521, 0.228557, 0.553949, 0.235981, 0.552579, 0.235398, 0, 0
4, 540.00000, 0.536521, 0.228557, 0.553949, 0.235981, 0.552579, 0.235398, 0, 0
4, 600.00000, 0.536521, 0.228557, 0.553949, 0.235981, 0.552579, 0.235398, 0, 0
