hour,t(sec),V1,VAngle1,V2,VAngle2,V3,VAngle3,V4,VAngle4,I1,IAngle1,I2,IAngle2,I3,IAngle3,I4,IAngle4
0, 60.00000, 117.85, -31.5218, 117.435, -150.936, 119.318, 88.9795, 0, 0, 8.90171, -54.5953, 8.86697, -174.01, 9.02504, 65.9059, 0.0622082, -111.687
0, 120.00000, 117.85, -31.5218, 117.435, -150.936, 119.317, 88.9795, 0, 0, 8.90165, -54.5957, 8.86689, -174.01, 9.02486, 65.9056, 0.0620514, -111.705
0, 180.00000, 117.85, -31.5218, 117.435, -150.936, 119.317, 88.9795, 0, 0, 8.90165, -54.5957, 8.86689, -174.01, 9.02486, 65.9056, 0.0620507, -111.705
0, 240.00000, 117.85, -31.5218, 117.435, -150.936, 119.317, 88.9795, 0, 0, 8.90165, -54.5957, 8.86689, -174.01, 9.02486, 65.9056, 0.0620507, -111.705
0, 300.00000, 117.85, -31.5218, 117.435, -150.936, 119.317, 88.9795, 0, 0, 8.90165, -54.5957, 8.86689, -174.01, 9.02486, 65.9056, 0.0620507, -111.705
0, 360.00000, 117.85, -31.5218, 117.435, -150.936, 119.317, 88.9795, 0, 0, 8.90165, -54.5957, 8.86689, -174.01, 9.02486, 65.9056, 0.0620507, -111.705
0, 420.00000, 117.85, -31.5218, 117.435, -150.936, 119.317, 88.9795, 0, 0, 8.90165, -54.5957, 8.86689, -174.01, 9.02486, 65.9056, 0.0620507, -111.705
0, 480.00000, 118.846, -31.4257, 118.383, -150.848, 120.296, 89.0927, 0, 0, 7.81723, -54.5004, 7.78337, -173.922, 7.9228, 66.0182, 0.0544039, -111.588
0, 540.00000, 118.846, -31.4256, 118.383, -150.848, 120.297, 89.0928, 0, 0, 7.81726, -54.4996, 7.78342, -173.922, 7.92317, 66.0189, 0.0548715, -111.537
0, 600.00000, 118.846, -31.4256, 118.383, -150.848, 120.297, 89.0928, 0, 0, 7.81726, -54.4996, 7.78342, -173.922, 7.92318, 66.0189, 0.0548784, -111.536
0, 660.00000, 118.846, -31.4256, 118.383, -150.848, 120.297, 89.0928, 0, 0, 7.81726, -54.4996, 7.78342, -173.922, 7.92318, 66.0189, 0.0548786, -111.536
0, 720.00000, 118.846, -31.4256, 118.383, -150.848, 120.297, 89.0928, 0, 0, 7.81726, -54.4996, 7.78342, -173.922, 7.92318, 66.0189, 0.0548786, -111.536
0, 780.00000, 118.846, -31.4256, 118.383, -150.848, 120.297, 89.0928, 0, 0, 7.81726, -54.4996, 7.78342, -173.922, 7.92318, 66.0189, 0.0548786, -111.536
0, 840.00000, 118.846, -31.4256, 118.383, -150.848, 120.297, 89.0928, 0, 0, 7.81726, -54.4996, 7.78342, -173.922, 7.92318, 66.0189, 0.0548786, -111.536
0, 900.00000, 118.846, -31.4256, 118.383, -150.848, 120.297, 89.0928, 0, 0, 7.81726, -54.4996, 7.78342, -173.922, 7.92318, 66.0189, 0.0548786, -111.536
0, 960.00000, 118.846, -31.4256, 118.383, -150.848, 120.297, 89.0928, 0, 0, 7.81726, -54.4996, 7.78342, -173.922, 7.92318, 66.0189, 0.0548786, -111.536
0, 1020.00000, 118.846, -31.4256, 118.383, -150.848, 120.297, 89.0928, 0, 0, 7.81726, -54.4996, 7.78342, -173.922, 7.92318, 66.0189, 0.0548786, -111.536
0, 1080.00000, 118.846, -31.4256, 118.383, -150.848, 120.297, 89.0928, 0, 0, 7.81726, -54.4996, 7.78342, -173.922, 7.92318, 66.0189, 0.0548786, -111.536
0, 1140.00000, 118.846, -31.4256, 118.383, -150.848, 120.297, 89.0928, 0, 0, 7.81726, -54.4996, 7.78342, -173.922, 7.92318, 66.0189, 0.0548786, -111.536
0, 1200.00000, 118.846, -31.4256, 118.383, -150.848, 120.297, 89.0928, 0, 0, 7.81726, -54.4996, 7.78342, -173.922, 7.92318, 66.0189, 0.0548786, -111.536
0, 1260.00000, 118.846, -31.4256, 118.383, -150.848, 120.297, 89.0928, 0, 0, 7.81726, -54.4996, 7.78342, -173.922, 7.92318, 66.0189, 0.0548786, -111.536
0, 1320.00000, 118.846, -31.4256, 118.383, -150.848, 120.297, 89.0928, 0, 0, 7.81726, -54.4996, 7.78342, -173.922, 7.92318, 66.0189, 0.0548786, -111.536
0, 1380.00000, 118.846, -31.4256, 118.383, -150.848, 120.297, 89.0928, 0, 0, 7.81726, -54.4996, 7.78342, -173.922, 7.92318, 66.0189, 0.0548786, -111.536
0, 1440.00000, 118.846, -31.4256, 118.383, -150.848, 120.297, 89.0928, 0, 0, 7.81726, -54.4996, 7.78342, -173.922, 7.92318, 66.0189, 0.0548786, -111.536
0, 1500.00000, 118.846, -31.4256, 118.383, -150.848, 120.297, 89.0928, 0, 0, 7.81726, -54.4996, 7.78342, -173.922, 7.92318, 66.0189, 0.0548786, -111.536
0, 1560.00000, 118.846, -31.4256, 118.383, -150.848, 120.297, 89.0928, 0, 0, 7.81726, -54.4996, 7.78342, -173.922, 7.92318, 66.0189, 0.0548786, -111.536
0, 1620.00000, 118.846, -31.4256, 118.383, -150.848, 120.297, 89.0928, 0, 0, 7.81726, -54.4996, 7.78342, -173.922, 7.92318, 66.0189, 0.0548786, -111.536
0, 1680.00000, 118.846, -31.4256, 118.383, -150.848, 120.297, 89.0928, 0, 0, 7.81726, -54.4996, 7.78342, -173.922, 7.92318, 66.0189, 0.0548786, -111.536
0, 1740.00000, 118.846, -31.4256, 118.383, -150.848, 120.297, 89.0928, 0, 0, 7.81726, -54.4996, 7.78342, -173.922, 7.92318, 66.0189, 0.0548786, -111.536
0, 1800.00000, 118.846, -31.4256, 118.383, -150.848, 120.297, 89.0928, 0, 0, 7.81726, -54.4996, 7.78342, -173.922, 7.92318, 66.0189, 0.0548786, -111.536
0, 1860.00000, 118.846, -31.4256, 118.383, -150.848, 120.297, 89.0928, 0, 0, 7.81726, -54.4996, 7.78342, -173.922, 7.92318, 66.0189, 0.0548786, -111.536
0, 1920.00000, 118.846, -31.4256, 118.383, -150.848, 120.297, 89.0928, 0, 0, 7.81726, -54.4996, 7.78342, -173.922, 7.92318, 66.0189, 0.0548786, -111.536
0, 1980.00000, 118.846, -31.4256, 118.383, -150.848, 120.297, 89.0928, 0, 0, 7.81726, -54.4996, 7.78342, -173.922, 7.92318, 66.0189, 0.0548786, -111.536
0, 2040.00000, 118.846, -31.4256, 118.383, -150.848, 120.297, 89.0928, 0, 0, 7.81726, -54.4996, 7.78342, -173.922, 7.92318, 66.0189, 0.0548786, -111.536
0, 2100.00000, 118.846, -31.4256, 118.383, -150.848, 120.297, 89.0928, 0, 0, 7.81726, -54.4996, 7.78342, -173.922, 7.92318, 66.0189, 0.0548786, -111.536
0, 2160.00000, 118.846, -31.4256, 118.383, -150.848, 120.297, 89.0928, 0, 0, 7.81726, -54.4996, 7.78342, -173.922, 7.92318, 66.0189, 0.0548786, -111.536
0, 2220.00000, 118.846, -31.4256, 118.383, -150.848, 120.297, 89.0928, 0, 0, 7.81726, -54.4996, 7.78342, -173.922, 7.92318, 66.0189, 0.0548786, -111.536
0, 2280.00000, 118.846, -31.4256, 118.383, -150.848, 120.297, 89.0928, 0, 0, 7.81726, -54.4996, 7.78342, -173.922, 7.92318, 66.0189, 0.0548786, -111.536
0, 2340.00000, 118.846, -31.4256, 118.383, -150.848, 120.297, 89.0928, 0, 0, 7.81726, -54.4996, 7.78342, -173.922, 7.92318, 66.0189, 0.0548786, -111.536
0, 2400.00000, 118.846, -31.4256, 118.383, -150.848, 120.297, 89.0928, 0, 0, 7.81726, -54.4996, 7.78342, -173.922, 7.92318, 66.0189, 0.0548786, -111.536
0, 2460.00000, 118.846, -31.4256, 118.383, -150.848, 120.297, 89.0928, 0, 0, 7.81726, -54.4996, 7.78342, -173.922, 7.92318, 66.0189, 0.0548786, -111.536
0, 2520.00000, 118.846, -31.4256, 118.383, -150.848, 120.297, 89.0928, 0, 0, 7.81726, -54.4996, 7.78342, -173.922, 7.92318, 66.0189, 0.0548786, -111.536
0, 2580.00000, 118.846, -31.4256, 118.383, -150.848, 120.297, 89.0928, 0, 0, 7.81726, -54.4996, 7.78342, -173.922, 7.92318, 66.0189, 0.0548786, -111.536
0, 2640.00000, 118.846, -31.4256, 118.383, -150.848, 120.297, 89.0928, 0, 0, 7.81726, -54.4996, 7.78342, -173.922, 7.92318, 66.0189, 0.0548786, -111.536
0, 2700.00000, 118.846, -31.4256, 118.383, -150.848, 120.297, 89.0928, 0, 0, 7.81726, -54.4996, 7.78342, -173.922, 7.92318, 66.0189, 0.0548786, -111.536
0, 2760.00000, 118.846, -31.4256, 118.383, -150.848, 120.297, 89.0928, 0, 0, 7.81726, -54.4996, 7.78342, -173.922, 7.92318, 66.0189, 0.0548786, -111.536
0, 2820.00000, 118.846, -31.4256, 118.383, -150.848, 120.297, 89.0928, 0, 0, 7.81726, -54.4996, 7.78342, -173.922, 7.92318, 66.0189, 0.0548786, -111.536
0, 2880.00000, 118.846, -31.4256, 118.383, -150.848, 120.297, 89.0928, 0, 0, 7.81726, -54.4996, 7.78342, -173.922, 7.92318, 66.0189, 0.0548786, -111.536
0, 2940.00000, 118.846, -31.4256, 118.383, -150.848, 120.297, 89.0928, 0, 0, 7.81726, -54.4996, 7.78342, -173.922, 7.92318, 66.0189, 0.0548786, -111.536
0, 3000.00000, 118.846, -31.4256, 118.383, -150.848, 120.297, 89.0928, 0, 0, 7.81726, -54.4996, 7.78342, -173.922, 7.92318, 66.0189, 0.0548786, -111.536
0, 3060.00000, 118.846, -31.4256, 118.383, -150.848, 120.297, 89.0928, 0, 0, 7.81726, -54.4996, 7.78342, -173.922, 7.92318, 66.0189, 0.0548786, -111.536
0, 3120.00000, 118.846, -31.4256, 118.383, -150.848, 120.297, 89.0928, 0, 0, 7.81726, -54.4996, 7.78342, -173.922, 7.92318, 66.0189, 0.0548786, -111.536
0, 3180.00000, 118.846, -31.4256, 118.383, -150.848, 120.297, 89.0928, 0, 0, 7.81726, -54.4996, 7.78342, -173.922, 7.92318, 66.0189, 0.0548786, -111.536
0, 3240.00000, 118.846, -31.4256, 118.383, -150.848, 120.297, 89.0928, 0, 0, 7.81726, -54.4996, 7.78342, -173.922, 7.92318, 66.0189, 0.0548786, -111.536
0, 3300.00000, 118.846, -31.4256, 118.383, -150.848, 120.297, 89.0928, 0, 0, 7.81726, -54.4996, 7.78342, -173.922, 7.92318, 66.0189, 0.0548786, -111.536
0, 3360.00000, 118.846, -31.4256, 118.383, -150.848, 120.297, 89.0928, 0, 0, 7.81726, -54.4996, 7.78342, -173.922, 7.92318, 66.0189, 0.0548786, -111.536
0, 3420.00000, 118.846, -31.4256, 118.383, -150.848, 120.297, 89.0928, 0, 0, 7.81726, -54.4996, 7.78342, -173.922, 7.92318, 66.0189, 0.0548786, -111.536
0, 3480.00000, 118.846, -31.4256, 118.383, -150.848, 120.297, 89.0928, 0, 0, 7.81726, -54.4996, 7.78342, -173.922, 7.92318, 66.0189, 0.0548786, -111.536
0, 3540.00000, 118.846, -31.4256, 118.383, -150.848, 120.297, 89.0928, 0, 0, 7.81726, -54.4996, 7.78342, -173.922, 7.92318, 66.0189, 0.0548786, -111.536
1, 0.00000, 118.846, -31.4256, 118.383, -150.848, 120.297, 89.0928, 0, 0, 7.81726, -54.4996, 7.78342, -173.922, 7.92318, 66.0189, 0.0548786, -111.536
1, 60.00000, 118.955, -31.2896, 118.691, -150.821, 120.292, 89.0943, 0, 0, 7.82514, -54.3636, 7.80583, -173.896, 7.92286, 66.0204, 0.0522887, -109.68
1, 120.00000, 118.955, -31.2896, 118.691, -150.821, 120.292, 89.0943, 0, 0, 7.82517, -54.3635, 7.80591, -173.895, 7.92283, 66.0204, 0.052182, -109.662
1, 180.00000, 118.955, -31.2896, 118.691, -150.821, 120.292, 89.0943, 0, 0, 7.82517, -54.3635, 7.80591, -173.895, 7.92283, 66.0204, 0.052181, -109.662
1, 240.00000, 118.955, -31.2896, 118.691, -150.821, 120.292, 89.0943, 0, 0, 7.82517, -54.3635, 7.80591, -173.895, 7.92283, 66.0204, 0.052181, -109.662
1, 300.00000, 118.955, -31.2896, 118.691, -150.821, 120.292, 89.0943, 0, 0, 7.82517, -54.3635, 7.80591, -173.895, 7.92283, 66.0204, 0.052181, -109.662
1, 360.00000, 118.955, -31.2896, 118.691, -150.821, 120.292, 89.0943, 0, 0, 7.82517, -54.3635, 7.80591, -173.895, 7.92283, 66.0204, 0.052181, -109.662
1, 420.00000, 118.955, -31.2896, 118.691, -150.821, 120.292, 89.0943, 0, 0, 7.82517, -54.3635, 7.80591, -173.895, 7.92283, 66.0204, 0.052181, -109.662
1, 480.00000, 118.955, -31.2896, 118.691, -150.821, 120.292, 89.0943, 0, 0, 7.82517, -54.3635, 7.80591, -173.895, 7.92283, 66.0204, 0.052181, -109.662
1, 540.00000, 118.955, -31.2896, 118.691, -150.821, 120.292, 89.0943, 0, 0, 7.82517, -54.3635, 7.80591, -173.895, 7.92283, 66.0204, 0.052181, -109.662
1, 600.00000, 118.955, -31.2896, 118.691, -150.821, 120.292, 89.0943, 0, 0, 7.82517, -54.3635, 7.80591, -173.895, 7.92283, 66.0204, 0.052181, -109.662
1, 660.00000, 118.955, -31.2896, 118.691, -150.821, 120.292, 89.0943, 0, 0, 7.82517, -54.3635, 7.80591, -173.895, 7.92283, 66.0204, 0.052181, -109.662
1, 720.00000, 118.955, -31.2896, 118.691, -150.821, 120.292, 89.0943, 0, 0, 7.82517, -54.3635, 7.80591, -173.895, 7.92283, 66.0204, 0.052181, -109.662
1, 780.00000, 118.955, -31.2896, 118.691, -150.821, 120.292, 89.0943, 0, 0, 7.82517, -54.3635, 7.80591, -173.895, 7.92283, 66.0204, 0.052181, -109.662
1, 840.00000, 118.955, -31.2896, 118.691, -150.821, 120.292, 89.0943, 0, 0, 7.82517, -54.3635, 7.80591, -173.895, 7.92283, 66.0204, 0.052181, -109.662
1, 900.00000, 118.955, -31.2896, 118.691, -150.821, 120.292, 89.0943, 0, 0, 7.82517, -54.3635, 7.80591, -173.895, 7.92283, 66.0204, 0.052181, -109.662
1, 960.00000, 118.955, -31.2896, 118.691, -150.821, 120.292, 89.0943, 0, 0, 7.82517, -54.3635, 7.80591, -173.895, 7.92283, 66.0204, 0.052181, -109.662
1, 1020.00000, 118.955, -31.2896, 118.691, -150.821, 120.292, 89.0943, 0, 0, 7.82517, -54.3635, 7.80591, -173.895, 7.92283, 66.0204, 0.052181, -109.662
1, 1080.00000, 118.955, -31.2896, 118.691, -150.821, 120.292, 89.0943, 0, 0, 7.82517, -54.3635, 7.80591, -173.895, 7.92283, 66.0204, 0.052181, -109.662
1, 1140.00000, 118.955, -31.2896, 118.691, -150.821, 120.292, 89.0943, 0, 0, 7.82517, -54.3635, 7.80591, -173.895, 7.92283, 66.0204, 0.052181, -109.662
1, 1200.00000, 118.955, -31.2896, 118.691, -150.821, 120.292, 89.0943, 0, 0, 7.82517, -54.3635, 7.80591, -173.895, 7.92283, 66.0204, 0.052181, -109.662
1, 1260.00000, 118.955, -31.2896, 118.691, -150.821, 120.292, 89.0943, 0, 0, 7.82517, -54.3635, 7.80591, -173.895, 7.92283, 66.0204, 0.052181, -109.662
1, 1320.00000, 118.955, -31.2896, 118.691, -150.821, 120.292, 89.0943, 0, 0, 7.82517, -54.3635, 7.80591, -173.895, 7.92283, 66.0204, 0.052181, -109.662
1, 1380.00000, 118.955, -31.2896, 118.691, -150.821, 120.292, 89.0943, 0, 0, 7.82517, -54.3635, 7.80591, -173.895, 7.92283, 66.0204, 0.052181, -109.662
1, 1440.00000, 118.955, -31.2896, 118.691, -150.821, 120.292, 89.0943, 0, 0, 7.82517, -54.3635, 7.80591, -173.895, 7.92283, 66.0204, 0.052181, -109.662
1, 1500.00000, 118.955, -31.2896, 118.691, -150.821, 120.292, 89.0943, 0, 0, 7.82517, -54.3635, 7.80591, -173.895, 7.92283, 66.0204, 0.052181, -109.662
1, 1560.00000, 118.955, -31.2896, 118.691, -150.821, 120.292, 89.0943, 0, 0, 7.82517, -54.3635, 7.80591, -173.895, 7.92283, 66.0204, 0.052181, -109.662
1, 1620.00000, 118.955, -31.2896, 118.691, -150.821, 120.292, 89.0943, 0, 0, 7.82517, -54.3635, 7.80591, -173.895, 7.92283, 66.0204, 0.052181, -109.662
1, 1680.00000, 118.955, -31.2896, 118.691, -150.821, 120.292, 89.0943, 0, 0, 7.82517, -54.3635, 7.80591, -173.895, 7.92283, 66.0204, 0.052181, -109.662
1, 1740.00000, 118.955, -31.2896, 118.691, -150.821, 120.292, 89.0943, 0, 0, 7.82517, -54.3635, 7.80591, -173.895, 7.92283, 66.0204, 0.052181, -109.662
1, 1800.00000, 118.955, -31.2896, 118.691, -150.821, 120.292, 89.0943, 0, 0, 7.82517, -54.3635, 7.80591, -173.895, 7.92283, 66.0204, 0.052181, -109.662
1, 1860.00000, 118.955, -31.2896, 118.691, -150.821, 120.292, 89.0943, 0, 0, 7.82517, -54.3635, 7.80591, -173.895, 7.92283, 66.0204, 0.052181, -109.662
1, 1920.00000, 118.955, -31.2896, 118.691, -150.821, 120.292, 89.0943, 0, 0, 7.82517, -54.3635, 7.80591, -173.895, 7.92283, 66.0204, 0.052181, -109.662
1, 1980.00000, 118.955, -31.2896, 118.691, -150.821, 120.292, 89.0943, 0, 0, 7.82517, -54.3635, 7.80591, -173.895, 7.92283, 66.0204, 0.052181, -109.662
1, 2040.00000, 118.955, -31.2896, 118.691, -150.821, 120.292, 89.0943, 0, 0, 7.82517, -54.3635, 7.80591, -173.895, 7.92283, 66.0204, 0.052181, -109.662
1, 2100.00000, 118.955, -31.2896, 118.691, -150.821, 120.292, 89.0943, 0, 0, 7.82517, -54.3635, 7.80591, -173.895, 7.92283, 66.0204, 0.052181, -109.662
1, 2160.00000, 118.955, -31.2896, 118.691, -150.821, 120.292, 89.0943, 0, 0, 7.82517, -54.3635, 7.80591, -173.895, 7.92283, 66.0204, 0.052181, -109.662
1, 2220.00000, 118.955, -31.2896, 118.691, -150.821, 120.292, 89.0943, 0, 0, 7.82517, -54.3635, 7.80591, -173.895, 7.92283, 66.0204, 0.052181, -109.662
1, 2280.00000, 118.955, -31.2896, 118.691, -150.821, 120.292, 89.0943, 0, 0, 7.82517, -54.3635, 7.80591, -173.895, 7.92283, 66.0204, 0.052181, -109.662
1, 2340.00000, 118.955, -31.2896, 118.691, -150.821, 120.292, 89.0943, 0, 0, 7.82517, -54.3635, 7.80591, -173.895, 7.92283, 66.0204, 0.052181, -109.662
1, 2400.00000, 118.955, -31.2896, 118.691, -150.821, 120.292, 89.0943, 0, 0, 7.82517, -54.3635, 7.80591, -173.895, 7.92283, 66.0204, 0.052181, -109.662
1, 2460.00000, 118.955, -31.2896, 118.691, -150.821, 120.292, 89.0943, 0, 0, 7.82517, -54.3635, 7.80591, -173.895, 7.92283, 66.0204, 0.052181, -109.662
1, 2520.00000, 118.955, -31.2896, 118.691, -150.821, 120.292, 89.0943, 0, 0, 7.82517, -54.3635, 7.80591, -173.895, 7.92283, 66.0204, 0.052181, -109.662
1, 2580.00000, 118.955, -31.2896, 118.691, -150.821, 120.292, 89.0943, 0, 0, 7.82517, -54.3635, 7.80591, -173.895, 7.92283, 66.0204, 0.052181, -109.662
1, 2640.00000, 118.955, -31.2896, 118.691, -150.821, 120.292, 89.0943, 0, 0, 7.82517, -54.3635, 7.80591, -173.895, 7.92283, 66.0204, 0.052181, -109.662
1, 2700.00000, 118.955, -31.2896, 118.691, -150.821, 120.292, 89.0943, 0, 0, 7.82517, -54.3635, 7.80591, -173.895, 7.92283, 66.0204, 0.052181, -109.662
1, 2760.00000, 118.955, -31.2896, 118.691, -150.821, 120.292, 89.0943, 0, 0, 7.82517, -54.3635, 7.80591, -173.895, 7.92283, 66.0204, 0.052181, -109.662
1, 2820.00000, 118.955, -31.2896, 118.691, -150.821, 120.292, 89.0943, 0, 0, 7.82517, -54.3635, 7.80591, -173.895, 7.92283, 66.0204, 0.052181, -109.662
1, 2880.00000, 118.955, -31.2896, 118.691, -150.821, 120.292, 89.0943, 0, 0, 7.82517, -54.3635, 7.80591, -173.895, 7.92283, 66.0204, 0.052181, -109.662
1, 2940.00000, 118.955, -31.2896, 118.691, -150.821, 120.292, 89.0943, 0, 0, 7.82517, -54.3635, 7.80591, -173.895, 7.92283, 66.0204, 0.052181, -109.662
1, 3000.00000, 118.955, -31.2896, 118.691, -150.821, 120.292, 89.0943, 0, 0, 7.82517, -54.3635, 7.80591, -173.895, 7.92283, 66.0204, 0.052181, -109.662
1, 3060.00000, 118.955, -31.2896, 118.691, -150.821, 120.292, 89.0943, 0, 0, 7.82517, -54.3635, 7.80591, -173.895, 7.92283, 66.0204, 0.052181, -109.662
1, 3120.00000, 118.955, -31.2896, 118.691, -150.821, 120.292, 89.0943, 0, 0, 7.82517, -54.3635, 7.80591, -173.895, 7.92283, 66.0204, 0.052181, -109.662
1, 3180.00000, 118.955, -31.2896, 118.691, -150.821, 120.292, 89.0943, 0, 0, 7.82517, -54.3635, 7.80591, -173.895, 7.92283, 66.0204, 0.052181, -109.662
1, 3240.00000, 118.955, -31.2896, 118.691, -150.821, 120.292, 89.0943, 0, 0, 7.82517, -54.3635, 7.80591, -173.895, 7.92283, 66.0204, 0.052181, -109.662
1, 3300.00000, 118.955, -31.2896, 118.691, -150.821, 120.292, 89.0943, 0, 0, 7.82517, -54.3635, 7.80591, -173.895, 7.92283, 66.0204, 0.052181, -109.662
1, 3360.00000, 118.955, -31.2896, 118.691, -150.821, 120.292, 89.0943, 0, 0, 7.82517, -54.3635, 7.80591, -173.895, 7.92283, 66.0204, 0.052181, -109.662
1, 3420.00000, 118.955, -31.2896, 118.691, -150.821, 120.292, 89.0943, 0, 0, 7.82517, -54.3635, 7.80591, -173.895, 7.92283, 66.0204, 0.052181, -109.662
1, 3480.00000, 118.955, -31.2896, 118.691, -150.821, 120.292, 89.0943, 0, 0, 7.82517, -54.3635, 7.80591, -173.895, 7.92283, 66.0204, 0.052181, -109.662
1, 3540.00000, 118.955, -31.2896, 118.691, -150.821, 120.292, 89.0943, 0, 0, 7.82517, -54.3635, 7.80591, -173.895, 7.92283, 66.0204, 0.052181, -109.662
2, 0.00000, 118.955, -31.2896, 118.691, -150.821, 120.292, 89.0943, 0, 0, 7.82517, -54.3635, 7.80591, -173.895, 7.92283, 66.0204, 0.052181, -109.662
2, 60.00000, 118.955, -31.2896, 118.691, -150.821, 120.292, 89.0943, 0, 0, 7.82517, -54.3635, 7.80591, -173.895, 7.92283, 66.0204, 0.052181, -109.662
2, 120.00000, 118.955, -31.2896, 118.691, -150.821, 120.292, 89.0943, 0, 0, 7.82517, -54.3635, 7.80591, -173.895, 7.92283, 66.0204, 0.052181, -109.662
2, 180.00000, 118.955, -31.2896, 118.691, -150.821, 120.292, 89.0943, 0, 0, 7.82517, -54.3635, 7.80591, -173.895, 7.92283, 66.0204, 0.052181, -109.662
2, 240.00000, 118.955, -31.2896, 118.691, -150.821, 120.292, 89.0943, 0, 0, 7.82517, -54.3635, 7.80591, -173.895, 7.92283, 66.0204, 0.052181, -109.662
2, 300.00000, 118.955, -31.2896, 118.691, -150.821, 120.292, 89.0943, 0, 0, 7.82517, -54.3635, 7.80591, -173.895, 7.92283, 66.0204, 0.052181, -109.662
2, 360.00000, 118.955, -31.2896, 118.691, -150.821, 120.292, 89.0943, 0, 0, 7.82517, -54.3635, 7.80591, -173.895, 7.92283, 66.0204, 0.052181, -109.662
2, 420.00000, 118.955, -31.2896, 118.691, -150.821, 120.292, 89.0943, 0, 0, 7.82517, -54.3635, 7.80591, -173.895, 7.92283, 66.0204, 0.052181, -109.662
2, 480.00000, 118.955, -31.2896, 118.691, -150.821, 120.292, 89.0943, 0, 0, 7.82517, -54.3635, 7.80591, -173.895, 7.92283, 66.0204, 0.052181, -109.662
2, 540.00000, 118.955, -31.2896, 118.691, -150.821, 120.292, 89.0943, 0, 0, 7.82517, -54.3635, 7.80591, -173.895, 7.92283, 66.0204, 0.052181, -109.662
2, 600.00000, 118.955, -31.2896, 118.691, -150.821, 120.292, 89.0943, 0, 0, 7.82517, -54.3635, 7.80591, -173.895, 7.92283, 66.0204, 0.052181, -109.662
