hour,t(sec),V1,VAngle1,V2,VAngle2,V3,VAngle3,V4,VAngle4,I1,IAngle1,I2,IAngle2,I3,IAngle3,I4,IAngle4
0, 60.00000, 116.6, -33.0313, 116.91, -150.719, 122.147, 88.0107, 0, 0, 4.74971, -56.1054, 4.76362, -173.792, 4.87429, 64.9375, 0.0477888, 62.3981
0, 120.00000, 116.598, -33.0497, 116.91, -150.719, 122.187, 88.001, 0, 0, 4.7496, -56.1237, 4.7636, -173.792, 4.87265, 64.9277, 0.0506233, 62.4719
0, 180.00000, 116.597, -33.0662, 116.91, -150.72, 122.223, 87.9923, 0, 0, 4.74951, -56.1403, 4.76359, -173.793, 4.87118, 64.9189, 0.053168, 62.533
0, 240.00000, 116.595, -33.0812, 116.909, -150.72, 122.256, 87.9844, 0, 0, 4.74942, -56.1552, 4.76357, -173.794, 4.86986, 64.911, 0.055457, 62.5823
0, 300.00000, 116.593, -33.0946, 116.909, -150.721, 122.285, 87.9773, 0, 0, 4.74934, -56.1686, 4.76356, -173.794, 4.86867, 64.9038, 0.057516, 62.6226
0, 360.00000, 116.592, -33.1067, 116.909, -150.721, 122.312, 87.9709, 0, 0, 4.74927, -56.1807, 4.76355, -173.795, 4.8676, 64.8974, 0.0593706, 62.6562
0, 420.00000, 116.591, -33.1176, 116.909, -150.721, 122.335, 87.9651, 0, 0, 4.74921, -56.1915, 4.76354, -173.795, 4.86664, 64.8916, 0.0610403, 62.6842
0, 480.00000, 117.583, -33.0431, 117.871, -150.644, 123.476, 88.0712, 0, 0, 4.33181, -56.1169, 4.34354, -173.717, 4.35665, 64.9977, 0.137438, 63.5983
0, 540.00000, 117.582, -33.052, 117.871, -150.644, 123.495, 88.0664, 0, 0, 4.33176, -56.1259, 4.34354, -173.718, 4.35596, 64.9929, 0.13866, 63.5983
0, 600.00000, 117.581, -33.06, 117.871, -150.644, 123.513, 88.0621, 0, 0, 4.33172, -56.1339, 4.34353, -173.718, 4.35534, 64.9886, 0.139757, 63.5988
0, 660.00000, 117.581, -33.0672, 117.871, -150.644, 123.528, 88.0583, 0, 0, 4.33168, -56.1411, 4.34352, -173.718, 4.35479, 64.9847, 0.140744, 63.5991
0, 720.00000, 117.58, -33.0737, 117.871, -150.645, 123.542, 88.0548, 0, 0, 4.33165, -56.1476, 4.34352, -173.718, 4.35429, 64.9812, 0.141632, 63.5994
0, 780.00000, 117.579, -33.0796, 117.87, -150.645, 123.555, 88.0517, 0, 0, 4.33162, -56.1535, 4.34351, -173.718, 4.35384, 64.9781, 0.142431, 63.5995
0, 840.00000, 117.579, -33.0849, 117.87, -150.645, 123.566, 88.0489, 0, 0, 4.33159, -56.1587, 4.34351, -173.719, 4.35344, 64.9752, 0.14315, 63.5997
0, 900.00000, 117.578, -33.0896, 117.87, -150.645, 123.576, 88.0464, 0, 0, 4.33157, -56.1635, 4.34351, -173.719, 4.35307, 64.9727, 0.143797, 63.5997
0, 960.00000, 117.578, -33.0939, 117.87, -150.645, 123.585, 88.0441, 0, 0, 4.33155, -56.1678, 4.3435, -173.719, 4.35275, 64.9704, 0.144379, 63.5998
0, 1020.00000, 117.577, -33.0977, 117.87, -150.645, 123.593, 88.0421, 0, 0, 4.33153, -56.1716, 4.3435, -173.719, 4.35245, 64.9683, 0.144902, 63.5998
0, 1080.00000, 117.577, -33.1012, 117.87, -150.645, 123.601, 88.0402, 0, 0, 4.33151, -56.1751, 4.3435, -173.719, 4.35219, 64.9664, 0.145374, 63.5998
0, 1140.00000, 117.576, -33.1043, 117.87, -150.645, 123.607, 88.0385, 0, 0, 4.33149, -56.1782, 4.3435, -173.719, 4.35195, 64.9648, 0.145798, 63.5998
0, 1200.00000, 117.576, -33.1071, 117.87, -150.645, 123.613, 88.037, 0, 0, 4.33148, -56.181, 4.34349, -173.719, 4.35173, 64.9633, 0.14618, 63.5997
0, 1260.00000, 117.576, -33.1096, 117.87, -150.646, 123.619, 88.0357, 0, 0, 4.33146, -56.1835, 4.34349, -173.719, 4.35154, 64.9619, 0.146523, 63.5997
0, 1320.00000, 117.576, -33.1119, 117.87, -150.646, 123.624, 88.0345, 0, 0, 4.33145, -56.1858, 4.34349, -173.719, 4.35137, 64.9607, 0.146832, 63.5997
0, 1380.00000, 117.575, -33.1139, 117.87, -150.646, 123.628, 88.0334, 0, 0, 4.33144, -56.1878, 4.34349, -173.72, 4.35121, 64.9596, 0.147111, 63.5996
0, 1440.00000, 117.575, -33.1158, 117.87, -150.646, 123.632, 88.0324, 0, 0, 4.33143, -56.1897, 4.34349, -173.72, 4.35107, 64.9586, 0.147361, 63.5996
0, 1500.00000, 117.575, -33.1174, 117.87, -150.646, 123.635, 88.0315, 0, 0, 4.33142, -56.1913, 4.34349, -173.72, 4.35094, 64.9577, 0.147586, 63.5996
0, 1560.00000, 117.575, -33.1189, 117.87, -150.646, 123.639, 88.0307, 0, 0, 4.33141, -56.1928, 4.34348, -173.72, 4.35083, 64.9569, 0.147789, 63.5995
0, 1620.00000, 117.575, -33.1202, 117.87, -150.646, 123.642, 88.03, 0, 0, 4.3314, -56.1942, 4.34348, -173.72, 4.35073, 64.9562, 0.147972, 63.5995
0, 1680.00000, 117.574, -33.1215, 117.87, -150.646, 123.644, 88.0294, 0, 0, 4.3314, -56.1954, 4.34348, -173.72, 4.35064, 64.9555, 0.148136, 63.5995
0, 1740.00000, 117.574, -33.1225, 117.87, -150.646, 123.646, 88.0288, 0, 0, 4.33139, -56.1964, 4.34348, -173.72, 4.35055, 64.9549, 0.148284, 63.5994
0, 1800.00000, 117.574, -33.1235, 117.87, -150.646, 123.649, 88.0283, 0, 0, 4.33139, -56.1974, 4.34348, -173.72, 4.35048, 64.9544, 0.148417, 63.5994
0, 1860.00000, 117.574, -33.1244, 117.87, -150.646, 123.65, 88.0278, 0, 0, 4.33138, -56.1983, 4.34348, -173.72, 4.35041, 64.9539, 0.148536, 63.5994
0, 1920.00000, 117.574, -33.1252, 117.87, -150.646, 123.652, 88.0274, 0, 0, 4.33138, -56.1991, 4.34348, -173.72, 4.35035, 64.9535, 0.148644, 63.5993
0, 1980.00000, 117.574, -33.1259, 117.87, -150.646, 123.654, 88.027, 0, 0, 4.33137, -56.1998, 4.34348, -173.72, 4.3503, 64.9531, 0.148741, 63.5993
0, 2040.00000, 117.574, -33.1265, 117.87, -150.646, 123.655, 88.0266, 0, 0, 4.33137, -56.2005, 4.34348, -173.72, 4.35025, 64.9528, 0.148828, 63.5993
0, 2100.00000, 117.574, -33.1271, 117.87, -150.646, 123.656, 88.0263, 0, 0, 4.33137, -56.201, 4.34348, -173.72, 4.3502, 64.9524, 0.148907, 63.5993
0, 2160.00000, 117.574, -33.1276, 117.87, -150.646, 123.657, 88.0261, 0, 0, 4.33136, -56.2015, 4.34348, -173.72, 4.35016, 64.9522, 0.148978, 63.5993
0, 2220.00000, 117.574, -33.1281, 117.87, -150.646, 123.658, 88.0258, 0, 0, 4.33136, -56.202, 4.34348, -173.72, 4.35013, 64.9519, 0.149041, 63.5992
0, 2280.00000, 117.574, -33.1285, 117.87, -150.646, 123.659, 88.0256, 0, 0, 4.33136, -56.2024, 4.34348, -173.72, 4.35009, 64.9517, 0.149099, 63.5992
0, 2340.00000, 117.574, -33.1289, 117.87, -150.646, 123.66, 88.0254, 0, 0, 4.33136, -56.2028, 4.34348, -173.72, 4.35007, 64.9515, 0.14915, 63.5992
0, 2400.00000, 117.574, -33.1292, 117.87, -150.646, 123.661, 88.0252, 0, 0, 4.33136, -56.2032, 4.34348, -173.72, 4.35004, 64.9513, 0.149196, 63.5992
0, 2460.00000, 117.573, -33.1296, 117.87, -150.646, 123.661, 88.025, 0, 0, 4.33135, -56.2035, 4.34348, -173.72, 4.35002, 64.9511, 0.149238, 63.5992
0, 2520.00000, 117.573, -33.1298, 117.87, -150.646, 123.662, 88.0249, 0, 0, 4.33135, -56.2037, 4.34348, -173.72, 4.35, 64.951, 0.149276, 63.5992
0, 2580.00000, 117.573, -33.1301, 117.87, -150.646, 123.663, 88.0247, 0, 0, 4.33135, -56.204, 4.34348, -173.72, 4.34998, 64.9508, 0.14931, 63.5992
0, 2640.00000, 117.573, -33.1303, 117.87, -150.646, 123.663, 88.0246, 0, 0, 4.33135, -56.2042, 4.34348, -173.72, 4.34996, 64.9507, 0.14934, 63.5992
0, 2700.00000, 117.573, -33.1305, 117.87, -150.646, 123.663, 88.0245, 0, 0, 4.33135, -56.2044, 4.34348, -173.72, 4.34994, 64.9506, 0.149367, 63.5992
0, 2760.00000, 117.573, -33.1307, 117.87, -150.646, 123.664, 88.0244, 0, 0, 4.33135, -56.2046, 4.34348, -173.72, 4.34993, 64.9505, 0.149392, 63.5991
0, 2820.00000, 117.573, -33.1308, 117.87, -150.646, 123.664, 88.0243, 0, 0, 4.33135, -56.2048, 4.34348, -173.72, 4.34992, 64.9504, 0.149414, 63.5991
0, 2880.00000, 117.573, -33.131, 117.87, -150.646, 123.665, 88.0243, 0, 0, 4.33135, -56.2049, 4.34348, -173.72, 4.34991, 64.9503, 0.149434, 63.5991
0, 2940.00000, 117.573, -33.1311, 117.87, -150.646, 123.665, 88.0242, 0, 0, 4.33135, -56.205, 4.34348, -173.72, 4.3499, 64.9503, 0.149452, 63.5991
0, 3000.00000, 117.573, -33.1312, 117.87, -150.646, 123.665, 88.0241, 0, 0, 4.33134, -56.2052, 4.34348, -173.72, 4.34989, 64.9502, 0.149468, 63.5991
0, 3060.00000, 117.573, -33.1314, 117.87, -150.646, 123.665, 88.0241, 0, 0, 4.33134, -56.2053, 4.34348, -173.72, 4.34988, 64.9502, 0.149483, 63.5991
0, 3120.00000, 117.573, -33.1314, 117.87, -150.646, 123.665, 88.024, 0, 0, 4.33134, -56.2054, 4.34348, -173.72, 4.34987, 64.9501, 0.149496, 63.5991
0, 3180.00000, 117.573, -33.1315, 117.87, -150.646, 123.666, 88.024, 0, 0, 4.33134, -56.2055, 4.34348, -173.72, 4.34986, 64.9501, 0.149508, 63.5991
0, 3240.00000, 117.573, -33.1316, 117.87, -150.646, 123.666, 88.0239, 0, 0, 4.33134, -56.2055, 4.34348, -173.72, 4.34986, 64.95, 0.149518, 63.5991
0, 3300.00000, 117.573, -33.1317, 117.87, -150.646, 123.666, 88.0239, 0, 0, 4.33134, -56.2056, 4.34348, -173.72, 4.34985, 64.95, 0.149528, 63.5991
0, 3360.00000, 117.573, -33.1317, 117.87, -150.646, 123.666, 88.0239, 0, 0, 4.33134, -56.2057, 4.34348, -173.72, 4.34985, 64.9499, 0.149536, 63.5991
0, 3420.00000, 117.573, -33.1318, 117.87, -150.646, 123.666, 88.0238, 0, 0, 4.33134, -56.2057, 4.34348, -173.72, 4.34984, 64.9499, 0.149544, 63.5991
0, 3480.00000, 117.573, -33.1319, 117.87, -150.646, 123.666, 88.0238, 0, 0, 4.33134, -56.2058, 4.34348, -173.72, 4.34984, 64.9499, 0.149551, 63.5991
0, 3540.00000, 117.573, -33.1319, 117.87, -150.646, 123.666, 88.0238, 0, 0, 4.33134, -56.2058, 4.34348, -173.72, 4.34984, 64.9499, 0.149557, 63.5991
1, 0.00000, 117.573, -33.1319, 117.87, -150.646, 123.667, 88.0238, 0, 0, 4.33134, -56.2059, 4.34348, -173.72, 4.34983, 64.9498, 0.149563, 63.5991
1, 60.00000, 117.722, -32.9815, 118.223, -150.631, 123.657, 88.0283, 0, 0, 4.33744, -56.0555, 4.35794, -173.705, 4.35017, 64.9544, 0.151138, 63.2237
1, 120.00000, 117.722, -32.9816, 118.223, -150.631, 123.657, 88.0283, 0, 0, 4.33744, -56.0555, 4.35794, -173.705, 4.35016, 64.9544, 0.151143, 63.2236
1, 180.00000, 117.722, -32.9816, 118.223, -150.631, 123.657, 88.0283, 0, 0, 4.33744, -56.0555, 4.35794, -173.705, 4.35016, 64.9543, 0.151147, 63.2236
1, 240.00000, 117.722, -32.9816, 118.223, -150.631, 123.657, 88.0282, 0, 0, 4.33744, -56.0555, 4.35794, -173.705, 4.35016, 64.9543, 0.15115, 63.2237
1, 300.00000, 117.722, -32.9817, 118.223, -150.631, 123.657, 88.0282, 0, 0, 4.33744, -56.0556, 4.35794, -173.705, 4.35016, 64.9543, 0.151154, 63.2237
1, 360.00000, 117.722, -32.9817, 118.223, -150.631, 123.657, 88.0282, 0, 0, 4.33744, -56.0556, 4.35794, -173.705, 4.35016, 64.9543, 0.151157, 63.2237
1, 420.00000, 117.722, -32.9817, 118.223, -150.631, 123.657, 88.0282, 0, 0, 4.33744, -56.0556, 4.35794, -173.705, 4.35015, 64.9543, 0.151159, 63.2237
1, 480.00000, 117.722, -32.9817, 118.223, -150.631, 123.657, 88.0282, 0, 0, 4.33744, -56.0556, 4.35794, -173.705, 4.35015, 64.9543, 0.151162, 63.2237
1, 540.00000, 117.722, -32.9817, 118.223, -150.631, 123.657, 88.0282, 0, 0, 4.33744, -56.0557, 4.35794, -173.705, 4.35015, 64.9543, 0.151164, 63.2237
1, 600.00000, 117.722, -32.9817, 118.223, -150.631, 123.657, 88.0282, 0, 0, 4.33744, -56.0557, 4.35794, -173.705, 4.35015, 64.9543, 0.151166, 63.2237
1, 660.00000, 117.722, -32.9818, 118.223, -150.631, 123.658, 88.0282, 0, 0, 4.33744, -56.0557, 4.35794, -173.705, 4.35015, 64.9543, 0.151168, 63.2237
1, 720.00000, 117.722, -32.9818, 118.223, -150.631, 123.658, 88.0282, 0, 0, 4.33744, -56.0557, 4.35794, -173.705, 4.35015, 64.9542, 0.151169, 63.2237
1, 780.00000, 117.722, -32.9818, 118.223, -150.631, 123.658, 88.0282, 0, 0, 4.33744, -56.0557, 4.35794, -173.705, 4.35015, 64.9542, 0.151171, 63.2237
1, 840.00000, 117.722, -32.9818, 118.223, -150.631, 123.658, 88.0282, 0, 0, 4.33744, -56.0557, 4.35794, -173.705, 4.35015, 64.9542, 0.151172, 63.2237
1, 900.00000, 117.722, -32.9818, 118.223, -150.631, 123.658, 88.0282, 0, 0, 4.33744, -56.0557, 4.35794, -173.705, 4.35015, 64.9542, 0.151173, 63.2237
1, 960.00000, 117.722, -32.9818, 118.223, -150.631, 123.658, 88.0281, 0, 0, 4.33744, -56.0557, 4.35794, -173.705, 4.35015, 64.9542, 0.151174, 63.2237
1, 1020.00000, 117.722, -32.9818, 118.223, -150.631, 123.658, 88.0281, 0, 0, 4.33744, -56.0557, 4.35794, -173.705, 4.35015, 64.9542, 0.151175, 63.2237
1, 1080.00000, 117.722, -32.9818, 118.223, -150.631, 123.658, 88.0281, 0, 0, 4.33744, -56.0557, 4.35794, -173.705, 4.35015, 64.9542, 0.151176, 63.2237
1, 1140.00000, 117.722, -32.9818, 118.223, -150.631, 123.658, 88.0281, 0, 0, 4.33744, -56.0557, 4.35794, -173.705, 4.35014, 64.9542, 0.151177, 63.2237
1, 1200.00000, 117.722, -32.9818, 118.223, -150.631, 123.658, 88.0281, 0, 0, 4.33744, -56.0558, 4.35794, -173.705, 4.35014, 64.9542, 0.151178, 63.2237
1, 1260.00000, 117.722, -32.9818, 118.223, -150.631, 123.658, 88.0281, 0, 0, 4.33744, -56.0558, 4.35794, -173.705, 4.35014, 64.9542, 0.151178, 63.2237
1, 1320.00000, 117.722, -32.9818, 118.223, -150.631, 123.658, 88.0281, 0, 0, 4.33744, -56.0558, 4.35794, -173.705, 4.35014, 64.9542, 0.151179, 63.2237
1, 1380.00000, 117.722, -32.9818, 118.223, -150.631, 123.658, 88.0281, 0, 0, 4.33744, -56.0558, 4.35794, -173.705, 4.35014, 64.9542, 0.151179, 63.2237
1, 1440.00000, 117.722, -32.9818, 118.223, -150.631, 123.658, 88.0281, 0, 0, 4.33744, -56.0558, 4.35794, -173.705, 4.35014, 64.9542, 0.15118, 63.2237
1, 1500.00000, 117.722, -32.9818, 118.223, -150.631, 123.658, 88.0281, 0, 0, 4.33744, -56.0558, 4.35794, -173.705, 4.35014, 64.9542, 0.15118, 63.2237
1, 1560.00000, 117.722, -32.9819, 118.223, -150.631, 123.658, 88.0281, 0, 0, 4.33744, -56.0558, 4.35794, -173.705, 4.35014, 64.9542, 0.15118, 63.2237
1, 1620.00000, 117.722, -32.9819, 118.223, -150.631, 123.658, 88.0281, 0, 0, 4.33744, -56.0558, 4.35794, -173.705, 4.35014, 64.9542, 0.151181, 63.2237
1, 1680.00000, 117.722, -32.9819, 118.223, -150.631, 123.658, 88.0281, 0, 0, 4.33744, -56.0558, 4.35794, -173.705, 4.35014, 64.9542, 0.151181, 63.2237
1, 1740.00000, 117.722, -32.9819, 118.223, -150.631, 123.658, 88.0281, 0, 0, 4.33744, -56.0558, 4.35794, -173.705, 4.35014, 64.9542, 0.151181, 63.2237
1, 1800.00000, 117.722, -32.9819, 118.223, -150.631, 123.658, 88.0281, 0, 0, 4.33744, -56.0558, 4.35794, -173.705, 4.35014, 64.9542, 0.151182, 63.2237
1, 1860.00000, 117.722, -32.9819, 118.223, -150.631, 123.658, 88.0281, 0, 0, 4.33744, -56.0558, 4.35794, -173.705, 4.35014, 64.9542, 0.151182, 63.2237
1, 1920.00000, 117.722, -32.9819, 118.223, -150.631, 123.658, 88.0281, 0, 0, 4.33744, -56.0558, 4.35794, -173.705, 4.35014, 64.9542, 0.151182, 63.2237
1, 1980.00000, 117.722, -32.9819, 118.223, -150.631, 123.658, 88.0281, 0, 0, 4.33744, -56.0558, 4.35794, -173.705, 4.35014, 64.9542, 0.151182, 63.2237
1, 2040.00000, 117.722, -32.9819, 118.223, -150.631, 123.658, 88.0281, 0, 0, 4.33744, -56.0558, 4.35794, -173.705, 4.35014, 64.9542, 0.151182, 63.2237
1, 2100.00000, 117.722, -32.9819, 118.223, -150.631, 123.658, 88.0281, 0, 0, 4.33744, -56.0558, 4.35794, -173.705, 4.35014, 64.9542, 0.151182, 63.2237
1, 2160.00000, 117.722, -32.9819, 118.223, -150.631, 123.658, 88.0281, 0, 0, 4.33744, -56.0558, 4.35794, -173.705, 4.35014, 64.9542, 0.151183, 63.2237
1, 2220.00000, 117.722, -32.9819, 118.223, -150.631, 123.658, 88.0281, 0, 0, 4.33744, -56.0558, 4.35794, -173.705, 4.35014, 64.9542, 0.151183, 63.2237
1, 2280.00000, 117.722, -32.9819, 118.223, -150.631, 123.658, 88.0281, 0, 0, 4.33744, -56.0558, 4.35794, -173.705, 4.35014, 64.9542, 0.151183, 63.2237
1, 2340.00000, 117.722, -32.9819, 118.223, -150.631, 123.658, 88.0281, 0, 0, 4.33744, -56.0558, 4.35794, -173.705, 4.35014, 64.9542, 0.151183, 63.2237
1, 2400.00000, 117.722, -32.9819, 118.223, -150.631, 123.658, 88.0281, 0, 0, 4.33744, -56.0558, 4.35794, -173.705, 4.35014, 64.9542, 0.151183, 63.2237
1, 2460.00000, 117.722, -32.9819, 118.223, -150.631, 123.658, 88.0281, 0, 0, 4.33744, -56.0558, 4.35794, -173.705, 4.35014, 64.9542, 0.151183, 63.2237
1, 2520.00000, 117.722, -32.9819, 118.223, -150.631, 123.658, 88.0281, 0, 0, 4.33744, -56.0558, 4.35794, -173.705, 4.35014, 64.9542, 0.151183, 63.2237
1, 2580.00000, 117.722, -32.9819, 118.223, -150.631, 123.658, 88.0281, 0, 0, 4.33744, -56.0558, 4.35794, -173.705, 4.35014, 64.9542, 0.151183, 63.2237
1, 2640.00000, 117.722, -32.9819, 118.223, -150.631, 123.658, 88.0281, 0, 0, 4.33744, -56.0558, 4.35794, -173.705, 4.35014, 64.9542, 0.151183, 63.2237
1, 2700.00000, 117.722, -32.9819, 118.223, -150.631, 123.658, 88.0281, 0, 0, 4.33744, -56.0558, 4.35794, -173.705, 4.35014, 64.9542, 0.151183, 63.2237
1, 2760.00000, 117.722, -32.9819, 118.223, -150.631, 123.658, 88.0281, 0, 0, 4.33744, -56.0558, 4.35794, -173.705, 4.35014, 64.9542, 0.151183, 63.2237
1, 2820.00000, 117.722, -32.9819, 118.223, -150.631, 123.658, 88.0281, 0, 0, 4.33744, -56.0558, 4.35794, -173.705, 4.35014, 64.9542, 0.151183, 63.2237
1, 2880.00000, 117.722, -32.9819, 118.223, -150.631, 123.658, 88.0281, 0, 0, 4.33744, -56.0558, 4.35794, -173.705, 4.35014, 64.9542, 0.151183, 63.2237
1, 2940.00000, 117.722, -32.9819, 118.223, -150.631, 123.658, 88.0281, 0, 0, 4.33744, -56.0558, 4.35794, -173.705, 4.35014, 64.9542, 0.151183, 63.2237
1, 3000.00000, 117.722, -32.9819, 118.223, -150.631, 123.658, 88.0281, 0, 0, 4.33744, -56.0558, 4.35794, -173.705, 4.35014, 64.9542, 0.151183, 63.2237
1, 3060.00000, 117.722, -32.9819, 118.223, -150.631, 123.658, 88.0281, 0, 0, 4.33744, -56.0558, 4.35794, -173.705, 4.35014, 64.9542, 0.151183, 63.2237
1, 3120.00000, 117.722, -32.9819, 118.223, -150.631, 123.658, 88.0281, 0, 0, 4.33744, -56.0558, 4.35794, -173.705, 4.35014, 64.9542, 0.151183, 63.2237
1, 3180.00000, 117.722, -32.9819, 118.223, -150.631, 123.658, 88.0281, 0, 0, 4.33744, -56.0558, 4.35794, -173.705, 4.35014, 64.9542, 0.151184, 63.2237
1, 3240.00000, 117.722, -32.9819, 118.223, -150.631, 123.658, 88.0281, 0, 0, 4.33744, -56.0558, 4.35794, -173.705, 4.35014, 64.9542, 0.151184, 63.2237
1, 3300.00000, 117.722, -32.9819, 118.223, -150.631, 123.658, 88.0281, 0, 0, 4.33744, -56.0558, 4.35794, -173.705, 4.35014, 64.9542, 0.151184, 63.2237
1, 3360.00000, 117.722, -32.9819, 118.223, -150.631, 123.658, 88.0281, 0, 0, 4.33744, -56.0558, 4.35794, -173.705, 4.35014, 64.9542, 0.151184, 63.2237
1, 3420.00000, 117.722, -32.9819, 118.223, -150.631, 123.658, 88.0281, 0, 0, 4.33744, -56.0558, 4.35794, -173.705, 4.35014, 64.9542, 0.151184, 63.2237
1, 3480.00000, 117.722, -32.9819, 118.223, -150.631, 123.658, 88.0281, 0, 0, 4.33744, -56.0558, 4.35794, -173.705, 4.35014, 64.9542, 0.151184, 63.2237
1, 3540.00000, 117.722, -32.9819, 118.223, -150.631, 123.658, 88.0281, 0, 0, 4.33744, -56.0558, 4.35794, -173.705, 4.35014, 64.9542, 0.151184, 63.2237
2, 0.00000, 117.722, -32.9819, 118.223, -150.631, 123.658, 88.0281, 0, 0, 4.33744, -56.0558, 4.35794, -173.705, 4.35014, 64.9542, 0.151184, 63.2237
2, 60.00000, 117.722, -32.9819, 118.223, -150.631, 123.658, 88.0281, 0, 0, 4.33744, -56.0558, 4.35794, -173.705, 4.35014, 64.9542, 0.151184, 63.2237
2, 120.00000, 117.722, -32.9819, 118.223, -150.631, 123.658, 88.0281, 0, 0, 4.33744, -56.0558, 4.35794, -173.705, 4.35014, 64.9542, 0.151184, 63.2237
2, 180.00000, 117.722, -32.9819, 118.223, -150.631, 123.658, 88.0281, 0, 0, 4.33744, -56.0558, 4.35794, -173.705, 4.35014, 64.9542, 0.151184, 63.2237
2, 240.00000, 117.722, -32.9819, 118.223, -150.631, 123.658, 88.0281, 0, 0, 4.33744, -56.0558, 4.35794, -173.705, 4.35014, 64.9542, 0.151184, 63.2237
2, 300.00000, 117.722, -32.9819, 118.223, -150.631, 123.658, 88.0281, 0, 0, 4.33744, -56.0558, 4.35794, -173.705, 4.35014, 64.9542, 0.151184, 63.2237
2, 360.00000, 117.722, -32.9819, 118.223, -150.631, 123.658, 88.0281, 0, 0, 4.33744, -56.0558, 4.35794, -173.705, 4.35014, 64.9542, 0.151184, 63.2237
2, 420.00000, 117.722, -32.9819, 118.223, -150.631, 123.658, 88.0281, 0, 0, 4.33744, -56.0558, 4.35794, -173.705, 4.35014, 64.9542, 0.151184, 63.2237
2, 480.00000, 117.722, -32.9819, 118.223, -150.631, 123.658, 88.0281, 0, 0, 4.33744, -56.0558, 4.35794, -173.705, 4.35014, 64.9542, 0.151184, 63.2237
2, 540.00000, 117.722, -32.9819, 118.223, -150.631, 123.658, 88.0281, 0, 0, 4.33744, -56.0558, 4.35794, -173.705, 4.35014, 64.9542, 0.151184, 63.2237
2, 600.00000, 117.722, -32.9819, 118.223, -150.631, 123.658, 88.0281, 0, 0, 4.33744, -56.0558, 4.35794, -173.705, 4.35014, 64.9542, 0.151184, 63.2237
2, 660.00000, 117.722, -32.9819, 118.223, -150.631, 123.658, 88.0281, 0, 0, 4.33744, -56.0558, 4.35794, -173.705, 4.35014, 64.9542, 0.151184, 63.2237
2, 720.00000, 117.722, -32.9819, 118.223, -150.631, 123.658, 88.0281, 0, 0, 4.33744, -56.0558, 4.35794, -173.705, 4.35014, 64.9542, 0.151184, 63.2237
2, 780.00000, 117.722, -32.9819, 118.223, -150.631, 123.658, 88.0281, 0, 0, 4.33744, -56.0558, 4.35794, -173.705, 4.35014, 64.9542, 0.151184, 63.2237
