hour,t(sec),V1,VAngle1,V2,VAngle2,V3,VAngle3,V4,VAngle4,I1,IAngle1,I2,IAngle2,I3,IAngle3,I4,IAngle4
0, 60.00000, 117.471, -31.4875, 124.101, -152.45, 118.897, 85.5607, 0, 0, 7.5743, -54.5608, 7.58745, -175.523, 7.67674, 62.4868, 0.376589, -173.105
0, 120.00000, 117.471, -31.4897, 124.148, -152.466, 118.887, 85.5347, 0, 0, 7.57427, -54.5631, 7.58458, -175.539, 7.67603, 62.4608, 0.381745, -173.202
0, 180.00000, 117.471, -31.4917, 124.19, -152.481, 118.879, 85.5113, 0, 0, 7.57425, -54.5651, 7.58201, -175.554, 7.67539, 62.4374, 0.38638, -173.288
0, 240.00000, 117.471, -31.4934, 124.228, -152.494, 118.871, 85.4902, 0, 0, 7.57424, -54.5669, 7.5797, -175.567, 7.6748, 62.4163, 0.390549, -173.365
0, 300.00000, 117.47, -31.495, 124.262, -152.506, 118.864, 85.4712, 0, 0, 7.57422, -54.5686, 7.57761, -175.579, 7.67427, 62.3973, 0.394302, -173.432
0, 360.00000, 117.47, -31.4965, 124.292, -152.516, 118.857, 85.4541, 0, 0, 7.5742, -54.57, 7.57572, -175.589, 7.67379, 62.3802, 0.397681, -173.493
0, 420.00000, 117.47, -31.4978, 124.32, -152.526, 118.852, 85.4388, 0, 0, 7.57419, -54.5714, 7.57402, -175.599, 7.67335, 62.3648, 0.400725, -173.547
0, 480.00000, 118.223, -31.407, 125.26, -152.42, 119.557, 85.5441, 0, 0, 8.00452, -54.4805, 7.88808, -175.493, 8.10502, 62.4702, 0.535567, -174.382
0, 540.00000, 118.223, -31.4081, 125.284, -152.427, 119.552, 85.5316, 0, 0, 8.0045, -54.4817, 7.8866, -175.501, 8.10464, 62.4577, 0.538178, -174.415
0, 600.00000, 118.222, -31.4092, 125.304, -152.434, 119.548, 85.5204, 0, 0, 8.00448, -54.4828, 7.88528, -175.508, 8.10429, 62.4465, 0.540523, -174.445
0, 660.00000, 118.222, -31.4101, 125.323, -152.441, 119.544, 85.5103, 0, 0, 8.00447, -54.4837, 7.88409, -175.514, 8.10398, 62.4364, 0.542634, -174.471
0, 720.00000, 118.222, -31.4109, 125.34, -152.446, 119.54, 85.5012, 0, 0, 8.00446, -54.4846, 7.88302, -175.52, 8.10369, 62.4273, 0.544532, -174.495
0, 780.00000, 118.222, -31.4117, 125.355, -152.451, 119.537, 85.493, 0, 0, 8.00445, -54.4854, 7.88206, -175.525, 8.10344, 62.4191, 0.54624, -174.516
0, 840.00000, 118.222, -31.4123, 125.369, -152.456, 119.534, 85.4856, 0, 0, 8.00444, -54.4861, 7.88119, -175.53, 8.10321, 62.4117, 0.547777, -174.535
0, 900.00000, 118.222, -31.413, 125.381, -152.46, 119.532, 85.479, 0, 0, 8.00443, -54.4867, 7.88041, -175.534, 8.103, 62.4051, 0.54916, -174.552
0, 960.00000, 118.17, -31.3891, 124.418, -152.739, 118.626, 85.6633, 0, 0, 8.0005, -54.4629, 7.94142, -175.813, 8.03486, 62.5893, 0.431001, -174.324
0, 1020.00000, 118.17, -31.3895, 124.427, -152.742, 118.624, 85.658, 0, 0, 8.0005, -54.4633, 7.9408, -175.816, 8.0347, 62.584, 0.432102, -174.341
0, 1080.00000, 118.17, -31.39, 124.436, -152.745, 118.622, 85.6532, 0, 0, 8.00049, -54.4638, 7.94024, -175.819, 8.03455, 62.5792, 0.433094, -174.357
0, 1140.00000, 118.169, -31.3904, 124.444, -152.748, 118.62, 85.6489, 0, 0, 8.00048, -54.4642, 7.93974, -175.822, 8.03441, 62.5749, 0.433986, -174.371
0, 1200.00000, 118.169, -31.3907, 124.451, -152.751, 118.618, 85.645, 0, 0, 8.00048, -54.4645, 7.93928, -175.824, 8.03428, 62.5711, 0.434791, -174.383
0, 1260.00000, 118.169, -31.391, 124.457, -152.753, 118.617, 85.6415, 0, 0, 8.00047, -54.4648, 7.93887, -175.826, 8.03417, 62.5676, 0.435515, -174.394
0, 1320.00000, 118.169, -31.3913, 124.463, -152.755, 118.616, 85.6384, 0, 0, 8.00047, -54.4651, 7.93851, -175.828, 8.03407, 62.5645, 0.436166, -174.405
0, 1380.00000, 118.169, -31.3915, 124.468, -152.756, 118.614, 85.6356, 0, 0, 8.00047, -54.4654, 7.93817, -175.83, 8.03398, 62.5616, 0.436752, -174.414
0, 1440.00000, 118.169, -31.3918, 124.473, -152.758, 118.613, 85.633, 0, 0, 8.00046, -54.4656, 7.93787, -175.832, 8.0339, 62.5591, 0.43728, -174.422
0, 1500.00000, 118.169, -31.392, 124.477, -152.759, 118.612, 85.6307, 0, 0, 8.00046, -54.4658, 7.93761, -175.833, 8.03383, 62.5568, 0.437755, -174.429
0, 1560.00000, 118.169, -31.3922, 124.481, -152.761, 118.612, 85.6287, 0, 0, 8.00046, -54.466, 7.93736, -175.835, 8.03376, 62.5548, 0.438182, -174.436
0, 1620.00000, 118.169, -31.3923, 124.484, -152.762, 118.611, 85.6268, 0, 0, 8.00045, -54.4662, 7.93715, -175.836, 8.0337, 62.5529, 0.438567, -174.442
0, 1680.00000, 118.169, -31.3925, 124.487, -152.763, 118.61, 85.6252, 0, 0, 8.00045, -54.4664, 7.93695, -175.837, 8.03365, 62.5512, 0.438913, -174.447
0, 1740.00000, 118.169, -31.3926, 124.49, -152.764, 118.61, 85.6237, 0, 0, 8.00045, -54.4665, 7.93677, -175.838, 8.0336, 62.5497, 0.439224, -174.452
0, 1800.00000, 117.319, -31.6988, 123.371, -152.575, 118.711, 85.6097, 0, 0, 7.9365, -54.7727, 8.00877, -175.649, 8.04125, 62.5358, 0.30409, -171.624
0, 1860.00000, 117.319, -31.6989, 123.373, -152.576, 118.711, 85.6085, 0, 0, 7.9365, -54.7728, 8.00863, -175.65, 8.04122, 62.5346, 0.304339, -171.631
0, 1920.00000, 117.319, -31.699, 123.375, -152.576, 118.71, 85.6074, 0, 0, 7.9365, -54.7729, 8.0085, -175.65, 8.04118, 62.5335, 0.304563, -171.637
0, 1980.00000, 117.319, -31.699, 123.376, -152.577, 118.71, 85.6064, 0, 0, 7.9365, -54.7729, 8.00839, -175.651, 8.04115, 62.5325, 0.304765, -171.643
0, 2040.00000, 117.319, -31.6991, 123.378, -152.578, 118.71, 85.6055, 0, 0, 7.9365, -54.773, 8.00829, -175.652, 8.04113, 62.5316, 0.304946, -171.648
0, 2100.00000, 117.319, -31.6992, 123.379, -152.578, 118.709, 85.6047, 0, 0, 7.93649, -54.7731, 8.0082, -175.652, 8.0411, 62.5308, 0.30511, -171.653
0, 2160.00000, 117.319, -31.6992, 123.381, -152.579, 118.709, 85.604, 0, 0, 7.93649, -54.7732, 8.00812, -175.652, 8.04108, 62.5301, 0.305257, -171.657
0, 2220.00000, 117.319, -31.6993, 123.382, -152.579, 118.709, 85.6034, 0, 0, 7.93649, -54.7732, 8.00804, -175.653, 8.04106, 62.5294, 0.305389, -171.66
0, 2280.00000, 117.319, -31.6994, 123.383, -152.579, 118.709, 85.6028, 0, 0, 7.93649, -54.7733, 8.00798, -175.653, 8.04104, 62.5289, 0.305508, -171.664
0, 2340.00000, 117.319, -31.6994, 123.384, -152.58, 118.708, 85.6023, 0, 0, 7.93649, -54.7733, 8.00792, -175.654, 8.04103, 62.5283, 0.305616, -171.667
0, 2400.00000, 117.319, -31.6994, 123.385, -152.58, 118.708, 85.6018, 0, 0, 7.93649, -54.7733, 8.00786, -175.654, 8.04101, 62.5279, 0.305712, -171.67
0, 2460.00000, 117.319, -31.6995, 123.385, -152.58, 118.708, 85.6014, 0, 0, 7.93649, -54.7734, 8.00781, -175.654, 8.041, 62.5274, 0.305799, -171.672
0, 2520.00000, 117.319, -31.6995, 123.386, -152.58, 118.708, 85.601, 0, 0, 7.93649, -54.7734, 8.00777, -175.654, 8.04099, 62.5271, 0.305877, -171.674
0, 2580.00000, 117.319, -31.6995, 123.387, -152.581, 118.708, 85.6006, 0, 0, 7.93649, -54.7734, 8.00773, -175.655, 8.04098, 62.5267, 0.305948, -171.676
0, 2640.00000, 117.319, -31.6996, 123.387, -152.581, 118.708, 85.6003, 0, 0, 7.93649, -54.7735, 8.0077, -175.655, 8.04097, 62.5264, 0.306011, -171.678
0, 2700.00000, 117.319, -31.6996, 123.388, -152.581, 118.708, 85.6, 0, 0, 7.93649, -54.7735, 8.00766, -175.655, 8.04096, 62.5261, 0.306068, -171.679
0, 2760.00000, 117.641, -31.674, 123.39, -152.578, 118.832, 85.7482, 0, 0, 7.96074, -54.7479, 8.00753, -175.652, 8.05032, 62.6743, 0.3089, -171.799
0, 2820.00000, 117.641, -31.674, 123.39, -152.579, 118.832, 85.748, 0, 0, 7.96074, -54.7479, 8.0075, -175.653, 8.05031, 62.6741, 0.308946, -171.801
0, 2880.00000, 117.641, -31.674, 123.39, -152.579, 118.832, 85.7478, 0, 0, 7.96074, -54.7479, 8.00748, -175.653, 8.05031, 62.6739, 0.308988, -171.802
0, 2940.00000, 117.641, -31.674, 123.391, -152.579, 118.832, 85.7476, 0, 0, 7.96074, -54.7479, 8.00746, -175.653, 8.0503, 62.6737, 0.309025, -171.803
0, 3000.00000, 117.641, -31.674, 123.391, -152.579, 118.832, 85.7475, 0, 0, 7.96074, -54.7479, 8.00744, -175.653, 8.0503, 62.6735, 0.309059, -171.804
0, 3060.00000, 117.641, -31.674, 123.391, -152.579, 118.832, 85.7473, 0, 0, 7.96074, -54.7479, 8.00742, -175.653, 8.05029, 62.6734, 0.309089, -171.804
0, 3120.00000, 117.641, -31.674, 123.392, -152.579, 118.832, 85.7472, 0, 0, 7.96074, -54.748, 8.00741, -175.653, 8.05029, 62.6733, 0.309117, -171.805
0, 3180.00000, 117.641, -31.6741, 123.392, -152.579, 118.832, 85.7471, 0, 0, 7.96074, -54.748, 8.0074, -175.653, 8.05029, 62.6731, 0.309141, -171.806
0, 3240.00000, 117.641, -31.6741, 123.392, -152.579, 118.832, 85.747, 0, 0, 7.96074, -54.748, 8.00738, -175.653, 8.05028, 62.673, 0.309163, -171.806
0, 3300.00000, 117.641, -31.6741, 123.392, -152.579, 118.832, 85.7469, 0, 0, 7.96074, -54.748, 8.00737, -175.653, 8.05028, 62.6729, 0.309183, -171.807
0, 3360.00000, 117.641, -31.6741, 123.392, -152.579, 118.832, 85.7468, 0, 0, 7.96074, -54.748, 8.00736, -175.653, 8.05028, 62.6729, 0.309201, -171.807
0, 3420.00000, 117.641, -31.6741, 123.392, -152.579, 118.831, 85.7467, 0, 0, 7.96074, -54.748, 8.00735, -175.653, 8.05027, 62.6728, 0.309217, -171.808
0, 3480.00000, 117.641, -31.6741, 123.393, -152.579, 118.831, 85.7466, 0, 0, 7.96074, -54.748, 8.00735, -175.653, 8.05027, 62.6727, 0.309232, -171.808
0, 3540.00000, 117.641, -31.6741, 123.393, -152.58, 118.831, 85.7466, 0, 0, 7.96074, -54.748, 8.00734, -175.653, 8.05027, 62.6726, 0.309245, -171.809
1, 0.00000, 117.641, -31.6741, 123.393, -152.58, 118.831, 85.7465, 0, 0, 7.96074, -54.748, 8.00733, -175.653, 8.05027, 62.6726, 0.309257, -171.809
1, 60.00000, 117.935, -31.6431, 123.397, -152.577, 118.926, 85.882, 0, 0, 7.98287, -54.717, 8.00707, -175.651, 8.05741, 62.8081, 0.312027, -172.045
1, 120.00000, 117.935, -31.6431, 123.397, -152.577, 118.926, 85.882, 0, 0, 7.98287, -54.717, 8.00707, -175.651, 8.05741, 62.808, 0.312037, -172.045
1, 180.00000, 117.935, -31.6431, 123.397, -152.577, 118.926, 85.8819, 0, 0, 7.98287, -54.717, 8.00706, -175.651, 8.05741, 62.808, 0.312046, -172.046
1, 240.00000, 117.935, -31.6431, 123.397, -152.577, 118.926, 85.8819, 0, 0, 7.98287, -54.7171, 8.00706, -175.651, 8.05741, 62.808, 0.312054, -172.046
1, 300.00000, 117.935, -31.6431, 123.397, -152.577, 118.926, 85.8818, 0, 0, 7.98287, -54.7171, 8.00705, -175.651, 8.05741, 62.8079, 0.312061, -172.046
1, 360.00000, 117.935, -31.6431, 123.397, -152.577, 118.926, 85.8818, 0, 0, 7.98287, -54.7171, 8.00705, -175.651, 8.05741, 62.8079, 0.312067, -172.046
1, 420.00000, 117.935, -31.6431, 123.397, -152.577, 118.926, 85.8818, 0, 0, 7.98287, -54.7171, 8.00705, -175.651, 8.05741, 62.8079, 0.312073, -172.046
1, 480.00000, 117.935, -31.6431, 123.397, -152.577, 118.926, 85.8818, 0, 0, 7.98287, -54.7171, 8.00704, -175.651, 8.0574, 62.8078, 0.312078, -172.046
1, 540.00000, 117.935, -31.6431, 123.397, -152.577, 118.926, 85.8817, 0, 0, 7.98287, -54.7171, 8.00704, -175.651, 8.0574, 62.8078, 0.312083, -172.047
1, 600.00000, 117.935, -31.6431, 123.397, -152.577, 118.926, 85.8817, 0, 0, 7.98287, -54.7171, 8.00704, -175.651, 8.0574, 62.8078, 0.312087, -172.047
1, 660.00000, 117.935, -31.6431, 123.397, -152.577, 118.926, 85.8817, 0, 0, 7.98287, -54.7171, 8.00704, -175.651, 8.0574, 62.8078, 0.31209, -172.047
1, 720.00000, 117.935, -31.6431, 123.397, -152.577, 118.926, 85.8817, 0, 0, 7.98287, -54.7171, 8.00704, -175.651, 8.0574, 62.8078, 0.312094, -172.047
1, 780.00000, 118.506, -31.673, 123.411, -152.57, 119.269, 86.1054, 0, 0, 8.02582, -54.7469, 8.00613, -175.644, 8.08319, 63.0315, 0.317953, -172.377
1, 840.00000, 118.506, -31.673, 123.411, -152.57, 119.269, 86.1054, 0, 0, 8.02582, -54.7469, 8.00613, -175.644, 8.08319, 63.0314, 0.317957, -172.377
1, 900.00000, 118.506, -31.673, 123.411, -152.57, 119.269, 86.1054, 0, 0, 8.02582, -54.7469, 8.00613, -175.644, 8.08319, 63.0314, 0.317959, -172.377
1, 960.00000, 118.506, -31.673, 123.411, -152.57, 119.269, 86.1053, 0, 0, 8.02582, -54.7469, 8.00613, -175.644, 8.08319, 63.0314, 0.317961, -172.377
1, 1020.00000, 118.506, -31.673, 123.411, -152.57, 119.269, 86.1053, 0, 0, 8.02582, -54.7469, 8.00613, -175.644, 8.08319, 63.0314, 0.317963, -172.377
1, 1080.00000, 118.506, -31.673, 123.411, -152.57, 119.269, 86.1053, 0, 0, 8.02582, -54.7469, 8.00613, -175.644, 8.08319, 63.0314, 0.317965, -172.377
1, 1140.00000, 118.506, -31.673, 123.411, -152.57, 119.269, 86.1053, 0, 0, 8.02582, -54.7469, 8.00613, -175.644, 8.08319, 63.0314, 0.317967, -172.378
1, 1200.00000, 118.506, -31.673, 123.411, -152.57, 119.269, 86.1053, 0, 0, 8.02582, -54.7469, 8.00612, -175.644, 8.08319, 63.0314, 0.317968, -172.378
1, 1260.00000, 118.506, -31.673, 123.411, -152.57, 119.269, 86.1053, 0, 0, 8.02582, -54.7469, 8.00612, -175.644, 8.08319, 63.0314, 0.31797, -172.378
1, 1320.00000, 118.506, -31.673, 123.411, -152.57, 119.269, 86.1053, 0, 0, 8.02582, -54.7469, 8.00612, -175.644, 8.08319, 63.0314, 0.317971, -172.378
1, 1380.00000, 118.506, -31.673, 123.411, -152.57, 119.269, 86.1053, 0, 0, 8.02582, -54.7469, 8.00612, -175.644, 8.08319, 63.0314, 0.317972, -172.378
1, 1440.00000, 118.506, -31.673, 123.411, -152.57, 119.269, 86.1053, 0, 0, 8.02582, -54.7469, 8.00612, -175.644, 8.08319, 63.0314, 0.317973, -172.378
1, 1500.00000, 118.506, -31.673, 123.411, -152.57, 119.269, 86.1053, 0, 0, 8.02582, -54.7469, 8.00612, -175.644, 8.08319, 63.0314, 0.317974, -172.378
1, 1560.00000, 118.506, -31.673, 123.411, -152.57, 119.269, 86.1053, 0, 0, 8.02582, -54.7469, 8.00612, -175.644, 8.08319, 63.0314, 0.317974, -172.378
1, 1620.00000, 118.506, -31.673, 123.411, -152.57, 119.269, 86.1053, 0, 0, 8.02582, -54.7469, 8.00612, -175.644, 8.08319, 63.0314, 0.317975, -172.378
1, 1680.00000, 118.506, -31.673, 123.411, -152.57, 119.269, 86.1053, 0, 0, 8.02582, -54.7469, 8.00612, -175.644, 8.08319, 63.0314, 0.317976, -172.378
1, 1740.00000, 118.506, -31.673, 123.411, -152.57, 119.269, 86.1053, 0, 0, 8.02582, -54.7469, 8.00612, -175.644, 8.08319, 63.0314, 0.317976, -172.378
1, 1800.00000, 118.506, -31.673, 123.411, -152.57, 119.269, 86.1053, 0, 0, 8.02582, -54.7469, 8.00612, -175.644, 8.08319, 63.0314, 0.317977, -172.378
1, 1860.00000, 118.506, -31.673, 123.411, -152.57, 119.269, 86.1053, 0, 0, 8.02582, -54.7469, 8.00612, -175.644, 8.08319, 63.0313, 0.317977, -172.378
1, 1920.00000, 118.506, -31.673, 123.411, -152.57, 119.269, 86.1053, 0, 0, 8.02582, -54.7469, 8.00612, -175.644, 8.08319, 63.0313, 0.317978, -172.378
1, 1980.00000, 118.506, -31.673, 123.411, -152.57, 119.269, 86.1053, 0, 0, 8.02582, -54.7469, 8.00612, -175.644, 8.08319, 63.0313, 0.317978, -172.378
1, 2040.00000, 118.506, -31.673, 123.411, -152.57, 119.269, 86.1053, 0, 0, 8.02582, -54.7469, 8.00612, -175.644, 8.08319, 63.0313, 0.317978, -172.378
1, 2100.00000, 118.506, -31.673, 123.411, -152.57, 119.269, 86.1053, 0, 0, 8.02582, -54.7469, 8.00612, -175.644, 8.08319, 63.0313, 0.317979, -172.378
1, 2160.00000, 118.506, -31.673, 123.411, -152.57, 119.269, 86.1053, 0, 0, 8.02582, -54.7469, 8.00612, -175.644, 8.08319, 63.0313, 0.317979, -172.378
1, 2220.00000, 119.365, -31.3696, 124.53, -152.76, 119.163, 86.1182, 0, 0, 8.09036, -54.4436, 7.93423, -175.834, 8.07523, 63.0443, 0.453571, -174.98
1, 2280.00000, 119.365, -31.3696, 124.53, -152.76, 119.163, 86.1182, 0, 0, 8.09036, -54.4436, 7.93423, -175.834, 8.07523, 63.0443, 0.453572, -174.98
1, 2340.00000, 119.365, -31.3696, 124.53, -152.76, 119.163, 86.1182, 0, 0, 8.09036, -54.4436, 7.93423, -175.834, 8.07523, 63.0443, 0.453572, -174.98
1, 2400.00000, 119.365, -31.3696, 124.53, -152.76, 119.163, 86.1182, 0, 0, 8.09036, -54.4436, 7.93423, -175.834, 8.07523, 63.0443, 0.453572, -174.98
1, 2460.00000, 119.365, -31.3696, 124.53, -152.76, 119.163, 86.1182, 0, 0, 8.09036, -54.4436, 7.93423, -175.834, 8.07523, 63.0443, 0.453572, -174.98
1, 2520.00000, 119.365, -31.3696, 124.53, -152.76, 119.163, 86.1182, 0, 0, 8.09036, -54.4436, 7.93423, -175.834, 8.07523, 63.0443, 0.453572, -174.98
1, 2580.00000, 119.365, -31.3696, 124.53, -152.76, 119.163, 86.1182, 0, 0, 8.09036, -54.4436, 7.93423, -175.834, 8.07523, 63.0443, 0.453573, -174.98
1, 2640.00000, 119.365, -31.3696, 124.53, -152.76, 119.163, 86.1182, 0, 0, 8.09036, -54.4436, 7.93423, -175.834, 8.07523, 63.0443, 0.453573, -174.98
1, 2700.00000, 119.365, -31.3696, 124.53, -152.76, 119.163, 86.1182, 0, 0, 8.09036, -54.4436, 7.93423, -175.834, 8.07523, 63.0443, 0.453573, -174.98
1, 2760.00000, 119.365, -31.3696, 124.53, -152.76, 119.163, 86.1182, 0, 0, 8.09036, -54.4436, 7.93423, -175.834, 8.07523, 63.0443, 0.453573, -174.98
1, 2820.00000, 119.365, -31.3696, 124.53, -152.76, 119.163, 86.1182, 0, 0, 8.09036, -54.4436, 7.93423, -175.834, 8.07523, 63.0442, 0.453573, -174.98
1, 2880.00000, 119.365, -31.3696, 124.53, -152.76, 119.163, 86.1182, 0, 0, 8.09036, -54.4436, 7.93423, -175.834, 8.07523, 63.0442, 0.453573, -174.98
1, 2940.00000, 119.365, -31.3696, 124.53, -152.76, 119.163, 86.1182, 0, 0, 8.09036, -54.4436, 7.93423, -175.834, 8.07523, 63.0442, 0.453573, -174.98
1, 3000.00000, 119.365, -31.3696, 124.53, -152.76, 119.163, 86.1182, 0, 0, 8.09036, -54.4436, 7.93423, -175.834, 8.07523, 63.0442, 0.453573, -174.98
1, 3060.00000, 119.365, -31.3696, 124.53, -152.76, 119.163, 86.1182, 0, 0, 8.09036, -54.4436, 7.93423, -175.834, 8.07523, 63.0442, 0.453573, -174.98
1, 3120.00000, 119.365, -31.3696, 124.53, -152.76, 119.163, 86.1182, 0, 0, 8.09036, -54.4436, 7.93423, -175.834, 8.07523, 63.0442, 0.453573, -174.98
1, 3180.00000, 119.365, -31.3696, 124.53, -152.76, 119.163, 86.1182, 0, 0, 8.09036, -54.4436, 7.93423, -175.834, 8.07523, 63.0442, 0.453573, -174.98
1, 3240.00000, 119.365, -31.3696, 124.53, -152.76, 119.163, 86.1182, 0, 0, 8.09036, -54.4436, 7.93423, -175.834, 8.07523, 63.0442, 0.453573, -174.98
1, 3300.00000, 119.365, -31.3696, 124.53, -152.76, 119.163, 86.1182, 0, 0, 8.09036, -54.4436, 7.93423, -175.834, 8.07523, 63.0442, 0.453573, -174.98
1, 3360.00000, 119.365, -31.3696, 124.53, -152.76, 119.163, 86.1182, 0, 0, 8.09036, -54.4436, 7.93423, -175.834, 8.07523, 63.0442, 0.453573, -174.98
1, 3420.00000, 119.365, -31.3696, 124.53, -152.76, 119.163, 86.1182, 0, 0, 8.09036, -54.4436, 7.93423, -175.834, 8.07523, 63.0442, 0.453573, -174.98
1, 3480.00000, 119.365, -31.3696, 124.53, -152.76, 119.163, 86.1182, 0, 0, 8.09036, -54.4436, 7.93423, -175.834, 8.07523, 63.0442, 0.453573, -174.98
1, 3540.00000, 119.365, -31.3696, 124.53, -152.76, 119.163, 86.1182, 0, 0, 8.09036, -54.4436, 7.93423, -175.834, 8.07523, 63.0442, 0.453573, -174.98
2, 0.00000, 119.365, -31.3696, 124.53, -152.76, 119.163, 86.1182, 0, 0, 8.09036, -54.4436, 7.93423, -175.834, 8.07523, 63.0442, 0.453574, -174.98
2, 60.00000, 119.365, -31.3696, 124.53, -152.76, 119.163, 86.1182, 0, 0, 8.09036, -54.4436, 7.93423, -175.834, 8.07523, 63.0442, 0.453574, -174.98
2, 120.00000, 119.365, -31.3696, 124.53, -152.76, 119.163, 86.1182, 0, 0, 8.09036, -54.4436, 7.93423, -175.834, 8.07523, 63.0442, 0.453574, -174.98
2, 180.00000, 119.365, -31.3696, 124.53, -152.76, 119.163, 86.1182, 0, 0, 8.09036, -54.4436, 7.93423, -175.834, 8.07523, 63.0442, 0.453574, -174.98
2, 240.00000, 119.365, -31.3696, 124.53, -152.76, 119.163, 86.1182, 0, 0, 8.09036, -54.4436, 7.93423, -175.834, 8.07523, 63.0442, 0.453574, -174.98
2, 300.00000, 119.365, -31.3696, 124.53, -152.76, 119.163, 86.1182, 0, 0, 8.09036, -54.4436, 7.93423, -175.834, 8.07523, 63.0442, 0.453574, -174.98
2, 360.00000, 119.365, -31.3696, 124.53, -152.76, 119.163, 86.1182, 0, 0, 8.09036, -54.4436, 7.93423, -175.834, 8.07523, 63.0442, 0.453574, -174.98
2, 420.00000, 119.365, -31.3696, 124.53, -152.76, 119.163, 86.1182, 0, 0, 8.09036, -54.4436, 7.93423, -175.834, 8.07523, 63.0442, 0.453574, -174.98
2, 480.00000, 119.365, -31.3696, 124.53, -152.76, 119.163, 86.1182, 0, 0, 8.09036, -54.4436, 7.93423, -175.834, 8.07523, 63.0442, 0.453574, -174.98
2, 540.00000, 119.365, -31.3696, 124.53, -152.76, 119.163, 86.1182, 0, 0, 8.09036, -54.4436, 7.93423, -175.834, 8.07523, 63.0442, 0.453574, -174.98
2, 600.00000, 119.365, -31.3696, 124.53, -152.76, 119.163, 86.1182, 0, 0, 8.09036, -54.4436, 7.93423, -175.834, 8.07523, 63.0442, 0.453574, -174.98
2, 660.00000, 119.365, -31.3696, 124.53, -152.76, 119.163, 86.1182, 0, 0, 8.09036, -54.4436, 7.93423, -175.834, 8.07523, 63.0442, 0.453574, -174.98
2, 720.00000, 119.365, -31.3696, 124.53, -152.76, 119.163, 86.1182, 0, 0, 8.09036, -54.4436, 7.93423, -175.834, 8.07523, 63.0442, 0.453574, -174.98
2, 780.00000, 119.365, -31.3696, 124.53, -152.76, 119.163, 86.1182, 0, 0, 8.09036, -54.4436, 7.93423, -175.834, 8.07523, 63.0442, 0.453574, -174.98
