hour,t(sec),V1,VAngle1,V2,VAngle2,V3,VAngle3,V4,VAngle4,I1,IAngle1,I2,IAngle2,I3,IAngle3,I4,IAngle4
0, 60.00000, 118.59, -32.6842, 117.036, -151.577, 120.511, 88.7251, 0, 0, 9.23135, -55.7581, 9.09691, -174.651, 9.39697, 65.6517, 0.0826063, -97.8472
0, 120.00000, 118.593, -32.6983, 117.036, -151.578, 120.542, 88.7196, 0, 0, 9.2316, -55.7722, 9.09687, -174.651, 9.39968, 65.6462, 0.0833336, -97.947
0, 180.00000, 118.596, -32.711, 117.035, -151.578, 120.57, 88.7146, 0, 0, 9.23181, -55.7849, 9.09684, -174.652, 9.40212, 65.6411, 0.0839821, -98.0349
0, 240.00000, 118.598, -32.7224, 117.035, -151.579, 120.595, 88.7101, 0, 0, 9.23201, -55.7963, 9.09681, -174.652, 9.40431, 65.6366, 0.084566, -98.1128
0, 300.00000, 118.6, -32.7327, 117.035, -151.579, 120.618, 88.706, 0, 0, 9.23218, -55.8066, 9.09678, -174.653, 9.40629, 65.6325, 0.0850916, -98.182
0, 360.00000, 118.602, -32.742, 117.034, -151.579, 120.638, 88.7024, 0, 0, 9.23234, -55.8159, 9.09675, -174.653, 9.40807, 65.6288, 0.0855648, -98.2435
0, 420.00000, 118.604, -32.7503, 117.034, -151.579, 120.657, 88.6991, 0, 0, 9.23247, -55.8242, 9.09673, -174.653, 9.40967, 65.6255, 0.0859907, -98.2983
0, 480.00000, 119.643, -32.6621, 117.996, -151.52, 121.836, 88.808, 0, 0, 8.11041, -55.7361, 7.98648, -174.593, 8.10887, 65.7343, 0.0818061, 50.3041
0, 540.00000, 119.644, -32.6689, 117.995, -151.52, 121.853, 88.8053, 0, 0, 8.11049, -55.7428, 7.98646, -174.594, 8.10775, 65.7317, 0.0836599, 50.6014
0, 600.00000, 119.645, -32.6749, 117.995, -151.521, 121.868, 88.8029, 0, 0, 8.11055, -55.7488, 7.98645, -174.594, 8.10675, 65.7292, 0.0853249, 50.8592
0, 660.00000, 119.646, -32.6803, 117.995, -151.521, 121.881, 88.8008, 0, 0, 8.11061, -55.7542, 7.98644, -174.595, 8.10585, 65.7271, 0.0868246, 51.0826
0, 720.00000, 119.646, -32.6852, 117.995, -151.521, 121.893, 88.7988, 0, 0, 8.11066, -55.7591, 7.98642, -174.595, 8.10504, 65.7251, 0.0881753, 51.277
0, 780.00000, 119.647, -32.6896, 117.995, -151.522, 121.904, 88.7971, 0, 0, 8.11071, -55.7635, 7.98641, -174.595, 8.10431, 65.7233, 0.0893915, 51.4469
0, 840.00000, 119.648, -32.6936, 117.995, -151.522, 121.913, 88.7955, 0, 0, 8.11075, -55.7675, 7.9864, -174.596, 8.10365, 65.7217, 0.0904867, 51.5957
0, 900.00000, 119.648, -32.6972, 117.994, -151.522, 121.922, 88.7941, 0, 0, 8.11079, -55.7711, 7.98639, -174.596, 8.10306, 65.7203, 0.0914728, 51.7266
0, 960.00000, 119.095, -32.67, 118.001, -151.509, 121.454, 88.5807, 0, 0, 8.06915, -55.7439, 7.98687, -174.583, 8.13425, 65.5069, 0.0424597, 29.9327
0, 1020.00000, 119.095, -32.6728, 118.001, -151.509, 121.461, 88.5795, 0, 0, 8.06918, -55.7468, 7.98686, -174.583, 8.13379, 65.5057, 0.0431274, 30.5185
0, 1080.00000, 119.095, -32.6754, 118.001, -151.509, 121.467, 88.5785, 0, 0, 8.0692, -55.7493, 7.98686, -174.583, 8.13336, 65.5047, 0.043736, 31.0302
0, 1140.00000, 119.096, -32.6777, 118.001, -151.509, 121.473, 88.5776, 0, 0, 8.06922, -55.7517, 7.98685, -174.583, 8.13298, 65.5038, 0.0442866, 31.4787
0, 1200.00000, 119.096, -32.6798, 118, -151.509, 121.478, 88.5768, 0, 0, 8.06924, -55.7537, 7.98684, -174.583, 8.13264, 65.5029, 0.0447844, 31.8728
0, 1260.00000, 119.096, -32.6817, 118, -151.51, 121.483, 88.576, 0, 0, 8.06926, -55.7556, 7.98684, -174.583, 8.13233, 65.5022, 0.0452342, 32.22
0, 1320.00000, 119.096, -32.6834, 118, -151.51, 121.487, 88.5753, 0, 0, 8.06928, -55.7573, 7.98684, -174.583, 8.13205, 65.5015, 0.0456403, 32.5265
0, 1380.00000, 119.097, -32.6849, 118, -151.51, 121.49, 88.5747, 0, 0, 8.06929, -55.7588, 7.98683, -174.584, 8.1318, 65.5009, 0.046007, 32.7978
0, 1440.00000, 119.097, -32.6862, 118, -151.51, 121.494, 88.5742, 0, 0, 8.0693, -55.7602, 7.98683, -174.584, 8.13157, 65.5003, 0.0463378, 33.0383
0, 1500.00000, 119.097, -32.6875, 118, -151.51, 121.497, 88.5737, 0, 0, 8.06931, -55.7614, 7.98683, -174.584, 8.13137, 65.4998, 0.0466363, 33.2517
0, 1560.00000, 119.097, -32.6886, 118, -151.51, 121.499, 88.5733, 0, 0, 8.06932, -55.7625, 7.98682, -174.584, 8.13118, 65.4994, 0.0469054, 33.4415
0, 1620.00000, 119.097, -32.6896, 118, -151.51, 121.502, 88.5729, 0, 0, 8.06933, -55.7635, 7.98682, -174.584, 8.13102, 65.499, 0.047148, 33.6104
0, 1680.00000, 119.097, -32.6905, 118, -151.51, 121.504, 88.5725, 0, 0, 8.06934, -55.7644, 7.98682, -174.584, 8.13087, 65.4986, 0.0473668, 33.761
0, 1740.00000, 119.097, -32.6913, 118, -151.51, 121.506, 88.5722, 0, 0, 8.06935, -55.7652, 7.98682, -174.584, 8.13074, 65.4983, 0.0475639, 33.8953
0, 1800.00000, 119.098, -32.692, 118, -151.51, 121.508, 88.5719, 0, 0, 8.06935, -55.7659, 7.98681, -174.584, 8.13062, 65.498, 0.0477415, 34.0152
0, 1860.00000, 119.098, -32.6927, 118, -151.51, 121.509, 88.5716, 0, 0, 8.06936, -55.7666, 7.98681, -174.584, 8.13051, 65.4977, 0.0479016, 34.1224
0, 1920.00000, 119.098, -32.6932, 118, -151.51, 121.511, 88.5714, 0, 0, 8.06936, -55.7672, 7.98681, -174.584, 8.13041, 65.4975, 0.0480457, 34.2182
0, 1980.00000, 119.098, -32.6938, 118, -151.51, 121.512, 88.5712, 0, 0, 8.06937, -55.7677, 7.98681, -174.584, 8.13033, 65.4973, 0.0481756, 34.304
0, 2040.00000, 119.098, -32.6942, 118, -151.51, 121.513, 88.571, 0, 0, 8.06937, -55.7682, 7.98681, -174.584, 8.13025, 65.4971, 0.0482926, 34.3807
0, 2100.00000, 119.098, -32.6947, 118, -151.51, 121.514, 88.5708, 0, 0, 8.06938, -55.7686, 7.98681, -174.584, 8.13018, 65.4969, 0.048398, 34.4495
0, 2160.00000, 119.098, -32.6951, 118, -151.51, 121.515, 88.5707, 0, 0, 8.06938, -55.769, 7.98681, -174.584, 8.13011, 65.4968, 0.0484928, 34.5112
0, 2220.00000, 119.098, -32.6954, 118, -151.51, 121.516, 88.5705, 0, 0, 8.06938, -55.7693, 7.98681, -174.584, 8.13006, 65.4966, 0.0485783, 34.5664
0, 2280.00000, 119.098, -32.6957, 118, -151.51, 121.517, 88.5704, 0, 0, 8.06939, -55.7696, 7.98681, -174.584, 8.13, 65.4965, 0.0486552, 34.616
0, 2340.00000, 119.098, -32.696, 118, -151.51, 121.517, 88.5703, 0, 0, 8.06939, -55.7699, 7.9868, -174.584, 8.12996, 65.4964, 0.0487245, 34.6605
0, 2400.00000, 119.098, -32.6963, 118, -151.51, 121.518, 88.5702, 0, 0, 8.06939, -55.7702, 7.9868, -174.584, 8.12992, 65.4963, 0.0487868, 34.7005
0, 2460.00000, 119.098, -32.6965, 118, -151.511, 121.519, 88.5701, 0, 0, 8.06939, -55.7704, 7.9868, -174.584, 8.12988, 65.4962, 0.048843, 34.7363
0, 2520.00000, 119.098, -32.6967, 118, -151.511, 121.519, 88.57, 0, 0, 8.06939, -55.7706, 7.9868, -174.584, 8.12984, 65.4961, 0.0488935, 34.7685
0, 2580.00000, 119.098, -32.6969, 118, -151.511, 121.52, 88.57, 0, 0, 8.0694, -55.7708, 7.9868, -174.584, 8.12981, 65.496, 0.048939, 34.7974
0, 2640.00000, 119.098, -32.697, 118, -151.511, 121.52, 88.5699, 0, 0, 8.0694, -55.771, 7.9868, -174.584, 8.12979, 65.496, 0.04898, 34.8234
0, 2700.00000, 119.098, -32.6972, 118, -151.511, 121.52, 88.5698, 0, 0, 8.0694, -55.7711, 7.9868, -174.584, 8.12976, 65.4959, 0.0490169, 34.8467
0, 2760.00000, 119.09, -32.6945, 118.088, -151.386, 121.871, 88.6053, 0, 0, 8.06881, -55.7685, 7.99345, -174.46, 8.10634, 65.5314, 0.0876903, 47.275
0, 2820.00000, 119.09, -32.6946, 118.088, -151.386, 121.872, 88.6053, 0, 0, 8.06881, -55.7686, 7.99345, -174.46, 8.10632, 65.5314, 0.087725, 47.2806
0, 2880.00000, 119.09, -32.6948, 118.088, -151.386, 121.872, 88.6052, 0, 0, 8.06881, -55.7687, 7.99345, -174.46, 8.1063, 65.5313, 0.0877543, 47.2861
0, 2940.00000, 119.09, -32.6949, 118.088, -151.386, 121.872, 88.6052, 0, 0, 8.06881, -55.7688, 7.99345, -174.46, 8.10629, 65.5313, 0.0877806, 47.291
0, 3000.00000, 119.09, -32.6949, 118.088, -151.386, 121.872, 88.6052, 0, 0, 8.06881, -55.7689, 7.99345, -174.46, 8.10627, 65.5312, 0.0878044, 47.2955
0, 3060.00000, 119.09, -32.695, 118.088, -151.386, 121.873, 88.6051, 0, 0, 8.06881, -55.7689, 7.99345, -174.46, 8.10626, 65.5312, 0.0878257, 47.2994
0, 3120.00000, 119.09, -32.6951, 118.088, -151.386, 121.873, 88.6051, 0, 0, 8.06881, -55.769, 7.99345, -174.46, 8.10625, 65.5312, 0.0878449, 47.303
0, 3180.00000, 119.09, -32.6952, 118.088, -151.386, 121.873, 88.6051, 0, 0, 8.06881, -55.7691, 7.99345, -174.46, 8.10624, 65.5312, 0.0878622, 47.3062
0, 3240.00000, 119.09, -32.6952, 118.088, -151.386, 121.873, 88.605, 0, 0, 8.06881, -55.7691, 7.99345, -174.46, 8.10623, 65.5311, 0.0878778, 47.3091
0, 3300.00000, 119.09, -32.6953, 118.088, -151.386, 121.873, 88.605, 0, 0, 8.06881, -55.7692, 7.99345, -174.46, 8.10622, 65.5311, 0.0878918, 47.3118
0, 3360.00000, 119.091, -32.6953, 118.088, -151.386, 121.873, 88.605, 0, 0, 8.06881, -55.7692, 7.99344, -174.46, 8.10621, 65.5311, 0.0879044, 47.3141
0, 3420.00000, 119.091, -32.6954, 118.088, -151.386, 121.873, 88.605, 0, 0, 8.06881, -55.7693, 7.99344, -174.46, 8.1062, 65.5311, 0.0879158, 47.3162
0, 3480.00000, 119.091, -32.6954, 118.088, -151.386, 121.874, 88.605, 0, 0, 8.06881, -55.7693, 7.99344, -174.46, 8.1062, 65.5311, 0.087926, 47.3181
0, 3540.00000, 119.091, -32.6954, 118.088, -151.386, 121.874, 88.605, 0, 0, 8.06881, -55.7694, 7.99344, -174.46, 8.10619, 65.531, 0.0879352, 47.3198
1, 0.00000, 119.091, -32.6955, 118.088, -151.386, 121.874, 88.6049, 0, 0, 8.06881, -55.7694, 7.99344, -174.46, 8.10619, 65.531, 0.0879434, 47.3214
1, 60.00000, 119.175, -32.5649, 118.37, -151.353, 121.873, 88.6082, 0, 0, 8.07515, -55.6388, 8.0146, -174.427, 8.1062, 65.5343, 0.0904727, 46.8593
1, 120.00000, 119.175, -32.5649, 118.37, -151.353, 121.874, 88.6082, 0, 0, 8.07515, -55.6388, 8.0146, -174.427, 8.1062, 65.5343, 0.0904801, 46.8605
1, 180.00000, 119.175, -32.5649, 118.37, -151.353, 121.874, 88.6082, 0, 0, 8.07515, -55.6388, 8.0146, -174.427, 8.1062, 65.5343, 0.0904861, 46.8616
1, 240.00000, 119.175, -32.5649, 118.37, -151.353, 121.874, 88.6082, 0, 0, 8.07515, -55.6389, 8.0146, -174.427, 8.10619, 65.5343, 0.0904915, 46.8626
1, 300.00000, 119.175, -32.565, 118.37, -151.353, 121.874, 88.6082, 0, 0, 8.07515, -55.6389, 8.0146, -174.427, 8.10619, 65.5343, 0.0904964, 46.8635
1, 360.00000, 119.175, -32.565, 118.37, -151.353, 121.874, 88.6082, 0, 0, 8.07515, -55.6389, 8.0146, -174.427, 8.10619, 65.5343, 0.0905008, 46.8643
1, 420.00000, 119.175, -32.565, 118.37, -151.353, 121.874, 88.6082, 0, 0, 8.07515, -55.6389, 8.0146, -174.427, 8.10618, 65.5343, 0.0905047, 46.8651
1, 480.00000, 119.175, -32.565, 118.37, -151.353, 121.874, 88.6082, 0, 0, 8.07515, -55.6389, 8.0146, -174.427, 8.10618, 65.5343, 0.0905083, 46.8657
1, 540.00000, 119.175, -32.565, 118.37, -151.353, 121.874, 88.6082, 0, 0, 8.07515, -55.6389, 8.0146, -174.427, 8.10618, 65.5343, 0.0905115, 46.8663
1, 600.00000, 119.175, -32.565, 118.37, -151.353, 121.874, 88.6082, 0, 0, 8.07515, -55.6389, 8.0146, -174.427, 8.10618, 65.5343, 0.0905143, 46.8669
1, 660.00000, 119.175, -32.565, 118.37, -151.353, 121.874, 88.6082, 0, 0, 8.07515, -55.639, 8.0146, -174.427, 8.10618, 65.5343, 0.0905169, 46.8674
1, 720.00000, 119.175, -32.565, 118.37, -151.353, 121.874, 88.6082, 0, 0, 8.07515, -55.639, 8.0146, -174.427, 8.10618, 65.5342, 0.0905193, 46.8678
1, 780.00000, 119.175, -32.565, 118.37, -151.353, 121.874, 88.6082, 0, 0, 8.07515, -55.639, 8.0146, -174.427, 8.10617, 65.5342, 0.0905214, 46.8682
1, 840.00000, 119.175, -32.5651, 118.37, -151.353, 121.874, 88.6082, 0, 0, 8.07515, -55.639, 8.0146, -174.427, 8.10617, 65.5342, 0.0905233, 46.8685
1, 900.00000, 119.175, -32.5651, 118.37, -151.353, 121.874, 88.6082, 0, 0, 8.07515, -55.639, 8.0146, -174.427, 8.10617, 65.5342, 0.0905249, 46.8689
1, 960.00000, 119.175, -32.5651, 118.37, -151.353, 121.874, 88.6082, 0, 0, 8.07515, -55.639, 8.0146, -174.427, 8.10617, 65.5342, 0.0905265, 46.8691
1, 1020.00000, 119.175, -32.5651, 118.37, -151.353, 121.874, 88.6082, 0, 0, 8.07515, -55.639, 8.0146, -174.427, 8.10617, 65.5342, 0.0905279, 46.8694
1, 1080.00000, 119.175, -32.5651, 118.37, -151.353, 121.874, 88.6082, 0, 0, 8.07515, -55.639, 8.0146, -174.427, 8.10617, 65.5342, 0.0905291, 46.8696
1, 1140.00000, 119.175, -32.5651, 118.37, -151.353, 121.874, 88.6082, 0, 0, 8.07515, -55.639, 8.0146, -174.427, 8.10617, 65.5342, 0.0905302, 46.8698
1, 1200.00000, 119.175, -32.5651, 118.37, -151.353, 121.874, 88.6081, 0, 0, 8.07515, -55.639, 8.0146, -174.427, 8.10617, 65.5342, 0.0905312, 46.87
1, 1260.00000, 119.175, -32.5651, 118.37, -151.353, 121.874, 88.6081, 0, 0, 8.07515, -55.639, 8.0146, -174.427, 8.10617, 65.5342, 0.0905321, 46.8702
1, 1320.00000, 119.175, -32.5651, 118.37, -151.353, 121.874, 88.6081, 0, 0, 8.07515, -55.639, 8.0146, -174.427, 8.10617, 65.5342, 0.0905329, 46.8703
1, 1380.00000, 119.175, -32.5651, 118.37, -151.353, 121.874, 88.6081, 0, 0, 8.07515, -55.639, 8.0146, -174.427, 8.10617, 65.5342, 0.0905337, 46.8705
1, 1440.00000, 119.175, -32.5651, 118.37, -151.353, 121.874, 88.6081, 0, 0, 8.07515, -55.639, 8.0146, -174.427, 8.10617, 65.5342, 0.0905343, 46.8706
1, 1500.00000, 119.175, -32.5651, 118.37, -151.353, 121.874, 88.6081, 0, 0, 8.07515, -55.639, 8.0146, -174.427, 8.10617, 65.5342, 0.0905349, 46.8707
1, 1560.00000, 119.175, -32.5651, 118.37, -151.353, 121.874, 88.6081, 0, 0, 8.07515, -55.639, 8.0146, -174.427, 8.10617, 65.5342, 0.0905354, 46.8708
1, 1620.00000, 119.175, -32.5651, 118.37, -151.353, 121.874, 88.6081, 0, 0, 8.07515, -55.639, 8.0146, -174.427, 8.10617, 65.5342, 0.0905359, 46.8709
1, 1680.00000, 119.175, -32.5651, 118.37, -151.353, 121.874, 88.6081, 0, 0, 8.07515, -55.639, 8.0146, -174.427, 8.10616, 65.5342, 0.0905364, 46.871
1, 1740.00000, 119.175, -32.5651, 118.37, -151.353, 121.874, 88.6081, 0, 0, 8.07515, -55.639, 8.0146, -174.427, 8.10616, 65.5342, 0.0905368, 46.8711
1, 1800.00000, 119.175, -32.5651, 118.37, -151.353, 121.874, 88.6081, 0, 0, 8.07515, -55.639, 8.0146, -174.427, 8.10616, 65.5342, 0.0905371, 46.8711
1, 1860.00000, 119.175, -32.5651, 118.37, -151.353, 121.874, 88.6081, 0, 0, 8.07515, -55.639, 8.0146, -174.427, 8.10616, 65.5342, 0.0905374, 46.8712
1, 1920.00000, 119.175, -32.5651, 118.37, -151.353, 121.874, 88.6081, 0, 0, 8.07515, -55.639, 8.0146, -174.427, 8.10616, 65.5342, 0.0905377, 46.8712
1, 1980.00000, 119.175, -32.5651, 118.37, -151.353, 121.874, 88.6081, 0, 0, 8.07515, -55.639, 8.0146, -174.427, 8.10616, 65.5342, 0.090538, 46.8713
1, 2040.00000, 119.175, -32.5651, 118.37, -151.353, 121.874, 88.6081, 0, 0, 8.07515, -55.639, 8.0146, -174.427, 8.10616, 65.5342, 0.0905382, 46.8713
1, 2100.00000, 119.175, -32.5651, 118.37, -151.353, 121.874, 88.6081, 0, 0, 8.07515, -55.639, 8.0146, -174.427, 8.10616, 65.5342, 0.0905384, 46.8714
1, 2160.00000, 119.175, -32.5651, 118.37, -151.353, 121.874, 88.6081, 0, 0, 8.07515, -55.639, 8.0146, -174.427, 8.10616, 65.5342, 0.0905386, 46.8714
1, 2220.00000, 119.175, -32.5651, 118.37, -151.353, 121.874, 88.6081, 0, 0, 8.07515, -55.639, 8.0146, -174.427, 8.10616, 65.5342, 0.0905387, 46.8714
1, 2280.00000, 119.175, -32.5651, 118.37, -151.353, 121.874, 88.6081, 0, 0, 8.07515, -55.639, 8.0146, -174.427, 8.10616, 65.5342, 0.0905389, 46.8714
1, 2340.00000, 119.175, -32.5651, 118.37, -151.353, 121.874, 88.6081, 0, 0, 8.07515, -55.639, 8.0146, -174.427, 8.10616, 65.5342, 0.090539, 46.8715
1, 2400.00000, 119.175, -32.5651, 118.37, -151.353, 121.874, 88.6081, 0, 0, 8.07515, -55.639, 8.0146, -174.427, 8.10616, 65.5342, 0.0905391, 46.8715
1, 2460.00000, 119.175, -32.5651, 118.37, -151.353, 121.874, 88.6081, 0, 0, 8.07515, -55.639, 8.0146, -174.427, 8.10616, 65.5342, 0.0905393, 46.8715
1, 2520.00000, 119.175, -32.5651, 118.37, -151.353, 121.874, 88.6081, 0, 0, 8.07515, -55.639, 8.0146, -174.427, 8.10616, 65.5342, 0.0905394, 46.8715
1, 2580.00000, 119.175, -32.5651, 118.37, -151.353, 121.874, 88.6081, 0, 0, 8.07515, -55.639, 8.0146, -174.427, 8.10616, 65.5342, 0.0905394, 46.8716
1, 2640.00000, 119.175, -32.5651, 118.37, -151.353, 121.874, 88.6081, 0, 0, 8.07515, -55.639, 8.0146, -174.427, 8.10616, 65.5342, 0.0905395, 46.8716
1, 2700.00000, 119.175, -32.5651, 118.37, -151.353, 121.874, 88.6081, 0, 0, 8.07515, -55.639, 8.0146, -174.427, 8.10616, 65.5342, 0.0905396, 46.8716
1, 2760.00000, 119.175, -32.5651, 118.37, -151.353, 121.874, 88.6081, 0, 0, 8.07515, -55.639, 8.0146, -174.427, 8.10616, 65.5342, 0.0905397, 46.8716
1, 2820.00000, 119.175, -32.5651, 118.37, -151.353, 121.874, 88.6081, 0, 0, 8.07515, -55.639, 8.0146, -174.427, 8.10616, 65.5342, 0.0905397, 46.8716
1, 2880.00000, 119.175, -32.5651, 118.37, -151.353, 121.874, 88.6081, 0, 0, 8.07515, -55.639, 8.0146, -174.427, 8.10616, 65.5342, 0.0905398, 46.8716
1, 2940.00000, 119.175, -32.5651, 118.37, -151.353, 121.874, 88.6081, 0, 0, 8.07515, -55.639, 8.0146, -174.427, 8.10616, 65.5342, 0.0905398, 46.8716
1, 3000.00000, 119.175, -32.5651, 118.37, -151.353, 121.874, 88.6081, 0, 0, 8.07515, -55.639, 8.0146, -174.427, 8.10616, 65.5342, 0.0905399, 46.8716
1, 3060.00000, 119.175, -32.5651, 118.37, -151.353, 121.874, 88.6081, 0, 0, 8.07515, -55.639, 8.0146, -174.427, 8.10616, 65.5342, 0.0905399, 46.8716
1, 3120.00000, 119.175, -32.5651, 118.37, -151.353, 121.874, 88.6081, 0, 0, 8.07515, -55.639, 8.0146, -174.427, 8.10616, 65.5342, 0.0905399, 46.8716
1, 3180.00000, 119.175, -32.5651, 118.37, -151.353, 121.874, 88.6081, 0, 0, 8.07515, -55.639, 8.0146, -174.427, 8.10616, 65.5342, 0.09054, 46.8717
1, 3240.00000, 119.175, -32.5651, 118.37, -151.353, 121.874, 88.6081, 0, 0, 8.07515, -55.639, 8.0146, -174.427, 8.10616, 65.5342, 0.09054, 46.8717
1, 3300.00000, 119.175, -32.5651, 118.37, -151.353, 121.874, 88.6081, 0, 0, 8.07515, -55.639, 8.0146, -174.427, 8.10616, 65.5342, 0.09054, 46.8717
1, 3360.00000, 119.175, -32.5651, 118.37, -151.353, 121.874, 88.6081, 0, 0, 8.07515, -55.639, 8.0146, -174.427, 8.10616, 65.5342, 0.09054, 46.8717
1, 3420.00000, 119.175, -32.5651, 118.37, -151.353, 121.874, 88.6081, 0, 0, 8.07515, -55.639, 8.0146, -174.427, 8.10616, 65.5342, 0.0905401, 46.8717
1, 3480.00000, 119.175, -32.5651, 118.37, -151.353, 121.874, 88.6081, 0, 0, 8.07515, -55.639, 8.0146, -174.427, 8.10616, 65.5342, 0.0905401, 46.8717
1, 3540.00000, 119.175, -32.5651, 118.37, -151.353, 121.874, 88.6081, 0, 0, 8.07515, -55.639, 8.0146, -174.427, 8.10616, 65.5342, 0.0905401, 46.8717
2, 0.00000, 119.175, -32.5651, 118.37, -151.353, 121.874, 88.6081, 0, 0, 8.07515, -55.639, 8.0146, -174.427, 8.10616, 65.5342, 0.0905401, 46.8717
2, 60.00000, 119.175, -32.5651, 118.37, -151.353, 121.874, 88.6081, 0, 0, 8.07515, -55.639, 8.0146, -174.427, 8.10616, 65.5342, 0.0905401, 46.8717
2, 120.00000, 119.175, -32.5651, 118.37, -151.353, 121.874, 88.6081, 0, 0, 8.07515, -55.639, 8.0146, -174.427, 8.10616, 65.5342, 0.0905401, 46.8717
2, 180.00000, 119.175, -32.5651, 118.37, -151.353, 121.874, 88.6081, 0, 0, 8.07515, -55.639, 8.0146, -174.427, 8.10616, 65.5342, 0.0905401, 46.8717
2, 240.00000, 119.175, -32.5651, 118.37, -151.353, 121.874, 88.6081, 0, 0, 8.07515, -55.639, 8.0146, -174.427, 8.10616, 65.5342, 0.0905402, 46.8717
2, 300.00000, 119.175, -32.5651, 118.37, -151.353, 121.874, 88.6081, 0, 0, 8.07515, -55.639, 8.0146, -174.427, 8.10616, 65.5342, 0.0905402, 46.8717
2, 360.00000, 119.175, -32.5651, 118.37, -151.353, 121.874, 88.6081, 0, 0, 8.07515, -55.639, 8.0146, -174.427, 8.10616, 65.5342, 0.0905402, 46.8717
2, 420.00000, 119.175, -32.5651, 118.37, -151.353, 121.874, 88.6081, 0, 0, 8.07515, -55.639, 8.0146, -174.427, 8.10616, 65.5342, 0.0905402, 46.8717
2, 480.00000, 119.175, -32.5651, 118.37, -151.353, 121.874, 88.6081, 0, 0, 8.07515, -55.639, 8.0146, -174.427, 8.10616, 65.5342, 0.0905402, 46.8717
2, 540.00000, 119.175, -32.5651, 118.37, -151.353, 121.874, 88.6081, 0, 0, 8.07515, -55.639, 8.0146, -174.427, 8.10616, 65.5342, 0.0905402, 46.8717
2, 600.00000, 119.175, -32.5651, 118.37, -151.353, 121.874, 88.6081, 0, 0, 8.07515, -55.639, 8.0146, -174.427, 8.10616, 65.5342, 0.0905402, 46.8717
2, 660.00000, 119.175, -32.5651, 118.37, -151.353, 121.874, 88.6081, 0, 0, 8.07515, -55.639, 8.0146, -174.427, 8.10616, 65.5342, 0.0905402, 46.8717
2, 720.00000, 119.175, -32.5651, 118.37, -151.353, 121.874, 88.6081, 0, 0, 8.07515, -55.639, 8.0146, -174.427, 8.10616, 65.5342, 0.0905402, 46.8717
2, 780.00000, 119.175, -32.5651, 118.37, -151.353, 121.874, 88.6081, 0, 0, 8.07515, -55.639, 8.0146, -174.427, 8.10616, 65.5342, 0.0905402, 46.8717
2, 840.00000, 119.733, -32.5965, 118.362, -151.366, 122.351, 88.82, 0, 0, 8.1171, -55.6704, 8.01402, -174.44, 8.07456, 65.7461, 0.143384, 55.2247
