hour,t(sec),V1,VAngle1,V2,VAngle2,V3,VAngle3,V4,VAngle4,I1,IAngle1,I2,IAngle2,I3,IAngle3,I4,IAngle4
0, 60.00000, 120.405, -31.1854, 120.722, -151.102, 121.089, 88.8075, 0, 0, 1.21389, -54.2591, 1.21624, -174.176, 1.21255, 65.7339, 0.00416358, 51.8543
0, 120.00000, 120.405, -31.1855, 120.722, -151.102, 121.089, 88.8075, 0, 0, 1.21389, -54.2594, 1.21625, -174.176, 1.21257, 65.7336, 0.00415318, 51.7066
0, 180.00000, 120.405, -31.1855, 120.722, -151.102, 121.089, 88.8075, 0, 0, 1.21389, -54.2594, 1.21625, -174.176, 1.21257, 65.7336, 0.00415313, 51.7064
0, 240.00000, 120.405, -31.1855, 120.722, -151.102, 121.089, 88.8075, 0, 0, 1.21389, -54.2594, 1.21625, -174.176, 1.21257, 65.7336, 0.00415313, 51.7064
0, 300.00000, 120.405, -31.1855, 120.722, -151.102, 121.089, 88.8075, 0, 0, 1.21389, -54.2594, 1.21625, -174.176, 1.21257, 65.7336, 0.00415313, 51.7064
0, 360.00000, 120.405, -31.1855, 120.722, -151.102, 121.089, 88.8075, 0, 0, 1.21389, -54.2594, 1.21625, -174.176, 1.21257, 65.7336, 0.00415313, 51.7064
0, 420.00000, 120.405, -31.1855, 120.722, -151.102, 121.089, 88.8075, 0, 0, 1.21389, -54.2594, 1.21625, -174.176, 1.21257, 65.7336, 0.00415313, 51.7064
0, 480.00000, 121.311, -31.0773, 121.588, -151.002, 121.948, 88.9285, 0, 0, 1.26715, -54.1518, 1.26427, -174.076, 1.26057, 65.854, 0.00732786, 91.762
0, 540.00000, 121.311, -31.0773, 121.588, -151.002, 121.949, 88.9286, 0, 0, 1.26714, -54.1512, 1.26425, -174.076, 1.26051, 65.8546, 0.00734926, 91.6676
0, 600.00000, 121.311, -31.0773, 121.588, -151.002, 121.949, 88.9286, 0, 0, 1.26714, -54.1512, 1.26425, -174.076, 1.26051, 65.8546, 0.00734972, 91.6653
0, 660.00000, 121.311, -31.0773, 121.588, -151.002, 121.949, 88.9286, 0, 0, 1.26714, -54.1512, 1.26425, -174.076, 1.26051, 65.8546, 0.00734972, 91.6652
0, 720.00000, 121.311, -31.0773, 121.588, -151.002, 121.949, 88.9286, 0, 0, 1.26714, -54.1512, 1.26425, -174.076, 1.26051, 65.8546, 0.00734972, 91.6652
0, 780.00000, 121.311, -31.0773, 121.588, -151.002, 121.949, 88.9286, 0, 0, 1.26714, -54.1512, 1.26425, -174.076, 1.26051, 65.8546, 0.00734972, 91.6652
0, 840.00000, 121.311, -31.0773, 121.588, -151.002, 121.949, 88.9286, 0, 0, 1.26714, -54.1512, 1.26425, -174.076, 1.26051, 65.8546, 0.00734972, 91.6652
0, 900.00000, 121.311, -31.0773, 121.588, -151.002, 121.949, 88.9286, 0, 0, 1.26714, -54.1512, 1.26425, -174.076, 1.26051, 65.8546, 0.00734972, 91.6652
0, 960.00000, 121.311, -31.0773, 121.588, -151.002, 121.949, 88.9286, 0, 0, 1.26714, -54.1512, 1.26425, -174.076, 1.26051, 65.8546, 0.00734972, 91.6652
0, 1020.00000, 121.311, -31.0773, 121.588, -151.002, 121.949, 88.9286, 0, 0, 1.26714, -54.1512, 1.26425, -174.076, 1.26051, 65.8546, 0.00734972, 91.6652
0, 1080.00000, 121.311, -31.0773, 121.588, -151.002, 121.949, 88.9286, 0, 0, 1.26714, -54.1512, 1.26425, -174.076, 1.26051, 65.8546, 0.00734972, 91.6652
0, 1140.00000, 121.311, -31.0773, 121.588, -151.002, 121.949, 88.9286, 0, 0, 1.26714, -54.1512, 1.26425, -174.076, 1.26051, 65.8546, 0.00734972, 91.6652
0, 1200.00000, 121.311, -31.0773, 121.588, -151.002, 121.949, 88.9286, 0, 0, 1.26714, -54.1512, 1.26425, -174.076, 1.26051, 65.8546, 0.00734972, 91.6652
0, 1260.00000, 121.311, -31.0773, 121.588, -151.002, 121.949, 88.9286, 0, 0, 1.26714, -54.1512, 1.26425, -174.076, 1.26051, 65.8546, 0.00734972, 91.6652
0, 1320.00000, 121.311, -31.0773, 121.588, -151.002, 121.949, 88.9286, 0, 0, 1.26714, -54.1512, 1.26425, -174.076, 1.26051, 65.8546, 0.00734972, 91.6652
0, 1380.00000, 121.311, -31.0773, 121.588, -151.002, 121.949, 88.9286, 0, 0, 1.26714, -54.1512, 1.26425, -174.076, 1.26051, 65.8546, 0.00734972, 91.6652
0, 1440.00000, 121.311, -31.0773, 121.588, -151.002, 121.949, 88.9286, 0, 0, 1.26714, -54.1512, 1.26425, -174.076, 1.26051, 65.8546, 0.00734972, 91.6652
0, 1500.00000, 121.311, -31.0773, 121.588, -151.002, 121.949, 88.9286, 0, 0, 1.26714, -54.1512, 1.26425, -174.076, 1.26051, 65.8546, 0.00734972, 91.6652
0, 1560.00000, 121.311, -31.0773, 121.588, -151.002, 121.949, 88.9286, 0, 0, 1.26714, -54.1512, 1.26425, -174.076, 1.26051, 65.8546, 0.00734972, 91.6652
0, 1620.00000, 121.311, -31.0773, 121.588, -151.002, 121.949, 88.9286, 0, 0, 1.26714, -54.1512, 1.26425, -174.076, 1.26051, 65.8546, 0.00734972, 91.6652
0, 1680.00000, 121.311, -31.0773, 121.588, -151.002, 121.949, 88.9286, 0, 0, 1.26714, -54.1512, 1.26425, -174.076, 1.26051, 65.8546, 0.00734972, 91.6652
0, 1740.00000, 121.311, -31.0773, 121.588, -151.002, 121.949, 88.9286, 0, 0, 1.26714, -54.1512, 1.26425, -174.076, 1.26051, 65.8546, 0.00734972, 91.6652
0, 1800.00000, 121.311, -31.0773, 121.588, -151.002, 121.949, 88.9286, 0, 0, 1.26714, -54.1512, 1.26425, -174.076, 1.26051, 65.8546, 0.00734972, 91.6652
0, 1860.00000, 121.311, -31.0773, 121.588, -151.002, 121.949, 88.9286, 0, 0, 1.26714, -54.1512, 1.26425, -174.076, 1.26051, 65.8546, 0.00734972, 91.6652
0, 1920.00000, 121.311, -31.0773, 121.588, -151.002, 121.949, 88.9286, 0, 0, 1.26714, -54.1512, 1.26425, -174.076, 1.26051, 65.8546, 0.00734972, 91.6652
0, 1980.00000, 121.311, -31.0773, 121.588, -151.002, 121.949, 88.9286, 0, 0, 1.26714, -54.1512, 1.26425, -174.076, 1.26051, 65.8546, 0.00734972, 91.6652
0, 2040.00000, 121.311, -31.0773, 121.588, -151.002, 121.949, 88.9286, 0, 0, 1.26714, -54.1512, 1.26425, -174.076, 1.26051, 65.8546, 0.00734972, 91.6652
0, 2100.00000, 121.311, -31.0773, 121.588, -151.002, 121.949, 88.9286, 0, 0, 1.26714, -54.1512, 1.26425, -174.076, 1.26051, 65.8546, 0.00734972, 91.6652
0, 2160.00000, 121.311, -31.0773, 121.588, -151.002, 121.949, 88.9286, 0, 0, 1.26714, -54.1512, 1.26425, -174.076, 1.26051, 65.8546, 0.00734972, 91.6652
0, 2220.00000, 121.311, -31.0773, 121.588, -151.002, 121.949, 88.9286, 0, 0, 1.26714, -54.1512, 1.26425, -174.076, 1.26051, 65.8546, 0.00734972, 91.6652
0, 2280.00000, 121.311, -31.0773, 121.588, -151.002, 121.949, 88.9286, 0, 0, 1.26714, -54.1512, 1.26425, -174.076, 1.26051, 65.8546, 0.00734972, 91.6652
0, 2340.00000, 121.311, -31.0773, 121.588, -151.002, 121.949, 88.9286, 0, 0, 1.26714, -54.1512, 1.26425, -174.076, 1.26051, 65.8546, 0.00734972, 91.6652
0, 2400.00000, 121.311, -31.0773, 121.588, -151.002, 121.949, 88.9286, 0, 0, 1.26714, -54.1512, 1.26425, -174.076, 1.26051, 65.8546, 0.00734972, 91.6652
0, 2460.00000, 121.311, -31.0773, 121.588, -151.002, 121.949, 88.9286, 0, 0, 1.26714, -54.1512, 1.26425, -174.076, 1.26051, 65.8546, 0.00734972, 91.6652
0, 2520.00000, 121.311, -31.0773, 121.588, -151.002, 121.949, 88.9286, 0, 0, 1.26714, -54.1512, 1.26425, -174.076, 1.26051, 65.8546, 0.00734972, 91.6652
0, 2580.00000, 121.311, -31.0773, 121.588, -151.002, 121.949, 88.9286, 0, 0, 1.26714, -54.1512, 1.26425, -174.076, 1.26051, 65.8546, 0.00734972, 91.6652
0, 2640.00000, 121.311, -31.0773, 121.588, -151.002, 121.949, 88.9286, 0, 0, 1.26714, -54.1512, 1.26425, -174.076, 1.26051, 65.8546, 0.00734972, 91.6652
0, 2700.00000, 121.311, -31.0773, 121.588, -151.002, 121.949, 88.9286, 0, 0, 1.26714, -54.1512, 1.26425, -174.076, 1.26051, 65.8546, 0.00734972, 91.6652
0, 2760.00000, 121.311, -31.0773, 121.588, -151.002, 121.949, 88.9286, 0, 0, 1.26714, -54.1512, 1.26425, -174.076, 1.26051, 65.8546, 0.00734972, 91.6652
0, 2820.00000, 121.311, -31.0773, 121.588, -151.002, 121.949, 88.9286, 0, 0, 1.26714, -54.1512, 1.26425, -174.076, 1.26051, 65.8546, 0.00734972, 91.6652
0, 2880.00000, 121.311, -31.0773, 121.588, -151.002, 121.949, 88.9286, 0, 0, 1.26714, -54.1512, 1.26425, -174.076, 1.26051, 65.8546, 0.00734972, 91.6652
0, 2940.00000, 121.311, -31.0773, 121.588, -151.002, 121.949, 88.9286, 0, 0, 1.26714, -54.1512, 1.26425, -174.076, 1.26051, 65.8546, 0.00734972, 91.6652
0, 3000.00000, 121.311, -31.0773, 121.588, -151.002, 121.949, 88.9286, 0, 0, 1.26714, -54.1512, 1.26425, -174.076, 1.26051, 65.8546, 0.00734972, 91.6652
0, 3060.00000, 121.311, -31.0773, 121.588, -151.002, 121.949, 88.9286, 0, 0, 1.26714, -54.1512, 1.26425, -174.076, 1.26051, 65.8546, 0.00734972, 91.6652
0, 3120.00000, 121.311, -31.0773, 121.588, -151.002, 121.949, 88.9286, 0, 0, 1.26714, -54.1512, 1.26425, -174.076, 1.26051, 65.8546, 0.00734972, 91.6652
0, 3180.00000, 121.311, -31.0773, 121.588, -151.002, 121.949, 88.9286, 0, 0, 1.26714, -54.1512, 1.26425, -174.076, 1.26051, 65.8546, 0.00734972, 91.6652
0, 3240.00000, 121.311, -31.0773, 121.588, -151.002, 121.949, 88.9286, 0, 0, 1.26714, -54.1512, 1.26425, -174.076, 1.26051, 65.8546, 0.00734972, 91.6652
0, 3300.00000, 121.311, -31.0773, 121.588, -151.002, 121.949, 88.9286, 0, 0, 1.26714, -54.1512, 1.26425, -174.076, 1.26051, 65.8546, 0.00734972, 91.6652
0, 3360.00000, 121.311, -31.0773, 121.588, -151.002, 121.949, 88.9286, 0, 0, 1.26714, -54.1512, 1.26425, -174.076, 1.26051, 65.8546, 0.00734972, 91.6652
0, 3420.00000, 121.311, -31.0773, 121.588, -151.002, 121.949, 88.9286, 0, 0, 1.26714, -54.1512, 1.26425, -174.076, 1.26051, 65.8546, 0.00734972, 91.6652
0, 3480.00000, 121.311, -31.0773, 121.588, -151.002, 121.949, 88.9286, 0, 0, 1.26714, -54.1512, 1.26425, -174.076, 1.26051, 65.8546, 0.00734972, 91.6652
0, 3540.00000, 121.311, -31.0773, 121.588, -151.002, 121.949, 88.9286, 0, 0, 1.26714, -54.1512, 1.26425, -174.076, 1.26051, 65.8546, 0.00734972, 91.6652
1, 0.00000, 121.311, -31.0773, 121.588, -151.002, 121.949, 88.9286, 0, 0, 1.26714, -54.1512, 1.26425, -174.076, 1.26051, 65.8546, 0.00734972, 91.6652
1, 60.00000, 121.311, -31.0773, 121.588, -151.002, 121.949, 88.9286, 0, 0, 1.26714, -54.1512, 1.26425, -174.076, 1.26051, 65.8546, 0.00734972, 91.6652
1, 120.00000, 121.311, -31.0773, 121.588, -151.002, 121.949, 88.9286, 0, 0, 1.26714, -54.1512, 1.26425, -174.076, 1.26051, 65.8546, 0.00734972, 91.6652
1, 180.00000, 121.311, -31.0773, 121.588, -151.002, 121.949, 88.9286, 0, 0, 1.26714, -54.1512, 1.26425, -174.076, 1.26051, 65.8546, 0.00734972, 91.6652
1, 240.00000, 121.311, -31.0773, 121.588, -151.002, 121.949, 88.9286, 0, 0, 1.26714, -54.1512, 1.26425, -174.076, 1.26051, 65.8546, 0.00734972, 91.6652
1, 300.00000, 121.311, -31.0773, 121.588, -151.002, 121.949, 88.9286, 0, 0, 1.26714, -54.1512, 1.26425, -174.076, 1.26051, 65.8546, 0.00734972, 91.6652
1, 360.00000, 121.311, -31.0773, 121.588, -151.002, 121.949, 88.9286, 0, 0, 1.26714, -54.1512, 1.26425, -174.076, 1.26051, 65.8546, 0.00734972, 91.6652
1, 420.00000, 121.311, -31.0773, 121.588, -151.002, 121.949, 88.9286, 0, 0, 1.26714, -54.1512, 1.26425, -174.076, 1.26051, 65.8546, 0.00734972, 91.6652
1, 480.00000, 121.311, -31.0773, 121.588, -151.002, 121.949, 88.9286, 0, 0, 1.26714, -54.1512, 1.26425, -174.076, 1.26051, 65.8546, 0.00734972, 91.6652
1, 540.00000, 121.311, -31.0773, 121.588, -151.002, 121.949, 88.9286, 0, 0, 1.26714, -54.1512, 1.26425, -174.076, 1.26051, 65.8546, 0.00734972, 91.6652
1, 600.00000, 121.311, -31.0773, 121.588, -151.002, 121.949, 88.9286, 0, 0, 1.26714, -54.1512, 1.26425, -174.076, 1.26051, 65.8546, 0.00734972, 91.6652
1, 660.00000, 121.311, -31.0773, 121.588, -151.002, 121.949, 88.9286, 0, 0, 1.26714, -54.1512, 1.26425, -174.076, 1.26051, 65.8546, 0.00734972, 91.6652
1, 720.00000, 121.311, -31.0773, 121.588, -151.002, 121.949, 88.9286, 0, 0, 1.26714, -54.1512, 1.26425, -174.076, 1.26051, 65.8546, 0.00734972, 91.6652
1, 780.00000, 121.311, -31.0773, 121.588, -151.002, 121.949, 88.9286, 0, 0, 1.26714, -54.1512, 1.26425, -174.076, 1.26051, 65.8546, 0.00734972, 91.6652
1, 840.00000, 121.311, -31.0773, 121.588, -151.002, 121.949, 88.9286, 0, 0, 1.26714, -54.1512, 1.26425, -174.076, 1.26051, 65.8546, 0.00734972, 91.6652
1, 900.00000, 121.311, -31.0773, 121.588, -151.002, 121.949, 88.9286, 0, 0, 1.26714, -54.1512, 1.26425, -174.076, 1.26051, 65.8546, 0.00734972, 91.6652
1, 960.00000, 121.311, -31.0773, 121.588, -151.002, 121.949, 88.9286, 0, 0, 1.26714, -54.1512, 1.26425, -174.076, 1.26051, 65.8546, 0.00734972, 91.6652
1, 1020.00000, 121.311, -31.0773, 121.588, -151.002, 121.949, 88.9286, 0, 0, 1.26714, -54.1512, 1.26425, -174.076, 1.26051, 65.8546, 0.00734972, 91.6652
1, 1080.00000, 121.311, -31.0773, 121.588, -151.002, 121.949, 88.9286, 0, 0, 1.26714, -54.1512, 1.26425, -174.076, 1.26051, 65.8546, 0.00734972, 91.6652
1, 1140.00000, 121.311, -31.0773, 121.588, -151.002, 121.949, 88.9286, 0, 0, 1.26714, -54.1512, 1.26425, -174.076, 1.26051, 65.8546, 0.00734972, 91.6652
1, 1200.00000, 121.311, -31.0773, 121.588, -151.002, 121.949, 88.9286, 0, 0, 1.26714, -54.1512, 1.26425, -174.076, 1.26051, 65.8546, 0.00734972, 91.6652
1, 1260.00000, 121.311, -31.0773, 121.588, -151.002, 121.949, 88.9286, 0, 0, 1.26714, -54.1512, 1.26425, -174.076, 1.26051, 65.8546, 0.00734972, 91.6652
1, 1320.00000, 121.311, -31.0773, 121.588, -151.002, 121.949, 88.9286, 0, 0, 1.26714, -54.1512, 1.26425, -174.076, 1.26051, 65.8546, 0.00734972, 91.6652
1, 1380.00000, 121.311, -31.0773, 121.588, -151.002, 121.949, 88.9286, 0, 0, 1.26714, -54.1512, 1.26425, -174.076, 1.26051, 65.8546, 0.00734972, 91.6652
1, 1440.00000, 121.311, -31.0773, 121.588, -151.002, 121.949, 88.9286, 0, 0, 1.26714, -54.1512, 1.26425, -174.076, 1.26051, 65.8546, 0.00734972, 91.6652
1, 1500.00000, 121.311, -31.0773, 121.588, -151.002, 121.949, 88.9286, 0, 0, 1.26714, -54.1512, 1.26425, -174.076, 1.26051, 65.8546, 0.00734972, 91.6652
1, 1560.00000, 121.311, -31.0773, 121.588, -151.002, 121.949, 88.9286, 0, 0, 1.26714, -54.1512, 1.26425, -174.076, 1.26051, 65.8546, 0.00734972, 91.6652
1, 1620.00000, 121.311, -31.0773, 121.588, -151.002, 121.949, 88.9286, 0, 0, 1.26714, -54.1512, 1.26425, -174.076, 1.26051, 65.8546, 0.00734972, 91.6652
1, 1680.00000, 121.311, -31.0773, 121.588, -151.002, 121.949, 88.9286, 0, 0, 1.26714, -54.1512, 1.26425, -174.076, 1.26051, 65.8546, 0.00734972, 91.6652
1, 1740.00000, 121.311, -31.0773, 121.588, -151.002, 121.949, 88.9286, 0, 0, 1.26714, -54.1512, 1.26425, -174.076, 1.26051, 65.8546, 0.00734972, 91.6652
1, 1800.00000, 121.311, -31.0773, 121.588, -151.002, 121.949, 88.9286, 0, 0, 1.26714, -54.1512, 1.26425, -174.076, 1.26051, 65.8546, 0.00734972, 91.6652
1, 1860.00000, 121.311, -31.0773, 121.588, -151.002, 121.949, 88.9286, 0, 0, 1.26714, -54.1512, 1.26425, -174.076, 1.26051, 65.8546, 0.00734972, 91.6652
1, 1920.00000, 121.311, -31.0773, 121.588, -151.002, 121.949, 88.9286, 0, 0, 1.26714, -54.1512, 1.26425, -174.076, 1.26051, 65.8546, 0.00734972, 91.6652
1, 1980.00000, 121.311, -31.0773, 121.588, -151.002, 121.949, 88.9286, 0, 0, 1.26714, -54.1512, 1.26425, -174.076, 1.26051, 65.8546, 0.00734972, 91.6652
1, 2040.00000, 121.311, -31.0773, 121.588, -151.002, 121.949, 88.9286, 0, 0, 1.26714, -54.1512, 1.26425, -174.076, 1.26051, 65.8546, 0.00734972, 91.6652
1, 2100.00000, 121.311, -31.0773, 121.588, -151.002, 121.949, 88.9286, 0, 0, 1.26714, -54.1512, 1.26425, -174.076, 1.26051, 65.8546, 0.00734972, 91.6652
1, 2160.00000, 121.311, -31.0773, 121.588, -151.002, 121.949, 88.9286, 0, 0, 1.26714, -54.1512, 1.26425, -174.076, 1.26051, 65.8546, 0.00734972, 91.6652
1, 2220.00000, 121.311, -31.0773, 121.588, -151.002, 121.949, 88.9286, 0, 0, 1.26714, -54.1512, 1.26425, -174.076, 1.26051, 65.8546, 0.00734972, 91.6652
1, 2280.00000, 121.311, -31.0773, 121.588, -151.002, 121.949, 88.9286, 0, 0, 1.26714, -54.1512, 1.26425, -174.076, 1.26051, 65.8546, 0.00734972, 91.6652
1, 2340.00000, 121.311, -31.0773, 121.588, -151.002, 121.949, 88.9286, 0, 0, 1.26714, -54.1512, 1.26425, -174.076, 1.26051, 65.8546, 0.00734972, 91.6652
1, 2400.00000, 121.311, -31.0773, 121.588, -151.002, 121.949, 88.9286, 0, 0, 1.26714, -54.1512, 1.26425, -174.076, 1.26051, 65.8546, 0.00734972, 91.6652
1, 2460.00000, 121.311, -31.0773, 121.588, -151.002, 121.949, 88.9286, 0, 0, 1.26714, -54.1512, 1.26425, -174.076, 1.26051, 65.8546, 0.00734972, 91.6652
1, 2520.00000, 121.311, -31.0773, 121.588, -151.002, 121.949, 88.9286, 0, 0, 1.26714, -54.1512, 1.26425, -174.076, 1.26051, 65.8546, 0.00734972, 91.6652
1, 2580.00000, 121.311, -31.0773, 121.588, -151.002, 121.949, 88.9286, 0, 0, 1.26714, -54.1512, 1.26425, -174.076, 1.26051, 65.8546, 0.00734972, 91.6652
1, 2640.00000, 121.311, -31.0773, 121.588, -151.002, 121.949, 88.9286, 0, 0, 1.26714, -54.1512, 1.26425, -174.076, 1.26051, 65.8546, 0.00734972, 91.6652
1, 2700.00000, 121.311, -31.0773, 121.588, -151.002, 121.949, 88.9286, 0, 0, 1.26714, -54.1512, 1.26425, -174.076, 1.26051, 65.8546, 0.00734972, 91.6652
1, 2760.00000, 121.311, -31.0773, 121.588, -151.002, 121.949, 88.9286, 0, 0, 1.26714, -54.1512, 1.26425, -174.076, 1.26051, 65.8546, 0.00734972, 91.6652
1, 2820.00000, 121.311, -31.0773, 121.588, -151.002, 121.949, 88.9286, 0, 0, 1.26714, -54.1512, 1.26425, -174.076, 1.26051, 65.8546, 0.00734972, 91.6652
1, 2880.00000, 121.311, -31.0773, 121.588, -151.002, 121.949, 88.9286, 0, 0, 1.26714, -54.1512, 1.26425, -174.076, 1.26051, 65.8546, 0.00734972, 91.6652
1, 2940.00000, 121.311, -31.0773, 121.588, -151.002, 121.949, 88.9286, 0, 0, 1.26714, -54.1512, 1.26425, -174.076, 1.26051, 65.8546, 0.00734972, 91.6652
1, 3000.00000, 121.311, -31.0773, 121.588, -151.002, 121.949, 88.9286, 0, 0, 1.26714, -54.1512, 1.26425, -174.076, 1.26051, 65.8546, 0.00734972, 91.6652
1, 3060.00000, 121.311, -31.0773, 121.588, -151.002, 121.949, 88.9286, 0, 0, 1.26714, -54.1512, 1.26425, -174.076, 1.26051, 65.8546, 0.00734972, 91.6652
1, 3120.00000, 121.311, -31.0773, 121.588, -151.002, 121.949, 88.9286, 0, 0, 1.26714, -54.1512, 1.26425, -174.076, 1.26051, 65.8546, 0.00734972, 91.6652
1, 3180.00000, 121.311, -31.0773, 121.588, -151.002, 121.949, 88.9286, 0, 0, 1.26714, -54.1512, 1.26425, -174.076, 1.26051, 65.8546, 0.00734972, 91.6652
1, 3240.00000, 121.311, -31.0773, 121.588, -151.002, 121.949, 88.9286, 0, 0, 1.26714, -54.1512, 1.26425, -174.076, 1.26051, 65.8546, 0.00734972, 91.6652
1, 3300.00000, 121.311, -31.0773, 121.588, -151.002, 121.949, 88.9286, 0, 0, 1.26714, -54.1512, 1.26425, -174.076, 1.26051, 65.8546, 0.00734972, 91.6652
1, 3360.00000, 121.311, -31.0773, 121.588, -151.002, 121.949, 88.9286, 0, 0, 1.26714, -54.1512, 1.26425, -174.076, 1.26051, 65.8546, 0.00734972, 91.6652
1, 3420.00000, 121.311, -31.0773, 121.588, -151.002, 121.949, 88.9286, 0, 0, 1.26714, -54.1512, 1.26425, -174.076, 1.26051, 65.8546, 0.00734972, 91.6652
1, 3480.00000, 121.311, -31.0773, 121.588, -151.002, 121.949, 88.9286, 0, 0, 1.26714, -54.1512, 1.26425, -174.076, 1.26051, 65.8546, 0.00734972, 91.6652
1, 3540.00000, 121.311, -31.0773, 121.588, -151.002, 121.949, 88.9286, 0, 0, 1.26714, -54.1512, 1.26425, -174.076, 1.26051, 65.8546, 0.00734972, 91.6652
2, 0.00000, 121.311, -31.0773, 121.588, -151.002, 121.949, 88.9286, 0, 0, 1.26714, -54.1512, 1.26425, -174.076, 1.26051, 65.8546, 0.00734972, 91.6652
2, 60.00000, 121.311, -31.0773, 121.588, -151.002, 121.949, 88.9286, 0, 0, 1.26714, -54.1512, 1.26425, -174.076, 1.26051, 65.8546, 0.00734972, 91.6652
2, 120.00000, 121.311, -31.0773, 121.588, -151.002, 121.949, 88.9286, 0, 0, 1.26714, -54.1512, 1.26425, -174.076, 1.26051, 65.8546, 0.00734972, 91.6652
2, 180.00000, 121.311, -31.0773, 121.588, -151.002, 121.949, 88.9286, 0, 0, 1.26714, -54.1512, 1.26425, -174.076, 1.26051, 65.8546, 0.00734972, 91.6652
2, 240.00000, 121.311, -31.0773, 121.588, -151.002, 121.949, 88.9286, 0, 0, 1.26714, -54.1512, 1.26425, -174.076, 1.26051, 65.8546, 0.00734972, 91.6652
2, 300.00000, 121.311, -31.0773, 121.588, -151.002, 121.949, 88.9286, 0, 0, 1.26714, -54.1512, 1.26425, -174.076, 1.26051, 65.8546, 0.00734972, 91.6652
2, 360.00000, 121.311, -31.0773, 121.588, -151.002, 121.949, 88.9286, 0, 0, 1.26714, -54.1512, 1.26425, -174.076, 1.26051, 65.8546, 0.00734972, 91.6652
2, 420.00000, 121.311, -31.0773, 121.588, -151.002, 121.949, 88.9286, 0, 0, 1.26714, -54.1512, 1.26425, -174.076, 1.26051, 65.8546, 0.00734972, 91.6652
2, 480.00000, 121.311, -31.0773, 121.588, -151.002, 121.949, 88.9286, 0, 0, 1.26714, -54.1512, 1.26425, -174.076, 1.26051, 65.8546, 0.00734972, 91.6652
2, 540.00000, 121.311, -31.0773, 121.588, -151.002, 121.949, 88.9286, 0, 0, 1.26714, -54.1512, 1.26425, -174.076, 1.26051, 65.8546, 0.00734972, 91.6652
2, 600.00000, 121.311, -31.0773, 121.588, -151.002, 121.949, 88.9286, 0, 0, 1.26714, -54.1512, 1.26425, -174.076, 1.26051, 65.8546, 0.00734972, 91.6652
