hour,t(sec),V1,VAngle1,V2,VAngle2,V3,VAngle3,V4,VAngle4,I1,IAngle1,I2,IAngle2,I3,IAngle3,I4,IAngle4
0, 60.00000, 121.194, -31.767, 120.86, -151.159, 122.791, 88.6649, 0, 0, 0.821404, -54.8406, 0.82367, -174.233, 0.810723, 65.5912, 0.0197215, 54.443
0, 120.00000, 121.193, -31.767, 120.86, -151.159, 122.791, 88.6649, 0, 0, 0.821422, -54.8409, 0.823689, -174.233, 0.810735, 65.5909, 0.0197283, 54.4488
0, 180.00000, 121.193, -31.767, 120.86, -151.159, 122.791, 88.6649, 0, 0, 0.821422, -54.8409, 0.823689, -174.233, 0.810736, 65.5909, 0.0197283, 54.4488
0, 240.00000, 121.193, -31.767, 120.86, -151.159, 122.791, 88.6649, 0, 0, 0.821422, -54.8409, 0.823689, -174.233, 0.810736, 65.5909, 0.0197283, 54.4488
0, 300.00000, 121.193, -31.767, 120.86, -151.159, 122.791, 88.6649, 0, 0, 0.821422, -54.8409, 0.823689, -174.233, 0.810736, 65.5909, 0.0197283, 54.4488
0, 360.00000, 121.193, -31.767, 120.86, -151.159, 122.791, 88.6649, 0, 0, 0.821422, -54.8409, 0.823689, -174.233, 0.810736, 65.5909, 0.0197283, 54.4488
0, 420.00000, 121.193, -31.767, 120.86, -151.159, 122.791, 88.6649, 0, 0, 0.821422, -54.8409, 0.823689, -174.233, 0.810736, 65.5909, 0.0197283, 54.4488
0, 480.00000, 122.01, -31.6604, 121.635, -151.052, 123.553, 88.7887, 0, 0, 0.413758, -54.7348, 0.415033, -174.126, 0.408597, 65.7142, 0.00983896, 53.0461
0, 540.00000, 122.01, -31.6604, 121.635, -151.053, 123.553, 88.7888, 0, 0, 0.413749, -54.7343, 0.415025, -174.126, 0.408583, 65.7149, 0.00984186, 53.0262
0, 600.00000, 122.01, -31.6604, 121.635, -151.053, 123.553, 88.7888, 0, 0, 0.413749, -54.7343, 0.415025, -174.126, 0.408583, 65.7149, 0.00984197, 53.026
0, 660.00000, 122.01, -31.6604, 121.635, -151.053, 123.553, 88.7888, 0, 0, 0.413749, -54.7343, 0.415025, -174.126, 0.408583, 65.7149, 0.00984197, 53.026
0, 720.00000, 122.01, -31.6604, 121.635, -151.053, 123.553, 88.7888, 0, 0, 0.413749, -54.7343, 0.415025, -174.126, 0.408583, 65.7149, 0.00984197, 53.026
0, 780.00000, 122.01, -31.6604, 121.635, -151.053, 123.553, 88.7888, 0, 0, 0.413749, -54.7343, 0.415025, -174.126, 0.408583, 65.7149, 0.00984197, 53.026
0, 840.00000, 122.01, -31.6604, 121.635, -151.053, 123.553, 88.7888, 0, 0, 0.413749, -54.7343, 0.415025, -174.126, 0.408583, 65.7149, 0.00984197, 53.026
0, 900.00000, 122.01, -31.6604, 121.635, -151.053, 123.553, 88.7888, 0, 0, 0.413749, -54.7343, 0.415025, -174.126, 0.408583, 65.7149, 0.00984197, 53.026
0, 960.00000, 122.01, -31.6604, 121.635, -151.053, 123.553, 88.7888, 0, 0, 0.413749, -54.7343, 0.415025, -174.126, 0.408583, 65.7149, 0.00984197, 53.026
0, 1020.00000, 122.01, -31.6604, 121.635, -151.053, 123.553, 88.7888, 0, 0, 0.413749, -54.7343, 0.415025, -174.126, 0.408583, 65.7149, 0.00984197, 53.026
0, 1080.00000, 122.01, -31.6604, 121.635, -151.053, 123.553, 88.7888, 0, 0, 0.413749, -54.7343, 0.415025, -174.126, 0.408583, 65.7149, 0.00984197, 53.026
0, 1140.00000, 122.01, -31.6604, 121.635, -151.053, 123.553, 88.7888, 0, 0, 0.413749, -54.7343, 0.415025, -174.126, 0.408583, 65.7149, 0.00984197, 53.026
0, 1200.00000, 122.01, -31.6604, 121.635, -151.053, 123.553, 88.7888, 0, 0, 0.413749, -54.7343, 0.415025, -174.126, 0.408583, 65.7149, 0.00984197, 53.026
0, 1260.00000, 122.01, -31.6604, 121.635, -151.053, 123.553, 88.7888, 0, 0, 0.413749, -54.7343, 0.415025, -174.126, 0.408583, 65.7149, 0.00984197, 53.026
0, 1320.00000, 122.01, -31.6604, 121.635, -151.053, 123.553, 88.7888, 0, 0, 0.413749, -54.7343, 0.415025, -174.126, 0.408583, 65.7149, 0.00984197, 53.026
0, 1380.00000, 122.01, -31.6604, 121.635, -151.053, 123.553, 88.7888, 0, 0, 0.413749, -54.7343, 0.415025, -174.126, 0.408583, 65.7149, 0.00984197, 53.026
0, 1440.00000, 122.01, -31.6604, 121.635, -151.053, 123.553, 88.7888, 0, 0, 0.413749, -54.7343, 0.415025, -174.126, 0.408583, 65.7149, 0.00984197, 53.026
0, 1500.00000, 122.01, -31.6604, 121.635, -151.053, 123.553, 88.7888, 0, 0, 0.413749, -54.7343, 0.415025, -174.126, 0.408583, 65.7149, 0.00984197, 53.026
0, 1560.00000, 122.01, -31.6604, 121.635, -151.053, 123.553, 88.7888, 0, 0, 0.413749, -54.7343, 0.415025, -174.126, 0.408583, 65.7149, 0.00984197, 53.026
0, 1620.00000, 122.01, -31.6604, 121.635, -151.053, 123.553, 88.7888, 0, 0, 0.413749, -54.7343, 0.415025, -174.126, 0.408583, 65.7149, 0.00984197, 53.026
0, 1680.00000, 122.01, -31.6604, 121.635, -151.053, 123.553, 88.7888, 0, 0, 0.413749, -54.7343, 0.415025, -174.126, 0.408583, 65.7149, 0.00984197, 53.026
0, 1740.00000, 122.01, -31.6604, 121.635, -151.053, 123.553, 88.7888, 0, 0, 0.413749, -54.7343, 0.415025, -174.126, 0.408583, 65.7149, 0.00984197, 53.026
0, 1800.00000, 122.01, -31.6604, 121.635, -151.053, 123.553, 88.7888, 0, 0, 0.413749, -54.7343, 0.415025, -174.126, 0.408583, 65.7149, 0.00984197, 53.026
0, 1860.00000, 122.01, -31.6604, 121.635, -151.053, 123.553, 88.7888, 0, 0, 0.413749, -54.7343, 0.415025, -174.126, 0.408583, 65.7149, 0.00984197, 53.026
0, 1920.00000, 122.01, -31.6604, 121.635, -151.053, 123.553, 88.7888, 0, 0, 0.413749, -54.7343, 0.415025, -174.126, 0.408583, 65.7149, 0.00984197, 53.026
0, 1980.00000, 122.01, -31.6604, 121.635, -151.053, 123.553, 88.7888, 0, 0, 0.413749, -54.7343, 0.415025, -174.126, 0.408583, 65.7149, 0.00984197, 53.026
0, 2040.00000, 122.01, -31.6604, 121.635, -151.053, 123.553, 88.7888, 0, 0, 0.413749, -54.7343, 0.415025, -174.126, 0.408583, 65.7149, 0.00984197, 53.026
0, 2100.00000, 122.01, -31.6604, 121.635, -151.053, 123.553, 88.7888, 0, 0, 0.413749, -54.7343, 0.415025, -174.126, 0.408583, 65.7149, 0.00984197, 53.026
0, 2160.00000, 122.01, -31.6604, 121.635, -151.053, 123.553, 88.7888, 0, 0, 0.413749, -54.7343, 0.415025, -174.126, 0.408583, 65.7149, 0.00984197, 53.026
0, 2220.00000, 122.01, -31.6604, 121.635, -151.053, 123.553, 88.7888, 0, 0, 0.413749, -54.7343, 0.415025, -174.126, 0.408583, 65.7149, 0.00984197, 53.026
0, 2280.00000, 122.01, -31.6604, 121.635, -151.053, 123.553, 88.7888, 0, 0, 0.413749, -54.7343, 0.415025, -174.126, 0.408583, 65.7149, 0.00984197, 53.026
0, 2340.00000, 122.01, -31.6604, 121.635, -151.053, 123.553, 88.7888, 0, 0, 0.413749, -54.7343, 0.415025, -174.126, 0.408583, 65.7149, 0.00984197, 53.026
0, 2400.00000, 122.01, -31.6604, 121.635, -151.053, 123.553, 88.7888, 0, 0, 0.413749, -54.7343, 0.415025, -174.126, 0.408583, 65.7149, 0.00984197, 53.026
0, 2460.00000, 122.01, -31.6604, 121.635, -151.053, 123.553, 88.7888, 0, 0, 0.413749, -54.7343, 0.415025, -174.126, 0.408583, 65.7149, 0.00984197, 53.026
0, 2520.00000, 122.01, -31.6604, 121.635, -151.053, 123.553, 88.7888, 0, 0, 0.413749, -54.7343, 0.415025, -174.126, 0.408583, 65.7149, 0.00984197, 53.026
0, 2580.00000, 122.01, -31.6604, 121.635, -151.053, 123.553, 88.7888, 0, 0, 0.413749, -54.7343, 0.415025, -174.126, 0.408583, 65.7149, 0.00984197, 53.026
0, 2640.00000, 122.01, -31.6604, 121.635, -151.053, 123.553, 88.7888, 0, 0, 0.413749, -54.7343, 0.415025, -174.126, 0.408583, 65.7149, 0.00984197, 53.026
0, 2700.00000, 122.01, -31.6604, 121.635, -151.053, 123.553, 88.7888, 0, 0, 0.413749, -54.7343, 0.415025, -174.126, 0.408583, 65.7149, 0.00984197, 53.026
0, 2760.00000, 122.01, -31.6604, 121.635, -151.053, 123.553, 88.7888, 0, 0, 0.413749, -54.7343, 0.415025, -174.126, 0.408583, 65.7149, 0.00984197, 53.026
0, 2820.00000, 122.01, -31.6604, 121.635, -151.053, 123.553, 88.7888, 0, 0, 0.413749, -54.7343, 0.415025, -174.126, 0.408583, 65.7149, 0.00984197, 53.026
0, 2880.00000, 122.01, -31.6604, 121.635, -151.053, 123.553, 88.7888, 0, 0, 0.413749, -54.7343, 0.415025, -174.126, 0.408583, 65.7149, 0.00984197, 53.026
0, 2940.00000, 122.01, -31.6604, 121.635, -151.053, 123.553, 88.7888, 0, 0, 0.413749, -54.7343, 0.415025, -174.126, 0.408583, 65.7149, 0.00984197, 53.026
0, 3000.00000, 122.01, -31.6604, 121.635, -151.053, 123.553, 88.7888, 0, 0, 0.413749, -54.7343, 0.415025, -174.126, 0.408583, 65.7149, 0.00984197, 53.026
0, 3060.00000, 122.01, -31.6604, 121.635, -151.053, 123.553, 88.7888, 0, 0, 0.413749, -54.7343, 0.415025, -174.126, 0.408583, 65.7149, 0.00984197, 53.026
0, 3120.00000, 122.01, -31.6604, 121.635, -151.053, 123.553, 88.7888, 0, 0, 0.413749, -54.7343, 0.415025, -174.126, 0.408583, 65.7149, 0.00984197, 53.026
0, 3180.00000, 122.01, -31.6604, 121.635, -151.053, 123.553, 88.7888, 0, 0, 0.413749, -54.7343, 0.415025, -174.126, 0.408583, 65.7149, 0.00984197, 53.026
0, 3240.00000, 122.01, -31.6604, 121.635, -151.053, 123.553, 88.7888, 0, 0, 0.413749, -54.7343, 0.415025, -174.126, 0.408583, 65.7149, 0.00984197, 53.026
0, 3300.00000, 122.01, -31.6604, 121.635, -151.053, 123.553, 88.7888, 0, 0, 0.413749, -54.7343, 0.415025, -174.126, 0.408583, 65.7149, 0.00984197, 53.026
0, 3360.00000, 122.01, -31.6604, 121.635, -151.053, 123.553, 88.7888, 0, 0, 0.413749, -54.7343, 0.415025, -174.126, 0.408583, 65.7149, 0.00984197, 53.026
0, 3420.00000, 122.01, -31.6604, 121.635, -151.053, 123.553, 88.7888, 0, 0, 0.413749, -54.7343, 0.415025, -174.126, 0.408583, 65.7149, 0.00984197, 53.026
0, 3480.00000, 122.01, -31.6604, 121.635, -151.053, 123.553, 88.7888, 0, 0, 0.413749, -54.7343, 0.415025, -174.126, 0.408583, 65.7149, 0.00984197, 53.026
0, 3540.00000, 122.01, -31.6604, 121.635, -151.053, 123.553, 88.7888, 0, 0, 0.413749, -54.7343, 0.415025, -174.126, 0.408583, 65.7149, 0.00984197, 53.026
1, 0.00000, 122.01, -31.6604, 121.635, -151.053, 123.553, 88.7888, 0, 0, 0.413749, -54.7343, 0.415025, -174.126, 0.408583, 65.7149, 0.00984197, 53.026
1, 60.00000, 122.263, -31.4898, 122.103, -151.058, 123.523, 88.7931, 0, 0, 0.4129, -54.5636, 0.413444, -174.133, 0.40868, 65.7192, 0.00724366, 58.1197
1, 120.00000, 122.263, -31.4898, 122.103, -151.058, 123.522, 88.7931, 0, 0, 0.412895, -54.5638, 0.413434, -174.132, 0.408685, 65.7192, 0.007235, 58.148
1, 180.00000, 122.263, -31.4898, 122.103, -151.058, 123.522, 88.7931, 0, 0, 0.412895, -54.5638, 0.413434, -174.132, 0.408685, 65.7192, 0.00723495, 58.1481
1, 240.00000, 122.263, -31.4898, 122.103, -151.058, 123.522, 88.7931, 0, 0, 0.412895, -54.5638, 0.413434, -174.132, 0.408685, 65.7192, 0.00723495, 58.1481
1, 300.00000, 122.263, -31.4898, 122.103, -151.058, 123.522, 88.7931, 0, 0, 0.412895, -54.5638, 0.413434, -174.132, 0.408685, 65.7192, 0.00723495, 58.1481
1, 360.00000, 122.263, -31.4898, 122.103, -151.058, 123.522, 88.7931, 0, 0, 0.412895, -54.5638, 0.413434, -174.132, 0.408685, 65.7192, 0.00723495, 58.1481
1, 420.00000, 122.263, -31.4898, 122.103, -151.058, 123.522, 88.7931, 0, 0, 0.412895, -54.5638, 0.413434, -174.132, 0.408685, 65.7192, 0.00723495, 58.1481
1, 480.00000, 122.263, -31.4898, 122.103, -151.058, 123.522, 88.7931, 0, 0, 0.412895, -54.5638, 0.413434, -174.132, 0.408685, 65.7192, 0.00723495, 58.1481
1, 540.00000, 122.263, -31.4898, 122.103, -151.058, 123.522, 88.7931, 0, 0, 0.412895, -54.5638, 0.413434, -174.132, 0.408685, 65.7192, 0.00723495, 58.1481
1, 600.00000, 122.263, -31.4898, 122.103, -151.058, 123.522, 88.7931, 0, 0, 0.412895, -54.5638, 0.413434, -174.132, 0.408685, 65.7192, 0.00723495, 58.1481
1, 660.00000, 122.263, -31.4898, 122.103, -151.058, 123.522, 88.7931, 0, 0, 0.412895, -54.5638, 0.413434, -174.132, 0.408685, 65.7192, 0.00723495, 58.1481
1, 720.00000, 122.263, -31.4898, 122.103, -151.058, 123.522, 88.7931, 0, 0, 0.412895, -54.5638, 0.413434, -174.132, 0.408685, 65.7192, 0.00723495, 58.1481
1, 780.00000, 122.263, -31.4898, 122.103, -151.058, 123.522, 88.7931, 0, 0, 0.412895, -54.5638, 0.413434, -174.132, 0.408685, 65.7192, 0.00723495, 58.1481
1, 840.00000, 122.263, -31.4898, 122.103, -151.058, 123.522, 88.7931, 0, 0, 0.412895, -54.5638, 0.413434, -174.132, 0.408685, 65.7192, 0.00723495, 58.1481
1, 900.00000, 122.263, -31.4898, 122.103, -151.058, 123.522, 88.7931, 0, 0, 0.412895, -54.5638, 0.413434, -174.132, 0.408685, 65.7192, 0.00723495, 58.1481
1, 960.00000, 122.263, -31.4898, 122.103, -151.058, 123.522, 88.7931, 0, 0, 0.412895, -54.5638, 0.413434, -174.132, 0.408685, 65.7192, 0.00723495, 58.1481
1, 1020.00000, 122.263, -31.4898, 122.103, -151.058, 123.522, 88.7931, 0, 0, 0.412895, -54.5638, 0.413434, -174.132, 0.408685, 65.7192, 0.00723495, 58.1481
1, 1080.00000, 122.263, -31.4898, 122.103, -151.058, 123.522, 88.7931, 0, 0, 0.412895, -54.5638, 0.413434, -174.132, 0.408685, 65.7192, 0.00723495, 58.1481
1, 1140.00000, 122.263, -31.4898, 122.103, -151.058, 123.522, 88.7931, 0, 0, 0.412895, -54.5638, 0.413434, -174.132, 0.408685, 65.7192, 0.00723495, 58.1481
1, 1200.00000, 122.263, -31.4898, 122.103, -151.058, 123.522, 88.7931, 0, 0, 0.412895, -54.5638, 0.413434, -174.132, 0.408685, 65.7192, 0.00723495, 58.1481
1, 1260.00000, 122.263, -31.4898, 122.103, -151.058, 123.522, 88.7931, 0, 0, 0.412895, -54.5638, 0.413434, -174.132, 0.408685, 65.7192, 0.00723495, 58.1481
1, 1320.00000, 122.263, -31.4898, 122.103, -151.058, 123.522, 88.7931, 0, 0, 0.412895, -54.5638, 0.413434, -174.132, 0.408685, 65.7192, 0.00723495, 58.1481
1, 1380.00000, 122.263, -31.4898, 122.103, -151.058, 123.522, 88.7931, 0, 0, 0.412895, -54.5638, 0.413434, -174.132, 0.408685, 65.7192, 0.00723495, 58.1481
1, 1440.00000, 122.263, -31.4898, 122.103, -151.058, 123.522, 88.7931, 0, 0, 0.412895, -54.5638, 0.413434, -174.132, 0.408685, 65.7192, 0.00723495, 58.1481
1, 1500.00000, 122.263, -31.4898, 122.103, -151.058, 123.522, 88.7931, 0, 0, 0.412895, -54.5638, 0.413434, -174.132, 0.408685, 65.7192, 0.00723495, 58.1481
1, 1560.00000, 122.263, -31.4898, 122.103, -151.058, 123.522, 88.7931, 0, 0, 0.412895, -54.5638, 0.413434, -174.132, 0.408685, 65.7192, 0.00723495, 58.1481
1, 1620.00000, 122.263, -31.4898, 122.103, -151.058, 123.522, 88.7931, 0, 0, 0.412895, -54.5638, 0.413434, -174.132, 0.408685, 65.7192, 0.00723495, 58.1481
1, 1680.00000, 122.263, -31.4898, 122.103, -151.058, 123.522, 88.7931, 0, 0, 0.412895, -54.5638, 0.413434, -174.132, 0.408685, 65.7192, 0.00723495, 58.1481
1, 1740.00000, 122.263, -31.4898, 122.103, -151.058, 123.522, 88.7931, 0, 0, 0.412895, -54.5638, 0.413434, -174.132, 0.408685, 65.7192, 0.00723495, 58.1481
1, 1800.00000, 122.263, -31.4898, 122.103, -151.058, 123.522, 88.7931, 0, 0, 0.412895, -54.5638, 0.413434, -174.132, 0.408685, 65.7192, 0.00723495, 58.1481
1, 1860.00000, 122.263, -31.4898, 122.103, -151.058, 123.522, 88.7931, 0, 0, 0.412895, -54.5638, 0.413434, -174.132, 0.408685, 65.7192, 0.00723495, 58.1481
1, 1920.00000, 122.263, -31.4898, 122.103, -151.058, 123.522, 88.7931, 0, 0, 0.412895, -54.5638, 0.413434, -174.132, 0.408685, 65.7192, 0.00723495, 58.1481
1, 1980.00000, 122.263, -31.4898, 122.103, -151.058, 123.522, 88.7931, 0, 0, 0.412895, -54.5638, 0.413434, -174.132, 0.408685, 65.7192, 0.00723495, 58.1481
1, 2040.00000, 122.263, -31.4898, 122.103, -151.058, 123.522, 88.7931, 0, 0, 0.412895, -54.5638, 0.413434, -174.132, 0.408685, 65.7192, 0.00723495, 58.1481
1, 2100.00000, 122.263, -31.4898, 122.103, -151.058, 123.522, 88.7931, 0, 0, 0.412895, -54.5638, 0.413434, -174.132, 0.408685, 65.7192, 0.00723495, 58.1481
1, 2160.00000, 122.263, -31.4898, 122.103, -151.058, 123.522, 88.7931, 0, 0, 0.412895, -54.5638, 0.413434, -174.132, 0.408685, 65.7192, 0.00723495, 58.1481
1, 2220.00000, 122.263, -31.4898, 122.103, -151.058, 123.522, 88.7931, 0, 0, 0.412895, -54.5638, 0.413434, -174.132, 0.408685, 65.7192, 0.00723495, 58.1481
1, 2280.00000, 122.263, -31.4898, 122.103, -151.058, 123.522, 88.7931, 0, 0, 0.412895, -54.5638, 0.413434, -174.132, 0.408685, 65.7192, 0.00723495, 58.1481
1, 2340.00000, 122.263, -31.4898, 122.103, -151.058, 123.522, 88.7931, 0, 0, 0.412895, -54.5638, 0.413434, -174.132, 0.408685, 65.7192, 0.00723495, 58.1481
1, 2400.00000, 122.263, -31.4898, 122.103, -151.058, 123.522, 88.7931, 0, 0, 0.412895, -54.5638, 0.413434, -174.132, 0.408685, 65.7192, 0.00723495, 58.1481
1, 2460.00000, 122.263, -31.4898, 122.103, -151.058, 123.522, 88.7931, 0, 0, 0.412895, -54.5638, 0.413434, -174.132, 0.408685, 65.7192, 0.00723495, 58.1481
1, 2520.00000, 122.263, -31.4898, 122.103, -151.058, 123.522, 88.7931, 0, 0, 0.412895, -54.5638, 0.413434, -174.132, 0.408685, 65.7192, 0.00723495, 58.1481
1, 2580.00000, 122.263, -31.4898, 122.103, -151.058, 123.522, 88.7931, 0, 0, 0.412895, -54.5638, 0.413434, -174.132, 0.408685, 65.7192, 0.00723495, 58.1481
1, 2640.00000, 122.263, -31.4898, 122.103, -151.058, 123.522, 88.7931, 0, 0, 0.412895, -54.5638, 0.413434, -174.132, 0.408685, 65.7192, 0.00723495, 58.1481
1, 2700.00000, 122.263, -31.4898, 122.103, -151.058, 123.522, 88.7931, 0, 0, 0.412895, -54.5638, 0.413434, -174.132, 0.408685, 65.7192, 0.00723495, 58.1481
1, 2760.00000, 122.263, -31.4898, 122.103, -151.058, 123.522, 88.7931, 0, 0, 0.412895, -54.5638, 0.413434, -174.132, 0.408685, 65.7192, 0.00723495, 58.1481
1, 2820.00000, 122.263, -31.4898, 122.103, -151.058, 123.522, 88.7931, 0, 0, 0.412895, -54.5638, 0.413434, -174.132, 0.408685, 65.7192, 0.00723495, 58.1481
1, 2880.00000, 122.263, -31.4898, 122.103, -151.058, 123.522, 88.7931, 0, 0, 0.412895, -54.5638, 0.413434, -174.132, 0.408685, 65.7192, 0.00723495, 58.1481
1, 2940.00000, 122.263, -31.4898, 122.103, -151.058, 123.522, 88.7931, 0, 0, 0.412895, -54.5638, 0.413434, -174.132, 0.408685, 65.7192, 0.00723495, 58.1481
1, 3000.00000, 122.263, -31.4898, 122.103, -151.058, 123.522, 88.7931, 0, 0, 0.412895, -54.5638, 0.413434, -174.132, 0.408685, 65.7192, 0.00723495, 58.1481
1, 3060.00000, 122.263, -31.4898, 122.103, -151.058, 123.522, 88.7931, 0, 0, 0.412895, -54.5638, 0.413434, -174.132, 0.408685, 65.7192, 0.00723495, 58.1481
1, 3120.00000, 122.263, -31.4898, 122.103, -151.058, 123.522, 88.7931, 0, 0, 0.412895, -54.5638, 0.413434, -174.132, 0.408685, 65.7192, 0.00723495, 58.1481
1, 3180.00000, 122.263, -31.4898, 122.103, -151.058, 123.522, 88.7931, 0, 0, 0.412895, -54.5638, 0.413434, -174.132, 0.408685, 65.7192, 0.00723495, 58.1481
1, 3240.00000, 122.263, -31.4898, 122.103, -151.058, 123.522, 88.7931, 0, 0, 0.412895, -54.5638, 0.413434, -174.132, 0.408685, 65.7192, 0.00723495, 58.1481
1, 3300.00000, 122.263, -31.4898, 122.103, -151.058, 123.522, 88.7931, 0, 0, 0.412895, -54.5638, 0.413434, -174.132, 0.408685, 65.7192, 0.00723495, 58.1481
1, 3360.00000, 122.263, -31.4898, 122.103, -151.058, 123.522, 88.7931, 0, 0, 0.412895, -54.5638, 0.413434, -174.132, 0.408685, 65.7192, 0.00723495, 58.1481
1, 3420.00000, 122.263, -31.4898, 122.103, -151.058, 123.522, 88.7931, 0, 0, 0.412895, -54.5638, 0.413434, -174.132, 0.408685, 65.7192, 0.00723495, 58.1481
1, 3480.00000, 122.263, -31.4898, 122.103, -151.058, 123.522, 88.7931, 0, 0, 0.412895, -54.5638, 0.413434, -174.132, 0.408685, 65.7192, 0.00723495, 58.1481
1, 3540.00000, 122.263, -31.4898, 122.103, -151.058, 123.522, 88.7931, 0, 0, 0.412895, -54.5638, 0.413434, -174.132, 0.408685, 65.7192, 0.00723495, 58.1481
2, 0.00000, 122.263, -31.4898, 122.103, -151.058, 123.522, 88.7931, 0, 0, 0.412895, -54.5638, 0.413434, -174.132, 0.408685, 65.7192, 0.00723495, 58.1481
2, 60.00000, 122.263, -31.4898, 122.103, -151.058, 123.522, 88.7931, 0, 0, 0.412895, -54.5638, 0.413434, -174.132, 0.408685, 65.7192, 0.00723495, 58.1481
2, 120.00000, 122.263, -31.4898, 122.103, -151.058, 123.522, 88.7931, 0, 0, 0.412895, -54.5638, 0.413434, -174.132, 0.408685, 65.7192, 0.00723495, 58.1481
2, 180.00000, 122.263, -31.4898, 122.103, -151.058, 123.522, 88.7931, 0, 0, 0.412895, -54.5638, 0.413434, -174.132, 0.408685, 65.7192, 0.00723495, 58.1481
2, 240.00000, 122.263, -31.4898, 122.103, -151.058, 123.522, 88.7931, 0, 0, 0.412895, -54.5638, 0.413434, -174.132, 0.408685, 65.7192, 0.00723495, 58.1481
2, 300.00000, 122.263, -31.4898, 122.103, -151.058, 123.522, 88.7931, 0, 0, 0.412895, -54.5638, 0.413434, -174.132, 0.408685, 65.7192, 0.00723495, 58.1481
2, 360.00000, 122.263, -31.4898, 122.103, -151.058, 123.522, 88.7931, 0, 0, 0.412895, -54.5638, 0.413434, -174.132, 0.408685, 65.7192, 0.00723495, 58.1481
2, 420.00000, 122.263, -31.4898, 122.103, -151.058, 123.522, 88.7931, 0, 0, 0.412895, -54.5638, 0.413434, -174.132, 0.408685, 65.7192, 0.00723495, 58.1481
2, 480.00000, 122.263, -31.4898, 122.103, -151.058, 123.522, 88.7931, 0, 0, 0.412895, -54.5638, 0.413434, -174.132, 0.408685, 65.7192, 0.00723495, 58.1481
