hour,t(sec),V1,VAngle1,V2,VAngle2,V3,VAngle3,V4,VAngle4,I1,IAngle1,I2,IAngle2,I3,IAngle3,I4,IAngle4
0, 60.00000, 126.043, -32.1683, 125.197, -151.411, 127.188, 88.5803, 0, 0, 4.49578, -55.242, 4.52616, -174.485, 4.45537, 65.5062, 0.120457, 37.9795
0, 120.00000, 126.049, -32.1743, 125.197, -151.411, 127.204, 88.5803, 0, 0, 4.49555, -55.2479, 4.52616, -174.485, 4.45479, 65.5063, 0.12143, 37.9867
0, 180.00000, 126.055, -32.1796, 125.197, -151.411, 127.219, 88.5803, 0, 0, 4.49534, -55.2533, 4.52616, -174.485, 4.45427, 65.5063, 0.122304, 37.9937
0, 240.00000, 126.06, -32.1844, 125.197, -151.411, 127.232, 88.5803, 0, 0, 4.49515, -55.2581, 4.52616, -174.485, 4.4538, 65.5063, 0.12309, 38.0003
0, 300.00000, 126.065, -32.1888, 125.197, -151.411, 127.244, 88.5802, 0, 0, 4.49499, -55.2625, 4.52616, -174.485, 4.45338, 65.5062, 0.123798, 38.0066
0, 360.00000, 126.069, -32.1927, 125.197, -151.411, 127.255, 88.5802, 0, 0, 4.49484, -55.2664, 4.52616, -174.485, 4.453, 65.5062, 0.124436, 38.0123
0, 420.00000, 126.073, -32.1962, 125.197, -151.411, 127.265, 88.5802, 0, 0, 4.4947, -55.27, 4.52616, -174.485, 4.45266, 65.5062, 0.12501, 38.0175
0, 480.00000, 126.451, -32.0787, 125.555, -151.282, 127.673, 88.7154, 0, 0, 3.8987, -55.1525, 3.92655, -174.356, 3.86142, 65.6414, 0.1106, 37.9686
0, 540.00000, 126.454, -32.0816, 125.555, -151.282, 127.681, 88.7153, 0, 0, 3.89861, -55.1554, 3.92655, -174.356, 3.86118, 65.6414, 0.111005, 37.9738
0, 600.00000, 126.457, -32.0842, 125.555, -151.282, 127.688, 88.7153, 0, 0, 3.89852, -55.158, 3.92655, -174.356, 3.86096, 65.6413, 0.111369, 37.9786
0, 660.00000, 126.46, -32.0865, 125.555, -151.282, 127.695, 88.7152, 0, 0, 3.89845, -55.1603, 3.92655, -174.356, 3.86077, 65.6413, 0.111696, 37.9829
0, 720.00000, 126.462, -32.0886, 125.555, -151.282, 127.7, 88.7152, 0, 0, 3.89838, -55.1624, 3.92655, -174.356, 3.86059, 65.6413, 0.111991, 37.9869
0, 780.00000, 126.464, -32.0905, 125.555, -151.282, 127.705, 88.7152, 0, 0, 3.89831, -55.1644, 3.92655, -174.356, 3.86043, 65.6412, 0.112256, 37.9906
0, 840.00000, 126.466, -32.0922, 125.555, -151.282, 127.71, 88.7151, 0, 0, 3.89826, -55.1661, 3.92655, -174.356, 3.86029, 65.6412, 0.112495, 37.9939
0, 900.00000, 126.467, -32.0938, 125.555, -151.282, 127.714, 88.7151, 0, 0, 3.89821, -55.1676, 3.92655, -174.356, 3.86017, 65.6412, 0.11271, 37.9969
0, 960.00000, 126.469, -32.0952, 125.555, -151.282, 127.718, 88.7151, 0, 0, 3.89816, -55.169, 3.92655, -174.356, 3.86005, 65.6411, 0.112903, 37.9996
0, 1020.00000, 126.47, -32.0964, 125.555, -151.282, 127.721, 88.715, 0, 0, 3.89812, -55.1703, 3.92655, -174.356, 3.85995, 65.6411, 0.113077, 38.0021
0, 1080.00000, 126.471, -32.0975, 125.555, -151.282, 127.724, 88.715, 0, 0, 3.89808, -55.1714, 3.92655, -174.356, 3.85985, 65.6411, 0.113234, 38.0043
0, 1140.00000, 126.473, -32.0985, 125.555, -151.282, 127.727, 88.715, 0, 0, 3.89805, -55.1724, 3.92655, -174.356, 3.85977, 65.6411, 0.113375, 38.0063
0, 1200.00000, 126.473, -32.0994, 125.555, -151.282, 127.73, 88.715, 0, 0, 3.89802, -55.1733, 3.92655, -174.356, 3.85969, 65.641, 0.113502, 38.0082
0, 1260.00000, 126.474, -32.1003, 125.555, -151.282, 127.732, 88.7149, 0, 0, 3.89799, -55.1741, 3.92655, -174.356, 3.85963, 65.641, 0.113616, 38.0098
0, 1320.00000, 126.475, -32.101, 125.555, -151.282, 127.734, 88.7149, 0, 0, 3.89797, -55.1749, 3.92655, -174.356, 3.85957, 65.641, 0.113719, 38.0113
0, 1380.00000, 126.476, -32.1017, 125.555, -151.282, 127.736, 88.7149, 0, 0, 3.89795, -55.1756, 3.92655, -174.356, 3.85951, 65.641, 0.113811, 38.0127
0, 1440.00000, 126.476, -32.1023, 125.555, -151.282, 127.737, 88.7149, 0, 0, 3.89793, -55.1762, 3.92655, -174.356, 3.85946, 65.641, 0.113895, 38.0139
0, 1500.00000, 126.477, -32.1028, 125.555, -151.282, 127.739, 88.7149, 0, 0, 3.89791, -55.1767, 3.92655, -174.356, 3.85942, 65.641, 0.11397, 38.015
0, 1560.00000, 126.478, -32.1033, 125.555, -151.282, 127.74, 88.7149, 0, 0, 3.8979, -55.1772, 3.92655, -174.356, 3.85938, 65.641, 0.114037, 38.016
0, 1620.00000, 126.478, -32.1037, 125.555, -151.282, 127.741, 88.7149, 0, 0, 3.89788, -55.1776, 3.92655, -174.356, 3.85934, 65.6409, 0.114098, 38.0169
0, 1680.00000, 126.478, -32.1041, 125.555, -151.282, 127.742, 88.7149, 0, 0, 3.89787, -55.178, 3.92655, -174.356, 3.85931, 65.6409, 0.114152, 38.0177
0, 1740.00000, 126.479, -32.1045, 125.555, -151.282, 127.743, 88.7148, 0, 0, 3.89786, -55.1784, 3.92655, -174.356, 3.85928, 65.6409, 0.114202, 38.0184
0, 1800.00000, 126.479, -32.1048, 125.555, -151.282, 127.744, 88.7148, 0, 0, 3.89785, -55.1787, 3.92655, -174.356, 3.85925, 65.6409, 0.114246, 38.0191
0, 1860.00000, 126.479, -32.1051, 125.555, -151.282, 127.745, 88.7148, 0, 0, 3.89784, -55.179, 3.92655, -174.356, 3.85923, 65.6409, 0.114286, 38.0197
0, 1920.00000, 126.48, -32.1053, 125.555, -151.282, 127.746, 88.7148, 0, 0, 3.89783, -55.1792, 3.92655, -174.356, 3.85921, 65.6409, 0.114322, 38.0202
0, 1980.00000, 126.48, -32.1056, 125.555, -151.282, 127.746, 88.7148, 0, 0, 3.89782, -55.1795, 3.92655, -174.356, 3.85919, 65.6409, 0.114354, 38.0207
0, 2040.00000, 126.48, -32.1058, 125.555, -151.282, 127.747, 88.7148, 0, 0, 3.89782, -55.1797, 3.92655, -174.356, 3.85917, 65.6409, 0.114383, 38.0211
0, 2100.00000, 126.48, -32.1059, 125.555, -151.282, 127.747, 88.7148, 0, 0, 3.89781, -55.1799, 3.92655, -174.356, 3.85916, 65.6409, 0.114409, 38.0215
0, 2160.00000, 126.481, -32.1061, 125.555, -151.282, 127.748, 88.7148, 0, 0, 3.8978, -55.18, 3.92655, -174.356, 3.85914, 65.6409, 0.114433, 38.0219
0, 2220.00000, 126.481, -32.1063, 125.555, -151.282, 127.748, 88.7148, 0, 0, 3.8978, -55.1802, 3.92655, -174.356, 3.85913, 65.6409, 0.114454, 38.0222
0, 2280.00000, 126.481, -32.1064, 125.555, -151.282, 127.749, 88.7148, 0, 0, 3.89779, -55.1803, 3.92655, -174.356, 3.85912, 65.6409, 0.114473, 38.0225
0, 2340.00000, 126.481, -32.1065, 125.555, -151.282, 127.749, 88.7148, 0, 0, 3.89779, -55.1804, 3.92655, -174.356, 3.85911, 65.6409, 0.11449, 38.0227
0, 2400.00000, 126.481, -32.1066, 125.555, -151.282, 127.749, 88.7148, 0, 0, 3.89779, -55.1806, 3.92655, -174.356, 3.8591, 65.6409, 0.114505, 38.023
0, 2460.00000, 126.481, -32.1067, 125.555, -151.282, 127.749, 88.7148, 0, 0, 3.89778, -55.1807, 3.92655, -174.356, 3.85909, 65.6409, 0.114519, 38.0232
0, 2520.00000, 126.481, -32.1068, 125.555, -151.282, 127.75, 88.7148, 0, 0, 3.89778, -55.1807, 3.92655, -174.356, 3.85908, 65.6409, 0.114532, 38.0233
0, 2580.00000, 126.481, -32.1069, 125.555, -151.282, 127.75, 88.7148, 0, 0, 3.89778, -55.1808, 3.92655, -174.356, 3.85908, 65.6409, 0.114543, 38.0235
0, 2640.00000, 126.481, -32.107, 125.555, -151.282, 127.75, 88.7148, 0, 0, 3.89778, -55.1809, 3.92655, -174.356, 3.85907, 65.6409, 0.114553, 38.0237
0, 2700.00000, 126.482, -32.107, 125.555, -151.282, 127.75, 88.7148, 0, 0, 3.89777, -55.181, 3.92655, -174.356, 3.85907, 65.6409, 0.114562, 38.0238
0, 2760.00000, 126.482, -32.1071, 125.555, -151.282, 127.75, 88.7148, 0, 0, 3.89777, -55.181, 3.92655, -174.356, 3.85906, 65.6409, 0.11457, 38.0239
0, 2820.00000, 126.482, -32.1072, 125.555, -151.282, 127.751, 88.7148, 0, 0, 3.89777, -55.1811, 3.92655, -174.356, 3.85906, 65.6409, 0.114578, 38.024
0, 2880.00000, 126.482, -32.1072, 125.555, -151.282, 127.751, 88.7148, 0, 0, 3.89777, -55.1811, 3.92655, -174.356, 3.85905, 65.6409, 0.114584, 38.0241
0, 2940.00000, 126.482, -32.1073, 125.555, -151.282, 127.751, 88.7148, 0, 0, 3.89777, -55.1812, 3.92655, -174.356, 3.85905, 65.6409, 0.11459, 38.0242
0, 3000.00000, 126.482, -32.1073, 125.555, -151.282, 127.751, 88.7148, 0, 0, 3.89777, -55.1812, 3.92655, -174.356, 3.85905, 65.6409, 0.114596, 38.0243
0, 3060.00000, 126.482, -32.1073, 125.555, -151.282, 127.751, 88.7148, 0, 0, 3.89776, -55.1812, 3.92655, -174.356, 3.85904, 65.6409, 0.114601, 38.0244
0, 3120.00000, 126.482, -32.1074, 125.555, -151.282, 127.751, 88.7148, 0, 0, 3.89776, -55.1813, 3.92655, -174.356, 3.85904, 65.6409, 0.114605, 38.0245
0, 3180.00000, 126.482, -32.1074, 125.555, -151.282, 127.751, 88.7148, 0, 0, 3.89776, -55.1813, 3.92655, -174.356, 3.85904, 65.6409, 0.114609, 38.0245
0, 3240.00000, 126.482, -32.1074, 125.555, -151.282, 127.751, 88.7148, 0, 0, 3.89776, -55.1813, 3.92655, -174.356, 3.85904, 65.6409, 0.114612, 38.0246
0, 3300.00000, 126.482, -32.1074, 125.555, -151.282, 127.751, 88.7148, 0, 0, 3.89776, -55.1813, 3.92655, -174.356, 3.85903, 65.6409, 0.114616, 38.0246
0, 3360.00000, 126.482, -32.1075, 125.555, -151.282, 127.751, 88.7148, 0, 0, 3.89776, -55.1814, 3.92655, -174.356, 3.85903, 65.6408, 0.114619, 38.0247
0, 3420.00000, 126.482, -32.1075, 125.555, -151.282, 127.751, 88.7148, 0, 0, 3.89776, -55.1814, 3.92655, -174.356, 3.85903, 65.6408, 0.114621, 38.0247
0, 3480.00000, 126.482, -32.1075, 125.555, -151.282, 127.751, 88.7148, 0, 0, 3.89776, -55.1814, 3.92655, -174.356, 3.85903, 65.6408, 0.114623, 38.0247
0, 3540.00000, 126.482, -32.1075, 125.555, -151.282, 127.751, 88.7148, 0, 0, 3.89776, -55.1814, 3.92655, -174.356, 3.85903, 65.6408, 0.114625, 38.0248
1, 0.00000, 126.482, -32.1075, 125.555, -151.282, 127.752, 88.7148, 0, 0, 3.89776, -55.1814, 3.92655, -174.356, 3.85903, 65.6408, 0.114627, 38.0248
1, 60.00000, 126.568, -31.9803, 125.845, -151.248, 127.752, 88.7155, 0, 0, 3.89511, -55.0542, 3.91749, -174.322, 3.85901, 65.6416, 0.0995584, 40.6578
1, 120.00000, 126.568, -31.9803, 125.845, -151.248, 127.752, 88.7155, 0, 0, 3.89511, -55.0542, 3.91749, -174.322, 3.85901, 65.6416, 0.09956, 40.6578
1, 180.00000, 126.568, -31.9803, 125.845, -151.248, 127.752, 88.7155, 0, 0, 3.89511, -55.0542, 3.91749, -174.322, 3.85901, 65.6416, 0.0995613, 40.6578
1, 240.00000, 126.568, -31.9803, 125.845, -151.248, 127.752, 88.7155, 0, 0, 3.89511, -55.0542, 3.91749, -174.322, 3.85901, 65.6416, 0.0995626, 40.6578
1, 300.00000, 126.568, -31.9803, 125.845, -151.248, 127.752, 88.7155, 0, 0, 3.89511, -55.0542, 3.91749, -174.322, 3.85901, 65.6416, 0.0995637, 40.6578
1, 360.00000, 126.568, -31.9803, 125.845, -151.248, 127.752, 88.7155, 0, 0, 3.89511, -55.0542, 3.91749, -174.322, 3.85901, 65.6416, 0.0995647, 40.6578
1, 420.00000, 126.568, -31.9803, 125.845, -151.248, 127.752, 88.7155, 0, 0, 3.89511, -55.0542, 3.91749, -174.322, 3.85901, 65.6416, 0.0995656, 40.6578
1, 480.00000, 126.568, -31.9803, 125.845, -151.248, 127.752, 88.7155, 0, 0, 3.89511, -55.0542, 3.91749, -174.322, 3.85901, 65.6416, 0.0995664, 40.6578
1, 540.00000, 126.568, -31.9803, 125.845, -151.248, 127.752, 88.7155, 0, 0, 3.89511, -55.0543, 3.91749, -174.322, 3.85901, 65.6416, 0.0995671, 40.6578
1, 600.00000, 126.568, -31.9803, 125.845, -151.248, 127.752, 88.7155, 0, 0, 3.89511, -55.0543, 3.91749, -174.322, 3.85901, 65.6416, 0.0995678, 40.6578
1, 660.00000, 126.568, -31.9803, 125.845, -151.248, 127.752, 88.7155, 0, 0, 3.89511, -55.0543, 3.91749, -174.322, 3.85901, 65.6416, 0.0995684, 40.6578
1, 720.00000, 126.568, -31.9803, 125.845, -151.248, 127.752, 88.7155, 0, 0, 3.89511, -55.0543, 3.91749, -174.322, 3.85901, 65.6416, 0.0995689, 40.6578
1, 780.00000, 126.568, -31.9804, 125.845, -151.248, 127.752, 88.7155, 0, 0, 3.89511, -55.0543, 3.91749, -174.322, 3.85901, 65.6416, 0.0995694, 40.6577
1, 840.00000, 126.568, -31.9804, 125.845, -151.248, 127.752, 88.7155, 0, 0, 3.89511, -55.0543, 3.91749, -174.322, 3.85901, 65.6416, 0.0995698, 40.6577
1, 900.00000, 126.568, -31.9804, 125.845, -151.248, 127.752, 88.7155, 0, 0, 3.89511, -55.0543, 3.91749, -174.322, 3.85901, 65.6416, 0.0995702, 40.6577
1, 960.00000, 126.568, -31.9804, 125.845, -151.248, 127.752, 88.7155, 0, 0, 3.89511, -55.0543, 3.91749, -174.322, 3.85901, 65.6416, 0.0995705, 40.6577
1, 1020.00000, 126.568, -31.9804, 125.845, -151.248, 127.752, 88.7155, 0, 0, 3.89511, -55.0543, 3.91749, -174.322, 3.85901, 65.6416, 0.0995708, 40.6577
1, 1080.00000, 126.568, -31.9804, 125.845, -151.248, 127.752, 88.7155, 0, 0, 3.89511, -55.0543, 3.91749, -174.322, 3.85901, 65.6416, 0.0995711, 40.6577
1, 1140.00000, 126.568, -31.9804, 125.845, -151.248, 127.752, 88.7155, 0, 0, 3.89511, -55.0543, 3.91749, -174.322, 3.85901, 65.6416, 0.0995714, 40.6577
1, 1200.00000, 126.568, -31.9804, 125.845, -151.248, 127.752, 88.7155, 0, 0, 3.89511, -55.0543, 3.91749, -174.322, 3.85901, 65.6416, 0.0995716, 40.6577
1, 1260.00000, 126.568, -31.9804, 125.845, -151.248, 127.752, 88.7155, 0, 0, 3.89511, -55.0543, 3.91749, -174.322, 3.85901, 65.6416, 0.0995718, 40.6577
1, 1320.00000, 126.568, -31.9804, 125.845, -151.248, 127.752, 88.7155, 0, 0, 3.89511, -55.0543, 3.91749, -174.322, 3.85901, 65.6416, 0.099572, 40.6577
1, 1380.00000, 126.568, -31.9804, 125.845, -151.248, 127.752, 88.7155, 0, 0, 3.89511, -55.0543, 3.91749, -174.322, 3.85901, 65.6416, 0.0995722, 40.6577
1, 1440.00000, 126.568, -31.9804, 125.845, -151.248, 127.752, 88.7155, 0, 0, 3.89511, -55.0543, 3.91749, -174.322, 3.85901, 65.6416, 0.0995723, 40.6577
1, 1500.00000, 126.568, -31.9804, 125.845, -151.248, 127.752, 88.7155, 0, 0, 3.89511, -55.0543, 3.91749, -174.322, 3.85901, 65.6416, 0.0995724, 40.6577
1, 1560.00000, 126.568, -31.9804, 125.845, -151.248, 127.752, 88.7155, 0, 0, 3.89511, -55.0543, 3.91749, -174.322, 3.85901, 65.6416, 0.0995726, 40.6577
1, 1620.00000, 126.568, -31.9804, 125.845, -151.248, 127.752, 88.7155, 0, 0, 3.89511, -55.0543, 3.91749, -174.322, 3.85901, 65.6416, 0.0995727, 40.6577
1, 1680.00000, 126.568, -31.9804, 125.845, -151.248, 127.752, 88.7155, 0, 0, 3.89511, -55.0543, 3.91749, -174.322, 3.85901, 65.6416, 0.0995728, 40.6577
1, 1740.00000, 126.568, -31.9804, 125.845, -151.248, 127.752, 88.7155, 0, 0, 3.89511, -55.0543, 3.91749, -174.322, 3.85901, 65.6416, 0.0995729, 40.6577
1, 1800.00000, 126.568, -31.9804, 125.845, -151.248, 127.752, 88.7155, 0, 0, 3.89511, -55.0543, 3.91749, -174.322, 3.85901, 65.6416, 0.0995729, 40.6577
1, 1860.00000, 126.568, -31.9804, 125.845, -151.248, 127.752, 88.7155, 0, 0, 3.89511, -55.0543, 3.91749, -174.322, 3.85901, 65.6416, 0.099573, 40.6577
1, 1920.00000, 126.568, -31.9804, 125.845, -151.248, 127.752, 88.7155, 0, 0, 3.89511, -55.0543, 3.91749, -174.322, 3.85901, 65.6416, 0.0995731, 40.6577
1, 1980.00000, 126.568, -31.9804, 125.845, -151.248, 127.752, 88.7155, 0, 0, 3.89511, -55.0543, 3.91749, -174.322, 3.85901, 65.6416, 0.0995731, 40.6577
1, 2040.00000, 126.568, -31.9804, 125.845, -151.248, 127.752, 88.7155, 0, 0, 3.89511, -55.0543, 3.91749, -174.322, 3.85901, 65.6416, 0.0995732, 40.6577
1, 2100.00000, 126.568, -31.9804, 125.845, -151.248, 127.752, 88.7155, 0, 0, 3.89511, -55.0543, 3.91749, -174.322, 3.85901, 65.6416, 0.0995732, 40.6577
1, 2160.00000, 126.568, -31.9804, 125.845, -151.248, 127.752, 88.7155, 0, 0, 3.89511, -55.0543, 3.91749, -174.322, 3.85901, 65.6416, 0.0995733, 40.6577
1, 2220.00000, 126.568, -31.9804, 125.845, -151.248, 127.752, 88.7155, 0, 0, 3.89511, -55.0543, 3.91749, -174.322, 3.85901, 65.6416, 0.0995733, 40.6577
1, 2280.00000, 126.568, -31.9804, 125.845, -151.248, 127.752, 88.7155, 0, 0, 3.89511, -55.0543, 3.91749, -174.322, 3.85901, 65.6416, 0.0995734, 40.6577
1, 2340.00000, 126.568, -31.9804, 125.845, -151.248, 127.752, 88.7155, 0, 0, 3.89511, -55.0543, 3.91749, -174.322, 3.85901, 65.6416, 0.0995734, 40.6577
1, 2400.00000, 126.568, -31.9804, 125.845, -151.248, 127.752, 88.7155, 0, 0, 3.89511, -55.0543, 3.91749, -174.322, 3.85901, 65.6416, 0.0995734, 40.6577
1, 2460.00000, 126.568, -31.9804, 125.845, -151.248, 127.752, 88.7155, 0, 0, 3.89511, -55.0543, 3.91749, -174.322, 3.85901, 65.6416, 0.0995734, 40.6577
1, 2520.00000, 126.568, -31.9804, 125.845, -151.248, 127.752, 88.7155, 0, 0, 3.89511, -55.0543, 3.91749, -174.322, 3.85901, 65.6416, 0.0995735, 40.6577
1, 2580.00000, 126.568, -31.9804, 125.845, -151.248, 127.752, 88.7155, 0, 0, 3.89511, -55.0543, 3.91749, -174.322, 3.85901, 65.6416, 0.0995735, 40.6577
1, 2640.00000, 126.568, -31.9804, 125.845, -151.248, 127.752, 88.7155, 0, 0, 3.89511, -55.0543, 3.91749, -174.322, 3.85901, 65.6416, 0.0995735, 40.6577
1, 2700.00000, 126.568, -31.9804, 125.845, -151.248, 127.752, 88.7155, 0, 0, 3.89511, -55.0543, 3.91749, -174.322, 3.85901, 65.6416, 0.0995735, 40.6577
1, 2760.00000, 126.568, -31.9804, 125.845, -151.248, 127.752, 88.7155, 0, 0, 3.89511, -55.0543, 3.91749, -174.322, 3.85901, 65.6416, 0.0995735, 40.6577
1, 2820.00000, 126.568, -31.9804, 125.845, -151.248, 127.752, 88.7155, 0, 0, 3.89511, -55.0543, 3.91749, -174.322, 3.85901, 65.6416, 0.0995735, 40.6577
1, 2880.00000, 126.568, -31.9804, 125.845, -151.248, 127.752, 88.7155, 0, 0, 3.89511, -55.0543, 3.91749, -174.322, 3.85901, 65.6416, 0.0995736, 40.6577
1, 2940.00000, 126.568, -31.9804, 125.845, -151.248, 127.752, 88.7155, 0, 0, 3.89511, -55.0543, 3.91749, -174.322, 3.85901, 65.6416, 0.0995736, 40.6577
1, 3000.00000, 126.568, -31.9804, 125.845, -151.248, 127.752, 88.7155, 0, 0, 3.89511, -55.0543, 3.91749, -174.322, 3.85901, 65.6416, 0.0995736, 40.6577
1, 3060.00000, 126.568, -31.9804, 125.845, -151.248, 127.752, 88.7155, 0, 0, 3.89511, -55.0543, 3.91749, -174.322, 3.85901, 65.6416, 0.0995736, 40.6577
1, 3120.00000, 126.568, -31.9804, 125.845, -151.248, 127.752, 88.7155, 0, 0, 3.89511, -55.0543, 3.91749, -174.322, 3.85901, 65.6416, 0.0995736, 40.6577
1, 3180.00000, 126.568, -31.9804, 125.845, -151.248, 127.752, 88.7155, 0, 0, 3.89511, -55.0543, 3.91749, -174.322, 3.85901, 65.6416, 0.0995736, 40.6577
1, 3240.00000, 126.568, -31.9804, 125.845, -151.248, 127.752, 88.7155, 0, 0, 3.89511, -55.0543, 3.91749, -174.322, 3.85901, 65.6416, 0.0995736, 40.6577
1, 3300.00000, 126.568, -31.9804, 125.845, -151.248, 127.752, 88.7155, 0, 0, 3.89511, -55.0543, 3.91749, -174.322, 3.85901, 65.6416, 0.0995736, 40.6577
1, 3360.00000, 126.568, -31.9804, 125.845, -151.248, 127.752, 88.7155, 0, 0, 3.89511, -55.0543, 3.91749, -174.322, 3.85901, 65.6416, 0.0995736, 40.6577
1, 3420.00000, 126.568, -31.9804, 125.845, -151.248, 127.752, 88.7155, 0, 0, 3.89511, -55.0543, 3.91749, -174.322, 3.85901, 65.6416, 0.0995736, 40.6577
1, 3480.00000, 126.568, -31.9804, 125.845, -151.248, 127.752, 88.7155, 0, 0, 3.89511, -55.0543, 3.91749, -174.322, 3.85901, 65.6416, 0.0995736, 40.6577
1, 3540.00000, 126.568, -31.9804, 125.845, -151.248, 127.752, 88.7155, 0, 0, 3.89511, -55.0543, 3.91749, -174.322, 3.85901, 65.6416, 0.0995736, 40.6577
2, 0.00000, 126.568, -31.9804, 125.845, -151.248, 127.752, 88.7155, 0, 0, 3.89511, -55.0543, 3.91749, -174.322, 3.85901, 65.6416, 0.0995736, 40.6577
2, 60.00000, 126.568, -31.9804, 125.845, -151.248, 127.752, 88.7155, 0, 0, 3.89511, -55.0543, 3.91749, -174.322, 3.85901, 65.6416, 0.0995736, 40.6577
2, 120.00000, 126.568, -31.9804, 125.845, -151.248, 127.752, 88.7155, 0, 0, 3.89511, -55.0543, 3.91749, -174.322, 3.85901, 65.6416, 0.0995736, 40.6577
2, 180.00000, 126.568, -31.9804, 125.845, -151.248, 127.752, 88.7155, 0, 0, 3.89511, -55.0543, 3.91749, -174.322, 3.85901, 65.6416, 0.0995736, 40.6577
2, 240.00000, 126.568, -31.9804, 125.845, -151.248, 127.752, 88.7155, 0, 0, 3.89511, -55.0543, 3.91749, -174.322, 3.85901, 65.6416, 0.0995736, 40.6577
2, 300.00000, 126.568, -31.9804, 125.845, -151.248, 127.752, 88.7155, 0, 0, 3.89511, -55.0543, 3.91749, -174.322, 3.85901, 65.6416, 0.0995736, 40.6577
2, 360.00000, 126.568, -31.9804, 125.845, -151.248, 127.752, 88.7155, 0, 0, 3.89511, -55.0543, 3.91749, -174.322, 3.85901, 65.6416, 0.0995736, 40.6577
2, 420.00000, 126.568, -31.9804, 125.845, -151.248, 127.752, 88.7155, 0, 0, 3.89511, -55.0543, 3.91749, -174.322, 3.859, 65.6416, 0.0995736, 40.6577
2, 480.00000, 126.568, -31.9804, 125.845, -151.248, 127.752, 88.7155, 0, 0, 3.89511, -55.0543, 3.91749, -174.322, 3.859, 65.6416, 0.0995736, 40.6577
2, 540.00000, 126.568, -31.9804, 125.845, -151.248, 127.752, 88.7155, 0, 0, 3.89511, -55.0543, 3.91749, -174.322, 3.859, 65.6416, 0.0995736, 40.6577
2, 600.00000, 126.568, -31.9804, 125.845, -151.248, 127.752, 88.7155, 0, 0, 3.89511, -55.0543, 3.91749, -174.322, 3.859, 65.6416, 0.0995736, 40.6577
2, 660.00000, 126.568, -31.9804, 125.845, -151.248, 127.752, 88.7155, 0, 0, 3.89511, -55.0543, 3.91749, -174.322, 3.859, 65.6416, 0.0995736, 40.6577
2, 720.00000, 126.568, -31.9804, 125.845, -151.248, 127.752, 88.7155, 0, 0, 3.89511, -55.0543, 3.91749, -174.322, 3.859, 65.6416, 0.0995736, 40.6577
