hour,t(sec),V1,VAngle1,V2,VAngle2,V3,VAngle3,V4,VAngle4,I1,IAngle1,I2,IAngle2,I3,IAngle3,I4,IAngle4
0, 60.00000, 122.695, -31.2553, 123.165, -151.176, 123.454, 88.6399, 0, 0, 8.80336, -54.3288, 8.76979, -174.25, 8.74909, 65.5665, 0.0701132, 112.491
0, 120.00000, 122.695, -31.2553, 123.165, -151.176, 123.454, 88.6398, 0, 0, 8.80344, -54.3292, 8.76989, -174.25, 8.74931, 65.5659, 0.0700862, 112.559
0, 180.00000, 122.695, -31.2553, 123.165, -151.176, 123.454, 88.6398, 0, 0, 8.80344, -54.3292, 8.76989, -174.25, 8.74931, 65.5659, 0.0700862, 112.56
0, 240.00000, 122.695, -31.2553, 123.165, -151.176, 123.454, 88.6398, 0, 0, 8.80344, -54.3292, 8.76989, -174.25, 8.74931, 65.5659, 0.0700862, 112.56
0, 300.00000, 122.695, -31.2553, 123.165, -151.176, 123.454, 88.6398, 0, 0, 8.80344, -54.3292, 8.76989, -174.25, 8.74931, 65.5659, 0.0700862, 112.56
0, 360.00000, 122.695, -31.2553, 123.165, -151.176, 123.454, 88.6398, 0, 0, 8.80344, -54.3292, 8.76989, -174.25, 8.74931, 65.5659, 0.0700862, 112.56
0, 420.00000, 122.695, -31.2553, 123.165, -151.176, 123.454, 88.6398, 0, 0, 8.80344, -54.3292, 8.76989, -174.25, 8.74931, 65.5659, 0.0700862, 112.56
0, 480.00000, 122.695, -31.2553, 123.165, -151.176, 123.454, 88.6398, 0, 0, 8.80344, -54.3292, 8.76989, -174.25, 8.74931, 65.5659, 0.0700862, 112.56
0, 540.00000, 122.695, -31.2553, 123.165, -151.176, 123.454, 88.6398, 0, 0, 8.80344, -54.3292, 8.76989, -174.25, 8.74931, 65.5659, 0.0700862, 112.56
0, 600.00000, 122.695, -31.2553, 123.165, -151.176, 123.454, 88.6398, 0, 0, 8.80344, -54.3292, 8.76989, -174.25, 8.74931, 65.5659, 0.0700862, 112.56
0, 660.00000, 122.695, -31.2553, 123.165, -151.176, 123.454, 88.6398, 0, 0, 8.80344, -54.3292, 8.76989, -174.25, 8.74931, 65.5659, 0.0700862, 112.56
0, 720.00000, 122.695, -31.2553, 123.165, -151.176, 123.454, 88.6398, 0, 0, 8.80344, -54.3292, 8.76989, -174.25, 8.74931, 65.5659, 0.0700862, 112.56
0, 780.00000, 122.695, -31.2553, 123.165, -151.176, 123.454, 88.6398, 0, 0, 8.80344, -54.3292, 8.76989, -174.25, 8.74931, 65.5659, 0.0700862, 112.56
0, 840.00000, 122.695, -31.2553, 123.165, -151.176, 123.454, 88.6398, 0, 0, 8.80344, -54.3292, 8.76989, -174.25, 8.74931, 65.5659, 0.0700862, 112.56
0, 900.00000, 122.695, -31.2553, 123.165, -151.176, 123.454, 88.6398, 0, 0, 8.80344, -54.3292, 8.76989, -174.25, 8.74931, 65.5659, 0.0700862, 112.56
0, 960.00000, 122.356, -31.4358, 122.62, -151.216, 123.323, 88.6033, 0, 0, 9.33864, -54.5095, 9.31853, -174.29, 9.26546, 65.5294, 0.0984392, 82.6591
0, 1020.00000, 122.356, -31.4358, 122.62, -151.216, 123.323, 88.6033, 0, 0, 9.33869, -54.5097, 9.31863, -174.29, 9.26548, 65.5293, 0.0985034, 82.6128
0, 1080.00000, 122.356, -31.4358, 122.62, -151.216, 123.323, 88.6033, 0, 0, 9.33869, -54.5097, 9.31863, -174.29, 9.26548, 65.5293, 0.0985035, 82.6127
0, 1140.00000, 122.356, -31.4358, 122.62, -151.216, 123.323, 88.6033, 0, 0, 9.33869, -54.5097, 9.31863, -174.29, 9.26548, 65.5293, 0.0985035, 82.6127
0, 1200.00000, 122.356, -31.4358, 122.62, -151.216, 123.323, 88.6033, 0, 0, 9.33869, -54.5097, 9.31863, -174.29, 9.26548, 65.5293, 0.0985035, 82.6127
0, 1260.00000, 122.356, -31.4358, 122.62, -151.216, 123.323, 88.6033, 0, 0, 9.33869, -54.5097, 9.31863, -174.29, 9.26548, 65.5293, 0.0985035, 82.6127
0, 1320.00000, 122.356, -31.4358, 122.62, -151.216, 123.323, 88.6033, 0, 0, 9.33869, -54.5097, 9.31863, -174.29, 9.26548, 65.5293, 0.0985035, 82.6127
0, 1380.00000, 122.356, -31.4358, 122.62, -151.216, 123.323, 88.6033, 0, 0, 9.33869, -54.5097, 9.31863, -174.29, 9.26548, 65.5293, 0.0985035, 82.6127
0, 1440.00000, 122.356, -31.4358, 122.62, -151.216, 123.323, 88.6033, 0, 0, 9.33869, -54.5097, 9.31863, -174.29, 9.26548, 65.5293, 0.0985035, 82.6127
0, 1500.00000, 122.356, -31.4358, 122.62, -151.216, 123.323, 88.6033, 0, 0, 9.33869, -54.5097, 9.31863, -174.29, 9.26548, 65.5293, 0.0985035, 82.6127
0, 1560.00000, 122.356, -31.4358, 122.62, -151.216, 123.323, 88.6033, 0, 0, 9.33869, -54.5097, 9.31863, -174.29, 9.26548, 65.5293, 0.0985035, 82.6127
0, 1620.00000, 122.356, -31.4358, 122.62, -151.216, 123.323, 88.6033, 0, 0, 9.33869, -54.5097, 9.31863, -174.29, 9.26548, 65.5293, 0.0985035, 82.6127
0, 1680.00000, 122.356, -31.4358, 122.62, -151.216, 123.323, 88.6033, 0, 0, 9.33869, -54.5097, 9.31863, -174.29, 9.26548, 65.5293, 0.0985035, 82.6127
0, 1740.00000, 122.356, -31.4358, 122.62, -151.216, 123.323, 88.6033, 0, 0, 9.33869, -54.5097, 9.31863, -174.29, 9.26548, 65.5293, 0.0985035, 82.6127
0, 1800.00000, 122.356, -31.4358, 122.62, -151.216, 123.323, 88.6033, 0, 0, 9.33869, -54.5097, 9.31863, -174.29, 9.26548, 65.5293, 0.0985035, 82.6127
0, 1860.00000, 122.471, -31.4162, 122.729, -151.196, 123.432, 88.6264, 0, 0, 9.35847, -54.4905, 9.33887, -174.27, 9.28589, 65.5511, 0.0979599, 82.2558
0, 1920.00000, 122.471, -31.4161, 122.73, -151.196, 123.432, 88.6265, 0, 0, 9.35831, -54.4901, 9.33857, -174.27, 9.28541, 65.5525, 0.098182, 82.187
0, 1980.00000, 122.471, -31.4161, 122.73, -151.196, 123.432, 88.6265, 0, 0, 9.35831, -54.4901, 9.33857, -174.27, 9.28541, 65.5525, 0.098183, 82.1865
0, 2040.00000, 122.471, -31.4161, 122.73, -151.196, 123.432, 88.6265, 0, 0, 9.35831, -54.4901, 9.33857, -174.27, 9.28541, 65.5525, 0.098183, 82.1865
0, 2100.00000, 122.471, -31.4161, 122.73, -151.196, 123.432, 88.6265, 0, 0, 9.35831, -54.4901, 9.33857, -174.27, 9.28541, 65.5525, 0.098183, 82.1865
0, 2160.00000, 122.471, -31.4161, 122.73, -151.196, 123.432, 88.6265, 0, 0, 9.35831, -54.4901, 9.33857, -174.27, 9.28541, 65.5525, 0.098183, 82.1865
0, 2220.00000, 122.471, -31.4161, 122.73, -151.196, 123.432, 88.6265, 0, 0, 9.35831, -54.4901, 9.33857, -174.27, 9.28541, 65.5525, 0.098183, 82.1865
0, 2280.00000, 122.471, -31.4161, 122.73, -151.196, 123.432, 88.6265, 0, 0, 9.35831, -54.4901, 9.33857, -174.27, 9.28541, 65.5525, 0.098183, 82.1865
0, 2340.00000, 122.471, -31.4161, 122.73, -151.196, 123.432, 88.6265, 0, 0, 9.35831, -54.4901, 9.33857, -174.27, 9.28541, 65.5525, 0.098183, 82.1865
0, 2400.00000, 122.471, -31.4161, 122.73, -151.196, 123.432, 88.6265, 0, 0, 9.35831, -54.4901, 9.33857, -174.27, 9.28541, 65.5525, 0.098183, 82.1865
0, 2460.00000, 122.471, -31.4161, 122.73, -151.196, 123.432, 88.6265, 0, 0, 9.35831, -54.4901, 9.33857, -174.27, 9.28541, 65.5525, 0.098183, 82.1865
0, 2520.00000, 122.471, -31.4161, 122.73, -151.196, 123.432, 88.6265, 0, 0, 9.35831, -54.4901, 9.33857, -174.27, 9.28541, 65.5525, 0.098183, 82.1865
0, 2580.00000, 122.471, -31.4161, 122.73, -151.196, 123.432, 88.6265, 0, 0, 9.35831, -54.4901, 9.33857, -174.27, 9.28541, 65.5525, 0.098183, 82.1865
0, 2640.00000, 122.471, -31.4161, 122.73, -151.196, 123.432, 88.6265, 0, 0, 9.35831, -54.4901, 9.33857, -174.27, 9.28541, 65.5525, 0.098183, 82.1865
0, 2700.00000, 122.471, -31.4161, 122.73, -151.196, 123.432, 88.6265, 0, 0, 9.35831, -54.4901, 9.33857, -174.27, 9.28541, 65.5525, 0.098183, 82.1865
0, 2760.00000, 122.7, -31.3744, 122.948, -151.156, 123.655, 88.6735, 0, 0, 8.88449, -54.4486, 8.86659, -174.23, 8.81596, 65.5992, 0.0923316, 81.3379
0, 2820.00000, 122.7, -31.3744, 122.948, -151.156, 123.655, 88.6735, 0, 0, 8.88448, -54.4483, 8.86656, -174.23, 8.81582, 65.5996, 0.0923948, 81.3037
0, 2880.00000, 122.7, -31.3744, 122.948, -151.156, 123.655, 88.6735, 0, 0, 8.88448, -54.4483, 8.86656, -174.23, 8.81582, 65.5996, 0.0923959, 81.3031
0, 2940.00000, 122.7, -31.3744, 122.948, -151.156, 123.655, 88.6735, 0, 0, 8.88448, -54.4483, 8.86657, -174.23, 8.81582, 65.5996, 0.0923959, 81.3031
0, 3000.00000, 122.7, -31.3744, 122.948, -151.156, 123.655, 88.6735, 0, 0, 8.88448, -54.4483, 8.86657, -174.23, 8.81582, 65.5996, 0.0923959, 81.3031
0, 3060.00000, 122.7, -31.3744, 122.948, -151.156, 123.655, 88.6735, 0, 0, 8.88448, -54.4483, 8.86657, -174.23, 8.81582, 65.5996, 0.0923959, 81.3031
0, 3120.00000, 122.7, -31.3744, 122.948, -151.156, 123.655, 88.6735, 0, 0, 8.88448, -54.4483, 8.86657, -174.23, 8.81582, 65.5996, 0.0923959, 81.3031
0, 3180.00000, 122.7, -31.3744, 122.948, -151.156, 123.655, 88.6735, 0, 0, 8.88448, -54.4483, 8.86657, -174.23, 8.81582, 65.5996, 0.0923959, 81.3031
0, 3240.00000, 122.7, -31.3744, 122.948, -151.156, 123.655, 88.6735, 0, 0, 8.88448, -54.4483, 8.86657, -174.23, 8.81582, 65.5996, 0.0923959, 81.3031
0, 3300.00000, 122.7, -31.3744, 122.948, -151.156, 123.655, 88.6735, 0, 0, 8.88448, -54.4483, 8.86657, -174.23, 8.81582, 65.5996, 0.0923959, 81.3031
0, 3360.00000, 122.7, -31.3744, 122.948, -151.156, 123.655, 88.6735, 0, 0, 8.88448, -54.4483, 8.86657, -174.23, 8.81582, 65.5996, 0.0923959, 81.3031
0, 3420.00000, 122.7, -31.3744, 122.948, -151.156, 123.655, 88.6735, 0, 0, 8.88448, -54.4483, 8.86657, -174.23, 8.81582, 65.5996, 0.0923959, 81.3031
0, 3480.00000, 122.7, -31.3744, 122.948, -151.156, 123.655, 88.6735, 0, 0, 8.88448, -54.4483, 8.86657, -174.23, 8.81582, 65.5996, 0.0923959, 81.3031
0, 3540.00000, 122.7, -31.3744, 122.948, -151.156, 123.655, 88.6735, 0, 0, 8.88448, -54.4483, 8.86657, -174.23, 8.81582, 65.5996, 0.0923959, 81.3031
1, 0.00000, 122.7, -31.3744, 122.948, -151.156, 123.655, 88.6735, 0, 0, 8.88448, -54.4483, 8.86657, -174.23, 8.81582, 65.5996, 0.0923959, 81.3031
1, 60.00000, 122.868, -31.3443, 123.105, -151.128, 123.819, 88.7074, 0, 0, 8.76861, -54.4184, 8.75171, -174.202, 8.70139, 65.6332, 0.0905134, 80.5729
1, 120.00000, 122.868, -31.3442, 123.105, -151.128, 123.819, 88.7074, 0, 0, 8.76859, -54.4182, 8.75171, -174.202, 8.70124, 65.6335, 0.0905793, 80.5332
1, 180.00000, 122.868, -31.3442, 123.105, -151.128, 123.819, 88.7074, 0, 0, 8.76859, -54.4181, 8.75171, -174.202, 8.70124, 65.6335, 0.0905807, 80.5325
1, 240.00000, 122.868, -31.3442, 123.105, -151.128, 123.819, 88.7074, 0, 0, 8.76859, -54.4181, 8.75171, -174.202, 8.70124, 65.6335, 0.0905807, 80.5325
1, 300.00000, 122.868, -31.3442, 123.105, -151.128, 123.819, 88.7074, 0, 0, 8.76859, -54.4181, 8.75171, -174.202, 8.70124, 65.6335, 0.0905807, 80.5325
1, 360.00000, 122.868, -31.3442, 123.105, -151.128, 123.819, 88.7074, 0, 0, 8.76859, -54.4181, 8.75171, -174.202, 8.70124, 65.6335, 0.0905807, 80.5325
1, 420.00000, 122.868, -31.3442, 123.105, -151.128, 123.819, 88.7074, 0, 0, 8.76859, -54.4181, 8.75171, -174.202, 8.70124, 65.6335, 0.0905807, 80.5325
1, 480.00000, 122.868, -31.3442, 123.105, -151.128, 123.819, 88.7074, 0, 0, 8.76859, -54.4181, 8.75171, -174.202, 8.70124, 65.6335, 0.0905807, 80.5325
1, 540.00000, 122.868, -31.3442, 123.105, -151.128, 123.819, 88.7074, 0, 0, 8.76859, -54.4181, 8.75171, -174.202, 8.70124, 65.6335, 0.0905807, 80.5325
1, 600.00000, 122.868, -31.3442, 123.105, -151.128, 123.819, 88.7074, 0, 0, 8.76859, -54.4181, 8.75171, -174.202, 8.70124, 65.6335, 0.0905807, 80.5325
1, 660.00000, 122.868, -31.3442, 123.105, -151.128, 123.819, 88.7074, 0, 0, 8.76859, -54.4181, 8.75171, -174.202, 8.70124, 65.6335, 0.0905807, 80.5325
1, 720.00000, 122.868, -31.3442, 123.105, -151.128, 123.819, 88.7074, 0, 0, 8.76859, -54.4181, 8.75171, -174.202, 8.70124, 65.6335, 0.0905807, 80.5325
1, 780.00000, 122.868, -31.3442, 123.105, -151.128, 123.819, 88.7074, 0, 0, 8.76859, -54.4181, 8.75171, -174.202, 8.70124, 65.6335, 0.0905807, 80.5325
1, 840.00000, 122.868, -31.3442, 123.105, -151.128, 123.819, 88.7074, 0, 0, 8.76859, -54.4181, 8.75171, -174.202, 8.70124, 65.6335, 0.0905807, 80.5325
1, 900.00000, 122.868, -31.3442, 123.105, -151.128, 123.819, 88.7074, 0, 0, 8.76859, -54.4181, 8.75171, -174.202, 8.70124, 65.6335, 0.0905807, 80.5325
1, 960.00000, 122.893, -31.3397, 123.128, -151.124, 123.843, 88.7125, 0, 0, 8.72588, -54.4139, 8.70917, -174.197, 8.659, 65.6381, 0.0900041, 80.4635
1, 1020.00000, 122.893, -31.3396, 123.128, -151.124, 123.844, 88.7125, 0, 0, 8.7258, -54.4136, 8.70911, -174.197, 8.6588, 65.6386, 0.0900767, 80.4108
1, 1080.00000, 122.893, -31.3396, 123.128, -151.124, 123.844, 88.7125, 0, 0, 8.7258, -54.4136, 8.70911, -174.197, 8.6588, 65.6386, 0.0900785, 80.4098
1, 1140.00000, 122.893, -31.3396, 123.128, -151.124, 123.844, 88.7125, 0, 0, 8.7258, -54.4136, 8.70911, -174.197, 8.6588, 65.6386, 0.0900785, 80.4098
1, 1200.00000, 122.893, -31.3396, 123.128, -151.124, 123.844, 88.7125, 0, 0, 8.7258, -54.4136, 8.70911, -174.197, 8.6588, 65.6386, 0.0900785, 80.4098
1, 1260.00000, 122.893, -31.3396, 123.128, -151.124, 123.844, 88.7125, 0, 0, 8.7258, -54.4136, 8.70911, -174.197, 8.6588, 65.6386, 0.0900785, 80.4098
1, 1320.00000, 122.893, -31.3396, 123.128, -151.124, 123.844, 88.7125, 0, 0, 8.7258, -54.4136, 8.70911, -174.197, 8.6588, 65.6386, 0.0900785, 80.4098
1, 1380.00000, 122.893, -31.3396, 123.128, -151.124, 123.844, 88.7125, 0, 0, 8.7258, -54.4136, 8.70911, -174.197, 8.6588, 65.6386, 0.0900785, 80.4098
1, 1440.00000, 122.893, -31.3396, 123.128, -151.124, 123.844, 88.7125, 0, 0, 8.7258, -54.4136, 8.70911, -174.197, 8.6588, 65.6386, 0.0900785, 80.4098
1, 1500.00000, 122.893, -31.3396, 123.128, -151.124, 123.844, 88.7125, 0, 0, 8.7258, -54.4136, 8.70911, -174.197, 8.6588, 65.6386, 0.0900785, 80.4098
1, 1560.00000, 122.893, -31.3396, 123.128, -151.124, 123.844, 88.7125, 0, 0, 8.7258, -54.4136, 8.70911, -174.197, 8.6588, 65.6386, 0.0900785, 80.4098
1, 1620.00000, 122.893, -31.3396, 123.128, -151.124, 123.844, 88.7125, 0, 0, 8.7258, -54.4136, 8.70911, -174.197, 8.6588, 65.6386, 0.0900785, 80.4098
1, 1680.00000, 122.893, -31.3396, 123.128, -151.124, 123.844, 88.7125, 0, 0, 8.7258, -54.4136, 8.70911, -174.197, 8.6588, 65.6386, 0.0900785, 80.4098
1, 1740.00000, 122.893, -31.3396, 123.128, -151.124, 123.844, 88.7125, 0, 0, 8.7258, -54.4136, 8.70911, -174.197, 8.6588, 65.6386, 0.0900785, 80.4098
1, 1800.00000, 122.893, -31.3396, 123.128, -151.124, 123.844, 88.7125, 0, 0, 8.7258, -54.4136, 8.70911, -174.197, 8.6588, 65.6386, 0.0900785, 80.4098
1, 1860.00000, 122.741, -31.3681, 122.986, -151.15, 123.695, 88.6812, 0, 0, 8.94728, -54.4418, 8.92946, -174.224, 8.8782, 65.6075, 0.0929195, 81.0581
1, 1920.00000, 122.741, -31.3681, 122.986, -151.15, 123.694, 88.6811, 0, 0, 8.9473, -54.442, 8.92946, -174.224, 8.87833, 65.6072, 0.0928627, 81.0932
1, 1980.00000, 122.741, -31.3681, 122.986, -151.15, 123.694, 88.6811, 0, 0, 8.9473, -54.442, 8.92946, -174.224, 8.87833, 65.6072, 0.0928617, 81.0937
1, 2040.00000, 122.741, -31.3681, 122.986, -151.15, 123.694, 88.6811, 0, 0, 8.9473, -54.442, 8.92946, -174.224, 8.87833, 65.6072, 0.0928617, 81.0937
1, 2100.00000, 122.741, -31.3681, 122.986, -151.15, 123.694, 88.6811, 0, 0, 8.9473, -54.442, 8.92946, -174.224, 8.87833, 65.6072, 0.0928617, 81.0937
1, 2160.00000, 122.741, -31.3681, 122.986, -151.15, 123.694, 88.6811, 0, 0, 8.9473, -54.442, 8.92946, -174.224, 8.87833, 65.6072, 0.0928617, 81.0937
1, 2220.00000, 122.741, -31.3681, 122.986, -151.15, 123.694, 88.6811, 0, 0, 8.9473, -54.442, 8.92946, -174.224, 8.87833, 65.6072, 0.0928617, 81.0937
1, 2280.00000, 122.741, -31.3681, 122.986, -151.15, 123.694, 88.6811, 0, 0, 8.9473, -54.442, 8.92946, -174.224, 8.87833, 65.6072, 0.0928617, 81.0937
1, 2340.00000, 122.741, -31.3681, 122.986, -151.15, 123.694, 88.6811, 0, 0, 8.9473, -54.442, 8.92946, -174.224, 8.87833, 65.6072, 0.0928617, 81.0937
1, 2400.00000, 122.741, -31.3681, 122.986, -151.15, 123.694, 88.6811, 0, 0, 8.9473, -54.442, 8.92946, -174.224, 8.87833, 65.6072, 0.0928617, 81.0937
1, 2460.00000, 122.741, -31.3681, 122.986, -151.15, 123.694, 88.6811, 0, 0, 8.9473, -54.442, 8.92946, -174.224, 8.87833, 65.6072, 0.0928617, 81.0937
1, 2520.00000, 122.741, -31.3681, 122.986, -151.15, 123.694, 88.6811, 0, 0, 8.9473, -54.442, 8.92946, -174.224, 8.87833, 65.6072, 0.0928617, 81.0937
1, 2580.00000, 122.741, -31.3681, 122.986, -151.15, 123.694, 88.6811, 0, 0, 8.9473, -54.442, 8.92946, -174.224, 8.87833, 65.6072, 0.0928617, 81.0937
1, 2640.00000, 122.741, -31.3681, 122.986, -151.15, 123.694, 88.6811, 0, 0, 8.9473, -54.442, 8.92946, -174.224, 8.87833, 65.6072, 0.0928617, 81.0937
1, 2700.00000, 122.704, -31.3634, 122.586, -151.364, 123.055, 88.7181, 0, 0, 8.95001, -54.4371, 8.95854, -174.438, 8.92433, 65.6447, 0.0360432, 31.4829
1, 2760.00000, 123.02, -31.3077, 122.877, -151.31, 123.344, 88.7797, 0, 0, 8.41201, -54.3818, 8.42173, -174.384, 8.38991, 65.7057, 0.0342103, 26.9534
1, 2820.00000, 123.02, -31.3077, 122.877, -151.31, 123.344, 88.7797, 0, 0, 8.41195, -54.3816, 8.42171, -174.384, 8.38985, 65.7058, 0.0342326, 26.8993
1, 2880.00000, 123.02, -31.3077, 122.877, -151.31, 123.344, 88.7797, 0, 0, 8.41195, -54.3816, 8.42171, -174.384, 8.38985, 65.7058, 0.0342328, 26.899
1, 2940.00000, 123.02, -31.3077, 122.877, -151.31, 123.344, 88.7797, 0, 0, 8.41195, -54.3816, 8.42171, -174.384, 8.38985, 65.7058, 0.0342328, 26.899
1, 3000.00000, 123.02, -31.3077, 122.877, -151.31, 123.344, 88.7797, 0, 0, 8.41195, -54.3816, 8.42171, -174.384, 8.38985, 65.7058, 0.0342328, 26.899
1, 3060.00000, 123.02, -31.3077, 122.877, -151.31, 123.344, 88.7797, 0, 0, 8.41195, -54.3816, 8.42171, -174.384, 8.38985, 65.7058, 0.0342328, 26.899
1, 3120.00000, 123.02, -31.3077, 122.877, -151.31, 123.344, 88.7797, 0, 0, 8.41195, -54.3816, 8.42171, -174.384, 8.38985, 65.7058, 0.0342328, 26.899
1, 3180.00000, 123.02, -31.3077, 122.877, -151.31, 123.344, 88.7797, 0, 0, 8.41195, -54.3816, 8.42171, -174.384, 8.38985, 65.7058, 0.0342328, 26.899
1, 3240.00000, 123.02, -31.3077, 122.877, -151.31, 123.344, 88.7797, 0, 0, 8.41195, -54.3816, 8.42171, -174.384, 8.38985, 65.7058, 0.0342328, 26.899
1, 3300.00000, 123.02, -31.3077, 122.877, -151.31, 123.344, 88.7797, 0, 0, 8.41195, -54.3816, 8.42171, -174.384, 8.38985, 65.7058, 0.0342328, 26.899
1, 3360.00000, 123.02, -31.3077, 122.877, -151.31, 123.344, 88.7797, 0, 0, 8.41195, -54.3816, 8.42171, -174.384, 8.38985, 65.7058, 0.0342328, 26.899
1, 3420.00000, 123.02, -31.3077, 122.877, -151.31, 123.344, 88.7797, 0, 0, 8.41195, -54.3816, 8.42171, -174.384, 8.38985, 65.7058, 0.0342328, 26.899
1, 3480.00000, 123.02, -31.3077, 122.877, -151.31, 123.344, 88.7797, 0, 0, 8.41195, -54.3816, 8.42171, -174.384, 8.38985, 65.7058, 0.0342328, 26.899
1, 3540.00000, 123.02, -31.3077, 122.877, -151.31, 123.344, 88.7797, 0, 0, 8.41195, -54.3816, 8.42171, -174.384, 8.38985, 65.7058, 0.0342328, 26.899
2, 0.00000, 123.02, -31.3077, 122.877, -151.31, 123.344, 88.7797, 0, 0, 8.41195, -54.3816, 8.42171, -174.384, 8.38985, 65.7058, 0.0342328, 26.899
2, 60.00000, 122.83, -31.3416, 122.702, -151.343, 123.17, 88.7422, 0, 0, 8.65097, -54.4154, 8.66002, -174.417, 8.6271, 65.6683, 0.0349172, 29.558
2, 120.00000, 122.83, -31.3416, 122.702, -151.343, 123.17, 88.7422, 0, 0, 8.65101, -54.4155, 8.66003, -174.417, 8.62714, 65.6682, 0.0349027, 29.5921
2, 180.00000, 122.83, -31.3416, 122.702, -151.343, 123.17, 88.7422, 0, 0, 8.65101, -54.4155, 8.66003, -174.417, 8.62714, 65.6682, 0.0349026, 29.5922
2, 240.00000, 122.83, -31.3416, 122.702, -151.343, 123.17, 88.7422, 0, 0, 8.65101, -54.4155, 8.66003, -174.417, 8.62714, 65.6682, 0.0349026, 29.5923
2, 300.00000, 122.83, -31.3416, 122.702, -151.343, 123.17, 88.7422, 0, 0, 8.65101, -54.4155, 8.66003, -174.417, 8.62714, 65.6682, 0.0349026, 29.5923
2, 360.00000, 122.83, -31.3416, 122.702, -151.343, 123.17, 88.7422, 0, 0, 8.65101, -54.4155, 8.66003, -174.417, 8.62714, 65.6682, 0.0349026, 29.5923
2, 420.00000, 122.83, -31.3416, 122.702, -151.343, 123.17, 88.7422, 0, 0, 8.65101, -54.4155, 8.66003, -174.417, 8.62714, 65.6682, 0.0349026, 29.5923
2, 480.00000, 122.83, -31.3416, 122.702, -151.343, 123.17, 88.7422, 0, 0, 8.65101, -54.4155, 8.66003, -174.417, 8.62714, 65.6682, 0.0349026, 29.5923
2, 540.00000, 123.018, -31.1885, 123.096, -151.332, 123.15, 88.7456, 0, 0, 8.63783, -54.2625, 8.63245, -174.406, 8.62852, 65.6717, 0.0126814, -131.697
2, 600.00000, 123.018, -31.1885, 123.096, -151.332, 123.15, 88.7456, 0, 0, 8.63778, -54.2625, 8.63236, -174.405, 8.62857, 65.6716, 0.0127698, -131.872
2, 660.00000, 123.018, -31.1885, 123.096, -151.332, 123.15, 88.7456, 0, 0, 8.63778, -54.2625, 8.63236, -174.405, 8.62857, 65.6716, 0.0127703, -131.873
2, 720.00000, 123.018, -31.1885, 123.096, -151.332, 123.15, 88.7456, 0, 0, 8.63778, -54.2625, 8.63236, -174.405, 8.62857, 65.6716, 0.0127703, -131.873
2, 780.00000, 123.018, -31.1885, 123.096, -151.332, 123.15, 88.7456, 0, 0, 8.63778, -54.2625, 8.63236, -174.405, 8.62857, 65.6716, 0.0127703, -131.873
