hour,t(sec),"P1 (kW)","Q1 (kvar)","P2 (kW)","Q2 (kvar)","P3 (kW)","Q3 (kvar)","P4 (kW)","Q4 (kvar)"
0, 60.00000, 0.991167, 0.422235, 0.964022, 0.410664, 1.02536, 0.436791, 0, 0
0, 120.00000, 0.991219, 0.422257, 0.964014, 0.410662, 1.02592, 0.43703, 0, 0
0, 180.00000, 0.991265, 0.422276, 0.964007, 0.41066, 1.02642, 0.437245, 0, 0
0, 240.00000, 0.991306, 0.422294, 0.964001, 0.410657, 1.02688, 0.437439, 0, 0
0, 300.00000, 0.991342, 0.422309, 0.963995, 0.410656, 1.02728, 0.437613, 0, 0
0, 360.00000, 0.991375, 0.422323, 0.96399, 0.410654, 1.02765, 0.43777, 0, 0
0, 420.00000, 0.991404, 0.422335, 0.963986, 0.410652, 1.02798, 0.437912, 0, 0
0, 480.00000, 0.912441, 0.388698, 0.886212, 0.377518, 0.92975, 0.396067, 0, 0
0, 540.00000, 0.912457, 0.388705, 0.886208, 0.377518, 0.929747, 0.396066, 0, 0
0, 600.00000, 0.912472, 0.388711, 0.886205, 0.377517, 0.929745, 0.396065, 0, 0
0, 660.00000, 0.912485, 0.388717, 0.886202, 0.377516, 0.929743, 0.396065, 0, 0
0, 720.00000, 0.912497, 0.388722, 0.8862, 0.377515, 0.929741, 0.396064, 0, 0
0, 780.00000, 0.912507, 0.388726, 0.886197, 0.377515, 0.929739, 0.396064, 0, 0
0, 840.00000, 0.912517, 0.38873, 0.886195, 0.377514, 0.929738, 0.396064, 0, 0
0, 900.00000, 0.912526, 0.388734, 0.886193, 0.377514, 0.929736, 0.396063, 0, 0
0, 960.00000, 0.903642, 0.38495, 0.886293, 0.377557, 0.929734, 0.396063, 0, 0
0, 1020.00000, 0.903648, 0.384953, 0.886291, 0.377556, 0.929734, 0.396063, 0, 0
0, 1080.00000, 0.903653, 0.384955, 0.88629, 0.377556, 0.929733, 0.396063, 0, 0
0, 1140.00000, 0.903658, 0.384957, 0.886289, 0.377555, 0.929732, 0.396063, 0, 0
0, 1200.00000, 0.903662, 0.384959, 0.886288, 0.377555, 0.929731, 0.396062, 0, 0
0, 1260.00000, 0.903666, 0.38496, 0.886287, 0.377555, 0.929731, 0.396062, 0, 0
0, 1320.00000, 0.90367, 0.384962, 0.886286, 0.377555, 0.92973, 0.396062, 0, 0
0, 1380.00000, 0.903673, 0.384963, 0.886285, 0.377555, 0.929729, 0.396062, 0, 0
0, 1440.00000, 0.903676, 0.384964, 0.886284, 0.377554, 0.929729, 0.396062, 0, 0
0, 1500.00000, 0.903678, 0.384965, 0.886284, 0.377554, 0.929729, 0.396062, 0, 0
0, 1560.00000, 0.90368, 0.384966, 0.886283, 0.377554, 0.929728, 0.396062, 0, 0
0, 1620.00000, 0.903682, 0.384967, 0.886283, 0.377554, 0.929728, 0.396062, 0, 0
0, 1680.00000, 0.903684, 0.384968, 0.886282, 0.377554, 0.929727, 0.396062, 0, 0
0, 1740.00000, 0.903686, 0.384969, 0.886282, 0.377554, 0.929727, 0.396062, 0, 0
0, 1800.00000, 0.903687, 0.384969, 0.886281, 0.377554, 0.929727, 0.396062, 0, 0
0, 1860.00000, 0.903689, 0.38497, 0.886281, 0.377553, 0.929727, 0.396061, 0, 0
0, 1920.00000, 0.90369, 0.38497, 0.886281, 0.377553, 0.929727, 0.396061, 0, 0
0, 1980.00000, 0.903691, 0.384971, 0.88628, 0.377553, 0.929726, 0.396061, 0, 0
0, 2040.00000, 0.903692, 0.384971, 0.88628, 0.377553, 0.929726, 0.396061, 0, 0
0, 2100.00000, 0.903693, 0.384972, 0.88628, 0.377553, 0.929726, 0.396061, 0, 0
0, 2160.00000, 0.903694, 0.384972, 0.88628, 0.377553, 0.929726, 0.396061, 0, 0
0, 2220.00000, 0.903694, 0.384972, 0.886279, 0.377553, 0.929726, 0.396061, 0, 0
0, 2280.00000, 0.903695, 0.384972, 0.886279, 0.377553, 0.929726, 0.396061, 0, 0
0, 2340.00000, 0.903695, 0.384973, 0.886279, 0.377553, 0.929726, 0.396061, 0, 0
0, 2400.00000, 0.903696, 0.384973, 0.886279, 0.377553, 0.929725, 0.396061, 0, 0
0, 2460.00000, 0.903696, 0.384973, 0.886279, 0.377553, 0.929725, 0.396061, 0, 0
0, 2520.00000, 0.903697, 0.384973, 0.886279, 0.377553, 0.929725, 0.396061, 0, 0
0, 2580.00000, 0.903697, 0.384973, 0.886279, 0.377553, 0.929725, 0.396061, 0, 0
0, 2640.00000, 0.903698, 0.384974, 0.886279, 0.377553, 0.929725, 0.396061, 0, 0
0, 2700.00000, 0.903698, 0.384974, 0.886278, 0.377553, 0.929725, 0.396061, 0, 0
0, 2760.00000, 0.90357, 0.384919, 0.88768, 0.37815, 0.929725, 0.396061, 0, 0
0, 2820.00000, 0.90357, 0.384919, 0.88768, 0.37815, 0.929725, 0.396061, 0, 0
0, 2880.00000, 0.90357, 0.384919, 0.88768, 0.37815, 0.929725, 0.396061, 0, 0
0, 2940.00000, 0.903571, 0.384919, 0.88768, 0.37815, 0.929725, 0.396061, 0, 0
0, 3000.00000, 0.903571, 0.38492, 0.88768, 0.37815, 0.929725, 0.396061, 0, 0
0, 3060.00000, 0.903571, 0.38492, 0.88768, 0.37815, 0.929725, 0.396061, 0, 0
0, 3120.00000, 0.903571, 0.38492, 0.88768, 0.37815, 0.929725, 0.396061, 0, 0
0, 3180.00000, 0.903571, 0.38492, 0.88768, 0.37815, 0.929725, 0.396061, 0, 0
0, 3240.00000, 0.903571, 0.38492, 0.88768, 0.37815, 0.929725, 0.396061, 0, 0
0, 3300.00000, 0.903571, 0.38492, 0.88768, 0.37815, 0.929725, 0.396061, 0, 0
0, 3360.00000, 0.903571, 0.38492, 0.88768, 0.37815, 0.929725, 0.396061, 0, 0
0, 3420.00000, 0.903572, 0.38492, 0.88768, 0.37815, 0.929725, 0.396061, 0, 0
0, 3480.00000, 0.903572, 0.38492, 0.88768, 0.37815, 0.929725, 0.396061, 0, 0
0, 3540.00000, 0.903572, 0.38492, 0.88768, 0.37815, 0.929725, 0.396061, 0, 0
1, 0.00000, 0.903572, 0.38492, 0.88768, 0.37815, 0.929725, 0.396061, 0, 0
1, 60.00000, 0.904921, 0.385495, 0.892149, 0.380054, 0.929725, 0.396061, 0, 0
1, 120.00000, 0.904921, 0.385495, 0.892149, 0.380054, 0.929725, 0.396061, 0, 0
1, 180.00000, 0.904921, 0.385495, 0.892149, 0.380054, 0.929725, 0.396061, 0, 0
1, 240.00000, 0.904922, 0.385495, 0.892149, 0.380054, 0.929725, 0.396061, 0, 0
1, 300.00000, 0.904922, 0.385495, 0.892149, 0.380054, 0.929725, 0.396061, 0, 0
1, 360.00000, 0.904922, 0.385495, 0.892149, 0.380054, 0.929725, 0.396061, 0, 0
1, 420.00000, 0.904922, 0.385495, 0.892149, 0.380054, 0.929725, 0.396061, 0, 0
1, 480.00000, 0.904922, 0.385495, 0.892149, 0.380054, 0.929725, 0.396061, 0, 0
1, 540.00000, 0.904922, 0.385495, 0.892149, 0.380054, 0.929725, 0.396061, 0, 0
1, 600.00000, 0.904922, 0.385495, 0.892149, 0.380054, 0.929725, 0.396061, 0, 0
1, 660.00000, 0.904922, 0.385495, 0.892149, 0.380054, 0.929725, 0.396061, 0, 0
1, 720.00000, 0.904922, 0.385495, 0.892149, 0.380054, 0.929725, 0.396061, 0, 0
1, 780.00000, 0.904922, 0.385495, 0.892149, 0.380054, 0.929725, 0.396061, 0, 0
1, 840.00000, 0.904922, 0.385495, 0.892149, 0.380054, 0.929725, 0.396061, 0, 0
1, 900.00000, 0.904922, 0.385495, 0.892149, 0.380054, 0.929725, 0.396061, 0, 0
1, 960.00000, 0.904922, 0.385495, 0.892149, 0.380054, 0.929725, 0.396061, 0, 0
1, 1020.00000, 0.904922, 0.385495, 0.892149, 0.380054, 0.929725, 0.396061, 0, 0
1, 1080.00000, 0.904922, 0.385495, 0.892149, 0.380054, 0.929725, 0.396061, 0, 0
1, 1140.00000, 0.904922, 0.385495, 0.892149, 0.380054, 0.929725, 0.396061, 0, 0
1, 1200.00000, 0.904922, 0.385495, 0.892149, 0.380054, 0.929725, 0.396061, 0, 0
1, 1260.00000, 0.904922, 0.385495, 0.892149, 0.380054, 0.929725, 0.396061, 0, 0
1, 1320.00000, 0.904922, 0.385495, 0.892149, 0.380054, 0.929725, 0.396061, 0, 0
1, 1380.00000, 0.904922, 0.385495, 0.892149, 0.380054, 0.929725, 0.396061, 0, 0
1, 1440.00000, 0.904922, 0.385495, 0.892149, 0.380054, 0.929725, 0.396061, 0, 0
1, 1500.00000, 0.904922, 0.385495, 0.892149, 0.380054, 0.929725, 0.396061, 0, 0
1, 1560.00000, 0.904922, 0.385495, 0.892149, 0.380054, 0.929725, 0.396061, 0, 0
1, 1620.00000, 0.904922, 0.385495, 0.892149, 0.380054, 0.929725, 0.396061, 0, 0
1, 1680.00000, 0.904922, 0.385495, 0.892149, 0.380054, 0.929725, 0.396061, 0, 0
1, 1740.00000, 0.904922, 0.385495, 0.892149, 0.380054, 0.929725, 0.396061, 0, 0
1, 1800.00000, 0.904922, 0.385495, 0.892149, 0.380054, 0.929725, 0.396061, 0, 0
1, 1860.00000, 0.904922, 0.385495, 0.892149, 0.380054, 0.929725, 0.396061, 0, 0
1, 1920.00000, 0.904922, 0.385495, 0.892149, 0.380054, 0.929725, 0.396061, 0, 0
1, 1980.00000, 0.904922, 0.385495, 0.892149, 0.380054, 0.929725, 0.396061, 0, 0
1, 2040.00000, 0.904922, 0.385495, 0.892149, 0.380054, 0.929725, 0.396061, 0, 0
1, 2100.00000, 0.904922, 0.385495, 0.892149, 0.380054, 0.929725, 0.396061, 0, 0
1, 2160.00000, 0.904922, 0.385495, 0.892149, 0.380054, 0.929725, 0.396061, 0, 0
1, 2220.00000, 0.904922, 0.385495, 0.892149, 0.380054, 0.929725, 0.396061, 0, 0
1, 2280.00000, 0.904922, 0.385495, 0.892149, 0.380054, 0.929725, 0.396061, 0, 0
1, 2340.00000, 0.904922, 0.385495, 0.892149, 0.380054, 0.929725, 0.396061, 0, 0
1, 2400.00000, 0.904922, 0.385495, 0.892149, 0.380054, 0.929725, 0.396061, 0, 0
1, 2460.00000, 0.904922, 0.385495, 0.892149, 0.380054, 0.929725, 0.396061, 0, 0
1, 2520.00000, 0.904922, 0.385495, 0.892149, 0.380054, 0.929725, 0.396061, 0, 0
1, 2580.00000, 0.904922, 0.385495, 0.892149, 0.380054, 0.929725, 0.396061, 0, 0
1, 2640.00000, 0.904922, 0.385495, 0.892149, 0.380054, 0.929725, 0.396061, 0, 0
1, 2700.00000, 0.904922, 0.385495, 0.892149, 0.380054, 0.929725, 0.396061, 0, 0
1, 2760.00000, 0.904922, 0.385495, 0.892149, 0.380054, 0.929725, 0.396061, 0, 0
1, 2820.00000, 0.904922, 0.385495, 0.892149, 0.380054, 0.929725, 0.396061, 0, 0
1, 2880.00000, 0.904922, 0.385495, 0.892149, 0.380054, 0.929725, 0.396061, 0, 0
1, 2940.00000, 0.904922, 0.385495, 0.892149, 0.380054, 0.929725, 0.396061, 0, 0
1, 3000.00000, 0.904922, 0.385495, 0.892149, 0.380054, 0.929725, 0.396061, 0, 0
1, 3060.00000, 0.904922, 0.385495, 0.892149, 0.380054, 0.929725, 0.396061, 0, 0
1, 3120.00000, 0.904922, 0.385495, 0.892149, 0.380054, 0.929725, 0.396061, 0, 0
1, 3180.00000, 0.904922, 0.385495, 0.892149, 0.380054, 0.929725, 0.396061, 0, 0
1, 3240.00000, 0.904922, 0.385495, 0.892149, 0.380054, 0.929725, 0.396061, 0, 0
1, 3300.00000, 0.904922, 0.385495, 0.892149, 0.380054, 0.929725, 0.396061, 0, 0
1, 3360.00000, 0.904922, 0.385495, 0.892149, 0.380054, 0.929725, 0.396061, 0, 0
1, 3420.00000, 0.904922, 0.385495, 0.892149, 0.380054, 0.929725, 0.396061, 0, 0
1, 3480.00000, 0.904922, 0.385495, 0.892149, 0.380054, 0.929725, 0.396061, 0, 0
1, 3540.00000, 0.904922, 0.385495, 0.892149, 0.380054, 0.929725, 0.396061, 0, 0
2, 0.00000, 0.904922, 0.385495, 0.892149, 0.380054, 0.929725, 0.396061, 0, 0
2, 60.00000, 0.904922, 0.385495, 0.892149, 0.380054, 0.929725, 0.396061, 0, 0
2, 120.00000, 0.904922, 0.385495, 0.892149, 0.380054, 0.929725, 0.396061, 0, 0
2, 180.00000, 0.904922, 0.385495, 0.892149, 0.380054, 0.929725, 0.396061, 0, 0
2, 240.00000, 0.904922, 0.385495, 0.892149, 0.380054, 0.929725, 0.396061, 0, 0
2, 300.00000, 0.904922, 0.385495, 0.892149, 0.380054, 0.929725, 0.396061, 0, 0
2, 360.00000, 0.904922, 0.385495, 0.892149, 0.380054, 0.929725, 0.396061, 0, 0
2, 420.00000, 0.904922, 0.385495, 0.892149, 0.380054, 0.929725, 0.396061, 0, 0
2, 480.00000, 0.904922, 0.385495, 0.892149, 0.380054, 0.929725, 0.396061, 0, 0
2, 540.00000, 0.904922, 0.385495, 0.892149, 0.380054, 0.929725, 0.396061, 0, 0
2, 600.00000, 0.904922, 0.385495, 0.892149, 0.380054, 0.929725, 0.396061, 0, 0
2, 660.00000, 0.904922, 0.385495, 0.892149, 0.380054, 0.929725, 0.396061, 0, 0
2, 720.00000, 0.904922, 0.385495, 0.892149, 0.380054, 0.929725, 0.396061, 0, 0
2, 780.00000, 0.904922, 0.385495, 0.892149, 0.380054, 0.929725, 0.396061, 0, 0
2, 840.00000, 0.913878, 0.389311, 0.892027, 0.380001, 0.929725, 0.396062, 0, 0
2, 900.00000, 0.913878, 0.38931, 0.892026, 0.380002, 0.929725, 0.396061, 0, 0
2, 960.00000, 0.913878, 0.38931, 0.892026, 0.380002, 0.929725, 0.396061, 0, 0
2, 1020.00000, 0.913878, 0.38931, 0.892026, 0.380002, 0.929725, 0.396061, 0, 0
2, 1080.00000, 0.913878, 0.38931, 0.892026, 0.380002, 0.929725, 0.396061, 0, 0
2, 1140.00000, 0.913878, 0.38931, 0.892026, 0.380002, 0.929725, 0.396061, 0, 0
2, 1200.00000, 0.913878, 0.38931, 0.892026, 0.380002, 0.929725, 0.396061, 0, 0
2, 1260.00000, 0.913878, 0.38931, 0.892026, 0.380002, 0.929725, 0.396061, 0, 0
2, 1320.00000, 0.913878, 0.38931, 0.892026, 0.380002, 0.929725, 0.396061, 0, 0
2, 1380.00000, 0.913878, 0.38931, 0.892026, 0.380002, 0.929725, 0.396061, 0, 0
2, 1440.00000, 0.913878, 0.38931, 0.892026, 0.380002, 0.929725, 0.396061, 0, 0
2, 1500.00000, 0.913878, 0.38931, 0.892026, 0.380002, 0.929725, 0.396061, 0, 0
2, 1560.00000, 0.913878, 0.38931, 0.892026, 0.380002, 0.929725, 0.396061, 0, 0
2, 1620.00000, 0.913878, 0.38931, 0.892026, 0.380002, 0.929725, 0.396061, 0, 0
2, 1680.00000, 0.913878, 0.38931, 0.892026, 0.380002, 0.929725, 0.396061, 0, 0
2, 1740.00000, 0.913878, 0.38931, 0.892026, 0.380002, 0.929725, 0.396061, 0, 0
2, 1800.00000, 0.913878, 0.38931, 0.892026, 0.380002, 0.929725, 0.396061, 0, 0
2, 1860.00000, 0.913878, 0.38931, 0.892026, 0.380002, 0.929725, 0.396061, 0, 0
2, 1920.00000, 0.913878, 0.38931, 0.892026, 0.380002, 0.929725, 0.396061, 0, 0
2, 1980.00000, 0.913878, 0.38931, 0.892026, 0.380002, 0.929725, 0.396061, 0, 0
2, 2040.00000, 0.913878, 0.38931, 0.892026, 0.380002, 0.929725, 0.396061, 0, 0
2, 2100.00000, 0.913878, 0.38931, 0.892026, 0.380002, 0.929725, 0.396061, 0, 0
2, 2160.00000, 0.913878, 0.38931, 0.892026, 0.380002, 0.929725, 0.396061, 0, 0
2, 2220.00000, 0.913878, 0.38931, 0.892026, 0.380002, 0.929725, 0.396061, 0, 0
2, 2280.00000, 0.913878, 0.38931, 0.892026, 0.380002, 0.929725, 0.396061, 0, 0
2, 2340.00000, 0.913878, 0.38931, 0.892026, 0.380002, 0.929725, 0.396061, 0, 0
2, 2400.00000, 0.914976, 0.389778, 0.916044, 0.390233, 0.929726, 0.396062, 0, 0
2, 2460.00000, 0.914976, 0.389778, 0.916044, 0.390233, 0.929725, 0.396061, 0, 0
2, 2520.00000, 0.914976, 0.389778, 0.916044, 0.390233, 0.929725, 0.396061, 0, 0
2, 2580.00000, 0.914976, 0.389778, 0.916044, 0.390233, 0.929725, 0.396061, 0, 0
2, 2640.00000, 0.914976, 0.389778, 0.916044, 0.390233, 0.929725, 0.396061, 0, 0
2, 2700.00000, 0.90549, 0.385737, 0.916154, 0.39028, 0.929724, 0.396061, 0, 0
2, 2760.00000, 0.90549, 0.385737, 0.916155, 0.39028, 0.929725, 0.396061, 0, 0
2, 2820.00000, 0.90549, 0.385737, 0.916155, 0.39028, 0.929725, 0.396061, 0, 0
2, 2880.00000, 0.90549, 0.385737, 0.916155, 0.39028, 0.929725, 0.396061, 0, 0
2, 2940.00000, 0.90549, 0.385737, 0.916155, 0.39028, 0.929725, 0.396061, 0, 0
2, 3000.00000, 0.90549, 0.385737, 0.916155, 0.39028, 0.929725, 0.396061, 0, 0
2, 3060.00000, 0.910178, 0.387734, 0.916108, 0.39026, 0.929726, 0.396062, 0, 0
2, 3120.00000, 0.910177, 0.387734, 0.916107, 0.39026, 0.929725, 0.396061, 0, 0
2, 3180.00000, 0.910177, 0.387734, 0.916107, 0.39026, 0.929725, 0.396061, 0, 0
2, 3240.00000, 0.910177, 0.387734, 0.916107, 0.39026, 0.929725, 0.396061, 0, 0
2, 3300.00000, 0.910177, 0.387734, 0.916107, 0.39026, 0.929725, 0.396061, 0, 0
2, 3360.00000, 0.910177, 0.387734, 0.916107, 0.39026, 0.929725, 0.396061, 0, 0
2, 3420.00000, 0.910177, 0.387734, 0.916107, 0.39026, 0.929725, 0.396061, 0, 0
2, 3480.00000, 0.910177, 0.387734, 0.916107, 0.39026, 0.929725, 0.396061, 0, 0
2, 3540.00000, 0.910177, 0.387734, 0.916107, 0.39026, 0.929725, 0.396061, 0, 0
3, 0.00000, 0.910177, 0.387734, 0.916107, 0.39026, 0.929725, 0.396061, 0, 0
3, 60.00000, 0.910177, 0.387734, 0.916107, 0.39026, 0.929725, 0.396061, 0, 0
3, 120.00000, 0.910177, 0.387734, 0.916107, 0.39026, 0.929725, 0.396061, 0, 0
3, 180.00000, 0.910177, 0.387734, 0.916107, 0.39026, 0.929725, 0.396061, 0, 0
3, 240.00000, 0.910177, 0.387734, 0.916107, 0.39026, 0.929725, 0.396061, 0, 0
3, 300.00000, 0.910177, 0.387734, 0.916107, 0.39026, 0.929725, 0.396061, 0, 0
3, 360.00000, 0.910177, 0.387734, 0.916107, 0.39026, 0.929725, 0.396061, 0, 0
3, 420.00000, 0.910177, 0.387734, 0.916107, 0.39026, 0.929725, 0.396061, 0, 0
3, 480.00000, 0.910177, 0.387734, 0.916107, 0.39026, 0.929725, 0.396061, 0, 0
3, 540.00000, 0.910177, 0.387734, 0.916107, 0.39026, 0.929725, 0.396061, 0, 0
3, 600.00000, 0.910177, 0.387734, 0.916107, 0.39026, 0.929725, 0.396061, 0, 0
3, 660.00000, 0.910177, 0.387734, 0.916107, 0.39026, 0.929725, 0.396061, 0, 0
3, 720.00000, 0.910177, 0.387734, 0.916107, 0.39026, 0.929725, 0.396061, 0, 0
3, 780.00000, 0.910177, 0.387734, 0.916107, 0.39026, 0.929725, 0.396061, 0, 0
3, 840.00000, 0.910177, 0.387734, 0.916107, 0.39026, 0.929725, 0.396061, 0, 0
3, 900.00000, 0.910177, 0.387734, 0.916107, 0.39026, 0.929725, 0.396061, 0, 0
3, 960.00000, 0.910177, 0.387734, 0.916107, 0.39026, 0.929725, 0.396061, 0, 0
3, 1020.00000, 0.910177, 0.387734, 0.916107, 0.39026, 0.929725, 0.396061, 0, 0
3, 1080.00000, 0.910177, 0.387734, 0.916107, 0.39026, 0.929725, 0.396061, 0, 0
3, 1140.00000, 0.910177, 0.387734, 0.916107, 0.39026, 0.929725, 0.396061, 0, 0
3, 1200.00000, 0.910177, 0.387734, 0.916107, 0.39026, 0.929725, 0.396061, 0, 0
3, 1260.00000, 0.910177, 0.387734, 0.916107, 0.39026, 0.929725, 0.396061, 0, 0
3, 1320.00000, 0.910177, 0.387734, 0.916107, 0.39026, 0.929725, 0.396061, 0, 0
3, 1380.00000, 0.910177, 0.387734, 0.916107, 0.39026, 0.929725, 0.396061, 0, 0
3, 1440.00000, 0.910177, 0.387734, 0.916107, 0.39026, 0.929725, 0.396061, 0, 0
3, 1500.00000, 0.910177, 0.387734, 0.916107, 0.39026, 0.929725, 0.396061, 0, 0
3, 1560.00000, 0.910177, 0.387734, 0.916107, 0.39026, 0.929725, 0.396061, 0, 0
3, 1620.00000, 0.910177, 0.387734, 0.916107, 0.39026, 0.929725, 0.396061, 0, 0
3, 1680.00000, 0.910177, 0.387734, 0.916107, 0.39026, 0.929725, 0.396061, 0, 0
3, 1740.00000, 0.910177, 0.387734, 0.916107, 0.39026, 0.929725, 0.396061, 0, 0
3, 1800.00000, 0.910177, 0.387734, 0.916107, 0.39026, 0.929725, 0.396061, 0, 0
3, 1860.00000, 0.910177, 0.387734, 0.916107, 0.39026, 0.929725, 0.396061, 0, 0
3, 1920.00000, 0.910177, 0.387734, 0.916107, 0.39026, 0.929725, 0.396061, 0, 0
3, 1980.00000, 0.910177, 0.387734, 0.916107, 0.39026, 0.929725, 0.396061, 0, 0
3, 2040.00000, 0.910177, 0.387734, 0.916107, 0.39026, 0.929725, 0.396061, 0, 0
3, 2100.00000, 0.910177, 0.387734, 0.916107, 0.39026, 0.929725, 0.396061, 0, 0
3, 2160.00000, 0.910177, 0.387734, 0.916107, 0.39026, 0.929725, 0.396061, 0, 0
3, 2220.00000, 0.910177, 0.387734, 0.916107, 0.39026, 0.929725, 0.396061, 0, 0
3, 2280.00000, 0.910177, 0.387734, 0.916107, 0.39026, 0.929725, 0.396061, 0, 0
3, 2340.00000, 0.910177, 0.387734, 0.916107, 0.39026, 0.929725, 0.396061, 0, 0
3, 2400.00000, 0.910177, 0.387734, 0.916107, 0.39026, 0.929725, 0.396061, 0, 0
3, 2460.00000, 0.910177, 0.387734, 0.916107, 0.39026, 0.929725, 0.396061, 0, 0
3, 2520.00000, 0.910177, 0.387734, 0.916107, 0.39026, 0.929725, 0.396061, 0, 0
3, 2580.00000, 0.910177, 0.387734, 0.916107, 0.39026, 0.929725, 0.396061, 0, 0
3, 2640.00000, 0.910177, 0.387734, 0.916107, 0.39026, 0.929725, 0.396061, 0, 0
3, 2700.00000, 0.910177, 0.387734, 0.916107, 0.39026, 0.929725, 0.396061, 0, 0
3, 2760.00000, 0.910177, 0.387734, 0.916107, 0.39026, 0.929725, 0.396061, 0, 0
3, 2820.00000, 0.910177, 0.387734, 0.916107, 0.39026, 0.929725, 0.396061, 0, 0
3, 2880.00000, 0.910177, 0.387734, 0.916107, 0.39026, 0.929725, 0.396061, 0, 0
3, 2940.00000, 0.910177, 0.387734, 0.916107, 0.39026, 0.929725, 0.396061, 0, 0
3, 3000.00000, 0.910177, 0.387734, 0.916107, 0.39026, 0.929725, 0.396061, 0, 0
3, 3060.00000, 0.910177, 0.387734, 0.916107, 0.39026, 0.929725, 0.396061, 0, 0
3, 3120.00000, 0.910177, 0.387734, 0.916107, 0.39026, 0.929725, 0.396061, 0, 0
3, 3180.00000, 0.887049, 0.377881, 0.892981, 0.380409, 0.90986, 0.387598, 0, 0
3, 3240.00000, 0.887049, 0.377881, 0.892981, 0.380408, 0.909861, 0.387599, 0, 0
3, 3300.00000, 0.887049, 0.377881, 0.892981, 0.380408, 0.909861, 0.387599, 0, 0
3, 3360.00000, 0.887049, 0.377881, 0.892981, 0.380408, 0.909861, 0.387599, 0, 0
3, 3420.00000, 0.887049, 0.377881, 0.892981, 0.380408, 0.909861, 0.387599, 0, 0
3, 3480.00000, 0.887049, 0.377881, 0.892981, 0.380408, 0.909861, 0.387599, 0, 0
3, 3540.00000, 0.887049, 0.377881, 0.892981, 0.380408, 0.909861, 0.387599, 0, 0
4, 0.00000, 0.887049, 0.377881, 0.892981, 0.380408, 0.909861, 0.387599, 0, 0
4, 60.00000, 0.887049, 0.377881, 0.892981, 0.380408, 0.909861, 0.387599, 0, 0
4, 120.00000, 0.887049, 0.377881, 0.892981, 0.380408, 0.909861, 0.387599, 0, 0
4, 180.00000, 0.887049, 0.377881, 0.892981, 0.380408, 0.909861, 0.387599, 0, 0
4, 240.00000, 0.887049, 0.377881, 0.892981, 0.380408, 0.909861, 0.387599, 0, 0
4, 300.00000, 0.887049, 0.377881, 0.892981, 0.380408, 0.909861, 0.387599, 0, 0
4, 360.00000, 0.887049, 0.377881, 0.892981, 0.380408, 0.909861, 0.387599, 0, 0
4, 420.00000, 0.887049, 0.377881, 0.892981, 0.380408, 0.909861, 0.387599, 0, 0
4, 480.00000, 0.887049, 0.377881, 0.892981, 0.380408, 0.909861, 0.387599, 0, 0
4, 540.00000, 0.887049, 0.377881, 0.892981, 0.380408, 0.909861, 0.387599, 0, 0
4, 600.00000, 0.887049, 0.377881, 0.892981, 0.380408, 0.909861, 0.387599, 0, 0
4, 660.00000, 0.887049, 0.377881, 0.892981, 0.380408, 0.909861, 0.387599, 0, 0
4, 720.00000, 0.887049, 0.377881, 0.892981, 0.380408, 0.909861, 0.387599, 0, 0
