hour,t(sec),V1,VAngle1,V2,VAngle2,V3,VAngle3,V4,VAngle4,I1,IAngle1,I2,IAngle2,I3,IAngle3,I4,IAngle4
0, 60.00000, 123.334, -32.0766, 122.874, -151.209, 125.259, 88.5757, 0, 0, 5.31363, -55.1504, 5.3335, -174.282, 5.23211, 65.5017, 0.165379, 52.3372
0, 120.00000, 123.34, -32.0828, 122.874, -151.209, 125.277, 88.5754, 0, 0, 5.31336, -55.1566, 5.33352, -174.283, 5.23135, 65.5014, 0.166589, 52.2509
0, 180.00000, 123.346, -32.0884, 122.874, -151.209, 125.293, 88.5751, 0, 0, 5.31311, -55.1622, 5.33353, -174.283, 5.23066, 65.5011, 0.167676, 52.175
0, 240.00000, 123.351, -32.0934, 122.873, -151.209, 125.307, 88.5748, 0, 0, 5.31289, -55.1672, 5.33354, -174.283, 5.23005, 65.5009, 0.168655, 52.1078
0, 300.00000, 123.356, -32.098, 122.873, -151.209, 125.32, 88.5746, 0, 0, 5.31269, -55.1718, 5.33355, -174.283, 5.22949, 65.5006, 0.169537, 52.0483
0, 360.00000, 123.36, -32.1021, 122.873, -151.209, 125.332, 88.5743, 0, 0, 5.31251, -55.1759, 5.33356, -174.283, 5.22899, 65.5004, 0.170331, 51.9953
0, 420.00000, 123.364, -32.1057, 122.873, -151.209, 125.343, 88.5741, 0, 0, 5.31235, -55.1796, 5.33357, -174.283, 5.22854, 65.5002, 0.171046, 51.9482
0, 480.00000, 123.978, -32.0054, 123.445, -151.097, 125.957, 88.6987, 0, 0, 4.59886, -55.0792, 4.6187, -174.171, 4.52665, 65.6248, 0.149894, 51.1433
0, 540.00000, 123.981, -32.0084, 123.445, -151.097, 125.966, 88.6985, 0, 0, 4.59874, -55.0823, 4.61871, -174.171, 4.52634, 65.6246, 0.150399, 51.1092
0, 600.00000, 123.984, -32.0112, 123.445, -151.097, 125.973, 88.6983, 0, 0, 4.59864, -55.085, 4.61871, -174.171, 4.52605, 65.6244, 0.150852, 51.0789
0, 660.00000, 123.986, -32.0136, 123.445, -151.097, 125.98, 88.6981, 0, 0, 4.59855, -55.0875, 4.61872, -174.171, 4.5258, 65.6242, 0.15126, 51.0518
0, 720.00000, 123.989, -32.0158, 123.445, -151.097, 125.987, 88.698, 0, 0, 4.59847, -55.0897, 4.61872, -174.171, 4.52557, 65.6241, 0.151627, 51.0277
0, 780.00000, 123.991, -32.0178, 123.445, -151.097, 125.992, 88.6978, 0, 0, 4.59839, -55.0917, 4.61872, -174.171, 4.52537, 65.6239, 0.151958, 51.0061
0, 840.00000, 123.992, -32.0196, 123.445, -151.097, 125.997, 88.6977, 0, 0, 4.59832, -55.0935, 4.61873, -174.171, 4.52518, 65.6238, 0.152256, 50.9868
0, 900.00000, 123.994, -32.0212, 123.445, -151.097, 126.002, 88.6976, 0, 0, 4.59826, -55.0951, 4.61873, -174.171, 4.52502, 65.6237, 0.152523, 50.9695
0, 960.00000, 123.996, -32.0227, 123.445, -151.097, 126.006, 88.6975, 0, 0, 4.59821, -55.0966, 4.61873, -174.171, 4.52487, 65.6236, 0.152765, 50.9541
0, 1020.00000, 123.997, -32.024, 123.445, -151.097, 126.01, 88.6974, 0, 0, 4.59816, -55.0979, 4.61873, -174.171, 4.52473, 65.6235, 0.152982, 50.9402
0, 1080.00000, 123.998, -32.0252, 123.445, -151.097, 126.013, 88.6973, 0, 0, 4.59812, -55.0991, 4.61874, -174.171, 4.52461, 65.6234, 0.153177, 50.9278
0, 1140.00000, 123.999, -32.0262, 123.444, -151.097, 126.016, 88.6973, 0, 0, 4.59808, -55.1001, 4.61874, -174.171, 4.5245, 65.6233, 0.153353, 50.9166
0, 1200.00000, 124, -32.0272, 123.444, -151.097, 126.019, 88.6972, 0, 0, 4.59804, -55.1011, 4.61874, -174.171, 4.5244, 65.6233, 0.153511, 50.9067
0, 1260.00000, 124.001, -32.028, 123.444, -151.097, 126.021, 88.6971, 0, 0, 4.59801, -55.1019, 4.61874, -174.171, 4.52432, 65.6232, 0.153654, 50.8977
0, 1320.00000, 124.002, -32.0288, 123.444, -151.097, 126.023, 88.6971, 0, 0, 4.59798, -55.1027, 4.61874, -174.171, 4.52424, 65.6232, 0.153782, 50.8897
0, 1380.00000, 124.002, -32.0295, 123.444, -151.097, 126.025, 88.697, 0, 0, 4.59796, -55.1034, 4.61874, -174.171, 4.52416, 65.6231, 0.153897, 50.8824
0, 1440.00000, 124.003, -32.0301, 123.444, -151.097, 126.027, 88.697, 0, 0, 4.59793, -55.104, 4.61874, -174.171, 4.5241, 65.6231, 0.154001, 50.876
0, 1500.00000, 124.004, -32.0307, 123.444, -151.097, 126.029, 88.6969, 0, 0, 4.59791, -55.1046, 4.61874, -174.171, 4.52404, 65.623, 0.154095, 50.8701
0, 1560.00000, 124.004, -32.0312, 123.444, -151.097, 126.03, 88.6969, 0, 0, 4.59789, -55.1051, 4.61875, -174.171, 4.52399, 65.623, 0.154179, 50.8649
0, 1620.00000, 124.005, -32.0317, 123.444, -151.097, 126.031, 88.6969, 0, 0, 4.59788, -55.1056, 4.61875, -174.171, 4.52394, 65.6229, 0.154255, 50.8602
0, 1680.00000, 124.005, -32.0321, 123.444, -151.097, 126.033, 88.6968, 0, 0, 4.59786, -55.106, 4.61875, -174.171, 4.5239, 65.6229, 0.154323, 50.856
0, 1740.00000, 124.005, -32.0325, 123.444, -151.097, 126.034, 88.6968, 0, 0, 4.59785, -55.1064, 4.61875, -174.171, 4.52386, 65.6229, 0.154384, 50.8522
0, 1800.00000, 124.006, -32.0328, 123.444, -151.097, 126.035, 88.6968, 0, 0, 4.59784, -55.1067, 4.61875, -174.171, 4.52383, 65.6229, 0.154439, 50.8488
0, 1860.00000, 124.006, -32.0331, 123.444, -151.097, 126.035, 88.6968, 0, 0, 4.59782, -55.107, 4.61875, -174.171, 4.5238, 65.6228, 0.154489, 50.8457
0, 1920.00000, 124.006, -32.0334, 123.444, -151.097, 126.036, 88.6967, 0, 0, 4.59781, -55.1073, 4.61875, -174.171, 4.52377, 65.6228, 0.154534, 50.8429
0, 1980.00000, 124.007, -32.0336, 123.444, -151.097, 126.037, 88.6967, 0, 0, 4.59781, -55.1075, 4.61875, -174.171, 4.52374, 65.6228, 0.154574, 50.8404
0, 2040.00000, 124.007, -32.0338, 123.444, -151.097, 126.037, 88.6967, 0, 0, 4.5978, -55.1077, 4.61875, -174.171, 4.52372, 65.6228, 0.15461, 50.8382
0, 2100.00000, 124.007, -32.034, 123.444, -151.097, 126.038, 88.6967, 0, 0, 4.59779, -55.1079, 4.61875, -174.171, 4.5237, 65.6228, 0.154643, 50.8362
0, 2160.00000, 124.007, -32.0342, 123.444, -151.097, 126.038, 88.6967, 0, 0, 4.59778, -55.1081, 4.61875, -174.171, 4.52368, 65.6228, 0.154672, 50.8344
0, 2220.00000, 124.007, -32.0344, 123.444, -151.097, 126.039, 88.6967, 0, 0, 4.59778, -55.1083, 4.61875, -174.171, 4.52367, 65.6228, 0.154699, 50.8328
0, 2280.00000, 124.007, -32.0345, 123.444, -151.097, 126.039, 88.6967, 0, 0, 4.59777, -55.1084, 4.61875, -174.171, 4.52365, 65.6227, 0.154723, 50.8313
0, 2340.00000, 124.008, -32.0346, 123.444, -151.097, 126.04, 88.6967, 0, 0, 4.59777, -55.1085, 4.61875, -174.171, 4.52364, 65.6227, 0.154744, 50.83
0, 2400.00000, 124.008, -32.0347, 123.444, -151.097, 126.04, 88.6966, 0, 0, 4.59776, -55.1087, 4.61875, -174.171, 4.52363, 65.6227, 0.154763, 50.8288
0, 2460.00000, 124.008, -32.0348, 123.444, -151.097, 126.04, 88.6966, 0, 0, 4.59776, -55.1088, 4.61875, -174.171, 4.52362, 65.6227, 0.154781, 50.8278
0, 2520.00000, 124.008, -32.0349, 123.444, -151.097, 126.041, 88.6966, 0, 0, 4.59776, -55.1089, 4.61875, -174.171, 4.52361, 65.6227, 0.154796, 50.8268
0, 2580.00000, 124.008, -32.035, 123.444, -151.097, 126.041, 88.6966, 0, 0, 4.59775, -55.1089, 4.61875, -174.171, 4.5236, 65.6227, 0.15481, 50.8259
0, 2640.00000, 124.008, -32.0351, 123.444, -151.097, 126.041, 88.6966, 0, 0, 4.59775, -55.109, 4.61875, -174.171, 4.52359, 65.6227, 0.154823, 50.8252
0, 2700.00000, 124.008, -32.0352, 123.444, -151.097, 126.041, 88.6966, 0, 0, 4.59775, -55.1091, 4.61875, -174.171, 4.52358, 65.6227, 0.154834, 50.8245
0, 2760.00000, 124.008, -32.0352, 123.444, -151.097, 126.041, 88.6966, 0, 0, 4.59774, -55.1091, 4.61875, -174.171, 4.52358, 65.6227, 0.154844, 50.8238
0, 2820.00000, 124.008, -32.0353, 123.444, -151.097, 126.042, 88.6966, 0, 0, 4.59774, -55.1092, 4.61875, -174.171, 4.52357, 65.6227, 0.154854, 50.8233
0, 2880.00000, 124.008, -32.0353, 123.444, -151.097, 126.042, 88.6966, 0, 0, 4.59774, -55.1093, 4.61875, -174.171, 4.52357, 65.6227, 0.154862, 50.8228
0, 2940.00000, 124.008, -32.0354, 123.444, -151.097, 126.042, 88.6966, 0, 0, 4.59774, -55.1093, 4.61875, -174.171, 4.52356, 65.6227, 0.154869, 50.8223
0, 3000.00000, 124.008, -32.0354, 123.444, -151.097, 126.042, 88.6966, 0, 0, 4.59774, -55.1093, 4.61875, -174.171, 4.52356, 65.6227, 0.154876, 50.8219
0, 3060.00000, 124.008, -32.0355, 123.444, -151.097, 126.042, 88.6966, 0, 0, 4.59774, -55.1094, 4.61875, -174.171, 4.52355, 65.6227, 0.154882, 50.8215
0, 3120.00000, 124.008, -32.0355, 123.444, -151.097, 126.042, 88.6966, 0, 0, 4.59773, -55.1094, 4.61875, -174.171, 4.52355, 65.6227, 0.154888, 50.8212
0, 3180.00000, 124.008, -32.0355, 123.444, -151.097, 126.042, 88.6966, 0, 0, 4.59773, -55.1094, 4.61875, -174.171, 4.52355, 65.6227, 0.154893, 50.8209
0, 3240.00000, 124.008, -32.0355, 123.444, -151.097, 126.042, 88.6966, 0, 0, 4.59773, -55.1095, 4.61875, -174.171, 4.52354, 65.6227, 0.154897, 50.8206
0, 3300.00000, 124.008, -32.0356, 123.444, -151.097, 126.042, 88.6966, 0, 0, 4.59773, -55.1095, 4.61875, -174.171, 4.52354, 65.6227, 0.154901, 50.8204
0, 3360.00000, 124.009, -32.0356, 123.444, -151.097, 126.042, 88.6966, 0, 0, 4.59773, -55.1095, 4.61875, -174.171, 4.52354, 65.6227, 0.154904, 50.8202
0, 3420.00000, 124.009, -32.0356, 123.444, -151.097, 126.042, 88.6966, 0, 0, 4.59773, -55.1095, 4.61875, -174.171, 4.52354, 65.6227, 0.154908, 50.82
0, 3480.00000, 124.009, -32.0356, 123.444, -151.097, 126.043, 88.6966, 0, 0, 4.59773, -55.1095, 4.61875, -174.171, 4.52354, 65.6227, 0.154911, 50.8198
0, 3540.00000, 124.009, -32.0356, 123.444, -151.097, 126.043, 88.6966, 0, 0, 4.59773, -55.1096, 4.61875, -174.171, 4.52353, 65.6227, 0.154913, 50.8196
1, 0.00000, 124.009, -32.0357, 123.444, -151.097, 126.043, 88.6966, 0, 0, 4.59773, -55.1096, 4.61875, -174.171, 4.52353, 65.6227, 0.154916, 50.8195
1, 60.00000, 124.262, -31.8646, 123.914, -151.104, 126.012, 88.7017, 0, 0, 4.58834, -54.9386, 4.60124, -174.178, 4.52464, 65.6277, 0.125581, 53.5744
1, 120.00000, 124.262, -31.8647, 123.914, -151.104, 126.012, 88.7017, 0, 0, 4.58834, -54.9386, 4.60124, -174.178, 4.52464, 65.6277, 0.125583, 53.5742
1, 180.00000, 124.262, -31.8647, 123.914, -151.104, 126.012, 88.7017, 0, 0, 4.58834, -54.9386, 4.60124, -174.178, 4.52463, 65.6277, 0.125585, 53.5741
1, 240.00000, 124.262, -31.8647, 123.914, -151.104, 126.012, 88.7017, 0, 0, 4.58833, -54.9386, 4.60124, -174.178, 4.52463, 65.6277, 0.125586, 53.5739
1, 300.00000, 124.262, -31.8647, 123.914, -151.104, 126.012, 88.7017, 0, 0, 4.58833, -54.9386, 4.60124, -174.178, 4.52463, 65.6277, 0.125587, 53.5738
1, 360.00000, 124.262, -31.8647, 123.914, -151.104, 126.012, 88.7017, 0, 0, 4.58833, -54.9386, 4.60124, -174.178, 4.52463, 65.6277, 0.125589, 53.5737
1, 420.00000, 124.263, -31.8647, 123.914, -151.104, 126.012, 88.7017, 0, 0, 4.58833, -54.9386, 4.60124, -174.178, 4.52463, 65.6277, 0.12559, 53.5736
1, 480.00000, 124.263, -31.8647, 123.914, -151.104, 126.012, 88.7017, 0, 0, 4.58833, -54.9386, 4.60124, -174.178, 4.52463, 65.6277, 0.125591, 53.5735
1, 540.00000, 124.263, -31.8647, 123.914, -151.104, 126.012, 88.7017, 0, 0, 4.58833, -54.9386, 4.60124, -174.178, 4.52463, 65.6277, 0.125592, 53.5734
1, 600.00000, 124.263, -31.8647, 123.914, -151.104, 126.012, 88.7017, 0, 0, 4.58833, -54.9386, 4.60124, -174.178, 4.52463, 65.6277, 0.125592, 53.5733
1, 660.00000, 124.263, -31.8647, 123.914, -151.104, 126.012, 88.7017, 0, 0, 4.58833, -54.9386, 4.60124, -174.178, 4.52463, 65.6277, 0.125593, 53.5732
1, 720.00000, 124.263, -31.8647, 123.914, -151.104, 126.012, 88.7017, 0, 0, 4.58833, -54.9386, 4.60124, -174.178, 4.52463, 65.6277, 0.125594, 53.5732
1, 780.00000, 124.263, -31.8647, 123.914, -151.104, 126.012, 88.7017, 0, 0, 4.58833, -54.9386, 4.60124, -174.178, 4.52463, 65.6277, 0.125594, 53.5731
1, 840.00000, 124.263, -31.8647, 123.914, -151.104, 126.012, 88.7017, 0, 0, 4.58833, -54.9386, 4.60124, -174.178, 4.52463, 65.6277, 0.125595, 53.5731
1, 900.00000, 124.263, -31.8647, 123.914, -151.104, 126.012, 88.7017, 0, 0, 4.58833, -54.9387, 4.60124, -174.178, 4.52463, 65.6277, 0.125595, 53.573
1, 960.00000, 124.263, -31.8647, 123.914, -151.104, 126.012, 88.7017, 0, 0, 4.58833, -54.9387, 4.60124, -174.178, 4.52463, 65.6277, 0.125596, 53.573
1, 1020.00000, 124.263, -31.8647, 123.914, -151.104, 126.012, 88.7017, 0, 0, 4.58833, -54.9387, 4.60124, -174.178, 4.52463, 65.6277, 0.125596, 53.5729
1, 1080.00000, 124.263, -31.8647, 123.914, -151.104, 126.012, 88.7017, 0, 0, 4.58833, -54.9387, 4.60124, -174.178, 4.52463, 65.6277, 0.125597, 53.5729
1, 1140.00000, 124.263, -31.8647, 123.914, -151.104, 126.012, 88.7017, 0, 0, 4.58833, -54.9387, 4.60124, -174.178, 4.52463, 65.6277, 0.125597, 53.5729
1, 1200.00000, 124.263, -31.8647, 123.914, -151.104, 126.012, 88.7017, 0, 0, 4.58833, -54.9387, 4.60124, -174.178, 4.52463, 65.6277, 0.125597, 53.5728
1, 1260.00000, 124.263, -31.8647, 123.914, -151.104, 126.012, 88.7017, 0, 0, 4.58833, -54.9387, 4.60124, -174.178, 4.52463, 65.6277, 0.125597, 53.5728
1, 1320.00000, 124.263, -31.8647, 123.914, -151.104, 126.012, 88.7017, 0, 0, 4.58833, -54.9387, 4.60124, -174.178, 4.52463, 65.6277, 0.125598, 53.5728
1, 1380.00000, 124.263, -31.8647, 123.914, -151.104, 126.012, 88.7017, 0, 0, 4.58833, -54.9387, 4.60124, -174.178, 4.52463, 65.6277, 0.125598, 53.5728
1, 1440.00000, 124.263, -31.8647, 123.914, -151.104, 126.012, 88.7017, 0, 0, 4.58833, -54.9387, 4.60124, -174.178, 4.52463, 65.6277, 0.125598, 53.5728
1, 1500.00000, 124.263, -31.8647, 123.914, -151.104, 126.012, 88.7017, 0, 0, 4.58833, -54.9387, 4.60124, -174.178, 4.52463, 65.6277, 0.125598, 53.5727
1, 1560.00000, 124.263, -31.8647, 123.914, -151.104, 126.012, 88.7017, 0, 0, 4.58833, -54.9387, 4.60124, -174.178, 4.52463, 65.6277, 0.125598, 53.5727
1, 1620.00000, 124.263, -31.8648, 123.914, -151.104, 126.012, 88.7017, 0, 0, 4.58833, -54.9387, 4.60124, -174.178, 4.52463, 65.6277, 0.125599, 53.5727
1, 1680.00000, 124.263, -31.8648, 123.914, -151.104, 126.012, 88.7017, 0, 0, 4.58833, -54.9387, 4.60124, -174.178, 4.52463, 65.6277, 0.125599, 53.5727
1, 1740.00000, 124.263, -31.8648, 123.914, -151.104, 126.012, 88.7017, 0, 0, 4.58833, -54.9387, 4.60124, -174.178, 4.52463, 65.6277, 0.125599, 53.5727
1, 1800.00000, 124.263, -31.8648, 123.914, -151.104, 126.012, 88.7017, 0, 0, 4.58833, -54.9387, 4.60124, -174.178, 4.52463, 65.6277, 0.125599, 53.5727
1, 1860.00000, 124.263, -31.8648, 123.914, -151.104, 126.012, 88.7017, 0, 0, 4.58833, -54.9387, 4.60124, -174.178, 4.52463, 65.6277, 0.125599, 53.5727
1, 1920.00000, 124.263, -31.8648, 123.914, -151.104, 126.012, 88.7017, 0, 0, 4.58833, -54.9387, 4.60124, -174.178, 4.52463, 65.6277, 0.125599, 53.5727
1, 1980.00000, 124.263, -31.8648, 123.914, -151.104, 126.012, 88.7017, 0, 0, 4.58833, -54.9387, 4.60124, -174.178, 4.52463, 65.6277, 0.125599, 53.5727
1, 2040.00000, 124.263, -31.8648, 123.914, -151.104, 126.012, 88.7017, 0, 0, 4.58833, -54.9387, 4.60124, -174.178, 4.52463, 65.6277, 0.125599, 53.5726
1, 2100.00000, 124.263, -31.8648, 123.914, -151.104, 126.012, 88.7017, 0, 0, 4.58833, -54.9387, 4.60124, -174.178, 4.52463, 65.6277, 0.125599, 53.5726
1, 2160.00000, 124.263, -31.8648, 123.914, -151.104, 126.012, 88.7017, 0, 0, 4.58833, -54.9387, 4.60124, -174.178, 4.52463, 65.6277, 0.125599, 53.5726
1, 2220.00000, 124.263, -31.8648, 123.914, -151.104, 126.012, 88.7017, 0, 0, 4.58833, -54.9387, 4.60124, -174.178, 4.52462, 65.6277, 0.125599, 53.5726
1, 2280.00000, 124.263, -31.8648, 123.914, -151.104, 126.012, 88.7017, 0, 0, 4.58833, -54.9387, 4.60124, -174.178, 4.52462, 65.6277, 0.125599, 53.5726
1, 2340.00000, 124.263, -31.8648, 123.914, -151.104, 126.012, 88.7017, 0, 0, 4.58833, -54.9387, 4.60124, -174.178, 4.52462, 65.6277, 0.125599, 53.5726
1, 2400.00000, 124.263, -31.8648, 123.914, -151.104, 126.012, 88.7017, 0, 0, 4.58833, -54.9387, 4.60124, -174.178, 4.52462, 65.6277, 0.125599, 53.5726
1, 2460.00000, 124.263, -31.8648, 123.914, -151.104, 126.012, 88.7017, 0, 0, 4.58833, -54.9387, 4.60124, -174.178, 4.52462, 65.6277, 0.1256, 53.5726
1, 2520.00000, 124.263, -31.8648, 123.914, -151.104, 126.012, 88.7017, 0, 0, 4.58833, -54.9387, 4.60124, -174.178, 4.52462, 65.6277, 0.1256, 53.5726
1, 2580.00000, 124.263, -31.8648, 123.914, -151.104, 126.012, 88.7017, 0, 0, 4.58833, -54.9387, 4.60124, -174.178, 4.52462, 65.6277, 0.1256, 53.5726
1, 2640.00000, 124.263, -31.8648, 123.914, -151.104, 126.012, 88.7017, 0, 0, 4.58833, -54.9387, 4.60124, -174.178, 4.52462, 65.6277, 0.1256, 53.5726
1, 2700.00000, 124.263, -31.8648, 123.914, -151.104, 126.012, 88.7017, 0, 0, 4.58833, -54.9387, 4.60124, -174.178, 4.52462, 65.6277, 0.1256, 53.5726
1, 2760.00000, 124.263, -31.8648, 123.914, -151.104, 126.012, 88.7017, 0, 0, 4.58833, -54.9387, 4.60124, -174.178, 4.52462, 65.6277, 0.1256, 53.5726
1, 2820.00000, 124.263, -31.8648, 123.914, -151.104, 126.012, 88.7017, 0, 0, 4.58833, -54.9387, 4.60124, -174.178, 4.52462, 65.6277, 0.1256, 53.5726
1, 2880.00000, 124.263, -31.8648, 123.914, -151.104, 126.012, 88.7017, 0, 0, 4.58833, -54.9387, 4.60124, -174.178, 4.52462, 65.6277, 0.1256, 53.5726
1, 2940.00000, 124.263, -31.8648, 123.914, -151.104, 126.012, 88.7017, 0, 0, 4.58833, -54.9387, 4.60124, -174.178, 4.52462, 65.6277, 0.1256, 53.5726
1, 3000.00000, 124.263, -31.8648, 123.914, -151.104, 126.012, 88.7017, 0, 0, 4.58833, -54.9387, 4.60124, -174.178, 4.52462, 65.6277, 0.1256, 53.5726
1, 3060.00000, 124.263, -31.8648, 123.914, -151.104, 126.012, 88.7017, 0, 0, 4.58833, -54.9387, 4.60124, -174.178, 4.52462, 65.6277, 0.1256, 53.5726
1, 3120.00000, 124.263, -31.8648, 123.914, -151.104, 126.012, 88.7017, 0, 0, 4.58833, -54.9387, 4.60124, -174.178, 4.52462, 65.6277, 0.1256, 53.5726
1, 3180.00000, 124.263, -31.8648, 123.914, -151.104, 126.012, 88.7017, 0, 0, 4.58833, -54.9387, 4.60124, -174.178, 4.52462, 65.6277, 0.1256, 53.5726
1, 3240.00000, 124.263, -31.8648, 123.914, -151.104, 126.012, 88.7017, 0, 0, 4.58833, -54.9387, 4.60124, -174.178, 4.52462, 65.6277, 0.1256, 53.5726
1, 3300.00000, 124.263, -31.8648, 123.914, -151.104, 126.012, 88.7017, 0, 0, 4.58833, -54.9387, 4.60124, -174.178, 4.52462, 65.6277, 0.1256, 53.5726
1, 3360.00000, 124.263, -31.8648, 123.914, -151.104, 126.012, 88.7017, 0, 0, 4.58833, -54.9387, 4.60124, -174.178, 4.52462, 65.6277, 0.1256, 53.5726
1, 3420.00000, 124.263, -31.8648, 123.914, -151.104, 126.012, 88.7017, 0, 0, 4.58833, -54.9387, 4.60124, -174.178, 4.52462, 65.6277, 0.1256, 53.5726
1, 3480.00000, 124.263, -31.8648, 123.914, -151.104, 126.012, 88.7017, 0, 0, 4.58833, -54.9387, 4.60124, -174.178, 4.52462, 65.6277, 0.1256, 53.5726
1, 3540.00000, 124.263, -31.8648, 123.914, -151.104, 126.012, 88.7017, 0, 0, 4.58833, -54.9387, 4.60124, -174.178, 4.52462, 65.6277, 0.1256, 53.5726
2, 0.00000, 124.263, -31.8648, 123.914, -151.104, 126.012, 88.7017, 0, 0, 4.58833, -54.9387, 4.60124, -174.178, 4.52462, 65.6277, 0.1256, 53.5726
2, 60.00000, 124.263, -31.8648, 123.914, -151.104, 126.012, 88.7017, 0, 0, 4.58833, -54.9387, 4.60124, -174.178, 4.52462, 65.6277, 0.1256, 53.5726
2, 120.00000, 124.263, -31.8648, 123.914, -151.104, 126.012, 88.7017, 0, 0, 4.58833, -54.9387, 4.60124, -174.178, 4.52462, 65.6277, 0.1256, 53.5726
2, 180.00000, 124.263, -31.8648, 123.914, -151.104, 126.012, 88.7017, 0, 0, 4.58833, -54.9387, 4.60124, -174.178, 4.52462, 65.6277, 0.1256, 53.5726
2, 240.00000, 124.263, -31.8648, 123.914, -151.104, 126.012, 88.7017, 0, 0, 4.58833, -54.9387, 4.60124, -174.178, 4.52462, 65.6277, 0.1256, 53.5726
2, 300.00000, 124.263, -31.8648, 123.914, -151.104, 126.012, 88.7017, 0, 0, 4.58833, -54.9387, 4.60124, -174.178, 4.52462, 65.6277, 0.1256, 53.5726
2, 360.00000, 124.263, -31.8648, 123.914, -151.104, 126.012, 88.7017, 0, 0, 4.58833, -54.9387, 4.60124, -174.178, 4.52462, 65.6277, 0.1256, 53.5726
2, 420.00000, 124.263, -31.8648, 123.914, -151.104, 126.012, 88.7017, 0, 0, 4.58833, -54.9387, 4.60124, -174.178, 4.52462, 65.6277, 0.1256, 53.5726
2, 480.00000, 124.263, -31.8648, 123.914, -151.104, 126.012, 88.7017, 0, 0, 4.58833, -54.9387, 4.60124, -174.178, 4.52462, 65.6277, 0.1256, 53.5726
2, 540.00000, 124.263, -31.8648, 123.914, -151.104, 126.012, 88.7017, 0, 0, 4.58833, -54.9387, 4.60124, -174.178, 4.52462, 65.6277, 0.1256, 53.5726
2, 600.00000, 124.263, -31.8648, 123.914, -151.104, 126.012, 88.7017, 0, 0, 4.58833, -54.9387, 4.60124, -174.178, 4.52462, 65.6277, 0.1256, 53.5726
2, 660.00000, 124.263, -31.8648, 123.914, -151.104, 126.012, 88.7017, 0, 0, 4.58833, -54.9387, 4.60124, -174.178, 4.52462, 65.6277, 0.1256, 53.5726
2, 720.00000, 124.263, -31.8648, 123.914, -151.104, 126.012, 88.7017, 0, 0, 4.58833, -54.9387, 4.60124, -174.178, 4.52462, 65.6277, 0.1256, 53.5726
