hour,t(sec),V1,VAngle1,V2,VAngle2,V3,VAngle3,V4,VAngle4,I1,IAngle1,I2,IAngle2,I3,IAngle3,I4,IAngle4
0, 60.00000, 122.219, -31.4023, 122.265, -150.993, 123.535, 88.7921, 0, 0, 0.413035, -54.4759, 0.412881, -174.066, 0.408633, 65.7187, 0.00688147, 67.4383
0, 120.00000, 122.219, -31.4023, 122.265, -150.993, 123.535, 88.7921, 0, 0, 0.413043, -54.4762, 0.412889, -174.067, 0.408643, 65.7182, 0.00688102, 67.4551
0, 180.00000, 122.219, -31.4023, 122.265, -150.993, 123.535, 88.7921, 0, 0, 0.413043, -54.4762, 0.412889, -174.067, 0.408643, 65.7182, 0.00688095, 67.4555
0, 240.00000, 122.219, -31.4023, 122.265, -150.993, 123.535, 88.7921, 0, 0, 0.413043, -54.4762, 0.412889, -174.067, 0.408643, 65.7182, 0.00688094, 67.4555
0, 300.00000, 122.219, -31.4023, 122.265, -150.993, 123.535, 88.7921, 0, 0, 0.413043, -54.4762, 0.412889, -174.067, 0.408643, 65.7182, 0.00688094, 67.4555
0, 360.00000, 122.219, -31.4023, 122.265, -150.993, 123.535, 88.7921, 0, 0, 0.413043, -54.4762, 0.412889, -174.067, 0.408643, 65.7182, 0.00688094, 67.4555
0, 420.00000, 122.219, -31.4023, 122.265, -150.993, 123.535, 88.7921, 0, 0, 0.413043, -54.4762, 0.412889, -174.067, 0.408643, 65.7182, 0.00688094, 67.4555
0, 480.00000, 122.219, -31.4023, 122.265, -150.993, 123.535, 88.7921, 0, 0, 0.413043, -54.4762, 0.412889, -174.067, 0.408643, 65.7182, 0.00688094, 67.4555
0, 540.00000, 122.219, -31.4023, 122.265, -150.993, 123.535, 88.7921, 0, 0, 0.413043, -54.4762, 0.412889, -174.067, 0.408643, 65.7182, 0.00688094, 67.4555
0, 600.00000, 122.219, -31.4023, 122.265, -150.993, 123.535, 88.7921, 0, 0, 0.413043, -54.4762, 0.412889, -174.067, 0.408643, 65.7182, 0.00688094, 67.4555
0, 660.00000, 122.219, -31.4023, 122.265, -150.993, 123.535, 88.7921, 0, 0, 0.413043, -54.4762, 0.412889, -174.067, 0.408643, 65.7182, 0.00688094, 67.4555
0, 720.00000, 122.219, -31.4023, 122.265, -150.993, 123.535, 88.7921, 0, 0, 0.413043, -54.4762, 0.412889, -174.067, 0.408643, 65.7182, 0.00688094, 67.4555
0, 780.00000, 122.219, -31.4023, 122.265, -150.993, 123.535, 88.7921, 0, 0, 0.413043, -54.4762, 0.412889, -174.067, 0.408643, 65.7182, 0.00688094, 67.4555
0, 840.00000, 122.219, -31.4023, 122.265, -150.993, 123.535, 88.7921, 0, 0, 0.413043, -54.4762, 0.412889, -174.067, 0.408643, 65.7182, 0.00688094, 67.4555
0, 900.00000, 122.219, -31.4023, 122.265, -150.993, 123.535, 88.7921, 0, 0, 0.413043, -54.4762, 0.412889, -174.067, 0.408643, 65.7182, 0.00688094, 67.4555
0, 960.00000, 121.993, -31.4273, 122.05, -151.018, 123.329, 88.7629, 0, 0, 0.42052, -54.5011, 0.420324, -174.091, 0.415965, 65.689, 0.00706259, 67.9447
0, 1020.00000, 121.993, -31.4273, 122.05, -151.018, 123.329, 88.7629, 0, 0, 0.420523, -54.5012, 0.420327, -174.091, 0.415968, 65.6889, 0.00706331, 67.9471
0, 1080.00000, 121.993, -31.4273, 122.05, -151.018, 123.329, 88.7629, 0, 0, 0.420523, -54.5012, 0.420327, -174.091, 0.415968, 65.6889, 0.00706331, 67.9471
0, 1140.00000, 121.993, -31.4273, 122.05, -151.018, 123.329, 88.7629, 0, 0, 0.420523, -54.5012, 0.420327, -174.091, 0.415968, 65.6889, 0.00706331, 67.9471
0, 1200.00000, 121.993, -31.4273, 122.05, -151.018, 123.329, 88.7629, 0, 0, 0.420523, -54.5012, 0.420327, -174.091, 0.415968, 65.6889, 0.00706331, 67.9471
0, 1260.00000, 121.993, -31.4273, 122.05, -151.018, 123.329, 88.7629, 0, 0, 0.420523, -54.5012, 0.420327, -174.091, 0.415968, 65.6889, 0.00706331, 67.9471
0, 1320.00000, 121.993, -31.4273, 122.05, -151.018, 123.329, 88.7629, 0, 0, 0.420523, -54.5012, 0.420327, -174.091, 0.415968, 65.6889, 0.00706331, 67.9471
0, 1380.00000, 121.993, -31.4273, 122.05, -151.018, 123.329, 88.7629, 0, 0, 0.420523, -54.5012, 0.420327, -174.091, 0.415968, 65.6889, 0.00706331, 67.9471
0, 1440.00000, 121.993, -31.4273, 122.05, -151.018, 123.329, 88.7629, 0, 0, 0.420523, -54.5012, 0.420327, -174.091, 0.415968, 65.6889, 0.00706331, 67.9471
0, 1500.00000, 121.993, -31.4273, 122.05, -151.018, 123.329, 88.7629, 0, 0, 0.420523, -54.5012, 0.420327, -174.091, 0.415968, 65.6889, 0.00706331, 67.9471
0, 1560.00000, 121.993, -31.4273, 122.05, -151.018, 123.329, 88.7629, 0, 0, 0.420523, -54.5012, 0.420327, -174.091, 0.415968, 65.6889, 0.00706331, 67.9471
0, 1620.00000, 121.993, -31.4273, 122.05, -151.018, 123.329, 88.7629, 0, 0, 0.420523, -54.5012, 0.420327, -174.091, 0.415968, 65.6889, 0.00706331, 67.9471
0, 1680.00000, 121.993, -31.4273, 122.05, -151.018, 123.329, 88.7629, 0, 0, 0.420523, -54.5012, 0.420327, -174.091, 0.415968, 65.6889, 0.00706331, 67.9471
0, 1740.00000, 121.993, -31.4273, 122.05, -151.018, 123.329, 88.7629, 0, 0, 0.420523, -54.5012, 0.420327, -174.091, 0.415968, 65.6889, 0.00706331, 67.9471
0, 1800.00000, 121.993, -31.4273, 122.05, -151.018, 123.329, 88.7629, 0, 0, 0.420523, -54.5012, 0.420327, -174.091, 0.415968, 65.6889, 0.00706331, 67.9471
0, 1860.00000, 122.079, -31.406, 122.132, -150.997, 123.411, 88.7849, 0, 0, 0.412651, -54.4811, 0.412472, -174.072, 0.408199, 65.7101, 0.00691886, 67.8069
0, 1920.00000, 122.08, -31.4059, 122.132, -150.997, 123.411, 88.785, 0, 0, 0.412627, -54.4798, 0.412449, -174.071, 0.408176, 65.7111, 0.00691378, 67.7944
0, 1980.00000, 122.08, -31.4059, 122.132, -150.997, 123.411, 88.785, 0, 0, 0.412627, -54.4798, 0.412449, -174.071, 0.408176, 65.7111, 0.00691376, 67.7943
0, 2040.00000, 122.08, -31.4059, 122.132, -150.997, 123.411, 88.785, 0, 0, 0.412627, -54.4798, 0.412449, -174.071, 0.408176, 65.7111, 0.00691376, 67.7943
0, 2100.00000, 122.08, -31.4059, 122.132, -150.997, 123.411, 88.785, 0, 0, 0.412627, -54.4798, 0.412449, -174.071, 0.408176, 65.7111, 0.00691376, 67.7943
0, 2160.00000, 122.08, -31.4059, 122.132, -150.997, 123.411, 88.785, 0, 0, 0.412627, -54.4798, 0.412449, -174.071, 0.408176, 65.7111, 0.00691376, 67.7943
0, 2220.00000, 122.08, -31.4059, 122.132, -150.997, 123.411, 88.785, 0, 0, 0.412627, -54.4798, 0.412449, -174.071, 0.408176, 65.7111, 0.00691376, 67.7943
0, 2280.00000, 122.08, -31.4059, 122.132, -150.997, 123.411, 88.785, 0, 0, 0.412627, -54.4798, 0.412449, -174.071, 0.408176, 65.7111, 0.00691376, 67.7943
0, 2340.00000, 122.08, -31.4059, 122.132, -150.997, 123.411, 88.785, 0, 0, 0.412627, -54.4798, 0.412449, -174.071, 0.408176, 65.7111, 0.00691376, 67.7943
0, 2400.00000, 122.08, -31.4059, 122.132, -150.997, 123.411, 88.785, 0, 0, 0.412627, -54.4798, 0.412449, -174.071, 0.408176, 65.7111, 0.00691376, 67.7943
0, 2460.00000, 122.08, -31.4059, 122.132, -150.997, 123.411, 88.785, 0, 0, 0.412627, -54.4798, 0.412449, -174.071, 0.408176, 65.7111, 0.00691376, 67.7943
0, 2520.00000, 122.08, -31.4059, 122.132, -150.997, 123.411, 88.785, 0, 0, 0.412627, -54.4798, 0.412449, -174.071, 0.408176, 65.7111, 0.00691376, 67.7943
0, 2580.00000, 122.08, -31.4059, 122.132, -150.997, 123.411, 88.785, 0, 0, 0.412627, -54.4798, 0.412449, -174.071, 0.408176, 65.7111, 0.00691376, 67.7943
0, 2640.00000, 122.08, -31.4059, 122.132, -150.997, 123.411, 88.785, 0, 0, 0.412627, -54.4798, 0.412449, -174.071, 0.408176, 65.7111, 0.00691376, 67.7943
0, 2700.00000, 122.08, -31.4059, 122.132, -150.997, 123.411, 88.785, 0, 0, 0.412627, -54.4798, 0.412449, -174.071, 0.408176, 65.7111, 0.00691376, 67.7943
0, 2760.00000, 122.343, -31.3677, 122.382, -150.96, 123.656, 88.8281, 0, 0, 0.423841, -54.4418, 0.423704, -174.034, 0.419342, 65.754, 0.00704464, 67.2193
0, 2820.00000, 122.343, -31.3677, 122.382, -150.96, 123.656, 88.8282, 0, 0, 0.423837, -54.4416, 0.423701, -174.034, 0.419336, 65.7542, 0.0070456, 67.2061
0, 2880.00000, 122.343, -31.3677, 122.382, -150.96, 123.656, 88.8282, 0, 0, 0.423837, -54.4416, 0.423701, -174.034, 0.419336, 65.7542, 0.00704564, 67.2059
0, 2940.00000, 122.343, -31.3677, 122.382, -150.96, 123.656, 88.8282, 0, 0, 0.423837, -54.4416, 0.423701, -174.034, 0.419336, 65.7542, 0.00704564, 67.2059
0, 3000.00000, 122.343, -31.3677, 122.382, -150.96, 123.656, 88.8282, 0, 0, 0.423837, -54.4416, 0.423701, -174.034, 0.419336, 65.7542, 0.00704564, 67.2059
0, 3060.00000, 122.343, -31.3677, 122.382, -150.96, 123.656, 88.8282, 0, 0, 0.423837, -54.4416, 0.423701, -174.034, 0.419336, 65.7542, 0.00704564, 67.2059
0, 3120.00000, 122.343, -31.3677, 122.382, -150.96, 123.656, 88.8282, 0, 0, 0.423837, -54.4416, 0.423701, -174.034, 0.419336, 65.7542, 0.00704564, 67.2059
0, 3180.00000, 122.343, -31.3677, 122.382, -150.96, 123.656, 88.8282, 0, 0, 0.423837, -54.4416, 0.423701, -174.034, 0.419336, 65.7542, 0.00704564, 67.2059
0, 3240.00000, 122.343, -31.3677, 122.382, -150.96, 123.656, 88.8282, 0, 0, 0.423837, -54.4416, 0.423701, -174.034, 0.419336, 65.7542, 0.00704564, 67.2059
0, 3300.00000, 122.343, -31.3677, 122.382, -150.96, 123.656, 88.8282, 0, 0, 0.423837, -54.4416, 0.423701, -174.034, 0.419336, 65.7542, 0.00704564, 67.2059
0, 3360.00000, 122.343, -31.3677, 122.382, -150.96, 123.656, 88.8282, 0, 0, 0.423837, -54.4416, 0.423701, -174.034, 0.419336, 65.7542, 0.00704564, 67.2059
0, 3420.00000, 122.343, -31.3677, 122.382, -150.96, 123.656, 88.8282, 0, 0, 0.423837, -54.4416, 0.423701, -174.034, 0.419336, 65.7542, 0.00704564, 67.2059
0, 3480.00000, 122.343, -31.3677, 122.382, -150.96, 123.656, 88.8282, 0, 0, 0.423837, -54.4416, 0.423701, -174.034, 0.419336, 65.7542, 0.00704564, 67.2059
0, 3540.00000, 122.343, -31.3677, 122.382, -150.96, 123.656, 88.8282, 0, 0, 0.423837, -54.4416, 0.423701, -174.034, 0.419336, 65.7542, 0.00704564, 67.2059
1, 0.00000, 122.343, -31.3677, 122.382, -150.96, 123.656, 88.8282, 0, 0, 0.423837, -54.4416, 0.423701, -174.034, 0.419336, 65.7542, 0.00704564, 67.2059
1, 60.00000, 122.474, -31.3369, 122.507, -150.93, 123.784, 88.8611, 0, 0, 0.490935, -54.411, 0.490801, -174.004, 0.485743, 65.7869, 0.0081412, 66.9298
1, 120.00000, 122.474, -31.3369, 122.507, -150.93, 123.784, 88.8611, 0, 0, 0.490932, -54.4108, 0.490799, -174.004, 0.485737, 65.7872, 0.00814375, 66.9147
1, 180.00000, 122.474, -31.3369, 122.507, -150.93, 123.784, 88.8611, 0, 0, 0.490932, -54.4108, 0.490799, -174.004, 0.485737, 65.7872, 0.00814383, 66.9145
1, 240.00000, 122.474, -31.3369, 122.507, -150.93, 123.784, 88.8611, 0, 0, 0.490932, -54.4108, 0.490799, -174.004, 0.485737, 65.7872, 0.00814383, 66.9145
1, 300.00000, 122.474, -31.3369, 122.507, -150.93, 123.784, 88.8611, 0, 0, 0.490932, -54.4108, 0.490799, -174.004, 0.485737, 65.7872, 0.00814383, 66.9145
1, 360.00000, 122.474, -31.3369, 122.507, -150.93, 123.784, 88.8611, 0, 0, 0.490932, -54.4108, 0.490799, -174.004, 0.485737, 65.7872, 0.00814383, 66.9145
1, 420.00000, 122.474, -31.3369, 122.507, -150.93, 123.784, 88.8611, 0, 0, 0.490932, -54.4108, 0.490799, -174.004, 0.485737, 65.7872, 0.00814383, 66.9145
1, 480.00000, 122.474, -31.3369, 122.507, -150.93, 123.784, 88.8611, 0, 0, 0.490932, -54.4108, 0.490799, -174.004, 0.485737, 65.7872, 0.00814383, 66.9145
1, 540.00000, 122.474, -31.3369, 122.507, -150.93, 123.784, 88.8611, 0, 0, 0.490932, -54.4108, 0.490799, -174.004, 0.485737, 65.7872, 0.00814383, 66.9145
1, 600.00000, 122.474, -31.3369, 122.507, -150.93, 123.784, 88.8611, 0, 0, 0.490932, -54.4108, 0.490799, -174.004, 0.485737, 65.7872, 0.00814383, 66.9145
1, 660.00000, 122.474, -31.3369, 122.507, -150.93, 123.784, 88.8611, 0, 0, 0.490932, -54.4108, 0.490799, -174.004, 0.485737, 65.7872, 0.00814383, 66.9145
1, 720.00000, 122.474, -31.3369, 122.507, -150.93, 123.784, 88.8611, 0, 0, 0.490932, -54.4108, 0.490799, -174.004, 0.485737, 65.7872, 0.00814383, 66.9145
1, 780.00000, 122.474, -31.3369, 122.507, -150.93, 123.784, 88.8611, 0, 0, 0.490932, -54.4108, 0.490799, -174.004, 0.485737, 65.7872, 0.00814383, 66.9145
1, 840.00000, 122.474, -31.3369, 122.507, -150.93, 123.784, 88.8611, 0, 0, 0.490932, -54.4108, 0.490799, -174.004, 0.485737, 65.7872, 0.00814383, 66.9145
1, 900.00000, 122.474, -31.3369, 122.507, -150.93, 123.784, 88.8611, 0, 0, 0.490932, -54.4108, 0.490799, -174.004, 0.485737, 65.7872, 0.00814383, 66.9145
1, 960.00000, 122.517, -31.3339, 122.548, -150.927, 123.824, 88.8651, 0, 0, 0.403692, -54.4081, 0.403589, -174.001, 0.399433, 65.7908, 0.00668753, 66.8238
1, 1020.00000, 122.518, -31.3338, 122.548, -150.927, 123.824, 88.8651, 0, 0, 0.403685, -54.4077, 0.403583, -174.001, 0.399424, 65.7912, 0.00668763, 66.8081
1, 1080.00000, 122.518, -31.3338, 122.548, -150.927, 123.824, 88.8651, 0, 0, 0.403685, -54.4077, 0.403583, -174.001, 0.399424, 65.7912, 0.00668769, 66.8078
1, 1140.00000, 122.518, -31.3338, 122.548, -150.927, 123.824, 88.8651, 0, 0, 0.403685, -54.4077, 0.403583, -174.001, 0.399424, 65.7912, 0.00668769, 66.8078
1, 1200.00000, 122.518, -31.3338, 122.548, -150.927, 123.824, 88.8651, 0, 0, 0.403685, -54.4077, 0.403583, -174.001, 0.399424, 65.7912, 0.00668769, 66.8078
1, 1260.00000, 122.518, -31.3338, 122.548, -150.927, 123.824, 88.8651, 0, 0, 0.403685, -54.4077, 0.403583, -174.001, 0.399424, 65.7912, 0.00668769, 66.8078
1, 1320.00000, 122.518, -31.3338, 122.548, -150.927, 123.824, 88.8651, 0, 0, 0.403685, -54.4077, 0.403583, -174.001, 0.399424, 65.7912, 0.00668769, 66.8078
1, 1380.00000, 122.518, -31.3338, 122.548, -150.927, 123.824, 88.8651, 0, 0, 0.403685, -54.4077, 0.403583, -174.001, 0.399424, 65.7912, 0.00668769, 66.8078
1, 1440.00000, 122.518, -31.3338, 122.548, -150.927, 123.824, 88.8651, 0, 0, 0.403685, -54.4077, 0.403583, -174.001, 0.399424, 65.7912, 0.00668769, 66.8078
1, 1500.00000, 122.518, -31.3338, 122.548, -150.927, 123.824, 88.8651, 0, 0, 0.403685, -54.4077, 0.403583, -174.001, 0.399424, 65.7912, 0.00668769, 66.8078
1, 1560.00000, 122.518, -31.3338, 122.548, -150.927, 123.824, 88.8651, 0, 0, 0.403685, -54.4077, 0.403583, -174.001, 0.399424, 65.7912, 0.00668769, 66.8078
1, 1620.00000, 122.518, -31.3338, 122.548, -150.927, 123.824, 88.8651, 0, 0, 0.403685, -54.4077, 0.403583, -174.001, 0.399424, 65.7912, 0.00668769, 66.8078
1, 1680.00000, 122.518, -31.3338, 122.548, -150.927, 123.824, 88.8651, 0, 0, 0.403685, -54.4077, 0.403583, -174.001, 0.399424, 65.7912, 0.00668769, 66.8078
1, 1740.00000, 122.518, -31.3338, 122.548, -150.927, 123.824, 88.8651, 0, 0, 0.403685, -54.4077, 0.403583, -174.001, 0.399424, 65.7912, 0.00668769, 66.8078
1, 1800.00000, 122.518, -31.3338, 122.548, -150.927, 123.824, 88.8651, 0, 0, 0.403685, -54.4077, 0.403583, -174.001, 0.399424, 65.7912, 0.00668769, 66.8078
1, 1860.00000, 122.359, -31.36, 122.398, -150.953, 123.674, 88.836, 0, 0, 0.433035, -54.4337, 0.4329, -174.027, 0.42843, 65.7623, 0.00720189, 67.1494
1, 1920.00000, 122.359, -31.36, 122.398, -150.953, 123.674, 88.8359, 0, 0, 0.433037, -54.4339, 0.432902, -174.027, 0.428435, 65.762, 0.00719982, 67.164
1, 1980.00000, 122.359, -31.36, 122.398, -150.953, 123.674, 88.8359, 0, 0, 0.433037, -54.4339, 0.432902, -174.027, 0.428435, 65.762, 0.00719975, 67.1643
1, 2040.00000, 122.359, -31.36, 122.398, -150.953, 123.674, 88.8359, 0, 0, 0.433037, -54.4339, 0.432902, -174.027, 0.428435, 65.762, 0.00719975, 67.1643
1, 2100.00000, 122.359, -31.36, 122.398, -150.953, 123.674, 88.8359, 0, 0, 0.433037, -54.4339, 0.432902, -174.027, 0.428435, 65.762, 0.00719975, 67.1643
1, 2160.00000, 122.359, -31.36, 122.398, -150.953, 123.674, 88.8359, 0, 0, 0.433037, -54.4339, 0.432902, -174.027, 0.428435, 65.762, 0.00719975, 67.1643
1, 2220.00000, 122.359, -31.36, 122.398, -150.953, 123.674, 88.8359, 0, 0, 0.433037, -54.4339, 0.432902, -174.027, 0.428435, 65.762, 0.00719975, 67.1643
1, 2280.00000, 122.359, -31.36, 122.398, -150.953, 123.674, 88.8359, 0, 0, 0.433037, -54.4339, 0.432902, -174.027, 0.428435, 65.762, 0.00719975, 67.1643
1, 2340.00000, 122.359, -31.36, 122.398, -150.953, 123.674, 88.8359, 0, 0, 0.433037, -54.4339, 0.432902, -174.027, 0.428435, 65.762, 0.00719975, 67.1643
1, 2400.00000, 122.359, -31.36, 122.398, -150.953, 123.674, 88.8359, 0, 0, 0.433037, -54.4339, 0.432902, -174.027, 0.428435, 65.762, 0.00719975, 67.1643
1, 2460.00000, 122.359, -31.36, 122.398, -150.953, 123.674, 88.8359, 0, 0, 0.433037, -54.4339, 0.432902, -174.027, 0.428435, 65.762, 0.00719975, 67.1643
1, 2520.00000, 122.359, -31.36, 122.398, -150.953, 123.674, 88.8359, 0, 0, 0.433037, -54.4339, 0.432902, -174.027, 0.428435, 65.762, 0.00719975, 67.1643
1, 2580.00000, 122.359, -31.36, 122.398, -150.953, 123.674, 88.8359, 0, 0, 0.433037, -54.4339, 0.432902, -174.027, 0.428435, 65.762, 0.00719975, 67.1643
1, 2640.00000, 122.359, -31.36, 122.398, -150.953, 123.674, 88.8359, 0, 0, 0.433037, -54.4339, 0.432902, -174.027, 0.428435, 65.762, 0.00719975, 67.1643
1, 2700.00000, 122.359, -31.36, 122.398, -150.953, 123.674, 88.8359, 0, 0, 0.433037, -54.4339, 0.432902, -174.027, 0.428435, 65.762, 0.00719975, 67.1643
1, 2760.00000, 122.694, -31.3077, 122.717, -150.902, 123.991, 88.8947, 0, 0, 0.410912, -54.382, 0.410835, -173.976, 0.406619, 65.8203, 0.00677507, 66.4346
1, 2820.00000, 122.694, -31.3077, 122.717, -150.902, 123.992, 88.8948, 0, 0, 0.410908, -54.3816, 0.41083, -173.976, 0.406607, 65.8209, 0.00677927, 66.4163
1, 2880.00000, 122.694, -31.3077, 122.717, -150.902, 123.992, 88.8948, 0, 0, 0.410908, -54.3816, 0.41083, -173.976, 0.406607, 65.8209, 0.00677941, 66.416
1, 2940.00000, 122.694, -31.3077, 122.717, -150.902, 123.992, 88.8948, 0, 0, 0.410908, -54.3816, 0.41083, -173.976, 0.406607, 65.8209, 0.00677941, 66.416
1, 3000.00000, 122.694, -31.3077, 122.717, -150.902, 123.992, 88.8948, 0, 0, 0.410908, -54.3816, 0.41083, -173.976, 0.406607, 65.8209, 0.00677941, 66.416
1, 3060.00000, 122.694, -31.3077, 122.717, -150.902, 123.992, 88.8948, 0, 0, 0.410908, -54.3816, 0.41083, -173.976, 0.406607, 65.8209, 0.00677941, 66.416
1, 3120.00000, 122.694, -31.3077, 122.717, -150.902, 123.992, 88.8948, 0, 0, 0.410908, -54.3816, 0.41083, -173.976, 0.406607, 65.8209, 0.00677941, 66.416
1, 3180.00000, 122.694, -31.3077, 122.717, -150.902, 123.992, 88.8948, 0, 0, 0.410908, -54.3816, 0.41083, -173.976, 0.406607, 65.8209, 0.00677941, 66.416
1, 3240.00000, 122.694, -31.3077, 122.717, -150.902, 123.992, 88.8948, 0, 0, 0.410908, -54.3816, 0.41083, -173.976, 0.406607, 65.8209, 0.00677941, 66.416
1, 3300.00000, 122.694, -31.3077, 122.717, -150.902, 123.992, 88.8948, 0, 0, 0.410908, -54.3816, 0.41083, -173.976, 0.406607, 65.8209, 0.00677941, 66.416
1, 3360.00000, 122.694, -31.3077, 122.717, -150.902, 123.992, 88.8948, 0, 0, 0.410908, -54.3816, 0.41083, -173.976, 0.406607, 65.8209, 0.00677941, 66.416
1, 3420.00000, 122.694, -31.3077, 122.717, -150.902, 123.992, 88.8948, 0, 0, 0.410908, -54.3816, 0.41083, -173.976, 0.406607, 65.8209, 0.00677941, 66.416
1, 3480.00000, 122.694, -31.3077, 122.717, -150.902, 123.992, 88.8948, 0, 0, 0.410908, -54.3816, 0.41083, -173.976, 0.406607, 65.8209, 0.00677941, 66.416
1, 3540.00000, 122.694, -31.3077, 122.717, -150.902, 123.992, 88.8948, 0, 0, 0.410908, -54.3816, 0.41083, -173.976, 0.406607, 65.8209, 0.00677941, 66.416
2, 0.00000, 122.694, -31.3077, 122.717, -150.902, 123.992, 88.8948, 0, 0, 0.410908, -54.3816, 0.41083, -173.976, 0.406607, 65.8209, 0.00677941, 66.416
2, 60.00000, 122.478, -31.3383, 122.51, -150.932, 123.787, 88.8601, 0, 0, 0.595513, -54.412, 0.595356, -174.006, 0.58921, 65.7865, 0.00987802, 66.852
2, 120.00000, 122.478, -31.3383, 122.51, -150.932, 123.787, 88.8601, 0, 0, 0.595517, -54.4122, 0.59536, -174.006, 0.589219, 65.7862, 0.0098747, 66.8651
2, 180.00000, 122.478, -31.3383, 122.51, -150.932, 123.787, 88.8601, 0, 0, 0.595517, -54.4122, 0.59536, -174.006, 0.58922, 65.7862, 0.00987459, 66.8654
2, 240.00000, 122.478, -31.3383, 122.51, -150.932, 123.787, 88.8601, 0, 0, 0.595517, -54.4122, 0.59536, -174.006, 0.58922, 65.7862, 0.00987459, 66.8654
2, 300.00000, 122.478, -31.3383, 122.51, -150.932, 123.787, 88.8601, 0, 0, 0.595517, -54.4122, 0.59536, -174.006, 0.58922, 65.7862, 0.00987459, 66.8654
2, 360.00000, 122.478, -31.3383, 122.51, -150.932, 123.787, 88.8601, 0, 0, 0.595517, -54.4122, 0.59536, -174.006, 0.58922, 65.7862, 0.00987459, 66.8654
2, 420.00000, 122.478, -31.3383, 122.51, -150.932, 123.787, 88.8601, 0, 0, 0.595517, -54.4122, 0.59536, -174.006, 0.58922, 65.7862, 0.00987459, 66.8654
2, 480.00000, 122.478, -31.3383, 122.51, -150.932, 123.787, 88.8601, 0, 0, 0.595517, -54.4122, 0.59536, -174.006, 0.58922, 65.7862, 0.00987459, 66.8654
2, 540.00000, 122.478, -31.3383, 122.51, -150.932, 123.787, 88.8601, 0, 0, 0.595517, -54.4122, 0.59536, -174.006, 0.58922, 65.7862, 0.00987459, 66.8654
