hour,t(sec),V1,VAngle1,V2,VAngle2,V3,VAngle3,V4,VAngle4,I1,IAngle1,I2,IAngle2,I3,IAngle3,I4,IAngle4
0, 60.00000, 125.824, -32.0755, 125.239, -151.743, 126.196, 88.3323, 0, 0, 4.50358, -55.1492, 4.52463, -174.817, 4.49035, 65.2585, 0.0594539, 26.3704
0, 120.00000, 125.831, -32.0813, 125.239, -151.743, 126.211, 88.3321, 0, 0, 4.50334, -55.155, 4.52463, -174.817, 4.48981, 65.2583, 0.0603558, 26.5472
0, 180.00000, 125.837, -32.0866, 125.239, -151.743, 126.225, 88.3319, 0, 0, 4.50314, -55.1603, 4.52463, -174.817, 4.48933, 65.2581, 0.0611682, 26.703
0, 240.00000, 125.842, -32.0913, 125.239, -151.743, 126.237, 88.3318, 0, 0, 4.50295, -55.1651, 4.52463, -174.817, 4.48889, 65.2579, 0.0618997, 26.8406
0, 300.00000, 125.847, -32.0956, 125.239, -151.743, 126.248, 88.3316, 0, 0, 4.50278, -55.1693, 4.52463, -174.817, 4.48849, 65.2577, 0.0625584, 26.9623
0, 360.00000, 125.851, -32.0995, 125.239, -151.743, 126.258, 88.3315, 0, 0, 4.50263, -55.1732, 4.52463, -174.817, 4.48813, 65.2576, 0.0631519, 27.0702
0, 420.00000, 125.855, -32.1029, 125.239, -151.743, 126.267, 88.3313, 0, 0, 4.50249, -55.1767, 4.52464, -174.817, 4.48781, 65.2574, 0.0636876, 27.166
0, 480.00000, 126.235, -31.9833, 125.598, -151.62, 126.657, 88.4636, 0, 0, 3.90538, -55.057, 3.92519, -174.694, 3.89239, 65.3897, 0.0566312, 26.7888
0, 540.00000, 126.238, -31.9861, 125.598, -151.62, 126.665, 88.4636, 0, 0, 3.90528, -55.0599, 3.92519, -174.694, 3.89216, 65.3896, 0.057017, 26.8676
0, 600.00000, 126.241, -31.9887, 125.598, -151.62, 126.672, 88.4635, 0, 0, 3.9052, -55.0624, 3.92519, -174.694, 3.89195, 65.3896, 0.0573653, 26.9378
0, 660.00000, 126.244, -31.991, 125.598, -151.62, 126.678, 88.4634, 0, 0, 3.90512, -55.0648, 3.92519, -174.694, 3.89176, 65.3895, 0.0576788, 27.0005
0, 720.00000, 126.246, -31.993, 125.598, -151.62, 126.683, 88.4634, 0, 0, 3.90505, -55.0668, 3.92519, -174.694, 3.89159, 65.3895, 0.0579611, 27.0565
0, 780.00000, 126.248, -31.9949, 125.598, -151.62, 126.688, 88.4634, 0, 0, 3.90498, -55.0687, 3.92519, -174.694, 3.89143, 65.3894, 0.0582151, 27.1065
0, 840.00000, 126.25, -31.9966, 125.598, -151.62, 126.693, 88.4633, 0, 0, 3.90493, -55.0704, 3.92519, -174.694, 3.8913, 65.3894, 0.0584438, 27.1513
0, 900.00000, 126.251, -31.9981, 125.598, -151.62, 126.697, 88.4633, 0, 0, 3.90488, -55.0719, 3.92519, -174.694, 3.89117, 65.3894, 0.0586497, 27.1913
0, 960.00000, 126.076, -32.2481, 125.036, -151.685, 126.7, 88.459, 0, 0, 3.91032, -55.3219, 3.94283, -174.758, 3.89106, 65.3851, 0.0894856, 25.4294
0, 1020.00000, 126.077, -32.2493, 125.036, -151.685, 126.703, 88.459, 0, 0, 3.91028, -55.3232, 3.94283, -174.758, 3.89096, 65.3851, 0.0896503, 25.4545
0, 1080.00000, 126.078, -32.2504, 125.036, -151.685, 126.706, 88.459, 0, 0, 3.91025, -55.3243, 3.94283, -174.758, 3.89087, 65.385, 0.0897986, 25.4771
0, 1140.00000, 126.169, -32.1203, 125.333, -151.649, 126.708, 88.4595, 0, 0, 3.90742, -55.1941, 3.93349, -174.723, 3.89081, 65.3856, 0.0736507, 26.4885
0, 1200.00000, 126.17, -32.1212, 125.333, -151.649, 126.711, 88.4595, 0, 0, 3.90739, -55.195, 3.93349, -174.723, 3.89073, 65.3856, 0.0737712, 26.5092
0, 1260.00000, 126.171, -32.122, 125.333, -151.649, 126.713, 88.4595, 0, 0, 3.90736, -55.1959, 3.93349, -174.723, 3.89067, 65.3856, 0.0738798, 26.5277
0, 1320.00000, 126.172, -32.1227, 125.333, -151.649, 126.715, 88.4595, 0, 0, 3.90734, -55.1966, 3.93349, -174.723, 3.89061, 65.3856, 0.0739775, 26.5444
0, 1380.00000, 126.173, -32.1233, 125.333, -151.649, 126.716, 88.4595, 0, 0, 3.90732, -55.1972, 3.93349, -174.723, 3.89056, 65.3855, 0.0740654, 26.5593
0, 1440.00000, 126.173, -32.1239, 125.333, -151.649, 126.718, 88.4594, 0, 0, 3.9073, -55.1978, 3.93349, -174.723, 3.89051, 65.3855, 0.0741446, 26.5728
0, 1500.00000, 126.174, -32.1245, 125.333, -151.649, 126.719, 88.4594, 0, 0, 3.90728, -55.1983, 3.93349, -174.723, 3.89047, 65.3855, 0.0742158, 26.5848
0, 1560.00000, 126.174, -32.1249, 125.333, -151.649, 126.721, 88.4594, 0, 0, 3.90726, -55.1988, 3.93349, -174.723, 3.89043, 65.3855, 0.0742799, 26.5957
0, 1620.00000, 126.175, -32.1254, 125.333, -151.649, 126.722, 88.4594, 0, 0, 3.90725, -55.1993, 3.93349, -174.723, 3.89039, 65.3855, 0.0743376, 26.6055
0, 1680.00000, 126.175, -32.1257, 125.333, -151.649, 126.723, 88.4594, 0, 0, 3.90724, -55.1996, 3.93349, -174.723, 3.89036, 65.3855, 0.0743896, 26.6142
0, 1740.00000, 126.176, -32.1261, 125.333, -151.649, 126.724, 88.4594, 0, 0, 3.90722, -55.2, 3.93349, -174.723, 3.89033, 65.3855, 0.0744363, 26.6221
0, 1800.00000, 125.877, -32.1495, 125.331, -151.649, 126.599, 88.3309, 0, 0, 3.91649, -55.2234, 3.93354, -174.723, 3.89417, 65.257, 0.0677237, 38.3697
0, 1860.00000, 125.878, -32.1498, 125.331, -151.649, 126.599, 88.3309, 0, 0, 3.91648, -55.2237, 3.93354, -174.723, 3.89415, 65.257, 0.0677613, 38.3698
0, 1920.00000, 125.878, -32.1501, 125.331, -151.649, 126.6, 88.3309, 0, 0, 3.91647, -55.224, 3.93354, -174.723, 3.89413, 65.257, 0.0677953, 38.3699
0, 1980.00000, 125.878, -32.1503, 125.331, -151.649, 126.601, 88.3309, 0, 0, 3.91646, -55.2242, 3.93354, -174.723, 3.89411, 65.257, 0.0678259, 38.37
0, 2040.00000, 125.878, -32.1505, 125.331, -151.649, 126.601, 88.3309, 0, 0, 3.91645, -55.2244, 3.93354, -174.723, 3.8941, 65.257, 0.0678535, 38.37
0, 2100.00000, 125.878, -32.1507, 125.331, -151.649, 126.601, 88.3309, 0, 0, 3.91645, -55.2246, 3.93354, -174.723, 3.89408, 65.257, 0.0678783, 38.3701
0, 2160.00000, 125.879, -32.1508, 125.331, -151.649, 126.602, 88.3309, 0, 0, 3.91644, -55.2247, 3.93354, -174.723, 3.89407, 65.257, 0.0679006, 38.3701
0, 2220.00000, 125.879, -32.151, 125.331, -151.649, 126.602, 88.3309, 0, 0, 3.91644, -55.2249, 3.93354, -174.723, 3.89406, 65.257, 0.0679207, 38.3702
0, 2280.00000, 125.879, -32.1511, 125.331, -151.649, 126.603, 88.3309, 0, 0, 3.91643, -55.225, 3.93354, -174.723, 3.89405, 65.257, 0.0679387, 38.3702
0, 2340.00000, 125.879, -32.1512, 125.331, -151.649, 126.603, 88.3309, 0, 0, 3.91643, -55.2251, 3.93354, -174.723, 3.89404, 65.257, 0.067955, 38.3703
0, 2400.00000, 125.879, -32.1513, 125.331, -151.649, 126.603, 88.3309, 0, 0, 3.91643, -55.2252, 3.93354, -174.723, 3.89403, 65.257, 0.0679697, 38.3703
0, 2460.00000, 125.879, -32.1514, 125.331, -151.649, 126.603, 88.3309, 0, 0, 3.91642, -55.2253, 3.93354, -174.723, 3.89402, 65.257, 0.0679828, 38.3703
0, 2520.00000, 125.879, -32.1515, 125.331, -151.649, 126.604, 88.3309, 0, 0, 3.91642, -55.2254, 3.93354, -174.723, 3.89401, 65.257, 0.0679947, 38.3704
0, 2580.00000, 125.879, -32.1516, 125.331, -151.649, 126.604, 88.3309, 0, 0, 3.91642, -55.2255, 3.93354, -174.723, 3.89401, 65.257, 0.0680054, 38.3704
0, 2640.00000, 125.88, -32.1517, 125.331, -151.649, 126.604, 88.3309, 0, 0, 3.91641, -55.2256, 3.93354, -174.723, 3.894, 65.257, 0.068015, 38.3704
0, 2700.00000, 125.88, -32.1517, 125.331, -151.649, 126.604, 88.3309, 0, 0, 3.91641, -55.2256, 3.93354, -174.723, 3.894, 65.257, 0.0680236, 38.3704
0, 2760.00000, 126.178, -32.1183, 125.332, -151.649, 126.705, 88.4605, 0, 0, 3.90716, -55.1922, 3.93351, -174.723, 3.89092, 65.3866, 0.0735457, 26.1963
0, 2820.00000, 126.178, -32.1184, 125.332, -151.649, 126.705, 88.4605, 0, 0, 3.90716, -55.1923, 3.93351, -174.723, 3.89091, 65.3866, 0.0735535, 26.1974
0, 2880.00000, 126.178, -32.1184, 125.332, -151.649, 126.705, 88.4605, 0, 0, 3.90716, -55.1923, 3.93351, -174.723, 3.89091, 65.3866, 0.0735597, 26.1985
0, 2940.00000, 126.178, -32.1185, 125.332, -151.649, 126.705, 88.4605, 0, 0, 3.90716, -55.1924, 3.93351, -174.723, 3.8909, 65.3866, 0.0735652, 26.1994
0, 3000.00000, 126.178, -32.1185, 125.332, -151.649, 126.705, 88.4605, 0, 0, 3.90715, -55.1924, 3.93351, -174.723, 3.8909, 65.3866, 0.0735702, 26.2003
0, 3060.00000, 126.178, -32.1185, 125.332, -151.649, 126.705, 88.4605, 0, 0, 3.90715, -55.1924, 3.93351, -174.723, 3.8909, 65.3866, 0.0735747, 26.2011
0, 3120.00000, 126.178, -32.1186, 125.332, -151.649, 126.705, 88.4605, 0, 0, 3.90715, -55.1925, 3.93351, -174.723, 3.8909, 65.3866, 0.0735787, 26.2018
0, 3180.00000, 126.178, -32.1186, 125.332, -151.649, 126.705, 88.4605, 0, 0, 3.90715, -55.1925, 3.93351, -174.723, 3.89089, 65.3866, 0.0735824, 26.2024
0, 3240.00000, 126.178, -32.1186, 125.332, -151.649, 126.705, 88.4605, 0, 0, 3.90715, -55.1925, 3.93351, -174.723, 3.89089, 65.3866, 0.0735856, 26.203
0, 3300.00000, 126.178, -32.1186, 125.332, -151.649, 126.705, 88.4605, 0, 0, 3.90715, -55.1926, 3.93351, -174.723, 3.89089, 65.3865, 0.0735886, 26.2035
0, 3360.00000, 126.178, -32.1187, 125.332, -151.649, 126.705, 88.4605, 0, 0, 3.90715, -55.1926, 3.93351, -174.723, 3.89089, 65.3865, 0.0735912, 26.204
0, 3420.00000, 126.178, -32.1187, 125.332, -151.649, 126.705, 88.4605, 0, 0, 3.90715, -55.1926, 3.93351, -174.723, 3.89089, 65.3865, 0.0735936, 26.2044
0, 3480.00000, 126.178, -32.1187, 125.332, -151.649, 126.705, 88.4605, 0, 0, 3.90715, -55.1926, 3.93351, -174.723, 3.89088, 65.3865, 0.0735958, 26.2048
0, 3540.00000, 126.178, -32.1187, 125.332, -151.649, 126.706, 88.4605, 0, 0, 3.90715, -55.1926, 3.93351, -174.723, 3.89088, 65.3865, 0.0735977, 26.2051
1, 0.00000, 126.178, -32.1187, 125.332, -151.649, 126.706, 88.4605, 0, 0, 3.90715, -55.1926, 3.93351, -174.723, 3.89088, 65.3865, 0.0735995, 26.2054
1, 60.00000, 126.265, -31.9915, 125.621, -151.616, 126.705, 88.4611, 0, 0, 3.90446, -55.0654, 3.92446, -174.689, 3.8909, 65.3872, 0.0578175, 27.5496
1, 120.00000, 126.265, -31.9915, 125.621, -151.616, 126.705, 88.4611, 0, 0, 3.90446, -55.0654, 3.92446, -174.689, 3.8909, 65.3872, 0.0578189, 27.5499
1, 180.00000, 126.265, -31.9915, 125.621, -151.616, 126.705, 88.4611, 0, 0, 3.90446, -55.0654, 3.92446, -174.689, 3.8909, 65.3872, 0.0578201, 27.5502
1, 240.00000, 126.265, -31.9915, 125.621, -151.616, 126.705, 88.4611, 0, 0, 3.90446, -55.0654, 3.92446, -174.689, 3.8909, 65.3872, 0.0578213, 27.5504
1, 300.00000, 126.265, -31.9915, 125.621, -151.616, 126.705, 88.4611, 0, 0, 3.90446, -55.0654, 3.92446, -174.689, 3.8909, 65.3872, 0.0578223, 27.5506
1, 360.00000, 126.265, -31.9915, 125.621, -151.616, 126.705, 88.4611, 0, 0, 3.90446, -55.0655, 3.92446, -174.689, 3.8909, 65.3872, 0.0578233, 27.5508
1, 420.00000, 126.265, -31.9915, 125.621, -151.616, 126.705, 88.4611, 0, 0, 3.90446, -55.0655, 3.92446, -174.689, 3.8909, 65.3872, 0.0578241, 27.5509
1, 480.00000, 126.265, -31.9916, 125.621, -151.616, 126.705, 88.4611, 0, 0, 3.90446, -55.0655, 3.92446, -174.689, 3.8909, 65.3872, 0.0578248, 27.5511
1, 540.00000, 126.265, -31.9916, 125.621, -151.616, 126.705, 88.4611, 0, 0, 3.90446, -55.0655, 3.92446, -174.689, 3.8909, 65.3872, 0.0578255, 27.5512
1, 600.00000, 126.265, -31.9916, 125.621, -151.616, 126.705, 88.4611, 0, 0, 3.90446, -55.0655, 3.92446, -174.689, 3.8909, 65.3872, 0.0578261, 27.5513
1, 660.00000, 126.265, -31.9916, 125.621, -151.616, 126.705, 88.4611, 0, 0, 3.90446, -55.0655, 3.92446, -174.689, 3.8909, 65.3872, 0.0578267, 27.5514
1, 720.00000, 126.265, -31.9916, 125.621, -151.616, 126.705, 88.4611, 0, 0, 3.90446, -55.0655, 3.92446, -174.689, 3.8909, 65.3872, 0.0578272, 27.5515
1, 780.00000, 126.266, -31.9936, 125.696, -151.497, 126.991, 88.4987, 0, 0, 3.90443, -55.0675, 3.92213, -174.57, 3.88212, 65.4248, 0.0684006, 37.4687
1, 840.00000, 126.266, -31.9936, 125.696, -151.497, 126.991, 88.4987, 0, 0, 3.90443, -55.0675, 3.92213, -174.57, 3.88212, 65.4248, 0.0684018, 37.4686
1, 900.00000, 126.266, -31.9936, 125.696, -151.497, 126.992, 88.4987, 0, 0, 3.90443, -55.0675, 3.92213, -174.57, 3.88212, 65.4248, 0.0684022, 37.4686
1, 960.00000, 126.266, -31.9936, 125.696, -151.497, 126.992, 88.4987, 0, 0, 3.90443, -55.0675, 3.92213, -174.57, 3.88212, 65.4248, 0.0684025, 37.4687
1, 1020.00000, 126.266, -31.9936, 125.696, -151.497, 126.992, 88.4987, 0, 0, 3.90443, -55.0675, 3.92213, -174.57, 3.88212, 65.4248, 0.0684028, 37.4687
1, 1080.00000, 126.266, -31.9936, 125.696, -151.497, 126.992, 88.4987, 0, 0, 3.90443, -55.0675, 3.92213, -174.57, 3.88212, 65.4248, 0.0684031, 37.4687
1, 1140.00000, 126.266, -31.9936, 125.696, -151.497, 126.992, 88.4987, 0, 0, 3.90443, -55.0675, 3.92213, -174.57, 3.88212, 65.4248, 0.0684034, 37.4687
1, 1200.00000, 126.266, -31.9936, 125.696, -151.497, 126.992, 88.4987, 0, 0, 3.90443, -55.0675, 3.92213, -174.57, 3.88212, 65.4248, 0.0684036, 37.4687
1, 1260.00000, 126.266, -31.9936, 125.696, -151.497, 126.992, 88.4987, 0, 0, 3.90443, -55.0675, 3.92213, -174.57, 3.88212, 65.4248, 0.0684038, 37.4687
1, 1320.00000, 126.266, -31.9936, 125.696, -151.497, 126.992, 88.4987, 0, 0, 3.90443, -55.0675, 3.92213, -174.57, 3.88212, 65.4248, 0.068404, 37.4687
1, 1380.00000, 126.266, -31.9936, 125.696, -151.497, 126.992, 88.4987, 0, 0, 3.90443, -55.0675, 3.92213, -174.57, 3.88212, 65.4248, 0.0684041, 37.4687
1, 1440.00000, 126.266, -31.9936, 125.696, -151.497, 126.992, 88.4987, 0, 0, 3.90443, -55.0675, 3.92213, -174.57, 3.88212, 65.4248, 0.0684043, 37.4687
1, 1500.00000, 126.266, -31.9936, 125.696, -151.497, 126.992, 88.4987, 0, 0, 3.90443, -55.0675, 3.92213, -174.57, 3.88212, 65.4248, 0.0684044, 37.4687
1, 1560.00000, 126.266, -31.9936, 125.696, -151.497, 126.992, 88.4987, 0, 0, 3.90443, -55.0675, 3.92213, -174.57, 3.88212, 65.4248, 0.0684045, 37.4687
1, 1620.00000, 126.266, -31.9936, 125.696, -151.497, 126.992, 88.4987, 0, 0, 3.90443, -55.0675, 3.92213, -174.57, 3.88212, 65.4248, 0.0684046, 37.4687
1, 1680.00000, 126.266, -31.9936, 125.696, -151.497, 126.992, 88.4987, 0, 0, 3.90443, -55.0675, 3.92213, -174.57, 3.88212, 65.4248, 0.0684047, 37.4687
1, 1740.00000, 126.266, -31.9936, 125.696, -151.497, 126.992, 88.4987, 0, 0, 3.90443, -55.0675, 3.92213, -174.57, 3.88212, 65.4248, 0.0684048, 37.4687
1, 1800.00000, 126.266, -31.9936, 125.696, -151.497, 126.992, 88.4987, 0, 0, 3.90443, -55.0675, 3.92213, -174.57, 3.88212, 65.4248, 0.0684049, 37.4687
1, 1860.00000, 126.266, -31.9936, 125.696, -151.497, 126.992, 88.4987, 0, 0, 3.90443, -55.0675, 3.92213, -174.57, 3.88212, 65.4248, 0.068405, 37.4687
1, 1920.00000, 126.266, -31.9936, 125.696, -151.497, 126.992, 88.4987, 0, 0, 3.90443, -55.0675, 3.92213, -174.57, 3.88212, 65.4248, 0.068405, 37.4687
1, 1980.00000, 126.266, -31.9936, 125.696, -151.497, 126.992, 88.4987, 0, 0, 3.90443, -55.0675, 3.92213, -174.57, 3.88212, 65.4248, 0.0684051, 37.4687
1, 2040.00000, 126.266, -31.9936, 125.696, -151.497, 126.992, 88.4987, 0, 0, 3.90443, -55.0675, 3.92213, -174.57, 3.88212, 65.4248, 0.0684051, 37.4687
1, 2100.00000, 126.266, -31.9936, 125.696, -151.497, 126.992, 88.4987, 0, 0, 3.90443, -55.0675, 3.92213, -174.57, 3.88212, 65.4248, 0.0684052, 37.4687
1, 2160.00000, 126.266, -31.9936, 125.696, -151.497, 126.992, 88.4987, 0, 0, 3.90443, -55.0675, 3.92213, -174.57, 3.88212, 65.4248, 0.0684052, 37.4687
1, 2220.00000, 126.564, -31.9705, 125.697, -151.497, 127.122, 88.6282, 0, 0, 3.89524, -55.0444, 3.92212, -174.57, 3.87813, 65.5543, 0.0755602, 26.0433
1, 2280.00000, 126.564, -31.9705, 125.697, -151.497, 127.122, 88.6282, 0, 0, 3.89524, -55.0444, 3.92212, -174.57, 3.87813, 65.5543, 0.0755612, 26.0433
1, 2340.00000, 126.564, -31.9705, 125.697, -151.497, 127.122, 88.6282, 0, 0, 3.89524, -55.0444, 3.92212, -174.57, 3.87813, 65.5543, 0.0755612, 26.0433
1, 2400.00000, 126.564, -31.9705, 125.697, -151.497, 127.122, 88.6282, 0, 0, 3.89524, -55.0444, 3.92212, -174.57, 3.87813, 65.5543, 0.0755613, 26.0433
1, 2460.00000, 126.564, -31.9705, 125.697, -151.497, 127.122, 88.6282, 0, 0, 3.89524, -55.0444, 3.92212, -174.57, 3.87813, 65.5543, 0.0755613, 26.0433
1, 2520.00000, 126.564, -31.9705, 125.697, -151.497, 127.122, 88.6282, 0, 0, 3.89524, -55.0444, 3.92212, -174.57, 3.87813, 65.5543, 0.0755613, 26.0433
1, 2580.00000, 126.564, -31.9705, 125.697, -151.497, 127.122, 88.6282, 0, 0, 3.89524, -55.0444, 3.92212, -174.57, 3.87813, 65.5543, 0.0755613, 26.0433
1, 2640.00000, 126.564, -31.9705, 125.697, -151.497, 127.122, 88.6282, 0, 0, 3.89524, -55.0444, 3.92212, -174.57, 3.87813, 65.5543, 0.0755614, 26.0434
1, 2700.00000, 126.564, -31.9705, 125.697, -151.497, 127.122, 88.6282, 0, 0, 3.89524, -55.0444, 3.92212, -174.57, 3.87813, 65.5543, 0.0755614, 26.0434
1, 2760.00000, 126.564, -31.9705, 125.697, -151.497, 127.122, 88.6282, 0, 0, 3.89524, -55.0444, 3.92212, -174.57, 3.87813, 65.5543, 0.0755614, 26.0434
1, 2820.00000, 126.564, -31.9705, 125.697, -151.497, 127.122, 88.6282, 0, 0, 3.89524, -55.0444, 3.92212, -174.57, 3.87813, 65.5543, 0.0755614, 26.0434
1, 2880.00000, 126.564, -31.9705, 125.697, -151.497, 127.122, 88.6282, 0, 0, 3.89524, -55.0444, 3.92212, -174.57, 3.87813, 65.5543, 0.0755614, 26.0434
1, 2940.00000, 126.564, -31.9705, 125.697, -151.497, 127.122, 88.6282, 0, 0, 3.89524, -55.0444, 3.92212, -174.57, 3.87813, 65.5543, 0.0755614, 26.0434
1, 3000.00000, 126.564, -31.9705, 125.697, -151.497, 127.122, 88.6282, 0, 0, 3.89524, -55.0444, 3.92212, -174.57, 3.87813, 65.5543, 0.0755614, 26.0434
1, 3060.00000, 126.564, -31.9705, 125.697, -151.497, 127.122, 88.6282, 0, 0, 3.89524, -55.0444, 3.92212, -174.57, 3.87813, 65.5543, 0.0755614, 26.0434
1, 3120.00000, 126.564, -31.9705, 125.697, -151.497, 127.122, 88.6282, 0, 0, 3.89524, -55.0444, 3.92212, -174.57, 3.87813, 65.5543, 0.0755614, 26.0434
1, 3180.00000, 126.564, -31.9705, 125.697, -151.497, 127.122, 88.6282, 0, 0, 3.89524, -55.0444, 3.92212, -174.57, 3.87813, 65.5543, 0.0755615, 26.0434
1, 3240.00000, 126.564, -31.9705, 125.697, -151.497, 127.122, 88.6282, 0, 0, 3.89524, -55.0444, 3.92212, -174.57, 3.87813, 65.5543, 0.0755615, 26.0434
1, 3300.00000, 126.564, -31.9705, 125.697, -151.497, 127.122, 88.6282, 0, 0, 3.89524, -55.0444, 3.92212, -174.57, 3.87813, 65.5543, 0.0755615, 26.0434
1, 3360.00000, 126.564, -31.9705, 125.697, -151.497, 127.122, 88.6282, 0, 0, 3.89524, -55.0444, 3.92212, -174.57, 3.87813, 65.5543, 0.0755615, 26.0434
1, 3420.00000, 126.564, -31.9705, 125.697, -151.497, 127.122, 88.6282, 0, 0, 3.89524, -55.0444, 3.92212, -174.57, 3.87813, 65.5543, 0.0755615, 26.0434
1, 3480.00000, 126.564, -31.9705, 125.697, -151.497, 127.122, 88.6282, 0, 0, 3.89524, -55.0444, 3.92212, -174.57, 3.87813, 65.5543, 0.0755615, 26.0434
1, 3540.00000, 126.564, -31.9705, 125.697, -151.497, 127.122, 88.6282, 0, 0, 3.89524, -55.0444, 3.92212, -174.57, 3.87813, 65.5543, 0.0755615, 26.0434
2, 0.00000, 126.564, -31.9705, 125.697, -151.497, 127.122, 88.6282, 0, 0, 3.89524, -55.0444, 3.92212, -174.57, 3.87813, 65.5543, 0.0755615, 26.0434
2, 60.00000, 126.564, -31.9705, 125.697, -151.497, 127.122, 88.6282, 0, 0, 3.89524, -55.0444, 3.92212, -174.57, 3.87813, 65.5543, 0.0755615, 26.0434
2, 120.00000, 126.564, -31.9705, 125.697, -151.497, 127.122, 88.6282, 0, 0, 3.89524, -55.0444, 3.92212, -174.57, 3.87813, 65.5543, 0.0755615, 26.0434
2, 180.00000, 126.564, -31.9705, 125.697, -151.497, 127.122, 88.6282, 0, 0, 3.89524, -55.0444, 3.92212, -174.57, 3.87813, 65.5543, 0.0755615, 26.0434
2, 240.00000, 126.564, -31.9705, 125.697, -151.497, 127.122, 88.6282, 0, 0, 3.89524, -55.0444, 3.92212, -174.57, 3.87813, 65.5543, 0.0755615, 26.0434
2, 300.00000, 126.564, -31.9705, 125.697, -151.497, 127.122, 88.6282, 0, 0, 3.89524, -55.0444, 3.92212, -174.57, 3.87813, 65.5543, 0.0755615, 26.0434
2, 360.00000, 126.564, -31.9705, 125.697, -151.497, 127.122, 88.6282, 0, 0, 3.89524, -55.0444, 3.92212, -174.57, 3.87813, 65.5543, 0.0755615, 26.0434
2, 420.00000, 126.564, -31.9705, 125.697, -151.497, 127.122, 88.6282, 0, 0, 3.89524, -55.0444, 3.92212, -174.57, 3.87813, 65.5543, 0.0755615, 26.0434
2, 480.00000, 126.564, -31.9705, 125.697, -151.497, 127.122, 88.6282, 0, 0, 3.89524, -55.0444, 3.92212, -174.57, 3.87813, 65.5543, 0.0755615, 26.0434
2, 540.00000, 126.564, -31.9705, 125.697, -151.497, 127.122, 88.6282, 0, 0, 3.89524, -55.0444, 3.92212, -174.57, 3.87813, 65.5543, 0.0755615, 26.0434
2, 600.00000, 126.564, -31.9705, 125.697, -151.497, 127.122, 88.6282, 0, 0, 3.89524, -55.0444, 3.92212, -174.57, 3.87813, 65.5543, 0.0755615, 26.0434
2, 660.00000, 126.564, -31.9705, 125.697, -151.497, 127.122, 88.6282, 0, 0, 3.89524, -55.0444, 3.92212, -174.57, 3.87813, 65.5543, 0.0755615, 26.0434
2, 720.00000, 126.564, -31.9705, 125.697, -151.497, 127.122, 88.6282, 0, 0, 3.89524, -55.0444, 3.92212, -174.57, 3.87813, 65.5543, 0.0755615, 26.0434
