hour,t(sec),V1,VAngle1,V2,VAngle2,V3,VAngle3,V4,VAngle4,I1,IAngle1,I2,IAngle2,I3,IAngle3,I4,IAngle4
0, 60.00000, 120.327, -32.4082, 119.767, -151.375, 122.698, 88.3399, 0, 0, 4.42346, -55.4821, 4.40059, -174.449, 4.36391, 65.2662, 0.116909, 66.0497
0, 120.00000, 120.331, -32.4173, 119.766, -151.375, 122.722, 88.3372, 0, 0, 4.42363, -55.4912, 4.40058, -174.449, 4.36306, 65.2634, 0.118431, 66.0382
0, 180.00000, 120.335, -32.4255, 119.766, -151.375, 122.743, 88.3347, 0, 0, 4.42379, -55.4994, 4.40057, -174.449, 4.3623, 65.261, 0.119799, 66.0285
0, 240.00000, 120.339, -32.4329, 119.766, -151.376, 122.762, 88.3325, 0, 0, 4.42393, -55.5068, 4.40056, -174.449, 4.36161, 65.2587, 0.121031, 66.0198
0, 300.00000, 120.342, -32.4396, 119.766, -151.376, 122.779, 88.3305, 0, 0, 4.42406, -55.5135, 4.40055, -174.449, 4.36099, 65.2567, 0.122139, 66.0121
0, 360.00000, 120.345, -32.4456, 119.766, -151.376, 122.794, 88.3287, 0, 0, 4.42417, -55.5195, 4.40054, -174.45, 4.36043, 65.2549, 0.123136, 66.0053
0, 420.00000, 120.347, -32.451, 119.765, -151.376, 122.808, 88.3271, 0, 0, 4.42427, -55.5249, 4.40054, -174.45, 4.35993, 65.2533, 0.124033, 65.9991
0, 480.00000, 121.094, -32.3469, 120.464, -151.269, 123.611, 88.4582, 0, 0, 3.84678, -55.4208, 3.85325, -174.343, 3.76852, 65.3844, 0.145944, 56.0225
0, 540.00000, 121.096, -32.3513, 120.464, -151.269, 123.622, 88.4569, 0, 0, 3.84671, -55.4252, 3.85325, -174.343, 3.76816, 65.383, 0.146528, 56.0114
0, 600.00000, 121.098, -32.3553, 120.464, -151.269, 123.633, 88.4557, 0, 0, 3.84665, -55.4292, 3.85324, -174.343, 3.76784, 65.3818, 0.147051, 56.0015
0, 660.00000, 121.099, -32.3589, 120.464, -151.269, 123.642, 88.4546, 0, 0, 3.8466, -55.4328, 3.85324, -174.343, 3.76755, 65.3808, 0.147522, 55.9928
0, 720.00000, 121.101, -32.3621, 120.464, -151.269, 123.65, 88.4536, 0, 0, 3.84655, -55.436, 3.85324, -174.343, 3.76729, 65.3798, 0.147945, 55.9851
0, 780.00000, 121.102, -32.365, 120.464, -151.269, 123.658, 88.4528, 0, 0, 3.84651, -55.4389, 3.85324, -174.343, 3.76706, 65.3789, 0.148327, 55.9782
0, 840.00000, 121.104, -32.3676, 120.464, -151.269, 123.665, 88.452, 0, 0, 3.84647, -55.4415, 3.85323, -174.343, 3.76685, 65.3781, 0.14867, 55.9721
0, 900.00000, 121.105, -32.37, 120.463, -151.269, 123.671, 88.4513, 0, 0, 3.84643, -55.4439, 3.85323, -174.343, 3.76666, 65.3774, 0.148979, 55.9667
0, 960.00000, 120.585, -32.3362, 120.473, -151.264, 123.242, 88.2622, 0, 0, 3.85755, -55.4101, 3.85355, -174.338, 3.77977, 65.1883, 0.138074, 64.8443
0, 1020.00000, 120.586, -32.3381, 120.472, -151.265, 123.246, 88.2616, 0, 0, 3.85758, -55.412, 3.85355, -174.338, 3.77962, 65.1877, 0.138343, 64.8446
0, 1080.00000, 120.587, -32.3398, 120.472, -151.265, 123.251, 88.2611, 0, 0, 3.85761, -55.4137, 3.85355, -174.338, 3.77949, 65.1872, 0.138587, 64.8446
0, 1140.00000, 120.587, -32.3413, 120.472, -151.265, 123.255, 88.2607, 0, 0, 3.85763, -55.4152, 3.85355, -174.338, 3.77937, 65.1868, 0.138806, 64.8446
0, 1200.00000, 120.588, -32.3426, 120.472, -151.265, 123.258, 88.2602, 0, 0, 3.85766, -55.4166, 3.85355, -174.338, 3.77926, 65.1863, 0.139003, 64.8446
0, 1260.00000, 120.589, -32.3439, 120.472, -151.265, 123.261, 88.2599, 0, 0, 3.85768, -55.4178, 3.85355, -174.339, 3.77916, 65.186, 0.139181, 64.8446
0, 1320.00000, 120.589, -32.345, 120.472, -151.265, 123.264, 88.2595, 0, 0, 3.85769, -55.4189, 3.85355, -174.339, 3.77907, 65.1856, 0.139341, 64.8446
0, 1380.00000, 120.59, -32.346, 120.472, -151.265, 123.267, 88.2592, 0, 0, 3.85771, -55.4199, 3.85354, -174.339, 3.77899, 65.1853, 0.139484, 64.8446
0, 1440.00000, 120.59, -32.3469, 120.472, -151.265, 123.269, 88.259, 0, 0, 3.85772, -55.4208, 3.85354, -174.339, 3.77892, 65.1851, 0.139614, 64.8446
0, 1500.00000, 120.59, -32.3477, 120.472, -151.265, 123.271, 88.2587, 0, 0, 3.85773, -55.4216, 3.85354, -174.339, 3.77885, 65.1848, 0.13973, 64.8446
0, 1560.00000, 120.591, -32.3484, 120.472, -151.265, 123.273, 88.2585, 0, 0, 3.85775, -55.4223, 3.85354, -174.339, 3.7788, 65.1846, 0.139835, 64.8446
0, 1620.00000, 120.591, -32.3491, 120.472, -151.265, 123.275, 88.2583, 0, 0, 3.85776, -55.423, 3.85354, -174.339, 3.77874, 65.1844, 0.139929, 64.8446
0, 1680.00000, 120.591, -32.3496, 120.472, -151.265, 123.276, 88.2581, 0, 0, 3.85777, -55.4236, 3.85354, -174.339, 3.7787, 65.1842, 0.140014, 64.8446
0, 1740.00000, 120.592, -32.3502, 120.472, -151.265, 123.277, 88.258, 0, 0, 3.85777, -55.4241, 3.85354, -174.339, 3.77865, 65.1841, 0.140091, 64.8445
0, 1800.00000, 120.592, -32.3507, 120.472, -151.265, 123.279, 88.2578, 0, 0, 3.85778, -55.4246, 3.85354, -174.339, 3.77862, 65.1839, 0.140159, 64.8445
0, 1860.00000, 120.592, -32.3511, 120.472, -151.265, 123.28, 88.2577, 0, 0, 3.85779, -55.425, 3.85354, -174.339, 3.77858, 65.1838, 0.140221, 64.8445
0, 1920.00000, 120.592, -32.3515, 120.472, -151.265, 123.281, 88.2576, 0, 0, 3.85779, -55.4254, 3.85354, -174.339, 3.77855, 65.1837, 0.140277, 64.8445
0, 1980.00000, 120.592, -32.3518, 120.472, -151.265, 123.282, 88.2575, 0, 0, 3.8578, -55.4257, 3.85354, -174.339, 3.77852, 65.1836, 0.140327, 64.8445
0, 2040.00000, 120.592, -32.3521, 120.472, -151.265, 123.283, 88.2574, 0, 0, 3.8578, -55.426, 3.85354, -174.339, 3.7785, 65.1835, 0.140372, 64.8445
0, 2100.00000, 120.593, -32.3524, 120.472, -151.265, 123.283, 88.2573, 0, 0, 3.85781, -55.4263, 3.85354, -174.339, 3.77847, 65.1834, 0.140413, 64.8445
0, 2160.00000, 120.593, -32.3527, 120.472, -151.265, 123.284, 88.2572, 0, 0, 3.85781, -55.4266, 3.85354, -174.339, 3.77845, 65.1833, 0.140449, 64.8445
0, 2220.00000, 120.593, -32.3529, 120.472, -151.265, 123.284, 88.2571, 0, 0, 3.85782, -55.4268, 3.85354, -174.339, 3.77844, 65.1832, 0.140482, 64.8445
0, 2280.00000, 120.593, -32.3531, 120.472, -151.265, 123.285, 88.2571, 0, 0, 3.85782, -55.427, 3.85354, -174.339, 3.77842, 65.1832, 0.140512, 64.8445
0, 2340.00000, 120.593, -32.3533, 120.472, -151.265, 123.285, 88.257, 0, 0, 3.85782, -55.4272, 3.85354, -174.339, 3.7784, 65.1831, 0.140538, 64.8445
0, 2400.00000, 120.593, -32.3534, 120.472, -151.265, 123.286, 88.257, 0, 0, 3.85783, -55.4274, 3.85354, -174.339, 3.77839, 65.1831, 0.140562, 64.8445
0, 2460.00000, 120.593, -32.3536, 120.472, -151.265, 123.286, 88.2569, 0, 0, 3.85783, -55.4275, 3.85354, -174.339, 3.77838, 65.183, 0.140584, 64.8445
0, 2520.00000, 120.593, -32.3537, 120.472, -151.265, 123.287, 88.2569, 0, 0, 3.85783, -55.4277, 3.85354, -174.339, 3.77837, 65.183, 0.140603, 64.8445
0, 2580.00000, 120.593, -32.3539, 120.472, -151.265, 123.287, 88.2569, 0, 0, 3.85783, -55.4278, 3.85354, -174.339, 3.77836, 65.1829, 0.140621, 64.8445
0, 2640.00000, 120.593, -32.354, 120.472, -151.265, 123.287, 88.2568, 0, 0, 3.85783, -55.4279, 3.85354, -174.339, 3.77835, 65.1829, 0.140637, 64.8445
0, 2700.00000, 120.593, -32.3541, 120.472, -151.265, 123.287, 88.2568, 0, 0, 3.85783, -55.428, 3.85354, -174.339, 3.77834, 65.1829, 0.140651, 64.8445
0, 2760.00000, 120.636, -32.3603, 120.93, -151.037, 124.012, 88.2069, 0, 0, 3.85935, -55.4342, 3.85201, -174.111, 3.75625, 65.133, 0.176717, 69.2824
0, 2820.00000, 120.636, -32.3604, 120.93, -151.037, 124.013, 88.2069, 0, 0, 3.85936, -55.4343, 3.85201, -174.111, 3.75625, 65.133, 0.176729, 69.2818
0, 2880.00000, 120.636, -32.3604, 120.93, -151.037, 124.013, 88.2069, 0, 0, 3.85936, -55.4344, 3.85201, -174.111, 3.75624, 65.133, 0.17674, 69.2815
0, 2940.00000, 120.636, -32.3605, 120.93, -151.037, 124.013, 88.2069, 0, 0, 3.85936, -55.4344, 3.85201, -174.111, 3.75624, 65.133, 0.176749, 69.2813
0, 3000.00000, 120.636, -32.3606, 120.93, -151.037, 124.013, 88.2069, 0, 0, 3.85936, -55.4345, 3.85201, -174.111, 3.75623, 65.1329, 0.176757, 69.281
0, 3060.00000, 120.636, -32.3606, 120.93, -151.037, 124.013, 88.2069, 0, 0, 3.85936, -55.4345, 3.85201, -174.111, 3.75623, 65.1329, 0.176765, 69.2808
0, 3120.00000, 120.636, -32.3607, 120.93, -151.037, 124.013, 88.2068, 0, 0, 3.85936, -55.4346, 3.85201, -174.111, 3.75622, 65.1329, 0.176771, 69.2806
0, 3180.00000, 120.636, -32.3607, 120.93, -151.037, 124.014, 88.2068, 0, 0, 3.85936, -55.4346, 3.85201, -174.111, 3.75622, 65.1329, 0.176778, 69.2804
0, 3240.00000, 120.636, -32.3607, 120.93, -151.037, 124.014, 88.2068, 0, 0, 3.85936, -55.4347, 3.85201, -174.111, 3.75622, 65.1329, 0.176783, 69.2803
0, 3300.00000, 120.636, -32.3608, 120.93, -151.037, 124.014, 88.2068, 0, 0, 3.85936, -55.4347, 3.85201, -174.111, 3.75621, 65.1329, 0.176788, 69.2801
0, 3360.00000, 120.636, -32.3608, 120.93, -151.037, 124.014, 88.2068, 0, 0, 3.85936, -55.4347, 3.85201, -174.111, 3.75621, 65.1329, 0.176792, 69.28
0, 3420.00000, 120.636, -32.3608, 120.93, -151.037, 124.014, 88.2068, 0, 0, 3.85936, -55.4347, 3.85201, -174.111, 3.75621, 65.1329, 0.176796, 69.2799
0, 3480.00000, 120.636, -32.3609, 120.93, -151.037, 124.014, 88.2068, 0, 0, 3.85936, -55.4348, 3.85201, -174.111, 3.75621, 65.1329, 0.1768, 69.2797
0, 3540.00000, 120.636, -32.3609, 120.93, -151.037, 124.014, 88.2068, 0, 0, 3.85936, -55.4348, 3.85201, -174.111, 3.75621, 65.1329, 0.176803, 69.2796
1, 0.00000, 120.636, -32.3609, 120.93, -151.037, 124.014, 88.2068, 0, 0, 3.85936, -55.4348, 3.85201, -174.111, 3.7562, 65.1329, 0.176806, 69.2796
1, 60.00000, 120.861, -32.1943, 121.365, -151.039, 123.99, 88.2116, 0, 0, 3.8542, -55.2682, 3.83818, -174.113, 3.75692, 65.1376, 0.158244, 74.4197
1, 120.00000, 120.861, -32.1943, 121.365, -151.039, 123.99, 88.2116, 0, 0, 3.8542, -55.2682, 3.83818, -174.113, 3.75692, 65.1376, 0.158246, 74.4195
1, 180.00000, 120.861, -32.1943, 121.365, -151.039, 123.99, 88.2116, 0, 0, 3.8542, -55.2682, 3.83818, -174.113, 3.75692, 65.1376, 0.158248, 74.4192
1, 240.00000, 120.861, -32.1943, 121.365, -151.039, 123.99, 88.2115, 0, 0, 3.8542, -55.2682, 3.83818, -174.113, 3.75692, 65.1376, 0.15825, 74.419
1, 300.00000, 120.861, -32.1943, 121.365, -151.039, 123.991, 88.2115, 0, 0, 3.8542, -55.2682, 3.83818, -174.113, 3.75692, 65.1376, 0.158251, 74.4188
1, 360.00000, 120.861, -32.1943, 121.365, -151.039, 123.991, 88.2115, 0, 0, 3.8542, -55.2682, 3.83818, -174.113, 3.75692, 65.1376, 0.158252, 74.4186
1, 420.00000, 120.861, -32.1943, 121.365, -151.039, 123.991, 88.2115, 0, 0, 3.8542, -55.2682, 3.83818, -174.113, 3.75692, 65.1376, 0.158254, 74.4184
1, 480.00000, 120.861, -32.1943, 121.365, -151.039, 123.991, 88.2115, 0, 0, 3.8542, -55.2683, 3.83818, -174.113, 3.75692, 65.1376, 0.158255, 74.4183
1, 540.00000, 120.861, -32.1943, 121.365, -151.039, 123.991, 88.2115, 0, 0, 3.8542, -55.2683, 3.83818, -174.113, 3.75691, 65.1376, 0.158256, 74.4181
1, 600.00000, 120.861, -32.1944, 121.365, -151.039, 123.991, 88.2115, 0, 0, 3.8542, -55.2683, 3.83818, -174.113, 3.75691, 65.1376, 0.158257, 74.418
1, 660.00000, 120.861, -32.1944, 121.365, -151.039, 123.991, 88.2115, 0, 0, 3.8542, -55.2683, 3.83818, -174.113, 3.75691, 65.1376, 0.158257, 74.4179
1, 720.00000, 120.861, -32.1944, 121.365, -151.039, 123.991, 88.2115, 0, 0, 3.8542, -55.2683, 3.83818, -174.113, 3.75691, 65.1376, 0.158258, 74.4178
1, 780.00000, 120.861, -32.1944, 121.365, -151.039, 123.991, 88.2115, 0, 0, 3.8542, -55.2683, 3.83818, -174.113, 3.75691, 65.1376, 0.158259, 74.4177
1, 840.00000, 120.861, -32.1944, 121.365, -151.039, 123.991, 88.2115, 0, 0, 3.8542, -55.2683, 3.83818, -174.113, 3.75691, 65.1376, 0.158259, 74.4176
1, 900.00000, 120.861, -32.1944, 121.365, -151.039, 123.991, 88.2115, 0, 0, 3.8542, -55.2683, 3.83818, -174.113, 3.75691, 65.1376, 0.15826, 74.4175
1, 960.00000, 120.861, -32.1944, 121.365, -151.039, 123.991, 88.2115, 0, 0, 3.8542, -55.2683, 3.83818, -174.113, 3.75691, 65.1376, 0.15826, 74.4175
1, 1020.00000, 120.861, -32.1944, 121.365, -151.039, 123.991, 88.2115, 0, 0, 3.8542, -55.2683, 3.83818, -174.113, 3.75691, 65.1376, 0.158261, 74.4174
1, 1080.00000, 120.861, -32.1944, 121.365, -151.039, 123.991, 88.2115, 0, 0, 3.8542, -55.2683, 3.83818, -174.113, 3.75691, 65.1376, 0.158261, 74.4174
1, 1140.00000, 120.861, -32.1944, 121.365, -151.039, 123.991, 88.2115, 0, 0, 3.8542, -55.2683, 3.83818, -174.113, 3.75691, 65.1376, 0.158261, 74.4173
1, 1200.00000, 120.861, -32.1944, 121.365, -151.039, 123.991, 88.2115, 0, 0, 3.8542, -55.2683, 3.83818, -174.113, 3.75691, 65.1376, 0.158262, 74.4173
1, 1260.00000, 120.861, -32.1944, 121.365, -151.039, 123.991, 88.2115, 0, 0, 3.8542, -55.2683, 3.83818, -174.113, 3.75691, 65.1376, 0.158262, 74.4172
1, 1320.00000, 120.861, -32.1944, 121.365, -151.039, 123.991, 88.2115, 0, 0, 3.8542, -55.2683, 3.83818, -174.113, 3.75691, 65.1376, 0.158262, 74.4172
1, 1380.00000, 120.861, -32.1944, 121.365, -151.039, 123.991, 88.2115, 0, 0, 3.8542, -55.2683, 3.83818, -174.113, 3.75691, 65.1376, 0.158262, 74.4172
1, 1440.00000, 120.861, -32.1944, 121.365, -151.039, 123.991, 88.2115, 0, 0, 3.8542, -55.2683, 3.83818, -174.113, 3.75691, 65.1376, 0.158263, 74.4171
1, 1500.00000, 120.861, -32.1944, 121.365, -151.039, 123.991, 88.2115, 0, 0, 3.8542, -55.2683, 3.83818, -174.113, 3.75691, 65.1376, 0.158263, 74.4171
1, 1560.00000, 120.861, -32.1944, 121.365, -151.039, 123.991, 88.2115, 0, 0, 3.8542, -55.2683, 3.83818, -174.113, 3.75691, 65.1376, 0.158263, 74.4171
1, 1620.00000, 120.861, -32.1944, 121.365, -151.039, 123.991, 88.2115, 0, 0, 3.8542, -55.2683, 3.83818, -174.113, 3.75691, 65.1376, 0.158263, 74.4171
1, 1680.00000, 120.861, -32.1944, 121.365, -151.039, 123.991, 88.2115, 0, 0, 3.8542, -55.2683, 3.83818, -174.113, 3.75691, 65.1376, 0.158263, 74.417
1, 1740.00000, 120.861, -32.1944, 121.365, -151.039, 123.991, 88.2115, 0, 0, 3.8542, -55.2683, 3.83818, -174.113, 3.75691, 65.1376, 0.158263, 74.417
1, 1800.00000, 120.861, -32.1944, 121.365, -151.039, 123.991, 88.2115, 0, 0, 3.8542, -55.2683, 3.83818, -174.113, 3.75691, 65.1376, 0.158263, 74.417
1, 1860.00000, 120.861, -32.1944, 121.365, -151.039, 123.991, 88.2115, 0, 0, 3.8542, -55.2683, 3.83818, -174.113, 3.75691, 65.1376, 0.158263, 74.417
1, 1920.00000, 120.861, -32.1944, 121.365, -151.039, 123.991, 88.2115, 0, 0, 3.8542, -55.2683, 3.83818, -174.113, 3.75691, 65.1376, 0.158264, 74.417
1, 1980.00000, 120.861, -32.1944, 121.365, -151.039, 123.991, 88.2115, 0, 0, 3.8542, -55.2683, 3.83818, -174.113, 3.75691, 65.1376, 0.158264, 74.417
1, 2040.00000, 120.861, -32.1944, 121.365, -151.039, 123.991, 88.2115, 0, 0, 3.8542, -55.2683, 3.83818, -174.113, 3.75691, 65.1376, 0.158264, 74.417
1, 2100.00000, 120.861, -32.1944, 121.365, -151.039, 123.991, 88.2115, 0, 0, 3.8542, -55.2683, 3.83818, -174.113, 3.75691, 65.1376, 0.158264, 74.417
1, 2160.00000, 120.861, -32.1944, 121.365, -151.039, 123.991, 88.2115, 0, 0, 3.8542, -55.2683, 3.83818, -174.113, 3.75691, 65.1376, 0.158264, 74.4169
1, 2220.00000, 120.861, -32.1944, 121.365, -151.039, 123.991, 88.2115, 0, 0, 3.8542, -55.2683, 3.83818, -174.113, 3.75691, 65.1376, 0.158264, 74.4169
1, 2280.00000, 120.861, -32.1944, 121.365, -151.039, 123.991, 88.2115, 0, 0, 3.8542, -55.2683, 3.83818, -174.113, 3.75691, 65.1376, 0.158264, 74.4169
1, 2340.00000, 120.861, -32.1944, 121.365, -151.039, 123.991, 88.2115, 0, 0, 3.8542, -55.2683, 3.83818, -174.113, 3.75691, 65.1376, 0.158264, 74.4169
1, 2400.00000, 120.861, -32.1944, 121.365, -151.039, 123.991, 88.2115, 0, 0, 3.8542, -55.2683, 3.83818, -174.113, 3.75691, 65.1376, 0.158264, 74.4169
1, 2460.00000, 120.861, -32.1944, 121.365, -151.039, 123.991, 88.2115, 0, 0, 3.8542, -55.2683, 3.83818, -174.113, 3.75691, 65.1376, 0.158264, 74.4169
1, 2520.00000, 120.861, -32.1944, 121.365, -151.039, 123.991, 88.2115, 0, 0, 3.8542, -55.2683, 3.83818, -174.113, 3.75691, 65.1376, 0.158264, 74.4169
1, 2580.00000, 120.861, -32.1944, 121.365, -151.039, 123.991, 88.2115, 0, 0, 3.8542, -55.2683, 3.83818, -174.113, 3.75691, 65.1376, 0.158264, 74.4169
1, 2640.00000, 120.861, -32.1944, 121.365, -151.039, 123.991, 88.2115, 0, 0, 3.8542, -55.2683, 3.83818, -174.113, 3.75691, 65.1376, 0.158264, 74.4169
1, 2700.00000, 120.861, -32.1944, 121.365, -151.039, 123.991, 88.2115, 0, 0, 3.8542, -55.2683, 3.83818, -174.113, 3.75691, 65.1376, 0.158264, 74.4169
1, 2760.00000, 120.861, -32.1944, 121.365, -151.039, 123.991, 88.2115, 0, 0, 3.8542, -55.2683, 3.83818, -174.113, 3.75691, 65.1376, 0.158264, 74.4169
1, 2820.00000, 120.861, -32.1944, 121.365, -151.039, 123.991, 88.2115, 0, 0, 3.8542, -55.2683, 3.83818, -174.113, 3.75691, 65.1376, 0.158264, 74.4169
1, 2880.00000, 120.861, -32.1944, 121.365, -151.039, 123.991, 88.2115, 0, 0, 3.8542, -55.2683, 3.83818, -174.113, 3.75691, 65.1376, 0.158264, 74.4169
1, 2940.00000, 120.861, -32.1944, 121.365, -151.039, 123.991, 88.2115, 0, 0, 3.8542, -55.2683, 3.83818, -174.113, 3.75691, 65.1376, 0.158264, 74.4169
1, 3000.00000, 120.861, -32.1944, 121.365, -151.039, 123.991, 88.2115, 0, 0, 3.8542, -55.2683, 3.83818, -174.113, 3.75691, 65.1376, 0.158264, 74.4169
1, 3060.00000, 120.861, -32.1944, 121.365, -151.039, 123.991, 88.2115, 0, 0, 3.8542, -55.2683, 3.83818, -174.113, 3.75691, 65.1376, 0.158264, 74.4169
1, 3120.00000, 120.861, -32.1944, 121.365, -151.039, 123.991, 88.2115, 0, 0, 3.8542, -55.2683, 3.83818, -174.113, 3.75691, 65.1376, 0.158264, 74.4169
1, 3180.00000, 120.861, -32.1944, 121.365, -151.039, 123.991, 88.2115, 0, 0, 3.8542, -55.2683, 3.83818, -174.113, 3.75691, 65.1376, 0.158264, 74.4169
1, 3240.00000, 120.861, -32.1944, 121.365, -151.039, 123.991, 88.2115, 0, 0, 3.8542, -55.2683, 3.83818, -174.113, 3.75691, 65.1376, 0.158264, 74.4169
1, 3300.00000, 120.861, -32.1944, 121.365, -151.039, 123.991, 88.2115, 0, 0, 3.8542, -55.2683, 3.83818, -174.113, 3.75691, 65.1376, 0.158264, 74.4169
1, 3360.00000, 120.861, -32.1944, 121.365, -151.039, 123.991, 88.2115, 0, 0, 3.8542, -55.2683, 3.83818, -174.113, 3.75691, 65.1376, 0.158264, 74.4169
1, 3420.00000, 120.861, -32.1944, 121.365, -151.039, 123.991, 88.2115, 0, 0, 3.8542, -55.2683, 3.83818, -174.113, 3.75691, 65.1376, 0.158264, 74.4169
1, 3480.00000, 120.861, -32.1944, 121.365, -151.039, 123.991, 88.2115, 0, 0, 3.8542, -55.2683, 3.83818, -174.113, 3.75691, 65.1376, 0.158264, 74.4169
1, 3540.00000, 120.861, -32.1944, 121.365, -151.039, 123.991, 88.2115, 0, 0, 3.8542, -55.2683, 3.83818, -174.113, 3.75691, 65.1376, 0.158264, 74.4169
2, 0.00000, 120.861, -32.1944, 121.365, -151.039, 123.991, 88.2115, 0, 0, 3.8542, -55.2683, 3.83818, -174.113, 3.75691, 65.1376, 0.158264, 74.4169
2, 60.00000, 120.861, -32.1944, 121.365, -151.039, 123.991, 88.2115, 0, 0, 3.8542, -55.2683, 3.83818, -174.113, 3.75691, 65.1376, 0.158264, 74.4169
2, 120.00000, 120.861, -32.1944, 121.365, -151.039, 123.991, 88.2115, 0, 0, 3.8542, -55.2683, 3.83818, -174.113, 3.75691, 65.1376, 0.158264, 74.4169
2, 180.00000, 120.861, -32.1944, 121.365, -151.039, 123.991, 88.2115, 0, 0, 3.8542, -55.2683, 3.83818, -174.113, 3.75691, 65.1376, 0.158264, 74.4169
2, 240.00000, 120.861, -32.1944, 121.365, -151.039, 123.991, 88.2115, 0, 0, 3.8542, -55.2683, 3.83818, -174.113, 3.75691, 65.1376, 0.158264, 74.4169
2, 300.00000, 120.861, -32.1944, 121.365, -151.039, 123.991, 88.2115, 0, 0, 3.8542, -55.2683, 3.83818, -174.113, 3.75691, 65.1376, 0.158264, 74.4169
2, 360.00000, 120.861, -32.1944, 121.365, -151.039, 123.991, 88.2115, 0, 0, 3.8542, -55.2683, 3.83818, -174.113, 3.75691, 65.1376, 0.158264, 74.4169
2, 420.00000, 120.861, -32.1944, 121.365, -151.039, 123.991, 88.2115, 0, 0, 3.8542, -55.2683, 3.83818, -174.113, 3.75691, 65.1376, 0.158264, 74.4169
2, 480.00000, 120.861, -32.1944, 121.365, -151.039, 123.991, 88.2115, 0, 0, 3.8542, -55.2683, 3.83818, -174.113, 3.75691, 65.1376, 0.158264, 74.4169
2, 540.00000, 120.861, -32.1944, 121.365, -151.039, 123.991, 88.2115, 0, 0, 3.8542, -55.2683, 3.83818, -174.113, 3.75691, 65.1376, 0.158264, 74.4169
2, 600.00000, 120.861, -32.1944, 121.365, -151.039, 123.991, 88.2115, 0, 0, 3.8542, -55.2683, 3.83818, -174.113, 3.75691, 65.1376, 0.158264, 74.4169
2, 660.00000, 120.861, -32.1944, 121.365, -151.039, 123.991, 88.2115, 0, 0, 3.8542, -55.2683, 3.83818, -174.113, 3.75691, 65.1376, 0.158264, 74.4169
2, 720.00000, 120.861, -32.1944, 121.365, -151.039, 123.991, 88.2115, 0, 0, 3.8542, -55.2683, 3.83818, -174.113, 3.75691, 65.1376, 0.158264, 74.4169
2, 780.00000, 120.861, -32.1944, 121.365, -151.039, 123.991, 88.2115, 0, 0, 3.8542, -55.2683, 3.83818, -174.113, 3.75691, 65.1376, 0.158264, 74.4169
