hour,t(sec),"P1 (kW)","Q1 (kvar)","P2 (kW)","Q2 (kvar)","P3 (kW)","Q3 (kvar)","P4 (kW)","Q4 (kvar)"
0, 60.00000, 0.695983, 0.296483, 0.682992, 0.29095, 0.736309, 0.313647, 0, 0
0, 120.00000, 0.695925, 0.296459, 0.682978, 0.290944, 0.736872, 0.313888, 0, 0
0, 180.00000, 0.695872, 0.296437, 0.682966, 0.290939, 0.737378, 0.314105, 0, 0
0, 240.00000, 0.695824, 0.296417, 0.682955, 0.290935, 0.737833, 0.314301, 0, 0
0, 300.00000, 0.69578, 0.296398, 0.682945, 0.290931, 0.738244, 0.314477, 0, 0
0, 360.00000, 0.69574, 0.296382, 0.682937, 0.290927, 0.738615, 0.314636, 0, 0
0, 420.00000, 0.695703, 0.296366, 0.682929, 0.290924, 0.738858, 0.314741, 0, 0
0, 480.00000, 0.639784, 0.272545, 0.627452, 0.267289, 0.667607, 0.284391, 0, 0
0, 540.00000, 0.639753, 0.272532, 0.627446, 0.267287, 0.667607, 0.284391, 0, 0
0, 600.00000, 0.639725, 0.27252, 0.62744, 0.267285, 0.667605, 0.284391, 0, 0
0, 660.00000, 0.6397, 0.27251, 0.627435, 0.267283, 0.667604, 0.284391, 0, 0
0, 720.00000, 0.639677, 0.2725, 0.627431, 0.267281, 0.667602, 0.284392, 0, 0
0, 780.00000, 0.639656, 0.272491, 0.627427, 0.26728, 0.667601, 0.284392, 0, 0
0, 840.00000, 0.639638, 0.272484, 0.627423, 0.267279, 0.6676, 0.284392, 0, 0
0, 900.00000, 0.639621, 0.272476, 0.62742, 0.267277, 0.667599, 0.284392, 0, 0
0, 960.00000, 0.623041, 0.265414, 0.608439, 0.259192, 0.667598, 0.284392, 0, 0
0, 1020.00000, 0.623028, 0.265409, 0.608437, 0.259192, 0.667598, 0.284392, 0, 0
0, 1080.00000, 0.623017, 0.265404, 0.608436, 0.259191, 0.667597, 0.284392, 0, 0
0, 1140.00000, 0.624192, 0.265905, 0.611851, 0.260646, 0.667596, 0.284392, 0, 0
0, 1200.00000, 0.624183, 0.265901, 0.61185, 0.260646, 0.667596, 0.284392, 0, 0
0, 1260.00000, 0.624174, 0.265897, 0.611849, 0.260645, 0.667595, 0.284392, 0, 0
0, 1320.00000, 0.624166, 0.265894, 0.611848, 0.260645, 0.667595, 0.284392, 0, 0
0, 1380.00000, 0.624159, 0.265891, 0.611847, 0.260645, 0.667595, 0.284392, 0, 0
0, 1440.00000, 0.624153, 0.265888, 0.611846, 0.260645, 0.667594, 0.284392, 0, 0
0, 1500.00000, 0.624147, 0.265885, 0.611845, 0.260644, 0.667594, 0.284392, 0, 0
0, 1560.00000, 0.624142, 0.265883, 0.611845, 0.260644, 0.667594, 0.284392, 0, 0
0, 1620.00000, 0.624137, 0.265881, 0.611844, 0.260644, 0.667593, 0.284392, 0, 0
0, 1680.00000, 0.624133, 0.265879, 0.611844, 0.260644, 0.667593, 0.284392, 0, 0
0, 1740.00000, 0.624129, 0.265878, 0.611843, 0.260644, 0.667593, 0.284392, 0, 0
0, 1800.00000, 0.613244, 0.261241, 0.611996, 0.260709, 0.667592, 0.284392, 0, 0
0, 1860.00000, 0.613241, 0.26124, 0.611995, 0.260709, 0.667592, 0.284392, 0, 0
0, 1920.00000, 0.613238, 0.261238, 0.611995, 0.260709, 0.667592, 0.284392, 0, 0
0, 1980.00000, 0.613236, 0.261238, 0.611995, 0.260708, 0.667592, 0.284392, 0, 0
0, 2040.00000, 0.613234, 0.261237, 0.611994, 0.260708, 0.667592, 0.284392, 0, 0
0, 2100.00000, 0.613232, 0.261236, 0.611994, 0.260708, 0.667592, 0.284392, 0, 0
0, 2160.00000, 0.613231, 0.261235, 0.611994, 0.260708, 0.667592, 0.284392, 0, 0
0, 2220.00000, 0.613229, 0.261235, 0.611994, 0.260708, 0.667592, 0.284392, 0, 0
0, 2280.00000, 0.613228, 0.261234, 0.611994, 0.260708, 0.667592, 0.284392, 0, 0
0, 2340.00000, 0.613227, 0.261234, 0.611993, 0.260708, 0.667592, 0.284392, 0, 0
0, 2400.00000, 0.613226, 0.261233, 0.611993, 0.260708, 0.667591, 0.284393, 0, 0
0, 2460.00000, 0.613225, 0.261233, 0.611993, 0.260708, 0.667591, 0.284393, 0, 0
0, 2520.00000, 0.613224, 0.261232, 0.611993, 0.260708, 0.667591, 0.284393, 0, 0
0, 2580.00000, 0.613223, 0.261232, 0.611993, 0.260708, 0.667591, 0.284393, 0, 0
0, 2640.00000, 0.613222, 0.261232, 0.611993, 0.260708, 0.667591, 0.284393, 0, 0
0, 2700.00000, 0.613222, 0.261231, 0.611993, 0.260708, 0.667591, 0.284393, 0, 0
0, 2760.00000, 0.61736, 0.262994, 0.61196, 0.260694, 0.667592, 0.284393, 0, 0
0, 2820.00000, 0.61736, 0.262994, 0.61196, 0.260694, 0.667591, 0.284393, 0, 0
0, 2880.00000, 0.617359, 0.262994, 0.61196, 0.260694, 0.667591, 0.284393, 0, 0
0, 2940.00000, 0.617359, 0.262994, 0.61196, 0.260694, 0.667591, 0.284393, 0, 0
0, 3000.00000, 0.617359, 0.262994, 0.61196, 0.260694, 0.667591, 0.284393, 0, 0
0, 3060.00000, 0.617358, 0.262994, 0.61196, 0.260694, 0.667591, 0.284393, 0, 0
0, 3120.00000, 0.617358, 0.262993, 0.61196, 0.260694, 0.667591, 0.284393, 0, 0
0, 3180.00000, 0.617358, 0.262993, 0.61196, 0.260694, 0.667591, 0.284393, 0, 0
0, 3240.00000, 0.617357, 0.262993, 0.61196, 0.260694, 0.667591, 0.284393, 0, 0
0, 3300.00000, 0.617357, 0.262993, 0.61196, 0.260694, 0.667591, 0.284393, 0, 0
0, 3360.00000, 0.617357, 0.262993, 0.61196, 0.260694, 0.667591, 0.284393, 0, 0
0, 3420.00000, 0.617357, 0.262993, 0.61196, 0.260694, 0.667591, 0.284393, 0, 0
0, 3480.00000, 0.617357, 0.262993, 0.61196, 0.260694, 0.667591, 0.284393, 0, 0
0, 3540.00000, 0.617357, 0.262993, 0.61196, 0.260694, 0.667591, 0.284393, 0, 0
1, 0.00000, 0.617356, 0.262993, 0.61196, 0.260694, 0.667591, 0.284393, 0, 0
1, 60.00000, 0.618495, 0.263478, 0.615295, 0.262115, 0.667591, 0.284393, 0, 0
1, 120.00000, 0.618495, 0.263478, 0.615295, 0.262115, 0.667591, 0.284393, 0, 0
1, 180.00000, 0.618495, 0.263478, 0.615295, 0.262115, 0.667591, 0.284393, 0, 0
1, 240.00000, 0.618495, 0.263478, 0.615295, 0.262115, 0.667591, 0.284393, 0, 0
1, 300.00000, 0.618494, 0.263478, 0.615295, 0.262115, 0.667591, 0.284393, 0, 0
1, 360.00000, 0.618494, 0.263478, 0.615295, 0.262115, 0.667591, 0.284393, 0, 0
1, 420.00000, 0.618494, 0.263477, 0.615295, 0.262115, 0.667591, 0.284393, 0, 0
1, 480.00000, 0.618494, 0.263477, 0.615295, 0.262115, 0.667591, 0.284393, 0, 0
1, 540.00000, 0.618494, 0.263477, 0.615295, 0.262115, 0.667591, 0.284393, 0, 0
1, 600.00000, 0.618494, 0.263477, 0.615295, 0.262115, 0.667591, 0.284393, 0, 0
1, 660.00000, 0.618494, 0.263477, 0.615295, 0.262115, 0.667591, 0.284393, 0, 0
1, 720.00000, 0.618494, 0.263477, 0.615295, 0.262115, 0.667591, 0.284393, 0, 0
1, 780.00000, 0.618633, 0.263536, 0.618686, 0.263559, 0.667591, 0.284393, 0, 0
1, 840.00000, 0.618632, 0.263536, 0.618686, 0.263559, 0.667591, 0.284393, 0, 0
1, 900.00000, 0.618632, 0.263536, 0.618686, 0.263559, 0.667591, 0.284393, 0, 0
1, 960.00000, 0.618632, 0.263536, 0.618686, 0.263559, 0.667591, 0.284393, 0, 0
1, 1020.00000, 0.618632, 0.263536, 0.618686, 0.263559, 0.667591, 0.284393, 0, 0
1, 1080.00000, 0.618632, 0.263536, 0.618686, 0.263559, 0.667591, 0.284393, 0, 0
1, 1140.00000, 0.618632, 0.263536, 0.618686, 0.263559, 0.667591, 0.284393, 0, 0
1, 1200.00000, 0.618632, 0.263536, 0.618686, 0.263559, 0.667591, 0.284393, 0, 0
1, 1260.00000, 0.618632, 0.263536, 0.618686, 0.263559, 0.667591, 0.284393, 0, 0
1, 1320.00000, 0.618632, 0.263536, 0.618686, 0.263559, 0.667591, 0.284393, 0, 0
1, 1380.00000, 0.618632, 0.263536, 0.618686, 0.263559, 0.667591, 0.284393, 0, 0
1, 1440.00000, 0.618632, 0.263536, 0.618686, 0.263559, 0.667591, 0.284393, 0, 0
1, 1500.00000, 0.618632, 0.263536, 0.618686, 0.263559, 0.667591, 0.284393, 0, 0
1, 1560.00000, 0.618632, 0.263536, 0.618686, 0.263559, 0.667591, 0.284393, 0, 0
1, 1620.00000, 0.618632, 0.263536, 0.618686, 0.263559, 0.667591, 0.284393, 0, 0
1, 1680.00000, 0.618632, 0.263536, 0.618686, 0.263559, 0.667591, 0.284393, 0, 0
1, 1740.00000, 0.618632, 0.263536, 0.618686, 0.263559, 0.667591, 0.284393, 0, 0
1, 1800.00000, 0.618632, 0.263536, 0.618686, 0.263559, 0.667591, 0.284393, 0, 0
1, 1860.00000, 0.618632, 0.263536, 0.618686, 0.263559, 0.667591, 0.284393, 0, 0
1, 1920.00000, 0.618632, 0.263536, 0.618686, 0.263559, 0.667591, 0.284393, 0, 0
1, 1980.00000, 0.618632, 0.263536, 0.618686, 0.263559, 0.667591, 0.284393, 0, 0
1, 2040.00000, 0.618632, 0.263536, 0.618686, 0.263559, 0.667591, 0.284393, 0, 0
1, 2100.00000, 0.618632, 0.263536, 0.618686, 0.263559, 0.667591, 0.284393, 0, 0
1, 2160.00000, 0.618632, 0.263536, 0.618686, 0.263559, 0.667591, 0.284393, 0, 0
1, 2220.00000, 0.62948, 0.268157, 0.618491, 0.263476, 0.667591, 0.284393, 0, 0
1, 2280.00000, 0.62948, 0.268157, 0.618491, 0.263476, 0.667591, 0.284393, 0, 0
1, 2340.00000, 0.62948, 0.268157, 0.618491, 0.263476, 0.667591, 0.284393, 0, 0
1, 2400.00000, 0.62948, 0.268157, 0.618491, 0.263476, 0.667591, 0.284393, 0, 0
1, 2460.00000, 0.62948, 0.268157, 0.618491, 0.263476, 0.667591, 0.284393, 0, 0
1, 2520.00000, 0.62948, 0.268157, 0.618491, 0.263476, 0.667591, 0.284393, 0, 0
1, 2580.00000, 0.62948, 0.268157, 0.618491, 0.263476, 0.667591, 0.284393, 0, 0
1, 2640.00000, 0.62948, 0.268157, 0.618491, 0.263476, 0.667591, 0.284393, 0, 0
1, 2700.00000, 0.62948, 0.268157, 0.618491, 0.263476, 0.667591, 0.284393, 0, 0
1, 2760.00000, 0.62948, 0.268157, 0.618491, 0.263476, 0.667591, 0.284393, 0, 0
1, 2820.00000, 0.62948, 0.268157, 0.618491, 0.263476, 0.667591, 0.284393, 0, 0
1, 2880.00000, 0.62948, 0.268157, 0.618491, 0.263476, 0.667591, 0.284393, 0, 0
1, 2940.00000, 0.62948, 0.268157, 0.618491, 0.263476, 0.667591, 0.284393, 0, 0
1, 3000.00000, 0.62948, 0.268157, 0.618491, 0.263476, 0.667591, 0.284393, 0, 0
1, 3060.00000, 0.62948, 0.268157, 0.618491, 0.263476, 0.667591, 0.284393, 0, 0
1, 3120.00000, 0.62948, 0.268157, 0.618491, 0.263476, 0.667591, 0.284393, 0, 0
1, 3180.00000, 0.62948, 0.268157, 0.618491, 0.263476, 0.667591, 0.284393, 0, 0
1, 3240.00000, 0.62948, 0.268157, 0.618491, 0.263476, 0.667591, 0.284393, 0, 0
1, 3300.00000, 0.62948, 0.268157, 0.618491, 0.263476, 0.667591, 0.284393, 0, 0
1, 3360.00000, 0.62948, 0.268157, 0.618491, 0.263476, 0.667591, 0.284393, 0, 0
1, 3420.00000, 0.62948, 0.268157, 0.618491, 0.263476, 0.667591, 0.284393, 0, 0
1, 3480.00000, 0.62948, 0.268157, 0.618491, 0.263476, 0.667591, 0.284393, 0, 0
1, 3540.00000, 0.62948, 0.268157, 0.618491, 0.263476, 0.667591, 0.284393, 0, 0
2, 0.00000, 0.62948, 0.268157, 0.618491, 0.263476, 0.667591, 0.284393, 0, 0
2, 60.00000, 0.62948, 0.268157, 0.618491, 0.263476, 0.667591, 0.284393, 0, 0
2, 120.00000, 0.62948, 0.268157, 0.618491, 0.263476, 0.667591, 0.284393, 0, 0
2, 180.00000, 0.62948, 0.268157, 0.618491, 0.263476, 0.667591, 0.284393, 0, 0
2, 240.00000, 0.62948, 0.268157, 0.618491, 0.263476, 0.667591, 0.284393, 0, 0
2, 300.00000, 0.62948, 0.268157, 0.618491, 0.263476, 0.667591, 0.284393, 0, 0
2, 360.00000, 0.62948, 0.268157, 0.618491, 0.263476, 0.667591, 0.284393, 0, 0
2, 420.00000, 0.62948, 0.268157, 0.618491, 0.263476, 0.667591, 0.284393, 0, 0
2, 480.00000, 0.62948, 0.268157, 0.618491, 0.263476, 0.667591, 0.284393, 0, 0
2, 540.00000, 0.62948, 0.268157, 0.618491, 0.263476, 0.667591, 0.284393, 0, 0
2, 600.00000, 0.62948, 0.268157, 0.618491, 0.263476, 0.667591, 0.284393, 0, 0
2, 660.00000, 0.62948, 0.268157, 0.618491, 0.263476, 0.667591, 0.284393, 0, 0
2, 720.00000, 0.62948, 0.268157, 0.618491, 0.263476, 0.667591, 0.284393, 0, 0
2, 780.00000, 0.62948, 0.268157, 0.618491, 0.263476, 0.667591, 0.284393, 0, 0
2, 840.00000, 0.645015, 0.274775, 0.634218, 0.270176, 0.667591, 0.284393, 0, 0
2, 900.00000, 0.645015, 0.274775, 0.634218, 0.270176, 0.667591, 0.284393, 0, 0
2, 960.00000, 0.645015, 0.274775, 0.634218, 0.270176, 0.667591, 0.284393, 0, 0
2, 1020.00000, 0.645015, 0.274775, 0.634218, 0.270176, 0.667591, 0.284393, 0, 0
2, 1080.00000, 0.645015, 0.274775, 0.634218, 0.270176, 0.667591, 0.284393, 0, 0
2, 1140.00000, 0.645015, 0.274775, 0.634218, 0.270176, 0.667591, 0.284393, 0, 0
2, 1200.00000, 0.645015, 0.274775, 0.634218, 0.270176, 0.667591, 0.284393, 0, 0
2, 1260.00000, 0.645015, 0.274775, 0.634218, 0.270176, 0.667591, 0.284393, 0, 0
2, 1320.00000, 0.645015, 0.274775, 0.634218, 0.270176, 0.667591, 0.284393, 0, 0
2, 1380.00000, 0.645015, 0.274775, 0.634218, 0.270176, 0.667591, 0.284393, 0, 0
2, 1440.00000, 0.645015, 0.274775, 0.634218, 0.270176, 0.667591, 0.284393, 0, 0
2, 1500.00000, 0.645015, 0.274775, 0.634218, 0.270176, 0.667591, 0.284393, 0, 0
2, 1560.00000, 0.645015, 0.274775, 0.634218, 0.270176, 0.667591, 0.284393, 0, 0
2, 1620.00000, 0.645015, 0.274775, 0.634218, 0.270176, 0.667591, 0.284393, 0, 0
2, 1680.00000, 0.645015, 0.274775, 0.634218, 0.270176, 0.667591, 0.284393, 0, 0
2, 1740.00000, 0.645015, 0.274775, 0.634218, 0.270176, 0.667591, 0.284393, 0, 0
2, 1800.00000, 0.645015, 0.274775, 0.634218, 0.270176, 0.667591, 0.284393, 0, 0
2, 1860.00000, 0.645015, 0.274775, 0.634218, 0.270176, 0.667591, 0.284393, 0, 0
2, 1920.00000, 0.645015, 0.274775, 0.634218, 0.270176, 0.667591, 0.284393, 0, 0
2, 1980.00000, 0.645015, 0.274775, 0.634218, 0.270176, 0.667591, 0.284393, 0, 0
2, 2040.00000, 0.645015, 0.274775, 0.634218, 0.270176, 0.667591, 0.284393, 0, 0
2, 2100.00000, 0.645015, 0.274775, 0.634218, 0.270176, 0.667591, 0.284393, 0, 0
2, 2160.00000, 0.645015, 0.274775, 0.634218, 0.270176, 0.667591, 0.284393, 0, 0
2, 2220.00000, 0.645015, 0.274775, 0.634218, 0.270176, 0.667591, 0.284393, 0, 0
2, 2280.00000, 0.645015, 0.274775, 0.634218, 0.270176, 0.667591, 0.284393, 0, 0
2, 2340.00000, 0.645015, 0.274775, 0.634218, 0.270176, 0.667591, 0.284393, 0, 0
2, 2400.00000, 0.645048, 0.274789, 0.637906, 0.271747, 0.667592, 0.284393, 0, 0
2, 2460.00000, 0.645047, 0.274789, 0.637906, 0.271747, 0.667591, 0.284393, 0, 0
2, 2520.00000, 0.645047, 0.274789, 0.637906, 0.271747, 0.667591, 0.284393, 0, 0
2, 2580.00000, 0.645047, 0.274789, 0.637906, 0.271747, 0.667591, 0.284393, 0, 0
2, 2640.00000, 0.645047, 0.274789, 0.637906, 0.271747, 0.667591, 0.284393, 0, 0
2, 2700.00000, 0.635987, 0.270929, 0.62766, 0.267382, 0.66759, 0.284392, 0, 0
2, 2760.00000, 0.635987, 0.270929, 0.62766, 0.267382, 0.667591, 0.284393, 0, 0
2, 2820.00000, 0.635987, 0.270929, 0.62766, 0.267382, 0.667591, 0.284393, 0, 0
2, 2880.00000, 0.635987, 0.270929, 0.62766, 0.267382, 0.667591, 0.284393, 0, 0
2, 2940.00000, 0.635987, 0.270929, 0.62766, 0.267382, 0.667591, 0.284393, 0, 0
2, 3000.00000, 0.635987, 0.270929, 0.62766, 0.267382, 0.667591, 0.284393, 0, 0
2, 3060.00000, 0.639844, 0.272572, 0.62762, 0.267365, 0.667592, 0.284393, 0, 0
2, 3120.00000, 0.639843, 0.272572, 0.62762, 0.267365, 0.667591, 0.284393, 0, 0
2, 3180.00000, 0.639843, 0.272572, 0.62762, 0.267365, 0.667591, 0.284393, 0, 0
2, 3240.00000, 0.639843, 0.272572, 0.62762, 0.267365, 0.667591, 0.284393, 0, 0
2, 3300.00000, 0.639843, 0.272572, 0.62762, 0.267365, 0.667591, 0.284393, 0, 0
2, 3360.00000, 0.639843, 0.272572, 0.62762, 0.267365, 0.667591, 0.284393, 0, 0
2, 3420.00000, 0.639843, 0.272572, 0.62762, 0.267365, 0.667591, 0.284393, 0, 0
2, 3480.00000, 0.639843, 0.272572, 0.62762, 0.267365, 0.667591, 0.284393, 0, 0
2, 3540.00000, 0.639843, 0.272572, 0.62762, 0.267365, 0.667591, 0.284393, 0, 0
3, 0.00000, 0.639843, 0.272572, 0.62762, 0.267365, 0.667591, 0.284393, 0, 0
3, 60.00000, 0.639843, 0.272572, 0.62762, 0.267365, 0.667591, 0.284393, 0, 0
3, 120.00000, 0.639843, 0.272572, 0.62762, 0.267365, 0.667591, 0.284393, 0, 0
3, 180.00000, 0.639843, 0.272572, 0.62762, 0.267365, 0.667591, 0.284393, 0, 0
3, 240.00000, 0.639843, 0.272572, 0.62762, 0.267365, 0.667591, 0.284393, 0, 0
3, 300.00000, 0.639843, 0.272572, 0.62762, 0.267365, 0.667591, 0.284393, 0, 0
3, 360.00000, 0.639843, 0.272572, 0.62762, 0.267365, 0.667591, 0.284393, 0, 0
3, 420.00000, 0.639843, 0.272572, 0.62762, 0.267365, 0.667591, 0.284393, 0, 0
3, 480.00000, 0.639843, 0.272572, 0.62762, 0.267365, 0.667591, 0.284393, 0, 0
3, 540.00000, 0.639843, 0.272572, 0.62762, 0.267365, 0.667591, 0.284393, 0, 0
3, 600.00000, 0.639843, 0.272572, 0.62762, 0.267365, 0.667591, 0.284393, 0, 0
3, 660.00000, 0.639843, 0.272572, 0.62762, 0.267365, 0.667591, 0.284393, 0, 0
3, 720.00000, 0.639843, 0.272572, 0.62762, 0.267365, 0.667591, 0.284393, 0, 0
3, 780.00000, 0.639843, 0.272572, 0.62762, 0.267365, 0.667591, 0.284393, 0, 0
3, 840.00000, 0.639843, 0.272572, 0.62762, 0.267365, 0.667591, 0.284393, 0, 0
3, 900.00000, 0.639843, 0.272572, 0.62762, 0.267365, 0.667591, 0.284393, 0, 0
3, 960.00000, 0.639843, 0.272572, 0.62762, 0.267365, 0.667591, 0.284393, 0, 0
3, 1020.00000, 0.639843, 0.272572, 0.62762, 0.267365, 0.667591, 0.284393, 0, 0
3, 1080.00000, 0.639843, 0.272572, 0.62762, 0.267365, 0.667591, 0.284393, 0, 0
3, 1140.00000, 0.639843, 0.272572, 0.62762, 0.267365, 0.667591, 0.284393, 0, 0
3, 1200.00000, 0.639843, 0.272572, 0.62762, 0.267365, 0.667591, 0.284393, 0, 0
3, 1260.00000, 0.639843, 0.272572, 0.62762, 0.267365, 0.667591, 0.284393, 0, 0
3, 1320.00000, 0.639843, 0.272572, 0.62762, 0.267365, 0.667591, 0.284393, 0, 0
3, 1380.00000, 0.639843, 0.272572, 0.62762, 0.267365, 0.667591, 0.284393, 0, 0
3, 1440.00000, 0.639843, 0.272572, 0.62762, 0.267365, 0.667591, 0.284393, 0, 0
3, 1500.00000, 0.639843, 0.272572, 0.62762, 0.267365, 0.667591, 0.284393, 0, 0
3, 1560.00000, 0.639843, 0.272572, 0.62762, 0.267365, 0.667591, 0.284393, 0, 0
3, 1620.00000, 0.639843, 0.272572, 0.62762, 0.267365, 0.667591, 0.284393, 0, 0
3, 1680.00000, 0.639843, 0.272572, 0.62762, 0.267365, 0.667591, 0.284393, 0, 0
3, 1740.00000, 0.639843, 0.272572, 0.62762, 0.267365, 0.667591, 0.284393, 0, 0
3, 1800.00000, 0.639843, 0.272572, 0.62762, 0.267365, 0.667591, 0.284393, 0, 0
3, 1860.00000, 0.639843, 0.272572, 0.62762, 0.267365, 0.667591, 0.284393, 0, 0
3, 1920.00000, 0.639843, 0.272572, 0.62762, 0.267365, 0.667591, 0.284393, 0, 0
3, 1980.00000, 0.639843, 0.272572, 0.62762, 0.267365, 0.667591, 0.284393, 0, 0
3, 2040.00000, 0.639843, 0.272572, 0.62762, 0.267365, 0.667591, 0.284393, 0, 0
3, 2100.00000, 0.639843, 0.272572, 0.62762, 0.267365, 0.667591, 0.284393, 0, 0
3, 2160.00000, 0.639843, 0.272572, 0.62762, 0.267365, 0.667591, 0.284393, 0, 0
3, 2220.00000, 0.639843, 0.272572, 0.62762, 0.267365, 0.667591, 0.284393, 0, 0
3, 2280.00000, 0.639843, 0.272572, 0.62762, 0.267365, 0.667591, 0.284393, 0, 0
3, 2340.00000, 0.639843, 0.272572, 0.62762, 0.267365, 0.667591, 0.284393, 0, 0
3, 2400.00000, 0.639843, 0.272572, 0.62762, 0.267365, 0.667591, 0.284393, 0, 0
3, 2460.00000, 0.639843, 0.272572, 0.62762, 0.267365, 0.667591, 0.284393, 0, 0
3, 2520.00000, 0.639843, 0.272572, 0.62762, 0.267365, 0.667591, 0.284393, 0, 0
3, 2580.00000, 0.639843, 0.272572, 0.62762, 0.267365, 0.667591, 0.284393, 0, 0
3, 2640.00000, 0.639843, 0.272572, 0.62762, 0.267365, 0.667591, 0.284393, 0, 0
3, 2700.00000, 0.639843, 0.272572, 0.62762, 0.267365, 0.667591, 0.284393, 0, 0
3, 2760.00000, 0.639843, 0.272572, 0.62762, 0.267365, 0.667591, 0.284393, 0, 0
3, 2820.00000, 0.639843, 0.272572, 0.62762, 0.267365, 0.667591, 0.284393, 0, 0
3, 2880.00000, 0.639843, 0.272572, 0.62762, 0.267365, 0.667591, 0.284393, 0, 0
3, 2940.00000, 0.639843, 0.272572, 0.62762, 0.267365, 0.667591, 0.284393, 0, 0
3, 3000.00000, 0.639843, 0.272572, 0.62762, 0.267365, 0.667591, 0.284393, 0, 0
3, 3060.00000, 0.639843, 0.272572, 0.62762, 0.267365, 0.667591, 0.284393, 0, 0
3, 3120.00000, 0.639843, 0.272572, 0.62762, 0.267365, 0.667591, 0.284393, 0, 0
3, 3180.00000, 0.624187, 0.265903, 0.61234, 0.260856, 0.653327, 0.278316, 0, 0
3, 3240.00000, 0.624188, 0.265903, 0.61234, 0.260856, 0.653328, 0.278317, 0, 0
3, 3300.00000, 0.624188, 0.265903, 0.61234, 0.260856, 0.653328, 0.278317, 0, 0
3, 3360.00000, 0.624188, 0.265903, 0.61234, 0.260856, 0.653328, 0.278317, 0, 0
3, 3420.00000, 0.624188, 0.265903, 0.61234, 0.260856, 0.653328, 0.278317, 0, 0
3, 3480.00000, 0.624188, 0.265903, 0.61234, 0.260856, 0.653328, 0.278317, 0, 0
3, 3540.00000, 0.624188, 0.265903, 0.61234, 0.260856, 0.653328, 0.278317, 0, 0
4, 0.00000, 0.616754, 0.262736, 0.612392, 0.260878, 0.653328, 0.278316, 0, 0
4, 60.00000, 0.616754, 0.262736, 0.612392, 0.260878, 0.653328, 0.278317, 0, 0
4, 120.00000, 0.616754, 0.262736, 0.612392, 0.260878, 0.653328, 0.278317, 0, 0
4, 180.00000, 0.616754, 0.262736, 0.612392, 0.260878, 0.653328, 0.278317, 0, 0
4, 240.00000, 0.616754, 0.262736, 0.612392, 0.260878, 0.653328, 0.278317, 0, 0
4, 300.00000, 0.616754, 0.262736, 0.612392, 0.260878, 0.653328, 0.278317, 0, 0
4, 360.00000, 0.616754, 0.262736, 0.612392, 0.260878, 0.653328, 0.278317, 0, 0
4, 420.00000, 0.616754, 0.262736, 0.612392, 0.260878, 0.653328, 0.278317, 0, 0
4, 480.00000, 0.616754, 0.262736, 0.612392, 0.260878, 0.653328, 0.278317, 0, 0
4, 540.00000, 0.616754, 0.262736, 0.612392, 0.260878, 0.653328, 0.278317, 0, 0
4, 600.00000, 0.616754, 0.262736, 0.612392, 0.260878, 0.653328, 0.278317, 0, 0
4, 660.00000, 0.616754, 0.262736, 0.612392, 0.260878, 0.653328, 0.278317, 0, 0
