hour,t(sec),V1,VAngle1,V2,VAngle2,V3,VAngle3,V4,VAngle4,I1,IAngle1,I2,IAngle2,I3,IAngle3,I4,IAngle4
0, 60.00000, 118.306, -31.1002, 124.374, -152.82, 117.96, 85.9289, 0, 0, 2.91843, -54.1731, 2.89431, -175.891, 2.90916, 62.8547, 0.149463, -174.194
0, 120.00000, 118.305, -31.1029, 124.437, -152.845, 117.938, 85.893, 0, 0, 2.91841, -54.1759, 2.89282, -175.916, 2.90856, 62.8189, 0.152049, -174.316
0, 180.00000, 118.304, -31.1053, 124.494, -152.867, 117.919, 85.8607, 0, 0, 2.91839, -54.1784, 2.89149, -175.939, 2.90801, 62.7866, 0.154373, -174.421
0, 240.00000, 118.304, -31.1075, 124.545, -152.888, 117.902, 85.8317, 0, 0, 2.91837, -54.1807, 2.89029, -175.96, 2.90751, 62.7576, 0.156461, -174.514
0, 300.00000, 118.303, -31.1095, 124.591, -152.906, 117.886, 85.8055, 0, 0, 2.91836, -54.1827, 2.88921, -175.978, 2.90707, 62.7315, 0.158338, -174.596
0, 360.00000, 118.303, -31.1112, 124.633, -152.923, 117.872, 85.782, 0, 0, 2.91834, -54.1846, 2.88825, -175.995, 2.90666, 62.7079, 0.160026, -174.668
0, 420.00000, 118.302, -31.1128, 124.67, -152.938, 117.859, 85.7608, 0, 0, 2.91833, -54.1862, 2.88738, -176.01, 2.9063, 62.6867, 0.161543, -174.733
0, 480.00000, 118.302, -31.1143, 124.703, -152.951, 117.847, 85.7417, 0, 0, 2.91832, -54.1877, 2.88659, -176.024, 2.90597, 62.6677, 0.162907, -174.79
0, 540.00000, 118.301, -31.1155, 124.733, -152.963, 117.837, 85.7245, 0, 0, 2.91831, -54.189, 2.88589, -176.036, 2.90567, 62.6505, 0.164133, -174.841
0, 600.00000, 118.301, -31.1167, 124.76, -152.974, 117.827, 85.709, 0, 0, 2.9183, -54.1902, 2.88526, -176.047, 2.9054, 62.6351, 0.165236, -174.886
0, 660.00000, 118.301, -31.1178, 124.785, -152.984, 117.819, 85.6951, 0, 0, 2.91829, -54.1913, 2.88469, -176.057, 2.90516, 62.6211, 0.166228, -174.927
0, 720.00000, 118.301, -31.1187, 124.807, -152.992, 117.811, 85.6826, 0, 0, 2.91828, -54.1923, 2.88418, -176.066, 2.90494, 62.6086, 0.16712, -174.963
0, 780.00000, 118.3, -31.1195, 124.826, -153, 117.804, 85.6713, 0, 0, 2.91827, -54.1932, 2.88372, -176.074, 2.90475, 62.5973, 0.167922, -174.995
0, 840.00000, 118.3, -31.1203, 124.844, -153.008, 117.798, 85.6612, 0, 0, 2.91827, -54.194, 2.88331, -176.081, 2.90457, 62.5872, 0.168644, -175.024
0, 900.00000, 118.3, -31.121, 124.86, -153.014, 117.792, 85.652, 0, 0, 2.91826, -54.1947, 2.88293, -176.087, 2.90441, 62.5781, 0.169293, -175.049
0, 960.00000, 118.021, -31.139, 124.569, -153.038, 117.528, 85.6214, 0, 0, 3.36292, -54.2127, 3.33869, -176.111, 3.34736, 62.5474, 0.179454, -174.885
0, 1020.00000, 118.021, -31.1395, 124.582, -153.043, 117.523, 85.614, 0, 0, 3.36291, -54.2133, 3.33835, -176.116, 3.34721, 62.54, 0.18006, -174.907
0, 1080.00000, 118.021, -31.14, 124.594, -153.048, 117.519, 85.6073, 0, 0, 3.36291, -54.2138, 3.33803, -176.121, 3.34708, 62.5333, 0.180606, -174.928
0, 1140.00000, 118.021, -31.1405, 124.604, -153.052, 117.516, 85.6013, 0, 0, 3.3629, -54.2143, 3.33775, -176.125, 3.34695, 62.5274, 0.181098, -174.946
0, 1200.00000, 118.021, -31.1409, 124.614, -153.056, 117.512, 85.5959, 0, 0, 3.3629, -54.2147, 3.33749, -176.129, 3.34685, 62.522, 0.18154, -174.963
0, 1260.00000, 118.02, -31.1413, 124.622, -153.059, 117.509, 85.5911, 0, 0, 3.3629, -54.2151, 3.33726, -176.133, 3.34675, 62.5171, 0.181938, -174.977
0, 1320.00000, 118.02, -31.1416, 124.63, -153.062, 117.507, 85.5867, 0, 0, 3.36289, -54.2154, 3.33706, -176.136, 3.34666, 62.5128, 0.182297, -174.991
0, 1380.00000, 118.02, -31.1419, 124.637, -153.065, 117.504, 85.5828, 0, 0, 3.36289, -54.2157, 3.33687, -176.138, 3.34658, 62.5088, 0.182619, -175.003
0, 1440.00000, 118.02, -31.1422, 124.643, -153.067, 117.502, 85.5792, 0, 0, 3.36289, -54.216, 3.3367, -176.141, 3.34651, 62.5053, 0.182909, -175.013
0, 1500.00000, 118.02, -31.1424, 124.648, -153.07, 117.5, 85.5761, 0, 0, 3.36289, -54.2162, 3.33655, -176.143, 3.34644, 62.5021, 0.18317, -175.023
0, 1560.00000, 118.02, -31.1426, 124.653, -153.072, 117.498, 85.5732, 0, 0, 3.36288, -54.2165, 3.33642, -176.145, 3.34638, 62.4993, 0.183405, -175.032
0, 1620.00000, 118.02, -31.1428, 124.658, -153.073, 117.497, 85.5706, 0, 0, 3.36288, -54.2167, 3.3363, -176.147, 3.34633, 62.4967, 0.183616, -175.039
0, 1680.00000, 118.02, -31.143, 124.662, -153.075, 117.495, 85.5683, 0, 0, 3.36288, -54.2169, 3.33619, -176.149, 3.34628, 62.4944, 0.183806, -175.046
0, 1740.00000, 118.02, -31.1432, 124.666, -153.077, 117.494, 85.5662, 0, 0, 3.36288, -54.217, 3.33609, -176.15, 3.34624, 62.4923, 0.183978, -175.053
0, 1800.00000, 118.02, -31.1433, 124.669, -153.078, 117.493, 85.5643, 0, 0, 3.36288, -54.2172, 3.336, -176.152, 3.3462, 62.4904, 0.184132, -175.058
0, 1860.00000, 118.268, -31.1362, 124.941, -153.074, 117.72, 85.5712, 0, 0, 3.06621, -54.2101, 3.02801, -176.148, 3.05045, 62.4972, 0.181299, -175.232
0, 1920.00000, 118.268, -31.1364, 124.944, -153.075, 117.719, 85.5696, 0, 0, 3.06621, -54.2102, 3.02794, -176.149, 3.05042, 62.4957, 0.181414, -175.236
0, 1980.00000, 118.268, -31.1365, 124.946, -153.076, 117.719, 85.5683, 0, 0, 3.06621, -54.2104, 3.02788, -176.15, 3.0504, 62.4943, 0.181516, -175.24
0, 2040.00000, 118.268, -31.1366, 124.948, -153.077, 117.718, 85.567, 0, 0, 3.06621, -54.2104, 3.02783, -176.151, 3.05038, 62.4931, 0.181608, -175.244
0, 2100.00000, 118.268, -31.1366, 124.95, -153.078, 117.717, 85.5659, 0, 0, 3.06621, -54.2105, 3.02778, -176.151, 3.05036, 62.492, 0.18169, -175.247
0, 2160.00000, 118.268, -31.1367, 124.952, -153.078, 117.716, 85.5649, 0, 0, 3.06621, -54.2106, 3.02774, -176.152, 3.05034, 62.491, 0.181765, -175.249
0, 2220.00000, 118.268, -31.1368, 124.954, -153.079, 117.716, 85.564, 0, 0, 3.06621, -54.2107, 3.0277, -176.153, 3.05032, 62.4901, 0.181832, -175.252
0, 2280.00000, 118.268, -31.1368, 124.955, -153.079, 117.715, 85.5632, 0, 0, 3.06621, -54.2107, 3.02767, -176.153, 3.05031, 62.4893, 0.181892, -175.254
0, 2340.00000, 118.268, -31.1369, 124.956, -153.08, 117.715, 85.5625, 0, 0, 3.06621, -54.2108, 3.02764, -176.154, 3.05029, 62.4885, 0.181946, -175.256
0, 2400.00000, 118.268, -31.137, 124.957, -153.08, 117.715, 85.5618, 0, 0, 3.0662, -54.2109, 3.02761, -176.154, 3.05028, 62.4879, 0.181995, -175.258
0, 2460.00000, 118.268, -31.137, 124.959, -153.081, 117.714, 85.5612, 0, 0, 3.0662, -54.2109, 3.02758, -176.155, 3.05027, 62.4873, 0.182039, -175.259
0, 2520.00000, 118.268, -31.137, 124.959, -153.081, 117.714, 85.5607, 0, 0, 3.0662, -54.2109, 3.02756, -176.155, 3.05026, 62.4868, 0.182078, -175.261
0, 2580.00000, 118.268, -31.1371, 124.96, -153.082, 117.714, 85.5602, 0, 0, 3.0662, -54.211, 3.02754, -176.155, 3.05025, 62.4863, 0.182114, -175.262
0, 2640.00000, 118.268, -31.1371, 124.961, -153.082, 117.713, 85.5598, 0, 0, 3.0662, -54.211, 3.02752, -176.156, 3.05024, 62.4859, 0.182146, -175.263
0, 2700.00000, 118.268, -31.1371, 124.962, -153.082, 117.713, 85.5594, 0, 0, 3.0662, -54.211, 3.02751, -176.156, 3.05023, 62.4855, 0.182175, -175.264
0, 2760.00000, 118.637, -31.1107, 125.367, -153.058, 118.055, 85.5891, 0, 0, 2.98449, -54.1846, 2.92714, -176.132, 2.96824, 62.5152, 0.196487, -175.442
0, 2820.00000, 118.637, -31.1108, 125.368, -153.058, 118.055, 85.5888, 0, 0, 2.98449, -54.1847, 2.92712, -176.132, 2.96823, 62.5148, 0.196512, -175.444
0, 2880.00000, 118.637, -31.1108, 125.368, -153.059, 118.055, 85.5885, 0, 0, 2.98449, -54.1847, 2.92711, -176.132, 2.96822, 62.5146, 0.196532, -175.445
0, 2940.00000, 118.637, -31.1108, 125.369, -153.059, 118.054, 85.5882, 0, 0, 2.98449, -54.1847, 2.9271, -176.133, 2.96822, 62.5143, 0.19655, -175.445
0, 3000.00000, 118.637, -31.1108, 125.369, -153.059, 118.054, 85.588, 0, 0, 2.98449, -54.1847, 2.92709, -176.133, 2.96821, 62.5141, 0.196567, -175.446
0, 3060.00000, 118.637, -31.1108, 125.37, -153.059, 118.054, 85.5878, 0, 0, 2.98449, -54.1847, 2.92708, -176.133, 2.96821, 62.5139, 0.196582, -175.446
0, 3120.00000, 118.637, -31.1108, 125.37, -153.059, 118.054, 85.5876, 0, 0, 2.98449, -54.1848, 2.92707, -176.133, 2.96821, 62.5137, 0.196595, -175.447
0, 3180.00000, 118.637, -31.1109, 125.37, -153.059, 118.054, 85.5874, 0, 0, 2.98449, -54.1848, 2.92706, -176.133, 2.9682, 62.5135, 0.196607, -175.447
0, 3240.00000, 118.637, -31.1109, 125.37, -153.059, 118.054, 85.5873, 0, 0, 2.98449, -54.1848, 2.92706, -176.133, 2.9682, 62.5134, 0.196618, -175.447
0, 3300.00000, 118.637, -31.1109, 125.371, -153.059, 118.054, 85.5872, 0, 0, 2.98449, -54.1848, 2.92705, -176.133, 2.9682, 62.5132, 0.196628, -175.448
0, 3360.00000, 118.637, -31.1109, 125.371, -153.06, 118.054, 85.587, 0, 0, 2.98449, -54.1848, 2.92705, -176.133, 2.9682, 62.5131, 0.196636, -175.448
0, 3420.00000, 118.637, -31.1109, 125.371, -153.06, 118.054, 85.5869, 0, 0, 2.98449, -54.1848, 2.92704, -176.134, 2.96819, 62.513, 0.196644, -175.448
0, 3480.00000, 118.637, -31.1109, 125.371, -153.06, 118.054, 85.5868, 0, 0, 2.98449, -54.1848, 2.92704, -176.134, 2.96819, 62.5129, 0.196651, -175.449
0, 3540.00000, 118.637, -31.1109, 125.371, -153.06, 118.054, 85.5867, 0, 0, 2.98449, -54.1848, 2.92704, -176.134, 2.96819, 62.5128, 0.196658, -175.449
1, 0.00000, 118.637, -31.1109, 125.371, -153.06, 118.054, 85.5867, 0, 0, 2.98449, -54.1848, 2.92703, -176.134, 2.96819, 62.5127, 0.196664, -175.449
1, 60.00000, 118.924, -31.0937, 125.681, -153.044, 118.32, 85.6063, 0, 0, 2.68684, -54.1676, 2.62157, -176.118, 2.67169, 62.5324, 0.190248, -175.559
1, 120.00000, 118.924, -31.0937, 125.682, -153.044, 118.32, 85.6063, 0, 0, 2.68684, -54.1676, 2.62156, -176.118, 2.67168, 62.5323, 0.190253, -175.559
1, 180.00000, 118.924, -31.0937, 125.682, -153.045, 118.32, 85.6062, 0, 0, 2.68684, -54.1676, 2.62156, -176.118, 2.67168, 62.5323, 0.190257, -175.559
1, 240.00000, 118.924, -31.0937, 125.682, -153.045, 118.32, 85.6061, 0, 0, 2.68684, -54.1676, 2.62156, -176.118, 2.67168, 62.5322, 0.19026, -175.56
1, 300.00000, 118.924, -31.0937, 125.682, -153.045, 118.32, 85.6061, 0, 0, 2.68684, -54.1676, 2.62156, -176.119, 2.67168, 62.5322, 0.190263, -175.56
1, 360.00000, 118.924, -31.0937, 125.682, -153.045, 118.32, 85.6061, 0, 0, 2.68684, -54.1676, 2.62156, -176.119, 2.67168, 62.5321, 0.190266, -175.56
1, 420.00000, 118.924, -31.0937, 125.682, -153.045, 118.32, 85.606, 0, 0, 2.68684, -54.1676, 2.62155, -176.119, 2.67168, 62.5321, 0.190268, -175.56
1, 480.00000, 118.924, -31.0937, 125.682, -153.045, 118.32, 85.606, 0, 0, 2.68684, -54.1676, 2.62155, -176.119, 2.67168, 62.5321, 0.190271, -175.56
1, 540.00000, 118.924, -31.0937, 125.682, -153.045, 118.32, 85.606, 0, 0, 2.68684, -54.1676, 2.62155, -176.119, 2.67168, 62.532, 0.190273, -175.56
1, 600.00000, 118.924, -31.0937, 125.682, -153.045, 118.32, 85.6059, 0, 0, 2.68684, -54.1676, 2.62155, -176.119, 2.67168, 62.532, 0.190275, -175.56
1, 660.00000, 118.924, -31.0937, 125.682, -153.045, 118.32, 85.6059, 0, 0, 2.68684, -54.1676, 2.62155, -176.119, 2.67168, 62.532, 0.190276, -175.56
1, 720.00000, 118.924, -31.0937, 125.682, -153.045, 118.32, 85.6059, 0, 0, 2.68684, -54.1676, 2.62155, -176.119, 2.67168, 62.532, 0.190278, -175.56
1, 780.00000, 118.924, -31.0937, 125.682, -153.045, 118.32, 85.6059, 0, 0, 2.68684, -54.1676, 2.62155, -176.119, 2.67168, 62.5319, 0.190279, -175.56
1, 840.00000, 118.924, -31.0937, 125.682, -153.045, 118.32, 85.6058, 0, 0, 2.68684, -54.1676, 2.62155, -176.119, 2.67168, 62.5319, 0.19028, -175.56
1, 900.00000, 118.924, -31.0937, 125.682, -153.045, 118.32, 85.6058, 0, 0, 2.68684, -54.1676, 2.62155, -176.119, 2.67168, 62.5319, 0.190281, -175.56
1, 960.00000, 118.962, -31.0906, 125.723, -153.043, 118.354, 85.6083, 0, 0, 2.8034, -54.1645, 2.73342, -176.117, 2.78749, 62.5344, 0.200371, -175.574
1, 1020.00000, 118.962, -31.0906, 125.723, -153.043, 118.354, 85.6083, 0, 0, 2.8034, -54.1645, 2.73342, -176.117, 2.78749, 62.5344, 0.200374, -175.575
1, 1080.00000, 118.962, -31.0906, 125.723, -153.043, 118.354, 85.6083, 0, 0, 2.8034, -54.1645, 2.73342, -176.117, 2.78749, 62.5343, 0.200375, -175.575
1, 1140.00000, 118.962, -31.0906, 125.723, -153.043, 118.354, 85.6082, 0, 0, 2.8034, -54.1645, 2.73342, -176.117, 2.78749, 62.5343, 0.200375, -175.575
1, 1200.00000, 118.962, -31.0906, 125.723, -153.043, 118.354, 85.6082, 0, 0, 2.8034, -54.1645, 2.73342, -176.117, 2.78749, 62.5343, 0.200376, -175.575
1, 1260.00000, 118.962, -31.0906, 125.723, -153.043, 118.354, 85.6082, 0, 0, 2.8034, -54.1645, 2.73341, -176.117, 2.78749, 62.5343, 0.200377, -175.575
1, 1320.00000, 118.962, -31.0906, 125.723, -153.043, 118.354, 85.6082, 0, 0, 2.8034, -54.1645, 2.73341, -176.117, 2.78749, 62.5343, 0.200377, -175.575
1, 1380.00000, 118.962, -31.0906, 125.723, -153.043, 118.354, 85.6082, 0, 0, 2.8034, -54.1645, 2.73341, -176.117, 2.78749, 62.5343, 0.200378, -175.575
1, 1440.00000, 118.962, -31.0906, 125.723, -153.043, 118.354, 85.6082, 0, 0, 2.8034, -54.1645, 2.73341, -176.117, 2.78749, 62.5343, 0.200378, -175.575
1, 1500.00000, 118.962, -31.0906, 125.723, -153.043, 118.354, 85.6082, 0, 0, 2.8034, -54.1645, 2.73341, -176.117, 2.78749, 62.5343, 0.200378, -175.575
1, 1560.00000, 118.962, -31.0906, 125.723, -153.043, 118.354, 85.6082, 0, 0, 2.8034, -54.1645, 2.73341, -176.117, 2.78749, 62.5343, 0.200379, -175.575
1, 1620.00000, 118.962, -31.0906, 125.723, -153.043, 118.354, 85.6082, 0, 0, 2.8034, -54.1645, 2.73341, -176.117, 2.78749, 62.5343, 0.200379, -175.575
1, 1680.00000, 118.962, -31.0906, 125.723, -153.043, 118.354, 85.6082, 0, 0, 2.8034, -54.1645, 2.73341, -176.117, 2.78749, 62.5343, 0.200379, -175.575
1, 1740.00000, 118.962, -31.0906, 125.723, -153.043, 118.354, 85.6082, 0, 0, 2.8034, -54.1645, 2.73341, -176.117, 2.78749, 62.5343, 0.20038, -175.575
1, 1800.00000, 118.962, -31.0906, 125.723, -153.043, 118.354, 85.6082, 0, 0, 2.8034, -54.1645, 2.73341, -176.117, 2.78749, 62.5343, 0.20038, -175.575
1, 1860.00000, 118.784, -31.1137, 125.525, -153.065, 118.189, 85.5825, 0, 0, 2.58396, -54.1877, 2.52763, -176.139, 2.56958, 62.5086, 0.176759, -175.523
1, 1920.00000, 118.784, -31.1137, 125.525, -153.065, 118.189, 85.5825, 0, 0, 2.58396, -54.1877, 2.52763, -176.139, 2.56958, 62.5086, 0.176758, -175.523
1, 1980.00000, 118.784, -31.1137, 125.525, -153.065, 118.189, 85.5825, 0, 0, 2.58396, -54.1877, 2.52763, -176.139, 2.56958, 62.5086, 0.176758, -175.523
1, 2040.00000, 118.784, -31.1137, 125.525, -153.065, 118.189, 85.5825, 0, 0, 2.58396, -54.1877, 2.52763, -176.139, 2.56958, 62.5086, 0.176758, -175.523
1, 2100.00000, 118.784, -31.1137, 125.525, -153.065, 118.189, 85.5825, 0, 0, 2.58396, -54.1877, 2.52763, -176.139, 2.56958, 62.5086, 0.176758, -175.523
1, 2160.00000, 118.784, -31.1137, 125.525, -153.065, 118.189, 85.5825, 0, 0, 2.58396, -54.1877, 2.52763, -176.139, 2.56958, 62.5086, 0.176759, -175.523
1, 2220.00000, 118.784, -31.1137, 125.525, -153.065, 118.189, 85.5825, 0, 0, 2.58396, -54.1877, 2.52763, -176.139, 2.56958, 62.5086, 0.176759, -175.523
1, 2280.00000, 118.784, -31.1137, 125.525, -153.065, 118.189, 85.5825, 0, 0, 2.58396, -54.1877, 2.52763, -176.139, 2.56958, 62.5086, 0.176759, -175.523
1, 2340.00000, 118.784, -31.1137, 125.525, -153.065, 118.189, 85.5825, 0, 0, 2.58396, -54.1877, 2.52763, -176.139, 2.56958, 62.5086, 0.176759, -175.523
1, 2400.00000, 118.784, -31.1137, 125.525, -153.065, 118.189, 85.5825, 0, 0, 2.58396, -54.1877, 2.52763, -176.139, 2.56958, 62.5086, 0.176759, -175.523
1, 2460.00000, 118.784, -31.1137, 125.525, -153.065, 118.189, 85.5825, 0, 0, 2.58396, -54.1877, 2.52763, -176.139, 2.56958, 62.5086, 0.176759, -175.523
1, 2520.00000, 118.784, -31.1137, 125.525, -153.065, 118.189, 85.5825, 0, 0, 2.58396, -54.1877, 2.52763, -176.139, 2.56958, 62.5086, 0.176759, -175.523
1, 2580.00000, 118.784, -31.1137, 125.525, -153.065, 118.189, 85.5825, 0, 0, 2.58396, -54.1877, 2.52763, -176.139, 2.56958, 62.5086, 0.176759, -175.523
1, 2640.00000, 118.784, -31.1137, 125.525, -153.065, 118.189, 85.5825, 0, 0, 2.58396, -54.1877, 2.52763, -176.139, 2.56958, 62.5086, 0.176759, -175.523
1, 2700.00000, 118.784, -31.1137, 125.525, -153.065, 118.189, 85.5825, 0, 0, 2.58396, -54.1877, 2.52763, -176.139, 2.56958, 62.5086, 0.176759, -175.523
1, 2760.00000, 119.234, -31.0731, 126.01, -153.029, 118.601, 85.6243, 0, 0, 2.95307, -54.147, 2.86554, -176.103, 2.93567, 62.5504, 0.224609, -175.683
1, 2820.00000, 119.234, -31.0731, 126.01, -153.029, 118.601, 85.6243, 0, 0, 2.95307, -54.147, 2.86554, -176.103, 2.93567, 62.5504, 0.22461, -175.683
1, 2880.00000, 119.234, -31.0731, 126.01, -153.029, 118.601, 85.6243, 0, 0, 2.95307, -54.147, 2.86554, -176.103, 2.93567, 62.5504, 0.22461, -175.683
1, 2940.00000, 119.234, -31.0731, 126.01, -153.029, 118.601, 85.6243, 0, 0, 2.95307, -54.147, 2.86554, -176.103, 2.93567, 62.5504, 0.22461, -175.683
1, 3000.00000, 119.234, -31.0731, 126.01, -153.029, 118.601, 85.6243, 0, 0, 2.95307, -54.147, 2.86554, -176.103, 2.93567, 62.5504, 0.22461, -175.683
1, 3060.00000, 119.234, -31.0731, 126.01, -153.029, 118.601, 85.6243, 0, 0, 2.95307, -54.147, 2.86554, -176.103, 2.93567, 62.5504, 0.22461, -175.683
1, 3120.00000, 119.234, -31.0731, 126.01, -153.029, 118.601, 85.6243, 0, 0, 2.95307, -54.147, 2.86554, -176.103, 2.93567, 62.5504, 0.22461, -175.683
1, 3180.00000, 119.234, -31.0731, 126.01, -153.029, 118.601, 85.6243, 0, 0, 2.95307, -54.147, 2.86554, -176.103, 2.93567, 62.5504, 0.22461, -175.683
1, 3240.00000, 119.234, -31.0731, 126.01, -153.029, 118.601, 85.6243, 0, 0, 2.95307, -54.147, 2.86554, -176.103, 2.93567, 62.5504, 0.22461, -175.683
1, 3300.00000, 119.234, -31.0731, 126.01, -153.029, 118.601, 85.6243, 0, 0, 2.95307, -54.147, 2.86554, -176.103, 2.93567, 62.5504, 0.22461, -175.683
1, 3360.00000, 119.234, -31.0731, 126.01, -153.029, 118.601, 85.6243, 0, 0, 2.95307, -54.147, 2.86554, -176.103, 2.93567, 62.5504, 0.22461, -175.683
1, 3420.00000, 119.234, -31.0731, 126.01, -153.029, 118.601, 85.6243, 0, 0, 2.95307, -54.147, 2.86554, -176.103, 2.93567, 62.5504, 0.22461, -175.683
1, 3480.00000, 119.234, -31.0731, 126.01, -153.029, 118.601, 85.6243, 0, 0, 2.95307, -54.147, 2.86554, -176.103, 2.93567, 62.5504, 0.22461, -175.683
1, 3540.00000, 119.234, -31.0731, 126.01, -153.029, 118.601, 85.6243, 0, 0, 2.95307, -54.147, 2.86554, -176.103, 2.93567, 62.5504, 0.22461, -175.683
2, 0.00000, 119.234, -31.0731, 126.01, -153.029, 118.601, 85.6243, 0, 0, 2.95307, -54.147, 2.86554, -176.103, 2.93567, 62.5504, 0.22461, -175.683
2, 60.00000, 118.964, -31.0984, 125.721, -153.053, 118.354, 85.5974, 0, 0, 2.91267, -54.1724, 2.83996, -176.127, 2.8961, 62.5234, 0.208291, -175.584
2, 120.00000, 118.964, -31.0984, 125.721, -153.053, 118.354, 85.5974, 0, 0, 2.91267, -54.1723, 2.83997, -176.127, 2.8961, 62.5234, 0.20829, -175.584
2, 180.00000, 118.964, -31.0984, 125.721, -153.053, 118.354, 85.5974, 0, 0, 2.91267, -54.1723, 2.83997, -176.127, 2.8961, 62.5234, 0.20829, -175.584
2, 240.00000, 118.964, -31.0984, 125.721, -153.053, 118.354, 85.5974, 0, 0, 2.91267, -54.1723, 2.83997, -176.127, 2.8961, 62.5234, 0.20829, -175.584
2, 300.00000, 118.964, -31.0984, 125.721, -153.053, 118.354, 85.5974, 0, 0, 2.91267, -54.1723, 2.83997, -176.127, 2.8961, 62.5234, 0.20829, -175.584
2, 360.00000, 118.964, -31.0984, 125.721, -153.053, 118.354, 85.5974, 0, 0, 2.91267, -54.1723, 2.83997, -176.127, 2.8961, 62.5234, 0.20829, -175.584
2, 420.00000, 118.964, -31.0984, 125.721, -153.053, 118.354, 85.5974, 0, 0, 2.91267, -54.1723, 2.83997, -176.127, 2.8961, 62.5234, 0.20829, -175.584
2, 480.00000, 118.964, -31.0984, 125.721, -153.053, 118.354, 85.5974, 0, 0, 2.91267, -54.1723, 2.83997, -176.127, 2.8961, 62.5234, 0.20829, -175.584
2, 540.00000, 118.964, -31.0984, 125.721, -153.053, 118.354, 85.5974, 0, 0, 2.91267, -54.1723, 2.83997, -176.127, 2.8961, 62.5234, 0.20829, -175.584
2, 600.00000, 118.964, -31.0984, 125.721, -153.053, 118.354, 85.5974, 0, 0, 2.91267, -54.1723, 2.83997, -176.127, 2.8961, 62.5234, 0.20829, -175.584
2, 660.00000, 118.964, -31.0984, 125.721, -153.053, 118.354, 85.5974, 0, 0, 2.91267, -54.1723, 2.83997, -176.127, 2.8961, 62.5234, 0.20829, -175.584
2, 720.00000, 118.964, -31.0984, 125.721, -153.053, 118.354, 85.5974, 0, 0, 2.91267, -54.1723, 2.83997, -176.127, 2.8961, 62.5234, 0.20829, -175.584
