hour,t(sec),"P1 (kW)","Q1 (kvar)","P2 (kW)","Q2 (kvar)","P3 (kW)","Q3 (kvar)","P4 (kW)","Q4 (kvar)"
0, 60.00000, 0.508622, 0.216671, 0.515434, 0.219573, 0.51162, 0.217946, 0, 0
0, 120.00000, 0.508618, 0.216671, 0.515431, 0.219573, 0.511613, 0.217946, 0, 0
0, 180.00000, 0.508618, 0.216671, 0.515431, 0.219573, 0.511613, 0.217946, 0, 0
0, 240.00000, 0.508618, 0.216671, 0.515431, 0.219573, 0.511613, 0.217946, 0, 0
0, 300.00000, 0.508618, 0.216671, 0.515431, 0.219573, 0.511613, 0.217946, 0, 0
0, 360.00000, 0.508618, 0.216671, 0.515431, 0.219573, 0.511613, 0.217946, 0, 0
0, 420.00000, 0.508618, 0.216671, 0.515431, 0.219573, 0.511613, 0.217946, 0, 0
0, 480.00000, 0.495582, 0.211118, 0.501975, 0.213842, 0.497957, 0.212134, 0, 0
0, 540.00000, 0.495586, 0.211119, 0.501981, 0.213843, 0.497963, 0.212131, 0, 0
0, 600.00000, 0.495586, 0.211119, 0.501981, 0.213843, 0.497963, 0.212131, 0, 0
0, 660.00000, 0.495586, 0.211119, 0.501981, 0.213843, 0.497963, 0.212131, 0, 0
0, 720.00000, 0.495586, 0.211119, 0.501981, 0.213843, 0.497963, 0.212131, 0, 0
0, 780.00000, 0.495586, 0.211119, 0.501981, 0.213843, 0.497963, 0.212131, 0, 0
0, 840.00000, 0.495586, 0.211119, 0.501981, 0.213843, 0.497963, 0.212131, 0, 0
0, 900.00000, 0.495586, 0.211119, 0.501981, 0.213843, 0.497963, 0.212131, 0, 0
0, 960.00000, 0.482628, 0.205599, 0.501922, 0.213818, 0.486256, 0.207142, 0, 0
0, 1020.00000, 0.482624, 0.205597, 0.501923, 0.213818, 0.486251, 0.207142, 0, 0
0, 1080.00000, 0.482624, 0.205597, 0.501923, 0.213818, 0.486251, 0.207142, 0, 0
0, 1140.00000, 0.482624, 0.205597, 0.501923, 0.213818, 0.486251, 0.207142, 0, 0
0, 1200.00000, 0.482624, 0.205597, 0.501923, 0.213818, 0.486251, 0.207142, 0, 0
0, 1260.00000, 0.482624, 0.205597, 0.501923, 0.213818, 0.486251, 0.207142, 0, 0
0, 1320.00000, 0.482624, 0.205597, 0.501923, 0.213818, 0.486251, 0.207142, 0, 0
0, 1380.00000, 0.482624, 0.205597, 0.501923, 0.213818, 0.486251, 0.207142, 0, 0
0, 1440.00000, 0.482624, 0.205597, 0.501923, 0.213818, 0.486251, 0.207142, 0, 0
0, 1500.00000, 0.482624, 0.205597, 0.501923, 0.213818, 0.486251, 0.207142, 0, 0
0, 1560.00000, 0.482624, 0.205597, 0.501923, 0.213818, 0.486251, 0.207142, 0, 0
0, 1620.00000, 0.482624, 0.205597, 0.501923, 0.213818, 0.486251, 0.207142, 0, 0
0, 1680.00000, 0.482624, 0.205597, 0.501923, 0.213818, 0.486251, 0.207142, 0, 0
0, 1740.00000, 0.482624, 0.205597, 0.501923, 0.213818, 0.486251, 0.207142, 0, 0
0, 1800.00000, 0.474639, 0.202196, 0.501995, 0.213849, 0.479726, 0.204358, 0, 0
0, 1860.00000, 0.474634, 0.202193, 0.501996, 0.213849, 0.47972, 0.20436, 0, 0
0, 1920.00000, 0.474634, 0.202193, 0.501996, 0.213849, 0.47972, 0.20436, 0, 0
0, 1980.00000, 0.474634, 0.202193, 0.501996, 0.213849, 0.47972, 0.20436, 0, 0
0, 2040.00000, 0.474634, 0.202193, 0.501996, 0.213849, 0.47972, 0.20436, 0, 0
0, 2100.00000, 0.474634, 0.202193, 0.501996, 0.213849, 0.47972, 0.20436, 0, 0
0, 2160.00000, 0.474634, 0.202193, 0.501996, 0.213849, 0.47972, 0.20436, 0, 0
0, 2220.00000, 0.474634, 0.202193, 0.501996, 0.213849, 0.47972, 0.20436, 0, 0
0, 2280.00000, 0.474634, 0.202193, 0.501996, 0.213849, 0.47972, 0.20436, 0, 0
0, 2340.00000, 0.474634, 0.202193, 0.501996, 0.213849, 0.47972, 0.20436, 0, 0
0, 2400.00000, 0.474634, 0.202193, 0.501996, 0.213849, 0.47972, 0.20436, 0, 0
0, 2460.00000, 0.474634, 0.202193, 0.501996, 0.213849, 0.47972, 0.20436, 0, 0
0, 2520.00000, 0.474634, 0.202193, 0.501996, 0.213849, 0.47972, 0.20436, 0, 0
0, 2580.00000, 0.474634, 0.202193, 0.501996, 0.213849, 0.47972, 0.20436, 0, 0
0, 2640.00000, 0.474634, 0.202193, 0.501996, 0.213849, 0.47972, 0.20436, 0, 0
0, 2700.00000, 0.474634, 0.202193, 0.501996, 0.213849, 0.47972, 0.20436, 0, 0
0, 2760.00000, 0.477705, 0.203504, 0.501994, 0.213848, 0.481074, 0.20494, 0, 0
0, 2820.00000, 0.477709, 0.203503, 0.501993, 0.213848, 0.481079, 0.204939, 0, 0
0, 2880.00000, 0.477709, 0.203503, 0.501993, 0.213848, 0.481079, 0.204939, 0, 0
0, 2940.00000, 0.477709, 0.203503, 0.501993, 0.213848, 0.481079, 0.204939, 0, 0
0, 3000.00000, 0.477709, 0.203503, 0.501993, 0.213848, 0.481079, 0.204939, 0, 0
0, 3060.00000, 0.477709, 0.203503, 0.501993, 0.213848, 0.481079, 0.204939, 0, 0
0, 3120.00000, 0.477709, 0.203503, 0.501993, 0.213848, 0.481079, 0.204939, 0, 0
0, 3180.00000, 0.477709, 0.203503, 0.501993, 0.213848, 0.481079, 0.204939, 0, 0
0, 3240.00000, 0.477709, 0.203503, 0.501993, 0.213848, 0.481079, 0.204939, 0, 0
0, 3300.00000, 0.477709, 0.203503, 0.501993, 0.213848, 0.481079, 0.204939, 0, 0
0, 3360.00000, 0.477709, 0.203503, 0.501993, 0.213848, 0.481079, 0.204939, 0, 0
0, 3420.00000, 0.477709, 0.203503, 0.501993, 0.213848, 0.481079, 0.204939, 0, 0
0, 3480.00000, 0.477709, 0.203503, 0.501993, 0.213848, 0.481079, 0.204939, 0, 0
0, 3540.00000, 0.477709, 0.203503, 0.501993, 0.213848, 0.481079, 0.204939, 0, 0
1, 0.00000, 0.477709, 0.203503, 0.501993, 0.213848, 0.481079, 0.204939, 0, 0
1, 60.00000, 0.480314, 0.204615, 0.502002, 0.213852, 0.48202, 0.205341, 0, 0
1, 120.00000, 0.480317, 0.204614, 0.502002, 0.213852, 0.482023, 0.205341, 0, 0
1, 180.00000, 0.480317, 0.204614, 0.502002, 0.213852, 0.482023, 0.205341, 0, 0
1, 240.00000, 0.480317, 0.204614, 0.502002, 0.213852, 0.482023, 0.205341, 0, 0
1, 300.00000, 0.480317, 0.204614, 0.502002, 0.213852, 0.482023, 0.205341, 0, 0
1, 360.00000, 0.480317, 0.204614, 0.502002, 0.213852, 0.482023, 0.205341, 0, 0
1, 420.00000, 0.480317, 0.204614, 0.502002, 0.213852, 0.482023, 0.205341, 0, 0
1, 480.00000, 0.480317, 0.204614, 0.502002, 0.213852, 0.482023, 0.205341, 0, 0
1, 540.00000, 0.480317, 0.204614, 0.502002, 0.213852, 0.482023, 0.205341, 0, 0
1, 600.00000, 0.480317, 0.204614, 0.502002, 0.213852, 0.482023, 0.205341, 0, 0
1, 660.00000, 0.480317, 0.204614, 0.502002, 0.213852, 0.482023, 0.205341, 0, 0
1, 720.00000, 0.480317, 0.204614, 0.502002, 0.213852, 0.482023, 0.205341, 0, 0
1, 780.00000, 0.484786, 0.206519, 0.502038, 0.213867, 0.484553, 0.20642, 0, 0
1, 840.00000, 0.484791, 0.20652, 0.502037, 0.213867, 0.484555, 0.206419, 0, 0
1, 900.00000, 0.484791, 0.20652, 0.502037, 0.213867, 0.484555, 0.206419, 0, 0
1, 960.00000, 0.484791, 0.20652, 0.502037, 0.213867, 0.484555, 0.206419, 0, 0
1, 1020.00000, 0.484791, 0.20652, 0.502037, 0.213867, 0.484555, 0.206419, 0, 0
1, 1080.00000, 0.484791, 0.20652, 0.502037, 0.213867, 0.484555, 0.206419, 0, 0
1, 1140.00000, 0.484791, 0.20652, 0.502037, 0.213867, 0.484555, 0.206419, 0, 0
1, 1200.00000, 0.484791, 0.20652, 0.502037, 0.213867, 0.484555, 0.206419, 0, 0
1, 1260.00000, 0.484791, 0.20652, 0.502037, 0.213867, 0.484555, 0.206419, 0, 0
1, 1320.00000, 0.484791, 0.20652, 0.502037, 0.213867, 0.484555, 0.206419, 0, 0
1, 1380.00000, 0.484791, 0.20652, 0.502037, 0.213867, 0.484555, 0.206419, 0, 0
1, 1440.00000, 0.484791, 0.20652, 0.502037, 0.213867, 0.484555, 0.206419, 0, 0
1, 1500.00000, 0.484791, 0.20652, 0.502037, 0.213867, 0.484555, 0.206419, 0, 0
1, 1560.00000, 0.484791, 0.20652, 0.502037, 0.213867, 0.484555, 0.206419, 0, 0
1, 1620.00000, 0.484791, 0.20652, 0.502037, 0.213867, 0.484555, 0.206419, 0, 0
1, 1680.00000, 0.484791, 0.20652, 0.502037, 0.213867, 0.484555, 0.206419, 0, 0
1, 1740.00000, 0.484791, 0.20652, 0.502037, 0.213867, 0.484555, 0.206419, 0, 0
1, 1800.00000, 0.484791, 0.20652, 0.502037, 0.213867, 0.484555, 0.206419, 0, 0
1, 1860.00000, 0.484791, 0.20652, 0.502037, 0.213867, 0.484555, 0.206419, 0, 0
1, 1920.00000, 0.484791, 0.20652, 0.502037, 0.213867, 0.484555, 0.206419, 0, 0
1, 1980.00000, 0.484791, 0.20652, 0.502037, 0.213867, 0.484555, 0.206419, 0, 0
1, 2040.00000, 0.484791, 0.20652, 0.502037, 0.213867, 0.484555, 0.206419, 0, 0
1, 2100.00000, 0.484791, 0.20652, 0.502037, 0.213867, 0.484555, 0.206419, 0, 0
1, 2160.00000, 0.484791, 0.20652, 0.502037, 0.213867, 0.484555, 0.206419, 0, 0
1, 2220.00000, 0.493096, 0.210059, 0.501952, 0.213831, 0.491188, 0.209246, 0, 0
1, 2280.00000, 0.493101, 0.21006, 0.501951, 0.21383, 0.49119, 0.209246, 0, 0
1, 2340.00000, 0.493101, 0.21006, 0.501951, 0.21383, 0.49119, 0.209246, 0, 0
1, 2400.00000, 0.493101, 0.21006, 0.501951, 0.21383, 0.49119, 0.209246, 0, 0
1, 2460.00000, 0.493101, 0.21006, 0.501951, 0.21383, 0.49119, 0.209246, 0, 0
1, 2520.00000, 0.493101, 0.21006, 0.501951, 0.21383, 0.49119, 0.209246, 0, 0
1, 2580.00000, 0.493101, 0.21006, 0.501951, 0.21383, 0.49119, 0.209246, 0, 0
1, 2640.00000, 0.493101, 0.21006, 0.501951, 0.21383, 0.49119, 0.209246, 0, 0
1, 2700.00000, 0.493101, 0.21006, 0.501951, 0.21383, 0.49119, 0.209246, 0, 0
1, 2760.00000, 0.493101, 0.21006, 0.501951, 0.21383, 0.49119, 0.209246, 0, 0
1, 2820.00000, 0.493101, 0.21006, 0.501951, 0.21383, 0.49119, 0.209246, 0, 0
1, 2880.00000, 0.493101, 0.21006, 0.501951, 0.21383, 0.49119, 0.209246, 0, 0
1, 2940.00000, 0.493101, 0.21006, 0.501951, 0.21383, 0.49119, 0.209246, 0, 0
1, 3000.00000, 0.493101, 0.21006, 0.501951, 0.21383, 0.49119, 0.209246, 0, 0
1, 3060.00000, 0.493101, 0.21006, 0.501951, 0.21383, 0.49119, 0.209246, 0, 0
1, 3120.00000, 0.493101, 0.21006, 0.501951, 0.21383, 0.49119, 0.209246, 0, 0
1, 3180.00000, 0.493101, 0.21006, 0.501951, 0.21383, 0.49119, 0.209246, 0, 0
1, 3240.00000, 0.493101, 0.21006, 0.501951, 0.21383, 0.49119, 0.209246, 0, 0
1, 3300.00000, 0.493101, 0.21006, 0.501951, 0.21383, 0.49119, 0.209246, 0, 0
1, 3360.00000, 0.493101, 0.21006, 0.501951, 0.21383, 0.49119, 0.209246, 0, 0
1, 3420.00000, 0.493101, 0.21006, 0.501951, 0.21383, 0.49119, 0.209246, 0, 0
1, 3480.00000, 0.493101, 0.21006, 0.501951, 0.21383, 0.49119, 0.209246, 0, 0
1, 3540.00000, 0.493101, 0.21006, 0.501951, 0.21383, 0.49119, 0.209246, 0, 0
2, 0.00000, 0.493101, 0.21006, 0.501951, 0.21383, 0.49119, 0.209246, 0, 0
2, 60.00000, 0.493101, 0.21006, 0.501951, 0.21383, 0.49119, 0.209246, 0, 0
2, 120.00000, 0.493101, 0.21006, 0.501951, 0.21383, 0.49119, 0.209246, 0, 0
2, 180.00000, 0.493101, 0.21006, 0.501951, 0.21383, 0.49119, 0.209246, 0, 0
2, 240.00000, 0.493101, 0.21006, 0.501951, 0.21383, 0.49119, 0.209246, 0, 0
2, 300.00000, 0.493101, 0.21006, 0.501951, 0.21383, 0.49119, 0.209246, 0, 0
2, 360.00000, 0.493101, 0.21006, 0.501951, 0.21383, 0.49119, 0.209246, 0, 0
2, 420.00000, 0.493101, 0.21006, 0.501951, 0.21383, 0.49119, 0.209246, 0, 0
2, 480.00000, 0.493101, 0.21006, 0.501951, 0.21383, 0.49119, 0.209246, 0, 0
2, 540.00000, 0.493101, 0.21006, 0.501951, 0.21383, 0.49119, 0.209246, 0, 0
2, 600.00000, 0.493101, 0.21006, 0.501951, 0.21383, 0.49119, 0.209246, 0, 0
2, 660.00000, 0.493101, 0.21006, 0.501951, 0.21383, 0.49119, 0.209246, 0, 0
2, 720.00000, 0.493101, 0.21006, 0.501951, 0.21383, 0.49119, 0.209246, 0, 0
2, 780.00000, 0.493101, 0.21006, 0.501951, 0.21383, 0.49119, 0.209246, 0, 0
2, 840.00000, 0.506468, 0.215757, 0.502004, 0.213853, 0.503096, 0.214319, 0, 0
2, 900.00000, 0.506473, 0.215757, 0.502004, 0.213853, 0.503097, 0.214318, 0, 0
2, 960.00000, 0.506473, 0.215757, 0.502004, 0.213853, 0.503097, 0.214318, 0, 0
2, 1020.00000, 0.506473, 0.215757, 0.502004, 0.213853, 0.503097, 0.214318, 0, 0
2, 1080.00000, 0.506473, 0.215757, 0.502004, 0.213853, 0.503097, 0.214318, 0, 0
2, 1140.00000, 0.506473, 0.215757, 0.502004, 0.213853, 0.503097, 0.214318, 0, 0
2, 1200.00000, 0.506473, 0.215757, 0.502004, 0.213853, 0.503097, 0.214318, 0, 0
2, 1260.00000, 0.506473, 0.215757, 0.502004, 0.213853, 0.503097, 0.214318, 0, 0
2, 1320.00000, 0.506473, 0.215757, 0.502004, 0.213853, 0.503097, 0.214318, 0, 0
2, 1380.00000, 0.506473, 0.215757, 0.502004, 0.213853, 0.503097, 0.214318, 0, 0
2, 1440.00000, 0.506473, 0.215757, 0.502004, 0.213853, 0.503097, 0.214318, 0, 0
2, 1500.00000, 0.506473, 0.215757, 0.502004, 0.213853, 0.503097, 0.214318, 0, 0
2, 1560.00000, 0.506473, 0.215757, 0.502004, 0.213853, 0.503097, 0.214318, 0, 0
2, 1620.00000, 0.506473, 0.215757, 0.502004, 0.213853, 0.503097, 0.214318, 0, 0
2, 1680.00000, 0.506473, 0.215757, 0.502004, 0.213853, 0.503097, 0.214318, 0, 0
2, 1740.00000, 0.506473, 0.215757, 0.502004, 0.213853, 0.503097, 0.214318, 0, 0
2, 1800.00000, 0.506473, 0.215757, 0.502004, 0.213853, 0.503097, 0.214318, 0, 0
2, 1860.00000, 0.506473, 0.215757, 0.502004, 0.213853, 0.503097, 0.214318, 0, 0
2, 1920.00000, 0.506473, 0.215757, 0.502004, 0.213853, 0.503097, 0.214318, 0, 0
2, 1980.00000, 0.506473, 0.215757, 0.502004, 0.213853, 0.503097, 0.214318, 0, 0
2, 2040.00000, 0.506473, 0.215757, 0.502004, 0.213853, 0.503097, 0.214318, 0, 0
2, 2100.00000, 0.506473, 0.215757, 0.502004, 0.213853, 0.503097, 0.214318, 0, 0
2, 2160.00000, 0.506473, 0.215757, 0.502004, 0.213853, 0.503097, 0.214318, 0, 0
2, 2220.00000, 0.506473, 0.215757, 0.502004, 0.213853, 0.503097, 0.214318, 0, 0
2, 2280.00000, 0.506473, 0.215757, 0.502004, 0.213853, 0.503097, 0.214318, 0, 0
2, 2340.00000, 0.506473, 0.215757, 0.502004, 0.213853, 0.503097, 0.214318, 0, 0
2, 2400.00000, 0.511507, 0.217907, 0.502022, 0.213861, 0.505957, 0.21554, 0, 0
2, 2460.00000, 0.511524, 0.217908, 0.50202, 0.213859, 0.505963, 0.215539, 0, 0
2, 2520.00000, 0.511524, 0.217908, 0.50202, 0.213859, 0.505963, 0.215539, 0, 0
2, 2580.00000, 0.511524, 0.217908, 0.50202, 0.213859, 0.505963, 0.215539, 0, 0
2, 2640.00000, 0.511524, 0.217908, 0.50202, 0.213859, 0.505963, 0.215539, 0, 0
2, 2700.00000, 0.504426, 0.214884, 0.493732, 0.210327, 0.506453, 0.215748, 0, 0
2, 2760.00000, 0.504424, 0.214884, 0.493728, 0.210327, 0.506457, 0.21575, 0, 0
2, 2820.00000, 0.504424, 0.214884, 0.493728, 0.210327, 0.506457, 0.21575, 0, 0
2, 2880.00000, 0.504424, 0.214884, 0.493728, 0.210327, 0.506457, 0.21575, 0, 0
2, 2940.00000, 0.504424, 0.214884, 0.493728, 0.210327, 0.506457, 0.21575, 0, 0
2, 3000.00000, 0.504424, 0.214884, 0.493728, 0.210327, 0.506457, 0.21575, 0, 0
2, 3060.00000, 0.507455, 0.21618, 0.493709, 0.210319, 0.507693, 0.216279, 0, 0
2, 3120.00000, 0.507465, 0.216179, 0.493706, 0.210318, 0.507697, 0.216278, 0, 0
2, 3180.00000, 0.507465, 0.216179, 0.493706, 0.210318, 0.507697, 0.216278, 0, 0
2, 3240.00000, 0.507465, 0.216179, 0.493706, 0.210318, 0.507697, 0.216278, 0, 0
2, 3300.00000, 0.507465, 0.216179, 0.493706, 0.210318, 0.507697, 0.216278, 0, 0
2, 3360.00000, 0.507465, 0.216179, 0.493706, 0.210318, 0.507697, 0.216278, 0, 0
2, 3420.00000, 0.507465, 0.216179, 0.493706, 0.210318, 0.507697, 0.216278, 0, 0
2, 3480.00000, 0.507465, 0.216179, 0.493706, 0.210318, 0.507697, 0.216278, 0, 0
2, 3540.00000, 0.507465, 0.216179, 0.493706, 0.210318, 0.507697, 0.216278, 0, 0
3, 0.00000, 0.507465, 0.216179, 0.493706, 0.210318, 0.507697, 0.216278, 0, 0
3, 60.00000, 0.507465, 0.216179, 0.493706, 0.210318, 0.507697, 0.216278, 0, 0
3, 120.00000, 0.507465, 0.216179, 0.493706, 0.210318, 0.507697, 0.216278, 0, 0
3, 180.00000, 0.507465, 0.216179, 0.493706, 0.210318, 0.507697, 0.216278, 0, 0
3, 240.00000, 0.507465, 0.216179, 0.493706, 0.210318, 0.507697, 0.216278, 0, 0
3, 300.00000, 0.507465, 0.216179, 0.493706, 0.210318, 0.507697, 0.216278, 0, 0
3, 360.00000, 0.507465, 0.216179, 0.493706, 0.210318, 0.507697, 0.216278, 0, 0
3, 420.00000, 0.507465, 0.216179, 0.493706, 0.210318, 0.507697, 0.216278, 0, 0
3, 480.00000, 0.507465, 0.216179, 0.493706, 0.210318, 0.507697, 0.216278, 0, 0
3, 540.00000, 0.507465, 0.216179, 0.493706, 0.210318, 0.507697, 0.216278, 0, 0
3, 600.00000, 0.507465, 0.216179, 0.493706, 0.210318, 0.507697, 0.216278, 0, 0
3, 660.00000, 0.507465, 0.216179, 0.493706, 0.210318, 0.507697, 0.216278, 0, 0
3, 720.00000, 0.507465, 0.216179, 0.493706, 0.210318, 0.507697, 0.216278, 0, 0
3, 780.00000, 0.507465, 0.216179, 0.493706, 0.210318, 0.507697, 0.216278, 0, 0
3, 840.00000, 0.507465, 0.216179, 0.493706, 0.210318, 0.507697, 0.216278, 0, 0
3, 900.00000, 0.507465, 0.216179, 0.493706, 0.210318, 0.507697, 0.216278, 0, 0
3, 960.00000, 0.507465, 0.216179, 0.493706, 0.210318, 0.507697, 0.216278, 0, 0
3, 1020.00000, 0.507465, 0.216179, 0.493706, 0.210318, 0.507697, 0.216278, 0, 0
3, 1080.00000, 0.507465, 0.216179, 0.493706, 0.210318, 0.507697, 0.216278, 0, 0
3, 1140.00000, 0.507465, 0.216179, 0.493706, 0.210318, 0.507697, 0.216278, 0, 0
3, 1200.00000, 0.507465, 0.216179, 0.493706, 0.210318, 0.507697, 0.216278, 0, 0
3, 1260.00000, 0.507465, 0.216179, 0.493706, 0.210318, 0.507697, 0.216278, 0, 0
3, 1320.00000, 0.507465, 0.216179, 0.493706, 0.210318, 0.507697, 0.216278, 0, 0
3, 1380.00000, 0.507465, 0.216179, 0.493706, 0.210318, 0.507697, 0.216278, 0, 0
3, 1440.00000, 0.507465, 0.216179, 0.493706, 0.210318, 0.507697, 0.216278, 0, 0
3, 1500.00000, 0.507465, 0.216179, 0.493706, 0.210318, 0.507697, 0.216278, 0, 0
3, 1560.00000, 0.507465, 0.216179, 0.493706, 0.210318, 0.507697, 0.216278, 0, 0
3, 1620.00000, 0.507465, 0.216179, 0.493706, 0.210318, 0.507697, 0.216278, 0, 0
3, 1680.00000, 0.507465, 0.216179, 0.493706, 0.210318, 0.507697, 0.216278, 0, 0
3, 1740.00000, 0.507465, 0.216179, 0.493706, 0.210318, 0.507697, 0.216278, 0, 0
3, 1800.00000, 0.507465, 0.216179, 0.493706, 0.210318, 0.507697, 0.216278, 0, 0
3, 1860.00000, 0.507465, 0.216179, 0.493706, 0.210318, 0.507697, 0.216278, 0, 0
3, 1920.00000, 0.507465, 0.216179, 0.493706, 0.210318, 0.507697, 0.216278, 0, 0
3, 1980.00000, 0.507465, 0.216179, 0.493706, 0.210318, 0.507697, 0.216278, 0, 0
3, 2040.00000, 0.507465, 0.216179, 0.493706, 0.210318, 0.507697, 0.216278, 0, 0
3, 2100.00000, 0.507465, 0.216179, 0.493706, 0.210318, 0.507697, 0.216278, 0, 0
3, 2160.00000, 0.507465, 0.216179, 0.493706, 0.210318, 0.507697, 0.216278, 0, 0
3, 2220.00000, 0.507465, 0.216179, 0.493706, 0.210318, 0.507697, 0.216278, 0, 0
3, 2280.00000, 0.507465, 0.216179, 0.493706, 0.210318, 0.507697, 0.216278, 0, 0
3, 2340.00000, 0.507465, 0.216179, 0.493706, 0.210318, 0.507697, 0.216278, 0, 0
3, 2400.00000, 0.507465, 0.216179, 0.493706, 0.210318, 0.507697, 0.216278, 0, 0
3, 2460.00000, 0.507465, 0.216179, 0.493706, 0.210318, 0.507697, 0.216278, 0, 0
3, 2520.00000, 0.507465, 0.216179, 0.493706, 0.210318, 0.507697, 0.216278, 0, 0
3, 2580.00000, 0.507465, 0.216179, 0.493706, 0.210318, 0.507697, 0.216278, 0, 0
3, 2640.00000, 0.507465, 0.216179, 0.493706, 0.210318, 0.507697, 0.216278, 0, 0
3, 2700.00000, 0.507465, 0.216179, 0.493706, 0.210318, 0.507697, 0.216278, 0, 0
3, 2760.00000, 0.507465, 0.216179, 0.493706, 0.210318, 0.507697, 0.216278, 0, 0
3, 2820.00000, 0.507465, 0.216179, 0.493706, 0.210318, 0.507697, 0.216278, 0, 0
3, 2880.00000, 0.507465, 0.216179, 0.493706, 0.210318, 0.507697, 0.216278, 0, 0
3, 2940.00000, 0.507465, 0.216179, 0.493706, 0.210318, 0.507697, 0.216278, 0, 0
3, 3000.00000, 0.507465, 0.216179, 0.493706, 0.210318, 0.507697, 0.216278, 0, 0
3, 3060.00000, 0.507465, 0.216179, 0.493706, 0.210318, 0.507697, 0.216278, 0, 0
3, 3120.00000, 0.507465, 0.216179, 0.493706, 0.210318, 0.507697, 0.216278, 0, 0
3, 3180.00000, 0.419049, 0.178513, 0.407748, 0.1737, 0.419294, 0.178617, 0, 0
3, 3240.00000, 0.419047, 0.178513, 0.407747, 0.1737, 0.419291, 0.178617, 0, 0
3, 3300.00000, 0.419047, 0.178513, 0.407747, 0.1737, 0.419291, 0.178617, 0, 0
3, 3360.00000, 0.419047, 0.178513, 0.407747, 0.1737, 0.419291, 0.178617, 0, 0
3, 3420.00000, 0.419047, 0.178513, 0.407747, 0.1737, 0.419291, 0.178617, 0, 0
3, 3480.00000, 0.419047, 0.178513, 0.407747, 0.1737, 0.419291, 0.178617, 0, 0
3, 3540.00000, 0.419047, 0.178513, 0.407747, 0.1737, 0.419291, 0.178617, 0, 0
4, 0.00000, 0.419047, 0.178513, 0.407747, 0.1737, 0.419291, 0.178617, 0, 0
4, 60.00000, 0.419047, 0.178513, 0.407747, 0.1737, 0.419291, 0.178617, 0, 0
4, 120.00000, 0.419047, 0.178513, 0.407747, 0.1737, 0.419291, 0.178617, 0, 0
4, 180.00000, 0.419047, 0.178513, 0.407747, 0.1737, 0.419291, 0.178617, 0, 0
4, 240.00000, 0.419047, 0.178513, 0.407747, 0.1737, 0.419291, 0.178617, 0, 0
4, 300.00000, 0.419047, 0.178513, 0.407747, 0.1737, 0.419291, 0.178617, 0, 0
4, 360.00000, 0.419047, 0.178513, 0.407747, 0.1737, 0.419291, 0.178617, 0, 0
4, 420.00000, 0.419047, 0.178513, 0.407747, 0.1737, 0.419291, 0.178617, 0, 0
4, 480.00000, 0.419047, 0.178513, 0.407747, 0.1737, 0.419291, 0.178617, 0, 0
4, 540.00000, 0.419047, 0.178513, 0.407747, 0.1737, 0.419291, 0.178617, 0, 0
4, 600.00000, 0.419047, 0.178513, 0.407747, 0.1737, 0.419291, 0.178617, 0, 0
4, 660.00000, 0.419047, 0.178513, 0.407747, 0.1737, 0.419291, 0.178617, 0, 0
4, 720.00000, 0.419047, 0.178513, 0.407747, 0.1737, 0.419291, 0.178617, 0, 0
