hour,t(sec),V1,VAngle1,V2,VAngle2,V3,VAngle3,V4,VAngle4,I1,IAngle1,I2,IAngle2,I3,IAngle3,I4,IAngle4
0, 60.00000, 115.545, -31.0971, 117.353, -150.985, 117.275, 88.2482, 0, 0, 1.17393, -54.1709, 1.19439, -174.059, 1.19351, 65.1747, 0.00781347, -92.2882
0, 120.00000, 115.545, -31.0971, 117.353, -150.985, 117.275, 88.2482, 0, 0, 1.17392, -54.171, 1.19438, -174.059, 1.1935, 65.1743, 0.00780224, -92.3072
0, 180.00000, 115.545, -31.0971, 117.353, -150.985, 117.275, 88.2482, 0, 0, 1.17392, -54.171, 1.19438, -174.059, 1.1935, 65.1743, 0.00780218, -92.3073
0, 240.00000, 115.545, -31.0971, 117.353, -150.985, 117.275, 88.2482, 0, 0, 1.17392, -54.171, 1.19438, -174.059, 1.1935, 65.1743, 0.00780218, -92.3073
0, 300.00000, 115.545, -31.0971, 117.353, -150.985, 117.275, 88.2482, 0, 0, 1.17392, -54.171, 1.19438, -174.059, 1.1935, 65.1743, 0.00780218, -92.3073
0, 360.00000, 115.545, -31.0971, 117.353, -150.985, 117.275, 88.2482, 0, 0, 1.17392, -54.171, 1.19438, -174.059, 1.1935, 65.1743, 0.00780218, -92.3073
0, 420.00000, 115.545, -31.0971, 117.353, -150.985, 117.275, 88.2482, 0, 0, 1.17392, -54.171, 1.19438, -174.059, 1.1935, 65.1743, 0.00780218, -92.3073
0, 480.00000, 116.451, -31.0053, 118.25, -150.893, 118.143, 88.3601, 0, 0, 1.32147, -54.0792, 1.34418, -173.967, 1.34283, 65.2856, 0.00838407, -89.6835
0, 540.00000, 116.451, -31.0053, 118.25, -150.893, 118.143, 88.3601, 0, 0, 1.32148, -54.0792, 1.3442, -173.967, 1.34284, 65.2862, 0.00839241, -89.5791
0, 600.00000, 116.451, -31.0053, 118.25, -150.893, 118.143, 88.3601, 0, 0, 1.32148, -54.0792, 1.3442, -173.967, 1.34284, 65.2862, 0.00839244, -89.5789
0, 660.00000, 116.451, -31.0053, 118.25, -150.893, 118.143, 88.3601, 0, 0, 1.32148, -54.0792, 1.3442, -173.967, 1.34284, 65.2862, 0.00839244, -89.5789
0, 720.00000, 116.451, -31.0053, 118.25, -150.893, 118.143, 88.3601, 0, 0, 1.32148, -54.0792, 1.3442, -173.967, 1.34284, 65.2862, 0.00839244, -89.5789
0, 780.00000, 116.451, -31.0053, 118.25, -150.893, 118.143, 88.3601, 0, 0, 1.32148, -54.0792, 1.3442, -173.967, 1.34284, 65.2862, 0.00839244, -89.5789
0, 840.00000, 116.451, -31.0053, 118.25, -150.893, 118.143, 88.3601, 0, 0, 1.32148, -54.0792, 1.3442, -173.967, 1.34284, 65.2862, 0.00839244, -89.5789
0, 900.00000, 116.451, -31.0053, 118.25, -150.893, 118.143, 88.3601, 0, 0, 1.32148, -54.0792, 1.3442, -173.967, 1.34284, 65.2862, 0.00839244, -89.5789
0, 960.00000, 115.524, -30.8306, 118.248, -150.89, 117.383, 88.0513, 0, 0, 1.30979, -53.9045, 1.34417, -173.964, 1.33326, 64.9776, 0.00851016, -82.2445
0, 1020.00000, 115.524, -30.8306, 118.248, -150.89, 117.383, 88.0513, 0, 0, 1.30978, -53.9045, 1.34417, -173.964, 1.33325, 64.9774, 0.00850695, -82.19
0, 1080.00000, 115.524, -30.8306, 118.248, -150.89, 117.383, 88.0513, 0, 0, 1.30978, -53.9045, 1.34417, -173.964, 1.33325, 64.9774, 0.00850693, -82.1898
0, 1140.00000, 115.524, -30.8306, 118.248, -150.89, 117.383, 88.0513, 0, 0, 1.30978, -53.9045, 1.34417, -173.964, 1.33325, 64.9774, 0.00850693, -82.1898
0, 1200.00000, 115.524, -30.8306, 118.248, -150.89, 117.383, 88.0513, 0, 0, 1.30978, -53.9045, 1.34417, -173.964, 1.33325, 64.9774, 0.00850693, -82.1898
0, 1260.00000, 115.524, -30.8306, 118.248, -150.89, 117.383, 88.0513, 0, 0, 1.30978, -53.9045, 1.34417, -173.964, 1.33325, 64.9774, 0.00850693, -82.1898
0, 1320.00000, 115.524, -30.8306, 118.248, -150.89, 117.383, 88.0513, 0, 0, 1.30978, -53.9045, 1.34417, -173.964, 1.33325, 64.9774, 0.00850693, -82.1898
0, 1380.00000, 115.524, -30.8306, 118.248, -150.89, 117.383, 88.0513, 0, 0, 1.30978, -53.9045, 1.34417, -173.964, 1.33325, 64.9774, 0.00850693, -82.1898
0, 1440.00000, 115.524, -30.8306, 118.248, -150.89, 117.383, 88.0513, 0, 0, 1.30978, -53.9045, 1.34417, -173.964, 1.33325, 64.9774, 0.00850693, -82.1898
0, 1500.00000, 115.524, -30.8306, 118.248, -150.89, 117.383, 88.0513, 0, 0, 1.30978, -53.9045, 1.34417, -173.964, 1.33325, 64.9774, 0.00850693, -82.1898
0, 1560.00000, 115.524, -30.8306, 118.248, -150.89, 117.383, 88.0513, 0, 0, 1.30978, -53.9045, 1.34417, -173.964, 1.33325, 64.9774, 0.00850693, -82.1898
0, 1620.00000, 115.524, -30.8306, 118.248, -150.89, 117.383, 88.0513, 0, 0, 1.30978, -53.9045, 1.34417, -173.964, 1.33325, 64.9774, 0.00850693, -82.1898
0, 1680.00000, 115.524, -30.8306, 118.248, -150.89, 117.383, 88.0513, 0, 0, 1.30978, -53.9045, 1.34417, -173.964, 1.33325, 64.9774, 0.00850693, -82.1898
0, 1740.00000, 115.524, -30.8306, 118.248, -150.89, 117.383, 88.0513, 0, 0, 1.30978, -53.9045, 1.34417, -173.964, 1.33325, 64.9774, 0.00850693, -82.1898
0, 1800.00000, 114.905, -30.7574, 118.254, -150.887, 116.941, 87.8253, 0, 0, 1.30196, -53.8313, 1.34425, -173.961, 1.32767, 64.7517, 0.00862643, -75.8456
0, 1860.00000, 114.905, -30.7574, 118.254, -150.887, 116.941, 87.8253, 0, 0, 1.30195, -53.8313, 1.34425, -173.961, 1.32766, 64.7514, 0.00862535, -75.8019
0, 1920.00000, 114.905, -30.7574, 118.254, -150.887, 116.941, 87.8253, 0, 0, 1.30195, -53.8313, 1.34425, -173.961, 1.32766, 64.7514, 0.00862534, -75.8018
0, 1980.00000, 114.905, -30.7574, 118.254, -150.887, 116.941, 87.8253, 0, 0, 1.30195, -53.8313, 1.34425, -173.961, 1.32766, 64.7514, 0.00862534, -75.8018
0, 2040.00000, 114.905, -30.7574, 118.254, -150.887, 116.941, 87.8253, 0, 0, 1.30195, -53.8313, 1.34425, -173.961, 1.32766, 64.7514, 0.00862534, -75.8018
0, 2100.00000, 114.905, -30.7574, 118.254, -150.887, 116.941, 87.8253, 0, 0, 1.30195, -53.8313, 1.34425, -173.961, 1.32766, 64.7514, 0.00862534, -75.8018
0, 2160.00000, 114.905, -30.7574, 118.254, -150.887, 116.941, 87.8253, 0, 0, 1.30195, -53.8313, 1.34425, -173.961, 1.32766, 64.7514, 0.00862534, -75.8018
0, 2220.00000, 114.905, -30.7574, 118.254, -150.887, 116.941, 87.8253, 0, 0, 1.30195, -53.8313, 1.34425, -173.961, 1.32766, 64.7514, 0.00862534, -75.8018
0, 2280.00000, 114.905, -30.7574, 118.254, -150.887, 116.941, 87.8253, 0, 0, 1.30195, -53.8313, 1.34425, -173.961, 1.32766, 64.7514, 0.00862534, -75.8018
0, 2340.00000, 114.905, -30.7574, 118.254, -150.887, 116.941, 87.8253, 0, 0, 1.30195, -53.8313, 1.34425, -173.961, 1.32766, 64.7514, 0.00862534, -75.8018
0, 2400.00000, 114.905, -30.7574, 118.254, -150.887, 116.941, 87.8253, 0, 0, 1.30195, -53.8313, 1.34425, -173.961, 1.32766, 64.7514, 0.00862534, -75.8018
0, 2460.00000, 114.905, -30.7574, 118.254, -150.887, 116.941, 87.8253, 0, 0, 1.30195, -53.8313, 1.34425, -173.961, 1.32766, 64.7514, 0.00862534, -75.8018
0, 2520.00000, 114.905, -30.7574, 118.254, -150.887, 116.941, 87.8253, 0, 0, 1.30195, -53.8313, 1.34425, -173.961, 1.32766, 64.7514, 0.00862534, -75.8018
0, 2580.00000, 114.905, -30.7574, 118.254, -150.887, 116.941, 87.8253, 0, 0, 1.30195, -53.8313, 1.34425, -173.961, 1.32766, 64.7514, 0.00862534, -75.8018
0, 2640.00000, 114.905, -30.7574, 118.254, -150.887, 116.941, 87.8253, 0, 0, 1.30195, -53.8313, 1.34425, -173.961, 1.32766, 64.7514, 0.00862534, -75.8018
0, 2700.00000, 114.905, -30.7574, 118.254, -150.887, 116.941, 87.8253, 0, 0, 1.30195, -53.8313, 1.34425, -173.961, 1.32766, 64.7514, 0.00862534, -75.8018
0, 2760.00000, 115.441, -30.7795, 118.252, -150.888, 117.256, 88.0419, 0, 0, 1.30872, -53.8537, 1.34422, -173.962, 1.33163, 64.9676, 0.00844932, -80.6981
0, 2820.00000, 115.441, -30.7795, 118.252, -150.888, 117.256, 88.0419, 0, 0, 1.30873, -53.8534, 1.34422, -173.962, 1.33165, 64.968, 0.00846177, -80.8212
0, 2880.00000, 115.441, -30.7795, 118.252, -150.888, 117.256, 88.0419, 0, 0, 1.30873, -53.8534, 1.34422, -173.962, 1.33165, 64.968, 0.00846185, -80.8218
0, 2940.00000, 115.441, -30.7795, 118.252, -150.888, 117.256, 88.0419, 0, 0, 1.30873, -53.8534, 1.34422, -173.962, 1.33165, 64.968, 0.00846185, -80.8218
0, 3000.00000, 115.441, -30.7795, 118.252, -150.888, 117.256, 88.0419, 0, 0, 1.30873, -53.8534, 1.34422, -173.962, 1.33165, 64.968, 0.00846185, -80.8218
0, 3060.00000, 115.441, -30.7795, 118.252, -150.888, 117.256, 88.0419, 0, 0, 1.30873, -53.8534, 1.34422, -173.962, 1.33165, 64.968, 0.00846185, -80.8218
0, 3120.00000, 115.441, -30.7795, 118.252, -150.888, 117.256, 88.0419, 0, 0, 1.30873, -53.8534, 1.34422, -173.962, 1.33165, 64.968, 0.00846185, -80.8218
0, 3180.00000, 115.441, -30.7795, 118.252, -150.888, 117.256, 88.0419, 0, 0, 1.30873, -53.8534, 1.34422, -173.962, 1.33165, 64.968, 0.00846185, -80.8218
0, 3240.00000, 115.441, -30.7795, 118.252, -150.888, 117.256, 88.0419, 0, 0, 1.30873, -53.8534, 1.34422, -173.962, 1.33165, 64.968, 0.00846185, -80.8218
0, 3300.00000, 115.441, -30.7795, 118.252, -150.888, 117.256, 88.0419, 0, 0, 1.30873, -53.8534, 1.34422, -173.962, 1.33165, 64.968, 0.00846185, -80.8218
0, 3360.00000, 115.441, -30.7795, 118.252, -150.888, 117.256, 88.0419, 0, 0, 1.30873, -53.8534, 1.34422, -173.962, 1.33165, 64.968, 0.00846185, -80.8218
0, 3420.00000, 115.441, -30.7795, 118.252, -150.888, 117.256, 88.0419, 0, 0, 1.30873, -53.8534, 1.34422, -173.962, 1.33165, 64.968, 0.00846185, -80.8218
0, 3480.00000, 115.441, -30.7795, 118.252, -150.888, 117.256, 88.0419, 0, 0, 1.30873, -53.8534, 1.34422, -173.962, 1.33165, 64.968, 0.00846185, -80.8218
0, 3540.00000, 115.441, -30.7795, 118.252, -150.888, 117.256, 88.0419, 0, 0, 1.30873, -53.8534, 1.34422, -173.962, 1.33165, 64.968, 0.00846185, -80.8218
1, 0.00000, 115.441, -30.7795, 118.252, -150.888, 117.256, 88.0419, 0, 0, 1.30873, -53.8534, 1.34422, -173.962, 1.33165, 64.968, 0.00846185, -80.8218
1, 60.00000, 115.811, -30.7677, 118.251, -150.888, 117.426, 88.2016, 0, 0, 1.31339, -53.8419, 1.3442, -173.962, 1.33378, 65.1275, 0.00829169, -84.1857
1, 120.00000, 115.811, -30.7677, 118.25, -150.888, 117.426, 88.2016, 0, 0, 1.3134, -53.8416, 1.3442, -173.962, 1.33378, 65.1277, 0.00829655, -84.2799
1, 180.00000, 115.811, -30.7677, 118.25, -150.888, 117.426, 88.2016, 0, 0, 1.3134, -53.8416, 1.3442, -173.962, 1.33378, 65.1277, 0.00829659, -84.2803
1, 240.00000, 115.811, -30.7677, 118.25, -150.888, 117.426, 88.2016, 0, 0, 1.3134, -53.8416, 1.3442, -173.962, 1.33378, 65.1277, 0.00829659, -84.2803
1, 300.00000, 115.811, -30.7677, 118.25, -150.888, 117.426, 88.2016, 0, 0, 1.3134, -53.8416, 1.3442, -173.962, 1.33378, 65.1277, 0.00829659, -84.2803
1, 360.00000, 115.811, -30.7677, 118.25, -150.888, 117.426, 88.2016, 0, 0, 1.3134, -53.8416, 1.3442, -173.962, 1.33378, 65.1277, 0.00829659, -84.2803
1, 420.00000, 115.811, -30.7677, 118.25, -150.888, 117.426, 88.2016, 0, 0, 1.3134, -53.8416, 1.3442, -173.962, 1.33378, 65.1277, 0.00829659, -84.2803
1, 480.00000, 115.811, -30.7677, 118.25, -150.888, 117.426, 88.2016, 0, 0, 1.3134, -53.8416, 1.3442, -173.962, 1.33378, 65.1277, 0.00829659, -84.2803
1, 540.00000, 115.811, -30.7677, 118.25, -150.888, 117.426, 88.2016, 0, 0, 1.3134, -53.8416, 1.3442, -173.962, 1.33378, 65.1277, 0.00829659, -84.2803
1, 600.00000, 115.811, -30.7677, 118.25, -150.888, 117.426, 88.2016, 0, 0, 1.3134, -53.8416, 1.3442, -173.962, 1.33378, 65.1277, 0.00829659, -84.2803
1, 660.00000, 115.811, -30.7677, 118.25, -150.888, 117.426, 88.2016, 0, 0, 1.3134, -53.8416, 1.3442, -173.962, 1.33378, 65.1277, 0.00829659, -84.2803
1, 720.00000, 115.811, -30.7677, 118.25, -150.888, 117.426, 88.2016, 0, 0, 1.3134, -53.8416, 1.3442, -173.962, 1.33378, 65.1277, 0.00829659, -84.2803
1, 780.00000, 116.205, -30.7669, 118.251, -150.888, 117.616, 88.3656, 0, 0, 1.31836, -53.841, 1.34421, -173.962, 1.33619, 65.2915, 0.00804835, -87.4565
1, 840.00000, 116.205, -30.7669, 118.251, -150.888, 117.616, 88.3656, 0, 0, 1.31837, -53.8408, 1.34421, -173.962, 1.33619, 65.2916, 0.00804468, -87.5469
1, 900.00000, 116.205, -30.7669, 118.251, -150.888, 117.616, 88.3656, 0, 0, 1.31837, -53.8408, 1.34421, -173.962, 1.33619, 65.2916, 0.00804466, -87.5474
1, 960.00000, 116.205, -30.7669, 118.251, -150.888, 117.616, 88.3656, 0, 0, 1.31837, -53.8408, 1.34421, -173.962, 1.33619, 65.2916, 0.00804466, -87.5474
1, 1020.00000, 116.205, -30.7669, 118.251, -150.888, 117.616, 88.3656, 0, 0, 1.31837, -53.8408, 1.34421, -173.962, 1.33619, 65.2916, 0.00804466, -87.5474
1, 1080.00000, 116.205, -30.7669, 118.251, -150.888, 117.616, 88.3656, 0, 0, 1.31837, -53.8408, 1.34421, -173.962, 1.33619, 65.2916, 0.00804466, -87.5474
1, 1140.00000, 116.205, -30.7669, 118.251, -150.888, 117.616, 88.3656, 0, 0, 1.31837, -53.8408, 1.34421, -173.962, 1.33619, 65.2916, 0.00804466, -87.5474
1, 1200.00000, 116.205, -30.7669, 118.251, -150.888, 117.616, 88.3656, 0, 0, 1.31837, -53.8408, 1.34421, -173.962, 1.33619, 65.2916, 0.00804466, -87.5474
1, 1260.00000, 116.205, -30.7669, 118.251, -150.888, 117.616, 88.3656, 0, 0, 1.31837, -53.8408, 1.34421, -173.962, 1.33619, 65.2916, 0.00804466, -87.5474
1, 1320.00000, 116.205, -30.7669, 118.251, -150.888, 117.616, 88.3656, 0, 0, 1.31837, -53.8408, 1.34421, -173.962, 1.33619, 65.2916, 0.00804466, -87.5474
1, 1380.00000, 116.205, -30.7669, 118.251, -150.888, 117.616, 88.3656, 0, 0, 1.31837, -53.8408, 1.34421, -173.962, 1.33619, 65.2916, 0.00804466, -87.5474
1, 1440.00000, 116.205, -30.7669, 118.251, -150.888, 117.616, 88.3656, 0, 0, 1.31837, -53.8408, 1.34421, -173.962, 1.33619, 65.2916, 0.00804466, -87.5474
1, 1500.00000, 116.205, -30.7669, 118.251, -150.888, 117.616, 88.3656, 0, 0, 1.31837, -53.8408, 1.34421, -173.962, 1.33619, 65.2916, 0.00804466, -87.5474
1, 1560.00000, 116.205, -30.7669, 118.251, -150.888, 117.616, 88.3656, 0, 0, 1.31837, -53.8408, 1.34421, -173.962, 1.33619, 65.2916, 0.00804466, -87.5474
1, 1620.00000, 116.205, -30.7669, 118.251, -150.888, 117.616, 88.3656, 0, 0, 1.31837, -53.8408, 1.34421, -173.962, 1.33619, 65.2916, 0.00804466, -87.5474
1, 1680.00000, 116.205, -30.7669, 118.251, -150.888, 117.616, 88.3656, 0, 0, 1.31837, -53.8408, 1.34421, -173.962, 1.33619, 65.2916, 0.00804466, -87.5474
1, 1740.00000, 116.205, -30.7669, 118.251, -150.888, 117.616, 88.3656, 0, 0, 1.31837, -53.8408, 1.34421, -173.962, 1.33619, 65.2916, 0.00804466, -87.5474
1, 1800.00000, 116.205, -30.7669, 118.251, -150.888, 117.616, 88.3656, 0, 0, 1.31837, -53.8408, 1.34421, -173.962, 1.33619, 65.2916, 0.00804466, -87.5474
1, 1860.00000, 116.205, -30.7669, 118.251, -150.888, 117.616, 88.3656, 0, 0, 1.31837, -53.8408, 1.34421, -173.962, 1.33619, 65.2916, 0.00804466, -87.5474
1, 1920.00000, 116.205, -30.7669, 118.251, -150.888, 117.616, 88.3656, 0, 0, 1.31837, -53.8408, 1.34421, -173.962, 1.33619, 65.2916, 0.00804466, -87.5474
1, 1980.00000, 116.205, -30.7669, 118.251, -150.888, 117.616, 88.3656, 0, 0, 1.31837, -53.8408, 1.34421, -173.962, 1.33619, 65.2916, 0.00804466, -87.5474
1, 2040.00000, 116.205, -30.7669, 118.251, -150.888, 117.616, 88.3656, 0, 0, 1.31837, -53.8408, 1.34421, -173.962, 1.33619, 65.2916, 0.00804466, -87.5474
1, 2100.00000, 116.205, -30.7669, 118.251, -150.888, 117.616, 88.3656, 0, 0, 1.31837, -53.8408, 1.34421, -173.962, 1.33619, 65.2916, 0.00804466, -87.5474
1, 2160.00000, 116.205, -30.7669, 118.251, -150.888, 117.616, 88.3656, 0, 0, 1.31837, -53.8408, 1.34421, -173.962, 1.33619, 65.2916, 0.00804466, -87.5474
1, 2220.00000, 116.846, -30.8352, 118.244, -150.89, 118.064, 88.5927, 0, 0, 1.32646, -53.9092, 1.34412, -173.964, 1.34184, 65.5187, 0.00802027, -95.3959
1, 2280.00000, 116.846, -30.8351, 118.244, -150.89, 118.064, 88.5927, 0, 0, 1.32647, -53.9091, 1.34412, -173.964, 1.34185, 65.5188, 0.0080175, -95.5029
1, 2340.00000, 116.846, -30.8351, 118.244, -150.89, 118.064, 88.5927, 0, 0, 1.32647, -53.9091, 1.34412, -173.964, 1.34185, 65.5188, 0.00801749, -95.5035
1, 2400.00000, 116.846, -30.8351, 118.244, -150.89, 118.064, 88.5927, 0, 0, 1.32647, -53.9091, 1.34412, -173.964, 1.34185, 65.5188, 0.00801749, -95.5035
1, 2460.00000, 116.846, -30.8351, 118.244, -150.89, 118.064, 88.5927, 0, 0, 1.32647, -53.9091, 1.34412, -173.964, 1.34185, 65.5188, 0.00801749, -95.5035
1, 2520.00000, 116.846, -30.8351, 118.244, -150.89, 118.064, 88.5927, 0, 0, 1.32647, -53.9091, 1.34412, -173.964, 1.34185, 65.5188, 0.00801749, -95.5035
1, 2580.00000, 116.846, -30.8351, 118.244, -150.89, 118.064, 88.5927, 0, 0, 1.32647, -53.9091, 1.34412, -173.964, 1.34185, 65.5188, 0.00801749, -95.5035
1, 2640.00000, 116.846, -30.8351, 118.244, -150.89, 118.064, 88.5927, 0, 0, 1.32647, -53.9091, 1.34412, -173.964, 1.34185, 65.5188, 0.00801749, -95.5035
1, 2700.00000, 116.846, -30.8351, 118.244, -150.89, 118.064, 88.5927, 0, 0, 1.32647, -53.9091, 1.34412, -173.964, 1.34185, 65.5188, 0.00801749, -95.5035
1, 2760.00000, 116.846, -30.8351, 118.244, -150.89, 118.064, 88.5927, 0, 0, 1.32647, -53.9091, 1.34412, -173.964, 1.34185, 65.5188, 0.00801749, -95.5035
1, 2820.00000, 116.846, -30.8351, 118.244, -150.89, 118.064, 88.5927, 0, 0, 1.32647, -53.9091, 1.34412, -173.964, 1.34185, 65.5188, 0.00801749, -95.5035
1, 2880.00000, 116.846, -30.8351, 118.244, -150.89, 118.064, 88.5927, 0, 0, 1.32647, -53.9091, 1.34412, -173.964, 1.34185, 65.5188, 0.00801749, -95.5035
1, 2940.00000, 116.846, -30.8351, 118.244, -150.89, 118.064, 88.5927, 0, 0, 1.32647, -53.9091, 1.34412, -173.964, 1.34185, 65.5188, 0.00801749, -95.5035
1, 3000.00000, 116.846, -30.8351, 118.244, -150.89, 118.064, 88.5927, 0, 0, 1.32647, -53.9091, 1.34412, -173.964, 1.34185, 65.5188, 0.00801749, -95.5035
1, 3060.00000, 116.846, -30.8351, 118.244, -150.89, 118.064, 88.5927, 0, 0, 1.32647, -53.9091, 1.34412, -173.964, 1.34185, 65.5188, 0.00801749, -95.5035
1, 3120.00000, 116.846, -30.8351, 118.244, -150.89, 118.064, 88.5927, 0, 0, 1.32647, -53.9091, 1.34412, -173.964, 1.34185, 65.5188, 0.00801749, -95.5035
1, 3180.00000, 116.846, -30.8351, 118.244, -150.89, 118.064, 88.5927, 0, 0, 1.32647, -53.9091, 1.34412, -173.964, 1.34185, 65.5188, 0.00801749, -95.5035
1, 3240.00000, 116.846, -30.8351, 118.244, -150.89, 118.064, 88.5927, 0, 0, 1.32647, -53.9091, 1.34412, -173.964, 1.34185, 65.5188, 0.00801749, -95.5035
1, 3300.00000, 116.846, -30.8351, 118.244, -150.89, 118.064, 88.5927, 0, 0, 1.32647, -53.9091, 1.34412, -173.964, 1.34185, 65.5188, 0.00801749, -95.5035
1, 3360.00000, 116.846, -30.8351, 118.244, -150.89, 118.064, 88.5927, 0, 0, 1.32647, -53.9091, 1.34412, -173.964, 1.34185, 65.5188, 0.00801749, -95.5035
1, 3420.00000, 116.846, -30.8351, 118.244, -150.89, 118.064, 88.5927, 0, 0, 1.32647, -53.9091, 1.34412, -173.964, 1.34185, 65.5188, 0.00801749, -95.5035
1, 3480.00000, 116.846, -30.8351, 118.244, -150.89, 118.064, 88.5927, 0, 0, 1.32647, -53.9091, 1.34412, -173.964, 1.34185, 65.5188, 0.00801749, -95.5035
1, 3540.00000, 116.846, -30.8351, 118.244, -150.89, 118.064, 88.5927, 0, 0, 1.32647, -53.9091, 1.34412, -173.964, 1.34185, 65.5188, 0.00801749, -95.5035
2, 0.00000, 116.846, -30.8351, 118.244, -150.89, 118.064, 88.5927, 0, 0, 1.32647, -53.9091, 1.34412, -173.964, 1.34185, 65.5188, 0.00801749, -95.5035
2, 60.00000, 116.846, -30.8351, 118.244, -150.89, 118.064, 88.5927, 0, 0, 1.32647, -53.9091, 1.34412, -173.964, 1.34185, 65.5188, 0.00801749, -95.5035
2, 120.00000, 116.846, -30.8351, 118.244, -150.89, 118.064, 88.5927, 0, 0, 1.32647, -53.9091, 1.34412, -173.964, 1.34185, 65.5188, 0.00801749, -95.5035
2, 180.00000, 116.846, -30.8351, 118.244, -150.89, 118.064, 88.5927, 0, 0, 1.32647, -53.9091, 1.34412, -173.964, 1.34185, 65.5188, 0.00801749, -95.5035
2, 240.00000, 116.846, -30.8351, 118.244, -150.89, 118.064, 88.5927, 0, 0, 1.32647, -53.9091, 1.34412, -173.964, 1.34185, 65.5188, 0.00801749, -95.5035
2, 300.00000, 116.846, -30.8351, 118.244, -150.89, 118.064, 88.5927, 0, 0, 1.32647, -53.9091, 1.34412, -173.964, 1.34185, 65.5188, 0.00801749, -95.5035
2, 360.00000, 116.846, -30.8351, 118.244, -150.89, 118.064, 88.5927, 0, 0, 1.32647, -53.9091, 1.34412, -173.964, 1.34185, 65.5188, 0.00801749, -95.5035
2, 420.00000, 116.846, -30.8351, 118.244, -150.89, 118.064, 88.5927, 0, 0, 1.32647, -53.9091, 1.34412, -173.964, 1.34185, 65.5188, 0.00801749, -95.5035
2, 480.00000, 116.846, -30.8351, 118.244, -150.89, 118.064, 88.5927, 0, 0, 1.32647, -53.9091, 1.34412, -173.964, 1.34185, 65.5188, 0.00801749, -95.5035
2, 540.00000, 116.846, -30.8351, 118.244, -150.89, 118.064, 88.5927, 0, 0, 1.32647, -53.9091, 1.34412, -173.964, 1.34185, 65.5188, 0.00801749, -95.5035
2, 600.00000, 116.846, -30.8351, 118.244, -150.89, 118.064, 88.5927, 0, 0, 1.32647, -53.9091, 1.34412, -173.964, 1.34185, 65.5188, 0.00801749, -95.5035
