hour,t(sec),"P1 (kW)","Q1 (kvar)","P2 (kW)","Q2 (kvar)","P3 (kW)","Q3 (kvar)","P4 (kW)","Q4 (kvar)"
0, 60.00000, 0.905039, 0.385545, 0.908106, 0.386847, 0.903609, 0.384931, 0, 0
0, 120.00000, 0.905036, 0.385544, 0.908091, 0.386845, 0.903604, 0.384934, 0, 0
0, 180.00000, 0.905036, 0.385544, 0.908091, 0.386845, 0.903604, 0.384934, 0, 0
0, 240.00000, 0.905036, 0.385544, 0.908091, 0.386845, 0.903604, 0.384934, 0, 0
0, 300.00000, 0.905036, 0.385544, 0.908091, 0.386845, 0.903604, 0.384934, 0, 0
0, 360.00000, 0.905036, 0.385544, 0.908091, 0.386845, 0.903604, 0.384934, 0, 0
0, 420.00000, 0.905036, 0.385544, 0.908091, 0.386845, 0.903604, 0.384934, 0, 0
0, 480.00000, 0.905036, 0.385544, 0.908091, 0.386845, 0.903604, 0.384934, 0, 0
0, 540.00000, 0.905036, 0.385544, 0.908091, 0.386845, 0.903604, 0.384934, 0, 0
0, 600.00000, 0.905036, 0.385544, 0.908091, 0.386845, 0.903604, 0.384934, 0, 0
0, 660.00000, 0.905036, 0.385544, 0.908091, 0.386845, 0.903604, 0.384934, 0, 0
0, 720.00000, 0.905036, 0.385544, 0.908091, 0.386845, 0.903604, 0.384934, 0, 0
0, 780.00000, 0.905036, 0.385544, 0.908091, 0.386845, 0.903604, 0.384934, 0, 0
0, 840.00000, 0.905036, 0.385544, 0.908091, 0.386845, 0.903604, 0.384934, 0, 0
0, 900.00000, 0.905036, 0.385544, 0.908091, 0.386845, 0.903604, 0.384934, 0, 0
0, 960.00000, 0.873824, 0.372246, 0.873781, 0.372226, 0.87384, 0.372253, 0, 0
0, 1020.00000, 0.873821, 0.372246, 0.873772, 0.372225, 0.873838, 0.372254, 0, 0
0, 1080.00000, 0.873821, 0.372246, 0.873772, 0.372225, 0.873838, 0.372254, 0, 0
0, 1140.00000, 0.873821, 0.372246, 0.873772, 0.372225, 0.873838, 0.372254, 0, 0
0, 1200.00000, 0.873821, 0.372246, 0.873772, 0.372225, 0.873838, 0.372254, 0, 0
0, 1260.00000, 0.873821, 0.372246, 0.873772, 0.372225, 0.873838, 0.372254, 0, 0
0, 1320.00000, 0.873821, 0.372246, 0.873772, 0.372225, 0.873838, 0.372254, 0, 0
0, 1380.00000, 0.873821, 0.372246, 0.873772, 0.372225, 0.873838, 0.372254, 0, 0
0, 1440.00000, 0.873821, 0.372246, 0.873772, 0.372225, 0.873838, 0.372254, 0, 0
0, 1500.00000, 0.873821, 0.372246, 0.873772, 0.372225, 0.873838, 0.372254, 0, 0
0, 1560.00000, 0.873821, 0.372246, 0.873772, 0.372225, 0.873838, 0.372254, 0, 0
0, 1620.00000, 0.873821, 0.372246, 0.873772, 0.372225, 0.873838, 0.372254, 0, 0
0, 1680.00000, 0.873821, 0.372246, 0.873772, 0.372225, 0.873838, 0.372254, 0, 0
0, 1740.00000, 0.873821, 0.372246, 0.873772, 0.372225, 0.873838, 0.372254, 0, 0
0, 1800.00000, 0.873821, 0.372246, 0.873772, 0.372225, 0.873838, 0.372254, 0, 0
0, 1860.00000, 0.849508, 0.361897, 0.849306, 0.361815, 0.849316, 0.361818, 0, 0
0, 1920.00000, 0.849523, 0.361895, 0.849333, 0.361815, 0.84933, 0.361813, 0, 0
0, 1980.00000, 0.849523, 0.361895, 0.849334, 0.361815, 0.84933, 0.361813, 0, 0
0, 2040.00000, 0.849523, 0.361895, 0.849334, 0.361815, 0.84933, 0.361813, 0, 0
0, 2100.00000, 0.849523, 0.361895, 0.849334, 0.361815, 0.84933, 0.361813, 0, 0
0, 2160.00000, 0.849523, 0.361895, 0.849334, 0.361815, 0.84933, 0.361813, 0, 0
0, 2220.00000, 0.849523, 0.361895, 0.849334, 0.361815, 0.84933, 0.361813, 0, 0
0, 2280.00000, 0.849523, 0.361895, 0.849334, 0.361815, 0.84933, 0.361813, 0, 0
0, 2340.00000, 0.849523, 0.361895, 0.849334, 0.361815, 0.84933, 0.361813, 0, 0
0, 2400.00000, 0.849523, 0.361895, 0.849334, 0.361815, 0.84933, 0.361813, 0, 0
0, 2460.00000, 0.849523, 0.361895, 0.849334, 0.361815, 0.84933, 0.361813, 0, 0
0, 2520.00000, 0.849523, 0.361895, 0.849334, 0.361815, 0.84933, 0.361813, 0, 0
0, 2580.00000, 0.849523, 0.361895, 0.849334, 0.361815, 0.84933, 0.361813, 0, 0
0, 2640.00000, 0.849523, 0.361895, 0.849334, 0.361815, 0.84933, 0.361813, 0, 0
0, 2700.00000, 0.849523, 0.361895, 0.849334, 0.361815, 0.84933, 0.361813, 0, 0
0, 2760.00000, 0.852663, 0.363234, 0.852302, 0.363081, 0.852149, 0.363015, 0, 0
0, 2820.00000, 0.852665, 0.363234, 0.852306, 0.363081, 0.852151, 0.363015, 0, 0
0, 2880.00000, 0.852665, 0.363234, 0.852306, 0.363081, 0.852151, 0.363015, 0, 0
0, 2940.00000, 0.852665, 0.363234, 0.852306, 0.363081, 0.852151, 0.363015, 0, 0
0, 3000.00000, 0.852665, 0.363234, 0.852306, 0.363081, 0.852151, 0.363015, 0, 0
0, 3060.00000, 0.852665, 0.363234, 0.852306, 0.363081, 0.852151, 0.363015, 0, 0
0, 3120.00000, 0.852665, 0.363234, 0.852306, 0.363081, 0.852151, 0.363015, 0, 0
0, 3180.00000, 0.852665, 0.363234, 0.852306, 0.363081, 0.852151, 0.363015, 0, 0
0, 3240.00000, 0.852665, 0.363234, 0.852306, 0.363081, 0.852151, 0.363015, 0, 0
0, 3300.00000, 0.852665, 0.363234, 0.852306, 0.363081, 0.852151, 0.363015, 0, 0
0, 3360.00000, 0.852665, 0.363234, 0.852306, 0.363081, 0.852151, 0.363015, 0, 0
0, 3420.00000, 0.852665, 0.363234, 0.852306, 0.363081, 0.852151, 0.363015, 0, 0
0, 3480.00000, 0.852698, 0.363248, 0.853367, 0.363533, 0.85337, 0.363539, 0, 0
0, 3540.00000, 0.853364, 0.36353, 0.85337, 0.363538, 0.85336, 0.363531, 0, 0
1, 0.00000, 0.853363, 0.363531, 0.853363, 0.363531, 0.853363, 0.363531, 0, 0
1, 60.00000, 0.839568, 0.35767, 0.83958, 0.357679, 0.839571, 0.357677, 0, 0
1, 120.00000, 0.839525, 0.357636, 0.839526, 0.357637, 0.839525, 0.357636, 0, 0
1, 180.00000, 0.839525, 0.357636, 0.839525, 0.357636, 0.839525, 0.357636, 0, 0
1, 240.00000, 0.839525, 0.357636, 0.839525, 0.357636, 0.839525, 0.357636, 0, 0
1, 300.00000, 0.839525, 0.357636, 0.839525, 0.357636, 0.839525, 0.357636, 0, 0
1, 360.00000, 0.839525, 0.357636, 0.839525, 0.357636, 0.839525, 0.357636, 0, 0
1, 420.00000, 0.839525, 0.357636, 0.839525, 0.357636, 0.839525, 0.357636, 0, 0
1, 480.00000, 0.839525, 0.357636, 0.839525, 0.357636, 0.839525, 0.357636, 0, 0
1, 540.00000, 0.839525, 0.357636, 0.839525, 0.357636, 0.839525, 0.357636, 0, 0
1, 600.00000, 0.83952, 0.357632, 0.839547, 0.35765, 0.839547, 0.357658, 0, 0
1, 660.00000, 0.839525, 0.357636, 0.839525, 0.357636, 0.839525, 0.357636, 0, 0
1, 720.00000, 0.839525, 0.357636, 0.839525, 0.357636, 0.839525, 0.357636, 0, 0
1, 780.00000, 0.839525, 0.357636, 0.839525, 0.357636, 0.839525, 0.357636, 0, 0
1, 840.00000, 0.839525, 0.357636, 0.839525, 0.357636, 0.839525, 0.357636, 0, 0
1, 900.00000, 0.839525, 0.357636, 0.839525, 0.357636, 0.839525, 0.357636, 0, 0
1, 960.00000, 0.826203, 0.351963, 0.826209, 0.35197, 0.826205, 0.351967, 0, 0
1, 1020.00000, 0.826196, 0.351958, 0.826196, 0.351958, 0.826196, 0.351958, 0, 0
1, 1080.00000, 0.826196, 0.351958, 0.826196, 0.351958, 0.826196, 0.351958, 0, 0
1, 1140.00000, 0.826196, 0.351958, 0.826196, 0.351958, 0.826196, 0.351958, 0, 0
1, 1200.00000, 0.826196, 0.351958, 0.826196, 0.351958, 0.826196, 0.351958, 0, 0
1, 1260.00000, 0.826196, 0.351958, 0.826196, 0.351958, 0.826196, 0.351958, 0, 0
1, 1320.00000, 0.826196, 0.351958, 0.826196, 0.351958, 0.826196, 0.351958, 0, 0
1, 1380.00000, 0.826196, 0.351958, 0.826196, 0.351958, 0.826196, 0.351958, 0, 0
1, 1440.00000, 0.826196, 0.351958, 0.826196, 0.351958, 0.826196, 0.351958, 0, 0
1, 1500.00000, 0.826196, 0.351958, 0.826196, 0.351958, 0.826196, 0.351958, 0, 0
1, 1560.00000, 0.826196, 0.351958, 0.826196, 0.351958, 0.826196, 0.351958, 0, 0
1, 1620.00000, 0.826196, 0.351958, 0.826196, 0.351958, 0.826196, 0.351958, 0, 0
1, 1680.00000, 0.826196, 0.351958, 0.826196, 0.351958, 0.826196, 0.351958, 0, 0
1, 1740.00000, 0.826196, 0.351958, 0.826196, 0.351958, 0.826196, 0.351958, 0, 0
1, 1800.00000, 0.826196, 0.351958, 0.826196, 0.351958, 0.826196, 0.351958, 0, 0
1, 1860.00000, 0.804628, 0.342785, 0.804602, 0.34275, 0.804646, 0.342779, 0, 0
1, 1920.00000, 0.804621, 0.342767, 0.804621, 0.342767, 0.804622, 0.342767, 0, 0
1, 1980.00000, 0.804621, 0.342767, 0.804621, 0.342767, 0.804621, 0.342767, 0, 0
1, 2040.00000, 0.804621, 0.342767, 0.804621, 0.342767, 0.804621, 0.342767, 0, 0
1, 2100.00000, 0.804621, 0.342767, 0.804621, 0.342767, 0.804621, 0.342767, 0, 0
1, 2160.00000, 0.804621, 0.342767, 0.804621, 0.342767, 0.804621, 0.342767, 0, 0
1, 2220.00000, 0.804621, 0.342767, 0.804621, 0.342767, 0.804621, 0.342767, 0, 0
1, 2280.00000, 0.804621, 0.342767, 0.804621, 0.342767, 0.804621, 0.342767, 0, 0
1, 2340.00000, 0.804621, 0.342767, 0.804621, 0.342767, 0.804621, 0.342767, 0, 0
1, 2400.00000, 0.804621, 0.342767, 0.804621, 0.342767, 0.804621, 0.342767, 0, 0
1, 2460.00000, 0.804621, 0.342767, 0.804621, 0.342767, 0.804621, 0.342767, 0, 0
1, 2520.00000, 0.804621, 0.342767, 0.804621, 0.342767, 0.804621, 0.342767, 0, 0
1, 2580.00000, 0.804621, 0.342767, 0.804621, 0.342767, 0.804621, 0.342767, 0, 0
1, 2640.00000, 0.804621, 0.342767, 0.804621, 0.342767, 0.804621, 0.342767, 0, 0
1, 2700.00000, 0.804621, 0.342767, 0.804621, 0.342767, 0.804621, 0.342767, 0, 0
1, 2760.00000, 0.812969, 0.34633, 0.812982, 0.346329, 0.812995, 0.346347, 0, 0
1, 2820.00000, 0.812965, 0.346322, 0.812965, 0.346322, 0.812966, 0.346322, 0, 0
1, 2880.00000, 0.812965, 0.346322, 0.812965, 0.346322, 0.812965, 0.346322, 0, 0
1, 2940.00000, 0.812965, 0.346322, 0.812965, 0.346322, 0.812965, 0.346322, 0, 0
1, 3000.00000, 0.812965, 0.346322, 0.812965, 0.346322, 0.812965, 0.346322, 0, 0
1, 3060.00000, 0.812965, 0.346322, 0.812965, 0.346322, 0.812965, 0.346322, 0, 0
1, 3120.00000, 0.812965, 0.346322, 0.812965, 0.346322, 0.812965, 0.346322, 0, 0
1, 3180.00000, 0.812965, 0.346322, 0.812965, 0.346322, 0.812965, 0.346322, 0, 0
1, 3240.00000, 0.812965, 0.346322, 0.812965, 0.346322, 0.812965, 0.346322, 0, 0
1, 3300.00000, 0.812965, 0.346322, 0.812965, 0.346322, 0.812965, 0.346322, 0, 0
1, 3360.00000, 0.812965, 0.346322, 0.812965, 0.346322, 0.812965, 0.346322, 0, 0
1, 3420.00000, 0.812965, 0.346322, 0.812965, 0.346322, 0.812965, 0.346322, 0, 0
1, 3480.00000, 0.812965, 0.346322, 0.812965, 0.346322, 0.812965, 0.346322, 0, 0
1, 3540.00000, 0.812965, 0.346322, 0.812965, 0.346322, 0.812965, 0.346322, 0, 0
2, 0.00000, 0.812965, 0.346322, 0.812965, 0.346322, 0.812965, 0.346322, 0, 0
2, 60.00000, 0.829667, 0.353433, 0.829658, 0.353433, 0.829651, 0.353422, 0, 0
2, 120.00000, 0.829669, 0.353437, 0.829669, 0.353437, 0.829669, 0.353437, 0, 0
2, 180.00000, 0.829669, 0.353437, 0.829669, 0.353437, 0.829669, 0.353437, 0, 0
2, 240.00000, 0.829669, 0.353437, 0.829669, 0.353437, 0.829669, 0.353437, 0, 0
2, 300.00000, 0.829669, 0.353437, 0.829669, 0.353437, 0.829669, 0.353437, 0, 0
2, 360.00000, 0.829669, 0.353437, 0.829669, 0.353437, 0.829669, 0.353437, 0, 0
2, 420.00000, 0.829669, 0.353437, 0.829669, 0.353437, 0.829669, 0.353437, 0, 0
2, 480.00000, 0.829669, 0.353437, 0.829669, 0.353437, 0.829669, 0.353437, 0, 0
2, 540.00000, 0.829669, 0.353437, 0.829669, 0.353437, 0.829669, 0.353437, 0, 0
2, 600.00000, 0.829669, 0.353437, 0.829669, 0.353437, 0.829669, 0.353437, 0, 0
2, 660.00000, 0.829669, 0.353437, 0.829669, 0.353437, 0.829669, 0.353437, 0, 0
2, 720.00000, 0.829669, 0.353437, 0.829669, 0.353437, 0.829669, 0.353437, 0, 0
2, 780.00000, 0.829669, 0.353437, 0.829669, 0.353437, 0.829669, 0.353437, 0, 0
2, 840.00000, 0.829669, 0.353437, 0.829669, 0.353437, 0.829669, 0.353437, 0, 0
2, 900.00000, 0.829669, 0.353437, 0.829669, 0.353437, 0.829669, 0.353437, 0, 0
2, 960.00000, 0.852208, 0.363045, 0.852214, 0.363043, 0.852226, 0.363055, 0, 0
2, 1020.00000, 0.852203, 0.363037, 0.852203, 0.363037, 0.852203, 0.363037, 0, 0
2, 1080.00000, 0.852203, 0.363037, 0.852203, 0.363037, 0.852203, 0.363037, 0, 0
2, 1140.00000, 0.852203, 0.363037, 0.852203, 0.363037, 0.852203, 0.363037, 0, 0
2, 1200.00000, 0.852203, 0.363037, 0.852203, 0.363037, 0.852203, 0.363037, 0, 0
2, 1260.00000, 0.852203, 0.363037, 0.852203, 0.363037, 0.852203, 0.363037, 0, 0
2, 1320.00000, 0.852203, 0.363037, 0.852203, 0.363037, 0.852203, 0.363037, 0, 0
2, 1380.00000, 0.852203, 0.363037, 0.852203, 0.363037, 0.852203, 0.363037, 0, 0
2, 1440.00000, 0.852203, 0.363037, 0.852203, 0.363037, 0.852203, 0.363037, 0, 0
2, 1500.00000, 0.852203, 0.363037, 0.852203, 0.363037, 0.852203, 0.363037, 0, 0
2, 1560.00000, 0.852203, 0.363037, 0.852203, 0.363037, 0.852203, 0.363037, 0, 0
2, 1620.00000, 0.852203, 0.363037, 0.852203, 0.363037, 0.852203, 0.363037, 0, 0
2, 1680.00000, 0.852203, 0.363037, 0.852203, 0.363037, 0.852203, 0.363037, 0, 0
2, 1740.00000, 0.852203, 0.363037, 0.852203, 0.363037, 0.852203, 0.363037, 0, 0
2, 1800.00000, 0.852203, 0.363037, 0.852203, 0.363037, 0.852203, 0.363037, 0, 0
2, 1860.00000, 0.82967, 0.353435, 0.829669, 0.353437, 0.829663, 0.353432, 0, 0
2, 1920.00000, 0.829673, 0.353439, 0.829673, 0.353439, 0.829673, 0.353439, 0, 0
2, 1980.00000, 0.829673, 0.353439, 0.829673, 0.353439, 0.829673, 0.353439, 0, 0
2, 2040.00000, 0.829673, 0.353439, 0.829673, 0.353439, 0.829673, 0.353439, 0, 0
2, 2100.00000, 0.829673, 0.353439, 0.829673, 0.353439, 0.829673, 0.353439, 0, 0
2, 2160.00000, 0.829673, 0.353439, 0.829673, 0.353439, 0.829673, 0.353439, 0, 0
2, 2220.00000, 0.829673, 0.353439, 0.829673, 0.353439, 0.829673, 0.353439, 0, 0
2, 2280.00000, 0.829673, 0.353439, 0.829673, 0.353439, 0.829673, 0.353439, 0, 0
2, 2340.00000, 0.829673, 0.353439, 0.829673, 0.353439, 0.829673, 0.353439, 0, 0
2, 2400.00000, 0.829673, 0.353439, 0.829673, 0.353439, 0.829673, 0.353439, 0, 0
2, 2460.00000, 0.829673, 0.353439, 0.829673, 0.353439, 0.829673, 0.353439, 0, 0
2, 2520.00000, 0.829673, 0.353439, 0.829673, 0.353439, 0.829673, 0.353439, 0, 0
2, 2580.00000, 0.829673, 0.353439, 0.829673, 0.353439, 0.829673, 0.353439, 0, 0
2, 2640.00000, 0.829673, 0.353439, 0.829673, 0.353439, 0.829673, 0.353439, 0, 0
2, 2700.00000, 0.829673, 0.353439, 0.829673, 0.353439, 0.829673, 0.353439, 0, 0
2, 2760.00000, 0.810758, 0.345388, 0.810762, 0.345386, 0.810771, 0.345397, 0, 0
2, 2820.00000, 0.810746, 0.345377, 0.810746, 0.345376, 0.810747, 0.345377, 0, 0
2, 2880.00000, 0.810746, 0.345376, 0.810746, 0.345376, 0.810746, 0.345376, 0, 0
2, 2940.00000, 0.810746, 0.345376, 0.810746, 0.345376, 0.810746, 0.345376, 0, 0
2, 3000.00000, 0.810746, 0.345376, 0.810746, 0.345376, 0.810746, 0.345376, 0, 0
2, 3060.00000, 0.810746, 0.345376, 0.810746, 0.345376, 0.810746, 0.345376, 0, 0
2, 3120.00000, 0.810746, 0.345376, 0.810746, 0.345376, 0.810746, 0.345376, 0, 0
2, 3180.00000, 0.810746, 0.345376, 0.810746, 0.345376, 0.810746, 0.345376, 0, 0
2, 3240.00000, 0.810746, 0.345376, 0.810746, 0.345376, 0.810746, 0.345376, 0, 0
2, 3300.00000, 0.810746, 0.345376, 0.810746, 0.345376, 0.810746, 0.345376, 0, 0
2, 3360.00000, 0.810746, 0.345376, 0.810746, 0.345376, 0.810746, 0.345376, 0, 0
2, 3420.00000, 0.810746, 0.345376, 0.810746, 0.345376, 0.810746, 0.345376, 0, 0
2, 3480.00000, 0.810746, 0.345376, 0.810746, 0.345376, 0.810746, 0.345376, 0, 0
2, 3540.00000, 0.810746, 0.345376, 0.810746, 0.345376, 0.810746, 0.345376, 0, 0
3, 0.00000, 0.810746, 0.345376, 0.810746, 0.345376, 0.810746, 0.345376, 0, 0
3, 60.00000, 0.822847, 0.350527, 0.822846, 0.350529, 0.82284, 0.350524, 0, 0
3, 120.00000, 0.822854, 0.350534, 0.822854, 0.350534, 0.822854, 0.350534, 0, 0
3, 180.00000, 0.822854, 0.350534, 0.822854, 0.350534, 0.822854, 0.350534, 0, 0
3, 240.00000, 0.822854, 0.350534, 0.822854, 0.350534, 0.822854, 0.350534, 0, 0
3, 300.00000, 0.822854, 0.350534, 0.822854, 0.350534, 0.822854, 0.350534, 0, 0
3, 360.00000, 0.822854, 0.350534, 0.822854, 0.350534, 0.822854, 0.350534, 0, 0
3, 420.00000, 0.822854, 0.350534, 0.822854, 0.350534, 0.822854, 0.350534, 0, 0
3, 480.00000, 0.822854, 0.350534, 0.822854, 0.350534, 0.822854, 0.350534, 0, 0
3, 540.00000, 0.822854, 0.350534, 0.822854, 0.350534, 0.822854, 0.350534, 0, 0
3, 600.00000, 0.822854, 0.350534, 0.822854, 0.350534, 0.822854, 0.350534, 0, 0
3, 660.00000, 0.822854, 0.350534, 0.822854, 0.350534, 0.822854, 0.350534, 0, 0
3, 720.00000, 0.822854, 0.350534, 0.822854, 0.350534, 0.822854, 0.350534, 0, 0
3, 780.00000, 0.822854, 0.350534, 0.822854, 0.350534, 0.822854, 0.350534, 0, 0
3, 840.00000, 0.822854, 0.350534, 0.822854, 0.350534, 0.822854, 0.350534, 0, 0
3, 900.00000, 0.822854, 0.350534, 0.822854, 0.350534, 0.822854, 0.350534, 0, 0
3, 960.00000, 0.792932, 0.337796, 0.792936, 0.337795, 0.792946, 0.337802, 0, 0
3, 1020.00000, 0.792915, 0.33778, 0.792915, 0.33778, 0.792915, 0.337781, 0, 0
3, 1080.00000, 0.792915, 0.33778, 0.792915, 0.33778, 0.792915, 0.33778, 0, 0
3, 1140.00000, 0.792915, 0.33778, 0.792915, 0.33778, 0.792915, 0.33778, 0, 0
3, 1200.00000, 0.792915, 0.33778, 0.792915, 0.33778, 0.792915, 0.33778, 0, 0
3, 1260.00000, 0.792915, 0.33778, 0.792915, 0.33778, 0.792915, 0.33778, 0, 0
3, 1320.00000, 0.792915, 0.33778, 0.792915, 0.33778, 0.792915, 0.33778, 0, 0
3, 1380.00000, 0.792915, 0.33778, 0.792915, 0.33778, 0.792915, 0.33778, 0, 0
3, 1440.00000, 0.792915, 0.33778, 0.792915, 0.33778, 0.792915, 0.33778, 0, 0
3, 1500.00000, 0.792915, 0.33778, 0.792915, 0.33778, 0.792915, 0.33778, 0, 0
3, 1560.00000, 0.792915, 0.33778, 0.792915, 0.33778, 0.792915, 0.33778, 0, 0
3, 1620.00000, 0.792915, 0.33778, 0.792915, 0.33778, 0.792915, 0.33778, 0, 0
3, 1680.00000, 0.792915, 0.33778, 0.792915, 0.33778, 0.792915, 0.33778, 0, 0
3, 1740.00000, 0.792915, 0.33778, 0.792915, 0.33778, 0.792915, 0.33778, 0, 0
3, 1800.00000, 0.792915, 0.33778, 0.792915, 0.33778, 0.792915, 0.33778, 0, 0
3, 1860.00000, 0.814299, 0.346897, 0.814297, 0.346896, 0.814298, 0.346898, 0, 0
3, 1920.00000, 0.814284, 0.346884, 0.814284, 0.346884, 0.814284, 0.346884, 0, 0
3, 1980.00000, 0.814284, 0.346884, 0.814284, 0.346884, 0.814284, 0.346884, 0, 0
3, 2040.00000, 0.814284, 0.346884, 0.814284, 0.346884, 0.814284, 0.346884, 0, 0
3, 2100.00000, 0.814284, 0.346884, 0.814284, 0.346884, 0.814284, 0.346884, 0, 0
3, 2160.00000, 0.814284, 0.346884, 0.814284, 0.346884, 0.814284, 0.346884, 0, 0
3, 2220.00000, 0.814284, 0.346884, 0.814284, 0.346884, 0.814284, 0.346884, 0, 0
3, 2280.00000, 0.814284, 0.346884, 0.814284, 0.346884, 0.814284, 0.346884, 0, 0
3, 2340.00000, 0.814284, 0.346884, 0.814284, 0.346884, 0.814284, 0.346884, 0, 0
3, 2400.00000, 0.814284, 0.346884, 0.814284, 0.346884, 0.814284, 0.346884, 0, 0
3, 2460.00000, 0.814284, 0.346884, 0.814284, 0.346884, 0.814284, 0.346884, 0, 0
3, 2520.00000, 0.814284, 0.346884, 0.814284, 0.346884, 0.814284, 0.346884, 0, 0
3, 2580.00000, 0.814284, 0.346884, 0.814284, 0.346884, 0.814284, 0.346884, 0, 0
3, 2640.00000, 0.814284, 0.346884, 0.814284, 0.346884, 0.814284, 0.346884, 0, 0
3, 2700.00000, 0.814284, 0.346884, 0.814284, 0.346884, 0.814284, 0.346884, 0, 0
3, 2760.00000, 0.803022, 0.342093, 0.803022, 0.34209, 0.803031, 0.342098, 0, 0
3, 2820.00000, 0.803007, 0.34208, 0.803007, 0.34208, 0.803008, 0.34208, 0, 0
3, 2880.00000, 0.803007, 0.34208, 0.803007, 0.34208, 0.803007, 0.34208, 0, 0
3, 2940.00000, 0.803007, 0.34208, 0.803007, 0.34208, 0.803007, 0.34208, 0, 0
3, 3000.00000, 0.803007, 0.34208, 0.803007, 0.34208, 0.803007, 0.34208, 0, 0
3, 3060.00000, 0.803007, 0.34208, 0.803007, 0.34208, 0.803007, 0.34208, 0, 0
3, 3120.00000, 0.803007, 0.34208, 0.803007, 0.34208, 0.803007, 0.34208, 0, 0
3, 3180.00000, 0.803007, 0.34208, 0.803007, 0.34208, 0.803007, 0.34208, 0, 0
3, 3240.00000, 0.803007, 0.34208, 0.803007, 0.34208, 0.803007, 0.34208, 0, 0
3, 3300.00000, 0.803007, 0.34208, 0.803007, 0.34208, 0.803007, 0.34208, 0, 0
3, 3360.00000, 0.803007, 0.34208, 0.803007, 0.34208, 0.803007, 0.34208, 0, 0
3, 3420.00000, 0.803007, 0.34208, 0.803007, 0.34208, 0.803007, 0.34208, 0, 0
3, 3480.00000, 0.803007, 0.34208, 0.803007, 0.34208, 0.803007, 0.34208, 0, 0
3, 3540.00000, 0.803007, 0.34208, 0.803007, 0.34208, 0.803007, 0.34208, 0, 0
4, 0.00000, 0.803007, 0.34208, 0.803007, 0.34208, 0.803007, 0.34208, 0, 0
4, 60.00000, 0.792282, 0.337506, 0.792282, 0.337508, 0.792276, 0.337503, 0, 0
4, 120.00000, 0.792291, 0.337515, 0.792291, 0.337515, 0.792291, 0.337514, 0, 0
4, 180.00000, 0.792291, 0.337515, 0.792291, 0.337515, 0.792291, 0.337515, 0, 0
4, 240.00000, 0.792291, 0.337515, 0.792291, 0.337515, 0.792291, 0.337515, 0, 0
4, 300.00000, 0.792291, 0.337515, 0.792291, 0.337515, 0.792291, 0.337515, 0, 0
4, 360.00000, 0.792291, 0.337515, 0.792291, 0.337515, 0.792291, 0.337515, 0, 0
4, 420.00000, 0.792291, 0.337515, 0.792291, 0.337515, 0.792291, 0.337515, 0, 0
4, 480.00000, 0.792291, 0.337515, 0.792291, 0.337515, 0.792291, 0.337515, 0, 0
4, 540.00000, 0.792291, 0.337515, 0.792291, 0.337515, 0.792291, 0.337515, 0, 0
4, 600.00000, 0.792291, 0.337515, 0.792291, 0.337515, 0.792291, 0.337515, 0, 0
4, 660.00000, 0.792291, 0.337515, 0.792291, 0.337515, 0.792291, 0.337515, 0, 0
