hour,t(sec),V1,VAngle1,V2,VAngle2,V3,VAngle3,V4,VAngle4,I1,IAngle1,I2,IAngle2,I3,IAngle3,I4,IAngle4
0, 60.00000, 120.051, -32.7958, 118.859, -151.602, 122.359, 88.4293, 0, 0, 1.20995, -55.8697, 1.19661, -174.676, 1.20001, 65.3559, 0.0250492, 60.8794
0, 120.00000, 120.054, -32.8099, 118.858, -151.603, 122.391, 88.4238, 0, 0, 1.20998, -55.8838, 1.19661, -174.676, 1.1997, 65.3504, 0.0256215, 60.95
0, 180.00000, 120.056, -32.8226, 118.858, -151.603, 122.419, 88.4189, 0, 0, 1.21001, -55.8965, 1.1966, -174.677, 1.19942, 65.3454, 0.0261362, 61.0109
0, 240.00000, 120.059, -32.834, 118.858, -151.603, 122.445, 88.4144, 0, 0, 1.21004, -55.9079, 1.1966, -174.677, 1.19916, 65.3409, 0.0265993, 61.0634
0, 300.00000, 120.061, -32.8443, 118.857, -151.604, 122.468, 88.4104, 0, 0, 1.21006, -55.9182, 1.1966, -174.677, 1.19894, 65.3368, 0.027016, 61.109
0, 360.00000, 120.063, -32.8535, 118.857, -151.604, 122.488, 88.4068, 0, 0, 1.21008, -55.9274, 1.19659, -174.678, 1.19873, 65.3332, 0.027391, 61.1486
0, 420.00000, 120.065, -32.8619, 118.857, -151.604, 122.507, 88.4035, 0, 0, 1.2101, -55.9358, 1.19659, -174.678, 1.19855, 65.3299, 0.0277284, 61.1832
0, 480.00000, 120.947, -32.7622, 119.671, -151.522, 123.5, 88.5266, 0, 0, 1.27094, -55.8361, 1.26227, -174.595, 1.2447, 65.4529, 0.0462084, 55.9959
0, 540.00000, 120.948, -32.7689, 119.671, -151.522, 123.516, 88.5239, 0, 0, 1.27093, -55.8428, 1.26226, -174.596, 1.24454, 65.4502, 0.0464898, 56.0137
0, 600.00000, 120.949, -32.775, 119.671, -151.522, 123.531, 88.5215, 0, 0, 1.27092, -55.8489, 1.26226, -174.596, 1.24439, 65.4478, 0.0467422, 56.0295
0, 660.00000, 120.95, -32.7804, 119.671, -151.522, 123.544, 88.5194, 0, 0, 1.27091, -55.8543, 1.26226, -174.596, 1.24425, 65.4457, 0.0469695, 56.0437
0, 720.00000, 120.951, -32.7854, 119.67, -151.523, 123.556, 88.5175, 0, 0, 1.2709, -55.8593, 1.26226, -174.596, 1.24413, 65.4437, 0.047174, 56.0565
0, 780.00000, 120.952, -32.7898, 119.67, -151.523, 123.566, 88.5157, 0, 0, 1.27089, -55.8637, 1.26226, -174.597, 1.24402, 65.442, 0.0473581, 56.0679
0, 840.00000, 120.953, -32.7938, 119.67, -151.523, 123.576, 88.5141, 0, 0, 1.27088, -55.8677, 1.26226, -174.597, 1.24393, 65.4404, 0.0475237, 56.0783
0, 900.00000, 120.953, -32.7973, 119.67, -151.523, 123.585, 88.5127, 0, 0, 1.27088, -55.8712, 1.26225, -174.597, 1.24384, 65.4389, 0.0476728, 56.0875
0, 960.00000, 120.39, -32.7697, 119.678, -151.513, 123.124, 88.2992, 0, 0, 1.27068, -55.8436, 1.26234, -174.587, 1.24848, 65.2254, 0.0421185, 61.4841
0, 1020.00000, 120.39, -32.7725, 119.678, -151.513, 123.131, 88.2981, 0, 0, 1.27069, -55.8465, 1.26234, -174.587, 1.24841, 65.2242, 0.0422417, 61.489
0, 1080.00000, 120.391, -32.7751, 119.678, -151.513, 123.137, 88.297, 0, 0, 1.27069, -55.849, 1.26234, -174.587, 1.24835, 65.2232, 0.0423531, 61.4931
0, 1140.00000, 120.391, -32.7774, 119.678, -151.513, 123.143, 88.2961, 0, 0, 1.27069, -55.8514, 1.26234, -174.587, 1.24829, 65.2223, 0.0424533, 61.4967
0, 1200.00000, 120.391, -32.7795, 119.677, -151.513, 123.148, 88.2953, 0, 0, 1.2707, -55.8534, 1.26234, -174.587, 1.24824, 65.2215, 0.0425435, 61.5
0, 1260.00000, 120.392, -32.7814, 119.677, -151.514, 123.152, 88.2946, 0, 0, 1.2707, -55.8553, 1.26234, -174.587, 1.2482, 65.2207, 0.0426246, 61.5029
0, 1320.00000, 120.392, -32.7831, 119.677, -151.514, 123.156, 88.2939, 0, 0, 1.2707, -55.857, 1.26234, -174.587, 1.24815, 65.22, 0.0426976, 61.5055
0, 1380.00000, 120.392, -32.7846, 119.677, -151.514, 123.16, 88.2933, 0, 0, 1.27071, -55.8585, 1.26234, -174.588, 1.24812, 65.2194, 0.0427634, 61.5079
0, 1440.00000, 120.392, -32.786, 119.677, -151.514, 123.163, 88.2928, 0, 0, 1.27071, -55.8599, 1.26234, -174.588, 1.24808, 65.2189, 0.0428225, 61.51
0, 1500.00000, 120.393, -32.7872, 119.677, -151.514, 123.166, 88.2923, 0, 0, 1.27071, -55.8611, 1.26234, -174.588, 1.24805, 65.2184, 0.0428758, 61.5118
0, 1560.00000, 120.393, -32.7883, 119.677, -151.514, 123.169, 88.2918, 0, 0, 1.27071, -55.8622, 1.26234, -174.588, 1.24803, 65.2179, 0.0429237, 61.5135
0, 1620.00000, 120.393, -32.7893, 119.677, -151.514, 123.171, 88.2914, 0, 0, 1.27071, -55.8632, 1.26234, -174.588, 1.248, 65.2176, 0.0429668, 61.515
0, 1680.00000, 120.393, -32.7902, 119.677, -151.514, 123.174, 88.2911, 0, 0, 1.27072, -55.8641, 1.26234, -174.588, 1.24798, 65.2172, 0.0430056, 61.5164
0, 1740.00000, 120.393, -32.791, 119.677, -151.514, 123.175, 88.2908, 0, 0, 1.27072, -55.8649, 1.26234, -174.588, 1.24796, 65.2169, 0.0430405, 61.5176
0, 1800.00000, 120.393, -32.7918, 119.677, -151.514, 123.177, 88.2905, 0, 0, 1.27072, -55.8657, 1.26234, -174.588, 1.24794, 65.2166, 0.043072, 61.5187
0, 1860.00000, 120.394, -32.7924, 119.677, -151.514, 123.179, 88.2902, 0, 0, 1.27072, -55.8663, 1.26234, -174.588, 1.24793, 65.2163, 0.0431003, 61.5197
0, 1920.00000, 120.394, -32.793, 119.677, -151.514, 123.18, 88.29, 0, 0, 1.27072, -55.8669, 1.26234, -174.588, 1.24791, 65.2161, 0.0431257, 61.5206
0, 1980.00000, 120.394, -32.7935, 119.677, -151.514, 123.181, 88.2898, 0, 0, 1.27072, -55.8674, 1.26233, -174.588, 1.2479, 65.2159, 0.0431486, 61.5214
0, 2040.00000, 120.394, -32.794, 119.677, -151.514, 123.183, 88.2896, 0, 0, 1.27072, -55.8679, 1.26233, -174.588, 1.24789, 65.2157, 0.0431692, 61.5221
0, 2100.00000, 120.394, -32.7944, 119.677, -151.514, 123.184, 88.2894, 0, 0, 1.27072, -55.8684, 1.26233, -174.588, 1.24788, 65.2155, 0.0431878, 61.5227
0, 2160.00000, 120.394, -32.7948, 119.677, -151.514, 123.185, 88.2893, 0, 0, 1.27072, -55.8687, 1.26233, -174.588, 1.24787, 65.2153, 0.0432045, 61.5233
0, 2220.00000, 120.394, -32.7952, 119.677, -151.514, 123.185, 88.2891, 0, 0, 1.27072, -55.8691, 1.26233, -174.588, 1.24786, 65.2152, 0.0432195, 61.5238
0, 2280.00000, 120.394, -32.7955, 119.677, -151.514, 123.186, 88.289, 0, 0, 1.27072, -55.8694, 1.26233, -174.588, 1.24785, 65.2151, 0.0432331, 61.5243
0, 2340.00000, 120.394, -32.7958, 119.677, -151.514, 123.187, 88.2889, 0, 0, 1.27072, -55.8697, 1.26233, -174.588, 1.24784, 65.215, 0.0432452, 61.5247
0, 2400.00000, 120.394, -32.796, 119.677, -151.514, 123.187, 88.2888, 0, 0, 1.27072, -55.8699, 1.26233, -174.588, 1.24784, 65.2149, 0.0432562, 61.5251
0, 2460.00000, 120.394, -32.7962, 119.677, -151.514, 123.188, 88.2887, 0, 0, 1.27073, -55.8702, 1.26233, -174.588, 1.24783, 65.2148, 0.0432661, 61.5254
0, 2520.00000, 120.394, -32.7965, 119.677, -151.514, 123.188, 88.2886, 0, 0, 1.27073, -55.8704, 1.26233, -174.588, 1.24783, 65.2147, 0.0432749, 61.5257
0, 2580.00000, 120.394, -32.7966, 119.677, -151.514, 123.189, 88.2885, 0, 0, 1.27073, -55.8706, 1.26233, -174.588, 1.24782, 65.2146, 0.0432829, 61.526
0, 2640.00000, 120.394, -32.7968, 119.677, -151.514, 123.189, 88.2885, 0, 0, 1.27073, -55.8707, 1.26233, -174.588, 1.24782, 65.2146, 0.0432901, 61.5262
0, 2700.00000, 120.394, -32.797, 119.677, -151.514, 123.19, 88.2884, 0, 0, 1.27073, -55.8709, 1.26233, -174.588, 1.24781, 65.2145, 0.0432966, 61.5265
0, 2760.00000, 120.389, -32.7949, 119.768, -151.388, 123.536, 88.3242, 0, 0, 1.27067, -55.8688, 1.26339, -174.462, 1.24431, 65.2502, 0.0496672, 61.6308
0, 2820.00000, 120.389, -32.795, 119.768, -151.388, 123.537, 88.3241, 0, 0, 1.27067, -55.8689, 1.26339, -174.462, 1.24431, 65.2502, 0.0496727, 61.6308
0, 2880.00000, 120.389, -32.7951, 119.768, -151.388, 123.537, 88.3241, 0, 0, 1.27067, -55.869, 1.26339, -174.462, 1.24431, 65.2501, 0.0496774, 61.6309
0, 2940.00000, 120.389, -32.7952, 119.768, -151.388, 123.537, 88.324, 0, 0, 1.27067, -55.8691, 1.26339, -174.462, 1.2443, 65.2501, 0.0496816, 61.631
0, 3000.00000, 120.389, -32.7953, 119.768, -151.388, 123.537, 88.324, 0, 0, 1.27067, -55.8692, 1.26339, -174.462, 1.2443, 65.2501, 0.0496854, 61.6311
0, 3060.00000, 120.389, -32.7954, 119.768, -151.388, 123.538, 88.324, 0, 0, 1.27067, -55.8693, 1.26339, -174.462, 1.2443, 65.25, 0.0496889, 61.6312
0, 3120.00000, 120.389, -32.7954, 119.768, -151.388, 123.538, 88.3239, 0, 0, 1.27067, -55.8693, 1.26339, -174.462, 1.2443, 65.25, 0.049692, 61.6313
0, 3180.00000, 120.389, -32.7955, 119.768, -151.388, 123.538, 88.3239, 0, 0, 1.27067, -55.8694, 1.26339, -174.462, 1.2443, 65.25, 0.0496947, 61.6314
0, 3240.00000, 120.389, -32.7956, 119.768, -151.388, 123.538, 88.3239, 0, 0, 1.27067, -55.8695, 1.26339, -174.462, 1.2443, 65.25, 0.0496972, 61.6315
0, 3300.00000, 120.389, -32.7956, 119.768, -151.388, 123.538, 88.3239, 0, 0, 1.27067, -55.8695, 1.26339, -174.462, 1.24429, 65.2499, 0.0496995, 61.6315
0, 3360.00000, 120.389, -32.7957, 119.768, -151.388, 123.538, 88.3238, 0, 0, 1.27067, -55.8696, 1.26339, -174.462, 1.24429, 65.2499, 0.0497015, 61.6316
0, 3420.00000, 120.389, -32.7957, 119.768, -151.388, 123.538, 88.3238, 0, 0, 1.27067, -55.8696, 1.26339, -174.462, 1.24429, 65.2499, 0.0497033, 61.6316
0, 3480.00000, 120.389, -32.7957, 119.768, -151.388, 123.538, 88.3238, 0, 0, 1.27067, -55.8696, 1.26339, -174.462, 1.24429, 65.2499, 0.049705, 61.6317
0, 3540.00000, 120.389, -32.7958, 119.768, -151.388, 123.538, 88.3238, 0, 0, 1.27067, -55.8697, 1.26339, -174.462, 1.24429, 65.2499, 0.0497064, 61.6317
1, 0.00000, 120.389, -32.7958, 119.768, -151.388, 123.539, 88.3238, 0, 0, 1.27067, -55.8697, 1.26339, -174.462, 1.24429, 65.2499, 0.0497078, 61.6318
1, 60.00000, 120.475, -32.6654, 120.053, -151.355, 123.539, 88.3267, 0, 0, 1.27167, -55.7393, 1.26673, -174.429, 1.24429, 65.2528, 0.050078, 61.3942
1, 120.00000, 120.475, -32.6655, 120.053, -151.355, 123.539, 88.3267, 0, 0, 1.27167, -55.7394, 1.26673, -174.429, 1.24429, 65.2528, 0.0500792, 61.3942
1, 180.00000, 120.475, -32.6655, 120.053, -151.355, 123.539, 88.3267, 0, 0, 1.27167, -55.7394, 1.26673, -174.429, 1.24429, 65.2528, 0.0500802, 61.3942
1, 240.00000, 120.475, -32.6655, 120.053, -151.355, 123.539, 88.3267, 0, 0, 1.27167, -55.7394, 1.26673, -174.429, 1.24429, 65.2528, 0.050081, 61.3942
1, 300.00000, 120.475, -32.6655, 120.053, -151.355, 123.539, 88.3267, 0, 0, 1.27167, -55.7394, 1.26673, -174.429, 1.24429, 65.2528, 0.0500818, 61.3943
1, 360.00000, 120.475, -32.6655, 120.053, -151.355, 123.539, 88.3267, 0, 0, 1.27167, -55.7394, 1.26673, -174.429, 1.24429, 65.2528, 0.0500825, 61.3943
1, 420.00000, 120.475, -32.6655, 120.053, -151.355, 123.539, 88.3267, 0, 0, 1.27167, -55.7395, 1.26673, -174.429, 1.24429, 65.2527, 0.0500832, 61.3943
1, 480.00000, 120.475, -32.6656, 120.053, -151.355, 123.539, 88.3267, 0, 0, 1.27167, -55.7395, 1.26673, -174.429, 1.24429, 65.2527, 0.0500837, 61.3943
1, 540.00000, 120.475, -32.6656, 120.053, -151.355, 123.539, 88.3267, 0, 0, 1.27167, -55.7395, 1.26673, -174.429, 1.24429, 65.2527, 0.0500842, 61.3943
1, 600.00000, 120.475, -32.6656, 120.053, -151.355, 123.539, 88.3266, 0, 0, 1.27167, -55.7395, 1.26673, -174.429, 1.24429, 65.2527, 0.0500847, 61.3944
1, 660.00000, 120.475, -32.6656, 120.053, -151.355, 123.539, 88.3266, 0, 0, 1.27167, -55.7395, 1.26673, -174.429, 1.24429, 65.2527, 0.0500851, 61.3944
1, 720.00000, 120.475, -32.6656, 120.053, -151.355, 123.539, 88.3266, 0, 0, 1.27167, -55.7395, 1.26673, -174.429, 1.24429, 65.2527, 0.0500855, 61.3944
1, 780.00000, 120.475, -32.6656, 120.053, -151.355, 123.539, 88.3266, 0, 0, 1.27167, -55.7395, 1.26673, -174.429, 1.24429, 65.2527, 0.0500858, 61.3944
1, 840.00000, 120.475, -32.6656, 120.053, -151.355, 123.539, 88.3266, 0, 0, 1.27167, -55.7395, 1.26673, -174.429, 1.24428, 65.2527, 0.0500861, 61.3944
1, 900.00000, 120.475, -32.6656, 120.053, -151.355, 123.539, 88.3266, 0, 0, 1.27167, -55.7395, 1.26673, -174.429, 1.24428, 65.2527, 0.0500864, 61.3944
1, 960.00000, 120.475, -32.6656, 120.053, -151.355, 123.539, 88.3266, 0, 0, 1.27167, -55.7395, 1.26673, -174.429, 1.24428, 65.2527, 0.0500867, 61.3944
1, 1020.00000, 120.475, -32.6656, 120.053, -151.355, 123.539, 88.3266, 0, 0, 1.27167, -55.7396, 1.26673, -174.429, 1.24428, 65.2527, 0.0500869, 61.3944
1, 1080.00000, 120.475, -32.6656, 120.053, -151.355, 123.539, 88.3266, 0, 0, 1.27167, -55.7396, 1.26673, -174.429, 1.24428, 65.2527, 0.0500871, 61.3944
1, 1140.00000, 120.475, -32.6656, 120.053, -151.355, 123.539, 88.3266, 0, 0, 1.27167, -55.7396, 1.26673, -174.429, 1.24428, 65.2527, 0.0500873, 61.3944
1, 1200.00000, 120.475, -32.6656, 120.053, -151.355, 123.539, 88.3266, 0, 0, 1.27167, -55.7396, 1.26673, -174.429, 1.24428, 65.2527, 0.0500874, 61.3944
1, 1260.00000, 120.475, -32.6656, 120.053, -151.355, 123.539, 88.3266, 0, 0, 1.27167, -55.7396, 1.26673, -174.429, 1.24428, 65.2527, 0.0500876, 61.3944
1, 1320.00000, 120.475, -32.6657, 120.053, -151.355, 123.539, 88.3266, 0, 0, 1.27167, -55.7396, 1.26673, -174.429, 1.24428, 65.2527, 0.0500877, 61.3944
1, 1380.00000, 120.475, -32.6657, 120.053, -151.355, 123.539, 88.3266, 0, 0, 1.27167, -55.7396, 1.26673, -174.429, 1.24428, 65.2527, 0.0500878, 61.3945
1, 1440.00000, 120.475, -32.6657, 120.053, -151.355, 123.539, 88.3266, 0, 0, 1.27167, -55.7396, 1.26673, -174.429, 1.24428, 65.2527, 0.0500879, 61.3945
1, 1500.00000, 120.475, -32.6657, 120.053, -151.355, 123.539, 88.3266, 0, 0, 1.27167, -55.7396, 1.26673, -174.429, 1.24428, 65.2527, 0.050088, 61.3945
1, 1560.00000, 120.475, -32.6657, 120.053, -151.355, 123.539, 88.3266, 0, 0, 1.27167, -55.7396, 1.26673, -174.429, 1.24428, 65.2527, 0.0500881, 61.3945
1, 1620.00000, 120.475, -32.6657, 120.053, -151.355, 123.539, 88.3266, 0, 0, 1.27167, -55.7396, 1.26673, -174.429, 1.24428, 65.2527, 0.0500882, 61.3945
1, 1680.00000, 120.475, -32.6657, 120.053, -151.355, 123.539, 88.3266, 0, 0, 1.27167, -55.7396, 1.26673, -174.429, 1.24428, 65.2527, 0.0500882, 61.3945
1, 1740.00000, 120.475, -32.6657, 120.053, -151.355, 123.539, 88.3266, 0, 0, 1.27167, -55.7396, 1.26673, -174.429, 1.24428, 65.2527, 0.0500883, 61.3945
1, 1800.00000, 120.475, -32.6657, 120.053, -151.355, 123.539, 88.3266, 0, 0, 1.27167, -55.7396, 1.26673, -174.429, 1.24428, 65.2527, 0.0500884, 61.3945
1, 1860.00000, 120.475, -32.6657, 120.053, -151.355, 123.539, 88.3266, 0, 0, 1.27167, -55.7396, 1.26673, -174.429, 1.24428, 65.2527, 0.0500884, 61.3945
1, 1920.00000, 120.475, -32.6657, 120.053, -151.355, 123.539, 88.3266, 0, 0, 1.27167, -55.7396, 1.26673, -174.429, 1.24428, 65.2527, 0.0500885, 61.3945
1, 1980.00000, 120.475, -32.6657, 120.053, -151.355, 123.539, 88.3266, 0, 0, 1.27167, -55.7396, 1.26673, -174.429, 1.24428, 65.2527, 0.0500885, 61.3945
1, 2040.00000, 120.475, -32.6657, 120.053, -151.355, 123.539, 88.3266, 0, 0, 1.27167, -55.7396, 1.26673, -174.429, 1.24428, 65.2527, 0.0500885, 61.3945
1, 2100.00000, 120.475, -32.6657, 120.053, -151.355, 123.539, 88.3266, 0, 0, 1.27167, -55.7396, 1.26673, -174.429, 1.24428, 65.2527, 0.0500886, 61.3945
1, 2160.00000, 120.475, -32.6657, 120.053, -151.355, 123.539, 88.3266, 0, 0, 1.27167, -55.7396, 1.26673, -174.429, 1.24428, 65.2527, 0.0500886, 61.3945
1, 2220.00000, 120.475, -32.6657, 120.053, -151.355, 123.539, 88.3266, 0, 0, 1.27167, -55.7396, 1.26673, -174.429, 1.24428, 65.2527, 0.0500886, 61.3945
1, 2280.00000, 120.475, -32.6657, 120.053, -151.355, 123.539, 88.3266, 0, 0, 1.27167, -55.7396, 1.26673, -174.429, 1.24428, 65.2527, 0.0500887, 61.3945
1, 2340.00000, 120.475, -32.6657, 120.053, -151.355, 123.539, 88.3266, 0, 0, 1.27167, -55.7396, 1.26673, -174.429, 1.24428, 65.2527, 0.0500887, 61.3945
1, 2400.00000, 120.475, -32.6657, 120.053, -151.355, 123.539, 88.3266, 0, 0, 1.27167, -55.7396, 1.26673, -174.429, 1.24428, 65.2527, 0.0500887, 61.3945
1, 2460.00000, 120.475, -32.6657, 120.053, -151.355, 123.539, 88.3266, 0, 0, 1.27167, -55.7396, 1.26673, -174.429, 1.24428, 65.2527, 0.0500887, 61.3945
1, 2520.00000, 120.475, -32.6657, 120.053, -151.355, 123.539, 88.3266, 0, 0, 1.27167, -55.7396, 1.26673, -174.429, 1.24428, 65.2527, 0.0500887, 61.3945
1, 2580.00000, 120.475, -32.6657, 120.053, -151.355, 123.539, 88.3266, 0, 0, 1.27167, -55.7396, 1.26673, -174.429, 1.24428, 65.2527, 0.0500887, 61.3945
1, 2640.00000, 120.475, -32.6657, 120.053, -151.355, 123.539, 88.3266, 0, 0, 1.27167, -55.7396, 1.26673, -174.429, 1.24428, 65.2527, 0.0500888, 61.3945
1, 2700.00000, 120.475, -32.6657, 120.053, -151.355, 123.539, 88.3266, 0, 0, 1.27167, -55.7396, 1.26673, -174.429, 1.24428, 65.2527, 0.0500888, 61.3945
1, 2760.00000, 120.475, -32.6657, 120.053, -151.355, 123.539, 88.3266, 0, 0, 1.27167, -55.7396, 1.26673, -174.429, 1.24428, 65.2527, 0.0500888, 61.3945
1, 2820.00000, 120.475, -32.6657, 120.053, -151.355, 123.539, 88.3266, 0, 0, 1.27167, -55.7396, 1.26673, -174.429, 1.24428, 65.2527, 0.0500888, 61.3945
1, 2880.00000, 120.475, -32.6657, 120.053, -151.355, 123.539, 88.3266, 0, 0, 1.27167, -55.7396, 1.26673, -174.429, 1.24428, 65.2527, 0.0500888, 61.3945
1, 2940.00000, 120.475, -32.6657, 120.053, -151.355, 123.539, 88.3266, 0, 0, 1.27167, -55.7396, 1.26673, -174.429, 1.24428, 65.2527, 0.0500888, 61.3945
1, 3000.00000, 120.475, -32.6657, 120.053, -151.355, 123.539, 88.3266, 0, 0, 1.27167, -55.7396, 1.26673, -174.429, 1.24428, 65.2527, 0.0500888, 61.3945
1, 3060.00000, 120.475, -32.6657, 120.053, -151.355, 123.539, 88.3266, 0, 0, 1.27167, -55.7396, 1.26673, -174.429, 1.24428, 65.2527, 0.0500888, 61.3945
1, 3120.00000, 120.475, -32.6657, 120.053, -151.355, 123.539, 88.3266, 0, 0, 1.27167, -55.7396, 1.26673, -174.429, 1.24428, 65.2527, 0.0500888, 61.3945
1, 3180.00000, 120.475, -32.6657, 120.053, -151.355, 123.539, 88.3266, 0, 0, 1.27167, -55.7396, 1.26673, -174.429, 1.24428, 65.2527, 0.0500888, 61.3945
1, 3240.00000, 120.475, -32.6657, 120.053, -151.355, 123.539, 88.3266, 0, 0, 1.27167, -55.7396, 1.26673, -174.429, 1.24428, 65.2527, 0.0500888, 61.3945
1, 3300.00000, 120.475, -32.6657, 120.053, -151.355, 123.539, 88.3266, 0, 0, 1.27167, -55.7396, 1.26673, -174.429, 1.24428, 65.2527, 0.0500888, 61.3945
1, 3360.00000, 120.475, -32.6657, 120.053, -151.355, 123.539, 88.3266, 0, 0, 1.27167, -55.7396, 1.26673, -174.429, 1.24428, 65.2527, 0.0500888, 61.3945
1, 3420.00000, 120.475, -32.6657, 120.053, -151.355, 123.539, 88.3266, 0, 0, 1.27167, -55.7396, 1.26673, -174.429, 1.24428, 65.2527, 0.0500888, 61.3945
1, 3480.00000, 120.475, -32.6657, 120.053, -151.355, 123.539, 88.3266, 0, 0, 1.27167, -55.7396, 1.26673, -174.429, 1.24428, 65.2527, 0.0500888, 61.3945
1, 3540.00000, 120.475, -32.6657, 120.053, -151.355, 123.539, 88.3266, 0, 0, 1.27167, -55.7396, 1.26673, -174.429, 1.24428, 65.2527, 0.0500888, 61.3945
2, 0.00000, 120.475, -32.6657, 120.053, -151.355, 123.539, 88.3266, 0, 0, 1.27167, -55.7396, 1.26673, -174.429, 1.24428, 65.2527, 0.0500888, 61.3945
2, 60.00000, 120.475, -32.6657, 120.053, -151.355, 123.539, 88.3266, 0, 0, 1.27167, -55.7396, 1.26673, -174.429, 1.24428, 65.2527, 0.0500888, 61.3945
2, 120.00000, 120.475, -32.6657, 120.053, -151.355, 123.539, 88.3266, 0, 0, 1.27167, -55.7396, 1.26673, -174.429, 1.24428, 65.2527, 0.0500889, 61.3945
2, 180.00000, 120.475, -32.6657, 120.053, -151.355, 123.539, 88.3266, 0, 0, 1.27167, -55.7396, 1.26673, -174.429, 1.24428, 65.2527, 0.0500889, 61.3945
2, 240.00000, 120.475, -32.6657, 120.053, -151.355, 123.539, 88.3266, 0, 0, 1.27167, -55.7396, 1.26673, -174.429, 1.24428, 65.2527, 0.0500889, 61.3945
2, 300.00000, 120.475, -32.6657, 120.053, -151.355, 123.539, 88.3266, 0, 0, 1.27167, -55.7396, 1.26673, -174.429, 1.24428, 65.2527, 0.0500889, 61.3945
2, 360.00000, 120.475, -32.6657, 120.053, -151.355, 123.539, 88.3266, 0, 0, 1.27167, -55.7396, 1.26673, -174.429, 1.24428, 65.2527, 0.0500889, 61.3945
2, 420.00000, 120.475, -32.6657, 120.053, -151.355, 123.539, 88.3266, 0, 0, 1.27167, -55.7396, 1.26673, -174.429, 1.24428, 65.2527, 0.0500889, 61.3945
2, 480.00000, 120.475, -32.6657, 120.053, -151.355, 123.539, 88.3266, 0, 0, 1.27167, -55.7396, 1.26673, -174.429, 1.24428, 65.2527, 0.0500889, 61.3945
2, 540.00000, 120.475, -32.6657, 120.053, -151.355, 123.539, 88.3266, 0, 0, 1.27167, -55.7396, 1.26673, -174.429, 1.24428, 65.2527, 0.0500889, 61.3945
2, 600.00000, 120.475, -32.6657, 120.053, -151.355, 123.539, 88.3266, 0, 0, 1.27167, -55.7396, 1.26673, -174.429, 1.24428, 65.2527, 0.0500889, 61.3945
2, 660.00000, 120.475, -32.6657, 120.053, -151.355, 123.539, 88.3266, 0, 0, 1.27167, -55.7396, 1.26673, -174.429, 1.24428, 65.2527, 0.0500889, 61.3945
