hour,t(sec),"P1 (kW)","Q1 (kvar)","P2 (kW)","Q2 (kvar)","P3 (kW)","Q3 (kvar)","P4 (kW)","Q4 (kvar)"
0, 60.00000, 0.603545, 0.257105, 0.603547, 0.257107, 0.603543, 0.257102, 0, 0
0, 120.00000, 0.603552, 0.257112, 0.603552, 0.257112, 0.603551, 0.257112, 0, 0
0, 180.00000, 0.603552, 0.257112, 0.603552, 0.257112, 0.603552, 0.257112, 0, 0
0, 240.00000, 0.603552, 0.257112, 0.603552, 0.257112, 0.603552, 0.257112, 0, 0
0, 300.00000, 0.603552, 0.257112, 0.603552, 0.257112, 0.603552, 0.257112, 0, 0
0, 360.00000, 0.603552, 0.257112, 0.603552, 0.257112, 0.603552, 0.257112, 0, 0
0, 420.00000, 0.603552, 0.257112, 0.603552, 0.257112, 0.603552, 0.257112, 0, 0
0, 480.00000, 0.603552, 0.257112, 0.603552, 0.257112, 0.603552, 0.257112, 0, 0
0, 540.00000, 0.603552, 0.257112, 0.603552, 0.257112, 0.603552, 0.257112, 0, 0
0, 600.00000, 0.603552, 0.257112, 0.603552, 0.257112, 0.603552, 0.257112, 0, 0
0, 660.00000, 0.603552, 0.257112, 0.603552, 0.257112, 0.603552, 0.257112, 0, 0
0, 720.00000, 0.603552, 0.257112, 0.603552, 0.257112, 0.603552, 0.257112, 0, 0
0, 780.00000, 0.603552, 0.257112, 0.603552, 0.257112, 0.603552, 0.257112, 0, 0
0, 840.00000, 0.603552, 0.257112, 0.603552, 0.257112, 0.603552, 0.257112, 0, 0
0, 900.00000, 0.603552, 0.257112, 0.603552, 0.257112, 0.603552, 0.257112, 0, 0
0, 960.00000, 0.638475, 0.271986, 0.638473, 0.271987, 0.63848, 0.27199, 0, 0
0, 1020.00000, 0.63848, 0.271991, 0.63848, 0.271991, 0.63848, 0.271991, 0, 0
0, 1080.00000, 0.63848, 0.271991, 0.63848, 0.271991, 0.63848, 0.271991, 0, 0
0, 1140.00000, 0.63848, 0.271991, 0.63848, 0.271991, 0.63848, 0.271991, 0, 0
0, 1200.00000, 0.63848, 0.271991, 0.63848, 0.271991, 0.63848, 0.271991, 0, 0
0, 1260.00000, 0.63848, 0.271991, 0.63848, 0.271991, 0.63848, 0.271991, 0, 0
0, 1320.00000, 0.63848, 0.271991, 0.63848, 0.271991, 0.63848, 0.271991, 0, 0
0, 1380.00000, 0.63848, 0.271991, 0.63848, 0.271991, 0.63848, 0.271991, 0, 0
0, 1440.00000, 0.63848, 0.271991, 0.63848, 0.271991, 0.63848, 0.271991, 0, 0
0, 1500.00000, 0.63848, 0.271991, 0.63848, 0.271991, 0.63848, 0.271991, 0, 0
0, 1560.00000, 0.63848, 0.271991, 0.63848, 0.271991, 0.63848, 0.271991, 0, 0
0, 1620.00000, 0.63848, 0.271991, 0.63848, 0.271991, 0.63848, 0.271991, 0, 0
0, 1680.00000, 0.63848, 0.271991, 0.63848, 0.271991, 0.63848, 0.271991, 0, 0
0, 1740.00000, 0.63848, 0.271991, 0.63848, 0.271991, 0.63848, 0.271991, 0, 0
0, 1800.00000, 0.63848, 0.271991, 0.63848, 0.271991, 0.63848, 0.271991, 0, 0
0, 1860.00000, 0.640435, 0.272827, 0.64043, 0.27283, 0.64044, 0.272844, 0, 0
0, 1920.00000, 0.640419, 0.272817, 0.640419, 0.272817, 0.640419, 0.272817, 0, 0
0, 1980.00000, 0.640419, 0.272817, 0.640419, 0.272817, 0.640419, 0.272817, 0, 0
0, 2040.00000, 0.640419, 0.272817, 0.640419, 0.272817, 0.640419, 0.272817, 0, 0
0, 2100.00000, 0.640419, 0.272817, 0.640419, 0.272817, 0.640419, 0.272817, 0, 0
0, 2160.00000, 0.640419, 0.272817, 0.640419, 0.272817, 0.640419, 0.272817, 0, 0
0, 2220.00000, 0.640419, 0.272817, 0.640419, 0.272817, 0.640419, 0.272817, 0, 0
0, 2280.00000, 0.640419, 0.272817, 0.640419, 0.272817, 0.640419, 0.272817, 0, 0
0, 2340.00000, 0.640419, 0.272817, 0.640419, 0.272817, 0.640419, 0.272817, 0, 0
0, 2400.00000, 0.640419, 0.272817, 0.640419, 0.272817, 0.640419, 0.272817, 0, 0
0, 2460.00000, 0.640419, 0.272817, 0.640419, 0.272817, 0.640419, 0.272817, 0, 0
0, 2520.00000, 0.640419, 0.272817, 0.640419, 0.272817, 0.640419, 0.272817, 0, 0
0, 2580.00000, 0.640419, 0.272817, 0.640419, 0.272817, 0.640419, 0.272817, 0, 0
0, 2640.00000, 0.640419, 0.272817, 0.640419, 0.272817, 0.640419, 0.272817, 0, 0
0, 2700.00000, 0.640419, 0.272817, 0.640419, 0.272817, 0.640419, 0.272817, 0, 0
0, 2760.00000, 0.609132, 0.259491, 0.609132, 0.259489, 0.609135, 0.259494, 0, 0
0, 2820.00000, 0.60913, 0.259488, 0.60913, 0.259488, 0.60913, 0.259488, 0, 0
0, 2880.00000, 0.60913, 0.259488, 0.60913, 0.259488, 0.60913, 0.259488, 0, 0
0, 2940.00000, 0.60913, 0.259488, 0.60913, 0.259488, 0.60913, 0.259488, 0, 0
0, 3000.00000, 0.60913, 0.259488, 0.60913, 0.259488, 0.60913, 0.259488, 0, 0
0, 3060.00000, 0.60913, 0.259488, 0.60913, 0.259488, 0.60913, 0.259488, 0, 0
0, 3120.00000, 0.60913, 0.259488, 0.60913, 0.259488, 0.60913, 0.259488, 0, 0
0, 3180.00000, 0.60913, 0.259488, 0.60913, 0.259488, 0.60913, 0.259488, 0, 0
0, 3240.00000, 0.60913, 0.259488, 0.60913, 0.259488, 0.60913, 0.259488, 0, 0
0, 3300.00000, 0.60913, 0.259488, 0.60913, 0.259488, 0.60913, 0.259488, 0, 0
0, 3360.00000, 0.60913, 0.259488, 0.60913, 0.259488, 0.60913, 0.259488, 0, 0
0, 3420.00000, 0.60913, 0.259488, 0.60913, 0.259488, 0.60913, 0.259488, 0, 0
0, 3480.00000, 0.60913, 0.259488, 0.60913, 0.259488, 0.60913, 0.259488, 0, 0
0, 3540.00000, 0.60913, 0.259488, 0.60913, 0.259488, 0.60913, 0.259488, 0, 0
1, 0.00000, 0.60913, 0.259488, 0.60913, 0.259488, 0.60913, 0.259488, 0, 0
1, 60.00000, 0.602011, 0.256457, 0.60201, 0.256455, 0.602013, 0.25646, 0, 0
1, 120.00000, 0.602009, 0.256455, 0.602009, 0.256455, 0.602009, 0.256455, 0, 0
1, 180.00000, 0.602009, 0.256455, 0.602009, 0.256455, 0.602009, 0.256455, 0, 0
1, 240.00000, 0.602009, 0.256455, 0.602009, 0.256455, 0.602009, 0.256455, 0, 0
1, 300.00000, 0.602009, 0.256455, 0.602009, 0.256455, 0.602009, 0.256455, 0, 0
1, 360.00000, 0.602009, 0.256455, 0.602009, 0.256455, 0.602009, 0.256455, 0, 0
1, 420.00000, 0.602009, 0.256455, 0.602009, 0.256455, 0.602009, 0.256455, 0, 0
1, 480.00000, 0.602009, 0.256455, 0.602009, 0.256455, 0.602009, 0.256455, 0, 0
1, 540.00000, 0.602009, 0.256455, 0.602009, 0.256455, 0.602009, 0.256455, 0, 0
1, 600.00000, 0.602009, 0.256455, 0.602009, 0.256455, 0.602009, 0.256455, 0, 0
1, 660.00000, 0.602009, 0.256455, 0.602009, 0.256455, 0.602009, 0.256455, 0, 0
1, 720.00000, 0.602009, 0.256455, 0.602009, 0.256455, 0.602009, 0.256455, 0, 0
1, 780.00000, 0.602009, 0.256455, 0.602009, 0.256455, 0.602009, 0.256455, 0, 0
1, 840.00000, 0.602009, 0.256455, 0.602009, 0.256455, 0.602009, 0.256455, 0, 0
1, 900.00000, 0.602009, 0.256455, 0.602009, 0.256455, 0.602009, 0.256455, 0, 0
1, 960.00000, 0.599196, 0.255259, 0.599195, 0.255258, 0.599198, 0.255263, 0, 0
1, 1020.00000, 0.599191, 0.255255, 0.599191, 0.255254, 0.599191, 0.255255, 0, 0
1, 1080.00000, 0.599191, 0.255254, 0.599191, 0.255254, 0.599191, 0.255254, 0, 0
1, 1140.00000, 0.599191, 0.255254, 0.599191, 0.255254, 0.599191, 0.255254, 0, 0
1, 1200.00000, 0.599191, 0.255254, 0.599191, 0.255254, 0.599191, 0.255254, 0, 0
1, 1260.00000, 0.599191, 0.255254, 0.599191, 0.255254, 0.599191, 0.255254, 0, 0
1, 1320.00000, 0.599191, 0.255254, 0.599191, 0.255254, 0.599191, 0.255254, 0, 0
1, 1380.00000, 0.599191, 0.255254, 0.599191, 0.255254, 0.599191, 0.255254, 0, 0
1, 1440.00000, 0.599191, 0.255254, 0.599191, 0.255254, 0.599191, 0.255254, 0, 0
1, 1500.00000, 0.599191, 0.255254, 0.599191, 0.255254, 0.599191, 0.255254, 0, 0
1, 1560.00000, 0.599191, 0.255254, 0.599191, 0.255254, 0.599191, 0.255254, 0, 0
1, 1620.00000, 0.599191, 0.255254, 0.599191, 0.255254, 0.599191, 0.255254, 0, 0
1, 1680.00000, 0.599191, 0.255254, 0.599191, 0.255254, 0.599191, 0.255254, 0, 0
1, 1740.00000, 0.599191, 0.255254, 0.599191, 0.255254, 0.599191, 0.255254, 0, 0
1, 1800.00000, 0.599191, 0.255254, 0.599191, 0.255254, 0.599191, 0.255254, 0, 0
1, 1860.00000, 0.613641, 0.261409, 0.613642, 0.26141, 0.613639, 0.261406, 0, 0
1, 1920.00000, 0.613643, 0.261411, 0.613643, 0.261411, 0.613643, 0.261411, 0, 0
1, 1980.00000, 0.613643, 0.261411, 0.613643, 0.261411, 0.613643, 0.261411, 0, 0
1, 2040.00000, 0.613643, 0.261411, 0.613643, 0.261411, 0.613643, 0.261411, 0, 0
1, 2100.00000, 0.613643, 0.261411, 0.613643, 0.261411, 0.613643, 0.261411, 0, 0
1, 2160.00000, 0.613643, 0.261411, 0.613643, 0.261411, 0.613643, 0.261411, 0, 0
1, 2220.00000, 0.613643, 0.261411, 0.613643, 0.261411, 0.613643, 0.261411, 0, 0
1, 2280.00000, 0.613643, 0.261411, 0.613643, 0.261411, 0.613643, 0.261411, 0, 0
1, 2340.00000, 0.613643, 0.261411, 0.613643, 0.261411, 0.613643, 0.261411, 0, 0
1, 2400.00000, 0.613643, 0.261411, 0.613643, 0.261411, 0.613643, 0.261411, 0, 0
1, 2460.00000, 0.613643, 0.261411, 0.613643, 0.261411, 0.613643, 0.261411, 0, 0
1, 2520.00000, 0.613643, 0.261411, 0.613643, 0.261411, 0.613643, 0.261411, 0, 0
1, 2580.00000, 0.613643, 0.261411, 0.613643, 0.261411, 0.613643, 0.261411, 0, 0
1, 2640.00000, 0.613643, 0.261411, 0.613643, 0.261411, 0.613643, 0.261411, 0, 0
1, 2700.00000, 0.613643, 0.26141, 0.61364, 0.261411, 0.613634, 0.261401, 0, 0
1, 2760.00000, 0.57824, 0.246331, 0.578238, 0.246329, 0.57824, 0.246332, 0, 0
1, 2820.00000, 0.578237, 0.246328, 0.578237, 0.246328, 0.578237, 0.246328, 0, 0
1, 2880.00000, 0.578237, 0.246328, 0.578237, 0.246328, 0.578237, 0.246328, 0, 0
1, 2940.00000, 0.578237, 0.246328, 0.578237, 0.246328, 0.578237, 0.246328, 0, 0
1, 3000.00000, 0.578237, 0.246328, 0.578237, 0.246328, 0.578237, 0.246328, 0, 0
1, 3060.00000, 0.578237, 0.246328, 0.578237, 0.246328, 0.578237, 0.246328, 0, 0
1, 3120.00000, 0.578237, 0.246328, 0.578237, 0.246328, 0.578237, 0.246328, 0, 0
1, 3180.00000, 0.578237, 0.246328, 0.578237, 0.246328, 0.578237, 0.246328, 0, 0
1, 3240.00000, 0.578237, 0.246328, 0.578237, 0.246328, 0.578237, 0.246328, 0, 0
1, 3300.00000, 0.578237, 0.246328, 0.578237, 0.246328, 0.578237, 0.246328, 0, 0
1, 3360.00000, 0.578237, 0.246328, 0.578237, 0.246328, 0.578237, 0.246328, 0, 0
1, 3420.00000, 0.578237, 0.246328, 0.578237, 0.246328, 0.578237, 0.246328, 0, 0
1, 3480.00000, 0.578237, 0.246328, 0.578237, 0.246328, 0.578237, 0.246328, 0, 0
1, 3540.00000, 0.578237, 0.246328, 0.578237, 0.246328, 0.578237, 0.246328, 0, 0
2, 0.00000, 0.578237, 0.246328, 0.578237, 0.246328, 0.578237, 0.246328, 0, 0
2, 60.00000, 0.593752, 0.252936, 0.593753, 0.252938, 0.593752, 0.252936, 0, 0
2, 120.00000, 0.593754, 0.252938, 0.593754, 0.252938, 0.593754, 0.252938, 0, 0
2, 180.00000, 0.593754, 0.252938, 0.593754, 0.252938, 0.593754, 0.252938, 0, 0
2, 240.00000, 0.593754, 0.252938, 0.593754, 0.252938, 0.593754, 0.252938, 0, 0
2, 300.00000, 0.593754, 0.252938, 0.593754, 0.252938, 0.593754, 0.252938, 0, 0
2, 360.00000, 0.593754, 0.252938, 0.593754, 0.252938, 0.593754, 0.252938, 0, 0
2, 420.00000, 0.593754, 0.252938, 0.593754, 0.252938, 0.593754, 0.252938, 0, 0
2, 480.00000, 0.593754, 0.252938, 0.593754, 0.252938, 0.593754, 0.252938, 0, 0
2, 540.00000, 0.593758, 0.252939, 0.59376, 0.252945, 0.59375, 0.252937, 0, 0
2, 600.00000, 0.593754, 0.252938, 0.593754, 0.252938, 0.593754, 0.252938, 0, 0
2, 660.00000, 0.593754, 0.252938, 0.593754, 0.252938, 0.593754, 0.252938, 0, 0
2, 720.00000, 0.593754, 0.252938, 0.593754, 0.252938, 0.593754, 0.252938, 0, 0
2, 780.00000, 0.593754, 0.252938, 0.593754, 0.252938, 0.593754, 0.252938, 0, 0
2, 840.00000, 0.593754, 0.252938, 0.593754, 0.252938, 0.593754, 0.252938, 0, 0
2, 900.00000, 0.593754, 0.252938, 0.593754, 0.252938, 0.593754, 0.252938, 0, 0
2, 960.00000, 0.562588, 0.239663, 0.562588, 0.239663, 0.562588, 0.239663, 0, 0
2, 1020.00000, 0.562586, 0.23966, 0.562586, 0.23966, 0.562586, 0.23966, 0, 0
2, 1080.00000, 0.562586, 0.23966, 0.562586, 0.23966, 0.562586, 0.23966, 0, 0
2, 1140.00000, 0.562586, 0.23966, 0.562586, 0.23966, 0.562586, 0.23966, 0, 0
2, 1200.00000, 0.562586, 0.23966, 0.562586, 0.23966, 0.562586, 0.23966, 0, 0
2, 1260.00000, 0.562586, 0.23966, 0.562586, 0.23966, 0.562586, 0.23966, 0, 0
2, 1320.00000, 0.562586, 0.23966, 0.562586, 0.23966, 0.562586, 0.23966, 0, 0
2, 1380.00000, 0.562586, 0.23966, 0.562586, 0.23966, 0.562586, 0.23966, 0, 0
2, 1440.00000, 0.562586, 0.23966, 0.562586, 0.23966, 0.562586, 0.23966, 0, 0
2, 1500.00000, 0.562586, 0.23966, 0.562586, 0.23966, 0.562586, 0.23966, 0, 0
2, 1560.00000, 0.562586, 0.23966, 0.562586, 0.23966, 0.562586, 0.23966, 0, 0
2, 1620.00000, 0.562586, 0.23966, 0.562586, 0.23966, 0.562586, 0.23966, 0, 0
2, 1680.00000, 0.562586, 0.23966, 0.562586, 0.23966, 0.562586, 0.23966, 0, 0
2, 1740.00000, 0.562586, 0.23966, 0.562586, 0.23966, 0.562586, 0.23966, 0, 0
2, 1800.00000, 0.562586, 0.23966, 0.562586, 0.23966, 0.562586, 0.23966, 0, 0
2, 1860.00000, 0.562264, 0.239515, 0.562265, 0.239517, 0.562267, 0.239513, 0, 0
2, 1920.00000, 0.562278, 0.239529, 0.562278, 0.239529, 0.562278, 0.239529, 0, 0
2, 1980.00000, 0.562278, 0.239529, 0.562278, 0.239529, 0.562278, 0.239529, 0, 0
2, 2040.00000, 0.562278, 0.239529, 0.562278, 0.239529, 0.562278, 0.239529, 0, 0
2, 2100.00000, 0.562278, 0.239529, 0.562278, 0.239529, 0.562278, 0.239529, 0, 0
2, 2160.00000, 0.562278, 0.239529, 0.562278, 0.239529, 0.562278, 0.239529, 0, 0
2, 2220.00000, 0.562278, 0.239529, 0.562278, 0.239529, 0.562278, 0.239529, 0, 0
2, 2280.00000, 0.562278, 0.239529, 0.562278, 0.239529, 0.562278, 0.239529, 0, 0
2, 2340.00000, 0.562278, 0.239529, 0.562278, 0.239529, 0.562278, 0.239529, 0, 0
2, 2400.00000, 0.562278, 0.239529, 0.562278, 0.239529, 0.562278, 0.239529, 0, 0
2, 2460.00000, 0.562278, 0.239529, 0.562278, 0.239529, 0.562278, 0.239529, 0, 0
2, 2520.00000, 0.562278, 0.239529, 0.562278, 0.239529, 0.562278, 0.239529, 0, 0
2, 2580.00000, 0.562278, 0.239529, 0.562278, 0.239529, 0.562278, 0.239529, 0, 0
2, 2640.00000, 0.562278, 0.239529, 0.562278, 0.239529, 0.562278, 0.239529, 0, 0
2, 2700.00000, 0.562278, 0.239529, 0.562278, 0.239529, 0.562278, 0.239529, 0, 0
2, 2760.00000, 0.537969, 0.229176, 0.537968, 0.229175, 0.537968, 0.229176, 0, 0
2, 2820.00000, 0.537965, 0.229172, 0.537965, 0.229172, 0.537965, 0.229172, 0, 0
2, 2880.00000, 0.537965, 0.229172, 0.537965, 0.229172, 0.537965, 0.229172, 0, 0
2, 2940.00000, 0.537965, 0.229172, 0.537965, 0.229172, 0.537965, 0.229172, 0, 0
2, 3000.00000, 0.537965, 0.229172, 0.537965, 0.229172, 0.537965, 0.229172, 0, 0
2, 3060.00000, 0.537965, 0.229172, 0.537965, 0.229172, 0.537965, 0.229172, 0, 0
2, 3120.00000, 0.537963, 0.229173, 0.537972, 0.229178, 0.537979, 0.229191, 0, 0
2, 3180.00000, 0.537965, 0.229172, 0.537965, 0.229172, 0.537965, 0.229173, 0, 0
2, 3240.00000, 0.537965, 0.229172, 0.537965, 0.229172, 0.537965, 0.229172, 0, 0
2, 3300.00000, 0.537965, 0.229172, 0.537965, 0.229172, 0.537965, 0.229172, 0, 0
2, 3360.00000, 0.537965, 0.229172, 0.537965, 0.229172, 0.537965, 0.229172, 0, 0
2, 3420.00000, 0.537965, 0.229172, 0.537965, 0.229172, 0.537965, 0.229172, 0, 0
2, 3480.00000, 0.537965, 0.229172, 0.537965, 0.229172, 0.537965, 0.229172, 0, 0
2, 3540.00000, 0.537965, 0.229172, 0.537965, 0.229172, 0.537965, 0.229172, 0, 0
3, 0.00000, 0.537965, 0.229172, 0.537965, 0.229172, 0.537965, 0.229172, 0, 0
3, 60.00000, 0.551643, 0.234998, 0.551642, 0.234997, 0.551641, 0.234995, 0, 0
3, 120.00000, 0.551645, 0.235, 0.551645, 0.235, 0.551645, 0.235, 0, 0
3, 180.00000, 0.551645, 0.235, 0.551645, 0.235, 0.551645, 0.235, 0, 0
3, 240.00000, 0.551645, 0.235, 0.551645, 0.235, 0.551645, 0.235, 0, 0
3, 300.00000, 0.551645, 0.235, 0.551645, 0.235, 0.551645, 0.235, 0, 0
3, 360.00000, 0.551645, 0.235, 0.551645, 0.235, 0.551645, 0.235, 0, 0
3, 420.00000, 0.551645, 0.235, 0.551645, 0.235, 0.551645, 0.235, 0, 0
3, 480.00000, 0.551645, 0.235, 0.551645, 0.235, 0.551645, 0.235, 0, 0
3, 540.00000, 0.551645, 0.235, 0.551645, 0.235, 0.551645, 0.235, 0, 0
3, 600.00000, 0.551645, 0.235, 0.551645, 0.235, 0.551645, 0.235, 0, 0
3, 660.00000, 0.551645, 0.235, 0.551645, 0.235, 0.551645, 0.235, 0, 0
3, 720.00000, 0.551645, 0.235, 0.551645, 0.235, 0.551645, 0.235, 0, 0
3, 780.00000, 0.551645, 0.235, 0.551645, 0.235, 0.551645, 0.235, 0, 0
3, 840.00000, 0.551645, 0.235, 0.551645, 0.235, 0.551645, 0.235, 0, 0
3, 900.00000, 0.551645, 0.235, 0.551645, 0.235, 0.551645, 0.235, 0, 0
3, 960.00000, 0.566805, 0.241462, 0.566807, 0.241464, 0.566809, 0.241467, 0, 0
3, 1020.00000, 0.566802, 0.241457, 0.566802, 0.241457, 0.566802, 0.241457, 0, 0
3, 1080.00000, 0.566802, 0.241457, 0.566802, 0.241457, 0.566802, 0.241457, 0, 0
3, 1140.00000, 0.566802, 0.241457, 0.566802, 0.241457, 0.566802, 0.241457, 0, 0
3, 1200.00000, 0.566802, 0.241457, 0.566802, 0.241457, 0.566802, 0.241457, 0, 0
3, 1260.00000, 0.566802, 0.241457, 0.566802, 0.241457, 0.566802, 0.241457, 0, 0
3, 1320.00000, 0.566802, 0.241457, 0.566802, 0.241457, 0.566802, 0.241457, 0, 0
3, 1380.00000, 0.566802, 0.241457, 0.566802, 0.241457, 0.566802, 0.241457, 0, 0
3, 1440.00000, 0.566802, 0.241457, 0.566802, 0.241457, 0.566802, 0.241457, 0, 0
3, 1500.00000, 0.566802, 0.241457, 0.566802, 0.241457, 0.566802, 0.241457, 0, 0
3, 1560.00000, 0.566802, 0.241457, 0.566802, 0.241457, 0.566802, 0.241457, 0, 0
3, 1620.00000, 0.566802, 0.241457, 0.566802, 0.241457, 0.566802, 0.241457, 0, 0
3, 1680.00000, 0.566802, 0.241457, 0.566802, 0.241457, 0.566802, 0.241457, 0, 0
3, 1740.00000, 0.566802, 0.241457, 0.566802, 0.241457, 0.566802, 0.241457, 0, 0
3, 1800.00000, 0.566802, 0.241457, 0.566802, 0.241457, 0.566802, 0.241457, 0, 0
3, 1860.00000, 0.573737, 0.244414, 0.573738, 0.244415, 0.573738, 0.244417, 0, 0
3, 1920.00000, 0.573733, 0.244409, 0.573733, 0.244409, 0.573733, 0.244409, 0, 0
3, 1980.00000, 0.573733, 0.244409, 0.573733, 0.244409, 0.573733, 0.244409, 0, 0
3, 2040.00000, 0.573733, 0.244409, 0.573733, 0.244409, 0.573733, 0.244409, 0, 0
3, 2100.00000, 0.573733, 0.244409, 0.573733, 0.244409, 0.573733, 0.244409, 0, 0
3, 2160.00000, 0.573733, 0.244409, 0.573733, 0.244409, 0.573733, 0.244409, 0, 0
3, 2220.00000, 0.573733, 0.244409, 0.573733, 0.244409, 0.573733, 0.244409, 0, 0
3, 2280.00000, 0.573733, 0.244409, 0.573733, 0.244409, 0.573733, 0.244409, 0, 0
3, 2340.00000, 0.573733, 0.244409, 0.573733, 0.244409, 0.573733, 0.244409, 0, 0
3, 2400.00000, 0.573733, 0.244409, 0.573733, 0.244409, 0.573733, 0.244409, 0, 0
3, 2460.00000, 0.573733, 0.244409, 0.573733, 0.244409, 0.573733, 0.244409, 0, 0
3, 2520.00000, 0.573733, 0.244409, 0.573733, 0.244409, 0.573733, 0.244409, 0, 0
3, 2580.00000, 0.573733, 0.244409, 0.573733, 0.244409, 0.573733, 0.244409, 0, 0
3, 2640.00000, 0.573733, 0.244409, 0.573733, 0.244409, 0.573733, 0.244409, 0, 0
3, 2700.00000, 0.573733, 0.244409, 0.573733, 0.244409, 0.573733, 0.244409, 0, 0
3, 2760.00000, 0.525012, 0.223657, 0.525013, 0.223658, 0.525014, 0.223661, 0, 0
3, 2820.00000, 0.525008, 0.223653, 0.525008, 0.223653, 0.525008, 0.223653, 0, 0
3, 2880.00000, 0.525008, 0.223653, 0.525008, 0.223653, 0.525008, 0.223653, 0, 0
3, 2940.00000, 0.525008, 0.223653, 0.525008, 0.223653, 0.525008, 0.223653, 0, 0
3, 3000.00000, 0.525008, 0.223653, 0.525008, 0.223653, 0.525008, 0.223653, 0, 0
3, 3060.00000, 0.525008, 0.223653, 0.525008, 0.223653, 0.525008, 0.223653, 0, 0
3, 3120.00000, 0.525019, 0.223667, 0.525004, 0.223651, 0.525015, 0.223657, 0, 0
3, 3180.00000, 0.525008, 0.223653, 0.525008, 0.223653, 0.525008, 0.223653, 0, 0
3, 3240.00000, 0.525008, 0.223653, 0.525008, 0.223653, 0.525008, 0.223653, 0, 0
3, 3300.00000, 0.525008, 0.223653, 0.525008, 0.223653, 0.525008, 0.223653, 0, 0
3, 3360.00000, 0.525008, 0.223653, 0.525008, 0.223653, 0.525008, 0.223653, 0, 0
3, 3420.00000, 0.525008, 0.223653, 0.525008, 0.223653, 0.525008, 0.223653, 0, 0
3, 3480.00000, 0.525008, 0.223653, 0.525008, 0.223653, 0.525008, 0.223653, 0, 0
3, 3540.00000, 0.525008, 0.223653, 0.525008, 0.223653, 0.525008, 0.223653, 0, 0
4, 0.00000, 0.525008, 0.223653, 0.525008, 0.223653, 0.525008, 0.223653, 0, 0
4, 60.00000, 0.561634, 0.239252, 0.561635, 0.239253, 0.561634, 0.239252, 0, 0
4, 120.00000, 0.561638, 0.239257, 0.561638, 0.239257, 0.561638, 0.239257, 0, 0
4, 180.00000, 0.561638, 0.239257, 0.561638, 0.239257, 0.561638, 0.239257, 0, 0
4, 240.00000, 0.561638, 0.239257, 0.561638, 0.239257, 0.561638, 0.239257, 0, 0
4, 300.00000, 0.561638, 0.239257, 0.561638, 0.239257, 0.561638, 0.239257, 0, 0
4, 360.00000, 0.561638, 0.239257, 0.561638, 0.239257, 0.561638, 0.239257, 0, 0
4, 420.00000, 0.561638, 0.239257, 0.561638, 0.239257, 0.561638, 0.239257, 0, 0
4, 480.00000, 0.561638, 0.239257, 0.561638, 0.239257, 0.561638, 0.239257, 0, 0
4, 540.00000, 0.561638, 0.239257, 0.561638, 0.239257, 0.561638, 0.239257, 0, 0
4, 600.00000, 0.561638, 0.239257, 0.561638, 0.239257, 0.561638, 0.239257, 0, 0
4, 660.00000, 0.561638, 0.239257, 0.561638, 0.239257, 0.561638, 0.239257, 0, 0
4, 720.00000, 0.561638, 0.239257, 0.561638, 0.239257, 0.561638, 0.239257, 0, 0
4, 780.00000, 0.561638, 0.239257, 0.561638, 0.239257, 0.561638, 0.239257, 0, 0
