hour,t(sec),V1,VAngle1,V2,VAngle2,V3,VAngle3,V4,VAngle4,I1,IAngle1,I2,IAngle2,I3,IAngle3,I4,IAngle4
0, 60.00000, 121.125, -31.6982, 122.101, -151.355, 122.624, 88.1179, 0, 0, 3.23455, -54.7719, 3.20871, -174.429, 3.19503, 65.0444, 0.060428, 109.601
0, 120.00000, 121.125, -31.6983, 122.1, -151.355, 122.624, 88.1179, 0, 0, 3.2346, -54.7722, 3.20877, -174.429, 3.19508, 65.0439, 0.0604547, 109.594
0, 180.00000, 121.125, -31.6983, 122.1, -151.355, 122.624, 88.1179, 0, 0, 3.2346, -54.7722, 3.20877, -174.429, 3.19508, 65.0439, 0.0604548, 109.594
0, 240.00000, 121.125, -31.6983, 122.1, -151.355, 122.624, 88.1179, 0, 0, 3.2346, -54.7722, 3.20877, -174.429, 3.19508, 65.0439, 0.0604548, 109.594
0, 300.00000, 121.125, -31.6983, 122.1, -151.355, 122.624, 88.1179, 0, 0, 3.2346, -54.7722, 3.20877, -174.429, 3.19508, 65.0439, 0.0604548, 109.594
0, 360.00000, 121.125, -31.6983, 122.1, -151.355, 122.624, 88.1179, 0, 0, 3.2346, -54.7722, 3.20877, -174.429, 3.19508, 65.0439, 0.0604548, 109.594
0, 420.00000, 121.125, -31.6983, 122.1, -151.355, 122.624, 88.1179, 0, 0, 3.2346, -54.7722, 3.20877, -174.429, 3.19508, 65.0439, 0.0604548, 109.594
0, 480.00000, 121.729, -31.5707, 122.674, -151.237, 123.18, 88.256, 0, 0, 2.90822, -54.645, 2.8858, -174.311, 2.87394, 65.1816, 0.0524658, 109.542
0, 540.00000, 121.729, -31.5707, 122.674, -151.237, 123.18, 88.256, 0, 0, 2.90816, -54.6446, 2.88574, -174.311, 2.8739, 65.1821, 0.0524294, 109.551
0, 600.00000, 121.729, -31.5707, 122.674, -151.237, 123.18, 88.256, 0, 0, 2.90816, -54.6446, 2.88574, -174.311, 2.8739, 65.1821, 0.0524292, 109.551
0, 660.00000, 121.729, -31.5707, 122.674, -151.237, 123.18, 88.256, 0, 0, 2.90816, -54.6446, 2.88574, -174.311, 2.8739, 65.1821, 0.0524292, 109.551
0, 720.00000, 121.729, -31.5707, 122.674, -151.237, 123.18, 88.256, 0, 0, 2.90816, -54.6446, 2.88574, -174.311, 2.8739, 65.1821, 0.0524292, 109.551
0, 780.00000, 121.729, -31.5707, 122.674, -151.237, 123.18, 88.256, 0, 0, 2.90816, -54.6446, 2.88574, -174.311, 2.8739, 65.1821, 0.0524292, 109.551
0, 840.00000, 121.729, -31.5707, 122.674, -151.237, 123.18, 88.256, 0, 0, 2.90816, -54.6446, 2.88574, -174.311, 2.8739, 65.1821, 0.0524292, 109.551
0, 900.00000, 121.729, -31.5707, 122.674, -151.237, 123.18, 88.256, 0, 0, 2.90816, -54.6446, 2.88574, -174.311, 2.8739, 65.1821, 0.0524292, 109.551
0, 960.00000, 121.582, -31.7117, 122.327, -151.251, 123.194, 88.252, 0, 0, 2.91166, -54.7856, 2.89391, -174.325, 2.87358, 65.1782, 0.0571654, 95.5897
0, 1020.00000, 121.582, -31.7117, 122.327, -151.251, 123.194, 88.252, 0, 0, 2.91167, -54.7856, 2.89393, -174.325, 2.87357, 65.1781, 0.057178, 95.566
0, 1080.00000, 121.582, -31.7117, 122.327, -151.251, 123.194, 88.252, 0, 0, 2.91167, -54.7856, 2.89393, -174.325, 2.87357, 65.1781, 0.0571781, 95.5659
0, 1140.00000, 121.582, -31.7117, 122.327, -151.251, 123.194, 88.252, 0, 0, 2.91167, -54.7856, 2.89393, -174.325, 2.87357, 65.1781, 0.0571781, 95.5659
0, 1200.00000, 121.582, -31.7117, 122.327, -151.251, 123.194, 88.252, 0, 0, 2.91167, -54.7856, 2.89393, -174.325, 2.87357, 65.1781, 0.0571781, 95.5659
0, 1260.00000, 121.582, -31.7117, 122.327, -151.251, 123.194, 88.252, 0, 0, 2.91167, -54.7856, 2.89393, -174.325, 2.87357, 65.1781, 0.0571781, 95.5659
0, 1320.00000, 121.582, -31.7117, 122.327, -151.251, 123.194, 88.252, 0, 0, 2.91167, -54.7856, 2.89393, -174.325, 2.87357, 65.1781, 0.0571781, 95.5659
0, 1380.00000, 121.582, -31.7117, 122.327, -151.251, 123.194, 88.252, 0, 0, 2.91167, -54.7856, 2.89393, -174.325, 2.87357, 65.1781, 0.0571781, 95.5659
0, 1440.00000, 121.582, -31.7117, 122.327, -151.251, 123.194, 88.252, 0, 0, 2.91167, -54.7856, 2.89393, -174.325, 2.87357, 65.1781, 0.0571781, 95.5659
0, 1500.00000, 121.582, -31.7117, 122.327, -151.251, 123.194, 88.252, 0, 0, 2.91167, -54.7856, 2.89393, -174.325, 2.87357, 65.1781, 0.0571781, 95.5659
0, 1560.00000, 121.582, -31.7117, 122.327, -151.251, 123.194, 88.252, 0, 0, 2.91167, -54.7856, 2.89393, -174.325, 2.87357, 65.1781, 0.0571781, 95.5659
0, 1620.00000, 121.582, -31.7117, 122.327, -151.251, 123.194, 88.252, 0, 0, 2.91167, -54.7856, 2.89393, -174.325, 2.87357, 65.1781, 0.0571781, 95.5659
0, 1680.00000, 121.582, -31.7117, 122.327, -151.251, 123.194, 88.252, 0, 0, 2.91167, -54.7856, 2.89393, -174.325, 2.87357, 65.1781, 0.0571781, 95.5659
0, 1740.00000, 121.582, -31.7117, 122.327, -151.251, 123.194, 88.252, 0, 0, 2.91167, -54.7856, 2.89393, -174.325, 2.87357, 65.1781, 0.0571781, 95.5659
0, 1800.00000, 121.582, -31.7117, 122.327, -151.251, 123.194, 88.252, 0, 0, 2.91167, -54.7856, 2.89393, -174.325, 2.87357, 65.1781, 0.0571781, 95.5659
0, 1860.00000, 121.582, -31.7117, 122.327, -151.251, 123.194, 88.252, 0, 0, 2.91167, -54.7856, 2.89393, -174.325, 2.87357, 65.1781, 0.0571781, 95.5659
0, 1920.00000, 121.582, -31.7117, 122.327, -151.251, 123.194, 88.252, 0, 0, 2.91167, -54.7856, 2.89393, -174.325, 2.87357, 65.1781, 0.0571781, 95.5659
0, 1980.00000, 121.582, -31.7117, 122.327, -151.251, 123.194, 88.252, 0, 0, 2.91167, -54.7856, 2.89393, -174.325, 2.87357, 65.1781, 0.0571781, 95.5659
0, 2040.00000, 121.582, -31.7117, 122.327, -151.251, 123.194, 88.252, 0, 0, 2.91167, -54.7856, 2.89393, -174.325, 2.87357, 65.1781, 0.0571781, 95.5659
0, 2100.00000, 121.582, -31.7117, 122.327, -151.251, 123.194, 88.252, 0, 0, 2.91167, -54.7856, 2.89393, -174.325, 2.87357, 65.1781, 0.0571781, 95.5659
0, 2160.00000, 121.582, -31.7117, 122.327, -151.251, 123.194, 88.252, 0, 0, 2.91167, -54.7856, 2.89393, -174.325, 2.87357, 65.1781, 0.0571781, 95.5659
0, 2220.00000, 121.582, -31.7117, 122.327, -151.251, 123.194, 88.252, 0, 0, 2.91167, -54.7856, 2.89393, -174.325, 2.87357, 65.1781, 0.0571781, 95.5659
0, 2280.00000, 121.582, -31.7117, 122.327, -151.251, 123.194, 88.252, 0, 0, 2.91167, -54.7856, 2.89393, -174.325, 2.87357, 65.1781, 0.0571781, 95.5659
0, 2340.00000, 121.582, -31.7117, 122.327, -151.251, 123.194, 88.252, 0, 0, 2.91167, -54.7856, 2.89393, -174.325, 2.87357, 65.1781, 0.0571781, 95.5659
0, 2400.00000, 121.582, -31.7117, 122.327, -151.251, 123.194, 88.252, 0, 0, 2.91167, -54.7856, 2.89393, -174.325, 2.87357, 65.1781, 0.0571781, 95.5659
0, 2460.00000, 121.582, -31.7117, 122.327, -151.251, 123.194, 88.252, 0, 0, 2.91167, -54.7856, 2.89393, -174.325, 2.87357, 65.1781, 0.0571781, 95.5659
0, 2520.00000, 121.582, -31.7117, 122.327, -151.251, 123.194, 88.252, 0, 0, 2.91167, -54.7856, 2.89393, -174.325, 2.87357, 65.1781, 0.0571781, 95.5659
0, 2580.00000, 121.582, -31.7117, 122.327, -151.251, 123.194, 88.252, 0, 0, 2.91167, -54.7856, 2.89393, -174.325, 2.87357, 65.1781, 0.0571781, 95.5659
0, 2640.00000, 121.582, -31.7117, 122.327, -151.251, 123.194, 88.252, 0, 0, 2.91167, -54.7856, 2.89393, -174.325, 2.87357, 65.1781, 0.0571781, 95.5659
0, 2700.00000, 121.582, -31.7117, 122.327, -151.251, 123.194, 88.252, 0, 0, 2.91167, -54.7856, 2.89393, -174.325, 2.87357, 65.1781, 0.0571781, 95.5659
0, 2760.00000, 122.453, -31.3723, 123.411, -151.426, 123.11, 88.2662, 0, 0, 2.89098, -54.4462, 2.86858, -174.501, 2.87552, 65.1922, 0.036241, 152.462
0, 2820.00000, 122.454, -31.3723, 123.411, -151.426, 123.11, 88.2662, 0, 0, 2.89095, -54.4463, 2.86852, -174.5, 2.87554, 65.1923, 0.0362629, 152.537
0, 2880.00000, 122.454, -31.3723, 123.411, -151.426, 123.11, 88.2662, 0, 0, 2.89095, -54.4463, 2.86852, -174.5, 2.87554, 65.1923, 0.036263, 152.538
0, 2940.00000, 122.454, -31.3723, 123.411, -151.426, 123.11, 88.2662, 0, 0, 2.89095, -54.4463, 2.86852, -174.5, 2.87554, 65.1923, 0.036263, 152.538
0, 3000.00000, 122.454, -31.3723, 123.411, -151.426, 123.11, 88.2662, 0, 0, 2.89095, -54.4463, 2.86852, -174.5, 2.87554, 65.1923, 0.036263, 152.538
0, 3060.00000, 122.454, -31.3723, 123.411, -151.426, 123.11, 88.2662, 0, 0, 2.89095, -54.4463, 2.86852, -174.5, 2.87554, 65.1923, 0.036263, 152.538
0, 3120.00000, 122.454, -31.3723, 123.411, -151.426, 123.11, 88.2662, 0, 0, 2.89095, -54.4463, 2.86852, -174.5, 2.87554, 65.1923, 0.036263, 152.538
0, 3180.00000, 122.454, -31.3723, 123.411, -151.426, 123.11, 88.2662, 0, 0, 2.89095, -54.4463, 2.86852, -174.5, 2.87554, 65.1923, 0.036263, 152.538
0, 3240.00000, 122.454, -31.3723, 123.411, -151.426, 123.11, 88.2662, 0, 0, 2.89095, -54.4463, 2.86852, -174.5, 2.87554, 65.1923, 0.036263, 152.538
0, 3300.00000, 122.454, -31.3723, 123.411, -151.426, 123.11, 88.2662, 0, 0, 2.89095, -54.4463, 2.86852, -174.5, 2.87554, 65.1923, 0.036263, 152.538
0, 3360.00000, 122.454, -31.3723, 123.411, -151.426, 123.11, 88.2662, 0, 0, 2.89095, -54.4463, 2.86852, -174.5, 2.87554, 65.1923, 0.036263, 152.538
0, 3420.00000, 122.454, -31.3723, 123.411, -151.426, 123.11, 88.2662, 0, 0, 2.89095, -54.4463, 2.86852, -174.5, 2.87554, 65.1923, 0.036263, 152.538
0, 3480.00000, 122.454, -31.3723, 123.411, -151.426, 123.11, 88.2662, 0, 0, 2.89095, -54.4463, 2.86852, -174.5, 2.87554, 65.1923, 0.036263, 152.538
0, 3540.00000, 122.454, -31.3723, 123.411, -151.426, 123.11, 88.2662, 0, 0, 2.89095, -54.4463, 2.86852, -174.5, 2.87554, 65.1923, 0.036263, 152.538
1, 0.00000, 122.454, -31.3723, 123.411, -151.426, 123.11, 88.2662, 0, 0, 2.89095, -54.4463, 2.86852, -174.5, 2.87554, 65.1923, 0.036263, 152.538
1, 60.00000, 122.936, -31.3708, 123.406, -151.425, 123.354, 88.4487, 0, 0, 2.87965, -54.4451, 2.86863, -174.499, 2.86987, 65.3747, 0.0173255, 149.134
1, 120.00000, 122.936, -31.3708, 123.406, -151.425, 123.354, 88.4487, 0, 0, 2.87959, -54.4447, 2.86864, -174.499, 2.86985, 65.3748, 0.0172739, 149.185
1, 180.00000, 122.936, -31.3708, 123.406, -151.425, 123.354, 88.4487, 0, 0, 2.87959, -54.4447, 2.86864, -174.499, 2.86985, 65.3748, 0.0172737, 149.185
1, 240.00000, 122.936, -31.3708, 123.406, -151.425, 123.354, 88.4487, 0, 0, 2.87959, -54.4447, 2.86864, -174.499, 2.86985, 65.3748, 0.0172737, 149.185
1, 300.00000, 122.936, -31.3708, 123.406, -151.425, 123.354, 88.4487, 0, 0, 2.87959, -54.4447, 2.86864, -174.499, 2.86985, 65.3748, 0.0172737, 149.185
1, 360.00000, 122.936, -31.3708, 123.406, -151.425, 123.354, 88.4487, 0, 0, 2.87959, -54.4447, 2.86864, -174.499, 2.86985, 65.3748, 0.0172737, 149.185
1, 420.00000, 122.936, -31.3708, 123.406, -151.425, 123.354, 88.4487, 0, 0, 2.87959, -54.4447, 2.86864, -174.499, 2.86985, 65.3748, 0.0172737, 149.185
1, 480.00000, 122.936, -31.3708, 123.406, -151.425, 123.354, 88.4487, 0, 0, 2.87959, -54.4447, 2.86864, -174.499, 2.86985, 65.3748, 0.0172737, 149.185
1, 540.00000, 122.936, -31.3708, 123.406, -151.425, 123.354, 88.4487, 0, 0, 2.87959, -54.4447, 2.86864, -174.499, 2.86985, 65.3748, 0.0172737, 149.185
1, 600.00000, 122.936, -31.3708, 123.406, -151.425, 123.354, 88.4487, 0, 0, 2.87959, -54.4447, 2.86864, -174.499, 2.86985, 65.3748, 0.0172737, 149.185
1, 660.00000, 122.936, -31.3708, 123.406, -151.425, 123.354, 88.4487, 0, 0, 2.87959, -54.4447, 2.86864, -174.499, 2.86985, 65.3748, 0.0172737, 149.185
1, 720.00000, 122.936, -31.3708, 123.406, -151.425, 123.354, 88.4487, 0, 0, 2.87959, -54.4447, 2.86864, -174.499, 2.86985, 65.3748, 0.0172737, 149.185
1, 780.00000, 122.936, -31.3708, 123.406, -151.425, 123.354, 88.4487, 0, 0, 2.87959, -54.4447, 2.86864, -174.499, 2.86985, 65.3748, 0.0172737, 149.185
1, 840.00000, 122.936, -31.3708, 123.406, -151.425, 123.354, 88.4487, 0, 0, 2.87959, -54.4447, 2.86864, -174.499, 2.86985, 65.3748, 0.0172737, 149.185
1, 900.00000, 122.936, -31.3708, 123.406, -151.425, 123.354, 88.4487, 0, 0, 2.87959, -54.4447, 2.86864, -174.499, 2.86985, 65.3748, 0.0172737, 149.185
1, 960.00000, 122.936, -31.3708, 123.406, -151.425, 123.354, 88.4487, 0, 0, 2.87959, -54.4447, 2.86864, -174.499, 2.86985, 65.3748, 0.0172737, 149.185
1, 1020.00000, 122.936, -31.3708, 123.406, -151.425, 123.354, 88.4487, 0, 0, 2.87959, -54.4447, 2.86864, -174.499, 2.86985, 65.3748, 0.0172737, 149.185
1, 1080.00000, 122.936, -31.3708, 123.406, -151.425, 123.354, 88.4487, 0, 0, 2.87959, -54.4447, 2.86864, -174.499, 2.86985, 65.3748, 0.0172737, 149.185
1, 1140.00000, 122.936, -31.3708, 123.406, -151.425, 123.354, 88.4487, 0, 0, 2.87959, -54.4447, 2.86864, -174.499, 2.86985, 65.3748, 0.0172737, 149.185
1, 1200.00000, 122.936, -31.3708, 123.406, -151.425, 123.354, 88.4487, 0, 0, 2.87959, -54.4447, 2.86864, -174.499, 2.86985, 65.3748, 0.0172737, 149.185
1, 1260.00000, 122.936, -31.3708, 123.406, -151.425, 123.354, 88.4487, 0, 0, 2.87959, -54.4447, 2.86864, -174.499, 2.86985, 65.3748, 0.0172737, 149.185
1, 1320.00000, 122.936, -31.3708, 123.406, -151.425, 123.354, 88.4487, 0, 0, 2.87959, -54.4447, 2.86864, -174.499, 2.86985, 65.3748, 0.0172737, 149.185
1, 1380.00000, 122.936, -31.3708, 123.406, -151.425, 123.354, 88.4487, 0, 0, 2.87959, -54.4447, 2.86864, -174.499, 2.86985, 65.3748, 0.0172737, 149.185
1, 1440.00000, 122.936, -31.3708, 123.406, -151.425, 123.354, 88.4487, 0, 0, 2.87959, -54.4447, 2.86864, -174.499, 2.86985, 65.3748, 0.0172737, 149.185
1, 1500.00000, 122.936, -31.3708, 123.406, -151.425, 123.354, 88.4487, 0, 0, 2.87959, -54.4447, 2.86864, -174.499, 2.86985, 65.3748, 0.0172737, 149.185
1, 1560.00000, 122.936, -31.3708, 123.406, -151.425, 123.354, 88.4487, 0, 0, 2.87959, -54.4447, 2.86864, -174.499, 2.86985, 65.3748, 0.0172737, 149.185
1, 1620.00000, 122.936, -31.3708, 123.406, -151.425, 123.354, 88.4487, 0, 0, 2.87959, -54.4447, 2.86864, -174.499, 2.86985, 65.3748, 0.0172737, 149.185
1, 1680.00000, 122.936, -31.3708, 123.406, -151.425, 123.354, 88.4487, 0, 0, 2.87959, -54.4447, 2.86864, -174.499, 2.86985, 65.3748, 0.0172737, 149.185
1, 1740.00000, 122.936, -31.3708, 123.406, -151.425, 123.354, 88.4487, 0, 0, 2.87959, -54.4447, 2.86864, -174.499, 2.86985, 65.3748, 0.0172737, 149.185
1, 1800.00000, 122.936, -31.3708, 123.406, -151.425, 123.354, 88.4487, 0, 0, 2.87959, -54.4447, 2.86864, -174.499, 2.86985, 65.3748, 0.0172737, 149.185
1, 1860.00000, 122.936, -31.3708, 123.406, -151.425, 123.354, 88.4487, 0, 0, 2.87959, -54.4447, 2.86864, -174.499, 2.86985, 65.3748, 0.0172737, 149.185
1, 1920.00000, 122.936, -31.3708, 123.406, -151.425, 123.354, 88.4487, 0, 0, 2.87959, -54.4447, 2.86864, -174.499, 2.86985, 65.3748, 0.0172737, 149.185
1, 1980.00000, 122.936, -31.3708, 123.406, -151.425, 123.354, 88.4487, 0, 0, 2.87959, -54.4447, 2.86864, -174.499, 2.86985, 65.3748, 0.0172737, 149.185
1, 2040.00000, 122.936, -31.3708, 123.406, -151.425, 123.354, 88.4487, 0, 0, 2.87959, -54.4447, 2.86864, -174.499, 2.86985, 65.3748, 0.0172737, 149.185
1, 2100.00000, 122.936, -31.3708, 123.406, -151.425, 123.354, 88.4487, 0, 0, 2.87959, -54.4447, 2.86864, -174.499, 2.86985, 65.3748, 0.0172737, 149.185
1, 2160.00000, 122.936, -31.3708, 123.406, -151.425, 123.354, 88.4487, 0, 0, 2.87959, -54.4447, 2.86864, -174.499, 2.86985, 65.3748, 0.0172737, 149.185
1, 2220.00000, 122.936, -31.3708, 123.406, -151.425, 123.354, 88.4487, 0, 0, 2.87959, -54.4447, 2.86864, -174.499, 2.86985, 65.3748, 0.0172737, 149.185
1, 2280.00000, 122.936, -31.3708, 123.406, -151.425, 123.354, 88.4487, 0, 0, 2.87959, -54.4447, 2.86864, -174.499, 2.86985, 65.3748, 0.0172737, 149.185
1, 2340.00000, 122.936, -31.3708, 123.406, -151.425, 123.354, 88.4487, 0, 0, 2.87959, -54.4447, 2.86864, -174.499, 2.86985, 65.3748, 0.0172737, 149.185
1, 2400.00000, 122.936, -31.3708, 123.406, -151.425, 123.354, 88.4487, 0, 0, 2.87959, -54.4447, 2.86864, -174.499, 2.86985, 65.3748, 0.0172737, 149.185
1, 2460.00000, 122.936, -31.3708, 123.406, -151.425, 123.354, 88.4487, 0, 0, 2.87959, -54.4447, 2.86864, -174.499, 2.86985, 65.3748, 0.0172737, 149.185
1, 2520.00000, 122.936, -31.3708, 123.406, -151.425, 123.354, 88.4487, 0, 0, 2.87959, -54.4447, 2.86864, -174.499, 2.86985, 65.3748, 0.0172737, 149.185
1, 2580.00000, 122.936, -31.3708, 123.406, -151.425, 123.354, 88.4487, 0, 0, 2.87959, -54.4447, 2.86864, -174.499, 2.86985, 65.3748, 0.0172737, 149.185
1, 2640.00000, 122.936, -31.3708, 123.406, -151.425, 123.354, 88.4487, 0, 0, 2.87959, -54.4447, 2.86864, -174.499, 2.86985, 65.3748, 0.0172737, 149.185
1, 2700.00000, 122.936, -31.3708, 123.406, -151.425, 123.354, 88.4487, 0, 0, 2.87959, -54.4447, 2.86864, -174.499, 2.86985, 65.3748, 0.0172737, 149.185
1, 2760.00000, 122.936, -31.3708, 123.406, -151.425, 123.354, 88.4487, 0, 0, 2.87959, -54.4447, 2.86864, -174.499, 2.86985, 65.3748, 0.0172737, 149.185
1, 2820.00000, 122.936, -31.3708, 123.406, -151.425, 123.354, 88.4487, 0, 0, 2.87959, -54.4447, 2.86864, -174.499, 2.86985, 65.3748, 0.0172737, 149.185
1, 2880.00000, 122.936, -31.3708, 123.406, -151.425, 123.354, 88.4487, 0, 0, 2.87959, -54.4447, 2.86864, -174.499, 2.86985, 65.3748, 0.0172737, 149.185
1, 2940.00000, 122.936, -31.3708, 123.406, -151.425, 123.354, 88.4487, 0, 0, 2.87959, -54.4447, 2.86864, -174.499, 2.86985, 65.3748, 0.0172737, 149.185
1, 3000.00000, 122.936, -31.3708, 123.406, -151.425, 123.354, 88.4487, 0, 0, 2.87959, -54.4447, 2.86864, -174.499, 2.86985, 65.3748, 0.0172737, 149.185
1, 3060.00000, 122.936, -31.3708, 123.406, -151.425, 123.354, 88.4487, 0, 0, 2.87959, -54.4447, 2.86864, -174.499, 2.86985, 65.3748, 0.0172737, 149.185
1, 3120.00000, 122.936, -31.3708, 123.406, -151.425, 123.354, 88.4487, 0, 0, 2.87959, -54.4447, 2.86864, -174.499, 2.86985, 65.3748, 0.0172737, 149.185
1, 3180.00000, 122.936, -31.3708, 123.406, -151.425, 123.354, 88.4487, 0, 0, 2.87959, -54.4447, 2.86864, -174.499, 2.86985, 65.3748, 0.0172737, 149.185
1, 3240.00000, 122.936, -31.3708, 123.406, -151.425, 123.354, 88.4487, 0, 0, 2.87959, -54.4447, 2.86864, -174.499, 2.86985, 65.3748, 0.0172737, 149.185
1, 3300.00000, 122.936, -31.3708, 123.406, -151.425, 123.354, 88.4487, 0, 0, 2.87959, -54.4447, 2.86864, -174.499, 2.86985, 65.3748, 0.0172737, 149.185
1, 3360.00000, 122.936, -31.3708, 123.406, -151.425, 123.354, 88.4487, 0, 0, 2.87959, -54.4447, 2.86864, -174.499, 2.86985, 65.3748, 0.0172737, 149.185
1, 3420.00000, 122.936, -31.3708, 123.406, -151.425, 123.354, 88.4487, 0, 0, 2.87959, -54.4447, 2.86864, -174.499, 2.86985, 65.3748, 0.0172737, 149.185
1, 3480.00000, 122.936, -31.3708, 123.406, -151.425, 123.354, 88.4487, 0, 0, 2.87959, -54.4447, 2.86864, -174.499, 2.86985, 65.3748, 0.0172737, 149.185
1, 3540.00000, 122.936, -31.3708, 123.406, -151.425, 123.354, 88.4487, 0, 0, 2.87959, -54.4447, 2.86864, -174.499, 2.86985, 65.3748, 0.0172737, 149.185
2, 0.00000, 122.936, -31.3708, 123.406, -151.425, 123.354, 88.4487, 0, 0, 2.87959, -54.4447, 2.86864, -174.499, 2.86985, 65.3748, 0.0172737, 149.185
2, 60.00000, 122.936, -31.3708, 123.406, -151.425, 123.354, 88.4487, 0, 0, 2.87959, -54.4447, 2.86864, -174.499, 2.86985, 65.3748, 0.0172737, 149.185
2, 120.00000, 122.936, -31.3708, 123.406, -151.425, 123.354, 88.4487, 0, 0, 2.87959, -54.4447, 2.86864, -174.499, 2.86985, 65.3748, 0.0172737, 149.185
2, 180.00000, 122.936, -31.3708, 123.406, -151.425, 123.354, 88.4487, 0, 0, 2.87959, -54.4447, 2.86864, -174.499, 2.86985, 65.3748, 0.0172737, 149.185
2, 240.00000, 122.936, -31.3708, 123.406, -151.425, 123.354, 88.4487, 0, 0, 2.87959, -54.4447, 2.86864, -174.499, 2.86985, 65.3748, 0.0172737, 149.185
2, 300.00000, 122.936, -31.3708, 123.406, -151.425, 123.354, 88.4487, 0, 0, 2.87959, -54.4447, 2.86864, -174.499, 2.86985, 65.3748, 0.0172737, 149.185
2, 360.00000, 122.936, -31.3708, 123.406, -151.425, 123.354, 88.4487, 0, 0, 2.87959, -54.4447, 2.86864, -174.499, 2.86985, 65.3748, 0.0172737, 149.185
2, 420.00000, 122.936, -31.3708, 123.406, -151.425, 123.354, 88.4487, 0, 0, 2.87959, -54.4447, 2.86864, -174.499, 2.86985, 65.3748, 0.0172737, 149.185
2, 480.00000, 122.936, -31.3708, 123.406, -151.425, 123.354, 88.4487, 0, 0, 2.87959, -54.4447, 2.86864, -174.499, 2.86985, 65.3748, 0.0172737, 149.185
2, 540.00000, 122.936, -31.3708, 123.406, -151.425, 123.354, 88.4487, 0, 0, 2.87959, -54.4447, 2.86864, -174.499, 2.86985, 65.3748, 0.0172737, 149.185
2, 600.00000, 122.936, -31.3708, 123.406, -151.425, 123.354, 88.4487, 0, 0, 2.87959, -54.4447, 2.86864, -174.499, 2.86985, 65.3748, 0.0172737, 149.185
2, 660.00000, 122.936, -31.3708, 123.406, -151.425, 123.354, 88.4487, 0, 0, 2.87959, -54.4447, 2.86864, -174.499, 2.86985, 65.3748, 0.0172737, 149.185
2, 720.00000, 122.936, -31.3708, 123.406, -151.425, 123.354, 88.4487, 0, 0, 2.87959, -54.4447, 2.86864, -174.499, 2.86985, 65.3748, 0.0172737, 149.185
