hour,t(sec),V1,VAngle1,V2,VAngle2,V3,VAngle3,V4,VAngle4,I1,IAngle1,I2,IAngle2,I3,IAngle3,I4,IAngle4
0, 60.00000, 118.166, -31.032, 118.197, -150.696, 119.451, 89.141, 0, 0, 2.91462, -54.1054, 2.91549, -173.77, 2.94991, 66.0676, 0.0200974, -111.039
0, 120.00000, 118.166, -31.0321, 118.197, -150.696, 119.451, 89.141, 0, 0, 2.91459, -54.106, 2.91545, -173.769, 2.9498, 66.067, 0.0199924, -111.092
0, 180.00000, 118.166, -31.0321, 118.197, -150.696, 119.451, 89.141, 0, 0, 2.91459, -54.106, 2.91545, -173.769, 2.9498, 66.067, 0.0199906, -111.092
0, 240.00000, 118.166, -31.0321, 118.197, -150.696, 119.451, 89.141, 0, 0, 2.91459, -54.106, 2.91545, -173.769, 2.9498, 66.067, 0.0199906, -111.092
0, 300.00000, 118.166, -31.0321, 118.197, -150.696, 119.451, 89.141, 0, 0, 2.91459, -54.106, 2.91545, -173.769, 2.9498, 66.067, 0.0199906, -111.092
0, 360.00000, 118.166, -31.0321, 118.197, -150.696, 119.451, 89.141, 0, 0, 2.91459, -54.106, 2.91545, -173.769, 2.9498, 66.067, 0.0199906, -111.092
0, 420.00000, 118.166, -31.0321, 118.197, -150.696, 119.451, 89.141, 0, 0, 2.91459, -54.106, 2.91545, -173.769, 2.9498, 66.067, 0.0199906, -111.092
0, 480.00000, 118.166, -31.0321, 118.197, -150.696, 119.451, 89.141, 0, 0, 2.91459, -54.106, 2.91545, -173.769, 2.9498, 66.067, 0.0199906, -111.092
0, 540.00000, 118.166, -31.0321, 118.197, -150.696, 119.451, 89.141, 0, 0, 2.91459, -54.106, 2.91545, -173.769, 2.9498, 66.067, 0.0199906, -111.092
0, 600.00000, 118.166, -31.0321, 118.197, -150.696, 119.451, 89.141, 0, 0, 2.91459, -54.106, 2.91545, -173.769, 2.9498, 66.067, 0.0199906, -111.092
0, 660.00000, 118.166, -31.0321, 118.197, -150.696, 119.451, 89.141, 0, 0, 2.91459, -54.106, 2.91545, -173.769, 2.9498, 66.067, 0.0199906, -111.092
0, 720.00000, 118.166, -31.0321, 118.197, -150.696, 119.451, 89.141, 0, 0, 2.91459, -54.106, 2.91545, -173.769, 2.9498, 66.067, 0.0199906, -111.092
0, 780.00000, 118.166, -31.0321, 118.197, -150.696, 119.451, 89.141, 0, 0, 2.91459, -54.106, 2.91545, -173.769, 2.9498, 66.067, 0.0199906, -111.092
0, 840.00000, 118.166, -31.0321, 118.197, -150.696, 119.451, 89.141, 0, 0, 2.91459, -54.106, 2.91545, -173.769, 2.9498, 66.067, 0.0199906, -111.092
0, 900.00000, 118.166, -31.0321, 118.197, -150.696, 119.451, 89.141, 0, 0, 2.91459, -54.106, 2.91545, -173.769, 2.9498, 66.067, 0.0199906, -111.092
0, 960.00000, 117.888, -31.0514, 117.93, -150.714, 119.187, 89.117, 0, 0, 3.35873, -54.1253, 3.36005, -173.788, 3.39984, 66.0432, 0.0233772, -111.158
0, 1020.00000, 117.888, -31.0515, 117.93, -150.714, 119.187, 89.117, 0, 0, 3.35871, -54.1254, 3.36004, -173.788, 3.39982, 66.0431, 0.0233689, -111.16
0, 1080.00000, 117.888, -31.0515, 117.93, -150.714, 119.187, 89.117, 0, 0, 3.35871, -54.1254, 3.36004, -173.788, 3.39982, 66.0431, 0.0233689, -111.16
0, 1140.00000, 117.888, -31.0515, 117.93, -150.714, 119.187, 89.117, 0, 0, 3.35871, -54.1254, 3.36004, -173.788, 3.39982, 66.0431, 0.0233689, -111.16
0, 1200.00000, 117.888, -31.0515, 117.93, -150.714, 119.187, 89.117, 0, 0, 3.35871, -54.1254, 3.36004, -173.788, 3.39982, 66.0431, 0.0233689, -111.16
0, 1260.00000, 117.888, -31.0515, 117.93, -150.714, 119.187, 89.117, 0, 0, 3.35871, -54.1254, 3.36004, -173.788, 3.39982, 66.0431, 0.0233689, -111.16
0, 1320.00000, 117.888, -31.0515, 117.93, -150.714, 119.187, 89.117, 0, 0, 3.35871, -54.1254, 3.36004, -173.788, 3.39982, 66.0431, 0.0233689, -111.16
0, 1380.00000, 117.888, -31.0515, 117.93, -150.714, 119.187, 89.117, 0, 0, 3.35871, -54.1254, 3.36004, -173.788, 3.39982, 66.0431, 0.0233689, -111.16
0, 1440.00000, 117.888, -31.0515, 117.93, -150.714, 119.187, 89.117, 0, 0, 3.35871, -54.1254, 3.36004, -173.788, 3.39982, 66.0431, 0.0233689, -111.16
0, 1500.00000, 117.888, -31.0515, 117.93, -150.714, 119.187, 89.117, 0, 0, 3.35871, -54.1254, 3.36004, -173.788, 3.39982, 66.0431, 0.0233689, -111.16
0, 1560.00000, 117.888, -31.0515, 117.93, -150.714, 119.187, 89.117, 0, 0, 3.35871, -54.1254, 3.36004, -173.788, 3.39982, 66.0431, 0.0233689, -111.16
0, 1620.00000, 117.888, -31.0515, 117.93, -150.714, 119.187, 89.117, 0, 0, 3.35871, -54.1254, 3.36004, -173.788, 3.39982, 66.0431, 0.0233689, -111.16
0, 1680.00000, 117.888, -31.0515, 117.93, -150.714, 119.187, 89.117, 0, 0, 3.35871, -54.1254, 3.36004, -173.788, 3.39982, 66.0431, 0.0233689, -111.16
0, 1740.00000, 117.888, -31.0515, 117.93, -150.714, 119.187, 89.117, 0, 0, 3.35871, -54.1254, 3.36004, -173.788, 3.39982, 66.0431, 0.0233689, -111.16
0, 1800.00000, 117.888, -31.0515, 117.93, -150.714, 119.187, 89.117, 0, 0, 3.35871, -54.1254, 3.36004, -173.788, 3.39982, 66.0431, 0.0233689, -111.16
0, 1860.00000, 118.135, -31.0431, 118.166, -150.706, 119.419, 89.1293, 0, 0, 3.06224, -54.1183, 3.06314, -173.781, 3.0992, 66.0545, 0.0209344, -111.195
0, 1920.00000, 118.135, -31.0431, 118.166, -150.706, 119.42, 89.1294, 0, 0, 3.06238, -54.117, 3.06329, -173.78, 3.09938, 66.0554, 0.0210003, -111.202
0, 1980.00000, 118.135, -31.0431, 118.166, -150.706, 119.42, 89.1294, 0, 0, 3.06238, -54.117, 3.06329, -173.78, 3.09938, 66.0554, 0.0210007, -111.202
0, 2040.00000, 118.135, -31.0431, 118.166, -150.706, 119.42, 89.1294, 0, 0, 3.06238, -54.117, 3.06329, -173.78, 3.09938, 66.0554, 0.0210007, -111.202
0, 2100.00000, 118.135, -31.0431, 118.166, -150.706, 119.42, 89.1294, 0, 0, 3.06238, -54.117, 3.06329, -173.78, 3.09938, 66.0554, 0.0210007, -111.202
0, 2160.00000, 118.135, -31.0431, 118.166, -150.706, 119.42, 89.1294, 0, 0, 3.06238, -54.117, 3.06329, -173.78, 3.09938, 66.0554, 0.0210007, -111.202
0, 2220.00000, 118.135, -31.0431, 118.166, -150.706, 119.42, 89.1294, 0, 0, 3.06238, -54.117, 3.06329, -173.78, 3.09938, 66.0554, 0.0210007, -111.202
0, 2280.00000, 118.135, -31.0431, 118.166, -150.706, 119.42, 89.1294, 0, 0, 3.06238, -54.117, 3.06329, -173.78, 3.09938, 66.0554, 0.0210007, -111.202
0, 2340.00000, 118.135, -31.0431, 118.166, -150.706, 119.42, 89.1294, 0, 0, 3.06238, -54.117, 3.06329, -173.78, 3.09938, 66.0554, 0.0210007, -111.202
0, 2400.00000, 118.135, -31.0431, 118.166, -150.706, 119.42, 89.1294, 0, 0, 3.06238, -54.117, 3.06329, -173.78, 3.09938, 66.0554, 0.0210007, -111.202
0, 2460.00000, 118.135, -31.0431, 118.166, -150.706, 119.42, 89.1294, 0, 0, 3.06238, -54.117, 3.06329, -173.78, 3.09938, 66.0554, 0.0210007, -111.202
0, 2520.00000, 118.135, -31.0431, 118.166, -150.706, 119.42, 89.1294, 0, 0, 3.06238, -54.117, 3.06329, -173.78, 3.09938, 66.0554, 0.0210007, -111.202
0, 2580.00000, 118.135, -31.0431, 118.166, -150.706, 119.42, 89.1294, 0, 0, 3.06238, -54.117, 3.06329, -173.78, 3.09938, 66.0554, 0.0210007, -111.202
0, 2640.00000, 118.135, -31.0431, 118.166, -150.706, 119.42, 89.1294, 0, 0, 3.06238, -54.117, 3.06329, -173.78, 3.09938, 66.0554, 0.0210007, -111.202
0, 2700.00000, 118.135, -31.0431, 118.166, -150.706, 119.42, 89.1294, 0, 0, 3.06238, -54.117, 3.06329, -173.78, 3.09938, 66.0554, 0.0210007, -111.202
0, 2760.00000, 118.502, -31.0137, 118.518, -150.679, 119.774, 89.1648, 0, 0, 2.9807, -54.0879, 2.98115, -173.753, 3.0162, 66.0906, 0.020232, -111.152
0, 2820.00000, 118.502, -31.0136, 118.518, -150.679, 119.775, 89.1648, 0, 0, 2.98071, -54.0876, 2.98117, -173.753, 3.01626, 66.0909, 0.0202978, -111.132
0, 2880.00000, 118.502, -31.0136, 118.518, -150.679, 119.775, 89.1648, 0, 0, 2.98071, -54.0875, 2.98117, -173.753, 3.01626, 66.0909, 0.020299, -111.132
0, 2940.00000, 118.502, -31.0136, 118.518, -150.679, 119.775, 89.1648, 0, 0, 2.98071, -54.0875, 2.98117, -173.753, 3.01626, 66.0909, 0.020299, -111.132
0, 3000.00000, 118.502, -31.0136, 118.518, -150.679, 119.775, 89.1648, 0, 0, 2.98071, -54.0875, 2.98117, -173.753, 3.01626, 66.0909, 0.020299, -111.132
0, 3060.00000, 118.502, -31.0136, 118.518, -150.679, 119.775, 89.1648, 0, 0, 2.98071, -54.0875, 2.98117, -173.753, 3.01626, 66.0909, 0.020299, -111.132
0, 3120.00000, 118.502, -31.0136, 118.518, -150.679, 119.775, 89.1648, 0, 0, 2.98071, -54.0875, 2.98117, -173.753, 3.01626, 66.0909, 0.020299, -111.132
0, 3180.00000, 118.502, -31.0136, 118.518, -150.679, 119.775, 89.1648, 0, 0, 2.98071, -54.0875, 2.98117, -173.753, 3.01626, 66.0909, 0.020299, -111.132
0, 3240.00000, 118.502, -31.0136, 118.518, -150.679, 119.775, 89.1648, 0, 0, 2.98071, -54.0875, 2.98117, -173.753, 3.01626, 66.0909, 0.020299, -111.132
0, 3300.00000, 118.502, -31.0136, 118.518, -150.679, 119.775, 89.1648, 0, 0, 2.98071, -54.0875, 2.98117, -173.753, 3.01626, 66.0909, 0.020299, -111.132
0, 3360.00000, 118.502, -31.0136, 118.518, -150.679, 119.775, 89.1648, 0, 0, 2.98071, -54.0875, 2.98117, -173.753, 3.01626, 66.0909, 0.020299, -111.132
0, 3420.00000, 118.502, -31.0136, 118.518, -150.679, 119.775, 89.1648, 0, 0, 2.98071, -54.0875, 2.98117, -173.753, 3.01626, 66.0909, 0.020299, -111.132
0, 3480.00000, 118.502, -31.0136, 118.518, -150.679, 119.775, 89.1648, 0, 0, 2.98071, -54.0875, 2.98117, -173.753, 3.01626, 66.0909, 0.020299, -111.132
0, 3540.00000, 118.502, -31.0136, 118.518, -150.679, 119.775, 89.1648, 0, 0, 2.98071, -54.0875, 2.98117, -173.753, 3.01626, 66.0909, 0.020299, -111.132
1, 0.00000, 118.502, -31.0136, 118.518, -150.679, 119.775, 89.1648, 0, 0, 2.98071, -54.0875, 2.98117, -173.753, 3.01626, 66.0909, 0.020299, -111.132
1, 60.00000, 118.785, -30.994, 118.791, -150.663, 120.059, 89.189, 0, 0, 2.68335, -54.0682, 2.68349, -173.737, 2.71522, 66.1148, 0.0183989, -110.957
1, 120.00000, 118.785, -30.9939, 118.791, -150.663, 120.059, 89.189, 0, 0, 2.68335, -54.0679, 2.6835, -173.737, 2.7153, 66.1151, 0.0184956, -110.916
1, 180.00000, 118.785, -30.9939, 118.791, -150.663, 120.059, 89.189, 0, 0, 2.68335, -54.0679, 2.6835, -173.737, 2.7153, 66.1151, 0.0184974, -110.915
1, 240.00000, 118.785, -30.9939, 118.791, -150.663, 120.059, 89.189, 0, 0, 2.68335, -54.0679, 2.6835, -173.737, 2.7153, 66.1151, 0.0184975, -110.915
1, 300.00000, 118.785, -30.9939, 118.791, -150.663, 120.059, 89.189, 0, 0, 2.68335, -54.0679, 2.6835, -173.737, 2.7153, 66.1151, 0.0184975, -110.915
1, 360.00000, 118.785, -30.9939, 118.791, -150.663, 120.059, 89.189, 0, 0, 2.68335, -54.0679, 2.6835, -173.737, 2.7153, 66.1151, 0.0184975, -110.915
1, 420.00000, 118.785, -30.9939, 118.791, -150.663, 120.059, 89.189, 0, 0, 2.68335, -54.0679, 2.6835, -173.737, 2.7153, 66.1151, 0.0184975, -110.915
1, 480.00000, 118.785, -30.9939, 118.791, -150.663, 120.059, 89.189, 0, 0, 2.68335, -54.0679, 2.6835, -173.737, 2.7153, 66.1151, 0.0184975, -110.915
1, 540.00000, 118.785, -30.9939, 118.791, -150.663, 120.059, 89.189, 0, 0, 2.68335, -54.0679, 2.6835, -173.737, 2.7153, 66.1151, 0.0184975, -110.915
1, 600.00000, 118.785, -30.9939, 118.791, -150.663, 120.059, 89.189, 0, 0, 2.68335, -54.0679, 2.6835, -173.737, 2.7153, 66.1151, 0.0184975, -110.915
1, 660.00000, 118.785, -30.9939, 118.791, -150.663, 120.059, 89.189, 0, 0, 2.68335, -54.0679, 2.6835, -173.737, 2.7153, 66.1151, 0.0184975, -110.915
1, 720.00000, 118.785, -30.9939, 118.791, -150.663, 120.059, 89.189, 0, 0, 2.68335, -54.0679, 2.6835, -173.737, 2.7153, 66.1151, 0.0184975, -110.915
1, 780.00000, 118.785, -30.9939, 118.791, -150.663, 120.059, 89.189, 0, 0, 2.68335, -54.0679, 2.6835, -173.737, 2.7153, 66.1151, 0.0184975, -110.915
1, 840.00000, 118.785, -30.9939, 118.791, -150.663, 120.059, 89.189, 0, 0, 2.68335, -54.0679, 2.6835, -173.737, 2.7153, 66.1151, 0.0184975, -110.915
1, 900.00000, 118.785, -30.9939, 118.791, -150.663, 120.059, 89.189, 0, 0, 2.68335, -54.0679, 2.6835, -173.737, 2.7153, 66.1151, 0.0184975, -110.915
1, 960.00000, 118.822, -30.9905, 118.827, -150.661, 120.096, 89.1929, 0, 0, 2.79971, -54.065, 2.79982, -173.734, 2.83296, 66.1186, 0.0192377, -110.944
1, 1020.00000, 118.822, -30.9905, 118.827, -150.661, 120.097, 89.193, 0, 0, 2.79973, -54.0644, 2.79985, -173.734, 2.83308, 66.119, 0.0193626, -110.896
1, 1080.00000, 118.822, -30.9905, 118.827, -150.661, 120.097, 89.193, 0, 0, 2.79973, -54.0644, 2.79985, -173.734, 2.83308, 66.119, 0.0193648, -110.895
1, 1140.00000, 118.822, -30.9905, 118.827, -150.661, 120.097, 89.193, 0, 0, 2.79973, -54.0644, 2.79985, -173.734, 2.83308, 66.119, 0.0193648, -110.895
1, 1200.00000, 118.822, -30.9905, 118.827, -150.661, 120.097, 89.193, 0, 0, 2.79973, -54.0644, 2.79985, -173.734, 2.83308, 66.119, 0.0193648, -110.895
1, 1260.00000, 118.822, -30.9905, 118.827, -150.661, 120.097, 89.193, 0, 0, 2.79973, -54.0644, 2.79985, -173.734, 2.83308, 66.119, 0.0193648, -110.895
1, 1320.00000, 118.822, -30.9905, 118.827, -150.661, 120.097, 89.193, 0, 0, 2.79973, -54.0644, 2.79985, -173.734, 2.83308, 66.119, 0.0193648, -110.895
1, 1380.00000, 118.822, -30.9905, 118.827, -150.661, 120.097, 89.193, 0, 0, 2.79973, -54.0644, 2.79985, -173.734, 2.83308, 66.119, 0.0193648, -110.895
1, 1440.00000, 118.822, -30.9905, 118.827, -150.661, 120.097, 89.193, 0, 0, 2.79973, -54.0644, 2.79985, -173.734, 2.83308, 66.119, 0.0193648, -110.895
1, 1500.00000, 118.822, -30.9905, 118.827, -150.661, 120.097, 89.193, 0, 0, 2.79973, -54.0644, 2.79985, -173.734, 2.83308, 66.119, 0.0193648, -110.895
1, 1560.00000, 118.822, -30.9905, 118.827, -150.661, 120.097, 89.193, 0, 0, 2.79973, -54.0644, 2.79985, -173.734, 2.83308, 66.119, 0.0193648, -110.895
1, 1620.00000, 118.822, -30.9905, 118.827, -150.661, 120.097, 89.193, 0, 0, 2.79973, -54.0644, 2.79985, -173.734, 2.83308, 66.119, 0.0193648, -110.895
1, 1680.00000, 118.822, -30.9905, 118.827, -150.661, 120.097, 89.193, 0, 0, 2.79973, -54.0644, 2.79985, -173.734, 2.83308, 66.119, 0.0193648, -110.895
1, 1740.00000, 118.822, -30.9905, 118.827, -150.661, 120.097, 89.193, 0, 0, 2.79973, -54.0644, 2.79985, -173.734, 2.83308, 66.119, 0.0193648, -110.895
1, 1800.00000, 118.822, -30.9905, 118.827, -150.661, 120.097, 89.193, 0, 0, 2.79973, -54.0644, 2.79985, -173.734, 2.83308, 66.119, 0.0193648, -110.895
1, 1860.00000, 118.648, -31.0162, 118.658, -150.683, 119.917, 89.1645, 0, 0, 2.58066, -54.0898, 2.58091, -173.757, 2.61137, 66.0908, 0.0176341, -111.088
1, 1920.00000, 118.648, -31.0162, 118.658, -150.683, 119.916, 89.1645, 0, 0, 2.58065, -54.0901, 2.58091, -173.757, 2.6113, 66.0906, 0.0175458, -111.127
1, 1980.00000, 118.648, -31.0162, 118.658, -150.683, 119.916, 89.1645, 0, 0, 2.58066, -54.0901, 2.58091, -173.757, 2.6113, 66.0905, 0.0175441, -111.128
1, 2040.00000, 118.648, -31.0162, 118.658, -150.683, 119.916, 89.1645, 0, 0, 2.58066, -54.0901, 2.58091, -173.757, 2.6113, 66.0905, 0.0175441, -111.128
1, 2100.00000, 118.648, -31.0162, 118.658, -150.683, 119.916, 89.1645, 0, 0, 2.58066, -54.0901, 2.58091, -173.757, 2.6113, 66.0905, 0.0175441, -111.128
1, 2160.00000, 118.648, -31.0162, 118.658, -150.683, 119.916, 89.1645, 0, 0, 2.58066, -54.0901, 2.58091, -173.757, 2.6113, 66.0905, 0.0175441, -111.128
1, 2220.00000, 118.648, -31.0162, 118.658, -150.683, 119.916, 89.1645, 0, 0, 2.58066, -54.0901, 2.58091, -173.757, 2.6113, 66.0905, 0.0175441, -111.128
1, 2280.00000, 118.648, -31.0162, 118.658, -150.683, 119.916, 89.1645, 0, 0, 2.58066, -54.0901, 2.58091, -173.757, 2.6113, 66.0905, 0.0175441, -111.128
1, 2340.00000, 118.648, -31.0162, 118.658, -150.683, 119.916, 89.1645, 0, 0, 2.58066, -54.0901, 2.58091, -173.757, 2.6113, 66.0905, 0.0175441, -111.128
1, 2400.00000, 118.648, -31.0162, 118.658, -150.683, 119.916, 89.1645, 0, 0, 2.58066, -54.0901, 2.58091, -173.757, 2.6113, 66.0905, 0.0175441, -111.128
1, 2460.00000, 118.648, -31.0162, 118.658, -150.683, 119.916, 89.1645, 0, 0, 2.58066, -54.0901, 2.58091, -173.757, 2.6113, 66.0905, 0.0175441, -111.128
1, 2520.00000, 118.648, -31.0162, 118.658, -150.683, 119.916, 89.1645, 0, 0, 2.58066, -54.0901, 2.58091, -173.757, 2.6113, 66.0905, 0.0175441, -111.128
1, 2580.00000, 118.648, -31.0162, 118.658, -150.683, 119.916, 89.1645, 0, 0, 2.58066, -54.0901, 2.58091, -173.757, 2.6113, 66.0905, 0.0175441, -111.128
1, 2640.00000, 118.648, -31.0162, 118.658, -150.683, 119.916, 89.1645, 0, 0, 2.58066, -54.0901, 2.58091, -173.757, 2.6113, 66.0905, 0.0175441, -111.128
1, 2700.00000, 118.648, -31.0162, 118.658, -150.683, 119.916, 89.1645, 0, 0, 2.58066, -54.0901, 2.58091, -173.757, 2.6113, 66.0905, 0.0175441, -111.128
1, 2760.00000, 119.086, -30.9717, 119.084, -150.645, 120.364, 89.2165, 0, 0, 2.94899, -54.0461, 2.94892, -173.718, 2.98398, 66.142, 0.0204665, -110.502
1, 2820.00000, 119.085, -30.9716, 119.085, -150.645, 120.365, 89.2166, 0, 0, 2.94899, -54.0455, 2.94896, -173.719, 2.98415, 66.1426, 0.0206669, -110.357
1, 2880.00000, 119.085, -30.9716, 119.085, -150.645, 120.365, 89.2166, 0, 0, 2.94899, -54.0455, 2.94896, -173.719, 2.98416, 66.1426, 0.0206707, -110.354
1, 2940.00000, 119.085, -30.9716, 119.085, -150.645, 120.365, 89.2166, 0, 0, 2.94899, -54.0455, 2.94896, -173.719, 2.98416, 66.1426, 0.0206708, -110.354
1, 3000.00000, 119.085, -30.9716, 119.085, -150.645, 120.365, 89.2166, 0, 0, 2.94899, -54.0455, 2.94896, -173.719, 2.98416, 66.1426, 0.0206708, -110.354
1, 3060.00000, 119.085, -30.9716, 119.085, -150.645, 120.365, 89.2166, 0, 0, 2.94899, -54.0455, 2.94896, -173.719, 2.98416, 66.1426, 0.0206708, -110.354
1, 3120.00000, 119.085, -30.9716, 119.085, -150.645, 120.365, 89.2166, 0, 0, 2.94899, -54.0455, 2.94896, -173.719, 2.98416, 66.1426, 0.0206708, -110.354
1, 3180.00000, 119.085, -30.9716, 119.085, -150.645, 120.365, 89.2166, 0, 0, 2.94899, -54.0455, 2.94896, -173.719, 2.98416, 66.1426, 0.0206708, -110.354
1, 3240.00000, 119.085, -30.9716, 119.085, -150.645, 120.365, 89.2166, 0, 0, 2.94899, -54.0455, 2.94896, -173.719, 2.98416, 66.1426, 0.0206708, -110.354
1, 3300.00000, 119.085, -30.9716, 119.085, -150.645, 120.365, 89.2166, 0, 0, 2.94899, -54.0455, 2.94896, -173.719, 2.98416, 66.1426, 0.0206708, -110.354
1, 3360.00000, 119.085, -30.9716, 119.085, -150.645, 120.365, 89.2166, 0, 0, 2.94899, -54.0455, 2.94896, -173.719, 2.98416, 66.1426, 0.0206708, -110.354
1, 3420.00000, 119.085, -30.9716, 119.085, -150.645, 120.365, 89.2166, 0, 0, 2.94899, -54.0455, 2.94896, -173.719, 2.98416, 66.1426, 0.0206708, -110.354
1, 3480.00000, 119.085, -30.9716, 119.085, -150.645, 120.365, 89.2166, 0, 0, 2.94899, -54.0455, 2.94896, -173.719, 2.98416, 66.1426, 0.0206708, -110.354
1, 3540.00000, 119.085, -30.9716, 119.085, -150.645, 120.365, 89.2166, 0, 0, 2.94899, -54.0455, 2.94896, -173.719, 2.98416, 66.1426, 0.0206708, -110.354
2, 0.00000, 119.085, -30.9716, 119.085, -150.645, 120.365, 89.2166, 0, 0, 2.94899, -54.0455, 2.94896, -173.719, 2.98416, 66.1426, 0.0206708, -110.354
2, 60.00000, 118.824, -30.9989, 118.828, -150.669, 120.098, 89.1846, 0, 0, 2.90886, -54.0725, 2.909, -173.743, 2.94358, 66.111, 0.0202034, -110.845
2, 120.00000, 118.824, -30.999, 118.828, -150.669, 120.098, 89.1845, 0, 0, 2.90886, -54.0729, 2.90898, -173.743, 2.94349, 66.1106, 0.0200896, -110.911
2, 180.00000, 118.824, -30.999, 118.828, -150.669, 120.098, 89.1845, 0, 0, 2.90886, -54.0729, 2.90898, -173.743, 2.94348, 66.1106, 0.0200875, -110.912
2, 240.00000, 118.824, -30.999, 118.828, -150.669, 120.098, 89.1845, 0, 0, 2.90886, -54.0729, 2.90898, -173.743, 2.94348, 66.1106, 0.0200875, -110.912
2, 300.00000, 118.824, -30.999, 118.828, -150.669, 120.098, 89.1845, 0, 0, 2.90886, -54.0729, 2.90898, -173.743, 2.94348, 66.1106, 0.0200875, -110.912
2, 360.00000, 118.824, -30.999, 118.828, -150.669, 120.098, 89.1845, 0, 0, 2.90886, -54.0729, 2.90898, -173.743, 2.94348, 66.1106, 0.0200875, -110.912
2, 420.00000, 118.824, -30.999, 118.828, -150.669, 120.098, 89.1845, 0, 0, 2.90886, -54.0729, 2.90898, -173.743, 2.94348, 66.1106, 0.0200875, -110.912
2, 480.00000, 118.824, -30.999, 118.828, -150.669, 120.098, 89.1845, 0, 0, 2.90886, -54.0729, 2.90898, -173.743, 2.94348, 66.1106, 0.0200875, -110.912
2, 540.00000, 118.824, -30.999, 118.828, -150.669, 120.098, 89.1845, 0, 0, 2.90886, -54.0729, 2.90898, -173.743, 2.94348, 66.1106, 0.0200875, -110.912
2, 600.00000, 118.824, -30.999, 118.828, -150.669, 120.098, 89.1845, 0, 0, 2.90886, -54.0729, 2.90898, -173.743, 2.94348, 66.1106, 0.0200875, -110.912
2, 660.00000, 118.824, -30.999, 118.828, -150.669, 120.098, 89.1845, 0, 0, 2.90886, -54.0729, 2.90898, -173.743, 2.94348, 66.1106, 0.0200875, -110.912
2, 720.00000, 118.824, -30.999, 118.828, -150.669, 120.098, 89.1845, 0, 0, 2.90886, -54.0729, 2.90898, -173.743, 2.94348, 66.1106, 0.0200875, -110.912
