hour,t(sec),"P1 (kW)","Q1 (kvar)","P2 (kW)","Q2 (kvar)","P3 (kW)","Q3 (kvar)","P4 (kW)","Q4 (kvar)"
0, 60.00000, 0.801054, 0.341243, 0.798533, 0.34017, 0.817024, 0.348047, 0, 0
0, 120.00000, 0.801047, 0.341245, 0.798525, 0.34017, 0.817016, 0.348048, 0, 0
0, 180.00000, 0.801047, 0.341245, 0.798525, 0.34017, 0.817016, 0.348048, 0, 0
0, 240.00000, 0.801047, 0.341245, 0.798525, 0.34017, 0.817016, 0.348048, 0, 0
0, 300.00000, 0.801047, 0.341245, 0.798525, 0.34017, 0.817016, 0.348048, 0, 0
0, 360.00000, 0.801047, 0.341245, 0.798525, 0.34017, 0.817016, 0.348048, 0, 0
0, 420.00000, 0.801047, 0.341245, 0.798525, 0.34017, 0.817016, 0.348048, 0, 0
0, 480.00000, 0.707132, 0.301242, 0.704326, 0.300045, 0.720461, 0.306919, 0, 0
0, 540.00000, 0.70714, 0.30124, 0.704334, 0.300045, 0.720469, 0.306918, 0, 0
0, 600.00000, 0.70714, 0.30124, 0.704334, 0.300045, 0.720469, 0.306918, 0, 0
0, 660.00000, 0.70714, 0.30124, 0.704334, 0.300045, 0.720469, 0.306918, 0, 0
0, 720.00000, 0.70714, 0.30124, 0.704334, 0.300045, 0.720469, 0.306918, 0, 0
0, 780.00000, 0.70714, 0.30124, 0.704334, 0.300045, 0.720469, 0.306918, 0, 0
0, 840.00000, 0.70714, 0.30124, 0.704334, 0.300045, 0.720469, 0.306918, 0, 0
0, 900.00000, 0.70714, 0.30124, 0.704334, 0.300045, 0.720469, 0.306918, 0, 0
0, 960.00000, 0.702648, 0.29932, 0.69516, 0.296135, 0.707838, 0.301534, 0, 0
0, 1020.00000, 0.702636, 0.299322, 0.695156, 0.296135, 0.707827, 0.301533, 0, 0
0, 1080.00000, 0.702636, 0.299322, 0.695156, 0.296135, 0.707827, 0.301533, 0, 0
0, 1140.00000, 0.706395, 0.300928, 0.69516, 0.296137, 0.709096, 0.302075, 0, 0
0, 1200.00000, 0.706403, 0.300927, 0.69516, 0.296137, 0.7091, 0.302075, 0, 0
0, 1260.00000, 0.706403, 0.300927, 0.69516, 0.296137, 0.7091, 0.302075, 0, 0
0, 1320.00000, 0.706403, 0.300927, 0.69516, 0.296137, 0.7091, 0.302075, 0, 0
0, 1380.00000, 0.706403, 0.300927, 0.69516, 0.296137, 0.7091, 0.302075, 0, 0
0, 1440.00000, 0.706403, 0.300927, 0.69516, 0.296137, 0.7091, 0.302075, 0, 0
0, 1500.00000, 0.706403, 0.300927, 0.69516, 0.296137, 0.7091, 0.302075, 0, 0
0, 1560.00000, 0.706403, 0.300927, 0.69516, 0.296137, 0.7091, 0.302075, 0, 0
0, 1620.00000, 0.706403, 0.300927, 0.69516, 0.296137, 0.7091, 0.302075, 0, 0
0, 1680.00000, 0.706403, 0.300927, 0.69516, 0.296137, 0.7091, 0.302075, 0, 0
0, 1740.00000, 0.706403, 0.300927, 0.69516, 0.296137, 0.7091, 0.302075, 0, 0
0, 1800.00000, 0.691182, 0.29444, 0.678659, 0.289108, 0.710013, 0.302465, 0, 0
0, 1860.00000, 0.691177, 0.29444, 0.678655, 0.289106, 0.710014, 0.302465, 0, 0
0, 1920.00000, 0.691177, 0.29444, 0.678655, 0.289106, 0.710014, 0.302465, 0, 0
0, 1980.00000, 0.691177, 0.29444, 0.678655, 0.289106, 0.710014, 0.302465, 0, 0
0, 2040.00000, 0.691177, 0.29444, 0.678655, 0.289106, 0.710014, 0.302465, 0, 0
0, 2100.00000, 0.691177, 0.29444, 0.678655, 0.289106, 0.710014, 0.302465, 0, 0
0, 2160.00000, 0.691177, 0.29444, 0.678655, 0.289106, 0.710014, 0.302465, 0, 0
0, 2220.00000, 0.691177, 0.29444, 0.678655, 0.289106, 0.710014, 0.302465, 0, 0
0, 2280.00000, 0.691177, 0.29444, 0.678655, 0.289106, 0.710014, 0.302465, 0, 0
0, 2340.00000, 0.691177, 0.29444, 0.678655, 0.289106, 0.710014, 0.302465, 0, 0
0, 2400.00000, 0.691177, 0.29444, 0.678655, 0.289106, 0.710014, 0.302465, 0, 0
0, 2460.00000, 0.691177, 0.29444, 0.678655, 0.289106, 0.710014, 0.302465, 0, 0
0, 2520.00000, 0.691177, 0.29444, 0.678655, 0.289106, 0.710014, 0.302465, 0, 0
0, 2580.00000, 0.691177, 0.29444, 0.678655, 0.289106, 0.710014, 0.302465, 0, 0
0, 2640.00000, 0.691177, 0.29444, 0.678655, 0.289106, 0.710014, 0.302465, 0, 0
0, 2700.00000, 0.691177, 0.29444, 0.678655, 0.289106, 0.710014, 0.302465, 0, 0
0, 2760.00000, 0.692628, 0.29506, 0.682527, 0.290759, 0.70992, 0.302424, 0, 0
0, 2820.00000, 0.692632, 0.29506, 0.682534, 0.290758, 0.709918, 0.302424, 0, 0
0, 2880.00000, 0.692632, 0.29506, 0.682534, 0.290758, 0.709918, 0.302424, 0, 0
0, 2940.00000, 0.692632, 0.29506, 0.682534, 0.290758, 0.709918, 0.302424, 0, 0
0, 3000.00000, 0.692632, 0.29506, 0.682534, 0.290758, 0.709918, 0.302424, 0, 0
0, 3060.00000, 0.692632, 0.29506, 0.682534, 0.290758, 0.709918, 0.302424, 0, 0
0, 3120.00000, 0.692632, 0.29506, 0.682534, 0.290758, 0.709918, 0.302424, 0, 0
0, 3180.00000, 0.692632, 0.29506, 0.682534, 0.290758, 0.709918, 0.302424, 0, 0
0, 3240.00000, 0.692632, 0.29506, 0.682534, 0.290758, 0.709918, 0.302424, 0, 0
0, 3300.00000, 0.692632, 0.29506, 0.682534, 0.290758, 0.709918, 0.302424, 0, 0
0, 3360.00000, 0.692632, 0.29506, 0.682534, 0.290758, 0.709918, 0.302424, 0, 0
0, 3420.00000, 0.692632, 0.29506, 0.682534, 0.290758, 0.709918, 0.302424, 0, 0
0, 3480.00000, 0.692632, 0.29506, 0.682534, 0.290758, 0.709918, 0.302424, 0, 0
0, 3540.00000, 0.692632, 0.29506, 0.682534, 0.290758, 0.709918, 0.302424, 0, 0
1, 0.00000, 0.692632, 0.29506, 0.682534, 0.290758, 0.709918, 0.302424, 0, 0
1, 60.00000, 0.693773, 0.295547, 0.686058, 0.292263, 0.709877, 0.302407, 0, 0
1, 120.00000, 0.693776, 0.295547, 0.686064, 0.292262, 0.709876, 0.302406, 0, 0
1, 180.00000, 0.693776, 0.295547, 0.686064, 0.292262, 0.709876, 0.302406, 0, 0
1, 240.00000, 0.693776, 0.295547, 0.686064, 0.292262, 0.709876, 0.302406, 0, 0
1, 300.00000, 0.693776, 0.295547, 0.686064, 0.292262, 0.709876, 0.302406, 0, 0
1, 360.00000, 0.693776, 0.295547, 0.686064, 0.292262, 0.709876, 0.302406, 0, 0
1, 420.00000, 0.693776, 0.295547, 0.686064, 0.292262, 0.709876, 0.302406, 0, 0
1, 480.00000, 0.693776, 0.295547, 0.686064, 0.292262, 0.709876, 0.302406, 0, 0
1, 540.00000, 0.693776, 0.295547, 0.686064, 0.292262, 0.709876, 0.302406, 0, 0
1, 600.00000, 0.693776, 0.295547, 0.686064, 0.292262, 0.709876, 0.302406, 0, 0
1, 660.00000, 0.693776, 0.295547, 0.686064, 0.292262, 0.709876, 0.302406, 0, 0
1, 720.00000, 0.693776, 0.295547, 0.686064, 0.292262, 0.709876, 0.302406, 0, 0
1, 780.00000, 0.694191, 0.295724, 0.690311, 0.294073, 0.716699, 0.305315, 0, 0
1, 840.00000, 0.69419, 0.295724, 0.690314, 0.294072, 0.716706, 0.305315, 0, 0
1, 900.00000, 0.69419, 0.295724, 0.690314, 0.294072, 0.716706, 0.305315, 0, 0
1, 960.00000, 0.69419, 0.295724, 0.690314, 0.294072, 0.716706, 0.305315, 0, 0
1, 1020.00000, 0.69419, 0.295724, 0.690314, 0.294072, 0.716706, 0.305315, 0, 0
1, 1080.00000, 0.69419, 0.295724, 0.690314, 0.294072, 0.716706, 0.305315, 0, 0
1, 1140.00000, 0.69419, 0.295724, 0.690314, 0.294072, 0.716706, 0.305315, 0, 0
1, 1200.00000, 0.69419, 0.295724, 0.690314, 0.294072, 0.716706, 0.305315, 0, 0
1, 1260.00000, 0.69419, 0.295724, 0.690314, 0.294072, 0.716706, 0.305315, 0, 0
1, 1320.00000, 0.69419, 0.295724, 0.690314, 0.294072, 0.716706, 0.305315, 0, 0
1, 1380.00000, 0.69419, 0.295724, 0.690314, 0.294072, 0.716706, 0.305315, 0, 0
1, 1440.00000, 0.69419, 0.295724, 0.690314, 0.294072, 0.716706, 0.305315, 0, 0
1, 1500.00000, 0.69419, 0.295724, 0.690314, 0.294072, 0.716706, 0.305315, 0, 0
1, 1560.00000, 0.69419, 0.295724, 0.690314, 0.294072, 0.716706, 0.305315, 0, 0
1, 1620.00000, 0.69419, 0.295724, 0.690314, 0.294072, 0.716706, 0.305315, 0, 0
1, 1680.00000, 0.69419, 0.295724, 0.690314, 0.294072, 0.716706, 0.305315, 0, 0
1, 1740.00000, 0.69419, 0.295724, 0.690314, 0.294072, 0.716706, 0.305315, 0, 0
1, 1800.00000, 0.69419, 0.295724, 0.690314, 0.294072, 0.716706, 0.305315, 0, 0
1, 1860.00000, 0.69419, 0.295724, 0.690314, 0.294072, 0.716706, 0.305315, 0, 0
1, 1920.00000, 0.69419, 0.295724, 0.690314, 0.294072, 0.716706, 0.305315, 0, 0
1, 1980.00000, 0.69419, 0.295724, 0.690314, 0.294072, 0.716706, 0.305315, 0, 0
1, 2040.00000, 0.69419, 0.295724, 0.690314, 0.294072, 0.716706, 0.305315, 0, 0
1, 2100.00000, 0.69419, 0.295724, 0.690314, 0.294072, 0.716706, 0.305315, 0, 0
1, 2160.00000, 0.69419, 0.295724, 0.690314, 0.294072, 0.716706, 0.305315, 0, 0
1, 2220.00000, 0.709503, 0.302247, 0.707087, 0.30122, 0.71579, 0.304925, 0, 0
1, 2280.00000, 0.709504, 0.302247, 0.707093, 0.30122, 0.715789, 0.304925, 0, 0
1, 2340.00000, 0.709504, 0.302247, 0.707093, 0.30122, 0.715789, 0.304925, 0, 0
1, 2400.00000, 0.709504, 0.302247, 0.707093, 0.30122, 0.715789, 0.304925, 0, 0
1, 2460.00000, 0.709504, 0.302247, 0.707093, 0.30122, 0.715789, 0.304925, 0, 0
1, 2520.00000, 0.709504, 0.302247, 0.707093, 0.30122, 0.715789, 0.304925, 0, 0
1, 2580.00000, 0.709504, 0.302247, 0.707093, 0.30122, 0.715789, 0.304925, 0, 0
1, 2640.00000, 0.709504, 0.302247, 0.707093, 0.30122, 0.715789, 0.304925, 0, 0
1, 2700.00000, 0.709504, 0.302247, 0.707093, 0.30122, 0.715789, 0.304925, 0, 0
1, 2760.00000, 0.709504, 0.302247, 0.707093, 0.30122, 0.715789, 0.304925, 0, 0
1, 2820.00000, 0.709504, 0.302247, 0.707093, 0.30122, 0.715789, 0.304925, 0, 0
1, 2880.00000, 0.709504, 0.302247, 0.707093, 0.30122, 0.715789, 0.304925, 0, 0
1, 2940.00000, 0.709504, 0.302247, 0.707093, 0.30122, 0.715789, 0.304925, 0, 0
1, 3000.00000, 0.709504, 0.302247, 0.707093, 0.30122, 0.715789, 0.304925, 0, 0
1, 3060.00000, 0.709504, 0.302247, 0.707093, 0.30122, 0.715789, 0.304925, 0, 0
1, 3120.00000, 0.709504, 0.302247, 0.707093, 0.30122, 0.715789, 0.304925, 0, 0
1, 3180.00000, 0.709504, 0.302247, 0.707093, 0.30122, 0.715789, 0.304925, 0, 0
1, 3240.00000, 0.709504, 0.302247, 0.707093, 0.30122, 0.715789, 0.304925, 0, 0
1, 3300.00000, 0.709504, 0.302247, 0.707093, 0.30122, 0.715789, 0.304925, 0, 0
1, 3360.00000, 0.709504, 0.302247, 0.707093, 0.30122, 0.715789, 0.304925, 0, 0
1, 3420.00000, 0.709504, 0.302247, 0.707093, 0.30122, 0.715789, 0.304925, 0, 0
1, 3480.00000, 0.709504, 0.302247, 0.707093, 0.30122, 0.715789, 0.304925, 0, 0
1, 3540.00000, 0.709504, 0.302247, 0.707093, 0.30122, 0.715789, 0.304925, 0, 0
2, 0.00000, 0.709504, 0.302247, 0.707093, 0.30122, 0.715789, 0.304925, 0, 0
2, 60.00000, 0.709504, 0.302247, 0.707093, 0.30122, 0.715789, 0.304925, 0, 0
2, 120.00000, 0.709504, 0.302247, 0.707093, 0.30122, 0.715789, 0.304925, 0, 0
2, 180.00000, 0.709504, 0.302247, 0.707093, 0.30122, 0.715789, 0.304925, 0, 0
2, 240.00000, 0.709504, 0.302247, 0.707093, 0.30122, 0.715789, 0.304925, 0, 0
2, 300.00000, 0.709504, 0.302247, 0.707093, 0.30122, 0.715789, 0.304925, 0, 0
2, 360.00000, 0.709504, 0.302247, 0.707093, 0.30122, 0.715789, 0.304925, 0, 0
2, 420.00000, 0.709504, 0.302247, 0.707093, 0.30122, 0.715789, 0.304925, 0, 0
2, 480.00000, 0.709504, 0.302247, 0.707093, 0.30122, 0.715789, 0.304925, 0, 0
2, 540.00000, 0.709504, 0.302247, 0.707093, 0.30122, 0.715789, 0.304925, 0, 0
2, 600.00000, 0.709504, 0.302247, 0.707093, 0.30122, 0.715789, 0.304925, 0, 0
2, 660.00000, 0.709504, 0.302247, 0.707093, 0.30122, 0.715789, 0.304925, 0, 0
2, 720.00000, 0.709504, 0.302247, 0.707093, 0.30122, 0.715789, 0.304925, 0, 0
2, 780.00000, 0.709504, 0.302247, 0.707093, 0.30122, 0.715789, 0.304925, 0, 0
2, 840.00000, 0.710199, 0.302545, 0.716504, 0.305229, 0.721413, 0.307325, 0, 0
2, 900.00000, 0.710197, 0.302543, 0.716506, 0.30523, 0.721403, 0.307317, 0, 0
2, 960.00000, 0.710197, 0.302543, 0.716506, 0.30523, 0.721403, 0.307316, 0, 0
2, 1020.00000, 0.710197, 0.302543, 0.716506, 0.30523, 0.721403, 0.307316, 0, 0
2, 1080.00000, 0.710197, 0.302543, 0.716506, 0.30523, 0.721403, 0.307316, 0, 0
2, 1140.00000, 0.710197, 0.302543, 0.716506, 0.30523, 0.721403, 0.307316, 0, 0
2, 1200.00000, 0.710197, 0.302543, 0.716506, 0.30523, 0.721403, 0.307316, 0, 0
2, 1260.00000, 0.710197, 0.302543, 0.716506, 0.30523, 0.721403, 0.307316, 0, 0
2, 1320.00000, 0.710197, 0.302543, 0.716506, 0.30523, 0.721403, 0.307316, 0, 0
2, 1380.00000, 0.710197, 0.302543, 0.716506, 0.30523, 0.721403, 0.307316, 0, 0
2, 1440.00000, 0.710197, 0.302543, 0.716506, 0.30523, 0.721403, 0.307316, 0, 0
2, 1500.00000, 0.710197, 0.302543, 0.716506, 0.30523, 0.721403, 0.307316, 0, 0
2, 1560.00000, 0.710197, 0.302543, 0.716506, 0.30523, 0.721403, 0.307316, 0, 0
2, 1620.00000, 0.710197, 0.302543, 0.716506, 0.30523, 0.721403, 0.307316, 0, 0
2, 1680.00000, 0.710197, 0.302543, 0.716506, 0.30523, 0.721403, 0.307316, 0, 0
2, 1740.00000, 0.710197, 0.302543, 0.716506, 0.30523, 0.721403, 0.307316, 0, 0
2, 1800.00000, 0.710197, 0.302543, 0.716506, 0.30523, 0.721403, 0.307316, 0, 0
2, 1860.00000, 0.710197, 0.302543, 0.716506, 0.30523, 0.721403, 0.307316, 0, 0
2, 1920.00000, 0.710197, 0.302543, 0.716506, 0.30523, 0.721403, 0.307316, 0, 0
2, 1980.00000, 0.710197, 0.302543, 0.716506, 0.30523, 0.721403, 0.307316, 0, 0
2, 2040.00000, 0.710197, 0.302543, 0.716506, 0.30523, 0.721403, 0.307316, 0, 0
2, 2100.00000, 0.710197, 0.302543, 0.716506, 0.30523, 0.721403, 0.307316, 0, 0
2, 2160.00000, 0.710197, 0.302543, 0.716506, 0.30523, 0.721403, 0.307316, 0, 0
2, 2220.00000, 0.710197, 0.302543, 0.716506, 0.30523, 0.721403, 0.307316, 0, 0
2, 2280.00000, 0.710197, 0.302543, 0.716506, 0.30523, 0.721403, 0.307316, 0, 0
2, 2340.00000, 0.710197, 0.302543, 0.716506, 0.30523, 0.721403, 0.307316, 0, 0
2, 2400.00000, 0.71756, 0.305686, 0.716486, 0.30522, 0.721414, 0.307326, 0, 0
2, 2460.00000, 0.71757, 0.305684, 0.716482, 0.30522, 0.721403, 0.307317, 0, 0
2, 2520.00000, 0.71757, 0.305684, 0.716482, 0.30522, 0.721403, 0.307316, 0, 0
2, 2580.00000, 0.71757, 0.305684, 0.716482, 0.30522, 0.721403, 0.307316, 0, 0
2, 2640.00000, 0.71757, 0.305684, 0.716482, 0.30522, 0.721403, 0.307316, 0, 0
2, 2700.00000, 0.716794, 0.305352, 0.705776, 0.30066, 0.718928, 0.306258, 0, 0
2, 2760.00000, 0.716794, 0.305353, 0.705775, 0.300659, 0.718916, 0.306257, 0, 0
2, 2820.00000, 0.716794, 0.305353, 0.705775, 0.300659, 0.718916, 0.306257, 0, 0
2, 2880.00000, 0.716794, 0.305353, 0.705775, 0.300659, 0.718916, 0.306257, 0, 0
2, 2940.00000, 0.716794, 0.305353, 0.705775, 0.300659, 0.718916, 0.306257, 0, 0
2, 3000.00000, 0.716794, 0.305353, 0.705775, 0.300659, 0.718916, 0.306257, 0, 0
2, 3060.00000, 0.716851, 0.305379, 0.707092, 0.301219, 0.721412, 0.307326, 0, 0
2, 3120.00000, 0.716849, 0.305377, 0.707093, 0.301221, 0.721403, 0.307317, 0, 0
2, 3180.00000, 0.716849, 0.305377, 0.707093, 0.301221, 0.721403, 0.307316, 0, 0
2, 3240.00000, 0.716849, 0.305377, 0.707093, 0.301221, 0.721403, 0.307316, 0, 0
2, 3300.00000, 0.716849, 0.305377, 0.707093, 0.301221, 0.721403, 0.307316, 0, 0
2, 3360.00000, 0.716849, 0.305377, 0.707093, 0.301221, 0.721403, 0.307316, 0, 0
2, 3420.00000, 0.716849, 0.305377, 0.707093, 0.301221, 0.721403, 0.307316, 0, 0
2, 3480.00000, 0.716849, 0.305377, 0.707093, 0.301221, 0.721403, 0.307316, 0, 0
2, 3540.00000, 0.716849, 0.305377, 0.707093, 0.301221, 0.721403, 0.307316, 0, 0
3, 0.00000, 0.716849, 0.305377, 0.707093, 0.301221, 0.721403, 0.307316, 0, 0
3, 60.00000, 0.716849, 0.305377, 0.707093, 0.301221, 0.721403, 0.307316, 0, 0
3, 120.00000, 0.716849, 0.305377, 0.707093, 0.301221, 0.721403, 0.307316, 0, 0
3, 180.00000, 0.716849, 0.305377, 0.707093, 0.301221, 0.721403, 0.307316, 0, 0
3, 240.00000, 0.716849, 0.305377, 0.707093, 0.301221, 0.721403, 0.307316, 0, 0
3, 300.00000, 0.716849, 0.305377, 0.707093, 0.301221, 0.721403, 0.307316, 0, 0
3, 360.00000, 0.716849, 0.305377, 0.707093, 0.301221, 0.721403, 0.307316, 0, 0
3, 420.00000, 0.716849, 0.305377, 0.707093, 0.301221, 0.721403, 0.307316, 0, 0
3, 480.00000, 0.716849, 0.305377, 0.707093, 0.301221, 0.721403, 0.307316, 0, 0
3, 540.00000, 0.716849, 0.305377, 0.707093, 0.301221, 0.721403, 0.307316, 0, 0
3, 600.00000, 0.716849, 0.305377, 0.707093, 0.301221, 0.721403, 0.307316, 0, 0
3, 660.00000, 0.716849, 0.305377, 0.707093, 0.301221, 0.721403, 0.307316, 0, 0
3, 720.00000, 0.716849, 0.305377, 0.707093, 0.301221, 0.721403, 0.307316, 0, 0
3, 780.00000, 0.716849, 0.305377, 0.707093, 0.301221, 0.721403, 0.307316, 0, 0
3, 840.00000, 0.716849, 0.305377, 0.707093, 0.301221, 0.721403, 0.307316, 0, 0
3, 900.00000, 0.716849, 0.305377, 0.707093, 0.301221, 0.721403, 0.307316, 0, 0
3, 960.00000, 0.716849, 0.305377, 0.707093, 0.301221, 0.721403, 0.307316, 0, 0
3, 1020.00000, 0.716849, 0.305377, 0.707093, 0.301221, 0.721403, 0.307316, 0, 0
3, 1080.00000, 0.716849, 0.305377, 0.707093, 0.301221, 0.721403, 0.307316, 0, 0
3, 1140.00000, 0.716849, 0.305377, 0.707093, 0.301221, 0.721403, 0.307316, 0, 0
3, 1200.00000, 0.716849, 0.305377, 0.707093, 0.301221, 0.721403, 0.307316, 0, 0
3, 1260.00000, 0.716849, 0.305377, 0.707093, 0.301221, 0.721403, 0.307316, 0, 0
3, 1320.00000, 0.716849, 0.305377, 0.707093, 0.301221, 0.721403, 0.307316, 0, 0
3, 1380.00000, 0.716849, 0.305377, 0.707093, 0.301221, 0.721403, 0.307316, 0, 0
3, 1440.00000, 0.716849, 0.305377, 0.707093, 0.301221, 0.721403, 0.307316, 0, 0
3, 1500.00000, 0.716849, 0.305377, 0.707093, 0.301221, 0.721403, 0.307316, 0, 0
3, 1560.00000, 0.716849, 0.305377, 0.707093, 0.301221, 0.721403, 0.307316, 0, 0
3, 1620.00000, 0.716849, 0.305377, 0.707093, 0.301221, 0.721403, 0.307316, 0, 0
3, 1680.00000, 0.716849, 0.305377, 0.707093, 0.301221, 0.721403, 0.307316, 0, 0
3, 1740.00000, 0.716849, 0.305377, 0.707093, 0.301221, 0.721403, 0.307316, 0, 0
3, 1800.00000, 0.716849, 0.305377, 0.707093, 0.301221, 0.721403, 0.307316, 0, 0
3, 1860.00000, 0.716849, 0.305377, 0.707093, 0.301221, 0.721403, 0.307316, 0, 0
3, 1920.00000, 0.716849, 0.305377, 0.707093, 0.301221, 0.721403, 0.307316, 0, 0
3, 1980.00000, 0.716849, 0.305377, 0.707093, 0.301221, 0.721403, 0.307316, 0, 0
3, 2040.00000, 0.716849, 0.305377, 0.707093, 0.301221, 0.721403, 0.307316, 0, 0
3, 2100.00000, 0.716849, 0.305377, 0.707093, 0.301221, 0.721403, 0.307316, 0, 0
3, 2160.00000, 0.716849, 0.305377, 0.707093, 0.301221, 0.721403, 0.307316, 0, 0
3, 2220.00000, 0.716849, 0.305377, 0.707093, 0.301221, 0.721403, 0.307316, 0, 0
3, 2280.00000, 0.716849, 0.305377, 0.707093, 0.301221, 0.721403, 0.307316, 0, 0
3, 2340.00000, 0.716849, 0.305377, 0.707093, 0.301221, 0.721403, 0.307316, 0, 0
3, 2400.00000, 0.716849, 0.305377, 0.707093, 0.301221, 0.721403, 0.307316, 0, 0
3, 2460.00000, 0.716849, 0.305377, 0.707093, 0.301221, 0.721403, 0.307316, 0, 0
3, 2520.00000, 0.716849, 0.305377, 0.707093, 0.301221, 0.721403, 0.307316, 0, 0
3, 2580.00000, 0.716849, 0.305377, 0.707093, 0.301221, 0.721403, 0.307316, 0, 0
3, 2640.00000, 0.716849, 0.305377, 0.707093, 0.301221, 0.721403, 0.307316, 0, 0
3, 2700.00000, 0.716849, 0.305377, 0.707093, 0.301221, 0.721403, 0.307316, 0, 0
3, 2760.00000, 0.716849, 0.305377, 0.707093, 0.301221, 0.721403, 0.307316, 0, 0
3, 2820.00000, 0.716849, 0.305377, 0.707093, 0.301221, 0.721403, 0.307316, 0, 0
3, 2880.00000, 0.716849, 0.305377, 0.707093, 0.301221, 0.721403, 0.307316, 0, 0
3, 2940.00000, 0.716849, 0.305377, 0.707093, 0.301221, 0.721403, 0.307316, 0, 0
3, 3000.00000, 0.716849, 0.305377, 0.707093, 0.301221, 0.721403, 0.307316, 0, 0
3, 3060.00000, 0.716849, 0.305377, 0.707093, 0.301221, 0.721403, 0.307316, 0, 0
3, 3120.00000, 0.716849, 0.305377, 0.707093, 0.301221, 0.721403, 0.307316, 0, 0
3, 3180.00000, 0.756069, 0.322082, 0.745928, 0.317763, 0.762543, 0.32484, 0, 0
3, 3240.00000, 0.756066, 0.322083, 0.745926, 0.317763, 0.762539, 0.32484, 0, 0
3, 3300.00000, 0.756066, 0.322083, 0.745926, 0.317763, 0.762539, 0.32484, 0, 0
3, 3360.00000, 0.756066, 0.322083, 0.745926, 0.317763, 0.762539, 0.32484, 0, 0
3, 3420.00000, 0.756066, 0.322083, 0.745926, 0.317763, 0.762539, 0.32484, 0, 0
3, 3480.00000, 0.756066, 0.322083, 0.745926, 0.317763, 0.762539, 0.32484, 0, 0
3, 3540.00000, 0.756066, 0.322083, 0.745926, 0.317763, 0.762539, 0.32484, 0, 0
4, 0.00000, 0.755784, 0.321962, 0.742312, 0.316221, 0.756258, 0.322163, 0, 0
4, 60.00000, 0.755785, 0.321963, 0.742308, 0.316222, 0.756249, 0.322161, 0, 0
4, 120.00000, 0.755785, 0.321963, 0.742308, 0.316222, 0.756249, 0.322161, 0, 0
4, 180.00000, 0.755785, 0.321963, 0.742308, 0.316222, 0.756249, 0.322161, 0, 0
4, 240.00000, 0.755785, 0.321963, 0.742308, 0.316222, 0.756249, 0.322161, 0, 0
4, 300.00000, 0.755785, 0.321963, 0.742308, 0.316222, 0.756249, 0.322161, 0, 0
4, 360.00000, 0.755785, 0.321963, 0.742308, 0.316222, 0.756249, 0.322161, 0, 0
4, 420.00000, 0.755785, 0.321963, 0.742308, 0.316222, 0.756249, 0.322161, 0, 0
4, 480.00000, 0.755785, 0.321963, 0.742308, 0.316222, 0.756249, 0.322161, 0, 0
4, 540.00000, 0.755785, 0.321963, 0.742308, 0.316222, 0.756249, 0.322161, 0, 0
4, 600.00000, 0.755785, 0.321963, 0.742308, 0.316222, 0.756249, 0.322161, 0, 0
4, 660.00000, 0.755785, 0.321963, 0.742308, 0.316222, 0.756249, 0.322161, 0, 0
4, 720.00000, 0.755785, 0.321963, 0.742308, 0.316222, 0.756249, 0.322161, 0, 0
