hour,t(sec),V1,VAngle1,V2,VAngle2,V3,VAngle3,V4,VAngle4,I1,IAngle1,I2,IAngle2,I3,IAngle3,I4,IAngle4
0, 60.00000, 119.096, -31.1162, 120.381, -151.126, 120.046, 88.4501, 0, 0, 5.24794, -54.1899, 5.31081, -174.2, 5.29437, 65.3763, 0.0215789, -70.7613
0, 120.00000, 119.096, -31.1162, 120.381, -151.126, 120.046, 88.4501, 0, 0, 5.24791, -54.1901, 5.31077, -174.2, 5.29434, 65.3762, 0.0215817, -70.7559
0, 180.00000, 119.096, -31.1162, 120.381, -151.126, 120.046, 88.4501, 0, 0, 5.24791, -54.1901, 5.31077, -174.2, 5.29434, 65.3762, 0.0215817, -70.756
0, 240.00000, 119.096, -31.1162, 120.381, -151.126, 120.046, 88.4501, 0, 0, 5.24791, -54.1901, 5.31077, -174.2, 5.29434, 65.3762, 0.0215817, -70.756
0, 300.00000, 119.096, -31.1162, 120.381, -151.126, 120.046, 88.4501, 0, 0, 5.24791, -54.1901, 5.31077, -174.2, 5.29434, 65.3762, 0.0215817, -70.756
0, 360.00000, 119.096, -31.1162, 120.381, -151.126, 120.046, 88.4501, 0, 0, 5.24791, -54.1901, 5.31077, -174.2, 5.29434, 65.3762, 0.0215817, -70.756
0, 420.00000, 119.096, -31.1162, 120.381, -151.126, 120.046, 88.4501, 0, 0, 5.24791, -54.1901, 5.31077, -174.2, 5.29434, 65.3762, 0.0215817, -70.756
0, 480.00000, 119.983, -31.0091, 121.255, -151.026, 120.886, 88.5673, 0, 0, 4.60341, -54.0832, 4.61011, -174.101, 4.62414, 65.4929, 0.0332989, -170.409
0, 540.00000, 119.983, -31.009, 121.255, -151.026, 120.886, 88.5673, 0, 0, 4.60343, -54.083, 4.61002, -174.1, 4.62406, 65.4934, 0.033335, -170.528
0, 600.00000, 119.983, -31.009, 121.255, -151.026, 120.886, 88.5673, 0, 0, 4.60343, -54.083, 4.61002, -174.1, 4.62406, 65.4934, 0.0333351, -170.528
0, 660.00000, 119.983, -31.009, 121.255, -151.026, 120.886, 88.5673, 0, 0, 4.60343, -54.083, 4.61002, -174.1, 4.62406, 65.4934, 0.0333351, -170.528
0, 720.00000, 119.983, -31.009, 121.255, -151.026, 120.886, 88.5673, 0, 0, 4.60343, -54.083, 4.61002, -174.1, 4.62406, 65.4934, 0.0333351, -170.528
0, 780.00000, 119.983, -31.009, 121.255, -151.026, 120.886, 88.5673, 0, 0, 4.60343, -54.083, 4.61002, -174.1, 4.62406, 65.4934, 0.0333351, -170.528
0, 840.00000, 119.983, -31.009, 121.255, -151.026, 120.886, 88.5673, 0, 0, 4.60343, -54.083, 4.61002, -174.1, 4.62406, 65.4934, 0.0333351, -170.528
0, 900.00000, 119.983, -31.009, 121.255, -151.026, 120.886, 88.5673, 0, 0, 4.60343, -54.083, 4.61002, -174.1, 4.62406, 65.4934, 0.0333351, -170.528
0, 960.00000, 119.983, -31.009, 121.255, -151.026, 120.886, 88.5673, 0, 0, 4.60343, -54.083, 4.61002, -174.1, 4.62406, 65.4934, 0.0333351, -170.528
0, 1020.00000, 119.983, -31.009, 121.255, -151.026, 120.886, 88.5673, 0, 0, 4.60343, -54.083, 4.61002, -174.1, 4.62406, 65.4934, 0.0333351, -170.528
0, 1080.00000, 119.983, -31.009, 121.255, -151.026, 120.886, 88.5673, 0, 0, 4.60343, -54.083, 4.61002, -174.1, 4.62406, 65.4934, 0.0333351, -170.528
0, 1140.00000, 119.983, -31.009, 121.255, -151.026, 120.886, 88.5673, 0, 0, 4.60343, -54.083, 4.61002, -174.1, 4.62406, 65.4934, 0.0333351, -170.528
0, 1200.00000, 119.983, -31.009, 121.255, -151.026, 120.886, 88.5673, 0, 0, 4.60343, -54.083, 4.61002, -174.1, 4.62406, 65.4934, 0.0333351, -170.528
0, 1260.00000, 119.983, -31.009, 121.255, -151.026, 120.886, 88.5673, 0, 0, 4.60343, -54.083, 4.61002, -174.1, 4.62406, 65.4934, 0.0333351, -170.528
0, 1320.00000, 119.983, -31.009, 121.255, -151.026, 120.886, 88.5673, 0, 0, 4.60343, -54.083, 4.61002, -174.1, 4.62406, 65.4934, 0.0333351, -170.528
0, 1380.00000, 119.983, -31.009, 121.255, -151.026, 120.886, 88.5673, 0, 0, 4.60343, -54.083, 4.61002, -174.1, 4.62406, 65.4934, 0.0333351, -170.528
0, 1440.00000, 119.983, -31.009, 121.255, -151.026, 120.886, 88.5673, 0, 0, 4.60343, -54.083, 4.61002, -174.1, 4.62406, 65.4934, 0.0333351, -170.528
0, 1500.00000, 119.983, -31.009, 121.255, -151.026, 120.886, 88.5673, 0, 0, 4.60343, -54.083, 4.61002, -174.1, 4.62406, 65.4934, 0.0333351, -170.528
0, 1560.00000, 119.983, -31.009, 121.255, -151.026, 120.886, 88.5673, 0, 0, 4.60343, -54.083, 4.61002, -174.1, 4.62406, 65.4934, 0.0333351, -170.528
0, 1620.00000, 119.983, -31.009, 121.255, -151.026, 120.886, 88.5673, 0, 0, 4.60343, -54.083, 4.61002, -174.1, 4.62406, 65.4934, 0.0333351, -170.528
0, 1680.00000, 119.983, -31.009, 121.255, -151.026, 120.886, 88.5673, 0, 0, 4.60343, -54.083, 4.61002, -174.1, 4.62406, 65.4934, 0.0333351, -170.528
0, 1740.00000, 119.983, -31.009, 121.255, -151.026, 120.886, 88.5673, 0, 0, 4.60343, -54.083, 4.61002, -174.1, 4.62406, 65.4934, 0.0333351, -170.528
0, 1800.00000, 119.983, -31.009, 121.255, -151.026, 120.886, 88.5673, 0, 0, 4.60343, -54.083, 4.61002, -174.1, 4.62406, 65.4934, 0.0333351, -170.528
0, 1860.00000, 119.983, -31.009, 121.255, -151.026, 120.886, 88.5673, 0, 0, 4.60343, -54.083, 4.61002, -174.1, 4.62406, 65.4934, 0.0333351, -170.528
0, 1920.00000, 119.983, -31.009, 121.255, -151.026, 120.886, 88.5673, 0, 0, 4.60343, -54.083, 4.61002, -174.1, 4.62406, 65.4934, 0.0333351, -170.528
0, 1980.00000, 119.983, -31.009, 121.255, -151.026, 120.886, 88.5673, 0, 0, 4.60343, -54.083, 4.61002, -174.1, 4.62406, 65.4934, 0.0333351, -170.528
0, 2040.00000, 119.983, -31.009, 121.255, -151.026, 120.886, 88.5673, 0, 0, 4.60343, -54.083, 4.61002, -174.1, 4.62406, 65.4934, 0.0333351, -170.528
0, 2100.00000, 119.983, -31.009, 121.255, -151.026, 120.886, 88.5673, 0, 0, 4.60343, -54.083, 4.61002, -174.1, 4.62406, 65.4934, 0.0333351, -170.528
0, 2160.00000, 119.983, -31.009, 121.255, -151.026, 120.886, 88.5673, 0, 0, 4.60343, -54.083, 4.61002, -174.1, 4.62406, 65.4934, 0.0333351, -170.528
0, 2220.00000, 119.983, -31.009, 121.255, -151.026, 120.886, 88.5673, 0, 0, 4.60343, -54.083, 4.61002, -174.1, 4.62406, 65.4934, 0.0333351, -170.528
0, 2280.00000, 119.983, -31.009, 121.255, -151.026, 120.886, 88.5673, 0, 0, 4.60343, -54.083, 4.61002, -174.1, 4.62406, 65.4934, 0.0333351, -170.528
0, 2340.00000, 119.983, -31.009, 121.255, -151.026, 120.886, 88.5673, 0, 0, 4.60343, -54.083, 4.61002, -174.1, 4.62406, 65.4934, 0.0333351, -170.528
0, 2400.00000, 119.983, -31.009, 121.255, -151.026, 120.886, 88.5673, 0, 0, 4.60343, -54.083, 4.61002, -174.1, 4.62406, 65.4934, 0.0333351, -170.528
0, 2460.00000, 119.983, -31.009, 121.255, -151.026, 120.886, 88.5673, 0, 0, 4.60343, -54.083, 4.61002, -174.1, 4.62406, 65.4934, 0.0333351, -170.528
0, 2520.00000, 119.983, -31.009, 121.255, -151.026, 120.886, 88.5673, 0, 0, 4.60343, -54.083, 4.61002, -174.1, 4.62406, 65.4934, 0.0333351, -170.528
0, 2580.00000, 119.983, -31.009, 121.255, -151.026, 120.886, 88.5673, 0, 0, 4.60343, -54.083, 4.61002, -174.1, 4.62406, 65.4934, 0.0333351, -170.528
0, 2640.00000, 119.983, -31.009, 121.255, -151.026, 120.886, 88.5673, 0, 0, 4.60343, -54.083, 4.61002, -174.1, 4.62406, 65.4934, 0.0333351, -170.528
0, 2700.00000, 119.983, -31.009, 121.255, -151.026, 120.886, 88.5673, 0, 0, 4.60343, -54.083, 4.61002, -174.1, 4.62406, 65.4934, 0.0333351, -170.528
0, 2760.00000, 119.983, -31.009, 121.255, -151.026, 120.886, 88.5673, 0, 0, 4.60343, -54.083, 4.61002, -174.1, 4.62406, 65.4934, 0.0333351, -170.528
0, 2820.00000, 119.983, -31.009, 121.255, -151.026, 120.886, 88.5673, 0, 0, 4.60343, -54.083, 4.61002, -174.1, 4.62406, 65.4934, 0.0333351, -170.528
0, 2880.00000, 119.983, -31.009, 121.255, -151.026, 120.886, 88.5673, 0, 0, 4.60343, -54.083, 4.61002, -174.1, 4.62406, 65.4934, 0.0333351, -170.528
0, 2940.00000, 119.983, -31.009, 121.255, -151.026, 120.886, 88.5673, 0, 0, 4.60343, -54.083, 4.61002, -174.1, 4.62406, 65.4934, 0.0333351, -170.528
0, 3000.00000, 119.983, -31.009, 121.255, -151.026, 120.886, 88.5673, 0, 0, 4.60343, -54.083, 4.61002, -174.1, 4.62406, 65.4934, 0.0333351, -170.528
0, 3060.00000, 119.983, -31.009, 121.255, -151.026, 120.886, 88.5673, 0, 0, 4.60343, -54.083, 4.61002, -174.1, 4.62406, 65.4934, 0.0333351, -170.528
0, 3120.00000, 119.983, -31.009, 121.255, -151.026, 120.886, 88.5673, 0, 0, 4.60343, -54.083, 4.61002, -174.1, 4.62406, 65.4934, 0.0333351, -170.528
0, 3180.00000, 119.983, -31.009, 121.255, -151.026, 120.886, 88.5673, 0, 0, 4.60343, -54.083, 4.61002, -174.1, 4.62406, 65.4934, 0.0333351, -170.528
0, 3240.00000, 119.983, -31.009, 121.255, -151.026, 120.886, 88.5673, 0, 0, 4.60343, -54.083, 4.61002, -174.1, 4.62406, 65.4934, 0.0333351, -170.528
0, 3300.00000, 119.983, -31.009, 121.255, -151.026, 120.886, 88.5673, 0, 0, 4.60343, -54.083, 4.61002, -174.1, 4.62406, 65.4934, 0.0333351, -170.528
0, 3360.00000, 119.983, -31.009, 121.255, -151.026, 120.886, 88.5673, 0, 0, 4.60343, -54.083, 4.61002, -174.1, 4.62406, 65.4934, 0.0333351, -170.528
0, 3420.00000, 119.983, -31.009, 121.255, -151.026, 120.886, 88.5673, 0, 0, 4.60343, -54.083, 4.61002, -174.1, 4.62406, 65.4934, 0.0333351, -170.528
0, 3480.00000, 119.983, -31.009, 121.255, -151.026, 120.886, 88.5673, 0, 0, 4.60343, -54.083, 4.61002, -174.1, 4.62406, 65.4934, 0.0333351, -170.528
0, 3540.00000, 119.983, -31.009, 121.255, -151.026, 120.886, 88.5673, 0, 0, 4.60343, -54.083, 4.61002, -174.1, 4.62406, 65.4934, 0.0333351, -170.528
1, 0.00000, 119.983, -31.009, 121.255, -151.026, 120.886, 88.5673, 0, 0, 4.60343, -54.083, 4.61002, -174.1, 4.62406, 65.4934, 0.0333351, -170.528
1, 60.00000, 119.983, -31.009, 121.255, -151.026, 120.886, 88.5673, 0, 0, 4.60343, -54.083, 4.61002, -174.1, 4.62406, 65.4934, 0.0333351, -170.528
1, 120.00000, 119.983, -31.009, 121.255, -151.026, 120.886, 88.5673, 0, 0, 4.60343, -54.083, 4.61002, -174.1, 4.62406, 65.4934, 0.0333351, -170.528
1, 180.00000, 119.983, -31.009, 121.255, -151.026, 120.886, 88.5673, 0, 0, 4.60343, -54.083, 4.61002, -174.1, 4.62406, 65.4934, 0.0333351, -170.528
1, 240.00000, 119.983, -31.009, 121.255, -151.026, 120.886, 88.5673, 0, 0, 4.60343, -54.083, 4.61002, -174.1, 4.62406, 65.4934, 0.0333351, -170.528
1, 300.00000, 119.983, -31.009, 121.255, -151.026, 120.886, 88.5673, 0, 0, 4.60343, -54.083, 4.61002, -174.1, 4.62406, 65.4934, 0.0333351, -170.528
1, 360.00000, 119.983, -31.009, 121.255, -151.026, 120.886, 88.5673, 0, 0, 4.60343, -54.083, 4.61002, -174.1, 4.62406, 65.4934, 0.0333351, -170.528
1, 420.00000, 119.983, -31.009, 121.255, -151.026, 120.886, 88.5673, 0, 0, 4.60343, -54.083, 4.61002, -174.1, 4.62406, 65.4934, 0.0333351, -170.528
1, 480.00000, 119.983, -31.009, 121.255, -151.026, 120.886, 88.5673, 0, 0, 4.60343, -54.083, 4.61002, -174.1, 4.62406, 65.4934, 0.0333351, -170.528
1, 540.00000, 119.983, -31.009, 121.255, -151.026, 120.886, 88.5673, 0, 0, 4.60343, -54.083, 4.61002, -174.1, 4.62406, 65.4934, 0.0333351, -170.528
1, 600.00000, 119.983, -31.009, 121.255, -151.026, 120.886, 88.5673, 0, 0, 4.60343, -54.083, 4.61002, -174.1, 4.62406, 65.4934, 0.0333351, -170.528
1, 660.00000, 119.983, -31.009, 121.255, -151.026, 120.886, 88.5673, 0, 0, 4.60343, -54.083, 4.61002, -174.1, 4.62406, 65.4934, 0.0333351, -170.528
1, 720.00000, 119.983, -31.009, 121.255, -151.026, 120.886, 88.5673, 0, 0, 4.60343, -54.083, 4.61002, -174.1, 4.62406, 65.4934, 0.0333351, -170.528
1, 780.00000, 119.983, -31.009, 121.255, -151.026, 120.886, 88.5673, 0, 0, 4.60343, -54.083, 4.61002, -174.1, 4.62406, 65.4934, 0.0333351, -170.528
1, 840.00000, 119.983, -31.009, 121.255, -151.026, 120.886, 88.5673, 0, 0, 4.60343, -54.083, 4.61002, -174.1, 4.62406, 65.4934, 0.0333351, -170.528
1, 900.00000, 119.983, -31.009, 121.255, -151.026, 120.886, 88.5673, 0, 0, 4.60343, -54.083, 4.61002, -174.1, 4.62406, 65.4934, 0.0333351, -170.528
1, 960.00000, 119.983, -31.009, 121.255, -151.026, 120.886, 88.5673, 0, 0, 4.60343, -54.083, 4.61002, -174.1, 4.62406, 65.4934, 0.0333351, -170.528
1, 1020.00000, 119.983, -31.009, 121.255, -151.026, 120.886, 88.5673, 0, 0, 4.60343, -54.083, 4.61002, -174.1, 4.62406, 65.4934, 0.0333351, -170.528
1, 1080.00000, 119.983, -31.009, 121.255, -151.026, 120.886, 88.5673, 0, 0, 4.60343, -54.083, 4.61002, -174.1, 4.62406, 65.4934, 0.0333351, -170.528
1, 1140.00000, 119.983, -31.009, 121.255, -151.026, 120.886, 88.5673, 0, 0, 4.60343, -54.083, 4.61002, -174.1, 4.62406, 65.4934, 0.0333351, -170.528
1, 1200.00000, 119.983, -31.009, 121.255, -151.026, 120.886, 88.5673, 0, 0, 4.60343, -54.083, 4.61002, -174.1, 4.62406, 65.4934, 0.0333351, -170.528
1, 1260.00000, 119.983, -31.009, 121.255, -151.026, 120.886, 88.5673, 0, 0, 4.60343, -54.083, 4.61002, -174.1, 4.62406, 65.4934, 0.0333351, -170.528
1, 1320.00000, 119.983, -31.009, 121.255, -151.026, 120.886, 88.5673, 0, 0, 4.60343, -54.083, 4.61002, -174.1, 4.62406, 65.4934, 0.0333351, -170.528
1, 1380.00000, 119.983, -31.009, 121.255, -151.026, 120.886, 88.5673, 0, 0, 4.60343, -54.083, 4.61002, -174.1, 4.62406, 65.4934, 0.0333351, -170.528
1, 1440.00000, 119.983, -31.009, 121.255, -151.026, 120.886, 88.5673, 0, 0, 4.60343, -54.083, 4.61002, -174.1, 4.62406, 65.4934, 0.0333351, -170.528
1, 1500.00000, 119.983, -31.009, 121.255, -151.026, 120.886, 88.5673, 0, 0, 4.60343, -54.083, 4.61002, -174.1, 4.62406, 65.4934, 0.0333351, -170.528
1, 1560.00000, 119.983, -31.009, 121.255, -151.026, 120.886, 88.5673, 0, 0, 4.60343, -54.083, 4.61002, -174.1, 4.62406, 65.4934, 0.0333351, -170.528
1, 1620.00000, 119.983, -31.009, 121.255, -151.026, 120.886, 88.5673, 0, 0, 4.60343, -54.083, 4.61002, -174.1, 4.62406, 65.4934, 0.0333351, -170.528
1, 1680.00000, 119.983, -31.009, 121.255, -151.026, 120.886, 88.5673, 0, 0, 4.60343, -54.083, 4.61002, -174.1, 4.62406, 65.4934, 0.0333351, -170.528
1, 1740.00000, 119.983, -31.009, 121.255, -151.026, 120.886, 88.5673, 0, 0, 4.60343, -54.083, 4.61002, -174.1, 4.62406, 65.4934, 0.0333351, -170.528
1, 1800.00000, 119.983, -31.009, 121.255, -151.026, 120.886, 88.5673, 0, 0, 4.60343, -54.083, 4.61002, -174.1, 4.62406, 65.4934, 0.0333351, -170.528
1, 1860.00000, 119.983, -31.009, 121.255, -151.026, 120.886, 88.5673, 0, 0, 4.60343, -54.083, 4.61002, -174.1, 4.62406, 65.4934, 0.0333351, -170.528
1, 1920.00000, 119.983, -31.009, 121.255, -151.026, 120.886, 88.5673, 0, 0, 4.60343, -54.083, 4.61002, -174.1, 4.62406, 65.4934, 0.0333351, -170.528
1, 1980.00000, 119.983, -31.009, 121.255, -151.026, 120.886, 88.5673, 0, 0, 4.60343, -54.083, 4.61002, -174.1, 4.62406, 65.4934, 0.0333351, -170.528
1, 2040.00000, 119.983, -31.009, 121.255, -151.026, 120.886, 88.5673, 0, 0, 4.60343, -54.083, 4.61002, -174.1, 4.62406, 65.4934, 0.0333351, -170.528
1, 2100.00000, 119.983, -31.009, 121.255, -151.026, 120.886, 88.5673, 0, 0, 4.60343, -54.083, 4.61002, -174.1, 4.62406, 65.4934, 0.0333351, -170.528
1, 2160.00000, 119.983, -31.009, 121.255, -151.026, 120.886, 88.5673, 0, 0, 4.60343, -54.083, 4.61002, -174.1, 4.62406, 65.4934, 0.0333351, -170.528
1, 2220.00000, 119.983, -31.009, 121.255, -151.026, 120.886, 88.5673, 0, 0, 4.60343, -54.083, 4.61002, -174.1, 4.62406, 65.4934, 0.0333351, -170.528
1, 2280.00000, 119.983, -31.009, 121.255, -151.026, 120.886, 88.5673, 0, 0, 4.60343, -54.083, 4.61002, -174.1, 4.62406, 65.4934, 0.0333351, -170.528
1, 2340.00000, 119.983, -31.009, 121.255, -151.026, 120.886, 88.5673, 0, 0, 4.60343, -54.083, 4.61002, -174.1, 4.62406, 65.4934, 0.0333351, -170.528
1, 2400.00000, 119.983, -31.009, 121.255, -151.026, 120.886, 88.5673, 0, 0, 4.60343, -54.083, 4.61002, -174.1, 4.62406, 65.4934, 0.0333351, -170.528
1, 2460.00000, 119.983, -31.009, 121.255, -151.026, 120.886, 88.5673, 0, 0, 4.60343, -54.083, 4.61002, -174.1, 4.62406, 65.4934, 0.0333351, -170.528
1, 2520.00000, 119.983, -31.009, 121.255, -151.026, 120.886, 88.5673, 0, 0, 4.60343, -54.083, 4.61002, -174.1, 4.62406, 65.4934, 0.0333351, -170.528
1, 2580.00000, 119.983, -31.009, 121.255, -151.026, 120.886, 88.5673, 0, 0, 4.60343, -54.083, 4.61002, -174.1, 4.62406, 65.4934, 0.0333351, -170.528
1, 2640.00000, 119.983, -31.009, 121.255, -151.026, 120.886, 88.5673, 0, 0, 4.60343, -54.083, 4.61002, -174.1, 4.62406, 65.4934, 0.0333351, -170.528
1, 2700.00000, 119.983, -31.009, 121.255, -151.026, 120.886, 88.5673, 0, 0, 4.60343, -54.083, 4.61002, -174.1, 4.62406, 65.4934, 0.0333351, -170.528
1, 2760.00000, 119.983, -31.009, 121.255, -151.026, 120.886, 88.5673, 0, 0, 4.60343, -54.083, 4.61002, -174.1, 4.62406, 65.4934, 0.0333351, -170.528
1, 2820.00000, 119.983, -31.009, 121.255, -151.026, 120.886, 88.5673, 0, 0, 4.60343, -54.083, 4.61002, -174.1, 4.62406, 65.4934, 0.0333351, -170.528
1, 2880.00000, 119.983, -31.009, 121.255, -151.026, 120.886, 88.5673, 0, 0, 4.60343, -54.083, 4.61002, -174.1, 4.62406, 65.4934, 0.0333351, -170.528
1, 2940.00000, 119.983, -31.009, 121.255, -151.026, 120.886, 88.5673, 0, 0, 4.60343, -54.083, 4.61002, -174.1, 4.62406, 65.4934, 0.0333351, -170.528
1, 3000.00000, 119.983, -31.009, 121.255, -151.026, 120.886, 88.5673, 0, 0, 4.60343, -54.083, 4.61002, -174.1, 4.62406, 65.4934, 0.0333351, -170.528
1, 3060.00000, 119.983, -31.009, 121.255, -151.026, 120.886, 88.5673, 0, 0, 4.60343, -54.083, 4.61002, -174.1, 4.62406, 65.4934, 0.0333351, -170.528
1, 3120.00000, 119.983, -31.009, 121.255, -151.026, 120.886, 88.5673, 0, 0, 4.60343, -54.083, 4.61002, -174.1, 4.62406, 65.4934, 0.0333351, -170.528
1, 3180.00000, 119.983, -31.009, 121.255, -151.026, 120.886, 88.5673, 0, 0, 4.60343, -54.083, 4.61002, -174.1, 4.62406, 65.4934, 0.0333351, -170.528
1, 3240.00000, 119.983, -31.009, 121.255, -151.026, 120.886, 88.5673, 0, 0, 4.60343, -54.083, 4.61002, -174.1, 4.62406, 65.4934, 0.0333351, -170.528
1, 3300.00000, 119.983, -31.009, 121.255, -151.026, 120.886, 88.5673, 0, 0, 4.60343, -54.083, 4.61002, -174.1, 4.62406, 65.4934, 0.0333351, -170.528
1, 3360.00000, 119.983, -31.009, 121.255, -151.026, 120.886, 88.5673, 0, 0, 4.60343, -54.083, 4.61002, -174.1, 4.62406, 65.4934, 0.0333351, -170.528
1, 3420.00000, 119.983, -31.009, 121.255, -151.026, 120.886, 88.5673, 0, 0, 4.60343, -54.083, 4.61002, -174.1, 4.62406, 65.4934, 0.0333351, -170.528
1, 3480.00000, 119.983, -31.009, 121.255, -151.026, 120.886, 88.5673, 0, 0, 4.60343, -54.083, 4.61002, -174.1, 4.62406, 65.4934, 0.0333351, -170.528
1, 3540.00000, 119.983, -31.009, 121.255, -151.026, 120.886, 88.5673, 0, 0, 4.60343, -54.083, 4.61002, -174.1, 4.62406, 65.4934, 0.0333351, -170.528
2, 0.00000, 119.983, -31.009, 121.255, -151.026, 120.886, 88.5673, 0, 0, 4.60343, -54.083, 4.61002, -174.1, 4.62406, 65.4934, 0.0333351, -170.528
2, 60.00000, 119.983, -31.009, 121.255, -151.026, 120.886, 88.5673, 0, 0, 4.60343, -54.083, 4.61002, -174.1, 4.62406, 65.4934, 0.0333351, -170.528
2, 120.00000, 119.983, -31.009, 121.255, -151.026, 120.886, 88.5673, 0, 0, 4.60343, -54.083, 4.61002, -174.1, 4.62406, 65.4934, 0.0333351, -170.528
2, 180.00000, 119.983, -31.009, 121.255, -151.026, 120.886, 88.5673, 0, 0, 4.60343, -54.083, 4.61002, -174.1, 4.62406, 65.4934, 0.0333351, -170.528
2, 240.00000, 119.983, -31.009, 121.255, -151.026, 120.886, 88.5673, 0, 0, 4.60343, -54.083, 4.61002, -174.1, 4.62406, 65.4934, 0.0333351, -170.528
2, 300.00000, 119.983, -31.009, 121.255, -151.026, 120.886, 88.5673, 0, 0, 4.60343, -54.083, 4.61002, -174.1, 4.62406, 65.4934, 0.0333351, -170.528
2, 360.00000, 119.983, -31.009, 121.255, -151.026, 120.886, 88.5673, 0, 0, 4.60343, -54.083, 4.61002, -174.1, 4.62406, 65.4934, 0.0333351, -170.528
2, 420.00000, 119.983, -31.009, 121.255, -151.026, 120.886, 88.5673, 0, 0, 4.60343, -54.083, 4.61002, -174.1, 4.62406, 65.4934, 0.0333351, -170.528
2, 480.00000, 119.983, -31.009, 121.255, -151.026, 120.886, 88.5673, 0, 0, 4.60343, -54.083, 4.61002, -174.1, 4.62406, 65.4934, 0.0333351, -170.528
2, 540.00000, 119.983, -31.009, 121.255, -151.026, 120.886, 88.5673, 0, 0, 4.60343, -54.083, 4.61002, -174.1, 4.62406, 65.4934, 0.0333351, -170.528
2, 600.00000, 119.983, -31.009, 121.255, -151.026, 120.886, 88.5673, 0, 0, 4.60343, -54.083, 4.61002, -174.1, 4.62406, 65.4934, 0.0333351, -170.528
2, 660.00000, 119.983, -31.009, 121.255, -151.026, 120.886, 88.5673, 0, 0, 4.60343, -54.083, 4.61002, -174.1, 4.62406, 65.4934, 0.0333351, -170.528
2, 720.00000, 119.983, -31.009, 121.255, -151.026, 120.886, 88.5673, 0, 0, 4.60343, -54.083, 4.61002, -174.1, 4.62406, 65.4934, 0.0333351, -170.528
2, 780.00000, 119.983, -31.009, 121.255, -151.026, 120.886, 88.5673, 0, 0, 4.60343, -54.083, 4.61002, -174.1, 4.62406, 65.4934, 0.0333351, -170.528
