hour,t(sec),V1,VAngle1,V2,VAngle2,V3,VAngle3,V4,VAngle4,I1,IAngle1,I2,IAngle2,I3,IAngle3,I4,IAngle4
0, 60.00000, 118.488, -31.0485, 118.666, -150.922, 119.349, 88.9852, 0, 0, 4.85088, -54.1221, 4.85901, -173.996, 4.89012, 65.9115, 0.0262771, -104.185
0, 120.00000, 118.488, -31.0485, 118.666, -150.922, 119.349, 88.9851, 0, 0, 4.85086, -54.1224, 4.85898, -173.996, 4.89003, 65.9112, 0.0261977, -104.185
0, 180.00000, 118.488, -31.0485, 118.666, -150.922, 119.349, 88.9851, 0, 0, 4.85086, -54.1224, 4.85898, -173.996, 4.89003, 65.9112, 0.0261973, -104.185
0, 240.00000, 118.488, -31.0485, 118.666, -150.922, 119.349, 88.9851, 0, 0, 4.85086, -54.1224, 4.85898, -173.996, 4.89003, 65.9112, 0.0261973, -104.185
0, 300.00000, 118.488, -31.0485, 118.666, -150.922, 119.349, 88.9851, 0, 0, 4.85086, -54.1224, 4.85898, -173.996, 4.89003, 65.9112, 0.0261973, -104.185
0, 360.00000, 118.488, -31.0485, 118.666, -150.922, 119.349, 88.9851, 0, 0, 4.85086, -54.1224, 4.85898, -173.996, 4.89003, 65.9112, 0.0261973, -104.185
0, 420.00000, 118.488, -31.0485, 118.666, -150.922, 119.349, 88.9851, 0, 0, 4.85086, -54.1224, 4.85898, -173.996, 4.89003, 65.9112, 0.0261973, -104.185
0, 480.00000, 119.488, -30.9522, 119.63, -150.829, 120.302, 89.099, 0, 0, 4.68941, -54.0266, 4.69559, -173.904, 4.72478, 66.0246, 0.0239753, -103.163
0, 540.00000, 119.488, -30.9522, 119.63, -150.829, 120.303, 89.0991, 0, 0, 4.68947, -54.0261, 4.69567, -173.903, 4.72495, 66.0252, 0.0241131, -103.124
0, 600.00000, 119.488, -30.9522, 119.63, -150.829, 120.303, 89.0991, 0, 0, 4.68947, -54.0261, 4.69567, -173.903, 4.72496, 66.0252, 0.024116, -103.124
0, 660.00000, 119.488, -30.9522, 119.63, -150.829, 120.303, 89.0991, 0, 0, 4.68947, -54.0261, 4.69567, -173.903, 4.72496, 66.0252, 0.0241161, -103.124
0, 720.00000, 119.488, -30.9522, 119.63, -150.829, 120.303, 89.0991, 0, 0, 4.68947, -54.0261, 4.69567, -173.903, 4.72496, 66.0252, 0.0241161, -103.124
0, 780.00000, 119.488, -30.9522, 119.63, -150.829, 120.303, 89.0991, 0, 0, 4.68947, -54.0261, 4.69567, -173.903, 4.72496, 66.0252, 0.0241161, -103.124
0, 840.00000, 119.488, -30.9522, 119.63, -150.829, 120.303, 89.0991, 0, 0, 4.68947, -54.0261, 4.69567, -173.903, 4.72496, 66.0252, 0.0241161, -103.124
0, 900.00000, 119.488, -30.9522, 119.63, -150.829, 120.303, 89.0991, 0, 0, 4.68947, -54.0261, 4.69567, -173.903, 4.72496, 66.0252, 0.0241161, -103.124
0, 960.00000, 119.488, -30.9522, 119.63, -150.829, 120.303, 89.0991, 0, 0, 4.68947, -54.0261, 4.69567, -173.903, 4.72496, 66.0252, 0.0241161, -103.124
0, 1020.00000, 119.488, -30.9522, 119.63, -150.829, 120.303, 89.0991, 0, 0, 4.68947, -54.0261, 4.69567, -173.903, 4.72496, 66.0252, 0.0241161, -103.124
0, 1080.00000, 119.488, -30.9522, 119.63, -150.829, 120.303, 89.0991, 0, 0, 4.68947, -54.0261, 4.69567, -173.903, 4.72496, 66.0252, 0.0241161, -103.124
0, 1140.00000, 119.488, -30.9522, 119.63, -150.829, 120.303, 89.0991, 0, 0, 4.68947, -54.0261, 4.69567, -173.903, 4.72496, 66.0252, 0.0241161, -103.124
0, 1200.00000, 119.488, -30.9522, 119.63, -150.829, 120.303, 89.0991, 0, 0, 4.68947, -54.0261, 4.69567, -173.903, 4.72496, 66.0252, 0.0241161, -103.124
0, 1260.00000, 119.488, -30.9522, 119.63, -150.829, 120.303, 89.0991, 0, 0, 4.68947, -54.0261, 4.69567, -173.903, 4.72496, 66.0252, 0.0241161, -103.124
0, 1320.00000, 119.488, -30.9522, 119.63, -150.829, 120.303, 89.0991, 0, 0, 4.68947, -54.0261, 4.69567, -173.903, 4.72496, 66.0252, 0.0241161, -103.124
0, 1380.00000, 119.488, -30.9522, 119.63, -150.829, 120.303, 89.0991, 0, 0, 4.68947, -54.0261, 4.69567, -173.903, 4.72496, 66.0252, 0.0241161, -103.124
0, 1440.00000, 119.488, -30.9522, 119.63, -150.829, 120.303, 89.0991, 0, 0, 4.68947, -54.0261, 4.69567, -173.903, 4.72496, 66.0252, 0.0241161, -103.124
0, 1500.00000, 119.488, -30.9522, 119.63, -150.829, 120.303, 89.0991, 0, 0, 4.68947, -54.0261, 4.69567, -173.903, 4.72496, 66.0252, 0.0241161, -103.124
0, 1560.00000, 119.488, -30.9522, 119.63, -150.829, 120.303, 89.0991, 0, 0, 4.68947, -54.0261, 4.69567, -173.903, 4.72496, 66.0252, 0.0241161, -103.124
0, 1620.00000, 119.488, -30.9522, 119.63, -150.829, 120.303, 89.0991, 0, 0, 4.68947, -54.0261, 4.69567, -173.903, 4.72496, 66.0252, 0.0241161, -103.124
0, 1680.00000, 119.488, -30.9522, 119.63, -150.829, 120.303, 89.0991, 0, 0, 4.68947, -54.0261, 4.69567, -173.903, 4.72496, 66.0252, 0.0241161, -103.124
0, 1740.00000, 119.488, -30.9522, 119.63, -150.829, 120.303, 89.0991, 0, 0, 4.68947, -54.0261, 4.69567, -173.903, 4.72496, 66.0252, 0.0241161, -103.124
0, 1800.00000, 119.488, -30.9522, 119.63, -150.829, 120.303, 89.0991, 0, 0, 4.68947, -54.0261, 4.69567, -173.903, 4.72496, 66.0252, 0.0241161, -103.124
0, 1860.00000, 119.488, -30.9522, 119.63, -150.829, 120.303, 89.0991, 0, 0, 4.68947, -54.0261, 4.69567, -173.903, 4.72496, 66.0252, 0.0241161, -103.124
0, 1920.00000, 119.488, -30.9522, 119.63, -150.829, 120.303, 89.0991, 0, 0, 4.68947, -54.0261, 4.69567, -173.903, 4.72496, 66.0252, 0.0241161, -103.124
0, 1980.00000, 119.488, -30.9522, 119.63, -150.829, 120.303, 89.0991, 0, 0, 4.68947, -54.0261, 4.69567, -173.903, 4.72496, 66.0252, 0.0241161, -103.124
0, 2040.00000, 119.488, -30.9522, 119.63, -150.829, 120.303, 89.0991, 0, 0, 4.68947, -54.0261, 4.69567, -173.903, 4.72496, 66.0252, 0.0241161, -103.124
0, 2100.00000, 119.488, -30.9522, 119.63, -150.829, 120.303, 89.0991, 0, 0, 4.68947, -54.0261, 4.69567, -173.903, 4.72496, 66.0252, 0.0241161, -103.124
0, 2160.00000, 119.488, -30.9522, 119.63, -150.829, 120.303, 89.0991, 0, 0, 4.68947, -54.0261, 4.69567, -173.903, 4.72496, 66.0252, 0.0241161, -103.124
0, 2220.00000, 119.488, -30.9522, 119.63, -150.829, 120.303, 89.0991, 0, 0, 4.68947, -54.0261, 4.69567, -173.903, 4.72496, 66.0252, 0.0241161, -103.124
0, 2280.00000, 119.488, -30.9522, 119.63, -150.829, 120.303, 89.0991, 0, 0, 4.68947, -54.0261, 4.69567, -173.903, 4.72496, 66.0252, 0.0241161, -103.124
0, 2340.00000, 119.488, -30.9522, 119.63, -150.829, 120.303, 89.0991, 0, 0, 4.68947, -54.0261, 4.69567, -173.903, 4.72496, 66.0252, 0.0241161, -103.124
0, 2400.00000, 119.488, -30.9522, 119.63, -150.829, 120.303, 89.0991, 0, 0, 4.68947, -54.0261, 4.69567, -173.903, 4.72496, 66.0252, 0.0241161, -103.124
0, 2460.00000, 119.488, -30.9522, 119.63, -150.829, 120.303, 89.0991, 0, 0, 4.68947, -54.0261, 4.69567, -173.903, 4.72496, 66.0252, 0.0241161, -103.124
0, 2520.00000, 119.488, -30.9522, 119.63, -150.829, 120.303, 89.0991, 0, 0, 4.68947, -54.0261, 4.69567, -173.903, 4.72496, 66.0252, 0.0241161, -103.124
0, 2580.00000, 119.488, -30.9522, 119.63, -150.829, 120.303, 89.0991, 0, 0, 4.68947, -54.0261, 4.69567, -173.903, 4.72496, 66.0252, 0.0241161, -103.124
0, 2640.00000, 119.488, -30.9522, 119.63, -150.829, 120.303, 89.0991, 0, 0, 4.68947, -54.0261, 4.69567, -173.903, 4.72496, 66.0252, 0.0241161, -103.124
0, 2700.00000, 119.488, -30.9522, 119.63, -150.829, 120.303, 89.0991, 0, 0, 4.68947, -54.0261, 4.69567, -173.903, 4.72496, 66.0252, 0.0241161, -103.124
0, 2760.00000, 119.488, -30.9522, 119.63, -150.829, 120.303, 89.0991, 0, 0, 4.68947, -54.0261, 4.69567, -173.903, 4.72496, 66.0252, 0.0241161, -103.124
0, 2820.00000, 119.488, -30.9522, 119.63, -150.829, 120.303, 89.0991, 0, 0, 4.68947, -54.0261, 4.69567, -173.903, 4.72496, 66.0252, 0.0241161, -103.124
0, 2880.00000, 119.488, -30.9522, 119.63, -150.829, 120.303, 89.0991, 0, 0, 4.68947, -54.0261, 4.69567, -173.903, 4.72496, 66.0252, 0.0241161, -103.124
0, 2940.00000, 119.488, -30.9522, 119.63, -150.829, 120.303, 89.0991, 0, 0, 4.68947, -54.0261, 4.69567, -173.903, 4.72496, 66.0252, 0.0241161, -103.124
0, 3000.00000, 119.488, -30.9522, 119.63, -150.829, 120.303, 89.0991, 0, 0, 4.68947, -54.0261, 4.69567, -173.903, 4.72496, 66.0252, 0.0241161, -103.124
0, 3060.00000, 119.488, -30.9522, 119.63, -150.829, 120.303, 89.0991, 0, 0, 4.68947, -54.0261, 4.69567, -173.903, 4.72496, 66.0252, 0.0241161, -103.124
0, 3120.00000, 119.488, -30.9522, 119.63, -150.829, 120.303, 89.0991, 0, 0, 4.68947, -54.0261, 4.69567, -173.903, 4.72496, 66.0252, 0.0241161, -103.124
0, 3180.00000, 119.488, -30.9522, 119.63, -150.829, 120.303, 89.0991, 0, 0, 4.68947, -54.0261, 4.69567, -173.903, 4.72496, 66.0252, 0.0241161, -103.124
0, 3240.00000, 119.488, -30.9522, 119.63, -150.829, 120.303, 89.0991, 0, 0, 4.68947, -54.0261, 4.69567, -173.903, 4.72496, 66.0252, 0.0241161, -103.124
0, 3300.00000, 119.488, -30.9522, 119.63, -150.829, 120.303, 89.0991, 0, 0, 4.68947, -54.0261, 4.69567, -173.903, 4.72496, 66.0252, 0.0241161, -103.124
0, 3360.00000, 119.488, -30.9522, 119.63, -150.829, 120.303, 89.0991, 0, 0, 4.68947, -54.0261, 4.69567, -173.903, 4.72496, 66.0252, 0.0241161, -103.124
0, 3420.00000, 119.488, -30.9522, 119.63, -150.829, 120.303, 89.0991, 0, 0, 4.68947, -54.0261, 4.69567, -173.903, 4.72496, 66.0252, 0.0241161, -103.124
0, 3480.00000, 119.488, -30.9522, 119.63, -150.829, 120.303, 89.0991, 0, 0, 4.68947, -54.0261, 4.69567, -173.903, 4.72496, 66.0252, 0.0241161, -103.124
0, 3540.00000, 119.488, -30.9522, 119.63, -150.829, 120.303, 89.0991, 0, 0, 4.68947, -54.0261, 4.69567, -173.903, 4.72496, 66.0252, 0.0241161, -103.124
1, 0.00000, 119.488, -30.9522, 119.63, -150.829, 120.303, 89.0991, 0, 0, 4.68947, -54.0261, 4.69567, -173.903, 4.72496, 66.0252, 0.0241161, -103.124
1, 60.00000, 119.488, -30.9522, 119.63, -150.829, 120.303, 89.0991, 0, 0, 4.68947, -54.0261, 4.69567, -173.903, 4.72496, 66.0252, 0.0241161, -103.124
1, 120.00000, 119.488, -30.9522, 119.63, -150.829, 120.303, 89.0991, 0, 0, 4.68947, -54.0261, 4.69567, -173.903, 4.72496, 66.0252, 0.0241161, -103.124
1, 180.00000, 119.488, -30.9522, 119.63, -150.829, 120.303, 89.0991, 0, 0, 4.68947, -54.0261, 4.69567, -173.903, 4.72496, 66.0252, 0.0241161, -103.124
1, 240.00000, 119.488, -30.9522, 119.63, -150.829, 120.303, 89.0991, 0, 0, 4.68947, -54.0261, 4.69567, -173.903, 4.72496, 66.0252, 0.0241161, -103.124
1, 300.00000, 119.488, -30.9522, 119.63, -150.829, 120.303, 89.0991, 0, 0, 4.68947, -54.0261, 4.69567, -173.903, 4.72496, 66.0252, 0.0241161, -103.124
1, 360.00000, 119.488, -30.9522, 119.63, -150.829, 120.303, 89.0991, 0, 0, 4.68947, -54.0261, 4.69567, -173.903, 4.72496, 66.0252, 0.0241161, -103.124
1, 420.00000, 119.488, -30.9522, 119.63, -150.829, 120.303, 89.0991, 0, 0, 4.68947, -54.0261, 4.69567, -173.903, 4.72496, 66.0252, 0.0241161, -103.124
1, 480.00000, 119.488, -30.9522, 119.63, -150.829, 120.303, 89.0991, 0, 0, 4.68947, -54.0261, 4.69567, -173.903, 4.72496, 66.0252, 0.0241161, -103.124
1, 540.00000, 119.488, -30.9522, 119.63, -150.829, 120.303, 89.0991, 0, 0, 4.68947, -54.0261, 4.69567, -173.903, 4.72496, 66.0252, 0.0241161, -103.124
1, 600.00000, 119.488, -30.9522, 119.63, -150.829, 120.303, 89.0991, 0, 0, 4.68947, -54.0261, 4.69567, -173.903, 4.72496, 66.0252, 0.0241161, -103.124
1, 660.00000, 119.488, -30.9522, 119.63, -150.829, 120.303, 89.0991, 0, 0, 4.68947, -54.0261, 4.69567, -173.903, 4.72496, 66.0252, 0.0241161, -103.124
1, 720.00000, 119.488, -30.9522, 119.63, -150.829, 120.303, 89.0991, 0, 0, 4.68947, -54.0261, 4.69567, -173.903, 4.72496, 66.0252, 0.0241161, -103.124
1, 780.00000, 119.488, -30.9522, 119.63, -150.829, 120.303, 89.0991, 0, 0, 4.68947, -54.0261, 4.69567, -173.903, 4.72496, 66.0252, 0.0241161, -103.124
1, 840.00000, 119.488, -30.9522, 119.63, -150.829, 120.303, 89.0991, 0, 0, 4.68947, -54.0261, 4.69567, -173.903, 4.72496, 66.0252, 0.0241161, -103.124
1, 900.00000, 119.488, -30.9522, 119.63, -150.829, 120.303, 89.0991, 0, 0, 4.68947, -54.0261, 4.69567, -173.903, 4.72496, 66.0252, 0.0241161, -103.124
1, 960.00000, 119.488, -30.9522, 119.63, -150.829, 120.303, 89.0991, 0, 0, 4.68947, -54.0261, 4.69567, -173.903, 4.72496, 66.0252, 0.0241161, -103.124
1, 1020.00000, 119.488, -30.9522, 119.63, -150.829, 120.303, 89.0991, 0, 0, 4.68947, -54.0261, 4.69567, -173.903, 4.72496, 66.0252, 0.0241161, -103.124
1, 1080.00000, 119.488, -30.9522, 119.63, -150.829, 120.303, 89.0991, 0, 0, 4.68947, -54.0261, 4.69567, -173.903, 4.72496, 66.0252, 0.0241161, -103.124
1, 1140.00000, 119.488, -30.9522, 119.63, -150.829, 120.303, 89.0991, 0, 0, 4.68947, -54.0261, 4.69567, -173.903, 4.72496, 66.0252, 0.0241161, -103.124
1, 1200.00000, 119.488, -30.9522, 119.63, -150.829, 120.303, 89.0991, 0, 0, 4.68947, -54.0261, 4.69567, -173.903, 4.72496, 66.0252, 0.0241161, -103.124
1, 1260.00000, 119.488, -30.9522, 119.63, -150.829, 120.303, 89.0991, 0, 0, 4.68947, -54.0261, 4.69567, -173.903, 4.72496, 66.0252, 0.0241161, -103.124
1, 1320.00000, 119.488, -30.9522, 119.63, -150.829, 120.303, 89.0991, 0, 0, 4.68947, -54.0261, 4.69567, -173.903, 4.72496, 66.0252, 0.0241161, -103.124
1, 1380.00000, 119.488, -30.9522, 119.63, -150.829, 120.303, 89.0991, 0, 0, 4.68947, -54.0261, 4.69567, -173.903, 4.72496, 66.0252, 0.0241161, -103.124
1, 1440.00000, 119.488, -30.9522, 119.63, -150.829, 120.303, 89.0991, 0, 0, 4.68947, -54.0261, 4.69567, -173.903, 4.72496, 66.0252, 0.0241161, -103.124
1, 1500.00000, 119.488, -30.9522, 119.63, -150.829, 120.303, 89.0991, 0, 0, 4.68947, -54.0261, 4.69567, -173.903, 4.72496, 66.0252, 0.0241161, -103.124
1, 1560.00000, 119.488, -30.9522, 119.63, -150.829, 120.303, 89.0991, 0, 0, 4.68947, -54.0261, 4.69567, -173.903, 4.72496, 66.0252, 0.0241161, -103.124
1, 1620.00000, 119.488, -30.9522, 119.63, -150.829, 120.303, 89.0991, 0, 0, 4.68947, -54.0261, 4.69567, -173.903, 4.72496, 66.0252, 0.0241161, -103.124
1, 1680.00000, 119.488, -30.9522, 119.63, -150.829, 120.303, 89.0991, 0, 0, 4.68947, -54.0261, 4.69567, -173.903, 4.72496, 66.0252, 0.0241161, -103.124
1, 1740.00000, 119.488, -30.9522, 119.63, -150.829, 120.303, 89.0991, 0, 0, 4.68947, -54.0261, 4.69567, -173.903, 4.72496, 66.0252, 0.0241161, -103.124
1, 1800.00000, 119.488, -30.9522, 119.63, -150.829, 120.303, 89.0991, 0, 0, 4.68947, -54.0261, 4.69567, -173.903, 4.72496, 66.0252, 0.0241161, -103.124
1, 1860.00000, 119.488, -30.9522, 119.63, -150.829, 120.303, 89.0991, 0, 0, 4.68947, -54.0261, 4.69567, -173.903, 4.72496, 66.0252, 0.0241161, -103.124
1, 1920.00000, 119.488, -30.9522, 119.63, -150.829, 120.303, 89.0991, 0, 0, 4.68947, -54.0261, 4.69567, -173.903, 4.72496, 66.0252, 0.0241161, -103.124
1, 1980.00000, 119.488, -30.9522, 119.63, -150.829, 120.303, 89.0991, 0, 0, 4.68947, -54.0261, 4.69567, -173.903, 4.72496, 66.0252, 0.0241161, -103.124
1, 2040.00000, 119.488, -30.9522, 119.63, -150.829, 120.303, 89.0991, 0, 0, 4.68947, -54.0261, 4.69567, -173.903, 4.72496, 66.0252, 0.0241161, -103.124
1, 2100.00000, 119.488, -30.9522, 119.63, -150.829, 120.303, 89.0991, 0, 0, 4.68947, -54.0261, 4.69567, -173.903, 4.72496, 66.0252, 0.0241161, -103.124
1, 2160.00000, 119.488, -30.9522, 119.63, -150.829, 120.303, 89.0991, 0, 0, 4.68947, -54.0261, 4.69567, -173.903, 4.72496, 66.0252, 0.0241161, -103.124
1, 2220.00000, 119.488, -30.9522, 119.63, -150.829, 120.303, 89.0991, 0, 0, 4.68947, -54.0261, 4.69567, -173.903, 4.72496, 66.0252, 0.0241161, -103.124
1, 2280.00000, 119.488, -30.9522, 119.63, -150.829, 120.303, 89.0991, 0, 0, 4.68947, -54.0261, 4.69567, -173.903, 4.72496, 66.0252, 0.0241161, -103.124
1, 2340.00000, 119.488, -30.9522, 119.63, -150.829, 120.303, 89.0991, 0, 0, 4.68947, -54.0261, 4.69567, -173.903, 4.72496, 66.0252, 0.0241161, -103.124
1, 2400.00000, 119.488, -30.9522, 119.63, -150.829, 120.303, 89.0991, 0, 0, 4.68947, -54.0261, 4.69567, -173.903, 4.72496, 66.0252, 0.0241161, -103.124
1, 2460.00000, 119.488, -30.9522, 119.63, -150.829, 120.303, 89.0991, 0, 0, 4.68947, -54.0261, 4.69567, -173.903, 4.72496, 66.0252, 0.0241161, -103.124
1, 2520.00000, 119.488, -30.9522, 119.63, -150.829, 120.303, 89.0991, 0, 0, 4.68947, -54.0261, 4.69567, -173.903, 4.72496, 66.0252, 0.0241161, -103.124
1, 2580.00000, 119.488, -30.9522, 119.63, -150.829, 120.303, 89.0991, 0, 0, 4.68947, -54.0261, 4.69567, -173.903, 4.72496, 66.0252, 0.0241161, -103.124
1, 2640.00000, 119.488, -30.9522, 119.63, -150.829, 120.303, 89.0991, 0, 0, 4.68947, -54.0261, 4.69567, -173.903, 4.72496, 66.0252, 0.0241161, -103.124
1, 2700.00000, 119.488, -30.9522, 119.63, -150.829, 120.303, 89.0991, 0, 0, 4.68947, -54.0261, 4.69567, -173.903, 4.72496, 66.0252, 0.0241161, -103.124
1, 2760.00000, 119.488, -30.9522, 119.63, -150.829, 120.303, 89.0991, 0, 0, 4.68947, -54.0261, 4.69567, -173.903, 4.72496, 66.0252, 0.0241161, -103.124
1, 2820.00000, 119.488, -30.9522, 119.63, -150.829, 120.303, 89.0991, 0, 0, 4.68947, -54.0261, 4.69567, -173.903, 4.72496, 66.0252, 0.0241161, -103.124
1, 2880.00000, 119.488, -30.9522, 119.63, -150.829, 120.303, 89.0991, 0, 0, 4.68947, -54.0261, 4.69567, -173.903, 4.72496, 66.0252, 0.0241161, -103.124
1, 2940.00000, 119.488, -30.9522, 119.63, -150.829, 120.303, 89.0991, 0, 0, 4.68947, -54.0261, 4.69567, -173.903, 4.72496, 66.0252, 0.0241161, -103.124
1, 3000.00000, 119.488, -30.9522, 119.63, -150.829, 120.303, 89.0991, 0, 0, 4.68947, -54.0261, 4.69567, -173.903, 4.72496, 66.0252, 0.0241161, -103.124
1, 3060.00000, 119.488, -30.9522, 119.63, -150.829, 120.303, 89.0991, 0, 0, 4.68947, -54.0261, 4.69567, -173.903, 4.72496, 66.0252, 0.0241161, -103.124
1, 3120.00000, 119.488, -30.9522, 119.63, -150.829, 120.303, 89.0991, 0, 0, 4.68947, -54.0261, 4.69567, -173.903, 4.72496, 66.0252, 0.0241161, -103.124
1, 3180.00000, 119.488, -30.9522, 119.63, -150.829, 120.303, 89.0991, 0, 0, 4.68947, -54.0261, 4.69567, -173.903, 4.72496, 66.0252, 0.0241161, -103.124
1, 3240.00000, 119.488, -30.9522, 119.63, -150.829, 120.303, 89.0991, 0, 0, 4.68947, -54.0261, 4.69567, -173.903, 4.72496, 66.0252, 0.0241161, -103.124
1, 3300.00000, 119.488, -30.9522, 119.63, -150.829, 120.303, 89.0991, 0, 0, 4.68947, -54.0261, 4.69567, -173.903, 4.72496, 66.0252, 0.0241161, -103.124
1, 3360.00000, 119.488, -30.9522, 119.63, -150.829, 120.303, 89.0991, 0, 0, 4.68947, -54.0261, 4.69567, -173.903, 4.72496, 66.0252, 0.0241161, -103.124
1, 3420.00000, 119.488, -30.9522, 119.63, -150.829, 120.303, 89.0991, 0, 0, 4.68947, -54.0261, 4.69567, -173.903, 4.72496, 66.0252, 0.0241161, -103.124
1, 3480.00000, 119.488, -30.9522, 119.63, -150.829, 120.303, 89.0991, 0, 0, 4.68947, -54.0261, 4.69567, -173.903, 4.72496, 66.0252, 0.0241161, -103.124
1, 3540.00000, 119.488, -30.9522, 119.63, -150.829, 120.303, 89.0991, 0, 0, 4.68947, -54.0261, 4.69567, -173.903, 4.72496, 66.0252, 0.0241161, -103.124
2, 0.00000, 119.488, -30.9522, 119.63, -150.829, 120.303, 89.0991, 0, 0, 4.68947, -54.0261, 4.69567, -173.903, 4.72496, 66.0252, 0.0241161, -103.124
2, 60.00000, 119.488, -30.9522, 119.63, -150.829, 120.303, 89.0991, 0, 0, 4.68947, -54.0261, 4.69567, -173.903, 4.72496, 66.0252, 0.0241161, -103.124
2, 120.00000, 119.488, -30.9522, 119.63, -150.829, 120.303, 89.0991, 0, 0, 4.68947, -54.0261, 4.69567, -173.903, 4.72496, 66.0252, 0.0241161, -103.124
2, 180.00000, 119.488, -30.9522, 119.63, -150.829, 120.303, 89.0991, 0, 0, 4.68947, -54.0261, 4.69567, -173.903, 4.72496, 66.0252, 0.0241161, -103.124
2, 240.00000, 119.488, -30.9522, 119.63, -150.829, 120.303, 89.0991, 0, 0, 4.68947, -54.0261, 4.69567, -173.903, 4.72496, 66.0252, 0.0241161, -103.124
2, 300.00000, 119.488, -30.9522, 119.63, -150.829, 120.303, 89.0991, 0, 0, 4.68947, -54.0261, 4.69567, -173.903, 4.72496, 66.0252, 0.0241161, -103.124
2, 360.00000, 119.488, -30.9522, 119.63, -150.829, 120.303, 89.0991, 0, 0, 4.68947, -54.0261, 4.69567, -173.903, 4.72496, 66.0252, 0.0241161, -103.124
2, 420.00000, 119.488, -30.9522, 119.63, -150.829, 120.303, 89.0991, 0, 0, 4.68947, -54.0261, 4.69567, -173.903, 4.72496, 66.0252, 0.0241161, -103.124
2, 480.00000, 119.488, -30.9522, 119.63, -150.829, 120.303, 89.0991, 0, 0, 4.68947, -54.0261, 4.69567, -173.903, 4.72496, 66.0252, 0.0241161, -103.124
2, 540.00000, 119.488, -30.9522, 119.63, -150.829, 120.303, 89.0991, 0, 0, 4.68947, -54.0261, 4.69567, -173.903, 4.72496, 66.0252, 0.0241161, -103.124
2, 600.00000, 119.488, -30.9522, 119.63, -150.829, 120.303, 89.0991, 0, 0, 4.68947, -54.0261, 4.69567, -173.903, 4.72496, 66.0252, 0.0241161, -103.124
2, 660.00000, 119.488, -30.9522, 119.63, -150.829, 120.303, 89.0991, 0, 0, 4.68947, -54.0261, 4.69567, -173.903, 4.72496, 66.0252, 0.0241161, -103.124
