hour,t(sec),V1,VAngle1,V2,VAngle2,V3,VAngle3,V4,VAngle4,I1,IAngle1,I2,IAngle2,I3,IAngle3,I4,IAngle4
0, 60.00000, 119.145, -33.7902, 118.71, -151.818, 123.019, 87.4355, 0, 0, 7.36526, -56.8638, 7.33517, -174.892, 7.32665, 64.3631, 0.241652, 62.9327
0, 120.00000, 119.139, -33.8172, 118.709, -151.819, 123.066, 87.4195, 0, 0, 7.36486, -56.8908, 7.33511, -174.892, 7.3238, 64.3469, 0.247195, 62.9558
0, 180.00000, 119.134, -33.8414, 118.708, -151.819, 123.109, 87.405, 0, 0, 7.36449, -56.9151, 7.33505, -174.892, 7.32125, 64.3323, 0.252181, 62.9751
0, 240.00000, 119.13, -33.8633, 118.708, -151.819, 123.148, 87.392, 0, 0, 7.36415, -56.937, 7.335, -174.893, 7.31894, 64.3191, 0.256666, 62.9912
0, 300.00000, 119.126, -33.883, 118.707, -151.819, 123.182, 87.3802, 0, 0, 7.36384, -56.9567, 7.33496, -174.893, 7.31688, 64.3073, 0.2607, 63.0048
0, 360.00000, 119.122, -33.9007, 118.706, -151.819, 123.214, 87.3696, 0, 0, 7.36357, -56.9744, 7.33491, -174.893, 7.31501, 64.2966, 0.26433, 63.016
0, 420.00000, 119.118, -33.9166, 118.706, -151.819, 123.242, 87.3601, 0, 0, 7.36331, -56.9904, 7.33488, -174.893, 7.31333, 64.287, 0.2676, 63.0248
0, 480.00000, 119.949, -33.8234, 119.477, -151.729, 124.138, 87.4777, 0, 0, 6.45569, -56.8971, 6.42738, -174.802, 6.31672, 64.4045, 0.327778, 63.4908
0, 540.00000, 119.946, -33.8363, 119.476, -151.729, 124.162, 87.47, 0, 0, 6.4555, -56.9101, 6.42735, -174.802, 6.31549, 64.3967, 0.330113, 63.4885
0, 600.00000, 119.943, -33.8479, 119.476, -151.729, 124.184, 87.4631, 0, 0, 6.45532, -56.9217, 6.42732, -174.803, 6.31438, 64.3897, 0.332217, 63.4859
0, 660.00000, 119.941, -33.8583, 119.475, -151.729, 124.203, 87.4568, 0, 0, 6.45517, -56.9322, 6.4273, -174.803, 6.31338, 64.3834, 0.33411, 63.4835
0, 720.00000, 119.939, -33.8678, 119.475, -151.729, 124.221, 87.4512, 0, 0, 6.45502, -56.9416, 6.42727, -174.803, 6.31248, 64.3778, 0.335813, 63.4813
0, 780.00000, 119.937, -33.8762, 119.475, -151.73, 124.237, 87.4462, 0, 0, 6.4549, -56.9501, 6.42725, -174.803, 6.31167, 64.3727, 0.337345, 63.4793
0, 840.00000, 119.935, -33.8839, 119.474, -151.73, 124.251, 87.4416, 0, 0, 6.45478, -56.9577, 6.42724, -174.803, 6.31094, 64.3681, 0.338724, 63.4775
0, 900.00000, 119.933, -33.8907, 119.474, -151.73, 124.264, 87.4375, 0, 0, 6.45468, -56.9646, 6.42722, -174.804, 6.31029, 64.3639, 0.339965, 63.4758
0, 960.00000, 119.076, -34.3219, 118.3, -151.587, 124.309, 87.4077, 0, 0, 6.40354, -57.3958, 6.35712, -174.66, 6.30799, 64.3341, 0.334431, 63.9303
0, 1020.00000, 119.075, -34.3275, 118.3, -151.587, 124.319, 87.4044, 0, 0, 6.40345, -57.4014, 6.35711, -174.66, 6.30746, 64.3307, 0.335428, 63.9273
0, 1080.00000, 119.074, -34.3325, 118.299, -151.587, 124.329, 87.4014, 0, 0, 6.40338, -57.4064, 6.3571, -174.661, 6.30699, 64.3277, 0.336326, 63.9246
0, 1140.00000, 119.168, -34.1987, 118.599, -151.554, 124.335, 87.4037, 0, 0, 6.40898, -57.2725, 6.375, -174.628, 6.30663, 64.33, 0.339222, 63.7437
0, 1200.00000, 119.167, -34.2027, 118.599, -151.554, 124.343, 87.4012, 0, 0, 6.40892, -57.2766, 6.37499, -174.628, 6.30625, 64.3275, 0.33995, 63.7419
0, 1260.00000, 119.166, -34.2064, 118.599, -151.554, 124.35, 87.399, 0, 0, 6.40886, -57.2803, 6.37499, -174.628, 6.3059, 64.3253, 0.340605, 63.7403
0, 1320.00000, 119.165, -34.2096, 118.599, -151.554, 124.356, 87.3971, 0, 0, 6.40881, -57.2835, 6.37498, -174.628, 6.30559, 64.3233, 0.341194, 63.7388
0, 1380.00000, 119.165, -34.2126, 118.599, -151.554, 124.361, 87.3953, 0, 0, 6.40877, -57.2865, 6.37497, -174.628, 6.30531, 64.3215, 0.341724, 63.7374
0, 1440.00000, 119.164, -34.2153, 118.599, -151.554, 124.366, 87.3937, 0, 0, 6.40873, -57.2892, 6.37497, -174.628, 6.30506, 64.3199, 0.342202, 63.7362
0, 1500.00000, 119.163, -34.2177, 118.599, -151.554, 124.371, 87.3922, 0, 0, 6.40869, -57.2916, 6.37497, -174.628, 6.30483, 64.3185, 0.342631, 63.7351
0, 1560.00000, 119.163, -34.2198, 118.599, -151.554, 124.375, 87.3909, 0, 0, 6.40866, -57.2937, 6.37496, -174.628, 6.30463, 64.3171, 0.343018, 63.7342
0, 1620.00000, 119.162, -34.2218, 118.599, -151.554, 124.378, 87.3898, 0, 0, 6.40863, -57.2957, 6.37496, -174.628, 6.30445, 64.316, 0.343366, 63.7333
0, 1680.00000, 119.162, -34.2235, 118.599, -151.554, 124.381, 87.3887, 0, 0, 6.4086, -57.2974, 6.37496, -174.628, 6.30428, 64.3149, 0.343679, 63.7325
0, 1740.00000, 119.162, -34.2251, 118.598, -151.555, 124.384, 87.3878, 0, 0, 6.40858, -57.299, 6.37495, -174.628, 6.30413, 64.3139, 0.343961, 63.7318
0, 1800.00000, 117.693, -33.9263, 118.634, -151.537, 122.937, 86.9733, 0, 0, 6.32094, -57.0002, 6.37707, -174.611, 6.37835, 63.8994, 0.19924, 59.8327
0, 1860.00000, 117.693, -33.9275, 118.634, -151.537, 122.939, 86.9725, 0, 0, 6.32092, -57.0014, 6.37707, -174.611, 6.37823, 63.8987, 0.199467, 59.8366
0, 1920.00000, 117.693, -33.9287, 118.634, -151.537, 122.941, 86.9719, 0, 0, 6.3209, -57.0026, 6.37707, -174.611, 6.37813, 63.898, 0.199671, 59.84
0, 1980.00000, 117.693, -33.9297, 118.634, -151.537, 122.943, 86.9713, 0, 0, 6.32089, -57.0036, 6.37707, -174.611, 6.37803, 63.8974, 0.199855, 59.8431
0, 2040.00000, 117.692, -33.9306, 118.634, -151.537, 122.945, 86.9707, 0, 0, 6.32088, -57.0045, 6.37707, -174.611, 6.37794, 63.8968, 0.200021, 59.8459
0, 2100.00000, 117.692, -33.9314, 118.634, -151.537, 122.946, 86.9702, 0, 0, 6.32087, -57.0054, 6.37707, -174.611, 6.37786, 63.8963, 0.20017, 59.8483
0, 2160.00000, 117.692, -33.9322, 118.634, -151.537, 122.948, 86.9698, 0, 0, 6.32085, -57.0061, 6.37706, -174.611, 6.37779, 63.8959, 0.200304, 59.8506
0, 2220.00000, 117.692, -33.9329, 118.634, -151.537, 122.949, 86.9694, 0, 0, 6.32084, -57.0068, 6.37706, -174.611, 6.37773, 63.8955, 0.200425, 59.8526
0, 2280.00000, 117.692, -33.9335, 118.634, -151.537, 122.95, 86.969, 0, 0, 6.32084, -57.0074, 6.37706, -174.611, 6.37767, 63.8951, 0.200533, 59.8544
0, 2340.00000, 117.692, -33.934, 118.634, -151.537, 122.951, 86.9687, 0, 0, 6.32083, -57.0079, 6.37706, -174.611, 6.37762, 63.8948, 0.200631, 59.856
0, 2400.00000, 117.692, -33.9345, 118.634, -151.537, 122.952, 86.9684, 0, 0, 6.32082, -57.0084, 6.37706, -174.611, 6.37757, 63.8945, 0.200719, 59.8575
0, 2460.00000, 117.691, -33.9349, 118.634, -151.537, 122.953, 86.9682, 0, 0, 6.32082, -57.0089, 6.37706, -174.611, 6.37753, 63.8943, 0.200798, 59.8588
0, 2520.00000, 117.691, -33.9353, 118.634, -151.537, 122.953, 86.9679, 0, 0, 6.32081, -57.0093, 6.37706, -174.611, 6.37749, 63.894, 0.200869, 59.86
0, 2580.00000, 117.691, -33.9357, 118.634, -151.537, 122.954, 86.9677, 0, 0, 6.3208, -57.0096, 6.37706, -174.611, 6.37746, 63.8938, 0.200933, 59.861
0, 2640.00000, 117.691, -33.936, 118.634, -151.537, 122.955, 86.9675, 0, 0, 6.3208, -57.0099, 6.37706, -174.611, 6.37743, 63.8936, 0.200991, 59.862
0, 2700.00000, 117.691, -33.9363, 118.634, -151.537, 122.955, 86.9674, 0, 0, 6.3208, -57.0102, 6.37706, -174.611, 6.3774, 63.8935, 0.201043, 59.8629
0, 2760.00000, 118.029, -33.9096, 118.631, -151.539, 123.114, 87.1094, 0, 0, 6.34096, -56.9836, 6.37689, -174.613, 6.36918, 64.0355, 0.216602, 60.9571
0, 2820.00000, 118.029, -33.9099, 118.631, -151.539, 123.114, 87.1093, 0, 0, 6.34096, -56.9838, 6.37689, -174.613, 6.36915, 64.0354, 0.216647, 60.9573
0, 2880.00000, 118.029, -33.9101, 118.631, -151.539, 123.115, 87.1092, 0, 0, 6.34096, -56.984, 6.37689, -174.613, 6.36913, 64.0352, 0.216685, 60.9577
0, 2940.00000, 118.029, -33.9103, 118.631, -151.539, 123.115, 87.109, 0, 0, 6.34095, -56.9842, 6.37689, -174.613, 6.36911, 64.0351, 0.216719, 60.958
0, 3000.00000, 118.029, -33.9104, 118.631, -151.539, 123.115, 87.1089, 0, 0, 6.34095, -56.9844, 6.37689, -174.613, 6.36909, 64.035, 0.216749, 60.9584
0, 3060.00000, 118.029, -33.9106, 118.631, -151.539, 123.116, 87.1089, 0, 0, 6.34095, -56.9845, 6.37689, -174.613, 6.36908, 64.0349, 0.216777, 60.9587
0, 3120.00000, 118.029, -33.9107, 118.631, -151.539, 123.116, 87.1088, 0, 0, 6.34095, -56.9847, 6.37689, -174.613, 6.36907, 64.0349, 0.216802, 60.9589
0, 3180.00000, 118.029, -33.9109, 118.631, -151.539, 123.116, 87.1087, 0, 0, 6.34095, -56.9848, 6.37689, -174.613, 6.36906, 64.0348, 0.216825, 60.9591
0, 3240.00000, 118.029, -33.911, 118.631, -151.539, 123.116, 87.1086, 0, 0, 6.34094, -56.9849, 6.37689, -174.613, 6.36904, 64.0347, 0.216845, 60.9594
0, 3300.00000, 118.029, -33.9111, 118.631, -151.539, 123.117, 87.1086, 0, 0, 6.34094, -56.985, 6.37689, -174.613, 6.36903, 64.0347, 0.216863, 60.9596
0, 3360.00000, 118.029, -33.9112, 118.631, -151.539, 123.117, 87.1085, 0, 0, 6.34094, -56.9851, 6.37689, -174.613, 6.36903, 64.0346, 0.216879, 60.9597
0, 3420.00000, 118.029, -33.9112, 118.631, -151.539, 123.117, 87.1085, 0, 0, 6.34094, -56.9852, 6.37689, -174.613, 6.36902, 64.0346, 0.216894, 60.9599
0, 3480.00000, 118.029, -33.9113, 118.631, -151.539, 123.117, 87.1084, 0, 0, 6.34094, -56.9852, 6.37689, -174.613, 6.36901, 64.0345, 0.216907, 60.96
0, 3540.00000, 118.029, -33.9114, 118.631, -151.539, 123.117, 87.1084, 0, 0, 6.34094, -56.9853, 6.37689, -174.613, 6.36901, 64.0345, 0.216919, 60.9601
1, 0.00000, 118.029, -33.9114, 118.631, -151.539, 123.117, 87.1084, 0, 0, 6.34094, -56.9854, 6.37689, -174.613, 6.369, 64.0344, 0.21693, 60.9603
1, 60.00000, 118.12, -33.7768, 118.923, -151.509, 123.117, 87.1125, 0, 0, 6.34641, -56.8507, 6.39432, -174.582, 6.36903, 64.0386, 0.218963, 60.6727
1, 120.00000, 118.12, -33.7768, 118.923, -151.509, 123.117, 87.1124, 0, 0, 6.34641, -56.8507, 6.39432, -174.582, 6.36903, 64.0385, 0.218972, 60.6729
1, 180.00000, 118.12, -33.7769, 118.923, -151.509, 123.117, 87.1124, 0, 0, 6.34641, -56.8508, 6.39432, -174.582, 6.36902, 64.0385, 0.21898, 60.6729
1, 240.00000, 118.12, -33.7769, 118.923, -151.509, 123.117, 87.1124, 0, 0, 6.34641, -56.8508, 6.39432, -174.582, 6.36902, 64.0385, 0.218987, 60.673
1, 300.00000, 118.12, -33.7769, 118.923, -151.509, 123.117, 87.1124, 0, 0, 6.34641, -56.8508, 6.39432, -174.582, 6.36902, 64.0385, 0.218993, 60.6731
1, 360.00000, 118.12, -33.777, 118.923, -151.509, 123.117, 87.1123, 0, 0, 6.34641, -56.8509, 6.39432, -174.582, 6.36901, 64.0384, 0.218999, 60.6732
1, 420.00000, 118.12, -33.777, 118.923, -151.509, 123.117, 87.1123, 0, 0, 6.34641, -56.8509, 6.39432, -174.582, 6.36901, 64.0384, 0.219004, 60.6732
1, 480.00000, 118.12, -33.777, 118.923, -151.509, 123.117, 87.1123, 0, 0, 6.3464, -56.8509, 6.39432, -174.582, 6.36901, 64.0384, 0.219008, 60.6733
1, 540.00000, 118.12, -33.777, 118.923, -151.509, 123.117, 87.1123, 0, 0, 6.3464, -56.851, 6.39432, -174.582, 6.36901, 64.0384, 0.219013, 60.6733
1, 600.00000, 118.12, -33.7771, 118.923, -151.509, 123.117, 87.1123, 0, 0, 6.3464, -56.851, 6.39432, -174.582, 6.369, 64.0384, 0.219016, 60.6734
1, 660.00000, 118.12, -33.7771, 118.923, -151.509, 123.117, 87.1123, 0, 0, 6.3464, -56.851, 6.39432, -174.582, 6.369, 64.0384, 0.21902, 60.6734
1, 720.00000, 118.12, -33.7771, 118.923, -151.509, 123.117, 87.1123, 0, 0, 6.3464, -56.851, 6.39432, -174.582, 6.369, 64.0384, 0.219023, 60.6735
1, 780.00000, 118.138, -33.783, 119.256, -151.317, 123.742, 87.0868, 0, 0, 6.34749, -56.8569, 6.41422, -174.391, 6.33686, 64.0129, 0.280974, 60.9291
1, 840.00000, 118.138, -33.783, 119.256, -151.317, 123.742, 87.0868, 0, 0, 6.34749, -56.8569, 6.41422, -174.391, 6.33685, 64.0129, 0.280978, 60.9289
1, 900.00000, 118.138, -33.783, 119.256, -151.317, 123.742, 87.0868, 0, 0, 6.34749, -56.8569, 6.41422, -174.391, 6.33685, 64.0129, 0.28098, 60.9289
1, 960.00000, 118.138, -33.783, 119.256, -151.317, 123.742, 87.0868, 0, 0, 6.34749, -56.857, 6.41422, -174.391, 6.33685, 64.0129, 0.280982, 60.929
1, 1020.00000, 118.138, -33.7831, 119.256, -151.317, 123.742, 87.0868, 0, 0, 6.34749, -56.857, 6.41422, -174.391, 6.33685, 64.0129, 0.280984, 60.929
1, 1080.00000, 118.138, -33.7831, 119.256, -151.317, 123.742, 87.0868, 0, 0, 6.34749, -56.857, 6.41422, -174.391, 6.33685, 64.0129, 0.280986, 60.929
1, 1140.00000, 118.138, -33.7831, 119.256, -151.317, 123.742, 87.0868, 0, 0, 6.34749, -56.857, 6.41422, -174.391, 6.33685, 64.0129, 0.280987, 60.929
1, 1200.00000, 118.138, -33.7831, 119.256, -151.317, 123.742, 87.0868, 0, 0, 6.34749, -56.857, 6.41422, -174.391, 6.33685, 64.0129, 0.280989, 60.929
1, 1260.00000, 118.138, -33.7831, 119.256, -151.317, 123.742, 87.0868, 0, 0, 6.34749, -56.857, 6.41422, -174.391, 6.33685, 64.0129, 0.28099, 60.929
1, 1320.00000, 118.138, -33.7831, 119.256, -151.317, 123.742, 87.0868, 0, 0, 6.34749, -56.857, 6.41422, -174.391, 6.33685, 64.0129, 0.280991, 60.929
1, 1380.00000, 118.138, -33.7831, 119.256, -151.317, 123.742, 87.0868, 0, 0, 6.34749, -56.857, 6.41422, -174.391, 6.33684, 64.0129, 0.280992, 60.929
1, 1440.00000, 118.138, -33.7831, 119.256, -151.317, 123.742, 87.0868, 0, 0, 6.34749, -56.857, 6.41422, -174.391, 6.33684, 64.0129, 0.280993, 60.929
1, 1500.00000, 118.138, -33.7831, 119.256, -151.317, 123.742, 87.0868, 0, 0, 6.34749, -56.857, 6.41422, -174.391, 6.33684, 64.0128, 0.280993, 60.929
1, 1560.00000, 118.138, -33.7831, 119.256, -151.317, 123.742, 87.0868, 0, 0, 6.34749, -56.857, 6.41422, -174.391, 6.33684, 64.0128, 0.280994, 60.929
1, 1620.00000, 118.138, -33.7831, 119.256, -151.317, 123.742, 87.0868, 0, 0, 6.34749, -56.857, 6.41422, -174.391, 6.33684, 64.0128, 0.280995, 60.929
1, 1680.00000, 118.138, -33.7831, 119.256, -151.317, 123.742, 87.0868, 0, 0, 6.34749, -56.857, 6.41422, -174.391, 6.33684, 64.0128, 0.280995, 60.929
1, 1740.00000, 118.138, -33.7831, 119.256, -151.317, 123.742, 87.0868, 0, 0, 6.34749, -56.857, 6.41422, -174.391, 6.33684, 64.0128, 0.280996, 60.929
1, 1800.00000, 118.138, -33.7831, 119.256, -151.317, 123.742, 87.0868, 0, 0, 6.34749, -56.857, 6.41422, -174.391, 6.33684, 64.0128, 0.280996, 60.929
1, 1860.00000, 118.138, -33.7831, 119.256, -151.317, 123.742, 87.0868, 0, 0, 6.34749, -56.857, 6.41422, -174.391, 6.33684, 64.0128, 0.280997, 60.929
1, 1920.00000, 118.138, -33.7831, 119.256, -151.317, 123.742, 87.0868, 0, 0, 6.34749, -56.857, 6.41422, -174.391, 6.33684, 64.0128, 0.280997, 60.929
1, 1980.00000, 118.138, -33.7831, 119.256, -151.317, 123.742, 87.0868, 0, 0, 6.34749, -56.857, 6.41422, -174.391, 6.33684, 64.0128, 0.280997, 60.929
1, 2040.00000, 118.138, -33.7831, 119.256, -151.317, 123.742, 87.0868, 0, 0, 6.34749, -56.857, 6.41422, -174.391, 6.33684, 64.0128, 0.280998, 60.929
1, 2100.00000, 118.138, -33.7831, 119.256, -151.317, 123.742, 87.0868, 0, 0, 6.34749, -56.857, 6.41422, -174.391, 6.33684, 64.0128, 0.280998, 60.929
1, 2160.00000, 118.138, -33.7831, 119.256, -151.317, 123.742, 87.0868, 0, 0, 6.34749, -56.857, 6.41422, -174.391, 6.33684, 64.0128, 0.280998, 60.9291
1, 2220.00000, 119.597, -34.079, 119.217, -151.337, 125.209, 87.4978, 0, 0, 6.43456, -57.1529, 6.41186, -174.411, 6.26262, 64.4239, 0.424991, 63.7994
1, 2280.00000, 119.597, -34.079, 119.217, -151.337, 125.209, 87.4978, 0, 0, 6.43456, -57.1529, 6.41186, -174.411, 6.26261, 64.4239, 0.424993, 63.7992
1, 2340.00000, 119.597, -34.079, 119.217, -151.337, 125.209, 87.4978, 0, 0, 6.43456, -57.1529, 6.41186, -174.411, 6.26261, 64.4239, 0.424993, 63.7992
1, 2400.00000, 119.597, -34.079, 119.217, -151.337, 125.209, 87.4978, 0, 0, 6.43456, -57.1529, 6.41186, -174.411, 6.26261, 64.4239, 0.424993, 63.7992
1, 2460.00000, 119.597, -34.079, 119.217, -151.337, 125.209, 87.4978, 0, 0, 6.43456, -57.1529, 6.41186, -174.411, 6.26261, 64.4239, 0.424993, 63.7992
1, 2520.00000, 119.597, -34.079, 119.217, -151.337, 125.209, 87.4978, 0, 0, 6.43456, -57.1529, 6.41186, -174.411, 6.26261, 64.4239, 0.424994, 63.7992
1, 2580.00000, 119.597, -34.079, 119.217, -151.337, 125.209, 87.4978, 0, 0, 6.43456, -57.1529, 6.41186, -174.411, 6.26261, 64.4239, 0.424994, 63.7992
1, 2640.00000, 119.597, -34.079, 119.217, -151.337, 125.209, 87.4978, 0, 0, 6.43456, -57.1529, 6.41186, -174.411, 6.26261, 64.4239, 0.424994, 63.7992
1, 2700.00000, 119.597, -34.079, 119.217, -151.337, 125.209, 87.4978, 0, 0, 6.43456, -57.1529, 6.41186, -174.411, 6.26261, 64.4239, 0.424994, 63.7992
1, 2760.00000, 119.597, -34.079, 119.217, -151.337, 125.209, 87.4978, 0, 0, 6.43456, -57.1529, 6.41186, -174.411, 6.26261, 64.4239, 0.424994, 63.7992
1, 2820.00000, 119.597, -34.079, 119.217, -151.337, 125.209, 87.4978, 0, 0, 6.43456, -57.1529, 6.41186, -174.411, 6.26261, 64.4239, 0.424994, 63.7992
1, 2880.00000, 119.597, -34.079, 119.217, -151.337, 125.209, 87.4978, 0, 0, 6.43456, -57.1529, 6.41186, -174.411, 6.26261, 64.4239, 0.424994, 63.7992
1, 2940.00000, 119.597, -34.079, 119.217, -151.337, 125.209, 87.4978, 0, 0, 6.43456, -57.1529, 6.41186, -174.411, 6.26261, 64.4239, 0.424994, 63.7992
1, 3000.00000, 119.597, -34.079, 119.217, -151.337, 125.209, 87.4978, 0, 0, 6.43456, -57.1529, 6.41186, -174.411, 6.26261, 64.4239, 0.424994, 63.7992
1, 3060.00000, 119.597, -34.079, 119.217, -151.337, 125.209, 87.4978, 0, 0, 6.43456, -57.1529, 6.41186, -174.411, 6.26261, 64.4239, 0.424994, 63.7992
1, 3120.00000, 119.597, -34.079, 119.217, -151.337, 125.209, 87.4978, 0, 0, 6.43456, -57.1529, 6.41186, -174.411, 6.26261, 64.4239, 0.424994, 63.7992
1, 3180.00000, 119.597, -34.079, 119.217, -151.337, 125.209, 87.4978, 0, 0, 6.43456, -57.1529, 6.41186, -174.411, 6.26261, 64.4239, 0.424994, 63.7992
1, 3240.00000, 119.597, -34.079, 119.217, -151.337, 125.209, 87.4978, 0, 0, 6.43456, -57.1529, 6.41186, -174.411, 6.26261, 64.4239, 0.424994, 63.7992
1, 3300.00000, 119.597, -34.079, 119.217, -151.337, 125.209, 87.4978, 0, 0, 6.43456, -57.1529, 6.41186, -174.411, 6.26261, 64.4239, 0.424994, 63.7992
1, 3360.00000, 119.597, -34.079, 119.217, -151.337, 125.209, 87.4978, 0, 0, 6.43456, -57.1529, 6.41186, -174.411, 6.26261, 64.4239, 0.424994, 63.7992
1, 3420.00000, 119.597, -34.079, 119.217, -151.337, 125.209, 87.4978, 0, 0, 6.43456, -57.1529, 6.41186, -174.411, 6.26261, 64.4239, 0.424994, 63.7992
1, 3480.00000, 119.597, -34.079, 119.217, -151.337, 125.209, 87.4978, 0, 0, 6.43456, -57.1529, 6.41186, -174.411, 6.26261, 64.4239, 0.424994, 63.7992
1, 3540.00000, 119.597, -34.079, 119.217, -151.337, 125.209, 87.4978, 0, 0, 6.43456, -57.1529, 6.41186, -174.411, 6.26261, 64.4239, 0.424994, 63.7992
2, 0.00000, 119.597, -34.079, 119.217, -151.337, 125.209, 87.4978, 0, 0, 6.43456, -57.1529, 6.41186, -174.411, 6.26261, 64.4239, 0.424995, 63.7992
2, 60.00000, 119.597, -34.079, 119.217, -151.337, 125.209, 87.4978, 0, 0, 6.43456, -57.1529, 6.41186, -174.411, 6.26261, 64.4239, 0.424995, 63.7992
2, 120.00000, 119.597, -34.079, 119.217, -151.337, 125.209, 87.4978, 0, 0, 6.43456, -57.1529, 6.41186, -174.411, 6.26261, 64.4239, 0.424995, 63.7992
2, 180.00000, 119.597, -34.079, 119.217, -151.337, 125.209, 87.4978, 0, 0, 6.43456, -57.1529, 6.41186, -174.411, 6.26261, 64.4239, 0.424995, 63.7992
2, 240.00000, 119.597, -34.079, 119.217, -151.337, 125.209, 87.4978, 0, 0, 6.43456, -57.1529, 6.41186, -174.411, 6.26261, 64.4239, 0.424995, 63.7992
2, 300.00000, 119.597, -34.079, 119.217, -151.337, 125.209, 87.4978, 0, 0, 6.43456, -57.1529, 6.41186, -174.411, 6.26261, 64.4239, 0.424995, 63.7992
2, 360.00000, 119.597, -34.079, 119.217, -151.337, 125.209, 87.4978, 0, 0, 6.43456, -57.1529, 6.41186, -174.411, 6.26261, 64.4239, 0.424995, 63.7992
2, 420.00000, 119.597, -34.079, 119.217, -151.337, 125.209, 87.4978, 0, 0, 6.43456, -57.1529, 6.41186, -174.411, 6.26261, 64.4239, 0.424995, 63.7992
2, 480.00000, 119.597, -34.079, 119.217, -151.337, 125.209, 87.4978, 0, 0, 6.43456, -57.1529, 6.41186, -174.411, 6.26261, 64.4239, 0.424995, 63.7992
2, 540.00000, 119.597, -34.079, 119.217, -151.337, 125.209, 87.4978, 0, 0, 6.43456, -57.1529, 6.41186, -174.411, 6.26261, 64.4239, 0.424995, 63.7992
2, 600.00000, 119.597, -34.079, 119.217, -151.337, 125.209, 87.4978, 0, 0, 6.43456, -57.1529, 6.41186, -174.411, 6.26261, 64.4239, 0.424995, 63.7992
2, 660.00000, 119.597, -34.079, 119.217, -151.337, 125.209, 87.4978, 0, 0, 6.43456, -57.1529, 6.41186, -174.411, 6.26261, 64.4239, 0.424995, 63.7992
2, 720.00000, 119.597, -34.079, 119.217, -151.337, 125.209, 87.4978, 0, 0, 6.43456, -57.1529, 6.41186, -174.411, 6.26261, 64.4239, 0.424995, 63.7992
2, 780.00000, 119.597, -34.079, 119.217, -151.337, 125.209, 87.4978, 0, 0, 6.43456, -57.1529, 6.41186, -174.411, 6.26261, 64.4239, 0.424995, 63.7992
