hour,t(sec),V1,VAngle1,V2,VAngle2,V3,VAngle3,V4,VAngle4,I1,IAngle1,I2,IAngle2,I3,IAngle3,I4,IAngle4
0, 60.00000, 125.166, -31.5698, 125.299, -151.622, 125.119, 88.3577, 0, 0, 6.33201, -54.6435, 6.32529, -174.696, 6.33439, 65.284, 0.0153432, -160.064
0, 120.00000, 125.166, -31.5698, 125.299, -151.622, 125.119, 88.3577, 0, 0, 6.33205, -54.6437, 6.32533, -174.696, 6.33443, 65.2837, 0.0153434, -160.118
0, 180.00000, 125.166, -31.5698, 125.299, -151.622, 125.119, 88.3577, 0, 0, 6.33205, -54.6437, 6.32533, -174.696, 6.33443, 65.2837, 0.0153434, -160.118
0, 240.00000, 125.166, -31.5698, 125.299, -151.622, 125.119, 88.3577, 0, 0, 6.33205, -54.6437, 6.32533, -174.696, 6.33443, 65.2837, 0.0153434, -160.118
0, 300.00000, 125.166, -31.5698, 125.299, -151.622, 125.119, 88.3577, 0, 0, 6.33205, -54.6437, 6.32533, -174.696, 6.33443, 65.2837, 0.0153434, -160.118
0, 360.00000, 125.166, -31.5698, 125.299, -151.622, 125.119, 88.3577, 0, 0, 6.33205, -54.6437, 6.32533, -174.696, 6.33443, 65.2837, 0.0153434, -160.118
0, 420.00000, 125.166, -31.5698, 125.299, -151.622, 125.119, 88.3577, 0, 0, 6.33205, -54.6437, 6.32533, -174.696, 6.33443, 65.2837, 0.0153434, -160.118
0, 480.00000, 125.528, -31.4421, 125.657, -151.497, 125.475, 88.4862, 0, 0, 5.70494, -54.5163, 5.69906, -174.571, 5.70731, 65.412, 0.0138243, -157.878
0, 540.00000, 125.528, -31.4421, 125.657, -151.497, 125.475, 88.4862, 0, 0, 5.70489, -54.516, 5.69903, -174.571, 5.70728, 65.4123, 0.01383, -157.793
0, 600.00000, 125.528, -31.4421, 125.657, -151.497, 125.475, 88.4862, 0, 0, 5.70489, -54.516, 5.69903, -174.571, 5.70728, 65.4123, 0.0138301, -157.793
0, 660.00000, 125.528, -31.4421, 125.657, -151.497, 125.475, 88.4862, 0, 0, 5.70489, -54.516, 5.69903, -174.571, 5.70728, 65.4123, 0.0138301, -157.793
0, 720.00000, 125.528, -31.4421, 125.657, -151.497, 125.475, 88.4862, 0, 0, 5.70489, -54.516, 5.69903, -174.571, 5.70728, 65.4123, 0.0138301, -157.793
0, 780.00000, 125.528, -31.4421, 125.657, -151.497, 125.475, 88.4862, 0, 0, 5.70489, -54.516, 5.69903, -174.571, 5.70728, 65.4123, 0.0138301, -157.793
0, 840.00000, 125.528, -31.4421, 125.657, -151.497, 125.475, 88.4862, 0, 0, 5.70489, -54.516, 5.69903, -174.571, 5.70728, 65.4123, 0.0138301, -157.793
0, 900.00000, 125.528, -31.4421, 125.657, -151.497, 125.475, 88.4862, 0, 0, 5.70489, -54.516, 5.69903, -174.571, 5.70728, 65.4123, 0.0138301, -157.793
0, 960.00000, 125.45, -31.5618, 125.389, -151.53, 125.476, 88.4854, 0, 0, 5.70841, -54.6356, 5.7112, -174.603, 5.70723, 65.4114, 0.00767566, 19.6611
0, 1020.00000, 125.45, -31.5618, 125.389, -151.53, 125.476, 88.4854, 0, 0, 5.70842, -54.6357, 5.71121, -174.603, 5.70723, 65.4115, 0.00770246, 19.6316
0, 1080.00000, 125.45, -31.5618, 125.389, -151.53, 125.476, 88.4854, 0, 0, 5.70842, -54.6357, 5.71121, -174.603, 5.70723, 65.4115, 0.00770256, 19.6315
0, 1140.00000, 125.45, -31.5618, 125.389, -151.53, 125.476, 88.4854, 0, 0, 5.70842, -54.6357, 5.71121, -174.603, 5.70723, 65.4115, 0.00770256, 19.6315
0, 1200.00000, 125.45, -31.5618, 125.389, -151.53, 125.476, 88.4854, 0, 0, 5.70842, -54.6357, 5.71121, -174.603, 5.70723, 65.4115, 0.00770256, 19.6315
0, 1260.00000, 125.45, -31.5618, 125.389, -151.53, 125.476, 88.4854, 0, 0, 5.70842, -54.6357, 5.71121, -174.603, 5.70723, 65.4115, 0.00770256, 19.6315
0, 1320.00000, 125.45, -31.5618, 125.389, -151.53, 125.476, 88.4854, 0, 0, 5.70842, -54.6357, 5.71121, -174.603, 5.70723, 65.4115, 0.00770256, 19.6315
0, 1380.00000, 125.45, -31.5618, 125.389, -151.53, 125.476, 88.4854, 0, 0, 5.70842, -54.6357, 5.71121, -174.603, 5.70723, 65.4115, 0.00770256, 19.6315
0, 1440.00000, 125.45, -31.5618, 125.389, -151.53, 125.476, 88.4854, 0, 0, 5.70842, -54.6357, 5.71121, -174.603, 5.70723, 65.4115, 0.00770256, 19.6315
0, 1500.00000, 125.45, -31.5618, 125.389, -151.53, 125.476, 88.4854, 0, 0, 5.70842, -54.6357, 5.71121, -174.603, 5.70723, 65.4115, 0.00770256, 19.6315
0, 1560.00000, 125.45, -31.5618, 125.389, -151.53, 125.476, 88.4854, 0, 0, 5.70842, -54.6357, 5.71121, -174.603, 5.70723, 65.4115, 0.00770256, 19.6315
0, 1620.00000, 125.45, -31.5618, 125.389, -151.53, 125.476, 88.4854, 0, 0, 5.70842, -54.6357, 5.71121, -174.603, 5.70723, 65.4115, 0.00770256, 19.6315
0, 1680.00000, 125.45, -31.5618, 125.389, -151.53, 125.476, 88.4854, 0, 0, 5.70842, -54.6357, 5.71121, -174.603, 5.70723, 65.4115, 0.00770256, 19.6315
0, 1740.00000, 125.45, -31.5618, 125.389, -151.53, 125.476, 88.4854, 0, 0, 5.70842, -54.6357, 5.71121, -174.603, 5.70723, 65.4115, 0.00770256, 19.6315
0, 1800.00000, 125.45, -31.5618, 125.389, -151.53, 125.476, 88.4854, 0, 0, 5.70842, -54.6357, 5.71121, -174.603, 5.70723, 65.4115, 0.00770256, 19.6315
0, 1860.00000, 125.45, -31.5618, 125.389, -151.53, 125.476, 88.4854, 0, 0, 5.70842, -54.6357, 5.71121, -174.603, 5.70723, 65.4115, 0.00770256, 19.6315
0, 1920.00000, 125.45, -31.5618, 125.389, -151.53, 125.476, 88.4854, 0, 0, 5.70842, -54.6357, 5.71121, -174.603, 5.70723, 65.4115, 0.00770256, 19.6315
0, 1980.00000, 125.45, -31.5618, 125.389, -151.53, 125.476, 88.4854, 0, 0, 5.70842, -54.6357, 5.71121, -174.603, 5.70723, 65.4115, 0.00770256, 19.6315
0, 2040.00000, 125.45, -31.5618, 125.389, -151.53, 125.476, 88.4854, 0, 0, 5.70842, -54.6357, 5.71121, -174.603, 5.70723, 65.4115, 0.00770256, 19.6315
0, 2100.00000, 125.45, -31.5618, 125.389, -151.53, 125.476, 88.4854, 0, 0, 5.70842, -54.6357, 5.71121, -174.603, 5.70723, 65.4115, 0.00770256, 19.6315
0, 2160.00000, 125.45, -31.5618, 125.389, -151.53, 125.476, 88.4854, 0, 0, 5.70842, -54.6357, 5.71121, -174.603, 5.70723, 65.4115, 0.00770256, 19.6315
0, 2220.00000, 125.45, -31.5618, 125.389, -151.53, 125.476, 88.4854, 0, 0, 5.70842, -54.6357, 5.71121, -174.603, 5.70723, 65.4115, 0.00770256, 19.6315
0, 2280.00000, 125.45, -31.5618, 125.389, -151.53, 125.476, 88.4854, 0, 0, 5.70842, -54.6357, 5.71121, -174.603, 5.70723, 65.4115, 0.00770256, 19.6315
0, 2340.00000, 125.45, -31.5618, 125.389, -151.53, 125.476, 88.4854, 0, 0, 5.70842, -54.6357, 5.71121, -174.603, 5.70723, 65.4115, 0.00770256, 19.6315
0, 2400.00000, 125.45, -31.5618, 125.389, -151.53, 125.476, 88.4854, 0, 0, 5.70842, -54.6357, 5.71121, -174.603, 5.70723, 65.4115, 0.00770256, 19.6315
0, 2460.00000, 125.45, -31.5618, 125.389, -151.53, 125.476, 88.4854, 0, 0, 5.70842, -54.6357, 5.71121, -174.603, 5.70723, 65.4115, 0.00770256, 19.6315
0, 2520.00000, 125.45, -31.5618, 125.389, -151.53, 125.476, 88.4854, 0, 0, 5.70842, -54.6357, 5.71121, -174.603, 5.70723, 65.4115, 0.00770256, 19.6315
0, 2580.00000, 125.45, -31.5618, 125.389, -151.53, 125.476, 88.4854, 0, 0, 5.70842, -54.6357, 5.71121, -174.603, 5.70723, 65.4115, 0.00770256, 19.6315
0, 2640.00000, 125.45, -31.5618, 125.389, -151.53, 125.476, 88.4854, 0, 0, 5.70842, -54.6357, 5.71121, -174.603, 5.70723, 65.4115, 0.00770256, 19.6315
0, 2700.00000, 125.45, -31.5618, 125.389, -151.53, 125.476, 88.4854, 0, 0, 5.70842, -54.6357, 5.71121, -174.603, 5.70723, 65.4115, 0.00770256, 19.6315
0, 2760.00000, 125.538, -31.4335, 125.681, -151.494, 125.477, 88.4852, 0, 0, 5.70447, -54.5076, 5.69798, -174.569, 5.7072, 65.4113, 0.0154879, -158.065
0, 2820.00000, 125.538, -31.4335, 125.681, -151.494, 125.477, 88.4852, 0, 0, 5.70445, -54.5074, 5.69795, -174.568, 5.70721, 65.4112, 0.0155339, -158.095
0, 2880.00000, 125.538, -31.4335, 125.681, -151.494, 125.477, 88.4852, 0, 0, 5.70445, -54.5074, 5.69795, -174.568, 5.70721, 65.4112, 0.0155341, -158.095
0, 2940.00000, 125.538, -31.4335, 125.681, -151.494, 125.477, 88.4852, 0, 0, 5.70445, -54.5074, 5.69795, -174.568, 5.70721, 65.4112, 0.0155341, -158.095
0, 3000.00000, 125.538, -31.4335, 125.681, -151.494, 125.477, 88.4852, 0, 0, 5.70445, -54.5074, 5.69795, -174.568, 5.70721, 65.4112, 0.0155341, -158.095
0, 3060.00000, 125.538, -31.4335, 125.681, -151.494, 125.477, 88.4852, 0, 0, 5.70445, -54.5074, 5.69795, -174.568, 5.70721, 65.4112, 0.0155341, -158.095
0, 3120.00000, 125.538, -31.4335, 125.681, -151.494, 125.477, 88.4852, 0, 0, 5.70445, -54.5074, 5.69795, -174.568, 5.70721, 65.4112, 0.0155341, -158.095
0, 3180.00000, 125.538, -31.4335, 125.681, -151.494, 125.477, 88.4852, 0, 0, 5.70445, -54.5074, 5.69795, -174.568, 5.70721, 65.4112, 0.0155341, -158.095
0, 3240.00000, 125.538, -31.4335, 125.681, -151.494, 125.477, 88.4852, 0, 0, 5.70445, -54.5074, 5.69795, -174.568, 5.70721, 65.4112, 0.0155341, -158.095
0, 3300.00000, 125.538, -31.4335, 125.681, -151.494, 125.477, 88.4852, 0, 0, 5.70445, -54.5074, 5.69795, -174.568, 5.70721, 65.4112, 0.0155341, -158.095
0, 3360.00000, 125.538, -31.4335, 125.681, -151.494, 125.477, 88.4852, 0, 0, 5.70445, -54.5074, 5.69795, -174.568, 5.70721, 65.4112, 0.0155341, -158.095
0, 3420.00000, 125.538, -31.4335, 125.681, -151.494, 125.477, 88.4852, 0, 0, 5.70445, -54.5074, 5.69795, -174.568, 5.70721, 65.4112, 0.0155341, -158.095
0, 3480.00000, 125.538, -31.4335, 125.681, -151.494, 125.477, 88.4852, 0, 0, 5.70445, -54.5074, 5.69795, -174.568, 5.70721, 65.4112, 0.0155341, -158.095
0, 3540.00000, 125.538, -31.4335, 125.681, -151.494, 125.477, 88.4852, 0, 0, 5.70445, -54.5074, 5.69795, -174.568, 5.70721, 65.4112, 0.0155341, -158.095
1, 0.00000, 125.538, -31.4335, 125.681, -151.494, 125.477, 88.4852, 0, 0, 5.70445, -54.5074, 5.69795, -174.568, 5.70721, 65.4112, 0.0155341, -158.095
1, 60.00000, 125.829, -31.3993, 125.681, -151.494, 125.564, 88.6134, 0, 0, 5.69127, -54.4735, 5.69793, -174.568, 5.70326, 65.5393, 0.0205188, -79.5347
1, 120.00000, 125.829, -31.3993, 125.681, -151.494, 125.564, 88.6134, 0, 0, 5.69123, -54.4732, 5.69793, -174.568, 5.70324, 65.5395, 0.0205672, -79.497
1, 180.00000, 125.829, -31.3993, 125.681, -151.494, 125.564, 88.6134, 0, 0, 5.69123, -54.4732, 5.69793, -174.568, 5.70324, 65.5395, 0.0205674, -79.4968
1, 240.00000, 125.829, -31.3993, 125.681, -151.494, 125.564, 88.6134, 0, 0, 5.69123, -54.4732, 5.69793, -174.568, 5.70324, 65.5395, 0.0205674, -79.4968
1, 300.00000, 125.829, -31.3993, 125.681, -151.494, 125.564, 88.6134, 0, 0, 5.69123, -54.4732, 5.69793, -174.568, 5.70324, 65.5395, 0.0205674, -79.4968
1, 360.00000, 125.829, -31.3993, 125.681, -151.494, 125.564, 88.6134, 0, 0, 5.69123, -54.4732, 5.69793, -174.568, 5.70324, 65.5395, 0.0205674, -79.4968
1, 420.00000, 125.829, -31.3993, 125.681, -151.494, 125.564, 88.6134, 0, 0, 5.69123, -54.4732, 5.69793, -174.568, 5.70324, 65.5395, 0.0205674, -79.4968
1, 480.00000, 125.829, -31.3993, 125.681, -151.494, 125.564, 88.6134, 0, 0, 5.69123, -54.4732, 5.69793, -174.568, 5.70324, 65.5395, 0.0205674, -79.4968
1, 540.00000, 125.829, -31.3993, 125.681, -151.494, 125.564, 88.6134, 0, 0, 5.69123, -54.4732, 5.69793, -174.568, 5.70324, 65.5395, 0.0205674, -79.4968
1, 600.00000, 125.829, -31.3993, 125.681, -151.494, 125.564, 88.6134, 0, 0, 5.69123, -54.4732, 5.69793, -174.568, 5.70324, 65.5395, 0.0205674, -79.4968
1, 660.00000, 125.829, -31.3993, 125.681, -151.494, 125.564, 88.6134, 0, 0, 5.69123, -54.4732, 5.69793, -174.568, 5.70324, 65.5395, 0.0205674, -79.4968
1, 720.00000, 125.829, -31.3993, 125.681, -151.494, 125.564, 88.6134, 0, 0, 5.69123, -54.4732, 5.69793, -174.568, 5.70324, 65.5395, 0.0205674, -79.4968
1, 780.00000, 125.829, -31.3993, 125.681, -151.494, 125.564, 88.6134, 0, 0, 5.69123, -54.4732, 5.69793, -174.568, 5.70324, 65.5395, 0.0205674, -79.4968
1, 840.00000, 125.829, -31.3993, 125.681, -151.494, 125.564, 88.6134, 0, 0, 5.69123, -54.4732, 5.69793, -174.568, 5.70324, 65.5395, 0.0205674, -79.4968
1, 900.00000, 125.829, -31.3993, 125.681, -151.494, 125.564, 88.6134, 0, 0, 5.69123, -54.4732, 5.69793, -174.568, 5.70324, 65.5395, 0.0205674, -79.4968
1, 960.00000, 125.829, -31.3993, 125.681, -151.494, 125.564, 88.6134, 0, 0, 5.69123, -54.4732, 5.69793, -174.568, 5.70324, 65.5395, 0.0205674, -79.4968
1, 1020.00000, 125.829, -31.3993, 125.681, -151.494, 125.564, 88.6134, 0, 0, 5.69123, -54.4732, 5.69793, -174.568, 5.70324, 65.5395, 0.0205674, -79.4968
1, 1080.00000, 125.829, -31.3993, 125.681, -151.494, 125.564, 88.6134, 0, 0, 5.69123, -54.4732, 5.69793, -174.568, 5.70324, 65.5395, 0.0205674, -79.4968
1, 1140.00000, 125.829, -31.3993, 125.681, -151.494, 125.564, 88.6134, 0, 0, 5.69123, -54.4732, 5.69793, -174.568, 5.70324, 65.5395, 0.0205674, -79.4968
1, 1200.00000, 125.829, -31.3993, 125.681, -151.494, 125.564, 88.6134, 0, 0, 5.69123, -54.4732, 5.69793, -174.568, 5.70324, 65.5395, 0.0205674, -79.4968
1, 1260.00000, 125.829, -31.3993, 125.681, -151.494, 125.564, 88.6134, 0, 0, 5.69123, -54.4732, 5.69793, -174.568, 5.70324, 65.5395, 0.0205674, -79.4968
1, 1320.00000, 125.829, -31.3993, 125.681, -151.494, 125.564, 88.6134, 0, 0, 5.69123, -54.4732, 5.69793, -174.568, 5.70324, 65.5395, 0.0205674, -79.4968
1, 1380.00000, 125.829, -31.3993, 125.681, -151.494, 125.564, 88.6134, 0, 0, 5.69123, -54.4732, 5.69793, -174.568, 5.70324, 65.5395, 0.0205674, -79.4968
1, 1440.00000, 125.829, -31.3993, 125.681, -151.494, 125.564, 88.6134, 0, 0, 5.69123, -54.4732, 5.69793, -174.568, 5.70324, 65.5395, 0.0205674, -79.4968
1, 1500.00000, 125.829, -31.3993, 125.681, -151.494, 125.564, 88.6134, 0, 0, 5.69123, -54.4732, 5.69793, -174.568, 5.70324, 65.5395, 0.0205674, -79.4968
1, 1560.00000, 125.829, -31.3993, 125.681, -151.494, 125.564, 88.6134, 0, 0, 5.69123, -54.4732, 5.69793, -174.568, 5.70324, 65.5395, 0.0205674, -79.4968
1, 1620.00000, 125.829, -31.3993, 125.681, -151.494, 125.564, 88.6134, 0, 0, 5.69123, -54.4732, 5.69793, -174.568, 5.70324, 65.5395, 0.0205674, -79.4968
1, 1680.00000, 125.829, -31.3993, 125.681, -151.494, 125.564, 88.6134, 0, 0, 5.69123, -54.4732, 5.69793, -174.568, 5.70324, 65.5395, 0.0205674, -79.4968
1, 1740.00000, 125.829, -31.3993, 125.681, -151.494, 125.564, 88.6134, 0, 0, 5.69123, -54.4732, 5.69793, -174.568, 5.70324, 65.5395, 0.0205674, -79.4968
1, 1800.00000, 125.829, -31.3993, 125.681, -151.494, 125.564, 88.6134, 0, 0, 5.69123, -54.4732, 5.69793, -174.568, 5.70324, 65.5395, 0.0205674, -79.4968
1, 1860.00000, 125.829, -31.3993, 125.681, -151.494, 125.564, 88.6134, 0, 0, 5.69123, -54.4732, 5.69793, -174.568, 5.70324, 65.5395, 0.0205674, -79.4968
1, 1920.00000, 125.829, -31.3993, 125.681, -151.494, 125.564, 88.6134, 0, 0, 5.69123, -54.4732, 5.69793, -174.568, 5.70324, 65.5395, 0.0205674, -79.4968
1, 1980.00000, 125.829, -31.3993, 125.681, -151.494, 125.564, 88.6134, 0, 0, 5.69123, -54.4732, 5.69793, -174.568, 5.70324, 65.5395, 0.0205674, -79.4968
1, 2040.00000, 125.829, -31.3993, 125.681, -151.494, 125.564, 88.6134, 0, 0, 5.69123, -54.4732, 5.69793, -174.568, 5.70324, 65.5395, 0.0205674, -79.4968
1, 2100.00000, 125.829, -31.3993, 125.681, -151.494, 125.564, 88.6134, 0, 0, 5.69123, -54.4732, 5.69793, -174.568, 5.70324, 65.5395, 0.0205674, -79.4968
1, 2160.00000, 125.829, -31.3993, 125.681, -151.494, 125.564, 88.6134, 0, 0, 5.69123, -54.4732, 5.69793, -174.568, 5.70324, 65.5395, 0.0205674, -79.4968
1, 2220.00000, 125.829, -31.3993, 125.681, -151.494, 125.564, 88.6134, 0, 0, 5.69123, -54.4732, 5.69793, -174.568, 5.70324, 65.5395, 0.0205674, -79.4968
1, 2280.00000, 125.829, -31.3993, 125.681, -151.494, 125.564, 88.6134, 0, 0, 5.69123, -54.4732, 5.69793, -174.568, 5.70324, 65.5395, 0.0205674, -79.4968
1, 2340.00000, 125.829, -31.3993, 125.681, -151.494, 125.564, 88.6134, 0, 0, 5.69123, -54.4732, 5.69793, -174.568, 5.70324, 65.5395, 0.0205674, -79.4968
1, 2400.00000, 125.829, -31.3993, 125.681, -151.494, 125.564, 88.6134, 0, 0, 5.69123, -54.4732, 5.69793, -174.568, 5.70324, 65.5395, 0.0205674, -79.4968
1, 2460.00000, 125.829, -31.3993, 125.681, -151.494, 125.564, 88.6134, 0, 0, 5.69123, -54.4732, 5.69793, -174.568, 5.70324, 65.5395, 0.0205674, -79.4968
1, 2520.00000, 125.829, -31.3993, 125.681, -151.494, 125.564, 88.6134, 0, 0, 5.69123, -54.4732, 5.69793, -174.568, 5.70324, 65.5395, 0.0205674, -79.4968
1, 2580.00000, 125.829, -31.3993, 125.681, -151.494, 125.564, 88.6134, 0, 0, 5.69123, -54.4732, 5.69793, -174.568, 5.70324, 65.5395, 0.0205674, -79.4968
1, 2640.00000, 125.829, -31.3993, 125.681, -151.494, 125.564, 88.6134, 0, 0, 5.69123, -54.4732, 5.69793, -174.568, 5.70324, 65.5395, 0.0205674, -79.4968
1, 2700.00000, 125.829, -31.3993, 125.681, -151.494, 125.564, 88.6134, 0, 0, 5.69123, -54.4732, 5.69793, -174.568, 5.70324, 65.5395, 0.0205674, -79.4968
1, 2760.00000, 125.829, -31.3993, 125.681, -151.494, 125.564, 88.6134, 0, 0, 5.69123, -54.4732, 5.69793, -174.568, 5.70324, 65.5395, 0.0205674, -79.4968
1, 2820.00000, 125.829, -31.3993, 125.681, -151.494, 125.564, 88.6134, 0, 0, 5.69123, -54.4732, 5.69793, -174.568, 5.70324, 65.5395, 0.0205674, -79.4968
1, 2880.00000, 125.829, -31.3993, 125.681, -151.494, 125.564, 88.6134, 0, 0, 5.69123, -54.4732, 5.69793, -174.568, 5.70324, 65.5395, 0.0205674, -79.4968
1, 2940.00000, 125.829, -31.3993, 125.681, -151.494, 125.564, 88.6134, 0, 0, 5.69123, -54.4732, 5.69793, -174.568, 5.70324, 65.5395, 0.0205674, -79.4968
1, 3000.00000, 125.829, -31.3993, 125.681, -151.494, 125.564, 88.6134, 0, 0, 5.69123, -54.4732, 5.69793, -174.568, 5.70324, 65.5395, 0.0205674, -79.4968
1, 3060.00000, 125.829, -31.3993, 125.681, -151.494, 125.564, 88.6134, 0, 0, 5.69123, -54.4732, 5.69793, -174.568, 5.70324, 65.5395, 0.0205674, -79.4968
1, 3120.00000, 125.829, -31.3993, 125.681, -151.494, 125.564, 88.6134, 0, 0, 5.69123, -54.4732, 5.69793, -174.568, 5.70324, 65.5395, 0.0205674, -79.4968
1, 3180.00000, 125.829, -31.3993, 125.681, -151.494, 125.564, 88.6134, 0, 0, 5.69123, -54.4732, 5.69793, -174.568, 5.70324, 65.5395, 0.0205674, -79.4968
1, 3240.00000, 125.829, -31.3993, 125.681, -151.494, 125.564, 88.6134, 0, 0, 5.69123, -54.4732, 5.69793, -174.568, 5.70324, 65.5395, 0.0205674, -79.4968
1, 3300.00000, 125.829, -31.3993, 125.681, -151.494, 125.564, 88.6134, 0, 0, 5.69123, -54.4732, 5.69793, -174.568, 5.70324, 65.5395, 0.0205674, -79.4968
1, 3360.00000, 125.829, -31.3993, 125.681, -151.494, 125.564, 88.6134, 0, 0, 5.69123, -54.4732, 5.69793, -174.568, 5.70324, 65.5395, 0.0205674, -79.4968
1, 3420.00000, 125.829, -31.3993, 125.681, -151.494, 125.564, 88.6134, 0, 0, 5.69123, -54.4732, 5.69793, -174.568, 5.70324, 65.5395, 0.0205674, -79.4968
1, 3480.00000, 125.829, -31.3993, 125.681, -151.494, 125.564, 88.6134, 0, 0, 5.69123, -54.4732, 5.69793, -174.568, 5.70324, 65.5395, 0.0205674, -79.4968
1, 3540.00000, 125.829, -31.3993, 125.681, -151.494, 125.564, 88.6134, 0, 0, 5.69123, -54.4732, 5.69793, -174.568, 5.70324, 65.5395, 0.0205674, -79.4968
2, 0.00000, 125.829, -31.3993, 125.681, -151.494, 125.564, 88.6134, 0, 0, 5.69123, -54.4732, 5.69793, -174.568, 5.70324, 65.5395, 0.0205674, -79.4968
2, 60.00000, 125.829, -31.3993, 125.681, -151.494, 125.564, 88.6134, 0, 0, 5.69123, -54.4732, 5.69793, -174.568, 5.70324, 65.5395, 0.0205674, -79.4968
2, 120.00000, 125.829, -31.3993, 125.681, -151.494, 125.564, 88.6134, 0, 0, 5.69123, -54.4732, 5.69793, -174.568, 5.70324, 65.5395, 0.0205674, -79.4968
2, 180.00000, 125.829, -31.3993, 125.681, -151.494, 125.564, 88.6134, 0, 0, 5.69123, -54.4732, 5.69793, -174.568, 5.70324, 65.5395, 0.0205674, -79.4968
2, 240.00000, 125.829, -31.3993, 125.681, -151.494, 125.564, 88.6134, 0, 0, 5.69123, -54.4732, 5.69793, -174.568, 5.70324, 65.5395, 0.0205674, -79.4968
2, 300.00000, 125.829, -31.3993, 125.681, -151.494, 125.564, 88.6134, 0, 0, 5.69123, -54.4732, 5.69793, -174.568, 5.70324, 65.5395, 0.0205674, -79.4968
2, 360.00000, 125.829, -31.3993, 125.681, -151.494, 125.564, 88.6134, 0, 0, 5.69123, -54.4732, 5.69793, -174.568, 5.70324, 65.5395, 0.0205674, -79.4968
2, 420.00000, 125.829, -31.3993, 125.681, -151.494, 125.564, 88.6134, 0, 0, 5.69123, -54.4732, 5.69793, -174.568, 5.70324, 65.5395, 0.0205674, -79.4968
2, 480.00000, 125.829, -31.3993, 125.681, -151.494, 125.564, 88.6134, 0, 0, 5.69123, -54.4732, 5.69793, -174.568, 5.70324, 65.5395, 0.0205674, -79.4968
2, 540.00000, 125.829, -31.3993, 125.681, -151.494, 125.564, 88.6134, 0, 0, 5.69123, -54.4732, 5.69793, -174.568, 5.70324, 65.5395, 0.0205674, -79.4968
2, 600.00000, 125.829, -31.3993, 125.681, -151.494, 125.564, 88.6134, 0, 0, 5.69123, -54.4732, 5.69793, -174.568, 5.70324, 65.5395, 0.0205674, -79.4968
