hour,t(sec),V1,VAngle1,V2,VAngle2,V3,VAngle3,V4,VAngle4,I1,IAngle1,I2,IAngle2,I3,IAngle3,I4,IAngle4
0, 60.00000, 122.093, -32.0763, 122.621, -151.654, 123.57, 87.9568, 0, 0, 3.68189, -55.1501, 3.66605, -174.728, 3.63797, 64.883, 0.0644983, 87.866
0, 120.00000, 122.1, -32.0832, 122.62, -151.654, 123.587, 87.956, 0, 0, 3.68169, -55.157, 3.66606, -174.728, 3.63744, 64.8821, 0.0651113, 87.3011
0, 180.00000, 122.106, -32.0894, 122.62, -151.654, 123.603, 87.9552, 0, 0, 3.68152, -55.1632, 3.66607, -174.728, 3.63696, 64.8814, 0.065669, 86.8022
0, 240.00000, 122.111, -32.095, 122.62, -151.654, 123.618, 87.9545, 0, 0, 3.68136, -55.1688, 3.66608, -174.728, 3.63654, 64.8806, 0.0661758, 86.3609
0, 300.00000, 122.116, -32.1, 122.619, -151.654, 123.631, 87.9538, 0, 0, 3.68121, -55.1738, 3.66609, -174.728, 3.63615, 64.88, 0.0666359, 85.9697
0, 360.00000, 122.12, -32.1046, 122.619, -151.654, 123.642, 87.9533, 0, 0, 3.68109, -55.1784, 3.6661, -174.728, 3.6358, 64.8794, 0.0670533, 85.6222
0, 420.00000, 122.124, -32.1086, 122.619, -151.654, 123.653, 87.9528, 0, 0, 3.68097, -55.1825, 3.66611, -174.728, 3.63549, 64.8789, 0.0674322, 85.3125
0, 480.00000, 122.75, -31.9911, 123.186, -151.537, 124.257, 88.0933, 0, 0, 3.18611, -55.0649, 3.17483, -174.61, 3.14752, 65.0194, 0.0575403, 82.9658
0, 540.00000, 122.754, -31.9944, 123.186, -151.537, 124.266, 88.0929, 0, 0, 3.18603, -55.0682, 3.17484, -174.611, 3.14729, 65.019, 0.0578258, 82.7186
0, 600.00000, 122.756, -31.9974, 123.186, -151.537, 124.274, 88.0926, 0, 0, 3.18595, -55.0712, 3.17484, -174.611, 3.14708, 65.0187, 0.0580844, 82.4976
0, 660.00000, 122.759, -32.0001, 123.186, -151.537, 124.281, 88.0923, 0, 0, 3.18589, -55.0739, 3.17485, -174.611, 3.14689, 65.0184, 0.0583181, 82.3005
0, 720.00000, 122.761, -32.0025, 123.186, -151.537, 124.288, 88.092, 0, 0, 3.18583, -55.0763, 3.17485, -174.611, 3.14672, 65.0181, 0.0585291, 82.1245
0, 780.00000, 122.763, -32.0047, 123.185, -151.537, 124.294, 88.0918, 0, 0, 3.18578, -55.0785, 3.17486, -174.611, 3.14657, 65.0179, 0.0587196, 81.9672
0, 840.00000, 122.765, -32.0066, 123.185, -151.537, 124.299, 88.0915, 0, 0, 3.18573, -55.0805, 3.17486, -174.611, 3.14643, 65.0176, 0.0588914, 81.8267
0, 900.00000, 122.767, -32.0084, 123.185, -151.537, 124.304, 88.0913, 0, 0, 3.18569, -55.0823, 3.17486, -174.611, 3.14631, 65.0174, 0.0590465, 81.7009
0, 960.00000, 122.355, -32.3223, 122.371, -151.546, 124.35, 88.0801, 0, 0, 3.1964, -55.3962, 3.19598, -174.62, 3.14514, 65.0062, 0.0884966, 64.7272
0, 1020.00000, 122.357, -32.3238, 122.371, -151.546, 124.354, 88.0799, 0, 0, 3.19636, -55.3977, 3.19598, -174.62, 3.14504, 65.006, 0.0886472, 64.687
0, 1080.00000, 122.358, -32.3251, 122.371, -151.546, 124.358, 88.0798, 0, 0, 3.19633, -55.3989, 3.19598, -174.62, 3.14495, 65.0058, 0.0887828, 64.6509
0, 1140.00000, 122.616, -32.1507, 122.844, -151.549, 124.33, 88.084, 0, 0, 3.1896, -55.2246, 3.18369, -174.623, 3.14563, 65.0101, 0.0704741, 72.1916
0, 1200.00000, 122.617, -32.1517, 122.844, -151.549, 124.333, 88.0839, 0, 0, 3.18958, -55.2256, 3.18369, -174.623, 3.14556, 65.01, 0.0705769, 72.1437
0, 1260.00000, 122.618, -32.1526, 122.844, -151.549, 124.336, 88.0838, 0, 0, 3.18955, -55.2265, 3.18369, -174.623, 3.1455, 65.0098, 0.0706697, 72.1007
0, 1320.00000, 122.619, -32.1535, 122.844, -151.549, 124.338, 88.0837, 0, 0, 3.18953, -55.2274, 3.18369, -174.623, 3.14544, 65.0097, 0.0707533, 72.0621
0, 1380.00000, 122.619, -32.1542, 122.844, -151.549, 124.34, 88.0836, 0, 0, 3.18952, -55.2281, 3.18369, -174.623, 3.14538, 65.0097, 0.0708285, 72.0275
0, 1440.00000, 122.62, -32.1549, 122.844, -151.549, 124.342, 88.0835, 0, 0, 3.1895, -55.2288, 3.18369, -174.623, 3.14534, 65.0096, 0.0708963, 71.9963
0, 1500.00000, 122.621, -32.1555, 122.844, -151.549, 124.344, 88.0834, 0, 0, 3.18949, -55.2294, 3.1837, -174.623, 3.14529, 65.0095, 0.0709573, 71.9684
0, 1560.00000, 122.621, -32.1561, 122.844, -151.549, 124.345, 88.0833, 0, 0, 3.18947, -55.23, 3.1837, -174.623, 3.14526, 65.0094, 0.0710122, 71.9433
0, 1620.00000, 122.622, -32.1566, 122.843, -151.549, 124.346, 88.0833, 0, 0, 3.18946, -55.2305, 3.1837, -174.623, 3.14522, 65.0094, 0.0710616, 71.9207
0, 1680.00000, 122.622, -32.157, 122.843, -151.549, 124.348, 88.0832, 0, 0, 3.18945, -55.2309, 3.1837, -174.623, 3.14519, 65.0093, 0.0711062, 71.9004
0, 1740.00000, 122.622, -32.1574, 122.843, -151.55, 124.349, 88.0832, 0, 0, 3.18944, -55.2313, 3.1837, -174.623, 3.14516, 65.0093, 0.0711462, 71.8822
0, 1800.00000, 122.272, -32.1759, 122.851, -151.548, 124.168, 87.9424, 0, 0, 3.19858, -55.2499, 3.18351, -174.622, 3.14973, 64.8684, 0.0754258, 83.4349
0, 1860.00000, 122.272, -32.1763, 122.851, -151.548, 124.169, 87.9423, 0, 0, 3.19857, -55.2502, 3.18351, -174.622, 3.14971, 64.8684, 0.0754528, 83.4168
0, 1920.00000, 122.273, -32.1766, 122.851, -151.548, 124.17, 87.9423, 0, 0, 3.19856, -55.2505, 3.18351, -174.622, 3.14969, 64.8684, 0.0754772, 83.4004
0, 1980.00000, 122.273, -32.1768, 122.851, -151.548, 124.171, 87.9423, 0, 0, 3.19855, -55.2507, 3.18351, -174.622, 3.14967, 64.8683, 0.0754992, 83.3856
0, 2040.00000, 122.273, -32.1771, 122.851, -151.548, 124.171, 87.9422, 0, 0, 3.19855, -55.251, 3.18351, -174.622, 3.14966, 64.8683, 0.075519, 83.3723
0, 2100.00000, 122.273, -32.1773, 122.851, -151.548, 124.172, 87.9422, 0, 0, 3.19854, -55.2512, 3.18351, -174.622, 3.14964, 64.8683, 0.0755368, 83.3603
0, 2160.00000, 122.273, -32.1775, 122.851, -151.548, 124.172, 87.9422, 0, 0, 3.19854, -55.2514, 3.18351, -174.622, 3.14963, 64.8683, 0.0755529, 83.3496
0, 2220.00000, 122.274, -32.1776, 122.851, -151.548, 124.173, 87.9422, 0, 0, 3.19853, -55.2515, 3.18351, -174.622, 3.14962, 64.8682, 0.0755673, 83.3399
0, 2280.00000, 122.274, -32.1778, 122.851, -151.548, 124.173, 87.9421, 0, 0, 3.19853, -55.2517, 3.18351, -174.622, 3.14961, 64.8682, 0.0755803, 83.3312
0, 2340.00000, 122.274, -32.1779, 122.851, -151.548, 124.174, 87.9421, 0, 0, 3.19853, -55.2518, 3.18351, -174.622, 3.1496, 64.8682, 0.075592, 83.3233
0, 2400.00000, 122.274, -32.178, 122.851, -151.548, 124.174, 87.9421, 0, 0, 3.19852, -55.252, 3.18351, -174.622, 3.14959, 64.8682, 0.0756026, 83.3163
0, 2460.00000, 122.274, -32.1782, 122.851, -151.548, 124.174, 87.9421, 0, 0, 3.19852, -55.2521, 3.18351, -174.622, 3.14958, 64.8682, 0.0756121, 83.31
0, 2520.00000, 122.274, -32.1783, 122.851, -151.548, 124.174, 87.9421, 0, 0, 3.19852, -55.2522, 3.18351, -174.622, 3.14958, 64.8682, 0.0756206, 83.3043
0, 2580.00000, 122.274, -32.1784, 122.851, -151.548, 124.175, 87.9421, 0, 0, 3.19852, -55.2523, 3.18351, -174.622, 3.14957, 64.8682, 0.0756283, 83.2991
0, 2640.00000, 122.274, -32.1784, 122.851, -151.548, 124.175, 87.9421, 0, 0, 3.19852, -55.2523, 3.18351, -174.622, 3.14956, 64.8681, 0.0756352, 83.2945
0, 2700.00000, 122.274, -32.1785, 122.851, -151.548, 124.175, 87.9421, 0, 0, 3.19851, -55.2524, 3.18351, -174.622, 3.14956, 64.8681, 0.0756414, 83.2903
0, 2760.00000, 123.069, -32.2314, 122.843, -151.547, 124.698, 88.2156, 0, 0, 3.17787, -55.3054, 3.18371, -174.621, 3.13635, 65.1417, 0.0780251, 57.0935
0, 2820.00000, 123.069, -32.2315, 122.843, -151.547, 124.698, 88.2156, 0, 0, 3.17787, -55.3054, 3.18371, -174.621, 3.13635, 65.1417, 0.0780326, 57.0917
0, 2880.00000, 123.069, -32.2316, 122.843, -151.547, 124.698, 88.2156, 0, 0, 3.17787, -55.3055, 3.18371, -174.621, 3.13634, 65.1417, 0.0780384, 57.0906
0, 2940.00000, 123.069, -32.2316, 122.843, -151.547, 124.698, 88.2156, 0, 0, 3.17787, -55.3055, 3.18371, -174.621, 3.13634, 65.1417, 0.0780436, 57.0896
0, 3000.00000, 123.069, -32.2316, 122.843, -151.547, 124.699, 88.2156, 0, 0, 3.17786, -55.3056, 3.18371, -174.621, 3.13634, 65.1417, 0.0780484, 57.0887
0, 3060.00000, 123.069, -32.2317, 122.843, -151.547, 124.699, 88.2156, 0, 0, 3.17786, -55.3056, 3.18371, -174.621, 3.13633, 65.1417, 0.0780526, 57.0879
0, 3120.00000, 123.069, -32.2317, 122.843, -151.547, 124.699, 88.2156, 0, 0, 3.17786, -55.3056, 3.18371, -174.621, 3.13633, 65.1416, 0.0780564, 57.0871
0, 3180.00000, 123.069, -32.2318, 122.843, -151.547, 124.699, 88.2156, 0, 0, 3.17786, -55.3057, 3.18371, -174.621, 3.13633, 65.1416, 0.0780598, 57.0865
0, 3240.00000, 123.069, -32.2318, 122.843, -151.547, 124.699, 88.2156, 0, 0, 3.17786, -55.3057, 3.18371, -174.621, 3.13633, 65.1416, 0.0780629, 57.0859
0, 3300.00000, 123.069, -32.2318, 122.843, -151.547, 124.699, 88.2156, 0, 0, 3.17786, -55.3057, 3.18371, -174.621, 3.13632, 65.1416, 0.0780657, 57.0854
0, 3360.00000, 123.069, -32.2318, 122.843, -151.547, 124.699, 88.2156, 0, 0, 3.17786, -55.3057, 3.18371, -174.621, 3.13632, 65.1416, 0.0780682, 57.0849
0, 3420.00000, 123.069, -32.2318, 122.843, -151.547, 124.699, 88.2156, 0, 0, 3.17786, -55.3058, 3.18371, -174.621, 3.13632, 65.1416, 0.0780705, 57.0845
0, 3480.00000, 123.069, -32.2319, 122.843, -151.547, 124.699, 88.2155, 0, 0, 3.17786, -55.3058, 3.18371, -174.621, 3.13632, 65.1416, 0.0780725, 57.0841
0, 3540.00000, 123.069, -32.2319, 122.843, -151.547, 124.699, 88.2155, 0, 0, 3.17786, -55.3058, 3.18371, -174.621, 3.13632, 65.1416, 0.0780743, 57.0837
1, 0.00000, 123.069, -32.2319, 122.843, -151.547, 124.699, 88.2155, 0, 0, 3.17786, -55.3058, 3.18371, -174.621, 3.13632, 65.1416, 0.0780759, 57.0834
1, 60.00000, 123.317, -32.0614, 123.302, -151.553, 124.671, 88.2205, 0, 0, 3.17148, -55.1353, 3.17185, -174.627, 3.13703, 65.1466, 0.0590002, 63.336
1, 120.00000, 123.317, -32.0614, 123.302, -151.553, 124.671, 88.2205, 0, 0, 3.17148, -55.1353, 3.17185, -174.627, 3.13703, 65.1466, 0.0590013, 63.3356
1, 180.00000, 123.317, -32.0614, 123.302, -151.553, 124.671, 88.2205, 0, 0, 3.17148, -55.1353, 3.17185, -174.627, 3.13703, 65.1465, 0.0590025, 63.3351
1, 240.00000, 123.317, -32.0614, 123.302, -151.553, 124.671, 88.2205, 0, 0, 3.17148, -55.1353, 3.17185, -174.627, 3.13703, 65.1465, 0.0590035, 63.3348
1, 300.00000, 123.317, -32.0614, 123.302, -151.553, 124.671, 88.2205, 0, 0, 3.17148, -55.1353, 3.17185, -174.627, 3.13703, 65.1465, 0.0590045, 63.3344
1, 360.00000, 123.317, -32.0614, 123.302, -151.553, 124.671, 88.2205, 0, 0, 3.17148, -55.1353, 3.17185, -174.627, 3.13703, 65.1465, 0.0590053, 63.3341
1, 420.00000, 123.317, -32.0614, 123.302, -151.553, 124.671, 88.2205, 0, 0, 3.17148, -55.1353, 3.17185, -174.627, 3.13703, 65.1465, 0.0590061, 63.3338
1, 480.00000, 123.317, -32.0614, 123.302, -151.553, 124.671, 88.2205, 0, 0, 3.17148, -55.1353, 3.17185, -174.627, 3.13703, 65.1465, 0.0590067, 63.3336
1, 540.00000, 123.317, -32.0614, 123.302, -151.553, 124.671, 88.2205, 0, 0, 3.17148, -55.1353, 3.17185, -174.627, 3.13703, 65.1465, 0.0590074, 63.3334
1, 600.00000, 123.317, -32.0614, 123.302, -151.553, 124.671, 88.2205, 0, 0, 3.17148, -55.1353, 3.17185, -174.627, 3.13703, 65.1465, 0.0590079, 63.3331
1, 660.00000, 123.317, -32.0614, 123.302, -151.553, 124.671, 88.2205, 0, 0, 3.17148, -55.1354, 3.17185, -174.627, 3.13703, 65.1465, 0.0590084, 63.333
1, 720.00000, 123.317, -32.0614, 123.302, -151.553, 124.671, 88.2205, 0, 0, 3.17148, -55.1354, 3.17185, -174.627, 3.13703, 65.1465, 0.0590088, 63.3328
1, 780.00000, 123.318, -32.0614, 123.387, -151.433, 124.988, 88.2568, 0, 0, 3.17146, -55.1354, 3.16968, -174.506, 3.12908, 65.1829, 0.0715978, 66.2409
1, 840.00000, 123.318, -32.0614, 123.387, -151.433, 124.988, 88.2568, 0, 0, 3.17146, -55.1354, 3.16968, -174.506, 3.12908, 65.1829, 0.071599, 66.2404
1, 900.00000, 123.318, -32.0614, 123.387, -151.433, 124.988, 88.2568, 0, 0, 3.17146, -55.1354, 3.16968, -174.506, 3.12908, 65.1829, 0.0715993, 66.2403
1, 960.00000, 123.318, -32.0615, 123.387, -151.433, 124.988, 88.2568, 0, 0, 3.17146, -55.1354, 3.16968, -174.506, 3.12908, 65.1829, 0.0715996, 66.2402
1, 1020.00000, 123.318, -32.0615, 123.387, -151.433, 124.988, 88.2568, 0, 0, 3.17146, -55.1354, 3.16968, -174.506, 3.12908, 65.1829, 0.0715999, 66.2401
1, 1080.00000, 123.318, -32.0615, 123.387, -151.433, 124.988, 88.2568, 0, 0, 3.17146, -55.1354, 3.16968, -174.506, 3.12908, 65.1829, 0.0716001, 66.24
1, 1140.00000, 123.318, -32.0615, 123.387, -151.433, 124.988, 88.2568, 0, 0, 3.17146, -55.1354, 3.16968, -174.506, 3.12908, 65.1829, 0.0716003, 66.24
1, 1200.00000, 123.318, -32.0615, 123.387, -151.433, 124.988, 88.2568, 0, 0, 3.17146, -55.1354, 3.16968, -174.506, 3.12907, 65.1829, 0.0716005, 66.2399
1, 1260.00000, 123.318, -32.0615, 123.387, -151.433, 124.988, 88.2568, 0, 0, 3.17146, -55.1354, 3.16968, -174.506, 3.12907, 65.1829, 0.0716007, 66.2398
1, 1320.00000, 123.318, -32.0615, 123.387, -151.433, 124.988, 88.2568, 0, 0, 3.17146, -55.1354, 3.16968, -174.506, 3.12907, 65.1829, 0.0716008, 66.2398
1, 1380.00000, 123.318, -32.0615, 123.387, -151.433, 124.988, 88.2568, 0, 0, 3.17146, -55.1354, 3.16968, -174.506, 3.12907, 65.1829, 0.071601, 66.2397
1, 1440.00000, 123.318, -32.0615, 123.387, -151.433, 124.988, 88.2568, 0, 0, 3.17146, -55.1354, 3.16968, -174.506, 3.12907, 65.1829, 0.0716011, 66.2397
1, 1500.00000, 123.318, -32.0615, 123.387, -151.433, 124.988, 88.2568, 0, 0, 3.17146, -55.1354, 3.16968, -174.506, 3.12907, 65.1829, 0.0716012, 66.2396
1, 1560.00000, 123.318, -32.0615, 123.387, -151.433, 124.988, 88.2568, 0, 0, 3.17146, -55.1354, 3.16968, -174.506, 3.12907, 65.1829, 0.0716013, 66.2396
1, 1620.00000, 123.318, -32.0615, 123.387, -151.433, 124.988, 88.2568, 0, 0, 3.17146, -55.1354, 3.16968, -174.506, 3.12907, 65.1829, 0.0716014, 66.2396
1, 1680.00000, 123.318, -32.0615, 123.387, -151.433, 124.988, 88.2568, 0, 0, 3.17146, -55.1354, 3.16968, -174.506, 3.12907, 65.1829, 0.0716015, 66.2395
1, 1740.00000, 123.318, -32.0615, 123.387, -151.433, 124.988, 88.2568, 0, 0, 3.17146, -55.1354, 3.16968, -174.506, 3.12907, 65.1829, 0.0716016, 66.2395
1, 1800.00000, 123.318, -32.0615, 123.387, -151.433, 124.988, 88.2568, 0, 0, 3.17146, -55.1354, 3.16968, -174.506, 3.12907, 65.1829, 0.0716016, 66.2395
1, 1860.00000, 123.318, -32.0615, 123.387, -151.433, 124.988, 88.2568, 0, 0, 3.17146, -55.1354, 3.16968, -174.506, 3.12907, 65.1829, 0.0716017, 66.2395
1, 1920.00000, 123.318, -32.0615, 123.387, -151.433, 124.988, 88.2568, 0, 0, 3.17146, -55.1354, 3.16968, -174.506, 3.12907, 65.1829, 0.0716017, 66.2395
1, 1980.00000, 123.318, -32.0615, 123.387, -151.433, 124.988, 88.2568, 0, 0, 3.17146, -55.1354, 3.16968, -174.506, 3.12907, 65.1829, 0.0716018, 66.2394
1, 2040.00000, 123.318, -32.0615, 123.387, -151.433, 124.988, 88.2568, 0, 0, 3.17146, -55.1354, 3.16968, -174.506, 3.12907, 65.1829, 0.0716018, 66.2394
1, 2100.00000, 123.318, -32.0615, 123.387, -151.433, 124.988, 88.2568, 0, 0, 3.17146, -55.1354, 3.16968, -174.506, 3.12907, 65.1829, 0.0716019, 66.2394
1, 2160.00000, 123.318, -32.0615, 123.387, -151.433, 124.988, 88.2568, 0, 0, 3.17146, -55.1354, 3.16968, -174.506, 3.12907, 65.1829, 0.0716019, 66.2394
1, 2220.00000, 123.667, -32.0421, 123.377, -151.435, 125.176, 88.3976, 0, 0, 3.16251, -55.116, 3.16994, -174.509, 3.12437, 65.3237, 0.0722317, 54.1501
1, 2280.00000, 123.667, -32.0421, 123.377, -151.435, 125.176, 88.3976, 0, 0, 3.16251, -55.116, 3.16994, -174.509, 3.12436, 65.3237, 0.0722329, 54.1498
1, 2340.00000, 123.667, -32.0421, 123.377, -151.435, 125.176, 88.3976, 0, 0, 3.16251, -55.116, 3.16994, -174.509, 3.12436, 65.3237, 0.0722329, 54.1498
1, 2400.00000, 123.667, -32.0421, 123.377, -151.435, 125.176, 88.3976, 0, 0, 3.16251, -55.116, 3.16994, -174.509, 3.12436, 65.3237, 0.0722329, 54.1498
1, 2460.00000, 123.667, -32.0421, 123.377, -151.435, 125.176, 88.3976, 0, 0, 3.16251, -55.116, 3.16994, -174.509, 3.12436, 65.3237, 0.0722329, 54.1498
1, 2520.00000, 123.667, -32.0421, 123.377, -151.435, 125.176, 88.3976, 0, 0, 3.16251, -55.116, 3.16994, -174.509, 3.12436, 65.3237, 0.072233, 54.1498
1, 2580.00000, 123.667, -32.0421, 123.377, -151.435, 125.176, 88.3976, 0, 0, 3.16251, -55.116, 3.16994, -174.509, 3.12436, 65.3237, 0.072233, 54.1498
1, 2640.00000, 123.667, -32.0421, 123.377, -151.435, 125.176, 88.3976, 0, 0, 3.16251, -55.116, 3.16994, -174.509, 3.12436, 65.3237, 0.072233, 54.1498
1, 2700.00000, 123.667, -32.0421, 123.377, -151.435, 125.176, 88.3976, 0, 0, 3.16251, -55.116, 3.16994, -174.509, 3.12436, 65.3237, 0.072233, 54.1498
1, 2760.00000, 123.667, -32.0421, 123.377, -151.435, 125.176, 88.3976, 0, 0, 3.16251, -55.116, 3.16994, -174.509, 3.12436, 65.3237, 0.072233, 54.1498
1, 2820.00000, 123.667, -32.0421, 123.377, -151.435, 125.176, 88.3976, 0, 0, 3.16251, -55.116, 3.16994, -174.509, 3.12436, 65.3237, 0.072233, 54.1498
1, 2880.00000, 123.667, -32.0421, 123.377, -151.435, 125.176, 88.3976, 0, 0, 3.16251, -55.116, 3.16994, -174.509, 3.12436, 65.3237, 0.0722331, 54.1498
1, 2940.00000, 123.667, -32.0421, 123.377, -151.435, 125.176, 88.3976, 0, 0, 3.16251, -55.116, 3.16994, -174.509, 3.12436, 65.3237, 0.0722331, 54.1498
1, 3000.00000, 123.667, -32.0421, 123.377, -151.435, 125.176, 88.3976, 0, 0, 3.16251, -55.116, 3.16994, -174.509, 3.12436, 65.3237, 0.0722331, 54.1498
1, 3060.00000, 123.667, -32.0421, 123.377, -151.435, 125.176, 88.3976, 0, 0, 3.16251, -55.116, 3.16994, -174.509, 3.12436, 65.3237, 0.0722331, 54.1498
1, 3120.00000, 123.667, -32.0421, 123.377, -151.435, 125.176, 88.3976, 0, 0, 3.16251, -55.116, 3.16994, -174.509, 3.12436, 65.3237, 0.0722331, 54.1498
1, 3180.00000, 123.667, -32.0421, 123.377, -151.435, 125.176, 88.3976, 0, 0, 3.16251, -55.116, 3.16994, -174.509, 3.12436, 65.3237, 0.0722331, 54.1498
1, 3240.00000, 123.667, -32.0421, 123.377, -151.435, 125.176, 88.3976, 0, 0, 3.16251, -55.116, 3.16994, -174.509, 3.12436, 65.3237, 0.0722331, 54.1498
1, 3300.00000, 123.667, -32.0421, 123.377, -151.435, 125.176, 88.3976, 0, 0, 3.16251, -55.116, 3.16994, -174.509, 3.12436, 65.3237, 0.0722331, 54.1498
1, 3360.00000, 123.667, -32.0421, 123.377, -151.435, 125.176, 88.3976, 0, 0, 3.16251, -55.116, 3.16994, -174.509, 3.12436, 65.3237, 0.0722331, 54.1498
1, 3420.00000, 123.667, -32.0421, 123.377, -151.435, 125.176, 88.3976, 0, 0, 3.16251, -55.116, 3.16994, -174.509, 3.12436, 65.3237, 0.0722331, 54.1498
1, 3480.00000, 123.667, -32.0421, 123.377, -151.435, 125.176, 88.3976, 0, 0, 3.16251, -55.116, 3.16994, -174.509, 3.12436, 65.3237, 0.0722331, 54.1498
1, 3540.00000, 123.667, -32.0421, 123.377, -151.435, 125.176, 88.3976, 0, 0, 3.16251, -55.116, 3.16994, -174.509, 3.12436, 65.3237, 0.0722331, 54.1498
2, 0.00000, 123.667, -32.0421, 123.377, -151.435, 125.176, 88.3976, 0, 0, 3.16251, -55.116, 3.16994, -174.509, 3.12436, 65.3237, 0.0722331, 54.1498
2, 60.00000, 123.667, -32.0421, 123.377, -151.435, 125.176, 88.3976, 0, 0, 3.16251, -55.116, 3.16994, -174.509, 3.12436, 65.3237, 0.0722331, 54.1498
2, 120.00000, 123.667, -32.0421, 123.377, -151.435, 125.176, 88.3976, 0, 0, 3.16251, -55.116, 3.16994, -174.509, 3.12436, 65.3237, 0.0722331, 54.1498
2, 180.00000, 123.667, -32.0421, 123.377, -151.435, 125.176, 88.3976, 0, 0, 3.16251, -55.116, 3.16994, -174.509, 3.12436, 65.3237, 0.0722331, 54.1498
2, 240.00000, 123.667, -32.0421, 123.377, -151.435, 125.176, 88.3976, 0, 0, 3.16251, -55.116, 3.16994, -174.509, 3.12436, 65.3237, 0.0722331, 54.1498
2, 300.00000, 123.667, -32.0421, 123.377, -151.435, 125.176, 88.3976, 0, 0, 3.16251, -55.116, 3.16994, -174.509, 3.12436, 65.3237, 0.0722331, 54.1498
2, 360.00000, 123.667, -32.0421, 123.377, -151.435, 125.176, 88.3976, 0, 0, 3.16251, -55.116, 3.16994, -174.509, 3.12436, 65.3237, 0.0722331, 54.1498
2, 420.00000, 123.667, -32.0421, 123.377, -151.435, 125.176, 88.3976, 0, 0, 3.16251, -55.116, 3.16994, -174.509, 3.12436, 65.3237, 0.0722331, 54.1498
2, 480.00000, 123.667, -32.0421, 123.377, -151.435, 125.176, 88.3976, 0, 0, 3.16251, -55.116, 3.16994, -174.509, 3.12436, 65.3237, 0.0722331, 54.1498
2, 540.00000, 123.667, -32.0421, 123.377, -151.435, 125.176, 88.3976, 0, 0, 3.16251, -55.116, 3.16994, -174.509, 3.12436, 65.3237, 0.0722331, 54.1498
2, 600.00000, 123.667, -32.0421, 123.377, -151.435, 125.176, 88.3976, 0, 0, 3.16251, -55.116, 3.16994, -174.509, 3.12436, 65.3237, 0.0722331, 54.1498
2, 660.00000, 123.667, -32.0421, 123.377, -151.435, 125.176, 88.3976, 0, 0, 3.16251, -55.116, 3.16994, -174.509, 3.12436, 65.3237, 0.0722331, 54.1498
