hour,t(sec),"P1 (kW)","Q1 (kvar)","P2 (kW)","Q2 (kvar)","P3 (kW)","Q3 (kvar)","P4 (kW)","Q4 (kvar)"
0, 60.00000, 0.965141, 0.41114, 0.957994, 0.408102, 0.9907, 0.422031, 0, 0
0, 120.00000, 0.965132, 0.411144, 0.957984, 0.4081, 0.990678, 0.422027, 0, 0
0, 180.00000, 0.965132, 0.411144, 0.957984, 0.4081, 0.990678, 0.422027, 0, 0
0, 240.00000, 0.965132, 0.411144, 0.957984, 0.4081, 0.990678, 0.422027, 0, 0
0, 300.00000, 0.965132, 0.411144, 0.957984, 0.4081, 0.990678, 0.422027, 0, 0
0, 360.00000, 0.965132, 0.411144, 0.957984, 0.4081, 0.990678, 0.422027, 0, 0
0, 420.00000, 0.965132, 0.411144, 0.957984, 0.4081, 0.990678, 0.422027, 0, 0
0, 480.00000, 0.854721, 0.364123, 0.847707, 0.361118, 0.876832, 0.37354, 0, 0
0, 540.00000, 0.85473, 0.364113, 0.847711, 0.361123, 0.876882, 0.37355, 0, 0
0, 600.00000, 0.85473, 0.364113, 0.84771, 0.361123, 0.876883, 0.373551, 0, 0
0, 660.00000, 0.85473, 0.364113, 0.84771, 0.361123, 0.876883, 0.373551, 0, 0
0, 720.00000, 0.85473, 0.364113, 0.84771, 0.361123, 0.876883, 0.373551, 0, 0
0, 780.00000, 0.85473, 0.364113, 0.84771, 0.361123, 0.876883, 0.373551, 0, 0
0, 840.00000, 0.85473, 0.364113, 0.84771, 0.361123, 0.876883, 0.373551, 0, 0
0, 900.00000, 0.85473, 0.364113, 0.84771, 0.361123, 0.876883, 0.373551, 0, 0
0, 960.00000, 0.85473, 0.364113, 0.84771, 0.361123, 0.876883, 0.373551, 0, 0
0, 1020.00000, 0.85473, 0.364113, 0.84771, 0.361123, 0.876883, 0.373551, 0, 0
0, 1080.00000, 0.85473, 0.364113, 0.84771, 0.361123, 0.876883, 0.373551, 0, 0
0, 1140.00000, 0.85473, 0.364113, 0.84771, 0.361123, 0.876883, 0.373551, 0, 0
0, 1200.00000, 0.85473, 0.364113, 0.84771, 0.361123, 0.876883, 0.373551, 0, 0
0, 1260.00000, 0.85473, 0.364113, 0.84771, 0.361123, 0.876883, 0.373551, 0, 0
0, 1320.00000, 0.85473, 0.364113, 0.84771, 0.361123, 0.876883, 0.373551, 0, 0
0, 1380.00000, 0.85473, 0.364113, 0.84771, 0.361123, 0.876883, 0.373551, 0, 0
0, 1440.00000, 0.85473, 0.364113, 0.84771, 0.361123, 0.876883, 0.373551, 0, 0
0, 1500.00000, 0.85473, 0.364113, 0.84771, 0.361123, 0.876883, 0.373551, 0, 0
0, 1560.00000, 0.85473, 0.364113, 0.84771, 0.361123, 0.876883, 0.373551, 0, 0
0, 1620.00000, 0.85473, 0.364113, 0.84771, 0.361123, 0.876883, 0.373551, 0, 0
0, 1680.00000, 0.85473, 0.364113, 0.84771, 0.361123, 0.876883, 0.373551, 0, 0
0, 1740.00000, 0.85473, 0.364113, 0.84771, 0.361123, 0.876883, 0.373551, 0, 0
0, 1800.00000, 0.85473, 0.364113, 0.84771, 0.361123, 0.876883, 0.373551, 0, 0
0, 1860.00000, 0.85473, 0.364113, 0.84771, 0.361123, 0.876883, 0.373551, 0, 0
0, 1920.00000, 0.85473, 0.364113, 0.84771, 0.361123, 0.876883, 0.373551, 0, 0
0, 1980.00000, 0.85473, 0.364113, 0.84771, 0.361123, 0.876883, 0.373551, 0, 0
0, 2040.00000, 0.85473, 0.364113, 0.84771, 0.361123, 0.876883, 0.373551, 0, 0
0, 2100.00000, 0.85473, 0.364113, 0.84771, 0.361123, 0.876883, 0.373551, 0, 0
0, 2160.00000, 0.85473, 0.364113, 0.84771, 0.361123, 0.876883, 0.373551, 0, 0
0, 2220.00000, 0.85473, 0.364113, 0.84771, 0.361123, 0.876883, 0.373551, 0, 0
0, 2280.00000, 0.85473, 0.364113, 0.84771, 0.361123, 0.876883, 0.373551, 0, 0
0, 2340.00000, 0.85473, 0.364113, 0.84771, 0.361123, 0.876883, 0.373551, 0, 0
0, 2400.00000, 0.85473, 0.364113, 0.84771, 0.361123, 0.876883, 0.373551, 0, 0
0, 2460.00000, 0.85473, 0.364113, 0.84771, 0.361123, 0.876883, 0.373551, 0, 0
0, 2520.00000, 0.85473, 0.364113, 0.84771, 0.361123, 0.876883, 0.373551, 0, 0
0, 2580.00000, 0.85473, 0.364113, 0.84771, 0.361123, 0.876883, 0.373551, 0, 0
0, 2640.00000, 0.85473, 0.364113, 0.84771, 0.361123, 0.876883, 0.373551, 0, 0
0, 2700.00000, 0.85473, 0.364113, 0.84771, 0.361123, 0.876883, 0.373551, 0, 0
0, 2760.00000, 0.85473, 0.364113, 0.84771, 0.361123, 0.876883, 0.373551, 0, 0
0, 2820.00000, 0.85473, 0.364113, 0.84771, 0.361123, 0.876883, 0.373551, 0, 0
0, 2880.00000, 0.85473, 0.364113, 0.84771, 0.361123, 0.876883, 0.373551, 0, 0
0, 2940.00000, 0.85473, 0.364113, 0.84771, 0.361123, 0.876883, 0.373551, 0, 0
0, 3000.00000, 0.85473, 0.364113, 0.84771, 0.361123, 0.876883, 0.373551, 0, 0
0, 3060.00000, 0.85473, 0.364113, 0.84771, 0.361123, 0.876883, 0.373551, 0, 0
0, 3120.00000, 0.85473, 0.364113, 0.84771, 0.361123, 0.876883, 0.373551, 0, 0
0, 3180.00000, 0.85473, 0.364113, 0.84771, 0.361123, 0.876883, 0.373551, 0, 0
0, 3240.00000, 0.85473, 0.364113, 0.84771, 0.361123, 0.876883, 0.373551, 0, 0
0, 3300.00000, 0.85473, 0.364113, 0.84771, 0.361123, 0.876883, 0.373551, 0, 0
0, 3360.00000, 0.85473, 0.364113, 0.84771, 0.361123, 0.876883, 0.373551, 0, 0
0, 3420.00000, 0.85473, 0.364113, 0.84771, 0.361123, 0.876883, 0.373551, 0, 0
0, 3480.00000, 0.85473, 0.364113, 0.84771, 0.361123, 0.876883, 0.373551, 0, 0
0, 3540.00000, 0.85473, 0.364113, 0.84771, 0.361123, 0.876883, 0.373551, 0, 0
1, 0.00000, 0.85473, 0.364113, 0.84771, 0.361123, 0.876883, 0.373551, 0, 0
1, 60.00000, 0.85637, 0.364814, 0.85236, 0.363109, 0.876814, 0.373521, 0, 0
1, 120.00000, 0.856374, 0.364814, 0.852371, 0.363109, 0.87681, 0.37352, 0, 0
1, 180.00000, 0.856374, 0.364814, 0.852371, 0.363109, 0.87681, 0.37352, 0, 0
1, 240.00000, 0.856374, 0.364814, 0.852371, 0.363109, 0.87681, 0.37352, 0, 0
1, 300.00000, 0.856374, 0.364814, 0.852371, 0.363109, 0.87681, 0.37352, 0, 0
1, 360.00000, 0.856374, 0.364814, 0.852371, 0.363109, 0.87681, 0.37352, 0, 0
1, 420.00000, 0.856374, 0.364814, 0.852371, 0.363109, 0.87681, 0.37352, 0, 0
1, 480.00000, 0.856374, 0.364814, 0.852371, 0.363109, 0.87681, 0.37352, 0, 0
1, 540.00000, 0.856374, 0.364814, 0.852371, 0.363109, 0.87681, 0.37352, 0, 0
1, 600.00000, 0.856374, 0.364814, 0.852371, 0.363109, 0.87681, 0.37352, 0, 0
1, 660.00000, 0.856374, 0.364814, 0.852371, 0.363109, 0.87681, 0.37352, 0, 0
1, 720.00000, 0.856374, 0.364814, 0.852371, 0.363109, 0.87681, 0.37352, 0, 0
1, 780.00000, 0.856374, 0.364814, 0.852371, 0.363109, 0.87681, 0.37352, 0, 0
1, 840.00000, 0.856374, 0.364814, 0.852371, 0.363109, 0.87681, 0.37352, 0, 0
1, 900.00000, 0.856374, 0.364814, 0.852371, 0.363109, 0.87681, 0.37352, 0, 0
1, 960.00000, 0.856374, 0.364814, 0.852371, 0.363109, 0.87681, 0.37352, 0, 0
1, 1020.00000, 0.856374, 0.364814, 0.852371, 0.363109, 0.87681, 0.37352, 0, 0
1, 1080.00000, 0.856374, 0.364814, 0.852371, 0.363109, 0.87681, 0.37352, 0, 0
1, 1140.00000, 0.856374, 0.364814, 0.852371, 0.363109, 0.87681, 0.37352, 0, 0
1, 1200.00000, 0.856374, 0.364814, 0.852371, 0.363109, 0.87681, 0.37352, 0, 0
1, 1260.00000, 0.856374, 0.364814, 0.852371, 0.363109, 0.87681, 0.37352, 0, 0
1, 1320.00000, 0.856374, 0.364814, 0.852371, 0.363109, 0.87681, 0.37352, 0, 0
1, 1380.00000, 0.856374, 0.364814, 0.852371, 0.363109, 0.87681, 0.37352, 0, 0
1, 1440.00000, 0.856374, 0.364814, 0.852371, 0.363109, 0.87681, 0.37352, 0, 0
1, 1500.00000, 0.856374, 0.364814, 0.852371, 0.363109, 0.87681, 0.37352, 0, 0
1, 1560.00000, 0.856374, 0.364814, 0.852371, 0.363109, 0.87681, 0.37352, 0, 0
1, 1620.00000, 0.856374, 0.364814, 0.852371, 0.363109, 0.87681, 0.37352, 0, 0
1, 1680.00000, 0.856374, 0.364814, 0.852371, 0.363109, 0.87681, 0.37352, 0, 0
1, 1740.00000, 0.856374, 0.364814, 0.852371, 0.363109, 0.87681, 0.37352, 0, 0
1, 1800.00000, 0.856374, 0.364814, 0.852371, 0.363109, 0.87681, 0.37352, 0, 0
1, 1860.00000, 0.856374, 0.364814, 0.852371, 0.363109, 0.87681, 0.37352, 0, 0
1, 1920.00000, 0.856374, 0.364814, 0.852371, 0.363109, 0.87681, 0.37352, 0, 0
1, 1980.00000, 0.856374, 0.364814, 0.852371, 0.363109, 0.87681, 0.37352, 0, 0
1, 2040.00000, 0.856374, 0.364814, 0.852371, 0.363109, 0.87681, 0.37352, 0, 0
1, 2100.00000, 0.856374, 0.364814, 0.852371, 0.363109, 0.87681, 0.37352, 0, 0
1, 2160.00000, 0.856374, 0.364814, 0.852371, 0.363109, 0.87681, 0.37352, 0, 0
1, 2220.00000, 0.856374, 0.364814, 0.852371, 0.363109, 0.87681, 0.37352, 0, 0
1, 2280.00000, 0.856374, 0.364814, 0.852371, 0.363109, 0.87681, 0.37352, 0, 0
1, 2340.00000, 0.856374, 0.364814, 0.852371, 0.363109, 0.87681, 0.37352, 0, 0
1, 2400.00000, 0.856374, 0.364814, 0.852371, 0.363109, 0.87681, 0.37352, 0, 0
1, 2460.00000, 0.856374, 0.364814, 0.852371, 0.363109, 0.87681, 0.37352, 0, 0
1, 2520.00000, 0.856374, 0.364814, 0.852371, 0.363109, 0.87681, 0.37352, 0, 0
1, 2580.00000, 0.856374, 0.364814, 0.852371, 0.363109, 0.87681, 0.37352, 0, 0
1, 2640.00000, 0.856374, 0.364814, 0.852371, 0.363109, 0.87681, 0.37352, 0, 0
1, 2700.00000, 0.856374, 0.364814, 0.852371, 0.363109, 0.87681, 0.37352, 0, 0
1, 2760.00000, 0.856374, 0.364814, 0.852371, 0.363109, 0.87681, 0.37352, 0, 0
1, 2820.00000, 0.856374, 0.364814, 0.852371, 0.363109, 0.87681, 0.37352, 0, 0
1, 2880.00000, 0.856374, 0.364814, 0.852371, 0.363109, 0.87681, 0.37352, 0, 0
1, 2940.00000, 0.856374, 0.364814, 0.852371, 0.363109, 0.87681, 0.37352, 0, 0
1, 3000.00000, 0.856374, 0.364814, 0.852371, 0.363109, 0.87681, 0.37352, 0, 0
1, 3060.00000, 0.856374, 0.364814, 0.852371, 0.363109, 0.87681, 0.37352, 0, 0
1, 3120.00000, 0.856374, 0.364814, 0.852371, 0.363109, 0.87681, 0.37352, 0, 0
1, 3180.00000, 0.856374, 0.364814, 0.852371, 0.363109, 0.87681, 0.37352, 0, 0
1, 3240.00000, 0.856374, 0.364814, 0.852371, 0.363109, 0.87681, 0.37352, 0, 0
1, 3300.00000, 0.856374, 0.364814, 0.852371, 0.363109, 0.87681, 0.37352, 0, 0
1, 3360.00000, 0.856374, 0.364814, 0.852371, 0.363109, 0.87681, 0.37352, 0, 0
1, 3420.00000, 0.856374, 0.364814, 0.852371, 0.363109, 0.87681, 0.37352, 0, 0
1, 3480.00000, 0.856374, 0.364814, 0.852371, 0.363109, 0.87681, 0.37352, 0, 0
1, 3540.00000, 0.856374, 0.364814, 0.852371, 0.363109, 0.87681, 0.37352, 0, 0
2, 0.00000, 0.856374, 0.364814, 0.852371, 0.363109, 0.87681, 0.37352, 0, 0
2, 60.00000, 0.856374, 0.364814, 0.852371, 0.363109, 0.87681, 0.37352, 0, 0
2, 120.00000, 0.856374, 0.364814, 0.852371, 0.363109, 0.87681, 0.37352, 0, 0
2, 180.00000, 0.856374, 0.364814, 0.852371, 0.363109, 0.87681, 0.37352, 0, 0
2, 240.00000, 0.856374, 0.364814, 0.852371, 0.363109, 0.87681, 0.37352, 0, 0
2, 300.00000, 0.856374, 0.364814, 0.852371, 0.363109, 0.87681, 0.37352, 0, 0
2, 360.00000, 0.856374, 0.364814, 0.852371, 0.363109, 0.87681, 0.37352, 0, 0
2, 420.00000, 0.856374, 0.364814, 0.852371, 0.363109, 0.87681, 0.37352, 0, 0
2, 480.00000, 0.856374, 0.364814, 0.852371, 0.363109, 0.87681, 0.37352, 0, 0
2, 540.00000, 0.856374, 0.364814, 0.852371, 0.363109, 0.87681, 0.37352, 0, 0
2, 600.00000, 0.856374, 0.364814, 0.852371, 0.363109, 0.87681, 0.37352, 0, 0
2, 660.00000, 0.856374, 0.364814, 0.852371, 0.363109, 0.87681, 0.37352, 0, 0
2, 720.00000, 0.856374, 0.364814, 0.852371, 0.363109, 0.87681, 0.37352, 0, 0
2, 780.00000, 0.856374, 0.364814, 0.852371, 0.363109, 0.87681, 0.37352, 0, 0
2, 840.00000, 0.856374, 0.364814, 0.852371, 0.363109, 0.87681, 0.37352, 0, 0
2, 900.00000, 0.856374, 0.364814, 0.852371, 0.363109, 0.87681, 0.37352, 0, 0
2, 960.00000, 0.856374, 0.364814, 0.852371, 0.363109, 0.87681, 0.37352, 0, 0
2, 1020.00000, 0.856374, 0.364814, 0.852371, 0.363109, 0.87681, 0.37352, 0, 0
2, 1080.00000, 0.856374, 0.364814, 0.852371, 0.363109, 0.87681, 0.37352, 0, 0
2, 1140.00000, 0.856374, 0.364814, 0.852371, 0.363109, 0.87681, 0.37352, 0, 0
2, 1200.00000, 0.856374, 0.364814, 0.852371, 0.363109, 0.87681, 0.37352, 0, 0
2, 1260.00000, 0.856374, 0.364814, 0.852371, 0.363109, 0.87681, 0.37352, 0, 0
2, 1320.00000, 0.856374, 0.364814, 0.852371, 0.363109, 0.87681, 0.37352, 0, 0
2, 1380.00000, 0.856374, 0.364814, 0.852371, 0.363109, 0.87681, 0.37352, 0, 0
2, 1440.00000, 0.856374, 0.364814, 0.852371, 0.363109, 0.87681, 0.37352, 0, 0
2, 1500.00000, 0.856374, 0.364814, 0.852371, 0.363109, 0.87681, 0.37352, 0, 0
2, 1560.00000, 0.856374, 0.364814, 0.852371, 0.363109, 0.87681, 0.37352, 0, 0
2, 1620.00000, 0.856374, 0.364814, 0.852371, 0.363109, 0.87681, 0.37352, 0, 0
2, 1680.00000, 0.856374, 0.364814, 0.852371, 0.363109, 0.87681, 0.37352, 0, 0
2, 1740.00000, 0.856374, 0.364814, 0.852371, 0.363109, 0.87681, 0.37352, 0, 0
2, 1800.00000, 0.856374, 0.364814, 0.852371, 0.363109, 0.87681, 0.37352, 0, 0
2, 1860.00000, 0.856374, 0.364814, 0.852371, 0.363109, 0.87681, 0.37352, 0, 0
2, 1920.00000, 0.856374, 0.364814, 0.852371, 0.363109, 0.87681, 0.37352, 0, 0
2, 1980.00000, 0.856374, 0.364814, 0.852371, 0.363109, 0.87681, 0.37352, 0, 0
2, 2040.00000, 0.856374, 0.364814, 0.852371, 0.363109, 0.87681, 0.37352, 0, 0
2, 2100.00000, 0.856374, 0.364814, 0.852371, 0.363109, 0.87681, 0.37352, 0, 0
2, 2160.00000, 0.856374, 0.364814, 0.852371, 0.363109, 0.87681, 0.37352, 0, 0
2, 2220.00000, 0.856374, 0.364814, 0.852371, 0.363109, 0.87681, 0.37352, 0, 0
2, 2280.00000, 0.856374, 0.364814, 0.852371, 0.363109, 0.87681, 0.37352, 0, 0
2, 2340.00000, 0.856374, 0.364814, 0.852371, 0.363109, 0.87681, 0.37352, 0, 0
2, 2400.00000, 0.861413, 0.366961, 0.860498, 0.366581, 0.876181, 0.373251, 0, 0
2, 2460.00000, 0.861425, 0.366965, 0.860523, 0.366581, 0.876168, 0.373246, 0, 0
2, 2520.00000, 0.861425, 0.366965, 0.860523, 0.366581, 0.876167, 0.373246, 0, 0
2, 2580.00000, 0.861425, 0.366965, 0.860523, 0.366581, 0.876167, 0.373246, 0, 0
2, 2640.00000, 0.861425, 0.366965, 0.860523, 0.366581, 0.876167, 0.373246, 0, 0
2, 2700.00000, 0.860572, 0.366599, 0.848541, 0.361483, 0.86127, 0.366891, 0, 0
2, 2760.00000, 0.860577, 0.366604, 0.848541, 0.361477, 0.861246, 0.366889, 0, 0
2, 2820.00000, 0.860577, 0.366604, 0.848541, 0.361477, 0.861246, 0.366889, 0, 0
2, 2880.00000, 0.860577, 0.366604, 0.848541, 0.361477, 0.861246, 0.366889, 0, 0
2, 2940.00000, 0.860577, 0.366604, 0.848541, 0.361477, 0.861246, 0.366889, 0, 0
2, 3000.00000, 0.860577, 0.366604, 0.848541, 0.361477, 0.861246, 0.366889, 0, 0
2, 3060.00000, 0.862599, 0.367468, 0.853544, 0.363615, 0.861081, 0.366819, 0, 0
2, 3120.00000, 0.862606, 0.367469, 0.853557, 0.363614, 0.861075, 0.366816, 0, 0
2, 3180.00000, 0.862606, 0.367469, 0.853557, 0.363614, 0.861075, 0.366816, 0, 0
2, 3240.00000, 0.862606, 0.367469, 0.853557, 0.363614, 0.861075, 0.366816, 0, 0
2, 3300.00000, 0.862606, 0.367469, 0.853557, 0.363614, 0.861075, 0.366816, 0, 0
2, 3360.00000, 0.862606, 0.367469, 0.853557, 0.363614, 0.861075, 0.366816, 0, 0
2, 3420.00000, 0.862606, 0.367469, 0.853557, 0.363614, 0.861075, 0.366816, 0, 0
2, 3480.00000, 0.862606, 0.367469, 0.853557, 0.363614, 0.861075, 0.366816, 0, 0
2, 3540.00000, 0.862606, 0.367469, 0.853557, 0.363614, 0.861075, 0.366816, 0, 0
3, 0.00000, 0.862606, 0.367469, 0.853557, 0.363614, 0.861075, 0.366816, 0, 0
3, 60.00000, 0.862606, 0.367469, 0.853557, 0.363614, 0.861075, 0.366816, 0, 0
3, 120.00000, 0.862606, 0.367469, 0.853557, 0.363614, 0.861075, 0.366816, 0, 0
3, 180.00000, 0.862606, 0.367469, 0.853557, 0.363614, 0.861075, 0.366816, 0, 0
3, 240.00000, 0.862606, 0.367469, 0.853557, 0.363614, 0.861075, 0.366816, 0, 0
3, 300.00000, 0.862606, 0.367469, 0.853557, 0.363614, 0.861075, 0.366816, 0, 0
3, 360.00000, 0.862606, 0.367469, 0.853557, 0.363614, 0.861075, 0.366816, 0, 0
3, 420.00000, 0.862606, 0.367469, 0.853557, 0.363614, 0.861075, 0.366816, 0, 0
3, 480.00000, 0.862606, 0.367469, 0.853557, 0.363614, 0.861075, 0.366816, 0, 0
3, 540.00000, 0.862606, 0.367469, 0.853557, 0.363614, 0.861075, 0.366816, 0, 0
3, 600.00000, 0.862606, 0.367469, 0.853557, 0.363614, 0.861075, 0.366816, 0, 0
3, 660.00000, 0.862606, 0.367469, 0.853557, 0.363614, 0.861075, 0.366816, 0, 0
3, 720.00000, 0.862606, 0.367469, 0.853557, 0.363614, 0.861075, 0.366816, 0, 0
3, 780.00000, 0.862606, 0.367469, 0.853557, 0.363614, 0.861075, 0.366816, 0, 0
3, 840.00000, 0.862606, 0.367469, 0.853557, 0.363614, 0.861075, 0.366816, 0, 0
3, 900.00000, 0.862606, 0.367469, 0.853557, 0.363614, 0.861075, 0.366816, 0, 0
3, 960.00000, 0.862606, 0.367469, 0.853557, 0.363614, 0.861075, 0.366816, 0, 0
3, 1020.00000, 0.862606, 0.367469, 0.853557, 0.363614, 0.861075, 0.366816, 0, 0
3, 1080.00000, 0.862606, 0.367469, 0.853557, 0.363614, 0.861075, 0.366816, 0, 0
3, 1140.00000, 0.862606, 0.367469, 0.853557, 0.363614, 0.861075, 0.366816, 0, 0
3, 1200.00000, 0.862606, 0.367469, 0.853557, 0.363614, 0.861075, 0.366816, 0, 0
3, 1260.00000, 0.862606, 0.367469, 0.853557, 0.363614, 0.861075, 0.366816, 0, 0
3, 1320.00000, 0.862606, 0.367469, 0.853557, 0.363614, 0.861075, 0.366816, 0, 0
3, 1380.00000, 0.862606, 0.367469, 0.853557, 0.363614, 0.861075, 0.366816, 0, 0
3, 1440.00000, 0.862606, 0.367469, 0.853557, 0.363614, 0.861075, 0.366816, 0, 0
3, 1500.00000, 0.862606, 0.367469, 0.853557, 0.363614, 0.861075, 0.366816, 0, 0
3, 1560.00000, 0.862606, 0.367469, 0.853557, 0.363614, 0.861075, 0.366816, 0, 0
3, 1620.00000, 0.862606, 0.367469, 0.853557, 0.363614, 0.861075, 0.366816, 0, 0
3, 1680.00000, 0.862606, 0.367469, 0.853557, 0.363614, 0.861075, 0.366816, 0, 0
3, 1740.00000, 0.862606, 0.367469, 0.853557, 0.363614, 0.861075, 0.366816, 0, 0
3, 1800.00000, 0.862606, 0.367469, 0.853557, 0.363614, 0.861075, 0.366816, 0, 0
3, 1860.00000, 0.862606, 0.367469, 0.853557, 0.363614, 0.861075, 0.366816, 0, 0
3, 1920.00000, 0.862606, 0.367469, 0.853557, 0.363614, 0.861075, 0.366816, 0, 0
3, 1980.00000, 0.862606, 0.367469, 0.853557, 0.363614, 0.861075, 0.366816, 0, 0
3, 2040.00000, 0.862606, 0.367469, 0.853557, 0.363614, 0.861075, 0.366816, 0, 0
3, 2100.00000, 0.862606, 0.367469, 0.853557, 0.363614, 0.861075, 0.366816, 0, 0
3, 2160.00000, 0.862606, 0.367469, 0.853557, 0.363614, 0.861075, 0.366816, 0, 0
3, 2220.00000, 0.862606, 0.367469, 0.853557, 0.363614, 0.861075, 0.366816, 0, 0
3, 2280.00000, 0.862606, 0.367469, 0.853557, 0.363614, 0.861075, 0.366816, 0, 0
3, 2340.00000, 0.862606, 0.367469, 0.853557, 0.363614, 0.861075, 0.366816, 0, 0
3, 2400.00000, 0.862606, 0.367469, 0.853557, 0.363614, 0.861075, 0.366816, 0, 0
3, 2460.00000, 0.862606, 0.367469, 0.853557, 0.363614, 0.861075, 0.366816, 0, 0
3, 2520.00000, 0.862606, 0.367469, 0.853557, 0.363614, 0.861075, 0.366816, 0, 0
3, 2580.00000, 0.862606, 0.367469, 0.853557, 0.363614, 0.861075, 0.366816, 0, 0
3, 2640.00000, 0.862606, 0.367469, 0.853557, 0.363614, 0.861075, 0.366816, 0, 0
3, 2700.00000, 0.862606, 0.367469, 0.853557, 0.363614, 0.861075, 0.366816, 0, 0
3, 2760.00000, 0.862606, 0.367469, 0.853557, 0.363614, 0.861075, 0.366816, 0, 0
3, 2820.00000, 0.862606, 0.367469, 0.853557, 0.363614, 0.861075, 0.366816, 0, 0
3, 2880.00000, 0.862606, 0.367469, 0.853557, 0.363614, 0.861075, 0.366816, 0, 0
3, 2940.00000, 0.862606, 0.367469, 0.853557, 0.363614, 0.861075, 0.366816, 0, 0
3, 3000.00000, 0.862606, 0.367469, 0.853557, 0.363614, 0.861075, 0.366816, 0, 0
3, 3060.00000, 0.862606, 0.367469, 0.853557, 0.363614, 0.861075, 0.366816, 0, 0
3, 3120.00000, 0.862606, 0.367469, 0.853557, 0.363614, 0.861075, 0.366816, 0, 0
3, 3180.00000, 0.909348, 0.387378, 0.900036, 0.383412, 0.907994, 0.386803, 0, 0
3, 3240.00000, 0.909341, 0.387378, 0.900033, 0.383412, 0.907992, 0.386803, 0, 0
3, 3300.00000, 0.909341, 0.387378, 0.900033, 0.383412, 0.907992, 0.386803, 0, 0
3, 3360.00000, 0.909341, 0.387378, 0.900033, 0.383412, 0.907992, 0.386803, 0, 0
3, 3420.00000, 0.909341, 0.387378, 0.900033, 0.383412, 0.907992, 0.386803, 0, 0
3, 3480.00000, 0.909341, 0.387378, 0.900033, 0.383412, 0.907992, 0.386803, 0, 0
3, 3540.00000, 0.909341, 0.387378, 0.900033, 0.383412, 0.907992, 0.386803, 0, 0
4, 0.00000, 0.909341, 0.387378, 0.900033, 0.383412, 0.907992, 0.386803, 0, 0
4, 60.00000, 0.909341, 0.387378, 0.900033, 0.383412, 0.907992, 0.386803, 0, 0
4, 120.00000, 0.909341, 0.387378, 0.900033, 0.383412, 0.907992, 0.386803, 0, 0
4, 180.00000, 0.909341, 0.387378, 0.900033, 0.383412, 0.907992, 0.386803, 0, 0
4, 240.00000, 0.909341, 0.387378, 0.900033, 0.383412, 0.907992, 0.386803, 0, 0
4, 300.00000, 0.909341, 0.387378, 0.900033, 0.383412, 0.907992, 0.386803, 0, 0
4, 360.00000, 0.909341, 0.387378, 0.900033, 0.383412, 0.907992, 0.386803, 0, 0
4, 420.00000, 0.909341, 0.387378, 0.900033, 0.383412, 0.907992, 0.386803, 0, 0
4, 480.00000, 0.909341, 0.387378, 0.900033, 0.383412, 0.907992, 0.386803, 0, 0
4, 540.00000, 0.909341, 0.387378, 0.900033, 0.383412, 0.907992, 0.386803, 0, 0
4, 600.00000, 0.909341, 0.387378, 0.900033, 0.383412, 0.907992, 0.386803, 0, 0
4, 660.00000, 0.909341, 0.387378, 0.900033, 0.383412, 0.907992, 0.386803, 0, 0
4, 720.00000, 0.909341, 0.387378, 0.900033, 0.383412, 0.907992, 0.386803, 0, 0
4, 780.00000, 0.909341, 0.387378, 0.900033, 0.383412, 0.907992, 0.386803, 0, 0
