hour,t(sec),"P1 (kW)","Q1 (kvar)","P2 (kW)","Q2 (kvar)","P3 (kW)","Q3 (kvar)","P4 (kW)","Q4 (kvar)"
0, 60.00000, 0.717266, 0.305548, 0.712911, 0.303698, 0.742466, 0.316284, 0, 0
0, 120.00000, 0.717256, 0.30555, 0.7129, 0.303694, 0.742479, 0.316295, 0, 0
0, 180.00000, 0.717256, 0.30555, 0.712899, 0.303694, 0.742479, 0.316295, 0, 0
0, 240.00000, 0.717256, 0.30555, 0.712899, 0.303694, 0.742479, 0.316295, 0, 0
0, 300.00000, 0.717256, 0.30555, 0.712899, 0.303694, 0.742479, 0.316295, 0, 0
0, 360.00000, 0.717256, 0.30555, 0.712899, 0.303694, 0.742479, 0.316295, 0, 0
0, 420.00000, 0.717256, 0.30555, 0.712899, 0.303694, 0.742479, 0.316295, 0, 0
0, 480.00000, 0.633269, 0.26978, 0.629033, 0.267965, 0.645982, 0.275196, 0, 0
0, 540.00000, 0.633279, 0.269776, 0.62904, 0.26797, 0.64596, 0.275178, 0, 0
0, 600.00000, 0.633279, 0.269776, 0.62904, 0.26797, 0.645959, 0.275178, 0, 0
0, 660.00000, 0.633279, 0.269776, 0.62904, 0.26797, 0.645959, 0.275178, 0, 0
0, 720.00000, 0.633279, 0.269776, 0.62904, 0.26797, 0.645959, 0.275178, 0, 0
0, 780.00000, 0.633279, 0.269776, 0.62904, 0.26797, 0.645959, 0.275178, 0, 0
0, 840.00000, 0.633279, 0.269776, 0.62904, 0.26797, 0.645959, 0.275178, 0, 0
0, 900.00000, 0.633279, 0.269776, 0.62904, 0.26797, 0.645959, 0.275178, 0, 0
0, 960.00000, 0.633279, 0.269776, 0.62904, 0.26797, 0.645959, 0.275178, 0, 0
0, 1020.00000, 0.633279, 0.269776, 0.62904, 0.26797, 0.645959, 0.275178, 0, 0
0, 1080.00000, 0.633279, 0.269776, 0.62904, 0.26797, 0.645959, 0.275178, 0, 0
0, 1140.00000, 0.633279, 0.269776, 0.62904, 0.26797, 0.645959, 0.275178, 0, 0
0, 1200.00000, 0.633279, 0.269776, 0.62904, 0.26797, 0.645959, 0.275178, 0, 0
0, 1260.00000, 0.633279, 0.269776, 0.62904, 0.26797, 0.645959, 0.275178, 0, 0
0, 1320.00000, 0.633279, 0.269776, 0.62904, 0.26797, 0.645959, 0.275178, 0, 0
0, 1380.00000, 0.633279, 0.269776, 0.62904, 0.26797, 0.645959, 0.275178, 0, 0
0, 1440.00000, 0.633279, 0.269776, 0.62904, 0.26797, 0.645959, 0.275178, 0, 0
0, 1500.00000, 0.633279, 0.269776, 0.62904, 0.26797, 0.645959, 0.275178, 0, 0
0, 1560.00000, 0.633279, 0.269776, 0.62904, 0.26797, 0.645959, 0.275178, 0, 0
0, 1620.00000, 0.633279, 0.269776, 0.62904, 0.26797, 0.645959, 0.275178, 0, 0
0, 1680.00000, 0.633279, 0.269776, 0.62904, 0.26797, 0.645959, 0.275178, 0, 0
0, 1740.00000, 0.633279, 0.269776, 0.62904, 0.26797, 0.645959, 0.275178, 0, 0
0, 1800.00000, 0.633279, 0.269776, 0.62904, 0.26797, 0.645959, 0.275178, 0, 0
0, 1860.00000, 0.633279, 0.269776, 0.62904, 0.26797, 0.645959, 0.275178, 0, 0
0, 1920.00000, 0.633279, 0.269776, 0.62904, 0.26797, 0.645959, 0.275178, 0, 0
0, 1980.00000, 0.633279, 0.269776, 0.62904, 0.26797, 0.645959, 0.275178, 0, 0
0, 2040.00000, 0.633279, 0.269776, 0.62904, 0.26797, 0.645959, 0.275178, 0, 0
0, 2100.00000, 0.633279, 0.269776, 0.62904, 0.26797, 0.645959, 0.275178, 0, 0
0, 2160.00000, 0.633279, 0.269776, 0.62904, 0.26797, 0.645959, 0.275178, 0, 0
0, 2220.00000, 0.633279, 0.269776, 0.62904, 0.26797, 0.645959, 0.275178, 0, 0
0, 2280.00000, 0.633279, 0.269776, 0.62904, 0.26797, 0.645959, 0.275178, 0, 0
0, 2340.00000, 0.633279, 0.269776, 0.62904, 0.26797, 0.645959, 0.275178, 0, 0
0, 2400.00000, 0.633279, 0.269776, 0.62904, 0.26797, 0.645959, 0.275178, 0, 0
0, 2460.00000, 0.633279, 0.269776, 0.62904, 0.26797, 0.645959, 0.275178, 0, 0
0, 2520.00000, 0.633279, 0.269776, 0.62904, 0.26797, 0.645959, 0.275178, 0, 0
0, 2580.00000, 0.633279, 0.269776, 0.62904, 0.26797, 0.645959, 0.275178, 0, 0
0, 2640.00000, 0.633279, 0.269776, 0.62904, 0.26797, 0.645959, 0.275178, 0, 0
0, 2700.00000, 0.633279, 0.269776, 0.62904, 0.26797, 0.645959, 0.275178, 0, 0
0, 2760.00000, 0.633279, 0.269776, 0.62904, 0.26797, 0.645959, 0.275178, 0, 0
0, 2820.00000, 0.633279, 0.269776, 0.62904, 0.26797, 0.645959, 0.275178, 0, 0
0, 2880.00000, 0.633279, 0.269776, 0.62904, 0.26797, 0.645959, 0.275178, 0, 0
0, 2940.00000, 0.633279, 0.269776, 0.62904, 0.26797, 0.645959, 0.275178, 0, 0
0, 3000.00000, 0.633279, 0.269776, 0.62904, 0.26797, 0.645959, 0.275178, 0, 0
0, 3060.00000, 0.633279, 0.269776, 0.62904, 0.26797, 0.645959, 0.275178, 0, 0
0, 3120.00000, 0.633279, 0.269776, 0.62904, 0.26797, 0.645959, 0.275178, 0, 0
0, 3180.00000, 0.633279, 0.269776, 0.62904, 0.26797, 0.645959, 0.275178, 0, 0
0, 3240.00000, 0.633279, 0.269776, 0.62904, 0.26797, 0.645959, 0.275178, 0, 0
0, 3300.00000, 0.633279, 0.269776, 0.62904, 0.26797, 0.645959, 0.275178, 0, 0
0, 3360.00000, 0.633279, 0.269776, 0.62904, 0.26797, 0.645959, 0.275178, 0, 0
0, 3420.00000, 0.633279, 0.269776, 0.62904, 0.26797, 0.645959, 0.275178, 0, 0
0, 3480.00000, 0.633279, 0.269776, 0.62904, 0.26797, 0.645959, 0.275178, 0, 0
0, 3540.00000, 0.633279, 0.269776, 0.62904, 0.26797, 0.645959, 0.275178, 0, 0
1, 0.00000, 0.633279, 0.269776, 0.62904, 0.26797, 0.645959, 0.275178, 0, 0
1, 60.00000, 0.63559, 0.27076, 0.633649, 0.269938, 0.645955, 0.275176, 0, 0
1, 120.00000, 0.635596, 0.270763, 0.633663, 0.269939, 0.645959, 0.275178, 0, 0
1, 180.00000, 0.635596, 0.270763, 0.633663, 0.269939, 0.645959, 0.275178, 0, 0
1, 240.00000, 0.635596, 0.270763, 0.633663, 0.269939, 0.645959, 0.275178, 0, 0
1, 300.00000, 0.635596, 0.270763, 0.633663, 0.269939, 0.645959, 0.275178, 0, 0
1, 360.00000, 0.635596, 0.270763, 0.633663, 0.269939, 0.645959, 0.275178, 0, 0
1, 420.00000, 0.635596, 0.270763, 0.633663, 0.269939, 0.645959, 0.275178, 0, 0
1, 480.00000, 0.635596, 0.270763, 0.633663, 0.269939, 0.645959, 0.275178, 0, 0
1, 540.00000, 0.635596, 0.270763, 0.633663, 0.269939, 0.645959, 0.275178, 0, 0
1, 600.00000, 0.635596, 0.270763, 0.633663, 0.269939, 0.645959, 0.275178, 0, 0
1, 660.00000, 0.635596, 0.270763, 0.633663, 0.269939, 0.645959, 0.275178, 0, 0
1, 720.00000, 0.635596, 0.270763, 0.633663, 0.269939, 0.645959, 0.275178, 0, 0
1, 780.00000, 0.635596, 0.270763, 0.633663, 0.269939, 0.645959, 0.275178, 0, 0
1, 840.00000, 0.635596, 0.270763, 0.633663, 0.269939, 0.645959, 0.275178, 0, 0
1, 900.00000, 0.635596, 0.270763, 0.633663, 0.269939, 0.645959, 0.275178, 0, 0
1, 960.00000, 0.635596, 0.270763, 0.633663, 0.269939, 0.645959, 0.275178, 0, 0
1, 1020.00000, 0.635596, 0.270763, 0.633663, 0.269939, 0.645959, 0.275178, 0, 0
1, 1080.00000, 0.635596, 0.270763, 0.633663, 0.269939, 0.645959, 0.275178, 0, 0
1, 1140.00000, 0.635596, 0.270763, 0.633663, 0.269939, 0.645959, 0.275178, 0, 0
1, 1200.00000, 0.635596, 0.270763, 0.633663, 0.269939, 0.645959, 0.275178, 0, 0
1, 1260.00000, 0.635596, 0.270763, 0.633663, 0.269939, 0.645959, 0.275178, 0, 0
1, 1320.00000, 0.635596, 0.270763, 0.633663, 0.269939, 0.645959, 0.275178, 0, 0
1, 1380.00000, 0.635596, 0.270763, 0.633663, 0.269939, 0.645959, 0.275178, 0, 0
1, 1440.00000, 0.635596, 0.270763, 0.633663, 0.269939, 0.645959, 0.275178, 0, 0
1, 1500.00000, 0.635596, 0.270763, 0.633663, 0.269939, 0.645959, 0.275178, 0, 0
1, 1560.00000, 0.635596, 0.270763, 0.633663, 0.269939, 0.645959, 0.275178, 0, 0
1, 1620.00000, 0.635596, 0.270763, 0.633663, 0.269939, 0.645959, 0.275178, 0, 0
1, 1680.00000, 0.635596, 0.270763, 0.633663, 0.269939, 0.645959, 0.275178, 0, 0
1, 1740.00000, 0.635596, 0.270763, 0.633663, 0.269939, 0.645959, 0.275178, 0, 0
1, 1800.00000, 0.635596, 0.270763, 0.633663, 0.269939, 0.645959, 0.275178, 0, 0
1, 1860.00000, 0.635596, 0.270763, 0.633663, 0.269939, 0.645959, 0.275178, 0, 0
1, 1920.00000, 0.635596, 0.270763, 0.633663, 0.269939, 0.645959, 0.275178, 0, 0
1, 1980.00000, 0.635596, 0.270763, 0.633663, 0.269939, 0.645959, 0.275178, 0, 0
1, 2040.00000, 0.635596, 0.270763, 0.633663, 0.269939, 0.645959, 0.275178, 0, 0
1, 2100.00000, 0.635596, 0.270763, 0.633663, 0.269939, 0.645959, 0.275178, 0, 0
1, 2160.00000, 0.635596, 0.270763, 0.633663, 0.269939, 0.645959, 0.275178, 0, 0
1, 2220.00000, 0.635596, 0.270763, 0.633663, 0.269939, 0.645959, 0.275178, 0, 0
1, 2280.00000, 0.635596, 0.270763, 0.633663, 0.269939, 0.645959, 0.275178, 0, 0
1, 2340.00000, 0.635596, 0.270763, 0.633663, 0.269939, 0.645959, 0.275178, 0, 0
1, 2400.00000, 0.635596, 0.270763, 0.633663, 0.269939, 0.645959, 0.275178, 0, 0
1, 2460.00000, 0.635596, 0.270763, 0.633663, 0.269939, 0.645959, 0.275178, 0, 0
1, 2520.00000, 0.635596, 0.270763, 0.633663, 0.269939, 0.645959, 0.275178, 0, 0
1, 2580.00000, 0.635596, 0.270763, 0.633663, 0.269939, 0.645959, 0.275178, 0, 0
1, 2640.00000, 0.635596, 0.270763, 0.633663, 0.269939, 0.645959, 0.275178, 0, 0
1, 2700.00000, 0.635596, 0.270763, 0.633663, 0.269939, 0.645959, 0.275178, 0, 0
1, 2760.00000, 0.635596, 0.270763, 0.633663, 0.269939, 0.645959, 0.275178, 0, 0
1, 2820.00000, 0.635596, 0.270763, 0.633663, 0.269939, 0.645959, 0.275178, 0, 0
1, 2880.00000, 0.635596, 0.270763, 0.633663, 0.269939, 0.645959, 0.275178, 0, 0
1, 2940.00000, 0.635596, 0.270763, 0.633663, 0.269939, 0.645959, 0.275178, 0, 0
1, 3000.00000, 0.635596, 0.270763, 0.633663, 0.269939, 0.645959, 0.275178, 0, 0
1, 3060.00000, 0.635596, 0.270763, 0.633663, 0.269939, 0.645959, 0.275178, 0, 0
1, 3120.00000, 0.635596, 0.270763, 0.633663, 0.269939, 0.645959, 0.275178, 0, 0
1, 3180.00000, 0.635596, 0.270763, 0.633663, 0.269939, 0.645959, 0.275178, 0, 0
1, 3240.00000, 0.635596, 0.270763, 0.633663, 0.269939, 0.645959, 0.275178, 0, 0
1, 3300.00000, 0.635596, 0.270763, 0.633663, 0.269939, 0.645959, 0.275178, 0, 0
1, 3360.00000, 0.635596, 0.270763, 0.633663, 0.269939, 0.645959, 0.275178, 0, 0
1, 3420.00000, 0.635596, 0.270763, 0.633663, 0.269939, 0.645959, 0.275178, 0, 0
1, 3480.00000, 0.635596, 0.270763, 0.633663, 0.269939, 0.645959, 0.275178, 0, 0
1, 3540.00000, 0.635596, 0.270763, 0.633663, 0.269939, 0.645959, 0.275178, 0, 0
2, 0.00000, 0.635596, 0.270763, 0.633663, 0.269939, 0.645959, 0.275178, 0, 0
2, 60.00000, 0.635596, 0.270763, 0.633663, 0.269939, 0.645959, 0.275178, 0, 0
2, 120.00000, 0.635596, 0.270763, 0.633663, 0.269939, 0.645959, 0.275178, 0, 0
2, 180.00000, 0.635596, 0.270763, 0.633663, 0.269939, 0.645959, 0.275178, 0, 0
2, 240.00000, 0.635596, 0.270763, 0.633663, 0.269939, 0.645959, 0.275178, 0, 0
2, 300.00000, 0.635596, 0.270763, 0.633663, 0.269939, 0.645959, 0.275178, 0, 0
2, 360.00000, 0.635596, 0.270763, 0.633663, 0.269939, 0.645959, 0.275178, 0, 0
2, 420.00000, 0.635596, 0.270763, 0.633663, 0.269939, 0.645959, 0.275178, 0, 0
2, 480.00000, 0.635596, 0.270763, 0.633663, 0.269939, 0.645959, 0.275178, 0, 0
2, 540.00000, 0.635596, 0.270763, 0.633663, 0.269939, 0.645959, 0.275178, 0, 0
2, 600.00000, 0.635596, 0.270763, 0.633663, 0.269939, 0.645959, 0.275178, 0, 0
2, 660.00000, 0.635596, 0.270763, 0.633663, 0.269939, 0.645959, 0.275178, 0, 0
2, 720.00000, 0.635596, 0.270763, 0.633663, 0.269939, 0.645959, 0.275178, 0, 0
2, 780.00000, 0.635596, 0.270763, 0.633663, 0.269939, 0.645959, 0.275178, 0, 0
2, 840.00000, 0.635596, 0.270763, 0.633663, 0.269939, 0.645959, 0.275178, 0, 0
2, 900.00000, 0.635596, 0.270763, 0.633663, 0.269939, 0.645959, 0.275178, 0, 0
2, 960.00000, 0.635596, 0.270763, 0.633663, 0.269939, 0.645959, 0.275178, 0, 0
2, 1020.00000, 0.635596, 0.270763, 0.633663, 0.269939, 0.645959, 0.275178, 0, 0
2, 1080.00000, 0.635596, 0.270763, 0.633663, 0.269939, 0.645959, 0.275178, 0, 0
2, 1140.00000, 0.635596, 0.270763, 0.633663, 0.269939, 0.645959, 0.275178, 0, 0
2, 1200.00000, 0.635596, 0.270763, 0.633663, 0.269939, 0.645959, 0.275178, 0, 0
2, 1260.00000, 0.635596, 0.270763, 0.633663, 0.269939, 0.645959, 0.275178, 0, 0
2, 1320.00000, 0.635596, 0.270763, 0.633663, 0.269939, 0.645959, 0.275178, 0, 0
2, 1380.00000, 0.635596, 0.270763, 0.633663, 0.269939, 0.645959, 0.275178, 0, 0
2, 1440.00000, 0.635596, 0.270763, 0.633663, 0.269939, 0.645959, 0.275178, 0, 0
2, 1500.00000, 0.635596, 0.270763, 0.633663, 0.269939, 0.645959, 0.275178, 0, 0
2, 1560.00000, 0.635596, 0.270763, 0.633663, 0.269939, 0.645959, 0.275178, 0, 0
2, 1620.00000, 0.635596, 0.270763, 0.633663, 0.269939, 0.645959, 0.275178, 0, 0
2, 1680.00000, 0.635596, 0.270763, 0.633663, 0.269939, 0.645959, 0.275178, 0, 0
2, 1740.00000, 0.635596, 0.270763, 0.633663, 0.269939, 0.645959, 0.275178, 0, 0
2, 1800.00000, 0.635596, 0.270763, 0.633663, 0.269939, 0.645959, 0.275178, 0, 0
2, 1860.00000, 0.635596, 0.270763, 0.633663, 0.269939, 0.645959, 0.275178, 0, 0
2, 1920.00000, 0.635596, 0.270763, 0.633663, 0.269939, 0.645959, 0.275178, 0, 0
2, 1980.00000, 0.635596, 0.270763, 0.633663, 0.269939, 0.645959, 0.275178, 0, 0
2, 2040.00000, 0.635596, 0.270763, 0.633663, 0.269939, 0.645959, 0.275178, 0, 0
2, 2100.00000, 0.635596, 0.270763, 0.633663, 0.269939, 0.645959, 0.275178, 0, 0
2, 2160.00000, 0.635596, 0.270763, 0.633663, 0.269939, 0.645959, 0.275178, 0, 0
2, 2220.00000, 0.635596, 0.270763, 0.633663, 0.269939, 0.645959, 0.275178, 0, 0
2, 2280.00000, 0.635596, 0.270763, 0.633663, 0.269939, 0.645959, 0.275178, 0, 0
2, 2340.00000, 0.635596, 0.270763, 0.633663, 0.269939, 0.645959, 0.275178, 0, 0
2, 2400.00000, 0.637311, 0.271494, 0.637658, 0.271647, 0.645954, 0.275175, 0, 0
2, 2460.00000, 0.637318, 0.271496, 0.637675, 0.271649, 0.645959, 0.275178, 0, 0
2, 2520.00000, 0.637318, 0.271496, 0.637676, 0.271649, 0.645959, 0.275178, 0, 0
2, 2580.00000, 0.637318, 0.271496, 0.637676, 0.271649, 0.645959, 0.275178, 0, 0
2, 2640.00000, 0.637318, 0.271496, 0.637676, 0.271649, 0.645959, 0.275178, 0, 0
2, 2700.00000, 0.637131, 0.271414, 0.634367, 0.270244, 0.645944, 0.275165, 0, 0
2, 2760.00000, 0.637135, 0.271418, 0.634367, 0.270239, 0.645959, 0.275178, 0, 0
2, 2820.00000, 0.637135, 0.271419, 0.634367, 0.270239, 0.645959, 0.275178, 0, 0
2, 2880.00000, 0.637135, 0.271419, 0.634367, 0.270239, 0.645959, 0.275178, 0, 0
2, 2940.00000, 0.637135, 0.271419, 0.634367, 0.270239, 0.645959, 0.275178, 0, 0
2, 3000.00000, 0.637135, 0.271419, 0.634367, 0.270239, 0.645959, 0.275178, 0, 0
2, 3060.00000, 0.640588, 0.272889, 0.640146, 0.272707, 0.645953, 0.275175, 0, 0
2, 3120.00000, 0.640595, 0.272892, 0.640161, 0.272707, 0.645959, 0.275178, 0, 0
2, 3180.00000, 0.640595, 0.272892, 0.640161, 0.272707, 0.645959, 0.275178, 0, 0
2, 3240.00000, 0.640595, 0.272892, 0.640161, 0.272707, 0.645959, 0.275178, 0, 0
2, 3300.00000, 0.640595, 0.272892, 0.640161, 0.272707, 0.645959, 0.275178, 0, 0
2, 3360.00000, 0.640595, 0.272892, 0.640161, 0.272707, 0.645959, 0.275178, 0, 0
2, 3420.00000, 0.640595, 0.272892, 0.640161, 0.272707, 0.645959, 0.275178, 0, 0
2, 3480.00000, 0.640595, 0.272892, 0.640161, 0.272707, 0.645959, 0.275178, 0, 0
2, 3540.00000, 0.640595, 0.272892, 0.640161, 0.272707, 0.645959, 0.275178, 0, 0
3, 0.00000, 0.640595, 0.272892, 0.640161, 0.272707, 0.645959, 0.275178, 0, 0
3, 60.00000, 0.640595, 0.272892, 0.640161, 0.272707, 0.645959, 0.275178, 0, 0
3, 120.00000, 0.640595, 0.272892, 0.640161, 0.272707, 0.645959, 0.275178, 0, 0
3, 180.00000, 0.640595, 0.272892, 0.640161, 0.272707, 0.645959, 0.275178, 0, 0
3, 240.00000, 0.640595, 0.272892, 0.640161, 0.272707, 0.645959, 0.275178, 0, 0
3, 300.00000, 0.640595, 0.272892, 0.640161, 0.272707, 0.645959, 0.275178, 0, 0
3, 360.00000, 0.640595, 0.272892, 0.640161, 0.272707, 0.645959, 0.275178, 0, 0
3, 420.00000, 0.640595, 0.272892, 0.640161, 0.272707, 0.645959, 0.275178, 0, 0
3, 480.00000, 0.640595, 0.272892, 0.640161, 0.272707, 0.645959, 0.275178, 0, 0
3, 540.00000, 0.640595, 0.272892, 0.640161, 0.272707, 0.645959, 0.275178, 0, 0
3, 600.00000, 0.640595, 0.272892, 0.640161, 0.272707, 0.645959, 0.275178, 0, 0
3, 660.00000, 0.640595, 0.272892, 0.640161, 0.272707, 0.645959, 0.275178, 0, 0
3, 720.00000, 0.640595, 0.272892, 0.640161, 0.272707, 0.645959, 0.275178, 0, 0
3, 780.00000, 0.640595, 0.272892, 0.640161, 0.272707, 0.645959, 0.275178, 0, 0
3, 840.00000, 0.640595, 0.272892, 0.640161, 0.272707, 0.645959, 0.275178, 0, 0
3, 900.00000, 0.640595, 0.272892, 0.640161, 0.272707, 0.645959, 0.275178, 0, 0
3, 960.00000, 0.640595, 0.272892, 0.640161, 0.272707, 0.645959, 0.275178, 0, 0
3, 1020.00000, 0.640595, 0.272892, 0.640161, 0.272707, 0.645959, 0.275178, 0, 0
3, 1080.00000, 0.640595, 0.272892, 0.640161, 0.272707, 0.645959, 0.275178, 0, 0
3, 1140.00000, 0.640595, 0.272892, 0.640161, 0.272707, 0.645959, 0.275178, 0, 0
3, 1200.00000, 0.640595, 0.272892, 0.640161, 0.272707, 0.645959, 0.275178, 0, 0
3, 1260.00000, 0.640595, 0.272892, 0.640161, 0.272707, 0.645959, 0.275178, 0, 0
3, 1320.00000, 0.640595, 0.272892, 0.640161, 0.272707, 0.645959, 0.275178, 0, 0
3, 1380.00000, 0.640595, 0.272892, 0.640161, 0.272707, 0.645959, 0.275178, 0, 0
3, 1440.00000, 0.640595, 0.272892, 0.640161, 0.272707, 0.645959, 0.275178, 0, 0
3, 1500.00000, 0.640595, 0.272892, 0.640161, 0.272707, 0.645959, 0.275178, 0, 0
3, 1560.00000, 0.640595, 0.272892, 0.640161, 0.272707, 0.645959, 0.275178, 0, 0
3, 1620.00000, 0.640595, 0.272892, 0.640161, 0.272707, 0.645959, 0.275178, 0, 0
3, 1680.00000, 0.640595, 0.272892, 0.640161, 0.272707, 0.645959, 0.275178, 0, 0
3, 1740.00000, 0.640595, 0.272892, 0.640161, 0.272707, 0.645959, 0.275178, 0, 0
3, 1800.00000, 0.640595, 0.272892, 0.640161, 0.272707, 0.645959, 0.275178, 0, 0
3, 1860.00000, 0.640595, 0.272892, 0.640161, 0.272707, 0.645959, 0.275178, 0, 0
3, 1920.00000, 0.640595, 0.272892, 0.640161, 0.272707, 0.645959, 0.275178, 0, 0
3, 1980.00000, 0.640595, 0.272892, 0.640161, 0.272707, 0.645959, 0.275178, 0, 0
3, 2040.00000, 0.640595, 0.272892, 0.640161, 0.272707, 0.645959, 0.275178, 0, 0
3, 2100.00000, 0.640595, 0.272892, 0.640161, 0.272707, 0.645959, 0.275178, 0, 0
3, 2160.00000, 0.640595, 0.272892, 0.640161, 0.272707, 0.645959, 0.275178, 0, 0
3, 2220.00000, 0.640595, 0.272892, 0.640161, 0.272707, 0.645959, 0.275178, 0, 0
3, 2280.00000, 0.640595, 0.272892, 0.640161, 0.272707, 0.645959, 0.275178, 0, 0
3, 2340.00000, 0.640595, 0.272892, 0.640161, 0.272707, 0.645959, 0.275178, 0, 0
3, 2400.00000, 0.640595, 0.272892, 0.640161, 0.272707, 0.645959, 0.275178, 0, 0
3, 2460.00000, 0.640595, 0.272892, 0.640161, 0.272707, 0.645959, 0.275178, 0, 0
3, 2520.00000, 0.640595, 0.272892, 0.640161, 0.272707, 0.645959, 0.275178, 0, 0
3, 2580.00000, 0.640595, 0.272892, 0.640161, 0.272707, 0.645959, 0.275178, 0, 0
3, 2640.00000, 0.640595, 0.272892, 0.640161, 0.272707, 0.645959, 0.275178, 0, 0
3, 2700.00000, 0.640595, 0.272892, 0.640161, 0.272707, 0.645959, 0.275178, 0, 0
3, 2760.00000, 0.640595, 0.272892, 0.640161, 0.272707, 0.645959, 0.275178, 0, 0
3, 2820.00000, 0.640595, 0.272892, 0.640161, 0.272707, 0.645959, 0.275178, 0, 0
3, 2880.00000, 0.640595, 0.272892, 0.640161, 0.272707, 0.645959, 0.275178, 0, 0
3, 2940.00000, 0.640595, 0.272892, 0.640161, 0.272707, 0.645959, 0.275178, 0, 0
3, 3000.00000, 0.640595, 0.272892, 0.640161, 0.272707, 0.645959, 0.275178, 0, 0
3, 3060.00000, 0.640595, 0.272892, 0.640161, 0.272707, 0.645959, 0.275178, 0, 0
3, 3120.00000, 0.640595, 0.272892, 0.640161, 0.272707, 0.645959, 0.275178, 0, 0
3, 3180.00000, 0.675043, 0.287565, 0.674726, 0.287431, 0.683339, 0.2911, 0, 0
3, 3240.00000, 0.675039, 0.287565, 0.674722, 0.28743, 0.683342, 0.291102, 0, 0
3, 3300.00000, 0.675039, 0.287565, 0.674722, 0.28743, 0.683342, 0.291102, 0, 0
3, 3360.00000, 0.675039, 0.287565, 0.674722, 0.28743, 0.683342, 0.291102, 0, 0
3, 3420.00000, 0.675039, 0.287565, 0.674722, 0.28743, 0.683342, 0.291102, 0, 0
3, 3480.00000, 0.675039, 0.287565, 0.674722, 0.28743, 0.683342, 0.291102, 0, 0
3, 3540.00000, 0.675039, 0.287565, 0.674722, 0.28743, 0.683342, 0.291102, 0, 0
4, 0.00000, 0.675039, 0.287565, 0.674722, 0.28743, 0.683342, 0.291102, 0, 0
4, 60.00000, 0.675039, 0.287565, 0.674722, 0.28743, 0.683342, 0.291102, 0, 0
4, 120.00000, 0.675039, 0.287565, 0.674722, 0.28743, 0.683342, 0.291102, 0, 0
4, 180.00000, 0.675039, 0.287565, 0.674722, 0.28743, 0.683342, 0.291102, 0, 0
4, 240.00000, 0.675039, 0.287565, 0.674722, 0.28743, 0.683342, 0.291102, 0, 0
4, 300.00000, 0.675039, 0.287565, 0.674722, 0.28743, 0.683342, 0.291102, 0, 0
4, 360.00000, 0.675039, 0.287565, 0.674722, 0.28743, 0.683342, 0.291102, 0, 0
4, 420.00000, 0.675039, 0.287565, 0.674722, 0.28743, 0.683342, 0.291102, 0, 0
4, 480.00000, 0.675039, 0.287565, 0.674722, 0.28743, 0.683342, 0.291102, 0, 0
4, 540.00000, 0.675039, 0.287565, 0.674722, 0.28743, 0.683342, 0.291102, 0, 0
4, 600.00000, 0.675039, 0.287565, 0.674722, 0.28743, 0.683342, 0.291102, 0, 0
4, 660.00000, 0.675039, 0.287565, 0.674722, 0.28743, 0.683342, 0.291102, 0, 0
