hour,t(sec),V1,VAngle1,V2,VAngle2,V3,VAngle3,V4,VAngle4,I1,IAngle1,I2,IAngle2,I3,IAngle3,I4,IAngle4
0, 60.00000, 117.026, -31.1638, 119.19, -151.096, 118.749, 88.0296, 0, 0, 6.46468, -54.2376, 6.59761, -174.17, 6.57056, 64.9561, 0.0371041, -83.8849
0, 120.00000, 117.026, -31.1638, 119.19, -151.096, 118.749, 88.0295, 0, 0, 6.46463, -54.2377, 6.59755, -174.17, 6.57046, 64.9556, 0.0370258, -83.8982
0, 180.00000, 117.026, -31.1638, 119.19, -151.096, 118.749, 88.0295, 0, 0, 6.46463, -54.2377, 6.59755, -174.17, 6.57046, 64.9556, 0.0370254, -83.8982
0, 240.00000, 117.026, -31.1638, 119.19, -151.096, 118.749, 88.0295, 0, 0, 6.46463, -54.2377, 6.59755, -174.17, 6.57046, 64.9556, 0.0370254, -83.8982
0, 300.00000, 117.026, -31.1638, 119.19, -151.096, 118.749, 88.0295, 0, 0, 6.46463, -54.2377, 6.59755, -174.17, 6.57046, 64.9556, 0.0370254, -83.8982
0, 360.00000, 117.026, -31.1638, 119.19, -151.096, 118.749, 88.0295, 0, 0, 6.46463, -54.2377, 6.59755, -174.17, 6.57046, 64.9556, 0.0370254, -83.8982
0, 420.00000, 117.026, -31.1638, 119.19, -151.096, 118.749, 88.0295, 0, 0, 6.46463, -54.2377, 6.59755, -174.17, 6.57046, 64.9556, 0.0370254, -83.8982
0, 480.00000, 117.832, -31.062, 119.989, -150.994, 119.524, 88.1489, 0, 0, 5.66723, -54.136, 5.78249, -174.068, 5.75766, 65.0744, 0.0313783, -81.2141
0, 540.00000, 117.832, -31.062, 119.989, -150.994, 119.524, 88.149, 0, 0, 5.66729, -54.136, 5.78258, -174.068, 5.75775, 65.0751, 0.0314364, -81.0962
0, 600.00000, 117.832, -31.062, 119.989, -150.994, 119.524, 88.149, 0, 0, 5.66729, -54.136, 5.78258, -174.068, 5.75775, 65.0751, 0.0314367, -81.0959
0, 660.00000, 117.832, -31.062, 119.989, -150.994, 119.524, 88.149, 0, 0, 5.66729, -54.136, 5.78258, -174.068, 5.75775, 65.0751, 0.0314367, -81.0959
0, 720.00000, 117.832, -31.062, 119.989, -150.994, 119.524, 88.149, 0, 0, 5.66729, -54.136, 5.78258, -174.068, 5.75775, 65.0751, 0.0314367, -81.0959
0, 780.00000, 117.832, -31.062, 119.989, -150.994, 119.524, 88.149, 0, 0, 5.66729, -54.136, 5.78258, -174.068, 5.75775, 65.0751, 0.0314367, -81.0959
0, 840.00000, 117.832, -31.062, 119.989, -150.994, 119.524, 88.149, 0, 0, 5.66729, -54.136, 5.78258, -174.068, 5.75775, 65.0751, 0.0314367, -81.0959
0, 900.00000, 117.832, -31.062, 119.989, -150.994, 119.524, 88.149, 0, 0, 5.66729, -54.136, 5.78258, -174.068, 5.75775, 65.0751, 0.0314367, -81.0959
0, 960.00000, 117.197, -30.9847, 119.989, -150.993, 119.072, 87.923, 0, 0, 5.63339, -54.0586, 5.78259, -174.066, 5.73359, 64.8493, 0.0324106, -75.2224
0, 1020.00000, 117.197, -30.9847, 119.989, -150.993, 119.072, 87.923, 0, 0, 5.63336, -54.0587, 5.7826, -174.066, 5.73355, 64.8491, 0.0323985, -75.1542
0, 1080.00000, 117.197, -30.9847, 119.989, -150.993, 119.072, 87.923, 0, 0, 5.63336, -54.0587, 5.7826, -174.066, 5.73355, 64.8491, 0.0323984, -75.1539
0, 1140.00000, 117.197, -30.9847, 119.989, -150.993, 119.072, 87.923, 0, 0, 5.63336, -54.0587, 5.7826, -174.066, 5.73355, 64.8491, 0.0323984, -75.1539
0, 1200.00000, 117.197, -30.9847, 119.989, -150.993, 119.072, 87.923, 0, 0, 5.63336, -54.0587, 5.7826, -174.066, 5.73355, 64.8491, 0.0323984, -75.1539
0, 1260.00000, 117.197, -30.9847, 119.989, -150.993, 119.072, 87.923, 0, 0, 5.63336, -54.0587, 5.7826, -174.066, 5.73355, 64.8491, 0.0323984, -75.1539
0, 1320.00000, 117.197, -30.9847, 119.989, -150.993, 119.072, 87.923, 0, 0, 5.63336, -54.0587, 5.7826, -174.066, 5.73355, 64.8491, 0.0323984, -75.1539
0, 1380.00000, 117.197, -30.9847, 119.989, -150.993, 119.072, 87.923, 0, 0, 5.63336, -54.0587, 5.7826, -174.066, 5.73355, 64.8491, 0.0323984, -75.1539
0, 1440.00000, 117.197, -30.9847, 119.989, -150.993, 119.072, 87.923, 0, 0, 5.63336, -54.0587, 5.7826, -174.066, 5.73355, 64.8491, 0.0323984, -75.1539
0, 1500.00000, 117.197, -30.9847, 119.989, -150.993, 119.072, 87.923, 0, 0, 5.63336, -54.0587, 5.7826, -174.066, 5.73355, 64.8491, 0.0323984, -75.1539
0, 1560.00000, 117.197, -30.9847, 119.989, -150.993, 119.072, 87.923, 0, 0, 5.63336, -54.0587, 5.7826, -174.066, 5.73355, 64.8491, 0.0323984, -75.1539
0, 1620.00000, 117.197, -30.9847, 119.989, -150.993, 119.072, 87.923, 0, 0, 5.63336, -54.0587, 5.7826, -174.066, 5.73355, 64.8491, 0.0323984, -75.1539
0, 1680.00000, 117.197, -30.9847, 119.989, -150.993, 119.072, 87.923, 0, 0, 5.63336, -54.0587, 5.7826, -174.066, 5.73355, 64.8491, 0.0323984, -75.1539
0, 1740.00000, 117.197, -30.9847, 119.989, -150.993, 119.072, 87.923, 0, 0, 5.63336, -54.0587, 5.7826, -174.066, 5.73355, 64.8491, 0.0323984, -75.1539
0, 1800.00000, 116.735, -30.9605, 119.994, -150.991, 118.793, 87.7443, 0, 0, 5.60868, -54.0343, 5.78284, -174.065, 5.71869, 64.6707, 0.033392, -70.2589
0, 1860.00000, 116.735, -30.9605, 119.994, -150.991, 118.793, 87.7443, 0, 0, 5.60865, -54.0344, 5.78284, -174.065, 5.71866, 64.6704, 0.0333863, -70.2098
0, 1920.00000, 116.735, -30.9605, 119.994, -150.991, 118.793, 87.7443, 0, 0, 5.60865, -54.0344, 5.78284, -174.065, 5.71866, 64.6704, 0.0333862, -70.2096
0, 1980.00000, 116.735, -30.9605, 119.994, -150.991, 118.793, 87.7443, 0, 0, 5.60865, -54.0344, 5.78284, -174.065, 5.71866, 64.6704, 0.0333862, -70.2096
0, 2040.00000, 116.735, -30.9605, 119.994, -150.991, 118.793, 87.7443, 0, 0, 5.60865, -54.0344, 5.78284, -174.065, 5.71866, 64.6704, 0.0333862, -70.2096
0, 2100.00000, 116.735, -30.9605, 119.994, -150.991, 118.793, 87.7443, 0, 0, 5.60865, -54.0344, 5.78284, -174.065, 5.71866, 64.6704, 0.0333862, -70.2096
0, 2160.00000, 116.735, -30.9605, 119.994, -150.991, 118.793, 87.7443, 0, 0, 5.60865, -54.0344, 5.78284, -174.065, 5.71866, 64.6704, 0.0333862, -70.2096
0, 2220.00000, 116.735, -30.9605, 119.994, -150.991, 118.793, 87.7443, 0, 0, 5.60865, -54.0344, 5.78284, -174.065, 5.71866, 64.6704, 0.0333862, -70.2096
0, 2280.00000, 116.735, -30.9605, 119.994, -150.991, 118.793, 87.7443, 0, 0, 5.60865, -54.0344, 5.78284, -174.065, 5.71866, 64.6704, 0.0333862, -70.2096
0, 2340.00000, 116.735, -30.9605, 119.994, -150.991, 118.793, 87.7443, 0, 0, 5.60865, -54.0344, 5.78284, -174.065, 5.71866, 64.6704, 0.0333862, -70.2096
0, 2400.00000, 116.735, -30.9605, 119.994, -150.991, 118.793, 87.7443, 0, 0, 5.60865, -54.0344, 5.78284, -174.065, 5.71866, 64.6704, 0.0333862, -70.2096
0, 2460.00000, 116.735, -30.9605, 119.994, -150.991, 118.793, 87.7443, 0, 0, 5.60865, -54.0344, 5.78284, -174.065, 5.71866, 64.6704, 0.0333862, -70.2096
0, 2520.00000, 116.735, -30.9605, 119.994, -150.991, 118.793, 87.7443, 0, 0, 5.60865, -54.0344, 5.78284, -174.065, 5.71866, 64.6704, 0.0333862, -70.2096
0, 2580.00000, 116.735, -30.9605, 119.994, -150.991, 118.793, 87.7443, 0, 0, 5.60865, -54.0344, 5.78284, -174.065, 5.71866, 64.6704, 0.0333862, -70.2096
0, 2640.00000, 116.735, -30.9605, 119.994, -150.991, 118.793, 87.7443, 0, 0, 5.60865, -54.0344, 5.78284, -174.065, 5.71866, 64.6704, 0.0333862, -70.2096
0, 2700.00000, 116.735, -30.9605, 119.994, -150.991, 118.793, 87.7443, 0, 0, 5.60865, -54.0344, 5.78284, -174.065, 5.71866, 64.6704, 0.0333862, -70.2096
0, 2760.00000, 117.385, -31.0032, 119.991, -150.991, 119.204, 87.9939, 0, 0, 5.64336, -54.0774, 5.7827, -174.065, 5.74053, 64.9197, 0.0321899, -76.6155
0, 2820.00000, 117.385, -31.0032, 119.991, -150.991, 119.204, 87.994, 0, 0, 5.64342, -54.0771, 5.78268, -174.065, 5.74062, 64.9201, 0.0322462, -76.7992
0, 2880.00000, 117.385, -31.0032, 119.991, -150.991, 119.204, 87.994, 0, 0, 5.64342, -54.0771, 5.78268, -174.065, 5.74062, 64.9201, 0.0322466, -76.8001
0, 2940.00000, 117.385, -31.0032, 119.991, -150.991, 119.204, 87.994, 0, 0, 5.64342, -54.0771, 5.78268, -174.065, 5.74062, 64.9201, 0.0322466, -76.8001
0, 3000.00000, 117.385, -31.0032, 119.991, -150.991, 119.204, 87.994, 0, 0, 5.64342, -54.0771, 5.78268, -174.065, 5.74062, 64.9201, 0.0322466, -76.8001
0, 3060.00000, 117.385, -31.0032, 119.991, -150.991, 119.204, 87.994, 0, 0, 5.64342, -54.0771, 5.78268, -174.065, 5.74062, 64.9201, 0.0322466, -76.8001
0, 3120.00000, 117.385, -31.0032, 119.991, -150.991, 119.204, 87.994, 0, 0, 5.64342, -54.0771, 5.78268, -174.065, 5.74062, 64.9201, 0.0322466, -76.8001
0, 3180.00000, 117.385, -31.0032, 119.991, -150.991, 119.204, 87.994, 0, 0, 5.64342, -54.0771, 5.78268, -174.065, 5.74062, 64.9201, 0.0322466, -76.8001
0, 3240.00000, 117.385, -31.0032, 119.991, -150.991, 119.204, 87.994, 0, 0, 5.64342, -54.0771, 5.78268, -174.065, 5.74062, 64.9201, 0.0322466, -76.8001
0, 3300.00000, 117.385, -31.0032, 119.991, -150.991, 119.204, 87.994, 0, 0, 5.64342, -54.0771, 5.78268, -174.065, 5.74062, 64.9201, 0.0322466, -76.8001
0, 3360.00000, 117.385, -31.0032, 119.991, -150.991, 119.204, 87.994, 0, 0, 5.64342, -54.0771, 5.78268, -174.065, 5.74062, 64.9201, 0.0322466, -76.8001
0, 3420.00000, 117.385, -31.0032, 119.991, -150.991, 119.204, 87.994, 0, 0, 5.64342, -54.0771, 5.78268, -174.065, 5.74062, 64.9201, 0.0322466, -76.8001
0, 3480.00000, 117.385, -31.0032, 119.991, -150.991, 119.204, 87.994, 0, 0, 5.64342, -54.0771, 5.78268, -174.065, 5.74062, 64.9201, 0.0322466, -76.8001
0, 3540.00000, 117.385, -31.0032, 119.991, -150.991, 119.204, 87.994, 0, 0, 5.64342, -54.0771, 5.78268, -174.065, 5.74062, 64.9201, 0.0322466, -76.8001
1, 0.00000, 117.385, -31.0032, 119.991, -150.991, 119.204, 87.994, 0, 0, 5.64342, -54.0771, 5.78268, -174.065, 5.74062, 64.9201, 0.0322466, -76.8001
1, 60.00000, 117.802, -30.9987, 119.989, -150.992, 119.411, 88.1659, 0, 0, 5.66565, -54.0729, 5.78258, -174.065, 5.75163, 65.0918, 0.0312926, -81.083
1, 120.00000, 117.802, -30.9987, 119.989, -150.992, 119.411, 88.1659, 0, 0, 5.6657, -54.0726, 5.78256, -174.065, 5.75168, 65.092, 0.0313114, -81.22
1, 180.00000, 117.802, -30.9987, 119.989, -150.992, 119.411, 88.1659, 0, 0, 5.6657, -54.0726, 5.78256, -174.065, 5.75168, 65.092, 0.0313116, -81.2206
1, 240.00000, 117.802, -30.9987, 119.989, -150.992, 119.411, 88.1659, 0, 0, 5.6657, -54.0726, 5.78256, -174.065, 5.75168, 65.092, 0.0313116, -81.2206
1, 300.00000, 117.802, -30.9987, 119.989, -150.992, 119.411, 88.1659, 0, 0, 5.6657, -54.0726, 5.78256, -174.065, 5.75168, 65.092, 0.0313116, -81.2206
1, 360.00000, 117.802, -30.9987, 119.989, -150.992, 119.411, 88.1659, 0, 0, 5.6657, -54.0726, 5.78256, -174.065, 5.75168, 65.092, 0.0313116, -81.2206
1, 420.00000, 117.802, -30.9987, 119.989, -150.992, 119.411, 88.1659, 0, 0, 5.6657, -54.0726, 5.78256, -174.065, 5.75168, 65.092, 0.0313116, -81.2206
1, 480.00000, 117.802, -30.9987, 119.989, -150.992, 119.411, 88.1659, 0, 0, 5.6657, -54.0726, 5.78256, -174.065, 5.75168, 65.092, 0.0313116, -81.2206
1, 540.00000, 117.802, -30.9987, 119.989, -150.992, 119.411, 88.1659, 0, 0, 5.6657, -54.0726, 5.78256, -174.065, 5.75168, 65.092, 0.0313116, -81.2206
1, 600.00000, 117.802, -30.9987, 119.989, -150.992, 119.411, 88.1659, 0, 0, 5.6657, -54.0726, 5.78256, -174.065, 5.75168, 65.092, 0.0313116, -81.2206
1, 660.00000, 117.802, -30.9987, 119.989, -150.992, 119.411, 88.1659, 0, 0, 5.6657, -54.0726, 5.78256, -174.065, 5.75168, 65.092, 0.0313116, -81.2206
1, 720.00000, 117.802, -30.9987, 119.989, -150.992, 119.411, 88.1659, 0, 0, 5.6657, -54.0726, 5.78256, -174.065, 5.75168, 65.092, 0.0313116, -81.2206
1, 780.00000, 118.137, -30.9837, 119.988, -150.991, 119.549, 88.3075, 0, 0, 5.68354, -54.0578, 5.78256, -174.065, 5.75906, 65.2335, 0.0301506, -84.4561
1, 840.00000, 118.137, -30.9836, 119.988, -150.991, 119.549, 88.3075, 0, 0, 5.68361, -54.0576, 5.78255, -174.065, 5.75908, 65.2336, 0.0301256, -84.576
1, 900.00000, 118.137, -30.9836, 119.988, -150.991, 119.549, 88.3075, 0, 0, 5.68361, -54.0576, 5.78255, -174.065, 5.75908, 65.2336, 0.0301255, -84.5768
1, 960.00000, 118.137, -30.9836, 119.988, -150.991, 119.549, 88.3075, 0, 0, 5.68361, -54.0576, 5.78255, -174.065, 5.75908, 65.2336, 0.0301255, -84.5768
1, 1020.00000, 118.137, -30.9836, 119.988, -150.991, 119.549, 88.3075, 0, 0, 5.68361, -54.0576, 5.78255, -174.065, 5.75908, 65.2336, 0.0301255, -84.5768
1, 1080.00000, 118.137, -30.9836, 119.988, -150.991, 119.549, 88.3075, 0, 0, 5.68361, -54.0576, 5.78255, -174.065, 5.75908, 65.2336, 0.0301255, -84.5768
1, 1140.00000, 118.137, -30.9836, 119.988, -150.991, 119.549, 88.3075, 0, 0, 5.68361, -54.0576, 5.78255, -174.065, 5.75908, 65.2336, 0.0301255, -84.5768
1, 1200.00000, 118.137, -30.9836, 119.988, -150.991, 119.549, 88.3075, 0, 0, 5.68361, -54.0576, 5.78255, -174.065, 5.75908, 65.2336, 0.0301255, -84.5768
1, 1260.00000, 118.137, -30.9836, 119.988, -150.991, 119.549, 88.3075, 0, 0, 5.68361, -54.0576, 5.78255, -174.065, 5.75908, 65.2336, 0.0301255, -84.5768
1, 1320.00000, 118.137, -30.9836, 119.988, -150.991, 119.549, 88.3075, 0, 0, 5.68361, -54.0576, 5.78255, -174.065, 5.75908, 65.2336, 0.0301255, -84.5768
1, 1380.00000, 118.137, -30.9836, 119.988, -150.991, 119.549, 88.3075, 0, 0, 5.68361, -54.0576, 5.78255, -174.065, 5.75908, 65.2336, 0.0301255, -84.5768
1, 1440.00000, 118.137, -30.9836, 119.988, -150.991, 119.549, 88.3075, 0, 0, 5.68361, -54.0576, 5.78255, -174.065, 5.75908, 65.2336, 0.0301255, -84.5768
1, 1500.00000, 118.137, -30.9836, 119.988, -150.991, 119.549, 88.3075, 0, 0, 5.68361, -54.0576, 5.78255, -174.065, 5.75908, 65.2336, 0.0301255, -84.5768
1, 1560.00000, 118.137, -30.9836, 119.988, -150.991, 119.549, 88.3075, 0, 0, 5.68361, -54.0576, 5.78255, -174.065, 5.75908, 65.2336, 0.0301255, -84.5768
1, 1620.00000, 118.137, -30.9836, 119.988, -150.991, 119.549, 88.3075, 0, 0, 5.68361, -54.0576, 5.78255, -174.065, 5.75908, 65.2336, 0.0301255, -84.5768
1, 1680.00000, 118.137, -30.9836, 119.988, -150.991, 119.549, 88.3075, 0, 0, 5.68361, -54.0576, 5.78255, -174.065, 5.75908, 65.2336, 0.0301255, -84.5768
1, 1740.00000, 118.137, -30.9836, 119.988, -150.991, 119.549, 88.3075, 0, 0, 5.68361, -54.0576, 5.78255, -174.065, 5.75908, 65.2336, 0.0301255, -84.5768
1, 1800.00000, 118.137, -30.9836, 119.988, -150.991, 119.549, 88.3075, 0, 0, 5.68361, -54.0576, 5.78255, -174.065, 5.75908, 65.2336, 0.0301255, -84.5768
1, 1860.00000, 118.137, -30.9836, 119.988, -150.991, 119.549, 88.3075, 0, 0, 5.68361, -54.0576, 5.78255, -174.065, 5.75908, 65.2336, 0.0301255, -84.5768
1, 1920.00000, 118.137, -30.9836, 119.988, -150.991, 119.549, 88.3075, 0, 0, 5.68361, -54.0576, 5.78255, -174.065, 5.75908, 65.2336, 0.0301255, -84.5768
1, 1980.00000, 118.137, -30.9836, 119.988, -150.991, 119.549, 88.3075, 0, 0, 5.68361, -54.0576, 5.78255, -174.065, 5.75908, 65.2336, 0.0301255, -84.5768
1, 2040.00000, 118.137, -30.9836, 119.988, -150.991, 119.549, 88.3075, 0, 0, 5.68361, -54.0576, 5.78255, -174.065, 5.75908, 65.2336, 0.0301255, -84.5768
1, 2100.00000, 118.137, -30.9836, 119.988, -150.991, 119.549, 88.3075, 0, 0, 5.68361, -54.0576, 5.78255, -174.065, 5.75908, 65.2336, 0.0301255, -84.5768
1, 2160.00000, 118.137, -30.9836, 119.988, -150.991, 119.549, 88.3075, 0, 0, 5.68361, -54.0576, 5.78255, -174.065, 5.75908, 65.2336, 0.0301255, -84.5768
1, 2220.00000, 118.618, -31.0033, 119.983, -150.992, 119.831, 88.4874, 0, 0, 5.70927, -54.0774, 5.78227, -174.066, 5.77413, 65.4134, 0.0294454, -91.4182
1, 2280.00000, 118.618, -31.0033, 119.983, -150.992, 119.831, 88.4874, 0, 0, 5.70934, -54.0772, 5.78225, -174.066, 5.77415, 65.4134, 0.0294232, -91.5605
1, 2340.00000, 118.618, -31.0033, 119.983, -150.992, 119.831, 88.4874, 0, 0, 5.70934, -54.0772, 5.78225, -174.066, 5.77415, 65.4134, 0.0294231, -91.5613
1, 2400.00000, 118.618, -31.0033, 119.983, -150.992, 119.831, 88.4874, 0, 0, 5.70934, -54.0772, 5.78225, -174.066, 5.77415, 65.4134, 0.0294231, -91.5613
1, 2460.00000, 118.618, -31.0033, 119.983, -150.992, 119.831, 88.4874, 0, 0, 5.70934, -54.0772, 5.78225, -174.066, 5.77415, 65.4134, 0.0294231, -91.5613
1, 2520.00000, 118.618, -31.0033, 119.983, -150.992, 119.831, 88.4874, 0, 0, 5.70934, -54.0772, 5.78225, -174.066, 5.77415, 65.4134, 0.0294231, -91.5613
1, 2580.00000, 118.618, -31.0033, 119.983, -150.992, 119.831, 88.4874, 0, 0, 5.70934, -54.0772, 5.78225, -174.066, 5.77415, 65.4134, 0.0294231, -91.5613
1, 2640.00000, 118.618, -31.0033, 119.983, -150.992, 119.831, 88.4874, 0, 0, 5.70934, -54.0772, 5.78225, -174.066, 5.77415, 65.4134, 0.0294231, -91.5613
1, 2700.00000, 118.618, -31.0033, 119.983, -150.992, 119.831, 88.4874, 0, 0, 5.70934, -54.0772, 5.78225, -174.066, 5.77415, 65.4134, 0.0294231, -91.5613
1, 2760.00000, 118.618, -31.0033, 119.983, -150.992, 119.831, 88.4874, 0, 0, 5.70934, -54.0772, 5.78225, -174.066, 5.77415, 65.4134, 0.0294231, -91.5613
1, 2820.00000, 118.618, -31.0033, 119.983, -150.992, 119.831, 88.4874, 0, 0, 5.70934, -54.0772, 5.78225, -174.066, 5.77415, 65.4134, 0.0294231, -91.5613
1, 2880.00000, 118.618, -31.0033, 119.983, -150.992, 119.831, 88.4874, 0, 0, 5.70934, -54.0772, 5.78225, -174.066, 5.77415, 65.4134, 0.0294231, -91.5613
1, 2940.00000, 118.618, -31.0033, 119.983, -150.992, 119.831, 88.4874, 0, 0, 5.70934, -54.0772, 5.78225, -174.066, 5.77415, 65.4134, 0.0294231, -91.5613
1, 3000.00000, 118.618, -31.0033, 119.983, -150.992, 119.831, 88.4874, 0, 0, 5.70934, -54.0772, 5.78225, -174.066, 5.77415, 65.4134, 0.0294231, -91.5613
1, 3060.00000, 118.618, -31.0033, 119.983, -150.992, 119.831, 88.4874, 0, 0, 5.70934, -54.0772, 5.78225, -174.066, 5.77415, 65.4134, 0.0294231, -91.5613
1, 3120.00000, 118.618, -31.0033, 119.983, -150.992, 119.831, 88.4874, 0, 0, 5.70934, -54.0772, 5.78225, -174.066, 5.77415, 65.4134, 0.0294231, -91.5613
1, 3180.00000, 118.618, -31.0033, 119.983, -150.992, 119.831, 88.4874, 0, 0, 5.70934, -54.0772, 5.78225, -174.066, 5.77415, 65.4134, 0.0294231, -91.5613
1, 3240.00000, 118.618, -31.0033, 119.983, -150.992, 119.831, 88.4874, 0, 0, 5.70934, -54.0772, 5.78225, -174.066, 5.77415, 65.4134, 0.0294231, -91.5613
1, 3300.00000, 118.618, -31.0033, 119.983, -150.992, 119.831, 88.4874, 0, 0, 5.70934, -54.0772, 5.78225, -174.066, 5.77415, 65.4134, 0.0294231, -91.5613
1, 3360.00000, 118.618, -31.0033, 119.983, -150.992, 119.831, 88.4874, 0, 0, 5.70934, -54.0772, 5.78225, -174.066, 5.77415, 65.4134, 0.0294231, -91.5613
1, 3420.00000, 118.618, -31.0033, 119.983, -150.992, 119.831, 88.4874, 0, 0, 5.70934, -54.0772, 5.78225, -174.066, 5.77415, 65.4134, 0.0294231, -91.5613
1, 3480.00000, 118.618, -31.0033, 119.983, -150.992, 119.831, 88.4874, 0, 0, 5.70934, -54.0772, 5.78225, -174.066, 5.77415, 65.4134, 0.0294231, -91.5613
1, 3540.00000, 118.618, -31.0033, 119.983, -150.992, 119.831, 88.4874, 0, 0, 5.70934, -54.0772, 5.78225, -174.066, 5.77415, 65.4134, 0.0294231, -91.5613
2, 0.00000, 118.618, -31.0033, 119.983, -150.992, 119.831, 88.4874, 0, 0, 5.70934, -54.0772, 5.78225, -174.066, 5.77415, 65.4134, 0.0294231, -91.5613
2, 60.00000, 118.618, -31.0033, 119.983, -150.992, 119.831, 88.4874, 0, 0, 5.70934, -54.0772, 5.78225, -174.066, 5.77415, 65.4134, 0.0294231, -91.5613
2, 120.00000, 118.618, -31.0033, 119.983, -150.992, 119.831, 88.4874, 0, 0, 5.70934, -54.0772, 5.78225, -174.066, 5.77415, 65.4134, 0.0294231, -91.5613
2, 180.00000, 118.618, -31.0033, 119.983, -150.992, 119.831, 88.4874, 0, 0, 5.70934, -54.0772, 5.78225, -174.066, 5.77415, 65.4134, 0.0294231, -91.5613
2, 240.00000, 118.618, -31.0033, 119.983, -150.992, 119.831, 88.4874, 0, 0, 5.70934, -54.0772, 5.78225, -174.066, 5.77415, 65.4134, 0.0294231, -91.5613
2, 300.00000, 118.618, -31.0033, 119.983, -150.992, 119.831, 88.4874, 0, 0, 5.70934, -54.0772, 5.78225, -174.066, 5.77415, 65.4134, 0.0294231, -91.5613
2, 360.00000, 118.618, -31.0033, 119.983, -150.992, 119.831, 88.4874, 0, 0, 5.70934, -54.0772, 5.78225, -174.066, 5.77415, 65.4134, 0.0294231, -91.5613
2, 420.00000, 118.618, -31.0033, 119.983, -150.992, 119.831, 88.4874, 0, 0, 5.70934, -54.0772, 5.78225, -174.066, 5.77415, 65.4134, 0.0294231, -91.5613
2, 480.00000, 118.618, -31.0033, 119.983, -150.992, 119.831, 88.4874, 0, 0, 5.70934, -54.0772, 5.78225, -174.066, 5.77415, 65.4134, 0.0294231, -91.5613
2, 540.00000, 118.618, -31.0033, 119.983, -150.992, 119.831, 88.4874, 0, 0, 5.70934, -54.0772, 5.78225, -174.066, 5.77415, 65.4134, 0.0294231, -91.5613
2, 600.00000, 118.618, -31.0033, 119.983, -150.992, 119.831, 88.4874, 0, 0, 5.70934, -54.0772, 5.78225, -174.066, 5.77415, 65.4134, 0.0294231, -91.5613
2, 660.00000, 118.618, -31.0033, 119.983, -150.992, 119.831, 88.4874, 0, 0, 5.70934, -54.0772, 5.78225, -174.066, 5.77415, 65.4134, 0.0294231, -91.5613
