hour,t(sec),V1,VAngle1,V2,VAngle2,V3,VAngle3,V4,VAngle4,I1,IAngle1,I2,IAngle2,I3,IAngle3,I4,IAngle4
0, 60.00000, 118.664, -31.7313, 118.491, -151.318, 119.782, 88.6198, 0, 0, 7.65975, -54.805, 7.6474, -174.392, 7.73994, 65.5461, 0.039616, -101.691
0, 120.00000, 118.664, -31.7313, 118.491, -151.318, 119.782, 88.6198, 0, 0, 7.6597, -54.8053, 7.64733, -174.392, 7.73988, 65.5459, 0.0396098, -101.701
0, 180.00000, 118.664, -31.7313, 118.491, -151.318, 119.782, 88.6198, 0, 0, 7.6597, -54.8053, 7.64733, -174.392, 7.73988, 65.5459, 0.0396098, -101.701
0, 240.00000, 118.664, -31.7313, 118.491, -151.318, 119.782, 88.6198, 0, 0, 7.6597, -54.8053, 7.64733, -174.392, 7.73988, 65.5459, 0.0396098, -101.701
0, 300.00000, 118.664, -31.7313, 118.491, -151.318, 119.782, 88.6198, 0, 0, 7.6597, -54.8053, 7.64733, -174.392, 7.73988, 65.5459, 0.0396098, -101.701
0, 360.00000, 118.664, -31.7313, 118.491, -151.318, 119.782, 88.6198, 0, 0, 7.6597, -54.8053, 7.64733, -174.392, 7.73988, 65.5459, 0.0396098, -101.701
0, 420.00000, 118.664, -31.7313, 118.491, -151.318, 119.782, 88.6198, 0, 0, 7.6597, -54.8053, 7.64733, -174.392, 7.73988, 65.5459, 0.0396098, -101.701
0, 480.00000, 119.448, -31.6193, 119.231, -151.211, 120.516, 88.7426, 0, 0, 8.09656, -54.6936, 8.08029, -174.285, 8.17691, 65.6685, 0.0394685, -102.116
0, 540.00000, 119.448, -31.6193, 119.232, -151.211, 120.516, 88.7427, 0, 0, 8.09662, -54.6932, 8.08036, -174.285, 8.17698, 65.6687, 0.0394842, -102.128
0, 600.00000, 119.448, -31.6193, 119.232, -151.211, 120.516, 88.7427, 0, 0, 8.09662, -54.6932, 8.08036, -174.285, 8.17698, 65.6687, 0.0394842, -102.128
0, 660.00000, 119.448, -31.6193, 119.232, -151.211, 120.516, 88.7427, 0, 0, 8.09662, -54.6932, 8.08036, -174.285, 8.17698, 65.6687, 0.0394842, -102.128
0, 720.00000, 119.448, -31.6193, 119.232, -151.211, 120.516, 88.7427, 0, 0, 8.09662, -54.6932, 8.08036, -174.285, 8.17698, 65.6687, 0.0394842, -102.128
0, 780.00000, 119.448, -31.6193, 119.232, -151.211, 120.516, 88.7427, 0, 0, 8.09662, -54.6932, 8.08036, -174.285, 8.17698, 65.6687, 0.0394842, -102.128
0, 840.00000, 119.448, -31.6193, 119.232, -151.211, 120.516, 88.7427, 0, 0, 8.09662, -54.6932, 8.08036, -174.285, 8.17698, 65.6687, 0.0394842, -102.128
0, 900.00000, 119.448, -31.6193, 119.232, -151.211, 120.516, 88.7427, 0, 0, 8.09662, -54.6932, 8.08036, -174.285, 8.17698, 65.6687, 0.0394842, -102.128
0, 960.00000, 119.087, -31.6447, 118.493, -151.501, 119.509, 88.7764, 0, 0, 8.06956, -54.7182, 8.02484, -174.575, 8.10133, 65.7027, 0.0380371, -98.3832
0, 1020.00000, 119.087, -31.6448, 118.493, -151.501, 119.509, 88.7764, 0, 0, 8.06946, -54.7187, 8.02479, -174.575, 8.10122, 65.7025, 0.0379767, -98.2656
0, 1080.00000, 119.087, -31.6448, 118.493, -151.501, 119.509, 88.7764, 0, 0, 8.06946, -54.7187, 8.02479, -174.575, 8.10122, 65.7025, 0.0379764, -98.265
0, 1140.00000, 119.389, -31.6096, 118.493, -151.5, 119.611, 88.9114, 0, 0, 8.09212, -54.6839, 8.02482, -174.574, 8.10884, 65.8374, 0.0375625, -102.708
0, 1200.00000, 119.389, -31.6096, 118.493, -151.5, 119.611, 88.9114, 0, 0, 8.09219, -54.6835, 8.02482, -174.574, 8.10888, 65.8375, 0.0375892, -102.819
0, 1260.00000, 119.389, -31.6096, 118.493, -151.5, 119.611, 88.9114, 0, 0, 8.09219, -54.6835, 8.02482, -174.574, 8.10888, 65.8375, 0.0375893, -102.82
0, 1320.00000, 119.389, -31.6096, 118.493, -151.5, 119.611, 88.9114, 0, 0, 8.09219, -54.6835, 8.02482, -174.574, 8.10888, 65.8375, 0.0375893, -102.82
0, 1380.00000, 119.389, -31.6096, 118.493, -151.5, 119.611, 88.9114, 0, 0, 8.09219, -54.6835, 8.02482, -174.574, 8.10888, 65.8375, 0.0375893, -102.82
0, 1440.00000, 119.389, -31.6096, 118.493, -151.5, 119.611, 88.9114, 0, 0, 8.09219, -54.6835, 8.02482, -174.574, 8.10888, 65.8375, 0.0375893, -102.82
0, 1500.00000, 119.389, -31.6096, 118.493, -151.5, 119.611, 88.9114, 0, 0, 8.09219, -54.6835, 8.02482, -174.574, 8.10888, 65.8375, 0.0375893, -102.82
0, 1560.00000, 119.389, -31.6096, 118.493, -151.5, 119.611, 88.9114, 0, 0, 8.09219, -54.6835, 8.02482, -174.574, 8.10888, 65.8375, 0.0375893, -102.82
0, 1620.00000, 119.389, -31.6096, 118.493, -151.5, 119.611, 88.9114, 0, 0, 8.09219, -54.6835, 8.02482, -174.574, 8.10888, 65.8375, 0.0375893, -102.82
0, 1680.00000, 119.389, -31.6096, 118.493, -151.5, 119.611, 88.9114, 0, 0, 8.09219, -54.6835, 8.02482, -174.574, 8.10888, 65.8375, 0.0375893, -102.82
0, 1740.00000, 119.389, -31.6096, 118.493, -151.5, 119.611, 88.9114, 0, 0, 8.09219, -54.6835, 8.02482, -174.574, 8.10888, 65.8375, 0.0375893, -102.82
0, 1800.00000, 118.549, -31.918, 117.523, -151.299, 119.666, 88.8971, 0, 0, 8.02908, -54.9917, 7.95193, -174.373, 8.11305, 65.8231, 0.0479119, -108.708
0, 1860.00000, 118.549, -31.918, 117.523, -151.299, 119.666, 88.8971, 0, 0, 8.02904, -54.9919, 7.95187, -174.373, 8.11306, 65.8232, 0.0479483, -108.704
0, 1920.00000, 118.549, -31.918, 117.523, -151.299, 119.666, 88.8971, 0, 0, 8.02904, -54.9919, 7.95187, -174.373, 8.11306, 65.8232, 0.0479484, -108.704
0, 1980.00000, 118.549, -31.918, 117.523, -151.299, 119.666, 88.8971, 0, 0, 8.02904, -54.9919, 7.95187, -174.373, 8.11306, 65.8232, 0.0479484, -108.704
0, 2040.00000, 118.549, -31.918, 117.523, -151.299, 119.666, 88.8971, 0, 0, 8.02904, -54.9919, 7.95187, -174.373, 8.11306, 65.8232, 0.0479484, -108.704
0, 2100.00000, 118.549, -31.918, 117.523, -151.299, 119.666, 88.8971, 0, 0, 8.02904, -54.9919, 7.95187, -174.373, 8.11306, 65.8232, 0.0479484, -108.704
0, 2160.00000, 118.549, -31.918, 117.523, -151.299, 119.666, 88.8971, 0, 0, 8.02904, -54.9919, 7.95187, -174.373, 8.11306, 65.8232, 0.0479484, -108.704
0, 2220.00000, 118.549, -31.918, 117.523, -151.299, 119.666, 88.8971, 0, 0, 8.02904, -54.9919, 7.95187, -174.373, 8.11306, 65.8232, 0.0479484, -108.704
0, 2280.00000, 118.549, -31.918, 117.523, -151.299, 119.666, 88.8971, 0, 0, 8.02904, -54.9919, 7.95187, -174.373, 8.11306, 65.8232, 0.0479484, -108.704
0, 2340.00000, 118.549, -31.918, 117.523, -151.299, 119.666, 88.8971, 0, 0, 8.02904, -54.9919, 7.95187, -174.373, 8.11306, 65.8232, 0.0479484, -108.704
0, 2400.00000, 118.549, -31.918, 117.523, -151.299, 119.666, 88.8971, 0, 0, 8.02904, -54.9919, 7.95187, -174.373, 8.11306, 65.8232, 0.0479484, -108.704
0, 2460.00000, 118.549, -31.918, 117.523, -151.299, 119.666, 88.8971, 0, 0, 8.02904, -54.9919, 7.95187, -174.373, 8.11306, 65.8232, 0.0479484, -108.704
0, 2520.00000, 118.549, -31.918, 117.523, -151.299, 119.666, 88.8971, 0, 0, 8.02904, -54.9919, 7.95187, -174.373, 8.11306, 65.8232, 0.0479484, -108.704
0, 2580.00000, 118.549, -31.918, 117.523, -151.299, 119.666, 88.8971, 0, 0, 8.02904, -54.9919, 7.95187, -174.373, 8.11306, 65.8232, 0.0479484, -108.704
0, 2640.00000, 118.549, -31.918, 117.523, -151.299, 119.666, 88.8971, 0, 0, 8.02904, -54.9919, 7.95187, -174.373, 8.11306, 65.8232, 0.0479484, -108.704
0, 2700.00000, 118.549, -31.918, 117.523, -151.299, 119.666, 88.8971, 0, 0, 8.02904, -54.9919, 7.95187, -174.373, 8.11306, 65.8232, 0.0479484, -108.704
0, 2760.00000, 118.668, -31.7768, 117.841, -151.275, 119.659, 88.9001, 0, 0, 8.03795, -54.8508, 7.97572, -174.349, 8.11249, 65.8262, 0.0452561, -106.235
0, 2820.00000, 118.668, -31.7768, 117.841, -151.275, 119.659, 88.9001, 0, 0, 8.03799, -54.8507, 7.97579, -174.349, 8.11248, 65.8262, 0.0451678, -106.225
0, 2880.00000, 118.668, -31.7768, 117.841, -151.275, 119.659, 88.9001, 0, 0, 8.03799, -54.8507, 7.97579, -174.349, 8.11248, 65.8262, 0.0451674, -106.225
0, 2940.00000, 118.668, -31.7768, 117.841, -151.275, 119.659, 88.9001, 0, 0, 8.03799, -54.8507, 7.97579, -174.349, 8.11248, 65.8262, 0.0451674, -106.225
0, 3000.00000, 118.668, -31.7768, 117.841, -151.275, 119.659, 88.9001, 0, 0, 8.03799, -54.8507, 7.97579, -174.349, 8.11248, 65.8262, 0.0451674, -106.225
0, 3060.00000, 118.668, -31.7768, 117.841, -151.275, 119.659, 88.9001, 0, 0, 8.03799, -54.8507, 7.97579, -174.349, 8.11248, 65.8262, 0.0451674, -106.225
0, 3120.00000, 118.668, -31.7768, 117.841, -151.275, 119.659, 88.9001, 0, 0, 8.03799, -54.8507, 7.97579, -174.349, 8.11248, 65.8262, 0.0451674, -106.225
0, 3180.00000, 118.668, -31.7768, 117.841, -151.275, 119.659, 88.9001, 0, 0, 8.03799, -54.8507, 7.97579, -174.349, 8.11248, 65.8262, 0.0451674, -106.225
0, 3240.00000, 118.668, -31.7768, 117.841, -151.275, 119.659, 88.9001, 0, 0, 8.03799, -54.8507, 7.97579, -174.349, 8.11248, 65.8262, 0.0451674, -106.225
0, 3300.00000, 118.668, -31.7768, 117.841, -151.275, 119.659, 88.9001, 0, 0, 8.03799, -54.8507, 7.97579, -174.349, 8.11248, 65.8262, 0.0451674, -106.225
0, 3360.00000, 118.668, -31.7768, 117.841, -151.275, 119.659, 88.9001, 0, 0, 8.03799, -54.8507, 7.97579, -174.349, 8.11248, 65.8262, 0.0451674, -106.225
0, 3420.00000, 118.668, -31.7768, 117.841, -151.275, 119.659, 88.9001, 0, 0, 8.03799, -54.8507, 7.97579, -174.349, 8.11248, 65.8262, 0.0451674, -106.225
0, 3480.00000, 118.668, -31.7768, 117.841, -151.275, 119.659, 88.9001, 0, 0, 8.03799, -54.8507, 7.97579, -174.349, 8.11248, 65.8262, 0.0451674, -106.225
0, 3540.00000, 118.668, -31.7768, 117.841, -151.275, 119.659, 88.9001, 0, 0, 8.03799, -54.8507, 7.97579, -174.349, 8.11248, 65.8262, 0.0451674, -106.225
1, 0.00000, 118.668, -31.7768, 117.841, -151.275, 119.659, 88.9001, 0, 0, 8.03799, -54.8507, 7.97579, -174.349, 8.11248, 65.8262, 0.0451674, -106.225
1, 60.00000, 118.762, -31.6455, 118.13, -151.244, 119.655, 88.9021, 0, 0, 8.04499, -54.7194, 7.99744, -174.319, 8.11224, 65.8281, 0.043086, -103.747
1, 120.00000, 118.762, -31.6455, 118.13, -151.244, 119.655, 88.9021, 0, 0, 8.04501, -54.7194, 7.99749, -174.318, 8.11222, 65.8281, 0.0430174, -103.72
1, 180.00000, 118.762, -31.6455, 118.13, -151.244, 119.655, 88.9021, 0, 0, 8.04501, -54.7194, 7.99749, -174.318, 8.11222, 65.8281, 0.0430171, -103.72
1, 240.00000, 118.762, -31.6455, 118.13, -151.244, 119.655, 88.9021, 0, 0, 8.04501, -54.7194, 7.99749, -174.318, 8.11222, 65.8281, 0.0430171, -103.72
1, 300.00000, 118.762, -31.6455, 118.13, -151.244, 119.655, 88.9021, 0, 0, 8.04501, -54.7194, 7.99749, -174.318, 8.11222, 65.8281, 0.0430171, -103.72
1, 360.00000, 118.762, -31.6455, 118.13, -151.244, 119.655, 88.9021, 0, 0, 8.04501, -54.7194, 7.99749, -174.318, 8.11222, 65.8281, 0.0430171, -103.72
1, 420.00000, 118.762, -31.6455, 118.13, -151.244, 119.655, 88.9021, 0, 0, 8.04501, -54.7194, 7.99749, -174.318, 8.11222, 65.8281, 0.0430171, -103.72
1, 480.00000, 118.762, -31.6455, 118.13, -151.244, 119.655, 88.9021, 0, 0, 8.04501, -54.7194, 7.99749, -174.318, 8.11222, 65.8281, 0.0430171, -103.72
1, 540.00000, 118.762, -31.6455, 118.13, -151.244, 119.655, 88.9021, 0, 0, 8.04501, -54.7194, 7.99749, -174.318, 8.11222, 65.8281, 0.0430171, -103.72
1, 600.00000, 118.762, -31.6455, 118.13, -151.244, 119.655, 88.9021, 0, 0, 8.04501, -54.7194, 7.99749, -174.318, 8.11222, 65.8281, 0.0430171, -103.72
1, 660.00000, 118.762, -31.6455, 118.13, -151.244, 119.655, 88.9021, 0, 0, 8.04501, -54.7194, 7.99749, -174.318, 8.11222, 65.8281, 0.0430171, -103.72
1, 720.00000, 118.762, -31.6455, 118.13, -151.244, 119.655, 88.9021, 0, 0, 8.04501, -54.7194, 7.99749, -174.318, 8.11222, 65.8281, 0.0430171, -103.72
1, 780.00000, 118.795, -31.6518, 118.475, -151.042, 120.2, 88.8649, 0, 0, 8.04752, -54.7257, 8.02341, -174.116, 8.15311, 65.7909, 0.0446835, -102.351
1, 840.00000, 118.795, -31.6518, 118.475, -151.042, 120.2, 88.865, 0, 0, 8.04751, -54.7257, 8.02343, -174.116, 8.15317, 65.791, 0.0447405, -102.307
1, 900.00000, 118.795, -31.6518, 118.475, -151.042, 120.2, 88.865, 0, 0, 8.04751, -54.7257, 8.02343, -174.116, 8.15317, 65.791, 0.0447407, -102.307
1, 960.00000, 118.795, -31.6518, 118.475, -151.042, 120.2, 88.865, 0, 0, 8.04751, -54.7257, 8.02343, -174.116, 8.15317, 65.791, 0.0447407, -102.307
1, 1020.00000, 118.795, -31.6518, 118.475, -151.042, 120.2, 88.865, 0, 0, 8.04751, -54.7257, 8.02343, -174.116, 8.15317, 65.791, 0.0447407, -102.307
1, 1080.00000, 118.795, -31.6518, 118.475, -151.042, 120.2, 88.865, 0, 0, 8.04751, -54.7257, 8.02343, -174.116, 8.15317, 65.791, 0.0447407, -102.307
1, 1140.00000, 118.795, -31.6518, 118.475, -151.042, 120.2, 88.865, 0, 0, 8.04751, -54.7257, 8.02343, -174.116, 8.15317, 65.791, 0.0447407, -102.307
1, 1200.00000, 118.795, -31.6518, 118.475, -151.042, 120.2, 88.865, 0, 0, 8.04751, -54.7257, 8.02343, -174.116, 8.15317, 65.791, 0.0447407, -102.307
1, 1260.00000, 118.795, -31.6518, 118.475, -151.042, 120.2, 88.865, 0, 0, 8.04751, -54.7257, 8.02343, -174.116, 8.15317, 65.791, 0.0447407, -102.307
1, 1320.00000, 118.795, -31.6518, 118.475, -151.042, 120.2, 88.865, 0, 0, 8.04751, -54.7257, 8.02343, -174.116, 8.15317, 65.791, 0.0447407, -102.307
1, 1380.00000, 118.795, -31.6518, 118.475, -151.042, 120.2, 88.865, 0, 0, 8.04751, -54.7257, 8.02343, -174.116, 8.15317, 65.791, 0.0447407, -102.307
1, 1440.00000, 118.795, -31.6518, 118.475, -151.042, 120.2, 88.865, 0, 0, 8.04751, -54.7257, 8.02343, -174.116, 8.15317, 65.791, 0.0447407, -102.307
1, 1500.00000, 118.795, -31.6518, 118.475, -151.042, 120.2, 88.865, 0, 0, 8.04751, -54.7257, 8.02343, -174.116, 8.15317, 65.791, 0.0447407, -102.307
1, 1560.00000, 118.795, -31.6518, 118.475, -151.042, 120.2, 88.865, 0, 0, 8.04751, -54.7257, 8.02343, -174.116, 8.15317, 65.791, 0.0447407, -102.307
1, 1620.00000, 118.795, -31.6518, 118.475, -151.042, 120.2, 88.865, 0, 0, 8.04751, -54.7257, 8.02343, -174.116, 8.15317, 65.791, 0.0447407, -102.307
1, 1680.00000, 118.795, -31.6518, 118.475, -151.042, 120.2, 88.865, 0, 0, 8.04751, -54.7257, 8.02343, -174.116, 8.15317, 65.791, 0.0447407, -102.307
1, 1740.00000, 118.795, -31.6518, 118.475, -151.042, 120.2, 88.865, 0, 0, 8.04751, -54.7257, 8.02343, -174.116, 8.15317, 65.791, 0.0447407, -102.307
1, 1800.00000, 118.795, -31.6518, 118.475, -151.042, 120.2, 88.865, 0, 0, 8.04751, -54.7257, 8.02343, -174.116, 8.15317, 65.791, 0.0447407, -102.307
1, 1860.00000, 118.795, -31.6518, 118.475, -151.042, 120.2, 88.865, 0, 0, 8.04751, -54.7257, 8.02343, -174.116, 8.15317, 65.791, 0.0447407, -102.307
1, 1920.00000, 118.795, -31.6518, 118.475, -151.042, 120.2, 88.865, 0, 0, 8.04751, -54.7257, 8.02343, -174.116, 8.15317, 65.791, 0.0447407, -102.307
1, 1980.00000, 118.795, -31.6518, 118.475, -151.042, 120.2, 88.865, 0, 0, 8.04751, -54.7257, 8.02343, -174.116, 8.15317, 65.791, 0.0447407, -102.307
1, 2040.00000, 118.795, -31.6518, 118.475, -151.042, 120.2, 88.865, 0, 0, 8.04751, -54.7257, 8.02343, -174.116, 8.15317, 65.791, 0.0447407, -102.307
1, 2100.00000, 118.795, -31.6518, 118.475, -151.042, 120.2, 88.865, 0, 0, 8.04751, -54.7257, 8.02343, -174.116, 8.15317, 65.791, 0.0447407, -102.307
1, 2160.00000, 118.795, -31.6518, 118.475, -151.042, 120.2, 88.865, 0, 0, 8.04751, -54.7257, 8.02343, -174.116, 8.15317, 65.791, 0.0447407, -102.307
1, 2220.00000, 119.637, -31.3421, 119.453, -151.241, 120.144, 88.8787, 0, 0, 8.11083, -54.416, 8.09694, -174.315, 8.14902, 65.8048, 0.0349516, -93.9308
1, 2280.00000, 119.637, -31.3421, 119.453, -151.241, 120.144, 88.8787, 0, 0, 8.11084, -54.416, 8.09699, -174.315, 8.14902, 65.8048, 0.0349018, -93.8721
1, 2340.00000, 119.637, -31.3421, 119.453, -151.241, 120.144, 88.8787, 0, 0, 8.11084, -54.416, 8.09699, -174.315, 8.14902, 65.8048, 0.0349017, -93.8719
1, 2400.00000, 119.637, -31.3421, 119.453, -151.241, 120.144, 88.8787, 0, 0, 8.11084, -54.416, 8.09699, -174.315, 8.14902, 65.8048, 0.0349017, -93.8719
1, 2460.00000, 119.637, -31.3421, 119.453, -151.241, 120.144, 88.8787, 0, 0, 8.11084, -54.416, 8.09699, -174.315, 8.14902, 65.8048, 0.0349017, -93.8719
1, 2520.00000, 119.637, -31.3421, 119.453, -151.241, 120.144, 88.8787, 0, 0, 8.11084, -54.416, 8.09699, -174.315, 8.14902, 65.8048, 0.0349017, -93.8719
1, 2580.00000, 119.637, -31.3421, 119.453, -151.241, 120.144, 88.8787, 0, 0, 8.11084, -54.416, 8.09699, -174.315, 8.14902, 65.8048, 0.0349017, -93.8719
1, 2640.00000, 119.637, -31.3421, 119.453, -151.241, 120.144, 88.8787, 0, 0, 8.11084, -54.416, 8.09699, -174.315, 8.14902, 65.8048, 0.0349017, -93.8719
1, 2700.00000, 119.637, -31.3421, 119.453, -151.241, 120.144, 88.8787, 0, 0, 8.11084, -54.416, 8.09699, -174.315, 8.14902, 65.8048, 0.0349017, -93.8719
1, 2760.00000, 119.637, -31.3421, 119.453, -151.241, 120.144, 88.8787, 0, 0, 8.11084, -54.416, 8.09699, -174.315, 8.14902, 65.8048, 0.0349017, -93.8719
1, 2820.00000, 119.637, -31.3421, 119.453, -151.241, 120.144, 88.8787, 0, 0, 8.11084, -54.416, 8.09699, -174.315, 8.14902, 65.8048, 0.0349017, -93.8719
1, 2880.00000, 119.637, -31.3421, 119.453, -151.241, 120.144, 88.8787, 0, 0, 8.11084, -54.416, 8.09699, -174.315, 8.14902, 65.8048, 0.0349017, -93.8719
1, 2940.00000, 119.637, -31.3421, 119.453, -151.241, 120.144, 88.8787, 0, 0, 8.11084, -54.416, 8.09699, -174.315, 8.14902, 65.8048, 0.0349017, -93.8719
1, 3000.00000, 119.637, -31.3421, 119.453, -151.241, 120.144, 88.8787, 0, 0, 8.11084, -54.416, 8.09699, -174.315, 8.14902, 65.8048, 0.0349017, -93.8719
1, 3060.00000, 119.637, -31.3421, 119.453, -151.241, 120.144, 88.8787, 0, 0, 8.11084, -54.416, 8.09699, -174.315, 8.14902, 65.8048, 0.0349017, -93.8719
1, 3120.00000, 119.637, -31.3421, 119.453, -151.241, 120.144, 88.8787, 0, 0, 8.11084, -54.416, 8.09699, -174.315, 8.14902, 65.8048, 0.0349017, -93.8719
1, 3180.00000, 119.637, -31.3421, 119.453, -151.241, 120.144, 88.8787, 0, 0, 8.11084, -54.416, 8.09699, -174.315, 8.14902, 65.8048, 0.0349017, -93.8719
1, 3240.00000, 119.637, -31.3421, 119.453, -151.241, 120.144, 88.8787, 0, 0, 8.11084, -54.416, 8.09699, -174.315, 8.14902, 65.8048, 0.0349017, -93.8719
1, 3300.00000, 119.637, -31.3421, 119.453, -151.241, 120.144, 88.8787, 0, 0, 8.11084, -54.416, 8.09699, -174.315, 8.14902, 65.8048, 0.0349017, -93.8719
1, 3360.00000, 119.637, -31.3421, 119.453, -151.241, 120.144, 88.8787, 0, 0, 8.11084, -54.416, 8.09699, -174.315, 8.14902, 65.8048, 0.0349017, -93.8719
1, 3420.00000, 119.637, -31.3421, 119.453, -151.241, 120.144, 88.8787, 0, 0, 8.11084, -54.416, 8.09699, -174.315, 8.14902, 65.8048, 0.0349017, -93.8719
1, 3480.00000, 119.637, -31.3421, 119.453, -151.241, 120.144, 88.8787, 0, 0, 8.11084, -54.416, 8.09699, -174.315, 8.14902, 65.8048, 0.0349017, -93.8719
1, 3540.00000, 119.637, -31.3421, 119.453, -151.241, 120.144, 88.8787, 0, 0, 8.11084, -54.416, 8.09699, -174.315, 8.14902, 65.8048, 0.0349017, -93.8719
2, 0.00000, 119.637, -31.3421, 119.453, -151.241, 120.144, 88.8787, 0, 0, 8.11084, -54.416, 8.09699, -174.315, 8.14902, 65.8048, 0.0349017, -93.8719
2, 60.00000, 119.637, -31.3421, 119.453, -151.241, 120.144, 88.8787, 0, 0, 8.11084, -54.416, 8.09699, -174.315, 8.14902, 65.8048, 0.0349017, -93.8719
2, 120.00000, 119.637, -31.3421, 119.453, -151.241, 120.144, 88.8787, 0, 0, 8.11084, -54.416, 8.09699, -174.315, 8.14902, 65.8048, 0.0349017, -93.8719
2, 180.00000, 119.637, -31.3421, 119.453, -151.241, 120.144, 88.8787, 0, 0, 8.11084, -54.416, 8.09699, -174.315, 8.14902, 65.8048, 0.0349017, -93.8719
2, 240.00000, 119.637, -31.3421, 119.453, -151.241, 120.144, 88.8787, 0, 0, 8.11084, -54.416, 8.09699, -174.315, 8.14902, 65.8048, 0.0349017, -93.8719
2, 300.00000, 119.637, -31.3421, 119.453, -151.241, 120.144, 88.8787, 0, 0, 8.11084, -54.416, 8.09699, -174.315, 8.14902, 65.8048, 0.0349017, -93.8719
2, 360.00000, 119.637, -31.3421, 119.453, -151.241, 120.144, 88.8787, 0, 0, 8.11084, -54.416, 8.09699, -174.315, 8.14902, 65.8048, 0.0349017, -93.8719
2, 420.00000, 119.637, -31.3421, 119.453, -151.241, 120.144, 88.8787, 0, 0, 8.11084, -54.416, 8.09699, -174.315, 8.14902, 65.8048, 0.0349017, -93.8719
2, 480.00000, 119.637, -31.3421, 119.453, -151.241, 120.144, 88.8787, 0, 0, 8.11084, -54.416, 8.09699, -174.315, 8.14902, 65.8048, 0.0349017, -93.8719
2, 540.00000, 119.637, -31.3421, 119.453, -151.241, 120.144, 88.8787, 0, 0, 8.11084, -54.416, 8.09699, -174.315, 8.14902, 65.8048, 0.0349017, -93.8719
2, 600.00000, 119.637, -31.3421, 119.453, -151.241, 120.144, 88.8787, 0, 0, 8.11084, -54.416, 8.09699, -174.315, 8.14902, 65.8048, 0.0349017, -93.8719
2, 660.00000, 119.637, -31.3421, 119.453, -151.241, 120.144, 88.8787, 0, 0, 8.11084, -54.416, 8.09699, -174.315, 8.14902, 65.8048, 0.0349017, -93.8719
