hour,t(sec),V1,VAngle1,V2,VAngle2,V3,VAngle3,V4,VAngle4,I1,IAngle1,I2,IAngle2,I3,IAngle3,I4,IAngle4
0, 60.00000, 123.613, -32.1766, 123.557, -151.577, 124.952, 88.161, 0, 0, 6.12275, -55.2503, 6.12553, -174.65, 6.05725, 65.0871, 0.122496, 62.073
0, 120.00000, 123.62, -32.1828, 123.557, -151.577, 124.968, 88.1605, 0, 0, 6.12243, -55.2565, 6.12554, -174.65, 6.05646, 65.0867, 0.123727, 61.8334
0, 180.00000, 123.626, -32.1884, 123.557, -151.577, 124.982, 88.1601, 0, 0, 6.12214, -55.2621, 6.12555, -174.651, 6.05575, 65.0863, 0.124837, 61.6224
0, 240.00000, 123.631, -32.1934, 123.557, -151.577, 124.995, 88.1597, 0, 0, 6.12187, -55.2672, 6.12556, -174.651, 6.05511, 65.0859, 0.125839, 61.4362
0, 300.00000, 123.636, -32.198, 123.556, -151.577, 125.007, 88.1594, 0, 0, 6.12164, -55.2718, 6.12556, -174.651, 6.05453, 65.0855, 0.126742, 61.2715
0, 360.00000, 123.64, -32.2021, 123.556, -151.577, 125.018, 88.1591, 0, 0, 6.12143, -55.2759, 6.12557, -174.651, 6.05401, 65.0852, 0.127557, 61.1255
0, 420.00000, 123.644, -32.2058, 123.556, -151.577, 125.028, 88.1588, 0, 0, 6.12124, -55.2796, 6.12558, -174.651, 6.05354, 65.0849, 0.128293, 60.9954
0, 480.00000, 124.148, -32.0866, 124.021, -151.457, 125.522, 88.2945, 0, 0, 5.30385, -55.1604, 5.30929, -174.531, 5.24586, 65.2206, 0.111648, 59.6288
0, 540.00000, 124.151, -32.0896, 124.021, -151.457, 125.53, 88.2943, 0, 0, 5.30372, -55.1634, 5.30929, -174.531, 5.24552, 65.2204, 0.112184, 59.5288
0, 600.00000, 124.154, -32.0923, 124.021, -151.457, 125.537, 88.2942, 0, 0, 5.3036, -55.1661, 5.3093, -174.531, 5.24521, 65.2203, 0.112668, 59.4394
0, 660.00000, 124.157, -32.0948, 124.021, -151.457, 125.544, 88.294, 0, 0, 5.30349, -55.1686, 5.3093, -174.531, 5.24493, 65.2201, 0.113104, 59.3598
0, 720.00000, 124.159, -32.097, 124.021, -151.457, 125.55, 88.2939, 0, 0, 5.30339, -55.1708, 5.3093, -174.531, 5.24468, 65.22, 0.113497, 59.2887
0, 780.00000, 124.161, -32.0989, 124.021, -151.457, 125.555, 88.2938, 0, 0, 5.30331, -55.1728, 5.30931, -174.531, 5.24446, 65.2199, 0.11385, 59.2252
0, 840.00000, 124.163, -32.1007, 124.021, -151.457, 125.56, 88.2937, 0, 0, 5.30323, -55.1746, 5.30931, -174.531, 5.24425, 65.2197, 0.114169, 59.1685
0, 900.00000, 124.165, -32.1023, 124.021, -151.457, 125.564, 88.2936, 0, 0, 5.30316, -55.1762, 5.30931, -174.531, 5.24407, 65.2197, 0.114455, 59.1178
0, 960.00000, 123.789, -32.4072, 123.247, -151.473, 125.603, 88.2841, 0, 0, 5.31925, -55.481, 5.34264, -174.547, 5.24244, 65.2102, 0.168588, 51.0194
0, 1020.00000, 123.79, -32.4085, 123.247, -151.473, 125.607, 88.284, 0, 0, 5.31919, -55.4823, 5.34264, -174.547, 5.24229, 65.2101, 0.168829, 51.0037
0, 1080.00000, 123.792, -32.4096, 123.247, -151.473, 125.61, 88.2839, 0, 0, 5.31914, -55.4835, 5.34264, -174.547, 5.24216, 65.21, 0.169046, 50.9895
0, 1140.00000, 124.055, -32.2321, 123.725, -151.479, 125.582, 88.2883, 0, 0, 5.30783, -55.306, 5.322, -174.553, 5.24331, 65.2144, 0.13439, 54.1701
0, 1200.00000, 124.056, -32.2331, 123.725, -151.479, 125.585, 88.2882, 0, 0, 5.30778, -55.3069, 5.322, -174.553, 5.24321, 65.2143, 0.134563, 54.1517
0, 1260.00000, 124.057, -32.2339, 123.725, -151.479, 125.587, 88.2882, 0, 0, 5.30775, -55.3078, 5.322, -174.553, 5.24311, 65.2143, 0.134719, 54.1352
0, 1320.00000, 124.058, -32.2347, 123.725, -151.479, 125.589, 88.2881, 0, 0, 5.30771, -55.3086, 5.322, -174.553, 5.24302, 65.2142, 0.13486, 54.1204
0, 1380.00000, 124.059, -32.2354, 123.725, -151.479, 125.591, 88.2881, 0, 0, 5.30768, -55.3093, 5.322, -174.553, 5.24294, 65.2142, 0.134986, 54.1071
0, 1440.00000, 124.059, -32.236, 123.725, -151.479, 125.593, 88.288, 0, 0, 5.30766, -55.3099, 5.32201, -174.553, 5.24287, 65.2141, 0.1351, 54.0951
0, 1500.00000, 124.06, -32.2365, 123.725, -151.479, 125.594, 88.288, 0, 0, 5.30763, -55.3104, 5.32201, -174.553, 5.24281, 65.2141, 0.135203, 54.0844
0, 1560.00000, 124.061, -32.237, 123.725, -151.479, 125.595, 88.288, 0, 0, 5.30761, -55.3109, 5.32201, -174.553, 5.24275, 65.2141, 0.135295, 54.0748
0, 1620.00000, 124.061, -32.2375, 123.725, -151.48, 125.597, 88.2879, 0, 0, 5.30759, -55.3114, 5.32201, -174.553, 5.2427, 65.214, 0.135378, 54.0661
0, 1680.00000, 124.061, -32.2379, 123.725, -151.48, 125.598, 88.2879, 0, 0, 5.30757, -55.3118, 5.32201, -174.553, 5.24265, 65.214, 0.135453, 54.0583
0, 1740.00000, 124.062, -32.2383, 123.725, -151.48, 125.599, 88.2879, 0, 0, 5.30756, -55.3122, 5.32201, -174.553, 5.24261, 65.214, 0.13552, 54.0514
0, 1800.00000, 123.742, -32.2606, 123.727, -151.479, 125.452, 88.1552, 0, 0, 5.32128, -55.3345, 5.32194, -174.553, 5.24873, 65.0812, 0.135665, 63.8522
0, 1860.00000, 123.742, -32.2609, 123.727, -151.479, 125.453, 88.1551, 0, 0, 5.32126, -55.3348, 5.32194, -174.553, 5.24869, 65.0812, 0.135715, 63.8428
0, 1920.00000, 123.743, -32.2612, 123.727, -151.479, 125.454, 88.1551, 0, 0, 5.32125, -55.3351, 5.32194, -174.553, 5.24866, 65.0812, 0.13576, 63.8343
0, 1980.00000, 123.743, -32.2614, 123.727, -151.479, 125.455, 88.1551, 0, 0, 5.32124, -55.3353, 5.32194, -174.553, 5.24864, 65.0812, 0.1358, 63.8267
0, 2040.00000, 123.743, -32.2616, 123.727, -151.479, 125.455, 88.1551, 0, 0, 5.32123, -55.3355, 5.32194, -174.553, 5.24861, 65.0812, 0.135836, 63.8198
0, 2100.00000, 123.743, -32.2618, 123.727, -151.479, 125.456, 88.1551, 0, 0, 5.32122, -55.3357, 5.32194, -174.553, 5.24859, 65.0812, 0.135869, 63.8137
0, 2160.00000, 123.743, -32.262, 123.727, -151.479, 125.456, 88.1551, 0, 0, 5.32121, -55.3359, 5.32194, -174.553, 5.24857, 65.0811, 0.135899, 63.8081
0, 2220.00000, 123.744, -32.2621, 123.727, -151.479, 125.456, 88.1551, 0, 0, 5.32121, -55.336, 5.32194, -174.553, 5.24856, 65.0811, 0.135925, 63.8031
0, 2280.00000, 123.744, -32.2623, 123.727, -151.479, 125.457, 88.155, 0, 0, 5.3212, -55.3362, 5.32194, -174.553, 5.24854, 65.0811, 0.135949, 63.7986
0, 2340.00000, 123.744, -32.2624, 123.727, -151.479, 125.457, 88.155, 0, 0, 5.3212, -55.3363, 5.32194, -174.553, 5.24853, 65.0811, 0.135971, 63.7946
0, 2400.00000, 123.744, -32.2625, 123.727, -151.479, 125.457, 88.155, 0, 0, 5.32119, -55.3364, 5.32194, -174.553, 5.24851, 65.0811, 0.13599, 63.7909
0, 2460.00000, 123.744, -32.2626, 123.727, -151.479, 125.458, 88.155, 0, 0, 5.32119, -55.3365, 5.32194, -174.553, 5.2485, 65.0811, 0.136007, 63.7877
0, 2520.00000, 123.744, -32.2627, 123.727, -151.479, 125.458, 88.155, 0, 0, 5.32118, -55.3366, 5.32194, -174.553, 5.24849, 65.0811, 0.136023, 63.7847
0, 2580.00000, 123.744, -32.2628, 123.727, -151.479, 125.458, 88.155, 0, 0, 5.32118, -55.3367, 5.32194, -174.553, 5.24848, 65.0811, 0.136037, 63.7821
0, 2640.00000, 123.744, -32.2629, 123.727, -151.479, 125.458, 88.155, 0, 0, 5.32118, -55.3368, 5.32194, -174.553, 5.24848, 65.0811, 0.13605, 63.7797
0, 2700.00000, 123.744, -32.2629, 123.727, -151.479, 125.459, 88.155, 0, 0, 5.32117, -55.3368, 5.32194, -174.553, 5.24847, 65.0811, 0.136061, 63.7775
0, 2760.00000, 124.233, -32.2606, 123.724, -151.478, 125.72, 88.3378, 0, 0, 5.30024, -55.3345, 5.32204, -174.552, 5.23755, 65.2639, 0.141423, 49.5749
0, 2820.00000, 124.233, -32.2607, 123.724, -151.478, 125.72, 88.3378, 0, 0, 5.30024, -55.3346, 5.32204, -174.552, 5.23755, 65.2639, 0.141435, 49.5738
0, 2880.00000, 124.233, -32.2607, 123.724, -151.478, 125.72, 88.3378, 0, 0, 5.30023, -55.3346, 5.32204, -174.552, 5.23754, 65.2639, 0.141444, 49.5732
0, 2940.00000, 124.233, -32.2608, 123.724, -151.478, 125.72, 88.3378, 0, 0, 5.30023, -55.3347, 5.32204, -174.552, 5.23753, 65.2639, 0.141452, 49.5727
0, 3000.00000, 124.233, -32.2608, 123.724, -151.478, 125.721, 88.3378, 0, 0, 5.30023, -55.3347, 5.32204, -174.552, 5.23753, 65.2639, 0.141459, 49.5722
0, 3060.00000, 124.233, -32.2609, 123.724, -151.478, 125.721, 88.3378, 0, 0, 5.30023, -55.3348, 5.32204, -174.552, 5.23753, 65.2638, 0.141465, 49.5718
0, 3120.00000, 124.233, -32.2609, 123.724, -151.478, 125.721, 88.3378, 0, 0, 5.30023, -55.3348, 5.32204, -174.552, 5.23752, 65.2638, 0.141471, 49.5714
0, 3180.00000, 124.233, -32.2609, 123.724, -151.478, 125.721, 88.3378, 0, 0, 5.30023, -55.3348, 5.32204, -174.552, 5.23752, 65.2638, 0.141477, 49.571
0, 3240.00000, 124.233, -32.2609, 123.724, -151.478, 125.721, 88.3378, 0, 0, 5.30023, -55.3349, 5.32204, -174.552, 5.23752, 65.2638, 0.141481, 49.5707
0, 3300.00000, 124.233, -32.261, 123.724, -151.478, 125.721, 88.3378, 0, 0, 5.30022, -55.3349, 5.32204, -174.552, 5.23751, 65.2638, 0.141486, 49.5704
0, 3360.00000, 124.233, -32.261, 123.724, -151.478, 125.721, 88.3378, 0, 0, 5.30022, -55.3349, 5.32204, -174.552, 5.23751, 65.2638, 0.14149, 49.5702
0, 3420.00000, 124.233, -32.261, 123.724, -151.478, 125.721, 88.3378, 0, 0, 5.30022, -55.3349, 5.32204, -174.552, 5.23751, 65.2638, 0.141493, 49.5699
0, 3480.00000, 124.233, -32.261, 123.724, -151.478, 125.721, 88.3378, 0, 0, 5.30022, -55.3349, 5.32204, -174.552, 5.23751, 65.2638, 0.141496, 49.5697
0, 3540.00000, 124.233, -32.261, 123.724, -151.478, 125.721, 88.3378, 0, 0, 5.30022, -55.3349, 5.32204, -174.552, 5.23751, 65.2638, 0.141499, 49.5695
1, 0.00000, 124.233, -32.261, 123.724, -151.478, 125.721, 88.3378, 0, 0, 5.30022, -55.335, 5.32204, -174.552, 5.2375, 65.2638, 0.141502, 49.5694
1, 60.00000, 124.813, -32.0056, 124.502, -151.583, 125.678, 88.3468, 0, 0, 5.27561, -55.0795, 5.28878, -174.657, 5.2393, 65.2729, 0.0803906, 47.556
1, 120.00000, 124.813, -32.0056, 124.502, -151.583, 125.678, 88.3468, 0, 0, 5.27561, -55.0795, 5.28878, -174.657, 5.2393, 65.2729, 0.0803925, 47.5558
1, 180.00000, 124.813, -32.0056, 124.502, -151.583, 125.678, 88.3468, 0, 0, 5.2756, -55.0795, 5.28878, -174.657, 5.2393, 65.2729, 0.0803944, 47.5556
1, 240.00000, 124.813, -32.0056, 124.502, -151.583, 125.678, 88.3468, 0, 0, 5.2756, -55.0795, 5.28878, -174.657, 5.2393, 65.2729, 0.080396, 47.5555
1, 300.00000, 124.813, -32.0056, 124.502, -151.583, 125.678, 88.3468, 0, 0, 5.2756, -55.0795, 5.28878, -174.657, 5.23929, 65.2729, 0.0803975, 47.5554
1, 360.00000, 124.813, -32.0056, 124.502, -151.583, 125.678, 88.3468, 0, 0, 5.2756, -55.0795, 5.28878, -174.657, 5.23929, 65.2729, 0.0803989, 47.5552
1, 420.00000, 124.813, -32.0056, 124.502, -151.583, 125.678, 88.3468, 0, 0, 5.2756, -55.0796, 5.28878, -174.657, 5.23929, 65.2729, 0.0804001, 47.5551
1, 480.00000, 124.813, -32.0056, 124.502, -151.583, 125.678, 88.3468, 0, 0, 5.2756, -55.0796, 5.28878, -174.657, 5.23929, 65.2729, 0.0804012, 47.555
1, 540.00000, 124.813, -32.0056, 124.502, -151.583, 125.678, 88.3468, 0, 0, 5.2756, -55.0796, 5.28878, -174.657, 5.23929, 65.2729, 0.0804022, 47.5549
1, 600.00000, 124.813, -32.0057, 124.502, -151.583, 125.678, 88.3468, 0, 0, 5.2756, -55.0796, 5.28878, -174.657, 5.23929, 65.2729, 0.0804031, 47.5549
1, 660.00000, 124.813, -32.0057, 124.502, -151.583, 125.678, 88.3468, 0, 0, 5.2756, -55.0796, 5.28878, -174.657, 5.23929, 65.2729, 0.0804039, 47.5548
1, 720.00000, 124.813, -32.0057, 124.502, -151.583, 125.678, 88.3468, 0, 0, 5.2756, -55.0796, 5.28878, -174.657, 5.23929, 65.2729, 0.0804046, 47.5547
1, 780.00000, 124.814, -32.0067, 124.581, -151.463, 125.977, 88.3841, 0, 0, 5.27558, -55.0807, 5.28545, -174.537, 5.22685, 65.3102, 0.0989015, 53.875
1, 840.00000, 124.814, -32.0068, 124.581, -151.463, 125.977, 88.3841, 0, 0, 5.27558, -55.0807, 5.28545, -174.537, 5.22685, 65.3102, 0.0989033, 53.8747
1, 900.00000, 124.814, -32.0068, 124.581, -151.463, 125.977, 88.3841, 0, 0, 5.27558, -55.0807, 5.28545, -174.537, 5.22685, 65.3102, 0.0989038, 53.8746
1, 960.00000, 124.814, -32.0068, 124.581, -151.463, 125.977, 88.3841, 0, 0, 5.27558, -55.0807, 5.28545, -174.537, 5.22685, 65.3102, 0.0989043, 53.8745
1, 1020.00000, 124.814, -32.0068, 124.581, -151.463, 125.977, 88.3841, 0, 0, 5.27558, -55.0807, 5.28545, -174.537, 5.22685, 65.3102, 0.0989047, 53.8745
1, 1080.00000, 124.814, -32.0068, 124.581, -151.463, 125.977, 88.3841, 0, 0, 5.27558, -55.0807, 5.28545, -174.537, 5.22685, 65.3102, 0.0989051, 53.8744
1, 1140.00000, 124.814, -32.0068, 124.581, -151.463, 125.977, 88.3841, 0, 0, 5.27558, -55.0807, 5.28545, -174.537, 5.22685, 65.3102, 0.0989054, 53.8744
1, 1200.00000, 124.814, -32.0068, 124.581, -151.463, 125.977, 88.3841, 0, 0, 5.27558, -55.0807, 5.28545, -174.537, 5.22685, 65.3102, 0.0989057, 53.8743
1, 1260.00000, 124.814, -32.0068, 124.581, -151.463, 125.977, 88.3841, 0, 0, 5.27558, -55.0807, 5.28545, -174.537, 5.22685, 65.3102, 0.098906, 53.8743
1, 1320.00000, 124.814, -32.0068, 124.581, -151.463, 125.977, 88.3841, 0, 0, 5.27558, -55.0807, 5.28545, -174.537, 5.22685, 65.3102, 0.0989063, 53.8742
1, 1380.00000, 124.814, -32.0068, 124.581, -151.463, 125.977, 88.3841, 0, 0, 5.27558, -55.0807, 5.28545, -174.537, 5.22685, 65.3102, 0.0989065, 53.8742
1, 1440.00000, 124.814, -32.0068, 124.581, -151.463, 125.977, 88.3841, 0, 0, 5.27558, -55.0807, 5.28545, -174.537, 5.22685, 65.3102, 0.0989067, 53.8742
1, 1500.00000, 124.814, -32.0068, 124.581, -151.463, 125.977, 88.3841, 0, 0, 5.27558, -55.0807, 5.28545, -174.537, 5.22685, 65.3102, 0.0989069, 53.8742
1, 1560.00000, 124.814, -32.0068, 124.581, -151.463, 125.977, 88.3841, 0, 0, 5.27558, -55.0807, 5.28545, -174.537, 5.22685, 65.3102, 0.098907, 53.8741
1, 1620.00000, 124.814, -32.0068, 124.581, -151.463, 125.977, 88.3841, 0, 0, 5.27558, -55.0807, 5.28545, -174.537, 5.22685, 65.3102, 0.0989072, 53.8741
1, 1680.00000, 124.814, -32.0068, 124.581, -151.463, 125.977, 88.3841, 0, 0, 5.27558, -55.0807, 5.28545, -174.537, 5.22685, 65.3102, 0.0989073, 53.8741
1, 1740.00000, 124.814, -32.0068, 124.581, -151.463, 125.977, 88.3841, 0, 0, 5.27558, -55.0807, 5.28545, -174.537, 5.22685, 65.3102, 0.0989074, 53.8741
1, 1800.00000, 124.814, -32.0068, 124.581, -151.463, 125.977, 88.3841, 0, 0, 5.27558, -55.0807, 5.28545, -174.537, 5.22685, 65.3102, 0.0989076, 53.8741
1, 1860.00000, 124.814, -32.0068, 124.581, -151.463, 125.977, 88.3841, 0, 0, 5.27558, -55.0807, 5.28545, -174.537, 5.22685, 65.3102, 0.0989077, 53.874
1, 1920.00000, 124.814, -32.0068, 124.581, -151.463, 125.977, 88.3841, 0, 0, 5.27558, -55.0807, 5.28545, -174.537, 5.22685, 65.3102, 0.0989077, 53.874
1, 1980.00000, 124.814, -32.0068, 124.581, -151.463, 125.977, 88.3841, 0, 0, 5.27558, -55.0807, 5.28545, -174.537, 5.22685, 65.3102, 0.0989078, 53.874
1, 2040.00000, 124.814, -32.0068, 124.581, -151.463, 125.977, 88.3841, 0, 0, 5.27558, -55.0807, 5.28545, -174.537, 5.22685, 65.3102, 0.0989079, 53.874
1, 2100.00000, 124.814, -32.0068, 124.581, -151.463, 125.977, 88.3841, 0, 0, 5.27558, -55.0807, 5.28545, -174.537, 5.22685, 65.3102, 0.098908, 53.874
1, 2160.00000, 124.814, -32.0068, 124.581, -151.463, 125.977, 88.3841, 0, 0, 5.27558, -55.0807, 5.28545, -174.537, 5.22685, 65.3102, 0.098908, 53.874
1, 2220.00000, 125.132, -31.985, 124.576, -151.464, 126.13, 88.5176, 0, 0, 5.26215, -55.0589, 5.28563, -174.538, 5.22051, 65.4437, 0.103915, 41.1524
1, 2280.00000, 125.132, -31.985, 124.576, -151.464, 126.13, 88.5176, 0, 0, 5.26215, -55.0589, 5.28563, -174.538, 5.22051, 65.4437, 0.103917, 41.1522
1, 2340.00000, 125.132, -31.985, 124.576, -151.464, 126.13, 88.5176, 0, 0, 5.26215, -55.0589, 5.28563, -174.538, 5.22051, 65.4437, 0.103917, 41.1522
1, 2400.00000, 125.132, -31.985, 124.576, -151.464, 126.13, 88.5176, 0, 0, 5.26215, -55.0589, 5.28563, -174.538, 5.22051, 65.4437, 0.103917, 41.1522
1, 2460.00000, 125.132, -31.985, 124.576, -151.464, 126.13, 88.5176, 0, 0, 5.26215, -55.0589, 5.28563, -174.538, 5.22051, 65.4437, 0.103917, 41.1522
1, 2520.00000, 125.132, -31.985, 124.576, -151.464, 126.13, 88.5176, 0, 0, 5.26215, -55.0589, 5.28563, -174.538, 5.22051, 65.4437, 0.103917, 41.1522
1, 2580.00000, 125.132, -31.985, 124.576, -151.464, 126.13, 88.5176, 0, 0, 5.26215, -55.0589, 5.28563, -174.538, 5.22051, 65.4437, 0.103917, 41.1522
1, 2640.00000, 125.132, -31.985, 124.576, -151.464, 126.13, 88.5176, 0, 0, 5.26215, -55.0589, 5.28563, -174.538, 5.22051, 65.4437, 0.103917, 41.1522
1, 2700.00000, 125.132, -31.985, 124.576, -151.464, 126.13, 88.5176, 0, 0, 5.26215, -55.0589, 5.28563, -174.538, 5.22051, 65.4437, 0.103917, 41.1522
1, 2760.00000, 125.132, -31.985, 124.576, -151.464, 126.13, 88.5176, 0, 0, 5.26215, -55.0589, 5.28563, -174.538, 5.22051, 65.4437, 0.103917, 41.1522
1, 2820.00000, 125.132, -31.985, 124.576, -151.464, 126.13, 88.5176, 0, 0, 5.26215, -55.0589, 5.28563, -174.538, 5.22051, 65.4437, 0.103917, 41.1522
1, 2880.00000, 125.132, -31.985, 124.576, -151.464, 126.13, 88.5176, 0, 0, 5.26215, -55.0589, 5.28563, -174.538, 5.22051, 65.4437, 0.103917, 41.1522
1, 2940.00000, 125.132, -31.985, 124.576, -151.464, 126.13, 88.5176, 0, 0, 5.26215, -55.0589, 5.28563, -174.538, 5.22051, 65.4437, 0.103917, 41.1522
1, 3000.00000, 125.132, -31.985, 124.576, -151.464, 126.13, 88.5176, 0, 0, 5.26215, -55.0589, 5.28563, -174.538, 5.22051, 65.4437, 0.103917, 41.1522
1, 3060.00000, 125.132, -31.985, 124.576, -151.464, 126.13, 88.5176, 0, 0, 5.26215, -55.0589, 5.28563, -174.538, 5.22051, 65.4437, 0.103917, 41.1522
1, 3120.00000, 125.132, -31.985, 124.576, -151.464, 126.13, 88.5176, 0, 0, 5.26215, -55.0589, 5.28563, -174.538, 5.22051, 65.4437, 0.103917, 41.1522
1, 3180.00000, 125.132, -31.985, 124.576, -151.464, 126.13, 88.5176, 0, 0, 5.26215, -55.0589, 5.28563, -174.538, 5.22051, 65.4437, 0.103917, 41.1522
1, 3240.00000, 125.132, -31.985, 124.576, -151.464, 126.13, 88.5176, 0, 0, 5.26215, -55.0589, 5.28563, -174.538, 5.22051, 65.4437, 0.103917, 41.1522
1, 3300.00000, 125.132, -31.985, 124.576, -151.464, 126.13, 88.5176, 0, 0, 5.26215, -55.0589, 5.28563, -174.538, 5.22051, 65.4437, 0.103917, 41.1522
1, 3360.00000, 125.132, -31.985, 124.576, -151.464, 126.13, 88.5176, 0, 0, 5.26215, -55.0589, 5.28563, -174.538, 5.22051, 65.4437, 0.103917, 41.1522
1, 3420.00000, 125.132, -31.985, 124.576, -151.464, 126.13, 88.5176, 0, 0, 5.26215, -55.0589, 5.28563, -174.538, 5.22051, 65.4437, 0.103917, 41.1522
1, 3480.00000, 125.132, -31.985, 124.576, -151.464, 126.13, 88.5176, 0, 0, 5.26215, -55.0589, 5.28563, -174.538, 5.22051, 65.4437, 0.103917, 41.1522
1, 3540.00000, 125.132, -31.985, 124.576, -151.464, 126.13, 88.5176, 0, 0, 5.26215, -55.0589, 5.28563, -174.538, 5.22051, 65.4437, 0.103917, 41.1522
2, 0.00000, 125.132, -31.985, 124.576, -151.464, 126.13, 88.5176, 0, 0, 5.26215, -55.0589, 5.28563, -174.538, 5.22051, 65.4437, 0.103917, 41.1522
2, 60.00000, 125.132, -31.985, 124.576, -151.464, 126.13, 88.5176, 0, 0, 5.26215, -55.0589, 5.28563, -174.538, 5.22051, 65.4437, 0.103917, 41.1522
2, 120.00000, 125.132, -31.985, 124.576, -151.464, 126.13, 88.5176, 0, 0, 5.26215, -55.0589, 5.28563, -174.538, 5.22051, 65.4437, 0.103917, 41.1522
2, 180.00000, 125.132, -31.985, 124.576, -151.464, 126.13, 88.5176, 0, 0, 5.26215, -55.0589, 5.28563, -174.538, 5.22051, 65.4437, 0.103917, 41.1522
2, 240.00000, 125.132, -31.985, 124.576, -151.464, 126.13, 88.5176, 0, 0, 5.26215, -55.0589, 5.28563, -174.538, 5.22051, 65.4437, 0.103917, 41.1522
2, 300.00000, 125.132, -31.985, 124.576, -151.464, 126.13, 88.5176, 0, 0, 5.26215, -55.0589, 5.28563, -174.538, 5.22051, 65.4437, 0.103917, 41.1522
2, 360.00000, 125.132, -31.985, 124.576, -151.464, 126.13, 88.5176, 0, 0, 5.26215, -55.0589, 5.28563, -174.538, 5.22051, 65.4437, 0.103917, 41.1522
2, 420.00000, 125.132, -31.985, 124.576, -151.464, 126.13, 88.5176, 0, 0, 5.26215, -55.0589, 5.28563, -174.538, 5.22051, 65.4437, 0.103917, 41.1522
2, 480.00000, 125.132, -31.985, 124.576, -151.464, 126.13, 88.5176, 0, 0, 5.26215, -55.0589, 5.28563, -174.538, 5.22051, 65.4437, 0.103917, 41.1522
2, 540.00000, 125.132, -31.985, 124.576, -151.464, 126.13, 88.5176, 0, 0, 5.26215, -55.0589, 5.28563, -174.538, 5.22051, 65.4437, 0.103917, 41.1522
2, 600.00000, 125.132, -31.985, 124.576, -151.464, 126.13, 88.5176, 0, 0, 5.26215, -55.0589, 5.28563, -174.538, 5.22051, 65.4437, 0.103917, 41.1522
2, 660.00000, 125.132, -31.985, 124.576, -151.464, 126.13, 88.5176, 0, 0, 5.26215, -55.0589, 5.28563, -174.538, 5.22051, 65.4437, 0.103917, 41.1522
2, 720.00000, 125.132, -31.985, 124.576, -151.464, 126.13, 88.5176, 0, 0, 5.26215, -55.0589, 5.28563, -174.538, 5.22051, 65.4437, 0.103917, 41.1522
2, 780.00000, 125.132, -31.985, 124.576, -151.464, 126.13, 88.5176, 0, 0, 5.26215, -55.0589, 5.28563, -174.538, 5.22051, 65.4437, 0.103917, 41.1522
