hour,t(sec),V1,VAngle1,V2,VAngle2,V3,VAngle3,V4,VAngle4,I1,IAngle1,I2,IAngle2,I3,IAngle3,I4,IAngle4
0, 60.00000, 124.32, -31.646, 126.817, -151.372, 126.021, 87.5546, 0, 0, 6.64429, -54.7199, 6.51355, -174.446, 6.5546, 64.481, 0.226327, 142.018
0, 120.00000, 124.32, -31.6459, 126.833, -151.372, 126.028, 87.5488, 0, 0, 6.64429, -54.7198, 6.51275, -174.446, 6.55426, 64.4751, 0.227624, 142.118
0, 180.00000, 124.32, -31.6458, 126.847, -151.372, 126.033, 87.5436, 0, 0, 6.6443, -54.7198, 6.51203, -174.446, 6.55396, 64.4698, 0.228791, 142.207
0, 240.00000, 124.32, -31.6458, 126.859, -151.372, 126.039, 87.5388, 0, 0, 6.6443, -54.7197, 6.51137, -174.446, 6.55369, 64.4651, 0.229841, 142.287
0, 300.00000, 124.32, -31.6457, 126.871, -151.373, 126.043, 87.5346, 0, 0, 6.6443, -54.7196, 6.51079, -174.446, 6.55345, 64.4608, 0.230789, 142.359
0, 360.00000, 124.32, -31.6457, 126.881, -151.373, 126.048, 87.5307, 0, 0, 6.6443, -54.7196, 6.51026, -174.447, 6.55324, 64.457, 0.231643, 142.423
0, 420.00000, 124.32, -31.6456, 126.89, -151.373, 126.051, 87.5273, 0, 0, 6.6443, -54.7195, 6.50978, -174.447, 6.55304, 64.4535, 0.232414, 142.481
0, 480.00000, 124.675, -31.5227, 127.298, -151.237, 126.436, 87.6436, 0, 0, 5.7641, -54.5966, 5.64539, -174.311, 5.68381, 64.5698, 0.204821, 142.464
0, 540.00000, 124.675, -31.5227, 127.306, -151.237, 126.439, 87.6408, 0, 0, 5.7641, -54.5966, 5.64504, -174.311, 5.68367, 64.567, 0.205378, 142.511
0, 600.00000, 124.675, -31.5226, 127.313, -151.237, 126.442, 87.6382, 0, 0, 5.7641, -54.5965, 5.64473, -174.311, 5.68354, 64.5644, 0.205877, 142.553
0, 660.00000, 124.675, -31.5226, 127.319, -151.237, 126.445, 87.6359, 0, 0, 5.7641, -54.5965, 5.64445, -174.311, 5.68343, 64.5621, 0.206326, 142.591
0, 720.00000, 124.675, -31.5226, 127.324, -151.237, 126.447, 87.6338, 0, 0, 5.7641, -54.5965, 5.6442, -174.311, 5.68333, 64.56, 0.206731, 142.625
0, 780.00000, 124.675, -31.5225, 127.329, -151.237, 126.449, 87.632, 0, 0, 5.7641, -54.5965, 5.64397, -174.311, 5.68324, 64.5582, 0.207095, 142.656
0, 840.00000, 124.675, -31.5225, 127.334, -151.238, 126.451, 87.6303, 0, 0, 5.7641, -54.5964, 5.64377, -174.311, 5.68316, 64.5565, 0.207422, 142.683
0, 900.00000, 124.675, -31.5225, 127.338, -151.238, 126.452, 87.6288, 0, 0, 5.7641, -54.5964, 5.64359, -174.311, 5.68309, 64.5549, 0.207717, 142.707
0, 960.00000, 124.677, -31.5235, 127.21, -151.368, 126.164, 87.6021, 0, 0, 5.76403, -54.5974, 5.64925, -174.441, 5.69607, 64.5283, 0.195566, 148.193
0, 1020.00000, 124.677, -31.5235, 127.213, -151.368, 126.166, 87.601, 0, 0, 5.76403, -54.5974, 5.64911, -174.442, 5.69601, 64.5271, 0.195804, 148.207
0, 1080.00000, 124.677, -31.5235, 127.216, -151.368, 126.167, 87.5999, 0, 0, 5.76403, -54.5974, 5.64898, -174.442, 5.69596, 64.526, 0.196019, 148.22
0, 1140.00000, 124.677, -31.5234, 127.219, -151.368, 126.168, 87.5989, 0, 0, 5.76403, -54.5974, 5.64886, -174.442, 5.69591, 64.525, 0.196213, 148.232
0, 1200.00000, 124.677, -31.5234, 127.221, -151.368, 126.169, 87.598, 0, 0, 5.76403, -54.5973, 5.64876, -174.442, 5.69587, 64.5241, 0.196388, 148.242
0, 1260.00000, 124.677, -31.5234, 127.223, -151.368, 126.17, 87.5972, 0, 0, 5.76403, -54.5973, 5.64866, -174.442, 5.69583, 64.5233, 0.196545, 148.251
0, 1320.00000, 124.677, -31.5234, 127.225, -151.368, 126.17, 87.5965, 0, 0, 5.76403, -54.5973, 5.64857, -174.442, 5.6958, 64.5226, 0.196687, 148.259
0, 1380.00000, 124.677, -31.5234, 127.227, -151.368, 126.171, 87.5959, 0, 0, 5.76403, -54.5973, 5.6485, -174.442, 5.69577, 64.522, 0.196814, 148.267
0, 1440.00000, 124.677, -31.5234, 127.229, -151.368, 126.172, 87.5953, 0, 0, 5.76403, -54.5973, 5.64843, -174.442, 5.69574, 64.5214, 0.196929, 148.274
0, 1500.00000, 124.677, -31.5234, 127.23, -151.368, 126.172, 87.5948, 0, 0, 5.76403, -54.5973, 5.64837, -174.442, 5.69571, 64.5209, 0.197032, 148.28
0, 1560.00000, 124.677, -31.5234, 127.231, -151.368, 126.173, 87.5943, 0, 0, 5.76403, -54.5973, 5.64831, -174.442, 5.69569, 64.5204, 0.197125, 148.285
0, 1620.00000, 124.677, -31.5234, 127.232, -151.368, 126.173, 87.5939, 0, 0, 5.76403, -54.5973, 5.64826, -174.442, 5.69567, 64.52, 0.197209, 148.29
0, 1680.00000, 124.677, -31.5234, 127.233, -151.368, 126.174, 87.5935, 0, 0, 5.76403, -54.5973, 5.64821, -174.442, 5.69565, 64.5196, 0.197285, 148.294
0, 1740.00000, 124.677, -31.5234, 127.234, -151.368, 126.174, 87.5932, 0, 0, 5.76403, -54.5973, 5.64817, -174.442, 5.69564, 64.5193, 0.197352, 148.298
0, 1800.00000, 124.598, -31.648, 126.929, -151.405, 126.175, 87.5963, 0, 0, 5.76766, -54.7219, 5.66175, -174.479, 5.69561, 64.5224, 0.18338, 142.567
0, 1860.00000, 124.598, -31.648, 126.93, -151.405, 126.175, 87.596, 0, 0, 5.76766, -54.7219, 5.66172, -174.479, 5.6956, 64.5221, 0.183433, 142.572
0, 1920.00000, 124.598, -31.648, 126.931, -151.405, 126.175, 87.5957, 0, 0, 5.76766, -54.7219, 5.66169, -174.479, 5.69558, 64.5218, 0.18348, 142.576
0, 1980.00000, 124.598, -31.648, 126.931, -151.405, 126.175, 87.5955, 0, 0, 5.76766, -54.7219, 5.66166, -174.479, 5.69557, 64.5216, 0.183522, 142.58
0, 2040.00000, 124.598, -31.648, 126.932, -151.405, 126.176, 87.5953, 0, 0, 5.76766, -54.7219, 5.66164, -174.479, 5.69556, 64.5214, 0.183561, 142.584
0, 2100.00000, 124.598, -31.648, 126.932, -151.405, 126.176, 87.5951, 0, 0, 5.76766, -54.7219, 5.66162, -174.479, 5.69555, 64.5212, 0.183595, 142.587
0, 2160.00000, 124.598, -31.648, 126.933, -151.405, 126.176, 87.595, 0, 0, 5.76766, -54.7219, 5.6616, -174.479, 5.69555, 64.5211, 0.183626, 142.59
0, 2220.00000, 124.598, -31.648, 126.933, -151.405, 126.176, 87.5948, 0, 0, 5.76766, -54.7219, 5.66158, -174.479, 5.69554, 64.5209, 0.183654, 142.593
0, 2280.00000, 124.598, -31.648, 126.933, -151.405, 126.176, 87.5947, 0, 0, 5.76766, -54.7219, 5.66156, -174.479, 5.69553, 64.5208, 0.183679, 142.595
0, 2340.00000, 124.598, -31.648, 126.934, -151.405, 126.176, 87.5946, 0, 0, 5.76766, -54.7219, 5.66155, -174.479, 5.69553, 64.5207, 0.183702, 142.597
0, 2400.00000, 124.598, -31.648, 126.934, -151.405, 126.176, 87.5945, 0, 0, 5.76766, -54.7219, 5.66154, -174.479, 5.69552, 64.5206, 0.183722, 142.599
0, 2460.00000, 124.598, -31.648, 126.934, -151.405, 126.177, 87.5944, 0, 0, 5.76766, -54.7219, 5.66153, -174.479, 5.69552, 64.5205, 0.18374, 142.601
0, 2520.00000, 124.598, -31.648, 126.934, -151.405, 126.177, 87.5943, 0, 0, 5.76766, -54.7219, 5.66152, -174.479, 5.69551, 64.5204, 0.183757, 142.603
0, 2580.00000, 124.598, -31.648, 126.935, -151.405, 126.177, 87.5942, 0, 0, 5.76766, -54.7219, 5.66151, -174.479, 5.69551, 64.5203, 0.183772, 142.604
0, 2640.00000, 124.598, -31.648, 126.935, -151.405, 126.177, 87.5941, 0, 0, 5.76766, -54.7219, 5.6615, -174.479, 5.69551, 64.5202, 0.183785, 142.605
0, 2700.00000, 124.598, -31.648, 126.935, -151.405, 126.177, 87.5941, 0, 0, 5.76766, -54.7219, 5.66149, -174.479, 5.6955, 64.5202, 0.183797, 142.606
0, 2760.00000, 124.892, -31.6169, 126.934, -151.404, 126.271, 87.7244, 0, 0, 5.75408, -54.6909, 5.66152, -174.478, 5.69125, 64.6505, 0.160031, 142.633
0, 2820.00000, 124.892, -31.6169, 126.934, -151.404, 126.271, 87.7244, 0, 0, 5.75408, -54.6909, 5.66151, -174.478, 5.69125, 64.6505, 0.16004, 142.634
0, 2880.00000, 124.892, -31.6169, 126.935, -151.404, 126.271, 87.7243, 0, 0, 5.75408, -54.6909, 5.66151, -174.478, 5.69125, 64.6504, 0.160049, 142.635
0, 2940.00000, 124.892, -31.6169, 126.935, -151.404, 126.271, 87.7243, 0, 0, 5.75408, -54.6909, 5.6615, -174.478, 5.69125, 64.6504, 0.160057, 142.636
0, 3000.00000, 124.892, -31.6169, 126.935, -151.404, 126.271, 87.7242, 0, 0, 5.75408, -54.6909, 5.6615, -174.478, 5.69124, 64.6503, 0.160064, 142.637
0, 3060.00000, 124.892, -31.6169, 126.935, -151.404, 126.271, 87.7242, 0, 0, 5.75408, -54.6909, 5.66149, -174.478, 5.69124, 64.6503, 0.160071, 142.638
0, 3120.00000, 124.892, -31.6169, 126.935, -151.404, 126.271, 87.7242, 0, 0, 5.75408, -54.6909, 5.66149, -174.478, 5.69124, 64.6503, 0.160076, 142.638
0, 3180.00000, 124.892, -31.6169, 126.935, -151.404, 126.271, 87.7242, 0, 0, 5.75408, -54.6909, 5.66149, -174.478, 5.69124, 64.6502, 0.160081, 142.639
0, 3240.00000, 124.892, -31.6169, 126.935, -151.404, 126.271, 87.7241, 0, 0, 5.75408, -54.6909, 5.66148, -174.478, 5.69124, 64.6502, 0.160086, 142.639
0, 3300.00000, 124.892, -31.6169, 126.935, -151.404, 126.271, 87.7241, 0, 0, 5.75408, -54.6909, 5.66148, -174.478, 5.69124, 64.6502, 0.16009, 142.64
0, 3360.00000, 124.892, -31.6169, 126.935, -151.404, 126.271, 87.7241, 0, 0, 5.75408, -54.6909, 5.66148, -174.478, 5.69124, 64.6502, 0.160094, 142.64
0, 3420.00000, 124.892, -31.6169, 126.935, -151.404, 126.271, 87.7241, 0, 0, 5.75408, -54.6909, 5.66148, -174.478, 5.69124, 64.6501, 0.160098, 142.64
0, 3480.00000, 124.892, -31.6169, 126.935, -151.404, 126.271, 87.7241, 0, 0, 5.75408, -54.6909, 5.66148, -174.478, 5.69123, 64.6501, 0.160101, 142.641
0, 3540.00000, 124.892, -31.6169, 126.935, -151.404, 126.272, 87.724, 0, 0, 5.75408, -54.6909, 5.66147, -174.478, 5.69123, 64.6501, 0.160103, 142.641
1, 0.00000, 124.892, -31.6169, 126.935, -151.404, 126.272, 87.724, 0, 0, 5.75408, -54.6909, 5.66147, -174.478, 5.69123, 64.6501, 0.160106, 142.641
1, 60.00000, 125.183, -31.5846, 126.935, -151.403, 126.361, 87.8518, 0, 0, 5.74071, -54.6585, 5.66148, -174.477, 5.68722, 64.7779, 0.136801, 142.815
1, 120.00000, 125.183, -31.5846, 126.935, -151.403, 126.361, 87.8518, 0, 0, 5.74071, -54.6585, 5.66148, -174.477, 5.68722, 64.7779, 0.136803, 142.815
1, 180.00000, 125.183, -31.5846, 126.935, -151.403, 126.361, 87.8518, 0, 0, 5.74071, -54.6585, 5.66148, -174.477, 5.68722, 64.7779, 0.136805, 142.815
1, 240.00000, 125.183, -31.5846, 126.935, -151.403, 126.361, 87.8518, 0, 0, 5.74071, -54.6585, 5.66148, -174.477, 5.68722, 64.7779, 0.136807, 142.815
1, 300.00000, 125.183, -31.5846, 126.935, -151.403, 126.361, 87.8518, 0, 0, 5.74071, -54.6585, 5.66148, -174.477, 5.68722, 64.7779, 0.136808, 142.816
1, 360.00000, 125.183, -31.5846, 126.935, -151.403, 126.361, 87.8518, 0, 0, 5.74071, -54.6585, 5.66148, -174.477, 5.68722, 64.7779, 0.13681, 142.816
1, 420.00000, 125.183, -31.5846, 126.935, -151.403, 126.361, 87.8518, 0, 0, 5.74071, -54.6585, 5.66148, -174.477, 5.68722, 64.7779, 0.136811, 142.816
1, 480.00000, 125.183, -31.5846, 126.935, -151.403, 126.361, 87.8518, 0, 0, 5.74071, -54.6585, 5.66147, -174.477, 5.68722, 64.7779, 0.136812, 142.816
1, 540.00000, 125.183, -31.5846, 126.935, -151.403, 126.361, 87.8518, 0, 0, 5.74071, -54.6585, 5.66147, -174.477, 5.68722, 64.7779, 0.136813, 142.816
1, 600.00000, 125.183, -31.5846, 126.935, -151.403, 126.361, 87.8518, 0, 0, 5.74071, -54.6585, 5.66147, -174.477, 5.68722, 64.7779, 0.136814, 142.816
1, 660.00000, 125.183, -31.5846, 126.935, -151.403, 126.361, 87.8518, 0, 0, 5.74071, -54.6585, 5.66147, -174.477, 5.68722, 64.7779, 0.136814, 142.816
1, 720.00000, 125.183, -31.5846, 126.935, -151.403, 126.361, 87.8518, 0, 0, 5.74071, -54.6585, 5.66147, -174.477, 5.68722, 64.7778, 0.136815, 142.816
1, 780.00000, 125.453, -31.5552, 126.935, -151.4, 126.448, 87.9712, 0, 0, 5.72837, -54.6291, 5.66147, -174.474, 5.6833, 64.8973, 0.115338, 142.825
1, 840.00000, 125.453, -31.5552, 126.935, -151.4, 126.448, 87.9712, 0, 0, 5.72837, -54.6291, 5.66147, -174.474, 5.6833, 64.8973, 0.115338, 142.825
1, 900.00000, 125.453, -31.5552, 126.935, -151.4, 126.448, 87.9712, 0, 0, 5.72837, -54.6291, 5.66147, -174.474, 5.6833, 64.8973, 0.115339, 142.825
1, 960.00000, 125.453, -31.5552, 126.935, -151.4, 126.448, 87.9712, 0, 0, 5.72837, -54.6291, 5.66147, -174.474, 5.6833, 64.8973, 0.115339, 142.825
1, 1020.00000, 125.453, -31.5552, 126.935, -151.4, 126.448, 87.9712, 0, 0, 5.72837, -54.6291, 5.66147, -174.474, 5.6833, 64.8973, 0.11534, 142.825
1, 1080.00000, 125.453, -31.5552, 126.935, -151.4, 126.448, 87.9712, 0, 0, 5.72837, -54.6291, 5.66146, -174.474, 5.6833, 64.8973, 0.11534, 142.825
1, 1140.00000, 125.453, -31.5552, 126.935, -151.4, 126.448, 87.9712, 0, 0, 5.72837, -54.6291, 5.66146, -174.474, 5.6833, 64.8973, 0.115341, 142.825
1, 1200.00000, 125.453, -31.5552, 126.935, -151.4, 126.448, 87.9712, 0, 0, 5.72837, -54.6291, 5.66146, -174.474, 5.6833, 64.8973, 0.115341, 142.825
1, 1260.00000, 125.453, -31.5552, 126.935, -151.4, 126.448, 87.9712, 0, 0, 5.72837, -54.6291, 5.66146, -174.474, 5.6833, 64.8973, 0.115341, 142.825
1, 1320.00000, 125.453, -31.5552, 126.935, -151.4, 126.448, 87.9712, 0, 0, 5.72837, -54.6291, 5.66146, -174.474, 5.6833, 64.8973, 0.115341, 142.825
1, 1380.00000, 125.453, -31.5552, 126.936, -151.4, 126.448, 87.9712, 0, 0, 5.72837, -54.6291, 5.66146, -174.474, 5.6833, 64.8973, 0.115342, 142.825
1, 1440.00000, 125.453, -31.5552, 126.936, -151.4, 126.448, 87.9712, 0, 0, 5.72837, -54.6291, 5.66146, -174.474, 5.6833, 64.8973, 0.115342, 142.825
1, 1500.00000, 125.453, -31.5552, 126.936, -151.4, 126.448, 87.9712, 0, 0, 5.72837, -54.6291, 5.66146, -174.474, 5.6833, 64.8973, 0.115342, 142.825
1, 1560.00000, 125.453, -31.5552, 126.936, -151.4, 126.448, 87.9712, 0, 0, 5.72837, -54.6291, 5.66146, -174.474, 5.6833, 64.8973, 0.115342, 142.825
1, 1620.00000, 125.453, -31.5552, 126.936, -151.4, 126.448, 87.9712, 0, 0, 5.72837, -54.6291, 5.66146, -174.474, 5.6833, 64.8972, 0.115342, 142.825
1, 1680.00000, 125.453, -31.5552, 126.936, -151.4, 126.448, 87.9712, 0, 0, 5.72837, -54.6291, 5.66146, -174.474, 5.6833, 64.8972, 0.115342, 142.825
1, 1740.00000, 125.453, -31.5552, 126.936, -151.4, 126.448, 87.9712, 0, 0, 5.72837, -54.6291, 5.66146, -174.474, 5.6833, 64.8972, 0.115343, 142.825
1, 1800.00000, 125.453, -31.5552, 126.936, -151.4, 126.448, 87.9712, 0, 0, 5.72837, -54.6291, 5.66146, -174.474, 5.6833, 64.8972, 0.115343, 142.826
1, 1860.00000, 125.453, -31.5552, 126.936, -151.4, 126.448, 87.9712, 0, 0, 5.72837, -54.6291, 5.66146, -174.474, 5.6833, 64.8972, 0.115343, 142.826
1, 1920.00000, 125.453, -31.5552, 126.936, -151.4, 126.448, 87.9712, 0, 0, 5.72837, -54.6291, 5.66146, -174.474, 5.6833, 64.8972, 0.115343, 142.826
1, 1980.00000, 125.453, -31.5552, 126.936, -151.4, 126.448, 87.9712, 0, 0, 5.72837, -54.6291, 5.66146, -174.474, 5.6833, 64.8972, 0.115343, 142.826
1, 2040.00000, 125.453, -31.5552, 126.936, -151.4, 126.448, 87.9712, 0, 0, 5.72837, -54.6291, 5.66146, -174.474, 5.6833, 64.8972, 0.115343, 142.826
1, 2100.00000, 125.453, -31.5552, 126.936, -151.4, 126.448, 87.9712, 0, 0, 5.72837, -54.6291, 5.66146, -174.474, 5.6833, 64.8972, 0.115343, 142.826
1, 2160.00000, 125.453, -31.5552, 126.936, -151.4, 126.448, 87.9712, 0, 0, 5.72837, -54.6291, 5.66146, -174.474, 5.6833, 64.8972, 0.115343, 142.826
1, 2220.00000, 125.534, -31.4301, 127.241, -151.363, 126.446, 87.968, 0, 0, 5.72465, -54.5041, 5.64786, -174.437, 5.68339, 64.8941, 0.12979, 151.579
1, 2280.00000, 125.534, -31.4301, 127.241, -151.363, 126.446, 87.968, 0, 0, 5.72465, -54.5041, 5.64786, -174.437, 5.68339, 64.8941, 0.129791, 151.579
1, 2340.00000, 125.534, -31.4301, 127.241, -151.363, 126.446, 87.968, 0, 0, 5.72465, -54.5041, 5.64786, -174.437, 5.68339, 64.8941, 0.129791, 151.579
1, 2400.00000, 125.534, -31.4301, 127.241, -151.363, 126.446, 87.968, 0, 0, 5.72465, -54.5041, 5.64786, -174.437, 5.68339, 64.8941, 0.129791, 151.579
1, 2460.00000, 125.534, -31.4301, 127.241, -151.363, 126.446, 87.968, 0, 0, 5.72465, -54.5041, 5.64786, -174.437, 5.68339, 64.8941, 0.129791, 151.579
1, 2520.00000, 125.534, -31.4301, 127.241, -151.363, 126.446, 87.968, 0, 0, 5.72465, -54.5041, 5.64786, -174.437, 5.68339, 64.8941, 0.129791, 151.579
1, 2580.00000, 125.534, -31.4301, 127.241, -151.363, 126.446, 87.968, 0, 0, 5.72465, -54.5041, 5.64786, -174.437, 5.68339, 64.8941, 0.129791, 151.579
1, 2640.00000, 125.534, -31.4301, 127.241, -151.363, 126.446, 87.968, 0, 0, 5.72465, -54.5041, 5.64786, -174.437, 5.68339, 64.8941, 0.129791, 151.579
1, 2700.00000, 125.534, -31.4301, 127.241, -151.363, 126.446, 87.968, 0, 0, 5.72465, -54.5041, 5.64786, -174.437, 5.68339, 64.8941, 0.129791, 151.579
1, 2760.00000, 125.534, -31.4301, 127.241, -151.363, 126.446, 87.968, 0, 0, 5.72465, -54.5041, 5.64786, -174.437, 5.68339, 64.8941, 0.129791, 151.579
1, 2820.00000, 125.534, -31.4301, 127.241, -151.363, 126.446, 87.968, 0, 0, 5.72465, -54.5041, 5.64786, -174.437, 5.68339, 64.8941, 0.129791, 151.579
1, 2880.00000, 125.534, -31.4301, 127.241, -151.363, 126.446, 87.968, 0, 0, 5.72465, -54.5041, 5.64786, -174.437, 5.68339, 64.8941, 0.129791, 151.579
1, 2940.00000, 125.534, -31.4301, 127.241, -151.363, 126.446, 87.968, 0, 0, 5.72465, -54.5041, 5.64786, -174.437, 5.68339, 64.8941, 0.129791, 151.579
1, 3000.00000, 125.534, -31.4301, 127.241, -151.363, 126.446, 87.968, 0, 0, 5.72465, -54.5041, 5.64786, -174.437, 5.68339, 64.8941, 0.129791, 151.579
1, 3060.00000, 125.534, -31.4301, 127.241, -151.363, 126.446, 87.968, 0, 0, 5.72465, -54.5041, 5.64786, -174.437, 5.68339, 64.8941, 0.129791, 151.579
1, 3120.00000, 125.534, -31.4301, 127.241, -151.363, 126.446, 87.968, 0, 0, 5.72465, -54.5041, 5.64786, -174.437, 5.68339, 64.8941, 0.129791, 151.579
1, 3180.00000, 125.534, -31.4301, 127.241, -151.363, 126.446, 87.968, 0, 0, 5.72465, -54.5041, 5.64786, -174.437, 5.68339, 64.8941, 0.129791, 151.579
1, 3240.00000, 125.534, -31.4301, 127.241, -151.363, 126.446, 87.968, 0, 0, 5.72465, -54.5041, 5.64786, -174.437, 5.68339, 64.8941, 0.129791, 151.579
1, 3300.00000, 125.534, -31.4301, 127.241, -151.363, 126.446, 87.968, 0, 0, 5.72465, -54.5041, 5.64786, -174.437, 5.68339, 64.8941, 0.129791, 151.579
1, 3360.00000, 125.534, -31.4301, 127.241, -151.363, 126.446, 87.968, 0, 0, 5.72465, -54.5041, 5.64786, -174.437, 5.68339, 64.8941, 0.129791, 151.579
1, 3420.00000, 125.534, -31.4301, 127.241, -151.363, 126.446, 87.968, 0, 0, 5.72465, -54.5041, 5.64786, -174.437, 5.68339, 64.8941, 0.129791, 151.579
1, 3480.00000, 125.534, -31.4301, 127.241, -151.363, 126.446, 87.968, 0, 0, 5.72465, -54.5041, 5.64786, -174.437, 5.68339, 64.8941, 0.129791, 151.579
1, 3540.00000, 125.534, -31.4301, 127.241, -151.363, 126.446, 87.968, 0, 0, 5.72465, -54.5041, 5.64786, -174.437, 5.68339, 64.8941, 0.129791, 151.579
2, 0.00000, 125.534, -31.4301, 127.241, -151.363, 126.446, 87.968, 0, 0, 5.72465, -54.5041, 5.64786, -174.437, 5.68339, 64.8941, 0.129791, 151.579
2, 60.00000, 125.534, -31.4301, 127.241, -151.363, 126.446, 87.968, 0, 0, 5.72465, -54.5041, 5.64786, -174.437, 5.68339, 64.8941, 0.129791, 151.579
2, 120.00000, 125.534, -31.4301, 127.241, -151.363, 126.446, 87.968, 0, 0, 5.72465, -54.5041, 5.64786, -174.437, 5.68339, 64.8941, 0.129791, 151.579
2, 180.00000, 125.534, -31.4301, 127.241, -151.363, 126.446, 87.968, 0, 0, 5.72465, -54.5041, 5.64786, -174.437, 5.68339, 64.8941, 0.129791, 151.579
2, 240.00000, 125.534, -31.4301, 127.241, -151.363, 126.446, 87.968, 0, 0, 5.72465, -54.5041, 5.64786, -174.437, 5.68339, 64.8941, 0.129791, 151.579
2, 300.00000, 125.534, -31.4301, 127.241, -151.363, 126.446, 87.968, 0, 0, 5.72465, -54.5041, 5.64786, -174.437, 5.68339, 64.8941, 0.129791, 151.579
2, 360.00000, 125.534, -31.4301, 127.241, -151.363, 126.446, 87.968, 0, 0, 5.72465, -54.5041, 5.64786, -174.437, 5.68339, 64.8941, 0.129791, 151.579
2, 420.00000, 125.534, -31.4301, 127.241, -151.363, 126.446, 87.968, 0, 0, 5.72465, -54.5041, 5.64786, -174.437, 5.68339, 64.8941, 0.129791, 151.579
2, 480.00000, 125.534, -31.4301, 127.241, -151.363, 126.446, 87.968, 0, 0, 5.72465, -54.5041, 5.64786, -174.437, 5.68339, 64.8941, 0.129791, 151.579
2, 540.00000, 125.534, -31.4301, 127.241, -151.363, 126.446, 87.968, 0, 0, 5.72465, -54.5041, 5.64786, -174.437, 5.68339, 64.8941, 0.129791, 151.579
2, 600.00000, 125.534, -31.4301, 127.241, -151.363, 126.446, 87.968, 0, 0, 5.72465, -54.5041, 5.64786, -174.437, 5.68339, 64.8941, 0.129791, 151.579
2, 660.00000, 125.534, -31.4301, 127.241, -151.363, 126.446, 87.968, 0, 0, 5.72465, -54.5041, 5.64786, -174.437, 5.68339, 64.8941, 0.129791, 151.579
2, 720.00000, 125.534, -31.4301, 127.241, -151.363, 126.446, 87.968, 0, 0, 5.72465, -54.5041, 5.64786, -174.437, 5.68339, 64.8941, 0.129791, 151.579
2, 780.00000, 125.534, -31.4301, 127.241, -151.363, 126.446, 87.968, 0, 0, 5.72465, -54.5041, 5.64786, -174.437, 5.68339, 64.8941, 0.129791, 151.579
