hour,t(sec),V1,VAngle1,V2,VAngle2,V3,VAngle3,V4,VAngle4,I1,IAngle1,I2,IAngle2,I3,IAngle3,I4,IAngle4
0, 60.00000, 122.355, -31.3479, 122.531, -151.301, 122.942, 88.6307, 0, 0, 8.94256, -54.4216, 8.92976, -174.375, 8.89979, 65.557, 0.0463486, 88.5135
0, 120.00000, 122.355, -31.3479, 122.531, -151.301, 122.942, 88.6306, 0, 0, 8.94261, -54.4218, 8.92982, -174.375, 8.89991, 65.5567, 0.0463106, 88.5428
0, 180.00000, 122.355, -31.3479, 122.531, -151.301, 122.942, 88.6306, 0, 0, 8.94261, -54.4218, 8.92982, -174.375, 8.89991, 65.5567, 0.0463104, 88.543
0, 240.00000, 122.355, -31.3479, 122.531, -151.301, 122.942, 88.6306, 0, 0, 8.94261, -54.4218, 8.92982, -174.375, 8.89991, 65.5567, 0.0463104, 88.543
0, 300.00000, 122.355, -31.3479, 122.531, -151.301, 122.942, 88.6306, 0, 0, 8.94261, -54.4218, 8.92982, -174.375, 8.89991, 65.5567, 0.0463104, 88.543
0, 360.00000, 122.355, -31.3479, 122.531, -151.301, 122.942, 88.6306, 0, 0, 8.94261, -54.4218, 8.92982, -174.375, 8.89991, 65.5567, 0.0463104, 88.543
0, 420.00000, 122.355, -31.3479, 122.531, -151.301, 122.942, 88.6306, 0, 0, 8.94261, -54.4218, 8.92982, -174.375, 8.89991, 65.5567, 0.0463104, 88.543
0, 480.00000, 123.052, -31.2212, 123.195, -151.177, 123.595, 88.7711, 0, 0, 8.03454, -54.2956, 8.0252, -174.251, 7.99935, 65.6966, 0.0379068, 84.5739
0, 540.00000, 123.052, -31.2212, 123.195, -151.177, 123.595, 88.7712, 0, 0, 8.03445, -54.2951, 8.02509, -174.251, 7.99912, 65.6973, 0.0379821, 84.4934
0, 600.00000, 123.052, -31.2212, 123.195, -151.177, 123.595, 88.7712, 0, 0, 8.03445, -54.2951, 8.02509, -174.251, 7.99911, 65.6973, 0.0379838, 84.4913
0, 660.00000, 123.052, -31.2212, 123.195, -151.177, 123.595, 88.7712, 0, 0, 8.03445, -54.2951, 8.02509, -174.251, 7.99911, 65.6973, 0.0379838, 84.4913
0, 720.00000, 123.052, -31.2212, 123.195, -151.177, 123.595, 88.7712, 0, 0, 8.03445, -54.2951, 8.02509, -174.251, 7.99911, 65.6973, 0.0379838, 84.4913
0, 780.00000, 123.052, -31.2212, 123.195, -151.177, 123.595, 88.7712, 0, 0, 8.03445, -54.2951, 8.02509, -174.251, 7.99911, 65.6973, 0.0379838, 84.4913
0, 840.00000, 123.052, -31.2212, 123.195, -151.177, 123.595, 88.7712, 0, 0, 8.03445, -54.2951, 8.02509, -174.251, 7.99911, 65.6973, 0.0379838, 84.4913
0, 900.00000, 123.052, -31.2212, 123.195, -151.177, 123.595, 88.7712, 0, 0, 8.03445, -54.2951, 8.02509, -174.251, 7.99911, 65.6973, 0.0379838, 84.4913
0, 960.00000, 123.052, -31.2212, 123.195, -151.177, 123.595, 88.7712, 0, 0, 8.03445, -54.2951, 8.02509, -174.251, 7.99911, 65.6973, 0.0379838, 84.4913
0, 1020.00000, 123.052, -31.2212, 123.195, -151.177, 123.595, 88.7712, 0, 0, 8.03445, -54.2951, 8.02509, -174.251, 7.99911, 65.6973, 0.0379838, 84.4913
0, 1080.00000, 123.052, -31.2212, 123.195, -151.177, 123.595, 88.7712, 0, 0, 8.03445, -54.2951, 8.02509, -174.251, 7.99911, 65.6973, 0.0379838, 84.4913
0, 1140.00000, 123.052, -31.2212, 123.195, -151.177, 123.595, 88.7712, 0, 0, 8.03445, -54.2951, 8.02509, -174.251, 7.99911, 65.6973, 0.0379838, 84.4913
0, 1200.00000, 123.052, -31.2212, 123.195, -151.177, 123.595, 88.7712, 0, 0, 8.03445, -54.2951, 8.02509, -174.251, 7.99911, 65.6973, 0.0379838, 84.4913
0, 1260.00000, 123.052, -31.2212, 123.195, -151.177, 123.595, 88.7712, 0, 0, 8.03445, -54.2951, 8.02509, -174.251, 7.99911, 65.6973, 0.0379838, 84.4913
0, 1320.00000, 123.052, -31.2212, 123.195, -151.177, 123.595, 88.7712, 0, 0, 8.03445, -54.2951, 8.02509, -174.251, 7.99911, 65.6973, 0.0379838, 84.4913
0, 1380.00000, 123.052, -31.2212, 123.195, -151.177, 123.595, 88.7712, 0, 0, 8.03445, -54.2951, 8.02509, -174.251, 7.99911, 65.6973, 0.0379838, 84.4913
0, 1440.00000, 123.052, -31.2212, 123.195, -151.177, 123.595, 88.7712, 0, 0, 8.03445, -54.2951, 8.02509, -174.251, 7.99911, 65.6973, 0.0379838, 84.4913
0, 1500.00000, 123.052, -31.2212, 123.195, -151.177, 123.595, 88.7712, 0, 0, 8.03445, -54.2951, 8.02509, -174.251, 7.99911, 65.6973, 0.0379838, 84.4913
0, 1560.00000, 123.052, -31.2212, 123.195, -151.177, 123.595, 88.7712, 0, 0, 8.03445, -54.2951, 8.02509, -174.251, 7.99911, 65.6973, 0.0379838, 84.4913
0, 1620.00000, 123.052, -31.2212, 123.195, -151.177, 123.595, 88.7712, 0, 0, 8.03445, -54.2951, 8.02509, -174.251, 7.99911, 65.6973, 0.0379838, 84.4913
0, 1680.00000, 123.052, -31.2212, 123.195, -151.177, 123.595, 88.7712, 0, 0, 8.03445, -54.2951, 8.02509, -174.251, 7.99911, 65.6973, 0.0379838, 84.4913
0, 1740.00000, 123.052, -31.2212, 123.195, -151.177, 123.595, 88.7712, 0, 0, 8.03445, -54.2951, 8.02509, -174.251, 7.99911, 65.6973, 0.0379838, 84.4913
0, 1800.00000, 123.052, -31.2212, 123.195, -151.177, 123.595, 88.7712, 0, 0, 8.03445, -54.2951, 8.02509, -174.251, 7.99911, 65.6973, 0.0379838, 84.4913
0, 1860.00000, 123.052, -31.2212, 123.195, -151.177, 123.595, 88.7712, 0, 0, 8.03445, -54.2951, 8.02509, -174.251, 7.99911, 65.6973, 0.0379838, 84.4913
0, 1920.00000, 123.052, -31.2212, 123.195, -151.177, 123.595, 88.7712, 0, 0, 8.03445, -54.2951, 8.02509, -174.251, 7.99911, 65.6973, 0.0379838, 84.4913
0, 1980.00000, 123.052, -31.2212, 123.195, -151.177, 123.595, 88.7712, 0, 0, 8.03445, -54.2951, 8.02509, -174.251, 7.99911, 65.6973, 0.0379838, 84.4913
0, 2040.00000, 123.052, -31.2212, 123.195, -151.177, 123.595, 88.7712, 0, 0, 8.03445, -54.2951, 8.02509, -174.251, 7.99911, 65.6973, 0.0379838, 84.4913
0, 2100.00000, 123.052, -31.2212, 123.195, -151.177, 123.595, 88.7712, 0, 0, 8.03445, -54.2951, 8.02509, -174.251, 7.99911, 65.6973, 0.0379838, 84.4913
0, 2160.00000, 123.052, -31.2212, 123.195, -151.177, 123.595, 88.7712, 0, 0, 8.03445, -54.2951, 8.02509, -174.251, 7.99911, 65.6973, 0.0379838, 84.4913
0, 2220.00000, 123.052, -31.2212, 123.195, -151.177, 123.595, 88.7712, 0, 0, 8.03445, -54.2951, 8.02509, -174.251, 7.99911, 65.6973, 0.0379838, 84.4913
0, 2280.00000, 123.052, -31.2212, 123.195, -151.177, 123.595, 88.7712, 0, 0, 8.03445, -54.2951, 8.02509, -174.251, 7.99911, 65.6973, 0.0379838, 84.4913
0, 2340.00000, 123.052, -31.2212, 123.195, -151.177, 123.595, 88.7712, 0, 0, 8.03445, -54.2951, 8.02509, -174.251, 7.99911, 65.6973, 0.0379838, 84.4913
0, 2400.00000, 123.052, -31.2212, 123.195, -151.177, 123.595, 88.7712, 0, 0, 8.03445, -54.2951, 8.02509, -174.251, 7.99911, 65.6973, 0.0379838, 84.4913
0, 2460.00000, 123.052, -31.2212, 123.195, -151.177, 123.595, 88.7712, 0, 0, 8.03445, -54.2951, 8.02509, -174.251, 7.99911, 65.6973, 0.0379838, 84.4913
0, 2520.00000, 123.052, -31.2212, 123.195, -151.177, 123.595, 88.7712, 0, 0, 8.03445, -54.2951, 8.02509, -174.251, 7.99911, 65.6973, 0.0379838, 84.4913
0, 2580.00000, 123.052, -31.2212, 123.195, -151.177, 123.595, 88.7712, 0, 0, 8.03445, -54.2951, 8.02509, -174.251, 7.99911, 65.6973, 0.0379838, 84.4913
0, 2640.00000, 123.052, -31.2212, 123.195, -151.177, 123.595, 88.7712, 0, 0, 8.03445, -54.2951, 8.02509, -174.251, 7.99911, 65.6973, 0.0379838, 84.4913
0, 2700.00000, 123.052, -31.2212, 123.195, -151.177, 123.595, 88.7712, 0, 0, 8.03445, -54.2951, 8.02509, -174.251, 7.99911, 65.6973, 0.0379838, 84.4913
0, 2760.00000, 123.052, -31.2212, 123.195, -151.177, 123.595, 88.7712, 0, 0, 8.03445, -54.2951, 8.02509, -174.251, 7.99911, 65.6973, 0.0379838, 84.4913
0, 2820.00000, 123.052, -31.2212, 123.195, -151.177, 123.595, 88.7712, 0, 0, 8.03445, -54.2951, 8.02509, -174.251, 7.99911, 65.6973, 0.0379838, 84.4913
0, 2880.00000, 123.052, -31.2212, 123.195, -151.177, 123.595, 88.7712, 0, 0, 8.03445, -54.2951, 8.02509, -174.251, 7.99911, 65.6973, 0.0379838, 84.4913
0, 2940.00000, 123.052, -31.2212, 123.195, -151.177, 123.595, 88.7712, 0, 0, 8.03445, -54.2951, 8.02509, -174.251, 7.99911, 65.6973, 0.0379838, 84.4913
0, 3000.00000, 123.052, -31.2212, 123.195, -151.177, 123.595, 88.7712, 0, 0, 8.03445, -54.2951, 8.02509, -174.251, 7.99911, 65.6973, 0.0379838, 84.4913
0, 3060.00000, 123.052, -31.2212, 123.195, -151.177, 123.595, 88.7712, 0, 0, 8.03445, -54.2951, 8.02509, -174.251, 7.99911, 65.6973, 0.0379838, 84.4913
0, 3120.00000, 123.052, -31.2212, 123.195, -151.177, 123.595, 88.7712, 0, 0, 8.03445, -54.2951, 8.02509, -174.251, 7.99911, 65.6973, 0.0379838, 84.4913
0, 3180.00000, 123.052, -31.2212, 123.195, -151.177, 123.595, 88.7712, 0, 0, 8.03445, -54.2951, 8.02509, -174.251, 7.99911, 65.6973, 0.0379838, 84.4913
0, 3240.00000, 123.052, -31.2212, 123.195, -151.177, 123.595, 88.7712, 0, 0, 8.03445, -54.2951, 8.02509, -174.251, 7.99911, 65.6973, 0.0379838, 84.4913
0, 3300.00000, 123.052, -31.2212, 123.195, -151.177, 123.595, 88.7712, 0, 0, 8.03445, -54.2951, 8.02509, -174.251, 7.99911, 65.6973, 0.0379838, 84.4913
0, 3360.00000, 123.052, -31.2212, 123.195, -151.177, 123.595, 88.7712, 0, 0, 8.03445, -54.2951, 8.02509, -174.251, 7.99911, 65.6973, 0.0379838, 84.4913
0, 3420.00000, 123.052, -31.2212, 123.195, -151.177, 123.595, 88.7712, 0, 0, 8.03445, -54.2951, 8.02509, -174.251, 7.99911, 65.6973, 0.0379838, 84.4913
0, 3480.00000, 123.052, -31.2212, 123.195, -151.177, 123.595, 88.7712, 0, 0, 8.03445, -54.2951, 8.02509, -174.251, 7.99911, 65.6973, 0.0379838, 84.4913
0, 3540.00000, 123.052, -31.2212, 123.195, -151.177, 123.595, 88.7712, 0, 0, 8.03445, -54.2951, 8.02509, -174.251, 7.99911, 65.6973, 0.0379838, 84.4913
1, 0.00000, 123.052, -31.2212, 123.195, -151.177, 123.595, 88.7712, 0, 0, 8.03445, -54.2951, 8.02509, -174.251, 7.99911, 65.6973, 0.0379838, 84.4913
1, 60.00000, 123.052, -31.2212, 123.195, -151.177, 123.595, 88.7712, 0, 0, 8.03445, -54.2951, 8.02509, -174.251, 7.99911, 65.6973, 0.0379838, 84.4913
1, 120.00000, 123.052, -31.2212, 123.195, -151.177, 123.595, 88.7712, 0, 0, 8.03445, -54.2951, 8.02509, -174.251, 7.99911, 65.6973, 0.0379838, 84.4913
1, 180.00000, 123.052, -31.2212, 123.195, -151.177, 123.595, 88.7712, 0, 0, 8.03445, -54.2951, 8.02509, -174.251, 7.99911, 65.6973, 0.0379838, 84.4913
1, 240.00000, 123.052, -31.2212, 123.195, -151.177, 123.595, 88.7712, 0, 0, 8.03445, -54.2951, 8.02509, -174.251, 7.99911, 65.6973, 0.0379838, 84.4913
1, 300.00000, 123.052, -31.2212, 123.195, -151.177, 123.595, 88.7712, 0, 0, 8.03445, -54.2951, 8.02509, -174.251, 7.99911, 65.6973, 0.0379838, 84.4913
1, 360.00000, 123.052, -31.2212, 123.195, -151.177, 123.595, 88.7712, 0, 0, 8.03445, -54.2951, 8.02509, -174.251, 7.99911, 65.6973, 0.0379838, 84.4913
1, 420.00000, 123.052, -31.2212, 123.195, -151.177, 123.595, 88.7712, 0, 0, 8.03445, -54.2951, 8.02509, -174.251, 7.99911, 65.6973, 0.0379838, 84.4913
1, 480.00000, 123.052, -31.2212, 123.195, -151.177, 123.595, 88.7712, 0, 0, 8.03445, -54.2951, 8.02509, -174.251, 7.99911, 65.6973, 0.0379838, 84.4913
1, 540.00000, 123.052, -31.2212, 123.195, -151.177, 123.595, 88.7712, 0, 0, 8.03445, -54.2951, 8.02509, -174.251, 7.99911, 65.6973, 0.0379838, 84.4913
1, 600.00000, 123.052, -31.2212, 123.195, -151.177, 123.595, 88.7712, 0, 0, 8.03445, -54.2951, 8.02509, -174.251, 7.99911, 65.6973, 0.0379838, 84.4913
1, 660.00000, 123.052, -31.2212, 123.195, -151.177, 123.595, 88.7712, 0, 0, 8.03445, -54.2951, 8.02509, -174.251, 7.99911, 65.6973, 0.0379838, 84.4913
1, 720.00000, 123.052, -31.2212, 123.195, -151.177, 123.595, 88.7712, 0, 0, 8.03445, -54.2951, 8.02509, -174.251, 7.99911, 65.6973, 0.0379838, 84.4913
1, 780.00000, 123.052, -31.2212, 123.195, -151.177, 123.595, 88.7712, 0, 0, 8.03445, -54.2951, 8.02509, -174.251, 7.99911, 65.6973, 0.0379838, 84.4913
1, 840.00000, 123.052, -31.2212, 123.195, -151.177, 123.595, 88.7712, 0, 0, 8.03445, -54.2951, 8.02509, -174.251, 7.99911, 65.6973, 0.0379838, 84.4913
1, 900.00000, 123.052, -31.2212, 123.195, -151.177, 123.595, 88.7712, 0, 0, 8.03445, -54.2951, 8.02509, -174.251, 7.99911, 65.6973, 0.0379838, 84.4913
1, 960.00000, 123.052, -31.2212, 123.195, -151.177, 123.595, 88.7712, 0, 0, 8.03445, -54.2951, 8.02509, -174.251, 7.99911, 65.6973, 0.0379838, 84.4913
1, 1020.00000, 123.052, -31.2212, 123.195, -151.177, 123.595, 88.7712, 0, 0, 8.03445, -54.2951, 8.02509, -174.251, 7.99911, 65.6973, 0.0379838, 84.4913
1, 1080.00000, 123.052, -31.2212, 123.195, -151.177, 123.595, 88.7712, 0, 0, 8.03445, -54.2951, 8.02509, -174.251, 7.99911, 65.6973, 0.0379838, 84.4913
1, 1140.00000, 123.052, -31.2212, 123.195, -151.177, 123.595, 88.7712, 0, 0, 8.03445, -54.2951, 8.02509, -174.251, 7.99911, 65.6973, 0.0379838, 84.4913
1, 1200.00000, 123.052, -31.2212, 123.195, -151.177, 123.595, 88.7712, 0, 0, 8.03445, -54.2951, 8.02509, -174.251, 7.99911, 65.6973, 0.0379838, 84.4913
1, 1260.00000, 123.052, -31.2212, 123.195, -151.177, 123.595, 88.7712, 0, 0, 8.03445, -54.2951, 8.02509, -174.251, 7.99911, 65.6973, 0.0379838, 84.4913
1, 1320.00000, 123.052, -31.2212, 123.195, -151.177, 123.595, 88.7712, 0, 0, 8.03445, -54.2951, 8.02509, -174.251, 7.99911, 65.6973, 0.0379838, 84.4913
1, 1380.00000, 123.052, -31.2212, 123.195, -151.177, 123.595, 88.7712, 0, 0, 8.03445, -54.2951, 8.02509, -174.251, 7.99911, 65.6973, 0.0379838, 84.4913
1, 1440.00000, 123.052, -31.2212, 123.195, -151.177, 123.595, 88.7712, 0, 0, 8.03445, -54.2951, 8.02509, -174.251, 7.99911, 65.6973, 0.0379838, 84.4913
1, 1500.00000, 123.052, -31.2212, 123.195, -151.177, 123.595, 88.7712, 0, 0, 8.03445, -54.2951, 8.02509, -174.251, 7.99911, 65.6973, 0.0379838, 84.4913
1, 1560.00000, 123.052, -31.2212, 123.195, -151.177, 123.595, 88.7712, 0, 0, 8.03445, -54.2951, 8.02509, -174.251, 7.99911, 65.6973, 0.0379838, 84.4913
1, 1620.00000, 123.052, -31.2212, 123.195, -151.177, 123.595, 88.7712, 0, 0, 8.03445, -54.2951, 8.02509, -174.251, 7.99911, 65.6973, 0.0379838, 84.4913
1, 1680.00000, 123.052, -31.2212, 123.195, -151.177, 123.595, 88.7712, 0, 0, 8.03445, -54.2951, 8.02509, -174.251, 7.99911, 65.6973, 0.0379838, 84.4913
1, 1740.00000, 123.052, -31.2212, 123.195, -151.177, 123.595, 88.7712, 0, 0, 8.03445, -54.2951, 8.02509, -174.251, 7.99911, 65.6973, 0.0379838, 84.4913
1, 1800.00000, 123.052, -31.2212, 123.195, -151.177, 123.595, 88.7712, 0, 0, 8.03445, -54.2951, 8.02509, -174.251, 7.99911, 65.6973, 0.0379838, 84.4913
1, 1860.00000, 123.052, -31.2212, 123.195, -151.177, 123.595, 88.7712, 0, 0, 8.03445, -54.2951, 8.02509, -174.251, 7.99911, 65.6973, 0.0379838, 84.4913
1, 1920.00000, 123.052, -31.2212, 123.195, -151.177, 123.595, 88.7712, 0, 0, 8.03445, -54.2951, 8.02509, -174.251, 7.99911, 65.6973, 0.0379838, 84.4913
1, 1980.00000, 123.052, -31.2212, 123.195, -151.177, 123.595, 88.7712, 0, 0, 8.03445, -54.2951, 8.02509, -174.251, 7.99911, 65.6973, 0.0379838, 84.4913
1, 2040.00000, 123.052, -31.2212, 123.195, -151.177, 123.595, 88.7712, 0, 0, 8.03445, -54.2951, 8.02509, -174.251, 7.99911, 65.6973, 0.0379838, 84.4913
1, 2100.00000, 123.052, -31.2212, 123.195, -151.177, 123.595, 88.7712, 0, 0, 8.03445, -54.2951, 8.02509, -174.251, 7.99911, 65.6973, 0.0379838, 84.4913
1, 2160.00000, 123.052, -31.2212, 123.195, -151.177, 123.595, 88.7712, 0, 0, 8.03445, -54.2951, 8.02509, -174.251, 7.99911, 65.6973, 0.0379838, 84.4913
1, 2220.00000, 123.052, -31.2212, 123.195, -151.177, 123.595, 88.7712, 0, 0, 8.03445, -54.2951, 8.02509, -174.251, 7.99911, 65.6973, 0.0379838, 84.4913
1, 2280.00000, 123.052, -31.2212, 123.195, -151.177, 123.595, 88.7712, 0, 0, 8.03445, -54.2951, 8.02509, -174.251, 7.99911, 65.6973, 0.0379838, 84.4913
1, 2340.00000, 123.052, -31.2212, 123.195, -151.177, 123.595, 88.7712, 0, 0, 8.03445, -54.2951, 8.02509, -174.251, 7.99911, 65.6973, 0.0379838, 84.4913
1, 2400.00000, 123.052, -31.2212, 123.195, -151.177, 123.595, 88.7712, 0, 0, 8.03445, -54.2951, 8.02509, -174.251, 7.99911, 65.6973, 0.0379838, 84.4913
1, 2460.00000, 123.052, -31.2212, 123.195, -151.177, 123.595, 88.7712, 0, 0, 8.03445, -54.2951, 8.02509, -174.251, 7.99911, 65.6973, 0.0379838, 84.4913
1, 2520.00000, 123.052, -31.2212, 123.195, -151.177, 123.595, 88.7712, 0, 0, 8.03445, -54.2951, 8.02509, -174.251, 7.99911, 65.6973, 0.0379838, 84.4913
1, 2580.00000, 123.052, -31.2212, 123.195, -151.177, 123.595, 88.7712, 0, 0, 8.03445, -54.2951, 8.02509, -174.251, 7.99911, 65.6973, 0.0379838, 84.4913
1, 2640.00000, 123.052, -31.2212, 123.195, -151.177, 123.595, 88.7712, 0, 0, 8.03445, -54.2951, 8.02509, -174.251, 7.99911, 65.6973, 0.0379838, 84.4913
1, 2700.00000, 123.052, -31.2212, 123.195, -151.177, 123.595, 88.7712, 0, 0, 8.03445, -54.2951, 8.02509, -174.251, 7.99911, 65.6973, 0.0379838, 84.4913
1, 2760.00000, 123.052, -31.2212, 123.195, -151.177, 123.595, 88.7712, 0, 0, 8.03445, -54.2951, 8.02509, -174.251, 7.99911, 65.6973, 0.0379838, 84.4913
1, 2820.00000, 123.052, -31.2212, 123.195, -151.177, 123.595, 88.7712, 0, 0, 8.03445, -54.2951, 8.02509, -174.251, 7.99911, 65.6973, 0.0379838, 84.4913
1, 2880.00000, 123.052, -31.2212, 123.195, -151.177, 123.595, 88.7712, 0, 0, 8.03445, -54.2951, 8.02509, -174.251, 7.99911, 65.6973, 0.0379838, 84.4913
1, 2940.00000, 123.052, -31.2212, 123.195, -151.177, 123.595, 88.7712, 0, 0, 8.03445, -54.2951, 8.02509, -174.251, 7.99911, 65.6973, 0.0379838, 84.4913
1, 3000.00000, 123.052, -31.2212, 123.195, -151.177, 123.595, 88.7712, 0, 0, 8.03445, -54.2951, 8.02509, -174.251, 7.99911, 65.6973, 0.0379838, 84.4913
1, 3060.00000, 123.052, -31.2212, 123.195, -151.177, 123.595, 88.7712, 0, 0, 8.03445, -54.2951, 8.02509, -174.251, 7.99911, 65.6973, 0.0379838, 84.4913
1, 3120.00000, 123.052, -31.2212, 123.195, -151.177, 123.595, 88.7712, 0, 0, 8.03445, -54.2951, 8.02509, -174.251, 7.99911, 65.6973, 0.0379838, 84.4913
1, 3180.00000, 123.052, -31.2212, 123.195, -151.177, 123.595, 88.7712, 0, 0, 8.03445, -54.2951, 8.02509, -174.251, 7.99911, 65.6973, 0.0379838, 84.4913
1, 3240.00000, 123.052, -31.2212, 123.195, -151.177, 123.595, 88.7712, 0, 0, 8.03445, -54.2951, 8.02509, -174.251, 7.99911, 65.6973, 0.0379838, 84.4913
1, 3300.00000, 123.052, -31.2212, 123.195, -151.177, 123.595, 88.7712, 0, 0, 8.03445, -54.2951, 8.02509, -174.251, 7.99911, 65.6973, 0.0379838, 84.4913
1, 3360.00000, 123.052, -31.2212, 123.195, -151.177, 123.595, 88.7712, 0, 0, 8.03445, -54.2951, 8.02509, -174.251, 7.99911, 65.6973, 0.0379838, 84.4913
1, 3420.00000, 123.052, -31.2212, 123.195, -151.177, 123.595, 88.7712, 0, 0, 8.03445, -54.2951, 8.02509, -174.251, 7.99911, 65.6973, 0.0379838, 84.4913
1, 3480.00000, 123.052, -31.2212, 123.195, -151.177, 123.595, 88.7712, 0, 0, 8.03445, -54.2951, 8.02509, -174.251, 7.99911, 65.6973, 0.0379838, 84.4913
1, 3540.00000, 123.052, -31.2212, 123.195, -151.177, 123.595, 88.7712, 0, 0, 8.03445, -54.2951, 8.02509, -174.251, 7.99911, 65.6973, 0.0379838, 84.4913
2, 0.00000, 123.052, -31.2212, 123.195, -151.177, 123.595, 88.7712, 0, 0, 8.03445, -54.2951, 8.02509, -174.251, 7.99911, 65.6973, 0.0379838, 84.4913
2, 60.00000, 123.052, -31.2212, 123.195, -151.177, 123.595, 88.7712, 0, 0, 8.03445, -54.2951, 8.02509, -174.251, 7.99911, 65.6973, 0.0379838, 84.4913
2, 120.00000, 123.052, -31.2212, 123.195, -151.177, 123.595, 88.7712, 0, 0, 8.03445, -54.2951, 8.02509, -174.251, 7.99911, 65.6973, 0.0379838, 84.4913
2, 180.00000, 123.052, -31.2212, 123.195, -151.177, 123.595, 88.7712, 0, 0, 8.03445, -54.2951, 8.02509, -174.251, 7.99911, 65.6973, 0.0379838, 84.4913
2, 240.00000, 123.052, -31.2212, 123.195, -151.177, 123.595, 88.7712, 0, 0, 8.03445, -54.2951, 8.02509, -174.251, 7.99911, 65.6973, 0.0379838, 84.4913
2, 300.00000, 123.052, -31.2212, 123.195, -151.177, 123.595, 88.7712, 0, 0, 8.03445, -54.2951, 8.02509, -174.251, 7.99911, 65.6973, 0.0379838, 84.4913
2, 360.00000, 123.052, -31.2212, 123.195, -151.177, 123.595, 88.7712, 0, 0, 8.03445, -54.2951, 8.02509, -174.251, 7.99911, 65.6973, 0.0379838, 84.4913
2, 420.00000, 123.052, -31.2212, 123.195, -151.177, 123.595, 88.7712, 0, 0, 8.03445, -54.2951, 8.02509, -174.251, 7.99911, 65.6973, 0.0379838, 84.4913
2, 480.00000, 123.052, -31.2212, 123.195, -151.177, 123.595, 88.7712, 0, 0, 8.03445, -54.2951, 8.02509, -174.251, 7.99911, 65.6973, 0.0379838, 84.4913
2, 540.00000, 123.052, -31.2212, 123.195, -151.177, 123.595, 88.7712, 0, 0, 8.03445, -54.2951, 8.02509, -174.251, 7.99911, 65.6973, 0.0379838, 84.4913
2, 600.00000, 123.052, -31.2212, 123.195, -151.177, 123.595, 88.7712, 0, 0, 8.03445, -54.2951, 8.02509, -174.251, 7.99911, 65.6973, 0.0379838, 84.4913
2, 660.00000, 123.052, -31.2212, 123.195, -151.177, 123.595, 88.7712, 0, 0, 8.03445, -54.2951, 8.02509, -174.251, 7.99911, 65.6973, 0.0379838, 84.4913
