hour,t(sec),V1,VAngle1,V2,VAngle2,V3,VAngle3,V4,VAngle4,I1,IAngle1,I2,IAngle2,I3,IAngle3,I4,IAngle4
0, 60.00000, 125.303, -31.5276, 125.298, -151.373, 125.601, 88.5705, 0, 0, 12.5031, -54.6013, 12.5036, -174.446, 12.4735, 65.4968, 0.0593532, 60.7233
0, 120.00000, 125.303, -31.5276, 125.298, -151.373, 125.601, 88.5705, 0, 0, 12.5032, -54.6015, 12.5037, -174.447, 12.4736, 65.4966, 0.0593722, 60.6986
0, 180.00000, 125.303, -31.5276, 125.298, -151.373, 125.601, 88.5705, 0, 0, 12.5032, -54.6015, 12.5037, -174.447, 12.4736, 65.4966, 0.0593724, 60.6985
0, 240.00000, 125.303, -31.5276, 125.298, -151.373, 125.601, 88.5705, 0, 0, 12.5032, -54.6015, 12.5037, -174.447, 12.4736, 65.4966, 0.0593724, 60.6985
0, 300.00000, 125.303, -31.5276, 125.298, -151.373, 125.601, 88.5705, 0, 0, 12.5032, -54.6015, 12.5037, -174.447, 12.4736, 65.4966, 0.0593724, 60.6985
0, 360.00000, 125.303, -31.5276, 125.298, -151.373, 125.601, 88.5705, 0, 0, 12.5032, -54.6015, 12.5037, -174.447, 12.4736, 65.4966, 0.0593724, 60.6985
0, 420.00000, 125.303, -31.5276, 125.298, -151.373, 125.601, 88.5705, 0, 0, 12.5032, -54.6015, 12.5037, -174.447, 12.4736, 65.4966, 0.0593724, 60.6985
0, 480.00000, 125.688, -31.4007, 125.686, -151.244, 125.991, 88.6973, 0, 0, 10.8445, -54.4749, 10.8448, -174.319, 10.8185, 65.623, 0.0519593, 61.2246
0, 540.00000, 125.688, -31.4006, 125.686, -151.244, 125.992, 88.6973, 0, 0, 10.8445, -54.4746, 10.8447, -174.318, 10.8184, 65.6234, 0.0519848, 61.2569
0, 600.00000, 125.688, -31.4006, 125.686, -151.244, 125.992, 88.6973, 0, 0, 10.8445, -54.4746, 10.8447, -174.318, 10.8184, 65.6234, 0.051985, 61.2571
0, 660.00000, 125.688, -31.4006, 125.686, -151.244, 125.992, 88.6973, 0, 0, 10.8445, -54.4746, 10.8447, -174.318, 10.8184, 65.6234, 0.051985, 61.2571
0, 720.00000, 125.688, -31.4006, 125.686, -151.244, 125.992, 88.6973, 0, 0, 10.8445, -54.4746, 10.8447, -174.318, 10.8184, 65.6234, 0.051985, 61.2571
0, 780.00000, 125.688, -31.4006, 125.686, -151.244, 125.992, 88.6973, 0, 0, 10.8445, -54.4746, 10.8447, -174.318, 10.8184, 65.6234, 0.051985, 61.2571
0, 840.00000, 125.688, -31.4006, 125.686, -151.244, 125.992, 88.6973, 0, 0, 10.8445, -54.4746, 10.8447, -174.318, 10.8184, 65.6234, 0.051985, 61.2571
0, 900.00000, 125.688, -31.4006, 125.686, -151.244, 125.992, 88.6973, 0, 0, 10.8445, -54.4746, 10.8447, -174.318, 10.8184, 65.6234, 0.051985, 61.2571
0, 960.00000, 125.688, -31.4006, 125.686, -151.244, 125.992, 88.6973, 0, 0, 10.8445, -54.4746, 10.8447, -174.318, 10.8184, 65.6234, 0.051985, 61.2571
0, 1020.00000, 125.688, -31.4006, 125.686, -151.244, 125.992, 88.6973, 0, 0, 10.8445, -54.4746, 10.8447, -174.318, 10.8184, 65.6234, 0.051985, 61.2571
0, 1080.00000, 125.688, -31.4006, 125.686, -151.244, 125.992, 88.6973, 0, 0, 10.8445, -54.4746, 10.8447, -174.318, 10.8184, 65.6234, 0.051985, 61.2571
0, 1140.00000, 125.688, -31.4006, 125.686, -151.244, 125.992, 88.6973, 0, 0, 10.8445, -54.4746, 10.8447, -174.318, 10.8184, 65.6234, 0.051985, 61.2571
0, 1200.00000, 125.688, -31.4006, 125.686, -151.244, 125.992, 88.6973, 0, 0, 10.8445, -54.4746, 10.8447, -174.318, 10.8184, 65.6234, 0.051985, 61.2571
0, 1260.00000, 125.688, -31.4006, 125.686, -151.244, 125.992, 88.6973, 0, 0, 10.8445, -54.4746, 10.8447, -174.318, 10.8184, 65.6234, 0.051985, 61.2571
0, 1320.00000, 125.688, -31.4006, 125.686, -151.244, 125.992, 88.6973, 0, 0, 10.8445, -54.4746, 10.8447, -174.318, 10.8184, 65.6234, 0.051985, 61.2571
0, 1380.00000, 125.688, -31.4006, 125.686, -151.244, 125.992, 88.6973, 0, 0, 10.8445, -54.4746, 10.8447, -174.318, 10.8184, 65.6234, 0.051985, 61.2571
0, 1440.00000, 125.688, -31.4006, 125.686, -151.244, 125.992, 88.6973, 0, 0, 10.8445, -54.4746, 10.8447, -174.318, 10.8184, 65.6234, 0.051985, 61.2571
0, 1500.00000, 125.688, -31.4006, 125.686, -151.244, 125.992, 88.6973, 0, 0, 10.8445, -54.4746, 10.8447, -174.318, 10.8184, 65.6234, 0.051985, 61.2571
0, 1560.00000, 125.688, -31.4006, 125.686, -151.244, 125.992, 88.6973, 0, 0, 10.8445, -54.4746, 10.8447, -174.318, 10.8184, 65.6234, 0.051985, 61.2571
0, 1620.00000, 125.688, -31.4006, 125.686, -151.244, 125.992, 88.6973, 0, 0, 10.8445, -54.4746, 10.8447, -174.318, 10.8184, 65.6234, 0.051985, 61.2571
0, 1680.00000, 125.688, -31.4006, 125.686, -151.244, 125.992, 88.6973, 0, 0, 10.8445, -54.4746, 10.8447, -174.318, 10.8184, 65.6234, 0.051985, 61.2571
0, 1740.00000, 125.688, -31.4006, 125.686, -151.244, 125.992, 88.6973, 0, 0, 10.8445, -54.4746, 10.8447, -174.318, 10.8184, 65.6234, 0.051985, 61.2571
0, 1800.00000, 125.688, -31.4006, 125.686, -151.244, 125.992, 88.6973, 0, 0, 10.8445, -54.4746, 10.8447, -174.318, 10.8184, 65.6234, 0.051985, 61.2571
0, 1860.00000, 125.688, -31.4006, 125.686, -151.244, 125.992, 88.6973, 0, 0, 10.8445, -54.4746, 10.8447, -174.318, 10.8184, 65.6234, 0.051985, 61.2571
0, 1920.00000, 125.688, -31.4006, 125.686, -151.244, 125.992, 88.6973, 0, 0, 10.8445, -54.4746, 10.8447, -174.318, 10.8184, 65.6234, 0.051985, 61.2571
0, 1980.00000, 125.688, -31.4006, 125.686, -151.244, 125.992, 88.6973, 0, 0, 10.8445, -54.4746, 10.8447, -174.318, 10.8184, 65.6234, 0.051985, 61.2571
0, 2040.00000, 125.688, -31.4006, 125.686, -151.244, 125.992, 88.6973, 0, 0, 10.8445, -54.4746, 10.8447, -174.318, 10.8184, 65.6234, 0.051985, 61.2571
0, 2100.00000, 125.688, -31.4006, 125.686, -151.244, 125.992, 88.6973, 0, 0, 10.8445, -54.4746, 10.8447, -174.318, 10.8184, 65.6234, 0.051985, 61.2571
0, 2160.00000, 125.688, -31.4006, 125.686, -151.244, 125.992, 88.6973, 0, 0, 10.8445, -54.4746, 10.8447, -174.318, 10.8184, 65.6234, 0.051985, 61.2571
0, 2220.00000, 125.688, -31.4006, 125.686, -151.244, 125.992, 88.6973, 0, 0, 10.8445, -54.4746, 10.8447, -174.318, 10.8184, 65.6234, 0.051985, 61.2571
0, 2280.00000, 125.688, -31.4006, 125.686, -151.244, 125.992, 88.6973, 0, 0, 10.8445, -54.4746, 10.8447, -174.318, 10.8184, 65.6234, 0.051985, 61.2571
0, 2340.00000, 125.688, -31.4006, 125.686, -151.244, 125.992, 88.6973, 0, 0, 10.8445, -54.4746, 10.8447, -174.318, 10.8184, 65.6234, 0.051985, 61.2571
0, 2400.00000, 125.688, -31.4006, 125.686, -151.244, 125.992, 88.6973, 0, 0, 10.8445, -54.4746, 10.8447, -174.318, 10.8184, 65.6234, 0.051985, 61.2571
0, 2460.00000, 125.688, -31.4006, 125.686, -151.244, 125.992, 88.6973, 0, 0, 10.8445, -54.4746, 10.8447, -174.318, 10.8184, 65.6234, 0.051985, 61.2571
0, 2520.00000, 125.688, -31.4006, 125.686, -151.244, 125.992, 88.6973, 0, 0, 10.8445, -54.4746, 10.8447, -174.318, 10.8184, 65.6234, 0.051985, 61.2571
0, 2580.00000, 125.688, -31.4006, 125.686, -151.244, 125.992, 88.6973, 0, 0, 10.8445, -54.4746, 10.8447, -174.318, 10.8184, 65.6234, 0.051985, 61.2571
0, 2640.00000, 125.688, -31.4006, 125.686, -151.244, 125.992, 88.6973, 0, 0, 10.8445, -54.4746, 10.8447, -174.318, 10.8184, 65.6234, 0.051985, 61.2571
0, 2700.00000, 125.688, -31.4006, 125.686, -151.244, 125.992, 88.6973, 0, 0, 10.8445, -54.4746, 10.8447, -174.318, 10.8184, 65.6234, 0.051985, 61.2571
0, 2760.00000, 125.688, -31.4006, 125.686, -151.244, 125.992, 88.6973, 0, 0, 10.8445, -54.4746, 10.8447, -174.318, 10.8184, 65.6234, 0.051985, 61.2571
0, 2820.00000, 125.688, -31.4006, 125.686, -151.244, 125.992, 88.6973, 0, 0, 10.8445, -54.4746, 10.8447, -174.318, 10.8184, 65.6234, 0.051985, 61.2571
0, 2880.00000, 125.688, -31.4006, 125.686, -151.244, 125.992, 88.6973, 0, 0, 10.8445, -54.4746, 10.8447, -174.318, 10.8184, 65.6234, 0.051985, 61.2571
0, 2940.00000, 125.688, -31.4006, 125.686, -151.244, 125.992, 88.6973, 0, 0, 10.8445, -54.4746, 10.8447, -174.318, 10.8184, 65.6234, 0.051985, 61.2571
0, 3000.00000, 125.688, -31.4006, 125.686, -151.244, 125.992, 88.6973, 0, 0, 10.8445, -54.4746, 10.8447, -174.318, 10.8184, 65.6234, 0.051985, 61.2571
0, 3060.00000, 125.688, -31.4006, 125.686, -151.244, 125.992, 88.6973, 0, 0, 10.8445, -54.4746, 10.8447, -174.318, 10.8184, 65.6234, 0.051985, 61.2571
0, 3120.00000, 125.688, -31.4006, 125.686, -151.244, 125.992, 88.6973, 0, 0, 10.8445, -54.4746, 10.8447, -174.318, 10.8184, 65.6234, 0.051985, 61.2571
0, 3180.00000, 125.688, -31.4006, 125.686, -151.244, 125.992, 88.6973, 0, 0, 10.8445, -54.4746, 10.8447, -174.318, 10.8184, 65.6234, 0.051985, 61.2571
0, 3240.00000, 125.688, -31.4006, 125.686, -151.244, 125.992, 88.6973, 0, 0, 10.8445, -54.4746, 10.8447, -174.318, 10.8184, 65.6234, 0.051985, 61.2571
0, 3300.00000, 125.688, -31.4006, 125.686, -151.244, 125.992, 88.6973, 0, 0, 10.8445, -54.4746, 10.8447, -174.318, 10.8184, 65.6234, 0.051985, 61.2571
0, 3360.00000, 125.688, -31.4006, 125.686, -151.244, 125.992, 88.6973, 0, 0, 10.8445, -54.4746, 10.8447, -174.318, 10.8184, 65.6234, 0.051985, 61.2571
0, 3420.00000, 125.688, -31.4006, 125.686, -151.244, 125.992, 88.6973, 0, 0, 10.8445, -54.4746, 10.8447, -174.318, 10.8184, 65.6234, 0.051985, 61.2571
0, 3480.00000, 125.688, -31.4006, 125.686, -151.244, 125.992, 88.6973, 0, 0, 10.8445, -54.4746, 10.8447, -174.318, 10.8184, 65.6234, 0.051985, 61.2571
0, 3540.00000, 125.688, -31.4006, 125.686, -151.244, 125.992, 88.6973, 0, 0, 10.8445, -54.4746, 10.8447, -174.318, 10.8184, 65.6234, 0.051985, 61.2571
1, 0.00000, 125.688, -31.4006, 125.686, -151.244, 125.992, 88.6973, 0, 0, 10.8445, -54.4746, 10.8447, -174.318, 10.8184, 65.6234, 0.051985, 61.2571
1, 60.00000, 125.688, -31.4006, 125.686, -151.244, 125.992, 88.6973, 0, 0, 10.8445, -54.4746, 10.8447, -174.318, 10.8184, 65.6234, 0.051985, 61.2571
1, 120.00000, 125.688, -31.4006, 125.686, -151.244, 125.992, 88.6973, 0, 0, 10.8445, -54.4746, 10.8447, -174.318, 10.8184, 65.6234, 0.051985, 61.2571
1, 180.00000, 125.688, -31.4006, 125.686, -151.244, 125.992, 88.6973, 0, 0, 10.8445, -54.4746, 10.8447, -174.318, 10.8184, 65.6234, 0.051985, 61.2571
1, 240.00000, 125.688, -31.4006, 125.686, -151.244, 125.992, 88.6973, 0, 0, 10.8445, -54.4746, 10.8447, -174.318, 10.8184, 65.6234, 0.051985, 61.2571
1, 300.00000, 125.688, -31.4006, 125.686, -151.244, 125.992, 88.6973, 0, 0, 10.8445, -54.4746, 10.8447, -174.318, 10.8184, 65.6234, 0.051985, 61.2571
1, 360.00000, 125.688, -31.4006, 125.686, -151.244, 125.992, 88.6973, 0, 0, 10.8445, -54.4746, 10.8447, -174.318, 10.8184, 65.6234, 0.051985, 61.2571
1, 420.00000, 125.688, -31.4006, 125.686, -151.244, 125.992, 88.6973, 0, 0, 10.8445, -54.4746, 10.8447, -174.318, 10.8184, 65.6234, 0.051985, 61.2571
1, 480.00000, 125.688, -31.4006, 125.686, -151.244, 125.992, 88.6973, 0, 0, 10.8445, -54.4746, 10.8447, -174.318, 10.8184, 65.6234, 0.051985, 61.2571
1, 540.00000, 125.688, -31.4006, 125.686, -151.244, 125.992, 88.6973, 0, 0, 10.8445, -54.4746, 10.8447, -174.318, 10.8184, 65.6234, 0.051985, 61.2571
1, 600.00000, 125.688, -31.4006, 125.686, -151.244, 125.992, 88.6973, 0, 0, 10.8445, -54.4746, 10.8447, -174.318, 10.8184, 65.6234, 0.051985, 61.2571
1, 660.00000, 125.688, -31.4006, 125.686, -151.244, 125.992, 88.6973, 0, 0, 10.8445, -54.4746, 10.8447, -174.318, 10.8184, 65.6234, 0.051985, 61.2571
1, 720.00000, 125.688, -31.4006, 125.686, -151.244, 125.992, 88.6973, 0, 0, 10.8445, -54.4746, 10.8447, -174.318, 10.8184, 65.6234, 0.051985, 61.2571
1, 780.00000, 125.688, -31.4006, 125.686, -151.244, 125.992, 88.6973, 0, 0, 10.8445, -54.4746, 10.8447, -174.318, 10.8184, 65.6234, 0.051985, 61.2571
1, 840.00000, 125.688, -31.4006, 125.686, -151.244, 125.992, 88.6973, 0, 0, 10.8445, -54.4746, 10.8447, -174.318, 10.8184, 65.6234, 0.051985, 61.2571
1, 900.00000, 125.688, -31.4006, 125.686, -151.244, 125.992, 88.6973, 0, 0, 10.8445, -54.4746, 10.8447, -174.318, 10.8184, 65.6234, 0.051985, 61.2571
1, 960.00000, 125.688, -31.4006, 125.686, -151.244, 125.992, 88.6973, 0, 0, 10.8445, -54.4746, 10.8447, -174.318, 10.8184, 65.6234, 0.051985, 61.2571
1, 1020.00000, 125.688, -31.4006, 125.686, -151.244, 125.992, 88.6973, 0, 0, 10.8445, -54.4746, 10.8447, -174.318, 10.8184, 65.6234, 0.051985, 61.2571
1, 1080.00000, 125.688, -31.4006, 125.686, -151.244, 125.992, 88.6973, 0, 0, 10.8445, -54.4746, 10.8447, -174.318, 10.8184, 65.6234, 0.051985, 61.2571
1, 1140.00000, 125.688, -31.4006, 125.686, -151.244, 125.992, 88.6973, 0, 0, 10.8445, -54.4746, 10.8447, -174.318, 10.8184, 65.6234, 0.051985, 61.2571
1, 1200.00000, 125.688, -31.4006, 125.686, -151.244, 125.992, 88.6973, 0, 0, 10.8445, -54.4746, 10.8447, -174.318, 10.8184, 65.6234, 0.051985, 61.2571
1, 1260.00000, 125.688, -31.4006, 125.686, -151.244, 125.992, 88.6973, 0, 0, 10.8445, -54.4746, 10.8447, -174.318, 10.8184, 65.6234, 0.051985, 61.2571
1, 1320.00000, 125.688, -31.4006, 125.686, -151.244, 125.992, 88.6973, 0, 0, 10.8445, -54.4746, 10.8447, -174.318, 10.8184, 65.6234, 0.051985, 61.2571
1, 1380.00000, 125.688, -31.4006, 125.686, -151.244, 125.992, 88.6973, 0, 0, 10.8445, -54.4746, 10.8447, -174.318, 10.8184, 65.6234, 0.051985, 61.2571
1, 1440.00000, 125.688, -31.4006, 125.686, -151.244, 125.992, 88.6973, 0, 0, 10.8445, -54.4746, 10.8447, -174.318, 10.8184, 65.6234, 0.051985, 61.2571
1, 1500.00000, 125.688, -31.4006, 125.686, -151.244, 125.992, 88.6973, 0, 0, 10.8445, -54.4746, 10.8447, -174.318, 10.8184, 65.6234, 0.051985, 61.2571
1, 1560.00000, 125.688, -31.4006, 125.686, -151.244, 125.992, 88.6973, 0, 0, 10.8445, -54.4746, 10.8447, -174.318, 10.8184, 65.6234, 0.051985, 61.2571
1, 1620.00000, 125.688, -31.4006, 125.686, -151.244, 125.992, 88.6973, 0, 0, 10.8445, -54.4746, 10.8447, -174.318, 10.8184, 65.6234, 0.051985, 61.2571
1, 1680.00000, 125.688, -31.4006, 125.686, -151.244, 125.992, 88.6973, 0, 0, 10.8445, -54.4746, 10.8447, -174.318, 10.8184, 65.6234, 0.051985, 61.2571
1, 1740.00000, 125.688, -31.4006, 125.686, -151.244, 125.992, 88.6973, 0, 0, 10.8445, -54.4746, 10.8447, -174.318, 10.8184, 65.6234, 0.051985, 61.2571
1, 1800.00000, 125.688, -31.4006, 125.686, -151.244, 125.992, 88.6973, 0, 0, 10.8445, -54.4746, 10.8447, -174.318, 10.8184, 65.6234, 0.051985, 61.2571
1, 1860.00000, 125.688, -31.4006, 125.686, -151.244, 125.992, 88.6973, 0, 0, 10.8445, -54.4746, 10.8447, -174.318, 10.8184, 65.6234, 0.051985, 61.2571
1, 1920.00000, 125.688, -31.4006, 125.686, -151.244, 125.992, 88.6973, 0, 0, 10.8445, -54.4746, 10.8447, -174.318, 10.8184, 65.6234, 0.051985, 61.2571
1, 1980.00000, 125.688, -31.4006, 125.686, -151.244, 125.992, 88.6973, 0, 0, 10.8445, -54.4746, 10.8447, -174.318, 10.8184, 65.6234, 0.051985, 61.2571
1, 2040.00000, 125.688, -31.4006, 125.686, -151.244, 125.992, 88.6973, 0, 0, 10.8445, -54.4746, 10.8447, -174.318, 10.8184, 65.6234, 0.051985, 61.2571
1, 2100.00000, 125.688, -31.4006, 125.686, -151.244, 125.992, 88.6973, 0, 0, 10.8445, -54.4746, 10.8447, -174.318, 10.8184, 65.6234, 0.051985, 61.2571
1, 2160.00000, 125.688, -31.4006, 125.686, -151.244, 125.992, 88.6973, 0, 0, 10.8445, -54.4746, 10.8447, -174.318, 10.8184, 65.6234, 0.051985, 61.2571
1, 2220.00000, 125.688, -31.4006, 125.686, -151.244, 125.992, 88.6973, 0, 0, 10.8445, -54.4746, 10.8447, -174.318, 10.8184, 65.6234, 0.051985, 61.2571
1, 2280.00000, 125.688, -31.4006, 125.686, -151.244, 125.992, 88.6973, 0, 0, 10.8445, -54.4746, 10.8447, -174.318, 10.8184, 65.6234, 0.051985, 61.2571
1, 2340.00000, 125.688, -31.4006, 125.686, -151.244, 125.992, 88.6973, 0, 0, 10.8445, -54.4746, 10.8447, -174.318, 10.8184, 65.6234, 0.051985, 61.2571
1, 2400.00000, 125.688, -31.4006, 125.686, -151.244, 125.992, 88.6973, 0, 0, 10.8445, -54.4746, 10.8447, -174.318, 10.8184, 65.6234, 0.051985, 61.2571
1, 2460.00000, 125.688, -31.4006, 125.686, -151.244, 125.992, 88.6973, 0, 0, 10.8445, -54.4746, 10.8447, -174.318, 10.8184, 65.6234, 0.051985, 61.2571
1, 2520.00000, 125.688, -31.4006, 125.686, -151.244, 125.992, 88.6973, 0, 0, 10.8445, -54.4746, 10.8447, -174.318, 10.8184, 65.6234, 0.051985, 61.2571
1, 2580.00000, 125.688, -31.4006, 125.686, -151.244, 125.992, 88.6973, 0, 0, 10.8445, -54.4746, 10.8447, -174.318, 10.8184, 65.6234, 0.051985, 61.2571
1, 2640.00000, 125.688, -31.4006, 125.686, -151.244, 125.992, 88.6973, 0, 0, 10.8445, -54.4746, 10.8447, -174.318, 10.8184, 65.6234, 0.051985, 61.2571
1, 2700.00000, 125.688, -31.4006, 125.686, -151.244, 125.992, 88.6973, 0, 0, 10.8445, -54.4746, 10.8447, -174.318, 10.8184, 65.6234, 0.051985, 61.2571
1, 2760.00000, 125.688, -31.4006, 125.686, -151.244, 125.992, 88.6973, 0, 0, 10.8445, -54.4746, 10.8447, -174.318, 10.8184, 65.6234, 0.051985, 61.2571
1, 2820.00000, 125.688, -31.4006, 125.686, -151.244, 125.992, 88.6973, 0, 0, 10.8445, -54.4746, 10.8447, -174.318, 10.8184, 65.6234, 0.051985, 61.2571
1, 2880.00000, 125.688, -31.4006, 125.686, -151.244, 125.992, 88.6973, 0, 0, 10.8445, -54.4746, 10.8447, -174.318, 10.8184, 65.6234, 0.051985, 61.2571
1, 2940.00000, 125.688, -31.4006, 125.686, -151.244, 125.992, 88.6973, 0, 0, 10.8445, -54.4746, 10.8447, -174.318, 10.8184, 65.6234, 0.051985, 61.2571
1, 3000.00000, 125.688, -31.4006, 125.686, -151.244, 125.992, 88.6973, 0, 0, 10.8445, -54.4746, 10.8447, -174.318, 10.8184, 65.6234, 0.051985, 61.2571
1, 3060.00000, 125.688, -31.4006, 125.686, -151.244, 125.992, 88.6973, 0, 0, 10.8445, -54.4746, 10.8447, -174.318, 10.8184, 65.6234, 0.051985, 61.2571
1, 3120.00000, 125.688, -31.4006, 125.686, -151.244, 125.992, 88.6973, 0, 0, 10.8445, -54.4746, 10.8447, -174.318, 10.8184, 65.6234, 0.051985, 61.2571
1, 3180.00000, 125.688, -31.4006, 125.686, -151.244, 125.992, 88.6973, 0, 0, 10.8445, -54.4746, 10.8447, -174.318, 10.8184, 65.6234, 0.051985, 61.2571
1, 3240.00000, 125.688, -31.4006, 125.686, -151.244, 125.992, 88.6973, 0, 0, 10.8445, -54.4746, 10.8447, -174.318, 10.8184, 65.6234, 0.051985, 61.2571
1, 3300.00000, 125.688, -31.4006, 125.686, -151.244, 125.992, 88.6973, 0, 0, 10.8445, -54.4746, 10.8447, -174.318, 10.8184, 65.6234, 0.051985, 61.2571
1, 3360.00000, 125.688, -31.4006, 125.686, -151.244, 125.992, 88.6973, 0, 0, 10.8445, -54.4746, 10.8447, -174.318, 10.8184, 65.6234, 0.051985, 61.2571
1, 3420.00000, 125.688, -31.4006, 125.686, -151.244, 125.992, 88.6973, 0, 0, 10.8445, -54.4746, 10.8447, -174.318, 10.8184, 65.6234, 0.051985, 61.2571
1, 3480.00000, 125.688, -31.4006, 125.686, -151.244, 125.992, 88.6973, 0, 0, 10.8445, -54.4746, 10.8447, -174.318, 10.8184, 65.6234, 0.051985, 61.2571
1, 3540.00000, 125.688, -31.4006, 125.686, -151.244, 125.992, 88.6973, 0, 0, 10.8445, -54.4746, 10.8447, -174.318, 10.8184, 65.6234, 0.051985, 61.2571
2, 0.00000, 125.688, -31.4006, 125.686, -151.244, 125.992, 88.6973, 0, 0, 10.8445, -54.4746, 10.8447, -174.318, 10.8184, 65.6234, 0.051985, 61.2571
2, 60.00000, 125.688, -31.4006, 125.686, -151.244, 125.992, 88.6973, 0, 0, 10.8445, -54.4746, 10.8447, -174.318, 10.8184, 65.6234, 0.051985, 61.2571
2, 120.00000, 125.688, -31.4006, 125.686, -151.244, 125.992, 88.6973, 0, 0, 10.8445, -54.4746, 10.8447, -174.318, 10.8184, 65.6234, 0.051985, 61.2571
2, 180.00000, 125.688, -31.4006, 125.686, -151.244, 125.992, 88.6973, 0, 0, 10.8445, -54.4746, 10.8447, -174.318, 10.8184, 65.6234, 0.051985, 61.2571
2, 240.00000, 125.688, -31.4006, 125.686, -151.244, 125.992, 88.6973, 0, 0, 10.8445, -54.4746, 10.8447, -174.318, 10.8184, 65.6234, 0.051985, 61.2571
2, 300.00000, 125.688, -31.4006, 125.686, -151.244, 125.992, 88.6973, 0, 0, 10.8445, -54.4746, 10.8447, -174.318, 10.8184, 65.6234, 0.051985, 61.2571
2, 360.00000, 125.688, -31.4006, 125.686, -151.244, 125.992, 88.6973, 0, 0, 10.8445, -54.4746, 10.8447, -174.318, 10.8184, 65.6234, 0.051985, 61.2571
2, 420.00000, 125.688, -31.4006, 125.686, -151.244, 125.992, 88.6973, 0, 0, 10.8445, -54.4746, 10.8447, -174.318, 10.8184, 65.6234, 0.051985, 61.2571
2, 480.00000, 125.688, -31.4006, 125.686, -151.244, 125.992, 88.6973, 0, 0, 10.8445, -54.4746, 10.8447, -174.318, 10.8184, 65.6234, 0.051985, 61.2571
2, 540.00000, 125.688, -31.4006, 125.686, -151.244, 125.992, 88.6973, 0, 0, 10.8445, -54.4746, 10.8447, -174.318, 10.8184, 65.6234, 0.051985, 61.2571
2, 600.00000, 125.688, -31.4006, 125.686, -151.244, 125.992, 88.6973, 0, 0, 10.8445, -54.4746, 10.8447, -174.318, 10.8184, 65.6234, 0.051985, 61.2571
2, 660.00000, 125.688, -31.4006, 125.686, -151.244, 125.992, 88.6973, 0, 0, 10.8445, -54.4746, 10.8447, -174.318, 10.8184, 65.6234, 0.051985, 61.2571
2, 720.00000, 125.688, -31.4006, 125.686, -151.244, 125.992, 88.6973, 0, 0, 10.8445, -54.4746, 10.8447, -174.318, 10.8184, 65.6234, 0.051985, 61.2571
