hour,t(sec),V1,VAngle1,V2,VAngle2,V3,VAngle3,V4,VAngle4,I1,IAngle1,I2,IAngle2,I3,IAngle3,I4,IAngle4
0, 60.00000, 114.796, -30.4146, 119.156, -151.139, 115.862, 87.5696, 0, 0, 8.90329, -53.4884, 9.28018, -174.213, 8.99551, 64.496, 0.0680406, -23.6612
0, 120.00000, 114.796, -30.4146, 119.156, -151.139, 115.862, 87.5696, 0, 0, 8.90324, -53.4886, 9.28014, -174.213, 8.99542, 64.4957, 0.0680268, -23.6183
0, 180.00000, 114.796, -30.4146, 119.156, -151.139, 115.862, 87.5696, 0, 0, 8.90324, -53.4886, 9.28014, -174.213, 8.99542, 64.4957, 0.0680267, -23.6182
0, 240.00000, 114.796, -30.4146, 119.156, -151.139, 115.862, 87.5696, 0, 0, 8.90324, -53.4886, 9.28014, -174.213, 8.99542, 64.4957, 0.0680267, -23.6182
0, 300.00000, 114.796, -30.4146, 119.156, -151.139, 115.862, 87.5696, 0, 0, 8.90324, -53.4886, 9.28014, -174.213, 8.99542, 64.4957, 0.0680267, -23.6182
0, 360.00000, 114.796, -30.4146, 119.156, -151.139, 115.862, 87.5696, 0, 0, 8.90324, -53.4886, 9.28014, -174.213, 8.99542, 64.4957, 0.0680267, -23.6182
0, 420.00000, 114.796, -30.4146, 119.156, -151.139, 115.862, 87.5696, 0, 0, 8.90324, -53.4886, 9.28014, -174.213, 8.99542, 64.4957, 0.0680267, -23.6182
0, 480.00000, 115.791, -30.3227, 120.164, -151.058, 116.798, 87.668, 0, 0, 7.82067, -53.3967, 8.14945, -174.132, 7.89634, 64.5936, 0.0595718, -20.7955
0, 540.00000, 115.791, -30.3227, 120.164, -151.058, 116.798, 87.6681, 0, 0, 7.82072, -53.3966, 8.14956, -174.131, 7.89639, 64.5941, 0.0596742, -20.751
0, 600.00000, 115.791, -30.3227, 120.164, -151.058, 116.798, 87.6681, 0, 0, 7.82072, -53.3966, 8.14956, -174.131, 7.89639, 64.5941, 0.0596744, -20.7508
0, 660.00000, 115.791, -30.3227, 120.164, -151.058, 116.798, 87.6681, 0, 0, 7.82072, -53.3966, 8.14956, -174.131, 7.89639, 64.5941, 0.0596744, -20.7508
0, 720.00000, 115.791, -30.3227, 120.164, -151.058, 116.798, 87.6681, 0, 0, 7.82072, -53.3966, 8.14956, -174.131, 7.89639, 64.5941, 0.0596744, -20.7508
0, 780.00000, 115.791, -30.3227, 120.164, -151.058, 116.798, 87.6681, 0, 0, 7.82072, -53.3966, 8.14956, -174.131, 7.89639, 64.5941, 0.0596744, -20.7508
0, 840.00000, 115.791, -30.3227, 120.164, -151.058, 116.798, 87.6681, 0, 0, 7.82072, -53.3966, 8.14956, -174.131, 7.89639, 64.5941, 0.0596744, -20.7508
0, 900.00000, 115.791, -30.3227, 120.164, -151.058, 116.798, 87.6681, 0, 0, 7.82072, -53.3966, 8.14956, -174.131, 7.89639, 64.5941, 0.0596744, -20.7508
0, 960.00000, 115.278, -30.2959, 120.159, -151.056, 116.512, 87.458, 0, 0, 7.78215, -53.3698, 8.14919, -174.13, 7.87496, 64.3843, 0.0627481, -20.8278
0, 1020.00000, 115.278, -30.2959, 120.159, -151.056, 116.512, 87.458, 0, 0, 7.78211, -53.3698, 8.1492, -174.13, 7.87493, 64.3841, 0.0627662, -20.8117
0, 1080.00000, 115.278, -30.2959, 120.159, -151.056, 116.512, 87.458, 0, 0, 7.78211, -53.3698, 8.1492, -174.13, 7.87493, 64.3841, 0.0627662, -20.8116
0, 1140.00000, 115.278, -30.2959, 120.159, -151.056, 116.512, 87.458, 0, 0, 7.78211, -53.3698, 8.1492, -174.13, 7.87493, 64.3841, 0.0627662, -20.8116
0, 1200.00000, 115.278, -30.2959, 120.159, -151.056, 116.512, 87.458, 0, 0, 7.78211, -53.3698, 8.1492, -174.13, 7.87493, 64.3841, 0.0627662, -20.8116
0, 1260.00000, 115.278, -30.2959, 120.159, -151.056, 116.512, 87.458, 0, 0, 7.78211, -53.3698, 8.1492, -174.13, 7.87493, 64.3841, 0.0627662, -20.8116
0, 1320.00000, 115.278, -30.2959, 120.159, -151.056, 116.512, 87.458, 0, 0, 7.78211, -53.3698, 8.1492, -174.13, 7.87493, 64.3841, 0.0627662, -20.8116
0, 1380.00000, 115.278, -30.2959, 120.159, -151.056, 116.512, 87.458, 0, 0, 7.78211, -53.3698, 8.1492, -174.13, 7.87493, 64.3841, 0.0627662, -20.8116
0, 1440.00000, 115.278, -30.2959, 120.159, -151.056, 116.512, 87.458, 0, 0, 7.78211, -53.3698, 8.1492, -174.13, 7.87493, 64.3841, 0.0627662, -20.8116
0, 1500.00000, 115.278, -30.2959, 120.159, -151.056, 116.512, 87.458, 0, 0, 7.78211, -53.3698, 8.1492, -174.13, 7.87493, 64.3841, 0.0627662, -20.8116
0, 1560.00000, 115.278, -30.2959, 120.159, -151.056, 116.512, 87.458, 0, 0, 7.78211, -53.3698, 8.1492, -174.13, 7.87493, 64.3841, 0.0627662, -20.8116
0, 1620.00000, 115.278, -30.2959, 120.159, -151.056, 116.512, 87.458, 0, 0, 7.78211, -53.3698, 8.1492, -174.13, 7.87493, 64.3841, 0.0627662, -20.8116
0, 1680.00000, 115.278, -30.2959, 120.159, -151.056, 116.512, 87.458, 0, 0, 7.78211, -53.3698, 8.1492, -174.13, 7.87493, 64.3841, 0.0627662, -20.8116
0, 1740.00000, 115.278, -30.2959, 120.159, -151.056, 116.512, 87.458, 0, 0, 7.78211, -53.3698, 8.1492, -174.13, 7.87493, 64.3841, 0.0627662, -20.8116
0, 1800.00000, 114.737, -30.2593, 120.154, -151.055, 116.197, 87.2361, 0, 0, 7.74149, -53.3331, 8.14876, -174.129, 7.85122, 64.1624, 0.065595, -20.684
0, 1860.00000, 114.737, -30.2593, 120.154, -151.055, 116.197, 87.2361, 0, 0, 7.74143, -53.3332, 8.14877, -174.129, 7.85119, 64.1622, 0.0656146, -20.6763
0, 1920.00000, 114.737, -30.2593, 120.154, -151.055, 116.197, 87.2361, 0, 0, 7.74143, -53.3332, 8.14877, -174.129, 7.85119, 64.1622, 0.0656146, -20.6762
0, 1980.00000, 114.737, -30.2593, 120.154, -151.055, 116.197, 87.2361, 0, 0, 7.74143, -53.3332, 8.14877, -174.129, 7.85119, 64.1622, 0.0656146, -20.6762
0, 2040.00000, 114.737, -30.2593, 120.154, -151.055, 116.197, 87.2361, 0, 0, 7.74143, -53.3332, 8.14877, -174.129, 7.85119, 64.1622, 0.0656146, -20.6762
0, 2100.00000, 114.737, -30.2593, 120.154, -151.055, 116.197, 87.2361, 0, 0, 7.74143, -53.3332, 8.14877, -174.129, 7.85119, 64.1622, 0.0656146, -20.6762
0, 2160.00000, 114.737, -30.2593, 120.154, -151.055, 116.197, 87.2361, 0, 0, 7.74143, -53.3332, 8.14877, -174.129, 7.85119, 64.1622, 0.0656146, -20.6762
0, 2220.00000, 114.737, -30.2593, 120.154, -151.055, 116.197, 87.2361, 0, 0, 7.74143, -53.3332, 8.14877, -174.129, 7.85119, 64.1622, 0.0656146, -20.6762
0, 2280.00000, 114.737, -30.2593, 120.154, -151.055, 116.197, 87.2361, 0, 0, 7.74143, -53.3332, 8.14877, -174.129, 7.85119, 64.1622, 0.0656146, -20.6762
0, 2340.00000, 114.737, -30.2593, 120.154, -151.055, 116.197, 87.2361, 0, 0, 7.74143, -53.3332, 8.14877, -174.129, 7.85119, 64.1622, 0.0656146, -20.6762
0, 2400.00000, 114.737, -30.2593, 120.154, -151.055, 116.197, 87.2361, 0, 0, 7.74143, -53.3332, 8.14877, -174.129, 7.85119, 64.1622, 0.0656146, -20.6762
0, 2460.00000, 114.737, -30.2593, 120.154, -151.055, 116.197, 87.2361, 0, 0, 7.74143, -53.3332, 8.14877, -174.129, 7.85119, 64.1622, 0.0656146, -20.6762
0, 2520.00000, 114.737, -30.2593, 120.154, -151.055, 116.197, 87.2361, 0, 0, 7.74143, -53.3332, 8.14877, -174.129, 7.85119, 64.1622, 0.0656146, -20.6762
0, 2580.00000, 114.737, -30.2593, 120.154, -151.055, 116.197, 87.2361, 0, 0, 7.74143, -53.3332, 8.14877, -174.129, 7.85119, 64.1622, 0.0656146, -20.6762
0, 2640.00000, 114.737, -30.2593, 120.154, -151.055, 116.197, 87.2361, 0, 0, 7.74143, -53.3332, 8.14877, -174.129, 7.85119, 64.1622, 0.0656146, -20.6762
0, 2700.00000, 114.737, -30.2593, 120.154, -151.055, 116.197, 87.2361, 0, 0, 7.74143, -53.3332, 8.14877, -174.129, 7.85119, 64.1622, 0.0656146, -20.6762
0, 2760.00000, 115.021, -30.2321, 120.154, -151.055, 116.289, 87.3716, 0, 0, 7.76274, -53.3062, 8.14882, -174.129, 7.85807, 64.2974, 0.063622, -20.7608
0, 2820.00000, 115.021, -30.2321, 120.154, -151.055, 116.289, 87.3716, 0, 0, 7.76278, -53.306, 8.14882, -174.129, 7.85812, 64.2977, 0.0636093, -20.8122
0, 2880.00000, 115.021, -30.2321, 120.154, -151.055, 116.289, 87.3716, 0, 0, 7.76278, -53.306, 8.14882, -174.129, 7.85812, 64.2977, 0.0636093, -20.8126
0, 2940.00000, 115.021, -30.2321, 120.154, -151.055, 116.289, 87.3716, 0, 0, 7.76278, -53.306, 8.14882, -174.129, 7.85812, 64.2977, 0.0636093, -20.8126
0, 3000.00000, 115.021, -30.2321, 120.154, -151.055, 116.289, 87.3716, 0, 0, 7.76278, -53.306, 8.14882, -174.129, 7.85812, 64.2977, 0.0636093, -20.8126
0, 3060.00000, 115.021, -30.2321, 120.154, -151.055, 116.289, 87.3716, 0, 0, 7.76278, -53.306, 8.14882, -174.129, 7.85812, 64.2977, 0.0636093, -20.8126
0, 3120.00000, 115.021, -30.2321, 120.154, -151.055, 116.289, 87.3716, 0, 0, 7.76278, -53.306, 8.14882, -174.129, 7.85812, 64.2977, 0.0636093, -20.8126
0, 3180.00000, 115.021, -30.2321, 120.154, -151.055, 116.289, 87.3716, 0, 0, 7.76278, -53.306, 8.14882, -174.129, 7.85812, 64.2977, 0.0636093, -20.8126
0, 3240.00000, 115.021, -30.2321, 120.154, -151.055, 116.289, 87.3716, 0, 0, 7.76278, -53.306, 8.14882, -174.129, 7.85812, 64.2977, 0.0636093, -20.8126
0, 3300.00000, 115.021, -30.2321, 120.154, -151.055, 116.289, 87.3716, 0, 0, 7.76278, -53.306, 8.14882, -174.129, 7.85812, 64.2977, 0.0636093, -20.8126
0, 3360.00000, 115.021, -30.2321, 120.154, -151.055, 116.289, 87.3716, 0, 0, 7.76278, -53.306, 8.14882, -174.129, 7.85812, 64.2977, 0.0636093, -20.8126
0, 3420.00000, 115.021, -30.2321, 120.154, -151.055, 116.289, 87.3716, 0, 0, 7.76278, -53.306, 8.14882, -174.129, 7.85812, 64.2977, 0.0636093, -20.8126
0, 3480.00000, 115.021, -30.2321, 120.154, -151.055, 116.289, 87.3716, 0, 0, 7.76278, -53.306, 8.14882, -174.129, 7.85812, 64.2977, 0.0636093, -20.8126
0, 3540.00000, 115.021, -30.2321, 120.154, -151.055, 116.289, 87.3716, 0, 0, 7.76278, -53.306, 8.14882, -174.129, 7.85812, 64.2977, 0.0636093, -20.8126
1, 0.00000, 115.021, -30.2321, 120.154, -151.055, 116.289, 87.3716, 0, 0, 7.76278, -53.306, 8.14882, -174.129, 7.85812, 64.2977, 0.0636093, -20.8126
1, 60.00000, 115.291, -30.2035, 120.155, -151.055, 116.37, 87.5013, 0, 0, 7.78308, -53.2776, 8.1489, -174.129, 7.8642, 64.4272, 0.0617044, -20.7141
1, 120.00000, 115.291, -30.2035, 120.155, -151.055, 116.37, 87.5013, 0, 0, 7.78311, -53.2775, 8.1489, -174.129, 7.86423, 64.4273, 0.0616871, -20.7467
1, 180.00000, 115.291, -30.2035, 120.155, -151.055, 116.37, 87.5013, 0, 0, 7.78311, -53.2775, 8.1489, -174.129, 7.86423, 64.4273, 0.061687, -20.7469
1, 240.00000, 115.291, -30.2035, 120.155, -151.055, 116.37, 87.5013, 0, 0, 7.78311, -53.2775, 8.1489, -174.129, 7.86423, 64.4273, 0.061687, -20.7469
1, 300.00000, 115.291, -30.2035, 120.155, -151.055, 116.37, 87.5013, 0, 0, 7.78311, -53.2775, 8.1489, -174.129, 7.86423, 64.4273, 0.061687, -20.7469
1, 360.00000, 115.291, -30.2035, 120.155, -151.055, 116.37, 87.5013, 0, 0, 7.78311, -53.2775, 8.1489, -174.129, 7.86423, 64.4273, 0.061687, -20.7469
1, 420.00000, 115.291, -30.2035, 120.155, -151.055, 116.37, 87.5013, 0, 0, 7.78311, -53.2775, 8.1489, -174.129, 7.86423, 64.4273, 0.061687, -20.7469
1, 480.00000, 115.291, -30.2035, 120.155, -151.055, 116.37, 87.5013, 0, 0, 7.78311, -53.2775, 8.1489, -174.129, 7.86423, 64.4273, 0.061687, -20.7469
1, 540.00000, 115.291, -30.2035, 120.155, -151.055, 116.37, 87.5013, 0, 0, 7.78311, -53.2775, 8.1489, -174.129, 7.86423, 64.4273, 0.061687, -20.7469
1, 600.00000, 115.291, -30.2035, 120.155, -151.055, 116.37, 87.5013, 0, 0, 7.78311, -53.2775, 8.1489, -174.129, 7.86423, 64.4273, 0.061687, -20.7469
1, 660.00000, 115.291, -30.2035, 120.155, -151.055, 116.37, 87.5013, 0, 0, 7.78311, -53.2775, 8.1489, -174.129, 7.86423, 64.4273, 0.061687, -20.7469
1, 720.00000, 115.291, -30.2035, 120.155, -151.055, 116.37, 87.5013, 0, 0, 7.78311, -53.2775, 8.1489, -174.129, 7.86423, 64.4273, 0.061687, -20.7469
1, 780.00000, 116.975, -30.6025, 120.117, -151.064, 117.954, 88.0148, 0, 0, 7.90967, -53.6766, 8.14598, -174.138, 7.98334, 64.9407, 0.0457525, -36.5414
1, 840.00000, 116.975, -30.6025, 120.117, -151.064, 117.954, 88.0148, 0, 0, 7.90974, -53.6765, 8.14598, -174.138, 7.98337, 64.9409, 0.045721, -36.5673
1, 900.00000, 116.975, -30.6025, 120.117, -151.064, 117.954, 88.0148, 0, 0, 7.90974, -53.6765, 8.14598, -174.138, 7.98337, 64.9409, 0.0457208, -36.5675
1, 960.00000, 116.975, -30.6025, 120.117, -151.064, 117.954, 88.0148, 0, 0, 7.90974, -53.6765, 8.14598, -174.138, 7.98337, 64.9409, 0.0457208, -36.5675
1, 1020.00000, 116.975, -30.6025, 120.117, -151.064, 117.954, 88.0148, 0, 0, 7.90974, -53.6765, 8.14598, -174.138, 7.98337, 64.9409, 0.0457208, -36.5675
1, 1080.00000, 116.975, -30.6025, 120.117, -151.064, 117.954, 88.0148, 0, 0, 7.90974, -53.6765, 8.14598, -174.138, 7.98337, 64.9409, 0.0457208, -36.5675
1, 1140.00000, 116.975, -30.6025, 120.117, -151.064, 117.954, 88.0148, 0, 0, 7.90974, -53.6765, 8.14598, -174.138, 7.98337, 64.9409, 0.0457208, -36.5675
1, 1200.00000, 116.975, -30.6025, 120.117, -151.064, 117.954, 88.0148, 0, 0, 7.90974, -53.6765, 8.14598, -174.138, 7.98337, 64.9409, 0.0457208, -36.5675
1, 1260.00000, 116.975, -30.6025, 120.117, -151.064, 117.954, 88.0148, 0, 0, 7.90974, -53.6765, 8.14598, -174.138, 7.98337, 64.9409, 0.0457208, -36.5675
1, 1320.00000, 116.975, -30.6025, 120.117, -151.064, 117.954, 88.0148, 0, 0, 7.90974, -53.6765, 8.14598, -174.138, 7.98337, 64.9409, 0.0457208, -36.5675
1, 1380.00000, 116.975, -30.6025, 120.117, -151.064, 117.954, 88.0148, 0, 0, 7.90974, -53.6765, 8.14598, -174.138, 7.98337, 64.9409, 0.0457208, -36.5675
1, 1440.00000, 116.975, -30.6025, 120.117, -151.064, 117.954, 88.0148, 0, 0, 7.90974, -53.6765, 8.14598, -174.138, 7.98337, 64.9409, 0.0457208, -36.5675
1, 1500.00000, 116.975, -30.6025, 120.117, -151.064, 117.954, 88.0148, 0, 0, 7.90974, -53.6765, 8.14598, -174.138, 7.98337, 64.9409, 0.0457208, -36.5675
1, 1560.00000, 116.975, -30.6025, 120.117, -151.064, 117.954, 88.0148, 0, 0, 7.90974, -53.6765, 8.14598, -174.138, 7.98337, 64.9409, 0.0457208, -36.5675
1, 1620.00000, 116.975, -30.6025, 120.117, -151.064, 117.954, 88.0148, 0, 0, 7.90974, -53.6765, 8.14598, -174.138, 7.98337, 64.9409, 0.0457208, -36.5675
1, 1680.00000, 116.975, -30.6025, 120.117, -151.064, 117.954, 88.0148, 0, 0, 7.90974, -53.6765, 8.14598, -174.138, 7.98337, 64.9409, 0.0457208, -36.5675
1, 1740.00000, 116.975, -30.6025, 120.117, -151.064, 117.954, 88.0148, 0, 0, 7.90974, -53.6765, 8.14598, -174.138, 7.98337, 64.9409, 0.0457208, -36.5675
1, 1800.00000, 116.975, -30.6025, 120.117, -151.064, 117.954, 88.0148, 0, 0, 7.90974, -53.6765, 8.14598, -174.138, 7.98337, 64.9409, 0.0457208, -36.5675
1, 1860.00000, 116.975, -30.6025, 120.117, -151.064, 117.954, 88.0148, 0, 0, 7.90974, -53.6765, 8.14598, -174.138, 7.98337, 64.9409, 0.0457208, -36.5675
1, 1920.00000, 116.975, -30.6025, 120.117, -151.064, 117.954, 88.0148, 0, 0, 7.90974, -53.6765, 8.14598, -174.138, 7.98337, 64.9409, 0.0457208, -36.5675
1, 1980.00000, 116.975, -30.6025, 120.117, -151.064, 117.954, 88.0148, 0, 0, 7.90974, -53.6765, 8.14598, -174.138, 7.98337, 64.9409, 0.0457208, -36.5675
1, 2040.00000, 116.975, -30.6025, 120.117, -151.064, 117.954, 88.0148, 0, 0, 7.90974, -53.6765, 8.14598, -174.138, 7.98337, 64.9409, 0.0457208, -36.5675
1, 2100.00000, 116.975, -30.6025, 120.117, -151.064, 117.954, 88.0148, 0, 0, 7.90974, -53.6765, 8.14598, -174.138, 7.98337, 64.9409, 0.0457208, -36.5675
1, 2160.00000, 116.975, -30.6025, 120.117, -151.064, 117.954, 88.0148, 0, 0, 7.90974, -53.6765, 8.14598, -174.138, 7.98337, 64.9409, 0.0457208, -36.5675
1, 2220.00000, 117.546, -30.6338, 120.121, -151.065, 118.281, 88.2383, 0, 0, 7.9526, -53.7079, 8.14628, -174.138, 8.00792, 65.1642, 0.0417408, -37.6401
1, 2280.00000, 117.546, -30.6338, 120.121, -151.065, 118.281, 88.2383, 0, 0, 7.95266, -53.7077, 8.14628, -174.138, 8.00794, 65.1644, 0.0416954, -37.6735
1, 2340.00000, 117.546, -30.6338, 120.121, -151.065, 118.281, 88.2383, 0, 0, 7.95266, -53.7077, 8.14628, -174.138, 8.00794, 65.1644, 0.0416952, -37.6737
1, 2400.00000, 117.546, -30.6338, 120.121, -151.065, 118.281, 88.2383, 0, 0, 7.95266, -53.7077, 8.14628, -174.138, 8.00794, 65.1644, 0.0416952, -37.6737
1, 2460.00000, 117.546, -30.6338, 120.121, -151.065, 118.281, 88.2383, 0, 0, 7.95266, -53.7077, 8.14628, -174.138, 8.00794, 65.1644, 0.0416952, -37.6737
1, 2520.00000, 117.546, -30.6338, 120.121, -151.065, 118.281, 88.2383, 0, 0, 7.95266, -53.7077, 8.14628, -174.138, 8.00794, 65.1644, 0.0416952, -37.6737
1, 2580.00000, 117.546, -30.6338, 120.121, -151.065, 118.281, 88.2383, 0, 0, 7.95266, -53.7077, 8.14628, -174.138, 8.00794, 65.1644, 0.0416952, -37.6737
1, 2640.00000, 117.546, -30.6338, 120.121, -151.065, 118.281, 88.2383, 0, 0, 7.95266, -53.7077, 8.14628, -174.138, 8.00794, 65.1644, 0.0416952, -37.6737
1, 2700.00000, 117.546, -30.6338, 120.121, -151.065, 118.281, 88.2383, 0, 0, 7.95266, -53.7077, 8.14628, -174.138, 8.00794, 65.1644, 0.0416952, -37.6737
1, 2760.00000, 117.546, -30.6338, 120.121, -151.065, 118.281, 88.2383, 0, 0, 7.95266, -53.7077, 8.14628, -174.138, 8.00794, 65.1644, 0.0416952, -37.6737
1, 2820.00000, 117.546, -30.6338, 120.121, -151.065, 118.281, 88.2383, 0, 0, 7.95266, -53.7077, 8.14628, -174.138, 8.00794, 65.1644, 0.0416952, -37.6737
1, 2880.00000, 117.546, -30.6338, 120.121, -151.065, 118.281, 88.2383, 0, 0, 7.95266, -53.7077, 8.14628, -174.138, 8.00794, 65.1644, 0.0416952, -37.6737
1, 2940.00000, 117.546, -30.6338, 120.121, -151.065, 118.281, 88.2383, 0, 0, 7.95266, -53.7077, 8.14628, -174.138, 8.00794, 65.1644, 0.0416952, -37.6737
1, 3000.00000, 117.546, -30.6338, 120.121, -151.065, 118.281, 88.2383, 0, 0, 7.95266, -53.7077, 8.14628, -174.138, 8.00794, 65.1644, 0.0416952, -37.6737
1, 3060.00000, 117.546, -30.6338, 120.121, -151.065, 118.281, 88.2383, 0, 0, 7.95266, -53.7077, 8.14628, -174.138, 8.00794, 65.1644, 0.0416952, -37.6737
1, 3120.00000, 117.546, -30.6338, 120.121, -151.065, 118.281, 88.2383, 0, 0, 7.95266, -53.7077, 8.14628, -174.138, 8.00794, 65.1644, 0.0416952, -37.6737
1, 3180.00000, 117.546, -30.6338, 120.121, -151.065, 118.281, 88.2383, 0, 0, 7.95266, -53.7077, 8.14628, -174.138, 8.00794, 65.1644, 0.0416952, -37.6737
1, 3240.00000, 117.546, -30.6338, 120.121, -151.065, 118.281, 88.2383, 0, 0, 7.95266, -53.7077, 8.14628, -174.138, 8.00794, 65.1644, 0.0416952, -37.6737
1, 3300.00000, 117.546, -30.6338, 120.121, -151.065, 118.281, 88.2383, 0, 0, 7.95266, -53.7077, 8.14628, -174.138, 8.00794, 65.1644, 0.0416952, -37.6737
1, 3360.00000, 117.546, -30.6338, 120.121, -151.065, 118.281, 88.2383, 0, 0, 7.95266, -53.7077, 8.14628, -174.138, 8.00794, 65.1644, 0.0416952, -37.6737
1, 3420.00000, 117.546, -30.6338, 120.121, -151.065, 118.281, 88.2383, 0, 0, 7.95266, -53.7077, 8.14628, -174.138, 8.00794, 65.1644, 0.0416952, -37.6737
1, 3480.00000, 117.546, -30.6338, 120.121, -151.065, 118.281, 88.2383, 0, 0, 7.95266, -53.7077, 8.14628, -174.138, 8.00794, 65.1644, 0.0416952, -37.6737
1, 3540.00000, 117.546, -30.6338, 120.121, -151.065, 118.281, 88.2383, 0, 0, 7.95266, -53.7077, 8.14628, -174.138, 8.00794, 65.1644, 0.0416952, -37.6737
2, 0.00000, 117.546, -30.6338, 120.121, -151.065, 118.281, 88.2383, 0, 0, 7.95266, -53.7077, 8.14628, -174.138, 8.00794, 65.1644, 0.0416952, -37.6737
2, 60.00000, 117.546, -30.6338, 120.121, -151.065, 118.281, 88.2383, 0, 0, 7.95266, -53.7077, 8.14628, -174.138, 8.00794, 65.1644, 0.0416952, -37.6737
2, 120.00000, 117.546, -30.6338, 120.121, -151.065, 118.281, 88.2383, 0, 0, 7.95266, -53.7077, 8.14628, -174.138, 8.00794, 65.1644, 0.0416952, -37.6737
2, 180.00000, 117.546, -30.6338, 120.121, -151.065, 118.281, 88.2383, 0, 0, 7.95266, -53.7077, 8.14628, -174.138, 8.00794, 65.1644, 0.0416952, -37.6737
2, 240.00000, 117.546, -30.6338, 120.121, -151.065, 118.281, 88.2383, 0, 0, 7.95266, -53.7077, 8.14628, -174.138, 8.00794, 65.1644, 0.0416952, -37.6737
2, 300.00000, 117.546, -30.6338, 120.121, -151.065, 118.281, 88.2383, 0, 0, 7.95266, -53.7077, 8.14628, -174.138, 8.00794, 65.1644, 0.0416952, -37.6737
2, 360.00000, 117.546, -30.6338, 120.121, -151.065, 118.281, 88.2383, 0, 0, 7.95266, -53.7077, 8.14628, -174.138, 8.00794, 65.1644, 0.0416952, -37.6737
2, 420.00000, 117.546, -30.6338, 120.121, -151.065, 118.281, 88.2383, 0, 0, 7.95266, -53.7077, 8.14628, -174.138, 8.00794, 65.1644, 0.0416952, -37.6737
2, 480.00000, 117.546, -30.6338, 120.121, -151.065, 118.281, 88.2383, 0, 0, 7.95266, -53.7077, 8.14628, -174.138, 8.00794, 65.1644, 0.0416952, -37.6737
2, 540.00000, 117.546, -30.6338, 120.121, -151.065, 118.281, 88.2383, 0, 0, 7.95266, -53.7077, 8.14628, -174.138, 8.00794, 65.1644, 0.0416952, -37.6737
2, 600.00000, 117.546, -30.6338, 120.121, -151.065, 118.281, 88.2383, 0, 0, 7.95266, -53.7077, 8.14628, -174.138, 8.00794, 65.1644, 0.0416952, -37.6737
2, 660.00000, 117.546, -30.6338, 120.121, -151.065, 118.281, 88.2383, 0, 0, 7.95266, -53.7077, 8.14628, -174.138, 8.00794, 65.1644, 0.0416952, -37.6737
