hour,t(sec),V1,VAngle1,V2,VAngle2,V3,VAngle3,V4,VAngle4,I1,IAngle1,I2,IAngle2,I3,IAngle3,I4,IAngle4
0, 60.00000, 123.095, -31.3386, 125.928, -151.602, 123.968, 87.6563, 0, 0, 3.88673, -54.4121, 3.79947, -174.675, 3.85932, 64.5824, 0.138081, 168.457
0, 120.00000, 123.095, -31.3399, 125.957, -151.607, 123.969, 87.6438, 0, 0, 3.88676, -54.4135, 3.79857, -174.681, 3.85931, 64.5699, 0.139605, 168.584
0, 180.00000, 123.094, -31.3411, 125.983, -151.612, 123.969, 87.6326, 0, 0, 3.88679, -54.4147, 3.79777, -174.686, 3.85929, 64.5586, 0.140975, 168.696
0, 240.00000, 123.093, -31.3422, 126.007, -151.617, 123.97, 87.6224, 0, 0, 3.88682, -54.4158, 3.79705, -174.69, 3.85928, 64.5485, 0.142209, 168.796
0, 300.00000, 123.092, -31.3431, 126.028, -151.621, 123.97, 87.6133, 0, 0, 3.88684, -54.4168, 3.7964, -174.694, 3.85928, 64.5393, 0.143319, 168.885
0, 360.00000, 123.092, -31.344, 126.047, -151.625, 123.97, 87.605, 0, 0, 3.88686, -54.4176, 3.79581, -174.698, 3.85927, 64.5311, 0.144319, 168.965
0, 420.00000, 123.091, -31.3447, 126.064, -151.628, 123.971, 87.5976, 0, 0, 3.88688, -54.4184, 3.79529, -174.701, 3.85927, 64.5237, 0.145219, 169.036
0, 480.00000, 123.091, -31.3454, 126.08, -151.631, 123.971, 87.5909, 0, 0, 3.88689, -54.4192, 3.79481, -174.705, 3.85926, 64.517, 0.146029, 169.099
0, 540.00000, 123.09, -31.3461, 126.094, -151.634, 123.971, 87.5849, 0, 0, 3.88691, -54.4198, 3.79439, -174.707, 3.85926, 64.511, 0.146758, 169.156
0, 600.00000, 123.09, -31.3466, 126.106, -151.636, 123.971, 87.5795, 0, 0, 3.88692, -54.4204, 3.79401, -174.71, 3.85926, 64.5056, 0.147415, 169.207
0, 660.00000, 123.09, -31.3471, 126.117, -151.638, 123.972, 87.5747, 0, 0, 3.88693, -54.4209, 3.79366, -174.712, 3.85925, 64.5007, 0.148005, 169.252
0, 720.00000, 123.089, -31.3476, 126.128, -151.64, 123.972, 87.5703, 0, 0, 3.88694, -54.4214, 3.79335, -174.714, 3.85925, 64.4964, 0.148537, 169.293
0, 780.00000, 123.089, -31.348, 126.137, -151.642, 123.972, 87.5663, 0, 0, 3.88695, -54.4218, 3.79307, -174.716, 3.85925, 64.4924, 0.149016, 169.329
0, 840.00000, 123.089, -31.3484, 126.145, -151.644, 123.972, 87.5628, 0, 0, 3.88696, -54.4222, 3.79282, -174.717, 3.85925, 64.4889, 0.149447, 169.362
0, 900.00000, 123.089, -31.3487, 126.152, -151.645, 123.972, 87.5596, 0, 0, 3.88697, -54.4225, 3.7926, -174.719, 3.85925, 64.4857, 0.149834, 169.391
0, 960.00000, 122.938, -31.3792, 125.999, -151.676, 123.824, 87.5244, 0, 0, 4.11695, -54.4531, 4.01696, -174.75, 4.08747, 64.4505, 0.159021, 169.296
0, 1020.00000, 122.938, -31.3795, 126.005, -151.677, 123.824, 87.5219, 0, 0, 4.11696, -54.4533, 4.01677, -174.751, 4.08747, 64.4479, 0.15935, 169.32
0, 1080.00000, 122.937, -31.3797, 126.01, -151.678, 123.824, 87.5195, 0, 0, 4.11697, -54.4536, 4.0166, -174.752, 4.08747, 64.4456, 0.159649, 169.341
0, 1140.00000, 122.937, -31.3799, 126.015, -151.679, 123.824, 87.5174, 0, 0, 4.11697, -54.4538, 4.01644, -174.753, 4.08747, 64.4435, 0.159919, 169.36
0, 1200.00000, 122.937, -31.3801, 126.019, -151.68, 123.824, 87.5155, 0, 0, 4.11698, -54.454, 4.0163, -174.754, 4.08747, 64.4416, 0.160161, 169.377
0, 1260.00000, 122.937, -31.3803, 126.023, -151.681, 123.824, 87.5139, 0, 0, 4.11698, -54.4542, 4.01617, -174.754, 4.08747, 64.4399, 0.16038, 169.393
0, 1320.00000, 122.937, -31.3805, 126.027, -151.681, 123.824, 87.5123, 0, 0, 4.11699, -54.4544, 4.01606, -174.755, 4.08747, 64.4384, 0.160576, 169.407
0, 1380.00000, 122.937, -31.3806, 126.03, -151.682, 123.824, 87.5109, 0, 0, 4.11699, -54.4545, 4.01595, -174.756, 4.08747, 64.437, 0.160753, 169.419
0, 1440.00000, 122.937, -31.3808, 126.033, -151.682, 123.824, 87.5097, 0, 0, 4.11699, -54.4546, 4.01586, -174.756, 4.08747, 64.4358, 0.160912, 169.431
0, 1500.00000, 122.937, -31.3809, 126.036, -151.683, 123.824, 87.5086, 0, 0, 4.11699, -54.4548, 4.01578, -174.757, 4.08747, 64.4347, 0.161055, 169.441
0, 1560.00000, 122.937, -31.381, 126.038, -151.683, 123.824, 87.5076, 0, 0, 4.117, -54.4549, 4.0157, -174.757, 4.08747, 64.4337, 0.161184, 169.45
0, 1620.00000, 122.936, -31.3811, 126.04, -151.684, 123.824, 87.5067, 0, 0, 4.117, -54.455, 4.01564, -174.758, 4.08747, 64.4328, 0.1613, 169.458
0, 1680.00000, 122.936, -31.3812, 126.042, -151.684, 123.824, 87.5059, 0, 0, 4.117, -54.4551, 4.01557, -174.758, 4.08747, 64.432, 0.161405, 169.465
0, 1740.00000, 122.936, -31.3812, 126.044, -151.685, 123.824, 87.5052, 0, 0, 4.117, -54.4551, 4.01552, -174.758, 4.08747, 64.4312, 0.161499, 169.472
0, 1800.00000, 122.936, -31.3813, 126.045, -151.685, 123.824, 87.5045, 0, 0, 4.11701, -54.4552, 4.01547, -174.759, 4.08747, 64.4306, 0.161583, 169.478
0, 1860.00000, 123.054, -31.3611, 126.171, -151.666, 123.938, 87.5246, 0, 0, 4.12555, -54.435, 4.02364, -174.74, 4.09614, 64.4507, 0.162101, 169.615
0, 1920.00000, 123.054, -31.3612, 126.172, -151.666, 123.938, 87.5241, 0, 0, 4.12555, -54.4351, 4.0236, -174.74, 4.09614, 64.4501, 0.162172, 169.62
0, 1980.00000, 123.054, -31.3612, 126.174, -151.667, 123.938, 87.5236, 0, 0, 4.12556, -54.4351, 4.02356, -174.741, 4.09614, 64.4497, 0.162234, 169.624
0, 2040.00000, 123.054, -31.3613, 126.175, -151.667, 123.938, 87.5232, 0, 0, 4.12556, -54.4352, 4.02353, -174.741, 4.09614, 64.4492, 0.16229, 169.628
0, 2100.00000, 123.054, -31.3613, 126.175, -151.667, 123.938, 87.5228, 0, 0, 4.12556, -54.4352, 4.0235, -174.741, 4.09614, 64.4488, 0.16234, 169.632
0, 2160.00000, 123.054, -31.3614, 126.176, -151.667, 123.938, 87.5224, 0, 0, 4.12556, -54.4353, 4.02348, -174.741, 4.09614, 64.4485, 0.162385, 169.635
0, 2220.00000, 123.054, -31.3614, 126.177, -151.667, 123.938, 87.5221, 0, 0, 4.12556, -54.4353, 4.02345, -174.741, 4.09614, 64.4482, 0.162425, 169.637
0, 2280.00000, 123.054, -31.3614, 126.178, -151.667, 123.938, 87.5218, 0, 0, 4.12556, -54.4353, 4.02343, -174.741, 4.09614, 64.4479, 0.162462, 169.64
0, 2340.00000, 123.054, -31.3614, 126.178, -151.668, 123.938, 87.5216, 0, 0, 4.12556, -54.4354, 4.02341, -174.742, 4.09614, 64.4476, 0.162495, 169.642
0, 2400.00000, 123.054, -31.3615, 126.179, -151.668, 123.938, 87.5213, 0, 0, 4.12556, -54.4354, 4.0234, -174.742, 4.09614, 64.4474, 0.162524, 169.644
0, 2460.00000, 123.054, -31.3615, 126.179, -151.668, 123.938, 87.5211, 0, 0, 4.12556, -54.4354, 4.02338, -174.742, 4.09614, 64.4472, 0.162551, 169.646
0, 2520.00000, 123.054, -31.3615, 126.18, -151.668, 123.938, 87.5209, 0, 0, 4.12556, -54.4354, 4.02337, -174.742, 4.09614, 64.447, 0.162575, 169.648
0, 2580.00000, 123.054, -31.3615, 126.18, -151.668, 123.938, 87.5208, 0, 0, 4.12556, -54.4354, 4.02335, -174.742, 4.09614, 64.4468, 0.162596, 169.649
0, 2640.00000, 123.054, -31.3615, 126.18, -151.668, 123.938, 87.5206, 0, 0, 4.12556, -54.4355, 4.02334, -174.742, 4.09614, 64.4467, 0.162616, 169.651
0, 2700.00000, 123.054, -31.3616, 126.181, -151.668, 123.938, 87.5205, 0, 0, 4.12556, -54.4355, 4.02333, -174.742, 4.09614, 64.4466, 0.162633, 169.652
0, 2760.00000, 123.278, -31.3195, 126.416, -151.628, 124.155, 87.564, 0, 0, 3.91687, -54.3934, 3.81966, -174.702, 3.88919, 64.4901, 0.154484, 169.865
0, 2820.00000, 123.278, -31.3195, 126.416, -151.628, 124.155, 87.5639, 0, 0, 3.91687, -54.3934, 3.81965, -174.702, 3.88919, 64.49, 0.154502, 169.866
0, 2880.00000, 123.278, -31.3195, 126.416, -151.628, 124.155, 87.5638, 0, 0, 3.91687, -54.3934, 3.81964, -174.702, 3.88919, 64.4899, 0.154514, 169.867
0, 2940.00000, 123.278, -31.3195, 126.416, -151.628, 124.155, 87.5637, 0, 0, 3.91687, -54.3934, 3.81963, -174.702, 3.88919, 64.4898, 0.154525, 169.868
0, 3000.00000, 123.278, -31.3195, 126.417, -151.629, 124.155, 87.5636, 0, 0, 3.91687, -54.3934, 3.81963, -174.702, 3.88919, 64.4897, 0.154534, 169.869
0, 3060.00000, 123.278, -31.3195, 126.417, -151.629, 124.155, 87.5636, 0, 0, 3.91687, -54.3934, 3.81962, -174.702, 3.88919, 64.4896, 0.154543, 169.869
0, 3120.00000, 123.278, -31.3195, 126.417, -151.629, 124.155, 87.5635, 0, 0, 3.91687, -54.3934, 3.81962, -174.702, 3.88919, 64.4896, 0.154551, 169.87
0, 3180.00000, 123.278, -31.3195, 126.417, -151.629, 124.155, 87.5634, 0, 0, 3.91687, -54.3934, 3.81961, -174.703, 3.88919, 64.4895, 0.154558, 169.87
0, 3240.00000, 123.278, -31.3195, 126.417, -151.629, 124.155, 87.5634, 0, 0, 3.91687, -54.3934, 3.81961, -174.703, 3.88919, 64.4895, 0.154565, 169.871
0, 3300.00000, 123.278, -31.3195, 126.417, -151.629, 124.155, 87.5633, 0, 0, 3.91687, -54.3934, 3.81961, -174.703, 3.88919, 64.4894, 0.15457, 169.871
0, 3360.00000, 123.278, -31.3195, 126.417, -151.629, 124.155, 87.5633, 0, 0, 3.91687, -54.3934, 3.8196, -174.703, 3.88919, 64.4894, 0.154576, 169.872
0, 3420.00000, 123.278, -31.3195, 126.417, -151.629, 124.155, 87.5632, 0, 0, 3.91687, -54.3935, 3.8196, -174.703, 3.88919, 64.4893, 0.15458, 169.872
0, 3480.00000, 123.278, -31.3195, 126.417, -151.629, 124.155, 87.5632, 0, 0, 3.91687, -54.3935, 3.8196, -174.703, 3.88919, 64.4893, 0.154585, 169.872
0, 3540.00000, 123.278, -31.3195, 126.418, -151.629, 124.155, 87.5632, 0, 0, 3.91687, -54.3935, 3.8196, -174.703, 3.88919, 64.4893, 0.154588, 169.873
1, 0.00000, 123.278, -31.3195, 126.418, -151.629, 124.155, 87.5632, 0, 0, 3.91687, -54.3935, 3.81959, -174.703, 3.88919, 64.4892, 0.154592, 169.873
1, 60.00000, 123.445, -31.2897, 126.59, -151.601, 124.316, 87.5942, 0, 0, 3.86586, -54.3636, 3.7698, -174.675, 3.83876, 64.5203, 0.152576, 170.04
1, 120.00000, 123.445, -31.2897, 126.59, -151.601, 124.316, 87.5942, 0, 0, 3.86586, -54.3636, 3.76979, -174.675, 3.83876, 64.5202, 0.152581, 170.041
1, 180.00000, 123.445, -31.2897, 126.59, -151.601, 124.316, 87.5941, 0, 0, 3.86586, -54.3636, 3.76979, -174.675, 3.83876, 64.5202, 0.152583, 170.041
1, 240.00000, 123.445, -31.2897, 126.59, -151.601, 124.316, 87.5941, 0, 0, 3.86586, -54.3636, 3.76979, -174.675, 3.83876, 64.5202, 0.152586, 170.041
1, 300.00000, 123.445, -31.2897, 126.59, -151.601, 124.316, 87.5941, 0, 0, 3.86586, -54.3636, 3.76979, -174.675, 3.83876, 64.5202, 0.152588, 170.041
1, 360.00000, 123.445, -31.2897, 126.59, -151.601, 124.316, 87.5941, 0, 0, 3.86586, -54.3636, 3.76979, -174.675, 3.83876, 64.5202, 0.152589, 170.041
1, 420.00000, 123.445, -31.2897, 126.59, -151.601, 124.316, 87.5941, 0, 0, 3.86586, -54.3636, 3.76979, -174.675, 3.83876, 64.5202, 0.152591, 170.041
1, 480.00000, 123.445, -31.2897, 126.59, -151.601, 124.316, 87.5941, 0, 0, 3.86586, -54.3636, 3.76979, -174.675, 3.83876, 64.5202, 0.152593, 170.041
1, 540.00000, 123.445, -31.2897, 126.59, -151.601, 124.316, 87.5941, 0, 0, 3.86586, -54.3636, 3.76979, -174.675, 3.83876, 64.5201, 0.152594, 170.042
1, 600.00000, 123.445, -31.2897, 126.59, -151.601, 124.316, 87.5941, 0, 0, 3.86586, -54.3636, 3.76979, -174.675, 3.83876, 64.5201, 0.152595, 170.042
1, 660.00000, 123.445, -31.2897, 126.591, -151.601, 124.316, 87.594, 0, 0, 3.86586, -54.3636, 3.76979, -174.675, 3.83876, 64.5201, 0.152596, 170.042
1, 720.00000, 123.445, -31.2897, 126.591, -151.601, 124.316, 87.594, 0, 0, 3.86586, -54.3636, 3.76978, -174.675, 3.83876, 64.5201, 0.152597, 170.042
1, 780.00000, 123.445, -31.2897, 126.591, -151.601, 124.316, 87.594, 0, 0, 3.86586, -54.3636, 3.76978, -174.675, 3.83876, 64.5201, 0.152598, 170.042
1, 840.00000, 123.445, -31.2897, 126.591, -151.601, 124.316, 87.594, 0, 0, 3.86586, -54.3636, 3.76978, -174.675, 3.83876, 64.5201, 0.152599, 170.042
1, 900.00000, 123.445, -31.2897, 126.591, -151.601, 124.316, 87.594, 0, 0, 3.86586, -54.3636, 3.76978, -174.675, 3.83876, 64.5201, 0.152599, 170.042
1, 960.00000, 123.469, -31.2851, 126.615, -151.597, 124.339, 87.5982, 0, 0, 3.84701, -54.3591, 3.75141, -174.671, 3.82008, 64.5243, 0.151877, 170.072
1, 1020.00000, 123.469, -31.2851, 126.615, -151.597, 124.339, 87.5982, 0, 0, 3.84701, -54.3591, 3.7514, -174.671, 3.82008, 64.5243, 0.15188, 170.072
1, 1080.00000, 123.469, -31.2851, 126.615, -151.597, 124.339, 87.5982, 0, 0, 3.84701, -54.3591, 3.7514, -174.671, 3.82008, 64.5243, 0.151881, 170.072
1, 1140.00000, 123.469, -31.2851, 126.615, -151.597, 124.339, 87.5982, 0, 0, 3.84701, -54.3591, 3.7514, -174.671, 3.82008, 64.5243, 0.151881, 170.072
1, 1200.00000, 123.469, -31.2851, 126.615, -151.597, 124.339, 87.5982, 0, 0, 3.84701, -54.3591, 3.7514, -174.671, 3.82008, 64.5243, 0.151882, 170.072
1, 1260.00000, 123.469, -31.2851, 126.615, -151.597, 124.339, 87.5982, 0, 0, 3.84701, -54.3591, 3.7514, -174.671, 3.82008, 64.5243, 0.151882, 170.072
1, 1320.00000, 123.469, -31.2851, 126.615, -151.597, 124.339, 87.5982, 0, 0, 3.84701, -54.3591, 3.7514, -174.671, 3.82008, 64.5243, 0.151882, 170.072
1, 1380.00000, 123.469, -31.2851, 126.615, -151.597, 124.339, 87.5982, 0, 0, 3.84701, -54.3591, 3.7514, -174.671, 3.82008, 64.5243, 0.151883, 170.072
1, 1440.00000, 123.469, -31.2851, 126.615, -151.597, 124.339, 87.5982, 0, 0, 3.84701, -54.3591, 3.7514, -174.671, 3.82008, 64.5243, 0.151883, 170.072
1, 1500.00000, 123.469, -31.2851, 126.615, -151.597, 124.339, 87.5982, 0, 0, 3.84701, -54.3591, 3.7514, -174.671, 3.82008, 64.5243, 0.151883, 170.072
1, 1560.00000, 123.469, -31.2851, 126.615, -151.597, 124.339, 87.5982, 0, 0, 3.84701, -54.3591, 3.7514, -174.671, 3.82008, 64.5243, 0.151883, 170.072
1, 1620.00000, 123.469, -31.2851, 126.616, -151.597, 124.339, 87.5982, 0, 0, 3.84701, -54.3591, 3.7514, -174.671, 3.82008, 64.5243, 0.151884, 170.072
1, 1680.00000, 123.469, -31.2851, 126.616, -151.597, 124.339, 87.5982, 0, 0, 3.84701, -54.3591, 3.7514, -174.671, 3.82008, 64.5243, 0.151884, 170.072
1, 1740.00000, 123.469, -31.2852, 126.616, -151.597, 124.339, 87.5982, 0, 0, 3.84701, -54.3591, 3.7514, -174.671, 3.82008, 64.5243, 0.151884, 170.072
1, 1800.00000, 123.469, -31.2852, 126.616, -151.597, 124.339, 87.5982, 0, 0, 3.84701, -54.3591, 3.7514, -174.671, 3.82008, 64.5243, 0.151884, 170.072
1, 1860.00000, 123.321, -31.3132, 126.463, -151.623, 124.195, 87.5688, 0, 0, 3.94452, -54.3871, 3.8465, -174.697, 3.91674, 64.4949, 0.155788, 169.936
1, 1920.00000, 123.321, -31.3132, 126.463, -151.623, 124.195, 87.5688, 0, 0, 3.94452, -54.3871, 3.84651, -174.697, 3.91674, 64.4949, 0.155786, 169.936
1, 1980.00000, 123.321, -31.3132, 126.463, -151.623, 124.195, 87.5688, 0, 0, 3.94452, -54.3871, 3.84651, -174.697, 3.91674, 64.4949, 0.155786, 169.936
1, 2040.00000, 123.321, -31.3132, 126.463, -151.623, 124.195, 87.5688, 0, 0, 3.94452, -54.3871, 3.84651, -174.697, 3.91674, 64.4949, 0.155786, 169.936
1, 2100.00000, 123.321, -31.3132, 126.463, -151.623, 124.195, 87.5688, 0, 0, 3.94452, -54.3871, 3.84651, -174.697, 3.91674, 64.4949, 0.155786, 169.936
1, 2160.00000, 123.321, -31.3132, 126.463, -151.623, 124.195, 87.5688, 0, 0, 3.94452, -54.3871, 3.84651, -174.697, 3.91674, 64.4949, 0.155786, 169.936
1, 2220.00000, 123.321, -31.3132, 126.463, -151.623, 124.195, 87.5688, 0, 0, 3.94452, -54.3871, 3.84651, -174.697, 3.91674, 64.4949, 0.155786, 169.936
1, 2280.00000, 123.321, -31.3132, 126.463, -151.623, 124.195, 87.5688, 0, 0, 3.94452, -54.3871, 3.84651, -174.697, 3.91674, 64.4949, 0.155786, 169.936
1, 2340.00000, 123.321, -31.3132, 126.463, -151.623, 124.195, 87.5688, 0, 0, 3.94452, -54.3871, 3.84651, -174.697, 3.91674, 64.4949, 0.155786, 169.936
1, 2400.00000, 123.321, -31.3132, 126.463, -151.623, 124.195, 87.5688, 0, 0, 3.94452, -54.3871, 3.84651, -174.697, 3.91674, 64.4949, 0.155786, 169.936
1, 2460.00000, 123.321, -31.3132, 126.463, -151.623, 124.195, 87.5688, 0, 0, 3.94452, -54.3871, 3.84651, -174.697, 3.91674, 64.4949, 0.155787, 169.936
1, 2520.00000, 123.321, -31.3132, 126.463, -151.623, 124.195, 87.5688, 0, 0, 3.94452, -54.3871, 3.84651, -174.697, 3.91674, 64.4949, 0.155787, 169.936
1, 2580.00000, 123.321, -31.3132, 126.463, -151.623, 124.195, 87.5688, 0, 0, 3.94452, -54.3871, 3.84651, -174.697, 3.91674, 64.4949, 0.155787, 169.936
1, 2640.00000, 123.321, -31.3132, 126.463, -151.623, 124.195, 87.5688, 0, 0, 3.94452, -54.3871, 3.84651, -174.697, 3.91674, 64.4949, 0.155787, 169.936
1, 2700.00000, 123.321, -31.3132, 126.463, -151.623, 124.195, 87.5688, 0, 0, 3.94452, -54.3871, 3.84651, -174.697, 3.91674, 64.4949, 0.155787, 169.936
1, 2760.00000, 123.629, -31.2563, 126.777, -151.571, 124.49, 87.6261, 0, 0, 3.70767, -54.3302, 3.6156, -174.645, 3.68202, 64.5521, 0.146416, 170.264
1, 2820.00000, 123.629, -31.2563, 126.777, -151.571, 124.49, 87.6261, 0, 0, 3.70767, -54.3302, 3.6156, -174.645, 3.68202, 64.5521, 0.146416, 170.264
1, 2880.00000, 123.629, -31.2563, 126.777, -151.571, 124.49, 87.6261, 0, 0, 3.70767, -54.3302, 3.6156, -174.645, 3.68202, 64.5521, 0.146416, 170.264
1, 2940.00000, 123.629, -31.2563, 126.777, -151.571, 124.49, 87.6261, 0, 0, 3.70767, -54.3302, 3.6156, -174.645, 3.68202, 64.5521, 0.146416, 170.264
1, 3000.00000, 123.629, -31.2563, 126.777, -151.571, 124.49, 87.6261, 0, 0, 3.70767, -54.3302, 3.6156, -174.645, 3.68202, 64.5521, 0.146416, 170.264
1, 3060.00000, 123.629, -31.2563, 126.777, -151.571, 124.49, 87.6261, 0, 0, 3.70767, -54.3302, 3.6156, -174.645, 3.68202, 64.5521, 0.146416, 170.264
1, 3120.00000, 123.629, -31.2563, 126.777, -151.571, 124.49, 87.6261, 0, 0, 3.70767, -54.3302, 3.6156, -174.645, 3.68202, 64.5521, 0.146416, 170.264
1, 3180.00000, 123.629, -31.2563, 126.777, -151.571, 124.49, 87.6261, 0, 0, 3.70767, -54.3302, 3.6156, -174.645, 3.68202, 64.5521, 0.146416, 170.264
1, 3240.00000, 123.629, -31.2563, 126.777, -151.571, 124.49, 87.6261, 0, 0, 3.70767, -54.3302, 3.6156, -174.645, 3.68202, 64.5521, 0.146416, 170.264
1, 3300.00000, 123.629, -31.2563, 126.777, -151.571, 124.49, 87.6261, 0, 0, 3.70767, -54.3302, 3.6156, -174.645, 3.68202, 64.5521, 0.146416, 170.264
1, 3360.00000, 123.629, -31.2563, 126.777, -151.571, 124.49, 87.6261, 0, 0, 3.70767, -54.3302, 3.6156, -174.645, 3.68202, 64.5521, 0.146416, 170.264
1, 3420.00000, 123.629, -31.2563, 126.777, -151.571, 124.49, 87.6261, 0, 0, 3.70767, -54.3302, 3.6156, -174.645, 3.68202, 64.5521, 0.146416, 170.264
1, 3480.00000, 123.629, -31.2563, 126.777, -151.571, 124.49, 87.6261, 0, 0, 3.70767, -54.3302, 3.6156, -174.645, 3.68202, 64.5521, 0.146416, 170.264
1, 3540.00000, 123.629, -31.2563, 126.777, -151.571, 124.49, 87.6261, 0, 0, 3.70767, -54.3302, 3.6156, -174.645, 3.68202, 64.5521, 0.146416, 170.264
2, 0.00000, 123.629, -31.2563, 126.777, -151.571, 124.49, 87.6261, 0, 0, 3.70767, -54.3302, 3.6156, -174.645, 3.68202, 64.5521, 0.146416, 170.264
2, 60.00000, 123.442, -31.291, 126.588, -151.603, 124.312, 87.5907, 0, 0, 3.81294, -54.3649, 3.71816, -174.677, 3.78623, 64.5168, 0.150645, 170.064
2, 120.00000, 123.442, -31.291, 126.588, -151.603, 124.312, 87.5907, 0, 0, 3.81294, -54.3649, 3.71816, -174.677, 3.78623, 64.5168, 0.150642, 170.064
2, 180.00000, 123.442, -31.291, 126.588, -151.603, 124.312, 87.5907, 0, 0, 3.81294, -54.3649, 3.71816, -174.677, 3.78623, 64.5168, 0.150642, 170.064
2, 240.00000, 123.442, -31.291, 126.588, -151.603, 124.312, 87.5907, 0, 0, 3.81294, -54.3649, 3.71816, -174.677, 3.78623, 64.5168, 0.150642, 170.064
2, 300.00000, 123.442, -31.291, 126.588, -151.603, 124.312, 87.5907, 0, 0, 3.81294, -54.3649, 3.71816, -174.677, 3.78623, 64.5168, 0.150642, 170.064
2, 360.00000, 123.442, -31.291, 126.588, -151.603, 124.312, 87.5907, 0, 0, 3.81294, -54.3649, 3.71816, -174.677, 3.78623, 64.5168, 0.150642, 170.064
2, 420.00000, 123.442, -31.291, 126.588, -151.603, 124.312, 87.5907, 0, 0, 3.81294, -54.3649, 3.71816, -174.677, 3.78623, 64.5168, 0.150642, 170.064
2, 480.00000, 123.442, -31.291, 126.588, -151.603, 124.312, 87.5907, 0, 0, 3.81294, -54.3649, 3.71816, -174.677, 3.78623, 64.5168, 0.150642, 170.064
2, 540.00000, 123.442, -31.291, 126.588, -151.603, 124.312, 87.5907, 0, 0, 3.81294, -54.3649, 3.71816, -174.677, 3.78623, 64.5168, 0.150642, 170.064
2, 600.00000, 123.442, -31.291, 126.588, -151.603, 124.312, 87.5907, 0, 0, 3.81294, -54.3649, 3.71816, -174.677, 3.78623, 64.5168, 0.150642, 170.064
2, 660.00000, 123.442, -31.291, 126.588, -151.603, 124.312, 87.5907, 0, 0, 3.81294, -54.3649, 3.71816, -174.677, 3.78623, 64.5168, 0.150642, 170.064
2, 720.00000, 123.442, -31.291, 126.588, -151.603, 124.312, 87.5907, 0, 0, 3.81294, -54.3649, 3.71816, -174.677, 3.78623, 64.5168, 0.150642, 170.064
2, 780.00000, 123.442, -31.291, 126.588, -151.603, 124.312, 87.5907, 0, 0, 3.81294, -54.3649, 3.71816, -174.677, 3.78623, 64.5168, 0.150642, 170.064
