hour,t(sec),"P1 (kW)","Q1 (kvar)","P2 (kW)","Q2 (kvar)","P3 (kW)","Q3 (kvar)","P4 (kW)","Q4 (kvar)"
0, 60.00000, 0.215631, 0.0918502, 0.203307, 0.0866095, 0.212878, 0.0906825, 0, 0
0, 120.00000, 0.215629, 0.0918502, 0.203251, 0.0865857, 0.212878, 0.0906829, 0, 0
0, 180.00000, 0.215628, 0.0918504, 0.203201, 0.0865643, 0.212878, 0.0906832, 0, 0
0, 240.00000, 0.215627, 0.0918506, 0.203156, 0.0865449, 0.212878, 0.0906835, 0, 0
0, 300.00000, 0.215626, 0.0918508, 0.203115, 0.0865274, 0.212878, 0.0906838, 0, 0
0, 360.00000, 0.215625, 0.0918509, 0.203078, 0.0865116, 0.212879, 0.090684, 0, 0
0, 420.00000, 0.215624, 0.091851, 0.203045, 0.0864974, 0.212879, 0.0906843, 0, 0
0, 480.00000, 0.215624, 0.0918512, 0.203015, 0.0864845, 0.212879, 0.0906845, 0, 0
0, 540.00000, 0.215623, 0.0918513, 0.202988, 0.0864729, 0.212879, 0.0906847, 0, 0
0, 600.00000, 0.215622, 0.0918514, 0.202963, 0.0864624, 0.212879, 0.0906848, 0, 0
0, 660.00000, 0.215622, 0.0918515, 0.202941, 0.0864529, 0.212879, 0.090685, 0, 0
0, 720.00000, 0.215622, 0.0918516, 0.202921, 0.0864444, 0.212879, 0.0906851, 0, 0
0, 780.00000, 0.215621, 0.0918517, 0.202903, 0.0864367, 0.212879, 0.0906852, 0, 0
0, 840.00000, 0.215621, 0.0918518, 0.202887, 0.0864298, 0.212879, 0.0906854, 0, 0
0, 900.00000, 0.21562, 0.0918519, 0.202872, 0.0864235, 0.212879, 0.0906855, 0, 0
0, 960.00000, 0.228098, 0.0971674, 0.213868, 0.0911075, 0.224018, 0.0954305, 0, 0
0, 1020.00000, 0.228098, 0.0971675, 0.213855, 0.0911021, 0.224018, 0.0954307, 0, 0
0, 1080.00000, 0.228098, 0.0971675, 0.213844, 0.0910973, 0.224018, 0.0954308, 0, 0
0, 1140.00000, 0.228097, 0.0971676, 0.213834, 0.091093, 0.224018, 0.0954309, 0, 0
0, 1200.00000, 0.228097, 0.0971677, 0.213825, 0.0910891, 0.224018, 0.095431, 0, 0
0, 1260.00000, 0.228097, 0.0971677, 0.213817, 0.0910856, 0.224018, 0.095431, 0, 0
0, 1320.00000, 0.228097, 0.0971678, 0.213809, 0.0910824, 0.224018, 0.0954311, 0, 0
0, 1380.00000, 0.228097, 0.0971678, 0.213802, 0.0910796, 0.224018, 0.0954312, 0, 0
0, 1440.00000, 0.228097, 0.0971679, 0.213796, 0.091077, 0.224019, 0.0954312, 0, 0
0, 1500.00000, 0.228096, 0.0971679, 0.213791, 0.0910747, 0.224019, 0.0954313, 0, 0
0, 1560.00000, 0.228096, 0.0971679, 0.213786, 0.0910726, 0.224019, 0.0954313, 0, 0
0, 1620.00000, 0.228096, 0.097168, 0.213782, 0.0910707, 0.224019, 0.0954314, 0, 0
0, 1680.00000, 0.228096, 0.097168, 0.213778, 0.091069, 0.224019, 0.0954314, 0, 0
0, 1740.00000, 0.228096, 0.097168, 0.213774, 0.0910675, 0.224019, 0.0954314, 0, 0
0, 1800.00000, 0.228096, 0.097168, 0.213771, 0.0910661, 0.224019, 0.0954314, 0, 0
0, 1860.00000, 0.228789, 0.0974632, 0.215193, 0.0916721, 0.225536, 0.0960779, 0, 0
0, 1920.00000, 0.228789, 0.0974632, 0.215191, 0.0916709, 0.225536, 0.0960779, 0, 0
0, 1980.00000, 0.228789, 0.0974632, 0.215188, 0.0916699, 0.225536, 0.0960779, 0, 0
0, 2040.00000, 0.228789, 0.0974632, 0.215186, 0.091669, 0.225536, 0.096078, 0, 0
0, 2100.00000, 0.228789, 0.0974632, 0.215184, 0.0916682, 0.225536, 0.096078, 0, 0
0, 2160.00000, 0.228788, 0.0974632, 0.215183, 0.0916675, 0.225536, 0.096078, 0, 0
0, 2220.00000, 0.228788, 0.0974632, 0.215181, 0.0916668, 0.225536, 0.096078, 0, 0
0, 2280.00000, 0.228788, 0.0974633, 0.21518, 0.0916662, 0.225536, 0.096078, 0, 0
0, 2340.00000, 0.228788, 0.0974633, 0.215179, 0.0916657, 0.225536, 0.096078, 0, 0
0, 2400.00000, 0.228788, 0.0974633, 0.215177, 0.0916652, 0.225536, 0.096078, 0, 0
0, 2460.00000, 0.228788, 0.0974633, 0.215176, 0.0916648, 0.225536, 0.096078, 0, 0
0, 2520.00000, 0.228788, 0.0974633, 0.215175, 0.0916644, 0.225536, 0.096078, 0, 0
0, 2580.00000, 0.228788, 0.0974633, 0.215175, 0.091664, 0.225536, 0.0960781, 0, 0
0, 2640.00000, 0.228788, 0.0974633, 0.215174, 0.0916637, 0.225536, 0.0960781, 0, 0
0, 2700.00000, 0.228788, 0.0974633, 0.215173, 0.0916634, 0.225536, 0.0960781, 0, 0
0, 2760.00000, 0.217611, 0.0927017, 0.20583, 0.0876834, 0.215798, 0.0919294, 0, 0
0, 2820.00000, 0.21761, 0.0927016, 0.20583, 0.0876831, 0.215798, 0.0919294, 0, 0
0, 2880.00000, 0.21761, 0.0927016, 0.205829, 0.0876829, 0.215798, 0.0919294, 0, 0
0, 2940.00000, 0.21761, 0.0927016, 0.205829, 0.0876827, 0.215798, 0.0919294, 0, 0
0, 3000.00000, 0.21761, 0.0927016, 0.205828, 0.0876826, 0.215798, 0.0919295, 0, 0
0, 3060.00000, 0.21761, 0.0927016, 0.205828, 0.0876824, 0.215798, 0.0919295, 0, 0
0, 3120.00000, 0.21761, 0.0927016, 0.205828, 0.0876823, 0.215798, 0.0919295, 0, 0
0, 3180.00000, 0.21761, 0.0927016, 0.205828, 0.0876822, 0.215798, 0.0919295, 0, 0
0, 3240.00000, 0.21761, 0.0927016, 0.205827, 0.0876821, 0.215798, 0.0919295, 0, 0
0, 3300.00000, 0.21761, 0.0927016, 0.205827, 0.087682, 0.215798, 0.0919295, 0, 0
0, 3360.00000, 0.21761, 0.0927016, 0.205827, 0.0876819, 0.215798, 0.0919295, 0, 0
0, 3420.00000, 0.21761, 0.0927016, 0.205827, 0.0876818, 0.215798, 0.0919295, 0, 0
0, 3480.00000, 0.21761, 0.0927016, 0.205827, 0.0876817, 0.215798, 0.0919295, 0, 0
0, 3540.00000, 0.217611, 0.0927018, 0.205777, 0.0876608, 0.216107, 0.0920611, 0, 0
1, 0.00000, 0.21761, 0.0927016, 0.205777, 0.0876607, 0.216107, 0.0920611, 0, 0
1, 60.00000, 0.215067, 0.091618, 0.204264, 0.0870161, 0.214573, 0.0914079, 0, 0
1, 120.00000, 0.215066, 0.0916179, 0.204264, 0.087016, 0.214574, 0.0914079, 0, 0
1, 180.00000, 0.215066, 0.0916179, 0.204264, 0.0870159, 0.214574, 0.0914079, 0, 0
1, 240.00000, 0.215066, 0.0916179, 0.204264, 0.0870159, 0.214574, 0.0914079, 0, 0
1, 300.00000, 0.215066, 0.0916179, 0.204263, 0.0870159, 0.214574, 0.0914079, 0, 0
1, 360.00000, 0.215066, 0.0916179, 0.204263, 0.0870158, 0.214574, 0.0914079, 0, 0
1, 420.00000, 0.215066, 0.0916179, 0.204263, 0.0870158, 0.214574, 0.0914079, 0, 0
1, 480.00000, 0.215066, 0.0916179, 0.204263, 0.0870158, 0.214574, 0.0914079, 0, 0
1, 540.00000, 0.215066, 0.0916179, 0.204263, 0.0870158, 0.214574, 0.0914079, 0, 0
1, 600.00000, 0.215066, 0.0916179, 0.204263, 0.0870157, 0.214574, 0.0914079, 0, 0
1, 660.00000, 0.215066, 0.0916179, 0.204263, 0.0870157, 0.214574, 0.0914079, 0, 0
1, 720.00000, 0.215066, 0.0916179, 0.204263, 0.0870157, 0.214574, 0.0914079, 0, 0
1, 780.00000, 0.215066, 0.0916179, 0.204263, 0.0870157, 0.214574, 0.0914079, 0, 0
1, 840.00000, 0.215066, 0.0916179, 0.204263, 0.0870157, 0.214574, 0.0914079, 0, 0
1, 900.00000, 0.215066, 0.0916179, 0.204263, 0.0870157, 0.214574, 0.0914079, 0, 0
1, 960.00000, 0.21406, 0.0911892, 0.203443, 0.0866664, 0.213723, 0.0910457, 0, 0
1, 1020.00000, 0.21406, 0.0911891, 0.203443, 0.0866663, 0.213723, 0.0910458, 0, 0
1, 1080.00000, 0.21406, 0.0911891, 0.203443, 0.0866663, 0.213723, 0.0910458, 0, 0
1, 1140.00000, 0.21406, 0.0911891, 0.203443, 0.0866663, 0.213723, 0.0910458, 0, 0
1, 1200.00000, 0.21406, 0.0911891, 0.203443, 0.0866663, 0.213723, 0.0910458, 0, 0
1, 1260.00000, 0.21406, 0.0911891, 0.203443, 0.0866662, 0.213723, 0.0910458, 0, 0
1, 1320.00000, 0.21406, 0.0911891, 0.203443, 0.0866662, 0.213723, 0.0910458, 0, 0
1, 1380.00000, 0.21406, 0.0911891, 0.203443, 0.0866662, 0.213723, 0.0910458, 0, 0
1, 1440.00000, 0.21406, 0.0911891, 0.203443, 0.0866662, 0.213723, 0.0910458, 0, 0
1, 1500.00000, 0.21406, 0.0911891, 0.203443, 0.0866662, 0.213723, 0.0910458, 0, 0
1, 1560.00000, 0.21406, 0.0911891, 0.203443, 0.0866662, 0.213723, 0.0910458, 0, 0
1, 1620.00000, 0.21406, 0.0911891, 0.203443, 0.0866662, 0.213723, 0.0910458, 0, 0
1, 1680.00000, 0.21406, 0.0911891, 0.203443, 0.0866662, 0.213723, 0.0910458, 0, 0
1, 1740.00000, 0.21406, 0.0911891, 0.203443, 0.0866662, 0.213723, 0.0910458, 0, 0
1, 1800.00000, 0.21406, 0.0911891, 0.203443, 0.0866662, 0.213723, 0.0910458, 0, 0
1, 1860.00000, 0.219223, 0.0933884, 0.209366, 0.0891896, 0.217933, 0.0928388, 0, 0
1, 1920.00000, 0.219222, 0.0933884, 0.209366, 0.0891895, 0.217932, 0.0928388, 0, 0
1, 1980.00000, 0.219222, 0.0933884, 0.209366, 0.0891895, 0.217932, 0.0928388, 0, 0
1, 2040.00000, 0.219222, 0.0933884, 0.209366, 0.0891895, 0.217932, 0.0928388, 0, 0
1, 2100.00000, 0.219222, 0.0933884, 0.209366, 0.0891895, 0.217932, 0.0928388, 0, 0
1, 2160.00000, 0.219222, 0.0933884, 0.209366, 0.0891895, 0.217932, 0.0928388, 0, 0
1, 2220.00000, 0.219222, 0.0933884, 0.209366, 0.0891895, 0.217932, 0.0928388, 0, 0
1, 2280.00000, 0.219222, 0.0933884, 0.209366, 0.0891895, 0.217932, 0.0928388, 0, 0
1, 2340.00000, 0.219222, 0.0933884, 0.209366, 0.0891895, 0.217932, 0.0928388, 0, 0
1, 2400.00000, 0.219222, 0.0933884, 0.209366, 0.0891895, 0.217932, 0.0928388, 0, 0
1, 2460.00000, 0.219222, 0.0933884, 0.209366, 0.0891895, 0.217932, 0.0928388, 0, 0
1, 2520.00000, 0.219222, 0.0933884, 0.209366, 0.0891895, 0.217932, 0.0928388, 0, 0
1, 2580.00000, 0.219222, 0.0933884, 0.209366, 0.0891895, 0.217932, 0.0928388, 0, 0
1, 2640.00000, 0.219222, 0.0933884, 0.209366, 0.0891895, 0.217932, 0.0928388, 0, 0
1, 2700.00000, 0.219222, 0.0933884, 0.209366, 0.0891895, 0.217932, 0.0928388, 0, 0
1, 2760.00000, 0.206574, 0.0880002, 0.198862, 0.084715, 0.206574, 0.0880001, 0, 0
1, 2820.00000, 0.206574, 0.0880001, 0.198862, 0.084715, 0.206574, 0.0880001, 0, 0
1, 2880.00000, 0.206574, 0.0880001, 0.198862, 0.084715, 0.206574, 0.0880001, 0, 0
1, 2940.00000, 0.206574, 0.0880001, 0.198862, 0.084715, 0.206574, 0.0880001, 0, 0
1, 3000.00000, 0.206574, 0.0880001, 0.198862, 0.084715, 0.206574, 0.0880001, 0, 0
1, 3060.00000, 0.206574, 0.0880001, 0.198862, 0.084715, 0.206574, 0.0880001, 0, 0
1, 3120.00000, 0.206574, 0.0880001, 0.198862, 0.084715, 0.206574, 0.0880001, 0, 0
1, 3180.00000, 0.206574, 0.0880001, 0.198862, 0.084715, 0.206574, 0.0880001, 0, 0
1, 3240.00000, 0.206574, 0.0880001, 0.198862, 0.084715, 0.206574, 0.0880001, 0, 0
1, 3300.00000, 0.206574, 0.0880001, 0.198862, 0.084715, 0.206574, 0.0880001, 0, 0
1, 3360.00000, 0.206574, 0.0880001, 0.198862, 0.084715, 0.206574, 0.0880001, 0, 0
1, 3420.00000, 0.206574, 0.0880001, 0.198862, 0.084715, 0.206574, 0.0880001, 0, 0
1, 3480.00000, 0.206574, 0.0880001, 0.198862, 0.084715, 0.206574, 0.0880001, 0, 0
1, 3540.00000, 0.206574, 0.0880001, 0.198862, 0.084715, 0.206574, 0.0880001, 0, 0
2, 0.00000, 0.206574, 0.0880001, 0.198862, 0.084715, 0.206574, 0.0880001, 0, 0
2, 60.00000, 0.212117, 0.0903615, 0.203226, 0.086574, 0.211558, 0.0901235, 0, 0
2, 120.00000, 0.212117, 0.0903616, 0.203226, 0.0865741, 0.211558, 0.0901234, 0, 0
2, 180.00000, 0.212117, 0.0903616, 0.203226, 0.0865741, 0.211558, 0.0901234, 0, 0
2, 240.00000, 0.212117, 0.0903616, 0.203226, 0.0865741, 0.211558, 0.0901234, 0, 0
2, 300.00000, 0.212117, 0.0903616, 0.203226, 0.0865741, 0.211558, 0.0901234, 0, 0
2, 360.00000, 0.212117, 0.0903616, 0.203226, 0.0865741, 0.211558, 0.0901234, 0, 0
2, 420.00000, 0.212117, 0.0903616, 0.203226, 0.0865741, 0.211558, 0.0901234, 0, 0
2, 480.00000, 0.212117, 0.0903616, 0.203226, 0.0865741, 0.211558, 0.0901234, 0, 0
2, 540.00000, 0.212117, 0.0903616, 0.203226, 0.0865741, 0.211558, 0.0901234, 0, 0
2, 600.00000, 0.212117, 0.0903616, 0.203226, 0.0865741, 0.211558, 0.0901234, 0, 0
2, 660.00000, 0.212117, 0.0903616, 0.203226, 0.0865741, 0.211558, 0.0901234, 0, 0
2, 720.00000, 0.212117, 0.0903616, 0.203226, 0.0865741, 0.211558, 0.0901234, 0, 0
2, 780.00000, 0.212117, 0.0903616, 0.203226, 0.0865741, 0.211558, 0.0901234, 0, 0
2, 840.00000, 0.212117, 0.0903616, 0.203226, 0.0865741, 0.211558, 0.0901234, 0, 0
2, 900.00000, 0.212117, 0.0903616, 0.203226, 0.0865741, 0.211558, 0.0901234, 0, 0
2, 960.00000, 0.200983, 0.0856183, 0.193691, 0.0825122, 0.200983, 0.0856181, 0, 0
2, 1020.00000, 0.200982, 0.0856182, 0.193691, 0.0825121, 0.200982, 0.0856182, 0, 0
2, 1080.00000, 0.200982, 0.0856182, 0.193691, 0.0825121, 0.200982, 0.0856182, 0, 0
2, 1140.00000, 0.200982, 0.0856182, 0.193691, 0.0825121, 0.200982, 0.0856182, 0, 0
2, 1200.00000, 0.200982, 0.0856182, 0.193691, 0.0825121, 0.200982, 0.0856182, 0, 0
2, 1260.00000, 0.200982, 0.0856182, 0.193691, 0.0825121, 0.200982, 0.0856182, 0, 0
2, 1320.00000, 0.200982, 0.0856182, 0.193691, 0.0825121, 0.200982, 0.0856182, 0, 0
2, 1380.00000, 0.200982, 0.0856182, 0.193691, 0.0825121, 0.200982, 0.0856182, 0, 0
2, 1440.00000, 0.200982, 0.0856182, 0.193691, 0.0825121, 0.200982, 0.0856182, 0, 0
2, 1500.00000, 0.200982, 0.0856182, 0.193691, 0.0825121, 0.200982, 0.0856182, 0, 0
2, 1560.00000, 0.200982, 0.0856182, 0.193691, 0.0825121, 0.200982, 0.0856182, 0, 0
2, 1620.00000, 0.200982, 0.0856182, 0.193691, 0.0825121, 0.200982, 0.0856182, 0, 0
2, 1680.00000, 0.200982, 0.0856182, 0.193691, 0.0825121, 0.200982, 0.0856182, 0, 0
2, 1740.00000, 0.200982, 0.0856182, 0.193691, 0.0825121, 0.200982, 0.0856182, 0, 0
2, 1800.00000, 0.200982, 0.0856182, 0.193691, 0.0825121, 0.200982, 0.0856182, 0, 0
2, 1860.00000, 0.200873, 0.0855713, 0.193099, 0.0822597, 0.200873, 0.0855714, 0, 0
2, 1920.00000, 0.200873, 0.0855714, 0.193099, 0.0822598, 0.200873, 0.0855714, 0, 0
2, 1980.00000, 0.200873, 0.0855714, 0.193099, 0.0822598, 0.200873, 0.0855714, 0, 0
2, 2040.00000, 0.200873, 0.0855714, 0.193099, 0.0822598, 0.200873, 0.0855714, 0, 0
2, 2100.00000, 0.200873, 0.0855714, 0.193099, 0.0822598, 0.200873, 0.0855714, 0, 0
2, 2160.00000, 0.200873, 0.0855714, 0.193099, 0.0822598, 0.200873, 0.0855714, 0, 0
2, 2220.00000, 0.200873, 0.0855714, 0.193099, 0.0822598, 0.200873, 0.0855714, 0, 0
2, 2280.00000, 0.200873, 0.0855714, 0.193099, 0.0822598, 0.200873, 0.0855714, 0, 0
2, 2340.00000, 0.200873, 0.0855714, 0.193099, 0.0822598, 0.200873, 0.0855714, 0, 0
2, 2400.00000, 0.200873, 0.0855714, 0.193099, 0.0822598, 0.200873, 0.0855714, 0, 0
2, 2460.00000, 0.200873, 0.0855714, 0.193099, 0.0822598, 0.200873, 0.0855714, 0, 0
2, 2520.00000, 0.200873, 0.0855714, 0.193099, 0.0822598, 0.200873, 0.0855714, 0, 0
2, 2580.00000, 0.200873, 0.0855714, 0.193099, 0.0822598, 0.200873, 0.0855714, 0, 0
2, 2640.00000, 0.200873, 0.0855714, 0.193099, 0.0822598, 0.200873, 0.0855714, 0, 0
2, 2700.00000, 0.200873, 0.0855714, 0.193099, 0.0822598, 0.200873, 0.0855714, 0, 0
2, 2760.00000, 0.192187, 0.0818714, 0.186098, 0.0792773, 0.192187, 0.0818713, 0, 0
2, 2820.00000, 0.192187, 0.0818713, 0.186098, 0.0792772, 0.192187, 0.0818713, 0, 0
2, 2880.00000, 0.192187, 0.0818713, 0.186098, 0.0792772, 0.192187, 0.0818713, 0, 0
2, 2940.00000, 0.192187, 0.0818713, 0.186098, 0.0792772, 0.192187, 0.0818713, 0, 0
2, 3000.00000, 0.192187, 0.0818713, 0.186098, 0.0792772, 0.192187, 0.0818713, 0, 0
2, 3060.00000, 0.192187, 0.0818713, 0.186098, 0.0792772, 0.192187, 0.0818713, 0, 0
2, 3120.00000, 0.192187, 0.0818713, 0.186098, 0.0792772, 0.192187, 0.0818713, 0, 0
2, 3180.00000, 0.192187, 0.0818713, 0.186098, 0.0792772, 0.192187, 0.0818713, 0, 0
2, 3240.00000, 0.192187, 0.0818713, 0.186098, 0.0792772, 0.192187, 0.0818713, 0, 0
2, 3300.00000, 0.192187, 0.0818713, 0.186098, 0.0792772, 0.192187, 0.0818713, 0, 0
2, 3360.00000, 0.192187, 0.0818713, 0.186098, 0.0792772, 0.192187, 0.0818713, 0, 0
2, 3420.00000, 0.192187, 0.0818713, 0.186098, 0.0792772, 0.192187, 0.0818713, 0, 0
2, 3480.00000, 0.192187, 0.0818713, 0.186098, 0.0792772, 0.192187, 0.0818713, 0, 0
2, 3540.00000, 0.192187, 0.0818713, 0.186098, 0.0792772, 0.192187, 0.0818713, 0, 0
3, 0.00000, 0.192187, 0.0818713, 0.186098, 0.0792772, 0.192187, 0.0818713, 0, 0
3, 60.00000, 0.197074, 0.0839531, 0.19018, 0.0810164, 0.197074, 0.0839531, 0, 0
3, 120.00000, 0.197074, 0.0839531, 0.19018, 0.0810164, 0.197074, 0.0839531, 0, 0
3, 180.00000, 0.197074, 0.0839531, 0.19018, 0.0810164, 0.197074, 0.0839531, 0, 0
3, 240.00000, 0.197074, 0.0839531, 0.19018, 0.0810164, 0.197074, 0.0839531, 0, 0
3, 300.00000, 0.197074, 0.0839531, 0.19018, 0.0810164, 0.197074, 0.0839531, 0, 0
3, 360.00000, 0.197074, 0.0839531, 0.19018, 0.0810164, 0.197074, 0.0839531, 0, 0
3, 420.00000, 0.197074, 0.0839531, 0.19018, 0.0810164, 0.197074, 0.0839531, 0, 0
3, 480.00000, 0.197074, 0.0839531, 0.19018, 0.0810164, 0.197074, 0.0839531, 0, 0
3, 540.00000, 0.197074, 0.0839531, 0.19018, 0.0810164, 0.197074, 0.0839531, 0, 0
3, 600.00000, 0.197074, 0.0839531, 0.19018, 0.0810164, 0.197074, 0.0839531, 0, 0
3, 660.00000, 0.197074, 0.0839531, 0.19018, 0.0810164, 0.197074, 0.0839531, 0, 0
3, 720.00000, 0.197074, 0.0839531, 0.19018, 0.0810164, 0.197074, 0.0839531, 0, 0
3, 780.00000, 0.197074, 0.0839531, 0.19018, 0.0810164, 0.197074, 0.0839531, 0, 0
3, 840.00000, 0.197074, 0.0839531, 0.19018, 0.0810164, 0.197074, 0.0839531, 0, 0
3, 900.00000, 0.197074, 0.0839531, 0.19018, 0.0810164, 0.197074, 0.0839531, 0, 0
3, 960.00000, 0.202489, 0.0862599, 0.195664, 0.0833524, 0.202489, 0.0862598, 0, 0
3, 1020.00000, 0.202489, 0.0862598, 0.195664, 0.0833524, 0.202489, 0.0862598, 0, 0
3, 1080.00000, 0.202489, 0.0862598, 0.195664, 0.0833524, 0.202489, 0.0862598, 0, 0
3, 1140.00000, 0.202489, 0.0862598, 0.195664, 0.0833524, 0.202489, 0.0862598, 0, 0
3, 1200.00000, 0.202489, 0.0862598, 0.195664, 0.0833524, 0.202489, 0.0862598, 0, 0
3, 1260.00000, 0.202489, 0.0862598, 0.195664, 0.0833524, 0.202489, 0.0862598, 0, 0
3, 1320.00000, 0.202489, 0.0862598, 0.195664, 0.0833524, 0.202489, 0.0862598, 0, 0
3, 1380.00000, 0.202489, 0.0862598, 0.195664, 0.0833524, 0.202489, 0.0862598, 0, 0
3, 1440.00000, 0.202489, 0.0862598, 0.195664, 0.0833524, 0.202489, 0.0862598, 0, 0
3, 1500.00000, 0.202489, 0.0862598, 0.195664, 0.0833524, 0.202489, 0.0862598, 0, 0
3, 1560.00000, 0.202489, 0.0862598, 0.195664, 0.0833524, 0.202489, 0.0862598, 0, 0
3, 1620.00000, 0.202489, 0.0862598, 0.195664, 0.0833524, 0.202489, 0.0862598, 0, 0
3, 1680.00000, 0.202489, 0.0862598, 0.195664, 0.0833524, 0.202489, 0.0862598, 0, 0
3, 1740.00000, 0.202489, 0.0862598, 0.195664, 0.0833524, 0.202489, 0.0862598, 0, 0
3, 1800.00000, 0.202489, 0.0862598, 0.195664, 0.0833524, 0.202489, 0.0862598, 0, 0
3, 1860.00000, 0.204965, 0.0873147, 0.198169, 0.0844195, 0.204965, 0.0873146, 0, 0
3, 1920.00000, 0.204965, 0.0873146, 0.198169, 0.0844195, 0.204965, 0.0873146, 0, 0
3, 1980.00000, 0.204965, 0.0873146, 0.198169, 0.0844195, 0.204965, 0.0873146, 0, 0
3, 2040.00000, 0.204965, 0.0873146, 0.198169, 0.0844195, 0.204965, 0.0873146, 0, 0
3, 2100.00000, 0.204965, 0.0873146, 0.198169, 0.0844195, 0.204965, 0.0873146, 0, 0
3, 2160.00000, 0.204965, 0.0873146, 0.198169, 0.0844195, 0.204965, 0.0873146, 0, 0
3, 2220.00000, 0.204965, 0.0873146, 0.198169, 0.0844195, 0.204965, 0.0873146, 0, 0
3, 2280.00000, 0.204965, 0.0873146, 0.198169, 0.0844195, 0.204965, 0.0873146, 0, 0
3, 2340.00000, 0.204965, 0.0873146, 0.198169, 0.0844195, 0.204965, 0.0873146, 0, 0
3, 2400.00000, 0.204965, 0.0873146, 0.198169, 0.0844195, 0.204965, 0.0873146, 0, 0
3, 2460.00000, 0.204965, 0.0873146, 0.198169, 0.0844195, 0.204965, 0.0873146, 0, 0
3, 2520.00000, 0.204965, 0.0873146, 0.198169, 0.0844195, 0.204965, 0.0873146, 0, 0
3, 2580.00000, 0.204965, 0.0873146, 0.198169, 0.0844195, 0.204965, 0.0873146, 0, 0
3, 2640.00000, 0.204965, 0.0873146, 0.198169, 0.0844195, 0.204965, 0.0873146, 0, 0
3, 2700.00000, 0.204965, 0.0873146, 0.198169, 0.0844195, 0.204965, 0.0873146, 0, 0
3, 2760.00000, 0.187558, 0.0798995, 0.182477, 0.077735, 0.187558, 0.0798994, 0, 0
3, 2820.00000, 0.187558, 0.0798994, 0.182477, 0.077735, 0.187558, 0.0798994, 0, 0
3, 2880.00000, 0.187558, 0.0798994, 0.182477, 0.077735, 0.187558, 0.0798994, 0, 0
3, 2940.00000, 0.187558, 0.0798994, 0.182477, 0.077735, 0.187558, 0.0798994, 0, 0
3, 3000.00000, 0.187558, 0.0798994, 0.182477, 0.077735, 0.187558, 0.0798994, 0, 0
3, 3060.00000, 0.187558, 0.0798994, 0.182477, 0.077735, 0.187558, 0.0798994, 0, 0
3, 3120.00000, 0.187558, 0.0798994, 0.182477, 0.077735, 0.187558, 0.0798994, 0, 0
3, 3180.00000, 0.187558, 0.0798994, 0.182477, 0.077735, 0.187558, 0.0798994, 0, 0
3, 3240.00000, 0.187558, 0.0798994, 0.182477, 0.077735, 0.187558, 0.0798994, 0, 0
3, 3300.00000, 0.187558, 0.0798994, 0.182477, 0.077735, 0.187558, 0.0798994, 0, 0
3, 3360.00000, 0.187558, 0.0798994, 0.182477, 0.077735, 0.187558, 0.0798994, 0, 0
3, 3420.00000, 0.187558, 0.0798994, 0.182477, 0.077735, 0.187558, 0.0798994, 0, 0
3, 3480.00000, 0.187558, 0.0798994, 0.182477, 0.077735, 0.187558, 0.0798994, 0, 0
3, 3540.00000, 0.187558, 0.0798994, 0.182477, 0.077735, 0.187558, 0.0798994, 0, 0
4, 0.00000, 0.187558, 0.0798994, 0.182477, 0.077735, 0.187558, 0.0798994, 0, 0
4, 60.00000, 0.200644, 0.0854738, 0.194496, 0.0828549, 0.200644, 0.0854739, 0, 0
4, 120.00000, 0.200644, 0.0854739, 0.194496, 0.082855, 0.200644, 0.0854739, 0, 0
