hour,t(sec),V1,VAngle1,V2,VAngle2,V3,VAngle3,V4,VAngle4,I1,IAngle1,I2,IAngle2,I3,IAngle3,I4,IAngle4
0, 60.00000, 117.584, -31.2386, 116.641, -151.555, 117.147, 89.0853, 0, 0, 5.15614, -54.3123, 5.11017, -174.629, 5.13483, 66.0117, 0.0263168, -107.132
0, 120.00000, 117.584, -31.2386, 116.641, -151.555, 117.147, 89.0853, 0, 0, 5.1561, -54.3126, 5.11013, -174.629, 5.13479, 66.0114, 0.0263146, -107.153
0, 180.00000, 117.584, -31.2386, 116.641, -151.555, 117.147, 89.0853, 0, 0, 5.1561, -54.3126, 5.11013, -174.629, 5.13479, 66.0114, 0.0263146, -107.153
0, 240.00000, 117.584, -31.2386, 116.641, -151.555, 117.147, 89.0853, 0, 0, 5.1561, -54.3126, 5.11013, -174.629, 5.13479, 66.0114, 0.0263146, -107.153
0, 300.00000, 117.584, -31.2386, 116.641, -151.555, 117.147, 89.0853, 0, 0, 5.1561, -54.3126, 5.11013, -174.629, 5.13479, 66.0114, 0.0263146, -107.153
0, 360.00000, 117.584, -31.2386, 116.641, -151.555, 117.147, 89.0853, 0, 0, 5.1561, -54.3126, 5.11013, -174.629, 5.13479, 66.0114, 0.0263146, -107.153
0, 420.00000, 117.584, -31.2386, 116.641, -151.555, 117.147, 89.0853, 0, 0, 5.1561, -54.3126, 5.11013, -174.629, 5.13479, 66.0114, 0.0263146, -107.153
0, 480.00000, 118.576, -31.1441, 117.569, -151.469, 118.053, 89.1998, 0, 0, 4.52782, -54.2183, 4.48513, -174.543, 4.50566, 66.1255, 0.0213035, -106.923
0, 540.00000, 118.576, -31.1441, 117.569, -151.469, 118.053, 89.1998, 0, 0, 4.52787, -54.218, 4.48517, -174.543, 4.50569, 66.1259, 0.0212985, -106.912
0, 600.00000, 118.576, -31.1441, 117.569, -151.469, 118.053, 89.1998, 0, 0, 4.52787, -54.218, 4.48517, -174.543, 4.50569, 66.1259, 0.0212985, -106.912
0, 660.00000, 118.576, -31.1441, 117.569, -151.469, 118.053, 89.1998, 0, 0, 4.52787, -54.218, 4.48517, -174.543, 4.50569, 66.1259, 0.0212985, -106.912
0, 720.00000, 118.576, -31.1441, 117.569, -151.469, 118.053, 89.1998, 0, 0, 4.52787, -54.218, 4.48517, -174.543, 4.50569, 66.1259, 0.0212985, -106.912
0, 780.00000, 118.576, -31.1441, 117.569, -151.469, 118.053, 89.1998, 0, 0, 4.52787, -54.218, 4.48517, -174.543, 4.50569, 66.1259, 0.0212985, -106.912
0, 840.00000, 118.576, -31.1441, 117.569, -151.469, 118.053, 89.1998, 0, 0, 4.52787, -54.218, 4.48517, -174.543, 4.50569, 66.1259, 0.0212985, -106.912
0, 900.00000, 118.576, -31.1441, 117.569, -151.469, 118.053, 89.1998, 0, 0, 4.52787, -54.218, 4.48517, -174.543, 4.50569, 66.1259, 0.0212985, -106.912
0, 960.00000, 116.967, -31.627, 115.915, -151.032, 118.14, 89.1768, 0, 0, 4.45966, -54.7008, 4.41507, -174.106, 4.50939, 66.1028, 0.032046, -112.015
0, 1020.00000, 116.967, -31.627, 115.915, -151.032, 118.14, 89.1768, 0, 0, 4.45962, -54.7009, 4.41502, -174.106, 4.5094, 66.1029, 0.0320821, -112.021
0, 1080.00000, 116.967, -31.627, 115.915, -151.032, 118.14, 89.1768, 0, 0, 4.45962, -54.7009, 4.41502, -174.106, 4.5094, 66.1029, 0.0320822, -112.021
0, 1140.00000, 116.967, -31.627, 115.915, -151.032, 118.14, 89.1768, 0, 0, 4.45962, -54.7009, 4.41502, -174.106, 4.5094, 66.1029, 0.0320822, -112.021
0, 1200.00000, 116.967, -31.627, 115.915, -151.032, 118.14, 89.1768, 0, 0, 4.45962, -54.7009, 4.41502, -174.106, 4.5094, 66.1029, 0.0320822, -112.021
0, 1260.00000, 116.967, -31.627, 115.915, -151.032, 118.14, 89.1768, 0, 0, 4.45962, -54.7009, 4.41502, -174.106, 4.5094, 66.1029, 0.0320822, -112.021
0, 1320.00000, 116.967, -31.627, 115.915, -151.032, 118.14, 89.1768, 0, 0, 4.45962, -54.7009, 4.41502, -174.106, 4.5094, 66.1029, 0.0320822, -112.021
0, 1380.00000, 116.967, -31.627, 115.915, -151.032, 118.14, 89.1768, 0, 0, 4.45962, -54.7009, 4.41502, -174.106, 4.5094, 66.1029, 0.0320822, -112.021
0, 1440.00000, 116.967, -31.627, 115.915, -151.032, 118.14, 89.1768, 0, 0, 4.45962, -54.7009, 4.41502, -174.106, 4.5094, 66.1029, 0.0320822, -112.021
0, 1500.00000, 116.967, -31.627, 115.915, -151.032, 118.14, 89.1768, 0, 0, 4.45962, -54.7009, 4.41502, -174.106, 4.5094, 66.1029, 0.0320822, -112.021
0, 1560.00000, 116.967, -31.627, 115.915, -151.032, 118.14, 89.1768, 0, 0, 4.45962, -54.7009, 4.41502, -174.106, 4.5094, 66.1029, 0.0320822, -112.021
0, 1620.00000, 116.967, -31.627, 115.915, -151.032, 118.14, 89.1768, 0, 0, 4.45962, -54.7009, 4.41502, -174.106, 4.5094, 66.1029, 0.0320822, -112.021
0, 1680.00000, 116.967, -31.627, 115.915, -151.032, 118.14, 89.1768, 0, 0, 4.45962, -54.7009, 4.41502, -174.106, 4.5094, 66.1029, 0.0320822, -112.021
0, 1740.00000, 116.967, -31.627, 115.915, -151.032, 118.14, 89.1768, 0, 0, 4.45962, -54.7009, 4.41502, -174.106, 4.5094, 66.1029, 0.0320822, -112.021
0, 1800.00000, 116.967, -31.627, 115.915, -151.032, 118.14, 89.1768, 0, 0, 4.45962, -54.7009, 4.41502, -174.106, 4.5094, 66.1029, 0.0320822, -112.021
0, 1860.00000, 116.967, -31.627, 115.915, -151.032, 118.14, 89.1768, 0, 0, 4.45962, -54.7009, 4.41502, -174.106, 4.5094, 66.1029, 0.0320822, -112.021
0, 1920.00000, 116.967, -31.627, 115.915, -151.032, 118.14, 89.1768, 0, 0, 4.45962, -54.7009, 4.41502, -174.106, 4.5094, 66.1029, 0.0320822, -112.021
0, 1980.00000, 116.967, -31.627, 115.915, -151.032, 118.14, 89.1768, 0, 0, 4.45962, -54.7009, 4.41502, -174.106, 4.5094, 66.1029, 0.0320822, -112.021
0, 2040.00000, 116.967, -31.627, 115.915, -151.032, 118.14, 89.1768, 0, 0, 4.45962, -54.7009, 4.41502, -174.106, 4.5094, 66.1029, 0.0320822, -112.021
0, 2100.00000, 116.967, -31.627, 115.915, -151.032, 118.14, 89.1768, 0, 0, 4.45962, -54.7009, 4.41502, -174.106, 4.5094, 66.1029, 0.0320822, -112.021
0, 2160.00000, 116.967, -31.627, 115.915, -151.032, 118.14, 89.1768, 0, 0, 4.45962, -54.7009, 4.41502, -174.106, 4.5094, 66.1029, 0.0320822, -112.021
0, 2220.00000, 116.967, -31.627, 115.915, -151.032, 118.14, 89.1768, 0, 0, 4.45962, -54.7009, 4.41502, -174.106, 4.5094, 66.1029, 0.0320822, -112.021
0, 2280.00000, 116.967, -31.627, 115.915, -151.032, 118.14, 89.1768, 0, 0, 4.45962, -54.7009, 4.41502, -174.106, 4.5094, 66.1029, 0.0320822, -112.021
0, 2340.00000, 116.967, -31.627, 115.915, -151.032, 118.14, 89.1768, 0, 0, 4.45962, -54.7009, 4.41502, -174.106, 4.5094, 66.1029, 0.0320822, -112.021
0, 2400.00000, 116.967, -31.627, 115.915, -151.032, 118.14, 89.1768, 0, 0, 4.45962, -54.7009, 4.41502, -174.106, 4.5094, 66.1029, 0.0320822, -112.021
0, 2460.00000, 116.967, -31.627, 115.915, -151.032, 118.14, 89.1768, 0, 0, 4.45962, -54.7009, 4.41502, -174.106, 4.5094, 66.1029, 0.0320822, -112.021
0, 2520.00000, 116.967, -31.627, 115.915, -151.032, 118.14, 89.1768, 0, 0, 4.45962, -54.7009, 4.41502, -174.106, 4.5094, 66.1029, 0.0320822, -112.021
0, 2580.00000, 116.967, -31.627, 115.915, -151.032, 118.14, 89.1768, 0, 0, 4.45962, -54.7009, 4.41502, -174.106, 4.5094, 66.1029, 0.0320822, -112.021
0, 2640.00000, 116.967, -31.627, 115.915, -151.032, 118.14, 89.1768, 0, 0, 4.45962, -54.7009, 4.41502, -174.106, 4.5094, 66.1029, 0.0320822, -112.021
0, 2700.00000, 116.967, -31.627, 115.915, -151.032, 118.14, 89.1768, 0, 0, 4.45962, -54.7009, 4.41502, -174.106, 4.5094, 66.1029, 0.0320822, -112.021
0, 2760.00000, 117.114, -31.4765, 116.263, -151.015, 118.127, 89.181, 0, 0, 4.46586, -54.5504, 4.42974, -174.089, 4.50886, 66.107, 0.0300445, -109.777
0, 2820.00000, 117.114, -31.4765, 116.263, -151.015, 118.127, 89.181, 0, 0, 4.46588, -54.5504, 4.42978, -174.089, 4.50884, 66.1071, 0.0299814, -109.76
0, 2880.00000, 117.114, -31.4765, 116.263, -151.015, 118.127, 89.181, 0, 0, 4.46588, -54.5504, 4.42978, -174.089, 4.50884, 66.1071, 0.029981, -109.76
0, 2940.00000, 117.114, -31.4765, 116.263, -151.015, 118.127, 89.181, 0, 0, 4.46588, -54.5504, 4.42978, -174.089, 4.50884, 66.1071, 0.029981, -109.76
0, 3000.00000, 117.114, -31.4765, 116.263, -151.015, 118.127, 89.181, 0, 0, 4.46588, -54.5504, 4.42978, -174.089, 4.50884, 66.1071, 0.029981, -109.76
0, 3060.00000, 117.114, -31.4765, 116.263, -151.015, 118.127, 89.181, 0, 0, 4.46588, -54.5504, 4.42978, -174.089, 4.50884, 66.1071, 0.029981, -109.76
0, 3120.00000, 117.114, -31.4765, 116.263, -151.015, 118.127, 89.181, 0, 0, 4.46588, -54.5504, 4.42978, -174.089, 4.50884, 66.1071, 0.029981, -109.76
0, 3180.00000, 117.114, -31.4765, 116.263, -151.015, 118.127, 89.181, 0, 0, 4.46588, -54.5504, 4.42978, -174.089, 4.50884, 66.1071, 0.029981, -109.76
0, 3240.00000, 117.114, -31.4765, 116.263, -151.015, 118.127, 89.181, 0, 0, 4.46588, -54.5504, 4.42978, -174.089, 4.50884, 66.1071, 0.029981, -109.76
0, 3300.00000, 117.114, -31.4765, 116.263, -151.015, 118.127, 89.181, 0, 0, 4.46588, -54.5504, 4.42978, -174.089, 4.50884, 66.1071, 0.029981, -109.76
0, 3360.00000, 117.114, -31.4765, 116.263, -151.015, 118.127, 89.181, 0, 0, 4.46588, -54.5504, 4.42978, -174.089, 4.50884, 66.1071, 0.029981, -109.76
0, 3420.00000, 117.114, -31.4765, 116.263, -151.015, 118.127, 89.181, 0, 0, 4.46588, -54.5504, 4.42978, -174.089, 4.50884, 66.1071, 0.029981, -109.76
0, 3480.00000, 117.114, -31.4765, 116.263, -151.015, 118.127, 89.181, 0, 0, 4.46588, -54.5504, 4.42978, -174.089, 4.50884, 66.1071, 0.029981, -109.76
0, 3540.00000, 117.114, -31.4765, 116.263, -151.015, 118.127, 89.181, 0, 0, 4.46588, -54.5504, 4.42978, -174.089, 4.50884, 66.1071, 0.029981, -109.76
1, 0.00000, 117.114, -31.4765, 116.263, -151.015, 118.127, 89.181, 0, 0, 4.46588, -54.5504, 4.42978, -174.089, 4.50884, 66.1071, 0.029981, -109.76
1, 60.00000, 117.423, -31.4462, 116.261, -151.014, 118.239, 89.3186, 0, 0, 4.47894, -54.5204, 4.42972, -174.088, 4.51355, 66.2446, 0.0299607, -112.944
1, 120.00000, 117.423, -31.4462, 116.261, -151.014, 118.239, 89.3186, 0, 0, 4.47898, -54.5201, 4.42971, -174.088, 4.51357, 66.2447, 0.0299744, -113.043
1, 180.00000, 117.423, -31.4462, 116.261, -151.014, 118.239, 89.3186, 0, 0, 4.47898, -54.5201, 4.42971, -174.088, 4.51357, 66.2447, 0.0299745, -113.043
1, 240.00000, 117.423, -31.4462, 116.261, -151.014, 118.239, 89.3186, 0, 0, 4.47898, -54.5201, 4.42971, -174.088, 4.51357, 66.2447, 0.0299745, -113.043
1, 300.00000, 117.423, -31.4462, 116.261, -151.014, 118.239, 89.3186, 0, 0, 4.47898, -54.5201, 4.42971, -174.088, 4.51357, 66.2447, 0.0299745, -113.043
1, 360.00000, 117.423, -31.4462, 116.261, -151.014, 118.239, 89.3186, 0, 0, 4.47898, -54.5201, 4.42971, -174.088, 4.51357, 66.2447, 0.0299745, -113.043
1, 420.00000, 117.423, -31.4462, 116.261, -151.014, 118.239, 89.3186, 0, 0, 4.47898, -54.5201, 4.42971, -174.088, 4.51357, 66.2447, 0.0299745, -113.043
1, 480.00000, 117.423, -31.4462, 116.261, -151.014, 118.239, 89.3186, 0, 0, 4.47898, -54.5201, 4.42971, -174.088, 4.51357, 66.2447, 0.0299745, -113.043
1, 540.00000, 117.423, -31.4462, 116.261, -151.014, 118.239, 89.3186, 0, 0, 4.47898, -54.5201, 4.42971, -174.088, 4.51357, 66.2447, 0.0299745, -113.043
1, 600.00000, 117.423, -31.4462, 116.261, -151.014, 118.239, 89.3186, 0, 0, 4.47898, -54.5201, 4.42971, -174.088, 4.51357, 66.2447, 0.0299745, -113.043
1, 660.00000, 117.423, -31.4462, 116.261, -151.014, 118.239, 89.3186, 0, 0, 4.47898, -54.5201, 4.42971, -174.088, 4.51357, 66.2447, 0.0299745, -113.043
1, 720.00000, 117.423, -31.4462, 116.261, -151.014, 118.239, 89.3186, 0, 0, 4.47898, -54.5201, 4.42971, -174.088, 4.51357, 66.2447, 0.0299745, -113.043
1, 780.00000, 117.423, -31.4462, 116.261, -151.014, 118.239, 89.3186, 0, 0, 4.47898, -54.5201, 4.42971, -174.088, 4.51357, 66.2447, 0.0299745, -113.043
1, 840.00000, 117.423, -31.4462, 116.261, -151.014, 118.239, 89.3186, 0, 0, 4.47898, -54.5201, 4.42971, -174.088, 4.51357, 66.2447, 0.0299745, -113.043
1, 900.00000, 117.423, -31.4462, 116.261, -151.014, 118.239, 89.3186, 0, 0, 4.47898, -54.5201, 4.42971, -174.088, 4.51357, 66.2447, 0.0299745, -113.043
1, 960.00000, 117.423, -31.4462, 116.261, -151.014, 118.239, 89.3186, 0, 0, 4.47898, -54.5201, 4.42971, -174.088, 4.51357, 66.2447, 0.0299745, -113.043
1, 1020.00000, 117.423, -31.4462, 116.261, -151.014, 118.239, 89.3186, 0, 0, 4.47898, -54.5201, 4.42971, -174.088, 4.51357, 66.2447, 0.0299745, -113.043
1, 1080.00000, 117.423, -31.4462, 116.261, -151.014, 118.239, 89.3186, 0, 0, 4.47898, -54.5201, 4.42971, -174.088, 4.51357, 66.2447, 0.0299745, -113.043
1, 1140.00000, 117.423, -31.4462, 116.261, -151.014, 118.239, 89.3186, 0, 0, 4.47898, -54.5201, 4.42971, -174.088, 4.51357, 66.2447, 0.0299745, -113.043
1, 1200.00000, 117.423, -31.4462, 116.261, -151.014, 118.239, 89.3186, 0, 0, 4.47898, -54.5201, 4.42971, -174.088, 4.51357, 66.2447, 0.0299745, -113.043
1, 1260.00000, 117.423, -31.4462, 116.261, -151.014, 118.239, 89.3186, 0, 0, 4.47898, -54.5201, 4.42971, -174.088, 4.51357, 66.2447, 0.0299745, -113.043
1, 1320.00000, 117.423, -31.4462, 116.261, -151.014, 118.239, 89.3186, 0, 0, 4.47898, -54.5201, 4.42971, -174.088, 4.51357, 66.2447, 0.0299745, -113.043
1, 1380.00000, 117.423, -31.4462, 116.261, -151.014, 118.239, 89.3186, 0, 0, 4.47898, -54.5201, 4.42971, -174.088, 4.51357, 66.2447, 0.0299745, -113.043
1, 1440.00000, 117.423, -31.4462, 116.261, -151.014, 118.239, 89.3186, 0, 0, 4.47898, -54.5201, 4.42971, -174.088, 4.51357, 66.2447, 0.0299745, -113.043
1, 1500.00000, 117.423, -31.4462, 116.261, -151.014, 118.239, 89.3186, 0, 0, 4.47898, -54.5201, 4.42971, -174.088, 4.51357, 66.2447, 0.0299745, -113.043
1, 1560.00000, 117.423, -31.4462, 116.261, -151.014, 118.239, 89.3186, 0, 0, 4.47898, -54.5201, 4.42971, -174.088, 4.51357, 66.2447, 0.0299745, -113.043
1, 1620.00000, 117.423, -31.4462, 116.261, -151.014, 118.239, 89.3186, 0, 0, 4.47898, -54.5201, 4.42971, -174.088, 4.51357, 66.2447, 0.0299745, -113.043
1, 1680.00000, 117.423, -31.4462, 116.261, -151.014, 118.239, 89.3186, 0, 0, 4.47898, -54.5201, 4.42971, -174.088, 4.51357, 66.2447, 0.0299745, -113.043
1, 1740.00000, 117.423, -31.4462, 116.261, -151.014, 118.239, 89.3186, 0, 0, 4.47898, -54.5201, 4.42971, -174.088, 4.51357, 66.2447, 0.0299745, -113.043
1, 1800.00000, 117.423, -31.4462, 116.261, -151.014, 118.239, 89.3186, 0, 0, 4.47898, -54.5201, 4.42971, -174.088, 4.51357, 66.2447, 0.0299745, -113.043
1, 1860.00000, 117.423, -31.4462, 116.261, -151.014, 118.239, 89.3186, 0, 0, 4.47898, -54.5201, 4.42971, -174.088, 4.51357, 66.2447, 0.0299745, -113.043
1, 1920.00000, 117.423, -31.4462, 116.261, -151.014, 118.239, 89.3186, 0, 0, 4.47898, -54.5201, 4.42971, -174.088, 4.51357, 66.2447, 0.0299745, -113.043
1, 1980.00000, 117.423, -31.4462, 116.261, -151.014, 118.239, 89.3186, 0, 0, 4.47898, -54.5201, 4.42971, -174.088, 4.51357, 66.2447, 0.0299745, -113.043
1, 2040.00000, 117.423, -31.4462, 116.261, -151.014, 118.239, 89.3186, 0, 0, 4.47898, -54.5201, 4.42971, -174.088, 4.51357, 66.2447, 0.0299745, -113.043
1, 2100.00000, 117.423, -31.4462, 116.261, -151.014, 118.239, 89.3186, 0, 0, 4.47898, -54.5201, 4.42971, -174.088, 4.51357, 66.2447, 0.0299745, -113.043
1, 2160.00000, 117.423, -31.4462, 116.261, -151.014, 118.239, 89.3186, 0, 0, 4.47898, -54.5201, 4.42971, -174.088, 4.51357, 66.2447, 0.0299745, -113.043
1, 2220.00000, 117.423, -31.4462, 116.261, -151.014, 118.239, 89.3186, 0, 0, 4.47898, -54.5201, 4.42971, -174.088, 4.51357, 66.2447, 0.0299745, -113.043
1, 2280.00000, 117.423, -31.4462, 116.261, -151.014, 118.239, 89.3186, 0, 0, 4.47898, -54.5201, 4.42971, -174.088, 4.51357, 66.2447, 0.0299745, -113.043
1, 2340.00000, 117.423, -31.4462, 116.261, -151.014, 118.239, 89.3186, 0, 0, 4.47898, -54.5201, 4.42971, -174.088, 4.51357, 66.2447, 0.0299745, -113.043
1, 2400.00000, 117.423, -31.4462, 116.261, -151.014, 118.239, 89.3186, 0, 0, 4.47898, -54.5201, 4.42971, -174.088, 4.51357, 66.2447, 0.0299745, -113.043
1, 2460.00000, 117.423, -31.4462, 116.261, -151.014, 118.239, 89.3186, 0, 0, 4.47898, -54.5201, 4.42971, -174.088, 4.51357, 66.2447, 0.0299745, -113.043
1, 2520.00000, 117.423, -31.4462, 116.261, -151.014, 118.239, 89.3186, 0, 0, 4.47898, -54.5201, 4.42971, -174.088, 4.51357, 66.2447, 0.0299745, -113.043
1, 2580.00000, 117.423, -31.4462, 116.261, -151.014, 118.239, 89.3186, 0, 0, 4.47898, -54.5201, 4.42971, -174.088, 4.51357, 66.2447, 0.0299745, -113.043
1, 2640.00000, 117.423, -31.4462, 116.261, -151.014, 118.239, 89.3186, 0, 0, 4.47898, -54.5201, 4.42971, -174.088, 4.51357, 66.2447, 0.0299745, -113.043
1, 2700.00000, 117.423, -31.4462, 116.261, -151.014, 118.239, 89.3186, 0, 0, 4.47898, -54.5201, 4.42971, -174.088, 4.51357, 66.2447, 0.0299745, -113.043
1, 2760.00000, 117.423, -31.4462, 116.261, -151.014, 118.239, 89.3186, 0, 0, 4.47898, -54.5201, 4.42971, -174.088, 4.51357, 66.2447, 0.0299745, -113.043
1, 2820.00000, 117.423, -31.4462, 116.261, -151.014, 118.239, 89.3186, 0, 0, 4.47898, -54.5201, 4.42971, -174.088, 4.51357, 66.2447, 0.0299745, -113.043
1, 2880.00000, 117.423, -31.4462, 116.261, -151.014, 118.239, 89.3186, 0, 0, 4.47898, -54.5201, 4.42971, -174.088, 4.51357, 66.2447, 0.0299745, -113.043
1, 2940.00000, 117.423, -31.4462, 116.261, -151.014, 118.239, 89.3186, 0, 0, 4.47898, -54.5201, 4.42971, -174.088, 4.51357, 66.2447, 0.0299745, -113.043
1, 3000.00000, 117.423, -31.4462, 116.261, -151.014, 118.239, 89.3186, 0, 0, 4.47898, -54.5201, 4.42971, -174.088, 4.51357, 66.2447, 0.0299745, -113.043
1, 3060.00000, 117.423, -31.4462, 116.261, -151.014, 118.239, 89.3186, 0, 0, 4.47898, -54.5201, 4.42971, -174.088, 4.51357, 66.2447, 0.0299745, -113.043
1, 3120.00000, 117.423, -31.4462, 116.261, -151.014, 118.239, 89.3186, 0, 0, 4.47898, -54.5201, 4.42971, -174.088, 4.51357, 66.2447, 0.0299745, -113.043
1, 3180.00000, 117.423, -31.4462, 116.261, -151.014, 118.239, 89.3186, 0, 0, 4.47898, -54.5201, 4.42971, -174.088, 4.51357, 66.2447, 0.0299745, -113.043
1, 3240.00000, 117.423, -31.4462, 116.261, -151.014, 118.239, 89.3186, 0, 0, 4.47898, -54.5201, 4.42971, -174.088, 4.51357, 66.2447, 0.0299745, -113.043
1, 3300.00000, 117.423, -31.4462, 116.261, -151.014, 118.239, 89.3186, 0, 0, 4.47898, -54.5201, 4.42971, -174.088, 4.51357, 66.2447, 0.0299745, -113.043
1, 3360.00000, 117.423, -31.4462, 116.261, -151.014, 118.239, 89.3186, 0, 0, 4.47898, -54.5201, 4.42971, -174.088, 4.51357, 66.2447, 0.0299745, -113.043
1, 3420.00000, 117.423, -31.4462, 116.261, -151.014, 118.239, 89.3186, 0, 0, 4.47898, -54.5201, 4.42971, -174.088, 4.51357, 66.2447, 0.0299745, -113.043
1, 3480.00000, 117.423, -31.4462, 116.261, -151.014, 118.239, 89.3186, 0, 0, 4.47898, -54.5201, 4.42971, -174.088, 4.51357, 66.2447, 0.0299745, -113.043
1, 3540.00000, 117.423, -31.4462, 116.261, -151.014, 118.239, 89.3186, 0, 0, 4.47898, -54.5201, 4.42971, -174.088, 4.51357, 66.2447, 0.0299745, -113.043
2, 0.00000, 117.423, -31.4462, 116.261, -151.014, 118.239, 89.3186, 0, 0, 4.47898, -54.5201, 4.42971, -174.088, 4.51357, 66.2447, 0.0299745, -113.043
2, 60.00000, 117.423, -31.4462, 116.261, -151.014, 118.239, 89.3186, 0, 0, 4.47898, -54.5201, 4.42971, -174.088, 4.51357, 66.2447, 0.0299745, -113.043
2, 120.00000, 117.423, -31.4462, 116.261, -151.014, 118.239, 89.3186, 0, 0, 4.47898, -54.5201, 4.42971, -174.088, 4.51357, 66.2447, 0.0299745, -113.043
2, 180.00000, 117.423, -31.4462, 116.261, -151.014, 118.239, 89.3186, 0, 0, 4.47898, -54.5201, 4.42971, -174.088, 4.51357, 66.2447, 0.0299745, -113.043
2, 240.00000, 117.423, -31.4462, 116.261, -151.014, 118.239, 89.3186, 0, 0, 4.47898, -54.5201, 4.42971, -174.088, 4.51357, 66.2447, 0.0299745, -113.043
2, 300.00000, 117.423, -31.4462, 116.261, -151.014, 118.239, 89.3186, 0, 0, 4.47898, -54.5201, 4.42971, -174.088, 4.51357, 66.2447, 0.0299745, -113.043
2, 360.00000, 117.423, -31.4462, 116.261, -151.014, 118.239, 89.3186, 0, 0, 4.47898, -54.5201, 4.42971, -174.088, 4.51357, 66.2447, 0.0299745, -113.043
2, 420.00000, 117.423, -31.4462, 116.261, -151.014, 118.239, 89.3186, 0, 0, 4.47898, -54.5201, 4.42971, -174.088, 4.51357, 66.2447, 0.0299745, -113.043
2, 480.00000, 117.423, -31.4462, 116.261, -151.014, 118.239, 89.3186, 0, 0, 4.47898, -54.5201, 4.42971, -174.088, 4.51357, 66.2447, 0.0299745, -113.043
2, 540.00000, 117.423, -31.4462, 116.261, -151.014, 118.239, 89.3186, 0, 0, 4.47898, -54.5201, 4.42971, -174.088, 4.51357, 66.2447, 0.0299745, -113.043
2, 600.00000, 117.423, -31.4462, 116.261, -151.014, 118.239, 89.3186, 0, 0, 4.47898, -54.5201, 4.42971, -174.088, 4.51357, 66.2447, 0.0299745, -113.043
2, 660.00000, 117.423, -31.4462, 116.261, -151.014, 118.239, 89.3186, 0, 0, 4.47898, -54.5201, 4.42971, -174.088, 4.51357, 66.2447, 0.0299745, -113.043
