hour,t(sec),V1,VAngle1,V2,VAngle2,V3,VAngle3,V4,VAngle4,I1,IAngle1,I2,IAngle2,I3,IAngle3,I4,IAngle4
0, 60.00000, 117.441, -31.0565, 117.777, -150.687, 118.934, 88.9962, 0, 0, 2.16637, -54.1302, 2.17326, -173.76, 2.197, 65.9225, 0.0150925, -110.599
0, 120.00000, 117.441, -31.0566, 117.777, -150.687, 118.934, 88.9962, 0, 0, 2.16636, -54.1305, 2.17324, -173.761, 2.19696, 65.9223, 0.0150636, -110.608
0, 180.00000, 117.441, -31.0566, 117.777, -150.687, 118.934, 88.9962, 0, 0, 2.16636, -54.1305, 2.17324, -173.761, 2.19696, 65.9223, 0.0150634, -110.608
0, 240.00000, 117.441, -31.0566, 117.777, -150.687, 118.934, 88.9962, 0, 0, 2.16636, -54.1305, 2.17324, -173.761, 2.19696, 65.9223, 0.0150634, -110.608
0, 300.00000, 117.441, -31.0566, 117.777, -150.687, 118.934, 88.9962, 0, 0, 2.16636, -54.1305, 2.17324, -173.761, 2.19696, 65.9223, 0.0150634, -110.608
0, 360.00000, 117.441, -31.0566, 117.777, -150.687, 118.934, 88.9962, 0, 0, 2.16636, -54.1305, 2.17324, -173.761, 2.19696, 65.9223, 0.0150634, -110.608
0, 420.00000, 117.441, -31.0566, 117.777, -150.687, 118.934, 88.9962, 0, 0, 2.16636, -54.1305, 2.17324, -173.761, 2.19696, 65.9223, 0.0150634, -110.608
0, 480.00000, 118.454, -30.9643, 118.758, -150.597, 119.91, 89.107, 0, 0, 1.90279, -54.0387, 1.90819, -173.671, 1.92871, 66.0325, 0.0126729, -109.861
0, 540.00000, 118.455, -30.9643, 118.758, -150.597, 119.91, 89.107, 0, 0, 1.90282, -54.0382, 1.90823, -173.671, 1.92879, 66.0331, 0.012733, -109.807
0, 600.00000, 118.455, -30.9643, 118.758, -150.597, 119.91, 89.107, 0, 0, 1.90282, -54.0382, 1.90823, -173.671, 1.92879, 66.0331, 0.0127341, -109.807
0, 660.00000, 118.455, -30.9643, 118.758, -150.597, 119.91, 89.107, 0, 0, 1.90282, -54.0382, 1.90823, -173.671, 1.92879, 66.0331, 0.0127341, -109.807
0, 720.00000, 118.455, -30.9643, 118.758, -150.597, 119.91, 89.107, 0, 0, 1.90282, -54.0382, 1.90823, -173.671, 1.92879, 66.0331, 0.0127341, -109.807
0, 780.00000, 118.455, -30.9643, 118.758, -150.597, 119.91, 89.107, 0, 0, 1.90282, -54.0382, 1.90823, -173.671, 1.92879, 66.0331, 0.0127341, -109.807
0, 840.00000, 118.455, -30.9643, 118.758, -150.597, 119.91, 89.107, 0, 0, 1.90282, -54.0382, 1.90823, -173.671, 1.92879, 66.0331, 0.0127341, -109.807
0, 900.00000, 118.455, -30.9643, 118.758, -150.597, 119.91, 89.107, 0, 0, 1.90282, -54.0382, 1.90823, -173.671, 1.92879, 66.0331, 0.0127341, -109.807
0, 960.00000, 118.455, -30.9643, 118.758, -150.597, 119.91, 89.107, 0, 0, 1.90282, -54.0382, 1.90823, -173.671, 1.92879, 66.0331, 0.0127341, -109.807
0, 1020.00000, 118.455, -30.9643, 118.758, -150.597, 119.91, 89.107, 0, 0, 1.90282, -54.0382, 1.90823, -173.671, 1.92879, 66.0331, 0.0127341, -109.807
0, 1080.00000, 118.455, -30.9643, 118.758, -150.597, 119.91, 89.107, 0, 0, 1.90282, -54.0382, 1.90823, -173.671, 1.92879, 66.0331, 0.0127341, -109.807
0, 1140.00000, 118.455, -30.9643, 118.758, -150.597, 119.91, 89.107, 0, 0, 1.90282, -54.0382, 1.90823, -173.671, 1.92879, 66.0331, 0.0127341, -109.807
0, 1200.00000, 118.455, -30.9643, 118.758, -150.597, 119.91, 89.107, 0, 0, 1.90282, -54.0382, 1.90823, -173.671, 1.92879, 66.0331, 0.0127341, -109.807
0, 1260.00000, 118.455, -30.9643, 118.758, -150.597, 119.91, 89.107, 0, 0, 1.90282, -54.0382, 1.90823, -173.671, 1.92879, 66.0331, 0.0127341, -109.807
0, 1320.00000, 118.455, -30.9643, 118.758, -150.597, 119.91, 89.107, 0, 0, 1.90282, -54.0382, 1.90823, -173.671, 1.92879, 66.0331, 0.0127341, -109.807
0, 1380.00000, 118.455, -30.9643, 118.758, -150.597, 119.91, 89.107, 0, 0, 1.90282, -54.0382, 1.90823, -173.671, 1.92879, 66.0331, 0.0127341, -109.807
0, 1440.00000, 118.455, -30.9643, 118.758, -150.597, 119.91, 89.107, 0, 0, 1.90282, -54.0382, 1.90823, -173.671, 1.92879, 66.0331, 0.0127341, -109.807
0, 1500.00000, 118.455, -30.9643, 118.758, -150.597, 119.91, 89.107, 0, 0, 1.90282, -54.0382, 1.90823, -173.671, 1.92879, 66.0331, 0.0127341, -109.807
0, 1560.00000, 118.455, -30.9643, 118.758, -150.597, 119.91, 89.107, 0, 0, 1.90282, -54.0382, 1.90823, -173.671, 1.92879, 66.0331, 0.0127341, -109.807
0, 1620.00000, 118.455, -30.9643, 118.758, -150.597, 119.91, 89.107, 0, 0, 1.90282, -54.0382, 1.90823, -173.671, 1.92879, 66.0331, 0.0127341, -109.807
0, 1680.00000, 118.455, -30.9643, 118.758, -150.597, 119.91, 89.107, 0, 0, 1.90282, -54.0382, 1.90823, -173.671, 1.92879, 66.0331, 0.0127341, -109.807
0, 1740.00000, 118.455, -30.9643, 118.758, -150.597, 119.91, 89.107, 0, 0, 1.90282, -54.0382, 1.90823, -173.671, 1.92879, 66.0331, 0.0127341, -109.807
0, 1800.00000, 118.455, -30.9643, 118.758, -150.597, 119.91, 89.107, 0, 0, 1.90282, -54.0382, 1.90823, -173.671, 1.92879, 66.0331, 0.0127341, -109.807
0, 1860.00000, 118.455, -30.9643, 118.758, -150.597, 119.91, 89.107, 0, 0, 1.90282, -54.0382, 1.90823, -173.671, 1.92879, 66.0331, 0.0127341, -109.807
0, 1920.00000, 118.455, -30.9643, 118.758, -150.597, 119.91, 89.107, 0, 0, 1.90282, -54.0382, 1.90823, -173.671, 1.92879, 66.0331, 0.0127341, -109.807
0, 1980.00000, 118.455, -30.9643, 118.758, -150.597, 119.91, 89.107, 0, 0, 1.90282, -54.0382, 1.90823, -173.671, 1.92879, 66.0331, 0.0127341, -109.807
0, 2040.00000, 118.455, -30.9643, 118.758, -150.597, 119.91, 89.107, 0, 0, 1.90282, -54.0382, 1.90823, -173.671, 1.92879, 66.0331, 0.0127341, -109.807
0, 2100.00000, 118.455, -30.9643, 118.758, -150.597, 119.91, 89.107, 0, 0, 1.90282, -54.0382, 1.90823, -173.671, 1.92879, 66.0331, 0.0127341, -109.807
0, 2160.00000, 118.455, -30.9643, 118.758, -150.597, 119.91, 89.107, 0, 0, 1.90282, -54.0382, 1.90823, -173.671, 1.92879, 66.0331, 0.0127341, -109.807
0, 2220.00000, 118.455, -30.9643, 118.758, -150.597, 119.91, 89.107, 0, 0, 1.90282, -54.0382, 1.90823, -173.671, 1.92879, 66.0331, 0.0127341, -109.807
0, 2280.00000, 118.455, -30.9643, 118.758, -150.597, 119.91, 89.107, 0, 0, 1.90282, -54.0382, 1.90823, -173.671, 1.92879, 66.0331, 0.0127341, -109.807
0, 2340.00000, 118.455, -30.9643, 118.758, -150.597, 119.91, 89.107, 0, 0, 1.90282, -54.0382, 1.90823, -173.671, 1.92879, 66.0331, 0.0127341, -109.807
0, 2400.00000, 118.455, -30.9643, 118.758, -150.597, 119.91, 89.107, 0, 0, 1.90282, -54.0382, 1.90823, -173.671, 1.92879, 66.0331, 0.0127341, -109.807
0, 2460.00000, 118.455, -30.9643, 118.758, -150.597, 119.91, 89.107, 0, 0, 1.90282, -54.0382, 1.90823, -173.671, 1.92879, 66.0331, 0.0127341, -109.807
0, 2520.00000, 118.455, -30.9643, 118.758, -150.597, 119.91, 89.107, 0, 0, 1.90282, -54.0382, 1.90823, -173.671, 1.92879, 66.0331, 0.0127341, -109.807
0, 2580.00000, 118.455, -30.9643, 118.758, -150.597, 119.91, 89.107, 0, 0, 1.90282, -54.0382, 1.90823, -173.671, 1.92879, 66.0331, 0.0127341, -109.807
0, 2640.00000, 118.455, -30.9643, 118.758, -150.597, 119.91, 89.107, 0, 0, 1.90282, -54.0382, 1.90823, -173.671, 1.92879, 66.0331, 0.0127341, -109.807
0, 2700.00000, 118.455, -30.9643, 118.758, -150.597, 119.91, 89.107, 0, 0, 1.90282, -54.0382, 1.90823, -173.671, 1.92879, 66.0331, 0.0127341, -109.807
0, 2760.00000, 118.455, -30.9643, 118.758, -150.597, 119.91, 89.107, 0, 0, 1.90282, -54.0382, 1.90823, -173.671, 1.92879, 66.0331, 0.0127341, -109.807
0, 2820.00000, 118.455, -30.9643, 118.758, -150.597, 119.91, 89.107, 0, 0, 1.90282, -54.0382, 1.90823, -173.671, 1.92879, 66.0331, 0.0127341, -109.807
0, 2880.00000, 118.455, -30.9643, 118.758, -150.597, 119.91, 89.107, 0, 0, 1.90282, -54.0382, 1.90823, -173.671, 1.92879, 66.0331, 0.0127341, -109.807
0, 2940.00000, 118.455, -30.9643, 118.758, -150.597, 119.91, 89.107, 0, 0, 1.90282, -54.0382, 1.90823, -173.671, 1.92879, 66.0331, 0.0127341, -109.807
0, 3000.00000, 118.455, -30.9643, 118.758, -150.597, 119.91, 89.107, 0, 0, 1.90282, -54.0382, 1.90823, -173.671, 1.92879, 66.0331, 0.0127341, -109.807
0, 3060.00000, 118.455, -30.9643, 118.758, -150.597, 119.91, 89.107, 0, 0, 1.90282, -54.0382, 1.90823, -173.671, 1.92879, 66.0331, 0.0127341, -109.807
0, 3120.00000, 118.455, -30.9643, 118.758, -150.597, 119.91, 89.107, 0, 0, 1.90282, -54.0382, 1.90823, -173.671, 1.92879, 66.0331, 0.0127341, -109.807
0, 3180.00000, 118.455, -30.9643, 118.758, -150.597, 119.91, 89.107, 0, 0, 1.90282, -54.0382, 1.90823, -173.671, 1.92879, 66.0331, 0.0127341, -109.807
0, 3240.00000, 118.455, -30.9643, 118.758, -150.597, 119.91, 89.107, 0, 0, 1.90282, -54.0382, 1.90823, -173.671, 1.92879, 66.0331, 0.0127341, -109.807
0, 3300.00000, 118.455, -30.9643, 118.758, -150.597, 119.91, 89.107, 0, 0, 1.90282, -54.0382, 1.90823, -173.671, 1.92879, 66.0331, 0.0127341, -109.807
0, 3360.00000, 118.455, -30.9643, 118.758, -150.597, 119.91, 89.107, 0, 0, 1.90282, -54.0382, 1.90823, -173.671, 1.92879, 66.0331, 0.0127341, -109.807
0, 3420.00000, 118.455, -30.9643, 118.758, -150.597, 119.91, 89.107, 0, 0, 1.90282, -54.0382, 1.90823, -173.671, 1.92879, 66.0331, 0.0127341, -109.807
0, 3480.00000, 118.455, -30.9643, 118.758, -150.597, 119.91, 89.107, 0, 0, 1.90282, -54.0382, 1.90823, -173.671, 1.92879, 66.0331, 0.0127341, -109.807
0, 3540.00000, 118.455, -30.9643, 118.758, -150.597, 119.91, 89.107, 0, 0, 1.90282, -54.0382, 1.90823, -173.671, 1.92879, 66.0331, 0.0127341, -109.807
1, 0.00000, 118.455, -30.9643, 118.758, -150.597, 119.91, 89.107, 0, 0, 1.90282, -54.0382, 1.90823, -173.671, 1.92879, 66.0331, 0.0127341, -109.807
1, 60.00000, 118.455, -30.9643, 118.758, -150.597, 119.91, 89.107, 0, 0, 1.90282, -54.0382, 1.90823, -173.671, 1.92879, 66.0331, 0.0127341, -109.807
1, 120.00000, 118.455, -30.9643, 118.758, -150.597, 119.91, 89.107, 0, 0, 1.90282, -54.0382, 1.90823, -173.671, 1.92879, 66.0331, 0.0127341, -109.807
1, 180.00000, 118.455, -30.9643, 118.758, -150.597, 119.91, 89.107, 0, 0, 1.90282, -54.0382, 1.90823, -173.671, 1.92879, 66.0331, 0.0127341, -109.807
1, 240.00000, 118.455, -30.9643, 118.758, -150.597, 119.91, 89.107, 0, 0, 1.90282, -54.0382, 1.90823, -173.671, 1.92879, 66.0331, 0.0127341, -109.807
1, 300.00000, 118.455, -30.9643, 118.758, -150.597, 119.91, 89.107, 0, 0, 1.90282, -54.0382, 1.90823, -173.671, 1.92879, 66.0331, 0.0127341, -109.807
1, 360.00000, 118.455, -30.9643, 118.758, -150.597, 119.91, 89.107, 0, 0, 1.90282, -54.0382, 1.90823, -173.671, 1.92879, 66.0331, 0.0127341, -109.807
1, 420.00000, 118.455, -30.9643, 118.758, -150.597, 119.91, 89.107, 0, 0, 1.90282, -54.0382, 1.90823, -173.671, 1.92879, 66.0331, 0.0127341, -109.807
1, 480.00000, 118.455, -30.9643, 118.758, -150.597, 119.91, 89.107, 0, 0, 1.90282, -54.0382, 1.90823, -173.671, 1.92879, 66.0331, 0.0127341, -109.807
1, 540.00000, 118.455, -30.9643, 118.758, -150.597, 119.91, 89.107, 0, 0, 1.90282, -54.0382, 1.90823, -173.671, 1.92879, 66.0331, 0.0127341, -109.807
1, 600.00000, 118.455, -30.9643, 118.758, -150.597, 119.91, 89.107, 0, 0, 1.90282, -54.0382, 1.90823, -173.671, 1.92879, 66.0331, 0.0127341, -109.807
1, 660.00000, 118.455, -30.9643, 118.758, -150.597, 119.91, 89.107, 0, 0, 1.90282, -54.0382, 1.90823, -173.671, 1.92879, 66.0331, 0.0127341, -109.807
1, 720.00000, 118.455, -30.9643, 118.758, -150.597, 119.91, 89.107, 0, 0, 1.90282, -54.0382, 1.90823, -173.671, 1.92879, 66.0331, 0.0127341, -109.807
1, 780.00000, 118.455, -30.9643, 118.758, -150.597, 119.91, 89.107, 0, 0, 1.90282, -54.0382, 1.90823, -173.671, 1.92879, 66.0331, 0.0127341, -109.807
1, 840.00000, 118.455, -30.9643, 118.758, -150.597, 119.91, 89.107, 0, 0, 1.90282, -54.0382, 1.90823, -173.671, 1.92879, 66.0331, 0.0127341, -109.807
1, 900.00000, 118.455, -30.9643, 118.758, -150.597, 119.91, 89.107, 0, 0, 1.90282, -54.0382, 1.90823, -173.671, 1.92879, 66.0331, 0.0127341, -109.807
1, 960.00000, 118.455, -30.9643, 118.758, -150.597, 119.91, 89.107, 0, 0, 1.90282, -54.0382, 1.90823, -173.671, 1.92879, 66.0331, 0.0127341, -109.807
1, 1020.00000, 118.455, -30.9643, 118.758, -150.597, 119.91, 89.107, 0, 0, 1.90282, -54.0382, 1.90823, -173.671, 1.92879, 66.0331, 0.0127341, -109.807
1, 1080.00000, 118.455, -30.9643, 118.758, -150.597, 119.91, 89.107, 0, 0, 1.90282, -54.0382, 1.90823, -173.671, 1.92879, 66.0331, 0.0127341, -109.807
1, 1140.00000, 118.455, -30.9643, 118.758, -150.597, 119.91, 89.107, 0, 0, 1.90282, -54.0382, 1.90823, -173.671, 1.92879, 66.0331, 0.0127341, -109.807
1, 1200.00000, 118.455, -30.9643, 118.758, -150.597, 119.91, 89.107, 0, 0, 1.90282, -54.0382, 1.90823, -173.671, 1.92879, 66.0331, 0.0127341, -109.807
1, 1260.00000, 118.455, -30.9643, 118.758, -150.597, 119.91, 89.107, 0, 0, 1.90282, -54.0382, 1.90823, -173.671, 1.92879, 66.0331, 0.0127341, -109.807
1, 1320.00000, 118.455, -30.9643, 118.758, -150.597, 119.91, 89.107, 0, 0, 1.90282, -54.0382, 1.90823, -173.671, 1.92879, 66.0331, 0.0127341, -109.807
1, 1380.00000, 118.455, -30.9643, 118.758, -150.597, 119.91, 89.107, 0, 0, 1.90282, -54.0382, 1.90823, -173.671, 1.92879, 66.0331, 0.0127341, -109.807
1, 1440.00000, 118.455, -30.9643, 118.758, -150.597, 119.91, 89.107, 0, 0, 1.90282, -54.0382, 1.90823, -173.671, 1.92879, 66.0331, 0.0127341, -109.807
1, 1500.00000, 118.455, -30.9643, 118.758, -150.597, 119.91, 89.107, 0, 0, 1.90282, -54.0382, 1.90823, -173.671, 1.92879, 66.0331, 0.0127341, -109.807
1, 1560.00000, 118.455, -30.9643, 118.758, -150.597, 119.91, 89.107, 0, 0, 1.90282, -54.0382, 1.90823, -173.671, 1.92879, 66.0331, 0.0127341, -109.807
1, 1620.00000, 118.455, -30.9643, 118.758, -150.597, 119.91, 89.107, 0, 0, 1.90282, -54.0382, 1.90823, -173.671, 1.92879, 66.0331, 0.0127341, -109.807
1, 1680.00000, 118.455, -30.9643, 118.758, -150.597, 119.91, 89.107, 0, 0, 1.90282, -54.0382, 1.90823, -173.671, 1.92879, 66.0331, 0.0127341, -109.807
1, 1740.00000, 118.455, -30.9643, 118.758, -150.597, 119.91, 89.107, 0, 0, 1.90282, -54.0382, 1.90823, -173.671, 1.92879, 66.0331, 0.0127341, -109.807
1, 1800.00000, 118.455, -30.9643, 118.758, -150.597, 119.91, 89.107, 0, 0, 1.90282, -54.0382, 1.90823, -173.671, 1.92879, 66.0331, 0.0127341, -109.807
1, 1860.00000, 118.455, -30.9643, 118.758, -150.597, 119.91, 89.107, 0, 0, 1.90282, -54.0382, 1.90823, -173.671, 1.92879, 66.0331, 0.0127341, -109.807
1, 1920.00000, 118.455, -30.9643, 118.758, -150.597, 119.91, 89.107, 0, 0, 1.90282, -54.0382, 1.90823, -173.671, 1.92879, 66.0331, 0.0127341, -109.807
1, 1980.00000, 118.455, -30.9643, 118.758, -150.597, 119.91, 89.107, 0, 0, 1.90282, -54.0382, 1.90823, -173.671, 1.92879, 66.0331, 0.0127341, -109.807
1, 2040.00000, 118.455, -30.9643, 118.758, -150.597, 119.91, 89.107, 0, 0, 1.90282, -54.0382, 1.90823, -173.671, 1.92879, 66.0331, 0.0127341, -109.807
1, 2100.00000, 118.455, -30.9643, 118.758, -150.597, 119.91, 89.107, 0, 0, 1.90282, -54.0382, 1.90823, -173.671, 1.92879, 66.0331, 0.0127341, -109.807
1, 2160.00000, 118.455, -30.9643, 118.758, -150.597, 119.91, 89.107, 0, 0, 1.90282, -54.0382, 1.90823, -173.671, 1.92879, 66.0331, 0.0127341, -109.807
1, 2220.00000, 118.455, -30.9643, 118.758, -150.597, 119.91, 89.107, 0, 0, 1.90282, -54.0382, 1.90823, -173.671, 1.92879, 66.0331, 0.0127341, -109.807
1, 2280.00000, 118.455, -30.9643, 118.758, -150.597, 119.91, 89.107, 0, 0, 1.90282, -54.0382, 1.90823, -173.671, 1.92879, 66.0331, 0.0127341, -109.807
1, 2340.00000, 118.455, -30.9643, 118.758, -150.597, 119.91, 89.107, 0, 0, 1.90282, -54.0382, 1.90823, -173.671, 1.92879, 66.0331, 0.0127341, -109.807
1, 2400.00000, 118.455, -30.9643, 118.758, -150.597, 119.91, 89.107, 0, 0, 1.90282, -54.0382, 1.90823, -173.671, 1.92879, 66.0331, 0.0127341, -109.807
1, 2460.00000, 118.455, -30.9643, 118.758, -150.597, 119.91, 89.107, 0, 0, 1.90282, -54.0382, 1.90823, -173.671, 1.92879, 66.0331, 0.0127341, -109.807
1, 2520.00000, 118.455, -30.9643, 118.758, -150.597, 119.91, 89.107, 0, 0, 1.90282, -54.0382, 1.90823, -173.671, 1.92879, 66.0331, 0.0127341, -109.807
1, 2580.00000, 118.455, -30.9643, 118.758, -150.597, 119.91, 89.107, 0, 0, 1.90282, -54.0382, 1.90823, -173.671, 1.92879, 66.0331, 0.0127341, -109.807
1, 2640.00000, 118.455, -30.9643, 118.758, -150.597, 119.91, 89.107, 0, 0, 1.90282, -54.0382, 1.90823, -173.671, 1.92879, 66.0331, 0.0127341, -109.807
1, 2700.00000, 118.455, -30.9643, 118.758, -150.597, 119.91, 89.107, 0, 0, 1.90282, -54.0382, 1.90823, -173.671, 1.92879, 66.0331, 0.0127341, -109.807
1, 2760.00000, 118.455, -30.9643, 118.758, -150.597, 119.91, 89.107, 0, 0, 1.90282, -54.0382, 1.90823, -173.671, 1.92879, 66.0331, 0.0127341, -109.807
1, 2820.00000, 118.455, -30.9643, 118.758, -150.597, 119.91, 89.107, 0, 0, 1.90282, -54.0382, 1.90823, -173.671, 1.92879, 66.0331, 0.0127341, -109.807
1, 2880.00000, 118.455, -30.9643, 118.758, -150.597, 119.91, 89.107, 0, 0, 1.90282, -54.0382, 1.90823, -173.671, 1.92879, 66.0331, 0.0127341, -109.807
1, 2940.00000, 118.455, -30.9643, 118.758, -150.597, 119.91, 89.107, 0, 0, 1.90282, -54.0382, 1.90823, -173.671, 1.92879, 66.0331, 0.0127341, -109.807
1, 3000.00000, 118.455, -30.9643, 118.758, -150.597, 119.91, 89.107, 0, 0, 1.90282, -54.0382, 1.90823, -173.671, 1.92879, 66.0331, 0.0127341, -109.807
1, 3060.00000, 118.455, -30.9643, 118.758, -150.597, 119.91, 89.107, 0, 0, 1.90282, -54.0382, 1.90823, -173.671, 1.92879, 66.0331, 0.0127341, -109.807
1, 3120.00000, 118.455, -30.9643, 118.758, -150.597, 119.91, 89.107, 0, 0, 1.90282, -54.0382, 1.90823, -173.671, 1.92879, 66.0331, 0.0127341, -109.807
1, 3180.00000, 118.455, -30.9643, 118.758, -150.597, 119.91, 89.107, 0, 0, 1.90282, -54.0382, 1.90823, -173.671, 1.92879, 66.0331, 0.0127341, -109.807
1, 3240.00000, 118.455, -30.9643, 118.758, -150.597, 119.91, 89.107, 0, 0, 1.90282, -54.0382, 1.90823, -173.671, 1.92879, 66.0331, 0.0127341, -109.807
1, 3300.00000, 118.455, -30.9643, 118.758, -150.597, 119.91, 89.107, 0, 0, 1.90282, -54.0382, 1.90823, -173.671, 1.92879, 66.0331, 0.0127341, -109.807
1, 3360.00000, 118.455, -30.9643, 118.758, -150.597, 119.91, 89.107, 0, 0, 1.90282, -54.0382, 1.90823, -173.671, 1.92879, 66.0331, 0.0127341, -109.807
1, 3420.00000, 118.455, -30.9643, 118.758, -150.597, 119.91, 89.107, 0, 0, 1.90282, -54.0382, 1.90823, -173.671, 1.92879, 66.0331, 0.0127341, -109.807
1, 3480.00000, 118.455, -30.9643, 118.758, -150.597, 119.91, 89.107, 0, 0, 1.90282, -54.0382, 1.90823, -173.671, 1.92879, 66.0331, 0.0127341, -109.807
1, 3540.00000, 118.455, -30.9643, 118.758, -150.597, 119.91, 89.107, 0, 0, 1.90282, -54.0382, 1.90823, -173.671, 1.92879, 66.0331, 0.0127341, -109.807
2, 0.00000, 118.455, -30.9643, 118.758, -150.597, 119.91, 89.107, 0, 0, 1.90282, -54.0382, 1.90823, -173.671, 1.92879, 66.0331, 0.0127341, -109.807
2, 60.00000, 118.455, -30.9643, 118.758, -150.597, 119.91, 89.107, 0, 0, 1.90282, -54.0382, 1.90823, -173.671, 1.92879, 66.0331, 0.0127341, -109.807
2, 120.00000, 118.455, -30.9643, 118.758, -150.597, 119.91, 89.107, 0, 0, 1.90282, -54.0382, 1.90823, -173.671, 1.92879, 66.0331, 0.0127341, -109.807
2, 180.00000, 118.455, -30.9643, 118.758, -150.597, 119.91, 89.107, 0, 0, 1.90282, -54.0382, 1.90823, -173.671, 1.92879, 66.0331, 0.0127341, -109.807
2, 240.00000, 118.455, -30.9643, 118.758, -150.597, 119.91, 89.107, 0, 0, 1.90282, -54.0382, 1.90823, -173.671, 1.92879, 66.0331, 0.0127341, -109.807
2, 300.00000, 118.455, -30.9643, 118.758, -150.597, 119.91, 89.107, 0, 0, 1.90282, -54.0382, 1.90823, -173.671, 1.92879, 66.0331, 0.0127341, -109.807
2, 360.00000, 118.455, -30.9643, 118.758, -150.597, 119.91, 89.107, 0, 0, 1.90282, -54.0382, 1.90823, -173.671, 1.92879, 66.0331, 0.0127341, -109.807
2, 420.00000, 118.455, -30.9643, 118.758, -150.597, 119.91, 89.107, 0, 0, 1.90282, -54.0382, 1.90823, -173.671, 1.92879, 66.0331, 0.0127341, -109.807
2, 480.00000, 118.455, -30.9643, 118.758, -150.597, 119.91, 89.107, 0, 0, 1.90282, -54.0382, 1.90823, -173.671, 1.92879, 66.0331, 0.0127341, -109.807
2, 540.00000, 118.455, -30.9643, 118.758, -150.597, 119.91, 89.107, 0, 0, 1.90282, -54.0382, 1.90823, -173.671, 1.92879, 66.0331, 0.0127341, -109.807
2, 600.00000, 118.455, -30.9643, 118.758, -150.597, 119.91, 89.107, 0, 0, 1.90282, -54.0382, 1.90823, -173.671, 1.92879, 66.0331, 0.0127341, -109.807
2, 660.00000, 118.455, -30.9643, 118.758, -150.597, 119.91, 89.107, 0, 0, 1.90282, -54.0382, 1.90823, -173.671, 1.92879, 66.0331, 0.0127341, -109.807
2, 720.00000, 118.455, -30.9643, 118.758, -150.597, 119.91, 89.107, 0, 0, 1.90282, -54.0382, 1.90823, -173.671, 1.92879, 66.0331, 0.0127341, -109.807
