hour,t(sec),V1,VAngle1,V2,VAngle2,V3,VAngle3,V4,VAngle4,I1,IAngle1,I2,IAngle2,I3,IAngle3,I4,IAngle4
0, 60.00000, 123.06, -31.622, 123.335, -151.247, 124.229, 88.4843, 0, 0, 4.93388, -54.6957, 4.92285, -174.32, 4.88747, 65.4106, 0.0707732, 78.9524
0, 120.00000, 123.06, -31.622, 123.335, -151.247, 124.229, 88.4843, 0, 0, 4.93393, -54.6959, 4.92291, -174.321, 4.88751, 65.4103, 0.0707977, 78.9432
0, 180.00000, 123.06, -31.622, 123.335, -151.247, 124.229, 88.4843, 0, 0, 4.93393, -54.6959, 4.92291, -174.321, 4.88751, 65.4103, 0.0707978, 78.9431
0, 240.00000, 123.06, -31.622, 123.335, -151.247, 124.229, 88.4843, 0, 0, 4.93393, -54.6959, 4.92291, -174.321, 4.88751, 65.4103, 0.0707978, 78.9431
0, 300.00000, 123.06, -31.622, 123.335, -151.247, 124.229, 88.4843, 0, 0, 4.93393, -54.6959, 4.92291, -174.321, 4.88751, 65.4103, 0.0707978, 78.9431
0, 360.00000, 123.06, -31.622, 123.335, -151.247, 124.229, 88.4843, 0, 0, 4.93393, -54.6959, 4.92291, -174.321, 4.88751, 65.4103, 0.0707978, 78.9431
0, 420.00000, 123.06, -31.622, 123.335, -151.247, 124.229, 88.4843, 0, 0, 4.93393, -54.6959, 4.92291, -174.321, 4.88751, 65.4103, 0.0707978, 78.9431
0, 480.00000, 123.581, -31.4937, 123.842, -151.119, 124.726, 88.6188, 0, 0, 5.48287, -54.568, 5.47133, -174.193, 5.43258, 65.5445, 0.0774288, 78.36
0, 540.00000, 123.581, -31.4937, 123.842, -151.119, 124.726, 88.6188, 0, 0, 5.48281, -54.5676, 5.47124, -174.193, 5.43249, 65.5449, 0.0774281, 78.3662
0, 600.00000, 123.581, -31.4937, 123.842, -151.119, 124.726, 88.6188, 0, 0, 5.48281, -54.5676, 5.47124, -174.193, 5.43249, 65.5449, 0.0774282, 78.3663
0, 660.00000, 123.581, -31.4937, 123.842, -151.119, 124.726, 88.6188, 0, 0, 5.48281, -54.5676, 5.47124, -174.193, 5.43249, 65.5449, 0.0774282, 78.3663
0, 720.00000, 123.581, -31.4937, 123.842, -151.119, 124.726, 88.6188, 0, 0, 5.48281, -54.5676, 5.47124, -174.193, 5.43249, 65.5449, 0.0774282, 78.3663
0, 780.00000, 123.581, -31.4937, 123.842, -151.119, 124.726, 88.6188, 0, 0, 5.48281, -54.5676, 5.47124, -174.193, 5.43249, 65.5449, 0.0774282, 78.3663
0, 840.00000, 123.581, -31.4937, 123.842, -151.119, 124.726, 88.6188, 0, 0, 5.48281, -54.5676, 5.47124, -174.193, 5.43249, 65.5449, 0.0774282, 78.3663
0, 900.00000, 123.581, -31.4937, 123.842, -151.119, 124.726, 88.6188, 0, 0, 5.48281, -54.5676, 5.47124, -174.193, 5.43249, 65.5449, 0.0774282, 78.3663
0, 960.00000, 123.581, -31.4937, 123.842, -151.119, 124.726, 88.6188, 0, 0, 5.48281, -54.5676, 5.47124, -174.193, 5.43249, 65.5449, 0.0774282, 78.3663
0, 1020.00000, 123.581, -31.4937, 123.842, -151.119, 124.726, 88.6188, 0, 0, 5.48281, -54.5676, 5.47124, -174.193, 5.43249, 65.5449, 0.0774282, 78.3663
0, 1080.00000, 123.581, -31.4937, 123.842, -151.119, 124.726, 88.6188, 0, 0, 5.48281, -54.5676, 5.47124, -174.193, 5.43249, 65.5449, 0.0774282, 78.3663
0, 1140.00000, 123.581, -31.4937, 123.842, -151.119, 124.726, 88.6188, 0, 0, 5.48281, -54.5676, 5.47124, -174.193, 5.43249, 65.5449, 0.0774282, 78.3663
0, 1200.00000, 123.581, -31.4937, 123.842, -151.119, 124.726, 88.6188, 0, 0, 5.48281, -54.5676, 5.47124, -174.193, 5.43249, 65.5449, 0.0774282, 78.3663
0, 1260.00000, 123.581, -31.4937, 123.842, -151.119, 124.726, 88.6188, 0, 0, 5.48281, -54.5676, 5.47124, -174.193, 5.43249, 65.5449, 0.0774282, 78.3663
0, 1320.00000, 123.581, -31.4937, 123.842, -151.119, 124.726, 88.6188, 0, 0, 5.48281, -54.5676, 5.47124, -174.193, 5.43249, 65.5449, 0.0774282, 78.3663
0, 1380.00000, 123.581, -31.4937, 123.842, -151.119, 124.726, 88.6188, 0, 0, 5.48281, -54.5676, 5.47124, -174.193, 5.43249, 65.5449, 0.0774282, 78.3663
0, 1440.00000, 123.581, -31.4937, 123.842, -151.119, 124.726, 88.6188, 0, 0, 5.48281, -54.5676, 5.47124, -174.193, 5.43249, 65.5449, 0.0774282, 78.3663
0, 1500.00000, 123.581, -31.4937, 123.842, -151.119, 124.726, 88.6188, 0, 0, 5.48281, -54.5676, 5.47124, -174.193, 5.43249, 65.5449, 0.0774282, 78.3663
0, 1560.00000, 123.581, -31.4937, 123.842, -151.119, 124.726, 88.6188, 0, 0, 5.48281, -54.5676, 5.47124, -174.193, 5.43249, 65.5449, 0.0774282, 78.3663
0, 1620.00000, 123.581, -31.4937, 123.842, -151.119, 124.726, 88.6188, 0, 0, 5.48281, -54.5676, 5.47124, -174.193, 5.43249, 65.5449, 0.0774282, 78.3663
0, 1680.00000, 123.581, -31.4937, 123.842, -151.119, 124.726, 88.6188, 0, 0, 5.48281, -54.5676, 5.47124, -174.193, 5.43249, 65.5449, 0.0774282, 78.3663
0, 1740.00000, 123.581, -31.4937, 123.842, -151.119, 124.726, 88.6188, 0, 0, 5.48281, -54.5676, 5.47124, -174.193, 5.43249, 65.5449, 0.0774282, 78.3663
0, 1800.00000, 123.581, -31.4937, 123.842, -151.119, 124.726, 88.6188, 0, 0, 5.48281, -54.5676, 5.47124, -174.193, 5.43249, 65.5449, 0.0774282, 78.3663
0, 1860.00000, 123.581, -31.4937, 123.842, -151.119, 124.726, 88.6188, 0, 0, 5.48281, -54.5676, 5.47124, -174.193, 5.43249, 65.5449, 0.0774282, 78.3663
0, 1920.00000, 123.581, -31.4937, 123.842, -151.119, 124.726, 88.6188, 0, 0, 5.48281, -54.5676, 5.47124, -174.193, 5.43249, 65.5449, 0.0774282, 78.3663
0, 1980.00000, 123.581, -31.4937, 123.842, -151.119, 124.726, 88.6188, 0, 0, 5.48281, -54.5676, 5.47124, -174.193, 5.43249, 65.5449, 0.0774282, 78.3663
0, 2040.00000, 123.581, -31.4937, 123.842, -151.119, 124.726, 88.6188, 0, 0, 5.48281, -54.5676, 5.47124, -174.193, 5.43249, 65.5449, 0.0774282, 78.3663
0, 2100.00000, 123.581, -31.4937, 123.842, -151.119, 124.726, 88.6188, 0, 0, 5.48281, -54.5676, 5.47124, -174.193, 5.43249, 65.5449, 0.0774282, 78.3663
0, 2160.00000, 123.581, -31.4937, 123.842, -151.119, 124.726, 88.6188, 0, 0, 5.48281, -54.5676, 5.47124, -174.193, 5.43249, 65.5449, 0.0774282, 78.3663
0, 2220.00000, 123.581, -31.4937, 123.842, -151.119, 124.726, 88.6188, 0, 0, 5.48281, -54.5676, 5.47124, -174.193, 5.43249, 65.5449, 0.0774282, 78.3663
0, 2280.00000, 123.581, -31.4937, 123.842, -151.119, 124.726, 88.6188, 0, 0, 5.48281, -54.5676, 5.47124, -174.193, 5.43249, 65.5449, 0.0774282, 78.3663
0, 2340.00000, 123.581, -31.4937, 123.842, -151.119, 124.726, 88.6188, 0, 0, 5.48281, -54.5676, 5.47124, -174.193, 5.43249, 65.5449, 0.0774282, 78.3663
0, 2400.00000, 123.581, -31.4937, 123.842, -151.119, 124.726, 88.6188, 0, 0, 5.48281, -54.5676, 5.47124, -174.193, 5.43249, 65.5449, 0.0774282, 78.3663
0, 2460.00000, 123.581, -31.4937, 123.842, -151.119, 124.726, 88.6188, 0, 0, 5.48281, -54.5676, 5.47124, -174.193, 5.43249, 65.5449, 0.0774282, 78.3663
0, 2520.00000, 123.581, -31.4937, 123.842, -151.119, 124.726, 88.6188, 0, 0, 5.48281, -54.5676, 5.47124, -174.193, 5.43249, 65.5449, 0.0774282, 78.3663
0, 2580.00000, 123.581, -31.4937, 123.842, -151.119, 124.726, 88.6188, 0, 0, 5.48281, -54.5676, 5.47124, -174.193, 5.43249, 65.5449, 0.0774282, 78.3663
0, 2640.00000, 123.581, -31.4937, 123.842, -151.119, 124.726, 88.6188, 0, 0, 5.48281, -54.5676, 5.47124, -174.193, 5.43249, 65.5449, 0.0774282, 78.3663
0, 2700.00000, 123.581, -31.4937, 123.842, -151.119, 124.726, 88.6188, 0, 0, 5.48281, -54.5676, 5.47124, -174.193, 5.43249, 65.5449, 0.0774282, 78.3663
0, 2760.00000, 123.581, -31.4937, 123.842, -151.119, 124.726, 88.6188, 0, 0, 5.48281, -54.5676, 5.47124, -174.193, 5.43249, 65.5449, 0.0774282, 78.3663
0, 2820.00000, 123.581, -31.4937, 123.842, -151.119, 124.726, 88.6188, 0, 0, 5.48281, -54.5676, 5.47124, -174.193, 5.43249, 65.5449, 0.0774282, 78.3663
0, 2880.00000, 123.581, -31.4937, 123.842, -151.119, 124.726, 88.6188, 0, 0, 5.48281, -54.5676, 5.47124, -174.193, 5.43249, 65.5449, 0.0774282, 78.3663
0, 2940.00000, 123.581, -31.4937, 123.842, -151.119, 124.726, 88.6188, 0, 0, 5.48281, -54.5676, 5.47124, -174.193, 5.43249, 65.5449, 0.0774282, 78.3663
0, 3000.00000, 123.581, -31.4937, 123.842, -151.119, 124.726, 88.6188, 0, 0, 5.48281, -54.5676, 5.47124, -174.193, 5.43249, 65.5449, 0.0774282, 78.3663
0, 3060.00000, 123.581, -31.4937, 123.842, -151.119, 124.726, 88.6188, 0, 0, 5.48281, -54.5676, 5.47124, -174.193, 5.43249, 65.5449, 0.0774282, 78.3663
0, 3120.00000, 123.581, -31.4937, 123.842, -151.119, 124.726, 88.6188, 0, 0, 5.48281, -54.5676, 5.47124, -174.193, 5.43249, 65.5449, 0.0774282, 78.3663
0, 3180.00000, 123.581, -31.4937, 123.842, -151.119, 124.726, 88.6188, 0, 0, 5.48281, -54.5676, 5.47124, -174.193, 5.43249, 65.5449, 0.0774282, 78.3663
0, 3240.00000, 123.581, -31.4937, 123.842, -151.119, 124.726, 88.6188, 0, 0, 5.48281, -54.5676, 5.47124, -174.193, 5.43249, 65.5449, 0.0774282, 78.3663
0, 3300.00000, 123.581, -31.4937, 123.842, -151.119, 124.726, 88.6188, 0, 0, 5.48281, -54.5676, 5.47124, -174.193, 5.43249, 65.5449, 0.0774282, 78.3663
0, 3360.00000, 123.581, -31.4937, 123.842, -151.119, 124.726, 88.6188, 0, 0, 5.48281, -54.5676, 5.47124, -174.193, 5.43249, 65.5449, 0.0774282, 78.3663
0, 3420.00000, 123.581, -31.4937, 123.842, -151.119, 124.726, 88.6188, 0, 0, 5.48281, -54.5676, 5.47124, -174.193, 5.43249, 65.5449, 0.0774282, 78.3663
0, 3480.00000, 123.581, -31.4937, 123.842, -151.119, 124.726, 88.6188, 0, 0, 5.48281, -54.5676, 5.47124, -174.193, 5.43249, 65.5449, 0.0774282, 78.3663
0, 3540.00000, 123.581, -31.4937, 123.842, -151.119, 124.726, 88.6188, 0, 0, 5.48281, -54.5676, 5.47124, -174.193, 5.43249, 65.5449, 0.0774282, 78.3663
1, 0.00000, 123.581, -31.4937, 123.842, -151.119, 124.726, 88.6188, 0, 0, 5.48281, -54.5676, 5.47124, -174.193, 5.43249, 65.5449, 0.0774282, 78.3663
1, 60.00000, 123.581, -31.4937, 123.842, -151.119, 124.726, 88.6188, 0, 0, 5.48281, -54.5676, 5.47124, -174.193, 5.43249, 65.5449, 0.0774282, 78.3663
1, 120.00000, 123.581, -31.4937, 123.842, -151.119, 124.726, 88.6188, 0, 0, 5.48281, -54.5676, 5.47124, -174.193, 5.43249, 65.5449, 0.0774282, 78.3663
1, 180.00000, 123.581, -31.4937, 123.842, -151.119, 124.726, 88.6188, 0, 0, 5.48281, -54.5676, 5.47124, -174.193, 5.43249, 65.5449, 0.0774282, 78.3663
1, 240.00000, 123.581, -31.4937, 123.842, -151.119, 124.726, 88.6188, 0, 0, 5.48281, -54.5676, 5.47124, -174.193, 5.43249, 65.5449, 0.0774282, 78.3663
1, 300.00000, 123.581, -31.4937, 123.842, -151.119, 124.726, 88.6188, 0, 0, 5.48281, -54.5676, 5.47124, -174.193, 5.43249, 65.5449, 0.0774282, 78.3663
1, 360.00000, 123.581, -31.4937, 123.842, -151.119, 124.726, 88.6188, 0, 0, 5.48281, -54.5676, 5.47124, -174.193, 5.43249, 65.5449, 0.0774282, 78.3663
1, 420.00000, 123.581, -31.4937, 123.842, -151.119, 124.726, 88.6188, 0, 0, 5.48281, -54.5676, 5.47124, -174.193, 5.43249, 65.5449, 0.0774282, 78.3663
1, 480.00000, 123.581, -31.4937, 123.842, -151.119, 124.726, 88.6188, 0, 0, 5.48281, -54.5676, 5.47124, -174.193, 5.43249, 65.5449, 0.0774282, 78.3663
1, 540.00000, 123.581, -31.4937, 123.842, -151.119, 124.726, 88.6188, 0, 0, 5.48281, -54.5676, 5.47124, -174.193, 5.43249, 65.5449, 0.0774282, 78.3663
1, 600.00000, 123.581, -31.4937, 123.842, -151.119, 124.726, 88.6188, 0, 0, 5.48281, -54.5676, 5.47124, -174.193, 5.43249, 65.5449, 0.0774282, 78.3663
1, 660.00000, 123.581, -31.4937, 123.842, -151.119, 124.726, 88.6188, 0, 0, 5.48281, -54.5676, 5.47124, -174.193, 5.43249, 65.5449, 0.0774282, 78.3663
1, 720.00000, 123.581, -31.4937, 123.842, -151.119, 124.726, 88.6188, 0, 0, 5.48281, -54.5676, 5.47124, -174.193, 5.43249, 65.5449, 0.0774282, 78.3663
1, 780.00000, 123.581, -31.4937, 123.842, -151.119, 124.726, 88.6188, 0, 0, 5.48281, -54.5676, 5.47124, -174.193, 5.43249, 65.5449, 0.0774282, 78.3663
1, 840.00000, 123.581, -31.4937, 123.842, -151.119, 124.726, 88.6188, 0, 0, 5.48281, -54.5676, 5.47124, -174.193, 5.43249, 65.5449, 0.0774282, 78.3663
1, 900.00000, 123.581, -31.4937, 123.842, -151.119, 124.726, 88.6188, 0, 0, 5.48281, -54.5676, 5.47124, -174.193, 5.43249, 65.5449, 0.0774282, 78.3663
1, 960.00000, 123.581, -31.4937, 123.842, -151.119, 124.726, 88.6188, 0, 0, 5.48281, -54.5676, 5.47124, -174.193, 5.43249, 65.5449, 0.0774282, 78.3663
1, 1020.00000, 123.581, -31.4937, 123.842, -151.119, 124.726, 88.6188, 0, 0, 5.48281, -54.5676, 5.47124, -174.193, 5.43249, 65.5449, 0.0774282, 78.3663
1, 1080.00000, 123.581, -31.4937, 123.842, -151.119, 124.726, 88.6188, 0, 0, 5.48281, -54.5676, 5.47124, -174.193, 5.43249, 65.5449, 0.0774282, 78.3663
1, 1140.00000, 123.581, -31.4937, 123.842, -151.119, 124.726, 88.6188, 0, 0, 5.48281, -54.5676, 5.47124, -174.193, 5.43249, 65.5449, 0.0774282, 78.3663
1, 1200.00000, 123.581, -31.4937, 123.842, -151.119, 124.726, 88.6188, 0, 0, 5.48281, -54.5676, 5.47124, -174.193, 5.43249, 65.5449, 0.0774282, 78.3663
1, 1260.00000, 123.581, -31.4937, 123.842, -151.119, 124.726, 88.6188, 0, 0, 5.48281, -54.5676, 5.47124, -174.193, 5.43249, 65.5449, 0.0774282, 78.3663
1, 1320.00000, 123.581, -31.4937, 123.842, -151.119, 124.726, 88.6188, 0, 0, 5.48281, -54.5676, 5.47124, -174.193, 5.43249, 65.5449, 0.0774282, 78.3663
1, 1380.00000, 123.581, -31.4937, 123.842, -151.119, 124.726, 88.6188, 0, 0, 5.48281, -54.5676, 5.47124, -174.193, 5.43249, 65.5449, 0.0774282, 78.3663
1, 1440.00000, 123.581, -31.4937, 123.842, -151.119, 124.726, 88.6188, 0, 0, 5.48281, -54.5676, 5.47124, -174.193, 5.43249, 65.5449, 0.0774282, 78.3663
1, 1500.00000, 123.581, -31.4937, 123.842, -151.119, 124.726, 88.6188, 0, 0, 5.48281, -54.5676, 5.47124, -174.193, 5.43249, 65.5449, 0.0774282, 78.3663
1, 1560.00000, 123.581, -31.4937, 123.842, -151.119, 124.726, 88.6188, 0, 0, 5.48281, -54.5676, 5.47124, -174.193, 5.43249, 65.5449, 0.0774282, 78.3663
1, 1620.00000, 123.581, -31.4937, 123.842, -151.119, 124.726, 88.6188, 0, 0, 5.48281, -54.5676, 5.47124, -174.193, 5.43249, 65.5449, 0.0774282, 78.3663
1, 1680.00000, 123.581, -31.4937, 123.842, -151.119, 124.726, 88.6188, 0, 0, 5.48281, -54.5676, 5.47124, -174.193, 5.43249, 65.5449, 0.0774282, 78.3663
1, 1740.00000, 123.581, -31.4937, 123.842, -151.119, 124.726, 88.6188, 0, 0, 5.48281, -54.5676, 5.47124, -174.193, 5.43249, 65.5449, 0.0774282, 78.3663
1, 1800.00000, 123.581, -31.4937, 123.842, -151.119, 124.726, 88.6188, 0, 0, 5.48281, -54.5676, 5.47124, -174.193, 5.43249, 65.5449, 0.0774282, 78.3663
1, 1860.00000, 123.581, -31.4937, 123.842, -151.119, 124.726, 88.6188, 0, 0, 5.48281, -54.5676, 5.47124, -174.193, 5.43249, 65.5449, 0.0774282, 78.3663
1, 1920.00000, 123.581, -31.4937, 123.842, -151.119, 124.726, 88.6188, 0, 0, 5.48281, -54.5676, 5.47124, -174.193, 5.43249, 65.5449, 0.0774282, 78.3663
1, 1980.00000, 123.581, -31.4937, 123.842, -151.119, 124.726, 88.6188, 0, 0, 5.48281, -54.5676, 5.47124, -174.193, 5.43249, 65.5449, 0.0774282, 78.3663
1, 2040.00000, 123.581, -31.4937, 123.842, -151.119, 124.726, 88.6188, 0, 0, 5.48281, -54.5676, 5.47124, -174.193, 5.43249, 65.5449, 0.0774282, 78.3663
1, 2100.00000, 123.581, -31.4937, 123.842, -151.119, 124.726, 88.6188, 0, 0, 5.48281, -54.5676, 5.47124, -174.193, 5.43249, 65.5449, 0.0774282, 78.3663
1, 2160.00000, 123.581, -31.4937, 123.842, -151.119, 124.726, 88.6188, 0, 0, 5.48281, -54.5676, 5.47124, -174.193, 5.43249, 65.5449, 0.0774282, 78.3663
1, 2220.00000, 123.581, -31.4937, 123.842, -151.119, 124.726, 88.6188, 0, 0, 5.48281, -54.5676, 5.47124, -174.193, 5.43249, 65.5449, 0.0774282, 78.3663
1, 2280.00000, 123.581, -31.4937, 123.842, -151.119, 124.726, 88.6188, 0, 0, 5.48281, -54.5676, 5.47124, -174.193, 5.43249, 65.5449, 0.0774282, 78.3663
1, 2340.00000, 123.581, -31.4937, 123.842, -151.119, 124.726, 88.6188, 0, 0, 5.48281, -54.5676, 5.47124, -174.193, 5.43249, 65.5449, 0.0774282, 78.3663
1, 2400.00000, 123.581, -31.4937, 123.842, -151.119, 124.726, 88.6188, 0, 0, 5.48281, -54.5676, 5.47124, -174.193, 5.43249, 65.5449, 0.0774282, 78.3663
1, 2460.00000, 123.581, -31.4937, 123.842, -151.119, 124.726, 88.6188, 0, 0, 5.48281, -54.5676, 5.47124, -174.193, 5.43249, 65.5449, 0.0774282, 78.3663
1, 2520.00000, 123.581, -31.4937, 123.842, -151.119, 124.726, 88.6188, 0, 0, 5.48281, -54.5676, 5.47124, -174.193, 5.43249, 65.5449, 0.0774282, 78.3663
1, 2580.00000, 123.581, -31.4937, 123.842, -151.119, 124.726, 88.6188, 0, 0, 5.48281, -54.5676, 5.47124, -174.193, 5.43249, 65.5449, 0.0774282, 78.3663
1, 2640.00000, 123.581, -31.4937, 123.842, -151.119, 124.726, 88.6188, 0, 0, 5.48281, -54.5676, 5.47124, -174.193, 5.43249, 65.5449, 0.0774282, 78.3663
1, 2700.00000, 123.581, -31.4937, 123.842, -151.119, 124.726, 88.6188, 0, 0, 5.48281, -54.5676, 5.47124, -174.193, 5.43249, 65.5449, 0.0774282, 78.3663
1, 2760.00000, 123.581, -31.4937, 123.842, -151.119, 124.726, 88.6188, 0, 0, 5.48281, -54.5676, 5.47124, -174.193, 5.43249, 65.5449, 0.0774282, 78.3663
1, 2820.00000, 123.581, -31.4937, 123.842, -151.119, 124.726, 88.6188, 0, 0, 5.48281, -54.5676, 5.47124, -174.193, 5.43249, 65.5449, 0.0774282, 78.3663
1, 2880.00000, 123.581, -31.4937, 123.842, -151.119, 124.726, 88.6188, 0, 0, 5.48281, -54.5676, 5.47124, -174.193, 5.43249, 65.5449, 0.0774282, 78.3663
1, 2940.00000, 123.581, -31.4937, 123.842, -151.119, 124.726, 88.6188, 0, 0, 5.48281, -54.5676, 5.47124, -174.193, 5.43249, 65.5449, 0.0774282, 78.3663
1, 3000.00000, 123.581, -31.4937, 123.842, -151.119, 124.726, 88.6188, 0, 0, 5.48281, -54.5676, 5.47124, -174.193, 5.43249, 65.5449, 0.0774282, 78.3663
1, 3060.00000, 123.581, -31.4937, 123.842, -151.119, 124.726, 88.6188, 0, 0, 5.48281, -54.5676, 5.47124, -174.193, 5.43249, 65.5449, 0.0774282, 78.3663
1, 3120.00000, 123.581, -31.4937, 123.842, -151.119, 124.726, 88.6188, 0, 0, 5.48281, -54.5676, 5.47124, -174.193, 5.43249, 65.5449, 0.0774282, 78.3663
1, 3180.00000, 123.581, -31.4937, 123.842, -151.119, 124.726, 88.6188, 0, 0, 5.48281, -54.5676, 5.47124, -174.193, 5.43249, 65.5449, 0.0774282, 78.3663
1, 3240.00000, 123.581, -31.4937, 123.842, -151.119, 124.726, 88.6188, 0, 0, 5.48281, -54.5676, 5.47124, -174.193, 5.43249, 65.5449, 0.0774282, 78.3663
1, 3300.00000, 123.581, -31.4937, 123.842, -151.119, 124.726, 88.6188, 0, 0, 5.48281, -54.5676, 5.47124, -174.193, 5.43249, 65.5449, 0.0774282, 78.3663
1, 3360.00000, 123.581, -31.4937, 123.842, -151.119, 124.726, 88.6188, 0, 0, 5.48281, -54.5676, 5.47124, -174.193, 5.43249, 65.5449, 0.0774282, 78.3663
1, 3420.00000, 123.581, -31.4937, 123.842, -151.119, 124.726, 88.6188, 0, 0, 5.48281, -54.5676, 5.47124, -174.193, 5.43249, 65.5449, 0.0774282, 78.3663
1, 3480.00000, 123.581, -31.4937, 123.842, -151.119, 124.726, 88.6188, 0, 0, 5.48281, -54.5676, 5.47124, -174.193, 5.43249, 65.5449, 0.0774282, 78.3663
1, 3540.00000, 123.581, -31.4937, 123.842, -151.119, 124.726, 88.6188, 0, 0, 5.48281, -54.5676, 5.47124, -174.193, 5.43249, 65.5449, 0.0774282, 78.3663
2, 0.00000, 123.581, -31.4937, 123.842, -151.119, 124.726, 88.6188, 0, 0, 5.48281, -54.5676, 5.47124, -174.193, 5.43249, 65.5449, 0.0774282, 78.3663
2, 60.00000, 123.581, -31.4937, 123.842, -151.119, 124.726, 88.6188, 0, 0, 5.48281, -54.5676, 5.47124, -174.193, 5.43249, 65.5449, 0.0774282, 78.3663
2, 120.00000, 123.581, -31.4937, 123.842, -151.119, 124.726, 88.6188, 0, 0, 5.48281, -54.5676, 5.47124, -174.193, 5.43249, 65.5449, 0.0774282, 78.3663
2, 180.00000, 123.581, -31.4937, 123.842, -151.119, 124.726, 88.6188, 0, 0, 5.48281, -54.5676, 5.47124, -174.193, 5.43249, 65.5449, 0.0774282, 78.3663
2, 240.00000, 123.581, -31.4937, 123.842, -151.119, 124.726, 88.6188, 0, 0, 5.48281, -54.5676, 5.47124, -174.193, 5.43249, 65.5449, 0.0774282, 78.3663
2, 300.00000, 123.581, -31.4937, 123.842, -151.119, 124.726, 88.6188, 0, 0, 5.48281, -54.5676, 5.47124, -174.193, 5.43249, 65.5449, 0.0774282, 78.3663
2, 360.00000, 123.581, -31.4937, 123.842, -151.119, 124.726, 88.6188, 0, 0, 5.48281, -54.5676, 5.47124, -174.193, 5.43249, 65.5449, 0.0774282, 78.3663
2, 420.00000, 123.581, -31.4937, 123.842, -151.119, 124.726, 88.6188, 0, 0, 5.48281, -54.5676, 5.47124, -174.193, 5.43249, 65.5449, 0.0774282, 78.3663
2, 480.00000, 123.581, -31.4937, 123.842, -151.119, 124.726, 88.6188, 0, 0, 5.48281, -54.5676, 5.47124, -174.193, 5.43249, 65.5449, 0.0774282, 78.3663
2, 540.00000, 123.581, -31.4937, 123.842, -151.119, 124.726, 88.6188, 0, 0, 5.48281, -54.5676, 5.47124, -174.193, 5.43249, 65.5449, 0.0774282, 78.3663
2, 600.00000, 123.581, -31.4937, 123.842, -151.119, 124.726, 88.6188, 0, 0, 5.48281, -54.5676, 5.47124, -174.193, 5.43249, 65.5449, 0.0774282, 78.3663
2, 660.00000, 123.581, -31.4937, 123.842, -151.119, 124.726, 88.6188, 0, 0, 5.48281, -54.5676, 5.47124, -174.193, 5.43249, 65.5449, 0.0774282, 78.3663
