hour,t(sec),"P1 (kW)","Q1 (kvar)","P2 (kW)","Q2 (kvar)","P3 (kW)","Q3 (kvar)","P4 (kW)","Q4 (kvar)"
0, 60.00000, 0.12479, 0.05316, 0.128951, 0.0549329, 0.128772, 0.0548556, 0, 0
0, 120.00000, 0.124789, 0.0531599, 0.12895, 0.0549326, 0.12877, 0.0548558, 0, 0
0, 180.00000, 0.124789, 0.0531599, 0.12895, 0.0549326, 0.12877, 0.0548558, 0, 0
0, 240.00000, 0.124789, 0.0531599, 0.12895, 0.0549326, 0.12877, 0.0548558, 0, 0
0, 300.00000, 0.124789, 0.0531599, 0.12895, 0.0549326, 0.12877, 0.0548558, 0, 0
0, 360.00000, 0.124789, 0.0531599, 0.12895, 0.0549326, 0.12877, 0.0548558, 0, 0
0, 420.00000, 0.124789, 0.0531599, 0.12895, 0.0549326, 0.12877, 0.0548558, 0, 0
0, 480.00000, 0.141575, 0.0603108, 0.146234, 0.0622957, 0.145953, 0.0621776, 0, 0
0, 540.00000, 0.141576, 0.0603112, 0.146236, 0.0622962, 0.145956, 0.062177, 0, 0
0, 600.00000, 0.141576, 0.0603112, 0.146236, 0.0622962, 0.145956, 0.062177, 0, 0
0, 660.00000, 0.141576, 0.0603112, 0.146236, 0.0622962, 0.145956, 0.062177, 0, 0
0, 720.00000, 0.141576, 0.0603112, 0.146236, 0.0622962, 0.145956, 0.062177, 0, 0
0, 780.00000, 0.141576, 0.0603112, 0.146236, 0.0622962, 0.145956, 0.062177, 0, 0
0, 840.00000, 0.141576, 0.0603112, 0.146236, 0.0622962, 0.145956, 0.062177, 0, 0
0, 900.00000, 0.141576, 0.0603112, 0.146236, 0.0622962, 0.145956, 0.062177, 0, 0
0, 960.00000, 0.139207, 0.059302, 0.14623, 0.062294, 0.143983, 0.0613358, 0, 0
0, 1020.00000, 0.139206, 0.0593016, 0.146231, 0.062294, 0.143982, 0.0613359, 0, 0
0, 1080.00000, 0.139206, 0.0593016, 0.146231, 0.062294, 0.143982, 0.0613359, 0, 0
0, 1140.00000, 0.139206, 0.0593016, 0.146231, 0.062294, 0.143982, 0.0613359, 0, 0
0, 1200.00000, 0.139206, 0.0593016, 0.146231, 0.062294, 0.143982, 0.0613359, 0, 0
0, 1260.00000, 0.139206, 0.0593016, 0.146231, 0.062294, 0.143982, 0.0613359, 0, 0
0, 1320.00000, 0.139206, 0.0593016, 0.146231, 0.062294, 0.143982, 0.0613359, 0, 0
0, 1380.00000, 0.139206, 0.0593016, 0.146231, 0.062294, 0.143982, 0.0613359, 0, 0
0, 1440.00000, 0.139206, 0.0593016, 0.146231, 0.062294, 0.143982, 0.0613359, 0, 0
0, 1500.00000, 0.139206, 0.0593016, 0.146231, 0.062294, 0.143982, 0.0613359, 0, 0
0, 1560.00000, 0.139206, 0.0593016, 0.146231, 0.062294, 0.143982, 0.0613359, 0, 0
0, 1620.00000, 0.139206, 0.0593016, 0.146231, 0.062294, 0.143982, 0.0613359, 0, 0
0, 1680.00000, 0.139206, 0.0593016, 0.146231, 0.062294, 0.143982, 0.0613359, 0, 0
0, 1740.00000, 0.139206, 0.0593016, 0.146231, 0.062294, 0.143982, 0.0613359, 0, 0
0, 1800.00000, 0.137634, 0.0586316, 0.146246, 0.0623008, 0.142838, 0.0608479, 0, 0
0, 1860.00000, 0.137632, 0.0586312, 0.146247, 0.0623008, 0.142837, 0.0608482, 0, 0
0, 1920.00000, 0.137632, 0.0586312, 0.146247, 0.0623008, 0.142837, 0.0608482, 0, 0
0, 1980.00000, 0.137632, 0.0586312, 0.146247, 0.0623008, 0.142837, 0.0608482, 0, 0
0, 2040.00000, 0.137632, 0.0586312, 0.146247, 0.0623008, 0.142837, 0.0608482, 0, 0
0, 2100.00000, 0.137632, 0.0586312, 0.146247, 0.0623008, 0.142837, 0.0608482, 0, 0
0, 2160.00000, 0.137632, 0.0586312, 0.146247, 0.0623008, 0.142837, 0.0608482, 0, 0
0, 2220.00000, 0.137632, 0.0586312, 0.146247, 0.0623008, 0.142837, 0.0608482, 0, 0
0, 2280.00000, 0.137632, 0.0586312, 0.146247, 0.0623008, 0.142837, 0.0608482, 0, 0
0, 2340.00000, 0.137632, 0.0586312, 0.146247, 0.0623008, 0.142837, 0.0608482, 0, 0
0, 2400.00000, 0.137632, 0.0586312, 0.146247, 0.0623008, 0.142837, 0.0608482, 0, 0
0, 2460.00000, 0.137632, 0.0586312, 0.146247, 0.0623008, 0.142837, 0.0608482, 0, 0
0, 2520.00000, 0.137632, 0.0586312, 0.146247, 0.0623008, 0.142837, 0.0608482, 0, 0
0, 2580.00000, 0.137632, 0.0586312, 0.146247, 0.0623008, 0.142837, 0.0608482, 0, 0
0, 2640.00000, 0.137632, 0.0586312, 0.146247, 0.0623008, 0.142837, 0.0608482, 0, 0
0, 2700.00000, 0.137632, 0.0586312, 0.146247, 0.0623008, 0.142837, 0.0608482, 0, 0
0, 2760.00000, 0.138994, 0.0592117, 0.146241, 0.0622979, 0.14365, 0.0611956, 0, 0
0, 2820.00000, 0.138995, 0.0592117, 0.14624, 0.062298, 0.143652, 0.0611957, 0, 0
0, 2880.00000, 0.138995, 0.0592117, 0.14624, 0.062298, 0.143652, 0.0611957, 0, 0
0, 2940.00000, 0.138995, 0.0592117, 0.14624, 0.062298, 0.143652, 0.0611957, 0, 0
0, 3000.00000, 0.138995, 0.0592117, 0.14624, 0.062298, 0.143652, 0.0611957, 0, 0
0, 3060.00000, 0.138995, 0.0592117, 0.14624, 0.062298, 0.143652, 0.0611957, 0, 0
0, 3120.00000, 0.138995, 0.0592117, 0.14624, 0.062298, 0.143652, 0.0611957, 0, 0
0, 3180.00000, 0.138995, 0.0592117, 0.14624, 0.062298, 0.143652, 0.0611957, 0, 0
0, 3240.00000, 0.138995, 0.0592117, 0.14624, 0.062298, 0.143652, 0.0611957, 0, 0
0, 3300.00000, 0.138995, 0.0592117, 0.14624, 0.062298, 0.143652, 0.0611957, 0, 0
0, 3360.00000, 0.138995, 0.0592117, 0.14624, 0.062298, 0.143652, 0.0611957, 0, 0
0, 3420.00000, 0.138995, 0.0592117, 0.14624, 0.062298, 0.143652, 0.0611957, 0, 0
0, 3480.00000, 0.138995, 0.0592117, 0.14624, 0.062298, 0.143652, 0.0611957, 0, 0
0, 3540.00000, 0.138995, 0.0592117, 0.14624, 0.062298, 0.143652, 0.0611957, 0, 0
1, 0.00000, 0.138995, 0.0592117, 0.14624, 0.062298, 0.143652, 0.0611957, 0, 0
1, 60.00000, 0.139936, 0.0596133, 0.146237, 0.0622964, 0.14409, 0.0613824, 0, 0
1, 120.00000, 0.139938, 0.0596133, 0.146236, 0.0622964, 0.144091, 0.0613824, 0, 0
1, 180.00000, 0.139938, 0.0596133, 0.146236, 0.0622964, 0.144091, 0.0613824, 0, 0
1, 240.00000, 0.139938, 0.0596133, 0.146236, 0.0622964, 0.144091, 0.0613824, 0, 0
1, 300.00000, 0.139938, 0.0596133, 0.146236, 0.0622964, 0.144091, 0.0613824, 0, 0
1, 360.00000, 0.139938, 0.0596133, 0.146236, 0.0622964, 0.144091, 0.0613824, 0, 0
1, 420.00000, 0.139938, 0.0596133, 0.146236, 0.0622964, 0.144091, 0.0613824, 0, 0
1, 480.00000, 0.139938, 0.0596133, 0.146236, 0.0622964, 0.144091, 0.0613824, 0, 0
1, 540.00000, 0.139938, 0.0596133, 0.146236, 0.0622964, 0.144091, 0.0613824, 0, 0
1, 600.00000, 0.139938, 0.0596133, 0.146236, 0.0622964, 0.144091, 0.0613824, 0, 0
1, 660.00000, 0.139938, 0.0596133, 0.146236, 0.0622964, 0.144091, 0.0613824, 0, 0
1, 720.00000, 0.139938, 0.0596133, 0.146236, 0.0622964, 0.144091, 0.0613824, 0, 0
1, 780.00000, 0.140944, 0.0600424, 0.146239, 0.0622975, 0.144585, 0.0615934, 0, 0
1, 840.00000, 0.140946, 0.0600426, 0.146238, 0.0622973, 0.144586, 0.0615933, 0, 0
1, 900.00000, 0.140946, 0.0600426, 0.146238, 0.0622973, 0.144586, 0.0615933, 0, 0
1, 960.00000, 0.140946, 0.0600426, 0.146238, 0.0622973, 0.144586, 0.0615933, 0, 0
1, 1020.00000, 0.140946, 0.0600426, 0.146238, 0.0622973, 0.144586, 0.0615933, 0, 0
1, 1080.00000, 0.140946, 0.0600426, 0.146238, 0.0622973, 0.144586, 0.0615933, 0, 0
1, 1140.00000, 0.140946, 0.0600426, 0.146238, 0.0622973, 0.144586, 0.0615933, 0, 0
1, 1200.00000, 0.140946, 0.0600426, 0.146238, 0.0622973, 0.144586, 0.0615933, 0, 0
1, 1260.00000, 0.140946, 0.0600426, 0.146238, 0.0622973, 0.144586, 0.0615933, 0, 0
1, 1320.00000, 0.140946, 0.0600426, 0.146238, 0.0622973, 0.144586, 0.0615933, 0, 0
1, 1380.00000, 0.140946, 0.0600426, 0.146238, 0.0622973, 0.144586, 0.0615933, 0, 0
1, 1440.00000, 0.140946, 0.0600426, 0.146238, 0.0622973, 0.144586, 0.0615933, 0, 0
1, 1500.00000, 0.140946, 0.0600426, 0.146238, 0.0622973, 0.144586, 0.0615933, 0, 0
1, 1560.00000, 0.140946, 0.0600426, 0.146238, 0.0622973, 0.144586, 0.0615933, 0, 0
1, 1620.00000, 0.140946, 0.0600426, 0.146238, 0.0622973, 0.144586, 0.0615933, 0, 0
1, 1680.00000, 0.140946, 0.0600426, 0.146238, 0.0622973, 0.144586, 0.0615933, 0, 0
1, 1740.00000, 0.140946, 0.0600426, 0.146238, 0.0622973, 0.144586, 0.0615933, 0, 0
1, 1800.00000, 0.140946, 0.0600426, 0.146238, 0.0622973, 0.144586, 0.0615933, 0, 0
1, 1860.00000, 0.140946, 0.0600426, 0.146238, 0.0622973, 0.144586, 0.0615933, 0, 0
1, 1920.00000, 0.140946, 0.0600426, 0.146238, 0.0622973, 0.144586, 0.0615933, 0, 0
1, 1980.00000, 0.140946, 0.0600426, 0.146238, 0.0622973, 0.144586, 0.0615933, 0, 0
1, 2040.00000, 0.140946, 0.0600426, 0.146238, 0.0622973, 0.144586, 0.0615933, 0, 0
1, 2100.00000, 0.140946, 0.0600426, 0.146238, 0.0622973, 0.144586, 0.0615933, 0, 0
1, 2160.00000, 0.140946, 0.0600426, 0.146238, 0.0622973, 0.144586, 0.0615933, 0, 0
1, 2220.00000, 0.142592, 0.0607444, 0.14622, 0.0622895, 0.14575, 0.0620895, 0, 0
1, 2280.00000, 0.142594, 0.0607446, 0.14622, 0.0622893, 0.145751, 0.0620895, 0, 0
1, 2340.00000, 0.142594, 0.0607446, 0.14622, 0.0622893, 0.145751, 0.0620895, 0, 0
1, 2400.00000, 0.142594, 0.0607446, 0.14622, 0.0622893, 0.145751, 0.0620895, 0, 0
1, 2460.00000, 0.142594, 0.0607446, 0.14622, 0.0622893, 0.145751, 0.0620895, 0, 0
1, 2520.00000, 0.142594, 0.0607446, 0.14622, 0.0622893, 0.145751, 0.0620895, 0, 0
1, 2580.00000, 0.142594, 0.0607446, 0.14622, 0.0622893, 0.145751, 0.0620895, 0, 0
1, 2640.00000, 0.142594, 0.0607446, 0.14622, 0.0622893, 0.145751, 0.0620895, 0, 0
1, 2700.00000, 0.142594, 0.0607446, 0.14622, 0.0622893, 0.145751, 0.0620895, 0, 0
1, 2760.00000, 0.142594, 0.0607446, 0.14622, 0.0622893, 0.145751, 0.0620895, 0, 0
1, 2820.00000, 0.142594, 0.0607446, 0.14622, 0.0622893, 0.145751, 0.0620895, 0, 0
1, 2880.00000, 0.142594, 0.0607446, 0.14622, 0.0622893, 0.145751, 0.0620895, 0, 0
1, 2940.00000, 0.142594, 0.0607446, 0.14622, 0.0622893, 0.145751, 0.0620895, 0, 0
1, 3000.00000, 0.142594, 0.0607446, 0.14622, 0.0622893, 0.145751, 0.0620895, 0, 0
1, 3060.00000, 0.142594, 0.0607446, 0.14622, 0.0622893, 0.145751, 0.0620895, 0, 0
1, 3120.00000, 0.142594, 0.0607446, 0.14622, 0.0622893, 0.145751, 0.0620895, 0, 0
1, 3180.00000, 0.142594, 0.0607446, 0.14622, 0.0622893, 0.145751, 0.0620895, 0, 0
1, 3240.00000, 0.142594, 0.0607446, 0.14622, 0.0622893, 0.145751, 0.0620895, 0, 0
1, 3300.00000, 0.142594, 0.0607446, 0.14622, 0.0622893, 0.145751, 0.0620895, 0, 0
1, 3360.00000, 0.142594, 0.0607446, 0.14622, 0.0622893, 0.145751, 0.0620895, 0, 0
1, 3420.00000, 0.142594, 0.0607446, 0.14622, 0.0622893, 0.145751, 0.0620895, 0, 0
1, 3480.00000, 0.142594, 0.0607446, 0.14622, 0.0622893, 0.145751, 0.0620895, 0, 0
1, 3540.00000, 0.142594, 0.0607446, 0.14622, 0.0622893, 0.145751, 0.0620895, 0, 0
2, 0.00000, 0.142594, 0.0607446, 0.14622, 0.0622893, 0.145751, 0.0620895, 0, 0
2, 60.00000, 0.142594, 0.0607446, 0.14622, 0.0622893, 0.145751, 0.0620895, 0, 0
2, 120.00000, 0.142594, 0.0607446, 0.14622, 0.0622893, 0.145751, 0.0620895, 0, 0
2, 180.00000, 0.142594, 0.0607446, 0.14622, 0.0622893, 0.145751, 0.0620895, 0, 0
2, 240.00000, 0.142594, 0.0607446, 0.14622, 0.0622893, 0.145751, 0.0620895, 0, 0
2, 300.00000, 0.142594, 0.0607446, 0.14622, 0.0622893, 0.145751, 0.0620895, 0, 0
2, 360.00000, 0.142594, 0.0607446, 0.14622, 0.0622893, 0.145751, 0.0620895, 0, 0
2, 420.00000, 0.142594, 0.0607446, 0.14622, 0.0622893, 0.145751, 0.0620895, 0, 0
2, 480.00000, 0.142594, 0.0607446, 0.14622, 0.0622893, 0.145751, 0.0620895, 0, 0
2, 540.00000, 0.142594, 0.0607446, 0.14622, 0.0622893, 0.145751, 0.0620895, 0, 0
2, 600.00000, 0.142594, 0.0607446, 0.14622, 0.0622893, 0.145751, 0.0620895, 0, 0
2, 660.00000, 0.142594, 0.0607446, 0.14622, 0.0622893, 0.145751, 0.0620895, 0, 0
2, 720.00000, 0.142594, 0.0607446, 0.14622, 0.0622893, 0.145751, 0.0620895, 0, 0
2, 780.00000, 0.142594, 0.0607446, 0.14622, 0.0622893, 0.145751, 0.0620895, 0, 0
2, 840.00000, 0.145049, 0.0617913, 0.146223, 0.062291, 0.147756, 0.0629441, 0, 0
2, 900.00000, 0.145051, 0.0617914, 0.146223, 0.0622907, 0.147757, 0.0629441, 0, 0
2, 960.00000, 0.145051, 0.0617914, 0.146223, 0.0622907, 0.147757, 0.0629441, 0, 0
2, 1020.00000, 0.145051, 0.0617914, 0.146223, 0.0622907, 0.147757, 0.0629441, 0, 0
2, 1080.00000, 0.145051, 0.0617914, 0.146223, 0.0622907, 0.147757, 0.0629441, 0, 0
2, 1140.00000, 0.145051, 0.0617914, 0.146223, 0.0622907, 0.147757, 0.0629441, 0, 0
2, 1200.00000, 0.145051, 0.0617914, 0.146223, 0.0622907, 0.147757, 0.0629441, 0, 0
2, 1260.00000, 0.145051, 0.0617914, 0.146223, 0.0622907, 0.147757, 0.0629441, 0, 0
2, 1320.00000, 0.145051, 0.0617914, 0.146223, 0.0622907, 0.147757, 0.0629441, 0, 0
2, 1380.00000, 0.145051, 0.0617914, 0.146223, 0.0622907, 0.147757, 0.0629441, 0, 0
2, 1440.00000, 0.145051, 0.0617914, 0.146223, 0.0622907, 0.147757, 0.0629441, 0, 0
2, 1500.00000, 0.145051, 0.0617914, 0.146223, 0.0622907, 0.147757, 0.0629441, 0, 0
2, 1560.00000, 0.145051, 0.0617914, 0.146223, 0.0622907, 0.147757, 0.0629441, 0, 0
2, 1620.00000, 0.145051, 0.0617914, 0.146223, 0.0622907, 0.147757, 0.0629441, 0, 0
2, 1680.00000, 0.145051, 0.0617914, 0.146223, 0.0622907, 0.147757, 0.0629441, 0, 0
2, 1740.00000, 0.145051, 0.0617914, 0.146223, 0.0622907, 0.147757, 0.0629441, 0, 0
2, 1800.00000, 0.145051, 0.0617914, 0.146223, 0.0622907, 0.147757, 0.0629441, 0, 0
2, 1860.00000, 0.145051, 0.0617914, 0.146223, 0.0622907, 0.147757, 0.0629441, 0, 0
2, 1920.00000, 0.145051, 0.0617914, 0.146223, 0.0622907, 0.147757, 0.0629441, 0, 0
2, 1980.00000, 0.145051, 0.0617914, 0.146223, 0.0622907, 0.147757, 0.0629441, 0, 0
2, 2040.00000, 0.145051, 0.0617914, 0.146223, 0.0622907, 0.147757, 0.0629441, 0, 0
2, 2100.00000, 0.145051, 0.0617914, 0.146223, 0.0622907, 0.147757, 0.0629441, 0, 0
2, 2160.00000, 0.145051, 0.0617914, 0.146223, 0.0622907, 0.147757, 0.0629441, 0, 0
2, 2220.00000, 0.145051, 0.0617914, 0.146223, 0.0622907, 0.147757, 0.0629441, 0, 0
2, 2280.00000, 0.145051, 0.0617914, 0.146223, 0.0622907, 0.147757, 0.0629441, 0, 0
2, 2340.00000, 0.145051, 0.0617914, 0.146223, 0.0622907, 0.147757, 0.0629441, 0, 0
2, 2400.00000, 0.146168, 0.0622688, 0.146221, 0.0622903, 0.148305, 0.0631787, 0, 0
2, 2460.00000, 0.146173, 0.0622693, 0.146221, 0.0622898, 0.148307, 0.0631783, 0, 0
2, 2520.00000, 0.146173, 0.0622693, 0.146221, 0.0622898, 0.148307, 0.0631783, 0, 0
2, 2580.00000, 0.146173, 0.0622693, 0.146221, 0.0622898, 0.148307, 0.0631783, 0, 0
2, 2640.00000, 0.146173, 0.0622693, 0.146221, 0.0622898, 0.148307, 0.0631783, 0, 0
2, 2700.00000, 0.144965, 0.0617548, 0.144569, 0.0615855, 0.148391, 0.0632143, 0, 0
2, 2760.00000, 0.144964, 0.0617546, 0.144567, 0.0615854, 0.148392, 0.0632148, 0, 0
2, 2820.00000, 0.144964, 0.0617546, 0.144567, 0.0615854, 0.148392, 0.0632148, 0, 0
2, 2880.00000, 0.144964, 0.0617546, 0.144567, 0.0615854, 0.148392, 0.0632148, 0, 0
2, 2940.00000, 0.144964, 0.0617546, 0.144567, 0.0615854, 0.148392, 0.0632148, 0, 0
2, 3000.00000, 0.144964, 0.0617546, 0.144567, 0.0615854, 0.148392, 0.0632148, 0, 0
2, 3060.00000, 0.14617, 0.06227, 0.144556, 0.0615805, 0.149032, 0.0634881, 0, 0
2, 3120.00000, 0.146174, 0.0622698, 0.144555, 0.0615801, 0.149034, 0.0634882, 0, 0
2, 3180.00000, 0.146174, 0.0622698, 0.144555, 0.0615801, 0.149034, 0.0634882, 0, 0
2, 3240.00000, 0.146174, 0.0622698, 0.144555, 0.0615801, 0.149034, 0.0634882, 0, 0
2, 3300.00000, 0.146174, 0.0622698, 0.144555, 0.0615801, 0.149034, 0.0634882, 0, 0
2, 3360.00000, 0.146174, 0.0622698, 0.144555, 0.0615801, 0.149034, 0.0634882, 0, 0
2, 3420.00000, 0.146174, 0.0622698, 0.144555, 0.0615801, 0.149034, 0.0634882, 0, 0
2, 3480.00000, 0.146174, 0.0622698, 0.144555, 0.0615801, 0.149034, 0.0634882, 0, 0
2, 3540.00000, 0.146174, 0.0622698, 0.144555, 0.0615801, 0.149034, 0.0634882, 0, 0
3, 0.00000, 0.146174, 0.0622698, 0.144555, 0.0615801, 0.149034, 0.0634882, 0, 0
3, 60.00000, 0.146174, 0.0622698, 0.144555, 0.0615801, 0.149034, 0.0634882, 0, 0
3, 120.00000, 0.146174, 0.0622698, 0.144555, 0.0615801, 0.149034, 0.0634882, 0, 0
3, 180.00000, 0.146174, 0.0622698, 0.144555, 0.0615801, 0.149034, 0.0634882, 0, 0
3, 240.00000, 0.146174, 0.0622698, 0.144555, 0.0615801, 0.149034, 0.0634882, 0, 0
3, 300.00000, 0.146174, 0.0622698, 0.144555, 0.0615801, 0.149034, 0.0634882, 0, 0
3, 360.00000, 0.146174, 0.0622698, 0.144555, 0.0615801, 0.149034, 0.0634882, 0, 0
3, 420.00000, 0.146174, 0.0622698, 0.144555, 0.0615801, 0.149034, 0.0634882, 0, 0
3, 480.00000, 0.146174, 0.0622698, 0.144555, 0.0615801, 0.149034, 0.0634882, 0, 0
3, 540.00000, 0.146174, 0.0622698, 0.144555, 0.0615801, 0.149034, 0.0634882, 0, 0
3, 600.00000, 0.146174, 0.0622698, 0.144555, 0.0615801, 0.149034, 0.0634882, 0, 0
3, 660.00000, 0.146174, 0.0622698, 0.144555, 0.0615801, 0.149034, 0.0634882, 0, 0
3, 720.00000, 0.146174, 0.0622698, 0.144555, 0.0615801, 0.149034, 0.0634882, 0, 0
3, 780.00000, 0.146174, 0.0622698, 0.144555, 0.0615801, 0.149034, 0.0634882, 0, 0
3, 840.00000, 0.146174, 0.0622698, 0.144555, 0.0615801, 0.149034, 0.0634882, 0, 0
3, 900.00000, 0.146174, 0.0622698, 0.144555, 0.0615801, 0.149034, 0.0634882, 0, 0
3, 960.00000, 0.146174, 0.0622698, 0.144555, 0.0615801, 0.149034, 0.0634882, 0, 0
3, 1020.00000, 0.146174, 0.0622698, 0.144555, 0.0615801, 0.149034, 0.0634882, 0, 0
3, 1080.00000, 0.146174, 0.0622698, 0.144555, 0.0615801, 0.149034, 0.0634882, 0, 0
3, 1140.00000, 0.146174, 0.0622698, 0.144555, 0.0615801, 0.149034, 0.0634882, 0, 0
3, 1200.00000, 0.146174, 0.0622698, 0.144555, 0.0615801, 0.149034, 0.0634882, 0, 0
3, 1260.00000, 0.146174, 0.0622698, 0.144555, 0.0615801, 0.149034, 0.0634882, 0, 0
3, 1320.00000, 0.146174, 0.0622698, 0.144555, 0.0615801, 0.149034, 0.0634882, 0, 0
3, 1380.00000, 0.146174, 0.0622698, 0.144555, 0.0615801, 0.149034, 0.0634882, 0, 0
3, 1440.00000, 0.146174, 0.0622698, 0.144555, 0.0615801, 0.149034, 0.0634882, 0, 0
3, 1500.00000, 0.146174, 0.0622698, 0.144555, 0.0615801, 0.149034, 0.0634882, 0, 0
3, 1560.00000, 0.146174, 0.0622698, 0.144555, 0.0615801, 0.149034, 0.0634882, 0, 0
3, 1620.00000, 0.146174, 0.0622698, 0.144555, 0.0615801, 0.149034, 0.0634882, 0, 0
3, 1680.00000, 0.146174, 0.0622698, 0.144555, 0.0615801, 0.149034, 0.0634882, 0, 0
3, 1740.00000, 0.146174, 0.0622698, 0.144555, 0.0615801, 0.149034, 0.0634882, 0, 0
3, 1800.00000, 0.146174, 0.0622698, 0.144555, 0.0615801, 0.149034, 0.0634882, 0, 0
3, 1860.00000, 0.146174, 0.0622698, 0.144555, 0.0615801, 0.149034, 0.0634882, 0, 0
3, 1920.00000, 0.146174, 0.0622698, 0.144555, 0.0615801, 0.149034, 0.0634882, 0, 0
3, 1980.00000, 0.146174, 0.0622698, 0.144555, 0.0615801, 0.149034, 0.0634882, 0, 0
3, 2040.00000, 0.146174, 0.0622698, 0.144555, 0.0615801, 0.149034, 0.0634882, 0, 0
3, 2100.00000, 0.146174, 0.0622698, 0.144555, 0.0615801, 0.149034, 0.0634882, 0, 0
3, 2160.00000, 0.146174, 0.0622698, 0.144555, 0.0615801, 0.149034, 0.0634882, 0, 0
3, 2220.00000, 0.146174, 0.0622698, 0.144555, 0.0615801, 0.149034, 0.0634882, 0, 0
3, 2280.00000, 0.146174, 0.0622698, 0.144555, 0.0615801, 0.149034, 0.0634882, 0, 0
3, 2340.00000, 0.146174, 0.0622698, 0.144555, 0.0615801, 0.149034, 0.0634882, 0, 0
3, 2400.00000, 0.146174, 0.0622698, 0.144555, 0.0615801, 0.149034, 0.0634882, 0, 0
3, 2460.00000, 0.146174, 0.0622698, 0.144555, 0.0615801, 0.149034, 0.0634882, 0, 0
3, 2520.00000, 0.146174, 0.0622698, 0.144555, 0.0615801, 0.149034, 0.0634882, 0, 0
3, 2580.00000, 0.146174, 0.0622698, 0.144555, 0.0615801, 0.149034, 0.0634882, 0, 0
3, 2640.00000, 0.146174, 0.0622698, 0.144555, 0.0615801, 0.149034, 0.0634882, 0, 0
3, 2700.00000, 0.146174, 0.0622698, 0.144555, 0.0615801, 0.149034, 0.0634882, 0, 0
3, 2760.00000, 0.146174, 0.0622698, 0.144555, 0.0615801, 0.149034, 0.0634882, 0, 0
3, 2820.00000, 0.146174, 0.0622698, 0.144555, 0.0615801, 0.149034, 0.0634882, 0, 0
3, 2880.00000, 0.146174, 0.0622698, 0.144555, 0.0615801, 0.149034, 0.0634882, 0, 0
3, 2940.00000, 0.146174, 0.0622698, 0.144555, 0.0615801, 0.149034, 0.0634882, 0, 0
3, 3000.00000, 0.146174, 0.0622698, 0.144555, 0.0615801, 0.149034, 0.0634882, 0, 0
3, 3060.00000, 0.146174, 0.0622698, 0.144555, 0.0615801, 0.149034, 0.0634882, 0, 0
3, 3120.00000, 0.146174, 0.0622698, 0.144555, 0.0615801, 0.149034, 0.0634882, 0, 0
3, 3180.00000, 0.153571, 0.0654204, 0.151898, 0.0647081, 0.15661, 0.0667149, 0, 0
3, 3240.00000, 0.15357, 0.0654204, 0.151898, 0.0647081, 0.156609, 0.066715, 0, 0
3, 3300.00000, 0.15357, 0.0654204, 0.151898, 0.0647081, 0.156609, 0.066715, 0, 0
3, 3360.00000, 0.15357, 0.0654204, 0.151898, 0.0647081, 0.156609, 0.066715, 0, 0
3, 3420.00000, 0.15357, 0.0654204, 0.151898, 0.0647081, 0.156609, 0.066715, 0, 0
3, 3480.00000, 0.15357, 0.0654204, 0.151898, 0.0647081, 0.156609, 0.066715, 0, 0
3, 3540.00000, 0.15357, 0.0654204, 0.151898, 0.0647081, 0.156609, 0.066715, 0, 0
4, 0.00000, 0.15357, 0.0654204, 0.151898, 0.0647081, 0.156609, 0.066715, 0, 0
4, 60.00000, 0.15357, 0.0654204, 0.151898, 0.0647081, 0.156609, 0.066715, 0, 0
4, 120.00000, 0.15357, 0.0654204, 0.151898, 0.0647081, 0.156609, 0.066715, 0, 0
