hour,t(sec),V1,VAngle1,V2,VAngle2,V3,VAngle3,V4,VAngle4,I1,IAngle1,I2,IAngle2,I3,IAngle3,I4,IAngle4
0, 60.00000, 124.483, -31.5371, 125.716, -151.47, 125.195, 88.0233, 0, 0, 5.15518, -54.6109, 5.10465, -174.544, 5.12587, 64.9497, 0.0865611, 149.186
0, 120.00000, 124.483, -31.5371, 125.716, -151.47, 125.195, 88.0232, 0, 0, 5.15521, -54.611, 5.10467, -174.544, 5.12591, 64.9493, 0.086586, 149.194
0, 180.00000, 124.483, -31.5371, 125.716, -151.47, 125.195, 88.0232, 0, 0, 5.15521, -54.611, 5.10467, -174.544, 5.12591, 64.9493, 0.0865861, 149.194
0, 240.00000, 124.483, -31.5371, 125.716, -151.47, 125.195, 88.0232, 0, 0, 5.15521, -54.611, 5.10467, -174.544, 5.12591, 64.9493, 0.0865861, 149.194
0, 300.00000, 124.483, -31.5371, 125.716, -151.47, 125.195, 88.0232, 0, 0, 5.15521, -54.611, 5.10467, -174.544, 5.12591, 64.9493, 0.0865861, 149.194
0, 360.00000, 124.483, -31.5371, 125.716, -151.47, 125.195, 88.0232, 0, 0, 5.15521, -54.611, 5.10467, -174.544, 5.12591, 64.9493, 0.0865861, 149.194
0, 420.00000, 124.483, -31.5371, 125.716, -151.47, 125.195, 88.0232, 0, 0, 5.15521, -54.611, 5.10467, -174.544, 5.12591, 64.9493, 0.0865861, 149.194
0, 480.00000, 124.826, -31.4119, 126.07, -151.343, 125.549, 88.1485, 0, 0, 4.64527, -54.486, 4.59944, -174.417, 4.61852, 65.0742, 0.0784125, 149.086
0, 540.00000, 124.826, -31.4119, 126.07, -151.343, 125.549, 88.1485, 0, 0, 4.64524, -54.4859, 4.59941, -174.417, 4.61849, 65.0746, 0.0783975, 149.08
0, 600.00000, 124.826, -31.4119, 126.07, -151.343, 125.549, 88.1485, 0, 0, 4.64524, -54.4859, 4.59941, -174.417, 4.61849, 65.0746, 0.0783974, 149.08
0, 660.00000, 124.826, -31.4119, 126.07, -151.343, 125.549, 88.1485, 0, 0, 4.64524, -54.4859, 4.59941, -174.417, 4.61849, 65.0746, 0.0783974, 149.08
0, 720.00000, 124.826, -31.4119, 126.07, -151.343, 125.549, 88.1485, 0, 0, 4.64524, -54.4859, 4.59941, -174.417, 4.61849, 65.0746, 0.0783974, 149.08
0, 780.00000, 124.826, -31.4119, 126.07, -151.343, 125.549, 88.1485, 0, 0, 4.64524, -54.4859, 4.59941, -174.417, 4.61849, 65.0746, 0.0783974, 149.08
0, 840.00000, 124.826, -31.4119, 126.07, -151.343, 125.549, 88.1485, 0, 0, 4.64524, -54.4859, 4.59941, -174.417, 4.61849, 65.0746, 0.0783974, 149.08
0, 900.00000, 124.826, -31.4119, 126.07, -151.343, 125.549, 88.1485, 0, 0, 4.64524, -54.4859, 4.59941, -174.417, 4.61849, 65.0746, 0.0783974, 149.08
0, 960.00000, 124.562, -31.442, 126.068, -151.342, 125.473, 88.0312, 0, 0, 4.65509, -54.5159, 4.59947, -174.416, 4.62129, 64.9575, 0.0955676, 147.588
0, 1020.00000, 124.562, -31.442, 126.068, -151.342, 125.473, 88.0312, 0, 0, 4.6551, -54.5159, 4.59947, -174.416, 4.6213, 64.9573, 0.0955877, 147.588
0, 1080.00000, 124.562, -31.442, 126.068, -151.342, 125.473, 88.0312, 0, 0, 4.6551, -54.5159, 4.59947, -174.416, 4.6213, 64.9573, 0.0955877, 147.588
0, 1140.00000, 124.562, -31.442, 126.068, -151.342, 125.473, 88.0312, 0, 0, 4.6551, -54.5159, 4.59947, -174.416, 4.6213, 64.9573, 0.0955877, 147.588
0, 1200.00000, 124.562, -31.442, 126.068, -151.342, 125.473, 88.0312, 0, 0, 4.6551, -54.5159, 4.59947, -174.416, 4.6213, 64.9573, 0.0955877, 147.588
0, 1260.00000, 124.562, -31.442, 126.068, -151.342, 125.473, 88.0312, 0, 0, 4.6551, -54.5159, 4.59947, -174.416, 4.6213, 64.9573, 0.0955877, 147.588
0, 1320.00000, 124.562, -31.442, 126.068, -151.342, 125.473, 88.0312, 0, 0, 4.6551, -54.5159, 4.59947, -174.416, 4.6213, 64.9573, 0.0955877, 147.588
0, 1380.00000, 124.562, -31.442, 126.068, -151.342, 125.473, 88.0312, 0, 0, 4.6551, -54.5159, 4.59947, -174.416, 4.6213, 64.9573, 0.0955877, 147.588
0, 1440.00000, 124.562, -31.442, 126.068, -151.342, 125.473, 88.0312, 0, 0, 4.6551, -54.5159, 4.59947, -174.416, 4.6213, 64.9573, 0.0955877, 147.588
0, 1500.00000, 124.562, -31.442, 126.068, -151.342, 125.473, 88.0312, 0, 0, 4.6551, -54.5159, 4.59947, -174.416, 4.6213, 64.9573, 0.0955877, 147.588
0, 1560.00000, 124.562, -31.442, 126.068, -151.342, 125.473, 88.0312, 0, 0, 4.6551, -54.5159, 4.59947, -174.416, 4.6213, 64.9573, 0.0955877, 147.588
0, 1620.00000, 124.562, -31.442, 126.068, -151.342, 125.473, 88.0312, 0, 0, 4.6551, -54.5159, 4.59947, -174.416, 4.6213, 64.9573, 0.0955877, 147.588
0, 1680.00000, 124.562, -31.442, 126.068, -151.342, 125.473, 88.0312, 0, 0, 4.6551, -54.5159, 4.59947, -174.416, 4.6213, 64.9573, 0.0955877, 147.588
0, 1740.00000, 124.562, -31.442, 126.068, -151.342, 125.473, 88.0312, 0, 0, 4.6551, -54.5159, 4.59947, -174.416, 4.6213, 64.9573, 0.0955877, 147.588
0, 1800.00000, 124.295, -31.4707, 126.067, -151.342, 125.393, 87.9129, 0, 0, 4.66506, -54.5446, 4.59951, -174.416, 4.62422, 64.8391, 0.113024, 146.654
0, 1860.00000, 124.295, -31.4707, 126.067, -151.342, 125.393, 87.9129, 0, 0, 4.66508, -54.5446, 4.59951, -174.416, 4.62423, 64.839, 0.113045, 146.653
0, 1920.00000, 124.295, -31.4707, 126.067, -151.342, 125.393, 87.9129, 0, 0, 4.66508, -54.5446, 4.59951, -174.416, 4.62423, 64.839, 0.113045, 146.653
0, 1980.00000, 124.295, -31.4707, 126.067, -151.342, 125.393, 87.9129, 0, 0, 4.66508, -54.5446, 4.59951, -174.416, 4.62423, 64.839, 0.113045, 146.653
0, 2040.00000, 124.295, -31.4707, 126.067, -151.342, 125.393, 87.9129, 0, 0, 4.66508, -54.5446, 4.59951, -174.416, 4.62423, 64.839, 0.113045, 146.653
0, 2100.00000, 124.295, -31.4707, 126.067, -151.342, 125.393, 87.9129, 0, 0, 4.66508, -54.5446, 4.59951, -174.416, 4.62423, 64.839, 0.113045, 146.653
0, 2160.00000, 124.295, -31.4707, 126.067, -151.342, 125.393, 87.9129, 0, 0, 4.66508, -54.5446, 4.59951, -174.416, 4.62423, 64.839, 0.113045, 146.653
0, 2220.00000, 124.295, -31.4707, 126.067, -151.342, 125.393, 87.9129, 0, 0, 4.66508, -54.5446, 4.59951, -174.416, 4.62423, 64.839, 0.113045, 146.653
0, 2280.00000, 124.295, -31.4707, 126.067, -151.342, 125.393, 87.9129, 0, 0, 4.66508, -54.5446, 4.59951, -174.416, 4.62423, 64.839, 0.113045, 146.653
0, 2340.00000, 124.295, -31.4707, 126.067, -151.342, 125.393, 87.9129, 0, 0, 4.66508, -54.5446, 4.59951, -174.416, 4.62423, 64.839, 0.113045, 146.653
0, 2400.00000, 124.295, -31.4707, 126.067, -151.342, 125.393, 87.9129, 0, 0, 4.66508, -54.5446, 4.59951, -174.416, 4.62423, 64.839, 0.113045, 146.653
0, 2460.00000, 124.295, -31.4707, 126.067, -151.342, 125.393, 87.9129, 0, 0, 4.66508, -54.5446, 4.59951, -174.416, 4.62423, 64.839, 0.113045, 146.653
0, 2520.00000, 124.295, -31.4707, 126.067, -151.342, 125.393, 87.9129, 0, 0, 4.66508, -54.5446, 4.59951, -174.416, 4.62423, 64.839, 0.113045, 146.653
0, 2580.00000, 124.295, -31.4707, 126.067, -151.342, 125.393, 87.9129, 0, 0, 4.66508, -54.5446, 4.59951, -174.416, 4.62423, 64.839, 0.113045, 146.653
0, 2640.00000, 124.295, -31.4707, 126.067, -151.342, 125.393, 87.9129, 0, 0, 4.66508, -54.5446, 4.59951, -174.416, 4.62423, 64.839, 0.113045, 146.653
0, 2700.00000, 124.295, -31.4707, 126.067, -151.342, 125.393, 87.9129, 0, 0, 4.66508, -54.5446, 4.59951, -174.416, 4.62423, 64.839, 0.113045, 146.653
0, 2760.00000, 124.587, -31.4397, 126.067, -151.342, 125.485, 88.0424, 0, 0, 4.65418, -54.5138, 4.5995, -174.416, 4.62085, 64.9682, 0.0939786, 147.53
0, 2820.00000, 124.587, -31.4397, 126.067, -151.342, 125.486, 88.0425, 0, 0, 4.65415, -54.5136, 4.5995, -174.416, 4.62083, 64.9685, 0.0939328, 147.528
0, 2880.00000, 124.587, -31.4397, 126.067, -151.342, 125.486, 88.0425, 0, 0, 4.65415, -54.5136, 4.5995, -174.416, 4.62083, 64.9685, 0.0939326, 147.528
0, 2940.00000, 124.587, -31.4397, 126.067, -151.342, 125.486, 88.0425, 0, 0, 4.65415, -54.5136, 4.5995, -174.416, 4.62083, 64.9685, 0.0939326, 147.528
0, 3000.00000, 124.587, -31.4397, 126.067, -151.342, 125.486, 88.0425, 0, 0, 4.65415, -54.5136, 4.5995, -174.416, 4.62083, 64.9685, 0.0939326, 147.528
0, 3060.00000, 124.587, -31.4397, 126.067, -151.342, 125.486, 88.0425, 0, 0, 4.65415, -54.5136, 4.5995, -174.416, 4.62083, 64.9685, 0.0939326, 147.528
0, 3120.00000, 124.587, -31.4397, 126.067, -151.342, 125.486, 88.0425, 0, 0, 4.65415, -54.5136, 4.5995, -174.416, 4.62083, 64.9685, 0.0939326, 147.528
0, 3180.00000, 124.587, -31.4397, 126.067, -151.342, 125.486, 88.0425, 0, 0, 4.65415, -54.5136, 4.5995, -174.416, 4.62083, 64.9685, 0.0939326, 147.528
0, 3240.00000, 124.587, -31.4397, 126.067, -151.342, 125.486, 88.0425, 0, 0, 4.65415, -54.5136, 4.5995, -174.416, 4.62083, 64.9685, 0.0939326, 147.528
0, 3300.00000, 124.587, -31.4397, 126.067, -151.342, 125.486, 88.0425, 0, 0, 4.65415, -54.5136, 4.5995, -174.416, 4.62083, 64.9685, 0.0939326, 147.528
0, 3360.00000, 124.587, -31.4397, 126.067, -151.342, 125.486, 88.0425, 0, 0, 4.65415, -54.5136, 4.5995, -174.416, 4.62083, 64.9685, 0.0939326, 147.528
0, 3420.00000, 124.587, -31.4397, 126.067, -151.342, 125.486, 88.0425, 0, 0, 4.65415, -54.5136, 4.5995, -174.416, 4.62083, 64.9685, 0.0939326, 147.528
0, 3480.00000, 124.587, -31.4397, 126.067, -151.342, 125.486, 88.0425, 0, 0, 4.65415, -54.5136, 4.5995, -174.416, 4.62083, 64.9685, 0.0939326, 147.528
0, 3540.00000, 124.587, -31.4397, 126.067, -151.342, 125.486, 88.0425, 0, 0, 4.65415, -54.5136, 4.5995, -174.416, 4.62083, 64.9685, 0.0939326, 147.528
1, 0.00000, 124.587, -31.4397, 126.067, -151.342, 125.486, 88.0425, 0, 0, 4.65415, -54.5136, 4.5995, -174.416, 4.62083, 64.9685, 0.0939326, 147.528
1, 60.00000, 124.876, -31.4081, 126.068, -151.342, 125.574, 88.1705, 0, 0, 4.6434, -54.4822, 4.59949, -174.415, 4.61759, 65.0964, 0.075165, 148.929
1, 120.00000, 124.876, -31.4081, 126.068, -151.342, 125.574, 88.1705, 0, 0, 4.64338, -54.4821, 4.59949, -174.415, 4.61757, 65.0966, 0.0751359, 148.934
1, 180.00000, 124.876, -31.4081, 126.068, -151.342, 125.574, 88.1705, 0, 0, 4.64338, -54.4821, 4.59949, -174.415, 4.61757, 65.0966, 0.0751358, 148.934
1, 240.00000, 124.876, -31.4081, 126.068, -151.342, 125.574, 88.1705, 0, 0, 4.64338, -54.4821, 4.59949, -174.415, 4.61757, 65.0966, 0.0751358, 148.934
1, 300.00000, 124.876, -31.4081, 126.068, -151.342, 125.574, 88.1705, 0, 0, 4.64338, -54.4821, 4.59949, -174.415, 4.61757, 65.0966, 0.0751358, 148.934
1, 360.00000, 124.876, -31.4081, 126.068, -151.342, 125.574, 88.1705, 0, 0, 4.64338, -54.4821, 4.59949, -174.415, 4.61757, 65.0966, 0.0751358, 148.934
1, 420.00000, 124.876, -31.4081, 126.068, -151.342, 125.574, 88.1705, 0, 0, 4.64338, -54.4821, 4.59949, -174.415, 4.61757, 65.0966, 0.0751358, 148.934
1, 480.00000, 124.876, -31.4081, 126.068, -151.342, 125.574, 88.1705, 0, 0, 4.64338, -54.4821, 4.59949, -174.415, 4.61757, 65.0966, 0.0751358, 148.934
1, 540.00000, 124.876, -31.4081, 126.068, -151.342, 125.574, 88.1705, 0, 0, 4.64338, -54.4821, 4.59949, -174.415, 4.61757, 65.0966, 0.0751358, 148.934
1, 600.00000, 124.876, -31.4081, 126.068, -151.342, 125.574, 88.1705, 0, 0, 4.64338, -54.4821, 4.59949, -174.415, 4.61757, 65.0966, 0.0751358, 148.934
1, 660.00000, 124.876, -31.4081, 126.068, -151.342, 125.574, 88.1705, 0, 0, 4.64338, -54.4821, 4.59949, -174.415, 4.61757, 65.0966, 0.0751358, 148.934
1, 720.00000, 124.876, -31.4081, 126.068, -151.342, 125.574, 88.1705, 0, 0, 4.64338, -54.4821, 4.59949, -174.415, 4.61757, 65.0966, 0.0751358, 148.934
1, 780.00000, 125.135, -31.3787, 126.068, -151.342, 125.649, 88.2851, 0, 0, 4.63378, -54.4528, 4.59946, -174.416, 4.61481, 65.211, 0.0584706, 151.155
1, 840.00000, 125.135, -31.3787, 126.068, -151.342, 125.649, 88.2851, 0, 0, 4.63377, -54.4526, 4.59946, -174.416, 4.61481, 65.2112, 0.0584478, 151.169
1, 900.00000, 125.135, -31.3787, 126.068, -151.342, 125.649, 88.2851, 0, 0, 4.63377, -54.4526, 4.59946, -174.416, 4.61481, 65.2112, 0.0584477, 151.169
1, 960.00000, 125.135, -31.3787, 126.068, -151.342, 125.649, 88.2851, 0, 0, 4.63377, -54.4526, 4.59946, -174.416, 4.61481, 65.2112, 0.0584477, 151.169
1, 1020.00000, 125.135, -31.3787, 126.068, -151.342, 125.649, 88.2851, 0, 0, 4.63377, -54.4526, 4.59946, -174.416, 4.61481, 65.2112, 0.0584477, 151.169
1, 1080.00000, 125.135, -31.3787, 126.068, -151.342, 125.649, 88.2851, 0, 0, 4.63377, -54.4526, 4.59946, -174.416, 4.61481, 65.2112, 0.0584477, 151.169
1, 1140.00000, 125.135, -31.3787, 126.068, -151.342, 125.649, 88.2851, 0, 0, 4.63377, -54.4526, 4.59946, -174.416, 4.61481, 65.2112, 0.0584477, 151.169
1, 1200.00000, 125.135, -31.3787, 126.068, -151.342, 125.649, 88.2851, 0, 0, 4.63377, -54.4526, 4.59946, -174.416, 4.61481, 65.2112, 0.0584477, 151.169
1, 1260.00000, 125.135, -31.3787, 126.068, -151.342, 125.649, 88.2851, 0, 0, 4.63377, -54.4526, 4.59946, -174.416, 4.61481, 65.2112, 0.0584477, 151.169
1, 1320.00000, 125.135, -31.3787, 126.068, -151.342, 125.649, 88.2851, 0, 0, 4.63377, -54.4526, 4.59946, -174.416, 4.61481, 65.2112, 0.0584477, 151.169
1, 1380.00000, 125.135, -31.3787, 126.068, -151.342, 125.649, 88.2851, 0, 0, 4.63377, -54.4526, 4.59946, -174.416, 4.61481, 65.2112, 0.0584477, 151.169
1, 1440.00000, 125.135, -31.3787, 126.068, -151.342, 125.649, 88.2851, 0, 0, 4.63377, -54.4526, 4.59946, -174.416, 4.61481, 65.2112, 0.0584477, 151.169
1, 1500.00000, 125.135, -31.3787, 126.068, -151.342, 125.649, 88.2851, 0, 0, 4.63377, -54.4526, 4.59946, -174.416, 4.61481, 65.2112, 0.0584477, 151.169
1, 1560.00000, 125.135, -31.3787, 126.068, -151.342, 125.649, 88.2851, 0, 0, 4.63377, -54.4526, 4.59946, -174.416, 4.61481, 65.2112, 0.0584477, 151.169
1, 1620.00000, 125.135, -31.3787, 126.068, -151.342, 125.649, 88.2851, 0, 0, 4.63377, -54.4526, 4.59946, -174.416, 4.61481, 65.2112, 0.0584477, 151.169
1, 1680.00000, 125.135, -31.3787, 126.068, -151.342, 125.649, 88.2851, 0, 0, 4.63377, -54.4526, 4.59946, -174.416, 4.61481, 65.2112, 0.0584477, 151.169
1, 1740.00000, 125.135, -31.3787, 126.068, -151.342, 125.649, 88.2851, 0, 0, 4.63377, -54.4526, 4.59946, -174.416, 4.61481, 65.2112, 0.0584477, 151.169
1, 1800.00000, 125.135, -31.3787, 126.068, -151.342, 125.649, 88.2851, 0, 0, 4.63377, -54.4526, 4.59946, -174.416, 4.61481, 65.2112, 0.0584477, 151.169
1, 1860.00000, 125.135, -31.3787, 126.068, -151.342, 125.649, 88.2851, 0, 0, 4.63377, -54.4526, 4.59946, -174.416, 4.61481, 65.2112, 0.0584477, 151.169
1, 1920.00000, 125.135, -31.3787, 126.068, -151.342, 125.649, 88.2851, 0, 0, 4.63377, -54.4526, 4.59946, -174.416, 4.61481, 65.2112, 0.0584477, 151.169
1, 1980.00000, 125.135, -31.3787, 126.068, -151.342, 125.649, 88.2851, 0, 0, 4.63377, -54.4526, 4.59946, -174.416, 4.61481, 65.2112, 0.0584477, 151.169
1, 2040.00000, 125.135, -31.3787, 126.068, -151.342, 125.649, 88.2851, 0, 0, 4.63377, -54.4526, 4.59946, -174.416, 4.61481, 65.2112, 0.0584477, 151.169
1, 2100.00000, 125.135, -31.3787, 126.068, -151.342, 125.649, 88.2851, 0, 0, 4.63377, -54.4526, 4.59946, -174.416, 4.61481, 65.2112, 0.0584477, 151.169
1, 2160.00000, 125.135, -31.3787, 126.068, -151.342, 125.649, 88.2851, 0, 0, 4.63377, -54.4526, 4.59946, -174.416, 4.61481, 65.2112, 0.0584477, 151.169
1, 2220.00000, 125.41, -31.3468, 126.07, -151.342, 125.729, 88.4055, 0, 0, 4.62365, -54.4209, 4.59941, -174.416, 4.6119, 65.3314, 0.0411277, 155.548
1, 2280.00000, 125.41, -31.3468, 126.07, -151.342, 125.729, 88.4055, 0, 0, 4.62363, -54.4207, 4.59941, -174.416, 4.6119, 65.3315, 0.0411071, 155.574
1, 2340.00000, 125.41, -31.3468, 126.07, -151.342, 125.729, 88.4055, 0, 0, 4.62363, -54.4207, 4.59941, -174.416, 4.6119, 65.3315, 0.041107, 155.574
1, 2400.00000, 125.41, -31.3468, 126.07, -151.342, 125.729, 88.4055, 0, 0, 4.62363, -54.4207, 4.59941, -174.416, 4.6119, 65.3315, 0.041107, 155.574
1, 2460.00000, 125.41, -31.3468, 126.07, -151.342, 125.729, 88.4055, 0, 0, 4.62363, -54.4207, 4.59941, -174.416, 4.6119, 65.3315, 0.041107, 155.574
1, 2520.00000, 125.41, -31.3468, 126.07, -151.342, 125.729, 88.4055, 0, 0, 4.62363, -54.4207, 4.59941, -174.416, 4.6119, 65.3315, 0.041107, 155.574
1, 2580.00000, 125.41, -31.3468, 126.07, -151.342, 125.729, 88.4055, 0, 0, 4.62363, -54.4207, 4.59941, -174.416, 4.6119, 65.3315, 0.041107, 155.574
1, 2640.00000, 125.41, -31.3468, 126.07, -151.342, 125.729, 88.4055, 0, 0, 4.62363, -54.4207, 4.59941, -174.416, 4.6119, 65.3315, 0.041107, 155.574
1, 2700.00000, 125.41, -31.3468, 126.07, -151.342, 125.729, 88.4055, 0, 0, 4.62363, -54.4207, 4.59941, -174.416, 4.6119, 65.3315, 0.041107, 155.574
1, 2760.00000, 125.41, -31.3468, 126.07, -151.342, 125.729, 88.4055, 0, 0, 4.62363, -54.4207, 4.59941, -174.416, 4.6119, 65.3315, 0.041107, 155.574
1, 2820.00000, 125.41, -31.3468, 126.07, -151.342, 125.729, 88.4055, 0, 0, 4.62363, -54.4207, 4.59941, -174.416, 4.6119, 65.3315, 0.041107, 155.574
1, 2880.00000, 125.41, -31.3468, 126.07, -151.342, 125.729, 88.4055, 0, 0, 4.62363, -54.4207, 4.59941, -174.416, 4.6119, 65.3315, 0.041107, 155.574
1, 2940.00000, 125.41, -31.3468, 126.07, -151.342, 125.729, 88.4055, 0, 0, 4.62363, -54.4207, 4.59941, -174.416, 4.6119, 65.3315, 0.041107, 155.574
1, 3000.00000, 125.41, -31.3468, 126.07, -151.342, 125.729, 88.4055, 0, 0, 4.62363, -54.4207, 4.59941, -174.416, 4.6119, 65.3315, 0.041107, 155.574
1, 3060.00000, 125.41, -31.3468, 126.07, -151.342, 125.729, 88.4055, 0, 0, 4.62363, -54.4207, 4.59941, -174.416, 4.6119, 65.3315, 0.041107, 155.574
1, 3120.00000, 125.41, -31.3468, 126.07, -151.342, 125.729, 88.4055, 0, 0, 4.62363, -54.4207, 4.59941, -174.416, 4.6119, 65.3315, 0.041107, 155.574
1, 3180.00000, 125.41, -31.3468, 126.07, -151.342, 125.729, 88.4055, 0, 0, 4.62363, -54.4207, 4.59941, -174.416, 4.6119, 65.3315, 0.041107, 155.574
1, 3240.00000, 125.41, -31.3468, 126.07, -151.342, 125.729, 88.4055, 0, 0, 4.62363, -54.4207, 4.59941, -174.416, 4.6119, 65.3315, 0.041107, 155.574
1, 3300.00000, 125.41, -31.3468, 126.07, -151.342, 125.729, 88.4055, 0, 0, 4.62363, -54.4207, 4.59941, -174.416, 4.6119, 65.3315, 0.041107, 155.574
1, 3360.00000, 125.41, -31.3468, 126.07, -151.342, 125.729, 88.4055, 0, 0, 4.62363, -54.4207, 4.59941, -174.416, 4.6119, 65.3315, 0.041107, 155.574
1, 3420.00000, 125.41, -31.3468, 126.07, -151.342, 125.729, 88.4055, 0, 0, 4.62363, -54.4207, 4.59941, -174.416, 4.6119, 65.3315, 0.041107, 155.574
1, 3480.00000, 125.41, -31.3468, 126.07, -151.342, 125.729, 88.4055, 0, 0, 4.62363, -54.4207, 4.59941, -174.416, 4.6119, 65.3315, 0.041107, 155.574
1, 3540.00000, 125.41, -31.3468, 126.07, -151.342, 125.729, 88.4055, 0, 0, 4.62363, -54.4207, 4.59941, -174.416, 4.6119, 65.3315, 0.041107, 155.574
2, 0.00000, 125.41, -31.3468, 126.07, -151.342, 125.729, 88.4055, 0, 0, 4.62363, -54.4207, 4.59941, -174.416, 4.6119, 65.3315, 0.041107, 155.574
2, 60.00000, 125.41, -31.3468, 126.07, -151.342, 125.729, 88.4055, 0, 0, 4.62363, -54.4207, 4.59941, -174.416, 4.6119, 65.3315, 0.041107, 155.574
2, 120.00000, 125.41, -31.3468, 126.07, -151.342, 125.729, 88.4055, 0, 0, 4.62363, -54.4207, 4.59941, -174.416, 4.6119, 65.3315, 0.041107, 155.574
2, 180.00000, 125.41, -31.3468, 126.07, -151.342, 125.729, 88.4055, 0, 0, 4.62363, -54.4207, 4.59941, -174.416, 4.6119, 65.3315, 0.041107, 155.574
2, 240.00000, 125.41, -31.3468, 126.07, -151.342, 125.729, 88.4055, 0, 0, 4.62363, -54.4207, 4.59941, -174.416, 4.6119, 65.3315, 0.041107, 155.574
2, 300.00000, 125.41, -31.3468, 126.07, -151.342, 125.729, 88.4055, 0, 0, 4.62363, -54.4207, 4.59941, -174.416, 4.6119, 65.3315, 0.041107, 155.574
2, 360.00000, 125.41, -31.3468, 126.07, -151.342, 125.729, 88.4055, 0, 0, 4.62363, -54.4207, 4.59941, -174.416, 4.6119, 65.3315, 0.041107, 155.574
2, 420.00000, 125.41, -31.3468, 126.07, -151.342, 125.729, 88.4055, 0, 0, 4.62363, -54.4207, 4.59941, -174.416, 4.6119, 65.3315, 0.041107, 155.574
2, 480.00000, 125.41, -31.3468, 126.07, -151.342, 125.729, 88.4055, 0, 0, 4.62363, -54.4207, 4.59941, -174.416, 4.6119, 65.3315, 0.041107, 155.574
2, 540.00000, 125.41, -31.3468, 126.07, -151.342, 125.729, 88.4055, 0, 0, 4.62363, -54.4207, 4.59941, -174.416, 4.6119, 65.3315, 0.041107, 155.574
2, 600.00000, 125.41, -31.3468, 126.07, -151.342, 125.729, 88.4055, 0, 0, 4.62363, -54.4207, 4.59941, -174.416, 4.6119, 65.3315, 0.041107, 155.574
2, 660.00000, 125.41, -31.3468, 126.07, -151.342, 125.729, 88.4055, 0, 0, 4.62363, -54.4207, 4.59941, -174.416, 4.6119, 65.3315, 0.041107, 155.574
2, 720.00000, 125.41, -31.3468, 126.07, -151.342, 125.729, 88.4055, 0, 0, 4.62363, -54.4207, 4.59941, -174.416, 4.6119, 65.3315, 0.041107, 155.574
2, 780.00000, 125.41, -31.3468, 126.07, -151.342, 125.729, 88.4055, 0, 0, 4.62363, -54.4207, 4.59941, -174.416, 4.6119, 65.3315, 0.041107, 155.574
