hour,t(sec),V1,VAngle1,V2,VAngle2,V3,VAngle3,V4,VAngle4,I1,IAngle1,I2,IAngle2,I3,IAngle3,I4,IAngle4
0, 60.00000, 118.77, -34.0579, 118.803, -151.309, 124.483, 87.3372, 0, 0, 7.33955, -57.1317, 7.34154, -174.382, 7.2406, 64.2646, 0.402884, 63.6145
0, 120.00000, 118.763, -34.0847, 118.802, -151.309, 124.534, 87.3212, 0, 0, 7.33909, -57.1586, 7.3415, -174.383, 7.23762, 64.2485, 0.408498, 63.6016
0, 180.00000, 118.758, -34.1089, 118.802, -151.31, 124.58, 87.3068, 0, 0, 7.33867, -57.1827, 7.34146, -174.383, 7.23493, 64.234, 0.413545, 63.5902
0, 240.00000, 118.752, -34.1307, 118.801, -151.31, 124.621, 87.2939, 0, 0, 7.33829, -57.2045, 7.34143, -174.383, 7.23252, 64.2209, 0.418085, 63.5797
0, 300.00000, 118.748, -34.1503, 118.801, -151.31, 124.658, 87.2822, 0, 0, 7.33794, -57.2242, 7.3414, -174.384, 7.23035, 64.2092, 0.422168, 63.5702
0, 360.00000, 118.743, -34.168, 118.801, -151.311, 124.691, 87.2716, 0, 0, 7.33763, -57.2418, 7.34138, -174.384, 7.2284, 64.1985, 0.42584, 63.5616
0, 420.00000, 118.739, -34.1839, 118.8, -151.311, 124.721, 87.2621, 0, 0, 7.33734, -57.2577, 7.34136, -174.384, 7.22665, 64.1889, 0.429144, 63.5538
0, 480.00000, 119.555, -34.0893, 119.573, -151.218, 125.687, 87.3811, 0, 0, 6.43219, -57.1632, 6.43312, -174.291, 6.23893, 64.3078, 0.470915, 63.7114
0, 540.00000, 119.552, -34.1023, 119.573, -151.218, 125.712, 87.3733, 0, 0, 6.43199, -57.1761, 6.4331, -174.292, 6.23768, 64.3001, 0.473267, 63.7042
0, 600.00000, 119.549, -34.1139, 119.572, -151.218, 125.734, 87.3664, 0, 0, 6.43181, -57.1877, 6.43308, -174.292, 6.23656, 64.2931, 0.47538, 63.6979
0, 660.00000, 119.547, -34.1244, 119.572, -151.218, 125.754, 87.3601, 0, 0, 6.43164, -57.1982, 6.43307, -174.292, 6.23555, 64.2867, 0.477281, 63.6922
0, 720.00000, 119.544, -34.1338, 119.572, -151.219, 125.772, 87.3545, 0, 0, 6.43149, -57.2076, 6.43306, -174.292, 6.23464, 64.2811, 0.478991, 63.687
0, 780.00000, 119.542, -34.1423, 119.572, -151.219, 125.788, 87.3494, 0, 0, 6.43136, -57.2161, 6.43305, -174.292, 6.23383, 64.2759, 0.480531, 63.6824
0, 840.00000, 119.54, -34.1499, 119.572, -151.219, 125.803, 87.3449, 0, 0, 6.43124, -57.2238, 6.43304, -174.293, 6.23309, 64.2713, 0.481915, 63.6782
0, 900.00000, 119.539, -34.1568, 119.571, -151.219, 125.816, 87.3408, 0, 0, 6.43113, -57.2306, 6.43303, -174.293, 6.23243, 64.2672, 0.483161, 63.6744
0, 960.00000, 118.581, -33.9969, 119.59, -151.204, 124.846, 87.0426, 0, 0, 6.37395, -57.0709, 6.43413, -174.277, 6.28086, 63.969, 0.391962, 62.5364
0, 1020.00000, 118.579, -34.0024, 119.59, -151.204, 124.856, 87.0393, 0, 0, 6.37386, -57.0764, 6.43412, -174.277, 6.28033, 63.9657, 0.392956, 62.5357
0, 1080.00000, 118.578, -34.0074, 119.59, -151.204, 124.866, 87.0364, 0, 0, 6.37378, -57.0813, 6.43411, -174.278, 6.27985, 63.9627, 0.393853, 62.5348
0, 1140.00000, 118.577, -34.0118, 119.59, -151.204, 124.874, 87.0337, 0, 0, 6.3737, -57.0858, 6.43411, -174.278, 6.27942, 63.96, 0.39466, 62.534
0, 1200.00000, 118.576, -34.0159, 119.589, -151.204, 124.882, 87.0313, 0, 0, 6.37363, -57.0898, 6.4341, -174.278, 6.27904, 63.9576, 0.395386, 62.5333
0, 1260.00000, 118.575, -34.0195, 119.589, -151.204, 124.889, 87.0292, 0, 0, 6.37357, -57.0934, 6.4341, -174.278, 6.27869, 63.9554, 0.396039, 62.5326
0, 1320.00000, 118.574, -34.0227, 119.589, -151.204, 124.895, 87.0272, 0, 0, 6.37352, -57.0966, 6.43409, -174.278, 6.27837, 63.9535, 0.396627, 62.532
0, 1380.00000, 118.573, -34.0256, 119.589, -151.204, 124.901, 87.0255, 0, 0, 6.37347, -57.0996, 6.43409, -174.278, 6.27809, 63.9517, 0.397156, 62.5314
0, 1440.00000, 118.572, -34.0283, 119.589, -151.204, 124.906, 87.0239, 0, 0, 6.37342, -57.1022, 6.43409, -174.278, 6.27783, 63.9501, 0.397632, 62.5309
0, 1500.00000, 118.572, -34.0306, 119.589, -151.204, 124.91, 87.0225, 0, 0, 6.37338, -57.1046, 6.43408, -174.278, 6.27761, 63.9487, 0.398061, 62.5305
0, 1560.00000, 118.571, -34.0328, 119.589, -151.204, 124.914, 87.0212, 0, 0, 6.37335, -57.1067, 6.43408, -174.278, 6.2774, 63.9474, 0.398447, 62.5301
0, 1620.00000, 118.571, -34.0347, 119.589, -151.204, 124.918, 87.0201, 0, 0, 6.37332, -57.1086, 6.43408, -174.278, 6.27721, 63.9462, 0.398794, 62.5297
0, 1680.00000, 118.57, -34.0364, 119.589, -151.204, 124.921, 87.019, 0, 0, 6.37329, -57.1103, 6.43408, -174.278, 6.27705, 63.9452, 0.399106, 62.5294
0, 1740.00000, 118.57, -34.038, 119.589, -151.204, 124.924, 87.0181, 0, 0, 6.37326, -57.1119, 6.43407, -174.278, 6.2769, 63.9443, 0.399387, 62.5291
0, 1800.00000, 118.569, -34.0394, 119.589, -151.204, 124.927, 87.0173, 0, 0, 6.37324, -57.1133, 6.43407, -174.278, 6.27676, 63.9434, 0.39964, 62.5288
0, 1860.00000, 118.569, -34.0406, 119.589, -151.204, 124.929, 87.0165, 0, 0, 6.37321, -57.1145, 6.43407, -174.278, 6.27664, 63.9426, 0.399868, 62.5286
0, 1920.00000, 118.569, -34.0418, 119.589, -151.204, 124.931, 87.0158, 0, 0, 6.37319, -57.1157, 6.43407, -174.278, 6.27653, 63.942, 0.400073, 62.5283
0, 1980.00000, 118.569, -34.0428, 119.589, -151.204, 124.933, 87.0152, 0, 0, 6.37318, -57.1167, 6.43407, -174.278, 6.27643, 63.9413, 0.400257, 62.5281
0, 2040.00000, 118.568, -34.0437, 119.589, -151.204, 124.935, 87.0147, 0, 0, 6.37316, -57.1176, 6.43407, -174.278, 6.27634, 63.9408, 0.400423, 62.528
0, 2100.00000, 118.568, -34.0445, 119.589, -151.204, 124.937, 87.0142, 0, 0, 6.37315, -57.1184, 6.43407, -174.278, 6.27626, 63.9403, 0.400572, 62.5278
0, 2160.00000, 118.568, -34.0453, 119.589, -151.204, 124.938, 87.0137, 0, 0, 6.37314, -57.1192, 6.43407, -174.278, 6.27619, 63.9398, 0.400707, 62.5277
0, 2220.00000, 118.568, -34.0459, 119.589, -151.204, 124.939, 87.0133, 0, 0, 6.37312, -57.1199, 6.43406, -174.278, 6.27613, 63.9394, 0.400828, 62.5275
0, 2280.00000, 118.568, -34.0465, 119.589, -151.204, 124.94, 87.013, 0, 0, 6.37311, -57.1205, 6.43406, -174.278, 6.27607, 63.9391, 0.400937, 62.5274
0, 2340.00000, 118.567, -34.0471, 119.589, -151.204, 124.941, 87.0126, 0, 0, 6.3731, -57.121, 6.43406, -174.278, 6.27602, 63.9388, 0.401035, 62.5273
0, 2400.00000, 118.567, -34.0476, 119.589, -151.204, 124.942, 87.0124, 0, 0, 6.3731, -57.1215, 6.43406, -174.278, 6.27597, 63.9385, 0.401123, 62.5272
0, 2460.00000, 118.567, -34.048, 119.589, -151.204, 124.943, 87.0121, 0, 0, 6.37309, -57.1219, 6.43406, -174.278, 6.27593, 63.9382, 0.401202, 62.5271
0, 2520.00000, 118.567, -34.0484, 119.589, -151.204, 124.944, 87.0118, 0, 0, 6.37308, -57.1223, 6.43406, -174.278, 6.27589, 63.938, 0.401273, 62.527
0, 2580.00000, 118.567, -34.0488, 119.589, -151.204, 124.945, 87.0116, 0, 0, 6.37308, -57.1227, 6.43406, -174.278, 6.27586, 63.9377, 0.401338, 62.527
0, 2640.00000, 118.567, -34.0491, 119.589, -151.204, 124.945, 87.0114, 0, 0, 6.37307, -57.123, 6.43406, -174.278, 6.27582, 63.9375, 0.401396, 62.5269
0, 2700.00000, 118.567, -34.0494, 119.589, -151.204, 124.946, 87.0113, 0, 0, 6.37306, -57.1233, 6.43406, -174.278, 6.2758, 63.9374, 0.401448, 62.5268
0, 2760.00000, 118.562, -34.0494, 119.706, -151.072, 125.323, 87.0412, 0, 0, 6.37277, -57.1233, 6.44105, -174.145, 6.2569, 63.9673, 0.436587, 62.4318
0, 2820.00000, 118.562, -34.0496, 119.706, -151.072, 125.324, 87.0411, 0, 0, 6.37276, -57.1235, 6.44105, -174.146, 6.25687, 63.9672, 0.43663, 62.4316
0, 2880.00000, 118.562, -34.0498, 119.706, -151.072, 125.324, 87.041, 0, 0, 6.37276, -57.1237, 6.44105, -174.146, 6.25685, 63.9671, 0.436668, 62.4316
0, 2940.00000, 118.562, -34.05, 119.706, -151.072, 125.324, 87.0408, 0, 0, 6.37276, -57.1239, 6.44105, -174.146, 6.25683, 63.9669, 0.436702, 62.4315
0, 3000.00000, 118.562, -34.0502, 119.706, -151.072, 125.325, 87.0407, 0, 0, 6.37275, -57.1241, 6.44105, -174.146, 6.25682, 63.9668, 0.436733, 62.4315
0, 3060.00000, 118.562, -34.0503, 119.706, -151.072, 125.325, 87.0407, 0, 0, 6.37275, -57.1242, 6.44105, -174.146, 6.2568, 63.9667, 0.43676, 62.4315
0, 3120.00000, 118.562, -34.0505, 119.706, -151.072, 125.325, 87.0406, 0, 0, 6.37275, -57.1244, 6.44105, -174.146, 6.25679, 63.9667, 0.436785, 62.4314
0, 3180.00000, 118.561, -34.0506, 119.706, -151.072, 125.326, 87.0405, 0, 0, 6.37275, -57.1245, 6.44105, -174.146, 6.25678, 63.9666, 0.436807, 62.4314
0, 3240.00000, 118.561, -34.0507, 119.706, -151.072, 125.326, 87.0404, 0, 0, 6.37274, -57.1246, 6.44105, -174.146, 6.25677, 63.9665, 0.436828, 62.4314
0, 3300.00000, 118.561, -34.0508, 119.706, -151.072, 125.326, 87.0404, 0, 0, 6.37274, -57.1247, 6.44105, -174.146, 6.25676, 63.9665, 0.436846, 62.4314
0, 3360.00000, 118.561, -34.0509, 119.706, -151.072, 125.326, 87.0403, 0, 0, 6.37274, -57.1248, 6.44105, -174.146, 6.25675, 63.9664, 0.436862, 62.4314
0, 3420.00000, 118.561, -34.051, 119.706, -151.072, 125.326, 87.0403, 0, 0, 6.37274, -57.1249, 6.44105, -174.146, 6.25674, 63.9664, 0.436877, 62.4314
0, 3480.00000, 118.561, -34.0511, 119.706, -151.072, 125.326, 87.0402, 0, 0, 6.37274, -57.125, 6.44105, -174.146, 6.25673, 63.9663, 0.43689, 62.4313
0, 3540.00000, 118.561, -34.0511, 119.706, -151.072, 125.327, 87.0402, 0, 0, 6.37274, -57.125, 6.44105, -174.146, 6.25673, 63.9663, 0.436902, 62.4313
1, 0.00000, 118.561, -34.0512, 119.706, -151.072, 125.327, 87.0401, 0, 0, 6.37274, -57.1251, 6.44105, -174.146, 6.25672, 63.9662, 0.436912, 62.4313
1, 60.00000, 118.653, -33.9167, 120.001, -151.042, 125.329, 87.044, 0, 0, 6.37818, -56.9906, 6.45867, -174.115, 6.25661, 63.9701, 0.439228, 62.2813
1, 120.00000, 118.653, -33.9168, 120.001, -151.042, 125.329, 87.044, 0, 0, 6.37818, -56.9907, 6.45867, -174.115, 6.25661, 63.9701, 0.439237, 62.2813
1, 180.00000, 118.653, -33.9168, 120.001, -151.042, 125.329, 87.044, 0, 0, 6.37818, -56.9907, 6.45867, -174.115, 6.2566, 63.9701, 0.439245, 62.2813
1, 240.00000, 118.653, -33.9168, 120.001, -151.042, 125.329, 87.044, 0, 0, 6.37818, -56.9908, 6.45867, -174.115, 6.2566, 63.97, 0.439252, 62.2813
1, 300.00000, 118.653, -33.9169, 120.001, -151.042, 125.329, 87.0439, 0, 0, 6.37818, -56.9908, 6.45867, -174.115, 6.2566, 63.97, 0.439258, 62.2813
1, 360.00000, 118.653, -33.9169, 120.001, -151.042, 125.329, 87.0439, 0, 0, 6.37818, -56.9908, 6.45867, -174.115, 6.25659, 63.97, 0.439264, 62.2813
1, 420.00000, 118.653, -33.9169, 120.001, -151.042, 125.329, 87.0439, 0, 0, 6.37818, -56.9908, 6.45867, -174.115, 6.25659, 63.97, 0.439269, 62.2812
1, 480.00000, 118.653, -33.917, 120.001, -151.042, 125.329, 87.0439, 0, 0, 6.37818, -56.9909, 6.45867, -174.115, 6.25659, 63.97, 0.439274, 62.2812
1, 540.00000, 118.653, -33.917, 120.001, -151.042, 125.329, 87.0439, 0, 0, 6.37818, -56.9909, 6.45867, -174.115, 6.25659, 63.97, 0.439278, 62.2812
1, 600.00000, 118.653, -33.917, 120.001, -151.042, 125.329, 87.0439, 0, 0, 6.37818, -56.9909, 6.45867, -174.115, 6.25658, 63.9699, 0.439282, 62.2812
1, 660.00000, 118.653, -33.917, 120.001, -151.042, 125.329, 87.0439, 0, 0, 6.37818, -56.9909, 6.45867, -174.115, 6.25658, 63.9699, 0.439285, 62.2812
1, 720.00000, 118.653, -33.917, 120.001, -151.042, 125.329, 87.0438, 0, 0, 6.37818, -56.991, 6.45867, -174.115, 6.25658, 63.9699, 0.439288, 62.2812
1, 780.00000, 118.653, -33.9171, 120.001, -151.042, 125.33, 87.0438, 0, 0, 6.37818, -56.991, 6.45867, -174.115, 6.25658, 63.9699, 0.439291, 62.2812
1, 840.00000, 118.653, -33.9171, 120.001, -151.042, 125.33, 87.0438, 0, 0, 6.37818, -56.991, 6.45867, -174.115, 6.25658, 63.9699, 0.439293, 62.2812
1, 900.00000, 118.653, -33.9171, 120.001, -151.042, 125.33, 87.0438, 0, 0, 6.37818, -56.991, 6.45867, -174.115, 6.25658, 63.9699, 0.439295, 62.2812
1, 960.00000, 118.652, -33.9171, 120.001, -151.042, 125.33, 87.0438, 0, 0, 6.37818, -56.991, 6.45867, -174.115, 6.25658, 63.9699, 0.439297, 62.2812
1, 1020.00000, 118.652, -33.9171, 120.001, -151.042, 125.33, 87.0438, 0, 0, 6.37818, -56.991, 6.45867, -174.115, 6.25657, 63.9699, 0.439299, 62.2812
1, 1080.00000, 118.652, -33.9171, 120.001, -151.042, 125.33, 87.0438, 0, 0, 6.37818, -56.991, 6.45867, -174.115, 6.25657, 63.9699, 0.439301, 62.2812
1, 1140.00000, 118.652, -33.9171, 120.001, -151.042, 125.33, 87.0438, 0, 0, 6.37818, -56.991, 6.45867, -174.115, 6.25657, 63.9699, 0.439302, 62.2812
1, 1200.00000, 118.652, -33.9171, 120.001, -151.042, 125.33, 87.0438, 0, 0, 6.37818, -56.991, 6.45867, -174.115, 6.25657, 63.9699, 0.439303, 62.2812
1, 1260.00000, 118.652, -33.9171, 120.001, -151.042, 125.33, 87.0438, 0, 0, 6.37818, -56.991, 6.45867, -174.115, 6.25657, 63.9699, 0.439305, 62.2812
1, 1320.00000, 118.652, -33.9171, 120.001, -151.042, 125.33, 87.0438, 0, 0, 6.37818, -56.9911, 6.45867, -174.115, 6.25657, 63.9699, 0.439306, 62.2812
1, 1380.00000, 118.652, -33.9171, 120.001, -151.042, 125.33, 87.0438, 0, 0, 6.37818, -56.9911, 6.45867, -174.115, 6.25657, 63.9699, 0.439307, 62.2812
1, 1440.00000, 118.652, -33.9171, 120.001, -151.042, 125.33, 87.0438, 0, 0, 6.37818, -56.9911, 6.45867, -174.115, 6.25657, 63.9699, 0.439308, 62.2812
1, 1500.00000, 118.652, -33.9171, 120.001, -151.042, 125.33, 87.0438, 0, 0, 6.37818, -56.9911, 6.45867, -174.115, 6.25657, 63.9699, 0.439308, 62.2812
1, 1560.00000, 118.652, -33.9172, 120.001, -151.042, 125.33, 87.0438, 0, 0, 6.37818, -56.9911, 6.45867, -174.115, 6.25657, 63.9699, 0.439309, 62.2812
1, 1620.00000, 118.652, -33.9172, 120.001, -151.042, 125.33, 87.0438, 0, 0, 6.37818, -56.9911, 6.45867, -174.115, 6.25657, 63.9699, 0.43931, 62.2812
1, 1680.00000, 118.652, -33.9172, 120.001, -151.042, 125.33, 87.0438, 0, 0, 6.37818, -56.9911, 6.45867, -174.115, 6.25657, 63.9699, 0.43931, 62.2812
1, 1740.00000, 118.652, -33.9172, 120.001, -151.042, 125.33, 87.0438, 0, 0, 6.37818, -56.9911, 6.45867, -174.115, 6.25657, 63.9699, 0.439311, 62.2812
1, 1800.00000, 118.652, -33.9172, 120.001, -151.042, 125.33, 87.0438, 0, 0, 6.37818, -56.9911, 6.45867, -174.115, 6.25657, 63.9698, 0.439311, 62.2812
1, 1860.00000, 118.652, -33.9172, 120.001, -151.042, 125.33, 87.0438, 0, 0, 6.37818, -56.9911, 6.45867, -174.115, 6.25657, 63.9698, 0.439312, 62.2812
1, 1920.00000, 118.652, -33.9172, 120.001, -151.042, 125.33, 87.0438, 0, 0, 6.37818, -56.9911, 6.45867, -174.115, 6.25657, 63.9698, 0.439312, 62.2812
1, 1980.00000, 118.652, -33.9172, 120.001, -151.042, 125.33, 87.0438, 0, 0, 6.37818, -56.9911, 6.45867, -174.115, 6.25657, 63.9698, 0.439312, 62.2812
1, 2040.00000, 118.652, -33.9172, 120.001, -151.042, 125.33, 87.0438, 0, 0, 6.37818, -56.9911, 6.45867, -174.115, 6.25657, 63.9698, 0.439312, 62.2812
1, 2100.00000, 118.652, -33.9172, 120.001, -151.042, 125.33, 87.0438, 0, 0, 6.37818, -56.9911, 6.45867, -174.115, 6.25657, 63.9698, 0.439313, 62.2812
1, 2160.00000, 118.652, -33.9172, 120.001, -151.042, 125.33, 87.0438, 0, 0, 6.37818, -56.9911, 6.45867, -174.115, 6.25657, 63.9698, 0.439313, 62.2812
1, 2220.00000, 118.652, -33.9172, 120.001, -151.042, 125.33, 87.0438, 0, 0, 6.37818, -56.9911, 6.45867, -174.115, 6.25657, 63.9698, 0.439313, 62.2812
1, 2280.00000, 118.652, -33.9172, 120.001, -151.042, 125.33, 87.0438, 0, 0, 6.37818, -56.9911, 6.45867, -174.115, 6.25657, 63.9698, 0.439313, 62.2812
1, 2340.00000, 118.652, -33.9172, 120.001, -151.042, 125.33, 87.0438, 0, 0, 6.37818, -56.9911, 6.45867, -174.115, 6.25657, 63.9698, 0.439314, 62.2812
1, 2400.00000, 118.652, -33.9172, 120.001, -151.042, 125.33, 87.0438, 0, 0, 6.37818, -56.9911, 6.45867, -174.115, 6.25657, 63.9698, 0.439314, 62.2812
1, 2460.00000, 118.652, -33.9172, 120.001, -151.042, 125.33, 87.0438, 0, 0, 6.37818, -56.9911, 6.45867, -174.115, 6.25657, 63.9698, 0.439314, 62.2812
1, 2520.00000, 118.652, -33.9172, 120.001, -151.042, 125.33, 87.0438, 0, 0, 6.37818, -56.9911, 6.45867, -174.115, 6.25657, 63.9698, 0.439314, 62.2812
1, 2580.00000, 118.652, -33.9172, 120.001, -151.042, 125.33, 87.0438, 0, 0, 6.37818, -56.9911, 6.45867, -174.115, 6.25657, 63.9698, 0.439314, 62.2812
1, 2640.00000, 118.652, -33.9172, 120.001, -151.042, 125.33, 87.0438, 0, 0, 6.37818, -56.9911, 6.45867, -174.115, 6.25657, 63.9698, 0.439314, 62.2812
1, 2700.00000, 118.652, -33.9172, 120.001, -151.042, 125.33, 87.0438, 0, 0, 6.37818, -56.9911, 6.45867, -174.115, 6.25657, 63.9698, 0.439314, 62.2812
1, 2760.00000, 118.652, -33.9172, 120.001, -151.042, 125.33, 87.0438, 0, 0, 6.37818, -56.9911, 6.45867, -174.115, 6.25657, 63.9698, 0.439314, 62.2812
1, 2820.00000, 118.652, -33.9172, 120.001, -151.042, 125.33, 87.0438, 0, 0, 6.37818, -56.9911, 6.45867, -174.115, 6.25657, 63.9698, 0.439314, 62.2812
1, 2880.00000, 118.652, -33.9172, 120.001, -151.042, 125.33, 87.0438, 0, 0, 6.37818, -56.9911, 6.45867, -174.115, 6.25657, 63.9698, 0.439315, 62.2812
1, 2940.00000, 118.652, -33.9172, 120.001, -151.042, 125.33, 87.0438, 0, 0, 6.37818, -56.9911, 6.45867, -174.115, 6.25657, 63.9698, 0.439315, 62.2812
1, 3000.00000, 118.652, -33.9172, 120.001, -151.042, 125.33, 87.0438, 0, 0, 6.37818, -56.9911, 6.45867, -174.115, 6.25657, 63.9698, 0.439315, 62.2812
1, 3060.00000, 118.652, -33.9172, 120.001, -151.042, 125.33, 87.0438, 0, 0, 6.37818, -56.9911, 6.45867, -174.115, 6.25657, 63.9698, 0.439315, 62.2812
1, 3120.00000, 118.652, -33.9172, 120.001, -151.042, 125.33, 87.0438, 0, 0, 6.37818, -56.9911, 6.45867, -174.115, 6.25657, 63.9698, 0.439315, 62.2812
1, 3180.00000, 118.652, -33.9172, 120.001, -151.042, 125.33, 87.0438, 0, 0, 6.37818, -56.9911, 6.45867, -174.115, 6.25657, 63.9698, 0.439315, 62.2812
1, 3240.00000, 118.652, -33.9172, 120.001, -151.042, 125.33, 87.0438, 0, 0, 6.37818, -56.9911, 6.45867, -174.115, 6.25657, 63.9698, 0.439315, 62.2812
1, 3300.00000, 118.652, -33.9172, 120.001, -151.042, 125.33, 87.0438, 0, 0, 6.37818, -56.9911, 6.45867, -174.115, 6.25657, 63.9698, 0.439315, 62.2812
1, 3360.00000, 118.652, -33.9172, 120.001, -151.042, 125.33, 87.0438, 0, 0, 6.37818, -56.9911, 6.45867, -174.115, 6.25657, 63.9698, 0.439315, 62.2812
1, 3420.00000, 118.652, -33.9172, 120.001, -151.042, 125.33, 87.0438, 0, 0, 6.37818, -56.9911, 6.45867, -174.115, 6.25657, 63.9698, 0.439315, 62.2812
1, 3480.00000, 118.652, -33.9172, 120.001, -151.042, 125.33, 87.0438, 0, 0, 6.37818, -56.9911, 6.45867, -174.115, 6.25657, 63.9698, 0.439315, 62.2812
1, 3540.00000, 118.652, -33.9172, 120.001, -151.042, 125.33, 87.0438, 0, 0, 6.37818, -56.9911, 6.45867, -174.115, 6.25657, 63.9698, 0.439315, 62.2812
2, 0.00000, 118.652, -33.9172, 120.001, -151.042, 125.33, 87.0438, 0, 0, 6.37818, -56.9911, 6.45867, -174.115, 6.25657, 63.9698, 0.439315, 62.2812
2, 60.00000, 118.652, -33.9172, 120.001, -151.042, 125.33, 87.0438, 0, 0, 6.37818, -56.9911, 6.45867, -174.115, 6.25657, 63.9698, 0.439315, 62.2812
2, 120.00000, 118.652, -33.9172, 120.001, -151.042, 125.33, 87.0438, 0, 0, 6.37818, -56.9911, 6.45867, -174.115, 6.25657, 63.9698, 0.439315, 62.2812
2, 180.00000, 118.652, -33.9172, 120.001, -151.042, 125.33, 87.0438, 0, 0, 6.37818, -56.9911, 6.45867, -174.115, 6.25657, 63.9698, 0.439315, 62.2812
2, 240.00000, 118.652, -33.9172, 120.001, -151.042, 125.33, 87.0438, 0, 0, 6.37818, -56.9911, 6.45867, -174.115, 6.25657, 63.9698, 0.439315, 62.2812
2, 300.00000, 118.652, -33.9172, 120.001, -151.042, 125.33, 87.0438, 0, 0, 6.37818, -56.9911, 6.45867, -174.115, 6.25657, 63.9698, 0.439315, 62.2812
2, 360.00000, 118.652, -33.9172, 120.001, -151.042, 125.33, 87.0438, 0, 0, 6.37818, -56.9911, 6.45867, -174.115, 6.25657, 63.9698, 0.439315, 62.2812
2, 420.00000, 118.652, -33.9172, 120.001, -151.042, 125.33, 87.0438, 0, 0, 6.37818, -56.9911, 6.45867, -174.115, 6.25657, 63.9698, 0.439315, 62.2812
2, 480.00000, 118.652, -33.9172, 120.001, -151.042, 125.33, 87.0438, 0, 0, 6.37818, -56.9911, 6.45867, -174.115, 6.25657, 63.9698, 0.439315, 62.2812
2, 540.00000, 118.652, -33.9172, 120.001, -151.042, 125.33, 87.0438, 0, 0, 6.37818, -56.9911, 6.45867, -174.115, 6.25657, 63.9698, 0.439315, 62.2812
2, 600.00000, 118.652, -33.9172, 120.001, -151.042, 125.33, 87.0438, 0, 0, 6.37818, -56.9911, 6.45867, -174.115, 6.25657, 63.9698, 0.439315, 62.2812
2, 660.00000, 118.652, -33.9172, 120.001, -151.042, 125.33, 87.0438, 0, 0, 6.37818, -56.9911, 6.45867, -174.115, 6.25657, 63.9698, 0.439315, 62.2812
2, 720.00000, 118.652, -33.9172, 120.001, -151.042, 125.33, 87.0438, 0, 0, 6.37818, -56.9911, 6.45867, -174.115, 6.25657, 63.9698, 0.439315, 62.2812
2, 780.00000, 118.652, -33.9172, 120.001, -151.042, 125.33, 87.0438, 0, 0, 6.37818, -56.9911, 6.45867, -174.115, 6.25657, 63.9698, 0.439315, 62.2812
