hour,t(sec),V1,VAngle1,V2,VAngle2,V3,VAngle3,V4,VAngle4,I1,IAngle1,I2,IAngle2,I3,IAngle3,I4,IAngle4
0, 60.00000, 120.123, -31.3968, 124.742, -151.352, 122.647, 86.9537, 0, 0, 3.23072, -54.4706, 3.14088, -174.426, 3.19445, 63.8799, 0.171069, 157.275
0, 120.00000, 120.123, -31.3971, 124.76, -151.353, 122.653, 86.9471, 0, 0, 3.23071, -54.4708, 3.14042, -174.427, 3.19431, 63.8732, 0.171797, 157.304
0, 180.00000, 120.123, -31.3973, 124.776, -151.354, 122.658, 86.9411, 0, 0, 3.23071, -54.4711, 3.14, -174.428, 3.19417, 63.8672, 0.172452, 157.329
0, 240.00000, 120.123, -31.3975, 124.791, -151.355, 122.662, 86.9357, 0, 0, 3.2307, -54.4713, 3.13963, -174.429, 3.19405, 63.8618, 0.173042, 157.353
0, 300.00000, 120.123, -31.3977, 124.804, -151.355, 122.667, 86.9308, 0, 0, 3.23069, -54.4715, 3.13929, -174.429, 3.19395, 63.8569, 0.173573, 157.374
0, 360.00000, 120.122, -31.3979, 124.816, -151.356, 122.67, 86.9264, 0, 0, 3.23069, -54.4717, 3.13899, -174.43, 3.19385, 63.8526, 0.174053, 157.393
0, 420.00000, 120.122, -31.398, 124.827, -151.357, 122.674, 86.9225, 0, 0, 3.23068, -54.4719, 3.13871, -174.43, 3.19376, 63.8486, 0.174486, 157.41
0, 480.00000, 120.695, -31.2811, 125.464, -151.227, 123.247, 87.0506, 0, 0, 2.93306, -54.3549, 2.82162, -174.301, 2.87233, 63.9767, 0.181667, 152.952
0, 540.00000, 120.695, -31.2813, 125.473, -151.227, 123.25, 87.0474, 0, 0, 2.93306, -54.3551, 2.82141, -174.301, 2.87226, 63.9735, 0.181993, 152.971
0, 600.00000, 120.695, -31.2814, 125.481, -151.228, 123.252, 87.0445, 0, 0, 2.93307, -54.3552, 2.82123, -174.302, 2.87221, 63.9706, 0.182286, 152.989
0, 660.00000, 120.695, -31.2815, 125.488, -151.228, 123.254, 87.0419, 0, 0, 2.93307, -54.3554, 2.82106, -174.302, 2.87216, 63.968, 0.182549, 153.005
0, 720.00000, 120.695, -31.2816, 125.495, -151.229, 123.256, 87.0395, 0, 0, 2.93307, -54.3555, 2.82091, -174.302, 2.87211, 63.9656, 0.182786, 153.019
0, 780.00000, 120.695, -31.2817, 125.501, -151.229, 123.258, 87.0374, 0, 0, 2.93308, -54.3556, 2.82077, -174.303, 2.87207, 63.9635, 0.183, 153.031
0, 840.00000, 120.694, -31.2818, 125.506, -151.229, 123.26, 87.0355, 0, 0, 2.93308, -54.3557, 2.82065, -174.303, 2.87204, 63.9616, 0.183192, 153.043
0, 900.00000, 120.694, -31.2819, 125.511, -151.229, 123.261, 87.0338, 0, 0, 2.93308, -54.3557, 2.82054, -174.303, 2.872, 63.9599, 0.183365, 153.053
0, 960.00000, 120.688, -31.2774, 125.286, -151.377, 122.897, 87.0192, 0, 0, 2.93324, -54.3513, 2.8256, -174.451, 2.8805, 63.9453, 0.176424, 156.974
0, 1020.00000, 120.688, -31.2775, 125.29, -151.378, 122.899, 87.0178, 0, 0, 2.93324, -54.3514, 2.82552, -174.451, 2.88047, 63.9439, 0.176562, 156.979
0, 1080.00000, 120.688, -31.2775, 125.293, -151.378, 122.9, 87.0166, 0, 0, 2.93324, -54.3514, 2.82544, -174.452, 2.88045, 63.9427, 0.176686, 156.984
0, 1140.00000, 120.688, -31.2776, 125.296, -151.378, 122.901, 87.0155, 0, 0, 2.93324, -54.3515, 2.82537, -174.452, 2.88043, 63.9416, 0.176798, 156.988
0, 1200.00000, 120.688, -31.2776, 125.299, -151.378, 122.901, 87.0145, 0, 0, 2.93324, -54.3515, 2.82531, -174.452, 2.88041, 63.9406, 0.176899, 156.992
0, 1260.00000, 120.688, -31.2777, 125.301, -151.378, 122.902, 87.0136, 0, 0, 2.93324, -54.3516, 2.82525, -174.452, 2.88039, 63.9397, 0.17699, 156.996
0, 1320.00000, 120.688, -31.2777, 125.304, -151.378, 122.903, 87.0128, 0, 0, 2.93324, -54.3516, 2.8252, -174.452, 2.88038, 63.9389, 0.177072, 156.999
0, 1380.00000, 120.688, -31.2777, 125.306, -151.378, 122.903, 87.0121, 0, 0, 2.93325, -54.3516, 2.82515, -174.452, 2.88037, 63.9381, 0.177146, 157.002
0, 1440.00000, 120.688, -31.2778, 125.307, -151.378, 122.904, 87.0114, 0, 0, 2.93325, -54.3517, 2.82511, -174.452, 2.88035, 63.9375, 0.177212, 157.004
0, 1500.00000, 120.688, -31.2778, 125.309, -151.379, 122.904, 87.0108, 0, 0, 2.93325, -54.3517, 2.82507, -174.452, 2.88034, 63.9369, 0.177272, 157.007
0, 1560.00000, 120.688, -31.2778, 125.311, -151.379, 122.905, 87.0103, 0, 0, 2.93325, -54.3517, 2.82504, -174.453, 2.88033, 63.9364, 0.177326, 157.009
0, 1620.00000, 120.688, -31.2778, 125.312, -151.379, 122.905, 87.0098, 0, 0, 2.93325, -54.3517, 2.82501, -174.453, 2.88032, 63.9359, 0.177374, 157.011
0, 1680.00000, 120.688, -31.2778, 125.313, -151.379, 122.906, 87.0094, 0, 0, 2.93325, -54.3517, 2.82498, -174.453, 2.88031, 63.9355, 0.177418, 157.012
0, 1740.00000, 120.688, -31.2779, 125.314, -151.379, 122.906, 87.009, 0, 0, 2.93325, -54.3518, 2.82496, -174.453, 2.88031, 63.9351, 0.177457, 157.014
0, 1800.00000, 120.579, -31.4115, 124.95, -151.406, 122.919, 87.008, 0, 0, 2.93141, -54.4855, 2.8332, -174.48, 2.88001, 63.9341, 0.164655, 154.255
0, 1860.00000, 120.579, -31.4116, 124.95, -151.406, 122.919, 87.0077, 0, 0, 2.93141, -54.4855, 2.83318, -174.48, 2.88, 63.9338, 0.164685, 154.257
0, 1920.00000, 120.579, -31.4116, 124.951, -151.406, 122.919, 87.0074, 0, 0, 2.93141, -54.4855, 2.83316, -174.48, 2.88, 63.9335, 0.164712, 154.259
0, 1980.00000, 120.579, -31.4116, 124.952, -151.406, 122.919, 87.0072, 0, 0, 2.93141, -54.4855, 2.83315, -174.48, 2.87999, 63.9333, 0.164736, 154.26
0, 2040.00000, 120.579, -31.4116, 124.952, -151.406, 122.919, 87.0069, 0, 0, 2.93141, -54.4855, 2.83313, -174.48, 2.87999, 63.933, 0.164758, 154.261
0, 2100.00000, 120.579, -31.4116, 124.953, -151.406, 122.92, 87.0067, 0, 0, 2.93141, -54.4855, 2.83312, -174.48, 2.87999, 63.9328, 0.164778, 154.263
0, 2160.00000, 120.579, -31.4116, 124.953, -151.406, 122.92, 87.0066, 0, 0, 2.93141, -54.4855, 2.83311, -174.48, 2.87998, 63.9326, 0.164796, 154.264
0, 2220.00000, 120.579, -31.4116, 124.954, -151.406, 122.92, 87.0064, 0, 0, 2.93141, -54.4855, 2.8331, -174.48, 2.87998, 63.9325, 0.164812, 154.265
0, 2280.00000, 120.579, -31.4116, 124.954, -151.406, 122.92, 87.0062, 0, 0, 2.93141, -54.4855, 2.83309, -174.48, 2.87998, 63.9323, 0.164827, 154.266
0, 2340.00000, 120.578, -31.4116, 124.955, -151.406, 122.92, 87.0061, 0, 0, 2.93141, -54.4855, 2.83308, -174.48, 2.87997, 63.9322, 0.16484, 154.267
0, 2400.00000, 120.578, -31.4116, 124.955, -151.406, 122.92, 87.006, 0, 0, 2.93141, -54.4855, 2.83308, -174.48, 2.87997, 63.9321, 0.164851, 154.267
0, 2460.00000, 120.578, -31.4116, 124.955, -151.406, 122.92, 87.0059, 0, 0, 2.93141, -54.4855, 2.83307, -174.48, 2.87997, 63.932, 0.164862, 154.268
0, 2520.00000, 120.578, -31.4116, 124.956, -151.407, 122.92, 87.0058, 0, 0, 2.93141, -54.4856, 2.83306, -174.48, 2.87997, 63.9319, 0.164871, 154.269
0, 2580.00000, 120.578, -31.4116, 124.956, -151.407, 122.92, 87.0057, 0, 0, 2.9314, -54.4856, 2.83306, -174.48, 2.87997, 63.9318, 0.16488, 154.269
0, 2640.00000, 120.578, -31.4116, 124.956, -151.407, 122.921, 87.0056, 0, 0, 2.9314, -54.4856, 2.83305, -174.48, 2.87996, 63.9317, 0.164888, 154.27
0, 2700.00000, 120.578, -31.4116, 124.956, -151.407, 122.921, 87.0055, 0, 0, 2.9314, -54.4856, 2.83305, -174.48, 2.87996, 63.9316, 0.164894, 154.27
0, 2760.00000, 121.727, -31.5651, 124.933, -151.409, 123.812, 87.3824, 0, 0, 2.9082, -54.639, 2.83358, -174.483, 2.85923, 64.3085, 0.12246, 146.525
0, 2820.00000, 121.727, -31.5651, 124.933, -151.409, 123.812, 87.3823, 0, 0, 2.9082, -54.639, 2.83358, -174.483, 2.85923, 64.3084, 0.122465, 146.526
0, 2880.00000, 121.727, -31.5651, 124.933, -151.409, 123.812, 87.3823, 0, 0, 2.9082, -54.639, 2.83357, -174.483, 2.85923, 64.3084, 0.12247, 146.527
0, 2940.00000, 121.727, -31.5651, 124.933, -151.409, 123.812, 87.3822, 0, 0, 2.9082, -54.639, 2.83357, -174.483, 2.85923, 64.3083, 0.122475, 146.527
0, 3000.00000, 121.727, -31.5651, 124.933, -151.409, 123.812, 87.3822, 0, 0, 2.9082, -54.639, 2.83357, -174.483, 2.85923, 64.3083, 0.122479, 146.528
0, 3060.00000, 121.727, -31.5651, 124.933, -151.409, 123.812, 87.3821, 0, 0, 2.9082, -54.639, 2.83357, -174.483, 2.85923, 64.3082, 0.122482, 146.529
0, 3120.00000, 121.727, -31.5651, 124.933, -151.409, 123.812, 87.3821, 0, 0, 2.9082, -54.639, 2.83356, -174.483, 2.85923, 64.3082, 0.122486, 146.529
0, 3180.00000, 121.727, -31.5651, 124.933, -151.409, 123.812, 87.3821, 0, 0, 2.9082, -54.639, 2.83356, -174.483, 2.85923, 64.3082, 0.122489, 146.529
0, 3240.00000, 121.727, -31.5651, 124.934, -151.409, 123.812, 87.3821, 0, 0, 2.9082, -54.639, 2.83356, -174.483, 2.85923, 64.3081, 0.122491, 146.53
0, 3300.00000, 121.727, -31.5651, 124.934, -151.409, 123.812, 87.382, 0, 0, 2.9082, -54.639, 2.83356, -174.483, 2.85922, 64.3081, 0.122494, 146.53
0, 3360.00000, 121.727, -31.5651, 124.934, -151.409, 123.812, 87.382, 0, 0, 2.9082, -54.639, 2.83356, -174.483, 2.85922, 64.3081, 0.122496, 146.53
0, 3420.00000, 121.727, -31.5651, 124.934, -151.409, 123.812, 87.382, 0, 0, 2.9082, -54.639, 2.83356, -174.483, 2.85922, 64.3081, 0.122498, 146.531
0, 3480.00000, 121.727, -31.5651, 124.934, -151.409, 123.812, 87.382, 0, 0, 2.9082, -54.639, 2.83356, -174.483, 2.85922, 64.3081, 0.122499, 146.531
0, 3540.00000, 121.727, -31.5651, 124.934, -151.409, 123.812, 87.382, 0, 0, 2.9082, -54.639, 2.83355, -174.483, 2.85922, 64.308, 0.122501, 146.531
1, 0.00000, 121.727, -31.5651, 124.934, -151.409, 123.812, 87.3819, 0, 0, 2.9082, -54.639, 2.83355, -174.483, 2.85922, 64.308, 0.122502, 146.531
1, 60.00000, 122.207, -31.5665, 124.929, -151.408, 124.058, 87.5644, 0, 0, 2.89678, -54.6404, 2.83366, -174.481, 2.85355, 64.4905, 0.103603, 144.904
1, 120.00000, 122.207, -31.5665, 124.929, -151.408, 124.058, 87.5644, 0, 0, 2.89678, -54.6404, 2.83366, -174.481, 2.85355, 64.4905, 0.103604, 144.904
1, 180.00000, 122.207, -31.5665, 124.929, -151.408, 124.058, 87.5644, 0, 0, 2.89678, -54.6404, 2.83366, -174.481, 2.85355, 64.4905, 0.103605, 144.905
1, 240.00000, 122.207, -31.5665, 124.929, -151.408, 124.058, 87.5644, 0, 0, 2.89678, -54.6404, 2.83366, -174.481, 2.85355, 64.4905, 0.103606, 144.905
1, 300.00000, 122.207, -31.5665, 124.929, -151.408, 124.058, 87.5644, 0, 0, 2.89678, -54.6404, 2.83366, -174.481, 2.85355, 64.4905, 0.103607, 144.905
1, 360.00000, 122.207, -31.5665, 124.929, -151.408, 124.058, 87.5644, 0, 0, 2.89678, -54.6404, 2.83366, -174.481, 2.85355, 64.4905, 0.103607, 144.905
1, 420.00000, 122.207, -31.5665, 124.929, -151.408, 124.058, 87.5644, 0, 0, 2.89678, -54.6404, 2.83366, -174.481, 2.85355, 64.4905, 0.103608, 144.905
1, 480.00000, 122.207, -31.5665, 124.929, -151.408, 124.058, 87.5644, 0, 0, 2.89678, -54.6404, 2.83366, -174.481, 2.85355, 64.4905, 0.103609, 144.905
1, 540.00000, 122.207, -31.5665, 124.929, -151.408, 124.058, 87.5644, 0, 0, 2.89678, -54.6404, 2.83366, -174.481, 2.85355, 64.4904, 0.103609, 144.905
1, 600.00000, 122.207, -31.5665, 124.929, -151.408, 124.058, 87.5644, 0, 0, 2.89678, -54.6404, 2.83366, -174.481, 2.85355, 64.4904, 0.10361, 144.905
1, 660.00000, 122.207, -31.5665, 124.929, -151.408, 124.058, 87.5644, 0, 0, 2.89678, -54.6404, 2.83366, -174.481, 2.85355, 64.4904, 0.10361, 144.906
1, 720.00000, 122.207, -31.5665, 124.929, -151.408, 124.058, 87.5644, 0, 0, 2.89678, -54.6404, 2.83366, -174.481, 2.85355, 64.4904, 0.10361, 144.906
1, 780.00000, 122.499, -31.5379, 124.927, -151.404, 124.158, 87.6889, 0, 0, 2.88988, -54.6118, 2.83371, -174.478, 2.85125, 64.615, 0.0919315, 145.027
1, 840.00000, 122.499, -31.5379, 124.927, -151.404, 124.158, 87.6889, 0, 0, 2.88988, -54.6118, 2.83371, -174.478, 2.85125, 64.615, 0.0919318, 145.027
1, 900.00000, 122.499, -31.5379, 124.927, -151.404, 124.158, 87.6889, 0, 0, 2.88988, -54.6118, 2.83371, -174.478, 2.85125, 64.615, 0.0919321, 145.027
1, 960.00000, 122.499, -31.5379, 124.927, -151.404, 124.158, 87.6889, 0, 0, 2.88988, -54.6118, 2.83371, -174.478, 2.85125, 64.615, 0.0919323, 145.027
1, 1020.00000, 122.499, -31.5379, 124.927, -151.404, 124.158, 87.6889, 0, 0, 2.88988, -54.6118, 2.83371, -174.478, 2.85125, 64.615, 0.0919326, 145.027
1, 1080.00000, 122.499, -31.5379, 124.927, -151.404, 124.158, 87.6889, 0, 0, 2.88988, -54.6118, 2.83371, -174.478, 2.85125, 64.615, 0.0919328, 145.027
1, 1140.00000, 122.499, -31.5379, 124.927, -151.404, 124.158, 87.6889, 0, 0, 2.88988, -54.6118, 2.83371, -174.478, 2.85125, 64.615, 0.091933, 145.027
1, 1200.00000, 122.499, -31.5379, 124.927, -151.404, 124.158, 87.6889, 0, 0, 2.88988, -54.6118, 2.83371, -174.478, 2.85125, 64.615, 0.0919331, 145.027
1, 1260.00000, 122.499, -31.5379, 124.927, -151.404, 124.158, 87.6889, 0, 0, 2.88988, -54.6118, 2.83371, -174.478, 2.85125, 64.615, 0.0919333, 145.028
1, 1320.00000, 122.499, -31.5379, 124.927, -151.404, 124.158, 87.6889, 0, 0, 2.88988, -54.6118, 2.83371, -174.478, 2.85125, 64.615, 0.0919334, 145.028
1, 1380.00000, 122.499, -31.5379, 124.927, -151.404, 124.158, 87.6889, 0, 0, 2.88988, -54.6118, 2.83371, -174.478, 2.85125, 64.615, 0.0919336, 145.028
1, 1440.00000, 122.499, -31.5379, 124.927, -151.404, 124.158, 87.6889, 0, 0, 2.88988, -54.6118, 2.83371, -174.478, 2.85125, 64.615, 0.0919337, 145.028
1, 1500.00000, 122.499, -31.5379, 124.927, -151.404, 124.158, 87.6889, 0, 0, 2.88988, -54.6118, 2.83371, -174.478, 2.85125, 64.615, 0.0919338, 145.028
1, 1560.00000, 122.499, -31.5379, 124.927, -151.404, 124.158, 87.6889, 0, 0, 2.88988, -54.6118, 2.83371, -174.478, 2.85125, 64.615, 0.0919339, 145.028
1, 1620.00000, 122.499, -31.5379, 124.927, -151.404, 124.158, 87.6889, 0, 0, 2.88988, -54.6118, 2.83371, -174.478, 2.85125, 64.615, 0.0919339, 145.028
1, 1680.00000, 122.499, -31.5379, 124.927, -151.404, 124.158, 87.6889, 0, 0, 2.88988, -54.6118, 2.83371, -174.478, 2.85125, 64.615, 0.091934, 145.028
1, 1740.00000, 122.499, -31.5379, 124.927, -151.404, 124.158, 87.6889, 0, 0, 2.88988, -54.6118, 2.83371, -174.478, 2.85125, 64.615, 0.0919341, 145.028
1, 1800.00000, 122.499, -31.5379, 124.927, -151.404, 124.158, 87.6889, 0, 0, 2.88988, -54.6118, 2.83371, -174.478, 2.85125, 64.615, 0.0919341, 145.028
1, 1860.00000, 122.499, -31.5379, 124.927, -151.404, 124.158, 87.6889, 0, 0, 2.88988, -54.6118, 2.83371, -174.478, 2.85125, 64.615, 0.0919342, 145.028
1, 1920.00000, 122.499, -31.5379, 124.927, -151.404, 124.158, 87.6889, 0, 0, 2.88988, -54.6118, 2.83371, -174.478, 2.85125, 64.615, 0.0919342, 145.028
1, 1980.00000, 122.499, -31.5379, 124.927, -151.404, 124.158, 87.6889, 0, 0, 2.88988, -54.6118, 2.83371, -174.478, 2.85125, 64.615, 0.0919343, 145.028
1, 2040.00000, 122.499, -31.5379, 124.927, -151.404, 124.158, 87.6889, 0, 0, 2.88988, -54.6118, 2.83371, -174.478, 2.85125, 64.615, 0.0919343, 145.028
1, 2100.00000, 122.499, -31.5379, 124.927, -151.404, 124.158, 87.6889, 0, 0, 2.88988, -54.6118, 2.83371, -174.478, 2.85125, 64.615, 0.0919344, 145.028
1, 2160.00000, 122.499, -31.5379, 124.927, -151.404, 124.158, 87.6889, 0, 0, 2.88988, -54.6118, 2.83371, -174.478, 2.85125, 64.615, 0.0919344, 145.028
1, 2220.00000, 122.613, -31.4042, 125.291, -151.377, 124.143, 87.6901, 0, 0, 2.88718, -54.4782, 2.82547, -174.451, 2.85161, 64.6162, 0.0993925, 151.917
1, 2280.00000, 122.613, -31.4042, 125.291, -151.377, 124.143, 87.6901, 0, 0, 2.88718, -54.4782, 2.82547, -174.451, 2.85161, 64.6162, 0.099393, 151.917
1, 2340.00000, 122.613, -31.4042, 125.291, -151.377, 124.143, 87.6901, 0, 0, 2.88718, -54.4782, 2.82547, -174.451, 2.85161, 64.6162, 0.099393, 151.917
1, 2400.00000, 122.613, -31.4042, 125.291, -151.377, 124.143, 87.6901, 0, 0, 2.88718, -54.4782, 2.82547, -174.451, 2.85161, 64.6162, 0.0993931, 151.917
1, 2460.00000, 122.613, -31.4042, 125.291, -151.377, 124.143, 87.6901, 0, 0, 2.88718, -54.4782, 2.82547, -174.451, 2.85161, 64.6162, 0.0993931, 151.917
1, 2520.00000, 122.613, -31.4042, 125.291, -151.377, 124.143, 87.6901, 0, 0, 2.88718, -54.4782, 2.82547, -174.451, 2.85161, 64.6162, 0.0993931, 151.917
1, 2580.00000, 122.613, -31.4042, 125.291, -151.377, 124.143, 87.6901, 0, 0, 2.88718, -54.4782, 2.82547, -174.451, 2.85161, 64.6162, 0.0993931, 151.917
1, 2640.00000, 122.613, -31.4042, 125.291, -151.377, 124.143, 87.6901, 0, 0, 2.88718, -54.4782, 2.82547, -174.451, 2.85161, 64.6162, 0.0993931, 151.917
1, 2700.00000, 122.613, -31.4042, 125.291, -151.377, 124.143, 87.6901, 0, 0, 2.88718, -54.4782, 2.82547, -174.451, 2.85161, 64.6162, 0.0993932, 151.917
1, 2760.00000, 122.613, -31.4042, 125.291, -151.377, 124.143, 87.6901, 0, 0, 2.88718, -54.4782, 2.82547, -174.451, 2.85161, 64.6162, 0.0993932, 151.917
1, 2820.00000, 122.613, -31.4042, 125.291, -151.377, 124.143, 87.6901, 0, 0, 2.88718, -54.4782, 2.82547, -174.451, 2.85161, 64.6162, 0.0993932, 151.917
1, 2880.00000, 122.613, -31.4042, 125.291, -151.377, 124.143, 87.6901, 0, 0, 2.88718, -54.4782, 2.82547, -174.451, 2.85161, 64.6162, 0.0993932, 151.917
1, 2940.00000, 122.613, -31.4042, 125.291, -151.377, 124.143, 87.6901, 0, 0, 2.88718, -54.4782, 2.82547, -174.451, 2.85161, 64.6162, 0.0993932, 151.917
1, 3000.00000, 122.613, -31.4042, 125.291, -151.377, 124.143, 87.6901, 0, 0, 2.88718, -54.4782, 2.82547, -174.451, 2.85161, 64.6162, 0.0993932, 151.917
1, 3060.00000, 122.613, -31.4042, 125.291, -151.377, 124.143, 87.6901, 0, 0, 2.88718, -54.4782, 2.82547, -174.451, 2.85161, 64.6162, 0.0993932, 151.917
1, 3120.00000, 122.613, -31.4042, 125.291, -151.377, 124.143, 87.6901, 0, 0, 2.88718, -54.4782, 2.82547, -174.451, 2.85161, 64.6162, 0.0993932, 151.917
1, 3180.00000, 122.613, -31.4042, 125.291, -151.377, 124.143, 87.6901, 0, 0, 2.88718, -54.4782, 2.82547, -174.451, 2.85161, 64.6162, 0.0993932, 151.917
1, 3240.00000, 122.613, -31.4042, 125.291, -151.377, 124.143, 87.6901, 0, 0, 2.88718, -54.4782, 2.82547, -174.451, 2.85161, 64.6162, 0.0993932, 151.917
1, 3300.00000, 122.613, -31.4042, 125.291, -151.377, 124.143, 87.6901, 0, 0, 2.88718, -54.4782, 2.82547, -174.451, 2.85161, 64.6162, 0.0993932, 151.917
1, 3360.00000, 122.613, -31.4042, 125.291, -151.377, 124.143, 87.6901, 0, 0, 2.88718, -54.4782, 2.82547, -174.451, 2.85161, 64.6162, 0.0993932, 151.917
1, 3420.00000, 122.613, -31.4042, 125.291, -151.377, 124.143, 87.6901, 0, 0, 2.88718, -54.4782, 2.82547, -174.451, 2.85161, 64.6162, 0.0993932, 151.917
1, 3480.00000, 122.613, -31.4042, 125.291, -151.377, 124.143, 87.6901, 0, 0, 2.88718, -54.4782, 2.82547, -174.451, 2.85161, 64.6162, 0.0993932, 151.917
1, 3540.00000, 122.613, -31.4042, 125.291, -151.377, 124.143, 87.6901, 0, 0, 2.88718, -54.4782, 2.82547, -174.451, 2.85161, 64.6162, 0.0993932, 151.917
2, 0.00000, 122.613, -31.4042, 125.291, -151.377, 124.143, 87.6901, 0, 0, 2.88718, -54.4782, 2.82547, -174.451, 2.85161, 64.6162, 0.0993932, 151.917
2, 60.00000, 122.613, -31.4042, 125.291, -151.377, 124.143, 87.6901, 0, 0, 2.88718, -54.4782, 2.82547, -174.451, 2.85161, 64.6162, 0.0993932, 151.917
2, 120.00000, 122.613, -31.4042, 125.291, -151.377, 124.143, 87.6901, 0, 0, 2.88718, -54.4782, 2.82547, -174.451, 2.85161, 64.6162, 0.0993932, 151.917
2, 180.00000, 122.613, -31.4042, 125.291, -151.377, 124.143, 87.6901, 0, 0, 2.88718, -54.4782, 2.82547, -174.451, 2.85161, 64.6162, 0.0993932, 151.917
2, 240.00000, 122.613, -31.4042, 125.291, -151.377, 124.143, 87.6901, 0, 0, 2.88718, -54.4782, 2.82547, -174.451, 2.85161, 64.6162, 0.0993932, 151.917
2, 300.00000, 122.613, -31.4042, 125.291, -151.377, 124.143, 87.6901, 0, 0, 2.88718, -54.4782, 2.82547, -174.451, 2.85161, 64.6162, 0.0993932, 151.917
2, 360.00000, 122.613, -31.4042, 125.291, -151.377, 124.143, 87.6901, 0, 0, 2.88718, -54.4782, 2.82547, -174.451, 2.85161, 64.6162, 0.0993933, 151.917
2, 420.00000, 122.613, -31.4042, 125.291, -151.377, 124.143, 87.6901, 0, 0, 2.88718, -54.4782, 2.82547, -174.451, 2.85161, 64.6162, 0.0993933, 151.917
2, 480.00000, 122.613, -31.4042, 125.291, -151.377, 124.143, 87.6901, 0, 0, 2.88718, -54.4782, 2.82547, -174.451, 2.85161, 64.6162, 0.0993933, 151.917
2, 540.00000, 122.613, -31.4042, 125.291, -151.377, 124.143, 87.6901, 0, 0, 2.88718, -54.4782, 2.82547, -174.451, 2.85161, 64.6162, 0.0993933, 151.917
2, 600.00000, 122.613, -31.4042, 125.291, -151.377, 124.143, 87.6901, 0, 0, 2.88718, -54.4782, 2.82547, -174.451, 2.85161, 64.6162, 0.0993933, 151.917
2, 660.00000, 122.613, -31.4042, 125.291, -151.377, 124.143, 87.6901, 0, 0, 2.88718, -54.4782, 2.82547, -174.451, 2.85161, 64.6162, 0.0993933, 151.917
2, 720.00000, 122.613, -31.4042, 125.291, -151.377, 124.143, 87.6901, 0, 0, 2.88718, -54.4782, 2.82547, -174.451, 2.85161, 64.6162, 0.0993933, 151.917
