hour,t(sec),V1,VAngle1,V2,VAngle2,V3,VAngle3,V4,VAngle4,I1,IAngle1,I2,IAngle2,I3,IAngle3,I4,IAngle4
0, 60.00000, 120.901, -31.1232, 121.417, -150.998, 121.747, 88.8271, 0, 0, 3.13697, -54.1967, 3.12363, -174.072, 3.11513, 65.7537, 0.0275027, 105.761
0, 120.00000, 120.901, -31.1232, 121.417, -150.998, 121.746, 88.8271, 0, 0, 3.137, -54.1971, 3.12368, -174.072, 3.11521, 65.7532, 0.0274856, 105.82
0, 180.00000, 120.901, -31.1232, 121.417, -150.998, 121.746, 88.8271, 0, 0, 3.137, -54.1971, 3.12368, -174.072, 3.11521, 65.7532, 0.0274856, 105.821
0, 240.00000, 120.901, -31.1232, 121.417, -150.998, 121.746, 88.8271, 0, 0, 3.137, -54.1971, 3.12368, -174.072, 3.11521, 65.7532, 0.0274856, 105.821
0, 300.00000, 120.901, -31.1232, 121.417, -150.998, 121.746, 88.8271, 0, 0, 3.137, -54.1971, 3.12368, -174.072, 3.11521, 65.7532, 0.0274856, 105.821
0, 360.00000, 120.901, -31.1232, 121.417, -150.998, 121.746, 88.8271, 0, 0, 3.137, -54.1971, 3.12368, -174.072, 3.11521, 65.7532, 0.0274856, 105.821
0, 420.00000, 120.901, -31.1232, 121.417, -150.998, 121.746, 88.8271, 0, 0, 3.137, -54.1971, 3.12368, -174.072, 3.11521, 65.7532, 0.0274856, 105.821
0, 480.00000, 120.901, -31.1232, 121.417, -150.998, 121.746, 88.8271, 0, 0, 3.137, -54.1971, 3.12368, -174.072, 3.11521, 65.7532, 0.0274856, 105.821
0, 540.00000, 120.901, -31.1232, 121.417, -150.998, 121.746, 88.8271, 0, 0, 3.137, -54.1971, 3.12368, -174.072, 3.11521, 65.7532, 0.0274856, 105.821
0, 600.00000, 120.901, -31.1232, 121.417, -150.998, 121.746, 88.8271, 0, 0, 3.137, -54.1971, 3.12368, -174.072, 3.11521, 65.7532, 0.0274856, 105.821
0, 660.00000, 120.901, -31.1232, 121.417, -150.998, 121.746, 88.8271, 0, 0, 3.137, -54.1971, 3.12368, -174.072, 3.11521, 65.7532, 0.0274856, 105.821
0, 720.00000, 120.901, -31.1232, 121.417, -150.998, 121.746, 88.8271, 0, 0, 3.137, -54.1971, 3.12368, -174.072, 3.11521, 65.7532, 0.0274856, 105.821
0, 780.00000, 120.901, -31.1232, 121.417, -150.998, 121.746, 88.8271, 0, 0, 3.137, -54.1971, 3.12368, -174.072, 3.11521, 65.7532, 0.0274856, 105.821
0, 840.00000, 120.901, -31.1232, 121.417, -150.998, 121.746, 88.8271, 0, 0, 3.137, -54.1971, 3.12368, -174.072, 3.11521, 65.7532, 0.0274856, 105.821
0, 900.00000, 120.901, -31.1232, 121.417, -150.998, 121.746, 88.8271, 0, 0, 3.137, -54.1971, 3.12368, -174.072, 3.11521, 65.7532, 0.0274856, 105.821
0, 960.00000, 120.379, -31.343, 120.702, -150.979, 121.619, 88.7887, 0, 0, 3.06787, -54.4166, 3.075, -174.053, 3.05186, 65.7149, 0.0366256, 60.3309
0, 1020.00000, 120.379, -31.343, 120.702, -150.979, 121.618, 88.7887, 0, 0, 3.06784, -54.4169, 3.07503, -174.053, 3.05186, 65.7148, 0.0366468, 60.2438
0, 1080.00000, 120.379, -31.343, 120.702, -150.979, 121.618, 88.7887, 0, 0, 3.06784, -54.4169, 3.07503, -174.053, 3.05186, 65.7148, 0.0366468, 60.2436
0, 1140.00000, 120.379, -31.343, 120.702, -150.979, 121.618, 88.7887, 0, 0, 3.06784, -54.4169, 3.07503, -174.053, 3.05186, 65.7148, 0.0366468, 60.2436
0, 1200.00000, 120.379, -31.343, 120.702, -150.979, 121.618, 88.7887, 0, 0, 3.06784, -54.4169, 3.07503, -174.053, 3.05186, 65.7148, 0.0366468, 60.2436
0, 1260.00000, 120.379, -31.343, 120.702, -150.979, 121.618, 88.7887, 0, 0, 3.06784, -54.4169, 3.07503, -174.053, 3.05186, 65.7148, 0.0366468, 60.2436
0, 1320.00000, 120.379, -31.343, 120.702, -150.979, 121.618, 88.7887, 0, 0, 3.06784, -54.4169, 3.07503, -174.053, 3.05186, 65.7148, 0.0366468, 60.2436
0, 1380.00000, 120.379, -31.343, 120.702, -150.979, 121.618, 88.7887, 0, 0, 3.06784, -54.4169, 3.07503, -174.053, 3.05186, 65.7148, 0.0366468, 60.2436
0, 1440.00000, 120.379, -31.343, 120.702, -150.979, 121.618, 88.7887, 0, 0, 3.06784, -54.4169, 3.07503, -174.053, 3.05186, 65.7148, 0.0366468, 60.2436
0, 1500.00000, 120.379, -31.343, 120.702, -150.979, 121.618, 88.7887, 0, 0, 3.06784, -54.4169, 3.07503, -174.053, 3.05186, 65.7148, 0.0366468, 60.2436
0, 1560.00000, 120.379, -31.343, 120.702, -150.979, 121.618, 88.7887, 0, 0, 3.06784, -54.4169, 3.07503, -174.053, 3.05186, 65.7148, 0.0366468, 60.2436
0, 1620.00000, 120.379, -31.343, 120.702, -150.979, 121.618, 88.7887, 0, 0, 3.06784, -54.4169, 3.07503, -174.053, 3.05186, 65.7148, 0.0366468, 60.2436
0, 1680.00000, 120.379, -31.343, 120.702, -150.979, 121.618, 88.7887, 0, 0, 3.06784, -54.4169, 3.07503, -174.053, 3.05186, 65.7148, 0.0366468, 60.2436
0, 1740.00000, 120.379, -31.343, 120.702, -150.979, 121.618, 88.7887, 0, 0, 3.06784, -54.4169, 3.07503, -174.053, 3.05186, 65.7148, 0.0366468, 60.2436
0, 1800.00000, 120.379, -31.343, 120.702, -150.979, 121.618, 88.7887, 0, 0, 3.06784, -54.4169, 3.07503, -174.053, 3.05186, 65.7148, 0.0366468, 60.2436
0, 1860.00000, 120.543, -31.3275, 120.86, -150.964, 121.778, 88.8074, 0, 0, 2.9051, -54.4017, 2.90382, -174.038, 2.882, 65.732, 0.038561, 71.0227
0, 1920.00000, 120.543, -31.3275, 120.86, -150.964, 121.779, 88.8075, 0, 0, 2.9051, -54.4014, 2.90372, -174.038, 2.88182, 65.7336, 0.0386922, 71.0396
0, 1980.00000, 120.543, -31.3275, 120.86, -150.964, 121.779, 88.8075, 0, 0, 2.9051, -54.4014, 2.90372, -174.038, 2.88182, 65.7336, 0.0386927, 71.0395
0, 2040.00000, 120.543, -31.3275, 120.86, -150.964, 121.779, 88.8075, 0, 0, 2.9051, -54.4014, 2.90372, -174.038, 2.88182, 65.7336, 0.0386927, 71.0395
0, 2100.00000, 120.543, -31.3275, 120.86, -150.964, 121.779, 88.8075, 0, 0, 2.9051, -54.4014, 2.90372, -174.038, 2.88182, 65.7336, 0.0386927, 71.0395
0, 2160.00000, 120.543, -31.3275, 120.86, -150.964, 121.779, 88.8075, 0, 0, 2.9051, -54.4014, 2.90372, -174.038, 2.88182, 65.7336, 0.0386927, 71.0395
0, 2220.00000, 120.543, -31.3275, 120.86, -150.964, 121.779, 88.8075, 0, 0, 2.9051, -54.4014, 2.90372, -174.038, 2.88182, 65.7336, 0.0386927, 71.0395
0, 2280.00000, 120.543, -31.3275, 120.86, -150.964, 121.779, 88.8075, 0, 0, 2.9051, -54.4014, 2.90372, -174.038, 2.88182, 65.7336, 0.0386927, 71.0395
0, 2340.00000, 120.543, -31.3275, 120.86, -150.964, 121.779, 88.8075, 0, 0, 2.9051, -54.4014, 2.90372, -174.038, 2.88182, 65.7336, 0.0386927, 71.0395
0, 2400.00000, 120.543, -31.3275, 120.86, -150.964, 121.779, 88.8075, 0, 0, 2.9051, -54.4014, 2.90372, -174.038, 2.88182, 65.7336, 0.0386927, 71.0395
0, 2460.00000, 120.543, -31.3275, 120.86, -150.964, 121.779, 88.8075, 0, 0, 2.9051, -54.4014, 2.90372, -174.038, 2.88182, 65.7336, 0.0386927, 71.0395
0, 2520.00000, 120.543, -31.3275, 120.86, -150.964, 121.779, 88.8075, 0, 0, 2.9051, -54.4014, 2.90372, -174.038, 2.88182, 65.7336, 0.0386927, 71.0395
0, 2580.00000, 120.543, -31.3275, 120.86, -150.964, 121.779, 88.8075, 0, 0, 2.9051, -54.4014, 2.90372, -174.038, 2.88182, 65.7336, 0.0386927, 71.0395
0, 2640.00000, 120.543, -31.3275, 120.86, -150.964, 121.779, 88.8075, 0, 0, 2.9051, -54.4014, 2.90372, -174.038, 2.88182, 65.7336, 0.0386927, 71.0395
0, 2700.00000, 120.543, -31.3275, 120.86, -150.964, 121.779, 88.8075, 0, 0, 2.9051, -54.4014, 2.90372, -174.038, 2.88182, 65.7336, 0.0386927, 71.0395
0, 2760.00000, 120.813, -31.2902, 121.12, -150.929, 122.045, 88.8504, 0, 0, 2.84337, -54.3644, 2.83615, -174.003, 2.81471, 65.7762, 0.0413848, 77.2715
0, 2820.00000, 120.813, -31.2902, 121.12, -150.929, 122.045, 88.8504, 0, 0, 2.84337, -54.3641, 2.83614, -174.003, 2.81466, 65.7765, 0.0414085, 77.2517
0, 2880.00000, 120.813, -31.2902, 121.12, -150.929, 122.045, 88.8504, 0, 0, 2.84337, -54.3641, 2.83614, -174.003, 2.81466, 65.7765, 0.0414089, 77.2513
0, 2940.00000, 120.813, -31.2902, 121.12, -150.929, 122.045, 88.8504, 0, 0, 2.84337, -54.3641, 2.83614, -174.003, 2.81466, 65.7765, 0.0414089, 77.2513
0, 3000.00000, 120.813, -31.2902, 121.12, -150.929, 122.045, 88.8504, 0, 0, 2.84337, -54.3641, 2.83614, -174.003, 2.81466, 65.7765, 0.0414089, 77.2513
0, 3060.00000, 120.813, -31.2902, 121.12, -150.929, 122.045, 88.8504, 0, 0, 2.84337, -54.3641, 2.83614, -174.003, 2.81466, 65.7765, 0.0414089, 77.2513
0, 3120.00000, 120.813, -31.2902, 121.12, -150.929, 122.045, 88.8504, 0, 0, 2.84337, -54.3641, 2.83614, -174.003, 2.81466, 65.7765, 0.0414089, 77.2513
0, 3180.00000, 120.813, -31.2902, 121.12, -150.929, 122.045, 88.8504, 0, 0, 2.84337, -54.3641, 2.83614, -174.003, 2.81466, 65.7765, 0.0414089, 77.2513
0, 3240.00000, 120.813, -31.2902, 121.12, -150.929, 122.045, 88.8504, 0, 0, 2.84337, -54.3641, 2.83614, -174.003, 2.81466, 65.7765, 0.0414089, 77.2513
0, 3300.00000, 120.813, -31.2902, 121.12, -150.929, 122.045, 88.8504, 0, 0, 2.84337, -54.3641, 2.83614, -174.003, 2.81466, 65.7765, 0.0414089, 77.2513
0, 3360.00000, 120.813, -31.2902, 121.12, -150.929, 122.045, 88.8504, 0, 0, 2.84337, -54.3641, 2.83614, -174.003, 2.81466, 65.7765, 0.0414089, 77.2513
0, 3420.00000, 120.813, -31.2902, 121.12, -150.929, 122.045, 88.8504, 0, 0, 2.84337, -54.3641, 2.83614, -174.003, 2.81466, 65.7765, 0.0414089, 77.2513
0, 3480.00000, 120.813, -31.2902, 121.12, -150.929, 122.045, 88.8504, 0, 0, 2.84337, -54.3641, 2.83614, -174.003, 2.81466, 65.7765, 0.0414089, 77.2513
0, 3540.00000, 120.813, -31.2902, 121.12, -150.929, 122.045, 88.8504, 0, 0, 2.84337, -54.3641, 2.83614, -174.003, 2.81466, 65.7765, 0.0414089, 77.2513
1, 0.00000, 120.813, -31.2902, 121.12, -150.929, 122.045, 88.8504, 0, 0, 2.84337, -54.3641, 2.83614, -174.003, 2.81466, 65.7765, 0.0414089, 77.2513
1, 60.00000, 121.023, -31.2637, 121.318, -150.905, 122.251, 88.8802, 0, 0, 2.60548, -54.3379, 2.59915, -173.979, 2.57936, 65.806, 0.0377441, 76.6492
1, 120.00000, 121.023, -31.2637, 121.318, -150.905, 122.251, 88.8802, 0, 0, 2.60548, -54.3376, 2.59915, -173.979, 2.57931, 65.8063, 0.0377705, 76.6236
1, 180.00000, 121.023, -31.2637, 121.318, -150.905, 122.251, 88.8802, 0, 0, 2.60548, -54.3376, 2.59915, -173.979, 2.57931, 65.8063, 0.037771, 76.6231
1, 240.00000, 121.023, -31.2637, 121.318, -150.905, 122.251, 88.8802, 0, 0, 2.60548, -54.3376, 2.59915, -173.979, 2.57931, 65.8063, 0.037771, 76.6231
1, 300.00000, 121.023, -31.2637, 121.318, -150.905, 122.251, 88.8802, 0, 0, 2.60548, -54.3376, 2.59915, -173.979, 2.57931, 65.8063, 0.037771, 76.6231
1, 360.00000, 121.023, -31.2637, 121.318, -150.905, 122.251, 88.8802, 0, 0, 2.60548, -54.3376, 2.59915, -173.979, 2.57931, 65.8063, 0.037771, 76.6231
1, 420.00000, 121.023, -31.2637, 121.318, -150.905, 122.251, 88.8802, 0, 0, 2.60548, -54.3376, 2.59915, -173.979, 2.57931, 65.8063, 0.037771, 76.6231
1, 480.00000, 121.023, -31.2637, 121.318, -150.905, 122.251, 88.8802, 0, 0, 2.60548, -54.3376, 2.59915, -173.979, 2.57931, 65.8063, 0.037771, 76.6231
1, 540.00000, 121.023, -31.2637, 121.318, -150.905, 122.251, 88.8802, 0, 0, 2.60548, -54.3376, 2.59915, -173.979, 2.57931, 65.8063, 0.037771, 76.6231
1, 600.00000, 121.023, -31.2637, 121.318, -150.905, 122.251, 88.8802, 0, 0, 2.60548, -54.3376, 2.59915, -173.979, 2.57931, 65.8063, 0.037771, 76.6231
1, 660.00000, 121.023, -31.2637, 121.318, -150.905, 122.251, 88.8802, 0, 0, 2.60548, -54.3376, 2.59915, -173.979, 2.57931, 65.8063, 0.037771, 76.6231
1, 720.00000, 121.023, -31.2637, 121.318, -150.905, 122.251, 88.8802, 0, 0, 2.60548, -54.3376, 2.59915, -173.979, 2.57931, 65.8063, 0.037771, 76.6231
1, 780.00000, 121.023, -31.2637, 121.318, -150.905, 122.251, 88.8802, 0, 0, 2.60548, -54.3376, 2.59915, -173.979, 2.57931, 65.8063, 0.037771, 76.6231
1, 840.00000, 121.023, -31.2637, 121.318, -150.905, 122.251, 88.8802, 0, 0, 2.60548, -54.3376, 2.59915, -173.979, 2.57931, 65.8063, 0.037771, 76.6231
1, 900.00000, 121.023, -31.2637, 121.318, -150.905, 122.251, 88.8802, 0, 0, 2.60548, -54.3376, 2.59915, -173.979, 2.57931, 65.8063, 0.037771, 76.6231
1, 960.00000, 121.06, -31.2602, 121.353, -150.902, 122.288, 88.8841, 0, 0, 2.63198, -54.3345, 2.62564, -173.976, 2.6056, 65.8098, 0.0380983, 76.5455
1, 1020.00000, 121.06, -31.2602, 121.353, -150.902, 122.289, 88.8842, 0, 0, 2.63196, -54.3341, 2.62561, -173.976, 2.60552, 65.8103, 0.0381376, 76.5108
1, 1080.00000, 121.06, -31.2602, 121.353, -150.902, 122.289, 88.8842, 0, 0, 2.63196, -54.3341, 2.62561, -173.976, 2.60552, 65.8103, 0.0381384, 76.5102
1, 1140.00000, 121.06, -31.2602, 121.353, -150.902, 122.289, 88.8842, 0, 0, 2.63196, -54.3341, 2.62561, -173.976, 2.60552, 65.8103, 0.0381384, 76.5102
1, 1200.00000, 121.06, -31.2602, 121.353, -150.902, 122.289, 88.8842, 0, 0, 2.63196, -54.3341, 2.62561, -173.976, 2.60552, 65.8103, 0.0381384, 76.5102
1, 1260.00000, 121.06, -31.2602, 121.353, -150.902, 122.289, 88.8842, 0, 0, 2.63196, -54.3341, 2.62561, -173.976, 2.60552, 65.8103, 0.0381384, 76.5102
1, 1320.00000, 121.06, -31.2602, 121.353, -150.902, 122.289, 88.8842, 0, 0, 2.63196, -54.3341, 2.62561, -173.976, 2.60552, 65.8103, 0.0381384, 76.5102
1, 1380.00000, 121.06, -31.2602, 121.353, -150.902, 122.289, 88.8842, 0, 0, 2.63196, -54.3341, 2.62561, -173.976, 2.60552, 65.8103, 0.0381384, 76.5102
1, 1440.00000, 121.06, -31.2602, 121.353, -150.902, 122.289, 88.8842, 0, 0, 2.63196, -54.3341, 2.62561, -173.976, 2.60552, 65.8103, 0.0381384, 76.5102
1, 1500.00000, 121.06, -31.2602, 121.353, -150.902, 122.289, 88.8842, 0, 0, 2.63196, -54.3341, 2.62561, -173.976, 2.60552, 65.8103, 0.0381384, 76.5102
1, 1560.00000, 121.06, -31.2602, 121.353, -150.902, 122.289, 88.8842, 0, 0, 2.63196, -54.3341, 2.62561, -173.976, 2.60552, 65.8103, 0.0381384, 76.5102
1, 1620.00000, 121.06, -31.2602, 121.353, -150.902, 122.289, 88.8842, 0, 0, 2.63196, -54.3341, 2.62561, -173.976, 2.60552, 65.8103, 0.0381384, 76.5102
1, 1680.00000, 121.06, -31.2602, 121.353, -150.902, 122.289, 88.8842, 0, 0, 2.63196, -54.3341, 2.62561, -173.976, 2.60552, 65.8103, 0.0381384, 76.5102
1, 1740.00000, 121.06, -31.2602, 121.353, -150.902, 122.289, 88.8842, 0, 0, 2.63196, -54.3341, 2.62561, -173.976, 2.60552, 65.8103, 0.0381384, 76.5102
1, 1800.00000, 121.06, -31.2602, 121.353, -150.902, 122.289, 88.8842, 0, 0, 2.63196, -54.3341, 2.62561, -173.976, 2.60552, 65.8103, 0.0381384, 76.5102
1, 1860.00000, 120.892, -31.2869, 121.194, -150.926, 122.121, 88.8547, 0, 0, 2.80406, -54.3606, 2.79707, -174, 2.77581, 65.781, 0.0407627, 77.0062
1, 1920.00000, 120.892, -31.287, 121.194, -150.926, 122.121, 88.8547, 0, 0, 2.80407, -54.3609, 2.79707, -174, 2.77585, 65.7808, 0.0407417, 77.029
1, 1980.00000, 120.892, -31.287, 121.194, -150.926, 122.121, 88.8547, 0, 0, 2.80407, -54.3609, 2.79707, -174, 2.77585, 65.7808, 0.0407414, 77.0294
1, 2040.00000, 120.892, -31.287, 121.194, -150.926, 122.121, 88.8547, 0, 0, 2.80407, -54.3609, 2.79707, -174, 2.77585, 65.7808, 0.0407414, 77.0294
1, 2100.00000, 120.892, -31.287, 121.194, -150.926, 122.121, 88.8547, 0, 0, 2.80407, -54.3609, 2.79707, -174, 2.77585, 65.7808, 0.0407414, 77.0294
1, 2160.00000, 120.892, -31.287, 121.194, -150.926, 122.121, 88.8547, 0, 0, 2.80407, -54.3609, 2.79707, -174, 2.77585, 65.7808, 0.0407414, 77.0294
1, 2220.00000, 120.892, -31.287, 121.194, -150.926, 122.121, 88.8547, 0, 0, 2.80407, -54.3609, 2.79707, -174, 2.77585, 65.7808, 0.0407414, 77.0294
1, 2280.00000, 120.892, -31.287, 121.194, -150.926, 122.121, 88.8547, 0, 0, 2.80407, -54.3609, 2.79707, -174, 2.77585, 65.7808, 0.0407414, 77.0294
1, 2340.00000, 120.892, -31.287, 121.194, -150.926, 122.121, 88.8547, 0, 0, 2.80407, -54.3609, 2.79707, -174, 2.77585, 65.7808, 0.0407414, 77.0294
1, 2400.00000, 120.892, -31.287, 121.194, -150.926, 122.121, 88.8547, 0, 0, 2.80407, -54.3609, 2.79707, -174, 2.77585, 65.7808, 0.0407414, 77.0294
1, 2460.00000, 120.892, -31.287, 121.194, -150.926, 122.121, 88.8547, 0, 0, 2.80407, -54.3609, 2.79707, -174, 2.77585, 65.7808, 0.0407414, 77.0294
1, 2520.00000, 120.892, -31.287, 121.194, -150.926, 122.121, 88.8547, 0, 0, 2.80407, -54.3609, 2.79707, -174, 2.77585, 65.7808, 0.0407414, 77.0294
1, 2580.00000, 120.892, -31.287, 121.194, -150.926, 122.121, 88.8547, 0, 0, 2.80407, -54.3609, 2.79707, -174, 2.77585, 65.7808, 0.0407414, 77.0294
1, 2640.00000, 120.892, -31.287, 121.194, -150.926, 122.121, 88.8547, 0, 0, 2.80407, -54.3609, 2.79707, -174, 2.77585, 65.7808, 0.0407414, 77.0294
1, 2700.00000, 120.859, -31.282, 120.814, -151.134, 121.504, 88.8868, 0, 0, 2.80483, -54.3558, 2.80586, -174.209, 2.78989, 65.8133, 0.0223946, 51.3759
1, 2760.00000, 121.241, -31.2326, 121.167, -151.088, 121.858, 88.9416, 0, 0, 2.63941, -54.3067, 2.64102, -174.162, 2.62604, 65.8676, 0.02086, 48.9086
1, 2820.00000, 121.241, -31.2326, 121.167, -151.088, 121.858, 88.9417, 0, 0, 2.63939, -54.3065, 2.64101, -174.162, 2.62602, 65.8677, 0.0208645, 48.8761
1, 2880.00000, 121.241, -31.2326, 121.167, -151.088, 121.858, 88.9417, 0, 0, 2.63939, -54.3065, 2.64101, -174.162, 2.62602, 65.8677, 0.0208645, 48.876
1, 2940.00000, 121.241, -31.2326, 121.167, -151.088, 121.858, 88.9417, 0, 0, 2.63939, -54.3065, 2.64101, -174.162, 2.62602, 65.8677, 0.0208645, 48.8759
1, 3000.00000, 121.241, -31.2326, 121.167, -151.088, 121.858, 88.9417, 0, 0, 2.63939, -54.3065, 2.64101, -174.162, 2.62602, 65.8677, 0.0208645, 48.8759
1, 3060.00000, 121.241, -31.2326, 121.167, -151.088, 121.858, 88.9417, 0, 0, 2.63939, -54.3065, 2.64101, -174.162, 2.62602, 65.8677, 0.0208645, 48.8759
1, 3120.00000, 121.241, -31.2326, 121.167, -151.088, 121.858, 88.9417, 0, 0, 2.63939, -54.3065, 2.64101, -174.162, 2.62602, 65.8677, 0.0208645, 48.8759
1, 3180.00000, 121.241, -31.2326, 121.167, -151.088, 121.858, 88.9417, 0, 0, 2.63939, -54.3065, 2.64101, -174.162, 2.62602, 65.8677, 0.0208645, 48.8759
1, 3240.00000, 121.241, -31.2326, 121.167, -151.088, 121.858, 88.9417, 0, 0, 2.63939, -54.3065, 2.64101, -174.162, 2.62602, 65.8677, 0.0208645, 48.8759
1, 3300.00000, 121.241, -31.2326, 121.167, -151.088, 121.858, 88.9417, 0, 0, 2.63939, -54.3065, 2.64101, -174.162, 2.62602, 65.8677, 0.0208645, 48.8759
1, 3360.00000, 121.241, -31.2326, 121.167, -151.088, 121.858, 88.9417, 0, 0, 2.63939, -54.3065, 2.64101, -174.162, 2.62602, 65.8677, 0.0208645, 48.8759
1, 3420.00000, 121.241, -31.2326, 121.167, -151.088, 121.858, 88.9417, 0, 0, 2.63939, -54.3065, 2.64101, -174.162, 2.62602, 65.8677, 0.0208645, 48.8759
1, 3480.00000, 121.241, -31.2326, 121.167, -151.088, 121.858, 88.9417, 0, 0, 2.63939, -54.3065, 2.64101, -174.162, 2.62602, 65.8677, 0.0208645, 48.8759
1, 3540.00000, 121.241, -31.2326, 121.167, -151.088, 121.858, 88.9417, 0, 0, 2.63939, -54.3065, 2.64101, -174.162, 2.62602, 65.8677, 0.0208645, 48.8759
2, 0.00000, 121.241, -31.2326, 121.167, -151.088, 121.858, 88.9417, 0, 0, 2.63939, -54.3065, 2.64101, -174.162, 2.62602, 65.8677, 0.0208645, 48.8759
2, 60.00000, 121.015, -31.2631, 120.957, -151.117, 121.648, 88.9078, 0, 0, 2.81394, -54.3369, 2.81529, -174.191, 2.79929, 65.8339, 0.0223541, 50.3337
2, 120.00000, 121.015, -31.2631, 120.957, -151.117, 121.648, 88.9077, 0, 0, 2.81396, -54.337, 2.8153, -174.191, 2.79931, 65.8338, 0.0223509, 50.3538
2, 180.00000, 121.015, -31.2631, 120.957, -151.117, 121.648, 88.9077, 0, 0, 2.81396, -54.337, 2.8153, -174.191, 2.79931, 65.8338, 0.0223508, 50.3539
2, 240.00000, 121.015, -31.2631, 120.957, -151.117, 121.648, 88.9077, 0, 0, 2.81396, -54.337, 2.8153, -174.191, 2.79931, 65.8338, 0.0223508, 50.3539
2, 300.00000, 121.015, -31.2631, 120.957, -151.117, 121.648, 88.9077, 0, 0, 2.81396, -54.337, 2.8153, -174.191, 2.79931, 65.8338, 0.0223508, 50.3539
2, 360.00000, 121.015, -31.2631, 120.957, -151.117, 121.648, 88.9077, 0, 0, 2.81396, -54.337, 2.8153, -174.191, 2.79931, 65.8338, 0.0223508, 50.3539
2, 420.00000, 121.015, -31.2631, 120.957, -151.117, 121.648, 88.9077, 0, 0, 2.81396, -54.337, 2.8153, -174.191, 2.79931, 65.8338, 0.0223508, 50.3539
2, 480.00000, 121.015, -31.2631, 120.957, -151.117, 121.648, 88.9077, 0, 0, 2.81396, -54.337, 2.8153, -174.191, 2.79931, 65.8338, 0.0223508, 50.3539
2, 540.00000, 121.39, -31.0698, 121.518, -151.164, 121.619, 88.9132, 0, 0, 2.80528, -54.1437, 2.80235, -174.238, 2.79995, 65.8393, 0.0010728, 163.058
2, 600.00000, 121.39, -31.0698, 121.518, -151.164, 121.619, 88.9132, 0, 0, 2.80525, -54.1437, 2.80231, -174.238, 2.79997, 65.8393, 0.00109863, 164.438
2, 660.00000, 121.39, -31.0698, 121.518, -151.164, 121.619, 88.9132, 0, 0, 2.80525, -54.1437, 2.80231, -174.238, 2.79997, 65.8393, 0.00109878, 164.447
2, 720.00000, 121.39, -31.0698, 121.518, -151.164, 121.619, 88.9132, 0, 0, 2.80525, -54.1437, 2.80231, -174.238, 2.79997, 65.8393, 0.00109878, 164.447
