hour,t(sec),V1,VAngle1,V2,VAngle2,V3,VAngle3,V4,VAngle4,I1,IAngle1,I2,IAngle2,I3,IAngle3,I4,IAngle4
0, 60.00000, 116.107, -33.1756, 115.336, -151.552, 119.344, 87.9558, 0, 0, 3.59419, -56.2493, 3.56752, -174.625, 3.70556, 64.8831, 0.0371729, -118.806
0, 120.00000, 116.103, -33.1987, 115.335, -151.552, 119.384, 87.9426, 0, 0, 3.59407, -56.2724, 3.56749, -174.625, 3.70695, 64.8697, 0.0374174, -118.83
0, 180.00000, 116.1, -33.2195, 115.334, -151.552, 119.42, 87.9306, 0, 0, 3.59395, -56.2932, 3.56746, -174.626, 3.7082, 64.8577, 0.0376372, -118.852
0, 240.00000, 116.098, -33.2382, 115.333, -151.552, 119.453, 87.9199, 0, 0, 3.59385, -56.3119, 3.56743, -174.626, 3.70933, 64.8468, 0.0378349, -118.872
0, 300.00000, 116.095, -33.255, 115.332, -151.552, 119.482, 87.9102, 0, 0, 3.59376, -56.3288, 3.56741, -174.626, 3.71035, 64.837, 0.0380128, -118.889
0, 360.00000, 116.093, -33.2702, 115.332, -151.552, 119.509, 87.9014, 0, 0, 3.59367, -56.344, 3.56739, -174.626, 3.71126, 64.8282, 0.038177, -118.902
0, 420.00000, 116.091, -33.2838, 115.331, -151.552, 119.533, 87.8936, 0, 0, 3.59359, -56.3576, 3.56737, -174.626, 3.7121, 64.8203, 0.0383355, -118.91
0, 480.00000, 117.214, -33.2201, 116.391, -151.49, 120.721, 87.9906, 0, 0, 2.88855, -56.2939, 2.86597, -174.564, 2.98181, 64.9172, 0.0296324, -118.054
0, 540.00000, 117.212, -33.2312, 116.391, -151.491, 120.742, 87.9842, 0, 0, 2.88849, -56.305, 2.86596, -174.564, 2.98128, 64.9108, 0.0286794, -118.147
0, 600.00000, 117.21, -33.2411, 116.391, -151.491, 120.762, 87.9785, 0, 0, 2.88843, -56.3149, 2.86595, -174.565, 2.9808, 64.9051, 0.0278154, -118.228
0, 660.00000, 117.208, -33.25, 116.39, -151.491, 120.779, 87.9734, 0, 0, 2.88838, -56.3238, 2.86594, -174.565, 2.98036, 64.8999, 0.027038, -118.305
0, 720.00000, 117.206, -33.258, 116.39, -151.492, 120.795, 87.9687, 0, 0, 2.88833, -56.3319, 2.86593, -174.565, 2.97996, 64.8952, 0.0263386, -118.377
0, 780.00000, 117.205, -33.2652, 116.39, -151.492, 120.809, 87.9646, 0, 0, 2.88829, -56.3391, 2.86592, -174.566, 2.97961, 64.891, 0.0257094, -118.446
0, 840.00000, 117.204, -33.2717, 116.389, -151.492, 120.822, 87.9608, 0, 0, 2.88825, -56.3456, 2.86591, -174.566, 2.97929, 64.8872, 0.0251432, -118.511
0, 900.00000, 117.203, -33.2776, 116.389, -151.492, 120.833, 87.9574, 0, 0, 2.88822, -56.3515, 2.86591, -174.566, 2.979, 64.8838, 0.0246338, -118.571
0, 960.00000, 115.872, -33.8168, 114.815, -151.193, 120.906, 87.926, 0, 0, 2.85176, -56.8907, 2.82276, -174.266, 2.9772, 64.8524, 0.0281676, -120.432
0, 1020.00000, 115.871, -33.8215, 114.815, -151.193, 120.916, 87.9233, 0, 0, 2.85174, -56.8954, 2.82276, -174.267, 2.97697, 64.8496, 0.0277597, -120.503
0, 1080.00000, 115.87, -33.8258, 114.814, -151.193, 120.924, 87.9208, 0, 0, 2.85171, -56.8997, 2.82276, -174.267, 2.97676, 64.8471, 0.0273921, -120.567
0, 1140.00000, 115.989, -33.6834, 115.134, -151.167, 120.924, 87.924, 0, 0, 2.85495, -56.7574, 2.83151, -174.241, 2.97675, 64.8503, 0.026095, -119.613
0, 1200.00000, 115.988, -33.6869, 115.134, -151.168, 120.931, 87.922, 0, 0, 2.85493, -56.7608, 2.83151, -174.241, 2.97658, 64.8483, 0.0257964, -119.659
0, 1260.00000, 115.988, -33.69, 115.134, -151.168, 120.937, 87.9202, 0, 0, 2.85491, -56.7639, 2.83151, -174.241, 2.97643, 64.8465, 0.0255278, -119.7
0, 1320.00000, 115.987, -33.6928, 115.134, -151.168, 120.943, 87.9186, 0, 0, 2.8549, -56.7667, 2.83151, -174.242, 2.97629, 64.8448, 0.0252861, -119.739
0, 1380.00000, 115.987, -33.6953, 115.134, -151.168, 120.948, 87.9171, 0, 0, 2.85488, -56.7693, 2.83151, -174.242, 2.97617, 64.8434, 0.0250686, -119.774
0, 1440.00000, 115.986, -33.6976, 115.134, -151.168, 120.952, 87.9158, 0, 0, 2.85487, -56.7715, 2.8315, -174.242, 2.97606, 64.842, 0.0248729, -119.806
0, 1500.00000, 115.986, -33.6997, 115.134, -151.168, 120.956, 87.9146, 0, 0, 2.85486, -56.7736, 2.8315, -174.242, 2.97596, 64.8408, 0.0246967, -119.835
0, 1560.00000, 115.985, -33.7015, 115.134, -151.168, 120.96, 87.9136, 0, 0, 2.85485, -56.7754, 2.8315, -174.242, 2.97587, 64.8397, 0.0245382, -119.861
0, 1620.00000, 115.985, -33.7032, 115.133, -151.168, 120.963, 87.9126, 0, 0, 2.85484, -56.7771, 2.8315, -174.242, 2.97579, 64.8388, 0.0243956, -119.886
0, 1680.00000, 115.985, -33.7047, 115.133, -151.168, 120.966, 87.9117, 0, 0, 2.85483, -56.7786, 2.8315, -174.242, 2.97572, 64.8379, 0.0242672, -119.908
0, 1740.00000, 115.984, -33.706, 115.133, -151.168, 120.968, 87.911, 0, 0, 2.85482, -56.7799, 2.8315, -174.242, 2.97565, 64.8371, 0.0241517, -119.928
0, 1800.00000, 115.096, -33.5501, 115.146, -151.154, 120.103, 87.6318, 0, 0, 2.83048, -56.624, 2.83184, -174.228, 2.96765, 64.5579, 0.0345735, -114.892
0, 1860.00000, 115.096, -33.5511, 115.146, -151.154, 120.105, 87.6311, 0, 0, 2.83047, -56.6251, 2.83184, -174.228, 2.96771, 64.5573, 0.034586, -114.893
0, 1920.00000, 115.096, -33.5521, 115.146, -151.154, 120.107, 87.6306, 0, 0, 2.83047, -56.626, 2.83184, -174.228, 2.96776, 64.5567, 0.0345978, -114.893
0, 1980.00000, 115.096, -33.553, 115.146, -151.154, 120.108, 87.6301, 0, 0, 2.83046, -56.6269, 2.83184, -174.228, 2.9678, 64.5562, 0.0346084, -114.894
0, 2040.00000, 115.095, -33.5538, 115.146, -151.154, 120.11, 87.6296, 0, 0, 2.83046, -56.6277, 2.83184, -174.228, 2.96784, 64.5557, 0.0346179, -114.894
0, 2100.00000, 115.095, -33.5545, 115.146, -151.154, 120.111, 87.6292, 0, 0, 2.83046, -56.6284, 2.83184, -174.228, 2.96788, 64.5553, 0.0346265, -114.895
0, 2160.00000, 115.095, -33.5551, 115.146, -151.154, 120.112, 87.6289, 0, 0, 2.83045, -56.629, 2.83184, -174.228, 2.96791, 64.555, 0.0346342, -114.895
0, 2220.00000, 115.095, -33.5557, 115.146, -151.154, 120.113, 87.6285, 0, 0, 2.83045, -56.6296, 2.83184, -174.228, 2.96794, 64.5546, 0.0346412, -114.896
0, 2280.00000, 115.095, -33.5562, 115.146, -151.154, 120.114, 87.6282, 0, 0, 2.83045, -56.6301, 2.83184, -174.228, 2.96797, 64.5543, 0.0346475, -114.896
0, 2340.00000, 115.095, -33.5567, 115.146, -151.154, 120.115, 87.628, 0, 0, 2.83044, -56.6306, 2.83184, -174.228, 2.96799, 64.5541, 0.0346531, -114.896
0, 2400.00000, 115.095, -33.5571, 115.146, -151.154, 120.116, 87.6277, 0, 0, 2.83044, -56.631, 2.83184, -174.228, 2.96801, 64.5538, 0.0346582, -114.897
0, 2460.00000, 115.095, -33.5575, 115.146, -151.154, 120.116, 87.6275, 0, 0, 2.83044, -56.6314, 2.83184, -174.228, 2.96803, 64.5536, 0.0346627, -114.897
0, 2520.00000, 115.095, -33.5578, 115.146, -151.154, 120.117, 87.6273, 0, 0, 2.83044, -56.6317, 2.83184, -174.228, 2.96805, 64.5534, 0.0346669, -114.897
0, 2580.00000, 115.095, -33.5581, 115.146, -151.154, 120.118, 87.6272, 0, 0, 2.83044, -56.632, 2.83184, -174.228, 2.96806, 64.5532, 0.0346706, -114.897
0, 2640.00000, 115.095, -33.5584, 115.146, -151.154, 120.118, 87.627, 0, 0, 2.83044, -56.6323, 2.83184, -174.228, 2.96808, 64.5531, 0.0346739, -114.897
0, 2700.00000, 115.095, -33.5586, 115.146, -151.154, 120.119, 87.6269, 0, 0, 2.83043, -56.6326, 2.83184, -174.228, 2.96809, 64.5529, 0.0346769, -114.897
0, 2760.00000, 115.504, -33.545, 115.142, -151.156, 120.346, 87.7941, 0, 0, 2.84166, -56.6189, 2.83174, -174.23, 2.97432, 64.7201, 0.035804, -116.992
0, 2820.00000, 115.504, -33.5452, 115.142, -151.156, 120.346, 87.7939, 0, 0, 2.84166, -56.6191, 2.83174, -174.23, 2.97433, 64.72, 0.0358101, -116.991
0, 2880.00000, 115.504, -33.5454, 115.142, -151.156, 120.347, 87.7938, 0, 0, 2.84166, -56.6193, 2.83174, -174.23, 2.97434, 64.7199, 0.0358124, -116.991
0, 2940.00000, 115.504, -33.5455, 115.142, -151.156, 120.347, 87.7937, 0, 0, 2.84166, -56.6195, 2.83174, -174.23, 2.97435, 64.7198, 0.0358144, -116.991
0, 3000.00000, 115.504, -33.5457, 115.142, -151.156, 120.347, 87.7937, 0, 0, 2.84166, -56.6196, 2.83174, -174.23, 2.97435, 64.7197, 0.0358163, -116.991
0, 3060.00000, 115.504, -33.5458, 115.142, -151.156, 120.347, 87.7936, 0, 0, 2.84166, -56.6197, 2.83174, -174.23, 2.97436, 64.7197, 0.0358179, -116.991
0, 3120.00000, 115.504, -33.5459, 115.142, -151.156, 120.348, 87.7935, 0, 0, 2.84166, -56.6199, 2.83174, -174.23, 2.97437, 64.7196, 0.0358194, -116.991
0, 3180.00000, 115.504, -33.546, 115.142, -151.156, 120.348, 87.7935, 0, 0, 2.84166, -56.62, 2.83174, -174.23, 2.97437, 64.7195, 0.0358207, -116.991
0, 3240.00000, 115.504, -33.5461, 115.142, -151.156, 120.348, 87.7934, 0, 0, 2.84165, -56.6201, 2.83174, -174.23, 2.97438, 64.7195, 0.0358219, -116.991
0, 3300.00000, 115.504, -33.5462, 115.142, -151.156, 120.348, 87.7934, 0, 0, 2.84165, -56.6201, 2.83174, -174.23, 2.97438, 64.7194, 0.035823, -116.991
0, 3360.00000, 115.504, -33.5463, 115.142, -151.156, 120.348, 87.7933, 0, 0, 2.84165, -56.6202, 2.83174, -174.23, 2.97439, 64.7194, 0.035824, -116.991
0, 3420.00000, 115.504, -33.5464, 115.142, -151.156, 120.348, 87.7933, 0, 0, 2.84165, -56.6203, 2.83174, -174.23, 2.97439, 64.7194, 0.0358248, -116.991
0, 3480.00000, 115.504, -33.5464, 115.142, -151.156, 120.349, 87.7932, 0, 0, 2.84165, -56.6204, 2.83174, -174.23, 2.97439, 64.7193, 0.0358256, -116.991
0, 3540.00000, 115.504, -33.5465, 115.142, -151.156, 120.349, 87.7932, 0, 0, 2.84165, -56.6204, 2.83174, -174.23, 2.97439, 64.7193, 0.0358263, -116.991
1, 0.00000, 115.504, -33.5465, 115.142, -151.156, 120.349, 87.7932, 0, 0, 2.84165, -56.6205, 2.83174, -174.23, 2.9744, 64.7193, 0.035827, -116.991
1, 60.00000, 115.619, -33.4044, 115.454, -151.133, 120.343, 87.7982, 0, 0, 2.8448, -56.4783, 2.84027, -174.207, 2.97424, 64.7243, 0.0346586, -116.029
1, 120.00000, 115.619, -33.4045, 115.454, -151.133, 120.343, 87.7981, 0, 0, 2.8448, -56.4784, 2.84027, -174.207, 2.97424, 64.7242, 0.0346591, -116.029
1, 180.00000, 115.619, -33.4045, 115.454, -151.133, 120.343, 87.7981, 0, 0, 2.8448, -56.4784, 2.84027, -174.207, 2.97424, 64.7242, 0.0346595, -116.029
1, 240.00000, 115.619, -33.4045, 115.454, -151.133, 120.343, 87.7981, 0, 0, 2.8448, -56.4784, 2.84027, -174.207, 2.97424, 64.7242, 0.0346599, -116.029
1, 300.00000, 115.619, -33.4046, 115.454, -151.133, 120.343, 87.7981, 0, 0, 2.8448, -56.4785, 2.84027, -174.207, 2.97424, 64.7242, 0.0346603, -116.029
1, 360.00000, 115.619, -33.4046, 115.454, -151.133, 120.343, 87.7981, 0, 0, 2.8448, -56.4785, 2.84027, -174.207, 2.97424, 64.7242, 0.0346607, -116.029
1, 420.00000, 115.619, -33.4046, 115.454, -151.133, 120.343, 87.7981, 0, 0, 2.8448, -56.4785, 2.84027, -174.207, 2.97425, 64.7241, 0.034661, -116.029
1, 480.00000, 115.619, -33.4046, 115.454, -151.133, 120.343, 87.798, 0, 0, 2.8448, -56.4785, 2.84027, -174.207, 2.97425, 64.7241, 0.0346612, -116.029
1, 540.00000, 115.619, -33.4046, 115.454, -151.133, 120.343, 87.798, 0, 0, 2.8448, -56.4786, 2.84027, -174.207, 2.97425, 64.7241, 0.0346615, -116.029
1, 600.00000, 115.619, -33.4047, 115.454, -151.133, 120.343, 87.798, 0, 0, 2.8448, -56.4786, 2.84027, -174.207, 2.97425, 64.7241, 0.0346617, -116.029
1, 660.00000, 115.619, -33.4047, 115.454, -151.133, 120.343, 87.798, 0, 0, 2.8448, -56.4786, 2.84027, -174.207, 2.97425, 64.7241, 0.0346619, -116.029
1, 720.00000, 115.619, -33.4047, 115.454, -151.133, 120.343, 87.798, 0, 0, 2.8448, -56.4786, 2.84027, -174.207, 2.97425, 64.7241, 0.0346621, -116.029
1, 780.00000, 115.629, -33.4096, 115.73, -150.957, 120.911, 87.7828, 0, 0, 2.84507, -56.4836, 2.84783, -174.031, 2.97706, 64.7089, 0.0257618, -113.904
1, 840.00000, 115.629, -33.4096, 115.73, -150.957, 120.911, 87.7828, 0, 0, 2.84507, -56.4836, 2.84783, -174.031, 2.97706, 64.7089, 0.0257595, -113.902
1, 900.00000, 115.629, -33.4096, 115.73, -150.957, 120.911, 87.7828, 0, 0, 2.84507, -56.4836, 2.84783, -174.031, 2.97706, 64.7089, 0.0257586, -113.902
1, 960.00000, 115.629, -33.4097, 115.73, -150.957, 120.911, 87.7828, 0, 0, 2.84507, -56.4836, 2.84783, -174.031, 2.97706, 64.7089, 0.0257578, -113.902
1, 1020.00000, 115.629, -33.4097, 115.73, -150.957, 120.911, 87.7828, 0, 0, 2.84507, -56.4836, 2.84783, -174.031, 2.97706, 64.7089, 0.0257571, -113.902
1, 1080.00000, 115.629, -33.4097, 115.73, -150.957, 120.911, 87.7828, 0, 0, 2.84507, -56.4836, 2.84783, -174.031, 2.97706, 64.7089, 0.0257564, -113.902
1, 1140.00000, 115.629, -33.4097, 115.73, -150.957, 120.911, 87.7828, 0, 0, 2.84507, -56.4836, 2.84783, -174.031, 2.97705, 64.7089, 0.0257558, -113.902
1, 1200.00000, 115.629, -33.4097, 115.73, -150.957, 120.911, 87.7828, 0, 0, 2.84507, -56.4836, 2.84783, -174.031, 2.97705, 64.7089, 0.0257553, -113.902
1, 1260.00000, 115.629, -33.4097, 115.73, -150.957, 120.911, 87.7828, 0, 0, 2.84507, -56.4836, 2.84783, -174.031, 2.97705, 64.7089, 0.0257548, -113.902
1, 1320.00000, 115.629, -33.4097, 115.73, -150.957, 120.911, 87.7828, 0, 0, 2.84507, -56.4836, 2.84783, -174.031, 2.97705, 64.7089, 0.0257543, -113.902
1, 1380.00000, 115.629, -33.4097, 115.73, -150.957, 120.911, 87.7828, 0, 0, 2.84507, -56.4836, 2.84783, -174.031, 2.97705, 64.7089, 0.0257539, -113.902
1, 1440.00000, 115.629, -33.4097, 115.73, -150.957, 120.911, 87.7828, 0, 0, 2.84507, -56.4836, 2.84783, -174.031, 2.97705, 64.7089, 0.0257536, -113.902
1, 1500.00000, 115.629, -33.4097, 115.73, -150.957, 120.911, 87.7828, 0, 0, 2.84507, -56.4836, 2.84783, -174.031, 2.97705, 64.7089, 0.0257533, -113.902
1, 1560.00000, 115.629, -33.4097, 115.73, -150.957, 120.911, 87.7828, 0, 0, 2.84507, -56.4836, 2.84783, -174.031, 2.97705, 64.7089, 0.025753, -113.902
1, 1620.00000, 115.629, -33.4097, 115.73, -150.957, 120.911, 87.7828, 0, 0, 2.84507, -56.4836, 2.84783, -174.031, 2.97705, 64.7089, 0.0257527, -113.902
1, 1680.00000, 115.629, -33.4097, 115.73, -150.957, 120.911, 87.7828, 0, 0, 2.84507, -56.4836, 2.84783, -174.031, 2.97705, 64.7089, 0.0257525, -113.902
1, 1740.00000, 115.629, -33.4097, 115.73, -150.957, 120.911, 87.7828, 0, 0, 2.84507, -56.4836, 2.84783, -174.031, 2.97705, 64.7089, 0.0257523, -113.902
1, 1800.00000, 115.629, -33.4097, 115.73, -150.957, 120.911, 87.7828, 0, 0, 2.84507, -56.4836, 2.84783, -174.031, 2.97705, 64.7089, 0.0257521, -113.902
1, 1860.00000, 115.629, -33.4097, 115.73, -150.957, 120.911, 87.7828, 0, 0, 2.84507, -56.4836, 2.84783, -174.031, 2.97705, 64.7088, 0.0257519, -113.902
1, 1920.00000, 115.629, -33.4097, 115.73, -150.957, 120.911, 87.7828, 0, 0, 2.84507, -56.4836, 2.84783, -174.031, 2.97705, 64.7088, 0.0257518, -113.902
1, 1980.00000, 115.629, -33.4097, 115.73, -150.957, 120.911, 87.7828, 0, 0, 2.84507, -56.4836, 2.84783, -174.031, 2.97705, 64.7088, 0.0257517, -113.902
1, 2040.00000, 115.629, -33.4097, 115.73, -150.957, 120.911, 87.7828, 0, 0, 2.84507, -56.4837, 2.84783, -174.031, 2.97705, 64.7088, 0.0257515, -113.902
1, 2100.00000, 115.629, -33.4097, 115.73, -150.957, 120.911, 87.7828, 0, 0, 2.84507, -56.4837, 2.84783, -174.031, 2.97705, 64.7088, 0.0257514, -113.902
1, 2160.00000, 115.629, -33.4097, 115.73, -150.957, 120.911, 87.7828, 0, 0, 2.84507, -56.4837, 2.84783, -174.031, 2.97705, 64.7088, 0.0257513, -113.902
1, 2220.00000, 116.508, -33.5627, 115.714, -150.976, 121.815, 88.0601, 0, 0, 2.86916, -56.6366, 2.84741, -174.05, 2.95498, 64.9862, 0.0144659, 70.983
1, 2280.00000, 116.508, -33.5627, 115.714, -150.976, 121.815, 88.0601, 0, 0, 2.86916, -56.6366, 2.84741, -174.05, 2.95497, 64.9862, 0.0144674, 70.9787
1, 2340.00000, 116.508, -33.5627, 115.714, -150.976, 121.815, 88.0601, 0, 0, 2.86916, -56.6366, 2.84741, -174.05, 2.95497, 64.9862, 0.0144675, 70.9787
1, 2400.00000, 116.508, -33.5627, 115.714, -150.976, 121.815, 88.0601, 0, 0, 2.86916, -56.6366, 2.84741, -174.05, 2.95497, 64.9862, 0.0144675, 70.9786
1, 2460.00000, 116.508, -33.5627, 115.714, -150.976, 121.815, 88.0601, 0, 0, 2.86916, -56.6366, 2.84741, -174.05, 2.95497, 64.9862, 0.0144676, 70.9786
1, 2520.00000, 116.508, -33.5627, 115.714, -150.976, 121.815, 88.0601, 0, 0, 2.86916, -56.6366, 2.84741, -174.05, 2.95497, 64.9862, 0.0144677, 70.9786
1, 2580.00000, 116.508, -33.5627, 115.714, -150.976, 121.815, 88.0601, 0, 0, 2.86916, -56.6366, 2.84741, -174.05, 2.95497, 64.9862, 0.0144677, 70.9786
1, 2640.00000, 116.508, -33.5627, 115.714, -150.976, 121.815, 88.0601, 0, 0, 2.86916, -56.6366, 2.84741, -174.05, 2.95497, 64.9862, 0.0144677, 70.9785
1, 2700.00000, 116.508, -33.5627, 115.714, -150.976, 121.815, 88.0601, 0, 0, 2.86916, -56.6366, 2.84741, -174.05, 2.95497, 64.9862, 0.0144678, 70.9785
1, 2760.00000, 116.508, -33.5627, 115.714, -150.976, 121.815, 88.0601, 0, 0, 2.86916, -56.6366, 2.84741, -174.05, 2.95497, 64.9862, 0.0144678, 70.9785
1, 2820.00000, 116.508, -33.5627, 115.714, -150.976, 121.815, 88.0601, 0, 0, 2.86916, -56.6366, 2.84741, -174.05, 2.95497, 64.9862, 0.0144678, 70.9785
1, 2880.00000, 116.508, -33.5627, 115.714, -150.976, 121.815, 88.0601, 0, 0, 2.86916, -56.6366, 2.84741, -174.05, 2.95497, 64.9862, 0.0144679, 70.9785
1, 2940.00000, 116.508, -33.5627, 115.714, -150.976, 121.815, 88.0601, 0, 0, 2.86916, -56.6366, 2.84741, -174.05, 2.95497, 64.9862, 0.0144679, 70.9785
1, 3000.00000, 116.508, -33.5627, 115.714, -150.976, 121.815, 88.0601, 0, 0, 2.86916, -56.6366, 2.84741, -174.05, 2.95497, 64.9862, 0.0144679, 70.9785
1, 3060.00000, 116.508, -33.5627, 115.714, -150.976, 121.815, 88.0601, 0, 0, 2.86916, -56.6366, 2.84741, -174.05, 2.95497, 64.9862, 0.0144679, 70.9784
1, 3120.00000, 116.508, -33.5627, 115.714, -150.976, 121.815, 88.0601, 0, 0, 2.86916, -56.6366, 2.84741, -174.05, 2.95497, 64.9862, 0.014468, 70.9784
1, 3180.00000, 116.508, -33.5627, 115.714, -150.976, 121.815, 88.0601, 0, 0, 2.86916, -56.6366, 2.84741, -174.05, 2.95497, 64.9862, 0.014468, 70.9784
1, 3240.00000, 116.508, -33.5627, 115.714, -150.976, 121.815, 88.0601, 0, 0, 2.86916, -56.6366, 2.84741, -174.05, 2.95497, 64.9862, 0.014468, 70.9784
1, 3300.00000, 116.508, -33.5627, 115.714, -150.976, 121.815, 88.0601, 0, 0, 2.86916, -56.6366, 2.84741, -174.05, 2.95497, 64.9862, 0.014468, 70.9784
1, 3360.00000, 116.508, -33.5627, 115.714, -150.976, 121.815, 88.0601, 0, 0, 2.86916, -56.6366, 2.84741, -174.05, 2.95497, 64.9862, 0.014468, 70.9784
1, 3420.00000, 116.508, -33.5627, 115.714, -150.976, 121.815, 88.0601, 0, 0, 2.86916, -56.6366, 2.84741, -174.05, 2.95497, 64.9862, 0.014468, 70.9784
1, 3480.00000, 116.508, -33.5627, 115.714, -150.976, 121.815, 88.0601, 0, 0, 2.86916, -56.6366, 2.84741, -174.05, 2.95497, 64.9862, 0.014468, 70.9784
1, 3540.00000, 116.508, -33.5627, 115.714, -150.976, 121.815, 88.0601, 0, 0, 2.86916, -56.6366, 2.84741, -174.05, 2.95497, 64.9862, 0.014468, 70.9784
2, 0.00000, 116.508, -33.5627, 115.714, -150.976, 121.815, 88.0601, 0, 0, 2.86916, -56.6366, 2.84741, -174.05, 2.95497, 64.9862, 0.0144681, 70.9784
2, 60.00000, 116.508, -33.5627, 115.714, -150.976, 121.815, 88.0601, 0, 0, 2.86916, -56.6366, 2.84741, -174.05, 2.95497, 64.9862, 0.0144681, 70.9784
2, 120.00000, 116.508, -33.5627, 115.714, -150.976, 121.815, 88.0601, 0, 0, 2.86916, -56.6366, 2.84741, -174.05, 2.95497, 64.9862, 0.0144681, 70.9784
2, 180.00000, 116.508, -33.5627, 115.714, -150.976, 121.815, 88.0601, 0, 0, 2.86916, -56.6366, 2.84741, -174.05, 2.95497, 64.9862, 0.0144681, 70.9784
2, 240.00000, 116.508, -33.5627, 115.714, -150.976, 121.815, 88.0601, 0, 0, 2.86916, -56.6366, 2.84741, -174.05, 2.95497, 64.9862, 0.0144681, 70.9784
2, 300.00000, 116.508, -33.5627, 115.714, -150.976, 121.815, 88.0601, 0, 0, 2.86916, -56.6366, 2.84741, -174.05, 2.95497, 64.9862, 0.0144681, 70.9784
2, 360.00000, 116.508, -33.5627, 115.714, -150.976, 121.815, 88.0601, 0, 0, 2.86916, -56.6366, 2.84741, -174.05, 2.95497, 64.9862, 0.0144681, 70.9784
2, 420.00000, 116.508, -33.5627, 115.714, -150.976, 121.815, 88.0601, 0, 0, 2.86916, -56.6366, 2.84741, -174.05, 2.95497, 64.9862, 0.0144681, 70.9784
2, 480.00000, 116.508, -33.5627, 115.714, -150.976, 121.815, 88.0601, 0, 0, 2.86916, -56.6366, 2.84741, -174.05, 2.95497, 64.9862, 0.0144681, 70.9784
2, 540.00000, 116.508, -33.5627, 115.714, -150.976, 121.815, 88.0601, 0, 0, 2.86916, -56.6366, 2.84741, -174.05, 2.95497, 64.9862, 0.0144681, 70.9784
2, 600.00000, 116.508, -33.5627, 115.714, -150.976, 121.815, 88.0601, 0, 0, 2.86916, -56.6366, 2.84741, -174.05, 2.95497, 64.9862, 0.0144681, 70.9784
2, 660.00000, 116.508, -33.5627, 115.714, -150.976, 121.815, 88.0601, 0, 0, 2.86916, -56.6366, 2.84741, -174.05, 2.95497, 64.9862, 0.0144681, 70.9784
