hour,t(sec),"P1 (kW)","Q1 (kvar)","P2 (kW)","Q2 (kvar)","P3 (kW)","Q3 (kvar)","P4 (kW)","Q4 (kvar)"
0, 60.00000, 0.766806, 0.326658, 0.788766, 0.336008, 0.807154, 0.343837, 0, 0
0, 120.00000, 0.76684, 0.326673, 0.788762, 0.336006, 0.807598, 0.344027, 0, 0
0, 180.00000, 0.766867, 0.326686, 0.788759, 0.336002, 0.80768, 0.344063, 0, 0
0, 240.00000, 0.766889, 0.326695, 0.788756, 0.336001, 0.80768, 0.344064, 0, 0
0, 300.00000, 0.766907, 0.326703, 0.788752, 0.336, 0.807677, 0.344064, 0, 0
0, 360.00000, 0.766923, 0.326709, 0.788749, 0.335999, 0.807674, 0.344063, 0, 0
0, 420.00000, 0.766937, 0.326715, 0.788746, 0.335998, 0.807672, 0.344062, 0, 0
0, 480.00000, 0.679462, 0.28945, 0.698637, 0.297613, 0.702676, 0.299335, 0, 0
0, 540.00000, 0.679472, 0.289454, 0.698635, 0.297613, 0.702674, 0.299334, 0, 0
0, 600.00000, 0.679481, 0.289458, 0.698633, 0.297613, 0.702672, 0.299334, 0, 0
0, 660.00000, 0.679489, 0.289461, 0.698631, 0.297612, 0.702671, 0.299333, 0, 0
0, 720.00000, 0.679496, 0.289464, 0.69863, 0.297612, 0.702669, 0.299333, 0, 0
0, 780.00000, 0.679502, 0.289467, 0.698628, 0.297612, 0.702668, 0.299333, 0, 0
0, 840.00000, 0.679508, 0.289469, 0.698627, 0.297611, 0.702667, 0.299333, 0, 0
0, 900.00000, 0.679513, 0.289471, 0.698626, 0.297611, 0.702666, 0.299332, 0, 0
0, 960.00000, 0.679518, 0.289473, 0.698625, 0.297611, 0.702665, 0.299332, 0, 0
0, 1020.00000, 0.679522, 0.289475, 0.698624, 0.297611, 0.702664, 0.299332, 0, 0
0, 1080.00000, 0.679525, 0.289477, 0.698623, 0.297611, 0.702664, 0.299332, 0, 0
0, 1140.00000, 0.679528, 0.289478, 0.698623, 0.297611, 0.702663, 0.299332, 0, 0
0, 1200.00000, 0.679531, 0.289479, 0.698622, 0.29761, 0.702662, 0.299332, 0, 0
0, 1260.00000, 0.679534, 0.28948, 0.698621, 0.29761, 0.702662, 0.299332, 0, 0
0, 1320.00000, 0.679536, 0.289481, 0.698621, 0.29761, 0.702661, 0.299332, 0, 0
0, 1380.00000, 0.679539, 0.289482, 0.69862, 0.29761, 0.702661, 0.299331, 0, 0
0, 1440.00000, 0.67954, 0.289483, 0.69862, 0.29761, 0.702661, 0.299331, 0, 0
0, 1500.00000, 0.679542, 0.289484, 0.69862, 0.29761, 0.70266, 0.299331, 0, 0
0, 1560.00000, 0.679544, 0.289484, 0.698619, 0.29761, 0.70266, 0.299331, 0, 0
0, 1620.00000, 0.679545, 0.289485, 0.698619, 0.29761, 0.70266, 0.299331, 0, 0
0, 1680.00000, 0.679546, 0.289485, 0.698619, 0.29761, 0.702659, 0.299331, 0, 0
0, 1740.00000, 0.679547, 0.289486, 0.698618, 0.29761, 0.702659, 0.299331, 0, 0
0, 1800.00000, 0.679548, 0.289486, 0.698618, 0.29761, 0.702659, 0.299331, 0, 0
0, 1860.00000, 0.679549, 0.289487, 0.698618, 0.29761, 0.702659, 0.299331, 0, 0
0, 1920.00000, 0.67955, 0.289487, 0.698618, 0.29761, 0.702659, 0.299331, 0, 0
0, 1980.00000, 0.679551, 0.289487, 0.698618, 0.29761, 0.702658, 0.299331, 0, 0
0, 2040.00000, 0.679551, 0.289488, 0.698617, 0.297609, 0.702658, 0.299331, 0, 0
0, 2100.00000, 0.679552, 0.289488, 0.698617, 0.297609, 0.702658, 0.299331, 0, 0
0, 2160.00000, 0.679553, 0.289488, 0.698617, 0.297609, 0.702658, 0.299331, 0, 0
0, 2220.00000, 0.679553, 0.289488, 0.698617, 0.297609, 0.702658, 0.299331, 0, 0
0, 2280.00000, 0.679554, 0.289489, 0.698617, 0.297609, 0.702658, 0.299331, 0, 0
0, 2340.00000, 0.679554, 0.289489, 0.698617, 0.297609, 0.702658, 0.299331, 0, 0
0, 2400.00000, 0.679554, 0.289489, 0.698617, 0.297609, 0.702658, 0.299331, 0, 0
0, 2460.00000, 0.679555, 0.289489, 0.698617, 0.297609, 0.702658, 0.299331, 0, 0
0, 2520.00000, 0.679555, 0.289489, 0.698617, 0.297609, 0.702658, 0.299331, 0, 0
0, 2580.00000, 0.679555, 0.289489, 0.698617, 0.297609, 0.702658, 0.299331, 0, 0
0, 2640.00000, 0.679555, 0.289489, 0.698617, 0.297609, 0.702658, 0.299331, 0, 0
0, 2700.00000, 0.679556, 0.289489, 0.698617, 0.297609, 0.702658, 0.299331, 0, 0
0, 2760.00000, 0.679556, 0.28949, 0.698616, 0.297609, 0.702657, 0.299331, 0, 0
0, 2820.00000, 0.679556, 0.28949, 0.698616, 0.297609, 0.702657, 0.299331, 0, 0
0, 2880.00000, 0.679556, 0.28949, 0.698616, 0.297609, 0.702657, 0.299331, 0, 0
0, 2940.00000, 0.679556, 0.28949, 0.698616, 0.297609, 0.702657, 0.299331, 0, 0
0, 3000.00000, 0.679556, 0.28949, 0.698616, 0.297609, 0.702657, 0.299331, 0, 0
0, 3060.00000, 0.679556, 0.28949, 0.698616, 0.297609, 0.702657, 0.299331, 0, 0
0, 3120.00000, 0.679556, 0.28949, 0.698616, 0.297609, 0.702657, 0.299331, 0, 0
0, 3180.00000, 0.679557, 0.28949, 0.698616, 0.297609, 0.702657, 0.299331, 0, 0
0, 3240.00000, 0.679557, 0.28949, 0.698616, 0.297609, 0.702657, 0.299331, 0, 0
0, 3300.00000, 0.679557, 0.28949, 0.698616, 0.297609, 0.702657, 0.299331, 0, 0
0, 3360.00000, 0.679557, 0.28949, 0.698616, 0.297609, 0.702657, 0.299331, 0, 0
0, 3420.00000, 0.679557, 0.28949, 0.698616, 0.297609, 0.702657, 0.299331, 0, 0
0, 3480.00000, 0.679557, 0.28949, 0.698616, 0.297609, 0.702657, 0.299331, 0, 0
0, 3540.00000, 0.679557, 0.28949, 0.698616, 0.297609, 0.702657, 0.299331, 0, 0
1, 0.00000, 0.679557, 0.28949, 0.698616, 0.297609, 0.702657, 0.299331, 0, 0
1, 60.00000, 0.679557, 0.28949, 0.698616, 0.297609, 0.702657, 0.299331, 0, 0
1, 120.00000, 0.679557, 0.28949, 0.698616, 0.297609, 0.702657, 0.299331, 0, 0
1, 180.00000, 0.679557, 0.28949, 0.698616, 0.297609, 0.702657, 0.299331, 0, 0
1, 240.00000, 0.679557, 0.28949, 0.698616, 0.297609, 0.702657, 0.299331, 0, 0
1, 300.00000, 0.679557, 0.28949, 0.698616, 0.297609, 0.702657, 0.299331, 0, 0
1, 360.00000, 0.679557, 0.28949, 0.698616, 0.297609, 0.702657, 0.299331, 0, 0
1, 420.00000, 0.679557, 0.28949, 0.698616, 0.297609, 0.702657, 0.299331, 0, 0
1, 480.00000, 0.679557, 0.28949, 0.698616, 0.297609, 0.702657, 0.299331, 0, 0
1, 540.00000, 0.679557, 0.28949, 0.698616, 0.297609, 0.702657, 0.299331, 0, 0
1, 600.00000, 0.679557, 0.28949, 0.698616, 0.297609, 0.702657, 0.299331, 0, 0
1, 660.00000, 0.679557, 0.28949, 0.698616, 0.297609, 0.702657, 0.299331, 0, 0
1, 720.00000, 0.679557, 0.28949, 0.698616, 0.297609, 0.702657, 0.299331, 0, 0
1, 780.00000, 0.679557, 0.28949, 0.698616, 0.297609, 0.702657, 0.299331, 0, 0
1, 840.00000, 0.679557, 0.28949, 0.698616, 0.297609, 0.702657, 0.299331, 0, 0
1, 900.00000, 0.679557, 0.28949, 0.698616, 0.297609, 0.702657, 0.299331, 0, 0
1, 960.00000, 0.679557, 0.28949, 0.698616, 0.297609, 0.702657, 0.299331, 0, 0
1, 1020.00000, 0.679557, 0.28949, 0.698616, 0.297609, 0.702657, 0.299331, 0, 0
1, 1080.00000, 0.679557, 0.28949, 0.698616, 0.297609, 0.702657, 0.299331, 0, 0
1, 1140.00000, 0.679557, 0.28949, 0.698616, 0.297609, 0.702657, 0.299331, 0, 0
1, 1200.00000, 0.679557, 0.28949, 0.698616, 0.297609, 0.702657, 0.299331, 0, 0
1, 1260.00000, 0.679557, 0.28949, 0.698616, 0.297609, 0.702657, 0.299331, 0, 0
1, 1320.00000, 0.679557, 0.28949, 0.698616, 0.297609, 0.702657, 0.299331, 0, 0
1, 1380.00000, 0.679557, 0.28949, 0.698616, 0.297609, 0.702657, 0.299331, 0, 0
1, 1440.00000, 0.679557, 0.28949, 0.698616, 0.297609, 0.702657, 0.299331, 0, 0
1, 1500.00000, 0.679557, 0.28949, 0.698616, 0.297609, 0.702657, 0.299331, 0, 0
1, 1560.00000, 0.679557, 0.28949, 0.698616, 0.297609, 0.702657, 0.299331, 0, 0
1, 1620.00000, 0.679557, 0.28949, 0.698616, 0.297609, 0.702657, 0.299331, 0, 0
1, 1680.00000, 0.679557, 0.28949, 0.698616, 0.297609, 0.702657, 0.299331, 0, 0
1, 1740.00000, 0.679557, 0.28949, 0.698616, 0.297609, 0.702657, 0.299331, 0, 0
1, 1800.00000, 0.679557, 0.28949, 0.698616, 0.297609, 0.702657, 0.299331, 0, 0
1, 1860.00000, 0.679557, 0.28949, 0.698616, 0.297609, 0.702657, 0.299331, 0, 0
1, 1920.00000, 0.679557, 0.28949, 0.698616, 0.297609, 0.702657, 0.299331, 0, 0
1, 1980.00000, 0.679557, 0.28949, 0.698616, 0.297609, 0.702657, 0.299331, 0, 0
1, 2040.00000, 0.679557, 0.28949, 0.698616, 0.297609, 0.702657, 0.299331, 0, 0
1, 2100.00000, 0.679557, 0.28949, 0.698616, 0.297609, 0.702657, 0.299331, 0, 0
1, 2160.00000, 0.679557, 0.28949, 0.698616, 0.297609, 0.702657, 0.299331, 0, 0
1, 2220.00000, 0.679557, 0.28949, 0.698616, 0.297609, 0.702657, 0.299331, 0, 0
1, 2280.00000, 0.679557, 0.28949, 0.698616, 0.297609, 0.702657, 0.299331, 0, 0
1, 2340.00000, 0.679557, 0.28949, 0.698616, 0.297609, 0.702657, 0.299331, 0, 0
1, 2400.00000, 0.679557, 0.28949, 0.698616, 0.297609, 0.702657, 0.299331, 0, 0
1, 2460.00000, 0.679557, 0.28949, 0.698616, 0.297609, 0.702657, 0.299331, 0, 0
1, 2520.00000, 0.679557, 0.28949, 0.698616, 0.297609, 0.702657, 0.299331, 0, 0
1, 2580.00000, 0.679557, 0.28949, 0.698616, 0.297609, 0.702657, 0.299331, 0, 0
1, 2640.00000, 0.679557, 0.28949, 0.698616, 0.297609, 0.702657, 0.299331, 0, 0
1, 2700.00000, 0.679557, 0.28949, 0.698616, 0.297609, 0.702657, 0.299331, 0, 0
1, 2760.00000, 0.679557, 0.28949, 0.698616, 0.297609, 0.702657, 0.299331, 0, 0
1, 2820.00000, 0.679557, 0.28949, 0.698616, 0.297609, 0.702657, 0.299331, 0, 0
1, 2880.00000, 0.679557, 0.28949, 0.698616, 0.297609, 0.702657, 0.299331, 0, 0
1, 2940.00000, 0.679557, 0.28949, 0.698616, 0.297609, 0.702657, 0.299331, 0, 0
1, 3000.00000, 0.679557, 0.28949, 0.698616, 0.297609, 0.702657, 0.299331, 0, 0
1, 3060.00000, 0.679557, 0.28949, 0.698616, 0.297609, 0.702657, 0.299331, 0, 0
1, 3120.00000, 0.679557, 0.28949, 0.698616, 0.297609, 0.702657, 0.299331, 0, 0
1, 3180.00000, 0.679557, 0.28949, 0.698616, 0.297609, 0.702657, 0.299331, 0, 0
1, 3240.00000, 0.679557, 0.28949, 0.698616, 0.297609, 0.702657, 0.299331, 0, 0
1, 3300.00000, 0.679557, 0.28949, 0.698616, 0.297609, 0.702657, 0.299331, 0, 0
1, 3360.00000, 0.679557, 0.28949, 0.698616, 0.297609, 0.702657, 0.299331, 0, 0
1, 3420.00000, 0.679557, 0.28949, 0.698616, 0.297609, 0.702657, 0.299331, 0, 0
1, 3480.00000, 0.679557, 0.28949, 0.698616, 0.297609, 0.702657, 0.299331, 0, 0
1, 3540.00000, 0.679557, 0.28949, 0.698616, 0.297609, 0.702657, 0.299331, 0, 0
2, 0.00000, 0.679557, 0.28949, 0.698616, 0.297609, 0.702657, 0.299331, 0, 0
2, 60.00000, 0.679557, 0.28949, 0.698616, 0.297609, 0.702657, 0.299331, 0, 0
2, 120.00000, 0.679557, 0.28949, 0.698616, 0.297609, 0.702657, 0.299331, 0, 0
2, 180.00000, 0.679557, 0.28949, 0.698616, 0.297609, 0.702657, 0.299331, 0, 0
2, 240.00000, 0.679557, 0.28949, 0.698616, 0.297609, 0.702657, 0.299331, 0, 0
2, 300.00000, 0.679557, 0.28949, 0.698616, 0.297609, 0.702657, 0.299331, 0, 0
2, 360.00000, 0.679557, 0.28949, 0.698616, 0.297609, 0.702657, 0.299331, 0, 0
2, 420.00000, 0.679557, 0.28949, 0.698616, 0.297609, 0.702657, 0.299331, 0, 0
2, 480.00000, 0.679557, 0.28949, 0.698616, 0.297609, 0.702657, 0.299331, 0, 0
2, 540.00000, 0.679557, 0.28949, 0.698616, 0.297609, 0.702657, 0.299331, 0, 0
2, 600.00000, 0.679557, 0.28949, 0.698616, 0.297609, 0.702657, 0.299331, 0, 0
2, 660.00000, 0.679557, 0.28949, 0.698616, 0.297609, 0.702657, 0.299331, 0, 0
2, 720.00000, 0.679557, 0.28949, 0.698616, 0.297609, 0.702657, 0.299331, 0, 0
2, 780.00000, 0.679557, 0.28949, 0.698616, 0.297609, 0.702657, 0.299331, 0, 0
2, 840.00000, 0.679557, 0.28949, 0.698616, 0.297609, 0.702657, 0.299331, 0, 0
2, 900.00000, 0.679557, 0.28949, 0.698616, 0.297609, 0.702657, 0.299331, 0, 0
2, 960.00000, 0.679557, 0.28949, 0.698616, 0.297609, 0.702657, 0.299331, 0, 0
2, 1020.00000, 0.679557, 0.28949, 0.698616, 0.297609, 0.702657, 0.299331, 0, 0
2, 1080.00000, 0.679557, 0.28949, 0.698616, 0.297609, 0.702657, 0.299331, 0, 0
2, 1140.00000, 0.679557, 0.28949, 0.698616, 0.297609, 0.702657, 0.299331, 0, 0
2, 1200.00000, 0.679557, 0.28949, 0.698616, 0.297609, 0.702657, 0.299331, 0, 0
2, 1260.00000, 0.679557, 0.28949, 0.698616, 0.297609, 0.702657, 0.299331, 0, 0
2, 1320.00000, 0.679557, 0.28949, 0.698616, 0.297609, 0.702657, 0.299331, 0, 0
2, 1380.00000, 0.679557, 0.28949, 0.698616, 0.297609, 0.702657, 0.299331, 0, 0
2, 1440.00000, 0.679557, 0.28949, 0.698616, 0.297609, 0.702657, 0.299331, 0, 0
2, 1500.00000, 0.679557, 0.28949, 0.698616, 0.297609, 0.702657, 0.299331, 0, 0
2, 1560.00000, 0.679557, 0.28949, 0.698616, 0.297609, 0.702657, 0.299331, 0, 0
2, 1620.00000, 0.679557, 0.28949, 0.698616, 0.297609, 0.702657, 0.299331, 0, 0
2, 1680.00000, 0.679557, 0.28949, 0.698616, 0.297609, 0.702657, 0.299331, 0, 0
2, 1740.00000, 0.679557, 0.28949, 0.698616, 0.297609, 0.702657, 0.299331, 0, 0
2, 1800.00000, 0.679557, 0.28949, 0.698616, 0.297609, 0.702657, 0.299331, 0, 0
2, 1860.00000, 0.679557, 0.28949, 0.698616, 0.297609, 0.702657, 0.299331, 0, 0
2, 1920.00000, 0.679557, 0.28949, 0.698616, 0.297609, 0.702657, 0.299331, 0, 0
2, 1980.00000, 0.679557, 0.28949, 0.698616, 0.297609, 0.702657, 0.299331, 0, 0
2, 2040.00000, 0.679557, 0.28949, 0.698616, 0.297609, 0.702657, 0.299331, 0, 0
2, 2100.00000, 0.679557, 0.28949, 0.698616, 0.297609, 0.702657, 0.299331, 0, 0
2, 2160.00000, 0.679557, 0.28949, 0.698616, 0.297609, 0.702657, 0.299331, 0, 0
2, 2220.00000, 0.679557, 0.28949, 0.698616, 0.297609, 0.702657, 0.299331, 0, 0
2, 2280.00000, 0.679557, 0.28949, 0.698616, 0.297609, 0.702657, 0.299331, 0, 0
2, 2340.00000, 0.679557, 0.28949, 0.698616, 0.297609, 0.702657, 0.299331, 0, 0
2, 2400.00000, 0.699736, 0.298086, 0.698035, 0.297362, 0.702658, 0.299331, 0, 0
2, 2460.00000, 0.699736, 0.298086, 0.698035, 0.297362, 0.702657, 0.299331, 0, 0
2, 2520.00000, 0.699736, 0.298086, 0.698035, 0.297362, 0.702657, 0.299331, 0, 0
2, 2580.00000, 0.699736, 0.298086, 0.698035, 0.297362, 0.702657, 0.299331, 0, 0
2, 2640.00000, 0.699736, 0.298086, 0.698035, 0.297362, 0.702657, 0.299331, 0, 0
2, 2700.00000, 0.695052, 0.296091, 0.691086, 0.294402, 0.702657, 0.29933, 0, 0
2, 2760.00000, 0.695052, 0.296091, 0.691087, 0.294402, 0.702657, 0.299331, 0, 0
2, 2820.00000, 0.695052, 0.296091, 0.691087, 0.294402, 0.702657, 0.299331, 0, 0
2, 2880.00000, 0.695052, 0.296091, 0.691087, 0.294402, 0.702657, 0.299331, 0, 0
2, 2940.00000, 0.695052, 0.296091, 0.691087, 0.294402, 0.702657, 0.299331, 0, 0
2, 3000.00000, 0.695052, 0.296091, 0.691087, 0.294402, 0.702657, 0.299331, 0, 0
2, 3060.00000, 0.69495, 0.296048, 0.692158, 0.294858, 0.702657, 0.299331, 0, 0
2, 3120.00000, 0.69495, 0.296048, 0.692158, 0.294858, 0.702657, 0.299331, 0, 0
2, 3180.00000, 0.69495, 0.296048, 0.692158, 0.294858, 0.702657, 0.299331, 0, 0
2, 3240.00000, 0.69495, 0.296048, 0.692158, 0.294858, 0.702657, 0.299331, 0, 0
2, 3300.00000, 0.69495, 0.296048, 0.692158, 0.294858, 0.702657, 0.299331, 0, 0
2, 3360.00000, 0.69495, 0.296048, 0.692158, 0.294858, 0.702657, 0.299331, 0, 0
2, 3420.00000, 0.69495, 0.296048, 0.692158, 0.294858, 0.702657, 0.299331, 0, 0
2, 3480.00000, 0.69495, 0.296048, 0.692158, 0.294858, 0.702657, 0.299331, 0, 0
2, 3540.00000, 0.69495, 0.296048, 0.692158, 0.294858, 0.702657, 0.299331, 0, 0
3, 0.00000, 0.69495, 0.296048, 0.692158, 0.294858, 0.702657, 0.299331, 0, 0
3, 60.00000, 0.69495, 0.296048, 0.692158, 0.294858, 0.702657, 0.299331, 0, 0
3, 120.00000, 0.69495, 0.296048, 0.692158, 0.294858, 0.702657, 0.299331, 0, 0
3, 180.00000, 0.69495, 0.296048, 0.692158, 0.294858, 0.702657, 0.299331, 0, 0
3, 240.00000, 0.69495, 0.296048, 0.692158, 0.294858, 0.702657, 0.299331, 0, 0
3, 300.00000, 0.69495, 0.296048, 0.692158, 0.294858, 0.702657, 0.299331, 0, 0
3, 360.00000, 0.69495, 0.296048, 0.692158, 0.294858, 0.702657, 0.299331, 0, 0
3, 420.00000, 0.69495, 0.296048, 0.692158, 0.294858, 0.702657, 0.299331, 0, 0
3, 480.00000, 0.69495, 0.296048, 0.692158, 0.294858, 0.702657, 0.299331, 0, 0
3, 540.00000, 0.69495, 0.296048, 0.692158, 0.294858, 0.702657, 0.299331, 0, 0
3, 600.00000, 0.69495, 0.296048, 0.692158, 0.294858, 0.702657, 0.299331, 0, 0
3, 660.00000, 0.69495, 0.296048, 0.692158, 0.294858, 0.702657, 0.299331, 0, 0
3, 720.00000, 0.69495, 0.296048, 0.692158, 0.294858, 0.702657, 0.299331, 0, 0
3, 780.00000, 0.69495, 0.296048, 0.692158, 0.294858, 0.702657, 0.299331, 0, 0
3, 840.00000, 0.69495, 0.296048, 0.692158, 0.294858, 0.702657, 0.299331, 0, 0
3, 900.00000, 0.69495, 0.296048, 0.692158, 0.294858, 0.702657, 0.299331, 0, 0
3, 960.00000, 0.69495, 0.296048, 0.692158, 0.294858, 0.702657, 0.299331, 0, 0
3, 1020.00000, 0.69495, 0.296048, 0.692158, 0.294858, 0.702657, 0.299331, 0, 0
3, 1080.00000, 0.69495, 0.296048, 0.692158, 0.294858, 0.702657, 0.299331, 0, 0
3, 1140.00000, 0.69495, 0.296048, 0.692158, 0.294858, 0.702657, 0.299331, 0, 0
3, 1200.00000, 0.69495, 0.296048, 0.692158, 0.294858, 0.702657, 0.299331, 0, 0
3, 1260.00000, 0.69495, 0.296048, 0.692158, 0.294858, 0.702657, 0.299331, 0, 0
3, 1320.00000, 0.69495, 0.296048, 0.692158, 0.294858, 0.702657, 0.299331, 0, 0
3, 1380.00000, 0.69495, 0.296048, 0.692158, 0.294858, 0.702657, 0.299331, 0, 0
3, 1440.00000, 0.69495, 0.296048, 0.692158, 0.294858, 0.702657, 0.299331, 0, 0
3, 1500.00000, 0.69495, 0.296048, 0.692158, 0.294858, 0.702657, 0.299331, 0, 0
3, 1560.00000, 0.69495, 0.296048, 0.692158, 0.294858, 0.702657, 0.299331, 0, 0
3, 1620.00000, 0.69495, 0.296048, 0.692158, 0.294858, 0.702657, 0.299331, 0, 0
3, 1680.00000, 0.69495, 0.296048, 0.692158, 0.294858, 0.702657, 0.299331, 0, 0
3, 1740.00000, 0.69495, 0.296048, 0.692158, 0.294858, 0.702657, 0.299331, 0, 0
3, 1800.00000, 0.69495, 0.296048, 0.692158, 0.294858, 0.702657, 0.299331, 0, 0
3, 1860.00000, 0.69495, 0.296048, 0.692158, 0.294858, 0.702657, 0.299331, 0, 0
3, 1920.00000, 0.69495, 0.296048, 0.692158, 0.294858, 0.702657, 0.299331, 0, 0
3, 1980.00000, 0.69495, 0.296048, 0.692158, 0.294858, 0.702657, 0.299331, 0, 0
3, 2040.00000, 0.69495, 0.296048, 0.692158, 0.294858, 0.702657, 0.299331, 0, 0
3, 2100.00000, 0.69495, 0.296048, 0.692158, 0.294858, 0.702657, 0.299331, 0, 0
3, 2160.00000, 0.69495, 0.296048, 0.692158, 0.294858, 0.702657, 0.299331, 0, 0
3, 2220.00000, 0.69495, 0.296048, 0.692158, 0.294858, 0.702657, 0.299331, 0, 0
3, 2280.00000, 0.69495, 0.296048, 0.692158, 0.294858, 0.702657, 0.299331, 0, 0
3, 2340.00000, 0.69495, 0.296048, 0.692158, 0.294858, 0.702657, 0.299331, 0, 0
3, 2400.00000, 0.69495, 0.296048, 0.692158, 0.294858, 0.702657, 0.299331, 0, 0
3, 2460.00000, 0.69495, 0.296048, 0.692158, 0.294858, 0.702657, 0.299331, 0, 0
3, 2520.00000, 0.69495, 0.296048, 0.692158, 0.294858, 0.702657, 0.299331, 0, 0
3, 2580.00000, 0.69495, 0.296048, 0.692158, 0.294858, 0.702657, 0.299331, 0, 0
3, 2640.00000, 0.69495, 0.296048, 0.692158, 0.294858, 0.702657, 0.299331, 0, 0
3, 2700.00000, 0.69495, 0.296048, 0.692158, 0.294858, 0.702657, 0.299331, 0, 0
3, 2760.00000, 0.69495, 0.296048, 0.692158, 0.294858, 0.702657, 0.299331, 0, 0
3, 2820.00000, 0.69495, 0.296048, 0.692158, 0.294858, 0.702657, 0.299331, 0, 0
3, 2880.00000, 0.69495, 0.296048, 0.692158, 0.294858, 0.702657, 0.299331, 0, 0
3, 2940.00000, 0.69495, 0.296048, 0.692158, 0.294858, 0.702657, 0.299331, 0, 0
3, 3000.00000, 0.69495, 0.296048, 0.692158, 0.294858, 0.702657, 0.299331, 0, 0
3, 3060.00000, 0.69495, 0.296048, 0.692158, 0.294858, 0.702657, 0.299331, 0, 0
3, 3120.00000, 0.69495, 0.296048, 0.692158, 0.294858, 0.702657, 0.299331, 0, 0
3, 3180.00000, 0.731979, 0.311822, 0.729218, 0.310646, 0.743319, 0.316653, 0, 0
3, 3240.00000, 0.731979, 0.311822, 0.729219, 0.310646, 0.743321, 0.316653, 0, 0
3, 3300.00000, 0.731979, 0.311822, 0.729219, 0.310646, 0.743321, 0.316653, 0, 0
3, 3360.00000, 0.731979, 0.311822, 0.729219, 0.310646, 0.743321, 0.316653, 0, 0
3, 3420.00000, 0.731979, 0.311822, 0.729219, 0.310646, 0.743321, 0.316653, 0, 0
3, 3480.00000, 0.731979, 0.311822, 0.729219, 0.310646, 0.743321, 0.316653, 0, 0
3, 3540.00000, 0.731979, 0.311822, 0.729219, 0.310646, 0.743321, 0.316653, 0, 0
4, 0.00000, 0.731979, 0.311822, 0.729219, 0.310646, 0.743321, 0.316653, 0, 0
4, 60.00000, 0.731979, 0.311822, 0.729219, 0.310646, 0.743321, 0.316653, 0, 0
4, 120.00000, 0.731979, 0.311822, 0.729219, 0.310646, 0.743321, 0.316653, 0, 0
4, 180.00000, 0.731979, 0.311822, 0.729219, 0.310646, 0.743321, 0.316653, 0, 0
4, 240.00000, 0.731979, 0.311822, 0.729219, 0.310646, 0.743321, 0.316653, 0, 0
4, 300.00000, 0.731979, 0.311822, 0.729219, 0.310646, 0.743321, 0.316653, 0, 0
4, 360.00000, 0.731979, 0.311822, 0.729219, 0.310646, 0.743321, 0.316653, 0, 0
4, 420.00000, 0.731979, 0.311822, 0.729219, 0.310646, 0.743321, 0.316653, 0, 0
4, 480.00000, 0.731979, 0.311822, 0.729219, 0.310646, 0.743321, 0.316653, 0, 0
4, 540.00000, 0.731979, 0.311822, 0.729219, 0.310646, 0.743321, 0.316653, 0, 0
4, 600.00000, 0.731979, 0.311822, 0.729219, 0.310646, 0.743321, 0.316653, 0, 0
4, 660.00000, 0.731979, 0.311822, 0.729219, 0.310646, 0.743321, 0.316653, 0, 0
4, 720.00000, 0.731979, 0.311822, 0.729219, 0.310646, 0.743321, 0.316653, 0, 0
