hour,t(sec),V1,VAngle1,V2,VAngle2,V3,VAngle3,V4,VAngle4,I1,IAngle1,I2,IAngle2,I3,IAngle3,I4,IAngle4
0, 60.00000, 125.968, -31.3667, 125.684, -151.244, 126.076, 88.821, 0, 0, 10.8204, -54.4403, 10.8448, -174.318, 10.811, 65.7476, 0.0613116, 18.3456
0, 120.00000, 125.968, -31.3667, 125.684, -151.245, 126.076, 88.821, 0, 0, 10.8204, -54.4406, 10.8448, -174.318, 10.8111, 65.7471, 0.0612425, 18.3211
0, 180.00000, 125.968, -31.3667, 125.684, -151.245, 126.076, 88.821, 0, 0, 10.8204, -54.4406, 10.8448, -174.318, 10.8111, 65.747, 0.0612408, 18.3207
0, 240.00000, 125.968, -31.3667, 125.684, -151.245, 126.076, 88.821, 0, 0, 10.8204, -54.4406, 10.8448, -174.318, 10.8111, 65.747, 0.0612408, 18.3207
0, 300.00000, 125.968, -31.3667, 125.684, -151.245, 126.076, 88.821, 0, 0, 10.8204, -54.4406, 10.8448, -174.318, 10.8111, 65.747, 0.0612408, 18.3207
0, 360.00000, 125.968, -31.3667, 125.684, -151.245, 126.076, 88.821, 0, 0, 10.8204, -54.4406, 10.8448, -174.318, 10.8111, 65.747, 0.0612408, 18.3207
0, 420.00000, 125.968, -31.3667, 125.684, -151.245, 126.076, 88.821, 0, 0, 10.8204, -54.4406, 10.8448, -174.318, 10.8111, 65.747, 0.0612408, 18.3207
0, 480.00000, 125.968, -31.3667, 125.684, -151.245, 126.076, 88.821, 0, 0, 10.8204, -54.4406, 10.8448, -174.318, 10.8111, 65.747, 0.0612408, 18.3207
0, 540.00000, 125.968, -31.3667, 125.684, -151.245, 126.076, 88.821, 0, 0, 10.8204, -54.4406, 10.8448, -174.318, 10.8111, 65.747, 0.0612408, 18.3207
0, 600.00000, 125.968, -31.3667, 125.684, -151.245, 126.076, 88.821, 0, 0, 10.8204, -54.4406, 10.8448, -174.318, 10.8111, 65.747, 0.0612408, 18.3207
0, 660.00000, 125.968, -31.3667, 125.684, -151.245, 126.076, 88.821, 0, 0, 10.8204, -54.4406, 10.8448, -174.318, 10.8111, 65.747, 0.0612408, 18.3207
0, 720.00000, 125.968, -31.3667, 125.684, -151.245, 126.076, 88.821, 0, 0, 10.8204, -54.4406, 10.8448, -174.318, 10.8111, 65.747, 0.0612408, 18.3207
0, 780.00000, 125.968, -31.3667, 125.684, -151.245, 126.076, 88.821, 0, 0, 10.8204, -54.4406, 10.8448, -174.318, 10.8111, 65.747, 0.0612408, 18.3207
0, 840.00000, 125.968, -31.3667, 125.684, -151.245, 126.076, 88.821, 0, 0, 10.8204, -54.4406, 10.8448, -174.318, 10.8111, 65.747, 0.0612408, 18.3207
0, 900.00000, 125.968, -31.3667, 125.684, -151.245, 126.076, 88.821, 0, 0, 10.8204, -54.4406, 10.8448, -174.318, 10.8111, 65.747, 0.0612408, 18.3207
0, 960.00000, 125.868, -31.3974, 125.586, -151.275, 125.976, 88.7903, 0, 0, 11.4557, -54.4712, 11.4814, -174.349, 11.4458, 65.7164, 0.0647391, 18.3839
0, 1020.00000, 125.868, -31.3974, 125.586, -151.275, 125.976, 88.7903, 0, 0, 11.4557, -54.4713, 11.4814, -174.349, 11.4458, 65.7163, 0.0647409, 18.3836
0, 1080.00000, 125.868, -31.3974, 125.586, -151.275, 125.976, 88.7903, 0, 0, 11.4557, -54.4713, 11.4814, -174.349, 11.4458, 65.7163, 0.0647409, 18.3836
0, 1140.00000, 125.868, -31.3974, 125.586, -151.275, 125.976, 88.7903, 0, 0, 11.4557, -54.4713, 11.4814, -174.349, 11.4458, 65.7163, 0.0647409, 18.3836
0, 1200.00000, 125.868, -31.3974, 125.586, -151.275, 125.976, 88.7903, 0, 0, 11.4557, -54.4713, 11.4814, -174.349, 11.4458, 65.7163, 0.0647409, 18.3836
0, 1260.00000, 125.868, -31.3974, 125.586, -151.275, 125.976, 88.7903, 0, 0, 11.4557, -54.4713, 11.4814, -174.349, 11.4458, 65.7163, 0.0647409, 18.3836
0, 1320.00000, 125.868, -31.3974, 125.586, -151.275, 125.976, 88.7903, 0, 0, 11.4557, -54.4713, 11.4814, -174.349, 11.4458, 65.7163, 0.0647409, 18.3836
0, 1380.00000, 125.868, -31.3974, 125.586, -151.275, 125.976, 88.7903, 0, 0, 11.4557, -54.4713, 11.4814, -174.349, 11.4458, 65.7163, 0.0647409, 18.3836
0, 1440.00000, 125.868, -31.3974, 125.586, -151.275, 125.976, 88.7903, 0, 0, 11.4557, -54.4713, 11.4814, -174.349, 11.4458, 65.7163, 0.0647409, 18.3836
0, 1500.00000, 125.868, -31.3974, 125.586, -151.275, 125.976, 88.7903, 0, 0, 11.4557, -54.4713, 11.4814, -174.349, 11.4458, 65.7163, 0.0647409, 18.3836
0, 1560.00000, 125.868, -31.3974, 125.586, -151.275, 125.976, 88.7903, 0, 0, 11.4557, -54.4713, 11.4814, -174.349, 11.4458, 65.7163, 0.0647409, 18.3836
0, 1620.00000, 125.868, -31.3974, 125.586, -151.275, 125.976, 88.7903, 0, 0, 11.4557, -54.4713, 11.4814, -174.349, 11.4458, 65.7163, 0.0647409, 18.3836
0, 1680.00000, 125.868, -31.3974, 125.586, -151.275, 125.976, 88.7903, 0, 0, 11.4557, -54.4713, 11.4814, -174.349, 11.4458, 65.7163, 0.0647409, 18.3836
0, 1740.00000, 125.868, -31.3974, 125.586, -151.275, 125.976, 88.7903, 0, 0, 11.4557, -54.4713, 11.4814, -174.349, 11.4458, 65.7163, 0.0647409, 18.3836
0, 1800.00000, 125.868, -31.3974, 125.586, -151.275, 125.976, 88.7903, 0, 0, 11.4557, -54.4713, 11.4814, -174.349, 11.4458, 65.7163, 0.0647409, 18.3836
0, 1860.00000, 125.923, -31.3765, 125.642, -151.254, 126.033, 88.8114, 0, 0, 11.4857, -54.4515, 11.5115, -174.329, 11.4758, 65.7364, 0.0649836, 18.4366
0, 1920.00000, 125.924, -31.3764, 125.642, -151.254, 126.033, 88.8114, 0, 0, 11.4854, -54.4503, 11.5112, -174.328, 11.4754, 65.7375, 0.0649562, 18.44
0, 1980.00000, 125.924, -31.3764, 125.642, -151.254, 126.033, 88.8114, 0, 0, 11.4854, -54.4503, 11.5112, -174.328, 11.4754, 65.7375, 0.0649562, 18.44
0, 2040.00000, 125.924, -31.3764, 125.642, -151.254, 126.033, 88.8114, 0, 0, 11.4854, -54.4503, 11.5112, -174.328, 11.4754, 65.7375, 0.0649562, 18.44
0, 2100.00000, 125.924, -31.3764, 125.642, -151.254, 126.033, 88.8114, 0, 0, 11.4854, -54.4503, 11.5112, -174.328, 11.4754, 65.7375, 0.0649562, 18.44
0, 2160.00000, 125.924, -31.3764, 125.642, -151.254, 126.033, 88.8114, 0, 0, 11.4854, -54.4503, 11.5112, -174.328, 11.4754, 65.7375, 0.0649562, 18.44
0, 2220.00000, 125.924, -31.3764, 125.642, -151.254, 126.033, 88.8114, 0, 0, 11.4854, -54.4503, 11.5112, -174.328, 11.4754, 65.7375, 0.0649562, 18.44
0, 2280.00000, 125.924, -31.3764, 125.642, -151.254, 126.033, 88.8114, 0, 0, 11.4854, -54.4503, 11.5112, -174.328, 11.4754, 65.7375, 0.0649562, 18.44
0, 2340.00000, 125.924, -31.3764, 125.642, -151.254, 126.033, 88.8114, 0, 0, 11.4854, -54.4503, 11.5112, -174.328, 11.4754, 65.7375, 0.0649562, 18.44
0, 2400.00000, 125.924, -31.3764, 125.642, -151.254, 126.033, 88.8114, 0, 0, 11.4854, -54.4503, 11.5112, -174.328, 11.4754, 65.7375, 0.0649562, 18.44
0, 2460.00000, 125.924, -31.3764, 125.642, -151.254, 126.033, 88.8114, 0, 0, 11.4854, -54.4503, 11.5112, -174.328, 11.4754, 65.7375, 0.0649562, 18.44
0, 2520.00000, 125.924, -31.3764, 125.642, -151.254, 126.033, 88.8114, 0, 0, 11.4854, -54.4503, 11.5112, -174.328, 11.4754, 65.7375, 0.0649562, 18.44
0, 2580.00000, 125.924, -31.3764, 125.642, -151.254, 126.033, 88.8114, 0, 0, 11.4854, -54.4503, 11.5112, -174.328, 11.4754, 65.7375, 0.0649562, 18.44
0, 2640.00000, 125.924, -31.3764, 125.642, -151.254, 126.033, 88.8114, 0, 0, 11.4854, -54.4503, 11.5112, -174.328, 11.4754, 65.7375, 0.0649562, 18.44
0, 2700.00000, 125.924, -31.3764, 125.642, -151.254, 126.033, 88.8114, 0, 0, 11.4854, -54.4503, 11.5112, -174.328, 11.4754, 65.7375, 0.0649562, 18.44
0, 2760.00000, 126.055, -31.3335, 125.772, -151.211, 126.166, 88.8551, 0, 0, 10.9129, -54.4075, 10.9375, -174.285, 10.9033, 65.781, 0.0620088, 18.4379
0, 2820.00000, 126.055, -31.3335, 125.772, -151.211, 126.166, 88.8552, 0, 0, 10.9129, -54.4074, 10.9375, -174.285, 10.9033, 65.7813, 0.0620549, 18.4455
0, 2880.00000, 126.055, -31.3335, 125.772, -151.211, 126.166, 88.8552, 0, 0, 10.9129, -54.4074, 10.9375, -174.285, 10.9033, 65.7813, 0.0620558, 18.4457
0, 2940.00000, 126.055, -31.3335, 125.772, -151.211, 126.166, 88.8552, 0, 0, 10.9129, -54.4074, 10.9375, -174.285, 10.9033, 65.7813, 0.0620558, 18.4457
0, 3000.00000, 126.055, -31.3335, 125.772, -151.211, 126.166, 88.8552, 0, 0, 10.9129, -54.4074, 10.9375, -174.285, 10.9033, 65.7813, 0.0620558, 18.4457
0, 3060.00000, 126.055, -31.3335, 125.772, -151.211, 126.166, 88.8552, 0, 0, 10.9129, -54.4074, 10.9375, -174.285, 10.9033, 65.7813, 0.0620558, 18.4457
0, 3120.00000, 126.055, -31.3335, 125.772, -151.211, 126.166, 88.8552, 0, 0, 10.9129, -54.4074, 10.9375, -174.285, 10.9033, 65.7813, 0.0620558, 18.4457
0, 3180.00000, 126.055, -31.3335, 125.772, -151.211, 126.166, 88.8552, 0, 0, 10.9129, -54.4074, 10.9375, -174.285, 10.9033, 65.7813, 0.0620558, 18.4457
0, 3240.00000, 126.055, -31.3335, 125.772, -151.211, 126.166, 88.8552, 0, 0, 10.9129, -54.4074, 10.9375, -174.285, 10.9033, 65.7813, 0.0620558, 18.4457
0, 3300.00000, 126.055, -31.3335, 125.772, -151.211, 126.166, 88.8552, 0, 0, 10.9129, -54.4074, 10.9375, -174.285, 10.9033, 65.7813, 0.0620558, 18.4457
0, 3360.00000, 126.055, -31.3335, 125.772, -151.211, 126.166, 88.8552, 0, 0, 10.9129, -54.4074, 10.9375, -174.285, 10.9033, 65.7813, 0.0620558, 18.4457
0, 3420.00000, 126.055, -31.3335, 125.772, -151.211, 126.166, 88.8552, 0, 0, 10.9129, -54.4074, 10.9375, -174.285, 10.9033, 65.7813, 0.0620558, 18.4457
0, 3480.00000, 126.055, -31.3335, 125.772, -151.211, 126.166, 88.8552, 0, 0, 10.9129, -54.4074, 10.9375, -174.285, 10.9033, 65.7813, 0.0620558, 18.4457
0, 3540.00000, 126.055, -31.3335, 125.772, -151.211, 126.166, 88.8552, 0, 0, 10.9129, -54.4074, 10.9375, -174.285, 10.9033, 65.7813, 0.0620558, 18.4457
1, 0.00000, 126.055, -31.3335, 125.772, -151.211, 126.166, 88.8552, 0, 0, 10.9129, -54.4074, 10.9375, -174.285, 10.9033, 65.7813, 0.0620558, 18.4457
1, 60.00000, 126.142, -31.3028, 125.858, -151.18, 126.256, 88.8869, 0, 0, 10.7779, -54.3768, 10.8023, -174.254, 10.7682, 65.8127, 0.0615919, 18.5159
1, 120.00000, 126.142, -31.3028, 125.858, -151.18, 126.256, 88.887, 0, 0, 10.7779, -54.3767, 10.8022, -174.254, 10.7681, 65.813, 0.0616528, 18.5255
1, 180.00000, 126.142, -31.3028, 125.858, -151.18, 126.256, 88.887, 0, 0, 10.7779, -54.3767, 10.8022, -174.254, 10.7681, 65.813, 0.0616542, 18.5257
1, 240.00000, 126.142, -31.3028, 125.858, -151.18, 126.256, 88.887, 0, 0, 10.7779, -54.3767, 10.8022, -174.254, 10.7681, 65.813, 0.0616542, 18.5257
1, 300.00000, 126.142, -31.3028, 125.858, -151.18, 126.256, 88.887, 0, 0, 10.7779, -54.3767, 10.8022, -174.254, 10.7681, 65.813, 0.0616542, 18.5257
1, 360.00000, 126.142, -31.3028, 125.858, -151.18, 126.256, 88.887, 0, 0, 10.7779, -54.3767, 10.8022, -174.254, 10.7681, 65.813, 0.0616542, 18.5257
1, 420.00000, 126.142, -31.3028, 125.858, -151.18, 126.256, 88.887, 0, 0, 10.7779, -54.3767, 10.8022, -174.254, 10.7681, 65.813, 0.0616542, 18.5257
1, 480.00000, 126.142, -31.3028, 125.858, -151.18, 126.256, 88.887, 0, 0, 10.7779, -54.3767, 10.8022, -174.254, 10.7681, 65.813, 0.0616542, 18.5257
1, 540.00000, 126.142, -31.3028, 125.858, -151.18, 126.256, 88.887, 0, 0, 10.7779, -54.3767, 10.8022, -174.254, 10.7681, 65.813, 0.0616542, 18.5257
1, 600.00000, 126.142, -31.3028, 125.858, -151.18, 126.256, 88.887, 0, 0, 10.7779, -54.3767, 10.8022, -174.254, 10.7681, 65.813, 0.0616542, 18.5257
1, 660.00000, 126.142, -31.3028, 125.858, -151.18, 126.256, 88.887, 0, 0, 10.7779, -54.3767, 10.8022, -174.254, 10.7681, 65.813, 0.0616542, 18.5257
1, 720.00000, 126.142, -31.3028, 125.858, -151.18, 126.256, 88.887, 0, 0, 10.7779, -54.3767, 10.8022, -174.254, 10.7681, 65.813, 0.0616542, 18.5257
1, 780.00000, 126.142, -31.3028, 125.858, -151.18, 126.256, 88.887, 0, 0, 10.7779, -54.3767, 10.8022, -174.254, 10.7681, 65.813, 0.0616542, 18.5257
1, 840.00000, 126.142, -31.3028, 125.858, -151.18, 126.256, 88.887, 0, 0, 10.7779, -54.3767, 10.8022, -174.254, 10.7681, 65.813, 0.0616542, 18.5257
1, 900.00000, 126.142, -31.3028, 125.858, -151.18, 126.256, 88.887, 0, 0, 10.7779, -54.3767, 10.8022, -174.254, 10.7681, 65.813, 0.0616542, 18.5257
1, 960.00000, 126.155, -31.2982, 125.871, -151.176, 126.27, 88.8917, 0, 0, 10.7264, -54.3724, 10.7506, -174.25, 10.7166, 65.8174, 0.0613707, 18.5234
1, 1020.00000, 126.155, -31.2982, 125.871, -151.176, 126.27, 88.8917, 0, 0, 10.7263, -54.3721, 10.7505, -174.25, 10.7165, 65.8178, 0.0614117, 18.5293
1, 1080.00000, 126.155, -31.2982, 125.871, -151.176, 126.27, 88.8917, 0, 0, 10.7263, -54.3721, 10.7505, -174.25, 10.7165, 65.8178, 0.0614132, 18.5296
1, 1140.00000, 126.155, -31.2982, 125.871, -151.176, 126.27, 88.8917, 0, 0, 10.7263, -54.3721, 10.7505, -174.25, 10.7165, 65.8178, 0.0614132, 18.5296
1, 1200.00000, 126.155, -31.2982, 125.871, -151.176, 126.27, 88.8917, 0, 0, 10.7263, -54.3721, 10.7505, -174.25, 10.7165, 65.8178, 0.0614132, 18.5296
1, 1260.00000, 126.155, -31.2982, 125.871, -151.176, 126.27, 88.8917, 0, 0, 10.7263, -54.3721, 10.7505, -174.25, 10.7165, 65.8178, 0.0614132, 18.5296
1, 1320.00000, 126.155, -31.2982, 125.871, -151.176, 126.27, 88.8917, 0, 0, 10.7263, -54.3721, 10.7505, -174.25, 10.7165, 65.8178, 0.0614132, 18.5296
1, 1380.00000, 126.155, -31.2982, 125.871, -151.176, 126.27, 88.8917, 0, 0, 10.7263, -54.3721, 10.7505, -174.25, 10.7165, 65.8178, 0.0614132, 18.5296
1, 1440.00000, 126.155, -31.2982, 125.871, -151.176, 126.27, 88.8917, 0, 0, 10.7263, -54.3721, 10.7505, -174.25, 10.7165, 65.8178, 0.0614132, 18.5296
1, 1500.00000, 126.155, -31.2982, 125.871, -151.176, 126.27, 88.8917, 0, 0, 10.7263, -54.3721, 10.7505, -174.25, 10.7165, 65.8178, 0.0614132, 18.5296
1, 1560.00000, 126.155, -31.2982, 125.871, -151.176, 126.27, 88.8917, 0, 0, 10.7263, -54.3721, 10.7505, -174.25, 10.7165, 65.8178, 0.0614132, 18.5296
1, 1620.00000, 126.155, -31.2982, 125.871, -151.176, 126.27, 88.8917, 0, 0, 10.7263, -54.3721, 10.7505, -174.25, 10.7165, 65.8178, 0.0614132, 18.5296
1, 1680.00000, 126.155, -31.2982, 125.871, -151.176, 126.27, 88.8917, 0, 0, 10.7263, -54.3721, 10.7505, -174.25, 10.7165, 65.8178, 0.0614132, 18.5296
1, 1740.00000, 126.155, -31.2982, 125.871, -151.176, 126.27, 88.8917, 0, 0, 10.7263, -54.3721, 10.7505, -174.25, 10.7165, 65.8178, 0.0614132, 18.5296
1, 1800.00000, 126.155, -31.2982, 125.871, -151.176, 126.27, 88.8917, 0, 0, 10.7263, -54.3721, 10.7505, -174.25, 10.7165, 65.8178, 0.0614132, 18.5296
1, 1860.00000, 126.071, -31.3268, 125.788, -151.204, 126.183, 88.8622, 0, 0, 10.9923, -54.4006, 11.0171, -174.278, 10.9825, 65.7886, 0.0626665, 18.4999
1, 1920.00000, 126.071, -31.3268, 125.788, -151.204, 126.183, 88.8622, 0, 0, 10.9923, -54.4007, 11.0171, -174.278, 10.9826, 65.7883, 0.0626073, 18.4907
1, 1980.00000, 126.071, -31.3268, 125.788, -151.204, 126.183, 88.8622, 0, 0, 10.9923, -54.4007, 11.0171, -174.278, 10.9826, 65.7883, 0.0626059, 18.4905
1, 2040.00000, 126.071, -31.3268, 125.788, -151.204, 126.183, 88.8622, 0, 0, 10.9923, -54.4007, 11.0171, -174.278, 10.9826, 65.7883, 0.0626059, 18.4905
1, 2100.00000, 126.071, -31.3268, 125.788, -151.204, 126.183, 88.8622, 0, 0, 10.9923, -54.4007, 11.0171, -174.278, 10.9826, 65.7883, 0.0626059, 18.4905
1, 2160.00000, 126.071, -31.3268, 125.788, -151.204, 126.183, 88.8622, 0, 0, 10.9923, -54.4007, 11.0171, -174.278, 10.9826, 65.7883, 0.0626059, 18.4905
1, 2220.00000, 126.071, -31.3268, 125.788, -151.204, 126.183, 88.8622, 0, 0, 10.9923, -54.4007, 11.0171, -174.278, 10.9826, 65.7883, 0.0626059, 18.4905
1, 2280.00000, 126.071, -31.3268, 125.788, -151.204, 126.183, 88.8622, 0, 0, 10.9923, -54.4007, 11.0171, -174.278, 10.9826, 65.7883, 0.0626059, 18.4905
1, 2340.00000, 126.071, -31.3268, 125.788, -151.204, 126.183, 88.8622, 0, 0, 10.9923, -54.4007, 11.0171, -174.278, 10.9826, 65.7883, 0.0626059, 18.4905
1, 2400.00000, 126.071, -31.3268, 125.788, -151.204, 126.183, 88.8622, 0, 0, 10.9923, -54.4007, 11.0171, -174.278, 10.9826, 65.7883, 0.0626059, 18.4905
1, 2460.00000, 126.071, -31.3268, 125.788, -151.204, 126.183, 88.8622, 0, 0, 10.9923, -54.4007, 11.0171, -174.278, 10.9826, 65.7883, 0.0626059, 18.4905
1, 2520.00000, 126.071, -31.3268, 125.788, -151.204, 126.183, 88.8622, 0, 0, 10.9923, -54.4007, 11.0171, -174.278, 10.9826, 65.7883, 0.0626059, 18.4905
1, 2580.00000, 126.071, -31.3268, 125.788, -151.204, 126.183, 88.8622, 0, 0, 10.9923, -54.4007, 11.0171, -174.278, 10.9826, 65.7883, 0.0626059, 18.4905
1, 2640.00000, 126.071, -31.3268, 125.788, -151.204, 126.183, 88.8622, 0, 0, 10.9923, -54.4007, 11.0171, -174.278, 10.9826, 65.7883, 0.0626059, 18.4905
1, 2700.00000, 126.071, -31.3268, 125.788, -151.204, 126.183, 88.8622, 0, 0, 10.9923, -54.4007, 11.0171, -174.278, 10.9826, 65.7883, 0.0626059, 18.4905
1, 2760.00000, 126.244, -31.2693, 125.96, -151.146, 126.361, 88.9216, 0, 0, 10.344, -54.3434, 10.3673, -174.221, 10.3345, 65.8472, 0.0594092, 18.6078
1, 2820.00000, 126.244, -31.2693, 125.96, -151.146, 126.361, 88.9217, 0, 0, 10.3439, -54.3432, 10.3673, -174.22, 10.3343, 65.8478, 0.0595031, 18.646
1, 2880.00000, 126.244, -31.2693, 125.96, -151.146, 126.361, 88.9217, 0, 0, 10.3439, -54.3432, 10.3673, -174.22, 10.3343, 65.8478, 0.0595054, 18.6469
1, 2940.00000, 126.244, -31.2693, 125.96, -151.146, 126.361, 88.9217, 0, 0, 10.3439, -54.3432, 10.3673, -174.22, 10.3343, 65.8478, 0.0595054, 18.6469
1, 3000.00000, 126.244, -31.2693, 125.96, -151.146, 126.361, 88.9217, 0, 0, 10.3439, -54.3432, 10.3673, -174.22, 10.3343, 65.8478, 0.0595054, 18.6469
1, 3060.00000, 126.244, -31.2693, 125.96, -151.146, 126.361, 88.9217, 0, 0, 10.3439, -54.3432, 10.3673, -174.22, 10.3343, 65.8478, 0.0595054, 18.6469
1, 3120.00000, 126.244, -31.2693, 125.96, -151.146, 126.361, 88.9217, 0, 0, 10.3439, -54.3432, 10.3673, -174.22, 10.3343, 65.8478, 0.0595054, 18.6469
1, 3180.00000, 126.244, -31.2693, 125.96, -151.146, 126.361, 88.9217, 0, 0, 10.3439, -54.3432, 10.3673, -174.22, 10.3343, 65.8478, 0.0595054, 18.6469
1, 3240.00000, 126.244, -31.2693, 125.96, -151.146, 126.361, 88.9217, 0, 0, 10.3439, -54.3432, 10.3673, -174.22, 10.3343, 65.8478, 0.0595054, 18.6469
1, 3300.00000, 126.244, -31.2693, 125.96, -151.146, 126.361, 88.9217, 0, 0, 10.3439, -54.3432, 10.3673, -174.22, 10.3343, 65.8478, 0.0595054, 18.6469
1, 3360.00000, 126.244, -31.2693, 125.96, -151.146, 126.361, 88.9217, 0, 0, 10.3439, -54.3432, 10.3673, -174.22, 10.3343, 65.8478, 0.0595054, 18.6469
1, 3420.00000, 126.244, -31.2693, 125.96, -151.146, 126.361, 88.9217, 0, 0, 10.3439, -54.3432, 10.3673, -174.22, 10.3343, 65.8478, 0.0595054, 18.6469
1, 3480.00000, 126.244, -31.2693, 125.96, -151.146, 126.361, 88.9217, 0, 0, 10.3439, -54.3432, 10.3673, -174.22, 10.3343, 65.8478, 0.0595054, 18.6469
1, 3540.00000, 126.244, -31.2693, 125.96, -151.146, 126.361, 88.9217, 0, 0, 10.3439, -54.3432, 10.3673, -174.22, 10.3343, 65.8478, 0.0595054, 18.6469
2, 0.00000, 126.244, -31.2693, 125.96, -151.146, 126.361, 88.9217, 0, 0, 10.3439, -54.3432, 10.3673, -174.22, 10.3343, 65.8478, 0.0595054, 18.6469
2, 60.00000, 126.141, -31.3043, 125.857, -151.182, 126.256, 88.8856, 0, 0, 10.6301, -54.3781, 10.6541, -174.256, 10.6204, 65.8119, 0.0609022, 18.5106
2, 120.00000, 126.141, -31.3043, 125.857, -151.182, 126.256, 88.8855, 0, 0, 10.6301, -54.3782, 10.6542, -174.256, 10.6205, 65.8116, 0.0608413, 18.4937
2, 180.00000, 126.141, -31.3043, 125.857, -151.182, 126.256, 88.8855, 0, 0, 10.6301, -54.3782, 10.6542, -174.256, 10.6205, 65.8116, 0.0608399, 18.4934
2, 240.00000, 126.141, -31.3043, 125.857, -151.182, 126.256, 88.8855, 0, 0, 10.6301, -54.3782, 10.6542, -174.256, 10.6205, 65.8116, 0.0608398, 18.4934
2, 300.00000, 126.141, -31.3043, 125.857, -151.182, 126.256, 88.8855, 0, 0, 10.6301, -54.3782, 10.6542, -174.256, 10.6205, 65.8116, 0.0608398, 18.4934
2, 360.00000, 126.141, -31.3043, 125.857, -151.182, 126.256, 88.8855, 0, 0, 10.6301, -54.3782, 10.6542, -174.256, 10.6205, 65.8116, 0.0608398, 18.4934
2, 420.00000, 126.141, -31.3043, 125.857, -151.182, 126.256, 88.8855, 0, 0, 10.6301, -54.3782, 10.6542, -174.256, 10.6205, 65.8116, 0.0608398, 18.4934
2, 480.00000, 126.141, -31.3043, 125.857, -151.182, 126.256, 88.8855, 0, 0, 10.6301, -54.3782, 10.6542, -174.256, 10.6205, 65.8116, 0.0608398, 18.4934
2, 540.00000, 126.141, -31.3043, 125.857, -151.182, 126.256, 88.8855, 0, 0, 10.6301, -54.3782, 10.6542, -174.256, 10.6205, 65.8116, 0.0608398, 18.4934
2, 600.00000, 126.141, -31.3043, 125.857, -151.182, 126.256, 88.8855, 0, 0, 10.6301, -54.3782, 10.6542, -174.256, 10.6205, 65.8116, 0.0608398, 18.4934
2, 660.00000, 126.141, -31.3043, 125.857, -151.182, 126.256, 88.8855, 0, 0, 10.6301, -54.3782, 10.6542, -174.256, 10.6205, 65.8116, 0.0608398, 18.4934
2, 720.00000, 126.141, -31.3043, 125.857, -151.182, 126.256, 88.8855, 0, 0, 10.6301, -54.3782, 10.6542, -174.256, 10.6205, 65.8116, 0.0608398, 18.4934
