hour,t(sec),V1,VAngle1,V2,VAngle2,V3,VAngle3,V4,VAngle4,I1,IAngle1,I2,IAngle2,I3,IAngle3,I4,IAngle4
0, 60.00000, 119.947, -31.1104, 120.113, -150.913, 120.759, 89.0364, 0, 0, 8.13318, -54.1835, 8.14579, -173.988, 8.1805, 65.9631, 0.0246267, -67.5789
0, 120.00000, 119.947, -31.1105, 120.113, -150.913, 120.758, 89.0363, 0, 0, 8.13322, -54.1844, 8.14569, -173.987, 8.1811, 65.9624, 0.0247693, -68.6173
0, 180.00000, 119.947, -31.1105, 120.113, -150.913, 120.758, 89.0363, 0, 0, 8.13322, -54.1844, 8.14569, -173.987, 8.18111, 65.9624, 0.02477, -68.6285
0, 240.00000, 119.947, -31.1105, 120.113, -150.913, 120.758, 89.0363, 0, 0, 8.13322, -54.1844, 8.14569, -173.987, 8.18111, 65.9624, 0.02477, -68.6286
0, 300.00000, 119.947, -31.1105, 120.113, -150.913, 120.758, 89.0363, 0, 0, 8.13322, -54.1844, 8.14569, -173.987, 8.18111, 65.9624, 0.02477, -68.6286
0, 360.00000, 119.947, -31.1105, 120.113, -150.913, 120.758, 89.0363, 0, 0, 8.13322, -54.1844, 8.14569, -173.987, 8.18111, 65.9624, 0.02477, -68.6286
0, 420.00000, 119.947, -31.1105, 120.113, -150.913, 120.758, 89.0363, 0, 0, 8.13322, -54.1844, 8.14569, -173.987, 8.18111, 65.9624, 0.02477, -68.6286
0, 480.00000, 119.947, -31.1105, 120.113, -150.913, 120.758, 89.0363, 0, 0, 8.13322, -54.1844, 8.14569, -173.987, 8.18111, 65.9624, 0.02477, -68.6286
0, 540.00000, 119.947, -31.1105, 120.113, -150.913, 120.758, 89.0363, 0, 0, 8.13322, -54.1844, 8.14569, -173.987, 8.18111, 65.9624, 0.02477, -68.6286
0, 600.00000, 119.947, -31.1105, 120.113, -150.913, 120.758, 89.0363, 0, 0, 8.13322, -54.1844, 8.14569, -173.987, 8.18111, 65.9624, 0.02477, -68.6286
0, 660.00000, 119.947, -31.1105, 120.113, -150.913, 120.758, 89.0363, 0, 0, 8.13322, -54.1844, 8.14569, -173.987, 8.18111, 65.9624, 0.02477, -68.6286
0, 720.00000, 119.947, -31.1105, 120.113, -150.913, 120.758, 89.0363, 0, 0, 8.13322, -54.1844, 8.14569, -173.987, 8.18111, 65.9624, 0.02477, -68.6286
0, 780.00000, 119.947, -31.1105, 120.113, -150.913, 120.758, 89.0363, 0, 0, 8.13322, -54.1844, 8.14569, -173.987, 8.18111, 65.9624, 0.02477, -68.6286
0, 840.00000, 119.947, -31.1105, 120.113, -150.913, 120.758, 89.0363, 0, 0, 8.13322, -54.1844, 8.14569, -173.987, 8.18111, 65.9624, 0.02477, -68.6286
0, 900.00000, 119.947, -31.1105, 120.113, -150.913, 120.758, 89.0363, 0, 0, 8.13322, -54.1844, 8.14569, -173.987, 8.18111, 65.9624, 0.02477, -68.6286
0, 960.00000, 119.698, -31.1336, 119.877, -150.932, 120.516, 89.0121, 0, 0, 8.58411, -54.2074, 8.59837, -174.006, 8.64918, 65.9383, 0.0370886, -83.0753
0, 1020.00000, 119.698, -31.1336, 119.877, -150.932, 120.516, 89.0121, 0, 0, 8.58408, -54.2075, 8.59834, -174.006, 8.64914, 65.9382, 0.0370795, -83.0668
0, 1080.00000, 119.698, -31.1336, 119.877, -150.932, 120.516, 89.0121, 0, 0, 8.58408, -54.2075, 8.59834, -174.006, 8.64914, 65.9382, 0.0370794, -83.0668
0, 1140.00000, 119.698, -31.1336, 119.877, -150.932, 120.516, 89.0121, 0, 0, 8.58408, -54.2075, 8.59834, -174.006, 8.64914, 65.9382, 0.0370794, -83.0668
0, 1200.00000, 119.698, -31.1336, 119.877, -150.932, 120.516, 89.0121, 0, 0, 8.58408, -54.2075, 8.59834, -174.006, 8.64914, 65.9382, 0.0370794, -83.0668
0, 1260.00000, 119.698, -31.1336, 119.877, -150.932, 120.516, 89.0121, 0, 0, 8.58408, -54.2075, 8.59834, -174.006, 8.64914, 65.9382, 0.0370794, -83.0668
0, 1320.00000, 119.698, -31.1336, 119.877, -150.932, 120.516, 89.0121, 0, 0, 8.58408, -54.2075, 8.59834, -174.006, 8.64914, 65.9382, 0.0370794, -83.0668
0, 1380.00000, 119.698, -31.1336, 119.877, -150.932, 120.516, 89.0121, 0, 0, 8.58408, -54.2075, 8.59834, -174.006, 8.64914, 65.9382, 0.0370794, -83.0668
0, 1440.00000, 119.698, -31.1336, 119.877, -150.932, 120.516, 89.0121, 0, 0, 8.58408, -54.2075, 8.59834, -174.006, 8.64914, 65.9382, 0.0370794, -83.0668
0, 1500.00000, 119.698, -31.1336, 119.877, -150.932, 120.516, 89.0121, 0, 0, 8.58408, -54.2075, 8.59834, -174.006, 8.64914, 65.9382, 0.0370794, -83.0668
0, 1560.00000, 119.698, -31.1336, 119.877, -150.932, 120.516, 89.0121, 0, 0, 8.58408, -54.2075, 8.59834, -174.006, 8.64914, 65.9382, 0.0370794, -83.0668
0, 1620.00000, 119.698, -31.1336, 119.877, -150.932, 120.516, 89.0121, 0, 0, 8.58408, -54.2075, 8.59834, -174.006, 8.64914, 65.9382, 0.0370794, -83.0668
0, 1680.00000, 119.698, -31.1336, 119.877, -150.932, 120.516, 89.0121, 0, 0, 8.58408, -54.2075, 8.59834, -174.006, 8.64914, 65.9382, 0.0370794, -83.0668
0, 1740.00000, 119.698, -31.1336, 119.877, -150.932, 120.516, 89.0121, 0, 0, 8.58408, -54.2075, 8.59834, -174.006, 8.64914, 65.9382, 0.0370794, -83.0668
0, 1800.00000, 119.698, -31.1336, 119.877, -150.932, 120.516, 89.0121, 0, 0, 8.58408, -54.2075, 8.59834, -174.006, 8.64914, 65.9382, 0.0370794, -83.0668
0, 1860.00000, 119.855, -31.1165, 120.024, -150.916, 120.66, 89.0313, 0, 0, 8.62226, -54.1915, 8.6358, -173.991, 8.68655, 65.9565, 0.0366317, -82.963
0, 1920.00000, 119.855, -31.1165, 120.025, -150.916, 120.661, 89.0313, 0, 0, 8.62271, -54.1904, 8.63623, -173.99, 8.68699, 65.9574, 0.0366339, -83.0195
0, 1980.00000, 119.855, -31.1165, 120.025, -150.916, 120.661, 89.0313, 0, 0, 8.62271, -54.1904, 8.63623, -173.99, 8.68699, 65.9574, 0.0366348, -83.02
0, 2040.00000, 119.855, -31.1165, 120.025, -150.916, 120.661, 89.0313, 0, 0, 8.62271, -54.1904, 8.63623, -173.99, 8.68699, 65.9574, 0.0366348, -83.02
0, 2100.00000, 119.855, -31.1165, 120.025, -150.916, 120.661, 89.0313, 0, 0, 8.62271, -54.1904, 8.63623, -173.99, 8.68699, 65.9574, 0.0366348, -83.02
0, 2160.00000, 119.855, -31.1165, 120.025, -150.916, 120.661, 89.0313, 0, 0, 8.62271, -54.1904, 8.63623, -173.99, 8.68699, 65.9574, 0.0366348, -83.02
0, 2220.00000, 119.855, -31.1165, 120.025, -150.916, 120.661, 89.0313, 0, 0, 8.62271, -54.1904, 8.63623, -173.99, 8.68699, 65.9574, 0.0366348, -83.02
0, 2280.00000, 119.855, -31.1165, 120.025, -150.916, 120.661, 89.0313, 0, 0, 8.62271, -54.1904, 8.63623, -173.99, 8.68699, 65.9574, 0.0366348, -83.02
0, 2340.00000, 119.855, -31.1165, 120.025, -150.916, 120.661, 89.0313, 0, 0, 8.62271, -54.1904, 8.63623, -173.99, 8.68699, 65.9574, 0.0366348, -83.02
0, 2400.00000, 119.855, -31.1165, 120.025, -150.916, 120.661, 89.0313, 0, 0, 8.62271, -54.1904, 8.63623, -173.99, 8.68699, 65.9574, 0.0366348, -83.02
0, 2460.00000, 119.855, -31.1165, 120.025, -150.916, 120.661, 89.0313, 0, 0, 8.62271, -54.1904, 8.63623, -173.99, 8.68699, 65.9574, 0.0366348, -83.02
0, 2520.00000, 119.855, -31.1165, 120.025, -150.916, 120.661, 89.0313, 0, 0, 8.62271, -54.1904, 8.63623, -173.99, 8.68699, 65.9574, 0.0366348, -83.02
0, 2580.00000, 119.855, -31.1165, 120.025, -150.916, 120.661, 89.0313, 0, 0, 8.62271, -54.1904, 8.63623, -173.99, 8.68699, 65.9574, 0.0366348, -83.02
0, 2640.00000, 119.855, -31.1165, 120.025, -150.916, 120.661, 89.0313, 0, 0, 8.62271, -54.1904, 8.63623, -173.99, 8.68699, 65.9574, 0.0366348, -83.02
0, 2700.00000, 119.855, -31.1165, 120.025, -150.916, 120.661, 89.0313, 0, 0, 8.62271, -54.1904, 8.63623, -173.99, 8.68699, 65.9574, 0.0366348, -83.02
0, 2760.00000, 120.194, -31.0816, 120.349, -150.891, 121.012, 89.068, 0, 0, 8.22717, -54.156, 8.23885, -173.965, 8.23966, 65.9938, 0.0247865, 19.7915
0, 2820.00000, 120.194, -31.0816, 120.349, -150.891, 121.012, 89.068, 0, 0, 8.22715, -54.1555, 8.23889, -173.965, 8.23934, 65.9941, 0.0249976, 19.9701
0, 2880.00000, 120.194, -31.0816, 120.349, -150.891, 121.012, 89.068, 0, 0, 8.22715, -54.1555, 8.23889, -173.965, 8.23934, 65.9941, 0.0250001, 19.971
0, 2940.00000, 120.194, -31.0816, 120.349, -150.891, 121.012, 89.068, 0, 0, 8.22715, -54.1555, 8.23889, -173.965, 8.23934, 65.9941, 0.0250001, 19.9711
0, 3000.00000, 120.194, -31.0816, 120.349, -150.891, 121.012, 89.068, 0, 0, 8.22715, -54.1555, 8.23889, -173.965, 8.23934, 65.9941, 0.0250001, 19.9711
0, 3060.00000, 120.194, -31.0816, 120.349, -150.891, 121.012, 89.068, 0, 0, 8.22715, -54.1555, 8.23889, -173.965, 8.23934, 65.9941, 0.0250001, 19.9711
0, 3120.00000, 120.194, -31.0816, 120.349, -150.891, 121.012, 89.068, 0, 0, 8.22715, -54.1555, 8.23889, -173.965, 8.23934, 65.9941, 0.0250001, 19.9711
0, 3180.00000, 120.194, -31.0816, 120.349, -150.891, 121.012, 89.068, 0, 0, 8.22715, -54.1555, 8.23889, -173.965, 8.23934, 65.9941, 0.0250001, 19.9711
0, 3240.00000, 120.194, -31.0816, 120.349, -150.891, 121.012, 89.068, 0, 0, 8.22715, -54.1555, 8.23889, -173.965, 8.23934, 65.9941, 0.0250001, 19.9711
0, 3300.00000, 120.194, -31.0816, 120.349, -150.891, 121.012, 89.068, 0, 0, 8.22715, -54.1555, 8.23889, -173.965, 8.23934, 65.9941, 0.0250001, 19.9711
0, 3360.00000, 120.194, -31.0816, 120.349, -150.891, 121.012, 89.068, 0, 0, 8.22715, -54.1555, 8.23889, -173.965, 8.23934, 65.9941, 0.0250001, 19.9711
0, 3420.00000, 120.194, -31.0816, 120.349, -150.891, 121.012, 89.068, 0, 0, 8.22715, -54.1555, 8.23889, -173.965, 8.23934, 65.9941, 0.0250001, 19.9711
0, 3480.00000, 120.194, -31.0816, 120.349, -150.891, 121.012, 89.068, 0, 0, 8.22715, -54.1555, 8.23889, -173.965, 8.23934, 65.9941, 0.0250001, 19.9711
0, 3540.00000, 120.194, -31.0816, 120.349, -150.891, 121.012, 89.068, 0, 0, 8.22715, -54.1555, 8.23889, -173.965, 8.23934, 65.9941, 0.0250001, 19.9711
1, 0.00000, 120.194, -31.0816, 120.349, -150.891, 121.012, 89.068, 0, 0, 8.22715, -54.1555, 8.23889, -173.965, 8.23934, 65.9941, 0.0250001, 19.9711
1, 60.00000, 120.444, -31.0568, 120.587, -150.874, 121.274, 89.0945, 0, 0, 8.14974, -54.1311, 8.16044, -173.948, 8.12573, 66.0203, 0.054903, 47.1252
1, 120.00000, 120.444, -31.0568, 120.587, -150.874, 121.274, 89.0945, 0, 0, 8.14971, -54.1307, 8.16046, -173.948, 8.12544, 66.0206, 0.0550915, 47.0912
1, 180.00000, 120.444, -31.0568, 120.587, -150.874, 121.274, 89.0945, 0, 0, 8.14971, -54.1307, 8.16046, -173.948, 8.12544, 66.0206, 0.0550941, 47.0902
1, 240.00000, 120.444, -31.0568, 120.587, -150.874, 121.274, 89.0945, 0, 0, 8.14971, -54.1307, 8.16046, -173.948, 8.12544, 66.0206, 0.0550941, 47.0902
1, 300.00000, 120.444, -31.0568, 120.587, -150.874, 121.274, 89.0945, 0, 0, 8.14971, -54.1307, 8.16046, -173.948, 8.12544, 66.0206, 0.0550941, 47.0902
1, 360.00000, 120.444, -31.0568, 120.587, -150.874, 121.274, 89.0945, 0, 0, 8.14971, -54.1307, 8.16046, -173.948, 8.12544, 66.0206, 0.0550941, 47.0902
1, 420.00000, 120.444, -31.0568, 120.587, -150.874, 121.274, 89.0945, 0, 0, 8.14971, -54.1307, 8.16046, -173.948, 8.12544, 66.0206, 0.0550941, 47.0902
1, 480.00000, 120.444, -31.0568, 120.587, -150.874, 121.274, 89.0945, 0, 0, 8.14971, -54.1307, 8.16046, -173.948, 8.12544, 66.0206, 0.0550941, 47.0902
1, 540.00000, 120.444, -31.0568, 120.587, -150.874, 121.274, 89.0945, 0, 0, 8.14971, -54.1307, 8.16046, -173.948, 8.12544, 66.0206, 0.0550941, 47.0902
1, 600.00000, 120.444, -31.0568, 120.587, -150.874, 121.274, 89.0945, 0, 0, 8.14971, -54.1307, 8.16046, -173.948, 8.12544, 66.0206, 0.0550941, 47.0902
1, 660.00000, 120.444, -31.0568, 120.587, -150.874, 121.274, 89.0945, 0, 0, 8.14971, -54.1307, 8.16046, -173.948, 8.12544, 66.0206, 0.0550941, 47.0902
1, 720.00000, 120.444, -31.0568, 120.587, -150.874, 121.274, 89.0945, 0, 0, 8.14971, -54.1307, 8.16046, -173.948, 8.12544, 66.0206, 0.0550941, 47.0902
1, 780.00000, 120.444, -31.0568, 120.587, -150.874, 121.274, 89.0945, 0, 0, 8.14971, -54.1307, 8.16046, -173.948, 8.12544, 66.0206, 0.0550941, 47.0902
1, 840.00000, 120.444, -31.0568, 120.587, -150.874, 121.274, 89.0945, 0, 0, 8.14971, -54.1307, 8.16046, -173.948, 8.12544, 66.0206, 0.0550941, 47.0902
1, 900.00000, 120.444, -31.0568, 120.587, -150.874, 121.274, 89.0945, 0, 0, 8.14971, -54.1307, 8.16046, -173.948, 8.12544, 66.0206, 0.0550941, 47.0902
1, 960.00000, 120.47, -31.0522, 120.612, -150.87, 121.301, 89.0994, 0, 0, 8.11345, -54.1267, 8.12404, -173.944, 8.08586, 66.0251, 0.0580372, 48.1993
1, 1020.00000, 120.47, -31.0522, 120.612, -150.871, 121.302, 89.0995, 0, 0, 8.1135, -54.1261, 8.12413, -173.944, 8.08557, 66.0255, 0.0583061, 48.2151
1, 1080.00000, 120.47, -31.0522, 120.612, -150.871, 121.302, 89.0995, 0, 0, 8.1135, -54.1261, 8.12413, -173.944, 8.08556, 66.0255, 0.0583093, 48.2142
1, 1140.00000, 120.47, -31.0522, 120.612, -150.871, 121.302, 89.0995, 0, 0, 8.1135, -54.1261, 8.12413, -173.944, 8.08556, 66.0255, 0.0583094, 48.2141
1, 1200.00000, 120.47, -31.0522, 120.612, -150.871, 121.302, 89.0995, 0, 0, 8.1135, -54.1261, 8.12413, -173.944, 8.08556, 66.0255, 0.0583094, 48.2141
1, 1260.00000, 120.47, -31.0522, 120.612, -150.871, 121.302, 89.0995, 0, 0, 8.1135, -54.1261, 8.12413, -173.944, 8.08556, 66.0255, 0.0583094, 48.2141
1, 1320.00000, 120.47, -31.0522, 120.612, -150.871, 121.302, 89.0995, 0, 0, 8.1135, -54.1261, 8.12413, -173.944, 8.08556, 66.0255, 0.0583094, 48.2141
1, 1380.00000, 120.47, -31.0522, 120.612, -150.871, 121.302, 89.0995, 0, 0, 8.1135, -54.1261, 8.12413, -173.944, 8.08556, 66.0255, 0.0583094, 48.2141
1, 1440.00000, 120.47, -31.0522, 120.612, -150.871, 121.302, 89.0995, 0, 0, 8.1135, -54.1261, 8.12413, -173.944, 8.08556, 66.0255, 0.0583094, 48.2141
1, 1500.00000, 120.47, -31.0522, 120.612, -150.871, 121.302, 89.0995, 0, 0, 8.1135, -54.1261, 8.12413, -173.944, 8.08556, 66.0255, 0.0583094, 48.2141
1, 1560.00000, 120.47, -31.0522, 120.612, -150.871, 121.302, 89.0995, 0, 0, 8.1135, -54.1261, 8.12413, -173.944, 8.08556, 66.0255, 0.0583094, 48.2141
1, 1620.00000, 120.47, -31.0522, 120.612, -150.871, 121.302, 89.0995, 0, 0, 8.1135, -54.1261, 8.12413, -173.944, 8.08556, 66.0255, 0.0583094, 48.2141
1, 1680.00000, 120.47, -31.0522, 120.612, -150.871, 121.302, 89.0995, 0, 0, 8.1135, -54.1261, 8.12413, -173.944, 8.08556, 66.0255, 0.0583094, 48.2141
1, 1740.00000, 120.47, -31.0522, 120.612, -150.871, 121.302, 89.0995, 0, 0, 8.1135, -54.1261, 8.12413, -173.944, 8.08556, 66.0255, 0.0583094, 48.2141
1, 1800.00000, 120.47, -31.0522, 120.612, -150.871, 121.302, 89.0995, 0, 0, 8.1135, -54.1261, 8.12413, -173.944, 8.08556, 66.0255, 0.0583094, 48.2141
1, 1860.00000, 120.233, -31.0746, 120.386, -150.885, 121.054, 89.0759, 0, 0, 8.29105, -54.1481, 8.30279, -173.96, 8.2973, 66.0023, 0.0295943, 27.752
1, 1920.00000, 120.233, -31.0746, 120.386, -150.885, 121.053, 89.0759, 0, 0, 8.29108, -54.1486, 8.30278, -173.959, 8.29758, 66.002, 0.0294092, 27.6883
1, 1980.00000, 120.233, -31.0746, 120.386, -150.885, 121.053, 89.0759, 0, 0, 8.29108, -54.1486, 8.30278, -173.959, 8.29758, 66.002, 0.0294064, 27.6883
1, 2040.00000, 120.233, -31.0746, 120.386, -150.885, 121.053, 89.0759, 0, 0, 8.29108, -54.1486, 8.30278, -173.959, 8.29758, 66.002, 0.0294063, 27.6883
1, 2100.00000, 120.233, -31.0746, 120.386, -150.885, 121.053, 89.0759, 0, 0, 8.29108, -54.1486, 8.30278, -173.959, 8.29758, 66.002, 0.0294063, 27.6883
1, 2160.00000, 120.233, -31.0746, 120.386, -150.885, 121.053, 89.0759, 0, 0, 8.29108, -54.1486, 8.30278, -173.959, 8.29758, 66.002, 0.0294063, 27.6883
1, 2220.00000, 120.233, -31.0746, 120.386, -150.885, 121.053, 89.0759, 0, 0, 8.29108, -54.1486, 8.30278, -173.959, 8.29758, 66.002, 0.0294063, 27.6883
1, 2280.00000, 120.233, -31.0746, 120.386, -150.885, 121.053, 89.0759, 0, 0, 8.29108, -54.1486, 8.30278, -173.959, 8.29758, 66.002, 0.0294063, 27.6883
1, 2340.00000, 120.233, -31.0746, 120.386, -150.885, 121.053, 89.0759, 0, 0, 8.29108, -54.1486, 8.30278, -173.959, 8.29758, 66.002, 0.0294063, 27.6883
1, 2400.00000, 120.233, -31.0746, 120.386, -150.885, 121.053, 89.0759, 0, 0, 8.29108, -54.1486, 8.30278, -173.959, 8.29758, 66.002, 0.0294063, 27.6883
1, 2460.00000, 120.233, -31.0746, 120.386, -150.885, 121.053, 89.0759, 0, 0, 8.29108, -54.1486, 8.30278, -173.959, 8.29758, 66.002, 0.0294063, 27.6883
1, 2520.00000, 120.233, -31.0746, 120.386, -150.885, 121.053, 89.0759, 0, 0, 8.29108, -54.1486, 8.30278, -173.959, 8.29758, 66.002, 0.0294063, 27.6883
1, 2580.00000, 120.233, -31.0746, 120.386, -150.885, 121.053, 89.0759, 0, 0, 8.29108, -54.1486, 8.30278, -173.959, 8.29758, 66.002, 0.0294063, 27.6883
1, 2640.00000, 120.233, -31.0746, 120.386, -150.885, 121.053, 89.0759, 0, 0, 8.29108, -54.1486, 8.30278, -173.959, 8.29758, 66.002, 0.0294063, 27.6883
1, 2700.00000, 120.233, -31.0746, 120.386, -150.885, 121.053, 89.0759, 0, 0, 8.29108, -54.1486, 8.30278, -173.959, 8.29758, 66.002, 0.0294063, 27.6883
1, 2760.00000, 120.695, -31.0296, 120.839, -150.852, 121.532, 89.1266, 0, 0, 7.84202, -54.104, 7.83289, -173.925, 7.78844, 66.052, 0.0701712, 65.0428
1, 2820.00000, 120.695, -31.0296, 120.839, -150.852, 121.533, 89.1267, 0, 0, 7.84204, -54.1035, 7.8327, -173.926, 7.78799, 66.0528, 0.0704147, 65.0895
1, 2880.00000, 120.695, -31.0296, 120.839, -150.852, 121.533, 89.1267, 0, 0, 7.84204, -54.1035, 7.8327, -173.926, 7.78798, 66.0528, 0.0704199, 65.0905
1, 2940.00000, 120.695, -31.0296, 120.839, -150.852, 121.533, 89.1267, 0, 0, 7.84204, -54.1035, 7.8327, -173.926, 7.78798, 66.0528, 0.07042, 65.0905
1, 3000.00000, 120.695, -31.0296, 120.839, -150.852, 121.533, 89.1267, 0, 0, 7.84204, -54.1035, 7.8327, -173.926, 7.78798, 66.0528, 0.07042, 65.0905
1, 3060.00000, 120.695, -31.0296, 120.839, -150.852, 121.533, 89.1267, 0, 0, 7.84204, -54.1035, 7.8327, -173.926, 7.78798, 66.0528, 0.07042, 65.0905
1, 3120.00000, 120.695, -31.0296, 120.839, -150.852, 121.533, 89.1267, 0, 0, 7.84204, -54.1035, 7.8327, -173.926, 7.78798, 66.0528, 0.07042, 65.0905
1, 3180.00000, 120.695, -31.0296, 120.839, -150.852, 121.533, 89.1267, 0, 0, 7.84204, -54.1035, 7.8327, -173.926, 7.78798, 66.0528, 0.07042, 65.0905
1, 3240.00000, 120.695, -31.0296, 120.839, -150.852, 121.533, 89.1267, 0, 0, 7.84204, -54.1035, 7.8327, -173.926, 7.78798, 66.0528, 0.07042, 65.0905
1, 3300.00000, 120.695, -31.0296, 120.839, -150.852, 121.533, 89.1267, 0, 0, 7.84204, -54.1035, 7.8327, -173.926, 7.78798, 66.0528, 0.07042, 65.0905
1, 3360.00000, 120.695, -31.0296, 120.839, -150.852, 121.533, 89.1267, 0, 0, 7.84204, -54.1035, 7.8327, -173.926, 7.78798, 66.0528, 0.07042, 65.0905
1, 3420.00000, 120.695, -31.0296, 120.839, -150.852, 121.533, 89.1267, 0, 0, 7.84204, -54.1035, 7.8327, -173.926, 7.78798, 66.0528, 0.07042, 65.0905
1, 3480.00000, 120.695, -31.0296, 120.839, -150.852, 121.533, 89.1267, 0, 0, 7.84204, -54.1035, 7.8327, -173.926, 7.78798, 66.0528, 0.07042, 65.0905
1, 3540.00000, 120.695, -31.0296, 120.839, -150.852, 121.533, 89.1267, 0, 0, 7.84204, -54.1035, 7.8327, -173.926, 7.78798, 66.0528, 0.07042, 65.0905
2, 0.00000, 120.695, -31.0296, 120.839, -150.852, 121.533, 89.1267, 0, 0, 7.84204, -54.1035, 7.8327, -173.926, 7.78798, 66.0528, 0.07042, 65.0905
2, 60.00000, 120.412, -31.0558, 120.557, -150.873, 121.243, 89.0958, 0, 0, 8.03557, -54.1293, 8.04636, -173.947, 8.01582, 66.0223, 0.0505402, 45.3512
2, 120.00000, 120.412, -31.0558, 120.557, -150.873, 121.242, 89.0958, 0, 0, 8.0356, -54.1297, 8.04632, -173.946, 8.01612, 66.0219, 0.0503161, 45.3954
2, 180.00000, 120.412, -31.0558, 120.557, -150.873, 121.242, 89.0958, 0, 0, 8.0356, -54.1298, 8.04632, -173.946, 8.01613, 66.0219, 0.0503132, 45.3965
2, 240.00000, 120.412, -31.0558, 120.557, -150.873, 121.242, 89.0958, 0, 0, 8.0356, -54.1298, 8.04632, -173.946, 8.01613, 66.0219, 0.0503131, 45.3965
2, 300.00000, 120.412, -31.0558, 120.557, -150.873, 121.242, 89.0958, 0, 0, 8.0356, -54.1298, 8.04632, -173.946, 8.01613, 66.0219, 0.0503131, 45.3965
2, 360.00000, 120.412, -31.0558, 120.557, -150.873, 121.242, 89.0958, 0, 0, 8.0356, -54.1298, 8.04632, -173.946, 8.01613, 66.0219, 0.0503131, 45.3965
2, 420.00000, 120.412, -31.0558, 120.557, -150.873, 121.242, 89.0958, 0, 0, 8.0356, -54.1298, 8.04632, -173.946, 8.01613, 66.0219, 0.0503131, 45.3965
2, 480.00000, 120.412, -31.0558, 120.557, -150.873, 121.242, 89.0958, 0, 0, 8.0356, -54.1298, 8.04632, -173.946, 8.01613, 66.0219, 0.0503131, 45.3965
2, 540.00000, 120.412, -31.0558, 120.557, -150.873, 121.242, 89.0958, 0, 0, 8.0356, -54.1298, 8.04632, -173.946, 8.01613, 66.0219, 0.0503131, 45.3965
2, 600.00000, 120.412, -31.0558, 120.557, -150.873, 121.242, 89.0958, 0, 0, 8.0356, -54.1298, 8.04632, -173.946, 8.01613, 66.0219, 0.0503131, 45.3965
2, 660.00000, 120.412, -31.0558, 120.557, -150.873, 121.242, 89.0958, 0, 0, 8.0356, -54.1298, 8.04632, -173.946, 8.01613, 66.0219, 0.0503131, 45.3965
2, 720.00000, 120.412, -31.0558, 120.557, -150.873, 121.242, 89.0958, 0, 0, 8.0356, -54.1298, 8.04632, -173.946, 8.01613, 66.0219, 0.0503131, 45.3965
