hour,t(sec),V1,VAngle1,V2,VAngle2,V3,VAngle3,V4,VAngle4,I1,IAngle1,I2,IAngle2,I3,IAngle3,I4,IAngle4
0, 60.00000, 118.443, -32.5141, 115.672, -152.174, 118.307, 89.1304, 0, 0, 8.33568, -55.5879, 8.11902, -175.248, 8.32481, 66.0571, 0.058936, -88.2053
0, 120.00000, 118.446, -32.5284, 115.671, -152.174, 118.336, 89.1248, 0, 0, 8.33593, -55.6021, 8.11897, -175.248, 8.32708, 66.0514, 0.0593786, -88.3715
0, 180.00000, 118.449, -32.5412, 115.671, -152.175, 118.362, 89.1197, 0, 0, 8.33615, -55.6149, 8.11892, -175.249, 8.32912, 66.0463, 0.0597772, -88.5191
0, 240.00000, 118.451, -32.5527, 115.67, -152.175, 118.385, 89.1151, 0, 0, 8.33634, -55.6265, 8.11887, -175.249, 8.33096, 66.0416, 0.0601363, -88.6502
0, 300.00000, 118.454, -32.5631, 115.67, -152.176, 118.406, 89.1109, 0, 0, 8.33652, -55.6368, 8.11883, -175.249, 8.33262, 66.0374, 0.06046, -88.7668
0, 360.00000, 118.456, -32.5724, 115.669, -152.176, 118.426, 89.1072, 0, 0, 8.33667, -55.6462, 8.1188, -175.25, 8.33411, 66.0337, 0.0607551, -88.8718
0, 420.00000, 118.458, -32.5808, 115.669, -152.176, 118.443, 89.1038, 0, 0, 8.33681, -55.6546, 8.11876, -175.25, 8.33546, 66.0303, 0.0610301, -88.9683
0, 480.00000, 119.525, -32.4988, 116.617, -152.108, 119.487, 89.2109, 0, 0, 7.32562, -55.5726, 7.12782, -175.182, 7.32286, 66.1373, 0.0557032, -91.476
0, 540.00000, 119.527, -32.5056, 116.616, -152.108, 119.501, 89.2082, 0, 0, 7.32572, -55.5794, 7.12779, -175.182, 7.32385, 66.1345, 0.0559411, -91.5566
0, 600.00000, 119.528, -32.5118, 116.616, -152.109, 119.514, 89.2057, 0, 0, 7.32581, -55.5856, 7.12776, -175.182, 7.32475, 66.132, 0.0561623, -91.6305
0, 660.00000, 119.529, -32.5173, 116.616, -152.109, 119.526, 89.2035, 0, 0, 7.32589, -55.5911, 7.12774, -175.183, 7.32557, 66.1298, 0.0563616, -91.6965
0, 720.00000, 119.53, -32.5222, 116.615, -152.109, 119.537, 89.2015, 0, 0, 7.32596, -55.5961, 7.12772, -175.183, 7.3263, 66.1278, 0.056541, -91.7556
0, 780.00000, 119.531, -32.5267, 116.615, -152.109, 119.546, 89.1997, 0, 0, 7.32602, -55.6006, 7.1277, -175.183, 7.32695, 66.126, 0.0567026, -91.8083
0, 840.00000, 119.532, -32.5308, 116.615, -152.109, 119.555, 89.1981, 0, 0, 7.32608, -55.6046, 7.12768, -175.183, 7.32755, 66.1244, 0.056848, -91.8556
0, 900.00000, 119.533, -32.5344, 116.615, -152.11, 119.563, 89.1967, 0, 0, 7.32613, -55.6082, 7.12766, -175.183, 7.32808, 66.1229, 0.056979, -91.8979
0, 960.00000, 119.115, -32.8638, 115.835, -152.115, 119.604, 89.1741, 0, 0, 7.29769, -55.9376, 7.07462, -175.189, 7.33088, 66.1004, 0.0637875, -96.9453
0, 1020.00000, 119.115, -32.8667, 115.834, -152.115, 119.61, 89.173, 0, 0, 7.29773, -55.9406, 7.0746, -175.189, 7.33131, 66.0992, 0.0638953, -96.9655
0, 1080.00000, 119.116, -32.8693, 115.834, -152.115, 119.616, 89.1719, 0, 0, 7.29776, -55.9432, 7.07459, -175.189, 7.33169, 66.0981, 0.0639935, -96.9839
0, 1140.00000, 119.204, -32.7372, 116.118, -152.079, 119.617, 89.1756, 0, 0, 7.30377, -55.811, 7.09392, -175.152, 7.33177, 66.1018, 0.0623879, -95.3409
0, 1200.00000, 119.205, -32.7393, 116.118, -152.079, 119.621, 89.1748, 0, 0, 7.30379, -55.8132, 7.09391, -175.152, 7.33208, 66.1009, 0.0624668, -95.3583
0, 1260.00000, 119.205, -32.7412, 116.118, -152.079, 119.625, 89.174, 0, 0, 7.30382, -55.8151, 7.0939, -175.153, 7.33236, 66.1002, 0.062538, -95.3738
0, 1320.00000, 119.205, -32.7429, 116.118, -152.079, 119.629, 89.1733, 0, 0, 7.30384, -55.8168, 7.0939, -175.153, 7.33261, 66.0994, 0.0626021, -95.3878
0, 1380.00000, 119.206, -32.7445, 116.118, -152.079, 119.632, 89.1727, 0, 0, 7.30386, -55.8184, 7.09389, -175.153, 7.33284, 66.0988, 0.0626598, -95.4003
0, 1440.00000, 119.206, -32.7459, 116.118, -152.079, 119.635, 89.1721, 0, 0, 7.30388, -55.8198, 7.09389, -175.153, 7.33305, 66.0982, 0.0627118, -95.4116
0, 1500.00000, 119.206, -32.7472, 116.118, -152.079, 119.638, 89.1716, 0, 0, 7.3039, -55.8211, 7.09388, -175.153, 7.33323, 66.0977, 0.0627585, -95.4217
0, 1560.00000, 119.207, -32.7483, 116.118, -152.079, 119.641, 89.1711, 0, 0, 7.30391, -55.8222, 7.09388, -175.153, 7.3334, 66.0973, 0.0628006, -95.4308
0, 1620.00000, 119.207, -32.7493, 116.118, -152.079, 119.643, 89.1707, 0, 0, 7.30392, -55.8232, 7.09387, -175.153, 7.33355, 66.0968, 0.0628385, -95.4389
0, 1680.00000, 119.207, -32.7502, 116.118, -152.079, 119.645, 89.1703, 0, 0, 7.30394, -55.8242, 7.09387, -175.153, 7.33368, 66.0965, 0.0628725, -95.4463
0, 1740.00000, 119.207, -32.7511, 116.118, -152.079, 119.646, 89.17, 0, 0, 7.30395, -55.825, 7.09387, -175.153, 7.33381, 66.0961, 0.0629032, -95.4529
0, 1800.00000, 118.601, -32.706, 116.116, -152.069, 119.2, 88.9489, 0, 0, 7.26276, -55.7799, 7.09377, -175.143, 7.30342, 65.875, 0.0594101, -91.1502
0, 1860.00000, 118.602, -32.7067, 116.116, -152.069, 119.201, 88.9487, 0, 0, 7.26277, -55.7806, 7.09377, -175.143, 7.30351, 65.8748, 0.0594307, -91.1568
0, 1920.00000, 118.602, -32.7073, 116.116, -152.069, 119.202, 88.9484, 0, 0, 7.26278, -55.7812, 7.09377, -175.143, 7.3036, 65.8745, 0.0594502, -91.1629
0, 1980.00000, 118.602, -32.7078, 116.116, -152.069, 119.203, 88.9482, 0, 0, 7.26278, -55.7817, 7.09377, -175.143, 7.30367, 65.8743, 0.0594677, -91.1685
0, 2040.00000, 118.602, -32.7083, 116.116, -152.069, 119.204, 88.948, 0, 0, 7.26279, -55.7822, 7.09377, -175.143, 7.30374, 65.8741, 0.0594835, -91.1734
0, 2100.00000, 118.602, -32.7087, 116.116, -152.069, 119.205, 88.9478, 0, 0, 7.2628, -55.7827, 7.09376, -175.143, 7.30381, 65.8739, 0.0594977, -91.1779
0, 2160.00000, 118.602, -32.7091, 116.116, -152.069, 119.206, 88.9477, 0, 0, 7.2628, -55.7831, 7.09376, -175.143, 7.30386, 65.8738, 0.0595105, -91.1819
0, 2220.00000, 118.602, -32.7095, 116.116, -152.069, 119.207, 88.9475, 0, 0, 7.26281, -55.7834, 7.09376, -175.143, 7.30391, 65.8736, 0.059522, -91.1856
0, 2280.00000, 118.602, -32.7098, 116.116, -152.069, 119.207, 88.9474, 0, 0, 7.26281, -55.7837, 7.09376, -175.143, 7.30396, 65.8735, 0.0595323, -91.1888
0, 2340.00000, 118.602, -32.7101, 116.116, -152.069, 119.208, 88.9473, 0, 0, 7.26282, -55.784, 7.09376, -175.143, 7.304, 65.8734, 0.0595417, -91.1917
0, 2400.00000, 118.602, -32.7104, 116.116, -152.069, 119.209, 88.9472, 0, 0, 7.26282, -55.7843, 7.09376, -175.143, 7.30404, 65.8733, 0.05955, -91.1944
0, 2460.00000, 118.602, -32.7106, 116.116, -152.069, 119.209, 88.9471, 0, 0, 7.26282, -55.7845, 7.09376, -175.143, 7.30407, 65.8732, 0.0595576, -91.1968
0, 2520.00000, 118.602, -32.7108, 116.116, -152.069, 119.209, 88.947, 0, 0, 7.26283, -55.7847, 7.09376, -175.143, 7.3041, 65.8731, 0.0595644, -91.1989
0, 2580.00000, 118.602, -32.711, 116.116, -152.069, 119.21, 88.947, 0, 0, 7.26283, -55.7849, 7.09376, -175.143, 7.30413, 65.873, 0.0595705, -91.2008
0, 2640.00000, 118.603, -32.7111, 116.116, -152.069, 119.21, 88.9469, 0, 0, 7.26283, -55.7851, 7.09376, -175.143, 7.30415, 65.873, 0.059576, -91.2026
0, 2700.00000, 118.603, -32.7113, 116.116, -152.069, 119.211, 88.9468, 0, 0, 7.26283, -55.7852, 7.09376, -175.143, 7.30417, 65.8729, 0.0595809, -91.2041
0, 2760.00000, 118.908, -32.6789, 116.118, -152.072, 119.332, 89.0817, 0, 0, 7.28363, -55.7529, 7.09389, -175.146, 7.31243, 66.0078, 0.0596661, -93.6962
0, 2820.00000, 118.908, -32.6791, 116.118, -152.072, 119.332, 89.0817, 0, 0, 7.28363, -55.753, 7.09388, -175.146, 7.31245, 66.0078, 0.0596755, -93.6988
0, 2880.00000, 118.908, -32.6792, 116.118, -152.072, 119.333, 89.0816, 0, 0, 7.28364, -55.7531, 7.09388, -175.146, 7.31247, 66.0077, 0.0596792, -93.6998
0, 2940.00000, 118.909, -32.6793, 116.118, -152.072, 119.333, 89.0816, 0, 0, 7.28364, -55.7532, 7.09388, -175.146, 7.31248, 66.0077, 0.0596825, -93.7006
0, 3000.00000, 118.909, -32.6794, 116.118, -152.072, 119.333, 89.0816, 0, 0, 7.28364, -55.7533, 7.09388, -175.146, 7.3125, 66.0077, 0.0596855, -93.7014
0, 3060.00000, 118.909, -32.6795, 116.118, -152.072, 119.333, 89.0815, 0, 0, 7.28364, -55.7534, 7.09388, -175.146, 7.31251, 66.0076, 0.0596882, -93.7021
0, 3120.00000, 118.909, -32.6795, 116.118, -152.072, 119.333, 89.0815, 0, 0, 7.28364, -55.7534, 7.09388, -175.146, 7.31252, 66.0076, 0.0596907, -93.7028
0, 3180.00000, 118.909, -32.6796, 116.118, -152.072, 119.333, 89.0815, 0, 0, 7.28364, -55.7535, 7.09388, -175.146, 7.31253, 66.0076, 0.0596929, -93.7034
0, 3240.00000, 118.909, -32.6796, 116.118, -152.072, 119.334, 89.0815, 0, 0, 7.28364, -55.7536, 7.09388, -175.146, 7.31254, 66.0075, 0.0596949, -93.7039
0, 3300.00000, 118.909, -32.6797, 116.118, -152.072, 119.334, 89.0814, 0, 0, 7.28364, -55.7536, 7.09388, -175.146, 7.31255, 66.0075, 0.0596966, -93.7044
0, 3360.00000, 118.909, -32.6797, 116.118, -152.072, 119.334, 89.0814, 0, 0, 7.28364, -55.7537, 7.09388, -175.146, 7.31255, 66.0075, 0.0596982, -93.7048
0, 3420.00000, 118.909, -32.6798, 116.118, -152.072, 119.334, 89.0814, 0, 0, 7.28364, -55.7537, 7.09388, -175.146, 7.31256, 66.0075, 0.0596997, -93.7052
0, 3480.00000, 118.909, -32.6798, 116.118, -152.072, 119.334, 89.0814, 0, 0, 7.28364, -55.7537, 7.09388, -175.146, 7.31256, 66.0075, 0.059701, -93.7055
0, 3540.00000, 118.909, -32.6799, 116.118, -152.072, 119.334, 89.0814, 0, 0, 7.28365, -55.7538, 7.09388, -175.146, 7.31257, 66.0075, 0.0597021, -93.7058
1, 0.00000, 118.909, -32.6799, 116.118, -152.072, 119.334, 89.0814, 0, 0, 7.28365, -55.7538, 7.09388, -175.146, 7.31257, 66.0074, 0.0597032, -93.7061
1, 60.00000, 118.993, -32.5492, 116.395, -152.037, 119.33, 89.0858, 0, 0, 7.28939, -55.6231, 7.1127, -175.111, 7.31233, 66.0118, 0.0583692, -91.7945
1, 120.00000, 118.993, -32.5492, 116.395, -152.037, 119.33, 89.0857, 0, 0, 7.28939, -55.6232, 7.1127, -175.111, 7.31233, 66.0118, 0.05837, -91.7948
1, 180.00000, 118.993, -32.5493, 116.395, -152.037, 119.331, 89.0857, 0, 0, 7.28939, -55.6232, 7.1127, -175.111, 7.31233, 66.0118, 0.0583708, -91.7951
1, 240.00000, 118.993, -32.5493, 116.395, -152.037, 119.331, 89.0857, 0, 0, 7.28939, -55.6232, 7.1127, -175.111, 7.31234, 66.0118, 0.0583714, -91.7953
1, 300.00000, 118.993, -32.5493, 116.395, -152.037, 119.331, 89.0857, 0, 0, 7.28939, -55.6232, 7.1127, -175.111, 7.31234, 66.0118, 0.0583721, -91.7955
1, 360.00000, 118.993, -32.5493, 116.395, -152.037, 119.331, 89.0857, 0, 0, 7.28939, -55.6232, 7.1127, -175.111, 7.31234, 66.0118, 0.0583726, -91.7956
1, 420.00000, 118.993, -32.5493, 116.395, -152.037, 119.331, 89.0857, 0, 0, 7.28939, -55.6233, 7.1127, -175.111, 7.31234, 66.0118, 0.0583731, -91.7958
1, 480.00000, 118.993, -32.5494, 116.395, -152.037, 119.331, 89.0857, 0, 0, 7.2894, -55.6233, 7.1127, -175.111, 7.31235, 66.0118, 0.0583736, -91.7959
1, 540.00000, 118.993, -32.5494, 116.395, -152.037, 119.331, 89.0857, 0, 0, 7.2894, -55.6233, 7.1127, -175.111, 7.31235, 66.0118, 0.058374, -91.796
1, 600.00000, 118.993, -32.5494, 116.395, -152.037, 119.331, 89.0857, 0, 0, 7.2894, -55.6233, 7.1127, -175.111, 7.31235, 66.0118, 0.0583743, -91.7962
1, 660.00000, 118.993, -32.5494, 116.395, -152.037, 119.331, 89.0857, 0, 0, 7.2894, -55.6233, 7.1127, -175.111, 7.31235, 66.0118, 0.0583746, -91.7962
1, 720.00000, 118.993, -32.5494, 116.395, -152.037, 119.331, 89.0857, 0, 0, 7.2894, -55.6233, 7.1127, -175.111, 7.31235, 66.0118, 0.0583749, -91.7963
1, 780.00000, 119.087, -32.5529, 117.818, -151.594, 120.942, 88.6913, 0, 0, 7.29575, -55.6268, 7.20947, -174.668, 7.38625, 65.6174, 0.0371776, -74.4185
1, 840.00000, 119.087, -32.5529, 117.818, -151.594, 120.942, 88.6913, 0, 0, 7.29575, -55.6268, 7.20947, -174.668, 7.38625, 65.6174, 0.0371752, -74.4118
1, 900.00000, 119.087, -32.5529, 117.818, -151.594, 120.943, 88.6913, 0, 0, 7.29575, -55.6268, 7.20947, -174.668, 7.38625, 65.6174, 0.037174, -74.4101
1, 960.00000, 119.087, -32.5529, 117.818, -151.594, 120.943, 88.6913, 0, 0, 7.29575, -55.6269, 7.20947, -174.668, 7.38624, 65.6174, 0.0371729, -74.4086
1, 1020.00000, 119.087, -32.5529, 117.818, -151.594, 120.943, 88.6913, 0, 0, 7.29575, -55.6269, 7.20947, -174.668, 7.38624, 65.6174, 0.0371719, -74.4073
1, 1080.00000, 119.087, -32.5529, 117.818, -151.594, 120.943, 88.6913, 0, 0, 7.29575, -55.6269, 7.20947, -174.668, 7.38624, 65.6174, 0.0371711, -74.4061
1, 1140.00000, 119.087, -32.5529, 117.818, -151.594, 120.943, 88.6913, 0, 0, 7.29575, -55.6269, 7.20947, -174.668, 7.38624, 65.6174, 0.0371703, -74.405
1, 1200.00000, 119.087, -32.553, 117.818, -151.594, 120.943, 88.6913, 0, 0, 7.29575, -55.6269, 7.20947, -174.668, 7.38624, 65.6174, 0.0371696, -74.404
1, 1260.00000, 119.087, -32.553, 117.818, -151.594, 120.943, 88.6913, 0, 0, 7.29575, -55.6269, 7.20947, -174.668, 7.38624, 65.6174, 0.0371689, -74.4031
1, 1320.00000, 119.087, -32.553, 117.818, -151.594, 120.943, 88.6913, 0, 0, 7.29575, -55.6269, 7.20947, -174.668, 7.38624, 65.6174, 0.0371684, -74.4023
1, 1380.00000, 119.087, -32.553, 117.818, -151.594, 120.943, 88.6913, 0, 0, 7.29575, -55.6269, 7.20947, -174.668, 7.38624, 65.6174, 0.0371679, -74.4016
1, 1440.00000, 119.087, -32.553, 117.818, -151.594, 120.943, 88.6913, 0, 0, 7.29575, -55.6269, 7.20947, -174.668, 7.38624, 65.6174, 0.0371674, -74.401
1, 1500.00000, 119.087, -32.553, 117.818, -151.594, 120.943, 88.6913, 0, 0, 7.29575, -55.6269, 7.20947, -174.668, 7.38624, 65.6174, 0.037167, -74.4004
1, 1560.00000, 119.087, -32.553, 117.818, -151.594, 120.943, 88.6913, 0, 0, 7.29575, -55.6269, 7.20947, -174.668, 7.38624, 65.6174, 0.0371666, -74.3999
1, 1620.00000, 119.087, -32.553, 117.818, -151.594, 120.943, 88.6913, 0, 0, 7.29575, -55.6269, 7.20947, -174.668, 7.38624, 65.6174, 0.0371663, -74.3994
1, 1680.00000, 119.087, -32.553, 117.818, -151.594, 120.943, 88.6913, 0, 0, 7.29575, -55.6269, 7.20947, -174.668, 7.38624, 65.6174, 0.037166, -74.399
1, 1740.00000, 119.087, -32.553, 117.818, -151.594, 120.943, 88.6913, 0, 0, 7.29575, -55.6269, 7.20947, -174.668, 7.38624, 65.6174, 0.0371657, -74.3986
1, 1800.00000, 119.087, -32.553, 117.818, -151.594, 120.943, 88.6913, 0, 0, 7.29575, -55.6269, 7.20947, -174.668, 7.38624, 65.6174, 0.0371655, -74.3982
1, 1860.00000, 119.087, -32.553, 117.818, -151.594, 120.943, 88.6913, 0, 0, 7.29575, -55.6269, 7.20947, -174.668, 7.38624, 65.6174, 0.0371652, -74.3979
1, 1920.00000, 119.087, -32.553, 117.818, -151.594, 120.943, 88.6913, 0, 0, 7.29575, -55.6269, 7.20947, -174.668, 7.38624, 65.6174, 0.037165, -74.3977
1, 1980.00000, 119.087, -32.553, 117.818, -151.594, 120.943, 88.6913, 0, 0, 7.29575, -55.6269, 7.20947, -174.668, 7.38624, 65.6174, 0.0371649, -74.3974
1, 2040.00000, 119.087, -32.553, 117.818, -151.594, 120.943, 88.6913, 0, 0, 7.29575, -55.6269, 7.20947, -174.668, 7.38624, 65.6174, 0.0371647, -74.3972
1, 2100.00000, 119.087, -32.553, 117.818, -151.594, 120.943, 88.6913, 0, 0, 7.29575, -55.6269, 7.20947, -174.668, 7.38624, 65.6174, 0.0371645, -74.397
1, 2160.00000, 119.087, -32.553, 117.818, -151.594, 120.943, 88.6913, 0, 0, 7.29575, -55.6269, 7.20947, -174.668, 7.38624, 65.6174, 0.0371644, -74.3968
1, 2220.00000, 119.684, -32.5941, 117.814, -151.609, 121.439, 88.9125, 0, 0, 7.3364, -55.668, 7.2092, -174.683, 7.35608, 65.8386, 0.0330502, 26.2649
1, 2280.00000, 119.684, -32.5941, 117.814, -151.609, 121.439, 88.9125, 0, 0, 7.3364, -55.668, 7.2092, -174.683, 7.35608, 65.8386, 0.0330545, 26.2656
1, 2340.00000, 119.684, -32.5941, 117.814, -151.609, 121.439, 88.9125, 0, 0, 7.3364, -55.668, 7.2092, -174.683, 7.35608, 65.8386, 0.0330546, 26.2657
1, 2400.00000, 119.684, -32.5941, 117.814, -151.609, 121.439, 88.9125, 0, 0, 7.3364, -55.668, 7.2092, -174.683, 7.35608, 65.8386, 0.0330547, 26.2658
1, 2460.00000, 119.684, -32.5941, 117.814, -151.609, 121.439, 88.9125, 0, 0, 7.3364, -55.668, 7.2092, -174.683, 7.35608, 65.8386, 0.0330548, 26.2659
1, 2520.00000, 119.684, -32.5941, 117.814, -151.609, 121.439, 88.9125, 0, 0, 7.3364, -55.668, 7.2092, -174.683, 7.35608, 65.8386, 0.0330549, 26.266
1, 2580.00000, 119.684, -32.5941, 117.814, -151.609, 121.439, 88.9125, 0, 0, 7.3364, -55.668, 7.2092, -174.683, 7.35608, 65.8386, 0.0330549, 26.2661
1, 2640.00000, 119.684, -32.5941, 117.814, -151.609, 121.439, 88.9125, 0, 0, 7.3364, -55.668, 7.2092, -174.683, 7.35608, 65.8386, 0.033055, 26.2662
1, 2700.00000, 119.684, -32.5941, 117.814, -151.609, 121.439, 88.9125, 0, 0, 7.3364, -55.668, 7.2092, -174.683, 7.35608, 65.8386, 0.033055, 26.2663
1, 2760.00000, 119.684, -32.5941, 117.814, -151.609, 121.439, 88.9125, 0, 0, 7.3364, -55.668, 7.2092, -174.683, 7.35608, 65.8386, 0.0330551, 26.2663
1, 2820.00000, 119.684, -32.5941, 117.814, -151.609, 121.439, 88.9125, 0, 0, 7.3364, -55.668, 7.2092, -174.683, 7.35608, 65.8386, 0.0330551, 26.2664
1, 2880.00000, 119.684, -32.5941, 117.814, -151.609, 121.439, 88.9125, 0, 0, 7.3364, -55.668, 7.2092, -174.683, 7.35608, 65.8386, 0.0330552, 26.2664
1, 2940.00000, 119.684, -32.5941, 117.814, -151.609, 121.439, 88.9125, 0, 0, 7.3364, -55.668, 7.2092, -174.683, 7.35608, 65.8386, 0.0330552, 26.2665
1, 3000.00000, 119.684, -32.5941, 117.814, -151.609, 121.439, 88.9125, 0, 0, 7.3364, -55.668, 7.2092, -174.683, 7.35608, 65.8386, 0.0330552, 26.2665
1, 3060.00000, 119.684, -32.5941, 117.814, -151.609, 121.439, 88.9125, 0, 0, 7.3364, -55.668, 7.2092, -174.683, 7.35608, 65.8386, 0.0330553, 26.2666
1, 3120.00000, 119.684, -32.5941, 117.814, -151.609, 121.439, 88.9125, 0, 0, 7.3364, -55.668, 7.2092, -174.683, 7.35608, 65.8386, 0.0330553, 26.2666
1, 3180.00000, 119.684, -32.5941, 117.814, -151.609, 121.439, 88.9125, 0, 0, 7.3364, -55.668, 7.2092, -174.683, 7.35608, 65.8386, 0.0330553, 26.2666
1, 3240.00000, 119.684, -32.5941, 117.814, -151.609, 121.439, 88.9125, 0, 0, 7.3364, -55.668, 7.2092, -174.683, 7.35608, 65.8386, 0.0330553, 26.2667
1, 3300.00000, 119.684, -32.5941, 117.814, -151.609, 121.439, 88.9125, 0, 0, 7.3364, -55.668, 7.2092, -174.683, 7.35608, 65.8386, 0.0330554, 26.2667
1, 3360.00000, 119.684, -32.5941, 117.814, -151.609, 121.439, 88.9125, 0, 0, 7.3364, -55.668, 7.2092, -174.683, 7.35608, 65.8386, 0.0330554, 26.2667
1, 3420.00000, 119.684, -32.5941, 117.814, -151.609, 121.439, 88.9125, 0, 0, 7.3364, -55.668, 7.2092, -174.683, 7.35608, 65.8386, 0.0330554, 26.2667
1, 3480.00000, 119.684, -32.5941, 117.814, -151.609, 121.439, 88.9125, 0, 0, 7.3364, -55.668, 7.2092, -174.683, 7.35608, 65.8386, 0.0330554, 26.2668
1, 3540.00000, 119.684, -32.5941, 117.814, -151.609, 121.439, 88.9125, 0, 0, 7.3364, -55.668, 7.2092, -174.683, 7.35608, 65.8386, 0.0330554, 26.2668
2, 0.00000, 119.684, -32.5941, 117.814, -151.609, 121.439, 88.9125, 0, 0, 7.3364, -55.668, 7.2092, -174.683, 7.35608, 65.8386, 0.0330554, 26.2668
2, 60.00000, 119.684, -32.5941, 117.814, -151.609, 121.439, 88.9125, 0, 0, 7.3364, -55.668, 7.2092, -174.683, 7.35608, 65.8386, 0.0330554, 26.2668
2, 120.00000, 119.684, -32.5941, 117.814, -151.609, 121.439, 88.9125, 0, 0, 7.3364, -55.668, 7.2092, -174.683, 7.35608, 65.8386, 0.0330554, 26.2668
2, 180.00000, 119.684, -32.5941, 117.814, -151.609, 121.439, 88.9125, 0, 0, 7.3364, -55.668, 7.2092, -174.683, 7.35608, 65.8386, 0.0330555, 26.2668
2, 240.00000, 119.684, -32.5941, 117.814, -151.609, 121.439, 88.9125, 0, 0, 7.3364, -55.668, 7.2092, -174.683, 7.35608, 65.8386, 0.0330555, 26.2668
2, 300.00000, 119.684, -32.5941, 117.814, -151.609, 121.439, 88.9125, 0, 0, 7.3364, -55.668, 7.2092, -174.683, 7.35608, 65.8386, 0.0330555, 26.2668
2, 360.00000, 119.684, -32.5941, 117.814, -151.609, 121.439, 88.9125, 0, 0, 7.3364, -55.668, 7.2092, -174.683, 7.35608, 65.8386, 0.0330555, 26.2669
2, 420.00000, 119.684, -32.5941, 117.814, -151.609, 121.439, 88.9125, 0, 0, 7.3364, -55.668, 7.2092, -174.683, 7.35608, 65.8386, 0.0330555, 26.2669
2, 480.00000, 119.684, -32.5941, 117.814, -151.609, 121.439, 88.9125, 0, 0, 7.3364, -55.668, 7.2092, -174.683, 7.35608, 65.8386, 0.0330555, 26.2669
2, 540.00000, 119.684, -32.5941, 117.814, -151.609, 121.439, 88.9125, 0, 0, 7.3364, -55.668, 7.2092, -174.683, 7.35608, 65.8386, 0.0330555, 26.2669
2, 600.00000, 119.684, -32.5941, 117.814, -151.609, 121.439, 88.9125, 0, 0, 7.3364, -55.668, 7.2092, -174.683, 7.35608, 65.8386, 0.0330555, 26.2669
2, 660.00000, 119.684, -32.5941, 117.814, -151.609, 121.439, 88.9125, 0, 0, 7.3364, -55.668, 7.2092, -174.683, 7.35608, 65.8386, 0.0330555, 26.2669
2, 720.00000, 119.684, -32.5941, 117.814, -151.609, 121.439, 88.9125, 0, 0, 7.3364, -55.668, 7.2092, -174.683, 7.35608, 65.8386, 0.0330555, 26.2669
