hour,t(sec),V1,VAngle1,V2,VAngle2,V3,VAngle3,V4,VAngle4,I1,IAngle1,I2,IAngle2,I3,IAngle3,I4,IAngle4
0, 60.00000, 125.635, -32.0683, 125.07, -151.733, 126.024, 88.3415, 0, 0, 12.4701, -55.142, 12.5265, -174.807, 12.4318, 65.2676, 0.164739, 27.1032
0, 120.00000, 125.642, -32.0741, 125.07, -151.733, 126.04, 88.3413, 0, 0, 12.4695, -55.1478, 12.5265, -174.807, 12.4303, 65.2674, 0.167246, 27.2694
0, 180.00000, 125.647, -32.0794, 125.07, -151.733, 126.053, 88.3411, 0, 0, 12.4689, -55.1531, 12.5265, -174.807, 12.4289, 65.2672, 0.169504, 27.4159
0, 240.00000, 125.653, -32.0841, 125.07, -151.733, 126.065, 88.3409, 0, 0, 12.4684, -55.1579, 12.5265, -174.807, 12.4277, 65.2671, 0.171537, 27.5453
0, 300.00000, 125.657, -32.0884, 125.07, -151.733, 126.076, 88.3407, 0, 0, 12.4679, -55.1621, 12.5265, -174.807, 12.4266, 65.2669, 0.173368, 27.6598
0, 360.00000, 125.662, -32.0922, 125.07, -151.733, 126.086, 88.3406, 0, 0, 12.4675, -55.166, 12.5265, -174.807, 12.4256, 65.2667, 0.175018, 27.7613
0, 420.00000, 125.665, -32.0957, 125.07, -151.733, 126.095, 88.3405, 0, 0, 12.4671, -55.1695, 12.5265, -174.807, 12.4247, 65.2666, 0.176507, 27.8514
0, 480.00000, 126.071, -31.977, 125.451, -151.611, 126.508, 88.4715, 0, 0, 10.8116, -55.0508, 10.865, -174.685, 10.7743, 65.3976, 0.156886, 27.3674
0, 540.00000, 126.074, -31.9798, 125.451, -151.611, 126.516, 88.4714, 0, 0, 10.8113, -55.0536, 10.865, -174.685, 10.7736, 65.3975, 0.157957, 27.4424
0, 600.00000, 126.077, -31.9824, 125.451, -151.611, 126.523, 88.4714, 0, 0, 10.8111, -55.0562, 10.865, -174.685, 10.773, 65.3975, 0.158924, 27.5093
0, 660.00000, 126.079, -31.9847, 125.451, -151.611, 126.529, 88.4713, 0, 0, 10.8108, -55.0585, 10.865, -174.685, 10.7725, 65.3974, 0.159795, 27.569
0, 720.00000, 126.082, -31.9868, 125.451, -151.611, 126.534, 88.4713, 0, 0, 10.8106, -55.0606, 10.865, -174.685, 10.772, 65.3974, 0.160579, 27.6223
0, 780.00000, 126.084, -31.9886, 125.451, -151.611, 126.539, 88.4713, 0, 0, 10.8105, -55.0625, 10.865, -174.685, 10.7716, 65.3973, 0.161284, 27.6699
0, 840.00000, 126.086, -31.9903, 125.451, -151.611, 126.544, 88.4712, 0, 0, 10.8103, -55.0641, 10.865, -174.685, 10.7712, 65.3973, 0.161919, 27.7125
0, 900.00000, 126.087, -31.9918, 125.451, -151.611, 126.548, 88.4712, 0, 0, 10.8102, -55.0657, 10.865, -174.685, 10.7709, 65.3973, 0.162491, 27.7507
0, 960.00000, 125.911, -32.2415, 124.888, -151.676, 126.552, 88.4669, 0, 0, 10.8253, -55.3154, 10.914, -174.75, 10.7705, 65.3929, 0.247906, 25.8034
0, 1020.00000, 125.912, -32.2428, 124.888, -151.676, 126.555, 88.4668, 0, 0, 10.8252, -55.3166, 10.914, -174.75, 10.7702, 65.3929, 0.248364, 25.8279
0, 1080.00000, 125.913, -32.2439, 124.888, -151.676, 126.558, 88.4668, 0, 0, 10.8251, -55.3177, 10.914, -174.75, 10.77, 65.3929, 0.248775, 25.8499
0, 1140.00000, 126.005, -32.1139, 125.186, -151.64, 126.56, 88.4674, 0, 0, 10.8172, -55.1877, 10.888, -174.714, 10.7698, 65.3935, 0.204048, 26.9383
0, 1200.00000, 126.006, -32.1148, 125.186, -151.64, 126.562, 88.4674, 0, 0, 10.8171, -55.1886, 10.888, -174.714, 10.7696, 65.3935, 0.204382, 26.9583
0, 1260.00000, 126.007, -32.1156, 125.186, -151.64, 126.564, 88.4674, 0, 0, 10.8171, -55.1894, 10.888, -174.714, 10.7694, 65.3934, 0.204684, 26.9762
0, 1320.00000, 126.008, -32.1163, 125.186, -151.64, 126.566, 88.4673, 0, 0, 10.817, -55.1902, 10.888, -174.714, 10.7693, 65.3934, 0.204955, 26.9923
0, 1380.00000, 126.008, -32.1169, 125.186, -151.64, 126.568, 88.4673, 0, 0, 10.8169, -55.1908, 10.888, -174.714, 10.7691, 65.3934, 0.205199, 27.0067
0, 1440.00000, 126.009, -32.1175, 125.186, -151.64, 126.569, 88.4673, 0, 0, 10.8169, -55.1914, 10.888, -174.714, 10.769, 65.3934, 0.205419, 27.0197
0, 1500.00000, 126.009, -32.118, 125.186, -151.64, 126.571, 88.4673, 0, 0, 10.8168, -55.1919, 10.888, -174.714, 10.7689, 65.3934, 0.205617, 27.0314
0, 1560.00000, 126.01, -32.1185, 125.186, -151.64, 126.572, 88.4673, 0, 0, 10.8168, -55.1924, 10.888, -174.714, 10.7688, 65.3934, 0.205795, 27.0419
0, 1620.00000, 126.01, -32.1189, 125.186, -151.64, 126.573, 88.4673, 0, 0, 10.8168, -55.1928, 10.888, -174.714, 10.7687, 65.3933, 0.205955, 27.0513
0, 1680.00000, 126.011, -32.1193, 125.186, -151.64, 126.574, 88.4672, 0, 0, 10.8167, -55.1932, 10.888, -174.714, 10.7686, 65.3933, 0.206099, 27.0598
0, 1740.00000, 126.011, -32.1197, 125.186, -151.64, 126.575, 88.4672, 0, 0, 10.8167, -55.1936, 10.888, -174.714, 10.7685, 65.3933, 0.206229, 27.0674
0, 1800.00000, 125.712, -32.1432, 125.184, -151.64, 126.45, 88.339, 0, 0, 10.8424, -55.2171, 10.8882, -174.714, 10.7792, 65.2651, 0.187945, 38.8533
0, 1860.00000, 125.713, -32.1435, 125.184, -151.64, 126.451, 88.339, 0, 0, 10.8424, -55.2174, 10.8882, -174.714, 10.7791, 65.265, 0.188049, 38.8532
0, 1920.00000, 125.713, -32.1438, 125.184, -151.64, 126.451, 88.339, 0, 0, 10.8424, -55.2177, 10.8882, -174.714, 10.7791, 65.265, 0.188143, 38.853
0, 1980.00000, 125.713, -32.144, 125.184, -151.64, 126.452, 88.3389, 0, 0, 10.8423, -55.2179, 10.8882, -174.714, 10.779, 65.265, 0.188228, 38.8529
0, 2040.00000, 125.713, -32.1442, 125.184, -151.64, 126.452, 88.3389, 0, 0, 10.8423, -55.2181, 10.8882, -174.714, 10.779, 65.265, 0.188305, 38.8528
0, 2100.00000, 125.714, -32.1444, 125.184, -151.64, 126.453, 88.3389, 0, 0, 10.8423, -55.2183, 10.8882, -174.714, 10.7789, 65.265, 0.188373, 38.8526
0, 2160.00000, 125.714, -32.1445, 125.184, -151.64, 126.453, 88.3389, 0, 0, 10.8423, -55.2184, 10.8882, -174.714, 10.7789, 65.265, 0.188435, 38.8525
0, 2220.00000, 125.714, -32.1447, 125.184, -151.64, 126.454, 88.3389, 0, 0, 10.8423, -55.2186, 10.8882, -174.714, 10.7789, 65.265, 0.188491, 38.8524
0, 2280.00000, 125.714, -32.1448, 125.184, -151.64, 126.454, 88.3389, 0, 0, 10.8423, -55.2187, 10.8882, -174.714, 10.7788, 65.265, 0.188541, 38.8524
0, 2340.00000, 125.714, -32.1449, 125.184, -151.64, 126.454, 88.3389, 0, 0, 10.8423, -55.2188, 10.8882, -174.714, 10.7788, 65.265, 0.188586, 38.8523
0, 2400.00000, 125.714, -32.145, 125.184, -151.64, 126.455, 88.3389, 0, 0, 10.8422, -55.2189, 10.8882, -174.714, 10.7788, 65.265, 0.188627, 38.8522
0, 2460.00000, 125.714, -32.1451, 125.184, -151.64, 126.455, 88.3389, 0, 0, 10.8422, -55.219, 10.8882, -174.714, 10.7788, 65.265, 0.188663, 38.8522
0, 2520.00000, 125.714, -32.1452, 125.184, -151.64, 126.455, 88.3389, 0, 0, 10.8422, -55.2191, 10.8882, -174.714, 10.7787, 65.265, 0.188696, 38.8521
0, 2580.00000, 125.715, -32.1453, 125.184, -151.64, 126.455, 88.3389, 0, 0, 10.8422, -55.2192, 10.8882, -174.714, 10.7787, 65.265, 0.188726, 38.8521
0, 2640.00000, 125.715, -32.1453, 125.184, -151.64, 126.455, 88.3389, 0, 0, 10.8422, -55.2193, 10.8882, -174.714, 10.7787, 65.265, 0.188752, 38.852
0, 2700.00000, 125.715, -32.1454, 125.184, -151.64, 126.456, 88.3389, 0, 0, 10.8422, -55.2193, 10.8882, -174.714, 10.7787, 65.265, 0.188776, 38.852
0, 2760.00000, 126.013, -32.1119, 125.185, -151.64, 126.556, 88.4683, 0, 0, 10.8165, -55.1858, 10.8881, -174.714, 10.7701, 65.3944, 0.203749, 26.6463
0, 2820.00000, 126.013, -32.112, 125.185, -151.64, 126.556, 88.4683, 0, 0, 10.8165, -55.1859, 10.8881, -174.714, 10.7701, 65.3944, 0.203771, 26.6474
0, 2880.00000, 126.013, -32.112, 125.185, -151.64, 126.556, 88.4683, 0, 0, 10.8165, -55.1859, 10.8881, -174.714, 10.7701, 65.3944, 0.203788, 26.6484
0, 2940.00000, 126.013, -32.1121, 125.185, -151.64, 126.556, 88.4683, 0, 0, 10.8165, -55.186, 10.8881, -174.714, 10.7701, 65.3944, 0.203804, 26.6494
0, 3000.00000, 126.014, -32.1121, 125.185, -151.64, 126.557, 88.4683, 0, 0, 10.8165, -55.186, 10.8881, -174.714, 10.7701, 65.3944, 0.203818, 26.6502
0, 3060.00000, 126.014, -32.1121, 125.185, -151.64, 126.557, 88.4683, 0, 0, 10.8165, -55.186, 10.8881, -174.714, 10.7701, 65.3944, 0.20383, 26.651
0, 3120.00000, 126.014, -32.1122, 125.185, -151.64, 126.557, 88.4683, 0, 0, 10.8165, -55.1861, 10.8881, -174.714, 10.7701, 65.3944, 0.203841, 26.6516
0, 3180.00000, 126.014, -32.1122, 125.185, -151.64, 126.557, 88.4683, 0, 0, 10.8165, -55.1861, 10.8881, -174.714, 10.7701, 65.3944, 0.203851, 26.6523
0, 3240.00000, 126.014, -32.1122, 125.185, -151.64, 126.557, 88.4683, 0, 0, 10.8165, -55.1861, 10.8881, -174.714, 10.7701, 65.3944, 0.20386, 26.6528
0, 3300.00000, 126.014, -32.1122, 125.185, -151.64, 126.557, 88.4683, 0, 0, 10.8165, -55.1861, 10.8881, -174.714, 10.7701, 65.3944, 0.203869, 26.6533
0, 3360.00000, 126.014, -32.1123, 125.185, -151.64, 126.557, 88.4683, 0, 0, 10.8165, -55.1862, 10.8881, -174.714, 10.7701, 65.3944, 0.203876, 26.6537
0, 3420.00000, 126.014, -32.1123, 125.185, -151.64, 126.557, 88.4683, 0, 0, 10.8165, -55.1862, 10.8881, -174.714, 10.7701, 65.3944, 0.203883, 26.6542
0, 3480.00000, 126.014, -32.1123, 125.185, -151.64, 126.557, 88.4683, 0, 0, 10.8165, -55.1862, 10.8881, -174.714, 10.77, 65.3944, 0.203889, 26.6545
0, 3540.00000, 126.014, -32.1123, 125.185, -151.64, 126.557, 88.4683, 0, 0, 10.8165, -55.1862, 10.8881, -174.714, 10.77, 65.3944, 0.203894, 26.6548
1, 0.00000, 126.014, -32.1123, 125.185, -151.64, 126.557, 88.4683, 0, 0, 10.8165, -55.1862, 10.8881, -174.714, 10.77, 65.3944, 0.203899, 26.6551
1, 60.00000, 126.101, -31.9852, 125.475, -151.607, 126.556, 88.469, 0, 0, 10.809, -55.0592, 10.863, -174.681, 10.7701, 65.3951, 0.160195, 28.1164
1, 120.00000, 126.101, -31.9852, 125.475, -151.607, 126.556, 88.469, 0, 0, 10.809, -55.0592, 10.863, -174.681, 10.7701, 65.3951, 0.160199, 28.1167
1, 180.00000, 126.101, -31.9853, 125.475, -151.607, 126.556, 88.469, 0, 0, 10.809, -55.0592, 10.863, -174.681, 10.7701, 65.3951, 0.160203, 28.1169
1, 240.00000, 126.101, -31.9853, 125.475, -151.607, 126.556, 88.469, 0, 0, 10.809, -55.0592, 10.863, -174.681, 10.7701, 65.3951, 0.160206, 28.1171
1, 300.00000, 126.101, -31.9853, 125.475, -151.607, 126.556, 88.469, 0, 0, 10.809, -55.0592, 10.863, -174.681, 10.7701, 65.3951, 0.160209, 28.1173
1, 360.00000, 126.101, -31.9853, 125.475, -151.607, 126.556, 88.469, 0, 0, 10.809, -55.0592, 10.863, -174.681, 10.7701, 65.3951, 0.160211, 28.1175
1, 420.00000, 126.101, -31.9853, 125.475, -151.607, 126.556, 88.469, 0, 0, 10.809, -55.0592, 10.863, -174.681, 10.7701, 65.3951, 0.160214, 28.1176
1, 480.00000, 126.101, -31.9853, 125.475, -151.607, 126.556, 88.469, 0, 0, 10.809, -55.0592, 10.863, -174.681, 10.7701, 65.3951, 0.160216, 28.1178
1, 540.00000, 126.101, -31.9853, 125.475, -151.607, 126.556, 88.469, 0, 0, 10.809, -55.0592, 10.863, -174.681, 10.7701, 65.3951, 0.160218, 28.1179
1, 600.00000, 126.101, -31.9853, 125.475, -151.607, 126.556, 88.469, 0, 0, 10.809, -55.0592, 10.863, -174.681, 10.7701, 65.3951, 0.160219, 28.118
1, 660.00000, 126.101, -31.9853, 125.475, -151.607, 126.556, 88.469, 0, 0, 10.809, -55.0592, 10.863, -174.681, 10.7701, 65.3951, 0.160221, 28.1181
1, 720.00000, 126.101, -31.9853, 125.475, -151.607, 126.556, 88.469, 0, 0, 10.809, -55.0592, 10.863, -174.681, 10.7701, 65.3951, 0.160222, 28.1182
1, 780.00000, 126.101, -31.9873, 125.549, -151.488, 126.843, 88.5067, 0, 0, 10.809, -55.0612, 10.8565, -174.562, 10.7457, 65.4327, 0.189789, 37.9454
1, 840.00000, 126.101, -31.9873, 125.549, -151.488, 126.843, 88.5067, 0, 0, 10.809, -55.0612, 10.8565, -174.562, 10.7457, 65.4327, 0.189792, 37.9453
1, 900.00000, 126.101, -31.9873, 125.549, -151.488, 126.843, 88.5067, 0, 0, 10.809, -55.0612, 10.8565, -174.562, 10.7457, 65.4327, 0.189793, 37.9453
1, 960.00000, 126.101, -31.9873, 125.549, -151.488, 126.843, 88.5067, 0, 0, 10.809, -55.0612, 10.8565, -174.562, 10.7457, 65.4327, 0.189794, 37.9453
1, 1020.00000, 126.101, -31.9873, 125.549, -151.488, 126.843, 88.5067, 0, 0, 10.809, -55.0612, 10.8565, -174.562, 10.7457, 65.4327, 0.189795, 37.9453
1, 1080.00000, 126.101, -31.9873, 125.549, -151.488, 126.843, 88.5067, 0, 0, 10.809, -55.0612, 10.8565, -174.562, 10.7457, 65.4327, 0.189796, 37.9453
1, 1140.00000, 126.102, -31.9873, 125.549, -151.488, 126.843, 88.5067, 0, 0, 10.809, -55.0612, 10.8565, -174.562, 10.7457, 65.4327, 0.189796, 37.9453
1, 1200.00000, 126.102, -31.9873, 125.549, -151.488, 126.843, 88.5067, 0, 0, 10.809, -55.0612, 10.8565, -174.562, 10.7457, 65.4327, 0.189797, 37.9453
1, 1260.00000, 126.102, -31.9873, 125.549, -151.488, 126.843, 88.5067, 0, 0, 10.809, -55.0612, 10.8565, -174.562, 10.7457, 65.4327, 0.189798, 37.9453
1, 1320.00000, 126.102, -31.9873, 125.549, -151.488, 126.843, 88.5067, 0, 0, 10.809, -55.0612, 10.8565, -174.562, 10.7457, 65.4327, 0.189798, 37.9453
1, 1380.00000, 126.102, -31.9873, 125.549, -151.488, 126.843, 88.5067, 0, 0, 10.809, -55.0612, 10.8565, -174.562, 10.7457, 65.4327, 0.189798, 37.9453
1, 1440.00000, 126.102, -31.9873, 125.549, -151.488, 126.843, 88.5067, 0, 0, 10.809, -55.0612, 10.8565, -174.562, 10.7457, 65.4327, 0.189799, 37.9453
1, 1500.00000, 126.102, -31.9873, 125.549, -151.488, 126.843, 88.5067, 0, 0, 10.809, -55.0612, 10.8565, -174.562, 10.7457, 65.4327, 0.189799, 37.9453
1, 1560.00000, 126.102, -31.9873, 125.549, -151.488, 126.843, 88.5067, 0, 0, 10.809, -55.0612, 10.8565, -174.562, 10.7457, 65.4327, 0.1898, 37.9453
1, 1620.00000, 126.102, -31.9873, 125.549, -151.488, 126.843, 88.5067, 0, 0, 10.809, -55.0612, 10.8565, -174.562, 10.7457, 65.4327, 0.1898, 37.9453
1, 1680.00000, 126.102, -31.9873, 125.549, -151.488, 126.843, 88.5067, 0, 0, 10.809, -55.0612, 10.8565, -174.562, 10.7457, 65.4327, 0.1898, 37.9453
1, 1740.00000, 126.102, -31.9873, 125.549, -151.488, 126.843, 88.5067, 0, 0, 10.809, -55.0612, 10.8565, -174.562, 10.7457, 65.4327, 0.1898, 37.9453
1, 1800.00000, 126.102, -31.9873, 125.549, -151.488, 126.843, 88.5067, 0, 0, 10.809, -55.0612, 10.8565, -174.562, 10.7457, 65.4327, 0.189801, 37.9453
1, 1860.00000, 126.102, -31.9873, 125.549, -151.488, 126.843, 88.5067, 0, 0, 10.809, -55.0612, 10.8565, -174.562, 10.7457, 65.4327, 0.189801, 37.9453
1, 1920.00000, 126.102, -31.9873, 125.549, -151.488, 126.843, 88.5067, 0, 0, 10.809, -55.0612, 10.8565, -174.562, 10.7457, 65.4327, 0.189801, 37.9453
1, 1980.00000, 126.102, -31.9873, 125.549, -151.488, 126.843, 88.5067, 0, 0, 10.809, -55.0612, 10.8565, -174.562, 10.7457, 65.4327, 0.189801, 37.9453
1, 2040.00000, 126.102, -31.9873, 125.549, -151.488, 126.843, 88.5067, 0, 0, 10.809, -55.0612, 10.8565, -174.562, 10.7457, 65.4327, 0.189801, 37.9453
1, 2100.00000, 126.102, -31.9873, 125.549, -151.488, 126.843, 88.5067, 0, 0, 10.809, -55.0612, 10.8565, -174.562, 10.7457, 65.4327, 0.189801, 37.9453
1, 2160.00000, 126.102, -31.9873, 125.549, -151.488, 126.843, 88.5067, 0, 0, 10.809, -55.0612, 10.8565, -174.562, 10.7457, 65.4327, 0.189801, 37.9453
1, 2220.00000, 126.4, -31.9641, 125.549, -151.488, 126.974, 88.636, 0, 0, 10.7834, -55.0381, 10.8565, -174.562, 10.7346, 65.5621, 0.209322, 26.4787
1, 2280.00000, 126.4, -31.9641, 125.549, -151.488, 126.974, 88.636, 0, 0, 10.7834, -55.0381, 10.8565, -174.562, 10.7346, 65.5621, 0.209325, 26.4788
1, 2340.00000, 126.4, -31.9641, 125.549, -151.488, 126.974, 88.636, 0, 0, 10.7834, -55.0381, 10.8565, -174.562, 10.7346, 65.5621, 0.209325, 26.4788
1, 2400.00000, 126.4, -31.9641, 125.549, -151.488, 126.974, 88.636, 0, 0, 10.7834, -55.0381, 10.8565, -174.562, 10.7346, 65.5621, 0.209325, 26.4788
1, 2460.00000, 126.4, -31.9641, 125.549, -151.488, 126.974, 88.636, 0, 0, 10.7834, -55.0381, 10.8565, -174.562, 10.7346, 65.5621, 0.209325, 26.4788
1, 2520.00000, 126.4, -31.9641, 125.549, -151.488, 126.974, 88.636, 0, 0, 10.7834, -55.0381, 10.8565, -174.562, 10.7346, 65.5621, 0.209325, 26.4788
1, 2580.00000, 126.4, -31.9641, 125.549, -151.488, 126.974, 88.636, 0, 0, 10.7834, -55.0381, 10.8565, -174.562, 10.7346, 65.5621, 0.209325, 26.4788
1, 2640.00000, 126.4, -31.9641, 125.549, -151.488, 126.974, 88.636, 0, 0, 10.7834, -55.0381, 10.8565, -174.562, 10.7346, 65.5621, 0.209326, 26.4788
1, 2700.00000, 126.4, -31.9641, 125.549, -151.488, 126.974, 88.636, 0, 0, 10.7834, -55.0381, 10.8565, -174.562, 10.7346, 65.5621, 0.209326, 26.4788
1, 2760.00000, 126.4, -31.9641, 125.549, -151.488, 126.974, 88.636, 0, 0, 10.7834, -55.0381, 10.8565, -174.562, 10.7346, 65.5621, 0.209326, 26.4788
1, 2820.00000, 126.4, -31.9641, 125.549, -151.488, 126.974, 88.636, 0, 0, 10.7834, -55.0381, 10.8565, -174.562, 10.7346, 65.5621, 0.209326, 26.4788
1, 2880.00000, 126.4, -31.9641, 125.549, -151.488, 126.974, 88.636, 0, 0, 10.7834, -55.0381, 10.8565, -174.562, 10.7346, 65.5621, 0.209326, 26.4788
1, 2940.00000, 126.4, -31.9641, 125.549, -151.488, 126.974, 88.636, 0, 0, 10.7834, -55.0381, 10.8565, -174.562, 10.7346, 65.5621, 0.209326, 26.4788
1, 3000.00000, 126.4, -31.9641, 125.549, -151.488, 126.974, 88.636, 0, 0, 10.7834, -55.0381, 10.8565, -174.562, 10.7346, 65.5621, 0.209326, 26.4788
1, 3060.00000, 126.4, -31.9641, 125.549, -151.488, 126.974, 88.636, 0, 0, 10.7834, -55.0381, 10.8565, -174.562, 10.7346, 65.5621, 0.209326, 26.4788
1, 3120.00000, 126.4, -31.9641, 125.549, -151.488, 126.974, 88.636, 0, 0, 10.7834, -55.0381, 10.8565, -174.562, 10.7346, 65.5621, 0.209326, 26.4788
1, 3180.00000, 126.4, -31.9641, 125.549, -151.488, 126.974, 88.636, 0, 0, 10.7834, -55.0381, 10.8565, -174.562, 10.7346, 65.5621, 0.209326, 26.4788
1, 3240.00000, 126.4, -31.9641, 125.549, -151.488, 126.974, 88.636, 0, 0, 10.7834, -55.0381, 10.8565, -174.562, 10.7346, 65.5621, 0.209326, 26.4788
1, 3300.00000, 126.4, -31.9641, 125.549, -151.488, 126.974, 88.636, 0, 0, 10.7834, -55.0381, 10.8565, -174.562, 10.7346, 65.5621, 0.209326, 26.4788
1, 3360.00000, 126.4, -31.9641, 125.549, -151.488, 126.974, 88.636, 0, 0, 10.7834, -55.0381, 10.8565, -174.562, 10.7346, 65.5621, 0.209326, 26.4788
1, 3420.00000, 126.4, -31.9641, 125.549, -151.488, 126.974, 88.636, 0, 0, 10.7834, -55.0381, 10.8565, -174.562, 10.7346, 65.5621, 0.209326, 26.4788
1, 3480.00000, 126.4, -31.9641, 125.549, -151.488, 126.974, 88.636, 0, 0, 10.7834, -55.0381, 10.8565, -174.562, 10.7346, 65.5621, 0.209326, 26.4788
1, 3540.00000, 126.4, -31.9641, 125.549, -151.488, 126.974, 88.636, 0, 0, 10.7834, -55.0381, 10.8565, -174.562, 10.7346, 65.5621, 0.209326, 26.4788
2, 0.00000, 126.4, -31.9641, 125.549, -151.488, 126.974, 88.636, 0, 0, 10.7834, -55.0381, 10.8565, -174.562, 10.7346, 65.5621, 0.209326, 26.4788
2, 60.00000, 126.4, -31.9641, 125.549, -151.488, 126.974, 88.636, 0, 0, 10.7834, -55.0381, 10.8565, -174.562, 10.7346, 65.5621, 0.209326, 26.4788
2, 120.00000, 126.4, -31.9641, 125.549, -151.488, 126.974, 88.636, 0, 0, 10.7834, -55.0381, 10.8565, -174.562, 10.7346, 65.5621, 0.209326, 26.4788
2, 180.00000, 126.4, -31.9641, 125.549, -151.488, 126.974, 88.636, 0, 0, 10.7834, -55.0381, 10.8565, -174.562, 10.7346, 65.5621, 0.209326, 26.4788
2, 240.00000, 126.4, -31.9641, 125.549, -151.488, 126.974, 88.636, 0, 0, 10.7834, -55.0381, 10.8565, -174.562, 10.7346, 65.5621, 0.209326, 26.4788
2, 300.00000, 126.4, -31.9641, 125.549, -151.488, 126.974, 88.636, 0, 0, 10.7834, -55.0381, 10.8565, -174.562, 10.7346, 65.5621, 0.209326, 26.4788
2, 360.00000, 126.4, -31.9641, 125.549, -151.488, 126.974, 88.636, 0, 0, 10.7834, -55.0381, 10.8565, -174.562, 10.7346, 65.5621, 0.209326, 26.4788
2, 420.00000, 126.4, -31.9641, 125.549, -151.488, 126.974, 88.636, 0, 0, 10.7834, -55.0381, 10.8565, -174.562, 10.7346, 65.5621, 0.209326, 26.4788
2, 480.00000, 126.4, -31.9641, 125.549, -151.488, 126.974, 88.636, 0, 0, 10.7834, -55.0381, 10.8565, -174.562, 10.7346, 65.5621, 0.209326, 26.4788
2, 540.00000, 126.4, -31.9641, 125.549, -151.488, 126.974, 88.636, 0, 0, 10.7834, -55.0381, 10.8565, -174.562, 10.7346, 65.5621, 0.209326, 26.4788
2, 600.00000, 126.4, -31.9641, 125.549, -151.488, 126.974, 88.636, 0, 0, 10.7834, -55.0381, 10.8565, -174.562, 10.7346, 65.5621, 0.209326, 26.4788
2, 660.00000, 126.4, -31.9641, 125.549, -151.488, 126.974, 88.636, 0, 0, 10.7834, -55.0381, 10.8565, -174.562, 10.7346, 65.5621, 0.209326, 26.4788
2, 720.00000, 126.4, -31.9641, 125.549, -151.488, 126.974, 88.636, 0, 0, 10.7834, -55.0381, 10.8565, -174.562, 10.7346, 65.5621, 0.209326, 26.4788
2, 780.00000, 126.4, -31.9641, 125.549, -151.488, 126.974, 88.636, 0, 0, 10.7834, -55.0381, 10.8565, -174.562, 10.7346, 65.5621, 0.209326, 26.4788
2, 840.00000, 126.488, -31.8461, 125.816, -151.458, 126.975, 88.6397, 0, 0, 10.7759, -54.9201, 10.8334, -174.532, 10.7346, 65.5658, 0.169491, 27.2609
