hour,t(sec),"P1 (kW)","Q1 (kvar)","P2 (kW)","Q2 (kvar)","P3 (kW)","Q3 (kvar)","P4 (kW)","Q4 (kvar)"
0, 60.00000, 0.753248, 0.320878, 0.753855, 0.321138, 0.749126, 0.319124, 0, 0
0, 120.00000, 0.753242, 0.32088, 0.753847, 0.321138, 0.74912, 0.319124, 0, 0
0, 180.00000, 0.753242, 0.32088, 0.753847, 0.321138, 0.74912, 0.319124, 0, 0
0, 240.00000, 0.753242, 0.32088, 0.753847, 0.321138, 0.74912, 0.319124, 0, 0
0, 300.00000, 0.753242, 0.32088, 0.753847, 0.321138, 0.74912, 0.319124, 0, 0
0, 360.00000, 0.753242, 0.32088, 0.753847, 0.321138, 0.74912, 0.319124, 0, 0
0, 420.00000, 0.753242, 0.32088, 0.753847, 0.321138, 0.74912, 0.319124, 0, 0
0, 480.00000, 0.667594, 0.284399, 0.667377, 0.284305, 0.662991, 0.282436, 0, 0
0, 540.00000, 0.667601, 0.284397, 0.667384, 0.284305, 0.662997, 0.282436, 0, 0
0, 600.00000, 0.667601, 0.284397, 0.667384, 0.284305, 0.662997, 0.282436, 0, 0
0, 660.00000, 0.667601, 0.284397, 0.667384, 0.284305, 0.662997, 0.282436, 0, 0
0, 720.00000, 0.667601, 0.284397, 0.667384, 0.284305, 0.662997, 0.282436, 0, 0
0, 780.00000, 0.667601, 0.284397, 0.667384, 0.284305, 0.662997, 0.282436, 0, 0
0, 840.00000, 0.667601, 0.284397, 0.667384, 0.284305, 0.662997, 0.282436, 0, 0
0, 900.00000, 0.667601, 0.284397, 0.667384, 0.284305, 0.662997, 0.282436, 0, 0
0, 960.00000, 0.663842, 0.282789, 0.663738, 0.282749, 0.655934, 0.279422, 0, 0
0, 1020.00000, 0.663831, 0.282791, 0.663735, 0.28275, 0.655925, 0.279423, 0, 0
0, 1080.00000, 0.663831, 0.282791, 0.663735, 0.28275, 0.655925, 0.279423, 0, 0
0, 1140.00000, 0.667241, 0.284248, 0.663765, 0.282763, 0.656969, 0.279869, 0, 0
0, 1200.00000, 0.667248, 0.284246, 0.663766, 0.282763, 0.656973, 0.279869, 0, 0
0, 1260.00000, 0.667248, 0.284246, 0.663766, 0.282763, 0.656973, 0.279869, 0, 0
0, 1320.00000, 0.667248, 0.284246, 0.663766, 0.282763, 0.656973, 0.279869, 0, 0
0, 1380.00000, 0.667248, 0.284246, 0.663766, 0.282763, 0.656973, 0.279869, 0, 0
0, 1440.00000, 0.667248, 0.284246, 0.663766, 0.282763, 0.656973, 0.279869, 0, 0
0, 1500.00000, 0.667248, 0.284246, 0.663766, 0.282763, 0.656973, 0.279869, 0, 0
0, 1560.00000, 0.667248, 0.284246, 0.663766, 0.282763, 0.656973, 0.279869, 0, 0
0, 1620.00000, 0.667248, 0.284246, 0.663766, 0.282763, 0.656973, 0.279869, 0, 0
0, 1680.00000, 0.667248, 0.284246, 0.663766, 0.282763, 0.656973, 0.279869, 0, 0
0, 1740.00000, 0.667248, 0.284246, 0.663766, 0.282763, 0.656973, 0.279869, 0, 0
0, 1800.00000, 0.663068, 0.282464, 0.65731, 0.280012, 0.657428, 0.280064, 0, 0
0, 1860.00000, 0.663065, 0.282465, 0.657306, 0.280011, 0.657429, 0.280064, 0, 0
0, 1920.00000, 0.663065, 0.282465, 0.657306, 0.280011, 0.657429, 0.280064, 0, 0
0, 1980.00000, 0.663065, 0.282465, 0.657306, 0.280011, 0.657429, 0.280064, 0, 0
0, 2040.00000, 0.663065, 0.282465, 0.657306, 0.280011, 0.657429, 0.280064, 0, 0
0, 2100.00000, 0.663065, 0.282465, 0.657306, 0.280011, 0.657429, 0.280064, 0, 0
0, 2160.00000, 0.663065, 0.282465, 0.657306, 0.280011, 0.657429, 0.280064, 0, 0
0, 2220.00000, 0.663065, 0.282465, 0.657306, 0.280011, 0.657429, 0.280064, 0, 0
0, 2280.00000, 0.663065, 0.282465, 0.657306, 0.280011, 0.657429, 0.280064, 0, 0
0, 2340.00000, 0.663065, 0.282465, 0.657306, 0.280011, 0.657429, 0.280064, 0, 0
0, 2400.00000, 0.663065, 0.282465, 0.657306, 0.280011, 0.657429, 0.280064, 0, 0
0, 2460.00000, 0.663065, 0.282465, 0.657306, 0.280011, 0.657429, 0.280064, 0, 0
0, 2520.00000, 0.663065, 0.282465, 0.657306, 0.280011, 0.657429, 0.280064, 0, 0
0, 2580.00000, 0.663065, 0.282465, 0.657306, 0.280011, 0.657429, 0.280064, 0, 0
0, 2640.00000, 0.663065, 0.282465, 0.657306, 0.280011, 0.657429, 0.280064, 0, 0
0, 2700.00000, 0.663065, 0.282465, 0.657306, 0.280011, 0.657429, 0.280064, 0, 0
0, 2760.00000, 0.664222, 0.28296, 0.66077, 0.28149, 0.657389, 0.280047, 0, 0
0, 2820.00000, 0.664226, 0.282959, 0.660777, 0.28149, 0.657388, 0.280046, 0, 0
0, 2880.00000, 0.664226, 0.282959, 0.660777, 0.28149, 0.657388, 0.280046, 0, 0
0, 2940.00000, 0.664226, 0.282959, 0.660777, 0.28149, 0.657388, 0.280046, 0, 0
0, 3000.00000, 0.664226, 0.282959, 0.660777, 0.28149, 0.657388, 0.280046, 0, 0
0, 3060.00000, 0.664226, 0.282959, 0.660777, 0.28149, 0.657388, 0.280046, 0, 0
0, 3120.00000, 0.664226, 0.282959, 0.660777, 0.28149, 0.657388, 0.280046, 0, 0
0, 3180.00000, 0.664226, 0.282959, 0.660777, 0.28149, 0.657388, 0.280046, 0, 0
0, 3240.00000, 0.664226, 0.282959, 0.660777, 0.28149, 0.657388, 0.280046, 0, 0
0, 3300.00000, 0.664226, 0.282959, 0.660777, 0.28149, 0.657388, 0.280046, 0, 0
0, 3360.00000, 0.664226, 0.282959, 0.660777, 0.28149, 0.657388, 0.280046, 0, 0
0, 3420.00000, 0.664226, 0.282959, 0.660777, 0.28149, 0.657388, 0.280046, 0, 0
0, 3480.00000, 0.664226, 0.282959, 0.660777, 0.28149, 0.657388, 0.280046, 0, 0
0, 3540.00000, 0.664226, 0.282959, 0.660777, 0.28149, 0.657388, 0.280046, 0, 0
1, 0.00000, 0.664226, 0.282959, 0.660777, 0.28149, 0.657388, 0.280046, 0, 0
1, 60.00000, 0.665259, 0.283401, 0.664083, 0.282901, 0.657375, 0.28004, 0, 0
1, 120.00000, 0.665261, 0.2834, 0.664088, 0.2829, 0.657374, 0.28004, 0, 0
1, 180.00000, 0.665261, 0.2834, 0.664088, 0.2829, 0.657374, 0.28004, 0, 0
1, 240.00000, 0.665261, 0.2834, 0.664088, 0.2829, 0.657374, 0.28004, 0, 0
1, 300.00000, 0.665261, 0.2834, 0.664088, 0.2829, 0.657374, 0.28004, 0, 0
1, 360.00000, 0.665261, 0.2834, 0.664088, 0.2829, 0.657374, 0.28004, 0, 0
1, 420.00000, 0.665261, 0.2834, 0.664088, 0.2829, 0.657374, 0.28004, 0, 0
1, 480.00000, 0.665261, 0.2834, 0.664088, 0.2829, 0.657374, 0.28004, 0, 0
1, 540.00000, 0.665261, 0.2834, 0.664088, 0.2829, 0.657374, 0.28004, 0, 0
1, 600.00000, 0.665261, 0.2834, 0.664088, 0.2829, 0.657374, 0.28004, 0, 0
1, 660.00000, 0.665261, 0.2834, 0.664088, 0.2829, 0.657374, 0.28004, 0, 0
1, 720.00000, 0.665261, 0.2834, 0.664088, 0.2829, 0.657374, 0.28004, 0, 0
1, 780.00000, 0.666582, 0.283963, 0.68167, 0.290393, 0.675596, 0.287804, 0, 0
1, 840.00000, 0.666582, 0.283963, 0.681674, 0.290392, 0.675603, 0.287806, 0, 0
1, 900.00000, 0.666582, 0.283963, 0.681674, 0.290392, 0.675603, 0.287806, 0, 0
1, 960.00000, 0.666582, 0.283963, 0.681674, 0.290392, 0.675603, 0.287806, 0, 0
1, 1020.00000, 0.666582, 0.283963, 0.681674, 0.290392, 0.675603, 0.287806, 0, 0
1, 1080.00000, 0.666582, 0.283963, 0.681674, 0.290392, 0.675603, 0.287806, 0, 0
1, 1140.00000, 0.666582, 0.283963, 0.681674, 0.290392, 0.675603, 0.287806, 0, 0
1, 1200.00000, 0.666582, 0.283963, 0.681674, 0.290392, 0.675603, 0.287806, 0, 0
1, 1260.00000, 0.666582, 0.283963, 0.681674, 0.290392, 0.675603, 0.287806, 0, 0
1, 1320.00000, 0.666582, 0.283963, 0.681674, 0.290392, 0.675603, 0.287806, 0, 0
1, 1380.00000, 0.666582, 0.283963, 0.681674, 0.290392, 0.675603, 0.287806, 0, 0
1, 1440.00000, 0.666582, 0.283963, 0.681674, 0.290392, 0.675603, 0.287806, 0, 0
1, 1500.00000, 0.666582, 0.283963, 0.681674, 0.290392, 0.675603, 0.287806, 0, 0
1, 1560.00000, 0.666582, 0.283963, 0.681674, 0.290392, 0.675603, 0.287806, 0, 0
1, 1620.00000, 0.666582, 0.283963, 0.681674, 0.290392, 0.675603, 0.287806, 0, 0
1, 1680.00000, 0.666582, 0.283963, 0.681674, 0.290392, 0.675603, 0.287806, 0, 0
1, 1740.00000, 0.666582, 0.283963, 0.681674, 0.290392, 0.675603, 0.287806, 0, 0
1, 1800.00000, 0.666582, 0.283963, 0.681674, 0.290392, 0.675603, 0.287806, 0, 0
1, 1860.00000, 0.666582, 0.283963, 0.681674, 0.290392, 0.675603, 0.287806, 0, 0
1, 1920.00000, 0.666582, 0.283963, 0.681674, 0.290392, 0.675603, 0.287806, 0, 0
1, 1980.00000, 0.666582, 0.283963, 0.681674, 0.290392, 0.675603, 0.287806, 0, 0
1, 2040.00000, 0.666582, 0.283963, 0.681674, 0.290392, 0.675603, 0.287806, 0, 0
1, 2100.00000, 0.666582, 0.283963, 0.681674, 0.290392, 0.675603, 0.287806, 0, 0
1, 2160.00000, 0.666582, 0.283963, 0.681674, 0.290392, 0.675603, 0.287806, 0, 0
1, 2220.00000, 0.670777, 0.28575, 0.68834, 0.293235, 0.675158, 0.287615, 0, 0
1, 2280.00000, 0.670778, 0.28575, 0.688346, 0.293234, 0.675157, 0.287616, 0, 0
1, 2340.00000, 0.670778, 0.28575, 0.688346, 0.293234, 0.675157, 0.287616, 0, 0
1, 2400.00000, 0.670778, 0.28575, 0.688346, 0.293234, 0.675157, 0.287616, 0, 0
1, 2460.00000, 0.670778, 0.28575, 0.688346, 0.293234, 0.675157, 0.287616, 0, 0
1, 2520.00000, 0.670778, 0.28575, 0.688346, 0.293234, 0.675157, 0.287616, 0, 0
1, 2580.00000, 0.670778, 0.28575, 0.688346, 0.293234, 0.675157, 0.287616, 0, 0
1, 2640.00000, 0.670778, 0.28575, 0.688346, 0.293234, 0.675157, 0.287616, 0, 0
1, 2700.00000, 0.670778, 0.28575, 0.688346, 0.293234, 0.675157, 0.287616, 0, 0
1, 2760.00000, 0.670778, 0.28575, 0.688346, 0.293234, 0.675157, 0.287616, 0, 0
1, 2820.00000, 0.670778, 0.28575, 0.688346, 0.293234, 0.675157, 0.287616, 0, 0
1, 2880.00000, 0.670778, 0.28575, 0.688346, 0.293234, 0.675157, 0.287616, 0, 0
1, 2940.00000, 0.670778, 0.28575, 0.688346, 0.293234, 0.675157, 0.287616, 0, 0
1, 3000.00000, 0.670778, 0.28575, 0.688346, 0.293234, 0.675157, 0.287616, 0, 0
1, 3060.00000, 0.670778, 0.28575, 0.688346, 0.293234, 0.675157, 0.287616, 0, 0
1, 3120.00000, 0.670778, 0.28575, 0.688346, 0.293234, 0.675157, 0.287616, 0, 0
1, 3180.00000, 0.670778, 0.28575, 0.688346, 0.293234, 0.675157, 0.287616, 0, 0
1, 3240.00000, 0.670778, 0.28575, 0.688346, 0.293234, 0.675157, 0.287616, 0, 0
1, 3300.00000, 0.670778, 0.28575, 0.688346, 0.293234, 0.675157, 0.287616, 0, 0
1, 3360.00000, 0.670778, 0.28575, 0.688346, 0.293234, 0.675157, 0.287616, 0, 0
1, 3420.00000, 0.670778, 0.28575, 0.688346, 0.293234, 0.675157, 0.287616, 0, 0
1, 3480.00000, 0.670778, 0.28575, 0.688346, 0.293234, 0.675157, 0.287616, 0, 0
1, 3540.00000, 0.670778, 0.28575, 0.688346, 0.293234, 0.675157, 0.287616, 0, 0
2, 0.00000, 0.670778, 0.28575, 0.688346, 0.293234, 0.675157, 0.287616, 0, 0
2, 60.00000, 0.670778, 0.28575, 0.688346, 0.293234, 0.675157, 0.287616, 0, 0
2, 120.00000, 0.670778, 0.28575, 0.688346, 0.293234, 0.675157, 0.287616, 0, 0
2, 180.00000, 0.670778, 0.28575, 0.688346, 0.293234, 0.675157, 0.287616, 0, 0
2, 240.00000, 0.670778, 0.28575, 0.688346, 0.293234, 0.675157, 0.287616, 0, 0
2, 300.00000, 0.670778, 0.28575, 0.688346, 0.293234, 0.675157, 0.287616, 0, 0
2, 360.00000, 0.670778, 0.28575, 0.688346, 0.293234, 0.675157, 0.287616, 0, 0
2, 420.00000, 0.670778, 0.28575, 0.688346, 0.293234, 0.675157, 0.287616, 0, 0
2, 480.00000, 0.670778, 0.28575, 0.688346, 0.293234, 0.675157, 0.287616, 0, 0
2, 540.00000, 0.670778, 0.28575, 0.688346, 0.293234, 0.675157, 0.287616, 0, 0
2, 600.00000, 0.670778, 0.28575, 0.688346, 0.293234, 0.675157, 0.287616, 0, 0
2, 660.00000, 0.670778, 0.28575, 0.688346, 0.293234, 0.675157, 0.287616, 0, 0
2, 720.00000, 0.670778, 0.28575, 0.688346, 0.293234, 0.675157, 0.287616, 0, 0
2, 780.00000, 0.670778, 0.28575, 0.688346, 0.293234, 0.675157, 0.287616, 0, 0
2, 840.00000, 0.671123, 0.285898, 0.69223, 0.294891, 0.681495, 0.29032, 0, 0
2, 900.00000, 0.671122, 0.285897, 0.692235, 0.294891, 0.681506, 0.29032, 0, 0
2, 960.00000, 0.671122, 0.285897, 0.692235, 0.294891, 0.681506, 0.29032, 0, 0
2, 1020.00000, 0.671122, 0.285897, 0.692235, 0.294891, 0.681506, 0.29032, 0, 0
2, 1080.00000, 0.671122, 0.285897, 0.692235, 0.294891, 0.681506, 0.29032, 0, 0
2, 1140.00000, 0.671122, 0.285897, 0.692235, 0.294891, 0.681506, 0.29032, 0, 0
2, 1200.00000, 0.671122, 0.285897, 0.692235, 0.294891, 0.681506, 0.29032, 0, 0
2, 1260.00000, 0.671122, 0.285897, 0.692235, 0.294891, 0.681506, 0.29032, 0, 0
2, 1320.00000, 0.671122, 0.285897, 0.692235, 0.294891, 0.681506, 0.29032, 0, 0
2, 1380.00000, 0.671122, 0.285897, 0.692235, 0.294891, 0.681506, 0.29032, 0, 0
2, 1440.00000, 0.671122, 0.285897, 0.692235, 0.294891, 0.681506, 0.29032, 0, 0
2, 1500.00000, 0.671122, 0.285897, 0.692235, 0.294891, 0.681506, 0.29032, 0, 0
2, 1560.00000, 0.671122, 0.285897, 0.692235, 0.294891, 0.681506, 0.29032, 0, 0
2, 1620.00000, 0.671122, 0.285897, 0.692235, 0.294891, 0.681506, 0.29032, 0, 0
2, 1680.00000, 0.671122, 0.285897, 0.692235, 0.294891, 0.681506, 0.29032, 0, 0
2, 1740.00000, 0.671122, 0.285897, 0.692235, 0.294891, 0.681506, 0.29032, 0, 0
2, 1800.00000, 0.671122, 0.285897, 0.692235, 0.294891, 0.681506, 0.29032, 0, 0
2, 1860.00000, 0.671122, 0.285897, 0.692235, 0.294891, 0.681506, 0.29032, 0, 0
2, 1920.00000, 0.671122, 0.285897, 0.692235, 0.294891, 0.681506, 0.29032, 0, 0
2, 1980.00000, 0.671122, 0.285897, 0.692235, 0.294891, 0.681506, 0.29032, 0, 0
2, 2040.00000, 0.671122, 0.285897, 0.692235, 0.294891, 0.681506, 0.29032, 0, 0
2, 2100.00000, 0.671122, 0.285897, 0.692235, 0.294891, 0.681506, 0.29032, 0, 0
2, 2160.00000, 0.671122, 0.285897, 0.692235, 0.294891, 0.681506, 0.29032, 0, 0
2, 2220.00000, 0.671122, 0.285897, 0.692235, 0.294891, 0.681506, 0.29032, 0, 0
2, 2280.00000, 0.671122, 0.285897, 0.692235, 0.294891, 0.681506, 0.29032, 0, 0
2, 2340.00000, 0.671122, 0.285897, 0.692235, 0.294891, 0.681506, 0.29032, 0, 0
2, 2400.00000, 0.690847, 0.294305, 0.691768, 0.294694, 0.700241, 0.298309, 0, 0
2, 2460.00000, 0.690862, 0.294306, 0.691765, 0.294691, 0.700265, 0.298312, 0, 0
2, 2520.00000, 0.690862, 0.294306, 0.691765, 0.294691, 0.700265, 0.298312, 0, 0
2, 2580.00000, 0.690862, 0.294306, 0.691765, 0.294691, 0.700265, 0.298312, 0, 0
2, 2640.00000, 0.690862, 0.294306, 0.691765, 0.294691, 0.700265, 0.298312, 0, 0
2, 2700.00000, 0.690463, 0.294136, 0.687405, 0.292833, 0.693007, 0.295215, 0, 0
2, 2760.00000, 0.690463, 0.294136, 0.687403, 0.292832, 0.692989, 0.295212, 0, 0
2, 2820.00000, 0.690463, 0.294136, 0.687403, 0.292832, 0.692989, 0.295212, 0, 0
2, 2880.00000, 0.690463, 0.294136, 0.687403, 0.292832, 0.692989, 0.295212, 0, 0
2, 2940.00000, 0.690463, 0.294136, 0.687403, 0.292832, 0.692989, 0.295212, 0, 0
2, 3000.00000, 0.690463, 0.294136, 0.687403, 0.292832, 0.692989, 0.295212, 0, 0
2, 3060.00000, 0.690475, 0.294142, 0.688489, 0.293296, 0.696593, 0.296753, 0, 0
2, 3120.00000, 0.690475, 0.294141, 0.688491, 0.293296, 0.696611, 0.296755, 0, 0
2, 3180.00000, 0.690475, 0.294141, 0.688491, 0.293296, 0.696611, 0.296755, 0, 0
2, 3240.00000, 0.690475, 0.294141, 0.688491, 0.293296, 0.696611, 0.296755, 0, 0
2, 3300.00000, 0.690475, 0.294141, 0.688491, 0.293296, 0.696611, 0.296755, 0, 0
2, 3360.00000, 0.690475, 0.294141, 0.688491, 0.293296, 0.696611, 0.296755, 0, 0
2, 3420.00000, 0.690475, 0.294141, 0.688491, 0.293296, 0.696611, 0.296755, 0, 0
2, 3480.00000, 0.690475, 0.294141, 0.688491, 0.293296, 0.696611, 0.296755, 0, 0
2, 3540.00000, 0.690475, 0.294141, 0.688491, 0.293296, 0.696611, 0.296755, 0, 0
3, 0.00000, 0.690475, 0.294141, 0.688491, 0.293296, 0.696611, 0.296755, 0, 0
3, 60.00000, 0.690475, 0.294141, 0.688491, 0.293296, 0.696611, 0.296755, 0, 0
3, 120.00000, 0.690475, 0.294141, 0.688491, 0.293296, 0.696611, 0.296755, 0, 0
3, 180.00000, 0.690475, 0.294141, 0.688491, 0.293296, 0.696611, 0.296755, 0, 0
3, 240.00000, 0.690475, 0.294141, 0.688491, 0.293296, 0.696611, 0.296755, 0, 0
3, 300.00000, 0.690475, 0.294141, 0.688491, 0.293296, 0.696611, 0.296755, 0, 0
3, 360.00000, 0.690475, 0.294141, 0.688491, 0.293296, 0.696611, 0.296755, 0, 0
3, 420.00000, 0.690475, 0.294141, 0.688491, 0.293296, 0.696611, 0.296755, 0, 0
3, 480.00000, 0.690475, 0.294141, 0.688491, 0.293296, 0.696611, 0.296755, 0, 0
3, 540.00000, 0.690475, 0.294141, 0.688491, 0.293296, 0.696611, 0.296755, 0, 0
3, 600.00000, 0.690475, 0.294141, 0.688491, 0.293296, 0.696611, 0.296755, 0, 0
3, 660.00000, 0.690475, 0.294141, 0.688491, 0.293296, 0.696611, 0.296755, 0, 0
3, 720.00000, 0.690475, 0.294141, 0.688491, 0.293296, 0.696611, 0.296755, 0, 0
3, 780.00000, 0.690475, 0.294141, 0.688491, 0.293296, 0.696611, 0.296755, 0, 0
3, 840.00000, 0.690475, 0.294141, 0.688491, 0.293296, 0.696611, 0.296755, 0, 0
3, 900.00000, 0.690475, 0.294141, 0.688491, 0.293296, 0.696611, 0.296755, 0, 0
3, 960.00000, 0.690475, 0.294141, 0.688491, 0.293296, 0.696611, 0.296755, 0, 0
3, 1020.00000, 0.690475, 0.294141, 0.688491, 0.293296, 0.696611, 0.296755, 0, 0
3, 1080.00000, 0.690475, 0.294141, 0.688491, 0.293296, 0.696611, 0.296755, 0, 0
3, 1140.00000, 0.690475, 0.294141, 0.688491, 0.293296, 0.696611, 0.296755, 0, 0
3, 1200.00000, 0.690475, 0.294141, 0.688491, 0.293296, 0.696611, 0.296755, 0, 0
3, 1260.00000, 0.690475, 0.294141, 0.688491, 0.293296, 0.696611, 0.296755, 0, 0
3, 1320.00000, 0.690475, 0.294141, 0.688491, 0.293296, 0.696611, 0.296755, 0, 0
3, 1380.00000, 0.690475, 0.294141, 0.688491, 0.293296, 0.696611, 0.296755, 0, 0
3, 1440.00000, 0.690475, 0.294141, 0.688491, 0.293296, 0.696611, 0.296755, 0, 0
3, 1500.00000, 0.690475, 0.294141, 0.688491, 0.293296, 0.696611, 0.296755, 0, 0
3, 1560.00000, 0.690475, 0.294141, 0.688491, 0.293296, 0.696611, 0.296755, 0, 0
3, 1620.00000, 0.690475, 0.294141, 0.688491, 0.293296, 0.696611, 0.296755, 0, 0
3, 1680.00000, 0.690475, 0.294141, 0.688491, 0.293296, 0.696611, 0.296755, 0, 0
3, 1740.00000, 0.690475, 0.294141, 0.688491, 0.293296, 0.696611, 0.296755, 0, 0
3, 1800.00000, 0.690475, 0.294141, 0.688491, 0.293296, 0.696611, 0.296755, 0, 0
3, 1860.00000, 0.690475, 0.294141, 0.688491, 0.293296, 0.696611, 0.296755, 0, 0
3, 1920.00000, 0.690475, 0.294141, 0.688491, 0.293296, 0.696611, 0.296755, 0, 0
3, 1980.00000, 0.690475, 0.294141, 0.688491, 0.293296, 0.696611, 0.296755, 0, 0
3, 2040.00000, 0.690475, 0.294141, 0.688491, 0.293296, 0.696611, 0.296755, 0, 0
3, 2100.00000, 0.690475, 0.294141, 0.688491, 0.293296, 0.696611, 0.296755, 0, 0
3, 2160.00000, 0.690475, 0.294141, 0.688491, 0.293296, 0.696611, 0.296755, 0, 0
3, 2220.00000, 0.690475, 0.294141, 0.688491, 0.293296, 0.696611, 0.296755, 0, 0
3, 2280.00000, 0.690475, 0.294141, 0.688491, 0.293296, 0.696611, 0.296755, 0, 0
3, 2340.00000, 0.690475, 0.294141, 0.688491, 0.293296, 0.696611, 0.296755, 0, 0
3, 2400.00000, 0.690475, 0.294141, 0.688491, 0.293296, 0.696611, 0.296755, 0, 0
3, 2460.00000, 0.690475, 0.294141, 0.688491, 0.293296, 0.696611, 0.296755, 0, 0
3, 2520.00000, 0.690475, 0.294141, 0.688491, 0.293296, 0.696611, 0.296755, 0, 0
3, 2580.00000, 0.690475, 0.294141, 0.688491, 0.293296, 0.696611, 0.296755, 0, 0
3, 2640.00000, 0.690475, 0.294141, 0.688491, 0.293296, 0.696611, 0.296755, 0, 0
3, 2700.00000, 0.690475, 0.294141, 0.688491, 0.293296, 0.696611, 0.296755, 0, 0
3, 2760.00000, 0.690475, 0.294141, 0.688491, 0.293296, 0.696611, 0.296755, 0, 0
3, 2820.00000, 0.690475, 0.294141, 0.688491, 0.293296, 0.696611, 0.296755, 0, 0
3, 2880.00000, 0.690475, 0.294141, 0.688491, 0.293296, 0.696611, 0.296755, 0, 0
3, 2940.00000, 0.690475, 0.294141, 0.688491, 0.293296, 0.696611, 0.296755, 0, 0
3, 3000.00000, 0.690475, 0.294141, 0.688491, 0.293296, 0.696611, 0.296755, 0, 0
3, 3060.00000, 0.690475, 0.294141, 0.688491, 0.293296, 0.696611, 0.296755, 0, 0
3, 3120.00000, 0.690475, 0.294141, 0.688491, 0.293296, 0.696611, 0.296755, 0, 0
3, 3180.00000, 0.727245, 0.309803, 0.725409, 0.309021, 0.733899, 0.312637, 0, 0
3, 3240.00000, 0.727241, 0.309803, 0.725407, 0.309022, 0.733893, 0.312637, 0, 0
3, 3300.00000, 0.727241, 0.309803, 0.725407, 0.309022, 0.733893, 0.312637, 0, 0
3, 3360.00000, 0.727241, 0.309803, 0.725407, 0.309022, 0.733893, 0.312637, 0, 0
3, 3420.00000, 0.727241, 0.309803, 0.725407, 0.309022, 0.733893, 0.312637, 0, 0
3, 3480.00000, 0.727241, 0.309803, 0.725407, 0.309022, 0.733893, 0.312637, 0, 0
3, 3540.00000, 0.727241, 0.309803, 0.725407, 0.309022, 0.733893, 0.312637, 0, 0
4, 0.00000, 0.727114, 0.309749, 0.723546, 0.308227, 0.729336, 0.310693, 0, 0
4, 60.00000, 0.727114, 0.309749, 0.723543, 0.308228, 0.729326, 0.310692, 0, 0
4, 120.00000, 0.727114, 0.309749, 0.723543, 0.308228, 0.729326, 0.310692, 0, 0
4, 180.00000, 0.727114, 0.309749, 0.723543, 0.308228, 0.729326, 0.310692, 0, 0
4, 240.00000, 0.727114, 0.309749, 0.723543, 0.308228, 0.729326, 0.310692, 0, 0
4, 300.00000, 0.727114, 0.309749, 0.723543, 0.308228, 0.729326, 0.310692, 0, 0
4, 360.00000, 0.727114, 0.309749, 0.723543, 0.308228, 0.729326, 0.310692, 0, 0
4, 420.00000, 0.727114, 0.309749, 0.723543, 0.308228, 0.729326, 0.310692, 0, 0
4, 480.00000, 0.727114, 0.309749, 0.723543, 0.308228, 0.729326, 0.310692, 0, 0
4, 540.00000, 0.727114, 0.309749, 0.723543, 0.308228, 0.729326, 0.310692, 0, 0
4, 600.00000, 0.727114, 0.309749, 0.723543, 0.308228, 0.729326, 0.310692, 0, 0
4, 660.00000, 0.727114, 0.309749, 0.723543, 0.308228, 0.729326, 0.310692, 0, 0
