hour,t(sec),V1,VAngle1,V2,VAngle2,V3,VAngle3,V4,VAngle4,I1,IAngle1,I2,IAngle2,I3,IAngle3,I4,IAngle4
0, 60.00000, 118.116, -31.2266, 119.709, -151.38, 119.012, 88.1678, 0, 0, 7.6205, -54.3004, 7.73466, -174.454, 7.68474, 65.0942, 0.0373676, -65.7217
0, 120.00000, 118.116, -31.2266, 119.709, -151.38, 119.012, 88.1678, 0, 0, 7.62045, -54.3005, 7.73462, -174.454, 7.68467, 65.0939, 0.037324, -65.7084
0, 180.00000, 118.116, -31.2266, 119.709, -151.38, 119.012, 88.1678, 0, 0, 7.62045, -54.3006, 7.73462, -174.454, 7.68467, 65.0938, 0.0373238, -65.7083
0, 240.00000, 118.116, -31.2266, 119.709, -151.38, 119.012, 88.1678, 0, 0, 7.62045, -54.3006, 7.73462, -174.454, 7.68467, 65.0938, 0.0373238, -65.7083
0, 300.00000, 118.116, -31.2266, 119.709, -151.38, 119.012, 88.1678, 0, 0, 7.62045, -54.3006, 7.73462, -174.454, 7.68467, 65.0938, 0.0373238, -65.7083
0, 360.00000, 118.116, -31.2266, 119.709, -151.38, 119.012, 88.1678, 0, 0, 7.62045, -54.3006, 7.73462, -174.454, 7.68467, 65.0938, 0.0373238, -65.7083
0, 420.00000, 118.116, -31.2266, 119.709, -151.38, 119.012, 88.1678, 0, 0, 7.62045, -54.3006, 7.73462, -174.454, 7.68467, 65.0938, 0.0373238, -65.7083
0, 480.00000, 118.885, -31.1159, 120.466, -151.274, 119.738, 88.2906, 0, 0, 8.05428, -54.19, 8.1731, -174.349, 8.11839, 65.2162, 0.0383655, -62.6574
0, 540.00000, 118.885, -31.1159, 120.466, -151.274, 119.738, 88.2906, 0, 0, 8.05433, -54.1898, 8.17318, -174.348, 8.11845, 65.2167, 0.0384142, -62.5623
0, 600.00000, 118.885, -31.1159, 120.466, -151.274, 119.738, 88.2906, 0, 0, 8.05433, -54.1898, 8.17318, -174.348, 8.11845, 65.2167, 0.0384144, -62.5621
0, 660.00000, 118.885, -31.1159, 120.466, -151.274, 119.738, 88.2906, 0, 0, 8.05433, -54.1898, 8.17318, -174.348, 8.11845, 65.2167, 0.0384144, -62.5621
0, 720.00000, 118.885, -31.1159, 120.466, -151.274, 119.738, 88.2906, 0, 0, 8.05433, -54.1898, 8.17318, -174.348, 8.11845, 65.2167, 0.0384144, -62.5621
0, 780.00000, 118.885, -31.1159, 120.466, -151.274, 119.738, 88.2906, 0, 0, 8.05433, -54.1898, 8.17318, -174.348, 8.11845, 65.2167, 0.0384144, -62.5621
0, 840.00000, 118.885, -31.1159, 120.466, -151.274, 119.738, 88.2906, 0, 0, 8.05433, -54.1898, 8.17318, -174.348, 8.11845, 65.2167, 0.0384144, -62.5621
0, 900.00000, 118.885, -31.1159, 120.466, -151.274, 119.738, 88.2906, 0, 0, 8.05433, -54.1898, 8.17318, -174.348, 8.11845, 65.2167, 0.0384144, -62.5621
0, 960.00000, 117.958, -30.9646, 120.474, -151.268, 118.995, 87.9839, 0, 0, 7.98464, -54.0385, 8.17383, -174.342, 8.06262, 64.9102, 0.042235, -51.5964
0, 1020.00000, 117.958, -30.9646, 120.474, -151.268, 118.995, 87.9839, 0, 0, 7.98459, -54.0385, 8.17384, -174.342, 8.06257, 64.91, 0.0422423, -51.5508
0, 1080.00000, 117.958, -30.9646, 120.474, -151.268, 118.995, 87.9839, 0, 0, 7.98459, -54.0385, 8.17384, -174.342, 8.06257, 64.91, 0.0422423, -51.5507
0, 1140.00000, 117.958, -30.9646, 120.474, -151.268, 118.995, 87.9839, 0, 0, 7.98459, -54.0385, 8.17384, -174.342, 8.06257, 64.91, 0.0422423, -51.5507
0, 1200.00000, 117.958, -30.9646, 120.474, -151.268, 118.995, 87.9839, 0, 0, 7.98459, -54.0385, 8.17384, -174.342, 8.06257, 64.91, 0.0422423, -51.5507
0, 1260.00000, 117.958, -30.9646, 120.474, -151.268, 118.995, 87.9839, 0, 0, 7.98459, -54.0385, 8.17384, -174.342, 8.06257, 64.91, 0.0422423, -51.5507
0, 1320.00000, 117.958, -30.9646, 120.474, -151.268, 118.995, 87.9839, 0, 0, 7.98459, -54.0385, 8.17384, -174.342, 8.06257, 64.91, 0.0422423, -51.5507
0, 1380.00000, 117.958, -30.9646, 120.474, -151.268, 118.995, 87.9839, 0, 0, 7.98459, -54.0385, 8.17384, -174.342, 8.06257, 64.91, 0.0422423, -51.5507
0, 1440.00000, 117.958, -30.9646, 120.474, -151.268, 118.995, 87.9839, 0, 0, 7.98459, -54.0385, 8.17384, -174.342, 8.06257, 64.91, 0.0422423, -51.5507
0, 1500.00000, 117.958, -30.9646, 120.474, -151.268, 118.995, 87.9839, 0, 0, 7.98459, -54.0385, 8.17384, -174.342, 8.06257, 64.91, 0.0422423, -51.5507
0, 1560.00000, 117.958, -30.9646, 120.474, -151.268, 118.995, 87.9839, 0, 0, 7.98459, -54.0385, 8.17384, -174.342, 8.06257, 64.91, 0.0422423, -51.5507
0, 1620.00000, 117.958, -30.9646, 120.474, -151.268, 118.995, 87.9839, 0, 0, 7.98459, -54.0385, 8.17384, -174.342, 8.06257, 64.91, 0.0422423, -51.5507
0, 1680.00000, 117.958, -30.9646, 120.474, -151.268, 118.995, 87.9839, 0, 0, 7.98459, -54.0385, 8.17384, -174.342, 8.06257, 64.91, 0.0422423, -51.5507
0, 1740.00000, 117.958, -30.9646, 120.474, -151.268, 118.995, 87.9839, 0, 0, 7.98459, -54.0385, 8.17384, -174.342, 8.06257, 64.91, 0.0422423, -51.5507
0, 1800.00000, 116.962, -30.7842, 120.483, -151.262, 118.169, 87.6541, 0, 0, 7.90973, -53.8581, 8.17449, -174.336, 8.00048, 64.5806, 0.0474473, -41.7666
0, 1860.00000, 116.962, -30.7842, 120.483, -151.262, 118.169, 87.6542, 0, 0, 7.90965, -53.8581, 8.1745, -174.336, 8.00042, 64.5802, 0.047465, -41.7363
0, 1920.00000, 116.962, -30.7842, 120.483, -151.262, 118.169, 87.6542, 0, 0, 7.90965, -53.8581, 8.1745, -174.336, 8.00042, 64.5802, 0.047465, -41.7362
0, 1980.00000, 116.962, -30.7842, 120.483, -151.262, 118.169, 87.6542, 0, 0, 7.90965, -53.8581, 8.1745, -174.336, 8.00042, 64.5802, 0.047465, -41.7362
0, 2040.00000, 116.962, -30.7842, 120.483, -151.262, 118.169, 87.6542, 0, 0, 7.90965, -53.8581, 8.1745, -174.336, 8.00042, 64.5802, 0.047465, -41.7362
0, 2100.00000, 116.962, -30.7842, 120.483, -151.262, 118.169, 87.6542, 0, 0, 7.90965, -53.8581, 8.1745, -174.336, 8.00042, 64.5802, 0.047465, -41.7362
0, 2160.00000, 116.962, -30.7842, 120.483, -151.262, 118.169, 87.6542, 0, 0, 7.90965, -53.8581, 8.1745, -174.336, 8.00042, 64.5802, 0.047465, -41.7362
0, 2220.00000, 116.962, -30.7842, 120.483, -151.262, 118.169, 87.6542, 0, 0, 7.90965, -53.8581, 8.1745, -174.336, 8.00042, 64.5802, 0.047465, -41.7362
0, 2280.00000, 116.962, -30.7842, 120.483, -151.262, 118.169, 87.6542, 0, 0, 7.90965, -53.8581, 8.1745, -174.336, 8.00042, 64.5802, 0.047465, -41.7362
0, 2340.00000, 116.962, -30.7842, 120.483, -151.262, 118.169, 87.6542, 0, 0, 7.90965, -53.8581, 8.1745, -174.336, 8.00042, 64.5802, 0.047465, -41.7362
0, 2400.00000, 116.962, -30.7842, 120.483, -151.262, 118.169, 87.6542, 0, 0, 7.90965, -53.8581, 8.1745, -174.336, 8.00042, 64.5802, 0.047465, -41.7362
0, 2460.00000, 116.962, -30.7842, 120.483, -151.262, 118.169, 87.6542, 0, 0, 7.90965, -53.8581, 8.1745, -174.336, 8.00042, 64.5802, 0.047465, -41.7362
0, 2520.00000, 116.962, -30.7842, 120.483, -151.262, 118.169, 87.6542, 0, 0, 7.90965, -53.8581, 8.1745, -174.336, 8.00042, 64.5802, 0.047465, -41.7362
0, 2580.00000, 116.962, -30.7842, 120.483, -151.262, 118.169, 87.6542, 0, 0, 7.90965, -53.8581, 8.1745, -174.336, 8.00042, 64.5802, 0.047465, -41.7362
0, 2640.00000, 116.962, -30.7842, 120.483, -151.262, 118.169, 87.6542, 0, 0, 7.90965, -53.8581, 8.1745, -174.336, 8.00042, 64.5802, 0.047465, -41.7362
0, 2700.00000, 116.962, -30.7842, 120.483, -151.262, 118.169, 87.6542, 0, 0, 7.90965, -53.8581, 8.1745, -174.336, 8.00042, 64.5802, 0.047465, -41.7362
0, 2760.00000, 117.28, -30.7607, 120.482, -151.263, 118.292, 87.7985, 0, 0, 7.93356, -53.8348, 8.17444, -174.337, 8.00965, 64.7243, 0.0454451, -43.5911
0, 2820.00000, 117.28, -30.7607, 120.482, -151.264, 118.292, 87.7985, 0, 0, 7.93361, -53.8346, 8.17443, -174.337, 8.0097, 64.7246, 0.0454526, -43.6795
0, 2880.00000, 117.28, -30.7607, 120.482, -151.264, 118.292, 87.7985, 0, 0, 7.93361, -53.8346, 8.17443, -174.337, 8.0097, 64.7246, 0.0454527, -43.6799
0, 2940.00000, 117.28, -30.7607, 120.482, -151.264, 118.292, 87.7985, 0, 0, 7.93361, -53.8346, 8.17443, -174.337, 8.0097, 64.7246, 0.0454527, -43.68
0, 3000.00000, 117.28, -30.7607, 120.482, -151.264, 118.292, 87.7985, 0, 0, 7.93361, -53.8346, 8.17443, -174.337, 8.0097, 64.7246, 0.0454527, -43.68
0, 3060.00000, 117.28, -30.7607, 120.482, -151.264, 118.292, 87.7985, 0, 0, 7.93361, -53.8346, 8.17443, -174.337, 8.0097, 64.7246, 0.0454527, -43.68
0, 3120.00000, 117.28, -30.7607, 120.482, -151.264, 118.292, 87.7985, 0, 0, 7.93361, -53.8346, 8.17443, -174.337, 8.0097, 64.7246, 0.0454527, -43.68
0, 3180.00000, 117.28, -30.7607, 120.482, -151.264, 118.292, 87.7985, 0, 0, 7.93361, -53.8346, 8.17443, -174.337, 8.0097, 64.7246, 0.0454527, -43.68
0, 3240.00000, 117.28, -30.7607, 120.482, -151.264, 118.292, 87.7985, 0, 0, 7.93361, -53.8346, 8.17443, -174.337, 8.0097, 64.7246, 0.0454527, -43.68
0, 3300.00000, 117.28, -30.7607, 120.482, -151.264, 118.292, 87.7985, 0, 0, 7.93361, -53.8346, 8.17443, -174.337, 8.0097, 64.7246, 0.0454527, -43.68
0, 3360.00000, 117.28, -30.7607, 120.482, -151.264, 118.292, 87.7985, 0, 0, 7.93361, -53.8346, 8.17443, -174.337, 8.0097, 64.7246, 0.0454527, -43.68
0, 3420.00000, 117.28, -30.7607, 120.482, -151.264, 118.292, 87.7985, 0, 0, 7.93361, -53.8346, 8.17443, -174.337, 8.0097, 64.7246, 0.0454527, -43.68
0, 3480.00000, 117.28, -30.7607, 120.482, -151.264, 118.292, 87.7985, 0, 0, 7.93361, -53.8346, 8.17443, -174.337, 8.0097, 64.7246, 0.0454527, -43.68
0, 3540.00000, 117.28, -30.7607, 120.482, -151.264, 118.292, 87.7985, 0, 0, 7.93361, -53.8346, 8.17443, -174.337, 8.0097, 64.7246, 0.0454527, -43.68
1, 0.00000, 117.28, -30.7607, 120.482, -151.264, 118.292, 87.7985, 0, 0, 7.93361, -53.8346, 8.17443, -174.337, 8.0097, 64.7246, 0.0454527, -43.68
1, 60.00000, 117.568, -30.7328, 120.483, -151.264, 118.388, 87.9316, 0, 0, 7.95521, -53.8069, 8.17447, -174.338, 8.0169, 64.8575, 0.0435487, -44.9477
1, 120.00000, 117.568, -30.7328, 120.483, -151.264, 118.388, 87.9316, 0, 0, 7.95525, -53.8067, 8.17447, -174.338, 8.01693, 64.8577, 0.0435427, -45.0094
1, 180.00000, 117.568, -30.7328, 120.483, -151.264, 118.388, 87.9316, 0, 0, 7.95525, -53.8067, 8.17447, -174.338, 8.01693, 64.8577, 0.0435427, -45.0097
1, 240.00000, 117.568, -30.7328, 120.483, -151.264, 118.388, 87.9316, 0, 0, 7.95525, -53.8067, 8.17447, -174.338, 8.01693, 64.8577, 0.0435427, -45.0097
1, 300.00000, 117.568, -30.7328, 120.483, -151.264, 118.388, 87.9316, 0, 0, 7.95525, -53.8067, 8.17447, -174.338, 8.01693, 64.8577, 0.0435427, -45.0097
1, 360.00000, 117.568, -30.7328, 120.483, -151.264, 118.388, 87.9316, 0, 0, 7.95525, -53.8067, 8.17447, -174.338, 8.01693, 64.8577, 0.0435427, -45.0097
1, 420.00000, 117.568, -30.7328, 120.483, -151.264, 118.388, 87.9316, 0, 0, 7.95525, -53.8067, 8.17447, -174.338, 8.01693, 64.8577, 0.0435427, -45.0097
1, 480.00000, 117.568, -30.7328, 120.483, -151.264, 118.388, 87.9316, 0, 0, 7.95525, -53.8067, 8.17447, -174.338, 8.01693, 64.8577, 0.0435427, -45.0097
1, 540.00000, 117.568, -30.7328, 120.483, -151.264, 118.388, 87.9316, 0, 0, 7.95525, -53.8067, 8.17447, -174.338, 8.01693, 64.8577, 0.0435427, -45.0097
1, 600.00000, 117.568, -30.7328, 120.483, -151.264, 118.388, 87.9316, 0, 0, 7.95525, -53.8067, 8.17447, -174.338, 8.01693, 64.8577, 0.0435427, -45.0097
1, 660.00000, 117.568, -30.7328, 120.483, -151.264, 118.388, 87.9316, 0, 0, 7.95525, -53.8067, 8.17447, -174.338, 8.01693, 64.8577, 0.0435427, -45.0097
1, 720.00000, 117.568, -30.7328, 120.483, -151.264, 118.388, 87.9316, 0, 0, 7.95525, -53.8067, 8.17447, -174.338, 8.01693, 64.8577, 0.0435427, -45.0097
1, 780.00000, 118.112, -30.7637, 120.487, -151.265, 118.704, 88.1452, 0, 0, 7.99613, -53.8378, 8.17475, -174.339, 8.04065, 65.0711, 0.0402686, -46.9457
1, 840.00000, 118.112, -30.7637, 120.487, -151.265, 118.704, 88.1452, 0, 0, 7.99619, -53.8376, 8.17475, -174.339, 8.04067, 65.0712, 0.0402328, -46.9939
1, 900.00000, 118.112, -30.7637, 120.487, -151.265, 118.704, 88.1452, 0, 0, 7.99619, -53.8376, 8.17475, -174.339, 8.04067, 65.0712, 0.0402327, -46.9942
1, 960.00000, 118.112, -30.7637, 120.487, -151.265, 118.704, 88.1452, 0, 0, 7.99619, -53.8376, 8.17475, -174.339, 8.04067, 65.0712, 0.0402327, -46.9942
1, 1020.00000, 118.112, -30.7637, 120.487, -151.265, 118.704, 88.1452, 0, 0, 7.99619, -53.8376, 8.17475, -174.339, 8.04067, 65.0712, 0.0402327, -46.9942
1, 1080.00000, 118.112, -30.7637, 120.487, -151.265, 118.704, 88.1452, 0, 0, 7.99619, -53.8376, 8.17475, -174.339, 8.04067, 65.0712, 0.0402327, -46.9942
1, 1140.00000, 118.112, -30.7637, 120.487, -151.265, 118.704, 88.1452, 0, 0, 7.99619, -53.8376, 8.17475, -174.339, 8.04067, 65.0712, 0.0402327, -46.9942
1, 1200.00000, 118.112, -30.7637, 120.487, -151.265, 118.704, 88.1452, 0, 0, 7.99619, -53.8376, 8.17475, -174.339, 8.04067, 65.0712, 0.0402327, -46.9942
1, 1260.00000, 118.112, -30.7637, 120.487, -151.265, 118.704, 88.1452, 0, 0, 7.99619, -53.8376, 8.17475, -174.339, 8.04067, 65.0712, 0.0402327, -46.9942
1, 1320.00000, 118.112, -30.7637, 120.487, -151.265, 118.704, 88.1452, 0, 0, 7.99619, -53.8376, 8.17475, -174.339, 8.04067, 65.0712, 0.0402327, -46.9942
1, 1380.00000, 118.112, -30.7637, 120.487, -151.265, 118.704, 88.1452, 0, 0, 7.99619, -53.8376, 8.17475, -174.339, 8.04067, 65.0712, 0.0402327, -46.9942
1, 1440.00000, 118.112, -30.7637, 120.487, -151.265, 118.704, 88.1452, 0, 0, 7.99619, -53.8376, 8.17475, -174.339, 8.04067, 65.0712, 0.0402327, -46.9942
1, 1500.00000, 118.112, -30.7637, 120.487, -151.265, 118.704, 88.1452, 0, 0, 7.99619, -53.8376, 8.17475, -174.339, 8.04067, 65.0712, 0.0402327, -46.9942
1, 1560.00000, 118.112, -30.7637, 120.487, -151.265, 118.704, 88.1452, 0, 0, 7.99619, -53.8376, 8.17475, -174.339, 8.04067, 65.0712, 0.0402327, -46.9942
1, 1620.00000, 118.112, -30.7637, 120.487, -151.265, 118.704, 88.1452, 0, 0, 7.99619, -53.8376, 8.17475, -174.339, 8.04067, 65.0712, 0.0402327, -46.9942
1, 1680.00000, 118.112, -30.7637, 120.487, -151.265, 118.704, 88.1452, 0, 0, 7.99619, -53.8376, 8.17475, -174.339, 8.04067, 65.0712, 0.0402327, -46.9942
1, 1740.00000, 118.112, -30.7637, 120.487, -151.265, 118.704, 88.1452, 0, 0, 7.99619, -53.8376, 8.17475, -174.339, 8.04067, 65.0712, 0.0402327, -46.9942
1, 1800.00000, 118.112, -30.7637, 120.487, -151.265, 118.704, 88.1452, 0, 0, 7.99619, -53.8376, 8.17475, -174.339, 8.04067, 65.0712, 0.0402327, -46.9942
1, 1860.00000, 118.112, -30.7637, 120.487, -151.265, 118.704, 88.1452, 0, 0, 7.99619, -53.8376, 8.17475, -174.339, 8.04067, 65.0712, 0.0402327, -46.9942
1, 1920.00000, 118.112, -30.7637, 120.487, -151.265, 118.704, 88.1452, 0, 0, 7.99619, -53.8376, 8.17475, -174.339, 8.04067, 65.0712, 0.0402327, -46.9942
1, 1980.00000, 118.112, -30.7637, 120.487, -151.265, 118.704, 88.1452, 0, 0, 7.99619, -53.8376, 8.17475, -174.339, 8.04067, 65.0712, 0.0402327, -46.9942
1, 2040.00000, 118.112, -30.7637, 120.487, -151.265, 118.704, 88.1452, 0, 0, 7.99619, -53.8376, 8.17475, -174.339, 8.04067, 65.0712, 0.0402327, -46.9942
1, 2100.00000, 118.112, -30.7637, 120.487, -151.265, 118.704, 88.1452, 0, 0, 7.99619, -53.8376, 8.17475, -174.339, 8.04067, 65.0712, 0.0402327, -46.9942
1, 2160.00000, 118.112, -30.7637, 120.487, -151.265, 118.704, 88.1452, 0, 0, 7.99619, -53.8376, 8.17475, -174.339, 8.04067, 65.0712, 0.0402327, -46.9942
1, 2220.00000, 119.137, -30.9388, 120.476, -151.269, 119.539, 88.4766, 0, 0, 8.07317, -54.0129, 8.17397, -174.343, 8.10348, 65.4026, 0.034679, -59.9768
1, 2280.00000, 119.137, -30.9388, 120.476, -151.269, 119.539, 88.4766, 0, 0, 8.07323, -54.0127, 8.17396, -174.343, 8.1035, 65.4027, 0.0346401, -60.0538
1, 2340.00000, 119.137, -30.9388, 120.476, -151.269, 119.539, 88.4766, 0, 0, 8.07323, -54.0127, 8.17396, -174.343, 8.1035, 65.4027, 0.0346399, -60.0542
1, 2400.00000, 119.137, -30.9388, 120.476, -151.269, 119.539, 88.4766, 0, 0, 8.07323, -54.0127, 8.17396, -174.343, 8.1035, 65.4027, 0.0346399, -60.0542
1, 2460.00000, 119.137, -30.9388, 120.476, -151.269, 119.539, 88.4766, 0, 0, 8.07323, -54.0127, 8.17396, -174.343, 8.1035, 65.4027, 0.0346399, -60.0542
1, 2520.00000, 119.137, -30.9388, 120.476, -151.269, 119.539, 88.4766, 0, 0, 8.07323, -54.0127, 8.17396, -174.343, 8.1035, 65.4027, 0.0346399, -60.0542
1, 2580.00000, 119.137, -30.9388, 120.476, -151.269, 119.539, 88.4766, 0, 0, 8.07323, -54.0127, 8.17396, -174.343, 8.1035, 65.4027, 0.0346399, -60.0542
1, 2640.00000, 119.137, -30.9388, 120.476, -151.269, 119.539, 88.4766, 0, 0, 8.07323, -54.0127, 8.17396, -174.343, 8.1035, 65.4027, 0.0346399, -60.0542
1, 2700.00000, 119.137, -30.9388, 120.476, -151.269, 119.539, 88.4766, 0, 0, 8.07323, -54.0127, 8.17396, -174.343, 8.1035, 65.4027, 0.0346399, -60.0542
1, 2760.00000, 119.137, -30.9388, 120.476, -151.269, 119.539, 88.4766, 0, 0, 8.07323, -54.0127, 8.17396, -174.343, 8.1035, 65.4027, 0.0346399, -60.0542
1, 2820.00000, 119.137, -30.9388, 120.476, -151.269, 119.539, 88.4766, 0, 0, 8.07323, -54.0127, 8.17396, -174.343, 8.1035, 65.4027, 0.0346399, -60.0542
1, 2880.00000, 119.137, -30.9388, 120.476, -151.269, 119.539, 88.4766, 0, 0, 8.07323, -54.0127, 8.17396, -174.343, 8.1035, 65.4027, 0.0346399, -60.0542
1, 2940.00000, 119.137, -30.9388, 120.476, -151.269, 119.539, 88.4766, 0, 0, 8.07323, -54.0127, 8.17396, -174.343, 8.1035, 65.4027, 0.0346399, -60.0542
1, 3000.00000, 119.137, -30.9388, 120.476, -151.269, 119.539, 88.4766, 0, 0, 8.07323, -54.0127, 8.17396, -174.343, 8.1035, 65.4027, 0.0346399, -60.0542
1, 3060.00000, 119.137, -30.9388, 120.476, -151.269, 119.539, 88.4766, 0, 0, 8.07323, -54.0127, 8.17396, -174.343, 8.1035, 65.4027, 0.0346399, -60.0542
1, 3120.00000, 119.137, -30.9388, 120.476, -151.269, 119.539, 88.4766, 0, 0, 8.07323, -54.0127, 8.17396, -174.343, 8.1035, 65.4027, 0.0346399, -60.0542
1, 3180.00000, 119.137, -30.9388, 120.476, -151.269, 119.539, 88.4766, 0, 0, 8.07323, -54.0127, 8.17396, -174.343, 8.1035, 65.4027, 0.0346399, -60.0542
1, 3240.00000, 119.137, -30.9388, 120.476, -151.269, 119.539, 88.4766, 0, 0, 8.07323, -54.0127, 8.17396, -174.343, 8.1035, 65.4027, 0.0346399, -60.0542
1, 3300.00000, 119.137, -30.9388, 120.476, -151.269, 119.539, 88.4766, 0, 0, 8.07323, -54.0127, 8.17396, -174.343, 8.1035, 65.4027, 0.0346399, -60.0542
1, 3360.00000, 119.137, -30.9388, 120.476, -151.269, 119.539, 88.4766, 0, 0, 8.07323, -54.0127, 8.17396, -174.343, 8.1035, 65.4027, 0.0346399, -60.0542
1, 3420.00000, 119.137, -30.9388, 120.476, -151.269, 119.539, 88.4766, 0, 0, 8.07323, -54.0127, 8.17396, -174.343, 8.1035, 65.4027, 0.0346399, -60.0542
1, 3480.00000, 119.137, -30.9388, 120.476, -151.269, 119.539, 88.4766, 0, 0, 8.07323, -54.0127, 8.17396, -174.343, 8.1035, 65.4027, 0.0346399, -60.0542
1, 3540.00000, 119.137, -30.9388, 120.476, -151.269, 119.539, 88.4766, 0, 0, 8.07323, -54.0127, 8.17396, -174.343, 8.1035, 65.4027, 0.0346399, -60.0542
2, 0.00000, 119.137, -30.9388, 120.476, -151.269, 119.539, 88.4766, 0, 0, 8.07323, -54.0127, 8.17396, -174.343, 8.1035, 65.4027, 0.0346399, -60.0542
2, 60.00000, 119.137, -30.9388, 120.476, -151.269, 119.539, 88.4766, 0, 0, 8.07323, -54.0127, 8.17396, -174.343, 8.1035, 65.4027, 0.0346399, -60.0542
2, 120.00000, 119.137, -30.9388, 120.476, -151.269, 119.539, 88.4766, 0, 0, 8.07323, -54.0127, 8.17396, -174.343, 8.1035, 65.4027, 0.0346399, -60.0542
2, 180.00000, 119.137, -30.9388, 120.476, -151.269, 119.539, 88.4766, 0, 0, 8.07323, -54.0127, 8.17396, -174.343, 8.1035, 65.4027, 0.0346399, -60.0542
2, 240.00000, 119.137, -30.9388, 120.476, -151.269, 119.539, 88.4766, 0, 0, 8.07323, -54.0127, 8.17396, -174.343, 8.1035, 65.4027, 0.0346399, -60.0542
2, 300.00000, 119.137, -30.9388, 120.476, -151.269, 119.539, 88.4766, 0, 0, 8.07323, -54.0127, 8.17396, -174.343, 8.1035, 65.4027, 0.0346399, -60.0542
2, 360.00000, 119.137, -30.9388, 120.476, -151.269, 119.539, 88.4766, 0, 0, 8.07323, -54.0127, 8.17396, -174.343, 8.1035, 65.4027, 0.0346399, -60.0542
2, 420.00000, 119.137, -30.9388, 120.476, -151.269, 119.539, 88.4766, 0, 0, 8.07323, -54.0127, 8.17396, -174.343, 8.1035, 65.4027, 0.0346399, -60.0542
2, 480.00000, 119.137, -30.9388, 120.476, -151.269, 119.539, 88.4766, 0, 0, 8.07323, -54.0127, 8.17396, -174.343, 8.1035, 65.4027, 0.0346399, -60.0542
2, 540.00000, 119.137, -30.9388, 120.476, -151.269, 119.539, 88.4766, 0, 0, 8.07323, -54.0127, 8.17396, -174.343, 8.1035, 65.4027, 0.0346399, -60.0542
2, 600.00000, 119.137, -30.9388, 120.476, -151.269, 119.539, 88.4766, 0, 0, 8.07323, -54.0127, 8.17396, -174.343, 8.1035, 65.4027, 0.0346399, -60.0542
2, 660.00000, 119.137, -30.9388, 120.476, -151.269, 119.539, 88.4766, 0, 0, 8.07323, -54.0127, 8.17396, -174.343, 8.1035, 65.4027, 0.0346399, -60.0542
