hour,t(sec),V1,VAngle1,V2,VAngle2,V3,VAngle3,V4,VAngle4,I1,IAngle1,I2,IAngle2,I3,IAngle3,I4,IAngle4
0, 60.00000, 122.785, -31.4777, 123.479, -151.48, 123.319, 88.2738, 0, 0, 2.76998, -54.5514, 2.75441, -174.554, 2.75797, 65.2002, 0.0257206, 146.143
0, 120.00000, 122.785, -31.4777, 123.479, -151.48, 123.319, 88.2738, 0, 0, 2.77001, -54.5516, 2.75445, -174.554, 2.75801, 65.1999, 0.0257346, 146.132
0, 180.00000, 122.785, -31.4777, 123.479, -151.48, 123.319, 88.2738, 0, 0, 2.77001, -54.5516, 2.75445, -174.554, 2.75801, 65.1999, 0.0257346, 146.132
0, 240.00000, 122.785, -31.4777, 123.479, -151.48, 123.319, 88.2738, 0, 0, 2.77001, -54.5516, 2.75445, -174.554, 2.75801, 65.1999, 0.0257346, 146.132
0, 300.00000, 122.785, -31.4777, 123.479, -151.48, 123.319, 88.2738, 0, 0, 2.77001, -54.5516, 2.75445, -174.554, 2.75801, 65.1999, 0.0257346, 146.132
0, 360.00000, 122.785, -31.4777, 123.479, -151.48, 123.319, 88.2738, 0, 0, 2.77001, -54.5516, 2.75445, -174.554, 2.75801, 65.1999, 0.0257346, 146.132
0, 420.00000, 122.785, -31.4777, 123.479, -151.48, 123.319, 88.2738, 0, 0, 2.77001, -54.5516, 2.75445, -174.554, 2.75801, 65.1999, 0.0257346, 146.132
0, 480.00000, 123.322, -31.3594, 123.995, -151.366, 123.827, 88.3989, 0, 0, 2.492, -54.4336, 2.47846, -174.44, 2.48183, 65.3246, 0.0222949, 147.337
0, 540.00000, 123.322, -31.3594, 123.996, -151.366, 123.827, 88.3989, 0, 0, 2.49196, -54.4333, 2.47843, -174.439, 2.4818, 65.325, 0.0222794, 147.362
0, 600.00000, 123.322, -31.3594, 123.996, -151.366, 123.827, 88.3989, 0, 0, 2.49196, -54.4333, 2.47843, -174.439, 2.4818, 65.325, 0.0222793, 147.362
0, 660.00000, 123.322, -31.3594, 123.996, -151.366, 123.827, 88.3989, 0, 0, 2.49196, -54.4333, 2.47843, -174.439, 2.4818, 65.325, 0.0222793, 147.362
0, 720.00000, 123.322, -31.3594, 123.996, -151.366, 123.827, 88.3989, 0, 0, 2.49196, -54.4333, 2.47843, -174.439, 2.4818, 65.325, 0.0222793, 147.362
0, 780.00000, 123.322, -31.3594, 123.996, -151.366, 123.827, 88.3989, 0, 0, 2.49196, -54.4333, 2.47843, -174.439, 2.4818, 65.325, 0.0222793, 147.362
0, 840.00000, 123.322, -31.3594, 123.996, -151.366, 123.827, 88.3989, 0, 0, 2.49196, -54.4333, 2.47843, -174.439, 2.4818, 65.325, 0.0222793, 147.362
0, 900.00000, 123.322, -31.3594, 123.996, -151.366, 123.827, 88.3989, 0, 0, 2.49196, -54.4333, 2.47843, -174.439, 2.4818, 65.325, 0.0222793, 147.362
0, 960.00000, 123.218, -31.4859, 123.695, -151.391, 123.835, 88.3966, 0, 0, 2.49405, -54.5599, 2.48444, -174.465, 2.48165, 65.3227, 0.0190658, 119.645
0, 1020.00000, 123.218, -31.4859, 123.694, -151.391, 123.835, 88.3966, 0, 0, 2.49406, -54.5598, 2.48446, -174.465, 2.48165, 65.3227, 0.019065, 119.589
0, 1080.00000, 123.218, -31.4859, 123.694, -151.391, 123.835, 88.3966, 0, 0, 2.49406, -54.5598, 2.48446, -174.465, 2.48165, 65.3227, 0.019065, 119.589
0, 1140.00000, 123.218, -31.4859, 123.694, -151.391, 123.835, 88.3966, 0, 0, 2.49406, -54.5598, 2.48446, -174.465, 2.48165, 65.3227, 0.019065, 119.589
0, 1200.00000, 123.218, -31.4859, 123.694, -151.391, 123.835, 88.3966, 0, 0, 2.49406, -54.5598, 2.48446, -174.465, 2.48165, 65.3227, 0.019065, 119.589
0, 1260.00000, 123.218, -31.4859, 123.694, -151.391, 123.835, 88.3966, 0, 0, 2.49406, -54.5598, 2.48446, -174.465, 2.48165, 65.3227, 0.019065, 119.589
0, 1320.00000, 123.218, -31.4859, 123.694, -151.391, 123.835, 88.3966, 0, 0, 2.49406, -54.5598, 2.48446, -174.465, 2.48165, 65.3227, 0.019065, 119.589
0, 1380.00000, 123.218, -31.4859, 123.694, -151.391, 123.835, 88.3966, 0, 0, 2.49406, -54.5598, 2.48446, -174.465, 2.48165, 65.3227, 0.019065, 119.589
0, 1440.00000, 123.218, -31.4859, 123.694, -151.391, 123.835, 88.3966, 0, 0, 2.49406, -54.5598, 2.48446, -174.465, 2.48165, 65.3227, 0.019065, 119.589
0, 1500.00000, 123.218, -31.4859, 123.694, -151.391, 123.835, 88.3966, 0, 0, 2.49406, -54.5598, 2.48446, -174.465, 2.48165, 65.3227, 0.019065, 119.589
0, 1560.00000, 123.218, -31.4859, 123.694, -151.391, 123.835, 88.3966, 0, 0, 2.49406, -54.5598, 2.48446, -174.465, 2.48165, 65.3227, 0.019065, 119.589
0, 1620.00000, 123.218, -31.4859, 123.694, -151.391, 123.835, 88.3966, 0, 0, 2.49406, -54.5598, 2.48446, -174.465, 2.48165, 65.3227, 0.019065, 119.589
0, 1680.00000, 123.218, -31.4859, 123.694, -151.391, 123.835, 88.3966, 0, 0, 2.49406, -54.5598, 2.48446, -174.465, 2.48165, 65.3227, 0.019065, 119.589
0, 1740.00000, 123.218, -31.4859, 123.694, -151.391, 123.835, 88.3966, 0, 0, 2.49406, -54.5598, 2.48446, -174.465, 2.48165, 65.3227, 0.019065, 119.589
0, 1800.00000, 123.218, -31.4859, 123.694, -151.391, 123.835, 88.3966, 0, 0, 2.49406, -54.5598, 2.48446, -174.465, 2.48165, 65.3227, 0.019065, 119.589
0, 1860.00000, 123.218, -31.4859, 123.694, -151.391, 123.835, 88.3966, 0, 0, 2.49406, -54.5598, 2.48446, -174.465, 2.48165, 65.3227, 0.019065, 119.589
0, 1920.00000, 123.218, -31.4859, 123.694, -151.391, 123.835, 88.3966, 0, 0, 2.49406, -54.5598, 2.48446, -174.465, 2.48165, 65.3227, 0.019065, 119.589
0, 1980.00000, 123.218, -31.4859, 123.694, -151.391, 123.835, 88.3966, 0, 0, 2.49406, -54.5598, 2.48446, -174.465, 2.48165, 65.3227, 0.019065, 119.589
0, 2040.00000, 123.218, -31.4859, 123.694, -151.391, 123.835, 88.3966, 0, 0, 2.49406, -54.5598, 2.48446, -174.465, 2.48165, 65.3227, 0.019065, 119.589
0, 2100.00000, 123.218, -31.4859, 123.694, -151.391, 123.835, 88.3966, 0, 0, 2.49406, -54.5598, 2.48446, -174.465, 2.48165, 65.3227, 0.019065, 119.589
0, 2160.00000, 123.218, -31.4859, 123.694, -151.391, 123.835, 88.3966, 0, 0, 2.49406, -54.5598, 2.48446, -174.465, 2.48165, 65.3227, 0.019065, 119.589
0, 2220.00000, 123.218, -31.4859, 123.694, -151.391, 123.835, 88.3966, 0, 0, 2.49406, -54.5598, 2.48446, -174.465, 2.48165, 65.3227, 0.019065, 119.589
0, 2280.00000, 123.218, -31.4859, 123.694, -151.391, 123.835, 88.3966, 0, 0, 2.49406, -54.5598, 2.48446, -174.465, 2.48165, 65.3227, 0.019065, 119.589
0, 2340.00000, 123.218, -31.4859, 123.694, -151.391, 123.835, 88.3966, 0, 0, 2.49406, -54.5598, 2.48446, -174.465, 2.48165, 65.3227, 0.019065, 119.589
0, 2400.00000, 123.218, -31.4859, 123.694, -151.391, 123.835, 88.3966, 0, 0, 2.49406, -54.5598, 2.48446, -174.465, 2.48165, 65.3227, 0.019065, 119.589
0, 2460.00000, 123.218, -31.4859, 123.694, -151.391, 123.835, 88.3966, 0, 0, 2.49406, -54.5598, 2.48446, -174.465, 2.48165, 65.3227, 0.019065, 119.589
0, 2520.00000, 123.218, -31.4859, 123.694, -151.391, 123.835, 88.3966, 0, 0, 2.49406, -54.5598, 2.48446, -174.465, 2.48165, 65.3227, 0.019065, 119.589
0, 2580.00000, 123.218, -31.4859, 123.694, -151.391, 123.835, 88.3966, 0, 0, 2.49406, -54.5598, 2.48446, -174.465, 2.48165, 65.3227, 0.019065, 119.589
0, 2640.00000, 123.218, -31.4859, 123.694, -151.391, 123.835, 88.3966, 0, 0, 2.49406, -54.5598, 2.48446, -174.465, 2.48165, 65.3227, 0.019065, 119.589
0, 2700.00000, 123.218, -31.4859, 123.694, -151.391, 123.835, 88.3966, 0, 0, 2.49406, -54.5598, 2.48446, -174.465, 2.48165, 65.3227, 0.019065, 119.589
0, 2760.00000, 123.471, -31.3146, 124.161, -151.395, 123.806, 88.4002, 0, 0, 2.48899, -54.3885, 2.47515, -174.469, 2.4822, 65.3263, 0.0228108, 163.479
0, 2820.00000, 123.471, -31.3146, 124.161, -151.395, 123.806, 88.4002, 0, 0, 2.48896, -54.3885, 2.47512, -174.469, 2.48222, 65.3263, 0.0228327, 163.548
0, 2880.00000, 123.471, -31.3146, 124.161, -151.395, 123.806, 88.4002, 0, 0, 2.48896, -54.3885, 2.47512, -174.469, 2.48222, 65.3263, 0.0228328, 163.549
0, 2940.00000, 123.471, -31.3146, 124.161, -151.395, 123.806, 88.4002, 0, 0, 2.48896, -54.3885, 2.47512, -174.469, 2.48222, 65.3263, 0.0228328, 163.549
0, 3000.00000, 123.471, -31.3146, 124.161, -151.395, 123.806, 88.4002, 0, 0, 2.48896, -54.3885, 2.47512, -174.469, 2.48222, 65.3263, 0.0228328, 163.549
0, 3060.00000, 123.471, -31.3146, 124.161, -151.395, 123.806, 88.4002, 0, 0, 2.48896, -54.3885, 2.47512, -174.469, 2.48222, 65.3263, 0.0228328, 163.549
0, 3120.00000, 123.471, -31.3146, 124.161, -151.395, 123.806, 88.4002, 0, 0, 2.48896, -54.3885, 2.47512, -174.469, 2.48222, 65.3263, 0.0228328, 163.549
0, 3180.00000, 123.471, -31.3146, 124.161, -151.395, 123.806, 88.4002, 0, 0, 2.48896, -54.3885, 2.47512, -174.469, 2.48222, 65.3263, 0.0228328, 163.549
0, 3240.00000, 123.471, -31.3146, 124.161, -151.395, 123.806, 88.4002, 0, 0, 2.48896, -54.3885, 2.47512, -174.469, 2.48222, 65.3263, 0.0228328, 163.549
0, 3300.00000, 123.471, -31.3146, 124.161, -151.395, 123.806, 88.4002, 0, 0, 2.48896, -54.3885, 2.47512, -174.469, 2.48222, 65.3263, 0.0228328, 163.549
0, 3360.00000, 123.471, -31.3146, 124.161, -151.395, 123.806, 88.4002, 0, 0, 2.48896, -54.3885, 2.47512, -174.469, 2.48222, 65.3263, 0.0228328, 163.549
0, 3420.00000, 123.471, -31.3146, 124.161, -151.395, 123.806, 88.4002, 0, 0, 2.48896, -54.3885, 2.47512, -174.469, 2.48222, 65.3263, 0.0228328, 163.549
0, 3480.00000, 123.471, -31.3146, 124.161, -151.395, 123.806, 88.4002, 0, 0, 2.48896, -54.3885, 2.47512, -174.469, 2.48222, 65.3263, 0.0228328, 163.549
0, 3540.00000, 123.471, -31.3146, 124.161, -151.395, 123.806, 88.4002, 0, 0, 2.48896, -54.3885, 2.47512, -174.469, 2.48222, 65.3263, 0.0228328, 163.549
1, 0.00000, 123.471, -31.3146, 124.161, -151.395, 123.806, 88.4002, 0, 0, 2.48896, -54.3885, 2.47512, -174.469, 2.48222, 65.3263, 0.0228328, 163.549
1, 60.00000, 123.96, -31.3134, 124.157, -151.394, 124.055, 88.5845, 0, 0, 2.47917, -54.3877, 2.4752, -174.468, 2.47725, 65.5106, 0.00682923, -177.654
1, 120.00000, 123.96, -31.3134, 124.156, -151.394, 124.055, 88.5845, 0, 0, 2.47913, -54.3873, 2.47522, -174.468, 2.47724, 65.5106, 0.00680263, -177.417
1, 180.00000, 123.96, -31.3134, 124.156, -151.394, 124.055, 88.5845, 0, 0, 2.47913, -54.3873, 2.47522, -174.468, 2.47724, 65.5106, 0.0068025, -177.416
1, 240.00000, 123.96, -31.3134, 124.156, -151.394, 124.055, 88.5845, 0, 0, 2.47913, -54.3873, 2.47522, -174.468, 2.47724, 65.5106, 0.0068025, -177.416
1, 300.00000, 123.96, -31.3134, 124.156, -151.394, 124.055, 88.5845, 0, 0, 2.47913, -54.3873, 2.47522, -174.468, 2.47724, 65.5106, 0.0068025, -177.416
1, 360.00000, 123.96, -31.3134, 124.156, -151.394, 124.055, 88.5845, 0, 0, 2.47913, -54.3873, 2.47522, -174.468, 2.47724, 65.5106, 0.0068025, -177.416
1, 420.00000, 123.96, -31.3134, 124.156, -151.394, 124.055, 88.5845, 0, 0, 2.47913, -54.3873, 2.47522, -174.468, 2.47724, 65.5106, 0.0068025, -177.416
1, 480.00000, 123.96, -31.3134, 124.156, -151.394, 124.055, 88.5845, 0, 0, 2.47913, -54.3873, 2.47522, -174.468, 2.47724, 65.5106, 0.0068025, -177.416
1, 540.00000, 123.96, -31.3134, 124.156, -151.394, 124.055, 88.5845, 0, 0, 2.47913, -54.3873, 2.47522, -174.468, 2.47724, 65.5106, 0.0068025, -177.416
1, 600.00000, 123.96, -31.3134, 124.156, -151.394, 124.055, 88.5845, 0, 0, 2.47913, -54.3873, 2.47522, -174.468, 2.47724, 65.5106, 0.0068025, -177.416
1, 660.00000, 123.96, -31.3134, 124.156, -151.394, 124.055, 88.5845, 0, 0, 2.47913, -54.3873, 2.47522, -174.468, 2.47724, 65.5106, 0.0068025, -177.416
1, 720.00000, 123.96, -31.3134, 124.156, -151.394, 124.055, 88.5845, 0, 0, 2.47913, -54.3873, 2.47522, -174.468, 2.47724, 65.5106, 0.0068025, -177.416
1, 780.00000, 123.96, -31.3134, 124.156, -151.394, 124.055, 88.5845, 0, 0, 2.47913, -54.3873, 2.47522, -174.468, 2.47724, 65.5106, 0.0068025, -177.416
1, 840.00000, 123.96, -31.3134, 124.156, -151.394, 124.055, 88.5845, 0, 0, 2.47913, -54.3873, 2.47522, -174.468, 2.47724, 65.5106, 0.0068025, -177.416
1, 900.00000, 123.96, -31.3134, 124.156, -151.394, 124.055, 88.5845, 0, 0, 2.47913, -54.3873, 2.47522, -174.468, 2.47724, 65.5106, 0.0068025, -177.416
1, 960.00000, 123.96, -31.3134, 124.156, -151.394, 124.055, 88.5845, 0, 0, 2.47913, -54.3873, 2.47522, -174.468, 2.47724, 65.5106, 0.0068025, -177.416
1, 1020.00000, 123.96, -31.3134, 124.156, -151.394, 124.055, 88.5845, 0, 0, 2.47913, -54.3873, 2.47522, -174.468, 2.47724, 65.5106, 0.0068025, -177.416
1, 1080.00000, 123.96, -31.3134, 124.156, -151.394, 124.055, 88.5845, 0, 0, 2.47913, -54.3873, 2.47522, -174.468, 2.47724, 65.5106, 0.0068025, -177.416
1, 1140.00000, 123.96, -31.3134, 124.156, -151.394, 124.055, 88.5845, 0, 0, 2.47913, -54.3873, 2.47522, -174.468, 2.47724, 65.5106, 0.0068025, -177.416
1, 1200.00000, 123.96, -31.3134, 124.156, -151.394, 124.055, 88.5845, 0, 0, 2.47913, -54.3873, 2.47522, -174.468, 2.47724, 65.5106, 0.0068025, -177.416
1, 1260.00000, 123.96, -31.3134, 124.156, -151.394, 124.055, 88.5845, 0, 0, 2.47913, -54.3873, 2.47522, -174.468, 2.47724, 65.5106, 0.0068025, -177.416
1, 1320.00000, 123.96, -31.3134, 124.156, -151.394, 124.055, 88.5845, 0, 0, 2.47913, -54.3873, 2.47522, -174.468, 2.47724, 65.5106, 0.0068025, -177.416
1, 1380.00000, 123.96, -31.3134, 124.156, -151.394, 124.055, 88.5845, 0, 0, 2.47913, -54.3873, 2.47522, -174.468, 2.47724, 65.5106, 0.0068025, -177.416
1, 1440.00000, 123.96, -31.3134, 124.156, -151.394, 124.055, 88.5845, 0, 0, 2.47913, -54.3873, 2.47522, -174.468, 2.47724, 65.5106, 0.0068025, -177.416
1, 1500.00000, 123.96, -31.3134, 124.156, -151.394, 124.055, 88.5845, 0, 0, 2.47913, -54.3873, 2.47522, -174.468, 2.47724, 65.5106, 0.0068025, -177.416
1, 1560.00000, 123.96, -31.3134, 124.156, -151.394, 124.055, 88.5845, 0, 0, 2.47913, -54.3873, 2.47522, -174.468, 2.47724, 65.5106, 0.0068025, -177.416
1, 1620.00000, 123.96, -31.3134, 124.156, -151.394, 124.055, 88.5845, 0, 0, 2.47913, -54.3873, 2.47522, -174.468, 2.47724, 65.5106, 0.0068025, -177.416
1, 1680.00000, 123.96, -31.3134, 124.156, -151.394, 124.055, 88.5845, 0, 0, 2.47913, -54.3873, 2.47522, -174.468, 2.47724, 65.5106, 0.0068025, -177.416
1, 1740.00000, 123.96, -31.3134, 124.156, -151.394, 124.055, 88.5845, 0, 0, 2.47913, -54.3873, 2.47522, -174.468, 2.47724, 65.5106, 0.0068025, -177.416
1, 1800.00000, 123.96, -31.3134, 124.156, -151.394, 124.055, 88.5845, 0, 0, 2.47913, -54.3873, 2.47522, -174.468, 2.47724, 65.5106, 0.0068025, -177.416
1, 1860.00000, 123.96, -31.3134, 124.156, -151.394, 124.055, 88.5845, 0, 0, 2.47913, -54.3873, 2.47522, -174.468, 2.47724, 65.5106, 0.0068025, -177.416
1, 1920.00000, 123.96, -31.3134, 124.156, -151.394, 124.055, 88.5845, 0, 0, 2.47913, -54.3873, 2.47522, -174.468, 2.47724, 65.5106, 0.0068025, -177.416
1, 1980.00000, 123.96, -31.3134, 124.156, -151.394, 124.055, 88.5845, 0, 0, 2.47913, -54.3873, 2.47522, -174.468, 2.47724, 65.5106, 0.0068025, -177.416
1, 2040.00000, 123.96, -31.3134, 124.156, -151.394, 124.055, 88.5845, 0, 0, 2.47913, -54.3873, 2.47522, -174.468, 2.47724, 65.5106, 0.0068025, -177.416
1, 2100.00000, 123.96, -31.3134, 124.156, -151.394, 124.055, 88.5845, 0, 0, 2.47913, -54.3873, 2.47522, -174.468, 2.47724, 65.5106, 0.0068025, -177.416
1, 2160.00000, 123.96, -31.3134, 124.156, -151.394, 124.055, 88.5845, 0, 0, 2.47913, -54.3873, 2.47522, -174.468, 2.47724, 65.5106, 0.0068025, -177.416
1, 2220.00000, 123.96, -31.3134, 124.156, -151.394, 124.055, 88.5845, 0, 0, 2.47913, -54.3873, 2.47522, -174.468, 2.47724, 65.5106, 0.0068025, -177.416
1, 2280.00000, 123.96, -31.3134, 124.156, -151.394, 124.055, 88.5845, 0, 0, 2.47913, -54.3873, 2.47522, -174.468, 2.47724, 65.5106, 0.0068025, -177.416
1, 2340.00000, 123.96, -31.3134, 124.156, -151.394, 124.055, 88.5845, 0, 0, 2.47913, -54.3873, 2.47522, -174.468, 2.47724, 65.5106, 0.0068025, -177.416
1, 2400.00000, 123.96, -31.3134, 124.156, -151.394, 124.055, 88.5845, 0, 0, 2.47913, -54.3873, 2.47522, -174.468, 2.47724, 65.5106, 0.0068025, -177.416
1, 2460.00000, 123.96, -31.3134, 124.156, -151.394, 124.055, 88.5845, 0, 0, 2.47913, -54.3873, 2.47522, -174.468, 2.47724, 65.5106, 0.0068025, -177.416
1, 2520.00000, 123.96, -31.3134, 124.156, -151.394, 124.055, 88.5845, 0, 0, 2.47913, -54.3873, 2.47522, -174.468, 2.47724, 65.5106, 0.0068025, -177.416
1, 2580.00000, 123.96, -31.3134, 124.156, -151.394, 124.055, 88.5845, 0, 0, 2.47913, -54.3873, 2.47522, -174.468, 2.47724, 65.5106, 0.0068025, -177.416
1, 2640.00000, 123.96, -31.3134, 124.156, -151.394, 124.055, 88.5845, 0, 0, 2.47913, -54.3873, 2.47522, -174.468, 2.47724, 65.5106, 0.0068025, -177.416
1, 2700.00000, 123.96, -31.3134, 124.156, -151.394, 124.055, 88.5845, 0, 0, 2.47913, -54.3873, 2.47522, -174.468, 2.47724, 65.5106, 0.0068025, -177.416
1, 2760.00000, 123.96, -31.3134, 124.156, -151.394, 124.055, 88.5845, 0, 0, 2.47913, -54.3873, 2.47522, -174.468, 2.47724, 65.5106, 0.0068025, -177.416
1, 2820.00000, 123.96, -31.3134, 124.156, -151.394, 124.055, 88.5845, 0, 0, 2.47913, -54.3873, 2.47522, -174.468, 2.47724, 65.5106, 0.0068025, -177.416
1, 2880.00000, 123.96, -31.3134, 124.156, -151.394, 124.055, 88.5845, 0, 0, 2.47913, -54.3873, 2.47522, -174.468, 2.47724, 65.5106, 0.0068025, -177.416
1, 2940.00000, 123.96, -31.3134, 124.156, -151.394, 124.055, 88.5845, 0, 0, 2.47913, -54.3873, 2.47522, -174.468, 2.47724, 65.5106, 0.0068025, -177.416
1, 3000.00000, 123.96, -31.3134, 124.156, -151.394, 124.055, 88.5845, 0, 0, 2.47913, -54.3873, 2.47522, -174.468, 2.47724, 65.5106, 0.0068025, -177.416
1, 3060.00000, 123.96, -31.3134, 124.156, -151.394, 124.055, 88.5845, 0, 0, 2.47913, -54.3873, 2.47522, -174.468, 2.47724, 65.5106, 0.0068025, -177.416
1, 3120.00000, 123.96, -31.3134, 124.156, -151.394, 124.055, 88.5845, 0, 0, 2.47913, -54.3873, 2.47522, -174.468, 2.47724, 65.5106, 0.0068025, -177.416
1, 3180.00000, 123.96, -31.3134, 124.156, -151.394, 124.055, 88.5845, 0, 0, 2.47913, -54.3873, 2.47522, -174.468, 2.47724, 65.5106, 0.0068025, -177.416
1, 3240.00000, 123.96, -31.3134, 124.156, -151.394, 124.055, 88.5845, 0, 0, 2.47913, -54.3873, 2.47522, -174.468, 2.47724, 65.5106, 0.0068025, -177.416
1, 3300.00000, 123.96, -31.3134, 124.156, -151.394, 124.055, 88.5845, 0, 0, 2.47913, -54.3873, 2.47522, -174.468, 2.47724, 65.5106, 0.0068025, -177.416
1, 3360.00000, 123.96, -31.3134, 124.156, -151.394, 124.055, 88.5845, 0, 0, 2.47913, -54.3873, 2.47522, -174.468, 2.47724, 65.5106, 0.0068025, -177.416
1, 3420.00000, 123.96, -31.3134, 124.156, -151.394, 124.055, 88.5845, 0, 0, 2.47913, -54.3873, 2.47522, -174.468, 2.47724, 65.5106, 0.0068025, -177.416
1, 3480.00000, 123.96, -31.3134, 124.156, -151.394, 124.055, 88.5845, 0, 0, 2.47913, -54.3873, 2.47522, -174.468, 2.47724, 65.5106, 0.0068025, -177.416
1, 3540.00000, 123.96, -31.3134, 124.156, -151.394, 124.055, 88.5845, 0, 0, 2.47913, -54.3873, 2.47522, -174.468, 2.47724, 65.5106, 0.0068025, -177.416
2, 0.00000, 123.96, -31.3134, 124.156, -151.394, 124.055, 88.5845, 0, 0, 2.47913, -54.3873, 2.47522, -174.468, 2.47724, 65.5106, 0.0068025, -177.416
2, 60.00000, 123.96, -31.3134, 124.156, -151.394, 124.055, 88.5845, 0, 0, 2.47913, -54.3873, 2.47522, -174.468, 2.47724, 65.5106, 0.0068025, -177.416
2, 120.00000, 123.96, -31.3134, 124.156, -151.394, 124.055, 88.5845, 0, 0, 2.47913, -54.3873, 2.47522, -174.468, 2.47724, 65.5106, 0.0068025, -177.416
2, 180.00000, 123.96, -31.3134, 124.156, -151.394, 124.055, 88.5845, 0, 0, 2.47913, -54.3873, 2.47522, -174.468, 2.47724, 65.5106, 0.0068025, -177.416
2, 240.00000, 123.96, -31.3134, 124.156, -151.394, 124.055, 88.5845, 0, 0, 2.47913, -54.3873, 2.47522, -174.468, 2.47724, 65.5106, 0.0068025, -177.416
2, 300.00000, 123.96, -31.3134, 124.156, -151.394, 124.055, 88.5845, 0, 0, 2.47913, -54.3873, 2.47522, -174.468, 2.47724, 65.5106, 0.0068025, -177.416
2, 360.00000, 123.96, -31.3134, 124.156, -151.394, 124.055, 88.5845, 0, 0, 2.47913, -54.3873, 2.47522, -174.468, 2.47724, 65.5106, 0.0068025, -177.416
2, 420.00000, 123.96, -31.3134, 124.156, -151.394, 124.055, 88.5845, 0, 0, 2.47913, -54.3873, 2.47522, -174.468, 2.47724, 65.5106, 0.0068025, -177.416
2, 480.00000, 123.96, -31.3134, 124.156, -151.394, 124.055, 88.5845, 0, 0, 2.47913, -54.3873, 2.47522, -174.468, 2.47724, 65.5106, 0.0068025, -177.416
2, 540.00000, 123.96, -31.3134, 124.156, -151.394, 124.055, 88.5845, 0, 0, 2.47913, -54.3873, 2.47522, -174.468, 2.47724, 65.5106, 0.0068025, -177.416
2, 600.00000, 123.96, -31.3134, 124.156, -151.394, 124.055, 88.5845, 0, 0, 2.47913, -54.3873, 2.47522, -174.468, 2.47724, 65.5106, 0.0068025, -177.416
2, 660.00000, 123.96, -31.3134, 124.156, -151.394, 124.055, 88.5845, 0, 0, 2.47913, -54.3873, 2.47522, -174.468, 2.47724, 65.5106, 0.0068025, -177.416
