hour,t(sec),V1,VAngle1,V2,VAngle2,V3,VAngle3,V4,VAngle4,I1,IAngle1,I2,IAngle2,I3,IAngle3,I4,IAngle4
0, 60.00000, 119.723, -31.0133, 120.413, -150.878, 120.632, 88.9055, 0, 0, 6.27468, -54.0867, 6.31488, -173.952, 6.32779, 65.8321, 0.0273391, -71.6945
0, 120.00000, 119.722, -31.0133, 120.413, -150.878, 120.632, 88.9054, 0, 0, 6.27464, -54.0873, 6.3148, -173.952, 6.3275, 65.8315, 0.0270585, -71.3817
0, 180.00000, 119.722, -31.0133, 120.413, -150.878, 120.632, 88.9054, 0, 0, 6.27464, -54.0873, 6.3148, -173.952, 6.3275, 65.8315, 0.027058, -71.3809
0, 240.00000, 119.722, -31.0133, 120.413, -150.878, 120.632, 88.9054, 0, 0, 6.27464, -54.0873, 6.3148, -173.952, 6.3275, 65.8315, 0.027058, -71.3809
0, 300.00000, 119.722, -31.0133, 120.413, -150.878, 120.632, 88.9054, 0, 0, 6.27464, -54.0873, 6.3148, -173.952, 6.3275, 65.8315, 0.027058, -71.3809
0, 360.00000, 119.722, -31.0133, 120.413, -150.878, 120.632, 88.9054, 0, 0, 6.27464, -54.0873, 6.3148, -173.952, 6.3275, 65.8315, 0.027058, -71.3809
0, 420.00000, 119.722, -31.0133, 120.413, -150.878, 120.632, 88.9054, 0, 0, 6.27464, -54.0873, 6.3148, -173.952, 6.3275, 65.8315, 0.027058, -71.3809
0, 480.00000, 119.722, -31.0133, 120.413, -150.878, 120.632, 88.9054, 0, 0, 6.27464, -54.0873, 6.3148, -173.952, 6.3275, 65.8315, 0.027058, -71.3809
0, 540.00000, 119.722, -31.0133, 120.413, -150.878, 120.632, 88.9054, 0, 0, 6.27464, -54.0873, 6.3148, -173.952, 6.3275, 65.8315, 0.027058, -71.3809
0, 600.00000, 119.722, -31.0133, 120.413, -150.878, 120.632, 88.9054, 0, 0, 6.27464, -54.0873, 6.3148, -173.952, 6.3275, 65.8315, 0.027058, -71.3809
0, 660.00000, 119.722, -31.0133, 120.413, -150.878, 120.632, 88.9054, 0, 0, 6.27464, -54.0873, 6.3148, -173.952, 6.3275, 65.8315, 0.027058, -71.3809
0, 720.00000, 119.722, -31.0133, 120.413, -150.878, 120.632, 88.9054, 0, 0, 6.27464, -54.0873, 6.3148, -173.952, 6.3275, 65.8315, 0.027058, -71.3809
0, 780.00000, 119.722, -31.0133, 120.413, -150.878, 120.632, 88.9054, 0, 0, 6.27464, -54.0873, 6.3148, -173.952, 6.3275, 65.8315, 0.027058, -71.3809
0, 840.00000, 119.722, -31.0133, 120.413, -150.878, 120.632, 88.9054, 0, 0, 6.27464, -54.0873, 6.3148, -173.952, 6.3275, 65.8315, 0.027058, -71.3809
0, 900.00000, 119.722, -31.0133, 120.413, -150.878, 120.632, 88.9054, 0, 0, 6.27464, -54.0873, 6.3148, -173.952, 6.3275, 65.8315, 0.027058, -71.3809
0, 960.00000, 119.299, -31.1862, 119.792, -150.908, 120.413, 88.8771, 0, 0, 6.61177, -54.2598, 6.64213, -173.982, 6.68026, 65.8033, 0.0308857, -79.7737
0, 1020.00000, 119.299, -31.1862, 119.792, -150.908, 120.413, 88.8771, 0, 0, 6.61174, -54.2601, 6.64206, -173.982, 6.68025, 65.8032, 0.0308818, -79.8346
0, 1080.00000, 119.299, -31.1862, 119.792, -150.908, 120.413, 88.8771, 0, 0, 6.61174, -54.2601, 6.64206, -173.982, 6.68025, 65.8032, 0.0308818, -79.8348
0, 1140.00000, 119.299, -31.1862, 119.792, -150.908, 120.413, 88.8771, 0, 0, 6.61174, -54.2601, 6.64206, -173.982, 6.68025, 65.8032, 0.0308818, -79.8348
0, 1200.00000, 119.299, -31.1862, 119.792, -150.908, 120.413, 88.8771, 0, 0, 6.61174, -54.2601, 6.64206, -173.982, 6.68025, 65.8032, 0.0308818, -79.8348
0, 1260.00000, 119.299, -31.1862, 119.792, -150.908, 120.413, 88.8771, 0, 0, 6.61174, -54.2601, 6.64206, -173.982, 6.68025, 65.8032, 0.0308818, -79.8348
0, 1320.00000, 119.299, -31.1862, 119.792, -150.908, 120.413, 88.8771, 0, 0, 6.61174, -54.2601, 6.64206, -173.982, 6.68025, 65.8032, 0.0308818, -79.8348
0, 1380.00000, 119.299, -31.1862, 119.792, -150.908, 120.413, 88.8771, 0, 0, 6.61174, -54.2601, 6.64206, -173.982, 6.68025, 65.8032, 0.0308818, -79.8348
0, 1440.00000, 119.299, -31.1862, 119.792, -150.908, 120.413, 88.8771, 0, 0, 6.61174, -54.2601, 6.64206, -173.982, 6.68025, 65.8032, 0.0308818, -79.8348
0, 1500.00000, 119.299, -31.1862, 119.792, -150.908, 120.413, 88.8771, 0, 0, 6.61174, -54.2601, 6.64206, -173.982, 6.68025, 65.8032, 0.0308818, -79.8348
0, 1560.00000, 119.299, -31.1862, 119.792, -150.908, 120.413, 88.8771, 0, 0, 6.61174, -54.2601, 6.64206, -173.982, 6.68025, 65.8032, 0.0308818, -79.8348
0, 1620.00000, 119.299, -31.1862, 119.792, -150.908, 120.413, 88.8771, 0, 0, 6.61174, -54.2601, 6.64206, -173.982, 6.68025, 65.8032, 0.0308818, -79.8348
0, 1680.00000, 119.299, -31.1862, 119.792, -150.908, 120.413, 88.8771, 0, 0, 6.61174, -54.2601, 6.64206, -173.982, 6.68025, 65.8032, 0.0308818, -79.8348
0, 1740.00000, 119.299, -31.1862, 119.792, -150.908, 120.413, 88.8771, 0, 0, 6.61174, -54.2601, 6.64206, -173.982, 6.68025, 65.8032, 0.0308818, -79.8348
0, 1800.00000, 119.299, -31.1862, 119.792, -150.908, 120.413, 88.8771, 0, 0, 6.61174, -54.2601, 6.64206, -173.982, 6.68025, 65.8032, 0.0308818, -79.8348
0, 1860.00000, 119.451, -31.17, 119.938, -150.893, 120.559, 88.8968, 0, 0, 6.64115, -54.2441, 6.67099, -173.967, 6.70915, 65.8214, 0.0305413, -79.7232
0, 1920.00000, 119.451, -31.1699, 119.938, -150.893, 120.559, 88.8969, 0, 0, 6.64118, -54.2439, 6.67124, -173.967, 6.70953, 65.8229, 0.030938, -79.4546
0, 1980.00000, 119.451, -31.1699, 119.938, -150.893, 120.559, 88.8969, 0, 0, 6.64118, -54.2439, 6.67124, -173.967, 6.70953, 65.8229, 0.0309394, -79.4551
0, 2040.00000, 119.451, -31.1699, 119.938, -150.893, 120.559, 88.8969, 0, 0, 6.64118, -54.2439, 6.67124, -173.967, 6.70953, 65.8229, 0.0309394, -79.4551
0, 2100.00000, 119.451, -31.1699, 119.938, -150.893, 120.559, 88.8969, 0, 0, 6.64118, -54.2439, 6.67124, -173.967, 6.70953, 65.8229, 0.0309394, -79.4551
0, 2160.00000, 119.451, -31.1699, 119.938, -150.893, 120.559, 88.8969, 0, 0, 6.64118, -54.2439, 6.67124, -173.967, 6.70953, 65.8229, 0.0309394, -79.4551
0, 2220.00000, 119.451, -31.1699, 119.938, -150.893, 120.559, 88.8969, 0, 0, 6.64118, -54.2439, 6.67124, -173.967, 6.70953, 65.8229, 0.0309394, -79.4551
0, 2280.00000, 119.451, -31.1699, 119.938, -150.893, 120.559, 88.8969, 0, 0, 6.64118, -54.2439, 6.67124, -173.967, 6.70953, 65.8229, 0.0309394, -79.4551
0, 2340.00000, 119.451, -31.1699, 119.938, -150.893, 120.559, 88.8969, 0, 0, 6.64118, -54.2439, 6.67124, -173.967, 6.70953, 65.8229, 0.0309394, -79.4551
0, 2400.00000, 119.451, -31.1699, 119.938, -150.893, 120.559, 88.8969, 0, 0, 6.64118, -54.2439, 6.67124, -173.967, 6.70953, 65.8229, 0.0309394, -79.4551
0, 2460.00000, 119.451, -31.1699, 119.938, -150.893, 120.559, 88.8969, 0, 0, 6.64118, -54.2439, 6.67124, -173.967, 6.70953, 65.8229, 0.0309394, -79.4551
0, 2520.00000, 119.451, -31.1699, 119.938, -150.893, 120.559, 88.8969, 0, 0, 6.64118, -54.2439, 6.67124, -173.967, 6.70953, 65.8229, 0.0309394, -79.4551
0, 2580.00000, 119.451, -31.1699, 119.938, -150.893, 120.559, 88.8969, 0, 0, 6.64118, -54.2439, 6.67124, -173.967, 6.70953, 65.8229, 0.0309394, -79.4551
0, 2640.00000, 119.451, -31.1699, 119.938, -150.893, 120.559, 88.8969, 0, 0, 6.64118, -54.2439, 6.67124, -173.967, 6.70953, 65.8229, 0.0309394, -79.4551
0, 2700.00000, 119.451, -31.1699, 119.938, -150.893, 120.559, 88.8969, 0, 0, 6.64118, -54.2439, 6.67124, -173.967, 6.70953, 65.8229, 0.0309394, -79.4551
0, 2760.00000, 119.788, -31.137, 120.261, -150.867, 120.903, 88.9335, 0, 0, 6.33651, -54.2112, 6.36423, -173.941, 6.37566, 65.8593, 0.0167806, -21.7685
0, 2820.00000, 119.788, -31.1369, 120.261, -150.867, 120.904, 88.9336, 0, 0, 6.33649, -54.2109, 6.36425, -173.941, 6.37546, 65.8596, 0.0168596, -21.3293
0, 2880.00000, 119.788, -31.1369, 120.261, -150.867, 120.904, 88.9336, 0, 0, 6.33649, -54.2108, 6.36425, -173.941, 6.37545, 65.8596, 0.0168607, -21.3249
0, 2940.00000, 119.788, -31.1369, 120.261, -150.867, 120.904, 88.9336, 0, 0, 6.33649, -54.2108, 6.36425, -173.941, 6.37545, 65.8596, 0.0168607, -21.3249
0, 3000.00000, 119.788, -31.1369, 120.261, -150.867, 120.904, 88.9336, 0, 0, 6.33649, -54.2108, 6.36425, -173.941, 6.37545, 65.8596, 0.0168607, -21.3249
0, 3060.00000, 119.788, -31.1369, 120.261, -150.867, 120.904, 88.9336, 0, 0, 6.33649, -54.2108, 6.36425, -173.941, 6.37545, 65.8596, 0.0168607, -21.3249
0, 3120.00000, 119.788, -31.1369, 120.261, -150.867, 120.904, 88.9336, 0, 0, 6.33649, -54.2108, 6.36425, -173.941, 6.37545, 65.8596, 0.0168607, -21.3249
0, 3180.00000, 119.788, -31.1369, 120.261, -150.867, 120.904, 88.9336, 0, 0, 6.33649, -54.2108, 6.36425, -173.941, 6.37545, 65.8596, 0.0168607, -21.3249
0, 3240.00000, 119.788, -31.1369, 120.261, -150.867, 120.904, 88.9336, 0, 0, 6.33649, -54.2108, 6.36425, -173.941, 6.37545, 65.8596, 0.0168607, -21.3249
0, 3300.00000, 119.788, -31.1369, 120.261, -150.867, 120.904, 88.9336, 0, 0, 6.33649, -54.2108, 6.36425, -173.941, 6.37545, 65.8596, 0.0168607, -21.3249
0, 3360.00000, 119.788, -31.1369, 120.261, -150.867, 120.904, 88.9336, 0, 0, 6.33649, -54.2108, 6.36425, -173.941, 6.37545, 65.8596, 0.0168607, -21.3249
0, 3420.00000, 119.788, -31.1369, 120.261, -150.867, 120.904, 88.9336, 0, 0, 6.33649, -54.2108, 6.36425, -173.941, 6.37545, 65.8596, 0.0168607, -21.3249
0, 3480.00000, 119.788, -31.1369, 120.261, -150.867, 120.904, 88.9336, 0, 0, 6.33649, -54.2108, 6.36425, -173.941, 6.37545, 65.8596, 0.0168607, -21.3249
0, 3540.00000, 119.788, -31.1369, 120.261, -150.867, 120.904, 88.9336, 0, 0, 6.33649, -54.2108, 6.36425, -173.941, 6.37545, 65.8596, 0.0168607, -21.3249
1, 0.00000, 119.788, -31.1369, 120.261, -150.867, 120.904, 88.9336, 0, 0, 6.33649, -54.2108, 6.36425, -173.941, 6.37545, 65.8596, 0.0168607, -21.3249
1, 60.00000, 120.038, -31.113, 120.499, -150.85, 121.163, 88.9598, 0, 0, 6.2769, -54.1873, 6.3036, -173.923, 6.28761, 65.8856, 0.0323103, 34.9928
1, 120.00000, 120.038, -31.113, 120.498, -150.85, 121.164, 88.9598, 0, 0, 6.27688, -54.1869, 6.30361, -173.924, 6.28741, 65.8859, 0.0324408, 35.0086
1, 180.00000, 120.038, -31.113, 120.498, -150.85, 121.164, 88.9598, 0, 0, 6.27688, -54.1869, 6.30361, -173.924, 6.2874, 65.8859, 0.0324426, 35.0083
1, 240.00000, 120.038, -31.113, 120.498, -150.85, 121.164, 88.9598, 0, 0, 6.27688, -54.1869, 6.30361, -173.924, 6.2874, 65.8859, 0.0324427, 35.0083
1, 300.00000, 120.038, -31.113, 120.498, -150.85, 121.164, 88.9598, 0, 0, 6.27688, -54.1869, 6.30361, -173.924, 6.2874, 65.8859, 0.0324427, 35.0083
1, 360.00000, 120.038, -31.113, 120.498, -150.85, 121.164, 88.9598, 0, 0, 6.27688, -54.1869, 6.30361, -173.924, 6.2874, 65.8859, 0.0324427, 35.0083
1, 420.00000, 120.038, -31.113, 120.498, -150.85, 121.164, 88.9598, 0, 0, 6.27688, -54.1869, 6.30361, -173.924, 6.2874, 65.8859, 0.0324427, 35.0083
1, 480.00000, 120.038, -31.113, 120.498, -150.85, 121.164, 88.9598, 0, 0, 6.27688, -54.1869, 6.30361, -173.924, 6.2874, 65.8859, 0.0324427, 35.0083
1, 540.00000, 120.038, -31.113, 120.498, -150.85, 121.164, 88.9598, 0, 0, 6.27688, -54.1869, 6.30361, -173.924, 6.2874, 65.8859, 0.0324427, 35.0083
1, 600.00000, 120.038, -31.113, 120.498, -150.85, 121.164, 88.9598, 0, 0, 6.27688, -54.1869, 6.30361, -173.924, 6.2874, 65.8859, 0.0324427, 35.0083
1, 660.00000, 120.038, -31.113, 120.498, -150.85, 121.164, 88.9598, 0, 0, 6.27688, -54.1869, 6.30361, -173.924, 6.2874, 65.8859, 0.0324427, 35.0083
1, 720.00000, 120.038, -31.113, 120.498, -150.85, 121.164, 88.9598, 0, 0, 6.27688, -54.1869, 6.30361, -173.924, 6.2874, 65.8859, 0.0324427, 35.0083
1, 780.00000, 120.038, -31.113, 120.498, -150.85, 121.164, 88.9598, 0, 0, 6.27688, -54.1869, 6.30361, -173.924, 6.2874, 65.8859, 0.0324427, 35.0083
1, 840.00000, 120.038, -31.113, 120.498, -150.85, 121.164, 88.9598, 0, 0, 6.27688, -54.1869, 6.30361, -173.924, 6.2874, 65.8859, 0.0324427, 35.0083
1, 900.00000, 120.038, -31.113, 120.498, -150.85, 121.164, 88.9598, 0, 0, 6.27688, -54.1869, 6.30361, -173.924, 6.2874, 65.8859, 0.0324427, 35.0083
1, 960.00000, 120.063, -31.1085, 120.523, -150.846, 121.191, 88.9647, 0, 0, 6.24896, -54.1828, 6.27548, -173.92, 6.25677, 65.8904, 0.0345582, 37.2738
1, 1020.00000, 120.063, -31.1085, 120.523, -150.846, 121.192, 88.9648, 0, 0, 6.24899, -54.1824, 6.27553, -173.92, 6.25654, 65.8909, 0.0347618, 37.36
1, 1080.00000, 120.063, -31.1085, 120.523, -150.846, 121.192, 88.9648, 0, 0, 6.24899, -54.1824, 6.27553, -173.92, 6.25654, 65.8909, 0.0347643, 37.3597
1, 1140.00000, 120.063, -31.1085, 120.523, -150.846, 121.192, 88.9648, 0, 0, 6.24899, -54.1824, 6.27553, -173.92, 6.25654, 65.8909, 0.0347643, 37.3597
1, 1200.00000, 120.063, -31.1085, 120.523, -150.846, 121.192, 88.9648, 0, 0, 6.24899, -54.1824, 6.27553, -173.92, 6.25654, 65.8909, 0.0347643, 37.3597
1, 1260.00000, 120.063, -31.1085, 120.523, -150.846, 121.192, 88.9648, 0, 0, 6.24899, -54.1824, 6.27553, -173.92, 6.25654, 65.8909, 0.0347643, 37.3597
1, 1320.00000, 120.063, -31.1085, 120.523, -150.846, 121.192, 88.9648, 0, 0, 6.24899, -54.1824, 6.27553, -173.92, 6.25654, 65.8909, 0.0347643, 37.3597
1, 1380.00000, 120.063, -31.1085, 120.523, -150.846, 121.192, 88.9648, 0, 0, 6.24899, -54.1824, 6.27553, -173.92, 6.25654, 65.8909, 0.0347643, 37.3597
1, 1440.00000, 120.063, -31.1085, 120.523, -150.846, 121.192, 88.9648, 0, 0, 6.24899, -54.1824, 6.27553, -173.92, 6.25654, 65.8909, 0.0347643, 37.3597
1, 1500.00000, 120.063, -31.1085, 120.523, -150.846, 121.192, 88.9648, 0, 0, 6.24899, -54.1824, 6.27553, -173.92, 6.25654, 65.8909, 0.0347643, 37.3597
1, 1560.00000, 120.063, -31.1085, 120.523, -150.846, 121.192, 88.9648, 0, 0, 6.24899, -54.1824, 6.27553, -173.92, 6.25654, 65.8909, 0.0347643, 37.3597
1, 1620.00000, 120.063, -31.1085, 120.523, -150.846, 121.192, 88.9648, 0, 0, 6.24899, -54.1824, 6.27553, -173.92, 6.25654, 65.8909, 0.0347643, 37.3597
1, 1680.00000, 120.063, -31.1085, 120.523, -150.846, 121.192, 88.9648, 0, 0, 6.24899, -54.1824, 6.27553, -173.92, 6.25654, 65.8909, 0.0347643, 37.3597
1, 1740.00000, 120.063, -31.1085, 120.523, -150.846, 121.192, 88.9648, 0, 0, 6.24899, -54.1824, 6.27553, -173.92, 6.25654, 65.8909, 0.0347643, 37.3597
1, 1800.00000, 120.063, -31.1085, 120.523, -150.846, 121.192, 88.9648, 0, 0, 6.24899, -54.1824, 6.27553, -173.92, 6.25654, 65.8909, 0.0347643, 37.3597
1, 1860.00000, 119.827, -31.1303, 120.298, -150.861, 120.944, 88.9414, 0, 0, 6.3857, -54.2039, 6.41359, -173.935, 6.42038, 65.8677, 0.0178783, -7.09819
1, 1920.00000, 119.827, -31.1304, 120.298, -150.861, 120.944, 88.9414, 0, 0, 6.38572, -54.2043, 6.41358, -173.935, 6.42057, 65.8674, 0.0177924, -7.39211
1, 1980.00000, 119.827, -31.1304, 120.298, -150.861, 120.944, 88.9414, 0, 0, 6.38572, -54.2043, 6.41358, -173.935, 6.42057, 65.8674, 0.0177912, -7.39496
1, 2040.00000, 119.827, -31.1304, 120.298, -150.861, 120.944, 88.9414, 0, 0, 6.38572, -54.2043, 6.41358, -173.935, 6.42057, 65.8674, 0.0177912, -7.395
1, 2100.00000, 119.827, -31.1304, 120.298, -150.861, 120.944, 88.9414, 0, 0, 6.38572, -54.2043, 6.41358, -173.935, 6.42057, 65.8674, 0.0177912, -7.395
1, 2160.00000, 119.827, -31.1304, 120.298, -150.861, 120.944, 88.9414, 0, 0, 6.38572, -54.2043, 6.41358, -173.935, 6.42057, 65.8674, 0.0177912, -7.395
1, 2220.00000, 119.827, -31.1304, 120.298, -150.861, 120.944, 88.9414, 0, 0, 6.38572, -54.2043, 6.41358, -173.935, 6.42057, 65.8674, 0.0177912, -7.395
1, 2280.00000, 119.827, -31.1304, 120.298, -150.861, 120.944, 88.9414, 0, 0, 6.38572, -54.2043, 6.41358, -173.935, 6.42057, 65.8674, 0.0177912, -7.395
1, 2340.00000, 119.827, -31.1304, 120.298, -150.861, 120.944, 88.9414, 0, 0, 6.38572, -54.2043, 6.41358, -173.935, 6.42057, 65.8674, 0.0177912, -7.395
1, 2400.00000, 119.827, -31.1304, 120.298, -150.861, 120.944, 88.9414, 0, 0, 6.38572, -54.2043, 6.41358, -173.935, 6.42057, 65.8674, 0.0177912, -7.395
1, 2460.00000, 119.827, -31.1304, 120.298, -150.861, 120.944, 88.9414, 0, 0, 6.38572, -54.2043, 6.41358, -173.935, 6.42057, 65.8674, 0.0177912, -7.395
1, 2520.00000, 119.827, -31.1304, 120.298, -150.861, 120.944, 88.9414, 0, 0, 6.38572, -54.2043, 6.41358, -173.935, 6.42057, 65.8674, 0.0177912, -7.395
1, 2580.00000, 119.827, -31.1304, 120.298, -150.861, 120.944, 88.9414, 0, 0, 6.38572, -54.2043, 6.41358, -173.935, 6.42057, 65.8674, 0.0177912, -7.395
1, 2640.00000, 119.827, -31.1304, 120.298, -150.861, 120.944, 88.9414, 0, 0, 6.38572, -54.2043, 6.41358, -173.935, 6.42057, 65.8674, 0.0177912, -7.395
1, 2700.00000, 119.756, -31.125, 119.294, -151.202, 119.756, 89.1792, 0, 0, 6.38153, -54.1988, 6.35422, -174.276, 6.38164, 66.1057, 0.0256671, -79.6341
1, 2760.00000, 120.225, -31.082, 119.721, -151.165, 120.19, 89.2265, 0, 0, 6.03942, -54.1561, 6.01139, -174.239, 6.03749, 66.1524, 0.0232163, -81.367
1, 2820.00000, 120.225, -31.082, 119.721, -151.165, 120.191, 89.2265, 0, 0, 6.03947, -54.1559, 6.0114, -174.239, 6.03754, 66.1526, 0.0232223, -81.4664
1, 2880.00000, 120.225, -31.082, 119.721, -151.165, 120.191, 89.2265, 0, 0, 6.03947, -54.1559, 6.0114, -174.239, 6.03754, 66.1526, 0.0232224, -81.467
1, 2940.00000, 120.225, -31.082, 119.721, -151.165, 120.191, 89.2265, 0, 0, 6.03947, -54.1559, 6.0114, -174.239, 6.03754, 66.1526, 0.0232224, -81.467
1, 3000.00000, 120.225, -31.082, 119.721, -151.165, 120.191, 89.2265, 0, 0, 6.03947, -54.1559, 6.0114, -174.239, 6.03754, 66.1526, 0.0232224, -81.467
1, 3060.00000, 120.225, -31.082, 119.721, -151.165, 120.191, 89.2265, 0, 0, 6.03947, -54.1559, 6.0114, -174.239, 6.03754, 66.1526, 0.0232224, -81.467
1, 3120.00000, 120.225, -31.082, 119.721, -151.165, 120.191, 89.2265, 0, 0, 6.03947, -54.1559, 6.0114, -174.239, 6.03754, 66.1526, 0.0232224, -81.467
1, 3180.00000, 120.225, -31.082, 119.721, -151.165, 120.191, 89.2265, 0, 0, 6.03947, -54.1559, 6.0114, -174.239, 6.03754, 66.1526, 0.0232224, -81.467
1, 3240.00000, 120.225, -31.082, 119.721, -151.165, 120.191, 89.2265, 0, 0, 6.03947, -54.1559, 6.0114, -174.239, 6.03754, 66.1526, 0.0232224, -81.467
1, 3300.00000, 120.225, -31.082, 119.721, -151.165, 120.191, 89.2265, 0, 0, 6.03947, -54.1559, 6.0114, -174.239, 6.03754, 66.1526, 0.0232224, -81.467
1, 3360.00000, 120.225, -31.082, 119.721, -151.165, 120.191, 89.2265, 0, 0, 6.03947, -54.1559, 6.0114, -174.239, 6.03754, 66.1526, 0.0232224, -81.467
1, 3420.00000, 120.225, -31.082, 119.721, -151.165, 120.191, 89.2265, 0, 0, 6.03947, -54.1559, 6.0114, -174.239, 6.03754, 66.1526, 0.0232224, -81.467
1, 3480.00000, 120.225, -31.082, 119.721, -151.165, 120.191, 89.2265, 0, 0, 6.03947, -54.1559, 6.0114, -174.239, 6.03754, 66.1526, 0.0232224, -81.467
1, 3540.00000, 120.225, -31.082, 119.721, -151.165, 120.191, 89.2265, 0, 0, 6.03947, -54.1559, 6.0114, -174.239, 6.03754, 66.1526, 0.0232224, -81.467
2, 0.00000, 120.225, -31.082, 119.721, -151.165, 120.191, 89.2265, 0, 0, 6.03947, -54.1559, 6.0114, -174.239, 6.03754, 66.1526, 0.0232224, -81.467
2, 60.00000, 119.939, -31.1079, 119.46, -151.187, 119.925, 89.1979, 0, 0, 6.18518, -54.1817, 6.15776, -174.261, 6.18439, 66.124, 0.0243341, -80.4389
2, 120.00000, 119.939, -31.1079, 119.46, -151.187, 119.925, 89.1979, 0, 0, 6.18515, -54.1818, 6.15775, -174.261, 6.18436, 66.1239, 0.0243302, -80.3753
2, 180.00000, 119.939, -31.1079, 119.46, -151.187, 119.925, 89.1979, 0, 0, 6.18515, -54.1818, 6.15775, -174.261, 6.18436, 66.1239, 0.0243301, -80.3749
2, 240.00000, 119.939, -31.1079, 119.46, -151.187, 119.925, 89.1979, 0, 0, 6.18515, -54.1818, 6.15775, -174.261, 6.18436, 66.1239, 0.0243301, -80.3749
2, 300.00000, 119.939, -31.1079, 119.46, -151.187, 119.925, 89.1979, 0, 0, 6.18515, -54.1818, 6.15775, -174.261, 6.18436, 66.1239, 0.0243301, -80.3749
2, 360.00000, 119.939, -31.1079, 119.46, -151.187, 119.925, 89.1979, 0, 0, 6.18515, -54.1818, 6.15775, -174.261, 6.18436, 66.1239, 0.0243301, -80.3749
2, 420.00000, 119.939, -31.1079, 119.46, -151.187, 119.925, 89.1979, 0, 0, 6.18515, -54.1818, 6.15775, -174.261, 6.18436, 66.1239, 0.0243301, -80.3749
2, 480.00000, 119.939, -31.1079, 119.46, -151.187, 119.925, 89.1979, 0, 0, 6.18515, -54.1818, 6.15775, -174.261, 6.18436, 66.1239, 0.0243301, -80.3749
2, 540.00000, 120.122, -30.9541, 119.841, -151.176, 119.906, 89.2017, 0, 0, 6.19562, -54.028, 6.17949, -174.25, 6.1833, 66.1278, 0.0221619, -72.1617
2, 600.00000, 120.122, -30.9541, 119.841, -151.176, 119.906, 89.2017, 0, 0, 6.19566, -54.028, 6.17955, -174.25, 6.18327, 66.1278, 0.0220763, -71.9566
2, 660.00000, 120.122, -30.9541, 119.841, -151.176, 119.906, 89.2017, 0, 0, 6.19566, -54.028, 6.17955, -174.25, 6.18327, 66.1278, 0.0220757, -71.9554
