hour,t(sec),V1,VAngle1,V2,VAngle2,V3,VAngle3,V4,VAngle4,I1,IAngle1,I2,IAngle2,I3,IAngle3,I4,IAngle4
0, 60.00000, 115.175, -31.0567, 116.814, -151.003, 116.73, 88.3335, 0, 0, 4.68501, -54.1305, 4.75925, -174.077, 4.75548, 65.26, 0.031405, -92.6865
0, 120.00000, 115.175, -31.0567, 116.814, -151.003, 116.73, 88.3335, 0, 0, 4.68498, -54.1306, 4.75922, -174.077, 4.75542, 65.2596, 0.0313647, -92.7027
0, 180.00000, 115.175, -31.0567, 116.814, -151.003, 116.73, 88.3335, 0, 0, 4.68498, -54.1306, 4.75922, -174.077, 4.75542, 65.2596, 0.0313645, -92.7028
0, 240.00000, 115.175, -31.0567, 116.814, -151.003, 116.73, 88.3335, 0, 0, 4.68498, -54.1306, 4.75922, -174.077, 4.75542, 65.2596, 0.0313645, -92.7028
0, 300.00000, 115.175, -31.0567, 116.814, -151.003, 116.73, 88.3335, 0, 0, 4.68498, -54.1306, 4.75922, -174.077, 4.75542, 65.2596, 0.0313645, -92.7028
0, 360.00000, 115.175, -31.0567, 116.814, -151.003, 116.73, 88.3335, 0, 0, 4.68498, -54.1306, 4.75922, -174.077, 4.75542, 65.2596, 0.0313645, -92.7028
0, 420.00000, 115.175, -31.0567, 116.814, -151.003, 116.73, 88.3335, 0, 0, 4.68498, -54.1306, 4.75922, -174.077, 4.75542, 65.2596, 0.0313645, -92.7028
0, 480.00000, 116.147, -30.9699, 117.774, -150.917, 117.657, 88.4409, 0, 0, 4.27291, -54.0439, 4.3395, -173.991, 4.33473, 65.3664, 0.0271543, -90.0535
0, 540.00000, 116.147, -30.9699, 117.774, -150.917, 117.657, 88.441, 0, 0, 4.27294, -54.0438, 4.33955, -173.991, 4.33478, 65.367, 0.0271771, -89.9527
0, 600.00000, 116.147, -30.9699, 117.774, -150.917, 117.657, 88.441, 0, 0, 4.27294, -54.0438, 4.33955, -173.991, 4.33478, 65.367, 0.0271772, -89.9525
0, 660.00000, 116.147, -30.9699, 117.774, -150.917, 117.657, 88.441, 0, 0, 4.27294, -54.0438, 4.33955, -173.991, 4.33478, 65.367, 0.0271772, -89.9525
0, 720.00000, 116.147, -30.9699, 117.774, -150.917, 117.657, 88.441, 0, 0, 4.27294, -54.0438, 4.33955, -173.991, 4.33478, 65.367, 0.0271772, -89.9525
0, 780.00000, 116.147, -30.9699, 117.774, -150.917, 117.657, 88.441, 0, 0, 4.27294, -54.0438, 4.33955, -173.991, 4.33478, 65.367, 0.0271772, -89.9525
0, 840.00000, 116.147, -30.9699, 117.774, -150.917, 117.657, 88.441, 0, 0, 4.27294, -54.0438, 4.33955, -173.991, 4.33478, 65.367, 0.0271772, -89.9525
0, 900.00000, 116.147, -30.9699, 117.774, -150.917, 117.657, 88.441, 0, 0, 4.27294, -54.0438, 4.33955, -173.991, 4.33478, 65.367, 0.0271772, -89.9525
0, 960.00000, 115.097, -30.7533, 117.771, -150.914, 116.768, 88.0969, 0, 0, 4.22997, -53.8272, 4.33942, -173.988, 4.29839, 65.0232, 0.0275589, -81.7932
0, 1020.00000, 115.097, -30.7533, 117.771, -150.914, 116.768, 88.0969, 0, 0, 4.22993, -53.8272, 4.33943, -173.988, 4.29836, 65.023, 0.0275496, -81.7401
0, 1080.00000, 115.097, -30.7533, 117.771, -150.914, 116.768, 88.0969, 0, 0, 4.22993, -53.8272, 4.33943, -173.988, 4.29836, 65.023, 0.0275495, -81.7399
0, 1140.00000, 115.097, -30.7533, 117.771, -150.914, 116.768, 88.0969, 0, 0, 4.22993, -53.8272, 4.33943, -173.988, 4.29836, 65.023, 0.0275495, -81.7399
0, 1200.00000, 115.097, -30.7533, 117.771, -150.914, 116.768, 88.0969, 0, 0, 4.22993, -53.8272, 4.33943, -173.988, 4.29836, 65.023, 0.0275495, -81.7399
0, 1260.00000, 115.097, -30.7533, 117.771, -150.914, 116.768, 88.0969, 0, 0, 4.22993, -53.8272, 4.33943, -173.988, 4.29836, 65.023, 0.0275495, -81.7399
0, 1320.00000, 115.097, -30.7533, 117.771, -150.914, 116.768, 88.0969, 0, 0, 4.22993, -53.8272, 4.33943, -173.988, 4.29836, 65.023, 0.0275495, -81.7399
0, 1380.00000, 115.097, -30.7533, 117.771, -150.914, 116.768, 88.0969, 0, 0, 4.22993, -53.8272, 4.33943, -173.988, 4.29836, 65.023, 0.0275495, -81.7399
0, 1440.00000, 115.097, -30.7533, 117.771, -150.914, 116.768, 88.0969, 0, 0, 4.22993, -53.8272, 4.33943, -173.988, 4.29836, 65.023, 0.0275495, -81.7399
0, 1500.00000, 115.097, -30.7533, 117.771, -150.914, 116.768, 88.0969, 0, 0, 4.22993, -53.8272, 4.33943, -173.988, 4.29836, 65.023, 0.0275495, -81.7399
0, 1560.00000, 115.097, -30.7533, 117.771, -150.914, 116.768, 88.0969, 0, 0, 4.22993, -53.8272, 4.33943, -173.988, 4.29836, 65.023, 0.0275495, -81.7399
0, 1620.00000, 115.097, -30.7533, 117.771, -150.914, 116.768, 88.0969, 0, 0, 4.22993, -53.8272, 4.33943, -173.988, 4.29836, 65.023, 0.0275495, -81.7399
0, 1680.00000, 115.097, -30.7533, 117.771, -150.914, 116.768, 88.0969, 0, 0, 4.22993, -53.8272, 4.33943, -173.988, 4.29836, 65.023, 0.0275495, -81.7399
0, 1740.00000, 115.097, -30.7533, 117.771, -150.914, 116.768, 88.0969, 0, 0, 4.22993, -53.8272, 4.33943, -173.988, 4.29836, 65.023, 0.0275495, -81.7399
0, 1800.00000, 114.41, -30.6588, 117.777, -150.91, 116.255, 87.8507, 0, 0, 4.20186, -53.7328, 4.33969, -173.984, 4.27742, 64.7771, 0.0279358, -74.6531
0, 1860.00000, 114.41, -30.6588, 117.777, -150.91, 116.255, 87.8507, 0, 0, 4.20182, -53.7328, 4.3397, -173.984, 4.27738, 64.7768, 0.0279339, -74.6093
0, 1920.00000, 114.41, -30.6588, 117.777, -150.91, 116.255, 87.8507, 0, 0, 4.20182, -53.7328, 4.3397, -173.984, 4.27738, 64.7768, 0.0279338, -74.6092
0, 1980.00000, 114.41, -30.6588, 117.777, -150.91, 116.255, 87.8507, 0, 0, 4.20182, -53.7328, 4.3397, -173.984, 4.27738, 64.7768, 0.0279338, -74.6092
0, 2040.00000, 114.41, -30.6588, 117.777, -150.91, 116.255, 87.8507, 0, 0, 4.20182, -53.7328, 4.3397, -173.984, 4.27738, 64.7768, 0.0279338, -74.6092
0, 2100.00000, 114.41, -30.6588, 117.777, -150.91, 116.255, 87.8507, 0, 0, 4.20182, -53.7328, 4.3397, -173.984, 4.27738, 64.7768, 0.0279338, -74.6092
0, 2160.00000, 114.41, -30.6588, 117.777, -150.91, 116.255, 87.8507, 0, 0, 4.20182, -53.7328, 4.3397, -173.984, 4.27738, 64.7768, 0.0279338, -74.6092
0, 2220.00000, 114.41, -30.6588, 117.777, -150.91, 116.255, 87.8507, 0, 0, 4.20182, -53.7328, 4.3397, -173.984, 4.27738, 64.7768, 0.0279338, -74.6092
0, 2280.00000, 114.41, -30.6588, 117.777, -150.91, 116.255, 87.8507, 0, 0, 4.20182, -53.7328, 4.3397, -173.984, 4.27738, 64.7768, 0.0279338, -74.6092
0, 2340.00000, 114.41, -30.6588, 117.777, -150.91, 116.255, 87.8507, 0, 0, 4.20182, -53.7328, 4.3397, -173.984, 4.27738, 64.7768, 0.0279338, -74.6092
0, 2400.00000, 114.41, -30.6588, 117.777, -150.91, 116.255, 87.8507, 0, 0, 4.20182, -53.7328, 4.3397, -173.984, 4.27738, 64.7768, 0.0279338, -74.6092
0, 2460.00000, 114.41, -30.6588, 117.777, -150.91, 116.255, 87.8507, 0, 0, 4.20182, -53.7328, 4.3397, -173.984, 4.27738, 64.7768, 0.0279338, -74.6092
0, 2520.00000, 114.41, -30.6588, 117.777, -150.91, 116.255, 87.8507, 0, 0, 4.20182, -53.7328, 4.3397, -173.984, 4.27738, 64.7768, 0.0279338, -74.6092
0, 2580.00000, 114.41, -30.6588, 117.777, -150.91, 116.255, 87.8507, 0, 0, 4.20182, -53.7328, 4.3397, -173.984, 4.27738, 64.7768, 0.0279338, -74.6092
0, 2640.00000, 114.41, -30.6588, 117.777, -150.91, 116.255, 87.8507, 0, 0, 4.20182, -53.7328, 4.3397, -173.984, 4.27738, 64.7768, 0.0279338, -74.6092
0, 2700.00000, 114.41, -30.6588, 117.777, -150.91, 116.255, 87.8507, 0, 0, 4.20182, -53.7328, 4.3397, -173.984, 4.27738, 64.7768, 0.0279338, -74.6092
0, 2760.00000, 114.9, -30.6722, 117.775, -150.911, 116.531, 88.0531, 0, 0, 4.22185, -53.7463, 4.33962, -173.985, 4.28863, 64.9789, 0.0273469, -79.0259
0, 2820.00000, 114.9, -30.6722, 117.775, -150.911, 116.531, 88.0531, 0, 0, 4.22189, -53.7461, 4.33961, -173.985, 4.28868, 64.9792, 0.0273825, -79.1373
0, 2880.00000, 114.9, -30.6722, 117.775, -150.911, 116.531, 88.0531, 0, 0, 4.22189, -53.7461, 4.33961, -173.985, 4.28868, 64.9792, 0.0273828, -79.1378
0, 2940.00000, 114.9, -30.6722, 117.775, -150.911, 116.531, 88.0531, 0, 0, 4.22189, -53.7461, 4.33961, -173.985, 4.28868, 64.9792, 0.0273828, -79.1378
0, 3000.00000, 114.9, -30.6722, 117.775, -150.911, 116.531, 88.0531, 0, 0, 4.22189, -53.7461, 4.33961, -173.985, 4.28868, 64.9792, 0.0273828, -79.1378
0, 3060.00000, 114.9, -30.6722, 117.775, -150.911, 116.531, 88.0531, 0, 0, 4.22189, -53.7461, 4.33961, -173.985, 4.28868, 64.9792, 0.0273828, -79.1378
0, 3120.00000, 114.9, -30.6722, 117.775, -150.911, 116.531, 88.0531, 0, 0, 4.22189, -53.7461, 4.33961, -173.985, 4.28868, 64.9792, 0.0273828, -79.1378
0, 3180.00000, 114.9, -30.6722, 117.775, -150.911, 116.531, 88.0531, 0, 0, 4.22189, -53.7461, 4.33961, -173.985, 4.28868, 64.9792, 0.0273828, -79.1378
0, 3240.00000, 114.9, -30.6722, 117.775, -150.911, 116.531, 88.0531, 0, 0, 4.22189, -53.7461, 4.33961, -173.985, 4.28868, 64.9792, 0.0273828, -79.1378
0, 3300.00000, 114.9, -30.6722, 117.775, -150.911, 116.531, 88.0531, 0, 0, 4.22189, -53.7461, 4.33961, -173.985, 4.28868, 64.9792, 0.0273828, -79.1378
0, 3360.00000, 114.9, -30.6722, 117.775, -150.911, 116.531, 88.0531, 0, 0, 4.22189, -53.7461, 4.33961, -173.985, 4.28868, 64.9792, 0.0273828, -79.1378
0, 3420.00000, 114.9, -30.6722, 117.775, -150.911, 116.531, 88.0531, 0, 0, 4.22189, -53.7461, 4.33961, -173.985, 4.28868, 64.9792, 0.0273828, -79.1378
0, 3480.00000, 114.9, -30.6722, 117.775, -150.911, 116.531, 88.0531, 0, 0, 4.22189, -53.7461, 4.33961, -173.985, 4.28868, 64.9792, 0.0273828, -79.1378
0, 3540.00000, 114.9, -30.6722, 117.775, -150.911, 116.531, 88.0531, 0, 0, 4.22189, -53.7461, 4.33961, -173.985, 4.28868, 64.9792, 0.0273828, -79.1378
1, 0.00000, 114.9, -30.6722, 117.775, -150.911, 116.531, 88.0531, 0, 0, 4.22189, -53.7461, 4.33961, -173.985, 4.28868, 64.9792, 0.0273828, -79.1378
1, 60.00000, 115.251, -30.6574, 117.774, -150.911, 116.685, 88.2076, 0, 0, 4.23622, -53.7315, 4.33958, -173.985, 4.29495, 65.1336, 0.0268057, -82.2308
1, 120.00000, 115.251, -30.6573, 117.774, -150.911, 116.685, 88.2077, 0, 0, 4.23625, -53.7313, 4.33957, -173.985, 4.29498, 65.1337, 0.0268195, -82.3159
1, 180.00000, 115.251, -30.6573, 117.774, -150.911, 116.685, 88.2077, 0, 0, 4.23625, -53.7313, 4.33957, -173.985, 4.29498, 65.1337, 0.0268197, -82.3163
1, 240.00000, 115.251, -30.6573, 117.774, -150.911, 116.685, 88.2077, 0, 0, 4.23625, -53.7313, 4.33957, -173.985, 4.29498, 65.1337, 0.0268197, -82.3163
1, 300.00000, 115.251, -30.6573, 117.774, -150.911, 116.685, 88.2077, 0, 0, 4.23625, -53.7313, 4.33957, -173.985, 4.29498, 65.1337, 0.0268197, -82.3163
1, 360.00000, 115.251, -30.6573, 117.774, -150.911, 116.685, 88.2077, 0, 0, 4.23625, -53.7313, 4.33957, -173.985, 4.29498, 65.1337, 0.0268197, -82.3163
1, 420.00000, 115.251, -30.6573, 117.774, -150.911, 116.685, 88.2077, 0, 0, 4.23625, -53.7313, 4.33957, -173.985, 4.29498, 65.1337, 0.0268197, -82.3163
1, 480.00000, 115.251, -30.6573, 117.774, -150.911, 116.685, 88.2077, 0, 0, 4.23625, -53.7313, 4.33957, -173.985, 4.29498, 65.1337, 0.0268197, -82.3163
1, 540.00000, 115.251, -30.6573, 117.774, -150.911, 116.685, 88.2077, 0, 0, 4.23625, -53.7313, 4.33957, -173.985, 4.29498, 65.1337, 0.0268197, -82.3163
1, 600.00000, 115.251, -30.6573, 117.774, -150.911, 116.685, 88.2077, 0, 0, 4.23625, -53.7313, 4.33957, -173.985, 4.29498, 65.1337, 0.0268197, -82.3163
1, 660.00000, 115.251, -30.6573, 117.774, -150.911, 116.685, 88.2077, 0, 0, 4.23625, -53.7313, 4.33957, -173.985, 4.29498, 65.1337, 0.0268197, -82.3163
1, 720.00000, 115.251, -30.6573, 117.774, -150.911, 116.685, 88.2077, 0, 0, 4.23625, -53.7313, 4.33957, -173.985, 4.29498, 65.1337, 0.0268197, -82.3163
1, 780.00000, 115.67, -30.6628, 117.776, -150.911, 116.898, 88.3812, 0, 0, 4.25339, -53.7369, 4.33964, -173.985, 4.30369, 65.3072, 0.0259639, -85.5337
1, 840.00000, 115.67, -30.6628, 117.776, -150.911, 116.898, 88.3812, 0, 0, 4.25343, -53.7367, 4.33963, -173.985, 4.3037, 65.3073, 0.0259527, -85.6168
1, 900.00000, 115.67, -30.6628, 117.776, -150.911, 116.898, 88.3812, 0, 0, 4.25343, -53.7367, 4.33963, -173.985, 4.3037, 65.3073, 0.0259526, -85.6172
1, 960.00000, 115.67, -30.6628, 117.776, -150.911, 116.898, 88.3812, 0, 0, 4.25343, -53.7367, 4.33963, -173.985, 4.3037, 65.3073, 0.0259526, -85.6172
1, 1020.00000, 115.67, -30.6628, 117.776, -150.911, 116.898, 88.3812, 0, 0, 4.25343, -53.7367, 4.33963, -173.985, 4.3037, 65.3073, 0.0259526, -85.6172
1, 1080.00000, 115.67, -30.6628, 117.776, -150.911, 116.898, 88.3812, 0, 0, 4.25343, -53.7367, 4.33963, -173.985, 4.3037, 65.3073, 0.0259526, -85.6172
1, 1140.00000, 115.67, -30.6628, 117.776, -150.911, 116.898, 88.3812, 0, 0, 4.25343, -53.7367, 4.33963, -173.985, 4.3037, 65.3073, 0.0259526, -85.6172
1, 1200.00000, 115.67, -30.6628, 117.776, -150.911, 116.898, 88.3812, 0, 0, 4.25343, -53.7367, 4.33963, -173.985, 4.3037, 65.3073, 0.0259526, -85.6172
1, 1260.00000, 115.67, -30.6628, 117.776, -150.911, 116.898, 88.3812, 0, 0, 4.25343, -53.7367, 4.33963, -173.985, 4.3037, 65.3073, 0.0259526, -85.6172
1, 1320.00000, 115.67, -30.6628, 117.776, -150.911, 116.898, 88.3812, 0, 0, 4.25343, -53.7367, 4.33963, -173.985, 4.3037, 65.3073, 0.0259526, -85.6172
1, 1380.00000, 115.67, -30.6628, 117.776, -150.911, 116.898, 88.3812, 0, 0, 4.25343, -53.7367, 4.33963, -173.985, 4.3037, 65.3073, 0.0259526, -85.6172
1, 1440.00000, 115.67, -30.6628, 117.776, -150.911, 116.898, 88.3812, 0, 0, 4.25343, -53.7367, 4.33963, -173.985, 4.3037, 65.3073, 0.0259526, -85.6172
1, 1500.00000, 115.67, -30.6628, 117.776, -150.911, 116.898, 88.3812, 0, 0, 4.25343, -53.7367, 4.33963, -173.985, 4.3037, 65.3073, 0.0259526, -85.6172
1, 1560.00000, 115.67, -30.6628, 117.776, -150.911, 116.898, 88.3812, 0, 0, 4.25343, -53.7367, 4.33963, -173.985, 4.3037, 65.3073, 0.0259526, -85.6172
1, 1620.00000, 115.67, -30.6628, 117.776, -150.911, 116.898, 88.3812, 0, 0, 4.25343, -53.7367, 4.33963, -173.985, 4.3037, 65.3073, 0.0259526, -85.6172
1, 1680.00000, 115.67, -30.6628, 117.776, -150.911, 116.898, 88.3812, 0, 0, 4.25343, -53.7367, 4.33963, -173.985, 4.3037, 65.3073, 0.0259526, -85.6172
1, 1740.00000, 115.67, -30.6628, 117.776, -150.911, 116.898, 88.3812, 0, 0, 4.25343, -53.7367, 4.33963, -173.985, 4.3037, 65.3073, 0.0259526, -85.6172
1, 1800.00000, 115.67, -30.6628, 117.776, -150.911, 116.898, 88.3812, 0, 0, 4.25343, -53.7367, 4.33963, -173.985, 4.3037, 65.3073, 0.0259526, -85.6172
1, 1860.00000, 115.67, -30.6628, 117.776, -150.911, 116.898, 88.3812, 0, 0, 4.25343, -53.7367, 4.33963, -173.985, 4.3037, 65.3073, 0.0259526, -85.6172
1, 1920.00000, 115.67, -30.6628, 117.776, -150.911, 116.898, 88.3812, 0, 0, 4.25343, -53.7367, 4.33963, -173.985, 4.3037, 65.3073, 0.0259526, -85.6172
1, 1980.00000, 115.67, -30.6628, 117.776, -150.911, 116.898, 88.3812, 0, 0, 4.25343, -53.7367, 4.33963, -173.985, 4.3037, 65.3073, 0.0259526, -85.6172
1, 2040.00000, 115.67, -30.6628, 117.776, -150.911, 116.898, 88.3812, 0, 0, 4.25343, -53.7367, 4.33963, -173.985, 4.3037, 65.3073, 0.0259526, -85.6172
1, 2100.00000, 115.67, -30.6628, 117.776, -150.911, 116.898, 88.3812, 0, 0, 4.25343, -53.7367, 4.33963, -173.985, 4.3037, 65.3073, 0.0259526, -85.6172
1, 2160.00000, 115.67, -30.6628, 117.776, -150.911, 116.898, 88.3812, 0, 0, 4.25343, -53.7367, 4.33963, -173.985, 4.3037, 65.3073, 0.0259526, -85.6172
1, 2220.00000, 116.379, -30.7523, 117.768, -150.914, 117.416, 88.6286, 0, 0, 4.28242, -53.8263, 4.33932, -173.988, 4.32489, 65.5546, 0.02588, -94.2727
1, 2280.00000, 116.38, -30.7522, 117.768, -150.914, 117.416, 88.6286, 0, 0, 4.28246, -53.8262, 4.33931, -173.988, 4.32491, 65.5547, 0.0258717, -94.3727
1, 2340.00000, 116.38, -30.7522, 117.768, -150.914, 117.416, 88.6286, 0, 0, 4.28246, -53.8262, 4.33931, -173.988, 4.32491, 65.5547, 0.0258717, -94.3732
1, 2400.00000, 116.38, -30.7522, 117.768, -150.914, 117.416, 88.6286, 0, 0, 4.28246, -53.8262, 4.33931, -173.988, 4.32491, 65.5547, 0.0258717, -94.3732
1, 2460.00000, 116.38, -30.7522, 117.768, -150.914, 117.416, 88.6286, 0, 0, 4.28246, -53.8262, 4.33931, -173.988, 4.32491, 65.5547, 0.0258717, -94.3732
1, 2520.00000, 116.38, -30.7522, 117.768, -150.914, 117.416, 88.6286, 0, 0, 4.28246, -53.8262, 4.33931, -173.988, 4.32491, 65.5547, 0.0258717, -94.3732
1, 2580.00000, 116.38, -30.7522, 117.768, -150.914, 117.416, 88.6286, 0, 0, 4.28246, -53.8262, 4.33931, -173.988, 4.32491, 65.5547, 0.0258717, -94.3732
1, 2640.00000, 116.38, -30.7522, 117.768, -150.914, 117.416, 88.6286, 0, 0, 4.28246, -53.8262, 4.33931, -173.988, 4.32491, 65.5547, 0.0258717, -94.3732
1, 2700.00000, 116.38, -30.7522, 117.768, -150.914, 117.416, 88.6286, 0, 0, 4.28246, -53.8262, 4.33931, -173.988, 4.32491, 65.5547, 0.0258717, -94.3732
1, 2760.00000, 116.38, -30.7522, 117.768, -150.914, 117.416, 88.6286, 0, 0, 4.28246, -53.8262, 4.33931, -173.988, 4.32491, 65.5547, 0.0258717, -94.3732
1, 2820.00000, 116.38, -30.7522, 117.768, -150.914, 117.416, 88.6286, 0, 0, 4.28246, -53.8262, 4.33931, -173.988, 4.32491, 65.5547, 0.0258717, -94.3732
1, 2880.00000, 116.38, -30.7522, 117.768, -150.914, 117.416, 88.6286, 0, 0, 4.28246, -53.8262, 4.33931, -173.988, 4.32491, 65.5547, 0.0258717, -94.3732
1, 2940.00000, 116.38, -30.7522, 117.768, -150.914, 117.416, 88.6286, 0, 0, 4.28246, -53.8262, 4.33931, -173.988, 4.32491, 65.5547, 0.0258717, -94.3732
1, 3000.00000, 116.38, -30.7522, 117.768, -150.914, 117.416, 88.6286, 0, 0, 4.28246, -53.8262, 4.33931, -173.988, 4.32491, 65.5547, 0.0258717, -94.3732
1, 3060.00000, 116.38, -30.7522, 117.768, -150.914, 117.416, 88.6286, 0, 0, 4.28246, -53.8262, 4.33931, -173.988, 4.32491, 65.5547, 0.0258717, -94.3732
1, 3120.00000, 116.38, -30.7522, 117.768, -150.914, 117.416, 88.6286, 0, 0, 4.28246, -53.8262, 4.33931, -173.988, 4.32491, 65.5547, 0.0258717, -94.3732
1, 3180.00000, 116.38, -30.7522, 117.768, -150.914, 117.416, 88.6286, 0, 0, 4.28246, -53.8262, 4.33931, -173.988, 4.32491, 65.5547, 0.0258717, -94.3732
1, 3240.00000, 116.38, -30.7522, 117.768, -150.914, 117.416, 88.6286, 0, 0, 4.28246, -53.8262, 4.33931, -173.988, 4.32491, 65.5547, 0.0258717, -94.3732
1, 3300.00000, 116.38, -30.7522, 117.768, -150.914, 117.416, 88.6286, 0, 0, 4.28246, -53.8262, 4.33931, -173.988, 4.32491, 65.5547, 0.0258717, -94.3732
1, 3360.00000, 116.38, -30.7522, 117.768, -150.914, 117.416, 88.6286, 0, 0, 4.28246, -53.8262, 4.33931, -173.988, 4.32491, 65.5547, 0.0258717, -94.3732
1, 3420.00000, 116.38, -30.7522, 117.768, -150.914, 117.416, 88.6286, 0, 0, 4.28246, -53.8262, 4.33931, -173.988, 4.32491, 65.5547, 0.0258717, -94.3732
1, 3480.00000, 116.38, -30.7522, 117.768, -150.914, 117.416, 88.6286, 0, 0, 4.28246, -53.8262, 4.33931, -173.988, 4.32491, 65.5547, 0.0258717, -94.3732
1, 3540.00000, 116.38, -30.7522, 117.768, -150.914, 117.416, 88.6286, 0, 0, 4.28246, -53.8262, 4.33931, -173.988, 4.32491, 65.5547, 0.0258717, -94.3732
2, 0.00000, 116.38, -30.7522, 117.768, -150.914, 117.416, 88.6286, 0, 0, 4.28246, -53.8262, 4.33931, -173.988, 4.32491, 65.5547, 0.0258717, -94.3732
2, 60.00000, 116.38, -30.7522, 117.768, -150.914, 117.416, 88.6286, 0, 0, 4.28246, -53.8262, 4.33931, -173.988, 4.32491, 65.5547, 0.0258717, -94.3732
2, 120.00000, 116.38, -30.7522, 117.768, -150.914, 117.416, 88.6286, 0, 0, 4.28246, -53.8262, 4.33931, -173.988, 4.32491, 65.5547, 0.0258717, -94.3732
2, 180.00000, 116.38, -30.7522, 117.768, -150.914, 117.416, 88.6286, 0, 0, 4.28246, -53.8262, 4.33931, -173.988, 4.32491, 65.5547, 0.0258717, -94.3732
2, 240.00000, 116.38, -30.7522, 117.768, -150.914, 117.416, 88.6286, 0, 0, 4.28246, -53.8262, 4.33931, -173.988, 4.32491, 65.5547, 0.0258717, -94.3732
2, 300.00000, 116.38, -30.7522, 117.768, -150.914, 117.416, 88.6286, 0, 0, 4.28246, -53.8262, 4.33931, -173.988, 4.32491, 65.5547, 0.0258717, -94.3732
2, 360.00000, 116.38, -30.7522, 117.768, -150.914, 117.416, 88.6286, 0, 0, 4.28246, -53.8262, 4.33931, -173.988, 4.32491, 65.5547, 0.0258717, -94.3732
2, 420.00000, 116.38, -30.7522, 117.768, -150.914, 117.416, 88.6286, 0, 0, 4.28246, -53.8262, 4.33931, -173.988, 4.32491, 65.5547, 0.0258717, -94.3732
2, 480.00000, 116.38, -30.7522, 117.768, -150.914, 117.416, 88.6286, 0, 0, 4.28246, -53.8262, 4.33931, -173.988, 4.32491, 65.5547, 0.0258717, -94.3732
2, 540.00000, 116.38, -30.7522, 117.768, -150.914, 117.416, 88.6286, 0, 0, 4.28246, -53.8262, 4.33931, -173.988, 4.32491, 65.5547, 0.0258717, -94.3732
2, 600.00000, 116.38, -30.7522, 117.768, -150.914, 117.416, 88.6286, 0, 0, 4.28246, -53.8262, 4.33931, -173.988, 4.32491, 65.5547, 0.0258717, -94.3732
2, 660.00000, 116.38, -30.7522, 117.768, -150.914, 117.416, 88.6286, 0, 0, 4.28246, -53.8262, 4.33931, -173.988, 4.32491, 65.5547, 0.0258717, -94.3732
