hour,t(sec),V1,VAngle1,V2,VAngle2,V3,VAngle3,V4,VAngle4,I1,IAngle1,I2,IAngle2,I3,IAngle3,I4,IAngle4
0, 60.00000, 123.879, -31.4576, 123.841, -151.12, 124.82, 88.7459, 0, 0, 5.46956, -54.5312, 5.47124, -174.194, 5.4283, 65.6725, 0.0701511, 61.7472
0, 120.00000, 123.879, -31.4576, 123.841, -151.12, 124.819, 88.7458, 0, 0, 5.46962, -54.5316, 5.47131, -174.194, 5.4284, 65.6719, 0.0701317, 61.7648
0, 180.00000, 123.879, -31.4576, 123.841, -151.12, 124.819, 88.7458, 0, 0, 5.46962, -54.5316, 5.47132, -174.194, 5.42841, 65.6719, 0.0701309, 61.7651
0, 240.00000, 123.879, -31.4576, 123.841, -151.12, 124.819, 88.7458, 0, 0, 5.46962, -54.5316, 5.47132, -174.194, 5.42841, 65.6719, 0.0701309, 61.7652
0, 300.00000, 123.879, -31.4576, 123.841, -151.12, 124.819, 88.7458, 0, 0, 5.46962, -54.5316, 5.47132, -174.194, 5.42841, 65.6719, 0.0701309, 61.7652
0, 360.00000, 123.879, -31.4576, 123.841, -151.12, 124.819, 88.7458, 0, 0, 5.46962, -54.5316, 5.47132, -174.194, 5.42841, 65.6719, 0.0701309, 61.7652
0, 420.00000, 123.879, -31.4576, 123.841, -151.12, 124.819, 88.7458, 0, 0, 5.46962, -54.5316, 5.47132, -174.194, 5.42841, 65.6719, 0.0701309, 61.7652
0, 480.00000, 123.879, -31.4576, 123.841, -151.12, 124.819, 88.7458, 0, 0, 5.46962, -54.5316, 5.47132, -174.194, 5.42841, 65.6719, 0.0701309, 61.7652
0, 540.00000, 123.879, -31.4576, 123.841, -151.12, 124.819, 88.7458, 0, 0, 5.46962, -54.5316, 5.47132, -174.194, 5.42841, 65.6719, 0.0701309, 61.7652
0, 600.00000, 123.879, -31.4576, 123.841, -151.12, 124.819, 88.7458, 0, 0, 5.46962, -54.5316, 5.47132, -174.194, 5.42841, 65.6719, 0.0701309, 61.7652
0, 660.00000, 123.879, -31.4576, 123.841, -151.12, 124.819, 88.7458, 0, 0, 5.46962, -54.5316, 5.47132, -174.194, 5.42841, 65.6719, 0.0701309, 61.7652
0, 720.00000, 123.879, -31.4576, 123.841, -151.12, 124.819, 88.7458, 0, 0, 5.46962, -54.5316, 5.47132, -174.194, 5.42841, 65.6719, 0.0701309, 61.7652
0, 780.00000, 123.879, -31.4576, 123.841, -151.12, 124.819, 88.7458, 0, 0, 5.46962, -54.5316, 5.47132, -174.194, 5.42841, 65.6719, 0.0701309, 61.7652
0, 840.00000, 123.879, -31.4576, 123.841, -151.12, 124.819, 88.7458, 0, 0, 5.46962, -54.5316, 5.47132, -174.194, 5.42841, 65.6719, 0.0701309, 61.7652
0, 900.00000, 123.879, -31.4576, 123.841, -151.12, 124.819, 88.7458, 0, 0, 5.46962, -54.5316, 5.47132, -174.194, 5.42841, 65.6719, 0.0701309, 61.7652
0, 960.00000, 123.725, -31.4882, 123.695, -151.15, 124.677, 88.7131, 0, 0, 5.77629, -54.562, 5.77768, -174.224, 5.73216, 65.6393, 0.0744821, 62.2109
0, 1020.00000, 123.725, -31.4882, 123.695, -151.15, 124.677, 88.7131, 0, 0, 5.77632, -54.5621, 5.77771, -174.224, 5.73219, 65.6392, 0.0744885, 62.2129
0, 1080.00000, 123.725, -31.4882, 123.695, -151.15, 124.677, 88.7131, 0, 0, 5.77632, -54.5621, 5.77771, -174.224, 5.73219, 65.6392, 0.0744885, 62.2129
0, 1140.00000, 123.725, -31.4882, 123.695, -151.15, 124.677, 88.7131, 0, 0, 5.77632, -54.5621, 5.77771, -174.224, 5.73219, 65.6392, 0.0744885, 62.2129
0, 1200.00000, 123.725, -31.4882, 123.695, -151.15, 124.677, 88.7131, 0, 0, 5.77632, -54.5621, 5.77771, -174.224, 5.73219, 65.6392, 0.0744885, 62.2129
0, 1260.00000, 123.725, -31.4882, 123.695, -151.15, 124.677, 88.7131, 0, 0, 5.77632, -54.5621, 5.77771, -174.224, 5.73219, 65.6392, 0.0744885, 62.2129
0, 1320.00000, 123.725, -31.4882, 123.695, -151.15, 124.677, 88.7131, 0, 0, 5.77632, -54.5621, 5.77771, -174.224, 5.73219, 65.6392, 0.0744885, 62.2129
0, 1380.00000, 123.725, -31.4882, 123.695, -151.15, 124.677, 88.7131, 0, 0, 5.77632, -54.5621, 5.77771, -174.224, 5.73219, 65.6392, 0.0744885, 62.2129
0, 1440.00000, 123.725, -31.4882, 123.695, -151.15, 124.677, 88.7131, 0, 0, 5.77632, -54.5621, 5.77771, -174.224, 5.73219, 65.6392, 0.0744885, 62.2129
0, 1500.00000, 123.725, -31.4882, 123.695, -151.15, 124.677, 88.7131, 0, 0, 5.77632, -54.5621, 5.77771, -174.224, 5.73219, 65.6392, 0.0744885, 62.2129
0, 1560.00000, 123.725, -31.4882, 123.695, -151.15, 124.677, 88.7131, 0, 0, 5.77632, -54.5621, 5.77771, -174.224, 5.73219, 65.6392, 0.0744885, 62.2129
0, 1620.00000, 123.725, -31.4882, 123.695, -151.15, 124.677, 88.7131, 0, 0, 5.77632, -54.5621, 5.77771, -174.224, 5.73219, 65.6392, 0.0744885, 62.2129
0, 1680.00000, 123.725, -31.4882, 123.695, -151.15, 124.677, 88.7131, 0, 0, 5.77632, -54.5621, 5.77771, -174.224, 5.73219, 65.6392, 0.0744885, 62.2129
0, 1740.00000, 123.725, -31.4882, 123.695, -151.15, 124.677, 88.7131, 0, 0, 5.77632, -54.5621, 5.77771, -174.224, 5.73219, 65.6392, 0.0744885, 62.2129
0, 1800.00000, 123.725, -31.4882, 123.695, -151.15, 124.677, 88.7131, 0, 0, 5.77632, -54.5621, 5.77771, -174.224, 5.73219, 65.6392, 0.0744885, 62.2129
0, 1860.00000, 123.811, -31.4673, 123.777, -151.129, 124.759, 88.7347, 0, 0, 5.56915, -54.5425, 5.57065, -174.204, 5.52681, 65.6597, 0.0717013, 62.0408
0, 1920.00000, 123.811, -31.4672, 123.777, -151.129, 124.759, 88.7347, 0, 0, 5.56891, -54.5411, 5.57043, -174.203, 5.52658, 65.6608, 0.0716533, 62.0296
0, 1980.00000, 123.811, -31.4672, 123.777, -151.129, 124.759, 88.7347, 0, 0, 5.56891, -54.5411, 5.57043, -174.203, 5.52658, 65.6608, 0.0716531, 62.0295
0, 2040.00000, 123.811, -31.4672, 123.777, -151.129, 124.759, 88.7347, 0, 0, 5.56891, -54.5411, 5.57043, -174.203, 5.52658, 65.6608, 0.0716531, 62.0295
0, 2100.00000, 123.811, -31.4672, 123.777, -151.129, 124.759, 88.7347, 0, 0, 5.56891, -54.5411, 5.57043, -174.203, 5.52658, 65.6608, 0.0716531, 62.0295
0, 2160.00000, 123.811, -31.4672, 123.777, -151.129, 124.759, 88.7347, 0, 0, 5.56891, -54.5411, 5.57043, -174.203, 5.52658, 65.6608, 0.0716531, 62.0295
0, 2220.00000, 123.811, -31.4672, 123.777, -151.129, 124.759, 88.7347, 0, 0, 5.56891, -54.5411, 5.57043, -174.203, 5.52658, 65.6608, 0.0716531, 62.0295
0, 2280.00000, 123.811, -31.4672, 123.777, -151.129, 124.759, 88.7347, 0, 0, 5.56891, -54.5411, 5.57043, -174.203, 5.52658, 65.6608, 0.0716531, 62.0295
0, 2340.00000, 123.811, -31.4672, 123.777, -151.129, 124.759, 88.7347, 0, 0, 5.56891, -54.5411, 5.57043, -174.203, 5.52658, 65.6608, 0.0716531, 62.0295
0, 2400.00000, 123.811, -31.4672, 123.777, -151.129, 124.759, 88.7347, 0, 0, 5.56891, -54.5411, 5.57043, -174.203, 5.52658, 65.6608, 0.0716531, 62.0295
0, 2460.00000, 123.811, -31.4672, 123.777, -151.129, 124.759, 88.7347, 0, 0, 5.56891, -54.5411, 5.57043, -174.203, 5.52658, 65.6608, 0.0716531, 62.0295
0, 2520.00000, 123.811, -31.4672, 123.777, -151.129, 124.759, 88.7347, 0, 0, 5.56891, -54.5411, 5.57043, -174.203, 5.52658, 65.6608, 0.0716531, 62.0295
0, 2580.00000, 123.811, -31.4672, 123.777, -151.129, 124.759, 88.7347, 0, 0, 5.56891, -54.5411, 5.57043, -174.203, 5.52658, 65.6608, 0.0716531, 62.0295
0, 2640.00000, 123.811, -31.4672, 123.777, -151.129, 124.759, 88.7347, 0, 0, 5.56891, -54.5411, 5.57043, -174.203, 5.52658, 65.6608, 0.0716531, 62.0295
0, 2700.00000, 123.811, -31.4672, 123.777, -151.129, 124.759, 88.7347, 0, 0, 5.56891, -54.5411, 5.57043, -174.203, 5.52658, 65.6608, 0.0716531, 62.0295
0, 2760.00000, 124.007, -31.4243, 123.963, -151.088, 124.945, 88.7807, 0, 0, 5.2561, -54.4984, 5.25795, -174.162, 5.21668, 65.7065, 0.0672701, 61.4763
0, 2820.00000, 124.007, -31.4242, 123.963, -151.088, 124.945, 88.7807, 0, 0, 5.25607, -54.4982, 5.25793, -174.161, 5.21663, 65.7068, 0.0672848, 61.4623
0, 2880.00000, 124.007, -31.4242, 123.963, -151.088, 124.945, 88.7807, 0, 0, 5.25607, -54.4982, 5.25793, -174.161, 5.21663, 65.7068, 0.0672853, 61.4621
0, 2940.00000, 124.007, -31.4242, 123.963, -151.088, 124.945, 88.7807, 0, 0, 5.25607, -54.4982, 5.25793, -174.161, 5.21663, 65.7068, 0.0672853, 61.4621
0, 3000.00000, 124.007, -31.4242, 123.963, -151.088, 124.945, 88.7807, 0, 0, 5.25607, -54.4982, 5.25793, -174.161, 5.21663, 65.7068, 0.0672853, 61.4621
0, 3060.00000, 124.007, -31.4242, 123.963, -151.088, 124.945, 88.7807, 0, 0, 5.25607, -54.4982, 5.25793, -174.161, 5.21663, 65.7068, 0.0672853, 61.4621
0, 3120.00000, 124.007, -31.4242, 123.963, -151.088, 124.945, 88.7807, 0, 0, 5.25607, -54.4982, 5.25793, -174.161, 5.21663, 65.7068, 0.0672853, 61.4621
0, 3180.00000, 124.007, -31.4242, 123.963, -151.088, 124.945, 88.7807, 0, 0, 5.25607, -54.4982, 5.25793, -174.161, 5.21663, 65.7068, 0.0672853, 61.4621
0, 3240.00000, 124.007, -31.4242, 123.963, -151.088, 124.945, 88.7807, 0, 0, 5.25607, -54.4982, 5.25793, -174.161, 5.21663, 65.7068, 0.0672853, 61.4621
0, 3300.00000, 124.007, -31.4242, 123.963, -151.088, 124.945, 88.7807, 0, 0, 5.25607, -54.4982, 5.25793, -174.161, 5.21663, 65.7068, 0.0672853, 61.4621
0, 3360.00000, 124.007, -31.4242, 123.963, -151.088, 124.945, 88.7807, 0, 0, 5.25607, -54.4982, 5.25793, -174.161, 5.21663, 65.7068, 0.0672853, 61.4621
0, 3420.00000, 124.007, -31.4242, 123.963, -151.088, 124.945, 88.7807, 0, 0, 5.25607, -54.4982, 5.25793, -174.161, 5.21663, 65.7068, 0.0672853, 61.4621
0, 3480.00000, 124.007, -31.4242, 123.963, -151.088, 124.945, 88.7807, 0, 0, 5.25607, -54.4982, 5.25793, -174.161, 5.21663, 65.7068, 0.0672853, 61.4621
0, 3540.00000, 124.007, -31.4242, 123.963, -151.088, 124.945, 88.7807, 0, 0, 5.25607, -54.4982, 5.25793, -174.161, 5.21663, 65.7068, 0.0672853, 61.4621
1, 0.00000, 124.007, -31.4242, 123.963, -151.088, 124.945, 88.7807, 0, 0, 5.25607, -54.4982, 5.25793, -174.161, 5.21663, 65.7068, 0.0672853, 61.4621
1, 60.00000, 124.124, -31.3932, 124.075, -151.057, 125.059, 88.8137, 0, 0, 5.32781, -54.4672, 5.32988, -174.131, 5.28797, 65.7396, 0.0681202, 61.1739
1, 120.00000, 124.124, -31.3931, 124.075, -151.057, 125.06, 88.8138, 0, 0, 5.32779, -54.4671, 5.32986, -174.131, 5.28791, 65.7399, 0.0681473, 61.1576
1, 180.00000, 124.124, -31.3931, 124.075, -151.057, 125.06, 88.8138, 0, 0, 5.32779, -54.4671, 5.32986, -174.131, 5.28791, 65.7399, 0.068148, 61.1573
1, 240.00000, 124.124, -31.3931, 124.075, -151.057, 125.06, 88.8138, 0, 0, 5.32779, -54.4671, 5.32986, -174.131, 5.28791, 65.7399, 0.068148, 61.1573
1, 300.00000, 124.124, -31.3931, 124.075, -151.057, 125.06, 88.8138, 0, 0, 5.32779, -54.4671, 5.32986, -174.131, 5.28791, 65.7399, 0.068148, 61.1573
1, 360.00000, 124.124, -31.3931, 124.075, -151.057, 125.06, 88.8138, 0, 0, 5.32779, -54.4671, 5.32986, -174.131, 5.28791, 65.7399, 0.068148, 61.1573
1, 420.00000, 124.124, -31.3931, 124.075, -151.057, 125.06, 88.8138, 0, 0, 5.32779, -54.4671, 5.32986, -174.131, 5.28791, 65.7399, 0.068148, 61.1573
1, 480.00000, 124.124, -31.3931, 124.075, -151.057, 125.06, 88.8138, 0, 0, 5.32779, -54.4671, 5.32986, -174.131, 5.28791, 65.7399, 0.068148, 61.1573
1, 540.00000, 124.124, -31.3931, 124.075, -151.057, 125.06, 88.8138, 0, 0, 5.32779, -54.4671, 5.32986, -174.131, 5.28791, 65.7399, 0.068148, 61.1573
1, 600.00000, 124.124, -31.3931, 124.075, -151.057, 125.06, 88.8138, 0, 0, 5.32779, -54.4671, 5.32986, -174.131, 5.28791, 65.7399, 0.068148, 61.1573
1, 660.00000, 124.124, -31.3931, 124.075, -151.057, 125.06, 88.8138, 0, 0, 5.32779, -54.4671, 5.32986, -174.131, 5.28791, 65.7399, 0.068148, 61.1573
1, 720.00000, 124.124, -31.3931, 124.075, -151.057, 125.06, 88.8138, 0, 0, 5.32779, -54.4671, 5.32986, -174.131, 5.28791, 65.7399, 0.068148, 61.1573
1, 780.00000, 124.124, -31.3931, 124.075, -151.057, 125.06, 88.8138, 0, 0, 5.32779, -54.4671, 5.32986, -174.131, 5.28791, 65.7399, 0.068148, 61.1573
1, 840.00000, 124.124, -31.3931, 124.075, -151.057, 125.06, 88.8138, 0, 0, 5.32779, -54.4671, 5.32986, -174.131, 5.28791, 65.7399, 0.068148, 61.1573
1, 900.00000, 124.124, -31.3931, 124.075, -151.057, 125.06, 88.8138, 0, 0, 5.32779, -54.4671, 5.32986, -174.131, 5.28791, 65.7399, 0.068148, 61.1573
1, 960.00000, 124.147, -31.3886, 124.098, -151.053, 125.082, 88.8187, 0, 0, 5.27265, -54.4629, 5.27476, -174.127, 5.23327, 65.7444, 0.0673917, 61.0885
1, 1020.00000, 124.147, -31.3886, 124.098, -151.053, 125.082, 88.8188, 0, 0, 5.27259, -54.4625, 5.2747, -174.127, 5.23319, 65.7449, 0.0674004, 61.0727
1, 1080.00000, 124.147, -31.3886, 124.098, -151.053, 125.082, 88.8188, 0, 0, 5.27259, -54.4625, 5.2747, -174.127, 5.23319, 65.7449, 0.0674012, 61.0724
1, 1140.00000, 124.147, -31.3886, 124.098, -151.053, 125.082, 88.8188, 0, 0, 5.27259, -54.4625, 5.2747, -174.127, 5.23319, 65.7449, 0.0674012, 61.0723
1, 1200.00000, 124.147, -31.3886, 124.098, -151.053, 125.082, 88.8188, 0, 0, 5.27259, -54.4625, 5.2747, -174.127, 5.23319, 65.7449, 0.0674012, 61.0723
1, 1260.00000, 124.147, -31.3886, 124.098, -151.053, 125.082, 88.8188, 0, 0, 5.27259, -54.4625, 5.2747, -174.127, 5.23319, 65.7449, 0.0674012, 61.0723
1, 1320.00000, 124.147, -31.3886, 124.098, -151.053, 125.082, 88.8188, 0, 0, 5.27259, -54.4625, 5.2747, -174.127, 5.23319, 65.7449, 0.0674012, 61.0723
1, 1380.00000, 124.147, -31.3886, 124.098, -151.053, 125.082, 88.8188, 0, 0, 5.27259, -54.4625, 5.2747, -174.127, 5.23319, 65.7449, 0.0674012, 61.0723
1, 1440.00000, 124.147, -31.3886, 124.098, -151.053, 125.082, 88.8188, 0, 0, 5.27259, -54.4625, 5.2747, -174.127, 5.23319, 65.7449, 0.0674012, 61.0723
1, 1500.00000, 124.147, -31.3886, 124.098, -151.053, 125.082, 88.8188, 0, 0, 5.27259, -54.4625, 5.2747, -174.127, 5.23319, 65.7449, 0.0674012, 61.0723
1, 1560.00000, 124.147, -31.3886, 124.098, -151.053, 125.082, 88.8188, 0, 0, 5.27259, -54.4625, 5.2747, -174.127, 5.23319, 65.7449, 0.0674012, 61.0723
1, 1620.00000, 124.147, -31.3886, 124.098, -151.053, 125.082, 88.8188, 0, 0, 5.27259, -54.4625, 5.2747, -174.127, 5.23319, 65.7449, 0.0674012, 61.0723
1, 1680.00000, 124.147, -31.3886, 124.098, -151.053, 125.082, 88.8188, 0, 0, 5.27259, -54.4625, 5.2747, -174.127, 5.23319, 65.7449, 0.0674012, 61.0723
1, 1740.00000, 124.147, -31.3886, 124.098, -151.053, 125.082, 88.8188, 0, 0, 5.27259, -54.4625, 5.2747, -174.127, 5.23319, 65.7449, 0.0674012, 61.0723
1, 1800.00000, 124.147, -31.3886, 124.098, -151.053, 125.082, 88.8188, 0, 0, 5.27259, -54.4625, 5.2747, -174.127, 5.23319, 65.7449, 0.0674012, 61.0723
1, 1860.00000, 124.029, -31.4174, 123.985, -151.081, 124.968, 88.7879, 0, 0, 5.2915, -54.4912, 5.2934, -174.155, 5.25174, 65.7143, 0.0677807, 61.3916
1, 1920.00000, 124.029, -31.4174, 123.985, -151.081, 124.968, 88.7879, 0, 0, 5.29152, -54.4913, 5.29342, -174.155, 5.25179, 65.714, 0.0677556, 61.4073
1, 1980.00000, 124.029, -31.4174, 123.985, -151.081, 124.968, 88.7879, 0, 0, 5.29152, -54.4913, 5.29342, -174.155, 5.25179, 65.714, 0.0677549, 61.4076
1, 2040.00000, 124.029, -31.4174, 123.985, -151.081, 124.968, 88.7879, 0, 0, 5.29152, -54.4913, 5.29342, -174.155, 5.25179, 65.714, 0.0677548, 61.4076
1, 2100.00000, 124.029, -31.4174, 123.985, -151.081, 124.968, 88.7879, 0, 0, 5.29152, -54.4913, 5.29342, -174.155, 5.25179, 65.714, 0.0677548, 61.4076
1, 2160.00000, 124.029, -31.4174, 123.985, -151.081, 124.968, 88.7879, 0, 0, 5.29152, -54.4913, 5.29342, -174.155, 5.25179, 65.714, 0.0677548, 61.4076
1, 2220.00000, 124.029, -31.4174, 123.985, -151.081, 124.968, 88.7879, 0, 0, 5.29152, -54.4913, 5.29342, -174.155, 5.25179, 65.714, 0.0677548, 61.4076
1, 2280.00000, 124.029, -31.4174, 123.985, -151.081, 124.968, 88.7879, 0, 0, 5.29152, -54.4913, 5.29342, -174.155, 5.25179, 65.714, 0.0677548, 61.4076
1, 2340.00000, 124.029, -31.4174, 123.985, -151.081, 124.968, 88.7879, 0, 0, 5.29152, -54.4913, 5.29342, -174.155, 5.25179, 65.714, 0.0677548, 61.4076
1, 2400.00000, 124.029, -31.4174, 123.985, -151.081, 124.968, 88.7879, 0, 0, 5.29152, -54.4913, 5.29342, -174.155, 5.25179, 65.714, 0.0677548, 61.4076
1, 2460.00000, 124.029, -31.4174, 123.985, -151.081, 124.968, 88.7879, 0, 0, 5.29152, -54.4913, 5.29342, -174.155, 5.25179, 65.714, 0.0677548, 61.4076
1, 2520.00000, 124.029, -31.4174, 123.985, -151.081, 124.968, 88.7879, 0, 0, 5.29152, -54.4913, 5.29342, -174.155, 5.25179, 65.714, 0.0677548, 61.4076
1, 2580.00000, 124.029, -31.4174, 123.985, -151.081, 124.968, 88.7879, 0, 0, 5.29152, -54.4913, 5.29342, -174.155, 5.25179, 65.714, 0.0677548, 61.4076
1, 2640.00000, 124.029, -31.4174, 123.985, -151.081, 124.968, 88.7879, 0, 0, 5.29152, -54.4913, 5.29342, -174.155, 5.25179, 65.714, 0.0677548, 61.4076
1, 2700.00000, 124.029, -31.4174, 123.985, -151.081, 124.968, 88.7879, 0, 0, 5.29152, -54.4913, 5.29342, -174.155, 5.25179, 65.714, 0.0677548, 61.4076
1, 2760.00000, 124.279, -31.3594, 124.224, -151.025, 125.209, 88.8502, 0, 0, 5.04512, -54.4336, 5.04738, -174.099, 5.00772, 65.7758, 0.0643104, 60.7263
1, 2820.00000, 124.279, -31.3594, 124.224, -151.025, 125.209, 88.8503, 0, 0, 5.04509, -54.4333, 5.04734, -174.099, 5.00761, 65.7764, 0.06436, 60.7083
1, 2880.00000, 124.279, -31.3594, 124.224, -151.025, 125.209, 88.8503, 0, 0, 5.04509, -54.4333, 5.04734, -174.099, 5.00761, 65.7764, 0.0643614, 60.7079
1, 2940.00000, 124.279, -31.3594, 124.224, -151.025, 125.209, 88.8503, 0, 0, 5.04509, -54.4333, 5.04734, -174.099, 5.00761, 65.7764, 0.0643615, 60.7079
1, 3000.00000, 124.279, -31.3594, 124.224, -151.025, 125.209, 88.8503, 0, 0, 5.04509, -54.4333, 5.04734, -174.099, 5.00761, 65.7764, 0.0643615, 60.7079
1, 3060.00000, 124.279, -31.3594, 124.224, -151.025, 125.209, 88.8503, 0, 0, 5.04509, -54.4333, 5.04734, -174.099, 5.00761, 65.7764, 0.0643615, 60.7079
1, 3120.00000, 124.279, -31.3594, 124.224, -151.025, 125.209, 88.8503, 0, 0, 5.04509, -54.4333, 5.04734, -174.099, 5.00761, 65.7764, 0.0643615, 60.7079
1, 3180.00000, 124.279, -31.3594, 124.224, -151.025, 125.209, 88.8503, 0, 0, 5.04509, -54.4333, 5.04734, -174.099, 5.00761, 65.7764, 0.0643615, 60.7079
1, 3240.00000, 124.279, -31.3594, 124.224, -151.025, 125.209, 88.8503, 0, 0, 5.04509, -54.4333, 5.04734, -174.099, 5.00761, 65.7764, 0.0643615, 60.7079
1, 3300.00000, 124.279, -31.3594, 124.224, -151.025, 125.209, 88.8503, 0, 0, 5.04509, -54.4333, 5.04734, -174.099, 5.00761, 65.7764, 0.0643615, 60.7079
1, 3360.00000, 124.279, -31.3594, 124.224, -151.025, 125.209, 88.8503, 0, 0, 5.04509, -54.4333, 5.04734, -174.099, 5.00761, 65.7764, 0.0643615, 60.7079
1, 3420.00000, 124.279, -31.3594, 124.224, -151.025, 125.209, 88.8503, 0, 0, 5.04509, -54.4333, 5.04734, -174.099, 5.00761, 65.7764, 0.0643615, 60.7079
1, 3480.00000, 124.279, -31.3594, 124.224, -151.025, 125.209, 88.8503, 0, 0, 5.04509, -54.4333, 5.04734, -174.099, 5.00761, 65.7764, 0.0643615, 60.7079
1, 3540.00000, 124.279, -31.3594, 124.224, -151.025, 125.209, 88.8503, 0, 0, 5.04509, -54.4333, 5.04734, -174.099, 5.00761, 65.7764, 0.0643615, 60.7079
2, 0.00000, 124.279, -31.3594, 124.224, -151.025, 125.209, 88.8503, 0, 0, 5.04509, -54.4333, 5.04734, -174.099, 5.00761, 65.7764, 0.0643615, 60.7079
2, 60.00000, 124.133, -31.3947, 124.083, -151.059, 125.067, 88.8124, 0, 0, 5.07274, -54.4685, 5.07478, -174.133, 5.03479, 65.7388, 0.0648735, 61.0641
2, 120.00000, 124.133, -31.3947, 124.083, -151.059, 125.067, 88.8124, 0, 0, 5.07276, -54.4687, 5.0748, -174.133, 5.03485, 65.7384, 0.0648457, 61.078
2, 180.00000, 124.133, -31.3947, 124.083, -151.059, 125.067, 88.8124, 0, 0, 5.07276, -54.4687, 5.0748, -174.133, 5.03485, 65.7384, 0.0648449, 61.0783
2, 240.00000, 124.133, -31.3947, 124.083, -151.059, 125.067, 88.8124, 0, 0, 5.07276, -54.4687, 5.0748, -174.133, 5.03485, 65.7384, 0.0648449, 61.0783
2, 300.00000, 124.133, -31.3947, 124.083, -151.059, 125.067, 88.8124, 0, 0, 5.07276, -54.4687, 5.0748, -174.133, 5.03485, 65.7384, 0.0648449, 61.0783
2, 360.00000, 124.133, -31.3947, 124.083, -151.059, 125.067, 88.8124, 0, 0, 5.07276, -54.4687, 5.0748, -174.133, 5.03485, 65.7384, 0.0648449, 61.0783
2, 420.00000, 124.133, -31.3947, 124.083, -151.059, 125.067, 88.8124, 0, 0, 5.07276, -54.4687, 5.0748, -174.133, 5.03485, 65.7384, 0.0648449, 61.0783
2, 480.00000, 124.133, -31.3947, 124.083, -151.059, 125.067, 88.8124, 0, 0, 5.07276, -54.4687, 5.0748, -174.133, 5.03485, 65.7384, 0.0648449, 61.0783
2, 540.00000, 124.133, -31.3947, 124.083, -151.059, 125.067, 88.8124, 0, 0, 5.07276, -54.4687, 5.0748, -174.133, 5.03485, 65.7384, 0.0648449, 61.0783
2, 600.00000, 124.133, -31.3947, 124.083, -151.059, 125.067, 88.8124, 0, 0, 5.07276, -54.4687, 5.0748, -174.133, 5.03485, 65.7384, 0.0648449, 61.0783
2, 660.00000, 124.133, -31.3947, 124.083, -151.059, 125.067, 88.8124, 0, 0, 5.07276, -54.4687, 5.0748, -174.133, 5.03485, 65.7384, 0.0648449, 61.0783
