hour,t(sec),"P1 (kW)","Q1 (kvar)","P2 (kW)","Q2 (kvar)","P3 (kW)","Q3 (kvar)","P4 (kW)","Q4 (kvar)"
0, 60.00000, 0.633307, 0.269783, 0.64363, 0.274185, 0.645943, 0.275164, 0, 0
0, 120.00000, 0.633296, 0.269783, 0.643621, 0.274182, 0.645959, 0.275178, 0, 0
0, 180.00000, 0.633296, 0.269783, 0.643621, 0.274182, 0.645959, 0.275178, 0, 0
0, 240.00000, 0.633296, 0.269783, 0.643621, 0.274182, 0.645959, 0.275178, 0, 0
0, 300.00000, 0.633296, 0.269783, 0.643621, 0.274182, 0.645959, 0.275178, 0, 0
0, 360.00000, 0.633296, 0.269783, 0.643621, 0.274182, 0.645959, 0.275178, 0, 0
0, 420.00000, 0.633296, 0.269783, 0.643621, 0.274182, 0.645959, 0.275178, 0, 0
0, 480.00000, 0.633296, 0.269783, 0.643621, 0.274182, 0.645959, 0.275178, 0, 0
0, 540.00000, 0.633296, 0.269783, 0.643621, 0.274182, 0.645959, 0.275178, 0, 0
0, 600.00000, 0.633296, 0.269783, 0.643621, 0.274182, 0.645959, 0.275178, 0, 0
0, 660.00000, 0.633296, 0.269783, 0.643621, 0.274182, 0.645959, 0.275178, 0, 0
0, 720.00000, 0.633296, 0.269783, 0.643621, 0.274182, 0.645959, 0.275178, 0, 0
0, 780.00000, 0.633296, 0.269783, 0.643621, 0.274182, 0.645959, 0.275178, 0, 0
0, 840.00000, 0.633296, 0.269783, 0.643621, 0.274182, 0.645959, 0.275178, 0, 0
0, 900.00000, 0.633296, 0.269783, 0.643621, 0.274182, 0.645959, 0.275178, 0, 0
0, 960.00000, 0.649114, 0.276513, 0.659093, 0.28078, 0.683341, 0.2911, 0, 0
0, 1020.00000, 0.649094, 0.276513, 0.659079, 0.280766, 0.683342, 0.291102, 0, 0
0, 1080.00000, 0.649094, 0.276513, 0.659079, 0.280766, 0.683342, 0.291102, 0, 0
0, 1140.00000, 0.649094, 0.276513, 0.659079, 0.280766, 0.683342, 0.291102, 0, 0
0, 1200.00000, 0.649094, 0.276513, 0.659079, 0.280766, 0.683342, 0.291102, 0, 0
0, 1260.00000, 0.649094, 0.276513, 0.659079, 0.280766, 0.683342, 0.291102, 0, 0
0, 1320.00000, 0.649094, 0.276513, 0.659079, 0.280766, 0.683342, 0.291102, 0, 0
0, 1380.00000, 0.649094, 0.276513, 0.659079, 0.280766, 0.683342, 0.291102, 0, 0
0, 1440.00000, 0.649094, 0.276513, 0.659079, 0.280766, 0.683342, 0.291102, 0, 0
0, 1500.00000, 0.649094, 0.276513, 0.659079, 0.280766, 0.683342, 0.291102, 0, 0
0, 1560.00000, 0.649094, 0.276513, 0.659079, 0.280766, 0.683342, 0.291102, 0, 0
0, 1620.00000, 0.649094, 0.276513, 0.659079, 0.280766, 0.683342, 0.291102, 0, 0
0, 1680.00000, 0.649094, 0.276513, 0.659079, 0.280766, 0.683342, 0.291102, 0, 0
0, 1740.00000, 0.649094, 0.276513, 0.659079, 0.280766, 0.683342, 0.291102, 0, 0
0, 1800.00000, 0.649094, 0.276513, 0.659079, 0.280766, 0.683342, 0.291102, 0, 0
0, 1860.00000, 0.652797, 0.278087, 0.66278, 0.28235, 0.685462, 0.292027, 0, 0
0, 1920.00000, 0.652791, 0.278088, 0.662789, 0.282347, 0.685417, 0.291987, 0, 0
0, 1980.00000, 0.652791, 0.278088, 0.662789, 0.282347, 0.685417, 0.291986, 0, 0
0, 2040.00000, 0.652791, 0.278088, 0.662789, 0.282347, 0.685417, 0.291986, 0, 0
0, 2100.00000, 0.652791, 0.278088, 0.662789, 0.282347, 0.685417, 0.291986, 0, 0
0, 2160.00000, 0.652791, 0.278088, 0.662789, 0.282347, 0.685417, 0.291986, 0, 0
0, 2220.00000, 0.652791, 0.278088, 0.662789, 0.282347, 0.685417, 0.291986, 0, 0
0, 2280.00000, 0.652791, 0.278088, 0.662789, 0.282347, 0.685417, 0.291986, 0, 0
0, 2340.00000, 0.652791, 0.278088, 0.662789, 0.282347, 0.685417, 0.291986, 0, 0
0, 2400.00000, 0.652791, 0.278088, 0.662789, 0.282347, 0.685417, 0.291986, 0, 0
0, 2460.00000, 0.652791, 0.278088, 0.662789, 0.282347, 0.685417, 0.291986, 0, 0
0, 2520.00000, 0.652791, 0.278088, 0.662789, 0.282347, 0.685417, 0.291986, 0, 0
0, 2580.00000, 0.652791, 0.278088, 0.662789, 0.282347, 0.685417, 0.291986, 0, 0
0, 2640.00000, 0.652791, 0.278088, 0.662789, 0.282347, 0.685417, 0.291986, 0, 0
0, 2700.00000, 0.652791, 0.278088, 0.662789, 0.282347, 0.685417, 0.291986, 0, 0
0, 2760.00000, 0.624179, 0.265902, 0.633619, 0.269919, 0.651939, 0.277729, 0, 0
0, 2820.00000, 0.624183, 0.265901, 0.633621, 0.269921, 0.65193, 0.277721, 0, 0
0, 2880.00000, 0.624183, 0.265901, 0.633621, 0.269921, 0.65193, 0.277721, 0, 0
0, 2940.00000, 0.624183, 0.265901, 0.633621, 0.269921, 0.65193, 0.277721, 0, 0
0, 3000.00000, 0.624183, 0.265901, 0.633621, 0.269921, 0.65193, 0.277721, 0, 0
0, 3060.00000, 0.624183, 0.265901, 0.633621, 0.269921, 0.65193, 0.277721, 0, 0
0, 3120.00000, 0.624183, 0.265901, 0.633621, 0.269921, 0.65193, 0.277721, 0, 0
0, 3180.00000, 0.624183, 0.265901, 0.633621, 0.269921, 0.65193, 0.277721, 0, 0
0, 3240.00000, 0.624183, 0.265901, 0.633621, 0.269921, 0.65193, 0.277721, 0, 0
0, 3300.00000, 0.624183, 0.265901, 0.633621, 0.269921, 0.65193, 0.277721, 0, 0
0, 3360.00000, 0.624183, 0.265901, 0.633621, 0.269921, 0.65193, 0.277721, 0, 0
0, 3420.00000, 0.624183, 0.265901, 0.633621, 0.269921, 0.65193, 0.277721, 0, 0
0, 3480.00000, 0.624183, 0.265901, 0.633621, 0.269921, 0.65193, 0.277721, 0, 0
0, 3540.00000, 0.624183, 0.265901, 0.633621, 0.269921, 0.65193, 0.277721, 0, 0
1, 0.00000, 0.624183, 0.265901, 0.633621, 0.269921, 0.65193, 0.277721, 0, 0
1, 60.00000, 0.618992, 0.263692, 0.628274, 0.267642, 0.644318, 0.274482, 0, 0
1, 120.00000, 0.618995, 0.263691, 0.628274, 0.267644, 0.644309, 0.274475, 0, 0
1, 180.00000, 0.618995, 0.263691, 0.628274, 0.267644, 0.644309, 0.274474, 0, 0
1, 240.00000, 0.618995, 0.263691, 0.628274, 0.267644, 0.644309, 0.274474, 0, 0
1, 300.00000, 0.618995, 0.263691, 0.628274, 0.267644, 0.644309, 0.274474, 0, 0
1, 360.00000, 0.618995, 0.263691, 0.628274, 0.267644, 0.644309, 0.274474, 0, 0
1, 420.00000, 0.618995, 0.263691, 0.628274, 0.267644, 0.644309, 0.274474, 0, 0
1, 480.00000, 0.618995, 0.263691, 0.628274, 0.267644, 0.644309, 0.274474, 0, 0
1, 540.00000, 0.618995, 0.263691, 0.628274, 0.267644, 0.644309, 0.274474, 0, 0
1, 600.00000, 0.618995, 0.263691, 0.628274, 0.267644, 0.644309, 0.274474, 0, 0
1, 660.00000, 0.618995, 0.263691, 0.628274, 0.267644, 0.644309, 0.274474, 0, 0
1, 720.00000, 0.618995, 0.263691, 0.628274, 0.267644, 0.644309, 0.274474, 0, 0
1, 780.00000, 0.618995, 0.263691, 0.628274, 0.267644, 0.644309, 0.274474, 0, 0
1, 840.00000, 0.618995, 0.263691, 0.628274, 0.267644, 0.644309, 0.274474, 0, 0
1, 900.00000, 0.618995, 0.263691, 0.628274, 0.267644, 0.644309, 0.274474, 0, 0
1, 960.00000, 0.616519, 0.262638, 0.62574, 0.266565, 0.641309, 0.273203, 0, 0
1, 1020.00000, 0.616522, 0.262637, 0.625744, 0.266566, 0.641293, 0.27319, 0, 0
1, 1080.00000, 0.616522, 0.262637, 0.625744, 0.266566, 0.641293, 0.27319, 0, 0
1, 1140.00000, 0.616522, 0.262637, 0.625744, 0.266566, 0.641293, 0.27319, 0, 0
1, 1200.00000, 0.616522, 0.262637, 0.625744, 0.266566, 0.641293, 0.27319, 0, 0
1, 1260.00000, 0.616522, 0.262637, 0.625744, 0.266566, 0.641293, 0.27319, 0, 0
1, 1320.00000, 0.616522, 0.262637, 0.625744, 0.266566, 0.641293, 0.27319, 0, 0
1, 1380.00000, 0.616522, 0.262637, 0.625744, 0.266566, 0.641293, 0.27319, 0, 0
1, 1440.00000, 0.616522, 0.262637, 0.625744, 0.266566, 0.641293, 0.27319, 0, 0
1, 1500.00000, 0.616522, 0.262637, 0.625744, 0.266566, 0.641293, 0.27319, 0, 0
1, 1560.00000, 0.616522, 0.262637, 0.625744, 0.266566, 0.641293, 0.27319, 0, 0
1, 1620.00000, 0.616522, 0.262637, 0.625744, 0.266566, 0.641293, 0.27319, 0, 0
1, 1680.00000, 0.616522, 0.262637, 0.625744, 0.266566, 0.641293, 0.27319, 0, 0
1, 1740.00000, 0.616522, 0.262637, 0.625744, 0.266566, 0.641293, 0.27319, 0, 0
1, 1800.00000, 0.616522, 0.262637, 0.625744, 0.266566, 0.641293, 0.27319, 0, 0
1, 1860.00000, 0.629536, 0.26818, 0.639034, 0.272228, 0.656752, 0.279772, 0, 0
1, 1920.00000, 0.629534, 0.26818, 0.639034, 0.272227, 0.656759, 0.279778, 0, 0
1, 1980.00000, 0.629534, 0.26818, 0.639034, 0.272227, 0.65676, 0.279778, 0, 0
1, 2040.00000, 0.629534, 0.26818, 0.639034, 0.272227, 0.65676, 0.279778, 0, 0
1, 2100.00000, 0.629534, 0.26818, 0.639034, 0.272227, 0.65676, 0.279778, 0, 0
1, 2160.00000, 0.629534, 0.26818, 0.639034, 0.272227, 0.65676, 0.279778, 0, 0
1, 2220.00000, 0.629534, 0.26818, 0.639034, 0.272227, 0.65676, 0.279778, 0, 0
1, 2280.00000, 0.629534, 0.26818, 0.639034, 0.272227, 0.65676, 0.279778, 0, 0
1, 2340.00000, 0.629534, 0.26818, 0.639034, 0.272227, 0.65676, 0.279778, 0, 0
1, 2400.00000, 0.629534, 0.26818, 0.639034, 0.272227, 0.65676, 0.279778, 0, 0
1, 2460.00000, 0.629534, 0.26818, 0.639034, 0.272227, 0.65676, 0.279778, 0, 0
1, 2520.00000, 0.629534, 0.26818, 0.639034, 0.272227, 0.65676, 0.279778, 0, 0
1, 2580.00000, 0.629534, 0.26818, 0.639034, 0.272227, 0.65676, 0.279778, 0, 0
1, 2640.00000, 0.629534, 0.26818, 0.639034, 0.272227, 0.65676, 0.279778, 0, 0
1, 2700.00000, 0.629435, 0.268136, 0.637184, 0.271443, 0.656744, 0.279765, 0, 0
1, 2760.00000, 0.597119, 0.254374, 0.604268, 0.257417, 0.618873, 0.263642, 0, 0
1, 2820.00000, 0.597125, 0.254374, 0.60427, 0.257418, 0.618866, 0.263636, 0, 0
1, 2880.00000, 0.597125, 0.254374, 0.60427, 0.257418, 0.618866, 0.263636, 0, 0
1, 2940.00000, 0.597125, 0.254374, 0.60427, 0.257418, 0.618866, 0.263636, 0, 0
1, 3000.00000, 0.597125, 0.254374, 0.60427, 0.257418, 0.618866, 0.263636, 0, 0
1, 3060.00000, 0.597125, 0.254374, 0.60427, 0.257418, 0.618866, 0.263636, 0, 0
1, 3120.00000, 0.597125, 0.254374, 0.60427, 0.257418, 0.618866, 0.263636, 0, 0
1, 3180.00000, 0.597125, 0.254374, 0.60427, 0.257418, 0.618866, 0.263636, 0, 0
1, 3240.00000, 0.597125, 0.254374, 0.60427, 0.257418, 0.618866, 0.263636, 0, 0
1, 3300.00000, 0.597125, 0.254374, 0.60427, 0.257418, 0.618866, 0.263636, 0, 0
1, 3360.00000, 0.597125, 0.254374, 0.60427, 0.257418, 0.618866, 0.263636, 0, 0
1, 3420.00000, 0.597125, 0.254374, 0.60427, 0.257418, 0.618866, 0.263636, 0, 0
1, 3480.00000, 0.597125, 0.254374, 0.60427, 0.257418, 0.618866, 0.263636, 0, 0
1, 3540.00000, 0.597125, 0.254374, 0.60427, 0.257418, 0.618866, 0.263636, 0, 0
2, 0.00000, 0.597125, 0.254374, 0.60427, 0.257418, 0.618866, 0.263636, 0, 0
2, 60.00000, 0.610692, 0.260152, 0.618114, 0.263316, 0.635469, 0.270707, 0, 0
2, 120.00000, 0.610688, 0.260152, 0.618112, 0.263315, 0.635474, 0.270711, 0, 0
2, 180.00000, 0.610688, 0.260152, 0.618112, 0.263315, 0.635474, 0.270711, 0, 0
2, 240.00000, 0.610688, 0.260152, 0.618112, 0.263315, 0.635474, 0.270711, 0, 0
2, 300.00000, 0.610688, 0.260152, 0.618112, 0.263315, 0.635474, 0.270711, 0, 0
2, 360.00000, 0.610688, 0.260152, 0.618112, 0.263315, 0.635474, 0.270711, 0, 0
2, 420.00000, 0.610688, 0.260152, 0.618112, 0.263315, 0.635474, 0.270711, 0, 0
2, 480.00000, 0.610688, 0.260152, 0.618112, 0.263315, 0.635474, 0.270711, 0, 0
2, 540.00000, 0.628024, 0.267534, 0.635484, 0.27072, 0.635467, 0.270709, 0, 0
2, 600.00000, 0.628029, 0.267539, 0.635474, 0.270711, 0.635474, 0.270711, 0, 0
2, 660.00000, 0.628029, 0.267539, 0.635474, 0.270711, 0.635474, 0.270711, 0, 0
2, 720.00000, 0.628029, 0.267539, 0.635474, 0.270711, 0.635474, 0.270711, 0, 0
2, 780.00000, 0.628029, 0.267539, 0.635474, 0.270711, 0.635474, 0.270711, 0, 0
2, 840.00000, 0.628029, 0.267539, 0.635474, 0.270711, 0.635474, 0.270711, 0, 0
2, 900.00000, 0.628029, 0.267539, 0.635474, 0.270711, 0.635474, 0.270711, 0, 0
2, 960.00000, 0.597999, 0.254748, 0.60212, 0.256503, 0.602119, 0.256504, 0, 0
2, 1020.00000, 0.598004, 0.254749, 0.602115, 0.2565, 0.602115, 0.2565, 0, 0
2, 1080.00000, 0.598004, 0.254749, 0.602115, 0.2565, 0.602115, 0.2565, 0, 0
2, 1140.00000, 0.598004, 0.254749, 0.602115, 0.2565, 0.602115, 0.2565, 0, 0
2, 1200.00000, 0.598004, 0.254749, 0.602115, 0.2565, 0.602115, 0.2565, 0, 0
2, 1260.00000, 0.598004, 0.254749, 0.602115, 0.2565, 0.602115, 0.2565, 0, 0
2, 1320.00000, 0.598004, 0.254749, 0.602115, 0.2565, 0.602115, 0.2565, 0, 0
2, 1380.00000, 0.598004, 0.254749, 0.602115, 0.2565, 0.602115, 0.2565, 0, 0
2, 1440.00000, 0.598004, 0.254749, 0.602115, 0.2565, 0.602115, 0.2565, 0, 0
2, 1500.00000, 0.598004, 0.254749, 0.602115, 0.2565, 0.602115, 0.2565, 0, 0
2, 1560.00000, 0.598004, 0.254749, 0.602115, 0.2565, 0.602115, 0.2565, 0, 0
2, 1620.00000, 0.598004, 0.254749, 0.602115, 0.2565, 0.602115, 0.2565, 0, 0
2, 1680.00000, 0.598004, 0.254749, 0.602115, 0.2565, 0.602115, 0.2565, 0, 0
2, 1740.00000, 0.598004, 0.254749, 0.602115, 0.2565, 0.602115, 0.2565, 0, 0
2, 1800.00000, 0.598004, 0.254749, 0.602115, 0.2565, 0.602115, 0.2565, 0, 0
2, 1860.00000, 0.596781, 0.254221, 0.601759, 0.256344, 0.601764, 0.256337, 0, 0
2, 1920.00000, 0.596755, 0.254216, 0.601786, 0.25636, 0.601786, 0.25636, 0, 0
2, 1980.00000, 0.596755, 0.254216, 0.601786, 0.25636, 0.601786, 0.25636, 0, 0
2, 2040.00000, 0.596755, 0.254216, 0.601786, 0.25636, 0.601786, 0.25636, 0, 0
2, 2100.00000, 0.596755, 0.254216, 0.601786, 0.25636, 0.601786, 0.25636, 0, 0
2, 2160.00000, 0.596755, 0.254216, 0.601786, 0.25636, 0.601786, 0.25636, 0, 0
2, 2220.00000, 0.596755, 0.254216, 0.601786, 0.25636, 0.601786, 0.25636, 0, 0
2, 2280.00000, 0.596755, 0.254216, 0.601786, 0.25636, 0.601786, 0.25636, 0, 0
2, 2340.00000, 0.596755, 0.254216, 0.601786, 0.25636, 0.601786, 0.25636, 0, 0
2, 2400.00000, 0.596755, 0.254216, 0.601786, 0.25636, 0.601786, 0.25636, 0, 0
2, 2460.00000, 0.596755, 0.254216, 0.601786, 0.25636, 0.601786, 0.25636, 0, 0
2, 2520.00000, 0.596755, 0.254216, 0.601786, 0.25636, 0.601786, 0.25636, 0, 0
2, 2580.00000, 0.596755, 0.254216, 0.601786, 0.25636, 0.601786, 0.25636, 0, 0
2, 2640.00000, 0.596755, 0.254216, 0.601786, 0.25636, 0.601786, 0.25636, 0, 0
2, 2700.00000, 0.596755, 0.254216, 0.601786, 0.25636, 0.601786, 0.25636, 0, 0
2, 2760.00000, 0.574458, 0.24472, 0.575771, 0.245278, 0.57577, 0.24528, 0, 0
2, 2820.00000, 0.574465, 0.244721, 0.575765, 0.245275, 0.575765, 0.245275, 0, 0
2, 2880.00000, 0.574465, 0.244721, 0.575765, 0.245275, 0.575765, 0.245275, 0, 0
2, 2940.00000, 0.574465, 0.244721, 0.575765, 0.245275, 0.575765, 0.245275, 0, 0
2, 3000.00000, 0.574465, 0.244721, 0.575765, 0.245275, 0.575765, 0.245275, 0, 0
2, 3060.00000, 0.574465, 0.244721, 0.575765, 0.245275, 0.575765, 0.245275, 0, 0
2, 3120.00000, 0.574516, 0.244745, 0.575783, 0.245279, 0.575796, 0.245304, 0, 0
2, 3180.00000, 0.574506, 0.244739, 0.575765, 0.245275, 0.575765, 0.245275, 0, 0
2, 3240.00000, 0.574506, 0.244739, 0.575765, 0.245275, 0.575765, 0.245275, 0, 0
2, 3300.00000, 0.574506, 0.244739, 0.575765, 0.245275, 0.575765, 0.245275, 0, 0
2, 3360.00000, 0.574506, 0.244739, 0.575765, 0.245275, 0.575765, 0.245275, 0, 0
2, 3420.00000, 0.574506, 0.244739, 0.575765, 0.245275, 0.575765, 0.245275, 0, 0
2, 3480.00000, 0.574506, 0.244739, 0.575765, 0.245275, 0.575765, 0.245275, 0, 0
2, 3540.00000, 0.574506, 0.244739, 0.575765, 0.245275, 0.575765, 0.245275, 0, 0
3, 0.00000, 0.574506, 0.244739, 0.575765, 0.245275, 0.575765, 0.245275, 0, 0
3, 60.00000, 0.587455, 0.250254, 0.590399, 0.251509, 0.590398, 0.251505, 0, 0
3, 120.00000, 0.587452, 0.250254, 0.590406, 0.251512, 0.590406, 0.251512, 0, 0
3, 180.00000, 0.587452, 0.250254, 0.590406, 0.251512, 0.590406, 0.251512, 0, 0
3, 240.00000, 0.587452, 0.250254, 0.590406, 0.251512, 0.590406, 0.251512, 0, 0
3, 300.00000, 0.587452, 0.250254, 0.590406, 0.251512, 0.590406, 0.251512, 0, 0
3, 360.00000, 0.587452, 0.250254, 0.590406, 0.251512, 0.590406, 0.251512, 0, 0
3, 420.00000, 0.587452, 0.250254, 0.590406, 0.251512, 0.590406, 0.251512, 0, 0
3, 480.00000, 0.587452, 0.250254, 0.590406, 0.251512, 0.590406, 0.251512, 0, 0
3, 540.00000, 0.587452, 0.250254, 0.590406, 0.251512, 0.590406, 0.251512, 0, 0
3, 600.00000, 0.587452, 0.250254, 0.590406, 0.251512, 0.590406, 0.251512, 0, 0
3, 660.00000, 0.587452, 0.250254, 0.590406, 0.251512, 0.590406, 0.251512, 0, 0
3, 720.00000, 0.587452, 0.250254, 0.590406, 0.251512, 0.590406, 0.251512, 0, 0
3, 780.00000, 0.587452, 0.250254, 0.590406, 0.251512, 0.590406, 0.251512, 0, 0
3, 840.00000, 0.587452, 0.250254, 0.590406, 0.251512, 0.590406, 0.251512, 0, 0
3, 900.00000, 0.587452, 0.250254, 0.590406, 0.251512, 0.590406, 0.251512, 0, 0
3, 960.00000, 0.604005, 0.257309, 0.606643, 0.25843, 0.606646, 0.258439, 0, 0
3, 1020.00000, 0.604011, 0.257308, 0.606628, 0.258422, 0.606628, 0.258423, 0, 0
3, 1080.00000, 0.604011, 0.257308, 0.606628, 0.258422, 0.606628, 0.258422, 0, 0
3, 1140.00000, 0.604011, 0.257308, 0.606628, 0.258422, 0.606628, 0.258422, 0, 0
3, 1200.00000, 0.604011, 0.257308, 0.606628, 0.258422, 0.606628, 0.258422, 0, 0
3, 1260.00000, 0.604011, 0.257308, 0.606628, 0.258422, 0.606628, 0.258422, 0, 0
3, 1320.00000, 0.604011, 0.257308, 0.606628, 0.258422, 0.606628, 0.258422, 0, 0
3, 1380.00000, 0.604011, 0.257308, 0.606628, 0.258422, 0.606628, 0.258422, 0, 0
3, 1440.00000, 0.604011, 0.257308, 0.606628, 0.258422, 0.606628, 0.258422, 0, 0
3, 1500.00000, 0.604011, 0.257308, 0.606628, 0.258422, 0.606628, 0.258422, 0, 0
3, 1560.00000, 0.604011, 0.257308, 0.606628, 0.258422, 0.606628, 0.258422, 0, 0
3, 1620.00000, 0.604011, 0.257308, 0.606628, 0.258422, 0.606628, 0.258422, 0, 0
3, 1680.00000, 0.604011, 0.257308, 0.606628, 0.258422, 0.606628, 0.258422, 0, 0
3, 1740.00000, 0.604011, 0.257308, 0.606628, 0.258422, 0.606628, 0.258422, 0, 0
3, 1800.00000, 0.604011, 0.257308, 0.606628, 0.258422, 0.606628, 0.258422, 0, 0
3, 1860.00000, 0.611528, 0.260513, 0.614055, 0.261589, 0.614056, 0.261593, 0, 0
3, 1920.00000, 0.611536, 0.260513, 0.614046, 0.261582, 0.614046, 0.261582, 0, 0
3, 1980.00000, 0.611536, 0.260513, 0.614045, 0.261582, 0.614045, 0.261582, 0, 0
3, 2040.00000, 0.611536, 0.260513, 0.614045, 0.261582, 0.614045, 0.261582, 0, 0
3, 2100.00000, 0.611536, 0.260513, 0.614045, 0.261582, 0.614045, 0.261582, 0, 0
3, 2160.00000, 0.611536, 0.260513, 0.614045, 0.261582, 0.614045, 0.261582, 0, 0
3, 2220.00000, 0.611536, 0.260513, 0.614045, 0.261582, 0.614045, 0.261582, 0, 0
3, 2280.00000, 0.611536, 0.260513, 0.614045, 0.261582, 0.614045, 0.261582, 0, 0
3, 2340.00000, 0.611536, 0.260513, 0.614045, 0.261582, 0.614045, 0.261582, 0, 0
3, 2400.00000, 0.611536, 0.260513, 0.614045, 0.261582, 0.614045, 0.261582, 0, 0
3, 2460.00000, 0.611536, 0.260513, 0.614045, 0.261582, 0.614045, 0.261582, 0, 0
3, 2520.00000, 0.611536, 0.260513, 0.614045, 0.261582, 0.614045, 0.261582, 0, 0
3, 2580.00000, 0.611536, 0.260513, 0.614045, 0.261582, 0.614045, 0.261582, 0, 0
3, 2640.00000, 0.611536, 0.260513, 0.614045, 0.261582, 0.614045, 0.261582, 0, 0
3, 2700.00000, 0.611536, 0.260513, 0.614045, 0.261582, 0.614045, 0.261582, 0, 0
3, 2760.00000, 0.561903, 0.239373, 0.561909, 0.239373, 0.561911, 0.239379, 0, 0
3, 2820.00000, 0.561898, 0.239367, 0.561898, 0.239367, 0.561898, 0.239367, 0, 0
3, 2880.00000, 0.561898, 0.239367, 0.561898, 0.239367, 0.561898, 0.239367, 0, 0
3, 2940.00000, 0.561898, 0.239367, 0.561898, 0.239367, 0.561898, 0.239367, 0, 0
3, 3000.00000, 0.561898, 0.239367, 0.561898, 0.239367, 0.561898, 0.239367, 0, 0
3, 3060.00000, 0.561898, 0.239367, 0.561898, 0.239367, 0.561898, 0.239367, 0, 0
3, 3120.00000, 0.561918, 0.239389, 0.561889, 0.239363, 0.561914, 0.239373, 0, 0
3, 3180.00000, 0.561898, 0.239368, 0.561897, 0.239367, 0.561898, 0.239367, 0, 0
3, 3240.00000, 0.561898, 0.239367, 0.561898, 0.239367, 0.561898, 0.239367, 0, 0
3, 3300.00000, 0.561898, 0.239367, 0.561898, 0.239367, 0.561898, 0.239367, 0, 0
3, 3360.00000, 0.561898, 0.239367, 0.561898, 0.239367, 0.561898, 0.239367, 0, 0
3, 3420.00000, 0.561898, 0.239367, 0.561898, 0.239367, 0.561898, 0.239367, 0, 0
3, 3480.00000, 0.561898, 0.239367, 0.561898, 0.239367, 0.561898, 0.239367, 0, 0
3, 3540.00000, 0.561898, 0.239367, 0.561898, 0.239367, 0.561898, 0.239367, 0, 0
4, 0.00000, 0.561898, 0.239367, 0.561898, 0.239367, 0.561898, 0.239367, 0, 0
4, 60.00000, 0.601094, 0.256062, 0.601094, 0.256064, 0.60109, 0.25606, 0, 0
4, 120.00000, 0.601101, 0.256068, 0.601101, 0.256068, 0.601101, 0.256068, 0, 0
4, 180.00000, 0.601101, 0.256068, 0.601101, 0.256068, 0.601101, 0.256068, 0, 0
4, 240.00000, 0.601101, 0.256068, 0.601101, 0.256068, 0.601101, 0.256068, 0, 0
4, 300.00000, 0.601101, 0.256068, 0.601101, 0.256068, 0.601101, 0.256068, 0, 0
4, 360.00000, 0.601101, 0.256068, 0.601101, 0.256068, 0.601101, 0.256068, 0, 0
4, 420.00000, 0.601101, 0.256068, 0.601101, 0.256068, 0.601101, 0.256068, 0, 0
4, 480.00000, 0.601101, 0.256068, 0.601101, 0.256068, 0.601101, 0.256068, 0, 0
4, 540.00000, 0.601101, 0.256068, 0.601101, 0.256068, 0.601101, 0.256068, 0, 0
4, 600.00000, 0.601101, 0.256068, 0.601101, 0.256068, 0.601101, 0.256068, 0, 0
4, 660.00000, 0.601101, 0.256068, 0.601101, 0.256068, 0.601101, 0.256068, 0, 0
4, 720.00000, 0.601101, 0.256068, 0.601101, 0.256068, 0.601101, 0.256068, 0, 0
