hour,t(sec),"P1 (kW)","Q1 (kvar)","P2 (kW)","Q2 (kvar)","P3 (kW)","Q3 (kvar)","P4 (kW)","Q4 (kvar)"
0, 60.00000, 0.126996, 0.0541001, 0.126575, 0.0539191, 0.136761, 0.058258, 0, 0
0, 120.00000, 0.126994, 0.0540995, 0.126575, 0.0539192, 0.13676, 0.0582577, 0, 0
0, 180.00000, 0.126993, 0.0540989, 0.126574, 0.0539192, 0.136759, 0.0582576, 0, 0
0, 240.00000, 0.126992, 0.0540984, 0.126574, 0.0539192, 0.136758, 0.0582575, 0, 0
0, 300.00000, 0.126991, 0.0540979, 0.126574, 0.0539192, 0.136758, 0.0582574, 0, 0
0, 360.00000, 0.12699, 0.0540974, 0.126574, 0.0539192, 0.136757, 0.0582573, 0, 0
0, 420.00000, 0.126989, 0.054097, 0.126574, 0.0539192, 0.136757, 0.0582572, 0, 0
0, 480.00000, 0.144079, 0.0613774, 0.143536, 0.0611451, 0.152614, 0.0650122, 0, 0
0, 540.00000, 0.144078, 0.061377, 0.143535, 0.0611451, 0.152614, 0.0650121, 0, 0
0, 600.00000, 0.144078, 0.0613767, 0.143535, 0.0611452, 0.152613, 0.065012, 0, 0
0, 660.00000, 0.144077, 0.0613765, 0.143535, 0.0611452, 0.152613, 0.065012, 0, 0
0, 720.00000, 0.144076, 0.0613762, 0.143535, 0.0611452, 0.152613, 0.0650119, 0, 0
0, 780.00000, 0.144076, 0.061376, 0.143535, 0.0611452, 0.152612, 0.0650119, 0, 0
0, 840.00000, 0.144075, 0.0613758, 0.143535, 0.0611453, 0.152612, 0.0650118, 0, 0
0, 900.00000, 0.144075, 0.0613756, 0.143535, 0.0611453, 0.152612, 0.0650118, 0, 0
0, 960.00000, 0.141628, 0.0603333, 0.143541, 0.0611478, 0.152611, 0.0650117, 0, 0
0, 1020.00000, 0.141627, 0.0603331, 0.143541, 0.0611477, 0.152611, 0.0650118, 0, 0
0, 1080.00000, 0.141627, 0.0603328, 0.143541, 0.0611478, 0.152611, 0.0650117, 0, 0
0, 1140.00000, 0.141626, 0.0603326, 0.143541, 0.0611478, 0.152611, 0.0650117, 0, 0
0, 1200.00000, 0.141626, 0.0603325, 0.143541, 0.0611478, 0.152611, 0.0650117, 0, 0
0, 1260.00000, 0.141626, 0.0603323, 0.143541, 0.0611478, 0.152611, 0.0650117, 0, 0
0, 1320.00000, 0.141625, 0.0603322, 0.14354, 0.0611478, 0.152611, 0.0650117, 0, 0
0, 1380.00000, 0.141625, 0.060332, 0.14354, 0.0611478, 0.152611, 0.0650116, 0, 0
0, 1440.00000, 0.141625, 0.0603319, 0.14354, 0.0611478, 0.152611, 0.0650116, 0, 0
0, 1500.00000, 0.141624, 0.0603318, 0.14354, 0.0611478, 0.15261, 0.0650116, 0, 0
0, 1560.00000, 0.141624, 0.0603317, 0.14354, 0.0611478, 0.15261, 0.0650116, 0, 0
0, 1620.00000, 0.141624, 0.0603316, 0.14354, 0.0611478, 0.15261, 0.0650116, 0, 0
0, 1680.00000, 0.141624, 0.0603315, 0.14354, 0.0611478, 0.15261, 0.0650116, 0, 0
0, 1740.00000, 0.141624, 0.0603315, 0.14354, 0.0611478, 0.15261, 0.0650116, 0, 0
0, 1800.00000, 0.141624, 0.0603314, 0.14354, 0.0611478, 0.15261, 0.0650116, 0, 0
0, 1860.00000, 0.141623, 0.0603313, 0.14354, 0.0611479, 0.15261, 0.0650116, 0, 0
0, 1920.00000, 0.141623, 0.0603313, 0.14354, 0.0611479, 0.15261, 0.0650116, 0, 0
0, 1980.00000, 0.141623, 0.0603312, 0.14354, 0.0611479, 0.15261, 0.0650116, 0, 0
0, 2040.00000, 0.141623, 0.0603312, 0.14354, 0.0611479, 0.15261, 0.0650116, 0, 0
0, 2100.00000, 0.141623, 0.0603312, 0.14354, 0.0611479, 0.15261, 0.0650116, 0, 0
0, 2160.00000, 0.141623, 0.0603311, 0.14354, 0.0611479, 0.15261, 0.0650116, 0, 0
0, 2220.00000, 0.141623, 0.0603311, 0.14354, 0.0611479, 0.15261, 0.0650116, 0, 0
0, 2280.00000, 0.141623, 0.0603311, 0.14354, 0.0611479, 0.15261, 0.0650116, 0, 0
0, 2340.00000, 0.141623, 0.0603311, 0.14354, 0.0611479, 0.15261, 0.0650116, 0, 0
0, 2400.00000, 0.141623, 0.060331, 0.14354, 0.0611479, 0.15261, 0.0650116, 0, 0
0, 2460.00000, 0.141623, 0.060331, 0.14354, 0.0611479, 0.15261, 0.0650115, 0, 0
0, 2520.00000, 0.141623, 0.060331, 0.14354, 0.0611479, 0.15261, 0.0650115, 0, 0
0, 2580.00000, 0.141623, 0.060331, 0.14354, 0.0611479, 0.15261, 0.0650115, 0, 0
0, 2640.00000, 0.141623, 0.060331, 0.14354, 0.0611479, 0.15261, 0.0650115, 0, 0
0, 2700.00000, 0.141623, 0.0603309, 0.14354, 0.0611479, 0.15261, 0.0650115, 0, 0
0, 2760.00000, 0.14167, 0.0603511, 0.144351, 0.0614932, 0.15261, 0.0650116, 0, 0
0, 2820.00000, 0.14167, 0.0603511, 0.144351, 0.0614932, 0.15261, 0.0650115, 0, 0
0, 2880.00000, 0.14167, 0.060351, 0.144351, 0.0614932, 0.15261, 0.0650115, 0, 0
0, 2940.00000, 0.14167, 0.060351, 0.144351, 0.0614932, 0.15261, 0.0650115, 0, 0
0, 3000.00000, 0.14167, 0.060351, 0.144351, 0.0614932, 0.15261, 0.0650115, 0, 0
0, 3060.00000, 0.14167, 0.060351, 0.144351, 0.0614932, 0.15261, 0.0650115, 0, 0
0, 3120.00000, 0.14167, 0.060351, 0.144351, 0.0614932, 0.15261, 0.0650115, 0, 0
0, 3180.00000, 0.14167, 0.060351, 0.144351, 0.0614932, 0.15261, 0.0650115, 0, 0
0, 3240.00000, 0.14167, 0.060351, 0.144351, 0.0614932, 0.15261, 0.0650115, 0, 0
0, 3300.00000, 0.14167, 0.060351, 0.144351, 0.0614932, 0.15261, 0.0650115, 0, 0
0, 3360.00000, 0.14167, 0.060351, 0.144351, 0.0614932, 0.15261, 0.0650115, 0, 0
0, 3420.00000, 0.14167, 0.060351, 0.144351, 0.0614932, 0.15261, 0.0650115, 0, 0
0, 3480.00000, 0.14167, 0.060351, 0.144351, 0.0614932, 0.15261, 0.0650115, 0, 0
0, 3540.00000, 0.14167, 0.060351, 0.144351, 0.0614932, 0.15261, 0.0650115, 0, 0
1, 0.00000, 0.14167, 0.060351, 0.144351, 0.0614932, 0.15261, 0.0650115, 0, 0
1, 60.00000, 0.142089, 0.0605297, 0.145305, 0.0618995, 0.15261, 0.0650115, 0, 0
1, 120.00000, 0.142089, 0.0605297, 0.145305, 0.0618995, 0.15261, 0.0650115, 0, 0
1, 180.00000, 0.142089, 0.0605297, 0.145305, 0.0618996, 0.15261, 0.0650115, 0, 0
1, 240.00000, 0.142089, 0.0605297, 0.145305, 0.0618996, 0.15261, 0.0650115, 0, 0
1, 300.00000, 0.142089, 0.0605297, 0.145305, 0.0618996, 0.15261, 0.0650115, 0, 0
1, 360.00000, 0.142089, 0.0605297, 0.145305, 0.0618996, 0.15261, 0.0650115, 0, 0
1, 420.00000, 0.142089, 0.0605297, 0.145305, 0.0618996, 0.15261, 0.0650115, 0, 0
1, 480.00000, 0.142089, 0.0605297, 0.145305, 0.0618996, 0.15261, 0.0650115, 0, 0
1, 540.00000, 0.142089, 0.0605297, 0.145305, 0.0618996, 0.15261, 0.0650115, 0, 0
1, 600.00000, 0.142089, 0.0605297, 0.145305, 0.0618996, 0.15261, 0.0650115, 0, 0
1, 660.00000, 0.142089, 0.0605297, 0.145305, 0.0618996, 0.15261, 0.0650115, 0, 0
1, 720.00000, 0.142089, 0.0605297, 0.145305, 0.0618996, 0.15261, 0.0650115, 0, 0
1, 780.00000, 0.142089, 0.0605297, 0.145305, 0.0618996, 0.15261, 0.0650115, 0, 0
1, 840.00000, 0.142089, 0.0605297, 0.145305, 0.0618996, 0.15261, 0.0650115, 0, 0
1, 900.00000, 0.142089, 0.0605297, 0.145305, 0.0618996, 0.15261, 0.0650115, 0, 0
1, 960.00000, 0.142089, 0.0605297, 0.145305, 0.0618996, 0.15261, 0.0650115, 0, 0
1, 1020.00000, 0.142089, 0.0605297, 0.145305, 0.0618996, 0.15261, 0.0650115, 0, 0
1, 1080.00000, 0.142089, 0.0605297, 0.145305, 0.0618996, 0.15261, 0.0650115, 0, 0
1, 1140.00000, 0.142089, 0.0605297, 0.145305, 0.0618996, 0.15261, 0.0650115, 0, 0
1, 1200.00000, 0.142089, 0.0605297, 0.145305, 0.0618996, 0.15261, 0.0650115, 0, 0
1, 1260.00000, 0.142089, 0.0605297, 0.145305, 0.0618996, 0.15261, 0.0650115, 0, 0
1, 1320.00000, 0.142089, 0.0605297, 0.145305, 0.0618996, 0.15261, 0.0650115, 0, 0
1, 1380.00000, 0.142089, 0.0605297, 0.145305, 0.0618996, 0.15261, 0.0650115, 0, 0
1, 1440.00000, 0.142089, 0.0605297, 0.145305, 0.0618996, 0.15261, 0.0650115, 0, 0
1, 1500.00000, 0.142089, 0.0605297, 0.145305, 0.0618996, 0.15261, 0.0650115, 0, 0
1, 1560.00000, 0.142089, 0.0605297, 0.145305, 0.0618996, 0.15261, 0.0650115, 0, 0
1, 1620.00000, 0.142089, 0.0605297, 0.145305, 0.0618996, 0.15261, 0.0650115, 0, 0
1, 1680.00000, 0.142089, 0.0605297, 0.145305, 0.0618996, 0.15261, 0.0650115, 0, 0
1, 1740.00000, 0.142089, 0.0605297, 0.145305, 0.0618996, 0.15261, 0.0650115, 0, 0
1, 1800.00000, 0.142089, 0.0605297, 0.145305, 0.0618996, 0.15261, 0.0650115, 0, 0
1, 1860.00000, 0.142089, 0.0605297, 0.145305, 0.0618996, 0.15261, 0.0650115, 0, 0
1, 1920.00000, 0.142089, 0.0605297, 0.145305, 0.0618996, 0.15261, 0.0650115, 0, 0
1, 1980.00000, 0.142089, 0.0605297, 0.145305, 0.0618996, 0.15261, 0.0650115, 0, 0
1, 2040.00000, 0.142089, 0.0605297, 0.145305, 0.0618996, 0.15261, 0.0650115, 0, 0
1, 2100.00000, 0.142089, 0.0605297, 0.145305, 0.0618996, 0.15261, 0.0650115, 0, 0
1, 2160.00000, 0.142089, 0.0605297, 0.145305, 0.0618996, 0.15261, 0.0650115, 0, 0
1, 2220.00000, 0.142089, 0.0605297, 0.145305, 0.0618996, 0.15261, 0.0650115, 0, 0
1, 2280.00000, 0.142089, 0.0605297, 0.145305, 0.0618996, 0.15261, 0.0650115, 0, 0
1, 2340.00000, 0.142089, 0.0605297, 0.145305, 0.0618996, 0.15261, 0.0650115, 0, 0
1, 2400.00000, 0.142089, 0.0605297, 0.145305, 0.0618996, 0.15261, 0.0650115, 0, 0
1, 2460.00000, 0.142089, 0.0605297, 0.145305, 0.0618996, 0.15261, 0.0650115, 0, 0
1, 2520.00000, 0.142089, 0.0605297, 0.145305, 0.0618996, 0.15261, 0.0650115, 0, 0
1, 2580.00000, 0.142089, 0.0605297, 0.145305, 0.0618996, 0.15261, 0.0650115, 0, 0
1, 2640.00000, 0.142089, 0.0605297, 0.145305, 0.0618996, 0.15261, 0.0650115, 0, 0
1, 2700.00000, 0.142089, 0.0605297, 0.145305, 0.0618996, 0.15261, 0.0650115, 0, 0
1, 2760.00000, 0.142089, 0.0605297, 0.145305, 0.0618996, 0.15261, 0.0650115, 0, 0
1, 2820.00000, 0.142089, 0.0605297, 0.145305, 0.0618996, 0.15261, 0.0650115, 0, 0
1, 2880.00000, 0.142089, 0.0605297, 0.145305, 0.0618996, 0.15261, 0.0650115, 0, 0
1, 2940.00000, 0.142089, 0.0605297, 0.145305, 0.0618996, 0.15261, 0.0650115, 0, 0
1, 3000.00000, 0.142089, 0.0605297, 0.145305, 0.0618996, 0.15261, 0.0650115, 0, 0
1, 3060.00000, 0.142089, 0.0605297, 0.145305, 0.0618996, 0.15261, 0.0650115, 0, 0
1, 3120.00000, 0.142089, 0.0605297, 0.145305, 0.0618996, 0.15261, 0.0650115, 0, 0
1, 3180.00000, 0.142089, 0.0605297, 0.145305, 0.0618996, 0.15261, 0.0650115, 0, 0
1, 3240.00000, 0.142089, 0.0605297, 0.145305, 0.0618996, 0.15261, 0.0650115, 0, 0
1, 3300.00000, 0.142089, 0.0605297, 0.145305, 0.0618996, 0.15261, 0.0650115, 0, 0
1, 3360.00000, 0.142089, 0.0605297, 0.145305, 0.0618996, 0.15261, 0.0650115, 0, 0
1, 3420.00000, 0.142089, 0.0605297, 0.145305, 0.0618996, 0.15261, 0.0650115, 0, 0
1, 3480.00000, 0.142089, 0.0605297, 0.145305, 0.0618996, 0.15261, 0.0650115, 0, 0
1, 3540.00000, 0.142089, 0.0605297, 0.145305, 0.0618996, 0.15261, 0.0650115, 0, 0
2, 0.00000, 0.142089, 0.0605297, 0.145305, 0.0618996, 0.15261, 0.0650115, 0, 0
2, 60.00000, 0.142089, 0.0605297, 0.145305, 0.0618996, 0.15261, 0.0650115, 0, 0
2, 120.00000, 0.142089, 0.0605297, 0.145305, 0.0618996, 0.15261, 0.0650115, 0, 0
2, 180.00000, 0.142089, 0.0605297, 0.145305, 0.0618996, 0.15261, 0.0650115, 0, 0
2, 240.00000, 0.142089, 0.0605297, 0.145305, 0.0618996, 0.15261, 0.0650115, 0, 0
2, 300.00000, 0.142089, 0.0605297, 0.145305, 0.0618996, 0.15261, 0.0650115, 0, 0
2, 360.00000, 0.142089, 0.0605297, 0.145305, 0.0618996, 0.15261, 0.0650115, 0, 0
2, 420.00000, 0.142089, 0.0605297, 0.145305, 0.0618996, 0.15261, 0.0650115, 0, 0
2, 480.00000, 0.142089, 0.0605297, 0.145305, 0.0618996, 0.15261, 0.0650115, 0, 0
2, 540.00000, 0.142089, 0.0605297, 0.145305, 0.0618996, 0.15261, 0.0650115, 0, 0
2, 600.00000, 0.142089, 0.0605297, 0.145305, 0.0618996, 0.15261, 0.0650115, 0, 0
2, 660.00000, 0.142089, 0.0605297, 0.145305, 0.0618996, 0.15261, 0.0650115, 0, 0
2, 720.00000, 0.142089, 0.0605297, 0.145305, 0.0618996, 0.15261, 0.0650115, 0, 0
2, 780.00000, 0.142089, 0.0605297, 0.145305, 0.0618996, 0.15261, 0.0650115, 0, 0
2, 840.00000, 0.144548, 0.0615771, 0.145296, 0.0618956, 0.15261, 0.0650116, 0, 0
2, 900.00000, 0.144548, 0.0615771, 0.145295, 0.0618956, 0.15261, 0.0650115, 0, 0
2, 960.00000, 0.144548, 0.0615771, 0.145295, 0.0618956, 0.15261, 0.0650115, 0, 0
2, 1020.00000, 0.144548, 0.0615771, 0.145295, 0.0618956, 0.15261, 0.0650115, 0, 0
2, 1080.00000, 0.144548, 0.0615771, 0.145295, 0.0618956, 0.15261, 0.0650115, 0, 0
2, 1140.00000, 0.144548, 0.0615771, 0.145295, 0.0618956, 0.15261, 0.0650115, 0, 0
2, 1200.00000, 0.144548, 0.0615771, 0.145295, 0.0618956, 0.15261, 0.0650115, 0, 0
2, 1260.00000, 0.144548, 0.0615771, 0.145295, 0.0618956, 0.15261, 0.0650115, 0, 0
2, 1320.00000, 0.144548, 0.0615771, 0.145295, 0.0618956, 0.15261, 0.0650115, 0, 0
2, 1380.00000, 0.144548, 0.0615771, 0.145295, 0.0618956, 0.15261, 0.0650115, 0, 0
2, 1440.00000, 0.144548, 0.0615771, 0.145295, 0.0618956, 0.15261, 0.0650115, 0, 0
2, 1500.00000, 0.144548, 0.0615771, 0.145295, 0.0618956, 0.15261, 0.0650115, 0, 0
2, 1560.00000, 0.144548, 0.0615771, 0.145295, 0.0618956, 0.15261, 0.0650115, 0, 0
2, 1620.00000, 0.144548, 0.0615771, 0.145295, 0.0618956, 0.15261, 0.0650115, 0, 0
2, 1680.00000, 0.144548, 0.0615771, 0.145295, 0.0618956, 0.15261, 0.0650115, 0, 0
2, 1740.00000, 0.144548, 0.0615771, 0.145295, 0.0618956, 0.15261, 0.0650115, 0, 0
2, 1800.00000, 0.144548, 0.0615771, 0.145295, 0.0618956, 0.15261, 0.0650115, 0, 0
2, 1860.00000, 0.144548, 0.0615771, 0.145295, 0.0618956, 0.15261, 0.0650115, 0, 0
2, 1920.00000, 0.144548, 0.0615771, 0.145295, 0.0618956, 0.15261, 0.0650115, 0, 0
2, 1980.00000, 0.144548, 0.0615771, 0.145295, 0.0618956, 0.15261, 0.0650115, 0, 0
2, 2040.00000, 0.144548, 0.0615771, 0.145295, 0.0618956, 0.15261, 0.0650115, 0, 0
2, 2100.00000, 0.144548, 0.0615771, 0.145295, 0.0618956, 0.15261, 0.0650115, 0, 0
2, 2160.00000, 0.144548, 0.0615771, 0.145295, 0.0618956, 0.15261, 0.0650115, 0, 0
2, 2220.00000, 0.144548, 0.0615771, 0.145295, 0.0618956, 0.15261, 0.0650115, 0, 0
2, 2280.00000, 0.144548, 0.0615771, 0.145295, 0.0618956, 0.15261, 0.0650115, 0, 0
2, 2340.00000, 0.144548, 0.0615771, 0.145295, 0.0618956, 0.15261, 0.0650115, 0, 0
2, 2400.00000, 0.144547, 0.0615768, 0.145846, 0.0621301, 0.15261, 0.0650116, 0, 0
2, 2460.00000, 0.144547, 0.0615768, 0.145846, 0.0621301, 0.15261, 0.0650115, 0, 0
2, 2520.00000, 0.144547, 0.0615768, 0.145846, 0.0621301, 0.15261, 0.0650115, 0, 0
2, 2580.00000, 0.144547, 0.0615768, 0.145846, 0.0621301, 0.15261, 0.0650115, 0, 0
2, 2640.00000, 0.144547, 0.0615768, 0.145846, 0.0621301, 0.15261, 0.0650115, 0, 0
2, 2700.00000, 0.142875, 0.0608646, 0.145881, 0.062145, 0.15261, 0.0650115, 0, 0
2, 2760.00000, 0.142875, 0.0608646, 0.145881, 0.062145, 0.15261, 0.0650115, 0, 0
2, 2820.00000, 0.142875, 0.0608646, 0.145881, 0.062145, 0.15261, 0.0650115, 0, 0
2, 2880.00000, 0.142875, 0.0608646, 0.145881, 0.062145, 0.15261, 0.0650115, 0, 0
2, 2940.00000, 0.142875, 0.0608646, 0.145881, 0.062145, 0.15261, 0.0650115, 0, 0
2, 3000.00000, 0.142875, 0.0608646, 0.145881, 0.062145, 0.15261, 0.0650115, 0, 0
2, 3060.00000, 0.144067, 0.0613723, 0.145863, 0.0621375, 0.15261, 0.0650117, 0, 0
2, 3120.00000, 0.144067, 0.0613722, 0.145863, 0.0621375, 0.15261, 0.0650115, 0, 0
2, 3180.00000, 0.144067, 0.0613722, 0.145863, 0.0621375, 0.15261, 0.0650115, 0, 0
2, 3240.00000, 0.144067, 0.0613722, 0.145863, 0.0621375, 0.15261, 0.0650115, 0, 0
2, 3300.00000, 0.144067, 0.0613722, 0.145863, 0.0621375, 0.15261, 0.0650115, 0, 0
2, 3360.00000, 0.144067, 0.0613722, 0.145863, 0.0621375, 0.15261, 0.0650115, 0, 0
2, 3420.00000, 0.144067, 0.0613722, 0.145863, 0.0621375, 0.15261, 0.0650115, 0, 0
2, 3480.00000, 0.144067, 0.0613722, 0.145863, 0.0621375, 0.15261, 0.0650115, 0, 0
2, 3540.00000, 0.144067, 0.0613722, 0.145863, 0.0621375, 0.15261, 0.0650115, 0, 0
3, 0.00000, 0.144067, 0.0613722, 0.145863, 0.0621375, 0.15261, 0.0650115, 0, 0
3, 60.00000, 0.144067, 0.0613722, 0.145863, 0.0621375, 0.15261, 0.0650115, 0, 0
3, 120.00000, 0.144067, 0.0613722, 0.145863, 0.0621375, 0.15261, 0.0650115, 0, 0
3, 180.00000, 0.144067, 0.0613722, 0.145863, 0.0621375, 0.15261, 0.0650115, 0, 0
3, 240.00000, 0.144067, 0.0613722, 0.145863, 0.0621375, 0.15261, 0.0650115, 0, 0
3, 300.00000, 0.144067, 0.0613722, 0.145863, 0.0621375, 0.15261, 0.0650115, 0, 0
3, 360.00000, 0.144067, 0.0613722, 0.145863, 0.0621375, 0.15261, 0.0650115, 0, 0
3, 420.00000, 0.144067, 0.0613722, 0.145863, 0.0621375, 0.15261, 0.0650115, 0, 0
3, 480.00000, 0.144067, 0.0613722, 0.145863, 0.0621375, 0.15261, 0.0650115, 0, 0
3, 540.00000, 0.144067, 0.0613722, 0.145863, 0.0621375, 0.15261, 0.0650115, 0, 0
3, 600.00000, 0.144067, 0.0613722, 0.145863, 0.0621375, 0.15261, 0.0650115, 0, 0
3, 660.00000, 0.144067, 0.0613722, 0.145863, 0.0621375, 0.15261, 0.0650115, 0, 0
3, 720.00000, 0.144067, 0.0613722, 0.145863, 0.0621375, 0.15261, 0.0650115, 0, 0
3, 780.00000, 0.144067, 0.0613722, 0.145863, 0.0621375, 0.15261, 0.0650115, 0, 0
3, 840.00000, 0.144067, 0.0613722, 0.145863, 0.0621375, 0.15261, 0.0650115, 0, 0
3, 900.00000, 0.144067, 0.0613722, 0.145863, 0.0621375, 0.15261, 0.0650115, 0, 0
3, 960.00000, 0.144067, 0.0613722, 0.145863, 0.0621375, 0.15261, 0.0650115, 0, 0
3, 1020.00000, 0.144067, 0.0613722, 0.145863, 0.0621375, 0.15261, 0.0650115, 0, 0
3, 1080.00000, 0.144067, 0.0613722, 0.145863, 0.0621375, 0.15261, 0.0650115, 0, 0
3, 1140.00000, 0.144067, 0.0613722, 0.145863, 0.0621375, 0.15261, 0.0650115, 0, 0
3, 1200.00000, 0.144067, 0.0613722, 0.145863, 0.0621375, 0.15261, 0.0650115, 0, 0
3, 1260.00000, 0.144067, 0.0613722, 0.145863, 0.0621375, 0.15261, 0.0650115, 0, 0
3, 1320.00000, 0.144067, 0.0613722, 0.145863, 0.0621375, 0.15261, 0.0650115, 0, 0
3, 1380.00000, 0.144067, 0.0613722, 0.145863, 0.0621375, 0.15261, 0.0650115, 0, 0
3, 1440.00000, 0.144067, 0.0613722, 0.145863, 0.0621375, 0.15261, 0.0650115, 0, 0
3, 1500.00000, 0.144067, 0.0613722, 0.145863, 0.0621375, 0.15261, 0.0650115, 0, 0
3, 1560.00000, 0.144067, 0.0613722, 0.145863, 0.0621375, 0.15261, 0.0650115, 0, 0
3, 1620.00000, 0.144067, 0.0613722, 0.145863, 0.0621375, 0.15261, 0.0650115, 0, 0
3, 1680.00000, 0.144067, 0.0613722, 0.145863, 0.0621375, 0.15261, 0.0650115, 0, 0
3, 1740.00000, 0.144067, 0.0613722, 0.145863, 0.0621375, 0.15261, 0.0650115, 0, 0
3, 1800.00000, 0.144067, 0.0613722, 0.145863, 0.0621375, 0.15261, 0.0650115, 0, 0
3, 1860.00000, 0.144067, 0.0613722, 0.145863, 0.0621375, 0.15261, 0.0650115, 0, 0
3, 1920.00000, 0.144067, 0.0613722, 0.145863, 0.0621375, 0.15261, 0.0650115, 0, 0
3, 1980.00000, 0.144067, 0.0613722, 0.145863, 0.0621375, 0.15261, 0.0650115, 0, 0
3, 2040.00000, 0.144067, 0.0613722, 0.145863, 0.0621375, 0.15261, 0.0650115, 0, 0
3, 2100.00000, 0.144067, 0.0613722, 0.145863, 0.0621375, 0.15261, 0.0650115, 0, 0
3, 2160.00000, 0.144067, 0.0613722, 0.145863, 0.0621375, 0.15261, 0.0650115, 0, 0
3, 2220.00000, 0.144067, 0.0613722, 0.145863, 0.0621375, 0.15261, 0.0650115, 0, 0
3, 2280.00000, 0.144067, 0.0613722, 0.145863, 0.0621375, 0.15261, 0.0650115, 0, 0
3, 2340.00000, 0.144067, 0.0613722, 0.145863, 0.0621375, 0.15261, 0.0650115, 0, 0
3, 2400.00000, 0.144067, 0.0613722, 0.145863, 0.0621375, 0.15261, 0.0650115, 0, 0
3, 2460.00000, 0.144067, 0.0613722, 0.145863, 0.0621375, 0.15261, 0.0650115, 0, 0
3, 2520.00000, 0.144067, 0.0613722, 0.145863, 0.0621375, 0.15261, 0.0650115, 0, 0
3, 2580.00000, 0.144067, 0.0613722, 0.145863, 0.0621375, 0.15261, 0.0650115, 0, 0
3, 2640.00000, 0.144067, 0.0613722, 0.145863, 0.0621375, 0.15261, 0.0650115, 0, 0
3, 2700.00000, 0.144067, 0.0613722, 0.145863, 0.0621375, 0.15261, 0.0650115, 0, 0
3, 2760.00000, 0.144067, 0.0613722, 0.145863, 0.0621375, 0.15261, 0.0650115, 0, 0
3, 2820.00000, 0.144067, 0.0613722, 0.145863, 0.0621375, 0.15261, 0.0650115, 0, 0
3, 2880.00000, 0.144067, 0.0613722, 0.145863, 0.0621375, 0.15261, 0.0650115, 0, 0
3, 2940.00000, 0.144067, 0.0613722, 0.145863, 0.0621375, 0.15261, 0.0650115, 0, 0
3, 3000.00000, 0.144067, 0.0613722, 0.145863, 0.0621375, 0.15261, 0.0650115, 0, 0
3, 3060.00000, 0.144067, 0.0613722, 0.145863, 0.0621375, 0.15261, 0.0650115, 0, 0
3, 3120.00000, 0.144067, 0.0613722, 0.145863, 0.0621375, 0.15261, 0.0650115, 0, 0
3, 3180.00000, 0.151359, 0.0644788, 0.153267, 0.0652914, 0.160966, 0.0685714, 0, 0
3, 3240.00000, 0.15136, 0.0644789, 0.153267, 0.0652913, 0.160967, 0.0685715, 0, 0
3, 3300.00000, 0.15136, 0.0644789, 0.153267, 0.0652913, 0.160967, 0.0685715, 0, 0
3, 3360.00000, 0.15136, 0.0644789, 0.153267, 0.0652913, 0.160967, 0.0685715, 0, 0
3, 3420.00000, 0.15136, 0.0644789, 0.153267, 0.0652913, 0.160967, 0.0685715, 0, 0
3, 3480.00000, 0.15136, 0.0644789, 0.153267, 0.0652913, 0.160967, 0.0685715, 0, 0
3, 3540.00000, 0.15136, 0.0644789, 0.153267, 0.0652913, 0.160967, 0.0685715, 0, 0
4, 0.00000, 0.15136, 0.0644789, 0.153267, 0.0652913, 0.160967, 0.0685715, 0, 0
4, 60.00000, 0.15136, 0.0644789, 0.153267, 0.0652913, 0.160967, 0.0685715, 0, 0
4, 120.00000, 0.15136, 0.0644789, 0.153267, 0.0652913, 0.160967, 0.0685715, 0, 0
4, 180.00000, 0.15136, 0.0644789, 0.153267, 0.0652913, 0.160967, 0.0685715, 0, 0
4, 240.00000, 0.15136, 0.0644789, 0.153267, 0.0652913, 0.160967, 0.0685715, 0, 0
