hour,t(sec),"P1 (kW)","Q1 (kvar)","P2 (kW)","Q2 (kvar)","P3 (kW)","Q3 (kvar)","P4 (kW)","Q4 (kvar)"
0, 60.00000, 0.909004, 0.387219, 0.90905, 0.387227, 0.908959, 0.387219, 0, 0
0, 120.00000, 0.909004, 0.387221, 0.909045, 0.387227, 0.908964, 0.38722, 0, 0
0, 180.00000, 0.909004, 0.387222, 0.909041, 0.387227, 0.908967, 0.387221, 0, 0
0, 240.00000, 0.909003, 0.387223, 0.909037, 0.387227, 0.908971, 0.387223, 0, 0
0, 300.00000, 0.909003, 0.387224, 0.909033, 0.387228, 0.908974, 0.387224, 0, 0
0, 360.00000, 0.909003, 0.387225, 0.90903, 0.387228, 0.908977, 0.387224, 0, 0
0, 420.00000, 0.909003, 0.387226, 0.909028, 0.387229, 0.908979, 0.387225, 0, 0
0, 480.00000, 0.909003, 0.387227, 0.909025, 0.387229, 0.908981, 0.387226, 0, 0
0, 540.00000, 0.909003, 0.387227, 0.909023, 0.387229, 0.908983, 0.387227, 0, 0
0, 600.00000, 0.909003, 0.387228, 0.909021, 0.38723, 0.908985, 0.387227, 0, 0
0, 660.00000, 0.909003, 0.387229, 0.909019, 0.38723, 0.908987, 0.387228, 0, 0
0, 720.00000, 0.909003, 0.387229, 0.909017, 0.38723, 0.908988, 0.387228, 0, 0
0, 780.00000, 0.909003, 0.387229, 0.909016, 0.387231, 0.90899, 0.387229, 0, 0
0, 840.00000, 0.909003, 0.38723, 0.909015, 0.387231, 0.908991, 0.387229, 0, 0
0, 900.00000, 0.909003, 0.38723, 0.909013, 0.387231, 0.908992, 0.38723, 0, 0
0, 960.00000, 0.881205, 0.375389, 0.881214, 0.375389, 0.881196, 0.375389, 0, 0
0, 1020.00000, 0.881205, 0.375389, 0.881214, 0.37539, 0.881197, 0.375389, 0, 0
0, 1080.00000, 0.881205, 0.375389, 0.881213, 0.37539, 0.881198, 0.375389, 0, 0
0, 1140.00000, 0.881205, 0.37539, 0.881212, 0.37539, 0.881198, 0.375389, 0, 0
0, 1200.00000, 0.881205, 0.37539, 0.881211, 0.37539, 0.881199, 0.37539, 0, 0
0, 1260.00000, 0.881205, 0.37539, 0.881211, 0.375391, 0.8812, 0.37539, 0, 0
0, 1320.00000, 0.881205, 0.37539, 0.88121, 0.375391, 0.8812, 0.37539, 0, 0
0, 1380.00000, 0.881205, 0.37539, 0.88121, 0.375391, 0.881201, 0.37539, 0, 0
0, 1440.00000, 0.881205, 0.375391, 0.881209, 0.375391, 0.881201, 0.37539, 0, 0
0, 1500.00000, 0.881205, 0.375391, 0.881209, 0.375391, 0.881202, 0.375391, 0, 0
0, 1560.00000, 0.881205, 0.375391, 0.881208, 0.375391, 0.881202, 0.375391, 0, 0
0, 1620.00000, 0.881205, 0.375391, 0.881208, 0.375391, 0.881202, 0.375391, 0, 0
0, 1680.00000, 0.881205, 0.375391, 0.881208, 0.375391, 0.881203, 0.375391, 0, 0
0, 1740.00000, 0.881205, 0.375391, 0.881208, 0.375391, 0.881203, 0.375391, 0, 0
0, 1800.00000, 0.881205, 0.375391, 0.881207, 0.375391, 0.881203, 0.375391, 0, 0
0, 1860.00000, 0.854179, 0.363878, 0.854182, 0.363879, 0.854177, 0.363878, 0, 0
0, 1920.00000, 0.854179, 0.363878, 0.854181, 0.363878, 0.854178, 0.363878, 0, 0
0, 1980.00000, 0.854179, 0.363878, 0.854181, 0.363878, 0.854178, 0.363878, 0, 0
0, 2040.00000, 0.854179, 0.363878, 0.854181, 0.363878, 0.854178, 0.363878, 0, 0
0, 2100.00000, 0.854179, 0.363878, 0.85418, 0.363879, 0.854178, 0.363878, 0, 0
0, 2160.00000, 0.854179, 0.363878, 0.85418, 0.363879, 0.854178, 0.363878, 0, 0
0, 2220.00000, 0.854179, 0.363879, 0.85418, 0.363879, 0.854178, 0.363878, 0, 0
0, 2280.00000, 0.854179, 0.363879, 0.85418, 0.363879, 0.854178, 0.363878, 0, 0
0, 2340.00000, 0.854179, 0.363879, 0.85418, 0.363879, 0.854178, 0.363879, 0, 0
0, 2400.00000, 0.854179, 0.363879, 0.85418, 0.363879, 0.854178, 0.363879, 0, 0
0, 2460.00000, 0.854179, 0.363879, 0.85418, 0.363879, 0.854179, 0.363879, 0, 0
0, 2520.00000, 0.854179, 0.363879, 0.85418, 0.363879, 0.854179, 0.363879, 0, 0
0, 2580.00000, 0.854179, 0.363879, 0.85418, 0.363879, 0.854179, 0.363879, 0, 0
0, 2640.00000, 0.854179, 0.363879, 0.85418, 0.363879, 0.854179, 0.363879, 0, 0
0, 2700.00000, 0.854179, 0.363879, 0.85418, 0.363879, 0.854179, 0.363879, 0, 0
0, 2760.00000, 0.853363, 0.363531, 0.853364, 0.363531, 0.853362, 0.363531, 0, 0
0, 2820.00000, 0.853363, 0.363531, 0.853363, 0.363531, 0.853362, 0.363531, 0, 0
0, 2880.00000, 0.853363, 0.363531, 0.853363, 0.363531, 0.853362, 0.363531, 0, 0
0, 2940.00000, 0.853363, 0.363531, 0.853363, 0.363531, 0.853362, 0.363531, 0, 0
0, 3000.00000, 0.853363, 0.363531, 0.853363, 0.363531, 0.853362, 0.363531, 0, 0
0, 3060.00000, 0.853363, 0.363531, 0.853363, 0.363531, 0.853362, 0.363531, 0, 0
0, 3120.00000, 0.853363, 0.363531, 0.853363, 0.363531, 0.853363, 0.363531, 0, 0
0, 3180.00000, 0.853363, 0.363531, 0.853363, 0.363531, 0.853363, 0.363531, 0, 0
0, 3240.00000, 0.853363, 0.363531, 0.853363, 0.363531, 0.853363, 0.363531, 0, 0
0, 3300.00000, 0.853363, 0.363531, 0.853363, 0.363531, 0.853363, 0.363531, 0, 0
0, 3360.00000, 0.853363, 0.363531, 0.853363, 0.363531, 0.853363, 0.363531, 0, 0
0, 3420.00000, 0.853363, 0.363531, 0.853363, 0.363531, 0.853363, 0.363531, 0, 0
0, 3480.00000, 0.853363, 0.363531, 0.853363, 0.363531, 0.853363, 0.363531, 0, 0
0, 3540.00000, 0.853363, 0.363531, 0.853363, 0.363531, 0.853363, 0.363531, 0, 0
1, 0.00000, 0.853363, 0.363531, 0.853363, 0.363531, 0.853363, 0.363531, 0, 0
1, 60.00000, 0.839525, 0.357636, 0.839526, 0.357637, 0.839525, 0.357636, 0, 0
1, 120.00000, 0.839525, 0.357636, 0.839525, 0.357636, 0.839525, 0.357636, 0, 0
1, 180.00000, 0.839525, 0.357636, 0.839525, 0.357636, 0.839525, 0.357636, 0, 0
1, 240.00000, 0.839525, 0.357636, 0.839525, 0.357636, 0.839525, 0.357636, 0, 0
1, 300.00000, 0.839525, 0.357636, 0.839525, 0.357636, 0.839525, 0.357636, 0, 0
1, 360.00000, 0.839525, 0.357636, 0.839525, 0.357636, 0.839525, 0.357636, 0, 0
1, 420.00000, 0.839525, 0.357636, 0.839525, 0.357636, 0.839525, 0.357636, 0, 0
1, 480.00000, 0.839525, 0.357636, 0.839525, 0.357636, 0.839525, 0.357636, 0, 0
1, 540.00000, 0.839525, 0.357636, 0.839525, 0.357636, 0.839525, 0.357636, 0, 0
1, 600.00000, 0.839525, 0.357636, 0.839525, 0.357636, 0.839525, 0.357636, 0, 0
1, 660.00000, 0.839525, 0.357636, 0.839525, 0.357636, 0.839525, 0.357636, 0, 0
1, 720.00000, 0.839525, 0.357636, 0.839525, 0.357636, 0.839525, 0.357636, 0, 0
1, 780.00000, 0.839525, 0.357636, 0.839525, 0.357636, 0.839525, 0.357636, 0, 0
1, 840.00000, 0.839525, 0.357636, 0.839525, 0.357636, 0.839525, 0.357636, 0, 0
1, 900.00000, 0.839525, 0.357636, 0.839525, 0.357636, 0.839525, 0.357636, 0, 0
1, 960.00000, 0.826196, 0.351958, 0.826196, 0.351958, 0.826195, 0.351958, 0, 0
1, 1020.00000, 0.826196, 0.351958, 0.826196, 0.351958, 0.826195, 0.351958, 0, 0
1, 1080.00000, 0.826196, 0.351958, 0.826196, 0.351958, 0.826196, 0.351958, 0, 0
1, 1140.00000, 0.826196, 0.351958, 0.826196, 0.351958, 0.826196, 0.351958, 0, 0
1, 1200.00000, 0.826196, 0.351958, 0.826196, 0.351958, 0.826196, 0.351958, 0, 0
1, 1260.00000, 0.826196, 0.351958, 0.826196, 0.351958, 0.826196, 0.351958, 0, 0
1, 1320.00000, 0.826196, 0.351958, 0.826196, 0.351958, 0.826196, 0.351958, 0, 0
1, 1380.00000, 0.826196, 0.351958, 0.826196, 0.351958, 0.826196, 0.351958, 0, 0
1, 1440.00000, 0.826196, 0.351958, 0.826196, 0.351958, 0.826196, 0.351958, 0, 0
1, 1500.00000, 0.826196, 0.351958, 0.826196, 0.351958, 0.826196, 0.351958, 0, 0
1, 1560.00000, 0.826196, 0.351958, 0.826196, 0.351958, 0.826196, 0.351958, 0, 0
1, 1620.00000, 0.826196, 0.351958, 0.826196, 0.351958, 0.826196, 0.351958, 0, 0
1, 1680.00000, 0.826196, 0.351958, 0.826196, 0.351958, 0.826196, 0.351958, 0, 0
1, 1740.00000, 0.826196, 0.351958, 0.826196, 0.351958, 0.826196, 0.351958, 0, 0
1, 1800.00000, 0.826196, 0.351958, 0.826196, 0.351958, 0.826196, 0.351958, 0, 0
1, 1860.00000, 0.804621, 0.342767, 0.80462, 0.342767, 0.804621, 0.342767, 0, 0
1, 1920.00000, 0.804621, 0.342767, 0.804621, 0.342767, 0.804621, 0.342767, 0, 0
1, 1980.00000, 0.804621, 0.342767, 0.804621, 0.342767, 0.804621, 0.342767, 0, 0
1, 2040.00000, 0.804621, 0.342767, 0.804621, 0.342767, 0.804621, 0.342767, 0, 0
1, 2100.00000, 0.804621, 0.342767, 0.804621, 0.342767, 0.804621, 0.342767, 0, 0
1, 2160.00000, 0.804621, 0.342767, 0.804621, 0.342767, 0.804621, 0.342767, 0, 0
1, 2220.00000, 0.804621, 0.342767, 0.804621, 0.342767, 0.804621, 0.342767, 0, 0
1, 2280.00000, 0.804621, 0.342767, 0.804621, 0.342767, 0.804621, 0.342767, 0, 0
1, 2340.00000, 0.804621, 0.342767, 0.804621, 0.342767, 0.804621, 0.342767, 0, 0
1, 2400.00000, 0.804621, 0.342767, 0.804621, 0.342767, 0.804621, 0.342767, 0, 0
1, 2460.00000, 0.804621, 0.342767, 0.804621, 0.342767, 0.804621, 0.342767, 0, 0
1, 2520.00000, 0.804621, 0.342767, 0.804621, 0.342767, 0.804621, 0.342767, 0, 0
1, 2580.00000, 0.804621, 0.342767, 0.804621, 0.342767, 0.804621, 0.342767, 0, 0
1, 2640.00000, 0.804621, 0.342767, 0.804621, 0.342767, 0.804621, 0.342767, 0, 0
1, 2700.00000, 0.804621, 0.342767, 0.804621, 0.342767, 0.804621, 0.342767, 0, 0
1, 2760.00000, 0.812965, 0.346322, 0.812965, 0.346322, 0.812965, 0.346322, 0, 0
1, 2820.00000, 0.812965, 0.346322, 0.812965, 0.346322, 0.812965, 0.346322, 0, 0
1, 2880.00000, 0.812965, 0.346322, 0.812965, 0.346322, 0.812965, 0.346322, 0, 0
1, 2940.00000, 0.812965, 0.346322, 0.812965, 0.346322, 0.812965, 0.346322, 0, 0
1, 3000.00000, 0.812965, 0.346322, 0.812965, 0.346322, 0.812965, 0.346322, 0, 0
1, 3060.00000, 0.812965, 0.346322, 0.812965, 0.346322, 0.812965, 0.346322, 0, 0
1, 3120.00000, 0.812965, 0.346322, 0.812965, 0.346322, 0.812965, 0.346322, 0, 0
1, 3180.00000, 0.812965, 0.346322, 0.812965, 0.346322, 0.812965, 0.346322, 0, 0
1, 3240.00000, 0.812965, 0.346322, 0.812965, 0.346322, 0.812965, 0.346322, 0, 0
1, 3300.00000, 0.812965, 0.346322, 0.812965, 0.346322, 0.812965, 0.346322, 0, 0
1, 3360.00000, 0.812965, 0.346322, 0.812965, 0.346322, 0.812965, 0.346322, 0, 0
1, 3420.00000, 0.812965, 0.346322, 0.812965, 0.346322, 0.812965, 0.346322, 0, 0
1, 3480.00000, 0.812965, 0.346322, 0.812965, 0.346322, 0.812965, 0.346322, 0, 0
1, 3540.00000, 0.812965, 0.346322, 0.812965, 0.346322, 0.812965, 0.346322, 0, 0
2, 0.00000, 0.812965, 0.346322, 0.812965, 0.346322, 0.812965, 0.346322, 0, 0
2, 60.00000, 0.829669, 0.353438, 0.829668, 0.353437, 0.829669, 0.353438, 0, 0
2, 120.00000, 0.829669, 0.353437, 0.829669, 0.353437, 0.829669, 0.353437, 0, 0
2, 180.00000, 0.829669, 0.353437, 0.829669, 0.353437, 0.829669, 0.353437, 0, 0
2, 240.00000, 0.829669, 0.353437, 0.829669, 0.353437, 0.829669, 0.353437, 0, 0
2, 300.00000, 0.829669, 0.353437, 0.829669, 0.353437, 0.829669, 0.353437, 0, 0
2, 360.00000, 0.829669, 0.353437, 0.829669, 0.353437, 0.829669, 0.353437, 0, 0
2, 420.00000, 0.829669, 0.353437, 0.829669, 0.353437, 0.829669, 0.353437, 0, 0
2, 480.00000, 0.829669, 0.353437, 0.829669, 0.353437, 0.829669, 0.353437, 0, 0
2, 540.00000, 0.829669, 0.353437, 0.829669, 0.353437, 0.829669, 0.353437, 0, 0
2, 600.00000, 0.829669, 0.353437, 0.829669, 0.353437, 0.829669, 0.353437, 0, 0
2, 660.00000, 0.829669, 0.353437, 0.829669, 0.353437, 0.829669, 0.353437, 0, 0
2, 720.00000, 0.829669, 0.353437, 0.829669, 0.353437, 0.829669, 0.353437, 0, 0
2, 780.00000, 0.829669, 0.353437, 0.829669, 0.353437, 0.829669, 0.353437, 0, 0
2, 840.00000, 0.829669, 0.353437, 0.829669, 0.353437, 0.829669, 0.353437, 0, 0
2, 900.00000, 0.829669, 0.353437, 0.829669, 0.353437, 0.829669, 0.353437, 0, 0
2, 960.00000, 0.852203, 0.363037, 0.852203, 0.363037, 0.852202, 0.363037, 0, 0
2, 1020.00000, 0.852203, 0.363037, 0.852203, 0.363037, 0.852203, 0.363037, 0, 0
2, 1080.00000, 0.852203, 0.363037, 0.852203, 0.363037, 0.852203, 0.363037, 0, 0
2, 1140.00000, 0.852203, 0.363037, 0.852203, 0.363037, 0.852203, 0.363037, 0, 0
2, 1200.00000, 0.852203, 0.363037, 0.852203, 0.363037, 0.852203, 0.363037, 0, 0
2, 1260.00000, 0.852203, 0.363037, 0.852203, 0.363037, 0.852203, 0.363037, 0, 0
2, 1320.00000, 0.852203, 0.363037, 0.852203, 0.363037, 0.852203, 0.363037, 0, 0
2, 1380.00000, 0.852203, 0.363037, 0.852203, 0.363037, 0.852203, 0.363037, 0, 0
2, 1440.00000, 0.852203, 0.363037, 0.852203, 0.363037, 0.852203, 0.363037, 0, 0
2, 1500.00000, 0.852203, 0.363037, 0.852203, 0.363037, 0.852203, 0.363037, 0, 0
2, 1560.00000, 0.852203, 0.363037, 0.852203, 0.363037, 0.852203, 0.363037, 0, 0
2, 1620.00000, 0.852203, 0.363037, 0.852203, 0.363037, 0.852203, 0.363037, 0, 0
2, 1680.00000, 0.852203, 0.363037, 0.852203, 0.363037, 0.852203, 0.363037, 0, 0
2, 1740.00000, 0.852203, 0.363037, 0.852203, 0.363037, 0.852203, 0.363037, 0, 0
2, 1800.00000, 0.852203, 0.363037, 0.852203, 0.363037, 0.852203, 0.363037, 0, 0
2, 1860.00000, 0.829673, 0.353439, 0.829673, 0.353439, 0.829673, 0.353439, 0, 0
2, 1920.00000, 0.829673, 0.353439, 0.829673, 0.353439, 0.829673, 0.353439, 0, 0
2, 1980.00000, 0.829673, 0.353439, 0.829673, 0.353439, 0.829673, 0.353439, 0, 0
2, 2040.00000, 0.829673, 0.353439, 0.829673, 0.353439, 0.829673, 0.353439, 0, 0
2, 2100.00000, 0.829673, 0.353439, 0.829673, 0.353439, 0.829673, 0.353439, 0, 0
2, 2160.00000, 0.829673, 0.353439, 0.829673, 0.353439, 0.829673, 0.353439, 0, 0
2, 2220.00000, 0.829673, 0.353439, 0.829673, 0.353439, 0.829673, 0.353439, 0, 0
2, 2280.00000, 0.829673, 0.353439, 0.829673, 0.353439, 0.829673, 0.353439, 0, 0
2, 2340.00000, 0.829673, 0.353439, 0.829673, 0.353439, 0.829673, 0.353439, 0, 0
2, 2400.00000, 0.829673, 0.353439, 0.829673, 0.353439, 0.829673, 0.353439, 0, 0
2, 2460.00000, 0.829673, 0.353439, 0.829673, 0.353439, 0.829673, 0.353439, 0, 0
2, 2520.00000, 0.829673, 0.353439, 0.829673, 0.353439, 0.829673, 0.353439, 0, 0
2, 2580.00000, 0.829673, 0.353439, 0.829673, 0.353439, 0.829673, 0.353439, 0, 0
2, 2640.00000, 0.829673, 0.353439, 0.829673, 0.353439, 0.829673, 0.353439, 0, 0
2, 2700.00000, 0.829673, 0.353439, 0.829673, 0.353439, 0.829673, 0.353439, 0, 0
2, 2760.00000, 0.810746, 0.345376, 0.810747, 0.345377, 0.810746, 0.345376, 0, 0
2, 2820.00000, 0.810746, 0.345376, 0.810746, 0.345376, 0.810746, 0.345376, 0, 0
2, 2880.00000, 0.810746, 0.345376, 0.810746, 0.345376, 0.810746, 0.345376, 0, 0
2, 2940.00000, 0.810746, 0.345376, 0.810746, 0.345376, 0.810746, 0.345376, 0, 0
2, 3000.00000, 0.810746, 0.345376, 0.810746, 0.345376, 0.810746, 0.345376, 0, 0
2, 3060.00000, 0.810746, 0.345376, 0.810746, 0.345376, 0.810746, 0.345376, 0, 0
2, 3120.00000, 0.810746, 0.345376, 0.810746, 0.345376, 0.810746, 0.345376, 0, 0
2, 3180.00000, 0.810746, 0.345376, 0.810746, 0.345376, 0.810746, 0.345376, 0, 0
2, 3240.00000, 0.810746, 0.345376, 0.810746, 0.345376, 0.810746, 0.345376, 0, 0
2, 3300.00000, 0.810746, 0.345376, 0.810746, 0.345376, 0.810746, 0.345376, 0, 0
2, 3360.00000, 0.810746, 0.345376, 0.810746, 0.345376, 0.810746, 0.345376, 0, 0
2, 3420.00000, 0.810746, 0.345376, 0.810746, 0.345376, 0.810746, 0.345376, 0, 0
2, 3480.00000, 0.810746, 0.345376, 0.810746, 0.345376, 0.810746, 0.345376, 0, 0
2, 3540.00000, 0.810746, 0.345376, 0.810746, 0.345376, 0.810746, 0.345376, 0, 0
3, 0.00000, 0.810746, 0.345376, 0.810746, 0.345376, 0.810746, 0.345376, 0, 0
3, 60.00000, 0.822854, 0.350534, 0.822853, 0.350534, 0.822854, 0.350534, 0, 0
3, 120.00000, 0.822854, 0.350534, 0.822854, 0.350534, 0.822854, 0.350534, 0, 0
3, 180.00000, 0.822854, 0.350534, 0.822854, 0.350534, 0.822854, 0.350534, 0, 0
3, 240.00000, 0.822854, 0.350534, 0.822854, 0.350534, 0.822854, 0.350534, 0, 0
3, 300.00000, 0.822854, 0.350534, 0.822854, 0.350534, 0.822854, 0.350534, 0, 0
3, 360.00000, 0.822854, 0.350534, 0.822854, 0.350534, 0.822854, 0.350534, 0, 0
3, 420.00000, 0.822854, 0.350534, 0.822854, 0.350534, 0.822854, 0.350534, 0, 0
3, 480.00000, 0.822854, 0.350534, 0.822854, 0.350534, 0.822854, 0.350534, 0, 0
3, 540.00000, 0.822854, 0.350534, 0.822854, 0.350534, 0.822854, 0.350534, 0, 0
3, 600.00000, 0.822854, 0.350534, 0.822854, 0.350534, 0.822854, 0.350534, 0, 0
3, 660.00000, 0.822854, 0.350534, 0.822854, 0.350534, 0.822854, 0.350534, 0, 0
3, 720.00000, 0.822854, 0.350534, 0.822854, 0.350534, 0.822854, 0.350534, 0, 0
3, 780.00000, 0.822854, 0.350534, 0.822854, 0.350534, 0.822854, 0.350534, 0, 0
3, 840.00000, 0.822854, 0.350534, 0.822854, 0.350534, 0.822854, 0.350534, 0, 0
3, 900.00000, 0.822854, 0.350534, 0.822854, 0.350534, 0.822854, 0.350534, 0, 0
3, 960.00000, 0.792915, 0.33778, 0.792915, 0.33778, 0.792914, 0.33778, 0, 0
3, 1020.00000, 0.792915, 0.33778, 0.792915, 0.33778, 0.792915, 0.33778, 0, 0
3, 1080.00000, 0.792915, 0.33778, 0.792915, 0.33778, 0.792915, 0.33778, 0, 0
3, 1140.00000, 0.792915, 0.33778, 0.792915, 0.33778, 0.792915, 0.33778, 0, 0
3, 1200.00000, 0.792915, 0.33778, 0.792915, 0.33778, 0.792915, 0.33778, 0, 0
3, 1260.00000, 0.792915, 0.33778, 0.792915, 0.33778, 0.792915, 0.33778, 0, 0
3, 1320.00000, 0.792915, 0.33778, 0.792915, 0.33778, 0.792915, 0.33778, 0, 0
3, 1380.00000, 0.792915, 0.33778, 0.792915, 0.33778, 0.792915, 0.33778, 0, 0
3, 1440.00000, 0.792915, 0.33778, 0.792915, 0.33778, 0.792915, 0.33778, 0, 0
3, 1500.00000, 0.792915, 0.33778, 0.792915, 0.33778, 0.792915, 0.33778, 0, 0
3, 1560.00000, 0.792915, 0.33778, 0.792915, 0.33778, 0.792915, 0.33778, 0, 0
3, 1620.00000, 0.792915, 0.33778, 0.792915, 0.33778, 0.792915, 0.33778, 0, 0
3, 1680.00000, 0.792915, 0.33778, 0.792915, 0.33778, 0.792915, 0.33778, 0, 0
3, 1740.00000, 0.792915, 0.33778, 0.792915, 0.33778, 0.792915, 0.33778, 0, 0
3, 1800.00000, 0.792915, 0.33778, 0.792915, 0.33778, 0.792915, 0.33778, 0, 0
3, 1860.00000, 0.814284, 0.346884, 0.814285, 0.346884, 0.814284, 0.346884, 0, 0
3, 1920.00000, 0.814284, 0.346884, 0.814284, 0.346884, 0.814284, 0.346884, 0, 0
3, 1980.00000, 0.814284, 0.346884, 0.814284, 0.346884, 0.814284, 0.346884, 0, 0
3, 2040.00000, 0.814284, 0.346884, 0.814284, 0.346884, 0.814284, 0.346884, 0, 0
3, 2100.00000, 0.814284, 0.346884, 0.814284, 0.346884, 0.814284, 0.346884, 0, 0
3, 2160.00000, 0.814284, 0.346884, 0.814284, 0.346884, 0.814284, 0.346884, 0, 0
3, 2220.00000, 0.814284, 0.346884, 0.814284, 0.346884, 0.814284, 0.346884, 0, 0
3, 2280.00000, 0.814284, 0.346884, 0.814284, 0.346884, 0.814284, 0.346884, 0, 0
3, 2340.00000, 0.814284, 0.346884, 0.814284, 0.346884, 0.814284, 0.346884, 0, 0
3, 2400.00000, 0.814284, 0.346884, 0.814284, 0.346884, 0.814284, 0.346884, 0, 0
3, 2460.00000, 0.814284, 0.346884, 0.814284, 0.346884, 0.814284, 0.346884, 0, 0
3, 2520.00000, 0.814284, 0.346884, 0.814284, 0.346884, 0.814284, 0.346884, 0, 0
3, 2580.00000, 0.814284, 0.346884, 0.814284, 0.346884, 0.814284, 0.346884, 0, 0
3, 2640.00000, 0.814284, 0.346884, 0.814284, 0.346884, 0.814284, 0.346884, 0, 0
3, 2700.00000, 0.814284, 0.346884, 0.814284, 0.346884, 0.814284, 0.346884, 0, 0
3, 2760.00000, 0.803007, 0.34208, 0.803008, 0.34208, 0.803007, 0.342079, 0, 0
3, 2820.00000, 0.803007, 0.34208, 0.803007, 0.34208, 0.803007, 0.34208, 0, 0
3, 2880.00000, 0.803007, 0.34208, 0.803007, 0.34208, 0.803007, 0.34208, 0, 0
3, 2940.00000, 0.803007, 0.34208, 0.803007, 0.34208, 0.803007, 0.34208, 0, 0
3, 3000.00000, 0.803007, 0.34208, 0.803007, 0.34208, 0.803007, 0.34208, 0, 0
3, 3060.00000, 0.803007, 0.34208, 0.803007, 0.34208, 0.803007, 0.34208, 0, 0
3, 3120.00000, 0.803007, 0.34208, 0.803007, 0.34208, 0.803007, 0.34208, 0, 0
3, 3180.00000, 0.803007, 0.34208, 0.803007, 0.34208, 0.803007, 0.34208, 0, 0
3, 3240.00000, 0.803007, 0.34208, 0.803007, 0.34208, 0.803007, 0.34208, 0, 0
3, 3300.00000, 0.803007, 0.34208, 0.803007, 0.34208, 0.803007, 0.34208, 0, 0
3, 3360.00000, 0.803007, 0.34208, 0.803007, 0.34208, 0.803007, 0.34208, 0, 0
3, 3420.00000, 0.803007, 0.34208, 0.803007, 0.34208, 0.803007, 0.34208, 0, 0
3, 3480.00000, 0.803007, 0.34208, 0.803007, 0.34208, 0.803007, 0.34208, 0, 0
3, 3540.00000, 0.803007, 0.34208, 0.803007, 0.34208, 0.803007, 0.34208, 0, 0
4, 0.00000, 0.803007, 0.34208, 0.803007, 0.34208, 0.803007, 0.34208, 0, 0
4, 60.00000, 0.792291, 0.337515, 0.792291, 0.337514, 0.792291, 0.337515, 0, 0
4, 120.00000, 0.792291, 0.337515, 0.792291, 0.337515, 0.792291, 0.337515, 0, 0
4, 180.00000, 0.792291, 0.337515, 0.792291, 0.337515, 0.792291, 0.337515, 0, 0
4, 240.00000, 0.792291, 0.337515, 0.792291, 0.337515, 0.792291, 0.337515, 0, 0
4, 300.00000, 0.792291, 0.337515, 0.792291, 0.337515, 0.792291, 0.337515, 0, 0
4, 360.00000, 0.792291, 0.337515, 0.792291, 0.337515, 0.792291, 0.337515, 0, 0
4, 420.00000, 0.792291, 0.337515, 0.792291, 0.337515, 0.792291, 0.337515, 0, 0
4, 480.00000, 0.792291, 0.337515, 0.792291, 0.337515, 0.792291, 0.337515, 0, 0
4, 540.00000, 0.792291, 0.337515, 0.792291, 0.337515, 0.792291, 0.337515, 0, 0
4, 600.00000, 0.792291, 0.337515, 0.792291, 0.337515, 0.792291, 0.337515, 0, 0
4, 660.00000, 0.792291, 0.337515, 0.792291, 0.337515, 0.792291, 0.337515, 0, 0
