hour,t(sec),V1,VAngle1,V2,VAngle2,V3,VAngle3,V4,VAngle4,I1,IAngle1,I2,IAngle2,I3,IAngle3,I4,IAngle4
0, 60.00000, 114.37, -31.2945, 120.391, -151.055, 117.888, 86.5884, 0, 0, 8.86651, -54.3681, 9.38669, -174.128, 9.1707, 63.5145, 0.0920337, -26.778
0, 120.00000, 114.37, -31.2957, 120.419, -151.061, 117.89, 86.575, 0, 0, 8.86645, -54.3693, 9.38913, -174.134, 9.17086, 63.5011, 0.0926146, -26.5052
0, 180.00000, 114.369, -31.2967, 120.445, -151.067, 117.892, 86.5629, 0, 0, 8.8664, -54.3704, 9.39133, -174.14, 9.171, 63.489, 0.093138, -26.2635
0, 240.00000, 114.369, -31.2977, 120.467, -151.071, 117.894, 86.5519, 0, 0, 8.86636, -54.3713, 9.3933, -174.145, 9.17113, 63.478, 0.0936106, -26.0484
0, 300.00000, 114.368, -31.2985, 120.488, -151.076, 117.895, 86.5421, 0, 0, 8.86632, -54.3722, 9.39509, -174.15, 9.17124, 63.4682, 0.0940446, -25.8528
0, 360.00000, 114.368, -31.2993, 120.506, -151.08, 117.896, 86.5333, 0, 0, 8.86628, -54.373, 9.3967, -174.154, 9.17133, 63.4594, 0.0944398, -25.6765
0, 420.00000, 114.368, -31.3, 120.523, -151.084, 117.897, 86.5254, 0, 0, 8.86624, -54.3737, 9.39815, -174.157, 9.17142, 63.4514, 0.0948068, -25.5138
0, 480.00000, 115.347, -31.2341, 121.696, -150.994, 118.839, 86.6191, 0, 0, 7.78733, -54.3076, 8.11822, -174.068, 8.04996, 63.5452, 0.0699466, -141.626
0, 540.00000, 115.347, -31.2349, 121.711, -150.997, 118.839, 86.6127, 0, 0, 7.78731, -54.3085, 8.11719, -174.071, 8.04998, 63.5388, 0.0713321, -142.409
0, 600.00000, 115.347, -31.2356, 121.724, -151, 118.839, 86.607, 0, 0, 7.78728, -54.3092, 8.11627, -174.073, 8.05001, 63.5331, 0.0725882, -143.084
0, 660.00000, 115.346, -31.2363, 121.737, -151.002, 118.84, 86.6018, 0, 0, 7.78726, -54.3099, 8.11544, -174.076, 8.05003, 63.5279, 0.0737267, -143.672
0, 720.00000, 115.346, -31.2368, 121.748, -151.004, 118.84, 86.5972, 0, 0, 7.78724, -54.3105, 8.1147, -174.078, 8.05005, 63.5232, 0.0747574, -144.186
0, 780.00000, 115.346, -31.2374, 121.757, -151.006, 118.841, 86.593, 0, 0, 7.78723, -54.3111, 8.11403, -174.08, 8.05007, 63.519, 0.0756899, -144.637
0, 840.00000, 115.346, -31.2378, 121.766, -151.008, 118.841, 86.5892, 0, 0, 7.78721, -54.3116, 8.11343, -174.081, 8.05009, 63.5153, 0.0765328, -145.032
0, 900.00000, 115.346, -31.2383, 121.774, -151.009, 118.841, 86.5858, 0, 0, 7.7872, -54.312, 8.11288, -174.083, 8.0501, 63.5119, 0.0772943, -145.381
0, 960.00000, 115.326, -31.2183, 121.299, -151.205, 118.328, 86.6176, 0, 0, 7.78569, -54.2921, 8.14469, -174.279, 8.01154, 63.5437, 0.0397366, -103.516
0, 1020.00000, 115.325, -31.2186, 121.305, -151.207, 118.329, 86.6149, 0, 0, 7.78568, -54.2924, 8.14427, -174.28, 8.01155, 63.541, 0.0399476, -104.487
0, 1080.00000, 115.325, -31.2189, 121.31, -151.208, 118.329, 86.6124, 0, 0, 7.78567, -54.2927, 8.14388, -174.281, 8.01156, 63.5385, 0.040146, -105.355
0, 1140.00000, 115.325, -31.2192, 121.316, -151.209, 118.329, 86.6103, 0, 0, 7.78566, -54.293, 8.14353, -174.282, 8.01157, 63.5363, 0.0403322, -106.129
0, 1200.00000, 115.325, -31.2194, 121.32, -151.21, 118.329, 86.6083, 0, 0, 7.78565, -54.2933, 8.14322, -174.283, 8.01157, 63.5343, 0.0405058, -106.821
0, 1260.00000, 115.325, -31.2197, 121.324, -151.21, 118.329, 86.6065, 0, 0, 7.78565, -54.2935, 8.14294, -174.284, 8.01158, 63.5326, 0.0406671, -107.439
0, 1320.00000, 115.325, -31.2199, 121.328, -151.211, 118.329, 86.6049, 0, 0, 7.78564, -54.2937, 8.14268, -174.285, 8.01158, 63.531, 0.0408163, -107.99
0, 1380.00000, 115.325, -31.22, 121.331, -151.212, 118.329, 86.6034, 0, 0, 7.78563, -54.2939, 8.14245, -174.286, 8.01159, 63.5295, 0.0409537, -108.483
0, 1440.00000, 115.325, -31.2202, 121.334, -151.212, 118.329, 86.6021, 0, 0, 7.78563, -54.294, 8.14225, -174.286, 8.01159, 63.5282, 0.0410799, -108.924
0, 1500.00000, 115.325, -31.2203, 121.337, -151.213, 118.329, 86.601, 0, 0, 7.78562, -54.2942, 8.14206, -174.287, 8.0116, 63.527, 0.0411956, -109.318
0, 1560.00000, 115.325, -31.2205, 121.34, -151.213, 118.33, 86.5999, 0, 0, 7.78562, -54.2943, 8.1419, -174.287, 8.0116, 63.526, 0.0413013, -109.671
0, 1620.00000, 115.325, -31.2206, 121.342, -151.214, 118.33, 86.599, 0, 0, 7.78562, -54.2945, 8.14175, -174.288, 8.0116, 63.525, 0.0413978, -109.987
0, 1680.00000, 115.325, -31.2207, 121.344, -151.214, 118.33, 86.5981, 0, 0, 7.78561, -54.2946, 8.14161, -174.288, 8.0116, 63.5242, 0.0414857, -110.271
0, 1740.00000, 115.325, -31.2208, 121.346, -151.214, 118.33, 86.5974, 0, 0, 7.78561, -54.2947, 8.14149, -174.288, 8.01161, 63.5234, 0.0415657, -110.525
0, 1800.00000, 114.988, -31.418, 120.679, -151.178, 118.399, 86.5878, 0, 0, 7.76029, -54.4919, 8.18643, -174.251, 8.0168, 63.5139, 0.0733663, -31.4259
0, 1860.00000, 114.988, -31.4181, 120.681, -151.178, 118.399, 86.5872, 0, 0, 7.76029, -54.492, 8.18634, -174.252, 8.0168, 63.5132, 0.0732379, -31.4988
0, 1920.00000, 114.988, -31.4182, 120.682, -151.178, 118.399, 86.5866, 0, 0, 7.76028, -54.4921, 8.18626, -174.252, 8.01681, 63.5127, 0.073122, -31.5645
0, 1980.00000, 114.988, -31.4182, 120.683, -151.178, 118.399, 86.5861, 0, 0, 7.76028, -54.4921, 8.18618, -174.252, 8.01681, 63.5122, 0.0730178, -31.6237
0, 2040.00000, 114.988, -31.4182, 120.684, -151.178, 118.399, 86.5856, 0, 0, 7.76028, -54.4922, 8.18612, -174.252, 8.01681, 63.5117, 0.0729241, -31.6772
0, 2100.00000, 114.988, -31.4183, 120.685, -151.179, 118.399, 86.5852, 0, 0, 7.76028, -54.4922, 8.18606, -174.253, 8.01682, 63.5113, 0.0728399, -31.7255
0, 2160.00000, 114.988, -31.4183, 120.685, -151.179, 118.399, 86.5848, 0, 0, 7.76028, -54.4922, 8.186, -174.253, 8.01682, 63.5109, 0.0727641, -31.7691
0, 2220.00000, 114.988, -31.4184, 120.686, -151.179, 118.399, 86.5845, 0, 0, 7.76028, -54.4923, 8.18595, -174.253, 8.01682, 63.5106, 0.0726959, -31.8083
0, 2280.00000, 114.988, -31.4184, 120.687, -151.179, 118.399, 86.5842, 0, 0, 7.76027, -54.4923, 8.18591, -174.253, 8.01682, 63.5103, 0.0726345, -31.8437
0, 2340.00000, 114.988, -31.4184, 120.687, -151.179, 118.399, 86.5839, 0, 0, 7.76027, -54.4923, 8.18587, -174.253, 8.01683, 63.51, 0.0725789, -31.8756
0, 2400.00000, 114.988, -31.4184, 120.688, -151.179, 118.399, 86.5837, 0, 0, 7.76027, -54.4924, 8.18583, -174.253, 8.01683, 63.5098, 0.0725289, -31.9043
0, 2460.00000, 114.988, -31.4185, 120.688, -151.179, 118.399, 86.5835, 0, 0, 7.76027, -54.4924, 8.1858, -174.253, 8.01683, 63.5096, 0.0724838, -31.9301
0, 2520.00000, 114.988, -31.4185, 120.689, -151.18, 118.399, 86.5833, 0, 0, 7.76027, -54.4924, 8.18577, -174.253, 8.01683, 63.5094, 0.0724434, -31.9534
0, 2580.00000, 114.988, -31.4185, 120.689, -151.18, 118.399, 86.5831, 0, 0, 7.76027, -54.4924, 8.18575, -174.254, 8.01683, 63.5092, 0.0724069, -31.9744
0, 2640.00000, 114.988, -31.4185, 120.69, -151.18, 118.399, 86.5829, 0, 0, 7.76027, -54.4924, 8.18572, -174.254, 8.01683, 63.509, 0.0723741, -31.9934
0, 2700.00000, 114.988, -31.4185, 120.69, -151.18, 118.399, 86.5828, 0, 0, 7.76027, -54.4925, 8.1857, -174.254, 8.01683, 63.5089, 0.0723446, -32.0104
0, 2760.00000, 115.276, -31.3887, 120.69, -151.177, 118.496, 86.7202, 0, 0, 7.78193, -54.4626, 8.18572, -174.251, 8.02414, 63.6463, 0.0704248, -32.4533
0, 2820.00000, 115.276, -31.3887, 120.69, -151.177, 118.496, 86.7201, 0, 0, 7.78193, -54.4626, 8.18571, -174.251, 8.02414, 63.6462, 0.0704008, -32.4679
0, 2880.00000, 115.276, -31.3887, 120.69, -151.177, 118.497, 86.72, 0, 0, 7.78193, -54.4626, 8.18569, -174.251, 8.02414, 63.6461, 0.0703794, -32.4808
0, 2940.00000, 115.276, -31.3887, 120.69, -151.177, 118.497, 86.7199, 0, 0, 7.78193, -54.4626, 8.18568, -174.251, 8.02414, 63.646, 0.0703602, -32.4925
0, 3000.00000, 115.276, -31.3887, 120.69, -151.177, 118.497, 86.7198, 0, 0, 7.78193, -54.4627, 8.18566, -174.251, 8.02414, 63.6459, 0.0703429, -32.5029
0, 3060.00000, 115.276, -31.3887, 120.691, -151.177, 118.497, 86.7198, 0, 0, 7.78193, -54.4627, 8.18565, -174.251, 8.02414, 63.6459, 0.0703273, -32.5124
0, 3120.00000, 115.276, -31.3888, 120.691, -151.177, 118.497, 86.7197, 0, 0, 7.78193, -54.4627, 8.18564, -174.251, 8.02414, 63.6458, 0.0703133, -32.5209
0, 3180.00000, 115.276, -31.3888, 120.691, -151.177, 118.497, 86.7196, 0, 0, 7.78192, -54.4627, 8.18563, -174.251, 8.02415, 63.6457, 0.0703006, -32.5285
0, 3240.00000, 115.276, -31.3888, 120.691, -151.177, 118.497, 86.7196, 0, 0, 7.78192, -54.4627, 8.18563, -174.251, 8.02415, 63.6457, 0.0702893, -32.5354
0, 3300.00000, 115.276, -31.3888, 120.691, -151.177, 118.497, 86.7195, 0, 0, 7.78192, -54.4627, 8.18562, -174.251, 8.02415, 63.6456, 0.0702791, -32.5416
0, 3360.00000, 115.276, -31.3888, 120.691, -151.177, 118.497, 86.7195, 0, 0, 7.78192, -54.4627, 8.18561, -174.251, 8.02415, 63.6456, 0.0702699, -32.5472
0, 3420.00000, 115.276, -31.3888, 120.691, -151.177, 118.497, 86.7194, 0, 0, 7.78192, -54.4627, 8.18561, -174.251, 8.02415, 63.6455, 0.0702616, -32.5522
0, 3480.00000, 115.276, -31.3888, 120.691, -151.177, 118.497, 86.7194, 0, 0, 7.78192, -54.4627, 8.1856, -174.251, 8.02415, 63.6455, 0.0702541, -32.5567
0, 3540.00000, 115.276, -31.3888, 120.691, -151.177, 118.497, 86.7194, 0, 0, 7.78192, -54.4627, 8.18559, -174.251, 8.02415, 63.6455, 0.0702474, -32.5608
1, 0.00000, 115.276, -31.3888, 120.692, -151.177, 118.497, 86.7194, 0, 0, 7.78192, -54.4627, 8.18559, -174.251, 8.02415, 63.6454, 0.0702414, -32.5645
1, 60.00000, 115.551, -31.3569, 120.692, -151.175, 118.581, 86.8498, 0, 0, 7.80266, -54.4308, 8.18555, -174.249, 8.03047, 63.7758, 0.0679591, -32.8177
1, 120.00000, 115.551, -31.3569, 120.692, -151.175, 118.581, 86.8497, 0, 0, 7.80266, -54.4308, 8.18555, -174.249, 8.03047, 63.7758, 0.0679536, -32.8209
1, 180.00000, 115.551, -31.3569, 120.692, -151.175, 118.581, 86.8497, 0, 0, 7.80266, -54.4308, 8.18555, -174.249, 8.03047, 63.7758, 0.0679492, -32.8237
1, 240.00000, 115.551, -31.3569, 120.692, -151.175, 118.581, 86.8497, 0, 0, 7.80266, -54.4308, 8.18554, -174.249, 8.03047, 63.7758, 0.0679452, -32.8263
1, 300.00000, 115.551, -31.3569, 120.692, -151.175, 118.581, 86.8497, 0, 0, 7.80266, -54.4308, 8.18554, -174.249, 8.03047, 63.7758, 0.0679416, -32.8285
1, 360.00000, 115.551, -31.3569, 120.692, -151.175, 118.581, 86.8497, 0, 0, 7.80266, -54.4308, 8.18554, -174.249, 8.03047, 63.7757, 0.0679383, -32.8306
1, 420.00000, 115.551, -31.3569, 120.692, -151.175, 118.581, 86.8496, 0, 0, 7.80266, -54.4308, 8.18554, -174.249, 8.03047, 63.7757, 0.0679354, -32.8324
1, 480.00000, 115.551, -31.3569, 120.692, -151.175, 118.581, 86.8496, 0, 0, 7.80266, -54.4308, 8.18554, -174.249, 8.03047, 63.7757, 0.0679328, -32.8341
1, 540.00000, 115.551, -31.3569, 120.692, -151.175, 118.581, 86.8496, 0, 0, 7.80266, -54.4308, 8.18553, -174.249, 8.03047, 63.7757, 0.0679304, -32.8356
1, 600.00000, 115.551, -31.3569, 120.692, -151.175, 118.581, 86.8496, 0, 0, 7.80266, -54.4308, 8.18553, -174.249, 8.03047, 63.7757, 0.0679283, -32.837
1, 660.00000, 115.551, -31.3569, 120.692, -151.175, 118.581, 86.8496, 0, 0, 7.80266, -54.4308, 8.18553, -174.249, 8.03047, 63.7757, 0.0679264, -32.8382
1, 720.00000, 115.551, -31.3569, 120.692, -151.175, 118.581, 86.8496, 0, 0, 7.80266, -54.4308, 8.18553, -174.249, 8.03047, 63.7757, 0.0679247, -32.8393
1, 780.00000, 117.283, -31.7611, 120.653, -151.175, 120.249, 87.3653, 0, 0, 7.93289, -54.835, 8.18634, -174.249, 8.15595, 64.2914, 0.0576833, -48.3868
1, 840.00000, 117.283, -31.7611, 120.653, -151.175, 120.249, 87.3653, 0, 0, 7.93289, -54.835, 8.18634, -174.249, 8.15595, 64.2914, 0.057684, -48.3855
1, 900.00000, 117.283, -31.7611, 120.653, -151.175, 120.249, 87.3653, 0, 0, 7.93289, -54.835, 8.18634, -174.249, 8.15595, 64.2914, 0.0576841, -48.3853
1, 960.00000, 117.283, -31.7611, 120.653, -151.175, 120.249, 87.3653, 0, 0, 7.93289, -54.835, 8.18634, -174.249, 8.15595, 64.2913, 0.0576843, -48.3851
1, 1020.00000, 117.283, -31.7611, 120.653, -151.175, 120.249, 87.3653, 0, 0, 7.93289, -54.835, 8.18634, -174.249, 8.15595, 64.2913, 0.0576844, -48.3849
1, 1080.00000, 117.283, -31.7611, 120.653, -151.175, 120.249, 87.3652, 0, 0, 7.93289, -54.835, 8.18634, -174.249, 8.15595, 64.2913, 0.0576845, -48.3847
1, 1140.00000, 117.283, -31.7611, 120.653, -151.175, 120.249, 87.3652, 0, 0, 7.93289, -54.835, 8.18634, -174.249, 8.15595, 64.2913, 0.0576846, -48.3846
1, 1200.00000, 117.283, -31.7611, 120.653, -151.175, 120.249, 87.3652, 0, 0, 7.93289, -54.835, 8.18635, -174.249, 8.15595, 64.2913, 0.0576847, -48.3844
1, 1260.00000, 117.283, -31.7611, 120.653, -151.175, 120.249, 87.3652, 0, 0, 7.93289, -54.835, 8.18635, -174.249, 8.15595, 64.2913, 0.0576847, -48.3843
1, 1320.00000, 117.283, -31.7611, 120.653, -151.175, 120.249, 87.3652, 0, 0, 7.93289, -54.835, 8.18635, -174.249, 8.15595, 64.2913, 0.0576848, -48.3842
1, 1380.00000, 117.283, -31.7611, 120.653, -151.175, 120.249, 87.3652, 0, 0, 7.93289, -54.835, 8.18635, -174.249, 8.15595, 64.2913, 0.0576849, -48.3841
1, 1440.00000, 117.283, -31.7611, 120.653, -151.175, 120.249, 87.3652, 0, 0, 7.93289, -54.835, 8.18635, -174.249, 8.15595, 64.2913, 0.0576849, -48.384
1, 1500.00000, 117.283, -31.7611, 120.653, -151.175, 120.249, 87.3652, 0, 0, 7.93289, -54.835, 8.18635, -174.249, 8.15595, 64.2913, 0.057685, -48.3839
1, 1560.00000, 117.283, -31.7611, 120.653, -151.175, 120.249, 87.3652, 0, 0, 7.93289, -54.835, 8.18635, -174.249, 8.15595, 64.2913, 0.057685, -48.3838
1, 1620.00000, 117.283, -31.7611, 120.653, -151.175, 120.249, 87.3652, 0, 0, 7.93289, -54.835, 8.18635, -174.249, 8.15595, 64.2913, 0.057685, -48.3838
1, 1680.00000, 117.283, -31.7611, 120.653, -151.175, 120.249, 87.3652, 0, 0, 7.93289, -54.835, 8.18635, -174.249, 8.15595, 64.2913, 0.0576851, -48.3837
1, 1740.00000, 117.283, -31.7611, 120.653, -151.175, 120.249, 87.3652, 0, 0, 7.93289, -54.835, 8.18635, -174.249, 8.15595, 64.2913, 0.0576851, -48.3837
1, 1800.00000, 117.283, -31.7611, 120.653, -151.175, 120.249, 87.3652, 0, 0, 7.93289, -54.835, 8.18635, -174.249, 8.15595, 64.2913, 0.0576851, -48.3836
1, 1860.00000, 117.283, -31.7611, 120.653, -151.175, 120.249, 87.3652, 0, 0, 7.93289, -54.835, 8.18635, -174.249, 8.15595, 64.2913, 0.0576852, -48.3836
1, 1920.00000, 117.283, -31.7611, 120.653, -151.175, 120.249, 87.3652, 0, 0, 7.93289, -54.835, 8.18635, -174.249, 8.15595, 64.2913, 0.0576852, -48.3835
1, 1980.00000, 117.283, -31.7611, 120.653, -151.175, 120.249, 87.3652, 0, 0, 7.93289, -54.835, 8.18635, -174.249, 8.15595, 64.2913, 0.0576852, -48.3835
1, 2040.00000, 117.283, -31.7611, 120.653, -151.175, 120.249, 87.3652, 0, 0, 7.93289, -54.835, 8.18635, -174.249, 8.15595, 64.2913, 0.0576852, -48.3835
1, 2100.00000, 117.283, -31.7611, 120.653, -151.175, 120.249, 87.3652, 0, 0, 7.93289, -54.835, 8.18635, -174.249, 8.15595, 64.2913, 0.0576853, -48.3834
1, 2160.00000, 117.283, -31.7611, 120.653, -151.175, 120.249, 87.3652, 0, 0, 7.93289, -54.835, 8.18635, -174.249, 8.15595, 64.2913, 0.0576853, -48.3834
1, 2220.00000, 117.628, -31.5638, 121.318, -151.212, 120.175, 87.376, 0, 0, 7.9588, -54.6377, 8.14332, -174.286, 8.15035, 64.3021, 0.0569847, -131.099
1, 2280.00000, 117.628, -31.5638, 121.318, -151.212, 120.175, 87.376, 0, 0, 7.9588, -54.6377, 8.14332, -174.286, 8.15035, 64.3021, 0.0569846, -131.101
1, 2340.00000, 117.628, -31.5638, 121.318, -151.212, 120.175, 87.376, 0, 0, 7.9588, -54.6377, 8.14332, -174.286, 8.15035, 64.3021, 0.0569847, -131.101
1, 2400.00000, 117.628, -31.5638, 121.318, -151.212, 120.175, 87.376, 0, 0, 7.9588, -54.6377, 8.14332, -174.286, 8.15035, 64.3021, 0.0569848, -131.101
1, 2460.00000, 117.628, -31.5638, 121.318, -151.212, 120.175, 87.376, 0, 0, 7.9588, -54.6377, 8.14332, -174.286, 8.15035, 64.3021, 0.0569848, -131.101
1, 2520.00000, 117.628, -31.5638, 121.318, -151.212, 120.175, 87.376, 0, 0, 7.9588, -54.6377, 8.14332, -174.286, 8.15035, 64.3021, 0.0569849, -131.101
1, 2580.00000, 117.628, -31.5638, 121.318, -151.212, 120.175, 87.376, 0, 0, 7.9588, -54.6377, 8.14332, -174.286, 8.15035, 64.3021, 0.056985, -131.101
1, 2640.00000, 117.628, -31.5638, 121.318, -151.212, 120.175, 87.376, 0, 0, 7.9588, -54.6377, 8.14332, -174.286, 8.15035, 64.3021, 0.056985, -131.102
1, 2700.00000, 117.628, -31.5638, 121.318, -151.212, 120.175, 87.376, 0, 0, 7.9588, -54.6377, 8.14332, -174.286, 8.15035, 64.3021, 0.0569851, -131.102
1, 2760.00000, 117.628, -31.5638, 121.318, -151.212, 120.175, 87.376, 0, 0, 7.9588, -54.6377, 8.14332, -174.286, 8.15035, 64.3021, 0.0569851, -131.102
1, 2820.00000, 117.628, -31.5638, 121.318, -151.212, 120.175, 87.376, 0, 0, 7.9588, -54.6377, 8.14332, -174.286, 8.15035, 64.3021, 0.0569852, -131.102
1, 2880.00000, 117.628, -31.5638, 121.318, -151.212, 120.175, 87.376, 0, 0, 7.9588, -54.6377, 8.14332, -174.286, 8.15035, 64.3021, 0.0569852, -131.102
1, 2940.00000, 117.628, -31.5638, 121.318, -151.212, 120.175, 87.376, 0, 0, 7.9588, -54.6377, 8.14332, -174.286, 8.15035, 64.3021, 0.0569852, -131.102
1, 3000.00000, 117.628, -31.5638, 121.318, -151.212, 120.175, 87.376, 0, 0, 7.9588, -54.6377, 8.14332, -174.286, 8.15035, 64.3021, 0.0569852, -131.102
1, 3060.00000, 117.628, -31.5638, 121.318, -151.212, 120.175, 87.376, 0, 0, 7.9588, -54.6377, 8.14332, -174.286, 8.15035, 64.3021, 0.0569853, -131.102
1, 3120.00000, 117.628, -31.5638, 121.318, -151.212, 120.175, 87.376, 0, 0, 7.9588, -54.6377, 8.14332, -174.286, 8.15035, 64.3021, 0.0569853, -131.102
1, 3180.00000, 117.628, -31.5638, 121.318, -151.212, 120.175, 87.376, 0, 0, 7.9588, -54.6377, 8.14332, -174.286, 8.15035, 64.3021, 0.0569853, -131.102
1, 3240.00000, 117.628, -31.5638, 121.318, -151.212, 120.175, 87.376, 0, 0, 7.9588, -54.6377, 8.14332, -174.286, 8.15035, 64.3021, 0.0569853, -131.102
1, 3300.00000, 117.628, -31.5638, 121.318, -151.212, 120.175, 87.376, 0, 0, 7.9588, -54.6377, 8.14332, -174.286, 8.15035, 64.3021, 0.0569853, -131.102
1, 3360.00000, 117.628, -31.5638, 121.318, -151.212, 120.175, 87.376, 0, 0, 7.9588, -54.6377, 8.14332, -174.286, 8.15035, 64.3021, 0.0569854, -131.102
1, 3420.00000, 117.628, -31.5638, 121.318, -151.212, 120.175, 87.376, 0, 0, 7.9588, -54.6377, 8.14332, -174.286, 8.15035, 64.3021, 0.0569854, -131.102
1, 3480.00000, 117.628, -31.5638, 121.318, -151.212, 120.175, 87.376, 0, 0, 7.9588, -54.6377, 8.14332, -174.286, 8.15035, 64.3021, 0.0569854, -131.102
1, 3540.00000, 117.628, -31.5638, 121.318, -151.212, 120.175, 87.376, 0, 0, 7.9588, -54.6377, 8.14332, -174.286, 8.15035, 64.3021, 0.0569854, -131.102
2, 0.00000, 117.628, -31.5638, 121.318, -151.212, 120.175, 87.376, 0, 0, 7.9588, -54.6377, 8.14332, -174.286, 8.15035, 64.3021, 0.0569854, -131.102
2, 60.00000, 117.628, -31.5638, 121.318, -151.212, 120.175, 87.376, 0, 0, 7.9588, -54.6377, 8.14332, -174.286, 8.15035, 64.3021, 0.0569854, -131.102
2, 120.00000, 117.628, -31.5638, 121.318, -151.212, 120.175, 87.376, 0, 0, 7.9588, -54.6377, 8.14332, -174.286, 8.15035, 64.3021, 0.0569854, -131.102
2, 180.00000, 117.628, -31.5638, 121.318, -151.212, 120.175, 87.376, 0, 0, 7.9588, -54.6377, 8.14332, -174.286, 8.15035, 64.3021, 0.0569854, -131.102
2, 240.00000, 117.628, -31.5638, 121.318, -151.212, 120.175, 87.376, 0, 0, 7.9588, -54.6377, 8.14332, -174.286, 8.15035, 64.3021, 0.0569854, -131.102
2, 300.00000, 117.628, -31.5638, 121.318, -151.212, 120.175, 87.376, 0, 0, 7.9588, -54.6377, 8.14332, -174.286, 8.15035, 64.3021, 0.0569854, -131.102
2, 360.00000, 117.628, -31.5638, 121.318, -151.212, 120.175, 87.376, 0, 0, 7.9588, -54.6377, 8.14332, -174.286, 8.15035, 64.3021, 0.0569854, -131.102
2, 420.00000, 117.628, -31.5638, 121.318, -151.212, 120.175, 87.376, 0, 0, 7.9588, -54.6377, 8.14332, -174.286, 8.15035, 64.3021, 0.0569855, -131.102
2, 480.00000, 117.628, -31.5638, 121.318, -151.212, 120.175, 87.376, 0, 0, 7.9588, -54.6377, 8.14332, -174.286, 8.15035, 64.3021, 0.0569855, -131.102
2, 540.00000, 117.628, -31.5638, 121.318, -151.212, 120.175, 87.376, 0, 0, 7.9588, -54.6377, 8.14332, -174.286, 8.15035, 64.3021, 0.0569855, -131.102
2, 600.00000, 117.628, -31.5638, 121.318, -151.212, 120.175, 87.376, 0, 0, 7.9588, -54.6377, 8.14332, -174.286, 8.15035, 64.3021, 0.0569855, -131.102
2, 660.00000, 117.628, -31.5638, 121.318, -151.212, 120.175, 87.376, 0, 0, 7.9588, -54.6377, 8.14332, -174.286, 8.15035, 64.3021, 0.0569855, -131.102
