hour,t(sec),"P1 (kW)","Q1 (kvar)","P2 (kW)","Q2 (kvar)","P3 (kW)","Q3 (kvar)","P4 (kW)","Q4 (kvar)"
0, 60.00000, 0.425074, 0.181078, 0.422211, 0.17986, 0.438702, 0.186885, 0, 0
0, 120.00000, 0.425069, 0.181079, 0.422205, 0.179859, 0.438696, 0.186883, 0, 0
0, 180.00000, 0.425069, 0.181079, 0.422205, 0.179859, 0.438695, 0.186883, 0, 0
0, 240.00000, 0.425069, 0.181079, 0.422205, 0.179859, 0.438695, 0.186883, 0, 0
0, 300.00000, 0.425069, 0.181079, 0.422205, 0.179859, 0.438695, 0.186883, 0, 0
0, 360.00000, 0.425069, 0.181079, 0.422205, 0.179859, 0.438695, 0.186883, 0, 0
0, 420.00000, 0.425069, 0.181079, 0.422205, 0.179859, 0.438695, 0.186883, 0, 0
0, 480.00000, 0.452485, 0.192762, 0.449143, 0.191336, 0.466538, 0.198746, 0, 0
0, 540.00000, 0.452493, 0.192761, 0.449149, 0.191337, 0.466546, 0.198748, 0, 0
0, 600.00000, 0.452493, 0.192761, 0.449149, 0.191337, 0.466546, 0.198748, 0, 0
0, 660.00000, 0.452493, 0.192761, 0.449149, 0.191337, 0.466546, 0.198748, 0, 0
0, 720.00000, 0.452493, 0.192761, 0.449149, 0.191337, 0.466546, 0.198748, 0, 0
0, 780.00000, 0.452493, 0.192761, 0.449149, 0.191337, 0.466546, 0.198748, 0, 0
0, 840.00000, 0.452493, 0.192761, 0.449149, 0.191337, 0.466546, 0.198748, 0, 0
0, 900.00000, 0.452493, 0.192761, 0.449149, 0.191337, 0.466546, 0.198748, 0, 0
0, 960.00000, 0.448814, 0.191188, 0.44555, 0.189803, 0.459672, 0.195818, 0, 0
0, 1020.00000, 0.448801, 0.191188, 0.445548, 0.189803, 0.459661, 0.195815, 0, 0
0, 1080.00000, 0.448801, 0.191188, 0.445548, 0.189803, 0.459661, 0.195815, 0, 0
0, 1140.00000, 0.452271, 0.192671, 0.44553, 0.189795, 0.461374, 0.196545, 0, 0
0, 1200.00000, 0.45228, 0.192671, 0.445529, 0.189795, 0.461378, 0.196546, 0, 0
0, 1260.00000, 0.45228, 0.192671, 0.445529, 0.189795, 0.461378, 0.196546, 0, 0
0, 1320.00000, 0.45228, 0.192671, 0.445529, 0.189795, 0.461378, 0.196546, 0, 0
0, 1380.00000, 0.45228, 0.192671, 0.445529, 0.189795, 0.461378, 0.196546, 0, 0
0, 1440.00000, 0.45228, 0.192671, 0.445529, 0.189795, 0.461378, 0.196546, 0, 0
0, 1500.00000, 0.45228, 0.192671, 0.445529, 0.189795, 0.461378, 0.196546, 0, 0
0, 1560.00000, 0.45228, 0.192671, 0.445529, 0.189795, 0.461378, 0.196546, 0, 0
0, 1620.00000, 0.45228, 0.192671, 0.445529, 0.189795, 0.461378, 0.196546, 0, 0
0, 1680.00000, 0.45228, 0.192671, 0.445529, 0.189795, 0.461378, 0.196546, 0, 0
0, 1740.00000, 0.45228, 0.192671, 0.445529, 0.189795, 0.461378, 0.196546, 0, 0
0, 1800.00000, 0.450035, 0.191713, 0.441895, 0.188246, 0.46152, 0.196607, 0, 0
0, 1860.00000, 0.450032, 0.191713, 0.441892, 0.188245, 0.461521, 0.196607, 0, 0
0, 1920.00000, 0.450032, 0.191713, 0.441892, 0.188245, 0.461521, 0.196607, 0, 0
0, 1980.00000, 0.450032, 0.191713, 0.441892, 0.188245, 0.461521, 0.196607, 0, 0
0, 2040.00000, 0.450032, 0.191713, 0.441892, 0.188245, 0.461521, 0.196607, 0, 0
0, 2100.00000, 0.450032, 0.191713, 0.441892, 0.188245, 0.461521, 0.196607, 0, 0
0, 2160.00000, 0.450032, 0.191713, 0.441892, 0.188245, 0.461521, 0.196607, 0, 0
0, 2220.00000, 0.450032, 0.191713, 0.441892, 0.188245, 0.461521, 0.196607, 0, 0
0, 2280.00000, 0.450032, 0.191713, 0.441892, 0.188245, 0.461521, 0.196607, 0, 0
0, 2340.00000, 0.450032, 0.191713, 0.441892, 0.188245, 0.461521, 0.196607, 0, 0
0, 2400.00000, 0.450032, 0.191713, 0.441892, 0.188245, 0.461521, 0.196607, 0, 0
0, 2460.00000, 0.450032, 0.191713, 0.441892, 0.188245, 0.461521, 0.196607, 0, 0
0, 2520.00000, 0.450032, 0.191713, 0.441892, 0.188245, 0.461521, 0.196607, 0, 0
0, 2580.00000, 0.450032, 0.191713, 0.441892, 0.188245, 0.461521, 0.196607, 0, 0
0, 2640.00000, 0.450032, 0.191713, 0.441892, 0.188245, 0.461521, 0.196607, 0, 0
0, 2700.00000, 0.450032, 0.191713, 0.441892, 0.188245, 0.461521, 0.196607, 0, 0
0, 2760.00000, 0.453334, 0.19312, 0.446807, 0.190343, 0.461111, 0.196432, 0, 0
0, 2820.00000, 0.453339, 0.193122, 0.446815, 0.190342, 0.461108, 0.196431, 0, 0
0, 2880.00000, 0.453339, 0.193122, 0.446815, 0.190342, 0.461108, 0.196431, 0, 0
0, 2940.00000, 0.453339, 0.193122, 0.446815, 0.190342, 0.461108, 0.196431, 0, 0
0, 3000.00000, 0.453339, 0.193122, 0.446815, 0.190342, 0.461108, 0.196431, 0, 0
0, 3060.00000, 0.453339, 0.193122, 0.446815, 0.190342, 0.461108, 0.196431, 0, 0
0, 3120.00000, 0.453339, 0.193122, 0.446815, 0.190342, 0.461108, 0.196431, 0, 0
0, 3180.00000, 0.453339, 0.193122, 0.446815, 0.190342, 0.461108, 0.196431, 0, 0
0, 3240.00000, 0.453339, 0.193122, 0.446815, 0.190342, 0.461108, 0.196431, 0, 0
0, 3300.00000, 0.453339, 0.193122, 0.446815, 0.190342, 0.461108, 0.196431, 0, 0
0, 3360.00000, 0.453339, 0.193122, 0.446815, 0.190342, 0.461108, 0.196431, 0, 0
0, 3420.00000, 0.453339, 0.193122, 0.446815, 0.190342, 0.461108, 0.196431, 0, 0
0, 3480.00000, 0.453339, 0.193122, 0.446815, 0.190342, 0.461108, 0.196431, 0, 0
0, 3540.00000, 0.453339, 0.193122, 0.446815, 0.190342, 0.461108, 0.196431, 0, 0
1, 0.00000, 0.453339, 0.193122, 0.446815, 0.190342, 0.461108, 0.196431, 0, 0
1, 60.00000, 0.454982, 0.193821, 0.450045, 0.191722, 0.460943, 0.196361, 0, 0
1, 120.00000, 0.454985, 0.193823, 0.450052, 0.191722, 0.46094, 0.19636, 0, 0
1, 180.00000, 0.454985, 0.193823, 0.450052, 0.191722, 0.46094, 0.19636, 0, 0
1, 240.00000, 0.454985, 0.193823, 0.450052, 0.191722, 0.46094, 0.19636, 0, 0
1, 300.00000, 0.454985, 0.193823, 0.450052, 0.191722, 0.46094, 0.19636, 0, 0
1, 360.00000, 0.454985, 0.193823, 0.450052, 0.191722, 0.46094, 0.19636, 0, 0
1, 420.00000, 0.454985, 0.193823, 0.450052, 0.191722, 0.46094, 0.19636, 0, 0
1, 480.00000, 0.454985, 0.193823, 0.450052, 0.191722, 0.46094, 0.19636, 0, 0
1, 540.00000, 0.454985, 0.193823, 0.450052, 0.191722, 0.46094, 0.19636, 0, 0
1, 600.00000, 0.454985, 0.193823, 0.450052, 0.191722, 0.46094, 0.19636, 0, 0
1, 660.00000, 0.454985, 0.193823, 0.450052, 0.191722, 0.46094, 0.19636, 0, 0
1, 720.00000, 0.454985, 0.193823, 0.450052, 0.191722, 0.46094, 0.19636, 0, 0
1, 780.00000, 0.455051, 0.193851, 0.451229, 0.192223, 0.463733, 0.197551, 0, 0
1, 840.00000, 0.455049, 0.19385, 0.45123, 0.192223, 0.463739, 0.197552, 0, 0
1, 900.00000, 0.455049, 0.19385, 0.45123, 0.192223, 0.463739, 0.197552, 0, 0
1, 960.00000, 0.455049, 0.19385, 0.45123, 0.192223, 0.463739, 0.197552, 0, 0
1, 1020.00000, 0.455049, 0.19385, 0.45123, 0.192223, 0.463739, 0.197552, 0, 0
1, 1080.00000, 0.455049, 0.19385, 0.45123, 0.192223, 0.463739, 0.197552, 0, 0
1, 1140.00000, 0.455049, 0.19385, 0.45123, 0.192223, 0.463739, 0.197552, 0, 0
1, 1200.00000, 0.455049, 0.19385, 0.45123, 0.192223, 0.463739, 0.197552, 0, 0
1, 1260.00000, 0.455049, 0.19385, 0.45123, 0.192223, 0.463739, 0.197552, 0, 0
1, 1320.00000, 0.455049, 0.19385, 0.45123, 0.192223, 0.463739, 0.197552, 0, 0
1, 1380.00000, 0.455049, 0.19385, 0.45123, 0.192223, 0.463739, 0.197552, 0, 0
1, 1440.00000, 0.455049, 0.19385, 0.45123, 0.192223, 0.463739, 0.197552, 0, 0
1, 1500.00000, 0.455049, 0.19385, 0.45123, 0.192223, 0.463739, 0.197552, 0, 0
1, 1560.00000, 0.455049, 0.19385, 0.45123, 0.192223, 0.463739, 0.197552, 0, 0
1, 1620.00000, 0.455049, 0.19385, 0.45123, 0.192223, 0.463739, 0.197552, 0, 0
1, 1680.00000, 0.455049, 0.19385, 0.45123, 0.192223, 0.463739, 0.197552, 0, 0
1, 1740.00000, 0.455049, 0.19385, 0.45123, 0.192223, 0.463739, 0.197552, 0, 0
1, 1800.00000, 0.455049, 0.19385, 0.45123, 0.192223, 0.463739, 0.197552, 0, 0
1, 1860.00000, 0.455049, 0.19385, 0.45123, 0.192223, 0.463739, 0.197552, 0, 0
1, 1920.00000, 0.455049, 0.19385, 0.45123, 0.192223, 0.463739, 0.197552, 0, 0
1, 1980.00000, 0.455049, 0.19385, 0.45123, 0.192223, 0.463739, 0.197552, 0, 0
1, 2040.00000, 0.455049, 0.19385, 0.45123, 0.192223, 0.463739, 0.197552, 0, 0
1, 2100.00000, 0.455049, 0.19385, 0.45123, 0.192223, 0.463739, 0.197552, 0, 0
1, 2160.00000, 0.455049, 0.19385, 0.45123, 0.192223, 0.463739, 0.197552, 0, 0
1, 2220.00000, 0.457314, 0.194815, 0.454961, 0.193814, 0.463594, 0.19749, 0, 0
1, 2280.00000, 0.457315, 0.194816, 0.454967, 0.193815, 0.463592, 0.19749, 0, 0
1, 2340.00000, 0.457315, 0.194816, 0.454967, 0.193815, 0.463592, 0.19749, 0, 0
1, 2400.00000, 0.457315, 0.194816, 0.454967, 0.193815, 0.463592, 0.19749, 0, 0
1, 2460.00000, 0.457315, 0.194816, 0.454967, 0.193815, 0.463592, 0.19749, 0, 0
1, 2520.00000, 0.457315, 0.194816, 0.454967, 0.193815, 0.463592, 0.19749, 0, 0
1, 2580.00000, 0.457315, 0.194816, 0.454967, 0.193815, 0.463592, 0.19749, 0, 0
1, 2640.00000, 0.457315, 0.194816, 0.454967, 0.193815, 0.463592, 0.19749, 0, 0
1, 2700.00000, 0.457315, 0.194816, 0.454967, 0.193815, 0.463592, 0.19749, 0, 0
1, 2760.00000, 0.457315, 0.194816, 0.454967, 0.193815, 0.463592, 0.19749, 0, 0
1, 2820.00000, 0.457315, 0.194816, 0.454967, 0.193815, 0.463592, 0.19749, 0, 0
1, 2880.00000, 0.457315, 0.194816, 0.454967, 0.193815, 0.463592, 0.19749, 0, 0
1, 2940.00000, 0.457315, 0.194816, 0.454967, 0.193815, 0.463592, 0.19749, 0, 0
1, 3000.00000, 0.457315, 0.194816, 0.454967, 0.193815, 0.463592, 0.19749, 0, 0
1, 3060.00000, 0.457315, 0.194816, 0.454967, 0.193815, 0.463592, 0.19749, 0, 0
1, 3120.00000, 0.457315, 0.194816, 0.454967, 0.193815, 0.463592, 0.19749, 0, 0
1, 3180.00000, 0.457315, 0.194816, 0.454967, 0.193815, 0.463592, 0.19749, 0, 0
1, 3240.00000, 0.457315, 0.194816, 0.454967, 0.193815, 0.463592, 0.19749, 0, 0
1, 3300.00000, 0.457315, 0.194816, 0.454967, 0.193815, 0.463592, 0.19749, 0, 0
1, 3360.00000, 0.457315, 0.194816, 0.454967, 0.193815, 0.463592, 0.19749, 0, 0
1, 3420.00000, 0.457315, 0.194816, 0.454967, 0.193815, 0.463592, 0.19749, 0, 0
1, 3480.00000, 0.457315, 0.194816, 0.454967, 0.193815, 0.463592, 0.19749, 0, 0
1, 3540.00000, 0.457315, 0.194816, 0.454967, 0.193815, 0.463592, 0.19749, 0, 0
2, 0.00000, 0.457315, 0.194816, 0.454967, 0.193815, 0.463592, 0.19749, 0, 0
2, 60.00000, 0.457315, 0.194816, 0.454967, 0.193815, 0.463592, 0.19749, 0, 0
2, 120.00000, 0.457315, 0.194816, 0.454967, 0.193815, 0.463592, 0.19749, 0, 0
2, 180.00000, 0.457315, 0.194816, 0.454967, 0.193815, 0.463592, 0.19749, 0, 0
2, 240.00000, 0.457315, 0.194816, 0.454967, 0.193815, 0.463592, 0.19749, 0, 0
2, 300.00000, 0.457315, 0.194816, 0.454967, 0.193815, 0.463592, 0.19749, 0, 0
2, 360.00000, 0.457315, 0.194816, 0.454967, 0.193815, 0.463592, 0.19749, 0, 0
2, 420.00000, 0.457315, 0.194816, 0.454967, 0.193815, 0.463592, 0.19749, 0, 0
2, 480.00000, 0.457315, 0.194816, 0.454967, 0.193815, 0.463592, 0.19749, 0, 0
2, 540.00000, 0.457315, 0.194816, 0.454967, 0.193815, 0.463592, 0.19749, 0, 0
2, 600.00000, 0.457315, 0.194816, 0.454967, 0.193815, 0.463592, 0.19749, 0, 0
2, 660.00000, 0.457315, 0.194816, 0.454967, 0.193815, 0.463592, 0.19749, 0, 0
2, 720.00000, 0.457315, 0.194816, 0.454967, 0.193815, 0.463592, 0.19749, 0, 0
2, 780.00000, 0.457315, 0.194816, 0.454967, 0.193815, 0.463592, 0.19749, 0, 0
2, 840.00000, 0.457515, 0.194902, 0.458689, 0.1954, 0.46772, 0.199251, 0, 0
2, 900.00000, 0.457513, 0.1949, 0.458691, 0.195401, 0.467713, 0.199245, 0, 0
2, 960.00000, 0.457513, 0.1949, 0.458691, 0.195401, 0.467713, 0.199245, 0, 0
2, 1020.00000, 0.457513, 0.1949, 0.458691, 0.195401, 0.467713, 0.199245, 0, 0
2, 1080.00000, 0.457513, 0.1949, 0.458691, 0.195401, 0.467713, 0.199245, 0, 0
2, 1140.00000, 0.457513, 0.1949, 0.458691, 0.195401, 0.467713, 0.199245, 0, 0
2, 1200.00000, 0.457513, 0.1949, 0.458691, 0.195401, 0.467713, 0.199245, 0, 0
2, 1260.00000, 0.457513, 0.1949, 0.458691, 0.195401, 0.467713, 0.199245, 0, 0
2, 1320.00000, 0.457513, 0.1949, 0.458691, 0.195401, 0.467713, 0.199245, 0, 0
2, 1380.00000, 0.457513, 0.1949, 0.458691, 0.195401, 0.467713, 0.199245, 0, 0
2, 1440.00000, 0.457513, 0.1949, 0.458691, 0.195401, 0.467713, 0.199245, 0, 0
2, 1500.00000, 0.457513, 0.1949, 0.458691, 0.195401, 0.467713, 0.199245, 0, 0
2, 1560.00000, 0.457513, 0.1949, 0.458691, 0.195401, 0.467713, 0.199245, 0, 0
2, 1620.00000, 0.457513, 0.1949, 0.458691, 0.195401, 0.467713, 0.199245, 0, 0
2, 1680.00000, 0.457513, 0.1949, 0.458691, 0.195401, 0.467713, 0.199245, 0, 0
2, 1740.00000, 0.457513, 0.1949, 0.458691, 0.195401, 0.467713, 0.199245, 0, 0
2, 1800.00000, 0.457513, 0.1949, 0.458691, 0.195401, 0.467713, 0.199245, 0, 0
2, 1860.00000, 0.457513, 0.1949, 0.458691, 0.195401, 0.467713, 0.199245, 0, 0
2, 1920.00000, 0.457513, 0.1949, 0.458691, 0.195401, 0.467713, 0.199245, 0, 0
2, 1980.00000, 0.457513, 0.1949, 0.458691, 0.195401, 0.467713, 0.199245, 0, 0
2, 2040.00000, 0.457513, 0.1949, 0.458691, 0.195401, 0.467713, 0.199245, 0, 0
2, 2100.00000, 0.457513, 0.1949, 0.458691, 0.195401, 0.467713, 0.199245, 0, 0
2, 2160.00000, 0.457513, 0.1949, 0.458691, 0.195401, 0.467713, 0.199245, 0, 0
2, 2220.00000, 0.457513, 0.1949, 0.458691, 0.195401, 0.467713, 0.199245, 0, 0
2, 2280.00000, 0.457513, 0.1949, 0.458691, 0.195401, 0.467713, 0.199245, 0, 0
2, 2340.00000, 0.457513, 0.1949, 0.458691, 0.195401, 0.467713, 0.199245, 0, 0
2, 2400.00000, 0.460425, 0.196144, 0.458662, 0.195389, 0.467718, 0.199249, 0, 0
2, 2460.00000, 0.460433, 0.196144, 0.45866, 0.195388, 0.467713, 0.199245, 0, 0
2, 2520.00000, 0.460433, 0.196144, 0.45866, 0.195388, 0.467713, 0.199245, 0, 0
2, 2580.00000, 0.460433, 0.196144, 0.45866, 0.195388, 0.467713, 0.199245, 0, 0
2, 2640.00000, 0.460433, 0.196144, 0.45866, 0.195388, 0.467713, 0.199245, 0, 0
2, 2700.00000, 0.460283, 0.196079, 0.456335, 0.194399, 0.466087, 0.198549, 0, 0
2, 2760.00000, 0.460284, 0.19608, 0.456334, 0.194398, 0.466077, 0.198548, 0, 0
2, 2820.00000, 0.460284, 0.19608, 0.456334, 0.194398, 0.466077, 0.198548, 0, 0
2, 2880.00000, 0.460284, 0.19608, 0.456334, 0.194398, 0.466077, 0.198548, 0, 0
2, 2940.00000, 0.460284, 0.19608, 0.456334, 0.194398, 0.466077, 0.198548, 0, 0
2, 3000.00000, 0.460284, 0.19608, 0.456334, 0.194398, 0.466077, 0.198548, 0, 0
2, 3060.00000, 0.4605, 0.196174, 0.458805, 0.195448, 0.467722, 0.199253, 0, 0
2, 3120.00000, 0.460498, 0.196171, 0.458807, 0.195451, 0.467713, 0.199245, 0, 0
2, 3180.00000, 0.460498, 0.196171, 0.458807, 0.195451, 0.467713, 0.199245, 0, 0
2, 3240.00000, 0.460498, 0.196171, 0.458807, 0.195451, 0.467713, 0.199245, 0, 0
2, 3300.00000, 0.460498, 0.196171, 0.458807, 0.195451, 0.467713, 0.199245, 0, 0
2, 3360.00000, 0.460498, 0.196171, 0.458807, 0.195451, 0.467713, 0.199245, 0, 0
2, 3420.00000, 0.460498, 0.196171, 0.458807, 0.195451, 0.467713, 0.199245, 0, 0
2, 3480.00000, 0.460498, 0.196171, 0.458807, 0.195451, 0.467713, 0.199245, 0, 0
2, 3540.00000, 0.460498, 0.196171, 0.458807, 0.195451, 0.467713, 0.199245, 0, 0
3, 0.00000, 0.460498, 0.196171, 0.458807, 0.195451, 0.467713, 0.199245, 0, 0
3, 60.00000, 0.460498, 0.196171, 0.458807, 0.195451, 0.467713, 0.199245, 0, 0
3, 120.00000, 0.460498, 0.196171, 0.458807, 0.195451, 0.467713, 0.199245, 0, 0
3, 180.00000, 0.460498, 0.196171, 0.458807, 0.195451, 0.467713, 0.199245, 0, 0
3, 240.00000, 0.460498, 0.196171, 0.458807, 0.195451, 0.467713, 0.199245, 0, 0
3, 300.00000, 0.460498, 0.196171, 0.458807, 0.195451, 0.467713, 0.199245, 0, 0
3, 360.00000, 0.460498, 0.196171, 0.458807, 0.195451, 0.467713, 0.199245, 0, 0
3, 420.00000, 0.460498, 0.196171, 0.458807, 0.195451, 0.467713, 0.199245, 0, 0
3, 480.00000, 0.460498, 0.196171, 0.458807, 0.195451, 0.467713, 0.199245, 0, 0
3, 540.00000, 0.460498, 0.196171, 0.458807, 0.195451, 0.467713, 0.199245, 0, 0
3, 600.00000, 0.460498, 0.196171, 0.458807, 0.195451, 0.467713, 0.199245, 0, 0
3, 660.00000, 0.460498, 0.196171, 0.458807, 0.195451, 0.467713, 0.199245, 0, 0
3, 720.00000, 0.460498, 0.196171, 0.458807, 0.195451, 0.467713, 0.199245, 0, 0
3, 780.00000, 0.460498, 0.196171, 0.458807, 0.195451, 0.467713, 0.199245, 0, 0
3, 840.00000, 0.460498, 0.196171, 0.458807, 0.195451, 0.467713, 0.199245, 0, 0
3, 900.00000, 0.460498, 0.196171, 0.458807, 0.195451, 0.467713, 0.199245, 0, 0
3, 960.00000, 0.460498, 0.196171, 0.458807, 0.195451, 0.467713, 0.199245, 0, 0
3, 1020.00000, 0.460498, 0.196171, 0.458807, 0.195451, 0.467713, 0.199245, 0, 0
3, 1080.00000, 0.460498, 0.196171, 0.458807, 0.195451, 0.467713, 0.199245, 0, 0
3, 1140.00000, 0.460498, 0.196171, 0.458807, 0.195451, 0.467713, 0.199245, 0, 0
3, 1200.00000, 0.460498, 0.196171, 0.458807, 0.195451, 0.467713, 0.199245, 0, 0
3, 1260.00000, 0.460498, 0.196171, 0.458807, 0.195451, 0.467713, 0.199245, 0, 0
3, 1320.00000, 0.460498, 0.196171, 0.458807, 0.195451, 0.467713, 0.199245, 0, 0
3, 1380.00000, 0.460498, 0.196171, 0.458807, 0.195451, 0.467713, 0.199245, 0, 0
3, 1440.00000, 0.460498, 0.196171, 0.458807, 0.195451, 0.467713, 0.199245, 0, 0
3, 1500.00000, 0.460498, 0.196171, 0.458807, 0.195451, 0.467713, 0.199245, 0, 0
3, 1560.00000, 0.460498, 0.196171, 0.458807, 0.195451, 0.467713, 0.199245, 0, 0
3, 1620.00000, 0.460498, 0.196171, 0.458807, 0.195451, 0.467713, 0.199245, 0, 0
3, 1680.00000, 0.460498, 0.196171, 0.458807, 0.195451, 0.467713, 0.199245, 0, 0
3, 1740.00000, 0.460498, 0.196171, 0.458807, 0.195451, 0.467713, 0.199245, 0, 0
3, 1800.00000, 0.460498, 0.196171, 0.458807, 0.195451, 0.467713, 0.199245, 0, 0
3, 1860.00000, 0.460498, 0.196171, 0.458807, 0.195451, 0.467713, 0.199245, 0, 0
3, 1920.00000, 0.460498, 0.196171, 0.458807, 0.195451, 0.467713, 0.199245, 0, 0
3, 1980.00000, 0.460498, 0.196171, 0.458807, 0.195451, 0.467713, 0.199245, 0, 0
3, 2040.00000, 0.460498, 0.196171, 0.458807, 0.195451, 0.467713, 0.199245, 0, 0
3, 2100.00000, 0.460498, 0.196171, 0.458807, 0.195451, 0.467713, 0.199245, 0, 0
3, 2160.00000, 0.460498, 0.196171, 0.458807, 0.195451, 0.467713, 0.199245, 0, 0
3, 2220.00000, 0.460498, 0.196171, 0.458807, 0.195451, 0.467713, 0.199245, 0, 0
3, 2280.00000, 0.460498, 0.196171, 0.458807, 0.195451, 0.467713, 0.199245, 0, 0
3, 2340.00000, 0.460498, 0.196171, 0.458807, 0.195451, 0.467713, 0.199245, 0, 0
3, 2400.00000, 0.460498, 0.196171, 0.458807, 0.195451, 0.467713, 0.199245, 0, 0
3, 2460.00000, 0.460498, 0.196171, 0.458807, 0.195451, 0.467713, 0.199245, 0, 0
3, 2520.00000, 0.460498, 0.196171, 0.458807, 0.195451, 0.467713, 0.199245, 0, 0
3, 2580.00000, 0.460498, 0.196171, 0.458807, 0.195451, 0.467713, 0.199245, 0, 0
3, 2640.00000, 0.460498, 0.196171, 0.458807, 0.195451, 0.467713, 0.199245, 0, 0
3, 2700.00000, 0.460498, 0.196171, 0.458807, 0.195451, 0.467713, 0.199245, 0, 0
3, 2760.00000, 0.460498, 0.196171, 0.458807, 0.195451, 0.467713, 0.199245, 0, 0
3, 2820.00000, 0.460498, 0.196171, 0.458807, 0.195451, 0.467713, 0.199245, 0, 0
3, 2880.00000, 0.460498, 0.196171, 0.458807, 0.195451, 0.467713, 0.199245, 0, 0
3, 2940.00000, 0.460498, 0.196171, 0.458807, 0.195451, 0.467713, 0.199245, 0, 0
3, 3000.00000, 0.460498, 0.196171, 0.458807, 0.195451, 0.467713, 0.199245, 0, 0
3, 3060.00000, 0.460498, 0.196171, 0.458807, 0.195451, 0.467713, 0.199245, 0, 0
3, 3120.00000, 0.460498, 0.196171, 0.458807, 0.195451, 0.467713, 0.199245, 0, 0
3, 3180.00000, 0.444766, 0.189468, 0.44321, 0.188807, 0.453407, 0.19315, 0, 0
3, 3240.00000, 0.444764, 0.189468, 0.443209, 0.188806, 0.45341, 0.193152, 0, 0
3, 3300.00000, 0.444764, 0.189468, 0.443209, 0.188806, 0.45341, 0.193152, 0, 0
3, 3360.00000, 0.444764, 0.189468, 0.443209, 0.188806, 0.45341, 0.193152, 0, 0
3, 3420.00000, 0.444764, 0.189468, 0.443209, 0.188806, 0.45341, 0.193152, 0, 0
3, 3480.00000, 0.444764, 0.189468, 0.443209, 0.188806, 0.45341, 0.193152, 0, 0
3, 3540.00000, 0.444764, 0.189468, 0.443209, 0.188806, 0.45341, 0.193152, 0, 0
4, 0.00000, 0.444046, 0.189162, 0.42741, 0.182074, 0.437991, 0.186586, 0, 0
4, 60.00000, 0.444047, 0.189163, 0.427402, 0.182073, 0.437983, 0.18658, 0, 0
4, 120.00000, 0.444047, 0.189163, 0.427402, 0.182073, 0.437983, 0.18658, 0, 0
4, 180.00000, 0.444047, 0.189163, 0.427402, 0.182073, 0.437983, 0.18658, 0, 0
4, 240.00000, 0.444047, 0.189163, 0.427402, 0.182073, 0.437983, 0.18658, 0, 0
4, 300.00000, 0.444047, 0.189163, 0.427402, 0.182073, 0.437983, 0.18658, 0, 0
4, 360.00000, 0.444047, 0.189163, 0.427402, 0.182073, 0.437983, 0.18658, 0, 0
4, 420.00000, 0.444047, 0.189163, 0.427402, 0.182073, 0.437983, 0.18658, 0, 0
4, 480.00000, 0.444047, 0.189163, 0.427402, 0.182073, 0.437983, 0.18658, 0, 0
4, 540.00000, 0.444047, 0.189163, 0.427402, 0.182073, 0.437983, 0.18658, 0, 0
4, 600.00000, 0.444047, 0.189163, 0.427402, 0.182073, 0.437983, 0.18658, 0, 0
4, 660.00000, 0.444047, 0.189163, 0.427402, 0.182073, 0.437983, 0.18658, 0, 0
4, 720.00000, 0.444047, 0.189163, 0.427402, 0.182073, 0.437983, 0.18658, 0, 0
