hour,t(sec),V1,VAngle1,V2,VAngle2,V3,VAngle3,V4,VAngle4,I1,IAngle1,I2,IAngle2,I3,IAngle3,I4,IAngle4
0, 60.00000, 118.445, -32.5143, 115.869, -152.112, 118.498, 89.0625, 0, 0, 9.07988, -55.588, 8.86039, -175.185, 9.08407, 65.9892, 0.0634826, -88.7903
0, 120.00000, 118.449, -32.5285, 115.868, -152.112, 118.527, 89.0569, 0, 0, 9.08015, -55.6022, 8.86034, -175.186, 9.08655, 65.9835, 0.0639662, -88.9546
0, 180.00000, 118.452, -32.5413, 115.867, -152.113, 118.553, 89.0518, 0, 0, 9.08039, -55.6151, 8.86029, -175.186, 9.08879, 65.9784, 0.0644017, -89.1003
0, 240.00000, 118.454, -32.5528, 115.867, -152.113, 118.577, 89.0472, 0, 0, 9.0806, -55.6266, 8.86024, -175.187, 9.09079, 65.9738, 0.0647942, -89.2298
0, 300.00000, 118.457, -32.5632, 115.866, -152.113, 118.598, 89.0431, 0, 0, 9.08079, -55.637, 8.8602, -175.187, 9.0926, 65.9696, 0.0651478, -89.3449
0, 360.00000, 118.459, -32.5725, 115.866, -152.114, 118.617, 89.0393, 0, 0, 9.08096, -55.6463, 8.86016, -175.187, 9.09423, 65.9658, 0.0654702, -89.4485
0, 420.00000, 118.46, -32.5809, 115.866, -152.114, 118.634, 89.036, 0, 0, 9.08111, -55.6548, 8.86013, -175.188, 9.0957, 65.9624, 0.0657706, -89.5437
0, 480.00000, 119.525, -32.4988, 116.813, -152.045, 119.678, 89.1431, 0, 0, 8.28722, -55.5726, 8.07855, -175.119, 8.29875, 66.0695, 0.0623888, -92.0478
0, 540.00000, 119.527, -32.5057, 116.813, -152.046, 119.692, 89.1404, 0, 0, 8.28733, -55.5795, 8.07851, -175.119, 8.29988, 66.0668, 0.0626587, -92.1269
0, 600.00000, 119.528, -32.5118, 116.812, -152.046, 119.705, 89.138, 0, 0, 8.28743, -55.5856, 8.07849, -175.12, 8.3009, 66.0643, 0.0629096, -92.1995
0, 660.00000, 119.529, -32.5173, 116.812, -152.046, 119.717, 89.1358, 0, 0, 8.28752, -55.5911, 8.07846, -175.12, 8.30182, 66.0621, 0.0631356, -92.2644
0, 720.00000, 119.531, -32.5223, 116.812, -152.046, 119.728, 89.1338, 0, 0, 8.2876, -55.5961, 8.07844, -175.12, 8.30265, 66.0601, 0.0633391, -92.3223
0, 780.00000, 119.532, -32.5268, 116.812, -152.047, 119.737, 89.132, 0, 0, 8.28767, -55.6006, 8.07841, -175.12, 8.30339, 66.0583, 0.0635223, -92.3742
0, 840.00000, 119.532, -32.5308, 116.811, -152.047, 119.746, 89.1304, 0, 0, 8.28774, -55.6046, 8.0784, -175.121, 8.30406, 66.0567, 0.0636872, -92.4205
0, 900.00000, 119.533, -32.5344, 116.811, -152.047, 119.754, 89.129, 0, 0, 8.2878, -55.6083, 8.07838, -175.121, 8.30467, 66.0552, 0.0638357, -92.4621
0, 960.00000, 119.115, -32.8637, 116.03, -152.052, 119.794, 89.1069, 0, 0, 8.25563, -55.9376, 8.0183, -175.126, 8.30781, 66.0331, 0.0716054, -97.4905
0, 1020.00000, 119.116, -32.8666, 116.03, -152.052, 119.801, 89.1057, 0, 0, 8.25567, -55.9405, 8.01829, -175.126, 8.30829, 66.0319, 0.0717275, -97.51
0, 1080.00000, 119.116, -32.8693, 116.03, -152.052, 119.806, 89.1047, 0, 0, 8.25571, -55.9432, 8.01828, -175.126, 8.30873, 66.0308, 0.0718388, -97.5278
0, 1140.00000, 119.204, -32.7372, 116.314, -152.016, 119.807, 89.1083, 0, 0, 8.2625, -55.811, 8.04017, -175.089, 8.30883, 66.0344, 0.0699989, -95.8866
0, 1200.00000, 119.205, -32.7393, 116.314, -152.016, 119.812, 89.1074, 0, 0, 8.26253, -55.8132, 8.04016, -175.09, 8.30918, 66.0336, 0.0700882, -95.9035
0, 1260.00000, 119.205, -32.7412, 116.314, -152.016, 119.816, 89.1066, 0, 0, 8.26256, -55.8151, 8.04016, -175.09, 8.3095, 66.0328, 0.070169, -95.9186
0, 1320.00000, 119.206, -32.7429, 116.314, -152.016, 119.82, 89.1059, 0, 0, 8.26259, -55.8168, 8.04015, -175.09, 8.30979, 66.0321, 0.0702416, -95.9322
0, 1380.00000, 119.206, -32.7445, 116.314, -152.016, 119.823, 89.1053, 0, 0, 8.26261, -55.8184, 8.04014, -175.09, 8.31005, 66.0314, 0.070307, -95.9444
0, 1440.00000, 119.206, -32.7459, 116.314, -152.016, 119.826, 89.1047, 0, 0, 8.26263, -55.8198, 8.04014, -175.09, 8.31028, 66.0309, 0.0703658, -95.9553
0, 1500.00000, 119.207, -32.7472, 116.314, -152.016, 119.829, 89.1042, 0, 0, 8.26265, -55.8211, 8.04013, -175.09, 8.31049, 66.0303, 0.0704188, -95.9651
0, 1560.00000, 119.207, -32.7483, 116.314, -152.016, 119.831, 89.1038, 0, 0, 8.26267, -55.8222, 8.04013, -175.09, 8.31068, 66.0299, 0.0704665, -95.974
0, 1620.00000, 119.207, -32.7493, 116.314, -152.016, 119.833, 89.1033, 0, 0, 8.26268, -55.8232, 8.04012, -175.09, 8.31085, 66.0295, 0.0705094, -95.9819
0, 1680.00000, 119.207, -32.7502, 116.314, -152.016, 119.835, 89.103, 0, 0, 8.2627, -55.8241, 8.04012, -175.09, 8.311, 66.0291, 0.070548, -95.9891
0, 1740.00000, 119.207, -32.7511, 116.314, -152.016, 119.837, 89.1026, 0, 0, 8.26271, -55.825, 8.04012, -175.09, 8.31114, 66.0287, 0.0705828, -95.9955
0, 1800.00000, 118.602, -32.7061, 116.313, -152.006, 119.39, 88.8815, 0, 0, 8.21612, -55.78, 8.04003, -175.08, 8.27677, 65.8076, 0.0665803, -91.6828
0, 1860.00000, 118.602, -32.7067, 116.313, -152.006, 119.392, 88.8812, 0, 0, 8.21613, -55.7806, 8.04003, -175.08, 8.27687, 65.8073, 0.0666037, -91.6893
0, 1920.00000, 118.602, -32.7073, 116.313, -152.006, 119.393, 88.881, 0, 0, 8.21614, -55.7812, 8.04002, -175.08, 8.27697, 65.8071, 0.0666258, -91.6954
0, 1980.00000, 118.602, -32.7079, 116.313, -152.006, 119.394, 88.8807, 0, 0, 8.21615, -55.7818, 8.04002, -175.08, 8.27706, 65.8068, 0.0666456, -91.7008
0, 2040.00000, 118.602, -32.7083, 116.313, -152.006, 119.395, 88.8805, 0, 0, 8.21616, -55.7823, 8.04002, -175.08, 8.27714, 65.8066, 0.0666635, -91.7057
0, 2100.00000, 118.602, -32.7088, 116.313, -152.006, 119.396, 88.8804, 0, 0, 8.21616, -55.7827, 8.04002, -175.08, 8.27721, 65.8065, 0.0666796, -91.7101
0, 2160.00000, 118.602, -32.7092, 116.312, -152.006, 119.397, 88.8802, 0, 0, 8.21617, -55.7831, 8.04002, -175.08, 8.27727, 65.8063, 0.0666941, -91.7141
0, 2220.00000, 118.602, -32.7095, 116.312, -152.006, 119.398, 88.8801, 0, 0, 8.21618, -55.7834, 8.04002, -175.08, 8.27733, 65.8062, 0.0667072, -91.7177
0, 2280.00000, 118.603, -32.7098, 116.312, -152.006, 119.398, 88.88, 0, 0, 8.21618, -55.7837, 8.04001, -175.08, 8.27738, 65.806, 0.0667189, -91.7209
0, 2340.00000, 118.603, -32.7101, 116.312, -152.006, 119.399, 88.8798, 0, 0, 8.21618, -55.784, 8.04001, -175.08, 8.27743, 65.8059, 0.0667295, -91.7237
0, 2400.00000, 118.603, -32.7104, 116.312, -152.006, 119.399, 88.8797, 0, 0, 8.21619, -55.7843, 8.04001, -175.08, 8.27747, 65.8058, 0.066739, -91.7263
0, 2460.00000, 118.603, -32.7106, 116.312, -152.006, 119.4, 88.8796, 0, 0, 8.21619, -55.7845, 8.04001, -175.08, 8.27751, 65.8057, 0.0667475, -91.7287
0, 2520.00000, 118.603, -32.7108, 116.312, -152.006, 119.4, 88.8796, 0, 0, 8.2162, -55.7847, 8.04001, -175.08, 8.27754, 65.8056, 0.0667552, -91.7308
0, 2580.00000, 118.603, -32.711, 116.312, -152.006, 119.401, 88.8795, 0, 0, 8.2162, -55.7849, 8.04001, -175.08, 8.27757, 65.8056, 0.0667622, -91.7327
0, 2640.00000, 118.603, -32.7112, 116.312, -152.006, 119.401, 88.8794, 0, 0, 8.2162, -55.7851, 8.04001, -175.08, 8.2776, 65.8055, 0.0667684, -91.7344
0, 2700.00000, 118.603, -32.7113, 116.312, -152.006, 119.401, 88.8794, 0, 0, 8.2162, -55.7852, 8.04001, -175.08, 8.27762, 65.8054, 0.066774, -91.7359
0, 2760.00000, 118.909, -32.679, 116.314, -152.009, 119.523, 89.0143, 0, 0, 8.23973, -55.7529, 8.04014, -175.083, 8.28695, 65.9403, 0.0669003, -94.2497
0, 2820.00000, 118.909, -32.6791, 116.314, -152.009, 119.523, 89.0142, 0, 0, 8.23973, -55.753, 8.04014, -175.083, 8.28698, 65.9403, 0.0669109, -94.2522
0, 2880.00000, 118.909, -32.6792, 116.314, -152.009, 119.523, 89.0142, 0, 0, 8.23973, -55.7531, 8.04014, -175.083, 8.28699, 65.9403, 0.0669151, -94.2531
0, 2940.00000, 118.909, -32.6793, 116.314, -152.009, 119.523, 89.0141, 0, 0, 8.23973, -55.7532, 8.04014, -175.083, 8.28701, 65.9402, 0.0669189, -94.254
0, 3000.00000, 118.909, -32.6794, 116.314, -152.009, 119.524, 89.0141, 0, 0, 8.23974, -55.7533, 8.04014, -175.083, 8.28703, 65.9402, 0.0669223, -94.2548
0, 3060.00000, 118.909, -32.6795, 116.314, -152.009, 119.524, 89.0141, 0, 0, 8.23974, -55.7534, 8.04014, -175.083, 8.28704, 65.9401, 0.0669254, -94.2555
0, 3120.00000, 118.909, -32.6795, 116.314, -152.009, 119.524, 89.014, 0, 0, 8.23974, -55.7535, 8.04014, -175.083, 8.28705, 65.9401, 0.0669282, -94.2561
0, 3180.00000, 118.909, -32.6796, 116.314, -152.009, 119.524, 89.014, 0, 0, 8.23974, -55.7535, 8.04013, -175.083, 8.28706, 65.9401, 0.0669306, -94.2567
0, 3240.00000, 118.909, -32.6797, 116.314, -152.009, 119.524, 89.014, 0, 0, 8.23974, -55.7536, 8.04013, -175.083, 8.28707, 65.9401, 0.0669329, -94.2572
0, 3300.00000, 118.909, -32.6797, 116.314, -152.009, 119.524, 89.014, 0, 0, 8.23974, -55.7536, 8.04013, -175.083, 8.28708, 65.94, 0.0669349, -94.2576
0, 3360.00000, 118.909, -32.6798, 116.314, -152.009, 119.524, 89.0139, 0, 0, 8.23974, -55.7537, 8.04013, -175.083, 8.28709, 65.94, 0.0669367, -94.2581
0, 3420.00000, 118.909, -32.6798, 116.314, -152.009, 119.524, 89.0139, 0, 0, 8.23974, -55.7537, 8.04013, -175.083, 8.28709, 65.94, 0.0669383, -94.2584
0, 3480.00000, 118.909, -32.6798, 116.314, -152.009, 119.525, 89.0139, 0, 0, 8.23974, -55.7538, 8.04013, -175.083, 8.2871, 65.94, 0.0669398, -94.2588
0, 3540.00000, 118.909, -32.6799, 116.314, -152.009, 119.525, 89.0139, 0, 0, 8.23974, -55.7538, 8.04013, -175.083, 8.28711, 65.94, 0.0669411, -94.2591
1, 0.00000, 118.909, -32.6799, 116.314, -152.009, 119.525, 89.0139, 0, 0, 8.23974, -55.7538, 8.04013, -175.083, 8.28711, 65.94, 0.0669423, -94.2593
1, 60.00000, 118.993, -32.5493, 116.591, -151.975, 119.521, 89.0181, 0, 0, 8.24625, -55.6232, 8.06145, -175.049, 8.28685, 65.9442, 0.0654077, -92.3434
1, 120.00000, 118.993, -32.5493, 116.591, -151.975, 119.521, 89.0181, 0, 0, 8.24625, -55.6232, 8.06145, -175.049, 8.28686, 65.9442, 0.0654086, -92.3437
1, 180.00000, 118.993, -32.5493, 116.591, -151.975, 119.521, 89.0181, 0, 0, 8.24625, -55.6232, 8.06145, -175.049, 8.28686, 65.9442, 0.0654095, -92.344
1, 240.00000, 118.993, -32.5493, 116.591, -151.975, 119.521, 89.0181, 0, 0, 8.24625, -55.6232, 8.06145, -175.049, 8.28686, 65.9442, 0.0654102, -92.3442
1, 300.00000, 118.993, -32.5493, 116.591, -151.975, 119.521, 89.0181, 0, 0, 8.24625, -55.6233, 8.06145, -175.049, 8.28687, 65.9442, 0.0654109, -92.3444
1, 360.00000, 118.993, -32.5494, 116.591, -151.975, 119.522, 89.0181, 0, 0, 8.24625, -55.6233, 8.06145, -175.049, 8.28687, 65.9442, 0.0654116, -92.3445
1, 420.00000, 118.993, -32.5494, 116.591, -151.975, 119.522, 89.0181, 0, 0, 8.24625, -55.6233, 8.06145, -175.049, 8.28687, 65.9442, 0.0654121, -92.3447
1, 480.00000, 118.993, -32.5494, 116.591, -151.975, 119.522, 89.0181, 0, 0, 8.24625, -55.6233, 8.06145, -175.049, 8.28687, 65.9442, 0.0654126, -92.3448
1, 540.00000, 118.993, -32.5494, 116.591, -151.975, 119.522, 89.0181, 0, 0, 8.24625, -55.6233, 8.06145, -175.049, 8.28687, 65.9442, 0.0654131, -92.3449
1, 600.00000, 118.993, -32.5494, 116.591, -151.975, 119.522, 89.0181, 0, 0, 8.24625, -55.6233, 8.06145, -175.049, 8.28688, 65.9442, 0.0654135, -92.345
1, 660.00000, 118.993, -32.5494, 116.591, -151.975, 119.522, 89.0181, 0, 0, 8.24625, -55.6233, 8.06145, -175.049, 8.28688, 65.9442, 0.0654139, -92.3451
1, 720.00000, 118.993, -32.5494, 116.591, -151.975, 119.522, 89.0181, 0, 0, 8.24625, -55.6234, 8.06145, -175.049, 8.28688, 65.9442, 0.0654142, -92.3452
1, 780.00000, 119.087, -32.5529, 118.019, -151.532, 121.139, 88.6241, 0, 0, 8.25345, -55.6268, 8.17129, -174.606, 8.34225, 65.5502, 0.0264611, -31.5528
1, 840.00000, 119.087, -32.5529, 118.019, -151.532, 121.139, 88.6241, 0, 0, 8.25345, -55.6268, 8.17129, -174.606, 8.34224, 65.5502, 0.0264625, -31.541
1, 900.00000, 119.087, -32.5529, 118.019, -151.532, 121.139, 88.6241, 0, 0, 8.25345, -55.6268, 8.17129, -174.606, 8.34224, 65.5502, 0.0264623, -31.537
1, 960.00000, 119.087, -32.5529, 118.019, -151.532, 121.139, 88.6241, 0, 0, 8.25345, -55.6268, 8.17129, -174.606, 8.34224, 65.5502, 0.0264622, -31.5335
1, 1020.00000, 119.087, -32.5529, 118.019, -151.532, 121.139, 88.6241, 0, 0, 8.25345, -55.6269, 8.17129, -174.606, 8.34224, 65.5502, 0.026462, -31.5303
1, 1080.00000, 119.087, -32.5529, 118.019, -151.532, 121.139, 88.6241, 0, 0, 8.25345, -55.6269, 8.17129, -174.606, 8.34224, 65.5502, 0.0264619, -31.5275
1, 1140.00000, 119.087, -32.5529, 118.019, -151.532, 121.139, 88.6241, 0, 0, 8.25345, -55.6269, 8.17129, -174.606, 8.34224, 65.5502, 0.0264618, -31.5249
1, 1200.00000, 119.087, -32.5529, 118.019, -151.532, 121.139, 88.6241, 0, 0, 8.25345, -55.6269, 8.17129, -174.606, 8.34224, 65.5502, 0.0264617, -31.5226
1, 1260.00000, 119.087, -32.5529, 118.019, -151.532, 121.139, 88.6241, 0, 0, 8.25345, -55.6269, 8.17129, -174.606, 8.34224, 65.5502, 0.0264616, -31.5205
1, 1320.00000, 119.087, -32.553, 118.019, -151.532, 121.139, 88.6241, 0, 0, 8.25345, -55.6269, 8.17129, -174.606, 8.34224, 65.5502, 0.0264616, -31.5186
1, 1380.00000, 119.087, -32.553, 118.019, -151.532, 121.139, 88.6241, 0, 0, 8.25345, -55.6269, 8.17129, -174.606, 8.34224, 65.5502, 0.0264615, -31.5169
1, 1440.00000, 119.087, -32.553, 118.019, -151.532, 121.139, 88.6241, 0, 0, 8.25345, -55.6269, 8.17129, -174.606, 8.34223, 65.5502, 0.0264614, -31.5154
1, 1500.00000, 119.087, -32.553, 118.019, -151.532, 121.139, 88.6241, 0, 0, 8.25345, -55.6269, 8.17129, -174.606, 8.34223, 65.5502, 0.0264614, -31.514
1, 1560.00000, 119.087, -32.553, 118.019, -151.532, 121.139, 88.6241, 0, 0, 8.25345, -55.6269, 8.17129, -174.606, 8.34223, 65.5502, 0.0264613, -31.5128
1, 1620.00000, 119.087, -32.553, 118.019, -151.532, 121.139, 88.6241, 0, 0, 8.25345, -55.6269, 8.17129, -174.606, 8.34223, 65.5502, 0.0264613, -31.5117
1, 1680.00000, 119.087, -32.553, 118.019, -151.532, 121.139, 88.6241, 0, 0, 8.25345, -55.6269, 8.17129, -174.606, 8.34223, 65.5502, 0.0264613, -31.5107
1, 1740.00000, 119.087, -32.553, 118.019, -151.532, 121.139, 88.6241, 0, 0, 8.25345, -55.6269, 8.17129, -174.606, 8.34223, 65.5502, 0.0264612, -31.5098
1, 1800.00000, 119.087, -32.553, 118.019, -151.532, 121.139, 88.6241, 0, 0, 8.25345, -55.6269, 8.17129, -174.606, 8.34223, 65.5502, 0.0264612, -31.509
1, 1860.00000, 119.087, -32.553, 118.019, -151.532, 121.139, 88.6241, 0, 0, 8.25345, -55.6269, 8.17129, -174.606, 8.34223, 65.5502, 0.0264612, -31.5082
1, 1920.00000, 119.087, -32.553, 118.019, -151.532, 121.139, 88.6241, 0, 0, 8.25345, -55.6269, 8.17129, -174.606, 8.34223, 65.5502, 0.0264611, -31.5076
1, 1980.00000, 119.087, -32.553, 118.019, -151.532, 121.139, 88.6241, 0, 0, 8.25345, -55.6269, 8.17129, -174.606, 8.34223, 65.5502, 0.0264611, -31.507
1, 2040.00000, 119.087, -32.553, 118.019, -151.532, 121.139, 88.6241, 0, 0, 8.25345, -55.6269, 8.17129, -174.606, 8.34223, 65.5502, 0.0264611, -31.5065
1, 2100.00000, 119.087, -32.553, 118.019, -151.532, 121.139, 88.6241, 0, 0, 8.25345, -55.6269, 8.17129, -174.606, 8.34223, 65.5502, 0.0264611, -31.506
1, 2160.00000, 119.087, -32.553, 118.019, -151.532, 121.139, 88.6241, 0, 0, 8.25345, -55.6269, 8.17129, -174.606, 8.34223, 65.5502, 0.0264611, -31.5056
1, 2220.00000, 119.685, -32.594, 118.015, -151.547, 121.635, 88.8455, 0, 0, 8.29942, -55.6679, 8.17097, -174.621, 8.30821, 65.7716, 0.0621209, 43.9591
1, 2280.00000, 119.685, -32.594, 118.015, -151.547, 121.635, 88.8455, 0, 0, 8.29942, -55.6679, 8.17097, -174.621, 8.30821, 65.7716, 0.0621256, 43.9581
1, 2340.00000, 119.685, -32.594, 118.015, -151.547, 121.635, 88.8455, 0, 0, 8.29942, -55.6679, 8.17097, -174.621, 8.30821, 65.7716, 0.0621257, 43.9581
1, 2400.00000, 119.685, -32.594, 118.015, -151.547, 121.635, 88.8455, 0, 0, 8.29942, -55.6679, 8.17097, -174.621, 8.30821, 65.7716, 0.0621259, 43.9582
1, 2460.00000, 119.685, -32.594, 118.015, -151.547, 121.635, 88.8455, 0, 0, 8.29942, -55.6679, 8.17097, -174.621, 8.30821, 65.7716, 0.062126, 43.9582
1, 2520.00000, 119.685, -32.594, 118.015, -151.547, 121.635, 88.8455, 0, 0, 8.29942, -55.6679, 8.17097, -174.621, 8.30821, 65.7716, 0.0621261, 43.9582
1, 2580.00000, 119.685, -32.594, 118.015, -151.547, 121.635, 88.8455, 0, 0, 8.29942, -55.6679, 8.17097, -174.621, 8.30821, 65.7716, 0.0621262, 43.9583
1, 2640.00000, 119.685, -32.594, 118.015, -151.547, 121.635, 88.8455, 0, 0, 8.29942, -55.6679, 8.17097, -174.621, 8.30821, 65.7716, 0.0621263, 43.9583
1, 2700.00000, 119.685, -32.594, 118.015, -151.547, 121.635, 88.8455, 0, 0, 8.29942, -55.6679, 8.17097, -174.621, 8.30821, 65.7716, 0.0621263, 43.9583
1, 2760.00000, 119.685, -32.594, 118.015, -151.547, 121.635, 88.8455, 0, 0, 8.29942, -55.6679, 8.17097, -174.621, 8.30821, 65.7716, 0.0621264, 43.9583
1, 2820.00000, 119.685, -32.594, 118.015, -151.547, 121.635, 88.8455, 0, 0, 8.29942, -55.6679, 8.17097, -174.621, 8.30821, 65.7716, 0.0621265, 43.9584
1, 2880.00000, 119.685, -32.594, 118.015, -151.547, 121.635, 88.8455, 0, 0, 8.29942, -55.6679, 8.17097, -174.621, 8.30821, 65.7716, 0.0621265, 43.9584
1, 2940.00000, 119.685, -32.594, 118.015, -151.547, 121.635, 88.8455, 0, 0, 8.29942, -55.6679, 8.17097, -174.621, 8.30821, 65.7716, 0.0621266, 43.9584
1, 3000.00000, 119.685, -32.594, 118.015, -151.547, 121.635, 88.8455, 0, 0, 8.29942, -55.6679, 8.17097, -174.621, 8.30821, 65.7716, 0.0621266, 43.9584
1, 3060.00000, 119.685, -32.594, 118.015, -151.547, 121.635, 88.8455, 0, 0, 8.29942, -55.6679, 8.17097, -174.621, 8.30821, 65.7716, 0.0621266, 43.9584
1, 3120.00000, 119.685, -32.594, 118.015, -151.547, 121.635, 88.8455, 0, 0, 8.29942, -55.6679, 8.17097, -174.621, 8.30821, 65.7716, 0.0621267, 43.9584
1, 3180.00000, 119.685, -32.594, 118.015, -151.547, 121.635, 88.8455, 0, 0, 8.29942, -55.6679, 8.17097, -174.621, 8.30821, 65.7716, 0.0621267, 43.9584
1, 3240.00000, 119.685, -32.594, 118.015, -151.547, 121.635, 88.8455, 0, 0, 8.29942, -55.6679, 8.17097, -174.621, 8.30821, 65.7716, 0.0621267, 43.9584
1, 3300.00000, 119.685, -32.594, 118.015, -151.547, 121.635, 88.8455, 0, 0, 8.29942, -55.6679, 8.17097, -174.621, 8.30821, 65.7716, 0.0621268, 43.9585
1, 3360.00000, 119.685, -32.594, 118.015, -151.547, 121.635, 88.8455, 0, 0, 8.29942, -55.6679, 8.17097, -174.621, 8.30821, 65.7716, 0.0621268, 43.9585
1, 3420.00000, 119.685, -32.594, 118.015, -151.547, 121.635, 88.8455, 0, 0, 8.29942, -55.6679, 8.17097, -174.621, 8.30821, 65.7716, 0.0621268, 43.9585
1, 3480.00000, 119.685, -32.594, 118.015, -151.547, 121.635, 88.8455, 0, 0, 8.29942, -55.6679, 8.17097, -174.621, 8.30821, 65.7716, 0.0621268, 43.9585
1, 3540.00000, 119.685, -32.594, 118.015, -151.547, 121.635, 88.8455, 0, 0, 8.29942, -55.6679, 8.17097, -174.621, 8.30821, 65.7716, 0.0621268, 43.9585
2, 0.00000, 119.685, -32.594, 118.015, -151.547, 121.635, 88.8455, 0, 0, 8.29942, -55.6679, 8.17097, -174.621, 8.30821, 65.7716, 0.0621269, 43.9585
2, 60.00000, 119.685, -32.594, 118.015, -151.547, 121.635, 88.8455, 0, 0, 8.29942, -55.6679, 8.17097, -174.621, 8.30821, 65.7716, 0.0621269, 43.9585
2, 120.00000, 119.685, -32.594, 118.015, -151.547, 121.635, 88.8455, 0, 0, 8.29942, -55.6679, 8.17097, -174.621, 8.30821, 65.7716, 0.0621269, 43.9585
2, 180.00000, 119.685, -32.594, 118.015, -151.547, 121.635, 88.8455, 0, 0, 8.29942, -55.6679, 8.17097, -174.621, 8.30821, 65.7716, 0.0621269, 43.9585
2, 240.00000, 119.685, -32.594, 118.015, -151.547, 121.635, 88.8455, 0, 0, 8.29942, -55.6679, 8.17097, -174.621, 8.30821, 65.7716, 0.0621269, 43.9585
2, 300.00000, 119.685, -32.594, 118.015, -151.547, 121.635, 88.8455, 0, 0, 8.29942, -55.6679, 8.17097, -174.621, 8.30821, 65.7716, 0.0621269, 43.9585
2, 360.00000, 119.685, -32.594, 118.015, -151.547, 121.635, 88.8455, 0, 0, 8.29942, -55.6679, 8.17097, -174.621, 8.30821, 65.7716, 0.0621269, 43.9585
2, 420.00000, 119.685, -32.594, 118.015, -151.547, 121.635, 88.8455, 0, 0, 8.29942, -55.6679, 8.17097, -174.621, 8.30821, 65.7716, 0.0621269, 43.9585
2, 480.00000, 119.685, -32.594, 118.015, -151.547, 121.635, 88.8455, 0, 0, 8.29942, -55.6679, 8.17097, -174.621, 8.30821, 65.7716, 0.0621269, 43.9585
2, 540.00000, 119.685, -32.594, 118.015, -151.547, 121.635, 88.8455, 0, 0, 8.29942, -55.6679, 8.17097, -174.621, 8.30821, 65.7716, 0.0621269, 43.9585
2, 600.00000, 119.685, -32.594, 118.015, -151.547, 121.635, 88.8455, 0, 0, 8.29942, -55.6679, 8.17097, -174.621, 8.30821, 65.7716, 0.0621269, 43.9585
2, 660.00000, 119.685, -32.594, 118.015, -151.547, 121.635, 88.8455, 0, 0, 8.29942, -55.6679, 8.17097, -174.621, 8.30821, 65.7716, 0.0621269, 43.9585
