hour,t(sec),"P1 (kW)","Q1 (kvar)","P2 (kW)","Q2 (kvar)","P3 (kW)","Q3 (kvar)","P4 (kW)","Q4 (kvar)"
0, 60.00000, 0.370202, 0.157704, 0.380701, 0.162177, 0.376073, 0.160204, 0, 0
0, 120.00000, 0.370199, 0.157704, 0.380699, 0.162177, 0.376068, 0.160204, 0, 0
0, 180.00000, 0.370199, 0.157704, 0.380699, 0.162177, 0.376068, 0.160204, 0, 0
0, 240.00000, 0.370199, 0.157704, 0.380699, 0.162177, 0.376068, 0.160204, 0, 0
0, 300.00000, 0.370199, 0.157704, 0.380699, 0.162177, 0.376068, 0.160204, 0, 0
0, 360.00000, 0.370199, 0.157704, 0.380699, 0.162177, 0.376068, 0.160204, 0, 0
0, 420.00000, 0.370199, 0.157704, 0.380699, 0.162177, 0.376068, 0.160204, 0, 0
0, 480.00000, 0.33923, 0.144512, 0.348693, 0.148544, 0.344296, 0.146673, 0, 0
0, 540.00000, 0.339233, 0.144512, 0.348697, 0.148544, 0.3443, 0.146671, 0, 0
0, 600.00000, 0.339233, 0.144512, 0.348697, 0.148544, 0.3443, 0.146671, 0, 0
0, 660.00000, 0.339233, 0.144512, 0.348697, 0.148544, 0.3443, 0.146671, 0, 0
0, 720.00000, 0.339233, 0.144512, 0.348697, 0.148544, 0.3443, 0.146671, 0, 0
0, 780.00000, 0.339233, 0.144512, 0.348697, 0.148544, 0.3443, 0.146671, 0, 0
0, 840.00000, 0.339233, 0.144512, 0.348697, 0.148544, 0.3443, 0.146671, 0, 0
0, 900.00000, 0.339233, 0.144512, 0.348697, 0.148544, 0.3443, 0.146671, 0, 0
0, 960.00000, 0.333674, 0.142145, 0.348751, 0.148567, 0.33981, 0.144757, 0, 0
0, 1020.00000, 0.333672, 0.142144, 0.348751, 0.148567, 0.339807, 0.144757, 0, 0
0, 1080.00000, 0.333672, 0.142144, 0.348751, 0.148567, 0.339807, 0.144757, 0, 0
0, 1140.00000, 0.333672, 0.142144, 0.348751, 0.148567, 0.339807, 0.144757, 0, 0
0, 1200.00000, 0.333672, 0.142144, 0.348751, 0.148567, 0.339807, 0.144757, 0, 0
0, 1260.00000, 0.333672, 0.142144, 0.348751, 0.148567, 0.339807, 0.144757, 0, 0
0, 1320.00000, 0.333672, 0.142144, 0.348751, 0.148567, 0.339807, 0.144757, 0, 0
0, 1380.00000, 0.333672, 0.142144, 0.348751, 0.148567, 0.339807, 0.144757, 0, 0
0, 1440.00000, 0.333672, 0.142144, 0.348751, 0.148567, 0.339807, 0.144757, 0, 0
0, 1500.00000, 0.333672, 0.142144, 0.348751, 0.148567, 0.339807, 0.144757, 0, 0
0, 1560.00000, 0.333672, 0.142144, 0.348751, 0.148567, 0.339807, 0.144757, 0, 0
0, 1620.00000, 0.333672, 0.142144, 0.348751, 0.148567, 0.339807, 0.144757, 0, 0
0, 1680.00000, 0.333672, 0.142144, 0.348751, 0.148567, 0.339807, 0.144757, 0, 0
0, 1740.00000, 0.333672, 0.142144, 0.348751, 0.148567, 0.339807, 0.144757, 0, 0
0, 1800.00000, 0.327752, 0.139622, 0.348805, 0.14859, 0.334848, 0.142642, 0, 0
0, 1860.00000, 0.327749, 0.13962, 0.348805, 0.148591, 0.334845, 0.142643, 0, 0
0, 1920.00000, 0.327749, 0.13962, 0.348806, 0.148591, 0.334845, 0.142643, 0, 0
0, 1980.00000, 0.327749, 0.13962, 0.348806, 0.148591, 0.334845, 0.142643, 0, 0
0, 2040.00000, 0.327749, 0.13962, 0.348806, 0.148591, 0.334845, 0.142643, 0, 0
0, 2100.00000, 0.327749, 0.13962, 0.348806, 0.148591, 0.334845, 0.142643, 0, 0
0, 2160.00000, 0.327749, 0.13962, 0.348806, 0.148591, 0.334845, 0.142643, 0, 0
0, 2220.00000, 0.327749, 0.13962, 0.348806, 0.148591, 0.334845, 0.142643, 0, 0
0, 2280.00000, 0.327749, 0.13962, 0.348806, 0.148591, 0.334845, 0.142643, 0, 0
0, 2340.00000, 0.327749, 0.13962, 0.348806, 0.148591, 0.334845, 0.142643, 0, 0
0, 2400.00000, 0.327749, 0.13962, 0.348806, 0.148591, 0.334845, 0.142643, 0, 0
0, 2460.00000, 0.327749, 0.13962, 0.348806, 0.148591, 0.334845, 0.142643, 0, 0
0, 2520.00000, 0.327749, 0.13962, 0.348806, 0.148591, 0.334845, 0.142643, 0, 0
0, 2580.00000, 0.327749, 0.13962, 0.348806, 0.148591, 0.334845, 0.142643, 0, 0
0, 2640.00000, 0.327749, 0.13962, 0.348806, 0.148591, 0.334845, 0.142643, 0, 0
0, 2700.00000, 0.327749, 0.13962, 0.348806, 0.148591, 0.334845, 0.142643, 0, 0
0, 2760.00000, 0.329634, 0.140425, 0.3488, 0.148588, 0.33558, 0.142959, 0, 0
0, 2820.00000, 0.329636, 0.140425, 0.3488, 0.148588, 0.335583, 0.142958, 0, 0
0, 2880.00000, 0.329636, 0.140425, 0.3488, 0.148588, 0.335584, 0.142958, 0, 0
0, 2940.00000, 0.329636, 0.140425, 0.3488, 0.148588, 0.335584, 0.142958, 0, 0
0, 3000.00000, 0.329636, 0.140425, 0.3488, 0.148588, 0.335584, 0.142958, 0, 0
0, 3060.00000, 0.329636, 0.140425, 0.3488, 0.148588, 0.335584, 0.142958, 0, 0
0, 3120.00000, 0.329636, 0.140425, 0.3488, 0.148588, 0.335584, 0.142958, 0, 0
0, 3180.00000, 0.329636, 0.140425, 0.3488, 0.148588, 0.335584, 0.142958, 0, 0
0, 3240.00000, 0.329636, 0.140425, 0.3488, 0.148588, 0.335584, 0.142958, 0, 0
0, 3300.00000, 0.329636, 0.140425, 0.3488, 0.148588, 0.335584, 0.142958, 0, 0
0, 3360.00000, 0.329636, 0.140425, 0.3488, 0.148588, 0.335584, 0.142958, 0, 0
0, 3420.00000, 0.329636, 0.140425, 0.3488, 0.148588, 0.335584, 0.142958, 0, 0
0, 3480.00000, 0.329636, 0.140425, 0.3488, 0.148588, 0.335584, 0.142958, 0, 0
0, 3540.00000, 0.329636, 0.140425, 0.3488, 0.148588, 0.335584, 0.142958, 0, 0
1, 0.00000, 0.329636, 0.140425, 0.3488, 0.148588, 0.335584, 0.142958, 0, 0
1, 60.00000, 0.331344, 0.141153, 0.348803, 0.148589, 0.336158, 0.143204, 0, 0
1, 120.00000, 0.331346, 0.141153, 0.348803, 0.148589, 0.33616, 0.143203, 0, 0
1, 180.00000, 0.331346, 0.141153, 0.348803, 0.148589, 0.33616, 0.143203, 0, 0
1, 240.00000, 0.331346, 0.141153, 0.348803, 0.148589, 0.33616, 0.143203, 0, 0
1, 300.00000, 0.331346, 0.141153, 0.348803, 0.148589, 0.33616, 0.143203, 0, 0
1, 360.00000, 0.331346, 0.141153, 0.348803, 0.148589, 0.33616, 0.143203, 0, 0
1, 420.00000, 0.331346, 0.141153, 0.348803, 0.148589, 0.33616, 0.143203, 0, 0
1, 480.00000, 0.331346, 0.141153, 0.348803, 0.148589, 0.33616, 0.143203, 0, 0
1, 540.00000, 0.331346, 0.141153, 0.348803, 0.148589, 0.33616, 0.143203, 0, 0
1, 600.00000, 0.331346, 0.141153, 0.348803, 0.148589, 0.33616, 0.143203, 0, 0
1, 660.00000, 0.331346, 0.141153, 0.348803, 0.148589, 0.33616, 0.143203, 0, 0
1, 720.00000, 0.331346, 0.141153, 0.348803, 0.148589, 0.33616, 0.143203, 0, 0
1, 780.00000, 0.334591, 0.142536, 0.348825, 0.148599, 0.338053, 0.144011, 0, 0
1, 840.00000, 0.334594, 0.142536, 0.348825, 0.148599, 0.338055, 0.144011, 0, 0
1, 900.00000, 0.334594, 0.142536, 0.348825, 0.148599, 0.338055, 0.144011, 0, 0
1, 960.00000, 0.334594, 0.142536, 0.348825, 0.148599, 0.338055, 0.144011, 0, 0
1, 1020.00000, 0.334594, 0.142536, 0.348825, 0.148599, 0.338055, 0.144011, 0, 0
1, 1080.00000, 0.334594, 0.142536, 0.348825, 0.148599, 0.338055, 0.144011, 0, 0
1, 1140.00000, 0.334594, 0.142536, 0.348825, 0.148599, 0.338055, 0.144011, 0, 0
1, 1200.00000, 0.334594, 0.142536, 0.348825, 0.148599, 0.338055, 0.144011, 0, 0
1, 1260.00000, 0.334594, 0.142536, 0.348825, 0.148599, 0.338055, 0.144011, 0, 0
1, 1320.00000, 0.334594, 0.142536, 0.348825, 0.148599, 0.338055, 0.144011, 0, 0
1, 1380.00000, 0.334594, 0.142536, 0.348825, 0.148599, 0.338055, 0.144011, 0, 0
1, 1440.00000, 0.334594, 0.142536, 0.348825, 0.148599, 0.338055, 0.144011, 0, 0
1, 1500.00000, 0.334594, 0.142536, 0.348825, 0.148599, 0.338055, 0.144011, 0, 0
1, 1560.00000, 0.334594, 0.142536, 0.348825, 0.148599, 0.338055, 0.144011, 0, 0
1, 1620.00000, 0.334594, 0.142536, 0.348825, 0.148599, 0.338055, 0.144011, 0, 0
1, 1680.00000, 0.334594, 0.142536, 0.348825, 0.148599, 0.338055, 0.144011, 0, 0
1, 1740.00000, 0.334594, 0.142536, 0.348825, 0.148599, 0.338055, 0.144011, 0, 0
1, 1800.00000, 0.334594, 0.142536, 0.348825, 0.148599, 0.338055, 0.144011, 0, 0
1, 1860.00000, 0.334594, 0.142536, 0.348825, 0.148599, 0.338055, 0.144011, 0, 0
1, 1920.00000, 0.334594, 0.142536, 0.348825, 0.148599, 0.338055, 0.144011, 0, 0
1, 1980.00000, 0.334594, 0.142536, 0.348825, 0.148599, 0.338055, 0.144011, 0, 0
1, 2040.00000, 0.334594, 0.142536, 0.348825, 0.148599, 0.338055, 0.144011, 0, 0
1, 2100.00000, 0.334594, 0.142536, 0.348825, 0.148599, 0.338055, 0.144011, 0, 0
1, 2160.00000, 0.334594, 0.142536, 0.348825, 0.148599, 0.338055, 0.144011, 0, 0
1, 2220.00000, 0.340744, 0.145158, 0.348761, 0.148571, 0.343094, 0.146158, 0, 0
1, 2280.00000, 0.340747, 0.145158, 0.34876, 0.148571, 0.343095, 0.146158, 0, 0
1, 2340.00000, 0.340747, 0.145158, 0.34876, 0.148571, 0.343095, 0.146158, 0, 0
1, 2400.00000, 0.340747, 0.145158, 0.34876, 0.148571, 0.343095, 0.146158, 0, 0
1, 2460.00000, 0.340747, 0.145158, 0.34876, 0.148571, 0.343095, 0.146158, 0, 0
1, 2520.00000, 0.340747, 0.145158, 0.34876, 0.148571, 0.343095, 0.146158, 0, 0
1, 2580.00000, 0.340747, 0.145158, 0.34876, 0.148571, 0.343095, 0.146158, 0, 0
1, 2640.00000, 0.340747, 0.145158, 0.34876, 0.148571, 0.343095, 0.146158, 0, 0
1, 2700.00000, 0.340747, 0.145158, 0.34876, 0.148571, 0.343095, 0.146158, 0, 0
1, 2760.00000, 0.340747, 0.145158, 0.34876, 0.148571, 0.343095, 0.146158, 0, 0
1, 2820.00000, 0.340747, 0.145158, 0.34876, 0.148571, 0.343095, 0.146158, 0, 0
1, 2880.00000, 0.340747, 0.145158, 0.34876, 0.148571, 0.343095, 0.146158, 0, 0
1, 2940.00000, 0.340747, 0.145158, 0.34876, 0.148571, 0.343095, 0.146158, 0, 0
1, 3000.00000, 0.340747, 0.145158, 0.34876, 0.148571, 0.343095, 0.146158, 0, 0
1, 3060.00000, 0.340747, 0.145158, 0.34876, 0.148571, 0.343095, 0.146158, 0, 0
1, 3120.00000, 0.340747, 0.145158, 0.34876, 0.148571, 0.343095, 0.146158, 0, 0
1, 3180.00000, 0.340747, 0.145158, 0.34876, 0.148571, 0.343095, 0.146158, 0, 0
1, 3240.00000, 0.340747, 0.145158, 0.34876, 0.148571, 0.343095, 0.146158, 0, 0
1, 3300.00000, 0.340747, 0.145158, 0.34876, 0.148571, 0.343095, 0.146158, 0, 0
1, 3360.00000, 0.340747, 0.145158, 0.34876, 0.148571, 0.343095, 0.146158, 0, 0
1, 3420.00000, 0.340747, 0.145158, 0.34876, 0.148571, 0.343095, 0.146158, 0, 0
1, 3480.00000, 0.340747, 0.145158, 0.34876, 0.148571, 0.343095, 0.146158, 0, 0
1, 3540.00000, 0.340747, 0.145158, 0.34876, 0.148571, 0.343095, 0.146158, 0, 0
2, 0.00000, 0.340747, 0.145158, 0.34876, 0.148571, 0.343095, 0.146158, 0, 0
2, 60.00000, 0.340747, 0.145158, 0.34876, 0.148571, 0.343095, 0.146158, 0, 0
2, 120.00000, 0.340747, 0.145158, 0.34876, 0.148571, 0.343095, 0.146158, 0, 0
2, 180.00000, 0.340747, 0.145158, 0.34876, 0.148571, 0.343095, 0.146158, 0, 0
2, 240.00000, 0.340747, 0.145158, 0.34876, 0.148571, 0.343095, 0.146158, 0, 0
2, 300.00000, 0.340747, 0.145158, 0.34876, 0.148571, 0.343095, 0.146158, 0, 0
2, 360.00000, 0.340747, 0.145158, 0.34876, 0.148571, 0.343095, 0.146158, 0, 0
2, 420.00000, 0.340747, 0.145158, 0.34876, 0.148571, 0.343095, 0.146158, 0, 0
2, 480.00000, 0.340747, 0.145158, 0.34876, 0.148571, 0.343095, 0.146158, 0, 0
2, 540.00000, 0.340747, 0.145158, 0.34876, 0.148571, 0.343095, 0.146158, 0, 0
2, 600.00000, 0.340747, 0.145158, 0.34876, 0.148571, 0.343095, 0.146158, 0, 0
2, 660.00000, 0.340747, 0.145158, 0.34876, 0.148571, 0.343095, 0.146158, 0, 0
2, 720.00000, 0.340747, 0.145158, 0.34876, 0.148571, 0.343095, 0.146158, 0, 0
2, 780.00000, 0.340747, 0.145158, 0.34876, 0.148571, 0.343095, 0.146158, 0, 0
2, 840.00000, 0.346496, 0.147609, 0.348702, 0.148546, 0.347657, 0.148102, 0, 0
2, 900.00000, 0.3465, 0.147608, 0.348701, 0.148546, 0.347658, 0.148102, 0, 0
2, 960.00000, 0.3465, 0.147608, 0.348701, 0.148546, 0.347658, 0.148102, 0, 0
2, 1020.00000, 0.3465, 0.147608, 0.348701, 0.148546, 0.347658, 0.148102, 0, 0
2, 1080.00000, 0.3465, 0.147608, 0.348701, 0.148546, 0.347658, 0.148102, 0, 0
2, 1140.00000, 0.3465, 0.147608, 0.348701, 0.148546, 0.347658, 0.148102, 0, 0
2, 1200.00000, 0.3465, 0.147608, 0.348701, 0.148546, 0.347658, 0.148102, 0, 0
2, 1260.00000, 0.3465, 0.147608, 0.348701, 0.148546, 0.347658, 0.148102, 0, 0
2, 1320.00000, 0.3465, 0.147608, 0.348701, 0.148546, 0.347658, 0.148102, 0, 0
2, 1380.00000, 0.3465, 0.147608, 0.348701, 0.148546, 0.347658, 0.148102, 0, 0
2, 1440.00000, 0.3465, 0.147608, 0.348701, 0.148546, 0.347658, 0.148102, 0, 0
2, 1500.00000, 0.3465, 0.147608, 0.348701, 0.148546, 0.347658, 0.148102, 0, 0
2, 1560.00000, 0.3465, 0.147608, 0.348701, 0.148546, 0.347658, 0.148102, 0, 0
2, 1620.00000, 0.3465, 0.147608, 0.348701, 0.148546, 0.347658, 0.148102, 0, 0
2, 1680.00000, 0.3465, 0.147608, 0.348701, 0.148546, 0.347658, 0.148102, 0, 0
2, 1740.00000, 0.3465, 0.147608, 0.348701, 0.148546, 0.347658, 0.148102, 0, 0
2, 1800.00000, 0.3465, 0.147608, 0.348701, 0.148546, 0.347658, 0.148102, 0, 0
2, 1860.00000, 0.3465, 0.147608, 0.348701, 0.148546, 0.347658, 0.148102, 0, 0
2, 1920.00000, 0.3465, 0.147608, 0.348701, 0.148546, 0.347658, 0.148102, 0, 0
2, 1980.00000, 0.3465, 0.147608, 0.348701, 0.148546, 0.347658, 0.148102, 0, 0
2, 2040.00000, 0.3465, 0.147608, 0.348701, 0.148546, 0.347658, 0.148102, 0, 0
2, 2100.00000, 0.3465, 0.147608, 0.348701, 0.148546, 0.347658, 0.148102, 0, 0
2, 2160.00000, 0.3465, 0.147608, 0.348701, 0.148546, 0.347658, 0.148102, 0, 0
2, 2220.00000, 0.3465, 0.147608, 0.348701, 0.148546, 0.347658, 0.148102, 0, 0
2, 2280.00000, 0.3465, 0.147608, 0.348701, 0.148546, 0.347658, 0.148102, 0, 0
2, 2340.00000, 0.3465, 0.147608, 0.348701, 0.148546, 0.347658, 0.148102, 0, 0
2, 2400.00000, 0.348932, 0.148648, 0.348709, 0.14855, 0.348927, 0.148645, 0, 0
2, 2460.00000, 0.348925, 0.148641, 0.348707, 0.148549, 0.348925, 0.148641, 0, 0
2, 2520.00000, 0.348925, 0.148641, 0.348707, 0.148549, 0.348925, 0.148641, 0, 0
2, 2580.00000, 0.348925, 0.148641, 0.348707, 0.148549, 0.348925, 0.148641, 0, 0
2, 2640.00000, 0.348925, 0.148641, 0.348707, 0.148549, 0.348925, 0.148641, 0, 0
2, 2700.00000, 0.342737, 0.146005, 0.340574, 0.145083, 0.348927, 0.148642, 0, 0
2, 2760.00000, 0.342735, 0.146005, 0.340571, 0.145083, 0.348925, 0.148641, 0, 0
2, 2820.00000, 0.342735, 0.146005, 0.340571, 0.145083, 0.348925, 0.148641, 0, 0
2, 2880.00000, 0.342735, 0.146005, 0.340571, 0.145083, 0.348925, 0.148641, 0, 0
2, 2940.00000, 0.342735, 0.146005, 0.340571, 0.145083, 0.348925, 0.148641, 0, 0
2, 3000.00000, 0.342735, 0.146005, 0.340571, 0.145083, 0.348925, 0.148641, 0, 0
2, 3060.00000, 0.344625, 0.146813, 0.340551, 0.145074, 0.348926, 0.148644, 0, 0
2, 3120.00000, 0.344631, 0.146812, 0.34055, 0.145074, 0.348925, 0.148641, 0, 0
2, 3180.00000, 0.344631, 0.146812, 0.34055, 0.145074, 0.348925, 0.148641, 0, 0
2, 3240.00000, 0.344631, 0.146812, 0.34055, 0.145074, 0.348925, 0.148641, 0, 0
2, 3300.00000, 0.344631, 0.146812, 0.34055, 0.145074, 0.348925, 0.148641, 0, 0
2, 3360.00000, 0.344631, 0.146812, 0.34055, 0.145074, 0.348925, 0.148641, 0, 0
2, 3420.00000, 0.344631, 0.146812, 0.34055, 0.145074, 0.348925, 0.148641, 0, 0
2, 3480.00000, 0.344631, 0.146812, 0.34055, 0.145074, 0.348925, 0.148641, 0, 0
2, 3540.00000, 0.344631, 0.146812, 0.34055, 0.145074, 0.348925, 0.148641, 0, 0
3, 0.00000, 0.344631, 0.146812, 0.34055, 0.145074, 0.348925, 0.148641, 0, 0
3, 60.00000, 0.344631, 0.146812, 0.34055, 0.145074, 0.348925, 0.148641, 0, 0
3, 120.00000, 0.344631, 0.146812, 0.34055, 0.145074, 0.348925, 0.148641, 0, 0
3, 180.00000, 0.344631, 0.146812, 0.34055, 0.145074, 0.348925, 0.148641, 0, 0
3, 240.00000, 0.344631, 0.146812, 0.34055, 0.145074, 0.348925, 0.148641, 0, 0
3, 300.00000, 0.344631, 0.146812, 0.34055, 0.145074, 0.348925, 0.148641, 0, 0
3, 360.00000, 0.344631, 0.146812, 0.34055, 0.145074, 0.348925, 0.148641, 0, 0
3, 420.00000, 0.344631, 0.146812, 0.34055, 0.145074, 0.348925, 0.148641, 0, 0
3, 480.00000, 0.344631, 0.146812, 0.34055, 0.145074, 0.348925, 0.148641, 0, 0
3, 540.00000, 0.344631, 0.146812, 0.34055, 0.145074, 0.348925, 0.148641, 0, 0
3, 600.00000, 0.344631, 0.146812, 0.34055, 0.145074, 0.348925, 0.148641, 0, 0
3, 660.00000, 0.344631, 0.146812, 0.34055, 0.145074, 0.348925, 0.148641, 0, 0
3, 720.00000, 0.344631, 0.146812, 0.34055, 0.145074, 0.348925, 0.148641, 0, 0
3, 780.00000, 0.344631, 0.146812, 0.34055, 0.145074, 0.348925, 0.148641, 0, 0
3, 840.00000, 0.344631, 0.146812, 0.34055, 0.145074, 0.348925, 0.148641, 0, 0
3, 900.00000, 0.344631, 0.146812, 0.34055, 0.145074, 0.348925, 0.148641, 0, 0
3, 960.00000, 0.344631, 0.146812, 0.34055, 0.145074, 0.348925, 0.148641, 0, 0
3, 1020.00000, 0.344631, 0.146812, 0.34055, 0.145074, 0.348925, 0.148641, 0, 0
3, 1080.00000, 0.344631, 0.146812, 0.34055, 0.145074, 0.348925, 0.148641, 0, 0
3, 1140.00000, 0.344631, 0.146812, 0.34055, 0.145074, 0.348925, 0.148641, 0, 0
3, 1200.00000, 0.344631, 0.146812, 0.34055, 0.145074, 0.348925, 0.148641, 0, 0
3, 1260.00000, 0.344631, 0.146812, 0.34055, 0.145074, 0.348925, 0.148641, 0, 0
3, 1320.00000, 0.344631, 0.146812, 0.34055, 0.145074, 0.348925, 0.148641, 0, 0
3, 1380.00000, 0.344631, 0.146812, 0.34055, 0.145074, 0.348925, 0.148641, 0, 0
3, 1440.00000, 0.344631, 0.146812, 0.34055, 0.145074, 0.348925, 0.148641, 0, 0
3, 1500.00000, 0.344631, 0.146812, 0.34055, 0.145074, 0.348925, 0.148641, 0, 0
3, 1560.00000, 0.344631, 0.146812, 0.34055, 0.145074, 0.348925, 0.148641, 0, 0
3, 1620.00000, 0.344631, 0.146812, 0.34055, 0.145074, 0.348925, 0.148641, 0, 0
3, 1680.00000, 0.344631, 0.146812, 0.34055, 0.145074, 0.348925, 0.148641, 0, 0
3, 1740.00000, 0.344631, 0.146812, 0.34055, 0.145074, 0.348925, 0.148641, 0, 0
3, 1800.00000, 0.344631, 0.146812, 0.34055, 0.145074, 0.348925, 0.148641, 0, 0
3, 1860.00000, 0.344631, 0.146812, 0.34055, 0.145074, 0.348925, 0.148641, 0, 0
3, 1920.00000, 0.344631, 0.146812, 0.34055, 0.145074, 0.348925, 0.148641, 0, 0
3, 1980.00000, 0.344631, 0.146812, 0.34055, 0.145074, 0.348925, 0.148641, 0, 0
3, 2040.00000, 0.344631, 0.146812, 0.34055, 0.145074, 0.348925, 0.148641, 0, 0
3, 2100.00000, 0.344631, 0.146812, 0.34055, 0.145074, 0.348925, 0.148641, 0, 0
3, 2160.00000, 0.344631, 0.146812, 0.34055, 0.145074, 0.348925, 0.148641, 0, 0
3, 2220.00000, 0.344631, 0.146812, 0.34055, 0.145074, 0.348925, 0.148641, 0, 0
3, 2280.00000, 0.344631, 0.146812, 0.34055, 0.145074, 0.348925, 0.148641, 0, 0
3, 2340.00000, 0.344631, 0.146812, 0.34055, 0.145074, 0.348925, 0.148641, 0, 0
3, 2400.00000, 0.344631, 0.146812, 0.34055, 0.145074, 0.348925, 0.148641, 0, 0
3, 2460.00000, 0.344631, 0.146812, 0.34055, 0.145074, 0.348925, 0.148641, 0, 0
3, 2520.00000, 0.344631, 0.146812, 0.34055, 0.145074, 0.348925, 0.148641, 0, 0
3, 2580.00000, 0.344631, 0.146812, 0.34055, 0.145074, 0.348925, 0.148641, 0, 0
3, 2640.00000, 0.344631, 0.146812, 0.34055, 0.145074, 0.348925, 0.148641, 0, 0
3, 2700.00000, 0.344631, 0.146812, 0.34055, 0.145074, 0.348925, 0.148641, 0, 0
3, 2760.00000, 0.344631, 0.146812, 0.34055, 0.145074, 0.348925, 0.148641, 0, 0
3, 2820.00000, 0.344631, 0.146812, 0.34055, 0.145074, 0.348925, 0.148641, 0, 0
3, 2880.00000, 0.344631, 0.146812, 0.34055, 0.145074, 0.348925, 0.148641, 0, 0
3, 2940.00000, 0.344631, 0.146812, 0.34055, 0.145074, 0.348925, 0.148641, 0, 0
3, 3000.00000, 0.344631, 0.146812, 0.34055, 0.145074, 0.348925, 0.148641, 0, 0
3, 3060.00000, 0.344631, 0.146812, 0.34055, 0.145074, 0.348925, 0.148641, 0, 0
3, 3120.00000, 0.344631, 0.146812, 0.34055, 0.145074, 0.348925, 0.148641, 0, 0
3, 3180.00000, 0.336333, 0.143276, 0.332406, 0.141604, 0.341469, 0.145464, 0, 0
3, 3240.00000, 0.336332, 0.143277, 0.332405, 0.141604, 0.34147, 0.145466, 0, 0
3, 3300.00000, 0.336332, 0.143277, 0.332405, 0.141604, 0.34147, 0.145466, 0, 0
3, 3360.00000, 0.336332, 0.143277, 0.332405, 0.141604, 0.34147, 0.145466, 0, 0
3, 3420.00000, 0.336332, 0.143277, 0.332405, 0.141604, 0.34147, 0.145466, 0, 0
3, 3480.00000, 0.336332, 0.143277, 0.332405, 0.141604, 0.34147, 0.145466, 0, 0
3, 3540.00000, 0.336332, 0.143277, 0.332405, 0.141604, 0.34147, 0.145466, 0, 0
4, 0.00000, 0.336332, 0.143277, 0.332405, 0.141604, 0.34147, 0.145466, 0, 0
4, 60.00000, 0.336332, 0.143277, 0.332405, 0.141604, 0.34147, 0.145466, 0, 0
4, 120.00000, 0.336332, 0.143277, 0.332405, 0.141604, 0.34147, 0.145466, 0, 0
4, 180.00000, 0.336332, 0.143277, 0.332405, 0.141604, 0.34147, 0.145466, 0, 0
4, 240.00000, 0.336332, 0.143277, 0.332405, 0.141604, 0.34147, 0.145466, 0, 0
4, 300.00000, 0.336332, 0.143277, 0.332405, 0.141604, 0.34147, 0.145466, 0, 0
4, 360.00000, 0.336332, 0.143277, 0.332405, 0.141604, 0.34147, 0.145466, 0, 0
4, 420.00000, 0.336332, 0.143277, 0.332405, 0.141604, 0.34147, 0.145466, 0, 0
4, 480.00000, 0.336332, 0.143277, 0.332405, 0.141604, 0.34147, 0.145466, 0, 0
4, 540.00000, 0.336332, 0.143277, 0.332405, 0.141604, 0.34147, 0.145466, 0, 0
4, 600.00000, 0.336332, 0.143277, 0.332405, 0.141604, 0.34147, 0.145466, 0, 0
4, 660.00000, 0.336332, 0.143277, 0.332405, 0.141604, 0.34147, 0.145466, 0, 0
4, 720.00000, 0.336332, 0.143277, 0.332405, 0.141604, 0.34147, 0.145466, 0, 0
