hour,t(sec),"P1 (kW)","Q1 (kvar)","P2 (kW)","Q2 (kvar)","P3 (kW)","Q3 (kvar)","P4 (kW)","Q4 (kvar)"
0, 60.00000, 0.725577, 0.309095, 0.724965, 0.308828, 0.742512, 0.316302, 0, 0
0, 120.00000, 0.725609, 0.309108, 0.724962, 0.308827, 0.742508, 0.316302, 0, 0
0, 180.00000, 0.725637, 0.30912, 0.724958, 0.308826, 0.742506, 0.316302, 0, 0
0, 240.00000, 0.725662, 0.309131, 0.724955, 0.308825, 0.742504, 0.316301, 0, 0
0, 300.00000, 0.725684, 0.30914, 0.724952, 0.308824, 0.742501, 0.3163, 0, 0
0, 360.00000, 0.725704, 0.309149, 0.724949, 0.308823, 0.742499, 0.3163, 0, 0
0, 420.00000, 0.725721, 0.309156, 0.724947, 0.308823, 0.742497, 0.316299, 0, 0
0, 480.00000, 0.64067, 0.272924, 0.639832, 0.272565, 0.645974, 0.275181, 0, 0
0, 540.00000, 0.640683, 0.272929, 0.63983, 0.272564, 0.645972, 0.27518, 0, 0
0, 600.00000, 0.640694, 0.272934, 0.639828, 0.272564, 0.645971, 0.27518, 0, 0
0, 660.00000, 0.640705, 0.272939, 0.639827, 0.272563, 0.645969, 0.27518, 0, 0
0, 720.00000, 0.640714, 0.272943, 0.639826, 0.272563, 0.645968, 0.275179, 0, 0
0, 780.00000, 0.640723, 0.272946, 0.639825, 0.272563, 0.645968, 0.275179, 0, 0
0, 840.00000, 0.64073, 0.272949, 0.639824, 0.272562, 0.645967, 0.275179, 0, 0
0, 900.00000, 0.640737, 0.272952, 0.639823, 0.272562, 0.645966, 0.275179, 0, 0
0, 960.00000, 0.640743, 0.272955, 0.639822, 0.272562, 0.645965, 0.275179, 0, 0
0, 1020.00000, 0.640748, 0.272957, 0.639821, 0.272562, 0.645965, 0.275179, 0, 0
0, 1080.00000, 0.640753, 0.272959, 0.63982, 0.272561, 0.645964, 0.275179, 0, 0
0, 1140.00000, 0.640758, 0.272961, 0.63982, 0.272561, 0.645964, 0.275178, 0, 0
0, 1200.00000, 0.640761, 0.272963, 0.639819, 0.272561, 0.645963, 0.275178, 0, 0
0, 1260.00000, 0.640765, 0.272965, 0.639819, 0.272561, 0.645963, 0.275178, 0, 0
0, 1320.00000, 0.640768, 0.272966, 0.639818, 0.272561, 0.645963, 0.275178, 0, 0
0, 1380.00000, 0.640771, 0.272967, 0.639818, 0.272561, 0.645962, 0.275178, 0, 0
0, 1440.00000, 0.640773, 0.272968, 0.639818, 0.272561, 0.645962, 0.275178, 0, 0
0, 1500.00000, 0.640776, 0.272969, 0.639817, 0.272561, 0.645962, 0.275178, 0, 0
0, 1560.00000, 0.640778, 0.27297, 0.639817, 0.272561, 0.645962, 0.275178, 0, 0
0, 1620.00000, 0.64078, 0.272971, 0.639817, 0.27256, 0.645961, 0.275178, 0, 0
0, 1680.00000, 0.640781, 0.272972, 0.639816, 0.27256, 0.645961, 0.275178, 0, 0
0, 1740.00000, 0.640783, 0.272972, 0.639816, 0.27256, 0.645961, 0.275178, 0, 0
0, 1800.00000, 0.640784, 0.272973, 0.639816, 0.27256, 0.645961, 0.275178, 0, 0
0, 1860.00000, 0.640785, 0.272973, 0.639816, 0.27256, 0.645961, 0.275178, 0, 0
0, 1920.00000, 0.640787, 0.272974, 0.639816, 0.27256, 0.645961, 0.275178, 0, 0
0, 1980.00000, 0.640787, 0.272974, 0.639816, 0.27256, 0.64596, 0.275178, 0, 0
0, 2040.00000, 0.640788, 0.272975, 0.639815, 0.27256, 0.64596, 0.275178, 0, 0
0, 2100.00000, 0.640789, 0.272975, 0.639815, 0.27256, 0.64596, 0.275178, 0, 0
0, 2160.00000, 0.64079, 0.272975, 0.639815, 0.27256, 0.64596, 0.275178, 0, 0
0, 2220.00000, 0.640791, 0.272976, 0.639815, 0.27256, 0.64596, 0.275178, 0, 0
0, 2280.00000, 0.640791, 0.272976, 0.639815, 0.27256, 0.64596, 0.275178, 0, 0
0, 2340.00000, 0.640792, 0.272976, 0.639815, 0.27256, 0.64596, 0.275178, 0, 0
0, 2400.00000, 0.640792, 0.272976, 0.639815, 0.27256, 0.64596, 0.275178, 0, 0
0, 2460.00000, 0.640793, 0.272976, 0.639815, 0.27256, 0.64596, 0.275178, 0, 0
0, 2520.00000, 0.640793, 0.272977, 0.639815, 0.27256, 0.64596, 0.275178, 0, 0
0, 2580.00000, 0.640793, 0.272977, 0.639815, 0.27256, 0.64596, 0.275178, 0, 0
0, 2640.00000, 0.640794, 0.272977, 0.639815, 0.27256, 0.64596, 0.275178, 0, 0
0, 2700.00000, 0.640794, 0.272977, 0.639815, 0.27256, 0.64596, 0.275178, 0, 0
0, 2760.00000, 0.640794, 0.272977, 0.639815, 0.27256, 0.64596, 0.275178, 0, 0
0, 2820.00000, 0.640794, 0.272977, 0.639815, 0.27256, 0.64596, 0.275178, 0, 0
0, 2880.00000, 0.640795, 0.272977, 0.639815, 0.27256, 0.64596, 0.275178, 0, 0
0, 2940.00000, 0.640795, 0.272977, 0.639815, 0.27256, 0.64596, 0.275178, 0, 0
0, 3000.00000, 0.640795, 0.272977, 0.639815, 0.27256, 0.64596, 0.275178, 0, 0
0, 3060.00000, 0.640795, 0.272978, 0.639815, 0.27256, 0.64596, 0.275178, 0, 0
0, 3120.00000, 0.640795, 0.272978, 0.639814, 0.27256, 0.64596, 0.275178, 0, 0
0, 3180.00000, 0.640795, 0.272978, 0.639814, 0.27256, 0.64596, 0.275178, 0, 0
0, 3240.00000, 0.640795, 0.272978, 0.639814, 0.27256, 0.64596, 0.275178, 0, 0
0, 3300.00000, 0.640795, 0.272978, 0.639814, 0.27256, 0.64596, 0.275178, 0, 0
0, 3360.00000, 0.640796, 0.272978, 0.639814, 0.27256, 0.645959, 0.275178, 0, 0
0, 3420.00000, 0.640796, 0.272978, 0.639814, 0.27256, 0.645959, 0.275178, 0, 0
0, 3480.00000, 0.640796, 0.272978, 0.639814, 0.27256, 0.645959, 0.275178, 0, 0
0, 3540.00000, 0.640796, 0.272978, 0.639814, 0.27256, 0.645959, 0.275178, 0, 0
1, 0.00000, 0.640796, 0.272978, 0.639814, 0.27256, 0.645959, 0.275178, 0, 0
1, 60.00000, 0.640796, 0.272978, 0.639814, 0.27256, 0.645959, 0.275178, 0, 0
1, 120.00000, 0.640796, 0.272978, 0.639814, 0.27256, 0.645959, 0.275178, 0, 0
1, 180.00000, 0.640796, 0.272978, 0.639814, 0.27256, 0.645959, 0.275178, 0, 0
1, 240.00000, 0.640796, 0.272978, 0.639814, 0.27256, 0.645959, 0.275178, 0, 0
1, 300.00000, 0.640796, 0.272978, 0.639814, 0.27256, 0.645959, 0.275178, 0, 0
1, 360.00000, 0.640796, 0.272978, 0.639814, 0.27256, 0.645959, 0.275178, 0, 0
1, 420.00000, 0.640796, 0.272978, 0.639814, 0.27256, 0.645959, 0.275178, 0, 0
1, 480.00000, 0.640796, 0.272978, 0.639814, 0.27256, 0.645959, 0.275178, 0, 0
1, 540.00000, 0.640796, 0.272978, 0.639814, 0.27256, 0.645959, 0.275178, 0, 0
1, 600.00000, 0.640796, 0.272978, 0.639814, 0.27256, 0.645959, 0.275178, 0, 0
1, 660.00000, 0.640796, 0.272978, 0.639814, 0.27256, 0.645959, 0.275178, 0, 0
1, 720.00000, 0.640796, 0.272978, 0.639814, 0.27256, 0.645959, 0.275178, 0, 0
1, 780.00000, 0.640796, 0.272978, 0.639814, 0.27256, 0.645959, 0.275178, 0, 0
1, 840.00000, 0.640796, 0.272978, 0.639814, 0.27256, 0.645959, 0.275178, 0, 0
1, 900.00000, 0.640796, 0.272978, 0.639814, 0.27256, 0.645959, 0.275178, 0, 0
1, 960.00000, 0.640796, 0.272978, 0.639814, 0.27256, 0.645959, 0.275178, 0, 0
1, 1020.00000, 0.640796, 0.272978, 0.639814, 0.27256, 0.645959, 0.275178, 0, 0
1, 1080.00000, 0.640796, 0.272978, 0.639814, 0.27256, 0.645959, 0.275178, 0, 0
1, 1140.00000, 0.640796, 0.272978, 0.639814, 0.27256, 0.645959, 0.275178, 0, 0
1, 1200.00000, 0.640796, 0.272978, 0.639814, 0.27256, 0.645959, 0.275178, 0, 0
1, 1260.00000, 0.640796, 0.272978, 0.639814, 0.27256, 0.645959, 0.275178, 0, 0
1, 1320.00000, 0.640796, 0.272978, 0.639814, 0.27256, 0.645959, 0.275178, 0, 0
1, 1380.00000, 0.640796, 0.272978, 0.639814, 0.27256, 0.645959, 0.275178, 0, 0
1, 1440.00000, 0.640796, 0.272978, 0.639814, 0.27256, 0.645959, 0.275178, 0, 0
1, 1500.00000, 0.640796, 0.272978, 0.639814, 0.27256, 0.645959, 0.275178, 0, 0
1, 1560.00000, 0.640796, 0.272978, 0.639814, 0.27256, 0.645959, 0.275178, 0, 0
1, 1620.00000, 0.640796, 0.272978, 0.639814, 0.27256, 0.645959, 0.275178, 0, 0
1, 1680.00000, 0.640796, 0.272978, 0.639814, 0.27256, 0.645959, 0.275178, 0, 0
1, 1740.00000, 0.640796, 0.272978, 0.639814, 0.27256, 0.645959, 0.275178, 0, 0
1, 1800.00000, 0.640796, 0.272978, 0.639814, 0.27256, 0.645959, 0.275178, 0, 0
1, 1860.00000, 0.640796, 0.272978, 0.639814, 0.27256, 0.645959, 0.275178, 0, 0
1, 1920.00000, 0.640796, 0.272978, 0.639814, 0.27256, 0.645959, 0.275178, 0, 0
1, 1980.00000, 0.640796, 0.272978, 0.639814, 0.27256, 0.645959, 0.275178, 0, 0
1, 2040.00000, 0.640796, 0.272978, 0.639814, 0.27256, 0.645959, 0.275178, 0, 0
1, 2100.00000, 0.640796, 0.272978, 0.639814, 0.27256, 0.645959, 0.275178, 0, 0
1, 2160.00000, 0.640796, 0.272978, 0.639814, 0.27256, 0.645959, 0.275178, 0, 0
1, 2220.00000, 0.640796, 0.272978, 0.639814, 0.27256, 0.645959, 0.275178, 0, 0
1, 2280.00000, 0.640796, 0.272978, 0.639814, 0.27256, 0.645959, 0.275178, 0, 0
1, 2340.00000, 0.640796, 0.272978, 0.639814, 0.27256, 0.645959, 0.275178, 0, 0
1, 2400.00000, 0.640796, 0.272978, 0.639814, 0.27256, 0.645959, 0.275178, 0, 0
1, 2460.00000, 0.640796, 0.272978, 0.639814, 0.27256, 0.645959, 0.275178, 0, 0
1, 2520.00000, 0.640796, 0.272978, 0.639814, 0.27256, 0.645959, 0.275178, 0, 0
1, 2580.00000, 0.640796, 0.272978, 0.639814, 0.27256, 0.645959, 0.275178, 0, 0
1, 2640.00000, 0.640796, 0.272978, 0.639814, 0.27256, 0.645959, 0.275178, 0, 0
1, 2700.00000, 0.640796, 0.272978, 0.639814, 0.27256, 0.645959, 0.275178, 0, 0
1, 2760.00000, 0.640796, 0.272978, 0.639814, 0.27256, 0.645959, 0.275178, 0, 0
1, 2820.00000, 0.640796, 0.272978, 0.639814, 0.27256, 0.645959, 0.275178, 0, 0
1, 2880.00000, 0.640796, 0.272978, 0.639814, 0.27256, 0.645959, 0.275178, 0, 0
1, 2940.00000, 0.640796, 0.272978, 0.639814, 0.27256, 0.645959, 0.275178, 0, 0
1, 3000.00000, 0.640796, 0.272978, 0.639814, 0.27256, 0.645959, 0.275178, 0, 0
1, 3060.00000, 0.640796, 0.272978, 0.639814, 0.27256, 0.645959, 0.275178, 0, 0
1, 3120.00000, 0.640796, 0.272978, 0.639814, 0.27256, 0.645959, 0.275178, 0, 0
1, 3180.00000, 0.640796, 0.272978, 0.639814, 0.27256, 0.645959, 0.275178, 0, 0
1, 3240.00000, 0.640796, 0.272978, 0.639814, 0.27256, 0.645959, 0.275178, 0, 0
1, 3300.00000, 0.640796, 0.272978, 0.639814, 0.27256, 0.645959, 0.275178, 0, 0
1, 3360.00000, 0.640796, 0.272978, 0.639814, 0.27256, 0.645959, 0.275178, 0, 0
1, 3420.00000, 0.640796, 0.272978, 0.639814, 0.27256, 0.645959, 0.275178, 0, 0
1, 3480.00000, 0.640796, 0.272978, 0.639814, 0.27256, 0.645959, 0.275178, 0, 0
1, 3540.00000, 0.640796, 0.272978, 0.639814, 0.27256, 0.645959, 0.275178, 0, 0
2, 0.00000, 0.640796, 0.272978, 0.639814, 0.27256, 0.645959, 0.275178, 0, 0
2, 60.00000, 0.640796, 0.272978, 0.639814, 0.27256, 0.645959, 0.275178, 0, 0
2, 120.00000, 0.640796, 0.272978, 0.639814, 0.27256, 0.645959, 0.275178, 0, 0
2, 180.00000, 0.640796, 0.272978, 0.639814, 0.27256, 0.645959, 0.275178, 0, 0
2, 240.00000, 0.640796, 0.272978, 0.639814, 0.27256, 0.645959, 0.275178, 0, 0
2, 300.00000, 0.640796, 0.272978, 0.639814, 0.27256, 0.645959, 0.275178, 0, 0
2, 360.00000, 0.640796, 0.272978, 0.639814, 0.27256, 0.645959, 0.275178, 0, 0
2, 420.00000, 0.640796, 0.272978, 0.639814, 0.27256, 0.645959, 0.275178, 0, 0
2, 480.00000, 0.640796, 0.272978, 0.639814, 0.27256, 0.645959, 0.275178, 0, 0
2, 540.00000, 0.640796, 0.272978, 0.639814, 0.27256, 0.645959, 0.275178, 0, 0
2, 600.00000, 0.640796, 0.272978, 0.639814, 0.27256, 0.645959, 0.275178, 0, 0
2, 660.00000, 0.640796, 0.272978, 0.639814, 0.27256, 0.645959, 0.275178, 0, 0
2, 720.00000, 0.640796, 0.272978, 0.639814, 0.27256, 0.645959, 0.275178, 0, 0
2, 780.00000, 0.640796, 0.272978, 0.639814, 0.27256, 0.645959, 0.275178, 0, 0
2, 840.00000, 0.640796, 0.272978, 0.639814, 0.27256, 0.645959, 0.275178, 0, 0
2, 900.00000, 0.640796, 0.272978, 0.639814, 0.27256, 0.645959, 0.275178, 0, 0
2, 960.00000, 0.640796, 0.272978, 0.639814, 0.27256, 0.645959, 0.275178, 0, 0
2, 1020.00000, 0.640796, 0.272978, 0.639814, 0.27256, 0.645959, 0.275178, 0, 0
2, 1080.00000, 0.640796, 0.272978, 0.639814, 0.27256, 0.645959, 0.275178, 0, 0
2, 1140.00000, 0.640796, 0.272978, 0.639814, 0.27256, 0.645959, 0.275178, 0, 0
2, 1200.00000, 0.640796, 0.272978, 0.639814, 0.27256, 0.645959, 0.275178, 0, 0
2, 1260.00000, 0.640796, 0.272978, 0.639814, 0.27256, 0.645959, 0.275178, 0, 0
2, 1320.00000, 0.640796, 0.272978, 0.639814, 0.27256, 0.645959, 0.275178, 0, 0
2, 1380.00000, 0.640796, 0.272978, 0.639814, 0.27256, 0.645959, 0.275178, 0, 0
2, 1440.00000, 0.640796, 0.272978, 0.639814, 0.27256, 0.645959, 0.275178, 0, 0
2, 1500.00000, 0.640796, 0.272978, 0.639814, 0.27256, 0.645959, 0.275178, 0, 0
2, 1560.00000, 0.640796, 0.272978, 0.639814, 0.27256, 0.645959, 0.275178, 0, 0
2, 1620.00000, 0.640796, 0.272978, 0.639814, 0.27256, 0.645959, 0.275178, 0, 0
2, 1680.00000, 0.640796, 0.272978, 0.639814, 0.27256, 0.645959, 0.275178, 0, 0
2, 1740.00000, 0.640796, 0.272978, 0.639814, 0.27256, 0.645959, 0.275178, 0, 0
2, 1800.00000, 0.640796, 0.272978, 0.639814, 0.27256, 0.645959, 0.275178, 0, 0
2, 1860.00000, 0.640796, 0.272978, 0.639814, 0.27256, 0.645959, 0.275178, 0, 0
2, 1920.00000, 0.640796, 0.272978, 0.639814, 0.27256, 0.645959, 0.275178, 0, 0
2, 1980.00000, 0.640796, 0.272978, 0.639814, 0.27256, 0.645959, 0.275178, 0, 0
2, 2040.00000, 0.640796, 0.272978, 0.639814, 0.27256, 0.645959, 0.275178, 0, 0
2, 2100.00000, 0.640796, 0.272978, 0.639814, 0.27256, 0.645959, 0.275178, 0, 0
2, 2160.00000, 0.640796, 0.272978, 0.639814, 0.27256, 0.645959, 0.275178, 0, 0
2, 2220.00000, 0.640796, 0.272978, 0.639814, 0.27256, 0.645959, 0.275178, 0, 0
2, 2280.00000, 0.640796, 0.272978, 0.639814, 0.27256, 0.645959, 0.275178, 0, 0
2, 2340.00000, 0.640796, 0.272978, 0.639814, 0.27256, 0.645959, 0.275178, 0, 0
2, 2400.00000, 0.64506, 0.274794, 0.639746, 0.272531, 0.64596, 0.275178, 0, 0
2, 2460.00000, 0.64506, 0.274794, 0.639746, 0.272531, 0.645959, 0.275178, 0, 0
2, 2520.00000, 0.64506, 0.274794, 0.639746, 0.272531, 0.645959, 0.275178, 0, 0
2, 2580.00000, 0.64506, 0.274794, 0.639746, 0.272531, 0.645959, 0.275178, 0, 0
2, 2640.00000, 0.64506, 0.274794, 0.639746, 0.272531, 0.645959, 0.275178, 0, 0
2, 2700.00000, 0.641604, 0.273322, 0.634383, 0.270246, 0.645959, 0.275177, 0, 0
2, 2760.00000, 0.641604, 0.273322, 0.634383, 0.270246, 0.645959, 0.275178, 0, 0
2, 2820.00000, 0.641604, 0.273322, 0.634383, 0.270246, 0.645959, 0.275178, 0, 0
2, 2880.00000, 0.641604, 0.273322, 0.634383, 0.270246, 0.645959, 0.275178, 0, 0
2, 2940.00000, 0.641604, 0.273322, 0.634383, 0.270246, 0.645959, 0.275178, 0, 0
2, 3000.00000, 0.641604, 0.273322, 0.634383, 0.270246, 0.645959, 0.275178, 0, 0
2, 3060.00000, 0.641831, 0.273419, 0.637773, 0.27169, 0.64596, 0.275178, 0, 0
2, 3120.00000, 0.641831, 0.273419, 0.637773, 0.27169, 0.645959, 0.275178, 0, 0
2, 3180.00000, 0.641831, 0.273419, 0.637773, 0.27169, 0.645959, 0.275178, 0, 0
2, 3240.00000, 0.641831, 0.273419, 0.637773, 0.27169, 0.645959, 0.275178, 0, 0
2, 3300.00000, 0.641831, 0.273419, 0.637773, 0.27169, 0.645959, 0.275178, 0, 0
2, 3360.00000, 0.641831, 0.273419, 0.637773, 0.27169, 0.645959, 0.275178, 0, 0
2, 3420.00000, 0.641831, 0.273419, 0.637773, 0.27169, 0.645959, 0.275178, 0, 0
2, 3480.00000, 0.641831, 0.273419, 0.637773, 0.27169, 0.645959, 0.275178, 0, 0
2, 3540.00000, 0.641831, 0.273419, 0.637773, 0.27169, 0.645959, 0.275178, 0, 0
3, 0.00000, 0.641831, 0.273419, 0.637773, 0.27169, 0.645959, 0.275178, 0, 0
3, 60.00000, 0.641831, 0.273419, 0.637773, 0.27169, 0.645959, 0.275178, 0, 0
3, 120.00000, 0.641831, 0.273419, 0.637773, 0.27169, 0.645959, 0.275178, 0, 0
3, 180.00000, 0.641831, 0.273419, 0.637773, 0.27169, 0.645959, 0.275178, 0, 0
3, 240.00000, 0.641831, 0.273419, 0.637773, 0.27169, 0.645959, 0.275178, 0, 0
3, 300.00000, 0.641831, 0.273419, 0.637773, 0.27169, 0.645959, 0.275178, 0, 0
3, 360.00000, 0.641831, 0.273419, 0.637773, 0.27169, 0.645959, 0.275178, 0, 0
3, 420.00000, 0.641831, 0.273419, 0.637773, 0.27169, 0.645959, 0.275178, 0, 0
3, 480.00000, 0.641831, 0.273419, 0.637773, 0.27169, 0.645959, 0.275178, 0, 0
3, 540.00000, 0.641831, 0.273419, 0.637773, 0.27169, 0.645959, 0.275178, 0, 0
3, 600.00000, 0.641831, 0.273419, 0.637773, 0.27169, 0.645959, 0.275178, 0, 0
3, 660.00000, 0.641831, 0.273419, 0.637773, 0.27169, 0.645959, 0.275178, 0, 0
3, 720.00000, 0.641831, 0.273419, 0.637773, 0.27169, 0.645959, 0.275178, 0, 0
3, 780.00000, 0.641831, 0.273419, 0.637773, 0.27169, 0.645959, 0.275178, 0, 0
3, 840.00000, 0.641831, 0.273419, 0.637773, 0.27169, 0.645959, 0.275178, 0, 0
3, 900.00000, 0.641831, 0.273419, 0.637773, 0.27169, 0.645959, 0.275178, 0, 0
3, 960.00000, 0.641831, 0.273419, 0.637773, 0.27169, 0.645959, 0.275178, 0, 0
3, 1020.00000, 0.641831, 0.273419, 0.637773, 0.27169, 0.645959, 0.275178, 0, 0
3, 1080.00000, 0.641831, 0.273419, 0.637773, 0.27169, 0.645959, 0.275178, 0, 0
3, 1140.00000, 0.641831, 0.273419, 0.637773, 0.27169, 0.645959, 0.275178, 0, 0
3, 1200.00000, 0.641831, 0.273419, 0.637773, 0.27169, 0.645959, 0.275178, 0, 0
3, 1260.00000, 0.641831, 0.273419, 0.637773, 0.27169, 0.645959, 0.275178, 0, 0
3, 1320.00000, 0.641831, 0.273419, 0.637773, 0.27169, 0.645959, 0.275178, 0, 0
3, 1380.00000, 0.641831, 0.273419, 0.637773, 0.27169, 0.645959, 0.275178, 0, 0
3, 1440.00000, 0.641831, 0.273419, 0.637773, 0.27169, 0.645959, 0.275178, 0, 0
3, 1500.00000, 0.641831, 0.273419, 0.637773, 0.27169, 0.645959, 0.275178, 0, 0
3, 1560.00000, 0.641831, 0.273419, 0.637773, 0.27169, 0.645959, 0.275178, 0, 0
3, 1620.00000, 0.641831, 0.273419, 0.637773, 0.27169, 0.645959, 0.275178, 0, 0
3, 1680.00000, 0.641831, 0.273419, 0.637773, 0.27169, 0.645959, 0.275178, 0, 0
3, 1740.00000, 0.641831, 0.273419, 0.637773, 0.27169, 0.645959, 0.275178, 0, 0
3, 1800.00000, 0.641831, 0.273419, 0.637773, 0.27169, 0.645959, 0.275178, 0, 0
3, 1860.00000, 0.641831, 0.273419, 0.637773, 0.27169, 0.645959, 0.275178, 0, 0
3, 1920.00000, 0.641831, 0.273419, 0.637773, 0.27169, 0.645959, 0.275178, 0, 0
3, 1980.00000, 0.641831, 0.273419, 0.637773, 0.27169, 0.645959, 0.275178, 0, 0
3, 2040.00000, 0.641831, 0.273419, 0.637773, 0.27169, 0.645959, 0.275178, 0, 0
3, 2100.00000, 0.641831, 0.273419, 0.637773, 0.27169, 0.645959, 0.275178, 0, 0
3, 2160.00000, 0.641831, 0.273419, 0.637773, 0.27169, 0.645959, 0.275178, 0, 0
3, 2220.00000, 0.641831, 0.273419, 0.637773, 0.27169, 0.645959, 0.275178, 0, 0
3, 2280.00000, 0.641831, 0.273419, 0.637773, 0.27169, 0.645959, 0.275178, 0, 0
3, 2340.00000, 0.641831, 0.273419, 0.637773, 0.27169, 0.645959, 0.275178, 0, 0
3, 2400.00000, 0.641831, 0.273419, 0.637773, 0.27169, 0.645959, 0.275178, 0, 0
3, 2460.00000, 0.641831, 0.273419, 0.637773, 0.27169, 0.645959, 0.275178, 0, 0
3, 2520.00000, 0.641831, 0.273419, 0.637773, 0.27169, 0.645959, 0.275178, 0, 0
3, 2580.00000, 0.641831, 0.273419, 0.637773, 0.27169, 0.645959, 0.275178, 0, 0
3, 2640.00000, 0.641831, 0.273419, 0.637773, 0.27169, 0.645959, 0.275178, 0, 0
3, 2700.00000, 0.641831, 0.273419, 0.637773, 0.27169, 0.645959, 0.275178, 0, 0
3, 2760.00000, 0.641831, 0.273419, 0.637773, 0.27169, 0.645959, 0.275178, 0, 0
3, 2820.00000, 0.641831, 0.273419, 0.637773, 0.27169, 0.645959, 0.275178, 0, 0
3, 2880.00000, 0.641831, 0.273419, 0.637773, 0.27169, 0.645959, 0.275178, 0, 0
3, 2940.00000, 0.641831, 0.273419, 0.637773, 0.27169, 0.645959, 0.275178, 0, 0
3, 3000.00000, 0.641831, 0.273419, 0.637773, 0.27169, 0.645959, 0.275178, 0, 0
3, 3060.00000, 0.641831, 0.273419, 0.637773, 0.27169, 0.645959, 0.275178, 0, 0
3, 3120.00000, 0.641831, 0.273419, 0.637773, 0.27169, 0.645959, 0.275178, 0, 0
3, 3180.00000, 0.676362, 0.288129, 0.672187, 0.286351, 0.683341, 0.291102, 0, 0
3, 3240.00000, 0.676362, 0.288129, 0.672188, 0.286351, 0.683342, 0.291102, 0, 0
3, 3300.00000, 0.676362, 0.288129, 0.672188, 0.286351, 0.683342, 0.291102, 0, 0
3, 3360.00000, 0.676362, 0.288129, 0.672188, 0.286351, 0.683342, 0.291102, 0, 0
3, 3420.00000, 0.676362, 0.288129, 0.672188, 0.286351, 0.683342, 0.291102, 0, 0
3, 3480.00000, 0.676362, 0.288129, 0.672188, 0.286351, 0.683342, 0.291102, 0, 0
3, 3540.00000, 0.676362, 0.288129, 0.672188, 0.286351, 0.683342, 0.291102, 0, 0
4, 0.00000, 0.676362, 0.288129, 0.672188, 0.286351, 0.683342, 0.291102, 0, 0
4, 60.00000, 0.676362, 0.288129, 0.672188, 0.286351, 0.683342, 0.291102, 0, 0
4, 120.00000, 0.676362, 0.288129, 0.672188, 0.286351, 0.683342, 0.291102, 0, 0
4, 180.00000, 0.676362, 0.288129, 0.672188, 0.286351, 0.683342, 0.291102, 0, 0
4, 240.00000, 0.676362, 0.288129, 0.672188, 0.286351, 0.683342, 0.291102, 0, 0
4, 300.00000, 0.676362, 0.288129, 0.672188, 0.286351, 0.683342, 0.291102, 0, 0
4, 360.00000, 0.676362, 0.288129, 0.672188, 0.286351, 0.683342, 0.291102, 0, 0
4, 420.00000, 0.676362, 0.288129, 0.672188, 0.286351, 0.683342, 0.291102, 0, 0
4, 480.00000, 0.676362, 0.288129, 0.672188, 0.286351, 0.683342, 0.291102, 0, 0
4, 540.00000, 0.676362, 0.288129, 0.672188, 0.286351, 0.683342, 0.291102, 0, 0
4, 600.00000, 0.676362, 0.288129, 0.672188, 0.286351, 0.683342, 0.291102, 0, 0
4, 660.00000, 0.676362, 0.288129, 0.672188, 0.286351, 0.683342, 0.291102, 0, 0
4, 720.00000, 0.676362, 0.288129, 0.672188, 0.286351, 0.683342, 0.291102, 0, 0
