hour,t(sec),"P1 (kW)","Q1 (kvar)","P2 (kW)","Q2 (kvar)","P3 (kW)","Q3 (kvar)","P4 (kW)","Q4 (kvar)"
0, 60.00000, 0.585852, 0.249566, 0.586246, 0.24974, 0.599443, 0.255356, 0, 0
0, 120.00000, 0.585844, 0.249569, 0.586239, 0.249737, 0.599416, 0.25535, 0, 0
0, 180.00000, 0.585844, 0.249569, 0.586239, 0.249737, 0.599416, 0.25535, 0, 0
0, 240.00000, 0.585844, 0.249569, 0.586239, 0.249737, 0.599416, 0.25535, 0, 0
0, 300.00000, 0.585844, 0.249569, 0.586239, 0.249737, 0.599416, 0.25535, 0, 0
0, 360.00000, 0.585844, 0.249569, 0.586239, 0.249737, 0.599416, 0.25535, 0, 0
0, 420.00000, 0.585844, 0.249569, 0.586239, 0.249737, 0.599416, 0.25535, 0, 0
0, 480.00000, 0.585844, 0.249569, 0.586239, 0.249737, 0.599416, 0.25535, 0, 0
0, 540.00000, 0.585844, 0.249569, 0.586239, 0.249737, 0.599416, 0.25535, 0, 0
0, 600.00000, 0.585844, 0.249569, 0.586239, 0.249737, 0.599416, 0.25535, 0, 0
0, 660.00000, 0.585844, 0.249569, 0.586239, 0.249737, 0.599416, 0.25535, 0, 0
0, 720.00000, 0.585844, 0.249569, 0.586239, 0.249737, 0.599416, 0.25535, 0, 0
0, 780.00000, 0.585844, 0.249569, 0.586239, 0.249737, 0.599416, 0.25535, 0, 0
0, 840.00000, 0.585844, 0.249569, 0.586239, 0.249737, 0.599416, 0.25535, 0, 0
0, 900.00000, 0.585844, 0.249569, 0.586239, 0.249737, 0.599416, 0.25535, 0, 0
0, 960.00000, 0.616727, 0.262723, 0.617252, 0.262948, 0.631195, 0.268887, 0, 0
0, 1020.00000, 0.616724, 0.262723, 0.617249, 0.262947, 0.631191, 0.268886, 0, 0
0, 1080.00000, 0.616724, 0.262723, 0.617249, 0.262947, 0.631191, 0.268886, 0, 0
0, 1140.00000, 0.616724, 0.262723, 0.617249, 0.262947, 0.631191, 0.268886, 0, 0
0, 1200.00000, 0.616724, 0.262723, 0.617249, 0.262947, 0.631191, 0.268886, 0, 0
0, 1260.00000, 0.616724, 0.262723, 0.617249, 0.262947, 0.631191, 0.268886, 0, 0
0, 1320.00000, 0.616724, 0.262723, 0.617249, 0.262947, 0.631191, 0.268886, 0, 0
0, 1380.00000, 0.616724, 0.262723, 0.617249, 0.262947, 0.631191, 0.268886, 0, 0
0, 1440.00000, 0.616724, 0.262723, 0.617249, 0.262947, 0.631191, 0.268886, 0, 0
0, 1500.00000, 0.616724, 0.262723, 0.617249, 0.262947, 0.631191, 0.268886, 0, 0
0, 1560.00000, 0.616724, 0.262723, 0.617249, 0.262947, 0.631191, 0.268886, 0, 0
0, 1620.00000, 0.616724, 0.262723, 0.617249, 0.262947, 0.631191, 0.268886, 0, 0
0, 1680.00000, 0.616724, 0.262723, 0.617249, 0.262947, 0.631191, 0.268886, 0, 0
0, 1740.00000, 0.616724, 0.262723, 0.617249, 0.262947, 0.631191, 0.268886, 0, 0
0, 1800.00000, 0.616724, 0.262723, 0.617249, 0.262947, 0.631191, 0.268886, 0, 0
0, 1860.00000, 0.621204, 0.264647, 0.621627, 0.264822, 0.635591, 0.270772, 0, 0
0, 1920.00000, 0.621238, 0.264646, 0.621662, 0.264827, 0.635635, 0.270779, 0, 0
0, 1980.00000, 0.621238, 0.264646, 0.621662, 0.264827, 0.635635, 0.270779, 0, 0
0, 2040.00000, 0.621238, 0.264646, 0.621662, 0.264827, 0.635635, 0.270779, 0, 0
0, 2100.00000, 0.621238, 0.264646, 0.621662, 0.264827, 0.635635, 0.270779, 0, 0
0, 2160.00000, 0.621238, 0.264646, 0.621662, 0.264827, 0.635635, 0.270779, 0, 0
0, 2220.00000, 0.621238, 0.264646, 0.621662, 0.264827, 0.635635, 0.270779, 0, 0
0, 2280.00000, 0.621238, 0.264646, 0.621662, 0.264827, 0.635635, 0.270779, 0, 0
0, 2340.00000, 0.621238, 0.264646, 0.621662, 0.264827, 0.635635, 0.270779, 0, 0
0, 2400.00000, 0.621238, 0.264646, 0.621662, 0.264827, 0.635635, 0.270779, 0, 0
0, 2460.00000, 0.621238, 0.264646, 0.621662, 0.264827, 0.635635, 0.270779, 0, 0
0, 2520.00000, 0.621238, 0.264646, 0.621662, 0.264827, 0.635635, 0.270779, 0, 0
0, 2580.00000, 0.621238, 0.264646, 0.621662, 0.264827, 0.635635, 0.270779, 0, 0
0, 2640.00000, 0.621238, 0.264646, 0.621662, 0.264827, 0.635635, 0.270779, 0, 0
0, 2700.00000, 0.621238, 0.264646, 0.621662, 0.264827, 0.635635, 0.270779, 0, 0
0, 2760.00000, 0.594812, 0.253392, 0.59505, 0.25349, 0.608405, 0.259183, 0, 0
0, 2820.00000, 0.594816, 0.25339, 0.595053, 0.253491, 0.60842, 0.259186, 0, 0
0, 2880.00000, 0.594816, 0.25339, 0.595053, 0.253492, 0.60842, 0.259186, 0, 0
0, 2940.00000, 0.594816, 0.25339, 0.595053, 0.253492, 0.60842, 0.259186, 0, 0
0, 3000.00000, 0.594816, 0.25339, 0.595053, 0.253492, 0.60842, 0.259186, 0, 0
0, 3060.00000, 0.594816, 0.25339, 0.595053, 0.253492, 0.60842, 0.259186, 0, 0
0, 3120.00000, 0.594816, 0.25339, 0.595053, 0.253492, 0.60842, 0.259186, 0, 0
0, 3180.00000, 0.594816, 0.25339, 0.595053, 0.253492, 0.60842, 0.259186, 0, 0
0, 3240.00000, 0.594816, 0.25339, 0.595053, 0.253492, 0.60842, 0.259186, 0, 0
0, 3300.00000, 0.594816, 0.25339, 0.595053, 0.253492, 0.60842, 0.259186, 0, 0
0, 3360.00000, 0.594816, 0.25339, 0.595053, 0.253492, 0.60842, 0.259186, 0, 0
0, 3420.00000, 0.594816, 0.25339, 0.595053, 0.253492, 0.60842, 0.259186, 0, 0
0, 3480.00000, 0.594816, 0.25339, 0.595053, 0.253492, 0.60842, 0.259186, 0, 0
0, 3540.00000, 0.594816, 0.25339, 0.595053, 0.253492, 0.60842, 0.259186, 0, 0
1, 0.00000, 0.594816, 0.25339, 0.595053, 0.253492, 0.60842, 0.259186, 0, 0
1, 60.00000, 0.590764, 0.251668, 0.590899, 0.251719, 0.60424, 0.257408, 0, 0
1, 120.00000, 0.590765, 0.251665, 0.5909, 0.251722, 0.60426, 0.257414, 0, 0
1, 180.00000, 0.590765, 0.251665, 0.5909, 0.251722, 0.60426, 0.257414, 0, 0
1, 240.00000, 0.590765, 0.251665, 0.5909, 0.251722, 0.60426, 0.257414, 0, 0
1, 300.00000, 0.590765, 0.251665, 0.5909, 0.251722, 0.60426, 0.257414, 0, 0
1, 360.00000, 0.590765, 0.251665, 0.5909, 0.251722, 0.60426, 0.257414, 0, 0
1, 420.00000, 0.590765, 0.251665, 0.5909, 0.251722, 0.60426, 0.257414, 0, 0
1, 480.00000, 0.590765, 0.251665, 0.5909, 0.251722, 0.60426, 0.257414, 0, 0
1, 540.00000, 0.590765, 0.251665, 0.5909, 0.251722, 0.60426, 0.257414, 0, 0
1, 600.00000, 0.590765, 0.251665, 0.5909, 0.251722, 0.60426, 0.257414, 0, 0
1, 660.00000, 0.590765, 0.251665, 0.5909, 0.251722, 0.60426, 0.257414, 0, 0
1, 720.00000, 0.590765, 0.251665, 0.5909, 0.251722, 0.60426, 0.257414, 0, 0
1, 780.00000, 0.590765, 0.251665, 0.5909, 0.251722, 0.60426, 0.257414, 0, 0
1, 840.00000, 0.590765, 0.251665, 0.5909, 0.251722, 0.60426, 0.257414, 0, 0
1, 900.00000, 0.590765, 0.251665, 0.5909, 0.251722, 0.60426, 0.257414, 0, 0
1, 960.00000, 0.588417, 0.250671, 0.588531, 0.250712, 0.601838, 0.256387, 0, 0
1, 1020.00000, 0.588424, 0.250668, 0.588538, 0.250716, 0.601868, 0.256395, 0, 0
1, 1080.00000, 0.588424, 0.250668, 0.588538, 0.250716, 0.601868, 0.256395, 0, 0
1, 1140.00000, 0.588424, 0.250668, 0.588538, 0.250716, 0.601868, 0.256395, 0, 0
1, 1200.00000, 0.588424, 0.250668, 0.588538, 0.250716, 0.601868, 0.256395, 0, 0
1, 1260.00000, 0.588424, 0.250668, 0.588538, 0.250716, 0.601868, 0.256395, 0, 0
1, 1320.00000, 0.588424, 0.250668, 0.588538, 0.250716, 0.601868, 0.256395, 0, 0
1, 1380.00000, 0.588424, 0.250668, 0.588538, 0.250716, 0.601868, 0.256395, 0, 0
1, 1440.00000, 0.588424, 0.250668, 0.588538, 0.250716, 0.601868, 0.256395, 0, 0
1, 1500.00000, 0.588424, 0.250668, 0.588538, 0.250716, 0.601868, 0.256395, 0, 0
1, 1560.00000, 0.588424, 0.250668, 0.588538, 0.250716, 0.601868, 0.256395, 0, 0
1, 1620.00000, 0.588424, 0.250668, 0.588538, 0.250716, 0.601868, 0.256395, 0, 0
1, 1680.00000, 0.588424, 0.250668, 0.588538, 0.250716, 0.601868, 0.256395, 0, 0
1, 1740.00000, 0.588424, 0.250668, 0.588538, 0.250716, 0.601868, 0.256395, 0, 0
1, 1800.00000, 0.588424, 0.250668, 0.588538, 0.250716, 0.601868, 0.256395, 0, 0
1, 1860.00000, 0.600657, 0.255875, 0.600847, 0.255962, 0.614362, 0.261714, 0, 0
1, 1920.00000, 0.600655, 0.255878, 0.600846, 0.255959, 0.614342, 0.261709, 0, 0
1, 1980.00000, 0.600655, 0.255878, 0.600846, 0.255959, 0.614342, 0.261709, 0, 0
1, 2040.00000, 0.600655, 0.255878, 0.600846, 0.255959, 0.614342, 0.261709, 0, 0
1, 2100.00000, 0.600655, 0.255878, 0.600846, 0.255959, 0.614342, 0.261709, 0, 0
1, 2160.00000, 0.600655, 0.255878, 0.600846, 0.255959, 0.614342, 0.261709, 0, 0
1, 2220.00000, 0.600655, 0.255878, 0.600846, 0.255959, 0.614342, 0.261709, 0, 0
1, 2280.00000, 0.600655, 0.255878, 0.600846, 0.255959, 0.614342, 0.261709, 0, 0
1, 2340.00000, 0.600655, 0.255878, 0.600846, 0.255959, 0.614342, 0.261709, 0, 0
1, 2400.00000, 0.600655, 0.255878, 0.600846, 0.255959, 0.614342, 0.261709, 0, 0
1, 2460.00000, 0.600655, 0.255878, 0.600846, 0.255959, 0.614342, 0.261709, 0, 0
1, 2520.00000, 0.600655, 0.255878, 0.600846, 0.255959, 0.614342, 0.261709, 0, 0
1, 2580.00000, 0.600655, 0.255878, 0.600846, 0.255959, 0.614342, 0.261709, 0, 0
1, 2640.00000, 0.600655, 0.255878, 0.600846, 0.255959, 0.614342, 0.261709, 0, 0
1, 2700.00000, 0.600655, 0.255878, 0.600846, 0.255959, 0.614342, 0.261709, 0, 0
1, 2760.00000, 0.570588, 0.243076, 0.57063, 0.243084, 0.583597, 0.248618, 0, 0
1, 2820.00000, 0.57059, 0.24307, 0.570637, 0.24309, 0.583637, 0.248628, 0, 0
1, 2880.00000, 0.570589, 0.24307, 0.570637, 0.24309, 0.583638, 0.248629, 0, 0
1, 2940.00000, 0.570589, 0.24307, 0.570637, 0.24309, 0.583638, 0.248629, 0, 0
1, 3000.00000, 0.570589, 0.24307, 0.570637, 0.24309, 0.583638, 0.248629, 0, 0
1, 3060.00000, 0.570589, 0.24307, 0.570637, 0.24309, 0.583638, 0.248629, 0, 0
1, 3120.00000, 0.570589, 0.24307, 0.570637, 0.24309, 0.583638, 0.248629, 0, 0
1, 3180.00000, 0.570589, 0.24307, 0.570637, 0.24309, 0.583638, 0.248629, 0, 0
1, 3240.00000, 0.570589, 0.24307, 0.570637, 0.24309, 0.583638, 0.248629, 0, 0
1, 3300.00000, 0.570589, 0.24307, 0.570637, 0.24309, 0.583638, 0.248629, 0, 0
1, 3360.00000, 0.570589, 0.24307, 0.570637, 0.24309, 0.583638, 0.248629, 0, 0
1, 3420.00000, 0.570589, 0.24307, 0.570637, 0.24309, 0.583638, 0.248629, 0, 0
1, 3480.00000, 0.570589, 0.24307, 0.570637, 0.24309, 0.583638, 0.248629, 0, 0
1, 3540.00000, 0.570589, 0.24307, 0.570637, 0.24309, 0.583638, 0.248629, 0, 0
2, 0.00000, 0.570589, 0.24307, 0.570637, 0.24309, 0.583638, 0.248629, 0, 0
2, 60.00000, 0.583144, 0.248414, 0.583253, 0.248467, 0.596477, 0.254094, 0, 0
2, 120.00000, 0.583143, 0.248418, 0.583251, 0.248464, 0.596454, 0.254088, 0, 0
2, 180.00000, 0.583143, 0.248418, 0.583251, 0.248464, 0.596454, 0.254088, 0, 0
2, 240.00000, 0.583143, 0.248418, 0.583251, 0.248464, 0.596454, 0.254088, 0, 0
2, 300.00000, 0.583143, 0.248418, 0.583251, 0.248464, 0.596454, 0.254088, 0, 0
2, 360.00000, 0.583143, 0.248418, 0.583251, 0.248464, 0.596454, 0.254088, 0, 0
2, 420.00000, 0.583143, 0.248418, 0.583251, 0.248464, 0.596454, 0.254088, 0, 0
2, 480.00000, 0.583143, 0.248418, 0.583251, 0.248464, 0.596454, 0.254088, 0, 0
2, 540.00000, 0.583143, 0.248418, 0.583251, 0.248464, 0.596454, 0.254088, 0, 0
2, 600.00000, 0.583143, 0.248418, 0.583251, 0.248464, 0.596454, 0.254088, 0, 0
2, 660.00000, 0.583143, 0.248418, 0.583251, 0.248464, 0.596454, 0.254088, 0, 0
2, 720.00000, 0.583143, 0.248418, 0.583251, 0.248464, 0.596454, 0.254088, 0, 0
2, 780.00000, 0.583143, 0.248418, 0.583251, 0.248464, 0.596454, 0.254088, 0, 0
2, 840.00000, 0.583143, 0.248418, 0.583251, 0.248464, 0.596454, 0.254088, 0, 0
2, 900.00000, 0.583143, 0.248418, 0.583251, 0.248464, 0.596454, 0.254088, 0, 0
2, 960.00000, 0.556257, 0.236969, 0.556272, 0.236969, 0.568924, 0.242365, 0, 0
2, 1020.00000, 0.556259, 0.236966, 0.556279, 0.236974, 0.568952, 0.242372, 0, 0
2, 1080.00000, 0.556259, 0.236965, 0.556279, 0.236974, 0.568952, 0.242373, 0, 0
2, 1140.00000, 0.556259, 0.236965, 0.556279, 0.236974, 0.568952, 0.242373, 0, 0
2, 1200.00000, 0.556259, 0.236965, 0.556279, 0.236974, 0.568952, 0.242373, 0, 0
2, 1260.00000, 0.556259, 0.236965, 0.556279, 0.236974, 0.568952, 0.242373, 0, 0
2, 1320.00000, 0.556259, 0.236965, 0.556279, 0.236974, 0.568952, 0.242373, 0, 0
2, 1380.00000, 0.556259, 0.236965, 0.556279, 0.236974, 0.568952, 0.242373, 0, 0
2, 1440.00000, 0.556259, 0.236965, 0.556279, 0.236974, 0.568952, 0.242373, 0, 0
2, 1500.00000, 0.556259, 0.236965, 0.556279, 0.236974, 0.568952, 0.242373, 0, 0
2, 1560.00000, 0.556259, 0.236965, 0.556279, 0.236974, 0.568952, 0.242373, 0, 0
2, 1620.00000, 0.556259, 0.236965, 0.556279, 0.236974, 0.568952, 0.242373, 0, 0
2, 1680.00000, 0.556259, 0.236965, 0.556279, 0.236974, 0.568952, 0.242373, 0, 0
2, 1740.00000, 0.556259, 0.236965, 0.556279, 0.236974, 0.568952, 0.242373, 0, 0
2, 1800.00000, 0.556259, 0.236965, 0.556279, 0.236974, 0.568952, 0.242373, 0, 0
2, 1860.00000, 0.554406, 0.236175, 0.554455, 0.236198, 0.567069, 0.241568, 0, 0
2, 1920.00000, 0.554406, 0.236176, 0.554452, 0.236196, 0.567057, 0.241565, 0, 0
2, 1980.00000, 0.554406, 0.236176, 0.554452, 0.236196, 0.567057, 0.241565, 0, 0
2, 2040.00000, 0.554406, 0.236176, 0.554452, 0.236196, 0.567057, 0.241565, 0, 0
2, 2100.00000, 0.554406, 0.236176, 0.554452, 0.236196, 0.567057, 0.241565, 0, 0
2, 2160.00000, 0.554406, 0.236176, 0.554452, 0.236196, 0.567057, 0.241565, 0, 0
2, 2220.00000, 0.554406, 0.236176, 0.554452, 0.236196, 0.567057, 0.241565, 0, 0
2, 2280.00000, 0.554406, 0.236176, 0.554452, 0.236196, 0.567057, 0.241565, 0, 0
2, 2340.00000, 0.554406, 0.236176, 0.554452, 0.236196, 0.567057, 0.241565, 0, 0
2, 2400.00000, 0.554406, 0.236176, 0.554452, 0.236196, 0.567057, 0.241565, 0, 0
2, 2460.00000, 0.554406, 0.236176, 0.554452, 0.236196, 0.567057, 0.241565, 0, 0
2, 2520.00000, 0.554406, 0.236176, 0.554452, 0.236196, 0.567057, 0.241565, 0, 0
2, 2580.00000, 0.554406, 0.236176, 0.554452, 0.236196, 0.567057, 0.241565, 0, 0
2, 2640.00000, 0.554406, 0.236176, 0.554452, 0.236196, 0.567057, 0.241565, 0, 0
2, 2700.00000, 0.554406, 0.236176, 0.554452, 0.236196, 0.567057, 0.241565, 0, 0
2, 2760.00000, 0.534583, 0.227737, 0.534512, 0.227699, 0.546351, 0.23275, 0, 0
2, 2820.00000, 0.53459, 0.227734, 0.534522, 0.227705, 0.546328, 0.232735, 0, 0
2, 2880.00000, 0.53459, 0.227734, 0.534522, 0.227705, 0.546327, 0.232734, 0, 0
2, 2940.00000, 0.53459, 0.227734, 0.534522, 0.227705, 0.546327, 0.232734, 0, 0
2, 3000.00000, 0.53459, 0.227734, 0.534522, 0.227705, 0.546327, 0.232734, 0, 0
2, 3060.00000, 0.53459, 0.227734, 0.534522, 0.227705, 0.546327, 0.232734, 0, 0
2, 3120.00000, 0.53459, 0.227734, 0.534522, 0.227705, 0.546327, 0.232734, 0, 0
2, 3180.00000, 0.53459, 0.227734, 0.534522, 0.227705, 0.546327, 0.232734, 0, 0
2, 3240.00000, 0.53459, 0.227734, 0.534522, 0.227705, 0.546327, 0.232734, 0, 0
2, 3300.00000, 0.53459, 0.227734, 0.534522, 0.227705, 0.546327, 0.232734, 0, 0
2, 3360.00000, 0.53459, 0.227734, 0.534522, 0.227705, 0.546327, 0.232734, 0, 0
2, 3420.00000, 0.53459, 0.227734, 0.534522, 0.227705, 0.546327, 0.232734, 0, 0
2, 3480.00000, 0.53459, 0.227734, 0.534522, 0.227705, 0.546327, 0.232734, 0, 0
2, 3540.00000, 0.53459, 0.227734, 0.534522, 0.227705, 0.546327, 0.232734, 0, 0
3, 0.00000, 0.53459, 0.227734, 0.534522, 0.227705, 0.546327, 0.232734, 0, 0
3, 60.00000, 0.546362, 0.232746, 0.546361, 0.232749, 0.558819, 0.238053, 0, 0
3, 120.00000, 0.546356, 0.232747, 0.546356, 0.232747, 0.558803, 0.238049, 0, 0
3, 180.00000, 0.546356, 0.232747, 0.546356, 0.232746, 0.558802, 0.238049, 0, 0
3, 240.00000, 0.546356, 0.232747, 0.546356, 0.232746, 0.558802, 0.238049, 0, 0
3, 300.00000, 0.546356, 0.232747, 0.546356, 0.232746, 0.558802, 0.238049, 0, 0
3, 360.00000, 0.546356, 0.232747, 0.546356, 0.232746, 0.558802, 0.238049, 0, 0
3, 420.00000, 0.546356, 0.232747, 0.546356, 0.232746, 0.558802, 0.238049, 0, 0
3, 480.00000, 0.546356, 0.232747, 0.546356, 0.232746, 0.558802, 0.238049, 0, 0
3, 540.00000, 0.546356, 0.232747, 0.546356, 0.232746, 0.558802, 0.238049, 0, 0
3, 600.00000, 0.546356, 0.232747, 0.546356, 0.232746, 0.558802, 0.238049, 0, 0
3, 660.00000, 0.546356, 0.232747, 0.546356, 0.232746, 0.558802, 0.238049, 0, 0
3, 720.00000, 0.546356, 0.232747, 0.546356, 0.232746, 0.558802, 0.238049, 0, 0
3, 780.00000, 0.546356, 0.232747, 0.546356, 0.232746, 0.558802, 0.238049, 0, 0
3, 840.00000, 0.546356, 0.232747, 0.546356, 0.232746, 0.558802, 0.238049, 0, 0
3, 900.00000, 0.546356, 0.232747, 0.546356, 0.232746, 0.558802, 0.238049, 0, 0
3, 960.00000, 0.561558, 0.23923, 0.56154, 0.239216, 0.57434, 0.244673, 0, 0
3, 1020.00000, 0.561572, 0.239229, 0.561557, 0.239222, 0.574381, 0.244686, 0, 0
3, 1080.00000, 0.561573, 0.239229, 0.561557, 0.239222, 0.574382, 0.244686, 0, 0
3, 1140.00000, 0.561573, 0.239229, 0.561557, 0.239222, 0.574382, 0.244686, 0, 0
3, 1200.00000, 0.561573, 0.239229, 0.561557, 0.239222, 0.574382, 0.244686, 0, 0
3, 1260.00000, 0.561573, 0.239229, 0.561557, 0.239222, 0.574382, 0.244686, 0, 0
3, 1320.00000, 0.561573, 0.239229, 0.561557, 0.239222, 0.574382, 0.244686, 0, 0
3, 1380.00000, 0.561573, 0.239229, 0.561557, 0.239222, 0.574382, 0.244686, 0, 0
3, 1440.00000, 0.561573, 0.239229, 0.561557, 0.239222, 0.574382, 0.244686, 0, 0
3, 1500.00000, 0.561573, 0.239229, 0.561557, 0.239222, 0.574382, 0.244686, 0, 0
3, 1560.00000, 0.561573, 0.239229, 0.561557, 0.239222, 0.574382, 0.244686, 0, 0
3, 1620.00000, 0.561573, 0.239229, 0.561557, 0.239222, 0.574382, 0.244686, 0, 0
3, 1680.00000, 0.561573, 0.239229, 0.561557, 0.239222, 0.574382, 0.244686, 0, 0
3, 1740.00000, 0.561573, 0.239229, 0.561557, 0.239222, 0.574382, 0.244686, 0, 0
3, 1800.00000, 0.561573, 0.239229, 0.561557, 0.239222, 0.574382, 0.244686, 0, 0
3, 1860.00000, 0.568308, 0.242103, 0.568294, 0.242096, 0.58128, 0.247629, 0, 0
3, 1920.00000, 0.568323, 0.242105, 0.568309, 0.242099, 0.581299, 0.247632, 0, 0
3, 1980.00000, 0.568323, 0.242105, 0.568309, 0.242099, 0.5813, 0.247633, 0, 0
3, 2040.00000, 0.568323, 0.242105, 0.568309, 0.242099, 0.5813, 0.247633, 0, 0
3, 2100.00000, 0.568323, 0.242105, 0.568309, 0.242099, 0.5813, 0.247633, 0, 0
3, 2160.00000, 0.568323, 0.242105, 0.568309, 0.242099, 0.5813, 0.247633, 0, 0
3, 2220.00000, 0.568323, 0.242105, 0.568309, 0.242099, 0.5813, 0.247633, 0, 0
3, 2280.00000, 0.568323, 0.242105, 0.568309, 0.242099, 0.5813, 0.247633, 0, 0
3, 2340.00000, 0.568323, 0.242105, 0.568309, 0.242099, 0.5813, 0.247633, 0, 0
3, 2400.00000, 0.568323, 0.242105, 0.568309, 0.242099, 0.5813, 0.247633, 0, 0
3, 2460.00000, 0.568323, 0.242105, 0.568309, 0.242099, 0.5813, 0.247633, 0, 0
3, 2520.00000, 0.568323, 0.242105, 0.568309, 0.242099, 0.5813, 0.247633, 0, 0
3, 2580.00000, 0.568323, 0.242105, 0.568309, 0.242099, 0.5813, 0.247633, 0, 0
3, 2640.00000, 0.568323, 0.242105, 0.568309, 0.242099, 0.5813, 0.247633, 0, 0
3, 2700.00000, 0.568323, 0.242105, 0.568309, 0.242099, 0.5813, 0.247633, 0, 0
3, 2760.00000, 0.524143, 0.22329, 0.523964, 0.223206, 0.533192, 0.227143, 0, 0
3, 2820.00000, 0.524156, 0.22329, 0.523973, 0.223211, 0.533169, 0.227129, 0, 0
3, 2880.00000, 0.524156, 0.22329, 0.523973, 0.223211, 0.533169, 0.227129, 0, 0
3, 2940.00000, 0.524156, 0.22329, 0.523973, 0.223211, 0.533169, 0.227129, 0, 0
3, 3000.00000, 0.524156, 0.22329, 0.523973, 0.223211, 0.533169, 0.227129, 0, 0
3, 3060.00000, 0.524156, 0.22329, 0.523973, 0.223211, 0.533169, 0.227129, 0, 0
3, 3120.00000, 0.526014, 0.224076, 0.527883, 0.22489, 0.533156, 0.227124, 0, 0
3, 3180.00000, 0.526028, 0.224087, 0.527921, 0.224894, 0.533169, 0.227129, 0, 0
3, 3240.00000, 0.526028, 0.224087, 0.527922, 0.224894, 0.533169, 0.227129, 0, 0
3, 3300.00000, 0.526028, 0.224087, 0.527922, 0.224894, 0.533169, 0.227129, 0, 0
3, 3360.00000, 0.526028, 0.224087, 0.527922, 0.224894, 0.533169, 0.227129, 0, 0
3, 3420.00000, 0.526028, 0.224087, 0.527922, 0.224894, 0.533169, 0.227129, 0, 0
3, 3480.00000, 0.526028, 0.224087, 0.527922, 0.224894, 0.533169, 0.227129, 0, 0
3, 3540.00000, 0.526028, 0.224087, 0.527922, 0.224894, 0.533169, 0.227129, 0, 0
4, 0.00000, 0.526028, 0.224087, 0.527922, 0.224894, 0.533169, 0.227129, 0, 0
4, 60.00000, 0.559874, 0.238502, 0.562006, 0.239414, 0.570353, 0.242966, 0, 0
4, 120.00000, 0.559865, 0.238501, 0.561995, 0.239409, 0.570354, 0.24297, 0, 0
4, 180.00000, 0.559865, 0.238501, 0.561995, 0.239409, 0.570353, 0.242969, 0, 0
4, 240.00000, 0.559865, 0.238501, 0.561995, 0.239409, 0.570353, 0.242969, 0, 0
4, 300.00000, 0.559865, 0.238501, 0.561995, 0.239409, 0.570353, 0.242969, 0, 0
4, 360.00000, 0.559865, 0.238501, 0.561995, 0.239409, 0.570353, 0.242969, 0, 0
4, 420.00000, 0.559865, 0.238501, 0.561995, 0.239409, 0.570353, 0.242969, 0, 0
4, 480.00000, 0.559865, 0.238501, 0.561995, 0.239409, 0.570353, 0.242969, 0, 0
4, 540.00000, 0.559865, 0.238501, 0.561995, 0.239409, 0.570353, 0.242969, 0, 0
4, 600.00000, 0.559865, 0.238501, 0.561995, 0.239409, 0.570353, 0.242969, 0, 0
4, 660.00000, 0.559865, 0.238501, 0.561995, 0.239409, 0.570353, 0.242969, 0, 0
4, 720.00000, 0.559865, 0.238501, 0.561995, 0.239409, 0.570353, 0.242969, 0, 0
