hour,t(sec),V1,VAngle1,V2,VAngle2,V3,VAngle3,V4,VAngle4,I1,IAngle1,I2,IAngle2,I3,IAngle3,I4,IAngle4
0, 60.00000, 122.696, -32.1153, 119.51, -152.177, 121.526, 89.0118, 0, 0, 4.14359, -55.1884, 4.16852, -175.251, 4.1833, 65.9383, 0.110412, -41.1782
0, 120.00000, 122.729, -32.1241, 119.506, -152.193, 121.526, 89.012, 0, 0, 4.14246, -55.1972, 4.16834, -175.267, 4.18331, 65.9385, 0.112366, -41.4657
0, 180.00000, 122.759, -32.132, 119.502, -152.207, 121.526, 89.0121, 0, 0, 4.14144, -55.2052, 4.16819, -175.281, 4.18331, 65.9386, 0.114124, -41.7153
0, 240.00000, 122.786, -32.1391, 119.499, -152.219, 121.526, 89.0123, 0, 0, 4.14053, -55.2123, 4.16805, -175.293, 4.18331, 65.9387, 0.115708, -41.9346
0, 300.00000, 122.81, -32.1455, 119.495, -152.231, 121.526, 89.0124, 0, 0, 4.13971, -55.2188, 4.16792, -175.305, 4.18332, 65.9388, 0.117134, -42.1269
0, 360.00000, 122.831, -32.1513, 119.493, -152.241, 121.526, 89.0125, 0, 0, 4.13897, -55.2246, 4.1678, -175.315, 4.18332, 65.9389, 0.118417, -42.2961
0, 420.00000, 122.851, -32.1565, 119.49, -152.25, 121.526, 89.0126, 0, 0, 4.1383, -55.2299, 4.1677, -175.324, 4.18332, 65.939, 0.119572, -42.4453
0, 480.00000, 122.868, -32.1612, 119.488, -152.258, 121.526, 89.0127, 0, 0, 4.13771, -55.2346, 4.1676, -175.332, 4.18332, 65.939, 0.120611, -42.5771
0, 540.00000, 122.884, -32.1654, 119.486, -152.266, 121.526, 89.0128, 0, 0, 4.13717, -55.2389, 4.16752, -175.34, 4.18332, 65.9391, 0.121547, -42.6938
0, 600.00000, 122.898, -32.1692, 119.484, -152.273, 121.526, 89.0129, 0, 0, 4.13668, -55.2428, 4.16744, -175.347, 4.18333, 65.9391, 0.122388, -42.7973
0, 660.00000, 122.911, -32.1727, 119.482, -152.279, 121.526, 89.013, 0, 0, 4.13625, -55.2463, 4.16737, -175.353, 4.18333, 65.9392, 0.123146, -42.8893
0, 720.00000, 122.922, -32.1758, 119.481, -152.284, 121.526, 89.013, 0, 0, 4.13586, -55.2494, 4.1673, -175.358, 4.18333, 65.9392, 0.123827, -42.9712
0, 780.00000, 122.933, -32.1786, 119.479, -152.289, 121.526, 89.0131, 0, 0, 4.13551, -55.2522, 4.16724, -175.363, 4.18333, 65.9393, 0.12444, -43.0441
0, 840.00000, 122.942, -32.1811, 119.478, -152.293, 121.526, 89.0131, 0, 0, 4.13519, -55.2547, 4.16719, -175.367, 4.18333, 65.9393, 0.124992, -43.1091
0, 900.00000, 122.95, -32.1833, 119.477, -152.297, 121.526, 89.0132, 0, 0, 4.13491, -55.257, 4.16714, -175.371, 4.18333, 65.9394, 0.125489, -43.1671
0, 960.00000, 122.72, -32.2139, 119.2, -152.448, 121.024, 88.9503, 0, 0, 4.01596, -55.2876, 4.02931, -175.522, 4.07221, 65.8765, 0.120346, -56.8734
0, 1020.00000, 122.727, -32.2157, 119.199, -152.451, 121.024, 88.9504, 0, 0, 4.01574, -55.2895, 4.02928, -175.525, 4.07221, 65.8765, 0.120746, -56.8746
0, 1080.00000, 122.733, -32.2174, 119.198, -152.454, 121.024, 88.9504, 0, 0, 4.01554, -55.2911, 4.02924, -175.528, 4.07221, 65.8766, 0.121107, -56.8762
0, 1140.00000, 122.739, -32.2189, 119.197, -152.457, 121.024, 88.9504, 0, 0, 4.01536, -55.2927, 4.02921, -175.531, 4.07221, 65.8766, 0.121432, -56.8777
0, 1200.00000, 122.744, -32.2202, 119.197, -152.459, 121.024, 88.9505, 0, 0, 4.01519, -55.294, 4.02919, -175.533, 4.07221, 65.8766, 0.121725, -56.8791
0, 1260.00000, 122.748, -32.2214, 119.196, -152.461, 121.024, 88.9505, 0, 0, 4.01505, -55.2952, 4.02916, -175.535, 4.07221, 65.8766, 0.121988, -56.8803
0, 1320.00000, 122.752, -32.2225, 119.195, -152.463, 121.024, 88.9505, 0, 0, 4.01491, -55.2963, 4.02914, -175.537, 4.07221, 65.8766, 0.122225, -56.8814
0, 1380.00000, 122.756, -32.2235, 119.195, -152.465, 121.024, 88.9505, 0, 0, 4.0148, -55.2973, 4.02912, -175.539, 4.07221, 65.8767, 0.122438, -56.8824
0, 1440.00000, 122.759, -32.2244, 119.195, -152.467, 121.024, 88.9506, 0, 0, 4.01469, -55.2982, 4.0291, -175.54, 4.07221, 65.8767, 0.12263, -56.8832
0, 1500.00000, 122.762, -32.2252, 119.194, -152.468, 121.024, 88.9506, 0, 0, 4.01459, -55.299, 4.02908, -175.542, 4.07221, 65.8767, 0.122803, -56.884
0, 1560.00000, 122.764, -32.2259, 119.194, -152.469, 121.024, 88.9506, 0, 0, 4.01451, -55.2997, 4.02907, -175.543, 4.07221, 65.8767, 0.122958, -56.8848
0, 1620.00000, 122.767, -32.2265, 119.193, -152.47, 121.024, 88.9506, 0, 0, 4.01443, -55.3004, 4.02906, -175.544, 4.07221, 65.8767, 0.123098, -56.8854
0, 1680.00000, 122.769, -32.2271, 119.193, -152.471, 121.024, 88.9506, 0, 0, 4.01436, -55.301, 4.02905, -175.545, 4.07221, 65.8767, 0.123224, -56.886
0, 1740.00000, 122.771, -32.2276, 119.193, -152.472, 121.024, 88.9506, 0, 0, 4.0143, -55.3015, 4.02903, -175.546, 4.07221, 65.8767, 0.123337, -56.8865
0, 1800.00000, 122.772, -32.2281, 119.193, -152.473, 121.024, 88.9506, 0, 0, 4.01424, -55.302, 4.02902, -175.547, 4.07221, 65.8767, 0.123439, -56.887
0, 1860.00000, 122.954, -32.2145, 119.337, -152.462, 121.177, 88.9674, 0, 0, 3.88539, -55.2884, 3.91071, -175.536, 3.94235, 65.8935, 0.125903, -52.7896
0, 1920.00000, 122.955, -32.2149, 119.337, -152.463, 121.177, 88.9674, 0, 0, 3.88534, -55.2888, 3.9107, -175.537, 3.94235, 65.8935, 0.125985, -52.7933
0, 1980.00000, 122.956, -32.2153, 119.337, -152.464, 121.177, 88.9674, 0, 0, 3.8853, -55.2891, 3.91069, -175.538, 3.94235, 65.8935, 0.126056, -52.796
0, 2040.00000, 122.958, -32.2156, 119.337, -152.464, 121.177, 88.9674, 0, 0, 3.88526, -55.2895, 3.91069, -175.538, 3.94235, 65.8935, 0.126121, -52.7984
0, 2100.00000, 122.959, -32.2159, 119.336, -152.465, 121.177, 88.9674, 0, 0, 3.88523, -55.2897, 3.91068, -175.539, 3.94235, 65.8935, 0.126179, -52.8006
0, 2160.00000, 122.959, -32.2161, 119.336, -152.465, 121.177, 88.9674, 0, 0, 3.8852, -55.29, 3.91068, -175.539, 3.94235, 65.8935, 0.126232, -52.8025
0, 2220.00000, 122.96, -32.2163, 119.336, -152.466, 121.177, 88.9674, 0, 0, 3.88517, -55.2902, 3.91067, -175.539, 3.94235, 65.8935, 0.126279, -52.8043
0, 2280.00000, 122.961, -32.2165, 119.336, -152.466, 121.177, 88.9674, 0, 0, 3.88515, -55.2904, 3.91067, -175.54, 3.94235, 65.8935, 0.126321, -52.8059
0, 2340.00000, 122.962, -32.2167, 119.336, -152.466, 121.177, 88.9674, 0, 0, 3.88513, -55.2906, 3.91066, -175.54, 3.94235, 65.8935, 0.12636, -52.8073
0, 2400.00000, 122.962, -32.2169, 119.336, -152.466, 121.177, 88.9674, 0, 0, 3.88511, -55.2908, 3.91066, -175.54, 3.94235, 65.8935, 0.126394, -52.8086
0, 2460.00000, 122.963, -32.217, 119.336, -152.467, 121.177, 88.9674, 0, 0, 3.88509, -55.2909, 3.91066, -175.541, 3.94235, 65.8935, 0.126425, -52.8097
0, 2520.00000, 122.963, -32.2172, 119.336, -152.467, 121.177, 88.9674, 0, 0, 3.88508, -55.2911, 3.91066, -175.541, 3.94235, 65.8935, 0.126453, -52.8108
0, 2580.00000, 122.964, -32.2173, 119.336, -152.467, 121.177, 88.9674, 0, 0, 3.88506, -55.2912, 3.91065, -175.541, 3.94235, 65.8935, 0.126478, -52.8117
0, 2640.00000, 122.964, -32.2174, 119.336, -152.467, 121.177, 88.9674, 0, 0, 3.88505, -55.2913, 3.91065, -175.541, 3.94235, 65.8935, 0.1265, -52.8126
0, 2700.00000, 122.964, -32.2175, 119.336, -152.468, 121.177, 88.9674, 0, 0, 3.88504, -55.2914, 3.91065, -175.541, 3.94235, 65.8935, 0.126521, -52.8133
0, 2760.00000, 123.302, -32.1838, 119.614, -152.439, 121.466, 89.0056, 0, 0, 3.87072, -55.2577, 3.91702, -175.513, 3.92922, 65.9317, 0.139494, -46.1089
0, 2820.00000, 123.302, -32.1839, 119.614, -152.439, 121.466, 89.0056, 0, 0, 3.87071, -55.2578, 3.91701, -175.513, 3.92922, 65.9317, 0.139513, -46.1115
0, 2880.00000, 123.302, -32.1839, 119.614, -152.44, 121.466, 89.0056, 0, 0, 3.8707, -55.2579, 3.91701, -175.514, 3.92922, 65.9317, 0.139528, -46.1127
0, 2940.00000, 123.302, -32.184, 119.614, -152.44, 121.466, 89.0056, 0, 0, 3.87069, -55.2579, 3.91701, -175.514, 3.92922, 65.9317, 0.139541, -46.1137
0, 3000.00000, 123.303, -32.1841, 119.614, -152.44, 121.466, 89.0056, 0, 0, 3.87068, -55.258, 3.91701, -175.514, 3.92922, 65.9317, 0.139553, -46.1147
0, 3060.00000, 123.303, -32.1841, 119.614, -152.44, 121.466, 89.0056, 0, 0, 3.87068, -55.258, 3.91701, -175.514, 3.92922, 65.9317, 0.139563, -46.1156
0, 3120.00000, 123.303, -32.1842, 119.614, -152.44, 121.466, 89.0056, 0, 0, 3.87067, -55.2581, 3.91701, -175.514, 3.92922, 65.9317, 0.139573, -46.1164
0, 3180.00000, 123.303, -32.1842, 119.613, -152.44, 121.466, 89.0056, 0, 0, 3.87067, -55.2581, 3.91701, -175.514, 3.92922, 65.9317, 0.139581, -46.1171
0, 3240.00000, 123.303, -32.1842, 119.613, -152.44, 121.466, 89.0056, 0, 0, 3.87066, -55.2582, 3.91701, -175.514, 3.92922, 65.9317, 0.139589, -46.1177
0, 3300.00000, 123.303, -32.1843, 119.613, -152.44, 121.466, 89.0056, 0, 0, 3.87066, -55.2582, 3.91701, -175.514, 3.92922, 65.9317, 0.139596, -46.1183
0, 3360.00000, 123.303, -32.1843, 119.613, -152.44, 121.466, 89.0056, 0, 0, 3.87065, -55.2582, 3.917, -175.514, 3.92922, 65.9317, 0.139602, -46.1188
0, 3420.00000, 123.304, -32.1843, 119.613, -152.44, 121.466, 89.0056, 0, 0, 3.87065, -55.2582, 3.917, -175.514, 3.92922, 65.9317, 0.139608, -46.1193
0, 3480.00000, 123.643, -31.9979, 120.13, -152.461, 121.427, 89.0098, 0, 0, 3.86003, -55.0718, 3.93577, -175.535, 3.93048, 65.9359, 0.161891, -46.6746
0, 3540.00000, 123.64, -31.9945, 120.208, -152.337, 121.727, 89.0451, 0, 0, 3.86011, -55.0685, 3.93861, -175.411, 3.92077, 65.9712, 0.156359, -40.3426
1, 0.00000, 123.64, -31.9946, 120.208, -152.337, 121.727, 89.0451, 0, 0, 3.8601, -55.0685, 3.93861, -175.411, 3.92077, 65.9712, 0.156363, -40.3426
1, 60.00000, 123.863, -31.9699, 120.393, -152.318, 121.926, 89.0732, 0, 0, 3.7907, -55.0438, 3.88134, -175.392, 3.8509, 65.9993, 0.164027, -37.2514
1, 120.00000, 123.863, -31.9699, 120.393, -152.318, 121.926, 89.0732, 0, 0, 3.7907, -55.0438, 3.88134, -175.392, 3.8509, 65.9993, 0.164032, -37.2523
1, 180.00000, 123.863, -31.9699, 120.393, -152.318, 121.926, 89.0732, 0, 0, 3.7907, -55.0438, 3.88134, -175.392, 3.8509, 65.9993, 0.164034, -37.2526
1, 240.00000, 123.863, -31.9699, 120.393, -152.318, 121.926, 89.0732, 0, 0, 3.7907, -55.0438, 3.88134, -175.392, 3.8509, 65.9993, 0.164037, -37.253
1, 300.00000, 123.863, -31.9699, 120.393, -152.318, 121.926, 89.0732, 0, 0, 3.7907, -55.0438, 3.88134, -175.392, 3.8509, 65.9993, 0.164039, -37.2533
1, 360.00000, 123.863, -31.9699, 120.393, -152.318, 121.926, 89.0732, 0, 0, 3.79069, -55.0438, 3.88134, -175.392, 3.8509, 65.9993, 0.164041, -37.2535
1, 420.00000, 123.863, -31.9699, 120.393, -152.318, 121.926, 89.0732, 0, 0, 3.79069, -55.0438, 3.88134, -175.392, 3.8509, 65.9993, 0.164043, -37.2538
1, 480.00000, 123.863, -31.9699, 120.393, -152.318, 121.926, 89.0732, 0, 0, 3.79069, -55.0439, 3.88134, -175.392, 3.8509, 65.9993, 0.164045, -37.254
1, 540.00000, 123.863, -31.9699, 120.393, -152.318, 121.926, 89.0732, 0, 0, 3.79069, -55.0439, 3.88134, -175.392, 3.8509, 65.9993, 0.164046, -37.2542
1, 600.00000, 123.863, -31.97, 120.393, -152.318, 121.926, 89.0732, 0, 0, 3.79069, -55.0439, 3.88134, -175.392, 3.8509, 65.9993, 0.164048, -37.2543
1, 660.00000, 123.863, -31.97, 120.393, -152.318, 121.926, 89.0732, 0, 0, 3.79069, -55.0439, 3.88134, -175.392, 3.8509, 65.9993, 0.164049, -37.2545
1, 720.00000, 123.863, -31.97, 120.393, -152.318, 121.926, 89.0732, 0, 0, 3.79069, -55.0439, 3.88134, -175.392, 3.8509, 65.9993, 0.16405, -37.2546
1, 780.00000, 123.863, -31.97, 120.393, -152.318, 121.926, 89.0732, 0, 0, 3.79069, -55.0439, 3.88134, -175.392, 3.8509, 65.9993, 0.164051, -37.2548
1, 840.00000, 123.863, -31.97, 120.393, -152.318, 121.926, 89.0732, 0, 0, 3.79069, -55.0439, 3.88134, -175.392, 3.8509, 65.9993, 0.164052, -37.2549
1, 900.00000, 123.863, -31.97, 120.393, -152.318, 121.926, 89.0732, 0, 0, 3.79069, -55.0439, 3.88134, -175.392, 3.8509, 65.9993, 0.164053, -37.255
1, 960.00000, 123.907, -31.967, 120.43, -152.316, 121.966, 89.0773, 0, 0, 3.72919, -55.041, 3.82103, -175.39, 3.78852, 66.0034, 0.163525, -36.6778
1, 1020.00000, 123.907, -31.967, 120.43, -152.316, 121.966, 89.0773, 0, 0, 3.72919, -55.041, 3.82103, -175.39, 3.78852, 66.0033, 0.163527, -36.6783
1, 1080.00000, 123.907, -31.9671, 120.43, -152.316, 121.966, 89.0773, 0, 0, 3.72919, -55.041, 3.82103, -175.39, 3.78852, 66.0033, 0.163528, -36.6784
1, 1140.00000, 123.907, -31.9671, 120.43, -152.316, 121.966, 89.0773, 0, 0, 3.72919, -55.041, 3.82103, -175.39, 3.78852, 66.0033, 0.163528, -36.6785
1, 1200.00000, 123.907, -31.9671, 120.43, -152.316, 121.966, 89.0773, 0, 0, 3.72919, -55.041, 3.82103, -175.39, 3.78852, 66.0033, 0.163529, -36.6785
1, 1260.00000, 123.907, -31.9671, 120.43, -152.316, 121.966, 89.0773, 0, 0, 3.72919, -55.041, 3.82103, -175.39, 3.78852, 66.0033, 0.163529, -36.6786
1, 1320.00000, 123.907, -31.9671, 120.43, -152.316, 121.966, 89.0773, 0, 0, 3.72919, -55.041, 3.82103, -175.39, 3.78852, 66.0033, 0.163529, -36.6786
1, 1380.00000, 123.907, -31.9671, 120.43, -152.316, 121.966, 89.0773, 0, 0, 3.72919, -55.041, 3.82103, -175.39, 3.78852, 66.0033, 0.16353, -36.6787
1, 1440.00000, 123.907, -31.9671, 120.43, -152.316, 121.966, 89.0773, 0, 0, 3.72919, -55.041, 3.82103, -175.39, 3.78852, 66.0033, 0.16353, -36.6787
1, 1500.00000, 123.907, -31.9671, 120.43, -152.316, 121.966, 89.0773, 0, 0, 3.72919, -55.041, 3.82103, -175.39, 3.78852, 66.0033, 0.16353, -36.6788
1, 1560.00000, 123.907, -31.9671, 120.43, -152.316, 121.966, 89.0773, 0, 0, 3.72919, -55.041, 3.82103, -175.39, 3.78852, 66.0033, 0.163531, -36.6788
1, 1620.00000, 123.907, -31.9671, 120.43, -152.316, 121.966, 89.0773, 0, 0, 3.72918, -55.041, 3.82103, -175.39, 3.78852, 66.0033, 0.163531, -36.6788
1, 1680.00000, 123.907, -31.9671, 120.43, -152.316, 121.966, 89.0773, 0, 0, 3.72918, -55.041, 3.82103, -175.39, 3.78852, 66.0033, 0.163531, -36.6789
1, 1740.00000, 123.907, -31.9671, 120.43, -152.316, 121.966, 89.0773, 0, 0, 3.72918, -55.041, 3.82103, -175.39, 3.78852, 66.0033, 0.163531, -36.6789
1, 1800.00000, 123.907, -31.9671, 120.43, -152.316, 121.966, 89.0773, 0, 0, 3.72918, -55.041, 3.82103, -175.39, 3.78852, 66.0033, 0.163531, -36.6789
1, 1860.00000, 123.955, -31.8416, 120.648, -152.323, 121.775, 89.0488, 0, 0, 3.6304, -54.9155, 3.72873, -175.397, 3.69539, 65.9749, 0.16378, -39.9931
1, 1920.00000, 123.955, -31.8416, 120.648, -152.323, 121.775, 89.0488, 0, 0, 3.6304, -54.9155, 3.72873, -175.397, 3.69539, 65.9748, 0.163781, -39.9937
1, 1980.00000, 123.955, -31.8416, 120.648, -152.323, 121.775, 89.0488, 0, 0, 3.6304, -54.9155, 3.72873, -175.397, 3.69539, 65.9748, 0.163781, -39.9937
1, 2040.00000, 123.955, -31.8416, 120.648, -152.323, 121.775, 89.0488, 0, 0, 3.6304, -54.9155, 3.72873, -175.397, 3.69539, 65.9748, 0.163781, -39.9938
1, 2100.00000, 123.955, -31.8416, 120.648, -152.323, 121.775, 89.0488, 0, 0, 3.6304, -54.9155, 3.72873, -175.397, 3.69539, 65.9748, 0.163781, -39.9938
1, 2160.00000, 123.955, -31.8416, 120.648, -152.323, 121.775, 89.0488, 0, 0, 3.6304, -54.9155, 3.72873, -175.397, 3.69539, 65.9748, 0.163781, -39.9938
1, 2220.00000, 123.955, -31.8416, 120.648, -152.323, 121.775, 89.0488, 0, 0, 3.6304, -54.9155, 3.72873, -175.397, 3.69539, 65.9748, 0.163782, -39.9938
1, 2280.00000, 123.955, -31.8416, 120.648, -152.323, 121.775, 89.0488, 0, 0, 3.6304, -54.9155, 3.72873, -175.397, 3.69539, 65.9748, 0.163782, -39.9938
1, 2340.00000, 123.955, -31.8416, 120.648, -152.323, 121.775, 89.0488, 0, 0, 3.6304, -54.9155, 3.72873, -175.397, 3.69539, 65.9748, 0.163782, -39.9938
1, 2400.00000, 123.955, -31.8416, 120.648, -152.323, 121.775, 89.0488, 0, 0, 3.6304, -54.9155, 3.72873, -175.397, 3.69539, 65.9748, 0.163782, -39.9938
1, 2460.00000, 123.955, -31.8416, 120.648, -152.323, 121.775, 89.0488, 0, 0, 3.6304, -54.9155, 3.72873, -175.397, 3.69539, 65.9748, 0.163782, -39.9938
1, 2520.00000, 123.955, -31.8416, 120.648, -152.323, 121.775, 89.0488, 0, 0, 3.6304, -54.9155, 3.72873, -175.397, 3.69539, 65.9748, 0.163782, -39.9938
1, 2580.00000, 123.955, -31.8416, 120.648, -152.323, 121.775, 89.0488, 0, 0, 3.6304, -54.9155, 3.72873, -175.397, 3.69539, 65.9748, 0.163782, -39.9938
1, 2640.00000, 123.955, -31.8416, 120.648, -152.323, 121.775, 89.0488, 0, 0, 3.6304, -54.9155, 3.72873, -175.397, 3.69539, 65.9748, 0.163782, -39.9938
1, 2700.00000, 123.955, -31.8416, 120.648, -152.323, 121.775, 89.0488, 0, 0, 3.6304, -54.9155, 3.72873, -175.397, 3.69539, 65.9748, 0.163782, -39.9938
1, 2760.00000, 124.375, -31.796, 121.025, -152.286, 122.154, 89.1045, 0, 0, 3.65567, -54.8699, 3.75683, -175.36, 3.72211, 66.0306, 0.167722, -39.8216
1, 2820.00000, 124.375, -31.796, 121.025, -152.286, 122.154, 89.1045, 0, 0, 3.65566, -54.8699, 3.75683, -175.36, 3.72211, 66.0306, 0.167727, -39.8216
1, 2880.00000, 124.375, -31.796, 121.025, -152.286, 122.154, 89.1045, 0, 0, 3.65566, -54.8699, 3.75683, -175.36, 3.72211, 66.0306, 0.167727, -39.8216
1, 2940.00000, 124.375, -31.796, 121.025, -152.286, 122.154, 89.1045, 0, 0, 3.65566, -54.8699, 3.75683, -175.36, 3.72211, 66.0306, 0.167727, -39.8216
1, 3000.00000, 124.375, -31.796, 121.025, -152.286, 122.154, 89.1045, 0, 0, 3.65566, -54.8699, 3.75683, -175.36, 3.72211, 66.0306, 0.167727, -39.8216
1, 3060.00000, 124.375, -31.796, 121.025, -152.286, 122.154, 89.1045, 0, 0, 3.65566, -54.8699, 3.75683, -175.36, 3.72211, 66.0306, 0.167727, -39.8216
1, 3120.00000, 124.375, -31.796, 121.025, -152.286, 122.154, 89.1045, 0, 0, 3.65566, -54.8699, 3.75683, -175.36, 3.72211, 66.0306, 0.167727, -39.8216
1, 3180.00000, 124.375, -31.796, 121.025, -152.286, 122.154, 89.1045, 0, 0, 3.65566, -54.8699, 3.75683, -175.36, 3.72211, 66.0306, 0.167727, -39.8216
1, 3240.00000, 124.375, -31.796, 121.025, -152.286, 122.154, 89.1045, 0, 0, 3.65566, -54.8699, 3.75683, -175.36, 3.72211, 66.0306, 0.167727, -39.8216
1, 3300.00000, 124.375, -31.796, 121.025, -152.286, 122.154, 89.1045, 0, 0, 3.65566, -54.8699, 3.75683, -175.36, 3.72211, 66.0306, 0.167727, -39.8216
1, 3360.00000, 124.375, -31.796, 121.025, -152.286, 122.154, 89.1045, 0, 0, 3.65566, -54.8699, 3.75683, -175.36, 3.72211, 66.0306, 0.167727, -39.8216
1, 3420.00000, 124.375, -31.796, 121.025, -152.286, 122.154, 89.1045, 0, 0, 3.65566, -54.8699, 3.75683, -175.36, 3.72211, 66.0306, 0.167727, -39.8217
1, 3480.00000, 124.375, -31.796, 121.025, -152.286, 122.154, 89.1045, 0, 0, 3.65566, -54.8699, 3.75683, -175.36, 3.72211, 66.0306, 0.167727, -39.8217
1, 3540.00000, 124.375, -31.796, 121.025, -152.286, 122.154, 89.1045, 0, 0, 3.65566, -54.8699, 3.75683, -175.36, 3.72211, 66.0306, 0.167727, -39.8217
2, 0.00000, 124.375, -31.796, 121.025, -152.286, 122.154, 89.1045, 0, 0, 3.65566, -54.8699, 3.75683, -175.36, 3.72211, 66.0306, 0.167727, -39.8217
2, 60.00000, 124.122, -31.824, 120.796, -152.309, 121.925, 89.0708, 0, 0, 3.73837, -54.8979, 3.8413, -175.383, 3.80572, 65.9969, 0.17042, -39.7483
2, 120.00000, 124.122, -31.824, 120.796, -152.309, 121.925, 89.0708, 0, 0, 3.73837, -54.8979, 3.8413, -175.383, 3.80572, 65.9969, 0.170416, -39.7482
2, 180.00000, 124.122, -31.824, 120.796, -152.309, 121.925, 89.0708, 0, 0, 3.73837, -54.8979, 3.8413, -175.383, 3.80572, 65.9969, 0.170416, -39.7482
2, 240.00000, 124.122, -31.824, 120.796, -152.309, 121.925, 89.0708, 0, 0, 3.73837, -54.8979, 3.8413, -175.383, 3.80572, 65.9969, 0.170416, -39.7482
2, 300.00000, 124.122, -31.824, 120.796, -152.309, 121.925, 89.0708, 0, 0, 3.73837, -54.8979, 3.8413, -175.383, 3.80572, 65.9969, 0.170416, -39.7482
2, 360.00000, 124.122, -31.824, 120.796, -152.309, 121.925, 89.0708, 0, 0, 3.73837, -54.8979, 3.8413, -175.383, 3.80572, 65.9969, 0.170416, -39.7482
2, 420.00000, 124.122, -31.824, 120.796, -152.309, 121.925, 89.0708, 0, 0, 3.73837, -54.8979, 3.8413, -175.383, 3.80572, 65.9969, 0.170416, -39.7482
2, 480.00000, 124.122, -31.824, 120.796, -152.309, 121.925, 89.0708, 0, 0, 3.73837, -54.8979, 3.8413, -175.383, 3.80572, 65.9969, 0.170416, -39.7482
2, 540.00000, 124.122, -31.824, 120.796, -152.309, 121.925, 89.0708, 0, 0, 3.73837, -54.8979, 3.8413, -175.383, 3.80572, 65.9969, 0.170416, -39.7482
2, 600.00000, 124.122, -31.824, 120.796, -152.309, 121.925, 89.0708, 0, 0, 3.73837, -54.8979, 3.8413, -175.383, 3.80572, 65.9969, 0.170416, -39.7482
2, 660.00000, 124.122, -31.824, 120.796, -152.309, 121.925, 89.0708, 0, 0, 3.73837, -54.8979, 3.8413, -175.383, 3.80572, 65.9969, 0.170416, -39.7482
2, 720.00000, 124.122, -31.824, 120.796, -152.309, 121.925, 89.0708, 0, 0, 3.73837, -54.8979, 3.8413, -175.383, 3.80572, 65.9969, 0.170416, -39.7482
