hour,t(sec),V1,VAngle1,V2,VAngle2,V3,VAngle3,V4,VAngle4,I1,IAngle1,I2,IAngle2,I3,IAngle3,I4,IAngle4
0, 60.00000, 122.633, -31.4408, 124.623, -151.442, 123.738, 87.813, 0, 0, 0.873084, -54.5145, 0.859149, -174.516, 0.865284, 64.7395, 0.0233388, 153.311
0, 120.00000, 122.633, -31.4408, 124.623, -151.442, 123.738, 87.813, 0, 0, 0.873092, -54.5147, 0.859153, -174.516, 0.865295, 64.7391, 0.0233457, 153.32
0, 180.00000, 122.633, -31.4408, 124.623, -151.442, 123.738, 87.813, 0, 0, 0.873092, -54.5147, 0.859153, -174.516, 0.865295, 64.7391, 0.0233457, 153.32
0, 240.00000, 122.633, -31.4408, 124.623, -151.442, 123.738, 87.813, 0, 0, 0.873092, -54.5147, 0.859153, -174.516, 0.865295, 64.7391, 0.0233457, 153.32
0, 300.00000, 122.633, -31.4408, 124.623, -151.442, 123.738, 87.813, 0, 0, 0.873092, -54.5147, 0.859153, -174.516, 0.865295, 64.7391, 0.0233457, 153.32
0, 360.00000, 122.633, -31.4408, 124.623, -151.442, 123.738, 87.813, 0, 0, 0.873092, -54.5147, 0.859153, -174.516, 0.865295, 64.7391, 0.0233457, 153.32
0, 420.00000, 122.633, -31.4408, 124.623, -151.442, 123.738, 87.813, 0, 0, 0.873092, -54.5147, 0.859153, -174.516, 0.865295, 64.7391, 0.0233457, 153.32
0, 480.00000, 123.08, -31.3164, 125.071, -151.317, 124.181, 87.943, 0, 0, 0.970103, -54.3904, 0.954665, -174.391, 0.961507, 64.8685, 0.0258199, 153.5
0, 540.00000, 123.08, -31.3164, 125.071, -151.317, 124.181, 87.943, 0, 0, 0.970094, -54.3903, 0.954655, -174.391, 0.961496, 64.8691, 0.0258137, 153.492
0, 600.00000, 123.08, -31.3164, 125.071, -151.317, 124.181, 87.943, 0, 0, 0.970094, -54.3903, 0.954655, -174.391, 0.961496, 64.8691, 0.0258137, 153.492
0, 660.00000, 123.08, -31.3164, 125.071, -151.317, 124.181, 87.943, 0, 0, 0.970094, -54.3903, 0.954655, -174.391, 0.961496, 64.8691, 0.0258137, 153.492
0, 720.00000, 123.08, -31.3164, 125.071, -151.317, 124.181, 87.943, 0, 0, 0.970094, -54.3903, 0.954655, -174.391, 0.961496, 64.8691, 0.0258137, 153.492
0, 780.00000, 123.08, -31.3164, 125.071, -151.317, 124.181, 87.943, 0, 0, 0.970094, -54.3903, 0.954655, -174.391, 0.961496, 64.8691, 0.0258137, 153.492
0, 840.00000, 123.08, -31.3164, 125.071, -151.317, 124.181, 87.943, 0, 0, 0.970094, -54.3903, 0.954655, -174.391, 0.961496, 64.8691, 0.0258137, 153.492
0, 900.00000, 123.08, -31.3164, 125.071, -151.317, 124.181, 87.943, 0, 0, 0.970094, -54.3903, 0.954655, -174.391, 0.961496, 64.8691, 0.0258137, 153.492
0, 960.00000, 122.783, -31.3416, 125.071, -151.316, 124.078, 87.8162, 0, 0, 0.972436, -54.4154, 0.954652, -174.39, 0.962292, 64.7424, 0.0298078, 152.269
0, 1020.00000, 122.783, -31.3416, 125.071, -151.316, 124.078, 87.8162, 0, 0, 0.97244, -54.4155, 0.954651, -174.39, 0.962295, 64.7423, 0.0298136, 152.27
0, 1080.00000, 122.783, -31.3416, 125.071, -151.316, 124.078, 87.8162, 0, 0, 0.97244, -54.4155, 0.954651, -174.39, 0.962295, 64.7423, 0.0298136, 152.27
0, 1140.00000, 122.783, -31.3416, 125.071, -151.316, 124.078, 87.8162, 0, 0, 0.97244, -54.4155, 0.954651, -174.39, 0.962295, 64.7423, 0.0298136, 152.27
0, 1200.00000, 122.783, -31.3416, 125.071, -151.316, 124.078, 87.8162, 0, 0, 0.97244, -54.4155, 0.954651, -174.39, 0.962295, 64.7423, 0.0298136, 152.27
0, 1260.00000, 122.783, -31.3416, 125.071, -151.316, 124.078, 87.8162, 0, 0, 0.97244, -54.4155, 0.954651, -174.39, 0.962295, 64.7423, 0.0298136, 152.27
0, 1320.00000, 122.783, -31.3416, 125.071, -151.316, 124.078, 87.8162, 0, 0, 0.97244, -54.4155, 0.954651, -174.39, 0.962295, 64.7423, 0.0298136, 152.27
0, 1380.00000, 122.783, -31.3416, 125.071, -151.316, 124.078, 87.8162, 0, 0, 0.97244, -54.4155, 0.954651, -174.39, 0.962295, 64.7423, 0.0298136, 152.27
0, 1440.00000, 122.783, -31.3416, 125.071, -151.316, 124.078, 87.8162, 0, 0, 0.97244, -54.4155, 0.954651, -174.39, 0.962295, 64.7423, 0.0298136, 152.27
0, 1500.00000, 122.783, -31.3416, 125.071, -151.316, 124.078, 87.8162, 0, 0, 0.97244, -54.4155, 0.954651, -174.39, 0.962295, 64.7423, 0.0298136, 152.27
0, 1560.00000, 122.783, -31.3416, 125.071, -151.316, 124.078, 87.8162, 0, 0, 0.97244, -54.4155, 0.954651, -174.39, 0.962295, 64.7423, 0.0298136, 152.27
0, 1620.00000, 122.783, -31.3416, 125.071, -151.316, 124.078, 87.8162, 0, 0, 0.97244, -54.4155, 0.954651, -174.39, 0.962295, 64.7423, 0.0298136, 152.27
0, 1680.00000, 122.783, -31.3416, 125.071, -151.316, 124.078, 87.8162, 0, 0, 0.97244, -54.4155, 0.954651, -174.39, 0.962295, 64.7423, 0.0298136, 152.27
0, 1740.00000, 122.783, -31.3416, 125.071, -151.316, 124.078, 87.8162, 0, 0, 0.97244, -54.4155, 0.954651, -174.39, 0.962295, 64.7423, 0.0298136, 152.27
0, 1800.00000, 122.5, -31.368, 125.072, -151.316, 123.984, 87.6929, 0, 0, 0.974689, -54.4418, 0.954644, -174.39, 0.963019, 64.6191, 0.033673, 151.248
0, 1860.00000, 122.5, -31.368, 125.072, -151.316, 123.984, 87.6929, 0, 0, 0.974692, -54.4419, 0.954643, -174.39, 0.963021, 64.619, 0.0336784, 151.248
0, 1920.00000, 122.5, -31.368, 125.072, -151.316, 123.984, 87.6929, 0, 0, 0.974692, -54.4419, 0.954643, -174.39, 0.963021, 64.619, 0.0336784, 151.248
0, 1980.00000, 122.5, -31.368, 125.072, -151.316, 123.984, 87.6929, 0, 0, 0.974692, -54.4419, 0.954643, -174.39, 0.963021, 64.619, 0.0336784, 151.248
0, 2040.00000, 122.5, -31.368, 125.072, -151.316, 123.984, 87.6929, 0, 0, 0.974692, -54.4419, 0.954643, -174.39, 0.963021, 64.619, 0.0336784, 151.248
0, 2100.00000, 122.5, -31.368, 125.072, -151.316, 123.984, 87.6929, 0, 0, 0.974692, -54.4419, 0.954643, -174.39, 0.963021, 64.619, 0.0336784, 151.248
0, 2160.00000, 122.5, -31.368, 125.072, -151.316, 123.984, 87.6929, 0, 0, 0.974692, -54.4419, 0.954643, -174.39, 0.963021, 64.619, 0.0336784, 151.248
0, 2220.00000, 122.5, -31.368, 125.072, -151.316, 123.984, 87.6929, 0, 0, 0.974692, -54.4419, 0.954643, -174.39, 0.963021, 64.619, 0.0336784, 151.248
0, 2280.00000, 122.5, -31.368, 125.072, -151.316, 123.984, 87.6929, 0, 0, 0.974692, -54.4419, 0.954643, -174.39, 0.963021, 64.619, 0.0336784, 151.248
0, 2340.00000, 122.5, -31.368, 125.072, -151.316, 123.984, 87.6929, 0, 0, 0.974692, -54.4419, 0.954643, -174.39, 0.963021, 64.619, 0.0336784, 151.248
0, 2400.00000, 122.5, -31.368, 125.072, -151.316, 123.984, 87.6929, 0, 0, 0.974692, -54.4419, 0.954643, -174.39, 0.963021, 64.619, 0.0336784, 151.248
0, 2460.00000, 122.5, -31.368, 125.072, -151.316, 123.984, 87.6929, 0, 0, 0.974692, -54.4419, 0.954643, -174.39, 0.963021, 64.619, 0.0336784, 151.248
0, 2520.00000, 122.5, -31.368, 125.072, -151.316, 123.984, 87.6929, 0, 0, 0.974692, -54.4419, 0.954643, -174.39, 0.963021, 64.619, 0.0336784, 151.248
0, 2580.00000, 122.5, -31.368, 125.072, -151.316, 123.984, 87.6929, 0, 0, 0.974692, -54.4419, 0.954643, -174.39, 0.963021, 64.619, 0.0336784, 151.248
0, 2640.00000, 122.5, -31.368, 125.072, -151.316, 123.984, 87.6929, 0, 0, 0.974692, -54.4419, 0.954643, -174.39, 0.963021, 64.619, 0.0336784, 151.248
0, 2700.00000, 122.5, -31.368, 125.072, -151.316, 123.984, 87.6929, 0, 0, 0.974692, -54.4419, 0.954643, -174.39, 0.963021, 64.619, 0.0336784, 151.248
0, 2760.00000, 122.979, -31.3718, 125.07, -151.316, 124.238, 87.8791, 0, 0, 0.970905, -54.4459, 0.954659, -174.39, 0.961067, 64.8048, 0.0272315, 150.054
0, 2820.00000, 122.979, -31.3718, 125.07, -151.316, 124.238, 87.8791, 0, 0, 0.970895, -54.4457, 0.954661, -174.39, 0.961057, 64.8052, 0.0272165, 150.047
0, 2880.00000, 122.979, -31.3718, 125.07, -151.316, 124.238, 87.8791, 0, 0, 0.970895, -54.4457, 0.954661, -174.39, 0.961057, 64.8052, 0.0272164, 150.047
0, 2940.00000, 122.979, -31.3718, 125.07, -151.316, 124.238, 87.8791, 0, 0, 0.970895, -54.4457, 0.954661, -174.39, 0.961057, 64.8052, 0.0272164, 150.047
0, 3000.00000, 122.979, -31.3718, 125.07, -151.316, 124.238, 87.8791, 0, 0, 0.970895, -54.4457, 0.954661, -174.39, 0.961057, 64.8052, 0.0272164, 150.047
0, 3060.00000, 122.979, -31.3718, 125.07, -151.316, 124.238, 87.8791, 0, 0, 0.970895, -54.4457, 0.954661, -174.39, 0.961057, 64.8052, 0.0272164, 150.047
0, 3120.00000, 122.979, -31.3718, 125.07, -151.316, 124.238, 87.8791, 0, 0, 0.970895, -54.4457, 0.954661, -174.39, 0.961057, 64.8052, 0.0272164, 150.047
0, 3180.00000, 122.979, -31.3718, 125.07, -151.316, 124.238, 87.8791, 0, 0, 0.970895, -54.4457, 0.954661, -174.39, 0.961057, 64.8052, 0.0272164, 150.047
0, 3240.00000, 122.979, -31.3718, 125.07, -151.316, 124.238, 87.8791, 0, 0, 0.970895, -54.4457, 0.954661, -174.39, 0.961057, 64.8052, 0.0272164, 150.047
0, 3300.00000, 122.979, -31.3718, 125.07, -151.316, 124.238, 87.8791, 0, 0, 0.970895, -54.4457, 0.954661, -174.39, 0.961057, 64.8052, 0.0272164, 150.047
0, 3360.00000, 122.979, -31.3718, 125.07, -151.316, 124.238, 87.8791, 0, 0, 0.970895, -54.4457, 0.954661, -174.39, 0.961057, 64.8052, 0.0272164, 150.047
0, 3420.00000, 122.979, -31.3718, 125.07, -151.316, 124.238, 87.8791, 0, 0, 0.970895, -54.4457, 0.954661, -174.39, 0.961057, 64.8052, 0.0272164, 150.047
0, 3480.00000, 122.979, -31.3718, 125.07, -151.316, 124.238, 87.8791, 0, 0, 0.970895, -54.4457, 0.954661, -174.39, 0.961057, 64.8052, 0.0272164, 150.047
0, 3540.00000, 122.979, -31.3718, 125.07, -151.316, 124.238, 87.8791, 0, 0, 0.970895, -54.4457, 0.954661, -174.39, 0.961057, 64.8052, 0.0272164, 150.047
1, 0.00000, 122.979, -31.3718, 125.07, -151.316, 124.238, 87.8791, 0, 0, 0.970895, -54.4457, 0.954661, -174.39, 0.961057, 64.8052, 0.0272164, 150.047
1, 60.00000, 123.46, -31.3746, 125.068, -151.316, 124.487, 88.0654, 0, 0, 0.967117, -54.4487, 0.954675, -174.389, 0.959135, 64.9913, 0.0208133, 148.203
1, 120.00000, 123.46, -31.3745, 125.068, -151.316, 124.487, 88.0654, 0, 0, 0.967109, -54.4485, 0.954677, -174.389, 0.959129, 64.9915, 0.0208034, 148.203
1, 180.00000, 123.46, -31.3745, 125.068, -151.316, 124.487, 88.0654, 0, 0, 0.967109, -54.4485, 0.954677, -174.389, 0.959129, 64.9915, 0.0208033, 148.203
1, 240.00000, 123.46, -31.3745, 125.068, -151.316, 124.487, 88.0654, 0, 0, 0.967109, -54.4485, 0.954677, -174.389, 0.959129, 64.9915, 0.0208033, 148.203
1, 300.00000, 123.46, -31.3745, 125.068, -151.316, 124.487, 88.0654, 0, 0, 0.967109, -54.4485, 0.954677, -174.389, 0.959129, 64.9915, 0.0208033, 148.203
1, 360.00000, 123.46, -31.3745, 125.068, -151.316, 124.487, 88.0654, 0, 0, 0.967109, -54.4485, 0.954677, -174.389, 0.959129, 64.9915, 0.0208033, 148.203
1, 420.00000, 123.46, -31.3745, 125.068, -151.316, 124.487, 88.0654, 0, 0, 0.967109, -54.4485, 0.954677, -174.389, 0.959129, 64.9915, 0.0208033, 148.203
1, 480.00000, 123.46, -31.3745, 125.068, -151.316, 124.487, 88.0654, 0, 0, 0.967109, -54.4485, 0.954677, -174.389, 0.959129, 64.9915, 0.0208033, 148.203
1, 540.00000, 123.46, -31.3745, 125.068, -151.316, 124.487, 88.0654, 0, 0, 0.967109, -54.4485, 0.954677, -174.389, 0.959129, 64.9915, 0.0208033, 148.203
1, 600.00000, 123.46, -31.3745, 125.068, -151.316, 124.487, 88.0654, 0, 0, 0.967109, -54.4485, 0.954677, -174.389, 0.959129, 64.9915, 0.0208033, 148.203
1, 660.00000, 123.46, -31.3745, 125.068, -151.316, 124.487, 88.0654, 0, 0, 0.967109, -54.4485, 0.954677, -174.389, 0.959129, 64.9915, 0.0208033, 148.203
1, 720.00000, 123.46, -31.3745, 125.068, -151.316, 124.487, 88.0654, 0, 0, 0.967109, -54.4485, 0.954677, -174.389, 0.959129, 64.9915, 0.0208033, 148.203
1, 780.00000, 123.728, -31.3455, 125.067, -151.315, 124.567, 88.1817, 0, 0, 0.965021, -54.4196, 0.954681, -174.389, 0.958518, 65.1077, 0.0172114, 149.563
1, 840.00000, 123.728, -31.3454, 125.067, -151.315, 124.567, 88.1817, 0, 0, 0.965013, -54.4194, 0.954682, -174.389, 0.958516, 65.1078, 0.0172036, 149.573
1, 900.00000, 123.728, -31.3454, 125.067, -151.315, 124.567, 88.1817, 0, 0, 0.965013, -54.4194, 0.954682, -174.389, 0.958516, 65.1078, 0.0172036, 149.573
1, 960.00000, 123.728, -31.3454, 125.067, -151.315, 124.567, 88.1817, 0, 0, 0.965013, -54.4194, 0.954682, -174.389, 0.958516, 65.1078, 0.0172036, 149.573
1, 1020.00000, 123.728, -31.3454, 125.067, -151.315, 124.567, 88.1817, 0, 0, 0.965013, -54.4194, 0.954682, -174.389, 0.958516, 65.1078, 0.0172036, 149.573
1, 1080.00000, 123.728, -31.3454, 125.067, -151.315, 124.567, 88.1817, 0, 0, 0.965013, -54.4194, 0.954682, -174.389, 0.958516, 65.1078, 0.0172036, 149.573
1, 1140.00000, 123.728, -31.3454, 125.067, -151.315, 124.567, 88.1817, 0, 0, 0.965013, -54.4194, 0.954682, -174.389, 0.958516, 65.1078, 0.0172036, 149.573
1, 1200.00000, 123.728, -31.3454, 125.067, -151.315, 124.567, 88.1817, 0, 0, 0.965013, -54.4194, 0.954682, -174.389, 0.958516, 65.1078, 0.0172036, 149.573
1, 1260.00000, 123.728, -31.3454, 125.067, -151.315, 124.567, 88.1817, 0, 0, 0.965013, -54.4194, 0.954682, -174.389, 0.958516, 65.1078, 0.0172036, 149.573
1, 1320.00000, 123.728, -31.3454, 125.067, -151.315, 124.567, 88.1817, 0, 0, 0.965013, -54.4194, 0.954682, -174.389, 0.958516, 65.1078, 0.0172036, 149.573
1, 1380.00000, 123.728, -31.3454, 125.067, -151.315, 124.567, 88.1817, 0, 0, 0.965013, -54.4194, 0.954682, -174.389, 0.958516, 65.1078, 0.0172036, 149.573
1, 1440.00000, 123.728, -31.3454, 125.067, -151.315, 124.567, 88.1817, 0, 0, 0.965013, -54.4194, 0.954682, -174.389, 0.958516, 65.1078, 0.0172036, 149.573
1, 1500.00000, 123.728, -31.3454, 125.067, -151.315, 124.567, 88.1817, 0, 0, 0.965013, -54.4194, 0.954682, -174.389, 0.958516, 65.1078, 0.0172036, 149.573
1, 1560.00000, 123.728, -31.3454, 125.067, -151.315, 124.567, 88.1817, 0, 0, 0.965013, -54.4194, 0.954682, -174.389, 0.958516, 65.1078, 0.0172036, 149.573
1, 1620.00000, 123.728, -31.3454, 125.067, -151.315, 124.567, 88.1817, 0, 0, 0.965013, -54.4194, 0.954682, -174.389, 0.958516, 65.1078, 0.0172036, 149.573
1, 1680.00000, 123.728, -31.3454, 125.067, -151.315, 124.567, 88.1817, 0, 0, 0.965013, -54.4194, 0.954682, -174.389, 0.958516, 65.1078, 0.0172036, 149.573
1, 1740.00000, 123.728, -31.3454, 125.067, -151.315, 124.567, 88.1817, 0, 0, 0.965013, -54.4194, 0.954682, -174.389, 0.958516, 65.1078, 0.0172036, 149.573
1, 1800.00000, 123.728, -31.3454, 125.067, -151.315, 124.567, 88.1817, 0, 0, 0.965013, -54.4194, 0.954682, -174.389, 0.958516, 65.1078, 0.0172036, 149.573
1, 1860.00000, 123.728, -31.3454, 125.067, -151.315, 124.567, 88.1817, 0, 0, 0.965013, -54.4194, 0.954682, -174.389, 0.958516, 65.1078, 0.0172036, 149.573
1, 1920.00000, 123.728, -31.3454, 125.067, -151.315, 124.567, 88.1817, 0, 0, 0.965013, -54.4194, 0.954682, -174.389, 0.958516, 65.1078, 0.0172036, 149.573
1, 1980.00000, 123.728, -31.3454, 125.067, -151.315, 124.567, 88.1817, 0, 0, 0.965013, -54.4194, 0.954682, -174.389, 0.958516, 65.1078, 0.0172036, 149.573
1, 2040.00000, 123.728, -31.3454, 125.067, -151.315, 124.567, 88.1817, 0, 0, 0.965013, -54.4194, 0.954682, -174.389, 0.958516, 65.1078, 0.0172036, 149.573
1, 2100.00000, 123.728, -31.3454, 125.067, -151.315, 124.567, 88.1817, 0, 0, 0.965013, -54.4194, 0.954682, -174.389, 0.958516, 65.1078, 0.0172036, 149.573
1, 2160.00000, 123.728, -31.3454, 125.067, -151.315, 124.567, 88.1817, 0, 0, 0.965013, -54.4194, 0.954682, -174.389, 0.958516, 65.1078, 0.0172036, 149.573
1, 2220.00000, 124.023, -31.3154, 125.066, -151.315, 124.66, 88.3066, 0, 0, 0.962727, -54.3895, 0.954691, -174.389, 0.957799, 65.2326, 0.0133123, 151.58
1, 2280.00000, 124.023, -31.3153, 125.066, -151.315, 124.66, 88.3066, 0, 0, 0.96272, -54.3893, 0.954692, -174.389, 0.957797, 65.2327, 0.0133047, 151.596
1, 2340.00000, 124.023, -31.3153, 125.066, -151.315, 124.66, 88.3066, 0, 0, 0.96272, -54.3893, 0.954692, -174.389, 0.957797, 65.2327, 0.0133046, 151.596
1, 2400.00000, 124.023, -31.3153, 125.066, -151.315, 124.66, 88.3066, 0, 0, 0.96272, -54.3893, 0.954692, -174.389, 0.957797, 65.2327, 0.0133046, 151.596
1, 2460.00000, 124.023, -31.3153, 125.066, -151.315, 124.66, 88.3066, 0, 0, 0.96272, -54.3893, 0.954692, -174.389, 0.957797, 65.2327, 0.0133046, 151.596
1, 2520.00000, 124.023, -31.3153, 125.066, -151.315, 124.66, 88.3066, 0, 0, 0.96272, -54.3893, 0.954692, -174.389, 0.957797, 65.2327, 0.0133046, 151.596
1, 2580.00000, 124.023, -31.3153, 125.066, -151.315, 124.66, 88.3066, 0, 0, 0.96272, -54.3893, 0.954692, -174.389, 0.957797, 65.2327, 0.0133046, 151.596
1, 2640.00000, 124.023, -31.3153, 125.066, -151.315, 124.66, 88.3066, 0, 0, 0.96272, -54.3893, 0.954692, -174.389, 0.957797, 65.2327, 0.0133046, 151.596
1, 2700.00000, 124.023, -31.3153, 125.066, -151.315, 124.66, 88.3066, 0, 0, 0.96272, -54.3893, 0.954692, -174.389, 0.957797, 65.2327, 0.0133046, 151.596
1, 2760.00000, 124.023, -31.3153, 125.066, -151.315, 124.66, 88.3066, 0, 0, 0.96272, -54.3893, 0.954692, -174.389, 0.957797, 65.2327, 0.0133046, 151.596
1, 2820.00000, 124.023, -31.3153, 125.066, -151.315, 124.66, 88.3066, 0, 0, 0.96272, -54.3893, 0.954692, -174.389, 0.957797, 65.2327, 0.0133046, 151.596
1, 2880.00000, 124.023, -31.3153, 125.066, -151.315, 124.66, 88.3066, 0, 0, 0.96272, -54.3893, 0.954692, -174.389, 0.957797, 65.2327, 0.0133046, 151.596
1, 2940.00000, 124.023, -31.3153, 125.066, -151.315, 124.66, 88.3066, 0, 0, 0.96272, -54.3893, 0.954692, -174.389, 0.957797, 65.2327, 0.0133046, 151.596
1, 3000.00000, 124.023, -31.3153, 125.066, -151.315, 124.66, 88.3066, 0, 0, 0.96272, -54.3893, 0.954692, -174.389, 0.957797, 65.2327, 0.0133046, 151.596
1, 3060.00000, 124.023, -31.3153, 125.066, -151.315, 124.66, 88.3066, 0, 0, 0.96272, -54.3893, 0.954692, -174.389, 0.957797, 65.2327, 0.0133046, 151.596
1, 3120.00000, 124.023, -31.3153, 125.066, -151.315, 124.66, 88.3066, 0, 0, 0.96272, -54.3893, 0.954692, -174.389, 0.957797, 65.2327, 0.0133046, 151.596
1, 3180.00000, 124.023, -31.3153, 125.066, -151.315, 124.66, 88.3066, 0, 0, 0.96272, -54.3893, 0.954692, -174.389, 0.957797, 65.2327, 0.0133046, 151.596
1, 3240.00000, 124.023, -31.3153, 125.066, -151.315, 124.66, 88.3066, 0, 0, 0.96272, -54.3893, 0.954692, -174.389, 0.957797, 65.2327, 0.0133046, 151.596
1, 3300.00000, 124.023, -31.3153, 125.066, -151.315, 124.66, 88.3066, 0, 0, 0.96272, -54.3893, 0.954692, -174.389, 0.957797, 65.2327, 0.0133046, 151.596
1, 3360.00000, 124.023, -31.3153, 125.066, -151.315, 124.66, 88.3066, 0, 0, 0.96272, -54.3893, 0.954692, -174.389, 0.957797, 65.2327, 0.0133046, 151.596
1, 3420.00000, 124.023, -31.3153, 125.066, -151.315, 124.66, 88.3066, 0, 0, 0.96272, -54.3893, 0.954692, -174.389, 0.957797, 65.2327, 0.0133046, 151.596
1, 3480.00000, 124.023, -31.3153, 125.066, -151.315, 124.66, 88.3066, 0, 0, 0.96272, -54.3893, 0.954692, -174.389, 0.957797, 65.2327, 0.0133046, 151.596
1, 3540.00000, 124.023, -31.3153, 125.066, -151.315, 124.66, 88.3066, 0, 0, 0.96272, -54.3893, 0.954692, -174.389, 0.957797, 65.2327, 0.0133046, 151.596
2, 0.00000, 124.023, -31.3153, 125.066, -151.315, 124.66, 88.3066, 0, 0, 0.96272, -54.3893, 0.954692, -174.389, 0.957797, 65.2327, 0.0133046, 151.596
2, 60.00000, 124.023, -31.3153, 125.066, -151.315, 124.66, 88.3066, 0, 0, 0.96272, -54.3893, 0.954692, -174.389, 0.957797, 65.2327, 0.0133046, 151.596
2, 120.00000, 124.023, -31.3153, 125.066, -151.315, 124.66, 88.3066, 0, 0, 0.96272, -54.3893, 0.954692, -174.389, 0.957797, 65.2327, 0.0133046, 151.596
2, 180.00000, 124.023, -31.3153, 125.066, -151.315, 124.66, 88.3066, 0, 0, 0.96272, -54.3893, 0.954692, -174.389, 0.957797, 65.2327, 0.0133046, 151.596
2, 240.00000, 124.023, -31.3153, 125.066, -151.315, 124.66, 88.3066, 0, 0, 0.96272, -54.3893, 0.954692, -174.389, 0.957797, 65.2327, 0.0133046, 151.596
2, 300.00000, 124.023, -31.3153, 125.066, -151.315, 124.66, 88.3066, 0, 0, 0.96272, -54.3893, 0.954692, -174.389, 0.957797, 65.2327, 0.0133046, 151.596
2, 360.00000, 124.023, -31.3153, 125.066, -151.315, 124.66, 88.3066, 0, 0, 0.96272, -54.3893, 0.954692, -174.389, 0.957797, 65.2327, 0.0133046, 151.596
2, 420.00000, 124.023, -31.3153, 125.066, -151.315, 124.66, 88.3066, 0, 0, 0.96272, -54.3893, 0.954692, -174.389, 0.957797, 65.2327, 0.0133046, 151.596
2, 480.00000, 124.023, -31.3153, 125.066, -151.315, 124.66, 88.3066, 0, 0, 0.96272, -54.3893, 0.954692, -174.389, 0.957797, 65.2327, 0.0133046, 151.596
2, 540.00000, 124.023, -31.3153, 125.066, -151.315, 124.66, 88.3066, 0, 0, 0.96272, -54.3893, 0.954692, -174.389, 0.957797, 65.2327, 0.0133046, 151.596
2, 600.00000, 124.023, -31.3153, 125.066, -151.315, 124.66, 88.3066, 0, 0, 0.96272, -54.3893, 0.954692, -174.389, 0.957797, 65.2327, 0.0133046, 151.596
