hour,t(sec),V1,VAngle1,V2,VAngle2,V3,VAngle3,V4,VAngle4,I1,IAngle1,I2,IAngle2,I3,IAngle3,I4,IAngle4
0, 60.00000, 121.879, -31.485, 125.329, -151.29, 124.052, 87.3768, 0, 0, 2.79059, -54.5588, 2.71381, -174.364, 2.7417, 64.303, 0.127026, 146.817
0, 120.00000, 121.879, -31.4851, 125.346, -151.29, 124.059, 87.3707, 0, 0, 2.7906, -54.5589, 2.71345, -174.364, 2.74156, 64.2969, 0.127606, 146.883
0, 180.00000, 121.879, -31.4851, 125.361, -151.291, 124.064, 87.3652, 0, 0, 2.7906, -54.559, 2.71312, -174.365, 2.74144, 64.2914, 0.128128, 146.942
0, 240.00000, 121.878, -31.4852, 125.375, -151.291, 124.069, 87.3603, 0, 0, 2.79061, -54.5591, 2.71282, -174.365, 2.74133, 64.2865, 0.128597, 146.994
0, 300.00000, 121.878, -31.4853, 125.387, -151.292, 124.074, 87.3558, 0, 0, 2.79061, -54.5591, 2.71255, -174.365, 2.74123, 64.282, 0.129021, 147.042
0, 360.00000, 121.878, -31.4853, 125.398, -151.292, 124.078, 87.3518, 0, 0, 2.79061, -54.5592, 2.71231, -174.366, 2.74114, 64.278, 0.129402, 147.085
0, 420.00000, 121.878, -31.4854, 125.408, -151.292, 124.081, 87.3482, 0, 0, 2.79062, -54.5593, 2.7121, -174.366, 2.74107, 64.2744, 0.129747, 147.123
0, 480.00000, 122.398, -31.3728, 125.973, -151.167, 124.609, 87.4611, 0, 0, 2.51077, -54.4467, 2.43955, -174.241, 2.46623, 64.3873, 0.117505, 147.223
0, 540.00000, 122.398, -31.3729, 125.981, -151.167, 124.612, 87.4582, 0, 0, 2.51077, -54.4467, 2.43938, -174.241, 2.46617, 64.3843, 0.117763, 147.254
0, 600.00000, 122.398, -31.3729, 125.989, -151.167, 124.614, 87.4555, 0, 0, 2.51078, -54.4468, 2.43924, -174.241, 2.46612, 64.3817, 0.117995, 147.283
0, 660.00000, 122.398, -31.3729, 125.996, -151.167, 124.617, 87.4531, 0, 0, 2.51078, -54.4468, 2.4391, -174.241, 2.46607, 64.3793, 0.118203, 147.308
0, 720.00000, 122.398, -31.373, 126.002, -151.168, 124.619, 87.4509, 0, 0, 2.51078, -54.4469, 2.43899, -174.242, 2.46603, 64.3771, 0.118391, 147.331
0, 780.00000, 122.398, -31.373, 126.007, -151.168, 124.621, 87.449, 0, 0, 2.51078, -54.4469, 2.43888, -174.242, 2.46599, 64.3751, 0.118559, 147.351
0, 840.00000, 122.398, -31.373, 126.012, -151.168, 124.622, 87.4472, 0, 0, 2.51078, -54.4469, 2.43878, -174.242, 2.46596, 64.3734, 0.118711, 147.369
0, 900.00000, 122.398, -31.373, 126.016, -151.168, 124.624, 87.4457, 0, 0, 2.51078, -54.4469, 2.4387, -174.242, 2.46593, 64.3718, 0.118848, 147.386
0, 960.00000, 122.398, -31.3723, 125.85, -151.304, 124.304, 87.4232, 0, 0, 2.51078, -54.4462, 2.44191, -174.378, 2.47227, 64.3494, 0.113297, 151.937
0, 1020.00000, 122.398, -31.3723, 125.854, -151.304, 124.305, 87.422, 0, 0, 2.51078, -54.4462, 2.44184, -174.378, 2.47225, 64.3481, 0.113407, 151.947
0, 1080.00000, 122.398, -31.3724, 125.857, -151.304, 124.307, 87.4209, 0, 0, 2.51078, -54.4463, 2.44178, -174.378, 2.47223, 64.347, 0.113506, 151.955
0, 1140.00000, 122.398, -31.3724, 125.86, -151.304, 124.308, 87.4198, 0, 0, 2.51078, -54.4463, 2.44172, -174.378, 2.47221, 64.3459, 0.113595, 151.963
0, 1200.00000, 122.398, -31.3724, 125.862, -151.304, 124.308, 87.4189, 0, 0, 2.51078, -54.4463, 2.44167, -174.378, 2.47219, 64.345, 0.113675, 151.969
0, 1260.00000, 122.398, -31.3724, 125.865, -151.304, 124.309, 87.4181, 0, 0, 2.51078, -54.4463, 2.44163, -174.378, 2.47217, 64.3442, 0.113747, 151.976
0, 1320.00000, 122.398, -31.3724, 125.867, -151.304, 124.31, 87.4174, 0, 0, 2.51078, -54.4463, 2.44159, -174.378, 2.47216, 64.3434, 0.113813, 151.981
0, 1380.00000, 122.398, -31.3724, 125.869, -151.304, 124.311, 87.4167, 0, 0, 2.51078, -54.4463, 2.44155, -174.378, 2.47215, 64.3428, 0.113871, 151.986
0, 1440.00000, 122.398, -31.3724, 125.87, -151.304, 124.311, 87.4161, 0, 0, 2.51078, -54.4463, 2.44152, -174.378, 2.47213, 64.3422, 0.113924, 151.991
0, 1500.00000, 122.398, -31.3724, 125.872, -151.304, 124.312, 87.4155, 0, 0, 2.51078, -54.4463, 2.44149, -174.378, 2.47212, 64.3416, 0.113972, 151.995
0, 1560.00000, 122.398, -31.3724, 125.873, -151.304, 124.312, 87.415, 0, 0, 2.51078, -54.4464, 2.44146, -174.378, 2.47212, 64.3411, 0.114014, 151.998
0, 1620.00000, 122.398, -31.3724, 125.874, -151.304, 124.313, 87.4146, 0, 0, 2.51078, -54.4464, 2.44144, -174.378, 2.47211, 64.3407, 0.114053, 152.001
0, 1680.00000, 122.398, -31.3725, 125.875, -151.304, 124.313, 87.4142, 0, 0, 2.51078, -54.4464, 2.44142, -174.378, 2.4721, 64.3403, 0.114088, 152.004
0, 1740.00000, 122.398, -31.3725, 125.876, -151.304, 124.313, 87.4139, 0, 0, 2.51078, -54.4464, 2.4414, -174.378, 2.47209, 64.34, 0.114119, 152.007
0, 1800.00000, 122.307, -31.4995, 125.545, -151.338, 124.32, 87.415, 0, 0, 2.51264, -54.5734, 2.44783, -174.412, 2.47195, 64.3411, 0.107419, 147.565
0, 1860.00000, 122.307, -31.4995, 125.546, -151.338, 124.321, 87.4147, 0, 0, 2.51264, -54.5735, 2.44782, -174.412, 2.47195, 64.3408, 0.107444, 147.568
0, 1920.00000, 122.307, -31.4995, 125.547, -151.338, 124.321, 87.4144, 0, 0, 2.51264, -54.5735, 2.4478, -174.412, 2.47194, 64.3405, 0.107465, 147.571
0, 1980.00000, 122.307, -31.4995, 125.547, -151.338, 124.321, 87.4142, 0, 0, 2.51264, -54.5735, 2.44779, -174.412, 2.47194, 64.3403, 0.107485, 147.574
0, 2040.00000, 122.307, -31.4995, 125.548, -151.338, 124.321, 87.414, 0, 0, 2.51264, -54.5735, 2.44778, -174.412, 2.47194, 64.3401, 0.107503, 147.576
0, 2100.00000, 122.307, -31.4996, 125.549, -151.338, 124.321, 87.4138, 0, 0, 2.51264, -54.5735, 2.44777, -174.412, 2.47193, 64.3399, 0.107519, 147.578
0, 2160.00000, 122.307, -31.4996, 125.549, -151.338, 124.322, 87.4136, 0, 0, 2.51264, -54.5735, 2.44776, -174.412, 2.47193, 64.3397, 0.107533, 147.58
0, 2220.00000, 122.307, -31.4996, 125.549, -151.338, 124.322, 87.4135, 0, 0, 2.51264, -54.5735, 2.44775, -174.412, 2.47193, 64.3396, 0.107546, 147.582
0, 2280.00000, 122.307, -31.4996, 125.55, -151.338, 124.322, 87.4133, 0, 0, 2.51264, -54.5735, 2.44775, -174.412, 2.47192, 64.3394, 0.107558, 147.583
0, 2340.00000, 122.307, -31.4996, 125.55, -151.338, 124.322, 87.4132, 0, 0, 2.51264, -54.5735, 2.44774, -174.412, 2.47192, 64.3393, 0.107568, 147.584
0, 2400.00000, 122.307, -31.4996, 125.55, -151.338, 124.322, 87.4131, 0, 0, 2.51264, -54.5735, 2.44773, -174.412, 2.47192, 64.3392, 0.107578, 147.586
0, 2460.00000, 122.307, -31.4996, 125.551, -151.338, 124.322, 87.413, 0, 0, 2.51264, -54.5735, 2.44773, -174.412, 2.47192, 64.3391, 0.107586, 147.587
0, 2520.00000, 122.307, -31.4996, 125.551, -151.338, 124.322, 87.4129, 0, 0, 2.51264, -54.5735, 2.44772, -174.412, 2.47191, 64.339, 0.107594, 147.588
0, 2580.00000, 122.307, -31.4996, 125.551, -151.338, 124.322, 87.4128, 0, 0, 2.51264, -54.5735, 2.44772, -174.412, 2.47191, 64.3389, 0.107601, 147.589
0, 2640.00000, 122.307, -31.4996, 125.551, -151.338, 124.322, 87.4128, 0, 0, 2.51264, -54.5735, 2.44772, -174.412, 2.47191, 64.3388, 0.107607, 147.589
0, 2700.00000, 122.307, -31.4996, 125.552, -151.338, 124.322, 87.4127, 0, 0, 2.51264, -54.5735, 2.44771, -174.412, 2.47191, 64.3388, 0.107613, 147.59
0, 2760.00000, 122.793, -31.5032, 125.546, -151.337, 124.58, 87.5982, 0, 0, 2.50271, -54.5771, 2.44782, -174.411, 2.46679, 64.5243, 0.0910038, 145.994
0, 2820.00000, 122.793, -31.5032, 125.546, -151.337, 124.581, 87.5982, 0, 0, 2.50271, -54.5771, 2.44782, -174.411, 2.46679, 64.5243, 0.0910082, 145.994
0, 2880.00000, 122.793, -31.5032, 125.546, -151.337, 124.581, 87.5981, 0, 0, 2.50271, -54.5771, 2.44781, -174.411, 2.46679, 64.5242, 0.0910122, 145.995
0, 2940.00000, 122.793, -31.5032, 125.546, -151.337, 124.581, 87.5981, 0, 0, 2.50271, -54.5771, 2.44781, -174.411, 2.46679, 64.5242, 0.0910159, 145.996
0, 3000.00000, 122.793, -31.5032, 125.547, -151.337, 124.581, 87.598, 0, 0, 2.50271, -54.5771, 2.44781, -174.411, 2.46679, 64.5241, 0.0910191, 145.996
0, 3060.00000, 122.793, -31.5032, 125.547, -151.337, 124.581, 87.598, 0, 0, 2.50271, -54.5771, 2.44781, -174.411, 2.46679, 64.5241, 0.0910221, 145.997
0, 3120.00000, 122.793, -31.5032, 125.547, -151.337, 124.581, 87.598, 0, 0, 2.50271, -54.5771, 2.44781, -174.411, 2.46679, 64.5241, 0.0910247, 145.997
0, 3180.00000, 122.793, -31.5032, 125.547, -151.337, 124.581, 87.598, 0, 0, 2.50271, -54.5771, 2.4478, -174.411, 2.46679, 64.524, 0.0910271, 145.998
0, 3240.00000, 122.793, -31.5032, 125.547, -151.337, 124.581, 87.5979, 0, 0, 2.50271, -54.5771, 2.4478, -174.411, 2.46679, 64.524, 0.0910293, 145.998
0, 3300.00000, 122.793, -31.5032, 125.547, -151.337, 124.581, 87.5979, 0, 0, 2.50271, -54.5771, 2.4478, -174.411, 2.46678, 64.524, 0.0910312, 145.998
0, 3360.00000, 122.793, -31.5032, 125.547, -151.337, 124.581, 87.5979, 0, 0, 2.50271, -54.5771, 2.4478, -174.411, 2.46678, 64.524, 0.0910329, 145.999
0, 3420.00000, 122.793, -31.5032, 125.547, -151.337, 124.581, 87.5979, 0, 0, 2.50271, -54.5771, 2.4478, -174.411, 2.46678, 64.5239, 0.0910345, 145.999
0, 3480.00000, 122.793, -31.5032, 125.547, -151.337, 124.581, 87.5978, 0, 0, 2.50271, -54.5771, 2.4478, -174.411, 2.46678, 64.5239, 0.0910359, 145.999
0, 3540.00000, 122.793, -31.5032, 125.547, -151.337, 124.581, 87.5978, 0, 0, 2.50271, -54.5771, 2.4478, -174.411, 2.46678, 64.5239, 0.0910372, 145.999
1, 0.00000, 122.793, -31.5032, 125.547, -151.337, 124.581, 87.5978, 0, 0, 2.50271, -54.5771, 2.4478, -174.411, 2.46678, 64.5239, 0.0910383, 146
1, 60.00000, 123.281, -31.5048, 125.542, -151.336, 124.832, 87.7818, 0, 0, 2.4928, -54.5787, 2.4479, -174.41, 2.46182, 64.7079, 0.0746771, 143.855
1, 120.00000, 123.281, -31.5048, 125.542, -151.336, 124.832, 87.7818, 0, 0, 2.4928, -54.5787, 2.4479, -174.41, 2.46182, 64.7079, 0.0746779, 143.855
1, 180.00000, 123.281, -31.5048, 125.542, -151.336, 124.832, 87.7818, 0, 0, 2.4928, -54.5787, 2.4479, -174.41, 2.46182, 64.7079, 0.0746787, 143.855
1, 240.00000, 123.281, -31.5048, 125.542, -151.336, 124.832, 87.7818, 0, 0, 2.4928, -54.5787, 2.4479, -174.41, 2.46182, 64.7079, 0.0746794, 143.855
1, 300.00000, 123.281, -31.5048, 125.542, -151.336, 124.832, 87.7818, 0, 0, 2.4928, -54.5787, 2.4479, -174.41, 2.46182, 64.7079, 0.0746801, 143.856
1, 360.00000, 123.281, -31.5048, 125.542, -151.336, 124.832, 87.7818, 0, 0, 2.4928, -54.5787, 2.4479, -174.41, 2.46182, 64.7079, 0.0746807, 143.856
1, 420.00000, 123.281, -31.5048, 125.542, -151.336, 124.832, 87.7818, 0, 0, 2.4928, -54.5787, 2.4479, -174.41, 2.46182, 64.7078, 0.0746813, 143.856
1, 480.00000, 123.281, -31.5048, 125.542, -151.336, 124.832, 87.7818, 0, 0, 2.4928, -54.5787, 2.4479, -174.41, 2.46182, 64.7078, 0.0746817, 143.856
1, 540.00000, 123.281, -31.5048, 125.542, -151.336, 124.832, 87.7818, 0, 0, 2.4928, -54.5787, 2.4479, -174.41, 2.46182, 64.7078, 0.0746822, 143.856
1, 600.00000, 123.281, -31.5048, 125.542, -151.336, 124.832, 87.7818, 0, 0, 2.4928, -54.5787, 2.4479, -174.41, 2.46182, 64.7078, 0.0746826, 143.856
1, 660.00000, 123.281, -31.5048, 125.542, -151.336, 124.832, 87.7817, 0, 0, 2.4928, -54.5787, 2.4479, -174.41, 2.46182, 64.7078, 0.0746829, 143.856
1, 720.00000, 123.281, -31.5048, 125.542, -151.336, 124.832, 87.7817, 0, 0, 2.4928, -54.5787, 2.4479, -174.41, 2.46182, 64.7078, 0.0746832, 143.856
1, 780.00000, 123.562, -31.4756, 125.54, -151.332, 124.925, 87.9023, 0, 0, 2.48713, -54.5495, 2.44794, -174.406, 2.46, 64.8283, 0.0650248, 143.93
1, 840.00000, 123.562, -31.4756, 125.54, -151.332, 124.925, 87.9022, 0, 0, 2.48713, -54.5495, 2.44794, -174.406, 2.46, 64.8283, 0.065025, 143.93
1, 900.00000, 123.562, -31.4756, 125.54, -151.332, 124.925, 87.9022, 0, 0, 2.48713, -54.5495, 2.44794, -174.406, 2.46, 64.8283, 0.0650253, 143.93
1, 960.00000, 123.562, -31.4756, 125.54, -151.332, 124.925, 87.9022, 0, 0, 2.48713, -54.5495, 2.44794, -174.406, 2.46, 64.8283, 0.0650255, 143.93
1, 1020.00000, 123.562, -31.4756, 125.54, -151.332, 124.925, 87.9022, 0, 0, 2.48713, -54.5495, 2.44794, -174.406, 2.46, 64.8283, 0.0650257, 143.93
1, 1080.00000, 123.562, -31.4756, 125.54, -151.332, 124.925, 87.9022, 0, 0, 2.48713, -54.5495, 2.44794, -174.406, 2.46, 64.8283, 0.0650258, 143.93
1, 1140.00000, 123.562, -31.4756, 125.54, -151.332, 124.925, 87.9022, 0, 0, 2.48713, -54.5495, 2.44794, -174.406, 2.46, 64.8283, 0.065026, 143.93
1, 1200.00000, 123.562, -31.4756, 125.54, -151.332, 124.925, 87.9022, 0, 0, 2.48713, -54.5495, 2.44794, -174.406, 2.46, 64.8283, 0.0650261, 143.93
1, 1260.00000, 123.562, -31.4756, 125.54, -151.332, 124.925, 87.9022, 0, 0, 2.48713, -54.5495, 2.44794, -174.406, 2.46, 64.8283, 0.0650263, 143.93
1, 1320.00000, 123.562, -31.4756, 125.54, -151.332, 124.925, 87.9022, 0, 0, 2.48713, -54.5495, 2.44794, -174.406, 2.46, 64.8283, 0.0650264, 143.93
1, 1380.00000, 123.562, -31.4756, 125.54, -151.332, 124.925, 87.9022, 0, 0, 2.48713, -54.5495, 2.44794, -174.406, 2.46, 64.8283, 0.0650265, 143.93
1, 1440.00000, 123.562, -31.4756, 125.54, -151.332, 124.925, 87.9022, 0, 0, 2.48713, -54.5495, 2.44794, -174.406, 2.46, 64.8283, 0.0650266, 143.93
1, 1500.00000, 123.562, -31.4756, 125.54, -151.332, 124.925, 87.9022, 0, 0, 2.48713, -54.5495, 2.44794, -174.406, 2.46, 64.8283, 0.0650266, 143.93
1, 1560.00000, 123.562, -31.4756, 125.54, -151.332, 124.925, 87.9022, 0, 0, 2.48713, -54.5495, 2.44794, -174.406, 2.46, 64.8283, 0.0650267, 143.93
1, 1620.00000, 123.562, -31.4756, 125.54, -151.332, 124.925, 87.9022, 0, 0, 2.48713, -54.5495, 2.44794, -174.406, 2.46, 64.8283, 0.0650268, 143.93
1, 1680.00000, 123.562, -31.4756, 125.54, -151.332, 124.925, 87.9022, 0, 0, 2.48713, -54.5495, 2.44794, -174.406, 2.46, 64.8283, 0.0650268, 143.93
1, 1740.00000, 123.562, -31.4756, 125.54, -151.332, 124.925, 87.9022, 0, 0, 2.48713, -54.5495, 2.44794, -174.406, 2.46, 64.8283, 0.0650269, 143.93
1, 1800.00000, 123.562, -31.4756, 125.54, -151.332, 124.925, 87.9022, 0, 0, 2.48713, -54.5495, 2.44794, -174.406, 2.46, 64.8283, 0.0650269, 143.93
1, 1860.00000, 123.562, -31.4756, 125.54, -151.332, 124.925, 87.9022, 0, 0, 2.48713, -54.5495, 2.44794, -174.406, 2.46, 64.8283, 0.065027, 143.93
1, 1920.00000, 123.562, -31.4756, 125.54, -151.332, 124.925, 87.9022, 0, 0, 2.48713, -54.5495, 2.44794, -174.406, 2.46, 64.8283, 0.065027, 143.93
1, 1980.00000, 123.562, -31.4756, 125.54, -151.332, 124.925, 87.9022, 0, 0, 2.48713, -54.5495, 2.44794, -174.406, 2.46, 64.8283, 0.0650271, 143.93
1, 2040.00000, 123.562, -31.4756, 125.54, -151.332, 124.925, 87.9022, 0, 0, 2.48713, -54.5495, 2.44794, -174.406, 2.46, 64.8283, 0.0650271, 143.93
1, 2100.00000, 123.562, -31.4756, 125.54, -151.332, 124.925, 87.9022, 0, 0, 2.48713, -54.5495, 2.44794, -174.406, 2.46, 64.8283, 0.0650271, 143.93
1, 2160.00000, 123.562, -31.4756, 125.54, -151.332, 124.925, 87.9022, 0, 0, 2.48713, -54.5495, 2.44794, -174.406, 2.46, 64.8283, 0.0650271, 143.93
1, 2220.00000, 123.656, -31.3483, 125.871, -151.299, 124.916, 87.9011, 0, 0, 2.48523, -54.4222, 2.4415, -174.373, 2.46017, 64.8272, 0.0713427, 151.376
1, 2280.00000, 123.656, -31.3483, 125.871, -151.299, 124.916, 87.9011, 0, 0, 2.48523, -54.4222, 2.4415, -174.373, 2.46017, 64.8272, 0.0713431, 151.376
1, 2340.00000, 123.656, -31.3483, 125.871, -151.299, 124.916, 87.9011, 0, 0, 2.48523, -54.4222, 2.4415, -174.373, 2.46017, 64.8272, 0.0713432, 151.376
1, 2400.00000, 123.656, -31.3483, 125.871, -151.299, 124.916, 87.9011, 0, 0, 2.48523, -54.4222, 2.4415, -174.373, 2.46017, 64.8272, 0.0713432, 151.376
1, 2460.00000, 123.656, -31.3483, 125.871, -151.299, 124.916, 87.9011, 0, 0, 2.48523, -54.4222, 2.4415, -174.373, 2.46017, 64.8272, 0.0713432, 151.376
1, 2520.00000, 123.656, -31.3483, 125.871, -151.299, 124.916, 87.9011, 0, 0, 2.48523, -54.4222, 2.4415, -174.373, 2.46017, 64.8272, 0.0713432, 151.376
1, 2580.00000, 123.656, -31.3483, 125.871, -151.299, 124.916, 87.9011, 0, 0, 2.48523, -54.4222, 2.4415, -174.373, 2.46017, 64.8272, 0.0713432, 151.376
1, 2640.00000, 123.656, -31.3483, 125.871, -151.299, 124.916, 87.9011, 0, 0, 2.48523, -54.4222, 2.4415, -174.373, 2.46017, 64.8272, 0.0713432, 151.376
1, 2700.00000, 123.656, -31.3483, 125.871, -151.299, 124.916, 87.9011, 0, 0, 2.48523, -54.4222, 2.4415, -174.373, 2.46017, 64.8272, 0.0713433, 151.376
1, 2760.00000, 123.656, -31.3483, 125.871, -151.299, 124.916, 87.9011, 0, 0, 2.48523, -54.4222, 2.4415, -174.373, 2.46017, 64.8272, 0.0713433, 151.376
1, 2820.00000, 123.656, -31.3483, 125.871, -151.299, 124.916, 87.9011, 0, 0, 2.48523, -54.4222, 2.4415, -174.373, 2.46017, 64.8272, 0.0713433, 151.376
1, 2880.00000, 123.656, -31.3483, 125.871, -151.299, 124.916, 87.9011, 0, 0, 2.48523, -54.4222, 2.4415, -174.373, 2.46017, 64.8272, 0.0713433, 151.376
1, 2940.00000, 123.656, -31.3483, 125.871, -151.299, 124.916, 87.9011, 0, 0, 2.48523, -54.4222, 2.4415, -174.373, 2.46017, 64.8272, 0.0713433, 151.376
1, 3000.00000, 123.656, -31.3483, 125.871, -151.299, 124.916, 87.9011, 0, 0, 2.48523, -54.4222, 2.4415, -174.373, 2.46017, 64.8272, 0.0713433, 151.376
1, 3060.00000, 123.656, -31.3483, 125.871, -151.299, 124.916, 87.9011, 0, 0, 2.48523, -54.4222, 2.4415, -174.373, 2.46017, 64.8272, 0.0713433, 151.376
1, 3120.00000, 123.656, -31.3483, 125.871, -151.299, 124.916, 87.9011, 0, 0, 2.48523, -54.4222, 2.4415, -174.373, 2.46017, 64.8272, 0.0713433, 151.376
1, 3180.00000, 123.656, -31.3483, 125.871, -151.299, 124.916, 87.9011, 0, 0, 2.48523, -54.4222, 2.4415, -174.373, 2.46017, 64.8272, 0.0713433, 151.376
1, 3240.00000, 123.656, -31.3483, 125.871, -151.299, 124.916, 87.9011, 0, 0, 2.48523, -54.4222, 2.4415, -174.373, 2.46017, 64.8272, 0.0713433, 151.376
1, 3300.00000, 123.656, -31.3483, 125.871, -151.299, 124.916, 87.9011, 0, 0, 2.48523, -54.4222, 2.4415, -174.373, 2.46017, 64.8272, 0.0713433, 151.376
1, 3360.00000, 123.656, -31.3483, 125.871, -151.299, 124.916, 87.9011, 0, 0, 2.48523, -54.4222, 2.4415, -174.373, 2.46017, 64.8272, 0.0713433, 151.376
1, 3420.00000, 123.656, -31.3483, 125.871, -151.299, 124.916, 87.9011, 0, 0, 2.48523, -54.4222, 2.4415, -174.373, 2.46017, 64.8272, 0.0713433, 151.376
1, 3480.00000, 123.656, -31.3483, 125.871, -151.299, 124.916, 87.9011, 0, 0, 2.48523, -54.4222, 2.4415, -174.373, 2.46017, 64.8272, 0.0713433, 151.376
1, 3540.00000, 123.656, -31.3483, 125.871, -151.299, 124.916, 87.9011, 0, 0, 2.48523, -54.4222, 2.4415, -174.373, 2.46017, 64.8272, 0.0713433, 151.376
2, 0.00000, 123.656, -31.3483, 125.871, -151.299, 124.916, 87.9011, 0, 0, 2.48523, -54.4222, 2.4415, -174.373, 2.46017, 64.8272, 0.0713433, 151.376
2, 60.00000, 123.656, -31.3483, 125.871, -151.299, 124.916, 87.9011, 0, 0, 2.48523, -54.4222, 2.4415, -174.373, 2.46017, 64.8272, 0.0713433, 151.376
2, 120.00000, 123.656, -31.3483, 125.871, -151.299, 124.916, 87.9011, 0, 0, 2.48523, -54.4222, 2.4415, -174.373, 2.46017, 64.8272, 0.0713433, 151.376
2, 180.00000, 123.656, -31.3483, 125.871, -151.299, 124.916, 87.9011, 0, 0, 2.48523, -54.4222, 2.4415, -174.373, 2.46017, 64.8272, 0.0713433, 151.376
2, 240.00000, 123.656, -31.3483, 125.871, -151.299, 124.916, 87.9011, 0, 0, 2.48523, -54.4222, 2.4415, -174.373, 2.46017, 64.8272, 0.0713433, 151.376
2, 300.00000, 123.656, -31.3483, 125.871, -151.299, 124.916, 87.9011, 0, 0, 2.48523, -54.4222, 2.4415, -174.373, 2.46017, 64.8272, 0.0713433, 151.376
2, 360.00000, 123.656, -31.3483, 125.871, -151.299, 124.916, 87.9011, 0, 0, 2.48523, -54.4222, 2.4415, -174.373, 2.46017, 64.8272, 0.0713433, 151.376
2, 420.00000, 123.656, -31.3483, 125.871, -151.299, 124.916, 87.9011, 0, 0, 2.48523, -54.4222, 2.4415, -174.373, 2.46017, 64.8272, 0.0713433, 151.376
2, 480.00000, 123.656, -31.3483, 125.871, -151.299, 124.916, 87.9011, 0, 0, 2.48523, -54.4222, 2.4415, -174.373, 2.46017, 64.8272, 0.0713433, 151.376
2, 540.00000, 123.656, -31.3483, 125.871, -151.299, 124.916, 87.9011, 0, 0, 2.48523, -54.4222, 2.4415, -174.373, 2.46017, 64.8272, 0.0713433, 151.376
2, 600.00000, 123.656, -31.3483, 125.871, -151.299, 124.916, 87.9011, 0, 0, 2.48523, -54.4222, 2.4415, -174.373, 2.46017, 64.8272, 0.0713433, 151.376
2, 660.00000, 123.656, -31.3483, 125.871, -151.299, 124.916, 87.9011, 0, 0, 2.48523, -54.4222, 2.4415, -174.373, 2.46017, 64.8272, 0.0713433, 151.376
2, 720.00000, 123.656, -31.3483, 125.871, -151.299, 124.916, 87.9011, 0, 0, 2.48523, -54.4222, 2.4415, -174.373, 2.46017, 64.8272, 0.0713433, 151.376
2, 780.00000, 123.656, -31.3483, 125.871, -151.299, 124.916, 87.9011, 0, 0, 2.48523, -54.4222, 2.4415, -174.373, 2.46017, 64.8272, 0.0713433, 151.376
