hour,t(sec),"P1 (kW)","Q1 (kvar)","P2 (kW)","Q2 (kvar)","P3 (kW)","Q3 (kvar)","P4 (kW)","Q4 (kvar)"
0, 60.00000, 0.128428, 0.0547095, 0.129711, 0.0552559, 0.133156, 0.0567238, 0, 0
0, 120.00000, 0.128426, 0.0547094, 0.129709, 0.0552558, 0.133155, 0.0567238, 0, 0
0, 180.00000, 0.128426, 0.0547094, 0.129709, 0.0552558, 0.133155, 0.0567238, 0, 0
0, 240.00000, 0.128426, 0.0547094, 0.129709, 0.0552558, 0.133155, 0.0567238, 0, 0
0, 300.00000, 0.128426, 0.0547094, 0.129709, 0.0552558, 0.133155, 0.0567238, 0, 0
0, 360.00000, 0.128426, 0.0547094, 0.129709, 0.0552558, 0.133155, 0.0567238, 0, 0
0, 420.00000, 0.128426, 0.0547094, 0.129709, 0.0552558, 0.133155, 0.0567238, 0, 0
0, 480.00000, 0.145732, 0.0620826, 0.147132, 0.0626784, 0.150983, 0.0643201, 0, 0
0, 540.00000, 0.145734, 0.0620822, 0.147135, 0.0626794, 0.150988, 0.0643207, 0, 0
0, 600.00000, 0.145734, 0.0620822, 0.147135, 0.0626794, 0.150988, 0.0643207, 0, 0
0, 660.00000, 0.145734, 0.0620822, 0.147135, 0.0626794, 0.150988, 0.0643207, 0, 0
0, 720.00000, 0.145734, 0.0620822, 0.147135, 0.0626794, 0.150988, 0.0643207, 0, 0
0, 780.00000, 0.145734, 0.0620822, 0.147135, 0.0626794, 0.150988, 0.0643207, 0, 0
0, 840.00000, 0.145734, 0.0620822, 0.147135, 0.0626794, 0.150988, 0.0643207, 0, 0
0, 900.00000, 0.145734, 0.0620822, 0.147135, 0.0626794, 0.150988, 0.0643207, 0, 0
0, 960.00000, 0.145734, 0.0620822, 0.147135, 0.0626794, 0.150988, 0.0643207, 0, 0
0, 1020.00000, 0.145734, 0.0620822, 0.147135, 0.0626794, 0.150988, 0.0643207, 0, 0
0, 1080.00000, 0.145734, 0.0620822, 0.147135, 0.0626794, 0.150988, 0.0643207, 0, 0
0, 1140.00000, 0.145734, 0.0620822, 0.147135, 0.0626794, 0.150988, 0.0643207, 0, 0
0, 1200.00000, 0.145734, 0.0620822, 0.147135, 0.0626794, 0.150988, 0.0643207, 0, 0
0, 1260.00000, 0.145734, 0.0620822, 0.147135, 0.0626794, 0.150988, 0.0643207, 0, 0
0, 1320.00000, 0.145734, 0.0620822, 0.147135, 0.0626794, 0.150988, 0.0643207, 0, 0
0, 1380.00000, 0.145734, 0.0620822, 0.147135, 0.0626794, 0.150988, 0.0643207, 0, 0
0, 1440.00000, 0.145734, 0.0620822, 0.147135, 0.0626794, 0.150988, 0.0643207, 0, 0
0, 1500.00000, 0.145734, 0.0620822, 0.147135, 0.0626794, 0.150988, 0.0643207, 0, 0
0, 1560.00000, 0.145734, 0.0620822, 0.147135, 0.0626794, 0.150988, 0.0643207, 0, 0
0, 1620.00000, 0.145734, 0.0620822, 0.147135, 0.0626794, 0.150988, 0.0643207, 0, 0
0, 1680.00000, 0.145734, 0.0620822, 0.147135, 0.0626794, 0.150988, 0.0643207, 0, 0
0, 1740.00000, 0.145734, 0.0620822, 0.147135, 0.0626794, 0.150988, 0.0643207, 0, 0
0, 1800.00000, 0.145734, 0.0620822, 0.147135, 0.0626794, 0.150988, 0.0643207, 0, 0
0, 1860.00000, 0.145734, 0.0620822, 0.147135, 0.0626794, 0.150988, 0.0643207, 0, 0
0, 1920.00000, 0.145734, 0.0620822, 0.147135, 0.0626794, 0.150988, 0.0643207, 0, 0
0, 1980.00000, 0.145734, 0.0620822, 0.147135, 0.0626794, 0.150988, 0.0643207, 0, 0
0, 2040.00000, 0.145734, 0.0620822, 0.147135, 0.0626794, 0.150988, 0.0643207, 0, 0
0, 2100.00000, 0.145734, 0.0620822, 0.147135, 0.0626794, 0.150988, 0.0643207, 0, 0
0, 2160.00000, 0.145734, 0.0620822, 0.147135, 0.0626794, 0.150988, 0.0643207, 0, 0
0, 2220.00000, 0.145734, 0.0620822, 0.147135, 0.0626794, 0.150988, 0.0643207, 0, 0
0, 2280.00000, 0.145734, 0.0620822, 0.147135, 0.0626794, 0.150988, 0.0643207, 0, 0
0, 2340.00000, 0.145734, 0.0620822, 0.147135, 0.0626794, 0.150988, 0.0643207, 0, 0
0, 2400.00000, 0.145734, 0.0620822, 0.147135, 0.0626794, 0.150988, 0.0643207, 0, 0
0, 2460.00000, 0.145734, 0.0620822, 0.147135, 0.0626794, 0.150988, 0.0643207, 0, 0
0, 2520.00000, 0.145734, 0.0620822, 0.147135, 0.0626794, 0.150988, 0.0643207, 0, 0
0, 2580.00000, 0.145734, 0.0620822, 0.147135, 0.0626794, 0.150988, 0.0643207, 0, 0
0, 2640.00000, 0.145734, 0.0620822, 0.147135, 0.0626794, 0.150988, 0.0643207, 0, 0
0, 2700.00000, 0.145734, 0.0620822, 0.147135, 0.0626794, 0.150988, 0.0643207, 0, 0
0, 2760.00000, 0.145734, 0.0620822, 0.147135, 0.0626794, 0.150988, 0.0643207, 0, 0
0, 2820.00000, 0.145734, 0.0620822, 0.147135, 0.0626794, 0.150988, 0.0643207, 0, 0
0, 2880.00000, 0.145734, 0.0620822, 0.147135, 0.0626794, 0.150988, 0.0643207, 0, 0
0, 2940.00000, 0.145734, 0.0620822, 0.147135, 0.0626794, 0.150988, 0.0643207, 0, 0
0, 3000.00000, 0.145734, 0.0620822, 0.147135, 0.0626794, 0.150988, 0.0643207, 0, 0
0, 3060.00000, 0.145734, 0.0620822, 0.147135, 0.0626794, 0.150988, 0.0643207, 0, 0
0, 3120.00000, 0.145734, 0.0620822, 0.147135, 0.0626794, 0.150988, 0.0643207, 0, 0
0, 3180.00000, 0.145734, 0.0620822, 0.147135, 0.0626794, 0.150988, 0.0643207, 0, 0
0, 3240.00000, 0.145734, 0.0620822, 0.147135, 0.0626794, 0.150988, 0.0643207, 0, 0
0, 3300.00000, 0.145734, 0.0620822, 0.147135, 0.0626794, 0.150988, 0.0643207, 0, 0
0, 3360.00000, 0.145734, 0.0620822, 0.147135, 0.0626794, 0.150988, 0.0643207, 0, 0
0, 3420.00000, 0.145734, 0.0620822, 0.147135, 0.0626794, 0.150988, 0.0643207, 0, 0
0, 3480.00000, 0.145734, 0.0620822, 0.147135, 0.0626794, 0.150988, 0.0643207, 0, 0
0, 3540.00000, 0.145734, 0.0620822, 0.147135, 0.0626794, 0.150988, 0.0643207, 0, 0
1, 0.00000, 0.145734, 0.0620822, 0.147135, 0.0626794, 0.150988, 0.0643207, 0, 0
1, 60.00000, 0.145734, 0.0620822, 0.147135, 0.0626794, 0.150988, 0.0643207, 0, 0
1, 120.00000, 0.145734, 0.0620822, 0.147135, 0.0626794, 0.150988, 0.0643207, 0, 0
1, 180.00000, 0.145734, 0.0620822, 0.147135, 0.0626794, 0.150988, 0.0643207, 0, 0
1, 240.00000, 0.145734, 0.0620822, 0.147135, 0.0626794, 0.150988, 0.0643207, 0, 0
1, 300.00000, 0.145734, 0.0620822, 0.147135, 0.0626794, 0.150988, 0.0643207, 0, 0
1, 360.00000, 0.145734, 0.0620822, 0.147135, 0.0626794, 0.150988, 0.0643207, 0, 0
1, 420.00000, 0.145734, 0.0620822, 0.147135, 0.0626794, 0.150988, 0.0643207, 0, 0
1, 480.00000, 0.145734, 0.0620822, 0.147135, 0.0626794, 0.150988, 0.0643207, 0, 0
1, 540.00000, 0.145734, 0.0620822, 0.147135, 0.0626794, 0.150988, 0.0643207, 0, 0
1, 600.00000, 0.145734, 0.0620822, 0.147135, 0.0626794, 0.150988, 0.0643207, 0, 0
1, 660.00000, 0.145734, 0.0620822, 0.147135, 0.0626794, 0.150988, 0.0643207, 0, 0
1, 720.00000, 0.145734, 0.0620822, 0.147135, 0.0626794, 0.150988, 0.0643207, 0, 0
1, 780.00000, 0.145734, 0.0620822, 0.147135, 0.0626794, 0.150988, 0.0643207, 0, 0
1, 840.00000, 0.145734, 0.0620822, 0.147135, 0.0626794, 0.150988, 0.0643207, 0, 0
1, 900.00000, 0.145734, 0.0620822, 0.147135, 0.0626794, 0.150988, 0.0643207, 0, 0
1, 960.00000, 0.145734, 0.0620822, 0.147135, 0.0626794, 0.150988, 0.0643207, 0, 0
1, 1020.00000, 0.145734, 0.0620822, 0.147135, 0.0626794, 0.150988, 0.0643207, 0, 0
1, 1080.00000, 0.145734, 0.0620822, 0.147135, 0.0626794, 0.150988, 0.0643207, 0, 0
1, 1140.00000, 0.145734, 0.0620822, 0.147135, 0.0626794, 0.150988, 0.0643207, 0, 0
1, 1200.00000, 0.145734, 0.0620822, 0.147135, 0.0626794, 0.150988, 0.0643207, 0, 0
1, 1260.00000, 0.145734, 0.0620822, 0.147135, 0.0626794, 0.150988, 0.0643207, 0, 0
1, 1320.00000, 0.145734, 0.0620822, 0.147135, 0.0626794, 0.150988, 0.0643207, 0, 0
1, 1380.00000, 0.145734, 0.0620822, 0.147135, 0.0626794, 0.150988, 0.0643207, 0, 0
1, 1440.00000, 0.145734, 0.0620822, 0.147135, 0.0626794, 0.150988, 0.0643207, 0, 0
1, 1500.00000, 0.145734, 0.0620822, 0.147135, 0.0626794, 0.150988, 0.0643207, 0, 0
1, 1560.00000, 0.145734, 0.0620822, 0.147135, 0.0626794, 0.150988, 0.0643207, 0, 0
1, 1620.00000, 0.145734, 0.0620822, 0.147135, 0.0626794, 0.150988, 0.0643207, 0, 0
1, 1680.00000, 0.145734, 0.0620822, 0.147135, 0.0626794, 0.150988, 0.0643207, 0, 0
1, 1740.00000, 0.145734, 0.0620822, 0.147135, 0.0626794, 0.150988, 0.0643207, 0, 0
1, 1800.00000, 0.145734, 0.0620822, 0.147135, 0.0626794, 0.150988, 0.0643207, 0, 0
1, 1860.00000, 0.145734, 0.0620822, 0.147135, 0.0626794, 0.150988, 0.0643207, 0, 0
1, 1920.00000, 0.145734, 0.0620822, 0.147135, 0.0626794, 0.150988, 0.0643207, 0, 0
1, 1980.00000, 0.145734, 0.0620822, 0.147135, 0.0626794, 0.150988, 0.0643207, 0, 0
1, 2040.00000, 0.145734, 0.0620822, 0.147135, 0.0626794, 0.150988, 0.0643207, 0, 0
1, 2100.00000, 0.145734, 0.0620822, 0.147135, 0.0626794, 0.150988, 0.0643207, 0, 0
1, 2160.00000, 0.145734, 0.0620822, 0.147135, 0.0626794, 0.150988, 0.0643207, 0, 0
1, 2220.00000, 0.145734, 0.0620822, 0.147135, 0.0626794, 0.150988, 0.0643207, 0, 0
1, 2280.00000, 0.145734, 0.0620822, 0.147135, 0.0626794, 0.150988, 0.0643207, 0, 0
1, 2340.00000, 0.145734, 0.0620822, 0.147135, 0.0626794, 0.150988, 0.0643207, 0, 0
1, 2400.00000, 0.145734, 0.0620822, 0.147135, 0.0626794, 0.150988, 0.0643207, 0, 0
1, 2460.00000, 0.145734, 0.0620822, 0.147135, 0.0626794, 0.150988, 0.0643207, 0, 0
1, 2520.00000, 0.145734, 0.0620822, 0.147135, 0.0626794, 0.150988, 0.0643207, 0, 0
1, 2580.00000, 0.145734, 0.0620822, 0.147135, 0.0626794, 0.150988, 0.0643207, 0, 0
1, 2640.00000, 0.145734, 0.0620822, 0.147135, 0.0626794, 0.150988, 0.0643207, 0, 0
1, 2700.00000, 0.145734, 0.0620822, 0.147135, 0.0626794, 0.150988, 0.0643207, 0, 0
1, 2760.00000, 0.145734, 0.0620822, 0.147135, 0.0626794, 0.150988, 0.0643207, 0, 0
1, 2820.00000, 0.145734, 0.0620822, 0.147135, 0.0626794, 0.150988, 0.0643207, 0, 0
1, 2880.00000, 0.145734, 0.0620822, 0.147135, 0.0626794, 0.150988, 0.0643207, 0, 0
1, 2940.00000, 0.145734, 0.0620822, 0.147135, 0.0626794, 0.150988, 0.0643207, 0, 0
1, 3000.00000, 0.145734, 0.0620822, 0.147135, 0.0626794, 0.150988, 0.0643207, 0, 0
1, 3060.00000, 0.145734, 0.0620822, 0.147135, 0.0626794, 0.150988, 0.0643207, 0, 0
1, 3120.00000, 0.145734, 0.0620822, 0.147135, 0.0626794, 0.150988, 0.0643207, 0, 0
1, 3180.00000, 0.145734, 0.0620822, 0.147135, 0.0626794, 0.150988, 0.0643207, 0, 0
1, 3240.00000, 0.145734, 0.0620822, 0.147135, 0.0626794, 0.150988, 0.0643207, 0, 0
1, 3300.00000, 0.145734, 0.0620822, 0.147135, 0.0626794, 0.150988, 0.0643207, 0, 0
1, 3360.00000, 0.145734, 0.0620822, 0.147135, 0.0626794, 0.150988, 0.0643207, 0, 0
1, 3420.00000, 0.145734, 0.0620822, 0.147135, 0.0626794, 0.150988, 0.0643207, 0, 0
1, 3480.00000, 0.145734, 0.0620822, 0.147135, 0.0626794, 0.150988, 0.0643207, 0, 0
1, 3540.00000, 0.145734, 0.0620822, 0.147135, 0.0626794, 0.150988, 0.0643207, 0, 0
2, 0.00000, 0.145734, 0.0620822, 0.147135, 0.0626794, 0.150988, 0.0643207, 0, 0
2, 60.00000, 0.145734, 0.0620822, 0.147135, 0.0626794, 0.150988, 0.0643207, 0, 0
2, 120.00000, 0.145734, 0.0620822, 0.147135, 0.0626794, 0.150988, 0.0643207, 0, 0
2, 180.00000, 0.145734, 0.0620822, 0.147135, 0.0626794, 0.150988, 0.0643207, 0, 0
2, 240.00000, 0.145734, 0.0620822, 0.147135, 0.0626794, 0.150988, 0.0643207, 0, 0
2, 300.00000, 0.145734, 0.0620822, 0.147135, 0.0626794, 0.150988, 0.0643207, 0, 0
2, 360.00000, 0.145734, 0.0620822, 0.147135, 0.0626794, 0.150988, 0.0643207, 0, 0
2, 420.00000, 0.145734, 0.0620822, 0.147135, 0.0626794, 0.150988, 0.0643207, 0, 0
2, 480.00000, 0.145734, 0.0620822, 0.147135, 0.0626794, 0.150988, 0.0643207, 0, 0
2, 540.00000, 0.145734, 0.0620822, 0.147135, 0.0626794, 0.150988, 0.0643207, 0, 0
2, 600.00000, 0.145734, 0.0620822, 0.147135, 0.0626794, 0.150988, 0.0643207, 0, 0
2, 660.00000, 0.145734, 0.0620822, 0.147135, 0.0626794, 0.150988, 0.0643207, 0, 0
2, 720.00000, 0.145734, 0.0620822, 0.147135, 0.0626794, 0.150988, 0.0643207, 0, 0
2, 780.00000, 0.145734, 0.0620822, 0.147135, 0.0626794, 0.150988, 0.0643207, 0, 0
2, 840.00000, 0.145734, 0.0620822, 0.147135, 0.0626794, 0.150988, 0.0643207, 0, 0
2, 900.00000, 0.145734, 0.0620822, 0.147135, 0.0626794, 0.150988, 0.0643207, 0, 0
2, 960.00000, 0.145734, 0.0620822, 0.147135, 0.0626794, 0.150988, 0.0643207, 0, 0
2, 1020.00000, 0.145734, 0.0620822, 0.147135, 0.0626794, 0.150988, 0.0643207, 0, 0
2, 1080.00000, 0.145734, 0.0620822, 0.147135, 0.0626794, 0.150988, 0.0643207, 0, 0
2, 1140.00000, 0.145734, 0.0620822, 0.147135, 0.0626794, 0.150988, 0.0643207, 0, 0
2, 1200.00000, 0.145734, 0.0620822, 0.147135, 0.0626794, 0.150988, 0.0643207, 0, 0
2, 1260.00000, 0.145734, 0.0620822, 0.147135, 0.0626794, 0.150988, 0.0643207, 0, 0
2, 1320.00000, 0.145734, 0.0620822, 0.147135, 0.0626794, 0.150988, 0.0643207, 0, 0
2, 1380.00000, 0.145734, 0.0620822, 0.147135, 0.0626794, 0.150988, 0.0643207, 0, 0
2, 1440.00000, 0.145734, 0.0620822, 0.147135, 0.0626794, 0.150988, 0.0643207, 0, 0
2, 1500.00000, 0.145734, 0.0620822, 0.147135, 0.0626794, 0.150988, 0.0643207, 0, 0
2, 1560.00000, 0.145734, 0.0620822, 0.147135, 0.0626794, 0.150988, 0.0643207, 0, 0
2, 1620.00000, 0.145734, 0.0620822, 0.147135, 0.0626794, 0.150988, 0.0643207, 0, 0
2, 1680.00000, 0.145734, 0.0620822, 0.147135, 0.0626794, 0.150988, 0.0643207, 0, 0
2, 1740.00000, 0.145734, 0.0620822, 0.147135, 0.0626794, 0.150988, 0.0643207, 0, 0
2, 1800.00000, 0.145734, 0.0620822, 0.147135, 0.0626794, 0.150988, 0.0643207, 0, 0
2, 1860.00000, 0.145734, 0.0620822, 0.147135, 0.0626794, 0.150988, 0.0643207, 0, 0
2, 1920.00000, 0.145734, 0.0620822, 0.147135, 0.0626794, 0.150988, 0.0643207, 0, 0
2, 1980.00000, 0.145734, 0.0620822, 0.147135, 0.0626794, 0.150988, 0.0643207, 0, 0
2, 2040.00000, 0.145734, 0.0620822, 0.147135, 0.0626794, 0.150988, 0.0643207, 0, 0
2, 2100.00000, 0.145734, 0.0620822, 0.147135, 0.0626794, 0.150988, 0.0643207, 0, 0
2, 2160.00000, 0.145734, 0.0620822, 0.147135, 0.0626794, 0.150988, 0.0643207, 0, 0
2, 2220.00000, 0.145734, 0.0620822, 0.147135, 0.0626794, 0.150988, 0.0643207, 0, 0
2, 2280.00000, 0.145734, 0.0620822, 0.147135, 0.0626794, 0.150988, 0.0643207, 0, 0
2, 2340.00000, 0.145734, 0.0620822, 0.147135, 0.0626794, 0.150988, 0.0643207, 0, 0
2, 2400.00000, 0.146868, 0.0625675, 0.147127, 0.0626757, 0.151577, 0.0645723, 0, 0
2, 2460.00000, 0.146872, 0.0625671, 0.147126, 0.0626756, 0.151581, 0.0645735, 0, 0
2, 2520.00000, 0.146872, 0.0625671, 0.147126, 0.0626756, 0.151582, 0.0645735, 0, 0
2, 2580.00000, 0.146872, 0.0625671, 0.147126, 0.0626756, 0.151582, 0.0645735, 0, 0
2, 2640.00000, 0.146872, 0.0625671, 0.147126, 0.0626756, 0.151582, 0.0645735, 0, 0
2, 2700.00000, 0.145107, 0.0618138, 0.147156, 0.0626884, 0.150265, 0.0640123, 0, 0
2, 2760.00000, 0.145105, 0.0618144, 0.147156, 0.0626883, 0.150262, 0.0640114, 0, 0
2, 2820.00000, 0.145105, 0.0618144, 0.147156, 0.0626883, 0.150262, 0.0640114, 0, 0
2, 2880.00000, 0.145105, 0.0618144, 0.147156, 0.0626883, 0.150262, 0.0640114, 0, 0
2, 2940.00000, 0.145105, 0.0618144, 0.147156, 0.0626883, 0.150262, 0.0640114, 0, 0
2, 3000.00000, 0.145105, 0.0618144, 0.147156, 0.0626883, 0.150262, 0.0640114, 0, 0
2, 3060.00000, 0.145726, 0.0620786, 0.148339, 0.0631937, 0.150193, 0.063982, 0, 0
2, 3120.00000, 0.145727, 0.0620793, 0.148343, 0.0631939, 0.150191, 0.0639812, 0, 0
2, 3180.00000, 0.145727, 0.0620793, 0.148343, 0.0631939, 0.150191, 0.0639812, 0, 0
2, 3240.00000, 0.145727, 0.0620793, 0.148343, 0.0631939, 0.150191, 0.0639812, 0, 0
2, 3300.00000, 0.145727, 0.0620793, 0.148343, 0.0631939, 0.150191, 0.0639812, 0, 0
2, 3360.00000, 0.145727, 0.0620793, 0.148343, 0.0631939, 0.150191, 0.0639812, 0, 0
2, 3420.00000, 0.145727, 0.0620793, 0.148343, 0.0631939, 0.150191, 0.0639812, 0, 0
2, 3480.00000, 0.145727, 0.0620793, 0.148343, 0.0631939, 0.150191, 0.0639812, 0, 0
2, 3540.00000, 0.145727, 0.0620793, 0.148343, 0.0631939, 0.150191, 0.0639812, 0, 0
3, 0.00000, 0.145727, 0.0620793, 0.148343, 0.0631939, 0.150191, 0.0639812, 0, 0
3, 60.00000, 0.145727, 0.0620793, 0.148343, 0.0631939, 0.150191, 0.0639812, 0, 0
3, 120.00000, 0.145727, 0.0620793, 0.148343, 0.0631939, 0.150191, 0.0639812, 0, 0
3, 180.00000, 0.145727, 0.0620793, 0.148343, 0.0631939, 0.150191, 0.0639812, 0, 0
3, 240.00000, 0.145727, 0.0620793, 0.148343, 0.0631939, 0.150191, 0.0639812, 0, 0
3, 300.00000, 0.145727, 0.0620793, 0.148343, 0.0631939, 0.150191, 0.0639812, 0, 0
3, 360.00000, 0.145727, 0.0620793, 0.148343, 0.0631939, 0.150191, 0.0639812, 0, 0
3, 420.00000, 0.145727, 0.0620793, 0.148343, 0.0631939, 0.150191, 0.0639812, 0, 0
3, 480.00000, 0.145727, 0.0620793, 0.148343, 0.0631939, 0.150191, 0.0639812, 0, 0
3, 540.00000, 0.145727, 0.0620793, 0.148343, 0.0631939, 0.150191, 0.0639812, 0, 0
3, 600.00000, 0.145727, 0.0620793, 0.148343, 0.0631939, 0.150191, 0.0639812, 0, 0
3, 660.00000, 0.145727, 0.0620793, 0.148343, 0.0631939, 0.150191, 0.0639812, 0, 0
3, 720.00000, 0.145727, 0.0620793, 0.148343, 0.0631939, 0.150191, 0.0639812, 0, 0
3, 780.00000, 0.145727, 0.0620793, 0.148343, 0.0631939, 0.150191, 0.0639812, 0, 0
3, 840.00000, 0.145727, 0.0620793, 0.148343, 0.0631939, 0.150191, 0.0639812, 0, 0
3, 900.00000, 0.145727, 0.0620793, 0.148343, 0.0631939, 0.150191, 0.0639812, 0, 0
3, 960.00000, 0.145727, 0.0620793, 0.148343, 0.0631939, 0.150191, 0.0639812, 0, 0
3, 1020.00000, 0.145727, 0.0620793, 0.148343, 0.0631939, 0.150191, 0.0639812, 0, 0
3, 1080.00000, 0.145727, 0.0620793, 0.148343, 0.0631939, 0.150191, 0.0639812, 0, 0
3, 1140.00000, 0.145727, 0.0620793, 0.148343, 0.0631939, 0.150191, 0.0639812, 0, 0
3, 1200.00000, 0.145727, 0.0620793, 0.148343, 0.0631939, 0.150191, 0.0639812, 0, 0
3, 1260.00000, 0.145727, 0.0620793, 0.148343, 0.0631939, 0.150191, 0.0639812, 0, 0
3, 1320.00000, 0.145727, 0.0620793, 0.148343, 0.0631939, 0.150191, 0.0639812, 0, 0
3, 1380.00000, 0.145727, 0.0620793, 0.148343, 0.0631939, 0.150191, 0.0639812, 0, 0
3, 1440.00000, 0.145727, 0.0620793, 0.148343, 0.0631939, 0.150191, 0.0639812, 0, 0
3, 1500.00000, 0.145727, 0.0620793, 0.148343, 0.0631939, 0.150191, 0.0639812, 0, 0
3, 1560.00000, 0.145727, 0.0620793, 0.148343, 0.0631939, 0.150191, 0.0639812, 0, 0
3, 1620.00000, 0.145727, 0.0620793, 0.148343, 0.0631939, 0.150191, 0.0639812, 0, 0
3, 1680.00000, 0.145727, 0.0620793, 0.148343, 0.0631939, 0.150191, 0.0639812, 0, 0
3, 1740.00000, 0.145727, 0.0620793, 0.148343, 0.0631939, 0.150191, 0.0639812, 0, 0
3, 1800.00000, 0.145727, 0.0620793, 0.148343, 0.0631939, 0.150191, 0.0639812, 0, 0
3, 1860.00000, 0.145727, 0.0620793, 0.148343, 0.0631939, 0.150191, 0.0639812, 0, 0
3, 1920.00000, 0.145727, 0.0620793, 0.148343, 0.0631939, 0.150191, 0.0639812, 0, 0
3, 1980.00000, 0.145727, 0.0620793, 0.148343, 0.0631939, 0.150191, 0.0639812, 0, 0
3, 2040.00000, 0.145727, 0.0620793, 0.148343, 0.0631939, 0.150191, 0.0639812, 0, 0
3, 2100.00000, 0.145727, 0.0620793, 0.148343, 0.0631939, 0.150191, 0.0639812, 0, 0
3, 2160.00000, 0.145727, 0.0620793, 0.148343, 0.0631939, 0.150191, 0.0639812, 0, 0
3, 2220.00000, 0.145727, 0.0620793, 0.148343, 0.0631939, 0.150191, 0.0639812, 0, 0
3, 2280.00000, 0.145727, 0.0620793, 0.148343, 0.0631939, 0.150191, 0.0639812, 0, 0
3, 2340.00000, 0.145727, 0.0620793, 0.148343, 0.0631939, 0.150191, 0.0639812, 0, 0
3, 2400.00000, 0.145727, 0.0620793, 0.148343, 0.0631939, 0.150191, 0.0639812, 0, 0
3, 2460.00000, 0.145727, 0.0620793, 0.148343, 0.0631939, 0.150191, 0.0639812, 0, 0
3, 2520.00000, 0.145727, 0.0620793, 0.148343, 0.0631939, 0.150191, 0.0639812, 0, 0
3, 2580.00000, 0.145727, 0.0620793, 0.148343, 0.0631939, 0.150191, 0.0639812, 0, 0
3, 2640.00000, 0.145727, 0.0620793, 0.148343, 0.0631939, 0.150191, 0.0639812, 0, 0
3, 2700.00000, 0.145727, 0.0620793, 0.148343, 0.0631939, 0.150191, 0.0639812, 0, 0
3, 2760.00000, 0.145727, 0.0620793, 0.148343, 0.0631939, 0.150191, 0.0639812, 0, 0
3, 2820.00000, 0.145727, 0.0620793, 0.148343, 0.0631939, 0.150191, 0.0639812, 0, 0
3, 2880.00000, 0.145727, 0.0620793, 0.148343, 0.0631939, 0.150191, 0.0639812, 0, 0
3, 2940.00000, 0.145727, 0.0620793, 0.148343, 0.0631939, 0.150191, 0.0639812, 0, 0
3, 3000.00000, 0.145727, 0.0620793, 0.148343, 0.0631939, 0.150191, 0.0639812, 0, 0
3, 3060.00000, 0.145727, 0.0620793, 0.148343, 0.0631939, 0.150191, 0.0639812, 0, 0
3, 3120.00000, 0.145727, 0.0620793, 0.148343, 0.0631939, 0.150191, 0.0639812, 0, 0
3, 3180.00000, 0.153104, 0.0652217, 0.155867, 0.066399, 0.157822, 0.0672316, 0, 0
3, 3240.00000, 0.153103, 0.0652217, 0.155866, 0.0663988, 0.157821, 0.0672314, 0, 0
3, 3300.00000, 0.153103, 0.0652217, 0.155866, 0.0663988, 0.157821, 0.0672314, 0, 0
3, 3360.00000, 0.153103, 0.0652217, 0.155866, 0.0663988, 0.157821, 0.0672314, 0, 0
3, 3420.00000, 0.153103, 0.0652217, 0.155866, 0.0663988, 0.157821, 0.0672314, 0, 0
3, 3480.00000, 0.153103, 0.0652217, 0.155866, 0.0663988, 0.157821, 0.0672314, 0, 0
3, 3540.00000, 0.153103, 0.0652217, 0.155866, 0.0663988, 0.157821, 0.0672314, 0, 0
4, 0.00000, 0.153103, 0.0652217, 0.155866, 0.0663988, 0.157821, 0.0672314, 0, 0
