hour,t(sec),V1,VAngle1,V2,VAngle2,V3,VAngle3,V4,VAngle4,I1,IAngle1,I2,IAngle2,I3,IAngle3,I4,IAngle4
0, 60.00000, 115.816, -33.7967, 116.948, -150.292, 124.076, 87.5969, 0, 0, 1.31353, -56.8708, 1.32775, -173.365, 1.33699, 64.5246, 0.053161, 60.8368
0, 120.00000, 115.807, -33.8219, 116.948, -150.293, 124.125, 87.5813, 0, 0, 1.31341, -56.8959, 1.32776, -173.366, 1.33646, 64.5088, 0.0541095, 60.843
0, 180.00000, 115.799, -33.8445, 116.949, -150.293, 124.169, 87.5672, 0, 0, 1.3133, -56.9185, 1.32777, -173.367, 1.33598, 64.4946, 0.0549617, 60.8483
0, 240.00000, 115.791, -33.8649, 116.95, -150.294, 124.208, 87.5545, 0, 0, 1.3132, -56.9389, 1.32777, -173.367, 1.33555, 64.4818, 0.0557278, 60.8524
0, 300.00000, 115.784, -33.8833, 116.95, -150.295, 124.244, 87.543, 0, 0, 1.3131, -56.9572, 1.32778, -173.368, 1.33517, 64.4702, 0.0564166, 60.8555
0, 360.00000, 115.778, -33.8998, 116.95, -150.295, 124.276, 87.5327, 0, 0, 1.31302, -56.9738, 1.32778, -173.369, 1.33482, 64.4598, 0.0570359, 60.858
0, 420.00000, 115.772, -33.9147, 116.951, -150.296, 124.304, 87.5234, 0, 0, 1.31295, -56.9886, 1.32779, -173.369, 1.33451, 64.4504, 0.0575928, 60.8599
0, 480.00000, 115.767, -33.9281, 116.951, -150.296, 124.33, 87.515, 0, 0, 1.31288, -57.002, 1.32779, -173.37, 1.33423, 64.4419, 0.0580936, 60.8614
0, 540.00000, 115.763, -33.9401, 116.951, -150.296, 124.353, 87.5074, 0, 0, 1.31282, -57.0141, 1.3278, -173.37, 1.33397, 64.4343, 0.058544, 60.8625
0, 600.00000, 115.759, -33.951, 116.952, -150.297, 124.374, 87.5006, 0, 0, 1.31276, -57.0249, 1.3278, -173.37, 1.33375, 64.4274, 0.0589491, 60.8633
0, 660.00000, 115.755, -33.9608, 116.952, -150.297, 124.393, 87.4945, 0, 0, 1.31271, -57.0347, 1.3278, -173.371, 1.33354, 64.4212, 0.0593135, 60.864
0, 720.00000, 115.751, -33.9696, 116.952, -150.297, 124.41, 87.489, 0, 0, 1.31267, -57.0435, 1.32781, -173.371, 1.33336, 64.4156, 0.0596413, 60.8645
0, 780.00000, 115.748, -33.9775, 116.952, -150.298, 124.425, 87.484, 0, 0, 1.31263, -57.0514, 1.32781, -173.371, 1.3332, 64.4106, 0.0599362, 60.8648
0, 840.00000, 115.746, -33.9846, 116.952, -150.298, 124.438, 87.4795, 0, 0, 1.31259, -57.0585, 1.32781, -173.371, 1.33305, 64.4061, 0.0602014, 60.8651
0, 900.00000, 115.743, -33.991, 116.953, -150.298, 124.451, 87.4755, 0, 0, 1.31256, -57.0649, 1.32781, -173.372, 1.33291, 64.402, 0.0604401, 60.8653
0, 960.00000, 115.456, -34.1457, 116.475, -150.351, 124.218, 87.4405, 0, 0, 1.3806, -57.2196, 1.39416, -173.425, 1.40854, 64.3669, 0.057798, 60.8391
0, 1020.00000, 115.454, -34.1509, 116.475, -150.351, 124.228, 87.4372, 0, 0, 1.38058, -57.2248, 1.39416, -173.425, 1.40843, 64.3636, 0.0580005, 60.84
0, 1080.00000, 115.452, -34.1555, 116.475, -150.351, 124.237, 87.4343, 0, 0, 1.38055, -57.2295, 1.39417, -173.425, 1.40832, 64.3607, 0.0581838, 60.8403
0, 1140.00000, 115.45, -34.1597, 116.475, -150.351, 124.245, 87.4316, 0, 0, 1.38053, -57.2337, 1.39417, -173.425, 1.40823, 64.358, 0.0583486, 60.8405
0, 1200.00000, 115.449, -34.1635, 116.475, -150.352, 124.252, 87.4292, 0, 0, 1.38051, -57.2375, 1.39417, -173.425, 1.40815, 64.3556, 0.058497, 60.8406
0, 1260.00000, 115.448, -34.1669, 116.476, -150.352, 124.258, 87.4271, 0, 0, 1.38049, -57.2409, 1.39417, -173.426, 1.40807, 64.3534, 0.0586305, 60.8407
0, 1320.00000, 115.446, -34.17, 116.476, -150.352, 124.264, 87.4251, 0, 0, 1.38047, -57.2439, 1.39417, -173.426, 1.408, 64.3514, 0.0587506, 60.8408
0, 1380.00000, 115.445, -34.1728, 116.476, -150.352, 124.27, 87.4234, 0, 0, 1.38046, -57.2467, 1.39417, -173.426, 1.40794, 64.3497, 0.0588586, 60.8409
0, 1440.00000, 115.444, -34.1753, 116.476, -150.352, 124.274, 87.4218, 0, 0, 1.38044, -57.2492, 1.39417, -173.426, 1.40789, 64.3481, 0.0589559, 60.841
0, 1500.00000, 115.443, -34.1775, 116.476, -150.352, 124.279, 87.4204, 0, 0, 1.38043, -57.2514, 1.39417, -173.426, 1.40784, 64.3466, 0.0590434, 60.841
0, 1560.00000, 115.443, -34.1795, 116.476, -150.352, 124.283, 87.4192, 0, 0, 1.38042, -57.2534, 1.39417, -173.426, 1.4078, 64.3454, 0.0591222, 60.841
0, 1620.00000, 115.442, -34.1813, 116.476, -150.352, 124.286, 87.418, 0, 0, 1.38041, -57.2552, 1.39417, -173.426, 1.40776, 64.3442, 0.0591931, 60.8411
0, 1680.00000, 115.441, -34.183, 116.476, -150.352, 124.289, 87.417, 0, 0, 1.3804, -57.2569, 1.39417, -173.426, 1.40772, 64.3432, 0.0592569, 60.8411
0, 1740.00000, 115.441, -34.1844, 116.476, -150.352, 124.292, 87.4161, 0, 0, 1.38039, -57.2583, 1.39418, -173.426, 1.40769, 64.3422, 0.0593143, 60.8411
0, 1800.00000, 115.44, -34.1857, 116.476, -150.352, 124.294, 87.4152, 0, 0, 1.38038, -57.2597, 1.39418, -173.426, 1.40766, 64.3414, 0.0593659, 60.8411
0, 1860.00000, 115.637, -34.1812, 116.669, -150.343, 124.52, 87.4268, 0, 0, 1.33427, -57.2551, 1.34753, -173.417, 1.3556, 64.3529, 0.0624792, 61.0955
0, 1920.00000, 115.637, -34.1822, 116.669, -150.343, 124.522, 87.4261, 0, 0, 1.33427, -57.2562, 1.34753, -173.417, 1.35557, 64.3522, 0.0625202, 61.0949
0, 1980.00000, 115.636, -34.1832, 116.669, -150.343, 124.524, 87.4255, 0, 0, 1.33426, -57.2571, 1.34753, -173.417, 1.35555, 64.3516, 0.0625565, 61.0947
0, 2040.00000, 115.636, -34.1841, 116.669, -150.343, 124.526, 87.4249, 0, 0, 1.33426, -57.258, 1.34753, -173.417, 1.35553, 64.3511, 0.0625892, 61.0946
0, 2100.00000, 115.636, -34.1849, 116.669, -150.343, 124.527, 87.4244, 0, 0, 1.33425, -57.2588, 1.34753, -173.417, 1.35552, 64.3506, 0.0626186, 61.0945
0, 2160.00000, 115.635, -34.1856, 116.669, -150.343, 124.529, 87.424, 0, 0, 1.33425, -57.2595, 1.34753, -173.417, 1.3555, 64.3501, 0.0626451, 61.0943
0, 2220.00000, 115.635, -34.1862, 116.669, -150.343, 124.53, 87.4236, 0, 0, 1.33425, -57.2601, 1.34753, -173.417, 1.35549, 64.3497, 0.0626689, 61.0942
0, 2280.00000, 115.635, -34.1868, 116.669, -150.343, 124.531, 87.4232, 0, 0, 1.33424, -57.2607, 1.34753, -173.417, 1.35548, 64.3493, 0.0626904, 61.0941
0, 2340.00000, 115.635, -34.1873, 116.669, -150.343, 124.532, 87.4229, 0, 0, 1.33424, -57.2612, 1.34753, -173.417, 1.35547, 64.349, 0.0627097, 61.094
0, 2400.00000, 115.634, -34.1877, 116.669, -150.343, 124.533, 87.4226, 0, 0, 1.33424, -57.2617, 1.34753, -173.417, 1.35546, 64.3487, 0.0627271, 61.094
0, 2460.00000, 115.634, -34.1882, 116.669, -150.343, 124.534, 87.4223, 0, 0, 1.33424, -57.2621, 1.34753, -173.417, 1.35545, 64.3484, 0.0627427, 61.0939
0, 2520.00000, 115.634, -34.1885, 116.669, -150.343, 124.534, 87.4221, 0, 0, 1.33423, -57.2624, 1.34753, -173.417, 1.35544, 64.3482, 0.0627568, 61.0938
0, 2580.00000, 115.634, -34.1889, 116.669, -150.343, 124.535, 87.4219, 0, 0, 1.33423, -57.2628, 1.34753, -173.417, 1.35543, 64.348, 0.0627694, 61.0938
0, 2640.00000, 115.634, -34.1892, 116.669, -150.343, 124.536, 87.4217, 0, 0, 1.33423, -57.2631, 1.34753, -173.417, 1.35543, 64.3478, 0.0627808, 61.0937
0, 2700.00000, 115.634, -34.1894, 116.669, -150.343, 124.536, 87.4215, 0, 0, 1.33423, -57.2634, 1.34753, -173.417, 1.35542, 64.3476, 0.0627911, 61.0937
0, 2760.00000, 115.957, -34.1652, 116.982, -150.315, 124.896, 87.4559, 0, 0, 1.26519, -57.2391, 1.27765, -173.389, 1.27761, 64.382, 0.0671994, 61.4501
0, 2820.00000, 115.956, -34.1654, 116.982, -150.315, 124.897, 87.4558, 0, 0, 1.26519, -57.2393, 1.27765, -173.389, 1.2776, 64.3819, 0.0672083, 61.4494
0, 2880.00000, 115.956, -34.1656, 116.982, -150.315, 124.897, 87.4557, 0, 0, 1.26519, -57.2395, 1.27765, -173.389, 1.2776, 64.3818, 0.0672154, 61.4493
0, 2940.00000, 115.956, -34.1658, 116.982, -150.315, 124.898, 87.4556, 0, 0, 1.26519, -57.2397, 1.27765, -173.389, 1.2776, 64.3817, 0.0672217, 61.4492
0, 3000.00000, 115.956, -34.1659, 116.982, -150.315, 124.898, 87.4555, 0, 0, 1.26519, -57.2398, 1.27765, -173.389, 1.27759, 64.3816, 0.0672274, 61.4492
0, 3060.00000, 115.956, -34.1661, 116.982, -150.315, 124.898, 87.4554, 0, 0, 1.26519, -57.24, 1.27765, -173.389, 1.27759, 64.3815, 0.0672326, 61.4491
0, 3120.00000, 115.956, -34.1662, 116.982, -150.315, 124.898, 87.4553, 0, 0, 1.26519, -57.2401, 1.27765, -173.389, 1.27759, 64.3814, 0.0672372, 61.4491
0, 3180.00000, 115.956, -34.1663, 116.982, -150.315, 124.899, 87.4552, 0, 0, 1.26519, -57.2402, 1.27765, -173.389, 1.27759, 64.3813, 0.0672414, 61.449
0, 3240.00000, 115.956, -34.1664, 116.982, -150.315, 124.899, 87.4552, 0, 0, 1.26519, -57.2403, 1.27765, -173.389, 1.27758, 64.3812, 0.0672452, 61.449
0, 3300.00000, 115.956, -34.1665, 116.982, -150.315, 124.899, 87.4551, 0, 0, 1.26519, -57.2404, 1.27765, -173.389, 1.27758, 64.3812, 0.0672485, 61.449
0, 3360.00000, 115.956, -34.1666, 116.982, -150.315, 124.899, 87.455, 0, 0, 1.26519, -57.2405, 1.27765, -173.389, 1.27758, 64.3811, 0.0672516, 61.4489
0, 3420.00000, 115.956, -34.1667, 116.982, -150.315, 124.899, 87.455, 0, 0, 1.26519, -57.2406, 1.27765, -173.389, 1.27758, 64.3811, 0.0672543, 61.4489
0, 3480.00000, 116.416, -34.1598, 116.975, -150.314, 125.175, 87.6317, 0, 0, 1.27077, -57.2338, 1.27756, -173.388, 1.27477, 64.5578, 0.0727816, 62.448
0, 3540.00000, 116.487, -34.0328, 117.245, -150.283, 125.177, 87.6355, 0, 0, 1.27163, -57.1068, 1.28085, -173.357, 1.27474, 64.5616, 0.073216, 62.2402
1, 0.00000, 116.487, -34.0329, 117.245, -150.283, 125.177, 87.6355, 0, 0, 1.27163, -57.1068, 1.28085, -173.357, 1.27474, 64.5616, 0.0732181, 62.2401
1, 60.00000, 116.722, -34.0174, 117.474, -150.264, 125.438, 87.6584, 0, 0, 1.29309, -57.0913, 1.30236, -173.337, 1.29067, 64.5845, 0.0800632, 62.3924
1, 120.00000, 116.722, -34.0174, 117.474, -150.264, 125.438, 87.6584, 0, 0, 1.29309, -57.0914, 1.30236, -173.337, 1.29066, 64.5845, 0.0800655, 62.392
1, 180.00000, 116.722, -34.0175, 117.474, -150.264, 125.438, 87.6584, 0, 0, 1.29309, -57.0914, 1.30236, -173.337, 1.29066, 64.5844, 0.0800669, 62.392
1, 240.00000, 116.722, -34.0175, 117.474, -150.264, 125.438, 87.6583, 0, 0, 1.29309, -57.0914, 1.30236, -173.337, 1.29066, 64.5844, 0.0800683, 62.3919
1, 300.00000, 116.722, -34.0175, 117.474, -150.264, 125.438, 87.6583, 0, 0, 1.29309, -57.0915, 1.30236, -173.337, 1.29066, 64.5844, 0.0800695, 62.3919
1, 360.00000, 116.722, -34.0176, 117.474, -150.264, 125.438, 87.6583, 0, 0, 1.29309, -57.0915, 1.30236, -173.337, 1.29066, 64.5844, 0.0800705, 62.3919
1, 420.00000, 116.722, -34.0176, 117.474, -150.264, 125.438, 87.6583, 0, 0, 1.29309, -57.0915, 1.30236, -173.337, 1.29066, 64.5844, 0.0800715, 62.3919
1, 480.00000, 116.722, -34.0176, 117.474, -150.264, 125.438, 87.6583, 0, 0, 1.29309, -57.0915, 1.30236, -173.337, 1.29066, 64.5844, 0.0800724, 62.3918
1, 540.00000, 116.722, -34.0176, 117.474, -150.264, 125.438, 87.6583, 0, 0, 1.29309, -57.0916, 1.30236, -173.337, 1.29066, 64.5843, 0.0800732, 62.3918
1, 600.00000, 118.648, -33.4687, 119.372, -150.802, 125.354, 87.6749, 0, 0, 1.31683, -56.5426, 1.32576, -173.875, 1.29152, 64.601, 0.082747, 62.4728
1, 660.00000, 118.648, -33.4687, 119.372, -150.802, 125.354, 87.6749, 0, 0, 1.31683, -56.5426, 1.32576, -173.875, 1.29152, 64.601, 0.0827482, 62.4728
1, 720.00000, 118.648, -33.4687, 119.372, -150.802, 125.354, 87.6749, 0, 0, 1.31683, -56.5427, 1.32576, -173.875, 1.29152, 64.601, 0.0827488, 62.4728
1, 780.00000, 118.648, -33.4688, 119.372, -150.802, 125.354, 87.6749, 0, 0, 1.31683, -56.5427, 1.32576, -173.875, 1.29152, 64.601, 0.0827493, 62.4728
1, 840.00000, 118.648, -33.4688, 119.372, -150.802, 125.354, 87.6749, 0, 0, 1.31683, -56.5427, 1.32576, -173.875, 1.29152, 64.601, 0.0827498, 62.4728
1, 900.00000, 118.648, -33.4688, 119.372, -150.802, 125.354, 87.6749, 0, 0, 1.31683, -56.5427, 1.32576, -173.875, 1.29152, 64.601, 0.0827502, 62.4727
1, 960.00000, 118.689, -33.4669, 119.412, -150.798, 125.396, 87.6779, 0, 0, 1.30393, -56.5408, 1.31275, -173.872, 1.27797, 64.604, 0.0828609, 62.5047
1, 1020.00000, 118.689, -33.4669, 119.412, -150.799, 125.396, 87.6779, 0, 0, 1.30393, -56.5408, 1.31275, -173.872, 1.27796, 64.604, 0.0828621, 62.5044
1, 1080.00000, 118.689, -33.4669, 119.412, -150.799, 125.396, 87.6779, 0, 0, 1.30393, -56.5408, 1.31275, -173.872, 1.27796, 64.604, 0.0828624, 62.5044
1, 1140.00000, 118.689, -33.4669, 119.412, -150.799, 125.396, 87.6779, 0, 0, 1.30393, -56.5408, 1.31275, -173.872, 1.27796, 64.604, 0.0828627, 62.5043
1, 1200.00000, 118.689, -33.4669, 119.412, -150.799, 125.396, 87.6779, 0, 0, 1.30393, -56.5408, 1.31275, -173.872, 1.27796, 64.6039, 0.0828629, 62.5043
1, 1260.00000, 118.689, -33.4669, 119.412, -150.799, 125.396, 87.6779, 0, 0, 1.30393, -56.5408, 1.31275, -173.872, 1.27796, 64.6039, 0.0828632, 62.5043
1, 1320.00000, 118.689, -33.4669, 119.412, -150.799, 125.396, 87.6779, 0, 0, 1.30393, -56.5408, 1.31275, -173.872, 1.27796, 64.6039, 0.0828633, 62.5043
1, 1380.00000, 118.689, -33.4669, 119.412, -150.799, 125.396, 87.6779, 0, 0, 1.30393, -56.5409, 1.31275, -173.872, 1.27796, 64.6039, 0.0828635, 62.5043
1, 1440.00000, 118.689, -33.4669, 119.412, -150.799, 125.396, 87.6778, 0, 0, 1.30393, -56.5409, 1.31275, -173.872, 1.27796, 64.6039, 0.0828637, 62.5043
1, 1500.00000, 118.689, -33.4669, 119.412, -150.799, 125.396, 87.6778, 0, 0, 1.30393, -56.5409, 1.31275, -173.872, 1.27796, 64.6039, 0.0828638, 62.5043
1, 1560.00000, 118.689, -33.4669, 119.412, -150.799, 125.396, 87.6778, 0, 0, 1.30393, -56.5409, 1.31275, -173.872, 1.27796, 64.6039, 0.082864, 62.5043
1, 1620.00000, 118.689, -33.4669, 119.412, -150.799, 125.396, 87.6778, 0, 0, 1.30393, -56.5409, 1.31275, -173.872, 1.27796, 64.6039, 0.0828641, 62.5043
1, 1680.00000, 118.689, -33.467, 119.412, -150.799, 125.396, 87.6778, 0, 0, 1.30393, -56.5409, 1.31275, -173.872, 1.27796, 64.6039, 0.0828642, 62.5043
1, 1740.00000, 118.689, -33.467, 119.412, -150.799, 125.396, 87.6778, 0, 0, 1.30393, -56.5409, 1.31275, -173.872, 1.27796, 64.6039, 0.0828643, 62.5043
1, 1800.00000, 118.689, -33.467, 119.412, -150.799, 125.396, 87.6778, 0, 0, 1.30393, -56.5409, 1.31275, -173.872, 1.27796, 64.6039, 0.0828644, 62.5043
1, 1860.00000, 118.484, -33.4904, 119.445, -150.66, 125.724, 87.6617, 0, 0, 1.30487, -56.5644, 1.31663, -173.734, 1.27799, 64.5878, 0.0885436, 62.1544
1, 1920.00000, 118.484, -33.4904, 119.445, -150.66, 125.724, 87.6617, 0, 0, 1.30487, -56.5644, 1.31663, -173.734, 1.27799, 64.5878, 0.088544, 62.1542
1, 1980.00000, 118.484, -33.4905, 119.445, -150.66, 125.724, 87.6617, 0, 0, 1.30487, -56.5644, 1.31663, -173.734, 1.27799, 64.5878, 0.088544, 62.1542
1, 2040.00000, 118.484, -33.4905, 119.445, -150.66, 125.724, 87.6617, 0, 0, 1.30487, -56.5644, 1.31663, -173.734, 1.27799, 64.5878, 0.0885441, 62.1542
1, 2100.00000, 118.484, -33.4905, 119.445, -150.66, 125.724, 87.6617, 0, 0, 1.30487, -56.5644, 1.31663, -173.734, 1.27799, 64.5878, 0.0885441, 62.1542
1, 2160.00000, 118.484, -33.4905, 119.445, -150.66, 125.724, 87.6617, 0, 0, 1.30487, -56.5644, 1.31663, -173.734, 1.27799, 64.5878, 0.0885442, 62.1542
1, 2220.00000, 118.484, -33.4905, 119.445, -150.66, 125.724, 87.6617, 0, 0, 1.30487, -56.5644, 1.31663, -173.734, 1.27799, 64.5878, 0.0885442, 62.1542
1, 2280.00000, 118.484, -33.4905, 119.445, -150.66, 125.724, 87.6617, 0, 0, 1.30487, -56.5644, 1.31663, -173.734, 1.27799, 64.5878, 0.0885443, 62.1542
1, 2340.00000, 118.484, -33.4905, 119.445, -150.66, 125.724, 87.6617, 0, 0, 1.30487, -56.5644, 1.31663, -173.734, 1.27799, 64.5878, 0.0885443, 62.1542
1, 2400.00000, 118.484, -33.4905, 119.445, -150.66, 125.724, 87.6617, 0, 0, 1.30487, -56.5644, 1.31663, -173.734, 1.27799, 64.5878, 0.0885443, 62.1542
1, 2460.00000, 118.484, -33.4905, 119.445, -150.66, 125.724, 87.6617, 0, 0, 1.30487, -56.5644, 1.31663, -173.734, 1.27799, 64.5878, 0.0885444, 62.1542
1, 2520.00000, 118.484, -33.4905, 119.445, -150.66, 125.724, 87.6617, 0, 0, 1.30487, -56.5644, 1.31663, -173.734, 1.27799, 64.5878, 0.0885444, 62.1542
1, 2580.00000, 118.484, -33.4905, 119.445, -150.66, 125.724, 87.6617, 0, 0, 1.30487, -56.5644, 1.31663, -173.734, 1.27799, 64.5878, 0.0885444, 62.1542
1, 2640.00000, 118.484, -33.4905, 119.445, -150.66, 125.724, 87.6617, 0, 0, 1.30487, -56.5644, 1.31663, -173.734, 1.27799, 64.5878, 0.0885444, 62.1542
1, 2700.00000, 118.484, -33.4905, 119.445, -150.66, 125.724, 87.6617, 0, 0, 1.30487, -56.5644, 1.31663, -173.734, 1.27799, 64.5878, 0.0885444, 62.1542
1, 2760.00000, 118.934, -33.4576, 119.884, -150.616, 126.176, 87.7065, 0, 0, 1.25187, -56.5315, 1.26297, -173.69, 1.21655, 64.6326, 0.0945685, 62.4492
1, 2820.00000, 118.934, -33.4576, 119.884, -150.616, 126.176, 87.7065, 0, 0, 1.25187, -56.5315, 1.26297, -173.69, 1.21655, 64.6326, 0.0945697, 62.4486
1, 2880.00000, 118.934, -33.4576, 119.884, -150.616, 126.176, 87.7065, 0, 0, 1.25187, -56.5315, 1.26297, -173.69, 1.21655, 64.6326, 0.0945697, 62.4486
1, 2940.00000, 118.934, -33.4576, 119.884, -150.616, 126.176, 87.7065, 0, 0, 1.25187, -56.5315, 1.26297, -173.69, 1.21655, 64.6326, 0.0945697, 62.4486
1, 3000.00000, 118.934, -33.4576, 119.884, -150.616, 126.176, 87.7065, 0, 0, 1.25187, -56.5315, 1.26297, -173.69, 1.21655, 64.6326, 0.0945697, 62.4486
1, 3060.00000, 118.934, -33.4576, 119.884, -150.616, 126.176, 87.7065, 0, 0, 1.25187, -56.5315, 1.26297, -173.69, 1.21655, 64.6326, 0.0945698, 62.4486
1, 3120.00000, 118.934, -33.4576, 119.884, -150.616, 126.176, 87.7065, 0, 0, 1.25187, -56.5315, 1.26297, -173.69, 1.21655, 64.6326, 0.0945698, 62.4486
1, 3180.00000, 118.934, -33.4576, 119.884, -150.616, 126.176, 87.7065, 0, 0, 1.25187, -56.5315, 1.26297, -173.69, 1.21655, 64.6326, 0.0945698, 62.4486
1, 3240.00000, 118.934, -33.4576, 119.884, -150.616, 126.176, 87.7065, 0, 0, 1.25187, -56.5315, 1.26297, -173.69, 1.21655, 64.6326, 0.0945698, 62.4486
1, 3300.00000, 118.934, -33.4576, 119.884, -150.616, 126.176, 87.7065, 0, 0, 1.25187, -56.5315, 1.26297, -173.69, 1.21655, 64.6326, 0.0945698, 62.4486
1, 3360.00000, 118.934, -33.4576, 119.884, -150.616, 126.176, 87.7065, 0, 0, 1.25187, -56.5315, 1.26297, -173.69, 1.21655, 64.6326, 0.0945698, 62.4486
1, 3420.00000, 118.934, -33.4576, 119.884, -150.616, 126.176, 87.7065, 0, 0, 1.25187, -56.5315, 1.26297, -173.69, 1.21655, 64.6326, 0.0945698, 62.4486
1, 3480.00000, 118.934, -33.4576, 119.884, -150.616, 126.176, 87.7065, 0, 0, 1.25187, -56.5315, 1.26297, -173.69, 1.21655, 64.6326, 0.0945698, 62.4486
1, 3540.00000, 118.934, -33.4576, 119.884, -150.616, 126.176, 87.7065, 0, 0, 1.25187, -56.5315, 1.26297, -173.69, 1.21655, 64.6326, 0.0945698, 62.4486
2, 0.00000, 118.934, -33.4576, 119.884, -150.616, 126.176, 87.7065, 0, 0, 1.25187, -56.5315, 1.26297, -173.69, 1.21655, 64.6326, 0.0945698, 62.4486
2, 60.00000, 118.663, -33.4789, 119.622, -150.643, 125.907, 87.6785, 0, 0, 1.25406, -56.5528, 1.26532, -173.717, 1.22439, 64.6046, 0.0890034, 62.264
2, 120.00000, 118.663, -33.4789, 119.622, -150.643, 125.907, 87.6785, 0, 0, 1.25406, -56.5528, 1.26532, -173.717, 1.22439, 64.6046, 0.0890026, 62.2644
2, 180.00000, 118.663, -33.4789, 119.622, -150.643, 125.907, 87.6785, 0, 0, 1.25406, -56.5528, 1.26532, -173.717, 1.22439, 64.6046, 0.0890026, 62.2644
2, 240.00000, 118.663, -33.4789, 119.622, -150.643, 125.907, 87.6785, 0, 0, 1.25406, -56.5528, 1.26532, -173.717, 1.22439, 64.6046, 0.0890026, 62.2644
2, 300.00000, 118.663, -33.4789, 119.622, -150.643, 125.907, 87.6785, 0, 0, 1.25406, -56.5528, 1.26532, -173.717, 1.22439, 64.6046, 0.0890026, 62.2644
2, 360.00000, 118.663, -33.4789, 119.622, -150.643, 125.907, 87.6785, 0, 0, 1.25406, -56.5528, 1.26532, -173.717, 1.22439, 64.6046, 0.0890026, 62.2644
2, 420.00000, 118.663, -33.4789, 119.622, -150.643, 125.907, 87.6785, 0, 0, 1.25406, -56.5528, 1.26532, -173.717, 1.22439, 64.6046, 0.0890026, 62.2644
2, 480.00000, 118.663, -33.4789, 119.622, -150.643, 125.907, 87.6785, 0, 0, 1.25406, -56.5528, 1.26532, -173.717, 1.22439, 64.6046, 0.0890026, 62.2644
2, 540.00000, 118.663, -33.4789, 119.622, -150.643, 125.907, 87.6785, 0, 0, 1.25406, -56.5528, 1.26532, -173.717, 1.22439, 64.6046, 0.0890026, 62.2644
2, 600.00000, 118.663, -33.4789, 119.622, -150.643, 125.907, 87.6785, 0, 0, 1.25406, -56.5528, 1.26532, -173.717, 1.22439, 64.6046, 0.0890026, 62.2644
2, 660.00000, 118.663, -33.4789, 119.622, -150.643, 125.907, 87.6785, 0, 0, 1.25406, -56.5528, 1.26532, -173.717, 1.22439, 64.6046, 0.0890026, 62.2644
2, 720.00000, 118.663, -33.4789, 119.622, -150.643, 125.907, 87.6785, 0, 0, 1.25406, -56.5528, 1.26532, -173.717, 1.22439, 64.6046, 0.0890026, 62.2644
