hour,t(sec),V1,VAngle1,V2,VAngle2,V3,VAngle3,V4,VAngle4,I1,IAngle1,I2,IAngle2,I3,IAngle3,I4,IAngle4
0, 60.00000, 122.601, -32.7145, 122.275, -151.341, 125.938, 88.1543, 0, 0, 3.90234, -55.7884, 3.91282, -174.415, 3.79915, 65.0811, 0.19047, 58.5329
0, 120.00000, 122.603, -32.7274, 122.275, -151.342, 125.969, 88.1491, 0, 0, 3.90229, -55.8013, 3.91283, -174.415, 3.79821, 65.0758, 0.192133, 58.5355
0, 180.00000, 122.605, -32.7391, 122.274, -151.342, 125.997, 88.1444, 0, 0, 3.90224, -55.813, 3.91284, -174.416, 3.79735, 65.0711, 0.193629, 58.5385
0, 240.00000, 122.606, -32.7496, 122.274, -151.342, 126.022, 88.1401, 0, 0, 3.90219, -55.8235, 3.91286, -174.416, 3.79659, 65.0667, 0.194975, 58.5417
0, 300.00000, 122.608, -32.7591, 122.274, -151.343, 126.045, 88.1363, 0, 0, 3.90216, -55.8329, 3.91287, -174.416, 3.7959, 65.0629, 0.196187, 58.5449
0, 360.00000, 122.609, -32.7676, 122.273, -151.343, 126.065, 88.1328, 0, 0, 3.90212, -55.8415, 3.91287, -174.417, 3.79528, 65.0593, 0.197278, 58.5482
0, 420.00000, 122.61, -32.7753, 122.273, -151.343, 126.083, 88.1296, 0, 0, 3.90209, -55.8491, 3.91288, -174.417, 3.79473, 65.0561, 0.19826, 58.5513
0, 480.00000, 122.611, -32.7822, 122.273, -151.344, 126.099, 88.1268, 0, 0, 3.90207, -55.8561, 3.91289, -174.417, 3.79423, 65.0533, 0.199144, 58.5544
0, 540.00000, 122.612, -32.7884, 122.273, -151.344, 126.114, 88.1243, 0, 0, 3.90204, -55.8623, 3.9129, -174.418, 3.79378, 65.0507, 0.19994, 58.5573
0, 600.00000, 122.613, -32.794, 122.273, -151.344, 126.127, 88.122, 0, 0, 3.90202, -55.8679, 3.9129, -174.418, 3.79337, 65.0483, 0.200656, 58.56
0, 660.00000, 122.613, -32.799, 122.272, -151.344, 126.139, 88.1199, 0, 0, 3.902, -55.8729, 3.91291, -174.418, 3.79301, 65.0462, 0.201301, 58.5625
0, 720.00000, 122.614, -32.8036, 122.272, -151.344, 126.15, 88.118, 0, 0, 3.90199, -55.8775, 3.91291, -174.418, 3.79268, 65.0443, 0.201881, 58.5649
0, 780.00000, 122.614, -32.8077, 122.272, -151.344, 126.16, 88.1163, 0, 0, 3.90197, -55.8815, 3.91292, -174.418, 3.79238, 65.0426, 0.202403, 58.5671
0, 840.00000, 122.615, -32.8113, 122.272, -151.345, 126.169, 88.1148, 0, 0, 3.90196, -55.8852, 3.91292, -174.418, 3.79212, 65.0411, 0.202873, 58.5691
0, 900.00000, 122.615, -32.8146, 122.272, -151.345, 126.176, 88.1134, 0, 0, 3.90195, -55.8885, 3.91293, -174.419, 3.79188, 65.0397, 0.203296, 58.571
0, 960.00000, 122.474, -32.8476, 122.056, -151.496, 125.711, 88.0436, 0, 0, 4.13252, -55.9215, 4.14671, -174.57, 4.02616, 64.9698, 0.199646, 56.8803
0, 1020.00000, 122.475, -32.8503, 122.056, -151.496, 125.718, 88.0425, 0, 0, 4.13251, -55.9242, 4.14671, -174.57, 4.02595, 64.9687, 0.200009, 56.885
0, 1080.00000, 122.475, -32.8527, 122.056, -151.496, 125.723, 88.0415, 0, 0, 4.1325, -55.9266, 4.14671, -174.57, 4.02577, 64.9677, 0.200336, 56.8894
0, 1140.00000, 122.475, -32.8549, 122.055, -151.496, 125.728, 88.0406, 0, 0, 4.13249, -55.9288, 4.14671, -174.57, 4.0256, 64.9668, 0.20063, 56.8932
0, 1200.00000, 122.476, -32.8568, 122.055, -151.496, 125.733, 88.0398, 0, 0, 4.13248, -55.9307, 4.14672, -174.57, 4.02545, 64.966, 0.200895, 56.8968
0, 1260.00000, 122.476, -32.8586, 122.055, -151.496, 125.737, 88.039, 0, 0, 4.13248, -55.9325, 4.14672, -174.57, 4.02531, 64.9652, 0.201134, 56.8999
0, 1320.00000, 122.476, -32.8601, 122.055, -151.497, 125.741, 88.0384, 0, 0, 4.13247, -55.9341, 4.14672, -174.57, 4.02519, 64.9645, 0.201348, 56.9028
0, 1380.00000, 122.476, -32.8616, 122.055, -151.497, 125.744, 88.0378, 0, 0, 4.13247, -55.9355, 4.14672, -174.57, 4.02508, 64.964, 0.201541, 56.9053
0, 1440.00000, 122.476, -32.8628, 122.055, -151.497, 125.747, 88.0373, 0, 0, 4.13246, -55.9368, 4.14672, -174.57, 4.02498, 64.9634, 0.201715, 56.9077
0, 1500.00000, 122.476, -32.864, 122.055, -151.497, 125.75, 88.0368, 0, 0, 4.13246, -55.9379, 4.14673, -174.571, 4.0249, 64.9629, 0.201872, 56.9098
0, 1560.00000, 122.477, -32.865, 122.055, -151.497, 125.753, 88.0363, 0, 0, 4.13245, -55.9389, 4.14673, -174.571, 4.02482, 64.9625, 0.202012, 56.9116
0, 1620.00000, 122.477, -32.866, 122.055, -151.497, 125.755, 88.036, 0, 0, 4.13245, -55.9399, 4.14673, -174.571, 4.02474, 64.9621, 0.202139, 56.9133
0, 1680.00000, 122.477, -32.8668, 122.055, -151.497, 125.757, 88.0356, 0, 0, 4.13245, -55.9407, 4.14673, -174.571, 4.02468, 64.9617, 0.202253, 56.9149
0, 1740.00000, 122.477, -32.8676, 122.055, -151.497, 125.759, 88.0353, 0, 0, 4.13245, -55.9415, 4.14673, -174.571, 4.02462, 64.9614, 0.202356, 56.9163
0, 1800.00000, 122.477, -32.8682, 122.055, -151.497, 125.76, 88.035, 0, 0, 4.13244, -55.9422, 4.14673, -174.571, 4.02457, 64.9611, 0.202448, 56.9175
0, 1860.00000, 122.59, -32.8513, 122.162, -151.478, 125.885, 88.0565, 0, 0, 4.14116, -55.9252, 4.15567, -174.552, 4.03278, 64.9826, 0.203426, 56.8395
0, 1920.00000, 122.59, -32.8519, 122.162, -151.478, 125.887, 88.0562, 0, 0, 4.14116, -55.9258, 4.15567, -174.552, 4.03274, 64.9823, 0.203503, 56.8406
0, 1980.00000, 122.59, -32.8523, 122.162, -151.478, 125.888, 88.056, 0, 0, 4.14116, -55.9263, 4.15567, -174.552, 4.0327, 64.9821, 0.20357, 56.8416
0, 2040.00000, 122.59, -32.8528, 122.162, -151.478, 125.889, 88.0558, 0, 0, 4.14116, -55.9267, 4.15567, -174.552, 4.03266, 64.9819, 0.203631, 56.8424
0, 2100.00000, 122.59, -32.8532, 122.162, -151.478, 125.89, 88.0557, 0, 0, 4.14116, -55.9271, 4.15567, -174.552, 4.03263, 64.9818, 0.203686, 56.8432
0, 2160.00000, 122.59, -32.8536, 122.162, -151.478, 125.891, 88.0555, 0, 0, 4.14116, -55.9275, 4.15567, -174.552, 4.0326, 64.9816, 0.203735, 56.8439
0, 2220.00000, 122.591, -32.8539, 122.162, -151.478, 125.891, 88.0554, 0, 0, 4.14115, -55.9278, 4.15567, -174.552, 4.03258, 64.9815, 0.203779, 56.8445
0, 2280.00000, 122.591, -32.8542, 122.162, -151.478, 125.892, 88.0553, 0, 0, 4.14115, -55.9281, 4.15567, -174.552, 4.03256, 64.9814, 0.203819, 56.8451
0, 2340.00000, 122.591, -32.8544, 122.162, -151.478, 125.893, 88.0551, 0, 0, 4.14115, -55.9284, 4.15567, -174.552, 4.03254, 64.9812, 0.203855, 56.8456
0, 2400.00000, 122.591, -32.8547, 122.162, -151.478, 125.893, 88.055, 0, 0, 4.14115, -55.9286, 4.15567, -174.552, 4.03252, 64.9811, 0.203887, 56.846
0, 2460.00000, 122.591, -32.8549, 122.162, -151.478, 125.894, 88.055, 0, 0, 4.14115, -55.9288, 4.15568, -174.552, 4.0325, 64.981, 0.203917, 56.8464
0, 2520.00000, 122.591, -32.8551, 122.162, -151.478, 125.894, 88.0549, 0, 0, 4.14115, -55.929, 4.15568, -174.552, 4.03249, 64.981, 0.203943, 56.8468
0, 2580.00000, 122.591, -32.8553, 122.162, -151.478, 125.895, 88.0548, 0, 0, 4.14115, -55.9292, 4.15568, -174.552, 4.03247, 64.9809, 0.203966, 56.8471
0, 2640.00000, 122.591, -32.8554, 122.162, -151.478, 125.895, 88.0547, 0, 0, 4.14115, -55.9293, 4.15568, -174.552, 4.03246, 64.9808, 0.203987, 56.8474
0, 2700.00000, 122.591, -32.8556, 122.162, -151.478, 125.895, 88.0547, 0, 0, 4.14115, -55.9295, 4.15568, -174.552, 4.03245, 64.9808, 0.204007, 56.8477
0, 2760.00000, 122.808, -32.8174, 122.368, -151.438, 126.129, 88.0996, 0, 0, 3.93186, -55.8914, 3.946, -174.512, 3.82833, 65.0257, 0.194384, 56.7077
0, 2820.00000, 122.808, -32.8175, 122.368, -151.438, 126.129, 88.0995, 0, 0, 3.93186, -55.8915, 3.946, -174.512, 3.82832, 65.0256, 0.194402, 56.708
0, 2880.00000, 122.808, -32.8176, 122.368, -151.438, 126.13, 88.0995, 0, 0, 3.93186, -55.8916, 3.946, -174.512, 3.82831, 65.0256, 0.194415, 56.7082
0, 2940.00000, 122.808, -32.8177, 122.368, -151.438, 126.13, 88.0994, 0, 0, 3.93186, -55.8917, 3.946, -174.512, 3.82831, 65.0255, 0.194427, 56.7084
0, 3000.00000, 122.808, -32.8178, 122.368, -151.438, 126.13, 88.0994, 0, 0, 3.93186, -55.8917, 3.946, -174.512, 3.8283, 65.0255, 0.194438, 56.7086
0, 3060.00000, 122.808, -32.8179, 122.368, -151.438, 126.13, 88.0994, 0, 0, 3.93186, -55.8918, 3.946, -174.512, 3.82829, 65.0255, 0.194448, 56.7087
0, 3120.00000, 122.808, -32.818, 122.368, -151.438, 126.13, 88.0993, 0, 0, 3.93186, -55.8919, 3.946, -174.512, 3.82829, 65.0254, 0.194456, 56.7088
0, 3180.00000, 122.808, -32.818, 122.368, -151.438, 126.131, 88.0993, 0, 0, 3.93186, -55.8919, 3.946, -174.512, 3.82829, 65.0254, 0.194464, 56.709
0, 3240.00000, 122.808, -32.8181, 122.368, -151.438, 126.131, 88.0993, 0, 0, 3.93186, -55.892, 3.946, -174.512, 3.82828, 65.0254, 0.194471, 56.7091
0, 3300.00000, 122.808, -32.8181, 122.368, -151.438, 126.131, 88.0993, 0, 0, 3.93186, -55.892, 3.946, -174.512, 3.82828, 65.0254, 0.194478, 56.7092
0, 3360.00000, 122.808, -32.8182, 122.368, -151.438, 126.131, 88.0993, 0, 0, 3.93186, -55.8921, 3.946, -174.512, 3.82827, 65.0253, 0.194483, 56.7093
0, 3420.00000, 122.808, -32.8182, 122.368, -151.438, 126.131, 88.0992, 0, 0, 3.93186, -55.8921, 3.946, -174.512, 3.82827, 65.0253, 0.194488, 56.7094
0, 3480.00000, 122.902, -32.6868, 122.669, -151.405, 126.131, 88.1023, 0, 0, 3.92886, -55.7608, 3.93633, -174.479, 3.82828, 65.0284, 0.180994, 59.6985
0, 3540.00000, 122.897, -32.686, 122.747, -151.283, 126.442, 88.1382, 0, 0, 3.92901, -55.76, 3.93381, -174.357, 3.81887, 65.0642, 0.196023, 61.346
1, 0.00000, 122.897, -32.6861, 122.747, -151.283, 126.442, 88.1382, 0, 0, 3.92901, -55.76, 3.93381, -174.357, 3.81886, 65.0642, 0.196031, 61.3459
1, 60.00000, 123.059, -32.6598, 122.903, -151.254, 126.611, 88.1704, 0, 0, 3.87798, -55.7337, 3.88289, -174.328, 3.76917, 65.0965, 0.193835, 61.2406
1, 120.00000, 123.059, -32.6598, 122.903, -151.254, 126.611, 88.1704, 0, 0, 3.87799, -55.7337, 3.88289, -174.328, 3.76917, 65.0965, 0.193841, 61.2406
1, 180.00000, 123.059, -32.6598, 122.903, -151.254, 126.611, 88.1704, 0, 0, 3.87799, -55.7338, 3.88289, -174.328, 3.76917, 65.0965, 0.193843, 61.2406
1, 240.00000, 123.059, -32.6599, 122.903, -151.254, 126.611, 88.1704, 0, 0, 3.87798, -55.7338, 3.88289, -174.328, 3.76917, 65.0965, 0.193846, 61.2405
1, 300.00000, 123.059, -32.6599, 122.903, -151.254, 126.611, 88.1704, 0, 0, 3.87798, -55.7338, 3.88289, -174.328, 3.76916, 65.0965, 0.193848, 61.2405
1, 360.00000, 123.059, -32.6599, 122.903, -151.254, 126.611, 88.1704, 0, 0, 3.87798, -55.7338, 3.88289, -174.328, 3.76916, 65.0965, 0.19385, 61.2405
1, 420.00000, 123.059, -32.6599, 122.903, -151.254, 126.611, 88.1704, 0, 0, 3.87798, -55.7338, 3.88289, -174.328, 3.76916, 65.0965, 0.193852, 61.2405
1, 480.00000, 123.059, -32.6599, 122.903, -151.254, 126.611, 88.1704, 0, 0, 3.87798, -55.7338, 3.88289, -174.328, 3.76916, 65.0965, 0.193853, 61.2405
1, 540.00000, 123.059, -32.6599, 122.903, -151.254, 126.612, 88.1704, 0, 0, 3.87798, -55.7339, 3.88289, -174.328, 3.76916, 65.0965, 0.193855, 61.2405
1, 600.00000, 123.54, -32.6752, 122.893, -151.26, 126.976, 88.3498, 0, 0, 3.86286, -55.7492, 3.88321, -174.334, 3.75835, 65.2759, 0.200994, 53.9705
1, 660.00000, 123.54, -32.6752, 122.893, -151.26, 126.976, 88.3498, 0, 0, 3.86286, -55.7492, 3.88321, -174.334, 3.75835, 65.2759, 0.200997, 53.9706
1, 720.00000, 123.54, -32.6753, 122.893, -151.26, 126.976, 88.3498, 0, 0, 3.86286, -55.7492, 3.88321, -174.334, 3.75835, 65.2759, 0.200998, 53.9706
1, 780.00000, 123.54, -32.6753, 122.893, -151.26, 126.976, 88.3498, 0, 0, 3.86286, -55.7492, 3.88321, -174.334, 3.75835, 65.2759, 0.200999, 53.9707
1, 840.00000, 123.54, -32.6753, 122.893, -151.26, 126.976, 88.3498, 0, 0, 3.86286, -55.7492, 3.88321, -174.334, 3.75835, 65.2759, 0.201, 53.9707
1, 900.00000, 123.54, -32.6753, 122.893, -151.26, 126.976, 88.3498, 0, 0, 3.86286, -55.7492, 3.88321, -174.334, 3.75835, 65.2759, 0.201001, 53.9707
1, 960.00000, 123.565, -32.6717, 122.916, -151.255, 127, 88.3544, 0, 0, 3.84402, -55.7456, 3.86432, -174.329, 3.74005, 65.2804, 0.200084, 53.9567
1, 1020.00000, 123.565, -32.6717, 122.916, -151.255, 127, 88.3544, 0, 0, 3.84402, -55.7456, 3.86432, -174.329, 3.74004, 65.2804, 0.200087, 53.9569
1, 1080.00000, 123.565, -32.6717, 122.916, -151.255, 127, 88.3544, 0, 0, 3.84402, -55.7457, 3.86432, -174.329, 3.74004, 65.2804, 0.200088, 53.957
1, 1140.00000, 123.565, -32.6717, 122.916, -151.255, 127, 88.3544, 0, 0, 3.84402, -55.7457, 3.86432, -174.329, 3.74004, 65.2804, 0.200088, 53.957
1, 1200.00000, 123.565, -32.6717, 122.916, -151.255, 127, 88.3544, 0, 0, 3.84402, -55.7457, 3.86432, -174.329, 3.74004, 65.2804, 0.200089, 53.957
1, 1260.00000, 123.565, -32.6717, 122.916, -151.255, 127, 88.3544, 0, 0, 3.84402, -55.7457, 3.86432, -174.329, 3.74004, 65.2804, 0.200089, 53.957
1, 1320.00000, 123.565, -32.6717, 122.916, -151.255, 127, 88.3544, 0, 0, 3.84402, -55.7457, 3.86432, -174.329, 3.74004, 65.2804, 0.20009, 53.957
1, 1380.00000, 123.565, -32.6718, 122.916, -151.255, 127, 88.3544, 0, 0, 3.84402, -55.7457, 3.86432, -174.329, 3.74004, 65.2804, 0.20009, 53.957
1, 1440.00000, 123.565, -32.6718, 122.916, -151.255, 127, 88.3544, 0, 0, 3.84402, -55.7457, 3.86432, -174.329, 3.74004, 65.2804, 0.20009, 53.957
1, 1500.00000, 123.565, -32.6718, 122.916, -151.255, 127, 88.3544, 0, 0, 3.84402, -55.7457, 3.86432, -174.329, 3.74004, 65.2804, 0.20009, 53.957
1, 1560.00000, 123.565, -32.6718, 122.916, -151.255, 127, 88.3544, 0, 0, 3.84402, -55.7457, 3.86432, -174.329, 3.74004, 65.2804, 0.200091, 53.957
1, 1620.00000, 123.565, -32.6718, 122.916, -151.255, 127, 88.3544, 0, 0, 3.84402, -55.7457, 3.86432, -174.329, 3.74004, 65.2804, 0.200091, 53.9571
1, 1680.00000, 123.565, -32.6718, 122.916, -151.255, 127, 88.3544, 0, 0, 3.84402, -55.7457, 3.86432, -174.329, 3.74004, 65.2804, 0.200091, 53.9571
1, 1740.00000, 123.565, -32.6718, 122.916, -151.255, 127, 88.3543, 0, 0, 3.84402, -55.7457, 3.86432, -174.329, 3.74004, 65.2804, 0.200091, 53.9571
1, 1800.00000, 123.565, -32.6718, 122.916, -151.255, 127, 88.3543, 0, 0, 3.84402, -55.7457, 3.86432, -174.329, 3.74004, 65.2804, 0.200091, 53.9571
1, 1860.00000, 123.808, -32.4865, 123.38, -151.322, 126.803, 88.3341, 0, 0, 3.92901, -55.5604, 3.94262, -174.396, 3.83619, 65.2602, 0.170992, 55.7107
1, 1920.00000, 123.808, -32.4865, 123.38, -151.322, 126.803, 88.3341, 0, 0, 3.92901, -55.5604, 3.94262, -174.396, 3.8362, 65.2602, 0.170989, 55.7107
1, 1980.00000, 123.808, -32.4865, 123.38, -151.322, 126.803, 88.3341, 0, 0, 3.92901, -55.5604, 3.94262, -174.396, 3.8362, 65.2602, 0.170989, 55.7107
1, 2040.00000, 123.808, -32.4865, 123.38, -151.322, 126.803, 88.3341, 0, 0, 3.92901, -55.5604, 3.94262, -174.396, 3.8362, 65.2602, 0.170989, 55.7107
1, 2100.00000, 123.808, -32.4865, 123.38, -151.322, 126.803, 88.3341, 0, 0, 3.92901, -55.5604, 3.94262, -174.396, 3.83619, 65.2602, 0.17099, 55.7107
1, 2160.00000, 123.808, -32.4865, 123.38, -151.322, 126.803, 88.3341, 0, 0, 3.92901, -55.5604, 3.94262, -174.396, 3.83619, 65.2602, 0.17099, 55.7107
1, 2220.00000, 123.808, -32.4865, 123.38, -151.322, 126.803, 88.3341, 0, 0, 3.92901, -55.5604, 3.94262, -174.396, 3.83619, 65.2602, 0.17099, 55.7107
1, 2280.00000, 123.808, -32.4865, 123.38, -151.322, 126.803, 88.3341, 0, 0, 3.92901, -55.5604, 3.94262, -174.396, 3.83619, 65.2602, 0.17099, 55.7107
1, 2340.00000, 123.808, -32.4865, 123.38, -151.322, 126.803, 88.3341, 0, 0, 3.92901, -55.5604, 3.94262, -174.396, 3.83619, 65.2602, 0.17099, 55.7107
1, 2400.00000, 123.808, -32.4865, 123.38, -151.322, 126.803, 88.3341, 0, 0, 3.92901, -55.5604, 3.94262, -174.396, 3.83619, 65.2602, 0.17099, 55.7107
1, 2460.00000, 123.808, -32.4865, 123.38, -151.322, 126.803, 88.3341, 0, 0, 3.92901, -55.5604, 3.94262, -174.396, 3.83619, 65.2602, 0.17099, 55.7107
1, 2520.00000, 123.808, -32.4865, 123.38, -151.322, 126.803, 88.3341, 0, 0, 3.92901, -55.5604, 3.94262, -174.396, 3.83619, 65.2602, 0.17099, 55.7107
1, 2580.00000, 123.808, -32.4865, 123.38, -151.322, 126.803, 88.3341, 0, 0, 3.92901, -55.5604, 3.94262, -174.396, 3.83619, 65.2602, 0.17099, 55.7107
1, 2640.00000, 123.808, -32.4865, 123.38, -151.322, 126.803, 88.3341, 0, 0, 3.92901, -55.5604, 3.94262, -174.396, 3.83619, 65.2602, 0.17099, 55.7107
1, 2700.00000, 123.808, -32.4865, 123.38, -151.322, 126.803, 88.3341, 0, 0, 3.92901, -55.5604, 3.94262, -174.396, 3.83619, 65.2602, 0.17099, 55.7107
1, 2760.00000, 124.131, -32.4362, 123.679, -151.263, 127.104, 88.3938, 0, 0, 3.69266, -55.5101, 3.70616, -174.337, 3.60629, 65.3198, 0.160814, 55.4292
1, 2820.00000, 124.131, -32.4362, 123.679, -151.263, 127.104, 88.3938, 0, 0, 3.69266, -55.5101, 3.70616, -174.337, 3.60629, 65.3198, 0.160814, 55.4293
1, 2880.00000, 124.131, -32.4362, 123.679, -151.263, 127.104, 88.3938, 0, 0, 3.69266, -55.5101, 3.70616, -174.337, 3.60629, 65.3198, 0.160814, 55.4293
1, 2940.00000, 124.131, -32.4362, 123.679, -151.263, 127.104, 88.3938, 0, 0, 3.69266, -55.5101, 3.70616, -174.337, 3.60629, 65.3198, 0.160814, 55.4293
1, 3000.00000, 124.131, -32.4362, 123.679, -151.263, 127.104, 88.3938, 0, 0, 3.69266, -55.5101, 3.70616, -174.337, 3.60629, 65.3198, 0.160814, 55.4293
1, 3060.00000, 124.131, -32.4362, 123.679, -151.263, 127.104, 88.3938, 0, 0, 3.69266, -55.5101, 3.70616, -174.337, 3.60629, 65.3198, 0.160814, 55.4293
1, 3120.00000, 124.131, -32.4362, 123.679, -151.263, 127.104, 88.3938, 0, 0, 3.69266, -55.5101, 3.70616, -174.337, 3.60629, 65.3198, 0.160814, 55.4293
1, 3180.00000, 124.131, -32.4362, 123.679, -151.263, 127.104, 88.3938, 0, 0, 3.69266, -55.5101, 3.70616, -174.337, 3.60629, 65.3198, 0.160814, 55.4293
1, 3240.00000, 124.131, -32.4362, 123.679, -151.263, 127.104, 88.3938, 0, 0, 3.69266, -55.5101, 3.70616, -174.337, 3.60629, 65.3198, 0.160814, 55.4293
1, 3300.00000, 124.131, -32.4362, 123.679, -151.263, 127.104, 88.3938, 0, 0, 3.69266, -55.5101, 3.70616, -174.337, 3.60629, 65.3198, 0.160814, 55.4293
1, 3360.00000, 124.131, -32.4362, 123.679, -151.263, 127.104, 88.3938, 0, 0, 3.69266, -55.5101, 3.70616, -174.337, 3.60629, 65.3198, 0.160814, 55.4293
1, 3420.00000, 124.131, -32.4362, 123.679, -151.263, 127.104, 88.3938, 0, 0, 3.69266, -55.5101, 3.70616, -174.337, 3.60629, 65.3198, 0.160814, 55.4293
1, 3480.00000, 124.131, -32.4362, 123.679, -151.263, 127.104, 88.3938, 0, 0, 3.69266, -55.5101, 3.70616, -174.337, 3.60629, 65.3198, 0.160814, 55.4293
1, 3540.00000, 124.131, -32.4362, 123.679, -151.263, 127.104, 88.3938, 0, 0, 3.69266, -55.5101, 3.70616, -174.337, 3.60629, 65.3198, 0.160814, 55.4293
2, 0.00000, 124.131, -32.4362, 123.679, -151.263, 127.104, 88.3938, 0, 0, 3.69266, -55.5101, 3.70616, -174.337, 3.60629, 65.3198, 0.160814, 55.4293
2, 60.00000, 123.936, -32.4672, 123.496, -151.299, 126.923, 88.357, 0, 0, 3.79774, -55.5411, 3.81125, -174.373, 3.70834, 65.2831, 0.16541, 55.5893
2, 120.00000, 123.936, -32.4672, 123.496, -151.299, 126.923, 88.357, 0, 0, 3.79774, -55.5411, 3.81125, -174.373, 3.70834, 65.2831, 0.165408, 55.5892
2, 180.00000, 123.936, -32.4672, 123.496, -151.299, 126.923, 88.357, 0, 0, 3.79774, -55.5411, 3.81125, -174.373, 3.70834, 65.2831, 0.165408, 55.5892
2, 240.00000, 123.936, -32.4672, 123.496, -151.299, 126.923, 88.357, 0, 0, 3.79774, -55.5411, 3.81125, -174.373, 3.70834, 65.2831, 0.165408, 55.5892
2, 300.00000, 123.931, -32.4671, 123.586, -151.173, 127.245, 88.3942, 0, 0, 3.79787, -55.5411, 3.80848, -174.247, 3.69898, 65.3203, 0.179857, 57.7731
2, 360.00000, 123.931, -32.4671, 123.586, -151.173, 127.245, 88.3942, 0, 0, 3.79788, -55.5411, 3.80848, -174.247, 3.69897, 65.3203, 0.179861, 57.7736
2, 420.00000, 123.931, -32.4671, 123.586, -151.173, 127.245, 88.3942, 0, 0, 3.79788, -55.5411, 3.80848, -174.247, 3.69897, 65.3203, 0.179861, 57.7736
2, 480.00000, 123.931, -32.4671, 123.586, -151.173, 127.245, 88.3942, 0, 0, 3.79788, -55.5411, 3.80848, -174.247, 3.69897, 65.3203, 0.179861, 57.7736
2, 540.00000, 123.931, -32.4671, 123.586, -151.173, 127.245, 88.3942, 0, 0, 3.79788, -55.5411, 3.80848, -174.247, 3.69897, 65.3203, 0.179861, 57.7736
2, 600.00000, 123.931, -32.4671, 123.586, -151.173, 127.245, 88.3942, 0, 0, 3.79788, -55.5411, 3.80848, -174.247, 3.69897, 65.3203, 0.179861, 57.7736
2, 660.00000, 123.931, -32.4671, 123.586, -151.173, 127.245, 88.3942, 0, 0, 3.79788, -55.5411, 3.80848, -174.247, 3.69897, 65.3203, 0.179861, 57.7736
2, 720.00000, 123.931, -32.4671, 123.586, -151.173, 127.245, 88.3942, 0, 0, 3.79788, -55.5411, 3.80848, -174.247, 3.69897, 65.3203, 0.179861, 57.7736
2, 780.00000, 123.931, -32.4671, 123.586, -151.173, 127.245, 88.3942, 0, 0, 3.79788, -55.5411, 3.80848, -174.247, 3.69897, 65.3203, 0.179861, 57.7736
