hour,t(sec),"P1 (kW)","Q1 (kvar)","P2 (kW)","Q2 (kvar)","P3 (kW)","Q3 (kvar)","P4 (kW)","Q4 (kvar)"
0, 60.00000, 0.495991, 0.211285, 0.549526, 0.234085, 0.511029, 0.217698, 0, 0
0, 120.00000, 0.495991, 0.211285, 0.549524, 0.234085, 0.510954, 0.217666, 0, 0
0, 180.00000, 0.49599, 0.211286, 0.549522, 0.234085, 0.510885, 0.217636, 0, 0
0, 240.00000, 0.495989, 0.211286, 0.549521, 0.234086, 0.510822, 0.21761, 0, 0
0, 300.00000, 0.495989, 0.211286, 0.549519, 0.234086, 0.510766, 0.217586, 0, 0
0, 360.00000, 0.495988, 0.211286, 0.549519, 0.234087, 0.510714, 0.217564, 0, 0
0, 420.00000, 0.495988, 0.211286, 0.549518, 0.234087, 0.510667, 0.217544, 0, 0
0, 480.00000, 0.483178, 0.205829, 0.526303, 0.224198, 0.496835, 0.211651, 0, 0
0, 540.00000, 0.483177, 0.205829, 0.526301, 0.224198, 0.496796, 0.211634, 0, 0
0, 600.00000, 0.483177, 0.205829, 0.5263, 0.224198, 0.496762, 0.21162, 0, 0
0, 660.00000, 0.483176, 0.205829, 0.526299, 0.224198, 0.496731, 0.211606, 0, 0
0, 720.00000, 0.483175, 0.205829, 0.526298, 0.224198, 0.496703, 0.211594, 0, 0
0, 780.00000, 0.483174, 0.205829, 0.526297, 0.224198, 0.496677, 0.211584, 0, 0
0, 840.00000, 0.483174, 0.205829, 0.526296, 0.224198, 0.496654, 0.211574, 0, 0
0, 900.00000, 0.483173, 0.205829, 0.526295, 0.224198, 0.496634, 0.211565, 0, 0
0, 960.00000, 0.482599, 0.205585, 0.526293, 0.224198, 0.483818, 0.206107, 0, 0
0, 1020.00000, 0.482599, 0.205585, 0.526293, 0.224198, 0.483802, 0.206099, 0, 0
0, 1080.00000, 0.482598, 0.205585, 0.526293, 0.224198, 0.483787, 0.206093, 0, 0
0, 1140.00000, 0.482598, 0.205585, 0.526292, 0.224198, 0.483773, 0.206087, 0, 0
0, 1200.00000, 0.482598, 0.205585, 0.526292, 0.224198, 0.483761, 0.206082, 0, 0
0, 1260.00000, 0.482598, 0.205585, 0.526292, 0.224198, 0.48375, 0.206077, 0, 0
0, 1320.00000, 0.482597, 0.205585, 0.526291, 0.224198, 0.48374, 0.206073, 0, 0
0, 1380.00000, 0.482597, 0.205585, 0.526291, 0.224198, 0.483731, 0.206069, 0, 0
0, 1440.00000, 0.482597, 0.205585, 0.526291, 0.224198, 0.483723, 0.206065, 0, 0
0, 1500.00000, 0.482597, 0.205585, 0.526291, 0.224198, 0.483715, 0.206062, 0, 0
0, 1560.00000, 0.482597, 0.205585, 0.526291, 0.224198, 0.483709, 0.206059, 0, 0
0, 1620.00000, 0.482596, 0.205585, 0.52629, 0.224198, 0.483703, 0.206057, 0, 0
0, 1680.00000, 0.482596, 0.205585, 0.52629, 0.224198, 0.483697, 0.206054, 0, 0
0, 1740.00000, 0.482596, 0.205585, 0.52629, 0.224198, 0.483692, 0.206052, 0, 0
0, 1800.00000, 0.475842, 0.202708, 0.52629, 0.224198, 0.484528, 0.206408, 0, 0
0, 1860.00000, 0.475842, 0.202708, 0.52629, 0.224198, 0.484524, 0.206407, 0, 0
0, 1920.00000, 0.475842, 0.202708, 0.52629, 0.224198, 0.484521, 0.206405, 0, 0
0, 1980.00000, 0.475842, 0.202708, 0.526289, 0.224198, 0.484518, 0.206404, 0, 0
0, 2040.00000, 0.475842, 0.202708, 0.526289, 0.224198, 0.484515, 0.206403, 0, 0
0, 2100.00000, 0.475842, 0.202708, 0.526289, 0.224198, 0.484513, 0.206402, 0, 0
0, 2160.00000, 0.475842, 0.202708, 0.526289, 0.224198, 0.484511, 0.206401, 0, 0
0, 2220.00000, 0.475842, 0.202708, 0.526289, 0.224198, 0.484509, 0.2064, 0, 0
0, 2280.00000, 0.475842, 0.202708, 0.526289, 0.224198, 0.484507, 0.206399, 0, 0
0, 2340.00000, 0.475841, 0.202707, 0.526289, 0.224198, 0.484506, 0.206399, 0, 0
0, 2400.00000, 0.475841, 0.202707, 0.526289, 0.224198, 0.484504, 0.206398, 0, 0
0, 2460.00000, 0.475841, 0.202707, 0.526289, 0.224198, 0.484503, 0.206397, 0, 0
0, 2520.00000, 0.475841, 0.202707, 0.526289, 0.224198, 0.484502, 0.206397, 0, 0
0, 2580.00000, 0.475841, 0.202707, 0.526289, 0.224198, 0.484501, 0.206397, 0, 0
0, 2640.00000, 0.475841, 0.202707, 0.526289, 0.224198, 0.4845, 0.206396, 0, 0
0, 2700.00000, 0.475841, 0.202707, 0.526289, 0.224198, 0.484499, 0.206396, 0, 0
0, 2760.00000, 0.478948, 0.204031, 0.526289, 0.224198, 0.485862, 0.206976, 0, 0
0, 2820.00000, 0.478948, 0.204031, 0.526289, 0.224198, 0.485861, 0.206976, 0, 0
0, 2880.00000, 0.478948, 0.204031, 0.526289, 0.224198, 0.485861, 0.206976, 0, 0
0, 2940.00000, 0.478948, 0.204031, 0.526289, 0.224198, 0.48586, 0.206976, 0, 0
0, 3000.00000, 0.478948, 0.204031, 0.526289, 0.224198, 0.48586, 0.206975, 0, 0
0, 3060.00000, 0.478948, 0.204031, 0.526289, 0.224198, 0.485859, 0.206975, 0, 0
0, 3120.00000, 0.478948, 0.204031, 0.526289, 0.224198, 0.485859, 0.206975, 0, 0
0, 3180.00000, 0.478948, 0.204031, 0.526289, 0.224198, 0.485858, 0.206975, 0, 0
0, 3240.00000, 0.478948, 0.204031, 0.526289, 0.224198, 0.485858, 0.206975, 0, 0
0, 3300.00000, 0.478948, 0.204031, 0.526289, 0.224198, 0.485858, 0.206975, 0, 0
0, 3360.00000, 0.478948, 0.204031, 0.526289, 0.224198, 0.485858, 0.206974, 0, 0
0, 3420.00000, 0.478948, 0.204031, 0.526289, 0.224198, 0.485857, 0.206974, 0, 0
0, 3480.00000, 0.478948, 0.204031, 0.526289, 0.224198, 0.485857, 0.206974, 0, 0
0, 3540.00000, 0.478948, 0.204031, 0.526289, 0.224198, 0.485857, 0.206974, 0, 0
1, 0.00000, 0.478948, 0.204031, 0.526289, 0.224198, 0.485857, 0.206974, 0, 0
1, 60.00000, 0.481609, 0.205165, 0.526289, 0.224198, 0.486784, 0.207369, 0, 0
1, 120.00000, 0.481609, 0.205165, 0.526289, 0.224198, 0.486784, 0.207369, 0, 0
1, 180.00000, 0.481609, 0.205165, 0.526289, 0.224198, 0.486784, 0.207369, 0, 0
1, 240.00000, 0.481609, 0.205165, 0.526289, 0.224198, 0.486784, 0.207369, 0, 0
1, 300.00000, 0.481609, 0.205165, 0.526289, 0.224198, 0.486783, 0.207369, 0, 0
1, 360.00000, 0.481609, 0.205165, 0.526289, 0.224198, 0.486783, 0.207369, 0, 0
1, 420.00000, 0.481609, 0.205165, 0.526289, 0.224198, 0.486783, 0.207369, 0, 0
1, 480.00000, 0.481609, 0.205165, 0.526289, 0.224198, 0.486783, 0.207369, 0, 0
1, 540.00000, 0.481609, 0.205165, 0.526289, 0.224198, 0.486783, 0.207369, 0, 0
1, 600.00000, 0.481609, 0.205165, 0.526289, 0.224198, 0.486783, 0.207369, 0, 0
1, 660.00000, 0.481609, 0.205165, 0.526289, 0.224198, 0.486783, 0.207369, 0, 0
1, 720.00000, 0.481609, 0.205165, 0.526289, 0.224198, 0.486783, 0.207369, 0, 0
1, 780.00000, 0.486291, 0.207159, 0.526289, 0.224198, 0.48954, 0.208543, 0, 0
1, 840.00000, 0.486291, 0.207159, 0.526289, 0.224198, 0.48954, 0.208543, 0, 0
1, 900.00000, 0.486291, 0.207159, 0.526289, 0.224198, 0.48954, 0.208543, 0, 0
1, 960.00000, 0.486291, 0.207159, 0.526289, 0.224198, 0.48954, 0.208543, 0, 0
1, 1020.00000, 0.486291, 0.207159, 0.526289, 0.224198, 0.48954, 0.208543, 0, 0
1, 1080.00000, 0.486291, 0.207159, 0.526289, 0.224198, 0.48954, 0.208543, 0, 0
1, 1140.00000, 0.486291, 0.207159, 0.526289, 0.224198, 0.48954, 0.208543, 0, 0
1, 1200.00000, 0.486291, 0.207159, 0.526289, 0.224198, 0.48954, 0.208543, 0, 0
1, 1260.00000, 0.486291, 0.207159, 0.526289, 0.224198, 0.48954, 0.208543, 0, 0
1, 1320.00000, 0.486291, 0.207159, 0.526289, 0.224198, 0.48954, 0.208543, 0, 0
1, 1380.00000, 0.486291, 0.207159, 0.526289, 0.224198, 0.48954, 0.208543, 0, 0
1, 1440.00000, 0.486291, 0.207159, 0.526289, 0.224198, 0.48954, 0.208543, 0, 0
1, 1500.00000, 0.486291, 0.207159, 0.526289, 0.224198, 0.48954, 0.208543, 0, 0
1, 1560.00000, 0.486291, 0.207159, 0.526289, 0.224198, 0.48954, 0.208543, 0, 0
1, 1620.00000, 0.486291, 0.207159, 0.526289, 0.224198, 0.48954, 0.208543, 0, 0
1, 1680.00000, 0.486291, 0.207159, 0.526289, 0.224198, 0.48954, 0.208543, 0, 0
1, 1740.00000, 0.486291, 0.207159, 0.526289, 0.224198, 0.48954, 0.208543, 0, 0
1, 1800.00000, 0.486291, 0.207159, 0.526289, 0.224198, 0.48954, 0.208543, 0, 0
1, 1860.00000, 0.486291, 0.207159, 0.526289, 0.224198, 0.48954, 0.208543, 0, 0
1, 1920.00000, 0.486291, 0.207159, 0.526289, 0.224198, 0.48954, 0.208543, 0, 0
1, 1980.00000, 0.486291, 0.207159, 0.526289, 0.224198, 0.48954, 0.208543, 0, 0
1, 2040.00000, 0.486291, 0.207159, 0.526289, 0.224198, 0.48954, 0.208543, 0, 0
1, 2100.00000, 0.486291, 0.207159, 0.526289, 0.224198, 0.48954, 0.208543, 0, 0
1, 2160.00000, 0.486291, 0.207159, 0.526289, 0.224198, 0.48954, 0.208543, 0, 0
1, 2220.00000, 0.493185, 0.210096, 0.526289, 0.224198, 0.488666, 0.208171, 0, 0
1, 2280.00000, 0.493185, 0.210096, 0.526289, 0.224198, 0.488666, 0.208171, 0, 0
1, 2340.00000, 0.493185, 0.210096, 0.526289, 0.224198, 0.488666, 0.208171, 0, 0
1, 2400.00000, 0.493185, 0.210096, 0.526289, 0.224198, 0.488666, 0.208171, 0, 0
1, 2460.00000, 0.493185, 0.210096, 0.526289, 0.224198, 0.488666, 0.208171, 0, 0
1, 2520.00000, 0.493185, 0.210096, 0.526289, 0.224198, 0.488666, 0.208171, 0, 0
1, 2580.00000, 0.493185, 0.210096, 0.526289, 0.224198, 0.488666, 0.208171, 0, 0
1, 2640.00000, 0.493185, 0.210096, 0.526289, 0.224198, 0.488666, 0.208171, 0, 0
1, 2700.00000, 0.493185, 0.210096, 0.526289, 0.224198, 0.488666, 0.208171, 0, 0
1, 2760.00000, 0.493185, 0.210096, 0.526289, 0.224198, 0.488666, 0.208171, 0, 0
1, 2820.00000, 0.493185, 0.210096, 0.526289, 0.224198, 0.488666, 0.208171, 0, 0
1, 2880.00000, 0.493185, 0.210096, 0.526289, 0.224198, 0.488666, 0.208171, 0, 0
1, 2940.00000, 0.493185, 0.210096, 0.526289, 0.224198, 0.488666, 0.208171, 0, 0
1, 3000.00000, 0.493185, 0.210096, 0.526289, 0.224198, 0.488666, 0.208171, 0, 0
1, 3060.00000, 0.493185, 0.210096, 0.526289, 0.224198, 0.488666, 0.208171, 0, 0
1, 3120.00000, 0.493185, 0.210096, 0.526289, 0.224198, 0.488666, 0.208171, 0, 0
1, 3180.00000, 0.493185, 0.210096, 0.526289, 0.224198, 0.488666, 0.208171, 0, 0
1, 3240.00000, 0.493185, 0.210096, 0.526289, 0.224198, 0.488666, 0.208171, 0, 0
1, 3300.00000, 0.493185, 0.210096, 0.526289, 0.224198, 0.488666, 0.208171, 0, 0
1, 3360.00000, 0.493185, 0.210096, 0.526289, 0.224198, 0.488666, 0.208171, 0, 0
1, 3420.00000, 0.493185, 0.210096, 0.526289, 0.224198, 0.488666, 0.208171, 0, 0
1, 3480.00000, 0.493185, 0.210096, 0.526289, 0.224198, 0.488666, 0.208171, 0, 0
1, 3540.00000, 0.493185, 0.210096, 0.526289, 0.224198, 0.488666, 0.208171, 0, 0
2, 0.00000, 0.493185, 0.210096, 0.526289, 0.224198, 0.488666, 0.208171, 0, 0
2, 60.00000, 0.493185, 0.210096, 0.526289, 0.224198, 0.488666, 0.208171, 0, 0
2, 120.00000, 0.493185, 0.210096, 0.526289, 0.224198, 0.488666, 0.208171, 0, 0
2, 180.00000, 0.493185, 0.210096, 0.526289, 0.224198, 0.488666, 0.208171, 0, 0
2, 240.00000, 0.493185, 0.210096, 0.526289, 0.224198, 0.488666, 0.208171, 0, 0
2, 300.00000, 0.493185, 0.210096, 0.526289, 0.224198, 0.488666, 0.208171, 0, 0
2, 360.00000, 0.493185, 0.210096, 0.526289, 0.224198, 0.488666, 0.208171, 0, 0
2, 420.00000, 0.493185, 0.210096, 0.526289, 0.224198, 0.488666, 0.208171, 0, 0
2, 480.00000, 0.493185, 0.210096, 0.526289, 0.224198, 0.488666, 0.208171, 0, 0
2, 540.00000, 0.493185, 0.210096, 0.526289, 0.224198, 0.488666, 0.208171, 0, 0
2, 600.00000, 0.493185, 0.210096, 0.526289, 0.224198, 0.488666, 0.208171, 0, 0
2, 660.00000, 0.493185, 0.210096, 0.526289, 0.224198, 0.488666, 0.208171, 0, 0
2, 720.00000, 0.493185, 0.210096, 0.526289, 0.224198, 0.488666, 0.208171, 0, 0
2, 780.00000, 0.493185, 0.210096, 0.526289, 0.224198, 0.488666, 0.208171, 0, 0
2, 840.00000, 0.493763, 0.210342, 0.526289, 0.224198, 0.501596, 0.213679, 0, 0
2, 900.00000, 0.493763, 0.210342, 0.526289, 0.224198, 0.501596, 0.213679, 0, 0
2, 960.00000, 0.493763, 0.210342, 0.526289, 0.224198, 0.501596, 0.213679, 0, 0
2, 1020.00000, 0.493763, 0.210342, 0.526289, 0.224198, 0.501596, 0.213679, 0, 0
2, 1080.00000, 0.493763, 0.210342, 0.526289, 0.224198, 0.501596, 0.213679, 0, 0
2, 1140.00000, 0.493763, 0.210342, 0.526289, 0.224198, 0.501596, 0.213679, 0, 0
2, 1200.00000, 0.493763, 0.210342, 0.526289, 0.224198, 0.501596, 0.213679, 0, 0
2, 1260.00000, 0.493763, 0.210342, 0.526289, 0.224198, 0.501596, 0.213679, 0, 0
2, 1320.00000, 0.493763, 0.210342, 0.526289, 0.224198, 0.501596, 0.213679, 0, 0
2, 1380.00000, 0.493763, 0.210342, 0.526289, 0.224198, 0.501596, 0.213679, 0, 0
2, 1440.00000, 0.493763, 0.210342, 0.526289, 0.224198, 0.501596, 0.213679, 0, 0
2, 1500.00000, 0.493763, 0.210342, 0.526289, 0.224198, 0.501596, 0.213679, 0, 0
2, 1560.00000, 0.493763, 0.210342, 0.526289, 0.224198, 0.501596, 0.213679, 0, 0
2, 1620.00000, 0.493763, 0.210342, 0.526289, 0.224198, 0.501596, 0.213679, 0, 0
2, 1680.00000, 0.493763, 0.210342, 0.526289, 0.224198, 0.501596, 0.213679, 0, 0
2, 1740.00000, 0.493763, 0.210342, 0.526289, 0.224198, 0.501596, 0.213679, 0, 0
2, 1800.00000, 0.493763, 0.210342, 0.526289, 0.224198, 0.501596, 0.213679, 0, 0
2, 1860.00000, 0.493763, 0.210342, 0.526289, 0.224198, 0.501596, 0.213679, 0, 0
2, 1920.00000, 0.493763, 0.210342, 0.526289, 0.224198, 0.501596, 0.213679, 0, 0
2, 1980.00000, 0.493763, 0.210342, 0.526289, 0.224198, 0.501596, 0.213679, 0, 0
2, 2040.00000, 0.493763, 0.210342, 0.526289, 0.224198, 0.501596, 0.213679, 0, 0
2, 2100.00000, 0.493763, 0.210342, 0.526289, 0.224198, 0.501596, 0.213679, 0, 0
2, 2160.00000, 0.493763, 0.210342, 0.526289, 0.224198, 0.501596, 0.213679, 0, 0
2, 2220.00000, 0.493763, 0.210342, 0.526289, 0.224198, 0.501596, 0.213679, 0, 0
2, 2280.00000, 0.493763, 0.210342, 0.526289, 0.224198, 0.501596, 0.213679, 0, 0
2, 2340.00000, 0.493763, 0.210342, 0.526289, 0.224198, 0.501596, 0.213679, 0, 0
2, 2400.00000, 0.496542, 0.211526, 0.526289, 0.224198, 0.500981, 0.213417, 0, 0
2, 2460.00000, 0.496542, 0.211526, 0.526289, 0.224198, 0.50098, 0.213417, 0, 0
2, 2520.00000, 0.496542, 0.211526, 0.526289, 0.224198, 0.50098, 0.213417, 0, 0
2, 2580.00000, 0.496542, 0.211526, 0.526289, 0.224198, 0.50098, 0.213417, 0, 0
2, 2640.00000, 0.496542, 0.211526, 0.526289, 0.224198, 0.50098, 0.213417, 0, 0
2, 2700.00000, 0.489745, 0.208631, 0.526289, 0.224198, 0.501963, 0.213835, 0, 0
2, 2760.00000, 0.489745, 0.20863, 0.526289, 0.224198, 0.501963, 0.213836, 0, 0
2, 2820.00000, 0.489745, 0.20863, 0.526289, 0.224198, 0.501963, 0.213836, 0, 0
2, 2880.00000, 0.489745, 0.20863, 0.526289, 0.224198, 0.501963, 0.213836, 0, 0
2, 2940.00000, 0.489745, 0.20863, 0.526289, 0.224198, 0.501963, 0.213836, 0, 0
2, 3000.00000, 0.489745, 0.20863, 0.526289, 0.224198, 0.501963, 0.213836, 0, 0
2, 3060.00000, 0.492699, 0.209889, 0.526289, 0.224198, 0.503126, 0.214331, 0, 0
2, 3120.00000, 0.492699, 0.209889, 0.526289, 0.224198, 0.503126, 0.214331, 0, 0
2, 3180.00000, 0.492699, 0.209889, 0.526289, 0.224198, 0.503126, 0.214331, 0, 0
2, 3240.00000, 0.492699, 0.209889, 0.526289, 0.224198, 0.503126, 0.214331, 0, 0
2, 3300.00000, 0.492699, 0.209889, 0.526289, 0.224198, 0.503126, 0.214331, 0, 0
2, 3360.00000, 0.492699, 0.209889, 0.526289, 0.224198, 0.503126, 0.214331, 0, 0
2, 3420.00000, 0.492699, 0.209889, 0.526289, 0.224198, 0.503126, 0.214331, 0, 0
2, 3480.00000, 0.492699, 0.209889, 0.526289, 0.224198, 0.503126, 0.214331, 0, 0
2, 3540.00000, 0.492699, 0.209889, 0.526289, 0.224198, 0.503126, 0.214331, 0, 0
3, 0.00000, 0.492699, 0.209889, 0.526289, 0.224198, 0.503126, 0.214331, 0, 0
3, 60.00000, 0.492699, 0.209889, 0.526289, 0.224198, 0.503126, 0.214331, 0, 0
3, 120.00000, 0.492699, 0.209889, 0.526289, 0.224198, 0.503126, 0.214331, 0, 0
3, 180.00000, 0.492699, 0.209889, 0.526289, 0.224198, 0.503126, 0.214331, 0, 0
3, 240.00000, 0.492699, 0.209889, 0.526289, 0.224198, 0.503126, 0.214331, 0, 0
3, 300.00000, 0.492699, 0.209889, 0.526289, 0.224198, 0.503126, 0.214331, 0, 0
3, 360.00000, 0.492699, 0.209889, 0.526289, 0.224198, 0.503126, 0.214331, 0, 0
3, 420.00000, 0.492699, 0.209889, 0.526289, 0.224198, 0.503126, 0.214331, 0, 0
3, 480.00000, 0.492699, 0.209889, 0.526289, 0.224198, 0.503126, 0.214331, 0, 0
3, 540.00000, 0.492699, 0.209889, 0.526289, 0.224198, 0.503126, 0.214331, 0, 0
3, 600.00000, 0.492699, 0.209889, 0.526289, 0.224198, 0.503126, 0.214331, 0, 0
3, 660.00000, 0.492699, 0.209889, 0.526289, 0.224198, 0.503126, 0.214331, 0, 0
3, 720.00000, 0.492699, 0.209889, 0.526289, 0.224198, 0.503126, 0.214331, 0, 0
3, 780.00000, 0.492699, 0.209889, 0.526289, 0.224198, 0.503126, 0.214331, 0, 0
3, 840.00000, 0.492699, 0.209889, 0.526289, 0.224198, 0.503126, 0.214331, 0, 0
3, 900.00000, 0.492699, 0.209889, 0.526289, 0.224198, 0.503126, 0.214331, 0, 0
3, 960.00000, 0.492699, 0.209889, 0.526289, 0.224198, 0.503126, 0.214331, 0, 0
3, 1020.00000, 0.492699, 0.209889, 0.526289, 0.224198, 0.503126, 0.214331, 0, 0
3, 1080.00000, 0.492699, 0.209889, 0.526289, 0.224198, 0.503126, 0.214331, 0, 0
3, 1140.00000, 0.492699, 0.209889, 0.526289, 0.224198, 0.503126, 0.214331, 0, 0
3, 1200.00000, 0.492699, 0.209889, 0.526289, 0.224198, 0.503126, 0.214331, 0, 0
3, 1260.00000, 0.492699, 0.209889, 0.526289, 0.224198, 0.503126, 0.214331, 0, 0
3, 1320.00000, 0.492699, 0.209889, 0.526289, 0.224198, 0.503126, 0.214331, 0, 0
3, 1380.00000, 0.492699, 0.209889, 0.526289, 0.224198, 0.503126, 0.214331, 0, 0
3, 1440.00000, 0.492699, 0.209889, 0.526289, 0.224198, 0.503126, 0.214331, 0, 0
3, 1500.00000, 0.492699, 0.209889, 0.526289, 0.224198, 0.503126, 0.214331, 0, 0
3, 1560.00000, 0.492699, 0.209889, 0.526289, 0.224198, 0.503126, 0.214331, 0, 0
3, 1620.00000, 0.492699, 0.209889, 0.526289, 0.224198, 0.503126, 0.214331, 0, 0
3, 1680.00000, 0.492699, 0.209889, 0.526289, 0.224198, 0.503126, 0.214331, 0, 0
3, 1740.00000, 0.492699, 0.209889, 0.526289, 0.224198, 0.503126, 0.214331, 0, 0
3, 1800.00000, 0.492699, 0.209889, 0.526289, 0.224198, 0.503126, 0.214331, 0, 0
3, 1860.00000, 0.492699, 0.209889, 0.526289, 0.224198, 0.503126, 0.214331, 0, 0
3, 1920.00000, 0.492699, 0.209889, 0.526289, 0.224198, 0.503126, 0.214331, 0, 0
3, 1980.00000, 0.492699, 0.209889, 0.526289, 0.224198, 0.503126, 0.214331, 0, 0
3, 2040.00000, 0.492699, 0.209889, 0.526289, 0.224198, 0.503126, 0.214331, 0, 0
3, 2100.00000, 0.492699, 0.209889, 0.526289, 0.224198, 0.503126, 0.214331, 0, 0
3, 2160.00000, 0.492699, 0.209889, 0.526289, 0.224198, 0.503126, 0.214331, 0, 0
3, 2220.00000, 0.492699, 0.209889, 0.526289, 0.224198, 0.503126, 0.214331, 0, 0
3, 2280.00000, 0.492699, 0.209889, 0.526289, 0.224198, 0.503126, 0.214331, 0, 0
3, 2340.00000, 0.492699, 0.209889, 0.526289, 0.224198, 0.503126, 0.214331, 0, 0
3, 2400.00000, 0.492699, 0.209889, 0.526289, 0.224198, 0.503126, 0.214331, 0, 0
3, 2460.00000, 0.492699, 0.209889, 0.526289, 0.224198, 0.503126, 0.214331, 0, 0
3, 2520.00000, 0.492699, 0.209889, 0.526289, 0.224198, 0.503126, 0.214331, 0, 0
3, 2580.00000, 0.492699, 0.209889, 0.526289, 0.224198, 0.503126, 0.214331, 0, 0
3, 2640.00000, 0.492699, 0.209889, 0.526289, 0.224198, 0.503126, 0.214331, 0, 0
3, 2700.00000, 0.492699, 0.209889, 0.526289, 0.224198, 0.503126, 0.214331, 0, 0
3, 2760.00000, 0.492699, 0.209889, 0.526289, 0.224198, 0.503126, 0.214331, 0, 0
3, 2820.00000, 0.492699, 0.209889, 0.526289, 0.224198, 0.503126, 0.214331, 0, 0
3, 2880.00000, 0.492699, 0.209889, 0.526289, 0.224198, 0.503126, 0.214331, 0, 0
3, 2940.00000, 0.492699, 0.209889, 0.526289, 0.224198, 0.503126, 0.214331, 0, 0
3, 3000.00000, 0.492699, 0.209889, 0.526289, 0.224198, 0.503126, 0.214331, 0, 0
3, 3060.00000, 0.492699, 0.209889, 0.526289, 0.224198, 0.503126, 0.214331, 0, 0
3, 3120.00000, 0.492699, 0.209889, 0.526289, 0.224198, 0.503126, 0.214331, 0, 0
3, 3180.00000, 0.406852, 0.173319, 0.435904, 0.185694, 0.415565, 0.17703, 0, 0
3, 3240.00000, 0.406852, 0.173318, 0.435904, 0.185695, 0.415566, 0.17703, 0, 0
3, 3300.00000, 0.406852, 0.173318, 0.435904, 0.185695, 0.415566, 0.17703, 0, 0
3, 3360.00000, 0.406852, 0.173318, 0.435904, 0.185695, 0.415566, 0.17703, 0, 0
3, 3420.00000, 0.406852, 0.173318, 0.435904, 0.185695, 0.415566, 0.17703, 0, 0
3, 3480.00000, 0.406852, 0.173318, 0.435904, 0.185695, 0.415566, 0.17703, 0, 0
3, 3540.00000, 0.406852, 0.173318, 0.435904, 0.185695, 0.415566, 0.17703, 0, 0
4, 0.00000, 0.406852, 0.173318, 0.435904, 0.185695, 0.415566, 0.17703, 0, 0
4, 60.00000, 0.406852, 0.173318, 0.435904, 0.185695, 0.415566, 0.17703, 0, 0
4, 120.00000, 0.406852, 0.173318, 0.435904, 0.185695, 0.415566, 0.17703, 0, 0
4, 180.00000, 0.406852, 0.173318, 0.435904, 0.185695, 0.415566, 0.17703, 0, 0
4, 240.00000, 0.406852, 0.173318, 0.435904, 0.185695, 0.415566, 0.17703, 0, 0
4, 300.00000, 0.406852, 0.173318, 0.435904, 0.185695, 0.415566, 0.17703, 0, 0
4, 360.00000, 0.406852, 0.173318, 0.435904, 0.185695, 0.415566, 0.17703, 0, 0
4, 420.00000, 0.406852, 0.173318, 0.435904, 0.185695, 0.415566, 0.17703, 0, 0
4, 480.00000, 0.406852, 0.173318, 0.435904, 0.185695, 0.415566, 0.17703, 0, 0
4, 540.00000, 0.406852, 0.173318, 0.435904, 0.185695, 0.415566, 0.17703, 0, 0
4, 600.00000, 0.406852, 0.173318, 0.435904, 0.185695, 0.415566, 0.17703, 0, 0
