hour,t(sec),"P1 (kW)","Q1 (kvar)","P2 (kW)","Q2 (kvar)","P3 (kW)","Q3 (kvar)","P4 (kW)","Q4 (kvar)"
0, 60.00000, 0.828095, 0.352764, 0.851834, 0.362878, 0.841412, 0.358434, 0, 0
0, 120.00000, 0.828089, 0.352764, 0.851829, 0.362878, 0.841402, 0.358436, 0, 0
0, 180.00000, 0.828089, 0.352764, 0.851829, 0.362878, 0.841402, 0.358436, 0, 0
0, 240.00000, 0.828089, 0.352764, 0.851829, 0.362878, 0.841402, 0.358436, 0, 0
0, 300.00000, 0.828089, 0.352764, 0.851829, 0.362878, 0.841402, 0.358436, 0, 0
0, 360.00000, 0.828089, 0.352764, 0.851829, 0.362878, 0.841402, 0.358436, 0, 0
0, 420.00000, 0.828089, 0.352764, 0.851829, 0.362878, 0.841402, 0.358436, 0, 0
0, 480.00000, 0.880933, 0.375278, 0.90581, 0.385877, 0.89431, 0.380983, 0, 0
0, 540.00000, 0.880939, 0.375279, 0.905822, 0.385878, 0.89432, 0.380979, 0, 0
0, 600.00000, 0.880939, 0.375279, 0.905822, 0.385878, 0.89432, 0.380979, 0, 0
0, 660.00000, 0.880939, 0.375279, 0.905822, 0.385878, 0.89432, 0.380979, 0, 0
0, 720.00000, 0.880939, 0.375279, 0.905822, 0.385878, 0.89432, 0.380979, 0, 0
0, 780.00000, 0.880939, 0.375279, 0.905822, 0.385878, 0.89432, 0.380979, 0, 0
0, 840.00000, 0.880939, 0.375279, 0.905822, 0.385878, 0.89432, 0.380979, 0, 0
0, 900.00000, 0.880939, 0.375279, 0.905822, 0.385878, 0.89432, 0.380979, 0, 0
0, 960.00000, 0.866505, 0.369129, 0.905958, 0.385937, 0.88266, 0.376008, 0, 0
0, 1020.00000, 0.866499, 0.369127, 0.905959, 0.385937, 0.882654, 0.376009, 0, 0
0, 1080.00000, 0.866499, 0.369127, 0.905959, 0.385937, 0.882654, 0.376009, 0, 0
0, 1140.00000, 0.866499, 0.369127, 0.905959, 0.385937, 0.882654, 0.376009, 0, 0
0, 1200.00000, 0.866499, 0.369127, 0.905959, 0.385937, 0.882654, 0.376009, 0, 0
0, 1260.00000, 0.866499, 0.369127, 0.905959, 0.385937, 0.882654, 0.376009, 0, 0
0, 1320.00000, 0.866499, 0.369127, 0.905959, 0.385937, 0.882654, 0.376009, 0, 0
0, 1380.00000, 0.866499, 0.369127, 0.905959, 0.385937, 0.882654, 0.376009, 0, 0
0, 1440.00000, 0.866499, 0.369127, 0.905959, 0.385937, 0.882654, 0.376009, 0, 0
0, 1500.00000, 0.866499, 0.369127, 0.905959, 0.385937, 0.882654, 0.376009, 0, 0
0, 1560.00000, 0.866499, 0.369127, 0.905959, 0.385937, 0.882654, 0.376009, 0, 0
0, 1620.00000, 0.866499, 0.369127, 0.905959, 0.385937, 0.882654, 0.376009, 0, 0
0, 1680.00000, 0.866499, 0.369127, 0.905959, 0.385937, 0.882654, 0.376009, 0, 0
0, 1740.00000, 0.866499, 0.369127, 0.905959, 0.385937, 0.882654, 0.376009, 0, 0
0, 1800.00000, 0.851125, 0.362578, 0.906097, 0.385996, 0.869776, 0.370517, 0, 0
0, 1860.00000, 0.851117, 0.362574, 0.906098, 0.385996, 0.869768, 0.37052, 0, 0
0, 1920.00000, 0.851117, 0.362574, 0.906098, 0.385996, 0.869768, 0.37052, 0, 0
0, 1980.00000, 0.851117, 0.362574, 0.906098, 0.385996, 0.869768, 0.37052, 0, 0
0, 2040.00000, 0.851117, 0.362574, 0.906098, 0.385996, 0.869768, 0.37052, 0, 0
0, 2100.00000, 0.851117, 0.362574, 0.906098, 0.385996, 0.869768, 0.37052, 0, 0
0, 2160.00000, 0.851117, 0.362574, 0.906098, 0.385996, 0.869768, 0.37052, 0, 0
0, 2220.00000, 0.851117, 0.362574, 0.906098, 0.385996, 0.869768, 0.37052, 0, 0
0, 2280.00000, 0.851117, 0.362574, 0.906098, 0.385996, 0.869768, 0.37052, 0, 0
0, 2340.00000, 0.851117, 0.362574, 0.906098, 0.385996, 0.869768, 0.37052, 0, 0
0, 2400.00000, 0.851117, 0.362574, 0.906098, 0.385996, 0.869768, 0.37052, 0, 0
0, 2460.00000, 0.851117, 0.362574, 0.906098, 0.385996, 0.869768, 0.37052, 0, 0
0, 2520.00000, 0.851117, 0.362574, 0.906098, 0.385996, 0.869768, 0.37052, 0, 0
0, 2580.00000, 0.851117, 0.362574, 0.906098, 0.385996, 0.869768, 0.37052, 0, 0
0, 2640.00000, 0.851117, 0.362574, 0.906098, 0.385996, 0.869768, 0.37052, 0, 0
0, 2700.00000, 0.851117, 0.362574, 0.906098, 0.385996, 0.869768, 0.37052, 0, 0
0, 2760.00000, 0.856013, 0.364664, 0.906086, 0.38599, 0.871677, 0.371338, 0, 0
0, 2820.00000, 0.85602, 0.364663, 0.906084, 0.38599, 0.871685, 0.371336, 0, 0
0, 2880.00000, 0.85602, 0.364663, 0.906084, 0.38599, 0.871685, 0.371336, 0, 0
0, 2940.00000, 0.85602, 0.364663, 0.906084, 0.38599, 0.871685, 0.371336, 0, 0
0, 3000.00000, 0.85602, 0.364663, 0.906084, 0.38599, 0.871685, 0.371336, 0, 0
0, 3060.00000, 0.85602, 0.364663, 0.906084, 0.38599, 0.871685, 0.371336, 0, 0
0, 3120.00000, 0.85602, 0.364663, 0.906084, 0.38599, 0.871685, 0.371336, 0, 0
0, 3180.00000, 0.85602, 0.364663, 0.906084, 0.38599, 0.871685, 0.371336, 0, 0
0, 3240.00000, 0.85602, 0.364663, 0.906084, 0.38599, 0.871685, 0.371336, 0, 0
0, 3300.00000, 0.85602, 0.364663, 0.906084, 0.38599, 0.871685, 0.371336, 0, 0
0, 3360.00000, 0.85602, 0.364663, 0.906084, 0.38599, 0.871685, 0.371336, 0, 0
0, 3420.00000, 0.85602, 0.364663, 0.906084, 0.38599, 0.871685, 0.371336, 0, 0
0, 3480.00000, 0.85602, 0.364663, 0.906084, 0.38599, 0.871685, 0.371336, 0, 0
0, 3540.00000, 0.85602, 0.364663, 0.906084, 0.38599, 0.871685, 0.371336, 0, 0
1, 0.00000, 0.85602, 0.364663, 0.906084, 0.38599, 0.871685, 0.371336, 0, 0
1, 60.00000, 0.860455, 0.366555, 0.906092, 0.385993, 0.873177, 0.371975, 0, 0
1, 120.00000, 0.86046, 0.366554, 0.906092, 0.385993, 0.873181, 0.371974, 0, 0
1, 180.00000, 0.86046, 0.366554, 0.906092, 0.385993, 0.873181, 0.371974, 0, 0
1, 240.00000, 0.86046, 0.366554, 0.906092, 0.385993, 0.873181, 0.371974, 0, 0
1, 300.00000, 0.86046, 0.366554, 0.906092, 0.385993, 0.873181, 0.371974, 0, 0
1, 360.00000, 0.86046, 0.366554, 0.906092, 0.385993, 0.873181, 0.371974, 0, 0
1, 420.00000, 0.86046, 0.366554, 0.906092, 0.385993, 0.873181, 0.371974, 0, 0
1, 480.00000, 0.86046, 0.366554, 0.906092, 0.385993, 0.873181, 0.371974, 0, 0
1, 540.00000, 0.86046, 0.366554, 0.906092, 0.385993, 0.873181, 0.371974, 0, 0
1, 600.00000, 0.86046, 0.366554, 0.906092, 0.385993, 0.873181, 0.371974, 0, 0
1, 660.00000, 0.86046, 0.366554, 0.906092, 0.385993, 0.873181, 0.371974, 0, 0
1, 720.00000, 0.86046, 0.366554, 0.906092, 0.385993, 0.873181, 0.371974, 0, 0
1, 780.00000, 0.868886, 0.370147, 0.906152, 0.386019, 0.878099, 0.374071, 0, 0
1, 840.00000, 0.868893, 0.370147, 0.906151, 0.386019, 0.878102, 0.37407, 0, 0
1, 900.00000, 0.868893, 0.370147, 0.906151, 0.386019, 0.878102, 0.37407, 0, 0
1, 960.00000, 0.868893, 0.370147, 0.906151, 0.386019, 0.878102, 0.37407, 0, 0
1, 1020.00000, 0.868893, 0.370147, 0.906151, 0.386019, 0.878102, 0.37407, 0, 0
1, 1080.00000, 0.868893, 0.370147, 0.906151, 0.386019, 0.878102, 0.37407, 0, 0
1, 1140.00000, 0.868893, 0.370147, 0.906151, 0.386019, 0.878102, 0.37407, 0, 0
1, 1200.00000, 0.868893, 0.370147, 0.906151, 0.386019, 0.878102, 0.37407, 0, 0
1, 1260.00000, 0.868893, 0.370147, 0.906151, 0.386019, 0.878102, 0.37407, 0, 0
1, 1320.00000, 0.868893, 0.370147, 0.906151, 0.386019, 0.878102, 0.37407, 0, 0
1, 1380.00000, 0.868893, 0.370147, 0.906151, 0.386019, 0.878102, 0.37407, 0, 0
1, 1440.00000, 0.868893, 0.370147, 0.906151, 0.386019, 0.878102, 0.37407, 0, 0
1, 1500.00000, 0.868893, 0.370147, 0.906151, 0.386019, 0.878102, 0.37407, 0, 0
1, 1560.00000, 0.868893, 0.370147, 0.906151, 0.386019, 0.878102, 0.37407, 0, 0
1, 1620.00000, 0.868893, 0.370147, 0.906151, 0.386019, 0.878102, 0.37407, 0, 0
1, 1680.00000, 0.868893, 0.370147, 0.906151, 0.386019, 0.878102, 0.37407, 0, 0
1, 1740.00000, 0.868893, 0.370147, 0.906151, 0.386019, 0.878102, 0.37407, 0, 0
1, 1800.00000, 0.868893, 0.370147, 0.906151, 0.386019, 0.878102, 0.37407, 0, 0
1, 1860.00000, 0.868893, 0.370147, 0.906151, 0.386019, 0.878102, 0.37407, 0, 0
1, 1920.00000, 0.868893, 0.370147, 0.906151, 0.386019, 0.878102, 0.37407, 0, 0
1, 1980.00000, 0.868893, 0.370147, 0.906151, 0.386019, 0.878102, 0.37407, 0, 0
1, 2040.00000, 0.868893, 0.370147, 0.906151, 0.386019, 0.878102, 0.37407, 0, 0
1, 2100.00000, 0.868893, 0.370147, 0.906151, 0.386019, 0.878102, 0.37407, 0, 0
1, 2160.00000, 0.868893, 0.370147, 0.906151, 0.386019, 0.878102, 0.37407, 0, 0
1, 2220.00000, 0.884865, 0.376954, 0.905986, 0.385949, 0.891188, 0.379646, 0, 0
1, 2280.00000, 0.884873, 0.376954, 0.905985, 0.385948, 0.891191, 0.379646, 0, 0
1, 2340.00000, 0.884873, 0.376954, 0.905985, 0.385948, 0.891191, 0.379646, 0, 0
1, 2400.00000, 0.884873, 0.376954, 0.905985, 0.385948, 0.891191, 0.379646, 0, 0
1, 2460.00000, 0.884873, 0.376954, 0.905985, 0.385948, 0.891191, 0.379646, 0, 0
1, 2520.00000, 0.884873, 0.376954, 0.905985, 0.385948, 0.891191, 0.379646, 0, 0
1, 2580.00000, 0.884873, 0.376954, 0.905985, 0.385948, 0.891191, 0.379646, 0, 0
1, 2640.00000, 0.884873, 0.376954, 0.905985, 0.385948, 0.891191, 0.379646, 0, 0
1, 2700.00000, 0.884873, 0.376954, 0.905985, 0.385948, 0.891191, 0.379646, 0, 0
1, 2760.00000, 0.884873, 0.376954, 0.905985, 0.385948, 0.891191, 0.379646, 0, 0
1, 2820.00000, 0.884873, 0.376954, 0.905985, 0.385948, 0.891191, 0.379646, 0, 0
1, 2880.00000, 0.884873, 0.376954, 0.905985, 0.385948, 0.891191, 0.379646, 0, 0
1, 2940.00000, 0.884873, 0.376954, 0.905985, 0.385948, 0.891191, 0.379646, 0, 0
1, 3000.00000, 0.884873, 0.376954, 0.905985, 0.385948, 0.891191, 0.379646, 0, 0
1, 3060.00000, 0.884873, 0.376954, 0.905985, 0.385948, 0.891191, 0.379646, 0, 0
1, 3120.00000, 0.884873, 0.376954, 0.905985, 0.385948, 0.891191, 0.379646, 0, 0
1, 3180.00000, 0.884873, 0.376954, 0.905985, 0.385948, 0.891191, 0.379646, 0, 0
1, 3240.00000, 0.884873, 0.376954, 0.905985, 0.385948, 0.891191, 0.379646, 0, 0
1, 3300.00000, 0.884873, 0.376954, 0.905985, 0.385948, 0.891191, 0.379646, 0, 0
1, 3360.00000, 0.884873, 0.376954, 0.905985, 0.385948, 0.891191, 0.379646, 0, 0
1, 3420.00000, 0.884873, 0.376954, 0.905985, 0.385948, 0.891191, 0.379646, 0, 0
1, 3480.00000, 0.884873, 0.376954, 0.905985, 0.385948, 0.891191, 0.379646, 0, 0
1, 3540.00000, 0.884873, 0.376954, 0.905985, 0.385948, 0.891191, 0.379646, 0, 0
2, 0.00000, 0.884873, 0.376954, 0.905985, 0.385948, 0.891191, 0.379646, 0, 0
2, 60.00000, 0.884873, 0.376954, 0.905985, 0.385948, 0.891191, 0.379646, 0, 0
2, 120.00000, 0.884873, 0.376954, 0.905985, 0.385948, 0.891191, 0.379646, 0, 0
2, 180.00000, 0.884873, 0.376954, 0.905985, 0.385948, 0.891191, 0.379646, 0, 0
2, 240.00000, 0.884873, 0.376954, 0.905985, 0.385948, 0.891191, 0.379646, 0, 0
2, 300.00000, 0.884873, 0.376954, 0.905985, 0.385948, 0.891191, 0.379646, 0, 0
2, 360.00000, 0.884873, 0.376954, 0.905985, 0.385948, 0.891191, 0.379646, 0, 0
2, 420.00000, 0.884873, 0.376954, 0.905985, 0.385948, 0.891191, 0.379646, 0, 0
2, 480.00000, 0.884873, 0.376954, 0.905985, 0.385948, 0.891191, 0.379646, 0, 0
2, 540.00000, 0.884873, 0.376954, 0.905985, 0.385948, 0.891191, 0.379646, 0, 0
2, 600.00000, 0.884873, 0.376954, 0.905985, 0.385948, 0.891191, 0.379646, 0, 0
2, 660.00000, 0.884873, 0.376954, 0.905985, 0.385948, 0.891191, 0.379646, 0, 0
2, 720.00000, 0.884873, 0.376954, 0.905985, 0.385948, 0.891191, 0.379646, 0, 0
2, 780.00000, 0.884873, 0.376954, 0.905985, 0.385948, 0.891191, 0.379646, 0, 0
2, 840.00000, 0.899802, 0.383319, 0.905836, 0.385885, 0.903038, 0.384695, 0, 0
2, 900.00000, 0.899811, 0.383318, 0.905835, 0.385884, 0.90304, 0.384693, 0, 0
2, 960.00000, 0.899811, 0.383318, 0.905835, 0.385884, 0.90304, 0.384693, 0, 0
2, 1020.00000, 0.899811, 0.383318, 0.905835, 0.385884, 0.90304, 0.384693, 0, 0
2, 1080.00000, 0.899811, 0.383318, 0.905835, 0.385884, 0.90304, 0.384693, 0, 0
2, 1140.00000, 0.899811, 0.383318, 0.905835, 0.385884, 0.90304, 0.384693, 0, 0
2, 1200.00000, 0.899811, 0.383318, 0.905835, 0.385884, 0.90304, 0.384693, 0, 0
2, 1260.00000, 0.899811, 0.383318, 0.905835, 0.385884, 0.90304, 0.384693, 0, 0
2, 1320.00000, 0.899811, 0.383318, 0.905835, 0.385884, 0.90304, 0.384693, 0, 0
2, 1380.00000, 0.899811, 0.383318, 0.905835, 0.385884, 0.90304, 0.384693, 0, 0
2, 1440.00000, 0.899811, 0.383318, 0.905835, 0.385884, 0.90304, 0.384693, 0, 0
2, 1500.00000, 0.899811, 0.383318, 0.905835, 0.385884, 0.90304, 0.384693, 0, 0
2, 1560.00000, 0.899811, 0.383318, 0.905835, 0.385884, 0.90304, 0.384693, 0, 0
2, 1620.00000, 0.899811, 0.383318, 0.905835, 0.385884, 0.90304, 0.384693, 0, 0
2, 1680.00000, 0.899811, 0.383318, 0.905835, 0.385884, 0.90304, 0.384693, 0, 0
2, 1740.00000, 0.899811, 0.383318, 0.905835, 0.385884, 0.90304, 0.384693, 0, 0
2, 1800.00000, 0.899811, 0.383318, 0.905835, 0.385884, 0.90304, 0.384693, 0, 0
2, 1860.00000, 0.899811, 0.383318, 0.905835, 0.385884, 0.90304, 0.384693, 0, 0
2, 1920.00000, 0.899811, 0.383318, 0.905835, 0.385884, 0.90304, 0.384693, 0, 0
2, 1980.00000, 0.899811, 0.383318, 0.905835, 0.385884, 0.90304, 0.384693, 0, 0
2, 2040.00000, 0.899811, 0.383318, 0.905835, 0.385884, 0.90304, 0.384693, 0, 0
2, 2100.00000, 0.899811, 0.383318, 0.905835, 0.385884, 0.90304, 0.384693, 0, 0
2, 2160.00000, 0.899811, 0.383318, 0.905835, 0.385884, 0.90304, 0.384693, 0, 0
2, 2220.00000, 0.899811, 0.383318, 0.905835, 0.385884, 0.90304, 0.384693, 0, 0
2, 2280.00000, 0.899811, 0.383318, 0.905835, 0.385884, 0.90304, 0.384693, 0, 0
2, 2340.00000, 0.899811, 0.383318, 0.905835, 0.385884, 0.90304, 0.384693, 0, 0
2, 2400.00000, 0.909021, 0.387252, 0.905858, 0.385895, 0.90851, 0.38703, 0, 0
2, 2460.00000, 0.909003, 0.387234, 0.905853, 0.385892, 0.908522, 0.387029, 0, 0
2, 2520.00000, 0.909003, 0.387234, 0.905853, 0.385892, 0.908522, 0.387029, 0, 0
2, 2580.00000, 0.909003, 0.387234, 0.905853, 0.385892, 0.908522, 0.387029, 0, 0
2, 2640.00000, 0.909003, 0.387234, 0.905853, 0.385892, 0.908522, 0.387029, 0, 0
2, 2700.00000, 0.89551, 0.381485, 0.889968, 0.379122, 0.909008, 0.387236, 0, 0
2, 2760.00000, 0.895507, 0.381484, 0.889962, 0.379122, 0.909003, 0.387234, 0, 0
2, 2820.00000, 0.895507, 0.381484, 0.889962, 0.379122, 0.909003, 0.387234, 0, 0
2, 2880.00000, 0.895507, 0.381484, 0.889962, 0.379122, 0.909003, 0.387234, 0, 0
2, 2940.00000, 0.895507, 0.381484, 0.889962, 0.379122, 0.909003, 0.387234, 0, 0
2, 3000.00000, 0.895507, 0.381484, 0.889962, 0.379122, 0.909003, 0.387234, 0, 0
2, 3060.00000, 0.90044, 0.383595, 0.889917, 0.379103, 0.909006, 0.38724, 0, 0
2, 3120.00000, 0.900456, 0.383593, 0.889914, 0.379102, 0.909003, 0.387234, 0, 0
2, 3180.00000, 0.900456, 0.383593, 0.889913, 0.379102, 0.909003, 0.387234, 0, 0
2, 3240.00000, 0.900456, 0.383593, 0.889913, 0.379102, 0.909003, 0.387234, 0, 0
2, 3300.00000, 0.900456, 0.383593, 0.889913, 0.379102, 0.909003, 0.387234, 0, 0
2, 3360.00000, 0.900456, 0.383593, 0.889913, 0.379102, 0.909003, 0.387234, 0, 0
2, 3420.00000, 0.900456, 0.383593, 0.889913, 0.379102, 0.909003, 0.387234, 0, 0
2, 3480.00000, 0.900456, 0.383593, 0.889913, 0.379102, 0.909003, 0.387234, 0, 0
2, 3540.00000, 0.900456, 0.383593, 0.889913, 0.379102, 0.909003, 0.387234, 0, 0
3, 0.00000, 0.900456, 0.383593, 0.889913, 0.379102, 0.909003, 0.387234, 0, 0
3, 60.00000, 0.900456, 0.383593, 0.889913, 0.379102, 0.909003, 0.387234, 0, 0
3, 120.00000, 0.900456, 0.383593, 0.889913, 0.379102, 0.909003, 0.387234, 0, 0
3, 180.00000, 0.900456, 0.383593, 0.889913, 0.379102, 0.909003, 0.387234, 0, 0
3, 240.00000, 0.900456, 0.383593, 0.889913, 0.379102, 0.909003, 0.387234, 0, 0
3, 300.00000, 0.900456, 0.383593, 0.889913, 0.379102, 0.909003, 0.387234, 0, 0
3, 360.00000, 0.900456, 0.383593, 0.889913, 0.379102, 0.909003, 0.387234, 0, 0
3, 420.00000, 0.900456, 0.383593, 0.889913, 0.379102, 0.909003, 0.387234, 0, 0
3, 480.00000, 0.900456, 0.383593, 0.889913, 0.379102, 0.909003, 0.387234, 0, 0
3, 540.00000, 0.900456, 0.383593, 0.889913, 0.379102, 0.909003, 0.387234, 0, 0
3, 600.00000, 0.900456, 0.383593, 0.889913, 0.379102, 0.909003, 0.387234, 0, 0
3, 660.00000, 0.900456, 0.383593, 0.889913, 0.379102, 0.909003, 0.387234, 0, 0
3, 720.00000, 0.900456, 0.383593, 0.889913, 0.379102, 0.909003, 0.387234, 0, 0
3, 780.00000, 0.900456, 0.383593, 0.889913, 0.379102, 0.909003, 0.387234, 0, 0
3, 840.00000, 0.900456, 0.383593, 0.889913, 0.379102, 0.909003, 0.387234, 0, 0
3, 900.00000, 0.900456, 0.383593, 0.889913, 0.379102, 0.909003, 0.387234, 0, 0
3, 960.00000, 0.900456, 0.383593, 0.889913, 0.379102, 0.909003, 0.387234, 0, 0
3, 1020.00000, 0.900456, 0.383593, 0.889913, 0.379102, 0.909003, 0.387234, 0, 0
3, 1080.00000, 0.900456, 0.383593, 0.889913, 0.379102, 0.909003, 0.387234, 0, 0
3, 1140.00000, 0.900456, 0.383593, 0.889913, 0.379102, 0.909003, 0.387234, 0, 0
3, 1200.00000, 0.900456, 0.383593, 0.889913, 0.379102, 0.909003, 0.387234, 0, 0
3, 1260.00000, 0.900456, 0.383593, 0.889913, 0.379102, 0.909003, 0.387234, 0, 0
3, 1320.00000, 0.900456, 0.383593, 0.889913, 0.379102, 0.909003, 0.387234, 0, 0
3, 1380.00000, 0.900456, 0.383593, 0.889913, 0.379102, 0.909003, 0.387234, 0, 0
3, 1440.00000, 0.900456, 0.383593, 0.889913, 0.379102, 0.909003, 0.387234, 0, 0
3, 1500.00000, 0.900456, 0.383593, 0.889913, 0.379102, 0.909003, 0.387234, 0, 0
3, 1560.00000, 0.900456, 0.383593, 0.889913, 0.379102, 0.909003, 0.387234, 0, 0
3, 1620.00000, 0.900456, 0.383593, 0.889913, 0.379102, 0.909003, 0.387234, 0, 0
3, 1680.00000, 0.900456, 0.383593, 0.889913, 0.379102, 0.909003, 0.387234, 0, 0
3, 1740.00000, 0.900456, 0.383593, 0.889913, 0.379102, 0.909003, 0.387234, 0, 0
3, 1800.00000, 0.900456, 0.383593, 0.889913, 0.379102, 0.909003, 0.387234, 0, 0
3, 1860.00000, 0.900456, 0.383593, 0.889913, 0.379102, 0.909003, 0.387234, 0, 0
3, 1920.00000, 0.900456, 0.383593, 0.889913, 0.379102, 0.909003, 0.387234, 0, 0
3, 1980.00000, 0.900456, 0.383593, 0.889913, 0.379102, 0.909003, 0.387234, 0, 0
3, 2040.00000, 0.900456, 0.383593, 0.889913, 0.379102, 0.909003, 0.387234, 0, 0
3, 2100.00000, 0.900456, 0.383593, 0.889913, 0.379102, 0.909003, 0.387234, 0, 0
3, 2160.00000, 0.900456, 0.383593, 0.889913, 0.379102, 0.909003, 0.387234, 0, 0
3, 2220.00000, 0.900456, 0.383593, 0.889913, 0.379102, 0.909003, 0.387234, 0, 0
3, 2280.00000, 0.900456, 0.383593, 0.889913, 0.379102, 0.909003, 0.387234, 0, 0
3, 2340.00000, 0.900456, 0.383593, 0.889913, 0.379102, 0.909003, 0.387234, 0, 0
3, 2400.00000, 0.900456, 0.383593, 0.889913, 0.379102, 0.909003, 0.387234, 0, 0
3, 2460.00000, 0.900456, 0.383593, 0.889913, 0.379102, 0.909003, 0.387234, 0, 0
3, 2520.00000, 0.900456, 0.383593, 0.889913, 0.379102, 0.909003, 0.387234, 0, 0
3, 2580.00000, 0.900456, 0.383593, 0.889913, 0.379102, 0.909003, 0.387234, 0, 0
3, 2640.00000, 0.900456, 0.383593, 0.889913, 0.379102, 0.909003, 0.387234, 0, 0
3, 2700.00000, 0.900456, 0.383593, 0.889913, 0.379102, 0.909003, 0.387234, 0, 0
3, 2760.00000, 0.900456, 0.383593, 0.889913, 0.379102, 0.909003, 0.387234, 0, 0
3, 2820.00000, 0.900456, 0.383593, 0.889913, 0.379102, 0.909003, 0.387234, 0, 0
3, 2880.00000, 0.900456, 0.383593, 0.889913, 0.379102, 0.909003, 0.387234, 0, 0
3, 2940.00000, 0.900456, 0.383593, 0.889913, 0.379102, 0.909003, 0.387234, 0, 0
3, 3000.00000, 0.900456, 0.383593, 0.889913, 0.379102, 0.909003, 0.387234, 0, 0
3, 3060.00000, 0.900456, 0.383593, 0.889913, 0.379102, 0.909003, 0.387234, 0, 0
3, 3120.00000, 0.900456, 0.383593, 0.889913, 0.379102, 0.909003, 0.387234, 0, 0
3, 3180.00000, 0.870598, 0.37087, 0.860535, 0.366587, 0.881191, 0.375383, 0, 0
3, 3240.00000, 0.870593, 0.370871, 0.860534, 0.366586, 0.881184, 0.375383, 0, 0
3, 3300.00000, 0.870593, 0.370871, 0.860534, 0.366586, 0.881184, 0.375383, 0, 0
3, 3360.00000, 0.870593, 0.370871, 0.860534, 0.366586, 0.881184, 0.375383, 0, 0
3, 3420.00000, 0.870593, 0.370871, 0.860534, 0.366586, 0.881184, 0.375383, 0, 0
3, 3480.00000, 0.870593, 0.370871, 0.860534, 0.366586, 0.881184, 0.375383, 0, 0
3, 3540.00000, 0.870593, 0.370871, 0.860534, 0.366586, 0.881184, 0.375383, 0, 0
4, 0.00000, 0.870593, 0.370871, 0.860534, 0.366586, 0.881184, 0.375383, 0, 0
4, 60.00000, 0.870593, 0.370871, 0.860534, 0.366586, 0.881184, 0.375383, 0, 0
4, 120.00000, 0.870593, 0.370871, 0.860534, 0.366586, 0.881184, 0.375383, 0, 0
4, 180.00000, 0.870593, 0.370871, 0.860534, 0.366586, 0.881184, 0.375383, 0, 0
4, 240.00000, 0.870593, 0.370871, 0.860534, 0.366586, 0.881184, 0.375383, 0, 0
4, 300.00000, 0.870593, 0.370871, 0.860534, 0.366586, 0.881184, 0.375383, 0, 0
4, 360.00000, 0.870593, 0.370871, 0.860534, 0.366586, 0.881184, 0.375383, 0, 0
4, 420.00000, 0.870593, 0.370871, 0.860534, 0.366586, 0.881184, 0.375383, 0, 0
4, 480.00000, 0.870593, 0.370871, 0.860534, 0.366586, 0.881184, 0.375383, 0, 0
4, 540.00000, 0.870593, 0.370871, 0.860534, 0.366586, 0.881184, 0.375383, 0, 0
4, 600.00000, 0.870593, 0.370871, 0.860534, 0.366586, 0.881184, 0.375383, 0, 0
4, 660.00000, 0.870593, 0.370871, 0.860534, 0.366586, 0.881184, 0.375383, 0, 0
