hour,t(sec),"P1 (kW)","Q1 (kvar)","P2 (kW)","Q2 (kvar)","P3 (kW)","Q3 (kvar)","P4 (kW)","Q4 (kvar)"
0, 60.00000, 0.993722, 0.423319, 0.993723, 0.423321, 0.99372, 0.423319, 0, 0
0, 120.00000, 0.993729, 0.423327, 0.993729, 0.423327, 0.993729, 0.423327, 0, 0
0, 180.00000, 0.993729, 0.423327, 0.993729, 0.423327, 0.993729, 0.423327, 0, 0
0, 240.00000, 0.993729, 0.423327, 0.993729, 0.423327, 0.993729, 0.423327, 0, 0
0, 300.00000, 0.993729, 0.423327, 0.993729, 0.423327, 0.993729, 0.423327, 0, 0
0, 360.00000, 0.993729, 0.423327, 0.993729, 0.423327, 0.993729, 0.423327, 0, 0
0, 420.00000, 0.993729, 0.423327, 0.993729, 0.423327, 0.993729, 0.423327, 0, 0
0, 480.00000, 0.993729, 0.423327, 0.993729, 0.423327, 0.993729, 0.423327, 0, 0
0, 540.00000, 0.993729, 0.423327, 0.993729, 0.423327, 0.993729, 0.423327, 0, 0
0, 600.00000, 0.993729, 0.423327, 0.993729, 0.423327, 0.993729, 0.423327, 0, 0
0, 660.00000, 0.993729, 0.423327, 0.993729, 0.423327, 0.993729, 0.423327, 0, 0
0, 720.00000, 0.993729, 0.423327, 0.993729, 0.423327, 0.993729, 0.423327, 0, 0
0, 780.00000, 0.993729, 0.423327, 0.993729, 0.423327, 0.993729, 0.423327, 0, 0
0, 840.00000, 0.993729, 0.423327, 0.993729, 0.423327, 0.993729, 0.423327, 0, 0
0, 900.00000, 0.993729, 0.423327, 0.993729, 0.423327, 0.993729, 0.423327, 0, 0
0, 960.00000, 1.05123, 0.447816, 1.05124, 0.447824, 1.05123, 0.447822, 0, 0
0, 1020.00000, 1.05124, 0.447825, 1.05124, 0.447825, 1.05124, 0.447825, 0, 0
0, 1080.00000, 1.05124, 0.447825, 1.05124, 0.447825, 1.05124, 0.447825, 0, 0
0, 1140.00000, 1.05124, 0.447825, 1.05124, 0.447825, 1.05124, 0.447825, 0, 0
0, 1200.00000, 1.05124, 0.447825, 1.05124, 0.447825, 1.05124, 0.447825, 0, 0
0, 1260.00000, 1.05124, 0.447825, 1.05124, 0.447825, 1.05124, 0.447825, 0, 0
0, 1320.00000, 1.05124, 0.447825, 1.05124, 0.447825, 1.05124, 0.447825, 0, 0
0, 1380.00000, 1.05124, 0.447825, 1.05124, 0.447825, 1.05124, 0.447825, 0, 0
0, 1440.00000, 1.05124, 0.447825, 1.05124, 0.447825, 1.05124, 0.447825, 0, 0
0, 1500.00000, 1.05124, 0.447825, 1.05124, 0.447825, 1.05124, 0.447825, 0, 0
0, 1560.00000, 1.05124, 0.447825, 1.05124, 0.447825, 1.05124, 0.447825, 0, 0
0, 1620.00000, 1.05124, 0.447825, 1.05124, 0.447825, 1.05124, 0.447825, 0, 0
0, 1680.00000, 1.05124, 0.447825, 1.05124, 0.447825, 1.05124, 0.447825, 0, 0
0, 1740.00000, 1.05124, 0.447825, 1.05124, 0.447825, 1.05124, 0.447825, 0, 0
0, 1800.00000, 1.05124, 0.447825, 1.05124, 0.447825, 1.05124, 0.447825, 0, 0
0, 1860.00000, 1.05447, 0.44922, 1.05445, 0.449213, 1.05446, 0.449213, 0, 0
0, 1920.00000, 1.05443, 0.449185, 1.05443, 0.449185, 1.05443, 0.449185, 0, 0
0, 1980.00000, 1.05443, 0.449185, 1.05443, 0.449185, 1.05443, 0.449185, 0, 0
0, 2040.00000, 1.05443, 0.449185, 1.05443, 0.449185, 1.05443, 0.449185, 0, 0
0, 2100.00000, 1.05443, 0.449185, 1.05443, 0.449185, 1.05443, 0.449185, 0, 0
0, 2160.00000, 1.05443, 0.449185, 1.05443, 0.449185, 1.05443, 0.449185, 0, 0
0, 2220.00000, 1.05443, 0.449185, 1.05443, 0.449185, 1.05443, 0.449185, 0, 0
0, 2280.00000, 1.05443, 0.449185, 1.05443, 0.449185, 1.05443, 0.449185, 0, 0
0, 2340.00000, 1.05443, 0.449185, 1.05443, 0.449185, 1.05443, 0.449185, 0, 0
0, 2400.00000, 1.05443, 0.449185, 1.05443, 0.449185, 1.05443, 0.449185, 0, 0
0, 2460.00000, 1.05443, 0.449185, 1.05443, 0.449185, 1.05443, 0.449185, 0, 0
0, 2520.00000, 1.05443, 0.449185, 1.05443, 0.449185, 1.05443, 0.449185, 0, 0
0, 2580.00000, 1.05443, 0.449185, 1.05443, 0.449185, 1.05443, 0.449185, 0, 0
0, 2640.00000, 1.05443, 0.449185, 1.05443, 0.449185, 1.05443, 0.449185, 0, 0
0, 2700.00000, 1.05443, 0.449185, 1.05443, 0.449185, 1.05443, 0.449185, 0, 0
0, 2760.00000, 1.00292, 0.427244, 1.00292, 0.427242, 1.00292, 0.427243, 0, 0
0, 2820.00000, 1.00291, 0.427239, 1.00291, 0.427239, 1.00291, 0.427239, 0, 0
0, 2880.00000, 1.00291, 0.427239, 1.00291, 0.427239, 1.00291, 0.427239, 0, 0
0, 2940.00000, 1.00291, 0.427239, 1.00291, 0.427239, 1.00291, 0.427239, 0, 0
0, 3000.00000, 1.00291, 0.427239, 1.00291, 0.427239, 1.00291, 0.427239, 0, 0
0, 3060.00000, 1.00291, 0.427239, 1.00291, 0.427239, 1.00291, 0.427239, 0, 0
0, 3120.00000, 1.00291, 0.427239, 1.00291, 0.427239, 1.00291, 0.427239, 0, 0
0, 3180.00000, 1.00291, 0.427239, 1.00291, 0.427239, 1.00291, 0.427239, 0, 0
0, 3240.00000, 1.00291, 0.427239, 1.00291, 0.427239, 1.00291, 0.427239, 0, 0
0, 3300.00000, 1.00291, 0.427239, 1.00291, 0.427239, 1.00291, 0.427239, 0, 0
0, 3360.00000, 1.00291, 0.427239, 1.00291, 0.427239, 1.00291, 0.427239, 0, 0
0, 3420.00000, 1.00291, 0.427239, 1.00291, 0.427239, 1.00291, 0.427239, 0, 0
0, 3480.00000, 1.00291, 0.427239, 1.00291, 0.427239, 1.00291, 0.427239, 0, 0
0, 3540.00000, 1.00292, 0.427246, 1.00291, 0.427239, 1.00292, 0.427239, 0, 0
1, 0.00000, 1.00291, 0.42724, 1.00291, 0.427239, 1.00291, 0.427239, 0, 0
1, 60.00000, 0.99124, 0.422295, 0.991236, 0.422292, 0.991236, 0.422294, 0, 0
1, 120.00000, 0.991189, 0.422245, 0.991189, 0.422245, 0.991189, 0.422245, 0, 0
1, 180.00000, 0.991189, 0.422245, 0.991189, 0.422245, 0.991189, 0.422245, 0, 0
1, 240.00000, 0.991189, 0.422245, 0.991189, 0.422245, 0.991189, 0.422245, 0, 0
1, 300.00000, 0.991189, 0.422245, 0.991189, 0.422245, 0.991189, 0.422245, 0, 0
1, 360.00000, 0.991189, 0.422245, 0.991189, 0.422245, 0.991189, 0.422245, 0, 0
1, 420.00000, 0.991189, 0.422245, 0.991189, 0.422245, 0.991189, 0.422245, 0, 0
1, 480.00000, 0.991189, 0.422245, 0.991189, 0.422245, 0.991189, 0.422245, 0, 0
1, 540.00000, 0.991189, 0.422245, 0.991189, 0.422245, 0.991189, 0.422245, 0, 0
1, 600.00000, 0.991189, 0.422245, 0.991189, 0.422245, 0.991189, 0.422245, 0, 0
1, 660.00000, 0.991189, 0.422245, 0.991189, 0.422245, 0.991189, 0.422245, 0, 0
1, 720.00000, 0.991189, 0.422245, 0.991189, 0.422245, 0.991189, 0.422245, 0, 0
1, 780.00000, 0.991189, 0.422245, 0.991189, 0.422245, 0.991189, 0.422245, 0, 0
1, 840.00000, 0.991189, 0.422245, 0.991189, 0.422245, 0.991189, 0.422245, 0, 0
1, 900.00000, 0.991189, 0.422245, 0.991189, 0.422245, 0.991189, 0.422245, 0, 0
1, 960.00000, 0.986558, 0.420277, 0.986558, 0.420277, 0.986557, 0.420277, 0, 0
1, 1020.00000, 0.98655, 0.420269, 0.98655, 0.420269, 0.98655, 0.420269, 0, 0
1, 1080.00000, 0.98655, 0.420269, 0.98655, 0.420269, 0.98655, 0.420269, 0, 0
1, 1140.00000, 0.98655, 0.420269, 0.98655, 0.420269, 0.98655, 0.420269, 0, 0
1, 1200.00000, 0.98655, 0.420269, 0.98655, 0.420269, 0.98655, 0.420269, 0, 0
1, 1260.00000, 0.98655, 0.420269, 0.98655, 0.420269, 0.98655, 0.420269, 0, 0
1, 1320.00000, 0.98655, 0.420269, 0.98655, 0.420269, 0.98655, 0.420269, 0, 0
1, 1380.00000, 0.98655, 0.420269, 0.98655, 0.420269, 0.98655, 0.420269, 0, 0
1, 1440.00000, 0.98655, 0.420269, 0.98655, 0.420269, 0.98655, 0.420269, 0, 0
1, 1500.00000, 0.98655, 0.420269, 0.98655, 0.420269, 0.98655, 0.420269, 0, 0
1, 1560.00000, 0.98655, 0.420269, 0.98655, 0.420269, 0.98655, 0.420269, 0, 0
1, 1620.00000, 0.98655, 0.420269, 0.98655, 0.420269, 0.98655, 0.420269, 0, 0
1, 1680.00000, 0.98655, 0.420269, 0.98655, 0.420269, 0.98655, 0.420269, 0, 0
1, 1740.00000, 0.98655, 0.420269, 0.98655, 0.420269, 0.98655, 0.420269, 0, 0
1, 1800.00000, 0.98655, 0.420269, 0.98655, 0.420269, 0.98655, 0.420269, 0, 0
1, 1860.00000, 1.01033, 0.430404, 1.01035, 0.430402, 1.01038, 0.430434, 0, 0
1, 1920.00000, 1.01034, 0.430404, 1.01034, 0.430404, 1.01034, 0.430405, 0, 0
1, 1980.00000, 1.01034, 0.430404, 1.01034, 0.430404, 1.01034, 0.430404, 0, 0
1, 2040.00000, 1.01034, 0.430404, 1.01034, 0.430404, 1.01034, 0.430404, 0, 0
1, 2100.00000, 1.01034, 0.430404, 1.01034, 0.430404, 1.01034, 0.430404, 0, 0
1, 2160.00000, 1.01034, 0.430404, 1.01034, 0.430404, 1.01034, 0.430404, 0, 0
1, 2220.00000, 1.01034, 0.430404, 1.01034, 0.430404, 1.01034, 0.430404, 0, 0
1, 2280.00000, 1.01034, 0.430404, 1.01034, 0.430404, 1.01034, 0.430404, 0, 0
1, 2340.00000, 1.01034, 0.430404, 1.01034, 0.430404, 1.01034, 0.430404, 0, 0
1, 2400.00000, 1.01034, 0.430404, 1.01034, 0.430404, 1.01034, 0.430404, 0, 0
1, 2460.00000, 1.01034, 0.430404, 1.01034, 0.430404, 1.01034, 0.430404, 0, 0
1, 2520.00000, 1.01034, 0.430404, 1.01034, 0.430404, 1.01034, 0.430404, 0, 0
1, 2580.00000, 1.01034, 0.430404, 1.01034, 0.430404, 1.01034, 0.430404, 0, 0
1, 2640.00000, 1.01034, 0.430404, 1.01034, 0.430404, 1.01034, 0.430404, 0, 0
1, 2700.00000, 1.01034, 0.430404, 1.01034, 0.430404, 1.01034, 0.430404, 0, 0
1, 2760.00000, 0.952052, 0.405579, 0.952066, 0.405581, 0.952072, 0.405595, 0, 0
1, 2820.00000, 0.952049, 0.405571, 0.952049, 0.405571, 0.952049, 0.405572, 0, 0
1, 2880.00000, 0.952049, 0.405571, 0.952049, 0.405571, 0.952049, 0.405571, 0, 0
1, 2940.00000, 0.952049, 0.405571, 0.952049, 0.405571, 0.952049, 0.405571, 0, 0
1, 3000.00000, 0.952049, 0.405571, 0.952049, 0.405571, 0.952049, 0.405571, 0, 0
1, 3060.00000, 0.952049, 0.405571, 0.952049, 0.405571, 0.952049, 0.405571, 0, 0
1, 3120.00000, 0.952049, 0.405571, 0.952049, 0.405571, 0.952049, 0.405571, 0, 0
1, 3180.00000, 0.952049, 0.405571, 0.952049, 0.405571, 0.952049, 0.405571, 0, 0
1, 3240.00000, 0.952049, 0.405571, 0.952049, 0.405571, 0.952049, 0.405571, 0, 0
1, 3300.00000, 0.952049, 0.405571, 0.952049, 0.405571, 0.952049, 0.405571, 0, 0
1, 3360.00000, 0.952049, 0.405571, 0.952049, 0.405571, 0.952049, 0.405571, 0, 0
1, 3420.00000, 0.952049, 0.405571, 0.952049, 0.405571, 0.952049, 0.405571, 0, 0
1, 3480.00000, 0.952049, 0.405571, 0.952049, 0.405571, 0.952049, 0.405571, 0, 0
1, 3540.00000, 0.952049, 0.405571, 0.952049, 0.405571, 0.952049, 0.405571, 0, 0
2, 0.00000, 0.952049, 0.405571, 0.952049, 0.405571, 0.952049, 0.405571, 0, 0
2, 60.00000, 0.977597, 0.416451, 0.977587, 0.416449, 0.977583, 0.41644, 0, 0
2, 120.00000, 0.977598, 0.416455, 0.977598, 0.416455, 0.977598, 0.416455, 0, 0
2, 180.00000, 0.977598, 0.416455, 0.977598, 0.416455, 0.977598, 0.416455, 0, 0
2, 240.00000, 0.977598, 0.416455, 0.977598, 0.416455, 0.977598, 0.416455, 0, 0
2, 300.00000, 0.977598, 0.416455, 0.977598, 0.416455, 0.977598, 0.416455, 0, 0
2, 360.00000, 0.977598, 0.416455, 0.977598, 0.416455, 0.977598, 0.416455, 0, 0
2, 420.00000, 0.977598, 0.416455, 0.977598, 0.416455, 0.977598, 0.416455, 0, 0
2, 480.00000, 0.977598, 0.416455, 0.977598, 0.416455, 0.977598, 0.416455, 0, 0
2, 540.00000, 0.977598, 0.416455, 0.977598, 0.416455, 0.977598, 0.416455, 0, 0
2, 600.00000, 0.977598, 0.416455, 0.977598, 0.416455, 0.977598, 0.416455, 0, 0
2, 660.00000, 0.977598, 0.416455, 0.977598, 0.416455, 0.977598, 0.416455, 0, 0
2, 720.00000, 0.977598, 0.416455, 0.977598, 0.416455, 0.977598, 0.416455, 0, 0
2, 780.00000, 0.977598, 0.416455, 0.977598, 0.416455, 0.977598, 0.416455, 0, 0
2, 840.00000, 0.977598, 0.416455, 0.977598, 0.416455, 0.977598, 0.416455, 0, 0
2, 900.00000, 0.977598, 0.416455, 0.977598, 0.416455, 0.977598, 0.416455, 0, 0
2, 960.00000, 0.926284, 0.394601, 0.92629, 0.394601, 0.926296, 0.394609, 0, 0
2, 1020.00000, 0.92628, 0.394594, 0.92628, 0.394594, 0.92628, 0.394594, 0, 0
2, 1080.00000, 0.92628, 0.394593, 0.92628, 0.394593, 0.92628, 0.394593, 0, 0
2, 1140.00000, 0.92628, 0.394593, 0.92628, 0.394593, 0.92628, 0.394593, 0, 0
2, 1200.00000, 0.92628, 0.394593, 0.92628, 0.394593, 0.92628, 0.394593, 0, 0
2, 1260.00000, 0.92628, 0.394593, 0.92628, 0.394593, 0.92628, 0.394593, 0, 0
2, 1320.00000, 0.92628, 0.394593, 0.92628, 0.394593, 0.92628, 0.394593, 0, 0
2, 1380.00000, 0.92628, 0.394593, 0.92628, 0.394593, 0.92628, 0.394593, 0, 0
2, 1440.00000, 0.92628, 0.394593, 0.92628, 0.394593, 0.92628, 0.394593, 0, 0
2, 1500.00000, 0.92628, 0.394593, 0.92628, 0.394593, 0.92628, 0.394593, 0, 0
2, 1560.00000, 0.92628, 0.394593, 0.92628, 0.394593, 0.92628, 0.394593, 0, 0
2, 1620.00000, 0.92628, 0.394593, 0.92628, 0.394593, 0.92628, 0.394593, 0, 0
2, 1680.00000, 0.92628, 0.394593, 0.92628, 0.394593, 0.92628, 0.394593, 0, 0
2, 1740.00000, 0.92628, 0.394593, 0.92628, 0.394593, 0.92628, 0.394593, 0, 0
2, 1800.00000, 0.92628, 0.394593, 0.92628, 0.394593, 0.92628, 0.394593, 0, 0
2, 1860.00000, 0.92577, 0.394374, 0.92577, 0.394375, 0.925766, 0.394372, 0, 0
2, 1920.00000, 0.925773, 0.394378, 0.925773, 0.394378, 0.925773, 0.394378, 0, 0
2, 1980.00000, 0.925773, 0.394378, 0.925773, 0.394378, 0.925773, 0.394378, 0, 0
2, 2040.00000, 0.925773, 0.394378, 0.925773, 0.394378, 0.925773, 0.394378, 0, 0
2, 2100.00000, 0.925773, 0.394378, 0.925773, 0.394378, 0.925773, 0.394378, 0, 0
2, 2160.00000, 0.925773, 0.394378, 0.925773, 0.394378, 0.925773, 0.394378, 0, 0
2, 2220.00000, 0.925773, 0.394378, 0.925773, 0.394378, 0.925773, 0.394378, 0, 0
2, 2280.00000, 0.925773, 0.394378, 0.925773, 0.394378, 0.925773, 0.394378, 0, 0
2, 2340.00000, 0.925773, 0.394378, 0.925773, 0.394378, 0.925773, 0.394378, 0, 0
2, 2400.00000, 0.925773, 0.394378, 0.925773, 0.394378, 0.925773, 0.394378, 0, 0
2, 2460.00000, 0.925773, 0.394378, 0.925773, 0.394378, 0.925773, 0.394378, 0, 0
2, 2520.00000, 0.925773, 0.394378, 0.925773, 0.394378, 0.925773, 0.394378, 0, 0
2, 2580.00000, 0.925773, 0.394378, 0.925773, 0.394378, 0.925773, 0.394378, 0, 0
2, 2640.00000, 0.925773, 0.394378, 0.925773, 0.394378, 0.925773, 0.394378, 0, 0
2, 2700.00000, 0.925773, 0.394378, 0.925773, 0.394378, 0.925773, 0.394378, 0, 0
2, 2760.00000, 0.885752, 0.377336, 0.885755, 0.377335, 0.885761, 0.377342, 0, 0
2, 2820.00000, 0.885743, 0.377325, 0.885743, 0.377325, 0.885743, 0.377325, 0, 0
2, 2880.00000, 0.885743, 0.377325, 0.885743, 0.377325, 0.885743, 0.377325, 0, 0
2, 2940.00000, 0.885743, 0.377325, 0.885743, 0.377325, 0.885743, 0.377325, 0, 0
2, 3000.00000, 0.885743, 0.377325, 0.885743, 0.377325, 0.885743, 0.377325, 0, 0
2, 3060.00000, 0.885743, 0.377325, 0.885743, 0.377325, 0.885743, 0.377325, 0, 0
2, 3120.00000, 0.885743, 0.377325, 0.885743, 0.377325, 0.885743, 0.377325, 0, 0
2, 3180.00000, 0.885743, 0.377325, 0.885743, 0.377325, 0.885743, 0.377325, 0, 0
2, 3240.00000, 0.885743, 0.377325, 0.885743, 0.377325, 0.885743, 0.377325, 0, 0
2, 3300.00000, 0.885743, 0.377325, 0.885743, 0.377325, 0.885743, 0.377325, 0, 0
2, 3360.00000, 0.885743, 0.377325, 0.885743, 0.377325, 0.885743, 0.377325, 0, 0
2, 3420.00000, 0.885743, 0.377325, 0.885743, 0.377325, 0.885743, 0.377325, 0, 0
2, 3480.00000, 0.885743, 0.377325, 0.885743, 0.377325, 0.885743, 0.377325, 0, 0
2, 3540.00000, 0.885743, 0.377325, 0.885743, 0.377325, 0.885743, 0.377325, 0, 0
3, 0.00000, 0.885743, 0.377325, 0.885743, 0.377325, 0.885743, 0.377325, 0, 0
3, 60.00000, 0.90826, 0.386913, 0.908259, 0.386914, 0.908256, 0.38691, 0, 0
3, 120.00000, 0.908266, 0.38692, 0.908266, 0.38692, 0.908266, 0.38692, 0, 0
3, 180.00000, 0.908266, 0.38692, 0.908266, 0.38692, 0.908266, 0.38692, 0, 0
3, 240.00000, 0.908266, 0.38692, 0.908266, 0.38692, 0.908266, 0.38692, 0, 0
3, 300.00000, 0.908266, 0.38692, 0.908266, 0.38692, 0.908266, 0.38692, 0, 0
3, 360.00000, 0.908266, 0.38692, 0.908266, 0.38692, 0.908266, 0.38692, 0, 0
3, 420.00000, 0.908266, 0.38692, 0.908266, 0.38692, 0.908266, 0.38692, 0, 0
3, 480.00000, 0.908266, 0.38692, 0.908266, 0.38692, 0.908266, 0.38692, 0, 0
3, 540.00000, 0.908266, 0.38692, 0.908266, 0.38692, 0.908266, 0.38692, 0, 0
3, 600.00000, 0.908266, 0.38692, 0.908266, 0.38692, 0.908266, 0.38692, 0, 0
3, 660.00000, 0.908266, 0.38692, 0.908266, 0.38692, 0.908266, 0.38692, 0, 0
3, 720.00000, 0.908266, 0.38692, 0.908266, 0.38692, 0.908266, 0.38692, 0, 0
3, 780.00000, 0.908266, 0.38692, 0.908266, 0.38692, 0.908266, 0.38692, 0, 0
3, 840.00000, 0.908266, 0.38692, 0.908266, 0.38692, 0.908266, 0.38692, 0, 0
3, 900.00000, 0.908266, 0.38692, 0.908266, 0.38692, 0.908266, 0.38692, 0, 0
3, 960.00000, 0.933238, 0.397568, 0.933238, 0.397566, 0.933245, 0.397571, 0, 0
3, 1020.00000, 0.933222, 0.397551, 0.933222, 0.397551, 0.933222, 0.397551, 0, 0
3, 1080.00000, 0.933222, 0.397551, 0.933222, 0.397551, 0.933222, 0.397551, 0, 0
3, 1140.00000, 0.933222, 0.397551, 0.933222, 0.397551, 0.933222, 0.397551, 0, 0
3, 1200.00000, 0.933222, 0.397551, 0.933222, 0.397551, 0.933222, 0.397551, 0, 0
3, 1260.00000, 0.933222, 0.397551, 0.933222, 0.397551, 0.933222, 0.397551, 0, 0
3, 1320.00000, 0.933222, 0.397551, 0.933222, 0.397551, 0.933222, 0.397551, 0, 0
3, 1380.00000, 0.933222, 0.397551, 0.933222, 0.397551, 0.933222, 0.397551, 0, 0
3, 1440.00000, 0.933222, 0.397551, 0.933222, 0.397551, 0.933222, 0.397551, 0, 0
3, 1500.00000, 0.933222, 0.397551, 0.933222, 0.397551, 0.933222, 0.397551, 0, 0
3, 1560.00000, 0.933222, 0.397551, 0.933222, 0.397551, 0.933222, 0.397551, 0, 0
3, 1620.00000, 0.933222, 0.397551, 0.933222, 0.397551, 0.933222, 0.397551, 0, 0
3, 1680.00000, 0.933222, 0.397551, 0.933222, 0.397551, 0.933222, 0.397551, 0, 0
3, 1740.00000, 0.933222, 0.397551, 0.933222, 0.397551, 0.933222, 0.397551, 0, 0
3, 1800.00000, 0.933222, 0.397551, 0.933222, 0.397551, 0.933222, 0.397551, 0, 0
3, 1860.00000, 0.944649, 0.402427, 0.944647, 0.402427, 0.944648, 0.402426, 0, 0
3, 1920.00000, 0.944633, 0.402412, 0.944633, 0.402412, 0.944633, 0.402412, 0, 0
3, 1980.00000, 0.944633, 0.402412, 0.944633, 0.402412, 0.944633, 0.402412, 0, 0
3, 2040.00000, 0.944633, 0.402412, 0.944633, 0.402412, 0.944633, 0.402412, 0, 0
3, 2100.00000, 0.944633, 0.402412, 0.944633, 0.402412, 0.944633, 0.402412, 0, 0
3, 2160.00000, 0.944633, 0.402412, 0.944633, 0.402412, 0.944633, 0.402412, 0, 0
3, 2220.00000, 0.944633, 0.402412, 0.944633, 0.402412, 0.944633, 0.402412, 0, 0
3, 2280.00000, 0.944633, 0.402412, 0.944633, 0.402412, 0.944633, 0.402412, 0, 0
3, 2340.00000, 0.944633, 0.402412, 0.944633, 0.402412, 0.944633, 0.402412, 0, 0
3, 2400.00000, 0.944633, 0.402412, 0.944633, 0.402412, 0.944633, 0.402412, 0, 0
3, 2460.00000, 0.944633, 0.402412, 0.944633, 0.402412, 0.944633, 0.402412, 0, 0
3, 2520.00000, 0.944633, 0.402412, 0.944633, 0.402412, 0.944633, 0.402412, 0, 0
3, 2580.00000, 0.944633, 0.402412, 0.944633, 0.402412, 0.944633, 0.402412, 0, 0
3, 2640.00000, 0.944633, 0.402412, 0.944633, 0.402412, 0.944633, 0.402412, 0, 0
3, 2700.00000, 0.944633, 0.402412, 0.944633, 0.402412, 0.944633, 0.402412, 0, 0
3, 2760.00000, 0.864421, 0.368249, 0.864421, 0.368248, 0.864426, 0.368252, 0, 0
3, 2820.00000, 0.86441, 0.368237, 0.86441, 0.368237, 0.86441, 0.368237, 0, 0
3, 2880.00000, 0.86441, 0.368237, 0.86441, 0.368237, 0.86441, 0.368237, 0, 0
3, 2940.00000, 0.86441, 0.368237, 0.86441, 0.368237, 0.86441, 0.368237, 0, 0
3, 3000.00000, 0.86441, 0.368237, 0.86441, 0.368237, 0.86441, 0.368237, 0, 0
3, 3060.00000, 0.86441, 0.368237, 0.86441, 0.368237, 0.86441, 0.368237, 0, 0
3, 3120.00000, 0.86441, 0.368237, 0.86441, 0.368237, 0.86441, 0.368237, 0, 0
3, 3180.00000, 0.86441, 0.368237, 0.86441, 0.368237, 0.86441, 0.368237, 0, 0
3, 3240.00000, 0.86441, 0.368237, 0.86441, 0.368237, 0.86441, 0.368237, 0, 0
3, 3300.00000, 0.86441, 0.368237, 0.86441, 0.368237, 0.86441, 0.368237, 0, 0
3, 3360.00000, 0.86441, 0.368237, 0.86441, 0.368237, 0.86441, 0.368237, 0, 0
3, 3420.00000, 0.86441, 0.368237, 0.86441, 0.368237, 0.86441, 0.368237, 0, 0
3, 3480.00000, 0.86441, 0.368237, 0.86441, 0.368237, 0.86441, 0.368237, 0, 0
3, 3540.00000, 0.86441, 0.368237, 0.86441, 0.368237, 0.86441, 0.368237, 0, 0
4, 0.00000, 0.86441, 0.368237, 0.86441, 0.368237, 0.86441, 0.368237, 0, 0
4, 60.00000, 0.924711, 0.39392, 0.924711, 0.393921, 0.924708, 0.393918, 0, 0
4, 120.00000, 0.924719, 0.393929, 0.924719, 0.393929, 0.924719, 0.393928, 0, 0
4, 180.00000, 0.924719, 0.393929, 0.924719, 0.393929, 0.924719, 0.393929, 0, 0
4, 240.00000, 0.924719, 0.393929, 0.924719, 0.393929, 0.924719, 0.393929, 0, 0
4, 300.00000, 0.924719, 0.393929, 0.924719, 0.393929, 0.924719, 0.393929, 0, 0
4, 360.00000, 0.924719, 0.393929, 0.924719, 0.393929, 0.924719, 0.393929, 0, 0
4, 420.00000, 0.924719, 0.393929, 0.924719, 0.393929, 0.924719, 0.393929, 0, 0
4, 480.00000, 0.924719, 0.393929, 0.924719, 0.393929, 0.924719, 0.393929, 0, 0
4, 540.00000, 0.924719, 0.393929, 0.924719, 0.393929, 0.924719, 0.393929, 0, 0
4, 600.00000, 0.924719, 0.393929, 0.924719, 0.393929, 0.924719, 0.393929, 0, 0
4, 660.00000, 0.924719, 0.393929, 0.924719, 0.393929, 0.924719, 0.393929, 0, 0
4, 720.00000, 0.924719, 0.393929, 0.924719, 0.393929, 0.924719, 0.393929, 0, 0
4, 780.00000, 0.924719, 0.393929, 0.924719, 0.393929, 0.924719, 0.393929, 0, 0
4, 840.00000, 0.924719, 0.393929, 0.924719, 0.393929, 0.924719, 0.393929, 0, 0
