hour,t(sec),V1,VAngle1,V2,VAngle2,V3,VAngle3,V4,VAngle4,I1,IAngle1,I2,IAngle2,I3,IAngle3,I4,IAngle4
0, 60.00000, 126.035, -32.1627, 125.039, -151.662, 126.571, 88.4955, 0, 0, 4.49604, -55.2364, 4.53188, -174.736, 4.47709, 65.4215, 0.0948715, 23.5599
0, 120.00000, 126.042, -32.1686, 125.039, -151.662, 126.587, 88.4954, 0, 0, 4.49581, -55.2423, 4.53188, -174.736, 4.47652, 65.4214, 0.0957884, 23.7124
0, 180.00000, 126.047, -32.1739, 125.039, -151.662, 126.601, 88.4953, 0, 0, 4.4956, -55.2476, 4.53188, -174.736, 4.47601, 65.4213, 0.0966132, 23.8477
0, 240.00000, 126.053, -32.1787, 125.039, -151.662, 126.614, 88.4952, 0, 0, 4.49542, -55.2524, 4.53188, -174.735, 4.47555, 65.4212, 0.0973559, 23.9681
0, 300.00000, 126.057, -32.183, 125.039, -151.661, 126.625, 88.4951, 0, 0, 4.49526, -55.2567, 4.53188, -174.735, 4.47514, 65.4211, 0.0980247, 24.0753
0, 360.00000, 126.061, -32.1868, 125.039, -151.661, 126.636, 88.495, 0, 0, 4.49511, -55.2606, 4.53188, -174.735, 4.47477, 65.4211, 0.0986269, 24.1709
0, 420.00000, 126.065, -32.1903, 125.039, -151.661, 126.645, 88.4949, 0, 0, 4.49497, -55.2641, 4.53188, -174.735, 4.47443, 65.421, 0.0991691, 24.2562
0, 480.00000, 126.444, -32.0725, 125.397, -151.534, 127.055, 88.6315, 0, 0, 3.89893, -55.1463, 3.93148, -174.608, 3.8802, 65.5575, 0.0882685, 24.4394
0, 540.00000, 126.447, -32.0754, 125.397, -151.534, 127.063, 88.6315, 0, 0, 3.89883, -55.1492, 3.93148, -174.608, 3.87996, 65.5575, 0.0886592, 24.5071
0, 600.00000, 126.45, -32.078, 125.397, -151.534, 127.07, 88.6314, 0, 0, 3.89875, -55.1517, 3.93148, -174.608, 3.87974, 65.5575, 0.0890096, 24.5676
0, 660.00000, 126.452, -32.0803, 125.397, -151.534, 127.076, 88.6314, 0, 0, 3.89867, -55.1541, 3.93148, -174.608, 3.87955, 65.5574, 0.0893251, 24.6217
0, 720.00000, 126.455, -32.0824, 125.397, -151.534, 127.082, 88.6313, 0, 0, 3.8986, -55.1562, 3.93147, -174.608, 3.87937, 65.5574, 0.089609, 24.6702
0, 780.00000, 126.457, -32.0842, 125.397, -151.534, 127.087, 88.6313, 0, 0, 3.89854, -55.1581, 3.93147, -174.608, 3.87922, 65.5574, 0.0898647, 24.7136
0, 840.00000, 126.458, -32.0859, 125.397, -151.534, 127.092, 88.6313, 0, 0, 3.89848, -55.1598, 3.93147, -174.608, 3.87907, 65.5573, 0.0900948, 24.7526
0, 900.00000, 126.46, -32.0875, 125.397, -151.534, 127.096, 88.6312, 0, 0, 3.89843, -55.1613, 3.93147, -174.608, 3.87895, 65.5573, 0.0903019, 24.7875
0, 960.00000, 126.171, -32.1125, 125.398, -151.535, 126.966, 88.5015, 0, 0, 3.90736, -55.1863, 3.93146, -174.609, 3.8829, 65.4276, 0.0827082, 33.9023
0, 1020.00000, 126.172, -32.1137, 125.398, -151.535, 126.97, 88.5015, 0, 0, 3.90732, -55.1876, 3.93146, -174.609, 3.8828, 65.4276, 0.082877, 33.9143
0, 1080.00000, 126.173, -32.1148, 125.398, -151.535, 126.973, 88.5015, 0, 0, 3.90729, -55.1887, 3.93146, -174.609, 3.88271, 65.4276, 0.0830299, 33.9251
0, 1140.00000, 126.175, -32.1158, 125.398, -151.535, 126.975, 88.5015, 0, 0, 3.90726, -55.1897, 3.93146, -174.609, 3.88262, 65.4276, 0.0831675, 33.9349
0, 1200.00000, 126.175, -32.1167, 125.398, -151.535, 126.978, 88.5014, 0, 0, 3.90723, -55.1905, 3.93146, -174.609, 3.88255, 65.4275, 0.0832914, 33.9436
0, 1260.00000, 126.176, -32.1175, 125.398, -151.535, 126.98, 88.5014, 0, 0, 3.9072, -55.1913, 3.93146, -174.609, 3.88248, 65.4275, 0.0834029, 33.9515
0, 1320.00000, 126.177, -32.1182, 125.398, -151.535, 126.982, 88.5014, 0, 0, 3.90718, -55.1921, 3.93146, -174.609, 3.88242, 65.4275, 0.0835032, 33.9586
0, 1380.00000, 126.178, -32.1188, 125.398, -151.535, 126.984, 88.5014, 0, 0, 3.90716, -55.1927, 3.93146, -174.609, 3.88237, 65.4275, 0.0835935, 33.9649
0, 1440.00000, 126.178, -32.1194, 125.398, -151.535, 126.985, 88.5014, 0, 0, 3.90714, -55.1933, 3.93146, -174.609, 3.88232, 65.4275, 0.0836748, 33.9706
0, 1500.00000, 126.179, -32.1199, 125.398, -151.535, 126.987, 88.5014, 0, 0, 3.90712, -55.1938, 3.93146, -174.609, 3.88228, 65.4275, 0.0837479, 33.9758
0, 1560.00000, 126.179, -32.1204, 125.398, -151.535, 126.988, 88.5014, 0, 0, 3.90711, -55.1943, 3.93146, -174.609, 3.88224, 65.4274, 0.0838138, 33.9804
0, 1620.00000, 126.18, -32.1208, 125.398, -151.535, 126.989, 88.5014, 0, 0, 3.90709, -55.1947, 3.93146, -174.609, 3.8822, 65.4274, 0.083873, 33.9846
0, 1680.00000, 126.18, -32.1212, 125.398, -151.535, 126.99, 88.5013, 0, 0, 3.90708, -55.1951, 3.93146, -174.609, 3.88217, 65.4274, 0.0839263, 33.9883
0, 1740.00000, 126.181, -32.1216, 125.398, -151.535, 126.991, 88.5013, 0, 0, 3.90707, -55.1955, 3.93146, -174.609, 3.88214, 65.4274, 0.0839743, 33.9917
0, 1800.00000, 126.181, -32.1219, 125.398, -151.535, 126.992, 88.5013, 0, 0, 3.90706, -55.1958, 3.93146, -174.609, 3.88212, 65.4274, 0.0840175, 33.9947
0, 1860.00000, 126.181, -32.1221, 125.398, -151.535, 126.993, 88.5013, 0, 0, 3.90705, -55.1961, 3.93146, -174.609, 3.88209, 65.4274, 0.0840564, 33.9974
0, 1920.00000, 126.181, -32.1224, 125.398, -151.535, 126.993, 88.5013, 0, 0, 3.90704, -55.1963, 3.93146, -174.609, 3.88207, 65.4274, 0.0840914, 33.9999
0, 1980.00000, 126.182, -32.1226, 125.398, -151.535, 126.994, 88.5013, 0, 0, 3.90703, -55.1965, 3.93146, -174.609, 3.88205, 65.4274, 0.0841229, 34.0021
0, 2040.00000, 126.182, -32.1228, 125.398, -151.535, 126.994, 88.5013, 0, 0, 3.90703, -55.1967, 3.93146, -174.609, 3.88204, 65.4274, 0.0841512, 34.0041
0, 2100.00000, 126.182, -32.123, 125.398, -151.535, 126.995, 88.5013, 0, 0, 3.90702, -55.1969, 3.93146, -174.609, 3.88202, 65.4274, 0.0841767, 34.0059
0, 2160.00000, 126.182, -32.1232, 125.398, -151.535, 126.995, 88.5013, 0, 0, 3.90702, -55.1971, 3.93146, -174.609, 3.88201, 65.4274, 0.0841997, 34.0075
0, 2220.00000, 126.182, -32.1233, 125.398, -151.535, 126.996, 88.5013, 0, 0, 3.90701, -55.1972, 3.93146, -174.609, 3.88199, 65.4274, 0.0842204, 34.0089
0, 2280.00000, 126.183, -32.1235, 125.398, -151.535, 126.996, 88.5013, 0, 0, 3.90701, -55.1974, 3.93146, -174.609, 3.88198, 65.4274, 0.084239, 34.0102
0, 2340.00000, 126.183, -32.1236, 125.398, -151.535, 126.996, 88.5013, 0, 0, 3.907, -55.1975, 3.93146, -174.609, 3.88197, 65.4274, 0.0842557, 34.0114
0, 2400.00000, 126.183, -32.1237, 125.398, -151.535, 126.997, 88.5013, 0, 0, 3.907, -55.1976, 3.93146, -174.609, 3.88196, 65.4274, 0.0842708, 34.0125
0, 2460.00000, 126.183, -32.1238, 125.398, -151.535, 126.997, 88.5013, 0, 0, 3.907, -55.1977, 3.93146, -174.609, 3.88196, 65.4274, 0.0842843, 34.0134
0, 2520.00000, 126.183, -32.1239, 125.398, -151.535, 126.997, 88.5013, 0, 0, 3.90699, -55.1978, 3.93146, -174.609, 3.88195, 65.4274, 0.0842965, 34.0143
0, 2580.00000, 126.183, -32.1239, 125.398, -151.535, 126.997, 88.5013, 0, 0, 3.90699, -55.1979, 3.93146, -174.609, 3.88194, 65.4274, 0.0843075, 34.015
0, 2640.00000, 126.183, -32.124, 125.398, -151.535, 126.998, 88.5013, 0, 0, 3.90699, -55.1979, 3.93146, -174.609, 3.88194, 65.4274, 0.0843174, 34.0157
0, 2700.00000, 126.183, -32.1241, 125.398, -151.535, 126.998, 88.5013, 0, 0, 3.90699, -55.198, 3.93146, -174.609, 3.88193, 65.4274, 0.0843263, 34.0163
0, 2760.00000, 126.185, -32.125, 125.484, -151.407, 127.301, 88.5399, 0, 0, 3.90692, -55.1989, 3.92877, -174.481, 3.87269, 65.466, 0.096145, 40.8813
0, 2820.00000, 126.186, -32.1251, 125.484, -151.407, 127.301, 88.5399, 0, 0, 3.90692, -55.199, 3.92877, -174.481, 3.87269, 65.466, 0.0961528, 40.8812
0, 2880.00000, 126.186, -32.1251, 125.484, -151.407, 127.301, 88.5399, 0, 0, 3.90692, -55.199, 3.92877, -174.481, 3.87268, 65.466, 0.0961593, 40.8811
0, 2940.00000, 126.186, -32.1252, 125.484, -151.407, 127.301, 88.5399, 0, 0, 3.90691, -55.1991, 3.92877, -174.481, 3.87268, 65.466, 0.0961652, 40.8811
0, 3000.00000, 126.186, -32.1252, 125.484, -151.407, 127.301, 88.5399, 0, 0, 3.90691, -55.1991, 3.92877, -174.481, 3.87268, 65.466, 0.0961704, 40.881
0, 3060.00000, 126.186, -32.1252, 125.484, -151.407, 127.301, 88.5399, 0, 0, 3.90691, -55.1991, 3.92877, -174.481, 3.87267, 65.466, 0.0961752, 40.881
0, 3120.00000, 126.186, -32.1253, 125.484, -151.407, 127.301, 88.5399, 0, 0, 3.90691, -55.1992, 3.92877, -174.481, 3.87267, 65.466, 0.0961794, 40.8809
0, 3180.00000, 126.186, -32.1253, 125.484, -151.407, 127.301, 88.5399, 0, 0, 3.90691, -55.1992, 3.92877, -174.481, 3.87267, 65.466, 0.0961833, 40.8809
0, 3240.00000, 126.186, -32.1253, 125.484, -151.407, 127.302, 88.5399, 0, 0, 3.90691, -55.1992, 3.92877, -174.481, 3.87267, 65.466, 0.0961867, 40.8808
0, 3300.00000, 126.186, -32.1253, 125.484, -151.407, 127.302, 88.5399, 0, 0, 3.90691, -55.1992, 3.92877, -174.481, 3.87267, 65.466, 0.0961898, 40.8808
0, 3360.00000, 126.186, -32.1254, 125.484, -151.407, 127.302, 88.5399, 0, 0, 3.90691, -55.1993, 3.92877, -174.481, 3.87266, 65.466, 0.0961926, 40.8808
0, 3420.00000, 126.186, -32.1254, 125.484, -151.407, 127.302, 88.5399, 0, 0, 3.90691, -55.1993, 3.92877, -174.481, 3.87266, 65.466, 0.0961951, 40.8807
0, 3480.00000, 126.186, -32.1254, 125.484, -151.407, 127.302, 88.5399, 0, 0, 3.90691, -55.1993, 3.92877, -174.481, 3.87266, 65.466, 0.0961974, 40.8807
0, 3540.00000, 126.186, -32.1254, 125.484, -151.407, 127.302, 88.5399, 0, 0, 3.90691, -55.1993, 3.92877, -174.481, 3.87266, 65.466, 0.0961995, 40.8807
1, 0.00000, 126.186, -32.1254, 125.484, -151.407, 127.302, 88.5399, 0, 0, 3.90691, -55.1993, 3.92877, -174.481, 3.87266, 65.466, 0.0962013, 40.8807
1, 60.00000, 126.272, -31.998, 125.774, -151.374, 127.302, 88.5406, 0, 0, 3.90424, -55.072, 3.91971, -174.448, 3.87265, 65.4667, 0.0814328, 44.6343
1, 120.00000, 126.272, -31.9981, 125.774, -151.374, 127.302, 88.5406, 0, 0, 3.90424, -55.072, 3.91971, -174.448, 3.87265, 65.4667, 0.0814344, 44.6342
1, 180.00000, 126.272, -31.9981, 125.774, -151.374, 127.302, 88.5406, 0, 0, 3.90424, -55.072, 3.91971, -174.448, 3.87264, 65.4667, 0.0814357, 44.6341
1, 240.00000, 126.272, -31.9981, 125.774, -151.374, 127.302, 88.5406, 0, 0, 3.90424, -55.072, 3.91971, -174.448, 3.87264, 65.4667, 0.0814369, 44.6341
1, 300.00000, 126.272, -31.9981, 125.774, -151.374, 127.302, 88.5406, 0, 0, 3.90424, -55.072, 3.91971, -174.448, 3.87264, 65.4667, 0.081438, 44.634
1, 360.00000, 126.272, -31.9981, 125.774, -151.374, 127.302, 88.5406, 0, 0, 3.90424, -55.072, 3.91971, -174.448, 3.87264, 65.4667, 0.081439, 44.6339
1, 420.00000, 126.272, -31.9981, 125.774, -151.374, 127.302, 88.5406, 0, 0, 3.90424, -55.072, 3.91971, -174.448, 3.87264, 65.4667, 0.0814399, 44.6339
1, 480.00000, 126.272, -31.9981, 125.774, -151.374, 127.302, 88.5406, 0, 0, 3.90424, -55.072, 3.91971, -174.448, 3.87264, 65.4667, 0.0814406, 44.6339
1, 540.00000, 126.272, -31.9981, 125.774, -151.374, 127.302, 88.5406, 0, 0, 3.90424, -55.072, 3.91971, -174.448, 3.87264, 65.4667, 0.0814414, 44.6338
1, 600.00000, 126.272, -31.9981, 125.774, -151.374, 127.302, 88.5406, 0, 0, 3.90424, -55.072, 3.91971, -174.448, 3.87264, 65.4667, 0.081442, 44.6338
1, 660.00000, 126.272, -31.9981, 125.774, -151.374, 127.302, 88.5406, 0, 0, 3.90424, -55.072, 3.91971, -174.448, 3.87264, 65.4667, 0.0814426, 44.6337
1, 720.00000, 126.272, -31.9981, 125.774, -151.374, 127.302, 88.5406, 0, 0, 3.90424, -55.072, 3.91971, -174.448, 3.87264, 65.4667, 0.0814431, 44.6337
1, 780.00000, 126.272, -31.9981, 125.774, -151.374, 127.302, 88.5406, 0, 0, 3.90424, -55.072, 3.91971, -174.448, 3.87264, 65.4667, 0.0814435, 44.6337
1, 840.00000, 126.272, -31.9981, 125.774, -151.374, 127.302, 88.5406, 0, 0, 3.90424, -55.072, 3.91971, -174.448, 3.87264, 65.4667, 0.081444, 44.6337
1, 900.00000, 126.272, -31.9981, 125.774, -151.374, 127.302, 88.5406, 0, 0, 3.90424, -55.072, 3.91971, -174.448, 3.87264, 65.4667, 0.0814443, 44.6336
1, 960.00000, 126.272, -31.9981, 125.774, -151.374, 127.302, 88.5406, 0, 0, 3.90424, -55.072, 3.91971, -174.448, 3.87264, 65.4667, 0.0814447, 44.6336
1, 1020.00000, 126.272, -31.9981, 125.774, -151.374, 127.302, 88.5406, 0, 0, 3.90424, -55.072, 3.91971, -174.448, 3.87264, 65.4667, 0.081445, 44.6336
1, 1080.00000, 126.272, -31.9981, 125.774, -151.374, 127.302, 88.5406, 0, 0, 3.90424, -55.072, 3.91971, -174.448, 3.87264, 65.4667, 0.0814453, 44.6336
1, 1140.00000, 126.272, -31.9981, 125.774, -151.374, 127.302, 88.5406, 0, 0, 3.90424, -55.072, 3.91971, -174.448, 3.87264, 65.4667, 0.0814455, 44.6336
1, 1200.00000, 126.272, -31.9981, 125.774, -151.374, 127.302, 88.5406, 0, 0, 3.90424, -55.072, 3.91971, -174.448, 3.87264, 65.4667, 0.0814457, 44.6335
1, 1260.00000, 126.272, -31.9981, 125.774, -151.374, 127.302, 88.5406, 0, 0, 3.90424, -55.0721, 3.91971, -174.448, 3.87264, 65.4667, 0.0814459, 44.6335
1, 1320.00000, 126.272, -31.9981, 125.774, -151.374, 127.302, 88.5406, 0, 0, 3.90424, -55.0721, 3.91971, -174.448, 3.87264, 65.4667, 0.0814461, 44.6335
1, 1380.00000, 126.272, -31.9981, 125.774, -151.374, 127.302, 88.5406, 0, 0, 3.90424, -55.0721, 3.91971, -174.448, 3.87264, 65.4667, 0.0814463, 44.6335
1, 1440.00000, 126.272, -31.9981, 125.774, -151.374, 127.302, 88.5406, 0, 0, 3.90424, -55.0721, 3.91971, -174.448, 3.87264, 65.4667, 0.0814464, 44.6335
1, 1500.00000, 126.272, -31.9981, 125.774, -151.374, 127.302, 88.5406, 0, 0, 3.90424, -55.0721, 3.91971, -174.448, 3.87264, 65.4667, 0.0814466, 44.6335
1, 1560.00000, 126.272, -31.9981, 125.774, -151.374, 127.302, 88.5406, 0, 0, 3.90424, -55.0721, 3.91971, -174.448, 3.87264, 65.4667, 0.0814467, 44.6335
1, 1620.00000, 126.272, -31.9981, 125.774, -151.374, 127.303, 88.5406, 0, 0, 3.90424, -55.0721, 3.91971, -174.448, 3.87264, 65.4667, 0.0814468, 44.6335
1, 1680.00000, 126.272, -31.9981, 125.774, -151.374, 127.303, 88.5406, 0, 0, 3.90424, -55.0721, 3.91971, -174.448, 3.87264, 65.4667, 0.0814469, 44.6335
1, 1740.00000, 126.272, -31.9981, 125.774, -151.374, 127.303, 88.5406, 0, 0, 3.90424, -55.0721, 3.91971, -174.448, 3.87264, 65.4667, 0.081447, 44.6335
1, 1800.00000, 126.272, -31.9981, 125.774, -151.374, 127.303, 88.5406, 0, 0, 3.90424, -55.0721, 3.91971, -174.448, 3.87264, 65.4667, 0.081447, 44.6335
1, 1860.00000, 126.272, -31.9981, 125.774, -151.374, 127.303, 88.5406, 0, 0, 3.90424, -55.0721, 3.91971, -174.448, 3.87264, 65.4667, 0.0814471, 44.6335
1, 1920.00000, 126.272, -31.9981, 125.774, -151.374, 127.303, 88.5406, 0, 0, 3.90424, -55.0721, 3.91971, -174.448, 3.87264, 65.4667, 0.0814472, 44.6335
1, 1980.00000, 126.272, -31.9981, 125.774, -151.374, 127.303, 88.5406, 0, 0, 3.90424, -55.0721, 3.91971, -174.448, 3.87264, 65.4667, 0.0814472, 44.6335
1, 2040.00000, 126.272, -31.9981, 125.774, -151.374, 127.303, 88.5406, 0, 0, 3.90424, -55.0721, 3.91971, -174.448, 3.87264, 65.4667, 0.0814473, 44.6335
1, 2100.00000, 126.272, -31.9981, 125.774, -151.374, 127.303, 88.5406, 0, 0, 3.90424, -55.0721, 3.91971, -174.448, 3.87264, 65.4667, 0.0814473, 44.6335
1, 2160.00000, 126.272, -31.9981, 125.774, -151.374, 127.303, 88.5406, 0, 0, 3.90424, -55.0721, 3.91971, -174.448, 3.87264, 65.4667, 0.0814474, 44.6334
1, 2220.00000, 126.272, -31.9981, 125.774, -151.374, 127.303, 88.5406, 0, 0, 3.90424, -55.0721, 3.91971, -174.448, 3.87264, 65.4667, 0.0814474, 44.6334
1, 2280.00000, 126.272, -31.9981, 125.774, -151.374, 127.303, 88.5406, 0, 0, 3.90424, -55.0721, 3.91971, -174.448, 3.87264, 65.4667, 0.0814474, 44.6334
1, 2340.00000, 126.272, -31.9981, 125.774, -151.374, 127.303, 88.5406, 0, 0, 3.90424, -55.0721, 3.91971, -174.448, 3.87264, 65.4667, 0.0814475, 44.6334
1, 2400.00000, 126.272, -31.9981, 125.774, -151.374, 127.303, 88.5406, 0, 0, 3.90424, -55.0721, 3.91971, -174.448, 3.87264, 65.4667, 0.0814475, 44.6334
1, 2460.00000, 126.272, -31.9981, 125.774, -151.374, 127.303, 88.5406, 0, 0, 3.90424, -55.0721, 3.91971, -174.448, 3.87264, 65.4667, 0.0814475, 44.6334
1, 2520.00000, 126.272, -31.9981, 125.774, -151.374, 127.303, 88.5406, 0, 0, 3.90424, -55.0721, 3.91971, -174.448, 3.87264, 65.4667, 0.0814475, 44.6334
1, 2580.00000, 126.272, -31.9981, 125.774, -151.374, 127.303, 88.5406, 0, 0, 3.90424, -55.0721, 3.91971, -174.448, 3.87264, 65.4667, 0.0814476, 44.6334
1, 2640.00000, 126.272, -31.9981, 125.774, -151.374, 127.303, 88.5406, 0, 0, 3.90424, -55.0721, 3.91971, -174.448, 3.87264, 65.4667, 0.0814476, 44.6334
1, 2700.00000, 126.272, -31.9981, 125.774, -151.374, 127.303, 88.5406, 0, 0, 3.90424, -55.0721, 3.91971, -174.448, 3.87264, 65.4667, 0.0814476, 44.6334
1, 2760.00000, 126.272, -31.9981, 125.774, -151.374, 127.303, 88.5406, 0, 0, 3.90424, -55.0721, 3.91971, -174.448, 3.87264, 65.4667, 0.0814476, 44.6334
1, 2820.00000, 126.272, -31.9981, 125.774, -151.374, 127.303, 88.5406, 0, 0, 3.90424, -55.0721, 3.91971, -174.448, 3.87264, 65.4667, 0.0814476, 44.6334
1, 2880.00000, 126.272, -31.9981, 125.774, -151.374, 127.303, 88.5406, 0, 0, 3.90424, -55.0721, 3.91971, -174.448, 3.87264, 65.4667, 0.0814476, 44.6334
1, 2940.00000, 126.272, -31.9981, 125.774, -151.374, 127.303, 88.5406, 0, 0, 3.90424, -55.0721, 3.91971, -174.448, 3.87264, 65.4667, 0.0814476, 44.6334
1, 3000.00000, 126.272, -31.9981, 125.774, -151.374, 127.303, 88.5406, 0, 0, 3.90424, -55.0721, 3.91971, -174.448, 3.87264, 65.4667, 0.0814477, 44.6334
1, 3060.00000, 126.272, -31.9981, 125.774, -151.374, 127.303, 88.5406, 0, 0, 3.90424, -55.0721, 3.91971, -174.448, 3.87264, 65.4667, 0.0814477, 44.6334
1, 3120.00000, 126.272, -31.9981, 125.774, -151.374, 127.303, 88.5406, 0, 0, 3.90424, -55.0721, 3.91971, -174.448, 3.87264, 65.4667, 0.0814477, 44.6334
1, 3180.00000, 126.272, -31.9981, 125.774, -151.374, 127.303, 88.5406, 0, 0, 3.90424, -55.0721, 3.91971, -174.448, 3.87264, 65.4667, 0.0814477, 44.6334
1, 3240.00000, 126.272, -31.9981, 125.774, -151.374, 127.303, 88.5406, 0, 0, 3.90424, -55.0721, 3.91971, -174.448, 3.87264, 65.4667, 0.0814477, 44.6334
1, 3300.00000, 126.272, -31.9981, 125.774, -151.374, 127.303, 88.5406, 0, 0, 3.90424, -55.0721, 3.91971, -174.448, 3.87264, 65.4667, 0.0814477, 44.6334
1, 3360.00000, 126.272, -31.9981, 125.774, -151.374, 127.303, 88.5406, 0, 0, 3.90424, -55.0721, 3.91971, -174.448, 3.87264, 65.4667, 0.0814477, 44.6334
1, 3420.00000, 126.272, -31.9981, 125.774, -151.374, 127.303, 88.5406, 0, 0, 3.90424, -55.0721, 3.91971, -174.448, 3.87264, 65.4667, 0.0814477, 44.6334
1, 3480.00000, 126.272, -31.9981, 125.774, -151.374, 127.303, 88.5406, 0, 0, 3.90424, -55.0721, 3.91971, -174.448, 3.87264, 65.4667, 0.0814477, 44.6334
1, 3540.00000, 126.272, -31.9981, 125.774, -151.374, 127.303, 88.5406, 0, 0, 3.90424, -55.0721, 3.91971, -174.448, 3.87264, 65.4667, 0.0814477, 44.6334
2, 0.00000, 126.272, -31.9981, 125.774, -151.374, 127.303, 88.5406, 0, 0, 3.90424, -55.0721, 3.91971, -174.448, 3.87264, 65.4667, 0.0814477, 44.6334
2, 60.00000, 126.272, -31.9981, 125.774, -151.374, 127.303, 88.5406, 0, 0, 3.90424, -55.0721, 3.91971, -174.448, 3.87264, 65.4667, 0.0814477, 44.6334
2, 120.00000, 126.272, -31.9981, 125.774, -151.374, 127.303, 88.5406, 0, 0, 3.90424, -55.0721, 3.91971, -174.448, 3.87264, 65.4667, 0.0814477, 44.6334
2, 180.00000, 126.272, -31.9981, 125.774, -151.374, 127.303, 88.5406, 0, 0, 3.90424, -55.0721, 3.91971, -174.448, 3.87264, 65.4667, 0.0814477, 44.6334
2, 240.00000, 126.272, -31.9981, 125.774, -151.374, 127.303, 88.5406, 0, 0, 3.90424, -55.0721, 3.91971, -174.448, 3.87264, 65.4667, 0.0814477, 44.6334
2, 300.00000, 126.272, -31.9981, 125.774, -151.374, 127.303, 88.5406, 0, 0, 3.90424, -55.0721, 3.91971, -174.448, 3.87264, 65.4667, 0.0814477, 44.6334
2, 360.00000, 126.272, -31.9981, 125.774, -151.374, 127.303, 88.5406, 0, 0, 3.90424, -55.0721, 3.91971, -174.448, 3.87264, 65.4667, 0.0814477, 44.6334
2, 420.00000, 126.272, -31.9981, 125.774, -151.374, 127.303, 88.5406, 0, 0, 3.90424, -55.0721, 3.91971, -174.448, 3.87264, 65.4667, 0.0814477, 44.6334
2, 480.00000, 126.272, -31.9981, 125.774, -151.374, 127.303, 88.5406, 0, 0, 3.90424, -55.0721, 3.91971, -174.448, 3.87264, 65.4667, 0.0814477, 44.6334
2, 540.00000, 126.272, -31.9981, 125.774, -151.374, 127.303, 88.5406, 0, 0, 3.90424, -55.0721, 3.91971, -174.448, 3.87264, 65.4667, 0.0814477, 44.6334
2, 600.00000, 126.272, -31.9981, 125.774, -151.374, 127.303, 88.5406, 0, 0, 3.90424, -55.0721, 3.91971, -174.448, 3.87264, 65.4667, 0.0814477, 44.6334
2, 660.00000, 126.272, -31.9981, 125.774, -151.374, 127.303, 88.5406, 0, 0, 3.90424, -55.0721, 3.91971, -174.448, 3.87264, 65.4667, 0.0814477, 44.6334
