hour,t(sec),V1,VAngle1,V2,VAngle2,V3,VAngle3,V4,VAngle4,I1,IAngle1,I2,IAngle2,I3,IAngle3,I4,IAngle4
0, 60.00000, 120.721, -31.9568, 121.301, -151.549, 122.319, 88.0492, 0, 0, 12.0676, -55.0306, 12.0098, -174.623, 11.9102, 64.9754, 0.22212, 89.3631
0, 120.00000, 120.727, -31.9637, 121.301, -151.55, 122.337, 88.0483, 0, 0, 12.0669, -55.0375, 12.0098, -174.623, 11.9084, 64.9745, 0.224104, 88.8069
0, 180.00000, 120.733, -31.9699, 121.3, -151.55, 122.353, 88.0475, 0, 0, 12.0663, -55.0437, 12.0099, -174.624, 11.9068, 64.9737, 0.225908, 88.3153
0, 240.00000, 120.738, -31.9754, 121.3, -151.55, 122.367, 88.0468, 0, 0, 12.0658, -55.0493, 12.0099, -174.624, 11.9054, 64.973, 0.227549, 87.8799
0, 300.00000, 120.743, -31.9805, 121.3, -151.55, 122.381, 88.0462, 0, 0, 12.0653, -55.0543, 12.0099, -174.624, 11.9041, 64.9723, 0.229039, 87.4936
0, 360.00000, 120.747, -31.985, 121.299, -151.55, 122.392, 88.0456, 0, 0, 12.0649, -55.0588, 12.01, -174.624, 11.9029, 64.9717, 0.230391, 87.1502
0, 420.00000, 120.751, -31.989, 121.299, -151.55, 122.403, 88.0451, 0, 0, 12.0645, -55.0629, 12.01, -174.624, 11.9018, 64.9712, 0.231618, 86.844
0, 480.00000, 121.582, -31.8898, 122.062, -151.448, 123.193, 88.1714, 0, 0, 10.4244, -54.9636, 10.3834, -174.522, 10.2883, 65.0975, 0.195805, 84.3618
0, 540.00000, 121.586, -31.8931, 122.062, -151.449, 123.202, 88.171, 0, 0, 10.4241, -54.9669, 10.3834, -174.522, 10.2875, 65.0971, 0.196731, 84.1157
0, 600.00000, 121.588, -31.8961, 122.062, -151.449, 123.21, 88.1706, 0, 0, 10.4239, -54.9699, 10.3835, -174.522, 10.2868, 65.0967, 0.19757, 83.8957
0, 660.00000, 121.591, -31.8987, 122.062, -151.449, 123.218, 88.1703, 0, 0, 10.4237, -54.9726, 10.3835, -174.523, 10.2862, 65.0964, 0.198328, 83.6993
0, 720.00000, 121.593, -31.9011, 122.062, -151.449, 123.224, 88.1701, 0, 0, 10.4235, -54.975, 10.3835, -174.523, 10.2856, 65.0961, 0.199012, 83.524
0, 780.00000, 121.595, -31.9033, 122.061, -151.449, 123.23, 88.1698, 0, 0, 10.4233, -54.9772, 10.3835, -174.523, 10.2851, 65.0959, 0.19963, 83.3672
0, 840.00000, 121.597, -31.9053, 122.061, -151.449, 123.236, 88.1696, 0, 0, 10.4232, -54.9791, 10.3835, -174.523, 10.2846, 65.0957, 0.200188, 83.227
0, 900.00000, 121.599, -31.907, 122.061, -151.449, 123.241, 88.1694, 0, 0, 10.423, -54.9809, 10.3835, -174.523, 10.2842, 65.0955, 0.200691, 83.1016
0, 960.00000, 121.181, -32.2189, 121.238, -151.458, 123.292, 88.1584, 0, 0, 10.459, -55.2928, 10.454, -174.532, 10.28, 65.0845, 0.296536, 66.0265
0, 1020.00000, 121.182, -32.2203, 121.238, -151.458, 123.296, 88.1582, 0, 0, 10.4589, -55.2942, 10.454, -174.532, 10.2796, 65.0843, 0.29703, 65.985
0, 1080.00000, 121.183, -32.2216, 121.238, -151.458, 123.299, 88.158, 0, 0, 10.4588, -55.2955, 10.454, -174.532, 10.2793, 65.0841, 0.297475, 65.9477
0, 1140.00000, 121.445, -32.0484, 121.716, -151.462, 123.269, 88.1621, 0, 0, 10.4362, -55.1223, 10.413, -174.535, 10.2818, 65.0882, 0.237682, 73.6168
0, 1200.00000, 121.446, -32.0495, 121.716, -151.462, 123.272, 88.162, 0, 0, 10.4361, -55.1234, 10.413, -174.535, 10.2816, 65.0881, 0.238017, 73.568
0, 1260.00000, 121.447, -32.0504, 121.716, -151.462, 123.275, 88.1618, 0, 0, 10.436, -55.1243, 10.413, -174.536, 10.2814, 65.0879, 0.238319, 73.5242
0, 1320.00000, 121.448, -32.0512, 121.716, -151.462, 123.277, 88.1617, 0, 0, 10.436, -55.1251, 10.413, -174.536, 10.2812, 65.0878, 0.238592, 73.4849
0, 1380.00000, 121.449, -32.052, 121.716, -151.462, 123.279, 88.1616, 0, 0, 10.4359, -55.1259, 10.413, -174.536, 10.281, 65.0877, 0.238838, 73.4497
0, 1440.00000, 121.449, -32.0527, 121.716, -151.462, 123.281, 88.1616, 0, 0, 10.4358, -55.1266, 10.413, -174.536, 10.2808, 65.0876, 0.239059, 73.418
0, 1500.00000, 121.45, -32.0533, 121.716, -151.462, 123.283, 88.1615, 0, 0, 10.4358, -55.1272, 10.413, -174.536, 10.2807, 65.0876, 0.239258, 73.3895
0, 1560.00000, 121.45, -32.0538, 121.716, -151.462, 123.284, 88.1614, 0, 0, 10.4357, -55.1277, 10.413, -174.536, 10.2805, 65.0875, 0.239437, 73.364
0, 1620.00000, 121.451, -32.0543, 121.716, -151.462, 123.285, 88.1614, 0, 0, 10.4357, -55.1282, 10.413, -174.536, 10.2804, 65.0874, 0.239598, 73.341
0, 1680.00000, 121.451, -32.0548, 121.716, -151.462, 123.287, 88.1613, 0, 0, 10.4357, -55.1287, 10.413, -174.536, 10.2803, 65.0874, 0.239744, 73.3203
0, 1740.00000, 121.452, -32.0552, 121.716, -151.462, 123.288, 88.1612, 0, 0, 10.4356, -55.1291, 10.413, -174.536, 10.2802, 65.0873, 0.239874, 73.3018
0, 1800.00000, 121.097, -32.0739, 121.725, -151.46, 123.105, 88.0214, 0, 0, 10.4662, -55.1478, 10.4122, -174.534, 10.2955, 64.9474, 0.254934, 84.5472
0, 1860.00000, 121.098, -32.0742, 121.725, -151.46, 123.106, 88.0213, 0, 0, 10.4661, -55.1481, 10.4122, -174.534, 10.2954, 64.9474, 0.255021, 84.5291
0, 1920.00000, 121.098, -32.0745, 121.725, -151.46, 123.106, 88.0213, 0, 0, 10.4661, -55.1484, 10.4122, -174.534, 10.2954, 64.9474, 0.255101, 84.5128
0, 1980.00000, 121.098, -32.0747, 121.725, -151.46, 123.107, 88.0213, 0, 0, 10.4661, -55.1486, 10.4122, -174.534, 10.2953, 64.9473, 0.255172, 84.498
0, 2040.00000, 121.098, -32.075, 121.725, -151.46, 123.108, 88.0212, 0, 0, 10.4661, -55.1489, 10.4122, -174.534, 10.2953, 64.9473, 0.255237, 84.4848
0, 2100.00000, 121.099, -32.0752, 121.725, -151.46, 123.108, 88.0212, 0, 0, 10.4661, -55.1491, 10.4122, -174.534, 10.2952, 64.9473, 0.255295, 84.4729
0, 2160.00000, 121.099, -32.0754, 121.725, -151.46, 123.109, 88.0212, 0, 0, 10.4661, -55.1493, 10.4122, -174.534, 10.2952, 64.9473, 0.255347, 84.4621
0, 2220.00000, 121.099, -32.0755, 121.725, -151.46, 123.109, 88.0211, 0, 0, 10.466, -55.1494, 10.4122, -174.534, 10.2951, 64.9472, 0.255394, 84.4525
0, 2280.00000, 121.099, -32.0757, 121.725, -151.46, 123.11, 88.0211, 0, 0, 10.466, -55.1496, 10.4122, -174.534, 10.2951, 64.9472, 0.255437, 84.4438
0, 2340.00000, 121.099, -32.0758, 121.725, -151.46, 123.11, 88.0211, 0, 0, 10.466, -55.1497, 10.4122, -174.534, 10.2951, 64.9472, 0.255475, 84.436
0, 2400.00000, 121.099, -32.076, 121.725, -151.46, 123.11, 88.0211, 0, 0, 10.466, -55.1499, 10.4122, -174.534, 10.295, 64.9472, 0.255509, 84.429
0, 2460.00000, 121.099, -32.0761, 121.725, -151.46, 123.111, 88.0211, 0, 0, 10.466, -55.15, 10.4122, -174.534, 10.295, 64.9472, 0.25554, 84.4227
0, 2520.00000, 121.1, -32.0762, 121.725, -151.46, 123.111, 88.0211, 0, 0, 10.466, -55.1501, 10.4122, -174.534, 10.295, 64.9472, 0.255568, 84.417
0, 2580.00000, 121.1, -32.0763, 121.725, -151.46, 123.111, 88.0211, 0, 0, 10.466, -55.1502, 10.4122, -174.534, 10.295, 64.9471, 0.255593, 84.4119
0, 2640.00000, 121.1, -32.0763, 121.725, -151.46, 123.111, 88.021, 0, 0, 10.466, -55.1503, 10.4122, -174.534, 10.295, 64.9471, 0.255615, 84.4073
0, 2700.00000, 121.1, -32.0764, 121.725, -151.46, 123.112, 88.021, 0, 0, 10.466, -55.1503, 10.4122, -174.534, 10.2949, 64.9471, 0.255635, 84.4031
0, 2760.00000, 121.902, -32.1289, 121.713, -151.46, 123.642, 88.2926, 0, 0, 10.3971, -55.2028, 10.4132, -174.534, 10.2508, 65.2187, 0.261056, 58.6333
0, 2820.00000, 121.902, -32.1289, 121.713, -151.46, 123.642, 88.2926, 0, 0, 10.397, -55.2028, 10.4132, -174.534, 10.2507, 65.2187, 0.261081, 58.6313
0, 2880.00000, 121.903, -32.129, 121.713, -151.46, 123.642, 88.2926, 0, 0, 10.397, -55.2029, 10.4132, -174.534, 10.2507, 65.2187, 0.2611, 58.6301
0, 2940.00000, 121.903, -32.129, 121.713, -151.46, 123.643, 88.2926, 0, 0, 10.397, -55.2029, 10.4132, -174.534, 10.2507, 65.2187, 0.261117, 58.629
0, 3000.00000, 121.903, -32.1291, 121.713, -151.46, 123.643, 88.2926, 0, 0, 10.397, -55.203, 10.4132, -174.534, 10.2507, 65.2187, 0.261133, 58.628
0, 3060.00000, 121.903, -32.1291, 121.713, -151.46, 123.643, 88.2926, 0, 0, 10.397, -55.203, 10.4132, -174.534, 10.2507, 65.2187, 0.261147, 58.6272
0, 3120.00000, 121.903, -32.1291, 121.713, -151.46, 123.643, 88.2926, 0, 0, 10.397, -55.2031, 10.4132, -174.534, 10.2507, 65.2187, 0.261159, 58.6264
0, 3180.00000, 121.903, -32.1292, 121.713, -151.46, 123.643, 88.2926, 0, 0, 10.397, -55.2031, 10.4132, -174.534, 10.2507, 65.2187, 0.261171, 58.6257
0, 3240.00000, 121.903, -32.1292, 121.713, -151.46, 123.643, 88.2926, 0, 0, 10.397, -55.2031, 10.4132, -174.534, 10.2507, 65.2187, 0.261181, 58.6251
0, 3300.00000, 121.903, -32.1292, 121.713, -151.46, 123.643, 88.2926, 0, 0, 10.397, -55.2031, 10.4132, -174.534, 10.2507, 65.2187, 0.26119, 58.6245
0, 3360.00000, 121.903, -32.1292, 121.713, -151.46, 123.643, 88.2926, 0, 0, 10.397, -55.2032, 10.4132, -174.534, 10.2507, 65.2187, 0.261198, 58.624
0, 3420.00000, 121.903, -32.1293, 121.713, -151.46, 123.643, 88.2926, 0, 0, 10.397, -55.2032, 10.4132, -174.534, 10.2507, 65.2187, 0.261205, 58.6235
0, 3480.00000, 121.903, -32.1293, 121.713, -151.46, 123.643, 88.2926, 0, 0, 10.397, -55.2032, 10.4132, -174.534, 10.2507, 65.2187, 0.261212, 58.6231
0, 3540.00000, 121.903, -32.1293, 121.713, -151.46, 123.643, 88.2926, 0, 0, 10.397, -55.2032, 10.4132, -174.534, 10.2507, 65.2187, 0.261218, 58.6227
1, 0.00000, 121.903, -32.1293, 121.713, -151.46, 123.643, 88.2926, 0, 0, 10.397, -55.2032, 10.4132, -174.534, 10.2507, 65.2187, 0.261223, 58.6224
1, 60.00000, 122.154, -31.96, 122.177, -151.465, 123.612, 88.2973, 0, 0, 10.3756, -55.0339, 10.3737, -174.539, 10.2532, 65.2234, 0.198861, 65.1785
1, 120.00000, 122.154, -31.96, 122.177, -151.465, 123.612, 88.2973, 0, 0, 10.3756, -55.0339, 10.3737, -174.539, 10.2532, 65.2234, 0.198865, 65.178
1, 180.00000, 122.154, -31.96, 122.177, -151.465, 123.612, 88.2973, 0, 0, 10.3756, -55.0339, 10.3737, -174.539, 10.2532, 65.2234, 0.198869, 65.1776
1, 240.00000, 122.154, -31.96, 122.177, -151.465, 123.612, 88.2973, 0, 0, 10.3756, -55.0339, 10.3737, -174.539, 10.2532, 65.2234, 0.198872, 65.1772
1, 300.00000, 122.154, -31.96, 122.177, -151.465, 123.612, 88.2973, 0, 0, 10.3756, -55.0339, 10.3737, -174.539, 10.2532, 65.2234, 0.198875, 65.1768
1, 360.00000, 122.154, -31.96, 122.177, -151.465, 123.612, 88.2973, 0, 0, 10.3756, -55.0339, 10.3737, -174.539, 10.2532, 65.2234, 0.198878, 65.1765
1, 420.00000, 122.154, -31.96, 122.177, -151.465, 123.612, 88.2973, 0, 0, 10.3756, -55.0339, 10.3737, -174.539, 10.2532, 65.2234, 0.19888, 65.1762
1, 480.00000, 122.154, -31.96, 122.177, -151.465, 123.612, 88.2973, 0, 0, 10.3756, -55.0339, 10.3737, -174.539, 10.2532, 65.2234, 0.198883, 65.1759
1, 540.00000, 122.154, -31.96, 122.177, -151.465, 123.612, 88.2973, 0, 0, 10.3756, -55.0339, 10.3737, -174.539, 10.2532, 65.2234, 0.198885, 65.1757
1, 600.00000, 122.154, -31.96, 122.177, -151.465, 123.612, 88.2973, 0, 0, 10.3756, -55.0339, 10.3737, -174.539, 10.2532, 65.2234, 0.198886, 65.1755
1, 660.00000, 122.154, -31.96, 122.177, -151.465, 123.612, 88.2973, 0, 0, 10.3756, -55.034, 10.3737, -174.539, 10.2532, 65.2234, 0.198888, 65.1753
1, 720.00000, 122.154, -31.96, 122.177, -151.465, 123.613, 88.2973, 0, 0, 10.3756, -55.034, 10.3737, -174.539, 10.2532, 65.2234, 0.198889, 65.1751
1, 780.00000, 122.154, -31.96, 122.263, -151.346, 123.933, 88.3338, 0, 0, 10.3757, -55.0339, 10.3664, -174.42, 10.2267, 65.2599, 0.240693, 67.746
1, 840.00000, 122.154, -31.96, 122.263, -151.346, 123.933, 88.3338, 0, 0, 10.3757, -55.0339, 10.3664, -174.42, 10.2267, 65.2599, 0.240697, 67.7455
1, 900.00000, 122.154, -31.96, 122.263, -151.346, 123.933, 88.3338, 0, 0, 10.3757, -55.0339, 10.3664, -174.42, 10.2267, 65.2599, 0.240698, 67.7454
1, 960.00000, 122.154, -31.96, 122.263, -151.346, 123.933, 88.3338, 0, 0, 10.3757, -55.0339, 10.3664, -174.42, 10.2267, 65.2599, 0.240699, 67.7453
1, 1020.00000, 122.154, -31.96, 122.263, -151.346, 123.933, 88.3338, 0, 0, 10.3757, -55.0339, 10.3664, -174.42, 10.2267, 65.2599, 0.2407, 67.7452
1, 1080.00000, 122.154, -31.96, 122.263, -151.346, 123.933, 88.3338, 0, 0, 10.3757, -55.0339, 10.3664, -174.42, 10.2267, 65.2599, 0.240701, 67.7451
1, 1140.00000, 122.154, -31.96, 122.263, -151.346, 123.933, 88.3338, 0, 0, 10.3757, -55.0339, 10.3664, -174.42, 10.2267, 65.2599, 0.240701, 67.745
1, 1200.00000, 122.154, -31.96, 122.263, -151.346, 123.933, 88.3338, 0, 0, 10.3757, -55.0339, 10.3664, -174.42, 10.2267, 65.2599, 0.240702, 67.745
1, 1260.00000, 122.154, -31.96, 122.263, -151.346, 123.933, 88.3338, 0, 0, 10.3757, -55.0339, 10.3664, -174.42, 10.2267, 65.2599, 0.240702, 67.7449
1, 1320.00000, 122.154, -31.96, 122.263, -151.346, 123.933, 88.3338, 0, 0, 10.3757, -55.0339, 10.3664, -174.42, 10.2267, 65.2599, 0.240703, 67.7448
1, 1380.00000, 122.154, -31.96, 122.263, -151.346, 123.933, 88.3338, 0, 0, 10.3757, -55.0339, 10.3664, -174.42, 10.2267, 65.2599, 0.240703, 67.7448
1, 1440.00000, 122.154, -31.96, 122.263, -151.346, 123.933, 88.3338, 0, 0, 10.3757, -55.0339, 10.3664, -174.42, 10.2267, 65.2599, 0.240704, 67.7447
1, 1500.00000, 122.154, -31.96, 122.263, -151.346, 123.933, 88.3338, 0, 0, 10.3757, -55.0339, 10.3664, -174.42, 10.2267, 65.2599, 0.240704, 67.7447
1, 1560.00000, 122.154, -31.96, 122.263, -151.346, 123.933, 88.3338, 0, 0, 10.3757, -55.0339, 10.3664, -174.42, 10.2267, 65.2599, 0.240705, 67.7447
1, 1620.00000, 122.154, -31.96, 122.263, -151.346, 123.933, 88.3338, 0, 0, 10.3757, -55.0339, 10.3664, -174.42, 10.2267, 65.2599, 0.240705, 67.7446
1, 1680.00000, 122.154, -31.96, 122.263, -151.346, 123.933, 88.3338, 0, 0, 10.3757, -55.0339, 10.3664, -174.42, 10.2267, 65.2599, 0.240705, 67.7446
1, 1740.00000, 122.154, -31.96, 122.263, -151.346, 123.933, 88.3338, 0, 0, 10.3757, -55.0339, 10.3664, -174.42, 10.2267, 65.2599, 0.240705, 67.7446
1, 1800.00000, 122.154, -31.96, 122.263, -151.346, 123.933, 88.3338, 0, 0, 10.3757, -55.0339, 10.3664, -174.42, 10.2267, 65.2599, 0.240706, 67.7445
1, 1860.00000, 122.154, -31.96, 122.263, -151.346, 123.933, 88.3338, 0, 0, 10.3757, -55.0339, 10.3664, -174.42, 10.2267, 65.2599, 0.240706, 67.7445
1, 1920.00000, 122.154, -31.96, 122.263, -151.346, 123.933, 88.3338, 0, 0, 10.3757, -55.0339, 10.3664, -174.42, 10.2267, 65.2599, 0.240706, 67.7445
1, 1980.00000, 122.154, -31.96, 122.263, -151.346, 123.933, 88.3338, 0, 0, 10.3757, -55.0339, 10.3664, -174.42, 10.2267, 65.2599, 0.240706, 67.7445
1, 2040.00000, 122.154, -31.96, 122.263, -151.346, 123.933, 88.3338, 0, 0, 10.3756, -55.0339, 10.3664, -174.42, 10.2267, 65.2599, 0.240706, 67.7445
1, 2100.00000, 122.154, -31.96, 122.263, -151.346, 123.933, 88.3338, 0, 0, 10.3756, -55.0339, 10.3664, -174.42, 10.2267, 65.2599, 0.240706, 67.7445
1, 2160.00000, 122.154, -31.96, 122.263, -151.346, 123.933, 88.3338, 0, 0, 10.3756, -55.0339, 10.3664, -174.42, 10.2267, 65.2599, 0.240707, 67.7444
1, 2220.00000, 122.507, -31.9405, 122.251, -151.348, 124.124, 88.4737, 0, 0, 10.3458, -55.0144, 10.3674, -174.422, 10.2109, 65.3998, 0.24156, 55.825
1, 2280.00000, 122.507, -31.9405, 122.251, -151.348, 124.124, 88.4737, 0, 0, 10.3458, -55.0144, 10.3674, -174.422, 10.2109, 65.3998, 0.241564, 55.8248
1, 2340.00000, 122.507, -31.9405, 122.251, -151.348, 124.124, 88.4737, 0, 0, 10.3458, -55.0144, 10.3674, -174.422, 10.2109, 65.3998, 0.241564, 55.8248
1, 2400.00000, 122.507, -31.9405, 122.251, -151.348, 124.124, 88.4737, 0, 0, 10.3458, -55.0144, 10.3674, -174.422, 10.2109, 65.3998, 0.241564, 55.8248
1, 2460.00000, 122.507, -31.9405, 122.251, -151.348, 124.124, 88.4737, 0, 0, 10.3458, -55.0144, 10.3674, -174.422, 10.2109, 65.3998, 0.241564, 55.8248
1, 2520.00000, 122.507, -31.9405, 122.251, -151.348, 124.124, 88.4737, 0, 0, 10.3458, -55.0144, 10.3674, -174.422, 10.2109, 65.3998, 0.241565, 55.8248
1, 2580.00000, 122.507, -31.9405, 122.251, -151.348, 124.124, 88.4737, 0, 0, 10.3458, -55.0144, 10.3674, -174.422, 10.2109, 65.3998, 0.241565, 55.8248
1, 2640.00000, 122.507, -31.9405, 122.251, -151.348, 124.124, 88.4737, 0, 0, 10.3458, -55.0144, 10.3674, -174.422, 10.2109, 65.3998, 0.241565, 55.8248
1, 2700.00000, 122.507, -31.9405, 122.251, -151.348, 124.124, 88.4737, 0, 0, 10.3458, -55.0144, 10.3674, -174.422, 10.2109, 65.3998, 0.241565, 55.8248
1, 2760.00000, 122.507, -31.9405, 122.251, -151.348, 124.124, 88.4737, 0, 0, 10.3458, -55.0144, 10.3674, -174.422, 10.2109, 65.3998, 0.241565, 55.8248
1, 2820.00000, 122.507, -31.9405, 122.251, -151.348, 124.124, 88.4737, 0, 0, 10.3458, -55.0144, 10.3674, -174.422, 10.2109, 65.3998, 0.241565, 55.8248
1, 2880.00000, 122.507, -31.9405, 122.251, -151.348, 124.124, 88.4737, 0, 0, 10.3458, -55.0144, 10.3674, -174.422, 10.2109, 65.3998, 0.241565, 55.8248
1, 2940.00000, 122.507, -31.9405, 122.251, -151.348, 124.124, 88.4737, 0, 0, 10.3458, -55.0144, 10.3674, -174.422, 10.2109, 65.3998, 0.241565, 55.8248
1, 3000.00000, 122.507, -31.9405, 122.251, -151.348, 124.124, 88.4737, 0, 0, 10.3458, -55.0144, 10.3674, -174.422, 10.2109, 65.3998, 0.241565, 55.8248
1, 3060.00000, 122.507, -31.9405, 122.251, -151.348, 124.124, 88.4737, 0, 0, 10.3458, -55.0144, 10.3674, -174.422, 10.2109, 65.3998, 0.241565, 55.8248
1, 3120.00000, 122.507, -31.9405, 122.251, -151.348, 124.124, 88.4737, 0, 0, 10.3458, -55.0144, 10.3674, -174.422, 10.2109, 65.3998, 0.241565, 55.8248
1, 3180.00000, 122.507, -31.9405, 122.251, -151.348, 124.124, 88.4737, 0, 0, 10.3458, -55.0144, 10.3674, -174.422, 10.2109, 65.3998, 0.241565, 55.8248
1, 3240.00000, 122.507, -31.9405, 122.251, -151.348, 124.124, 88.4737, 0, 0, 10.3458, -55.0144, 10.3674, -174.422, 10.2109, 65.3998, 0.241565, 55.8247
1, 3300.00000, 122.507, -31.9405, 122.251, -151.348, 124.124, 88.4737, 0, 0, 10.3458, -55.0144, 10.3674, -174.422, 10.2109, 65.3998, 0.241565, 55.8247
1, 3360.00000, 122.507, -31.9405, 122.251, -151.348, 124.124, 88.4737, 0, 0, 10.3458, -55.0144, 10.3674, -174.422, 10.2109, 65.3998, 0.241565, 55.8247
1, 3420.00000, 122.507, -31.9405, 122.251, -151.348, 124.124, 88.4737, 0, 0, 10.3458, -55.0144, 10.3674, -174.422, 10.2109, 65.3998, 0.241565, 55.8247
1, 3480.00000, 122.507, -31.9405, 122.251, -151.348, 124.124, 88.4737, 0, 0, 10.3458, -55.0144, 10.3674, -174.422, 10.2109, 65.3998, 0.241565, 55.8247
1, 3540.00000, 122.507, -31.9405, 122.251, -151.348, 124.124, 88.4737, 0, 0, 10.3458, -55.0144, 10.3674, -174.422, 10.2109, 65.3998, 0.241565, 55.8247
2, 0.00000, 122.507, -31.9405, 122.251, -151.348, 124.124, 88.4737, 0, 0, 10.3458, -55.0144, 10.3674, -174.422, 10.2109, 65.3998, 0.241565, 55.8247
2, 60.00000, 122.507, -31.9405, 122.251, -151.348, 124.124, 88.4737, 0, 0, 10.3458, -55.0144, 10.3674, -174.422, 10.2109, 65.3998, 0.241565, 55.8247
2, 120.00000, 122.507, -31.9405, 122.251, -151.348, 124.124, 88.4737, 0, 0, 10.3458, -55.0144, 10.3674, -174.422, 10.2109, 65.3998, 0.241565, 55.8247
2, 180.00000, 122.507, -31.9405, 122.251, -151.348, 124.124, 88.4737, 0, 0, 10.3458, -55.0144, 10.3674, -174.422, 10.2109, 65.3998, 0.241565, 55.8247
2, 240.00000, 122.507, -31.9405, 122.251, -151.348, 124.124, 88.4737, 0, 0, 10.3458, -55.0144, 10.3674, -174.422, 10.2109, 65.3998, 0.241565, 55.8247
2, 300.00000, 122.507, -31.9405, 122.251, -151.348, 124.124, 88.4737, 0, 0, 10.3458, -55.0144, 10.3674, -174.422, 10.2109, 65.3998, 0.241565, 55.8247
2, 360.00000, 122.507, -31.9405, 122.251, -151.348, 124.124, 88.4737, 0, 0, 10.3458, -55.0144, 10.3674, -174.422, 10.2109, 65.3998, 0.241565, 55.8247
2, 420.00000, 122.507, -31.9405, 122.251, -151.348, 124.124, 88.4737, 0, 0, 10.3458, -55.0144, 10.3674, -174.422, 10.2109, 65.3998, 0.241565, 55.8247
2, 480.00000, 122.507, -31.9405, 122.251, -151.348, 124.124, 88.4737, 0, 0, 10.3458, -55.0144, 10.3674, -174.422, 10.2109, 65.3998, 0.241565, 55.8247
2, 540.00000, 122.507, -31.9405, 122.251, -151.348, 124.124, 88.4737, 0, 0, 10.3458, -55.0144, 10.3674, -174.422, 10.2109, 65.3998, 0.241565, 55.8247
2, 600.00000, 122.507, -31.9405, 122.251, -151.348, 124.124, 88.4737, 0, 0, 10.3458, -55.0144, 10.3674, -174.422, 10.2109, 65.3998, 0.241565, 55.8247
2, 660.00000, 122.507, -31.9405, 122.251, -151.348, 124.124, 88.4737, 0, 0, 10.3458, -55.0144, 10.3674, -174.422, 10.2109, 65.3998, 0.241565, 55.8247
2, 720.00000, 122.507, -31.9405, 122.251, -151.348, 124.124, 88.4737, 0, 0, 10.3458, -55.0144, 10.3674, -174.422, 10.2109, 65.3998, 0.241565, 55.8247
2, 780.00000, 122.507, -31.9405, 122.251, -151.348, 124.124, 88.4737, 0, 0, 10.3458, -55.0144, 10.3674, -174.422, 10.2109, 65.3998, 0.241565, 55.8247
