hour,t(sec),V1,VAngle1,V2,VAngle2,V3,VAngle3,V4,VAngle4,I1,IAngle1,I2,IAngle2,I3,IAngle3,I4,IAngle4
0, 60.00000, 119.42, -31.3918, 119.048, -151.61, 119.257, 88.7805, 0, 0, 7.71402, -54.4655, 7.6873, -174.684, 7.70232, 65.7069, 0.0307709, -86.0357
0, 120.00000, 119.42, -31.3918, 119.048, -151.61, 119.257, 88.7805, 0, 0, 7.71395, -54.4657, 7.68724, -174.684, 7.70227, 65.7066, 0.0307682, -86.0532
0, 180.00000, 119.42, -31.3918, 119.048, -151.61, 119.257, 88.7805, 0, 0, 7.71395, -54.4657, 7.68724, -174.684, 7.70227, 65.7066, 0.0307682, -86.0534
0, 240.00000, 119.42, -31.3918, 119.048, -151.61, 119.257, 88.7805, 0, 0, 7.71395, -54.4657, 7.68724, -174.684, 7.70227, 65.7066, 0.0307682, -86.0534
0, 300.00000, 119.42, -31.3918, 119.048, -151.61, 119.257, 88.7805, 0, 0, 7.71395, -54.4657, 7.68724, -174.684, 7.70227, 65.7066, 0.0307682, -86.0534
0, 360.00000, 119.42, -31.3918, 119.048, -151.61, 119.257, 88.7805, 0, 0, 7.71395, -54.4657, 7.68724, -174.684, 7.70227, 65.7066, 0.0307682, -86.0534
0, 420.00000, 119.42, -31.3918, 119.048, -151.61, 119.257, 88.7805, 0, 0, 7.71395, -54.4657, 7.68724, -174.684, 7.70227, 65.7066, 0.0307682, -86.0534
0, 480.00000, 120.221, -31.2785, 119.793, -151.507, 119.986, 88.9084, 0, 0, 8.15468, -54.3528, 8.12251, -174.581, 8.13702, 65.8341, 0.0302469, -85.1051
0, 540.00000, 120.221, -31.2785, 119.793, -151.506, 119.986, 88.9084, 0, 0, 8.15476, -54.3524, 8.12258, -174.58, 8.13708, 65.8345, 0.0302391, -85.0925
0, 600.00000, 120.221, -31.2785, 119.793, -151.506, 119.986, 88.9084, 0, 0, 8.15476, -54.3524, 8.12258, -174.58, 8.13708, 65.8345, 0.030239, -85.0925
0, 660.00000, 120.221, -31.2785, 119.793, -151.506, 119.986, 88.9084, 0, 0, 8.15476, -54.3524, 8.12258, -174.58, 8.13708, 65.8345, 0.030239, -85.0925
0, 720.00000, 120.221, -31.2785, 119.793, -151.506, 119.986, 88.9084, 0, 0, 8.15476, -54.3524, 8.12258, -174.58, 8.13708, 65.8345, 0.030239, -85.0925
0, 780.00000, 120.221, -31.2785, 119.793, -151.506, 119.986, 88.9084, 0, 0, 8.15476, -54.3524, 8.12258, -174.58, 8.13708, 65.8345, 0.030239, -85.0925
0, 840.00000, 120.221, -31.2785, 119.793, -151.506, 119.986, 88.9084, 0, 0, 8.15476, -54.3524, 8.12258, -174.58, 8.13708, 65.8345, 0.030239, -85.0925
0, 900.00000, 120.221, -31.2785, 119.793, -151.506, 119.986, 88.9084, 0, 0, 8.15476, -54.3524, 8.12258, -174.58, 8.13708, 65.8345, 0.030239, -85.0925
0, 960.00000, 119.464, -31.5658, 118.898, -151.335, 120.036, 88.8933, 0, 0, 8.09786, -54.6396, 8.05531, -174.409, 8.14085, 65.8194, 0.0379887, -96.0183
0, 1020.00000, 119.464, -31.5658, 118.898, -151.335, 120.036, 88.8933, 0, 0, 8.09782, -54.6397, 8.05526, -174.409, 8.14086, 65.8194, 0.0380362, -96.0475
0, 1080.00000, 119.464, -31.5658, 118.898, -151.335, 120.036, 88.8933, 0, 0, 8.09782, -54.6397, 8.05526, -174.409, 8.14086, 65.8194, 0.0380364, -96.0476
0, 1140.00000, 119.464, -31.5658, 118.898, -151.335, 120.036, 88.8933, 0, 0, 8.09782, -54.6397, 8.05526, -174.409, 8.14086, 65.8194, 0.0380364, -96.0476
0, 1200.00000, 119.464, -31.5658, 118.898, -151.335, 120.036, 88.8933, 0, 0, 8.09782, -54.6397, 8.05526, -174.409, 8.14086, 65.8194, 0.0380364, -96.0476
0, 1260.00000, 119.464, -31.5658, 118.898, -151.335, 120.036, 88.8933, 0, 0, 8.09782, -54.6397, 8.05526, -174.409, 8.14086, 65.8194, 0.0380364, -96.0476
0, 1320.00000, 119.464, -31.5658, 118.898, -151.335, 120.036, 88.8933, 0, 0, 8.09782, -54.6397, 8.05526, -174.409, 8.14086, 65.8194, 0.0380364, -96.0476
0, 1380.00000, 119.464, -31.5658, 118.898, -151.335, 120.036, 88.8933, 0, 0, 8.09782, -54.6397, 8.05526, -174.409, 8.14086, 65.8194, 0.0380364, -96.0476
0, 1440.00000, 119.464, -31.5658, 118.898, -151.335, 120.036, 88.8933, 0, 0, 8.09782, -54.6397, 8.05526, -174.409, 8.14086, 65.8194, 0.0380364, -96.0476
0, 1500.00000, 119.464, -31.5658, 118.898, -151.335, 120.036, 88.8933, 0, 0, 8.09782, -54.6397, 8.05526, -174.409, 8.14086, 65.8194, 0.0380364, -96.0476
0, 1560.00000, 119.464, -31.5658, 118.898, -151.335, 120.036, 88.8933, 0, 0, 8.09782, -54.6397, 8.05526, -174.409, 8.14086, 65.8194, 0.0380364, -96.0476
0, 1620.00000, 119.464, -31.5658, 118.898, -151.335, 120.036, 88.8933, 0, 0, 8.09782, -54.6397, 8.05526, -174.409, 8.14086, 65.8194, 0.0380364, -96.0476
0, 1680.00000, 119.464, -31.5658, 118.898, -151.335, 120.036, 88.8933, 0, 0, 8.09782, -54.6397, 8.05526, -174.409, 8.14086, 65.8194, 0.0380364, -96.0476
0, 1740.00000, 119.464, -31.5658, 118.898, -151.335, 120.036, 88.8933, 0, 0, 8.09782, -54.6397, 8.05526, -174.409, 8.14086, 65.8194, 0.0380364, -96.0476
0, 1800.00000, 119.464, -31.5658, 118.898, -151.335, 120.036, 88.8933, 0, 0, 8.09782, -54.6397, 8.05526, -174.409, 8.14086, 65.8194, 0.0380364, -96.0476
0, 1860.00000, 119.464, -31.5658, 118.898, -151.335, 120.036, 88.8933, 0, 0, 8.09782, -54.6397, 8.05526, -174.409, 8.14086, 65.8194, 0.0380364, -96.0476
0, 1920.00000, 119.464, -31.5658, 118.898, -151.335, 120.036, 88.8933, 0, 0, 8.09782, -54.6397, 8.05526, -174.409, 8.14086, 65.8194, 0.0380364, -96.0476
0, 1980.00000, 119.464, -31.5658, 118.898, -151.335, 120.036, 88.8933, 0, 0, 8.09782, -54.6397, 8.05526, -174.409, 8.14086, 65.8194, 0.0380364, -96.0476
0, 2040.00000, 119.464, -31.5658, 118.898, -151.335, 120.036, 88.8933, 0, 0, 8.09782, -54.6397, 8.05526, -174.409, 8.14086, 65.8194, 0.0380364, -96.0476
0, 2100.00000, 119.464, -31.5658, 118.898, -151.335, 120.036, 88.8933, 0, 0, 8.09782, -54.6397, 8.05526, -174.409, 8.14086, 65.8194, 0.0380364, -96.0476
0, 2160.00000, 119.464, -31.5658, 118.898, -151.335, 120.036, 88.8933, 0, 0, 8.09782, -54.6397, 8.05526, -174.409, 8.14086, 65.8194, 0.0380364, -96.0476
0, 2220.00000, 119.464, -31.5658, 118.898, -151.335, 120.036, 88.8933, 0, 0, 8.09782, -54.6397, 8.05526, -174.409, 8.14086, 65.8194, 0.0380364, -96.0476
0, 2280.00000, 119.464, -31.5658, 118.898, -151.335, 120.036, 88.8933, 0, 0, 8.09782, -54.6397, 8.05526, -174.409, 8.14086, 65.8194, 0.0380364, -96.0476
0, 2340.00000, 119.464, -31.5658, 118.898, -151.335, 120.036, 88.8933, 0, 0, 8.09782, -54.6397, 8.05526, -174.409, 8.14086, 65.8194, 0.0380364, -96.0476
0, 2400.00000, 119.464, -31.5658, 118.898, -151.335, 120.036, 88.8933, 0, 0, 8.09782, -54.6397, 8.05526, -174.409, 8.14086, 65.8194, 0.0380364, -96.0476
0, 2460.00000, 119.464, -31.5658, 118.898, -151.335, 120.036, 88.8933, 0, 0, 8.09782, -54.6397, 8.05526, -174.409, 8.14086, 65.8194, 0.0380364, -96.0476
0, 2520.00000, 119.464, -31.5658, 118.898, -151.335, 120.036, 88.8933, 0, 0, 8.09782, -54.6397, 8.05526, -174.409, 8.14086, 65.8194, 0.0380364, -96.0476
0, 2580.00000, 119.464, -31.5658, 118.898, -151.335, 120.036, 88.8933, 0, 0, 8.09782, -54.6397, 8.05526, -174.409, 8.14086, 65.8194, 0.0380364, -96.0476
0, 2640.00000, 119.464, -31.5658, 118.898, -151.335, 120.036, 88.8933, 0, 0, 8.09782, -54.6397, 8.05526, -174.409, 8.14086, 65.8194, 0.0380364, -96.0476
0, 2700.00000, 119.464, -31.5658, 118.898, -151.335, 120.036, 88.8933, 0, 0, 8.09782, -54.6397, 8.05526, -174.409, 8.14086, 65.8194, 0.0380364, -96.0476
0, 2760.00000, 119.582, -31.4254, 119.219, -151.309, 120.028, 88.8961, 0, 0, 8.10665, -54.4994, 8.07933, -174.383, 8.14029, 65.8222, 0.0358003, -91.7686
0, 2820.00000, 119.582, -31.4254, 119.219, -151.309, 120.028, 88.8961, 0, 0, 8.10668, -54.4993, 8.0794, -174.383, 8.14026, 65.8222, 0.0357096, -91.7023
0, 2880.00000, 119.582, -31.4254, 119.219, -151.309, 120.028, 88.8961, 0, 0, 8.10668, -54.4993, 8.0794, -174.383, 8.14026, 65.8222, 0.0357091, -91.7021
0, 2940.00000, 119.582, -31.4254, 119.219, -151.309, 120.028, 88.8961, 0, 0, 8.10669, -54.4993, 8.0794, -174.383, 8.14026, 65.8222, 0.0357091, -91.7021
0, 3000.00000, 119.582, -31.4254, 119.219, -151.309, 120.028, 88.8961, 0, 0, 8.10669, -54.4993, 8.0794, -174.383, 8.14026, 65.8222, 0.0357091, -91.7021
0, 3060.00000, 119.582, -31.4254, 119.219, -151.309, 120.028, 88.8961, 0, 0, 8.10669, -54.4993, 8.0794, -174.383, 8.14026, 65.8222, 0.0357091, -91.7021
0, 3120.00000, 119.582, -31.4254, 119.219, -151.309, 120.028, 88.8961, 0, 0, 8.10669, -54.4993, 8.0794, -174.383, 8.14026, 65.8222, 0.0357091, -91.7021
0, 3180.00000, 119.582, -31.4254, 119.219, -151.309, 120.028, 88.8961, 0, 0, 8.10669, -54.4993, 8.0794, -174.383, 8.14026, 65.8222, 0.0357091, -91.7021
0, 3240.00000, 119.582, -31.4254, 119.219, -151.309, 120.028, 88.8961, 0, 0, 8.10669, -54.4993, 8.0794, -174.383, 8.14026, 65.8222, 0.0357091, -91.7021
0, 3300.00000, 119.582, -31.4254, 119.219, -151.309, 120.028, 88.8961, 0, 0, 8.10669, -54.4993, 8.0794, -174.383, 8.14026, 65.8222, 0.0357091, -91.7021
0, 3360.00000, 119.582, -31.4254, 119.219, -151.309, 120.028, 88.8961, 0, 0, 8.10669, -54.4993, 8.0794, -174.383, 8.14026, 65.8222, 0.0357091, -91.7021
0, 3420.00000, 119.582, -31.4254, 119.219, -151.309, 120.028, 88.8961, 0, 0, 8.10669, -54.4993, 8.0794, -174.383, 8.14026, 65.8222, 0.0357091, -91.7021
0, 3480.00000, 119.582, -31.4254, 119.219, -151.309, 120.028, 88.8961, 0, 0, 8.10669, -54.4993, 8.0794, -174.383, 8.14026, 65.8222, 0.0357091, -91.7021
0, 3540.00000, 119.582, -31.4254, 119.219, -151.309, 120.028, 88.8961, 0, 0, 8.10669, -54.4993, 8.0794, -174.383, 8.14026, 65.8222, 0.0357091, -91.7021
1, 0.00000, 119.582, -31.4254, 119.219, -151.309, 120.028, 88.8961, 0, 0, 8.10669, -54.4993, 8.0794, -174.383, 8.14026, 65.8222, 0.0357091, -91.7021
1, 60.00000, 119.881, -31.393, 119.218, -151.309, 120.127, 89.0292, 0, 0, 8.12913, -54.4672, 8.07934, -174.383, 8.14771, 65.9552, 0.034762, -96.0254
1, 120.00000, 119.881, -31.3929, 119.218, -151.309, 120.127, 89.0292, 0, 0, 8.12921, -54.4669, 8.07933, -174.383, 8.14773, 65.9553, 0.0347602, -96.1653
1, 180.00000, 119.881, -31.3929, 119.218, -151.309, 120.127, 89.0292, 0, 0, 8.12921, -54.4669, 8.07933, -174.383, 8.14773, 65.9553, 0.0347602, -96.1661
1, 240.00000, 119.881, -31.3929, 119.218, -151.309, 120.127, 89.0292, 0, 0, 8.12921, -54.4669, 8.07933, -174.383, 8.14773, 65.9553, 0.0347602, -96.1661
1, 300.00000, 119.881, -31.3929, 119.218, -151.309, 120.127, 89.0292, 0, 0, 8.12921, -54.4669, 8.07933, -174.383, 8.14773, 65.9553, 0.0347602, -96.1661
1, 360.00000, 119.881, -31.3929, 119.218, -151.309, 120.127, 89.0292, 0, 0, 8.12921, -54.4669, 8.07933, -174.383, 8.14773, 65.9553, 0.0347602, -96.1661
1, 420.00000, 119.881, -31.3929, 119.218, -151.309, 120.127, 89.0292, 0, 0, 8.12921, -54.4669, 8.07933, -174.383, 8.14773, 65.9553, 0.0347602, -96.1661
1, 480.00000, 119.881, -31.3929, 119.218, -151.309, 120.127, 89.0292, 0, 0, 8.12921, -54.4669, 8.07933, -174.383, 8.14773, 65.9553, 0.0347602, -96.1661
1, 540.00000, 119.881, -31.3929, 119.218, -151.309, 120.127, 89.0292, 0, 0, 8.12921, -54.4669, 8.07933, -174.383, 8.14773, 65.9553, 0.0347602, -96.1661
1, 600.00000, 119.881, -31.3929, 119.218, -151.309, 120.127, 89.0292, 0, 0, 8.12921, -54.4669, 8.07933, -174.383, 8.14773, 65.9553, 0.0347602, -96.1661
1, 660.00000, 119.881, -31.3929, 119.218, -151.309, 120.127, 89.0292, 0, 0, 8.12921, -54.4669, 8.07933, -174.383, 8.14773, 65.9553, 0.0347602, -96.1661
1, 720.00000, 119.881, -31.3929, 119.218, -151.309, 120.127, 89.0292, 0, 0, 8.12921, -54.4669, 8.07933, -174.383, 8.14773, 65.9553, 0.0347602, -96.1661
1, 780.00000, 119.881, -31.3929, 119.218, -151.309, 120.127, 89.0292, 0, 0, 8.12921, -54.4669, 8.07933, -174.383, 8.14773, 65.9553, 0.0347602, -96.1661
1, 840.00000, 119.881, -31.3929, 119.218, -151.309, 120.127, 89.0292, 0, 0, 8.12921, -54.4669, 8.07933, -174.383, 8.14773, 65.9553, 0.0347602, -96.1661
1, 900.00000, 119.881, -31.3929, 119.218, -151.309, 120.127, 89.0292, 0, 0, 8.12921, -54.4669, 8.07933, -174.383, 8.14773, 65.9553, 0.0347602, -96.1661
1, 960.00000, 119.881, -31.3929, 119.218, -151.309, 120.127, 89.0292, 0, 0, 8.12921, -54.4669, 8.07933, -174.383, 8.14773, 65.9553, 0.0347602, -96.1661
1, 1020.00000, 119.881, -31.3929, 119.218, -151.309, 120.127, 89.0292, 0, 0, 8.12921, -54.4669, 8.07933, -174.383, 8.14773, 65.9553, 0.0347602, -96.1661
1, 1080.00000, 119.881, -31.3929, 119.218, -151.309, 120.127, 89.0292, 0, 0, 8.12921, -54.4669, 8.07933, -174.383, 8.14773, 65.9553, 0.0347602, -96.1661
1, 1140.00000, 119.881, -31.3929, 119.218, -151.309, 120.127, 89.0292, 0, 0, 8.12921, -54.4669, 8.07933, -174.383, 8.14773, 65.9553, 0.0347602, -96.1661
1, 1200.00000, 119.881, -31.3929, 119.218, -151.309, 120.127, 89.0292, 0, 0, 8.12921, -54.4669, 8.07933, -174.383, 8.14773, 65.9553, 0.0347602, -96.1661
1, 1260.00000, 119.881, -31.3929, 119.218, -151.309, 120.127, 89.0292, 0, 0, 8.12921, -54.4669, 8.07933, -174.383, 8.14773, 65.9553, 0.0347602, -96.1661
1, 1320.00000, 119.881, -31.3929, 119.218, -151.309, 120.127, 89.0292, 0, 0, 8.12921, -54.4669, 8.07933, -174.383, 8.14773, 65.9553, 0.0347602, -96.1661
1, 1380.00000, 119.881, -31.3929, 119.218, -151.309, 120.127, 89.0292, 0, 0, 8.12921, -54.4669, 8.07933, -174.383, 8.14773, 65.9553, 0.0347602, -96.1661
1, 1440.00000, 119.881, -31.3929, 119.218, -151.309, 120.127, 89.0292, 0, 0, 8.12921, -54.4669, 8.07933, -174.383, 8.14773, 65.9553, 0.0347602, -96.1661
1, 1500.00000, 119.881, -31.3929, 119.218, -151.309, 120.127, 89.0292, 0, 0, 8.12921, -54.4669, 8.07933, -174.383, 8.14773, 65.9553, 0.0347602, -96.1661
1, 1560.00000, 119.881, -31.3929, 119.218, -151.309, 120.127, 89.0292, 0, 0, 8.12921, -54.4669, 8.07933, -174.383, 8.14773, 65.9553, 0.0347602, -96.1661
1, 1620.00000, 119.881, -31.3929, 119.218, -151.309, 120.127, 89.0292, 0, 0, 8.12921, -54.4669, 8.07933, -174.383, 8.14773, 65.9553, 0.0347602, -96.1661
1, 1680.00000, 119.881, -31.3929, 119.218, -151.309, 120.127, 89.0292, 0, 0, 8.12921, -54.4669, 8.07933, -174.383, 8.14773, 65.9553, 0.0347602, -96.1661
1, 1740.00000, 119.881, -31.3929, 119.218, -151.309, 120.127, 89.0292, 0, 0, 8.12921, -54.4669, 8.07933, -174.383, 8.14773, 65.9553, 0.0347602, -96.1661
1, 1800.00000, 119.881, -31.3929, 119.218, -151.309, 120.127, 89.0292, 0, 0, 8.12921, -54.4669, 8.07933, -174.383, 8.14773, 65.9553, 0.0347602, -96.1661
1, 1860.00000, 119.881, -31.3929, 119.218, -151.309, 120.127, 89.0292, 0, 0, 8.12921, -54.4669, 8.07933, -174.383, 8.14773, 65.9553, 0.0347602, -96.1661
1, 1920.00000, 119.881, -31.3929, 119.218, -151.309, 120.127, 89.0292, 0, 0, 8.12921, -54.4669, 8.07933, -174.383, 8.14773, 65.9553, 0.0347602, -96.1661
1, 1980.00000, 119.881, -31.3929, 119.218, -151.309, 120.127, 89.0292, 0, 0, 8.12921, -54.4669, 8.07933, -174.383, 8.14773, 65.9553, 0.0347602, -96.1661
1, 2040.00000, 119.881, -31.3929, 119.218, -151.309, 120.127, 89.0292, 0, 0, 8.12921, -54.4669, 8.07933, -174.383, 8.14773, 65.9553, 0.0347602, -96.1661
1, 2100.00000, 119.881, -31.3929, 119.218, -151.309, 120.127, 89.0292, 0, 0, 8.12921, -54.4669, 8.07933, -174.383, 8.14773, 65.9553, 0.0347602, -96.1661
1, 2160.00000, 119.881, -31.3929, 119.218, -151.309, 120.127, 89.0292, 0, 0, 8.12921, -54.4669, 8.07933, -174.383, 8.14773, 65.9553, 0.0347602, -96.1661
1, 2220.00000, 119.881, -31.3929, 119.218, -151.309, 120.127, 89.0292, 0, 0, 8.12921, -54.4669, 8.07933, -174.383, 8.14773, 65.9553, 0.0347602, -96.1661
1, 2280.00000, 119.881, -31.3929, 119.218, -151.309, 120.127, 89.0292, 0, 0, 8.12921, -54.4669, 8.07933, -174.383, 8.14773, 65.9553, 0.0347602, -96.1661
1, 2340.00000, 119.881, -31.3929, 119.218, -151.309, 120.127, 89.0292, 0, 0, 8.12921, -54.4669, 8.07933, -174.383, 8.14773, 65.9553, 0.0347602, -96.1661
1, 2400.00000, 119.881, -31.3929, 119.218, -151.309, 120.127, 89.0292, 0, 0, 8.12921, -54.4669, 8.07933, -174.383, 8.14773, 65.9553, 0.0347602, -96.1661
1, 2460.00000, 119.881, -31.3929, 119.218, -151.309, 120.127, 89.0292, 0, 0, 8.12921, -54.4669, 8.07933, -174.383, 8.14773, 65.9553, 0.0347602, -96.1661
1, 2520.00000, 119.881, -31.3929, 119.218, -151.309, 120.127, 89.0292, 0, 0, 8.12921, -54.4669, 8.07933, -174.383, 8.14773, 65.9553, 0.0347602, -96.1661
1, 2580.00000, 119.881, -31.3929, 119.218, -151.309, 120.127, 89.0292, 0, 0, 8.12921, -54.4669, 8.07933, -174.383, 8.14773, 65.9553, 0.0347602, -96.1661
1, 2640.00000, 119.881, -31.3929, 119.218, -151.309, 120.127, 89.0292, 0, 0, 8.12921, -54.4669, 8.07933, -174.383, 8.14773, 65.9553, 0.0347602, -96.1661
1, 2700.00000, 119.881, -31.3929, 119.218, -151.309, 120.127, 89.0292, 0, 0, 8.12921, -54.4669, 8.07933, -174.383, 8.14773, 65.9553, 0.0347602, -96.1661
1, 2760.00000, 119.881, -31.3929, 119.218, -151.309, 120.127, 89.0292, 0, 0, 8.12921, -54.4669, 8.07933, -174.383, 8.14773, 65.9553, 0.0347602, -96.1661
1, 2820.00000, 119.881, -31.3929, 119.218, -151.309, 120.127, 89.0292, 0, 0, 8.12921, -54.4669, 8.07933, -174.383, 8.14773, 65.9553, 0.0347602, -96.1661
1, 2880.00000, 119.881, -31.3929, 119.218, -151.309, 120.127, 89.0292, 0, 0, 8.12921, -54.4669, 8.07933, -174.383, 8.14773, 65.9553, 0.0347602, -96.1661
1, 2940.00000, 119.881, -31.3929, 119.218, -151.309, 120.127, 89.0292, 0, 0, 8.12921, -54.4669, 8.07933, -174.383, 8.14773, 65.9553, 0.0347602, -96.1661
1, 3000.00000, 119.881, -31.3929, 119.218, -151.309, 120.127, 89.0292, 0, 0, 8.12921, -54.4669, 8.07933, -174.383, 8.14773, 65.9553, 0.0347602, -96.1661
1, 3060.00000, 119.881, -31.3929, 119.218, -151.309, 120.127, 89.0292, 0, 0, 8.12921, -54.4669, 8.07933, -174.383, 8.14773, 65.9553, 0.0347602, -96.1661
1, 3120.00000, 119.881, -31.3929, 119.218, -151.309, 120.127, 89.0292, 0, 0, 8.12921, -54.4669, 8.07933, -174.383, 8.14773, 65.9553, 0.0347602, -96.1661
1, 3180.00000, 119.881, -31.3929, 119.218, -151.309, 120.127, 89.0292, 0, 0, 8.12921, -54.4669, 8.07933, -174.383, 8.14773, 65.9553, 0.0347602, -96.1661
1, 3240.00000, 119.881, -31.3929, 119.218, -151.309, 120.127, 89.0292, 0, 0, 8.12921, -54.4669, 8.07933, -174.383, 8.14773, 65.9553, 0.0347602, -96.1661
1, 3300.00000, 119.881, -31.3929, 119.218, -151.309, 120.127, 89.0292, 0, 0, 8.12921, -54.4669, 8.07933, -174.383, 8.14773, 65.9553, 0.0347602, -96.1661
1, 3360.00000, 119.881, -31.3929, 119.218, -151.309, 120.127, 89.0292, 0, 0, 8.12921, -54.4669, 8.07933, -174.383, 8.14773, 65.9553, 0.0347602, -96.1661
1, 3420.00000, 119.881, -31.3929, 119.218, -151.309, 120.127, 89.0292, 0, 0, 8.12921, -54.4669, 8.07933, -174.383, 8.14773, 65.9553, 0.0347602, -96.1661
1, 3480.00000, 119.881, -31.3929, 119.218, -151.309, 120.127, 89.0292, 0, 0, 8.12921, -54.4669, 8.07933, -174.383, 8.14773, 65.9553, 0.0347602, -96.1661
1, 3540.00000, 119.881, -31.3929, 119.218, -151.309, 120.127, 89.0292, 0, 0, 8.12921, -54.4669, 8.07933, -174.383, 8.14773, 65.9553, 0.0347602, -96.1661
2, 0.00000, 119.881, -31.3929, 119.218, -151.309, 120.127, 89.0292, 0, 0, 8.12921, -54.4669, 8.07933, -174.383, 8.14773, 65.9553, 0.0347602, -96.1661
2, 60.00000, 119.881, -31.3929, 119.218, -151.309, 120.127, 89.0292, 0, 0, 8.12921, -54.4669, 8.07933, -174.383, 8.14773, 65.9553, 0.0347602, -96.1661
2, 120.00000, 119.881, -31.3929, 119.218, -151.309, 120.127, 89.0292, 0, 0, 8.12921, -54.4669, 8.07933, -174.383, 8.14773, 65.9553, 0.0347602, -96.1661
2, 180.00000, 119.881, -31.3929, 119.218, -151.309, 120.127, 89.0292, 0, 0, 8.12921, -54.4669, 8.07933, -174.383, 8.14773, 65.9553, 0.0347602, -96.1661
2, 240.00000, 119.881, -31.3929, 119.218, -151.309, 120.127, 89.0292, 0, 0, 8.12921, -54.4669, 8.07933, -174.383, 8.14773, 65.9553, 0.0347602, -96.1661
2, 300.00000, 119.881, -31.3929, 119.218, -151.309, 120.127, 89.0292, 0, 0, 8.12921, -54.4669, 8.07933, -174.383, 8.14773, 65.9553, 0.0347602, -96.1661
2, 360.00000, 119.881, -31.3929, 119.218, -151.309, 120.127, 89.0292, 0, 0, 8.12921, -54.4669, 8.07933, -174.383, 8.14773, 65.9553, 0.0347602, -96.1661
2, 420.00000, 119.881, -31.3929, 119.218, -151.309, 120.127, 89.0292, 0, 0, 8.12921, -54.4669, 8.07933, -174.383, 8.14773, 65.9553, 0.0347602, -96.1661
2, 480.00000, 119.881, -31.3929, 119.218, -151.309, 120.127, 89.0292, 0, 0, 8.12921, -54.4669, 8.07933, -174.383, 8.14773, 65.9553, 0.0347602, -96.1661
2, 540.00000, 119.881, -31.3929, 119.218, -151.309, 120.127, 89.0292, 0, 0, 8.12921, -54.4669, 8.07933, -174.383, 8.14773, 65.9553, 0.0347602, -96.1661
2, 600.00000, 119.881, -31.3929, 119.218, -151.309, 120.127, 89.0292, 0, 0, 8.12921, -54.4669, 8.07933, -174.383, 8.14773, 65.9553, 0.0347602, -96.1661
