hour,t(sec),V1,VAngle1,V2,VAngle2,V3,VAngle3,V4,VAngle4,I1,IAngle1,I2,IAngle2,I3,IAngle3,I4,IAngle4
0, 60.00000, 125.906, -31.2792, 126.109, -151.217, 126.119, 88.6852, 0, 0, 5.6877, -54.3529, 5.67858, -174.29, 5.67808, 65.6118, 0.0178677, 119.921
0, 120.00000, 125.906, -31.2793, 126.109, -151.217, 126.119, 88.6852, 0, 0, 5.68774, -54.3532, 5.67862, -174.291, 5.67814, 65.6113, 0.0178772, 120.039
0, 180.00000, 125.906, -31.2793, 126.109, -151.217, 126.119, 88.6852, 0, 0, 5.68774, -54.3532, 5.67862, -174.291, 5.67814, 65.6113, 0.0178774, 120.04
0, 240.00000, 125.906, -31.2793, 126.109, -151.217, 126.119, 88.6852, 0, 0, 5.68774, -54.3532, 5.67862, -174.291, 5.67814, 65.6113, 0.0178774, 120.04
0, 300.00000, 125.906, -31.2793, 126.109, -151.217, 126.119, 88.6852, 0, 0, 5.68774, -54.3532, 5.67862, -174.291, 5.67814, 65.6113, 0.0178774, 120.04
0, 360.00000, 125.906, -31.2793, 126.109, -151.217, 126.119, 88.6852, 0, 0, 5.68774, -54.3532, 5.67862, -174.291, 5.67814, 65.6113, 0.0178774, 120.04
0, 420.00000, 125.906, -31.2793, 126.109, -151.217, 126.119, 88.6852, 0, 0, 5.68774, -54.3532, 5.67862, -174.291, 5.67814, 65.6113, 0.0178774, 120.04
0, 480.00000, 125.906, -31.2793, 126.109, -151.217, 126.119, 88.6852, 0, 0, 5.68774, -54.3532, 5.67862, -174.291, 5.67814, 65.6113, 0.0178774, 120.04
0, 540.00000, 125.906, -31.2793, 126.109, -151.217, 126.119, 88.6852, 0, 0, 5.68774, -54.3532, 5.67862, -174.291, 5.67814, 65.6113, 0.0178774, 120.04
0, 600.00000, 125.906, -31.2793, 126.109, -151.217, 126.119, 88.6852, 0, 0, 5.68774, -54.3532, 5.67862, -174.291, 5.67814, 65.6113, 0.0178774, 120.04
0, 660.00000, 125.906, -31.2793, 126.109, -151.217, 126.119, 88.6852, 0, 0, 5.68774, -54.3532, 5.67862, -174.291, 5.67814, 65.6113, 0.0178774, 120.04
0, 720.00000, 125.906, -31.2793, 126.109, -151.217, 126.119, 88.6852, 0, 0, 5.68774, -54.3532, 5.67862, -174.291, 5.67814, 65.6113, 0.0178774, 120.04
0, 780.00000, 125.906, -31.2793, 126.109, -151.217, 126.119, 88.6852, 0, 0, 5.68774, -54.3532, 5.67862, -174.291, 5.67814, 65.6113, 0.0178774, 120.04
0, 840.00000, 125.906, -31.2793, 126.109, -151.217, 126.119, 88.6852, 0, 0, 5.68774, -54.3532, 5.67862, -174.291, 5.67814, 65.6113, 0.0178774, 120.04
0, 900.00000, 125.906, -31.2793, 126.109, -151.217, 126.119, 88.6852, 0, 0, 5.68774, -54.3532, 5.67862, -174.291, 5.67814, 65.6113, 0.0178774, 120.04
0, 960.00000, 125.749, -31.4296, 125.754, -151.284, 126.035, 88.6537, 0, 0, 5.57315, -54.5032, 5.57292, -174.357, 5.56053, 65.5799, 0.0248003, 63.761
0, 1020.00000, 125.749, -31.4296, 125.754, -151.284, 126.035, 88.6537, 0, 0, 5.57317, -54.5035, 5.57295, -174.358, 5.56054, 65.5798, 0.0248298, 63.6993
0, 1080.00000, 125.749, -31.4296, 125.754, -151.284, 126.035, 88.6537, 0, 0, 5.57317, -54.5035, 5.57295, -174.358, 5.56054, 65.5798, 0.0248299, 63.6992
0, 1140.00000, 125.749, -31.4296, 125.754, -151.284, 126.035, 88.6537, 0, 0, 5.57317, -54.5035, 5.57295, -174.358, 5.56054, 65.5798, 0.0248299, 63.6992
0, 1200.00000, 125.749, -31.4296, 125.754, -151.284, 126.035, 88.6537, 0, 0, 5.57317, -54.5035, 5.57295, -174.358, 5.56054, 65.5798, 0.0248299, 63.6992
0, 1260.00000, 125.749, -31.4296, 125.754, -151.284, 126.035, 88.6537, 0, 0, 5.57317, -54.5035, 5.57295, -174.358, 5.56054, 65.5798, 0.0248299, 63.6992
0, 1320.00000, 125.749, -31.4296, 125.754, -151.284, 126.035, 88.6537, 0, 0, 5.57317, -54.5035, 5.57295, -174.358, 5.56054, 65.5798, 0.0248299, 63.6992
0, 1380.00000, 125.749, -31.4296, 125.754, -151.284, 126.035, 88.6537, 0, 0, 5.57317, -54.5035, 5.57295, -174.358, 5.56054, 65.5798, 0.0248299, 63.6992
0, 1440.00000, 125.749, -31.4296, 125.754, -151.284, 126.035, 88.6537, 0, 0, 5.57317, -54.5035, 5.57295, -174.358, 5.56054, 65.5798, 0.0248299, 63.6992
0, 1500.00000, 125.749, -31.4296, 125.754, -151.284, 126.035, 88.6537, 0, 0, 5.57317, -54.5035, 5.57295, -174.358, 5.56054, 65.5798, 0.0248299, 63.6992
0, 1560.00000, 125.749, -31.4296, 125.754, -151.284, 126.035, 88.6537, 0, 0, 5.57317, -54.5035, 5.57295, -174.358, 5.56054, 65.5798, 0.0248299, 63.6992
0, 1620.00000, 125.749, -31.4296, 125.754, -151.284, 126.035, 88.6537, 0, 0, 5.57317, -54.5035, 5.57295, -174.358, 5.56054, 65.5798, 0.0248299, 63.6992
0, 1680.00000, 125.749, -31.4296, 125.754, -151.284, 126.035, 88.6537, 0, 0, 5.57317, -54.5035, 5.57295, -174.358, 5.56054, 65.5798, 0.0248299, 63.6992
0, 1740.00000, 125.749, -31.4296, 125.754, -151.284, 126.035, 88.6537, 0, 0, 5.57317, -54.5035, 5.57295, -174.358, 5.56054, 65.5798, 0.0248299, 63.6992
0, 1800.00000, 125.749, -31.4296, 125.754, -151.284, 126.035, 88.6537, 0, 0, 5.57317, -54.5035, 5.57295, -174.358, 5.56054, 65.5798, 0.0248299, 63.6992
0, 1860.00000, 125.811, -31.4096, 125.815, -151.263, 126.098, 88.6745, 0, 0, 5.26707, -54.4839, 5.2669, -174.338, 5.25513, 65.5995, 0.0234989, 63.659
0, 1920.00000, 125.811, -31.4096, 125.815, -151.263, 126.098, 88.6746, 0, 0, 5.26698, -54.4835, 5.26681, -174.337, 5.25499, 65.6007, 0.0235825, 63.5155
0, 1980.00000, 125.811, -31.4096, 125.815, -151.263, 126.098, 88.6746, 0, 0, 5.26698, -54.4835, 5.26681, -174.337, 5.25499, 65.6007, 0.023583, 63.5145
0, 2040.00000, 125.811, -31.4096, 125.815, -151.263, 126.098, 88.6746, 0, 0, 5.26698, -54.4835, 5.26681, -174.337, 5.25499, 65.6007, 0.023583, 63.5145
0, 2100.00000, 125.811, -31.4096, 125.815, -151.263, 126.098, 88.6746, 0, 0, 5.26698, -54.4835, 5.26681, -174.337, 5.25499, 65.6007, 0.023583, 63.5145
0, 2160.00000, 125.811, -31.4096, 125.815, -151.263, 126.098, 88.6746, 0, 0, 5.26698, -54.4835, 5.26681, -174.337, 5.25499, 65.6007, 0.023583, 63.5145
0, 2220.00000, 125.811, -31.4096, 125.815, -151.263, 126.098, 88.6746, 0, 0, 5.26698, -54.4835, 5.26681, -174.337, 5.25499, 65.6007, 0.023583, 63.5145
0, 2280.00000, 125.811, -31.4096, 125.815, -151.263, 126.098, 88.6746, 0, 0, 5.26698, -54.4835, 5.26681, -174.337, 5.25499, 65.6007, 0.023583, 63.5145
0, 2340.00000, 125.811, -31.4096, 125.815, -151.263, 126.098, 88.6746, 0, 0, 5.26698, -54.4835, 5.26681, -174.337, 5.25499, 65.6007, 0.023583, 63.5145
0, 2400.00000, 125.811, -31.4096, 125.815, -151.263, 126.098, 88.6746, 0, 0, 5.26698, -54.4835, 5.26681, -174.337, 5.25499, 65.6007, 0.023583, 63.5145
0, 2460.00000, 125.811, -31.4096, 125.815, -151.263, 126.098, 88.6746, 0, 0, 5.26698, -54.4835, 5.26681, -174.337, 5.25499, 65.6007, 0.023583, 63.5145
0, 2520.00000, 125.811, -31.4096, 125.815, -151.263, 126.098, 88.6746, 0, 0, 5.26698, -54.4835, 5.26681, -174.337, 5.25499, 65.6007, 0.023583, 63.5145
0, 2580.00000, 125.811, -31.4096, 125.815, -151.263, 126.098, 88.6746, 0, 0, 5.26698, -54.4835, 5.26681, -174.337, 5.25499, 65.6007, 0.023583, 63.5145
0, 2640.00000, 125.811, -31.4096, 125.815, -151.263, 126.098, 88.6746, 0, 0, 5.26698, -54.4835, 5.26681, -174.337, 5.25499, 65.6007, 0.023583, 63.5145
0, 2700.00000, 125.811, -31.4096, 125.815, -151.263, 126.098, 88.6746, 0, 0, 5.26698, -54.4835, 5.26681, -174.337, 5.25499, 65.6007, 0.023583, 63.5145
0, 2760.00000, 125.93, -31.3673, 125.933, -151.22, 126.221, 88.7188, 0, 0, 5.15064, -54.4413, 5.15052, -174.294, 5.13879, 65.6446, 0.0232916, 63.2047
0, 2820.00000, 125.93, -31.3673, 125.933, -151.22, 126.221, 88.7188, 0, 0, 5.15063, -54.4412, 5.15051, -174.294, 5.13876, 65.6449, 0.0233127, 63.1536
0, 2880.00000, 125.93, -31.3673, 125.933, -151.22, 126.221, 88.7188, 0, 0, 5.15062, -54.4412, 5.15051, -174.294, 5.13876, 65.6449, 0.023313, 63.1528
0, 2940.00000, 125.93, -31.3673, 125.933, -151.22, 126.221, 88.7188, 0, 0, 5.15062, -54.4412, 5.15051, -174.294, 5.13876, 65.6449, 0.023313, 63.1528
0, 3000.00000, 125.93, -31.3673, 125.933, -151.22, 126.221, 88.7188, 0, 0, 5.15062, -54.4412, 5.15051, -174.294, 5.13876, 65.6449, 0.023313, 63.1528
0, 3060.00000, 125.93, -31.3673, 125.933, -151.22, 126.221, 88.7188, 0, 0, 5.15062, -54.4412, 5.15051, -174.294, 5.13876, 65.6449, 0.023313, 63.1528
0, 3120.00000, 125.93, -31.3673, 125.933, -151.22, 126.221, 88.7188, 0, 0, 5.15062, -54.4412, 5.15051, -174.294, 5.13876, 65.6449, 0.023313, 63.1528
0, 3180.00000, 125.93, -31.3673, 125.933, -151.22, 126.221, 88.7188, 0, 0, 5.15062, -54.4412, 5.15051, -174.294, 5.13876, 65.6449, 0.023313, 63.1528
0, 3240.00000, 125.93, -31.3673, 125.933, -151.22, 126.221, 88.7188, 0, 0, 5.15062, -54.4412, 5.15051, -174.294, 5.13876, 65.6449, 0.023313, 63.1528
0, 3300.00000, 125.93, -31.3673, 125.933, -151.22, 126.221, 88.7188, 0, 0, 5.15062, -54.4412, 5.15051, -174.294, 5.13876, 65.6449, 0.023313, 63.1528
0, 3360.00000, 125.93, -31.3673, 125.933, -151.22, 126.221, 88.7188, 0, 0, 5.15062, -54.4412, 5.15051, -174.294, 5.13876, 65.6449, 0.023313, 63.1528
0, 3420.00000, 125.93, -31.3673, 125.933, -151.22, 126.221, 88.7188, 0, 0, 5.15062, -54.4412, 5.15051, -174.294, 5.13876, 65.6449, 0.023313, 63.1528
0, 3480.00000, 125.93, -31.3673, 125.933, -151.22, 126.221, 88.7188, 0, 0, 5.15062, -54.4412, 5.15051, -174.294, 5.13876, 65.6449, 0.023313, 63.1528
0, 3540.00000, 125.93, -31.3673, 125.933, -151.22, 126.221, 88.7188, 0, 0, 5.15062, -54.4412, 5.15051, -174.294, 5.13876, 65.6449, 0.023313, 63.1528
1, 0.00000, 125.93, -31.3673, 125.933, -151.22, 126.221, 88.7188, 0, 0, 5.15062, -54.4412, 5.15051, -174.294, 5.13876, 65.6449, 0.023313, 63.1528
1, 60.00000, 126.022, -31.3374, 126.023, -151.189, 126.315, 88.7501, 0, 0, 4.72448, -54.4114, 4.72445, -174.263, 4.71353, 65.676, 0.0215189, 62.8016
1, 120.00000, 126.022, -31.3374, 126.023, -151.189, 126.315, 88.7502, 0, 0, 4.72447, -54.4113, 4.72444, -174.263, 4.71351, 65.6763, 0.0215387, 62.748
1, 180.00000, 126.022, -31.3374, 126.023, -151.189, 126.315, 88.7502, 0, 0, 4.72447, -54.4113, 4.72444, -174.263, 4.71351, 65.6763, 0.0215391, 62.747
1, 240.00000, 126.022, -31.3374, 126.023, -151.189, 126.315, 88.7502, 0, 0, 4.72447, -54.4113, 4.72444, -174.263, 4.71351, 65.6763, 0.0215391, 62.747
1, 300.00000, 126.022, -31.3374, 126.023, -151.189, 126.315, 88.7502, 0, 0, 4.72447, -54.4113, 4.72444, -174.263, 4.71351, 65.6763, 0.0215391, 62.747
1, 360.00000, 126.022, -31.3374, 126.023, -151.189, 126.315, 88.7502, 0, 0, 4.72447, -54.4113, 4.72444, -174.263, 4.71351, 65.6763, 0.0215391, 62.747
1, 420.00000, 126.022, -31.3374, 126.023, -151.189, 126.315, 88.7502, 0, 0, 4.72447, -54.4113, 4.72444, -174.263, 4.71351, 65.6763, 0.0215391, 62.747
1, 480.00000, 126.022, -31.3374, 126.023, -151.189, 126.315, 88.7502, 0, 0, 4.72447, -54.4113, 4.72444, -174.263, 4.71351, 65.6763, 0.0215391, 62.747
1, 540.00000, 126.022, -31.3374, 126.023, -151.189, 126.315, 88.7502, 0, 0, 4.72447, -54.4113, 4.72444, -174.263, 4.71351, 65.6763, 0.0215391, 62.747
1, 600.00000, 126.022, -31.3374, 126.023, -151.189, 126.315, 88.7502, 0, 0, 4.72447, -54.4113, 4.72444, -174.263, 4.71351, 65.6763, 0.0215391, 62.747
1, 660.00000, 126.022, -31.3374, 126.023, -151.189, 126.315, 88.7502, 0, 0, 4.72447, -54.4113, 4.72444, -174.263, 4.71351, 65.6763, 0.0215391, 62.747
1, 720.00000, 126.022, -31.3374, 126.023, -151.189, 126.315, 88.7502, 0, 0, 4.72447, -54.4113, 4.72444, -174.263, 4.71351, 65.6763, 0.0215391, 62.747
1, 780.00000, 126.022, -31.3374, 126.023, -151.189, 126.315, 88.7502, 0, 0, 4.72447, -54.4113, 4.72444, -174.263, 4.71351, 65.6763, 0.0215391, 62.747
1, 840.00000, 126.022, -31.3374, 126.023, -151.189, 126.315, 88.7502, 0, 0, 4.72447, -54.4113, 4.72444, -174.263, 4.71351, 65.6763, 0.0215391, 62.747
1, 900.00000, 126.022, -31.3374, 126.023, -151.189, 126.315, 88.7502, 0, 0, 4.72447, -54.4113, 4.72444, -174.263, 4.71351, 65.6763, 0.0215391, 62.747
1, 960.00000, 126.033, -31.3328, 126.034, -151.185, 126.327, 88.755, 0, 0, 4.77355, -54.4069, 4.77352, -174.259, 4.76246, 65.6807, 0.0217723, 62.7663
1, 1020.00000, 126.033, -31.3328, 126.034, -151.185, 126.327, 88.7551, 0, 0, 4.77352, -54.4067, 4.7735, -174.259, 4.76242, 65.6811, 0.0217977, 62.6935
1, 1080.00000, 126.033, -31.3328, 126.034, -151.185, 126.327, 88.7551, 0, 0, 4.77352, -54.4067, 4.7735, -174.259, 4.76241, 65.6812, 0.0217983, 62.6921
1, 1140.00000, 126.033, -31.3328, 126.034, -151.185, 126.327, 88.7551, 0, 0, 4.77352, -54.4067, 4.7735, -174.259, 4.76241, 65.6812, 0.0217983, 62.6921
1, 1200.00000, 126.033, -31.3328, 126.034, -151.185, 126.327, 88.7551, 0, 0, 4.77352, -54.4067, 4.7735, -174.259, 4.76241, 65.6812, 0.0217983, 62.6921
1, 1260.00000, 126.033, -31.3328, 126.034, -151.185, 126.327, 88.7551, 0, 0, 4.77352, -54.4067, 4.7735, -174.259, 4.76241, 65.6812, 0.0217983, 62.6921
1, 1320.00000, 126.033, -31.3328, 126.034, -151.185, 126.327, 88.7551, 0, 0, 4.77352, -54.4067, 4.7735, -174.259, 4.76241, 65.6812, 0.0217983, 62.6921
1, 1380.00000, 126.033, -31.3328, 126.034, -151.185, 126.327, 88.7551, 0, 0, 4.77352, -54.4067, 4.7735, -174.259, 4.76241, 65.6812, 0.0217983, 62.6921
1, 1440.00000, 126.033, -31.3328, 126.034, -151.185, 126.327, 88.7551, 0, 0, 4.77352, -54.4067, 4.7735, -174.259, 4.76241, 65.6812, 0.0217983, 62.6921
1, 1500.00000, 126.033, -31.3328, 126.034, -151.185, 126.327, 88.7551, 0, 0, 4.77352, -54.4067, 4.7735, -174.259, 4.76241, 65.6812, 0.0217983, 62.6921
1, 1560.00000, 126.033, -31.3328, 126.034, -151.185, 126.327, 88.7551, 0, 0, 4.77352, -54.4067, 4.7735, -174.259, 4.76241, 65.6812, 0.0217983, 62.6921
1, 1620.00000, 126.033, -31.3328, 126.034, -151.185, 126.327, 88.7551, 0, 0, 4.77352, -54.4067, 4.7735, -174.259, 4.76241, 65.6812, 0.0217983, 62.6921
1, 1680.00000, 126.033, -31.3328, 126.034, -151.185, 126.327, 88.7551, 0, 0, 4.77352, -54.4067, 4.7735, -174.259, 4.76241, 65.6812, 0.0217983, 62.6921
1, 1740.00000, 126.033, -31.3328, 126.034, -151.185, 126.327, 88.7551, 0, 0, 4.77352, -54.4067, 4.7735, -174.259, 4.76241, 65.6812, 0.0217983, 62.6921
1, 1800.00000, 126.033, -31.3328, 126.034, -151.185, 126.327, 88.7551, 0, 0, 4.77352, -54.4067, 4.7735, -174.259, 4.76241, 65.6812, 0.0217983, 62.6921
1, 1860.00000, 125.949, -31.361, 125.951, -151.213, 126.241, 88.7256, 0, 0, 5.08198, -54.4348, 5.08189, -174.287, 5.07023, 65.6519, 0.0230733, 63.0116
1, 1920.00000, 125.949, -31.361, 125.951, -151.213, 126.24, 88.7256, 0, 0, 5.08199, -54.4349, 5.08189, -174.287, 5.07025, 65.6517, 0.0230552, 63.0601
1, 1980.00000, 125.949, -31.361, 125.951, -151.213, 126.24, 88.7256, 0, 0, 5.08199, -54.4349, 5.08189, -174.287, 5.07025, 65.6517, 0.0230549, 63.0608
1, 2040.00000, 125.949, -31.361, 125.951, -151.213, 126.24, 88.7256, 0, 0, 5.08199, -54.4349, 5.08189, -174.287, 5.07025, 65.6517, 0.0230549, 63.0608
1, 2100.00000, 125.949, -31.361, 125.951, -151.213, 126.24, 88.7256, 0, 0, 5.08199, -54.4349, 5.08189, -174.287, 5.07025, 65.6517, 0.0230549, 63.0608
1, 2160.00000, 125.949, -31.361, 125.951, -151.213, 126.24, 88.7256, 0, 0, 5.08199, -54.4349, 5.08189, -174.287, 5.07025, 65.6517, 0.0230549, 63.0608
1, 2220.00000, 125.949, -31.361, 125.951, -151.213, 126.24, 88.7256, 0, 0, 5.08199, -54.4349, 5.08189, -174.287, 5.07025, 65.6517, 0.0230549, 63.0608
1, 2280.00000, 125.949, -31.361, 125.951, -151.213, 126.24, 88.7256, 0, 0, 5.08199, -54.4349, 5.08189, -174.287, 5.07025, 65.6517, 0.0230549, 63.0608
1, 2340.00000, 125.949, -31.361, 125.951, -151.213, 126.24, 88.7256, 0, 0, 5.08199, -54.4349, 5.08189, -174.287, 5.07025, 65.6517, 0.0230549, 63.0608
1, 2400.00000, 125.949, -31.361, 125.951, -151.213, 126.24, 88.7256, 0, 0, 5.08199, -54.4349, 5.08189, -174.287, 5.07025, 65.6517, 0.0230549, 63.0608
1, 2460.00000, 125.949, -31.361, 125.951, -151.213, 126.24, 88.7256, 0, 0, 5.08199, -54.4349, 5.08189, -174.287, 5.07025, 65.6517, 0.0230549, 63.0608
1, 2520.00000, 125.949, -31.361, 125.951, -151.213, 126.24, 88.7256, 0, 0, 5.08199, -54.4349, 5.08189, -174.287, 5.07025, 65.6517, 0.0230549, 63.0608
1, 2580.00000, 125.949, -31.361, 125.951, -151.213, 126.24, 88.7256, 0, 0, 5.08199, -54.4349, 5.08189, -174.287, 5.07025, 65.6517, 0.0230549, 63.0608
1, 2640.00000, 125.949, -31.361, 125.951, -151.213, 126.24, 88.7256, 0, 0, 5.08199, -54.4349, 5.08189, -174.287, 5.07025, 65.6517, 0.0230549, 63.0608
1, 2700.00000, 125.948, -31.361, 125.867, -151.341, 125.946, 88.6873, 0, 0, 5.08202, -54.4349, 5.08527, -174.415, 5.08207, 65.6137, 0.00696781, 2.32818
1, 2760.00000, 126.111, -31.3041, 126.026, -151.284, 126.109, 88.7453, 0, 0, 4.79123, -54.3781, 4.79442, -174.358, 4.79131, 65.6712, 0.00674279, 1.80466
1, 2820.00000, 126.111, -31.304, 126.026, -151.284, 126.109, 88.7453, 0, 0, 4.79121, -54.378, 4.79441, -174.358, 4.79129, 65.6714, 0.00675537, 1.73558
1, 2880.00000, 126.111, -31.304, 126.026, -151.284, 126.109, 88.7453, 0, 0, 4.79121, -54.378, 4.79441, -174.358, 4.79129, 65.6714, 0.00675546, 1.73523
1, 2940.00000, 126.111, -31.304, 126.026, -151.284, 126.109, 88.7453, 0, 0, 4.79121, -54.378, 4.79441, -174.358, 4.79129, 65.6714, 0.00675546, 1.73523
1, 3000.00000, 126.111, -31.304, 126.026, -151.284, 126.109, 88.7453, 0, 0, 4.79121, -54.378, 4.79441, -174.358, 4.79129, 65.6714, 0.00675546, 1.73523
1, 3060.00000, 126.111, -31.304, 126.026, -151.284, 126.109, 88.7453, 0, 0, 4.79121, -54.378, 4.79441, -174.358, 4.79129, 65.6714, 0.00675546, 1.73523
1, 3120.00000, 126.111, -31.304, 126.026, -151.284, 126.109, 88.7453, 0, 0, 4.79121, -54.378, 4.79441, -174.358, 4.79129, 65.6714, 0.00675546, 1.73523
1, 3180.00000, 126.111, -31.304, 126.026, -151.284, 126.109, 88.7453, 0, 0, 4.79121, -54.378, 4.79441, -174.358, 4.79129, 65.6714, 0.00675546, 1.73523
1, 3240.00000, 126.111, -31.304, 126.026, -151.284, 126.109, 88.7453, 0, 0, 4.79121, -54.378, 4.79441, -174.358, 4.79129, 65.6714, 0.00675546, 1.73523
1, 3300.00000, 126.111, -31.304, 126.026, -151.284, 126.109, 88.7453, 0, 0, 4.79121, -54.378, 4.79441, -174.358, 4.79129, 65.6714, 0.00675546, 1.73523
1, 3360.00000, 126.111, -31.304, 126.026, -151.284, 126.109, 88.7453, 0, 0, 4.79121, -54.378, 4.79441, -174.358, 4.79129, 65.6714, 0.00675546, 1.73523
1, 3420.00000, 126.111, -31.304, 126.026, -151.284, 126.109, 88.7453, 0, 0, 4.79121, -54.378, 4.79441, -174.358, 4.79129, 65.6714, 0.00675546, 1.73523
1, 3480.00000, 126.111, -31.304, 126.026, -151.284, 126.109, 88.7453, 0, 0, 4.79121, -54.378, 4.79441, -174.358, 4.79129, 65.6714, 0.00675546, 1.73523
1, 3540.00000, 126.111, -31.304, 126.026, -151.284, 126.109, 88.7453, 0, 0, 4.79121, -54.378, 4.79441, -174.358, 4.79129, 65.6714, 0.00675546, 1.73523
2, 0.00000, 126.111, -31.304, 126.026, -151.284, 126.109, 88.7453, 0, 0, 4.79121, -54.378, 4.79441, -174.358, 4.79129, 65.6714, 0.00675546, 1.73523
2, 60.00000, 126.009, -31.3385, 125.927, -151.318, 126.007, 88.7102, 0, 0, 5.10267, -54.4124, 5.10599, -174.392, 5.10275, 65.6364, 0.00705626, 2.00346
2, 120.00000, 126.009, -31.3386, 125.927, -151.318, 126.007, 88.7102, 0, 0, 5.10268, -54.4125, 5.106, -174.392, 5.10276, 65.6362, 0.00704761, 2.04484
2, 180.00000, 126.009, -31.3386, 125.927, -151.318, 126.007, 88.7102, 0, 0, 5.10268, -54.4125, 5.106, -174.392, 5.10276, 65.6362, 0.00704755, 2.04506
2, 240.00000, 126.009, -31.3386, 125.927, -151.318, 126.007, 88.7102, 0, 0, 5.10268, -54.4125, 5.106, -174.392, 5.10276, 65.6362, 0.00704755, 2.04506
2, 300.00000, 126.009, -31.3386, 125.927, -151.318, 126.007, 88.7102, 0, 0, 5.10268, -54.4125, 5.106, -174.392, 5.10276, 65.6362, 0.00704755, 2.04506
2, 360.00000, 126.009, -31.3386, 125.927, -151.318, 126.007, 88.7102, 0, 0, 5.10268, -54.4125, 5.106, -174.392, 5.10276, 65.6362, 0.00704755, 2.04506
2, 420.00000, 126.009, -31.3386, 125.927, -151.318, 126.007, 88.7102, 0, 0, 5.10268, -54.4125, 5.106, -174.392, 5.10276, 65.6362, 0.00704755, 2.04506
2, 480.00000, 126.009, -31.3386, 125.927, -151.318, 126.007, 88.7102, 0, 0, 5.10268, -54.4125, 5.106, -174.392, 5.10276, 65.6362, 0.00704755, 2.04506
2, 540.00000, 126.087, -31.2173, 126.202, -151.283, 126.008, 88.7102, 0, 0, 5.09954, -54.2914, 5.09491, -174.357, 5.10274, 65.6363, 0.0129724, -149.804
2, 600.00000, 126.087, -31.2173, 126.202, -151.283, 126.008, 88.7102, 0, 0, 5.09952, -54.2912, 5.09488, -174.357, 5.10274, 65.6362, 0.013011, -149.868
2, 660.00000, 126.087, -31.2173, 126.202, -151.283, 126.008, 88.7102, 0, 0, 5.09952, -54.2912, 5.09488, -174.357, 5.10274, 65.6362, 0.0130113, -149.868
2, 720.00000, 126.087, -31.2173, 126.202, -151.283, 126.008, 88.7102, 0, 0, 5.09952, -54.2912, 5.09488, -174.357, 5.10274, 65.6362, 0.0130113, -149.868
