hour,t(sec),V1,VAngle1,V2,VAngle2,V3,VAngle3,V4,VAngle4,I1,IAngle1,I2,IAngle2,I3,IAngle3,I4,IAngle4
0, 60.00000, 119.857, -31.6787, 119.448, -151.128, 121.129, 88.8324, 0, 0, 3.45274, -54.7522, 3.43968, -174.202, 3.46522, 65.7588, 0.0100844, 48.2993
0, 120.00000, 119.857, -31.6787, 119.448, -151.128, 121.129, 88.8324, 0, 0, 3.45272, -54.7526, 3.43965, -174.202, 3.46529, 65.7584, 0.0100165, 48.2567
0, 180.00000, 119.857, -31.6787, 119.448, -151.128, 121.129, 88.8324, 0, 0, 3.45272, -54.7526, 3.43965, -174.202, 3.46529, 65.7584, 0.0100162, 48.2566
0, 240.00000, 119.857, -31.6787, 119.448, -151.128, 121.129, 88.8324, 0, 0, 3.45272, -54.7526, 3.43965, -174.202, 3.46529, 65.7584, 0.0100162, 48.2566
0, 300.00000, 119.857, -31.6787, 119.448, -151.128, 121.129, 88.8324, 0, 0, 3.45272, -54.7526, 3.43965, -174.202, 3.46529, 65.7584, 0.0100162, 48.2566
0, 360.00000, 119.857, -31.6787, 119.448, -151.128, 121.129, 88.8324, 0, 0, 3.45272, -54.7526, 3.43965, -174.202, 3.46529, 65.7584, 0.0100162, 48.2566
0, 420.00000, 119.857, -31.6787, 119.448, -151.128, 121.129, 88.8324, 0, 0, 3.45272, -54.7526, 3.43965, -174.202, 3.46529, 65.7584, 0.0100162, 48.2566
0, 480.00000, 120.672, -31.5641, 120.216, -151.025, 121.936, 88.9593, 0, 0, 3.14297, -54.6388, 3.1301, -174.098, 3.1105, 65.8847, 0.0517222, 62.7129
0, 540.00000, 120.672, -31.564, 120.216, -151.025, 121.936, 88.9593, 0, 0, 3.14296, -54.638, 3.13011, -174.099, 3.11036, 65.8854, 0.0518126, 62.6671
0, 600.00000, 120.672, -31.564, 120.216, -151.025, 121.936, 88.9593, 0, 0, 3.14296, -54.638, 3.13011, -174.099, 3.11036, 65.8854, 0.0518137, 62.667
0, 660.00000, 120.672, -31.564, 120.216, -151.025, 121.936, 88.9593, 0, 0, 3.14296, -54.638, 3.13011, -174.099, 3.11036, 65.8854, 0.0518138, 62.667
0, 720.00000, 120.672, -31.564, 120.216, -151.025, 121.936, 88.9593, 0, 0, 3.14296, -54.638, 3.13011, -174.099, 3.11036, 65.8854, 0.0518138, 62.667
0, 780.00000, 120.672, -31.564, 120.216, -151.025, 121.936, 88.9593, 0, 0, 3.14296, -54.638, 3.13011, -174.099, 3.11036, 65.8854, 0.0518138, 62.667
0, 840.00000, 120.672, -31.564, 120.216, -151.025, 121.936, 88.9593, 0, 0, 3.14296, -54.638, 3.13011, -174.099, 3.11036, 65.8854, 0.0518138, 62.667
0, 900.00000, 120.672, -31.564, 120.216, -151.025, 121.936, 88.9593, 0, 0, 3.14296, -54.638, 3.13011, -174.099, 3.11036, 65.8854, 0.0518138, 62.667
0, 960.00000, 120.672, -31.564, 120.216, -151.025, 121.936, 88.9593, 0, 0, 3.14296, -54.638, 3.13011, -174.099, 3.11036, 65.8854, 0.0518138, 62.667
0, 1020.00000, 120.672, -31.564, 120.216, -151.025, 121.936, 88.9593, 0, 0, 3.14296, -54.638, 3.13011, -174.099, 3.11036, 65.8854, 0.0518138, 62.667
0, 1080.00000, 120.672, -31.564, 120.216, -151.025, 121.936, 88.9593, 0, 0, 3.14296, -54.638, 3.13011, -174.099, 3.11036, 65.8854, 0.0518138, 62.667
0, 1140.00000, 120.672, -31.564, 120.216, -151.025, 121.936, 88.9593, 0, 0, 3.14296, -54.638, 3.13011, -174.099, 3.11036, 65.8854, 0.0518138, 62.667
0, 1200.00000, 120.672, -31.564, 120.216, -151.025, 121.936, 88.9593, 0, 0, 3.14296, -54.638, 3.13011, -174.099, 3.11036, 65.8854, 0.0518138, 62.667
0, 1260.00000, 120.672, -31.564, 120.216, -151.025, 121.936, 88.9593, 0, 0, 3.14296, -54.638, 3.13011, -174.099, 3.11036, 65.8854, 0.0518138, 62.667
0, 1320.00000, 120.672, -31.564, 120.216, -151.025, 121.936, 88.9593, 0, 0, 3.14296, -54.638, 3.13011, -174.099, 3.11036, 65.8854, 0.0518138, 62.667
0, 1380.00000, 120.672, -31.564, 120.216, -151.025, 121.936, 88.9593, 0, 0, 3.14296, -54.638, 3.13011, -174.099, 3.11036, 65.8854, 0.0518138, 62.667
0, 1440.00000, 120.672, -31.564, 120.216, -151.025, 121.936, 88.9593, 0, 0, 3.14296, -54.638, 3.13011, -174.099, 3.11036, 65.8854, 0.0518138, 62.667
0, 1500.00000, 120.672, -31.564, 120.216, -151.025, 121.936, 88.9593, 0, 0, 3.14296, -54.638, 3.13011, -174.099, 3.11036, 65.8854, 0.0518138, 62.667
0, 1560.00000, 120.672, -31.564, 120.216, -151.025, 121.936, 88.9593, 0, 0, 3.14296, -54.638, 3.13011, -174.099, 3.11036, 65.8854, 0.0518138, 62.667
0, 1620.00000, 120.672, -31.564, 120.216, -151.025, 121.936, 88.9593, 0, 0, 3.14296, -54.638, 3.13011, -174.099, 3.11036, 65.8854, 0.0518138, 62.667
0, 1680.00000, 120.672, -31.564, 120.216, -151.025, 121.936, 88.9593, 0, 0, 3.14296, -54.638, 3.13011, -174.099, 3.11036, 65.8854, 0.0518138, 62.667
0, 1740.00000, 120.672, -31.564, 120.216, -151.025, 121.936, 88.9593, 0, 0, 3.14296, -54.638, 3.13011, -174.099, 3.11036, 65.8854, 0.0518138, 62.667
0, 1800.00000, 120.672, -31.564, 120.216, -151.025, 121.936, 88.9593, 0, 0, 3.14296, -54.638, 3.13011, -174.099, 3.11036, 65.8854, 0.0518138, 62.667
0, 1860.00000, 120.672, -31.564, 120.216, -151.025, 121.936, 88.9593, 0, 0, 3.14296, -54.638, 3.13011, -174.099, 3.11036, 65.8854, 0.0518138, 62.667
0, 1920.00000, 120.672, -31.564, 120.216, -151.025, 121.936, 88.9593, 0, 0, 3.14296, -54.638, 3.13011, -174.099, 3.11036, 65.8854, 0.0518138, 62.667
0, 1980.00000, 120.672, -31.564, 120.216, -151.025, 121.936, 88.9593, 0, 0, 3.14296, -54.638, 3.13011, -174.099, 3.11036, 65.8854, 0.0518138, 62.667
0, 2040.00000, 120.672, -31.564, 120.216, -151.025, 121.936, 88.9593, 0, 0, 3.14296, -54.638, 3.13011, -174.099, 3.11036, 65.8854, 0.0518138, 62.667
0, 2100.00000, 120.672, -31.564, 120.216, -151.025, 121.936, 88.9593, 0, 0, 3.14296, -54.638, 3.13011, -174.099, 3.11036, 65.8854, 0.0518138, 62.667
0, 2160.00000, 120.672, -31.564, 120.216, -151.025, 121.936, 88.9593, 0, 0, 3.14296, -54.638, 3.13011, -174.099, 3.11036, 65.8854, 0.0518138, 62.667
0, 2220.00000, 120.672, -31.564, 120.216, -151.025, 121.936, 88.9593, 0, 0, 3.14296, -54.638, 3.13011, -174.099, 3.11036, 65.8854, 0.0518138, 62.667
0, 2280.00000, 120.672, -31.564, 120.216, -151.025, 121.936, 88.9593, 0, 0, 3.14296, -54.638, 3.13011, -174.099, 3.11036, 65.8854, 0.0518138, 62.667
0, 2340.00000, 120.672, -31.564, 120.216, -151.025, 121.936, 88.9593, 0, 0, 3.14296, -54.638, 3.13011, -174.099, 3.11036, 65.8854, 0.0518138, 62.667
0, 2400.00000, 120.672, -31.564, 120.216, -151.025, 121.936, 88.9593, 0, 0, 3.14296, -54.638, 3.13011, -174.099, 3.11036, 65.8854, 0.0518138, 62.667
0, 2460.00000, 120.672, -31.564, 120.216, -151.025, 121.936, 88.9593, 0, 0, 3.14296, -54.638, 3.13011, -174.099, 3.11036, 65.8854, 0.0518138, 62.667
0, 2520.00000, 120.672, -31.564, 120.216, -151.025, 121.936, 88.9593, 0, 0, 3.14296, -54.638, 3.13011, -174.099, 3.11036, 65.8854, 0.0518138, 62.667
0, 2580.00000, 120.672, -31.564, 120.216, -151.025, 121.936, 88.9593, 0, 0, 3.14296, -54.638, 3.13011, -174.099, 3.11036, 65.8854, 0.0518138, 62.667
0, 2640.00000, 120.672, -31.564, 120.216, -151.025, 121.936, 88.9593, 0, 0, 3.14296, -54.638, 3.13011, -174.099, 3.11036, 65.8854, 0.0518138, 62.667
0, 2700.00000, 120.672, -31.564, 120.216, -151.025, 121.936, 88.9593, 0, 0, 3.14296, -54.638, 3.13011, -174.099, 3.11036, 65.8854, 0.0518138, 62.667
0, 2760.00000, 120.672, -31.564, 120.216, -151.025, 121.936, 88.9593, 0, 0, 3.14296, -54.638, 3.13011, -174.099, 3.11036, 65.8854, 0.0518138, 62.667
0, 2820.00000, 120.672, -31.564, 120.216, -151.025, 121.936, 88.9593, 0, 0, 3.14296, -54.638, 3.13011, -174.099, 3.11036, 65.8854, 0.0518138, 62.667
0, 2880.00000, 120.672, -31.564, 120.216, -151.025, 121.936, 88.9593, 0, 0, 3.14296, -54.638, 3.13011, -174.099, 3.11036, 65.8854, 0.0518138, 62.667
0, 2940.00000, 120.672, -31.564, 120.216, -151.025, 121.936, 88.9593, 0, 0, 3.14296, -54.638, 3.13011, -174.099, 3.11036, 65.8854, 0.0518138, 62.667
0, 3000.00000, 120.672, -31.564, 120.216, -151.025, 121.936, 88.9593, 0, 0, 3.14296, -54.638, 3.13011, -174.099, 3.11036, 65.8854, 0.0518138, 62.667
0, 3060.00000, 120.672, -31.564, 120.216, -151.025, 121.936, 88.9593, 0, 0, 3.14296, -54.638, 3.13011, -174.099, 3.11036, 65.8854, 0.0518138, 62.667
0, 3120.00000, 120.672, -31.564, 120.216, -151.025, 121.936, 88.9593, 0, 0, 3.14296, -54.638, 3.13011, -174.099, 3.11036, 65.8854, 0.0518138, 62.667
0, 3180.00000, 120.672, -31.564, 120.216, -151.025, 121.936, 88.9593, 0, 0, 3.14296, -54.638, 3.13011, -174.099, 3.11036, 65.8854, 0.0518138, 62.667
0, 3240.00000, 120.672, -31.564, 120.216, -151.025, 121.936, 88.9593, 0, 0, 3.14296, -54.638, 3.13011, -174.099, 3.11036, 65.8854, 0.0518138, 62.667
0, 3300.00000, 120.672, -31.564, 120.216, -151.025, 121.936, 88.9593, 0, 0, 3.14296, -54.638, 3.13011, -174.099, 3.11036, 65.8854, 0.0518138, 62.667
0, 3360.00000, 120.672, -31.564, 120.216, -151.025, 121.936, 88.9593, 0, 0, 3.14296, -54.638, 3.13011, -174.099, 3.11036, 65.8854, 0.0518138, 62.667
0, 3420.00000, 120.672, -31.564, 120.216, -151.025, 121.936, 88.9593, 0, 0, 3.14296, -54.638, 3.13011, -174.099, 3.11036, 65.8854, 0.0518138, 62.667
0, 3480.00000, 120.672, -31.564, 120.216, -151.025, 121.936, 88.9593, 0, 0, 3.14296, -54.638, 3.13011, -174.099, 3.11036, 65.8854, 0.0518138, 62.667
0, 3540.00000, 120.672, -31.564, 120.216, -151.025, 121.936, 88.9593, 0, 0, 3.14296, -54.638, 3.13011, -174.099, 3.11036, 65.8854, 0.0518138, 62.667
1, 0.00000, 120.672, -31.564, 120.216, -151.025, 121.936, 88.9593, 0, 0, 3.14296, -54.638, 3.13011, -174.099, 3.11036, 65.8854, 0.0518138, 62.667
1, 60.00000, 120.769, -31.4317, 120.515, -150.994, 121.934, 88.9604, 0, 0, 3.14044, -54.5057, 3.13871, -174.068, 3.11042, 65.8865, 0.050526, 56.6938
1, 120.00000, 120.769, -31.4317, 120.515, -150.994, 121.934, 88.9604, 0, 0, 3.14043, -54.5056, 3.13874, -174.068, 3.11043, 65.8864, 0.0505392, 56.6705
1, 180.00000, 120.769, -31.4317, 120.515, -150.994, 121.934, 88.9604, 0, 0, 3.14043, -54.5056, 3.13874, -174.068, 3.11043, 65.8864, 0.0505392, 56.6704
1, 240.00000, 120.769, -31.4317, 120.515, -150.994, 121.934, 88.9604, 0, 0, 3.14043, -54.5056, 3.13874, -174.068, 3.11043, 65.8864, 0.0505392, 56.6704
1, 300.00000, 120.769, -31.4317, 120.515, -150.994, 121.934, 88.9604, 0, 0, 3.14043, -54.5056, 3.13874, -174.068, 3.11043, 65.8864, 0.0505392, 56.6704
1, 360.00000, 120.769, -31.4317, 120.515, -150.994, 121.934, 88.9604, 0, 0, 3.14043, -54.5056, 3.13874, -174.068, 3.11043, 65.8864, 0.0505392, 56.6704
1, 420.00000, 120.769, -31.4317, 120.515, -150.994, 121.934, 88.9604, 0, 0, 3.14043, -54.5056, 3.13874, -174.068, 3.11043, 65.8864, 0.0505392, 56.6704
1, 480.00000, 120.769, -31.4317, 120.515, -150.994, 121.934, 88.9604, 0, 0, 3.14043, -54.5056, 3.13874, -174.068, 3.11043, 65.8864, 0.0505392, 56.6704
1, 540.00000, 120.769, -31.4317, 120.515, -150.994, 121.934, 88.9604, 0, 0, 3.14043, -54.5056, 3.13874, -174.068, 3.11043, 65.8864, 0.0505392, 56.6704
1, 600.00000, 120.769, -31.4317, 120.515, -150.994, 121.934, 88.9604, 0, 0, 3.14043, -54.5056, 3.13874, -174.068, 3.11043, 65.8864, 0.0505392, 56.6704
1, 660.00000, 120.769, -31.4317, 120.515, -150.994, 121.934, 88.9604, 0, 0, 3.14043, -54.5056, 3.13874, -174.068, 3.11043, 65.8864, 0.0505392, 56.6704
1, 720.00000, 120.769, -31.4317, 120.515, -150.994, 121.934, 88.9604, 0, 0, 3.14043, -54.5056, 3.13874, -174.068, 3.11043, 65.8864, 0.0505392, 56.6704
1, 780.00000, 120.769, -31.4317, 120.515, -150.994, 121.934, 88.9604, 0, 0, 3.14043, -54.5056, 3.13874, -174.068, 3.11043, 65.8864, 0.0505392, 56.6704
1, 840.00000, 120.769, -31.4317, 120.515, -150.994, 121.934, 88.9604, 0, 0, 3.14043, -54.5056, 3.13874, -174.068, 3.11043, 65.8864, 0.0505392, 56.6704
1, 900.00000, 120.769, -31.4317, 120.515, -150.994, 121.934, 88.9604, 0, 0, 3.14043, -54.5056, 3.13874, -174.068, 3.11043, 65.8864, 0.0505392, 56.6704
1, 960.00000, 120.769, -31.4317, 120.515, -150.994, 121.934, 88.9604, 0, 0, 3.14043, -54.5056, 3.13874, -174.068, 3.11043, 65.8864, 0.0505392, 56.6704
1, 1020.00000, 120.769, -31.4317, 120.515, -150.994, 121.934, 88.9604, 0, 0, 3.14043, -54.5056, 3.13874, -174.068, 3.11043, 65.8864, 0.0505392, 56.6704
1, 1080.00000, 120.769, -31.4317, 120.515, -150.994, 121.934, 88.9604, 0, 0, 3.14043, -54.5056, 3.13874, -174.068, 3.11043, 65.8864, 0.0505392, 56.6704
1, 1140.00000, 120.769, -31.4317, 120.515, -150.994, 121.934, 88.9604, 0, 0, 3.14043, -54.5056, 3.13874, -174.068, 3.11043, 65.8864, 0.0505392, 56.6704
1, 1200.00000, 120.769, -31.4317, 120.515, -150.994, 121.934, 88.9604, 0, 0, 3.14043, -54.5056, 3.13874, -174.068, 3.11043, 65.8864, 0.0505392, 56.6704
1, 1260.00000, 120.769, -31.4317, 120.515, -150.994, 121.934, 88.9604, 0, 0, 3.14043, -54.5056, 3.13874, -174.068, 3.11043, 65.8864, 0.0505392, 56.6704
1, 1320.00000, 120.769, -31.4317, 120.515, -150.994, 121.934, 88.9604, 0, 0, 3.14043, -54.5056, 3.13874, -174.068, 3.11043, 65.8864, 0.0505392, 56.6704
1, 1380.00000, 120.769, -31.4317, 120.515, -150.994, 121.934, 88.9604, 0, 0, 3.14043, -54.5056, 3.13874, -174.068, 3.11043, 65.8864, 0.0505392, 56.6704
1, 1440.00000, 120.769, -31.4317, 120.515, -150.994, 121.934, 88.9604, 0, 0, 3.14043, -54.5056, 3.13874, -174.068, 3.11043, 65.8864, 0.0505392, 56.6704
1, 1500.00000, 120.769, -31.4317, 120.515, -150.994, 121.934, 88.9604, 0, 0, 3.14043, -54.5056, 3.13874, -174.068, 3.11043, 65.8864, 0.0505392, 56.6704
1, 1560.00000, 120.769, -31.4317, 120.515, -150.994, 121.934, 88.9604, 0, 0, 3.14043, -54.5056, 3.13874, -174.068, 3.11043, 65.8864, 0.0505392, 56.6704
1, 1620.00000, 120.769, -31.4317, 120.515, -150.994, 121.934, 88.9604, 0, 0, 3.14043, -54.5056, 3.13874, -174.068, 3.11043, 65.8864, 0.0505392, 56.6704
1, 1680.00000, 120.769, -31.4317, 120.515, -150.994, 121.934, 88.9604, 0, 0, 3.14043, -54.5056, 3.13874, -174.068, 3.11043, 65.8864, 0.0505392, 56.6704
1, 1740.00000, 120.769, -31.4317, 120.515, -150.994, 121.934, 88.9604, 0, 0, 3.14043, -54.5056, 3.13874, -174.068, 3.11043, 65.8864, 0.0505392, 56.6704
1, 1800.00000, 120.769, -31.4317, 120.515, -150.994, 121.934, 88.9604, 0, 0, 3.14043, -54.5056, 3.13874, -174.068, 3.11043, 65.8864, 0.0505392, 56.6704
1, 1860.00000, 120.769, -31.4317, 120.515, -150.994, 121.934, 88.9604, 0, 0, 3.14043, -54.5056, 3.13874, -174.068, 3.11043, 65.8864, 0.0505392, 56.6704
1, 1920.00000, 120.769, -31.4317, 120.515, -150.994, 121.934, 88.9604, 0, 0, 3.14043, -54.5056, 3.13874, -174.068, 3.11043, 65.8864, 0.0505392, 56.6704
1, 1980.00000, 120.769, -31.4317, 120.515, -150.994, 121.934, 88.9604, 0, 0, 3.14043, -54.5056, 3.13874, -174.068, 3.11043, 65.8864, 0.0505392, 56.6704
1, 2040.00000, 120.769, -31.4317, 120.515, -150.994, 121.934, 88.9604, 0, 0, 3.14043, -54.5056, 3.13874, -174.068, 3.11043, 65.8864, 0.0505392, 56.6704
1, 2100.00000, 120.769, -31.4317, 120.515, -150.994, 121.934, 88.9604, 0, 0, 3.14043, -54.5056, 3.13874, -174.068, 3.11043, 65.8864, 0.0505392, 56.6704
1, 2160.00000, 120.769, -31.4317, 120.515, -150.994, 121.934, 88.9604, 0, 0, 3.14043, -54.5056, 3.13874, -174.068, 3.11043, 65.8864, 0.0505392, 56.6704
1, 2220.00000, 120.769, -31.4317, 120.515, -150.994, 121.934, 88.9604, 0, 0, 3.14043, -54.5056, 3.13874, -174.068, 3.11043, 65.8864, 0.0505392, 56.6704
1, 2280.00000, 120.769, -31.4317, 120.515, -150.994, 121.934, 88.9604, 0, 0, 3.14043, -54.5056, 3.13874, -174.068, 3.11043, 65.8864, 0.0505392, 56.6704
1, 2340.00000, 120.769, -31.4317, 120.515, -150.994, 121.934, 88.9604, 0, 0, 3.14043, -54.5056, 3.13874, -174.068, 3.11043, 65.8864, 0.0505392, 56.6704
1, 2400.00000, 120.769, -31.4317, 120.515, -150.994, 121.934, 88.9604, 0, 0, 3.14043, -54.5056, 3.13874, -174.068, 3.11043, 65.8864, 0.0505392, 56.6704
1, 2460.00000, 120.769, -31.4317, 120.515, -150.994, 121.934, 88.9604, 0, 0, 3.14043, -54.5056, 3.13874, -174.068, 3.11043, 65.8864, 0.0505392, 56.6704
1, 2520.00000, 120.769, -31.4317, 120.515, -150.994, 121.934, 88.9604, 0, 0, 3.14043, -54.5056, 3.13874, -174.068, 3.11043, 65.8864, 0.0505392, 56.6704
1, 2580.00000, 120.769, -31.4317, 120.515, -150.994, 121.934, 88.9604, 0, 0, 3.14043, -54.5056, 3.13874, -174.068, 3.11043, 65.8864, 0.0505392, 56.6704
1, 2640.00000, 120.769, -31.4317, 120.515, -150.994, 121.934, 88.9604, 0, 0, 3.14043, -54.5056, 3.13874, -174.068, 3.11043, 65.8864, 0.0505392, 56.6704
1, 2700.00000, 120.769, -31.4317, 120.515, -150.994, 121.934, 88.9604, 0, 0, 3.14043, -54.5056, 3.13874, -174.068, 3.11043, 65.8864, 0.0505392, 56.6704
1, 2760.00000, 120.769, -31.4317, 120.515, -150.994, 121.934, 88.9604, 0, 0, 3.14043, -54.5056, 3.13874, -174.068, 3.11043, 65.8864, 0.0505392, 56.6704
1, 2820.00000, 120.769, -31.4317, 120.515, -150.994, 121.934, 88.9604, 0, 0, 3.14043, -54.5056, 3.13874, -174.068, 3.11043, 65.8864, 0.0505392, 56.6704
1, 2880.00000, 120.769, -31.4317, 120.515, -150.994, 121.934, 88.9604, 0, 0, 3.14043, -54.5056, 3.13874, -174.068, 3.11043, 65.8864, 0.0505392, 56.6704
1, 2940.00000, 120.769, -31.4317, 120.515, -150.994, 121.934, 88.9604, 0, 0, 3.14043, -54.5056, 3.13874, -174.068, 3.11043, 65.8864, 0.0505392, 56.6704
1, 3000.00000, 120.769, -31.4317, 120.515, -150.994, 121.934, 88.9604, 0, 0, 3.14043, -54.5056, 3.13874, -174.068, 3.11043, 65.8864, 0.0505392, 56.6704
1, 3060.00000, 120.769, -31.4317, 120.515, -150.994, 121.934, 88.9604, 0, 0, 3.14043, -54.5056, 3.13874, -174.068, 3.11043, 65.8864, 0.0505392, 56.6704
1, 3120.00000, 120.769, -31.4317, 120.515, -150.994, 121.934, 88.9604, 0, 0, 3.14043, -54.5056, 3.13874, -174.068, 3.11043, 65.8864, 0.0505392, 56.6704
1, 3180.00000, 120.769, -31.4317, 120.515, -150.994, 121.934, 88.9604, 0, 0, 3.14043, -54.5056, 3.13874, -174.068, 3.11043, 65.8864, 0.0505392, 56.6704
1, 3240.00000, 120.769, -31.4317, 120.515, -150.994, 121.934, 88.9604, 0, 0, 3.14043, -54.5056, 3.13874, -174.068, 3.11043, 65.8864, 0.0505392, 56.6704
1, 3300.00000, 120.769, -31.4317, 120.515, -150.994, 121.934, 88.9604, 0, 0, 3.14043, -54.5056, 3.13874, -174.068, 3.11043, 65.8864, 0.0505392, 56.6704
1, 3360.00000, 120.769, -31.4317, 120.515, -150.994, 121.934, 88.9604, 0, 0, 3.14043, -54.5056, 3.13874, -174.068, 3.11043, 65.8864, 0.0505392, 56.6704
1, 3420.00000, 120.769, -31.4317, 120.515, -150.994, 121.934, 88.9604, 0, 0, 3.14043, -54.5056, 3.13874, -174.068, 3.11043, 65.8864, 0.0505392, 56.6704
1, 3480.00000, 120.769, -31.4317, 120.515, -150.994, 121.934, 88.9604, 0, 0, 3.14043, -54.5056, 3.13874, -174.068, 3.11043, 65.8864, 0.0505392, 56.6704
1, 3540.00000, 120.769, -31.4317, 120.515, -150.994, 121.934, 88.9604, 0, 0, 3.14043, -54.5056, 3.13874, -174.068, 3.11043, 65.8864, 0.0505392, 56.6704
2, 0.00000, 120.769, -31.4317, 120.515, -150.994, 121.934, 88.9604, 0, 0, 3.14043, -54.5056, 3.13874, -174.068, 3.11043, 65.8864, 0.0505392, 56.6704
2, 60.00000, 120.769, -31.4317, 120.515, -150.994, 121.934, 88.9604, 0, 0, 3.14043, -54.5056, 3.13874, -174.068, 3.11043, 65.8864, 0.0505392, 56.6704
2, 120.00000, 120.769, -31.4317, 120.515, -150.994, 121.934, 88.9604, 0, 0, 3.14043, -54.5056, 3.13874, -174.068, 3.11043, 65.8864, 0.0505392, 56.6704
2, 180.00000, 120.769, -31.4317, 120.515, -150.994, 121.934, 88.9604, 0, 0, 3.14043, -54.5056, 3.13874, -174.068, 3.11043, 65.8864, 0.0505392, 56.6704
2, 240.00000, 120.769, -31.4317, 120.515, -150.994, 121.934, 88.9604, 0, 0, 3.14043, -54.5056, 3.13874, -174.068, 3.11043, 65.8864, 0.0505392, 56.6704
2, 300.00000, 120.769, -31.4317, 120.515, -150.994, 121.934, 88.9604, 0, 0, 3.14043, -54.5056, 3.13874, -174.068, 3.11043, 65.8864, 0.0505392, 56.6704
2, 360.00000, 120.769, -31.4317, 120.515, -150.994, 121.934, 88.9604, 0, 0, 3.14043, -54.5056, 3.13874, -174.068, 3.11043, 65.8864, 0.0505392, 56.6704
2, 420.00000, 120.769, -31.4317, 120.515, -150.994, 121.934, 88.9604, 0, 0, 3.14043, -54.5056, 3.13874, -174.068, 3.11043, 65.8864, 0.0505392, 56.6704
2, 480.00000, 120.769, -31.4317, 120.515, -150.994, 121.934, 88.9604, 0, 0, 3.14043, -54.5056, 3.13874, -174.068, 3.11043, 65.8864, 0.0505392, 56.6704
2, 540.00000, 120.769, -31.4317, 120.515, -150.994, 121.934, 88.9604, 0, 0, 3.14043, -54.5056, 3.13874, -174.068, 3.11043, 65.8864, 0.0505392, 56.6704
2, 600.00000, 120.769, -31.4317, 120.515, -150.994, 121.934, 88.9604, 0, 0, 3.14043, -54.5056, 3.13874, -174.068, 3.11043, 65.8864, 0.0505392, 56.6704
2, 660.00000, 120.769, -31.4317, 120.515, -150.994, 121.934, 88.9604, 0, 0, 3.14043, -54.5056, 3.13874, -174.068, 3.11043, 65.8864, 0.0505392, 56.6704
2, 720.00000, 120.769, -31.4317, 120.515, -150.994, 121.934, 88.9604, 0, 0, 3.14043, -54.5056, 3.13874, -174.068, 3.11043, 65.8864, 0.0505392, 56.6704
