hour,t(sec),V1,VAngle1,V2,VAngle2,V3,VAngle3,V4,VAngle4,I1,IAngle1,I2,IAngle2,I3,IAngle3,I4,IAngle4
0, 60.00000, 117.527, -31.2365, 116.591, -151.552, 117.095, 89.0883, 0, 0, 6.46366, -54.3101, 6.4064, -174.626, 6.43721, 66.0147, 0.0329745, -106.543
0, 120.00000, 117.527, -31.2365, 116.59, -151.552, 117.095, 89.0883, 0, 0, 6.4636, -54.3104, 6.40634, -174.626, 6.43716, 66.0143, 0.0329717, -106.564
0, 180.00000, 117.527, -31.2365, 116.59, -151.552, 117.095, 89.0883, 0, 0, 6.4636, -54.3104, 6.40634, -174.626, 6.43716, 66.0143, 0.0329717, -106.564
0, 240.00000, 117.527, -31.2365, 116.59, -151.552, 117.095, 89.0883, 0, 0, 6.4636, -54.3104, 6.40634, -174.626, 6.43716, 66.0143, 0.0329717, -106.564
0, 300.00000, 117.527, -31.2365, 116.59, -151.552, 117.095, 89.0883, 0, 0, 6.4636, -54.3104, 6.40634, -174.626, 6.43716, 66.0143, 0.0329717, -106.564
0, 360.00000, 117.527, -31.2365, 116.59, -151.552, 117.095, 89.0883, 0, 0, 6.4636, -54.3104, 6.40634, -174.626, 6.43716, 66.0143, 0.0329717, -106.564
0, 420.00000, 117.527, -31.2365, 116.59, -151.552, 117.095, 89.0883, 0, 0, 6.4636, -54.3104, 6.40634, -174.626, 6.43716, 66.0143, 0.0329717, -106.564
0, 480.00000, 118.521, -31.142, 117.52, -151.465, 118.002, 89.2026, 0, 0, 5.89507, -54.2162, 5.83981, -174.539, 5.86644, 66.1284, 0.0277244, -106.311
0, 540.00000, 118.521, -31.142, 117.52, -151.465, 118.002, 89.2027, 0, 0, 5.89513, -54.2159, 5.83987, -174.539, 5.86648, 66.1287, 0.027718, -106.3
0, 600.00000, 118.521, -31.142, 117.52, -151.465, 118.002, 89.2027, 0, 0, 5.89513, -54.2159, 5.83987, -174.539, 5.86648, 66.1287, 0.0277179, -106.301
0, 660.00000, 118.521, -31.142, 117.52, -151.465, 118.002, 89.2027, 0, 0, 5.89513, -54.2159, 5.83987, -174.539, 5.86648, 66.1287, 0.0277179, -106.301
0, 720.00000, 118.521, -31.142, 117.52, -151.465, 118.002, 89.2027, 0, 0, 5.89513, -54.2159, 5.83987, -174.539, 5.86648, 66.1287, 0.0277179, -106.301
0, 780.00000, 118.521, -31.142, 117.52, -151.465, 118.002, 89.2027, 0, 0, 5.89513, -54.2159, 5.83987, -174.539, 5.86648, 66.1287, 0.0277179, -106.301
0, 840.00000, 118.521, -31.142, 117.52, -151.465, 118.002, 89.2027, 0, 0, 5.89513, -54.2159, 5.83987, -174.539, 5.86648, 66.1287, 0.0277179, -106.301
0, 900.00000, 118.521, -31.142, 117.52, -151.465, 118.002, 89.2027, 0, 0, 5.89513, -54.2159, 5.83987, -174.539, 5.86648, 66.1287, 0.0277179, -106.301
0, 960.00000, 117.154, -31.5605, 116.099, -151.105, 118.079, 89.1831, 0, 0, 5.81969, -54.6343, 5.7614, -174.179, 5.8707, 66.1092, 0.0402095, -110.846
0, 1020.00000, 117.154, -31.5605, 116.099, -151.105, 118.079, 89.1831, 0, 0, 5.81964, -54.6344, 5.76134, -174.179, 5.87071, 66.1092, 0.0402559, -110.854
0, 1080.00000, 117.154, -31.5605, 116.099, -151.105, 118.079, 89.1831, 0, 0, 5.81964, -54.6344, 5.76134, -174.179, 5.87071, 66.1092, 0.040256, -110.854
0, 1140.00000, 117.154, -31.5605, 116.099, -151.105, 118.079, 89.1831, 0, 0, 5.81964, -54.6344, 5.76134, -174.179, 5.87071, 66.1092, 0.040256, -110.854
0, 1200.00000, 117.154, -31.5605, 116.099, -151.105, 118.079, 89.1831, 0, 0, 5.81964, -54.6344, 5.76134, -174.179, 5.87071, 66.1092, 0.040256, -110.854
0, 1260.00000, 117.154, -31.5605, 116.099, -151.105, 118.079, 89.1831, 0, 0, 5.81964, -54.6344, 5.76134, -174.179, 5.87071, 66.1092, 0.040256, -110.854
0, 1320.00000, 117.154, -31.5605, 116.099, -151.105, 118.079, 89.1831, 0, 0, 5.81964, -54.6344, 5.76134, -174.179, 5.87071, 66.1092, 0.040256, -110.854
0, 1380.00000, 117.154, -31.5605, 116.099, -151.105, 118.079, 89.1831, 0, 0, 5.81964, -54.6344, 5.76134, -174.179, 5.87071, 66.1092, 0.040256, -110.854
0, 1440.00000, 117.154, -31.5605, 116.099, -151.105, 118.079, 89.1831, 0, 0, 5.81964, -54.6344, 5.76134, -174.179, 5.87071, 66.1092, 0.040256, -110.854
0, 1500.00000, 117.154, -31.5605, 116.099, -151.105, 118.079, 89.1831, 0, 0, 5.81964, -54.6344, 5.76134, -174.179, 5.87071, 66.1092, 0.040256, -110.854
0, 1560.00000, 117.154, -31.5605, 116.099, -151.105, 118.079, 89.1831, 0, 0, 5.81964, -54.6344, 5.76134, -174.179, 5.87071, 66.1092, 0.040256, -110.854
0, 1620.00000, 117.154, -31.5605, 116.099, -151.105, 118.079, 89.1831, 0, 0, 5.81964, -54.6344, 5.76134, -174.179, 5.87071, 66.1092, 0.040256, -110.854
0, 1680.00000, 117.154, -31.5605, 116.099, -151.105, 118.079, 89.1831, 0, 0, 5.81964, -54.6344, 5.76134, -174.179, 5.87071, 66.1092, 0.040256, -110.854
0, 1740.00000, 117.154, -31.5605, 116.099, -151.105, 118.079, 89.1831, 0, 0, 5.81964, -54.6344, 5.76134, -174.179, 5.87071, 66.1092, 0.040256, -110.854
0, 1800.00000, 117.154, -31.5605, 116.099, -151.105, 118.079, 89.1831, 0, 0, 5.81964, -54.6344, 5.76134, -174.179, 5.87071, 66.1092, 0.040256, -110.854
0, 1860.00000, 117.154, -31.5605, 116.099, -151.105, 118.079, 89.1831, 0, 0, 5.81964, -54.6344, 5.76134, -174.179, 5.87071, 66.1092, 0.040256, -110.854
0, 1920.00000, 117.154, -31.5605, 116.099, -151.105, 118.079, 89.1831, 0, 0, 5.81964, -54.6344, 5.76134, -174.179, 5.87071, 66.1092, 0.040256, -110.854
0, 1980.00000, 117.154, -31.5605, 116.099, -151.105, 118.079, 89.1831, 0, 0, 5.81964, -54.6344, 5.76134, -174.179, 5.87071, 66.1092, 0.040256, -110.854
0, 2040.00000, 117.154, -31.5605, 116.099, -151.105, 118.079, 89.1831, 0, 0, 5.81964, -54.6344, 5.76134, -174.179, 5.87071, 66.1092, 0.040256, -110.854
0, 2100.00000, 117.154, -31.5605, 116.099, -151.105, 118.079, 89.1831, 0, 0, 5.81964, -54.6344, 5.76134, -174.179, 5.87071, 66.1092, 0.040256, -110.854
0, 2160.00000, 117.154, -31.5605, 116.099, -151.105, 118.079, 89.1831, 0, 0, 5.81964, -54.6344, 5.76134, -174.179, 5.87071, 66.1092, 0.040256, -110.854
0, 2220.00000, 117.154, -31.5605, 116.099, -151.105, 118.079, 89.1831, 0, 0, 5.81964, -54.6344, 5.76134, -174.179, 5.87071, 66.1092, 0.040256, -110.854
0, 2280.00000, 117.154, -31.5605, 116.099, -151.105, 118.079, 89.1831, 0, 0, 5.81964, -54.6344, 5.76134, -174.179, 5.87071, 66.1092, 0.040256, -110.854
0, 2340.00000, 117.154, -31.5605, 116.099, -151.105, 118.079, 89.1831, 0, 0, 5.81964, -54.6344, 5.76134, -174.179, 5.87071, 66.1092, 0.040256, -110.854
0, 2400.00000, 117.154, -31.5605, 116.099, -151.105, 118.079, 89.1831, 0, 0, 5.81964, -54.6344, 5.76134, -174.179, 5.87071, 66.1092, 0.040256, -110.854
0, 2460.00000, 117.154, -31.5605, 116.099, -151.105, 118.079, 89.1831, 0, 0, 5.81964, -54.6344, 5.76134, -174.179, 5.87071, 66.1092, 0.040256, -110.854
0, 2520.00000, 117.154, -31.5605, 116.099, -151.105, 118.079, 89.1831, 0, 0, 5.81964, -54.6344, 5.76134, -174.179, 5.87071, 66.1092, 0.040256, -110.854
0, 2580.00000, 117.154, -31.5605, 116.099, -151.105, 118.079, 89.1831, 0, 0, 5.81964, -54.6344, 5.76134, -174.179, 5.87071, 66.1092, 0.040256, -110.854
0, 2640.00000, 117.154, -31.5605, 116.099, -151.105, 118.079, 89.1831, 0, 0, 5.81964, -54.6344, 5.76134, -174.179, 5.87071, 66.1092, 0.040256, -110.854
0, 2700.00000, 117.154, -31.5605, 116.099, -151.105, 118.079, 89.1831, 0, 0, 5.81964, -54.6344, 5.76134, -174.179, 5.87071, 66.1092, 0.040256, -110.854
0, 2760.00000, 117.302, -31.4099, 116.448, -151.088, 118.065, 89.1873, 0, 0, 5.82781, -54.4839, 5.78056, -174.162, 5.87, 66.1134, 0.0376396, -108.437
0, 2820.00000, 117.302, -31.4099, 116.448, -151.088, 118.065, 89.1873, 0, 0, 5.82783, -54.4838, 5.78061, -174.162, 5.86998, 66.1134, 0.0375577, -108.417
0, 2880.00000, 117.302, -31.4099, 116.448, -151.088, 118.065, 89.1873, 0, 0, 5.82783, -54.4838, 5.78061, -174.162, 5.86998, 66.1134, 0.0375573, -108.417
0, 2940.00000, 117.302, -31.4099, 116.448, -151.088, 118.065, 89.1873, 0, 0, 5.82783, -54.4838, 5.78061, -174.162, 5.86998, 66.1134, 0.0375573, -108.417
0, 3000.00000, 117.302, -31.4099, 116.448, -151.088, 118.065, 89.1873, 0, 0, 5.82783, -54.4838, 5.78061, -174.162, 5.86998, 66.1134, 0.0375573, -108.417
0, 3060.00000, 117.302, -31.4099, 116.448, -151.088, 118.065, 89.1873, 0, 0, 5.82783, -54.4838, 5.78061, -174.162, 5.86998, 66.1134, 0.0375573, -108.417
0, 3120.00000, 117.302, -31.4099, 116.448, -151.088, 118.065, 89.1873, 0, 0, 5.82783, -54.4838, 5.78061, -174.162, 5.86998, 66.1134, 0.0375573, -108.417
0, 3180.00000, 117.302, -31.4099, 116.448, -151.088, 118.065, 89.1873, 0, 0, 5.82783, -54.4838, 5.78061, -174.162, 5.86998, 66.1134, 0.0375573, -108.417
0, 3240.00000, 117.302, -31.4099, 116.448, -151.088, 118.065, 89.1873, 0, 0, 5.82783, -54.4838, 5.78061, -174.162, 5.86998, 66.1134, 0.0375573, -108.417
0, 3300.00000, 117.302, -31.4099, 116.448, -151.088, 118.065, 89.1873, 0, 0, 5.82783, -54.4838, 5.78061, -174.162, 5.86998, 66.1134, 0.0375573, -108.417
0, 3360.00000, 117.302, -31.4099, 116.448, -151.088, 118.065, 89.1873, 0, 0, 5.82783, -54.4838, 5.78061, -174.162, 5.86998, 66.1134, 0.0375573, -108.417
0, 3420.00000, 117.302, -31.4099, 116.448, -151.088, 118.065, 89.1873, 0, 0, 5.82783, -54.4838, 5.78061, -174.162, 5.86998, 66.1134, 0.0375573, -108.417
0, 3480.00000, 117.302, -31.4099, 116.448, -151.088, 118.065, 89.1873, 0, 0, 5.82783, -54.4838, 5.78061, -174.162, 5.86998, 66.1134, 0.0375573, -108.417
0, 3540.00000, 117.302, -31.4099, 116.448, -151.088, 118.065, 89.1873, 0, 0, 5.82783, -54.4838, 5.78061, -174.162, 5.86998, 66.1134, 0.0375573, -108.417
1, 0.00000, 117.302, -31.4099, 116.448, -151.088, 118.065, 89.1873, 0, 0, 5.82783, -54.4838, 5.78061, -174.162, 5.86998, 66.1134, 0.0375573, -108.417
1, 60.00000, 117.612, -31.3799, 116.446, -151.088, 118.177, 89.325, 0, 0, 5.84487, -54.454, 5.78056, -174.162, 5.87611, 66.2509, 0.0374806, -111.727
1, 120.00000, 117.612, -31.3798, 116.446, -151.088, 118.177, 89.325, 0, 0, 5.84493, -54.4538, 5.78054, -174.162, 5.87613, 66.251, 0.0374968, -111.83
1, 180.00000, 117.612, -31.3798, 116.446, -151.088, 118.177, 89.325, 0, 0, 5.84493, -54.4538, 5.78054, -174.162, 5.87613, 66.251, 0.0374969, -111.83
1, 240.00000, 117.612, -31.3798, 116.446, -151.088, 118.177, 89.325, 0, 0, 5.84493, -54.4538, 5.78054, -174.162, 5.87613, 66.251, 0.0374969, -111.83
1, 300.00000, 117.612, -31.3798, 116.446, -151.088, 118.177, 89.325, 0, 0, 5.84493, -54.4538, 5.78054, -174.162, 5.87613, 66.251, 0.0374969, -111.83
1, 360.00000, 117.612, -31.3798, 116.446, -151.088, 118.177, 89.325, 0, 0, 5.84493, -54.4538, 5.78054, -174.162, 5.87613, 66.251, 0.0374969, -111.83
1, 420.00000, 117.612, -31.3798, 116.446, -151.088, 118.177, 89.325, 0, 0, 5.84493, -54.4538, 5.78054, -174.162, 5.87613, 66.251, 0.0374969, -111.83
1, 480.00000, 117.612, -31.3798, 116.446, -151.088, 118.177, 89.325, 0, 0, 5.84493, -54.4538, 5.78054, -174.162, 5.87613, 66.251, 0.0374969, -111.83
1, 540.00000, 117.612, -31.3798, 116.446, -151.088, 118.177, 89.325, 0, 0, 5.84493, -54.4538, 5.78054, -174.162, 5.87613, 66.251, 0.0374969, -111.83
1, 600.00000, 117.612, -31.3798, 116.446, -151.088, 118.177, 89.325, 0, 0, 5.84493, -54.4538, 5.78054, -174.162, 5.87613, 66.251, 0.0374969, -111.83
1, 660.00000, 117.612, -31.3798, 116.446, -151.088, 118.177, 89.325, 0, 0, 5.84493, -54.4538, 5.78054, -174.162, 5.87613, 66.251, 0.0374969, -111.83
1, 720.00000, 117.612, -31.3798, 116.446, -151.088, 118.177, 89.325, 0, 0, 5.84493, -54.4538, 5.78054, -174.162, 5.87613, 66.251, 0.0374969, -111.83
1, 780.00000, 117.612, -31.3798, 116.446, -151.088, 118.177, 89.325, 0, 0, 5.84493, -54.4538, 5.78054, -174.162, 5.87613, 66.251, 0.0374969, -111.83
1, 840.00000, 117.612, -31.3798, 116.446, -151.088, 118.177, 89.325, 0, 0, 5.84493, -54.4538, 5.78054, -174.162, 5.87613, 66.251, 0.0374969, -111.83
1, 900.00000, 117.612, -31.3798, 116.446, -151.088, 118.177, 89.325, 0, 0, 5.84493, -54.4538, 5.78054, -174.162, 5.87613, 66.251, 0.0374969, -111.83
1, 960.00000, 117.612, -31.3798, 116.446, -151.088, 118.177, 89.325, 0, 0, 5.84493, -54.4538, 5.78054, -174.162, 5.87613, 66.251, 0.0374969, -111.83
1, 1020.00000, 117.612, -31.3798, 116.446, -151.088, 118.177, 89.325, 0, 0, 5.84493, -54.4538, 5.78054, -174.162, 5.87613, 66.251, 0.0374969, -111.83
1, 1080.00000, 117.612, -31.3798, 116.446, -151.088, 118.177, 89.325, 0, 0, 5.84493, -54.4538, 5.78054, -174.162, 5.87613, 66.251, 0.0374969, -111.83
1, 1140.00000, 117.612, -31.3798, 116.446, -151.088, 118.177, 89.325, 0, 0, 5.84493, -54.4538, 5.78054, -174.162, 5.87613, 66.251, 0.0374969, -111.83
1, 1200.00000, 117.612, -31.3798, 116.446, -151.088, 118.177, 89.325, 0, 0, 5.84493, -54.4538, 5.78054, -174.162, 5.87613, 66.251, 0.0374969, -111.83
1, 1260.00000, 117.612, -31.3798, 116.446, -151.088, 118.177, 89.325, 0, 0, 5.84493, -54.4538, 5.78054, -174.162, 5.87613, 66.251, 0.0374969, -111.83
1, 1320.00000, 117.612, -31.3798, 116.446, -151.088, 118.177, 89.325, 0, 0, 5.84493, -54.4538, 5.78054, -174.162, 5.87613, 66.251, 0.0374969, -111.83
1, 1380.00000, 117.612, -31.3798, 116.446, -151.088, 118.177, 89.325, 0, 0, 5.84493, -54.4538, 5.78054, -174.162, 5.87613, 66.251, 0.0374969, -111.83
1, 1440.00000, 117.612, -31.3798, 116.446, -151.088, 118.177, 89.325, 0, 0, 5.84493, -54.4538, 5.78054, -174.162, 5.87613, 66.251, 0.0374969, -111.83
1, 1500.00000, 117.612, -31.3798, 116.446, -151.088, 118.177, 89.325, 0, 0, 5.84493, -54.4538, 5.78054, -174.162, 5.87613, 66.251, 0.0374969, -111.83
1, 1560.00000, 117.612, -31.3798, 116.446, -151.088, 118.177, 89.325, 0, 0, 5.84493, -54.4538, 5.78054, -174.162, 5.87613, 66.251, 0.0374969, -111.83
1, 1620.00000, 117.612, -31.3798, 116.446, -151.088, 118.177, 89.325, 0, 0, 5.84493, -54.4538, 5.78054, -174.162, 5.87613, 66.251, 0.0374969, -111.83
1, 1680.00000, 117.612, -31.3798, 116.446, -151.088, 118.177, 89.325, 0, 0, 5.84493, -54.4538, 5.78054, -174.162, 5.87613, 66.251, 0.0374969, -111.83
1, 1740.00000, 117.612, -31.3798, 116.446, -151.088, 118.177, 89.325, 0, 0, 5.84493, -54.4538, 5.78054, -174.162, 5.87613, 66.251, 0.0374969, -111.83
1, 1800.00000, 117.612, -31.3798, 116.446, -151.088, 118.177, 89.325, 0, 0, 5.84493, -54.4538, 5.78054, -174.162, 5.87613, 66.251, 0.0374969, -111.83
1, 1860.00000, 117.612, -31.3798, 116.446, -151.088, 118.177, 89.325, 0, 0, 5.84493, -54.4538, 5.78054, -174.162, 5.87613, 66.251, 0.0374969, -111.83
1, 1920.00000, 117.612, -31.3798, 116.446, -151.088, 118.177, 89.325, 0, 0, 5.84493, -54.4538, 5.78054, -174.162, 5.87613, 66.251, 0.0374969, -111.83
1, 1980.00000, 117.612, -31.3798, 116.446, -151.088, 118.177, 89.325, 0, 0, 5.84493, -54.4538, 5.78054, -174.162, 5.87613, 66.251, 0.0374969, -111.83
1, 2040.00000, 117.612, -31.3798, 116.446, -151.088, 118.177, 89.325, 0, 0, 5.84493, -54.4538, 5.78054, -174.162, 5.87613, 66.251, 0.0374969, -111.83
1, 2100.00000, 117.612, -31.3798, 116.446, -151.088, 118.177, 89.325, 0, 0, 5.84493, -54.4538, 5.78054, -174.162, 5.87613, 66.251, 0.0374969, -111.83
1, 2160.00000, 117.612, -31.3798, 116.446, -151.088, 118.177, 89.325, 0, 0, 5.84493, -54.4538, 5.78054, -174.162, 5.87613, 66.251, 0.0374969, -111.83
1, 2220.00000, 117.612, -31.3798, 116.446, -151.088, 118.177, 89.325, 0, 0, 5.84493, -54.4538, 5.78054, -174.162, 5.87613, 66.251, 0.0374969, -111.83
1, 2280.00000, 117.612, -31.3798, 116.446, -151.088, 118.177, 89.325, 0, 0, 5.84493, -54.4538, 5.78054, -174.162, 5.87613, 66.251, 0.0374969, -111.83
1, 2340.00000, 117.612, -31.3798, 116.446, -151.088, 118.177, 89.325, 0, 0, 5.84493, -54.4538, 5.78054, -174.162, 5.87613, 66.251, 0.0374969, -111.83
1, 2400.00000, 117.612, -31.3798, 116.446, -151.088, 118.177, 89.325, 0, 0, 5.84493, -54.4538, 5.78054, -174.162, 5.87613, 66.251, 0.0374969, -111.83
1, 2460.00000, 117.612, -31.3798, 116.446, -151.088, 118.177, 89.325, 0, 0, 5.84493, -54.4538, 5.78054, -174.162, 5.87613, 66.251, 0.0374969, -111.83
1, 2520.00000, 117.612, -31.3798, 116.446, -151.088, 118.177, 89.325, 0, 0, 5.84493, -54.4538, 5.78054, -174.162, 5.87613, 66.251, 0.0374969, -111.83
1, 2580.00000, 117.612, -31.3798, 116.446, -151.088, 118.177, 89.325, 0, 0, 5.84493, -54.4538, 5.78054, -174.162, 5.87613, 66.251, 0.0374969, -111.83
1, 2640.00000, 117.612, -31.3798, 116.446, -151.088, 118.177, 89.325, 0, 0, 5.84493, -54.4538, 5.78054, -174.162, 5.87613, 66.251, 0.0374969, -111.83
1, 2700.00000, 117.612, -31.3798, 116.446, -151.088, 118.177, 89.325, 0, 0, 5.84493, -54.4538, 5.78054, -174.162, 5.87613, 66.251, 0.0374969, -111.83
1, 2760.00000, 117.612, -31.3798, 116.446, -151.088, 118.177, 89.325, 0, 0, 5.84493, -54.4538, 5.78054, -174.162, 5.87613, 66.251, 0.0374969, -111.83
1, 2820.00000, 117.612, -31.3798, 116.446, -151.088, 118.177, 89.325, 0, 0, 5.84493, -54.4538, 5.78054, -174.162, 5.87613, 66.251, 0.0374969, -111.83
1, 2880.00000, 117.612, -31.3798, 116.446, -151.088, 118.177, 89.325, 0, 0, 5.84493, -54.4538, 5.78054, -174.162, 5.87613, 66.251, 0.0374969, -111.83
1, 2940.00000, 117.612, -31.3798, 116.446, -151.088, 118.177, 89.325, 0, 0, 5.84493, -54.4538, 5.78054, -174.162, 5.87613, 66.251, 0.0374969, -111.83
1, 3000.00000, 117.612, -31.3798, 116.446, -151.088, 118.177, 89.325, 0, 0, 5.84493, -54.4538, 5.78054, -174.162, 5.87613, 66.251, 0.0374969, -111.83
1, 3060.00000, 117.612, -31.3798, 116.446, -151.088, 118.177, 89.325, 0, 0, 5.84493, -54.4538, 5.78054, -174.162, 5.87613, 66.251, 0.0374969, -111.83
1, 3120.00000, 117.612, -31.3798, 116.446, -151.088, 118.177, 89.325, 0, 0, 5.84493, -54.4538, 5.78054, -174.162, 5.87613, 66.251, 0.0374969, -111.83
1, 3180.00000, 117.612, -31.3798, 116.446, -151.088, 118.177, 89.325, 0, 0, 5.84493, -54.4538, 5.78054, -174.162, 5.87613, 66.251, 0.0374969, -111.83
1, 3240.00000, 117.612, -31.3798, 116.446, -151.088, 118.177, 89.325, 0, 0, 5.84493, -54.4538, 5.78054, -174.162, 5.87613, 66.251, 0.0374969, -111.83
1, 3300.00000, 117.612, -31.3798, 116.446, -151.088, 118.177, 89.325, 0, 0, 5.84493, -54.4538, 5.78054, -174.162, 5.87613, 66.251, 0.0374969, -111.83
1, 3360.00000, 117.612, -31.3798, 116.446, -151.088, 118.177, 89.325, 0, 0, 5.84493, -54.4538, 5.78054, -174.162, 5.87613, 66.251, 0.0374969, -111.83
1, 3420.00000, 117.612, -31.3798, 116.446, -151.088, 118.177, 89.325, 0, 0, 5.84493, -54.4538, 5.78054, -174.162, 5.87613, 66.251, 0.0374969, -111.83
1, 3480.00000, 117.612, -31.3798, 116.446, -151.088, 118.177, 89.325, 0, 0, 5.84493, -54.4538, 5.78054, -174.162, 5.87613, 66.251, 0.0374969, -111.83
1, 3540.00000, 117.612, -31.3798, 116.446, -151.088, 118.177, 89.325, 0, 0, 5.84493, -54.4538, 5.78054, -174.162, 5.87613, 66.251, 0.0374969, -111.83
2, 0.00000, 117.612, -31.3798, 116.446, -151.088, 118.177, 89.325, 0, 0, 5.84493, -54.4538, 5.78054, -174.162, 5.87613, 66.251, 0.0374969, -111.83
2, 60.00000, 117.612, -31.3798, 116.446, -151.088, 118.177, 89.325, 0, 0, 5.84493, -54.4538, 5.78054, -174.162, 5.87613, 66.251, 0.0374969, -111.83
2, 120.00000, 117.612, -31.3798, 116.446, -151.088, 118.177, 89.325, 0, 0, 5.84493, -54.4538, 5.78054, -174.162, 5.87613, 66.251, 0.0374969, -111.83
2, 180.00000, 117.612, -31.3798, 116.446, -151.088, 118.177, 89.325, 0, 0, 5.84493, -54.4538, 5.78054, -174.162, 5.87613, 66.251, 0.0374969, -111.83
2, 240.00000, 117.612, -31.3798, 116.446, -151.088, 118.177, 89.325, 0, 0, 5.84493, -54.4538, 5.78054, -174.162, 5.87613, 66.251, 0.0374969, -111.83
2, 300.00000, 117.612, -31.3798, 116.446, -151.088, 118.177, 89.325, 0, 0, 5.84493, -54.4538, 5.78054, -174.162, 5.87613, 66.251, 0.0374969, -111.83
2, 360.00000, 117.612, -31.3798, 116.446, -151.088, 118.177, 89.325, 0, 0, 5.84493, -54.4538, 5.78054, -174.162, 5.87613, 66.251, 0.0374969, -111.83
2, 420.00000, 117.612, -31.3798, 116.446, -151.088, 118.177, 89.325, 0, 0, 5.84493, -54.4538, 5.78054, -174.162, 5.87613, 66.251, 0.0374969, -111.83
2, 480.00000, 117.612, -31.3798, 116.446, -151.088, 118.177, 89.325, 0, 0, 5.84493, -54.4538, 5.78054, -174.162, 5.87613, 66.251, 0.0374969, -111.83
2, 540.00000, 117.612, -31.3798, 116.446, -151.088, 118.177, 89.325, 0, 0, 5.84493, -54.4538, 5.78054, -174.162, 5.87613, 66.251, 0.0374969, -111.83
2, 600.00000, 117.612, -31.3798, 116.446, -151.088, 118.177, 89.325, 0, 0, 5.84493, -54.4538, 5.78054, -174.162, 5.87613, 66.251, 0.0374969, -111.83
2, 660.00000, 117.612, -31.3798, 116.446, -151.088, 118.177, 89.325, 0, 0, 5.84493, -54.4538, 5.78054, -174.162, 5.87613, 66.251, 0.0374969, -111.83
2, 720.00000, 117.612, -31.3798, 116.446, -151.088, 118.177, 89.325, 0, 0, 5.84493, -54.4538, 5.78054, -174.162, 5.87613, 66.251, 0.0374969, -111.83
