hour,t(sec),V1,VAngle1,V2,VAngle2,V3,VAngle3,V4,VAngle4,I1,IAngle1,I2,IAngle2,I3,IAngle3,I4,IAngle4
0, 60.00000, 122.844, -32.0711, 123.168, -151.659, 124.122, 88.0343, 0, 0, 6.13832, -55.1449, 6.12219, -174.733, 6.07526, 64.9605, 0.0963031, 79.8606
0, 120.00000, 122.851, -32.0777, 123.168, -151.66, 124.139, 88.0337, 0, 0, 6.138, -55.1514, 6.12221, -174.733, 6.07442, 64.9598, 0.0973941, 79.3329
0, 180.00000, 122.857, -32.0835, 123.168, -151.66, 124.154, 88.0331, 0, 0, 6.1377, -55.1573, 6.12222, -174.733, 6.07366, 64.9592, 0.0983839, 78.8687
0, 240.00000, 122.862, -32.0889, 123.167, -151.66, 124.168, 88.0325, 0, 0, 6.13744, -55.1626, 6.12223, -174.734, 6.07298, 64.9587, 0.0992813, 78.4594
0, 300.00000, 122.867, -32.0936, 123.167, -151.66, 124.18, 88.0321, 0, 0, 6.1372, -55.1674, 6.12224, -174.734, 6.07237, 64.9582, 0.100094, 78.0976
0, 360.00000, 122.871, -32.0979, 123.167, -151.66, 124.191, 88.0316, 0, 0, 6.13699, -55.1717, 6.12225, -174.734, 6.07182, 64.9578, 0.10083, 77.777
0, 420.00000, 122.875, -32.1018, 123.167, -151.66, 124.201, 88.0312, 0, 0, 6.1368, -55.1756, 6.12226, -174.734, 6.07132, 64.9574, 0.101497, 77.4919
0, 480.00000, 123.445, -31.984, 123.686, -151.541, 124.755, 88.1695, 0, 0, 5.31438, -55.0578, 5.30402, -174.615, 5.25865, 65.0956, 0.0874071, 75.1872
0, 540.00000, 123.448, -31.9871, 123.686, -151.541, 124.763, 88.1693, 0, 0, 5.31425, -55.061, 5.30402, -174.615, 5.25829, 65.0954, 0.0879041, 74.9646
0, 600.00000, 123.451, -31.99, 123.686, -151.541, 124.771, 88.169, 0, 0, 5.31413, -55.0638, 5.30403, -174.615, 5.25796, 65.0951, 0.088354, 74.7659
0, 660.00000, 123.453, -31.9925, 123.686, -151.541, 124.778, 88.1688, 0, 0, 5.31402, -55.0664, 5.30404, -174.615, 5.25766, 65.0949, 0.08876, 74.5889
0, 720.00000, 123.456, -31.9948, 123.686, -151.541, 124.784, 88.1686, 0, 0, 5.31392, -55.0687, 5.30404, -174.615, 5.25739, 65.0947, 0.0891262, 74.4312
0, 780.00000, 123.458, -31.9969, 123.686, -151.541, 124.79, 88.1684, 0, 0, 5.31383, -55.0708, 5.30405, -174.615, 5.25715, 65.0945, 0.0894566, 74.2903
0, 840.00000, 123.46, -31.9988, 123.685, -151.541, 124.795, 88.1683, 0, 0, 5.31375, -55.0726, 5.30405, -174.615, 5.25694, 65.0944, 0.0897545, 74.1645
0, 900.00000, 123.461, -32.0005, 123.685, -151.541, 124.799, 88.1681, 0, 0, 5.31368, -55.0743, 5.30406, -174.615, 5.25674, 65.0942, 0.090023, 74.0521
0, 960.00000, 123.068, -32.3091, 122.891, -151.555, 124.842, 88.1578, 0, 0, 5.33064, -55.3829, 5.33832, -174.628, 5.25493, 65.0839, 0.141058, 58.9555
0, 1020.00000, 123.07, -32.3104, 122.891, -151.555, 124.846, 88.1577, 0, 0, 5.33059, -55.3843, 5.33832, -174.628, 5.25478, 65.0837, 0.141305, 58.9234
0, 1080.00000, 123.071, -32.3117, 122.891, -151.555, 124.849, 88.1575, 0, 0, 5.33054, -55.3855, 5.33833, -174.629, 5.25463, 65.0836, 0.141527, 58.8947
0, 1140.00000, 123.332, -32.1362, 123.367, -151.559, 124.822, 88.1618, 0, 0, 5.31926, -55.21, 5.31775, -174.633, 5.25579, 65.0879, 0.109056, 65.3146
0, 1200.00000, 123.333, -32.1371, 123.367, -151.559, 124.824, 88.1617, 0, 0, 5.31922, -55.211, 5.31776, -174.633, 5.25568, 65.0878, 0.109228, 65.2743
0, 1260.00000, 123.334, -32.138, 123.367, -151.559, 124.827, 88.1617, 0, 0, 5.31918, -55.2119, 5.31776, -174.633, 5.25558, 65.0877, 0.109384, 65.2381
0, 1320.00000, 123.334, -32.1388, 123.367, -151.559, 124.829, 88.1616, 0, 0, 5.31915, -55.2127, 5.31776, -174.633, 5.25548, 65.0877, 0.109524, 65.2056
0, 1380.00000, 123.335, -32.1396, 123.367, -151.559, 124.831, 88.1615, 0, 0, 5.31912, -55.2135, 5.31776, -174.633, 5.2554, 65.0876, 0.10965, 65.1765
0, 1440.00000, 123.336, -32.1402, 123.367, -151.559, 124.833, 88.1615, 0, 0, 5.31909, -55.2141, 5.31776, -174.633, 5.25532, 65.0875, 0.109763, 65.1503
0, 1500.00000, 123.336, -32.1408, 123.367, -151.559, 124.834, 88.1614, 0, 0, 5.31907, -55.2147, 5.31776, -174.633, 5.25526, 65.0875, 0.109865, 65.1268
0, 1560.00000, 123.337, -32.1413, 123.367, -151.559, 124.836, 88.1613, 0, 0, 5.31905, -55.2152, 5.31776, -174.633, 5.2552, 65.0874, 0.109957, 65.1057
0, 1620.00000, 123.337, -32.1418, 123.367, -151.559, 124.837, 88.1613, 0, 0, 5.31903, -55.2157, 5.31777, -174.633, 5.25514, 65.0874, 0.11004, 65.0867
0, 1680.00000, 123.338, -32.1422, 123.367, -151.559, 124.838, 88.1613, 0, 0, 5.31901, -55.2161, 5.31777, -174.633, 5.25509, 65.0873, 0.110114, 65.0697
0, 1740.00000, 123.338, -32.1426, 123.366, -151.559, 124.839, 88.1612, 0, 0, 5.31899, -55.2165, 5.31777, -174.633, 5.25505, 65.0873, 0.110181, 65.0544
0, 1800.00000, 123.003, -32.1628, 123.371, -151.558, 124.676, 88.0245, 0, 0, 5.3335, -55.2367, 5.31755, -174.632, 5.26194, 64.9506, 0.114826, 77.3058
0, 1860.00000, 123.003, -32.1631, 123.371, -151.558, 124.676, 88.0245, 0, 0, 5.33348, -55.237, 5.31755, -174.632, 5.2619, 64.9506, 0.114872, 77.2888
0, 1920.00000, 123.003, -32.1633, 123.371, -151.558, 124.677, 88.0245, 0, 0, 5.33347, -55.2373, 5.31755, -174.632, 5.26187, 64.9505, 0.114914, 77.2734
0, 1980.00000, 123.003, -32.1636, 123.371, -151.558, 124.678, 88.0244, 0, 0, 5.33346, -55.2375, 5.31755, -174.632, 5.26184, 64.9505, 0.114952, 77.2595
0, 2040.00000, 123.004, -32.1638, 123.371, -151.558, 124.678, 88.0244, 0, 0, 5.33345, -55.2377, 5.31755, -174.632, 5.26182, 64.9505, 0.114985, 77.2471
0, 2100.00000, 123.004, -32.164, 123.371, -151.558, 124.679, 88.0244, 0, 0, 5.33344, -55.2379, 5.31755, -174.632, 5.2618, 64.9505, 0.115016, 77.2359
0, 2160.00000, 123.004, -32.1642, 123.371, -151.558, 124.679, 88.0244, 0, 0, 5.33344, -55.2381, 5.31755, -174.632, 5.26178, 64.9505, 0.115043, 77.2258
0, 2220.00000, 123.004, -32.1644, 123.371, -151.558, 124.68, 88.0244, 0, 0, 5.33343, -55.2383, 5.31755, -174.632, 5.26176, 64.9505, 0.115068, 77.2167
0, 2280.00000, 123.004, -32.1645, 123.371, -151.558, 124.68, 88.0244, 0, 0, 5.33342, -55.2384, 5.31755, -174.632, 5.26174, 64.9504, 0.11509, 77.2086
0, 2340.00000, 123.005, -32.1646, 123.371, -151.558, 124.68, 88.0243, 0, 0, 5.33342, -55.2386, 5.31755, -174.632, 5.26173, 64.9504, 0.11511, 77.2012
0, 2400.00000, 123.005, -32.1648, 123.371, -151.558, 124.681, 88.0243, 0, 0, 5.33341, -55.2387, 5.31756, -174.632, 5.26171, 64.9504, 0.115128, 77.1946
0, 2460.00000, 123.005, -32.1649, 123.371, -151.558, 124.681, 88.0243, 0, 0, 5.33341, -55.2388, 5.31756, -174.632, 5.2617, 64.9504, 0.115145, 77.1887
0, 2520.00000, 123.005, -32.165, 123.371, -151.558, 124.681, 88.0243, 0, 0, 5.3334, -55.2389, 5.31756, -174.632, 5.26169, 64.9504, 0.115159, 77.1833
0, 2580.00000, 123.005, -32.165, 123.371, -151.558, 124.682, 88.0243, 0, 0, 5.3334, -55.239, 5.31756, -174.632, 5.26168, 64.9504, 0.115172, 77.1785
0, 2640.00000, 123.005, -32.1651, 123.371, -151.558, 124.682, 88.0243, 0, 0, 5.3334, -55.239, 5.31756, -174.632, 5.26167, 64.9504, 0.115184, 77.1742
0, 2700.00000, 123.005, -32.1652, 123.371, -151.558, 124.682, 88.0243, 0, 0, 5.33339, -55.2391, 5.31756, -174.632, 5.26166, 64.9504, 0.115195, 77.1703
0, 2760.00000, 123.646, -32.1905, 123.366, -151.557, 125.074, 88.2518, 0, 0, 5.30574, -55.2645, 5.3178, -174.631, 5.24518, 65.1779, 0.119393, 54.4704
0, 2820.00000, 123.646, -32.1906, 123.366, -151.557, 125.074, 88.2518, 0, 0, 5.30574, -55.2645, 5.3178, -174.631, 5.24517, 65.1779, 0.119405, 54.4686
0, 2880.00000, 123.646, -32.1906, 123.366, -151.557, 125.074, 88.2518, 0, 0, 5.30573, -55.2646, 5.3178, -174.631, 5.24516, 65.1779, 0.119415, 54.4676
0, 2940.00000, 123.646, -32.1907, 123.366, -151.557, 125.074, 88.2518, 0, 0, 5.30573, -55.2646, 5.3178, -174.631, 5.24516, 65.1779, 0.119423, 54.4667
0, 3000.00000, 123.646, -32.1907, 123.366, -151.557, 125.074, 88.2518, 0, 0, 5.30573, -55.2646, 5.3178, -174.631, 5.24515, 65.1779, 0.119431, 54.4658
0, 3060.00000, 123.646, -32.1908, 123.366, -151.557, 125.074, 88.2518, 0, 0, 5.30573, -55.2647, 5.3178, -174.631, 5.24515, 65.1779, 0.119437, 54.4651
0, 3120.00000, 123.646, -32.1908, 123.366, -151.557, 125.075, 88.2518, 0, 0, 5.30573, -55.2647, 5.3178, -174.631, 5.24515, 65.1779, 0.119444, 54.4644
0, 3180.00000, 123.646, -32.1908, 123.366, -151.557, 125.075, 88.2518, 0, 0, 5.30573, -55.2648, 5.3178, -174.631, 5.24514, 65.1779, 0.119449, 54.4638
0, 3240.00000, 123.646, -32.1909, 123.366, -151.557, 125.075, 88.2518, 0, 0, 5.30573, -55.2648, 5.3178, -174.631, 5.24514, 65.1779, 0.119454, 54.4632
0, 3300.00000, 123.647, -32.1909, 123.366, -151.557, 125.075, 88.2518, 0, 0, 5.30572, -55.2648, 5.3178, -174.631, 5.24514, 65.1778, 0.119459, 54.4627
0, 3360.00000, 123.647, -32.1909, 123.366, -151.557, 125.075, 88.2518, 0, 0, 5.30572, -55.2648, 5.31781, -174.631, 5.24514, 65.1778, 0.119463, 54.4623
0, 3420.00000, 123.647, -32.1909, 123.366, -151.557, 125.075, 88.2518, 0, 0, 5.30572, -55.2648, 5.31781, -174.631, 5.24513, 65.1778, 0.119466, 54.4619
0, 3480.00000, 123.647, -32.1909, 123.366, -151.557, 125.075, 88.2518, 0, 0, 5.30572, -55.2649, 5.31781, -174.631, 5.24513, 65.1778, 0.119469, 54.4615
0, 3540.00000, 123.647, -32.191, 123.366, -151.557, 125.075, 88.2518, 0, 0, 5.30572, -55.2649, 5.31781, -174.631, 5.24513, 65.1778, 0.119472, 54.4612
1, 0.00000, 123.647, -32.191, 123.366, -151.557, 125.075, 88.2518, 0, 0, 5.30572, -55.2649, 5.31781, -174.631, 5.24513, 65.1778, 0.119475, 54.4609
1, 60.00000, 123.896, -32.0194, 123.827, -151.564, 125.047, 88.2566, 0, 0, 5.29502, -55.0933, 5.29798, -174.638, 5.24632, 65.1827, 0.086896, 60.5404
1, 120.00000, 123.896, -32.0194, 123.827, -151.564, 125.047, 88.2566, 0, 0, 5.29502, -55.0933, 5.29798, -174.638, 5.24632, 65.1827, 0.0868979, 60.5399
1, 180.00000, 123.896, -32.0194, 123.827, -151.564, 125.047, 88.2566, 0, 0, 5.29502, -55.0933, 5.29798, -174.638, 5.24632, 65.1827, 0.0868997, 60.5395
1, 240.00000, 123.896, -32.0194, 123.827, -151.564, 125.047, 88.2566, 0, 0, 5.29502, -55.0933, 5.29798, -174.638, 5.24632, 65.1827, 0.0869014, 60.5391
1, 300.00000, 123.896, -32.0194, 123.827, -151.564, 125.047, 88.2566, 0, 0, 5.29502, -55.0933, 5.29798, -174.638, 5.24632, 65.1827, 0.0869029, 60.5388
1, 360.00000, 123.896, -32.0194, 123.827, -151.564, 125.047, 88.2566, 0, 0, 5.29502, -55.0933, 5.29798, -174.638, 5.24632, 65.1827, 0.0869043, 60.5385
1, 420.00000, 123.896, -32.0194, 123.827, -151.564, 125.047, 88.2566, 0, 0, 5.29502, -55.0933, 5.29798, -174.638, 5.24631, 65.1827, 0.0869055, 60.5382
1, 480.00000, 123.896, -32.0194, 123.827, -151.564, 125.047, 88.2566, 0, 0, 5.29502, -55.0933, 5.29798, -174.638, 5.24631, 65.1827, 0.0869066, 60.5379
1, 540.00000, 123.896, -32.0194, 123.827, -151.564, 125.047, 88.2566, 0, 0, 5.29502, -55.0933, 5.29798, -174.638, 5.24631, 65.1827, 0.0869076, 60.5377
1, 600.00000, 123.896, -32.0194, 123.827, -151.564, 125.047, 88.2566, 0, 0, 5.29502, -55.0933, 5.29798, -174.638, 5.24631, 65.1827, 0.0869085, 60.5375
1, 660.00000, 123.896, -32.0194, 123.827, -151.564, 125.047, 88.2566, 0, 0, 5.29502, -55.0933, 5.29798, -174.638, 5.24631, 65.1827, 0.0869093, 60.5373
1, 720.00000, 123.896, -32.0194, 123.827, -151.564, 125.047, 88.2566, 0, 0, 5.29502, -55.0934, 5.29798, -174.638, 5.24631, 65.1827, 0.08691, 60.5372
1, 780.00000, 123.897, -32.0199, 123.909, -151.444, 125.355, 88.2936, 0, 0, 5.29499, -55.0939, 5.2945, -174.518, 5.23341, 65.2196, 0.107382, 64.1768
1, 840.00000, 123.897, -32.0199, 123.909, -151.444, 125.355, 88.2936, 0, 0, 5.29499, -55.0939, 5.2945, -174.518, 5.23341, 65.2197, 0.107383, 64.1763
1, 900.00000, 123.897, -32.0199, 123.909, -151.444, 125.355, 88.2936, 0, 0, 5.29499, -55.0939, 5.2945, -174.518, 5.23341, 65.2197, 0.107384, 64.1762
1, 960.00000, 123.897, -32.02, 123.909, -151.444, 125.355, 88.2936, 0, 0, 5.29499, -55.0939, 5.2945, -174.518, 5.23341, 65.2197, 0.107384, 64.1761
1, 1020.00000, 123.897, -32.02, 123.909, -151.444, 125.355, 88.2936, 0, 0, 5.29499, -55.0939, 5.2945, -174.518, 5.23341, 65.2197, 0.107385, 64.176
1, 1080.00000, 123.897, -32.02, 123.909, -151.444, 125.355, 88.2936, 0, 0, 5.29499, -55.0939, 5.2945, -174.518, 5.23341, 65.2197, 0.107385, 64.1759
1, 1140.00000, 123.897, -32.02, 123.909, -151.444, 125.355, 88.2936, 0, 0, 5.29499, -55.0939, 5.2945, -174.518, 5.2334, 65.2197, 0.107386, 64.1758
1, 1200.00000, 123.897, -32.02, 123.909, -151.444, 125.355, 88.2936, 0, 0, 5.29499, -55.0939, 5.2945, -174.518, 5.2334, 65.2197, 0.107386, 64.1758
1, 1260.00000, 123.897, -32.02, 123.909, -151.444, 125.355, 88.2936, 0, 0, 5.29499, -55.0939, 5.2945, -174.518, 5.2334, 65.2197, 0.107386, 64.1757
1, 1320.00000, 123.897, -32.02, 123.909, -151.444, 125.355, 88.2936, 0, 0, 5.29499, -55.0939, 5.2945, -174.518, 5.2334, 65.2197, 0.107386, 64.1756
1, 1380.00000, 123.897, -32.02, 123.909, -151.444, 125.355, 88.2936, 0, 0, 5.29499, -55.0939, 5.2945, -174.518, 5.2334, 65.2197, 0.107387, 64.1756
1, 1440.00000, 123.897, -32.02, 123.909, -151.444, 125.355, 88.2936, 0, 0, 5.29499, -55.0939, 5.2945, -174.518, 5.2334, 65.2196, 0.107387, 64.1755
1, 1500.00000, 123.897, -32.02, 123.909, -151.444, 125.355, 88.2936, 0, 0, 5.29499, -55.0939, 5.2945, -174.518, 5.2334, 65.2196, 0.107387, 64.1755
1, 1560.00000, 123.897, -32.02, 123.909, -151.444, 125.355, 88.2936, 0, 0, 5.29499, -55.0939, 5.2945, -174.518, 5.2334, 65.2196, 0.107387, 64.1755
1, 1620.00000, 123.897, -32.02, 123.909, -151.444, 125.355, 88.2936, 0, 0, 5.29499, -55.0939, 5.2945, -174.518, 5.2334, 65.2196, 0.107387, 64.1754
1, 1680.00000, 123.897, -32.02, 123.909, -151.444, 125.355, 88.2936, 0, 0, 5.29499, -55.0939, 5.2945, -174.518, 5.2334, 65.2196, 0.107387, 64.1754
1, 1740.00000, 123.897, -32.02, 123.909, -151.444, 125.355, 88.2936, 0, 0, 5.29499, -55.0939, 5.2945, -174.518, 5.2334, 65.2196, 0.107388, 64.1754
1, 1800.00000, 123.897, -32.02, 123.909, -151.444, 125.355, 88.2936, 0, 0, 5.29499, -55.0939, 5.2945, -174.518, 5.2334, 65.2196, 0.107388, 64.1753
1, 1860.00000, 123.897, -32.02, 123.909, -151.444, 125.355, 88.2936, 0, 0, 5.29499, -55.0939, 5.2945, -174.518, 5.2334, 65.2196, 0.107388, 64.1753
1, 1920.00000, 123.897, -32.02, 123.909, -151.444, 125.355, 88.2936, 0, 0, 5.29499, -55.0939, 5.2945, -174.518, 5.2334, 65.2196, 0.107388, 64.1753
1, 1980.00000, 123.897, -32.02, 123.909, -151.444, 125.355, 88.2936, 0, 0, 5.29499, -55.0939, 5.2945, -174.518, 5.2334, 65.2196, 0.107388, 64.1753
1, 2040.00000, 123.897, -32.02, 123.909, -151.444, 125.355, 88.2936, 0, 0, 5.29499, -55.0939, 5.2945, -174.518, 5.2334, 65.2196, 0.107388, 64.1753
1, 2100.00000, 123.897, -32.02, 123.909, -151.444, 125.355, 88.2936, 0, 0, 5.29499, -55.0939, 5.2945, -174.518, 5.2334, 65.2196, 0.107388, 64.1753
1, 2160.00000, 123.897, -32.02, 123.909, -151.444, 125.355, 88.2936, 0, 0, 5.29499, -55.0939, 5.2945, -174.518, 5.2334, 65.2196, 0.107388, 64.1752
1, 2220.00000, 124.231, -31.9995, 123.901, -151.445, 125.526, 88.4307, 0, 0, 5.28074, -55.0734, 5.29481, -174.519, 5.22628, 65.3567, 0.108915, 51.3363
1, 2280.00000, 124.231, -31.9995, 123.901, -151.445, 125.526, 88.4307, 0, 0, 5.28074, -55.0734, 5.29481, -174.519, 5.22628, 65.3567, 0.108917, 51.3361
1, 2340.00000, 124.231, -31.9995, 123.901, -151.445, 125.526, 88.4307, 0, 0, 5.28074, -55.0734, 5.29481, -174.519, 5.22628, 65.3567, 0.108917, 51.3361
1, 2400.00000, 124.231, -31.9995, 123.901, -151.445, 125.526, 88.4307, 0, 0, 5.28074, -55.0734, 5.29481, -174.519, 5.22628, 65.3567, 0.108917, 51.336
1, 2460.00000, 124.231, -31.9995, 123.901, -151.445, 125.526, 88.4307, 0, 0, 5.28074, -55.0734, 5.29481, -174.519, 5.22628, 65.3567, 0.108917, 51.336
1, 2520.00000, 124.231, -31.9995, 123.901, -151.445, 125.526, 88.4307, 0, 0, 5.28074, -55.0734, 5.29481, -174.519, 5.22628, 65.3567, 0.108917, 51.336
1, 2580.00000, 124.231, -31.9995, 123.901, -151.445, 125.526, 88.4307, 0, 0, 5.28074, -55.0734, 5.29481, -174.519, 5.22628, 65.3567, 0.108917, 51.336
1, 2640.00000, 124.231, -31.9995, 123.901, -151.445, 125.526, 88.4307, 0, 0, 5.28074, -55.0734, 5.29481, -174.519, 5.22628, 65.3567, 0.108917, 51.336
1, 2700.00000, 124.231, -31.9995, 123.901, -151.445, 125.526, 88.4307, 0, 0, 5.28074, -55.0734, 5.29481, -174.519, 5.22628, 65.3567, 0.108917, 51.336
1, 2760.00000, 124.231, -31.9995, 123.901, -151.445, 125.526, 88.4307, 0, 0, 5.28074, -55.0734, 5.29481, -174.519, 5.22628, 65.3567, 0.108917, 51.336
1, 2820.00000, 124.231, -31.9995, 123.901, -151.445, 125.526, 88.4307, 0, 0, 5.28074, -55.0734, 5.29481, -174.519, 5.22628, 65.3567, 0.108917, 51.336
1, 2880.00000, 124.231, -31.9995, 123.901, -151.445, 125.526, 88.4307, 0, 0, 5.28074, -55.0734, 5.29481, -174.519, 5.22628, 65.3567, 0.108917, 51.336
1, 2940.00000, 124.231, -31.9995, 123.901, -151.445, 125.526, 88.4307, 0, 0, 5.28074, -55.0734, 5.29481, -174.519, 5.22628, 65.3567, 0.108917, 51.336
1, 3000.00000, 124.231, -31.9995, 123.901, -151.445, 125.526, 88.4307, 0, 0, 5.28074, -55.0734, 5.29481, -174.519, 5.22628, 65.3567, 0.108917, 51.336
1, 3060.00000, 124.231, -31.9995, 123.901, -151.445, 125.526, 88.4307, 0, 0, 5.28074, -55.0734, 5.29481, -174.519, 5.22628, 65.3567, 0.108917, 51.336
1, 3120.00000, 124.231, -31.9995, 123.901, -151.445, 125.526, 88.4307, 0, 0, 5.28074, -55.0734, 5.29481, -174.519, 5.22628, 65.3567, 0.108917, 51.336
1, 3180.00000, 124.231, -31.9995, 123.901, -151.445, 125.526, 88.4307, 0, 0, 5.28074, -55.0734, 5.29481, -174.519, 5.22628, 65.3567, 0.108917, 51.336
1, 3240.00000, 124.231, -31.9995, 123.901, -151.445, 125.526, 88.4307, 0, 0, 5.28074, -55.0734, 5.29481, -174.519, 5.22628, 65.3567, 0.108917, 51.336
1, 3300.00000, 124.231, -31.9995, 123.901, -151.445, 125.526, 88.4307, 0, 0, 5.28074, -55.0734, 5.29481, -174.519, 5.22628, 65.3567, 0.108917, 51.336
1, 3360.00000, 124.231, -31.9995, 123.901, -151.445, 125.526, 88.4307, 0, 0, 5.28074, -55.0734, 5.29481, -174.519, 5.22628, 65.3567, 0.108917, 51.336
1, 3420.00000, 124.231, -31.9995, 123.901, -151.445, 125.526, 88.4307, 0, 0, 5.28074, -55.0734, 5.29481, -174.519, 5.22628, 65.3567, 0.108917, 51.336
1, 3480.00000, 124.231, -31.9995, 123.901, -151.445, 125.526, 88.4307, 0, 0, 5.28074, -55.0734, 5.29481, -174.519, 5.22628, 65.3567, 0.108917, 51.336
1, 3540.00000, 124.231, -31.9995, 123.901, -151.445, 125.526, 88.4307, 0, 0, 5.28074, -55.0734, 5.29481, -174.519, 5.22628, 65.3567, 0.108917, 51.336
2, 0.00000, 124.231, -31.9995, 123.901, -151.445, 125.526, 88.4307, 0, 0, 5.28074, -55.0734, 5.29481, -174.519, 5.22628, 65.3567, 0.108917, 51.336
2, 60.00000, 124.231, -31.9995, 123.901, -151.445, 125.526, 88.4307, 0, 0, 5.28074, -55.0734, 5.29481, -174.519, 5.22628, 65.3567, 0.108917, 51.336
2, 120.00000, 124.231, -31.9995, 123.901, -151.445, 125.526, 88.4307, 0, 0, 5.28074, -55.0734, 5.29481, -174.519, 5.22628, 65.3567, 0.108917, 51.336
2, 180.00000, 124.231, -31.9995, 123.901, -151.445, 125.526, 88.4307, 0, 0, 5.28074, -55.0734, 5.29481, -174.519, 5.22628, 65.3567, 0.108917, 51.336
2, 240.00000, 124.231, -31.9995, 123.901, -151.445, 125.526, 88.4307, 0, 0, 5.28074, -55.0734, 5.29481, -174.519, 5.22628, 65.3567, 0.108917, 51.336
2, 300.00000, 124.231, -31.9995, 123.901, -151.445, 125.526, 88.4307, 0, 0, 5.28074, -55.0734, 5.29481, -174.519, 5.22628, 65.3567, 0.108917, 51.336
2, 360.00000, 124.231, -31.9995, 123.901, -151.445, 125.526, 88.4307, 0, 0, 5.28074, -55.0734, 5.29481, -174.519, 5.22628, 65.3567, 0.108917, 51.336
2, 420.00000, 124.231, -31.9995, 123.901, -151.445, 125.526, 88.4307, 0, 0, 5.28074, -55.0734, 5.29481, -174.519, 5.22628, 65.3567, 0.108917, 51.336
2, 480.00000, 124.231, -31.9995, 123.901, -151.445, 125.526, 88.4307, 0, 0, 5.28074, -55.0734, 5.29481, -174.519, 5.22628, 65.3567, 0.108917, 51.336
2, 540.00000, 124.231, -31.9995, 123.901, -151.445, 125.526, 88.4307, 0, 0, 5.28074, -55.0734, 5.29481, -174.519, 5.22628, 65.3567, 0.108917, 51.336
2, 600.00000, 124.231, -31.9995, 123.901, -151.445, 125.526, 88.4307, 0, 0, 5.28074, -55.0734, 5.29481, -174.519, 5.22628, 65.3567, 0.108917, 51.336
2, 660.00000, 124.231, -31.9995, 123.901, -151.445, 125.526, 88.4307, 0, 0, 5.28074, -55.0734, 5.29481, -174.519, 5.22628, 65.3567, 0.108917, 51.336
2, 720.00000, 124.231, -31.9995, 123.901, -151.445, 125.526, 88.4307, 0, 0, 5.28074, -55.0734, 5.29481, -174.519, 5.22628, 65.3567, 0.108917, 51.336
2, 780.00000, 124.231, -31.9995, 123.901, -151.445, 125.526, 88.4307, 0, 0, 5.28074, -55.0734, 5.29481, -174.519, 5.22628, 65.3567, 0.108917, 51.336
