hour,t(sec),V1,VAngle1,V2,VAngle2,V3,VAngle3,V4,VAngle4,I1,IAngle1,I2,IAngle2,I3,IAngle3,I4,IAngle4
0, 60.00000, 116.291, -31.7318, 116.133, -150.943, 118.27, 88.7613, 0, 0, 5.0931, -54.8055, 5.0854, -174.017, 5.18954, 65.6876, 0.0397824, -111.105
0, 120.00000, 116.291, -31.7319, 116.133, -150.943, 118.27, 88.7613, 0, 0, 5.09306, -54.8058, 5.08536, -174.017, 5.1895, 65.6874, 0.0397759, -111.112
0, 180.00000, 116.291, -31.7319, 116.133, -150.943, 118.27, 88.7613, 0, 0, 5.09306, -54.8058, 5.08536, -174.017, 5.1895, 65.6874, 0.0397758, -111.112
0, 240.00000, 116.291, -31.7319, 116.133, -150.943, 118.27, 88.7613, 0, 0, 5.09306, -54.8058, 5.08536, -174.017, 5.1895, 65.6874, 0.0397758, -111.112
0, 300.00000, 116.291, -31.7319, 116.133, -150.943, 118.27, 88.7613, 0, 0, 5.09306, -54.8058, 5.08536, -174.017, 5.1895, 65.6874, 0.0397758, -111.112
0, 360.00000, 116.291, -31.7319, 116.133, -150.943, 118.27, 88.7613, 0, 0, 5.09306, -54.8058, 5.08536, -174.017, 5.1895, 65.6874, 0.0397758, -111.112
0, 420.00000, 116.291, -31.7319, 116.133, -150.943, 118.27, 88.7613, 0, 0, 5.09306, -54.8058, 5.08536, -174.017, 5.1895, 65.6874, 0.0397758, -111.112
0, 480.00000, 117.26, -31.6385, 117.055, -150.852, 119.188, 88.8701, 0, 0, 4.47202, -54.7128, 4.46335, -173.926, 4.55379, 65.7959, 0.0330931, -111.419
0, 540.00000, 117.26, -31.6385, 117.055, -150.852, 119.188, 88.8701, 0, 0, 4.47206, -54.7124, 4.46339, -173.925, 4.55383, 65.7962, 0.0331037, -111.427
0, 600.00000, 117.26, -31.6385, 117.055, -150.852, 119.188, 88.8701, 0, 0, 4.47206, -54.7124, 4.46339, -173.925, 4.55383, 65.7962, 0.0331037, -111.427
0, 660.00000, 117.26, -31.6385, 117.055, -150.852, 119.188, 88.8701, 0, 0, 4.47206, -54.7124, 4.46339, -173.925, 4.55383, 65.7962, 0.0331037, -111.427
0, 720.00000, 117.26, -31.6385, 117.055, -150.852, 119.188, 88.8701, 0, 0, 4.47206, -54.7124, 4.46339, -173.925, 4.55383, 65.7962, 0.0331037, -111.427
0, 780.00000, 117.26, -31.6385, 117.055, -150.852, 119.188, 88.8701, 0, 0, 4.47206, -54.7124, 4.46339, -173.925, 4.55383, 65.7962, 0.0331037, -111.427
0, 840.00000, 117.26, -31.6385, 117.055, -150.852, 119.188, 88.8701, 0, 0, 4.47206, -54.7124, 4.46339, -173.925, 4.55383, 65.7962, 0.0331037, -111.427
0, 900.00000, 117.26, -31.6385, 117.055, -150.852, 119.188, 88.8701, 0, 0, 4.47206, -54.7124, 4.46339, -173.925, 4.55383, 65.7962, 0.0331037, -111.427
0, 960.00000, 116.854, -31.6537, 115.477, -151.345, 117.401, 89.1632, 0, 0, 4.4549, -54.7271, 4.39649, -174.418, 4.47814, 66.0894, 0.0315224, -112.324
0, 1020.00000, 116.854, -31.6538, 115.477, -151.345, 117.401, 89.1632, 0, 0, 4.45484, -54.7277, 4.39645, -174.418, 4.47806, 66.0892, 0.0314737, -112.259
0, 1080.00000, 116.854, -31.6538, 115.477, -151.345, 117.401, 89.1632, 0, 0, 4.45484, -54.7277, 4.39645, -174.418, 4.47806, 66.0892, 0.0314735, -112.258
0, 1140.00000, 117.166, -31.6207, 115.477, -151.344, 117.516, 89.3027, 0, 0, 4.46805, -54.695, 4.39645, -174.418, 4.48289, 66.2287, 0.0316801, -115.432
0, 1200.00000, 117.166, -31.6207, 115.477, -151.344, 117.516, 89.3027, 0, 0, 4.46809, -54.6946, 4.39645, -174.418, 4.48291, 66.2288, 0.0317059, -115.507
0, 1260.00000, 117.166, -31.6207, 115.477, -151.344, 117.516, 89.3027, 0, 0, 4.46809, -54.6946, 4.39645, -174.418, 4.48291, 66.2288, 0.031706, -115.507
0, 1320.00000, 117.166, -31.6207, 115.477, -151.344, 117.516, 89.3027, 0, 0, 4.46809, -54.6946, 4.39645, -174.418, 4.48291, 66.2288, 0.031706, -115.507
0, 1380.00000, 117.166, -31.6207, 115.477, -151.344, 117.516, 89.3027, 0, 0, 4.46809, -54.6946, 4.39645, -174.418, 4.48291, 66.2288, 0.031706, -115.507
0, 1440.00000, 117.166, -31.6207, 115.477, -151.344, 117.516, 89.3027, 0, 0, 4.46809, -54.6946, 4.39645, -174.418, 4.48291, 66.2288, 0.031706, -115.507
0, 1500.00000, 117.166, -31.6207, 115.477, -151.344, 117.516, 89.3027, 0, 0, 4.46809, -54.6946, 4.39645, -174.418, 4.48291, 66.2288, 0.031706, -115.507
0, 1560.00000, 117.166, -31.6207, 115.477, -151.344, 117.516, 89.3027, 0, 0, 4.46809, -54.6946, 4.39645, -174.418, 4.48291, 66.2288, 0.031706, -115.507
0, 1620.00000, 117.166, -31.6207, 115.477, -151.344, 117.516, 89.3027, 0, 0, 4.46809, -54.6946, 4.39645, -174.418, 4.48291, 66.2288, 0.031706, -115.507
0, 1680.00000, 117.166, -31.6207, 115.477, -151.344, 117.516, 89.3027, 0, 0, 4.46809, -54.6946, 4.39645, -174.418, 4.48291, 66.2288, 0.031706, -115.507
0, 1740.00000, 117.166, -31.6207, 115.477, -151.344, 117.516, 89.3027, 0, 0, 4.46809, -54.6946, 4.39645, -174.418, 4.48291, 66.2288, 0.031706, -115.507
0, 1800.00000, 116.413, -31.914, 114.592, -151.164, 117.565, 89.2867, 0, 0, 4.43618, -54.9878, 4.35898, -174.238, 4.48499, 66.2126, 0.0372599, -117.658
0, 1860.00000, 116.413, -31.914, 114.592, -151.164, 117.565, 89.2867, 0, 0, 4.43616, -54.9879, 4.35895, -174.238, 4.485, 66.2127, 0.0372831, -117.65
0, 1920.00000, 116.413, -31.914, 114.592, -151.164, 117.565, 89.2867, 0, 0, 4.43616, -54.9879, 4.35895, -174.238, 4.485, 66.2127, 0.0372831, -117.65
0, 1980.00000, 116.413, -31.914, 114.592, -151.164, 117.565, 89.2867, 0, 0, 4.43616, -54.9879, 4.35895, -174.238, 4.485, 66.2127, 0.0372831, -117.65
0, 2040.00000, 116.413, -31.914, 114.592, -151.164, 117.565, 89.2867, 0, 0, 4.43616, -54.9879, 4.35895, -174.238, 4.485, 66.2127, 0.0372831, -117.65
0, 2100.00000, 116.413, -31.914, 114.592, -151.164, 117.565, 89.2867, 0, 0, 4.43616, -54.9879, 4.35895, -174.238, 4.485, 66.2127, 0.0372831, -117.65
0, 2160.00000, 116.413, -31.914, 114.592, -151.164, 117.565, 89.2867, 0, 0, 4.43616, -54.9879, 4.35895, -174.238, 4.485, 66.2127, 0.0372831, -117.65
0, 2220.00000, 116.413, -31.914, 114.592, -151.164, 117.565, 89.2867, 0, 0, 4.43616, -54.9879, 4.35895, -174.238, 4.485, 66.2127, 0.0372831, -117.65
0, 2280.00000, 116.413, -31.914, 114.592, -151.164, 117.565, 89.2867, 0, 0, 4.43616, -54.9879, 4.35895, -174.238, 4.485, 66.2127, 0.0372831, -117.65
0, 2340.00000, 116.413, -31.914, 114.592, -151.164, 117.565, 89.2867, 0, 0, 4.43616, -54.9879, 4.35895, -174.238, 4.485, 66.2127, 0.0372831, -117.65
0, 2400.00000, 116.413, -31.914, 114.592, -151.164, 117.565, 89.2867, 0, 0, 4.43616, -54.9879, 4.35895, -174.238, 4.485, 66.2127, 0.0372831, -117.65
0, 2460.00000, 116.413, -31.914, 114.592, -151.164, 117.565, 89.2867, 0, 0, 4.43616, -54.9879, 4.35895, -174.238, 4.485, 66.2127, 0.0372831, -117.65
0, 2520.00000, 116.413, -31.914, 114.592, -151.164, 117.565, 89.2867, 0, 0, 4.43616, -54.9879, 4.35895, -174.238, 4.485, 66.2127, 0.0372831, -117.65
0, 2580.00000, 116.413, -31.914, 114.592, -151.164, 117.565, 89.2867, 0, 0, 4.43616, -54.9879, 4.35895, -174.238, 4.485, 66.2127, 0.0372831, -117.65
0, 2640.00000, 116.413, -31.914, 114.592, -151.164, 117.565, 89.2867, 0, 0, 4.43616, -54.9879, 4.35895, -174.238, 4.485, 66.2127, 0.0372831, -117.65
0, 2700.00000, 116.413, -31.914, 114.592, -151.164, 117.565, 89.2867, 0, 0, 4.43616, -54.9879, 4.35895, -174.238, 4.485, 66.2127, 0.0372831, -117.65
0, 2760.00000, 116.563, -31.7625, 114.938, -151.148, 117.552, 89.2914, 0, 0, 4.44248, -54.8365, 4.37355, -174.223, 4.48445, 66.2175, 0.0352334, -116.227
0, 2820.00000, 116.563, -31.7625, 114.938, -151.148, 117.552, 89.2914, 0, 0, 4.44251, -54.8364, 4.37359, -174.222, 4.48444, 66.2175, 0.0351774, -116.233
0, 2880.00000, 116.563, -31.7625, 114.938, -151.148, 117.552, 89.2914, 0, 0, 4.44251, -54.8364, 4.37359, -174.222, 4.48444, 66.2175, 0.0351771, -116.233
0, 2940.00000, 116.563, -31.7625, 114.938, -151.148, 117.552, 89.2914, 0, 0, 4.44251, -54.8364, 4.37359, -174.222, 4.48444, 66.2175, 0.0351771, -116.233
0, 3000.00000, 116.563, -31.7625, 114.938, -151.148, 117.552, 89.2914, 0, 0, 4.44251, -54.8364, 4.37359, -174.222, 4.48444, 66.2175, 0.0351771, -116.233
0, 3060.00000, 116.563, -31.7625, 114.938, -151.148, 117.552, 89.2914, 0, 0, 4.44251, -54.8364, 4.37359, -174.222, 4.48444, 66.2175, 0.0351771, -116.233
0, 3120.00000, 116.563, -31.7625, 114.938, -151.148, 117.552, 89.2914, 0, 0, 4.44251, -54.8364, 4.37359, -174.222, 4.48444, 66.2175, 0.0351771, -116.233
0, 3180.00000, 116.563, -31.7625, 114.938, -151.148, 117.552, 89.2914, 0, 0, 4.44251, -54.8364, 4.37359, -174.222, 4.48444, 66.2175, 0.0351771, -116.233
0, 3240.00000, 116.563, -31.7625, 114.938, -151.148, 117.552, 89.2914, 0, 0, 4.44251, -54.8364, 4.37359, -174.222, 4.48444, 66.2175, 0.0351771, -116.233
0, 3300.00000, 116.563, -31.7625, 114.938, -151.148, 117.552, 89.2914, 0, 0, 4.44251, -54.8364, 4.37359, -174.222, 4.48444, 66.2175, 0.0351771, -116.233
0, 3360.00000, 116.563, -31.7625, 114.938, -151.148, 117.552, 89.2914, 0, 0, 4.44251, -54.8364, 4.37359, -174.222, 4.48444, 66.2175, 0.0351771, -116.233
0, 3420.00000, 116.563, -31.7625, 114.938, -151.148, 117.552, 89.2914, 0, 0, 4.44251, -54.8364, 4.37359, -174.222, 4.48444, 66.2175, 0.0351771, -116.233
0, 3480.00000, 116.563, -31.7625, 114.938, -151.148, 117.552, 89.2914, 0, 0, 4.44251, -54.8364, 4.37359, -174.222, 4.48444, 66.2175, 0.0351771, -116.233
0, 3540.00000, 116.563, -31.7625, 114.938, -151.148, 117.552, 89.2914, 0, 0, 4.44251, -54.8364, 4.37359, -174.222, 4.48444, 66.2175, 0.0351771, -116.233
1, 0.00000, 116.563, -31.7625, 114.938, -151.148, 117.552, 89.2914, 0, 0, 4.44251, -54.8364, 4.37359, -174.222, 4.48444, 66.2175, 0.0351771, -116.233
1, 60.00000, 116.666, -31.6274, 115.232, -151.121, 117.546, 89.2944, 0, 0, 4.44688, -54.7014, 4.38605, -174.195, 4.48419, 66.2204, 0.0336886, -114.784
1, 120.00000, 116.666, -31.6274, 115.232, -151.121, 117.546, 89.2944, 0, 0, 4.44689, -54.7013, 4.38609, -174.195, 4.48418, 66.2204, 0.0336438, -114.775
1, 180.00000, 116.666, -31.6274, 115.232, -151.121, 117.546, 89.2944, 0, 0, 4.44689, -54.7013, 4.38609, -174.195, 4.48418, 66.2204, 0.0336436, -114.775
1, 240.00000, 116.666, -31.6274, 115.232, -151.121, 117.546, 89.2944, 0, 0, 4.44689, -54.7013, 4.38609, -174.195, 4.48418, 66.2204, 0.0336436, -114.775
1, 300.00000, 116.666, -31.6274, 115.232, -151.121, 117.546, 89.2944, 0, 0, 4.44689, -54.7013, 4.38609, -174.195, 4.48418, 66.2204, 0.0336436, -114.775
1, 360.00000, 116.666, -31.6274, 115.232, -151.121, 117.546, 89.2944, 0, 0, 4.44689, -54.7013, 4.38609, -174.195, 4.48418, 66.2204, 0.0336436, -114.775
1, 420.00000, 116.666, -31.6274, 115.232, -151.121, 117.546, 89.2944, 0, 0, 4.44689, -54.7013, 4.38609, -174.195, 4.48418, 66.2204, 0.0336436, -114.775
1, 480.00000, 116.666, -31.6274, 115.232, -151.121, 117.546, 89.2944, 0, 0, 4.44689, -54.7013, 4.38609, -174.195, 4.48418, 66.2204, 0.0336436, -114.775
1, 540.00000, 116.666, -31.6274, 115.232, -151.121, 117.546, 89.2944, 0, 0, 4.44689, -54.7013, 4.38609, -174.195, 4.48418, 66.2204, 0.0336436, -114.775
1, 600.00000, 116.666, -31.6274, 115.232, -151.121, 117.546, 89.2944, 0, 0, 4.44689, -54.7013, 4.38609, -174.195, 4.48418, 66.2204, 0.0336436, -114.775
1, 660.00000, 116.666, -31.6274, 115.232, -151.121, 117.546, 89.2944, 0, 0, 4.44689, -54.7013, 4.38609, -174.195, 4.48418, 66.2204, 0.0336436, -114.775
1, 720.00000, 116.666, -31.6274, 115.232, -151.121, 117.546, 89.2944, 0, 0, 4.44689, -54.7013, 4.38609, -174.195, 4.48418, 66.2204, 0.0336436, -114.775
1, 780.00000, 116.696, -31.634, 115.543, -150.926, 118.053, 89.2629, 0, 0, 4.44816, -54.708, 4.39927, -174, 4.50567, 66.1888, 0.0345262, -113.519
1, 840.00000, 116.696, -31.634, 115.543, -150.926, 118.053, 89.2629, 0, 0, 4.44816, -54.708, 4.39928, -174, 4.50571, 66.189, 0.0345567, -113.475
1, 900.00000, 116.696, -31.634, 115.543, -150.926, 118.053, 89.2629, 0, 0, 4.44816, -54.708, 4.39928, -174, 4.50571, 66.189, 0.0345568, -113.475
1, 960.00000, 116.696, -31.634, 115.543, -150.926, 118.053, 89.2629, 0, 0, 4.44816, -54.708, 4.39928, -174, 4.50571, 66.189, 0.0345568, -113.475
1, 1020.00000, 116.696, -31.634, 115.543, -150.926, 118.053, 89.2629, 0, 0, 4.44816, -54.708, 4.39928, -174, 4.50571, 66.189, 0.0345568, -113.475
1, 1080.00000, 116.696, -31.634, 115.543, -150.926, 118.053, 89.2629, 0, 0, 4.44816, -54.708, 4.39928, -174, 4.50571, 66.189, 0.0345568, -113.475
1, 1140.00000, 116.696, -31.634, 115.543, -150.926, 118.053, 89.2629, 0, 0, 4.44816, -54.708, 4.39928, -174, 4.50571, 66.189, 0.0345568, -113.475
1, 1200.00000, 116.696, -31.634, 115.543, -150.926, 118.053, 89.2629, 0, 0, 4.44816, -54.708, 4.39928, -174, 4.50571, 66.189, 0.0345568, -113.475
1, 1260.00000, 116.696, -31.634, 115.543, -150.926, 118.053, 89.2629, 0, 0, 4.44816, -54.708, 4.39928, -174, 4.50571, 66.189, 0.0345568, -113.475
1, 1320.00000, 116.696, -31.634, 115.543, -150.926, 118.053, 89.2629, 0, 0, 4.44816, -54.708, 4.39928, -174, 4.50571, 66.189, 0.0345568, -113.475
1, 1380.00000, 116.696, -31.634, 115.543, -150.926, 118.053, 89.2629, 0, 0, 4.44816, -54.708, 4.39928, -174, 4.50571, 66.189, 0.0345568, -113.475
1, 1440.00000, 116.696, -31.634, 115.543, -150.926, 118.053, 89.2629, 0, 0, 4.44816, -54.708, 4.39928, -174, 4.50571, 66.189, 0.0345568, -113.475
1, 1500.00000, 116.696, -31.634, 115.543, -150.926, 118.053, 89.2629, 0, 0, 4.44816, -54.708, 4.39928, -174, 4.50571, 66.189, 0.0345568, -113.475
1, 1560.00000, 116.696, -31.634, 115.543, -150.926, 118.053, 89.2629, 0, 0, 4.44816, -54.708, 4.39928, -174, 4.50571, 66.189, 0.0345568, -113.475
1, 1620.00000, 116.696, -31.634, 115.543, -150.926, 118.053, 89.2629, 0, 0, 4.44816, -54.708, 4.39928, -174, 4.50571, 66.189, 0.0345568, -113.475
1, 1680.00000, 116.696, -31.634, 115.543, -150.926, 118.053, 89.2629, 0, 0, 4.44816, -54.708, 4.39928, -174, 4.50571, 66.189, 0.0345568, -113.475
1, 1740.00000, 116.696, -31.634, 115.543, -150.926, 118.053, 89.2629, 0, 0, 4.44816, -54.708, 4.39928, -174, 4.50571, 66.189, 0.0345568, -113.475
1, 1800.00000, 116.696, -31.634, 115.543, -150.926, 118.053, 89.2629, 0, 0, 4.44816, -54.708, 4.39928, -174, 4.50571, 66.189, 0.0345568, -113.475
1, 1860.00000, 116.696, -31.634, 115.543, -150.926, 118.053, 89.2629, 0, 0, 4.44816, -54.708, 4.39928, -174, 4.50571, 66.189, 0.0345568, -113.475
1, 1920.00000, 116.696, -31.634, 115.543, -150.926, 118.053, 89.2629, 0, 0, 4.44816, -54.708, 4.39928, -174, 4.50571, 66.189, 0.0345568, -113.475
1, 1980.00000, 116.696, -31.634, 115.543, -150.926, 118.053, 89.2629, 0, 0, 4.44816, -54.708, 4.39928, -174, 4.50571, 66.189, 0.0345568, -113.475
1, 2040.00000, 116.696, -31.634, 115.543, -150.926, 118.053, 89.2629, 0, 0, 4.44816, -54.708, 4.39928, -174, 4.50571, 66.189, 0.0345568, -113.475
1, 2100.00000, 116.696, -31.634, 115.543, -150.926, 118.053, 89.2629, 0, 0, 4.44816, -54.708, 4.39928, -174, 4.50571, 66.189, 0.0345568, -113.475
1, 2160.00000, 116.696, -31.634, 115.543, -150.926, 118.053, 89.2629, 0, 0, 4.44816, -54.708, 4.39928, -174, 4.50571, 66.189, 0.0345568, -113.475
1, 2220.00000, 117.452, -31.3397, 116.436, -151.104, 118.004, 89.2785, 0, 0, 4.48018, -54.4136, 4.43709, -174.178, 4.50364, 66.2046, 0.0290309, -110.235
1, 2280.00000, 117.452, -31.3397, 116.436, -151.104, 118.004, 89.2785, 0, 0, 4.48019, -54.4136, 4.43712, -174.178, 4.50363, 66.2045, 0.0289951, -110.207
1, 2340.00000, 117.452, -31.3397, 116.436, -151.104, 118.004, 89.2785, 0, 0, 4.48019, -54.4136, 4.43712, -174.178, 4.50363, 66.2045, 0.028995, -110.207
1, 2400.00000, 117.452, -31.3397, 116.436, -151.104, 118.004, 89.2785, 0, 0, 4.48019, -54.4136, 4.43712, -174.178, 4.50363, 66.2045, 0.028995, -110.207
1, 2460.00000, 117.452, -31.3397, 116.436, -151.104, 118.004, 89.2785, 0, 0, 4.48019, -54.4136, 4.43712, -174.178, 4.50363, 66.2045, 0.028995, -110.207
1, 2520.00000, 117.452, -31.3397, 116.436, -151.104, 118.004, 89.2785, 0, 0, 4.48019, -54.4136, 4.43712, -174.178, 4.50363, 66.2045, 0.028995, -110.207
1, 2580.00000, 117.452, -31.3397, 116.436, -151.104, 118.004, 89.2785, 0, 0, 4.48019, -54.4136, 4.43712, -174.178, 4.50363, 66.2045, 0.028995, -110.207
1, 2640.00000, 117.452, -31.3397, 116.436, -151.104, 118.004, 89.2785, 0, 0, 4.48019, -54.4136, 4.43712, -174.178, 4.50363, 66.2045, 0.028995, -110.207
1, 2700.00000, 117.452, -31.3397, 116.436, -151.104, 118.004, 89.2785, 0, 0, 4.48019, -54.4136, 4.43712, -174.178, 4.50363, 66.2045, 0.028995, -110.207
1, 2760.00000, 117.452, -31.3397, 116.436, -151.104, 118.004, 89.2785, 0, 0, 4.48019, -54.4136, 4.43712, -174.178, 4.50363, 66.2045, 0.028995, -110.207
1, 2820.00000, 117.452, -31.3397, 116.436, -151.104, 118.004, 89.2785, 0, 0, 4.48019, -54.4136, 4.43712, -174.178, 4.50363, 66.2045, 0.028995, -110.207
1, 2880.00000, 117.452, -31.3397, 116.436, -151.104, 118.004, 89.2785, 0, 0, 4.48019, -54.4136, 4.43712, -174.178, 4.50363, 66.2045, 0.028995, -110.207
1, 2940.00000, 117.452, -31.3397, 116.436, -151.104, 118.004, 89.2785, 0, 0, 4.48019, -54.4136, 4.43712, -174.178, 4.50363, 66.2045, 0.028995, -110.207
1, 3000.00000, 117.452, -31.3397, 116.436, -151.104, 118.004, 89.2785, 0, 0, 4.48019, -54.4136, 4.43712, -174.178, 4.50363, 66.2045, 0.028995, -110.207
1, 3060.00000, 117.452, -31.3397, 116.436, -151.104, 118.004, 89.2785, 0, 0, 4.48019, -54.4136, 4.43712, -174.178, 4.50363, 66.2045, 0.028995, -110.207
1, 3120.00000, 117.452, -31.3397, 116.436, -151.104, 118.004, 89.2785, 0, 0, 4.48019, -54.4136, 4.43712, -174.178, 4.50363, 66.2045, 0.028995, -110.207
1, 3180.00000, 117.452, -31.3397, 116.436, -151.104, 118.004, 89.2785, 0, 0, 4.48019, -54.4136, 4.43712, -174.178, 4.50363, 66.2045, 0.028995, -110.207
1, 3240.00000, 117.452, -31.3397, 116.436, -151.104, 118.004, 89.2785, 0, 0, 4.48019, -54.4136, 4.43712, -174.178, 4.50363, 66.2045, 0.028995, -110.207
1, 3300.00000, 117.452, -31.3397, 116.436, -151.104, 118.004, 89.2785, 0, 0, 4.48019, -54.4136, 4.43712, -174.178, 4.50363, 66.2045, 0.028995, -110.207
1, 3360.00000, 117.452, -31.3397, 116.436, -151.104, 118.004, 89.2785, 0, 0, 4.48019, -54.4136, 4.43712, -174.178, 4.50363, 66.2045, 0.028995, -110.207
1, 3420.00000, 117.452, -31.3397, 116.436, -151.104, 118.004, 89.2785, 0, 0, 4.48019, -54.4136, 4.43712, -174.178, 4.50363, 66.2045, 0.028995, -110.207
1, 3480.00000, 117.452, -31.3397, 116.436, -151.104, 118.004, 89.2785, 0, 0, 4.48019, -54.4136, 4.43712, -174.178, 4.50363, 66.2045, 0.028995, -110.207
1, 3540.00000, 117.452, -31.3397, 116.436, -151.104, 118.004, 89.2785, 0, 0, 4.48019, -54.4136, 4.43712, -174.178, 4.50363, 66.2045, 0.028995, -110.207
2, 0.00000, 117.452, -31.3397, 116.436, -151.104, 118.004, 89.2785, 0, 0, 4.48019, -54.4136, 4.43712, -174.178, 4.50363, 66.2045, 0.028995, -110.207
2, 60.00000, 117.452, -31.3397, 116.436, -151.104, 118.004, 89.2785, 0, 0, 4.48019, -54.4136, 4.43712, -174.178, 4.50363, 66.2045, 0.028995, -110.207
2, 120.00000, 117.452, -31.3397, 116.436, -151.104, 118.004, 89.2785, 0, 0, 4.48019, -54.4136, 4.43712, -174.178, 4.50363, 66.2045, 0.028995, -110.207
2, 180.00000, 117.452, -31.3397, 116.436, -151.104, 118.004, 89.2785, 0, 0, 4.48019, -54.4136, 4.43712, -174.178, 4.50363, 66.2045, 0.028995, -110.207
2, 240.00000, 117.452, -31.3397, 116.436, -151.104, 118.004, 89.2785, 0, 0, 4.48019, -54.4136, 4.43712, -174.178, 4.50363, 66.2045, 0.028995, -110.207
2, 300.00000, 117.452, -31.3397, 116.436, -151.104, 118.004, 89.2785, 0, 0, 4.48019, -54.4136, 4.43712, -174.178, 4.50363, 66.2045, 0.028995, -110.207
2, 360.00000, 117.452, -31.3397, 116.436, -151.104, 118.004, 89.2785, 0, 0, 4.48019, -54.4136, 4.43712, -174.178, 4.50363, 66.2045, 0.028995, -110.207
2, 420.00000, 117.452, -31.3397, 116.436, -151.104, 118.004, 89.2785, 0, 0, 4.48019, -54.4136, 4.43712, -174.178, 4.50363, 66.2045, 0.028995, -110.207
2, 480.00000, 117.452, -31.3397, 116.436, -151.104, 118.004, 89.2785, 0, 0, 4.48019, -54.4136, 4.43712, -174.178, 4.50363, 66.2045, 0.028995, -110.207
2, 540.00000, 117.452, -31.3397, 116.436, -151.104, 118.004, 89.2785, 0, 0, 4.48019, -54.4136, 4.43712, -174.178, 4.50363, 66.2045, 0.028995, -110.207
2, 600.00000, 117.452, -31.3397, 116.436, -151.104, 118.004, 89.2785, 0, 0, 4.48019, -54.4136, 4.43712, -174.178, 4.50363, 66.2045, 0.028995, -110.207
2, 660.00000, 117.452, -31.3397, 116.436, -151.104, 118.004, 89.2785, 0, 0, 4.48019, -54.4136, 4.43712, -174.178, 4.50363, 66.2045, 0.028995, -110.207
2, 720.00000, 117.452, -31.3397, 116.436, -151.104, 118.004, 89.2785, 0, 0, 4.48019, -54.4136, 4.43712, -174.178, 4.50363, 66.2045, 0.028995, -110.207
