hour,t(sec),V1,VAngle1,V2,VAngle2,V3,VAngle3,V4,VAngle4,I1,IAngle1,I2,IAngle2,I3,IAngle3,I4,IAngle4
0, 60.00000, 121.214, -31.0863, 121.039, -151.201, 121.284, 88.9993, 0, 0, 3.12886, -54.16, 3.13339, -174.275, 3.12706, 65.9255, 0.0118144, -30.8892
0, 120.00000, 121.214, -31.0863, 121.039, -151.201, 121.284, 88.9993, 0, 0, 3.12889, -54.1603, 3.13341, -174.275, 3.12709, 65.9254, 0.0118094, -30.914
0, 180.00000, 121.214, -31.0863, 121.039, -151.201, 121.284, 88.9993, 0, 0, 3.12889, -54.1603, 3.13341, -174.275, 3.12709, 65.9254, 0.0118094, -30.9142
0, 240.00000, 121.214, -31.0863, 121.039, -151.201, 121.284, 88.9993, 0, 0, 3.12889, -54.1603, 3.13341, -174.275, 3.12709, 65.9254, 0.0118094, -30.9142
0, 300.00000, 121.214, -31.0863, 121.039, -151.201, 121.284, 88.9993, 0, 0, 3.12889, -54.1603, 3.13341, -174.275, 3.12709, 65.9254, 0.0118094, -30.9142
0, 360.00000, 121.214, -31.0863, 121.039, -151.201, 121.284, 88.9993, 0, 0, 3.12889, -54.1603, 3.13341, -174.275, 3.12709, 65.9254, 0.0118094, -30.9142
0, 420.00000, 121.214, -31.0863, 121.039, -151.201, 121.284, 88.9993, 0, 0, 3.12889, -54.1603, 3.13341, -174.275, 3.12709, 65.9254, 0.0118094, -30.9142
0, 480.00000, 121.214, -31.0863, 121.039, -151.201, 121.284, 88.9993, 0, 0, 3.12889, -54.1603, 3.13341, -174.275, 3.12709, 65.9254, 0.0118094, -30.9142
0, 540.00000, 121.214, -31.0863, 121.039, -151.201, 121.284, 88.9993, 0, 0, 3.12889, -54.1603, 3.13341, -174.275, 3.12709, 65.9254, 0.0118094, -30.9142
0, 600.00000, 121.214, -31.0863, 121.039, -151.201, 121.284, 88.9993, 0, 0, 3.12889, -54.1603, 3.13341, -174.275, 3.12709, 65.9254, 0.0118094, -30.9142
0, 660.00000, 121.214, -31.0863, 121.039, -151.201, 121.284, 88.9993, 0, 0, 3.12889, -54.1603, 3.13341, -174.275, 3.12709, 65.9254, 0.0118094, -30.9142
0, 720.00000, 121.214, -31.0863, 121.039, -151.201, 121.284, 88.9993, 0, 0, 3.12889, -54.1603, 3.13341, -174.275, 3.12709, 65.9254, 0.0118094, -30.9142
0, 780.00000, 121.214, -31.0863, 121.039, -151.201, 121.284, 88.9993, 0, 0, 3.12889, -54.1603, 3.13341, -174.275, 3.12709, 65.9254, 0.0118094, -30.9142
0, 840.00000, 121.214, -31.0863, 121.039, -151.201, 121.284, 88.9993, 0, 0, 3.12889, -54.1603, 3.13341, -174.275, 3.12709, 65.9254, 0.0118094, -30.9142
0, 900.00000, 121.214, -31.0863, 121.039, -151.201, 121.284, 88.9993, 0, 0, 3.12889, -54.1603, 3.13341, -174.275, 3.12709, 65.9254, 0.0118094, -30.9142
0, 960.00000, 120.761, -31.1503, 120.888, -151.23, 121.05, 88.8438, 0, 0, 3.07349, -54.224, 3.07029, -174.304, 3.06617, 65.7699, 0.00223331, 91.2906
0, 1020.00000, 120.761, -31.1503, 120.888, -151.23, 121.05, 88.8438, 0, 0, 3.07352, -54.2242, 3.0703, -174.304, 3.06619, 65.7698, 0.00224908, 91.6735
0, 1080.00000, 120.761, -31.1503, 120.888, -151.23, 121.05, 88.8438, 0, 0, 3.07352, -54.2242, 3.0703, -174.304, 3.06619, 65.7698, 0.00224912, 91.6751
0, 1140.00000, 120.761, -31.1503, 120.888, -151.23, 121.05, 88.8438, 0, 0, 3.07352, -54.2242, 3.0703, -174.304, 3.06619, 65.7698, 0.00224912, 91.6751
0, 1200.00000, 120.761, -31.1503, 120.888, -151.23, 121.05, 88.8438, 0, 0, 3.07352, -54.2242, 3.0703, -174.304, 3.06619, 65.7698, 0.00224912, 91.6751
0, 1260.00000, 120.761, -31.1503, 120.888, -151.23, 121.05, 88.8438, 0, 0, 3.07352, -54.2242, 3.0703, -174.304, 3.06619, 65.7698, 0.00224912, 91.6751
0, 1320.00000, 120.761, -31.1503, 120.888, -151.23, 121.05, 88.8438, 0, 0, 3.07352, -54.2242, 3.0703, -174.304, 3.06619, 65.7698, 0.00224912, 91.6751
0, 1380.00000, 120.761, -31.1503, 120.888, -151.23, 121.05, 88.8438, 0, 0, 3.07352, -54.2242, 3.0703, -174.304, 3.06619, 65.7698, 0.00224912, 91.6751
0, 1440.00000, 120.761, -31.1503, 120.888, -151.23, 121.05, 88.8438, 0, 0, 3.07352, -54.2242, 3.0703, -174.304, 3.06619, 65.7698, 0.00224912, 91.6751
0, 1500.00000, 120.761, -31.1503, 120.888, -151.23, 121.05, 88.8438, 0, 0, 3.07352, -54.2242, 3.0703, -174.304, 3.06619, 65.7698, 0.00224912, 91.6751
0, 1560.00000, 120.761, -31.1503, 120.888, -151.23, 121.05, 88.8438, 0, 0, 3.07352, -54.2242, 3.0703, -174.304, 3.06619, 65.7698, 0.00224912, 91.6751
0, 1620.00000, 120.761, -31.1503, 120.888, -151.23, 121.05, 88.8438, 0, 0, 3.07352, -54.2242, 3.0703, -174.304, 3.06619, 65.7698, 0.00224912, 91.6751
0, 1680.00000, 120.761, -31.1503, 120.888, -151.23, 121.05, 88.8438, 0, 0, 3.07352, -54.2242, 3.0703, -174.304, 3.06619, 65.7698, 0.00224912, 91.6751
0, 1740.00000, 120.761, -31.1503, 120.888, -151.23, 121.05, 88.8438, 0, 0, 3.07352, -54.2242, 3.0703, -174.304, 3.06619, 65.7698, 0.00224912, 91.6751
0, 1800.00000, 120.761, -31.1503, 120.888, -151.23, 121.05, 88.8438, 0, 0, 3.07352, -54.2242, 3.0703, -174.304, 3.06619, 65.7698, 0.00224912, 91.6751
0, 1860.00000, 120.932, -31.1342, 121.047, -151.215, 121.207, 88.8618, 0, 0, 2.90213, -54.2089, 2.89935, -174.29, 2.89553, 65.7873, 0.00174333, 84.4475
0, 1920.00000, 120.932, -31.1342, 121.047, -151.215, 121.207, 88.8619, 0, 0, 2.902, -54.2081, 2.89923, -174.289, 2.8954, 65.788, 0.00174219, 84.0777
0, 1980.00000, 120.932, -31.1342, 121.047, -151.215, 121.207, 88.8619, 0, 0, 2.902, -54.2081, 2.89923, -174.289, 2.8954, 65.788, 0.00174214, 84.0716
0, 2040.00000, 120.932, -31.1342, 121.047, -151.215, 121.207, 88.8619, 0, 0, 2.902, -54.2081, 2.89923, -174.289, 2.8954, 65.788, 0.00174214, 84.0716
0, 2100.00000, 120.932, -31.1342, 121.047, -151.215, 121.207, 88.8619, 0, 0, 2.902, -54.2081, 2.89923, -174.289, 2.8954, 65.788, 0.00174214, 84.0716
0, 2160.00000, 120.932, -31.1342, 121.047, -151.215, 121.207, 88.8619, 0, 0, 2.902, -54.2081, 2.89923, -174.289, 2.8954, 65.788, 0.00174214, 84.0716
0, 2220.00000, 120.932, -31.1342, 121.047, -151.215, 121.207, 88.8619, 0, 0, 2.902, -54.2081, 2.89923, -174.289, 2.8954, 65.788, 0.00174214, 84.0716
0, 2280.00000, 120.932, -31.1342, 121.047, -151.215, 121.207, 88.8619, 0, 0, 2.902, -54.2081, 2.89923, -174.289, 2.8954, 65.788, 0.00174214, 84.0716
0, 2340.00000, 120.932, -31.1342, 121.047, -151.215, 121.207, 88.8619, 0, 0, 2.902, -54.2081, 2.89923, -174.289, 2.8954, 65.788, 0.00174214, 84.0716
0, 2400.00000, 120.932, -31.1342, 121.047, -151.215, 121.207, 88.8619, 0, 0, 2.902, -54.2081, 2.89923, -174.289, 2.8954, 65.788, 0.00174214, 84.0716
0, 2460.00000, 120.932, -31.1342, 121.047, -151.215, 121.207, 88.8619, 0, 0, 2.902, -54.2081, 2.89923, -174.289, 2.8954, 65.788, 0.00174214, 84.0716
0, 2520.00000, 120.932, -31.1342, 121.047, -151.215, 121.207, 88.8619, 0, 0, 2.902, -54.2081, 2.89923, -174.289, 2.8954, 65.788, 0.00174214, 84.0716
0, 2580.00000, 120.932, -31.1342, 121.047, -151.215, 121.207, 88.8619, 0, 0, 2.902, -54.2081, 2.89923, -174.289, 2.8954, 65.788, 0.00174214, 84.0716
0, 2640.00000, 120.932, -31.1342, 121.047, -151.215, 121.207, 88.8619, 0, 0, 2.902, -54.2081, 2.89923, -174.289, 2.8954, 65.788, 0.00174214, 84.0716
0, 2700.00000, 120.932, -31.1342, 121.047, -151.215, 121.207, 88.8619, 0, 0, 2.902, -54.2081, 2.89923, -174.289, 2.8954, 65.788, 0.00174214, 84.0716
0, 2760.00000, 121.21, -31.0962, 121.306, -151.18, 121.464, 88.9031, 0, 0, 2.83406, -54.1702, 2.83182, -174.254, 2.82814, 65.8291, 0.00120711, 61.5172
0, 2820.00000, 121.21, -31.0961, 121.306, -151.18, 121.464, 88.9031, 0, 0, 2.83404, -54.1701, 2.8318, -174.254, 2.82813, 65.8292, 0.0012086, 61.2812
0, 2880.00000, 121.21, -31.0961, 121.306, -151.18, 121.464, 88.9031, 0, 0, 2.83404, -54.1701, 2.8318, -174.254, 2.82813, 65.8292, 0.00120862, 61.2799
0, 2940.00000, 121.21, -31.0961, 121.306, -151.18, 121.464, 88.9031, 0, 0, 2.83404, -54.1701, 2.8318, -174.254, 2.82813, 65.8292, 0.00120862, 61.2799
0, 3000.00000, 121.21, -31.0961, 121.306, -151.18, 121.464, 88.9031, 0, 0, 2.83404, -54.1701, 2.8318, -174.254, 2.82813, 65.8292, 0.00120862, 61.2799
0, 3060.00000, 121.21, -31.0961, 121.306, -151.18, 121.464, 88.9031, 0, 0, 2.83404, -54.1701, 2.8318, -174.254, 2.82813, 65.8292, 0.00120862, 61.2799
0, 3120.00000, 121.21, -31.0961, 121.306, -151.18, 121.464, 88.9031, 0, 0, 2.83404, -54.1701, 2.8318, -174.254, 2.82813, 65.8292, 0.00120862, 61.2799
0, 3180.00000, 121.21, -31.0961, 121.306, -151.18, 121.464, 88.9031, 0, 0, 2.83404, -54.1701, 2.8318, -174.254, 2.82813, 65.8292, 0.00120862, 61.2799
0, 3240.00000, 121.21, -31.0961, 121.306, -151.18, 121.464, 88.9031, 0, 0, 2.83404, -54.1701, 2.8318, -174.254, 2.82813, 65.8292, 0.00120862, 61.2799
0, 3300.00000, 121.21, -31.0961, 121.306, -151.18, 121.464, 88.9031, 0, 0, 2.83404, -54.1701, 2.8318, -174.254, 2.82813, 65.8292, 0.00120862, 61.2799
0, 3360.00000, 121.21, -31.0961, 121.306, -151.18, 121.464, 88.9031, 0, 0, 2.83404, -54.1701, 2.8318, -174.254, 2.82813, 65.8292, 0.00120862, 61.2799
0, 3420.00000, 121.21, -31.0961, 121.306, -151.18, 121.464, 88.9031, 0, 0, 2.83404, -54.1701, 2.8318, -174.254, 2.82813, 65.8292, 0.00120862, 61.2799
0, 3480.00000, 121.21, -31.0961, 121.306, -151.18, 121.464, 88.9031, 0, 0, 2.83404, -54.1701, 2.8318, -174.254, 2.82813, 65.8292, 0.00120862, 61.2799
0, 3540.00000, 121.498, -31.0614, 121.303, -151.179, 121.546, 89.0274, 0, 0, 2.82735, -54.1356, 2.83186, -174.253, 2.82621, 65.9535, 0.0113267, -32.5216
1, 0.00000, 121.498, -31.0614, 121.303, -151.179, 121.546, 89.0274, 0, 0, 2.82732, -54.1353, 2.83187, -174.253, 2.82621, 65.9534, 0.011349, -32.5625
1, 60.00000, 121.71, -31.0354, 121.502, -151.155, 121.741, 89.0565, 0, 0, 2.59095, -54.1106, 2.59537, -174.23, 2.59028, 65.9813, 0.0108445, -33.7412
1, 120.00000, 121.711, -31.0353, 121.503, -151.155, 121.742, 89.0565, 0, 0, 2.59076, -54.1092, 2.59519, -174.229, 2.59009, 65.9826, 0.0108486, -33.7402
1, 180.00000, 121.711, -31.0353, 121.503, -151.155, 121.742, 89.0565, 0, 0, 2.59076, -54.1092, 2.59519, -174.229, 2.59009, 65.9826, 0.0108486, -33.7399
1, 240.00000, 121.711, -31.0353, 121.503, -151.155, 121.742, 89.0565, 0, 0, 2.59076, -54.1092, 2.59519, -174.229, 2.59009, 65.9826, 0.0108486, -33.7399
1, 300.00000, 121.711, -31.0353, 121.503, -151.155, 121.742, 89.0565, 0, 0, 2.59076, -54.1092, 2.59519, -174.229, 2.59009, 65.9826, 0.0108486, -33.7399
1, 360.00000, 121.711, -31.0353, 121.503, -151.155, 121.742, 89.0565, 0, 0, 2.59076, -54.1092, 2.59519, -174.229, 2.59009, 65.9826, 0.0108486, -33.7399
1, 420.00000, 121.711, -31.0353, 121.503, -151.155, 121.742, 89.0565, 0, 0, 2.59076, -54.1092, 2.59519, -174.229, 2.59009, 65.9826, 0.0108486, -33.7399
1, 480.00000, 121.711, -31.0353, 121.503, -151.155, 121.742, 89.0565, 0, 0, 2.59076, -54.1092, 2.59519, -174.229, 2.59009, 65.9826, 0.0108486, -33.7399
1, 540.00000, 121.711, -31.0353, 121.503, -151.155, 121.742, 89.0565, 0, 0, 2.59076, -54.1092, 2.59519, -174.229, 2.59009, 65.9826, 0.0108486, -33.7399
1, 600.00000, 121.711, -31.0353, 121.503, -151.155, 121.742, 89.0565, 0, 0, 2.59076, -54.1092, 2.59519, -174.229, 2.59009, 65.9826, 0.0108486, -33.7399
1, 660.00000, 121.711, -31.0353, 121.503, -151.155, 121.742, 89.0565, 0, 0, 2.59076, -54.1092, 2.59519, -174.229, 2.59009, 65.9826, 0.0108486, -33.7399
1, 720.00000, 121.711, -31.0353, 121.503, -151.155, 121.742, 89.0565, 0, 0, 2.59076, -54.1092, 2.59519, -174.229, 2.59009, 65.9826, 0.0108486, -33.7399
1, 780.00000, 121.711, -31.0353, 121.503, -151.155, 121.742, 89.0565, 0, 0, 2.59076, -54.1092, 2.59519, -174.229, 2.59009, 65.9826, 0.0108486, -33.7399
1, 840.00000, 121.711, -31.0353, 121.503, -151.155, 121.742, 89.0565, 0, 0, 2.59076, -54.1092, 2.59519, -174.229, 2.59009, 65.9826, 0.0108486, -33.7399
1, 900.00000, 121.711, -31.0353, 121.503, -151.155, 121.742, 89.0565, 0, 0, 2.59076, -54.1092, 2.59519, -174.229, 2.59009, 65.9826, 0.0108486, -33.7399
1, 960.00000, 121.749, -31.0319, 121.538, -151.152, 121.777, 89.0603, 0, 0, 2.61711, -54.106, 2.62164, -174.226, 2.6165, 65.9862, 0.0110332, -33.9249
1, 1020.00000, 121.749, -31.0319, 121.538, -151.152, 121.777, 89.0603, 0, 0, 2.61707, -54.1058, 2.6216, -174.226, 2.61647, 65.9864, 0.0110326, -33.9324
1, 1080.00000, 121.749, -31.0319, 121.538, -151.152, 121.777, 89.0603, 0, 0, 2.61707, -54.1058, 2.6216, -174.226, 2.61647, 65.9864, 0.0110326, -33.9325
1, 1140.00000, 121.749, -31.0319, 121.538, -151.152, 121.777, 89.0603, 0, 0, 2.61707, -54.1058, 2.6216, -174.226, 2.61647, 65.9864, 0.0110326, -33.9325
1, 1200.00000, 121.749, -31.0319, 121.538, -151.152, 121.777, 89.0603, 0, 0, 2.61707, -54.1058, 2.6216, -174.226, 2.61647, 65.9864, 0.0110326, -33.9325
1, 1260.00000, 121.749, -31.0319, 121.538, -151.152, 121.777, 89.0603, 0, 0, 2.61707, -54.1058, 2.6216, -174.226, 2.61647, 65.9864, 0.0110326, -33.9325
1, 1320.00000, 121.749, -31.0319, 121.538, -151.152, 121.777, 89.0603, 0, 0, 2.61707, -54.1058, 2.6216, -174.226, 2.61647, 65.9864, 0.0110326, -33.9325
1, 1380.00000, 121.749, -31.0319, 121.538, -151.152, 121.777, 89.0603, 0, 0, 2.61707, -54.1058, 2.6216, -174.226, 2.61647, 65.9864, 0.0110326, -33.9325
1, 1440.00000, 121.749, -31.0319, 121.538, -151.152, 121.777, 89.0603, 0, 0, 2.61707, -54.1058, 2.6216, -174.226, 2.61647, 65.9864, 0.0110326, -33.9325
1, 1500.00000, 121.749, -31.0319, 121.538, -151.152, 121.777, 89.0603, 0, 0, 2.61707, -54.1058, 2.6216, -174.226, 2.61647, 65.9864, 0.0110326, -33.9325
1, 1560.00000, 121.749, -31.0319, 121.538, -151.152, 121.777, 89.0603, 0, 0, 2.61707, -54.1058, 2.6216, -174.226, 2.61647, 65.9864, 0.0110326, -33.9325
1, 1620.00000, 121.749, -31.0319, 121.538, -151.152, 121.777, 89.0603, 0, 0, 2.61707, -54.1058, 2.6216, -174.226, 2.61647, 65.9864, 0.0110326, -33.9325
1, 1680.00000, 121.749, -31.0319, 121.538, -151.152, 121.777, 89.0603, 0, 0, 2.61707, -54.1058, 2.6216, -174.226, 2.61647, 65.9864, 0.0110326, -33.9325
1, 1740.00000, 121.749, -31.0319, 121.538, -151.152, 121.777, 89.0603, 0, 0, 2.61707, -54.1058, 2.6216, -174.226, 2.61647, 65.9864, 0.0110326, -33.9325
1, 1800.00000, 121.749, -31.0319, 121.538, -151.152, 121.777, 89.0603, 0, 0, 2.61707, -54.1058, 2.6216, -174.226, 2.61647, 65.9864, 0.0110326, -33.9325
1, 1860.00000, 121.607, -31.0629, 121.75, -150.973, 122.224, 89.0013, 0, 0, 2.78753, -54.137, 2.78432, -174.047, 2.77361, 65.9266, 0.0162291, 72.5773
1, 1920.00000, 121.607, -31.0628, 121.75, -150.973, 122.225, 89.0014, 0, 0, 2.78757, -54.1367, 2.78429, -174.047, 2.77348, 65.9275, 0.0163383, 72.569
1, 1980.00000, 121.607, -31.0628, 121.75, -150.973, 122.225, 89.0014, 0, 0, 2.78757, -54.1367, 2.78429, -174.047, 2.77347, 65.9275, 0.0163402, 72.568
1, 2040.00000, 121.607, -31.0628, 121.75, -150.973, 122.225, 89.0014, 0, 0, 2.78757, -54.1367, 2.78429, -174.047, 2.77347, 65.9275, 0.0163402, 72.568
1, 2100.00000, 121.607, -31.0628, 121.75, -150.973, 122.225, 89.0014, 0, 0, 2.78757, -54.1367, 2.78429, -174.047, 2.77347, 65.9275, 0.0163402, 72.568
1, 2160.00000, 121.607, -31.0628, 121.75, -150.973, 122.225, 89.0014, 0, 0, 2.78757, -54.1367, 2.78429, -174.047, 2.77347, 65.9275, 0.0163402, 72.568
1, 2220.00000, 121.607, -31.0628, 121.75, -150.973, 122.225, 89.0014, 0, 0, 2.78757, -54.1367, 2.78429, -174.047, 2.77347, 65.9275, 0.0163402, 72.568
1, 2280.00000, 121.607, -31.0628, 121.75, -150.973, 122.225, 89.0014, 0, 0, 2.78757, -54.1367, 2.78429, -174.047, 2.77347, 65.9275, 0.0163402, 72.568
1, 2340.00000, 121.607, -31.0628, 121.75, -150.973, 122.225, 89.0014, 0, 0, 2.78757, -54.1367, 2.78429, -174.047, 2.77347, 65.9275, 0.0163402, 72.568
1, 2400.00000, 121.607, -31.0628, 121.75, -150.973, 122.225, 89.0014, 0, 0, 2.78757, -54.1367, 2.78429, -174.047, 2.77347, 65.9275, 0.0163402, 72.568
1, 2460.00000, 121.607, -31.0628, 121.75, -150.973, 122.225, 89.0014, 0, 0, 2.78757, -54.1367, 2.78429, -174.047, 2.77347, 65.9275, 0.0163402, 72.568
1, 2520.00000, 121.607, -31.0628, 121.75, -150.973, 122.225, 89.0014, 0, 0, 2.78757, -54.1367, 2.78429, -174.047, 2.77347, 65.9275, 0.0163402, 72.568
1, 2580.00000, 121.607, -31.0628, 121.75, -150.973, 122.225, 89.0014, 0, 0, 2.78757, -54.1367, 2.78429, -174.047, 2.77347, 65.9275, 0.0163402, 72.568
1, 2640.00000, 121.607, -31.0628, 121.75, -150.973, 122.225, 89.0014, 0, 0, 2.78757, -54.1367, 2.78429, -174.047, 2.77347, 65.9275, 0.0163402, 72.568
1, 2700.00000, 121.607, -31.0628, 121.75, -150.973, 122.225, 89.0014, 0, 0, 2.78757, -54.1367, 2.78429, -174.047, 2.77347, 65.9275, 0.0163402, 72.568
1, 2760.00000, 121.989, -31.0116, 122.123, -150.927, 122.605, 89.0592, 0, 0, 2.62321, -54.0859, 2.62038, -174.001, 2.61014, 65.9846, 0.0150864, 70.4407
1, 2820.00000, 121.989, -31.0116, 122.123, -150.927, 122.605, 89.0593, 0, 0, 2.6232, -54.0855, 2.62032, -174.001, 2.61002, 65.9854, 0.0151494, 70.4905
1, 2880.00000, 121.989, -31.0116, 122.123, -150.927, 122.605, 89.0593, 0, 0, 2.6232, -54.0855, 2.62032, -174.001, 2.61002, 65.9854, 0.0151507, 70.4913
1, 2940.00000, 121.989, -31.0116, 122.123, -150.927, 122.605, 89.0593, 0, 0, 2.6232, -54.0855, 2.62032, -174.001, 2.61002, 65.9854, 0.0151507, 70.4913
1, 3000.00000, 121.989, -31.0116, 122.123, -150.927, 122.605, 89.0593, 0, 0, 2.6232, -54.0855, 2.62032, -174.001, 2.61002, 65.9854, 0.0151507, 70.4913
1, 3060.00000, 121.989, -31.0116, 122.123, -150.927, 122.605, 89.0593, 0, 0, 2.6232, -54.0855, 2.62032, -174.001, 2.61002, 65.9854, 0.0151507, 70.4913
1, 3120.00000, 121.989, -31.0116, 122.123, -150.927, 122.605, 89.0593, 0, 0, 2.6232, -54.0855, 2.62032, -174.001, 2.61002, 65.9854, 0.0151507, 70.4913
1, 3180.00000, 121.989, -31.0116, 122.123, -150.927, 122.605, 89.0593, 0, 0, 2.6232, -54.0855, 2.62032, -174.001, 2.61002, 65.9854, 0.0151507, 70.4913
1, 3240.00000, 121.989, -31.0116, 122.123, -150.927, 122.605, 89.0593, 0, 0, 2.6232, -54.0855, 2.62032, -174.001, 2.61002, 65.9854, 0.0151507, 70.4913
1, 3300.00000, 121.989, -31.0116, 122.123, -150.927, 122.605, 89.0593, 0, 0, 2.6232, -54.0855, 2.62032, -174.001, 2.61002, 65.9854, 0.0151507, 70.4913
1, 3360.00000, 121.989, -31.0116, 122.123, -150.927, 122.605, 89.0593, 0, 0, 2.6232, -54.0855, 2.62032, -174.001, 2.61002, 65.9854, 0.0151507, 70.4913
1, 3420.00000, 121.989, -31.0116, 122.123, -150.927, 122.605, 89.0593, 0, 0, 2.6232, -54.0855, 2.62032, -174.001, 2.61002, 65.9854, 0.0151507, 70.4913
1, 3480.00000, 121.989, -31.0116, 122.123, -150.927, 122.605, 89.0593, 0, 0, 2.6232, -54.0855, 2.62032, -174.001, 2.61002, 65.9854, 0.0151507, 70.4913
1, 3540.00000, 121.989, -31.0116, 122.123, -150.927, 122.605, 89.0593, 0, 0, 2.6232, -54.0855, 2.62032, -174.001, 2.61002, 65.9854, 0.0151507, 70.4913
2, 0.00000, 121.989, -31.0116, 122.123, -150.927, 122.605, 89.0593, 0, 0, 2.6232, -54.0855, 2.62032, -174.001, 2.61002, 65.9854, 0.0151507, 70.4913
2, 60.00000, 121.761, -31.0433, 121.903, -150.956, 122.382, 89.024, 0, 0, 2.79671, -54.117, 2.79343, -174.03, 2.78247, 65.9505, 0.0163659, 71.811
2, 120.00000, 121.761, -31.0433, 121.903, -150.956, 122.381, 89.024, 0, 0, 2.79671, -54.1172, 2.79347, -174.03, 2.78254, 65.95, 0.0163247, 71.777
2, 180.00000, 121.761, -31.0433, 121.903, -150.956, 122.381, 89.024, 0, 0, 2.79671, -54.1172, 2.79347, -174.03, 2.78254, 65.95, 0.0163239, 71.7763
2, 240.00000, 121.761, -31.0433, 121.903, -150.956, 122.381, 89.024, 0, 0, 2.79671, -54.1172, 2.79347, -174.03, 2.78254, 65.95, 0.0163239, 71.7763
2, 300.00000, 121.761, -31.0433, 121.903, -150.956, 122.381, 89.024, 0, 0, 2.79671, -54.1172, 2.79347, -174.03, 2.78254, 65.95, 0.0163239, 71.7763
2, 360.00000, 121.761, -31.0433, 121.903, -150.956, 122.381, 89.024, 0, 0, 2.79671, -54.1172, 2.79347, -174.03, 2.78254, 65.95, 0.0163239, 71.7763
2, 420.00000, 121.761, -31.0433, 121.903, -150.956, 122.381, 89.024, 0, 0, 2.79671, -54.1172, 2.79347, -174.03, 2.78254, 65.95, 0.0163239, 71.7763
2, 480.00000, 121.761, -31.0433, 121.903, -150.956, 122.381, 89.024, 0, 0, 2.79671, -54.1172, 2.79347, -174.03, 2.78254, 65.95, 0.0163239, 71.7763
2, 540.00000, 121.761, -31.0433, 121.903, -150.956, 122.381, 89.024, 0, 0, 2.79671, -54.1172, 2.79347, -174.03, 2.78254, 65.95, 0.0163239, 71.7763
2, 600.00000, 121.761, -31.0433, 121.903, -150.956, 122.381, 89.024, 0, 0, 2.79671, -54.1172, 2.79347, -174.03, 2.78254, 65.95, 0.0163239, 71.7763
2, 660.00000, 121.761, -31.0433, 121.903, -150.956, 122.381, 89.024, 0, 0, 2.79671, -54.1172, 2.79347, -174.03, 2.78254, 65.95, 0.0163239, 71.7763
2, 720.00000, 121.761, -31.0433, 121.903, -150.956, 122.381, 89.024, 0, 0, 2.79671, -54.1172, 2.79347, -174.03, 2.78254, 65.95, 0.0163239, 71.7763
