hour,t(sec),"P1 (kW)","Q1 (kvar)","P2 (kW)","Q2 (kvar)","P3 (kW)","Q3 (kvar)","P4 (kW)","Q4 (kvar)"
0, 60.00000, 0.690722, 0.294241, 0.742502, 0.316299, 0.725717, 0.309154, 0, 0
0, 120.00000, 0.690718, 0.29424, 0.7425, 0.316298, 0.725738, 0.309163, 0, 0
0, 180.00000, 0.690715, 0.294239, 0.742498, 0.316298, 0.725757, 0.309171, 0, 0
0, 240.00000, 0.690712, 0.294238, 0.742496, 0.316298, 0.725774, 0.309178, 0, 0
0, 300.00000, 0.690709, 0.294237, 0.742495, 0.316297, 0.725788, 0.309185, 0, 0
0, 360.00000, 0.690707, 0.294237, 0.742494, 0.316298, 0.725801, 0.30919, 0, 0
0, 420.00000, 0.690705, 0.294236, 0.742493, 0.316297, 0.725812, 0.309195, 0, 0
0, 480.00000, 0.609634, 0.2597, 0.645972, 0.275181, 0.640117, 0.272688, 0, 0
0, 540.00000, 0.609632, 0.2597, 0.645971, 0.27518, 0.640124, 0.272691, 0, 0
0, 600.00000, 0.60963, 0.259699, 0.64597, 0.27518, 0.64013, 0.272694, 0, 0
0, 660.00000, 0.609629, 0.259699, 0.645969, 0.27518, 0.640135, 0.272696, 0, 0
0, 720.00000, 0.609627, 0.259698, 0.645968, 0.275179, 0.64014, 0.272698, 0, 0
0, 780.00000, 0.609626, 0.259698, 0.645967, 0.275179, 0.640144, 0.2727, 0, 0
0, 840.00000, 0.609625, 0.259698, 0.645966, 0.275179, 0.640148, 0.272702, 0, 0
0, 900.00000, 0.609624, 0.259698, 0.645965, 0.275179, 0.640152, 0.272703, 0, 0
0, 960.00000, 0.609385, 0.259596, 0.645963, 0.275178, 0.633028, 0.269669, 0, 0
0, 1020.00000, 0.609385, 0.259596, 0.645963, 0.275178, 0.633031, 0.26967, 0, 0
0, 1080.00000, 0.609384, 0.259596, 0.645963, 0.275178, 0.633033, 0.269671, 0, 0
0, 1140.00000, 0.609383, 0.259596, 0.645963, 0.275178, 0.633035, 0.269672, 0, 0
0, 1200.00000, 0.609383, 0.259595, 0.645962, 0.275178, 0.633037, 0.269673, 0, 0
0, 1260.00000, 0.609382, 0.259595, 0.645962, 0.275178, 0.633039, 0.269674, 0, 0
0, 1320.00000, 0.609382, 0.259595, 0.645962, 0.275178, 0.63304, 0.269674, 0, 0
0, 1380.00000, 0.609382, 0.259595, 0.645962, 0.275178, 0.633042, 0.269675, 0, 0
0, 1440.00000, 0.609381, 0.259595, 0.645961, 0.275178, 0.633043, 0.269675, 0, 0
0, 1500.00000, 0.609381, 0.259595, 0.645961, 0.275178, 0.633044, 0.269676, 0, 0
0, 1560.00000, 0.609381, 0.259595, 0.645961, 0.275178, 0.633045, 0.269676, 0, 0
0, 1620.00000, 0.60938, 0.259595, 0.645961, 0.275178, 0.633046, 0.269677, 0, 0
0, 1680.00000, 0.60938, 0.259595, 0.645961, 0.275178, 0.633047, 0.269677, 0, 0
0, 1740.00000, 0.60938, 0.259594, 0.645961, 0.275178, 0.633047, 0.269677, 0, 0
0, 1800.00000, 0.606318, 0.25829, 0.64596, 0.275178, 0.633454, 0.26985, 0, 0
0, 1860.00000, 0.606318, 0.25829, 0.64596, 0.275178, 0.633455, 0.26985, 0, 0
0, 1920.00000, 0.606318, 0.25829, 0.64596, 0.275178, 0.633455, 0.269851, 0, 0
0, 1980.00000, 0.606317, 0.25829, 0.64596, 0.275178, 0.633456, 0.269851, 0, 0
0, 2040.00000, 0.606317, 0.25829, 0.64596, 0.275178, 0.633456, 0.269851, 0, 0
0, 2100.00000, 0.606317, 0.25829, 0.64596, 0.275178, 0.633457, 0.269851, 0, 0
0, 2160.00000, 0.606317, 0.25829, 0.64596, 0.275178, 0.633457, 0.269852, 0, 0
0, 2220.00000, 0.606317, 0.25829, 0.64596, 0.275178, 0.633458, 0.269852, 0, 0
0, 2280.00000, 0.606317, 0.25829, 0.64596, 0.275178, 0.633458, 0.269852, 0, 0
0, 2340.00000, 0.606317, 0.25829, 0.64596, 0.275178, 0.633458, 0.269852, 0, 0
0, 2400.00000, 0.606317, 0.25829, 0.64596, 0.275178, 0.633459, 0.269852, 0, 0
0, 2460.00000, 0.606317, 0.25829, 0.64596, 0.275178, 0.633459, 0.269852, 0, 0
0, 2520.00000, 0.606317, 0.25829, 0.64596, 0.275178, 0.633459, 0.269852, 0, 0
0, 2580.00000, 0.606316, 0.25829, 0.64596, 0.275178, 0.633459, 0.269853, 0, 0
0, 2640.00000, 0.606316, 0.25829, 0.64596, 0.275178, 0.63346, 0.269853, 0, 0
0, 2700.00000, 0.606316, 0.25829, 0.64596, 0.275178, 0.63346, 0.269853, 0, 0
0, 2760.00000, 0.613509, 0.261354, 0.64596, 0.275178, 0.638085, 0.271823, 0, 0
0, 2820.00000, 0.613509, 0.261354, 0.64596, 0.275178, 0.638086, 0.271823, 0, 0
0, 2880.00000, 0.613509, 0.261354, 0.64596, 0.275178, 0.638086, 0.271823, 0, 0
0, 2940.00000, 0.613509, 0.261354, 0.64596, 0.275178, 0.638086, 0.271823, 0, 0
0, 3000.00000, 0.613509, 0.261354, 0.64596, 0.275178, 0.638086, 0.271823, 0, 0
0, 3060.00000, 0.613509, 0.261354, 0.645959, 0.275178, 0.638086, 0.271823, 0, 0
0, 3120.00000, 0.613509, 0.261354, 0.645959, 0.275178, 0.638086, 0.271824, 0, 0
0, 3180.00000, 0.613509, 0.261354, 0.645959, 0.275178, 0.638086, 0.271824, 0, 0
0, 3240.00000, 0.613509, 0.261354, 0.645959, 0.275178, 0.638086, 0.271824, 0, 0
0, 3300.00000, 0.613509, 0.261354, 0.645959, 0.275178, 0.638086, 0.271824, 0, 0
0, 3360.00000, 0.613509, 0.261354, 0.645959, 0.275178, 0.638086, 0.271824, 0, 0
0, 3420.00000, 0.613509, 0.261354, 0.645959, 0.275178, 0.638086, 0.271824, 0, 0
0, 3480.00000, 0.613509, 0.261354, 0.645959, 0.275178, 0.638086, 0.271824, 0, 0
0, 3540.00000, 0.613509, 0.261354, 0.645959, 0.275178, 0.638086, 0.271824, 0, 0
1, 0.00000, 0.613509, 0.261354, 0.645959, 0.275178, 0.638086, 0.271824, 0, 0
1, 60.00000, 0.618181, 0.263344, 0.645959, 0.275178, 0.640387, 0.272804, 0, 0
1, 120.00000, 0.618181, 0.263344, 0.645959, 0.275178, 0.640387, 0.272804, 0, 0
1, 180.00000, 0.618181, 0.263344, 0.645959, 0.275178, 0.640387, 0.272804, 0, 0
1, 240.00000, 0.618181, 0.263344, 0.645959, 0.275178, 0.640387, 0.272804, 0, 0
1, 300.00000, 0.618181, 0.263344, 0.645959, 0.275178, 0.640387, 0.272804, 0, 0
1, 360.00000, 0.618181, 0.263344, 0.645959, 0.275178, 0.640387, 0.272804, 0, 0
1, 420.00000, 0.618181, 0.263344, 0.645959, 0.275178, 0.640387, 0.272804, 0, 0
1, 480.00000, 0.618181, 0.263344, 0.645959, 0.275178, 0.640387, 0.272804, 0, 0
1, 540.00000, 0.618181, 0.263344, 0.645959, 0.275178, 0.640387, 0.272804, 0, 0
1, 600.00000, 0.618181, 0.263344, 0.645959, 0.275178, 0.640387, 0.272804, 0, 0
1, 660.00000, 0.618181, 0.263344, 0.645959, 0.275178, 0.640387, 0.272804, 0, 0
1, 720.00000, 0.618181, 0.263344, 0.645959, 0.275178, 0.640387, 0.272804, 0, 0
1, 780.00000, 0.622047, 0.264991, 0.645959, 0.275178, 0.642137, 0.273549, 0, 0
1, 840.00000, 0.622047, 0.264991, 0.645959, 0.275178, 0.642137, 0.273549, 0, 0
1, 900.00000, 0.622047, 0.264991, 0.645959, 0.275178, 0.642137, 0.273549, 0, 0
1, 960.00000, 0.622047, 0.264991, 0.645959, 0.275178, 0.642137, 0.273549, 0, 0
1, 1020.00000, 0.622047, 0.264991, 0.645959, 0.275178, 0.642137, 0.273549, 0, 0
1, 1080.00000, 0.622047, 0.264991, 0.645959, 0.275178, 0.642137, 0.273549, 0, 0
1, 1140.00000, 0.622047, 0.264991, 0.645959, 0.275178, 0.642137, 0.273549, 0, 0
1, 1200.00000, 0.622047, 0.264991, 0.645959, 0.275178, 0.642137, 0.273549, 0, 0
1, 1260.00000, 0.622047, 0.264991, 0.645959, 0.275178, 0.642137, 0.273549, 0, 0
1, 1320.00000, 0.622047, 0.264991, 0.645959, 0.275178, 0.642137, 0.273549, 0, 0
1, 1380.00000, 0.622047, 0.264991, 0.645959, 0.275178, 0.642137, 0.273549, 0, 0
1, 1440.00000, 0.622047, 0.264991, 0.645959, 0.275178, 0.642137, 0.273549, 0, 0
1, 1500.00000, 0.622047, 0.264991, 0.645959, 0.275178, 0.642137, 0.273549, 0, 0
1, 1560.00000, 0.622047, 0.264991, 0.645959, 0.275178, 0.642137, 0.273549, 0, 0
1, 1620.00000, 0.622047, 0.264991, 0.645959, 0.275178, 0.642137, 0.273549, 0, 0
1, 1680.00000, 0.622047, 0.264991, 0.645959, 0.275178, 0.642137, 0.273549, 0, 0
1, 1740.00000, 0.622047, 0.264991, 0.645959, 0.275178, 0.642137, 0.273549, 0, 0
1, 1800.00000, 0.622047, 0.264991, 0.645959, 0.275178, 0.642137, 0.273549, 0, 0
1, 1860.00000, 0.622047, 0.264991, 0.645959, 0.275178, 0.642137, 0.273549, 0, 0
1, 1920.00000, 0.622047, 0.264991, 0.645959, 0.275178, 0.642137, 0.273549, 0, 0
1, 1980.00000, 0.622047, 0.264991, 0.645959, 0.275178, 0.642137, 0.273549, 0, 0
1, 2040.00000, 0.622047, 0.264991, 0.645959, 0.275178, 0.642137, 0.273549, 0, 0
1, 2100.00000, 0.622047, 0.264991, 0.645959, 0.275178, 0.642137, 0.273549, 0, 0
1, 2160.00000, 0.622047, 0.264991, 0.645959, 0.275178, 0.642137, 0.273549, 0, 0
1, 2220.00000, 0.625212, 0.266339, 0.64596, 0.275178, 0.641695, 0.273361, 0, 0
1, 2280.00000, 0.625212, 0.266339, 0.645959, 0.275178, 0.641695, 0.273361, 0, 0
1, 2340.00000, 0.625212, 0.266339, 0.645959, 0.275178, 0.641695, 0.273361, 0, 0
1, 2400.00000, 0.625212, 0.266339, 0.645959, 0.275178, 0.641695, 0.273361, 0, 0
1, 2460.00000, 0.625212, 0.266339, 0.645959, 0.275178, 0.641695, 0.273361, 0, 0
1, 2520.00000, 0.625212, 0.266339, 0.645959, 0.275178, 0.641695, 0.273361, 0, 0
1, 2580.00000, 0.625212, 0.266339, 0.645959, 0.275178, 0.641695, 0.273361, 0, 0
1, 2640.00000, 0.625212, 0.266339, 0.645959, 0.275178, 0.641695, 0.273361, 0, 0
1, 2700.00000, 0.625212, 0.266339, 0.645959, 0.275178, 0.641695, 0.273361, 0, 0
1, 2760.00000, 0.625212, 0.266339, 0.645959, 0.275178, 0.641695, 0.273361, 0, 0
1, 2820.00000, 0.625212, 0.266339, 0.645959, 0.275178, 0.641695, 0.273361, 0, 0
1, 2880.00000, 0.625212, 0.266339, 0.645959, 0.275178, 0.641695, 0.273361, 0, 0
1, 2940.00000, 0.625212, 0.266339, 0.645959, 0.275178, 0.641695, 0.273361, 0, 0
1, 3000.00000, 0.625212, 0.266339, 0.645959, 0.275178, 0.641695, 0.273361, 0, 0
1, 3060.00000, 0.625212, 0.266339, 0.645959, 0.275178, 0.641695, 0.273361, 0, 0
1, 3120.00000, 0.625212, 0.266339, 0.645959, 0.275178, 0.641695, 0.273361, 0, 0
1, 3180.00000, 0.625212, 0.266339, 0.645959, 0.275178, 0.641695, 0.273361, 0, 0
1, 3240.00000, 0.625212, 0.266339, 0.645959, 0.275178, 0.641695, 0.273361, 0, 0
1, 3300.00000, 0.625212, 0.266339, 0.645959, 0.275178, 0.641695, 0.273361, 0, 0
1, 3360.00000, 0.625212, 0.266339, 0.645959, 0.275178, 0.641695, 0.273361, 0, 0
1, 3420.00000, 0.625212, 0.266339, 0.645959, 0.275178, 0.641695, 0.273361, 0, 0
1, 3480.00000, 0.625212, 0.266339, 0.645959, 0.275178, 0.641695, 0.273361, 0, 0
1, 3540.00000, 0.625212, 0.266339, 0.645959, 0.275178, 0.641695, 0.273361, 0, 0
2, 0.00000, 0.625212, 0.266339, 0.645959, 0.275178, 0.641695, 0.273361, 0, 0
2, 60.00000, 0.625212, 0.266339, 0.645959, 0.275178, 0.641695, 0.273361, 0, 0
2, 120.00000, 0.625212, 0.266339, 0.645959, 0.275178, 0.641695, 0.273361, 0, 0
2, 180.00000, 0.625212, 0.266339, 0.645959, 0.275178, 0.641695, 0.273361, 0, 0
2, 240.00000, 0.625212, 0.266339, 0.645959, 0.275178, 0.641695, 0.273361, 0, 0
2, 300.00000, 0.625212, 0.266339, 0.645959, 0.275178, 0.641695, 0.273361, 0, 0
2, 360.00000, 0.625212, 0.266339, 0.645959, 0.275178, 0.641695, 0.273361, 0, 0
2, 420.00000, 0.625212, 0.266339, 0.645959, 0.275178, 0.641695, 0.273361, 0, 0
2, 480.00000, 0.625212, 0.266339, 0.645959, 0.275178, 0.641695, 0.273361, 0, 0
2, 540.00000, 0.625212, 0.266339, 0.645959, 0.275178, 0.641695, 0.273361, 0, 0
2, 600.00000, 0.625212, 0.266339, 0.645959, 0.275178, 0.641695, 0.273361, 0, 0
2, 660.00000, 0.625212, 0.266339, 0.645959, 0.275178, 0.641695, 0.273361, 0, 0
2, 720.00000, 0.625212, 0.266339, 0.645959, 0.275178, 0.641695, 0.273361, 0, 0
2, 780.00000, 0.625212, 0.266339, 0.645959, 0.275178, 0.641695, 0.273361, 0, 0
2, 840.00000, 0.625425, 0.26643, 0.64596, 0.275178, 0.645959, 0.275178, 0, 0
2, 900.00000, 0.625425, 0.26643, 0.645959, 0.275178, 0.645959, 0.275178, 0, 0
2, 960.00000, 0.625425, 0.26643, 0.645959, 0.275178, 0.645959, 0.275178, 0, 0
2, 1020.00000, 0.625425, 0.26643, 0.645959, 0.275178, 0.645959, 0.275178, 0, 0
2, 1080.00000, 0.625425, 0.26643, 0.645959, 0.275178, 0.645959, 0.275178, 0, 0
2, 1140.00000, 0.625425, 0.26643, 0.645959, 0.275178, 0.645959, 0.275178, 0, 0
2, 1200.00000, 0.625425, 0.26643, 0.645959, 0.275178, 0.645959, 0.275178, 0, 0
2, 1260.00000, 0.625425, 0.26643, 0.645959, 0.275178, 0.645959, 0.275178, 0, 0
2, 1320.00000, 0.625425, 0.26643, 0.645959, 0.275178, 0.645959, 0.275178, 0, 0
2, 1380.00000, 0.625425, 0.26643, 0.645959, 0.275178, 0.645959, 0.275178, 0, 0
2, 1440.00000, 0.625425, 0.26643, 0.645959, 0.275178, 0.645959, 0.275178, 0, 0
2, 1500.00000, 0.625425, 0.26643, 0.645959, 0.275178, 0.645959, 0.275178, 0, 0
2, 1560.00000, 0.625425, 0.26643, 0.645959, 0.275178, 0.645959, 0.275178, 0, 0
2, 1620.00000, 0.625425, 0.26643, 0.645959, 0.275178, 0.645959, 0.275178, 0, 0
2, 1680.00000, 0.625425, 0.26643, 0.645959, 0.275178, 0.645959, 0.275178, 0, 0
2, 1740.00000, 0.625425, 0.26643, 0.645959, 0.275178, 0.645959, 0.275178, 0, 0
2, 1800.00000, 0.625425, 0.26643, 0.645959, 0.275178, 0.645959, 0.275178, 0, 0
2, 1860.00000, 0.625425, 0.26643, 0.645959, 0.275178, 0.645959, 0.275178, 0, 0
2, 1920.00000, 0.625425, 0.26643, 0.645959, 0.275178, 0.645959, 0.275178, 0, 0
2, 1980.00000, 0.625425, 0.26643, 0.645959, 0.275178, 0.645959, 0.275178, 0, 0
2, 2040.00000, 0.625425, 0.26643, 0.645959, 0.275178, 0.645959, 0.275178, 0, 0
2, 2100.00000, 0.625425, 0.26643, 0.645959, 0.275178, 0.645959, 0.275178, 0, 0
2, 2160.00000, 0.625425, 0.26643, 0.645959, 0.275178, 0.645959, 0.275178, 0, 0
2, 2220.00000, 0.625425, 0.26643, 0.645959, 0.275178, 0.645959, 0.275178, 0, 0
2, 2280.00000, 0.625425, 0.26643, 0.645959, 0.275178, 0.645959, 0.275178, 0, 0
2, 2340.00000, 0.625425, 0.26643, 0.645959, 0.275178, 0.645959, 0.275178, 0, 0
2, 2400.00000, 0.627001, 0.267101, 0.64596, 0.275178, 0.645959, 0.275178, 0, 0
2, 2460.00000, 0.627001, 0.267101, 0.645959, 0.275178, 0.645959, 0.275178, 0, 0
2, 2520.00000, 0.627001, 0.267101, 0.645959, 0.275178, 0.645959, 0.275178, 0, 0
2, 2580.00000, 0.627001, 0.267101, 0.645959, 0.275178, 0.645959, 0.275178, 0, 0
2, 2640.00000, 0.627001, 0.267101, 0.645959, 0.275178, 0.645959, 0.275178, 0, 0
2, 2700.00000, 0.623893, 0.265777, 0.645959, 0.275177, 0.64596, 0.275178, 0, 0
2, 2760.00000, 0.623893, 0.265777, 0.645959, 0.275178, 0.645959, 0.275178, 0, 0
2, 2820.00000, 0.623893, 0.265777, 0.645959, 0.275178, 0.645959, 0.275178, 0, 0
2, 2880.00000, 0.623893, 0.265777, 0.645959, 0.275178, 0.645959, 0.275178, 0, 0
2, 2940.00000, 0.623893, 0.265777, 0.645959, 0.275178, 0.645959, 0.275178, 0, 0
2, 3000.00000, 0.623893, 0.265777, 0.645959, 0.275178, 0.645959, 0.275178, 0, 0
2, 3060.00000, 0.62989, 0.268332, 0.645959, 0.275178, 0.645959, 0.275178, 0, 0
2, 3120.00000, 0.62989, 0.268332, 0.645959, 0.275178, 0.645959, 0.275178, 0, 0
2, 3180.00000, 0.62989, 0.268332, 0.645959, 0.275178, 0.645959, 0.275178, 0, 0
2, 3240.00000, 0.62989, 0.268332, 0.645959, 0.275178, 0.645959, 0.275178, 0, 0
2, 3300.00000, 0.62989, 0.268332, 0.645959, 0.275178, 0.645959, 0.275178, 0, 0
2, 3360.00000, 0.62989, 0.268332, 0.645959, 0.275178, 0.645959, 0.275178, 0, 0
2, 3420.00000, 0.62989, 0.268332, 0.645959, 0.275178, 0.645959, 0.275178, 0, 0
2, 3480.00000, 0.62989, 0.268332, 0.645959, 0.275178, 0.645959, 0.275178, 0, 0
2, 3540.00000, 0.62989, 0.268332, 0.645959, 0.275178, 0.645959, 0.275178, 0, 0
3, 0.00000, 0.62989, 0.268332, 0.645959, 0.275178, 0.645959, 0.275178, 0, 0
3, 60.00000, 0.62989, 0.268332, 0.645959, 0.275178, 0.645959, 0.275178, 0, 0
3, 120.00000, 0.62989, 0.268332, 0.645959, 0.275178, 0.645959, 0.275178, 0, 0
3, 180.00000, 0.62989, 0.268332, 0.645959, 0.275178, 0.645959, 0.275178, 0, 0
3, 240.00000, 0.62989, 0.268332, 0.645959, 0.275178, 0.645959, 0.275178, 0, 0
3, 300.00000, 0.62989, 0.268332, 0.645959, 0.275178, 0.645959, 0.275178, 0, 0
3, 360.00000, 0.62989, 0.268332, 0.645959, 0.275178, 0.645959, 0.275178, 0, 0
3, 420.00000, 0.62989, 0.268332, 0.645959, 0.275178, 0.645959, 0.275178, 0, 0
3, 480.00000, 0.62989, 0.268332, 0.645959, 0.275178, 0.645959, 0.275178, 0, 0
3, 540.00000, 0.62989, 0.268332, 0.645959, 0.275178, 0.645959, 0.275178, 0, 0
3, 600.00000, 0.62989, 0.268332, 0.645959, 0.275178, 0.645959, 0.275178, 0, 0
3, 660.00000, 0.62989, 0.268332, 0.645959, 0.275178, 0.645959, 0.275178, 0, 0
3, 720.00000, 0.62989, 0.268332, 0.645959, 0.275178, 0.645959, 0.275178, 0, 0
3, 780.00000, 0.62989, 0.268332, 0.645959, 0.275178, 0.645959, 0.275178, 0, 0
3, 840.00000, 0.62989, 0.268332, 0.645959, 0.275178, 0.645959, 0.275178, 0, 0
3, 900.00000, 0.62989, 0.268332, 0.645959, 0.275178, 0.645959, 0.275178, 0, 0
3, 960.00000, 0.62989, 0.268332, 0.645959, 0.275178, 0.645959, 0.275178, 0, 0
3, 1020.00000, 0.62989, 0.268332, 0.645959, 0.275178, 0.645959, 0.275178, 0, 0
3, 1080.00000, 0.62989, 0.268332, 0.645959, 0.275178, 0.645959, 0.275178, 0, 0
3, 1140.00000, 0.62989, 0.268332, 0.645959, 0.275178, 0.645959, 0.275178, 0, 0
3, 1200.00000, 0.62989, 0.268332, 0.645959, 0.275178, 0.645959, 0.275178, 0, 0
3, 1260.00000, 0.62989, 0.268332, 0.645959, 0.275178, 0.645959, 0.275178, 0, 0
3, 1320.00000, 0.62989, 0.268332, 0.645959, 0.275178, 0.645959, 0.275178, 0, 0
3, 1380.00000, 0.62989, 0.268332, 0.645959, 0.275178, 0.645959, 0.275178, 0, 0
3, 1440.00000, 0.62989, 0.268332, 0.645959, 0.275178, 0.645959, 0.275178, 0, 0
3, 1500.00000, 0.62989, 0.268332, 0.645959, 0.275178, 0.645959, 0.275178, 0, 0
3, 1560.00000, 0.62989, 0.268332, 0.645959, 0.275178, 0.645959, 0.275178, 0, 0
3, 1620.00000, 0.62989, 0.268332, 0.645959, 0.275178, 0.645959, 0.275178, 0, 0
3, 1680.00000, 0.62989, 0.268332, 0.645959, 0.275178, 0.645959, 0.275178, 0, 0
3, 1740.00000, 0.62989, 0.268332, 0.645959, 0.275178, 0.645959, 0.275178, 0, 0
3, 1800.00000, 0.62989, 0.268332, 0.645959, 0.275178, 0.645959, 0.275178, 0, 0
3, 1860.00000, 0.62989, 0.268332, 0.645959, 0.275178, 0.645959, 0.275178, 0, 0
3, 1920.00000, 0.62989, 0.268332, 0.645959, 0.275178, 0.645959, 0.275178, 0, 0
3, 1980.00000, 0.62989, 0.268332, 0.645959, 0.275178, 0.645959, 0.275178, 0, 0
3, 2040.00000, 0.62989, 0.268332, 0.645959, 0.275178, 0.645959, 0.275178, 0, 0
3, 2100.00000, 0.62989, 0.268332, 0.645959, 0.275178, 0.645959, 0.275178, 0, 0
3, 2160.00000, 0.62989, 0.268332, 0.645959, 0.275178, 0.645959, 0.275178, 0, 0
3, 2220.00000, 0.62989, 0.268332, 0.645959, 0.275178, 0.645959, 0.275178, 0, 0
3, 2280.00000, 0.62989, 0.268332, 0.645959, 0.275178, 0.645959, 0.275178, 0, 0
3, 2340.00000, 0.62989, 0.268332, 0.645959, 0.275178, 0.645959, 0.275178, 0, 0
3, 2400.00000, 0.62989, 0.268332, 0.645959, 0.275178, 0.645959, 0.275178, 0, 0
3, 2460.00000, 0.62989, 0.268332, 0.645959, 0.275178, 0.645959, 0.275178, 0, 0
3, 2520.00000, 0.62989, 0.268332, 0.645959, 0.275178, 0.645959, 0.275178, 0, 0
3, 2580.00000, 0.62989, 0.268332, 0.645959, 0.275178, 0.645959, 0.275178, 0, 0
3, 2640.00000, 0.62989, 0.268332, 0.645959, 0.275178, 0.645959, 0.275178, 0, 0
3, 2700.00000, 0.62989, 0.268332, 0.645959, 0.275178, 0.645959, 0.275178, 0, 0
3, 2760.00000, 0.62989, 0.268332, 0.645959, 0.275178, 0.645959, 0.275178, 0, 0
3, 2820.00000, 0.62989, 0.268332, 0.645959, 0.275178, 0.645959, 0.275178, 0, 0
3, 2880.00000, 0.62989, 0.268332, 0.645959, 0.275178, 0.645959, 0.275178, 0, 0
3, 2940.00000, 0.62989, 0.268332, 0.645959, 0.275178, 0.645959, 0.275178, 0, 0
3, 3000.00000, 0.62989, 0.268332, 0.645959, 0.275178, 0.645959, 0.275178, 0, 0
3, 3060.00000, 0.62989, 0.268332, 0.645959, 0.275178, 0.645959, 0.275178, 0, 0
3, 3120.00000, 0.62989, 0.268332, 0.645959, 0.275178, 0.645959, 0.275178, 0, 0
3, 3180.00000, 0.663776, 0.282768, 0.683341, 0.291102, 0.683342, 0.291102, 0, 0
3, 3240.00000, 0.663776, 0.282768, 0.683342, 0.291102, 0.683342, 0.291102, 0, 0
3, 3300.00000, 0.663776, 0.282768, 0.683342, 0.291102, 0.683342, 0.291102, 0, 0
3, 3360.00000, 0.663776, 0.282768, 0.683342, 0.291102, 0.683342, 0.291102, 0, 0
3, 3420.00000, 0.663776, 0.282768, 0.683342, 0.291102, 0.683342, 0.291102, 0, 0
3, 3480.00000, 0.663776, 0.282768, 0.683342, 0.291102, 0.683342, 0.291102, 0, 0
3, 3540.00000, 0.663776, 0.282768, 0.683342, 0.291102, 0.683342, 0.291102, 0, 0
4, 0.00000, 0.663776, 0.282768, 0.683342, 0.291102, 0.683342, 0.291102, 0, 0
4, 60.00000, 0.663776, 0.282768, 0.683342, 0.291102, 0.683342, 0.291102, 0, 0
4, 120.00000, 0.663776, 0.282768, 0.683342, 0.291102, 0.683342, 0.291102, 0, 0
4, 180.00000, 0.663776, 0.282768, 0.683342, 0.291102, 0.683342, 0.291102, 0, 0
4, 240.00000, 0.663776, 0.282768, 0.683342, 0.291102, 0.683342, 0.291102, 0, 0
4, 300.00000, 0.663776, 0.282768, 0.683342, 0.291102, 0.683342, 0.291102, 0, 0
4, 360.00000, 0.663776, 0.282768, 0.683342, 0.291102, 0.683342, 0.291102, 0, 0
4, 420.00000, 0.663776, 0.282768, 0.683342, 0.291102, 0.683342, 0.291102, 0, 0
4, 480.00000, 0.663776, 0.282768, 0.683342, 0.291102, 0.683342, 0.291102, 0, 0
4, 540.00000, 0.663776, 0.282768, 0.683342, 0.291102, 0.683342, 0.291102, 0, 0
4, 600.00000, 0.663776, 0.282768, 0.683342, 0.291102, 0.683342, 0.291102, 0, 0
4, 660.00000, 0.663776, 0.282768, 0.683342, 0.291102, 0.683342, 0.291102, 0, 0
