hour,t(sec),V1,VAngle1,V2,VAngle2,V3,VAngle3,V4,VAngle4,I1,IAngle1,I2,IAngle2,I3,IAngle3,I4,IAngle4
0, 60.00000, 117.872, -31.5226, 117.456, -150.937, 119.339, 88.9783, 0, 0, 6.48475, -54.5961, 6.45929, -174.011, 6.57449, 65.9047, 0.045339, -111.86
0, 120.00000, 117.872, -31.5227, 117.456, -150.937, 119.339, 88.9783, 0, 0, 6.48471, -54.5966, 6.45924, -174.011, 6.57436, 65.9044, 0.0452246, -111.878
0, 180.00000, 117.872, -31.5227, 117.456, -150.937, 119.339, 88.9783, 0, 0, 6.48471, -54.5966, 6.45924, -174.011, 6.57436, 65.9044, 0.0452241, -111.878
0, 240.00000, 117.872, -31.5227, 117.456, -150.937, 119.339, 88.9783, 0, 0, 6.48471, -54.5966, 6.45924, -174.011, 6.57436, 65.9044, 0.0452241, -111.878
0, 300.00000, 117.872, -31.5227, 117.456, -150.937, 119.339, 88.9783, 0, 0, 6.48471, -54.5966, 6.45924, -174.011, 6.57436, 65.9044, 0.0452241, -111.878
0, 360.00000, 117.872, -31.5227, 117.456, -150.937, 119.339, 88.9783, 0, 0, 6.48471, -54.5966, 6.45924, -174.011, 6.57436, 65.9044, 0.0452241, -111.878
0, 420.00000, 117.872, -31.5227, 117.456, -150.937, 119.339, 88.9783, 0, 0, 6.48471, -54.5966, 6.45924, -174.011, 6.57436, 65.9044, 0.0452241, -111.878
0, 480.00000, 118.862, -31.4263, 118.396, -150.849, 120.311, 89.092, 0, 0, 5.91393, -54.501, 5.88823, -173.923, 5.99373, 66.0174, 0.0411709, -111.702
0, 540.00000, 118.862, -31.4262, 118.396, -150.849, 120.311, 89.092, 0, 0, 5.91396, -54.5001, 5.88826, -173.923, 5.99402, 66.0181, 0.0415243, -111.65
0, 600.00000, 118.862, -31.4262, 118.396, -150.849, 120.311, 89.092, 0, 0, 5.91395, -54.5001, 5.88826, -173.923, 5.99402, 66.0181, 0.0415296, -111.649
0, 660.00000, 118.862, -31.4262, 118.396, -150.849, 120.311, 89.092, 0, 0, 5.91395, -54.5001, 5.88826, -173.923, 5.99402, 66.0181, 0.0415297, -111.649
0, 720.00000, 118.862, -31.4262, 118.396, -150.849, 120.311, 89.092, 0, 0, 5.91395, -54.5001, 5.88826, -173.923, 5.99402, 66.0181, 0.0415297, -111.649
0, 780.00000, 118.862, -31.4262, 118.396, -150.849, 120.311, 89.092, 0, 0, 5.91395, -54.5001, 5.88826, -173.923, 5.99402, 66.0181, 0.0415297, -111.649
0, 840.00000, 118.862, -31.4262, 118.396, -150.849, 120.311, 89.092, 0, 0, 5.91395, -54.5001, 5.88826, -173.923, 5.99402, 66.0181, 0.0415297, -111.649
0, 900.00000, 118.862, -31.4262, 118.396, -150.849, 120.311, 89.092, 0, 0, 5.91395, -54.5001, 5.88826, -173.923, 5.99402, 66.0181, 0.0415297, -111.649
0, 960.00000, 118.862, -31.4262, 118.396, -150.849, 120.311, 89.092, 0, 0, 5.91395, -54.5001, 5.88826, -173.923, 5.99402, 66.0181, 0.0415297, -111.649
0, 1020.00000, 118.862, -31.4262, 118.396, -150.849, 120.311, 89.092, 0, 0, 5.91395, -54.5001, 5.88826, -173.923, 5.99402, 66.0181, 0.0415297, -111.649
0, 1080.00000, 118.862, -31.4262, 118.396, -150.849, 120.311, 89.092, 0, 0, 5.91395, -54.5001, 5.88826, -173.923, 5.99402, 66.0181, 0.0415297, -111.649
0, 1140.00000, 118.862, -31.4262, 118.396, -150.849, 120.311, 89.092, 0, 0, 5.91395, -54.5001, 5.88826, -173.923, 5.99402, 66.0181, 0.0415297, -111.649
0, 1200.00000, 118.862, -31.4262, 118.396, -150.849, 120.311, 89.092, 0, 0, 5.91395, -54.5001, 5.88826, -173.923, 5.99402, 66.0181, 0.0415297, -111.649
0, 1260.00000, 118.862, -31.4262, 118.396, -150.849, 120.311, 89.092, 0, 0, 5.91395, -54.5001, 5.88826, -173.923, 5.99402, 66.0181, 0.0415297, -111.649
0, 1320.00000, 118.862, -31.4262, 118.396, -150.849, 120.311, 89.092, 0, 0, 5.91395, -54.5001, 5.88826, -173.923, 5.99402, 66.0181, 0.0415297, -111.649
0, 1380.00000, 118.862, -31.4262, 118.396, -150.849, 120.311, 89.092, 0, 0, 5.91395, -54.5001, 5.88826, -173.923, 5.99402, 66.0181, 0.0415297, -111.649
0, 1440.00000, 118.862, -31.4262, 118.396, -150.849, 120.311, 89.092, 0, 0, 5.91395, -54.5001, 5.88826, -173.923, 5.99402, 66.0181, 0.0415297, -111.649
0, 1500.00000, 118.862, -31.4262, 118.396, -150.849, 120.311, 89.092, 0, 0, 5.91395, -54.5001, 5.88826, -173.923, 5.99402, 66.0181, 0.0415297, -111.649
0, 1560.00000, 118.862, -31.4262, 118.396, -150.849, 120.311, 89.092, 0, 0, 5.91395, -54.5001, 5.88826, -173.923, 5.99402, 66.0181, 0.0415297, -111.649
0, 1620.00000, 118.862, -31.4262, 118.396, -150.849, 120.311, 89.092, 0, 0, 5.91395, -54.5001, 5.88826, -173.923, 5.99402, 66.0181, 0.0415297, -111.649
0, 1680.00000, 118.862, -31.4262, 118.396, -150.849, 120.311, 89.092, 0, 0, 5.91395, -54.5001, 5.88826, -173.923, 5.99402, 66.0181, 0.0415297, -111.649
0, 1740.00000, 118.862, -31.4262, 118.396, -150.849, 120.311, 89.092, 0, 0, 5.91395, -54.5001, 5.88826, -173.923, 5.99402, 66.0181, 0.0415297, -111.649
0, 1800.00000, 118.862, -31.4262, 118.396, -150.849, 120.311, 89.092, 0, 0, 5.91395, -54.5001, 5.88826, -173.923, 5.99402, 66.0181, 0.0415297, -111.649
0, 1860.00000, 118.862, -31.4262, 118.396, -150.849, 120.311, 89.092, 0, 0, 5.91395, -54.5001, 5.88826, -173.923, 5.99402, 66.0181, 0.0415297, -111.649
0, 1920.00000, 118.862, -31.4262, 118.396, -150.849, 120.311, 89.092, 0, 0, 5.91395, -54.5001, 5.88826, -173.923, 5.99402, 66.0181, 0.0415297, -111.649
0, 1980.00000, 118.862, -31.4262, 118.396, -150.849, 120.311, 89.092, 0, 0, 5.91395, -54.5001, 5.88826, -173.923, 5.99402, 66.0181, 0.0415297, -111.649
0, 2040.00000, 118.862, -31.4262, 118.396, -150.849, 120.311, 89.092, 0, 0, 5.91395, -54.5001, 5.88826, -173.923, 5.99402, 66.0181, 0.0415297, -111.649
0, 2100.00000, 118.862, -31.4262, 118.396, -150.849, 120.311, 89.092, 0, 0, 5.91395, -54.5001, 5.88826, -173.923, 5.99402, 66.0181, 0.0415297, -111.649
0, 2160.00000, 118.862, -31.4262, 118.396, -150.849, 120.311, 89.092, 0, 0, 5.91395, -54.5001, 5.88826, -173.923, 5.99402, 66.0181, 0.0415297, -111.649
0, 2220.00000, 118.862, -31.4262, 118.396, -150.849, 120.311, 89.092, 0, 0, 5.91395, -54.5001, 5.88826, -173.923, 5.99402, 66.0181, 0.0415297, -111.649
0, 2280.00000, 118.862, -31.4262, 118.396, -150.849, 120.311, 89.092, 0, 0, 5.91395, -54.5001, 5.88826, -173.923, 5.99402, 66.0181, 0.0415297, -111.649
0, 2340.00000, 118.862, -31.4262, 118.396, -150.849, 120.311, 89.092, 0, 0, 5.91395, -54.5001, 5.88826, -173.923, 5.99402, 66.0181, 0.0415297, -111.649
0, 2400.00000, 118.862, -31.4262, 118.396, -150.849, 120.311, 89.092, 0, 0, 5.91395, -54.5001, 5.88826, -173.923, 5.99402, 66.0181, 0.0415297, -111.649
0, 2460.00000, 118.862, -31.4262, 118.396, -150.849, 120.311, 89.092, 0, 0, 5.91395, -54.5001, 5.88826, -173.923, 5.99402, 66.0181, 0.0415297, -111.649
0, 2520.00000, 118.862, -31.4262, 118.396, -150.849, 120.311, 89.092, 0, 0, 5.91395, -54.5001, 5.88826, -173.923, 5.99402, 66.0181, 0.0415297, -111.649
0, 2580.00000, 118.862, -31.4262, 118.396, -150.849, 120.311, 89.092, 0, 0, 5.91395, -54.5001, 5.88826, -173.923, 5.99402, 66.0181, 0.0415297, -111.649
0, 2640.00000, 118.862, -31.4262, 118.396, -150.849, 120.311, 89.092, 0, 0, 5.91395, -54.5001, 5.88826, -173.923, 5.99402, 66.0181, 0.0415297, -111.649
0, 2700.00000, 118.862, -31.4262, 118.396, -150.849, 120.311, 89.092, 0, 0, 5.91395, -54.5001, 5.88826, -173.923, 5.99402, 66.0181, 0.0415297, -111.649
0, 2760.00000, 118.862, -31.4262, 118.396, -150.849, 120.311, 89.092, 0, 0, 5.91395, -54.5001, 5.88826, -173.923, 5.99402, 66.0181, 0.0415297, -111.649
0, 2820.00000, 118.862, -31.4262, 118.396, -150.849, 120.311, 89.092, 0, 0, 5.91395, -54.5001, 5.88826, -173.923, 5.99402, 66.0181, 0.0415297, -111.649
0, 2880.00000, 118.862, -31.4262, 118.396, -150.849, 120.311, 89.092, 0, 0, 5.91395, -54.5001, 5.88826, -173.923, 5.99402, 66.0181, 0.0415297, -111.649
0, 2940.00000, 118.862, -31.4262, 118.396, -150.849, 120.311, 89.092, 0, 0, 5.91395, -54.5001, 5.88826, -173.923, 5.99402, 66.0181, 0.0415297, -111.649
0, 3000.00000, 118.862, -31.4262, 118.396, -150.849, 120.311, 89.092, 0, 0, 5.91395, -54.5001, 5.88826, -173.923, 5.99402, 66.0181, 0.0415297, -111.649
0, 3060.00000, 118.862, -31.4262, 118.396, -150.849, 120.311, 89.092, 0, 0, 5.91395, -54.5001, 5.88826, -173.923, 5.99402, 66.0181, 0.0415297, -111.649
0, 3120.00000, 118.862, -31.4262, 118.396, -150.849, 120.311, 89.092, 0, 0, 5.91395, -54.5001, 5.88826, -173.923, 5.99402, 66.0181, 0.0415297, -111.649
0, 3180.00000, 118.862, -31.4262, 118.396, -150.849, 120.311, 89.092, 0, 0, 5.91395, -54.5001, 5.88826, -173.923, 5.99402, 66.0181, 0.0415297, -111.649
0, 3240.00000, 118.862, -31.4262, 118.396, -150.849, 120.311, 89.092, 0, 0, 5.91395, -54.5001, 5.88826, -173.923, 5.99402, 66.0181, 0.0415297, -111.649
0, 3300.00000, 118.862, -31.4262, 118.396, -150.849, 120.311, 89.092, 0, 0, 5.91395, -54.5001, 5.88826, -173.923, 5.99402, 66.0181, 0.0415297, -111.649
0, 3360.00000, 118.862, -31.4262, 118.396, -150.849, 120.311, 89.092, 0, 0, 5.91395, -54.5001, 5.88826, -173.923, 5.99402, 66.0181, 0.0415297, -111.649
0, 3420.00000, 118.862, -31.4262, 118.396, -150.849, 120.311, 89.092, 0, 0, 5.91395, -54.5001, 5.88826, -173.923, 5.99402, 66.0181, 0.0415297, -111.649
0, 3480.00000, 118.862, -31.4262, 118.396, -150.849, 120.311, 89.092, 0, 0, 5.91395, -54.5001, 5.88826, -173.923, 5.99402, 66.0181, 0.0415297, -111.649
0, 3540.00000, 118.862, -31.4262, 118.396, -150.849, 120.311, 89.092, 0, 0, 5.91395, -54.5001, 5.88826, -173.923, 5.99402, 66.0181, 0.0415297, -111.649
1, 0.00000, 118.862, -31.4262, 118.396, -150.849, 120.311, 89.092, 0, 0, 5.91395, -54.5001, 5.88826, -173.923, 5.99402, 66.0181, 0.0415297, -111.649
1, 60.00000, 118.97, -31.2901, 118.704, -150.822, 120.306, 89.0935, 0, 0, 5.91991, -54.3641, 5.90521, -173.897, 5.99378, 66.0196, 0.0395672, -109.799
1, 120.00000, 118.97, -31.2901, 118.704, -150.822, 120.306, 89.0935, 0, 0, 5.91994, -54.364, 5.90527, -173.896, 5.99376, 66.0196, 0.0394865, -109.781
1, 180.00000, 118.97, -31.2901, 118.704, -150.822, 120.306, 89.0935, 0, 0, 5.91994, -54.364, 5.90527, -173.896, 5.99376, 66.0196, 0.0394857, -109.781
1, 240.00000, 118.97, -31.2901, 118.704, -150.822, 120.306, 89.0935, 0, 0, 5.91994, -54.364, 5.90527, -173.896, 5.99376, 66.0196, 0.0394857, -109.781
1, 300.00000, 118.97, -31.2901, 118.704, -150.822, 120.306, 89.0935, 0, 0, 5.91994, -54.364, 5.90527, -173.896, 5.99376, 66.0196, 0.0394857, -109.781
1, 360.00000, 118.97, -31.2901, 118.704, -150.822, 120.306, 89.0935, 0, 0, 5.91994, -54.364, 5.90527, -173.896, 5.99376, 66.0196, 0.0394857, -109.781
1, 420.00000, 118.97, -31.2901, 118.704, -150.822, 120.306, 89.0935, 0, 0, 5.91994, -54.364, 5.90527, -173.896, 5.99376, 66.0196, 0.0394857, -109.781
1, 480.00000, 118.97, -31.2901, 118.704, -150.822, 120.306, 89.0935, 0, 0, 5.91994, -54.364, 5.90527, -173.896, 5.99376, 66.0196, 0.0394857, -109.781
1, 540.00000, 118.97, -31.2901, 118.704, -150.822, 120.306, 89.0935, 0, 0, 5.91994, -54.364, 5.90527, -173.896, 5.99376, 66.0196, 0.0394857, -109.781
1, 600.00000, 118.97, -31.2901, 118.704, -150.822, 120.306, 89.0935, 0, 0, 5.91994, -54.364, 5.90527, -173.896, 5.99376, 66.0196, 0.0394857, -109.781
1, 660.00000, 118.97, -31.2901, 118.704, -150.822, 120.306, 89.0935, 0, 0, 5.91994, -54.364, 5.90527, -173.896, 5.99376, 66.0196, 0.0394857, -109.781
1, 720.00000, 118.97, -31.2901, 118.704, -150.822, 120.306, 89.0935, 0, 0, 5.91994, -54.364, 5.90527, -173.896, 5.99376, 66.0196, 0.0394857, -109.781
1, 780.00000, 118.97, -31.2901, 118.704, -150.822, 120.306, 89.0935, 0, 0, 5.91994, -54.364, 5.90527, -173.896, 5.99376, 66.0196, 0.0394857, -109.781
1, 840.00000, 118.97, -31.2901, 118.704, -150.822, 120.306, 89.0935, 0, 0, 5.91994, -54.364, 5.90527, -173.896, 5.99376, 66.0196, 0.0394857, -109.781
1, 900.00000, 118.97, -31.2901, 118.704, -150.822, 120.306, 89.0935, 0, 0, 5.91994, -54.364, 5.90527, -173.896, 5.99376, 66.0196, 0.0394857, -109.781
1, 960.00000, 118.97, -31.2901, 118.704, -150.822, 120.306, 89.0935, 0, 0, 5.91994, -54.364, 5.90527, -173.896, 5.99376, 66.0196, 0.0394857, -109.781
1, 1020.00000, 118.97, -31.2901, 118.704, -150.822, 120.306, 89.0935, 0, 0, 5.91994, -54.364, 5.90527, -173.896, 5.99376, 66.0196, 0.0394857, -109.781
1, 1080.00000, 118.97, -31.2901, 118.704, -150.822, 120.306, 89.0935, 0, 0, 5.91994, -54.364, 5.90527, -173.896, 5.99376, 66.0196, 0.0394857, -109.781
1, 1140.00000, 118.97, -31.2901, 118.704, -150.822, 120.306, 89.0935, 0, 0, 5.91994, -54.364, 5.90527, -173.896, 5.99376, 66.0196, 0.0394857, -109.781
1, 1200.00000, 118.97, -31.2901, 118.704, -150.822, 120.306, 89.0935, 0, 0, 5.91994, -54.364, 5.90527, -173.896, 5.99376, 66.0196, 0.0394857, -109.781
1, 1260.00000, 118.97, -31.2901, 118.704, -150.822, 120.306, 89.0935, 0, 0, 5.91994, -54.364, 5.90527, -173.896, 5.99376, 66.0196, 0.0394857, -109.781
1, 1320.00000, 118.97, -31.2901, 118.704, -150.822, 120.306, 89.0935, 0, 0, 5.91994, -54.364, 5.90527, -173.896, 5.99376, 66.0196, 0.0394857, -109.781
1, 1380.00000, 118.97, -31.2901, 118.704, -150.822, 120.306, 89.0935, 0, 0, 5.91994, -54.364, 5.90527, -173.896, 5.99376, 66.0196, 0.0394857, -109.781
1, 1440.00000, 118.97, -31.2901, 118.704, -150.822, 120.306, 89.0935, 0, 0, 5.91994, -54.364, 5.90527, -173.896, 5.99376, 66.0196, 0.0394857, -109.781
1, 1500.00000, 118.97, -31.2901, 118.704, -150.822, 120.306, 89.0935, 0, 0, 5.91994, -54.364, 5.90527, -173.896, 5.99376, 66.0196, 0.0394857, -109.781
1, 1560.00000, 118.97, -31.2901, 118.704, -150.822, 120.306, 89.0935, 0, 0, 5.91994, -54.364, 5.90527, -173.896, 5.99376, 66.0196, 0.0394857, -109.781
1, 1620.00000, 118.97, -31.2901, 118.704, -150.822, 120.306, 89.0935, 0, 0, 5.91994, -54.364, 5.90527, -173.896, 5.99376, 66.0196, 0.0394857, -109.781
1, 1680.00000, 118.97, -31.2901, 118.704, -150.822, 120.306, 89.0935, 0, 0, 5.91994, -54.364, 5.90527, -173.896, 5.99376, 66.0196, 0.0394857, -109.781
1, 1740.00000, 118.97, -31.2901, 118.704, -150.822, 120.306, 89.0935, 0, 0, 5.91994, -54.364, 5.90527, -173.896, 5.99376, 66.0196, 0.0394857, -109.781
1, 1800.00000, 118.97, -31.2901, 118.704, -150.822, 120.306, 89.0935, 0, 0, 5.91994, -54.364, 5.90527, -173.896, 5.99376, 66.0196, 0.0394857, -109.781
1, 1860.00000, 118.97, -31.2901, 118.704, -150.822, 120.306, 89.0935, 0, 0, 5.91994, -54.364, 5.90527, -173.896, 5.99376, 66.0196, 0.0394857, -109.781
1, 1920.00000, 118.97, -31.2901, 118.704, -150.822, 120.306, 89.0935, 0, 0, 5.91994, -54.364, 5.90527, -173.896, 5.99376, 66.0196, 0.0394857, -109.781
1, 1980.00000, 118.97, -31.2901, 118.704, -150.822, 120.306, 89.0935, 0, 0, 5.91994, -54.364, 5.90527, -173.896, 5.99376, 66.0196, 0.0394857, -109.781
1, 2040.00000, 118.97, -31.2901, 118.704, -150.822, 120.306, 89.0935, 0, 0, 5.91994, -54.364, 5.90527, -173.896, 5.99376, 66.0196, 0.0394857, -109.781
1, 2100.00000, 118.97, -31.2901, 118.704, -150.822, 120.306, 89.0935, 0, 0, 5.91994, -54.364, 5.90527, -173.896, 5.99376, 66.0196, 0.0394857, -109.781
1, 2160.00000, 118.97, -31.2901, 118.704, -150.822, 120.306, 89.0935, 0, 0, 5.91994, -54.364, 5.90527, -173.896, 5.99376, 66.0196, 0.0394857, -109.781
1, 2220.00000, 118.97, -31.2901, 118.704, -150.822, 120.306, 89.0935, 0, 0, 5.91994, -54.364, 5.90527, -173.896, 5.99376, 66.0196, 0.0394857, -109.781
1, 2280.00000, 118.97, -31.2901, 118.704, -150.822, 120.306, 89.0935, 0, 0, 5.91994, -54.364, 5.90527, -173.896, 5.99376, 66.0196, 0.0394857, -109.781
1, 2340.00000, 118.97, -31.2901, 118.704, -150.822, 120.306, 89.0935, 0, 0, 5.91994, -54.364, 5.90527, -173.896, 5.99376, 66.0196, 0.0394857, -109.781
1, 2400.00000, 118.97, -31.2901, 118.704, -150.822, 120.306, 89.0935, 0, 0, 5.91994, -54.364, 5.90527, -173.896, 5.99376, 66.0196, 0.0394857, -109.781
1, 2460.00000, 118.97, -31.2901, 118.704, -150.822, 120.306, 89.0935, 0, 0, 5.91994, -54.364, 5.90527, -173.896, 5.99376, 66.0196, 0.0394857, -109.781
1, 2520.00000, 118.97, -31.2901, 118.704, -150.822, 120.306, 89.0935, 0, 0, 5.91994, -54.364, 5.90527, -173.896, 5.99376, 66.0196, 0.0394857, -109.781
1, 2580.00000, 118.97, -31.2901, 118.704, -150.822, 120.306, 89.0935, 0, 0, 5.91994, -54.364, 5.90527, -173.896, 5.99376, 66.0196, 0.0394857, -109.781
1, 2640.00000, 118.97, -31.2901, 118.704, -150.822, 120.306, 89.0935, 0, 0, 5.91994, -54.364, 5.90527, -173.896, 5.99376, 66.0196, 0.0394857, -109.781
1, 2700.00000, 118.97, -31.2901, 118.704, -150.822, 120.306, 89.0935, 0, 0, 5.91994, -54.364, 5.90527, -173.896, 5.99376, 66.0196, 0.0394857, -109.781
1, 2760.00000, 118.97, -31.2901, 118.704, -150.822, 120.306, 89.0935, 0, 0, 5.91994, -54.364, 5.90527, -173.896, 5.99376, 66.0196, 0.0394857, -109.781
1, 2820.00000, 118.97, -31.2901, 118.704, -150.822, 120.306, 89.0935, 0, 0, 5.91994, -54.364, 5.90527, -173.896, 5.99376, 66.0196, 0.0394857, -109.781
1, 2880.00000, 118.97, -31.2901, 118.704, -150.822, 120.306, 89.0935, 0, 0, 5.91994, -54.364, 5.90527, -173.896, 5.99376, 66.0196, 0.0394857, -109.781
1, 2940.00000, 118.97, -31.2901, 118.704, -150.822, 120.306, 89.0935, 0, 0, 5.91994, -54.364, 5.90527, -173.896, 5.99376, 66.0196, 0.0394857, -109.781
1, 3000.00000, 118.97, -31.2901, 118.704, -150.822, 120.306, 89.0935, 0, 0, 5.91994, -54.364, 5.90527, -173.896, 5.99376, 66.0196, 0.0394857, -109.781
1, 3060.00000, 118.97, -31.2901, 118.704, -150.822, 120.306, 89.0935, 0, 0, 5.91994, -54.364, 5.90527, -173.896, 5.99376, 66.0196, 0.0394857, -109.781
1, 3120.00000, 118.97, -31.2901, 118.704, -150.822, 120.306, 89.0935, 0, 0, 5.91994, -54.364, 5.90527, -173.896, 5.99376, 66.0196, 0.0394857, -109.781
1, 3180.00000, 118.97, -31.2901, 118.704, -150.822, 120.306, 89.0935, 0, 0, 5.91994, -54.364, 5.90527, -173.896, 5.99376, 66.0196, 0.0394857, -109.781
1, 3240.00000, 118.97, -31.2901, 118.704, -150.822, 120.306, 89.0935, 0, 0, 5.91994, -54.364, 5.90527, -173.896, 5.99376, 66.0196, 0.0394857, -109.781
1, 3300.00000, 118.97, -31.2901, 118.704, -150.822, 120.306, 89.0935, 0, 0, 5.91994, -54.364, 5.90527, -173.896, 5.99376, 66.0196, 0.0394857, -109.781
1, 3360.00000, 118.97, -31.2901, 118.704, -150.822, 120.306, 89.0935, 0, 0, 5.91994, -54.364, 5.90527, -173.896, 5.99376, 66.0196, 0.0394857, -109.781
1, 3420.00000, 118.97, -31.2901, 118.704, -150.822, 120.306, 89.0935, 0, 0, 5.91994, -54.364, 5.90527, -173.896, 5.99376, 66.0196, 0.0394857, -109.781
1, 3480.00000, 118.97, -31.2901, 118.704, -150.822, 120.306, 89.0935, 0, 0, 5.91994, -54.364, 5.90527, -173.896, 5.99376, 66.0196, 0.0394857, -109.781
1, 3540.00000, 118.97, -31.2901, 118.704, -150.822, 120.306, 89.0935, 0, 0, 5.91994, -54.364, 5.90527, -173.896, 5.99376, 66.0196, 0.0394857, -109.781
2, 0.00000, 118.97, -31.2901, 118.704, -150.822, 120.306, 89.0935, 0, 0, 5.91994, -54.364, 5.90527, -173.896, 5.99376, 66.0196, 0.0394857, -109.781
2, 60.00000, 118.97, -31.2901, 118.704, -150.822, 120.306, 89.0935, 0, 0, 5.91994, -54.364, 5.90527, -173.896, 5.99376, 66.0196, 0.0394857, -109.781
2, 120.00000, 118.97, -31.2901, 118.704, -150.822, 120.306, 89.0935, 0, 0, 5.91994, -54.364, 5.90527, -173.896, 5.99376, 66.0196, 0.0394857, -109.781
2, 180.00000, 118.97, -31.2901, 118.704, -150.822, 120.306, 89.0935, 0, 0, 5.91994, -54.364, 5.90527, -173.896, 5.99376, 66.0196, 0.0394857, -109.781
2, 240.00000, 118.97, -31.2901, 118.704, -150.822, 120.306, 89.0935, 0, 0, 5.91994, -54.364, 5.90527, -173.896, 5.99376, 66.0196, 0.0394857, -109.781
2, 300.00000, 118.97, -31.2901, 118.704, -150.822, 120.306, 89.0935, 0, 0, 5.91994, -54.364, 5.90527, -173.896, 5.99376, 66.0196, 0.0394857, -109.781
2, 360.00000, 118.97, -31.2901, 118.704, -150.822, 120.306, 89.0935, 0, 0, 5.91994, -54.364, 5.90527, -173.896, 5.99376, 66.0196, 0.0394857, -109.781
2, 420.00000, 118.97, -31.2901, 118.704, -150.822, 120.306, 89.0935, 0, 0, 5.91994, -54.364, 5.90527, -173.896, 5.99376, 66.0196, 0.0394857, -109.781
2, 480.00000, 118.97, -31.2901, 118.704, -150.822, 120.306, 89.0935, 0, 0, 5.91994, -54.364, 5.90527, -173.896, 5.99376, 66.0196, 0.0394857, -109.781
2, 540.00000, 118.97, -31.2901, 118.704, -150.822, 120.306, 89.0935, 0, 0, 5.91994, -54.364, 5.90527, -173.896, 5.99376, 66.0196, 0.0394857, -109.781
2, 600.00000, 118.97, -31.2901, 118.704, -150.822, 120.306, 89.0935, 0, 0, 5.91994, -54.364, 5.90527, -173.896, 5.99376, 66.0196, 0.0394857, -109.781
2, 660.00000, 118.97, -31.2901, 118.704, -150.822, 120.306, 89.0935, 0, 0, 5.91994, -54.364, 5.90527, -173.896, 5.99376, 66.0196, 0.0394857, -109.781
