hour,t(sec),"P1 (kW)","Q1 (kvar)","P2 (kW)","Q2 (kvar)","P3 (kW)","Q3 (kvar)","P4 (kW)","Q4 (kvar)"
0, 60.00000, 0.140589, 0.0598896, 0.140682, 0.0599303, 0.141418, 0.0602428, 0, 0
0, 120.00000, 0.140588, 0.0598901, 0.140682, 0.0599302, 0.14142, 0.0602448, 0, 0
0, 180.00000, 0.140588, 0.0598901, 0.140682, 0.0599302, 0.14142, 0.0602448, 0, 0
0, 240.00000, 0.140588, 0.0598901, 0.140682, 0.0599302, 0.14142, 0.0602448, 0, 0
0, 300.00000, 0.140588, 0.0598901, 0.140682, 0.0599302, 0.14142, 0.0602448, 0, 0
0, 360.00000, 0.140588, 0.0598901, 0.140682, 0.0599302, 0.14142, 0.0602448, 0, 0
0, 420.00000, 0.140588, 0.0598901, 0.140682, 0.0599302, 0.14142, 0.0602448, 0, 0
0, 480.00000, 0.140588, 0.0598901, 0.140682, 0.0599302, 0.14142, 0.0602448, 0, 0
0, 540.00000, 0.140588, 0.0598901, 0.140682, 0.0599302, 0.14142, 0.0602448, 0, 0
0, 600.00000, 0.140588, 0.0598901, 0.140682, 0.0599302, 0.14142, 0.0602448, 0, 0
0, 660.00000, 0.140588, 0.0598901, 0.140682, 0.0599302, 0.14142, 0.0602448, 0, 0
0, 720.00000, 0.140588, 0.0598901, 0.140682, 0.0599302, 0.14142, 0.0602448, 0, 0
0, 780.00000, 0.140588, 0.0598901, 0.140682, 0.0599302, 0.14142, 0.0602448, 0, 0
0, 840.00000, 0.140588, 0.0598901, 0.140682, 0.0599302, 0.14142, 0.0602448, 0, 0
0, 900.00000, 0.140588, 0.0598901, 0.140682, 0.0599302, 0.14142, 0.0602448, 0, 0
0, 960.00000, 0.138388, 0.0589526, 0.138029, 0.0587997, 0.13987, 0.0595839, 0, 0
0, 1020.00000, 0.138387, 0.0589528, 0.138028, 0.0587997, 0.13987, 0.0595845, 0, 0
0, 1080.00000, 0.138387, 0.0589528, 0.138028, 0.0587997, 0.13987, 0.0595845, 0, 0
0, 1140.00000, 0.138387, 0.0589528, 0.138028, 0.0587997, 0.13987, 0.0595845, 0, 0
0, 1200.00000, 0.138387, 0.0589528, 0.138028, 0.0587997, 0.13987, 0.0595845, 0, 0
0, 1260.00000, 0.138387, 0.0589528, 0.138028, 0.0587997, 0.13987, 0.0595845, 0, 0
0, 1320.00000, 0.138387, 0.0589528, 0.138028, 0.0587997, 0.13987, 0.0595845, 0, 0
0, 1380.00000, 0.138387, 0.0589528, 0.138028, 0.0587997, 0.13987, 0.0595845, 0, 0
0, 1440.00000, 0.138387, 0.0589528, 0.138028, 0.0587997, 0.13987, 0.0595845, 0, 0
0, 1500.00000, 0.138387, 0.0589528, 0.138028, 0.0587997, 0.13987, 0.0595845, 0, 0
0, 1560.00000, 0.138387, 0.0589528, 0.138028, 0.0587997, 0.13987, 0.0595845, 0, 0
0, 1620.00000, 0.138387, 0.0589528, 0.138028, 0.0587997, 0.13987, 0.0595845, 0, 0
0, 1680.00000, 0.138387, 0.0589528, 0.138028, 0.0587997, 0.13987, 0.0595845, 0, 0
0, 1740.00000, 0.138387, 0.0589528, 0.138028, 0.0587997, 0.13987, 0.0595845, 0, 0
0, 1800.00000, 0.138387, 0.0589528, 0.138028, 0.0587997, 0.13987, 0.0595845, 0, 0
0, 1860.00000, 0.138473, 0.0589925, 0.138094, 0.0588278, 0.139622, 0.0594814, 0, 0
0, 1920.00000, 0.138476, 0.0589904, 0.138095, 0.0588283, 0.139614, 0.0594754, 0, 0
0, 1980.00000, 0.138476, 0.0589904, 0.138095, 0.0588283, 0.139614, 0.0594754, 0, 0
0, 2040.00000, 0.138476, 0.0589904, 0.138095, 0.0588283, 0.139614, 0.0594754, 0, 0
0, 2100.00000, 0.138476, 0.0589904, 0.138095, 0.0588283, 0.139614, 0.0594754, 0, 0
0, 2160.00000, 0.138476, 0.0589904, 0.138095, 0.0588283, 0.139614, 0.0594754, 0, 0
0, 2220.00000, 0.138476, 0.0589904, 0.138095, 0.0588283, 0.139614, 0.0594754, 0, 0
0, 2280.00000, 0.138476, 0.0589904, 0.138095, 0.0588283, 0.139614, 0.0594754, 0, 0
0, 2340.00000, 0.138476, 0.0589904, 0.138095, 0.0588283, 0.139614, 0.0594754, 0, 0
0, 2400.00000, 0.138476, 0.0589904, 0.138095, 0.0588283, 0.139614, 0.0594754, 0, 0
0, 2460.00000, 0.138476, 0.0589904, 0.138095, 0.0588283, 0.139614, 0.0594754, 0, 0
0, 2520.00000, 0.138476, 0.0589904, 0.138095, 0.0588283, 0.139614, 0.0594754, 0, 0
0, 2580.00000, 0.138476, 0.0589904, 0.138095, 0.0588283, 0.139614, 0.0594754, 0, 0
0, 2640.00000, 0.138476, 0.0589904, 0.138095, 0.0588283, 0.139614, 0.0594754, 0, 0
0, 2700.00000, 0.138476, 0.0589904, 0.138095, 0.0588283, 0.139614, 0.0594754, 0, 0
0, 2760.00000, 0.144843, 0.0617036, 0.144401, 0.0615142, 0.145323, 0.0619078, 0, 0
0, 2820.00000, 0.144843, 0.061703, 0.144401, 0.0615146, 0.14532, 0.0619063, 0, 0
0, 2880.00000, 0.144843, 0.061703, 0.144401, 0.0615146, 0.14532, 0.0619062, 0, 0
0, 2940.00000, 0.144843, 0.061703, 0.144401, 0.0615146, 0.14532, 0.0619062, 0, 0
0, 3000.00000, 0.144843, 0.061703, 0.144401, 0.0615146, 0.14532, 0.0619062, 0, 0
0, 3060.00000, 0.144843, 0.061703, 0.144401, 0.0615146, 0.14532, 0.0619062, 0, 0
0, 3120.00000, 0.144843, 0.061703, 0.144401, 0.0615146, 0.14532, 0.0619062, 0, 0
0, 3180.00000, 0.144843, 0.061703, 0.144401, 0.0615146, 0.14532, 0.0619062, 0, 0
0, 3240.00000, 0.144843, 0.061703, 0.144401, 0.0615146, 0.14532, 0.0619062, 0, 0
0, 3300.00000, 0.144843, 0.061703, 0.144401, 0.0615146, 0.14532, 0.0619062, 0, 0
0, 3360.00000, 0.144843, 0.061703, 0.144401, 0.0615146, 0.14532, 0.0619062, 0, 0
0, 3420.00000, 0.144843, 0.061703, 0.144401, 0.0615146, 0.14532, 0.0619062, 0, 0
0, 3480.00000, 0.144838, 0.0617018, 0.144632, 0.0616113, 0.145326, 0.0619104, 0, 0
0, 3540.00000, 0.145035, 0.0617845, 0.145321, 0.061907, 0.14532, 0.0619062, 0, 0
1, 0.00000, 0.145035, 0.0617846, 0.14532, 0.0619063, 0.14532, 0.0619062, 0, 0
1, 60.00000, 0.147647, 0.0628984, 0.147648, 0.062897, 0.147651, 0.0629002, 0, 0
1, 120.00000, 0.147648, 0.0628978, 0.147648, 0.0628977, 0.147648, 0.0628978, 0, 0
1, 180.00000, 0.147648, 0.0628978, 0.147648, 0.0628978, 0.147648, 0.0628978, 0, 0
1, 240.00000, 0.147648, 0.0628978, 0.147648, 0.0628978, 0.147648, 0.0628978, 0, 0
1, 300.00000, 0.147648, 0.0628978, 0.147648, 0.0628978, 0.147648, 0.0628978, 0, 0
1, 360.00000, 0.147648, 0.0628978, 0.147648, 0.0628978, 0.147648, 0.0628978, 0, 0
1, 420.00000, 0.147648, 0.0628978, 0.147648, 0.0628978, 0.147648, 0.0628978, 0, 0
1, 480.00000, 0.147648, 0.0628978, 0.147648, 0.0628978, 0.147648, 0.0628978, 0, 0
1, 540.00000, 0.147648, 0.0628978, 0.147648, 0.0628978, 0.147648, 0.0628978, 0, 0
1, 600.00000, 0.147648, 0.0628978, 0.147648, 0.0628978, 0.147648, 0.0628978, 0, 0
1, 660.00000, 0.147648, 0.0628978, 0.147648, 0.0628978, 0.147648, 0.0628978, 0, 0
1, 720.00000, 0.147648, 0.0628978, 0.147648, 0.0628978, 0.147648, 0.0628978, 0, 0
1, 780.00000, 0.147648, 0.0628978, 0.147648, 0.0628978, 0.147648, 0.0628978, 0, 0
1, 840.00000, 0.147648, 0.0628978, 0.147648, 0.0628978, 0.147648, 0.0628978, 0, 0
1, 900.00000, 0.147648, 0.0628978, 0.147648, 0.0628978, 0.147648, 0.0628978, 0, 0
1, 960.00000, 0.145235, 0.0618711, 0.145236, 0.06187, 0.145238, 0.0618723, 0, 0
1, 1020.00000, 0.145234, 0.0618697, 0.145235, 0.0618696, 0.145235, 0.0618697, 0, 0
1, 1080.00000, 0.145235, 0.0618696, 0.145235, 0.0618696, 0.145235, 0.0618696, 0, 0
1, 1140.00000, 0.145235, 0.0618696, 0.145235, 0.0618696, 0.145235, 0.0618696, 0, 0
1, 1200.00000, 0.145235, 0.0618696, 0.145235, 0.0618696, 0.145235, 0.0618696, 0, 0
1, 1260.00000, 0.145235, 0.0618696, 0.145235, 0.0618696, 0.145235, 0.0618696, 0, 0
1, 1320.00000, 0.145235, 0.0618696, 0.145235, 0.0618696, 0.145235, 0.0618696, 0, 0
1, 1380.00000, 0.145235, 0.0618696, 0.145235, 0.0618696, 0.145235, 0.0618696, 0, 0
1, 1440.00000, 0.145235, 0.0618696, 0.145235, 0.0618696, 0.145235, 0.0618696, 0, 0
1, 1500.00000, 0.145235, 0.0618696, 0.145235, 0.0618696, 0.145235, 0.0618696, 0, 0
1, 1560.00000, 0.145235, 0.0618696, 0.145235, 0.0618696, 0.145235, 0.0618696, 0, 0
1, 1620.00000, 0.145235, 0.0618696, 0.145235, 0.0618696, 0.145235, 0.0618696, 0, 0
1, 1680.00000, 0.145235, 0.0618696, 0.145235, 0.0618696, 0.145235, 0.0618696, 0, 0
1, 1740.00000, 0.145235, 0.0618696, 0.145235, 0.0618696, 0.145235, 0.0618696, 0, 0
1, 1800.00000, 0.145235, 0.0618696, 0.145235, 0.0618696, 0.145235, 0.0618696, 0, 0
1, 1860.00000, 0.136241, 0.0580367, 0.136241, 0.0580411, 0.136232, 0.0580338, 0, 0
1, 1920.00000, 0.136238, 0.0580371, 0.136238, 0.0580372, 0.136238, 0.0580371, 0, 0
1, 1980.00000, 0.136238, 0.0580371, 0.136238, 0.0580371, 0.136238, 0.0580371, 0, 0
1, 2040.00000, 0.136238, 0.0580371, 0.136238, 0.0580371, 0.136238, 0.0580371, 0, 0
1, 2100.00000, 0.136238, 0.0580371, 0.136238, 0.0580371, 0.136238, 0.0580371, 0, 0
1, 2160.00000, 0.136238, 0.0580371, 0.136238, 0.0580371, 0.136238, 0.0580371, 0, 0
1, 2220.00000, 0.136238, 0.0580371, 0.136238, 0.0580371, 0.136238, 0.0580371, 0, 0
1, 2280.00000, 0.136238, 0.0580371, 0.136238, 0.0580371, 0.136238, 0.0580371, 0, 0
1, 2340.00000, 0.136238, 0.0580371, 0.136238, 0.0580371, 0.136238, 0.0580371, 0, 0
1, 2400.00000, 0.136238, 0.0580371, 0.136238, 0.0580371, 0.136238, 0.0580371, 0, 0
1, 2460.00000, 0.136238, 0.0580371, 0.136238, 0.0580371, 0.136238, 0.0580371, 0, 0
1, 2520.00000, 0.136238, 0.0580371, 0.136238, 0.0580371, 0.136238, 0.0580371, 0, 0
1, 2580.00000, 0.136238, 0.0580371, 0.136238, 0.0580371, 0.136238, 0.0580371, 0, 0
1, 2640.00000, 0.136238, 0.0580371, 0.136238, 0.0580371, 0.136238, 0.0580371, 0, 0
1, 2700.00000, 0.136238, 0.0580371, 0.136238, 0.0580371, 0.136238, 0.0580371, 0, 0
1, 2760.00000, 0.135608, 0.0577696, 0.135612, 0.0577702, 0.135611, 0.0577721, 0, 0
1, 2820.00000, 0.135607, 0.0577684, 0.135607, 0.0577684, 0.135607, 0.0577684, 0, 0
1, 2880.00000, 0.135607, 0.0577684, 0.135607, 0.0577684, 0.135607, 0.0577684, 0, 0
1, 2940.00000, 0.135607, 0.0577684, 0.135607, 0.0577684, 0.135607, 0.0577684, 0, 0
1, 3000.00000, 0.135607, 0.0577684, 0.135607, 0.0577684, 0.135607, 0.0577684, 0, 0
1, 3060.00000, 0.135607, 0.0577684, 0.135607, 0.0577684, 0.135607, 0.0577684, 0, 0
1, 3120.00000, 0.135607, 0.0577684, 0.135607, 0.0577684, 0.135607, 0.0577684, 0, 0
1, 3180.00000, 0.135607, 0.0577684, 0.135607, 0.0577684, 0.135607, 0.0577684, 0, 0
1, 3240.00000, 0.135607, 0.0577684, 0.135607, 0.0577684, 0.135607, 0.0577684, 0, 0
1, 3300.00000, 0.135607, 0.0577684, 0.135607, 0.0577684, 0.135607, 0.0577684, 0, 0
1, 3360.00000, 0.135607, 0.0577684, 0.135607, 0.0577684, 0.135607, 0.0577684, 0, 0
1, 3420.00000, 0.135607, 0.0577684, 0.135607, 0.0577684, 0.135607, 0.0577684, 0, 0
1, 3480.00000, 0.135607, 0.0577684, 0.135607, 0.0577684, 0.135607, 0.0577684, 0, 0
1, 3540.00000, 0.135607, 0.0577684, 0.135607, 0.0577684, 0.135607, 0.0577684, 0, 0
2, 0.00000, 0.135607, 0.0577684, 0.135607, 0.0577684, 0.135607, 0.0577684, 0, 0
2, 60.00000, 0.142086, 0.060528, 0.142083, 0.0605274, 0.142084, 0.060526, 0, 0
2, 120.00000, 0.142086, 0.0605285, 0.142086, 0.0605285, 0.142086, 0.0605285, 0, 0
2, 180.00000, 0.142086, 0.0605285, 0.142086, 0.0605285, 0.142086, 0.0605285, 0, 0
2, 240.00000, 0.142086, 0.0605285, 0.142086, 0.0605285, 0.142086, 0.0605285, 0, 0
2, 300.00000, 0.142086, 0.0605285, 0.142086, 0.0605285, 0.142086, 0.0605285, 0, 0
2, 360.00000, 0.142086, 0.0605285, 0.142086, 0.0605285, 0.142086, 0.0605285, 0, 0
2, 420.00000, 0.142086, 0.0605285, 0.142086, 0.0605285, 0.142086, 0.0605285, 0, 0
2, 480.00000, 0.142086, 0.0605285, 0.142086, 0.0605285, 0.142086, 0.0605285, 0, 0
2, 540.00000, 0.142086, 0.0605285, 0.142086, 0.0605285, 0.142086, 0.0605285, 0, 0
2, 600.00000, 0.142086, 0.0605285, 0.142086, 0.0605285, 0.142086, 0.0605285, 0, 0
2, 660.00000, 0.142086, 0.0605285, 0.142086, 0.0605285, 0.142086, 0.0605285, 0, 0
2, 720.00000, 0.142086, 0.0605285, 0.142086, 0.0605285, 0.142086, 0.0605285, 0, 0
2, 780.00000, 0.142086, 0.0605285, 0.142086, 0.0605285, 0.142086, 0.0605285, 0, 0
2, 840.00000, 0.142086, 0.0605285, 0.142086, 0.0605285, 0.142086, 0.0605285, 0, 0
2, 900.00000, 0.142086, 0.0605285, 0.142086, 0.0605285, 0.142086, 0.0605285, 0, 0
2, 960.00000, 0.172876, 0.073646, 0.172878, 0.0736459, 0.172878, 0.0736475, 0, 0
2, 1020.00000, 0.172875, 0.0736443, 0.172875, 0.0736443, 0.172875, 0.0736443, 0, 0
2, 1080.00000, 0.172875, 0.0736443, 0.172875, 0.0736443, 0.172875, 0.0736443, 0, 0
2, 1140.00000, 0.172875, 0.0736443, 0.172875, 0.0736443, 0.172875, 0.0736443, 0, 0
2, 1200.00000, 0.172875, 0.0736443, 0.172875, 0.0736443, 0.172875, 0.0736443, 0, 0
2, 1260.00000, 0.172875, 0.0736443, 0.172875, 0.0736443, 0.172875, 0.0736443, 0, 0
2, 1320.00000, 0.172875, 0.0736443, 0.172875, 0.0736443, 0.172875, 0.0736443, 0, 0
2, 1380.00000, 0.172875, 0.0736443, 0.172875, 0.0736443, 0.172875, 0.0736443, 0, 0
2, 1440.00000, 0.172875, 0.0736443, 0.172875, 0.0736443, 0.172875, 0.0736443, 0, 0
2, 1500.00000, 0.172875, 0.0736443, 0.172875, 0.0736443, 0.172875, 0.0736443, 0, 0
2, 1560.00000, 0.172875, 0.0736443, 0.172875, 0.0736443, 0.172875, 0.0736443, 0, 0
2, 1620.00000, 0.172875, 0.0736443, 0.172875, 0.0736443, 0.172875, 0.0736443, 0, 0
2, 1680.00000, 0.172875, 0.0736443, 0.172875, 0.0736443, 0.172875, 0.0736443, 0, 0
2, 1740.00000, 0.172875, 0.0736443, 0.172875, 0.0736443, 0.172875, 0.0736443, 0, 0
2, 1800.00000, 0.172875, 0.0736443, 0.172875, 0.0736443, 0.172875, 0.0736443, 0, 0
2, 1860.00000, 0.167247, 0.0712465, 0.167247, 0.0712471, 0.167247, 0.0712465, 0, 0
2, 1920.00000, 0.167249, 0.0712476, 0.167249, 0.0712476, 0.167249, 0.0712476, 0, 0
2, 1980.00000, 0.167249, 0.0712476, 0.167249, 0.0712476, 0.167249, 0.0712476, 0, 0
2, 2040.00000, 0.167249, 0.0712476, 0.167249, 0.0712476, 0.167249, 0.0712476, 0, 0
2, 2100.00000, 0.167249, 0.0712476, 0.167249, 0.0712476, 0.167249, 0.0712476, 0, 0
2, 2160.00000, 0.167249, 0.0712476, 0.167249, 0.0712476, 0.167249, 0.0712476, 0, 0
2, 2220.00000, 0.167249, 0.0712476, 0.167249, 0.0712476, 0.167249, 0.0712476, 0, 0
2, 2280.00000, 0.167249, 0.0712476, 0.167249, 0.0712476, 0.167249, 0.0712476, 0, 0
2, 2340.00000, 0.167249, 0.0712476, 0.167249, 0.0712476, 0.167249, 0.0712476, 0, 0
2, 2400.00000, 0.167249, 0.0712476, 0.167249, 0.0712476, 0.167249, 0.0712476, 0, 0
2, 2460.00000, 0.167249, 0.0712476, 0.167249, 0.0712476, 0.167249, 0.0712476, 0, 0
2, 2520.00000, 0.167249, 0.0712476, 0.167249, 0.0712476, 0.167249, 0.0712476, 0, 0
2, 2580.00000, 0.167249, 0.0712476, 0.167249, 0.0712476, 0.167249, 0.0712476, 0, 0
2, 2640.00000, 0.167249, 0.0712476, 0.167249, 0.0712476, 0.167249, 0.0712476, 0, 0
2, 2700.00000, 0.167249, 0.0712476, 0.167249, 0.0712476, 0.167249, 0.0712476, 0, 0
2, 2760.00000, 0.17431, 0.0742572, 0.17431, 0.0742563, 0.17431, 0.0742574, 0, 0
2, 2820.00000, 0.174306, 0.0742541, 0.174306, 0.0742541, 0.174306, 0.0742541, 0, 0
2, 2880.00000, 0.174306, 0.074254, 0.174306, 0.074254, 0.174306, 0.074254, 0, 0
2, 2940.00000, 0.174306, 0.074254, 0.174306, 0.074254, 0.174306, 0.074254, 0, 0
2, 3000.00000, 0.174306, 0.074254, 0.174306, 0.074254, 0.174306, 0.074254, 0, 0
2, 3060.00000, 0.174306, 0.074254, 0.174306, 0.074254, 0.174306, 0.074254, 0, 0
2, 3120.00000, 0.174306, 0.074254, 0.174306, 0.074254, 0.174306, 0.074254, 0, 0
2, 3180.00000, 0.174306, 0.074254, 0.174306, 0.074254, 0.174306, 0.074254, 0, 0
2, 3240.00000, 0.174306, 0.074254, 0.174306, 0.074254, 0.174306, 0.074254, 0, 0
2, 3300.00000, 0.174306, 0.074254, 0.174306, 0.074254, 0.174306, 0.074254, 0, 0
2, 3360.00000, 0.174306, 0.074254, 0.174306, 0.074254, 0.174306, 0.074254, 0, 0
2, 3420.00000, 0.174306, 0.074254, 0.174306, 0.074254, 0.174306, 0.074254, 0, 0
2, 3480.00000, 0.174306, 0.074254, 0.174306, 0.074254, 0.174306, 0.074254, 0, 0
2, 3540.00000, 0.174306, 0.074254, 0.174306, 0.074254, 0.174306, 0.074254, 0, 0
3, 0.00000, 0.174306, 0.074254, 0.174306, 0.074254, 0.174306, 0.074254, 0, 0
3, 60.00000, 0.15931, 0.0678649, 0.15931, 0.0678653, 0.159309, 0.0678649, 0, 0
3, 120.00000, 0.159312, 0.0678665, 0.159312, 0.0678665, 0.159312, 0.0678665, 0, 0
3, 180.00000, 0.159312, 0.0678665, 0.159312, 0.0678665, 0.159312, 0.0678665, 0, 0
3, 240.00000, 0.159312, 0.0678665, 0.159312, 0.0678665, 0.159312, 0.0678665, 0, 0
3, 300.00000, 0.159312, 0.0678665, 0.159312, 0.0678665, 0.159312, 0.0678665, 0, 0
3, 360.00000, 0.159312, 0.0678665, 0.159312, 0.0678665, 0.159312, 0.0678665, 0, 0
3, 420.00000, 0.159312, 0.0678665, 0.159312, 0.0678665, 0.159312, 0.0678665, 0, 0
3, 480.00000, 0.159312, 0.0678665, 0.159312, 0.0678665, 0.159312, 0.0678665, 0, 0
3, 540.00000, 0.159312, 0.0678665, 0.159312, 0.0678665, 0.159312, 0.0678665, 0, 0
3, 600.00000, 0.159312, 0.0678665, 0.159312, 0.0678665, 0.159312, 0.0678665, 0, 0
3, 660.00000, 0.159312, 0.0678665, 0.159312, 0.0678665, 0.159312, 0.0678665, 0, 0
3, 720.00000, 0.159312, 0.0678665, 0.159312, 0.0678665, 0.159312, 0.0678665, 0, 0
3, 780.00000, 0.159312, 0.0678665, 0.159312, 0.0678665, 0.159312, 0.0678665, 0, 0
3, 840.00000, 0.159312, 0.0678665, 0.159312, 0.0678665, 0.159312, 0.0678665, 0, 0
3, 900.00000, 0.159312, 0.0678665, 0.159312, 0.0678665, 0.159312, 0.0678665, 0, 0
3, 960.00000, 0.168842, 0.0719282, 0.168842, 0.0719273, 0.168843, 0.0719282, 0, 0
3, 1020.00000, 0.168837, 0.0719243, 0.168837, 0.0719243, 0.168837, 0.0719243, 0, 0
3, 1080.00000, 0.168837, 0.0719243, 0.168837, 0.0719243, 0.168837, 0.0719243, 0, 0
3, 1140.00000, 0.168837, 0.0719243, 0.168837, 0.0719243, 0.168837, 0.0719243, 0, 0
3, 1200.00000, 0.168837, 0.0719243, 0.168837, 0.0719243, 0.168837, 0.0719243, 0, 0
3, 1260.00000, 0.168837, 0.0719243, 0.168837, 0.0719243, 0.168837, 0.0719243, 0, 0
3, 1320.00000, 0.168837, 0.0719243, 0.168837, 0.0719243, 0.168837, 0.0719243, 0, 0
3, 1380.00000, 0.168837, 0.0719243, 0.168837, 0.0719243, 0.168837, 0.0719243, 0, 0
3, 1440.00000, 0.168837, 0.0719243, 0.168837, 0.0719243, 0.168837, 0.0719243, 0, 0
3, 1500.00000, 0.168837, 0.0719243, 0.168837, 0.0719243, 0.168837, 0.0719243, 0, 0
3, 1560.00000, 0.168837, 0.0719243, 0.168837, 0.0719243, 0.168837, 0.0719243, 0, 0
3, 1620.00000, 0.168837, 0.0719243, 0.168837, 0.0719243, 0.168837, 0.0719243, 0, 0
3, 1680.00000, 0.168837, 0.0719243, 0.168837, 0.0719243, 0.168837, 0.0719243, 0, 0
3, 1740.00000, 0.168837, 0.0719243, 0.168837, 0.0719243, 0.168837, 0.0719243, 0, 0
3, 1800.00000, 0.168837, 0.0719243, 0.168837, 0.0719243, 0.168837, 0.0719243, 0, 0
3, 1860.00000, 0.160711, 0.0684641, 0.160711, 0.0684631, 0.16071, 0.0684632, 0, 0
3, 1920.00000, 0.160706, 0.0684604, 0.160706, 0.0684604, 0.160706, 0.0684604, 0, 0
3, 1980.00000, 0.160706, 0.0684604, 0.160706, 0.0684604, 0.160706, 0.0684604, 0, 0
3, 2040.00000, 0.160706, 0.0684604, 0.160706, 0.0684604, 0.160706, 0.0684604, 0, 0
3, 2100.00000, 0.160706, 0.0684604, 0.160706, 0.0684604, 0.160706, 0.0684604, 0, 0
3, 2160.00000, 0.160706, 0.0684604, 0.160706, 0.0684604, 0.160706, 0.0684604, 0, 0
3, 2220.00000, 0.160706, 0.0684604, 0.160706, 0.0684604, 0.160706, 0.0684604, 0, 0
3, 2280.00000, 0.160706, 0.0684604, 0.160706, 0.0684604, 0.160706, 0.0684604, 0, 0
3, 2340.00000, 0.160706, 0.0684604, 0.160706, 0.0684604, 0.160706, 0.0684604, 0, 0
3, 2400.00000, 0.160706, 0.0684604, 0.160706, 0.0684604, 0.160706, 0.0684604, 0, 0
3, 2460.00000, 0.160706, 0.0684604, 0.160706, 0.0684604, 0.160706, 0.0684604, 0, 0
3, 2520.00000, 0.160706, 0.0684604, 0.160706, 0.0684604, 0.160706, 0.0684604, 0, 0
3, 2580.00000, 0.160706, 0.0684604, 0.160706, 0.0684604, 0.160706, 0.0684604, 0, 0
3, 2640.00000, 0.160706, 0.0684604, 0.160706, 0.0684604, 0.160706, 0.0684604, 0, 0
3, 2700.00000, 0.160706, 0.0684604, 0.160706, 0.0684604, 0.160706, 0.0684604, 0, 0
3, 2760.00000, 0.177669, 0.0756881, 0.177669, 0.0756873, 0.177669, 0.0756879, 0, 0
3, 2820.00000, 0.177665, 0.0756848, 0.177665, 0.0756848, 0.177665, 0.0756848, 0, 0
3, 2880.00000, 0.177665, 0.0756848, 0.177665, 0.0756848, 0.177665, 0.0756848, 0, 0
3, 2940.00000, 0.177665, 0.0756848, 0.177665, 0.0756848, 0.177665, 0.0756848, 0, 0
3, 3000.00000, 0.177665, 0.0756848, 0.177665, 0.0756848, 0.177665, 0.0756848, 0, 0
3, 3060.00000, 0.177665, 0.0756848, 0.177665, 0.0756848, 0.177665, 0.0756848, 0, 0
3, 3120.00000, 0.177665, 0.0756848, 0.177665, 0.0756848, 0.177665, 0.0756848, 0, 0
3, 3180.00000, 0.177665, 0.0756848, 0.177665, 0.0756848, 0.177665, 0.0756848, 0, 0
3, 3240.00000, 0.177665, 0.0756848, 0.177665, 0.0756848, 0.177665, 0.0756848, 0, 0
3, 3300.00000, 0.177665, 0.0756848, 0.177665, 0.0756848, 0.177665, 0.0756848, 0, 0
3, 3360.00000, 0.177665, 0.0756848, 0.177665, 0.0756848, 0.177665, 0.0756848, 0, 0
3, 3420.00000, 0.177665, 0.0756848, 0.177665, 0.0756848, 0.177665, 0.0756848, 0, 0
3, 3480.00000, 0.177665, 0.0756848, 0.177665, 0.0756848, 0.177665, 0.0756848, 0, 0
3, 3540.00000, 0.177665, 0.0756848, 0.177665, 0.0756848, 0.177665, 0.0756848, 0, 0
4, 0.00000, 0.177665, 0.0756848, 0.177665, 0.0756848, 0.177665, 0.0756848, 0, 0
4, 60.00000, 0.172925, 0.0736647, 0.172925, 0.0736653, 0.172925, 0.0736649, 0, 0
4, 120.00000, 0.172928, 0.0736668, 0.172928, 0.0736668, 0.172928, 0.0736668, 0, 0
