hour,t(sec),V1,VAngle1,V2,VAngle2,V3,VAngle3,V4,VAngle4,I1,IAngle1,I2,IAngle2,I3,IAngle3,I4,IAngle4
0, 60.00000, 122.735, -31.2567, 123.2, -151.178, 123.491, 88.6378, 0, 0, 8.05511, -54.3302, 8.02471, -174.252, 8.0057, 65.5644, 0.0638486, 112.458
0, 120.00000, 122.735, -31.2567, 123.2, -151.178, 123.491, 88.6378, 0, 0, 8.05519, -54.3306, 8.0248, -174.252, 8.0059, 65.5639, 0.0638243, 112.526
0, 180.00000, 122.735, -31.2567, 123.2, -151.178, 123.491, 88.6378, 0, 0, 8.05519, -54.3306, 8.0248, -174.252, 8.0059, 65.5639, 0.0638243, 112.527
0, 240.00000, 122.735, -31.2567, 123.2, -151.178, 123.491, 88.6378, 0, 0, 8.05519, -54.3306, 8.0248, -174.252, 8.0059, 65.5639, 0.0638243, 112.527
0, 300.00000, 122.735, -31.2567, 123.2, -151.178, 123.491, 88.6378, 0, 0, 8.05519, -54.3306, 8.0248, -174.252, 8.0059, 65.5639, 0.0638243, 112.527
0, 360.00000, 122.735, -31.2567, 123.2, -151.178, 123.491, 88.6378, 0, 0, 8.05519, -54.3306, 8.0248, -174.252, 8.0059, 65.5639, 0.0638243, 112.527
0, 420.00000, 122.735, -31.2567, 123.2, -151.178, 123.491, 88.6378, 0, 0, 8.05519, -54.3306, 8.0248, -174.252, 8.0059, 65.5639, 0.0638243, 112.527
0, 480.00000, 122.735, -31.2567, 123.2, -151.178, 123.491, 88.6378, 0, 0, 8.05519, -54.3306, 8.0248, -174.252, 8.0059, 65.5639, 0.0638243, 112.527
0, 540.00000, 122.735, -31.2567, 123.2, -151.178, 123.491, 88.6378, 0, 0, 8.05519, -54.3306, 8.0248, -174.252, 8.0059, 65.5639, 0.0638243, 112.527
0, 600.00000, 122.735, -31.2567, 123.2, -151.178, 123.491, 88.6378, 0, 0, 8.05519, -54.3306, 8.0248, -174.252, 8.0059, 65.5639, 0.0638243, 112.527
0, 660.00000, 122.735, -31.2567, 123.2, -151.178, 123.491, 88.6378, 0, 0, 8.05519, -54.3306, 8.0248, -174.252, 8.0059, 65.5639, 0.0638243, 112.527
0, 720.00000, 122.735, -31.2567, 123.2, -151.178, 123.491, 88.6378, 0, 0, 8.05519, -54.3306, 8.0248, -174.252, 8.0059, 65.5639, 0.0638243, 112.527
0, 780.00000, 122.735, -31.2567, 123.2, -151.178, 123.491, 88.6378, 0, 0, 8.05519, -54.3306, 8.0248, -174.252, 8.0059, 65.5639, 0.0638243, 112.527
0, 840.00000, 122.735, -31.2567, 123.2, -151.178, 123.491, 88.6378, 0, 0, 8.05519, -54.3306, 8.0248, -174.252, 8.0059, 65.5639, 0.0638243, 112.527
0, 900.00000, 122.735, -31.2567, 123.2, -151.178, 123.491, 88.6378, 0, 0, 8.05519, -54.3306, 8.0248, -174.252, 8.0059, 65.5639, 0.0638243, 112.527
0, 960.00000, 122.415, -31.438, 122.671, -151.219, 123.376, 88.6003, 0, 0, 7.90368, -54.5116, 7.88711, -174.293, 7.84212, 65.5265, 0.0829442, 82.4834
0, 1020.00000, 122.415, -31.438, 122.671, -151.219, 123.376, 88.6003, 0, 0, 7.90372, -54.5119, 7.88719, -174.293, 7.84213, 65.5264, 0.0829981, 82.4374
0, 1080.00000, 122.415, -31.438, 122.671, -151.219, 123.376, 88.6003, 0, 0, 7.90372, -54.5119, 7.88719, -174.293, 7.84213, 65.5264, 0.0829982, 82.4373
0, 1140.00000, 122.415, -31.438, 122.671, -151.219, 123.376, 88.6003, 0, 0, 7.90372, -54.5119, 7.88719, -174.293, 7.84213, 65.5264, 0.0829982, 82.4373
0, 1200.00000, 122.415, -31.438, 122.671, -151.219, 123.376, 88.6003, 0, 0, 7.90372, -54.5119, 7.88719, -174.293, 7.84213, 65.5264, 0.0829982, 82.4373
0, 1260.00000, 122.415, -31.438, 122.671, -151.219, 123.376, 88.6003, 0, 0, 7.90372, -54.5119, 7.88719, -174.293, 7.84213, 65.5264, 0.0829982, 82.4373
0, 1320.00000, 122.415, -31.438, 122.671, -151.219, 123.376, 88.6003, 0, 0, 7.90372, -54.5119, 7.88719, -174.293, 7.84213, 65.5264, 0.0829982, 82.4373
0, 1380.00000, 122.415, -31.438, 122.671, -151.219, 123.376, 88.6003, 0, 0, 7.90372, -54.5119, 7.88719, -174.293, 7.84213, 65.5264, 0.0829982, 82.4373
0, 1440.00000, 122.415, -31.438, 122.671, -151.219, 123.376, 88.6003, 0, 0, 7.90372, -54.5119, 7.88719, -174.293, 7.84213, 65.5264, 0.0829982, 82.4373
0, 1500.00000, 122.415, -31.438, 122.671, -151.219, 123.376, 88.6003, 0, 0, 7.90372, -54.5119, 7.88719, -174.293, 7.84213, 65.5264, 0.0829982, 82.4373
0, 1560.00000, 122.415, -31.438, 122.671, -151.219, 123.376, 88.6003, 0, 0, 7.90372, -54.5119, 7.88719, -174.293, 7.84213, 65.5264, 0.0829982, 82.4373
0, 1620.00000, 122.415, -31.438, 122.671, -151.219, 123.376, 88.6003, 0, 0, 7.90372, -54.5119, 7.88719, -174.293, 7.84213, 65.5264, 0.0829982, 82.4373
0, 1680.00000, 122.415, -31.438, 122.671, -151.219, 123.376, 88.6003, 0, 0, 7.90372, -54.5119, 7.88719, -174.293, 7.84213, 65.5264, 0.0829982, 82.4373
0, 1740.00000, 122.415, -31.438, 122.671, -151.219, 123.376, 88.6003, 0, 0, 7.90372, -54.5119, 7.88719, -174.293, 7.84213, 65.5264, 0.0829982, 82.4373
0, 1800.00000, 122.415, -31.438, 122.671, -151.219, 123.376, 88.6003, 0, 0, 7.90372, -54.5119, 7.88719, -174.293, 7.84213, 65.5264, 0.0829982, 82.4373
0, 1860.00000, 122.54, -31.4187, 122.791, -151.2, 123.495, 88.6228, 0, 0, 7.46561, -54.493, 7.45049, -174.274, 7.40814, 65.5476, 0.0777312, 82.0424
0, 1920.00000, 122.54, -31.4187, 122.791, -151.2, 123.495, 88.6229, 0, 0, 7.46549, -54.4926, 7.45026, -174.274, 7.40776, 65.549, 0.0779092, 81.9739
0, 1980.00000, 122.54, -31.4187, 122.791, -151.2, 123.495, 88.6229, 0, 0, 7.46549, -54.4926, 7.45026, -174.274, 7.40776, 65.549, 0.0779099, 81.9733
0, 2040.00000, 122.54, -31.4187, 122.791, -151.2, 123.495, 88.6229, 0, 0, 7.46549, -54.4926, 7.45026, -174.274, 7.40776, 65.549, 0.0779099, 81.9733
0, 2100.00000, 122.54, -31.4187, 122.791, -151.2, 123.495, 88.6229, 0, 0, 7.46549, -54.4926, 7.45026, -174.274, 7.40776, 65.549, 0.0779099, 81.9733
0, 2160.00000, 122.54, -31.4187, 122.791, -151.2, 123.495, 88.6229, 0, 0, 7.46549, -54.4926, 7.45026, -174.274, 7.40776, 65.549, 0.0779099, 81.9733
0, 2220.00000, 122.54, -31.4187, 122.791, -151.2, 123.495, 88.6229, 0, 0, 7.46549, -54.4926, 7.45026, -174.274, 7.40776, 65.549, 0.0779099, 81.9733
0, 2280.00000, 122.54, -31.4187, 122.791, -151.2, 123.495, 88.6229, 0, 0, 7.46549, -54.4926, 7.45026, -174.274, 7.40776, 65.549, 0.0779099, 81.9733
0, 2340.00000, 122.54, -31.4187, 122.791, -151.2, 123.495, 88.6229, 0, 0, 7.46549, -54.4926, 7.45026, -174.274, 7.40776, 65.549, 0.0779099, 81.9733
0, 2400.00000, 122.54, -31.4187, 122.791, -151.2, 123.495, 88.6229, 0, 0, 7.46549, -54.4926, 7.45026, -174.274, 7.40776, 65.549, 0.0779099, 81.9733
0, 2460.00000, 122.54, -31.4187, 122.791, -151.2, 123.495, 88.6229, 0, 0, 7.46549, -54.4926, 7.45026, -174.274, 7.40776, 65.549, 0.0779099, 81.9733
0, 2520.00000, 122.54, -31.4187, 122.791, -151.2, 123.495, 88.6229, 0, 0, 7.46549, -54.4926, 7.45026, -174.274, 7.40776, 65.549, 0.0779099, 81.9733
0, 2580.00000, 122.54, -31.4187, 122.791, -151.2, 123.495, 88.6229, 0, 0, 7.46549, -54.4926, 7.45026, -174.274, 7.40776, 65.549, 0.0779099, 81.9733
0, 2640.00000, 122.54, -31.4187, 122.791, -151.2, 123.495, 88.6229, 0, 0, 7.46549, -54.4926, 7.45026, -174.274, 7.40776, 65.549, 0.0779099, 81.9733
0, 2700.00000, 122.54, -31.4187, 122.791, -151.2, 123.495, 88.6229, 0, 0, 7.46549, -54.4926, 7.45026, -174.274, 7.40776, 65.549, 0.0779099, 81.9733
0, 2760.00000, 122.761, -31.3767, 123.001, -151.159, 123.71, 88.6703, 0, 0, 7.29435, -54.4508, 7.28008, -174.233, 7.23845, 65.5961, 0.0754566, 81.1461
0, 2820.00000, 122.761, -31.3767, 123.001, -151.16, 123.711, 88.6704, 0, 0, 7.29434, -54.4506, 7.28006, -174.233, 7.23833, 65.5965, 0.0755082, 81.112
0, 2880.00000, 122.761, -31.3767, 123.001, -151.16, 123.711, 88.6704, 0, 0, 7.29434, -54.4506, 7.28006, -174.233, 7.23833, 65.5965, 0.0755091, 81.1114
0, 2940.00000, 122.761, -31.3767, 123.001, -151.16, 123.711, 88.6704, 0, 0, 7.29434, -54.4506, 7.28006, -174.233, 7.23833, 65.5965, 0.0755091, 81.1114
0, 3000.00000, 122.761, -31.3767, 123.001, -151.16, 123.711, 88.6704, 0, 0, 7.29434, -54.4506, 7.28006, -174.233, 7.23833, 65.5965, 0.0755091, 81.1114
0, 3060.00000, 122.761, -31.3767, 123.001, -151.16, 123.711, 88.6704, 0, 0, 7.29434, -54.4506, 7.28006, -174.233, 7.23833, 65.5965, 0.0755091, 81.1114
0, 3120.00000, 122.761, -31.3767, 123.001, -151.16, 123.711, 88.6704, 0, 0, 7.29434, -54.4506, 7.28006, -174.233, 7.23833, 65.5965, 0.0755091, 81.1114
0, 3180.00000, 122.761, -31.3767, 123.001, -151.16, 123.711, 88.6704, 0, 0, 7.29434, -54.4506, 7.28006, -174.233, 7.23833, 65.5965, 0.0755091, 81.1114
0, 3240.00000, 122.761, -31.3767, 123.001, -151.16, 123.711, 88.6704, 0, 0, 7.29434, -54.4506, 7.28006, -174.233, 7.23833, 65.5965, 0.0755091, 81.1114
0, 3300.00000, 122.761, -31.3767, 123.001, -151.16, 123.711, 88.6704, 0, 0, 7.29434, -54.4506, 7.28006, -174.233, 7.23833, 65.5965, 0.0755091, 81.1114
0, 3360.00000, 122.761, -31.3767, 123.001, -151.16, 123.711, 88.6704, 0, 0, 7.29434, -54.4506, 7.28006, -174.233, 7.23833, 65.5965, 0.0755091, 81.1114
0, 3420.00000, 122.761, -31.3767, 123.001, -151.16, 123.711, 88.6704, 0, 0, 7.29434, -54.4506, 7.28006, -174.233, 7.23833, 65.5965, 0.0755091, 81.1114
0, 3480.00000, 122.761, -31.3767, 123.001, -151.16, 123.711, 88.6704, 0, 0, 7.29434, -54.4506, 7.28006, -174.233, 7.23833, 65.5965, 0.0755091, 81.1114
0, 3540.00000, 122.761, -31.3767, 123.001, -151.16, 123.711, 88.6704, 0, 0, 7.29434, -54.4506, 7.28006, -174.233, 7.23833, 65.5965, 0.0755091, 81.1114
1, 0.00000, 122.761, -31.3767, 123.001, -151.16, 123.711, 88.6704, 0, 0, 7.29434, -54.4506, 7.28006, -174.233, 7.23833, 65.5965, 0.0755091, 81.1114
1, 60.00000, 122.941, -31.3469, 123.169, -151.132, 123.885, 88.7037, 0, 0, 6.68589, -54.4211, 6.67348, -174.206, 6.63504, 65.6295, 0.0686359, 80.338
1, 120.00000, 122.941, -31.3469, 123.169, -151.132, 123.885, 88.7037, 0, 0, 6.68588, -54.4208, 6.67348, -174.206, 6.63493, 65.6298, 0.0686859, 80.2984
1, 180.00000, 122.941, -31.3469, 123.169, -151.132, 123.885, 88.7037, 0, 0, 6.68588, -54.4208, 6.67348, -174.206, 6.63493, 65.6298, 0.0686869, 80.2977
1, 240.00000, 122.941, -31.3469, 123.169, -151.132, 123.885, 88.7037, 0, 0, 6.68588, -54.4208, 6.67348, -174.206, 6.63493, 65.6298, 0.068687, 80.2977
1, 300.00000, 122.941, -31.3469, 123.169, -151.132, 123.885, 88.7037, 0, 0, 6.68588, -54.4208, 6.67348, -174.206, 6.63493, 65.6298, 0.068687, 80.2977
1, 360.00000, 122.941, -31.3469, 123.169, -151.132, 123.885, 88.7037, 0, 0, 6.68588, -54.4208, 6.67348, -174.206, 6.63493, 65.6298, 0.068687, 80.2977
1, 420.00000, 122.941, -31.3469, 123.169, -151.132, 123.885, 88.7037, 0, 0, 6.68588, -54.4208, 6.67348, -174.206, 6.63493, 65.6298, 0.068687, 80.2977
1, 480.00000, 122.941, -31.3469, 123.169, -151.132, 123.885, 88.7037, 0, 0, 6.68588, -54.4208, 6.67348, -174.206, 6.63493, 65.6298, 0.068687, 80.2977
1, 540.00000, 122.941, -31.3469, 123.169, -151.132, 123.885, 88.7037, 0, 0, 6.68588, -54.4208, 6.67348, -174.206, 6.63493, 65.6298, 0.068687, 80.2977
1, 600.00000, 122.941, -31.3469, 123.169, -151.132, 123.885, 88.7037, 0, 0, 6.68588, -54.4208, 6.67348, -174.206, 6.63493, 65.6298, 0.068687, 80.2977
1, 660.00000, 122.941, -31.3469, 123.169, -151.132, 123.885, 88.7037, 0, 0, 6.68588, -54.4208, 6.67348, -174.206, 6.63493, 65.6298, 0.068687, 80.2977
1, 720.00000, 122.941, -31.3469, 123.169, -151.132, 123.885, 88.7037, 0, 0, 6.68588, -54.4208, 6.67348, -174.206, 6.63493, 65.6298, 0.068687, 80.2977
1, 780.00000, 122.941, -31.3469, 123.169, -151.132, 123.885, 88.7037, 0, 0, 6.68588, -54.4208, 6.67348, -174.206, 6.63493, 65.6298, 0.068687, 80.2977
1, 840.00000, 122.941, -31.3469, 123.169, -151.132, 123.885, 88.7037, 0, 0, 6.68588, -54.4208, 6.67348, -174.206, 6.63493, 65.6298, 0.068687, 80.2977
1, 900.00000, 122.941, -31.3469, 123.169, -151.132, 123.885, 88.7037, 0, 0, 6.68588, -54.4208, 6.67348, -174.206, 6.63493, 65.6298, 0.068687, 80.2977
1, 960.00000, 122.963, -31.3422, 123.19, -151.127, 123.907, 88.7089, 0, 0, 6.75477, -54.4165, 6.7423, -174.201, 6.70339, 65.6346, 0.0693053, 80.2372
1, 1020.00000, 122.963, -31.3422, 123.19, -151.127, 123.907, 88.709, 0, 0, 6.75472, -54.4161, 6.74226, -174.201, 6.70324, 65.635, 0.0693619, 80.1846
1, 1080.00000, 122.963, -31.3422, 123.19, -151.127, 123.907, 88.709, 0, 0, 6.75472, -54.4161, 6.74226, -174.201, 6.70323, 65.6351, 0.0693633, 80.1836
1, 1140.00000, 122.963, -31.3422, 123.19, -151.127, 123.907, 88.709, 0, 0, 6.75472, -54.4161, 6.74226, -174.201, 6.70323, 65.6351, 0.0693633, 80.1836
1, 1200.00000, 122.963, -31.3422, 123.19, -151.127, 123.907, 88.709, 0, 0, 6.75472, -54.4161, 6.74226, -174.201, 6.70323, 65.6351, 0.0693633, 80.1836
1, 1260.00000, 122.963, -31.3422, 123.19, -151.127, 123.907, 88.709, 0, 0, 6.75472, -54.4161, 6.74226, -174.201, 6.70323, 65.6351, 0.0693633, 80.1836
1, 1320.00000, 122.963, -31.3422, 123.19, -151.127, 123.907, 88.709, 0, 0, 6.75472, -54.4161, 6.74226, -174.201, 6.70323, 65.6351, 0.0693633, 80.1836
1, 1380.00000, 122.963, -31.3422, 123.19, -151.127, 123.907, 88.709, 0, 0, 6.75472, -54.4161, 6.74226, -174.201, 6.70323, 65.6351, 0.0693633, 80.1836
1, 1440.00000, 122.963, -31.3422, 123.19, -151.127, 123.907, 88.709, 0, 0, 6.75472, -54.4161, 6.74226, -174.201, 6.70323, 65.6351, 0.0693633, 80.1836
1, 1500.00000, 122.963, -31.3422, 123.19, -151.127, 123.907, 88.709, 0, 0, 6.75472, -54.4161, 6.74226, -174.201, 6.70323, 65.6351, 0.0693633, 80.1836
1, 1560.00000, 122.963, -31.3422, 123.19, -151.127, 123.907, 88.709, 0, 0, 6.75472, -54.4161, 6.74226, -174.201, 6.70323, 65.6351, 0.0693633, 80.1836
1, 1620.00000, 122.963, -31.3422, 123.19, -151.127, 123.907, 88.709, 0, 0, 6.75472, -54.4161, 6.74226, -174.201, 6.70323, 65.6351, 0.0693633, 80.1836
1, 1680.00000, 122.963, -31.3422, 123.19, -151.127, 123.907, 88.709, 0, 0, 6.75472, -54.4161, 6.74226, -174.201, 6.70323, 65.6351, 0.0693633, 80.1836
1, 1740.00000, 122.963, -31.3422, 123.19, -151.127, 123.907, 88.709, 0, 0, 6.75472, -54.4161, 6.74226, -174.201, 6.70323, 65.6351, 0.0693633, 80.1836
1, 1800.00000, 122.963, -31.3422, 123.19, -151.127, 123.907, 88.709, 0, 0, 6.75472, -54.4161, 6.74226, -174.201, 6.70323, 65.6351, 0.0693633, 80.1836
1, 1860.00000, 122.806, -31.3705, 123.043, -151.154, 123.754, 88.6778, 0, 0, 7.19556, -54.4442, 7.18168, -174.228, 7.14039, 65.6042, 0.0743597, 80.8519
1, 1920.00000, 122.806, -31.3705, 123.043, -151.154, 123.753, 88.6778, 0, 0, 7.19557, -54.4444, 7.18168, -174.227, 7.14049, 65.6039, 0.0743143, 80.8869
1, 1980.00000, 122.806, -31.3705, 123.043, -151.154, 123.753, 88.6778, 0, 0, 7.19557, -54.4444, 7.18168, -174.227, 7.14049, 65.6039, 0.0743135, 80.8874
1, 2040.00000, 122.806, -31.3705, 123.043, -151.154, 123.753, 88.6778, 0, 0, 7.19557, -54.4444, 7.18168, -174.227, 7.14049, 65.6039, 0.0743135, 80.8874
1, 2100.00000, 122.806, -31.3705, 123.043, -151.154, 123.753, 88.6778, 0, 0, 7.19557, -54.4444, 7.18168, -174.227, 7.14049, 65.6039, 0.0743135, 80.8874
1, 2160.00000, 122.806, -31.3705, 123.043, -151.154, 123.753, 88.6778, 0, 0, 7.19557, -54.4444, 7.18168, -174.227, 7.14049, 65.6039, 0.0743135, 80.8874
1, 2220.00000, 122.806, -31.3705, 123.043, -151.154, 123.753, 88.6778, 0, 0, 7.19557, -54.4444, 7.18168, -174.227, 7.14049, 65.6039, 0.0743135, 80.8874
1, 2280.00000, 122.806, -31.3705, 123.043, -151.154, 123.753, 88.6778, 0, 0, 7.19557, -54.4444, 7.18168, -174.227, 7.14049, 65.6039, 0.0743135, 80.8874
1, 2340.00000, 122.806, -31.3705, 123.043, -151.154, 123.753, 88.6778, 0, 0, 7.19557, -54.4444, 7.18168, -174.227, 7.14049, 65.6039, 0.0743135, 80.8874
1, 2400.00000, 122.806, -31.3705, 123.043, -151.154, 123.753, 88.6778, 0, 0, 7.19557, -54.4444, 7.18168, -174.227, 7.14049, 65.6039, 0.0743135, 80.8874
1, 2460.00000, 122.806, -31.3705, 123.043, -151.154, 123.753, 88.6778, 0, 0, 7.19557, -54.4444, 7.18168, -174.227, 7.14049, 65.6039, 0.0743135, 80.8874
1, 2520.00000, 122.806, -31.3705, 123.043, -151.154, 123.753, 88.6778, 0, 0, 7.19557, -54.4444, 7.18168, -174.227, 7.14049, 65.6039, 0.0743135, 80.8874
1, 2580.00000, 122.806, -31.3705, 123.043, -151.154, 123.753, 88.6778, 0, 0, 7.19557, -54.4444, 7.18168, -174.227, 7.14049, 65.6039, 0.0743135, 80.8874
1, 2640.00000, 122.806, -31.3705, 123.043, -151.154, 123.753, 88.6778, 0, 0, 7.19557, -54.4444, 7.18168, -174.227, 7.14049, 65.6039, 0.0743135, 80.8874
1, 2700.00000, 122.769, -31.3658, 122.644, -151.367, 123.114, 88.7149, 0, 0, 7.19776, -54.4396, 7.20504, -174.442, 7.17745, 65.6414, 0.0289563, 30.6323
1, 2760.00000, 123.08, -31.3099, 122.931, -151.313, 123.399, 88.7767, 0, 0, 6.77747, -54.3841, 6.78566, -174.387, 6.75995, 65.7027, 0.0275667, 26.1722
1, 2820.00000, 123.08, -31.3099, 122.931, -151.313, 123.399, 88.7767, 0, 0, 6.77743, -54.3838, 6.78565, -174.387, 6.75991, 65.7028, 0.0275848, 26.119
1, 2880.00000, 123.08, -31.3099, 122.931, -151.313, 123.399, 88.7767, 0, 0, 6.77743, -54.3838, 6.78565, -174.387, 6.75991, 65.7028, 0.027585, 26.1187
1, 2940.00000, 123.08, -31.3099, 122.931, -151.313, 123.399, 88.7767, 0, 0, 6.77743, -54.3838, 6.78565, -174.387, 6.75991, 65.7028, 0.027585, 26.1187
1, 3000.00000, 123.08, -31.3099, 122.931, -151.313, 123.399, 88.7767, 0, 0, 6.77743, -54.3838, 6.78565, -174.387, 6.75991, 65.7028, 0.027585, 26.1187
1, 3060.00000, 123.08, -31.3099, 122.931, -151.313, 123.399, 88.7767, 0, 0, 6.77743, -54.3838, 6.78565, -174.387, 6.75991, 65.7028, 0.027585, 26.1187
1, 3120.00000, 123.08, -31.3099, 122.931, -151.313, 123.399, 88.7767, 0, 0, 6.77743, -54.3838, 6.78565, -174.387, 6.75991, 65.7028, 0.027585, 26.1187
1, 3180.00000, 123.08, -31.3099, 122.931, -151.313, 123.399, 88.7767, 0, 0, 6.77743, -54.3838, 6.78565, -174.387, 6.75991, 65.7028, 0.027585, 26.1187
1, 3240.00000, 123.08, -31.3099, 122.931, -151.313, 123.399, 88.7767, 0, 0, 6.77743, -54.3838, 6.78565, -174.387, 6.75991, 65.7028, 0.027585, 26.1187
1, 3300.00000, 123.08, -31.3099, 122.931, -151.313, 123.399, 88.7767, 0, 0, 6.77743, -54.3838, 6.78565, -174.387, 6.75991, 65.7028, 0.027585, 26.1187
1, 3360.00000, 123.08, -31.3099, 122.931, -151.313, 123.399, 88.7767, 0, 0, 6.77743, -54.3838, 6.78565, -174.387, 6.75991, 65.7028, 0.027585, 26.1187
1, 3420.00000, 123.08, -31.3099, 122.931, -151.313, 123.399, 88.7767, 0, 0, 6.77743, -54.3838, 6.78565, -174.387, 6.75991, 65.7028, 0.027585, 26.1187
1, 3480.00000, 123.08, -31.3099, 122.931, -151.313, 123.399, 88.7767, 0, 0, 6.77743, -54.3838, 6.78565, -174.387, 6.75991, 65.7028, 0.027585, 26.1187
1, 3540.00000, 123.08, -31.3099, 122.931, -151.313, 123.399, 88.7767, 0, 0, 6.77743, -54.3838, 6.78565, -174.387, 6.75991, 65.7028, 0.027585, 26.1187
2, 0.00000, 123.08, -31.3099, 122.931, -151.313, 123.399, 88.7767, 0, 0, 6.77743, -54.3838, 6.78565, -174.387, 6.75991, 65.7028, 0.027585, 26.1187
2, 60.00000, 122.886, -31.3436, 122.752, -151.346, 123.222, 88.7394, 0, 0, 7.22355, -54.4174, 7.23147, -174.42, 7.20391, 65.6656, 0.0291422, 28.8284
2, 120.00000, 122.886, -31.3436, 122.752, -151.346, 123.222, 88.7394, 0, 0, 7.22359, -54.4176, 7.23148, -174.42, 7.20394, 65.6655, 0.02913, 28.862
2, 180.00000, 122.886, -31.3436, 122.752, -151.346, 123.222, 88.7394, 0, 0, 7.22359, -54.4176, 7.23148, -174.42, 7.20394, 65.6655, 0.0291299, 28.8621
2, 240.00000, 122.886, -31.3436, 122.752, -151.346, 123.222, 88.7394, 0, 0, 7.22359, -54.4176, 7.23148, -174.42, 7.20394, 65.6655, 0.0291299, 28.8621
2, 300.00000, 122.886, -31.3436, 122.752, -151.346, 123.222, 88.7394, 0, 0, 7.22359, -54.4176, 7.23148, -174.42, 7.20394, 65.6655, 0.0291299, 28.8621
2, 360.00000, 122.886, -31.3436, 122.752, -151.346, 123.222, 88.7394, 0, 0, 7.22359, -54.4176, 7.23148, -174.42, 7.20394, 65.6655, 0.0291299, 28.8621
2, 420.00000, 122.886, -31.3436, 122.752, -151.346, 123.222, 88.7394, 0, 0, 7.22359, -54.4176, 7.23148, -174.42, 7.20394, 65.6655, 0.0291299, 28.8621
2, 480.00000, 122.886, -31.3436, 122.752, -151.346, 123.222, 88.7394, 0, 0, 7.22359, -54.4176, 7.23148, -174.42, 7.20394, 65.6655, 0.0291299, 28.8621
2, 540.00000, 123.074, -31.1906, 123.145, -151.335, 123.201, 88.7428, 0, 0, 7.2126, -54.2645, 7.20847, -174.409, 7.20509, 65.6689, 0.0107123, -129.854
2, 600.00000, 123.074, -31.1906, 123.145, -151.335, 123.201, 88.7428, 0, 0, 7.21256, -54.2645, 7.20839, -174.409, 7.20513, 65.6689, 0.0107839, -130.041
2, 660.00000, 123.074, -31.1906, 123.145, -151.335, 123.201, 88.7428, 0, 0, 7.21256, -54.2645, 7.20839, -174.409, 7.20513, 65.6689, 0.0107843, -130.042
2, 720.00000, 123.074, -31.1906, 123.145, -151.335, 123.201, 88.7428, 0, 0, 7.21256, -54.2645, 7.20839, -174.409, 7.20513, 65.6689, 0.0107843, -130.042
