hour,t(sec),V1,VAngle1,V2,VAngle2,V3,VAngle3,V4,VAngle4,I1,IAngle1,I2,IAngle2,I3,IAngle3,I4,IAngle4
0, 60.00000, 114.033, -31.0116, 120.584, -151.888, 116.037, 85.9486, 0, 0, 3.52264, -54.0849, 3.74823, -174.961, 3.59181, 62.8746, 0.0331376, -26.0605
0, 120.00000, 114.032, -31.0134, 120.625, -151.901, 116.031, 85.9264, 0, 0, 3.52263, -54.0868, 3.74964, -174.974, 3.59158, 62.8524, 0.0334764, -25.4818
0, 180.00000, 114.032, -31.0151, 120.661, -151.913, 116.025, 85.9064, 0, 0, 3.52262, -54.0886, 3.75091, -174.986, 3.59136, 62.8324, 0.0337834, -24.9728
0, 240.00000, 114.032, -31.0166, 120.695, -151.924, 116.019, 85.8884, 0, 0, 3.52262, -54.0901, 3.7504, -174.997, 3.59117, 62.8144, 0.0326293, -25.9579
0, 300.00000, 114.032, -31.0181, 120.725, -151.934, 116.014, 85.8722, 0, 0, 3.52261, -54.0915, 3.74946, -175.007, 3.59099, 62.7982, 0.0311979, -27.3517
0, 360.00000, 114.032, -31.0194, 120.752, -151.942, 116.01, 85.8577, 0, 0, 3.52261, -54.0929, 3.7486, -175.016, 3.59083, 62.7837, 0.0299223, -28.7182
0, 420.00000, 114.032, -31.0206, 120.777, -151.95, 116.006, 85.8446, 0, 0, 3.52261, -54.0941, 3.74782, -175.024, 3.59067, 62.7706, 0.0287782, -30.0504
0, 480.00000, 115.109, -30.968, 122.099, -151.872, 117.016, 85.9276, 0, 0, 2.83085, -54.0415, 2.94817, -174.946, 2.88314, 62.8536, 0.0434993, -160.646
0, 540.00000, 115.109, -30.969, 122.12, -151.879, 117.013, 85.9169, 0, 0, 2.83084, -54.0426, 2.94765, -174.952, 2.88304, 62.843, 0.0443213, -161.006
0, 600.00000, 115.109, -30.97, 122.139, -151.885, 117.009, 85.9074, 0, 0, 2.83084, -54.0436, 2.94719, -174.958, 2.88294, 62.8334, 0.0450608, -161.317
0, 660.00000, 115.109, -30.9708, 122.156, -151.89, 117.006, 85.8987, 0, 0, 2.83084, -54.0444, 2.94678, -174.963, 2.88286, 62.8248, 0.0457271, -161.588
0, 720.00000, 115.109, -30.9716, 122.171, -151.894, 117.004, 85.891, 0, 0, 2.83083, -54.0452, 2.9464, -174.968, 2.88278, 62.8171, 0.0463274, -161.825
0, 780.00000, 115.109, -30.9723, 122.185, -151.899, 117.002, 85.884, 0, 0, 2.83083, -54.046, 2.94607, -174.972, 2.88272, 62.8101, 0.046868, -162.033
0, 840.00000, 115.109, -30.9729, 122.197, -151.902, 116.999, 85.8777, 0, 0, 2.83083, -54.0466, 2.94577, -174.976, 2.88265, 62.8038, 0.047355, -162.217
0, 900.00000, 115.109, -30.9735, 122.208, -151.906, 116.997, 85.8721, 0, 0, 2.83083, -54.0472, 2.94549, -174.98, 2.8826, 62.7982, 0.0477935, -162.379
0, 960.00000, 115.05, -30.9419, 120.705, -152.279, 115.694, 86.2062, 0, 0, 2.82921, -54.0157, 2.98217, -175.353, 2.84689, 63.1323, 0.0249575, -20.2354
0, 1020.00000, 115.05, -30.9423, 120.713, -152.282, 115.693, 86.2017, 0, 0, 2.82921, -54.0161, 2.98196, -175.356, 2.84685, 63.1277, 0.0246223, -20.5431
0, 1080.00000, 115.05, -30.9427, 120.721, -152.284, 115.692, 86.1977, 0, 0, 2.82921, -54.0165, 2.98177, -175.358, 2.84681, 63.1237, 0.0243205, -20.8266
0, 1140.00000, 115.05, -30.943, 120.728, -152.287, 115.69, 86.194, 0, 0, 2.82921, -54.0168, 2.98159, -175.36, 2.84677, 63.12, 0.0240488, -21.0875
0, 1200.00000, 115.05, -30.9434, 120.734, -152.289, 115.689, 86.1907, 0, 0, 2.82921, -54.0172, 2.98144, -175.362, 2.84674, 63.1168, 0.0238027, -21.3267
0, 1260.00000, 115.05, -30.9436, 120.74, -152.29, 115.688, 86.1878, 0, 0, 2.82921, -54.0175, 2.98129, -175.364, 2.84671, 63.1138, 0.0235816, -21.5462
0, 1320.00000, 115.05, -30.9439, 120.745, -152.292, 115.687, 86.1851, 0, 0, 2.82921, -54.0177, 2.98116, -175.366, 2.84668, 63.1112, 0.0233829, -21.7472
0, 1380.00000, 115.05, -30.9441, 120.75, -152.293, 115.686, 86.1827, 0, 0, 2.8292, -54.018, 2.98105, -175.367, 2.84666, 63.1088, 0.0232044, -21.931
0, 1440.00000, 115.05, -30.9443, 120.754, -152.295, 115.685, 86.1806, 0, 0, 2.8292, -54.0182, 2.98095, -175.369, 2.84663, 63.1066, 0.0230439, -22.0988
0, 1500.00000, 115.05, -30.9445, 120.757, -152.296, 115.685, 86.1786, 0, 0, 2.8292, -54.0184, 2.98085, -175.37, 2.84661, 63.1047, 0.0228996, -22.2518
0, 1560.00000, 115.05, -30.9447, 120.761, -152.297, 115.684, 86.1769, 0, 0, 2.8292, -54.0185, 2.98077, -175.371, 2.8466, 63.1029, 0.0227697, -22.3911
0, 1620.00000, 115.05, -30.9448, 120.764, -152.298, 115.684, 86.1753, 0, 0, 2.8292, -54.0187, 2.98069, -175.372, 2.84658, 63.1014, 0.022653, -22.5177
0, 1680.00000, 115.05, -30.945, 120.767, -152.299, 115.683, 86.1739, 0, 0, 2.8292, -54.0188, 2.98062, -175.373, 2.84657, 63.1, 0.022548, -22.6328
0, 1740.00000, 115.05, -30.9451, 120.769, -152.299, 115.683, 86.1726, 0, 0, 2.8292, -54.019, 2.98056, -175.373, 2.84655, 63.0987, 0.0224535, -22.7373
0, 1800.00000, 114.361, -31.2159, 119.805, -152.15, 115.767, 86.16, 0, 0, 2.81034, -54.2898, 2.95951, -175.224, 2.84885, 63.0861, 0.022728, -31.6934
0, 1860.00000, 114.361, -31.216, 119.807, -152.151, 115.766, 86.159, 0, 0, 2.81034, -54.2899, 2.95956, -175.225, 2.84884, 63.0851, 0.0227381, -31.6618
0, 1920.00000, 114.361, -31.216, 119.809, -152.151, 115.766, 86.1581, 0, 0, 2.81034, -54.2899, 2.9596, -175.225, 2.84883, 63.0842, 0.0227475, -31.6325
0, 1980.00000, 114.361, -31.2161, 119.81, -152.152, 115.766, 86.1572, 0, 0, 2.81034, -54.29, 2.95965, -175.226, 2.84883, 63.0833, 0.022756, -31.6061
0, 2040.00000, 114.361, -31.2162, 119.812, -152.152, 115.765, 86.1565, 0, 0, 2.81034, -54.2901, 2.95968, -175.226, 2.84882, 63.0826, 0.0227636, -31.5824
0, 2100.00000, 114.361, -31.2162, 119.813, -152.153, 115.765, 86.1558, 0, 0, 2.81034, -54.2901, 2.95972, -175.227, 2.84881, 63.0819, 0.0227705, -31.561
0, 2160.00000, 114.361, -31.2163, 119.814, -152.153, 115.765, 86.1552, 0, 0, 2.81034, -54.2902, 2.95975, -175.227, 2.84881, 63.0813, 0.0227767, -31.5418
0, 2220.00000, 114.361, -31.2163, 119.815, -152.154, 115.765, 86.1546, 0, 0, 2.81034, -54.2902, 2.95977, -175.227, 2.8488, 63.0807, 0.0227823, -31.5246
0, 2280.00000, 114.361, -31.2164, 119.816, -152.154, 115.765, 86.1542, 0, 0, 2.81034, -54.2903, 2.9598, -175.228, 2.8488, 63.0802, 0.0227873, -31.509
0, 2340.00000, 114.361, -31.2164, 119.817, -152.154, 115.765, 86.1537, 0, 0, 2.81034, -54.2903, 2.95982, -175.228, 2.84879, 63.0798, 0.0227919, -31.4948
0, 2400.00000, 114.361, -31.2164, 119.817, -152.154, 115.764, 86.1533, 0, 0, 2.81034, -54.2903, 2.95984, -175.228, 2.84879, 63.0794, 0.022796, -31.482
0, 2460.00000, 114.361, -31.2165, 119.818, -152.155, 115.764, 86.1529, 0, 0, 2.81034, -54.2904, 2.95986, -175.228, 2.84879, 63.079, 0.0227998, -31.4705
0, 2520.00000, 114.361, -31.2165, 119.819, -152.155, 115.764, 86.1526, 0, 0, 2.81034, -54.2904, 2.95987, -175.229, 2.84878, 63.0787, 0.0228031, -31.4602
0, 2580.00000, 114.361, -31.2165, 119.819, -152.155, 115.764, 86.1523, 0, 0, 2.81034, -54.2904, 2.95989, -175.229, 2.84878, 63.0784, 0.0228062, -31.4509
0, 2640.00000, 114.361, -31.2165, 119.82, -152.155, 115.764, 86.1521, 0, 0, 2.81034, -54.2904, 2.9599, -175.229, 2.84878, 63.0781, 0.0228089, -31.4425
0, 2700.00000, 114.361, -31.2166, 119.82, -152.155, 115.764, 86.1518, 0, 0, 2.81034, -54.2905, 2.95991, -175.229, 2.84878, 63.0779, 0.0228113, -31.435
0, 2760.00000, 114.757, -31.2084, 119.821, -152.153, 115.955, 86.3271, 0, 0, 2.8212, -54.2823, 2.95995, -175.227, 2.85402, 63.2532, 0.0217473, -32.9533
0, 2820.00000, 114.757, -31.2084, 119.822, -152.153, 115.955, 86.3269, 0, 0, 2.8212, -54.2824, 2.95996, -175.227, 2.85402, 63.253, 0.0217494, -32.9466
0, 2880.00000, 114.757, -31.2085, 119.822, -152.154, 115.955, 86.3267, 0, 0, 2.8212, -54.2824, 2.95997, -175.227, 2.85401, 63.2528, 0.0217512, -32.9407
0, 2940.00000, 114.757, -31.2085, 119.822, -152.154, 115.955, 86.3266, 0, 0, 2.82119, -54.2824, 2.95997, -175.228, 2.85401, 63.2527, 0.0217527, -32.9354
0, 3000.00000, 114.757, -31.2085, 119.823, -152.154, 115.955, 86.3265, 0, 0, 2.82119, -54.2824, 2.95998, -175.228, 2.85401, 63.2525, 0.0217541, -32.9307
0, 3060.00000, 114.757, -31.2085, 119.823, -152.154, 115.955, 86.3263, 0, 0, 2.82119, -54.2824, 2.95999, -175.228, 2.85401, 63.2524, 0.0217554, -32.9264
0, 3120.00000, 114.757, -31.2085, 119.823, -152.154, 115.955, 86.3262, 0, 0, 2.82119, -54.2824, 2.95999, -175.228, 2.85401, 63.2523, 0.0217565, -32.9225
0, 3180.00000, 114.757, -31.2085, 119.823, -152.154, 115.955, 86.3261, 0, 0, 2.82119, -54.2824, 2.96, -175.228, 2.85401, 63.2522, 0.0217575, -32.919
0, 3240.00000, 114.757, -31.2085, 119.823, -152.154, 115.955, 86.326, 0, 0, 2.82119, -54.2824, 2.96, -175.228, 2.85401, 63.2521, 0.0217584, -32.9159
0, 3300.00000, 114.757, -31.2085, 119.824, -152.154, 115.955, 86.3259, 0, 0, 2.82119, -54.2824, 2.96001, -175.228, 2.85401, 63.252, 0.0217593, -32.9131
0, 3360.00000, 114.757, -31.2085, 119.824, -152.154, 115.955, 86.3259, 0, 0, 2.82119, -54.2824, 2.96001, -175.228, 2.85401, 63.2519, 0.02176, -32.9106
0, 3420.00000, 114.757, -31.2085, 119.824, -152.154, 115.955, 86.3258, 0, 0, 2.82119, -54.2825, 2.96001, -175.228, 2.85401, 63.2519, 0.0217607, -32.9083
0, 3480.00000, 114.757, -31.2085, 119.824, -152.154, 115.955, 86.3257, 0, 0, 2.82119, -54.2825, 2.96002, -175.228, 2.854, 63.2518, 0.0217613, -32.9062
0, 3540.00000, 114.757, -31.2085, 119.824, -152.154, 115.955, 86.3257, 0, 0, 2.82119, -54.2825, 2.96002, -175.228, 2.854, 63.2518, 0.0217618, -32.9044
1, 0.00000, 114.757, -31.2085, 119.824, -152.154, 115.955, 86.3256, 0, 0, 2.82119, -54.2825, 2.96002, -175.228, 2.854, 63.2517, 0.0217623, -32.9027
1, 60.00000, 115.076, -31.1842, 119.827, -152.152, 116.074, 86.4706, 0, 0, 2.82991, -54.2581, 2.9601, -175.226, 2.85726, 63.3967, 0.0207323, -33.6027
1, 120.00000, 115.076, -31.1842, 119.827, -152.152, 116.074, 86.4706, 0, 0, 2.82991, -54.2581, 2.9601, -175.226, 2.85726, 63.3966, 0.0207328, -33.6008
1, 180.00000, 115.076, -31.1842, 119.827, -152.152, 116.074, 86.4705, 0, 0, 2.82991, -54.2581, 2.9601, -175.226, 2.85726, 63.3966, 0.0207331, -33.5995
1, 240.00000, 115.076, -31.1842, 119.827, -152.152, 116.074, 86.4705, 0, 0, 2.82991, -54.2582, 2.96011, -175.226, 2.85726, 63.3966, 0.0207335, -33.5983
1, 300.00000, 115.076, -31.1842, 119.827, -152.152, 116.074, 86.4705, 0, 0, 2.82991, -54.2582, 2.96011, -175.226, 2.85726, 63.3965, 0.0207337, -33.5972
1, 360.00000, 115.076, -31.1842, 119.827, -152.152, 116.074, 86.4704, 0, 0, 2.82991, -54.2582, 2.96011, -175.226, 2.85726, 63.3965, 0.020734, -33.5963
1, 420.00000, 115.076, -31.1842, 119.827, -152.152, 116.074, 86.4704, 0, 0, 2.82991, -54.2582, 2.96011, -175.226, 2.85726, 63.3965, 0.0207342, -33.5954
1, 480.00000, 115.076, -31.1842, 119.827, -152.152, 116.074, 86.4704, 0, 0, 2.82991, -54.2582, 2.96011, -175.226, 2.85726, 63.3965, 0.0207344, -33.5947
1, 540.00000, 115.076, -31.1842, 119.827, -152.152, 116.074, 86.4704, 0, 0, 2.82991, -54.2582, 2.96011, -175.226, 2.85726, 63.3965, 0.0207346, -33.594
1, 600.00000, 115.076, -31.1842, 119.827, -152.152, 116.074, 86.4704, 0, 0, 2.82991, -54.2582, 2.96011, -175.226, 2.85726, 63.3964, 0.0207348, -33.5934
1, 660.00000, 115.076, -31.1842, 119.827, -152.152, 116.074, 86.4703, 0, 0, 2.82991, -54.2582, 2.96011, -175.226, 2.85726, 63.3964, 0.020735, -33.5928
1, 720.00000, 115.076, -31.1842, 119.827, -152.152, 116.074, 86.4703, 0, 0, 2.82991, -54.2582, 2.96011, -175.226, 2.85726, 63.3964, 0.0207351, -33.5923
1, 780.00000, 115.575, -31.2033, 119.838, -152.147, 116.36, 86.6736, 0, 0, 2.8436, -54.2772, 2.96042, -175.221, 2.86511, 63.5997, 0.0193747, -34.8477
1, 840.00000, 115.575, -31.2033, 119.838, -152.147, 116.36, 86.6736, 0, 0, 2.8436, -54.2772, 2.96042, -175.221, 2.86511, 63.5997, 0.0193753, -34.8457
1, 900.00000, 115.575, -31.2033, 119.838, -152.147, 116.36, 86.6736, 0, 0, 2.8436, -54.2772, 2.96042, -175.221, 2.86511, 63.5997, 0.0193754, -34.8453
1, 960.00000, 115.575, -31.2033, 119.839, -152.147, 116.36, 86.6736, 0, 0, 2.8436, -54.2772, 2.96042, -175.221, 2.86511, 63.5997, 0.0193754, -34.8449
1, 1020.00000, 115.575, -31.2033, 119.839, -152.147, 116.36, 86.6736, 0, 0, 2.8436, -54.2772, 2.96042, -175.221, 2.86511, 63.5997, 0.0193755, -34.8446
1, 1080.00000, 115.575, -31.2033, 119.839, -152.147, 116.36, 86.6736, 0, 0, 2.8436, -54.2772, 2.96042, -175.221, 2.86511, 63.5997, 0.0193756, -34.8443
1, 1140.00000, 115.575, -31.2033, 119.839, -152.147, 116.36, 86.6736, 0, 0, 2.8436, -54.2772, 2.96042, -175.221, 2.86511, 63.5996, 0.0193757, -34.844
1, 1200.00000, 115.575, -31.2033, 119.839, -152.147, 116.36, 86.6736, 0, 0, 2.8436, -54.2772, 2.96042, -175.221, 2.86511, 63.5996, 0.0193757, -34.8438
1, 1260.00000, 115.575, -31.2033, 119.839, -152.147, 116.36, 86.6736, 0, 0, 2.8436, -54.2772, 2.96042, -175.221, 2.86511, 63.5996, 0.0193758, -34.8436
1, 1320.00000, 115.575, -31.2033, 119.839, -152.147, 116.36, 86.6736, 0, 0, 2.8436, -54.2772, 2.96042, -175.221, 2.86511, 63.5996, 0.0193758, -34.8434
1, 1380.00000, 115.575, -31.2033, 119.839, -152.147, 116.36, 86.6735, 0, 0, 2.8436, -54.2772, 2.96042, -175.221, 2.86511, 63.5996, 0.0193758, -34.8432
1, 1440.00000, 115.575, -31.2033, 119.839, -152.147, 116.36, 86.6735, 0, 0, 2.8436, -54.2772, 2.96042, -175.221, 2.86511, 63.5996, 0.0193759, -34.8431
1, 1500.00000, 115.575, -31.2033, 119.839, -152.147, 116.36, 86.6735, 0, 0, 2.8436, -54.2772, 2.96042, -175.221, 2.86511, 63.5996, 0.0193759, -34.8429
1, 1560.00000, 115.575, -31.2033, 119.839, -152.147, 116.36, 86.6735, 0, 0, 2.8436, -54.2772, 2.96042, -175.221, 2.86511, 63.5996, 0.019376, -34.8428
1, 1620.00000, 115.575, -31.2033, 119.839, -152.147, 116.36, 86.6735, 0, 0, 2.8436, -54.2772, 2.96042, -175.221, 2.86511, 63.5996, 0.019376, -34.8427
1, 1680.00000, 115.575, -31.2033, 119.839, -152.147, 116.36, 86.6735, 0, 0, 2.8436, -54.2772, 2.96042, -175.221, 2.86511, 63.5996, 0.019376, -34.8426
1, 1740.00000, 115.575, -31.2033, 119.839, -152.147, 116.36, 86.6735, 0, 0, 2.8436, -54.2772, 2.96042, -175.221, 2.86511, 63.5996, 0.019376, -34.8425
1, 1800.00000, 115.575, -31.2033, 119.839, -152.147, 116.36, 86.6735, 0, 0, 2.8436, -54.2772, 2.96042, -175.221, 2.86511, 63.5996, 0.019376, -34.8424
1, 1860.00000, 115.575, -31.2033, 119.839, -152.147, 116.36, 86.6735, 0, 0, 2.8436, -54.2772, 2.96042, -175.221, 2.86511, 63.5996, 0.0193761, -34.8424
1, 1920.00000, 115.575, -31.2033, 119.839, -152.147, 116.36, 86.6735, 0, 0, 2.8436, -54.2772, 2.96042, -175.221, 2.86511, 63.5996, 0.0193761, -34.8423
1, 1980.00000, 115.575, -31.2033, 119.839, -152.147, 116.36, 86.6735, 0, 0, 2.8436, -54.2772, 2.96042, -175.221, 2.86511, 63.5996, 0.0193761, -34.8422
1, 2040.00000, 115.575, -31.2033, 119.839, -152.147, 116.36, 86.6735, 0, 0, 2.8436, -54.2772, 2.96042, -175.221, 2.86511, 63.5996, 0.0193761, -34.8422
1, 2100.00000, 115.575, -31.2033, 119.839, -152.147, 116.36, 86.6735, 0, 0, 2.8436, -54.2772, 2.96042, -175.221, 2.86511, 63.5996, 0.0193761, -34.8421
1, 2160.00000, 115.575, -31.2033, 119.839, -152.147, 116.36, 86.6735, 0, 0, 2.8436, -54.2772, 2.96042, -175.221, 2.86511, 63.5996, 0.0193761, -34.8421
1, 2220.00000, 116.271, -30.9349, 120.803, -152.297, 116.272, 86.6853, 0, 0, 2.86265, -54.0088, 2.97973, -175.371, 2.86271, 63.6114, 0.0172237, -26.6829
1, 2280.00000, 116.271, -30.9349, 120.803, -152.297, 116.272, 86.6853, 0, 0, 2.86265, -54.0088, 2.97973, -175.371, 2.86271, 63.6114, 0.0172228, -26.6824
1, 2340.00000, 116.271, -30.9349, 120.803, -152.297, 116.272, 86.6853, 0, 0, 2.86265, -54.0088, 2.97973, -175.371, 2.86271, 63.6114, 0.0172227, -26.6825
1, 2400.00000, 116.271, -30.9349, 120.803, -152.297, 116.272, 86.6853, 0, 0, 2.86265, -54.0088, 2.97973, -175.371, 2.86271, 63.6114, 0.0172227, -26.6826
1, 2460.00000, 116.271, -30.9349, 120.803, -152.297, 116.272, 86.6853, 0, 0, 2.86265, -54.0088, 2.97973, -175.371, 2.86271, 63.6114, 0.0172226, -26.6827
1, 2520.00000, 116.271, -30.9349, 120.803, -152.297, 116.272, 86.6853, 0, 0, 2.86265, -54.0088, 2.97973, -175.371, 2.86271, 63.6114, 0.0172226, -26.6828
1, 2580.00000, 116.271, -30.9349, 120.803, -152.297, 116.272, 86.6853, 0, 0, 2.86265, -54.0088, 2.97973, -175.371, 2.86271, 63.6114, 0.0172226, -26.6829
1, 2640.00000, 116.271, -30.9349, 120.803, -152.297, 116.272, 86.6853, 0, 0, 2.86265, -54.0088, 2.97973, -175.371, 2.86271, 63.6114, 0.0172225, -26.6829
1, 2700.00000, 116.271, -30.9349, 120.803, -152.297, 116.272, 86.6853, 0, 0, 2.86265, -54.0088, 2.97973, -175.371, 2.86271, 63.6114, 0.0172225, -26.683
1, 2760.00000, 116.271, -30.9349, 120.803, -152.297, 116.272, 86.6853, 0, 0, 2.86265, -54.0088, 2.97973, -175.371, 2.86271, 63.6114, 0.0172225, -26.683
1, 2820.00000, 116.271, -30.9349, 120.803, -152.297, 116.272, 86.6853, 0, 0, 2.86265, -54.0088, 2.97973, -175.371, 2.86271, 63.6114, 0.0172225, -26.6831
1, 2880.00000, 116.271, -30.9349, 120.803, -152.297, 116.272, 86.6853, 0, 0, 2.86265, -54.0088, 2.97973, -175.371, 2.86271, 63.6114, 0.0172224, -26.6831
1, 2940.00000, 116.271, -30.9349, 120.803, -152.297, 116.272, 86.6853, 0, 0, 2.86265, -54.0088, 2.97973, -175.371, 2.86271, 63.6114, 0.0172224, -26.6831
1, 3000.00000, 116.271, -30.9349, 120.803, -152.297, 116.272, 86.6853, 0, 0, 2.86265, -54.0088, 2.97973, -175.371, 2.86271, 63.6114, 0.0172224, -26.6832
1, 3060.00000, 116.271, -30.9349, 120.803, -152.297, 116.272, 86.6853, 0, 0, 2.86265, -54.0088, 2.97973, -175.371, 2.86271, 63.6114, 0.0172224, -26.6832
1, 3120.00000, 116.271, -30.9349, 120.803, -152.297, 116.272, 86.6853, 0, 0, 2.86265, -54.0088, 2.97973, -175.371, 2.86271, 63.6114, 0.0172224, -26.6832
1, 3180.00000, 116.271, -30.9349, 120.803, -152.297, 116.272, 86.6853, 0, 0, 2.86265, -54.0088, 2.97973, -175.371, 2.86271, 63.6114, 0.0172223, -26.6832
1, 3240.00000, 116.271, -30.9349, 120.803, -152.297, 116.272, 86.6853, 0, 0, 2.86265, -54.0088, 2.97973, -175.371, 2.86271, 63.6114, 0.0172223, -26.6833
1, 3300.00000, 116.271, -30.9349, 120.803, -152.297, 116.272, 86.6853, 0, 0, 2.86265, -54.0088, 2.97973, -175.371, 2.86271, 63.6114, 0.0172223, -26.6833
1, 3360.00000, 116.271, -30.9349, 120.803, -152.297, 116.272, 86.6853, 0, 0, 2.86265, -54.0088, 2.97973, -175.371, 2.86271, 63.6114, 0.0172223, -26.6833
1, 3420.00000, 116.271, -30.9349, 120.803, -152.297, 116.272, 86.6853, 0, 0, 2.86265, -54.0088, 2.97973, -175.371, 2.86271, 63.6114, 0.0172223, -26.6833
1, 3480.00000, 116.271, -30.9349, 120.803, -152.297, 116.272, 86.6853, 0, 0, 2.86265, -54.0088, 2.97973, -175.371, 2.86271, 63.6114, 0.0172223, -26.6833
1, 3540.00000, 116.271, -30.9349, 120.803, -152.297, 116.272, 86.6853, 0, 0, 2.86265, -54.0088, 2.97973, -175.371, 2.86271, 63.6114, 0.0172223, -26.6833
2, 0.00000, 116.271, -30.9349, 120.803, -152.297, 116.272, 86.6853, 0, 0, 2.86265, -54.0088, 2.97973, -175.371, 2.86271, 63.6114, 0.0172223, -26.6833
2, 60.00000, 116.271, -30.9349, 120.803, -152.297, 116.272, 86.6853, 0, 0, 2.86265, -54.0088, 2.97973, -175.371, 2.86271, 63.6114, 0.0172223, -26.6834
2, 120.00000, 116.271, -30.9349, 120.803, -152.297, 116.272, 86.6853, 0, 0, 2.86265, -54.0088, 2.97973, -175.371, 2.86271, 63.6114, 0.0172223, -26.6834
2, 180.00000, 116.271, -30.9349, 120.803, -152.297, 116.272, 86.6853, 0, 0, 2.86265, -54.0088, 2.97973, -175.371, 2.86271, 63.6114, 0.0172223, -26.6834
2, 240.00000, 116.271, -30.9349, 120.803, -152.297, 116.272, 86.6853, 0, 0, 2.86265, -54.0088, 2.97973, -175.371, 2.86271, 63.6114, 0.0172223, -26.6834
2, 300.00000, 116.271, -30.9349, 120.803, -152.297, 116.272, 86.6853, 0, 0, 2.86265, -54.0088, 2.97973, -175.371, 2.86271, 63.6114, 0.0172223, -26.6834
2, 360.00000, 116.271, -30.9349, 120.803, -152.297, 116.272, 86.6853, 0, 0, 2.86265, -54.0088, 2.97973, -175.371, 2.86271, 63.6114, 0.0172223, -26.6834
2, 420.00000, 116.271, -30.9349, 120.803, -152.297, 116.272, 86.6853, 0, 0, 2.86265, -54.0088, 2.97973, -175.371, 2.86271, 63.6114, 0.0172223, -26.6834
2, 480.00000, 116.271, -30.9349, 120.803, -152.297, 116.272, 86.6853, 0, 0, 2.86265, -54.0088, 2.97973, -175.371, 2.86271, 63.6114, 0.0172223, -26.6834
2, 540.00000, 116.271, -30.9349, 120.803, -152.297, 116.272, 86.6853, 0, 0, 2.86265, -54.0088, 2.97973, -175.371, 2.86271, 63.6114, 0.0172223, -26.6834
2, 600.00000, 116.271, -30.9349, 120.803, -152.297, 116.272, 86.6853, 0, 0, 2.86265, -54.0088, 2.97973, -175.371, 2.86271, 63.6114, 0.0172222, -26.6834
2, 660.00000, 116.271, -30.9349, 120.803, -152.297, 116.272, 86.6853, 0, 0, 2.86265, -54.0088, 2.97973, -175.371, 2.86271, 63.6114, 0.0172222, -26.6834
