hour,t(sec),V1,VAngle1,V2,VAngle2,V3,VAngle3,V4,VAngle4,I1,IAngle1,I2,IAngle2,I3,IAngle3,I4,IAngle4
0, 60.00000, 119.331, -31.1009, 119.262, -150.848, 120.319, 89.0958, 0, 0, 4.6827, -54.1743, 4.67971, -173.922, 4.72583, 66.0224, 0.0269835, -107.17
0, 120.00000, 119.331, -31.101, 119.262, -150.848, 120.318, 89.0957, 0, 0, 4.68266, -54.1749, 4.67964, -173.922, 4.72564, 66.0218, 0.0268046, -107.211
0, 180.00000, 119.331, -31.101, 119.262, -150.848, 120.318, 89.0957, 0, 0, 4.68266, -54.1749, 4.67964, -173.922, 4.72564, 66.0218, 0.0268015, -107.212
0, 240.00000, 119.331, -31.101, 119.262, -150.848, 120.318, 89.0957, 0, 0, 4.68266, -54.1749, 4.67964, -173.922, 4.72564, 66.0218, 0.0268014, -107.212
0, 300.00000, 119.331, -31.101, 119.262, -150.848, 120.318, 89.0957, 0, 0, 4.68266, -54.1749, 4.67964, -173.922, 4.72564, 66.0218, 0.0268014, -107.212
0, 360.00000, 119.331, -31.101, 119.262, -150.848, 120.318, 89.0957, 0, 0, 4.68266, -54.1749, 4.67964, -173.922, 4.72564, 66.0218, 0.0268014, -107.212
0, 420.00000, 119.331, -31.101, 119.262, -150.848, 120.318, 89.0957, 0, 0, 4.68266, -54.1749, 4.67964, -173.922, 4.72564, 66.0218, 0.0268014, -107.212
0, 480.00000, 119.331, -31.101, 119.262, -150.848, 120.318, 89.0957, 0, 0, 4.68266, -54.1749, 4.67964, -173.922, 4.72564, 66.0218, 0.0268014, -107.212
0, 540.00000, 119.331, -31.101, 119.262, -150.848, 120.318, 89.0957, 0, 0, 4.68266, -54.1749, 4.67964, -173.922, 4.72564, 66.0218, 0.0268014, -107.212
0, 600.00000, 119.331, -31.101, 119.262, -150.848, 120.318, 89.0957, 0, 0, 4.68266, -54.1749, 4.67964, -173.922, 4.72564, 66.0218, 0.0268014, -107.212
0, 660.00000, 119.331, -31.101, 119.262, -150.848, 120.318, 89.0957, 0, 0, 4.68266, -54.1749, 4.67964, -173.922, 4.72564, 66.0218, 0.0268014, -107.212
0, 720.00000, 119.331, -31.101, 119.262, -150.848, 120.318, 89.0957, 0, 0, 4.68266, -54.1749, 4.67964, -173.922, 4.72564, 66.0218, 0.0268014, -107.212
0, 780.00000, 119.331, -31.101, 119.262, -150.848, 120.318, 89.0957, 0, 0, 4.68266, -54.1749, 4.67964, -173.922, 4.72564, 66.0218, 0.0268014, -107.212
0, 840.00000, 119.331, -31.101, 119.262, -150.848, 120.318, 89.0957, 0, 0, 4.68266, -54.1749, 4.67964, -173.922, 4.72564, 66.0218, 0.0268014, -107.212
0, 900.00000, 119.331, -31.101, 119.262, -150.848, 120.318, 89.0957, 0, 0, 4.68266, -54.1749, 4.67964, -173.922, 4.72564, 66.0218, 0.0268014, -107.212
0, 960.00000, 119.156, -31.1288, 119.094, -150.875, 120.152, 89.0651, 0, 0, 3.87216, -54.2026, 3.86992, -173.949, 3.90807, 65.9913, 0.0223584, -107.303
0, 1020.00000, 119.156, -31.1288, 119.094, -150.875, 120.151, 89.0651, 0, 0, 3.87215, -54.2027, 3.8699, -173.949, 3.90805, 65.9912, 0.0223496, -107.304
0, 1080.00000, 119.156, -31.1288, 119.094, -150.875, 120.151, 89.0651, 0, 0, 3.87215, -54.2027, 3.8699, -173.949, 3.90805, 65.9912, 0.0223495, -107.304
0, 1140.00000, 119.156, -31.1288, 119.094, -150.875, 120.151, 89.0651, 0, 0, 3.87215, -54.2027, 3.8699, -173.949, 3.90805, 65.9912, 0.0223495, -107.304
0, 1200.00000, 119.156, -31.1288, 119.094, -150.875, 120.151, 89.0651, 0, 0, 3.87215, -54.2027, 3.8699, -173.949, 3.90805, 65.9912, 0.0223495, -107.304
0, 1260.00000, 119.156, -31.1288, 119.094, -150.875, 120.151, 89.0651, 0, 0, 3.87215, -54.2027, 3.8699, -173.949, 3.90805, 65.9912, 0.0223495, -107.304
0, 1320.00000, 119.156, -31.1288, 119.094, -150.875, 120.151, 89.0651, 0, 0, 3.87215, -54.2027, 3.8699, -173.949, 3.90805, 65.9912, 0.0223495, -107.304
0, 1380.00000, 119.156, -31.1288, 119.094, -150.875, 120.151, 89.0651, 0, 0, 3.87215, -54.2027, 3.8699, -173.949, 3.90805, 65.9912, 0.0223495, -107.304
0, 1440.00000, 119.156, -31.1288, 119.094, -150.875, 120.151, 89.0651, 0, 0, 3.87215, -54.2027, 3.8699, -173.949, 3.90805, 65.9912, 0.0223495, -107.304
0, 1500.00000, 119.156, -31.1288, 119.094, -150.875, 120.151, 89.0651, 0, 0, 3.87215, -54.2027, 3.8699, -173.949, 3.90805, 65.9912, 0.0223495, -107.304
0, 1560.00000, 119.156, -31.1288, 119.094, -150.875, 120.151, 89.0651, 0, 0, 3.87215, -54.2027, 3.8699, -173.949, 3.90805, 65.9912, 0.0223495, -107.304
0, 1620.00000, 119.156, -31.1288, 119.094, -150.875, 120.151, 89.0651, 0, 0, 3.87215, -54.2027, 3.8699, -173.949, 3.90805, 65.9912, 0.0223495, -107.304
0, 1680.00000, 119.156, -31.1288, 119.094, -150.875, 120.151, 89.0651, 0, 0, 3.87215, -54.2027, 3.8699, -173.949, 3.90805, 65.9912, 0.0223495, -107.304
0, 1740.00000, 119.156, -31.1288, 119.094, -150.875, 120.151, 89.0651, 0, 0, 3.87215, -54.2027, 3.8699, -173.949, 3.90805, 65.9912, 0.0223495, -107.304
0, 1800.00000, 119.156, -31.1288, 119.094, -150.875, 120.151, 89.0651, 0, 0, 3.87215, -54.2027, 3.8699, -173.949, 3.90805, 65.9912, 0.0223495, -107.304
0, 1860.00000, 119.377, -31.1175, 119.303, -150.865, 120.358, 89.0795, 0, 0, 3.39413, -54.1926, 3.39182, -173.939, 3.42507, 66.0048, 0.0192514, -107.414
0, 1920.00000, 119.377, -31.1174, 119.304, -150.865, 120.359, 89.0796, 0, 0, 3.3943, -54.1914, 3.39199, -173.939, 3.42528, 66.0057, 0.0192981, -107.447
0, 1980.00000, 119.377, -31.1174, 119.304, -150.865, 120.359, 89.0796, 0, 0, 3.39431, -54.1914, 3.39199, -173.939, 3.42528, 66.0057, 0.0192985, -107.447
0, 2040.00000, 119.377, -31.1174, 119.304, -150.865, 120.359, 89.0796, 0, 0, 3.39431, -54.1914, 3.39199, -173.939, 3.42528, 66.0057, 0.0192985, -107.447
0, 2100.00000, 119.377, -31.1174, 119.304, -150.865, 120.359, 89.0796, 0, 0, 3.39431, -54.1914, 3.39199, -173.939, 3.42528, 66.0057, 0.0192985, -107.447
0, 2160.00000, 119.377, -31.1174, 119.304, -150.865, 120.359, 89.0796, 0, 0, 3.39431, -54.1914, 3.39199, -173.939, 3.42528, 66.0057, 0.0192985, -107.447
0, 2220.00000, 119.377, -31.1174, 119.304, -150.865, 120.359, 89.0796, 0, 0, 3.39431, -54.1914, 3.39199, -173.939, 3.42528, 66.0057, 0.0192985, -107.447
0, 2280.00000, 119.377, -31.1174, 119.304, -150.865, 120.359, 89.0796, 0, 0, 3.39431, -54.1914, 3.39199, -173.939, 3.42528, 66.0057, 0.0192985, -107.447
0, 2340.00000, 119.377, -31.1174, 119.304, -150.865, 120.359, 89.0796, 0, 0, 3.39431, -54.1914, 3.39199, -173.939, 3.42528, 66.0057, 0.0192985, -107.447
0, 2400.00000, 119.377, -31.1174, 119.304, -150.865, 120.359, 89.0796, 0, 0, 3.39431, -54.1914, 3.39199, -173.939, 3.42528, 66.0057, 0.0192985, -107.447
0, 2460.00000, 119.377, -31.1174, 119.304, -150.865, 120.359, 89.0796, 0, 0, 3.39431, -54.1914, 3.39199, -173.939, 3.42528, 66.0057, 0.0192985, -107.447
0, 2520.00000, 119.377, -31.1174, 119.304, -150.865, 120.359, 89.0796, 0, 0, 3.39431, -54.1914, 3.39199, -173.939, 3.42528, 66.0057, 0.0192985, -107.447
0, 2580.00000, 119.377, -31.1174, 119.304, -150.865, 120.359, 89.0796, 0, 0, 3.39431, -54.1914, 3.39199, -173.939, 3.42528, 66.0057, 0.0192985, -107.447
0, 2640.00000, 119.377, -31.1174, 119.304, -150.865, 120.359, 89.0796, 0, 0, 3.39431, -54.1914, 3.39199, -173.939, 3.42528, 66.0057, 0.0192985, -107.447
0, 2700.00000, 119.377, -31.1174, 119.304, -150.865, 120.359, 89.0796, 0, 0, 3.39431, -54.1914, 3.39199, -173.939, 3.42528, 66.0057, 0.0192985, -107.447
0, 2760.00000, 119.708, -31.0841, 119.619, -150.834, 120.678, 89.1178, 0, 0, 3.30853, -54.1583, 3.3058, -173.908, 3.33766, 66.0436, 0.0181102, -107.336
0, 2820.00000, 119.708, -31.0841, 119.619, -150.834, 120.678, 89.1178, 0, 0, 3.30855, -54.158, 3.30582, -173.908, 3.33759, 66.0439, 0.018054, -107.277
0, 2880.00000, 119.708, -31.0841, 119.619, -150.834, 120.678, 89.1178, 0, 0, 3.30855, -54.158, 3.30582, -173.908, 3.33759, 66.0439, 0.0180536, -107.276
0, 2940.00000, 119.708, -31.0841, 119.619, -150.834, 120.678, 89.1178, 0, 0, 3.30855, -54.158, 3.30582, -173.908, 3.33759, 66.0439, 0.0180536, -107.276
0, 3000.00000, 119.708, -31.0841, 119.619, -150.834, 120.678, 89.1178, 0, 0, 3.30855, -54.158, 3.30582, -173.908, 3.33759, 66.0439, 0.0180536, -107.276
0, 3060.00000, 119.708, -31.0841, 119.619, -150.834, 120.678, 89.1178, 0, 0, 3.30855, -54.158, 3.30582, -173.908, 3.33759, 66.0439, 0.0180536, -107.276
0, 3120.00000, 119.708, -31.0841, 119.619, -150.834, 120.678, 89.1178, 0, 0, 3.30855, -54.158, 3.30582, -173.908, 3.33759, 66.0439, 0.0180536, -107.276
0, 3180.00000, 119.708, -31.0841, 119.619, -150.834, 120.678, 89.1178, 0, 0, 3.30855, -54.158, 3.30582, -173.908, 3.33759, 66.0439, 0.0180536, -107.276
0, 3240.00000, 119.708, -31.0841, 119.619, -150.834, 120.678, 89.1178, 0, 0, 3.30855, -54.158, 3.30582, -173.908, 3.33759, 66.0439, 0.0180536, -107.276
0, 3300.00000, 119.708, -31.0841, 119.619, -150.834, 120.678, 89.1178, 0, 0, 3.30855, -54.158, 3.30582, -173.908, 3.33759, 66.0439, 0.0180536, -107.276
0, 3360.00000, 119.708, -31.0841, 119.619, -150.834, 120.678, 89.1178, 0, 0, 3.30855, -54.158, 3.30582, -173.908, 3.33759, 66.0439, 0.0180536, -107.276
0, 3420.00000, 119.708, -31.0841, 119.619, -150.834, 120.678, 89.1178, 0, 0, 3.30855, -54.158, 3.30582, -173.908, 3.33759, 66.0439, 0.0180536, -107.276
0, 3480.00000, 119.708, -31.0841, 119.619, -150.834, 120.678, 89.1178, 0, 0, 3.30855, -54.158, 3.30582, -173.908, 3.33759, 66.0439, 0.0180536, -107.276
0, 3540.00000, 119.708, -31.0841, 119.619, -150.834, 120.678, 89.1178, 0, 0, 3.30855, -54.158, 3.30582, -173.908, 3.33759, 66.0439, 0.0180536, -107.276
1, 0.00000, 119.708, -31.0841, 119.619, -150.834, 120.678, 89.1178, 0, 0, 3.30855, -54.158, 3.30582, -173.908, 3.33759, 66.0439, 0.0180536, -107.276
1, 60.00000, 119.941, -31.0597, 119.843, -150.814, 120.915, 89.1458, 0, 0, 3.55076, -54.1339, 3.54752, -173.888, 3.56729, 66.0716, 0.00546076, -88.8172
1, 120.00000, 119.941, -31.0597, 119.843, -150.814, 120.916, 89.1458, 0, 0, 3.55075, -54.1336, 3.54753, -173.888, 3.56719, 66.0719, 0.00541188, -88.2683
1, 180.00000, 119.941, -31.0597, 119.843, -150.814, 120.916, 89.1458, 0, 0, 3.55075, -54.1336, 3.54753, -173.888, 3.56719, 66.0719, 0.00541139, -88.2595
1, 240.00000, 119.941, -31.0597, 119.843, -150.814, 120.916, 89.1458, 0, 0, 3.55075, -54.1336, 3.54753, -173.888, 3.56719, 66.0719, 0.00541138, -88.2594
1, 300.00000, 119.941, -31.0597, 119.843, -150.814, 120.916, 89.1458, 0, 0, 3.55075, -54.1336, 3.54753, -173.888, 3.56719, 66.0719, 0.00541138, -88.2594
1, 360.00000, 119.941, -31.0597, 119.843, -150.814, 120.916, 89.1458, 0, 0, 3.55075, -54.1336, 3.54753, -173.888, 3.56719, 66.0719, 0.00541138, -88.2594
1, 420.00000, 119.941, -31.0597, 119.843, -150.814, 120.916, 89.1458, 0, 0, 3.55075, -54.1336, 3.54753, -173.888, 3.56719, 66.0719, 0.00541138, -88.2594
1, 480.00000, 119.941, -31.0597, 119.843, -150.814, 120.916, 89.1458, 0, 0, 3.55075, -54.1336, 3.54753, -173.888, 3.56719, 66.0719, 0.00541138, -88.2594
1, 540.00000, 119.941, -31.0597, 119.843, -150.814, 120.916, 89.1458, 0, 0, 3.55075, -54.1336, 3.54753, -173.888, 3.56719, 66.0719, 0.00541138, -88.2594
1, 600.00000, 119.941, -31.0597, 119.843, -150.814, 120.916, 89.1458, 0, 0, 3.55075, -54.1336, 3.54753, -173.888, 3.56719, 66.0719, 0.00541138, -88.2594
1, 660.00000, 119.941, -31.0597, 119.843, -150.814, 120.916, 89.1458, 0, 0, 3.55075, -54.1336, 3.54753, -173.888, 3.56719, 66.0719, 0.00541138, -88.2594
1, 720.00000, 119.941, -31.0597, 119.843, -150.814, 120.916, 89.1458, 0, 0, 3.55075, -54.1336, 3.54753, -173.888, 3.56719, 66.0719, 0.00541138, -88.2594
1, 780.00000, 119.941, -31.0597, 119.843, -150.814, 120.916, 89.1458, 0, 0, 3.55075, -54.1336, 3.54753, -173.888, 3.56719, 66.0719, 0.00541138, -88.2594
1, 840.00000, 119.941, -31.0597, 119.843, -150.814, 120.916, 89.1458, 0, 0, 3.55075, -54.1336, 3.54753, -173.888, 3.56719, 66.0719, 0.00541138, -88.2594
1, 900.00000, 119.941, -31.0597, 119.843, -150.814, 120.916, 89.1458, 0, 0, 3.55075, -54.1336, 3.54753, -173.888, 3.56719, 66.0719, 0.00541138, -88.2594
1, 960.00000, 120, -31.0577, 119.899, -150.813, 120.974, 89.1483, 0, 0, 3.12585, -54.1322, 3.12291, -173.887, 3.13723, 66.074, 0.00238379, -55.7672
1, 1020.00000, 120, -31.0577, 119.899, -150.813, 120.974, 89.1484, 0, 0, 3.12588, -54.1316, 3.12295, -173.887, 3.1371, 66.0745, 0.00234589, -52.9211
1, 1080.00000, 120, -31.0577, 119.899, -150.813, 120.974, 89.1484, 0, 0, 3.12588, -54.1316, 3.12295, -173.887, 3.1371, 66.0745, 0.0023459, -52.8936
1, 1140.00000, 120, -31.0577, 119.899, -150.813, 120.974, 89.1484, 0, 0, 3.12588, -54.1316, 3.12295, -173.887, 3.1371, 66.0745, 0.0023459, -52.8932
1, 1200.00000, 120, -31.0577, 119.899, -150.813, 120.974, 89.1484, 0, 0, 3.12588, -54.1316, 3.12295, -173.887, 3.1371, 66.0745, 0.0023459, -52.8932
1, 1260.00000, 120, -31.0577, 119.899, -150.813, 120.974, 89.1484, 0, 0, 3.12588, -54.1316, 3.12295, -173.887, 3.1371, 66.0745, 0.0023459, -52.8932
1, 1320.00000, 120, -31.0577, 119.899, -150.813, 120.974, 89.1484, 0, 0, 3.12588, -54.1316, 3.12295, -173.887, 3.1371, 66.0745, 0.0023459, -52.8932
1, 1380.00000, 120, -31.0577, 119.899, -150.813, 120.974, 89.1484, 0, 0, 3.12588, -54.1316, 3.12295, -173.887, 3.1371, 66.0745, 0.0023459, -52.8932
1, 1440.00000, 120, -31.0577, 119.899, -150.813, 120.974, 89.1484, 0, 0, 3.12588, -54.1316, 3.12295, -173.887, 3.1371, 66.0745, 0.0023459, -52.8932
1, 1500.00000, 120, -31.0577, 119.899, -150.813, 120.974, 89.1484, 0, 0, 3.12588, -54.1316, 3.12295, -173.887, 3.1371, 66.0745, 0.0023459, -52.8932
1, 1560.00000, 120, -31.0577, 119.899, -150.813, 120.974, 89.1484, 0, 0, 3.12588, -54.1316, 3.12295, -173.887, 3.1371, 66.0745, 0.0023459, -52.8932
1, 1620.00000, 120, -31.0577, 119.899, -150.813, 120.974, 89.1484, 0, 0, 3.12588, -54.1316, 3.12295, -173.887, 3.1371, 66.0745, 0.0023459, -52.8932
1, 1680.00000, 120, -31.0577, 119.899, -150.813, 120.974, 89.1484, 0, 0, 3.12588, -54.1316, 3.12295, -173.887, 3.1371, 66.0745, 0.0023459, -52.8932
1, 1740.00000, 120, -31.0577, 119.899, -150.813, 120.974, 89.1484, 0, 0, 3.12588, -54.1316, 3.12295, -173.887, 3.1371, 66.0745, 0.0023459, -52.8932
1, 1800.00000, 120, -31.0577, 119.899, -150.813, 120.974, 89.1484, 0, 0, 3.12588, -54.1316, 3.12295, -173.887, 3.1371, 66.0745, 0.0023459, -52.8932
1, 1860.00000, 119.821, -31.0834, 119.726, -150.835, 120.789, 89.12, 0, 0, 2.90221, -54.157, 2.89968, -173.909, 2.92188, 66.0463, 0.0102409, -103.594
1, 1920.00000, 119.821, -31.0834, 119.726, -150.835, 120.789, 89.1199, 0, 0, 2.90221, -54.1573, 2.89967, -173.909, 2.92196, 66.046, 0.0102883, -103.756
1, 1980.00000, 119.821, -31.0834, 119.726, -150.835, 120.789, 89.1199, 0, 0, 2.90221, -54.1573, 2.89967, -173.909, 2.92196, 66.046, 0.0102889, -103.759
1, 2040.00000, 119.821, -31.0834, 119.726, -150.835, 120.789, 89.1199, 0, 0, 2.90221, -54.1573, 2.89967, -173.909, 2.92196, 66.046, 0.0102889, -103.759
1, 2100.00000, 119.821, -31.0834, 119.726, -150.835, 120.789, 89.1199, 0, 0, 2.90221, -54.1573, 2.89967, -173.909, 2.92196, 66.046, 0.0102889, -103.759
1, 2160.00000, 119.821, -31.0834, 119.726, -150.835, 120.789, 89.1199, 0, 0, 2.90221, -54.1573, 2.89967, -173.909, 2.92196, 66.046, 0.0102889, -103.759
1, 2220.00000, 119.821, -31.0834, 119.726, -150.835, 120.789, 89.1199, 0, 0, 2.90221, -54.1573, 2.89967, -173.909, 2.92196, 66.046, 0.0102889, -103.759
1, 2280.00000, 119.821, -31.0834, 119.726, -150.835, 120.789, 89.1199, 0, 0, 2.90221, -54.1573, 2.89967, -173.909, 2.92196, 66.046, 0.0102889, -103.759
1, 2340.00000, 119.821, -31.0834, 119.726, -150.835, 120.789, 89.1199, 0, 0, 2.90221, -54.1573, 2.89967, -173.909, 2.92196, 66.046, 0.0102889, -103.759
1, 2400.00000, 119.821, -31.0834, 119.726, -150.835, 120.789, 89.1199, 0, 0, 2.90221, -54.1573, 2.89967, -173.909, 2.92196, 66.046, 0.0102889, -103.759
1, 2460.00000, 119.821, -31.0834, 119.726, -150.835, 120.789, 89.1199, 0, 0, 2.90221, -54.1573, 2.89967, -173.909, 2.92196, 66.046, 0.0102889, -103.759
1, 2520.00000, 119.821, -31.0834, 119.726, -150.835, 120.789, 89.1199, 0, 0, 2.90221, -54.1573, 2.89967, -173.909, 2.92196, 66.046, 0.0102889, -103.759
1, 2580.00000, 119.821, -31.0834, 119.726, -150.835, 120.789, 89.1199, 0, 0, 2.90221, -54.1573, 2.89967, -173.909, 2.92196, 66.046, 0.0102889, -103.759
1, 2640.00000, 119.821, -31.0834, 119.726, -150.835, 120.789, 89.1199, 0, 0, 2.90221, -54.1573, 2.89967, -173.909, 2.92196, 66.046, 0.0102889, -103.759
1, 2700.00000, 119.821, -31.0834, 119.726, -150.835, 120.789, 89.1199, 0, 0, 2.90221, -54.1573, 2.89967, -173.909, 2.92196, 66.046, 0.0102889, -103.759
1, 2760.00000, 120.29, -31.0397, 120.18, -150.799, 121.266, 89.1707, 0, 0, 2.08602, -54.1142, 2.08388, -173.872, 2.08299, 66.0962, 0.00967718, 57.6459
1, 2820.00000, 120.29, -31.0396, 120.181, -150.799, 121.267, 89.1708, 0, 0, 2.08601, -54.1136, 2.08391, -173.873, 2.08288, 66.0969, 0.00977615, 57.4482
1, 2880.00000, 120.29, -31.0396, 120.181, -150.799, 121.267, 89.1708, 0, 0, 2.08601, -54.1135, 2.08391, -173.873, 2.08288, 66.0969, 0.00977741, 57.4431
1, 2940.00000, 120.29, -31.0396, 120.181, -150.799, 121.267, 89.1708, 0, 0, 2.08601, -54.1135, 2.08391, -173.873, 2.08288, 66.0969, 0.00977743, 57.443
1, 3000.00000, 120.29, -31.0396, 120.181, -150.799, 121.267, 89.1708, 0, 0, 2.08601, -54.1135, 2.08391, -173.873, 2.08288, 66.0969, 0.00977743, 57.443
1, 3060.00000, 120.29, -31.0396, 120.181, -150.799, 121.267, 89.1708, 0, 0, 2.08601, -54.1135, 2.08391, -173.873, 2.08288, 66.0969, 0.00977743, 57.443
1, 3120.00000, 120.29, -31.0396, 120.181, -150.799, 121.267, 89.1708, 0, 0, 2.08601, -54.1135, 2.08391, -173.873, 2.08288, 66.0969, 0.00977743, 57.443
1, 3180.00000, 120.29, -31.0396, 120.181, -150.799, 121.267, 89.1708, 0, 0, 2.08601, -54.1135, 2.08391, -173.873, 2.08288, 66.0969, 0.00977743, 57.443
1, 3240.00000, 120.29, -31.0396, 120.181, -150.799, 121.267, 89.1708, 0, 0, 2.08601, -54.1135, 2.08391, -173.873, 2.08288, 66.0969, 0.00977743, 57.443
1, 3300.00000, 120.29, -31.0396, 120.181, -150.799, 121.267, 89.1708, 0, 0, 2.08601, -54.1135, 2.08391, -173.873, 2.08288, 66.0969, 0.00977743, 57.443
1, 3360.00000, 120.29, -31.0396, 120.181, -150.799, 121.267, 89.1708, 0, 0, 2.08601, -54.1135, 2.08391, -173.873, 2.08288, 66.0969, 0.00977743, 57.443
1, 3420.00000, 120.29, -31.0396, 120.181, -150.799, 121.267, 89.1708, 0, 0, 2.08601, -54.1135, 2.08391, -173.873, 2.08288, 66.0969, 0.00977743, 57.443
1, 3480.00000, 120.29, -31.0396, 120.181, -150.799, 121.267, 89.1708, 0, 0, 2.08601, -54.1135, 2.08391, -173.873, 2.08288, 66.0969, 0.00977743, 57.443
1, 3540.00000, 120.29, -31.0396, 120.181, -150.799, 121.267, 89.1708, 0, 0, 2.08601, -54.1135, 2.08391, -173.873, 2.08288, 66.0969, 0.00977743, 57.443
2, 0.00000, 120.29, -31.0396, 120.181, -150.799, 121.267, 89.1708, 0, 0, 2.08601, -54.1135, 2.08391, -173.873, 2.08288, 66.0969, 0.00977743, 57.443
2, 60.00000, 120.044, -31.0688, 119.94, -150.824, 121.016, 89.1374, 0, 0, 1.90464, -54.1424, 1.90282, -173.898, 1.91, 66.0638, 0.00144308, 7.19366
2, 120.00000, 120.044, -31.0689, 119.94, -150.824, 121.015, 89.1373, 0, 0, 1.90464, -54.1428, 1.90281, -173.898, 1.91005, 66.0634, 0.0014027, 6.08252
2, 180.00000, 120.044, -31.0689, 119.94, -150.824, 121.015, 89.1373, 0, 0, 1.90464, -54.1428, 1.90281, -173.898, 1.91006, 66.0634, 0.00140217, 6.07249
2, 240.00000, 120.044, -31.0689, 119.94, -150.824, 121.015, 89.1373, 0, 0, 1.90464, -54.1428, 1.90281, -173.898, 1.91006, 66.0634, 0.00140216, 6.07235
2, 300.00000, 120.044, -31.0689, 119.94, -150.824, 121.015, 89.1373, 0, 0, 1.90464, -54.1428, 1.90281, -173.898, 1.91006, 66.0634, 0.00140216, 6.07235
2, 360.00000, 120.044, -31.0689, 119.94, -150.824, 121.015, 89.1373, 0, 0, 1.90464, -54.1428, 1.90281, -173.898, 1.91006, 66.0634, 0.00140216, 6.07235
2, 420.00000, 120.044, -31.0689, 119.94, -150.824, 121.015, 89.1373, 0, 0, 1.90464, -54.1428, 1.90281, -173.898, 1.91006, 66.0634, 0.00140216, 6.07235
2, 480.00000, 120.044, -31.0689, 119.94, -150.824, 121.015, 89.1373, 0, 0, 1.90464, -54.1428, 1.90281, -173.898, 1.91006, 66.0634, 0.00140216, 6.07235
2, 540.00000, 120.044, -31.0689, 119.94, -150.824, 121.015, 89.1373, 0, 0, 1.90464, -54.1428, 1.90281, -173.898, 1.91006, 66.0634, 0.00140216, 6.07235
2, 600.00000, 120.044, -31.0689, 119.94, -150.824, 121.015, 89.1373, 0, 0, 1.90464, -54.1428, 1.90281, -173.898, 1.91006, 66.0634, 0.00140216, 6.07235
2, 660.00000, 120.044, -31.0689, 119.94, -150.824, 121.015, 89.1373, 0, 0, 1.90464, -54.1428, 1.90281, -173.898, 1.91006, 66.0634, 0.00140216, 6.07235
