hour,t(sec),"P1 (kW)","Q1 (kvar)","P2 (kW)","Q2 (kvar)","P3 (kW)","Q3 (kvar)","P4 (kW)","Q4 (kvar)"
0, 60.00000, 0.545424, 0.232348, 0.554922, 0.236395, 0.550751, 0.234615, 0, 0
0, 120.00000, 0.54542, 0.232348, 0.554919, 0.236394, 0.550744, 0.234616, 0, 0
0, 180.00000, 0.54542, 0.232348, 0.554919, 0.236394, 0.550744, 0.234616, 0, 0
0, 240.00000, 0.54542, 0.232348, 0.554919, 0.236394, 0.550744, 0.234616, 0, 0
0, 300.00000, 0.54542, 0.232348, 0.554919, 0.236394, 0.550744, 0.234616, 0, 0
0, 360.00000, 0.54542, 0.232348, 0.554919, 0.236394, 0.550744, 0.234616, 0, 0
0, 420.00000, 0.54542, 0.232348, 0.554919, 0.236394, 0.550744, 0.234616, 0, 0
0, 480.00000, 0.482818, 0.205681, 0.490979, 0.209158, 0.486995, 0.207464, 0, 0
0, 540.00000, 0.482822, 0.205681, 0.490986, 0.209159, 0.487001, 0.207462, 0, 0
0, 600.00000, 0.482822, 0.205681, 0.490986, 0.209159, 0.487001, 0.207462, 0, 0
0, 660.00000, 0.482822, 0.205681, 0.490986, 0.209159, 0.487001, 0.207462, 0, 0
0, 720.00000, 0.482822, 0.205681, 0.490986, 0.209159, 0.487001, 0.207462, 0, 0
0, 780.00000, 0.482822, 0.205681, 0.490986, 0.209159, 0.487001, 0.207462, 0, 0
0, 840.00000, 0.482822, 0.205681, 0.490986, 0.209159, 0.487001, 0.207462, 0, 0
0, 900.00000, 0.482822, 0.205681, 0.490986, 0.209159, 0.487001, 0.207462, 0, 0
0, 960.00000, 0.468103, 0.199412, 0.491036, 0.209181, 0.473418, 0.201672, 0, 0
0, 1020.00000, 0.468099, 0.199409, 0.491037, 0.209181, 0.473412, 0.201673, 0, 0
0, 1080.00000, 0.468099, 0.199409, 0.491037, 0.209181, 0.473412, 0.201673, 0, 0
0, 1140.00000, 0.468099, 0.199409, 0.491037, 0.209181, 0.473412, 0.201673, 0, 0
0, 1200.00000, 0.468099, 0.199409, 0.491037, 0.209181, 0.473412, 0.201673, 0, 0
0, 1260.00000, 0.468099, 0.199409, 0.491037, 0.209181, 0.473412, 0.201673, 0, 0
0, 1320.00000, 0.468099, 0.199409, 0.491037, 0.209181, 0.473412, 0.201673, 0, 0
0, 1380.00000, 0.468099, 0.199409, 0.491037, 0.209181, 0.473412, 0.201673, 0, 0
0, 1440.00000, 0.468099, 0.199409, 0.491037, 0.209181, 0.473412, 0.201673, 0, 0
0, 1500.00000, 0.468099, 0.199409, 0.491037, 0.209181, 0.473412, 0.201673, 0, 0
0, 1560.00000, 0.468099, 0.199409, 0.491037, 0.209181, 0.473412, 0.201673, 0, 0
0, 1620.00000, 0.468099, 0.199409, 0.491037, 0.209181, 0.473412, 0.201673, 0, 0
0, 1680.00000, 0.468099, 0.199409, 0.491037, 0.209181, 0.473412, 0.201673, 0, 0
0, 1740.00000, 0.468099, 0.199409, 0.491037, 0.209181, 0.473412, 0.201673, 0, 0
0, 1800.00000, 0.460366, 0.196116, 0.491108, 0.209211, 0.467084, 0.198972, 0, 0
0, 1860.00000, 0.46036, 0.196113, 0.491109, 0.209211, 0.467077, 0.198974, 0, 0
0, 1920.00000, 0.46036, 0.196113, 0.491109, 0.209211, 0.467077, 0.198974, 0, 0
0, 1980.00000, 0.46036, 0.196113, 0.491109, 0.209211, 0.467077, 0.198974, 0, 0
0, 2040.00000, 0.46036, 0.196113, 0.491109, 0.209211, 0.467077, 0.198974, 0, 0
0, 2100.00000, 0.46036, 0.196113, 0.491109, 0.209211, 0.467077, 0.198974, 0, 0
0, 2160.00000, 0.46036, 0.196113, 0.491109, 0.209211, 0.467077, 0.198974, 0, 0
0, 2220.00000, 0.46036, 0.196113, 0.491109, 0.209211, 0.467077, 0.198974, 0, 0
0, 2280.00000, 0.46036, 0.196113, 0.491109, 0.209211, 0.467077, 0.198974, 0, 0
0, 2340.00000, 0.46036, 0.196113, 0.491109, 0.209211, 0.467077, 0.198974, 0, 0
0, 2400.00000, 0.46036, 0.196113, 0.491109, 0.209211, 0.467077, 0.198974, 0, 0
0, 2460.00000, 0.46036, 0.196113, 0.491109, 0.209211, 0.467077, 0.198974, 0, 0
0, 2520.00000, 0.46036, 0.196113, 0.491109, 0.209211, 0.467077, 0.198974, 0, 0
0, 2580.00000, 0.46036, 0.196113, 0.491109, 0.209211, 0.467077, 0.198974, 0, 0
0, 2640.00000, 0.46036, 0.196113, 0.491109, 0.209211, 0.467077, 0.198974, 0, 0
0, 2700.00000, 0.46036, 0.196113, 0.491109, 0.209211, 0.467077, 0.198974, 0, 0
0, 2760.00000, 0.463336, 0.197382, 0.491105, 0.209209, 0.468387, 0.199535, 0, 0
0, 2820.00000, 0.46334, 0.197382, 0.491104, 0.209209, 0.468392, 0.199534, 0, 0
0, 2880.00000, 0.46334, 0.197382, 0.491104, 0.209209, 0.468392, 0.199534, 0, 0
0, 2940.00000, 0.46334, 0.197382, 0.491104, 0.209209, 0.468392, 0.199534, 0, 0
0, 3000.00000, 0.46334, 0.197382, 0.491104, 0.209209, 0.468392, 0.199534, 0, 0
0, 3060.00000, 0.46334, 0.197382, 0.491104, 0.209209, 0.468392, 0.199534, 0, 0
0, 3120.00000, 0.46334, 0.197382, 0.491104, 0.209209, 0.468392, 0.199534, 0, 0
0, 3180.00000, 0.46334, 0.197382, 0.491104, 0.209209, 0.468392, 0.199534, 0, 0
0, 3240.00000, 0.46334, 0.197382, 0.491104, 0.209209, 0.468392, 0.199534, 0, 0
0, 3300.00000, 0.46334, 0.197382, 0.491104, 0.209209, 0.468392, 0.199534, 0, 0
0, 3360.00000, 0.46334, 0.197382, 0.491104, 0.209209, 0.468392, 0.199534, 0, 0
0, 3420.00000, 0.46334, 0.197382, 0.491104, 0.209209, 0.468392, 0.199534, 0, 0
0, 3480.00000, 0.46334, 0.197382, 0.491104, 0.209209, 0.468392, 0.199534, 0, 0
0, 3540.00000, 0.46334, 0.197382, 0.491104, 0.209209, 0.468392, 0.199534, 0, 0
1, 0.00000, 0.46334, 0.197382, 0.491104, 0.209209, 0.468392, 0.199534, 0, 0
1, 60.00000, 0.465865, 0.198459, 0.491111, 0.209212, 0.4693, 0.199923, 0, 0
1, 120.00000, 0.465868, 0.198459, 0.49111, 0.209212, 0.469303, 0.199922, 0, 0
1, 180.00000, 0.465868, 0.198459, 0.49111, 0.209212, 0.469303, 0.199922, 0, 0
1, 240.00000, 0.465868, 0.198459, 0.49111, 0.209212, 0.469303, 0.199922, 0, 0
1, 300.00000, 0.465868, 0.198459, 0.49111, 0.209212, 0.469303, 0.199922, 0, 0
1, 360.00000, 0.465868, 0.198459, 0.49111, 0.209212, 0.469303, 0.199922, 0, 0
1, 420.00000, 0.465868, 0.198459, 0.49111, 0.209212, 0.469303, 0.199922, 0, 0
1, 480.00000, 0.465868, 0.198459, 0.49111, 0.209212, 0.469303, 0.199922, 0, 0
1, 540.00000, 0.465868, 0.198459, 0.49111, 0.209212, 0.469303, 0.199922, 0, 0
1, 600.00000, 0.465868, 0.198459, 0.49111, 0.209212, 0.469303, 0.199922, 0, 0
1, 660.00000, 0.465868, 0.198459, 0.49111, 0.209212, 0.469303, 0.199922, 0, 0
1, 720.00000, 0.465868, 0.198459, 0.49111, 0.209212, 0.469303, 0.199922, 0, 0
1, 780.00000, 0.470198, 0.200305, 0.491143, 0.209226, 0.471752, 0.200967, 0, 0
1, 840.00000, 0.470202, 0.200305, 0.491143, 0.209226, 0.471754, 0.200966, 0, 0
1, 900.00000, 0.470202, 0.200305, 0.491143, 0.209226, 0.471754, 0.200966, 0, 0
1, 960.00000, 0.470202, 0.200305, 0.491143, 0.209226, 0.471754, 0.200966, 0, 0
1, 1020.00000, 0.470202, 0.200305, 0.491143, 0.209226, 0.471754, 0.200966, 0, 0
1, 1080.00000, 0.470202, 0.200305, 0.491143, 0.209226, 0.471754, 0.200966, 0, 0
1, 1140.00000, 0.470202, 0.200305, 0.491143, 0.209226, 0.471754, 0.200966, 0, 0
1, 1200.00000, 0.470202, 0.200305, 0.491143, 0.209226, 0.471754, 0.200966, 0, 0
1, 1260.00000, 0.470202, 0.200305, 0.491143, 0.209226, 0.471754, 0.200966, 0, 0
1, 1320.00000, 0.470202, 0.200305, 0.491143, 0.209226, 0.471754, 0.200966, 0, 0
1, 1380.00000, 0.470202, 0.200305, 0.491143, 0.209226, 0.471754, 0.200966, 0, 0
1, 1440.00000, 0.470202, 0.200305, 0.491143, 0.209226, 0.471754, 0.200966, 0, 0
1, 1500.00000, 0.470202, 0.200305, 0.491143, 0.209226, 0.471754, 0.200966, 0, 0
1, 1560.00000, 0.470202, 0.200305, 0.491143, 0.209226, 0.471754, 0.200966, 0, 0
1, 1620.00000, 0.470202, 0.200305, 0.491143, 0.209226, 0.471754, 0.200966, 0, 0
1, 1680.00000, 0.470202, 0.200305, 0.491143, 0.209226, 0.471754, 0.200966, 0, 0
1, 1740.00000, 0.470202, 0.200305, 0.491143, 0.209226, 0.471754, 0.200966, 0, 0
1, 1800.00000, 0.470202, 0.200305, 0.491143, 0.209226, 0.471754, 0.200966, 0, 0
1, 1860.00000, 0.470202, 0.200305, 0.491143, 0.209226, 0.471754, 0.200966, 0, 0
1, 1920.00000, 0.470202, 0.200305, 0.491143, 0.209226, 0.471754, 0.200966, 0, 0
1, 1980.00000, 0.470202, 0.200305, 0.491143, 0.209226, 0.471754, 0.200966, 0, 0
1, 2040.00000, 0.470202, 0.200305, 0.491143, 0.209226, 0.471754, 0.200966, 0, 0
1, 2100.00000, 0.470202, 0.200305, 0.491143, 0.209226, 0.471754, 0.200966, 0, 0
1, 2160.00000, 0.470202, 0.200305, 0.491143, 0.209226, 0.471754, 0.200966, 0, 0
1, 2220.00000, 0.478246, 0.203733, 0.491059, 0.20919, 0.478187, 0.203708, 0, 0
1, 2280.00000, 0.478251, 0.203734, 0.491058, 0.20919, 0.47819, 0.203708, 0, 0
1, 2340.00000, 0.478251, 0.203734, 0.491058, 0.20919, 0.47819, 0.203708, 0, 0
1, 2400.00000, 0.478251, 0.203734, 0.491058, 0.20919, 0.47819, 0.203708, 0, 0
1, 2460.00000, 0.478251, 0.203734, 0.491058, 0.20919, 0.47819, 0.203708, 0, 0
1, 2520.00000, 0.478251, 0.203734, 0.491058, 0.20919, 0.47819, 0.203708, 0, 0
1, 2580.00000, 0.478251, 0.203734, 0.491058, 0.20919, 0.47819, 0.203708, 0, 0
1, 2640.00000, 0.478251, 0.203734, 0.491058, 0.20919, 0.47819, 0.203708, 0, 0
1, 2700.00000, 0.478251, 0.203734, 0.491058, 0.20919, 0.47819, 0.203708, 0, 0
1, 2760.00000, 0.478251, 0.203734, 0.491058, 0.20919, 0.47819, 0.203708, 0, 0
1, 2820.00000, 0.478251, 0.203734, 0.491058, 0.20919, 0.47819, 0.203708, 0, 0
1, 2880.00000, 0.478251, 0.203734, 0.491058, 0.20919, 0.47819, 0.203708, 0, 0
1, 2940.00000, 0.478251, 0.203734, 0.491058, 0.20919, 0.47819, 0.203708, 0, 0
1, 3000.00000, 0.478251, 0.203734, 0.491058, 0.20919, 0.47819, 0.203708, 0, 0
1, 3060.00000, 0.478251, 0.203734, 0.491058, 0.20919, 0.47819, 0.203708, 0, 0
1, 3120.00000, 0.478251, 0.203734, 0.491058, 0.20919, 0.47819, 0.203708, 0, 0
1, 3180.00000, 0.478251, 0.203734, 0.491058, 0.20919, 0.47819, 0.203708, 0, 0
1, 3240.00000, 0.478251, 0.203734, 0.491058, 0.20919, 0.47819, 0.203708, 0, 0
1, 3300.00000, 0.478251, 0.203734, 0.491058, 0.20919, 0.47819, 0.203708, 0, 0
1, 3360.00000, 0.478251, 0.203734, 0.491058, 0.20919, 0.47819, 0.203708, 0, 0
1, 3420.00000, 0.478251, 0.203734, 0.491058, 0.20919, 0.47819, 0.203708, 0, 0
1, 3480.00000, 0.478251, 0.203734, 0.491058, 0.20919, 0.47819, 0.203708, 0, 0
1, 3540.00000, 0.478251, 0.203734, 0.491058, 0.20919, 0.47819, 0.203708, 0, 0
2, 0.00000, 0.478251, 0.203734, 0.491058, 0.20919, 0.47819, 0.203708, 0, 0
2, 60.00000, 0.478251, 0.203734, 0.491058, 0.20919, 0.47819, 0.203708, 0, 0
2, 120.00000, 0.478251, 0.203734, 0.491058, 0.20919, 0.47819, 0.203708, 0, 0
2, 180.00000, 0.478251, 0.203734, 0.491058, 0.20919, 0.47819, 0.203708, 0, 0
2, 240.00000, 0.478251, 0.203734, 0.491058, 0.20919, 0.47819, 0.203708, 0, 0
2, 300.00000, 0.478251, 0.203734, 0.491058, 0.20919, 0.47819, 0.203708, 0, 0
2, 360.00000, 0.478251, 0.203734, 0.491058, 0.20919, 0.47819, 0.203708, 0, 0
2, 420.00000, 0.478251, 0.203734, 0.491058, 0.20919, 0.47819, 0.203708, 0, 0
2, 480.00000, 0.478251, 0.203734, 0.491058, 0.20919, 0.47819, 0.203708, 0, 0
2, 540.00000, 0.478251, 0.203734, 0.491058, 0.20919, 0.47819, 0.203708, 0, 0
2, 600.00000, 0.478251, 0.203734, 0.491058, 0.20919, 0.47819, 0.203708, 0, 0
2, 660.00000, 0.478251, 0.203734, 0.491058, 0.20919, 0.47819, 0.203708, 0, 0
2, 720.00000, 0.478251, 0.203734, 0.491058, 0.20919, 0.47819, 0.203708, 0, 0
2, 780.00000, 0.478251, 0.203734, 0.491058, 0.20919, 0.47819, 0.203708, 0, 0
2, 840.00000, 0.493421, 0.210199, 0.491001, 0.209166, 0.492006, 0.209595, 0, 0
2, 900.00000, 0.493427, 0.210199, 0.491, 0.209165, 0.492007, 0.209594, 0, 0
2, 960.00000, 0.493427, 0.210199, 0.491, 0.209165, 0.492007, 0.209594, 0, 0
2, 1020.00000, 0.493427, 0.210199, 0.491, 0.209165, 0.492007, 0.209594, 0, 0
2, 1080.00000, 0.493427, 0.210199, 0.491, 0.209165, 0.492007, 0.209594, 0, 0
2, 1140.00000, 0.493427, 0.210199, 0.491, 0.209165, 0.492007, 0.209594, 0, 0
2, 1200.00000, 0.493427, 0.210199, 0.491, 0.209165, 0.492007, 0.209594, 0, 0
2, 1260.00000, 0.493427, 0.210199, 0.491, 0.209165, 0.492007, 0.209594, 0, 0
2, 1320.00000, 0.493427, 0.210199, 0.491, 0.209165, 0.492007, 0.209594, 0, 0
2, 1380.00000, 0.493427, 0.210199, 0.491, 0.209165, 0.492007, 0.209594, 0, 0
2, 1440.00000, 0.493427, 0.210199, 0.491, 0.209165, 0.492007, 0.209594, 0, 0
2, 1500.00000, 0.493427, 0.210199, 0.491, 0.209165, 0.492007, 0.209594, 0, 0
2, 1560.00000, 0.493427, 0.210199, 0.491, 0.209165, 0.492007, 0.209594, 0, 0
2, 1620.00000, 0.493427, 0.210199, 0.491, 0.209165, 0.492007, 0.209594, 0, 0
2, 1680.00000, 0.493427, 0.210199, 0.491, 0.209165, 0.492007, 0.209594, 0, 0
2, 1740.00000, 0.493427, 0.210199, 0.491, 0.209165, 0.492007, 0.209594, 0, 0
2, 1800.00000, 0.493427, 0.210199, 0.491, 0.209165, 0.492007, 0.209594, 0, 0
2, 1860.00000, 0.493427, 0.210199, 0.491, 0.209165, 0.492007, 0.209594, 0, 0
2, 1920.00000, 0.493427, 0.210199, 0.491, 0.209165, 0.492007, 0.209594, 0, 0
2, 1980.00000, 0.493427, 0.210199, 0.491, 0.209165, 0.492007, 0.209594, 0, 0
2, 2040.00000, 0.493427, 0.210199, 0.491, 0.209165, 0.492007, 0.209594, 0, 0
2, 2100.00000, 0.493427, 0.210199, 0.491, 0.209165, 0.492007, 0.209594, 0, 0
2, 2160.00000, 0.493427, 0.210199, 0.491, 0.209165, 0.492007, 0.209594, 0, 0
2, 2220.00000, 0.493427, 0.210199, 0.491, 0.209165, 0.492007, 0.209594, 0, 0
2, 2280.00000, 0.493427, 0.210199, 0.491, 0.209165, 0.492007, 0.209594, 0, 0
2, 2340.00000, 0.493427, 0.210199, 0.491, 0.209165, 0.492007, 0.209594, 0, 0
2, 2400.00000, 0.49833, 0.212293, 0.491015, 0.209172, 0.494797, 0.210786, 0, 0
2, 2460.00000, 0.498347, 0.212295, 0.491013, 0.209171, 0.494803, 0.210785, 0, 0
2, 2520.00000, 0.498347, 0.212295, 0.491013, 0.209171, 0.494803, 0.210785, 0, 0
2, 2580.00000, 0.498347, 0.212295, 0.491013, 0.209171, 0.494803, 0.210785, 0, 0
2, 2640.00000, 0.498347, 0.212295, 0.491013, 0.209171, 0.494803, 0.210785, 0, 0
2, 2700.00000, 0.491433, 0.209349, 0.482918, 0.205721, 0.495281, 0.210989, 0, 0
2, 2760.00000, 0.491431, 0.209349, 0.482914, 0.20572, 0.495284, 0.21099, 0, 0
2, 2820.00000, 0.491431, 0.209349, 0.482914, 0.20572, 0.495284, 0.21099, 0, 0
2, 2880.00000, 0.491431, 0.209349, 0.482914, 0.20572, 0.495284, 0.21099, 0, 0
2, 2940.00000, 0.491431, 0.209349, 0.482914, 0.20572, 0.495284, 0.21099, 0, 0
2, 3000.00000, 0.491431, 0.209349, 0.482914, 0.20572, 0.495284, 0.21099, 0, 0
2, 3060.00000, 0.494383, 0.210611, 0.482893, 0.205711, 0.496489, 0.211506, 0, 0
2, 3120.00000, 0.494393, 0.21061, 0.48289, 0.20571, 0.496493, 0.211505, 0, 0
2, 3180.00000, 0.494393, 0.21061, 0.48289, 0.20571, 0.496493, 0.211505, 0, 0
2, 3240.00000, 0.494393, 0.21061, 0.48289, 0.20571, 0.496493, 0.211505, 0, 0
2, 3300.00000, 0.494393, 0.21061, 0.48289, 0.20571, 0.496493, 0.211505, 0, 0
2, 3360.00000, 0.494393, 0.21061, 0.48289, 0.20571, 0.496493, 0.211505, 0, 0
2, 3420.00000, 0.494393, 0.21061, 0.48289, 0.20571, 0.496493, 0.211505, 0, 0
2, 3480.00000, 0.494393, 0.21061, 0.48289, 0.20571, 0.496493, 0.211505, 0, 0
2, 3540.00000, 0.494393, 0.21061, 0.48289, 0.20571, 0.496493, 0.211505, 0, 0
3, 0.00000, 0.494393, 0.21061, 0.48289, 0.20571, 0.496493, 0.211505, 0, 0
3, 60.00000, 0.494393, 0.21061, 0.48289, 0.20571, 0.496493, 0.211505, 0, 0
3, 120.00000, 0.494393, 0.21061, 0.48289, 0.20571, 0.496493, 0.211505, 0, 0
3, 180.00000, 0.494393, 0.21061, 0.48289, 0.20571, 0.496493, 0.211505, 0, 0
3, 240.00000, 0.494393, 0.21061, 0.48289, 0.20571, 0.496493, 0.211505, 0, 0
3, 300.00000, 0.494393, 0.21061, 0.48289, 0.20571, 0.496493, 0.211505, 0, 0
3, 360.00000, 0.494393, 0.21061, 0.48289, 0.20571, 0.496493, 0.211505, 0, 0
3, 420.00000, 0.494393, 0.21061, 0.48289, 0.20571, 0.496493, 0.211505, 0, 0
3, 480.00000, 0.494393, 0.21061, 0.48289, 0.20571, 0.496493, 0.211505, 0, 0
3, 540.00000, 0.494393, 0.21061, 0.48289, 0.20571, 0.496493, 0.211505, 0, 0
3, 600.00000, 0.494393, 0.21061, 0.48289, 0.20571, 0.496493, 0.211505, 0, 0
3, 660.00000, 0.494393, 0.21061, 0.48289, 0.20571, 0.496493, 0.211505, 0, 0
3, 720.00000, 0.494393, 0.21061, 0.48289, 0.20571, 0.496493, 0.211505, 0, 0
3, 780.00000, 0.494393, 0.21061, 0.48289, 0.20571, 0.496493, 0.211505, 0, 0
3, 840.00000, 0.494393, 0.21061, 0.48289, 0.20571, 0.496493, 0.211505, 0, 0
3, 900.00000, 0.494393, 0.21061, 0.48289, 0.20571, 0.496493, 0.211505, 0, 0
3, 960.00000, 0.494393, 0.21061, 0.48289, 0.20571, 0.496493, 0.211505, 0, 0
3, 1020.00000, 0.494393, 0.21061, 0.48289, 0.20571, 0.496493, 0.211505, 0, 0
3, 1080.00000, 0.494393, 0.21061, 0.48289, 0.20571, 0.496493, 0.211505, 0, 0
3, 1140.00000, 0.494393, 0.21061, 0.48289, 0.20571, 0.496493, 0.211505, 0, 0
3, 1200.00000, 0.494393, 0.21061, 0.48289, 0.20571, 0.496493, 0.211505, 0, 0
3, 1260.00000, 0.494393, 0.21061, 0.48289, 0.20571, 0.496493, 0.211505, 0, 0
3, 1320.00000, 0.494393, 0.21061, 0.48289, 0.20571, 0.496493, 0.211505, 0, 0
3, 1380.00000, 0.494393, 0.21061, 0.48289, 0.20571, 0.496493, 0.211505, 0, 0
3, 1440.00000, 0.494393, 0.21061, 0.48289, 0.20571, 0.496493, 0.211505, 0, 0
3, 1500.00000, 0.494393, 0.21061, 0.48289, 0.20571, 0.496493, 0.211505, 0, 0
3, 1560.00000, 0.494393, 0.21061, 0.48289, 0.20571, 0.496493, 0.211505, 0, 0
3, 1620.00000, 0.494393, 0.21061, 0.48289, 0.20571, 0.496493, 0.211505, 0, 0
3, 1680.00000, 0.494393, 0.21061, 0.48289, 0.20571, 0.496493, 0.211505, 0, 0
3, 1740.00000, 0.494393, 0.21061, 0.48289, 0.20571, 0.496493, 0.211505, 0, 0
3, 1800.00000, 0.494393, 0.21061, 0.48289, 0.20571, 0.496493, 0.211505, 0, 0
3, 1860.00000, 0.494393, 0.21061, 0.48289, 0.20571, 0.496493, 0.211505, 0, 0
3, 1920.00000, 0.494393, 0.21061, 0.48289, 0.20571, 0.496493, 0.211505, 0, 0
3, 1980.00000, 0.494393, 0.21061, 0.48289, 0.20571, 0.496493, 0.211505, 0, 0
3, 2040.00000, 0.494393, 0.21061, 0.48289, 0.20571, 0.496493, 0.211505, 0, 0
3, 2100.00000, 0.494393, 0.21061, 0.48289, 0.20571, 0.496493, 0.211505, 0, 0
3, 2160.00000, 0.494393, 0.21061, 0.48289, 0.20571, 0.496493, 0.211505, 0, 0
3, 2220.00000, 0.494393, 0.21061, 0.48289, 0.20571, 0.496493, 0.211505, 0, 0
3, 2280.00000, 0.494393, 0.21061, 0.48289, 0.20571, 0.496493, 0.211505, 0, 0
3, 2340.00000, 0.494393, 0.21061, 0.48289, 0.20571, 0.496493, 0.211505, 0, 0
3, 2400.00000, 0.494393, 0.21061, 0.48289, 0.20571, 0.496493, 0.211505, 0, 0
3, 2460.00000, 0.494393, 0.21061, 0.48289, 0.20571, 0.496493, 0.211505, 0, 0
3, 2520.00000, 0.494393, 0.21061, 0.48289, 0.20571, 0.496493, 0.211505, 0, 0
3, 2580.00000, 0.494393, 0.21061, 0.48289, 0.20571, 0.496493, 0.211505, 0, 0
3, 2640.00000, 0.494393, 0.21061, 0.48289, 0.20571, 0.496493, 0.211505, 0, 0
3, 2700.00000, 0.494393, 0.21061, 0.48289, 0.20571, 0.496493, 0.211505, 0, 0
3, 2760.00000, 0.494393, 0.21061, 0.48289, 0.20571, 0.496493, 0.211505, 0, 0
3, 2820.00000, 0.494393, 0.21061, 0.48289, 0.20571, 0.496493, 0.211505, 0, 0
3, 2880.00000, 0.494393, 0.21061, 0.48289, 0.20571, 0.496493, 0.211505, 0, 0
3, 2940.00000, 0.494393, 0.21061, 0.48289, 0.20571, 0.496493, 0.211505, 0, 0
3, 3000.00000, 0.494393, 0.21061, 0.48289, 0.20571, 0.496493, 0.211505, 0, 0
3, 3060.00000, 0.494393, 0.21061, 0.48289, 0.20571, 0.496493, 0.211505, 0, 0
3, 3120.00000, 0.494393, 0.21061, 0.48289, 0.20571, 0.496493, 0.211505, 0, 0
3, 3180.00000, 0.521262, 0.222055, 0.509228, 0.21693, 0.523556, 0.223032, 0, 0
3, 3240.00000, 0.521259, 0.222055, 0.509227, 0.21693, 0.523552, 0.223032, 0, 0
3, 3300.00000, 0.521259, 0.222055, 0.509227, 0.21693, 0.523552, 0.223032, 0, 0
3, 3360.00000, 0.521259, 0.222055, 0.509227, 0.21693, 0.523552, 0.223032, 0, 0
3, 3420.00000, 0.521259, 0.222055, 0.509227, 0.21693, 0.523552, 0.223032, 0, 0
3, 3480.00000, 0.521259, 0.222055, 0.509227, 0.21693, 0.523552, 0.223032, 0, 0
3, 3540.00000, 0.521259, 0.222055, 0.509227, 0.21693, 0.523552, 0.223032, 0, 0
4, 0.00000, 0.521259, 0.222055, 0.509227, 0.21693, 0.523552, 0.223032, 0, 0
4, 60.00000, 0.521259, 0.222055, 0.509227, 0.21693, 0.523552, 0.223032, 0, 0
4, 120.00000, 0.521259, 0.222055, 0.509227, 0.21693, 0.523552, 0.223032, 0, 0
4, 180.00000, 0.521259, 0.222055, 0.509227, 0.21693, 0.523552, 0.223032, 0, 0
4, 240.00000, 0.521259, 0.222055, 0.509227, 0.21693, 0.523552, 0.223032, 0, 0
4, 300.00000, 0.521259, 0.222055, 0.509227, 0.21693, 0.523552, 0.223032, 0, 0
4, 360.00000, 0.521259, 0.222055, 0.509227, 0.21693, 0.523552, 0.223032, 0, 0
4, 420.00000, 0.521259, 0.222055, 0.509227, 0.21693, 0.523552, 0.223032, 0, 0
4, 480.00000, 0.521259, 0.222055, 0.509227, 0.21693, 0.523552, 0.223032, 0, 0
4, 540.00000, 0.521259, 0.222055, 0.509227, 0.21693, 0.523552, 0.223032, 0, 0
4, 600.00000, 0.521259, 0.222055, 0.509227, 0.21693, 0.523552, 0.223032, 0, 0
4, 660.00000, 0.521259, 0.222055, 0.509227, 0.21693, 0.523552, 0.223032, 0, 0
4, 720.00000, 0.521259, 0.222055, 0.509227, 0.21693, 0.523552, 0.223032, 0, 0
4, 780.00000, 0.521259, 0.222055, 0.509227, 0.21693, 0.523552, 0.223032, 0, 0
4, 840.00000, 0.521259, 0.222055, 0.509227, 0.21693, 0.523552, 0.223032, 0, 0
4, 900.00000, 0.521259, 0.222055, 0.509227, 0.21693, 0.523552, 0.223032, 0, 0
