hour,t(sec),V1,VAngle1,V2,VAngle2,V3,VAngle3,V4,VAngle4,I1,IAngle1,I2,IAngle2,I3,IAngle3,I4,IAngle4
0, 60.00000, 116.546, -31.0902, 117.134, -150.782, 118.055, 88.8362, 0, 0, 3.60926, -54.1639, 3.62953, -173.855, 3.66123, 65.7624, 0.0251222, -107.241
0, 120.00000, 116.546, -31.0902, 117.134, -150.782, 118.055, 88.8362, 0, 0, 3.60923, -54.1641, 3.6295, -173.856, 3.66121, 65.7623, 0.0251312, -107.233
0, 180.00000, 116.546, -31.0902, 117.134, -150.782, 118.055, 88.8362, 0, 0, 3.60923, -54.1641, 3.6295, -173.856, 3.66121, 65.7623, 0.0251312, -107.233
0, 240.00000, 116.546, -31.0902, 117.134, -150.782, 118.055, 88.8362, 0, 0, 3.60923, -54.1641, 3.6295, -173.856, 3.66121, 65.7623, 0.0251312, -107.233
0, 300.00000, 116.546, -31.0902, 117.134, -150.782, 118.055, 88.8362, 0, 0, 3.60923, -54.1641, 3.6295, -173.856, 3.66121, 65.7623, 0.0251312, -107.233
0, 360.00000, 116.546, -31.0902, 117.134, -150.782, 118.055, 88.8362, 0, 0, 3.60923, -54.1641, 3.6295, -173.856, 3.66121, 65.7623, 0.0251312, -107.233
0, 420.00000, 116.546, -31.0902, 117.134, -150.782, 118.055, 88.8362, 0, 0, 3.60923, -54.1641, 3.6295, -173.856, 3.66121, 65.7623, 0.0251312, -107.233
0, 480.00000, 117.67, -31.0095, 118.239, -150.704, 119.139, 88.9361, 0, 0, 2.90098, -54.0838, 2.91653, -173.778, 2.94119, 65.8617, 0.0191891, -105.54
0, 540.00000, 117.67, -31.0095, 118.239, -150.704, 119.139, 88.9361, 0, 0, 2.90099, -54.0834, 2.91659, -173.778, 2.94126, 65.8622, 0.0192305, -105.406
0, 600.00000, 117.67, -31.0095, 118.239, -150.704, 119.139, 88.9361, 0, 0, 2.90099, -54.0834, 2.91659, -173.778, 2.94126, 65.8622, 0.0192307, -105.405
0, 660.00000, 117.67, -31.0095, 118.239, -150.704, 119.139, 88.9361, 0, 0, 2.90099, -54.0834, 2.91659, -173.778, 2.94126, 65.8622, 0.0192307, -105.405
0, 720.00000, 117.67, -31.0095, 118.239, -150.704, 119.139, 88.9361, 0, 0, 2.90099, -54.0834, 2.91659, -173.778, 2.94126, 65.8622, 0.0192307, -105.405
0, 780.00000, 117.67, -31.0095, 118.239, -150.704, 119.139, 88.9361, 0, 0, 2.90099, -54.0834, 2.91659, -173.778, 2.94126, 65.8622, 0.0192307, -105.405
0, 840.00000, 117.67, -31.0095, 118.239, -150.704, 119.139, 88.9361, 0, 0, 2.90099, -54.0834, 2.91659, -173.778, 2.94126, 65.8622, 0.0192307, -105.405
0, 900.00000, 117.67, -31.0095, 118.239, -150.704, 119.139, 88.9361, 0, 0, 2.90099, -54.0834, 2.91659, -173.778, 2.94126, 65.8622, 0.0192307, -105.405
0, 960.00000, 117.67, -31.0095, 118.239, -150.704, 119.139, 88.9361, 0, 0, 2.90099, -54.0834, 2.91659, -173.778, 2.94126, 65.8622, 0.0192307, -105.405
0, 1020.00000, 117.67, -31.0095, 118.239, -150.704, 119.139, 88.9361, 0, 0, 2.90099, -54.0834, 2.91659, -173.778, 2.94126, 65.8622, 0.0192307, -105.405
0, 1080.00000, 117.67, -31.0095, 118.239, -150.704, 119.139, 88.9361, 0, 0, 2.90099, -54.0834, 2.91659, -173.778, 2.94126, 65.8622, 0.0192307, -105.405
0, 1140.00000, 117.67, -31.0095, 118.239, -150.704, 119.139, 88.9361, 0, 0, 2.90099, -54.0834, 2.91659, -173.778, 2.94126, 65.8622, 0.0192307, -105.405
0, 1200.00000, 117.67, -31.0095, 118.239, -150.704, 119.139, 88.9361, 0, 0, 2.90099, -54.0834, 2.91659, -173.778, 2.94126, 65.8622, 0.0192307, -105.405
0, 1260.00000, 117.67, -31.0095, 118.239, -150.704, 119.139, 88.9361, 0, 0, 2.90099, -54.0834, 2.91659, -173.778, 2.94126, 65.8622, 0.0192307, -105.405
0, 1320.00000, 117.67, -31.0095, 118.239, -150.704, 119.139, 88.9361, 0, 0, 2.90099, -54.0834, 2.91659, -173.778, 2.94126, 65.8622, 0.0192307, -105.405
0, 1380.00000, 117.67, -31.0095, 118.239, -150.704, 119.139, 88.9361, 0, 0, 2.90099, -54.0834, 2.91659, -173.778, 2.94126, 65.8622, 0.0192307, -105.405
0, 1440.00000, 117.67, -31.0095, 118.239, -150.704, 119.139, 88.9361, 0, 0, 2.90099, -54.0834, 2.91659, -173.778, 2.94126, 65.8622, 0.0192307, -105.405
0, 1500.00000, 117.67, -31.0095, 118.239, -150.704, 119.139, 88.9361, 0, 0, 2.90099, -54.0834, 2.91659, -173.778, 2.94126, 65.8622, 0.0192307, -105.405
0, 1560.00000, 117.67, -31.0095, 118.239, -150.704, 119.139, 88.9361, 0, 0, 2.90099, -54.0834, 2.91659, -173.778, 2.94126, 65.8622, 0.0192307, -105.405
0, 1620.00000, 117.67, -31.0095, 118.239, -150.704, 119.139, 88.9361, 0, 0, 2.90099, -54.0834, 2.91659, -173.778, 2.94126, 65.8622, 0.0192307, -105.405
0, 1680.00000, 117.67, -31.0095, 118.239, -150.704, 119.139, 88.9361, 0, 0, 2.90099, -54.0834, 2.91659, -173.778, 2.94126, 65.8622, 0.0192307, -105.405
0, 1740.00000, 117.67, -31.0095, 118.239, -150.704, 119.139, 88.9361, 0, 0, 2.90099, -54.0834, 2.91659, -173.778, 2.94126, 65.8622, 0.0192307, -105.405
0, 1800.00000, 117.67, -31.0095, 118.239, -150.704, 119.139, 88.9361, 0, 0, 2.90099, -54.0834, 2.91659, -173.778, 2.94126, 65.8622, 0.0192307, -105.405
0, 1860.00000, 117.67, -31.0095, 118.239, -150.704, 119.139, 88.9361, 0, 0, 2.90099, -54.0834, 2.91659, -173.778, 2.94126, 65.8622, 0.0192307, -105.405
0, 1920.00000, 117.67, -31.0095, 118.239, -150.704, 119.139, 88.9361, 0, 0, 2.90099, -54.0834, 2.91659, -173.778, 2.94126, 65.8622, 0.0192307, -105.405
0, 1980.00000, 117.67, -31.0095, 118.239, -150.704, 119.139, 88.9361, 0, 0, 2.90099, -54.0834, 2.91659, -173.778, 2.94126, 65.8622, 0.0192307, -105.405
0, 2040.00000, 117.67, -31.0095, 118.239, -150.704, 119.139, 88.9361, 0, 0, 2.90099, -54.0834, 2.91659, -173.778, 2.94126, 65.8622, 0.0192307, -105.405
0, 2100.00000, 117.67, -31.0095, 118.239, -150.704, 119.139, 88.9361, 0, 0, 2.90099, -54.0834, 2.91659, -173.778, 2.94126, 65.8622, 0.0192307, -105.405
0, 2160.00000, 117.67, -31.0095, 118.239, -150.704, 119.139, 88.9361, 0, 0, 2.90099, -54.0834, 2.91659, -173.778, 2.94126, 65.8622, 0.0192307, -105.405
0, 2220.00000, 117.67, -31.0095, 118.239, -150.704, 119.139, 88.9361, 0, 0, 2.90099, -54.0834, 2.91659, -173.778, 2.94126, 65.8622, 0.0192307, -105.405
0, 2280.00000, 117.67, -31.0095, 118.239, -150.704, 119.139, 88.9361, 0, 0, 2.90099, -54.0834, 2.91659, -173.778, 2.94126, 65.8622, 0.0192307, -105.405
0, 2340.00000, 117.67, -31.0095, 118.239, -150.704, 119.139, 88.9361, 0, 0, 2.90099, -54.0834, 2.91659, -173.778, 2.94126, 65.8622, 0.0192307, -105.405
0, 2400.00000, 117.67, -31.0095, 118.239, -150.704, 119.139, 88.9361, 0, 0, 2.90099, -54.0834, 2.91659, -173.778, 2.94126, 65.8622, 0.0192307, -105.405
0, 2460.00000, 117.67, -31.0095, 118.239, -150.704, 119.139, 88.9361, 0, 0, 2.90099, -54.0834, 2.91659, -173.778, 2.94126, 65.8622, 0.0192307, -105.405
0, 2520.00000, 117.67, -31.0095, 118.239, -150.704, 119.139, 88.9361, 0, 0, 2.90099, -54.0834, 2.91659, -173.778, 2.94126, 65.8622, 0.0192307, -105.405
0, 2580.00000, 117.67, -31.0095, 118.239, -150.704, 119.139, 88.9361, 0, 0, 2.90099, -54.0834, 2.91659, -173.778, 2.94126, 65.8622, 0.0192307, -105.405
0, 2640.00000, 117.67, -31.0095, 118.239, -150.704, 119.139, 88.9361, 0, 0, 2.90099, -54.0834, 2.91659, -173.778, 2.94126, 65.8622, 0.0192307, -105.405
0, 2700.00000, 117.67, -31.0095, 118.239, -150.704, 119.139, 88.9361, 0, 0, 2.90099, -54.0834, 2.91659, -173.778, 2.94126, 65.8622, 0.0192307, -105.405
0, 2760.00000, 117.67, -31.0095, 118.239, -150.704, 119.139, 88.9361, 0, 0, 2.90099, -54.0834, 2.91659, -173.778, 2.94126, 65.8622, 0.0192307, -105.405
0, 2820.00000, 117.67, -31.0095, 118.239, -150.704, 119.139, 88.9361, 0, 0, 2.90099, -54.0834, 2.91659, -173.778, 2.94126, 65.8622, 0.0192307, -105.405
0, 2880.00000, 117.67, -31.0095, 118.239, -150.704, 119.139, 88.9361, 0, 0, 2.90099, -54.0834, 2.91659, -173.778, 2.94126, 65.8622, 0.0192307, -105.405
0, 2940.00000, 117.67, -31.0095, 118.239, -150.704, 119.139, 88.9361, 0, 0, 2.90099, -54.0834, 2.91659, -173.778, 2.94126, 65.8622, 0.0192307, -105.405
0, 3000.00000, 117.67, -31.0095, 118.239, -150.704, 119.139, 88.9361, 0, 0, 2.90099, -54.0834, 2.91659, -173.778, 2.94126, 65.8622, 0.0192307, -105.405
0, 3060.00000, 117.67, -31.0095, 118.239, -150.704, 119.139, 88.9361, 0, 0, 2.90099, -54.0834, 2.91659, -173.778, 2.94126, 65.8622, 0.0192307, -105.405
0, 3120.00000, 117.67, -31.0095, 118.239, -150.704, 119.139, 88.9361, 0, 0, 2.90099, -54.0834, 2.91659, -173.778, 2.94126, 65.8622, 0.0192307, -105.405
0, 3180.00000, 117.67, -31.0095, 118.239, -150.704, 119.139, 88.9361, 0, 0, 2.90099, -54.0834, 2.91659, -173.778, 2.94126, 65.8622, 0.0192307, -105.405
0, 3240.00000, 117.67, -31.0095, 118.239, -150.704, 119.139, 88.9361, 0, 0, 2.90099, -54.0834, 2.91659, -173.778, 2.94126, 65.8622, 0.0192307, -105.405
0, 3300.00000, 117.67, -31.0095, 118.239, -150.704, 119.139, 88.9361, 0, 0, 2.90099, -54.0834, 2.91659, -173.778, 2.94126, 65.8622, 0.0192307, -105.405
0, 3360.00000, 117.67, -31.0095, 118.239, -150.704, 119.139, 88.9361, 0, 0, 2.90099, -54.0834, 2.91659, -173.778, 2.94126, 65.8622, 0.0192307, -105.405
0, 3420.00000, 117.67, -31.0095, 118.239, -150.704, 119.139, 88.9361, 0, 0, 2.90099, -54.0834, 2.91659, -173.778, 2.94126, 65.8622, 0.0192307, -105.405
0, 3480.00000, 117.67, -31.0095, 118.239, -150.704, 119.139, 88.9361, 0, 0, 2.90099, -54.0834, 2.91659, -173.778, 2.94126, 65.8622, 0.0192307, -105.405
0, 3540.00000, 117.67, -31.0095, 118.239, -150.704, 119.139, 88.9361, 0, 0, 2.90099, -54.0834, 2.91659, -173.778, 2.94126, 65.8622, 0.0192307, -105.405
1, 0.00000, 117.67, -31.0095, 118.239, -150.704, 119.139, 88.9361, 0, 0, 2.90099, -54.0834, 2.91659, -173.778, 2.94126, 65.8622, 0.0192307, -105.405
1, 60.00000, 117.67, -31.0095, 118.239, -150.704, 119.139, 88.9361, 0, 0, 2.90099, -54.0834, 2.91659, -173.778, 2.94126, 65.8622, 0.0192307, -105.405
1, 120.00000, 117.67, -31.0095, 118.239, -150.704, 119.139, 88.9361, 0, 0, 2.90099, -54.0834, 2.91659, -173.778, 2.94126, 65.8622, 0.0192307, -105.405
1, 180.00000, 117.67, -31.0095, 118.239, -150.704, 119.139, 88.9361, 0, 0, 2.90099, -54.0834, 2.91659, -173.778, 2.94126, 65.8622, 0.0192307, -105.405
1, 240.00000, 117.67, -31.0095, 118.239, -150.704, 119.139, 88.9361, 0, 0, 2.90099, -54.0834, 2.91659, -173.778, 2.94126, 65.8622, 0.0192307, -105.405
1, 300.00000, 117.67, -31.0095, 118.239, -150.704, 119.139, 88.9361, 0, 0, 2.90099, -54.0834, 2.91659, -173.778, 2.94126, 65.8622, 0.0192307, -105.405
1, 360.00000, 117.67, -31.0095, 118.239, -150.704, 119.139, 88.9361, 0, 0, 2.90099, -54.0834, 2.91659, -173.778, 2.94126, 65.8622, 0.0192307, -105.405
1, 420.00000, 117.67, -31.0095, 118.239, -150.704, 119.139, 88.9361, 0, 0, 2.90099, -54.0834, 2.91659, -173.778, 2.94126, 65.8622, 0.0192307, -105.405
1, 480.00000, 117.67, -31.0095, 118.239, -150.704, 119.139, 88.9361, 0, 0, 2.90099, -54.0834, 2.91659, -173.778, 2.94126, 65.8622, 0.0192307, -105.405
1, 540.00000, 117.67, -31.0095, 118.239, -150.704, 119.139, 88.9361, 0, 0, 2.90099, -54.0834, 2.91659, -173.778, 2.94126, 65.8622, 0.0192307, -105.405
1, 600.00000, 117.67, -31.0095, 118.239, -150.704, 119.139, 88.9361, 0, 0, 2.90099, -54.0834, 2.91659, -173.778, 2.94126, 65.8622, 0.0192307, -105.405
1, 660.00000, 117.67, -31.0095, 118.239, -150.704, 119.139, 88.9361, 0, 0, 2.90099, -54.0834, 2.91659, -173.778, 2.94126, 65.8622, 0.0192307, -105.405
1, 720.00000, 117.67, -31.0095, 118.239, -150.704, 119.139, 88.9361, 0, 0, 2.90099, -54.0834, 2.91659, -173.778, 2.94126, 65.8622, 0.0192307, -105.405
1, 780.00000, 117.67, -31.0095, 118.239, -150.704, 119.139, 88.9361, 0, 0, 2.90099, -54.0834, 2.91659, -173.778, 2.94126, 65.8622, 0.0192307, -105.405
1, 840.00000, 117.67, -31.0095, 118.239, -150.704, 119.139, 88.9361, 0, 0, 2.90099, -54.0834, 2.91659, -173.778, 2.94126, 65.8622, 0.0192307, -105.405
1, 900.00000, 117.67, -31.0095, 118.239, -150.704, 119.139, 88.9361, 0, 0, 2.90099, -54.0834, 2.91659, -173.778, 2.94126, 65.8622, 0.0192307, -105.405
1, 960.00000, 117.67, -31.0095, 118.239, -150.704, 119.139, 88.9361, 0, 0, 2.90099, -54.0834, 2.91659, -173.778, 2.94126, 65.8622, 0.0192307, -105.405
1, 1020.00000, 117.67, -31.0095, 118.239, -150.704, 119.139, 88.9361, 0, 0, 2.90099, -54.0834, 2.91659, -173.778, 2.94126, 65.8622, 0.0192307, -105.405
1, 1080.00000, 117.67, -31.0095, 118.239, -150.704, 119.139, 88.9361, 0, 0, 2.90099, -54.0834, 2.91659, -173.778, 2.94126, 65.8622, 0.0192307, -105.405
1, 1140.00000, 117.67, -31.0095, 118.239, -150.704, 119.139, 88.9361, 0, 0, 2.90099, -54.0834, 2.91659, -173.778, 2.94126, 65.8622, 0.0192307, -105.405
1, 1200.00000, 117.67, -31.0095, 118.239, -150.704, 119.139, 88.9361, 0, 0, 2.90099, -54.0834, 2.91659, -173.778, 2.94126, 65.8622, 0.0192307, -105.405
1, 1260.00000, 117.67, -31.0095, 118.239, -150.704, 119.139, 88.9361, 0, 0, 2.90099, -54.0834, 2.91659, -173.778, 2.94126, 65.8622, 0.0192307, -105.405
1, 1320.00000, 117.67, -31.0095, 118.239, -150.704, 119.139, 88.9361, 0, 0, 2.90099, -54.0834, 2.91659, -173.778, 2.94126, 65.8622, 0.0192307, -105.405
1, 1380.00000, 117.67, -31.0095, 118.239, -150.704, 119.139, 88.9361, 0, 0, 2.90099, -54.0834, 2.91659, -173.778, 2.94126, 65.8622, 0.0192307, -105.405
1, 1440.00000, 117.67, -31.0095, 118.239, -150.704, 119.139, 88.9361, 0, 0, 2.90099, -54.0834, 2.91659, -173.778, 2.94126, 65.8622, 0.0192307, -105.405
1, 1500.00000, 117.67, -31.0095, 118.239, -150.704, 119.139, 88.9361, 0, 0, 2.90099, -54.0834, 2.91659, -173.778, 2.94126, 65.8622, 0.0192307, -105.405
1, 1560.00000, 117.67, -31.0095, 118.239, -150.704, 119.139, 88.9361, 0, 0, 2.90099, -54.0834, 2.91659, -173.778, 2.94126, 65.8622, 0.0192307, -105.405
1, 1620.00000, 117.67, -31.0095, 118.239, -150.704, 119.139, 88.9361, 0, 0, 2.90099, -54.0834, 2.91659, -173.778, 2.94126, 65.8622, 0.0192307, -105.405
1, 1680.00000, 117.67, -31.0095, 118.239, -150.704, 119.139, 88.9361, 0, 0, 2.90099, -54.0834, 2.91659, -173.778, 2.94126, 65.8622, 0.0192307, -105.405
1, 1740.00000, 117.67, -31.0095, 118.239, -150.704, 119.139, 88.9361, 0, 0, 2.90099, -54.0834, 2.91659, -173.778, 2.94126, 65.8622, 0.0192307, -105.405
1, 1800.00000, 117.67, -31.0095, 118.239, -150.704, 119.139, 88.9361, 0, 0, 2.90099, -54.0834, 2.91659, -173.778, 2.94126, 65.8622, 0.0192307, -105.405
1, 1860.00000, 117.67, -31.0095, 118.239, -150.704, 119.139, 88.9361, 0, 0, 2.90099, -54.0834, 2.91659, -173.778, 2.94126, 65.8622, 0.0192307, -105.405
1, 1920.00000, 117.67, -31.0095, 118.239, -150.704, 119.139, 88.9361, 0, 0, 2.90099, -54.0834, 2.91659, -173.778, 2.94126, 65.8622, 0.0192307, -105.405
1, 1980.00000, 117.67, -31.0095, 118.239, -150.704, 119.139, 88.9361, 0, 0, 2.90099, -54.0834, 2.91659, -173.778, 2.94126, 65.8622, 0.0192307, -105.405
1, 2040.00000, 117.67, -31.0095, 118.239, -150.704, 119.139, 88.9361, 0, 0, 2.90099, -54.0834, 2.91659, -173.778, 2.94126, 65.8622, 0.0192307, -105.405
1, 2100.00000, 117.67, -31.0095, 118.239, -150.704, 119.139, 88.9361, 0, 0, 2.90099, -54.0834, 2.91659, -173.778, 2.94126, 65.8622, 0.0192307, -105.405
1, 2160.00000, 117.67, -31.0095, 118.239, -150.704, 119.139, 88.9361, 0, 0, 2.90099, -54.0834, 2.91659, -173.778, 2.94126, 65.8622, 0.0192307, -105.405
1, 2220.00000, 117.67, -31.0095, 118.239, -150.704, 119.139, 88.9361, 0, 0, 2.90099, -54.0834, 2.91659, -173.778, 2.94126, 65.8622, 0.0192307, -105.405
1, 2280.00000, 117.67, -31.0095, 118.239, -150.704, 119.139, 88.9361, 0, 0, 2.90099, -54.0834, 2.91659, -173.778, 2.94126, 65.8622, 0.0192307, -105.405
1, 2340.00000, 117.67, -31.0095, 118.239, -150.704, 119.139, 88.9361, 0, 0, 2.90099, -54.0834, 2.91659, -173.778, 2.94126, 65.8622, 0.0192307, -105.405
1, 2400.00000, 117.67, -31.0095, 118.239, -150.704, 119.139, 88.9361, 0, 0, 2.90099, -54.0834, 2.91659, -173.778, 2.94126, 65.8622, 0.0192307, -105.405
1, 2460.00000, 117.67, -31.0095, 118.239, -150.704, 119.139, 88.9361, 0, 0, 2.90099, -54.0834, 2.91659, -173.778, 2.94126, 65.8622, 0.0192307, -105.405
1, 2520.00000, 117.67, -31.0095, 118.239, -150.704, 119.139, 88.9361, 0, 0, 2.90099, -54.0834, 2.91659, -173.778, 2.94126, 65.8622, 0.0192307, -105.405
1, 2580.00000, 117.67, -31.0095, 118.239, -150.704, 119.139, 88.9361, 0, 0, 2.90099, -54.0834, 2.91659, -173.778, 2.94126, 65.8622, 0.0192307, -105.405
1, 2640.00000, 117.67, -31.0095, 118.239, -150.704, 119.139, 88.9361, 0, 0, 2.90099, -54.0834, 2.91659, -173.778, 2.94126, 65.8622, 0.0192307, -105.405
1, 2700.00000, 117.67, -31.0095, 118.239, -150.704, 119.139, 88.9361, 0, 0, 2.90099, -54.0834, 2.91659, -173.778, 2.94126, 65.8622, 0.0192307, -105.405
1, 2760.00000, 117.67, -31.0095, 118.239, -150.704, 119.139, 88.9361, 0, 0, 2.90099, -54.0834, 2.91659, -173.778, 2.94126, 65.8622, 0.0192307, -105.405
1, 2820.00000, 117.67, -31.0095, 118.239, -150.704, 119.139, 88.9361, 0, 0, 2.90099, -54.0834, 2.91659, -173.778, 2.94126, 65.8622, 0.0192307, -105.405
1, 2880.00000, 117.67, -31.0095, 118.239, -150.704, 119.139, 88.9361, 0, 0, 2.90099, -54.0834, 2.91659, -173.778, 2.94126, 65.8622, 0.0192307, -105.405
1, 2940.00000, 117.67, -31.0095, 118.239, -150.704, 119.139, 88.9361, 0, 0, 2.90099, -54.0834, 2.91659, -173.778, 2.94126, 65.8622, 0.0192307, -105.405
1, 3000.00000, 117.67, -31.0095, 118.239, -150.704, 119.139, 88.9361, 0, 0, 2.90099, -54.0834, 2.91659, -173.778, 2.94126, 65.8622, 0.0192307, -105.405
1, 3060.00000, 117.67, -31.0095, 118.239, -150.704, 119.139, 88.9361, 0, 0, 2.90099, -54.0834, 2.91659, -173.778, 2.94126, 65.8622, 0.0192307, -105.405
1, 3120.00000, 117.67, -31.0095, 118.239, -150.704, 119.139, 88.9361, 0, 0, 2.90099, -54.0834, 2.91659, -173.778, 2.94126, 65.8622, 0.0192307, -105.405
1, 3180.00000, 117.67, -31.0095, 118.239, -150.704, 119.139, 88.9361, 0, 0, 2.90099, -54.0834, 2.91659, -173.778, 2.94126, 65.8622, 0.0192307, -105.405
1, 3240.00000, 117.67, -31.0095, 118.239, -150.704, 119.139, 88.9361, 0, 0, 2.90099, -54.0834, 2.91659, -173.778, 2.94126, 65.8622, 0.0192307, -105.405
1, 3300.00000, 117.67, -31.0095, 118.239, -150.704, 119.139, 88.9361, 0, 0, 2.90099, -54.0834, 2.91659, -173.778, 2.94126, 65.8622, 0.0192307, -105.405
1, 3360.00000, 117.67, -31.0095, 118.239, -150.704, 119.139, 88.9361, 0, 0, 2.90099, -54.0834, 2.91659, -173.778, 2.94126, 65.8622, 0.0192307, -105.405
1, 3420.00000, 117.67, -31.0095, 118.239, -150.704, 119.139, 88.9361, 0, 0, 2.90099, -54.0834, 2.91659, -173.778, 2.94126, 65.8622, 0.0192307, -105.405
1, 3480.00000, 117.67, -31.0095, 118.239, -150.704, 119.139, 88.9361, 0, 0, 2.90099, -54.0834, 2.91659, -173.778, 2.94126, 65.8622, 0.0192307, -105.405
1, 3540.00000, 117.67, -31.0095, 118.239, -150.704, 119.139, 88.9361, 0, 0, 2.90099, -54.0834, 2.91659, -173.778, 2.94126, 65.8622, 0.0192307, -105.405
2, 0.00000, 117.67, -31.0095, 118.239, -150.704, 119.139, 88.9361, 0, 0, 2.90099, -54.0834, 2.91659, -173.778, 2.94126, 65.8622, 0.0192307, -105.405
2, 60.00000, 117.67, -31.0095, 118.239, -150.704, 119.139, 88.9361, 0, 0, 2.90099, -54.0834, 2.91659, -173.778, 2.94126, 65.8622, 0.0192307, -105.405
2, 120.00000, 117.67, -31.0095, 118.239, -150.704, 119.139, 88.9361, 0, 0, 2.90099, -54.0834, 2.91659, -173.778, 2.94126, 65.8622, 0.0192307, -105.405
2, 180.00000, 117.67, -31.0095, 118.239, -150.704, 119.139, 88.9361, 0, 0, 2.90099, -54.0834, 2.91659, -173.778, 2.94126, 65.8622, 0.0192307, -105.405
2, 240.00000, 117.67, -31.0095, 118.239, -150.704, 119.139, 88.9361, 0, 0, 2.90099, -54.0834, 2.91659, -173.778, 2.94126, 65.8622, 0.0192307, -105.405
2, 300.00000, 117.67, -31.0095, 118.239, -150.704, 119.139, 88.9361, 0, 0, 2.90099, -54.0834, 2.91659, -173.778, 2.94126, 65.8622, 0.0192307, -105.405
2, 360.00000, 117.67, -31.0095, 118.239, -150.704, 119.139, 88.9361, 0, 0, 2.90099, -54.0834, 2.91659, -173.778, 2.94126, 65.8622, 0.0192307, -105.405
2, 420.00000, 117.67, -31.0095, 118.239, -150.704, 119.139, 88.9361, 0, 0, 2.90099, -54.0834, 2.91659, -173.778, 2.94126, 65.8622, 0.0192307, -105.405
2, 480.00000, 117.67, -31.0095, 118.239, -150.704, 119.139, 88.9361, 0, 0, 2.90099, -54.0834, 2.91659, -173.778, 2.94126, 65.8622, 0.0192307, -105.405
2, 540.00000, 117.67, -31.0095, 118.239, -150.704, 119.139, 88.9361, 0, 0, 2.90099, -54.0834, 2.91659, -173.778, 2.94126, 65.8622, 0.0192307, -105.405
2, 600.00000, 117.67, -31.0095, 118.239, -150.704, 119.139, 88.9361, 0, 0, 2.90099, -54.0834, 2.91659, -173.778, 2.94126, 65.8622, 0.0192307, -105.405
2, 660.00000, 117.67, -31.0095, 118.239, -150.704, 119.139, 88.9361, 0, 0, 2.90099, -54.0834, 2.91659, -173.778, 2.94126, 65.8622, 0.0192307, -105.405
