hour,t(sec),"P1 (kW)","Q1 (kvar)","P2 (kW)","Q2 (kvar)","P3 (kW)","Q3 (kvar)","P4 (kW)","Q4 (kvar)"
0, 60.00000, 0.937935, 0.399556, 0.954412, 0.406576, 0.947199, 0.403498, 0, 0
0, 120.00000, 0.937928, 0.399556, 0.954406, 0.406575, 0.947187, 0.4035, 0, 0
0, 180.00000, 0.937928, 0.399556, 0.954406, 0.406575, 0.947187, 0.4035, 0, 0
0, 240.00000, 0.937928, 0.399556, 0.954406, 0.406575, 0.947187, 0.4035, 0, 0
0, 300.00000, 0.937928, 0.399556, 0.954406, 0.406575, 0.947187, 0.4035, 0, 0
0, 360.00000, 0.937928, 0.399556, 0.954406, 0.406575, 0.947187, 0.4035, 0, 0
0, 420.00000, 0.937928, 0.399556, 0.954406, 0.406575, 0.947187, 0.4035, 0, 0
0, 480.00000, 0.830429, 0.353763, 0.844577, 0.359792, 0.837693, 0.356864, 0, 0
0, 540.00000, 0.830435, 0.353764, 0.844588, 0.359793, 0.837704, 0.35686, 0, 0
0, 600.00000, 0.830435, 0.353764, 0.844588, 0.359793, 0.837704, 0.35686, 0, 0
0, 660.00000, 0.830435, 0.353764, 0.844588, 0.359793, 0.837704, 0.35686, 0, 0
0, 720.00000, 0.830435, 0.353764, 0.844588, 0.359793, 0.837704, 0.35686, 0, 0
0, 780.00000, 0.830435, 0.353764, 0.844588, 0.359793, 0.837704, 0.35686, 0, 0
0, 840.00000, 0.830435, 0.353764, 0.844588, 0.359793, 0.837704, 0.35686, 0, 0
0, 900.00000, 0.830435, 0.353764, 0.844588, 0.359793, 0.837704, 0.35686, 0, 0
0, 960.00000, 0.808726, 0.344517, 0.844489, 0.359751, 0.818042, 0.34848, 0, 0
0, 1020.00000, 0.808719, 0.344513, 0.84449, 0.359751, 0.818033, 0.348481, 0, 0
0, 1080.00000, 0.808719, 0.344513, 0.84449, 0.359751, 0.818033, 0.348481, 0, 0
0, 1140.00000, 0.808719, 0.344513, 0.84449, 0.359751, 0.818033, 0.348481, 0, 0
0, 1200.00000, 0.808719, 0.344513, 0.84449, 0.359751, 0.818033, 0.348481, 0, 0
0, 1260.00000, 0.808719, 0.344513, 0.84449, 0.359751, 0.818033, 0.348481, 0, 0
0, 1320.00000, 0.808719, 0.344513, 0.84449, 0.359751, 0.818033, 0.348481, 0, 0
0, 1380.00000, 0.808719, 0.344513, 0.84449, 0.359751, 0.818033, 0.348481, 0, 0
0, 1440.00000, 0.808719, 0.344513, 0.84449, 0.359751, 0.818033, 0.348481, 0, 0
0, 1500.00000, 0.808719, 0.344513, 0.84449, 0.359751, 0.818033, 0.348481, 0, 0
0, 1560.00000, 0.808719, 0.344513, 0.84449, 0.359751, 0.818033, 0.348481, 0, 0
0, 1620.00000, 0.808719, 0.344513, 0.84449, 0.359751, 0.818033, 0.348481, 0, 0
0, 1680.00000, 0.808719, 0.344513, 0.84449, 0.359751, 0.818033, 0.348481, 0, 0
0, 1740.00000, 0.808719, 0.344513, 0.84449, 0.359751, 0.818033, 0.348481, 0, 0
0, 1800.00000, 0.795341, 0.338815, 0.844614, 0.359804, 0.807077, 0.343806, 0, 0
0, 1860.00000, 0.795332, 0.33881, 0.844615, 0.359804, 0.807067, 0.343809, 0, 0
0, 1920.00000, 0.795332, 0.33881, 0.844615, 0.359804, 0.807067, 0.343809, 0, 0
0, 1980.00000, 0.795332, 0.33881, 0.844615, 0.359804, 0.807067, 0.343809, 0, 0
0, 2040.00000, 0.795332, 0.33881, 0.844615, 0.359804, 0.807067, 0.343809, 0, 0
0, 2100.00000, 0.795332, 0.33881, 0.844615, 0.359804, 0.807067, 0.343809, 0, 0
0, 2160.00000, 0.795332, 0.33881, 0.844615, 0.359804, 0.807067, 0.343809, 0, 0
0, 2220.00000, 0.795332, 0.33881, 0.844615, 0.359804, 0.807067, 0.343809, 0, 0
0, 2280.00000, 0.795332, 0.33881, 0.844615, 0.359804, 0.807067, 0.343809, 0, 0
0, 2340.00000, 0.795332, 0.33881, 0.844615, 0.359804, 0.807067, 0.343809, 0, 0
0, 2400.00000, 0.795332, 0.33881, 0.844615, 0.359804, 0.807067, 0.343809, 0, 0
0, 2460.00000, 0.795332, 0.33881, 0.844615, 0.359804, 0.807067, 0.343809, 0, 0
0, 2520.00000, 0.795332, 0.33881, 0.844615, 0.359804, 0.807067, 0.343809, 0, 0
0, 2580.00000, 0.795332, 0.33881, 0.844615, 0.359804, 0.807067, 0.343809, 0, 0
0, 2640.00000, 0.795332, 0.33881, 0.844615, 0.359804, 0.807067, 0.343809, 0, 0
0, 2700.00000, 0.795332, 0.33881, 0.844615, 0.359804, 0.807067, 0.343809, 0, 0
0, 2760.00000, 0.800478, 0.341006, 0.844608, 0.3598, 0.809338, 0.344781, 0, 0
0, 2820.00000, 0.800484, 0.341005, 0.844606, 0.359801, 0.809346, 0.34478, 0, 0
0, 2880.00000, 0.800484, 0.341005, 0.844606, 0.359801, 0.809346, 0.34478, 0, 0
0, 2940.00000, 0.800484, 0.341005, 0.844606, 0.359801, 0.809346, 0.34478, 0, 0
0, 3000.00000, 0.800484, 0.341005, 0.844606, 0.359801, 0.809346, 0.34478, 0, 0
0, 3060.00000, 0.800484, 0.341005, 0.844606, 0.359801, 0.809346, 0.34478, 0, 0
0, 3120.00000, 0.800484, 0.341005, 0.844606, 0.359801, 0.809346, 0.34478, 0, 0
0, 3180.00000, 0.800484, 0.341005, 0.844606, 0.359801, 0.809346, 0.34478, 0, 0
0, 3240.00000, 0.800484, 0.341005, 0.844606, 0.359801, 0.809346, 0.34478, 0, 0
0, 3300.00000, 0.800484, 0.341005, 0.844606, 0.359801, 0.809346, 0.34478, 0, 0
0, 3360.00000, 0.800484, 0.341005, 0.844606, 0.359801, 0.809346, 0.34478, 0, 0
0, 3420.00000, 0.800484, 0.341005, 0.844606, 0.359801, 0.809346, 0.34478, 0, 0
0, 3480.00000, 0.800484, 0.341005, 0.844606, 0.359801, 0.809346, 0.34478, 0, 0
0, 3540.00000, 0.800484, 0.341005, 0.844606, 0.359801, 0.809346, 0.34478, 0, 0
1, 0.00000, 0.800484, 0.341005, 0.844606, 0.359801, 0.809346, 0.34478, 0, 0
1, 60.00000, 0.804848, 0.342867, 0.844618, 0.359805, 0.810922, 0.345454, 0, 0
1, 120.00000, 0.804854, 0.342866, 0.844617, 0.359805, 0.810927, 0.345453, 0, 0
1, 180.00000, 0.804854, 0.342866, 0.844617, 0.359805, 0.810927, 0.345453, 0, 0
1, 240.00000, 0.804854, 0.342866, 0.844617, 0.359805, 0.810927, 0.345453, 0, 0
1, 300.00000, 0.804854, 0.342866, 0.844617, 0.359805, 0.810927, 0.345453, 0, 0
1, 360.00000, 0.804854, 0.342866, 0.844617, 0.359805, 0.810927, 0.345453, 0, 0
1, 420.00000, 0.804854, 0.342866, 0.844617, 0.359805, 0.810927, 0.345453, 0, 0
1, 480.00000, 0.804854, 0.342866, 0.844617, 0.359805, 0.810927, 0.345453, 0, 0
1, 540.00000, 0.804854, 0.342866, 0.844617, 0.359805, 0.810927, 0.345453, 0, 0
1, 600.00000, 0.804854, 0.342866, 0.844617, 0.359805, 0.810927, 0.345453, 0, 0
1, 660.00000, 0.804854, 0.342866, 0.844617, 0.359805, 0.810927, 0.345453, 0, 0
1, 720.00000, 0.804854, 0.342866, 0.844617, 0.359805, 0.810927, 0.345453, 0, 0
1, 780.00000, 0.812341, 0.346058, 0.844674, 0.35983, 0.815171, 0.347264, 0, 0
1, 840.00000, 0.812348, 0.346059, 0.844673, 0.359829, 0.815175, 0.347263, 0, 0
1, 900.00000, 0.812348, 0.346059, 0.844673, 0.359829, 0.815175, 0.347263, 0, 0
1, 960.00000, 0.812348, 0.346059, 0.844673, 0.359829, 0.815175, 0.347263, 0, 0
1, 1020.00000, 0.812348, 0.346059, 0.844673, 0.359829, 0.815175, 0.347263, 0, 0
1, 1080.00000, 0.812348, 0.346059, 0.844673, 0.359829, 0.815175, 0.347263, 0, 0
1, 1140.00000, 0.812348, 0.346059, 0.844673, 0.359829, 0.815175, 0.347263, 0, 0
1, 1200.00000, 0.812348, 0.346059, 0.844673, 0.359829, 0.815175, 0.347263, 0, 0
1, 1260.00000, 0.812348, 0.346059, 0.844673, 0.359829, 0.815175, 0.347263, 0, 0
1, 1320.00000, 0.812348, 0.346059, 0.844673, 0.359829, 0.815175, 0.347263, 0, 0
1, 1380.00000, 0.812348, 0.346059, 0.844673, 0.359829, 0.815175, 0.347263, 0, 0
1, 1440.00000, 0.812348, 0.346059, 0.844673, 0.359829, 0.815175, 0.347263, 0, 0
1, 1500.00000, 0.812348, 0.346059, 0.844673, 0.359829, 0.815175, 0.347263, 0, 0
1, 1560.00000, 0.812348, 0.346059, 0.844673, 0.359829, 0.815175, 0.347263, 0, 0
1, 1620.00000, 0.812348, 0.346059, 0.844673, 0.359829, 0.815175, 0.347263, 0, 0
1, 1680.00000, 0.812348, 0.346059, 0.844673, 0.359829, 0.815175, 0.347263, 0, 0
1, 1740.00000, 0.812348, 0.346059, 0.844673, 0.359829, 0.815175, 0.347263, 0, 0
1, 1800.00000, 0.812348, 0.346059, 0.844673, 0.359829, 0.815175, 0.347263, 0, 0
1, 1860.00000, 0.812348, 0.346059, 0.844673, 0.359829, 0.815175, 0.347263, 0, 0
1, 1920.00000, 0.812348, 0.346059, 0.844673, 0.359829, 0.815175, 0.347263, 0, 0
1, 1980.00000, 0.812348, 0.346059, 0.844673, 0.359829, 0.815175, 0.347263, 0, 0
1, 2040.00000, 0.812348, 0.346059, 0.844673, 0.359829, 0.815175, 0.347263, 0, 0
1, 2100.00000, 0.812348, 0.346059, 0.844673, 0.359829, 0.815175, 0.347263, 0, 0
1, 2160.00000, 0.812348, 0.346059, 0.844673, 0.359829, 0.815175, 0.347263, 0, 0
1, 2220.00000, 0.826262, 0.351988, 0.844527, 0.359767, 0.826313, 0.35201, 0, 0
1, 2280.00000, 0.826271, 0.35199, 0.844526, 0.359767, 0.826317, 0.352009, 0, 0
1, 2340.00000, 0.826271, 0.35199, 0.844526, 0.359767, 0.826317, 0.352009, 0, 0
1, 2400.00000, 0.826271, 0.35199, 0.844526, 0.359767, 0.826317, 0.352009, 0, 0
1, 2460.00000, 0.826271, 0.35199, 0.844526, 0.359767, 0.826317, 0.352009, 0, 0
1, 2520.00000, 0.826271, 0.35199, 0.844526, 0.359767, 0.826317, 0.352009, 0, 0
1, 2580.00000, 0.826271, 0.35199, 0.844526, 0.359767, 0.826317, 0.352009, 0, 0
1, 2640.00000, 0.826271, 0.35199, 0.844526, 0.359767, 0.826317, 0.352009, 0, 0
1, 2700.00000, 0.826271, 0.35199, 0.844526, 0.359767, 0.826317, 0.352009, 0, 0
1, 2760.00000, 0.826271, 0.35199, 0.844526, 0.359767, 0.826317, 0.352009, 0, 0
1, 2820.00000, 0.826271, 0.35199, 0.844526, 0.359767, 0.826317, 0.352009, 0, 0
1, 2880.00000, 0.826271, 0.35199, 0.844526, 0.359767, 0.826317, 0.352009, 0, 0
1, 2940.00000, 0.826271, 0.35199, 0.844526, 0.359767, 0.826317, 0.352009, 0, 0
1, 3000.00000, 0.826271, 0.35199, 0.844526, 0.359767, 0.826317, 0.352009, 0, 0
1, 3060.00000, 0.826271, 0.35199, 0.844526, 0.359767, 0.826317, 0.352009, 0, 0
1, 3120.00000, 0.826271, 0.35199, 0.844526, 0.359767, 0.826317, 0.352009, 0, 0
1, 3180.00000, 0.826271, 0.35199, 0.844526, 0.359767, 0.826317, 0.352009, 0, 0
1, 3240.00000, 0.826271, 0.35199, 0.844526, 0.359767, 0.826317, 0.352009, 0, 0
1, 3300.00000, 0.826271, 0.35199, 0.844526, 0.359767, 0.826317, 0.352009, 0, 0
1, 3360.00000, 0.826271, 0.35199, 0.844526, 0.359767, 0.826317, 0.352009, 0, 0
1, 3420.00000, 0.826271, 0.35199, 0.844526, 0.359767, 0.826317, 0.352009, 0, 0
1, 3480.00000, 0.826271, 0.35199, 0.844526, 0.359767, 0.826317, 0.352009, 0, 0
1, 3540.00000, 0.826271, 0.35199, 0.844526, 0.359767, 0.826317, 0.352009, 0, 0
2, 0.00000, 0.826271, 0.35199, 0.844526, 0.359767, 0.826317, 0.352009, 0, 0
2, 60.00000, 0.826271, 0.35199, 0.844526, 0.359767, 0.826317, 0.352009, 0, 0
2, 120.00000, 0.826271, 0.35199, 0.844526, 0.359767, 0.826317, 0.352009, 0, 0
2, 180.00000, 0.826271, 0.35199, 0.844526, 0.359767, 0.826317, 0.352009, 0, 0
2, 240.00000, 0.826271, 0.35199, 0.844526, 0.359767, 0.826317, 0.352009, 0, 0
2, 300.00000, 0.826271, 0.35199, 0.844526, 0.359767, 0.826317, 0.352009, 0, 0
2, 360.00000, 0.826271, 0.35199, 0.844526, 0.359767, 0.826317, 0.352009, 0, 0
2, 420.00000, 0.826271, 0.35199, 0.844526, 0.359767, 0.826317, 0.352009, 0, 0
2, 480.00000, 0.826271, 0.35199, 0.844526, 0.359767, 0.826317, 0.352009, 0, 0
2, 540.00000, 0.826271, 0.35199, 0.844526, 0.359767, 0.826317, 0.352009, 0, 0
2, 600.00000, 0.826271, 0.35199, 0.844526, 0.359767, 0.826317, 0.352009, 0, 0
2, 660.00000, 0.826271, 0.35199, 0.844526, 0.359767, 0.826317, 0.352009, 0, 0
2, 720.00000, 0.826271, 0.35199, 0.844526, 0.359767, 0.826317, 0.352009, 0, 0
2, 780.00000, 0.826271, 0.35199, 0.844526, 0.359767, 0.826317, 0.352009, 0, 0
2, 840.00000, 0.848666, 0.361535, 0.844616, 0.359805, 0.846311, 0.360529, 0, 0
2, 900.00000, 0.848675, 0.361534, 0.844615, 0.359804, 0.846313, 0.360528, 0, 0
2, 960.00000, 0.848675, 0.361534, 0.844615, 0.359804, 0.846313, 0.360528, 0, 0
2, 1020.00000, 0.848675, 0.361534, 0.844615, 0.359804, 0.846313, 0.360528, 0, 0
2, 1080.00000, 0.848675, 0.361534, 0.844615, 0.359804, 0.846313, 0.360528, 0, 0
2, 1140.00000, 0.848675, 0.361534, 0.844615, 0.359804, 0.846313, 0.360528, 0, 0
2, 1200.00000, 0.848675, 0.361534, 0.844615, 0.359804, 0.846313, 0.360528, 0, 0
2, 1260.00000, 0.848675, 0.361534, 0.844615, 0.359804, 0.846313, 0.360528, 0, 0
2, 1320.00000, 0.848675, 0.361534, 0.844615, 0.359804, 0.846313, 0.360528, 0, 0
2, 1380.00000, 0.848675, 0.361534, 0.844615, 0.359804, 0.846313, 0.360528, 0, 0
2, 1440.00000, 0.848675, 0.361534, 0.844615, 0.359804, 0.846313, 0.360528, 0, 0
2, 1500.00000, 0.848675, 0.361534, 0.844615, 0.359804, 0.846313, 0.360528, 0, 0
2, 1560.00000, 0.848675, 0.361534, 0.844615, 0.359804, 0.846313, 0.360528, 0, 0
2, 1620.00000, 0.848675, 0.361534, 0.844615, 0.359804, 0.846313, 0.360528, 0, 0
2, 1680.00000, 0.848675, 0.361534, 0.844615, 0.359804, 0.846313, 0.360528, 0, 0
2, 1740.00000, 0.848675, 0.361534, 0.844615, 0.359804, 0.846313, 0.360528, 0, 0
2, 1800.00000, 0.848675, 0.361534, 0.844615, 0.359804, 0.846313, 0.360528, 0, 0
2, 1860.00000, 0.848675, 0.361534, 0.844615, 0.359804, 0.846313, 0.360528, 0, 0
2, 1920.00000, 0.848675, 0.361534, 0.844615, 0.359804, 0.846313, 0.360528, 0, 0
2, 1980.00000, 0.848675, 0.361534, 0.844615, 0.359804, 0.846313, 0.360528, 0, 0
2, 2040.00000, 0.848675, 0.361534, 0.844615, 0.359804, 0.846313, 0.360528, 0, 0
2, 2100.00000, 0.848675, 0.361534, 0.844615, 0.359804, 0.846313, 0.360528, 0, 0
2, 2160.00000, 0.848675, 0.361534, 0.844615, 0.359804, 0.846313, 0.360528, 0, 0
2, 2220.00000, 0.848675, 0.361534, 0.844615, 0.359804, 0.846313, 0.360528, 0, 0
2, 2280.00000, 0.848675, 0.361534, 0.844615, 0.359804, 0.846313, 0.360528, 0, 0
2, 2340.00000, 0.848675, 0.361534, 0.844615, 0.359804, 0.846313, 0.360528, 0, 0
2, 2400.00000, 0.857108, 0.365136, 0.844641, 0.359816, 0.851111, 0.362578, 0, 0
2, 2460.00000, 0.857138, 0.365139, 0.844637, 0.359814, 0.851122, 0.362577, 0, 0
2, 2520.00000, 0.857138, 0.365139, 0.844637, 0.359814, 0.851122, 0.362577, 0, 0
2, 2580.00000, 0.857138, 0.365139, 0.844637, 0.359814, 0.851122, 0.362577, 0, 0
2, 2640.00000, 0.857138, 0.365139, 0.844637, 0.359814, 0.851122, 0.362577, 0, 0
2, 2700.00000, 0.845246, 0.360073, 0.830712, 0.353879, 0.851943, 0.362926, 0, 0
2, 2760.00000, 0.845243, 0.360072, 0.830706, 0.353879, 0.851949, 0.362929, 0, 0
2, 2820.00000, 0.845243, 0.360072, 0.830705, 0.353879, 0.851949, 0.362929, 0, 0
2, 2880.00000, 0.845243, 0.360072, 0.830705, 0.353879, 0.851949, 0.362929, 0, 0
2, 2940.00000, 0.845243, 0.360072, 0.830705, 0.353879, 0.851949, 0.362929, 0, 0
2, 3000.00000, 0.845243, 0.360072, 0.830705, 0.353879, 0.851949, 0.362929, 0, 0
2, 3060.00000, 0.85032, 0.362244, 0.830669, 0.353863, 0.85402, 0.363816, 0, 0
2, 3120.00000, 0.850337, 0.362242, 0.830665, 0.353862, 0.854028, 0.363814, 0, 0
2, 3180.00000, 0.850337, 0.362242, 0.830665, 0.353862, 0.854028, 0.363814, 0, 0
2, 3240.00000, 0.850337, 0.362242, 0.830665, 0.353862, 0.854028, 0.363814, 0, 0
2, 3300.00000, 0.850337, 0.362242, 0.830665, 0.353862, 0.854028, 0.363814, 0, 0
2, 3360.00000, 0.850337, 0.362242, 0.830665, 0.353862, 0.854028, 0.363814, 0, 0
2, 3420.00000, 0.850337, 0.362242, 0.830665, 0.353862, 0.854028, 0.363814, 0, 0
2, 3480.00000, 0.850337, 0.362242, 0.830665, 0.353862, 0.854028, 0.363814, 0, 0
2, 3540.00000, 0.850337, 0.362242, 0.830665, 0.353862, 0.854028, 0.363814, 0, 0
3, 0.00000, 0.850337, 0.362242, 0.830665, 0.353862, 0.854028, 0.363814, 0, 0
3, 60.00000, 0.850337, 0.362242, 0.830665, 0.353862, 0.854028, 0.363814, 0, 0
3, 120.00000, 0.850337, 0.362242, 0.830665, 0.353862, 0.854028, 0.363814, 0, 0
3, 180.00000, 0.850337, 0.362242, 0.830665, 0.353862, 0.854028, 0.363814, 0, 0
3, 240.00000, 0.850337, 0.362242, 0.830665, 0.353862, 0.854028, 0.363814, 0, 0
3, 300.00000, 0.850337, 0.362242, 0.830665, 0.353862, 0.854028, 0.363814, 0, 0
3, 360.00000, 0.850337, 0.362242, 0.830665, 0.353862, 0.854028, 0.363814, 0, 0
3, 420.00000, 0.850337, 0.362242, 0.830665, 0.353862, 0.854028, 0.363814, 0, 0
3, 480.00000, 0.850337, 0.362242, 0.830665, 0.353862, 0.854028, 0.363814, 0, 0
3, 540.00000, 0.850337, 0.362242, 0.830665, 0.353862, 0.854028, 0.363814, 0, 0
3, 600.00000, 0.850337, 0.362242, 0.830665, 0.353862, 0.854028, 0.363814, 0, 0
3, 660.00000, 0.850337, 0.362242, 0.830665, 0.353862, 0.854028, 0.363814, 0, 0
3, 720.00000, 0.850337, 0.362242, 0.830665, 0.353862, 0.854028, 0.363814, 0, 0
3, 780.00000, 0.850337, 0.362242, 0.830665, 0.353862, 0.854028, 0.363814, 0, 0
3, 840.00000, 0.850337, 0.362242, 0.830665, 0.353862, 0.854028, 0.363814, 0, 0
3, 900.00000, 0.850337, 0.362242, 0.830665, 0.353862, 0.854028, 0.363814, 0, 0
3, 960.00000, 0.850337, 0.362242, 0.830665, 0.353862, 0.854028, 0.363814, 0, 0
3, 1020.00000, 0.850337, 0.362242, 0.830665, 0.353862, 0.854028, 0.363814, 0, 0
3, 1080.00000, 0.850337, 0.362242, 0.830665, 0.353862, 0.854028, 0.363814, 0, 0
3, 1140.00000, 0.850337, 0.362242, 0.830665, 0.353862, 0.854028, 0.363814, 0, 0
3, 1200.00000, 0.850337, 0.362242, 0.830665, 0.353862, 0.854028, 0.363814, 0, 0
3, 1260.00000, 0.850337, 0.362242, 0.830665, 0.353862, 0.854028, 0.363814, 0, 0
3, 1320.00000, 0.850337, 0.362242, 0.830665, 0.353862, 0.854028, 0.363814, 0, 0
3, 1380.00000, 0.850337, 0.362242, 0.830665, 0.353862, 0.854028, 0.363814, 0, 0
3, 1440.00000, 0.850337, 0.362242, 0.830665, 0.353862, 0.854028, 0.363814, 0, 0
3, 1500.00000, 0.850337, 0.362242, 0.830665, 0.353862, 0.854028, 0.363814, 0, 0
3, 1560.00000, 0.850337, 0.362242, 0.830665, 0.353862, 0.854028, 0.363814, 0, 0
3, 1620.00000, 0.850337, 0.362242, 0.830665, 0.353862, 0.854028, 0.363814, 0, 0
3, 1680.00000, 0.850337, 0.362242, 0.830665, 0.353862, 0.854028, 0.363814, 0, 0
3, 1740.00000, 0.850337, 0.362242, 0.830665, 0.353862, 0.854028, 0.363814, 0, 0
3, 1800.00000, 0.850337, 0.362242, 0.830665, 0.353862, 0.854028, 0.363814, 0, 0
3, 1860.00000, 0.850337, 0.362242, 0.830665, 0.353862, 0.854028, 0.363814, 0, 0
3, 1920.00000, 0.850337, 0.362242, 0.830665, 0.353862, 0.854028, 0.363814, 0, 0
3, 1980.00000, 0.850337, 0.362242, 0.830665, 0.353862, 0.854028, 0.363814, 0, 0
3, 2040.00000, 0.850337, 0.362242, 0.830665, 0.353862, 0.854028, 0.363814, 0, 0
3, 2100.00000, 0.850337, 0.362242, 0.830665, 0.353862, 0.854028, 0.363814, 0, 0
3, 2160.00000, 0.850337, 0.362242, 0.830665, 0.353862, 0.854028, 0.363814, 0, 0
3, 2220.00000, 0.850337, 0.362242, 0.830665, 0.353862, 0.854028, 0.363814, 0, 0
3, 2280.00000, 0.850337, 0.362242, 0.830665, 0.353862, 0.854028, 0.363814, 0, 0
3, 2340.00000, 0.850337, 0.362242, 0.830665, 0.353862, 0.854028, 0.363814, 0, 0
3, 2400.00000, 0.850337, 0.362242, 0.830665, 0.353862, 0.854028, 0.363814, 0, 0
3, 2460.00000, 0.850337, 0.362242, 0.830665, 0.353862, 0.854028, 0.363814, 0, 0
3, 2520.00000, 0.850337, 0.362242, 0.830665, 0.353862, 0.854028, 0.363814, 0, 0
3, 2580.00000, 0.850337, 0.362242, 0.830665, 0.353862, 0.854028, 0.363814, 0, 0
3, 2640.00000, 0.850337, 0.362242, 0.830665, 0.353862, 0.854028, 0.363814, 0, 0
3, 2700.00000, 0.850337, 0.362242, 0.830665, 0.353862, 0.854028, 0.363814, 0, 0
3, 2760.00000, 0.850337, 0.362242, 0.830665, 0.353862, 0.854028, 0.363814, 0, 0
3, 2820.00000, 0.850337, 0.362242, 0.830665, 0.353862, 0.854028, 0.363814, 0, 0
3, 2880.00000, 0.850337, 0.362242, 0.830665, 0.353862, 0.854028, 0.363814, 0, 0
3, 2940.00000, 0.850337, 0.362242, 0.830665, 0.353862, 0.854028, 0.363814, 0, 0
3, 3000.00000, 0.850337, 0.362242, 0.830665, 0.353862, 0.854028, 0.363814, 0, 0
3, 3060.00000, 0.850337, 0.362242, 0.830665, 0.353862, 0.854028, 0.363814, 0, 0
3, 3120.00000, 0.850337, 0.362242, 0.830665, 0.353862, 0.854028, 0.363814, 0, 0
3, 3180.00000, 0.896487, 0.381899, 0.875915, 0.373138, 0.900519, 0.383616, 0, 0
3, 3240.00000, 0.896482, 0.3819, 0.875914, 0.373138, 0.900513, 0.383617, 0, 0
3, 3300.00000, 0.896482, 0.3819, 0.875914, 0.373138, 0.900513, 0.383617, 0, 0
3, 3360.00000, 0.896482, 0.3819, 0.875914, 0.373138, 0.900513, 0.383617, 0, 0
3, 3420.00000, 0.896482, 0.3819, 0.875914, 0.373138, 0.900513, 0.383617, 0, 0
3, 3480.00000, 0.896482, 0.3819, 0.875914, 0.373138, 0.900513, 0.383617, 0, 0
3, 3540.00000, 0.896482, 0.3819, 0.875914, 0.373138, 0.900513, 0.383617, 0, 0
4, 0.00000, 0.896482, 0.3819, 0.875914, 0.373138, 0.900513, 0.383617, 0, 0
4, 60.00000, 0.896482, 0.3819, 0.875914, 0.373138, 0.900513, 0.383617, 0, 0
4, 120.00000, 0.896482, 0.3819, 0.875914, 0.373138, 0.900513, 0.383617, 0, 0
4, 180.00000, 0.896482, 0.3819, 0.875914, 0.373138, 0.900513, 0.383617, 0, 0
4, 240.00000, 0.896482, 0.3819, 0.875914, 0.373138, 0.900513, 0.383617, 0, 0
4, 300.00000, 0.896482, 0.3819, 0.875914, 0.373138, 0.900513, 0.383617, 0, 0
4, 360.00000, 0.896482, 0.3819, 0.875914, 0.373138, 0.900513, 0.383617, 0, 0
4, 420.00000, 0.896482, 0.3819, 0.875914, 0.373138, 0.900513, 0.383617, 0, 0
4, 480.00000, 0.896482, 0.3819, 0.875914, 0.373138, 0.900513, 0.383617, 0, 0
4, 540.00000, 0.896482, 0.3819, 0.875914, 0.373138, 0.900513, 0.383617, 0, 0
4, 600.00000, 0.896482, 0.3819, 0.875914, 0.373138, 0.900513, 0.383617, 0, 0
4, 660.00000, 0.896482, 0.3819, 0.875914, 0.373138, 0.900513, 0.383617, 0, 0
