hour,t(sec),V1,VAngle1,V2,VAngle2,V3,VAngle3,V4,VAngle4,I1,IAngle1,I2,IAngle2,I3,IAngle3,I4,IAngle4
0, 60.00000, 118.122, -31.1459, 118.218, -150.58, 119.89, 89.1042, 0, 0, 4.35384, -54.2194, 4.35779, -173.654, 4.42637, 66.0308, 0.0334274, -112.367
0, 120.00000, 118.122, -31.146, 118.218, -150.58, 119.89, 89.1042, 0, 0, 4.35379, -54.2199, 4.35773, -173.654, 4.42621, 66.0303, 0.0332803, -112.422
0, 180.00000, 118.122, -31.146, 118.218, -150.58, 119.89, 89.1042, 0, 0, 4.35379, -54.2199, 4.35773, -173.654, 4.42621, 66.0303, 0.0332778, -112.423
0, 240.00000, 118.122, -31.146, 118.218, -150.58, 119.89, 89.1042, 0, 0, 4.35379, -54.2199, 4.35773, -173.654, 4.42621, 66.0303, 0.0332777, -112.423
0, 300.00000, 118.122, -31.146, 118.218, -150.58, 119.89, 89.1042, 0, 0, 4.35379, -54.2199, 4.35773, -173.654, 4.42621, 66.0303, 0.0332777, -112.423
0, 360.00000, 118.122, -31.146, 118.218, -150.58, 119.89, 89.1042, 0, 0, 4.35379, -54.2199, 4.35773, -173.654, 4.42621, 66.0303, 0.0332777, -112.423
0, 420.00000, 118.122, -31.146, 118.218, -150.58, 119.89, 89.1042, 0, 0, 4.35379, -54.2199, 4.35773, -173.654, 4.42621, 66.0303, 0.0332777, -112.423
0, 480.00000, 118.122, -31.146, 118.218, -150.58, 119.89, 89.1042, 0, 0, 4.35379, -54.2199, 4.35773, -173.654, 4.42621, 66.0303, 0.0332777, -112.423
0, 540.00000, 118.122, -31.146, 118.218, -150.58, 119.89, 89.1042, 0, 0, 4.35379, -54.2199, 4.35773, -173.654, 4.42621, 66.0303, 0.0332777, -112.423
0, 600.00000, 118.122, -31.146, 118.218, -150.58, 119.89, 89.1042, 0, 0, 4.35379, -54.2199, 4.35773, -173.654, 4.42621, 66.0303, 0.0332777, -112.423
0, 660.00000, 118.122, -31.146, 118.218, -150.58, 119.89, 89.1042, 0, 0, 4.35379, -54.2199, 4.35773, -173.654, 4.42621, 66.0303, 0.0332777, -112.423
0, 720.00000, 118.122, -31.146, 118.218, -150.58, 119.89, 89.1042, 0, 0, 4.35379, -54.2199, 4.35773, -173.654, 4.42621, 66.0303, 0.0332777, -112.423
0, 780.00000, 118.122, -31.146, 118.218, -150.58, 119.89, 89.1042, 0, 0, 4.35379, -54.2199, 4.35773, -173.654, 4.42621, 66.0303, 0.0332777, -112.423
0, 840.00000, 118.122, -31.146, 118.218, -150.58, 119.89, 89.1042, 0, 0, 4.35379, -54.2199, 4.35773, -173.654, 4.42621, 66.0303, 0.0332777, -112.423
0, 900.00000, 118.122, -31.146, 118.218, -150.58, 119.89, 89.1042, 0, 0, 4.35379, -54.2199, 4.35773, -173.654, 4.42621, 66.0303, 0.0332777, -112.423
0, 960.00000, 117.899, -31.1701, 118.004, -150.604, 119.677, 89.0762, 0, 0, 4.2519, -54.2439, 4.25607, -173.678, 4.32314, 66.0024, 0.0328123, -112.509
0, 1020.00000, 117.899, -31.1701, 118.004, -150.604, 119.677, 89.0762, 0, 0, 4.25188, -54.244, 4.25605, -173.678, 4.32311, 66.0023, 0.0327979, -112.511
0, 1080.00000, 117.899, -31.1701, 118.004, -150.604, 119.677, 89.0762, 0, 0, 4.25188, -54.244, 4.25605, -173.678, 4.32311, 66.0023, 0.0327979, -112.511
0, 1140.00000, 117.899, -31.1701, 118.004, -150.604, 119.677, 89.0762, 0, 0, 4.25188, -54.244, 4.25605, -173.678, 4.32311, 66.0023, 0.0327979, -112.511
0, 1200.00000, 117.899, -31.1701, 118.004, -150.604, 119.677, 89.0762, 0, 0, 4.25188, -54.244, 4.25605, -173.678, 4.32311, 66.0023, 0.0327979, -112.511
0, 1260.00000, 117.899, -31.1701, 118.004, -150.604, 119.677, 89.0762, 0, 0, 4.25188, -54.244, 4.25605, -173.678, 4.32311, 66.0023, 0.0327979, -112.511
0, 1320.00000, 117.899, -31.1701, 118.004, -150.604, 119.677, 89.0762, 0, 0, 4.25188, -54.244, 4.25605, -173.678, 4.32311, 66.0023, 0.0327979, -112.511
0, 1380.00000, 117.899, -31.1701, 118.004, -150.604, 119.677, 89.0762, 0, 0, 4.25188, -54.244, 4.25605, -173.678, 4.32311, 66.0023, 0.0327979, -112.511
0, 1440.00000, 117.899, -31.1701, 118.004, -150.604, 119.677, 89.0762, 0, 0, 4.25188, -54.244, 4.25605, -173.678, 4.32311, 66.0023, 0.0327979, -112.511
0, 1500.00000, 117.899, -31.1701, 118.004, -150.604, 119.677, 89.0762, 0, 0, 4.25188, -54.244, 4.25605, -173.678, 4.32311, 66.0023, 0.0327979, -112.511
0, 1560.00000, 117.899, -31.1701, 118.004, -150.604, 119.677, 89.0762, 0, 0, 4.25188, -54.244, 4.25605, -173.678, 4.32311, 66.0023, 0.0327979, -112.511
0, 1620.00000, 117.899, -31.1701, 118.004, -150.604, 119.677, 89.0762, 0, 0, 4.25188, -54.244, 4.25605, -173.678, 4.32311, 66.0023, 0.0327979, -112.511
0, 1680.00000, 117.899, -31.1701, 118.004, -150.604, 119.677, 89.0762, 0, 0, 4.25188, -54.244, 4.25605, -173.678, 4.32311, 66.0023, 0.0327979, -112.511
0, 1740.00000, 117.899, -31.1701, 118.004, -150.604, 119.677, 89.0762, 0, 0, 4.25188, -54.244, 4.25605, -173.678, 4.32311, 66.0023, 0.0327979, -112.511
0, 1800.00000, 117.899, -31.1701, 118.004, -150.604, 119.677, 89.0762, 0, 0, 4.25188, -54.244, 4.25605, -173.678, 4.32311, 66.0023, 0.0327979, -112.511
0, 1860.00000, 118.125, -31.1605, 118.221, -150.595, 119.893, 89.0895, 0, 0, 4.02865, -54.2357, 4.03227, -173.669, 4.09553, 66.0147, 0.0306128, -112.51
0, 1920.00000, 118.126, -31.1604, 118.222, -150.595, 119.894, 89.0896, 0, 0, 4.02882, -54.2343, 4.03246, -173.668, 4.09582, 66.0156, 0.0307604, -112.487
0, 1980.00000, 118.126, -31.1604, 118.222, -150.595, 119.894, 89.0896, 0, 0, 4.02882, -54.2343, 4.03246, -173.668, 4.09582, 66.0156, 0.0307611, -112.487
0, 2040.00000, 118.126, -31.1604, 118.222, -150.595, 119.894, 89.0896, 0, 0, 4.02882, -54.2343, 4.03246, -173.668, 4.09582, 66.0156, 0.0307611, -112.487
0, 2100.00000, 118.126, -31.1604, 118.222, -150.595, 119.894, 89.0896, 0, 0, 4.02882, -54.2343, 4.03246, -173.668, 4.09582, 66.0156, 0.0307611, -112.487
0, 2160.00000, 118.126, -31.1604, 118.222, -150.595, 119.894, 89.0896, 0, 0, 4.02882, -54.2343, 4.03246, -173.668, 4.09582, 66.0156, 0.0307611, -112.487
0, 2220.00000, 118.126, -31.1604, 118.222, -150.595, 119.894, 89.0896, 0, 0, 4.02882, -54.2343, 4.03246, -173.668, 4.09582, 66.0156, 0.0307611, -112.487
0, 2280.00000, 118.126, -31.1604, 118.222, -150.595, 119.894, 89.0896, 0, 0, 4.02882, -54.2343, 4.03246, -173.668, 4.09582, 66.0156, 0.0307611, -112.487
0, 2340.00000, 118.126, -31.1604, 118.222, -150.595, 119.894, 89.0896, 0, 0, 4.02882, -54.2343, 4.03246, -173.668, 4.09582, 66.0156, 0.0307611, -112.487
0, 2400.00000, 118.126, -31.1604, 118.222, -150.595, 119.894, 89.0896, 0, 0, 4.02882, -54.2343, 4.03246, -173.668, 4.09582, 66.0156, 0.0307611, -112.487
0, 2460.00000, 118.126, -31.1604, 118.222, -150.595, 119.894, 89.0896, 0, 0, 4.02882, -54.2343, 4.03246, -173.668, 4.09582, 66.0156, 0.0307611, -112.487
0, 2520.00000, 118.126, -31.1604, 118.222, -150.595, 119.894, 89.0896, 0, 0, 4.02882, -54.2343, 4.03246, -173.668, 4.09582, 66.0156, 0.0307611, -112.487
0, 2580.00000, 118.126, -31.1604, 118.222, -150.595, 119.894, 89.0896, 0, 0, 4.02882, -54.2343, 4.03246, -173.668, 4.09582, 66.0156, 0.0307611, -112.487
0, 2640.00000, 118.126, -31.1604, 118.222, -150.595, 119.894, 89.0896, 0, 0, 4.02882, -54.2343, 4.03246, -173.668, 4.09582, 66.0156, 0.0307611, -112.487
0, 2700.00000, 118.126, -31.1604, 118.222, -150.595, 119.894, 89.0896, 0, 0, 4.02882, -54.2343, 4.03246, -173.668, 4.09582, 66.0156, 0.0307611, -112.487
0, 2760.00000, 118.473, -31.1296, 118.556, -150.566, 120.232, 89.1263, 0, 0, 3.95642, -54.2037, 3.95947, -173.64, 4.02158, 66.0521, 0.0299526, -112.385
0, 2820.00000, 118.473, -31.1295, 118.556, -150.566, 120.232, 89.1263, 0, 0, 3.95644, -54.2035, 3.95949, -173.64, 4.02166, 66.0524, 0.0300352, -112.362
0, 2880.00000, 118.473, -31.1295, 118.556, -150.566, 120.232, 89.1263, 0, 0, 3.95644, -54.2034, 3.95949, -173.64, 4.02166, 66.0524, 0.0300365, -112.362
0, 2940.00000, 118.473, -31.1295, 118.556, -150.566, 120.232, 89.1263, 0, 0, 3.95644, -54.2034, 3.95949, -173.64, 4.02166, 66.0524, 0.0300365, -112.362
0, 3000.00000, 118.473, -31.1295, 118.556, -150.566, 120.232, 89.1263, 0, 0, 3.95644, -54.2034, 3.95949, -173.64, 4.02166, 66.0524, 0.0300365, -112.362
0, 3060.00000, 118.473, -31.1295, 118.556, -150.566, 120.232, 89.1263, 0, 0, 3.95644, -54.2034, 3.95949, -173.64, 4.02166, 66.0524, 0.0300365, -112.362
0, 3120.00000, 118.473, -31.1295, 118.556, -150.566, 120.232, 89.1263, 0, 0, 3.95644, -54.2034, 3.95949, -173.64, 4.02166, 66.0524, 0.0300365, -112.362
0, 3180.00000, 118.473, -31.1295, 118.556, -150.566, 120.232, 89.1263, 0, 0, 3.95644, -54.2034, 3.95949, -173.64, 4.02166, 66.0524, 0.0300365, -112.362
0, 3240.00000, 118.473, -31.1295, 118.556, -150.566, 120.232, 89.1263, 0, 0, 3.95644, -54.2034, 3.95949, -173.64, 4.02166, 66.0524, 0.0300365, -112.362
0, 3300.00000, 118.473, -31.1295, 118.556, -150.566, 120.232, 89.1263, 0, 0, 3.95644, -54.2034, 3.95949, -173.64, 4.02166, 66.0524, 0.0300365, -112.362
0, 3360.00000, 118.473, -31.1295, 118.556, -150.566, 120.232, 89.1263, 0, 0, 3.95644, -54.2034, 3.95949, -173.64, 4.02166, 66.0524, 0.0300365, -112.362
0, 3420.00000, 118.473, -31.1295, 118.556, -150.566, 120.232, 89.1263, 0, 0, 3.95644, -54.2034, 3.95949, -173.64, 4.02166, 66.0524, 0.0300365, -112.362
0, 3480.00000, 118.473, -31.1295, 118.556, -150.566, 120.232, 89.1263, 0, 0, 3.95644, -54.2034, 3.95949, -173.64, 4.02166, 66.0524, 0.0300365, -112.362
0, 3540.00000, 118.473, -31.1295, 118.556, -150.566, 120.232, 89.1263, 0, 0, 3.95644, -54.2034, 3.95949, -173.64, 4.02166, 66.0524, 0.0300365, -112.362
1, 0.00000, 118.473, -31.1295, 118.556, -150.566, 120.232, 89.1263, 0, 0, 3.95644, -54.2034, 3.95949, -173.64, 4.02166, 66.0524, 0.0300365, -112.362
1, 60.00000, 118.742, -31.1093, 118.816, -150.549, 120.503, 89.151, 0, 0, 3.64088, -54.1835, 3.64338, -173.622, 3.70075, 66.0768, 0.0277875, -112.148
1, 120.00000, 118.742, -31.1093, 118.816, -150.549, 120.503, 89.151, 0, 0, 3.64089, -54.1832, 3.64339, -173.623, 3.70084, 66.0771, 0.027908, -112.107
1, 180.00000, 118.742, -31.1093, 118.816, -150.549, 120.504, 89.151, 0, 0, 3.64089, -54.1832, 3.64339, -173.623, 3.70085, 66.0771, 0.0279103, -112.106
1, 240.00000, 118.742, -31.1093, 118.816, -150.549, 120.504, 89.151, 0, 0, 3.64089, -54.1832, 3.64339, -173.623, 3.70085, 66.0771, 0.0279103, -112.106
1, 300.00000, 118.742, -31.1093, 118.816, -150.549, 120.504, 89.151, 0, 0, 3.64089, -54.1832, 3.64339, -173.623, 3.70085, 66.0771, 0.0279103, -112.106
1, 360.00000, 118.742, -31.1093, 118.816, -150.549, 120.504, 89.151, 0, 0, 3.64089, -54.1832, 3.64339, -173.623, 3.70085, 66.0771, 0.0279103, -112.106
1, 420.00000, 118.742, -31.1093, 118.816, -150.549, 120.504, 89.151, 0, 0, 3.64089, -54.1832, 3.64339, -173.623, 3.70085, 66.0771, 0.0279103, -112.106
1, 480.00000, 118.742, -31.1093, 118.816, -150.549, 120.504, 89.151, 0, 0, 3.64089, -54.1832, 3.64339, -173.623, 3.70085, 66.0771, 0.0279103, -112.106
1, 540.00000, 118.742, -31.1093, 118.816, -150.549, 120.504, 89.151, 0, 0, 3.64089, -54.1832, 3.64339, -173.623, 3.70085, 66.0771, 0.0279103, -112.106
1, 600.00000, 118.742, -31.1093, 118.816, -150.549, 120.504, 89.151, 0, 0, 3.64089, -54.1832, 3.64339, -173.623, 3.70085, 66.0771, 0.0279103, -112.106
1, 660.00000, 118.742, -31.1093, 118.816, -150.549, 120.504, 89.151, 0, 0, 3.64089, -54.1832, 3.64339, -173.623, 3.70085, 66.0771, 0.0279103, -112.106
1, 720.00000, 118.742, -31.1093, 118.816, -150.549, 120.504, 89.151, 0, 0, 3.64089, -54.1832, 3.64339, -173.623, 3.70085, 66.0771, 0.0279103, -112.106
1, 780.00000, 118.742, -31.1093, 118.816, -150.549, 120.504, 89.151, 0, 0, 3.64089, -54.1832, 3.64339, -173.623, 3.70085, 66.0771, 0.0279103, -112.106
1, 840.00000, 118.742, -31.1093, 118.816, -150.549, 120.504, 89.151, 0, 0, 3.64089, -54.1832, 3.64339, -173.623, 3.70085, 66.0771, 0.0279103, -112.106
1, 900.00000, 118.742, -31.1093, 118.816, -150.549, 120.504, 89.151, 0, 0, 3.64089, -54.1832, 3.64339, -173.623, 3.70085, 66.0771, 0.0279103, -112.106
1, 960.00000, 118.782, -31.106, 118.854, -150.546, 120.543, 89.1548, 0, 0, 3.68035, -54.1804, 3.68281, -173.62, 3.74083, 66.0805, 0.0281196, -112.134
1, 1020.00000, 118.782, -31.1059, 118.854, -150.546, 120.544, 89.1549, 0, 0, 3.68038, -54.1799, 3.68286, -173.62, 3.74098, 66.0809, 0.0282733, -112.084
1, 1080.00000, 118.782, -31.1059, 118.854, -150.546, 120.544, 89.1549, 0, 0, 3.68038, -54.1799, 3.68286, -173.62, 3.74099, 66.081, 0.028276, -112.083
1, 1140.00000, 118.782, -31.1059, 118.854, -150.546, 120.544, 89.1549, 0, 0, 3.68038, -54.1799, 3.68286, -173.62, 3.74099, 66.081, 0.028276, -112.083
1, 1200.00000, 118.782, -31.1059, 118.854, -150.546, 120.544, 89.1549, 0, 0, 3.68038, -54.1799, 3.68286, -173.62, 3.74099, 66.081, 0.028276, -112.083
1, 1260.00000, 118.782, -31.1059, 118.854, -150.546, 120.544, 89.1549, 0, 0, 3.68038, -54.1799, 3.68286, -173.62, 3.74099, 66.081, 0.028276, -112.083
1, 1320.00000, 118.782, -31.1059, 118.854, -150.546, 120.544, 89.1549, 0, 0, 3.68038, -54.1799, 3.68286, -173.62, 3.74099, 66.081, 0.028276, -112.083
1, 1380.00000, 118.782, -31.1059, 118.854, -150.546, 120.544, 89.1549, 0, 0, 3.68038, -54.1799, 3.68286, -173.62, 3.74099, 66.081, 0.028276, -112.083
1, 1440.00000, 118.782, -31.1059, 118.854, -150.546, 120.544, 89.1549, 0, 0, 3.68038, -54.1799, 3.68286, -173.62, 3.74099, 66.081, 0.028276, -112.083
1, 1500.00000, 118.782, -31.1059, 118.854, -150.546, 120.544, 89.1549, 0, 0, 3.68038, -54.1799, 3.68286, -173.62, 3.74099, 66.081, 0.028276, -112.083
1, 1560.00000, 118.782, -31.1059, 118.854, -150.546, 120.544, 89.1549, 0, 0, 3.68038, -54.1799, 3.68286, -173.62, 3.74099, 66.081, 0.028276, -112.083
1, 1620.00000, 118.782, -31.1059, 118.854, -150.546, 120.544, 89.1549, 0, 0, 3.68038, -54.1799, 3.68286, -173.62, 3.74099, 66.081, 0.028276, -112.083
1, 1680.00000, 118.782, -31.1059, 118.854, -150.546, 120.544, 89.1549, 0, 0, 3.68038, -54.1799, 3.68286, -173.62, 3.74099, 66.081, 0.028276, -112.083
1, 1740.00000, 118.782, -31.1059, 118.854, -150.546, 120.544, 89.1549, 0, 0, 3.68038, -54.1799, 3.68286, -173.62, 3.74099, 66.081, 0.028276, -112.083
1, 1800.00000, 118.782, -31.1059, 118.854, -150.546, 120.544, 89.1549, 0, 0, 3.68038, -54.1799, 3.68286, -173.62, 3.74099, 66.081, 0.028276, -112.083
1, 1860.00000, 118.574, -31.1287, 118.653, -150.566, 120.332, 89.1288, 0, 0, 3.908, -54.2023, 3.9109, -173.64, 3.97243, 66.0551, 0.0298105, -112.275
1, 1920.00000, 118.574, -31.1287, 118.653, -150.566, 120.332, 89.1287, 0, 0, 3.908, -54.2026, 3.91089, -173.64, 3.97233, 66.0548, 0.0296883, -112.315
1, 1980.00000, 118.574, -31.1287, 118.653, -150.566, 120.332, 89.1287, 0, 0, 3.908, -54.2026, 3.91089, -173.64, 3.97233, 66.0548, 0.0296859, -112.316
1, 2040.00000, 118.574, -31.1287, 118.653, -150.566, 120.332, 89.1287, 0, 0, 3.908, -54.2026, 3.91089, -173.64, 3.97233, 66.0548, 0.0296859, -112.316
1, 2100.00000, 118.574, -31.1287, 118.653, -150.566, 120.332, 89.1287, 0, 0, 3.908, -54.2026, 3.91089, -173.64, 3.97233, 66.0548, 0.0296859, -112.316
1, 2160.00000, 118.574, -31.1287, 118.653, -150.566, 120.332, 89.1287, 0, 0, 3.908, -54.2026, 3.91089, -173.64, 3.97233, 66.0548, 0.0296859, -112.316
1, 2220.00000, 118.574, -31.1287, 118.653, -150.566, 120.332, 89.1287, 0, 0, 3.908, -54.2026, 3.91089, -173.64, 3.97233, 66.0548, 0.0296859, -112.316
1, 2280.00000, 118.574, -31.1287, 118.653, -150.566, 120.332, 89.1287, 0, 0, 3.908, -54.2026, 3.91089, -173.64, 3.97233, 66.0548, 0.0296859, -112.316
1, 2340.00000, 118.574, -31.1287, 118.653, -150.566, 120.332, 89.1287, 0, 0, 3.908, -54.2026, 3.91089, -173.64, 3.97233, 66.0548, 0.0296859, -112.316
1, 2400.00000, 118.574, -31.1287, 118.653, -150.566, 120.332, 89.1287, 0, 0, 3.908, -54.2026, 3.91089, -173.64, 3.97233, 66.0548, 0.0296859, -112.316
1, 2460.00000, 118.574, -31.1287, 118.653, -150.566, 120.332, 89.1287, 0, 0, 3.908, -54.2026, 3.91089, -173.64, 3.97233, 66.0548, 0.0296859, -112.316
1, 2520.00000, 118.574, -31.1287, 118.653, -150.566, 120.332, 89.1287, 0, 0, 3.908, -54.2026, 3.91089, -173.64, 3.97233, 66.0548, 0.0296859, -112.316
1, 2580.00000, 118.574, -31.1287, 118.653, -150.566, 120.332, 89.1287, 0, 0, 3.908, -54.2026, 3.91089, -173.64, 3.97233, 66.0548, 0.0296859, -112.316
1, 2640.00000, 118.574, -31.1287, 118.653, -150.566, 120.332, 89.1287, 0, 0, 3.908, -54.2026, 3.91089, -173.64, 3.97233, 66.0548, 0.0296859, -112.316
1, 2700.00000, 118.574, -31.1287, 118.653, -150.566, 120.332, 89.1287, 0, 0, 3.908, -54.2026, 3.91089, -173.64, 3.97233, 66.0548, 0.0296859, -112.316
1, 2760.00000, 119.031, -31.0859, 119.098, -150.529, 120.799, 89.1793, 0, 0, 3.7049, -54.1604, 3.70718, -173.603, 3.75744, 66.1048, 0.0202444, -110.843
1, 2820.00000, 119.031, -31.0859, 119.098, -150.529, 120.8, 89.1794, 0, 0, 3.7049, -54.1598, 3.70723, -173.603, 3.75724, 66.1055, 0.0200773, -110.588
1, 2880.00000, 119.031, -31.0859, 119.098, -150.529, 120.8, 89.1794, 0, 0, 3.7049, -54.1598, 3.70723, -173.603, 3.75724, 66.1055, 0.0200753, -110.582
1, 2940.00000, 119.031, -31.0859, 119.098, -150.529, 120.8, 89.1794, 0, 0, 3.7049, -54.1598, 3.70723, -173.603, 3.75724, 66.1055, 0.0200752, -110.582
1, 3000.00000, 119.031, -31.0859, 119.098, -150.529, 120.8, 89.1794, 0, 0, 3.7049, -54.1598, 3.70723, -173.603, 3.75724, 66.1055, 0.0200752, -110.582
1, 3060.00000, 119.031, -31.0859, 119.098, -150.529, 120.8, 89.1794, 0, 0, 3.7049, -54.1598, 3.70723, -173.603, 3.75724, 66.1055, 0.0200752, -110.582
1, 3120.00000, 119.031, -31.0859, 119.098, -150.529, 120.8, 89.1794, 0, 0, 3.7049, -54.1598, 3.70723, -173.603, 3.75724, 66.1055, 0.0200752, -110.582
1, 3180.00000, 119.031, -31.0859, 119.098, -150.529, 120.8, 89.1794, 0, 0, 3.7049, -54.1598, 3.70723, -173.603, 3.75724, 66.1055, 0.0200752, -110.582
1, 3240.00000, 119.031, -31.0859, 119.098, -150.529, 120.8, 89.1794, 0, 0, 3.7049, -54.1598, 3.70723, -173.603, 3.75724, 66.1055, 0.0200752, -110.582
1, 3300.00000, 119.031, -31.0859, 119.098, -150.529, 120.8, 89.1794, 0, 0, 3.7049, -54.1598, 3.70723, -173.603, 3.75724, 66.1055, 0.0200752, -110.582
1, 3360.00000, 119.031, -31.0859, 119.098, -150.529, 120.8, 89.1794, 0, 0, 3.7049, -54.1598, 3.70723, -173.603, 3.75724, 66.1055, 0.0200752, -110.582
1, 3420.00000, 119.031, -31.0859, 119.098, -150.529, 120.8, 89.1794, 0, 0, 3.7049, -54.1598, 3.70723, -173.603, 3.75724, 66.1055, 0.0200752, -110.582
1, 3480.00000, 119.031, -31.0859, 119.098, -150.529, 120.8, 89.1794, 0, 0, 3.7049, -54.1598, 3.70723, -173.603, 3.75724, 66.1055, 0.0200752, -110.582
1, 3540.00000, 119.031, -31.0859, 119.098, -150.529, 120.8, 89.1794, 0, 0, 3.7049, -54.1598, 3.70723, -173.603, 3.75724, 66.1055, 0.0200752, -110.582
2, 0.00000, 119.031, -31.0859, 119.098, -150.529, 120.8, 89.1794, 0, 0, 3.7049, -54.1598, 3.70723, -173.603, 3.75724, 66.1055, 0.0200752, -110.582
2, 60.00000, 118.756, -31.1119, 118.828, -150.552, 120.518, 89.1485, 0, 0, 3.93246, -54.1855, 3.93515, -173.626, 3.99736, 66.0749, 0.0303597, -112.054
2, 120.00000, 118.756, -31.1119, 118.828, -150.552, 120.518, 89.1485, 0, 0, 3.93245, -54.1858, 3.93513, -173.626, 3.99723, 66.0746, 0.0302166, -112.116
2, 180.00000, 118.756, -31.1119, 118.828, -150.552, 120.518, 89.1485, 0, 0, 3.93245, -54.1858, 3.93513, -173.626, 3.99723, 66.0746, 0.0302139, -112.117
2, 240.00000, 118.756, -31.1119, 118.828, -150.552, 120.518, 89.1485, 0, 0, 3.93245, -54.1858, 3.93513, -173.626, 3.99723, 66.0746, 0.0302139, -112.117
2, 300.00000, 118.756, -31.1119, 118.828, -150.552, 120.518, 89.1485, 0, 0, 3.93245, -54.1858, 3.93513, -173.626, 3.99723, 66.0746, 0.0302139, -112.117
2, 360.00000, 118.756, -31.1119, 118.828, -150.552, 120.518, 89.1485, 0, 0, 3.93245, -54.1858, 3.93513, -173.626, 3.99723, 66.0746, 0.0302139, -112.117
2, 420.00000, 118.756, -31.1119, 118.828, -150.552, 120.518, 89.1485, 0, 0, 3.93245, -54.1858, 3.93513, -173.626, 3.99723, 66.0746, 0.0302139, -112.117
2, 480.00000, 118.756, -31.1119, 118.828, -150.552, 120.518, 89.1485, 0, 0, 3.93245, -54.1858, 3.93513, -173.626, 3.99723, 66.0746, 0.0302139, -112.117
2, 540.00000, 118.756, -31.1119, 118.828, -150.552, 120.518, 89.1485, 0, 0, 3.93245, -54.1858, 3.93513, -173.626, 3.99723, 66.0746, 0.0302139, -112.117
2, 600.00000, 118.756, -31.1119, 118.828, -150.552, 120.518, 89.1485, 0, 0, 3.93245, -54.1858, 3.93513, -173.626, 3.99723, 66.0746, 0.0302139, -112.117
2, 660.00000, 118.756, -31.1119, 118.828, -150.552, 120.518, 89.1485, 0, 0, 3.93245, -54.1858, 3.93513, -173.626, 3.99723, 66.0746, 0.0302139, -112.117
