hour,t(sec),V1,VAngle1,V2,VAngle2,V3,VAngle3,V4,VAngle4,I1,IAngle1,I2,IAngle2,I3,IAngle3,I4,IAngle4
0, 60.00000, 119.471, -32.9357, 119.337, -150.952, 124.043, 88.2446, 0, 0, 1.20347, -56.0098, 1.20196, -174.025, 1.18374, 65.1711, 0.0549382, 62.2726
0, 120.00000, 119.473, -32.9497, 119.337, -150.953, 124.078, 88.2393, 0, 0, 1.2035, -56.0238, 1.20195, -174.026, 1.1834, 65.1658, 0.0555231, 62.2771
0, 180.00000, 119.475, -32.9623, 119.336, -150.953, 124.109, 88.2345, 0, 0, 1.20352, -56.0363, 1.20195, -174.027, 1.1831, 65.1609, 0.0560484, 62.2815
0, 240.00000, 119.477, -32.9737, 119.336, -150.954, 124.137, 88.2302, 0, 0, 1.20354, -56.0477, 1.20195, -174.027, 1.18283, 65.1566, 0.056521, 62.2852
0, 300.00000, 119.479, -32.9839, 119.336, -150.954, 124.162, 88.2263, 0, 0, 1.20356, -56.0579, 1.20195, -174.028, 1.18259, 65.1527, 0.0569463, 62.2885
0, 360.00000, 119.481, -32.9931, 119.336, -150.955, 124.184, 88.2228, 0, 0, 1.20358, -56.0671, 1.20194, -174.029, 1.18237, 65.1491, 0.057329, 62.2913
0, 420.00000, 119.482, -33.0014, 119.336, -150.955, 124.205, 88.2196, 0, 0, 1.20359, -56.0753, 1.20194, -174.029, 1.18217, 65.1459, 0.0576735, 62.2937
0, 480.00000, 120.357, -32.9051, 120.158, -150.865, 125.193, 88.3393, 0, 0, 1.27031, -55.979, 1.26797, -173.939, 1.22788, 65.2657, 0.0802578, 63.039
0, 540.00000, 120.359, -32.9119, 120.158, -150.865, 125.209, 88.3367, 0, 0, 1.27032, -55.9858, 1.26797, -173.939, 1.22771, 65.263, 0.0805507, 63.038
0, 600.00000, 120.36, -32.9181, 120.158, -150.866, 125.224, 88.3343, 0, 0, 1.27033, -55.9919, 1.26796, -173.939, 1.22756, 65.2606, 0.0808138, 63.0372
0, 660.00000, 120.361, -32.9236, 120.158, -150.866, 125.237, 88.3322, 0, 0, 1.27034, -55.9975, 1.26796, -173.94, 1.22743, 65.2585, 0.0810505, 63.0365
0, 720.00000, 120.362, -32.9285, 120.158, -150.866, 125.249, 88.3303, 0, 0, 1.27035, -56.0024, 1.26796, -173.94, 1.22731, 65.2565, 0.0812635, 63.0358
0, 780.00000, 120.363, -32.933, 120.158, -150.866, 125.26, 88.3285, 0, 0, 1.27036, -56.0069, 1.26796, -173.94, 1.22721, 65.2548, 0.0814551, 63.0353
0, 840.00000, 120.363, -32.937, 120.158, -150.866, 125.269, 88.327, 0, 0, 1.27037, -56.0109, 1.26796, -173.94, 1.22711, 65.2532, 0.0816276, 63.0347
0, 900.00000, 120.364, -32.9406, 120.158, -150.867, 125.278, 88.3256, 0, 0, 1.27038, -56.0145, 1.26796, -173.94, 1.22702, 65.2518, 0.0817828, 63.0342
0, 960.00000, 120.365, -32.9439, 120.158, -150.867, 125.286, 88.3243, 0, 0, 1.27038, -56.0178, 1.26796, -173.941, 1.22695, 65.2505, 0.0819225, 63.0338
0, 1020.00000, 120.365, -32.9468, 120.158, -150.867, 125.293, 88.3232, 0, 0, 1.27039, -56.0207, 1.26796, -173.941, 1.22688, 65.2494, 0.0820482, 63.0334
0, 1080.00000, 120.366, -32.9495, 120.158, -150.867, 125.299, 88.3221, 0, 0, 1.27039, -56.0234, 1.26796, -173.941, 1.22681, 65.2483, 0.0821613, 63.033
0, 1140.00000, 120.366, -32.9518, 120.158, -150.867, 125.305, 88.3212, 0, 0, 1.2704, -56.0257, 1.26796, -173.941, 1.22676, 65.2474, 0.0822631, 63.0326
0, 1200.00000, 120.366, -32.954, 120.158, -150.867, 125.31, 88.3204, 0, 0, 1.2704, -56.0279, 1.26796, -173.941, 1.2267, 65.2466, 0.0823548, 63.0323
0, 1260.00000, 120.367, -32.9559, 120.157, -150.867, 125.315, 88.3196, 0, 0, 1.27041, -56.0298, 1.26796, -173.941, 1.22666, 65.2458, 0.0824372, 63.0321
0, 1320.00000, 120.367, -32.9576, 120.157, -150.867, 125.319, 88.319, 0, 0, 1.27041, -56.0315, 1.26796, -173.941, 1.22662, 65.2451, 0.0825114, 63.0318
0, 1380.00000, 120.367, -32.9592, 120.157, -150.867, 125.323, 88.3184, 0, 0, 1.27041, -56.0331, 1.26796, -173.941, 1.22658, 65.2445, 0.0825782, 63.0316
0, 1440.00000, 120.367, -32.9606, 120.157, -150.868, 125.326, 88.3178, 0, 0, 1.27042, -56.0345, 1.26796, -173.941, 1.22655, 65.2439, 0.0826383, 63.0314
0, 1500.00000, 120.368, -32.9619, 120.157, -150.868, 125.329, 88.3173, 0, 0, 1.27042, -56.0358, 1.26796, -173.941, 1.22652, 65.2434, 0.0826924, 63.0312
0, 1560.00000, 120.368, -32.963, 120.157, -150.868, 125.332, 88.3169, 0, 0, 1.27042, -56.0369, 1.26795, -173.941, 1.22649, 65.243, 0.0827411, 63.031
0, 1620.00000, 120.368, -32.964, 120.157, -150.868, 125.334, 88.3165, 0, 0, 1.27042, -56.0379, 1.26795, -173.942, 1.22646, 65.2426, 0.0827849, 63.0309
0, 1680.00000, 120.368, -32.9649, 120.157, -150.868, 125.337, 88.3161, 0, 0, 1.27042, -56.0388, 1.26795, -173.942, 1.22644, 65.2422, 0.0828243, 63.0307
0, 1740.00000, 120.368, -32.9658, 120.157, -150.868, 125.339, 88.3158, 0, 0, 1.27043, -56.0397, 1.26795, -173.942, 1.22642, 65.2419, 0.0828598, 63.0306
0, 1800.00000, 120.369, -32.9665, 120.157, -150.868, 125.34, 88.3155, 0, 0, 1.27043, -56.0404, 1.26795, -173.942, 1.22641, 65.2416, 0.0828917, 63.0305
0, 1860.00000, 120.369, -32.9672, 120.157, -150.868, 125.342, 88.3152, 0, 0, 1.27043, -56.0411, 1.26795, -173.942, 1.22639, 65.2413, 0.0829205, 63.0304
0, 1920.00000, 120.369, -32.9678, 120.157, -150.868, 125.343, 88.315, 0, 0, 1.27043, -56.0417, 1.26795, -173.942, 1.22637, 65.2411, 0.0829463, 63.0303
0, 1980.00000, 120.369, -32.9683, 120.157, -150.868, 125.345, 88.3148, 0, 0, 1.27043, -56.0422, 1.26795, -173.942, 1.22636, 65.2409, 0.0829696, 63.0302
0, 2040.00000, 120.369, -32.9688, 120.157, -150.868, 125.346, 88.3146, 0, 0, 1.27043, -56.0427, 1.26795, -173.942, 1.22635, 65.2407, 0.0829905, 63.0301
0, 2100.00000, 120.369, -32.9693, 120.157, -150.868, 125.347, 88.3144, 0, 0, 1.27043, -56.0432, 1.26795, -173.942, 1.22634, 65.2405, 0.0830094, 63.0301
0, 2160.00000, 120.369, -32.9697, 120.157, -150.868, 125.348, 88.3143, 0, 0, 1.27043, -56.0436, 1.26795, -173.942, 1.22633, 65.2404, 0.0830264, 63.03
0, 2220.00000, 120.369, -32.97, 120.157, -150.868, 125.349, 88.3141, 0, 0, 1.27043, -56.0439, 1.26795, -173.942, 1.22632, 65.2402, 0.0830416, 63.03
0, 2280.00000, 120.369, -32.9703, 120.157, -150.868, 125.349, 88.314, 0, 0, 1.27043, -56.0442, 1.26795, -173.942, 1.22631, 65.2401, 0.0830554, 63.0299
0, 2340.00000, 120.369, -32.9706, 120.157, -150.868, 125.35, 88.3139, 0, 0, 1.27043, -56.0445, 1.26795, -173.942, 1.22631, 65.24, 0.0830678, 63.0299
0, 2400.00000, 120.369, -32.9709, 120.157, -150.868, 125.351, 88.3138, 0, 0, 1.27043, -56.0448, 1.26795, -173.942, 1.2263, 65.2399, 0.0830789, 63.0298
0, 2460.00000, 120.369, -32.9711, 120.157, -150.868, 125.351, 88.3137, 0, 0, 1.27043, -56.045, 1.26795, -173.942, 1.2263, 65.2398, 0.0830889, 63.0298
0, 2520.00000, 120.369, -32.9713, 120.157, -150.868, 125.352, 88.3136, 0, 0, 1.27044, -56.0452, 1.26795, -173.942, 1.22629, 65.2397, 0.0830979, 63.0298
0, 2580.00000, 120.369, -32.9715, 120.157, -150.868, 125.352, 88.3135, 0, 0, 1.27044, -56.0454, 1.26795, -173.942, 1.22629, 65.2396, 0.083106, 63.0297
0, 2640.00000, 120.369, -32.9717, 120.157, -150.868, 125.353, 88.3135, 0, 0, 1.27044, -56.0456, 1.26795, -173.942, 1.22628, 65.2396, 0.0831134, 63.0297
0, 2700.00000, 120.369, -32.9718, 120.157, -150.868, 125.353, 88.3134, 0, 0, 1.27044, -56.0458, 1.26795, -173.942, 1.22628, 65.2395, 0.0831199, 63.0297
0, 2760.00000, 120.369, -32.972, 120.157, -150.868, 125.353, 88.3134, 0, 0, 1.27044, -56.0459, 1.26795, -173.942, 1.22627, 65.2394, 0.0831258, 63.0297
0, 2820.00000, 120.369, -32.9721, 120.157, -150.868, 125.354, 88.3133, 0, 0, 1.27044, -56.046, 1.26795, -173.942, 1.22627, 65.2394, 0.0831312, 63.0296
0, 2880.00000, 120.37, -32.9722, 120.157, -150.868, 125.354, 88.3133, 0, 0, 1.27044, -56.0461, 1.26795, -173.942, 1.22627, 65.2393, 0.083136, 63.0296
0, 2940.00000, 120.37, -32.9723, 120.157, -150.868, 125.354, 88.3132, 0, 0, 1.27044, -56.0462, 1.26795, -173.942, 1.22627, 65.2393, 0.0831403, 63.0296
0, 3000.00000, 120.37, -32.9724, 120.157, -150.868, 125.354, 88.3132, 0, 0, 1.27044, -56.0463, 1.26795, -173.942, 1.22626, 65.2393, 0.0831442, 63.0296
0, 3060.00000, 120.37, -32.9725, 120.157, -150.868, 125.355, 88.3132, 0, 0, 1.27044, -56.0464, 1.26795, -173.942, 1.22626, 65.2392, 0.0831477, 63.0296
0, 3120.00000, 120.37, -32.9726, 120.157, -150.868, 125.355, 88.3131, 0, 0, 1.27044, -56.0465, 1.26795, -173.942, 1.22626, 65.2392, 0.0831508, 63.0296
0, 3180.00000, 120.37, -32.9726, 120.157, -150.868, 125.355, 88.3131, 0, 0, 1.27044, -56.0465, 1.26795, -173.942, 1.22626, 65.2392, 0.0831536, 63.0296
0, 3240.00000, 120.37, -32.9727, 120.157, -150.868, 125.355, 88.3131, 0, 0, 1.27044, -56.0466, 1.26795, -173.942, 1.22626, 65.2392, 0.0831562, 63.0296
0, 3300.00000, 120.37, -32.9727, 120.157, -150.868, 125.355, 88.3131, 0, 0, 1.27044, -56.0467, 1.26795, -173.942, 1.22626, 65.2391, 0.0831585, 63.0295
0, 3360.00000, 120.37, -32.9728, 120.157, -150.868, 125.355, 88.313, 0, 0, 1.27044, -56.0467, 1.26795, -173.942, 1.22626, 65.2391, 0.0831605, 63.0295
0, 3420.00000, 120.37, -32.9728, 120.157, -150.868, 125.355, 88.313, 0, 0, 1.27044, -56.0467, 1.26795, -173.942, 1.22625, 65.2391, 0.0831624, 63.0295
0, 3480.00000, 120.37, -32.9729, 120.157, -150.868, 125.356, 88.313, 0, 0, 1.27044, -56.0468, 1.26795, -173.942, 1.22625, 65.2391, 0.0831641, 63.0295
0, 3540.00000, 120.37, -32.9729, 120.157, -150.868, 125.356, 88.313, 0, 0, 1.27044, -56.0468, 1.26795, -173.942, 1.22625, 65.2391, 0.0831656, 63.0295
1, 0.00000, 120.37, -32.9729, 120.157, -150.868, 125.356, 88.313, 0, 0, 1.27044, -56.0469, 1.26795, -173.942, 1.22625, 65.2391, 0.0831669, 63.0295
1, 60.00000, 120.453, -32.8429, 120.443, -150.836, 125.357, 88.3156, 0, 0, 1.27142, -55.9168, 1.2713, -173.91, 1.22624, 65.2416, 0.0835513, 62.8823
1, 120.00000, 120.453, -32.843, 120.443, -150.836, 125.357, 88.3156, 0, 0, 1.27142, -55.9169, 1.2713, -173.91, 1.22624, 65.2416, 0.0835524, 62.8823
1, 180.00000, 120.453, -32.843, 120.443, -150.836, 125.357, 88.3155, 0, 0, 1.27142, -55.9169, 1.2713, -173.91, 1.22624, 65.2416, 0.0835534, 62.8823
1, 240.00000, 120.453, -32.843, 120.443, -150.836, 125.357, 88.3155, 0, 0, 1.27142, -55.9169, 1.2713, -173.91, 1.22624, 65.2416, 0.0835543, 62.8823
1, 300.00000, 120.453, -32.843, 120.443, -150.836, 125.357, 88.3155, 0, 0, 1.27142, -55.9169, 1.2713, -173.91, 1.22624, 65.2416, 0.0835551, 62.8823
1, 360.00000, 120.453, -32.843, 120.443, -150.836, 125.357, 88.3155, 0, 0, 1.27142, -55.917, 1.2713, -173.91, 1.22624, 65.2416, 0.0835558, 62.8823
1, 420.00000, 120.453, -32.843, 120.443, -150.836, 125.357, 88.3155, 0, 0, 1.27142, -55.917, 1.2713, -173.91, 1.22624, 65.2416, 0.0835565, 62.8823
1, 480.00000, 120.453, -32.8431, 120.443, -150.836, 125.357, 88.3155, 0, 0, 1.27142, -55.917, 1.2713, -173.91, 1.22624, 65.2416, 0.0835571, 62.8823
1, 540.00000, 120.453, -32.8431, 120.443, -150.836, 125.357, 88.3155, 0, 0, 1.27142, -55.917, 1.2713, -173.91, 1.22624, 65.2416, 0.0835576, 62.8823
1, 600.00000, 120.453, -32.8431, 120.443, -150.836, 125.357, 88.3155, 0, 0, 1.27142, -55.917, 1.2713, -173.91, 1.22624, 65.2416, 0.0835581, 62.8823
1, 660.00000, 120.453, -32.8431, 120.443, -150.836, 125.357, 88.3155, 0, 0, 1.27142, -55.917, 1.2713, -173.91, 1.22624, 65.2416, 0.0835585, 62.8823
1, 720.00000, 120.453, -32.8431, 120.443, -150.836, 125.357, 88.3155, 0, 0, 1.27142, -55.917, 1.2713, -173.91, 1.22624, 65.2416, 0.0835589, 62.8823
1, 780.00000, 120.453, -32.8431, 120.443, -150.836, 125.357, 88.3155, 0, 0, 1.27142, -55.917, 1.2713, -173.91, 1.22624, 65.2416, 0.0835592, 62.8823
1, 840.00000, 120.453, -32.8431, 120.443, -150.836, 125.357, 88.3155, 0, 0, 1.27142, -55.917, 1.2713, -173.91, 1.22624, 65.2416, 0.0835595, 62.8823
1, 900.00000, 120.453, -32.8431, 120.443, -150.836, 125.357, 88.3155, 0, 0, 1.27142, -55.917, 1.2713, -173.91, 1.22624, 65.2416, 0.0835598, 62.8823
1, 960.00000, 120.453, -32.8431, 120.443, -150.836, 125.357, 88.3155, 0, 0, 1.27142, -55.917, 1.2713, -173.91, 1.22624, 65.2416, 0.08356, 62.8823
1, 1020.00000, 120.453, -32.8431, 120.443, -150.836, 125.357, 88.3155, 0, 0, 1.27142, -55.9171, 1.2713, -173.91, 1.22624, 65.2416, 0.0835603, 62.8823
1, 1080.00000, 120.453, -32.8431, 120.443, -150.836, 125.357, 88.3155, 0, 0, 1.27142, -55.9171, 1.2713, -173.91, 1.22624, 65.2416, 0.0835605, 62.8823
1, 1140.00000, 120.453, -32.8431, 120.443, -150.836, 125.357, 88.3155, 0, 0, 1.27142, -55.9171, 1.2713, -173.91, 1.22624, 65.2416, 0.0835607, 62.8823
1, 1200.00000, 120.453, -32.8432, 120.443, -150.836, 125.357, 88.3155, 0, 0, 1.27142, -55.9171, 1.2713, -173.91, 1.22624, 65.2416, 0.0835608, 62.8823
1, 1260.00000, 120.453, -32.8432, 120.443, -150.836, 125.357, 88.3155, 0, 0, 1.27142, -55.9171, 1.2713, -173.91, 1.22624, 65.2416, 0.083561, 62.8823
1, 1320.00000, 120.453, -32.8432, 120.443, -150.836, 125.357, 88.3155, 0, 0, 1.27142, -55.9171, 1.2713, -173.91, 1.22624, 65.2416, 0.0835611, 62.8823
1, 1380.00000, 120.453, -32.8432, 120.443, -150.836, 125.357, 88.3155, 0, 0, 1.27142, -55.9171, 1.2713, -173.91, 1.22624, 65.2416, 0.0835612, 62.8823
1, 1440.00000, 120.453, -32.8432, 120.443, -150.836, 125.357, 88.3155, 0, 0, 1.27142, -55.9171, 1.2713, -173.91, 1.22624, 65.2416, 0.0835613, 62.8823
1, 1500.00000, 120.453, -32.8432, 120.443, -150.836, 125.357, 88.3155, 0, 0, 1.27142, -55.9171, 1.2713, -173.91, 1.22624, 65.2416, 0.0835614, 62.8823
1, 1560.00000, 120.453, -32.8432, 120.443, -150.836, 125.357, 88.3155, 0, 0, 1.27142, -55.9171, 1.2713, -173.91, 1.22624, 65.2416, 0.0835615, 62.8823
1, 1620.00000, 120.453, -32.8432, 120.443, -150.836, 125.357, 88.3155, 0, 0, 1.27142, -55.9171, 1.2713, -173.91, 1.22624, 65.2416, 0.0835616, 62.8823
1, 1680.00000, 120.453, -32.8432, 120.443, -150.836, 125.357, 88.3155, 0, 0, 1.27142, -55.9171, 1.2713, -173.91, 1.22624, 65.2416, 0.0835617, 62.8823
1, 1740.00000, 120.453, -32.8432, 120.443, -150.836, 125.357, 88.3155, 0, 0, 1.27142, -55.9171, 1.2713, -173.91, 1.22624, 65.2416, 0.0835617, 62.8823
1, 1800.00000, 120.453, -32.8432, 120.443, -150.836, 125.357, 88.3155, 0, 0, 1.27142, -55.9171, 1.2713, -173.91, 1.22624, 65.2416, 0.0835618, 62.8823
1, 1860.00000, 120.453, -32.8432, 120.443, -150.836, 125.357, 88.3155, 0, 0, 1.27142, -55.9171, 1.2713, -173.91, 1.22624, 65.2416, 0.0835618, 62.8823
1, 1920.00000, 120.453, -32.8432, 120.443, -150.836, 125.357, 88.3155, 0, 0, 1.27142, -55.9171, 1.2713, -173.91, 1.22624, 65.2416, 0.0835619, 62.8823
1, 1980.00000, 120.453, -32.8432, 120.443, -150.836, 125.357, 88.3155, 0, 0, 1.27142, -55.9171, 1.2713, -173.91, 1.22624, 65.2416, 0.0835619, 62.8823
1, 2040.00000, 120.453, -32.8432, 120.443, -150.836, 125.357, 88.3155, 0, 0, 1.27142, -55.9171, 1.2713, -173.91, 1.22624, 65.2416, 0.083562, 62.8823
1, 2100.00000, 120.453, -32.8432, 120.443, -150.836, 125.357, 88.3155, 0, 0, 1.27142, -55.9171, 1.2713, -173.91, 1.22624, 65.2416, 0.083562, 62.8823
1, 2160.00000, 120.453, -32.8432, 120.443, -150.836, 125.357, 88.3155, 0, 0, 1.27142, -55.9171, 1.2713, -173.91, 1.22624, 65.2415, 0.083562, 62.8823
1, 2220.00000, 120.453, -32.8432, 120.443, -150.836, 125.357, 88.3155, 0, 0, 1.27142, -55.9171, 1.2713, -173.91, 1.22624, 65.2415, 0.0835621, 62.8823
1, 2280.00000, 120.453, -32.8432, 120.443, -150.836, 125.357, 88.3155, 0, 0, 1.27142, -55.9171, 1.2713, -173.91, 1.22624, 65.2415, 0.0835621, 62.8823
1, 2340.00000, 120.453, -32.8432, 120.443, -150.836, 125.357, 88.3155, 0, 0, 1.27142, -55.9171, 1.2713, -173.91, 1.22624, 65.2415, 0.0835621, 62.8823
1, 2400.00000, 120.453, -32.8432, 120.443, -150.836, 125.357, 88.3155, 0, 0, 1.27142, -55.9171, 1.2713, -173.91, 1.22624, 65.2415, 0.0835621, 62.8823
1, 2460.00000, 120.453, -32.8432, 120.443, -150.836, 125.357, 88.3155, 0, 0, 1.27142, -55.9171, 1.2713, -173.91, 1.22624, 65.2415, 0.0835621, 62.8823
1, 2520.00000, 120.453, -32.8432, 120.443, -150.836, 125.357, 88.3155, 0, 0, 1.27142, -55.9171, 1.2713, -173.91, 1.22624, 65.2415, 0.0835622, 62.8823
1, 2580.00000, 120.453, -32.8432, 120.443, -150.836, 125.357, 88.3155, 0, 0, 1.27142, -55.9171, 1.2713, -173.91, 1.22624, 65.2415, 0.0835622, 62.8823
1, 2640.00000, 120.453, -32.8432, 120.443, -150.836, 125.357, 88.3155, 0, 0, 1.27142, -55.9171, 1.2713, -173.91, 1.22624, 65.2415, 0.0835622, 62.8823
1, 2700.00000, 120.453, -32.8432, 120.443, -150.836, 125.357, 88.3155, 0, 0, 1.27142, -55.9171, 1.2713, -173.91, 1.22624, 65.2415, 0.0835622, 62.8823
1, 2760.00000, 120.453, -32.8432, 120.443, -150.836, 125.357, 88.3155, 0, 0, 1.27142, -55.9171, 1.2713, -173.91, 1.22624, 65.2415, 0.0835622, 62.8823
1, 2820.00000, 120.453, -32.8432, 120.443, -150.836, 125.357, 88.3155, 0, 0, 1.27142, -55.9171, 1.2713, -173.91, 1.22624, 65.2415, 0.0835622, 62.8823
1, 2880.00000, 120.453, -32.8432, 120.443, -150.836, 125.357, 88.3155, 0, 0, 1.27142, -55.9171, 1.2713, -173.91, 1.22624, 65.2415, 0.0835622, 62.8823
1, 2940.00000, 120.453, -32.8432, 120.443, -150.836, 125.357, 88.3155, 0, 0, 1.27142, -55.9171, 1.2713, -173.91, 1.22624, 65.2415, 0.0835622, 62.8823
1, 3000.00000, 120.453, -32.8432, 120.443, -150.836, 125.357, 88.3155, 0, 0, 1.27142, -55.9171, 1.2713, -173.91, 1.22624, 65.2415, 0.0835622, 62.8823
1, 3060.00000, 120.453, -32.8432, 120.443, -150.836, 125.357, 88.3155, 0, 0, 1.27142, -55.9171, 1.2713, -173.91, 1.22624, 65.2415, 0.0835622, 62.8823
1, 3120.00000, 120.453, -32.8432, 120.443, -150.836, 125.357, 88.3155, 0, 0, 1.27142, -55.9171, 1.2713, -173.91, 1.22624, 65.2415, 0.0835623, 62.8823
1, 3180.00000, 120.453, -32.8432, 120.443, -150.836, 125.357, 88.3155, 0, 0, 1.27142, -55.9171, 1.2713, -173.91, 1.22624, 65.2415, 0.0835623, 62.8823
1, 3240.00000, 120.453, -32.8432, 120.443, -150.836, 125.357, 88.3155, 0, 0, 1.27142, -55.9171, 1.2713, -173.91, 1.22624, 65.2415, 0.0835623, 62.8823
1, 3300.00000, 120.453, -32.8432, 120.443, -150.836, 125.357, 88.3155, 0, 0, 1.27142, -55.9171, 1.2713, -173.91, 1.22624, 65.2415, 0.0835623, 62.8823
1, 3360.00000, 120.453, -32.8432, 120.443, -150.836, 125.357, 88.3155, 0, 0, 1.27142, -55.9171, 1.2713, -173.91, 1.22624, 65.2415, 0.0835623, 62.8823
1, 3420.00000, 120.453, -32.8432, 120.443, -150.836, 125.357, 88.3155, 0, 0, 1.27142, -55.9171, 1.2713, -173.91, 1.22624, 65.2415, 0.0835623, 62.8823
1, 3480.00000, 120.453, -32.8432, 120.443, -150.836, 125.357, 88.3155, 0, 0, 1.27142, -55.9171, 1.2713, -173.91, 1.22624, 65.2415, 0.0835623, 62.8823
1, 3540.00000, 120.453, -32.8432, 120.443, -150.836, 125.357, 88.3155, 0, 0, 1.27142, -55.9171, 1.2713, -173.91, 1.22624, 65.2415, 0.0835623, 62.8823
2, 0.00000, 120.453, -32.8432, 120.443, -150.836, 125.357, 88.3155, 0, 0, 1.27142, -55.9171, 1.2713, -173.91, 1.22624, 65.2415, 0.0835623, 62.8823
2, 60.00000, 120.453, -32.8432, 120.443, -150.836, 125.357, 88.3155, 0, 0, 1.27142, -55.9171, 1.2713, -173.91, 1.22624, 65.2415, 0.0835623, 62.8823
2, 120.00000, 120.453, -32.8432, 120.443, -150.836, 125.357, 88.3155, 0, 0, 1.27142, -55.9171, 1.2713, -173.91, 1.22624, 65.2415, 0.0835623, 62.8823
2, 180.00000, 120.453, -32.8432, 120.443, -150.836, 125.357, 88.3155, 0, 0, 1.27142, -55.9171, 1.2713, -173.91, 1.22624, 65.2415, 0.0835623, 62.8823
2, 240.00000, 120.453, -32.8432, 120.443, -150.836, 125.357, 88.3155, 0, 0, 1.27142, -55.9171, 1.2713, -173.91, 1.22624, 65.2415, 0.0835623, 62.8823
2, 300.00000, 120.453, -32.8432, 120.443, -150.836, 125.357, 88.3155, 0, 0, 1.27142, -55.9171, 1.2713, -173.91, 1.22624, 65.2415, 0.0835623, 62.8823
2, 360.00000, 120.453, -32.8432, 120.443, -150.836, 125.357, 88.3155, 0, 0, 1.27142, -55.9171, 1.2713, -173.91, 1.22624, 65.2415, 0.0835623, 62.8823
2, 420.00000, 120.453, -32.8432, 120.443, -150.836, 125.357, 88.3155, 0, 0, 1.27142, -55.9171, 1.2713, -173.91, 1.22624, 65.2415, 0.0835623, 62.8823
2, 480.00000, 120.453, -32.8432, 120.443, -150.836, 125.357, 88.3155, 0, 0, 1.27142, -55.9171, 1.2713, -173.91, 1.22624, 65.2415, 0.0835623, 62.8823
2, 540.00000, 120.453, -32.8432, 120.443, -150.836, 125.357, 88.3155, 0, 0, 1.27142, -55.9171, 1.2713, -173.91, 1.22624, 65.2415, 0.0835623, 62.8823
2, 600.00000, 120.453, -32.8432, 120.443, -150.836, 125.357, 88.3155, 0, 0, 1.27142, -55.9171, 1.2713, -173.91, 1.22624, 65.2415, 0.0835623, 62.8823
2, 660.00000, 120.453, -32.8432, 120.443, -150.836, 125.357, 88.3155, 0, 0, 1.27142, -55.9171, 1.2713, -173.91, 1.22624, 65.2415, 0.0835623, 62.8823
2, 720.00000, 120.453, -32.8432, 120.443, -150.836, 125.357, 88.3155, 0, 0, 1.27142, -55.9171, 1.2713, -173.91, 1.22624, 65.2415, 0.0835623, 62.8823
