hour,t(sec),V1,VAngle1,V2,VAngle2,V3,VAngle3,V4,VAngle4,I1,IAngle1,I2,IAngle2,I3,IAngle3,I4,IAngle4
0, 60.00000, 117.52, -32.9364, 117.586, -150.645, 122.727, 88.3641, 0, 0, 9.13893, -56.0105, 9.14447, -173.718, 9.25316, 65.2905, 0.20563, 56.8132
0, 120.00000, 117.522, -32.9503, 117.586, -150.646, 122.762, 88.3588, 0, 0, 9.13911, -56.0244, 9.14445, -173.719, 9.25043, 65.2852, 0.210172, 56.9396
0, 180.00000, 117.524, -32.9629, 117.586, -150.647, 122.794, 88.354, 0, 0, 9.13927, -56.0369, 9.14444, -173.72, 9.248, 65.2804, 0.214251, 57.0495
0, 240.00000, 117.526, -32.9742, 117.586, -150.648, 122.822, 88.3497, 0, 0, 9.13941, -56.0482, 9.14443, -173.721, 9.24582, 65.2761, 0.217922, 57.1446
0, 300.00000, 117.528, -32.9844, 117.586, -150.648, 122.848, 88.3458, 0, 0, 9.13953, -56.0584, 9.14441, -173.722, 9.24385, 65.2722, 0.221225, 57.2273
0, 360.00000, 117.529, -32.9935, 117.586, -150.649, 122.871, 88.3423, 0, 0, 9.13964, -56.0676, 9.1444, -173.722, 9.24208, 65.2686, 0.224198, 57.2996
0, 420.00000, 117.531, -33.0018, 117.586, -150.649, 122.892, 88.3391, 0, 0, 9.13974, -56.0758, 9.14439, -173.723, 9.24049, 65.2654, 0.226875, 57.3629
0, 480.00000, 118.558, -32.9176, 118.557, -150.58, 124.067, 88.4442, 0, 0, 8.02883, -55.9915, 8.02868, -173.653, 7.96305, 65.3705, 0.348819, 60.7904
0, 540.00000, 118.559, -32.9244, 118.557, -150.58, 124.084, 88.4416, 0, 0, 8.0289, -55.9983, 8.02867, -173.654, 7.96196, 65.3679, 0.350714, 60.8006
0, 600.00000, 118.56, -32.9305, 118.557, -150.58, 124.099, 88.4392, 0, 0, 8.02897, -56.0044, 8.02866, -173.654, 7.96098, 65.3655, 0.352415, 60.8101
0, 660.00000, 118.561, -32.936, 118.556, -150.581, 124.113, 88.4371, 0, 0, 8.02903, -56.0099, 8.02866, -173.654, 7.96009, 65.3633, 0.353945, 60.8185
0, 720.00000, 118.562, -32.9409, 118.556, -150.581, 124.125, 88.4351, 0, 0, 8.02909, -56.0148, 8.02866, -173.655, 7.9593, 65.3614, 0.355323, 60.826
0, 780.00000, 118.562, -32.9454, 118.556, -150.581, 124.136, 88.4334, 0, 0, 8.02914, -56.0193, 8.02865, -173.655, 7.95859, 65.3597, 0.356562, 60.8326
0, 840.00000, 118.563, -32.9494, 118.556, -150.582, 124.146, 88.4319, 0, 0, 8.02918, -56.0233, 8.02865, -173.655, 7.95795, 65.3581, 0.357677, 60.8385
0, 900.00000, 118.563, -32.953, 118.556, -150.582, 124.154, 88.4305, 0, 0, 8.02922, -56.0269, 8.02865, -173.655, 7.95737, 65.3567, 0.358681, 60.8438
0, 960.00000, 118.564, -32.9562, 118.556, -150.582, 124.162, 88.4292, 0, 0, 8.02926, -56.0302, 8.02864, -173.656, 7.95685, 65.3554, 0.359584, 60.8486
0, 1020.00000, 118.565, -32.9592, 118.556, -150.582, 124.17, 88.4281, 0, 0, 8.02929, -56.0331, 8.02864, -173.656, 7.95638, 65.3543, 0.360397, 60.8528
0, 1080.00000, 118.565, -32.9618, 118.556, -150.582, 124.176, 88.427, 0, 0, 8.02932, -56.0357, 8.02864, -173.656, 7.95596, 65.3532, 0.361129, 60.8566
0, 1140.00000, 118.565, -32.9642, 118.556, -150.582, 124.182, 88.4261, 0, 0, 8.02934, -56.0381, 8.02864, -173.656, 7.95558, 65.3523, 0.361787, 60.86
0, 1200.00000, 118.566, -32.9663, 118.556, -150.582, 124.187, 88.4253, 0, 0, 8.02937, -56.0402, 8.02864, -173.656, 7.95524, 65.3514, 0.362379, 60.863
0, 1260.00000, 118.566, -32.9682, 118.556, -150.583, 124.192, 88.4245, 0, 0, 8.02939, -56.0421, 8.02864, -173.656, 7.95493, 65.3507, 0.362912, 60.8657
0, 1320.00000, 118.566, -32.97, 118.556, -150.583, 124.196, 88.4239, 0, 0, 8.02941, -56.0439, 8.02863, -173.656, 7.95466, 65.35, 0.363392, 60.8682
0, 1380.00000, 118.566, -32.9715, 118.556, -150.583, 124.2, 88.4232, 0, 0, 8.02942, -56.0454, 8.02863, -173.657, 7.95441, 65.3494, 0.363824, 60.8703
0, 1440.00000, 118.567, -32.9729, 118.556, -150.583, 124.203, 88.4227, 0, 0, 8.02944, -56.0468, 8.02863, -173.657, 7.95418, 65.3488, 0.364213, 60.8723
0, 1500.00000, 118.567, -32.9742, 118.556, -150.583, 124.206, 88.4222, 0, 0, 8.02945, -56.0481, 8.02863, -173.657, 7.95398, 65.3483, 0.364562, 60.8741
0, 1560.00000, 118.567, -32.9753, 118.556, -150.583, 124.209, 88.4218, 0, 0, 8.02946, -56.0492, 8.02863, -173.657, 7.9538, 65.3479, 0.364877, 60.8756
0, 1620.00000, 118.567, -32.9763, 118.556, -150.583, 124.212, 88.4214, 0, 0, 8.02948, -56.0502, 8.02863, -173.657, 7.95364, 65.3475, 0.36516, 60.8771
0, 1680.00000, 118.567, -32.9772, 118.556, -150.583, 124.214, 88.421, 0, 0, 8.02948, -56.0512, 8.02863, -173.657, 7.95349, 65.3471, 0.365415, 60.8783
0, 1740.00000, 118.568, -32.9781, 118.556, -150.583, 124.216, 88.4207, 0, 0, 8.02949, -56.052, 8.02863, -173.657, 7.95336, 65.3468, 0.365645, 60.8795
0, 1800.00000, 118.568, -32.9788, 118.556, -150.583, 124.218, 88.4204, 0, 0, 8.0295, -56.0527, 8.02863, -173.657, 7.95324, 65.3465, 0.365851, 60.8805
0, 1860.00000, 118.568, -32.9795, 118.556, -150.583, 124.219, 88.4201, 0, 0, 8.02951, -56.0534, 8.02863, -173.657, 7.95314, 65.3462, 0.366037, 60.8814
0, 1920.00000, 118.568, -32.9801, 118.556, -150.583, 124.221, 88.4199, 0, 0, 8.02952, -56.054, 8.02863, -173.657, 7.95304, 65.346, 0.366204, 60.8822
0, 1980.00000, 118.568, -32.9806, 118.556, -150.583, 124.222, 88.4197, 0, 0, 8.02952, -56.0545, 8.02863, -173.657, 7.95295, 65.3458, 0.366355, 60.883
0, 2040.00000, 118.568, -32.9811, 118.556, -150.583, 124.223, 88.4195, 0, 0, 8.02953, -56.055, 8.02863, -173.657, 7.95287, 65.3456, 0.36649, 60.8837
0, 2100.00000, 118.568, -32.9816, 118.556, -150.583, 124.224, 88.4193, 0, 0, 8.02953, -56.0555, 8.02863, -173.657, 7.9528, 65.3454, 0.366612, 60.8843
0, 2160.00000, 118.568, -32.982, 118.556, -150.583, 124.225, 88.4192, 0, 0, 8.02954, -56.0559, 8.02862, -173.657, 7.95274, 65.3453, 0.366722, 60.8848
0, 2220.00000, 118.568, -32.9823, 118.556, -150.583, 124.226, 88.419, 0, 0, 8.02954, -56.0562, 8.02862, -173.657, 7.95268, 65.3451, 0.366821, 60.8853
0, 2280.00000, 118.568, -32.9826, 118.556, -150.583, 124.227, 88.4189, 0, 0, 8.02954, -56.0565, 8.02862, -173.657, 7.95263, 65.345, 0.36691, 60.8857
0, 2340.00000, 118.568, -32.9829, 118.556, -150.583, 124.228, 88.4188, 0, 0, 8.02954, -56.0568, 8.02862, -173.657, 7.95259, 65.3449, 0.36699, 60.8861
0, 2400.00000, 118.568, -32.9832, 118.556, -150.583, 124.228, 88.4187, 0, 0, 8.02955, -56.0571, 8.02862, -173.657, 7.95255, 65.3448, 0.367062, 60.8865
0, 2460.00000, 118.568, -32.9834, 118.556, -150.583, 124.229, 88.4186, 0, 0, 8.02955, -56.0573, 8.02862, -173.657, 7.95251, 65.3447, 0.367127, 60.8868
0, 2520.00000, 118.568, -32.9836, 118.556, -150.583, 124.229, 88.4185, 0, 0, 8.02955, -56.0575, 8.02862, -173.657, 7.95247, 65.3446, 0.367185, 60.8871
0, 2580.00000, 118.568, -32.9838, 118.556, -150.583, 124.23, 88.4184, 0, 0, 8.02955, -56.0577, 8.02862, -173.657, 7.95244, 65.3445, 0.367237, 60.8873
0, 2640.00000, 118.568, -32.984, 118.556, -150.583, 124.23, 88.4184, 0, 0, 8.02956, -56.0579, 8.02862, -173.657, 7.95242, 65.3445, 0.367285, 60.8876
0, 2700.00000, 118.569, -32.9841, 118.556, -150.583, 124.231, 88.4183, 0, 0, 8.02956, -56.0581, 8.02862, -173.657, 7.95239, 65.3444, 0.367327, 60.8878
0, 2760.00000, 118.569, -32.9843, 118.556, -150.583, 124.231, 88.4183, 0, 0, 8.02956, -56.0582, 8.02862, -173.657, 7.95237, 65.3444, 0.367365, 60.888
0, 2820.00000, 118.569, -32.9844, 118.556, -150.583, 124.231, 88.4182, 0, 0, 8.02956, -56.0583, 8.02862, -173.657, 7.95235, 65.3443, 0.3674, 60.8881
0, 2880.00000, 118.569, -32.9845, 118.556, -150.583, 124.232, 88.4182, 0, 0, 8.02956, -56.0584, 8.02862, -173.657, 7.95233, 65.3443, 0.367431, 60.8883
0, 2940.00000, 118.569, -32.9846, 118.556, -150.583, 124.232, 88.4181, 0, 0, 8.02956, -56.0585, 8.02862, -173.657, 7.95232, 65.3442, 0.367459, 60.8884
0, 3000.00000, 118.569, -32.9847, 118.556, -150.583, 124.232, 88.4181, 0, 0, 8.02956, -56.0586, 8.02862, -173.657, 7.9523, 65.3442, 0.367484, 60.8886
0, 3060.00000, 118.569, -32.9848, 118.556, -150.583, 124.232, 88.4181, 0, 0, 8.02956, -56.0587, 8.02862, -173.657, 7.95229, 65.3442, 0.367506, 60.8887
0, 3120.00000, 118.569, -32.9849, 118.556, -150.583, 124.232, 88.418, 0, 0, 8.02957, -56.0588, 8.02862, -173.657, 7.95228, 65.3441, 0.367527, 60.8888
0, 3180.00000, 118.569, -32.9849, 118.556, -150.583, 124.233, 88.418, 0, 0, 8.02957, -56.0588, 8.02862, -173.657, 7.95227, 65.3441, 0.367545, 60.8889
0, 3240.00000, 118.569, -32.985, 118.556, -150.583, 124.233, 88.418, 0, 0, 8.02957, -56.0589, 8.02862, -173.657, 7.95226, 65.3441, 0.367561, 60.8889
0, 3300.00000, 118.569, -32.985, 118.556, -150.583, 124.233, 88.418, 0, 0, 8.02957, -56.059, 8.02862, -173.657, 7.95225, 65.3441, 0.367576, 60.889
0, 3360.00000, 118.569, -32.9851, 118.556, -150.583, 124.233, 88.418, 0, 0, 8.02957, -56.059, 8.02862, -173.657, 7.95224, 65.344, 0.36759, 60.8891
0, 3420.00000, 118.569, -32.9851, 118.556, -150.583, 124.233, 88.4179, 0, 0, 8.02957, -56.059, 8.02862, -173.657, 7.95223, 65.344, 0.367602, 60.8891
0, 3480.00000, 118.569, -32.9852, 118.556, -150.583, 124.233, 88.4179, 0, 0, 8.02957, -56.0591, 8.02862, -173.657, 7.95223, 65.344, 0.367612, 60.8892
0, 3540.00000, 118.569, -32.9852, 118.556, -150.583, 124.233, 88.4179, 0, 0, 8.02957, -56.0591, 8.02862, -173.657, 7.95222, 65.344, 0.367622, 60.8892
1, 0.00000, 118.569, -32.9852, 118.556, -150.583, 124.233, 88.4179, 0, 0, 8.02957, -56.0591, 8.02862, -173.657, 7.95222, 65.344, 0.367631, 60.8893
1, 60.00000, 118.65, -32.8551, 118.837, -150.552, 124.235, 88.4205, 0, 0, 8.03569, -55.929, 8.04976, -173.626, 7.95214, 65.3466, 0.370133, 60.6924
1, 120.00000, 118.65, -32.8551, 118.837, -150.552, 124.235, 88.4205, 0, 0, 8.03569, -55.9291, 8.04976, -173.626, 7.95214, 65.3466, 0.370141, 60.6924
1, 180.00000, 118.65, -32.8552, 118.837, -150.552, 124.235, 88.4205, 0, 0, 8.03569, -55.9291, 8.04976, -173.626, 7.95213, 65.3465, 0.370147, 60.6924
1, 240.00000, 118.65, -32.8552, 118.837, -150.552, 124.235, 88.4205, 0, 0, 8.03569, -55.9291, 8.04976, -173.626, 7.95213, 65.3465, 0.370153, 60.6925
1, 300.00000, 118.65, -32.8552, 118.837, -150.552, 124.235, 88.4205, 0, 0, 8.03569, -55.9291, 8.04976, -173.626, 7.95213, 65.3465, 0.370158, 60.6925
1, 360.00000, 118.65, -32.8552, 118.837, -150.552, 124.235, 88.4204, 0, 0, 8.03569, -55.9291, 8.04976, -173.626, 7.95212, 65.3465, 0.370163, 60.6925
1, 420.00000, 118.65, -32.8552, 118.837, -150.552, 124.235, 88.4204, 0, 0, 8.03569, -55.9292, 8.04976, -173.626, 7.95212, 65.3465, 0.370167, 60.6925
1, 480.00000, 118.65, -32.8553, 118.837, -150.552, 124.235, 88.4204, 0, 0, 8.03569, -55.9292, 8.04976, -173.626, 7.95212, 65.3465, 0.370171, 60.6926
1, 540.00000, 118.65, -32.8553, 118.837, -150.552, 124.235, 88.4204, 0, 0, 8.03569, -55.9292, 8.04976, -173.626, 7.95212, 65.3465, 0.370174, 60.6926
1, 600.00000, 118.65, -32.8553, 118.837, -150.552, 124.235, 88.4204, 0, 0, 8.03569, -55.9292, 8.04976, -173.626, 7.95212, 65.3465, 0.370177, 60.6926
1, 660.00000, 118.65, -32.8553, 118.837, -150.552, 124.235, 88.4204, 0, 0, 8.03569, -55.9292, 8.04976, -173.626, 7.95211, 65.3465, 0.37018, 60.6926
1, 720.00000, 118.65, -32.8553, 118.837, -150.552, 124.235, 88.4204, 0, 0, 8.03569, -55.9292, 8.04976, -173.626, 7.95211, 65.3465, 0.370183, 60.6926
1, 780.00000, 118.65, -32.8553, 118.837, -150.552, 124.235, 88.4204, 0, 0, 8.03569, -55.9292, 8.04976, -173.626, 7.95211, 65.3465, 0.370185, 60.6926
1, 840.00000, 118.65, -32.8553, 118.837, -150.552, 124.235, 88.4204, 0, 0, 8.03569, -55.9292, 8.04976, -173.626, 7.95211, 65.3465, 0.370187, 60.6926
1, 900.00000, 118.65, -32.8553, 118.837, -150.552, 124.235, 88.4204, 0, 0, 8.03569, -55.9292, 8.04976, -173.626, 7.95211, 65.3465, 0.370189, 60.6927
1, 960.00000, 118.65, -32.8553, 118.837, -150.552, 124.235, 88.4204, 0, 0, 8.03569, -55.9292, 8.04976, -173.626, 7.95211, 65.3465, 0.37019, 60.6927
1, 1020.00000, 118.65, -32.8553, 118.837, -150.552, 124.235, 88.4204, 0, 0, 8.03569, -55.9292, 8.04976, -173.626, 7.95211, 65.3465, 0.370192, 60.6927
1, 1080.00000, 118.65, -32.8553, 118.837, -150.552, 124.235, 88.4204, 0, 0, 8.03569, -55.9292, 8.04976, -173.626, 7.95211, 65.3465, 0.370193, 60.6927
1, 1140.00000, 118.65, -32.8553, 118.837, -150.552, 124.235, 88.4204, 0, 0, 8.03569, -55.9293, 8.04976, -173.626, 7.95211, 65.3465, 0.370194, 60.6927
1, 1200.00000, 118.65, -32.8553, 118.837, -150.552, 124.235, 88.4204, 0, 0, 8.03569, -55.9293, 8.04976, -173.626, 7.95211, 65.3465, 0.370195, 60.6927
1, 1260.00000, 118.65, -32.8553, 118.837, -150.552, 124.235, 88.4204, 0, 0, 8.03569, -55.9293, 8.04976, -173.626, 7.95211, 65.3465, 0.370196, 60.6927
1, 1320.00000, 118.65, -32.8553, 118.837, -150.552, 124.235, 88.4204, 0, 0, 8.03569, -55.9293, 8.04976, -173.626, 7.9521, 65.3465, 0.370197, 60.6927
1, 1380.00000, 118.65, -32.8553, 118.837, -150.552, 124.235, 88.4204, 0, 0, 8.03569, -55.9293, 8.04976, -173.626, 7.9521, 65.3465, 0.370198, 60.6927
1, 1440.00000, 118.65, -32.8554, 118.837, -150.552, 124.235, 88.4204, 0, 0, 8.03569, -55.9293, 8.04976, -173.626, 7.9521, 65.3465, 0.370199, 60.6927
1, 1500.00000, 118.65, -32.8554, 118.837, -150.552, 124.235, 88.4204, 0, 0, 8.03569, -55.9293, 8.04976, -173.626, 7.9521, 65.3465, 0.370199, 60.6927
1, 1560.00000, 118.65, -32.8554, 118.837, -150.552, 124.235, 88.4204, 0, 0, 8.03569, -55.9293, 8.04976, -173.626, 7.9521, 65.3465, 0.3702, 60.6927
1, 1620.00000, 118.65, -32.8554, 118.837, -150.552, 124.235, 88.4204, 0, 0, 8.03569, -55.9293, 8.04976, -173.626, 7.9521, 65.3465, 0.3702, 60.6927
1, 1680.00000, 118.65, -32.8554, 118.837, -150.552, 124.235, 88.4204, 0, 0, 8.03569, -55.9293, 8.04976, -173.626, 7.9521, 65.3465, 0.370201, 60.6927
1, 1740.00000, 118.65, -32.8554, 118.837, -150.552, 124.235, 88.4204, 0, 0, 8.03569, -55.9293, 8.04976, -173.626, 7.9521, 65.3465, 0.370201, 60.6927
1, 1800.00000, 118.65, -32.8554, 118.837, -150.552, 124.235, 88.4204, 0, 0, 8.03569, -55.9293, 8.04976, -173.626, 7.9521, 65.3465, 0.370201, 60.6927
1, 1860.00000, 118.65, -32.8554, 118.837, -150.552, 124.235, 88.4204, 0, 0, 8.03569, -55.9293, 8.04976, -173.626, 7.9521, 65.3465, 0.370202, 60.6927
1, 1920.00000, 118.65, -32.8554, 118.837, -150.552, 124.235, 88.4204, 0, 0, 8.03569, -55.9293, 8.04976, -173.626, 7.9521, 65.3465, 0.370202, 60.6927
1, 1980.00000, 118.65, -32.8554, 118.837, -150.552, 124.235, 88.4204, 0, 0, 8.03569, -55.9293, 8.04976, -173.626, 7.9521, 65.3465, 0.370202, 60.6927
1, 2040.00000, 118.65, -32.8554, 118.837, -150.552, 124.235, 88.4204, 0, 0, 8.03569, -55.9293, 8.04976, -173.626, 7.9521, 65.3465, 0.370203, 60.6927
1, 2100.00000, 118.65, -32.8554, 118.837, -150.552, 124.235, 88.4204, 0, 0, 8.03569, -55.9293, 8.04976, -173.626, 7.9521, 65.3465, 0.370203, 60.6927
1, 2160.00000, 118.65, -32.8554, 118.837, -150.552, 124.235, 88.4204, 0, 0, 8.03569, -55.9293, 8.04976, -173.626, 7.9521, 65.3465, 0.370203, 60.6927
1, 2220.00000, 118.65, -32.8554, 118.837, -150.552, 124.235, 88.4204, 0, 0, 8.03569, -55.9293, 8.04976, -173.626, 7.9521, 65.3465, 0.370203, 60.6927
1, 2280.00000, 118.65, -32.8554, 118.837, -150.552, 124.235, 88.4204, 0, 0, 8.03569, -55.9293, 8.04976, -173.626, 7.9521, 65.3465, 0.370203, 60.6927
1, 2340.00000, 118.65, -32.8554, 118.837, -150.552, 124.235, 88.4204, 0, 0, 8.03569, -55.9293, 8.04976, -173.626, 7.9521, 65.3465, 0.370203, 60.6927
1, 2400.00000, 118.65, -32.8554, 118.837, -150.552, 124.235, 88.4204, 0, 0, 8.03569, -55.9293, 8.04976, -173.626, 7.9521, 65.3465, 0.370204, 60.6927
1, 2460.00000, 118.65, -32.8554, 118.837, -150.552, 124.235, 88.4204, 0, 0, 8.03569, -55.9293, 8.04976, -173.626, 7.9521, 65.3465, 0.370204, 60.6927
1, 2520.00000, 118.65, -32.8554, 118.837, -150.552, 124.235, 88.4204, 0, 0, 8.03569, -55.9293, 8.04976, -173.626, 7.9521, 65.3465, 0.370204, 60.6927
1, 2580.00000, 118.65, -32.8554, 118.837, -150.552, 124.235, 88.4204, 0, 0, 8.03569, -55.9293, 8.04976, -173.626, 7.9521, 65.3465, 0.370204, 60.6927
1, 2640.00000, 118.65, -32.8554, 118.837, -150.552, 124.235, 88.4204, 0, 0, 8.03569, -55.9293, 8.04976, -173.626, 7.9521, 65.3465, 0.370204, 60.6927
1, 2700.00000, 118.65, -32.8554, 118.837, -150.552, 124.235, 88.4204, 0, 0, 8.03569, -55.9293, 8.04976, -173.626, 7.9521, 65.3465, 0.370204, 60.6927
1, 2760.00000, 118.65, -32.8554, 118.837, -150.552, 124.235, 88.4204, 0, 0, 8.03569, -55.9293, 8.04976, -173.626, 7.9521, 65.3465, 0.370204, 60.6927
1, 2820.00000, 118.65, -32.8554, 118.837, -150.552, 124.235, 88.4204, 0, 0, 8.03569, -55.9293, 8.04976, -173.626, 7.9521, 65.3465, 0.370204, 60.6927
1, 2880.00000, 118.65, -32.8554, 118.837, -150.552, 124.235, 88.4204, 0, 0, 8.03569, -55.9293, 8.04976, -173.626, 7.9521, 65.3465, 0.370204, 60.6927
1, 2940.00000, 118.65, -32.8554, 118.837, -150.552, 124.235, 88.4204, 0, 0, 8.03569, -55.9293, 8.04976, -173.626, 7.9521, 65.3465, 0.370204, 60.6927
1, 3000.00000, 118.65, -32.8554, 118.837, -150.552, 124.235, 88.4204, 0, 0, 8.03569, -55.9293, 8.04976, -173.626, 7.9521, 65.3465, 0.370204, 60.6927
1, 3060.00000, 118.65, -32.8554, 118.837, -150.552, 124.235, 88.4204, 0, 0, 8.03569, -55.9293, 8.04976, -173.626, 7.9521, 65.3465, 0.370204, 60.6927
1, 3120.00000, 118.65, -32.8554, 118.837, -150.552, 124.235, 88.4204, 0, 0, 8.03569, -55.9293, 8.04976, -173.626, 7.9521, 65.3465, 0.370204, 60.6927
1, 3180.00000, 118.65, -32.8554, 118.837, -150.552, 124.235, 88.4204, 0, 0, 8.03569, -55.9293, 8.04976, -173.626, 7.9521, 65.3465, 0.370205, 60.6927
1, 3240.00000, 118.65, -32.8554, 118.837, -150.552, 124.235, 88.4204, 0, 0, 8.03569, -55.9293, 8.04976, -173.626, 7.9521, 65.3465, 0.370205, 60.6927
1, 3300.00000, 118.65, -32.8554, 118.837, -150.552, 124.235, 88.4204, 0, 0, 8.03569, -55.9293, 8.04976, -173.626, 7.9521, 65.3465, 0.370205, 60.6927
1, 3360.00000, 118.65, -32.8554, 118.837, -150.552, 124.235, 88.4204, 0, 0, 8.03569, -55.9293, 8.04976, -173.626, 7.9521, 65.3465, 0.370205, 60.6927
1, 3420.00000, 118.65, -32.8554, 118.837, -150.552, 124.235, 88.4204, 0, 0, 8.03569, -55.9293, 8.04976, -173.626, 7.9521, 65.3465, 0.370205, 60.6927
1, 3480.00000, 118.65, -32.8554, 118.837, -150.552, 124.235, 88.4204, 0, 0, 8.03569, -55.9293, 8.04976, -173.626, 7.9521, 65.3465, 0.370205, 60.6927
1, 3540.00000, 118.65, -32.8554, 118.837, -150.552, 124.235, 88.4204, 0, 0, 8.03569, -55.9293, 8.04976, -173.626, 7.9521, 65.3465, 0.370205, 60.6927
2, 0.00000, 118.65, -32.8554, 118.837, -150.552, 124.235, 88.4204, 0, 0, 8.03569, -55.9293, 8.04976, -173.626, 7.9521, 65.3465, 0.370205, 60.6927
2, 60.00000, 118.65, -32.8554, 118.837, -150.552, 124.235, 88.4204, 0, 0, 8.03569, -55.9293, 8.04976, -173.626, 7.9521, 65.3465, 0.370205, 60.6927
2, 120.00000, 118.65, -32.8554, 118.837, -150.552, 124.235, 88.4204, 0, 0, 8.03569, -55.9293, 8.04976, -173.626, 7.9521, 65.3465, 0.370205, 60.6927
2, 180.00000, 118.65, -32.8554, 118.837, -150.552, 124.235, 88.4204, 0, 0, 8.03569, -55.9293, 8.04976, -173.626, 7.9521, 65.3465, 0.370205, 60.6927
2, 240.00000, 118.65, -32.8554, 118.837, -150.552, 124.235, 88.4204, 0, 0, 8.03569, -55.9293, 8.04976, -173.626, 7.9521, 65.3465, 0.370205, 60.6927
2, 300.00000, 118.65, -32.8554, 118.837, -150.552, 124.235, 88.4204, 0, 0, 8.03569, -55.9293, 8.04976, -173.626, 7.9521, 65.3465, 0.370205, 60.6927
2, 360.00000, 118.65, -32.8554, 118.837, -150.552, 124.235, 88.4204, 0, 0, 8.03569, -55.9293, 8.04976, -173.626, 7.9521, 65.3465, 0.370205, 60.6927
2, 420.00000, 118.65, -32.8554, 118.837, -150.552, 124.235, 88.4204, 0, 0, 8.03569, -55.9293, 8.04976, -173.626, 7.9521, 65.3465, 0.370205, 60.6927
2, 480.00000, 118.65, -32.8554, 118.837, -150.552, 124.235, 88.4204, 0, 0, 8.03569, -55.9293, 8.04976, -173.626, 7.9521, 65.3465, 0.370205, 60.6927
2, 540.00000, 118.65, -32.8554, 118.837, -150.552, 124.235, 88.4204, 0, 0, 8.03569, -55.9293, 8.04976, -173.626, 7.9521, 65.3465, 0.370205, 60.6927
2, 600.00000, 118.65, -32.8554, 118.837, -150.552, 124.235, 88.4204, 0, 0, 8.03569, -55.9293, 8.04976, -173.626, 7.9521, 65.3465, 0.370205, 60.6927
2, 660.00000, 118.65, -32.8554, 118.837, -150.552, 124.235, 88.4204, 0, 0, 8.03569, -55.9293, 8.04976, -173.626, 7.9521, 65.3465, 0.370205, 60.6927
2, 720.00000, 118.65, -32.8554, 118.837, -150.552, 124.235, 88.4204, 0, 0, 8.03569, -55.9293, 8.04976, -173.626, 7.9521, 65.3465, 0.370205, 60.6927
2, 780.00000, 118.65, -32.8554, 118.837, -150.552, 124.235, 88.4204, 0, 0, 8.03569, -55.9293, 8.04976, -173.626, 7.9521, 65.3465, 0.370205, 60.6927
