hour,t(sec),V1,VAngle1,V2,VAngle2,V3,VAngle3,V4,VAngle4,I1,IAngle1,I2,IAngle2,I3,IAngle3,I4,IAngle4
0, 60.00000, 114.28, -31.3959, 120.146, -150.99, 118.03, 86.6288, 0, 0, 8.01021, -54.4695, 8.46846, -174.063, 8.30347, 63.5549, 0.0807115, -29.6375
0, 120.00000, 114.279, -31.3971, 120.174, -150.996, 118.032, 86.6154, 0, 0, 8.01016, -54.4707, 8.47066, -174.069, 8.30361, 63.5415, 0.0812154, -29.3382
0, 180.00000, 114.278, -31.3982, 120.199, -151.001, 118.034, 86.6033, 0, 0, 8.01011, -54.4718, 8.47265, -174.075, 8.30374, 63.5294, 0.0816699, -29.073
0, 240.00000, 114.278, -31.3991, 120.221, -151.006, 118.036, 86.5924, 0, 0, 8.01007, -54.4728, 8.47443, -174.08, 8.30385, 63.5185, 0.0820804, -28.8369
0, 300.00000, 114.277, -31.4, 120.242, -151.011, 118.037, 86.5826, 0, 0, 8.01003, -54.4737, 8.47604, -174.084, 8.30395, 63.5086, 0.0824577, -28.6223
0, 360.00000, 114.277, -31.4008, 120.26, -151.015, 118.038, 86.5737, 0, 0, 8.00999, -54.4745, 8.47749, -174.088, 8.30404, 63.4998, 0.0828014, -28.4288
0, 420.00000, 114.277, -31.4015, 120.277, -151.018, 118.039, 86.5658, 0, 0, 8.00995, -54.4753, 8.47881, -174.092, 8.30411, 63.4919, 0.0831207, -28.2503
0, 480.00000, 115.259, -31.3359, 121.451, -150.929, 118.985, 86.6594, 0, 0, 7.03548, -54.4094, 7.35551, -174.003, 7.28895, 63.5855, 0.0440643, -119.796
0, 540.00000, 115.259, -31.3367, 121.466, -150.932, 118.986, 86.653, 0, 0, 7.03545, -54.4103, 7.35458, -174.006, 7.28897, 63.5791, 0.0449152, -121.43
0, 600.00000, 115.258, -31.3374, 121.479, -150.935, 118.986, 86.6473, 0, 0, 7.03543, -54.4111, 7.35374, -174.008, 7.28899, 63.5734, 0.045711, -122.841
0, 660.00000, 115.258, -31.3381, 121.491, -150.937, 118.987, 86.6421, 0, 0, 7.03541, -54.4117, 7.35299, -174.011, 7.28901, 63.5682, 0.0464499, -124.07
0, 720.00000, 115.258, -31.3387, 121.502, -150.939, 118.987, 86.6375, 0, 0, 7.03539, -54.4124, 7.35232, -174.013, 7.28903, 63.5635, 0.0471324, -125.141
0, 780.00000, 115.257, -31.3392, 121.512, -150.941, 118.987, 86.6333, 0, 0, 7.03538, -54.4129, 7.35171, -174.015, 7.28904, 63.5593, 0.0477601, -126.079
0, 840.00000, 115.257, -31.3397, 121.521, -150.943, 118.988, 86.6295, 0, 0, 7.03536, -54.4134, 7.35117, -174.016, 7.28906, 63.5556, 0.0483356, -126.903
0, 900.00000, 115.257, -31.3401, 121.529, -150.944, 118.988, 86.6261, 0, 0, 7.03535, -54.4139, 7.35068, -174.018, 7.28907, 63.5522, 0.0488617, -127.627
0, 960.00000, 115.237, -31.3195, 121.053, -151.14, 118.475, 86.658, 0, 0, 7.03396, -54.3933, 7.37955, -174.214, 7.25418, 63.5841, 0.0391078, -60.2746
0, 1020.00000, 115.236, -31.3199, 121.059, -151.141, 118.475, 86.6553, 0, 0, 7.03395, -54.3937, 7.37917, -174.215, 7.25419, 63.5814, 0.0388293, -61.1211
0, 1080.00000, 115.236, -31.3202, 121.065, -151.143, 118.475, 86.6529, 0, 0, 7.03394, -54.394, 7.37882, -174.216, 7.2542, 63.5789, 0.0385834, -61.8947
0, 1140.00000, 115.236, -31.3204, 121.07, -151.144, 118.475, 86.6507, 0, 0, 7.03393, -54.3942, 7.3785, -174.217, 7.2542, 63.5767, 0.0383681, -62.5995
0, 1200.00000, 115.236, -31.3207, 121.075, -151.144, 118.475, 86.6487, 0, 0, 7.03392, -54.3945, 7.37822, -174.218, 7.25421, 63.5748, 0.0381787, -63.241
0, 1260.00000, 115.236, -31.3209, 121.079, -151.145, 118.475, 86.6469, 0, 0, 7.03392, -54.3947, 7.37796, -174.219, 7.25421, 63.573, 0.0380124, -63.8238
0, 1320.00000, 115.236, -31.3211, 121.083, -151.146, 118.476, 86.6453, 0, 0, 7.03391, -54.395, 7.37773, -174.22, 7.25422, 63.5714, 0.0378661, -64.3526
0, 1380.00000, 115.236, -31.3213, 121.086, -151.147, 118.476, 86.6439, 0, 0, 7.0339, -54.3951, 7.37752, -174.22, 7.25422, 63.5699, 0.0377372, -64.8319
0, 1440.00000, 115.236, -31.3215, 121.089, -151.147, 118.476, 86.6426, 0, 0, 7.0339, -54.3953, 7.37734, -174.221, 7.25423, 63.5686, 0.0376234, -65.2661
0, 1500.00000, 115.236, -31.3216, 121.092, -151.148, 118.476, 86.6414, 0, 0, 7.03389, -54.3955, 7.37717, -174.222, 7.25423, 63.5675, 0.0375229, -65.659
0, 1560.00000, 115.236, -31.3217, 121.094, -151.148, 118.476, 86.6404, 0, 0, 7.03389, -54.3956, 7.37702, -174.222, 7.25423, 63.5664, 0.0374339, -66.0145
0, 1620.00000, 115.236, -31.3219, 121.096, -151.149, 118.476, 86.6394, 0, 0, 7.03389, -54.3957, 7.37688, -174.223, 7.25423, 63.5655, 0.037355, -66.336
0, 1680.00000, 115.236, -31.322, 121.098, -151.149, 118.476, 86.6385, 0, 0, 7.03388, -54.3958, 7.37676, -174.223, 7.25424, 63.5646, 0.037285, -66.6264
0, 1740.00000, 115.236, -31.3221, 121.1, -151.149, 118.476, 86.6378, 0, 0, 7.03388, -54.3959, 7.37665, -174.223, 7.25424, 63.5639, 0.0372228, -66.8887
0, 1800.00000, 114.9, -31.5194, 120.436, -151.112, 118.545, 86.628, 0, 0, 7.01109, -54.5933, 7.38749, -174.186, 7.25893, 63.5541, 0.0657174, -33.7582
0, 1860.00000, 114.9, -31.5195, 120.437, -151.112, 118.545, 86.6274, 0, 0, 7.01109, -54.5933, 7.38758, -174.186, 7.25894, 63.5535, 0.0657374, -33.7405
0, 1920.00000, 114.9, -31.5195, 120.438, -151.113, 118.545, 86.6268, 0, 0, 7.01109, -54.5934, 7.38766, -174.187, 7.25894, 63.5529, 0.065756, -33.7237
0, 1980.00000, 114.9, -31.5196, 120.439, -151.113, 118.545, 86.6263, 0, 0, 7.01109, -54.5935, 7.38773, -174.187, 7.25894, 63.5524, 0.0657728, -33.7087
0, 2040.00000, 114.9, -31.5196, 120.44, -151.113, 118.545, 86.6258, 0, 0, 7.01109, -54.5935, 7.3878, -174.187, 7.25895, 63.5519, 0.0657878, -33.6951
0, 2100.00000, 114.9, -31.5196, 120.441, -151.113, 118.545, 86.6254, 0, 0, 7.01108, -54.5936, 7.38786, -174.187, 7.25895, 63.5515, 0.0658014, -33.6829
0, 2160.00000, 114.9, -31.5197, 120.442, -151.113, 118.545, 86.6251, 0, 0, 7.01108, -54.5936, 7.38791, -174.187, 7.25895, 63.5511, 0.0658136, -33.672
0, 2220.00000, 114.9, -31.5197, 120.443, -151.114, 118.545, 86.6247, 0, 0, 7.01108, -54.5936, 7.38796, -174.188, 7.25895, 63.5508, 0.0658246, -33.6621
0, 2280.00000, 114.9, -31.5197, 120.443, -151.114, 118.546, 86.6244, 0, 0, 7.01108, -54.5937, 7.388, -174.188, 7.25896, 63.5505, 0.0658346, -33.6532
0, 2340.00000, 114.9, -31.5198, 120.444, -151.114, 118.546, 86.6242, 0, 0, 7.01108, -54.5937, 7.38804, -174.188, 7.25896, 63.5502, 0.0658442, -33.6444
0, 2400.00000, 114.9, -31.5198, 120.445, -151.114, 118.546, 86.6239, 0, 0, 7.01108, -54.5937, 7.38808, -174.188, 7.25896, 63.55, 0.0658528, -33.6365
0, 2460.00000, 114.9, -31.5198, 120.445, -151.114, 118.546, 86.6237, 0, 0, 7.01108, -54.5937, 7.38811, -174.188, 7.25896, 63.5498, 0.0658606, -33.6294
0, 2520.00000, 114.9, -31.5198, 120.445, -151.114, 118.546, 86.6235, 0, 0, 7.01108, -54.5938, 7.38814, -174.188, 7.25896, 63.5496, 0.0658676, -33.623
0, 2580.00000, 114.9, -31.5199, 120.446, -151.114, 118.546, 86.6233, 0, 0, 7.01108, -54.5938, 7.38817, -174.188, 7.25896, 63.5494, 0.0658738, -33.6172
0, 2640.00000, 114.9, -31.5199, 120.446, -151.114, 118.546, 86.6232, 0, 0, 7.01107, -54.5938, 7.38819, -174.188, 7.25896, 63.5492, 0.0658795, -33.612
0, 2700.00000, 114.9, -31.5199, 120.446, -151.114, 118.546, 86.623, 0, 0, 7.01107, -54.5938, 7.38821, -174.188, 7.25896, 63.5491, 0.0658846, -33.6074
0, 2760.00000, 115.188, -31.4898, 120.446, -151.112, 118.643, 86.7605, 0, 0, 7.03066, -54.5637, 7.38817, -174.185, 7.2656, 63.6866, 0.0641371, -34.1155
0, 2820.00000, 115.188, -31.4898, 120.446, -151.112, 118.643, 86.7604, 0, 0, 7.03066, -54.5637, 7.38819, -174.186, 7.2656, 63.6865, 0.0641418, -34.1112
0, 2880.00000, 115.188, -31.4898, 120.446, -151.112, 118.643, 86.7603, 0, 0, 7.03066, -54.5637, 7.38821, -174.186, 7.2656, 63.6864, 0.0641455, -34.1077
0, 2940.00000, 115.188, -31.4898, 120.447, -151.112, 118.643, 86.7602, 0, 0, 7.03066, -54.5637, 7.38822, -174.186, 7.2656, 63.6863, 0.0641488, -34.1045
0, 3000.00000, 115.188, -31.4898, 120.447, -151.112, 118.643, 86.7601, 0, 0, 7.03066, -54.5637, 7.38823, -174.186, 7.2656, 63.6862, 0.0641518, -34.1017
0, 3060.00000, 115.188, -31.4898, 120.447, -151.112, 118.643, 86.76, 0, 0, 7.03066, -54.5637, 7.38825, -174.186, 7.2656, 63.6861, 0.0641545, -34.0991
0, 3120.00000, 115.188, -31.4898, 120.447, -151.112, 118.643, 86.7599, 0, 0, 7.03066, -54.5638, 7.38826, -174.186, 7.2656, 63.686, 0.0641569, -34.0968
0, 3180.00000, 115.188, -31.4898, 120.447, -151.112, 118.643, 86.7599, 0, 0, 7.03065, -54.5638, 7.38826, -174.186, 7.2656, 63.686, 0.0641591, -34.0947
0, 3240.00000, 115.188, -31.4898, 120.447, -151.112, 118.643, 86.7598, 0, 0, 7.03065, -54.5638, 7.38827, -174.186, 7.2656, 63.6859, 0.064161, -34.0928
0, 3300.00000, 115.188, -31.4899, 120.447, -151.112, 118.643, 86.7598, 0, 0, 7.03065, -54.5638, 7.38828, -174.186, 7.2656, 63.6859, 0.0641628, -34.0912
0, 3360.00000, 115.188, -31.4899, 120.448, -151.112, 118.643, 86.7597, 0, 0, 7.03065, -54.5638, 7.38829, -174.186, 7.2656, 63.6858, 0.0641644, -34.0897
0, 3420.00000, 115.188, -31.4899, 120.448, -151.112, 118.643, 86.7597, 0, 0, 7.03065, -54.5638, 7.38829, -174.186, 7.2656, 63.6858, 0.0641658, -34.0883
0, 3480.00000, 115.188, -31.4899, 120.448, -151.112, 118.643, 86.7597, 0, 0, 7.03065, -54.5638, 7.3883, -174.186, 7.2656, 63.6857, 0.0641671, -34.0871
0, 3540.00000, 115.188, -31.4899, 120.448, -151.112, 118.643, 86.7596, 0, 0, 7.03065, -54.5638, 7.3883, -174.186, 7.2656, 63.6857, 0.0641682, -34.086
1, 0.00000, 115.188, -31.4899, 120.448, -151.112, 118.643, 86.7596, 0, 0, 7.03065, -54.5638, 7.38831, -174.186, 7.26561, 63.6857, 0.0641693, -34.085
1, 60.00000, 115.464, -31.4577, 120.448, -151.109, 118.728, 86.89, 0, 0, 7.0494, -54.5316, 7.38833, -174.183, 7.27135, 63.8161, 0.0621696, -34.3487
1, 120.00000, 115.464, -31.4577, 120.448, -151.109, 118.728, 86.89, 0, 0, 7.0494, -54.5316, 7.38833, -174.183, 7.27135, 63.8161, 0.0621708, -34.3473
1, 180.00000, 115.464, -31.4577, 120.448, -151.109, 118.728, 86.89, 0, 0, 7.0494, -54.5316, 7.38833, -174.183, 7.27135, 63.8161, 0.0621715, -34.3465
1, 240.00000, 115.464, -31.4577, 120.448, -151.109, 118.728, 86.89, 0, 0, 7.0494, -54.5316, 7.38834, -174.183, 7.27135, 63.816, 0.0621722, -34.3458
1, 300.00000, 115.464, -31.4577, 120.448, -151.109, 118.728, 86.89, 0, 0, 7.0494, -54.5316, 7.38834, -174.183, 7.27135, 63.816, 0.0621728, -34.3452
1, 360.00000, 115.464, -31.4577, 120.448, -151.109, 118.728, 86.8899, 0, 0, 7.0494, -54.5316, 7.38834, -174.183, 7.27135, 63.816, 0.0621734, -34.3447
1, 420.00000, 115.464, -31.4577, 120.448, -151.109, 118.728, 86.8899, 0, 0, 7.0494, -54.5316, 7.38834, -174.183, 7.27135, 63.816, 0.0621739, -34.3442
1, 480.00000, 115.464, -31.4577, 120.448, -151.109, 118.728, 86.8899, 0, 0, 7.0494, -54.5316, 7.38834, -174.183, 7.27135, 63.816, 0.0621744, -34.3437
1, 540.00000, 115.464, -31.4577, 120.448, -151.109, 118.728, 86.8899, 0, 0, 7.0494, -54.5316, 7.38835, -174.183, 7.27135, 63.816, 0.0621748, -34.3433
1, 600.00000, 115.464, -31.4577, 120.448, -151.109, 118.728, 86.8899, 0, 0, 7.0494, -54.5316, 7.38835, -174.183, 7.27135, 63.816, 0.0621751, -34.3429
1, 660.00000, 115.464, -31.4577, 120.448, -151.109, 118.728, 86.8899, 0, 0, 7.0494, -54.5316, 7.38835, -174.183, 7.27135, 63.816, 0.0621754, -34.3426
1, 720.00000, 115.464, -31.4577, 120.448, -151.109, 118.728, 86.8899, 0, 0, 7.0494, -54.5316, 7.38835, -174.183, 7.27135, 63.8159, 0.0621757, -34.3423
1, 780.00000, 117.039, -31.8204, 120.417, -151.107, 120.237, 87.3636, 0, 0, 7.15651, -54.8943, 7.38623, -174.181, 7.37395, 64.2896, 0.0524685, -50.2158
1, 840.00000, 117.039, -31.8204, 120.417, -151.107, 120.237, 87.3636, 0, 0, 7.15651, -54.8943, 7.38623, -174.181, 7.37395, 64.2896, 0.0524691, -50.2145
1, 900.00000, 117.039, -31.8204, 120.417, -151.107, 120.237, 87.3636, 0, 0, 7.15651, -54.8943, 7.38623, -174.181, 7.37395, 64.2896, 0.0524692, -50.2143
1, 960.00000, 117.039, -31.8204, 120.417, -151.107, 120.237, 87.3635, 0, 0, 7.15651, -54.8943, 7.38623, -174.181, 7.37395, 64.2896, 0.0524693, -50.2141
1, 1020.00000, 117.039, -31.8204, 120.417, -151.107, 120.237, 87.3635, 0, 0, 7.15651, -54.8943, 7.38623, -174.181, 7.37395, 64.2896, 0.0524694, -50.2139
1, 1080.00000, 117.039, -31.8204, 120.417, -151.107, 120.237, 87.3635, 0, 0, 7.15651, -54.8943, 7.38623, -174.181, 7.37395, 64.2896, 0.0524695, -50.2137
1, 1140.00000, 117.039, -31.8204, 120.417, -151.107, 120.237, 87.3635, 0, 0, 7.15651, -54.8943, 7.38624, -174.181, 7.37395, 64.2896, 0.0524696, -50.2135
1, 1200.00000, 117.039, -31.8204, 120.417, -151.107, 120.237, 87.3635, 0, 0, 7.15651, -54.8943, 7.38624, -174.181, 7.37395, 64.2896, 0.0524696, -50.2134
1, 1260.00000, 117.039, -31.8204, 120.417, -151.107, 120.237, 87.3635, 0, 0, 7.15651, -54.8943, 7.38624, -174.181, 7.37395, 64.2896, 0.0524697, -50.2133
1, 1320.00000, 117.039, -31.8204, 120.417, -151.107, 120.237, 87.3635, 0, 0, 7.15651, -54.8943, 7.38624, -174.181, 7.37395, 64.2896, 0.0524697, -50.2131
1, 1380.00000, 117.039, -31.8204, 120.417, -151.107, 120.237, 87.3635, 0, 0, 7.15651, -54.8943, 7.38624, -174.181, 7.37395, 64.2896, 0.0524698, -50.213
1, 1440.00000, 117.039, -31.8204, 120.417, -151.107, 120.237, 87.3635, 0, 0, 7.15651, -54.8943, 7.38624, -174.181, 7.37395, 64.2896, 0.0524698, -50.213
1, 1500.00000, 117.039, -31.8204, 120.417, -151.107, 120.237, 87.3635, 0, 0, 7.15651, -54.8943, 7.38624, -174.181, 7.37395, 64.2896, 0.0524699, -50.2129
1, 1560.00000, 117.039, -31.8204, 120.417, -151.107, 120.237, 87.3635, 0, 0, 7.15651, -54.8943, 7.38624, -174.181, 7.37395, 64.2896, 0.0524699, -50.2128
1, 1620.00000, 117.039, -31.8204, 120.417, -151.107, 120.237, 87.3635, 0, 0, 7.15651, -54.8943, 7.38624, -174.181, 7.37395, 64.2896, 0.05247, -50.2127
1, 1680.00000, 117.039, -31.8204, 120.417, -151.107, 120.237, 87.3635, 0, 0, 7.15651, -54.8943, 7.38624, -174.181, 7.37395, 64.2896, 0.05247, -50.2127
1, 1740.00000, 117.039, -31.8204, 120.417, -151.107, 120.237, 87.3635, 0, 0, 7.15651, -54.8943, 7.38624, -174.181, 7.37395, 64.2896, 0.05247, -50.2126
1, 1800.00000, 117.039, -31.8204, 120.417, -151.107, 120.237, 87.3635, 0, 0, 7.15651, -54.8943, 7.38624, -174.181, 7.37395, 64.2896, 0.05247, -50.2126
1, 1860.00000, 117.039, -31.8204, 120.417, -151.107, 120.237, 87.3635, 0, 0, 7.15651, -54.8943, 7.38624, -174.181, 7.37395, 64.2896, 0.0524701, -50.2125
1, 1920.00000, 117.039, -31.8204, 120.417, -151.107, 120.237, 87.3635, 0, 0, 7.15651, -54.8943, 7.38624, -174.181, 7.37395, 64.2896, 0.0524701, -50.2125
1, 1980.00000, 117.039, -31.8204, 120.417, -151.107, 120.237, 87.3635, 0, 0, 7.15651, -54.8943, 7.38624, -174.181, 7.37395, 64.2896, 0.0524701, -50.2124
1, 2040.00000, 117.039, -31.8204, 120.417, -151.107, 120.237, 87.3635, 0, 0, 7.15651, -54.8943, 7.38624, -174.181, 7.37395, 64.2896, 0.0524701, -50.2124
1, 2100.00000, 117.039, -31.8204, 120.417, -151.107, 120.237, 87.3635, 0, 0, 7.15651, -54.8943, 7.38624, -174.181, 7.37395, 64.2896, 0.0524701, -50.2124
1, 2160.00000, 117.039, -31.8204, 120.417, -151.107, 120.237, 87.3635, 0, 0, 7.15651, -54.8943, 7.38624, -174.181, 7.37395, 64.2896, 0.0524702, -50.2124
1, 2220.00000, 117.382, -31.6231, 121.08, -151.144, 120.162, 87.3743, 0, 0, 7.17983, -54.697, 7.37787, -174.218, 7.3689, 64.3004, 0.0374446, -96.8063
1, 2280.00000, 117.382, -31.6231, 121.08, -151.144, 120.162, 87.3743, 0, 0, 7.17983, -54.697, 7.37787, -174.218, 7.3689, 64.3004, 0.0374433, -96.8091
1, 2340.00000, 117.382, -31.6231, 121.08, -151.144, 120.162, 87.3743, 0, 0, 7.17983, -54.697, 7.37787, -174.218, 7.3689, 64.3004, 0.0374433, -96.8093
1, 2400.00000, 117.382, -31.6231, 121.08, -151.144, 120.162, 87.3743, 0, 0, 7.17983, -54.697, 7.37787, -174.218, 7.3689, 64.3004, 0.0374433, -96.8094
1, 2460.00000, 117.382, -31.6231, 121.08, -151.144, 120.162, 87.3743, 0, 0, 7.17983, -54.697, 7.37787, -174.218, 7.3689, 64.3004, 0.0374433, -96.8096
1, 2520.00000, 117.382, -31.6231, 121.08, -151.144, 120.162, 87.3743, 0, 0, 7.17983, -54.697, 7.37787, -174.218, 7.3689, 64.3004, 0.0374433, -96.8097
1, 2580.00000, 117.382, -31.6231, 121.08, -151.144, 120.162, 87.3743, 0, 0, 7.17983, -54.697, 7.37787, -174.218, 7.3689, 64.3004, 0.0374434, -96.8098
1, 2640.00000, 117.382, -31.6231, 121.08, -151.144, 120.162, 87.3743, 0, 0, 7.17983, -54.697, 7.37787, -174.218, 7.3689, 64.3004, 0.0374434, -96.8099
1, 2700.00000, 117.382, -31.6231, 121.08, -151.144, 120.162, 87.3743, 0, 0, 7.17983, -54.697, 7.37787, -174.218, 7.3689, 64.3004, 0.0374434, -96.81
1, 2760.00000, 117.382, -31.6231, 121.08, -151.144, 120.162, 87.3743, 0, 0, 7.17983, -54.697, 7.37787, -174.218, 7.3689, 64.3004, 0.0374434, -96.8101
1, 2820.00000, 117.382, -31.6231, 121.08, -151.144, 120.162, 87.3743, 0, 0, 7.17983, -54.697, 7.37787, -174.218, 7.3689, 64.3004, 0.0374434, -96.8102
1, 2880.00000, 117.382, -31.6231, 121.08, -151.144, 120.162, 87.3743, 0, 0, 7.17983, -54.697, 7.37787, -174.218, 7.3689, 64.3004, 0.0374434, -96.8102
1, 2940.00000, 117.382, -31.6231, 121.08, -151.144, 120.162, 87.3743, 0, 0, 7.17983, -54.697, 7.37787, -174.218, 7.3689, 64.3004, 0.0374434, -96.8103
1, 3000.00000, 117.382, -31.6231, 121.08, -151.144, 120.162, 87.3743, 0, 0, 7.17983, -54.697, 7.37787, -174.218, 7.3689, 64.3004, 0.0374434, -96.8104
1, 3060.00000, 117.382, -31.6231, 121.08, -151.144, 120.162, 87.3743, 0, 0, 7.17983, -54.697, 7.37787, -174.218, 7.3689, 64.3004, 0.0374434, -96.8104
1, 3120.00000, 117.382, -31.6231, 121.08, -151.144, 120.162, 87.3743, 0, 0, 7.17983, -54.697, 7.37787, -174.218, 7.3689, 64.3004, 0.0374434, -96.8104
1, 3180.00000, 117.382, -31.6231, 121.08, -151.144, 120.162, 87.3743, 0, 0, 7.17983, -54.697, 7.37787, -174.218, 7.3689, 64.3004, 0.0374434, -96.8105
1, 3240.00000, 117.382, -31.6231, 121.08, -151.144, 120.162, 87.3743, 0, 0, 7.17983, -54.697, 7.37787, -174.218, 7.3689, 64.3004, 0.0374434, -96.8105
1, 3300.00000, 117.382, -31.6231, 121.08, -151.144, 120.162, 87.3743, 0, 0, 7.17983, -54.697, 7.37787, -174.218, 7.3689, 64.3004, 0.0374434, -96.8106
1, 3360.00000, 117.382, -31.6231, 121.08, -151.144, 120.162, 87.3743, 0, 0, 7.17983, -54.697, 7.37787, -174.218, 7.3689, 64.3004, 0.0374434, -96.8106
1, 3420.00000, 117.382, -31.6231, 121.08, -151.144, 120.162, 87.3743, 0, 0, 7.17983, -54.697, 7.37787, -174.218, 7.3689, 64.3004, 0.0374434, -96.8106
1, 3480.00000, 117.382, -31.6231, 121.08, -151.144, 120.162, 87.3743, 0, 0, 7.17983, -54.697, 7.37787, -174.218, 7.3689, 64.3004, 0.0374434, -96.8106
1, 3540.00000, 117.382, -31.6231, 121.08, -151.144, 120.162, 87.3743, 0, 0, 7.17983, -54.697, 7.37787, -174.218, 7.3689, 64.3004, 0.0374434, -96.8107
2, 0.00000, 117.382, -31.6231, 121.08, -151.144, 120.162, 87.3743, 0, 0, 7.17983, -54.697, 7.37787, -174.218, 7.3689, 64.3004, 0.0374435, -96.8107
2, 60.00000, 117.382, -31.6231, 121.08, -151.144, 120.162, 87.3743, 0, 0, 7.17983, -54.697, 7.37787, -174.218, 7.3689, 64.3004, 0.0374435, -96.8107
2, 120.00000, 117.382, -31.6231, 121.08, -151.144, 120.162, 87.3743, 0, 0, 7.17983, -54.697, 7.37787, -174.218, 7.3689, 64.3004, 0.0374435, -96.8107
2, 180.00000, 117.382, -31.6231, 121.08, -151.144, 120.162, 87.3743, 0, 0, 7.17983, -54.697, 7.37787, -174.218, 7.3689, 64.3004, 0.0374435, -96.8107
2, 240.00000, 117.382, -31.6231, 121.08, -151.144, 120.162, 87.3743, 0, 0, 7.17983, -54.697, 7.37787, -174.218, 7.3689, 64.3004, 0.0374435, -96.8107
2, 300.00000, 117.382, -31.6231, 121.08, -151.144, 120.162, 87.3743, 0, 0, 7.17983, -54.697, 7.37787, -174.218, 7.3689, 64.3004, 0.0374435, -96.8107
2, 360.00000, 117.382, -31.6231, 121.08, -151.144, 120.162, 87.3743, 0, 0, 7.17983, -54.697, 7.37787, -174.218, 7.3689, 64.3004, 0.0374435, -96.8108
2, 420.00000, 117.382, -31.6231, 121.08, -151.144, 120.162, 87.3743, 0, 0, 7.17983, -54.697, 7.37787, -174.218, 7.3689, 64.3004, 0.0374435, -96.8108
2, 480.00000, 117.382, -31.6231, 121.08, -151.144, 120.162, 87.3743, 0, 0, 7.17983, -54.697, 7.37787, -174.218, 7.3689, 64.3004, 0.0374435, -96.8108
2, 540.00000, 117.382, -31.6231, 121.08, -151.144, 120.162, 87.3743, 0, 0, 7.17983, -54.697, 7.37787, -174.218, 7.3689, 64.3004, 0.0374435, -96.8108
2, 600.00000, 117.382, -31.6231, 121.08, -151.144, 120.162, 87.3743, 0, 0, 7.17983, -54.697, 7.37787, -174.218, 7.3689, 64.3004, 0.0374435, -96.8108
2, 660.00000, 117.382, -31.6231, 121.08, -151.144, 120.162, 87.3743, 0, 0, 7.17983, -54.697, 7.37787, -174.218, 7.3689, 64.3004, 0.0374435, -96.8108
2, 720.00000, 117.382, -31.6231, 121.08, -151.144, 120.162, 87.3743, 0, 0, 7.17983, -54.697, 7.37787, -174.218, 7.3689, 64.3004, 0.0374435, -96.8108
