hour,t(sec),"P1 (kW)","Q1 (kvar)","P2 (kW)","Q2 (kvar)","P3 (kW)","Q3 (kvar)","P4 (kW)","Q4 (kvar)"
0, 60.00000, 0.141421, 0.060243, 0.141418, 0.0602451, 0.141414, 0.0602403, 0, 0
0, 120.00000, 0.14142, 0.0602448, 0.14142, 0.0602448, 0.14142, 0.0602447, 0, 0
0, 180.00000, 0.14142, 0.0602448, 0.14142, 0.0602448, 0.14142, 0.0602448, 0, 0
0, 240.00000, 0.14142, 0.0602448, 0.14142, 0.0602448, 0.14142, 0.0602448, 0, 0
0, 300.00000, 0.14142, 0.0602448, 0.14142, 0.0602448, 0.14142, 0.0602448, 0, 0
0, 360.00000, 0.14142, 0.0602448, 0.14142, 0.0602448, 0.14142, 0.0602448, 0, 0
0, 420.00000, 0.14142, 0.0602448, 0.14142, 0.0602448, 0.14142, 0.0602448, 0, 0
0, 480.00000, 0.14142, 0.0602448, 0.14142, 0.0602448, 0.14142, 0.0602448, 0, 0
0, 540.00000, 0.14142, 0.0602448, 0.14142, 0.0602448, 0.14142, 0.0602448, 0, 0
0, 600.00000, 0.14142, 0.0602448, 0.14142, 0.0602448, 0.14142, 0.0602448, 0, 0
0, 660.00000, 0.14142, 0.0602448, 0.14142, 0.0602448, 0.14142, 0.0602448, 0, 0
0, 720.00000, 0.14142, 0.0602448, 0.14142, 0.0602448, 0.14142, 0.0602448, 0, 0
0, 780.00000, 0.14142, 0.0602448, 0.14142, 0.0602448, 0.14142, 0.0602448, 0, 0
0, 840.00000, 0.14142, 0.0602448, 0.14142, 0.0602448, 0.14142, 0.0602448, 0, 0
0, 900.00000, 0.14142, 0.0602448, 0.14142, 0.0602448, 0.14142, 0.0602448, 0, 0
0, 960.00000, 0.13987, 0.059584, 0.13987, 0.0595841, 0.13987, 0.059584, 0, 0
0, 1020.00000, 0.13987, 0.0595845, 0.13987, 0.0595845, 0.13987, 0.0595845, 0, 0
0, 1080.00000, 0.13987, 0.0595845, 0.13987, 0.0595845, 0.13987, 0.0595845, 0, 0
0, 1140.00000, 0.13987, 0.0595845, 0.13987, 0.0595845, 0.13987, 0.0595845, 0, 0
0, 1200.00000, 0.13987, 0.0595845, 0.13987, 0.0595845, 0.13987, 0.0595845, 0, 0
0, 1260.00000, 0.13987, 0.0595845, 0.13987, 0.0595845, 0.13987, 0.0595845, 0, 0
0, 1320.00000, 0.13987, 0.0595845, 0.13987, 0.0595845, 0.13987, 0.0595845, 0, 0
0, 1380.00000, 0.13987, 0.0595845, 0.13987, 0.0595845, 0.13987, 0.0595845, 0, 0
0, 1440.00000, 0.13987, 0.0595845, 0.13987, 0.0595845, 0.13987, 0.0595845, 0, 0
0, 1500.00000, 0.13987, 0.0595845, 0.13987, 0.0595845, 0.13987, 0.0595845, 0, 0
0, 1560.00000, 0.13987, 0.0595845, 0.13987, 0.0595845, 0.13987, 0.0595845, 0, 0
0, 1620.00000, 0.13987, 0.0595845, 0.13987, 0.0595845, 0.13987, 0.0595845, 0, 0
0, 1680.00000, 0.13987, 0.0595845, 0.13987, 0.0595845, 0.13987, 0.0595845, 0, 0
0, 1740.00000, 0.13987, 0.0595845, 0.13987, 0.0595845, 0.13987, 0.0595845, 0, 0
0, 1800.00000, 0.13987, 0.0595845, 0.13987, 0.0595845, 0.13987, 0.0595845, 0, 0
0, 1860.00000, 0.13962, 0.0594807, 0.13962, 0.0594802, 0.13962, 0.0594802, 0, 0
0, 1920.00000, 0.139614, 0.0594754, 0.139614, 0.0594754, 0.139614, 0.0594754, 0, 0
0, 1980.00000, 0.139614, 0.0594754, 0.139614, 0.0594754, 0.139614, 0.0594754, 0, 0
0, 2040.00000, 0.139614, 0.0594754, 0.139614, 0.0594754, 0.139614, 0.0594754, 0, 0
0, 2100.00000, 0.139614, 0.0594754, 0.139614, 0.0594754, 0.139614, 0.0594754, 0, 0
0, 2160.00000, 0.139614, 0.0594754, 0.139614, 0.0594754, 0.139614, 0.0594754, 0, 0
0, 2220.00000, 0.139614, 0.0594754, 0.139614, 0.0594754, 0.139614, 0.0594754, 0, 0
0, 2280.00000, 0.139614, 0.0594754, 0.139614, 0.0594754, 0.139614, 0.0594754, 0, 0
0, 2340.00000, 0.139614, 0.0594754, 0.139614, 0.0594754, 0.139614, 0.0594754, 0, 0
0, 2400.00000, 0.139614, 0.0594754, 0.139614, 0.0594754, 0.139614, 0.0594754, 0, 0
0, 2460.00000, 0.139614, 0.0594754, 0.139614, 0.0594754, 0.139614, 0.0594754, 0, 0
0, 2520.00000, 0.139614, 0.0594754, 0.139614, 0.0594754, 0.139614, 0.0594754, 0, 0
0, 2580.00000, 0.139614, 0.0594754, 0.139614, 0.0594754, 0.139614, 0.0594754, 0, 0
0, 2640.00000, 0.139614, 0.0594754, 0.139614, 0.0594754, 0.139614, 0.0594754, 0, 0
0, 2700.00000, 0.139614, 0.0594754, 0.139614, 0.0594754, 0.139614, 0.0594754, 0, 0
0, 2760.00000, 0.14532, 0.0619072, 0.145321, 0.0619058, 0.145324, 0.0619086, 0, 0
0, 2820.00000, 0.14532, 0.0619063, 0.14532, 0.0619062, 0.14532, 0.0619063, 0, 0
0, 2880.00000, 0.14532, 0.0619062, 0.14532, 0.0619062, 0.14532, 0.0619062, 0, 0
0, 2940.00000, 0.14532, 0.0619062, 0.14532, 0.0619062, 0.14532, 0.0619062, 0, 0
0, 3000.00000, 0.14532, 0.0619062, 0.14532, 0.0619062, 0.14532, 0.0619062, 0, 0
0, 3060.00000, 0.14532, 0.0619062, 0.14532, 0.0619062, 0.14532, 0.0619062, 0, 0
0, 3120.00000, 0.14532, 0.0619062, 0.14532, 0.0619062, 0.14532, 0.0619062, 0, 0
0, 3180.00000, 0.14532, 0.0619062, 0.14532, 0.0619062, 0.14532, 0.0619062, 0, 0
0, 3240.00000, 0.14532, 0.0619062, 0.14532, 0.0619062, 0.14532, 0.0619062, 0, 0
0, 3300.00000, 0.14532, 0.0619062, 0.14532, 0.0619062, 0.14532, 0.0619062, 0, 0
0, 3360.00000, 0.14532, 0.0619062, 0.14532, 0.0619062, 0.14532, 0.0619062, 0, 0
0, 3420.00000, 0.14532, 0.0619062, 0.14532, 0.0619062, 0.14532, 0.0619062, 0, 0
0, 3480.00000, 0.14532, 0.0619062, 0.14532, 0.0619062, 0.14532, 0.0619062, 0, 0
0, 3540.00000, 0.14532, 0.0619062, 0.14532, 0.0619062, 0.14532, 0.0619062, 0, 0
1, 0.00000, 0.14532, 0.0619062, 0.14532, 0.0619062, 0.14532, 0.0619062, 0, 0
1, 60.00000, 0.147647, 0.0628986, 0.147649, 0.0628971, 0.147651, 0.0629001, 0, 0
1, 120.00000, 0.147648, 0.0628978, 0.147648, 0.0628977, 0.147648, 0.0628978, 0, 0
1, 180.00000, 0.147648, 0.0628978, 0.147648, 0.0628978, 0.147648, 0.0628978, 0, 0
1, 240.00000, 0.147648, 0.0628978, 0.147648, 0.0628978, 0.147648, 0.0628978, 0, 0
1, 300.00000, 0.147648, 0.0628978, 0.147648, 0.0628978, 0.147648, 0.0628978, 0, 0
1, 360.00000, 0.147648, 0.0628978, 0.147648, 0.0628978, 0.147648, 0.0628978, 0, 0
1, 420.00000, 0.147648, 0.0628978, 0.147648, 0.0628978, 0.147648, 0.0628978, 0, 0
1, 480.00000, 0.147648, 0.0628978, 0.147648, 0.0628978, 0.147648, 0.0628978, 0, 0
1, 540.00000, 0.147648, 0.0628978, 0.147648, 0.0628978, 0.147648, 0.0628978, 0, 0
1, 600.00000, 0.147648, 0.0628978, 0.147648, 0.0628978, 0.147648, 0.0628978, 0, 0
1, 660.00000, 0.147648, 0.0628978, 0.147648, 0.0628978, 0.147648, 0.0628978, 0, 0
1, 720.00000, 0.147648, 0.0628978, 0.147648, 0.0628978, 0.147648, 0.0628978, 0, 0
1, 780.00000, 0.147648, 0.0628978, 0.147648, 0.0628978, 0.147648, 0.0628978, 0, 0
1, 840.00000, 0.147648, 0.0628978, 0.147648, 0.0628978, 0.147648, 0.0628978, 0, 0
1, 900.00000, 0.147648, 0.0628978, 0.147648, 0.0628978, 0.147648, 0.0628978, 0, 0
1, 960.00000, 0.145235, 0.0618713, 0.145236, 0.0618701, 0.145238, 0.0618723, 0, 0
1, 1020.00000, 0.145234, 0.0618697, 0.145235, 0.0618696, 0.145235, 0.0618697, 0, 0
1, 1080.00000, 0.145235, 0.0618696, 0.145235, 0.0618696, 0.145235, 0.0618696, 0, 0
1, 1140.00000, 0.145235, 0.0618696, 0.145235, 0.0618696, 0.145235, 0.0618696, 0, 0
1, 1200.00000, 0.145235, 0.0618696, 0.145235, 0.0618696, 0.145235, 0.0618696, 0, 0
1, 1260.00000, 0.145235, 0.0618696, 0.145235, 0.0618696, 0.145235, 0.0618696, 0, 0
1, 1320.00000, 0.145235, 0.0618696, 0.145235, 0.0618696, 0.145235, 0.0618696, 0, 0
1, 1380.00000, 0.145235, 0.0618696, 0.145235, 0.0618696, 0.145235, 0.0618696, 0, 0
1, 1440.00000, 0.145235, 0.0618696, 0.145235, 0.0618696, 0.145235, 0.0618696, 0, 0
1, 1500.00000, 0.145235, 0.0618696, 0.145235, 0.0618696, 0.145235, 0.0618696, 0, 0
1, 1560.00000, 0.145235, 0.0618696, 0.145235, 0.0618696, 0.145235, 0.0618696, 0, 0
1, 1620.00000, 0.145235, 0.0618696, 0.145235, 0.0618696, 0.145235, 0.0618696, 0, 0
1, 1680.00000, 0.145235, 0.0618696, 0.145235, 0.0618696, 0.145235, 0.0618696, 0, 0
1, 1740.00000, 0.145235, 0.0618696, 0.145235, 0.0618696, 0.145235, 0.0618696, 0, 0
1, 1800.00000, 0.145235, 0.0618696, 0.145235, 0.0618696, 0.145235, 0.0618696, 0, 0
1, 1860.00000, 0.136238, 0.0580364, 0.136237, 0.0580377, 0.136235, 0.0580351, 0, 0
1, 1920.00000, 0.136238, 0.0580371, 0.136238, 0.0580371, 0.136238, 0.0580371, 0, 0
1, 1980.00000, 0.136238, 0.0580371, 0.136238, 0.0580371, 0.136238, 0.0580371, 0, 0
1, 2040.00000, 0.136238, 0.0580371, 0.136238, 0.0580371, 0.136238, 0.0580371, 0, 0
1, 2100.00000, 0.136238, 0.0580371, 0.136238, 0.0580371, 0.136238, 0.0580371, 0, 0
1, 2160.00000, 0.136238, 0.0580371, 0.136238, 0.0580371, 0.136238, 0.0580371, 0, 0
1, 2220.00000, 0.136238, 0.0580371, 0.136238, 0.0580371, 0.136238, 0.0580371, 0, 0
1, 2280.00000, 0.136238, 0.0580371, 0.136238, 0.0580371, 0.136238, 0.0580371, 0, 0
1, 2340.00000, 0.136238, 0.0580371, 0.136238, 0.0580371, 0.136238, 0.0580371, 0, 0
1, 2400.00000, 0.136238, 0.0580371, 0.136238, 0.0580371, 0.136238, 0.0580371, 0, 0
1, 2460.00000, 0.136238, 0.0580371, 0.136238, 0.0580371, 0.136238, 0.0580371, 0, 0
1, 2520.00000, 0.136238, 0.0580371, 0.136238, 0.0580371, 0.136238, 0.0580371, 0, 0
1, 2580.00000, 0.136238, 0.0580371, 0.136238, 0.0580371, 0.136238, 0.0580371, 0, 0
1, 2640.00000, 0.136238, 0.0580371, 0.136238, 0.0580371, 0.136238, 0.0580371, 0, 0
1, 2700.00000, 0.136238, 0.0580371, 0.136238, 0.0580371, 0.136238, 0.0580371, 0, 0
1, 2760.00000, 0.135607, 0.0577695, 0.13561, 0.0577684, 0.135612, 0.0577724, 0, 0
1, 2820.00000, 0.135607, 0.0577684, 0.135607, 0.0577684, 0.135607, 0.0577684, 0, 0
1, 2880.00000, 0.135607, 0.0577684, 0.135607, 0.0577684, 0.135607, 0.0577684, 0, 0
1, 2940.00000, 0.135607, 0.0577684, 0.135607, 0.0577684, 0.135607, 0.0577684, 0, 0
1, 3000.00000, 0.135607, 0.0577684, 0.135607, 0.0577684, 0.135607, 0.0577684, 0, 0
1, 3060.00000, 0.135607, 0.0577684, 0.135607, 0.0577684, 0.135607, 0.0577684, 0, 0
1, 3120.00000, 0.135607, 0.0577684, 0.135607, 0.0577684, 0.135607, 0.0577684, 0, 0
1, 3180.00000, 0.135607, 0.0577684, 0.135607, 0.0577684, 0.135607, 0.0577684, 0, 0
1, 3240.00000, 0.135607, 0.0577684, 0.135607, 0.0577684, 0.135607, 0.0577684, 0, 0
1, 3300.00000, 0.135607, 0.0577684, 0.135607, 0.0577684, 0.135607, 0.0577684, 0, 0
1, 3360.00000, 0.135607, 0.0577684, 0.135607, 0.0577684, 0.135607, 0.0577684, 0, 0
1, 3420.00000, 0.135607, 0.0577684, 0.135607, 0.0577684, 0.135607, 0.0577684, 0, 0
1, 3480.00000, 0.135607, 0.0577684, 0.135607, 0.0577684, 0.135607, 0.0577684, 0, 0
1, 3540.00000, 0.135607, 0.0577684, 0.135607, 0.0577684, 0.135607, 0.0577684, 0, 0
2, 0.00000, 0.135607, 0.0577684, 0.135607, 0.0577684, 0.135607, 0.0577684, 0, 0
2, 60.00000, 0.142087, 0.0605277, 0.142085, 0.0605289, 0.142083, 0.060526, 0, 0
2, 120.00000, 0.142086, 0.0605285, 0.142086, 0.0605285, 0.142086, 0.0605284, 0, 0
2, 180.00000, 0.142086, 0.0605285, 0.142086, 0.0605285, 0.142086, 0.0605285, 0, 0
2, 240.00000, 0.142086, 0.0605285, 0.142086, 0.0605285, 0.142086, 0.0605285, 0, 0
2, 300.00000, 0.142086, 0.0605285, 0.142086, 0.0605285, 0.142086, 0.0605285, 0, 0
2, 360.00000, 0.142086, 0.0605285, 0.142086, 0.0605285, 0.142086, 0.0605285, 0, 0
2, 420.00000, 0.142086, 0.0605285, 0.142086, 0.0605285, 0.142086, 0.0605285, 0, 0
2, 480.00000, 0.142086, 0.0605285, 0.142086, 0.0605285, 0.142086, 0.0605285, 0, 0
2, 540.00000, 0.142086, 0.0605285, 0.142086, 0.0605285, 0.142086, 0.0605285, 0, 0
2, 600.00000, 0.142086, 0.0605285, 0.142086, 0.0605285, 0.142086, 0.0605285, 0, 0
2, 660.00000, 0.142086, 0.0605285, 0.142086, 0.0605285, 0.142086, 0.0605285, 0, 0
2, 720.00000, 0.142086, 0.0605285, 0.142086, 0.0605285, 0.142086, 0.0605285, 0, 0
2, 780.00000, 0.142086, 0.0605285, 0.142086, 0.0605285, 0.142086, 0.0605285, 0, 0
2, 840.00000, 0.142086, 0.0605285, 0.142086, 0.0605285, 0.142086, 0.0605285, 0, 0
2, 900.00000, 0.142086, 0.0605285, 0.142086, 0.0605285, 0.142086, 0.0605285, 0, 0
2, 960.00000, 0.172875, 0.0736454, 0.172877, 0.0736449, 0.172879, 0.0736478, 0, 0
2, 1020.00000, 0.172875, 0.0736443, 0.172875, 0.0736443, 0.172875, 0.0736443, 0, 0
2, 1080.00000, 0.172875, 0.0736443, 0.172875, 0.0736443, 0.172875, 0.0736443, 0, 0
2, 1140.00000, 0.172875, 0.0736443, 0.172875, 0.0736443, 0.172875, 0.0736443, 0, 0
2, 1200.00000, 0.172875, 0.0736443, 0.172875, 0.0736443, 0.172875, 0.0736443, 0, 0
2, 1260.00000, 0.172875, 0.0736443, 0.172875, 0.0736443, 0.172875, 0.0736443, 0, 0
2, 1320.00000, 0.172875, 0.0736443, 0.172875, 0.0736443, 0.172875, 0.0736443, 0, 0
2, 1380.00000, 0.172875, 0.0736443, 0.172875, 0.0736443, 0.172875, 0.0736443, 0, 0
2, 1440.00000, 0.172875, 0.0736443, 0.172875, 0.0736443, 0.172875, 0.0736443, 0, 0
2, 1500.00000, 0.172875, 0.0736443, 0.172875, 0.0736443, 0.172875, 0.0736443, 0, 0
2, 1560.00000, 0.172875, 0.0736443, 0.172875, 0.0736443, 0.172875, 0.0736443, 0, 0
2, 1620.00000, 0.172875, 0.0736443, 0.172875, 0.0736443, 0.172875, 0.0736443, 0, 0
2, 1680.00000, 0.172875, 0.0736443, 0.172875, 0.0736443, 0.172875, 0.0736443, 0, 0
2, 1740.00000, 0.172875, 0.0736443, 0.172875, 0.0736443, 0.172875, 0.0736443, 0, 0
2, 1800.00000, 0.172875, 0.0736443, 0.172875, 0.0736443, 0.172875, 0.0736443, 0, 0
2, 1860.00000, 0.167249, 0.0712474, 0.167247, 0.0712472, 0.167247, 0.0712462, 0, 0
2, 1920.00000, 0.167249, 0.0712476, 0.167249, 0.0712476, 0.167249, 0.0712476, 0, 0
2, 1980.00000, 0.167249, 0.0712476, 0.167249, 0.0712476, 0.167249, 0.0712476, 0, 0
2, 2040.00000, 0.167249, 0.0712476, 0.167249, 0.0712476, 0.167249, 0.0712476, 0, 0
2, 2100.00000, 0.167249, 0.0712476, 0.167249, 0.0712476, 0.167249, 0.0712476, 0, 0
2, 2160.00000, 0.167249, 0.0712476, 0.167249, 0.0712476, 0.167249, 0.0712476, 0, 0
2, 2220.00000, 0.167249, 0.0712476, 0.167249, 0.0712476, 0.167249, 0.0712476, 0, 0
2, 2280.00000, 0.167249, 0.0712476, 0.167249, 0.0712476, 0.167249, 0.0712476, 0, 0
2, 2340.00000, 0.167249, 0.0712476, 0.167249, 0.0712476, 0.167249, 0.0712476, 0, 0
2, 2400.00000, 0.167249, 0.0712476, 0.167249, 0.0712476, 0.167249, 0.0712476, 0, 0
2, 2460.00000, 0.167249, 0.0712476, 0.167249, 0.0712476, 0.167249, 0.0712476, 0, 0
2, 2520.00000, 0.167249, 0.0712476, 0.167249, 0.0712476, 0.167249, 0.0712476, 0, 0
2, 2580.00000, 0.167249, 0.0712476, 0.167249, 0.0712476, 0.167249, 0.0712476, 0, 0
2, 2640.00000, 0.167249, 0.0712476, 0.167249, 0.0712476, 0.167249, 0.0712476, 0, 0
2, 2700.00000, 0.167249, 0.0712476, 0.167249, 0.0712476, 0.167249, 0.0712476, 0, 0
2, 2760.00000, 0.174309, 0.0742565, 0.174309, 0.0742555, 0.174311, 0.0742576, 0, 0
2, 2820.00000, 0.174306, 0.0742541, 0.174306, 0.074254, 0.174306, 0.0742541, 0, 0
2, 2880.00000, 0.174306, 0.074254, 0.174306, 0.074254, 0.174306, 0.074254, 0, 0
2, 2940.00000, 0.174306, 0.074254, 0.174306, 0.074254, 0.174306, 0.074254, 0, 0
2, 3000.00000, 0.174306, 0.074254, 0.174306, 0.074254, 0.174306, 0.074254, 0, 0
2, 3060.00000, 0.174306, 0.074254, 0.174306, 0.074254, 0.174306, 0.074254, 0, 0
2, 3120.00000, 0.174306, 0.074254, 0.174306, 0.074254, 0.174306, 0.074254, 0, 0
2, 3180.00000, 0.174306, 0.074254, 0.174306, 0.074254, 0.174306, 0.074254, 0, 0
2, 3240.00000, 0.174306, 0.074254, 0.174306, 0.074254, 0.174306, 0.074254, 0, 0
2, 3300.00000, 0.174306, 0.074254, 0.174306, 0.074254, 0.174306, 0.074254, 0, 0
2, 3360.00000, 0.174306, 0.074254, 0.174306, 0.074254, 0.174306, 0.074254, 0, 0
2, 3420.00000, 0.174306, 0.074254, 0.174306, 0.074254, 0.174306, 0.074254, 0, 0
2, 3480.00000, 0.174306, 0.074254, 0.174306, 0.074254, 0.174306, 0.074254, 0, 0
2, 3540.00000, 0.174306, 0.074254, 0.174306, 0.074254, 0.174306, 0.074254, 0, 0
3, 0.00000, 0.174306, 0.074254, 0.174306, 0.074254, 0.174306, 0.074254, 0, 0
3, 60.00000, 0.15931, 0.067865, 0.15931, 0.0678657, 0.159309, 0.0678649, 0, 0
3, 120.00000, 0.159312, 0.0678665, 0.159312, 0.0678665, 0.159312, 0.0678665, 0, 0
3, 180.00000, 0.159312, 0.0678665, 0.159312, 0.0678665, 0.159312, 0.0678665, 0, 0
3, 240.00000, 0.159312, 0.0678665, 0.159312, 0.0678665, 0.159312, 0.0678665, 0, 0
3, 300.00000, 0.159312, 0.0678665, 0.159312, 0.0678665, 0.159312, 0.0678665, 0, 0
3, 360.00000, 0.159312, 0.0678665, 0.159312, 0.0678665, 0.159312, 0.0678665, 0, 0
3, 420.00000, 0.159312, 0.0678665, 0.159312, 0.0678665, 0.159312, 0.0678665, 0, 0
3, 480.00000, 0.159312, 0.0678665, 0.159312, 0.0678665, 0.159312, 0.0678665, 0, 0
3, 540.00000, 0.159312, 0.0678665, 0.159312, 0.0678665, 0.159312, 0.0678665, 0, 0
3, 600.00000, 0.159312, 0.0678665, 0.159312, 0.0678665, 0.159312, 0.0678665, 0, 0
3, 660.00000, 0.159312, 0.0678665, 0.159312, 0.0678665, 0.159312, 0.0678665, 0, 0
3, 720.00000, 0.159312, 0.0678665, 0.159312, 0.0678665, 0.159312, 0.0678665, 0, 0
3, 780.00000, 0.159312, 0.0678665, 0.159312, 0.0678665, 0.159312, 0.0678665, 0, 0
3, 840.00000, 0.159312, 0.0678665, 0.159312, 0.0678665, 0.159312, 0.0678665, 0, 0
3, 900.00000, 0.159312, 0.0678665, 0.159312, 0.0678665, 0.159312, 0.0678665, 0, 0
3, 960.00000, 0.168842, 0.0719278, 0.168841, 0.071927, 0.168843, 0.0719281, 0, 0
3, 1020.00000, 0.168837, 0.0719243, 0.168837, 0.0719243, 0.168837, 0.0719243, 0, 0
3, 1080.00000, 0.168837, 0.0719243, 0.168837, 0.0719243, 0.168837, 0.0719243, 0, 0
3, 1140.00000, 0.168837, 0.0719243, 0.168837, 0.0719243, 0.168837, 0.0719243, 0, 0
3, 1200.00000, 0.168837, 0.0719243, 0.168837, 0.0719243, 0.168837, 0.0719243, 0, 0
3, 1260.00000, 0.168837, 0.0719243, 0.168837, 0.0719243, 0.168837, 0.0719243, 0, 0
3, 1320.00000, 0.168837, 0.0719243, 0.168837, 0.0719243, 0.168837, 0.0719243, 0, 0
3, 1380.00000, 0.168837, 0.0719243, 0.168837, 0.0719243, 0.168837, 0.0719243, 0, 0
3, 1440.00000, 0.168837, 0.0719243, 0.168837, 0.0719243, 0.168837, 0.0719243, 0, 0
3, 1500.00000, 0.168837, 0.0719243, 0.168837, 0.0719243, 0.168837, 0.0719243, 0, 0
3, 1560.00000, 0.168837, 0.0719243, 0.168837, 0.0719243, 0.168837, 0.0719243, 0, 0
3, 1620.00000, 0.168837, 0.0719243, 0.168837, 0.0719243, 0.168837, 0.0719243, 0, 0
3, 1680.00000, 0.168837, 0.0719243, 0.168837, 0.0719243, 0.168837, 0.0719243, 0, 0
3, 1740.00000, 0.168837, 0.0719243, 0.168837, 0.0719243, 0.168837, 0.0719243, 0, 0
3, 1800.00000, 0.168837, 0.0719243, 0.168837, 0.0719243, 0.168837, 0.0719243, 0, 0
3, 1860.00000, 0.160711, 0.0684636, 0.16071, 0.0684631, 0.16071, 0.0684631, 0, 0
3, 1920.00000, 0.160706, 0.0684604, 0.160706, 0.0684604, 0.160706, 0.0684604, 0, 0
3, 1980.00000, 0.160706, 0.0684604, 0.160706, 0.0684604, 0.160706, 0.0684604, 0, 0
3, 2040.00000, 0.160706, 0.0684604, 0.160706, 0.0684604, 0.160706, 0.0684604, 0, 0
3, 2100.00000, 0.160706, 0.0684604, 0.160706, 0.0684604, 0.160706, 0.0684604, 0, 0
3, 2160.00000, 0.160706, 0.0684604, 0.160706, 0.0684604, 0.160706, 0.0684604, 0, 0
3, 2220.00000, 0.160706, 0.0684604, 0.160706, 0.0684604, 0.160706, 0.0684604, 0, 0
3, 2280.00000, 0.160706, 0.0684604, 0.160706, 0.0684604, 0.160706, 0.0684604, 0, 0
3, 2340.00000, 0.160706, 0.0684604, 0.160706, 0.0684604, 0.160706, 0.0684604, 0, 0
3, 2400.00000, 0.160706, 0.0684604, 0.160706, 0.0684604, 0.160706, 0.0684604, 0, 0
3, 2460.00000, 0.160706, 0.0684604, 0.160706, 0.0684604, 0.160706, 0.0684604, 0, 0
3, 2520.00000, 0.160706, 0.0684604, 0.160706, 0.0684604, 0.160706, 0.0684604, 0, 0
3, 2580.00000, 0.160706, 0.0684604, 0.160706, 0.0684604, 0.160706, 0.0684604, 0, 0
3, 2640.00000, 0.160706, 0.0684604, 0.160706, 0.0684604, 0.160706, 0.0684604, 0, 0
3, 2700.00000, 0.160706, 0.0684604, 0.160706, 0.0684604, 0.160706, 0.0684604, 0, 0
3, 2760.00000, 0.177668, 0.0756879, 0.177667, 0.0756863, 0.177669, 0.0756879, 0, 0
3, 2820.00000, 0.177665, 0.0756848, 0.177665, 0.0756848, 0.177665, 0.0756849, 0, 0
3, 2880.00000, 0.177665, 0.0756848, 0.177665, 0.0756848, 0.177665, 0.0756848, 0, 0
3, 2940.00000, 0.177665, 0.0756848, 0.177665, 0.0756848, 0.177665, 0.0756848, 0, 0
3, 3000.00000, 0.177665, 0.0756848, 0.177665, 0.0756848, 0.177665, 0.0756848, 0, 0
3, 3060.00000, 0.177665, 0.0756848, 0.177665, 0.0756848, 0.177665, 0.0756848, 0, 0
3, 3120.00000, 0.177668, 0.0756846, 0.177671, 0.0756916, 0.177661, 0.0756837, 0, 0
3, 3180.00000, 0.177665, 0.0756848, 0.177665, 0.0756849, 0.177664, 0.0756847, 0, 0
3, 3240.00000, 0.177665, 0.0756848, 0.177665, 0.0756848, 0.177665, 0.0756848, 0, 0
3, 3300.00000, 0.177665, 0.0756848, 0.177665, 0.0756848, 0.177665, 0.0756848, 0, 0
3, 3360.00000, 0.177665, 0.0756848, 0.177665, 0.0756848, 0.177665, 0.0756848, 0, 0
3, 3420.00000, 0.177665, 0.0756848, 0.177665, 0.0756848, 0.177665, 0.0756848, 0, 0
3, 3480.00000, 0.177665, 0.0756848, 0.177665, 0.0756848, 0.177665, 0.0756848, 0, 0
3, 3540.00000, 0.177665, 0.0756848, 0.177665, 0.0756848, 0.177665, 0.0756848, 0, 0
4, 0.00000, 0.177665, 0.0756848, 0.177665, 0.0756848, 0.177665, 0.0756848, 0, 0
4, 60.00000, 0.172925, 0.073665, 0.172926, 0.0736655, 0.172925, 0.0736649, 0, 0
4, 120.00000, 0.172928, 0.0736668, 0.172928, 0.0736669, 0.172928, 0.0736668, 0, 0
4, 180.00000, 0.172928, 0.0736669, 0.172928, 0.0736669, 0.172928, 0.0736669, 0, 0
