hour,t(sec),V1,VAngle1,V2,VAngle2,V3,VAngle3,V4,VAngle4,I1,IAngle1,I2,IAngle2,I3,IAngle3,I4,IAngle4
0, 60.00000, 116.511, -32.9909, 117.293, -150.931, 121.615, 87.7148, 0, 0, 3.60816, -56.0649, 3.63497, -174.004, 3.72214, 64.642, 0.0118493, 55.3758
0, 120.00000, 116.506, -33.0137, 117.293, -150.932, 121.661, 87.7017, 0, 0, 3.60798, -56.0877, 3.63496, -174.005, 3.72069, 64.6288, 0.0143699, 56.8352
0, 180.00000, 116.502, -33.0342, 117.293, -150.933, 121.703, 87.69, 0, 0, 3.60781, -56.1082, 3.63495, -174.006, 3.71939, 64.6169, 0.0166434, 57.7659
0, 240.00000, 116.498, -33.0526, 117.292, -150.933, 121.742, 87.6794, 0, 0, 3.60766, -56.1266, 3.63494, -174.006, 3.71821, 64.6063, 0.018696, 58.4012
0, 300.00000, 116.494, -33.0692, 117.292, -150.934, 121.776, 87.6699, 0, 0, 3.60753, -56.1432, 3.63493, -174.007, 3.71715, 64.5967, 0.020547, 58.8589
0, 360.00000, 116.491, -33.0841, 117.292, -150.934, 121.807, 87.6613, 0, 0, 3.6074, -56.1581, 3.63491, -174.007, 3.71619, 64.588, 0.0222132, 59.2036
0, 420.00000, 116.488, -33.0976, 117.291, -150.934, 121.835, 87.6535, 0, 0, 3.60729, -56.1716, 3.6349, -174.008, 3.71533, 64.5802, 0.0237127, 59.4711
0, 480.00000, 117.591, -33.0329, 118.402, -150.87, 123.125, 87.749, 0, 0, 2.8989, -56.1067, 2.92106, -173.943, 2.92361, 64.6757, 0.0811223, 62.3524
0, 540.00000, 117.589, -33.0439, 118.402, -150.87, 123.147, 87.7427, 0, 0, 2.89883, -56.1177, 2.92106, -173.944, 2.92306, 64.6693, 0.0820919, 62.3626
0, 600.00000, 117.587, -33.0538, 118.402, -150.87, 123.168, 87.737, 0, 0, 2.89877, -56.1276, 2.92105, -173.944, 2.92258, 64.6636, 0.0829624, 62.372
0, 660.00000, 117.585, -33.0627, 118.402, -150.871, 123.186, 87.7319, 0, 0, 2.89871, -56.1365, 2.92105, -173.944, 2.92214, 64.6584, 0.0837456, 62.3803
0, 720.00000, 117.583, -33.0707, 118.401, -150.871, 123.202, 87.7273, 0, 0, 2.89866, -56.1446, 2.92104, -173.945, 2.92174, 64.6538, 0.0844502, 62.3874
0, 780.00000, 117.582, -33.0779, 118.401, -150.871, 123.217, 87.7232, 0, 0, 2.89861, -56.1518, 2.92104, -173.945, 2.92139, 64.6496, 0.0850842, 62.3937
0, 840.00000, 117.58, -33.0844, 118.401, -150.871, 123.23, 87.7194, 0, 0, 2.89857, -56.1583, 2.92103, -173.945, 2.92107, 64.6458, 0.0856547, 62.3992
0, 900.00000, 117.579, -33.0903, 118.401, -150.871, 123.242, 87.716, 0, 0, 2.89853, -56.1641, 2.92103, -173.945, 2.92078, 64.6424, 0.0861681, 62.404
0, 960.00000, 117.578, -33.0955, 118.401, -150.872, 123.253, 87.713, 0, 0, 2.8985, -56.1694, 2.92103, -173.945, 2.92052, 64.6394, 0.08663, 62.4083
0, 1020.00000, 117.577, -33.1003, 118.401, -150.872, 123.263, 87.7103, 0, 0, 2.89847, -56.1742, 2.92102, -173.945, 2.92029, 64.6366, 0.0870456, 62.412
0, 1080.00000, 117.576, -33.1045, 118.401, -150.872, 123.272, 87.7078, 0, 0, 2.89844, -56.1784, 2.92102, -173.946, 2.92008, 64.6341, 0.0874197, 62.4154
0, 1140.00000, 117.575, -33.1084, 118.401, -150.872, 123.279, 87.7056, 0, 0, 2.89841, -56.1823, 2.92102, -173.946, 2.91989, 64.6319, 0.0877563, 62.4183
0, 1200.00000, 117.574, -33.1118, 118.4, -150.872, 123.286, 87.7036, 0, 0, 2.89839, -56.1857, 2.92102, -173.946, 2.91972, 64.6299, 0.0880591, 62.4209
0, 1260.00000, 117.573, -33.1149, 118.4, -150.872, 123.293, 87.7018, 0, 0, 2.89837, -56.1888, 2.92101, -173.946, 2.91957, 64.6281, 0.0883317, 62.4232
0, 1320.00000, 117.573, -33.1177, 118.4, -150.872, 123.299, 87.7002, 0, 0, 2.89835, -56.1916, 2.92101, -173.946, 2.91943, 64.6264, 0.088577, 62.4253
0, 1380.00000, 117.572, -33.1203, 118.4, -150.872, 123.304, 87.6988, 0, 0, 2.89833, -56.1942, 2.92101, -173.946, 2.9193, 64.625, 0.0887977, 62.4271
0, 1440.00000, 117.572, -33.1225, 118.4, -150.872, 123.308, 87.6975, 0, 0, 2.89832, -56.1964, 2.92101, -173.946, 2.91919, 64.6237, 0.0889964, 62.4288
0, 1500.00000, 117.571, -33.1246, 118.4, -150.872, 123.313, 87.6963, 0, 0, 2.8983, -56.1985, 2.92101, -173.946, 2.91909, 64.6225, 0.0891752, 62.4302
0, 1560.00000, 117.571, -33.1264, 118.4, -150.872, 123.316, 87.6952, 0, 0, 2.89829, -56.2003, 2.92101, -173.946, 2.919, 64.6214, 0.089336, 62.4315
0, 1620.00000, 117.57, -33.1281, 118.4, -150.872, 123.32, 87.6943, 0, 0, 2.89828, -56.202, 2.92101, -173.946, 2.91892, 64.6204, 0.0894808, 62.4327
0, 1680.00000, 117.57, -33.1296, 118.4, -150.872, 123.323, 87.6934, 0, 0, 2.89827, -56.2035, 2.92101, -173.946, 2.91885, 64.6196, 0.0896111, 62.4338
0, 1740.00000, 117.57, -33.1309, 118.4, -150.873, 123.325, 87.6926, 0, 0, 2.89826, -56.2048, 2.921, -173.946, 2.91878, 64.6188, 0.0897284, 62.4347
0, 1800.00000, 117.57, -33.1321, 118.4, -150.873, 123.328, 87.6919, 0, 0, 2.89825, -56.206, 2.921, -173.946, 2.91872, 64.6181, 0.0898339, 62.4355
0, 1860.00000, 117.569, -33.1332, 118.4, -150.873, 123.33, 87.6913, 0, 0, 2.89825, -56.2071, 2.921, -173.946, 2.91867, 64.6174, 0.0899289, 62.4363
0, 1920.00000, 117.569, -33.1342, 118.4, -150.873, 123.332, 87.6907, 0, 0, 2.89824, -56.2081, 2.921, -173.946, 2.91862, 64.6169, 0.0900144, 62.4369
0, 1980.00000, 117.569, -33.135, 118.4, -150.873, 123.334, 87.6902, 0, 0, 2.89824, -56.209, 2.921, -173.947, 2.91858, 64.6164, 0.0900913, 62.4375
0, 2040.00000, 117.569, -33.1358, 118.4, -150.873, 123.335, 87.6898, 0, 0, 2.89823, -56.2097, 2.921, -173.947, 2.91854, 64.6159, 0.0901605, 62.4381
0, 2100.00000, 117.569, -33.1365, 118.4, -150.873, 123.337, 87.6894, 0, 0, 2.89823, -56.2105, 2.921, -173.947, 2.91851, 64.6155, 0.0902228, 62.4386
0, 2160.00000, 117.568, -33.1372, 118.4, -150.873, 123.338, 87.689, 0, 0, 2.89822, -56.2111, 2.921, -173.947, 2.91847, 64.6151, 0.0902789, 62.439
0, 2220.00000, 117.568, -33.1378, 118.4, -150.873, 123.339, 87.6887, 0, 0, 2.89822, -56.2117, 2.921, -173.947, 2.91845, 64.6148, 0.0903294, 62.4394
0, 2280.00000, 117.568, -33.1383, 118.4, -150.873, 123.34, 87.6884, 0, 0, 2.89821, -56.2122, 2.921, -173.947, 2.91842, 64.6145, 0.0903748, 62.4398
0, 2340.00000, 117.568, -33.1387, 118.4, -150.873, 123.341, 87.6881, 0, 0, 2.89821, -56.2127, 2.921, -173.947, 2.9184, 64.6142, 0.0904157, 62.4401
0, 2400.00000, 117.568, -33.1392, 118.4, -150.873, 123.342, 87.6879, 0, 0, 2.89821, -56.2131, 2.921, -173.947, 2.91838, 64.614, 0.0904525, 62.4404
0, 2460.00000, 117.568, -33.1395, 118.4, -150.873, 123.343, 87.6876, 0, 0, 2.89821, -56.2135, 2.921, -173.947, 2.91836, 64.6137, 0.0904856, 62.4406
0, 2520.00000, 117.568, -33.1399, 118.4, -150.873, 123.344, 87.6874, 0, 0, 2.8982, -56.2138, 2.921, -173.947, 2.91834, 64.6135, 0.0905154, 62.4408
0, 2580.00000, 117.568, -33.1402, 118.4, -150.873, 123.344, 87.6873, 0, 0, 2.8982, -56.2141, 2.921, -173.947, 2.91833, 64.6134, 0.0905422, 62.441
0, 2640.00000, 117.568, -33.1405, 118.4, -150.873, 123.345, 87.6871, 0, 0, 2.8982, -56.2144, 2.921, -173.947, 2.91831, 64.6132, 0.0905663, 62.4412
0, 2700.00000, 117.568, -33.1407, 118.4, -150.873, 123.345, 87.687, 0, 0, 2.8982, -56.2146, 2.921, -173.947, 2.9183, 64.6131, 0.090588, 62.4414
0, 2760.00000, 117.568, -33.1409, 118.4, -150.873, 123.346, 87.6868, 0, 0, 2.8982, -56.2149, 2.921, -173.947, 2.91829, 64.6129, 0.0906076, 62.4415
0, 2820.00000, 117.568, -33.1411, 118.4, -150.873, 123.346, 87.6867, 0, 0, 2.89819, -56.2151, 2.921, -173.947, 2.91828, 64.6128, 0.0906252, 62.4417
0, 2880.00000, 117.568, -33.1413, 118.4, -150.873, 123.347, 87.6866, 0, 0, 2.89819, -56.2152, 2.921, -173.947, 2.91827, 64.6127, 0.090641, 62.4418
0, 2940.00000, 117.567, -33.1415, 118.4, -150.873, 123.347, 87.6865, 0, 0, 2.89819, -56.2154, 2.921, -173.947, 2.91826, 64.6126, 0.0906553, 62.4419
0, 3000.00000, 117.567, -33.1416, 118.4, -150.873, 123.347, 87.6864, 0, 0, 2.89819, -56.2155, 2.921, -173.947, 2.91826, 64.6125, 0.0906681, 62.442
0, 3060.00000, 117.567, -33.1418, 118.4, -150.873, 123.348, 87.6864, 0, 0, 2.89819, -56.2157, 2.921, -173.947, 2.91825, 64.6124, 0.0906796, 62.4421
0, 3120.00000, 117.567, -33.1419, 118.4, -150.873, 123.348, 87.6863, 0, 0, 2.89819, -56.2158, 2.921, -173.947, 2.91824, 64.6124, 0.09069, 62.4422
0, 3180.00000, 117.567, -33.142, 118.4, -150.873, 123.348, 87.6862, 0, 0, 2.89819, -56.2159, 2.921, -173.947, 2.91824, 64.6123, 0.0906994, 62.4422
0, 3240.00000, 117.567, -33.1421, 118.4, -150.873, 123.348, 87.6862, 0, 0, 2.89819, -56.216, 2.921, -173.947, 2.91823, 64.6123, 0.0907078, 62.4423
0, 3300.00000, 117.567, -33.1422, 118.4, -150.873, 123.348, 87.6861, 0, 0, 2.89819, -56.2161, 2.921, -173.947, 2.91823, 64.6122, 0.0907154, 62.4424
0, 3360.00000, 117.567, -33.1423, 118.4, -150.873, 123.349, 87.6861, 0, 0, 2.89819, -56.2162, 2.921, -173.947, 2.91823, 64.6122, 0.0907222, 62.4424
0, 3420.00000, 117.567, -33.1423, 118.4, -150.873, 123.349, 87.686, 0, 0, 2.89819, -56.2162, 2.921, -173.947, 2.91822, 64.6121, 0.0907283, 62.4425
0, 3480.00000, 117.567, -33.1424, 118.4, -150.873, 123.349, 87.686, 0, 0, 2.89819, -56.2163, 2.921, -173.947, 2.91822, 64.6121, 0.0907338, 62.4425
0, 3540.00000, 117.567, -33.1424, 118.4, -150.873, 123.349, 87.686, 0, 0, 2.89819, -56.2164, 2.921, -173.947, 2.91822, 64.6121, 0.0907388, 62.4425
1, 0.00000, 117.567, -33.1425, 118.4, -150.873, 123.349, 87.6859, 0, 0, 2.89819, -56.2164, 2.921, -173.947, 2.91821, 64.612, 0.0907433, 62.4426
1, 60.00000, 117.567, -33.1425, 118.4, -150.873, 123.349, 87.6859, 0, 0, 2.89819, -56.2165, 2.921, -173.947, 2.91821, 64.612, 0.0907473, 62.4426
1, 120.00000, 117.567, -33.1426, 118.4, -150.873, 123.349, 87.6859, 0, 0, 2.89818, -56.2165, 2.921, -173.947, 2.91821, 64.612, 0.0907509, 62.4426
1, 180.00000, 117.567, -33.1426, 118.4, -150.873, 123.349, 87.6859, 0, 0, 2.89818, -56.2165, 2.921, -173.947, 2.91821, 64.6119, 0.0907542, 62.4427
1, 240.00000, 117.567, -33.1427, 118.4, -150.873, 123.349, 87.6858, 0, 0, 2.89818, -56.2166, 2.921, -173.947, 2.91821, 64.6119, 0.0907571, 62.4427
1, 300.00000, 117.567, -33.1427, 118.4, -150.873, 123.349, 87.6858, 0, 0, 2.89818, -56.2166, 2.921, -173.947, 2.9182, 64.6119, 0.0907598, 62.4427
1, 360.00000, 117.567, -33.1427, 118.4, -150.873, 123.35, 87.6858, 0, 0, 2.89818, -56.2166, 2.921, -173.947, 2.9182, 64.6119, 0.0907621, 62.4427
1, 420.00000, 117.567, -33.1427, 118.4, -150.873, 123.35, 87.6858, 0, 0, 2.89818, -56.2167, 2.921, -173.947, 2.9182, 64.6119, 0.0907643, 62.4427
1, 480.00000, 117.567, -33.1428, 118.4, -150.873, 123.35, 87.6858, 0, 0, 2.89818, -56.2167, 2.921, -173.947, 2.9182, 64.6119, 0.0907662, 62.4427
1, 540.00000, 117.567, -33.1428, 118.4, -150.873, 123.35, 87.6858, 0, 0, 2.89818, -56.2167, 2.921, -173.947, 2.9182, 64.6119, 0.0907679, 62.4428
1, 600.00000, 117.567, -33.1428, 118.4, -150.873, 123.35, 87.6858, 0, 0, 2.89818, -56.2167, 2.921, -173.947, 2.9182, 64.6118, 0.0907695, 62.4428
1, 660.00000, 117.567, -33.1428, 118.4, -150.873, 123.35, 87.6858, 0, 0, 2.89818, -56.2167, 2.921, -173.947, 2.9182, 64.6118, 0.0907709, 62.4428
1, 720.00000, 117.567, -33.1428, 118.4, -150.873, 123.35, 87.6857, 0, 0, 2.89818, -56.2167, 2.921, -173.947, 2.9182, 64.6118, 0.0907722, 62.4428
1, 780.00000, 117.567, -33.1428, 118.4, -150.873, 123.35, 87.6857, 0, 0, 2.89818, -56.2168, 2.921, -173.947, 2.9182, 64.6118, 0.0907733, 62.4428
1, 840.00000, 117.567, -33.1428, 118.4, -150.873, 123.35, 87.6857, 0, 0, 2.89818, -56.2168, 2.921, -173.947, 2.9182, 64.6118, 0.0907743, 62.4428
1, 900.00000, 117.567, -33.1429, 118.4, -150.873, 123.35, 87.6857, 0, 0, 2.89818, -56.2168, 2.921, -173.947, 2.9182, 64.6118, 0.0907753, 62.4428
1, 960.00000, 117.567, -33.1429, 118.4, -150.873, 123.35, 87.6857, 0, 0, 2.89818, -56.2168, 2.921, -173.947, 2.9182, 64.6118, 0.0907761, 62.4428
1, 1020.00000, 117.567, -33.1429, 118.4, -150.873, 123.35, 87.6857, 0, 0, 2.89818, -56.2168, 2.921, -173.947, 2.9182, 64.6118, 0.0907768, 62.4428
1, 1080.00000, 117.567, -33.1429, 118.4, -150.873, 123.35, 87.6857, 0, 0, 2.89818, -56.2168, 2.921, -173.947, 2.9182, 64.6118, 0.0907775, 62.4428
1, 1140.00000, 117.567, -33.1429, 118.4, -150.873, 123.35, 87.6857, 0, 0, 2.89818, -56.2168, 2.921, -173.947, 2.91819, 64.6118, 0.0907781, 62.4428
1, 1200.00000, 117.567, -33.1429, 118.4, -150.873, 123.35, 87.6857, 0, 0, 2.89818, -56.2168, 2.921, -173.947, 2.91819, 64.6118, 0.0907786, 62.4428
1, 1260.00000, 117.567, -33.1429, 118.4, -150.873, 123.35, 87.6857, 0, 0, 2.89818, -56.2168, 2.921, -173.947, 2.91819, 64.6118, 0.0907791, 62.4428
1, 1320.00000, 117.567, -33.1429, 118.4, -150.873, 123.35, 87.6857, 0, 0, 2.89818, -56.2168, 2.921, -173.947, 2.91819, 64.6118, 0.0907796, 62.4429
1, 1380.00000, 117.567, -33.1429, 118.4, -150.873, 123.35, 87.6857, 0, 0, 2.89818, -56.2168, 2.921, -173.947, 2.91819, 64.6118, 0.09078, 62.4429
1, 1440.00000, 117.567, -33.1429, 118.4, -150.873, 123.35, 87.6857, 0, 0, 2.89818, -56.2168, 2.921, -173.947, 2.91819, 64.6118, 0.0907803, 62.4429
1, 1500.00000, 117.567, -33.1429, 118.4, -150.873, 123.35, 87.6857, 0, 0, 2.89818, -56.2168, 2.921, -173.947, 2.91819, 64.6118, 0.0907806, 62.4429
1, 1560.00000, 117.567, -33.1429, 118.4, -150.873, 123.35, 87.6857, 0, 0, 2.89818, -56.2168, 2.921, -173.947, 2.91819, 64.6118, 0.0907809, 62.4429
1, 1620.00000, 117.567, -33.1429, 118.4, -150.873, 123.35, 87.6857, 0, 0, 2.89818, -56.2168, 2.921, -173.947, 2.91819, 64.6118, 0.0907812, 62.4429
1, 1680.00000, 117.567, -33.1429, 118.4, -150.873, 123.35, 87.6857, 0, 0, 2.89818, -56.2168, 2.921, -173.947, 2.91819, 64.6118, 0.0907814, 62.4429
1, 1740.00000, 117.567, -33.1429, 118.4, -150.873, 123.35, 87.6857, 0, 0, 2.89818, -56.2169, 2.921, -173.947, 2.91819, 64.6118, 0.0907816, 62.4429
1, 1800.00000, 117.567, -33.1429, 118.4, -150.873, 123.35, 87.6857, 0, 0, 2.89818, -56.2169, 2.921, -173.947, 2.91819, 64.6118, 0.0907818, 62.4429
1, 1860.00000, 117.567, -33.1429, 118.4, -150.873, 123.35, 87.6857, 0, 0, 2.89818, -56.2169, 2.921, -173.947, 2.91819, 64.6118, 0.090782, 62.4429
1, 1920.00000, 117.567, -33.1429, 118.4, -150.873, 123.35, 87.6857, 0, 0, 2.89818, -56.2169, 2.921, -173.947, 2.91819, 64.6118, 0.0907822, 62.4429
1, 1980.00000, 117.567, -33.1429, 118.4, -150.873, 123.35, 87.6857, 0, 0, 2.89818, -56.2169, 2.921, -173.947, 2.91819, 64.6118, 0.0907823, 62.4429
1, 2040.00000, 117.567, -33.1429, 118.4, -150.873, 123.35, 87.6857, 0, 0, 2.89818, -56.2169, 2.921, -173.947, 2.91819, 64.6118, 0.0907824, 62.4429
1, 2100.00000, 117.567, -33.1429, 118.4, -150.873, 123.35, 87.6857, 0, 0, 2.89818, -56.2169, 2.921, -173.947, 2.91819, 64.6118, 0.0907825, 62.4429
1, 2160.00000, 117.567, -33.1429, 118.4, -150.873, 123.35, 87.6857, 0, 0, 2.89818, -56.2169, 2.921, -173.947, 2.91819, 64.6118, 0.0907826, 62.4429
1, 2220.00000, 117.567, -33.1429, 118.4, -150.873, 123.35, 87.6857, 0, 0, 2.89818, -56.2169, 2.921, -173.947, 2.91819, 64.6118, 0.0907827, 62.4429
1, 2280.00000, 117.567, -33.1429, 118.4, -150.873, 123.35, 87.6857, 0, 0, 2.89818, -56.2169, 2.921, -173.947, 2.91819, 64.6118, 0.0907828, 62.4429
1, 2340.00000, 117.567, -33.1429, 118.4, -150.873, 123.35, 87.6857, 0, 0, 2.89818, -56.2169, 2.921, -173.947, 2.91819, 64.6118, 0.0907829, 62.4429
1, 2400.00000, 117.567, -33.1429, 118.4, -150.873, 123.35, 87.6857, 0, 0, 2.89818, -56.2169, 2.921, -173.947, 2.91819, 64.6118, 0.0907829, 62.4429
1, 2460.00000, 117.567, -33.1429, 118.4, -150.873, 123.35, 87.6857, 0, 0, 2.89818, -56.2169, 2.921, -173.947, 2.91819, 64.6118, 0.090783, 62.4429
1, 2520.00000, 117.567, -33.1429, 118.4, -150.873, 123.35, 87.6857, 0, 0, 2.89818, -56.2169, 2.921, -173.947, 2.91819, 64.6118, 0.0907831, 62.4429
1, 2580.00000, 117.567, -33.1429, 118.4, -150.873, 123.35, 87.6857, 0, 0, 2.89818, -56.2169, 2.921, -173.947, 2.91819, 64.6118, 0.0907831, 62.4429
1, 2640.00000, 117.567, -33.1429, 118.4, -150.873, 123.35, 87.6857, 0, 0, 2.89818, -56.2169, 2.921, -173.947, 2.91819, 64.6118, 0.0907831, 62.4429
1, 2700.00000, 117.567, -33.1429, 118.4, -150.873, 123.35, 87.6857, 0, 0, 2.89818, -56.2169, 2.921, -173.947, 2.91819, 64.6118, 0.0907832, 62.4429
1, 2760.00000, 117.567, -33.1429, 118.4, -150.873, 123.35, 87.6857, 0, 0, 2.89818, -56.2169, 2.921, -173.947, 2.91819, 64.6118, 0.0907832, 62.4429
1, 2820.00000, 117.567, -33.1429, 118.4, -150.873, 123.35, 87.6857, 0, 0, 2.89818, -56.2169, 2.921, -173.947, 2.91819, 64.6118, 0.0907833, 62.4429
1, 2880.00000, 117.567, -33.1429, 118.4, -150.873, 123.35, 87.6857, 0, 0, 2.89818, -56.2169, 2.921, -173.947, 2.91819, 64.6118, 0.0907833, 62.4429
1, 2940.00000, 117.567, -33.1429, 118.4, -150.873, 123.35, 87.6857, 0, 0, 2.89818, -56.2169, 2.921, -173.947, 2.91819, 64.6118, 0.0907833, 62.4429
1, 3000.00000, 117.567, -33.143, 118.4, -150.873, 123.35, 87.6857, 0, 0, 2.89818, -56.2169, 2.921, -173.947, 2.91819, 64.6118, 0.0907833, 62.4429
1, 3060.00000, 117.567, -33.143, 118.4, -150.873, 123.35, 87.6857, 0, 0, 2.89818, -56.2169, 2.921, -173.947, 2.91819, 64.6118, 0.0907834, 62.4429
1, 3120.00000, 117.567, -33.143, 118.4, -150.873, 123.35, 87.6857, 0, 0, 2.89818, -56.2169, 2.921, -173.947, 2.91819, 64.6118, 0.0907834, 62.4429
1, 3180.00000, 117.567, -33.143, 118.4, -150.873, 123.35, 87.6857, 0, 0, 2.89818, -56.2169, 2.921, -173.947, 2.91819, 64.6118, 0.0907834, 62.4429
1, 3240.00000, 117.567, -33.143, 118.4, -150.873, 123.35, 87.6857, 0, 0, 2.89818, -56.2169, 2.921, -173.947, 2.91819, 64.6118, 0.0907834, 62.4429
1, 3300.00000, 117.567, -33.143, 118.4, -150.873, 123.35, 87.6857, 0, 0, 2.89818, -56.2169, 2.921, -173.947, 2.91819, 64.6118, 0.0907834, 62.4429
1, 3360.00000, 117.567, -33.143, 118.4, -150.873, 123.35, 87.6857, 0, 0, 2.89818, -56.2169, 2.921, -173.947, 2.91819, 64.6118, 0.0907834, 62.4429
1, 3420.00000, 117.567, -33.143, 118.4, -150.873, 123.35, 87.6857, 0, 0, 2.89818, -56.2169, 2.921, -173.947, 2.91819, 64.6118, 0.0907834, 62.4429
1, 3480.00000, 117.567, -33.143, 118.4, -150.873, 123.35, 87.6857, 0, 0, 2.89818, -56.2169, 2.921, -173.947, 2.91819, 64.6118, 0.0907834, 62.4429
1, 3540.00000, 117.567, -33.143, 118.4, -150.873, 123.35, 87.6857, 0, 0, 2.89818, -56.2169, 2.921, -173.947, 2.91819, 64.6118, 0.0907835, 62.4429
2, 0.00000, 117.567, -33.143, 118.4, -150.873, 123.35, 87.6857, 0, 0, 2.89818, -56.2169, 2.921, -173.947, 2.91819, 64.6118, 0.0907835, 62.4429
2, 60.00000, 117.567, -33.143, 118.4, -150.873, 123.35, 87.6857, 0, 0, 2.89818, -56.2169, 2.921, -173.947, 2.91819, 64.6118, 0.0907835, 62.4429
2, 120.00000, 117.567, -33.143, 118.4, -150.873, 123.35, 87.6857, 0, 0, 2.89818, -56.2169, 2.921, -173.947, 2.91819, 64.6118, 0.0907835, 62.4429
2, 180.00000, 117.567, -33.143, 118.4, -150.873, 123.35, 87.6857, 0, 0, 2.89818, -56.2169, 2.921, -173.947, 2.91819, 64.6118, 0.0907835, 62.4429
2, 240.00000, 117.567, -33.143, 118.4, -150.873, 123.35, 87.6857, 0, 0, 2.89818, -56.2169, 2.921, -173.947, 2.91819, 64.6118, 0.0907835, 62.4429
2, 300.00000, 117.567, -33.143, 118.4, -150.873, 123.35, 87.6857, 0, 0, 2.89818, -56.2169, 2.921, -173.947, 2.91819, 64.6118, 0.0907835, 62.4429
2, 360.00000, 117.567, -33.143, 118.4, -150.873, 123.35, 87.6857, 0, 0, 2.89818, -56.2169, 2.921, -173.947, 2.91819, 64.6118, 0.0907835, 62.4429
2, 420.00000, 117.567, -33.143, 118.4, -150.873, 123.35, 87.6857, 0, 0, 2.89818, -56.2169, 2.921, -173.947, 2.91819, 64.6118, 0.0907835, 62.4429
2, 480.00000, 117.567, -33.143, 118.4, -150.873, 123.35, 87.6857, 0, 0, 2.89818, -56.2169, 2.921, -173.947, 2.91819, 64.6118, 0.0907835, 62.4429
2, 540.00000, 117.567, -33.143, 118.4, -150.873, 123.35, 87.6857, 0, 0, 2.89818, -56.2169, 2.921, -173.947, 2.91819, 64.6118, 0.0907835, 62.4429
2, 600.00000, 117.567, -33.143, 118.4, -150.873, 123.35, 87.6857, 0, 0, 2.89818, -56.2169, 2.921, -173.947, 2.91819, 64.6118, 0.0907835, 62.4429
2, 660.00000, 117.567, -33.143, 118.4, -150.873, 123.35, 87.6857, 0, 0, 2.89818, -56.2169, 2.921, -173.947, 2.91819, 64.6118, 0.0907835, 62.4429
2, 720.00000, 117.567, -33.143, 118.4, -150.873, 123.35, 87.6857, 0, 0, 2.89818, -56.2169, 2.921, -173.947, 2.91819, 64.6118, 0.0907835, 62.4429
2, 780.00000, 117.567, -33.143, 118.4, -150.873, 123.35, 87.6857, 0, 0, 2.89818, -56.2169, 2.921, -173.947, 2.91819, 64.6118, 0.0907835, 62.4429
2, 840.00000, 117.567, -33.143, 118.4, -150.873, 123.35, 87.6857, 0, 0, 2.89818, -56.2169, 2.921, -173.947, 2.91819, 64.6118, 0.0907835, 62.4429
2, 900.00000, 117.567, -33.143, 118.4, -150.873, 123.35, 87.6857, 0, 0, 2.89818, -56.2169, 2.921, -173.947, 2.91819, 64.6118, 0.0907835, 62.4429
