hour,t(sec),"P1 (kW)","Q1 (kvar)","P2 (kW)","Q2 (kvar)","P3 (kW)","Q3 (kvar)","P4 (kW)","Q4 (kvar)"
0, 60.00000, 0.640359, 0.272785, 0.645992, 0.275179, 0.64594, 0.27517, 0, 0
0, 120.00000, 0.640354, 0.272784, 0.645988, 0.275178, 0.645942, 0.275171, 0, 0
0, 180.00000, 0.64035, 0.272783, 0.645985, 0.275178, 0.645944, 0.275172, 0, 0
0, 240.00000, 0.640347, 0.272782, 0.645983, 0.275178, 0.645945, 0.275172, 0, 0
0, 300.00000, 0.640343, 0.272781, 0.64598, 0.275178, 0.645947, 0.275173, 0, 0
0, 360.00000, 0.64034, 0.27278, 0.645978, 0.275178, 0.645948, 0.275173, 0, 0
0, 420.00000, 0.640338, 0.272779, 0.645976, 0.275177, 0.645949, 0.275173, 0, 0
0, 480.00000, 0.640335, 0.272779, 0.645975, 0.275177, 0.64595, 0.275174, 0, 0
0, 540.00000, 0.640333, 0.272778, 0.645973, 0.275177, 0.645951, 0.275174, 0, 0
0, 600.00000, 0.640331, 0.272777, 0.645972, 0.275177, 0.645952, 0.275174, 0, 0
0, 660.00000, 0.640329, 0.272777, 0.645971, 0.275177, 0.645952, 0.275175, 0, 0
0, 720.00000, 0.640328, 0.272776, 0.645969, 0.275177, 0.645953, 0.275175, 0, 0
0, 780.00000, 0.640326, 0.272776, 0.645968, 0.275177, 0.645954, 0.275175, 0, 0
0, 840.00000, 0.640325, 0.272776, 0.645968, 0.275177, 0.645954, 0.275176, 0, 0
0, 900.00000, 0.640324, 0.272775, 0.645967, 0.275177, 0.645955, 0.275176, 0, 0
0, 960.00000, 0.674725, 0.28743, 0.683348, 0.291102, 0.683337, 0.291101, 0, 0
0, 1020.00000, 0.674724, 0.28743, 0.683348, 0.291102, 0.683338, 0.291101, 0, 0
0, 1080.00000, 0.674723, 0.28743, 0.683347, 0.291102, 0.683338, 0.291101, 0, 0
0, 1140.00000, 0.674723, 0.28743, 0.683347, 0.291102, 0.683338, 0.291101, 0, 0
0, 1200.00000, 0.674722, 0.287429, 0.683346, 0.291102, 0.683339, 0.291101, 0, 0
0, 1260.00000, 0.674721, 0.287429, 0.683346, 0.291102, 0.683339, 0.291101, 0, 0
0, 1320.00000, 0.674721, 0.287429, 0.683345, 0.291102, 0.683339, 0.291101, 0, 0
0, 1380.00000, 0.67472, 0.287429, 0.683345, 0.291102, 0.68334, 0.291102, 0, 0
0, 1440.00000, 0.674719, 0.287429, 0.683345, 0.291102, 0.68334, 0.291102, 0, 0
0, 1500.00000, 0.674719, 0.287429, 0.683344, 0.291102, 0.68334, 0.291102, 0, 0
0, 1560.00000, 0.674719, 0.287428, 0.683344, 0.291102, 0.68334, 0.291102, 0, 0
0, 1620.00000, 0.674718, 0.287428, 0.683344, 0.291102, 0.68334, 0.291102, 0, 0
0, 1680.00000, 0.674718, 0.287428, 0.683344, 0.291102, 0.68334, 0.291102, 0, 0
0, 1740.00000, 0.674718, 0.287428, 0.683343, 0.291102, 0.683341, 0.291102, 0, 0
0, 1800.00000, 0.674717, 0.287428, 0.683343, 0.291102, 0.683341, 0.291102, 0, 0
0, 1860.00000, 0.678632, 0.289096, 0.685419, 0.291987, 0.685416, 0.291986, 0, 0
0, 1920.00000, 0.678632, 0.289096, 0.685418, 0.291986, 0.685416, 0.291986, 0, 0
0, 1980.00000, 0.678632, 0.289096, 0.685418, 0.291986, 0.685416, 0.291986, 0, 0
0, 2040.00000, 0.678632, 0.289096, 0.685418, 0.291986, 0.685416, 0.291986, 0, 0
0, 2100.00000, 0.678631, 0.289096, 0.685418, 0.291986, 0.685416, 0.291986, 0, 0
0, 2160.00000, 0.678631, 0.289096, 0.685418, 0.291986, 0.685416, 0.291986, 0, 0
0, 2220.00000, 0.678631, 0.289095, 0.685418, 0.291986, 0.685417, 0.291986, 0, 0
0, 2280.00000, 0.678631, 0.289095, 0.685418, 0.291986, 0.685417, 0.291986, 0, 0
0, 2340.00000, 0.678631, 0.289095, 0.685418, 0.291986, 0.685417, 0.291986, 0, 0
0, 2400.00000, 0.678631, 0.289095, 0.685418, 0.291986, 0.685417, 0.291986, 0, 0
0, 2460.00000, 0.678631, 0.289095, 0.685418, 0.291986, 0.685417, 0.291986, 0, 0
0, 2520.00000, 0.678631, 0.289095, 0.685417, 0.291986, 0.685417, 0.291986, 0, 0
0, 2580.00000, 0.678631, 0.289095, 0.685417, 0.291986, 0.685417, 0.291986, 0, 0
0, 2640.00000, 0.678631, 0.289095, 0.685417, 0.291986, 0.685417, 0.291986, 0, 0
0, 2700.00000, 0.678631, 0.289095, 0.685417, 0.291986, 0.685417, 0.291986, 0, 0
0, 2760.00000, 0.648974, 0.276462, 0.651931, 0.277721, 0.65193, 0.277721, 0, 0
0, 2820.00000, 0.648974, 0.276462, 0.65193, 0.277721, 0.65193, 0.277721, 0, 0
0, 2880.00000, 0.648974, 0.276462, 0.65193, 0.277721, 0.65193, 0.277721, 0, 0
0, 2940.00000, 0.648974, 0.276462, 0.65193, 0.277721, 0.65193, 0.277721, 0, 0
0, 3000.00000, 0.648974, 0.276462, 0.65193, 0.277721, 0.65193, 0.277721, 0, 0
0, 3060.00000, 0.648974, 0.276462, 0.65193, 0.277721, 0.65193, 0.277721, 0, 0
0, 3120.00000, 0.648974, 0.276462, 0.65193, 0.277721, 0.65193, 0.277721, 0, 0
0, 3180.00000, 0.648974, 0.276462, 0.65193, 0.277721, 0.65193, 0.277721, 0, 0
0, 3240.00000, 0.648974, 0.276462, 0.65193, 0.277721, 0.65193, 0.277721, 0, 0
0, 3300.00000, 0.648974, 0.276462, 0.65193, 0.277721, 0.65193, 0.277721, 0, 0
0, 3360.00000, 0.648974, 0.276462, 0.65193, 0.277721, 0.65193, 0.277721, 0, 0
0, 3420.00000, 0.648974, 0.276462, 0.65193, 0.277721, 0.65193, 0.277721, 0, 0
0, 3480.00000, 0.648974, 0.276462, 0.65193, 0.277721, 0.65193, 0.277721, 0, 0
0, 3540.00000, 0.648974, 0.276462, 0.65193, 0.277721, 0.65193, 0.277721, 0, 0
1, 0.00000, 0.648974, 0.276462, 0.65193, 0.277721, 0.65193, 0.277721, 0, 0
1, 60.00000, 0.643625, 0.274183, 0.644309, 0.274475, 0.644309, 0.274474, 0, 0
1, 120.00000, 0.643625, 0.274183, 0.644309, 0.274474, 0.644309, 0.274474, 0, 0
1, 180.00000, 0.643625, 0.274183, 0.644309, 0.274474, 0.644309, 0.274474, 0, 0
1, 240.00000, 0.643625, 0.274183, 0.644309, 0.274474, 0.644309, 0.274474, 0, 0
1, 300.00000, 0.643625, 0.274183, 0.644309, 0.274474, 0.644309, 0.274474, 0, 0
1, 360.00000, 0.643625, 0.274183, 0.644309, 0.274474, 0.644309, 0.274474, 0, 0
1, 420.00000, 0.643625, 0.274183, 0.644309, 0.274474, 0.644309, 0.274474, 0, 0
1, 480.00000, 0.643625, 0.274183, 0.644309, 0.274474, 0.644309, 0.274474, 0, 0
1, 540.00000, 0.643625, 0.274183, 0.644309, 0.274474, 0.644309, 0.274474, 0, 0
1, 600.00000, 0.643625, 0.274183, 0.644309, 0.274474, 0.644309, 0.274474, 0, 0
1, 660.00000, 0.643625, 0.274183, 0.644309, 0.274474, 0.644309, 0.274474, 0, 0
1, 720.00000, 0.643625, 0.274183, 0.644309, 0.274474, 0.644309, 0.274474, 0, 0
1, 780.00000, 0.643625, 0.274183, 0.644309, 0.274474, 0.644309, 0.274474, 0, 0
1, 840.00000, 0.643625, 0.274183, 0.644309, 0.274474, 0.644309, 0.274474, 0, 0
1, 900.00000, 0.643625, 0.274183, 0.644309, 0.274474, 0.644309, 0.274474, 0, 0
1, 960.00000, 0.641068, 0.273094, 0.641294, 0.27319, 0.641293, 0.27319, 0, 0
1, 1020.00000, 0.641068, 0.273094, 0.641293, 0.27319, 0.641293, 0.27319, 0, 0
1, 1080.00000, 0.641068, 0.273094, 0.641293, 0.27319, 0.641293, 0.27319, 0, 0
1, 1140.00000, 0.641068, 0.273094, 0.641293, 0.27319, 0.641293, 0.27319, 0, 0
1, 1200.00000, 0.641068, 0.273094, 0.641293, 0.27319, 0.641293, 0.27319, 0, 0
1, 1260.00000, 0.641068, 0.273094, 0.641293, 0.27319, 0.641293, 0.27319, 0, 0
1, 1320.00000, 0.641068, 0.273094, 0.641293, 0.27319, 0.641293, 0.27319, 0, 0
1, 1380.00000, 0.641068, 0.273094, 0.641293, 0.27319, 0.641293, 0.27319, 0, 0
1, 1440.00000, 0.641068, 0.273094, 0.641293, 0.27319, 0.641293, 0.27319, 0, 0
1, 1500.00000, 0.641068, 0.273094, 0.641293, 0.27319, 0.641293, 0.27319, 0, 0
1, 1560.00000, 0.641068, 0.273094, 0.641293, 0.27319, 0.641293, 0.27319, 0, 0
1, 1620.00000, 0.641068, 0.273094, 0.641293, 0.27319, 0.641293, 0.27319, 0, 0
1, 1680.00000, 0.641068, 0.273094, 0.641293, 0.27319, 0.641293, 0.27319, 0, 0
1, 1740.00000, 0.641068, 0.273094, 0.641293, 0.27319, 0.641293, 0.27319, 0, 0
1, 1800.00000, 0.641068, 0.273094, 0.641293, 0.27319, 0.641293, 0.27319, 0, 0
1, 1860.00000, 0.654561, 0.278842, 0.656759, 0.279778, 0.65676, 0.279778, 0, 0
1, 1920.00000, 0.654561, 0.278842, 0.65676, 0.279778, 0.65676, 0.279778, 0, 0
1, 1980.00000, 0.654561, 0.278842, 0.65676, 0.279778, 0.65676, 0.279778, 0, 0
1, 2040.00000, 0.654561, 0.278842, 0.65676, 0.279778, 0.65676, 0.279778, 0, 0
1, 2100.00000, 0.654561, 0.278842, 0.65676, 0.279778, 0.65676, 0.279778, 0, 0
1, 2160.00000, 0.654561, 0.278842, 0.65676, 0.279778, 0.65676, 0.279778, 0, 0
1, 2220.00000, 0.654561, 0.278842, 0.65676, 0.279778, 0.65676, 0.279778, 0, 0
1, 2280.00000, 0.654561, 0.278842, 0.65676, 0.279778, 0.65676, 0.279778, 0, 0
1, 2340.00000, 0.654561, 0.278842, 0.65676, 0.279778, 0.65676, 0.279778, 0, 0
1, 2400.00000, 0.654561, 0.278842, 0.65676, 0.279778, 0.65676, 0.279778, 0, 0
1, 2460.00000, 0.654561, 0.278842, 0.65676, 0.279778, 0.65676, 0.279778, 0, 0
1, 2520.00000, 0.654561, 0.278842, 0.65676, 0.279778, 0.65676, 0.279778, 0, 0
1, 2580.00000, 0.654561, 0.278842, 0.65676, 0.279778, 0.65676, 0.279778, 0, 0
1, 2640.00000, 0.654561, 0.278842, 0.65676, 0.279778, 0.65676, 0.279778, 0, 0
1, 2700.00000, 0.654561, 0.278842, 0.65676, 0.279778, 0.65676, 0.279778, 0, 0
1, 2760.00000, 0.618866, 0.263636, 0.618866, 0.263636, 0.618866, 0.263636, 0, 0
1, 2820.00000, 0.618866, 0.263636, 0.618866, 0.263636, 0.618866, 0.263636, 0, 0
1, 2880.00000, 0.618866, 0.263636, 0.618866, 0.263636, 0.618866, 0.263636, 0, 0
1, 2940.00000, 0.618866, 0.263636, 0.618866, 0.263636, 0.618866, 0.263636, 0, 0
1, 3000.00000, 0.618866, 0.263636, 0.618866, 0.263636, 0.618866, 0.263636, 0, 0
1, 3060.00000, 0.618866, 0.263636, 0.618866, 0.263636, 0.618866, 0.263636, 0, 0
1, 3120.00000, 0.618866, 0.263636, 0.618866, 0.263636, 0.618866, 0.263636, 0, 0
1, 3180.00000, 0.618866, 0.263636, 0.618866, 0.263636, 0.618866, 0.263636, 0, 0
1, 3240.00000, 0.618866, 0.263636, 0.618866, 0.263636, 0.618866, 0.263636, 0, 0
1, 3300.00000, 0.618866, 0.263636, 0.618866, 0.263636, 0.618866, 0.263636, 0, 0
1, 3360.00000, 0.618866, 0.263636, 0.618866, 0.263636, 0.618866, 0.263636, 0, 0
1, 3420.00000, 0.618866, 0.263636, 0.618866, 0.263636, 0.618866, 0.263636, 0, 0
1, 3480.00000, 0.618866, 0.263636, 0.618866, 0.263636, 0.618866, 0.263636, 0, 0
1, 3540.00000, 0.618866, 0.263636, 0.618866, 0.263636, 0.618866, 0.263636, 0, 0
2, 0.00000, 0.618866, 0.263636, 0.618866, 0.263636, 0.618866, 0.263636, 0, 0
2, 60.00000, 0.635095, 0.270549, 0.635473, 0.27071, 0.635474, 0.270711, 0, 0
2, 120.00000, 0.635095, 0.270549, 0.635474, 0.270711, 0.635474, 0.270711, 0, 0
2, 180.00000, 0.635095, 0.270549, 0.635474, 0.270711, 0.635474, 0.270711, 0, 0
2, 240.00000, 0.635095, 0.270549, 0.635474, 0.270711, 0.635474, 0.270711, 0, 0
2, 300.00000, 0.635095, 0.270549, 0.635474, 0.270711, 0.635474, 0.270711, 0, 0
2, 360.00000, 0.635095, 0.270549, 0.635474, 0.270711, 0.635474, 0.270711, 0, 0
2, 420.00000, 0.635095, 0.270549, 0.635474, 0.270711, 0.635474, 0.270711, 0, 0
2, 480.00000, 0.635095, 0.270549, 0.635474, 0.270711, 0.635474, 0.270711, 0, 0
2, 540.00000, 0.635095, 0.270549, 0.635474, 0.270711, 0.635474, 0.270711, 0, 0
2, 600.00000, 0.635095, 0.270549, 0.635474, 0.270711, 0.635474, 0.270711, 0, 0
2, 660.00000, 0.635095, 0.270549, 0.635474, 0.270711, 0.635474, 0.270711, 0, 0
2, 720.00000, 0.635095, 0.270549, 0.635474, 0.270711, 0.635474, 0.270711, 0, 0
2, 780.00000, 0.635095, 0.270549, 0.635474, 0.270711, 0.635474, 0.270711, 0, 0
2, 840.00000, 0.635095, 0.270549, 0.635474, 0.270711, 0.635474, 0.270711, 0, 0
2, 900.00000, 0.635095, 0.270549, 0.635474, 0.270711, 0.635474, 0.270711, 0, 0
2, 960.00000, 0.602115, 0.2565, 0.602116, 0.2565, 0.602115, 0.2565, 0, 0
2, 1020.00000, 0.602115, 0.2565, 0.602115, 0.2565, 0.602115, 0.2565, 0, 0
2, 1080.00000, 0.602115, 0.2565, 0.602115, 0.2565, 0.602115, 0.2565, 0, 0
2, 1140.00000, 0.602115, 0.2565, 0.602115, 0.2565, 0.602115, 0.2565, 0, 0
2, 1200.00000, 0.602115, 0.2565, 0.602115, 0.2565, 0.602115, 0.2565, 0, 0
2, 1260.00000, 0.602115, 0.2565, 0.602115, 0.2565, 0.602115, 0.2565, 0, 0
2, 1320.00000, 0.602115, 0.2565, 0.602115, 0.2565, 0.602115, 0.2565, 0, 0
2, 1380.00000, 0.602115, 0.2565, 0.602115, 0.2565, 0.602115, 0.2565, 0, 0
2, 1440.00000, 0.602115, 0.2565, 0.602115, 0.2565, 0.602115, 0.2565, 0, 0
2, 1500.00000, 0.602115, 0.2565, 0.602115, 0.2565, 0.602115, 0.2565, 0, 0
2, 1560.00000, 0.602115, 0.2565, 0.602115, 0.2565, 0.602115, 0.2565, 0, 0
2, 1620.00000, 0.602115, 0.2565, 0.602115, 0.2565, 0.602115, 0.2565, 0, 0
2, 1680.00000, 0.602115, 0.2565, 0.602115, 0.2565, 0.602115, 0.2565, 0, 0
2, 1740.00000, 0.602115, 0.2565, 0.602115, 0.2565, 0.602115, 0.2565, 0, 0
2, 1800.00000, 0.602115, 0.2565, 0.602115, 0.2565, 0.602115, 0.2565, 0, 0
2, 1860.00000, 0.601786, 0.25636, 0.601786, 0.25636, 0.601786, 0.25636, 0, 0
2, 1920.00000, 0.601786, 0.25636, 0.601786, 0.25636, 0.601786, 0.25636, 0, 0
2, 1980.00000, 0.601786, 0.25636, 0.601786, 0.25636, 0.601786, 0.25636, 0, 0
2, 2040.00000, 0.601786, 0.25636, 0.601786, 0.25636, 0.601786, 0.25636, 0, 0
2, 2100.00000, 0.601786, 0.25636, 0.601786, 0.25636, 0.601786, 0.25636, 0, 0
2, 2160.00000, 0.601786, 0.25636, 0.601786, 0.25636, 0.601786, 0.25636, 0, 0
2, 2220.00000, 0.601786, 0.25636, 0.601786, 0.25636, 0.601786, 0.25636, 0, 0
2, 2280.00000, 0.601786, 0.25636, 0.601786, 0.25636, 0.601786, 0.25636, 0, 0
2, 2340.00000, 0.601786, 0.25636, 0.601786, 0.25636, 0.601786, 0.25636, 0, 0
2, 2400.00000, 0.601786, 0.25636, 0.601786, 0.25636, 0.601786, 0.25636, 0, 0
2, 2460.00000, 0.601786, 0.25636, 0.601786, 0.25636, 0.601786, 0.25636, 0, 0
2, 2520.00000, 0.601786, 0.25636, 0.601786, 0.25636, 0.601786, 0.25636, 0, 0
2, 2580.00000, 0.601786, 0.25636, 0.601786, 0.25636, 0.601786, 0.25636, 0, 0
2, 2640.00000, 0.601786, 0.25636, 0.601786, 0.25636, 0.601786, 0.25636, 0, 0
2, 2700.00000, 0.601786, 0.25636, 0.601786, 0.25636, 0.601786, 0.25636, 0, 0
2, 2760.00000, 0.575765, 0.245275, 0.575765, 0.245275, 0.575765, 0.245275, 0, 0
2, 2820.00000, 0.575765, 0.245275, 0.575765, 0.245275, 0.575765, 0.245275, 0, 0
2, 2880.00000, 0.575765, 0.245275, 0.575765, 0.245275, 0.575765, 0.245275, 0, 0
2, 2940.00000, 0.575765, 0.245275, 0.575765, 0.245275, 0.575765, 0.245275, 0, 0
2, 3000.00000, 0.575765, 0.245275, 0.575765, 0.245275, 0.575765, 0.245275, 0, 0
2, 3060.00000, 0.575765, 0.245275, 0.575765, 0.245275, 0.575765, 0.245275, 0, 0
2, 3120.00000, 0.575765, 0.245275, 0.575765, 0.245275, 0.575765, 0.245275, 0, 0
2, 3180.00000, 0.575765, 0.245275, 0.575765, 0.245275, 0.575765, 0.245275, 0, 0
2, 3240.00000, 0.575765, 0.245275, 0.575765, 0.245275, 0.575765, 0.245275, 0, 0
2, 3300.00000, 0.575765, 0.245275, 0.575765, 0.245275, 0.575765, 0.245275, 0, 0
2, 3360.00000, 0.575765, 0.245275, 0.575765, 0.245275, 0.575765, 0.245275, 0, 0
2, 3420.00000, 0.575765, 0.245275, 0.575765, 0.245275, 0.575765, 0.245275, 0, 0
2, 3480.00000, 0.575765, 0.245275, 0.575765, 0.245275, 0.575765, 0.245275, 0, 0
2, 3540.00000, 0.575765, 0.245275, 0.575765, 0.245275, 0.575765, 0.245275, 0, 0
3, 0.00000, 0.575765, 0.245275, 0.575765, 0.245275, 0.575765, 0.245275, 0, 0
3, 60.00000, 0.590406, 0.251512, 0.590405, 0.251512, 0.590406, 0.251512, 0, 0
3, 120.00000, 0.590406, 0.251512, 0.590406, 0.251512, 0.590406, 0.251512, 0, 0
3, 180.00000, 0.590406, 0.251512, 0.590406, 0.251512, 0.590406, 0.251512, 0, 0
3, 240.00000, 0.590406, 0.251512, 0.590406, 0.251512, 0.590406, 0.251512, 0, 0
3, 300.00000, 0.590406, 0.251512, 0.590406, 0.251512, 0.590406, 0.251512, 0, 0
3, 360.00000, 0.590406, 0.251512, 0.590406, 0.251512, 0.590406, 0.251512, 0, 0
3, 420.00000, 0.590406, 0.251512, 0.590406, 0.251512, 0.590406, 0.251512, 0, 0
3, 480.00000, 0.590406, 0.251512, 0.590406, 0.251512, 0.590406, 0.251512, 0, 0
3, 540.00000, 0.590406, 0.251512, 0.590406, 0.251512, 0.590406, 0.251512, 0, 0
3, 600.00000, 0.590406, 0.251512, 0.590406, 0.251512, 0.590406, 0.251512, 0, 0
3, 660.00000, 0.590406, 0.251512, 0.590406, 0.251512, 0.590406, 0.251512, 0, 0
3, 720.00000, 0.590406, 0.251512, 0.590406, 0.251512, 0.590406, 0.251512, 0, 0
3, 780.00000, 0.590406, 0.251512, 0.590406, 0.251512, 0.590406, 0.251512, 0, 0
3, 840.00000, 0.590406, 0.251512, 0.590406, 0.251512, 0.590406, 0.251512, 0, 0
3, 900.00000, 0.590406, 0.251512, 0.590406, 0.251512, 0.590406, 0.251512, 0, 0
3, 960.00000, 0.606628, 0.258422, 0.606628, 0.258423, 0.606628, 0.258422, 0, 0
3, 1020.00000, 0.606628, 0.258422, 0.606628, 0.258422, 0.606628, 0.258422, 0, 0
3, 1080.00000, 0.606628, 0.258422, 0.606628, 0.258422, 0.606628, 0.258422, 0, 0
3, 1140.00000, 0.606628, 0.258422, 0.606628, 0.258422, 0.606628, 0.258422, 0, 0
3, 1200.00000, 0.606628, 0.258422, 0.606628, 0.258422, 0.606628, 0.258422, 0, 0
3, 1260.00000, 0.606628, 0.258422, 0.606628, 0.258422, 0.606628, 0.258422, 0, 0
3, 1320.00000, 0.606628, 0.258422, 0.606628, 0.258422, 0.606628, 0.258422, 0, 0
3, 1380.00000, 0.606628, 0.258422, 0.606628, 0.258422, 0.606628, 0.258422, 0, 0
3, 1440.00000, 0.606628, 0.258422, 0.606628, 0.258422, 0.606628, 0.258422, 0, 0
3, 1500.00000, 0.606628, 0.258422, 0.606628, 0.258422, 0.606628, 0.258422, 0, 0
3, 1560.00000, 0.606628, 0.258422, 0.606628, 0.258422, 0.606628, 0.258422, 0, 0
3, 1620.00000, 0.606628, 0.258422, 0.606628, 0.258422, 0.606628, 0.258422, 0, 0
3, 1680.00000, 0.606628, 0.258422, 0.606628, 0.258422, 0.606628, 0.258422, 0, 0
3, 1740.00000, 0.606628, 0.258422, 0.606628, 0.258422, 0.606628, 0.258422, 0, 0
3, 1800.00000, 0.606628, 0.258422, 0.606628, 0.258422, 0.606628, 0.258422, 0, 0
3, 1860.00000, 0.614046, 0.261582, 0.614046, 0.261582, 0.614045, 0.261582, 0, 0
3, 1920.00000, 0.614045, 0.261582, 0.614045, 0.261582, 0.614045, 0.261582, 0, 0
3, 1980.00000, 0.614045, 0.261582, 0.614045, 0.261582, 0.614045, 0.261582, 0, 0
3, 2040.00000, 0.614045, 0.261582, 0.614045, 0.261582, 0.614045, 0.261582, 0, 0
3, 2100.00000, 0.614045, 0.261582, 0.614045, 0.261582, 0.614045, 0.261582, 0, 0
3, 2160.00000, 0.614045, 0.261582, 0.614045, 0.261582, 0.614045, 0.261582, 0, 0
3, 2220.00000, 0.614045, 0.261582, 0.614045, 0.261582, 0.614045, 0.261582, 0, 0
3, 2280.00000, 0.614045, 0.261582, 0.614045, 0.261582, 0.614045, 0.261582, 0, 0
3, 2340.00000, 0.614045, 0.261582, 0.614045, 0.261582, 0.614045, 0.261582, 0, 0
3, 2400.00000, 0.614045, 0.261582, 0.614045, 0.261582, 0.614045, 0.261582, 0, 0
3, 2460.00000, 0.614045, 0.261582, 0.614045, 0.261582, 0.614045, 0.261582, 0, 0
3, 2520.00000, 0.614045, 0.261582, 0.614045, 0.261582, 0.614045, 0.261582, 0, 0
3, 2580.00000, 0.614045, 0.261582, 0.614045, 0.261582, 0.614045, 0.261582, 0, 0
3, 2640.00000, 0.614045, 0.261582, 0.614045, 0.261582, 0.614045, 0.261582, 0, 0
3, 2700.00000, 0.614045, 0.261582, 0.614045, 0.261582, 0.614045, 0.261582, 0, 0
3, 2760.00000, 0.561898, 0.239367, 0.561898, 0.239368, 0.561897, 0.239367, 0, 0
3, 2820.00000, 0.561898, 0.239367, 0.561898, 0.239367, 0.561898, 0.239367, 0, 0
3, 2880.00000, 0.561898, 0.239367, 0.561898, 0.239367, 0.561898, 0.239367, 0, 0
3, 2940.00000, 0.561898, 0.239367, 0.561898, 0.239367, 0.561898, 0.239367, 0, 0
3, 3000.00000, 0.561898, 0.239367, 0.561898, 0.239367, 0.561898, 0.239367, 0, 0
3, 3060.00000, 0.561898, 0.239367, 0.561898, 0.239367, 0.561898, 0.239367, 0, 0
3, 3120.00000, 0.561898, 0.239367, 0.561898, 0.239367, 0.561898, 0.239367, 0, 0
3, 3180.00000, 0.561898, 0.239367, 0.561898, 0.239367, 0.561898, 0.239367, 0, 0
3, 3240.00000, 0.561898, 0.239367, 0.561898, 0.239367, 0.561898, 0.239367, 0, 0
3, 3300.00000, 0.561898, 0.239367, 0.561898, 0.239367, 0.561898, 0.239367, 0, 0
3, 3360.00000, 0.561898, 0.239367, 0.561898, 0.239367, 0.561898, 0.239367, 0, 0
3, 3420.00000, 0.561898, 0.239367, 0.561898, 0.239367, 0.561898, 0.239367, 0, 0
3, 3480.00000, 0.561898, 0.239367, 0.561898, 0.239367, 0.561898, 0.239367, 0, 0
3, 3540.00000, 0.561898, 0.239367, 0.561898, 0.239367, 0.561898, 0.239367, 0, 0
4, 0.00000, 0.561898, 0.239367, 0.561898, 0.239367, 0.561898, 0.239367, 0, 0
4, 60.00000, 0.601101, 0.256068, 0.6011, 0.256068, 0.601101, 0.256068, 0, 0
4, 120.00000, 0.601101, 0.256068, 0.601101, 0.256068, 0.601101, 0.256068, 0, 0
4, 180.00000, 0.601101, 0.256068, 0.601101, 0.256068, 0.601101, 0.256068, 0, 0
4, 240.00000, 0.601101, 0.256068, 0.601101, 0.256068, 0.601101, 0.256068, 0, 0
4, 300.00000, 0.601101, 0.256068, 0.601101, 0.256068, 0.601101, 0.256068, 0, 0
4, 360.00000, 0.601101, 0.256068, 0.601101, 0.256068, 0.601101, 0.256068, 0, 0
4, 420.00000, 0.601101, 0.256068, 0.601101, 0.256068, 0.601101, 0.256068, 0, 0
4, 480.00000, 0.601101, 0.256068, 0.601101, 0.256068, 0.601101, 0.256068, 0, 0
4, 540.00000, 0.601101, 0.256068, 0.601101, 0.256068, 0.601101, 0.256068, 0, 0
4, 600.00000, 0.601101, 0.256068, 0.601101, 0.256068, 0.601101, 0.256068, 0, 0
4, 660.00000, 0.601101, 0.256068, 0.601101, 0.256068, 0.601101, 0.256068, 0, 0
4, 720.00000, 0.601101, 0.256068, 0.601101, 0.256068, 0.601101, 0.256068, 0, 0
