hour,t(sec),V1,VAngle1,V2,VAngle2,V3,VAngle3,V4,VAngle4,I1,IAngle1,I2,IAngle2,I3,IAngle3,I4,IAngle4
0, 60.00000, 116.489, -31.088, 117.083, -150.778, 118.001, 88.8392, 0, 0, 6.10283, -54.1617, 6.13746, -173.852, 6.19095, 65.7654, 0.0424582, -106.802
0, 120.00000, 116.489, -31.088, 117.083, -150.778, 118.001, 88.8392, 0, 0, 6.10278, -54.1619, 6.13741, -173.852, 6.19092, 65.7653, 0.0424736, -106.794
0, 180.00000, 116.489, -31.088, 117.083, -150.778, 118.001, 88.8392, 0, 0, 6.10278, -54.1619, 6.13741, -173.852, 6.19092, 65.7653, 0.0424737, -106.794
0, 240.00000, 116.489, -31.088, 117.083, -150.778, 118.001, 88.8392, 0, 0, 6.10278, -54.1619, 6.13741, -173.852, 6.19092, 65.7653, 0.0424737, -106.794
0, 300.00000, 116.489, -31.088, 117.083, -150.778, 118.001, 88.8392, 0, 0, 6.10278, -54.1619, 6.13741, -173.852, 6.19092, 65.7653, 0.0424737, -106.794
0, 360.00000, 116.489, -31.088, 117.083, -150.778, 118.001, 88.8392, 0, 0, 6.10278, -54.1619, 6.13741, -173.852, 6.19092, 65.7653, 0.0424737, -106.794
0, 420.00000, 116.489, -31.088, 117.083, -150.778, 118.001, 88.8392, 0, 0, 6.10278, -54.1619, 6.13741, -173.852, 6.19092, 65.7653, 0.0424737, -106.794
0, 480.00000, 117.612, -31.0074, 118.187, -150.7, 119.085, 88.939, 0, 0, 5.36638, -54.0816, 5.39546, -173.774, 5.44098, 65.8647, 0.0354887, -105.08
0, 540.00000, 117.612, -31.0074, 118.187, -150.7, 119.085, 88.9391, 0, 0, 5.36641, -54.0813, 5.39557, -173.774, 5.44111, 65.8652, 0.0355659, -104.947
0, 600.00000, 117.612, -31.0074, 118.187, -150.7, 119.085, 88.9391, 0, 0, 5.36641, -54.0813, 5.39557, -173.774, 5.44111, 65.8652, 0.0355662, -104.946
0, 660.00000, 117.612, -31.0074, 118.187, -150.7, 119.085, 88.9391, 0, 0, 5.36641, -54.0813, 5.39557, -173.774, 5.44111, 65.8652, 0.0355662, -104.946
0, 720.00000, 117.612, -31.0074, 118.187, -150.7, 119.085, 88.9391, 0, 0, 5.36641, -54.0813, 5.39557, -173.774, 5.44111, 65.8652, 0.0355662, -104.946
0, 780.00000, 117.612, -31.0074, 118.187, -150.7, 119.085, 88.9391, 0, 0, 5.36641, -54.0813, 5.39557, -173.774, 5.44111, 65.8652, 0.0355662, -104.946
0, 840.00000, 117.612, -31.0074, 118.187, -150.7, 119.085, 88.9391, 0, 0, 5.36641, -54.0813, 5.39557, -173.774, 5.44111, 65.8652, 0.0355662, -104.946
0, 900.00000, 117.612, -31.0074, 118.187, -150.7, 119.085, 88.9391, 0, 0, 5.36641, -54.0813, 5.39557, -173.774, 5.44111, 65.8652, 0.0355662, -104.946
0, 960.00000, 117.612, -31.0074, 118.187, -150.7, 119.085, 88.9391, 0, 0, 5.36641, -54.0813, 5.39557, -173.774, 5.44111, 65.8652, 0.0355662, -104.946
0, 1020.00000, 117.612, -31.0074, 118.187, -150.7, 119.085, 88.9391, 0, 0, 5.36641, -54.0813, 5.39557, -173.774, 5.44111, 65.8652, 0.0355662, -104.946
0, 1080.00000, 117.612, -31.0074, 118.187, -150.7, 119.085, 88.9391, 0, 0, 5.36641, -54.0813, 5.39557, -173.774, 5.44111, 65.8652, 0.0355662, -104.946
0, 1140.00000, 117.612, -31.0074, 118.187, -150.7, 119.085, 88.9391, 0, 0, 5.36641, -54.0813, 5.39557, -173.774, 5.44111, 65.8652, 0.0355662, -104.946
0, 1200.00000, 117.612, -31.0074, 118.187, -150.7, 119.085, 88.9391, 0, 0, 5.36641, -54.0813, 5.39557, -173.774, 5.44111, 65.8652, 0.0355662, -104.946
0, 1260.00000, 117.612, -31.0074, 118.187, -150.7, 119.085, 88.9391, 0, 0, 5.36641, -54.0813, 5.39557, -173.774, 5.44111, 65.8652, 0.0355662, -104.946
0, 1320.00000, 117.612, -31.0074, 118.187, -150.7, 119.085, 88.9391, 0, 0, 5.36641, -54.0813, 5.39557, -173.774, 5.44111, 65.8652, 0.0355662, -104.946
0, 1380.00000, 117.612, -31.0074, 118.187, -150.7, 119.085, 88.9391, 0, 0, 5.36641, -54.0813, 5.39557, -173.774, 5.44111, 65.8652, 0.0355662, -104.946
0, 1440.00000, 117.612, -31.0074, 118.187, -150.7, 119.085, 88.9391, 0, 0, 5.36641, -54.0813, 5.39557, -173.774, 5.44111, 65.8652, 0.0355662, -104.946
0, 1500.00000, 117.612, -31.0074, 118.187, -150.7, 119.085, 88.9391, 0, 0, 5.36641, -54.0813, 5.39557, -173.774, 5.44111, 65.8652, 0.0355662, -104.946
0, 1560.00000, 117.612, -31.0074, 118.187, -150.7, 119.085, 88.9391, 0, 0, 5.36641, -54.0813, 5.39557, -173.774, 5.44111, 65.8652, 0.0355662, -104.946
0, 1620.00000, 117.612, -31.0074, 118.187, -150.7, 119.085, 88.9391, 0, 0, 5.36641, -54.0813, 5.39557, -173.774, 5.44111, 65.8652, 0.0355662, -104.946
0, 1680.00000, 117.612, -31.0074, 118.187, -150.7, 119.085, 88.9391, 0, 0, 5.36641, -54.0813, 5.39557, -173.774, 5.44111, 65.8652, 0.0355662, -104.946
0, 1740.00000, 117.612, -31.0074, 118.187, -150.7, 119.085, 88.9391, 0, 0, 5.36641, -54.0813, 5.39557, -173.774, 5.44111, 65.8652, 0.0355662, -104.946
0, 1800.00000, 117.612, -31.0074, 118.187, -150.7, 119.085, 88.9391, 0, 0, 5.36641, -54.0813, 5.39557, -173.774, 5.44111, 65.8652, 0.0355662, -104.946
0, 1860.00000, 117.612, -31.0074, 118.187, -150.7, 119.085, 88.9391, 0, 0, 5.36641, -54.0813, 5.39557, -173.774, 5.44111, 65.8652, 0.0355662, -104.946
0, 1920.00000, 117.612, -31.0074, 118.187, -150.7, 119.085, 88.9391, 0, 0, 5.36641, -54.0813, 5.39557, -173.774, 5.44111, 65.8652, 0.0355662, -104.946
0, 1980.00000, 117.612, -31.0074, 118.187, -150.7, 119.085, 88.9391, 0, 0, 5.36641, -54.0813, 5.39557, -173.774, 5.44111, 65.8652, 0.0355662, -104.946
0, 2040.00000, 117.612, -31.0074, 118.187, -150.7, 119.085, 88.9391, 0, 0, 5.36641, -54.0813, 5.39557, -173.774, 5.44111, 65.8652, 0.0355662, -104.946
0, 2100.00000, 117.612, -31.0074, 118.187, -150.7, 119.085, 88.9391, 0, 0, 5.36641, -54.0813, 5.39557, -173.774, 5.44111, 65.8652, 0.0355662, -104.946
0, 2160.00000, 117.612, -31.0074, 118.187, -150.7, 119.085, 88.9391, 0, 0, 5.36641, -54.0813, 5.39557, -173.774, 5.44111, 65.8652, 0.0355662, -104.946
0, 2220.00000, 117.612, -31.0074, 118.187, -150.7, 119.085, 88.9391, 0, 0, 5.36641, -54.0813, 5.39557, -173.774, 5.44111, 65.8652, 0.0355662, -104.946
0, 2280.00000, 117.612, -31.0074, 118.187, -150.7, 119.085, 88.9391, 0, 0, 5.36641, -54.0813, 5.39557, -173.774, 5.44111, 65.8652, 0.0355662, -104.946
0, 2340.00000, 117.612, -31.0074, 118.187, -150.7, 119.085, 88.9391, 0, 0, 5.36641, -54.0813, 5.39557, -173.774, 5.44111, 65.8652, 0.0355662, -104.946
0, 2400.00000, 117.612, -31.0074, 118.187, -150.7, 119.085, 88.9391, 0, 0, 5.36641, -54.0813, 5.39557, -173.774, 5.44111, 65.8652, 0.0355662, -104.946
0, 2460.00000, 117.612, -31.0074, 118.187, -150.7, 119.085, 88.9391, 0, 0, 5.36641, -54.0813, 5.39557, -173.774, 5.44111, 65.8652, 0.0355662, -104.946
0, 2520.00000, 117.612, -31.0074, 118.187, -150.7, 119.085, 88.9391, 0, 0, 5.36641, -54.0813, 5.39557, -173.774, 5.44111, 65.8652, 0.0355662, -104.946
0, 2580.00000, 117.612, -31.0074, 118.187, -150.7, 119.085, 88.9391, 0, 0, 5.36641, -54.0813, 5.39557, -173.774, 5.44111, 65.8652, 0.0355662, -104.946
0, 2640.00000, 117.612, -31.0074, 118.187, -150.7, 119.085, 88.9391, 0, 0, 5.36641, -54.0813, 5.39557, -173.774, 5.44111, 65.8652, 0.0355662, -104.946
0, 2700.00000, 117.612, -31.0074, 118.187, -150.7, 119.085, 88.9391, 0, 0, 5.36641, -54.0813, 5.39557, -173.774, 5.44111, 65.8652, 0.0355662, -104.946
0, 2760.00000, 117.612, -31.0074, 118.187, -150.7, 119.085, 88.9391, 0, 0, 5.36641, -54.0813, 5.39557, -173.774, 5.44111, 65.8652, 0.0355662, -104.946
0, 2820.00000, 117.612, -31.0074, 118.187, -150.7, 119.085, 88.9391, 0, 0, 5.36641, -54.0813, 5.39557, -173.774, 5.44111, 65.8652, 0.0355662, -104.946
0, 2880.00000, 117.612, -31.0074, 118.187, -150.7, 119.085, 88.9391, 0, 0, 5.36641, -54.0813, 5.39557, -173.774, 5.44111, 65.8652, 0.0355662, -104.946
0, 2940.00000, 117.612, -31.0074, 118.187, -150.7, 119.085, 88.9391, 0, 0, 5.36641, -54.0813, 5.39557, -173.774, 5.44111, 65.8652, 0.0355662, -104.946
0, 3000.00000, 117.612, -31.0074, 118.187, -150.7, 119.085, 88.9391, 0, 0, 5.36641, -54.0813, 5.39557, -173.774, 5.44111, 65.8652, 0.0355662, -104.946
0, 3060.00000, 117.612, -31.0074, 118.187, -150.7, 119.085, 88.9391, 0, 0, 5.36641, -54.0813, 5.39557, -173.774, 5.44111, 65.8652, 0.0355662, -104.946
0, 3120.00000, 117.612, -31.0074, 118.187, -150.7, 119.085, 88.9391, 0, 0, 5.36641, -54.0813, 5.39557, -173.774, 5.44111, 65.8652, 0.0355662, -104.946
0, 3180.00000, 117.612, -31.0074, 118.187, -150.7, 119.085, 88.9391, 0, 0, 5.36641, -54.0813, 5.39557, -173.774, 5.44111, 65.8652, 0.0355662, -104.946
0, 3240.00000, 117.612, -31.0074, 118.187, -150.7, 119.085, 88.9391, 0, 0, 5.36641, -54.0813, 5.39557, -173.774, 5.44111, 65.8652, 0.0355662, -104.946
0, 3300.00000, 117.612, -31.0074, 118.187, -150.7, 119.085, 88.9391, 0, 0, 5.36641, -54.0813, 5.39557, -173.774, 5.44111, 65.8652, 0.0355662, -104.946
0, 3360.00000, 117.612, -31.0074, 118.187, -150.7, 119.085, 88.9391, 0, 0, 5.36641, -54.0813, 5.39557, -173.774, 5.44111, 65.8652, 0.0355662, -104.946
0, 3420.00000, 117.612, -31.0074, 118.187, -150.7, 119.085, 88.9391, 0, 0, 5.36641, -54.0813, 5.39557, -173.774, 5.44111, 65.8652, 0.0355662, -104.946
0, 3480.00000, 117.612, -31.0074, 118.187, -150.7, 119.085, 88.9391, 0, 0, 5.36641, -54.0813, 5.39557, -173.774, 5.44111, 65.8652, 0.0355662, -104.946
0, 3540.00000, 117.612, -31.0074, 118.187, -150.7, 119.085, 88.9391, 0, 0, 5.36641, -54.0813, 5.39557, -173.774, 5.44111, 65.8652, 0.0355662, -104.946
1, 0.00000, 117.612, -31.0074, 118.187, -150.7, 119.085, 88.9391, 0, 0, 5.36641, -54.0813, 5.39557, -173.774, 5.44111, 65.8652, 0.0355662, -104.946
1, 60.00000, 117.612, -31.0074, 118.187, -150.7, 119.085, 88.9391, 0, 0, 5.36641, -54.0813, 5.39557, -173.774, 5.44111, 65.8652, 0.0355662, -104.946
1, 120.00000, 117.612, -31.0074, 118.187, -150.7, 119.085, 88.9391, 0, 0, 5.36641, -54.0813, 5.39557, -173.774, 5.44111, 65.8652, 0.0355662, -104.946
1, 180.00000, 117.612, -31.0074, 118.187, -150.7, 119.085, 88.9391, 0, 0, 5.36641, -54.0813, 5.39557, -173.774, 5.44111, 65.8652, 0.0355662, -104.946
1, 240.00000, 117.612, -31.0074, 118.187, -150.7, 119.085, 88.9391, 0, 0, 5.36641, -54.0813, 5.39557, -173.774, 5.44111, 65.8652, 0.0355662, -104.946
1, 300.00000, 117.612, -31.0074, 118.187, -150.7, 119.085, 88.9391, 0, 0, 5.36641, -54.0813, 5.39557, -173.774, 5.44111, 65.8652, 0.0355662, -104.946
1, 360.00000, 117.612, -31.0074, 118.187, -150.7, 119.085, 88.9391, 0, 0, 5.36641, -54.0813, 5.39557, -173.774, 5.44111, 65.8652, 0.0355662, -104.946
1, 420.00000, 117.612, -31.0074, 118.187, -150.7, 119.085, 88.9391, 0, 0, 5.36641, -54.0813, 5.39557, -173.774, 5.44111, 65.8652, 0.0355662, -104.946
1, 480.00000, 117.612, -31.0074, 118.187, -150.7, 119.085, 88.9391, 0, 0, 5.36641, -54.0813, 5.39557, -173.774, 5.44111, 65.8652, 0.0355662, -104.946
1, 540.00000, 117.612, -31.0074, 118.187, -150.7, 119.085, 88.9391, 0, 0, 5.36641, -54.0813, 5.39557, -173.774, 5.44111, 65.8652, 0.0355662, -104.946
1, 600.00000, 117.612, -31.0074, 118.187, -150.7, 119.085, 88.9391, 0, 0, 5.36641, -54.0813, 5.39557, -173.774, 5.44111, 65.8652, 0.0355662, -104.946
1, 660.00000, 117.612, -31.0074, 118.187, -150.7, 119.085, 88.9391, 0, 0, 5.36641, -54.0813, 5.39557, -173.774, 5.44111, 65.8652, 0.0355662, -104.946
1, 720.00000, 117.612, -31.0074, 118.187, -150.7, 119.085, 88.9391, 0, 0, 5.36641, -54.0813, 5.39557, -173.774, 5.44111, 65.8652, 0.0355662, -104.946
1, 780.00000, 117.612, -31.0074, 118.187, -150.7, 119.085, 88.9391, 0, 0, 5.36641, -54.0813, 5.39557, -173.774, 5.44111, 65.8652, 0.0355662, -104.946
1, 840.00000, 117.612, -31.0074, 118.187, -150.7, 119.085, 88.9391, 0, 0, 5.36641, -54.0813, 5.39557, -173.774, 5.44111, 65.8652, 0.0355662, -104.946
1, 900.00000, 117.612, -31.0074, 118.187, -150.7, 119.085, 88.9391, 0, 0, 5.36641, -54.0813, 5.39557, -173.774, 5.44111, 65.8652, 0.0355662, -104.946
1, 960.00000, 117.612, -31.0074, 118.187, -150.7, 119.085, 88.9391, 0, 0, 5.36641, -54.0813, 5.39557, -173.774, 5.44111, 65.8652, 0.0355662, -104.946
1, 1020.00000, 117.612, -31.0074, 118.187, -150.7, 119.085, 88.9391, 0, 0, 5.36641, -54.0813, 5.39557, -173.774, 5.44111, 65.8652, 0.0355662, -104.946
1, 1080.00000, 117.612, -31.0074, 118.187, -150.7, 119.085, 88.9391, 0, 0, 5.36641, -54.0813, 5.39557, -173.774, 5.44111, 65.8652, 0.0355662, -104.946
1, 1140.00000, 117.612, -31.0074, 118.187, -150.7, 119.085, 88.9391, 0, 0, 5.36641, -54.0813, 5.39557, -173.774, 5.44111, 65.8652, 0.0355662, -104.946
1, 1200.00000, 117.612, -31.0074, 118.187, -150.7, 119.085, 88.9391, 0, 0, 5.36641, -54.0813, 5.39557, -173.774, 5.44111, 65.8652, 0.0355662, -104.946
1, 1260.00000, 117.612, -31.0074, 118.187, -150.7, 119.085, 88.9391, 0, 0, 5.36641, -54.0813, 5.39557, -173.774, 5.44111, 65.8652, 0.0355662, -104.946
1, 1320.00000, 117.612, -31.0074, 118.187, -150.7, 119.085, 88.9391, 0, 0, 5.36641, -54.0813, 5.39557, -173.774, 5.44111, 65.8652, 0.0355662, -104.946
1, 1380.00000, 117.612, -31.0074, 118.187, -150.7, 119.085, 88.9391, 0, 0, 5.36641, -54.0813, 5.39557, -173.774, 5.44111, 65.8652, 0.0355662, -104.946
1, 1440.00000, 117.612, -31.0074, 118.187, -150.7, 119.085, 88.9391, 0, 0, 5.36641, -54.0813, 5.39557, -173.774, 5.44111, 65.8652, 0.0355662, -104.946
1, 1500.00000, 117.612, -31.0074, 118.187, -150.7, 119.085, 88.9391, 0, 0, 5.36641, -54.0813, 5.39557, -173.774, 5.44111, 65.8652, 0.0355662, -104.946
1, 1560.00000, 117.612, -31.0074, 118.187, -150.7, 119.085, 88.9391, 0, 0, 5.36641, -54.0813, 5.39557, -173.774, 5.44111, 65.8652, 0.0355662, -104.946
1, 1620.00000, 117.612, -31.0074, 118.187, -150.7, 119.085, 88.9391, 0, 0, 5.36641, -54.0813, 5.39557, -173.774, 5.44111, 65.8652, 0.0355662, -104.946
1, 1680.00000, 117.612, -31.0074, 118.187, -150.7, 119.085, 88.9391, 0, 0, 5.36641, -54.0813, 5.39557, -173.774, 5.44111, 65.8652, 0.0355662, -104.946
1, 1740.00000, 117.612, -31.0074, 118.187, -150.7, 119.085, 88.9391, 0, 0, 5.36641, -54.0813, 5.39557, -173.774, 5.44111, 65.8652, 0.0355662, -104.946
1, 1800.00000, 117.612, -31.0074, 118.187, -150.7, 119.085, 88.9391, 0, 0, 5.36641, -54.0813, 5.39557, -173.774, 5.44111, 65.8652, 0.0355662, -104.946
1, 1860.00000, 117.612, -31.0074, 118.187, -150.7, 119.085, 88.9391, 0, 0, 5.36641, -54.0813, 5.39557, -173.774, 5.44111, 65.8652, 0.0355662, -104.946
1, 1920.00000, 117.612, -31.0074, 118.187, -150.7, 119.085, 88.9391, 0, 0, 5.36641, -54.0813, 5.39557, -173.774, 5.44111, 65.8652, 0.0355662, -104.946
1, 1980.00000, 117.612, -31.0074, 118.187, -150.7, 119.085, 88.9391, 0, 0, 5.36641, -54.0813, 5.39557, -173.774, 5.44111, 65.8652, 0.0355662, -104.946
1, 2040.00000, 117.612, -31.0074, 118.187, -150.7, 119.085, 88.9391, 0, 0, 5.36641, -54.0813, 5.39557, -173.774, 5.44111, 65.8652, 0.0355662, -104.946
1, 2100.00000, 117.612, -31.0074, 118.187, -150.7, 119.085, 88.9391, 0, 0, 5.36641, -54.0813, 5.39557, -173.774, 5.44111, 65.8652, 0.0355662, -104.946
1, 2160.00000, 117.612, -31.0074, 118.187, -150.7, 119.085, 88.9391, 0, 0, 5.36641, -54.0813, 5.39557, -173.774, 5.44111, 65.8652, 0.0355662, -104.946
1, 2220.00000, 117.612, -31.0074, 118.187, -150.7, 119.085, 88.9391, 0, 0, 5.36641, -54.0813, 5.39557, -173.774, 5.44111, 65.8652, 0.0355662, -104.946
1, 2280.00000, 117.612, -31.0074, 118.187, -150.7, 119.085, 88.9391, 0, 0, 5.36641, -54.0813, 5.39557, -173.774, 5.44111, 65.8652, 0.0355662, -104.946
1, 2340.00000, 117.612, -31.0074, 118.187, -150.7, 119.085, 88.9391, 0, 0, 5.36641, -54.0813, 5.39557, -173.774, 5.44111, 65.8652, 0.0355662, -104.946
1, 2400.00000, 117.612, -31.0074, 118.187, -150.7, 119.085, 88.9391, 0, 0, 5.36641, -54.0813, 5.39557, -173.774, 5.44111, 65.8652, 0.0355662, -104.946
1, 2460.00000, 117.612, -31.0074, 118.187, -150.7, 119.085, 88.9391, 0, 0, 5.36641, -54.0813, 5.39557, -173.774, 5.44111, 65.8652, 0.0355662, -104.946
1, 2520.00000, 117.612, -31.0074, 118.187, -150.7, 119.085, 88.9391, 0, 0, 5.36641, -54.0813, 5.39557, -173.774, 5.44111, 65.8652, 0.0355662, -104.946
1, 2580.00000, 117.612, -31.0074, 118.187, -150.7, 119.085, 88.9391, 0, 0, 5.36641, -54.0813, 5.39557, -173.774, 5.44111, 65.8652, 0.0355662, -104.946
1, 2640.00000, 117.612, -31.0074, 118.187, -150.7, 119.085, 88.9391, 0, 0, 5.36641, -54.0813, 5.39557, -173.774, 5.44111, 65.8652, 0.0355662, -104.946
1, 2700.00000, 117.612, -31.0074, 118.187, -150.7, 119.085, 88.9391, 0, 0, 5.36641, -54.0813, 5.39557, -173.774, 5.44111, 65.8652, 0.0355662, -104.946
1, 2760.00000, 117.612, -31.0074, 118.187, -150.7, 119.085, 88.9391, 0, 0, 5.36641, -54.0813, 5.39557, -173.774, 5.44111, 65.8652, 0.0355662, -104.946
1, 2820.00000, 117.612, -31.0074, 118.187, -150.7, 119.085, 88.9391, 0, 0, 5.36641, -54.0813, 5.39557, -173.774, 5.44111, 65.8652, 0.0355662, -104.946
1, 2880.00000, 117.612, -31.0074, 118.187, -150.7, 119.085, 88.9391, 0, 0, 5.36641, -54.0813, 5.39557, -173.774, 5.44111, 65.8652, 0.0355662, -104.946
1, 2940.00000, 117.612, -31.0074, 118.187, -150.7, 119.085, 88.9391, 0, 0, 5.36641, -54.0813, 5.39557, -173.774, 5.44111, 65.8652, 0.0355662, -104.946
1, 3000.00000, 117.612, -31.0074, 118.187, -150.7, 119.085, 88.9391, 0, 0, 5.36641, -54.0813, 5.39557, -173.774, 5.44111, 65.8652, 0.0355662, -104.946
1, 3060.00000, 117.612, -31.0074, 118.187, -150.7, 119.085, 88.9391, 0, 0, 5.36641, -54.0813, 5.39557, -173.774, 5.44111, 65.8652, 0.0355662, -104.946
1, 3120.00000, 117.612, -31.0074, 118.187, -150.7, 119.085, 88.9391, 0, 0, 5.36641, -54.0813, 5.39557, -173.774, 5.44111, 65.8652, 0.0355662, -104.946
1, 3180.00000, 117.612, -31.0074, 118.187, -150.7, 119.085, 88.9391, 0, 0, 5.36641, -54.0813, 5.39557, -173.774, 5.44111, 65.8652, 0.0355662, -104.946
1, 3240.00000, 117.612, -31.0074, 118.187, -150.7, 119.085, 88.9391, 0, 0, 5.36641, -54.0813, 5.39557, -173.774, 5.44111, 65.8652, 0.0355662, -104.946
1, 3300.00000, 117.612, -31.0074, 118.187, -150.7, 119.085, 88.9391, 0, 0, 5.36641, -54.0813, 5.39557, -173.774, 5.44111, 65.8652, 0.0355662, -104.946
1, 3360.00000, 117.612, -31.0074, 118.187, -150.7, 119.085, 88.9391, 0, 0, 5.36641, -54.0813, 5.39557, -173.774, 5.44111, 65.8652, 0.0355662, -104.946
1, 3420.00000, 117.612, -31.0074, 118.187, -150.7, 119.085, 88.9391, 0, 0, 5.36641, -54.0813, 5.39557, -173.774, 5.44111, 65.8652, 0.0355662, -104.946
1, 3480.00000, 117.612, -31.0074, 118.187, -150.7, 119.085, 88.9391, 0, 0, 5.36641, -54.0813, 5.39557, -173.774, 5.44111, 65.8652, 0.0355662, -104.946
1, 3540.00000, 117.612, -31.0074, 118.187, -150.7, 119.085, 88.9391, 0, 0, 5.36641, -54.0813, 5.39557, -173.774, 5.44111, 65.8652, 0.0355662, -104.946
2, 0.00000, 117.612, -31.0074, 118.187, -150.7, 119.085, 88.9391, 0, 0, 5.36641, -54.0813, 5.39557, -173.774, 5.44111, 65.8652, 0.0355662, -104.946
2, 60.00000, 117.612, -31.0074, 118.187, -150.7, 119.085, 88.9391, 0, 0, 5.36641, -54.0813, 5.39557, -173.774, 5.44111, 65.8652, 0.0355662, -104.946
2, 120.00000, 117.612, -31.0074, 118.187, -150.7, 119.085, 88.9391, 0, 0, 5.36641, -54.0813, 5.39557, -173.774, 5.44111, 65.8652, 0.0355662, -104.946
2, 180.00000, 117.612, -31.0074, 118.187, -150.7, 119.085, 88.9391, 0, 0, 5.36641, -54.0813, 5.39557, -173.774, 5.44111, 65.8652, 0.0355662, -104.946
2, 240.00000, 117.612, -31.0074, 118.187, -150.7, 119.085, 88.9391, 0, 0, 5.36641, -54.0813, 5.39557, -173.774, 5.44111, 65.8652, 0.0355662, -104.946
2, 300.00000, 117.612, -31.0074, 118.187, -150.7, 119.085, 88.9391, 0, 0, 5.36641, -54.0813, 5.39557, -173.774, 5.44111, 65.8652, 0.0355662, -104.946
2, 360.00000, 117.612, -31.0074, 118.187, -150.7, 119.085, 88.9391, 0, 0, 5.36641, -54.0813, 5.39557, -173.774, 5.44111, 65.8652, 0.0355662, -104.946
2, 420.00000, 117.612, -31.0074, 118.187, -150.7, 119.085, 88.9391, 0, 0, 5.36641, -54.0813, 5.39557, -173.774, 5.44111, 65.8652, 0.0355662, -104.946
2, 480.00000, 117.612, -31.0074, 118.187, -150.7, 119.085, 88.9391, 0, 0, 5.36641, -54.0813, 5.39557, -173.774, 5.44111, 65.8652, 0.0355662, -104.946
2, 540.00000, 117.612, -31.0074, 118.187, -150.7, 119.085, 88.9391, 0, 0, 5.36641, -54.0813, 5.39557, -173.774, 5.44111, 65.8652, 0.0355662, -104.946
2, 600.00000, 117.612, -31.0074, 118.187, -150.7, 119.085, 88.9391, 0, 0, 5.36641, -54.0813, 5.39557, -173.774, 5.44111, 65.8652, 0.0355662, -104.946
2, 660.00000, 117.612, -31.0074, 118.187, -150.7, 119.085, 88.9391, 0, 0, 5.36641, -54.0813, 5.39557, -173.774, 5.44111, 65.8652, 0.0355662, -104.946
2, 720.00000, 117.612, -31.0074, 118.187, -150.7, 119.085, 88.9391, 0, 0, 5.36641, -54.0813, 5.39557, -173.774, 5.44111, 65.8652, 0.0355662, -104.946
