hour,t(sec),V1,VAngle1,V2,VAngle2,V3,VAngle3,V4,VAngle4,I1,IAngle1,I2,IAngle2,I3,IAngle3,I4,IAngle4
0, 60.00000, 115.671, -31.232, 120.937, -151.328, 118.488, 86.687, 0, 0, 1.31077, -54.3055, 1.37077, -174.401, 1.34635, 63.613, 0.00788925, -82.0872
0, 120.00000, 115.67, -31.233, 120.965, -151.335, 118.488, 86.6735, 0, 0, 1.31077, -54.3066, 1.37045, -174.408, 1.34635, 63.5995, 0.00786485, -86.2288
0, 180.00000, 115.67, -31.2339, 120.991, -151.34, 118.488, 86.6613, 0, 0, 1.31077, -54.3075, 1.37016, -174.414, 1.34634, 63.5874, 0.00787818, -89.9578
0, 240.00000, 115.67, -31.2348, 121.014, -151.346, 118.488, 86.6504, 0, 0, 1.31076, -54.3084, 1.36989, -174.419, 1.34634, 63.5764, 0.0079184, -93.2889
0, 300.00000, 115.67, -31.2356, 121.035, -151.351, 118.488, 86.6405, 0, 0, 1.31076, -54.3092, 1.36965, -174.424, 1.34633, 63.5666, 0.00797667, -96.2562
0, 360.00000, 115.669, -31.2363, 121.054, -151.355, 118.487, 86.6317, 0, 0, 1.31076, -54.3099, 1.36944, -174.429, 1.34633, 63.5577, 0.00804693, -98.8905
0, 420.00000, 115.669, -31.2369, 121.071, -151.359, 118.487, 86.6237, 0, 0, 1.31076, -54.3106, 1.36924, -174.432, 1.34633, 63.5498, 0.00812392, -101.229
0, 480.00000, 116.499, -31.1553, 122.071, -151.257, 119.285, 86.728, 0, 0, 1.47442, -54.2289, 1.51549, -174.331, 1.51367, 63.6541, 0.0276028, -157.732
0, 540.00000, 116.498, -31.1559, 122.086, -151.26, 119.285, 86.7215, 0, 0, 1.47442, -54.2295, 1.5153, -174.334, 1.51367, 63.6476, 0.0278969, -157.951
0, 600.00000, 116.498, -31.1564, 122.099, -151.263, 119.285, 86.7157, 0, 0, 1.47441, -54.2301, 1.51514, -174.337, 1.51366, 63.6418, 0.0281612, -158.143
0, 660.00000, 116.498, -31.1569, 122.111, -151.266, 119.284, 86.7104, 0, 0, 1.47441, -54.2306, 1.51499, -174.339, 1.51366, 63.6365, 0.0283993, -158.313
0, 720.00000, 116.498, -31.1573, 122.121, -151.268, 119.284, 86.7057, 0, 0, 1.47441, -54.2311, 1.51485, -174.342, 1.51365, 63.6318, 0.0286137, -158.463
0, 780.00000, 116.498, -31.1577, 122.131, -151.27, 119.284, 86.7014, 0, 0, 1.47441, -54.2315, 1.51473, -174.344, 1.51365, 63.6275, 0.0288068, -158.597
0, 840.00000, 116.498, -31.1581, 122.14, -151.272, 119.284, 86.6976, 0, 0, 1.47441, -54.2318, 1.51463, -174.346, 1.51364, 63.6237, 0.0289806, -158.715
0, 900.00000, 116.498, -31.1584, 122.147, -151.274, 119.284, 86.6942, 0, 0, 1.47441, -54.2322, 1.51453, -174.347, 1.51364, 63.6203, 0.0291372, -158.821
0, 960.00000, 116.468, -31.1387, 121.328, -151.52, 118.506, 86.8362, 0, 0, 1.47399, -54.2126, 1.52475, -174.594, 1.50269, 63.7623, 0.0119261, -134.304
0, 1020.00000, 116.468, -31.139, 121.334, -151.522, 118.506, 86.8335, 0, 0, 1.47399, -54.2128, 1.52467, -174.596, 1.50269, 63.7595, 0.0120213, -134.725
0, 1080.00000, 116.468, -31.1392, 121.339, -151.523, 118.506, 86.831, 0, 0, 1.47399, -54.213, 1.5246, -174.597, 1.50269, 63.757, 0.0121075, -135.099
0, 1140.00000, 116.468, -31.1394, 121.344, -151.524, 118.506, 86.8288, 0, 0, 1.47399, -54.2132, 1.52454, -174.598, 1.50269, 63.7548, 0.0121856, -135.432
0, 1200.00000, 116.468, -31.1395, 121.349, -151.525, 118.506, 86.8268, 0, 0, 1.47399, -54.2134, 1.52449, -174.599, 1.50269, 63.7528, 0.0122563, -135.73
0, 1260.00000, 116.468, -31.1397, 121.353, -151.526, 118.506, 86.825, 0, 0, 1.47399, -54.2135, 1.52444, -174.6, 1.50268, 63.751, 0.0123202, -135.995
0, 1320.00000, 116.468, -31.1398, 121.356, -151.527, 118.506, 86.8233, 0, 0, 1.47398, -54.2137, 1.52439, -174.601, 1.50268, 63.7494, 0.012378, -136.231
0, 1380.00000, 116.468, -31.14, 121.359, -151.527, 118.506, 86.8219, 0, 0, 1.47398, -54.2138, 1.52435, -174.601, 1.50268, 63.748, 0.0124301, -136.442
0, 1440.00000, 116.468, -31.1401, 121.362, -151.528, 118.505, 86.8206, 0, 0, 1.47398, -54.2139, 1.52431, -174.602, 1.50268, 63.7466, 0.0124772, -136.63
0, 1500.00000, 116.468, -31.1402, 121.365, -151.529, 118.505, 86.8194, 0, 0, 1.47398, -54.2141, 1.52428, -174.602, 1.50268, 63.7455, 0.0125197, -136.798
0, 1560.00000, 116.468, -31.1403, 121.367, -151.529, 118.505, 86.8183, 0, 0, 1.47398, -54.2141, 1.52425, -174.603, 1.50268, 63.7444, 0.012558, -136.949
0, 1620.00000, 116.468, -31.1404, 121.369, -151.53, 118.505, 86.8174, 0, 0, 1.47398, -54.2142, 1.52422, -174.603, 1.50268, 63.7434, 0.0125926, -137.084
0, 1680.00000, 116.468, -31.1404, 121.371, -151.53, 118.505, 86.8165, 0, 0, 1.47398, -54.2143, 1.5242, -174.604, 1.50267, 63.7426, 0.0126238, -137.205
0, 1740.00000, 116.468, -31.1405, 121.373, -151.53, 118.505, 86.8157, 0, 0, 1.47398, -54.2144, 1.52418, -174.604, 1.50267, 63.7418, 0.0126519, -137.313
0, 1800.00000, 116.102, -31.3345, 120.735, -151.477, 118.552, 86.8089, 0, 0, 1.46883, -54.4084, 1.53223, -174.551, 1.50333, 63.735, 0.00969456, -57.6571
0, 1860.00000, 116.102, -31.3345, 120.736, -151.477, 118.552, 86.8083, 0, 0, 1.46883, -54.4084, 1.53222, -174.551, 1.50333, 63.7343, 0.00968051, -57.8082
0, 1920.00000, 116.102, -31.3345, 120.737, -151.478, 118.552, 86.8077, 0, 0, 1.46883, -54.4084, 1.5322, -174.552, 1.50333, 63.7338, 0.00966784, -57.9447
0, 1980.00000, 116.102, -31.3346, 120.738, -151.478, 118.552, 86.8072, 0, 0, 1.46883, -54.4085, 1.53219, -174.552, 1.50333, 63.7333, 0.00965648, -58.0679
0, 2040.00000, 116.102, -31.3346, 120.739, -151.478, 118.552, 86.8067, 0, 0, 1.46883, -54.4085, 1.53218, -174.552, 1.50333, 63.7328, 0.00964629, -58.1789
0, 2100.00000, 116.102, -31.3347, 120.74, -151.478, 118.552, 86.8063, 0, 0, 1.46883, -54.4086, 1.53217, -174.552, 1.50333, 63.7324, 0.00963715, -58.2791
0, 2160.00000, 116.102, -31.3347, 120.741, -151.479, 118.552, 86.8059, 0, 0, 1.46883, -54.4086, 1.53216, -174.553, 1.50333, 63.732, 0.00962895, -58.3694
0, 2220.00000, 116.102, -31.3347, 120.742, -151.479, 118.552, 86.8056, 0, 0, 1.46883, -54.4086, 1.53215, -174.553, 1.50333, 63.7317, 0.00962159, -58.4508
0, 2280.00000, 116.102, -31.3347, 120.742, -151.479, 118.552, 86.8053, 0, 0, 1.46883, -54.4086, 1.53214, -174.553, 1.50333, 63.7314, 0.00961499, -58.5242
0, 2340.00000, 116.102, -31.3347, 120.743, -151.479, 118.552, 86.805, 0, 0, 1.46883, -54.4087, 1.53213, -174.553, 1.50333, 63.7311, 0.00960904, -58.5904
0, 2400.00000, 116.102, -31.3348, 120.743, -151.479, 118.552, 86.8048, 0, 0, 1.46883, -54.4087, 1.53213, -174.553, 1.50333, 63.7309, 0.0096037, -58.65
0, 2460.00000, 116.102, -31.3348, 120.744, -151.479, 118.552, 86.8046, 0, 0, 1.46883, -54.4087, 1.53212, -174.553, 1.50333, 63.7306, 0.0095989, -58.7037
0, 2520.00000, 116.102, -31.3348, 120.744, -151.479, 118.552, 86.8044, 0, 0, 1.46883, -54.4087, 1.53211, -174.553, 1.50333, 63.7304, 0.00959459, -58.7521
0, 2580.00000, 116.102, -31.3348, 120.744, -151.479, 118.552, 86.8042, 0, 0, 1.46883, -54.4087, 1.53211, -174.553, 1.50333, 63.7303, 0.00959072, -58.7957
0, 2640.00000, 116.102, -31.3348, 120.745, -151.48, 118.552, 86.804, 0, 0, 1.46883, -54.4087, 1.53211, -174.553, 1.50333, 63.7301, 0.00958724, -58.835
0, 2700.00000, 116.102, -31.3348, 120.745, -151.48, 118.552, 86.8039, 0, 0, 1.46883, -54.4088, 1.5321, -174.554, 1.50333, 63.73, 0.00958411, -58.8703
0, 2760.00000, 116.699, -31.3659, 120.743, -151.478, 118.915, 87.0396, 0, 0, 1.47724, -54.4398, 1.53212, -174.552, 1.50845, 63.9657, 0.00912367, -63.8055
0, 2820.00000, 116.699, -31.3659, 120.744, -151.478, 118.915, 87.0395, 0, 0, 1.47724, -54.4398, 1.53212, -174.552, 1.50845, 63.9656, 0.00912161, -63.8377
0, 2880.00000, 116.699, -31.3659, 120.744, -151.478, 118.915, 87.0394, 0, 0, 1.47724, -54.4398, 1.53212, -174.552, 1.50845, 63.9655, 0.00911971, -63.8659
0, 2940.00000, 116.699, -31.3659, 120.744, -151.478, 118.915, 87.0393, 0, 0, 1.47724, -54.4398, 1.53211, -174.552, 1.50845, 63.9654, 0.009118, -63.8914
0, 3000.00000, 116.699, -31.3659, 120.744, -151.478, 118.915, 87.0392, 0, 0, 1.47724, -54.4398, 1.53211, -174.552, 1.50845, 63.9653, 0.00911647, -63.9143
0, 3060.00000, 116.699, -31.3659, 120.744, -151.479, 118.915, 87.0391, 0, 0, 1.47724, -54.4398, 1.53211, -174.552, 1.50845, 63.9652, 0.00911509, -63.9349
0, 3120.00000, 116.699, -31.3659, 120.745, -151.479, 118.915, 87.0391, 0, 0, 1.47724, -54.4398, 1.53211, -174.552, 1.50845, 63.9651, 0.00911384, -63.9535
0, 3180.00000, 116.699, -31.3659, 120.745, -151.479, 118.915, 87.039, 0, 0, 1.47724, -54.4398, 1.53211, -174.552, 1.50845, 63.9651, 0.00911273, -63.9702
0, 3240.00000, 116.699, -31.3659, 120.745, -151.479, 118.915, 87.0389, 0, 0, 1.47724, -54.4398, 1.5321, -174.553, 1.50845, 63.965, 0.00911172, -63.9853
0, 3300.00000, 116.699, -31.3659, 120.745, -151.479, 118.915, 87.0389, 0, 0, 1.47724, -54.4398, 1.5321, -174.553, 1.50845, 63.965, 0.00911082, -63.9988
0, 3360.00000, 116.699, -31.3659, 120.745, -151.479, 118.915, 87.0388, 0, 0, 1.47724, -54.4398, 1.5321, -174.553, 1.50845, 63.9649, 0.00911001, -64.011
0, 3420.00000, 116.699, -31.3659, 120.745, -151.479, 118.915, 87.0388, 0, 0, 1.47724, -54.4399, 1.5321, -174.553, 1.50845, 63.9649, 0.00910928, -64.022
0, 3480.00000, 116.699, -31.3659, 120.745, -151.479, 118.915, 87.0388, 0, 0, 1.47724, -54.4399, 1.5321, -174.553, 1.50845, 63.9649, 0.00910862, -64.0318
0, 3540.00000, 116.699, -31.3659, 120.745, -151.479, 118.915, 87.0387, 0, 0, 1.47724, -54.4399, 1.5321, -174.553, 1.50845, 63.9648, 0.00910803, -64.0407
1, 0.00000, 116.699, -31.3659, 120.745, -151.479, 118.915, 87.0387, 0, 0, 1.47724, -54.4399, 1.5321, -174.553, 1.50845, 63.9648, 0.00910749, -64.0487
1, 60.00000, 117.099, -31.3557, 120.744, -151.476, 119.101, 87.2049, 0, 0, 1.48287, -54.4296, 1.53211, -174.55, 1.51106, 64.131, 0.00862672, -67.5178
1, 120.00000, 117.099, -31.3557, 120.744, -151.476, 119.101, 87.2049, 0, 0, 1.48287, -54.4296, 1.53211, -174.55, 1.51106, 64.131, 0.00862627, -67.5255
1, 180.00000, 117.099, -31.3557, 120.744, -151.476, 119.101, 87.2049, 0, 0, 1.48287, -54.4296, 1.53211, -174.55, 1.51106, 64.131, 0.00862594, -67.5319
1, 240.00000, 117.099, -31.3557, 120.744, -151.476, 119.101, 87.2049, 0, 0, 1.48287, -54.4296, 1.53211, -174.55, 1.51106, 64.131, 0.00862563, -67.5377
1, 300.00000, 117.099, -31.3557, 120.744, -151.476, 119.101, 87.2048, 0, 0, 1.48287, -54.4296, 1.53211, -174.55, 1.51106, 64.1309, 0.00862536, -67.5428
1, 360.00000, 117.099, -31.3557, 120.744, -151.476, 119.101, 87.2048, 0, 0, 1.48287, -54.4296, 1.53211, -174.55, 1.51106, 64.1309, 0.00862512, -67.5475
1, 420.00000, 117.099, -31.3557, 120.744, -151.476, 119.101, 87.2048, 0, 0, 1.48287, -54.4296, 1.53211, -174.55, 1.51106, 64.1309, 0.0086249, -67.5517
1, 480.00000, 117.099, -31.3557, 120.744, -151.476, 119.101, 87.2048, 0, 0, 1.48287, -54.4296, 1.53211, -174.55, 1.51106, 64.1309, 0.0086247, -67.5555
1, 540.00000, 117.099, -31.3557, 120.744, -151.476, 119.101, 87.2048, 0, 0, 1.48287, -54.4296, 1.53211, -174.55, 1.51106, 64.1309, 0.00862452, -67.5589
1, 600.00000, 117.099, -31.3557, 120.744, -151.476, 119.101, 87.2048, 0, 0, 1.48287, -54.4296, 1.53211, -174.55, 1.51106, 64.1309, 0.00862436, -67.5619
1, 660.00000, 117.099, -31.3557, 120.744, -151.476, 119.101, 87.2048, 0, 0, 1.48287, -54.4296, 1.53211, -174.55, 1.51106, 64.1309, 0.00862422, -67.5647
1, 720.00000, 117.099, -31.3557, 120.744, -151.476, 119.101, 87.2048, 0, 0, 1.48287, -54.4296, 1.53211, -174.55, 1.51106, 64.1309, 0.00862409, -67.5672
1, 780.00000, 117.48, -31.3477, 120.748, -151.472, 119.285, 87.3636, 0, 0, 1.48824, -54.4216, 1.53206, -174.546, 1.51366, 64.2896, 0.00818682, -71.566
1, 840.00000, 117.48, -31.3477, 120.748, -151.472, 119.285, 87.3636, 0, 0, 1.48824, -54.4216, 1.53206, -174.546, 1.51366, 64.2896, 0.00818662, -71.5692
1, 900.00000, 117.48, -31.3477, 120.748, -151.472, 119.285, 87.3635, 0, 0, 1.48824, -54.4216, 1.53206, -174.546, 1.51366, 64.2896, 0.00818655, -71.5711
1, 960.00000, 117.48, -31.3477, 120.748, -151.472, 119.285, 87.3635, 0, 0, 1.48824, -54.4216, 1.53206, -174.546, 1.51366, 64.2896, 0.00818648, -71.5729
1, 1020.00000, 117.48, -31.3477, 120.748, -151.472, 119.285, 87.3635, 0, 0, 1.48824, -54.4216, 1.53206, -174.546, 1.51366, 64.2896, 0.00818642, -71.5745
1, 1080.00000, 117.48, -31.3477, 120.748, -151.472, 119.285, 87.3635, 0, 0, 1.48824, -54.4216, 1.53206, -174.546, 1.51366, 64.2896, 0.00818636, -71.5759
1, 1140.00000, 117.48, -31.3477, 120.748, -151.472, 119.285, 87.3635, 0, 0, 1.48824, -54.4216, 1.53206, -174.546, 1.51366, 64.2896, 0.00818631, -71.5772
1, 1200.00000, 117.48, -31.3477, 120.748, -151.472, 119.285, 87.3635, 0, 0, 1.48824, -54.4216, 1.53206, -174.546, 1.51366, 64.2896, 0.00818627, -71.5783
1, 1260.00000, 117.48, -31.3477, 120.748, -151.472, 119.285, 87.3635, 0, 0, 1.48824, -54.4216, 1.53206, -174.546, 1.51366, 64.2896, 0.00818623, -71.5794
1, 1320.00000, 117.48, -31.3477, 120.748, -151.472, 119.285, 87.3635, 0, 0, 1.48824, -54.4216, 1.53206, -174.546, 1.51366, 64.2896, 0.00818619, -71.5803
1, 1380.00000, 117.48, -31.3477, 120.748, -151.472, 119.285, 87.3635, 0, 0, 1.48824, -54.4216, 1.53206, -174.546, 1.51366, 64.2896, 0.00818616, -71.5811
1, 1440.00000, 117.48, -31.3477, 120.748, -151.472, 119.285, 87.3635, 0, 0, 1.48824, -54.4216, 1.53206, -174.546, 1.51366, 64.2896, 0.00818613, -71.5819
1, 1500.00000, 117.48, -31.3477, 120.748, -151.472, 119.285, 87.3635, 0, 0, 1.48824, -54.4216, 1.53206, -174.546, 1.51366, 64.2896, 0.00818611, -71.5826
1, 1560.00000, 117.48, -31.3477, 120.748, -151.472, 119.285, 87.3635, 0, 0, 1.48824, -54.4216, 1.53206, -174.546, 1.51366, 64.2896, 0.00818608, -71.5832
1, 1620.00000, 117.48, -31.3477, 120.748, -151.472, 119.285, 87.3635, 0, 0, 1.48824, -54.4216, 1.53206, -174.546, 1.51366, 64.2896, 0.00818606, -71.5837
1, 1680.00000, 117.48, -31.3477, 120.748, -151.472, 119.285, 87.3635, 0, 0, 1.48824, -54.4216, 1.53206, -174.546, 1.51366, 64.2896, 0.00818604, -71.5842
1, 1740.00000, 117.48, -31.3477, 120.748, -151.472, 119.285, 87.3635, 0, 0, 1.48824, -54.4216, 1.53206, -174.546, 1.51366, 64.2896, 0.00818602, -71.5847
1, 1800.00000, 117.48, -31.3477, 120.748, -151.472, 119.285, 87.3635, 0, 0, 1.48824, -54.4216, 1.53206, -174.546, 1.51366, 64.2896, 0.00818601, -71.5851
1, 1860.00000, 117.48, -31.3477, 120.748, -151.472, 119.285, 87.3635, 0, 0, 1.48824, -54.4216, 1.53206, -174.546, 1.51366, 64.2896, 0.00818599, -71.5854
1, 1920.00000, 117.48, -31.3477, 120.748, -151.472, 119.285, 87.3635, 0, 0, 1.48824, -54.4216, 1.53206, -174.546, 1.51366, 64.2896, 0.00818598, -71.5858
1, 1980.00000, 117.48, -31.3477, 120.748, -151.472, 119.285, 87.3635, 0, 0, 1.48824, -54.4216, 1.53206, -174.546, 1.51366, 64.2896, 0.00818597, -71.5861
1, 2040.00000, 117.48, -31.3477, 120.748, -151.472, 119.285, 87.3635, 0, 0, 1.48824, -54.4216, 1.53206, -174.546, 1.51366, 64.2896, 0.00818596, -71.5863
1, 2100.00000, 117.48, -31.3477, 120.748, -151.472, 119.285, 87.3635, 0, 0, 1.48824, -54.4216, 1.53206, -174.546, 1.51366, 64.2896, 0.00818595, -71.5866
1, 2160.00000, 117.48, -31.3477, 120.748, -151.472, 119.285, 87.3635, 0, 0, 1.48824, -54.4216, 1.53206, -174.546, 1.51366, 64.2896, 0.00818594, -71.5868
1, 2220.00000, 117.852, -31.1548, 121.387, -151.526, 119.236, 87.3701, 0, 0, 1.49347, -54.2287, 1.524, -174.6, 1.51296, 64.2961, 0.0144395, -146.012
1, 2280.00000, 117.852, -31.1548, 121.387, -151.526, 119.236, 87.3701, 0, 0, 1.49347, -54.2287, 1.524, -174.6, 1.51296, 64.2961, 0.0144396, -146.013
1, 2340.00000, 117.852, -31.1548, 121.387, -151.526, 119.236, 87.3701, 0, 0, 1.49347, -54.2287, 1.524, -174.6, 1.51296, 64.2961, 0.0144396, -146.013
1, 2400.00000, 117.852, -31.1548, 121.387, -151.526, 119.236, 87.3701, 0, 0, 1.49347, -54.2287, 1.524, -174.6, 1.51296, 64.2961, 0.0144396, -146.013
1, 2460.00000, 117.852, -31.1548, 121.387, -151.526, 119.236, 87.3701, 0, 0, 1.49347, -54.2287, 1.524, -174.6, 1.51296, 64.2961, 0.0144396, -146.013
1, 2520.00000, 117.852, -31.1548, 121.387, -151.526, 119.236, 87.3701, 0, 0, 1.49347, -54.2287, 1.524, -174.6, 1.51296, 64.2961, 0.0144397, -146.013
1, 2580.00000, 117.852, -31.1548, 121.387, -151.526, 119.236, 87.3701, 0, 0, 1.49347, -54.2287, 1.524, -174.6, 1.51296, 64.2961, 0.0144397, -146.014
1, 2640.00000, 117.852, -31.1548, 121.387, -151.526, 119.236, 87.3701, 0, 0, 1.49347, -54.2287, 1.524, -174.6, 1.51296, 64.2961, 0.0144397, -146.014
1, 2700.00000, 117.852, -31.1548, 121.387, -151.526, 119.236, 87.3701, 0, 0, 1.49347, -54.2287, 1.524, -174.6, 1.51296, 64.2961, 0.0144397, -146.014
1, 2760.00000, 117.852, -31.1548, 121.387, -151.526, 119.236, 87.3701, 0, 0, 1.49347, -54.2287, 1.524, -174.6, 1.51296, 64.2961, 0.0144397, -146.014
1, 2820.00000, 117.852, -31.1548, 121.387, -151.526, 119.236, 87.3701, 0, 0, 1.49347, -54.2287, 1.524, -174.6, 1.51296, 64.2961, 0.0144397, -146.014
1, 2880.00000, 117.852, -31.1548, 121.387, -151.526, 119.236, 87.3701, 0, 0, 1.49347, -54.2287, 1.524, -174.6, 1.51296, 64.2961, 0.0144397, -146.014
1, 2940.00000, 117.852, -31.1548, 121.387, -151.526, 119.236, 87.37, 0, 0, 1.49347, -54.2287, 1.524, -174.6, 1.51296, 64.2961, 0.0144397, -146.014
1, 3000.00000, 117.852, -31.1548, 121.387, -151.526, 119.236, 87.37, 0, 0, 1.49347, -54.2287, 1.524, -174.6, 1.51296, 64.2961, 0.0144397, -146.014
1, 3060.00000, 117.852, -31.1548, 121.387, -151.526, 119.236, 87.37, 0, 0, 1.49347, -54.2287, 1.524, -174.6, 1.51296, 64.2961, 0.0144397, -146.014
1, 3120.00000, 117.852, -31.1548, 121.387, -151.526, 119.236, 87.37, 0, 0, 1.49347, -54.2287, 1.524, -174.6, 1.51296, 64.2961, 0.0144397, -146.014
1, 3180.00000, 117.852, -31.1548, 121.387, -151.526, 119.236, 87.37, 0, 0, 1.49347, -54.2287, 1.524, -174.6, 1.51296, 64.2961, 0.0144397, -146.014
1, 3240.00000, 117.852, -31.1548, 121.387, -151.526, 119.236, 87.37, 0, 0, 1.49347, -54.2287, 1.524, -174.6, 1.51296, 64.2961, 0.0144398, -146.014
1, 3300.00000, 117.852, -31.1548, 121.387, -151.526, 119.236, 87.37, 0, 0, 1.49347, -54.2287, 1.524, -174.6, 1.51296, 64.2961, 0.0144398, -146.014
1, 3360.00000, 117.852, -31.1548, 121.387, -151.526, 119.236, 87.37, 0, 0, 1.49347, -54.2287, 1.524, -174.6, 1.51296, 64.2961, 0.0144398, -146.014
1, 3420.00000, 117.852, -31.1548, 121.387, -151.526, 119.236, 87.37, 0, 0, 1.49347, -54.2287, 1.524, -174.6, 1.51296, 64.2961, 0.0144398, -146.014
1, 3480.00000, 117.852, -31.1548, 121.387, -151.526, 119.236, 87.37, 0, 0, 1.49347, -54.2287, 1.524, -174.6, 1.51296, 64.2961, 0.0144398, -146.014
1, 3540.00000, 117.852, -31.1548, 121.387, -151.526, 119.236, 87.37, 0, 0, 1.49347, -54.2287, 1.524, -174.6, 1.51296, 64.2961, 0.0144398, -146.014
2, 0.00000, 117.852, -31.1548, 121.387, -151.526, 119.236, 87.37, 0, 0, 1.49347, -54.2287, 1.524, -174.6, 1.51296, 64.2961, 0.0144398, -146.014
2, 60.00000, 117.852, -31.1548, 121.387, -151.526, 119.236, 87.37, 0, 0, 1.49347, -54.2287, 1.524, -174.6, 1.51296, 64.2961, 0.0144398, -146.014
2, 120.00000, 117.852, -31.1548, 121.387, -151.526, 119.236, 87.37, 0, 0, 1.49347, -54.2287, 1.524, -174.6, 1.51296, 64.2961, 0.0144398, -146.014
2, 180.00000, 117.852, -31.1548, 121.387, -151.526, 119.236, 87.37, 0, 0, 1.49347, -54.2287, 1.524, -174.6, 1.51296, 64.2961, 0.0144398, -146.014
2, 240.00000, 117.852, -31.1548, 121.387, -151.526, 119.236, 87.37, 0, 0, 1.49347, -54.2287, 1.524, -174.6, 1.51296, 64.2961, 0.0144398, -146.014
2, 300.00000, 117.852, -31.1548, 121.387, -151.526, 119.236, 87.37, 0, 0, 1.49347, -54.2287, 1.524, -174.6, 1.51296, 64.2961, 0.0144398, -146.014
2, 360.00000, 117.852, -31.1548, 121.387, -151.526, 119.236, 87.37, 0, 0, 1.49347, -54.2287, 1.524, -174.6, 1.51296, 64.2961, 0.0144398, -146.014
2, 420.00000, 117.852, -31.1548, 121.387, -151.526, 119.236, 87.37, 0, 0, 1.49347, -54.2287, 1.524, -174.6, 1.51296, 64.2961, 0.0144398, -146.014
2, 480.00000, 117.852, -31.1548, 121.387, -151.526, 119.236, 87.37, 0, 0, 1.49347, -54.2287, 1.524, -174.6, 1.51296, 64.2961, 0.0144398, -146.014
2, 540.00000, 117.852, -31.1548, 121.387, -151.526, 119.236, 87.37, 0, 0, 1.49347, -54.2287, 1.524, -174.6, 1.51296, 64.2961, 0.0144398, -146.014
2, 600.00000, 117.852, -31.1548, 121.387, -151.526, 119.236, 87.37, 0, 0, 1.49347, -54.2287, 1.524, -174.6, 1.51296, 64.2961, 0.0144398, -146.014
2, 660.00000, 117.852, -31.1548, 121.387, -151.526, 119.236, 87.37, 0, 0, 1.49347, -54.2287, 1.524, -174.6, 1.51296, 64.2961, 0.0144398, -146.014
