hour,t(sec),V1,VAngle1,V2,VAngle2,V3,VAngle3,V4,VAngle4,I1,IAngle1,I2,IAngle2,I3,IAngle3,I4,IAngle4
0, 60.00000, 121.124, -32.1101, 120.914, -151.242, 123.362, 88.4243, 0, 0, 4.42043, -55.184, 4.42813, -174.316, 4.34042, 65.3506, 0.142496, 59.5061
0, 120.00000, 121.129, -32.1192, 120.914, -151.243, 123.386, 88.4215, 0, 0, 4.42027, -55.1931, 4.42814, -174.316, 4.33958, 65.3478, 0.14388, 59.4417
0, 180.00000, 121.132, -32.1274, 120.914, -151.243, 123.407, 88.4191, 0, 0, 4.42014, -55.2013, 4.42815, -174.317, 4.33881, 65.3454, 0.145126, 59.3847
0, 240.00000, 121.136, -32.1348, 120.914, -151.243, 123.426, 88.4169, 0, 0, 4.42001, -55.2087, 4.42816, -174.317, 4.33812, 65.3431, 0.146254, 59.3338
0, 300.00000, 121.139, -32.1414, 120.913, -151.243, 123.444, 88.4149, 0, 0, 4.4199, -55.2154, 4.42817, -174.317, 4.3375, 65.3411, 0.147272, 59.2885
0, 360.00000, 121.142, -32.1474, 120.913, -151.243, 123.46, 88.4131, 0, 0, 4.4198, -55.2213, 4.42818, -174.317, 4.33694, 65.3394, 0.148188, 59.2485
0, 420.00000, 121.144, -32.1528, 120.913, -151.244, 123.474, 88.4115, 0, 0, 4.41971, -55.2267, 4.42819, -174.317, 4.33643, 65.3377, 0.149014, 59.2132
0, 480.00000, 121.89, -32.0487, 121.634, -151.133, 124.271, 88.5399, 0, 0, 3.82165, -55.1226, 3.82971, -174.207, 3.7485, 65.4661, 0.130934, 58.5333
0, 540.00000, 121.892, -32.0532, 121.634, -151.133, 124.282, 88.5385, 0, 0, 3.82159, -55.127, 3.82972, -174.207, 3.74815, 65.4647, 0.131517, 58.5088
0, 600.00000, 121.894, -32.0572, 121.633, -151.133, 124.293, 88.5373, 0, 0, 3.82153, -55.131, 3.82972, -174.207, 3.74783, 65.4635, 0.13204, 58.4871
0, 660.00000, 121.895, -32.0608, 121.633, -151.134, 124.302, 88.5362, 0, 0, 3.82148, -55.1346, 3.82972, -174.207, 3.74755, 65.4624, 0.13251, 58.4678
0, 720.00000, 121.897, -32.064, 121.633, -151.134, 124.31, 88.5353, 0, 0, 3.82144, -55.1379, 3.82973, -174.207, 3.74729, 65.4614, 0.132934, 58.4506
0, 780.00000, 121.898, -32.0669, 121.633, -151.134, 124.318, 88.5344, 0, 0, 3.8214, -55.1408, 3.82973, -174.208, 3.74706, 65.4606, 0.133315, 58.4353
0, 840.00000, 121.899, -32.0695, 121.633, -151.134, 124.325, 88.5336, 0, 0, 3.82136, -55.1434, 3.82974, -174.208, 3.74685, 65.4598, 0.133659, 58.4216
0, 900.00000, 121.9, -32.0719, 121.633, -151.134, 124.331, 88.5329, 0, 0, 3.82133, -55.1458, 3.82974, -174.208, 3.74666, 65.459, 0.133968, 58.4094
0, 960.00000, 121.901, -32.074, 121.633, -151.134, 124.336, 88.5322, 0, 0, 3.8213, -55.1479, 3.82974, -174.208, 3.7465, 65.4584, 0.134246, 58.3985
0, 1020.00000, 121.902, -32.0759, 121.633, -151.134, 124.341, 88.5317, 0, 0, 3.82127, -55.1498, 3.82974, -174.208, 3.74635, 65.4578, 0.134496, 58.3888
0, 1080.00000, 121.903, -32.0776, 121.633, -151.134, 124.346, 88.5311, 0, 0, 3.82124, -55.1515, 3.82974, -174.208, 3.74621, 65.4573, 0.134721, 58.3801
0, 1140.00000, 121.904, -32.0792, 121.633, -151.134, 124.35, 88.5307, 0, 0, 3.82122, -55.1531, 3.82975, -174.208, 3.74609, 65.4568, 0.134924, 58.3723
0, 1200.00000, 121.904, -32.0806, 121.633, -151.134, 124.353, 88.5302, 0, 0, 3.8212, -55.1545, 3.82975, -174.208, 3.74598, 65.4564, 0.135107, 58.3653
0, 1260.00000, 121.905, -32.0818, 121.632, -151.134, 124.356, 88.5299, 0, 0, 3.82119, -55.1557, 3.82975, -174.208, 3.74588, 65.456, 0.135271, 58.3591
0, 1320.00000, 121.905, -32.083, 121.632, -151.134, 124.359, 88.5295, 0, 0, 3.82117, -55.1569, 3.82975, -174.208, 3.74579, 65.4556, 0.135419, 58.3535
0, 1380.00000, 121.906, -32.084, 121.632, -151.134, 124.362, 88.5292, 0, 0, 3.82116, -55.1579, 3.82975, -174.208, 3.74571, 65.4553, 0.135552, 58.3484
0, 1440.00000, 121.906, -32.0849, 121.632, -151.134, 124.364, 88.5289, 0, 0, 3.82114, -55.1588, 3.82975, -174.208, 3.74564, 65.455, 0.135671, 58.3439
0, 1500.00000, 121.907, -32.0857, 121.632, -151.134, 124.366, 88.5287, 0, 0, 3.82113, -55.1596, 3.82975, -174.208, 3.74557, 65.4548, 0.135779, 58.3399
0, 1560.00000, 121.907, -32.0865, 121.632, -151.134, 124.368, 88.5284, 0, 0, 3.82112, -55.1604, 3.82976, -174.208, 3.74551, 65.4546, 0.135876, 58.3362
0, 1620.00000, 121.907, -32.0871, 121.632, -151.134, 124.37, 88.5282, 0, 0, 3.82111, -55.161, 3.82976, -174.208, 3.74546, 65.4543, 0.135964, 58.333
0, 1680.00000, 121.908, -32.0877, 121.632, -151.134, 124.372, 88.5281, 0, 0, 3.8211, -55.1616, 3.82976, -174.208, 3.74541, 65.4542, 0.136042, 58.33
0, 1740.00000, 121.908, -32.0883, 121.632, -151.134, 124.373, 88.5279, 0, 0, 3.8211, -55.1622, 3.82976, -174.208, 3.74537, 65.454, 0.136113, 58.3274
0, 1800.00000, 121.908, -32.0888, 121.632, -151.134, 124.374, 88.5277, 0, 0, 3.82109, -55.1627, 3.82976, -174.208, 3.74533, 65.4538, 0.136177, 58.325
0, 1860.00000, 121.908, -32.0892, 121.632, -151.134, 124.375, 88.5276, 0, 0, 3.82108, -55.1631, 3.82976, -174.208, 3.7453, 65.4537, 0.136234, 58.3229
0, 1920.00000, 121.909, -32.0896, 121.632, -151.134, 124.376, 88.5275, 0, 0, 3.82108, -55.1635, 3.82976, -174.208, 3.74527, 65.4536, 0.136286, 58.321
0, 1980.00000, 121.909, -32.0899, 121.632, -151.134, 124.377, 88.5274, 0, 0, 3.82107, -55.1639, 3.82976, -174.208, 3.74524, 65.4535, 0.136332, 58.3193
0, 2040.00000, 121.909, -32.0903, 121.632, -151.134, 124.378, 88.5273, 0, 0, 3.82107, -55.1642, 3.82976, -174.208, 3.74521, 65.4534, 0.136374, 58.3177
0, 2100.00000, 121.909, -32.0905, 121.632, -151.134, 124.379, 88.5272, 0, 0, 3.82107, -55.1645, 3.82976, -174.208, 3.74519, 65.4533, 0.136411, 58.3164
0, 2160.00000, 121.909, -32.0908, 121.632, -151.134, 124.38, 88.5271, 0, 0, 3.82106, -55.1647, 3.82976, -174.208, 3.74517, 65.4532, 0.136445, 58.3151
0, 2220.00000, 121.909, -32.091, 121.632, -151.134, 124.38, 88.527, 0, 0, 3.82106, -55.165, 3.82976, -174.208, 3.74515, 65.4531, 0.136476, 58.314
0, 2280.00000, 121.909, -32.0912, 121.632, -151.134, 124.381, 88.527, 0, 0, 3.82106, -55.1652, 3.82976, -174.208, 3.74513, 65.4531, 0.136503, 58.313
0, 2340.00000, 121.909, -32.0914, 121.632, -151.134, 124.381, 88.5269, 0, 0, 3.82105, -55.1654, 3.82976, -174.208, 3.74512, 65.453, 0.136528, 58.3121
0, 2400.00000, 121.909, -32.0916, 121.632, -151.134, 124.382, 88.5269, 0, 0, 3.82105, -55.1655, 3.82976, -174.208, 3.74511, 65.453, 0.13655, 58.3112
0, 2460.00000, 121.909, -32.0918, 121.632, -151.134, 124.382, 88.5268, 0, 0, 3.82105, -55.1657, 3.82976, -174.208, 3.74509, 65.4529, 0.13657, 58.3105
0, 2520.00000, 121.91, -32.0919, 121.632, -151.134, 124.382, 88.5268, 0, 0, 3.82105, -55.1658, 3.82976, -174.208, 3.74508, 65.4529, 0.136588, 58.3099
0, 2580.00000, 121.91, -32.092, 121.632, -151.134, 124.383, 88.5267, 0, 0, 3.82104, -55.1659, 3.82976, -174.208, 3.74507, 65.4528, 0.136604, 58.3093
0, 2640.00000, 121.91, -32.0921, 121.632, -151.134, 124.383, 88.5267, 0, 0, 3.82104, -55.166, 3.82976, -174.208, 3.74506, 65.4528, 0.136619, 58.3087
0, 2700.00000, 121.91, -32.0922, 121.632, -151.134, 124.383, 88.5267, 0, 0, 3.82104, -55.1661, 3.82976, -174.208, 3.74506, 65.4528, 0.136632, 58.3082
0, 2760.00000, 121.91, -32.0923, 121.632, -151.134, 124.383, 88.5266, 0, 0, 3.82104, -55.1662, 3.82976, -174.208, 3.74505, 65.4527, 0.136643, 58.3078
0, 2820.00000, 121.91, -32.0924, 121.632, -151.134, 124.384, 88.5266, 0, 0, 3.82104, -55.1663, 3.82976, -174.208, 3.74504, 65.4527, 0.136654, 58.3074
0, 2880.00000, 121.91, -32.0925, 121.632, -151.134, 124.384, 88.5266, 0, 0, 3.82104, -55.1664, 3.82976, -174.208, 3.74504, 65.4527, 0.136664, 58.3071
0, 2940.00000, 121.91, -32.0925, 121.632, -151.134, 124.384, 88.5266, 0, 0, 3.82104, -55.1665, 3.82976, -174.208, 3.74503, 65.4527, 0.136672, 58.3068
0, 3000.00000, 121.91, -32.0926, 121.632, -151.134, 124.384, 88.5266, 0, 0, 3.82104, -55.1665, 3.82976, -174.208, 3.74503, 65.4527, 0.13668, 58.3065
0, 3060.00000, 121.91, -32.0927, 121.632, -151.134, 124.384, 88.5266, 0, 0, 3.82104, -55.1666, 3.82976, -174.208, 3.74502, 65.4526, 0.136687, 58.3062
0, 3120.00000, 121.91, -32.0927, 121.632, -151.134, 124.384, 88.5265, 0, 0, 3.82104, -55.1666, 3.82976, -174.208, 3.74502, 65.4526, 0.136693, 58.306
0, 3180.00000, 121.91, -32.0927, 121.632, -151.134, 124.385, 88.5265, 0, 0, 3.82103, -55.1667, 3.82976, -174.208, 3.74502, 65.4526, 0.136699, 58.3058
0, 3240.00000, 121.91, -32.0928, 121.632, -151.134, 124.385, 88.5265, 0, 0, 3.82103, -55.1667, 3.82976, -174.208, 3.74501, 65.4526, 0.136704, 58.3056
0, 3300.00000, 121.91, -32.0928, 121.632, -151.134, 124.385, 88.5265, 0, 0, 3.82103, -55.1667, 3.82976, -174.208, 3.74501, 65.4526, 0.136709, 58.3054
0, 3360.00000, 121.91, -32.0928, 121.632, -151.134, 124.385, 88.5265, 0, 0, 3.82103, -55.1668, 3.82976, -174.208, 3.74501, 65.4526, 0.136713, 58.3053
0, 3420.00000, 121.91, -32.0929, 121.632, -151.134, 124.385, 88.5265, 0, 0, 3.82103, -55.1668, 3.82976, -174.208, 3.74501, 65.4526, 0.136716, 58.3051
0, 3480.00000, 121.91, -32.0929, 121.632, -151.134, 124.385, 88.5265, 0, 0, 3.82103, -55.1668, 3.82976, -174.208, 3.745, 65.4526, 0.13672, 58.305
0, 3540.00000, 121.91, -32.0929, 121.632, -151.134, 124.385, 88.5265, 0, 0, 3.82103, -55.1668, 3.82976, -174.208, 3.745, 65.4526, 0.136723, 58.3049
1, 0.00000, 121.91, -32.0929, 121.632, -151.134, 124.385, 88.5265, 0, 0, 3.82103, -55.1669, 3.82976, -174.208, 3.745, 65.4525, 0.136725, 58.3048
1, 60.00000, 121.91, -32.093, 121.632, -151.134, 124.385, 88.5265, 0, 0, 3.82103, -55.1669, 3.82976, -174.208, 3.745, 65.4525, 0.136728, 58.3047
1, 120.00000, 121.91, -32.093, 121.632, -151.134, 124.385, 88.5265, 0, 0, 3.82103, -55.1669, 3.82976, -174.208, 3.745, 65.4525, 0.13673, 58.3046
1, 180.00000, 121.91, -32.093, 121.632, -151.134, 124.385, 88.5264, 0, 0, 3.82103, -55.1669, 3.82976, -174.208, 3.745, 65.4525, 0.136732, 58.3046
1, 240.00000, 121.91, -32.093, 121.632, -151.134, 124.385, 88.5264, 0, 0, 3.82103, -55.1669, 3.82976, -174.208, 3.745, 65.4525, 0.136734, 58.3045
1, 300.00000, 121.91, -32.093, 121.632, -151.134, 124.385, 88.5264, 0, 0, 3.82103, -55.1669, 3.82976, -174.208, 3.74499, 65.4525, 0.136735, 58.3044
1, 360.00000, 121.91, -32.093, 121.632, -151.134, 124.385, 88.5264, 0, 0, 3.82103, -55.167, 3.82976, -174.208, 3.74499, 65.4525, 0.136737, 58.3044
1, 420.00000, 121.91, -32.093, 121.632, -151.134, 124.385, 88.5264, 0, 0, 3.82103, -55.167, 3.82976, -174.208, 3.74499, 65.4525, 0.136738, 58.3043
1, 480.00000, 121.91, -32.0931, 121.632, -151.134, 124.385, 88.5264, 0, 0, 3.82103, -55.167, 3.82976, -174.208, 3.74499, 65.4525, 0.136739, 58.3043
1, 540.00000, 121.91, -32.0931, 121.632, -151.134, 124.385, 88.5264, 0, 0, 3.82103, -55.167, 3.82976, -174.208, 3.74499, 65.4525, 0.13674, 58.3043
1, 600.00000, 121.91, -32.0931, 121.632, -151.134, 124.385, 88.5264, 0, 0, 3.82103, -55.167, 3.82976, -174.208, 3.74499, 65.4525, 0.136741, 58.3042
1, 660.00000, 121.91, -32.0931, 121.632, -151.134, 124.385, 88.5264, 0, 0, 3.82103, -55.167, 3.82976, -174.208, 3.74499, 65.4525, 0.136742, 58.3042
1, 720.00000, 121.91, -32.0931, 121.632, -151.134, 124.385, 88.5264, 0, 0, 3.82103, -55.167, 3.82976, -174.208, 3.74499, 65.4525, 0.136743, 58.3042
1, 780.00000, 121.91, -32.0931, 121.632, -151.134, 124.385, 88.5264, 0, 0, 3.82103, -55.167, 3.82976, -174.208, 3.74499, 65.4525, 0.136744, 58.3041
1, 840.00000, 121.91, -32.0931, 121.632, -151.134, 124.385, 88.5264, 0, 0, 3.82103, -55.167, 3.82976, -174.208, 3.74499, 65.4525, 0.136744, 58.3041
1, 900.00000, 121.91, -32.0931, 121.632, -151.134, 124.385, 88.5264, 0, 0, 3.82103, -55.167, 3.82976, -174.208, 3.74499, 65.4525, 0.136745, 58.3041
1, 960.00000, 121.91, -32.0931, 121.632, -151.134, 124.385, 88.5264, 0, 0, 3.82103, -55.167, 3.82976, -174.208, 3.74499, 65.4525, 0.136745, 58.3041
1, 1020.00000, 121.91, -32.0931, 121.632, -151.134, 124.385, 88.5264, 0, 0, 3.82103, -55.167, 3.82976, -174.208, 3.74499, 65.4525, 0.136746, 58.3041
1, 1080.00000, 121.91, -32.0931, 121.632, -151.134, 124.385, 88.5264, 0, 0, 3.82103, -55.167, 3.82976, -174.208, 3.74499, 65.4525, 0.136746, 58.3041
1, 1140.00000, 121.91, -32.0931, 121.632, -151.134, 124.385, 88.5264, 0, 0, 3.82103, -55.167, 3.82976, -174.208, 3.74499, 65.4525, 0.136746, 58.304
1, 1200.00000, 121.91, -32.0931, 121.632, -151.134, 124.385, 88.5264, 0, 0, 3.82103, -55.167, 3.82976, -174.208, 3.74499, 65.4525, 0.136747, 58.304
1, 1260.00000, 121.91, -32.0931, 121.632, -151.134, 124.386, 88.5264, 0, 0, 3.82103, -55.167, 3.82976, -174.208, 3.74499, 65.4525, 0.136747, 58.304
1, 1320.00000, 121.91, -32.0931, 121.632, -151.134, 124.386, 88.5264, 0, 0, 3.82103, -55.167, 3.82976, -174.208, 3.74499, 65.4525, 0.136747, 58.304
1, 1380.00000, 121.91, -32.0931, 121.632, -151.134, 124.386, 88.5264, 0, 0, 3.82103, -55.167, 3.82976, -174.208, 3.74499, 65.4525, 0.136748, 58.304
1, 1440.00000, 121.91, -32.0931, 121.632, -151.134, 124.386, 88.5264, 0, 0, 3.82103, -55.167, 3.82976, -174.208, 3.74499, 65.4525, 0.136748, 58.304
1, 1500.00000, 121.91, -32.0931, 121.632, -151.134, 124.386, 88.5264, 0, 0, 3.82103, -55.167, 3.82976, -174.208, 3.74499, 65.4525, 0.136748, 58.304
1, 1560.00000, 121.91, -32.0931, 121.632, -151.134, 124.386, 88.5264, 0, 0, 3.82103, -55.167, 3.82976, -174.208, 3.74499, 65.4525, 0.136748, 58.304
1, 1620.00000, 121.91, -32.0931, 121.632, -151.134, 124.386, 88.5264, 0, 0, 3.82103, -55.167, 3.82976, -174.208, 3.74499, 65.4525, 0.136748, 58.304
1, 1680.00000, 121.91, -32.0931, 121.632, -151.134, 124.386, 88.5264, 0, 0, 3.82103, -55.167, 3.82976, -174.208, 3.74499, 65.4525, 0.136748, 58.304
1, 1740.00000, 121.91, -32.0931, 121.632, -151.134, 124.386, 88.5264, 0, 0, 3.82103, -55.167, 3.82976, -174.208, 3.74499, 65.4525, 0.136749, 58.304
1, 1800.00000, 121.91, -32.0931, 121.632, -151.134, 124.386, 88.5264, 0, 0, 3.82103, -55.167, 3.82976, -174.208, 3.74499, 65.4525, 0.136749, 58.304
1, 1860.00000, 121.91, -32.0931, 121.632, -151.134, 124.386, 88.5264, 0, 0, 3.82103, -55.167, 3.82976, -174.208, 3.74499, 65.4525, 0.136749, 58.304
1, 1920.00000, 121.91, -32.0931, 121.632, -151.134, 124.386, 88.5264, 0, 0, 3.82103, -55.167, 3.82976, -174.208, 3.74499, 65.4525, 0.136749, 58.3039
1, 1980.00000, 121.91, -32.0931, 121.632, -151.134, 124.386, 88.5264, 0, 0, 3.82103, -55.167, 3.82976, -174.208, 3.74499, 65.4525, 0.136749, 58.3039
1, 2040.00000, 121.91, -32.0931, 121.632, -151.134, 124.386, 88.5264, 0, 0, 3.82103, -55.167, 3.82976, -174.208, 3.74499, 65.4525, 0.136749, 58.3039
1, 2100.00000, 121.91, -32.0931, 121.632, -151.134, 124.386, 88.5264, 0, 0, 3.82103, -55.167, 3.82976, -174.208, 3.74499, 65.4525, 0.136749, 58.3039
1, 2160.00000, 121.91, -32.0931, 121.632, -151.134, 124.386, 88.5264, 0, 0, 3.82103, -55.167, 3.82976, -174.208, 3.74499, 65.4525, 0.136749, 58.3039
1, 2220.00000, 121.91, -32.0931, 121.632, -151.134, 124.386, 88.5264, 0, 0, 3.82103, -55.167, 3.82976, -174.208, 3.74499, 65.4525, 0.136749, 58.3039
1, 2280.00000, 121.91, -32.0931, 121.632, -151.134, 124.386, 88.5264, 0, 0, 3.82103, -55.167, 3.82976, -174.208, 3.74499, 65.4525, 0.136749, 58.3039
1, 2340.00000, 121.91, -32.0931, 121.632, -151.134, 124.386, 88.5264, 0, 0, 3.82103, -55.167, 3.82976, -174.208, 3.74499, 65.4525, 0.136749, 58.3039
1, 2400.00000, 121.91, -32.0931, 121.632, -151.134, 124.386, 88.5264, 0, 0, 3.82103, -55.167, 3.82976, -174.208, 3.74499, 65.4525, 0.136749, 58.3039
1, 2460.00000, 121.91, -32.0931, 121.632, -151.134, 124.386, 88.5264, 0, 0, 3.82103, -55.167, 3.82976, -174.208, 3.74499, 65.4525, 0.136749, 58.3039
1, 2520.00000, 121.91, -32.0931, 121.632, -151.134, 124.386, 88.5264, 0, 0, 3.82103, -55.167, 3.82976, -174.208, 3.74499, 65.4525, 0.136749, 58.3039
1, 2580.00000, 121.91, -32.0931, 121.632, -151.134, 124.386, 88.5264, 0, 0, 3.82103, -55.167, 3.82976, -174.208, 3.74499, 65.4525, 0.136749, 58.3039
1, 2640.00000, 121.91, -32.0931, 121.632, -151.134, 124.386, 88.5264, 0, 0, 3.82103, -55.167, 3.82976, -174.208, 3.74499, 65.4525, 0.136749, 58.3039
1, 2700.00000, 121.91, -32.0931, 121.632, -151.134, 124.386, 88.5264, 0, 0, 3.82103, -55.167, 3.82976, -174.208, 3.74499, 65.4525, 0.136749, 58.3039
1, 2760.00000, 121.91, -32.0931, 121.632, -151.134, 124.386, 88.5264, 0, 0, 3.82103, -55.167, 3.82976, -174.208, 3.74499, 65.4525, 0.13675, 58.3039
1, 2820.00000, 121.91, -32.0931, 121.632, -151.134, 124.386, 88.5264, 0, 0, 3.82103, -55.167, 3.82976, -174.208, 3.74499, 65.4525, 0.13675, 58.3039
1, 2880.00000, 121.91, -32.0931, 121.632, -151.134, 124.386, 88.5264, 0, 0, 3.82103, -55.167, 3.82976, -174.208, 3.74499, 65.4525, 0.13675, 58.3039
1, 2940.00000, 121.91, -32.0931, 121.632, -151.134, 124.386, 88.5264, 0, 0, 3.82103, -55.167, 3.82976, -174.208, 3.74499, 65.4525, 0.13675, 58.3039
1, 3000.00000, 121.91, -32.0931, 121.632, -151.134, 124.386, 88.5264, 0, 0, 3.82103, -55.167, 3.82976, -174.208, 3.74499, 65.4525, 0.13675, 58.3039
1, 3060.00000, 121.91, -32.0931, 121.632, -151.134, 124.386, 88.5264, 0, 0, 3.82103, -55.167, 3.82976, -174.208, 3.74499, 65.4525, 0.13675, 58.3039
1, 3120.00000, 121.91, -32.0931, 121.632, -151.134, 124.386, 88.5264, 0, 0, 3.82103, -55.167, 3.82976, -174.208, 3.74499, 65.4525, 0.13675, 58.3039
1, 3180.00000, 121.91, -32.0931, 121.632, -151.134, 124.386, 88.5264, 0, 0, 3.82103, -55.167, 3.82976, -174.208, 3.74499, 65.4525, 0.13675, 58.3039
1, 3240.00000, 121.91, -32.0931, 121.632, -151.134, 124.386, 88.5264, 0, 0, 3.82103, -55.167, 3.82976, -174.208, 3.74499, 65.4525, 0.13675, 58.3039
1, 3300.00000, 121.91, -32.0931, 121.632, -151.134, 124.386, 88.5264, 0, 0, 3.82103, -55.1671, 3.82976, -174.208, 3.74499, 65.4525, 0.13675, 58.3039
1, 3360.00000, 121.91, -32.0931, 121.632, -151.134, 124.386, 88.5264, 0, 0, 3.82103, -55.1671, 3.82976, -174.208, 3.74499, 65.4525, 0.13675, 58.3039
1, 3420.00000, 121.91, -32.0931, 121.632, -151.134, 124.386, 88.5264, 0, 0, 3.82103, -55.1671, 3.82976, -174.208, 3.74499, 65.4525, 0.13675, 58.3039
1, 3480.00000, 121.91, -32.0931, 121.632, -151.134, 124.386, 88.5264, 0, 0, 3.82103, -55.1671, 3.82976, -174.208, 3.74499, 65.4525, 0.13675, 58.3039
1, 3540.00000, 121.91, -32.0931, 121.632, -151.134, 124.386, 88.5264, 0, 0, 3.82103, -55.1671, 3.82976, -174.208, 3.74499, 65.4525, 0.13675, 58.3039
2, 0.00000, 121.91, -32.0931, 121.632, -151.134, 124.386, 88.5264, 0, 0, 3.82103, -55.1671, 3.82976, -174.208, 3.74499, 65.4525, 0.13675, 58.3039
2, 60.00000, 121.91, -32.0931, 121.632, -151.134, 124.386, 88.5264, 0, 0, 3.82103, -55.1671, 3.82976, -174.208, 3.74499, 65.4525, 0.13675, 58.3039
2, 120.00000, 121.91, -32.0931, 121.632, -151.134, 124.386, 88.5264, 0, 0, 3.82103, -55.1671, 3.82976, -174.208, 3.74499, 65.4525, 0.13675, 58.3039
2, 180.00000, 121.91, -32.0931, 121.632, -151.134, 124.386, 88.5264, 0, 0, 3.82103, -55.1671, 3.82976, -174.208, 3.74499, 65.4525, 0.13675, 58.3039
2, 240.00000, 121.91, -32.0931, 121.632, -151.134, 124.386, 88.5264, 0, 0, 3.82103, -55.1671, 3.82976, -174.208, 3.74499, 65.4525, 0.13675, 58.3039
2, 300.00000, 121.91, -32.0931, 121.632, -151.134, 124.386, 88.5264, 0, 0, 3.82103, -55.1671, 3.82976, -174.208, 3.74499, 65.4525, 0.13675, 58.3039
2, 360.00000, 121.91, -32.0931, 121.632, -151.134, 124.386, 88.5264, 0, 0, 3.82103, -55.1671, 3.82976, -174.208, 3.74499, 65.4525, 0.13675, 58.3039
2, 420.00000, 121.91, -32.0931, 121.632, -151.134, 124.386, 88.5264, 0, 0, 3.82103, -55.1671, 3.82976, -174.208, 3.74499, 65.4525, 0.13675, 58.3039
2, 480.00000, 121.91, -32.0931, 121.632, -151.134, 124.386, 88.5264, 0, 0, 3.82103, -55.1671, 3.82976, -174.208, 3.74499, 65.4525, 0.13675, 58.3039
2, 540.00000, 121.91, -32.0931, 121.632, -151.134, 124.386, 88.5264, 0, 0, 3.82103, -55.1671, 3.82976, -174.208, 3.74499, 65.4525, 0.13675, 58.3039
2, 600.00000, 121.91, -32.0931, 121.632, -151.134, 124.386, 88.5264, 0, 0, 3.82103, -55.1671, 3.82976, -174.208, 3.74499, 65.4525, 0.13675, 58.3039
2, 660.00000, 121.91, -32.0931, 121.632, -151.134, 124.386, 88.5264, 0, 0, 3.82103, -55.1671, 3.82976, -174.208, 3.74499, 65.4525, 0.13675, 58.3039
2, 720.00000, 121.91, -32.0931, 121.632, -151.134, 124.386, 88.5264, 0, 0, 3.82103, -55.1671, 3.82976, -174.208, 3.74499, 65.4525, 0.13675, 58.3039
2, 780.00000, 121.91, -32.0931, 121.632, -151.134, 124.386, 88.5264, 0, 0, 3.82103, -55.1671, 3.82976, -174.208, 3.74499, 65.4525, 0.13675, 58.3039
