hour,t(sec),V1,VAngle1,V2,VAngle2,V3,VAngle3,V4,VAngle4,I1,IAngle1,I2,IAngle2,I3,IAngle3,I4,IAngle4
0, 60.00000, 116.662, -33.0336, 116.965, -150.722, 122.204, 88.0075, 0, 0, 2.15044, -56.1077, 2.15659, -173.795, 2.20452, 64.9342, 0.0238353, 62.9575
0, 120.00000, 116.66, -33.052, 116.964, -150.723, 122.244, 87.9978, 0, 0, 2.15039, -56.1261, 2.15658, -173.796, 2.20378, 64.9245, 0.0251176, 62.9964
0, 180.00000, 116.658, -33.0686, 116.964, -150.723, 122.28, 87.989, 0, 0, 2.15035, -56.1426, 2.15657, -173.797, 2.20312, 64.9157, 0.0262688, 63.0295
0, 240.00000, 116.656, -33.0835, 116.964, -150.724, 122.313, 87.9811, 0, 0, 2.15031, -56.1575, 2.15657, -173.797, 2.20252, 64.9078, 0.0273043, 63.0562
0, 300.00000, 116.655, -33.0969, 116.963, -150.724, 122.342, 87.974, 0, 0, 2.15027, -56.1709, 2.15656, -173.798, 2.20198, 64.9006, 0.0282358, 63.0778
0, 360.00000, 116.653, -33.109, 116.963, -150.725, 122.369, 87.9676, 0, 0, 2.15024, -56.183, 2.15656, -173.798, 2.2015, 64.8941, 0.0290748, 63.0958
0, 420.00000, 116.652, -33.1199, 116.963, -150.725, 122.393, 87.9618, 0, 0, 2.15021, -56.1939, 2.15655, -173.798, 2.20107, 64.8883, 0.0298301, 63.1107
0, 480.00000, 117.641, -33.0454, 117.922, -150.647, 123.529, 88.068, 0, 0, 1.88833, -56.1192, 1.89332, -173.72, 1.89732, 64.9945, 0.0616707, 63.7529
0, 540.00000, 117.64, -33.0543, 117.922, -150.647, 123.548, 88.0633, 0, 0, 1.88832, -56.1282, 1.89332, -173.721, 1.89702, 64.9898, 0.062203, 63.7516
0, 600.00000, 117.639, -33.0623, 117.922, -150.647, 123.565, 88.059, 0, 0, 1.8883, -56.1362, 1.89331, -173.721, 1.89675, 64.9855, 0.0626807, 63.7509
0, 660.00000, 117.639, -33.0695, 117.922, -150.647, 123.58, 88.0552, 0, 0, 1.88828, -56.1434, 1.89331, -173.721, 1.89651, 64.9816, 0.0631105, 63.7502
0, 720.00000, 117.638, -33.076, 117.922, -150.648, 123.594, 88.0517, 0, 0, 1.88827, -56.1499, 1.89331, -173.721, 1.89629, 64.9781, 0.0634973, 63.7496
0, 780.00000, 117.637, -33.0819, 117.922, -150.648, 123.607, 88.0486, 0, 0, 1.88825, -56.1558, 1.89331, -173.721, 1.89609, 64.9749, 0.0638453, 63.749
0, 840.00000, 117.637, -33.0872, 117.921, -150.648, 123.618, 88.0458, 0, 0, 1.88824, -56.1611, 1.89331, -173.722, 1.89592, 64.9721, 0.0641584, 63.7484
0, 900.00000, 117.636, -33.0919, 117.921, -150.648, 123.628, 88.0433, 0, 0, 1.88823, -56.1658, 1.89331, -173.722, 1.89576, 64.9696, 0.0644402, 63.7478
0, 960.00000, 117.636, -33.0962, 117.921, -150.648, 123.637, 88.041, 0, 0, 1.88822, -56.1701, 1.8933, -173.722, 1.89562, 64.9673, 0.0646937, 63.7473
0, 1020.00000, 117.635, -33.1, 117.921, -150.648, 123.646, 88.0389, 0, 0, 1.88821, -56.1739, 1.8933, -173.722, 1.89549, 64.9652, 0.0649219, 63.7468
0, 1080.00000, 117.635, -33.1035, 117.921, -150.648, 123.653, 88.0371, 0, 0, 1.8882, -56.1774, 1.8933, -173.722, 1.89537, 64.9633, 0.0651272, 63.7463
0, 1140.00000, 117.635, -33.1066, 117.921, -150.648, 123.66, 88.0354, 0, 0, 1.8882, -56.1805, 1.8933, -173.722, 1.89527, 64.9616, 0.065312, 63.7459
0, 1200.00000, 117.634, -33.1094, 117.921, -150.648, 123.666, 88.0339, 0, 0, 1.88819, -56.1833, 1.8933, -173.722, 1.89518, 64.9601, 0.0654782, 63.7455
0, 1260.00000, 117.634, -33.1119, 117.921, -150.648, 123.671, 88.0326, 0, 0, 1.88819, -56.1858, 1.8933, -173.722, 1.89509, 64.9588, 0.0656279, 63.7452
0, 1320.00000, 117.634, -33.1142, 117.921, -150.649, 123.676, 88.0314, 0, 0, 1.88818, -56.1881, 1.8933, -173.722, 1.89502, 64.9576, 0.0657625, 63.7448
0, 1380.00000, 117.633, -33.1162, 117.921, -150.649, 123.68, 88.0303, 0, 0, 1.88818, -56.1901, 1.8933, -173.722, 1.89495, 64.9565, 0.0658837, 63.7445
0, 1440.00000, 117.633, -33.1181, 117.921, -150.649, 123.684, 88.0293, 0, 0, 1.88817, -56.192, 1.8933, -173.723, 1.89489, 64.9555, 0.0659928, 63.7443
0, 1500.00000, 117.633, -33.1197, 117.921, -150.649, 123.688, 88.0284, 0, 0, 1.88817, -56.1936, 1.8933, -173.723, 1.89483, 64.9546, 0.0660909, 63.744
0, 1560.00000, 117.633, -33.1212, 117.921, -150.649, 123.691, 88.0276, 0, 0, 1.88816, -56.1951, 1.8933, -173.723, 1.89478, 64.9538, 0.0661792, 63.7438
0, 1620.00000, 117.633, -33.1226, 117.921, -150.649, 123.694, 88.0269, 0, 0, 1.88816, -56.1965, 1.8933, -173.723, 1.89474, 64.953, 0.0662587, 63.7436
0, 1680.00000, 117.633, -33.1238, 117.921, -150.649, 123.696, 88.0262, 0, 0, 1.88816, -56.1977, 1.89329, -173.723, 1.8947, 64.9524, 0.0663303, 63.7434
0, 1740.00000, 117.632, -33.1249, 117.921, -150.649, 123.699, 88.0257, 0, 0, 1.88816, -56.1988, 1.89329, -173.723, 1.89466, 64.9518, 0.0663946, 63.7432
0, 1800.00000, 117.632, -33.1258, 117.921, -150.649, 123.701, 88.0251, 0, 0, 1.88815, -56.1997, 1.89329, -173.723, 1.89463, 64.9513, 0.0664526, 63.7431
0, 1860.00000, 117.632, -33.1267, 117.921, -150.649, 123.703, 88.0247, 0, 0, 1.88815, -56.2006, 1.89329, -173.723, 1.8946, 64.9508, 0.0665047, 63.743
0, 1920.00000, 117.632, -33.1275, 117.921, -150.649, 123.704, 88.0242, 0, 0, 1.88815, -56.2014, 1.89329, -173.723, 1.89458, 64.9504, 0.0665516, 63.7428
0, 1980.00000, 117.632, -33.1282, 117.921, -150.649, 123.706, 88.0239, 0, 0, 1.88815, -56.2021, 1.89329, -173.723, 1.89455, 64.95, 0.0665939, 63.7427
0, 2040.00000, 117.632, -33.1289, 117.921, -150.649, 123.707, 88.0235, 0, 0, 1.88815, -56.2028, 1.89329, -173.723, 1.89453, 64.9496, 0.0666319, 63.7426
0, 2100.00000, 117.632, -33.1294, 117.921, -150.649, 123.708, 88.0232, 0, 0, 1.88814, -56.2033, 1.89329, -173.723, 1.89451, 64.9493, 0.0666661, 63.7425
0, 2160.00000, 117.632, -33.13, 117.921, -150.649, 123.71, 88.0229, 0, 0, 1.88814, -56.2039, 1.89329, -173.723, 1.89449, 64.949, 0.0666969, 63.7424
0, 2220.00000, 117.632, -33.1304, 117.921, -150.649, 123.711, 88.0227, 0, 0, 1.88814, -56.2043, 1.89329, -173.723, 1.89448, 64.9488, 0.0667246, 63.7424
0, 2280.00000, 117.632, -33.1308, 117.921, -150.649, 123.711, 88.0225, 0, 0, 1.88814, -56.2048, 1.89329, -173.723, 1.89446, 64.9486, 0.0667495, 63.7423
0, 2340.00000, 117.632, -33.1312, 117.921, -150.649, 123.712, 88.0223, 0, 0, 1.88814, -56.2051, 1.89329, -173.723, 1.89445, 64.9483, 0.066772, 63.7422
0, 2400.00000, 117.632, -33.1316, 117.921, -150.649, 123.713, 88.0221, 0, 0, 1.88814, -56.2055, 1.89329, -173.723, 1.89444, 64.9482, 0.0667922, 63.7422
0, 2460.00000, 117.632, -33.1319, 117.921, -150.649, 123.714, 88.0219, 0, 0, 1.88814, -56.2058, 1.89329, -173.723, 1.89443, 64.948, 0.0668103, 63.7421
0, 2520.00000, 117.632, -33.1321, 117.921, -150.649, 123.714, 88.0218, 0, 0, 1.88814, -56.2061, 1.89329, -173.723, 1.89442, 64.9479, 0.0668267, 63.7421
0, 2580.00000, 117.632, -33.1324, 117.921, -150.649, 123.715, 88.0216, 0, 0, 1.88814, -56.2063, 1.89329, -173.723, 1.89441, 64.9477, 0.0668414, 63.742
0, 2640.00000, 117.632, -33.1326, 117.921, -150.649, 123.715, 88.0215, 0, 0, 1.88814, -56.2065, 1.89329, -173.723, 1.89441, 64.9476, 0.0668547, 63.742
0, 2700.00000, 117.632, -33.1328, 117.921, -150.649, 123.716, 88.0214, 0, 0, 1.88814, -56.2067, 1.89329, -173.723, 1.8944, 64.9475, 0.0668666, 63.742
0, 2760.00000, 117.632, -33.133, 117.921, -150.649, 123.716, 88.0213, 0, 0, 1.88814, -56.2069, 1.89329, -173.723, 1.89439, 64.9474, 0.0668773, 63.7419
0, 2820.00000, 117.632, -33.1332, 117.921, -150.649, 123.716, 88.0212, 0, 0, 1.88814, -56.2071, 1.89329, -173.723, 1.89439, 64.9473, 0.066887, 63.7419
0, 2880.00000, 117.632, -33.1333, 117.921, -150.649, 123.717, 88.0211, 0, 0, 1.88814, -56.2072, 1.89329, -173.723, 1.89438, 64.9472, 0.0668957, 63.7419
0, 2940.00000, 117.632, -33.1334, 117.921, -150.649, 123.717, 88.0211, 0, 0, 1.88813, -56.2074, 1.89329, -173.723, 1.89438, 64.9472, 0.0669035, 63.7419
0, 3000.00000, 117.632, -33.1336, 117.921, -150.649, 123.717, 88.021, 0, 0, 1.88813, -56.2075, 1.89329, -173.723, 1.89437, 64.9471, 0.0669105, 63.7419
0, 3060.00000, 117.631, -33.1337, 117.921, -150.649, 123.717, 88.0209, 0, 0, 1.88813, -56.2076, 1.89329, -173.723, 1.89437, 64.947, 0.0669169, 63.7418
0, 3120.00000, 117.631, -33.1338, 117.921, -150.649, 123.718, 88.0209, 0, 0, 1.88813, -56.2077, 1.89329, -173.723, 1.89437, 64.947, 0.0669226, 63.7418
0, 3180.00000, 117.631, -33.1339, 117.921, -150.649, 123.718, 88.0208, 0, 0, 1.88813, -56.2078, 1.89329, -173.723, 1.89436, 64.9469, 0.0669277, 63.7418
0, 3240.00000, 117.631, -33.1339, 117.921, -150.649, 123.718, 88.0208, 0, 0, 1.88813, -56.2078, 1.89329, -173.723, 1.89436, 64.9469, 0.0669324, 63.7418
0, 3300.00000, 117.631, -33.134, 117.921, -150.649, 123.718, 88.0208, 0, 0, 1.88813, -56.2079, 1.89329, -173.723, 1.89436, 64.9469, 0.0669365, 63.7418
0, 3360.00000, 117.631, -33.1341, 117.921, -150.649, 123.718, 88.0207, 0, 0, 1.88813, -56.208, 1.89329, -173.723, 1.89436, 64.9468, 0.0669402, 63.7418
0, 3420.00000, 117.631, -33.1341, 117.921, -150.649, 123.718, 88.0207, 0, 0, 1.88813, -56.208, 1.89329, -173.723, 1.89436, 64.9468, 0.0669436, 63.7418
0, 3480.00000, 117.631, -33.1342, 117.921, -150.649, 123.719, 88.0207, 0, 0, 1.88813, -56.2081, 1.89329, -173.723, 1.89435, 64.9468, 0.0669466, 63.7418
0, 3540.00000, 117.631, -33.1342, 117.921, -150.649, 123.719, 88.0207, 0, 0, 1.88813, -56.2081, 1.89329, -173.723, 1.89435, 64.9467, 0.0669494, 63.7418
1, 0.00000, 117.631, -33.1343, 117.921, -150.649, 123.719, 88.0206, 0, 0, 1.88813, -56.2082, 1.89329, -173.723, 1.89435, 64.9467, 0.0669518, 63.7417
1, 60.00000, 117.78, -32.9839, 118.274, -150.634, 123.709, 88.0252, 0, 0, 1.89079, -56.0578, 1.8996, -173.708, 1.8945, 64.9512, 0.0676374, 63.3747
1, 120.00000, 117.78, -32.9839, 118.274, -150.634, 123.709, 88.0251, 0, 0, 1.89079, -56.0578, 1.8996, -173.708, 1.8945, 64.9512, 0.0676395, 63.3747
1, 180.00000, 117.78, -32.9839, 118.274, -150.634, 123.709, 88.0251, 0, 0, 1.89079, -56.0579, 1.8996, -173.708, 1.89449, 64.9512, 0.0676413, 63.3747
1, 240.00000, 117.78, -32.984, 118.274, -150.634, 123.709, 88.0251, 0, 0, 1.89079, -56.0579, 1.8996, -173.708, 1.89449, 64.9512, 0.0676429, 63.3747
1, 300.00000, 117.78, -32.984, 118.274, -150.634, 123.71, 88.0251, 0, 0, 1.89079, -56.0579, 1.8996, -173.708, 1.89449, 64.9512, 0.0676444, 63.3747
1, 360.00000, 117.78, -32.984, 118.274, -150.634, 123.71, 88.0251, 0, 0, 1.89079, -56.0579, 1.8996, -173.708, 1.89449, 64.9512, 0.0676457, 63.3747
1, 420.00000, 117.78, -32.984, 118.274, -150.634, 123.71, 88.0251, 0, 0, 1.89079, -56.0579, 1.8996, -173.708, 1.89449, 64.9512, 0.0676468, 63.3747
1, 480.00000, 117.78, -32.984, 118.274, -150.634, 123.71, 88.0251, 0, 0, 1.89079, -56.058, 1.8996, -173.708, 1.89449, 64.9512, 0.0676479, 63.3747
1, 540.00000, 117.78, -32.9841, 118.274, -150.634, 123.71, 88.0251, 0, 0, 1.89079, -56.058, 1.8996, -173.708, 1.89449, 64.9511, 0.0676489, 63.3747
1, 600.00000, 117.78, -32.9841, 118.274, -150.634, 123.71, 88.0251, 0, 0, 1.89079, -56.058, 1.8996, -173.708, 1.89449, 64.9511, 0.0676497, 63.3747
1, 660.00000, 117.78, -32.9841, 118.274, -150.634, 123.71, 88.025, 0, 0, 1.89079, -56.058, 1.8996, -173.708, 1.89449, 64.9511, 0.0676505, 63.3747
1, 720.00000, 117.78, -32.9841, 118.274, -150.634, 123.71, 88.025, 0, 0, 1.89079, -56.058, 1.8996, -173.708, 1.89449, 64.9511, 0.0676512, 63.3747
1, 780.00000, 117.78, -32.9841, 118.274, -150.634, 123.71, 88.025, 0, 0, 1.89079, -56.058, 1.8996, -173.708, 1.89449, 64.9511, 0.0676518, 63.3747
1, 840.00000, 117.78, -32.9841, 118.274, -150.634, 123.71, 88.025, 0, 0, 1.89079, -56.058, 1.8996, -173.708, 1.89449, 64.9511, 0.0676524, 63.3747
1, 900.00000, 117.78, -32.9841, 118.274, -150.634, 123.71, 88.025, 0, 0, 1.89079, -56.058, 1.8996, -173.708, 1.89449, 64.9511, 0.0676529, 63.3747
1, 960.00000, 117.78, -32.9841, 118.274, -150.634, 123.71, 88.025, 0, 0, 1.89079, -56.0581, 1.8996, -173.708, 1.89449, 64.9511, 0.0676533, 63.3747
1, 1020.00000, 117.78, -32.9841, 118.274, -150.634, 123.71, 88.025, 0, 0, 1.89079, -56.0581, 1.8996, -173.708, 1.89449, 64.9511, 0.0676537, 63.3747
1, 1080.00000, 117.78, -32.9841, 118.274, -150.634, 123.71, 88.025, 0, 0, 1.89079, -56.0581, 1.8996, -173.708, 1.89449, 64.9511, 0.0676541, 63.3747
1, 1140.00000, 117.78, -32.9842, 118.274, -150.634, 123.71, 88.025, 0, 0, 1.89079, -56.0581, 1.8996, -173.708, 1.89449, 64.9511, 0.0676544, 63.3747
1, 1200.00000, 117.78, -32.9842, 118.274, -150.634, 123.71, 88.025, 0, 0, 1.89079, -56.0581, 1.8996, -173.708, 1.89449, 64.9511, 0.0676547, 63.3747
1, 1260.00000, 117.78, -32.9842, 118.274, -150.634, 123.71, 88.025, 0, 0, 1.89079, -56.0581, 1.8996, -173.708, 1.89449, 64.9511, 0.067655, 63.3747
1, 1320.00000, 117.78, -32.9842, 118.274, -150.634, 123.71, 88.025, 0, 0, 1.89079, -56.0581, 1.8996, -173.708, 1.89449, 64.9511, 0.0676552, 63.3747
1, 1380.00000, 117.78, -32.9842, 118.274, -150.634, 123.71, 88.025, 0, 0, 1.89079, -56.0581, 1.8996, -173.708, 1.89449, 64.9511, 0.0676555, 63.3747
1, 1440.00000, 117.78, -32.9842, 118.274, -150.634, 123.71, 88.025, 0, 0, 1.89079, -56.0581, 1.8996, -173.708, 1.89449, 64.9511, 0.0676557, 63.3747
1, 1500.00000, 117.78, -32.9842, 118.274, -150.634, 123.71, 88.025, 0, 0, 1.89079, -56.0581, 1.8996, -173.708, 1.89449, 64.9511, 0.0676558, 63.3747
1, 1560.00000, 117.78, -32.9842, 118.274, -150.634, 123.71, 88.025, 0, 0, 1.89079, -56.0581, 1.8996, -173.708, 1.89449, 64.9511, 0.067656, 63.3747
1, 1620.00000, 117.78, -32.9842, 118.274, -150.634, 123.71, 88.025, 0, 0, 1.89079, -56.0581, 1.8996, -173.708, 1.89449, 64.9511, 0.0676561, 63.3747
1, 1680.00000, 117.78, -32.9842, 118.274, -150.634, 123.71, 88.025, 0, 0, 1.89079, -56.0581, 1.8996, -173.708, 1.89449, 64.9511, 0.0676563, 63.3747
1, 1740.00000, 117.78, -32.9842, 118.274, -150.634, 123.71, 88.025, 0, 0, 1.89079, -56.0581, 1.8996, -173.708, 1.89449, 64.9511, 0.0676564, 63.3747
1, 1800.00000, 117.78, -32.9842, 118.274, -150.634, 123.71, 88.025, 0, 0, 1.89079, -56.0581, 1.8996, -173.708, 1.89449, 64.9511, 0.0676565, 63.3747
1, 1860.00000, 117.78, -32.9842, 118.274, -150.634, 123.71, 88.025, 0, 0, 1.89079, -56.0581, 1.8996, -173.708, 1.89449, 64.9511, 0.0676566, 63.3747
1, 1920.00000, 117.78, -32.9842, 118.274, -150.634, 123.71, 88.025, 0, 0, 1.89079, -56.0581, 1.8996, -173.708, 1.89449, 64.9511, 0.0676567, 63.3747
1, 1980.00000, 117.78, -32.9842, 118.274, -150.634, 123.71, 88.025, 0, 0, 1.89079, -56.0581, 1.8996, -173.708, 1.89449, 64.9511, 0.0676567, 63.3747
1, 2040.00000, 117.78, -32.9842, 118.274, -150.634, 123.71, 88.025, 0, 0, 1.89079, -56.0581, 1.8996, -173.708, 1.89449, 64.9511, 0.0676568, 63.3747
1, 2100.00000, 117.78, -32.9842, 118.274, -150.634, 123.71, 88.025, 0, 0, 1.89079, -56.0581, 1.8996, -173.708, 1.89449, 64.9511, 0.0676569, 63.3747
1, 2160.00000, 117.78, -32.9842, 118.274, -150.634, 123.71, 88.025, 0, 0, 1.89079, -56.0581, 1.8996, -173.708, 1.89449, 64.9511, 0.0676569, 63.3747
1, 2220.00000, 117.78, -32.9842, 118.274, -150.634, 123.71, 88.025, 0, 0, 1.89079, -56.0581, 1.8996, -173.708, 1.89449, 64.9511, 0.067657, 63.3747
1, 2280.00000, 117.78, -32.9842, 118.274, -150.634, 123.71, 88.025, 0, 0, 1.89079, -56.0581, 1.8996, -173.708, 1.89449, 64.9511, 0.067657, 63.3747
1, 2340.00000, 117.78, -32.9842, 118.274, -150.634, 123.71, 88.025, 0, 0, 1.89079, -56.0581, 1.8996, -173.708, 1.89449, 64.9511, 0.0676571, 63.3747
1, 2400.00000, 117.78, -32.9842, 118.274, -150.634, 123.71, 88.025, 0, 0, 1.89079, -56.0581, 1.8996, -173.708, 1.89449, 64.9511, 0.0676571, 63.3747
1, 2460.00000, 117.78, -32.9842, 118.274, -150.634, 123.71, 88.025, 0, 0, 1.89079, -56.0581, 1.8996, -173.708, 1.89449, 64.9511, 0.0676571, 63.3747
1, 2520.00000, 117.78, -32.9842, 118.274, -150.634, 123.71, 88.025, 0, 0, 1.89079, -56.0581, 1.8996, -173.708, 1.89449, 64.9511, 0.0676572, 63.3747
1, 2580.00000, 117.78, -32.9842, 118.274, -150.634, 123.71, 88.025, 0, 0, 1.89079, -56.0581, 1.8996, -173.708, 1.89449, 64.9511, 0.0676572, 63.3747
1, 2640.00000, 117.78, -32.9842, 118.274, -150.634, 123.71, 88.025, 0, 0, 1.89079, -56.0581, 1.8996, -173.708, 1.89449, 64.9511, 0.0676572, 63.3747
1, 2700.00000, 117.78, -32.9842, 118.274, -150.634, 123.71, 88.025, 0, 0, 1.89079, -56.0581, 1.8996, -173.708, 1.89449, 64.9511, 0.0676572, 63.3747
1, 2760.00000, 117.78, -32.9842, 118.274, -150.634, 123.71, 88.025, 0, 0, 1.89079, -56.0581, 1.8996, -173.708, 1.89449, 64.9511, 0.0676572, 63.3747
1, 2820.00000, 117.78, -32.9842, 118.274, -150.634, 123.71, 88.025, 0, 0, 1.89079, -56.0581, 1.8996, -173.708, 1.89449, 64.9511, 0.0676573, 63.3747
1, 2880.00000, 117.78, -32.9842, 118.274, -150.634, 123.71, 88.025, 0, 0, 1.89079, -56.0581, 1.8996, -173.708, 1.89449, 64.9511, 0.0676573, 63.3747
1, 2940.00000, 117.78, -32.9842, 118.274, -150.634, 123.71, 88.025, 0, 0, 1.89079, -56.0581, 1.8996, -173.708, 1.89449, 64.9511, 0.0676573, 63.3747
1, 3000.00000, 117.78, -32.9842, 118.274, -150.634, 123.71, 88.025, 0, 0, 1.89079, -56.0581, 1.8996, -173.708, 1.89449, 64.9511, 0.0676573, 63.3747
1, 3060.00000, 117.78, -32.9842, 118.274, -150.634, 123.71, 88.025, 0, 0, 1.89079, -56.0581, 1.8996, -173.708, 1.89449, 64.9511, 0.0676573, 63.3747
1, 3120.00000, 117.78, -32.9842, 118.274, -150.634, 123.71, 88.025, 0, 0, 1.89079, -56.0581, 1.8996, -173.708, 1.89449, 64.9511, 0.0676573, 63.3747
1, 3180.00000, 117.78, -32.9842, 118.274, -150.634, 123.71, 88.025, 0, 0, 1.89079, -56.0581, 1.8996, -173.708, 1.89449, 64.9511, 0.0676573, 63.3747
1, 3240.00000, 117.78, -32.9842, 118.274, -150.634, 123.71, 88.025, 0, 0, 1.89079, -56.0581, 1.8996, -173.708, 1.89449, 64.9511, 0.0676573, 63.3747
1, 3300.00000, 117.78, -32.9842, 118.274, -150.634, 123.71, 88.025, 0, 0, 1.89079, -56.0581, 1.8996, -173.708, 1.89449, 64.9511, 0.0676574, 63.3747
1, 3360.00000, 117.78, -32.9842, 118.274, -150.634, 123.71, 88.025, 0, 0, 1.89079, -56.0581, 1.8996, -173.708, 1.89449, 64.9511, 0.0676574, 63.3747
1, 3420.00000, 117.78, -32.9842, 118.274, -150.634, 123.71, 88.025, 0, 0, 1.89079, -56.0581, 1.8996, -173.708, 1.89449, 64.9511, 0.0676574, 63.3747
1, 3480.00000, 117.78, -32.9842, 118.274, -150.634, 123.71, 88.025, 0, 0, 1.89079, -56.0581, 1.8996, -173.708, 1.89449, 64.9511, 0.0676574, 63.3747
1, 3540.00000, 117.78, -32.9842, 118.274, -150.634, 123.71, 88.025, 0, 0, 1.89079, -56.0581, 1.8996, -173.708, 1.89449, 64.9511, 0.0676574, 63.3747
2, 0.00000, 117.78, -32.9842, 118.274, -150.634, 123.71, 88.025, 0, 0, 1.89079, -56.0581, 1.8996, -173.708, 1.89449, 64.9511, 0.0676574, 63.3747
2, 60.00000, 117.78, -32.9842, 118.274, -150.634, 123.71, 88.025, 0, 0, 1.89079, -56.0581, 1.8996, -173.708, 1.89449, 64.9511, 0.0676574, 63.3747
2, 120.00000, 117.78, -32.9842, 118.274, -150.634, 123.71, 88.025, 0, 0, 1.89079, -56.0581, 1.8996, -173.708, 1.89449, 64.9511, 0.0676574, 63.3747
2, 180.00000, 117.78, -32.9842, 118.274, -150.634, 123.71, 88.025, 0, 0, 1.89079, -56.0581, 1.8996, -173.708, 1.89449, 64.9511, 0.0676574, 63.3747
2, 240.00000, 117.78, -32.9842, 118.274, -150.634, 123.71, 88.025, 0, 0, 1.89079, -56.0581, 1.8996, -173.708, 1.89449, 64.9511, 0.0676574, 63.3747
2, 300.00000, 117.78, -32.9842, 118.274, -150.634, 123.71, 88.025, 0, 0, 1.89079, -56.0581, 1.8996, -173.708, 1.89449, 64.9511, 0.0676574, 63.3747
2, 360.00000, 117.78, -32.9842, 118.274, -150.634, 123.71, 88.025, 0, 0, 1.89079, -56.0581, 1.8996, -173.708, 1.89449, 64.9511, 0.0676574, 63.3747
2, 420.00000, 117.78, -32.9842, 118.274, -150.634, 123.71, 88.025, 0, 0, 1.89079, -56.0581, 1.8996, -173.708, 1.89449, 64.9511, 0.0676574, 63.3747
2, 480.00000, 117.78, -32.9842, 118.274, -150.634, 123.71, 88.025, 0, 0, 1.89079, -56.0581, 1.8996, -173.708, 1.89449, 64.9511, 0.0676574, 63.3747
2, 540.00000, 117.78, -32.9842, 118.274, -150.634, 123.71, 88.025, 0, 0, 1.89079, -56.0581, 1.8996, -173.708, 1.89449, 64.9511, 0.0676574, 63.3747
2, 600.00000, 117.78, -32.9842, 118.274, -150.634, 123.71, 88.025, 0, 0, 1.89079, -56.0581, 1.8996, -173.708, 1.89449, 64.9511, 0.0676574, 63.3747
2, 660.00000, 117.78, -32.9842, 118.274, -150.634, 123.71, 88.025, 0, 0, 1.89079, -56.0581, 1.8996, -173.708, 1.89449, 64.9511, 0.0676574, 63.3747
2, 720.00000, 117.78, -32.9842, 118.274, -150.634, 123.71, 88.025, 0, 0, 1.89079, -56.0581, 1.8996, -173.708, 1.89449, 64.9511, 0.0676574, 63.3747
2, 780.00000, 117.78, -32.9842, 118.274, -150.634, 123.71, 88.025, 0, 0, 1.89079, -56.0581, 1.8996, -173.708, 1.89449, 64.9511, 0.0676574, 63.3747
