hour,t(sec),"P1 (kW)","Q1 (kvar)","P2 (kW)","Q2 (kvar)","P3 (kW)","Q3 (kvar)","P4 (kW)","Q4 (kvar)"
0, 60.00000, 0.785553, 0.334647, 0.787296, 0.335375, 0.821892, 0.350113, 0, 0
0, 120.00000, 0.785572, 0.334654, 0.787293, 0.335375, 0.821887, 0.350112, 0, 0
0, 180.00000, 0.785589, 0.334661, 0.787291, 0.335375, 0.821883, 0.350111, 0, 0
0, 240.00000, 0.785604, 0.334667, 0.787289, 0.335375, 0.821879, 0.35011, 0, 0
0, 300.00000, 0.785617, 0.334672, 0.787287, 0.335375, 0.821876, 0.35011, 0, 0
0, 360.00000, 0.785628, 0.334677, 0.787285, 0.335375, 0.821873, 0.350109, 0, 0
0, 420.00000, 0.785638, 0.334681, 0.787283, 0.335375, 0.82187, 0.350109, 0, 0
0, 480.00000, 0.785646, 0.334685, 0.787282, 0.335375, 0.821868, 0.350108, 0, 0
0, 540.00000, 0.785654, 0.334688, 0.78728, 0.335375, 0.821866, 0.350108, 0, 0
0, 600.00000, 0.785661, 0.334691, 0.787279, 0.335375, 0.821864, 0.350107, 0, 0
0, 660.00000, 0.785667, 0.334693, 0.787278, 0.335375, 0.821862, 0.350107, 0, 0
0, 720.00000, 0.785672, 0.334695, 0.787277, 0.335375, 0.82186, 0.350107, 0, 0
0, 780.00000, 0.785677, 0.334697, 0.787276, 0.335375, 0.821859, 0.350107, 0, 0
0, 840.00000, 0.785681, 0.334699, 0.787276, 0.335375, 0.821858, 0.350107, 0, 0
0, 900.00000, 0.785685, 0.334701, 0.787275, 0.335375, 0.821857, 0.350106, 0, 0
0, 960.00000, 0.827804, 0.352643, 0.828341, 0.352869, 0.869417, 0.370367, 0, 0
0, 1020.00000, 0.827807, 0.352645, 0.828341, 0.352869, 0.869416, 0.370367, 0, 0
0, 1080.00000, 0.827809, 0.352646, 0.82834, 0.352869, 0.869415, 0.370367, 0, 0
0, 1140.00000, 0.827812, 0.352647, 0.82834, 0.352869, 0.869414, 0.370367, 0, 0
0, 1200.00000, 0.827814, 0.352647, 0.828339, 0.352869, 0.869414, 0.370367, 0, 0
0, 1260.00000, 0.827816, 0.352648, 0.828339, 0.352869, 0.869413, 0.370367, 0, 0
0, 1320.00000, 0.827817, 0.352649, 0.828339, 0.352869, 0.869412, 0.370367, 0, 0
0, 1380.00000, 0.827819, 0.35265, 0.828338, 0.352869, 0.869412, 0.370367, 0, 0
0, 1440.00000, 0.82782, 0.35265, 0.828338, 0.352869, 0.869411, 0.370366, 0, 0
0, 1500.00000, 0.827821, 0.352651, 0.828338, 0.352869, 0.869411, 0.370366, 0, 0
0, 1560.00000, 0.827823, 0.352651, 0.828337, 0.352869, 0.869411, 0.370366, 0, 0
0, 1620.00000, 0.827824, 0.352651, 0.828337, 0.352869, 0.86941, 0.370366, 0, 0
0, 1680.00000, 0.827824, 0.352652, 0.828337, 0.352869, 0.86941, 0.370366, 0, 0
0, 1740.00000, 0.827825, 0.352652, 0.828337, 0.352869, 0.86941, 0.370366, 0, 0
0, 1800.00000, 0.827826, 0.352652, 0.828337, 0.352869, 0.869409, 0.370366, 0, 0
0, 1860.00000, 0.832503, 0.354645, 0.832939, 0.35483, 0.87205, 0.371491, 0, 0
0, 1920.00000, 0.832503, 0.354645, 0.832939, 0.35483, 0.872049, 0.371491, 0, 0
0, 1980.00000, 0.832504, 0.354645, 0.832939, 0.35483, 0.872049, 0.371491, 0, 0
0, 2040.00000, 0.832504, 0.354645, 0.832939, 0.35483, 0.872049, 0.371491, 0, 0
0, 2100.00000, 0.832505, 0.354646, 0.832939, 0.35483, 0.872049, 0.371491, 0, 0
0, 2160.00000, 0.832505, 0.354646, 0.832939, 0.35483, 0.872049, 0.371491, 0, 0
0, 2220.00000, 0.832505, 0.354646, 0.832939, 0.35483, 0.872049, 0.371491, 0, 0
0, 2280.00000, 0.832506, 0.354646, 0.832938, 0.35483, 0.872048, 0.371491, 0, 0
0, 2340.00000, 0.832506, 0.354646, 0.832938, 0.35483, 0.872048, 0.371491, 0, 0
0, 2400.00000, 0.832506, 0.354646, 0.832938, 0.35483, 0.872048, 0.371491, 0, 0
0, 2460.00000, 0.832506, 0.354646, 0.832938, 0.35483, 0.872048, 0.371491, 0, 0
0, 2520.00000, 0.832507, 0.354646, 0.832938, 0.35483, 0.872048, 0.371491, 0, 0
0, 2580.00000, 0.832507, 0.354646, 0.832938, 0.35483, 0.872048, 0.371491, 0, 0
0, 2640.00000, 0.832507, 0.354647, 0.832938, 0.35483, 0.872048, 0.371491, 0, 0
0, 2700.00000, 0.832507, 0.354647, 0.832938, 0.35483, 0.872048, 0.371491, 0, 0
0, 2760.00000, 0.796432, 0.339279, 0.796652, 0.339372, 0.829444, 0.353342, 0, 0
0, 2820.00000, 0.796432, 0.339279, 0.796652, 0.339372, 0.829443, 0.353341, 0, 0
0, 2880.00000, 0.796432, 0.339279, 0.796652, 0.339372, 0.829443, 0.353341, 0, 0
0, 2940.00000, 0.796432, 0.339279, 0.796652, 0.339372, 0.829443, 0.353341, 0, 0
0, 3000.00000, 0.796432, 0.339279, 0.796652, 0.339372, 0.829443, 0.353341, 0, 0
0, 3060.00000, 0.796432, 0.339279, 0.796652, 0.339372, 0.829443, 0.353341, 0, 0
0, 3120.00000, 0.796432, 0.339279, 0.796652, 0.339372, 0.829443, 0.353341, 0, 0
0, 3180.00000, 0.796432, 0.339279, 0.796652, 0.339372, 0.829443, 0.353341, 0, 0
0, 3240.00000, 0.796432, 0.339279, 0.796652, 0.339372, 0.829443, 0.353341, 0, 0
0, 3300.00000, 0.796432, 0.339279, 0.796652, 0.339372, 0.829443, 0.353341, 0, 0
0, 3360.00000, 0.796433, 0.339279, 0.796652, 0.339372, 0.829443, 0.353341, 0, 0
0, 3420.00000, 0.796433, 0.339279, 0.796652, 0.339372, 0.829443, 0.353341, 0, 0
0, 3480.00000, 0.797672, 0.339807, 0.800747, 0.341117, 0.829443, 0.353341, 0, 0
0, 3540.00000, 0.79754, 0.339751, 0.801859, 0.34159, 0.829444, 0.353342, 0, 0
1, 0.00000, 0.79754, 0.339751, 0.801858, 0.34159, 0.829443, 0.353341, 0, 0
1, 60.00000, 0.791592, 0.337217, 0.795768, 0.338996, 0.819747, 0.349211, 0, 0
1, 120.00000, 0.791592, 0.337217, 0.795768, 0.338996, 0.819746, 0.34921, 0, 0
1, 180.00000, 0.791592, 0.337217, 0.795768, 0.338996, 0.819746, 0.34921, 0, 0
1, 240.00000, 0.791592, 0.337217, 0.795768, 0.338996, 0.819746, 0.34921, 0, 0
1, 300.00000, 0.791592, 0.337217, 0.795768, 0.338996, 0.819746, 0.34921, 0, 0
1, 360.00000, 0.791592, 0.337217, 0.795768, 0.338996, 0.819746, 0.34921, 0, 0
1, 420.00000, 0.791592, 0.337217, 0.795768, 0.338996, 0.819746, 0.34921, 0, 0
1, 480.00000, 0.791592, 0.337217, 0.795768, 0.338996, 0.819746, 0.34921, 0, 0
1, 540.00000, 0.791592, 0.337217, 0.795768, 0.338996, 0.819746, 0.34921, 0, 0
1, 600.00000, 0.798123, 0.339999, 0.795618, 0.338932, 0.819747, 0.349211, 0, 0
1, 660.00000, 0.798123, 0.339999, 0.795618, 0.338932, 0.819746, 0.34921, 0, 0
1, 720.00000, 0.798123, 0.339999, 0.795618, 0.338932, 0.819746, 0.34921, 0, 0
1, 780.00000, 0.798123, 0.339999, 0.795618, 0.338932, 0.819746, 0.34921, 0, 0
1, 840.00000, 0.798123, 0.339999, 0.795618, 0.338932, 0.819746, 0.34921, 0, 0
1, 900.00000, 0.798123, 0.339999, 0.795618, 0.338932, 0.819746, 0.34921, 0, 0
1, 960.00000, 0.794755, 0.338564, 0.792243, 0.337494, 0.81591, 0.347576, 0, 0
1, 1020.00000, 0.794754, 0.338564, 0.792243, 0.337494, 0.815909, 0.347576, 0, 0
1, 1080.00000, 0.794754, 0.338564, 0.792243, 0.337494, 0.815909, 0.347576, 0, 0
1, 1140.00000, 0.794754, 0.338564, 0.792243, 0.337494, 0.815909, 0.347576, 0, 0
1, 1200.00000, 0.794754, 0.338564, 0.792243, 0.337494, 0.815909, 0.347576, 0, 0
1, 1260.00000, 0.794754, 0.338564, 0.792243, 0.337494, 0.815909, 0.347576, 0, 0
1, 1320.00000, 0.794754, 0.338564, 0.792243, 0.337494, 0.815909, 0.347576, 0, 0
1, 1380.00000, 0.794754, 0.338564, 0.792243, 0.337494, 0.815909, 0.347576, 0, 0
1, 1440.00000, 0.794754, 0.338564, 0.792243, 0.337494, 0.815909, 0.347576, 0, 0
1, 1500.00000, 0.794754, 0.338564, 0.792243, 0.337494, 0.815909, 0.347576, 0, 0
1, 1560.00000, 0.794754, 0.338564, 0.792243, 0.337494, 0.815909, 0.347576, 0, 0
1, 1620.00000, 0.794754, 0.338564, 0.792243, 0.337494, 0.815909, 0.347576, 0, 0
1, 1680.00000, 0.794754, 0.338564, 0.792243, 0.337494, 0.815909, 0.347576, 0, 0
1, 1740.00000, 0.794754, 0.338564, 0.792243, 0.337494, 0.815909, 0.347576, 0, 0
1, 1800.00000, 0.794754, 0.338564, 0.792243, 0.337494, 0.815909, 0.347576, 0, 0
1, 1860.00000, 0.835499, 0.355921, 0.833886, 0.355235, 0.835586, 0.355958, 0, 0
1, 1920.00000, 0.8355, 0.355921, 0.833887, 0.355234, 0.835587, 0.355959, 0, 0
1, 1980.00000, 0.8355, 0.355921, 0.833887, 0.355234, 0.835587, 0.355959, 0, 0
1, 2040.00000, 0.8355, 0.355921, 0.833887, 0.355234, 0.835587, 0.355959, 0, 0
1, 2100.00000, 0.8355, 0.355921, 0.833887, 0.355234, 0.835587, 0.355959, 0, 0
1, 2160.00000, 0.8355, 0.355921, 0.833887, 0.355234, 0.835587, 0.355959, 0, 0
1, 2220.00000, 0.8355, 0.355921, 0.833887, 0.355234, 0.835587, 0.355959, 0, 0
1, 2280.00000, 0.8355, 0.355921, 0.833887, 0.355234, 0.835587, 0.355959, 0, 0
1, 2340.00000, 0.8355, 0.355921, 0.833887, 0.355234, 0.835587, 0.355959, 0, 0
1, 2400.00000, 0.8355, 0.355921, 0.833887, 0.355234, 0.835587, 0.355959, 0, 0
1, 2460.00000, 0.8355, 0.355921, 0.833887, 0.355234, 0.835587, 0.355959, 0, 0
1, 2520.00000, 0.8355, 0.355921, 0.833887, 0.355234, 0.835587, 0.355959, 0, 0
1, 2580.00000, 0.8355, 0.355921, 0.833887, 0.355234, 0.835587, 0.355959, 0, 0
1, 2640.00000, 0.8355, 0.355921, 0.833887, 0.355234, 0.835587, 0.355959, 0, 0
1, 2700.00000, 0.8355, 0.355921, 0.833887, 0.355234, 0.835587, 0.355959, 0, 0
1, 2760.00000, 0.787376, 0.335421, 0.787376, 0.335421, 0.787376, 0.335421, 0, 0
1, 2820.00000, 0.787376, 0.335421, 0.787376, 0.335421, 0.787376, 0.335421, 0, 0
1, 2880.00000, 0.787376, 0.335421, 0.787376, 0.335421, 0.787376, 0.335421, 0, 0
1, 2940.00000, 0.787376, 0.335421, 0.787376, 0.335421, 0.787376, 0.335421, 0, 0
1, 3000.00000, 0.787376, 0.335421, 0.787376, 0.335421, 0.787376, 0.335421, 0, 0
1, 3060.00000, 0.787376, 0.335421, 0.787376, 0.335421, 0.787376, 0.335421, 0, 0
1, 3120.00000, 0.787376, 0.335421, 0.787376, 0.335421, 0.787376, 0.335421, 0, 0
1, 3180.00000, 0.787376, 0.335421, 0.787376, 0.335421, 0.787376, 0.335421, 0, 0
1, 3240.00000, 0.787376, 0.335421, 0.787376, 0.335421, 0.787376, 0.335421, 0, 0
1, 3300.00000, 0.787376, 0.335421, 0.787376, 0.335421, 0.787376, 0.335421, 0, 0
1, 3360.00000, 0.787376, 0.335421, 0.787376, 0.335421, 0.787376, 0.335421, 0, 0
1, 3420.00000, 0.787376, 0.335421, 0.787376, 0.335421, 0.787376, 0.335421, 0, 0
1, 3480.00000, 0.787376, 0.335421, 0.787376, 0.335421, 0.787376, 0.335421, 0, 0
1, 3540.00000, 0.787376, 0.335421, 0.787376, 0.335421, 0.787376, 0.335421, 0, 0
2, 0.00000, 0.787376, 0.335421, 0.787376, 0.335421, 0.787376, 0.335421, 0, 0
2, 60.00000, 0.808505, 0.344422, 0.808505, 0.344422, 0.808504, 0.344421, 0, 0
2, 120.00000, 0.808505, 0.344422, 0.808505, 0.344422, 0.808505, 0.344422, 0, 0
2, 180.00000, 0.808505, 0.344422, 0.808505, 0.344422, 0.808505, 0.344422, 0, 0
2, 240.00000, 0.808505, 0.344422, 0.808505, 0.344422, 0.808505, 0.344422, 0, 0
2, 300.00000, 0.808504, 0.344421, 0.808506, 0.344422, 0.808507, 0.344423, 0, 0
2, 360.00000, 0.808505, 0.344422, 0.808505, 0.344422, 0.808505, 0.344422, 0, 0
2, 420.00000, 0.808505, 0.344422, 0.808505, 0.344422, 0.808505, 0.344422, 0, 0
2, 480.00000, 0.808505, 0.344422, 0.808505, 0.344422, 0.808505, 0.344422, 0, 0
2, 540.00000, 0.808505, 0.344422, 0.808505, 0.344422, 0.808505, 0.344422, 0, 0
2, 600.00000, 0.808505, 0.344422, 0.808505, 0.344422, 0.808505, 0.344422, 0, 0
2, 660.00000, 0.808505, 0.344422, 0.808505, 0.344422, 0.808505, 0.344422, 0, 0
2, 720.00000, 0.808505, 0.344422, 0.808505, 0.344422, 0.808505, 0.344422, 0, 0
2, 780.00000, 0.808505, 0.344422, 0.808505, 0.344422, 0.808505, 0.344422, 0, 0
2, 840.00000, 0.808505, 0.344422, 0.808505, 0.344422, 0.808505, 0.344422, 0, 0
2, 900.00000, 0.808505, 0.344422, 0.808505, 0.344422, 0.808505, 0.344422, 0, 0
2, 960.00000, 0.766063, 0.326342, 0.766064, 0.326342, 0.766064, 0.326342, 0, 0
2, 1020.00000, 0.766064, 0.326342, 0.766064, 0.326342, 0.766064, 0.326342, 0, 0
2, 1080.00000, 0.766064, 0.326342, 0.766064, 0.326342, 0.766064, 0.326342, 0, 0
2, 1140.00000, 0.766064, 0.326342, 0.766064, 0.326342, 0.766064, 0.326342, 0, 0
2, 1200.00000, 0.766064, 0.326342, 0.766064, 0.326342, 0.766064, 0.326342, 0, 0
2, 1260.00000, 0.766064, 0.326342, 0.766064, 0.326342, 0.766064, 0.326342, 0, 0
2, 1320.00000, 0.766064, 0.326342, 0.766064, 0.326342, 0.766064, 0.326342, 0, 0
2, 1380.00000, 0.766064, 0.326342, 0.766064, 0.326342, 0.766064, 0.326342, 0, 0
2, 1440.00000, 0.766064, 0.326342, 0.766064, 0.326342, 0.766064, 0.326342, 0, 0
2, 1500.00000, 0.766064, 0.326342, 0.766064, 0.326342, 0.766064, 0.326342, 0, 0
2, 1560.00000, 0.766064, 0.326342, 0.766064, 0.326342, 0.766064, 0.326342, 0, 0
2, 1620.00000, 0.766064, 0.326342, 0.766064, 0.326342, 0.766064, 0.326342, 0, 0
2, 1680.00000, 0.766064, 0.326342, 0.766064, 0.326342, 0.766064, 0.326342, 0, 0
2, 1740.00000, 0.766064, 0.326342, 0.766064, 0.326342, 0.766064, 0.326342, 0, 0
2, 1800.00000, 0.766064, 0.326342, 0.766064, 0.326342, 0.766064, 0.326342, 0, 0
2, 1860.00000, 0.765645, 0.326163, 0.765645, 0.326163, 0.765644, 0.326163, 0, 0
2, 1920.00000, 0.765645, 0.326163, 0.765645, 0.326163, 0.765645, 0.326163, 0, 0
2, 1980.00000, 0.765645, 0.326163, 0.765645, 0.326163, 0.765645, 0.326163, 0, 0
2, 2040.00000, 0.765645, 0.326163, 0.765645, 0.326163, 0.765645, 0.326163, 0, 0
2, 2100.00000, 0.765645, 0.326163, 0.765645, 0.326163, 0.765645, 0.326163, 0, 0
2, 2160.00000, 0.765645, 0.326163, 0.765645, 0.326163, 0.765645, 0.326163, 0, 0
2, 2220.00000, 0.765645, 0.326163, 0.765645, 0.326163, 0.765645, 0.326163, 0, 0
2, 2280.00000, 0.765645, 0.326163, 0.765645, 0.326163, 0.765645, 0.326163, 0, 0
2, 2340.00000, 0.765645, 0.326163, 0.765645, 0.326163, 0.765645, 0.326163, 0, 0
2, 2400.00000, 0.765645, 0.326163, 0.765645, 0.326163, 0.765645, 0.326163, 0, 0
2, 2460.00000, 0.765645, 0.326163, 0.765645, 0.326163, 0.765645, 0.326163, 0, 0
2, 2520.00000, 0.765645, 0.326163, 0.765645, 0.326163, 0.765645, 0.326163, 0, 0
2, 2580.00000, 0.765645, 0.326163, 0.765645, 0.326163, 0.765645, 0.326163, 0, 0
2, 2640.00000, 0.765645, 0.326163, 0.765645, 0.326163, 0.765645, 0.326163, 0, 0
2, 2700.00000, 0.765645, 0.326163, 0.765645, 0.326163, 0.765645, 0.326163, 0, 0
2, 2760.00000, 0.732538, 0.31206, 0.732539, 0.31206, 0.732539, 0.31206, 0, 0
2, 2820.00000, 0.732538, 0.31206, 0.732538, 0.31206, 0.732538, 0.31206, 0, 0
2, 2880.00000, 0.732538, 0.31206, 0.732538, 0.31206, 0.732538, 0.31206, 0, 0
2, 2940.00000, 0.732538, 0.31206, 0.732538, 0.31206, 0.732538, 0.31206, 0, 0
2, 3000.00000, 0.732538, 0.31206, 0.732538, 0.31206, 0.732538, 0.31206, 0, 0
2, 3060.00000, 0.732538, 0.31206, 0.732538, 0.31206, 0.732538, 0.31206, 0, 0
2, 3120.00000, 0.732538, 0.31206, 0.732538, 0.31206, 0.732538, 0.31206, 0, 0
2, 3180.00000, 0.732538, 0.31206, 0.732538, 0.31206, 0.732538, 0.31206, 0, 0
2, 3240.00000, 0.732538, 0.31206, 0.732538, 0.31206, 0.732538, 0.31206, 0, 0
2, 3300.00000, 0.732538, 0.31206, 0.732538, 0.31206, 0.732538, 0.31206, 0, 0
2, 3360.00000, 0.732538, 0.31206, 0.732538, 0.31206, 0.732538, 0.31206, 0, 0
2, 3420.00000, 0.732538, 0.31206, 0.732538, 0.31206, 0.732538, 0.31206, 0, 0
2, 3480.00000, 0.732538, 0.31206, 0.732538, 0.31206, 0.732538, 0.31206, 0, 0
2, 3540.00000, 0.732538, 0.31206, 0.732538, 0.31206, 0.732538, 0.31206, 0, 0
3, 0.00000, 0.732538, 0.31206, 0.732538, 0.31206, 0.732538, 0.31206, 0, 0
3, 60.00000, 0.751166, 0.319995, 0.751166, 0.319995, 0.751165, 0.319995, 0, 0
3, 120.00000, 0.751166, 0.319995, 0.751166, 0.319995, 0.751166, 0.319995, 0, 0
3, 180.00000, 0.751166, 0.319995, 0.751166, 0.319995, 0.751166, 0.319995, 0, 0
3, 240.00000, 0.751166, 0.319995, 0.751166, 0.319995, 0.751166, 0.319995, 0, 0
3, 300.00000, 0.751166, 0.319995, 0.751166, 0.319995, 0.751166, 0.319995, 0, 0
3, 360.00000, 0.751166, 0.319995, 0.751166, 0.319995, 0.751166, 0.319995, 0, 0
3, 420.00000, 0.751166, 0.319995, 0.751166, 0.319995, 0.751166, 0.319995, 0, 0
3, 480.00000, 0.751166, 0.319995, 0.751166, 0.319995, 0.751166, 0.319995, 0, 0
3, 540.00000, 0.751166, 0.319995, 0.751166, 0.319995, 0.751166, 0.319995, 0, 0
3, 600.00000, 0.751166, 0.319995, 0.751166, 0.319995, 0.751166, 0.319995, 0, 0
3, 660.00000, 0.751166, 0.319995, 0.751166, 0.319995, 0.751166, 0.319995, 0, 0
3, 720.00000, 0.751166, 0.319995, 0.751166, 0.319995, 0.751166, 0.319995, 0, 0
3, 780.00000, 0.751166, 0.319995, 0.751166, 0.319995, 0.751166, 0.319995, 0, 0
3, 840.00000, 0.751166, 0.319995, 0.751166, 0.319995, 0.751166, 0.319995, 0, 0
3, 900.00000, 0.751166, 0.319995, 0.751166, 0.319995, 0.751166, 0.319995, 0, 0
3, 960.00000, 0.771805, 0.328788, 0.771805, 0.328787, 0.771806, 0.328788, 0, 0
3, 1020.00000, 0.771805, 0.328788, 0.771805, 0.328788, 0.771805, 0.328788, 0, 0
3, 1080.00000, 0.771805, 0.328788, 0.771805, 0.328788, 0.771805, 0.328788, 0, 0
3, 1140.00000, 0.771805, 0.328788, 0.771805, 0.328788, 0.771805, 0.328788, 0, 0
3, 1200.00000, 0.771805, 0.328788, 0.771805, 0.328788, 0.771805, 0.328788, 0, 0
3, 1260.00000, 0.771805, 0.328788, 0.771805, 0.328788, 0.771805, 0.328788, 0, 0
3, 1320.00000, 0.771805, 0.328788, 0.771805, 0.328788, 0.771805, 0.328788, 0, 0
3, 1380.00000, 0.771805, 0.328788, 0.771805, 0.328788, 0.771805, 0.328788, 0, 0
3, 1440.00000, 0.771805, 0.328788, 0.771805, 0.328788, 0.771805, 0.328788, 0, 0
3, 1500.00000, 0.771805, 0.328788, 0.771805, 0.328788, 0.771805, 0.328788, 0, 0
3, 1560.00000, 0.771805, 0.328788, 0.771805, 0.328788, 0.771805, 0.328788, 0, 0
3, 1620.00000, 0.771805, 0.328788, 0.771805, 0.328788, 0.771805, 0.328788, 0, 0
3, 1680.00000, 0.771805, 0.328788, 0.771805, 0.328788, 0.771805, 0.328788, 0, 0
3, 1740.00000, 0.771805, 0.328788, 0.771805, 0.328788, 0.771805, 0.328788, 0, 0
3, 1800.00000, 0.771805, 0.328788, 0.771805, 0.328788, 0.771805, 0.328788, 0, 0
3, 1860.00000, 0.781243, 0.332808, 0.781242, 0.332808, 0.781243, 0.332808, 0, 0
3, 1920.00000, 0.781242, 0.332808, 0.781242, 0.332808, 0.781242, 0.332808, 0, 0
3, 1980.00000, 0.781242, 0.332808, 0.781242, 0.332808, 0.781242, 0.332808, 0, 0
3, 2040.00000, 0.781242, 0.332808, 0.781242, 0.332808, 0.781242, 0.332808, 0, 0
3, 2100.00000, 0.781242, 0.332808, 0.781242, 0.332808, 0.781242, 0.332808, 0, 0
3, 2160.00000, 0.781242, 0.332808, 0.781242, 0.332808, 0.781242, 0.332808, 0, 0
3, 2220.00000, 0.781242, 0.332808, 0.781242, 0.332808, 0.781242, 0.332808, 0, 0
3, 2280.00000, 0.781242, 0.332808, 0.781242, 0.332808, 0.781242, 0.332808, 0, 0
3, 2340.00000, 0.781242, 0.332808, 0.781242, 0.332808, 0.781242, 0.332808, 0, 0
3, 2400.00000, 0.781242, 0.332808, 0.781242, 0.332808, 0.781242, 0.332808, 0, 0
3, 2460.00000, 0.781242, 0.332808, 0.781242, 0.332808, 0.781242, 0.332808, 0, 0
3, 2520.00000, 0.781242, 0.332808, 0.781242, 0.332808, 0.781242, 0.332808, 0, 0
3, 2580.00000, 0.781242, 0.332808, 0.781242, 0.332808, 0.781242, 0.332808, 0, 0
3, 2640.00000, 0.781242, 0.332808, 0.781242, 0.332808, 0.781242, 0.332808, 0, 0
3, 2700.00000, 0.781242, 0.332808, 0.781242, 0.332808, 0.781242, 0.332808, 0, 0
3, 2760.00000, 0.714895, 0.304544, 0.714895, 0.304544, 0.714896, 0.304544, 0, 0
3, 2820.00000, 0.714895, 0.304544, 0.714895, 0.304544, 0.714895, 0.304544, 0, 0
3, 2880.00000, 0.714895, 0.304544, 0.714895, 0.304544, 0.714895, 0.304544, 0, 0
3, 2940.00000, 0.714895, 0.304544, 0.714895, 0.304544, 0.714895, 0.304544, 0, 0
3, 3000.00000, 0.714895, 0.304544, 0.714895, 0.304544, 0.714895, 0.304544, 0, 0
3, 3060.00000, 0.714895, 0.304544, 0.714895, 0.304544, 0.714895, 0.304544, 0, 0
3, 3120.00000, 0.714895, 0.304544, 0.714895, 0.304544, 0.714895, 0.304544, 0, 0
3, 3180.00000, 0.714895, 0.304544, 0.714895, 0.304544, 0.714895, 0.304544, 0, 0
3, 3240.00000, 0.714895, 0.304544, 0.714895, 0.304544, 0.714895, 0.304544, 0, 0
3, 3300.00000, 0.714895, 0.304544, 0.714895, 0.304544, 0.714895, 0.304544, 0, 0
3, 3360.00000, 0.714895, 0.304544, 0.714895, 0.304544, 0.714895, 0.304544, 0, 0
3, 3420.00000, 0.714895, 0.304544, 0.714895, 0.304544, 0.714895, 0.304544, 0, 0
3, 3480.00000, 0.714895, 0.304544, 0.714895, 0.304544, 0.714895, 0.304544, 0, 0
3, 3540.00000, 0.714895, 0.304544, 0.714895, 0.304544, 0.714895, 0.304544, 0, 0
4, 0.00000, 0.714895, 0.304544, 0.714895, 0.304544, 0.714895, 0.304544, 0, 0
4, 60.00000, 0.764773, 0.325792, 0.764773, 0.325792, 0.764772, 0.325792, 0, 0
4, 120.00000, 0.764773, 0.325792, 0.764773, 0.325792, 0.764773, 0.325792, 0, 0
4, 180.00000, 0.764773, 0.325792, 0.764773, 0.325792, 0.764773, 0.325792, 0, 0
4, 240.00000, 0.764773, 0.325792, 0.764773, 0.325792, 0.764773, 0.325792, 0, 0
4, 300.00000, 0.764773, 0.325792, 0.764773, 0.325792, 0.764773, 0.325792, 0, 0
4, 360.00000, 0.764773, 0.325792, 0.764773, 0.325792, 0.764773, 0.325792, 0, 0
4, 420.00000, 0.764773, 0.325792, 0.764773, 0.325792, 0.764773, 0.325792, 0, 0
4, 480.00000, 0.764773, 0.325792, 0.764773, 0.325792, 0.764773, 0.325792, 0, 0
4, 540.00000, 0.764773, 0.325792, 0.764773, 0.325792, 0.764773, 0.325792, 0, 0
4, 600.00000, 0.764773, 0.325792, 0.764773, 0.325792, 0.764773, 0.325792, 0, 0
4, 660.00000, 0.764773, 0.325792, 0.764773, 0.325792, 0.764773, 0.325792, 0, 0
