hour,t(sec),V1,VAngle1,V2,VAngle2,V3,VAngle3,V4,VAngle4,I1,IAngle1,I2,IAngle2,I3,IAngle3,I4,IAngle4
0, 60.00000, 116.344, -31.0654, 117.299, -151.339, 116.88, 88.4854, 0, 0, 5.09567, -54.1392, 5.14221, -174.413, 5.12183, 65.4118, 0.0270145, -86.871
0, 120.00000, 116.344, -31.0654, 117.299, -151.339, 116.88, 88.4853, 0, 0, 5.09564, -54.1393, 5.14218, -174.413, 5.12178, 65.4114, 0.0269829, -86.8787
0, 180.00000, 116.344, -31.0654, 117.299, -151.339, 116.88, 88.4853, 0, 0, 5.09564, -54.1393, 5.14218, -174.413, 5.12178, 65.4114, 0.0269828, -86.8787
0, 240.00000, 116.344, -31.0654, 117.299, -151.339, 116.88, 88.4853, 0, 0, 5.09564, -54.1393, 5.14218, -174.413, 5.12178, 65.4114, 0.0269828, -86.8787
0, 300.00000, 116.344, -31.0654, 117.299, -151.339, 116.88, 88.4853, 0, 0, 5.09564, -54.1393, 5.14218, -174.413, 5.12178, 65.4114, 0.0269828, -86.8787
0, 360.00000, 116.344, -31.0654, 117.299, -151.339, 116.88, 88.4853, 0, 0, 5.09564, -54.1393, 5.14218, -174.413, 5.12178, 65.4114, 0.0269828, -86.8787
0, 420.00000, 116.344, -31.0654, 117.299, -151.339, 116.88, 88.4853, 0, 0, 5.09564, -54.1393, 5.14218, -174.413, 5.12178, 65.4114, 0.0269828, -86.8787
0, 480.00000, 117.304, -30.9736, 118.239, -151.25, 117.783, 88.5949, 0, 0, 4.47389, -54.0476, 4.51353, -174.324, 4.49422, 65.5205, 0.0223298, -83.6801
0, 540.00000, 117.304, -30.9736, 118.239, -151.25, 117.783, 88.5949, 0, 0, 4.47391, -54.0475, 4.51357, -174.324, 4.49426, 65.521, 0.022346, -83.5682
0, 600.00000, 117.304, -30.9736, 118.239, -151.25, 117.783, 88.5949, 0, 0, 4.47391, -54.0475, 4.51357, -174.324, 4.49426, 65.521, 0.022346, -83.5679
0, 660.00000, 117.304, -30.9736, 118.239, -151.25, 117.783, 88.5949, 0, 0, 4.47391, -54.0475, 4.51357, -174.324, 4.49426, 65.521, 0.022346, -83.5679
0, 720.00000, 117.304, -30.9736, 118.239, -151.25, 117.783, 88.5949, 0, 0, 4.47391, -54.0475, 4.51357, -174.324, 4.49426, 65.521, 0.022346, -83.5679
0, 780.00000, 117.304, -30.9736, 118.239, -151.25, 117.783, 88.5949, 0, 0, 4.47391, -54.0475, 4.51357, -174.324, 4.49426, 65.521, 0.022346, -83.5679
0, 840.00000, 117.304, -30.9736, 118.239, -151.25, 117.783, 88.5949, 0, 0, 4.47391, -54.0475, 4.51357, -174.324, 4.49426, 65.521, 0.022346, -83.5679
0, 900.00000, 117.304, -30.9736, 118.239, -151.25, 117.783, 88.5949, 0, 0, 4.47391, -54.0475, 4.51357, -174.324, 4.49426, 65.521, 0.022346, -83.5679
0, 960.00000, 115.597, -30.5611, 118.245, -151.242, 116.216, 88.0717, 0, 0, 4.40158, -53.6352, 4.51382, -174.316, 4.42783, 64.9981, 0.0238053, -64.1008
0, 1020.00000, 115.597, -30.5611, 118.245, -151.242, 116.216, 88.0717, 0, 0, 4.40154, -53.6351, 4.51382, -174.316, 4.42779, 64.9978, 0.0238057, -64.0425
0, 1080.00000, 115.597, -30.5611, 118.245, -151.242, 116.216, 88.0717, 0, 0, 4.40154, -53.6351, 4.51382, -174.316, 4.42779, 64.9978, 0.0238057, -64.0423
0, 1140.00000, 115.597, -30.5611, 118.245, -151.242, 116.216, 88.0717, 0, 0, 4.40154, -53.6351, 4.51382, -174.316, 4.42779, 64.9978, 0.0238057, -64.0423
0, 1200.00000, 115.597, -30.5611, 118.245, -151.242, 116.216, 88.0717, 0, 0, 4.40154, -53.6351, 4.51382, -174.316, 4.42779, 64.9978, 0.0238057, -64.0423
0, 1260.00000, 115.597, -30.5611, 118.245, -151.242, 116.216, 88.0717, 0, 0, 4.40154, -53.6351, 4.51382, -174.316, 4.42779, 64.9978, 0.0238057, -64.0423
0, 1320.00000, 115.597, -30.5611, 118.245, -151.242, 116.216, 88.0717, 0, 0, 4.40154, -53.6351, 4.51382, -174.316, 4.42779, 64.9978, 0.0238057, -64.0423
0, 1380.00000, 115.597, -30.5611, 118.245, -151.242, 116.216, 88.0717, 0, 0, 4.40154, -53.6351, 4.51382, -174.316, 4.42779, 64.9978, 0.0238057, -64.0423
0, 1440.00000, 115.597, -30.5611, 118.245, -151.242, 116.216, 88.0717, 0, 0, 4.40154, -53.6351, 4.51382, -174.316, 4.42779, 64.9978, 0.0238057, -64.0423
0, 1500.00000, 115.597, -30.5611, 118.245, -151.242, 116.216, 88.0717, 0, 0, 4.40154, -53.6351, 4.51382, -174.316, 4.42779, 64.9978, 0.0238057, -64.0423
0, 1560.00000, 115.597, -30.5611, 118.245, -151.242, 116.216, 88.0717, 0, 0, 4.40154, -53.6351, 4.51382, -174.316, 4.42779, 64.9978, 0.0238057, -64.0423
0, 1620.00000, 115.597, -30.5611, 118.245, -151.242, 116.216, 88.0717, 0, 0, 4.40154, -53.6351, 4.51382, -174.316, 4.42779, 64.9978, 0.0238057, -64.0423
0, 1680.00000, 115.597, -30.5611, 118.245, -151.242, 116.216, 88.0717, 0, 0, 4.40154, -53.6351, 4.51382, -174.316, 4.42779, 64.9978, 0.0238057, -64.0423
0, 1740.00000, 115.597, -30.5611, 118.245, -151.242, 116.216, 88.0717, 0, 0, 4.40154, -53.6351, 4.51382, -174.316, 4.42779, 64.9978, 0.0238057, -64.0423
0, 1800.00000, 114.689, -30.3983, 118.253, -151.235, 115.477, 87.7607, 0, 0, 4.3631, -53.4723, 4.51417, -174.309, 4.39652, 64.6873, 0.0256517, -53.7134
0, 1860.00000, 114.689, -30.3983, 118.253, -151.235, 115.477, 87.7607, 0, 0, 4.36304, -53.4722, 4.51417, -174.309, 4.39647, 64.6868, 0.02566, -53.67
0, 1920.00000, 114.689, -30.3983, 118.253, -151.235, 115.477, 87.7607, 0, 0, 4.36304, -53.4722, 4.51417, -174.309, 4.39647, 64.6868, 0.02566, -53.6699
0, 1980.00000, 114.689, -30.3983, 118.253, -151.235, 115.477, 87.7607, 0, 0, 4.36304, -53.4722, 4.51417, -174.309, 4.39647, 64.6868, 0.02566, -53.6699
0, 2040.00000, 114.689, -30.3983, 118.253, -151.235, 115.477, 87.7607, 0, 0, 4.36304, -53.4722, 4.51417, -174.309, 4.39647, 64.6868, 0.02566, -53.6699
0, 2100.00000, 114.689, -30.3983, 118.253, -151.235, 115.477, 87.7607, 0, 0, 4.36304, -53.4722, 4.51417, -174.309, 4.39647, 64.6868, 0.02566, -53.6699
0, 2160.00000, 114.689, -30.3983, 118.253, -151.235, 115.477, 87.7607, 0, 0, 4.36304, -53.4722, 4.51417, -174.309, 4.39647, 64.6868, 0.02566, -53.6699
0, 2220.00000, 114.689, -30.3983, 118.253, -151.235, 115.477, 87.7607, 0, 0, 4.36304, -53.4722, 4.51417, -174.309, 4.39647, 64.6868, 0.02566, -53.6699
0, 2280.00000, 114.689, -30.3983, 118.253, -151.235, 115.477, 87.7607, 0, 0, 4.36304, -53.4722, 4.51417, -174.309, 4.39647, 64.6868, 0.02566, -53.6699
0, 2340.00000, 114.689, -30.3983, 118.253, -151.235, 115.477, 87.7607, 0, 0, 4.36304, -53.4722, 4.51417, -174.309, 4.39647, 64.6868, 0.02566, -53.6699
0, 2400.00000, 114.689, -30.3983, 118.253, -151.235, 115.477, 87.7607, 0, 0, 4.36304, -53.4722, 4.51417, -174.309, 4.39647, 64.6868, 0.02566, -53.6699
0, 2460.00000, 114.689, -30.3983, 118.253, -151.235, 115.477, 87.7607, 0, 0, 4.36304, -53.4722, 4.51417, -174.309, 4.39647, 64.6868, 0.02566, -53.6699
0, 2520.00000, 114.689, -30.3983, 118.253, -151.235, 115.477, 87.7607, 0, 0, 4.36304, -53.4722, 4.51417, -174.309, 4.39647, 64.6868, 0.02566, -53.6699
0, 2580.00000, 114.689, -30.3983, 118.253, -151.235, 115.477, 87.7607, 0, 0, 4.36304, -53.4722, 4.51417, -174.309, 4.39647, 64.6868, 0.02566, -53.6699
0, 2640.00000, 114.689, -30.3983, 118.253, -151.235, 115.477, 87.7607, 0, 0, 4.36304, -53.4722, 4.51417, -174.309, 4.39647, 64.6868, 0.02566, -53.6699
0, 2700.00000, 114.689, -30.3983, 118.253, -151.235, 115.477, 87.7607, 0, 0, 4.36304, -53.4722, 4.51417, -174.309, 4.39647, 64.6868, 0.02566, -53.6699
0, 2760.00000, 115.039, -30.3836, 118.252, -151.236, 115.631, 87.9178, 0, 0, 4.37787, -53.4577, 4.51415, -174.31, 4.40296, 64.8436, 0.0246423, -56.4833
0, 2820.00000, 115.039, -30.3836, 118.252, -151.237, 115.631, 87.9178, 0, 0, 4.3779, -53.4575, 4.51415, -174.31, 4.40299, 64.8439, 0.0246553, -56.5835
0, 2880.00000, 115.039, -30.3836, 118.252, -151.237, 115.631, 87.9178, 0, 0, 4.3779, -53.4575, 4.51415, -174.31, 4.40299, 64.8439, 0.0246554, -56.584
0, 2940.00000, 115.039, -30.3836, 118.252, -151.237, 115.631, 87.9178, 0, 0, 4.3779, -53.4575, 4.51415, -174.31, 4.40299, 64.8439, 0.0246554, -56.584
0, 3000.00000, 115.039, -30.3836, 118.252, -151.237, 115.631, 87.9178, 0, 0, 4.3779, -53.4575, 4.51415, -174.31, 4.40299, 64.8439, 0.0246554, -56.584
0, 3060.00000, 115.039, -30.3836, 118.252, -151.237, 115.631, 87.9178, 0, 0, 4.3779, -53.4575, 4.51415, -174.31, 4.40299, 64.8439, 0.0246554, -56.584
0, 3120.00000, 115.039, -30.3836, 118.252, -151.237, 115.631, 87.9178, 0, 0, 4.3779, -53.4575, 4.51415, -174.31, 4.40299, 64.8439, 0.0246554, -56.584
0, 3180.00000, 115.039, -30.3836, 118.252, -151.237, 115.631, 87.9178, 0, 0, 4.3779, -53.4575, 4.51415, -174.31, 4.40299, 64.8439, 0.0246554, -56.584
0, 3240.00000, 115.039, -30.3836, 118.252, -151.237, 115.631, 87.9178, 0, 0, 4.3779, -53.4575, 4.51415, -174.31, 4.40299, 64.8439, 0.0246554, -56.584
0, 3300.00000, 115.039, -30.3836, 118.252, -151.237, 115.631, 87.9178, 0, 0, 4.3779, -53.4575, 4.51415, -174.31, 4.40299, 64.8439, 0.0246554, -56.584
0, 3360.00000, 115.039, -30.3836, 118.252, -151.237, 115.631, 87.9178, 0, 0, 4.3779, -53.4575, 4.51415, -174.31, 4.40299, 64.8439, 0.0246554, -56.584
0, 3420.00000, 115.039, -30.3836, 118.252, -151.237, 115.631, 87.9178, 0, 0, 4.3779, -53.4575, 4.51415, -174.31, 4.40299, 64.8439, 0.0246554, -56.584
0, 3480.00000, 115.039, -30.3836, 118.252, -151.237, 115.631, 87.9178, 0, 0, 4.3779, -53.4575, 4.51415, -174.31, 4.40299, 64.8439, 0.0246554, -56.584
0, 3540.00000, 115.039, -30.3836, 118.252, -151.237, 115.631, 87.9178, 0, 0, 4.3779, -53.4575, 4.51415, -174.31, 4.40299, 64.8439, 0.0246554, -56.584
1, 0.00000, 115.039, -30.3836, 118.252, -151.237, 115.631, 87.9178, 0, 0, 4.3779, -53.4575, 4.51415, -174.31, 4.40299, 64.8439, 0.0246554, -56.584
1, 60.00000, 115.336, -30.3592, 118.253, -151.238, 115.737, 88.0555, 0, 0, 4.39045, -53.4333, 4.51418, -174.312, 4.40748, 64.9815, 0.0237016, -58.6417
1, 120.00000, 115.336, -30.3592, 118.253, -151.238, 115.737, 88.0555, 0, 0, 4.39047, -53.4331, 4.51418, -174.312, 4.4075, 64.9816, 0.0237032, -58.7143
1, 180.00000, 115.336, -30.3592, 118.253, -151.238, 115.737, 88.0555, 0, 0, 4.39047, -53.4331, 4.51418, -174.312, 4.4075, 64.9816, 0.0237032, -58.7146
1, 240.00000, 115.336, -30.3592, 118.253, -151.238, 115.737, 88.0555, 0, 0, 4.39047, -53.4331, 4.51418, -174.312, 4.4075, 64.9816, 0.0237032, -58.7146
1, 300.00000, 115.336, -30.3592, 118.253, -151.238, 115.737, 88.0555, 0, 0, 4.39047, -53.4331, 4.51418, -174.312, 4.4075, 64.9816, 0.0237032, -58.7146
1, 360.00000, 115.336, -30.3592, 118.253, -151.238, 115.737, 88.0555, 0, 0, 4.39047, -53.4331, 4.51418, -174.312, 4.4075, 64.9816, 0.0237032, -58.7146
1, 420.00000, 115.336, -30.3592, 118.253, -151.238, 115.737, 88.0555, 0, 0, 4.39047, -53.4331, 4.51418, -174.312, 4.4075, 64.9816, 0.0237032, -58.7146
1, 480.00000, 115.336, -30.3592, 118.253, -151.238, 115.737, 88.0555, 0, 0, 4.39047, -53.4331, 4.51418, -174.312, 4.4075, 64.9816, 0.0237032, -58.7146
1, 540.00000, 115.336, -30.3592, 118.253, -151.238, 115.737, 88.0555, 0, 0, 4.39047, -53.4331, 4.51418, -174.312, 4.4075, 64.9816, 0.0237032, -58.7146
1, 600.00000, 115.336, -30.3592, 118.253, -151.238, 115.737, 88.0555, 0, 0, 4.39047, -53.4331, 4.51418, -174.312, 4.4075, 64.9816, 0.0237032, -58.7146
1, 660.00000, 115.336, -30.3592, 118.253, -151.238, 115.737, 88.0555, 0, 0, 4.39047, -53.4331, 4.51418, -174.312, 4.4075, 64.9816, 0.0237032, -58.7146
1, 720.00000, 115.336, -30.3592, 118.253, -151.238, 115.737, 88.0555, 0, 0, 4.39047, -53.4331, 4.51418, -174.312, 4.4075, 64.9816, 0.0237032, -58.7146
1, 780.00000, 115.842, -30.3854, 118.257, -151.239, 116.023, 88.26, 0, 0, 4.41191, -53.4594, 4.51434, -174.313, 4.4196, 65.186, 0.0221689, -61.6902
1, 840.00000, 115.842, -30.3854, 118.257, -151.239, 116.023, 88.26, 0, 0, 4.41194, -53.4593, 4.51433, -174.313, 4.41961, 65.1861, 0.0221519, -61.7559
1, 900.00000, 115.842, -30.3854, 118.257, -151.239, 116.023, 88.26, 0, 0, 4.41194, -53.4593, 4.51433, -174.313, 4.41961, 65.1861, 0.0221518, -61.7563
1, 960.00000, 115.842, -30.3854, 118.257, -151.239, 116.023, 88.26, 0, 0, 4.41194, -53.4593, 4.51433, -174.313, 4.41961, 65.1861, 0.0221518, -61.7563
1, 1020.00000, 115.842, -30.3854, 118.257, -151.239, 116.023, 88.26, 0, 0, 4.41194, -53.4593, 4.51433, -174.313, 4.41961, 65.1861, 0.0221518, -61.7563
1, 1080.00000, 115.842, -30.3854, 118.257, -151.239, 116.023, 88.26, 0, 0, 4.41194, -53.4593, 4.51433, -174.313, 4.41961, 65.1861, 0.0221518, -61.7563
1, 1140.00000, 115.842, -30.3854, 118.257, -151.239, 116.023, 88.26, 0, 0, 4.41194, -53.4593, 4.51433, -174.313, 4.41961, 65.1861, 0.0221518, -61.7563
1, 1200.00000, 115.842, -30.3854, 118.257, -151.239, 116.023, 88.26, 0, 0, 4.41194, -53.4593, 4.51433, -174.313, 4.41961, 65.1861, 0.0221518, -61.7563
1, 1260.00000, 115.842, -30.3854, 118.257, -151.239, 116.023, 88.26, 0, 0, 4.41194, -53.4593, 4.51433, -174.313, 4.41961, 65.1861, 0.0221518, -61.7563
1, 1320.00000, 115.842, -30.3854, 118.257, -151.239, 116.023, 88.26, 0, 0, 4.41194, -53.4593, 4.51433, -174.313, 4.41961, 65.1861, 0.0221518, -61.7563
1, 1380.00000, 115.842, -30.3854, 118.257, -151.239, 116.023, 88.26, 0, 0, 4.41194, -53.4593, 4.51433, -174.313, 4.41961, 65.1861, 0.0221518, -61.7563
1, 1440.00000, 115.842, -30.3854, 118.257, -151.239, 116.023, 88.26, 0, 0, 4.41194, -53.4593, 4.51433, -174.313, 4.41961, 65.1861, 0.0221518, -61.7563
1, 1500.00000, 115.842, -30.3854, 118.257, -151.239, 116.023, 88.26, 0, 0, 4.41194, -53.4593, 4.51433, -174.313, 4.41961, 65.1861, 0.0221518, -61.7563
1, 1560.00000, 115.842, -30.3854, 118.257, -151.239, 116.023, 88.26, 0, 0, 4.41194, -53.4593, 4.51433, -174.313, 4.41961, 65.1861, 0.0221518, -61.7563
1, 1620.00000, 115.842, -30.3854, 118.257, -151.239, 116.023, 88.26, 0, 0, 4.41194, -53.4593, 4.51433, -174.313, 4.41961, 65.1861, 0.0221518, -61.7563
1, 1680.00000, 115.842, -30.3854, 118.257, -151.239, 116.023, 88.26, 0, 0, 4.41194, -53.4593, 4.51433, -174.313, 4.41961, 65.1861, 0.0221518, -61.7563
1, 1740.00000, 115.842, -30.3854, 118.257, -151.239, 116.023, 88.26, 0, 0, 4.41194, -53.4593, 4.51433, -174.313, 4.41961, 65.1861, 0.0221518, -61.7563
1, 1800.00000, 115.842, -30.3854, 118.257, -151.239, 116.023, 88.26, 0, 0, 4.41194, -53.4593, 4.51433, -174.313, 4.41961, 65.1861, 0.0221518, -61.7563
1, 1860.00000, 115.842, -30.3854, 118.257, -151.239, 116.023, 88.26, 0, 0, 4.41194, -53.4593, 4.51433, -174.313, 4.41961, 65.1861, 0.0221518, -61.7563
1, 1920.00000, 115.842, -30.3854, 118.257, -151.239, 116.023, 88.26, 0, 0, 4.41194, -53.4593, 4.51433, -174.313, 4.41961, 65.1861, 0.0221518, -61.7563
1, 1980.00000, 115.842, -30.3854, 118.257, -151.239, 116.023, 88.26, 0, 0, 4.41194, -53.4593, 4.51433, -174.313, 4.41961, 65.1861, 0.0221518, -61.7563
1, 2040.00000, 115.842, -30.3854, 118.257, -151.239, 116.023, 88.26, 0, 0, 4.41194, -53.4593, 4.51433, -174.313, 4.41961, 65.1861, 0.0221518, -61.7563
1, 2100.00000, 115.842, -30.3854, 118.257, -151.239, 116.023, 88.26, 0, 0, 4.41194, -53.4593, 4.51433, -174.313, 4.41961, 65.1861, 0.0221518, -61.7563
1, 2160.00000, 115.842, -30.3854, 118.257, -151.239, 116.023, 88.26, 0, 0, 4.41194, -53.4593, 4.51433, -174.313, 4.41961, 65.1861, 0.0221518, -61.7563
1, 2220.00000, 116.776, -30.543, 118.247, -151.245, 116.769, 88.5725, 0, 0, 4.45152, -53.617, 4.51393, -174.319, 4.45125, 65.4985, 0.0204437, -75.2824
1, 2280.00000, 116.776, -30.543, 118.247, -151.245, 116.769, 88.5725, 0, 0, 4.45156, -53.6169, 4.51392, -174.319, 4.45127, 65.4986, 0.020428, -75.3789
1, 2340.00000, 116.776, -30.543, 118.247, -151.245, 116.769, 88.5725, 0, 0, 4.45156, -53.6169, 4.51392, -174.319, 4.45127, 65.4986, 0.020428, -75.3794
1, 2400.00000, 116.776, -30.543, 118.247, -151.245, 116.769, 88.5725, 0, 0, 4.45156, -53.6169, 4.51392, -174.319, 4.45127, 65.4986, 0.020428, -75.3794
1, 2460.00000, 116.776, -30.543, 118.247, -151.245, 116.769, 88.5725, 0, 0, 4.45156, -53.6169, 4.51392, -174.319, 4.45127, 65.4986, 0.020428, -75.3794
1, 2520.00000, 116.776, -30.543, 118.247, -151.245, 116.769, 88.5725, 0, 0, 4.45156, -53.6169, 4.51392, -174.319, 4.45127, 65.4986, 0.020428, -75.3794
1, 2580.00000, 116.776, -30.543, 118.247, -151.245, 116.769, 88.5725, 0, 0, 4.45156, -53.6169, 4.51392, -174.319, 4.45127, 65.4986, 0.020428, -75.3794
1, 2640.00000, 116.776, -30.543, 118.247, -151.245, 116.769, 88.5725, 0, 0, 4.45156, -53.6169, 4.51392, -174.319, 4.45127, 65.4986, 0.020428, -75.3794
1, 2700.00000, 116.776, -30.543, 118.247, -151.245, 116.769, 88.5725, 0, 0, 4.45156, -53.6169, 4.51392, -174.319, 4.45127, 65.4986, 0.020428, -75.3794
1, 2760.00000, 116.776, -30.543, 118.247, -151.245, 116.769, 88.5725, 0, 0, 4.45156, -53.6169, 4.51392, -174.319, 4.45127, 65.4986, 0.020428, -75.3794
1, 2820.00000, 116.776, -30.543, 118.247, -151.245, 116.769, 88.5725, 0, 0, 4.45156, -53.6169, 4.51392, -174.319, 4.45127, 65.4986, 0.020428, -75.3794
1, 2880.00000, 116.776, -30.543, 118.247, -151.245, 116.769, 88.5725, 0, 0, 4.45156, -53.6169, 4.51392, -174.319, 4.45127, 65.4986, 0.020428, -75.3794
1, 2940.00000, 116.776, -30.543, 118.247, -151.245, 116.769, 88.5725, 0, 0, 4.45156, -53.6169, 4.51392, -174.319, 4.45127, 65.4986, 0.020428, -75.3794
1, 3000.00000, 116.776, -30.543, 118.247, -151.245, 116.769, 88.5725, 0, 0, 4.45156, -53.6169, 4.51392, -174.319, 4.45127, 65.4986, 0.020428, -75.3794
1, 3060.00000, 116.776, -30.543, 118.247, -151.245, 116.769, 88.5725, 0, 0, 4.45156, -53.6169, 4.51392, -174.319, 4.45127, 65.4986, 0.020428, -75.3794
1, 3120.00000, 116.776, -30.543, 118.247, -151.245, 116.769, 88.5725, 0, 0, 4.45156, -53.6169, 4.51392, -174.319, 4.45127, 65.4986, 0.020428, -75.3794
1, 3180.00000, 116.776, -30.543, 118.247, -151.245, 116.769, 88.5725, 0, 0, 4.45156, -53.6169, 4.51392, -174.319, 4.45127, 65.4986, 0.020428, -75.3794
1, 3240.00000, 116.776, -30.543, 118.247, -151.245, 116.769, 88.5725, 0, 0, 4.45156, -53.6169, 4.51392, -174.319, 4.45127, 65.4986, 0.020428, -75.3794
1, 3300.00000, 116.776, -30.543, 118.247, -151.245, 116.769, 88.5725, 0, 0, 4.45156, -53.6169, 4.51392, -174.319, 4.45127, 65.4986, 0.020428, -75.3794
1, 3360.00000, 116.776, -30.543, 118.247, -151.245, 116.769, 88.5725, 0, 0, 4.45156, -53.6169, 4.51392, -174.319, 4.45127, 65.4986, 0.020428, -75.3794
1, 3420.00000, 116.776, -30.543, 118.247, -151.245, 116.769, 88.5725, 0, 0, 4.45156, -53.6169, 4.51392, -174.319, 4.45127, 65.4986, 0.020428, -75.3794
1, 3480.00000, 116.776, -30.543, 118.247, -151.245, 116.769, 88.5725, 0, 0, 4.45156, -53.6169, 4.51392, -174.319, 4.45127, 65.4986, 0.020428, -75.3794
1, 3540.00000, 116.776, -30.543, 118.247, -151.245, 116.769, 88.5725, 0, 0, 4.45156, -53.6169, 4.51392, -174.319, 4.45127, 65.4986, 0.020428, -75.3794
2, 0.00000, 116.776, -30.543, 118.247, -151.245, 116.769, 88.5725, 0, 0, 4.45156, -53.6169, 4.51392, -174.319, 4.45127, 65.4986, 0.020428, -75.3794
2, 60.00000, 116.776, -30.543, 118.247, -151.245, 116.769, 88.5725, 0, 0, 4.45156, -53.6169, 4.51392, -174.319, 4.45127, 65.4986, 0.020428, -75.3794
2, 120.00000, 116.776, -30.543, 118.247, -151.245, 116.769, 88.5725, 0, 0, 4.45156, -53.6169, 4.51392, -174.319, 4.45127, 65.4986, 0.020428, -75.3794
2, 180.00000, 116.776, -30.543, 118.247, -151.245, 116.769, 88.5725, 0, 0, 4.45156, -53.6169, 4.51392, -174.319, 4.45127, 65.4986, 0.020428, -75.3794
2, 240.00000, 116.776, -30.543, 118.247, -151.245, 116.769, 88.5725, 0, 0, 4.45156, -53.6169, 4.51392, -174.319, 4.45127, 65.4986, 0.020428, -75.3794
2, 300.00000, 116.776, -30.543, 118.247, -151.245, 116.769, 88.5725, 0, 0, 4.45156, -53.6169, 4.51392, -174.319, 4.45127, 65.4986, 0.020428, -75.3794
2, 360.00000, 116.776, -30.543, 118.247, -151.245, 116.769, 88.5725, 0, 0, 4.45156, -53.6169, 4.51392, -174.319, 4.45127, 65.4986, 0.020428, -75.3794
2, 420.00000, 116.776, -30.543, 118.247, -151.245, 116.769, 88.5725, 0, 0, 4.45156, -53.6169, 4.51392, -174.319, 4.45127, 65.4986, 0.020428, -75.3794
2, 480.00000, 116.776, -30.543, 118.247, -151.245, 116.769, 88.5725, 0, 0, 4.45156, -53.6169, 4.51392, -174.319, 4.45127, 65.4986, 0.020428, -75.3794
2, 540.00000, 116.776, -30.543, 118.247, -151.245, 116.769, 88.5725, 0, 0, 4.45156, -53.6169, 4.51392, -174.319, 4.45127, 65.4986, 0.020428, -75.3794
2, 600.00000, 116.776, -30.543, 118.247, -151.245, 116.769, 88.5725, 0, 0, 4.45156, -53.6169, 4.51392, -174.319, 4.45127, 65.4986, 0.020428, -75.3794
2, 660.00000, 116.776, -30.543, 118.247, -151.245, 116.769, 88.5725, 0, 0, 4.45156, -53.6169, 4.51392, -174.319, 4.45127, 65.4986, 0.020428, -75.3794
