hour,t(sec),"P1 (kW)","Q1 (kvar)","P2 (kW)","Q2 (kvar)","P3 (kW)","Q3 (kvar)","P4 (kW)","Q4 (kvar)"
0, 60.00000, 0.89419, 0.380913, 0.905084, 0.385569, 0.90859, 0.387048, 0, 0
0, 120.00000, 0.89418, 0.380919, 0.905074, 0.38556, 0.908544, 0.387038, 0, 0
0, 180.00000, 0.89418, 0.380919, 0.905074, 0.38556, 0.908544, 0.387038, 0, 0
0, 240.00000, 0.89418, 0.380919, 0.905074, 0.38556, 0.908544, 0.387038, 0, 0
0, 300.00000, 0.89418, 0.380919, 0.905074, 0.38556, 0.908544, 0.387038, 0, 0
0, 360.00000, 0.89418, 0.380919, 0.905074, 0.38556, 0.908544, 0.387038, 0, 0
0, 420.00000, 0.89418, 0.380919, 0.905074, 0.38556, 0.908544, 0.387038, 0, 0
0, 480.00000, 0.89418, 0.380919, 0.905074, 0.38556, 0.908544, 0.387038, 0, 0
0, 540.00000, 0.89418, 0.380919, 0.905074, 0.38556, 0.908544, 0.387038, 0, 0
0, 600.00000, 0.89418, 0.380919, 0.905074, 0.38556, 0.908544, 0.387038, 0, 0
0, 660.00000, 0.89418, 0.380919, 0.905074, 0.38556, 0.908544, 0.387038, 0, 0
0, 720.00000, 0.89418, 0.380919, 0.905074, 0.38556, 0.908544, 0.387038, 0, 0
0, 780.00000, 0.89418, 0.380919, 0.905074, 0.38556, 0.908544, 0.387038, 0, 0
0, 840.00000, 0.89418, 0.380919, 0.905074, 0.38556, 0.908544, 0.387038, 0, 0
0, 900.00000, 0.89418, 0.380919, 0.905074, 0.38556, 0.908544, 0.387038, 0, 0
0, 960.00000, 0.93891, 0.399968, 0.947091, 0.403458, 0.957473, 0.40788, 0, 0
0, 1020.00000, 0.938903, 0.399971, 0.94708, 0.403454, 0.95747, 0.40788, 0, 0
0, 1080.00000, 0.938903, 0.399971, 0.94708, 0.403454, 0.95747, 0.40788, 0, 0
0, 1140.00000, 0.938903, 0.399971, 0.94708, 0.403454, 0.95747, 0.40788, 0, 0
0, 1200.00000, 0.938903, 0.399971, 0.94708, 0.403454, 0.95747, 0.40788, 0, 0
0, 1260.00000, 0.938903, 0.399971, 0.94708, 0.403454, 0.95747, 0.40788, 0, 0
0, 1320.00000, 0.938903, 0.399971, 0.94708, 0.403454, 0.95747, 0.40788, 0, 0
0, 1380.00000, 0.938903, 0.399971, 0.94708, 0.403454, 0.95747, 0.40788, 0, 0
0, 1440.00000, 0.938903, 0.399971, 0.94708, 0.403454, 0.95747, 0.40788, 0, 0
0, 1500.00000, 0.938903, 0.399971, 0.94708, 0.403454, 0.95747, 0.40788, 0, 0
0, 1560.00000, 0.938903, 0.399971, 0.94708, 0.403454, 0.95747, 0.40788, 0, 0
0, 1620.00000, 0.938903, 0.399971, 0.94708, 0.403454, 0.95747, 0.40788, 0, 0
0, 1680.00000, 0.938903, 0.399971, 0.94708, 0.403454, 0.95747, 0.40788, 0, 0
0, 1740.00000, 0.938903, 0.399971, 0.94708, 0.403454, 0.95747, 0.40788, 0, 0
0, 1800.00000, 0.938903, 0.399971, 0.94708, 0.403454, 0.95747, 0.40788, 0, 0
0, 1860.00000, 0.944276, 0.402265, 0.952363, 0.405709, 0.962765, 0.410165, 0, 0
0, 1920.00000, 0.944283, 0.402263, 0.952402, 0.405722, 0.962833, 0.410165, 0, 0
0, 1980.00000, 0.944284, 0.402263, 0.952403, 0.405722, 0.962833, 0.410165, 0, 0
0, 2040.00000, 0.944284, 0.402263, 0.952403, 0.405722, 0.962833, 0.410165, 0, 0
0, 2100.00000, 0.944284, 0.402263, 0.952403, 0.405722, 0.962833, 0.410165, 0, 0
0, 2160.00000, 0.944284, 0.402263, 0.952403, 0.405722, 0.962833, 0.410165, 0, 0
0, 2220.00000, 0.944284, 0.402263, 0.952403, 0.405722, 0.962833, 0.410165, 0, 0
0, 2280.00000, 0.944284, 0.402263, 0.952403, 0.405722, 0.962833, 0.410165, 0, 0
0, 2340.00000, 0.944284, 0.402263, 0.952403, 0.405722, 0.962833, 0.410165, 0, 0
0, 2400.00000, 0.944284, 0.402263, 0.952403, 0.405722, 0.962833, 0.410165, 0, 0
0, 2460.00000, 0.944284, 0.402263, 0.952403, 0.405722, 0.962833, 0.410165, 0, 0
0, 2520.00000, 0.944284, 0.402263, 0.952403, 0.405722, 0.962833, 0.410165, 0, 0
0, 2580.00000, 0.944284, 0.402263, 0.952403, 0.405722, 0.962833, 0.410165, 0, 0
0, 2640.00000, 0.944284, 0.402263, 0.952403, 0.405722, 0.962833, 0.410165, 0, 0
0, 2700.00000, 0.944284, 0.402263, 0.952403, 0.405722, 0.962833, 0.410165, 0, 0
0, 2760.00000, 0.903493, 0.384893, 0.911011, 0.388082, 0.917322, 0.390783, 0, 0
0, 2820.00000, 0.903492, 0.384886, 0.911012, 0.388089, 0.917298, 0.390767, 0, 0
0, 2880.00000, 0.903492, 0.384886, 0.911012, 0.388089, 0.917298, 0.390767, 0, 0
0, 2940.00000, 0.903492, 0.384886, 0.911012, 0.388089, 0.917298, 0.390767, 0, 0
0, 3000.00000, 0.903492, 0.384886, 0.911012, 0.388089, 0.917298, 0.390767, 0, 0
0, 3060.00000, 0.903492, 0.384886, 0.911012, 0.388089, 0.917298, 0.390767, 0, 0
0, 3120.00000, 0.903492, 0.384886, 0.911012, 0.388089, 0.917298, 0.390767, 0, 0
0, 3180.00000, 0.903492, 0.384886, 0.911012, 0.388089, 0.917298, 0.390767, 0, 0
0, 3240.00000, 0.903492, 0.384886, 0.911012, 0.388089, 0.917298, 0.390767, 0, 0
0, 3300.00000, 0.903492, 0.384886, 0.911012, 0.388089, 0.917298, 0.390767, 0, 0
0, 3360.00000, 0.903492, 0.384886, 0.911012, 0.388089, 0.917298, 0.390767, 0, 0
0, 3420.00000, 0.903492, 0.384886, 0.911012, 0.388089, 0.917298, 0.390767, 0, 0
0, 3480.00000, 0.903492, 0.384886, 0.911012, 0.388089, 0.917298, 0.390767, 0, 0
0, 3540.00000, 0.903492, 0.384886, 0.911012, 0.388089, 0.917298, 0.390767, 0, 0
1, 0.00000, 0.903492, 0.384886, 0.911012, 0.388089, 0.917298, 0.390767, 0, 0
1, 60.00000, 0.896855, 0.382065, 0.90411, 0.385142, 0.906598, 0.386214, 0, 0
1, 120.00000, 0.896854, 0.382058, 0.904108, 0.385148, 0.906574, 0.386199, 0, 0
1, 180.00000, 0.896854, 0.382058, 0.904108, 0.385148, 0.906574, 0.386199, 0, 0
1, 240.00000, 0.896854, 0.382058, 0.904108, 0.385148, 0.906574, 0.386199, 0, 0
1, 300.00000, 0.896854, 0.382058, 0.904108, 0.385148, 0.906574, 0.386199, 0, 0
1, 360.00000, 0.896854, 0.382058, 0.904108, 0.385148, 0.906574, 0.386199, 0, 0
1, 420.00000, 0.896854, 0.382058, 0.904108, 0.385148, 0.906574, 0.386199, 0, 0
1, 480.00000, 0.896854, 0.382058, 0.904108, 0.385148, 0.906574, 0.386199, 0, 0
1, 540.00000, 0.896854, 0.382058, 0.904108, 0.385148, 0.906574, 0.386199, 0, 0
1, 600.00000, 0.896854, 0.382058, 0.904108, 0.385148, 0.906574, 0.386199, 0, 0
1, 660.00000, 0.896854, 0.382058, 0.904108, 0.385148, 0.906574, 0.386199, 0, 0
1, 720.00000, 0.896854, 0.382058, 0.904108, 0.385148, 0.906574, 0.386199, 0, 0
1, 780.00000, 0.896854, 0.382058, 0.904108, 0.385148, 0.906574, 0.386199, 0, 0
1, 840.00000, 0.896854, 0.382058, 0.904108, 0.385148, 0.906574, 0.386199, 0, 0
1, 900.00000, 0.896854, 0.382058, 0.904108, 0.385148, 0.906574, 0.386199, 0, 0
1, 960.00000, 0.893053, 0.380446, 0.900259, 0.383506, 0.902356, 0.384411, 0, 0
1, 1020.00000, 0.893061, 0.380442, 0.900265, 0.383511, 0.902331, 0.384392, 0, 0
1, 1080.00000, 0.893061, 0.380442, 0.900265, 0.383511, 0.902331, 0.384391, 0, 0
1, 1140.00000, 0.893061, 0.380442, 0.900265, 0.383511, 0.902331, 0.384391, 0, 0
1, 1200.00000, 0.893061, 0.380442, 0.900265, 0.383511, 0.902331, 0.384391, 0, 0
1, 1260.00000, 0.893061, 0.380442, 0.900265, 0.383511, 0.902331, 0.384391, 0, 0
1, 1320.00000, 0.893061, 0.380442, 0.900265, 0.383511, 0.902331, 0.384391, 0, 0
1, 1380.00000, 0.893061, 0.380442, 0.900265, 0.383511, 0.902331, 0.384391, 0, 0
1, 1440.00000, 0.893061, 0.380442, 0.900265, 0.383511, 0.902331, 0.384391, 0, 0
1, 1500.00000, 0.893061, 0.380442, 0.900265, 0.383511, 0.902331, 0.384391, 0, 0
1, 1560.00000, 0.893061, 0.380442, 0.900265, 0.383511, 0.902331, 0.384391, 0, 0
1, 1620.00000, 0.893061, 0.380442, 0.900265, 0.383511, 0.902331, 0.384391, 0, 0
1, 1680.00000, 0.893061, 0.380442, 0.900265, 0.383511, 0.902331, 0.384391, 0, 0
1, 1740.00000, 0.893061, 0.380442, 0.900265, 0.383511, 0.902331, 0.384391, 0, 0
1, 1800.00000, 0.893061, 0.380442, 0.900265, 0.383511, 0.902331, 0.384391, 0, 0
1, 1860.00000, 0.910806, 0.387996, 0.918354, 0.391224, 0.92407, 0.393648, 0, 0
1, 1920.00000, 0.910807, 0.388002, 0.918355, 0.391218, 0.924093, 0.393662, 0, 0
1, 1980.00000, 0.910807, 0.388002, 0.918355, 0.391218, 0.924093, 0.393662, 0, 0
1, 2040.00000, 0.910807, 0.388002, 0.918355, 0.391218, 0.924093, 0.393662, 0, 0
1, 2100.00000, 0.910807, 0.388002, 0.918355, 0.391218, 0.924093, 0.393662, 0, 0
1, 2160.00000, 0.910807, 0.388002, 0.918355, 0.391218, 0.924093, 0.393662, 0, 0
1, 2220.00000, 0.910807, 0.388002, 0.918355, 0.391218, 0.924093, 0.393662, 0, 0
1, 2280.00000, 0.910807, 0.388002, 0.918355, 0.391218, 0.924093, 0.393662, 0, 0
1, 2340.00000, 0.910807, 0.388002, 0.918355, 0.391218, 0.924093, 0.393662, 0, 0
1, 2400.00000, 0.910807, 0.388002, 0.918355, 0.391218, 0.924093, 0.393662, 0, 0
1, 2460.00000, 0.910807, 0.388002, 0.918355, 0.391218, 0.924093, 0.393662, 0, 0
1, 2520.00000, 0.910807, 0.388002, 0.918355, 0.391218, 0.924093, 0.393662, 0, 0
1, 2580.00000, 0.910807, 0.388002, 0.918355, 0.391218, 0.924093, 0.393662, 0, 0
1, 2640.00000, 0.910807, 0.388002, 0.918355, 0.391218, 0.924093, 0.393662, 0, 0
1, 2700.00000, 0.909673, 0.387516, 0.902259, 0.384366, 0.909674, 0.387511, 0, 0
1, 2760.00000, 0.864264, 0.368178, 0.856628, 0.364923, 0.863724, 0.367947, 0, 0
1, 2820.00000, 0.864273, 0.368179, 0.856631, 0.364923, 0.863732, 0.367948, 0, 0
1, 2880.00000, 0.864273, 0.368179, 0.856631, 0.364923, 0.863732, 0.367948, 0, 0
1, 2940.00000, 0.864273, 0.368179, 0.856631, 0.364923, 0.863732, 0.367948, 0, 0
1, 3000.00000, 0.864273, 0.368179, 0.856631, 0.364923, 0.863732, 0.367948, 0, 0
1, 3060.00000, 0.864273, 0.368179, 0.856631, 0.364923, 0.863732, 0.367948, 0, 0
1, 3120.00000, 0.864273, 0.368179, 0.856631, 0.364923, 0.863732, 0.367948, 0, 0
1, 3180.00000, 0.864273, 0.368179, 0.856631, 0.364923, 0.863732, 0.367948, 0, 0
1, 3240.00000, 0.864273, 0.368179, 0.856631, 0.364923, 0.863732, 0.367948, 0, 0
1, 3300.00000, 0.864273, 0.368179, 0.856631, 0.364923, 0.863732, 0.367948, 0, 0
1, 3360.00000, 0.864273, 0.368179, 0.856631, 0.364923, 0.863732, 0.367948, 0, 0
1, 3420.00000, 0.864273, 0.368179, 0.856631, 0.364923, 0.863732, 0.367948, 0, 0
1, 3480.00000, 0.864273, 0.368179, 0.856631, 0.364923, 0.863732, 0.367948, 0, 0
1, 3540.00000, 0.864273, 0.368179, 0.856631, 0.364923, 0.863732, 0.367948, 0, 0
2, 0.00000, 0.864273, 0.368179, 0.856631, 0.364923, 0.863732, 0.367948, 0, 0
2, 60.00000, 0.883021, 0.376163, 0.875573, 0.372992, 0.882791, 0.376066, 0, 0
2, 120.00000, 0.883016, 0.376163, 0.875572, 0.372992, 0.882786, 0.376065, 0, 0
2, 180.00000, 0.883016, 0.376163, 0.875572, 0.372992, 0.882786, 0.376065, 0, 0
2, 240.00000, 0.883016, 0.376163, 0.875572, 0.372992, 0.882786, 0.376065, 0, 0
2, 300.00000, 0.883016, 0.376163, 0.875572, 0.372992, 0.882786, 0.376065, 0, 0
2, 360.00000, 0.883016, 0.376163, 0.875572, 0.372992, 0.882786, 0.376065, 0, 0
2, 420.00000, 0.883016, 0.376163, 0.875572, 0.372992, 0.882786, 0.376065, 0, 0
2, 480.00000, 0.883016, 0.376163, 0.875572, 0.372992, 0.882786, 0.376065, 0, 0
2, 540.00000, 0.885865, 0.377377, 0.881463, 0.375507, 0.882494, 0.375941, 0, 0
2, 600.00000, 0.885871, 0.377379, 0.881475, 0.375507, 0.882488, 0.375938, 0, 0
2, 660.00000, 0.885871, 0.377379, 0.881475, 0.375507, 0.882488, 0.375938, 0, 0
2, 720.00000, 0.885871, 0.377379, 0.881475, 0.375507, 0.882488, 0.375938, 0, 0
2, 780.00000, 0.885871, 0.377379, 0.881475, 0.375507, 0.882488, 0.375938, 0, 0
2, 840.00000, 0.885871, 0.377379, 0.881475, 0.375507, 0.882488, 0.375938, 0, 0
2, 900.00000, 0.885871, 0.377379, 0.881475, 0.375507, 0.882488, 0.375938, 0, 0
2, 960.00000, 0.8445, 0.359757, 0.839973, 0.357829, 0.840886, 0.358218, 0, 0
2, 1020.00000, 0.844506, 0.359758, 0.839978, 0.357829, 0.84089, 0.358218, 0, 0
2, 1080.00000, 0.844506, 0.359758, 0.839978, 0.357829, 0.84089, 0.358218, 0, 0
2, 1140.00000, 0.844506, 0.359758, 0.839978, 0.357829, 0.84089, 0.358218, 0, 0
2, 1200.00000, 0.844506, 0.359758, 0.839978, 0.357829, 0.84089, 0.358218, 0, 0
2, 1260.00000, 0.844506, 0.359758, 0.839978, 0.357829, 0.84089, 0.358218, 0, 0
2, 1320.00000, 0.844506, 0.359758, 0.839978, 0.357829, 0.84089, 0.358218, 0, 0
2, 1380.00000, 0.844506, 0.359758, 0.839978, 0.357829, 0.84089, 0.358218, 0, 0
2, 1440.00000, 0.844506, 0.359758, 0.839978, 0.357829, 0.84089, 0.358218, 0, 0
2, 1500.00000, 0.844506, 0.359758, 0.839978, 0.357829, 0.84089, 0.358218, 0, 0
2, 1560.00000, 0.844506, 0.359758, 0.839978, 0.357829, 0.84089, 0.358218, 0, 0
2, 1620.00000, 0.844506, 0.359758, 0.839978, 0.357829, 0.84089, 0.358218, 0, 0
2, 1680.00000, 0.844506, 0.359758, 0.839978, 0.357829, 0.84089, 0.358218, 0, 0
2, 1740.00000, 0.844506, 0.359758, 0.839978, 0.357829, 0.84089, 0.358218, 0, 0
2, 1800.00000, 0.844506, 0.359758, 0.839978, 0.357829, 0.84089, 0.358218, 0, 0
2, 1860.00000, 0.842048, 0.358699, 0.837654, 0.356834, 0.838592, 0.357222, 0, 0
2, 1920.00000, 0.842006, 0.358693, 0.837624, 0.356826, 0.838561, 0.357226, 0, 0
2, 1980.00000, 0.842006, 0.358693, 0.837624, 0.356826, 0.838561, 0.357226, 0, 0
2, 2040.00000, 0.842006, 0.358693, 0.837624, 0.356826, 0.838561, 0.357226, 0, 0
2, 2100.00000, 0.842006, 0.358693, 0.837624, 0.356826, 0.838561, 0.357226, 0, 0
2, 2160.00000, 0.842006, 0.358693, 0.837624, 0.356826, 0.838561, 0.357226, 0, 0
2, 2220.00000, 0.842006, 0.358693, 0.837624, 0.356826, 0.838561, 0.357226, 0, 0
2, 2280.00000, 0.842006, 0.358693, 0.837624, 0.356826, 0.838561, 0.357226, 0, 0
2, 2340.00000, 0.842006, 0.358693, 0.837624, 0.356826, 0.838561, 0.357226, 0, 0
2, 2400.00000, 0.842006, 0.358693, 0.837624, 0.356826, 0.838561, 0.357226, 0, 0
2, 2460.00000, 0.842006, 0.358693, 0.837624, 0.356826, 0.838561, 0.357226, 0, 0
2, 2520.00000, 0.842006, 0.358693, 0.837624, 0.356826, 0.838561, 0.357226, 0, 0
2, 2580.00000, 0.842006, 0.358693, 0.837624, 0.356826, 0.838561, 0.357226, 0, 0
2, 2640.00000, 0.842006, 0.358693, 0.837624, 0.356826, 0.838561, 0.357226, 0, 0
2, 2700.00000, 0.842006, 0.358693, 0.837624, 0.356826, 0.838561, 0.357226, 0, 0
2, 2760.00000, 0.810143, 0.345124, 0.806764, 0.343685, 0.807633, 0.344049, 0, 0
2, 2820.00000, 0.81013, 0.345114, 0.806768, 0.343682, 0.80764, 0.344053, 0, 0
2, 2880.00000, 0.810129, 0.345114, 0.806768, 0.343682, 0.80764, 0.344053, 0, 0
2, 2940.00000, 0.810129, 0.345114, 0.806768, 0.343682, 0.80764, 0.344053, 0, 0
2, 3000.00000, 0.810129, 0.345114, 0.806768, 0.343682, 0.80764, 0.344053, 0, 0
2, 3060.00000, 0.810129, 0.345114, 0.806768, 0.343682, 0.80764, 0.344053, 0, 0
2, 3120.00000, 0.810102, 0.345098, 0.810198, 0.345123, 0.810191, 0.345176, 0, 0
2, 3180.00000, 0.810129, 0.345113, 0.81013, 0.345114, 0.81013, 0.345115, 0, 0
2, 3240.00000, 0.810129, 0.345114, 0.810129, 0.345114, 0.810129, 0.345114, 0, 0
2, 3300.00000, 0.810129, 0.345114, 0.810129, 0.345114, 0.810129, 0.345114, 0, 0
2, 3360.00000, 0.810129, 0.345114, 0.810129, 0.345114, 0.810129, 0.345114, 0, 0
2, 3420.00000, 0.810129, 0.345114, 0.810129, 0.345114, 0.810129, 0.345114, 0, 0
2, 3480.00000, 0.810129, 0.345114, 0.810129, 0.345114, 0.810129, 0.345114, 0, 0
2, 3540.00000, 0.810129, 0.345114, 0.810129, 0.345114, 0.810129, 0.345114, 0, 0
3, 0.00000, 0.810129, 0.345114, 0.810129, 0.345114, 0.810129, 0.345114, 0, 0
3, 60.00000, 0.82926, 0.353264, 0.830712, 0.353884, 0.830716, 0.353876, 0, 0
3, 120.00000, 0.829261, 0.353264, 0.830729, 0.353889, 0.830729, 0.353889, 0, 0
3, 180.00000, 0.829261, 0.353264, 0.83073, 0.353889, 0.83073, 0.353889, 0, 0
3, 240.00000, 0.829261, 0.353264, 0.83073, 0.353889, 0.83073, 0.353889, 0, 0
3, 300.00000, 0.829261, 0.353264, 0.83073, 0.353889, 0.83073, 0.353889, 0, 0
3, 360.00000, 0.829261, 0.353264, 0.83073, 0.353889, 0.83073, 0.353889, 0, 0
3, 420.00000, 0.829261, 0.353264, 0.83073, 0.353889, 0.83073, 0.353889, 0, 0
3, 480.00000, 0.829261, 0.353264, 0.83073, 0.353889, 0.83073, 0.353889, 0, 0
3, 540.00000, 0.829261, 0.353264, 0.83073, 0.353889, 0.83073, 0.353889, 0, 0
3, 600.00000, 0.829261, 0.353264, 0.83073, 0.353889, 0.83073, 0.353889, 0, 0
3, 660.00000, 0.829261, 0.353264, 0.83073, 0.353889, 0.83073, 0.353889, 0, 0
3, 720.00000, 0.829261, 0.353264, 0.83073, 0.353889, 0.83073, 0.353889, 0, 0
3, 780.00000, 0.829261, 0.353264, 0.83073, 0.353889, 0.83073, 0.353889, 0, 0
3, 840.00000, 0.829261, 0.353264, 0.83073, 0.353889, 0.83073, 0.353889, 0, 0
3, 900.00000, 0.829261, 0.353264, 0.83073, 0.353889, 0.83073, 0.353889, 0, 0
3, 960.00000, 0.852691, 0.363246, 0.853593, 0.363628, 0.853586, 0.363641, 0, 0
3, 1020.00000, 0.852699, 0.363248, 0.853555, 0.363613, 0.853555, 0.363613, 0, 0
3, 1080.00000, 0.852699, 0.363248, 0.853555, 0.363613, 0.853555, 0.363613, 0, 0
3, 1140.00000, 0.852699, 0.363248, 0.853555, 0.363613, 0.853555, 0.363613, 0, 0
3, 1200.00000, 0.852699, 0.363248, 0.853555, 0.363613, 0.853555, 0.363613, 0, 0
3, 1260.00000, 0.852699, 0.363248, 0.853555, 0.363613, 0.853555, 0.363613, 0, 0
3, 1320.00000, 0.852699, 0.363248, 0.853555, 0.363613, 0.853555, 0.363613, 0, 0
3, 1380.00000, 0.852699, 0.363248, 0.853555, 0.363613, 0.853555, 0.363613, 0, 0
3, 1440.00000, 0.852699, 0.363248, 0.853555, 0.363613, 0.853555, 0.363613, 0, 0
3, 1500.00000, 0.852699, 0.363248, 0.853555, 0.363613, 0.853555, 0.363613, 0, 0
3, 1560.00000, 0.852699, 0.363248, 0.853555, 0.363613, 0.853555, 0.363613, 0, 0
3, 1620.00000, 0.852699, 0.363248, 0.853555, 0.363613, 0.853555, 0.363613, 0, 0
3, 1680.00000, 0.852699, 0.363248, 0.853555, 0.363613, 0.853555, 0.363613, 0, 0
3, 1740.00000, 0.852699, 0.363248, 0.853555, 0.363613, 0.853555, 0.363613, 0, 0
3, 1800.00000, 0.852699, 0.363248, 0.853555, 0.363613, 0.853555, 0.363613, 0, 0
3, 1860.00000, 0.863991, 0.368058, 0.864033, 0.368073, 0.86402, 0.368086, 0, 0
3, 1920.00000, 0.863992, 0.368059, 0.863992, 0.368059, 0.863992, 0.368059, 0, 0
3, 1980.00000, 0.863992, 0.368059, 0.863992, 0.368059, 0.863992, 0.368059, 0, 0
3, 2040.00000, 0.863992, 0.368059, 0.863992, 0.368059, 0.863992, 0.368059, 0, 0
3, 2100.00000, 0.863992, 0.368059, 0.863992, 0.368059, 0.863992, 0.368059, 0, 0
3, 2160.00000, 0.863992, 0.368059, 0.863992, 0.368059, 0.863992, 0.368059, 0, 0
3, 2220.00000, 0.863992, 0.368059, 0.863992, 0.368059, 0.863992, 0.368059, 0, 0
3, 2280.00000, 0.863992, 0.368059, 0.863992, 0.368059, 0.863992, 0.368059, 0, 0
3, 2340.00000, 0.863992, 0.368059, 0.863992, 0.368059, 0.863992, 0.368059, 0, 0
3, 2400.00000, 0.863992, 0.368059, 0.863992, 0.368059, 0.863992, 0.368059, 0, 0
3, 2460.00000, 0.863992, 0.368059, 0.863992, 0.368059, 0.863992, 0.368059, 0, 0
3, 2520.00000, 0.863992, 0.368059, 0.863992, 0.368059, 0.863992, 0.368059, 0, 0
3, 2580.00000, 0.863992, 0.368059, 0.863992, 0.368059, 0.863992, 0.368059, 0, 0
3, 2640.00000, 0.863992, 0.368059, 0.863992, 0.368059, 0.863992, 0.368059, 0, 0
3, 2700.00000, 0.863992, 0.368059, 0.863992, 0.368059, 0.863992, 0.368059, 0, 0
3, 2760.00000, 0.790634, 0.336812, 0.790638, 0.336812, 0.790639, 0.336818, 0, 0
3, 2820.00000, 0.790617, 0.336802, 0.790618, 0.336802, 0.790618, 0.336802, 0, 0
3, 2880.00000, 0.790617, 0.336802, 0.790617, 0.336802, 0.790617, 0.336802, 0, 0
3, 2940.00000, 0.790617, 0.336802, 0.790617, 0.336802, 0.790617, 0.336802, 0, 0
3, 3000.00000, 0.790617, 0.336802, 0.790617, 0.336802, 0.790617, 0.336802, 0, 0
3, 3060.00000, 0.790617, 0.336802, 0.790617, 0.336802, 0.790617, 0.336802, 0, 0
3, 3120.00000, 0.790652, 0.336836, 0.790598, 0.336795, 0.790639, 0.336803, 0, 0
3, 3180.00000, 0.790618, 0.336802, 0.790617, 0.336801, 0.790618, 0.336802, 0, 0
3, 3240.00000, 0.790617, 0.336802, 0.790617, 0.336802, 0.790617, 0.336802, 0, 0
3, 3300.00000, 0.790617, 0.336802, 0.790617, 0.336802, 0.790617, 0.336802, 0, 0
3, 3360.00000, 0.790617, 0.336802, 0.790617, 0.336802, 0.790617, 0.336802, 0, 0
3, 3420.00000, 0.790617, 0.336802, 0.790617, 0.336802, 0.790617, 0.336802, 0, 0
3, 3480.00000, 0.790617, 0.336802, 0.790617, 0.336802, 0.790617, 0.336802, 0, 0
3, 3540.00000, 0.790617, 0.336802, 0.790617, 0.336802, 0.790617, 0.336802, 0, 0
4, 0.00000, 0.790617, 0.336802, 0.790617, 0.336802, 0.790617, 0.336802, 0, 0
4, 60.00000, 0.845763, 0.36029, 0.845766, 0.360293, 0.845762, 0.36029, 0, 0
4, 120.00000, 0.845778, 0.3603, 0.845778, 0.3603, 0.845778, 0.3603, 0, 0
4, 180.00000, 0.845778, 0.3603, 0.845778, 0.3603, 0.845778, 0.3603, 0, 0
4, 240.00000, 0.845778, 0.3603, 0.845778, 0.3603, 0.845778, 0.3603, 0, 0
4, 300.00000, 0.845778, 0.3603, 0.845778, 0.3603, 0.845778, 0.3603, 0, 0
4, 360.00000, 0.845778, 0.3603, 0.845778, 0.3603, 0.845778, 0.3603, 0, 0
4, 420.00000, 0.845778, 0.3603, 0.845778, 0.3603, 0.845778, 0.3603, 0, 0
4, 480.00000, 0.845778, 0.3603, 0.845778, 0.3603, 0.845778, 0.3603, 0, 0
4, 540.00000, 0.845778, 0.3603, 0.845778, 0.3603, 0.845778, 0.3603, 0, 0
4, 600.00000, 0.845778, 0.3603, 0.845778, 0.3603, 0.845778, 0.3603, 0, 0
4, 660.00000, 0.845778, 0.3603, 0.845778, 0.3603, 0.845778, 0.3603, 0, 0
4, 720.00000, 0.845778, 0.3603, 0.845778, 0.3603, 0.845778, 0.3603, 0, 0
