hour,t(sec),"P1 (kW)","Q1 (kvar)","P2 (kW)","Q2 (kvar)","P3 (kW)","Q3 (kvar)","P4 (kW)","Q4 (kvar)"
0, 60.00000, 0.366103, 0.155955, 0.38618, 0.164498, 0.371899, 0.158427, 0, 0
0, 120.00000, 0.366102, 0.155955, 0.386179, 0.164498, 0.371794, 0.158383, 0, 0
0, 180.00000, 0.366101, 0.155955, 0.386178, 0.164499, 0.371699, 0.158342, 0, 0
0, 240.00000, 0.3661, 0.155955, 0.386177, 0.1645, 0.371613, 0.158306, 0, 0
0, 300.00000, 0.366099, 0.155954, 0.386176, 0.164501, 0.371536, 0.158273, 0, 0
0, 360.00000, 0.366098, 0.155954, 0.386176, 0.164501, 0.371465, 0.158243, 0, 0
0, 420.00000, 0.366097, 0.155954, 0.386175, 0.164502, 0.371402, 0.158216, 0, 0
0, 480.00000, 0.335399, 0.142877, 0.348932, 0.148638, 0.339895, 0.144794, 0, 0
0, 540.00000, 0.335398, 0.142877, 0.348931, 0.148638, 0.339847, 0.144774, 0, 0
0, 600.00000, 0.335397, 0.142876, 0.348931, 0.148639, 0.339804, 0.144755, 0, 0
0, 660.00000, 0.335396, 0.142876, 0.34893, 0.148639, 0.339765, 0.144739, 0, 0
0, 720.00000, 0.335395, 0.142876, 0.348929, 0.148639, 0.339729, 0.144724, 0, 0
0, 780.00000, 0.335395, 0.142876, 0.348929, 0.148639, 0.339698, 0.14471, 0, 0
0, 840.00000, 0.335394, 0.142876, 0.348929, 0.148639, 0.339669, 0.144698, 0, 0
0, 900.00000, 0.335394, 0.142876, 0.348928, 0.14864, 0.339644, 0.144687, 0, 0
0, 960.00000, 0.335079, 0.142742, 0.348927, 0.14864, 0.334177, 0.142359, 0, 0
0, 1020.00000, 0.335079, 0.142742, 0.348927, 0.14864, 0.334156, 0.14235, 0, 0
0, 1080.00000, 0.335079, 0.142742, 0.348927, 0.14864, 0.334138, 0.142342, 0, 0
0, 1140.00000, 0.335078, 0.142742, 0.348927, 0.14864, 0.334121, 0.142335, 0, 0
0, 1200.00000, 0.335078, 0.142742, 0.348926, 0.14864, 0.334105, 0.142328, 0, 0
0, 1260.00000, 0.335078, 0.142742, 0.348926, 0.14864, 0.334092, 0.142323, 0, 0
0, 1320.00000, 0.335077, 0.142742, 0.348926, 0.14864, 0.334079, 0.142317, 0, 0
0, 1380.00000, 0.335077, 0.142742, 0.348926, 0.14864, 0.334068, 0.142312, 0, 0
0, 1440.00000, 0.335077, 0.142742, 0.348926, 0.148641, 0.334058, 0.142308, 0, 0
0, 1500.00000, 0.335077, 0.142742, 0.348926, 0.148641, 0.334049, 0.142304, 0, 0
0, 1560.00000, 0.335077, 0.142742, 0.348926, 0.148641, 0.334041, 0.142301, 0, 0
0, 1620.00000, 0.335076, 0.142742, 0.348925, 0.148641, 0.334034, 0.142298, 0, 0
0, 1680.00000, 0.335076, 0.142742, 0.348925, 0.148641, 0.334027, 0.142295, 0, 0
0, 1740.00000, 0.335076, 0.142742, 0.348925, 0.148641, 0.334021, 0.142292, 0, 0
0, 1800.00000, 0.330018, 0.140587, 0.348925, 0.148641, 0.334685, 0.142575, 0, 0
0, 1860.00000, 0.330017, 0.140587, 0.348925, 0.148641, 0.33468, 0.142573, 0, 0
0, 1920.00000, 0.330017, 0.140587, 0.348925, 0.148641, 0.334676, 0.142571, 0, 0
0, 1980.00000, 0.330017, 0.140587, 0.348925, 0.148641, 0.334672, 0.14257, 0, 0
0, 2040.00000, 0.330017, 0.140587, 0.348925, 0.148641, 0.334669, 0.142568, 0, 0
0, 2100.00000, 0.330017, 0.140587, 0.348925, 0.148641, 0.334666, 0.142567, 0, 0
0, 2160.00000, 0.330017, 0.140587, 0.348925, 0.148641, 0.334663, 0.142566, 0, 0
0, 2220.00000, 0.330017, 0.140587, 0.348925, 0.148641, 0.334661, 0.142565, 0, 0
0, 2280.00000, 0.330017, 0.140586, 0.348925, 0.148641, 0.334658, 0.142564, 0, 0
0, 2340.00000, 0.330017, 0.140586, 0.348925, 0.148641, 0.334656, 0.142563, 0, 0
0, 2400.00000, 0.330017, 0.140586, 0.348925, 0.148641, 0.334655, 0.142562, 0, 0
0, 2460.00000, 0.330017, 0.140586, 0.348925, 0.148641, 0.334653, 0.142562, 0, 0
0, 2520.00000, 0.330017, 0.140586, 0.348925, 0.148641, 0.334652, 0.142561, 0, 0
0, 2580.00000, 0.330017, 0.140586, 0.348925, 0.148641, 0.33465, 0.14256, 0, 0
0, 2640.00000, 0.330017, 0.140586, 0.348925, 0.148641, 0.334649, 0.14256, 0, 0
0, 2700.00000, 0.330017, 0.140586, 0.348925, 0.148641, 0.334648, 0.142559, 0, 0
0, 2760.00000, 0.331936, 0.141404, 0.348925, 0.148641, 0.335381, 0.142872, 0, 0
0, 2820.00000, 0.331936, 0.141404, 0.348925, 0.148641, 0.33538, 0.142871, 0, 0
0, 2880.00000, 0.331936, 0.141404, 0.348925, 0.148641, 0.335379, 0.142871, 0, 0
0, 2940.00000, 0.331936, 0.141404, 0.348925, 0.148641, 0.335379, 0.142871, 0, 0
0, 3000.00000, 0.331936, 0.141404, 0.348925, 0.148641, 0.335378, 0.14287, 0, 0
0, 3060.00000, 0.331936, 0.141404, 0.348925, 0.148641, 0.335378, 0.14287, 0, 0
0, 3120.00000, 0.331936, 0.141404, 0.348925, 0.148641, 0.335377, 0.14287, 0, 0
0, 3180.00000, 0.331936, 0.141404, 0.348925, 0.148641, 0.335377, 0.14287, 0, 0
0, 3240.00000, 0.331936, 0.141404, 0.348925, 0.148641, 0.335376, 0.14287, 0, 0
0, 3300.00000, 0.331936, 0.141404, 0.348925, 0.148641, 0.335376, 0.14287, 0, 0
0, 3360.00000, 0.331936, 0.141404, 0.348925, 0.148641, 0.335376, 0.142869, 0, 0
0, 3420.00000, 0.331936, 0.141404, 0.348925, 0.148641, 0.335375, 0.142869, 0, 0
0, 3480.00000, 0.331936, 0.141404, 0.348925, 0.148641, 0.335375, 0.142869, 0, 0
0, 3540.00000, 0.331936, 0.141404, 0.348925, 0.148641, 0.335375, 0.142869, 0, 0
1, 0.00000, 0.331936, 0.141404, 0.348925, 0.148641, 0.335374, 0.142869, 0, 0
1, 60.00000, 0.333691, 0.142152, 0.348925, 0.148641, 0.335933, 0.143107, 0, 0
1, 120.00000, 0.333691, 0.142152, 0.348925, 0.148641, 0.335932, 0.143107, 0, 0
1, 180.00000, 0.333691, 0.142152, 0.348925, 0.148641, 0.335932, 0.143107, 0, 0
1, 240.00000, 0.333691, 0.142152, 0.348925, 0.148641, 0.335932, 0.143107, 0, 0
1, 300.00000, 0.333691, 0.142152, 0.348925, 0.148641, 0.335932, 0.143106, 0, 0
1, 360.00000, 0.333691, 0.142152, 0.348925, 0.148641, 0.335932, 0.143106, 0, 0
1, 420.00000, 0.333691, 0.142152, 0.348925, 0.148641, 0.335932, 0.143106, 0, 0
1, 480.00000, 0.333691, 0.142152, 0.348925, 0.148641, 0.335932, 0.143106, 0, 0
1, 540.00000, 0.333691, 0.142152, 0.348925, 0.148641, 0.335932, 0.143106, 0, 0
1, 600.00000, 0.333691, 0.142152, 0.348925, 0.148641, 0.335932, 0.143106, 0, 0
1, 660.00000, 0.333691, 0.142152, 0.348925, 0.148641, 0.335932, 0.143106, 0, 0
1, 720.00000, 0.333691, 0.142152, 0.348925, 0.148641, 0.335931, 0.143106, 0, 0
1, 780.00000, 0.337113, 0.14361, 0.348925, 0.148641, 0.337974, 0.143976, 0, 0
1, 840.00000, 0.337113, 0.14361, 0.348925, 0.148641, 0.337974, 0.143976, 0, 0
1, 900.00000, 0.337113, 0.14361, 0.348925, 0.148641, 0.337974, 0.143976, 0, 0
1, 960.00000, 0.337113, 0.14361, 0.348925, 0.148641, 0.337974, 0.143976, 0, 0
1, 1020.00000, 0.337113, 0.14361, 0.348925, 0.148641, 0.337974, 0.143976, 0, 0
1, 1080.00000, 0.337113, 0.14361, 0.348925, 0.148641, 0.337974, 0.143976, 0, 0
1, 1140.00000, 0.337113, 0.14361, 0.348925, 0.148641, 0.337974, 0.143976, 0, 0
1, 1200.00000, 0.337113, 0.14361, 0.348925, 0.148641, 0.337974, 0.143976, 0, 0
1, 1260.00000, 0.337113, 0.14361, 0.348925, 0.148641, 0.337974, 0.143976, 0, 0
1, 1320.00000, 0.337113, 0.14361, 0.348925, 0.148641, 0.337974, 0.143976, 0, 0
1, 1380.00000, 0.337113, 0.14361, 0.348925, 0.148641, 0.337974, 0.143976, 0, 0
1, 1440.00000, 0.337113, 0.14361, 0.348925, 0.148641, 0.337974, 0.143976, 0, 0
1, 1500.00000, 0.337113, 0.14361, 0.348925, 0.148641, 0.337974, 0.143976, 0, 0
1, 1560.00000, 0.337113, 0.14361, 0.348925, 0.148641, 0.337974, 0.143976, 0, 0
1, 1620.00000, 0.337113, 0.14361, 0.348925, 0.148641, 0.337974, 0.143976, 0, 0
1, 1680.00000, 0.337113, 0.14361, 0.348925, 0.148641, 0.337974, 0.143976, 0, 0
1, 1740.00000, 0.337113, 0.14361, 0.348925, 0.148641, 0.337974, 0.143976, 0, 0
1, 1800.00000, 0.337113, 0.14361, 0.348925, 0.148641, 0.337974, 0.143976, 0, 0
1, 1860.00000, 0.337113, 0.14361, 0.348925, 0.148641, 0.337974, 0.143976, 0, 0
1, 1920.00000, 0.337113, 0.14361, 0.348925, 0.148641, 0.337974, 0.143976, 0, 0
1, 1980.00000, 0.337113, 0.14361, 0.348925, 0.148641, 0.337974, 0.143976, 0, 0
1, 2040.00000, 0.337113, 0.14361, 0.348925, 0.148641, 0.337974, 0.143976, 0, 0
1, 2100.00000, 0.337113, 0.14361, 0.348925, 0.148641, 0.337974, 0.143976, 0, 0
1, 2160.00000, 0.337113, 0.14361, 0.348925, 0.148641, 0.337974, 0.143976, 0, 0
1, 2220.00000, 0.342274, 0.145808, 0.348925, 0.148641, 0.33728, 0.143681, 0, 0
1, 2280.00000, 0.342274, 0.145808, 0.348925, 0.148641, 0.33728, 0.143681, 0, 0
1, 2340.00000, 0.342274, 0.145808, 0.348925, 0.148641, 0.33728, 0.143681, 0, 0
1, 2400.00000, 0.342274, 0.145808, 0.348925, 0.148641, 0.33728, 0.143681, 0, 0
1, 2460.00000, 0.342274, 0.145808, 0.348925, 0.148641, 0.33728, 0.143681, 0, 0
1, 2520.00000, 0.342274, 0.145808, 0.348925, 0.148641, 0.33728, 0.143681, 0, 0
1, 2580.00000, 0.342274, 0.145808, 0.348925, 0.148641, 0.33728, 0.143681, 0, 0
1, 2640.00000, 0.342274, 0.145808, 0.348925, 0.148641, 0.33728, 0.143681, 0, 0
1, 2700.00000, 0.342274, 0.145808, 0.348925, 0.148641, 0.33728, 0.143681, 0, 0
1, 2760.00000, 0.342274, 0.145808, 0.348925, 0.148641, 0.33728, 0.143681, 0, 0
1, 2820.00000, 0.342274, 0.145808, 0.348925, 0.148641, 0.33728, 0.143681, 0, 0
1, 2880.00000, 0.342274, 0.145808, 0.348925, 0.148641, 0.33728, 0.143681, 0, 0
1, 2940.00000, 0.342274, 0.145808, 0.348925, 0.148641, 0.33728, 0.143681, 0, 0
1, 3000.00000, 0.342274, 0.145808, 0.348925, 0.148641, 0.33728, 0.143681, 0, 0
1, 3060.00000, 0.342274, 0.145808, 0.348925, 0.148641, 0.33728, 0.143681, 0, 0
1, 3120.00000, 0.342274, 0.145808, 0.348925, 0.148641, 0.33728, 0.143681, 0, 0
1, 3180.00000, 0.342274, 0.145808, 0.348925, 0.148641, 0.33728, 0.143681, 0, 0
1, 3240.00000, 0.342274, 0.145808, 0.348925, 0.148641, 0.33728, 0.143681, 0, 0
1, 3300.00000, 0.342274, 0.145808, 0.348925, 0.148641, 0.33728, 0.143681, 0, 0
1, 3360.00000, 0.342274, 0.145808, 0.348925, 0.148641, 0.33728, 0.143681, 0, 0
1, 3420.00000, 0.342274, 0.145808, 0.348925, 0.148641, 0.33728, 0.143681, 0, 0
1, 3480.00000, 0.342274, 0.145808, 0.348925, 0.148641, 0.33728, 0.143681, 0, 0
1, 3540.00000, 0.342274, 0.145808, 0.348925, 0.148641, 0.33728, 0.143681, 0, 0
2, 0.00000, 0.342274, 0.145808, 0.348925, 0.148641, 0.33728, 0.143681, 0, 0
2, 60.00000, 0.342274, 0.145808, 0.348925, 0.148641, 0.33728, 0.143681, 0, 0
2, 120.00000, 0.342274, 0.145808, 0.348925, 0.148641, 0.33728, 0.143681, 0, 0
2, 180.00000, 0.342274, 0.145808, 0.348925, 0.148641, 0.33728, 0.143681, 0, 0
2, 240.00000, 0.342274, 0.145808, 0.348925, 0.148641, 0.33728, 0.143681, 0, 0
2, 300.00000, 0.342274, 0.145808, 0.348925, 0.148641, 0.33728, 0.143681, 0, 0
2, 360.00000, 0.342274, 0.145808, 0.348925, 0.148641, 0.33728, 0.143681, 0, 0
2, 420.00000, 0.342274, 0.145808, 0.348925, 0.148641, 0.33728, 0.143681, 0, 0
2, 480.00000, 0.342274, 0.145808, 0.348925, 0.148641, 0.33728, 0.143681, 0, 0
2, 540.00000, 0.342274, 0.145808, 0.348925, 0.148641, 0.33728, 0.143681, 0, 0
2, 600.00000, 0.342274, 0.145808, 0.348925, 0.148641, 0.33728, 0.143681, 0, 0
2, 660.00000, 0.342274, 0.145808, 0.348925, 0.148641, 0.33728, 0.143681, 0, 0
2, 720.00000, 0.342274, 0.145808, 0.348925, 0.148641, 0.33728, 0.143681, 0, 0
2, 780.00000, 0.342274, 0.145808, 0.348925, 0.148641, 0.33728, 0.143681, 0, 0
2, 840.00000, 0.342591, 0.145943, 0.348925, 0.148641, 0.342802, 0.146033, 0, 0
2, 900.00000, 0.342591, 0.145943, 0.348925, 0.148641, 0.342802, 0.146033, 0, 0
2, 960.00000, 0.342591, 0.145943, 0.348925, 0.148641, 0.342802, 0.146033, 0, 0
2, 1020.00000, 0.342591, 0.145943, 0.348925, 0.148641, 0.342802, 0.146033, 0, 0
2, 1080.00000, 0.342591, 0.145943, 0.348925, 0.148641, 0.342802, 0.146033, 0, 0
2, 1140.00000, 0.342591, 0.145943, 0.348925, 0.148641, 0.342802, 0.146033, 0, 0
2, 1200.00000, 0.342591, 0.145943, 0.348925, 0.148641, 0.342802, 0.146033, 0, 0
2, 1260.00000, 0.342591, 0.145943, 0.348925, 0.148641, 0.342802, 0.146033, 0, 0
2, 1320.00000, 0.342591, 0.145943, 0.348925, 0.148641, 0.342802, 0.146033, 0, 0
2, 1380.00000, 0.342591, 0.145943, 0.348925, 0.148641, 0.342802, 0.146033, 0, 0
2, 1440.00000, 0.342591, 0.145943, 0.348925, 0.148641, 0.342802, 0.146033, 0, 0
2, 1500.00000, 0.342591, 0.145943, 0.348925, 0.148641, 0.342802, 0.146033, 0, 0
2, 1560.00000, 0.342591, 0.145943, 0.348925, 0.148641, 0.342802, 0.146033, 0, 0
2, 1620.00000, 0.342591, 0.145943, 0.348925, 0.148641, 0.342802, 0.146033, 0, 0
2, 1680.00000, 0.342591, 0.145943, 0.348925, 0.148641, 0.342802, 0.146033, 0, 0
2, 1740.00000, 0.342591, 0.145943, 0.348925, 0.148641, 0.342802, 0.146033, 0, 0
2, 1800.00000, 0.342591, 0.145943, 0.348925, 0.148641, 0.342802, 0.146033, 0, 0
2, 1860.00000, 0.342591, 0.145943, 0.348925, 0.148641, 0.342802, 0.146033, 0, 0
2, 1920.00000, 0.342591, 0.145943, 0.348925, 0.148641, 0.342802, 0.146033, 0, 0
2, 1980.00000, 0.342591, 0.145943, 0.348925, 0.148641, 0.342802, 0.146033, 0, 0
2, 2040.00000, 0.342591, 0.145943, 0.348925, 0.148641, 0.342802, 0.146033, 0, 0
2, 2100.00000, 0.342591, 0.145943, 0.348925, 0.148641, 0.342802, 0.146033, 0, 0
2, 2160.00000, 0.342591, 0.145943, 0.348925, 0.148641, 0.342802, 0.146033, 0, 0
2, 2220.00000, 0.342591, 0.145943, 0.348925, 0.148641, 0.342802, 0.146033, 0, 0
2, 2280.00000, 0.342591, 0.145943, 0.348925, 0.148641, 0.342802, 0.146033, 0, 0
2, 2340.00000, 0.342591, 0.145943, 0.348925, 0.148641, 0.342802, 0.146033, 0, 0
2, 2400.00000, 0.344642, 0.146817, 0.348925, 0.148641, 0.342328, 0.145831, 0, 0
2, 2460.00000, 0.344642, 0.146817, 0.348925, 0.148641, 0.342328, 0.145831, 0, 0
2, 2520.00000, 0.344642, 0.146817, 0.348925, 0.148641, 0.342328, 0.145831, 0, 0
2, 2580.00000, 0.344642, 0.146817, 0.348925, 0.148641, 0.342328, 0.145831, 0, 0
2, 2640.00000, 0.344642, 0.146817, 0.348925, 0.148641, 0.342328, 0.145831, 0, 0
2, 2700.00000, 0.337485, 0.143768, 0.348924, 0.148641, 0.343212, 0.146207, 0, 0
2, 2760.00000, 0.337485, 0.143768, 0.348925, 0.148641, 0.343212, 0.146208, 0, 0
2, 2820.00000, 0.337485, 0.143768, 0.348925, 0.148641, 0.343212, 0.146208, 0, 0
2, 2880.00000, 0.337485, 0.143768, 0.348925, 0.148641, 0.343212, 0.146208, 0, 0
2, 2940.00000, 0.337485, 0.143768, 0.348925, 0.148641, 0.343212, 0.146208, 0, 0
2, 3000.00000, 0.337485, 0.143768, 0.348925, 0.148641, 0.343212, 0.146208, 0, 0
2, 3060.00000, 0.339368, 0.14457, 0.348925, 0.148641, 0.343867, 0.146487, 0, 0
2, 3120.00000, 0.339368, 0.14457, 0.348925, 0.148641, 0.343867, 0.146487, 0, 0
2, 3180.00000, 0.339368, 0.14457, 0.348925, 0.148641, 0.343867, 0.146487, 0, 0
2, 3240.00000, 0.339368, 0.14457, 0.348925, 0.148641, 0.343867, 0.146487, 0, 0
2, 3300.00000, 0.339368, 0.14457, 0.348925, 0.148641, 0.343867, 0.146487, 0, 0
2, 3360.00000, 0.339368, 0.14457, 0.348925, 0.148641, 0.343867, 0.146487, 0, 0
2, 3420.00000, 0.339368, 0.14457, 0.348925, 0.148641, 0.343867, 0.146487, 0, 0
2, 3480.00000, 0.339368, 0.14457, 0.348925, 0.148641, 0.343867, 0.146487, 0, 0
2, 3540.00000, 0.339368, 0.14457, 0.348925, 0.148641, 0.343867, 0.146487, 0, 0
3, 0.00000, 0.339368, 0.14457, 0.348925, 0.148641, 0.343867, 0.146487, 0, 0
3, 60.00000, 0.339368, 0.14457, 0.348925, 0.148641, 0.343867, 0.146487, 0, 0
3, 120.00000, 0.339368, 0.14457, 0.348925, 0.148641, 0.343867, 0.146487, 0, 0
3, 180.00000, 0.339368, 0.14457, 0.348925, 0.148641, 0.343867, 0.146487, 0, 0
3, 240.00000, 0.339368, 0.14457, 0.348925, 0.148641, 0.343867, 0.146487, 0, 0
3, 300.00000, 0.339368, 0.14457, 0.348925, 0.148641, 0.343867, 0.146487, 0, 0
3, 360.00000, 0.339368, 0.14457, 0.348925, 0.148641, 0.343867, 0.146487, 0, 0
3, 420.00000, 0.339368, 0.14457, 0.348925, 0.148641, 0.343867, 0.146487, 0, 0
3, 480.00000, 0.339368, 0.14457, 0.348925, 0.148641, 0.343867, 0.146487, 0, 0
3, 540.00000, 0.339368, 0.14457, 0.348925, 0.148641, 0.343867, 0.146487, 0, 0
3, 600.00000, 0.339368, 0.14457, 0.348925, 0.148641, 0.343867, 0.146487, 0, 0
3, 660.00000, 0.339368, 0.14457, 0.348925, 0.148641, 0.343867, 0.146487, 0, 0
3, 720.00000, 0.339368, 0.14457, 0.348925, 0.148641, 0.343867, 0.146487, 0, 0
3, 780.00000, 0.339368, 0.14457, 0.348925, 0.148641, 0.343867, 0.146487, 0, 0
3, 840.00000, 0.339368, 0.14457, 0.348925, 0.148641, 0.343867, 0.146487, 0, 0
3, 900.00000, 0.339368, 0.14457, 0.348925, 0.148641, 0.343867, 0.146487, 0, 0
3, 960.00000, 0.339368, 0.14457, 0.348925, 0.148641, 0.343867, 0.146487, 0, 0
3, 1020.00000, 0.339368, 0.14457, 0.348925, 0.148641, 0.343867, 0.146487, 0, 0
3, 1080.00000, 0.339368, 0.14457, 0.348925, 0.148641, 0.343867, 0.146487, 0, 0
3, 1140.00000, 0.339368, 0.14457, 0.348925, 0.148641, 0.343867, 0.146487, 0, 0
3, 1200.00000, 0.339368, 0.14457, 0.348925, 0.148641, 0.343867, 0.146487, 0, 0
3, 1260.00000, 0.339368, 0.14457, 0.348925, 0.148641, 0.343867, 0.146487, 0, 0
3, 1320.00000, 0.339368, 0.14457, 0.348925, 0.148641, 0.343867, 0.146487, 0, 0
3, 1380.00000, 0.339368, 0.14457, 0.348925, 0.148641, 0.343867, 0.146487, 0, 0
3, 1440.00000, 0.339368, 0.14457, 0.348925, 0.148641, 0.343867, 0.146487, 0, 0
3, 1500.00000, 0.339368, 0.14457, 0.348925, 0.148641, 0.343867, 0.146487, 0, 0
3, 1560.00000, 0.339368, 0.14457, 0.348925, 0.148641, 0.343867, 0.146487, 0, 0
3, 1620.00000, 0.339368, 0.14457, 0.348925, 0.148641, 0.343867, 0.146487, 0, 0
3, 1680.00000, 0.339368, 0.14457, 0.348925, 0.148641, 0.343867, 0.146487, 0, 0
3, 1740.00000, 0.339368, 0.14457, 0.348925, 0.148641, 0.343867, 0.146487, 0, 0
3, 1800.00000, 0.339368, 0.14457, 0.348925, 0.148641, 0.343867, 0.146487, 0, 0
3, 1860.00000, 0.339368, 0.14457, 0.348925, 0.148641, 0.343867, 0.146487, 0, 0
3, 1920.00000, 0.339368, 0.14457, 0.348925, 0.148641, 0.343867, 0.146487, 0, 0
3, 1980.00000, 0.339368, 0.14457, 0.348925, 0.148641, 0.343867, 0.146487, 0, 0
3, 2040.00000, 0.339368, 0.14457, 0.348925, 0.148641, 0.343867, 0.146487, 0, 0
3, 2100.00000, 0.339368, 0.14457, 0.348925, 0.148641, 0.343867, 0.146487, 0, 0
3, 2160.00000, 0.339368, 0.14457, 0.348925, 0.148641, 0.343867, 0.146487, 0, 0
3, 2220.00000, 0.339368, 0.14457, 0.348925, 0.148641, 0.343867, 0.146487, 0, 0
3, 2280.00000, 0.339368, 0.14457, 0.348925, 0.148641, 0.343867, 0.146487, 0, 0
3, 2340.00000, 0.339368, 0.14457, 0.348925, 0.148641, 0.343867, 0.146487, 0, 0
3, 2400.00000, 0.339368, 0.14457, 0.348925, 0.148641, 0.343867, 0.146487, 0, 0
3, 2460.00000, 0.339368, 0.14457, 0.348925, 0.148641, 0.343867, 0.146487, 0, 0
3, 2520.00000, 0.339368, 0.14457, 0.348925, 0.148641, 0.343867, 0.146487, 0, 0
3, 2580.00000, 0.339368, 0.14457, 0.348925, 0.148641, 0.343867, 0.146487, 0, 0
3, 2640.00000, 0.339368, 0.14457, 0.348925, 0.148641, 0.343867, 0.146487, 0, 0
3, 2700.00000, 0.339368, 0.14457, 0.348925, 0.148641, 0.343867, 0.146487, 0, 0
3, 2760.00000, 0.339368, 0.14457, 0.348925, 0.148641, 0.343867, 0.146487, 0, 0
3, 2820.00000, 0.339368, 0.14457, 0.348925, 0.148641, 0.343867, 0.146487, 0, 0
3, 2880.00000, 0.339368, 0.14457, 0.348925, 0.148641, 0.343867, 0.146487, 0, 0
3, 2940.00000, 0.339368, 0.14457, 0.348925, 0.148641, 0.343867, 0.146487, 0, 0
3, 3000.00000, 0.339368, 0.14457, 0.348925, 0.148641, 0.343867, 0.146487, 0, 0
3, 3060.00000, 0.339368, 0.14457, 0.348925, 0.148641, 0.343867, 0.146487, 0, 0
3, 3120.00000, 0.339368, 0.14457, 0.348925, 0.148641, 0.343867, 0.146487, 0, 0
3, 3180.00000, 0.33119, 0.141086, 0.341469, 0.145465, 0.335658, 0.14299, 0, 0
3, 3240.00000, 0.33119, 0.141086, 0.34147, 0.145466, 0.335658, 0.14299, 0, 0
3, 3300.00000, 0.33119, 0.141086, 0.34147, 0.145466, 0.335658, 0.14299, 0, 0
3, 3360.00000, 0.33119, 0.141086, 0.34147, 0.145466, 0.335658, 0.14299, 0, 0
3, 3420.00000, 0.33119, 0.141086, 0.34147, 0.145466, 0.335658, 0.14299, 0, 0
3, 3480.00000, 0.33119, 0.141086, 0.34147, 0.145466, 0.335658, 0.14299, 0, 0
3, 3540.00000, 0.33119, 0.141086, 0.34147, 0.145466, 0.335658, 0.14299, 0, 0
4, 0.00000, 0.33119, 0.141086, 0.34147, 0.145466, 0.335658, 0.14299, 0, 0
4, 60.00000, 0.33119, 0.141086, 0.34147, 0.145466, 0.335658, 0.14299, 0, 0
4, 120.00000, 0.33119, 0.141086, 0.34147, 0.145466, 0.335658, 0.14299, 0, 0
4, 180.00000, 0.33119, 0.141086, 0.34147, 0.145466, 0.335658, 0.14299, 0, 0
4, 240.00000, 0.33119, 0.141086, 0.34147, 0.145466, 0.335658, 0.14299, 0, 0
4, 300.00000, 0.33119, 0.141086, 0.34147, 0.145466, 0.335658, 0.14299, 0, 0
4, 360.00000, 0.33119, 0.141086, 0.34147, 0.145466, 0.335658, 0.14299, 0, 0
4, 420.00000, 0.33119, 0.141086, 0.34147, 0.145466, 0.335658, 0.14299, 0, 0
4, 480.00000, 0.33119, 0.141086, 0.34147, 0.145466, 0.335658, 0.14299, 0, 0
4, 540.00000, 0.33119, 0.141086, 0.34147, 0.145466, 0.335658, 0.14299, 0, 0
4, 600.00000, 0.33119, 0.141086, 0.34147, 0.145466, 0.335658, 0.14299, 0, 0
4, 660.00000, 0.33119, 0.141086, 0.34147, 0.145466, 0.335658, 0.14299, 0, 0
4, 720.00000, 0.33119, 0.141086, 0.34147, 0.145466, 0.335658, 0.14299, 0, 0
