hour,t(sec),"P1 (kW)","Q1 (kvar)","P2 (kW)","Q2 (kvar)","P3 (kW)","Q3 (kvar)","P4 (kW)","Q4 (kvar)"
0, 60.00000, 0.808317, 0.344344, 0.787072, 0.335279, 0.821892, 0.350114, 0, 0
0, 120.00000, 0.808336, 0.344351, 0.787064, 0.335277, 0.821887, 0.350112, 0, 0
0, 180.00000, 0.808352, 0.344358, 0.787056, 0.335274, 0.821883, 0.350111, 0, 0
0, 240.00000, 0.808366, 0.344364, 0.787049, 0.335273, 0.821879, 0.35011, 0, 0
0, 300.00000, 0.808379, 0.344369, 0.787043, 0.335271, 0.821876, 0.35011, 0, 0
0, 360.00000, 0.80839, 0.344373, 0.787038, 0.335269, 0.821873, 0.350109, 0, 0
0, 420.00000, 0.808399, 0.344377, 0.787033, 0.335268, 0.82187, 0.350109, 0, 0
0, 480.00000, 0.808408, 0.344381, 0.787028, 0.335267, 0.821868, 0.350108, 0, 0
0, 540.00000, 0.808415, 0.344384, 0.787024, 0.335266, 0.821866, 0.350108, 0, 0
0, 600.00000, 0.808421, 0.344387, 0.787021, 0.335265, 0.821864, 0.350108, 0, 0
0, 660.00000, 0.808427, 0.344389, 0.787018, 0.335264, 0.821862, 0.350107, 0, 0
0, 720.00000, 0.808432, 0.344391, 0.787015, 0.335263, 0.82186, 0.350107, 0, 0
0, 780.00000, 0.808437, 0.344393, 0.787012, 0.335262, 0.821859, 0.350107, 0, 0
0, 840.00000, 0.808441, 0.344395, 0.78701, 0.335262, 0.821858, 0.350107, 0, 0
0, 900.00000, 0.808444, 0.344396, 0.787008, 0.335261, 0.821857, 0.350106, 0, 0
0, 960.00000, 0.85035, 0.362248, 0.825226, 0.351543, 0.869416, 0.370367, 0, 0
0, 1020.00000, 0.850354, 0.362249, 0.825224, 0.351542, 0.869416, 0.370367, 0, 0
0, 1080.00000, 0.850356, 0.362251, 0.825223, 0.351541, 0.869415, 0.370367, 0, 0
0, 1140.00000, 0.850358, 0.362251, 0.825221, 0.351541, 0.869414, 0.370367, 0, 0
0, 1200.00000, 0.85036, 0.362252, 0.82522, 0.35154, 0.869414, 0.370367, 0, 0
0, 1260.00000, 0.850362, 0.362253, 0.825219, 0.35154, 0.869413, 0.370367, 0, 0
0, 1320.00000, 0.850364, 0.362254, 0.825218, 0.35154, 0.869412, 0.370367, 0, 0
0, 1380.00000, 0.850365, 0.362254, 0.825217, 0.351539, 0.869412, 0.370367, 0, 0
0, 1440.00000, 0.850366, 0.362255, 0.825216, 0.351539, 0.869411, 0.370366, 0, 0
0, 1500.00000, 0.850368, 0.362255, 0.825215, 0.351539, 0.869411, 0.370366, 0, 0
0, 1560.00000, 0.850369, 0.362256, 0.825214, 0.351539, 0.869411, 0.370366, 0, 0
0, 1620.00000, 0.85037, 0.362256, 0.825213, 0.351539, 0.86941, 0.370366, 0, 0
0, 1680.00000, 0.85037, 0.362256, 0.825213, 0.351538, 0.86941, 0.370366, 0, 0
0, 1740.00000, 0.850371, 0.362257, 0.825212, 0.351538, 0.86941, 0.370366, 0, 0
0, 1800.00000, 0.850372, 0.362257, 0.825212, 0.351538, 0.869409, 0.370366, 0, 0
0, 1860.00000, 0.85525, 0.364335, 0.829768, 0.353479, 0.87205, 0.371491, 0, 0
0, 1920.00000, 0.85525, 0.364335, 0.829768, 0.353479, 0.872049, 0.371491, 0, 0
0, 1980.00000, 0.85525, 0.364335, 0.829768, 0.353479, 0.872049, 0.371491, 0, 0
0, 2040.00000, 0.855251, 0.364335, 0.829767, 0.353479, 0.872049, 0.371491, 0, 0
0, 2100.00000, 0.855251, 0.364336, 0.829767, 0.353479, 0.872049, 0.371491, 0, 0
0, 2160.00000, 0.855252, 0.364336, 0.829767, 0.353479, 0.872049, 0.371491, 0, 0
0, 2220.00000, 0.855252, 0.364336, 0.829767, 0.353479, 0.872049, 0.371491, 0, 0
0, 2280.00000, 0.855252, 0.364336, 0.829766, 0.353479, 0.872048, 0.371491, 0, 0
0, 2340.00000, 0.855252, 0.364336, 0.829766, 0.353479, 0.872048, 0.371491, 0, 0
0, 2400.00000, 0.855253, 0.364336, 0.829766, 0.353479, 0.872048, 0.371491, 0, 0
0, 2460.00000, 0.855253, 0.364336, 0.829766, 0.353479, 0.872048, 0.371491, 0, 0
0, 2520.00000, 0.855253, 0.364336, 0.829766, 0.353479, 0.872048, 0.371491, 0, 0
0, 2580.00000, 0.855253, 0.364336, 0.829766, 0.353478, 0.872048, 0.371491, 0, 0
0, 2640.00000, 0.855253, 0.364336, 0.829765, 0.353478, 0.872048, 0.371491, 0, 0
0, 2700.00000, 0.855253, 0.364336, 0.829765, 0.353478, 0.872048, 0.371491, 0, 0
0, 2760.00000, 0.818326, 0.348606, 0.79357, 0.338059, 0.829444, 0.353342, 0, 0
0, 2820.00000, 0.818326, 0.348605, 0.79357, 0.338059, 0.829443, 0.353341, 0, 0
0, 2880.00000, 0.818326, 0.348605, 0.79357, 0.338059, 0.829443, 0.353341, 0, 0
0, 2940.00000, 0.818326, 0.348605, 0.79357, 0.338059, 0.829443, 0.353341, 0, 0
0, 3000.00000, 0.818326, 0.348605, 0.79357, 0.338059, 0.829443, 0.353341, 0, 0
0, 3060.00000, 0.818326, 0.348605, 0.79357, 0.338059, 0.829443, 0.353341, 0, 0
0, 3120.00000, 0.818326, 0.348605, 0.793569, 0.338059, 0.829443, 0.353341, 0, 0
0, 3180.00000, 0.818326, 0.348606, 0.793569, 0.338059, 0.829443, 0.353341, 0, 0
0, 3240.00000, 0.818326, 0.348606, 0.793569, 0.338059, 0.829443, 0.353341, 0, 0
0, 3300.00000, 0.818326, 0.348606, 0.793569, 0.338059, 0.829443, 0.353341, 0, 0
0, 3360.00000, 0.818326, 0.348606, 0.793569, 0.338059, 0.829443, 0.353341, 0, 0
0, 3420.00000, 0.818326, 0.348606, 0.793569, 0.338059, 0.829443, 0.353341, 0, 0
0, 3480.00000, 0.822596, 0.350424, 0.79354, 0.338046, 0.829444, 0.353342, 0, 0
0, 3540.00000, 0.82374, 0.350912, 0.797383, 0.339683, 0.829443, 0.353341, 0, 0
1, 0.00000, 0.82374, 0.350912, 0.797382, 0.339684, 0.829443, 0.353341, 0, 0
1, 60.00000, 0.817675, 0.348328, 0.79125, 0.337071, 0.819747, 0.349211, 0, 0
1, 120.00000, 0.817675, 0.348328, 0.791249, 0.337071, 0.819746, 0.34921, 0, 0
1, 180.00000, 0.817675, 0.348328, 0.791249, 0.337071, 0.819746, 0.34921, 0, 0
1, 240.00000, 0.817675, 0.348328, 0.791249, 0.337071, 0.819746, 0.34921, 0, 0
1, 300.00000, 0.817675, 0.348328, 0.791249, 0.337071, 0.819746, 0.34921, 0, 0
1, 360.00000, 0.817675, 0.348328, 0.791249, 0.337071, 0.819746, 0.34921, 0, 0
1, 420.00000, 0.817675, 0.348328, 0.791249, 0.337071, 0.819746, 0.34921, 0, 0
1, 480.00000, 0.817675, 0.348328, 0.791249, 0.337071, 0.819746, 0.34921, 0, 0
1, 540.00000, 0.817675, 0.348328, 0.791249, 0.337071, 0.819746, 0.34921, 0, 0
1, 600.00000, 0.819746, 0.349211, 0.797214, 0.339612, 0.819747, 0.34921, 0, 0
1, 660.00000, 0.819746, 0.34921, 0.797213, 0.339612, 0.819746, 0.34921, 0, 0
1, 720.00000, 0.819746, 0.34921, 0.797213, 0.339611, 0.819746, 0.34921, 0, 0
1, 780.00000, 0.819746, 0.34921, 0.797213, 0.339611, 0.819746, 0.34921, 0, 0
1, 840.00000, 0.819746, 0.34921, 0.797213, 0.339611, 0.819746, 0.34921, 0, 0
1, 900.00000, 0.819746, 0.34921, 0.797213, 0.339611, 0.819746, 0.34921, 0, 0
1, 960.00000, 0.815909, 0.347576, 0.793823, 0.338167, 0.81591, 0.347576, 0, 0
1, 1020.00000, 0.815909, 0.347576, 0.793823, 0.338167, 0.815909, 0.347576, 0, 0
1, 1080.00000, 0.815909, 0.347576, 0.793823, 0.338167, 0.815909, 0.347576, 0, 0
1, 1140.00000, 0.815909, 0.347576, 0.793823, 0.338167, 0.815909, 0.347576, 0, 0
1, 1200.00000, 0.815909, 0.347576, 0.793823, 0.338167, 0.815909, 0.347576, 0, 0
1, 1260.00000, 0.815909, 0.347576, 0.793823, 0.338167, 0.815909, 0.347576, 0, 0
1, 1320.00000, 0.815909, 0.347576, 0.793823, 0.338167, 0.815909, 0.347576, 0, 0
1, 1380.00000, 0.815909, 0.347576, 0.793823, 0.338167, 0.815909, 0.347576, 0, 0
1, 1440.00000, 0.815909, 0.347576, 0.793823, 0.338167, 0.815909, 0.347576, 0, 0
1, 1500.00000, 0.815909, 0.347576, 0.793823, 0.338167, 0.815909, 0.347576, 0, 0
1, 1560.00000, 0.815909, 0.347576, 0.793823, 0.338167, 0.815909, 0.347576, 0, 0
1, 1620.00000, 0.815909, 0.347576, 0.793823, 0.338167, 0.815909, 0.347576, 0, 0
1, 1680.00000, 0.815909, 0.347576, 0.793823, 0.338167, 0.815909, 0.347576, 0, 0
1, 1740.00000, 0.815909, 0.347576, 0.793823, 0.338167, 0.815909, 0.347576, 0, 0
1, 1800.00000, 0.815909, 0.347576, 0.793823, 0.338167, 0.815909, 0.347576, 0, 0
1, 1860.00000, 0.835347, 0.355856, 0.835135, 0.355766, 0.835587, 0.355959, 0, 0
1, 1920.00000, 0.835347, 0.355856, 0.835135, 0.355766, 0.835587, 0.355959, 0, 0
1, 1980.00000, 0.835347, 0.355856, 0.835135, 0.355766, 0.835587, 0.355959, 0, 0
1, 2040.00000, 0.835347, 0.355856, 0.835135, 0.355766, 0.835587, 0.355959, 0, 0
1, 2100.00000, 0.835347, 0.355856, 0.835135, 0.355766, 0.835587, 0.355959, 0, 0
1, 2160.00000, 0.835347, 0.355856, 0.835135, 0.355766, 0.835587, 0.355959, 0, 0
1, 2220.00000, 0.835347, 0.355856, 0.835135, 0.355766, 0.835587, 0.355959, 0, 0
1, 2280.00000, 0.835347, 0.355856, 0.835135, 0.355766, 0.835587, 0.355959, 0, 0
1, 2340.00000, 0.835347, 0.355856, 0.835135, 0.355766, 0.835587, 0.355959, 0, 0
1, 2400.00000, 0.835347, 0.355856, 0.835135, 0.355766, 0.835587, 0.355959, 0, 0
1, 2460.00000, 0.835347, 0.355856, 0.835135, 0.355766, 0.835587, 0.355959, 0, 0
1, 2520.00000, 0.835347, 0.355856, 0.835135, 0.355766, 0.835587, 0.355959, 0, 0
1, 2580.00000, 0.835347, 0.355856, 0.835135, 0.355766, 0.835587, 0.355959, 0, 0
1, 2640.00000, 0.835347, 0.355856, 0.835135, 0.355766, 0.835587, 0.355959, 0, 0
1, 2700.00000, 0.835347, 0.355856, 0.835135, 0.355766, 0.835587, 0.355959, 0, 0
1, 2760.00000, 0.787375, 0.335421, 0.787376, 0.33542, 0.787377, 0.335421, 0, 0
1, 2820.00000, 0.787376, 0.335421, 0.787376, 0.335421, 0.787376, 0.335421, 0, 0
1, 2880.00000, 0.787376, 0.335421, 0.787376, 0.335421, 0.787376, 0.335421, 0, 0
1, 2940.00000, 0.787376, 0.335421, 0.787376, 0.335421, 0.787376, 0.335421, 0, 0
1, 3000.00000, 0.787376, 0.335421, 0.787376, 0.335421, 0.787376, 0.335421, 0, 0
1, 3060.00000, 0.787376, 0.335421, 0.787376, 0.335421, 0.787376, 0.335421, 0, 0
1, 3120.00000, 0.787376, 0.335421, 0.787376, 0.335421, 0.787376, 0.335421, 0, 0
1, 3180.00000, 0.787376, 0.335421, 0.787376, 0.335421, 0.787376, 0.335421, 0, 0
1, 3240.00000, 0.787376, 0.335421, 0.787376, 0.335421, 0.787376, 0.335421, 0, 0
1, 3300.00000, 0.787376, 0.335421, 0.787376, 0.335421, 0.787376, 0.335421, 0, 0
1, 3360.00000, 0.787376, 0.335421, 0.787376, 0.335421, 0.787376, 0.335421, 0, 0
1, 3420.00000, 0.787376, 0.335421, 0.787376, 0.335421, 0.787376, 0.335421, 0, 0
1, 3480.00000, 0.787376, 0.335421, 0.787376, 0.335421, 0.787376, 0.335421, 0, 0
1, 3540.00000, 0.787376, 0.335421, 0.787376, 0.335421, 0.787376, 0.335421, 0, 0
2, 0.00000, 0.787376, 0.335421, 0.787376, 0.335421, 0.787376, 0.335421, 0, 0
2, 60.00000, 0.808505, 0.344422, 0.808505, 0.344422, 0.808504, 0.344421, 0, 0
2, 120.00000, 0.808505, 0.344422, 0.808505, 0.344422, 0.808505, 0.344422, 0, 0
2, 180.00000, 0.808505, 0.344422, 0.808505, 0.344422, 0.808505, 0.344422, 0, 0
2, 240.00000, 0.808505, 0.344422, 0.808505, 0.344422, 0.808505, 0.344422, 0, 0
2, 300.00000, 0.808505, 0.344422, 0.808505, 0.344422, 0.808505, 0.344422, 0, 0
2, 360.00000, 0.808505, 0.344422, 0.808505, 0.344422, 0.808505, 0.344422, 0, 0
2, 420.00000, 0.808505, 0.344422, 0.808505, 0.344422, 0.808505, 0.344422, 0, 0
2, 480.00000, 0.808505, 0.344422, 0.808505, 0.344422, 0.808505, 0.344422, 0, 0
2, 540.00000, 0.808505, 0.344422, 0.808505, 0.344422, 0.808505, 0.344422, 0, 0
2, 600.00000, 0.808505, 0.344422, 0.808505, 0.344422, 0.808505, 0.344422, 0, 0
2, 660.00000, 0.808505, 0.344422, 0.808505, 0.344422, 0.808505, 0.344422, 0, 0
2, 720.00000, 0.808505, 0.344422, 0.808505, 0.344422, 0.808505, 0.344422, 0, 0
2, 780.00000, 0.808505, 0.344422, 0.808505, 0.344422, 0.808505, 0.344422, 0, 0
2, 840.00000, 0.808505, 0.344422, 0.808505, 0.344422, 0.808505, 0.344422, 0, 0
2, 900.00000, 0.808505, 0.344422, 0.808505, 0.344422, 0.808505, 0.344422, 0, 0
2, 960.00000, 0.766063, 0.326342, 0.766064, 0.326342, 0.766064, 0.326342, 0, 0
2, 1020.00000, 0.766064, 0.326342, 0.766064, 0.326342, 0.766064, 0.326342, 0, 0
2, 1080.00000, 0.766064, 0.326342, 0.766064, 0.326342, 0.766064, 0.326342, 0, 0
2, 1140.00000, 0.766064, 0.326342, 0.766064, 0.326342, 0.766064, 0.326342, 0, 0
2, 1200.00000, 0.766064, 0.326342, 0.766064, 0.326342, 0.766064, 0.326342, 0, 0
2, 1260.00000, 0.766064, 0.326342, 0.766064, 0.326342, 0.766064, 0.326342, 0, 0
2, 1320.00000, 0.766064, 0.326342, 0.766064, 0.326342, 0.766064, 0.326342, 0, 0
2, 1380.00000, 0.766064, 0.326342, 0.766064, 0.326342, 0.766064, 0.326342, 0, 0
2, 1440.00000, 0.766064, 0.326342, 0.766064, 0.326342, 0.766064, 0.326342, 0, 0
2, 1500.00000, 0.766064, 0.326342, 0.766064, 0.326342, 0.766064, 0.326342, 0, 0
2, 1560.00000, 0.766064, 0.326342, 0.766064, 0.326342, 0.766064, 0.326342, 0, 0
2, 1620.00000, 0.766064, 0.326342, 0.766064, 0.326342, 0.766064, 0.326342, 0, 0
2, 1680.00000, 0.766064, 0.326342, 0.766064, 0.326342, 0.766064, 0.326342, 0, 0
2, 1740.00000, 0.766064, 0.326342, 0.766064, 0.326342, 0.766064, 0.326342, 0, 0
2, 1800.00000, 0.766064, 0.326342, 0.766064, 0.326342, 0.766064, 0.326342, 0, 0
2, 1860.00000, 0.765645, 0.326163, 0.765645, 0.326163, 0.765644, 0.326163, 0, 0
2, 1920.00000, 0.765645, 0.326163, 0.765645, 0.326163, 0.765645, 0.326163, 0, 0
2, 1980.00000, 0.765645, 0.326163, 0.765645, 0.326163, 0.765645, 0.326163, 0, 0
2, 2040.00000, 0.765645, 0.326163, 0.765645, 0.326163, 0.765645, 0.326163, 0, 0
2, 2100.00000, 0.765645, 0.326163, 0.765645, 0.326163, 0.765645, 0.326163, 0, 0
2, 2160.00000, 0.765645, 0.326163, 0.765645, 0.326163, 0.765645, 0.326163, 0, 0
2, 2220.00000, 0.765645, 0.326163, 0.765645, 0.326163, 0.765645, 0.326163, 0, 0
2, 2280.00000, 0.765645, 0.326163, 0.765645, 0.326163, 0.765645, 0.326163, 0, 0
2, 2340.00000, 0.765645, 0.326163, 0.765645, 0.326163, 0.765645, 0.326163, 0, 0
2, 2400.00000, 0.765645, 0.326163, 0.765645, 0.326163, 0.765645, 0.326163, 0, 0
2, 2460.00000, 0.765645, 0.326163, 0.765645, 0.326163, 0.765645, 0.326163, 0, 0
2, 2520.00000, 0.765645, 0.326163, 0.765645, 0.326163, 0.765645, 0.326163, 0, 0
2, 2580.00000, 0.765645, 0.326163, 0.765645, 0.326163, 0.765645, 0.326163, 0, 0
2, 2640.00000, 0.765645, 0.326163, 0.765645, 0.326163, 0.765645, 0.326163, 0, 0
2, 2700.00000, 0.765645, 0.326163, 0.765645, 0.326163, 0.765645, 0.326163, 0, 0
2, 2760.00000, 0.732538, 0.31206, 0.732539, 0.31206, 0.732539, 0.312061, 0, 0
2, 2820.00000, 0.732538, 0.31206, 0.732538, 0.31206, 0.732538, 0.31206, 0, 0
2, 2880.00000, 0.732538, 0.31206, 0.732538, 0.31206, 0.732538, 0.31206, 0, 0
2, 2940.00000, 0.732538, 0.31206, 0.732538, 0.31206, 0.732538, 0.31206, 0, 0
2, 3000.00000, 0.732538, 0.31206, 0.732538, 0.31206, 0.732538, 0.31206, 0, 0
2, 3060.00000, 0.732538, 0.31206, 0.732538, 0.31206, 0.732538, 0.31206, 0, 0
2, 3120.00000, 0.732538, 0.31206, 0.732538, 0.31206, 0.732538, 0.31206, 0, 0
2, 3180.00000, 0.732538, 0.31206, 0.732538, 0.31206, 0.732538, 0.31206, 0, 0
2, 3240.00000, 0.732538, 0.31206, 0.732538, 0.31206, 0.732538, 0.31206, 0, 0
2, 3300.00000, 0.732538, 0.31206, 0.732538, 0.31206, 0.732538, 0.31206, 0, 0
2, 3360.00000, 0.732538, 0.31206, 0.732538, 0.31206, 0.732538, 0.31206, 0, 0
2, 3420.00000, 0.732538, 0.31206, 0.732538, 0.31206, 0.732538, 0.31206, 0, 0
2, 3480.00000, 0.732538, 0.31206, 0.732538, 0.31206, 0.732538, 0.31206, 0, 0
2, 3540.00000, 0.732538, 0.31206, 0.732538, 0.31206, 0.732538, 0.31206, 0, 0
3, 0.00000, 0.732538, 0.31206, 0.732538, 0.31206, 0.732538, 0.31206, 0, 0
3, 60.00000, 0.751166, 0.319995, 0.751166, 0.319995, 0.751165, 0.319995, 0, 0
3, 120.00000, 0.751166, 0.319995, 0.751166, 0.319995, 0.751166, 0.319995, 0, 0
3, 180.00000, 0.751166, 0.319995, 0.751166, 0.319995, 0.751166, 0.319995, 0, 0
3, 240.00000, 0.751166, 0.319995, 0.751166, 0.319995, 0.751166, 0.319995, 0, 0
3, 300.00000, 0.751166, 0.319995, 0.751166, 0.319995, 0.751166, 0.319995, 0, 0
3, 360.00000, 0.751166, 0.319995, 0.751166, 0.319995, 0.751166, 0.319995, 0, 0
3, 420.00000, 0.751166, 0.319995, 0.751166, 0.319995, 0.751166, 0.319995, 0, 0
3, 480.00000, 0.751166, 0.319995, 0.751166, 0.319995, 0.751166, 0.319995, 0, 0
3, 540.00000, 0.751166, 0.319995, 0.751166, 0.319995, 0.751166, 0.319995, 0, 0
3, 600.00000, 0.751166, 0.319995, 0.751166, 0.319995, 0.751166, 0.319995, 0, 0
3, 660.00000, 0.751166, 0.319995, 0.751166, 0.319995, 0.751166, 0.319995, 0, 0
3, 720.00000, 0.751166, 0.319995, 0.751166, 0.319995, 0.751166, 0.319995, 0, 0
3, 780.00000, 0.751166, 0.319995, 0.751166, 0.319995, 0.751166, 0.319995, 0, 0
3, 840.00000, 0.751166, 0.319995, 0.751166, 0.319995, 0.751166, 0.319995, 0, 0
3, 900.00000, 0.751166, 0.319995, 0.751166, 0.319995, 0.751166, 0.319995, 0, 0
3, 960.00000, 0.771805, 0.328788, 0.771805, 0.328787, 0.771806, 0.328788, 0, 0
3, 1020.00000, 0.771805, 0.328788, 0.771805, 0.328788, 0.771805, 0.328788, 0, 0
3, 1080.00000, 0.771805, 0.328788, 0.771805, 0.328788, 0.771805, 0.328788, 0, 0
3, 1140.00000, 0.771805, 0.328788, 0.771805, 0.328788, 0.771805, 0.328788, 0, 0
3, 1200.00000, 0.771805, 0.328788, 0.771805, 0.328788, 0.771805, 0.328788, 0, 0
3, 1260.00000, 0.771805, 0.328788, 0.771805, 0.328788, 0.771805, 0.328788, 0, 0
3, 1320.00000, 0.771805, 0.328788, 0.771805, 0.328788, 0.771805, 0.328788, 0, 0
3, 1380.00000, 0.771805, 0.328788, 0.771805, 0.328788, 0.771805, 0.328788, 0, 0
3, 1440.00000, 0.771805, 0.328788, 0.771805, 0.328788, 0.771805, 0.328788, 0, 0
3, 1500.00000, 0.771805, 0.328788, 0.771805, 0.328788, 0.771805, 0.328788, 0, 0
3, 1560.00000, 0.771805, 0.328788, 0.771805, 0.328788, 0.771805, 0.328788, 0, 0
3, 1620.00000, 0.771805, 0.328788, 0.771805, 0.328788, 0.771805, 0.328788, 0, 0
3, 1680.00000, 0.771805, 0.328788, 0.771805, 0.328788, 0.771805, 0.328788, 0, 0
3, 1740.00000, 0.771805, 0.328788, 0.771805, 0.328788, 0.771805, 0.328788, 0, 0
3, 1800.00000, 0.771805, 0.328788, 0.771805, 0.328788, 0.771805, 0.328788, 0, 0
3, 1860.00000, 0.781243, 0.332808, 0.781242, 0.332808, 0.781243, 0.332808, 0, 0
3, 1920.00000, 0.781242, 0.332808, 0.781242, 0.332808, 0.781242, 0.332808, 0, 0
3, 1980.00000, 0.781242, 0.332808, 0.781242, 0.332808, 0.781242, 0.332808, 0, 0
3, 2040.00000, 0.781242, 0.332808, 0.781242, 0.332808, 0.781242, 0.332808, 0, 0
3, 2100.00000, 0.781242, 0.332808, 0.781242, 0.332808, 0.781242, 0.332808, 0, 0
3, 2160.00000, 0.781242, 0.332808, 0.781242, 0.332808, 0.781242, 0.332808, 0, 0
3, 2220.00000, 0.781242, 0.332808, 0.781242, 0.332808, 0.781242, 0.332808, 0, 0
3, 2280.00000, 0.781242, 0.332808, 0.781242, 0.332808, 0.781242, 0.332808, 0, 0
3, 2340.00000, 0.781242, 0.332808, 0.781242, 0.332808, 0.781242, 0.332808, 0, 0
3, 2400.00000, 0.781242, 0.332808, 0.781242, 0.332808, 0.781242, 0.332808, 0, 0
3, 2460.00000, 0.781242, 0.332808, 0.781242, 0.332808, 0.781242, 0.332808, 0, 0
3, 2520.00000, 0.781242, 0.332808, 0.781242, 0.332808, 0.781242, 0.332808, 0, 0
3, 2580.00000, 0.781242, 0.332808, 0.781242, 0.332808, 0.781242, 0.332808, 0, 0
3, 2640.00000, 0.781242, 0.332808, 0.781242, 0.332808, 0.781242, 0.332808, 0, 0
3, 2700.00000, 0.781242, 0.332808, 0.781242, 0.332808, 0.781242, 0.332808, 0, 0
3, 2760.00000, 0.714895, 0.304544, 0.714896, 0.304544, 0.714896, 0.304544, 0, 0
3, 2820.00000, 0.714895, 0.304544, 0.714895, 0.304544, 0.714895, 0.304544, 0, 0
3, 2880.00000, 0.714895, 0.304544, 0.714895, 0.304544, 0.714895, 0.304544, 0, 0
3, 2940.00000, 0.714895, 0.304544, 0.714895, 0.304544, 0.714895, 0.304544, 0, 0
3, 3000.00000, 0.714895, 0.304544, 0.714895, 0.304544, 0.714895, 0.304544, 0, 0
3, 3060.00000, 0.714895, 0.304544, 0.714895, 0.304544, 0.714895, 0.304544, 0, 0
3, 3120.00000, 0.714895, 0.304544, 0.714895, 0.304544, 0.714895, 0.304544, 0, 0
3, 3180.00000, 0.714895, 0.304544, 0.714895, 0.304544, 0.714895, 0.304544, 0, 0
3, 3240.00000, 0.714895, 0.304544, 0.714895, 0.304544, 0.714895, 0.304544, 0, 0
3, 3300.00000, 0.714895, 0.304544, 0.714895, 0.304544, 0.714895, 0.304544, 0, 0
3, 3360.00000, 0.714895, 0.304544, 0.714895, 0.304544, 0.714895, 0.304544, 0, 0
3, 3420.00000, 0.714895, 0.304544, 0.714895, 0.304544, 0.714895, 0.304544, 0, 0
3, 3480.00000, 0.714895, 0.304544, 0.714895, 0.304544, 0.714895, 0.304544, 0, 0
3, 3540.00000, 0.714895, 0.304544, 0.714895, 0.304544, 0.714895, 0.304544, 0, 0
4, 0.00000, 0.714895, 0.304544, 0.714895, 0.304544, 0.714895, 0.304544, 0, 0
4, 60.00000, 0.764773, 0.325792, 0.764773, 0.325792, 0.764772, 0.325792, 0, 0
4, 120.00000, 0.764773, 0.325792, 0.764773, 0.325792, 0.764773, 0.325792, 0, 0
4, 180.00000, 0.764773, 0.325792, 0.764773, 0.325792, 0.764773, 0.325792, 0, 0
4, 240.00000, 0.764773, 0.325792, 0.764773, 0.325792, 0.764773, 0.325792, 0, 0
4, 300.00000, 0.764773, 0.325792, 0.764773, 0.325792, 0.764773, 0.325792, 0, 0
4, 360.00000, 0.764773, 0.325792, 0.764773, 0.325792, 0.764773, 0.325792, 0, 0
4, 420.00000, 0.764773, 0.325792, 0.764773, 0.325792, 0.764773, 0.325792, 0, 0
4, 480.00000, 0.764773, 0.325792, 0.764773, 0.325792, 0.764773, 0.325792, 0, 0
4, 540.00000, 0.764773, 0.325792, 0.764773, 0.325792, 0.764773, 0.325792, 0, 0
4, 600.00000, 0.764773, 0.325792, 0.764773, 0.325792, 0.764773, 0.325792, 0, 0
4, 660.00000, 0.764773, 0.325792, 0.764773, 0.325792, 0.764773, 0.325792, 0, 0
