hour,t(sec),V1,VAngle1,V2,VAngle2,V3,VAngle3,V4,VAngle4,I1,IAngle1,I2,IAngle2,I3,IAngle3,I4,IAngle4
0, 60.00000, 120.938, -31.1107, 121.54, -150.999, 121.789, 88.7985, 0, 0, 4.62206, -54.1842, 4.59912, -174.073, 4.58966, 65.7252, 0.0426462, 113.607
0, 120.00000, 120.938, -31.1108, 121.54, -150.999, 121.788, 88.7985, 0, 0, 4.6221, -54.1847, 4.59918, -174.073, 4.58982, 65.7246, 0.042605, 113.687
0, 180.00000, 120.938, -31.1108, 121.54, -150.999, 121.788, 88.7985, 0, 0, 4.6221, -54.1847, 4.59918, -174.073, 4.58982, 65.7246, 0.0426051, 113.687
0, 240.00000, 120.938, -31.1108, 121.54, -150.999, 121.788, 88.7985, 0, 0, 4.6221, -54.1847, 4.59918, -174.073, 4.58982, 65.7246, 0.0426051, 113.687
0, 300.00000, 120.938, -31.1108, 121.54, -150.999, 121.788, 88.7985, 0, 0, 4.6221, -54.1847, 4.59918, -174.073, 4.58982, 65.7246, 0.0426051, 113.687
0, 360.00000, 120.938, -31.1108, 121.54, -150.999, 121.788, 88.7985, 0, 0, 4.6221, -54.1847, 4.59918, -174.073, 4.58982, 65.7246, 0.0426051, 113.687
0, 420.00000, 120.938, -31.1108, 121.54, -150.999, 121.788, 88.7985, 0, 0, 4.6221, -54.1847, 4.59918, -174.073, 4.58982, 65.7246, 0.0426051, 113.687
0, 480.00000, 120.938, -31.1108, 121.54, -150.999, 121.788, 88.7985, 0, 0, 4.6221, -54.1847, 4.59918, -174.073, 4.58982, 65.7246, 0.0426051, 113.687
0, 540.00000, 120.938, -31.1108, 121.54, -150.999, 121.788, 88.7985, 0, 0, 4.6221, -54.1847, 4.59918, -174.073, 4.58982, 65.7246, 0.0426051, 113.687
0, 600.00000, 120.938, -31.1108, 121.54, -150.999, 121.788, 88.7985, 0, 0, 4.6221, -54.1847, 4.59918, -174.073, 4.58982, 65.7246, 0.0426051, 113.687
0, 660.00000, 120.938, -31.1108, 121.54, -150.999, 121.788, 88.7985, 0, 0, 4.6221, -54.1847, 4.59918, -174.073, 4.58982, 65.7246, 0.0426051, 113.687
0, 720.00000, 120.938, -31.1108, 121.54, -150.999, 121.788, 88.7985, 0, 0, 4.6221, -54.1847, 4.59918, -174.073, 4.58982, 65.7246, 0.0426051, 113.687
0, 780.00000, 120.938, -31.1108, 121.54, -150.999, 121.788, 88.7985, 0, 0, 4.6221, -54.1847, 4.59918, -174.073, 4.58982, 65.7246, 0.0426051, 113.687
0, 840.00000, 120.938, -31.1108, 121.54, -150.999, 121.788, 88.7985, 0, 0, 4.6221, -54.1847, 4.59918, -174.073, 4.58982, 65.7246, 0.0426051, 113.687
0, 900.00000, 120.938, -31.1108, 121.54, -150.999, 121.788, 88.7985, 0, 0, 4.6221, -54.1847, 4.59918, -174.073, 4.58982, 65.7246, 0.0426051, 113.687
0, 960.00000, 120.557, -31.287, 120.956, -151.034, 121.614, 88.7661, 0, 0, 4.89569, -54.3606, 4.8888, -174.108, 4.8624, 65.6923, 0.0500307, 79.8678
0, 1020.00000, 120.557, -31.287, 120.956, -151.034, 121.614, 88.7661, 0, 0, 4.89566, -54.3609, 4.88886, -174.108, 4.86241, 65.6922, 0.0500351, 79.7778
0, 1080.00000, 120.557, -31.287, 120.956, -151.034, 121.614, 88.7661, 0, 0, 4.89566, -54.3609, 4.88886, -174.108, 4.86241, 65.6922, 0.0500351, 79.7775
0, 1140.00000, 120.557, -31.287, 120.956, -151.034, 121.614, 88.7661, 0, 0, 4.89566, -54.3609, 4.88886, -174.108, 4.86241, 65.6922, 0.0500351, 79.7775
0, 1200.00000, 120.557, -31.287, 120.956, -151.034, 121.614, 88.7661, 0, 0, 4.89566, -54.3609, 4.88886, -174.108, 4.86241, 65.6922, 0.0500351, 79.7775
0, 1260.00000, 120.557, -31.287, 120.956, -151.034, 121.614, 88.7661, 0, 0, 4.89566, -54.3609, 4.88886, -174.108, 4.86241, 65.6922, 0.0500351, 79.7775
0, 1320.00000, 120.557, -31.287, 120.956, -151.034, 121.614, 88.7661, 0, 0, 4.89566, -54.3609, 4.88886, -174.108, 4.86241, 65.6922, 0.0500351, 79.7775
0, 1380.00000, 120.557, -31.287, 120.956, -151.034, 121.614, 88.7661, 0, 0, 4.89566, -54.3609, 4.88886, -174.108, 4.86241, 65.6922, 0.0500351, 79.7775
0, 1440.00000, 120.557, -31.287, 120.956, -151.034, 121.614, 88.7661, 0, 0, 4.89566, -54.3609, 4.88886, -174.108, 4.86241, 65.6922, 0.0500351, 79.7775
0, 1500.00000, 120.557, -31.287, 120.956, -151.034, 121.614, 88.7661, 0, 0, 4.89566, -54.3609, 4.88886, -174.108, 4.86241, 65.6922, 0.0500351, 79.7775
0, 1560.00000, 120.557, -31.287, 120.956, -151.034, 121.614, 88.7661, 0, 0, 4.89566, -54.3609, 4.88886, -174.108, 4.86241, 65.6922, 0.0500351, 79.7775
0, 1620.00000, 120.557, -31.287, 120.956, -151.034, 121.614, 88.7661, 0, 0, 4.89566, -54.3609, 4.88886, -174.108, 4.86241, 65.6922, 0.0500351, 79.7775
0, 1680.00000, 120.557, -31.287, 120.956, -151.034, 121.614, 88.7661, 0, 0, 4.89566, -54.3609, 4.88886, -174.108, 4.86241, 65.6922, 0.0500351, 79.7775
0, 1740.00000, 120.557, -31.287, 120.956, -151.034, 121.614, 88.7661, 0, 0, 4.89566, -54.3609, 4.88886, -174.108, 4.86241, 65.6922, 0.0500351, 79.7775
0, 1800.00000, 120.557, -31.287, 120.956, -151.034, 121.614, 88.7661, 0, 0, 4.89566, -54.3609, 4.88886, -174.108, 4.86241, 65.6922, 0.0500351, 79.7775
0, 1860.00000, 120.698, -31.2698, 121.092, -151.017, 121.749, 88.7868, 0, 0, 4.91421, -54.3439, 4.89837, -174.091, 4.872, 65.7114, 0.0565558, 86.2033
0, 1920.00000, 120.698, -31.2697, 121.092, -151.017, 121.75, 88.7869, 0, 0, 4.91418, -54.3436, 4.89817, -174.091, 4.87173, 65.713, 0.0567001, 86.1707
0, 1980.00000, 120.698, -31.2697, 121.092, -151.017, 121.75, 88.7869, 0, 0, 4.91418, -54.3436, 4.89817, -174.091, 4.87173, 65.713, 0.0567006, 86.1702
0, 2040.00000, 120.698, -31.2697, 121.092, -151.017, 121.75, 88.7869, 0, 0, 4.91418, -54.3436, 4.89817, -174.091, 4.87173, 65.713, 0.0567006, 86.1701
0, 2100.00000, 120.698, -31.2697, 121.092, -151.017, 121.75, 88.7869, 0, 0, 4.91418, -54.3436, 4.89817, -174.091, 4.87173, 65.713, 0.0567006, 86.1701
0, 2160.00000, 120.698, -31.2697, 121.092, -151.017, 121.75, 88.7869, 0, 0, 4.91418, -54.3436, 4.89817, -174.091, 4.87173, 65.713, 0.0567006, 86.1701
0, 2220.00000, 120.698, -31.2697, 121.092, -151.017, 121.75, 88.7869, 0, 0, 4.91418, -54.3436, 4.89817, -174.091, 4.87173, 65.713, 0.0567006, 86.1701
0, 2280.00000, 120.698, -31.2697, 121.092, -151.017, 121.75, 88.7869, 0, 0, 4.91418, -54.3436, 4.89817, -174.091, 4.87173, 65.713, 0.0567006, 86.1701
0, 2340.00000, 120.698, -31.2697, 121.092, -151.017, 121.75, 88.7869, 0, 0, 4.91418, -54.3436, 4.89817, -174.091, 4.87173, 65.713, 0.0567006, 86.1701
0, 2400.00000, 120.698, -31.2697, 121.092, -151.017, 121.75, 88.7869, 0, 0, 4.91418, -54.3436, 4.89817, -174.091, 4.87173, 65.713, 0.0567006, 86.1701
0, 2460.00000, 120.698, -31.2697, 121.092, -151.017, 121.75, 88.7869, 0, 0, 4.91418, -54.3436, 4.89817, -174.091, 4.87173, 65.713, 0.0567006, 86.1701
0, 2520.00000, 120.698, -31.2697, 121.092, -151.017, 121.75, 88.7869, 0, 0, 4.91418, -54.3436, 4.89817, -174.091, 4.87173, 65.713, 0.0567006, 86.1701
0, 2580.00000, 120.698, -31.2697, 121.092, -151.017, 121.75, 88.7869, 0, 0, 4.91418, -54.3436, 4.89817, -174.091, 4.87173, 65.713, 0.0567006, 86.1701
0, 2640.00000, 120.698, -31.2697, 121.092, -151.017, 121.75, 88.7869, 0, 0, 4.91418, -54.3436, 4.89817, -174.091, 4.87173, 65.713, 0.0567006, 86.1701
0, 2700.00000, 120.698, -31.2697, 121.092, -151.017, 121.75, 88.7869, 0, 0, 4.91418, -54.3436, 4.89817, -174.091, 4.87173, 65.713, 0.0567006, 86.1701
0, 2760.00000, 120.988, -31.233, 121.369, -150.985, 122.04, 88.8281, 0, 0, 4.66289, -54.3072, 4.64826, -174.059, 4.62281, 65.7538, 0.0532811, 85.2734
0, 2820.00000, 120.988, -31.233, 121.369, -150.985, 122.04, 88.8281, 0, 0, 4.6629, -54.3069, 4.64825, -174.059, 4.62269, 65.7542, 0.0533426, 85.236
0, 2880.00000, 120.988, -31.233, 121.369, -150.985, 122.04, 88.8281, 0, 0, 4.6629, -54.3069, 4.64825, -174.059, 4.62269, 65.7542, 0.0533436, 85.2354
0, 2940.00000, 120.988, -31.233, 121.369, -150.985, 122.04, 88.8281, 0, 0, 4.6629, -54.3069, 4.64825, -174.059, 4.62269, 65.7542, 0.0533436, 85.2354
0, 3000.00000, 120.988, -31.233, 121.369, -150.985, 122.04, 88.8281, 0, 0, 4.6629, -54.3069, 4.64825, -174.059, 4.62269, 65.7542, 0.0533436, 85.2354
0, 3060.00000, 120.988, -31.233, 121.369, -150.985, 122.04, 88.8281, 0, 0, 4.6629, -54.3069, 4.64825, -174.059, 4.62269, 65.7542, 0.0533436, 85.2354
0, 3120.00000, 120.988, -31.233, 121.369, -150.985, 122.04, 88.8281, 0, 0, 4.6629, -54.3069, 4.64825, -174.059, 4.62269, 65.7542, 0.0533436, 85.2354
0, 3180.00000, 120.988, -31.233, 121.369, -150.985, 122.04, 88.8281, 0, 0, 4.6629, -54.3069, 4.64825, -174.059, 4.62269, 65.7542, 0.0533436, 85.2354
0, 3240.00000, 120.988, -31.233, 121.369, -150.985, 122.04, 88.8281, 0, 0, 4.6629, -54.3069, 4.64825, -174.059, 4.62269, 65.7542, 0.0533436, 85.2354
0, 3300.00000, 120.988, -31.233, 121.369, -150.985, 122.04, 88.8281, 0, 0, 4.6629, -54.3069, 4.64825, -174.059, 4.62269, 65.7542, 0.0533436, 85.2354
0, 3360.00000, 120.988, -31.233, 121.369, -150.985, 122.04, 88.8281, 0, 0, 4.6629, -54.3069, 4.64825, -174.059, 4.62269, 65.7542, 0.0533436, 85.2354
0, 3420.00000, 120.988, -31.233, 121.369, -150.985, 122.04, 88.8281, 0, 0, 4.6629, -54.3069, 4.64825, -174.059, 4.62269, 65.7542, 0.0533436, 85.2354
0, 3480.00000, 120.988, -31.233, 121.369, -150.985, 122.04, 88.8281, 0, 0, 4.6629, -54.3069, 4.64825, -174.059, 4.62269, 65.7542, 0.0533436, 85.2354
0, 3540.00000, 120.988, -31.233, 121.369, -150.985, 122.04, 88.8281, 0, 0, 4.6629, -54.3069, 4.64825, -174.059, 4.62269, 65.7542, 0.0533436, 85.2354
1, 0.00000, 120.988, -31.233, 121.369, -150.985, 122.04, 88.8281, 0, 0, 4.6629, -54.3069, 4.64825, -174.059, 4.62269, 65.7542, 0.0533436, 85.2354
1, 60.00000, 121.21, -31.207, 121.579, -150.964, 122.264, 88.857, 0, 0, 4.59993, -54.2812, 4.58599, -174.037, 4.56036, 65.7828, 0.0522366, 84.4454
1, 120.00000, 121.21, -31.207, 121.579, -150.964, 122.265, 88.857, 0, 0, 4.59993, -54.2809, 4.58598, -174.038, 4.56025, 65.7831, 0.0522972, 84.4033
1, 180.00000, 121.21, -31.207, 121.579, -150.964, 122.265, 88.857, 0, 0, 4.59993, -54.2809, 4.58598, -174.038, 4.56025, 65.7831, 0.0522983, 84.4025
1, 240.00000, 121.21, -31.207, 121.579, -150.964, 122.265, 88.857, 0, 0, 4.59993, -54.2809, 4.58598, -174.038, 4.56025, 65.7831, 0.0522984, 84.4025
1, 300.00000, 121.21, -31.207, 121.579, -150.964, 122.265, 88.857, 0, 0, 4.59993, -54.2809, 4.58598, -174.038, 4.56025, 65.7831, 0.0522984, 84.4025
1, 360.00000, 121.21, -31.207, 121.579, -150.964, 122.265, 88.857, 0, 0, 4.59993, -54.2809, 4.58598, -174.038, 4.56025, 65.7831, 0.0522984, 84.4025
1, 420.00000, 121.21, -31.207, 121.579, -150.964, 122.265, 88.857, 0, 0, 4.59993, -54.2809, 4.58598, -174.038, 4.56025, 65.7831, 0.0522984, 84.4025
1, 480.00000, 121.21, -31.207, 121.579, -150.964, 122.265, 88.857, 0, 0, 4.59993, -54.2809, 4.58598, -174.038, 4.56025, 65.7831, 0.0522984, 84.4025
1, 540.00000, 121.21, -31.207, 121.579, -150.964, 122.265, 88.857, 0, 0, 4.59993, -54.2809, 4.58598, -174.038, 4.56025, 65.7831, 0.0522984, 84.4025
1, 600.00000, 121.21, -31.207, 121.579, -150.964, 122.265, 88.857, 0, 0, 4.59993, -54.2809, 4.58598, -174.038, 4.56025, 65.7831, 0.0522984, 84.4025
1, 660.00000, 121.21, -31.207, 121.579, -150.964, 122.265, 88.857, 0, 0, 4.59993, -54.2809, 4.58598, -174.038, 4.56025, 65.7831, 0.0522984, 84.4025
1, 720.00000, 121.21, -31.207, 121.579, -150.964, 122.265, 88.857, 0, 0, 4.59993, -54.2809, 4.58598, -174.038, 4.56025, 65.7831, 0.0522984, 84.4025
1, 780.00000, 121.21, -31.207, 121.579, -150.964, 122.265, 88.857, 0, 0, 4.59993, -54.2809, 4.58598, -174.038, 4.56025, 65.7831, 0.0522984, 84.4025
1, 840.00000, 121.21, -31.207, 121.579, -150.964, 122.265, 88.857, 0, 0, 4.59993, -54.2809, 4.58598, -174.038, 4.56025, 65.7831, 0.0522984, 84.4025
1, 900.00000, 121.21, -31.207, 121.579, -150.964, 122.265, 88.857, 0, 0, 4.59993, -54.2809, 4.58598, -174.038, 4.56025, 65.7831, 0.0522984, 84.4025
1, 960.00000, 121.235, -31.2024, 121.602, -150.96, 122.29, 88.862, 0, 0, 4.57751, -54.2767, 4.56368, -174.034, 4.5381, 65.7877, 0.0519683, 84.3453
1, 1020.00000, 121.235, -31.2024, 121.602, -150.96, 122.29, 88.8621, 0, 0, 4.57747, -54.2763, 4.56364, -174.034, 4.53796, 65.7881, 0.0520247, 84.2914
1, 1080.00000, 121.235, -31.2024, 121.602, -150.96, 122.29, 88.8621, 0, 0, 4.57747, -54.2763, 4.56364, -174.034, 4.53795, 65.7882, 0.0520262, 84.2904
1, 1140.00000, 121.235, -31.2024, 121.602, -150.96, 122.29, 88.8621, 0, 0, 4.57747, -54.2763, 4.56364, -174.034, 4.53795, 65.7882, 0.0520262, 84.2904
1, 1200.00000, 121.235, -31.2024, 121.602, -150.96, 122.29, 88.8621, 0, 0, 4.57747, -54.2763, 4.56364, -174.034, 4.53795, 65.7882, 0.0520262, 84.2904
1, 1260.00000, 121.235, -31.2024, 121.602, -150.96, 122.29, 88.8621, 0, 0, 4.57747, -54.2763, 4.56364, -174.034, 4.53795, 65.7882, 0.0520262, 84.2904
1, 1320.00000, 121.235, -31.2024, 121.602, -150.96, 122.29, 88.8621, 0, 0, 4.57747, -54.2763, 4.56364, -174.034, 4.53795, 65.7882, 0.0520262, 84.2904
1, 1380.00000, 121.235, -31.2024, 121.602, -150.96, 122.29, 88.8621, 0, 0, 4.57747, -54.2763, 4.56364, -174.034, 4.53795, 65.7882, 0.0520262, 84.2904
1, 1440.00000, 121.235, -31.2024, 121.602, -150.96, 122.29, 88.8621, 0, 0, 4.57747, -54.2763, 4.56364, -174.034, 4.53795, 65.7882, 0.0520262, 84.2904
1, 1500.00000, 121.235, -31.2024, 121.602, -150.96, 122.29, 88.8621, 0, 0, 4.57747, -54.2763, 4.56364, -174.034, 4.53795, 65.7882, 0.0520262, 84.2904
1, 1560.00000, 121.235, -31.2024, 121.602, -150.96, 122.29, 88.8621, 0, 0, 4.57747, -54.2763, 4.56364, -174.034, 4.53795, 65.7882, 0.0520262, 84.2904
1, 1620.00000, 121.235, -31.2024, 121.602, -150.96, 122.29, 88.8621, 0, 0, 4.57747, -54.2763, 4.56364, -174.034, 4.53795, 65.7882, 0.0520262, 84.2904
1, 1680.00000, 121.235, -31.2024, 121.602, -150.96, 122.29, 88.8621, 0, 0, 4.57747, -54.2763, 4.56364, -174.034, 4.53795, 65.7882, 0.0520262, 84.2904
1, 1740.00000, 121.235, -31.2024, 121.602, -150.96, 122.29, 88.8621, 0, 0, 4.57747, -54.2763, 4.56364, -174.034, 4.53795, 65.7882, 0.0520262, 84.2904
1, 1800.00000, 121.235, -31.2024, 121.602, -150.96, 122.29, 88.8621, 0, 0, 4.57747, -54.2763, 4.56364, -174.034, 4.53795, 65.7882, 0.0520262, 84.2904
1, 1860.00000, 121.031, -31.2267, 121.41, -150.98, 122.083, 88.8356, 0, 0, 4.69577, -54.3004, 4.68111, -174.054, 4.65521, 65.7619, 0.0536891, 85.001
1, 1920.00000, 121.031, -31.2268, 121.41, -150.979, 122.082, 88.8355, 0, 0, 4.69577, -54.3007, 4.68112, -174.053, 4.65531, 65.7616, 0.0536322, 85.039
1, 1980.00000, 121.031, -31.2268, 121.41, -150.979, 122.082, 88.8355, 0, 0, 4.69577, -54.3007, 4.68112, -174.053, 4.65532, 65.7616, 0.0536313, 85.0395
1, 2040.00000, 121.031, -31.2268, 121.41, -150.979, 122.082, 88.8355, 0, 0, 4.69577, -54.3007, 4.68112, -174.053, 4.65532, 65.7616, 0.0536313, 85.0395
1, 2100.00000, 121.031, -31.2268, 121.41, -150.979, 122.082, 88.8355, 0, 0, 4.69577, -54.3007, 4.68112, -174.053, 4.65532, 65.7616, 0.0536313, 85.0395
1, 2160.00000, 121.031, -31.2268, 121.41, -150.979, 122.082, 88.8355, 0, 0, 4.69577, -54.3007, 4.68112, -174.053, 4.65532, 65.7616, 0.0536313, 85.0395
1, 2220.00000, 121.031, -31.2268, 121.41, -150.979, 122.082, 88.8355, 0, 0, 4.69577, -54.3007, 4.68112, -174.053, 4.65532, 65.7616, 0.0536313, 85.0395
1, 2280.00000, 121.031, -31.2268, 121.41, -150.979, 122.082, 88.8355, 0, 0, 4.69577, -54.3007, 4.68112, -174.053, 4.65532, 65.7616, 0.0536313, 85.0395
1, 2340.00000, 121.031, -31.2268, 121.41, -150.979, 122.082, 88.8355, 0, 0, 4.69577, -54.3007, 4.68112, -174.053, 4.65532, 65.7616, 0.0536313, 85.0395
1, 2400.00000, 121.031, -31.2268, 121.41, -150.979, 122.082, 88.8355, 0, 0, 4.69577, -54.3007, 4.68112, -174.053, 4.65532, 65.7616, 0.0536313, 85.0395
1, 2460.00000, 121.031, -31.2268, 121.41, -150.979, 122.082, 88.8355, 0, 0, 4.69577, -54.3007, 4.68112, -174.053, 4.65532, 65.7616, 0.0536313, 85.0395
1, 2520.00000, 121.031, -31.2268, 121.41, -150.979, 122.082, 88.8355, 0, 0, 4.69577, -54.3007, 4.68112, -174.053, 4.65532, 65.7616, 0.0536313, 85.0395
1, 2580.00000, 121.031, -31.2268, 121.41, -150.979, 122.082, 88.8355, 0, 0, 4.69577, -54.3007, 4.68112, -174.053, 4.65532, 65.7616, 0.0536313, 85.0395
1, 2640.00000, 121.031, -31.2268, 121.41, -150.979, 122.082, 88.8355, 0, 0, 4.69577, -54.3007, 4.68112, -174.053, 4.65532, 65.7616, 0.0536313, 85.0395
1, 2700.00000, 120.957, -31.2207, 120.394, -151.322, 120.889, 89.0735, 0, 0, 4.69865, -54.2945, 4.69817, -174.396, 4.7012, 66.0001, 0.0296148, -43.8795
1, 2760.00000, 121.363, -31.1722, 120.762, -151.278, 121.263, 89.1267, 0, 0, 4.41277, -54.2463, 4.43469, -174.352, 4.41638, 66.0526, 0.0460958, -23.8025
1, 2820.00000, 121.363, -31.1722, 120.762, -151.278, 121.263, 89.1267, 0, 0, 4.41273, -54.2461, 4.43468, -174.351, 4.41635, 66.0528, 0.0461201, -23.8061
1, 2880.00000, 121.363, -31.1722, 120.762, -151.278, 121.263, 89.1267, 0, 0, 4.41273, -54.2461, 4.43468, -174.351, 4.41635, 66.0528, 0.0461202, -23.8061
1, 2940.00000, 121.363, -31.1722, 120.762, -151.278, 121.263, 89.1267, 0, 0, 4.41273, -54.2461, 4.43468, -174.351, 4.41635, 66.0528, 0.0461202, -23.8061
1, 3000.00000, 121.363, -31.1722, 120.762, -151.278, 121.263, 89.1267, 0, 0, 4.41273, -54.2461, 4.43468, -174.351, 4.41635, 66.0528, 0.0461202, -23.8061
1, 3060.00000, 121.363, -31.1722, 120.762, -151.278, 121.263, 89.1267, 0, 0, 4.41273, -54.2461, 4.43468, -174.351, 4.41635, 66.0528, 0.0461202, -23.8061
1, 3120.00000, 121.363, -31.1722, 120.762, -151.278, 121.263, 89.1267, 0, 0, 4.41273, -54.2461, 4.43468, -174.351, 4.41635, 66.0528, 0.0461202, -23.8061
1, 3180.00000, 121.363, -31.1722, 120.762, -151.278, 121.263, 89.1267, 0, 0, 4.41273, -54.2461, 4.43468, -174.351, 4.41635, 66.0528, 0.0461202, -23.8061
1, 3240.00000, 121.363, -31.1722, 120.762, -151.278, 121.263, 89.1267, 0, 0, 4.41273, -54.2461, 4.43468, -174.351, 4.41635, 66.0528, 0.0461202, -23.8061
1, 3300.00000, 121.363, -31.1722, 120.762, -151.278, 121.263, 89.1267, 0, 0, 4.41273, -54.2461, 4.43468, -174.351, 4.41635, 66.0528, 0.0461202, -23.8061
1, 3360.00000, 121.363, -31.1722, 120.762, -151.278, 121.263, 89.1267, 0, 0, 4.41273, -54.2461, 4.43468, -174.351, 4.41635, 66.0528, 0.0461202, -23.8061
1, 3420.00000, 121.363, -31.1722, 120.762, -151.278, 121.263, 89.1267, 0, 0, 4.41273, -54.2461, 4.43468, -174.351, 4.41635, 66.0528, 0.0461202, -23.8061
1, 3480.00000, 121.363, -31.1722, 120.762, -151.278, 121.263, 89.1267, 0, 0, 4.41273, -54.2461, 4.43468, -174.351, 4.41635, 66.0528, 0.0461202, -23.8061
1, 3540.00000, 121.363, -31.1722, 120.762, -151.278, 121.263, 89.1267, 0, 0, 4.41273, -54.2461, 4.43468, -174.351, 4.41635, 66.0528, 0.0461202, -23.8061
2, 0.00000, 121.363, -31.1722, 120.762, -151.278, 121.263, 89.1267, 0, 0, 4.41273, -54.2461, 4.43468, -174.351, 4.41635, 66.0528, 0.0461202, -23.8061
2, 60.00000, 121.112, -31.2012, 120.534, -151.304, 121.032, 89.0947, 0, 0, 4.5405, -54.275, 4.55177, -174.378, 4.54351, 66.0209, 0.0375532, -30.9858
2, 120.00000, 121.112, -31.2012, 120.534, -151.304, 121.032, 89.0947, 0, 0, 4.54052, -54.2752, 4.55177, -174.378, 4.54353, 66.0208, 0.0375306, -30.9953
2, 180.00000, 121.112, -31.2012, 120.534, -151.304, 121.032, 89.0947, 0, 0, 4.54052, -54.2752, 4.55177, -174.378, 4.54353, 66.0208, 0.0375305, -30.9953
2, 240.00000, 121.112, -31.2012, 120.534, -151.304, 121.032, 89.0947, 0, 0, 4.54052, -54.2752, 4.55177, -174.378, 4.54353, 66.0208, 0.0375305, -30.9953
2, 300.00000, 121.112, -31.2012, 120.534, -151.304, 121.032, 89.0947, 0, 0, 4.54052, -54.2752, 4.55177, -174.378, 4.54353, 66.0208, 0.0375305, -30.9953
2, 360.00000, 121.112, -31.2012, 120.534, -151.304, 121.032, 89.0947, 0, 0, 4.54052, -54.2752, 4.55177, -174.378, 4.54353, 66.0208, 0.0375305, -30.9953
2, 420.00000, 121.112, -31.2012, 120.534, -151.304, 121.032, 89.0947, 0, 0, 4.54052, -54.2752, 4.55177, -174.378, 4.54353, 66.0208, 0.0375305, -30.9953
2, 480.00000, 121.112, -31.2012, 120.534, -151.304, 121.032, 89.0947, 0, 0, 4.54052, -54.2752, 4.55177, -174.378, 4.54353, 66.0208, 0.0375305, -30.9953
2, 540.00000, 121.298, -31.0477, 120.919, -151.292, 121.012, 89.0985, 0, 0, 4.53358, -54.1217, 4.54781, -174.367, 4.54426, 66.0246, 0.0393216, -55.3905
2, 600.00000, 121.299, -31.0477, 120.919, -151.292, 121.012, 89.0985, 0, 0, 4.53355, -54.1216, 4.54776, -174.366, 4.54429, 66.0246, 0.0393189, -55.4625
2, 660.00000, 121.299, -31.0477, 120.919, -151.292, 121.012, 89.0985, 0, 0, 4.53355, -54.1216, 4.54776, -174.366, 4.54429, 66.0246, 0.0393189, -55.463
2, 720.00000, 121.299, -31.0477, 120.919, -151.292, 121.012, 89.0985, 0, 0, 4.53355, -54.1216, 4.54776, -174.366, 4.54429, 66.0246, 0.0393189, -55.463
