hour,t(sec),V1,VAngle1,V2,VAngle2,V3,VAngle3,V4,VAngle4,I1,IAngle1,I2,IAngle2,I3,IAngle3,I4,IAngle4
0, 60.00000, 122.006, -32.7907, 121.169, -151.961, 123.736, 88.036, 0, 0, 8.96813, -55.8643, 9.03013, -175.035, 8.84297, 64.9627, 0.293338, 41.018
0, 120.00000, 122.009, -32.8048, 121.169, -151.962, 123.766, 88.0305, 0, 0, 8.96788, -55.8785, 9.03016, -175.036, 8.8408, 64.9572, 0.297138, 41.2265
0, 180.00000, 122.012, -32.8176, 121.169, -151.962, 123.793, 88.0256, 0, 0, 8.96766, -55.8913, 9.03018, -175.036, 8.83885, 64.9522, 0.300561, 41.4104
0, 240.00000, 122.015, -32.8291, 121.168, -151.962, 123.818, 88.0211, 0, 0, 8.96747, -55.9028, 9.0302, -175.036, 8.8371, 64.9477, 0.303644, 41.5729
0, 300.00000, 122.017, -32.8395, 121.168, -151.963, 123.84, 88.0171, 0, 0, 8.96729, -55.9132, 9.03022, -175.036, 8.83552, 64.9436, 0.306421, 41.7168
0, 360.00000, 122.02, -32.8488, 121.168, -151.963, 123.86, 88.0135, 0, 0, 8.96714, -55.9225, 9.03024, -175.037, 8.83409, 64.94, 0.308924, 41.8445
0, 420.00000, 122.022, -32.8571, 121.168, -151.963, 123.878, 88.0102, 0, 0, 8.967, -55.9309, 9.03026, -175.037, 8.83281, 64.9367, 0.311182, 41.9579
0, 480.00000, 122.718, -32.7445, 121.8, -151.852, 124.574, 88.1485, 0, 0, 8.05622, -55.8183, 8.11701, -174.925, 7.93634, 65.0749, 0.283465, 40.8518
0, 540.00000, 122.72, -32.7513, 121.8, -151.852, 124.59, 88.1459, 0, 0, 8.05612, -55.8251, 8.11702, -174.926, 7.93537, 65.0722, 0.285133, 40.9492
0, 600.00000, 122.721, -32.7574, 121.8, -151.852, 124.603, 88.1435, 0, 0, 8.05603, -55.8312, 8.11704, -174.926, 7.93449, 65.0699, 0.286639, 41.036
0, 660.00000, 122.723, -32.7629, 121.799, -151.852, 124.616, 88.1414, 0, 0, 8.05595, -55.8368, 8.11705, -174.926, 7.9337, 65.0677, 0.287995, 41.1136
0, 720.00000, 122.724, -32.7679, 121.799, -151.853, 124.627, 88.1395, 0, 0, 8.05588, -55.8417, 8.11706, -174.926, 7.93298, 65.0658, 0.289215, 41.1828
0, 780.00000, 122.725, -32.7723, 121.799, -151.853, 124.637, 88.1378, 0, 0, 8.05582, -55.8462, 8.11708, -174.926, 7.93234, 65.064, 0.290314, 41.2447
0, 840.00000, 122.726, -32.7764, 121.799, -151.853, 124.646, 88.1362, 0, 0, 8.05576, -55.8502, 8.11709, -174.927, 7.93177, 65.0625, 0.291303, 41.3001
0, 900.00000, 122.726, -32.78, 121.799, -151.853, 124.654, 88.1348, 0, 0, 8.05571, -55.8538, 8.11709, -174.927, 7.93125, 65.0611, 0.292193, 41.3497
0, 960.00000, 122.295, -33.107, 120.983, -151.855, 124.695, 88.1174, 0, 0, 8.08415, -56.1808, 8.17182, -174.929, 7.92858, 65.0436, 0.386996, 40.3096
0, 1020.00000, 122.295, -33.1099, 120.983, -151.855, 124.702, 88.1162, 0, 0, 8.08411, -56.1838, 8.17182, -174.929, 7.92817, 65.0424, 0.38771, 40.3419
0, 1080.00000, 122.296, -33.1125, 120.983, -151.855, 124.708, 88.1152, 0, 0, 8.08407, -56.1864, 8.17183, -174.929, 7.92779, 65.0414, 0.388353, 40.371
0, 1140.00000, 122.388, -32.9812, 121.281, -151.82, 124.71, 88.1173, 0, 0, 8.078, -56.0551, 8.15174, -174.894, 7.92763, 65.0435, 0.356219, 42.2311
0, 1200.00000, 122.388, -32.9833, 121.281, -151.82, 124.715, 88.1165, 0, 0, 8.07797, -56.0572, 8.15174, -174.894, 7.92732, 65.0426, 0.356744, 42.2541
0, 1260.00000, 122.389, -32.9852, 121.281, -151.82, 124.719, 88.1157, 0, 0, 8.07795, -56.0591, 8.15175, -174.894, 7.92705, 65.0419, 0.357217, 42.2748
0, 1320.00000, 122.389, -32.987, 121.281, -151.82, 124.723, 88.115, 0, 0, 8.07793, -56.0609, 8.15175, -174.894, 7.9268, 65.0412, 0.357643, 42.2933
0, 1380.00000, 122.39, -32.9885, 121.281, -151.82, 124.727, 88.1144, 0, 0, 8.0779, -56.0624, 8.15175, -174.894, 7.92658, 65.0406, 0.358027, 42.31
0, 1440.00000, 122.39, -32.9899, 121.281, -151.82, 124.73, 88.1139, 0, 0, 8.07789, -56.0638, 8.15176, -174.894, 7.92638, 65.04, 0.358372, 42.3249
0, 1500.00000, 122.39, -32.9912, 121.281, -151.82, 124.732, 88.1134, 0, 0, 8.07787, -56.0651, 8.15176, -174.894, 7.9262, 65.0395, 0.358683, 42.3384
0, 1560.00000, 122.39, -32.9923, 121.281, -151.82, 124.735, 88.1129, 0, 0, 8.07786, -56.0662, 8.15176, -174.894, 7.92604, 65.0391, 0.358962, 42.3504
0, 1620.00000, 122.391, -32.9933, 121.281, -151.82, 124.737, 88.1125, 0, 0, 8.07784, -56.0672, 8.15176, -174.894, 7.9259, 65.0387, 0.359214, 42.3613
0, 1680.00000, 122.391, -32.9943, 121.281, -151.82, 124.739, 88.1122, 0, 0, 8.07783, -56.0682, 8.15176, -174.894, 7.92576, 65.0383, 0.35944, 42.3711
0, 1740.00000, 122.391, -32.9951, 121.281, -151.82, 124.741, 88.1118, 0, 0, 8.07782, -56.069, 8.15177, -174.894, 7.92565, 65.038, 0.359644, 42.3799
0, 1800.00000, 121.765, -32.951, 121.283, -151.814, 124.284, 87.8898, 0, 0, 8.11931, -56.0249, 8.15161, -174.888, 7.95479, 64.8159, 0.326789, 52.9556
0, 1860.00000, 121.766, -32.9517, 121.283, -151.814, 124.285, 87.8896, 0, 0, 8.1193, -56.0256, 8.15161, -174.888, 7.9547, 64.8157, 0.326956, 52.9577
0, 1920.00000, 121.766, -32.9523, 121.283, -151.814, 124.287, 87.8893, 0, 0, 8.11929, -56.0262, 8.15161, -174.888, 7.95462, 64.8154, 0.327107, 52.9595
0, 1980.00000, 121.766, -32.9528, 121.283, -151.814, 124.288, 87.8891, 0, 0, 8.11929, -56.0267, 8.15161, -174.888, 7.95454, 64.8152, 0.327243, 52.9612
0, 2040.00000, 121.766, -32.9533, 121.283, -151.814, 124.289, 87.8889, 0, 0, 8.11928, -56.0272, 8.15161, -174.888, 7.95447, 64.815, 0.327365, 52.9627
0, 2100.00000, 121.766, -32.9537, 121.283, -151.814, 124.29, 87.8888, 0, 0, 8.11927, -56.0276, 8.15161, -174.888, 7.95441, 64.8149, 0.327476, 52.9641
0, 2160.00000, 121.766, -32.9541, 121.283, -151.814, 124.291, 87.8886, 0, 0, 8.11927, -56.028, 8.15161, -174.888, 7.95436, 64.8147, 0.327575, 52.9653
0, 2220.00000, 121.766, -32.9545, 121.283, -151.814, 124.292, 87.8885, 0, 0, 8.11926, -56.0284, 8.15161, -174.888, 7.95431, 64.8146, 0.327664, 52.9664
0, 2280.00000, 121.766, -32.9548, 121.283, -151.814, 124.292, 87.8884, 0, 0, 8.11926, -56.0287, 8.15161, -174.888, 7.95426, 64.8145, 0.327744, 52.9674
0, 2340.00000, 121.766, -32.9551, 121.283, -151.814, 124.293, 87.8883, 0, 0, 8.11925, -56.029, 8.15161, -174.888, 7.95422, 64.8144, 0.327817, 52.9683
0, 2400.00000, 121.766, -32.9553, 121.283, -151.814, 124.293, 87.8882, 0, 0, 8.11925, -56.0292, 8.15161, -174.888, 7.95419, 64.8143, 0.327882, 52.9692
0, 2460.00000, 121.767, -32.9556, 121.283, -151.814, 124.294, 87.8881, 0, 0, 8.11925, -56.0295, 8.15161, -174.888, 7.95416, 64.8142, 0.32794, 52.9699
0, 2520.00000, 121.767, -32.9558, 121.283, -151.814, 124.294, 87.888, 0, 0, 8.11924, -56.0297, 8.15161, -174.888, 7.95413, 64.8141, 0.327993, 52.9705
0, 2580.00000, 121.767, -32.956, 121.283, -151.814, 124.295, 87.8879, 0, 0, 8.11924, -56.0299, 8.15161, -174.888, 7.9541, 64.814, 0.32804, 52.9711
0, 2640.00000, 121.767, -32.9561, 121.283, -151.814, 124.295, 87.8879, 0, 0, 8.11924, -56.03, 8.15161, -174.888, 7.95408, 64.8139, 0.328083, 52.9716
0, 2700.00000, 121.767, -32.9563, 121.283, -151.814, 124.295, 87.8878, 0, 0, 8.11924, -56.0302, 8.15161, -174.888, 7.95405, 64.8139, 0.328122, 52.9721
0, 2760.00000, 122.082, -32.9235, 121.282, -151.815, 124.418, 88.0225, 0, 0, 8.09824, -55.9974, 8.15171, -174.889, 7.94623, 64.9485, 0.330268, 46.859
0, 2820.00000, 122.082, -32.9236, 121.282, -151.815, 124.418, 88.0224, 0, 0, 8.09824, -55.9975, 8.15171, -174.889, 7.94621, 64.9485, 0.330302, 46.86
0, 2880.00000, 122.082, -32.9237, 121.282, -151.815, 124.418, 88.0224, 0, 0, 8.09824, -55.9976, 8.15171, -174.889, 7.94619, 64.9485, 0.33033, 46.8608
0, 2940.00000, 122.082, -32.9238, 121.282, -151.815, 124.419, 88.0223, 0, 0, 8.09824, -55.9977, 8.15171, -174.889, 7.94618, 64.9484, 0.330355, 46.8616
0, 3000.00000, 122.082, -32.9239, 121.282, -151.815, 124.419, 88.0223, 0, 0, 8.09823, -55.9978, 8.15172, -174.889, 7.94617, 64.9484, 0.330377, 46.8623
0, 3060.00000, 122.083, -32.924, 121.282, -151.815, 124.419, 88.0223, 0, 0, 8.09823, -55.9979, 8.15172, -174.889, 7.94616, 64.9483, 0.330397, 46.863
0, 3120.00000, 122.083, -32.9241, 121.282, -151.815, 124.419, 88.0222, 0, 0, 8.09823, -55.998, 8.15172, -174.889, 7.94615, 64.9483, 0.330415, 46.8636
0, 3180.00000, 122.083, -32.9241, 121.282, -151.815, 124.419, 88.0222, 0, 0, 8.09823, -55.9981, 8.15172, -174.889, 7.94614, 64.9483, 0.330432, 46.8641
0, 3240.00000, 122.083, -32.9242, 121.282, -151.815, 124.419, 88.0222, 0, 0, 8.09823, -55.9981, 8.15172, -174.889, 7.94613, 64.9483, 0.330446, 46.8645
0, 3300.00000, 122.083, -32.9242, 121.282, -151.815, 124.42, 88.0222, 0, 0, 8.09823, -55.9982, 8.15172, -174.889, 7.94612, 64.9482, 0.33046, 46.865
0, 3360.00000, 122.083, -32.9243, 121.282, -151.815, 124.42, 88.0221, 0, 0, 8.09823, -55.9982, 8.15172, -174.889, 7.94611, 64.9482, 0.330471, 46.8653
0, 3420.00000, 122.083, -32.9243, 121.282, -151.815, 124.42, 88.0221, 0, 0, 8.09823, -55.9983, 8.15172, -174.889, 7.94611, 64.9482, 0.330482, 46.8657
0, 3480.00000, 122.083, -32.9244, 121.282, -151.815, 124.42, 88.0221, 0, 0, 8.09823, -55.9983, 8.15172, -174.889, 7.9461, 64.9482, 0.330492, 46.866
0, 3540.00000, 122.083, -32.9244, 121.282, -151.815, 124.42, 88.0221, 0, 0, 8.09823, -55.9983, 8.15172, -174.889, 7.9461, 64.9482, 0.3305, 46.8662
1, 0.00000, 122.083, -32.9244, 121.282, -151.815, 124.42, 88.0221, 0, 0, 8.09823, -55.9984, 8.15172, -174.889, 7.94609, 64.9482, 0.330508, 46.8665
1, 60.00000, 122.171, -32.7946, 121.572, -151.782, 124.418, 88.0249, 0, 0, 8.0924, -55.8685, 8.13225, -174.856, 7.94625, 64.951, 0.30026, 49.6216
1, 120.00000, 122.171, -32.7946, 121.572, -151.782, 124.418, 88.0249, 0, 0, 8.0924, -55.8685, 8.13225, -174.856, 7.94624, 64.951, 0.300266, 49.6217
1, 180.00000, 122.171, -32.7946, 121.572, -151.782, 124.418, 88.0249, 0, 0, 8.0924, -55.8686, 8.13225, -174.856, 7.94624, 64.9509, 0.300272, 49.6219
1, 240.00000, 122.171, -32.7947, 121.572, -151.782, 124.418, 88.0249, 0, 0, 8.0924, -55.8686, 8.13225, -174.856, 7.94624, 64.9509, 0.300277, 49.622
1, 300.00000, 122.171, -32.7947, 121.572, -151.782, 124.418, 88.0248, 0, 0, 8.0924, -55.8686, 8.13225, -174.856, 7.94623, 64.9509, 0.300282, 49.6222
1, 360.00000, 122.171, -32.7947, 121.572, -151.782, 124.418, 88.0248, 0, 0, 8.09239, -55.8686, 8.13225, -174.856, 7.94623, 64.9509, 0.300286, 49.6223
1, 420.00000, 122.171, -32.7947, 121.572, -151.782, 124.418, 88.0248, 0, 0, 8.09239, -55.8686, 8.13225, -174.856, 7.94623, 64.9509, 0.30029, 49.6224
1, 480.00000, 122.171, -32.7947, 121.572, -151.782, 124.418, 88.0248, 0, 0, 8.09239, -55.8686, 8.13225, -174.856, 7.94623, 64.9509, 0.300293, 49.6224
1, 540.00000, 122.171, -32.7947, 121.572, -151.782, 124.418, 88.0248, 0, 0, 8.09239, -55.8687, 8.13225, -174.856, 7.94623, 64.9509, 0.300296, 49.6225
1, 600.00000, 122.171, -32.7948, 121.572, -151.782, 124.418, 88.0248, 0, 0, 8.09239, -55.8687, 8.13225, -174.856, 7.94622, 64.9509, 0.300299, 49.6226
1, 660.00000, 122.171, -32.7948, 121.572, -151.782, 124.418, 88.0248, 0, 0, 8.09239, -55.8687, 8.13225, -174.856, 7.94622, 64.9509, 0.300301, 49.6227
1, 720.00000, 122.171, -32.7948, 121.572, -151.782, 124.418, 88.0248, 0, 0, 8.09239, -55.8687, 8.13225, -174.856, 7.94622, 64.9509, 0.300304, 49.6227
1, 780.00000, 122.201, -32.7991, 121.93, -151.583, 125.049, 87.9917, 0, 0, 8.09037, -55.873, 8.10837, -174.657, 7.90613, 64.9178, 0.344163, 57.9468
1, 840.00000, 122.201, -32.7991, 121.93, -151.583, 125.049, 87.9917, 0, 0, 8.09037, -55.873, 8.10837, -174.657, 7.90613, 64.9178, 0.344167, 57.9467
1, 900.00000, 122.201, -32.7991, 121.93, -151.583, 125.049, 87.9917, 0, 0, 8.09037, -55.873, 8.10837, -174.657, 7.90612, 64.9178, 0.344169, 57.9467
1, 960.00000, 122.201, -32.7991, 121.93, -151.583, 125.049, 87.9917, 0, 0, 8.09037, -55.873, 8.10837, -174.657, 7.90612, 64.9178, 0.344171, 57.9467
1, 1020.00000, 122.201, -32.7991, 121.93, -151.583, 125.049, 87.9917, 0, 0, 8.09037, -55.873, 8.10837, -174.657, 7.90612, 64.9178, 0.344172, 57.9467
1, 1080.00000, 122.201, -32.7991, 121.93, -151.583, 125.049, 87.9917, 0, 0, 8.09037, -55.873, 8.10837, -174.657, 7.90612, 64.9178, 0.344173, 57.9467
1, 1140.00000, 122.201, -32.7991, 121.93, -151.583, 125.049, 87.9917, 0, 0, 8.09037, -55.873, 8.10837, -174.657, 7.90612, 64.9178, 0.344174, 57.9467
1, 1200.00000, 122.201, -32.7991, 121.93, -151.583, 125.049, 87.9917, 0, 0, 8.09037, -55.8731, 8.10837, -174.657, 7.90612, 64.9178, 0.344175, 57.9466
1, 1260.00000, 122.201, -32.7991, 121.93, -151.583, 125.049, 87.9917, 0, 0, 8.09037, -55.8731, 8.10837, -174.657, 7.90612, 64.9178, 0.344176, 57.9466
1, 1320.00000, 122.201, -32.7991, 121.93, -151.583, 125.049, 87.9917, 0, 0, 8.09037, -55.8731, 8.10837, -174.657, 7.90612, 64.9178, 0.344177, 57.9466
1, 1380.00000, 122.201, -32.7991, 121.93, -151.583, 125.049, 87.9917, 0, 0, 8.09037, -55.8731, 8.10837, -174.657, 7.90612, 64.9178, 0.344178, 57.9466
1, 1440.00000, 122.201, -32.7991, 121.93, -151.583, 125.049, 87.9917, 0, 0, 8.09037, -55.8731, 8.10837, -174.657, 7.90612, 64.9177, 0.344178, 57.9466
1, 1500.00000, 122.201, -32.7991, 121.93, -151.583, 125.049, 87.9917, 0, 0, 8.09037, -55.8731, 8.10837, -174.657, 7.90612, 64.9177, 0.344179, 57.9466
1, 1560.00000, 122.201, -32.7991, 121.93, -151.583, 125.049, 87.9917, 0, 0, 8.09037, -55.8731, 8.10837, -174.657, 7.90612, 64.9177, 0.344179, 57.9466
1, 1620.00000, 122.201, -32.7991, 121.93, -151.583, 125.049, 87.9917, 0, 0, 8.09037, -55.8731, 8.10837, -174.657, 7.90612, 64.9177, 0.34418, 57.9466
1, 1680.00000, 122.201, -32.7992, 121.93, -151.583, 125.049, 87.9917, 0, 0, 8.09037, -55.8731, 8.10837, -174.657, 7.90612, 64.9177, 0.34418, 57.9466
1, 1740.00000, 122.201, -32.7992, 121.93, -151.583, 125.049, 87.9917, 0, 0, 8.09037, -55.8731, 8.10837, -174.657, 7.90612, 64.9177, 0.344181, 57.9466
1, 1800.00000, 122.201, -32.7992, 121.93, -151.583, 125.049, 87.9917, 0, 0, 8.09037, -55.8731, 8.10837, -174.657, 7.90612, 64.9177, 0.344181, 57.9466
1, 1860.00000, 122.201, -32.7992, 121.93, -151.583, 125.049, 87.9917, 0, 0, 8.09037, -55.8731, 8.10837, -174.657, 7.90612, 64.9177, 0.344181, 57.9466
1, 1920.00000, 122.201, -32.7992, 121.93, -151.583, 125.049, 87.9917, 0, 0, 8.09037, -55.8731, 8.10837, -174.657, 7.90612, 64.9177, 0.344182, 57.9466
1, 1980.00000, 122.201, -32.7992, 121.93, -151.583, 125.049, 87.9917, 0, 0, 8.09037, -55.8731, 8.10837, -174.657, 7.90612, 64.9177, 0.344182, 57.9466
1, 2040.00000, 122.201, -32.7992, 121.93, -151.583, 125.049, 87.9917, 0, 0, 8.09037, -55.8731, 8.10837, -174.657, 7.90612, 64.9177, 0.344182, 57.9466
1, 2100.00000, 122.201, -32.7992, 121.93, -151.583, 125.049, 87.9917, 0, 0, 8.09037, -55.8731, 8.10837, -174.657, 7.90612, 64.9177, 0.344182, 57.9466
1, 2160.00000, 122.201, -32.7992, 121.93, -151.583, 125.049, 87.9917, 0, 0, 8.09037, -55.8731, 8.10837, -174.657, 7.90612, 64.9177, 0.344182, 57.9466
1, 2220.00000, 122.824, -32.8414, 121.923, -151.59, 125.525, 88.2133, 0, 0, 8.04935, -55.9153, 8.10883, -174.664, 7.87612, 65.1394, 0.372175, 47.492
1, 2280.00000, 122.824, -32.8414, 121.923, -151.59, 125.525, 88.2133, 0, 0, 8.04936, -55.9153, 8.10883, -174.664, 7.87611, 65.1394, 0.372179, 47.4921
1, 2340.00000, 122.824, -32.8414, 121.923, -151.59, 125.525, 88.2133, 0, 0, 8.04936, -55.9153, 8.10883, -174.664, 7.87611, 65.1394, 0.372179, 47.4921
1, 2400.00000, 122.824, -32.8414, 121.923, -151.59, 125.525, 88.2133, 0, 0, 8.04936, -55.9153, 8.10883, -174.664, 7.87611, 65.1394, 0.372179, 47.4921
1, 2460.00000, 122.824, -32.8414, 121.923, -151.59, 125.525, 88.2133, 0, 0, 8.04936, -55.9153, 8.10883, -174.664, 7.87611, 65.1394, 0.372179, 47.4921
1, 2520.00000, 122.824, -32.8414, 121.923, -151.59, 125.525, 88.2133, 0, 0, 8.04936, -55.9153, 8.10883, -174.664, 7.87611, 65.1394, 0.37218, 47.4921
1, 2580.00000, 122.824, -32.8414, 121.923, -151.59, 125.525, 88.2133, 0, 0, 8.04936, -55.9153, 8.10883, -174.664, 7.87611, 65.1394, 0.37218, 47.4921
1, 2640.00000, 122.824, -32.8414, 121.923, -151.59, 125.525, 88.2133, 0, 0, 8.04936, -55.9153, 8.10883, -174.664, 7.87611, 65.1394, 0.37218, 47.4921
1, 2700.00000, 122.824, -32.8414, 121.923, -151.59, 125.525, 88.2133, 0, 0, 8.04936, -55.9153, 8.10883, -174.664, 7.87611, 65.1394, 0.37218, 47.4921
1, 2760.00000, 122.824, -32.8414, 121.923, -151.59, 125.525, 88.2133, 0, 0, 8.04936, -55.9153, 8.10883, -174.664, 7.87611, 65.1394, 0.37218, 47.4921
1, 2820.00000, 122.824, -32.8414, 121.923, -151.59, 125.525, 88.2133, 0, 0, 8.04936, -55.9153, 8.10883, -174.664, 7.87611, 65.1394, 0.37218, 47.4921
1, 2880.00000, 122.824, -32.8414, 121.923, -151.59, 125.525, 88.2133, 0, 0, 8.04936, -55.9153, 8.10883, -174.664, 7.87611, 65.1394, 0.37218, 47.4921
1, 2940.00000, 122.824, -32.8414, 121.923, -151.59, 125.525, 88.2133, 0, 0, 8.04936, -55.9153, 8.10883, -174.664, 7.87611, 65.1394, 0.37218, 47.4921
1, 3000.00000, 122.824, -32.8414, 121.923, -151.59, 125.525, 88.2133, 0, 0, 8.04936, -55.9153, 8.10883, -174.664, 7.87611, 65.1394, 0.37218, 47.4921
1, 3060.00000, 122.824, -32.8414, 121.923, -151.59, 125.525, 88.2133, 0, 0, 8.04936, -55.9153, 8.10883, -174.664, 7.87611, 65.1394, 0.37218, 47.4921
1, 3120.00000, 122.824, -32.8414, 121.923, -151.59, 125.525, 88.2133, 0, 0, 8.04936, -55.9153, 8.10883, -174.664, 7.87611, 65.1394, 0.37218, 47.4921
1, 3180.00000, 122.824, -32.8414, 121.923, -151.59, 125.525, 88.2133, 0, 0, 8.04936, -55.9153, 8.10883, -174.664, 7.87611, 65.1394, 0.37218, 47.4921
1, 3240.00000, 122.824, -32.8414, 121.923, -151.59, 125.525, 88.2133, 0, 0, 8.04936, -55.9153, 8.10883, -174.664, 7.87611, 65.1394, 0.37218, 47.4921
1, 3300.00000, 122.824, -32.8414, 121.923, -151.59, 125.525, 88.2133, 0, 0, 8.04936, -55.9153, 8.10883, -174.664, 7.87611, 65.1394, 0.37218, 47.4921
1, 3360.00000, 122.824, -32.8414, 121.923, -151.59, 125.525, 88.2133, 0, 0, 8.04936, -55.9153, 8.10883, -174.664, 7.87611, 65.1394, 0.37218, 47.4921
1, 3420.00000, 122.824, -32.8414, 121.923, -151.59, 125.525, 88.2133, 0, 0, 8.04936, -55.9153, 8.10883, -174.664, 7.87611, 65.1394, 0.37218, 47.4921
1, 3480.00000, 122.824, -32.8414, 121.923, -151.59, 125.525, 88.2133, 0, 0, 8.04936, -55.9153, 8.10883, -174.664, 7.87611, 65.1394, 0.37218, 47.4921
1, 3540.00000, 122.824, -32.8414, 121.923, -151.59, 125.525, 88.2133, 0, 0, 8.04936, -55.9153, 8.10883, -174.664, 7.87611, 65.1394, 0.37218, 47.4921
2, 0.00000, 122.824, -32.8414, 121.923, -151.59, 125.525, 88.2133, 0, 0, 8.04936, -55.9153, 8.10883, -174.664, 7.87611, 65.1394, 0.37218, 47.4921
2, 60.00000, 122.824, -32.8414, 121.923, -151.59, 125.525, 88.2133, 0, 0, 8.04936, -55.9153, 8.10883, -174.664, 7.87611, 65.1394, 0.37218, 47.4921
2, 120.00000, 122.824, -32.8414, 121.923, -151.59, 125.525, 88.2133, 0, 0, 8.04936, -55.9153, 8.10883, -174.664, 7.87611, 65.1394, 0.37218, 47.4921
2, 180.00000, 122.824, -32.8414, 121.923, -151.59, 125.525, 88.2133, 0, 0, 8.04936, -55.9153, 8.10883, -174.664, 7.87611, 65.1394, 0.37218, 47.4921
2, 240.00000, 122.824, -32.8414, 121.923, -151.59, 125.525, 88.2133, 0, 0, 8.04936, -55.9153, 8.10883, -174.664, 7.87611, 65.1394, 0.37218, 47.4921
2, 300.00000, 122.824, -32.8414, 121.923, -151.59, 125.525, 88.2133, 0, 0, 8.04936, -55.9153, 8.10883, -174.664, 7.87611, 65.1394, 0.37218, 47.4921
2, 360.00000, 122.824, -32.8414, 121.923, -151.59, 125.525, 88.2133, 0, 0, 8.04936, -55.9153, 8.10883, -174.664, 7.87611, 65.1394, 0.37218, 47.4921
2, 420.00000, 122.824, -32.8414, 121.923, -151.59, 125.525, 88.2133, 0, 0, 8.04936, -55.9153, 8.10883, -174.664, 7.87611, 65.1394, 0.37218, 47.4921
2, 480.00000, 122.824, -32.8414, 121.923, -151.59, 125.525, 88.2133, 0, 0, 8.04936, -55.9153, 8.10883, -174.664, 7.87611, 65.1394, 0.37218, 47.4921
2, 540.00000, 122.824, -32.8414, 121.923, -151.59, 125.525, 88.2133, 0, 0, 8.04936, -55.9153, 8.10883, -174.664, 7.87611, 65.1394, 0.37218, 47.4921
2, 600.00000, 122.824, -32.8414, 121.923, -151.59, 125.525, 88.2133, 0, 0, 8.04936, -55.9153, 8.10883, -174.664, 7.87611, 65.1394, 0.37218, 47.4921
2, 660.00000, 122.824, -32.8414, 121.923, -151.59, 125.525, 88.2133, 0, 0, 8.04936, -55.9153, 8.10883, -174.664, 7.87611, 65.1394, 0.37218, 47.4921
2, 720.00000, 122.824, -32.8414, 121.923, -151.59, 125.525, 88.2133, 0, 0, 8.04936, -55.9153, 8.10883, -174.664, 7.87611, 65.1394, 0.37218, 47.4921
2, 780.00000, 122.824, -32.8414, 121.923, -151.59, 125.525, 88.2133, 0, 0, 8.04936, -55.9153, 8.10883, -174.664, 7.87611, 65.1394, 0.37218, 47.4921
