hour,t(sec),V1,VAngle1,V2,VAngle2,V3,VAngle3,V4,VAngle4,I1,IAngle1,I2,IAngle2,I3,IAngle3,I4,IAngle4
0, 60.00000, 122.978, -31.2142, 122.771, -151.385, 122.943, 88.8091, 0, 0, 8.78315, -54.2878, 8.79796, -174.459, 8.78559, 65.7353, 0.0343869, -55.3697
0, 120.00000, 122.978, -31.2142, 122.771, -151.385, 122.943, 88.8091, 0, 0, 8.78323, -54.2881, 8.79802, -174.459, 8.78568, 65.7351, 0.0343739, -55.3991
0, 180.00000, 122.978, -31.2142, 122.771, -151.385, 122.943, 88.8091, 0, 0, 8.78323, -54.2881, 8.79802, -174.459, 8.78568, 65.7351, 0.0343738, -55.3994
0, 240.00000, 122.978, -31.2142, 122.771, -151.385, 122.943, 88.8091, 0, 0, 8.78323, -54.2881, 8.79802, -174.459, 8.78568, 65.7351, 0.0343738, -55.3994
0, 300.00000, 122.978, -31.2142, 122.771, -151.385, 122.943, 88.8091, 0, 0, 8.78323, -54.2881, 8.79802, -174.459, 8.78568, 65.7351, 0.0343738, -55.3994
0, 360.00000, 122.978, -31.2142, 122.771, -151.385, 122.943, 88.8091, 0, 0, 8.78323, -54.2881, 8.79802, -174.459, 8.78568, 65.7351, 0.0343738, -55.3994
0, 420.00000, 122.978, -31.2142, 122.771, -151.385, 122.943, 88.8091, 0, 0, 8.78323, -54.2881, 8.79802, -174.459, 8.78568, 65.7351, 0.0343738, -55.3994
0, 480.00000, 122.978, -31.2142, 122.771, -151.385, 122.943, 88.8091, 0, 0, 8.78323, -54.2881, 8.79802, -174.459, 8.78568, 65.7351, 0.0343738, -55.3994
0, 540.00000, 122.978, -31.2142, 122.771, -151.385, 122.943, 88.8091, 0, 0, 8.78323, -54.2881, 8.79802, -174.459, 8.78568, 65.7351, 0.0343738, -55.3994
0, 600.00000, 122.978, -31.2142, 122.771, -151.385, 122.943, 88.8091, 0, 0, 8.78323, -54.2881, 8.79802, -174.459, 8.78568, 65.7351, 0.0343738, -55.3994
0, 660.00000, 122.978, -31.2142, 122.771, -151.385, 122.943, 88.8091, 0, 0, 8.78323, -54.2881, 8.79802, -174.459, 8.78568, 65.7351, 0.0343738, -55.3994
0, 720.00000, 122.978, -31.2142, 122.771, -151.385, 122.943, 88.8091, 0, 0, 8.78323, -54.2881, 8.79802, -174.459, 8.78568, 65.7351, 0.0343738, -55.3994
0, 780.00000, 122.978, -31.2142, 122.771, -151.385, 122.943, 88.8091, 0, 0, 8.78323, -54.2881, 8.79802, -174.459, 8.78568, 65.7351, 0.0343738, -55.3994
0, 840.00000, 122.978, -31.2142, 122.771, -151.385, 122.943, 88.8091, 0, 0, 8.78323, -54.2881, 8.79802, -174.459, 8.78568, 65.7351, 0.0343738, -55.3994
0, 900.00000, 122.978, -31.2142, 122.771, -151.385, 122.943, 88.8091, 0, 0, 8.78323, -54.2881, 8.79802, -174.459, 8.78568, 65.7351, 0.0343738, -55.3994
0, 960.00000, 122.526, -31.2791, 122.624, -151.414, 122.714, 88.6522, 0, 0, 9.32563, -54.3527, 9.31831, -174.488, 9.3114, 65.5784, 0.0107426, -151.861
0, 1020.00000, 122.526, -31.2791, 122.624, -151.414, 122.714, 88.6522, 0, 0, 9.32573, -54.353, 9.31832, -174.488, 9.31144, 65.5783, 0.0107579, -152.249
0, 1080.00000, 122.526, -31.2791, 122.624, -151.414, 122.714, 88.6522, 0, 0, 9.32573, -54.353, 9.31832, -174.488, 9.31144, 65.5783, 0.010758, -152.25
0, 1140.00000, 122.526, -31.2791, 122.624, -151.414, 122.714, 88.6522, 0, 0, 9.32573, -54.353, 9.31832, -174.488, 9.31144, 65.5783, 0.010758, -152.25
0, 1200.00000, 122.526, -31.2791, 122.624, -151.414, 122.714, 88.6522, 0, 0, 9.32573, -54.353, 9.31832, -174.488, 9.31144, 65.5783, 0.010758, -152.25
0, 1260.00000, 122.526, -31.2791, 122.624, -151.414, 122.714, 88.6522, 0, 0, 9.32573, -54.353, 9.31832, -174.488, 9.31144, 65.5783, 0.010758, -152.25
0, 1320.00000, 122.526, -31.2791, 122.624, -151.414, 122.714, 88.6522, 0, 0, 9.32573, -54.353, 9.31832, -174.488, 9.31144, 65.5783, 0.010758, -152.25
0, 1380.00000, 122.526, -31.2791, 122.624, -151.414, 122.714, 88.6522, 0, 0, 9.32573, -54.353, 9.31832, -174.488, 9.31144, 65.5783, 0.010758, -152.25
0, 1440.00000, 122.526, -31.2791, 122.624, -151.414, 122.714, 88.6522, 0, 0, 9.32573, -54.353, 9.31832, -174.488, 9.31144, 65.5783, 0.010758, -152.25
0, 1500.00000, 122.526, -31.2791, 122.624, -151.414, 122.714, 88.6522, 0, 0, 9.32573, -54.353, 9.31832, -174.488, 9.31144, 65.5783, 0.010758, -152.25
0, 1560.00000, 122.526, -31.2791, 122.624, -151.414, 122.714, 88.6522, 0, 0, 9.32573, -54.353, 9.31832, -174.488, 9.31144, 65.5783, 0.010758, -152.25
0, 1620.00000, 122.526, -31.2791, 122.624, -151.414, 122.714, 88.6522, 0, 0, 9.32573, -54.353, 9.31832, -174.488, 9.31144, 65.5783, 0.010758, -152.25
0, 1680.00000, 122.526, -31.2791, 122.624, -151.414, 122.714, 88.6522, 0, 0, 9.32573, -54.353, 9.31832, -174.488, 9.31144, 65.5783, 0.010758, -152.25
0, 1740.00000, 122.526, -31.2791, 122.624, -151.414, 122.714, 88.6522, 0, 0, 9.32573, -54.353, 9.31832, -174.488, 9.31144, 65.5783, 0.010758, -152.25
0, 1800.00000, 122.526, -31.2791, 122.624, -151.414, 122.714, 88.6522, 0, 0, 9.32573, -54.353, 9.31832, -174.488, 9.31144, 65.5783, 0.010758, -152.25
0, 1860.00000, 122.644, -31.2587, 122.733, -151.395, 122.82, 88.6749, 0, 0, 9.34547, -54.3335, 9.33856, -174.469, 9.33198, 65.6003, 0.0107866, -146.267
0, 1920.00000, 122.644, -31.2587, 122.733, -151.395, 122.821, 88.675, 0, 0, 9.34505, -54.3326, 9.33828, -174.469, 9.33164, 65.601, 0.010761, -145.792
0, 1980.00000, 122.644, -31.2587, 122.733, -151.395, 122.821, 88.675, 0, 0, 9.34505, -54.3326, 9.33827, -174.469, 9.33164, 65.601, 0.0107607, -145.789
0, 2040.00000, 122.644, -31.2587, 122.733, -151.395, 122.821, 88.675, 0, 0, 9.34505, -54.3326, 9.33827, -174.469, 9.33164, 65.601, 0.0107607, -145.789
0, 2100.00000, 122.644, -31.2587, 122.733, -151.395, 122.821, 88.675, 0, 0, 9.34505, -54.3326, 9.33827, -174.469, 9.33164, 65.601, 0.0107607, -145.789
0, 2160.00000, 122.644, -31.2587, 122.733, -151.395, 122.821, 88.675, 0, 0, 9.34505, -54.3326, 9.33827, -174.469, 9.33164, 65.601, 0.0107607, -145.789
0, 2220.00000, 122.644, -31.2587, 122.733, -151.395, 122.821, 88.675, 0, 0, 9.34505, -54.3326, 9.33827, -174.469, 9.33164, 65.601, 0.0107607, -145.789
0, 2280.00000, 122.644, -31.2587, 122.733, -151.395, 122.821, 88.675, 0, 0, 9.34505, -54.3326, 9.33827, -174.469, 9.33164, 65.601, 0.0107607, -145.789
0, 2340.00000, 122.644, -31.2587, 122.733, -151.395, 122.821, 88.675, 0, 0, 9.34505, -54.3326, 9.33827, -174.469, 9.33164, 65.601, 0.0107607, -145.789
0, 2400.00000, 122.644, -31.2587, 122.733, -151.395, 122.821, 88.675, 0, 0, 9.34505, -54.3326, 9.33827, -174.469, 9.33164, 65.601, 0.0107607, -145.789
0, 2460.00000, 122.644, -31.2587, 122.733, -151.395, 122.821, 88.675, 0, 0, 9.34505, -54.3326, 9.33827, -174.469, 9.33164, 65.601, 0.0107607, -145.789
0, 2520.00000, 122.644, -31.2587, 122.733, -151.395, 122.821, 88.675, 0, 0, 9.34505, -54.3326, 9.33827, -174.469, 9.33164, 65.601, 0.0107607, -145.789
0, 2580.00000, 122.644, -31.2587, 122.733, -151.395, 122.821, 88.675, 0, 0, 9.34505, -54.3326, 9.33827, -174.469, 9.33164, 65.601, 0.0107607, -145.789
0, 2640.00000, 122.644, -31.2587, 122.733, -151.395, 122.821, 88.675, 0, 0, 9.34505, -54.3326, 9.33827, -174.469, 9.33164, 65.601, 0.0107607, -145.789
0, 2700.00000, 122.644, -31.2587, 122.733, -151.395, 122.821, 88.675, 0, 0, 9.34505, -54.3326, 9.33827, -174.469, 9.33164, 65.601, 0.0107607, -145.789
0, 2760.00000, 122.879, -31.2165, 122.95, -151.354, 123.034, 88.7208, 0, 0, 8.8716, -54.2905, 8.8664, -174.428, 8.86042, 65.6468, 0.0105176, -133.997
0, 2820.00000, 122.879, -31.2165, 122.95, -151.354, 123.034, 88.7208, 0, 0, 8.87155, -54.2904, 8.86638, -174.428, 8.86037, 65.6469, 0.0105112, -133.913
0, 2880.00000, 122.879, -31.2165, 122.95, -151.354, 123.034, 88.7208, 0, 0, 8.87155, -54.2904, 8.86638, -174.428, 8.86037, 65.6469, 0.0105112, -133.913
0, 2940.00000, 122.879, -31.2165, 122.95, -151.354, 123.034, 88.7208, 0, 0, 8.87155, -54.2904, 8.86638, -174.428, 8.86037, 65.6469, 0.0105112, -133.913
0, 3000.00000, 122.879, -31.2165, 122.95, -151.354, 123.034, 88.7208, 0, 0, 8.87155, -54.2904, 8.86638, -174.428, 8.86037, 65.6469, 0.0105112, -133.913
0, 3060.00000, 122.879, -31.2165, 122.95, -151.354, 123.034, 88.7208, 0, 0, 8.87155, -54.2904, 8.86638, -174.428, 8.86037, 65.6469, 0.0105112, -133.913
0, 3120.00000, 122.879, -31.2165, 122.95, -151.354, 123.034, 88.7208, 0, 0, 8.87155, -54.2904, 8.86638, -174.428, 8.86037, 65.6469, 0.0105112, -133.913
0, 3180.00000, 122.879, -31.2165, 122.95, -151.354, 123.034, 88.7208, 0, 0, 8.87155, -54.2904, 8.86638, -174.428, 8.86037, 65.6469, 0.0105112, -133.913
0, 3240.00000, 122.879, -31.2165, 122.95, -151.354, 123.034, 88.7208, 0, 0, 8.87155, -54.2904, 8.86638, -174.428, 8.86037, 65.6469, 0.0105112, -133.913
0, 3300.00000, 122.879, -31.2165, 122.95, -151.354, 123.034, 88.7208, 0, 0, 8.87155, -54.2904, 8.86638, -174.428, 8.86037, 65.6469, 0.0105112, -133.913
0, 3360.00000, 122.879, -31.2165, 122.95, -151.354, 123.034, 88.7208, 0, 0, 8.87155, -54.2904, 8.86638, -174.428, 8.86037, 65.6469, 0.0105112, -133.913
0, 3420.00000, 122.879, -31.2165, 122.95, -151.354, 123.034, 88.7208, 0, 0, 8.87155, -54.2904, 8.86638, -174.428, 8.86037, 65.6469, 0.0105112, -133.913
0, 3480.00000, 122.879, -31.2165, 122.95, -151.354, 123.034, 88.7208, 0, 0, 8.87155, -54.2904, 8.86638, -174.428, 8.86037, 65.6469, 0.0105112, -133.913
0, 3540.00000, 123.168, -31.1818, 122.948, -151.354, 123.116, 88.8454, 0, 0, 8.85074, -54.256, 8.8665, -174.428, 8.85444, 65.7715, 0.0364089, -55.4414
1, 0.00000, 123.168, -31.1818, 122.948, -151.354, 123.116, 88.8454, 0, 0, 8.85067, -54.2557, 8.86653, -174.428, 8.85443, 65.7715, 0.0364761, -55.4445
1, 60.00000, 123.337, -31.1521, 123.107, -151.325, 123.27, 88.8786, 0, 0, 8.73577, -54.2275, 8.75207, -174.4, 8.74053, 65.8032, 0.0374385, -55.5966
1, 120.00000, 123.338, -31.1521, 123.107, -151.325, 123.27, 88.8787, 0, 0, 8.73521, -54.226, 8.75155, -174.399, 8.74, 65.8047, 0.0374874, -55.5918
1, 180.00000, 123.338, -31.1521, 123.107, -151.325, 123.27, 88.8787, 0, 0, 8.7352, -54.226, 8.75155, -174.399, 8.74, 65.8047, 0.0374874, -55.5916
1, 240.00000, 123.338, -31.1521, 123.107, -151.325, 123.27, 88.8787, 0, 0, 8.7352, -54.226, 8.75155, -174.399, 8.74, 65.8047, 0.0374874, -55.5916
1, 300.00000, 123.338, -31.1521, 123.107, -151.325, 123.27, 88.8787, 0, 0, 8.7352, -54.226, 8.75155, -174.399, 8.74, 65.8047, 0.0374874, -55.5916
1, 360.00000, 123.338, -31.1521, 123.107, -151.325, 123.27, 88.8787, 0, 0, 8.7352, -54.226, 8.75155, -174.399, 8.74, 65.8047, 0.0374874, -55.5916
1, 420.00000, 123.338, -31.1521, 123.107, -151.325, 123.27, 88.8787, 0, 0, 8.7352, -54.226, 8.75155, -174.399, 8.74, 65.8047, 0.0374874, -55.5916
1, 480.00000, 123.338, -31.1521, 123.107, -151.325, 123.27, 88.8787, 0, 0, 8.7352, -54.226, 8.75155, -174.399, 8.74, 65.8047, 0.0374874, -55.5916
1, 540.00000, 123.338, -31.1521, 123.107, -151.325, 123.27, 88.8787, 0, 0, 8.7352, -54.226, 8.75155, -174.399, 8.74, 65.8047, 0.0374874, -55.5916
1, 600.00000, 123.338, -31.1521, 123.107, -151.325, 123.27, 88.8787, 0, 0, 8.7352, -54.226, 8.75155, -174.399, 8.74, 65.8047, 0.0374874, -55.5916
1, 660.00000, 123.338, -31.1521, 123.107, -151.325, 123.27, 88.8787, 0, 0, 8.7352, -54.226, 8.75155, -174.399, 8.74, 65.8047, 0.0374874, -55.5916
1, 720.00000, 123.338, -31.1521, 123.107, -151.325, 123.27, 88.8787, 0, 0, 8.7352, -54.226, 8.75155, -174.399, 8.74, 65.8047, 0.0374874, -55.5916
1, 780.00000, 123.338, -31.1521, 123.107, -151.325, 123.27, 88.8787, 0, 0, 8.7352, -54.226, 8.75155, -174.399, 8.74, 65.8047, 0.0374874, -55.5916
1, 840.00000, 123.338, -31.1521, 123.107, -151.325, 123.27, 88.8787, 0, 0, 8.7352, -54.226, 8.75155, -174.399, 8.74, 65.8047, 0.0374874, -55.5916
1, 900.00000, 123.338, -31.1521, 123.107, -151.325, 123.27, 88.8787, 0, 0, 8.7352, -54.226, 8.75155, -174.399, 8.74, 65.8047, 0.0374874, -55.5916
1, 960.00000, 123.363, -31.1476, 123.131, -151.321, 123.293, 88.8836, 0, 0, 8.69265, -54.2217, 8.70901, -174.395, 8.69757, 65.8094, 0.0374992, -55.6108
1, 1020.00000, 123.363, -31.1476, 123.131, -151.321, 123.293, 88.8836, 0, 0, 8.69256, -54.2215, 8.70892, -174.394, 8.69749, 65.8097, 0.0375037, -55.6166
1, 1080.00000, 123.363, -31.1476, 123.131, -151.321, 123.293, 88.8836, 0, 0, 8.69256, -54.2215, 8.70892, -174.394, 8.69749, 65.8097, 0.0375037, -55.6167
1, 1140.00000, 123.363, -31.1476, 123.131, -151.321, 123.293, 88.8836, 0, 0, 8.69256, -54.2215, 8.70892, -174.394, 8.69749, 65.8097, 0.0375037, -55.6167
1, 1200.00000, 123.363, -31.1476, 123.131, -151.321, 123.293, 88.8836, 0, 0, 8.69256, -54.2215, 8.70892, -174.394, 8.69749, 65.8097, 0.0375037, -55.6167
1, 1260.00000, 123.363, -31.1476, 123.131, -151.321, 123.293, 88.8836, 0, 0, 8.69256, -54.2215, 8.70892, -174.394, 8.69749, 65.8097, 0.0375037, -55.6167
1, 1320.00000, 123.363, -31.1476, 123.131, -151.321, 123.293, 88.8836, 0, 0, 8.69256, -54.2215, 8.70892, -174.394, 8.69749, 65.8097, 0.0375037, -55.6167
1, 1380.00000, 123.363, -31.1476, 123.131, -151.321, 123.293, 88.8836, 0, 0, 8.69256, -54.2215, 8.70892, -174.394, 8.69749, 65.8097, 0.0375037, -55.6167
1, 1440.00000, 123.363, -31.1476, 123.131, -151.321, 123.293, 88.8836, 0, 0, 8.69256, -54.2215, 8.70892, -174.394, 8.69749, 65.8097, 0.0375037, -55.6167
1, 1500.00000, 123.363, -31.1476, 123.131, -151.321, 123.293, 88.8836, 0, 0, 8.69256, -54.2215, 8.70892, -174.394, 8.69749, 65.8097, 0.0375037, -55.6167
1, 1560.00000, 123.363, -31.1476, 123.131, -151.321, 123.293, 88.8836, 0, 0, 8.69256, -54.2215, 8.70892, -174.394, 8.69749, 65.8097, 0.0375037, -55.6167
1, 1620.00000, 123.363, -31.1476, 123.131, -151.321, 123.293, 88.8836, 0, 0, 8.69256, -54.2215, 8.70892, -174.394, 8.69749, 65.8097, 0.0375037, -55.6167
1, 1680.00000, 123.363, -31.1476, 123.131, -151.321, 123.293, 88.8836, 0, 0, 8.69256, -54.2215, 8.70892, -174.394, 8.69749, 65.8097, 0.0375037, -55.6167
1, 1740.00000, 123.363, -31.1476, 123.131, -151.321, 123.293, 88.8836, 0, 0, 8.69256, -54.2215, 8.70892, -174.394, 8.69749, 65.8097, 0.0375037, -55.6167
1, 1800.00000, 123.363, -31.1476, 123.131, -151.321, 123.293, 88.8836, 0, 0, 8.69256, -54.2215, 8.70892, -174.394, 8.69749, 65.8097, 0.0375037, -55.6167
1, 1860.00000, 123.244, -31.1802, 123.378, -151.138, 123.779, 88.818, 0, 0, 8.91069, -54.2544, 8.90114, -174.212, 8.87257, 65.7433, 0.0408898, 82.7465
1, 1920.00000, 123.244, -31.1802, 123.378, -151.138, 123.78, 88.8181, 0, 0, 8.9108, -54.2541, 8.90107, -174.212, 8.87218, 65.7441, 0.0411891, 82.6328
1, 1980.00000, 123.244, -31.1802, 123.378, -151.138, 123.78, 88.8181, 0, 0, 8.9108, -54.2541, 8.90107, -174.212, 8.87217, 65.7442, 0.0411938, 82.6299
1, 2040.00000, 123.244, -31.1802, 123.378, -151.138, 123.78, 88.8181, 0, 0, 8.9108, -54.2541, 8.90107, -174.212, 8.87217, 65.7442, 0.0411939, 82.6299
1, 2100.00000, 123.244, -31.1802, 123.378, -151.138, 123.78, 88.8181, 0, 0, 8.9108, -54.2541, 8.90107, -174.212, 8.87217, 65.7442, 0.0411939, 82.6299
1, 2160.00000, 123.244, -31.1802, 123.378, -151.138, 123.78, 88.8181, 0, 0, 8.9108, -54.2541, 8.90107, -174.212, 8.87217, 65.7442, 0.0411939, 82.6299
1, 2220.00000, 123.244, -31.1802, 123.378, -151.138, 123.78, 88.8181, 0, 0, 8.9108, -54.2541, 8.90107, -174.212, 8.87217, 65.7442, 0.0411939, 82.6299
1, 2280.00000, 123.244, -31.1802, 123.378, -151.138, 123.78, 88.8181, 0, 0, 8.9108, -54.2541, 8.90107, -174.212, 8.87217, 65.7442, 0.0411939, 82.6299
1, 2340.00000, 123.244, -31.1802, 123.378, -151.138, 123.78, 88.8181, 0, 0, 8.9108, -54.2541, 8.90107, -174.212, 8.87217, 65.7442, 0.0411939, 82.6299
1, 2400.00000, 123.244, -31.1802, 123.378, -151.138, 123.78, 88.8181, 0, 0, 8.9108, -54.2541, 8.90107, -174.212, 8.87217, 65.7442, 0.0411939, 82.6299
1, 2460.00000, 123.244, -31.1802, 123.378, -151.138, 123.78, 88.8181, 0, 0, 8.9108, -54.2541, 8.90107, -174.212, 8.87217, 65.7442, 0.0411939, 82.6299
1, 2520.00000, 123.244, -31.1802, 123.378, -151.138, 123.78, 88.8181, 0, 0, 8.9108, -54.2541, 8.90107, -174.212, 8.87217, 65.7442, 0.0411939, 82.6299
1, 2580.00000, 123.244, -31.1802, 123.378, -151.138, 123.78, 88.8181, 0, 0, 8.9108, -54.2541, 8.90107, -174.212, 8.87217, 65.7442, 0.0411939, 82.6299
1, 2640.00000, 123.244, -31.1802, 123.378, -151.138, 123.78, 88.8181, 0, 0, 8.9108, -54.2541, 8.90107, -174.212, 8.87217, 65.7442, 0.0411939, 82.6299
1, 2700.00000, 123.244, -31.1802, 123.378, -151.138, 123.78, 88.8181, 0, 0, 8.9108, -54.2541, 8.90107, -174.212, 8.87217, 65.7442, 0.0411939, 82.6299
1, 2760.00000, 123.56, -31.1232, 123.687, -151.083, 124.087, 88.8828, 0, 0, 8.37523, -54.1974, 8.3667, -174.157, 8.33982, 65.8082, 0.0374341, 80.4955
1, 2820.00000, 123.56, -31.1231, 123.688, -151.083, 124.088, 88.8829, 0, 0, 8.37519, -54.1971, 8.36653, -174.157, 8.33954, 65.809, 0.0375846, 80.4904
1, 2880.00000, 123.56, -31.1231, 123.688, -151.083, 124.088, 88.8829, 0, 0, 8.37519, -54.1971, 8.36653, -174.157, 8.33954, 65.809, 0.0375879, 80.4899
1, 2940.00000, 123.56, -31.1231, 123.688, -151.083, 124.088, 88.8829, 0, 0, 8.37519, -54.1971, 8.36653, -174.157, 8.33954, 65.809, 0.037588, 80.4899
1, 3000.00000, 123.56, -31.1231, 123.688, -151.083, 124.088, 88.8829, 0, 0, 8.37519, -54.1971, 8.36653, -174.157, 8.33954, 65.809, 0.037588, 80.4899
1, 3060.00000, 123.56, -31.1231, 123.688, -151.083, 124.088, 88.8829, 0, 0, 8.37519, -54.1971, 8.36653, -174.157, 8.33954, 65.809, 0.037588, 80.4899
1, 3120.00000, 123.56, -31.1231, 123.688, -151.083, 124.088, 88.8829, 0, 0, 8.37519, -54.1971, 8.36653, -174.157, 8.33954, 65.809, 0.037588, 80.4899
1, 3180.00000, 123.56, -31.1231, 123.688, -151.083, 124.088, 88.8829, 0, 0, 8.37519, -54.1971, 8.36653, -174.157, 8.33954, 65.809, 0.037588, 80.4899
1, 3240.00000, 123.56, -31.1231, 123.688, -151.083, 124.088, 88.8829, 0, 0, 8.37519, -54.1971, 8.36653, -174.157, 8.33954, 65.809, 0.037588, 80.4899
1, 3300.00000, 123.56, -31.1231, 123.688, -151.083, 124.088, 88.8829, 0, 0, 8.37519, -54.1971, 8.36653, -174.157, 8.33954, 65.809, 0.037588, 80.4899
1, 3360.00000, 123.56, -31.1231, 123.688, -151.083, 124.088, 88.8829, 0, 0, 8.37519, -54.1971, 8.36653, -174.157, 8.33954, 65.809, 0.037588, 80.4899
1, 3420.00000, 123.56, -31.1231, 123.688, -151.083, 124.088, 88.8829, 0, 0, 8.37519, -54.1971, 8.36653, -174.157, 8.33954, 65.809, 0.037588, 80.4899
1, 3480.00000, 123.56, -31.1231, 123.688, -151.083, 124.088, 88.8829, 0, 0, 8.37519, -54.1971, 8.36653, -174.157, 8.33954, 65.809, 0.037588, 80.4899
1, 3540.00000, 123.56, -31.1231, 123.688, -151.083, 124.088, 88.8829, 0, 0, 8.37519, -54.1971, 8.36653, -174.157, 8.33954, 65.809, 0.037588, 80.4899
2, 0.00000, 123.56, -31.1231, 123.688, -151.083, 124.088, 88.8829, 0, 0, 8.37519, -54.1971, 8.36653, -174.157, 8.33954, 65.809, 0.037588, 80.4899
2, 60.00000, 123.368, -31.158, 123.503, -151.117, 123.904, 88.8438, 0, 0, 8.61326, -54.2317, 8.60382, -174.191, 8.57586, 65.7703, 0.0395382, 81.8313
2, 120.00000, 123.368, -31.158, 123.502, -151.117, 123.904, 88.8437, 0, 0, 8.61327, -54.2319, 8.60394, -174.191, 8.57604, 65.7698, 0.0394384, 81.8271
2, 180.00000, 123.368, -31.158, 123.502, -151.117, 123.904, 88.8437, 0, 0, 8.61327, -54.2319, 8.60394, -174.191, 8.57604, 65.7698, 0.0394364, 81.8271
2, 240.00000, 123.368, -31.158, 123.502, -151.117, 123.904, 88.8437, 0, 0, 8.61327, -54.2319, 8.60394, -174.191, 8.57604, 65.7698, 0.0394364, 81.8271
2, 300.00000, 123.368, -31.158, 123.502, -151.117, 123.904, 88.8437, 0, 0, 8.61327, -54.2319, 8.60394, -174.191, 8.57604, 65.7698, 0.0394364, 81.8271
2, 360.00000, 123.368, -31.158, 123.502, -151.117, 123.904, 88.8437, 0, 0, 8.61327, -54.2319, 8.60394, -174.191, 8.57604, 65.7698, 0.0394364, 81.8271
2, 420.00000, 123.368, -31.158, 123.502, -151.117, 123.904, 88.8437, 0, 0, 8.61327, -54.2319, 8.60394, -174.191, 8.57604, 65.7698, 0.0394364, 81.8271
2, 480.00000, 123.368, -31.158, 123.502, -151.117, 123.904, 88.8437, 0, 0, 8.61327, -54.2319, 8.60394, -174.191, 8.57604, 65.7698, 0.0394364, 81.8271
2, 540.00000, 123.368, -31.158, 123.502, -151.117, 123.904, 88.8437, 0, 0, 8.61327, -54.2319, 8.60394, -174.191, 8.57604, 65.7698, 0.0394364, 81.8271
2, 600.00000, 123.368, -31.158, 123.502, -151.117, 123.904, 88.8437, 0, 0, 8.61327, -54.2319, 8.60394, -174.191, 8.57604, 65.7698, 0.0394364, 81.8271
2, 660.00000, 123.368, -31.158, 123.502, -151.117, 123.904, 88.8437, 0, 0, 8.61327, -54.2319, 8.60394, -174.191, 8.57604, 65.7698, 0.0394364, 81.8271
2, 720.00000, 123.368, -31.158, 123.502, -151.117, 123.904, 88.8437, 0, 0, 8.61327, -54.2319, 8.60394, -174.191, 8.57604, 65.7698, 0.0394364, 81.8271
