hour,t(sec),V1,VAngle1,V2,VAngle2,V3,VAngle3,V4,VAngle4,I1,IAngle1,I2,IAngle2,I3,IAngle3,I4,IAngle4
0, 60.00000, 118.144, -30.9897, 119.019, -150.599, 119.897, 88.8734, 0, 0, 2.20627, -54.0633, 2.22442, -173.673, 2.24268, 65.8, 0.0144964, -103.137
0, 120.00000, 118.144, -30.9897, 119.019, -150.599, 119.897, 88.8734, 0, 0, 2.20624, -54.0637, 2.22439, -173.673, 2.24261, 65.7995, 0.0144424, -103.128
0, 180.00000, 118.144, -30.9897, 119.019, -150.599, 119.897, 88.8734, 0, 0, 2.20624, -54.0637, 2.22439, -173.673, 2.2426, 65.7995, 0.0144421, -103.128
0, 240.00000, 118.144, -30.9897, 119.019, -150.599, 119.897, 88.8734, 0, 0, 2.20624, -54.0637, 2.22439, -173.673, 2.2426, 65.7995, 0.0144421, -103.128
0, 300.00000, 118.144, -30.9897, 119.019, -150.599, 119.897, 88.8734, 0, 0, 2.20624, -54.0637, 2.22439, -173.673, 2.2426, 65.7995, 0.0144421, -103.128
0, 360.00000, 118.144, -30.9897, 119.019, -150.599, 119.897, 88.8734, 0, 0, 2.20624, -54.0637, 2.22439, -173.673, 2.2426, 65.7995, 0.0144421, -103.128
0, 420.00000, 118.144, -30.9897, 119.019, -150.599, 119.897, 88.8734, 0, 0, 2.20624, -54.0637, 2.22439, -173.673, 2.2426, 65.7995, 0.0144421, -103.128
0, 480.00000, 118.144, -30.9897, 119.019, -150.599, 119.897, 88.8734, 0, 0, 2.20624, -54.0637, 2.22439, -173.673, 2.2426, 65.7995, 0.0144421, -103.128
0, 540.00000, 118.144, -30.9897, 119.019, -150.599, 119.897, 88.8734, 0, 0, 2.20624, -54.0637, 2.22439, -173.673, 2.2426, 65.7995, 0.0144421, -103.128
0, 600.00000, 118.144, -30.9897, 119.019, -150.599, 119.897, 88.8734, 0, 0, 2.20624, -54.0637, 2.22439, -173.673, 2.2426, 65.7995, 0.0144421, -103.128
0, 660.00000, 118.144, -30.9897, 119.019, -150.599, 119.897, 88.8734, 0, 0, 2.20624, -54.0637, 2.22439, -173.673, 2.2426, 65.7995, 0.0144421, -103.128
0, 720.00000, 118.144, -30.9897, 119.019, -150.599, 119.897, 88.8734, 0, 0, 2.20624, -54.0637, 2.22439, -173.673, 2.2426, 65.7995, 0.0144421, -103.128
0, 780.00000, 118.144, -30.9897, 119.019, -150.599, 119.897, 88.8734, 0, 0, 2.20624, -54.0637, 2.22439, -173.673, 2.2426, 65.7995, 0.0144421, -103.128
0, 840.00000, 118.144, -30.9897, 119.019, -150.599, 119.897, 88.8734, 0, 0, 2.20624, -54.0637, 2.22439, -173.673, 2.2426, 65.7995, 0.0144421, -103.128
0, 900.00000, 118.144, -30.9897, 119.019, -150.599, 119.897, 88.8734, 0, 0, 2.20624, -54.0637, 2.22439, -173.673, 2.2426, 65.7995, 0.0144421, -103.128
0, 960.00000, 116.105, -31.5364, 116.953, -150.132, 119.788, 88.8341, 0, 0, 2.11777, -54.6096, 2.13499, -173.206, 2.19248, 65.7602, 0.0212282, -108.206
0, 1020.00000, 116.105, -31.5363, 116.953, -150.132, 119.788, 88.8341, 0, 0, 2.11771, -54.6103, 2.13493, -173.206, 2.19248, 65.7601, 0.0212451, -108.215
0, 1080.00000, 116.105, -31.5363, 116.953, -150.132, 119.788, 88.8341, 0, 0, 2.11771, -54.6103, 2.13493, -173.206, 2.19248, 65.7601, 0.0212452, -108.215
0, 1140.00000, 116.105, -31.5363, 116.953, -150.132, 119.788, 88.8341, 0, 0, 2.11771, -54.6103, 2.13493, -173.206, 2.19248, 65.7601, 0.0212452, -108.215
0, 1200.00000, 116.105, -31.5363, 116.953, -150.132, 119.788, 88.8341, 0, 0, 2.11771, -54.6103, 2.13493, -173.206, 2.19248, 65.7601, 0.0212452, -108.215
0, 1260.00000, 116.105, -31.5363, 116.953, -150.132, 119.788, 88.8341, 0, 0, 2.11771, -54.6103, 2.13493, -173.206, 2.19248, 65.7601, 0.0212452, -108.215
0, 1320.00000, 116.105, -31.5363, 116.953, -150.132, 119.788, 88.8341, 0, 0, 2.11771, -54.6103, 2.13493, -173.206, 2.19248, 65.7601, 0.0212452, -108.215
0, 1380.00000, 116.105, -31.5363, 116.953, -150.132, 119.788, 88.8341, 0, 0, 2.11771, -54.6103, 2.13493, -173.206, 2.19248, 65.7601, 0.0212452, -108.215
0, 1440.00000, 116.105, -31.5363, 116.953, -150.132, 119.788, 88.8341, 0, 0, 2.11771, -54.6103, 2.13493, -173.206, 2.19248, 65.7601, 0.0212452, -108.215
0, 1500.00000, 116.105, -31.5363, 116.953, -150.132, 119.788, 88.8341, 0, 0, 2.11771, -54.6103, 2.13493, -173.206, 2.19248, 65.7601, 0.0212452, -108.215
0, 1560.00000, 116.105, -31.5363, 116.953, -150.132, 119.788, 88.8341, 0, 0, 2.11771, -54.6103, 2.13493, -173.206, 2.19248, 65.7601, 0.0212452, -108.215
0, 1620.00000, 116.105, -31.5363, 116.953, -150.132, 119.788, 88.8341, 0, 0, 2.11771, -54.6103, 2.13493, -173.206, 2.19248, 65.7601, 0.0212452, -108.215
0, 1680.00000, 116.105, -31.5363, 116.953, -150.132, 119.788, 88.8341, 0, 0, 2.11771, -54.6103, 2.13493, -173.206, 2.19248, 65.7601, 0.0212452, -108.215
0, 1740.00000, 116.105, -31.5363, 116.953, -150.132, 119.788, 88.8341, 0, 0, 2.11771, -54.6103, 2.13493, -173.206, 2.19248, 65.7601, 0.0212452, -108.215
0, 1800.00000, 116.105, -31.5363, 116.953, -150.132, 119.788, 88.8341, 0, 0, 2.11771, -54.6103, 2.13493, -173.206, 2.19248, 65.7601, 0.0212452, -108.215
0, 1860.00000, 116.307, -31.5267, 117.151, -150.121, 119.991, 88.8487, 0, 0, 2.00627, -54.6003, 2.02243, -173.196, 2.07679, 65.7733, 0.0199046, -108.16
0, 1920.00000, 116.307, -31.5267, 117.151, -150.121, 119.992, 88.8488, 0, 0, 2.00623, -54.6006, 2.02244, -173.195, 2.07695, 65.7749, 0.0200604, -107.958
0, 1980.00000, 116.307, -31.5267, 117.151, -150.121, 119.992, 88.8488, 0, 0, 2.00623, -54.6006, 2.02244, -173.195, 2.07695, 65.7749, 0.0200612, -107.957
0, 2040.00000, 116.307, -31.5267, 117.151, -150.121, 119.992, 88.8488, 0, 0, 2.00623, -54.6006, 2.02244, -173.195, 2.07695, 65.7749, 0.0200612, -107.957
0, 2100.00000, 116.307, -31.5267, 117.151, -150.121, 119.992, 88.8488, 0, 0, 2.00623, -54.6006, 2.02244, -173.195, 2.07695, 65.7749, 0.0200612, -107.957
0, 2160.00000, 116.307, -31.5267, 117.151, -150.121, 119.992, 88.8488, 0, 0, 2.00623, -54.6006, 2.02244, -173.195, 2.07695, 65.7749, 0.0200612, -107.957
0, 2220.00000, 116.307, -31.5267, 117.151, -150.121, 119.992, 88.8488, 0, 0, 2.00623, -54.6006, 2.02244, -173.195, 2.07695, 65.7749, 0.0200612, -107.957
0, 2280.00000, 116.307, -31.5267, 117.151, -150.121, 119.992, 88.8488, 0, 0, 2.00623, -54.6006, 2.02244, -173.195, 2.07695, 65.7749, 0.0200612, -107.957
0, 2340.00000, 116.307, -31.5267, 117.151, -150.121, 119.992, 88.8488, 0, 0, 2.00623, -54.6006, 2.02244, -173.195, 2.07695, 65.7749, 0.0200612, -107.957
0, 2400.00000, 116.307, -31.5267, 117.151, -150.121, 119.992, 88.8488, 0, 0, 2.00623, -54.6006, 2.02244, -173.195, 2.07695, 65.7749, 0.0200612, -107.957
0, 2460.00000, 116.307, -31.5267, 117.151, -150.121, 119.992, 88.8488, 0, 0, 2.00623, -54.6006, 2.02244, -173.195, 2.07695, 65.7749, 0.0200612, -107.957
0, 2520.00000, 116.307, -31.5267, 117.151, -150.121, 119.992, 88.8488, 0, 0, 2.00623, -54.6006, 2.02244, -173.195, 2.07695, 65.7749, 0.0200612, -107.957
0, 2580.00000, 116.307, -31.5267, 117.151, -150.121, 119.992, 88.8488, 0, 0, 2.00623, -54.6006, 2.02244, -173.195, 2.07695, 65.7749, 0.0200612, -107.957
0, 2640.00000, 116.307, -31.5267, 117.151, -150.121, 119.992, 88.8488, 0, 0, 2.00623, -54.6006, 2.02244, -173.195, 2.07695, 65.7749, 0.0200612, -107.957
0, 2700.00000, 116.307, -31.5267, 117.151, -150.121, 119.992, 88.8488, 0, 0, 2.00623, -54.6006, 2.02244, -173.195, 2.07695, 65.7749, 0.0200612, -107.957
0, 2760.00000, 116.633, -31.4971, 117.47, -150.091, 120.321, 88.8868, 0, 0, 1.96988, -54.5712, 1.98559, -173.165, 2.03914, 65.8126, 0.0196085, -107.58
0, 2820.00000, 116.633, -31.497, 117.47, -150.091, 120.321, 88.8868, 0, 0, 1.96989, -54.571, 1.9856, -173.165, 2.03918, 65.8129, 0.0196505, -107.567
0, 2880.00000, 116.633, -31.497, 117.47, -150.091, 120.321, 88.8868, 0, 0, 1.96989, -54.571, 1.9856, -173.165, 2.03918, 65.8129, 0.0196511, -107.567
0, 2940.00000, 116.633, -31.497, 117.47, -150.091, 120.321, 88.8868, 0, 0, 1.96989, -54.571, 1.9856, -173.165, 2.03918, 65.8129, 0.0196511, -107.567
0, 3000.00000, 116.633, -31.497, 117.47, -150.091, 120.321, 88.8868, 0, 0, 1.96989, -54.571, 1.9856, -173.165, 2.03918, 65.8129, 0.0196511, -107.567
0, 3060.00000, 116.633, -31.497, 117.47, -150.091, 120.321, 88.8868, 0, 0, 1.96989, -54.571, 1.9856, -173.165, 2.03918, 65.8129, 0.0196511, -107.567
0, 3120.00000, 116.633, -31.497, 117.47, -150.091, 120.321, 88.8868, 0, 0, 1.96989, -54.571, 1.9856, -173.165, 2.03918, 65.8129, 0.0196511, -107.567
0, 3180.00000, 116.633, -31.497, 117.47, -150.091, 120.321, 88.8868, 0, 0, 1.96989, -54.571, 1.9856, -173.165, 2.03918, 65.8129, 0.0196511, -107.567
0, 3240.00000, 116.633, -31.497, 117.47, -150.091, 120.321, 88.8868, 0, 0, 1.96989, -54.571, 1.9856, -173.165, 2.03918, 65.8129, 0.0196511, -107.567
0, 3300.00000, 116.633, -31.497, 117.47, -150.091, 120.321, 88.8868, 0, 0, 1.96989, -54.571, 1.9856, -173.165, 2.03918, 65.8129, 0.0196511, -107.567
0, 3360.00000, 116.633, -31.497, 117.47, -150.091, 120.321, 88.8868, 0, 0, 1.96989, -54.571, 1.9856, -173.165, 2.03918, 65.8129, 0.0196511, -107.567
0, 3420.00000, 116.633, -31.497, 117.47, -150.091, 120.321, 88.8868, 0, 0, 1.96989, -54.571, 1.9856, -173.165, 2.03918, 65.8129, 0.0196511, -107.567
0, 3480.00000, 116.633, -31.497, 117.47, -150.091, 120.321, 88.8868, 0, 0, 1.96989, -54.571, 1.9856, -173.165, 2.03918, 65.8129, 0.0196511, -107.567
0, 3540.00000, 116.633, -31.497, 117.47, -150.091, 120.321, 88.8868, 0, 0, 1.96989, -54.571, 1.9856, -173.165, 2.03918, 65.8129, 0.0196511, -107.567
1, 0.00000, 116.633, -31.497, 117.47, -150.091, 120.321, 88.8868, 0, 0, 1.96989, -54.571, 1.9856, -173.165, 2.03918, 65.8129, 0.0196511, -107.567
1, 60.00000, 116.878, -31.4769, 117.707, -150.072, 120.57, 88.9124, 0, 0, 1.81244, -54.551, 1.82673, -173.145, 1.87608, 65.8382, 0.0180541, -107.435
1, 120.00000, 116.878, -31.4769, 117.707, -150.072, 120.57, 88.9125, 0, 0, 1.81245, -54.5508, 1.82673, -173.145, 1.87612, 65.8385, 0.0181006, -107.428
1, 180.00000, 116.878, -31.4769, 117.707, -150.072, 120.57, 88.9125, 0, 0, 1.81245, -54.5508, 1.82673, -173.145, 1.87612, 65.8385, 0.0181015, -107.428
1, 240.00000, 116.878, -31.4769, 117.707, -150.072, 120.57, 88.9125, 0, 0, 1.81245, -54.5508, 1.82673, -173.145, 1.87612, 65.8385, 0.0181015, -107.428
1, 300.00000, 116.878, -31.4769, 117.707, -150.072, 120.57, 88.9125, 0, 0, 1.81245, -54.5508, 1.82673, -173.145, 1.87612, 65.8385, 0.0181015, -107.428
1, 360.00000, 116.878, -31.4769, 117.707, -150.072, 120.57, 88.9125, 0, 0, 1.81245, -54.5508, 1.82673, -173.145, 1.87612, 65.8385, 0.0181015, -107.428
1, 420.00000, 116.878, -31.4769, 117.707, -150.072, 120.57, 88.9125, 0, 0, 1.81245, -54.5508, 1.82673, -173.145, 1.87612, 65.8385, 0.0181015, -107.428
1, 480.00000, 116.878, -31.4769, 117.707, -150.072, 120.57, 88.9125, 0, 0, 1.81245, -54.5508, 1.82673, -173.145, 1.87612, 65.8385, 0.0181015, -107.428
1, 540.00000, 116.878, -31.4769, 117.707, -150.072, 120.57, 88.9125, 0, 0, 1.81245, -54.5508, 1.82673, -173.145, 1.87612, 65.8385, 0.0181015, -107.428
1, 600.00000, 116.878, -31.4769, 117.707, -150.072, 120.57, 88.9125, 0, 0, 1.81245, -54.5508, 1.82673, -173.145, 1.87612, 65.8385, 0.0181015, -107.428
1, 660.00000, 116.878, -31.4769, 117.707, -150.072, 120.57, 88.9125, 0, 0, 1.81245, -54.5508, 1.82673, -173.145, 1.87612, 65.8385, 0.0181015, -107.428
1, 720.00000, 116.878, -31.4769, 117.707, -150.072, 120.57, 88.9125, 0, 0, 1.81245, -54.5508, 1.82673, -173.145, 1.87612, 65.8385, 0.0181015, -107.428
1, 780.00000, 116.878, -31.4769, 117.707, -150.072, 120.57, 88.9125, 0, 0, 1.81245, -54.5508, 1.82673, -173.145, 1.87612, 65.8385, 0.0181015, -107.428
1, 840.00000, 116.878, -31.4769, 117.707, -150.072, 120.57, 88.9125, 0, 0, 1.81245, -54.5508, 1.82673, -173.145, 1.87612, 65.8385, 0.0181015, -107.428
1, 900.00000, 116.878, -31.4769, 117.707, -150.072, 120.57, 88.9125, 0, 0, 1.81245, -54.5508, 1.82673, -173.145, 1.87612, 65.8385, 0.0181015, -107.428
1, 960.00000, 116.917, -31.4738, 117.743, -150.069, 120.609, 88.9164, 0, 0, 1.8321, -54.5478, 1.8465, -173.143, 1.89639, 65.842, 0.018251, -107.444
1, 1020.00000, 116.917, -31.4737, 117.743, -150.069, 120.61, 88.9164, 0, 0, 1.8321, -54.5476, 1.84651, -173.143, 1.89646, 65.8425, 0.0183224, -107.421
1, 1080.00000, 116.917, -31.4737, 117.743, -150.069, 120.61, 88.9164, 0, 0, 1.8321, -54.5476, 1.84651, -173.143, 1.89646, 65.8425, 0.0183237, -107.421
1, 1140.00000, 116.917, -31.4737, 117.743, -150.069, 120.61, 88.9164, 0, 0, 1.8321, -54.5476, 1.84651, -173.143, 1.89646, 65.8425, 0.0183237, -107.421
1, 1200.00000, 116.917, -31.4737, 117.743, -150.069, 120.61, 88.9164, 0, 0, 1.8321, -54.5476, 1.84651, -173.143, 1.89646, 65.8425, 0.0183237, -107.421
1, 1260.00000, 116.917, -31.4737, 117.743, -150.069, 120.61, 88.9164, 0, 0, 1.8321, -54.5476, 1.84651, -173.143, 1.89646, 65.8425, 0.0183237, -107.421
1, 1320.00000, 116.917, -31.4737, 117.743, -150.069, 120.61, 88.9164, 0, 0, 1.8321, -54.5476, 1.84651, -173.143, 1.89646, 65.8425, 0.0183237, -107.421
1, 1380.00000, 116.917, -31.4737, 117.743, -150.069, 120.61, 88.9164, 0, 0, 1.8321, -54.5476, 1.84651, -173.143, 1.89646, 65.8425, 0.0183237, -107.421
1, 1440.00000, 116.917, -31.4737, 117.743, -150.069, 120.61, 88.9164, 0, 0, 1.8321, -54.5476, 1.84651, -173.143, 1.89646, 65.8425, 0.0183237, -107.421
1, 1500.00000, 116.917, -31.4737, 117.743, -150.069, 120.61, 88.9164, 0, 0, 1.8321, -54.5476, 1.84651, -173.143, 1.89646, 65.8425, 0.0183237, -107.421
1, 1560.00000, 116.917, -31.4737, 117.743, -150.069, 120.61, 88.9164, 0, 0, 1.8321, -54.5476, 1.84651, -173.143, 1.89646, 65.8425, 0.0183237, -107.421
1, 1620.00000, 116.917, -31.4737, 117.743, -150.069, 120.61, 88.9164, 0, 0, 1.8321, -54.5476, 1.84651, -173.143, 1.89646, 65.8425, 0.0183237, -107.421
1, 1680.00000, 116.917, -31.4737, 117.743, -150.069, 120.61, 88.9164, 0, 0, 1.8321, -54.5476, 1.84651, -173.143, 1.89646, 65.8425, 0.0183237, -107.421
1, 1740.00000, 116.917, -31.4737, 117.743, -150.069, 120.61, 88.9164, 0, 0, 1.8321, -54.5476, 1.84651, -173.143, 1.89646, 65.8425, 0.0183237, -107.421
1, 1800.00000, 116.917, -31.4737, 117.743, -150.069, 120.61, 88.9164, 0, 0, 1.8321, -54.5476, 1.84651, -173.143, 1.89646, 65.8425, 0.0183237, -107.421
1, 1860.00000, 116.722, -31.496, 117.556, -150.09, 120.41, 88.8898, 0, 0, 1.94559, -54.5697, 1.96104, -173.164, 2.014, 65.8161, 0.0194198, -107.519
1, 1920.00000, 116.722, -31.496, 117.556, -150.09, 120.41, 88.8898, 0, 0, 1.94558, -54.5699, 1.96104, -173.164, 2.01397, 65.8159, 0.0193835, -107.52
1, 1980.00000, 116.722, -31.496, 117.556, -150.09, 120.41, 88.8898, 0, 0, 1.94558, -54.5699, 1.96104, -173.164, 2.01396, 65.8158, 0.0193829, -107.52
1, 2040.00000, 116.722, -31.496, 117.556, -150.09, 120.41, 88.8898, 0, 0, 1.94558, -54.5699, 1.96104, -173.164, 2.01396, 65.8158, 0.0193829, -107.52
1, 2100.00000, 116.722, -31.496, 117.556, -150.09, 120.41, 88.8898, 0, 0, 1.94558, -54.5699, 1.96104, -173.164, 2.01396, 65.8158, 0.0193829, -107.52
1, 2160.00000, 116.722, -31.496, 117.556, -150.09, 120.41, 88.8898, 0, 0, 1.94558, -54.5699, 1.96104, -173.164, 2.01396, 65.8158, 0.0193829, -107.52
1, 2220.00000, 116.722, -31.496, 117.556, -150.09, 120.41, 88.8898, 0, 0, 1.94558, -54.5699, 1.96104, -173.164, 2.01396, 65.8158, 0.0193829, -107.52
1, 2280.00000, 116.722, -31.496, 117.556, -150.09, 120.41, 88.8898, 0, 0, 1.94558, -54.5699, 1.96104, -173.164, 2.01396, 65.8158, 0.0193829, -107.52
1, 2340.00000, 116.722, -31.496, 117.556, -150.09, 120.41, 88.8898, 0, 0, 1.94558, -54.5699, 1.96104, -173.164, 2.01396, 65.8158, 0.0193829, -107.52
1, 2400.00000, 116.722, -31.496, 117.556, -150.09, 120.41, 88.8898, 0, 0, 1.94558, -54.5699, 1.96104, -173.164, 2.01396, 65.8158, 0.0193829, -107.52
1, 2460.00000, 116.722, -31.496, 117.556, -150.09, 120.41, 88.8898, 0, 0, 1.94558, -54.5699, 1.96104, -173.164, 2.01396, 65.8158, 0.0193829, -107.52
1, 2520.00000, 116.722, -31.496, 117.556, -150.09, 120.41, 88.8898, 0, 0, 1.94558, -54.5699, 1.96104, -173.164, 2.01396, 65.8158, 0.0193829, -107.52
1, 2580.00000, 116.722, -31.496, 117.556, -150.09, 120.41, 88.8898, 0, 0, 1.94558, -54.5699, 1.96104, -173.164, 2.01396, 65.8158, 0.0193829, -107.52
1, 2640.00000, 116.722, -31.496, 117.556, -150.09, 120.41, 88.8898, 0, 0, 1.94558, -54.5699, 1.96104, -173.164, 2.01396, 65.8158, 0.0193829, -107.52
1, 2700.00000, 116.705, -31.4924, 117.326, -150.257, 119.952, 88.8854, 0, 0, 1.94526, -54.5661, 1.95679, -173.331, 2.00551, 65.8119, 0.0182381, -109.09
1, 2760.00000, 117.138, -31.4516, 117.739, -150.217, 120.374, 88.9352, 0, 0, 1.84387, -54.5257, 1.8544, -173.291, 1.90051, 65.8611, 0.0170017, -109.158
1, 2820.00000, 117.138, -31.4516, 117.739, -150.217, 120.374, 88.9352, 0, 0, 1.84389, -54.5255, 1.85441, -173.291, 1.90053, 65.8613, 0.0170215, -109.177
1, 2880.00000, 117.138, -31.4516, 117.739, -150.217, 120.374, 88.9352, 0, 0, 1.84389, -54.5255, 1.85441, -173.291, 1.90053, 65.8613, 0.0170217, -109.178
1, 2940.00000, 117.138, -31.4516, 117.739, -150.217, 120.374, 88.9352, 0, 0, 1.84389, -54.5255, 1.85441, -173.291, 1.90053, 65.8613, 0.0170217, -109.178
1, 3000.00000, 117.138, -31.4516, 117.739, -150.217, 120.374, 88.9352, 0, 0, 1.84389, -54.5255, 1.85441, -173.291, 1.90053, 65.8613, 0.0170217, -109.178
1, 3060.00000, 117.138, -31.4516, 117.739, -150.217, 120.374, 88.9352, 0, 0, 1.84389, -54.5255, 1.85441, -173.291, 1.90053, 65.8613, 0.0170217, -109.178
1, 3120.00000, 117.138, -31.4516, 117.739, -150.217, 120.374, 88.9352, 0, 0, 1.84389, -54.5255, 1.85441, -173.291, 1.90053, 65.8613, 0.0170217, -109.178
1, 3180.00000, 117.138, -31.4516, 117.739, -150.217, 120.374, 88.9352, 0, 0, 1.84389, -54.5255, 1.85441, -173.291, 1.90053, 65.8613, 0.0170217, -109.178
1, 3240.00000, 117.138, -31.4516, 117.739, -150.217, 120.374, 88.9352, 0, 0, 1.84389, -54.5255, 1.85441, -173.291, 1.90053, 65.8613, 0.0170217, -109.178
1, 3300.00000, 117.138, -31.4516, 117.739, -150.217, 120.374, 88.9352, 0, 0, 1.84389, -54.5255, 1.85441, -173.291, 1.90053, 65.8613, 0.0170217, -109.178
1, 3360.00000, 117.138, -31.4516, 117.739, -150.217, 120.374, 88.9352, 0, 0, 1.84389, -54.5255, 1.85441, -173.291, 1.90053, 65.8613, 0.0170217, -109.178
1, 3420.00000, 117.138, -31.4516, 117.739, -150.217, 120.374, 88.9352, 0, 0, 1.84389, -54.5255, 1.85441, -173.291, 1.90053, 65.8613, 0.0170217, -109.178
1, 3480.00000, 117.138, -31.4516, 117.739, -150.217, 120.374, 88.9352, 0, 0, 1.84389, -54.5255, 1.85441, -173.291, 1.90053, 65.8613, 0.0170217, -109.178
1, 3540.00000, 117.138, -31.4516, 117.739, -150.217, 120.374, 88.9352, 0, 0, 1.84389, -54.5255, 1.85441, -173.291, 1.90053, 65.8613, 0.0170217, -109.178
2, 0.00000, 117.138, -31.4516, 117.739, -150.217, 120.374, 88.9352, 0, 0, 1.84389, -54.5255, 1.85441, -173.291, 1.90053, 65.8613, 0.0170217, -109.178
2, 60.00000, 116.877, -31.4765, 117.49, -150.242, 120.119, 88.9048, 0, 0, 1.95734, -54.5503, 1.96874, -173.316, 2.01772, 65.831, 0.0182058, -109.21
2, 120.00000, 116.877, -31.4765, 117.49, -150.242, 120.119, 88.9048, 0, 0, 1.95733, -54.5504, 1.96873, -173.316, 2.0177, 65.8309, 0.0181924, -109.198
2, 180.00000, 116.877, -31.4765, 117.49, -150.242, 120.119, 88.9048, 0, 0, 1.95733, -54.5504, 1.96873, -173.316, 2.0177, 65.8309, 0.0181923, -109.198
2, 240.00000, 116.877, -31.4765, 117.49, -150.242, 120.119, 88.9048, 0, 0, 1.95733, -54.5504, 1.96873, -173.316, 2.0177, 65.8309, 0.0181923, -109.198
2, 300.00000, 116.877, -31.4765, 117.49, -150.242, 120.119, 88.9048, 0, 0, 1.95733, -54.5504, 1.96873, -173.316, 2.0177, 65.8309, 0.0181923, -109.198
2, 360.00000, 116.877, -31.4765, 117.49, -150.242, 120.119, 88.9048, 0, 0, 1.95733, -54.5504, 1.96873, -173.316, 2.0177, 65.8309, 0.0181923, -109.198
2, 420.00000, 116.877, -31.4765, 117.49, -150.242, 120.119, 88.9048, 0, 0, 1.95733, -54.5504, 1.96873, -173.316, 2.0177, 65.8309, 0.0181923, -109.198
2, 480.00000, 116.877, -31.4765, 117.49, -150.242, 120.119, 88.9048, 0, 0, 1.95733, -54.5504, 1.96873, -173.316, 2.0177, 65.8309, 0.0181923, -109.198
2, 540.00000, 118.724, -30.9524, 119.361, -150.734, 120.013, 88.9151, 0, 0, 1.99171, -54.0261, 2.00355, -173.808, 2.01575, 65.8412, 0.0116513, -105.341
2, 600.00000, 118.724, -30.9524, 119.361, -150.734, 120.013, 88.9151, 0, 0, 1.99173, -54.0263, 2.00359, -173.808, 2.01573, 65.8412, 0.0115896, -105.221
2, 660.00000, 118.724, -30.9524, 119.361, -150.734, 120.013, 88.9151, 0, 0, 1.99173, -54.0263, 2.00359, -173.808, 2.01573, 65.8412, 0.0115892, -105.22
