hour,t(sec),V1,VAngle1,V2,VAngle2,V3,VAngle3,V4,VAngle4,I1,IAngle1,I2,IAngle2,I3,IAngle3,I4,IAngle4
0, 60.00000, 121.152, -31.2069, 121.223, -151.033, 121.903, 88.93, 0, 0, 4.61392, -54.2802, 4.61116, -174.107, 4.58528, 65.8566, 0.0393318, 63.4087
0, 120.00000, 121.152, -31.207, 121.223, -151.033, 121.902, 88.9299, 0, 0, 4.61392, -54.2809, 4.61121, -174.107, 4.58554, 65.856, 0.0391912, 63.3946
0, 180.00000, 121.152, -31.207, 121.223, -151.033, 121.902, 88.9299, 0, 0, 4.61392, -54.2809, 4.61121, -174.107, 4.58554, 65.856, 0.0391888, 63.3947
0, 240.00000, 121.152, -31.207, 121.223, -151.033, 121.902, 88.9299, 0, 0, 4.61392, -54.2809, 4.61121, -174.107, 4.58554, 65.856, 0.0391888, 63.3947
0, 300.00000, 121.152, -31.207, 121.223, -151.033, 121.902, 88.9299, 0, 0, 4.61392, -54.2809, 4.61121, -174.107, 4.58554, 65.856, 0.0391888, 63.3947
0, 360.00000, 121.152, -31.207, 121.223, -151.033, 121.902, 88.9299, 0, 0, 4.61392, -54.2809, 4.61121, -174.107, 4.58554, 65.856, 0.0391888, 63.3947
0, 420.00000, 121.152, -31.207, 121.223, -151.033, 121.902, 88.9299, 0, 0, 4.61392, -54.2809, 4.61121, -174.107, 4.58554, 65.856, 0.0391888, 63.3947
0, 480.00000, 121.152, -31.207, 121.223, -151.033, 121.902, 88.9299, 0, 0, 4.61392, -54.2809, 4.61121, -174.107, 4.58554, 65.856, 0.0391888, 63.3947
0, 540.00000, 121.152, -31.207, 121.223, -151.033, 121.902, 88.9299, 0, 0, 4.61392, -54.2809, 4.61121, -174.107, 4.58554, 65.856, 0.0391888, 63.3947
0, 600.00000, 121.152, -31.207, 121.223, -151.033, 121.902, 88.9299, 0, 0, 4.61392, -54.2809, 4.61121, -174.107, 4.58554, 65.856, 0.0391888, 63.3947
0, 660.00000, 121.152, -31.207, 121.223, -151.033, 121.902, 88.9299, 0, 0, 4.61392, -54.2809, 4.61121, -174.107, 4.58554, 65.856, 0.0391888, 63.3947
0, 720.00000, 121.152, -31.207, 121.223, -151.033, 121.902, 88.9299, 0, 0, 4.61392, -54.2809, 4.61121, -174.107, 4.58554, 65.856, 0.0391888, 63.3947
0, 780.00000, 121.152, -31.207, 121.223, -151.033, 121.902, 88.9299, 0, 0, 4.61392, -54.2809, 4.61121, -174.107, 4.58554, 65.856, 0.0391888, 63.3947
0, 840.00000, 121.152, -31.207, 121.223, -151.033, 121.902, 88.9299, 0, 0, 4.61392, -54.2809, 4.61121, -174.107, 4.58554, 65.856, 0.0391888, 63.3947
0, 900.00000, 121.152, -31.207, 121.223, -151.033, 121.902, 88.9299, 0, 0, 4.61392, -54.2809, 4.61121, -174.107, 4.58554, 65.856, 0.0391888, 63.3947
0, 960.00000, 120.946, -31.2337, 121.028, -151.057, 121.704, 88.9017, 0, 0, 4.88923, -54.3075, 4.88591, -174.131, 4.85877, 65.8279, 0.0418549, 64.262
0, 1020.00000, 120.946, -31.2337, 121.028, -151.057, 121.704, 88.9017, 0, 0, 4.88925, -54.3076, 4.88592, -174.131, 4.85879, 65.8278, 0.041853, 64.2613
0, 1080.00000, 120.946, -31.2337, 121.028, -151.057, 121.704, 88.9017, 0, 0, 4.88925, -54.3076, 4.88592, -174.131, 4.85879, 65.8278, 0.041853, 64.2613
0, 1140.00000, 120.946, -31.2337, 121.028, -151.057, 121.704, 88.9017, 0, 0, 4.88925, -54.3076, 4.88592, -174.131, 4.85879, 65.8278, 0.041853, 64.2613
0, 1200.00000, 120.946, -31.2337, 121.028, -151.057, 121.704, 88.9017, 0, 0, 4.88925, -54.3076, 4.88592, -174.131, 4.85879, 65.8278, 0.041853, 64.2613
0, 1260.00000, 120.946, -31.2337, 121.028, -151.057, 121.704, 88.9017, 0, 0, 4.88925, -54.3076, 4.88592, -174.131, 4.85879, 65.8278, 0.041853, 64.2613
0, 1320.00000, 120.946, -31.2337, 121.028, -151.057, 121.704, 88.9017, 0, 0, 4.88925, -54.3076, 4.88592, -174.131, 4.85879, 65.8278, 0.041853, 64.2613
0, 1380.00000, 120.946, -31.2337, 121.028, -151.057, 121.704, 88.9017, 0, 0, 4.88925, -54.3076, 4.88592, -174.131, 4.85879, 65.8278, 0.041853, 64.2613
0, 1440.00000, 120.946, -31.2337, 121.028, -151.057, 121.704, 88.9017, 0, 0, 4.88925, -54.3076, 4.88592, -174.131, 4.85879, 65.8278, 0.041853, 64.2613
0, 1500.00000, 120.946, -31.2337, 121.028, -151.057, 121.704, 88.9017, 0, 0, 4.88925, -54.3076, 4.88592, -174.131, 4.85879, 65.8278, 0.041853, 64.2613
0, 1560.00000, 120.946, -31.2337, 121.028, -151.057, 121.704, 88.9017, 0, 0, 4.88925, -54.3076, 4.88592, -174.131, 4.85879, 65.8278, 0.041853, 64.2613
0, 1620.00000, 120.946, -31.2337, 121.028, -151.057, 121.704, 88.9017, 0, 0, 4.88925, -54.3076, 4.88592, -174.131, 4.85879, 65.8278, 0.041853, 64.2613
0, 1680.00000, 120.946, -31.2337, 121.028, -151.057, 121.704, 88.9017, 0, 0, 4.88925, -54.3076, 4.88592, -174.131, 4.85879, 65.8278, 0.041853, 64.2613
0, 1740.00000, 120.946, -31.2337, 121.028, -151.057, 121.704, 88.9017, 0, 0, 4.88925, -54.3076, 4.88592, -174.131, 4.85879, 65.8278, 0.041853, 64.2613
0, 1800.00000, 120.946, -31.2337, 121.028, -151.057, 121.704, 88.9017, 0, 0, 4.88925, -54.3076, 4.88592, -174.131, 4.85879, 65.8278, 0.041853, 64.2613
0, 1860.00000, 121.093, -31.2157, 121.166, -151.04, 121.839, 88.9219, 0, 0, 4.89839, -54.2906, 4.89542, -174.115, 4.86838, 65.8471, 0.0415806, 63.5154
0, 1920.00000, 121.093, -31.2156, 121.166, -151.04, 121.839, 88.9219, 0, 0, 4.89814, -54.2895, 4.89518, -174.114, 4.86814, 65.848, 0.0415636, 63.5101
0, 1980.00000, 121.093, -31.2156, 121.166, -151.04, 121.839, 88.9219, 0, 0, 4.89814, -54.2895, 4.89518, -174.114, 4.86814, 65.848, 0.0415637, 63.5101
0, 2040.00000, 121.093, -31.2156, 121.166, -151.04, 121.839, 88.9219, 0, 0, 4.89814, -54.2895, 4.89518, -174.114, 4.86814, 65.848, 0.0415637, 63.5101
0, 2100.00000, 121.093, -31.2156, 121.166, -151.04, 121.839, 88.9219, 0, 0, 4.89814, -54.2895, 4.89518, -174.114, 4.86814, 65.848, 0.0415637, 63.5101
0, 2160.00000, 121.093, -31.2156, 121.166, -151.04, 121.839, 88.9219, 0, 0, 4.89814, -54.2895, 4.89518, -174.114, 4.86814, 65.848, 0.0415637, 63.5101
0, 2220.00000, 121.093, -31.2156, 121.166, -151.04, 121.839, 88.9219, 0, 0, 4.89814, -54.2895, 4.89518, -174.114, 4.86814, 65.848, 0.0415637, 63.5101
0, 2280.00000, 121.093, -31.2156, 121.166, -151.04, 121.839, 88.9219, 0, 0, 4.89814, -54.2895, 4.89518, -174.114, 4.86814, 65.848, 0.0415637, 63.5101
0, 2340.00000, 121.093, -31.2156, 121.166, -151.04, 121.839, 88.9219, 0, 0, 4.89814, -54.2895, 4.89518, -174.114, 4.86814, 65.848, 0.0415637, 63.5101
0, 2400.00000, 121.093, -31.2156, 121.166, -151.04, 121.839, 88.9219, 0, 0, 4.89814, -54.2895, 4.89518, -174.114, 4.86814, 65.848, 0.0415637, 63.5101
0, 2460.00000, 121.093, -31.2156, 121.166, -151.04, 121.839, 88.9219, 0, 0, 4.89814, -54.2895, 4.89518, -174.114, 4.86814, 65.848, 0.0415637, 63.5101
0, 2520.00000, 121.093, -31.2156, 121.166, -151.04, 121.839, 88.9219, 0, 0, 4.89814, -54.2895, 4.89518, -174.114, 4.86814, 65.848, 0.0415637, 63.5101
0, 2580.00000, 121.093, -31.2156, 121.166, -151.04, 121.839, 88.9219, 0, 0, 4.89814, -54.2895, 4.89518, -174.114, 4.86814, 65.848, 0.0415637, 63.5101
0, 2640.00000, 121.093, -31.2156, 121.166, -151.04, 121.839, 88.9219, 0, 0, 4.89814, -54.2895, 4.89518, -174.114, 4.86814, 65.848, 0.0415637, 63.5101
0, 2700.00000, 121.093, -31.2156, 121.166, -151.04, 121.839, 88.9219, 0, 0, 4.89814, -54.2895, 4.89518, -174.114, 4.86814, 65.848, 0.0415637, 63.5101
0, 2760.00000, 121.386, -31.1772, 121.445, -151.008, 122.134, 88.963, 0, 0, 4.6476, -54.2515, 4.64537, -174.082, 4.61925, 65.8888, 0.0392433, 62.1322
0, 2820.00000, 121.386, -31.1772, 121.445, -151.008, 122.135, 88.963, 0, 0, 4.6476, -54.2511, 4.64535, -174.082, 4.61911, 65.8891, 0.0393202, 62.1312
0, 2880.00000, 121.386, -31.1772, 121.445, -151.008, 122.135, 88.963, 0, 0, 4.6476, -54.2511, 4.64535, -174.082, 4.61911, 65.8891, 0.0393214, 62.1311
0, 2940.00000, 121.386, -31.1772, 121.445, -151.008, 122.135, 88.963, 0, 0, 4.6476, -54.2511, 4.64535, -174.082, 4.61911, 65.8891, 0.0393214, 62.1311
0, 3000.00000, 121.386, -31.1772, 121.445, -151.008, 122.135, 88.963, 0, 0, 4.6476, -54.2511, 4.64535, -174.082, 4.61911, 65.8891, 0.0393214, 62.1311
0, 3060.00000, 121.386, -31.1772, 121.445, -151.008, 122.135, 88.963, 0, 0, 4.6476, -54.2511, 4.64535, -174.082, 4.61911, 65.8891, 0.0393214, 62.1311
0, 3120.00000, 121.386, -31.1772, 121.445, -151.008, 122.135, 88.963, 0, 0, 4.6476, -54.2511, 4.64535, -174.082, 4.61911, 65.8891, 0.0393214, 62.1311
0, 3180.00000, 121.386, -31.1772, 121.445, -151.008, 122.135, 88.963, 0, 0, 4.6476, -54.2511, 4.64535, -174.082, 4.61911, 65.8891, 0.0393214, 62.1311
0, 3240.00000, 121.386, -31.1772, 121.445, -151.008, 122.135, 88.963, 0, 0, 4.6476, -54.2511, 4.64535, -174.082, 4.61911, 65.8891, 0.0393214, 62.1311
0, 3300.00000, 121.386, -31.1772, 121.445, -151.008, 122.135, 88.963, 0, 0, 4.6476, -54.2511, 4.64535, -174.082, 4.61911, 65.8891, 0.0393214, 62.1311
0, 3360.00000, 121.386, -31.1772, 121.445, -151.008, 122.135, 88.963, 0, 0, 4.6476, -54.2511, 4.64535, -174.082, 4.61911, 65.8891, 0.0393214, 62.1311
0, 3420.00000, 121.386, -31.1772, 121.445, -151.008, 122.135, 88.963, 0, 0, 4.6476, -54.2511, 4.64535, -174.082, 4.61911, 65.8891, 0.0393214, 62.1311
0, 3480.00000, 121.386, -31.1772, 121.445, -151.008, 122.135, 88.963, 0, 0, 4.6476, -54.2511, 4.64535, -174.082, 4.61911, 65.8891, 0.0393214, 62.1311
0, 3540.00000, 121.386, -31.1772, 121.445, -151.008, 122.135, 88.963, 0, 0, 4.6476, -54.2511, 4.64535, -174.082, 4.61911, 65.8891, 0.0393214, 62.1311
1, 0.00000, 121.386, -31.1772, 121.445, -151.008, 122.135, 88.963, 0, 0, 4.6476, -54.2511, 4.64535, -174.082, 4.61911, 65.8891, 0.0393214, 62.1311
1, 60.00000, 121.609, -31.1504, 121.656, -150.987, 122.361, 88.9921, 0, 0, 4.58485, -54.2246, 4.58309, -174.06, 4.55678, 65.9179, 0.0386973, 60.9854
1, 120.00000, 121.609, -31.1503, 121.656, -150.987, 122.361, 88.9921, 0, 0, 4.58485, -54.2242, 4.58308, -174.061, 4.55665, 65.9182, 0.0387759, 60.9789
1, 180.00000, 121.609, -31.1503, 121.656, -150.987, 122.361, 88.9921, 0, 0, 4.58485, -54.2242, 4.58308, -174.061, 4.55665, 65.9182, 0.0387775, 60.9788
1, 240.00000, 121.609, -31.1503, 121.656, -150.987, 122.361, 88.9921, 0, 0, 4.58485, -54.2242, 4.58308, -174.061, 4.55665, 65.9182, 0.0387775, 60.9788
1, 300.00000, 121.609, -31.1503, 121.656, -150.987, 122.361, 88.9921, 0, 0, 4.58485, -54.2242, 4.58308, -174.061, 4.55665, 65.9182, 0.0387775, 60.9788
1, 360.00000, 121.609, -31.1503, 121.656, -150.987, 122.361, 88.9921, 0, 0, 4.58485, -54.2242, 4.58308, -174.061, 4.55665, 65.9182, 0.0387775, 60.9788
1, 420.00000, 121.609, -31.1503, 121.656, -150.987, 122.361, 88.9921, 0, 0, 4.58485, -54.2242, 4.58308, -174.061, 4.55665, 65.9182, 0.0387775, 60.9788
1, 480.00000, 121.609, -31.1503, 121.656, -150.987, 122.361, 88.9921, 0, 0, 4.58485, -54.2242, 4.58308, -174.061, 4.55665, 65.9182, 0.0387775, 60.9788
1, 540.00000, 121.609, -31.1503, 121.656, -150.987, 122.361, 88.9921, 0, 0, 4.58485, -54.2242, 4.58308, -174.061, 4.55665, 65.9182, 0.0387775, 60.9788
1, 600.00000, 121.609, -31.1503, 121.656, -150.987, 122.361, 88.9921, 0, 0, 4.58485, -54.2242, 4.58308, -174.061, 4.55665, 65.9182, 0.0387775, 60.9788
1, 660.00000, 121.609, -31.1503, 121.656, -150.987, 122.361, 88.9921, 0, 0, 4.58485, -54.2242, 4.58308, -174.061, 4.55665, 65.9182, 0.0387775, 60.9788
1, 720.00000, 121.609, -31.1503, 121.656, -150.987, 122.361, 88.9921, 0, 0, 4.58485, -54.2242, 4.58308, -174.061, 4.55665, 65.9182, 0.0387775, 60.9788
1, 780.00000, 121.609, -31.1503, 121.656, -150.987, 122.361, 88.9921, 0, 0, 4.58485, -54.2242, 4.58308, -174.061, 4.55665, 65.9182, 0.0387775, 60.9788
1, 840.00000, 121.609, -31.1503, 121.656, -150.987, 122.361, 88.9921, 0, 0, 4.58485, -54.2242, 4.58308, -174.061, 4.55665, 65.9182, 0.0387775, 60.9788
1, 900.00000, 121.609, -31.1503, 121.656, -150.987, 122.361, 88.9921, 0, 0, 4.58485, -54.2242, 4.58308, -174.061, 4.55665, 65.9182, 0.0387775, 60.9788
1, 960.00000, 121.633, -31.1457, 121.679, -150.983, 122.386, 88.9972, 0, 0, 4.5625, -54.2201, 4.56079, -174.057, 4.53452, 65.9228, 0.0385383, 60.8553
1, 1020.00000, 121.633, -31.1456, 121.679, -150.983, 122.387, 88.9972, 0, 0, 4.56247, -54.2196, 4.56075, -174.057, 4.53438, 65.9233, 0.0385951, 60.8471
1, 1080.00000, 121.633, -31.1456, 121.679, -150.983, 122.387, 88.9972, 0, 0, 4.56247, -54.2196, 4.56075, -174.057, 4.53438, 65.9233, 0.0385968, 60.8469
1, 1140.00000, 121.633, -31.1456, 121.679, -150.983, 122.387, 88.9972, 0, 0, 4.56247, -54.2196, 4.56075, -174.057, 4.53438, 65.9233, 0.0385968, 60.8469
1, 1200.00000, 121.633, -31.1456, 121.679, -150.983, 122.387, 88.9972, 0, 0, 4.56247, -54.2196, 4.56075, -174.057, 4.53438, 65.9233, 0.0385968, 60.8469
1, 1260.00000, 121.633, -31.1456, 121.679, -150.983, 122.387, 88.9972, 0, 0, 4.56247, -54.2196, 4.56075, -174.057, 4.53438, 65.9233, 0.0385968, 60.8469
1, 1320.00000, 121.633, -31.1456, 121.679, -150.983, 122.387, 88.9972, 0, 0, 4.56247, -54.2196, 4.56075, -174.057, 4.53438, 65.9233, 0.0385968, 60.8469
1, 1380.00000, 121.633, -31.1456, 121.679, -150.983, 122.387, 88.9972, 0, 0, 4.56247, -54.2196, 4.56075, -174.057, 4.53438, 65.9233, 0.0385968, 60.8469
1, 1440.00000, 121.633, -31.1456, 121.679, -150.983, 122.387, 88.9972, 0, 0, 4.56247, -54.2196, 4.56075, -174.057, 4.53438, 65.9233, 0.0385968, 60.8469
1, 1500.00000, 121.633, -31.1456, 121.679, -150.983, 122.387, 88.9972, 0, 0, 4.56247, -54.2196, 4.56075, -174.057, 4.53438, 65.9233, 0.0385968, 60.8469
1, 1560.00000, 121.633, -31.1456, 121.679, -150.983, 122.387, 88.9972, 0, 0, 4.56247, -54.2196, 4.56075, -174.057, 4.53438, 65.9233, 0.0385968, 60.8469
1, 1620.00000, 121.633, -31.1456, 121.679, -150.983, 122.387, 88.9972, 0, 0, 4.56247, -54.2196, 4.56075, -174.057, 4.53438, 65.9233, 0.0385968, 60.8469
1, 1680.00000, 121.633, -31.1456, 121.679, -150.983, 122.387, 88.9972, 0, 0, 4.56247, -54.2196, 4.56075, -174.057, 4.53438, 65.9233, 0.0385968, 60.8469
1, 1740.00000, 121.633, -31.1456, 121.679, -150.983, 122.387, 88.9972, 0, 0, 4.56247, -54.2196, 4.56075, -174.057, 4.53438, 65.9233, 0.0385968, 60.8469
1, 1800.00000, 121.633, -31.1456, 121.679, -150.983, 122.387, 88.9972, 0, 0, 4.56247, -54.2196, 4.56075, -174.057, 4.53438, 65.9233, 0.0385968, 60.8469
1, 1860.00000, 121.429, -31.1706, 121.486, -151.002, 122.178, 88.9706, 0, 0, 4.68036, -54.2442, 4.67818, -174.077, 4.65155, 65.8969, 0.0396612, 61.8368
1, 1920.00000, 121.429, -31.1706, 121.486, -151.002, 122.178, 88.9706, 0, 0, 4.68035, -54.2445, 4.67819, -174.076, 4.65168, 65.8966, 0.0395834, 61.8441
1, 1980.00000, 121.429, -31.1706, 121.486, -151.002, 122.178, 88.9706, 0, 0, 4.68035, -54.2445, 4.67819, -174.076, 4.65168, 65.8966, 0.0395818, 61.8443
1, 2040.00000, 121.429, -31.1706, 121.486, -151.002, 122.178, 88.9706, 0, 0, 4.68035, -54.2445, 4.67819, -174.076, 4.65168, 65.8966, 0.0395818, 61.8443
1, 2100.00000, 121.429, -31.1706, 121.486, -151.002, 122.178, 88.9706, 0, 0, 4.68035, -54.2445, 4.67819, -174.076, 4.65168, 65.8966, 0.0395818, 61.8443
1, 2160.00000, 121.429, -31.1706, 121.486, -151.002, 122.178, 88.9706, 0, 0, 4.68035, -54.2445, 4.67819, -174.076, 4.65168, 65.8966, 0.0395818, 61.8443
1, 2220.00000, 121.429, -31.1706, 121.486, -151.002, 122.178, 88.9706, 0, 0, 4.68035, -54.2445, 4.67819, -174.076, 4.65168, 65.8966, 0.0395818, 61.8443
1, 2280.00000, 121.429, -31.1706, 121.486, -151.002, 122.178, 88.9706, 0, 0, 4.68035, -54.2445, 4.67819, -174.076, 4.65168, 65.8966, 0.0395818, 61.8443
1, 2340.00000, 121.429, -31.1706, 121.486, -151.002, 122.178, 88.9706, 0, 0, 4.68035, -54.2445, 4.67819, -174.076, 4.65168, 65.8966, 0.0395818, 61.8443
1, 2400.00000, 121.429, -31.1706, 121.486, -151.002, 122.178, 88.9706, 0, 0, 4.68035, -54.2445, 4.67819, -174.076, 4.65168, 65.8966, 0.0395818, 61.8443
1, 2460.00000, 121.429, -31.1706, 121.486, -151.002, 122.178, 88.9706, 0, 0, 4.68035, -54.2445, 4.67819, -174.076, 4.65168, 65.8966, 0.0395818, 61.8443
1, 2520.00000, 121.429, -31.1706, 121.486, -151.002, 122.178, 88.9706, 0, 0, 4.68035, -54.2445, 4.67819, -174.076, 4.65168, 65.8966, 0.0395818, 61.8443
1, 2580.00000, 121.429, -31.1706, 121.486, -151.002, 122.178, 88.9706, 0, 0, 4.68035, -54.2445, 4.67819, -174.076, 4.65168, 65.8966, 0.0395818, 61.8443
1, 2640.00000, 121.429, -31.1706, 121.486, -151.002, 122.178, 88.9706, 0, 0, 4.68035, -54.2445, 4.67819, -174.076, 4.65168, 65.8966, 0.0395818, 61.8443
1, 2700.00000, 121.429, -31.1706, 121.486, -151.002, 122.178, 88.9706, 0, 0, 4.68035, -54.2445, 4.67819, -174.076, 4.65168, 65.8966, 0.0395818, 61.8443
1, 2760.00000, 121.831, -31.1203, 121.875, -150.961, 122.585, 89.0267, 0, 0, 4.39576, -54.1947, 4.39425, -174.034, 4.36891, 65.9521, 0.0369606, 60.0461
1, 2820.00000, 121.831, -31.1203, 121.875, -150.961, 122.586, 89.0268, 0, 0, 4.39576, -54.1942, 4.39418, -174.035, 4.36869, 65.9528, 0.0370717, 60.0841
1, 2880.00000, 121.831, -31.1203, 121.875, -150.961, 122.586, 89.0268, 0, 0, 4.39576, -54.1942, 4.39417, -174.035, 4.36869, 65.9529, 0.0370741, 60.085
1, 2940.00000, 121.831, -31.1203, 121.875, -150.961, 122.586, 89.0268, 0, 0, 4.39576, -54.1942, 4.39417, -174.035, 4.36869, 65.9529, 0.0370742, 60.085
1, 3000.00000, 121.831, -31.1203, 121.875, -150.961, 122.586, 89.0268, 0, 0, 4.39576, -54.1942, 4.39417, -174.035, 4.36869, 65.9529, 0.0370742, 60.085
1, 3060.00000, 121.831, -31.1203, 121.875, -150.961, 122.586, 89.0268, 0, 0, 4.39576, -54.1942, 4.39417, -174.035, 4.36869, 65.9529, 0.0370742, 60.085
1, 3120.00000, 121.831, -31.1203, 121.875, -150.961, 122.586, 89.0268, 0, 0, 4.39576, -54.1942, 4.39417, -174.035, 4.36869, 65.9529, 0.0370742, 60.085
1, 3180.00000, 121.831, -31.1203, 121.875, -150.961, 122.586, 89.0268, 0, 0, 4.39576, -54.1942, 4.39417, -174.035, 4.36869, 65.9529, 0.0370742, 60.085
1, 3240.00000, 121.831, -31.1203, 121.875, -150.961, 122.586, 89.0268, 0, 0, 4.39576, -54.1942, 4.39417, -174.035, 4.36869, 65.9529, 0.0370742, 60.085
1, 3300.00000, 121.831, -31.1203, 121.875, -150.961, 122.586, 89.0268, 0, 0, 4.39576, -54.1942, 4.39417, -174.035, 4.36869, 65.9529, 0.0370742, 60.085
1, 3360.00000, 121.831, -31.1203, 121.875, -150.961, 122.586, 89.0268, 0, 0, 4.39576, -54.1942, 4.39417, -174.035, 4.36869, 65.9529, 0.0370742, 60.085
1, 3420.00000, 121.831, -31.1203, 121.875, -150.961, 122.586, 89.0268, 0, 0, 4.39576, -54.1942, 4.39417, -174.035, 4.36869, 65.9529, 0.0370742, 60.085
1, 3480.00000, 121.831, -31.1203, 121.875, -150.961, 122.586, 89.0268, 0, 0, 4.39576, -54.1942, 4.39417, -174.035, 4.36869, 65.9529, 0.0370742, 60.085
1, 3540.00000, 121.831, -31.1203, 121.875, -150.961, 122.586, 89.0268, 0, 0, 4.39576, -54.1942, 4.39417, -174.035, 4.36869, 65.9529, 0.0370742, 60.085
2, 0.00000, 121.831, -31.1203, 121.875, -150.961, 122.586, 89.0268, 0, 0, 4.39576, -54.1942, 4.39417, -174.035, 4.36869, 65.9529, 0.0370742, 60.085
2, 60.00000, 121.583, -31.1498, 121.631, -150.986, 122.337, 88.9929, 0, 0, 4.52296, -54.2234, 4.52112, -174.06, 4.49495, 65.9193, 0.038373, 61.0597
2, 120.00000, 121.583, -31.1499, 121.631, -150.986, 122.336, 88.9929, 0, 0, 4.52295, -54.2238, 4.52115, -174.06, 4.49509, 65.919, 0.0382927, 61.0566
2, 180.00000, 121.583, -31.1499, 121.631, -150.986, 122.336, 88.9929, 0, 0, 4.52295, -54.2238, 4.52115, -174.06, 4.49509, 65.9189, 0.038291, 61.0568
2, 240.00000, 121.583, -31.1499, 121.631, -150.986, 122.336, 88.9929, 0, 0, 4.52295, -54.2238, 4.52115, -174.06, 4.49509, 65.9189, 0.038291, 61.0568
2, 300.00000, 121.583, -31.1499, 121.631, -150.986, 122.336, 88.9929, 0, 0, 4.52295, -54.2238, 4.52115, -174.06, 4.49509, 65.9189, 0.038291, 61.0568
2, 360.00000, 121.583, -31.1499, 121.631, -150.986, 122.336, 88.9929, 0, 0, 4.52295, -54.2238, 4.52115, -174.06, 4.49509, 65.9189, 0.038291, 61.0568
2, 420.00000, 121.583, -31.1499, 121.631, -150.986, 122.336, 88.9929, 0, 0, 4.52295, -54.2238, 4.52115, -174.06, 4.49509, 65.9189, 0.038291, 61.0568
2, 480.00000, 121.583, -31.1499, 121.631, -150.986, 122.336, 88.9929, 0, 0, 4.52295, -54.2238, 4.52115, -174.06, 4.49509, 65.9189, 0.038291, 61.0568
2, 540.00000, 121.583, -31.1499, 121.631, -150.986, 122.336, 88.9929, 0, 0, 4.52295, -54.2238, 4.52115, -174.06, 4.49509, 65.9189, 0.038291, 61.0568
2, 600.00000, 121.583, -31.1499, 121.631, -150.986, 122.336, 88.9929, 0, 0, 4.52295, -54.2238, 4.52115, -174.06, 4.49509, 65.9189, 0.038291, 61.0568
2, 660.00000, 121.583, -31.1499, 121.631, -150.986, 122.336, 88.9929, 0, 0, 4.52295, -54.2238, 4.52115, -174.06, 4.49509, 65.9189, 0.038291, 61.0568
2, 720.00000, 121.583, -31.1499, 121.631, -150.986, 122.336, 88.9929, 0, 0, 4.52295, -54.2238, 4.52115, -174.06, 4.49509, 65.9189, 0.038291, 61.0568
