hour,t(sec),V1,VAngle1,V2,VAngle2,V3,VAngle3,V4,VAngle4,I1,IAngle1,I2,IAngle2,I3,IAngle3,I4,IAngle4
0, 60.00000, 119.747, -31.0143, 120.436, -150.88, 120.655, 88.9042, 0, 0, 4.67718, -54.0876, 4.70704, -173.954, 4.71669, 65.8308, 0.0203211, -71.9354
0, 120.00000, 119.747, -31.0143, 120.435, -150.88, 120.655, 88.9042, 0, 0, 4.67716, -54.0882, 4.70698, -173.954, 4.71647, 65.8303, 0.0201098, -71.6229
0, 180.00000, 119.747, -31.0143, 120.435, -150.88, 120.655, 88.9042, 0, 0, 4.67716, -54.0882, 4.70698, -173.954, 4.71647, 65.8303, 0.0201095, -71.6221
0, 240.00000, 119.747, -31.0143, 120.435, -150.88, 120.655, 88.9042, 0, 0, 4.67716, -54.0882, 4.70698, -173.954, 4.71647, 65.8303, 0.0201095, -71.6221
0, 300.00000, 119.747, -31.0143, 120.435, -150.88, 120.655, 88.9042, 0, 0, 4.67716, -54.0882, 4.70698, -173.954, 4.71647, 65.8303, 0.0201095, -71.6221
0, 360.00000, 119.747, -31.0143, 120.435, -150.88, 120.655, 88.9042, 0, 0, 4.67716, -54.0882, 4.70698, -173.954, 4.71647, 65.8303, 0.0201095, -71.6221
0, 420.00000, 119.747, -31.0143, 120.435, -150.88, 120.655, 88.9042, 0, 0, 4.67716, -54.0882, 4.70698, -173.954, 4.71647, 65.8303, 0.0201095, -71.6221
0, 480.00000, 119.747, -31.0143, 120.435, -150.88, 120.655, 88.9042, 0, 0, 4.67716, -54.0882, 4.70698, -173.954, 4.71647, 65.8303, 0.0201095, -71.6221
0, 540.00000, 119.747, -31.0143, 120.435, -150.88, 120.655, 88.9042, 0, 0, 4.67716, -54.0882, 4.70698, -173.954, 4.71647, 65.8303, 0.0201095, -71.6221
0, 600.00000, 119.747, -31.0143, 120.435, -150.88, 120.655, 88.9042, 0, 0, 4.67716, -54.0882, 4.70698, -173.954, 4.71647, 65.8303, 0.0201095, -71.6221
0, 660.00000, 119.747, -31.0143, 120.435, -150.88, 120.655, 88.9042, 0, 0, 4.67716, -54.0882, 4.70698, -173.954, 4.71647, 65.8303, 0.0201095, -71.6221
0, 720.00000, 119.747, -31.0143, 120.435, -150.88, 120.655, 88.9042, 0, 0, 4.67716, -54.0882, 4.70698, -173.954, 4.71647, 65.8303, 0.0201095, -71.6221
0, 780.00000, 119.747, -31.0143, 120.435, -150.88, 120.655, 88.9042, 0, 0, 4.67716, -54.0882, 4.70698, -173.954, 4.71647, 65.8303, 0.0201095, -71.6221
0, 840.00000, 119.747, -31.0143, 120.435, -150.88, 120.655, 88.9042, 0, 0, 4.67716, -54.0882, 4.70698, -173.954, 4.71647, 65.8303, 0.0201095, -71.6221
0, 900.00000, 119.747, -31.0143, 120.435, -150.88, 120.655, 88.9042, 0, 0, 4.67716, -54.0882, 4.70698, -173.954, 4.71647, 65.8303, 0.0201095, -71.6221
0, 960.00000, 119.325, -31.1872, 119.816, -150.91, 120.438, 88.8758, 0, 0, 4.92852, -54.2608, 4.95103, -173.984, 4.97948, 65.802, 0.0229715, -80.0324
0, 1020.00000, 119.325, -31.1872, 119.816, -150.91, 120.438, 88.8758, 0, 0, 4.9285, -54.2611, 4.95097, -173.984, 4.97947, 65.8019, 0.0229688, -80.0938
0, 1080.00000, 119.325, -31.1872, 119.816, -150.91, 120.438, 88.8758, 0, 0, 4.9285, -54.2611, 4.95097, -173.984, 4.97947, 65.8019, 0.0229688, -80.094
0, 1140.00000, 119.325, -31.1872, 119.816, -150.91, 120.438, 88.8758, 0, 0, 4.9285, -54.2611, 4.95097, -173.984, 4.97947, 65.8019, 0.0229688, -80.094
0, 1200.00000, 119.325, -31.1872, 119.816, -150.91, 120.438, 88.8758, 0, 0, 4.9285, -54.2611, 4.95097, -173.984, 4.97947, 65.8019, 0.0229688, -80.094
0, 1260.00000, 119.325, -31.1872, 119.816, -150.91, 120.438, 88.8758, 0, 0, 4.9285, -54.2611, 4.95097, -173.984, 4.97947, 65.8019, 0.0229688, -80.094
0, 1320.00000, 119.325, -31.1872, 119.816, -150.91, 120.438, 88.8758, 0, 0, 4.9285, -54.2611, 4.95097, -173.984, 4.97947, 65.8019, 0.0229688, -80.094
0, 1380.00000, 119.325, -31.1872, 119.816, -150.91, 120.438, 88.8758, 0, 0, 4.9285, -54.2611, 4.95097, -173.984, 4.97947, 65.8019, 0.0229688, -80.094
0, 1440.00000, 119.325, -31.1872, 119.816, -150.91, 120.438, 88.8758, 0, 0, 4.9285, -54.2611, 4.95097, -173.984, 4.97947, 65.8019, 0.0229688, -80.094
0, 1500.00000, 119.325, -31.1872, 119.816, -150.91, 120.438, 88.8758, 0, 0, 4.9285, -54.2611, 4.95097, -173.984, 4.97947, 65.8019, 0.0229688, -80.094
0, 1560.00000, 119.325, -31.1872, 119.816, -150.91, 120.438, 88.8758, 0, 0, 4.9285, -54.2611, 4.95097, -173.984, 4.97947, 65.8019, 0.0229688, -80.094
0, 1620.00000, 119.325, -31.1872, 119.816, -150.91, 120.438, 88.8758, 0, 0, 4.9285, -54.2611, 4.95097, -173.984, 4.97947, 65.8019, 0.0229688, -80.094
0, 1680.00000, 119.325, -31.1872, 119.816, -150.91, 120.438, 88.8758, 0, 0, 4.9285, -54.2611, 4.95097, -173.984, 4.97947, 65.8019, 0.0229688, -80.094
0, 1740.00000, 119.325, -31.1872, 119.816, -150.91, 120.438, 88.8758, 0, 0, 4.9285, -54.2611, 4.95097, -173.984, 4.97947, 65.8019, 0.0229688, -80.094
0, 1800.00000, 119.325, -31.1872, 119.816, -150.91, 120.438, 88.8758, 0, 0, 4.9285, -54.2611, 4.95097, -173.984, 4.97947, 65.8019, 0.0229688, -80.094
0, 1860.00000, 119.477, -31.171, 119.962, -150.894, 120.583, 88.8954, 0, 0, 4.95042, -54.2451, 4.97254, -173.968, 5.00102, 65.8201, 0.0227144, -79.987
0, 1920.00000, 119.477, -31.1709, 119.962, -150.894, 120.584, 88.8955, 0, 0, 4.95045, -54.2448, 4.97273, -173.968, 5.0013, 65.8216, 0.0230096, -79.7144
0, 1980.00000, 119.477, -31.1709, 119.962, -150.894, 120.584, 88.8955, 0, 0, 4.95045, -54.2448, 4.97273, -173.968, 5.00131, 65.8216, 0.0230107, -79.7148
0, 2040.00000, 119.477, -31.1709, 119.962, -150.894, 120.584, 88.8955, 0, 0, 4.95045, -54.2448, 4.97273, -173.968, 5.00131, 65.8216, 0.0230107, -79.7148
0, 2100.00000, 119.477, -31.1709, 119.962, -150.894, 120.584, 88.8955, 0, 0, 4.95045, -54.2448, 4.97273, -173.968, 5.00131, 65.8216, 0.0230107, -79.7148
0, 2160.00000, 119.477, -31.1709, 119.962, -150.894, 120.584, 88.8955, 0, 0, 4.95045, -54.2448, 4.97273, -173.968, 5.00131, 65.8216, 0.0230107, -79.7148
0, 2220.00000, 119.477, -31.1709, 119.962, -150.894, 120.584, 88.8955, 0, 0, 4.95045, -54.2448, 4.97273, -173.968, 5.00131, 65.8216, 0.0230107, -79.7148
0, 2280.00000, 119.477, -31.1709, 119.962, -150.894, 120.584, 88.8955, 0, 0, 4.95045, -54.2448, 4.97273, -173.968, 5.00131, 65.8216, 0.0230107, -79.7148
0, 2340.00000, 119.477, -31.1709, 119.962, -150.894, 120.584, 88.8955, 0, 0, 4.95045, -54.2448, 4.97273, -173.968, 5.00131, 65.8216, 0.0230107, -79.7148
0, 2400.00000, 119.477, -31.1709, 119.962, -150.894, 120.584, 88.8955, 0, 0, 4.95045, -54.2448, 4.97273, -173.968, 5.00131, 65.8216, 0.0230107, -79.7148
0, 2460.00000, 119.477, -31.1709, 119.962, -150.894, 120.584, 88.8955, 0, 0, 4.95045, -54.2448, 4.97273, -173.968, 5.00131, 65.8216, 0.0230107, -79.7148
0, 2520.00000, 119.477, -31.1709, 119.962, -150.894, 120.584, 88.8955, 0, 0, 4.95045, -54.2448, 4.97273, -173.968, 5.00131, 65.8216, 0.0230107, -79.7148
0, 2580.00000, 119.477, -31.1709, 119.962, -150.894, 120.584, 88.8955, 0, 0, 4.95045, -54.2448, 4.97273, -173.968, 5.00131, 65.8216, 0.0230107, -79.7148
0, 2640.00000, 119.477, -31.1709, 119.962, -150.894, 120.584, 88.8955, 0, 0, 4.95045, -54.2448, 4.97273, -173.968, 5.00131, 65.8216, 0.0230107, -79.7148
0, 2700.00000, 119.477, -31.1709, 119.962, -150.894, 120.584, 88.8955, 0, 0, 4.95045, -54.2448, 4.97273, -173.968, 5.00131, 65.8216, 0.0230107, -79.7148
0, 2760.00000, 119.813, -31.1379, 120.284, -150.868, 120.927, 88.9323, 0, 0, 4.72328, -54.2122, 4.74383, -173.942, 4.75046, 65.858, 0.0126272, -13.0559
0, 2820.00000, 119.813, -31.1379, 120.284, -150.869, 120.927, 88.9323, 0, 0, 4.72327, -54.2118, 4.74385, -173.942, 4.75031, 65.8584, 0.0126996, -12.6675
0, 2880.00000, 119.813, -31.1379, 120.284, -150.869, 120.927, 88.9323, 0, 0, 4.72327, -54.2118, 4.74385, -173.942, 4.75031, 65.8584, 0.0127005, -12.6637
0, 2940.00000, 119.813, -31.1379, 120.284, -150.869, 120.927, 88.9323, 0, 0, 4.72327, -54.2118, 4.74385, -173.942, 4.75031, 65.8584, 0.0127005, -12.6637
0, 3000.00000, 119.813, -31.1379, 120.284, -150.869, 120.927, 88.9323, 0, 0, 4.72327, -54.2118, 4.74385, -173.942, 4.75031, 65.8584, 0.0127005, -12.6637
0, 3060.00000, 119.813, -31.1379, 120.284, -150.869, 120.927, 88.9323, 0, 0, 4.72327, -54.2118, 4.74385, -173.942, 4.75031, 65.8584, 0.0127005, -12.6637
0, 3120.00000, 119.813, -31.1379, 120.284, -150.869, 120.927, 88.9323, 0, 0, 4.72327, -54.2118, 4.74385, -173.942, 4.75031, 65.8584, 0.0127005, -12.6637
0, 3180.00000, 119.813, -31.1379, 120.284, -150.869, 120.927, 88.9323, 0, 0, 4.72327, -54.2118, 4.74385, -173.942, 4.75031, 65.8584, 0.0127005, -12.6637
0, 3240.00000, 119.813, -31.1379, 120.284, -150.869, 120.927, 88.9323, 0, 0, 4.72327, -54.2118, 4.74385, -173.942, 4.75031, 65.8584, 0.0127005, -12.6637
0, 3300.00000, 119.813, -31.1379, 120.284, -150.869, 120.927, 88.9323, 0, 0, 4.72327, -54.2118, 4.74385, -173.942, 4.75031, 65.8584, 0.0127005, -12.6637
0, 3360.00000, 119.813, -31.1379, 120.284, -150.869, 120.927, 88.9323, 0, 0, 4.72327, -54.2118, 4.74385, -173.942, 4.75031, 65.8584, 0.0127005, -12.6637
0, 3420.00000, 119.813, -31.1379, 120.284, -150.869, 120.927, 88.9323, 0, 0, 4.72327, -54.2118, 4.74385, -173.942, 4.75031, 65.8584, 0.0127005, -12.6637
0, 3480.00000, 119.813, -31.1379, 120.284, -150.869, 120.927, 88.9323, 0, 0, 4.72327, -54.2118, 4.74385, -173.942, 4.75031, 65.8584, 0.0127005, -12.6637
0, 3540.00000, 119.813, -31.1379, 120.284, -150.869, 120.927, 88.9323, 0, 0, 4.72327, -54.2118, 4.74385, -173.942, 4.75031, 65.8584, 0.0127005, -12.6637
1, 0.00000, 119.813, -31.1379, 120.284, -150.869, 120.927, 88.9323, 0, 0, 4.72327, -54.2118, 4.74385, -173.942, 4.75031, 65.8584, 0.0127005, -12.6637
1, 60.00000, 120.062, -31.1139, 120.521, -150.851, 121.186, 88.9585, 0, 0, 4.67884, -54.1882, 4.69863, -173.925, 4.68487, 65.8843, 0.0256463, 37.3299
1, 120.00000, 120.062, -31.1139, 120.521, -150.851, 121.187, 88.9586, 0, 0, 4.67883, -54.1878, 4.69863, -173.925, 4.68472, 65.8847, 0.0257433, 37.3362
1, 180.00000, 120.062, -31.1139, 120.521, -150.851, 121.187, 88.9586, 0, 0, 4.67883, -54.1878, 4.69863, -173.925, 4.68472, 65.8847, 0.0257447, 37.3357
1, 240.00000, 120.062, -31.1139, 120.521, -150.851, 121.187, 88.9586, 0, 0, 4.67883, -54.1878, 4.69863, -173.925, 4.68472, 65.8847, 0.0257447, 37.3357
1, 300.00000, 120.062, -31.1139, 120.521, -150.851, 121.187, 88.9586, 0, 0, 4.67883, -54.1878, 4.69863, -173.925, 4.68472, 65.8847, 0.0257447, 37.3357
1, 360.00000, 120.062, -31.1139, 120.521, -150.851, 121.187, 88.9586, 0, 0, 4.67883, -54.1878, 4.69863, -173.925, 4.68472, 65.8847, 0.0257447, 37.3357
1, 420.00000, 120.062, -31.1139, 120.521, -150.851, 121.187, 88.9586, 0, 0, 4.67883, -54.1878, 4.69863, -173.925, 4.68472, 65.8847, 0.0257447, 37.3357
1, 480.00000, 120.062, -31.1139, 120.521, -150.851, 121.187, 88.9586, 0, 0, 4.67883, -54.1878, 4.69863, -173.925, 4.68472, 65.8847, 0.0257447, 37.3357
1, 540.00000, 120.062, -31.1139, 120.521, -150.851, 121.187, 88.9586, 0, 0, 4.67883, -54.1878, 4.69863, -173.925, 4.68472, 65.8847, 0.0257447, 37.3357
1, 600.00000, 120.062, -31.1139, 120.521, -150.851, 121.187, 88.9586, 0, 0, 4.67883, -54.1878, 4.69863, -173.925, 4.68472, 65.8847, 0.0257447, 37.3357
1, 660.00000, 120.062, -31.1139, 120.521, -150.851, 121.187, 88.9586, 0, 0, 4.67883, -54.1878, 4.69863, -173.925, 4.68472, 65.8847, 0.0257447, 37.3357
1, 720.00000, 120.062, -31.1139, 120.521, -150.851, 121.187, 88.9586, 0, 0, 4.67883, -54.1878, 4.69863, -173.925, 4.68472, 65.8847, 0.0257447, 37.3357
1, 780.00000, 120.062, -31.1139, 120.521, -150.851, 121.187, 88.9586, 0, 0, 4.67883, -54.1878, 4.69863, -173.925, 4.68472, 65.8847, 0.0257447, 37.3357
1, 840.00000, 120.062, -31.1139, 120.521, -150.851, 121.187, 88.9586, 0, 0, 4.67883, -54.1878, 4.69863, -173.925, 4.68472, 65.8847, 0.0257447, 37.3357
1, 900.00000, 120.062, -31.1139, 120.521, -150.851, 121.187, 88.9586, 0, 0, 4.67883, -54.1878, 4.69863, -173.925, 4.68472, 65.8847, 0.0257447, 37.3357
1, 960.00000, 120.088, -31.1095, 120.545, -150.848, 121.214, 88.9635, 0, 0, 4.65801, -54.1838, 4.67766, -173.921, 4.6619, 65.8891, 0.0273426, 39.3163
1, 1020.00000, 120.088, -31.1094, 120.545, -150.848, 121.214, 88.9635, 0, 0, 4.65803, -54.1833, 4.6777, -173.922, 4.66173, 65.8896, 0.0274954, 39.3866
1, 1080.00000, 120.088, -31.1094, 120.545, -150.848, 121.214, 88.9635, 0, 0, 4.65803, -54.1833, 4.6777, -173.922, 4.66172, 65.8896, 0.0274972, 39.3862
1, 1140.00000, 120.088, -31.1094, 120.545, -150.848, 121.214, 88.9635, 0, 0, 4.65803, -54.1833, 4.6777, -173.922, 4.66172, 65.8896, 0.0274972, 39.3862
1, 1200.00000, 120.088, -31.1094, 120.545, -150.848, 121.214, 88.9635, 0, 0, 4.65803, -54.1833, 4.6777, -173.922, 4.66172, 65.8896, 0.0274972, 39.3862
1, 1260.00000, 120.088, -31.1094, 120.545, -150.848, 121.214, 88.9635, 0, 0, 4.65803, -54.1833, 4.6777, -173.922, 4.66172, 65.8896, 0.0274972, 39.3862
1, 1320.00000, 120.088, -31.1094, 120.545, -150.848, 121.214, 88.9635, 0, 0, 4.65803, -54.1833, 4.6777, -173.922, 4.66172, 65.8896, 0.0274972, 39.3862
1, 1380.00000, 120.088, -31.1094, 120.545, -150.848, 121.214, 88.9635, 0, 0, 4.65803, -54.1833, 4.6777, -173.922, 4.66172, 65.8896, 0.0274972, 39.3862
1, 1440.00000, 120.088, -31.1094, 120.545, -150.848, 121.214, 88.9635, 0, 0, 4.65803, -54.1833, 4.6777, -173.922, 4.66172, 65.8896, 0.0274972, 39.3862
1, 1500.00000, 120.088, -31.1094, 120.545, -150.848, 121.214, 88.9635, 0, 0, 4.65803, -54.1833, 4.6777, -173.922, 4.66172, 65.8896, 0.0274972, 39.3862
1, 1560.00000, 120.088, -31.1094, 120.545, -150.848, 121.214, 88.9635, 0, 0, 4.65803, -54.1833, 4.6777, -173.922, 4.66172, 65.8896, 0.0274972, 39.3862
1, 1620.00000, 120.088, -31.1094, 120.545, -150.848, 121.214, 88.9635, 0, 0, 4.65803, -54.1833, 4.6777, -173.922, 4.66172, 65.8896, 0.0274972, 39.3862
1, 1680.00000, 120.088, -31.1094, 120.545, -150.848, 121.214, 88.9635, 0, 0, 4.65803, -54.1833, 4.6777, -173.922, 4.66172, 65.8896, 0.0274972, 39.3862
1, 1740.00000, 120.088, -31.1094, 120.545, -150.848, 121.214, 88.9635, 0, 0, 4.65803, -54.1833, 4.6777, -173.922, 4.66172, 65.8896, 0.0274972, 39.3862
1, 1800.00000, 120.088, -31.1094, 120.545, -150.848, 121.214, 88.9635, 0, 0, 4.65803, -54.1833, 4.6777, -173.922, 4.66172, 65.8896, 0.0274972, 39.3862
1, 1860.00000, 119.852, -31.1313, 120.321, -150.863, 120.967, 88.9401, 0, 0, 4.75996, -54.2049, 4.78063, -173.937, 4.78378, 65.8664, 0.0139181, 0.679562
1, 1920.00000, 119.852, -31.1313, 120.321, -150.863, 120.967, 88.9401, 0, 0, 4.75997, -54.2052, 4.78062, -173.937, 4.78392, 65.8662, 0.0138458, 0.437296
1, 1980.00000, 119.852, -31.1313, 120.321, -150.863, 120.967, 88.9401, 0, 0, 4.75998, -54.2052, 4.78062, -173.937, 4.78392, 65.8661, 0.0138449, 0.435078
1, 2040.00000, 119.852, -31.1313, 120.321, -150.863, 120.967, 88.9401, 0, 0, 4.75998, -54.2052, 4.78062, -173.937, 4.78392, 65.8661, 0.0138449, 0.435052
1, 2100.00000, 119.852, -31.1313, 120.321, -150.863, 120.967, 88.9401, 0, 0, 4.75998, -54.2052, 4.78062, -173.937, 4.78392, 65.8661, 0.0138449, 0.435051
1, 2160.00000, 119.852, -31.1313, 120.321, -150.863, 120.967, 88.9401, 0, 0, 4.75998, -54.2052, 4.78062, -173.937, 4.78392, 65.8661, 0.0138449, 0.435051
1, 2220.00000, 119.852, -31.1313, 120.321, -150.863, 120.967, 88.9401, 0, 0, 4.75998, -54.2052, 4.78062, -173.937, 4.78392, 65.8661, 0.0138449, 0.435051
1, 2280.00000, 119.852, -31.1313, 120.321, -150.863, 120.967, 88.9401, 0, 0, 4.75998, -54.2052, 4.78062, -173.937, 4.78392, 65.8661, 0.0138449, 0.435051
1, 2340.00000, 119.852, -31.1313, 120.321, -150.863, 120.967, 88.9401, 0, 0, 4.75998, -54.2052, 4.78062, -173.937, 4.78392, 65.8661, 0.0138449, 0.435051
1, 2400.00000, 119.852, -31.1313, 120.321, -150.863, 120.967, 88.9401, 0, 0, 4.75998, -54.2052, 4.78062, -173.937, 4.78392, 65.8661, 0.0138449, 0.435051
1, 2460.00000, 119.852, -31.1313, 120.321, -150.863, 120.967, 88.9401, 0, 0, 4.75998, -54.2052, 4.78062, -173.937, 4.78392, 65.8661, 0.0138449, 0.435051
1, 2520.00000, 119.852, -31.1313, 120.321, -150.863, 120.967, 88.9401, 0, 0, 4.75998, -54.2052, 4.78062, -173.937, 4.78392, 65.8661, 0.0138449, 0.435051
1, 2580.00000, 119.852, -31.1313, 120.321, -150.863, 120.967, 88.9401, 0, 0, 4.75998, -54.2052, 4.78062, -173.937, 4.78392, 65.8661, 0.0138449, 0.435051
1, 2640.00000, 119.852, -31.1313, 120.321, -150.863, 120.967, 88.9401, 0, 0, 4.75998, -54.2052, 4.78062, -173.937, 4.78392, 65.8661, 0.0138449, 0.435051
1, 2700.00000, 119.781, -31.1259, 119.316, -151.204, 119.779, 89.1779, 0, 0, 4.75685, -54.1997, 4.73638, -174.278, 4.75685, 66.1044, 0.0190858, -79.9216
1, 2760.00000, 120.249, -31.0829, 119.742, -151.166, 120.212, 89.2253, 0, 0, 4.50178, -54.157, 4.48078, -174.24, 4.50027, 66.1512, 0.0172661, -81.6556
1, 2820.00000, 120.249, -31.0829, 119.742, -151.166, 120.212, 89.2253, 0, 0, 4.50181, -54.1568, 4.48079, -174.24, 4.5003, 66.1514, 0.0172707, -81.7553
1, 2880.00000, 120.249, -31.0829, 119.742, -151.166, 120.212, 89.2253, 0, 0, 4.50181, -54.1568, 4.48079, -174.24, 4.5003, 66.1514, 0.0172708, -81.7559
1, 2940.00000, 120.249, -31.0829, 119.742, -151.166, 120.212, 89.2253, 0, 0, 4.50181, -54.1568, 4.48079, -174.24, 4.5003, 66.1514, 0.0172708, -81.7559
1, 3000.00000, 120.249, -31.0829, 119.742, -151.166, 120.212, 89.2253, 0, 0, 4.50181, -54.1568, 4.48079, -174.24, 4.5003, 66.1514, 0.0172708, -81.7559
1, 3060.00000, 120.249, -31.0829, 119.742, -151.166, 120.212, 89.2253, 0, 0, 4.50181, -54.1568, 4.48079, -174.24, 4.5003, 66.1514, 0.0172708, -81.7559
1, 3120.00000, 120.249, -31.0829, 119.742, -151.166, 120.212, 89.2253, 0, 0, 4.50181, -54.1568, 4.48079, -174.24, 4.5003, 66.1514, 0.0172708, -81.7559
1, 3180.00000, 120.249, -31.0829, 119.742, -151.166, 120.212, 89.2253, 0, 0, 4.50181, -54.1568, 4.48079, -174.24, 4.5003, 66.1514, 0.0172708, -81.7559
1, 3240.00000, 120.249, -31.0829, 119.742, -151.166, 120.212, 89.2253, 0, 0, 4.50181, -54.1568, 4.48079, -174.24, 4.5003, 66.1514, 0.0172708, -81.7559
1, 3300.00000, 120.249, -31.0829, 119.742, -151.166, 120.212, 89.2253, 0, 0, 4.50181, -54.1568, 4.48079, -174.24, 4.5003, 66.1514, 0.0172708, -81.7559
1, 3360.00000, 120.249, -31.0829, 119.742, -151.166, 120.212, 89.2253, 0, 0, 4.50181, -54.1568, 4.48079, -174.24, 4.5003, 66.1514, 0.0172708, -81.7559
1, 3420.00000, 120.249, -31.0829, 119.742, -151.166, 120.212, 89.2253, 0, 0, 4.50181, -54.1568, 4.48079, -174.24, 4.5003, 66.1514, 0.0172708, -81.7559
1, 3480.00000, 120.249, -31.0829, 119.742, -151.166, 120.212, 89.2253, 0, 0, 4.50181, -54.1568, 4.48079, -174.24, 4.5003, 66.1514, 0.0172708, -81.7559
1, 3540.00000, 120.249, -31.0829, 119.742, -151.166, 120.212, 89.2253, 0, 0, 4.50181, -54.1568, 4.48079, -174.24, 4.5003, 66.1514, 0.0172708, -81.7559
2, 0.00000, 120.249, -31.0829, 119.742, -151.166, 120.212, 89.2253, 0, 0, 4.50181, -54.1568, 4.48079, -174.24, 4.5003, 66.1514, 0.0172708, -81.7559
2, 60.00000, 119.963, -31.1088, 119.481, -151.189, 119.947, 89.1966, 0, 0, 4.61046, -54.1826, 4.58991, -174.263, 4.60979, 66.1228, 0.0180958, -80.726
2, 120.00000, 119.963, -31.1088, 119.481, -151.189, 119.947, 89.1966, 0, 0, 4.61043, -54.1827, 4.5899, -174.263, 4.60977, 66.1227, 0.0180928, -80.6622
2, 180.00000, 119.963, -31.1088, 119.481, -151.189, 119.947, 89.1966, 0, 0, 4.61043, -54.1827, 4.5899, -174.263, 4.60977, 66.1227, 0.0180928, -80.6618
2, 240.00000, 119.963, -31.1088, 119.481, -151.189, 119.947, 89.1966, 0, 0, 4.61043, -54.1827, 4.5899, -174.263, 4.60977, 66.1227, 0.0180928, -80.6618
2, 300.00000, 119.963, -31.1088, 119.481, -151.189, 119.947, 89.1966, 0, 0, 4.61043, -54.1827, 4.5899, -174.263, 4.60977, 66.1227, 0.0180928, -80.6618
2, 360.00000, 119.963, -31.1088, 119.481, -151.189, 119.947, 89.1966, 0, 0, 4.61043, -54.1827, 4.5899, -174.263, 4.60977, 66.1227, 0.0180928, -80.6618
2, 420.00000, 119.963, -31.1088, 119.481, -151.189, 119.947, 89.1966, 0, 0, 4.61043, -54.1827, 4.5899, -174.263, 4.60977, 66.1227, 0.0180928, -80.6618
2, 480.00000, 119.963, -31.1088, 119.481, -151.189, 119.947, 89.1966, 0, 0, 4.61043, -54.1827, 4.5899, -174.263, 4.60977, 66.1227, 0.0180928, -80.6618
2, 540.00000, 120.147, -30.955, 119.862, -151.177, 119.928, 89.2005, 0, 0, 4.61824, -54.0289, 4.6061, -174.252, 4.60898, 66.1266, 0.0164634, -72.4507
2, 600.00000, 120.147, -30.955, 119.862, -151.177, 119.928, 89.2005, 0, 0, 4.61827, -54.0289, 4.60615, -174.251, 4.60895, 66.1266, 0.0163992, -72.2458
2, 660.00000, 120.147, -30.955, 119.862, -151.177, 119.928, 89.2005, 0, 0, 4.61827, -54.0289, 4.60615, -174.251, 4.60895, 66.1266, 0.0163988, -72.2446
