hour,t(sec),"P1 (kW)","Q1 (kvar)","P2 (kW)","Q2 (kvar)","P3 (kW)","Q3 (kvar)","P4 (kW)","Q4 (kvar)"
0, 60.00000, 0.500048, 0.213016, 0.498765, 0.212472, 0.521438, 0.22213, 0, 0
0, 120.00000, 0.500043, 0.213017, 0.49876, 0.212471, 0.521432, 0.222129, 0, 0
0, 180.00000, 0.500043, 0.213017, 0.49876, 0.212471, 0.521432, 0.222129, 0, 0
0, 240.00000, 0.500043, 0.213017, 0.49876, 0.212471, 0.521432, 0.222129, 0, 0
0, 300.00000, 0.500043, 0.213017, 0.49876, 0.212471, 0.521432, 0.222129, 0, 0
0, 360.00000, 0.500043, 0.213017, 0.49876, 0.212471, 0.521432, 0.222129, 0, 0
0, 420.00000, 0.500043, 0.213017, 0.49876, 0.212471, 0.521432, 0.222129, 0, 0
0, 480.00000, 0.459995, 0.195961, 0.458465, 0.195307, 0.479097, 0.204097, 0, 0
0, 540.00000, 0.460002, 0.19596, 0.458471, 0.195308, 0.479104, 0.204097, 0, 0
0, 600.00000, 0.460002, 0.19596, 0.458471, 0.195308, 0.479104, 0.204097, 0, 0
0, 660.00000, 0.460002, 0.19596, 0.458471, 0.195308, 0.479104, 0.204097, 0, 0
0, 720.00000, 0.460002, 0.19596, 0.458471, 0.195308, 0.479104, 0.204097, 0, 0
0, 780.00000, 0.460002, 0.19596, 0.458471, 0.195308, 0.479104, 0.204097, 0, 0
0, 840.00000, 0.460002, 0.19596, 0.458471, 0.195308, 0.479104, 0.204097, 0, 0
0, 900.00000, 0.460002, 0.19596, 0.458471, 0.195308, 0.479104, 0.204097, 0, 0
0, 960.00000, 0.456561, 0.194489, 0.451011, 0.192129, 0.468951, 0.19977, 0, 0
0, 1020.00000, 0.45655, 0.19449, 0.451008, 0.192128, 0.468941, 0.199768, 0, 0
0, 1080.00000, 0.45655, 0.19449, 0.451008, 0.192128, 0.468941, 0.199768, 0, 0
0, 1140.00000, 0.459593, 0.19579, 0.450996, 0.192124, 0.470284, 0.200341, 0, 0
0, 1200.00000, 0.4596, 0.195789, 0.450996, 0.192123, 0.470287, 0.200342, 0, 0
0, 1260.00000, 0.4596, 0.195789, 0.450996, 0.192123, 0.470287, 0.200342, 0, 0
0, 1320.00000, 0.4596, 0.195789, 0.450996, 0.192123, 0.470287, 0.200342, 0, 0
0, 1380.00000, 0.4596, 0.195789, 0.450996, 0.192123, 0.470287, 0.200342, 0, 0
0, 1440.00000, 0.4596, 0.195789, 0.450996, 0.192123, 0.470287, 0.200342, 0, 0
0, 1500.00000, 0.4596, 0.195789, 0.450996, 0.192123, 0.470287, 0.200342, 0, 0
0, 1560.00000, 0.4596, 0.195789, 0.450996, 0.192123, 0.470287, 0.200342, 0, 0
0, 1620.00000, 0.4596, 0.195789, 0.450996, 0.192123, 0.470287, 0.200342, 0, 0
0, 1680.00000, 0.4596, 0.195789, 0.450996, 0.192123, 0.470287, 0.200342, 0, 0
0, 1740.00000, 0.4596, 0.195789, 0.450996, 0.192123, 0.470287, 0.200342, 0, 0
0, 1800.00000, 0.455312, 0.193961, 0.445495, 0.18978, 0.470564, 0.20046, 0, 0
0, 1860.00000, 0.45531, 0.193961, 0.445492, 0.189779, 0.470565, 0.20046, 0, 0
0, 1920.00000, 0.45531, 0.193961, 0.445492, 0.189779, 0.470565, 0.20046, 0, 0
0, 1980.00000, 0.45531, 0.193961, 0.445492, 0.189779, 0.470565, 0.20046, 0, 0
0, 2040.00000, 0.45531, 0.193961, 0.445492, 0.189779, 0.470565, 0.20046, 0, 0
0, 2100.00000, 0.45531, 0.193961, 0.445492, 0.189779, 0.470565, 0.20046, 0, 0
0, 2160.00000, 0.45531, 0.193961, 0.445492, 0.189779, 0.470565, 0.20046, 0, 0
0, 2220.00000, 0.45531, 0.193961, 0.445492, 0.189779, 0.470565, 0.20046, 0, 0
0, 2280.00000, 0.45531, 0.193961, 0.445492, 0.189779, 0.470565, 0.20046, 0, 0
0, 2340.00000, 0.45531, 0.193961, 0.445492, 0.189779, 0.470565, 0.20046, 0, 0
0, 2400.00000, 0.45531, 0.193961, 0.445492, 0.189779, 0.470565, 0.20046, 0, 0
0, 2460.00000, 0.45531, 0.193961, 0.445492, 0.189779, 0.470565, 0.20046, 0, 0
0, 2520.00000, 0.45531, 0.193961, 0.445492, 0.189779, 0.470565, 0.20046, 0, 0
0, 2580.00000, 0.45531, 0.193961, 0.445492, 0.189779, 0.470565, 0.20046, 0, 0
0, 2640.00000, 0.45531, 0.193961, 0.445492, 0.189779, 0.470565, 0.20046, 0, 0
0, 2700.00000, 0.45531, 0.193961, 0.445492, 0.189779, 0.470565, 0.20046, 0, 0
0, 2760.00000, 0.457562, 0.194921, 0.449357, 0.191428, 0.47031, 0.200351, 0, 0
0, 2820.00000, 0.457565, 0.194922, 0.449364, 0.191428, 0.470308, 0.20035, 0, 0
0, 2880.00000, 0.457565, 0.194922, 0.449364, 0.191428, 0.470308, 0.20035, 0, 0
0, 2940.00000, 0.457565, 0.194922, 0.449364, 0.191428, 0.470308, 0.20035, 0, 0
0, 3000.00000, 0.457565, 0.194922, 0.449364, 0.191428, 0.470308, 0.20035, 0, 0
0, 3060.00000, 0.457565, 0.194922, 0.449364, 0.191428, 0.470308, 0.20035, 0, 0
0, 3120.00000, 0.457565, 0.194922, 0.449364, 0.191428, 0.470308, 0.20035, 0, 0
0, 3180.00000, 0.457565, 0.194922, 0.449364, 0.191428, 0.470308, 0.20035, 0, 0
0, 3240.00000, 0.457565, 0.194922, 0.449364, 0.191428, 0.470308, 0.20035, 0, 0
0, 3300.00000, 0.457565, 0.194922, 0.449364, 0.191428, 0.470308, 0.20035, 0, 0
0, 3360.00000, 0.457565, 0.194922, 0.449364, 0.191428, 0.470308, 0.20035, 0, 0
0, 3420.00000, 0.457565, 0.194922, 0.449364, 0.191428, 0.470308, 0.20035, 0, 0
0, 3480.00000, 0.457565, 0.194922, 0.449364, 0.191428, 0.470308, 0.20035, 0, 0
0, 3540.00000, 0.457565, 0.194922, 0.449364, 0.191428, 0.470308, 0.20035, 0, 0
1, 0.00000, 0.457565, 0.194922, 0.449364, 0.191428, 0.470308, 0.20035, 0, 0
1, 60.00000, 0.458806, 0.195451, 0.452192, 0.192636, 0.470205, 0.200306, 0, 0
1, 120.00000, 0.458809, 0.195452, 0.452198, 0.192635, 0.470203, 0.200306, 0, 0
1, 180.00000, 0.458809, 0.195452, 0.452198, 0.192635, 0.470203, 0.200306, 0, 0
1, 240.00000, 0.458809, 0.195452, 0.452198, 0.192635, 0.470203, 0.200306, 0, 0
1, 300.00000, 0.458809, 0.195452, 0.452198, 0.192635, 0.470203, 0.200306, 0, 0
1, 360.00000, 0.458809, 0.195452, 0.452198, 0.192635, 0.470203, 0.200306, 0, 0
1, 420.00000, 0.458809, 0.195452, 0.452198, 0.192635, 0.470203, 0.200306, 0, 0
1, 480.00000, 0.458809, 0.195452, 0.452198, 0.192635, 0.470203, 0.200306, 0, 0
1, 540.00000, 0.458809, 0.195452, 0.452198, 0.192635, 0.470203, 0.200306, 0, 0
1, 600.00000, 0.458809, 0.195452, 0.452198, 0.192635, 0.470203, 0.200306, 0, 0
1, 660.00000, 0.458809, 0.195452, 0.452198, 0.192635, 0.470203, 0.200306, 0, 0
1, 720.00000, 0.458809, 0.195452, 0.452198, 0.192635, 0.470203, 0.200306, 0, 0
1, 780.00000, 0.45897, 0.195521, 0.454101, 0.193447, 0.473791, 0.201836, 0, 0
1, 840.00000, 0.458969, 0.19552, 0.454103, 0.193447, 0.473796, 0.201836, 0, 0
1, 900.00000, 0.458969, 0.19552, 0.454103, 0.193447, 0.473796, 0.201836, 0, 0
1, 960.00000, 0.458969, 0.19552, 0.454103, 0.193447, 0.473796, 0.201836, 0, 0
1, 1020.00000, 0.458969, 0.19552, 0.454103, 0.193447, 0.473796, 0.201836, 0, 0
1, 1080.00000, 0.458969, 0.19552, 0.454103, 0.193447, 0.473796, 0.201836, 0, 0
1, 1140.00000, 0.458969, 0.19552, 0.454103, 0.193447, 0.473796, 0.201836, 0, 0
1, 1200.00000, 0.458969, 0.19552, 0.454103, 0.193447, 0.473796, 0.201836, 0, 0
1, 1260.00000, 0.458969, 0.19552, 0.454103, 0.193447, 0.473796, 0.201836, 0, 0
1, 1320.00000, 0.458969, 0.19552, 0.454103, 0.193447, 0.473796, 0.201836, 0, 0
1, 1380.00000, 0.458969, 0.19552, 0.454103, 0.193447, 0.473796, 0.201836, 0, 0
1, 1440.00000, 0.458969, 0.19552, 0.454103, 0.193447, 0.473796, 0.201836, 0, 0
1, 1500.00000, 0.458969, 0.19552, 0.454103, 0.193447, 0.473796, 0.201836, 0, 0
1, 1560.00000, 0.458969, 0.19552, 0.454103, 0.193447, 0.473796, 0.201836, 0, 0
1, 1620.00000, 0.458969, 0.19552, 0.454103, 0.193447, 0.473796, 0.201836, 0, 0
1, 1680.00000, 0.458969, 0.19552, 0.454103, 0.193447, 0.473796, 0.201836, 0, 0
1, 1740.00000, 0.458969, 0.19552, 0.454103, 0.193447, 0.473796, 0.201836, 0, 0
1, 1800.00000, 0.458969, 0.19552, 0.454103, 0.193447, 0.473796, 0.201836, 0, 0
1, 1860.00000, 0.458969, 0.19552, 0.454103, 0.193447, 0.473796, 0.201836, 0, 0
1, 1920.00000, 0.458969, 0.19552, 0.454103, 0.193447, 0.473796, 0.201836, 0, 0
1, 1980.00000, 0.458969, 0.19552, 0.454103, 0.193447, 0.473796, 0.201836, 0, 0
1, 2040.00000, 0.458969, 0.19552, 0.454103, 0.193447, 0.473796, 0.201836, 0, 0
1, 2100.00000, 0.458969, 0.19552, 0.454103, 0.193447, 0.473796, 0.201836, 0, 0
1, 2160.00000, 0.458969, 0.19552, 0.454103, 0.193447, 0.473796, 0.201836, 0, 0
1, 2220.00000, 0.463289, 0.19736, 0.45972, 0.195841, 0.473519, 0.201718, 0, 0
1, 2280.00000, 0.46329, 0.197361, 0.459724, 0.195842, 0.473517, 0.201718, 0, 0
1, 2340.00000, 0.46329, 0.197361, 0.459724, 0.195842, 0.473517, 0.201718, 0, 0
1, 2400.00000, 0.46329, 0.197361, 0.459724, 0.195842, 0.473517, 0.201718, 0, 0
1, 2460.00000, 0.46329, 0.197361, 0.459724, 0.195842, 0.473517, 0.201718, 0, 0
1, 2520.00000, 0.46329, 0.197361, 0.459724, 0.195842, 0.473517, 0.201718, 0, 0
1, 2580.00000, 0.46329, 0.197361, 0.459724, 0.195842, 0.473517, 0.201718, 0, 0
1, 2640.00000, 0.46329, 0.197361, 0.459724, 0.195842, 0.473517, 0.201718, 0, 0
1, 2700.00000, 0.46329, 0.197361, 0.459724, 0.195842, 0.473517, 0.201718, 0, 0
1, 2760.00000, 0.46329, 0.197361, 0.459724, 0.195842, 0.473517, 0.201718, 0, 0
1, 2820.00000, 0.46329, 0.197361, 0.459724, 0.195842, 0.473517, 0.201718, 0, 0
1, 2880.00000, 0.46329, 0.197361, 0.459724, 0.195842, 0.473517, 0.201718, 0, 0
1, 2940.00000, 0.46329, 0.197361, 0.459724, 0.195842, 0.473517, 0.201718, 0, 0
1, 3000.00000, 0.46329, 0.197361, 0.459724, 0.195842, 0.473517, 0.201718, 0, 0
1, 3060.00000, 0.46329, 0.197361, 0.459724, 0.195842, 0.473517, 0.201718, 0, 0
1, 3120.00000, 0.46329, 0.197361, 0.459724, 0.195842, 0.473517, 0.201718, 0, 0
1, 3180.00000, 0.46329, 0.197361, 0.459724, 0.195842, 0.473517, 0.201718, 0, 0
1, 3240.00000, 0.46329, 0.197361, 0.459724, 0.195842, 0.473517, 0.201718, 0, 0
1, 3300.00000, 0.46329, 0.197361, 0.459724, 0.195842, 0.473517, 0.201718, 0, 0
1, 3360.00000, 0.46329, 0.197361, 0.459724, 0.195842, 0.473517, 0.201718, 0, 0
1, 3420.00000, 0.46329, 0.197361, 0.459724, 0.195842, 0.473517, 0.201718, 0, 0
1, 3480.00000, 0.46329, 0.197361, 0.459724, 0.195842, 0.473517, 0.201718, 0, 0
1, 3540.00000, 0.46329, 0.197361, 0.459724, 0.195842, 0.473517, 0.201718, 0, 0
2, 0.00000, 0.46329, 0.197361, 0.459724, 0.195842, 0.473517, 0.201718, 0, 0
2, 60.00000, 0.46329, 0.197361, 0.459724, 0.195842, 0.473517, 0.201718, 0, 0
2, 120.00000, 0.46329, 0.197361, 0.459724, 0.195842, 0.473517, 0.201718, 0, 0
2, 180.00000, 0.46329, 0.197361, 0.459724, 0.195842, 0.473517, 0.201718, 0, 0
2, 240.00000, 0.46329, 0.197361, 0.459724, 0.195842, 0.473517, 0.201718, 0, 0
2, 300.00000, 0.46329, 0.197361, 0.459724, 0.195842, 0.473517, 0.201718, 0, 0
2, 360.00000, 0.46329, 0.197361, 0.459724, 0.195842, 0.473517, 0.201718, 0, 0
2, 420.00000, 0.46329, 0.197361, 0.459724, 0.195842, 0.473517, 0.201718, 0, 0
2, 480.00000, 0.46329, 0.197361, 0.459724, 0.195842, 0.473517, 0.201718, 0, 0
2, 540.00000, 0.46329, 0.197361, 0.459724, 0.195842, 0.473517, 0.201718, 0, 0
2, 600.00000, 0.46329, 0.197361, 0.459724, 0.195842, 0.473517, 0.201718, 0, 0
2, 660.00000, 0.46329, 0.197361, 0.459724, 0.195842, 0.473517, 0.201718, 0, 0
2, 720.00000, 0.46329, 0.197361, 0.459724, 0.195842, 0.473517, 0.201718, 0, 0
2, 780.00000, 0.46329, 0.197361, 0.459724, 0.195842, 0.473517, 0.201718, 0, 0
2, 840.00000, 0.463676, 0.197526, 0.467379, 0.199102, 0.482536, 0.205562, 0, 0
2, 900.00000, 0.463674, 0.197524, 0.46738, 0.199103, 0.482547, 0.205564, 0, 0
2, 960.00000, 0.463674, 0.197524, 0.46738, 0.199103, 0.482547, 0.205564, 0, 0
2, 1020.00000, 0.463674, 0.197524, 0.46738, 0.199103, 0.482547, 0.205564, 0, 0
2, 1080.00000, 0.463674, 0.197524, 0.46738, 0.199103, 0.482547, 0.205564, 0, 0
2, 1140.00000, 0.463674, 0.197524, 0.46738, 0.199103, 0.482547, 0.205564, 0, 0
2, 1200.00000, 0.463674, 0.197524, 0.46738, 0.199103, 0.482547, 0.205564, 0, 0
2, 1260.00000, 0.463674, 0.197524, 0.46738, 0.199103, 0.482547, 0.205564, 0, 0
2, 1320.00000, 0.463674, 0.197524, 0.46738, 0.199103, 0.482547, 0.205564, 0, 0
2, 1380.00000, 0.463674, 0.197524, 0.46738, 0.199103, 0.482547, 0.205564, 0, 0
2, 1440.00000, 0.463674, 0.197524, 0.46738, 0.199103, 0.482547, 0.205564, 0, 0
2, 1500.00000, 0.463674, 0.197524, 0.46738, 0.199103, 0.482547, 0.205564, 0, 0
2, 1560.00000, 0.463674, 0.197524, 0.46738, 0.199103, 0.482547, 0.205564, 0, 0
2, 1620.00000, 0.463674, 0.197524, 0.46738, 0.199103, 0.482547, 0.205564, 0, 0
2, 1680.00000, 0.463674, 0.197524, 0.46738, 0.199103, 0.482547, 0.205564, 0, 0
2, 1740.00000, 0.463674, 0.197524, 0.46738, 0.199103, 0.482547, 0.205564, 0, 0
2, 1800.00000, 0.463674, 0.197524, 0.46738, 0.199103, 0.482547, 0.205564, 0, 0
2, 1860.00000, 0.463674, 0.197524, 0.46738, 0.199103, 0.482547, 0.205564, 0, 0
2, 1920.00000, 0.463674, 0.197524, 0.46738, 0.199103, 0.482547, 0.205564, 0, 0
2, 1980.00000, 0.463674, 0.197524, 0.46738, 0.199103, 0.482547, 0.205564, 0, 0
2, 2040.00000, 0.463674, 0.197524, 0.46738, 0.199103, 0.482547, 0.205564, 0, 0
2, 2100.00000, 0.463674, 0.197524, 0.46738, 0.199103, 0.482547, 0.205564, 0, 0
2, 2160.00000, 0.463674, 0.197524, 0.46738, 0.199103, 0.482547, 0.205564, 0, 0
2, 2220.00000, 0.463674, 0.197524, 0.46738, 0.199103, 0.482547, 0.205564, 0, 0
2, 2280.00000, 0.463674, 0.197524, 0.46738, 0.199103, 0.482547, 0.205564, 0, 0
2, 2340.00000, 0.463674, 0.197524, 0.46738, 0.199103, 0.482547, 0.205564, 0, 0
2, 2400.00000, 0.46747, 0.199145, 0.467352, 0.199091, 0.484651, 0.206463, 0, 0
2, 2460.00000, 0.467477, 0.199144, 0.46735, 0.19909, 0.48466, 0.206464, 0, 0
2, 2520.00000, 0.467477, 0.199144, 0.46735, 0.19909, 0.48466, 0.206464, 0, 0
2, 2580.00000, 0.467477, 0.199144, 0.46735, 0.19909, 0.48466, 0.206464, 0, 0
2, 2640.00000, 0.467477, 0.199144, 0.46735, 0.19909, 0.48466, 0.206464, 0, 0
2, 2700.00000, 0.46716, 0.199009, 0.46288, 0.197187, 0.478392, 0.203791, 0, 0
2, 2760.00000, 0.467161, 0.19901, 0.46288, 0.197186, 0.478384, 0.203791, 0, 0
2, 2820.00000, 0.467161, 0.19901, 0.46288, 0.197186, 0.478383, 0.203791, 0, 0
2, 2880.00000, 0.467161, 0.19901, 0.46288, 0.197186, 0.478383, 0.203791, 0, 0
2, 2940.00000, 0.467161, 0.19901, 0.46288, 0.197186, 0.478383, 0.203791, 0, 0
2, 3000.00000, 0.467161, 0.19901, 0.46288, 0.197186, 0.478383, 0.203791, 0, 0
2, 3060.00000, 0.467304, 0.199072, 0.464655, 0.197941, 0.481979, 0.205326, 0, 0
2, 3120.00000, 0.467302, 0.19907, 0.464657, 0.197943, 0.481992, 0.205328, 0, 0
2, 3180.00000, 0.467302, 0.19907, 0.464657, 0.197943, 0.481992, 0.205328, 0, 0
2, 3240.00000, 0.467302, 0.19907, 0.464657, 0.197943, 0.481992, 0.205328, 0, 0
2, 3300.00000, 0.467302, 0.19907, 0.464657, 0.197943, 0.481992, 0.205328, 0, 0
2, 3360.00000, 0.467302, 0.19907, 0.464657, 0.197943, 0.481992, 0.205328, 0, 0
2, 3420.00000, 0.467302, 0.19907, 0.464657, 0.197943, 0.481992, 0.205328, 0, 0
2, 3480.00000, 0.467302, 0.19907, 0.464657, 0.197943, 0.481992, 0.205328, 0, 0
2, 3540.00000, 0.467302, 0.19907, 0.464657, 0.197943, 0.481992, 0.205328, 0, 0
3, 0.00000, 0.467302, 0.19907, 0.464657, 0.197943, 0.481992, 0.205328, 0, 0
3, 60.00000, 0.467302, 0.19907, 0.464657, 0.197943, 0.481992, 0.205328, 0, 0
3, 120.00000, 0.467302, 0.19907, 0.464657, 0.197943, 0.481992, 0.205328, 0, 0
3, 180.00000, 0.467302, 0.19907, 0.464657, 0.197943, 0.481992, 0.205328, 0, 0
3, 240.00000, 0.467302, 0.19907, 0.464657, 0.197943, 0.481992, 0.205328, 0, 0
3, 300.00000, 0.467302, 0.19907, 0.464657, 0.197943, 0.481992, 0.205328, 0, 0
3, 360.00000, 0.467302, 0.19907, 0.464657, 0.197943, 0.481992, 0.205328, 0, 0
3, 420.00000, 0.467302, 0.19907, 0.464657, 0.197943, 0.481992, 0.205328, 0, 0
3, 480.00000, 0.467302, 0.19907, 0.464657, 0.197943, 0.481992, 0.205328, 0, 0
3, 540.00000, 0.467302, 0.19907, 0.464657, 0.197943, 0.481992, 0.205328, 0, 0
3, 600.00000, 0.467302, 0.19907, 0.464657, 0.197943, 0.481992, 0.205328, 0, 0
3, 660.00000, 0.467302, 0.19907, 0.464657, 0.197943, 0.481992, 0.205328, 0, 0
3, 720.00000, 0.467302, 0.19907, 0.464657, 0.197943, 0.481992, 0.205328, 0, 0
3, 780.00000, 0.467302, 0.19907, 0.464657, 0.197943, 0.481992, 0.205328, 0, 0
3, 840.00000, 0.467302, 0.19907, 0.464657, 0.197943, 0.481992, 0.205328, 0, 0
3, 900.00000, 0.467302, 0.19907, 0.464657, 0.197943, 0.481992, 0.205328, 0, 0
3, 960.00000, 0.467302, 0.19907, 0.464657, 0.197943, 0.481992, 0.205328, 0, 0
3, 1020.00000, 0.467302, 0.19907, 0.464657, 0.197943, 0.481992, 0.205328, 0, 0
3, 1080.00000, 0.467302, 0.19907, 0.464657, 0.197943, 0.481992, 0.205328, 0, 0
3, 1140.00000, 0.467302, 0.19907, 0.464657, 0.197943, 0.481992, 0.205328, 0, 0
3, 1200.00000, 0.467302, 0.19907, 0.464657, 0.197943, 0.481992, 0.205328, 0, 0
3, 1260.00000, 0.467302, 0.19907, 0.464657, 0.197943, 0.481992, 0.205328, 0, 0
3, 1320.00000, 0.467302, 0.19907, 0.464657, 0.197943, 0.481992, 0.205328, 0, 0
3, 1380.00000, 0.467302, 0.19907, 0.464657, 0.197943, 0.481992, 0.205328, 0, 0
3, 1440.00000, 0.467302, 0.19907, 0.464657, 0.197943, 0.481992, 0.205328, 0, 0
3, 1500.00000, 0.467302, 0.19907, 0.464657, 0.197943, 0.481992, 0.205328, 0, 0
3, 1560.00000, 0.467302, 0.19907, 0.464657, 0.197943, 0.481992, 0.205328, 0, 0
3, 1620.00000, 0.467302, 0.19907, 0.464657, 0.197943, 0.481992, 0.205328, 0, 0
3, 1680.00000, 0.467302, 0.19907, 0.464657, 0.197943, 0.481992, 0.205328, 0, 0
3, 1740.00000, 0.467302, 0.19907, 0.464657, 0.197943, 0.481992, 0.205328, 0, 0
3, 1800.00000, 0.467302, 0.19907, 0.464657, 0.197943, 0.481992, 0.205328, 0, 0
3, 1860.00000, 0.467302, 0.19907, 0.464657, 0.197943, 0.481992, 0.205328, 0, 0
3, 1920.00000, 0.467302, 0.19907, 0.464657, 0.197943, 0.481992, 0.205328, 0, 0
3, 1980.00000, 0.467302, 0.19907, 0.464657, 0.197943, 0.481992, 0.205328, 0, 0
3, 2040.00000, 0.467302, 0.19907, 0.464657, 0.197943, 0.481992, 0.205328, 0, 0
3, 2100.00000, 0.467302, 0.19907, 0.464657, 0.197943, 0.481992, 0.205328, 0, 0
3, 2160.00000, 0.467302, 0.19907, 0.464657, 0.197943, 0.481992, 0.205328, 0, 0
3, 2220.00000, 0.467302, 0.19907, 0.464657, 0.197943, 0.481992, 0.205328, 0, 0
3, 2280.00000, 0.467302, 0.19907, 0.464657, 0.197943, 0.481992, 0.205328, 0, 0
3, 2340.00000, 0.467302, 0.19907, 0.464657, 0.197943, 0.481992, 0.205328, 0, 0
3, 2400.00000, 0.467302, 0.19907, 0.464657, 0.197943, 0.481992, 0.205328, 0, 0
3, 2460.00000, 0.467302, 0.19907, 0.464657, 0.197943, 0.481992, 0.205328, 0, 0
3, 2520.00000, 0.467302, 0.19907, 0.464657, 0.197943, 0.481992, 0.205328, 0, 0
3, 2580.00000, 0.467302, 0.19907, 0.464657, 0.197943, 0.481992, 0.205328, 0, 0
3, 2640.00000, 0.467302, 0.19907, 0.464657, 0.197943, 0.481992, 0.205328, 0, 0
3, 2700.00000, 0.467302, 0.19907, 0.464657, 0.197943, 0.481992, 0.205328, 0, 0
3, 2760.00000, 0.467302, 0.19907, 0.464657, 0.197943, 0.481992, 0.205328, 0, 0
3, 2820.00000, 0.467302, 0.19907, 0.464657, 0.197943, 0.481992, 0.205328, 0, 0
3, 2880.00000, 0.467302, 0.19907, 0.464657, 0.197943, 0.481992, 0.205328, 0, 0
3, 2940.00000, 0.467302, 0.19907, 0.464657, 0.197943, 0.481992, 0.205328, 0, 0
3, 3000.00000, 0.467302, 0.19907, 0.464657, 0.197943, 0.481992, 0.205328, 0, 0
3, 3060.00000, 0.467302, 0.19907, 0.464657, 0.197943, 0.481992, 0.205328, 0, 0
3, 3120.00000, 0.467302, 0.19907, 0.464657, 0.197943, 0.481992, 0.205328, 0, 0
3, 3180.00000, 0.455537, 0.194057, 0.453041, 0.192994, 0.469957, 0.2002, 0, 0
3, 3240.00000, 0.455535, 0.194057, 0.45304, 0.192994, 0.469954, 0.2002, 0, 0
3, 3300.00000, 0.455535, 0.194057, 0.45304, 0.192994, 0.469954, 0.2002, 0, 0
3, 3360.00000, 0.455535, 0.194057, 0.45304, 0.192994, 0.469954, 0.2002, 0, 0
3, 3420.00000, 0.455535, 0.194057, 0.45304, 0.192994, 0.469954, 0.2002, 0, 0
3, 3480.00000, 0.455535, 0.194057, 0.45304, 0.192994, 0.469954, 0.2002, 0, 0
3, 3540.00000, 0.455535, 0.194057, 0.45304, 0.192994, 0.469954, 0.2002, 0, 0
4, 0.00000, 0.455139, 0.193888, 0.443923, 0.189109, 0.459674, 0.195821, 0, 0
4, 60.00000, 0.455139, 0.193889, 0.443918, 0.189108, 0.459667, 0.195817, 0, 0
4, 120.00000, 0.455139, 0.193889, 0.443918, 0.189108, 0.459667, 0.195817, 0, 0
4, 180.00000, 0.455139, 0.193889, 0.443918, 0.189108, 0.459667, 0.195817, 0, 0
4, 240.00000, 0.455139, 0.193889, 0.443918, 0.189108, 0.459667, 0.195817, 0, 0
4, 300.00000, 0.455139, 0.193889, 0.443918, 0.189108, 0.459667, 0.195817, 0, 0
4, 360.00000, 0.455139, 0.193889, 0.443918, 0.189108, 0.459667, 0.195817, 0, 0
4, 420.00000, 0.455139, 0.193889, 0.443918, 0.189108, 0.459667, 0.195817, 0, 0
4, 480.00000, 0.455139, 0.193889, 0.443918, 0.189108, 0.459667, 0.195817, 0, 0
4, 540.00000, 0.455139, 0.193889, 0.443918, 0.189108, 0.459667, 0.195817, 0, 0
4, 600.00000, 0.455139, 0.193889, 0.443918, 0.189108, 0.459667, 0.195817, 0, 0
4, 660.00000, 0.455139, 0.193889, 0.443918, 0.189108, 0.459667, 0.195817, 0, 0
4, 720.00000, 0.455139, 0.193889, 0.443918, 0.189108, 0.459667, 0.195817, 0, 0
4, 780.00000, 0.455139, 0.193889, 0.443918, 0.189108, 0.459667, 0.195817, 0, 0
