hour,t(sec),V1,VAngle1,V2,VAngle2,V3,VAngle3,V4,VAngle4,I1,IAngle1,I2,IAngle2,I3,IAngle3,I4,IAngle4
0, 60.00000, 121.268, -31.5085, 125.186, -151.353, 123.642, 87.151, 0, 0, 6.2181, -54.5823, 6.02361, -174.427, 6.09872, 64.0772, 0.321557, 148.638
0, 120.00000, 121.268, -31.5087, 125.203, -151.354, 123.648, 87.1446, 0, 0, 6.21811, -54.5825, 6.02276, -174.427, 6.09843, 64.0708, 0.322894, 148.695
0, 180.00000, 121.268, -31.5088, 125.219, -151.354, 123.653, 87.1389, 0, 0, 6.21812, -54.5826, 6.02201, -174.428, 6.09817, 64.0651, 0.324097, 148.745
0, 240.00000, 121.268, -31.5089, 125.233, -151.355, 123.658, 87.1337, 0, 0, 6.21813, -54.5828, 6.02132, -174.429, 6.09794, 64.0599, 0.325179, 148.791
0, 300.00000, 121.268, -31.5091, 125.246, -151.355, 123.662, 87.1291, 0, 0, 6.21814, -54.5829, 6.0207, -174.429, 6.09773, 64.0552, 0.326156, 148.832
0, 360.00000, 121.267, -31.5092, 125.257, -151.356, 123.666, 87.1249, 0, 0, 6.21815, -54.583, 6.02015, -174.43, 6.09754, 64.051, 0.327036, 148.869
0, 420.00000, 121.267, -31.5093, 125.268, -151.356, 123.669, 87.1211, 0, 0, 6.21815, -54.5831, 6.01964, -174.43, 6.09737, 64.0472, 0.327831, 148.903
0, 480.00000, 121.793, -31.3904, 125.848, -151.225, 124.2, 87.2453, 0, 0, 5.38645, -54.4643, 5.21295, -174.299, 5.28206, 64.1715, 0.285367, 149.066
0, 540.00000, 121.793, -31.3905, 125.857, -151.225, 124.203, 87.2423, 0, 0, 5.38645, -54.4644, 5.21258, -174.299, 5.28194, 64.1684, 0.28594, 149.093
0, 600.00000, 121.793, -31.3906, 125.865, -151.226, 124.206, 87.2395, 0, 0, 5.38646, -54.4645, 5.21226, -174.299, 5.28183, 64.1656, 0.286454, 149.117
0, 660.00000, 121.793, -31.3907, 125.872, -151.226, 124.208, 87.237, 0, 0, 5.38646, -54.4645, 5.21196, -174.3, 5.28174, 64.1631, 0.286917, 149.139
0, 720.00000, 121.793, -31.3907, 125.878, -151.226, 124.21, 87.2347, 0, 0, 5.38647, -54.4646, 5.2117, -174.3, 5.28165, 64.1609, 0.287333, 149.159
0, 780.00000, 121.793, -31.3908, 125.884, -151.226, 124.212, 87.2327, 0, 0, 5.38647, -54.4647, 5.21146, -174.3, 5.28157, 64.1588, 0.287708, 149.177
0, 840.00000, 121.793, -31.3908, 125.889, -151.227, 124.213, 87.2309, 0, 0, 5.38647, -54.4647, 5.21124, -174.3, 5.2815, 64.157, 0.288046, 149.193
0, 900.00000, 121.793, -31.3909, 125.893, -151.227, 124.215, 87.2292, 0, 0, 5.38648, -54.4648, 5.21105, -174.301, 5.28144, 64.1553, 0.288349, 149.207
0, 960.00000, 121.79, -31.3883, 125.699, -151.369, 123.874, 87.2108, 0, 0, 5.38662, -54.4622, 5.21912, -174.443, 5.29596, 64.1369, 0.2756, 153.452
0, 1020.00000, 121.79, -31.3884, 125.702, -151.369, 123.875, 87.2095, 0, 0, 5.38662, -54.4622, 5.21897, -174.443, 5.29591, 64.1356, 0.275843, 153.46
0, 1080.00000, 121.789, -31.3884, 125.705, -151.369, 123.876, 87.2083, 0, 0, 5.38662, -54.4623, 5.21884, -174.443, 5.29587, 64.1344, 0.276062, 153.468
0, 1140.00000, 121.789, -31.3884, 125.708, -151.369, 123.877, 87.2073, 0, 0, 5.38663, -54.4623, 5.21871, -174.443, 5.29583, 64.1334, 0.27626, 153.474
0, 1200.00000, 121.789, -31.3884, 125.711, -151.369, 123.878, 87.2063, 0, 0, 5.38663, -54.4623, 5.2186, -174.443, 5.29579, 64.1324, 0.276438, 153.48
0, 1260.00000, 121.789, -31.3885, 125.713, -151.369, 123.879, 87.2054, 0, 0, 5.38663, -54.4624, 5.2185, -174.443, 5.29576, 64.1315, 0.276599, 153.486
0, 1320.00000, 121.789, -31.3885, 125.716, -151.369, 123.88, 87.2047, 0, 0, 5.38663, -54.4624, 5.21841, -174.443, 5.29573, 64.1308, 0.276743, 153.49
0, 1380.00000, 121.789, -31.3885, 125.717, -151.37, 123.88, 87.204, 0, 0, 5.38663, -54.4624, 5.21833, -174.443, 5.29571, 64.1301, 0.276873, 153.495
0, 1440.00000, 121.789, -31.3885, 125.719, -151.37, 123.881, 87.2033, 0, 0, 5.38663, -54.4624, 5.21826, -174.444, 5.29568, 64.1294, 0.27699, 153.499
0, 1500.00000, 121.789, -31.3885, 125.721, -151.37, 123.881, 87.2028, 0, 0, 5.38663, -54.4624, 5.21819, -174.444, 5.29566, 64.1289, 0.277096, 153.502
0, 1560.00000, 121.789, -31.3885, 125.722, -151.37, 123.882, 87.2023, 0, 0, 5.38663, -54.4625, 5.21813, -174.444, 5.29564, 64.1283, 0.277191, 153.506
0, 1620.00000, 121.789, -31.3886, 125.723, -151.37, 123.882, 87.2018, 0, 0, 5.38663, -54.4625, 5.21808, -174.444, 5.29562, 64.1279, 0.277276, 153.508
0, 1680.00000, 121.789, -31.3886, 125.725, -151.37, 123.883, 87.2014, 0, 0, 5.38664, -54.4625, 5.21803, -174.444, 5.29561, 64.1275, 0.277353, 153.511
0, 1740.00000, 121.789, -31.3886, 125.726, -151.37, 123.883, 87.201, 0, 0, 5.38664, -54.4625, 5.21799, -174.444, 5.29559, 64.1271, 0.277422, 153.513
0, 1800.00000, 121.69, -31.5192, 125.379, -151.4, 123.892, 87.2011, 0, 0, 5.39104, -54.5931, 5.23243, -174.474, 5.29519, 64.1272, 0.26248, 149.449
0, 1860.00000, 121.69, -31.5192, 125.38, -151.4, 123.893, 87.2008, 0, 0, 5.39104, -54.5931, 5.23239, -174.474, 5.29518, 64.1269, 0.262534, 149.451
0, 1920.00000, 121.69, -31.5192, 125.38, -151.4, 123.893, 87.2005, 0, 0, 5.39104, -54.5931, 5.23236, -174.474, 5.29517, 64.1266, 0.262582, 149.454
0, 1980.00000, 121.69, -31.5192, 125.381, -151.401, 123.893, 87.2003, 0, 0, 5.39105, -54.5931, 5.23233, -174.474, 5.29516, 64.1264, 0.262626, 149.456
0, 2040.00000, 121.69, -31.5192, 125.381, -151.401, 123.893, 87.2001, 0, 0, 5.39105, -54.5931, 5.23231, -174.474, 5.29515, 64.1261, 0.262666, 149.458
0, 2100.00000, 121.69, -31.5192, 125.382, -151.401, 123.893, 87.1999, 0, 0, 5.39105, -54.5931, 5.23229, -174.474, 5.29515, 64.1259, 0.262701, 149.46
0, 2160.00000, 121.69, -31.5192, 125.382, -151.401, 123.894, 87.1997, 0, 0, 5.39105, -54.5931, 5.23227, -174.475, 5.29514, 64.1258, 0.262733, 149.461
0, 2220.00000, 121.69, -31.5192, 125.383, -151.401, 123.894, 87.1995, 0, 0, 5.39105, -54.5931, 5.23225, -174.475, 5.29513, 64.1256, 0.262762, 149.463
0, 2280.00000, 121.69, -31.5192, 125.383, -151.401, 123.894, 87.1994, 0, 0, 5.39105, -54.5931, 5.23223, -174.475, 5.29513, 64.1255, 0.262788, 149.464
0, 2340.00000, 121.69, -31.5192, 125.384, -151.401, 123.894, 87.1992, 0, 0, 5.39105, -54.5931, 5.23222, -174.475, 5.29512, 64.1253, 0.262811, 149.465
0, 2400.00000, 121.69, -31.5192, 125.384, -151.401, 123.894, 87.1991, 0, 0, 5.39105, -54.5931, 5.23221, -174.475, 5.29512, 64.1252, 0.262832, 149.466
0, 2460.00000, 121.69, -31.5192, 125.384, -151.401, 123.894, 87.199, 0, 0, 5.39105, -54.5931, 5.23219, -174.475, 5.29511, 64.1251, 0.262851, 149.467
0, 2520.00000, 121.69, -31.5192, 125.384, -151.401, 123.894, 87.1989, 0, 0, 5.39105, -54.5931, 5.23218, -174.475, 5.29511, 64.125, 0.262868, 149.468
0, 2580.00000, 121.69, -31.5192, 125.385, -151.401, 123.894, 87.1989, 0, 0, 5.39105, -54.5931, 5.23217, -174.475, 5.29511, 64.1249, 0.262883, 149.469
0, 2640.00000, 121.69, -31.5192, 125.385, -151.401, 123.894, 87.1988, 0, 0, 5.39105, -54.5931, 5.23216, -174.475, 5.2951, 64.1249, 0.262897, 149.47
0, 2700.00000, 121.69, -31.5192, 125.385, -151.401, 123.895, 87.1987, 0, 0, 5.39105, -54.5931, 5.23216, -174.475, 5.2951, 64.1248, 0.262909, 149.47
0, 2760.00000, 122.323, -31.552, 125.38, -151.4, 124.281, 87.4325, 0, 0, 5.36313, -54.6259, 5.23235, -174.474, 5.27863, 64.3586, 0.216143, 146.872
0, 2820.00000, 122.323, -31.552, 125.381, -151.4, 124.281, 87.4324, 0, 0, 5.36313, -54.6259, 5.23234, -174.474, 5.27862, 64.3585, 0.216153, 146.872
0, 2880.00000, 122.323, -31.552, 125.381, -151.4, 124.281, 87.4324, 0, 0, 5.36313, -54.6259, 5.23234, -174.474, 5.27862, 64.3585, 0.216162, 146.873
0, 2940.00000, 122.323, -31.552, 125.381, -151.4, 124.281, 87.4323, 0, 0, 5.36313, -54.6259, 5.23233, -174.474, 5.27862, 64.3584, 0.21617, 146.874
0, 3000.00000, 122.323, -31.552, 125.381, -151.4, 124.281, 87.4323, 0, 0, 5.36313, -54.6259, 5.23233, -174.474, 5.27862, 64.3584, 0.216177, 146.874
0, 3060.00000, 122.323, -31.552, 125.381, -151.4, 124.281, 87.4323, 0, 0, 5.36313, -54.6259, 5.23233, -174.474, 5.27862, 64.3583, 0.216184, 146.875
0, 3120.00000, 122.323, -31.552, 125.381, -151.4, 124.281, 87.4322, 0, 0, 5.36313, -54.6259, 5.23232, -174.474, 5.27862, 64.3583, 0.216189, 146.875
0, 3180.00000, 122.323, -31.552, 125.381, -151.4, 124.282, 87.4322, 0, 0, 5.36313, -54.6259, 5.23232, -174.474, 5.27861, 64.3583, 0.216195, 146.875
0, 3240.00000, 122.323, -31.552, 125.381, -151.4, 124.282, 87.4322, 0, 0, 5.36313, -54.6259, 5.23232, -174.474, 5.27861, 64.3583, 0.216199, 146.876
0, 3300.00000, 122.323, -31.552, 125.381, -151.4, 124.282, 87.4322, 0, 0, 5.36313, -54.626, 5.23231, -174.474, 5.27861, 64.3582, 0.216204, 146.876
0, 3360.00000, 122.323, -31.552, 125.381, -151.4, 124.282, 87.4321, 0, 0, 5.36313, -54.626, 5.23231, -174.474, 5.27861, 64.3582, 0.216207, 146.876
0, 3420.00000, 122.323, -31.552, 125.381, -151.4, 124.282, 87.4321, 0, 0, 5.36313, -54.626, 5.23231, -174.474, 5.27861, 64.3582, 0.216211, 146.877
0, 3480.00000, 122.323, -31.552, 125.381, -151.4, 124.282, 87.4321, 0, 0, 5.36313, -54.626, 5.23231, -174.474, 5.27861, 64.3582, 0.216214, 146.877
0, 3540.00000, 122.323, -31.552, 125.382, -151.4, 124.282, 87.4321, 0, 0, 5.36313, -54.626, 5.2323, -174.474, 5.27861, 64.3582, 0.216217, 146.877
1, 0.00000, 122.323, -31.552, 125.382, -151.4, 124.282, 87.4321, 0, 0, 5.36313, -54.626, 5.2323, -174.474, 5.27861, 64.3581, 0.216219, 146.877
1, 60.00000, 122.806, -31.5537, 125.377, -151.398, 124.53, 87.6159, 0, 0, 5.34202, -54.6276, 5.23248, -174.472, 5.26809, 64.542, 0.181172, 145.2
1, 120.00000, 122.806, -31.5537, 125.377, -151.398, 124.53, 87.6159, 0, 0, 5.34202, -54.6276, 5.23248, -174.472, 5.26809, 64.542, 0.181174, 145.2
1, 180.00000, 122.806, -31.5537, 125.377, -151.398, 124.53, 87.6159, 0, 0, 5.34202, -54.6276, 5.23248, -174.472, 5.26809, 64.542, 0.181175, 145.2
1, 240.00000, 122.806, -31.5537, 125.377, -151.398, 124.53, 87.6159, 0, 0, 5.34202, -54.6276, 5.23248, -174.472, 5.26809, 64.542, 0.181177, 145.2
1, 300.00000, 122.806, -31.5537, 125.377, -151.398, 124.53, 87.6159, 0, 0, 5.34202, -54.6276, 5.23248, -174.472, 5.26809, 64.542, 0.181179, 145.201
1, 360.00000, 122.806, -31.5537, 125.377, -151.398, 124.53, 87.6159, 0, 0, 5.34202, -54.6276, 5.23248, -174.472, 5.26809, 64.5419, 0.18118, 145.201
1, 420.00000, 122.806, -31.5537, 125.377, -151.398, 124.53, 87.6159, 0, 0, 5.34202, -54.6276, 5.23248, -174.472, 5.26809, 64.5419, 0.181181, 145.201
1, 480.00000, 122.806, -31.5537, 125.377, -151.398, 124.53, 87.6159, 0, 0, 5.34202, -54.6276, 5.23248, -174.472, 5.26809, 64.5419, 0.181182, 145.201
1, 540.00000, 122.806, -31.5537, 125.377, -151.398, 124.53, 87.6158, 0, 0, 5.34202, -54.6276, 5.23248, -174.472, 5.26809, 64.5419, 0.181183, 145.201
1, 600.00000, 122.806, -31.5537, 125.377, -151.398, 124.53, 87.6158, 0, 0, 5.34202, -54.6276, 5.23248, -174.472, 5.26809, 64.5419, 0.181184, 145.201
1, 660.00000, 122.806, -31.5537, 125.377, -151.398, 124.53, 87.6158, 0, 0, 5.34202, -54.6276, 5.23247, -174.472, 5.26809, 64.5419, 0.181185, 145.201
1, 720.00000, 122.806, -31.5537, 125.377, -151.398, 124.53, 87.6158, 0, 0, 5.34202, -54.6276, 5.23247, -174.472, 5.26809, 64.5419, 0.181186, 145.201
1, 780.00000, 123.092, -31.5249, 125.375, -151.395, 124.626, 87.7386, 0, 0, 5.32961, -54.5988, 5.23256, -174.469, 5.26403, 64.6647, 0.160083, 145.41
1, 840.00000, 123.092, -31.5249, 125.375, -151.395, 124.626, 87.7386, 0, 0, 5.32961, -54.5988, 5.23256, -174.469, 5.26402, 64.6647, 0.160083, 145.41
1, 900.00000, 123.092, -31.5249, 125.375, -151.395, 124.626, 87.7386, 0, 0, 5.32961, -54.5988, 5.23256, -174.469, 5.26402, 64.6647, 0.160084, 145.41
1, 960.00000, 123.092, -31.5249, 125.375, -151.395, 124.626, 87.7386, 0, 0, 5.32961, -54.5988, 5.23256, -174.469, 5.26402, 64.6647, 0.160084, 145.41
1, 1020.00000, 123.092, -31.5249, 125.375, -151.395, 124.626, 87.7386, 0, 0, 5.32961, -54.5988, 5.23256, -174.469, 5.26402, 64.6647, 0.160085, 145.41
1, 1080.00000, 123.092, -31.5249, 125.375, -151.395, 124.626, 87.7386, 0, 0, 5.32961, -54.5988, 5.23256, -174.469, 5.26402, 64.6647, 0.160085, 145.41
1, 1140.00000, 123.092, -31.5249, 125.375, -151.395, 124.626, 87.7386, 0, 0, 5.32961, -54.5988, 5.23256, -174.469, 5.26402, 64.6647, 0.160085, 145.41
1, 1200.00000, 123.092, -31.5249, 125.375, -151.395, 124.626, 87.7386, 0, 0, 5.32961, -54.5988, 5.23256, -174.469, 5.26402, 64.6647, 0.160086, 145.41
1, 1260.00000, 123.092, -31.5249, 125.375, -151.395, 124.626, 87.7386, 0, 0, 5.32961, -54.5988, 5.23256, -174.469, 5.26402, 64.6647, 0.160086, 145.41
1, 1320.00000, 123.092, -31.5249, 125.375, -151.395, 124.626, 87.7386, 0, 0, 5.32961, -54.5988, 5.23256, -174.469, 5.26402, 64.6647, 0.160086, 145.41
1, 1380.00000, 123.092, -31.5249, 125.375, -151.395, 124.626, 87.7386, 0, 0, 5.32961, -54.5988, 5.23256, -174.469, 5.26402, 64.6647, 0.160086, 145.41
1, 1440.00000, 123.092, -31.5249, 125.375, -151.395, 124.626, 87.7386, 0, 0, 5.32961, -54.5988, 5.23256, -174.469, 5.26402, 64.6647, 0.160086, 145.41
1, 1500.00000, 123.092, -31.5249, 125.375, -151.395, 124.626, 87.7386, 0, 0, 5.32961, -54.5988, 5.23256, -174.469, 5.26402, 64.6647, 0.160087, 145.41
1, 1560.00000, 123.092, -31.5249, 125.375, -151.395, 124.626, 87.7386, 0, 0, 5.32961, -54.5988, 5.23256, -174.469, 5.26402, 64.6647, 0.160087, 145.41
1, 1620.00000, 123.092, -31.5249, 125.375, -151.395, 124.626, 87.7386, 0, 0, 5.32961, -54.5988, 5.23256, -174.469, 5.26402, 64.6647, 0.160087, 145.41
1, 1680.00000, 123.092, -31.5249, 125.375, -151.395, 124.626, 87.7386, 0, 0, 5.32961, -54.5988, 5.23256, -174.469, 5.26402, 64.6647, 0.160087, 145.41
1, 1740.00000, 123.092, -31.5249, 125.375, -151.395, 124.626, 87.7386, 0, 0, 5.32961, -54.5988, 5.23256, -174.469, 5.26402, 64.6647, 0.160087, 145.41
1, 1800.00000, 123.092, -31.5249, 125.375, -151.395, 124.626, 87.7386, 0, 0, 5.32961, -54.5988, 5.23256, -174.469, 5.26402, 64.6647, 0.160087, 145.41
1, 1860.00000, 123.092, -31.5249, 125.375, -151.395, 124.626, 87.7386, 0, 0, 5.32961, -54.5988, 5.23256, -174.469, 5.26402, 64.6647, 0.160087, 145.41
1, 1920.00000, 123.092, -31.5249, 125.375, -151.395, 124.626, 87.7386, 0, 0, 5.32961, -54.5988, 5.23256, -174.469, 5.26402, 64.6647, 0.160087, 145.41
1, 1980.00000, 123.092, -31.5249, 125.375, -151.395, 124.626, 87.7386, 0, 0, 5.32961, -54.5988, 5.23256, -174.469, 5.26402, 64.6647, 0.160088, 145.41
1, 2040.00000, 123.092, -31.5249, 125.375, -151.395, 124.626, 87.7386, 0, 0, 5.32961, -54.5988, 5.23256, -174.469, 5.26402, 64.6647, 0.160088, 145.41
1, 2100.00000, 123.092, -31.5249, 125.375, -151.395, 124.626, 87.7386, 0, 0, 5.32961, -54.5988, 5.23256, -174.469, 5.26402, 64.6647, 0.160088, 145.41
1, 2160.00000, 123.092, -31.5249, 125.375, -151.395, 124.626, 87.7386, 0, 0, 5.32961, -54.5988, 5.23256, -174.469, 5.26402, 64.6647, 0.160088, 145.41
1, 2220.00000, 123.197, -31.3942, 125.723, -151.365, 124.614, 87.7386, 0, 0, 5.3251, -54.4681, 5.21811, -174.438, 5.26451, 64.6646, 0.17398, 152.225
1, 2280.00000, 123.197, -31.3942, 125.723, -151.365, 124.614, 87.7386, 0, 0, 5.3251, -54.4681, 5.21811, -174.438, 5.26451, 64.6646, 0.173981, 152.225
1, 2340.00000, 123.197, -31.3942, 125.723, -151.365, 124.614, 87.7386, 0, 0, 5.3251, -54.4681, 5.21811, -174.438, 5.26451, 64.6646, 0.173981, 152.225
1, 2400.00000, 123.197, -31.3942, 125.723, -151.365, 124.614, 87.7386, 0, 0, 5.3251, -54.4681, 5.21811, -174.438, 5.26451, 64.6646, 0.173981, 152.225
1, 2460.00000, 123.197, -31.3942, 125.723, -151.365, 124.614, 87.7386, 0, 0, 5.3251, -54.4681, 5.21811, -174.438, 5.26451, 64.6646, 0.173982, 152.225
1, 2520.00000, 123.197, -31.3942, 125.723, -151.365, 124.614, 87.7386, 0, 0, 5.3251, -54.4681, 5.21811, -174.438, 5.26451, 64.6646, 0.173982, 152.225
1, 2580.00000, 123.197, -31.3942, 125.723, -151.365, 124.614, 87.7386, 0, 0, 5.3251, -54.4681, 5.21811, -174.438, 5.26451, 64.6646, 0.173982, 152.225
1, 2640.00000, 123.197, -31.3942, 125.723, -151.365, 124.614, 87.7386, 0, 0, 5.3251, -54.4681, 5.21811, -174.438, 5.26451, 64.6646, 0.173982, 152.225
1, 2700.00000, 123.197, -31.3942, 125.723, -151.365, 124.614, 87.7386, 0, 0, 5.3251, -54.4681, 5.21811, -174.438, 5.26451, 64.6646, 0.173982, 152.225
1, 2760.00000, 123.197, -31.3942, 125.723, -151.365, 124.614, 87.7386, 0, 0, 5.3251, -54.4681, 5.21811, -174.438, 5.26451, 64.6646, 0.173982, 152.225
1, 2820.00000, 123.197, -31.3942, 125.723, -151.365, 124.614, 87.7386, 0, 0, 5.3251, -54.4681, 5.21811, -174.438, 5.26451, 64.6646, 0.173982, 152.225
1, 2880.00000, 123.197, -31.3942, 125.723, -151.365, 124.614, 87.7386, 0, 0, 5.3251, -54.4681, 5.21811, -174.438, 5.26451, 64.6646, 0.173982, 152.225
1, 2940.00000, 123.197, -31.3942, 125.723, -151.365, 124.614, 87.7386, 0, 0, 5.3251, -54.4681, 5.21811, -174.438, 5.26451, 64.6646, 0.173982, 152.225
1, 3000.00000, 123.197, -31.3942, 125.723, -151.365, 124.614, 87.7386, 0, 0, 5.3251, -54.4681, 5.21811, -174.438, 5.26451, 64.6646, 0.173982, 152.225
1, 3060.00000, 123.197, -31.3942, 125.723, -151.365, 124.614, 87.7386, 0, 0, 5.3251, -54.4681, 5.21811, -174.438, 5.26451, 64.6646, 0.173982, 152.225
1, 3120.00000, 123.197, -31.3942, 125.723, -151.365, 124.614, 87.7386, 0, 0, 5.3251, -54.4681, 5.21811, -174.438, 5.26451, 64.6646, 0.173982, 152.225
1, 3180.00000, 123.197, -31.3942, 125.723, -151.365, 124.614, 87.7386, 0, 0, 5.3251, -54.4681, 5.21811, -174.438, 5.26451, 64.6646, 0.173982, 152.225
1, 3240.00000, 123.197, -31.3942, 125.723, -151.365, 124.614, 87.7386, 0, 0, 5.3251, -54.4681, 5.21811, -174.438, 5.26451, 64.6646, 0.173982, 152.225
1, 3300.00000, 123.197, -31.3942, 125.723, -151.365, 124.614, 87.7386, 0, 0, 5.3251, -54.4681, 5.21811, -174.438, 5.26451, 64.6646, 0.173982, 152.225
1, 3360.00000, 123.197, -31.3942, 125.723, -151.365, 124.614, 87.7386, 0, 0, 5.3251, -54.4681, 5.21811, -174.438, 5.26451, 64.6646, 0.173982, 152.225
1, 3420.00000, 123.197, -31.3942, 125.723, -151.365, 124.614, 87.7386, 0, 0, 5.3251, -54.4681, 5.21811, -174.438, 5.26451, 64.6646, 0.173982, 152.225
1, 3480.00000, 123.197, -31.3942, 125.723, -151.365, 124.614, 87.7386, 0, 0, 5.3251, -54.4681, 5.21811, -174.438, 5.26451, 64.6646, 0.173982, 152.225
1, 3540.00000, 123.197, -31.3942, 125.723, -151.365, 124.614, 87.7386, 0, 0, 5.3251, -54.4681, 5.21811, -174.438, 5.26451, 64.6646, 0.173982, 152.225
2, 0.00000, 123.197, -31.3942, 125.723, -151.365, 124.614, 87.7386, 0, 0, 5.3251, -54.4681, 5.21811, -174.438, 5.26451, 64.6646, 0.173982, 152.225
2, 60.00000, 123.197, -31.3942, 125.723, -151.365, 124.614, 87.7386, 0, 0, 5.3251, -54.4681, 5.21811, -174.438, 5.26451, 64.6646, 0.173982, 152.225
2, 120.00000, 123.197, -31.3942, 125.723, -151.365, 124.614, 87.7386, 0, 0, 5.3251, -54.4681, 5.21811, -174.438, 5.26451, 64.6646, 0.173982, 152.225
2, 180.00000, 123.197, -31.3942, 125.723, -151.365, 124.614, 87.7386, 0, 0, 5.3251, -54.4681, 5.21811, -174.438, 5.26451, 64.6646, 0.173982, 152.225
2, 240.00000, 123.197, -31.3942, 125.723, -151.365, 124.614, 87.7386, 0, 0, 5.3251, -54.4681, 5.21811, -174.438, 5.26451, 64.6646, 0.173982, 152.225
2, 300.00000, 123.197, -31.3942, 125.723, -151.365, 124.614, 87.7386, 0, 0, 5.3251, -54.4681, 5.21811, -174.438, 5.26451, 64.6646, 0.173982, 152.225
2, 360.00000, 123.197, -31.3942, 125.723, -151.365, 124.614, 87.7386, 0, 0, 5.3251, -54.4681, 5.21811, -174.438, 5.26451, 64.6646, 0.173982, 152.225
2, 420.00000, 123.197, -31.3942, 125.723, -151.365, 124.614, 87.7386, 0, 0, 5.3251, -54.4681, 5.21811, -174.438, 5.26451, 64.6646, 0.173982, 152.225
2, 480.00000, 123.197, -31.3942, 125.723, -151.365, 124.614, 87.7386, 0, 0, 5.3251, -54.4681, 5.21811, -174.438, 5.26451, 64.6646, 0.173982, 152.225
2, 540.00000, 123.197, -31.3942, 125.723, -151.365, 124.614, 87.7386, 0, 0, 5.3251, -54.4681, 5.21811, -174.438, 5.26451, 64.6646, 0.173982, 152.225
2, 600.00000, 123.197, -31.3942, 125.723, -151.365, 124.614, 87.7386, 0, 0, 5.3251, -54.4681, 5.21811, -174.438, 5.26451, 64.6646, 0.173982, 152.225
2, 660.00000, 123.197, -31.3942, 125.723, -151.365, 124.614, 87.7386, 0, 0, 5.3251, -54.4681, 5.21811, -174.438, 5.26451, 64.6646, 0.173982, 152.225
2, 720.00000, 123.197, -31.3942, 125.723, -151.365, 124.614, 87.7386, 0, 0, 5.3251, -54.4681, 5.21811, -174.438, 5.26451, 64.6646, 0.173982, 152.225
2, 780.00000, 123.197, -31.3942, 125.723, -151.365, 124.614, 87.7386, 0, 0, 5.3251, -54.4681, 5.21811, -174.438, 5.26451, 64.6646, 0.173982, 152.225
