hour,t(sec),V1,VAngle1,V2,VAngle2,V3,VAngle3,V4,VAngle4,I1,IAngle1,I2,IAngle2,I3,IAngle3,I4,IAngle4
0, 60.00000, 116.055, -31.7976, 115.906, -150.866, 118.286, 88.7576, 0, 0, 4.7403, -54.8713, 4.73352, -173.94, 4.84172, 65.6839, 0.0383341, -111.828
0, 120.00000, 116.055, -31.7976, 115.906, -150.866, 118.286, 88.7576, 0, 0, 4.74027, -54.8716, 4.73348, -173.94, 4.84168, 65.6837, 0.0383281, -111.835
0, 180.00000, 116.055, -31.7976, 115.906, -150.866, 118.286, 88.7576, 0, 0, 4.74027, -54.8716, 4.73348, -173.94, 4.84168, 65.6837, 0.038328, -111.835
0, 240.00000, 116.055, -31.7976, 115.906, -150.866, 118.286, 88.7576, 0, 0, 4.74027, -54.8716, 4.73348, -173.94, 4.84168, 65.6837, 0.038328, -111.835
0, 300.00000, 116.055, -31.7976, 115.906, -150.866, 118.286, 88.7576, 0, 0, 4.74027, -54.8716, 4.73348, -173.94, 4.84168, 65.6837, 0.038328, -111.835
0, 360.00000, 116.055, -31.7976, 115.906, -150.866, 118.286, 88.7576, 0, 0, 4.74027, -54.8716, 4.73348, -173.94, 4.84168, 65.6837, 0.038328, -111.835
0, 420.00000, 116.055, -31.7976, 115.906, -150.866, 118.286, 88.7576, 0, 0, 4.74027, -54.8716, 4.73348, -173.94, 4.84168, 65.6837, 0.038328, -111.835
0, 480.00000, 117.014, -31.704, 116.819, -150.775, 119.197, 88.8667, 0, 0, 4.58171, -54.7783, 4.57323, -173.849, 4.67677, 65.7926, 0.0351528, -112.112
0, 540.00000, 117.014, -31.704, 116.819, -150.775, 119.197, 88.8667, 0, 0, 4.58175, -54.7779, 4.57327, -173.849, 4.67681, 65.7928, 0.0351638, -112.12
0, 600.00000, 117.014, -31.704, 116.819, -150.775, 119.197, 88.8667, 0, 0, 4.58175, -54.7779, 4.57327, -173.849, 4.67681, 65.7928, 0.0351638, -112.12
0, 660.00000, 117.014, -31.704, 116.819, -150.775, 119.197, 88.8667, 0, 0, 4.58175, -54.7779, 4.57327, -173.849, 4.67681, 65.7928, 0.0351638, -112.12
0, 720.00000, 117.014, -31.704, 116.819, -150.775, 119.197, 88.8667, 0, 0, 4.58175, -54.7779, 4.57327, -173.849, 4.67681, 65.7928, 0.0351638, -112.12
0, 780.00000, 117.014, -31.704, 116.819, -150.775, 119.197, 88.8667, 0, 0, 4.58175, -54.7779, 4.57327, -173.849, 4.67681, 65.7928, 0.0351638, -112.12
0, 840.00000, 117.014, -31.704, 116.819, -150.775, 119.197, 88.8667, 0, 0, 4.58175, -54.7779, 4.57327, -173.849, 4.67681, 65.7928, 0.0351638, -112.12
0, 900.00000, 117.014, -31.704, 116.819, -150.775, 119.197, 88.8667, 0, 0, 4.58175, -54.7779, 4.57327, -173.849, 4.67681, 65.7928, 0.0351638, -112.12
0, 960.00000, 116.632, -31.7194, 115.48, -151.2, 117.643, 89.083, 0, 0, 4.56518, -54.7928, 4.515, -174.274, 4.60922, 66.0092, 0.0333468, -114.026
0, 1020.00000, 116.632, -31.7194, 115.48, -151.2, 117.643, 89.0829, 0, 0, 4.56511, -54.7934, 4.51496, -174.274, 4.60914, 66.009, 0.0332956, -113.965
0, 1080.00000, 116.632, -31.7194, 115.48, -151.2, 117.643, 89.0829, 0, 0, 4.56511, -54.7934, 4.51496, -174.274, 4.60914, 66.009, 0.0332954, -113.965
0, 1140.00000, 116.944, -31.6862, 115.48, -151.199, 117.757, 89.2225, 0, 0, 4.57866, -54.7605, 4.51494, -174.273, 4.6141, 66.1485, 0.0335612, -117.029
0, 1200.00000, 116.944, -31.6862, 115.48, -151.199, 117.757, 89.2225, 0, 0, 4.5787, -54.7601, 4.51494, -174.273, 4.61412, 66.1486, 0.0335889, -117.1
0, 1260.00000, 116.944, -31.6862, 115.48, -151.199, 117.757, 89.2225, 0, 0, 4.5787, -54.7601, 4.51494, -174.273, 4.61412, 66.1486, 0.033589, -117.1
0, 1320.00000, 116.944, -31.6862, 115.48, -151.199, 117.757, 89.2225, 0, 0, 4.5787, -54.7601, 4.51494, -174.273, 4.61412, 66.1486, 0.033589, -117.1
0, 1380.00000, 116.944, -31.6862, 115.48, -151.199, 117.757, 89.2225, 0, 0, 4.5787, -54.7601, 4.51494, -174.273, 4.61412, 66.1486, 0.033589, -117.1
0, 1440.00000, 116.944, -31.6862, 115.48, -151.199, 117.757, 89.2225, 0, 0, 4.5787, -54.7601, 4.51494, -174.273, 4.61412, 66.1486, 0.033589, -117.1
0, 1500.00000, 116.944, -31.6862, 115.48, -151.199, 117.757, 89.2225, 0, 0, 4.5787, -54.7601, 4.51494, -174.273, 4.61412, 66.1486, 0.033589, -117.1
0, 1560.00000, 116.944, -31.6862, 115.48, -151.199, 117.757, 89.2225, 0, 0, 4.5787, -54.7601, 4.51494, -174.273, 4.61412, 66.1486, 0.033589, -117.1
0, 1620.00000, 116.944, -31.6862, 115.48, -151.199, 117.757, 89.2225, 0, 0, 4.5787, -54.7601, 4.51494, -174.273, 4.61412, 66.1486, 0.033589, -117.1
0, 1680.00000, 116.944, -31.6862, 115.48, -151.199, 117.757, 89.2225, 0, 0, 4.5787, -54.7601, 4.51494, -174.273, 4.61412, 66.1486, 0.033589, -117.1
0, 1740.00000, 116.944, -31.6862, 115.48, -151.199, 117.757, 89.2225, 0, 0, 4.5787, -54.7601, 4.51494, -174.273, 4.61412, 66.1486, 0.033589, -117.1
0, 1800.00000, 116.194, -31.9796, 114.598, -151.018, 117.806, 89.2072, 0, 0, 4.54606, -55.0534, 4.47657, -174.092, 4.61625, 66.1331, 0.0393329, -118.956
0, 1860.00000, 116.194, -31.9796, 114.598, -151.019, 117.806, 89.2072, 0, 0, 4.54604, -55.0535, 4.47653, -174.092, 4.61625, 66.1332, 0.0393561, -118.948
0, 1920.00000, 116.194, -31.9796, 114.598, -151.019, 117.806, 89.2072, 0, 0, 4.54604, -55.0535, 4.47653, -174.092, 4.61625, 66.1332, 0.0393562, -118.947
0, 1980.00000, 116.194, -31.9796, 114.598, -151.019, 117.806, 89.2072, 0, 0, 4.54604, -55.0535, 4.47653, -174.092, 4.61625, 66.1332, 0.0393562, -118.947
0, 2040.00000, 116.194, -31.9796, 114.598, -151.019, 117.806, 89.2072, 0, 0, 4.54604, -55.0535, 4.47653, -174.092, 4.61625, 66.1332, 0.0393562, -118.947
0, 2100.00000, 116.194, -31.9796, 114.598, -151.019, 117.806, 89.2072, 0, 0, 4.54604, -55.0535, 4.47653, -174.092, 4.61625, 66.1332, 0.0393562, -118.947
0, 2160.00000, 116.194, -31.9796, 114.598, -151.019, 117.806, 89.2072, 0, 0, 4.54604, -55.0535, 4.47653, -174.092, 4.61625, 66.1332, 0.0393562, -118.947
0, 2220.00000, 116.194, -31.9796, 114.598, -151.019, 117.806, 89.2072, 0, 0, 4.54604, -55.0535, 4.47653, -174.092, 4.61625, 66.1332, 0.0393562, -118.947
0, 2280.00000, 116.194, -31.9796, 114.598, -151.019, 117.806, 89.2072, 0, 0, 4.54604, -55.0535, 4.47653, -174.092, 4.61625, 66.1332, 0.0393562, -118.947
0, 2340.00000, 116.194, -31.9796, 114.598, -151.019, 117.806, 89.2072, 0, 0, 4.54604, -55.0535, 4.47653, -174.092, 4.61625, 66.1332, 0.0393562, -118.947
0, 2400.00000, 116.194, -31.9796, 114.598, -151.019, 117.806, 89.2072, 0, 0, 4.54604, -55.0535, 4.47653, -174.092, 4.61625, 66.1332, 0.0393562, -118.947
0, 2460.00000, 116.194, -31.9796, 114.598, -151.019, 117.806, 89.2072, 0, 0, 4.54604, -55.0535, 4.47653, -174.092, 4.61625, 66.1332, 0.0393562, -118.947
0, 2520.00000, 116.194, -31.9796, 114.598, -151.019, 117.806, 89.2072, 0, 0, 4.54604, -55.0535, 4.47653, -174.092, 4.61625, 66.1332, 0.0393562, -118.947
0, 2580.00000, 116.194, -31.9796, 114.598, -151.019, 117.806, 89.2072, 0, 0, 4.54604, -55.0535, 4.47653, -174.092, 4.61625, 66.1332, 0.0393562, -118.947
0, 2640.00000, 116.194, -31.9796, 114.598, -151.019, 117.806, 89.2072, 0, 0, 4.54604, -55.0535, 4.47653, -174.092, 4.61625, 66.1332, 0.0393562, -118.947
0, 2700.00000, 116.194, -31.9796, 114.598, -151.019, 117.806, 89.2072, 0, 0, 4.54604, -55.0535, 4.47653, -174.092, 4.61625, 66.1332, 0.0393562, -118.947
0, 2760.00000, 116.343, -31.8281, 114.942, -151.003, 117.793, 89.2116, 0, 0, 4.5525, -54.9022, 4.49151, -174.077, 4.6157, 66.1377, 0.037227, -117.641
0, 2820.00000, 116.343, -31.8281, 114.942, -151.003, 117.793, 89.2116, 0, 0, 4.55252, -54.902, 4.49155, -174.077, 4.61569, 66.1377, 0.0371698, -117.65
0, 2880.00000, 116.343, -31.8281, 114.942, -151.003, 117.793, 89.2116, 0, 0, 4.55252, -54.902, 4.49155, -174.077, 4.61569, 66.1377, 0.0371695, -117.65
0, 2940.00000, 116.343, -31.8281, 114.942, -151.003, 117.793, 89.2116, 0, 0, 4.55252, -54.902, 4.49155, -174.077, 4.61569, 66.1377, 0.0371695, -117.65
0, 3000.00000, 116.343, -31.8281, 114.942, -151.003, 117.793, 89.2116, 0, 0, 4.55252, -54.902, 4.49155, -174.077, 4.61569, 66.1377, 0.0371695, -117.65
0, 3060.00000, 116.343, -31.8281, 114.942, -151.003, 117.793, 89.2116, 0, 0, 4.55252, -54.902, 4.49155, -174.077, 4.61569, 66.1377, 0.0371695, -117.65
0, 3120.00000, 116.343, -31.8281, 114.942, -151.003, 117.793, 89.2116, 0, 0, 4.55252, -54.902, 4.49155, -174.077, 4.61569, 66.1377, 0.0371695, -117.65
0, 3180.00000, 116.343, -31.8281, 114.942, -151.003, 117.793, 89.2116, 0, 0, 4.55252, -54.902, 4.49155, -174.077, 4.61569, 66.1377, 0.0371695, -117.65
0, 3240.00000, 116.343, -31.8281, 114.942, -151.003, 117.793, 89.2116, 0, 0, 4.55252, -54.902, 4.49155, -174.077, 4.61569, 66.1377, 0.0371695, -117.65
0, 3300.00000, 116.343, -31.8281, 114.942, -151.003, 117.793, 89.2116, 0, 0, 4.55252, -54.902, 4.49155, -174.077, 4.61569, 66.1377, 0.0371695, -117.65
0, 3360.00000, 116.343, -31.8281, 114.942, -151.003, 117.793, 89.2116, 0, 0, 4.55252, -54.902, 4.49155, -174.077, 4.61569, 66.1377, 0.0371695, -117.65
0, 3420.00000, 116.343, -31.8281, 114.942, -151.003, 117.793, 89.2116, 0, 0, 4.55252, -54.902, 4.49155, -174.077, 4.61569, 66.1377, 0.0371695, -117.65
0, 3480.00000, 116.343, -31.8281, 114.942, -151.003, 117.793, 89.2116, 0, 0, 4.55252, -54.902, 4.49155, -174.077, 4.61569, 66.1377, 0.0371695, -117.65
0, 3540.00000, 116.343, -31.8281, 114.942, -151.003, 117.793, 89.2116, 0, 0, 4.55252, -54.902, 4.49155, -174.077, 4.61569, 66.1377, 0.0371695, -117.65
1, 0.00000, 116.343, -31.8281, 114.942, -151.003, 117.793, 89.2116, 0, 0, 4.55252, -54.902, 4.49155, -174.077, 4.61569, 66.1377, 0.0371695, -117.65
1, 60.00000, 116.445, -31.6931, 115.237, -150.976, 117.788, 89.2144, 0, 0, 4.55698, -54.7671, 4.50433, -174.051, 4.61545, 66.1405, 0.0356161, -116.306
1, 120.00000, 116.445, -31.6931, 115.237, -150.976, 117.788, 89.2144, 0, 0, 4.557, -54.7671, 4.50437, -174.05, 4.61544, 66.1405, 0.0355701, -116.3
1, 180.00000, 116.445, -31.6931, 115.237, -150.976, 117.788, 89.2144, 0, 0, 4.557, -54.7671, 4.50437, -174.05, 4.61544, 66.1405, 0.0355699, -116.3
1, 240.00000, 116.445, -31.6931, 115.237, -150.976, 117.788, 89.2144, 0, 0, 4.557, -54.7671, 4.50437, -174.05, 4.61544, 66.1405, 0.0355699, -116.3
1, 300.00000, 116.445, -31.6931, 115.237, -150.976, 117.788, 89.2144, 0, 0, 4.557, -54.7671, 4.50437, -174.05, 4.61544, 66.1405, 0.0355699, -116.3
1, 360.00000, 116.445, -31.6931, 115.237, -150.976, 117.788, 89.2144, 0, 0, 4.557, -54.7671, 4.50437, -174.05, 4.61544, 66.1405, 0.0355699, -116.3
1, 420.00000, 116.445, -31.6931, 115.237, -150.976, 117.788, 89.2144, 0, 0, 4.557, -54.7671, 4.50437, -174.05, 4.61544, 66.1405, 0.0355699, -116.3
1, 480.00000, 116.445, -31.6931, 115.237, -150.976, 117.788, 89.2144, 0, 0, 4.557, -54.7671, 4.50437, -174.05, 4.61544, 66.1405, 0.0355699, -116.3
1, 540.00000, 116.445, -31.6931, 115.237, -150.976, 117.788, 89.2144, 0, 0, 4.557, -54.7671, 4.50437, -174.05, 4.61544, 66.1405, 0.0355699, -116.3
1, 600.00000, 116.445, -31.6931, 115.237, -150.976, 117.788, 89.2144, 0, 0, 4.557, -54.7671, 4.50437, -174.05, 4.61544, 66.1405, 0.0355699, -116.3
1, 660.00000, 116.445, -31.6931, 115.237, -150.976, 117.788, 89.2144, 0, 0, 4.557, -54.7671, 4.50437, -174.05, 4.61544, 66.1405, 0.0355699, -116.3
1, 720.00000, 116.445, -31.6931, 115.237, -150.976, 117.788, 89.2144, 0, 0, 4.557, -54.7671, 4.50437, -174.05, 4.61544, 66.1405, 0.0355699, -116.3
1, 780.00000, 116.476, -31.7001, 115.549, -150.782, 118.297, 89.1832, 0, 0, 4.55832, -54.774, 4.51797, -173.856, 4.63758, 66.1091, 0.0364558, -115.056
1, 840.00000, 116.476, -31.7001, 115.549, -150.782, 118.297, 89.1832, 0, 0, 4.55831, -54.774, 4.51798, -173.855, 4.63762, 66.1093, 0.0364864, -115.013
1, 900.00000, 116.476, -31.7001, 115.549, -150.782, 118.297, 89.1832, 0, 0, 4.55831, -54.774, 4.51798, -173.855, 4.63762, 66.1093, 0.0364866, -115.012
1, 960.00000, 116.476, -31.7001, 115.549, -150.782, 118.297, 89.1832, 0, 0, 4.55831, -54.774, 4.51798, -173.855, 4.63762, 66.1093, 0.0364866, -115.012
1, 1020.00000, 116.476, -31.7001, 115.549, -150.782, 118.297, 89.1832, 0, 0, 4.55831, -54.774, 4.51798, -173.855, 4.63762, 66.1093, 0.0364866, -115.012
1, 1080.00000, 116.476, -31.7001, 115.549, -150.782, 118.297, 89.1832, 0, 0, 4.55831, -54.774, 4.51798, -173.855, 4.63762, 66.1093, 0.0364866, -115.012
1, 1140.00000, 116.476, -31.7001, 115.549, -150.782, 118.297, 89.1832, 0, 0, 4.55831, -54.774, 4.51798, -173.855, 4.63762, 66.1093, 0.0364866, -115.012
1, 1200.00000, 116.476, -31.7001, 115.549, -150.782, 118.297, 89.1832, 0, 0, 4.55831, -54.774, 4.51798, -173.855, 4.63762, 66.1093, 0.0364866, -115.012
1, 1260.00000, 116.476, -31.7001, 115.549, -150.782, 118.297, 89.1832, 0, 0, 4.55831, -54.774, 4.51798, -173.855, 4.63762, 66.1093, 0.0364866, -115.012
1, 1320.00000, 116.476, -31.7001, 115.549, -150.782, 118.297, 89.1832, 0, 0, 4.55831, -54.774, 4.51798, -173.855, 4.63762, 66.1093, 0.0364866, -115.012
1, 1380.00000, 116.476, -31.7001, 115.549, -150.782, 118.297, 89.1832, 0, 0, 4.55831, -54.774, 4.51798, -173.855, 4.63762, 66.1093, 0.0364866, -115.012
1, 1440.00000, 116.476, -31.7001, 115.549, -150.782, 118.297, 89.1832, 0, 0, 4.55831, -54.774, 4.51798, -173.855, 4.63762, 66.1093, 0.0364866, -115.012
1, 1500.00000, 116.476, -31.7001, 115.549, -150.782, 118.297, 89.1832, 0, 0, 4.55831, -54.774, 4.51798, -173.855, 4.63762, 66.1093, 0.0364866, -115.012
1, 1560.00000, 116.476, -31.7001, 115.549, -150.782, 118.297, 89.1832, 0, 0, 4.55831, -54.774, 4.51798, -173.855, 4.63762, 66.1093, 0.0364866, -115.012
1, 1620.00000, 116.476, -31.7001, 115.549, -150.782, 118.297, 89.1832, 0, 0, 4.55831, -54.774, 4.51798, -173.855, 4.63762, 66.1093, 0.0364866, -115.012
1, 1680.00000, 116.476, -31.7001, 115.549, -150.782, 118.297, 89.1832, 0, 0, 4.55831, -54.774, 4.51798, -173.855, 4.63762, 66.1093, 0.0364866, -115.012
1, 1740.00000, 116.476, -31.7001, 115.549, -150.782, 118.297, 89.1832, 0, 0, 4.55831, -54.774, 4.51798, -173.855, 4.63762, 66.1093, 0.0364866, -115.012
1, 1800.00000, 116.476, -31.7001, 115.549, -150.782, 118.297, 89.1832, 0, 0, 4.55831, -54.774, 4.51798, -173.855, 4.63762, 66.1093, 0.0364866, -115.012
1, 1860.00000, 116.476, -31.7001, 115.549, -150.782, 118.297, 89.1832, 0, 0, 4.55831, -54.774, 4.51798, -173.855, 4.63762, 66.1093, 0.0364866, -115.012
1, 1920.00000, 116.476, -31.7001, 115.549, -150.782, 118.297, 89.1832, 0, 0, 4.55831, -54.774, 4.51798, -173.855, 4.63762, 66.1093, 0.0364866, -115.012
1, 1980.00000, 116.476, -31.7001, 115.549, -150.782, 118.297, 89.1832, 0, 0, 4.55831, -54.774, 4.51798, -173.855, 4.63762, 66.1093, 0.0364866, -115.012
1, 2040.00000, 116.476, -31.7001, 115.549, -150.782, 118.297, 89.1832, 0, 0, 4.55831, -54.774, 4.51798, -173.855, 4.63762, 66.1093, 0.0364866, -115.012
1, 2100.00000, 116.476, -31.7001, 115.549, -150.782, 118.297, 89.1832, 0, 0, 4.55831, -54.774, 4.51798, -173.855, 4.63762, 66.1093, 0.0364866, -115.012
1, 2160.00000, 116.476, -31.7001, 115.549, -150.782, 118.297, 89.1832, 0, 0, 4.55831, -54.774, 4.51798, -173.855, 4.63762, 66.1093, 0.0364866, -115.012
1, 2220.00000, 117.228, -31.4056, 116.439, -150.96, 118.248, 89.198, 0, 0, 4.59107, -54.4796, 4.5567, -174.034, 4.6355, 66.1242, 0.03075, -112.165
1, 2280.00000, 117.228, -31.4056, 116.439, -150.96, 118.248, 89.198, 0, 0, 4.59107, -54.4796, 4.55674, -174.034, 4.63549, 66.1241, 0.0307131, -112.141
1, 2340.00000, 117.228, -31.4056, 116.439, -150.96, 118.248, 89.198, 0, 0, 4.59107, -54.4796, 4.55674, -174.034, 4.63549, 66.1241, 0.0307129, -112.141
1, 2400.00000, 117.228, -31.4056, 116.439, -150.96, 118.248, 89.198, 0, 0, 4.59107, -54.4796, 4.55674, -174.034, 4.63549, 66.1241, 0.0307129, -112.141
1, 2460.00000, 117.228, -31.4056, 116.439, -150.96, 118.248, 89.198, 0, 0, 4.59107, -54.4796, 4.55674, -174.034, 4.63549, 66.1241, 0.0307129, -112.141
1, 2520.00000, 117.228, -31.4056, 116.439, -150.96, 118.248, 89.198, 0, 0, 4.59107, -54.4796, 4.55674, -174.034, 4.63549, 66.1241, 0.0307129, -112.141
1, 2580.00000, 117.228, -31.4056, 116.439, -150.96, 118.248, 89.198, 0, 0, 4.59107, -54.4796, 4.55674, -174.034, 4.63549, 66.1241, 0.0307129, -112.141
1, 2640.00000, 117.228, -31.4056, 116.439, -150.96, 118.248, 89.198, 0, 0, 4.59107, -54.4796, 4.55674, -174.034, 4.63549, 66.1241, 0.0307129, -112.141
1, 2700.00000, 117.228, -31.4056, 116.439, -150.96, 118.248, 89.198, 0, 0, 4.59107, -54.4796, 4.55674, -174.034, 4.63549, 66.1241, 0.0307129, -112.141
1, 2760.00000, 117.228, -31.4056, 116.439, -150.96, 118.248, 89.198, 0, 0, 4.59107, -54.4796, 4.55674, -174.034, 4.63549, 66.1241, 0.0307129, -112.141
1, 2820.00000, 117.228, -31.4056, 116.439, -150.96, 118.248, 89.198, 0, 0, 4.59107, -54.4796, 4.55674, -174.034, 4.63549, 66.1241, 0.0307129, -112.141
1, 2880.00000, 117.228, -31.4056, 116.439, -150.96, 118.248, 89.198, 0, 0, 4.59107, -54.4796, 4.55674, -174.034, 4.63549, 66.1241, 0.0307129, -112.141
1, 2940.00000, 117.228, -31.4056, 116.439, -150.96, 118.248, 89.198, 0, 0, 4.59107, -54.4796, 4.55674, -174.034, 4.63549, 66.1241, 0.0307129, -112.141
1, 3000.00000, 117.228, -31.4056, 116.439, -150.96, 118.248, 89.198, 0, 0, 4.59107, -54.4796, 4.55674, -174.034, 4.63549, 66.1241, 0.0307129, -112.141
1, 3060.00000, 117.228, -31.4056, 116.439, -150.96, 118.248, 89.198, 0, 0, 4.59107, -54.4796, 4.55674, -174.034, 4.63549, 66.1241, 0.0307129, -112.141
1, 3120.00000, 117.228, -31.4056, 116.439, -150.96, 118.248, 89.198, 0, 0, 4.59107, -54.4796, 4.55674, -174.034, 4.63549, 66.1241, 0.0307129, -112.141
1, 3180.00000, 117.228, -31.4056, 116.439, -150.96, 118.248, 89.198, 0, 0, 4.59107, -54.4796, 4.55674, -174.034, 4.63549, 66.1241, 0.0307129, -112.141
1, 3240.00000, 117.228, -31.4056, 116.439, -150.96, 118.248, 89.198, 0, 0, 4.59107, -54.4796, 4.55674, -174.034, 4.63549, 66.1241, 0.0307129, -112.141
1, 3300.00000, 117.228, -31.4056, 116.439, -150.96, 118.248, 89.198, 0, 0, 4.59107, -54.4796, 4.55674, -174.034, 4.63549, 66.1241, 0.0307129, -112.141
1, 3360.00000, 117.228, -31.4056, 116.439, -150.96, 118.248, 89.198, 0, 0, 4.59107, -54.4796, 4.55674, -174.034, 4.63549, 66.1241, 0.0307129, -112.141
1, 3420.00000, 117.228, -31.4056, 116.439, -150.96, 118.248, 89.198, 0, 0, 4.59107, -54.4796, 4.55674, -174.034, 4.63549, 66.1241, 0.0307129, -112.141
1, 3480.00000, 117.228, -31.4056, 116.439, -150.96, 118.248, 89.198, 0, 0, 4.59107, -54.4796, 4.55674, -174.034, 4.63549, 66.1241, 0.0307129, -112.141
1, 3540.00000, 117.228, -31.4056, 116.439, -150.96, 118.248, 89.198, 0, 0, 4.59107, -54.4796, 4.55674, -174.034, 4.63549, 66.1241, 0.0307129, -112.141
2, 0.00000, 117.228, -31.4056, 116.439, -150.96, 118.248, 89.198, 0, 0, 4.59107, -54.4796, 4.55674, -174.034, 4.63549, 66.1241, 0.0307129, -112.141
2, 60.00000, 117.228, -31.4056, 116.439, -150.96, 118.248, 89.198, 0, 0, 4.59107, -54.4796, 4.55674, -174.034, 4.63549, 66.1241, 0.0307129, -112.141
2, 120.00000, 117.228, -31.4056, 116.439, -150.96, 118.248, 89.198, 0, 0, 4.59107, -54.4796, 4.55674, -174.034, 4.63549, 66.1241, 0.0307129, -112.141
2, 180.00000, 117.228, -31.4056, 116.439, -150.96, 118.248, 89.198, 0, 0, 4.59107, -54.4796, 4.55674, -174.034, 4.63549, 66.1241, 0.0307129, -112.141
2, 240.00000, 117.228, -31.4056, 116.439, -150.96, 118.248, 89.198, 0, 0, 4.59107, -54.4796, 4.55674, -174.034, 4.63549, 66.1241, 0.0307129, -112.141
2, 300.00000, 117.228, -31.4056, 116.439, -150.96, 118.248, 89.198, 0, 0, 4.59107, -54.4796, 4.55674, -174.034, 4.63549, 66.1241, 0.0307129, -112.141
2, 360.00000, 117.228, -31.4056, 116.439, -150.96, 118.248, 89.198, 0, 0, 4.59107, -54.4796, 4.55674, -174.034, 4.63549, 66.1241, 0.0307129, -112.141
2, 420.00000, 117.228, -31.4056, 116.439, -150.96, 118.248, 89.198, 0, 0, 4.59107, -54.4796, 4.55674, -174.034, 4.63549, 66.1241, 0.0307129, -112.141
2, 480.00000, 117.228, -31.4056, 116.439, -150.96, 118.248, 89.198, 0, 0, 4.59107, -54.4796, 4.55674, -174.034, 4.63549, 66.1241, 0.0307129, -112.141
2, 540.00000, 117.228, -31.4056, 116.439, -150.96, 118.248, 89.198, 0, 0, 4.59107, -54.4796, 4.55674, -174.034, 4.63549, 66.1241, 0.0307129, -112.141
2, 600.00000, 117.228, -31.4056, 116.439, -150.96, 118.248, 89.198, 0, 0, 4.59107, -54.4796, 4.55674, -174.034, 4.63549, 66.1241, 0.0307129, -112.141
2, 660.00000, 117.228, -31.4056, 116.439, -150.96, 118.248, 89.198, 0, 0, 4.59107, -54.4796, 4.55674, -174.034, 4.63549, 66.1241, 0.0307129, -112.141
2, 720.00000, 117.228, -31.4056, 116.439, -150.96, 118.248, 89.198, 0, 0, 4.59107, -54.4796, 4.55674, -174.034, 4.63549, 66.1241, 0.0307129, -112.141
