hour,t(sec),V1,VAngle1,V2,VAngle2,V3,VAngle3,V4,VAngle4,I1,IAngle1,I2,IAngle2,I3,IAngle3,I4,IAngle4
0, 60.00000, 117.327, -31.7857, 117.288, -150.619, 119.796, 88.9123, 0, 0, 7.0522, -54.8592, 7.04956, -173.693, 7.21727, 65.8386, 0.0441353, -98.283
0, 120.00000, 117.327, -31.7857, 117.288, -150.619, 119.796, 88.9122, 0, 0, 7.05216, -54.8596, 7.04951, -173.693, 7.21714, 65.8383, 0.0440194, -98.2588
0, 180.00000, 117.327, -31.7857, 117.288, -150.619, 119.796, 88.9122, 0, 0, 7.05216, -54.8596, 7.04951, -173.693, 7.21714, 65.8383, 0.0440188, -98.2587
0, 240.00000, 117.327, -31.7857, 117.288, -150.619, 119.796, 88.9122, 0, 0, 7.05216, -54.8596, 7.04951, -173.693, 7.21714, 65.8383, 0.0440188, -98.2587
0, 300.00000, 117.327, -31.7857, 117.288, -150.619, 119.796, 88.9122, 0, 0, 7.05216, -54.8596, 7.04951, -173.693, 7.21714, 65.8383, 0.0440188, -98.2587
0, 360.00000, 117.327, -31.7857, 117.288, -150.619, 119.796, 88.9122, 0, 0, 7.05216, -54.8596, 7.04951, -173.693, 7.21714, 65.8383, 0.0440188, -98.2587
0, 420.00000, 117.327, -31.7857, 117.288, -150.619, 119.796, 88.9122, 0, 0, 7.05216, -54.8596, 7.04951, -173.693, 7.21714, 65.8383, 0.0440188, -98.2587
0, 480.00000, 118.36, -31.6901, 118.261, -150.539, 120.836, 89.0181, 0, 0, 6.1955, -54.765, 6.18966, -173.612, 6.32102, 65.9434, 0.0229193, -89.5883
0, 540.00000, 118.36, -31.69, 118.261, -150.539, 120.837, 89.0182, 0, 0, 6.19545, -54.7639, 6.18969, -173.613, 6.32055, 65.9442, 0.0227334, -88.9722
0, 600.00000, 118.36, -31.69, 118.261, -150.539, 120.837, 89.0182, 0, 0, 6.19545, -54.7639, 6.18969, -173.613, 6.32055, 65.9442, 0.0227314, -88.9626
0, 660.00000, 118.36, -31.69, 118.261, -150.539, 120.837, 89.0182, 0, 0, 6.19545, -54.7639, 6.18969, -173.613, 6.32055, 65.9442, 0.0227313, -88.9624
0, 720.00000, 118.36, -31.69, 118.261, -150.539, 120.837, 89.0182, 0, 0, 6.19545, -54.7639, 6.18969, -173.613, 6.32055, 65.9442, 0.0227313, -88.9624
0, 780.00000, 118.36, -31.69, 118.261, -150.539, 120.837, 89.0182, 0, 0, 6.19545, -54.7639, 6.18969, -173.613, 6.32055, 65.9442, 0.0227313, -88.9624
0, 840.00000, 118.36, -31.69, 118.261, -150.539, 120.837, 89.0182, 0, 0, 6.19545, -54.7639, 6.18969, -173.613, 6.32055, 65.9442, 0.0227313, -88.9624
0, 900.00000, 118.36, -31.69, 118.261, -150.539, 120.837, 89.0182, 0, 0, 6.19545, -54.7639, 6.18969, -173.613, 6.32055, 65.9442, 0.0227313, -88.9624
0, 960.00000, 118.36, -31.69, 118.261, -150.539, 120.837, 89.0182, 0, 0, 6.19545, -54.7639, 6.18969, -173.613, 6.32055, 65.9442, 0.0227313, -88.9624
0, 1020.00000, 118.36, -31.69, 118.261, -150.539, 120.837, 89.0182, 0, 0, 6.19545, -54.7639, 6.18969, -173.613, 6.32055, 65.9442, 0.0227313, -88.9624
0, 1080.00000, 118.36, -31.69, 118.261, -150.539, 120.837, 89.0182, 0, 0, 6.19545, -54.7639, 6.18969, -173.613, 6.32055, 65.9442, 0.0227313, -88.9624
0, 1140.00000, 118.36, -31.69, 118.261, -150.539, 120.837, 89.0182, 0, 0, 6.19545, -54.7639, 6.18969, -173.613, 6.32055, 65.9442, 0.0227313, -88.9624
0, 1200.00000, 118.36, -31.69, 118.261, -150.539, 120.837, 89.0182, 0, 0, 6.19545, -54.7639, 6.18969, -173.613, 6.32055, 65.9442, 0.0227313, -88.9624
0, 1260.00000, 118.36, -31.69, 118.261, -150.539, 120.837, 89.0182, 0, 0, 6.19545, -54.7639, 6.18969, -173.613, 6.32055, 65.9442, 0.0227313, -88.9624
0, 1320.00000, 118.36, -31.69, 118.261, -150.539, 120.837, 89.0182, 0, 0, 6.19545, -54.7639, 6.18969, -173.613, 6.32055, 65.9442, 0.0227313, -88.9624
0, 1380.00000, 118.36, -31.69, 118.261, -150.539, 120.837, 89.0182, 0, 0, 6.19545, -54.7639, 6.18969, -173.613, 6.32055, 65.9442, 0.0227313, -88.9624
0, 1440.00000, 118.36, -31.69, 118.261, -150.539, 120.837, 89.0182, 0, 0, 6.19545, -54.7639, 6.18969, -173.613, 6.32055, 65.9442, 0.0227313, -88.9624
0, 1500.00000, 118.36, -31.69, 118.261, -150.539, 120.837, 89.0182, 0, 0, 6.19545, -54.7639, 6.18969, -173.613, 6.32055, 65.9442, 0.0227313, -88.9624
0, 1560.00000, 118.36, -31.69, 118.261, -150.539, 120.837, 89.0182, 0, 0, 6.19545, -54.7639, 6.18969, -173.613, 6.32055, 65.9442, 0.0227313, -88.9624
0, 1620.00000, 118.36, -31.69, 118.261, -150.539, 120.837, 89.0182, 0, 0, 6.19545, -54.7639, 6.18969, -173.613, 6.32055, 65.9442, 0.0227313, -88.9624
0, 1680.00000, 118.36, -31.69, 118.261, -150.539, 120.837, 89.0182, 0, 0, 6.19545, -54.7639, 6.18969, -173.613, 6.32055, 65.9442, 0.0227313, -88.9624
0, 1740.00000, 118.36, -31.69, 118.261, -150.539, 120.837, 89.0182, 0, 0, 6.19545, -54.7639, 6.18969, -173.613, 6.32055, 65.9442, 0.0227313, -88.9624
0, 1800.00000, 118.36, -31.69, 118.261, -150.539, 120.837, 89.0182, 0, 0, 6.19545, -54.7639, 6.18969, -173.613, 6.32055, 65.9442, 0.0227313, -88.9624
0, 1860.00000, 118.36, -31.69, 118.261, -150.539, 120.837, 89.0182, 0, 0, 6.19545, -54.7639, 6.18969, -173.613, 6.32055, 65.9442, 0.0227313, -88.9624
0, 1920.00000, 118.36, -31.69, 118.261, -150.539, 120.837, 89.0182, 0, 0, 6.19545, -54.7639, 6.18969, -173.613, 6.32055, 65.9442, 0.0227313, -88.9624
0, 1980.00000, 118.36, -31.69, 118.261, -150.539, 120.837, 89.0182, 0, 0, 6.19545, -54.7639, 6.18969, -173.613, 6.32055, 65.9442, 0.0227313, -88.9624
0, 2040.00000, 118.36, -31.69, 118.261, -150.539, 120.837, 89.0182, 0, 0, 6.19545, -54.7639, 6.18969, -173.613, 6.32055, 65.9442, 0.0227313, -88.9624
0, 2100.00000, 118.36, -31.69, 118.261, -150.539, 120.837, 89.0182, 0, 0, 6.19545, -54.7639, 6.18969, -173.613, 6.32055, 65.9442, 0.0227313, -88.9624
0, 2160.00000, 118.36, -31.69, 118.261, -150.539, 120.837, 89.0182, 0, 0, 6.19545, -54.7639, 6.18969, -173.613, 6.32055, 65.9442, 0.0227313, -88.9624
0, 2220.00000, 118.36, -31.69, 118.261, -150.539, 120.837, 89.0182, 0, 0, 6.19545, -54.7639, 6.18969, -173.613, 6.32055, 65.9442, 0.0227313, -88.9624
0, 2280.00000, 118.36, -31.69, 118.261, -150.539, 120.837, 89.0182, 0, 0, 6.19545, -54.7639, 6.18969, -173.613, 6.32055, 65.9442, 0.0227313, -88.9624
0, 2340.00000, 118.36, -31.69, 118.261, -150.539, 120.837, 89.0182, 0, 0, 6.19545, -54.7639, 6.18969, -173.613, 6.32055, 65.9442, 0.0227313, -88.9624
0, 2400.00000, 118.36, -31.69, 118.261, -150.539, 120.837, 89.0182, 0, 0, 6.19545, -54.7639, 6.18969, -173.613, 6.32055, 65.9442, 0.0227313, -88.9624
0, 2460.00000, 118.36, -31.69, 118.261, -150.539, 120.837, 89.0182, 0, 0, 6.19545, -54.7639, 6.18969, -173.613, 6.32055, 65.9442, 0.0227313, -88.9624
0, 2520.00000, 118.36, -31.69, 118.261, -150.539, 120.837, 89.0182, 0, 0, 6.19545, -54.7639, 6.18969, -173.613, 6.32055, 65.9442, 0.0227313, -88.9624
0, 2580.00000, 118.36, -31.69, 118.261, -150.539, 120.837, 89.0182, 0, 0, 6.19545, -54.7639, 6.18969, -173.613, 6.32055, 65.9442, 0.0227313, -88.9624
0, 2640.00000, 118.36, -31.69, 118.261, -150.539, 120.837, 89.0182, 0, 0, 6.19545, -54.7639, 6.18969, -173.613, 6.32055, 65.9442, 0.0227313, -88.9624
0, 2700.00000, 118.36, -31.69, 118.261, -150.539, 120.837, 89.0182, 0, 0, 6.19545, -54.7639, 6.18969, -173.613, 6.32055, 65.9442, 0.0227313, -88.9624
0, 2760.00000, 118.36, -31.69, 118.261, -150.539, 120.837, 89.0182, 0, 0, 6.19545, -54.7639, 6.18969, -173.613, 6.32055, 65.9442, 0.0227313, -88.9624
0, 2820.00000, 118.36, -31.69, 118.261, -150.539, 120.837, 89.0182, 0, 0, 6.19545, -54.7639, 6.18969, -173.613, 6.32055, 65.9442, 0.0227313, -88.9624
0, 2880.00000, 118.36, -31.69, 118.261, -150.539, 120.837, 89.0182, 0, 0, 6.19545, -54.7639, 6.18969, -173.613, 6.32055, 65.9442, 0.0227313, -88.9624
0, 2940.00000, 118.36, -31.69, 118.261, -150.539, 120.837, 89.0182, 0, 0, 6.19545, -54.7639, 6.18969, -173.613, 6.32055, 65.9442, 0.0227313, -88.9624
0, 3000.00000, 118.36, -31.69, 118.261, -150.539, 120.837, 89.0182, 0, 0, 6.19545, -54.7639, 6.18969, -173.613, 6.32055, 65.9442, 0.0227313, -88.9624
0, 3060.00000, 118.36, -31.69, 118.261, -150.539, 120.837, 89.0182, 0, 0, 6.19545, -54.7639, 6.18969, -173.613, 6.32055, 65.9442, 0.0227313, -88.9624
0, 3120.00000, 118.36, -31.69, 118.261, -150.539, 120.837, 89.0182, 0, 0, 6.19545, -54.7639, 6.18969, -173.613, 6.32055, 65.9442, 0.0227313, -88.9624
0, 3180.00000, 118.36, -31.69, 118.261, -150.539, 120.837, 89.0182, 0, 0, 6.19545, -54.7639, 6.18969, -173.613, 6.32055, 65.9442, 0.0227313, -88.9624
0, 3240.00000, 118.36, -31.69, 118.261, -150.539, 120.837, 89.0182, 0, 0, 6.19545, -54.7639, 6.18969, -173.613, 6.32055, 65.9442, 0.0227313, -88.9624
0, 3300.00000, 118.36, -31.69, 118.261, -150.539, 120.837, 89.0182, 0, 0, 6.19545, -54.7639, 6.18969, -173.613, 6.32055, 65.9442, 0.0227313, -88.9624
0, 3360.00000, 118.36, -31.69, 118.261, -150.539, 120.837, 89.0182, 0, 0, 6.19545, -54.7639, 6.18969, -173.613, 6.32055, 65.9442, 0.0227313, -88.9624
0, 3420.00000, 118.36, -31.69, 118.261, -150.539, 120.837, 89.0182, 0, 0, 6.19545, -54.7639, 6.18969, -173.613, 6.32055, 65.9442, 0.0227313, -88.9624
0, 3480.00000, 118.36, -31.69, 118.261, -150.539, 120.837, 89.0182, 0, 0, 6.19545, -54.7639, 6.18969, -173.613, 6.32055, 65.9442, 0.0227313, -88.9624
0, 3540.00000, 118.36, -31.69, 118.261, -150.539, 120.837, 89.0182, 0, 0, 6.19545, -54.7639, 6.18969, -173.613, 6.32055, 65.9442, 0.0227313, -88.9624
1, 0.00000, 118.36, -31.69, 118.261, -150.539, 120.837, 89.0182, 0, 0, 6.19545, -54.7639, 6.18969, -173.613, 6.32055, 65.9442, 0.0227313, -88.9624
1, 60.00000, 118.444, -31.5601, 118.543, -150.507, 120.837, 89.0189, 0, 0, 6.20028, -54.6342, 6.20605, -173.581, 6.32057, 65.945, 0.021797, -84.47
1, 120.00000, 118.444, -31.5601, 118.543, -150.507, 120.837, 89.0189, 0, 0, 6.2003, -54.634, 6.2061, -173.581, 6.32058, 65.945, 0.0217655, -84.4153
1, 180.00000, 118.444, -31.5601, 118.543, -150.507, 120.837, 89.0189, 0, 0, 6.2003, -54.634, 6.2061, -173.581, 6.32058, 65.945, 0.0217655, -84.4158
1, 240.00000, 118.444, -31.5601, 118.543, -150.507, 120.837, 89.0189, 0, 0, 6.2003, -54.634, 6.2061, -173.581, 6.32058, 65.945, 0.0217655, -84.4158
1, 300.00000, 118.444, -31.5601, 118.543, -150.507, 120.837, 89.0189, 0, 0, 6.2003, -54.634, 6.2061, -173.581, 6.32058, 65.945, 0.0217655, -84.4158
1, 360.00000, 118.444, -31.5601, 118.543, -150.507, 120.837, 89.0189, 0, 0, 6.2003, -54.634, 6.2061, -173.581, 6.32058, 65.945, 0.0217655, -84.4158
1, 420.00000, 118.444, -31.5601, 118.543, -150.507, 120.837, 89.0189, 0, 0, 6.2003, -54.634, 6.2061, -173.581, 6.32058, 65.945, 0.0217655, -84.4158
1, 480.00000, 118.444, -31.5601, 118.543, -150.507, 120.837, 89.0189, 0, 0, 6.2003, -54.634, 6.2061, -173.581, 6.32058, 65.945, 0.0217655, -84.4158
1, 540.00000, 118.444, -31.5601, 118.543, -150.507, 120.837, 89.0189, 0, 0, 6.2003, -54.634, 6.2061, -173.581, 6.32058, 65.945, 0.0217655, -84.4158
1, 600.00000, 118.444, -31.5601, 118.543, -150.507, 120.837, 89.0189, 0, 0, 6.2003, -54.634, 6.2061, -173.581, 6.32058, 65.945, 0.0217655, -84.4158
1, 660.00000, 118.444, -31.5601, 118.543, -150.507, 120.837, 89.0189, 0, 0, 6.2003, -54.634, 6.2061, -173.581, 6.32058, 65.945, 0.0217655, -84.4158
1, 720.00000, 118.444, -31.5601, 118.543, -150.507, 120.837, 89.0189, 0, 0, 6.2003, -54.634, 6.2061, -173.581, 6.32058, 65.945, 0.0217655, -84.4158
1, 780.00000, 118.444, -31.5601, 118.543, -150.507, 120.837, 89.0189, 0, 0, 6.2003, -54.634, 6.2061, -173.581, 6.32058, 65.945, 0.0217655, -84.4158
1, 840.00000, 118.444, -31.5601, 118.543, -150.507, 120.837, 89.0189, 0, 0, 6.2003, -54.634, 6.2061, -173.581, 6.32058, 65.945, 0.0217655, -84.4158
1, 900.00000, 118.444, -31.5601, 118.543, -150.507, 120.837, 89.0189, 0, 0, 6.2003, -54.634, 6.2061, -173.581, 6.32058, 65.945, 0.0217655, -84.4158
1, 960.00000, 118.444, -31.5601, 118.543, -150.507, 120.837, 89.0189, 0, 0, 6.2003, -54.634, 6.2061, -173.581, 6.32058, 65.945, 0.0217655, -84.4158
1, 1020.00000, 118.444, -31.5601, 118.543, -150.507, 120.837, 89.0189, 0, 0, 6.2003, -54.634, 6.2061, -173.581, 6.32058, 65.945, 0.0217655, -84.4158
1, 1080.00000, 118.444, -31.5601, 118.543, -150.507, 120.837, 89.0189, 0, 0, 6.2003, -54.634, 6.2061, -173.581, 6.32058, 65.945, 0.0217655, -84.4158
1, 1140.00000, 118.444, -31.5601, 118.543, -150.507, 120.837, 89.0189, 0, 0, 6.2003, -54.634, 6.2061, -173.581, 6.32058, 65.945, 0.0217655, -84.4158
1, 1200.00000, 118.444, -31.5601, 118.543, -150.507, 120.837, 89.0189, 0, 0, 6.2003, -54.634, 6.2061, -173.581, 6.32058, 65.945, 0.0217655, -84.4158
1, 1260.00000, 118.444, -31.5601, 118.543, -150.507, 120.837, 89.0189, 0, 0, 6.2003, -54.634, 6.2061, -173.581, 6.32058, 65.945, 0.0217655, -84.4158
1, 1320.00000, 118.444, -31.5601, 118.543, -150.507, 120.837, 89.0189, 0, 0, 6.2003, -54.634, 6.2061, -173.581, 6.32058, 65.945, 0.0217655, -84.4158
1, 1380.00000, 118.444, -31.5601, 118.543, -150.507, 120.837, 89.0189, 0, 0, 6.2003, -54.634, 6.2061, -173.581, 6.32058, 65.945, 0.0217655, -84.4158
1, 1440.00000, 118.444, -31.5601, 118.543, -150.507, 120.837, 89.0189, 0, 0, 6.2003, -54.634, 6.2061, -173.581, 6.32058, 65.945, 0.0217655, -84.4158
1, 1500.00000, 118.444, -31.5601, 118.543, -150.507, 120.837, 89.0189, 0, 0, 6.2003, -54.634, 6.2061, -173.581, 6.32058, 65.945, 0.0217655, -84.4158
1, 1560.00000, 118.444, -31.5601, 118.543, -150.507, 120.837, 89.0189, 0, 0, 6.2003, -54.634, 6.2061, -173.581, 6.32058, 65.945, 0.0217655, -84.4158
1, 1620.00000, 118.444, -31.5601, 118.543, -150.507, 120.837, 89.0189, 0, 0, 6.2003, -54.634, 6.2061, -173.581, 6.32058, 65.945, 0.0217655, -84.4158
1, 1680.00000, 118.444, -31.5601, 118.543, -150.507, 120.837, 89.0189, 0, 0, 6.2003, -54.634, 6.2061, -173.581, 6.32058, 65.945, 0.0217655, -84.4158
1, 1740.00000, 118.444, -31.5601, 118.543, -150.507, 120.837, 89.0189, 0, 0, 6.2003, -54.634, 6.2061, -173.581, 6.32058, 65.945, 0.0217655, -84.4158
1, 1800.00000, 118.444, -31.5601, 118.543, -150.507, 120.837, 89.0189, 0, 0, 6.2003, -54.634, 6.2061, -173.581, 6.32058, 65.945, 0.0217655, -84.4158
1, 1860.00000, 118.444, -31.5601, 118.543, -150.507, 120.837, 89.0189, 0, 0, 6.2003, -54.634, 6.2061, -173.581, 6.32058, 65.945, 0.0217655, -84.4158
1, 1920.00000, 118.444, -31.5601, 118.543, -150.507, 120.837, 89.0189, 0, 0, 6.2003, -54.634, 6.2061, -173.581, 6.32058, 65.945, 0.0217655, -84.4158
1, 1980.00000, 118.444, -31.5601, 118.543, -150.507, 120.837, 89.0189, 0, 0, 6.2003, -54.634, 6.2061, -173.581, 6.32058, 65.945, 0.0217655, -84.4158
1, 2040.00000, 118.444, -31.5601, 118.543, -150.507, 120.837, 89.0189, 0, 0, 6.2003, -54.634, 6.2061, -173.581, 6.32058, 65.945, 0.0217655, -84.4158
1, 2100.00000, 118.444, -31.5601, 118.543, -150.507, 120.837, 89.0189, 0, 0, 6.2003, -54.634, 6.2061, -173.581, 6.32058, 65.945, 0.0217655, -84.4158
1, 2160.00000, 118.444, -31.5601, 118.543, -150.507, 120.837, 89.0189, 0, 0, 6.2003, -54.634, 6.2061, -173.581, 6.32058, 65.945, 0.0217655, -84.4158
1, 2220.00000, 118.444, -31.5601, 118.543, -150.507, 120.837, 89.0189, 0, 0, 6.2003, -54.634, 6.2061, -173.581, 6.32058, 65.945, 0.0217655, -84.4158
1, 2280.00000, 118.444, -31.5601, 118.543, -150.507, 120.837, 89.0189, 0, 0, 6.2003, -54.634, 6.2061, -173.581, 6.32058, 65.945, 0.0217655, -84.4158
1, 2340.00000, 118.444, -31.5601, 118.543, -150.507, 120.837, 89.0189, 0, 0, 6.2003, -54.634, 6.2061, -173.581, 6.32058, 65.945, 0.0217655, -84.4158
1, 2400.00000, 118.444, -31.5601, 118.543, -150.507, 120.837, 89.0189, 0, 0, 6.2003, -54.634, 6.2061, -173.581, 6.32058, 65.945, 0.0217655, -84.4158
1, 2460.00000, 118.444, -31.5601, 118.543, -150.507, 120.837, 89.0189, 0, 0, 6.2003, -54.634, 6.2061, -173.581, 6.32058, 65.945, 0.0217655, -84.4158
1, 2520.00000, 118.444, -31.5601, 118.543, -150.507, 120.837, 89.0189, 0, 0, 6.2003, -54.634, 6.2061, -173.581, 6.32058, 65.945, 0.0217655, -84.4158
1, 2580.00000, 118.444, -31.5601, 118.543, -150.507, 120.837, 89.0189, 0, 0, 6.2003, -54.634, 6.2061, -173.581, 6.32058, 65.945, 0.0217655, -84.4158
1, 2640.00000, 118.444, -31.5601, 118.543, -150.507, 120.837, 89.0189, 0, 0, 6.2003, -54.634, 6.2061, -173.581, 6.32058, 65.945, 0.0217655, -84.4158
1, 2700.00000, 118.444, -31.5601, 118.543, -150.507, 120.837, 89.0189, 0, 0, 6.2003, -54.634, 6.2061, -173.581, 6.32058, 65.945, 0.0217655, -84.4158
1, 2760.00000, 118.444, -31.5601, 118.543, -150.507, 120.837, 89.0189, 0, 0, 6.2003, -54.634, 6.2061, -173.581, 6.32058, 65.945, 0.0217655, -84.4158
1, 2820.00000, 118.444, -31.5601, 118.543, -150.507, 120.837, 89.0189, 0, 0, 6.2003, -54.634, 6.2061, -173.581, 6.32058, 65.945, 0.0217655, -84.4158
1, 2880.00000, 118.444, -31.5601, 118.543, -150.507, 120.837, 89.0189, 0, 0, 6.2003, -54.634, 6.2061, -173.581, 6.32058, 65.945, 0.0217655, -84.4158
1, 2940.00000, 118.444, -31.5601, 118.543, -150.507, 120.837, 89.0189, 0, 0, 6.2003, -54.634, 6.2061, -173.581, 6.32058, 65.945, 0.0217655, -84.4158
1, 3000.00000, 118.444, -31.5601, 118.543, -150.507, 120.837, 89.0189, 0, 0, 6.2003, -54.634, 6.2061, -173.581, 6.32058, 65.945, 0.0217655, -84.4158
1, 3060.00000, 118.444, -31.5601, 118.543, -150.507, 120.837, 89.0189, 0, 0, 6.2003, -54.634, 6.2061, -173.581, 6.32058, 65.945, 0.0217655, -84.4158
1, 3120.00000, 118.444, -31.5601, 118.543, -150.507, 120.837, 89.0189, 0, 0, 6.2003, -54.634, 6.2061, -173.581, 6.32058, 65.945, 0.0217655, -84.4158
1, 3180.00000, 118.444, -31.5601, 118.543, -150.507, 120.837, 89.0189, 0, 0, 6.2003, -54.634, 6.2061, -173.581, 6.32058, 65.945, 0.0217655, -84.4158
1, 3240.00000, 118.444, -31.5601, 118.543, -150.507, 120.837, 89.0189, 0, 0, 6.2003, -54.634, 6.2061, -173.581, 6.32058, 65.945, 0.0217655, -84.4158
1, 3300.00000, 118.444, -31.5601, 118.543, -150.507, 120.837, 89.0189, 0, 0, 6.2003, -54.634, 6.2061, -173.581, 6.32058, 65.945, 0.0217655, -84.4158
1, 3360.00000, 118.444, -31.5601, 118.543, -150.507, 120.837, 89.0189, 0, 0, 6.2003, -54.634, 6.2061, -173.581, 6.32058, 65.945, 0.0217655, -84.4158
1, 3420.00000, 118.444, -31.5601, 118.543, -150.507, 120.837, 89.0189, 0, 0, 6.2003, -54.634, 6.2061, -173.581, 6.32058, 65.945, 0.0217655, -84.4158
1, 3480.00000, 118.444, -31.5601, 118.543, -150.507, 120.837, 89.0189, 0, 0, 6.2003, -54.634, 6.2061, -173.581, 6.32058, 65.945, 0.0217655, -84.4158
1, 3540.00000, 118.444, -31.5601, 118.543, -150.507, 120.837, 89.0189, 0, 0, 6.2003, -54.634, 6.2061, -173.581, 6.32058, 65.945, 0.0217655, -84.4158
2, 0.00000, 118.444, -31.5601, 118.543, -150.507, 120.837, 89.0189, 0, 0, 6.2003, -54.634, 6.2061, -173.581, 6.32058, 65.945, 0.0217655, -84.4158
2, 60.00000, 118.444, -31.5601, 118.543, -150.507, 120.837, 89.0189, 0, 0, 6.2003, -54.634, 6.2061, -173.581, 6.32058, 65.945, 0.0217655, -84.4158
2, 120.00000, 118.444, -31.5601, 118.543, -150.507, 120.837, 89.0189, 0, 0, 6.2003, -54.634, 6.2061, -173.581, 6.32058, 65.945, 0.0217655, -84.4158
2, 180.00000, 118.444, -31.5601, 118.543, -150.507, 120.837, 89.0189, 0, 0, 6.2003, -54.634, 6.2061, -173.581, 6.32058, 65.945, 0.0217655, -84.4158
2, 240.00000, 118.444, -31.5601, 118.543, -150.507, 120.837, 89.0189, 0, 0, 6.2003, -54.634, 6.2061, -173.581, 6.32058, 65.945, 0.0217655, -84.4158
2, 300.00000, 118.444, -31.5601, 118.543, -150.507, 120.837, 89.0189, 0, 0, 6.2003, -54.634, 6.2061, -173.581, 6.32058, 65.945, 0.0217655, -84.4158
2, 360.00000, 118.444, -31.5601, 118.543, -150.507, 120.837, 89.0189, 0, 0, 6.2003, -54.634, 6.2061, -173.581, 6.32058, 65.945, 0.0217655, -84.4158
2, 420.00000, 118.444, -31.5601, 118.543, -150.507, 120.837, 89.0189, 0, 0, 6.2003, -54.634, 6.2061, -173.581, 6.32058, 65.945, 0.0217655, -84.4158
2, 480.00000, 118.444, -31.5601, 118.543, -150.507, 120.837, 89.0189, 0, 0, 6.2003, -54.634, 6.2061, -173.581, 6.32058, 65.945, 0.0217655, -84.4158
2, 540.00000, 118.444, -31.5601, 118.543, -150.507, 120.837, 89.0189, 0, 0, 6.2003, -54.634, 6.2061, -173.581, 6.32058, 65.945, 0.0217655, -84.4158
2, 600.00000, 118.444, -31.5601, 118.543, -150.507, 120.837, 89.0189, 0, 0, 6.2003, -54.634, 6.2061, -173.581, 6.32058, 65.945, 0.0217655, -84.4158
2, 660.00000, 118.444, -31.5601, 118.543, -150.507, 120.837, 89.0189, 0, 0, 6.2003, -54.634, 6.2061, -173.581, 6.32058, 65.945, 0.0217655, -84.4158
2, 720.00000, 118.444, -31.5601, 118.543, -150.507, 120.837, 89.0189, 0, 0, 6.2003, -54.634, 6.2061, -173.581, 6.32058, 65.945, 0.0217655, -84.4158
2, 780.00000, 118.444, -31.5601, 118.543, -150.507, 120.837, 89.0189, 0, 0, 6.2003, -54.634, 6.2061, -173.581, 6.32058, 65.945, 0.0217655, -84.4158
