hour,t(sec),"P1 (kW)","Q1 (kvar)","P2 (kW)","Q2 (kvar)","P3 (kW)","Q3 (kvar)","P4 (kW)","Q4 (kvar)"
0, 60.00000, 0.133487, 0.0568647, 0.129386, 0.0551176, 0.135085, 0.0575441, 0, 0
0, 120.00000, 0.133495, 0.056868, 0.129385, 0.0551172, 0.135084, 0.0575441, 0, 0
0, 180.00000, 0.133501, 0.0568709, 0.129384, 0.0551168, 0.135084, 0.0575441, 0, 0
0, 240.00000, 0.133508, 0.0568735, 0.129383, 0.0551164, 0.135084, 0.0575442, 0, 0
0, 300.00000, 0.133513, 0.0568759, 0.129382, 0.0551161, 0.135084, 0.0575442, 0, 0
0, 360.00000, 0.133518, 0.056878, 0.129381, 0.0551158, 0.135084, 0.0575443, 0, 0
0, 420.00000, 0.133522, 0.0568799, 0.129381, 0.0551155, 0.135083, 0.0575443, 0, 0
0, 480.00000, 0.141419, 0.0602441, 0.13741, 0.0585359, 0.141422, 0.0602448, 0, 0
0, 540.00000, 0.14142, 0.0602442, 0.137409, 0.0585356, 0.141422, 0.0602449, 0, 0
0, 600.00000, 0.14142, 0.0602442, 0.137409, 0.0585354, 0.141422, 0.0602448, 0, 0
0, 660.00000, 0.14142, 0.0602443, 0.137408, 0.0585351, 0.141422, 0.0602448, 0, 0
0, 720.00000, 0.14142, 0.0602443, 0.137407, 0.0585349, 0.141422, 0.0602448, 0, 0
0, 780.00000, 0.14142, 0.0602444, 0.137407, 0.0585347, 0.141422, 0.0602448, 0, 0
0, 840.00000, 0.14142, 0.0602444, 0.137406, 0.0585345, 0.141421, 0.0602448, 0, 0
0, 900.00000, 0.14142, 0.0602444, 0.137406, 0.0585344, 0.141421, 0.0602448, 0, 0
0, 960.00000, 0.140975, 0.0600551, 0.135477, 0.057713, 0.141421, 0.0602448, 0, 0
0, 1020.00000, 0.140977, 0.0600558, 0.135477, 0.0577128, 0.141421, 0.0602448, 0, 0
0, 1080.00000, 0.140978, 0.0600563, 0.135477, 0.0577127, 0.141421, 0.0602448, 0, 0
0, 1140.00000, 0.141199, 0.0601506, 0.136179, 0.058012, 0.141421, 0.0602448, 0, 0
0, 1200.00000, 0.1412, 0.0601511, 0.136179, 0.0580119, 0.141421, 0.0602448, 0, 0
0, 1260.00000, 0.141201, 0.0601515, 0.136179, 0.0580118, 0.141421, 0.0602448, 0, 0
0, 1320.00000, 0.141202, 0.0601518, 0.136179, 0.0580118, 0.141421, 0.0602448, 0, 0
0, 1380.00000, 0.141203, 0.0601522, 0.136179, 0.0580117, 0.141421, 0.0602448, 0, 0
0, 1440.00000, 0.141204, 0.0601525, 0.136178, 0.0580117, 0.141421, 0.0602448, 0, 0
0, 1500.00000, 0.141204, 0.0601527, 0.136178, 0.0580116, 0.141421, 0.0602448, 0, 0
0, 1560.00000, 0.141205, 0.060153, 0.136178, 0.0580116, 0.141421, 0.0602448, 0, 0
0, 1620.00000, 0.141205, 0.0601532, 0.136178, 0.0580116, 0.141421, 0.0602448, 0, 0
0, 1680.00000, 0.141206, 0.0601534, 0.136178, 0.0580115, 0.141421, 0.0602448, 0, 0
0, 1740.00000, 0.141206, 0.0601536, 0.136178, 0.0580115, 0.141421, 0.0602448, 0, 0
0, 1800.00000, 0.139698, 0.0595112, 0.136178, 0.0580114, 0.14142, 0.0602448, 0, 0
0, 1860.00000, 0.139699, 0.0595113, 0.136178, 0.0580114, 0.14142, 0.0602448, 0, 0
0, 1920.00000, 0.139699, 0.0595115, 0.136178, 0.0580113, 0.14142, 0.0602448, 0, 0
0, 1980.00000, 0.139699, 0.0595116, 0.136177, 0.0580113, 0.14142, 0.0602448, 0, 0
0, 2040.00000, 0.139699, 0.0595117, 0.136177, 0.0580113, 0.14142, 0.0602448, 0, 0
0, 2100.00000, 0.1397, 0.0595118, 0.136177, 0.0580113, 0.14142, 0.0602448, 0, 0
0, 2160.00000, 0.1397, 0.0595119, 0.136177, 0.0580113, 0.14142, 0.0602448, 0, 0
0, 2220.00000, 0.1397, 0.059512, 0.136177, 0.0580113, 0.14142, 0.0602448, 0, 0
0, 2280.00000, 0.1397, 0.059512, 0.136177, 0.0580113, 0.14142, 0.0602448, 0, 0
0, 2340.00000, 0.1397, 0.0595121, 0.136177, 0.0580113, 0.14142, 0.0602448, 0, 0
0, 2400.00000, 0.1397, 0.0595122, 0.136177, 0.0580112, 0.14142, 0.0602448, 0, 0
0, 2460.00000, 0.139701, 0.0595122, 0.136177, 0.0580112, 0.14142, 0.0602448, 0, 0
0, 2520.00000, 0.139701, 0.0595123, 0.136177, 0.0580112, 0.14142, 0.0602448, 0, 0
0, 2580.00000, 0.139701, 0.0595123, 0.136177, 0.0580112, 0.14142, 0.0602448, 0, 0
0, 2640.00000, 0.139701, 0.0595123, 0.136177, 0.0580112, 0.14142, 0.0602448, 0, 0
0, 2700.00000, 0.139701, 0.0595124, 0.136177, 0.0580112, 0.14142, 0.0602448, 0, 0
0, 2760.00000, 0.140462, 0.0598364, 0.136178, 0.0580117, 0.14142, 0.0602448, 0, 0
0, 2820.00000, 0.140462, 0.0598364, 0.136178, 0.0580117, 0.14142, 0.0602448, 0, 0
0, 2880.00000, 0.140462, 0.0598365, 0.136178, 0.0580117, 0.14142, 0.0602448, 0, 0
0, 2940.00000, 0.140462, 0.0598365, 0.136178, 0.0580117, 0.14142, 0.0602448, 0, 0
0, 3000.00000, 0.140462, 0.0598365, 0.136178, 0.0580117, 0.14142, 0.0602448, 0, 0
0, 3060.00000, 0.140462, 0.0598365, 0.136178, 0.0580117, 0.14142, 0.0602448, 0, 0
0, 3120.00000, 0.140462, 0.0598365, 0.136178, 0.0580117, 0.14142, 0.0602448, 0, 0
0, 3180.00000, 0.140462, 0.0598365, 0.136178, 0.0580117, 0.14142, 0.0602448, 0, 0
0, 3240.00000, 0.140462, 0.0598366, 0.136178, 0.0580117, 0.14142, 0.0602448, 0, 0
0, 3300.00000, 0.140462, 0.0598366, 0.136178, 0.0580117, 0.14142, 0.0602448, 0, 0
0, 3360.00000, 0.140462, 0.0598366, 0.136178, 0.0580117, 0.14142, 0.0602448, 0, 0
0, 3420.00000, 0.140462, 0.0598366, 0.136178, 0.0580117, 0.14142, 0.0602448, 0, 0
0, 3480.00000, 0.140462, 0.0598366, 0.136178, 0.0580117, 0.14142, 0.0602448, 0, 0
0, 3540.00000, 0.140462, 0.0598366, 0.136178, 0.0580117, 0.14142, 0.0602448, 0, 0
1, 0.00000, 0.140462, 0.0598366, 0.136178, 0.0580117, 0.14142, 0.0602448, 0, 0
1, 60.00000, 0.140673, 0.0599267, 0.136864, 0.0583038, 0.14142, 0.0602448, 0, 0
1, 120.00000, 0.140674, 0.0599267, 0.136864, 0.0583038, 0.14142, 0.0602448, 0, 0
1, 180.00000, 0.140674, 0.0599267, 0.136864, 0.0583038, 0.14142, 0.0602448, 0, 0
1, 240.00000, 0.140674, 0.0599267, 0.136864, 0.0583038, 0.14142, 0.0602448, 0, 0
1, 300.00000, 0.140674, 0.0599267, 0.136864, 0.0583038, 0.14142, 0.0602448, 0, 0
1, 360.00000, 0.140674, 0.0599267, 0.136864, 0.0583038, 0.14142, 0.0602448, 0, 0
1, 420.00000, 0.140674, 0.0599267, 0.136864, 0.0583038, 0.14142, 0.0602448, 0, 0
1, 480.00000, 0.140674, 0.0599267, 0.136864, 0.0583038, 0.14142, 0.0602448, 0, 0
1, 540.00000, 0.140674, 0.0599267, 0.136864, 0.0583038, 0.14142, 0.0602448, 0, 0
1, 600.00000, 0.140674, 0.0599267, 0.136864, 0.0583038, 0.14142, 0.0602448, 0, 0
1, 660.00000, 0.140674, 0.0599267, 0.136864, 0.0583038, 0.14142, 0.0602448, 0, 0
1, 720.00000, 0.140674, 0.0599267, 0.136864, 0.0583038, 0.14142, 0.0602448, 0, 0
1, 780.00000, 0.140828, 0.0599924, 0.139132, 0.0592701, 0.14142, 0.0602448, 0, 0
1, 840.00000, 0.140828, 0.0599923, 0.139132, 0.0592701, 0.14142, 0.0602448, 0, 0
1, 900.00000, 0.140828, 0.0599923, 0.139132, 0.0592701, 0.14142, 0.0602448, 0, 0
1, 960.00000, 0.140828, 0.0599923, 0.139132, 0.0592701, 0.14142, 0.0602448, 0, 0
1, 1020.00000, 0.140828, 0.0599923, 0.139132, 0.0592701, 0.14142, 0.0602448, 0, 0
1, 1080.00000, 0.140828, 0.0599923, 0.139132, 0.0592701, 0.14142, 0.0602448, 0, 0
1, 1140.00000, 0.140828, 0.0599923, 0.139132, 0.0592701, 0.14142, 0.0602448, 0, 0
1, 1200.00000, 0.140828, 0.0599923, 0.139132, 0.0592701, 0.14142, 0.0602448, 0, 0
1, 1260.00000, 0.140828, 0.0599923, 0.139132, 0.0592701, 0.14142, 0.0602448, 0, 0
1, 1320.00000, 0.140828, 0.0599923, 0.139132, 0.0592701, 0.14142, 0.0602448, 0, 0
1, 1380.00000, 0.140828, 0.0599923, 0.139132, 0.0592701, 0.14142, 0.0602448, 0, 0
1, 1440.00000, 0.140828, 0.0599923, 0.139132, 0.0592701, 0.14142, 0.0602448, 0, 0
1, 1500.00000, 0.140828, 0.0599923, 0.139132, 0.0592701, 0.14142, 0.0602448, 0, 0
1, 1560.00000, 0.140828, 0.0599923, 0.139132, 0.0592701, 0.14142, 0.0602448, 0, 0
1, 1620.00000, 0.140828, 0.0599923, 0.139132, 0.0592701, 0.14142, 0.0602448, 0, 0
1, 1680.00000, 0.140828, 0.0599923, 0.139132, 0.0592701, 0.14142, 0.0602448, 0, 0
1, 1740.00000, 0.140828, 0.0599923, 0.139132, 0.0592701, 0.14142, 0.0602448, 0, 0
1, 1800.00000, 0.140828, 0.0599923, 0.139132, 0.0592701, 0.14142, 0.0602448, 0, 0
1, 1860.00000, 0.140828, 0.0599923, 0.139132, 0.0592701, 0.14142, 0.0602448, 0, 0
1, 1920.00000, 0.140828, 0.0599923, 0.139132, 0.0592701, 0.14142, 0.0602448, 0, 0
1, 1980.00000, 0.140828, 0.0599923, 0.139132, 0.0592701, 0.14142, 0.0602448, 0, 0
1, 2040.00000, 0.140828, 0.0599923, 0.139132, 0.0592701, 0.14142, 0.0602448, 0, 0
1, 2100.00000, 0.140828, 0.0599923, 0.139132, 0.0592701, 0.14142, 0.0602448, 0, 0
1, 2160.00000, 0.140828, 0.0599923, 0.139132, 0.0592701, 0.14142, 0.0602448, 0, 0
1, 2220.00000, 0.14142, 0.0602448, 0.139119, 0.0592643, 0.14142, 0.0602448, 0, 0
1, 2280.00000, 0.14142, 0.0602448, 0.139119, 0.0592644, 0.14142, 0.0602448, 0, 0
1, 2340.00000, 0.14142, 0.0602448, 0.139119, 0.0592644, 0.14142, 0.0602448, 0, 0
1, 2400.00000, 0.14142, 0.0602448, 0.139119, 0.0592644, 0.14142, 0.0602448, 0, 0
1, 2460.00000, 0.14142, 0.0602448, 0.139119, 0.0592644, 0.14142, 0.0602448, 0, 0
1, 2520.00000, 0.14142, 0.0602448, 0.139119, 0.0592644, 0.14142, 0.0602448, 0, 0
1, 2580.00000, 0.14142, 0.0602448, 0.139119, 0.0592644, 0.14142, 0.0602448, 0, 0
1, 2640.00000, 0.14142, 0.0602448, 0.139119, 0.0592644, 0.14142, 0.0602448, 0, 0
1, 2700.00000, 0.14142, 0.0602448, 0.139119, 0.0592644, 0.14142, 0.0602448, 0, 0
1, 2760.00000, 0.14142, 0.0602448, 0.139119, 0.0592644, 0.14142, 0.0602448, 0, 0
1, 2820.00000, 0.14142, 0.0602448, 0.139119, 0.0592644, 0.14142, 0.0602448, 0, 0
1, 2880.00000, 0.14142, 0.0602448, 0.139119, 0.0592644, 0.14142, 0.0602448, 0, 0
1, 2940.00000, 0.14142, 0.0602448, 0.139119, 0.0592644, 0.14142, 0.0602448, 0, 0
1, 3000.00000, 0.14142, 0.0602448, 0.139119, 0.0592644, 0.14142, 0.0602448, 0, 0
1, 3060.00000, 0.14142, 0.0602448, 0.139119, 0.0592644, 0.14142, 0.0602448, 0, 0
1, 3120.00000, 0.14142, 0.0602448, 0.139119, 0.0592644, 0.14142, 0.0602448, 0, 0
1, 3180.00000, 0.14142, 0.0602448, 0.139119, 0.0592644, 0.14142, 0.0602448, 0, 0
1, 3240.00000, 0.14142, 0.0602448, 0.139119, 0.0592644, 0.14142, 0.0602448, 0, 0
1, 3300.00000, 0.14142, 0.0602448, 0.139119, 0.0592644, 0.14142, 0.0602448, 0, 0
1, 3360.00000, 0.14142, 0.0602448, 0.139119, 0.0592644, 0.14142, 0.0602448, 0, 0
1, 3420.00000, 0.14142, 0.0602448, 0.139119, 0.0592644, 0.14142, 0.0602448, 0, 0
1, 3480.00000, 0.14142, 0.0602448, 0.139119, 0.0592644, 0.14142, 0.0602448, 0, 0
1, 3540.00000, 0.14142, 0.0602448, 0.139119, 0.0592644, 0.14142, 0.0602448, 0, 0
2, 0.00000, 0.14142, 0.0602448, 0.139119, 0.0592644, 0.14142, 0.0602448, 0, 0
2, 60.00000, 0.14142, 0.0602448, 0.139119, 0.0592644, 0.14142, 0.0602448, 0, 0
2, 120.00000, 0.14142, 0.0602448, 0.139119, 0.0592644, 0.14142, 0.0602448, 0, 0
2, 180.00000, 0.14142, 0.0602448, 0.139119, 0.0592644, 0.14142, 0.0602448, 0, 0
2, 240.00000, 0.14142, 0.0602448, 0.139119, 0.0592644, 0.14142, 0.0602448, 0, 0
2, 300.00000, 0.14142, 0.0602448, 0.139119, 0.0592644, 0.14142, 0.0602448, 0, 0
2, 360.00000, 0.14142, 0.0602448, 0.139119, 0.0592644, 0.14142, 0.0602448, 0, 0
2, 420.00000, 0.14142, 0.0602448, 0.139119, 0.0592644, 0.14142, 0.0602448, 0, 0
2, 480.00000, 0.14142, 0.0602448, 0.139119, 0.0592644, 0.14142, 0.0602448, 0, 0
2, 540.00000, 0.14142, 0.0602448, 0.139119, 0.0592644, 0.14142, 0.0602448, 0, 0
2, 600.00000, 0.14142, 0.0602448, 0.139119, 0.0592644, 0.14142, 0.0602448, 0, 0
2, 660.00000, 0.14142, 0.0602448, 0.139119, 0.0592644, 0.14142, 0.0602448, 0, 0
2, 720.00000, 0.14142, 0.0602448, 0.139119, 0.0592644, 0.14142, 0.0602448, 0, 0
2, 780.00000, 0.14142, 0.0602448, 0.139119, 0.0592644, 0.14142, 0.0602448, 0, 0
2, 840.00000, 0.14142, 0.0602448, 0.140367, 0.0597959, 0.14142, 0.0602448, 0, 0
2, 900.00000, 0.14142, 0.0602448, 0.140367, 0.059796, 0.14142, 0.0602448, 0, 0
2, 960.00000, 0.14142, 0.0602448, 0.140367, 0.059796, 0.14142, 0.0602448, 0, 0
2, 1020.00000, 0.14142, 0.0602448, 0.140367, 0.059796, 0.14142, 0.0602448, 0, 0
2, 1080.00000, 0.14142, 0.0602448, 0.140367, 0.059796, 0.14142, 0.0602448, 0, 0
2, 1140.00000, 0.14142, 0.0602448, 0.140367, 0.059796, 0.14142, 0.0602448, 0, 0
2, 1200.00000, 0.14142, 0.0602448, 0.140367, 0.059796, 0.14142, 0.0602448, 0, 0
2, 1260.00000, 0.14142, 0.0602448, 0.140367, 0.059796, 0.14142, 0.0602448, 0, 0
2, 1320.00000, 0.14142, 0.0602448, 0.140367, 0.059796, 0.14142, 0.0602448, 0, 0
2, 1380.00000, 0.14142, 0.0602448, 0.140367, 0.059796, 0.14142, 0.0602448, 0, 0
2, 1440.00000, 0.14142, 0.0602448, 0.140367, 0.059796, 0.14142, 0.0602448, 0, 0
2, 1500.00000, 0.14142, 0.0602448, 0.140367, 0.059796, 0.14142, 0.0602448, 0, 0
2, 1560.00000, 0.14142, 0.0602448, 0.140367, 0.059796, 0.14142, 0.0602448, 0, 0
2, 1620.00000, 0.14142, 0.0602448, 0.140367, 0.059796, 0.14142, 0.0602448, 0, 0
2, 1680.00000, 0.14142, 0.0602448, 0.140367, 0.059796, 0.14142, 0.0602448, 0, 0
2, 1740.00000, 0.14142, 0.0602448, 0.140367, 0.059796, 0.14142, 0.0602448, 0, 0
2, 1800.00000, 0.14142, 0.0602448, 0.140367, 0.059796, 0.14142, 0.0602448, 0, 0
2, 1860.00000, 0.14142, 0.0602448, 0.140367, 0.059796, 0.14142, 0.0602448, 0, 0
2, 1920.00000, 0.14142, 0.0602448, 0.140367, 0.059796, 0.14142, 0.0602448, 0, 0
2, 1980.00000, 0.14142, 0.0602448, 0.140367, 0.059796, 0.14142, 0.0602448, 0, 0
2, 2040.00000, 0.14142, 0.0602448, 0.140367, 0.059796, 0.14142, 0.0602448, 0, 0
2, 2100.00000, 0.14142, 0.0602448, 0.140367, 0.059796, 0.14142, 0.0602448, 0, 0
2, 2160.00000, 0.14142, 0.0602448, 0.140367, 0.059796, 0.14142, 0.0602448, 0, 0
2, 2220.00000, 0.14142, 0.0602448, 0.140367, 0.059796, 0.14142, 0.0602448, 0, 0
2, 2280.00000, 0.14142, 0.0602448, 0.140367, 0.059796, 0.14142, 0.0602448, 0, 0
2, 2340.00000, 0.14142, 0.0602448, 0.140367, 0.059796, 0.14142, 0.0602448, 0, 0
2, 2400.00000, 0.14142, 0.0602448, 0.14142, 0.0602448, 0.14142, 0.0602449, 0, 0
2, 2460.00000, 0.14142, 0.0602448, 0.14142, 0.0602448, 0.14142, 0.0602448, 0, 0
2, 2520.00000, 0.14142, 0.0602448, 0.14142, 0.0602448, 0.14142, 0.0602448, 0, 0
2, 2580.00000, 0.14142, 0.0602448, 0.14142, 0.0602448, 0.14142, 0.0602448, 0, 0
2, 2640.00000, 0.14142, 0.0602448, 0.14142, 0.0602448, 0.14142, 0.0602448, 0, 0
2, 2700.00000, 0.14142, 0.0602448, 0.141385, 0.06023, 0.14142, 0.0602447, 0, 0
2, 2760.00000, 0.14142, 0.0602448, 0.141385, 0.0602299, 0.14142, 0.0602448, 0, 0
2, 2820.00000, 0.14142, 0.0602448, 0.141385, 0.0602299, 0.14142, 0.0602448, 0, 0
2, 2880.00000, 0.14142, 0.0602448, 0.141385, 0.0602299, 0.14142, 0.0602448, 0, 0
2, 2940.00000, 0.14142, 0.0602448, 0.141385, 0.0602299, 0.14142, 0.0602448, 0, 0
2, 3000.00000, 0.14142, 0.0602448, 0.141385, 0.0602299, 0.14142, 0.0602448, 0, 0
2, 3060.00000, 0.14142, 0.0602448, 0.141376, 0.0602257, 0.14142, 0.0602449, 0, 0
2, 3120.00000, 0.14142, 0.0602448, 0.141376, 0.0602257, 0.14142, 0.0602448, 0, 0
2, 3180.00000, 0.14142, 0.0602448, 0.141376, 0.0602257, 0.14142, 0.0602448, 0, 0
2, 3240.00000, 0.14142, 0.0602448, 0.141376, 0.0602257, 0.14142, 0.0602448, 0, 0
2, 3300.00000, 0.14142, 0.0602448, 0.141376, 0.0602257, 0.14142, 0.0602448, 0, 0
2, 3360.00000, 0.14142, 0.0602448, 0.141376, 0.0602257, 0.14142, 0.0602448, 0, 0
2, 3420.00000, 0.14142, 0.0602448, 0.141376, 0.0602257, 0.14142, 0.0602448, 0, 0
2, 3480.00000, 0.14142, 0.0602448, 0.141376, 0.0602257, 0.14142, 0.0602448, 0, 0
2, 3540.00000, 0.14142, 0.0602448, 0.141376, 0.0602257, 0.14142, 0.0602448, 0, 0
3, 0.00000, 0.14142, 0.0602448, 0.141376, 0.0602257, 0.14142, 0.0602448, 0, 0
3, 60.00000, 0.14142, 0.0602448, 0.141376, 0.0602257, 0.14142, 0.0602448, 0, 0
3, 120.00000, 0.14142, 0.0602448, 0.141376, 0.0602257, 0.14142, 0.0602448, 0, 0
3, 180.00000, 0.14142, 0.0602448, 0.141376, 0.0602257, 0.14142, 0.0602448, 0, 0
3, 240.00000, 0.14142, 0.0602448, 0.141376, 0.0602257, 0.14142, 0.0602448, 0, 0
3, 300.00000, 0.14142, 0.0602448, 0.141376, 0.0602257, 0.14142, 0.0602448, 0, 0
3, 360.00000, 0.14142, 0.0602448, 0.141376, 0.0602257, 0.14142, 0.0602448, 0, 0
3, 420.00000, 0.14142, 0.0602448, 0.141376, 0.0602257, 0.14142, 0.0602448, 0, 0
3, 480.00000, 0.14142, 0.0602448, 0.141376, 0.0602257, 0.14142, 0.0602448, 0, 0
3, 540.00000, 0.14142, 0.0602448, 0.141376, 0.0602257, 0.14142, 0.0602448, 0, 0
3, 600.00000, 0.14142, 0.0602448, 0.141376, 0.0602257, 0.14142, 0.0602448, 0, 0
3, 660.00000, 0.14142, 0.0602448, 0.141376, 0.0602257, 0.14142, 0.0602448, 0, 0
3, 720.00000, 0.14142, 0.0602448, 0.141376, 0.0602257, 0.14142, 0.0602448, 0, 0
3, 780.00000, 0.14142, 0.0602448, 0.141376, 0.0602257, 0.14142, 0.0602448, 0, 0
3, 840.00000, 0.14142, 0.0602448, 0.141376, 0.0602257, 0.14142, 0.0602448, 0, 0
3, 900.00000, 0.14142, 0.0602448, 0.141376, 0.0602257, 0.14142, 0.0602448, 0, 0
3, 960.00000, 0.14142, 0.0602448, 0.141376, 0.0602257, 0.14142, 0.0602448, 0, 0
3, 1020.00000, 0.14142, 0.0602448, 0.141376, 0.0602257, 0.14142, 0.0602448, 0, 0
3, 1080.00000, 0.14142, 0.0602448, 0.141376, 0.0602257, 0.14142, 0.0602448, 0, 0
3, 1140.00000, 0.14142, 0.0602448, 0.141376, 0.0602257, 0.14142, 0.0602448, 0, 0
3, 1200.00000, 0.14142, 0.0602448, 0.141376, 0.0602257, 0.14142, 0.0602448, 0, 0
3, 1260.00000, 0.14142, 0.0602448, 0.141376, 0.0602257, 0.14142, 0.0602448, 0, 0
3, 1320.00000, 0.14142, 0.0602448, 0.141376, 0.0602257, 0.14142, 0.0602448, 0, 0
3, 1380.00000, 0.14142, 0.0602448, 0.141376, 0.0602257, 0.14142, 0.0602448, 0, 0
3, 1440.00000, 0.14142, 0.0602448, 0.141376, 0.0602257, 0.14142, 0.0602448, 0, 0
3, 1500.00000, 0.14142, 0.0602448, 0.141376, 0.0602257, 0.14142, 0.0602448, 0, 0
3, 1560.00000, 0.14142, 0.0602448, 0.141376, 0.0602257, 0.14142, 0.0602448, 0, 0
3, 1620.00000, 0.14142, 0.0602448, 0.141376, 0.0602257, 0.14142, 0.0602448, 0, 0
3, 1680.00000, 0.14142, 0.0602448, 0.141376, 0.0602257, 0.14142, 0.0602448, 0, 0
3, 1740.00000, 0.14142, 0.0602448, 0.141376, 0.0602257, 0.14142, 0.0602448, 0, 0
3, 1800.00000, 0.14142, 0.0602448, 0.141376, 0.0602257, 0.14142, 0.0602448, 0, 0
3, 1860.00000, 0.14142, 0.0602448, 0.141376, 0.0602257, 0.14142, 0.0602448, 0, 0
3, 1920.00000, 0.14142, 0.0602448, 0.141376, 0.0602257, 0.14142, 0.0602448, 0, 0
3, 1980.00000, 0.14142, 0.0602448, 0.141376, 0.0602257, 0.14142, 0.0602448, 0, 0
3, 2040.00000, 0.14142, 0.0602448, 0.141376, 0.0602257, 0.14142, 0.0602448, 0, 0
3, 2100.00000, 0.14142, 0.0602448, 0.141376, 0.0602257, 0.14142, 0.0602448, 0, 0
3, 2160.00000, 0.14142, 0.0602448, 0.141376, 0.0602257, 0.14142, 0.0602448, 0, 0
3, 2220.00000, 0.14142, 0.0602448, 0.141376, 0.0602257, 0.14142, 0.0602448, 0, 0
3, 2280.00000, 0.14142, 0.0602448, 0.141376, 0.0602257, 0.14142, 0.0602448, 0, 0
3, 2340.00000, 0.14142, 0.0602448, 0.141376, 0.0602257, 0.14142, 0.0602448, 0, 0
3, 2400.00000, 0.14142, 0.0602448, 0.141376, 0.0602257, 0.14142, 0.0602448, 0, 0
3, 2460.00000, 0.14142, 0.0602448, 0.141376, 0.0602257, 0.14142, 0.0602448, 0, 0
3, 2520.00000, 0.14142, 0.0602448, 0.141376, 0.0602257, 0.14142, 0.0602448, 0, 0
3, 2580.00000, 0.14142, 0.0602448, 0.141376, 0.0602257, 0.14142, 0.0602448, 0, 0
3, 2640.00000, 0.14142, 0.0602448, 0.141376, 0.0602257, 0.14142, 0.0602448, 0, 0
3, 2700.00000, 0.14142, 0.0602448, 0.141376, 0.0602257, 0.14142, 0.0602448, 0, 0
3, 2760.00000, 0.14142, 0.0602448, 0.141376, 0.0602257, 0.14142, 0.0602448, 0, 0
3, 2820.00000, 0.14142, 0.0602448, 0.141376, 0.0602257, 0.14142, 0.0602448, 0, 0
3, 2880.00000, 0.14142, 0.0602448, 0.141376, 0.0602257, 0.14142, 0.0602448, 0, 0
3, 2940.00000, 0.14142, 0.0602448, 0.141376, 0.0602257, 0.14142, 0.0602448, 0, 0
3, 3000.00000, 0.14142, 0.0602448, 0.141376, 0.0602257, 0.14142, 0.0602448, 0, 0
3, 3060.00000, 0.14142, 0.0602448, 0.141376, 0.0602257, 0.14142, 0.0602448, 0, 0
3, 3120.00000, 0.14142, 0.0602448, 0.141376, 0.0602257, 0.14142, 0.0602448, 0, 0
3, 3180.00000, 0.13987, 0.0595845, 0.139383, 0.0593768, 0.13987, 0.0595844, 0, 0
3, 3240.00000, 0.13987, 0.0595845, 0.139383, 0.0593768, 0.13987, 0.0595845, 0, 0
3, 3300.00000, 0.13987, 0.0595845, 0.139383, 0.0593768, 0.13987, 0.0595845, 0, 0
3, 3360.00000, 0.13987, 0.0595845, 0.139383, 0.0593768, 0.13987, 0.0595845, 0, 0
3, 3420.00000, 0.13987, 0.0595845, 0.139383, 0.0593768, 0.13987, 0.0595845, 0, 0
3, 3480.00000, 0.13987, 0.0595845, 0.139383, 0.0593768, 0.13987, 0.0595845, 0, 0
3, 3540.00000, 0.13987, 0.0595845, 0.139383, 0.0593768, 0.13987, 0.0595845, 0, 0
4, 0.00000, 0.13987, 0.0595845, 0.139402, 0.0593851, 0.13987, 0.0595845, 0, 0
4, 60.00000, 0.13987, 0.0595845, 0.139402, 0.0593851, 0.13987, 0.0595845, 0, 0
4, 120.00000, 0.13987, 0.0595845, 0.139402, 0.0593851, 0.13987, 0.0595845, 0, 0
4, 180.00000, 0.13987, 0.0595845, 0.139402, 0.0593851, 0.13987, 0.0595845, 0, 0
4, 240.00000, 0.13987, 0.0595845, 0.139402, 0.0593851, 0.13987, 0.0595845, 0, 0
4, 300.00000, 0.13987, 0.0595845, 0.139402, 0.0593851, 0.13987, 0.0595845, 0, 0
