hour,t(sec),V1,VAngle1,V2,VAngle2,V3,VAngle3,V4,VAngle4,I1,IAngle1,I2,IAngle2,I3,IAngle3,I4,IAngle4
0, 60.00000, 125.586, -31.7493, 124.889, -151.449, 125.84, 88.6829, 0, 0, 6.31083, -54.8229, 6.34605, -174.523, 6.29808, 65.6093, 0.08528, 19.1863
0, 120.00000, 125.586, -31.7493, 124.889, -151.449, 125.84, 88.6829, 0, 0, 6.31087, -54.8232, 6.3461, -174.523, 6.29813, 65.609, 0.0852887, 19.1846
0, 180.00000, 125.586, -31.7493, 124.889, -151.449, 125.84, 88.6829, 0, 0, 6.31087, -54.8232, 6.3461, -174.523, 6.29813, 65.609, 0.0852887, 19.1846
0, 240.00000, 125.586, -31.7493, 124.889, -151.449, 125.84, 88.6829, 0, 0, 6.31087, -54.8232, 6.3461, -174.523, 6.29813, 65.609, 0.0852887, 19.1846
0, 300.00000, 125.586, -31.7493, 124.889, -151.449, 125.84, 88.6829, 0, 0, 6.31087, -54.8232, 6.3461, -174.523, 6.29813, 65.609, 0.0852887, 19.1846
0, 360.00000, 125.586, -31.7493, 124.889, -151.449, 125.84, 88.6829, 0, 0, 6.31087, -54.8232, 6.3461, -174.523, 6.29813, 65.609, 0.0852887, 19.1846
0, 420.00000, 125.586, -31.7493, 124.889, -151.449, 125.84, 88.6829, 0, 0, 6.31087, -54.8232, 6.3461, -174.523, 6.29813, 65.609, 0.0852887, 19.1846
0, 480.00000, 125.948, -31.6224, 125.245, -151.321, 126.21, 88.8141, 0, 0, 5.68589, -54.6967, 5.71779, -174.395, 5.67415, 65.7396, 0.0775041, 19.3391
0, 540.00000, 125.948, -31.6224, 125.246, -151.321, 126.21, 88.8142, 0, 0, 5.68585, -54.6963, 5.71775, -174.395, 5.67406, 65.7403, 0.0775521, 19.3422
0, 600.00000, 125.948, -31.6224, 125.246, -151.321, 126.21, 88.8142, 0, 0, 5.68585, -54.6963, 5.71775, -174.395, 5.67406, 65.7403, 0.0775532, 19.3423
0, 660.00000, 125.948, -31.6224, 125.246, -151.321, 126.21, 88.8142, 0, 0, 5.68585, -54.6963, 5.71775, -174.395, 5.67406, 65.7403, 0.0775532, 19.3423
0, 720.00000, 125.948, -31.6224, 125.246, -151.321, 126.21, 88.8142, 0, 0, 5.68585, -54.6963, 5.71775, -174.395, 5.67406, 65.7403, 0.0775532, 19.3423
0, 780.00000, 125.948, -31.6224, 125.246, -151.321, 126.21, 88.8142, 0, 0, 5.68585, -54.6963, 5.71775, -174.395, 5.67406, 65.7403, 0.0775532, 19.3423
0, 840.00000, 125.948, -31.6224, 125.246, -151.321, 126.21, 88.8142, 0, 0, 5.68585, -54.6963, 5.71775, -174.395, 5.67406, 65.7403, 0.0775532, 19.3423
0, 900.00000, 125.948, -31.6224, 125.246, -151.321, 126.21, 88.8142, 0, 0, 5.68585, -54.6963, 5.71775, -174.395, 5.67406, 65.7403, 0.0775532, 19.3423
0, 960.00000, 125.948, -31.6224, 125.246, -151.321, 126.21, 88.8142, 0, 0, 5.68585, -54.6963, 5.71775, -174.395, 5.67406, 65.7403, 0.0775532, 19.3423
0, 1020.00000, 125.948, -31.6224, 125.246, -151.321, 126.21, 88.8142, 0, 0, 5.68585, -54.6963, 5.71775, -174.395, 5.67406, 65.7403, 0.0775532, 19.3423
0, 1080.00000, 125.948, -31.6224, 125.246, -151.321, 126.21, 88.8142, 0, 0, 5.68585, -54.6963, 5.71775, -174.395, 5.67406, 65.7403, 0.0775532, 19.3423
0, 1140.00000, 125.948, -31.6224, 125.246, -151.321, 126.21, 88.8142, 0, 0, 5.68585, -54.6963, 5.71775, -174.395, 5.67406, 65.7403, 0.0775532, 19.3423
0, 1200.00000, 125.948, -31.6224, 125.246, -151.321, 126.21, 88.8142, 0, 0, 5.68585, -54.6963, 5.71775, -174.395, 5.67406, 65.7403, 0.0775532, 19.3423
0, 1260.00000, 125.948, -31.6224, 125.246, -151.321, 126.21, 88.8142, 0, 0, 5.68585, -54.6963, 5.71775, -174.395, 5.67406, 65.7403, 0.0775532, 19.3423
0, 1320.00000, 125.948, -31.6224, 125.246, -151.321, 126.21, 88.8142, 0, 0, 5.68585, -54.6963, 5.71775, -174.395, 5.67406, 65.7403, 0.0775532, 19.3423
0, 1380.00000, 125.948, -31.6224, 125.246, -151.321, 126.21, 88.8142, 0, 0, 5.68585, -54.6963, 5.71775, -174.395, 5.67406, 65.7403, 0.0775532, 19.3423
0, 1440.00000, 125.948, -31.6224, 125.246, -151.321, 126.21, 88.8142, 0, 0, 5.68585, -54.6963, 5.71775, -174.395, 5.67406, 65.7403, 0.0775532, 19.3423
0, 1500.00000, 125.948, -31.6224, 125.246, -151.321, 126.21, 88.8142, 0, 0, 5.68585, -54.6963, 5.71775, -174.395, 5.67406, 65.7403, 0.0775532, 19.3423
0, 1560.00000, 125.948, -31.6224, 125.246, -151.321, 126.21, 88.8142, 0, 0, 5.68585, -54.6963, 5.71775, -174.395, 5.67406, 65.7403, 0.0775532, 19.3423
0, 1620.00000, 125.948, -31.6224, 125.246, -151.321, 126.21, 88.8142, 0, 0, 5.68585, -54.6963, 5.71775, -174.395, 5.67406, 65.7403, 0.0775532, 19.3423
0, 1680.00000, 125.948, -31.6224, 125.246, -151.321, 126.21, 88.8142, 0, 0, 5.68585, -54.6963, 5.71775, -174.395, 5.67406, 65.7403, 0.0775532, 19.3423
0, 1740.00000, 125.948, -31.6224, 125.246, -151.321, 126.21, 88.8142, 0, 0, 5.68585, -54.6963, 5.71775, -174.395, 5.67406, 65.7403, 0.0775532, 19.3423
0, 1800.00000, 125.948, -31.6224, 125.246, -151.321, 126.21, 88.8142, 0, 0, 5.68585, -54.6963, 5.71775, -174.395, 5.67406, 65.7403, 0.0775532, 19.3423
0, 1860.00000, 125.948, -31.6224, 125.246, -151.321, 126.21, 88.8142, 0, 0, 5.68585, -54.6963, 5.71775, -174.395, 5.67406, 65.7403, 0.0775532, 19.3423
0, 1920.00000, 125.948, -31.6224, 125.246, -151.321, 126.21, 88.8142, 0, 0, 5.68585, -54.6963, 5.71775, -174.395, 5.67406, 65.7403, 0.0775532, 19.3423
0, 1980.00000, 125.948, -31.6224, 125.246, -151.321, 126.21, 88.8142, 0, 0, 5.68585, -54.6963, 5.71775, -174.395, 5.67406, 65.7403, 0.0775532, 19.3423
0, 2040.00000, 125.948, -31.6224, 125.246, -151.321, 126.21, 88.8142, 0, 0, 5.68585, -54.6963, 5.71775, -174.395, 5.67406, 65.7403, 0.0775532, 19.3423
0, 2100.00000, 125.948, -31.6224, 125.246, -151.321, 126.21, 88.8142, 0, 0, 5.68585, -54.6963, 5.71775, -174.395, 5.67406, 65.7403, 0.0775532, 19.3423
0, 2160.00000, 125.948, -31.6224, 125.246, -151.321, 126.21, 88.8142, 0, 0, 5.68585, -54.6963, 5.71775, -174.395, 5.67406, 65.7403, 0.0775532, 19.3423
0, 2220.00000, 125.948, -31.6224, 125.246, -151.321, 126.21, 88.8142, 0, 0, 5.68585, -54.6963, 5.71775, -174.395, 5.67406, 65.7403, 0.0775532, 19.3423
0, 2280.00000, 125.948, -31.6224, 125.246, -151.321, 126.21, 88.8142, 0, 0, 5.68585, -54.6963, 5.71775, -174.395, 5.67406, 65.7403, 0.0775532, 19.3423
0, 2340.00000, 125.948, -31.6224, 125.246, -151.321, 126.21, 88.8142, 0, 0, 5.68585, -54.6963, 5.71775, -174.395, 5.67406, 65.7403, 0.0775532, 19.3423
0, 2400.00000, 125.948, -31.6224, 125.246, -151.321, 126.21, 88.8142, 0, 0, 5.68585, -54.6963, 5.71775, -174.395, 5.67406, 65.7403, 0.0775532, 19.3423
0, 2460.00000, 125.948, -31.6224, 125.246, -151.321, 126.21, 88.8142, 0, 0, 5.68585, -54.6963, 5.71775, -174.395, 5.67406, 65.7403, 0.0775532, 19.3423
0, 2520.00000, 125.948, -31.6224, 125.246, -151.321, 126.21, 88.8142, 0, 0, 5.68585, -54.6963, 5.71775, -174.395, 5.67406, 65.7403, 0.0775532, 19.3423
0, 2580.00000, 125.948, -31.6224, 125.246, -151.321, 126.21, 88.8142, 0, 0, 5.68585, -54.6963, 5.71775, -174.395, 5.67406, 65.7403, 0.0775532, 19.3423
0, 2640.00000, 125.948, -31.6224, 125.246, -151.321, 126.21, 88.8142, 0, 0, 5.68585, -54.6963, 5.71775, -174.395, 5.67406, 65.7403, 0.0775532, 19.3423
0, 2700.00000, 125.948, -31.6224, 125.246, -151.321, 126.21, 88.8142, 0, 0, 5.68585, -54.6963, 5.71775, -174.395, 5.67406, 65.7403, 0.0775532, 19.3423
0, 2760.00000, 125.948, -31.6224, 125.246, -151.321, 126.21, 88.8142, 0, 0, 5.68585, -54.6963, 5.71775, -174.395, 5.67406, 65.7403, 0.0775532, 19.3423
0, 2820.00000, 125.948, -31.6224, 125.246, -151.321, 126.21, 88.8142, 0, 0, 5.68585, -54.6963, 5.71775, -174.395, 5.67406, 65.7403, 0.0775532, 19.3423
0, 2880.00000, 125.948, -31.6224, 125.246, -151.321, 126.21, 88.8142, 0, 0, 5.68585, -54.6963, 5.71775, -174.395, 5.67406, 65.7403, 0.0775532, 19.3423
0, 2940.00000, 125.948, -31.6224, 125.246, -151.321, 126.21, 88.8142, 0, 0, 5.68585, -54.6963, 5.71775, -174.395, 5.67406, 65.7403, 0.0775532, 19.3423
0, 3000.00000, 125.948, -31.6224, 125.246, -151.321, 126.21, 88.8142, 0, 0, 5.68585, -54.6963, 5.71775, -174.395, 5.67406, 65.7403, 0.0775532, 19.3423
0, 3060.00000, 125.948, -31.6224, 125.246, -151.321, 126.21, 88.8142, 0, 0, 5.68585, -54.6963, 5.71775, -174.395, 5.67406, 65.7403, 0.0775532, 19.3423
0, 3120.00000, 125.948, -31.6224, 125.246, -151.321, 126.21, 88.8142, 0, 0, 5.68585, -54.6963, 5.71775, -174.395, 5.67406, 65.7403, 0.0775532, 19.3423
0, 3180.00000, 125.948, -31.6224, 125.246, -151.321, 126.21, 88.8142, 0, 0, 5.68585, -54.6963, 5.71775, -174.395, 5.67406, 65.7403, 0.0775532, 19.3423
0, 3240.00000, 125.948, -31.6224, 125.246, -151.321, 126.21, 88.8142, 0, 0, 5.68585, -54.6963, 5.71775, -174.395, 5.67406, 65.7403, 0.0775532, 19.3423
0, 3300.00000, 125.948, -31.6224, 125.246, -151.321, 126.21, 88.8142, 0, 0, 5.68585, -54.6963, 5.71775, -174.395, 5.67406, 65.7403, 0.0775532, 19.3423
0, 3360.00000, 125.948, -31.6224, 125.246, -151.321, 126.21, 88.8142, 0, 0, 5.68585, -54.6963, 5.71775, -174.395, 5.67406, 65.7403, 0.0775532, 19.3423
0, 3420.00000, 125.948, -31.6224, 125.246, -151.321, 126.21, 88.8142, 0, 0, 5.68585, -54.6963, 5.71775, -174.395, 5.67406, 65.7403, 0.0775532, 19.3423
0, 3480.00000, 125.948, -31.6224, 125.246, -151.321, 126.21, 88.8142, 0, 0, 5.68585, -54.6963, 5.71775, -174.395, 5.67406, 65.7403, 0.0775532, 19.3423
0, 3540.00000, 125.948, -31.6224, 125.246, -151.321, 126.21, 88.8142, 0, 0, 5.68585, -54.6963, 5.71775, -174.395, 5.67406, 65.7403, 0.0775532, 19.3423
1, 0.00000, 125.948, -31.6224, 125.246, -151.321, 126.21, 88.8142, 0, 0, 5.68585, -54.6963, 5.71775, -174.395, 5.67406, 65.7403, 0.0775532, 19.3423
1, 60.00000, 126.035, -31.4945, 125.537, -151.287, 126.21, 88.8141, 0, 0, 5.68196, -54.5686, 5.7045, -174.361, 5.67406, 65.7402, 0.0543829, 18.4764
1, 120.00000, 126.035, -31.4945, 125.537, -151.287, 126.21, 88.8141, 0, 0, 5.68195, -54.5684, 5.70447, -174.361, 5.67407, 65.7402, 0.0543326, 18.4891
1, 180.00000, 126.035, -31.4945, 125.537, -151.287, 126.21, 88.8141, 0, 0, 5.68195, -54.5684, 5.70447, -174.361, 5.67407, 65.7402, 0.0543323, 18.4892
1, 240.00000, 126.035, -31.4945, 125.537, -151.287, 126.21, 88.8141, 0, 0, 5.68195, -54.5684, 5.70447, -174.361, 5.67407, 65.7402, 0.0543323, 18.4892
1, 300.00000, 126.035, -31.4945, 125.537, -151.287, 126.21, 88.8141, 0, 0, 5.68195, -54.5684, 5.70447, -174.361, 5.67407, 65.7402, 0.0543323, 18.4892
1, 360.00000, 126.035, -31.4945, 125.537, -151.287, 126.21, 88.8141, 0, 0, 5.68195, -54.5684, 5.70447, -174.361, 5.67407, 65.7402, 0.0543323, 18.4892
1, 420.00000, 126.035, -31.4945, 125.537, -151.287, 126.21, 88.8141, 0, 0, 5.68195, -54.5684, 5.70447, -174.361, 5.67407, 65.7402, 0.0543323, 18.4892
1, 480.00000, 126.035, -31.4945, 125.537, -151.287, 126.21, 88.8141, 0, 0, 5.68195, -54.5684, 5.70447, -174.361, 5.67407, 65.7402, 0.0543323, 18.4892
1, 540.00000, 126.035, -31.4945, 125.537, -151.287, 126.21, 88.8141, 0, 0, 5.68195, -54.5684, 5.70447, -174.361, 5.67407, 65.7402, 0.0543323, 18.4892
1, 600.00000, 126.035, -31.4945, 125.537, -151.287, 126.21, 88.8141, 0, 0, 5.68195, -54.5684, 5.70447, -174.361, 5.67407, 65.7402, 0.0543323, 18.4892
1, 660.00000, 126.035, -31.4945, 125.537, -151.287, 126.21, 88.8141, 0, 0, 5.68195, -54.5684, 5.70447, -174.361, 5.67407, 65.7402, 0.0543323, 18.4892
1, 720.00000, 126.035, -31.4945, 125.537, -151.287, 126.21, 88.8141, 0, 0, 5.68195, -54.5684, 5.70447, -174.361, 5.67407, 65.7402, 0.0543323, 18.4892
1, 780.00000, 126.035, -31.4945, 125.537, -151.287, 126.21, 88.8141, 0, 0, 5.68195, -54.5684, 5.70447, -174.361, 5.67407, 65.7402, 0.0543323, 18.4892
1, 840.00000, 126.035, -31.4945, 125.537, -151.287, 126.21, 88.8141, 0, 0, 5.68195, -54.5684, 5.70447, -174.361, 5.67407, 65.7402, 0.0543323, 18.4892
1, 900.00000, 126.035, -31.4945, 125.537, -151.287, 126.21, 88.8141, 0, 0, 5.68195, -54.5684, 5.70447, -174.361, 5.67407, 65.7402, 0.0543323, 18.4892
1, 960.00000, 126.035, -31.4945, 125.537, -151.287, 126.21, 88.8141, 0, 0, 5.68195, -54.5684, 5.70447, -174.361, 5.67407, 65.7402, 0.0543323, 18.4892
1, 1020.00000, 126.035, -31.4945, 125.537, -151.287, 126.21, 88.8141, 0, 0, 5.68195, -54.5684, 5.70447, -174.361, 5.67407, 65.7402, 0.0543323, 18.4892
1, 1080.00000, 126.035, -31.4945, 125.537, -151.287, 126.21, 88.8141, 0, 0, 5.68195, -54.5684, 5.70447, -174.361, 5.67407, 65.7402, 0.0543323, 18.4892
1, 1140.00000, 126.035, -31.4945, 125.537, -151.287, 126.21, 88.8141, 0, 0, 5.68195, -54.5684, 5.70447, -174.361, 5.67407, 65.7402, 0.0543323, 18.4892
1, 1200.00000, 126.035, -31.4945, 125.537, -151.287, 126.21, 88.8141, 0, 0, 5.68195, -54.5684, 5.70447, -174.361, 5.67407, 65.7402, 0.0543323, 18.4892
1, 1260.00000, 126.035, -31.4945, 125.537, -151.287, 126.21, 88.8141, 0, 0, 5.68195, -54.5684, 5.70447, -174.361, 5.67407, 65.7402, 0.0543323, 18.4892
1, 1320.00000, 126.035, -31.4945, 125.537, -151.287, 126.21, 88.8141, 0, 0, 5.68195, -54.5684, 5.70447, -174.361, 5.67407, 65.7402, 0.0543323, 18.4892
1, 1380.00000, 126.035, -31.4945, 125.537, -151.287, 126.21, 88.8141, 0, 0, 5.68195, -54.5684, 5.70447, -174.361, 5.67407, 65.7402, 0.0543323, 18.4892
1, 1440.00000, 126.035, -31.4945, 125.537, -151.287, 126.21, 88.8141, 0, 0, 5.68195, -54.5684, 5.70447, -174.361, 5.67407, 65.7402, 0.0543323, 18.4892
1, 1500.00000, 126.035, -31.4945, 125.537, -151.287, 126.21, 88.8141, 0, 0, 5.68195, -54.5684, 5.70447, -174.361, 5.67407, 65.7402, 0.0543323, 18.4892
1, 1560.00000, 126.035, -31.4945, 125.537, -151.287, 126.21, 88.8141, 0, 0, 5.68195, -54.5684, 5.70447, -174.361, 5.67407, 65.7402, 0.0543323, 18.4892
1, 1620.00000, 126.035, -31.4945, 125.537, -151.287, 126.21, 88.8141, 0, 0, 5.68195, -54.5684, 5.70447, -174.361, 5.67407, 65.7402, 0.0543323, 18.4892
1, 1680.00000, 126.035, -31.4945, 125.537, -151.287, 126.21, 88.8141, 0, 0, 5.68195, -54.5684, 5.70447, -174.361, 5.67407, 65.7402, 0.0543323, 18.4892
1, 1740.00000, 126.035, -31.4945, 125.537, -151.287, 126.21, 88.8141, 0, 0, 5.68195, -54.5684, 5.70447, -174.361, 5.67407, 65.7402, 0.0543323, 18.4892
1, 1800.00000, 126.035, -31.4945, 125.537, -151.287, 126.21, 88.8141, 0, 0, 5.68195, -54.5684, 5.70447, -174.361, 5.67407, 65.7402, 0.0543323, 18.4892
1, 1860.00000, 126.035, -31.4945, 125.537, -151.287, 126.21, 88.8141, 0, 0, 5.68195, -54.5684, 5.70447, -174.361, 5.67407, 65.7402, 0.0543323, 18.4892
1, 1920.00000, 126.035, -31.4945, 125.537, -151.287, 126.21, 88.8141, 0, 0, 5.68195, -54.5684, 5.70447, -174.361, 5.67407, 65.7402, 0.0543323, 18.4892
1, 1980.00000, 126.035, -31.4945, 125.537, -151.287, 126.21, 88.8141, 0, 0, 5.68195, -54.5684, 5.70447, -174.361, 5.67407, 65.7402, 0.0543323, 18.4892
1, 2040.00000, 126.035, -31.4945, 125.537, -151.287, 126.21, 88.8141, 0, 0, 5.68195, -54.5684, 5.70447, -174.361, 5.67407, 65.7402, 0.0543323, 18.4892
1, 2100.00000, 126.035, -31.4945, 125.537, -151.287, 126.21, 88.8141, 0, 0, 5.68195, -54.5684, 5.70447, -174.361, 5.67407, 65.7402, 0.0543323, 18.4892
1, 2160.00000, 126.035, -31.4945, 125.537, -151.287, 126.21, 88.8141, 0, 0, 5.68195, -54.5684, 5.70447, -174.361, 5.67407, 65.7402, 0.0543323, 18.4892
1, 2220.00000, 126.035, -31.4945, 125.537, -151.287, 126.21, 88.8141, 0, 0, 5.68195, -54.5684, 5.70447, -174.361, 5.67407, 65.7402, 0.0543323, 18.4892
1, 2280.00000, 126.035, -31.4945, 125.537, -151.287, 126.21, 88.8141, 0, 0, 5.68195, -54.5684, 5.70447, -174.361, 5.67407, 65.7402, 0.0543323, 18.4892
1, 2340.00000, 126.035, -31.4945, 125.537, -151.287, 126.21, 88.8141, 0, 0, 5.68195, -54.5684, 5.70447, -174.361, 5.67407, 65.7402, 0.0543323, 18.4892
1, 2400.00000, 126.035, -31.4945, 125.537, -151.287, 126.21, 88.8141, 0, 0, 5.68195, -54.5684, 5.70447, -174.361, 5.67407, 65.7402, 0.0543323, 18.4892
1, 2460.00000, 126.035, -31.4945, 125.537, -151.287, 126.21, 88.8141, 0, 0, 5.68195, -54.5684, 5.70447, -174.361, 5.67407, 65.7402, 0.0543323, 18.4892
1, 2520.00000, 126.035, -31.4945, 125.537, -151.287, 126.21, 88.8141, 0, 0, 5.68195, -54.5684, 5.70447, -174.361, 5.67407, 65.7402, 0.0543323, 18.4892
1, 2580.00000, 126.035, -31.4945, 125.537, -151.287, 126.21, 88.8141, 0, 0, 5.68195, -54.5684, 5.70447, -174.361, 5.67407, 65.7402, 0.0543323, 18.4892
1, 2640.00000, 126.035, -31.4945, 125.537, -151.287, 126.21, 88.8141, 0, 0, 5.68195, -54.5684, 5.70447, -174.361, 5.67407, 65.7402, 0.0543323, 18.4892
1, 2700.00000, 126.035, -31.4945, 125.537, -151.287, 126.21, 88.8141, 0, 0, 5.68195, -54.5684, 5.70447, -174.361, 5.67407, 65.7402, 0.0543323, 18.4892
1, 2760.00000, 126.035, -31.4945, 125.537, -151.287, 126.21, 88.8141, 0, 0, 5.68195, -54.5684, 5.70447, -174.361, 5.67407, 65.7402, 0.0543323, 18.4892
1, 2820.00000, 126.035, -31.4945, 125.537, -151.287, 126.21, 88.8141, 0, 0, 5.68195, -54.5684, 5.70447, -174.361, 5.67407, 65.7402, 0.0543323, 18.4892
1, 2880.00000, 126.035, -31.4945, 125.537, -151.287, 126.21, 88.8141, 0, 0, 5.68195, -54.5684, 5.70447, -174.361, 5.67407, 65.7402, 0.0543323, 18.4892
1, 2940.00000, 126.035, -31.4945, 125.537, -151.287, 126.21, 88.8141, 0, 0, 5.68195, -54.5684, 5.70447, -174.361, 5.67407, 65.7402, 0.0543323, 18.4892
1, 3000.00000, 126.035, -31.4945, 125.537, -151.287, 126.21, 88.8141, 0, 0, 5.68195, -54.5684, 5.70447, -174.361, 5.67407, 65.7402, 0.0543323, 18.4892
1, 3060.00000, 126.035, -31.4945, 125.537, -151.287, 126.21, 88.8141, 0, 0, 5.68195, -54.5684, 5.70447, -174.361, 5.67407, 65.7402, 0.0543323, 18.4892
1, 3120.00000, 126.035, -31.4945, 125.537, -151.287, 126.21, 88.8141, 0, 0, 5.68195, -54.5684, 5.70447, -174.361, 5.67407, 65.7402, 0.0543323, 18.4892
1, 3180.00000, 126.035, -31.4945, 125.537, -151.287, 126.21, 88.8141, 0, 0, 5.68195, -54.5684, 5.70447, -174.361, 5.67407, 65.7402, 0.0543323, 18.4892
1, 3240.00000, 126.035, -31.4945, 125.537, -151.287, 126.21, 88.8141, 0, 0, 5.68195, -54.5684, 5.70447, -174.361, 5.67407, 65.7402, 0.0543323, 18.4892
1, 3300.00000, 126.035, -31.4945, 125.537, -151.287, 126.21, 88.8141, 0, 0, 5.68195, -54.5684, 5.70447, -174.361, 5.67407, 65.7402, 0.0543323, 18.4892
1, 3360.00000, 126.035, -31.4945, 125.537, -151.287, 126.21, 88.8141, 0, 0, 5.68195, -54.5684, 5.70447, -174.361, 5.67407, 65.7402, 0.0543323, 18.4892
1, 3420.00000, 126.035, -31.4945, 125.537, -151.287, 126.21, 88.8141, 0, 0, 5.68195, -54.5684, 5.70447, -174.361, 5.67407, 65.7402, 0.0543323, 18.4892
1, 3480.00000, 126.035, -31.4945, 125.537, -151.287, 126.21, 88.8141, 0, 0, 5.68195, -54.5684, 5.70447, -174.361, 5.67407, 65.7402, 0.0543323, 18.4892
1, 3540.00000, 126.035, -31.4945, 125.537, -151.287, 126.21, 88.8141, 0, 0, 5.68195, -54.5684, 5.70447, -174.361, 5.67407, 65.7402, 0.0543323, 18.4892
2, 0.00000, 126.035, -31.4945, 125.537, -151.287, 126.21, 88.8141, 0, 0, 5.68195, -54.5684, 5.70447, -174.361, 5.67407, 65.7402, 0.0543323, 18.4892
2, 60.00000, 126.035, -31.4945, 125.537, -151.287, 126.21, 88.8141, 0, 0, 5.68195, -54.5684, 5.70447, -174.361, 5.67407, 65.7402, 0.0543323, 18.4892
2, 120.00000, 126.035, -31.4945, 125.537, -151.287, 126.21, 88.8141, 0, 0, 5.68195, -54.5684, 5.70447, -174.361, 5.67407, 65.7402, 0.0543323, 18.4892
2, 180.00000, 126.035, -31.4945, 125.537, -151.287, 126.21, 88.8141, 0, 0, 5.68195, -54.5684, 5.70447, -174.361, 5.67407, 65.7402, 0.0543323, 18.4892
2, 240.00000, 126.035, -31.4945, 125.537, -151.287, 126.21, 88.8141, 0, 0, 5.68195, -54.5684, 5.70447, -174.361, 5.67407, 65.7402, 0.0543323, 18.4892
2, 300.00000, 126.035, -31.4945, 125.537, -151.287, 126.21, 88.8141, 0, 0, 5.68195, -54.5684, 5.70447, -174.361, 5.67407, 65.7402, 0.0543323, 18.4892
2, 360.00000, 126.035, -31.4945, 125.537, -151.287, 126.21, 88.8141, 0, 0, 5.68195, -54.5684, 5.70447, -174.361, 5.67407, 65.7402, 0.0543323, 18.4892
2, 420.00000, 126.035, -31.4945, 125.537, -151.287, 126.21, 88.8141, 0, 0, 5.68195, -54.5684, 5.70447, -174.361, 5.67407, 65.7402, 0.0543323, 18.4892
2, 480.00000, 126.035, -31.4945, 125.537, -151.287, 126.21, 88.8141, 0, 0, 5.68195, -54.5684, 5.70447, -174.361, 5.67407, 65.7402, 0.0543323, 18.4892
2, 540.00000, 126.035, -31.4945, 125.537, -151.287, 126.21, 88.8141, 0, 0, 5.68195, -54.5684, 5.70447, -174.361, 5.67407, 65.7402, 0.0543323, 18.4892
2, 600.00000, 126.035, -31.4945, 125.537, -151.287, 126.21, 88.8141, 0, 0, 5.68195, -54.5684, 5.70447, -174.361, 5.67407, 65.7402, 0.0543323, 18.4892
2, 660.00000, 126.035, -31.4945, 125.537, -151.287, 126.21, 88.8141, 0, 0, 5.68195, -54.5684, 5.70447, -174.361, 5.67407, 65.7402, 0.0543323, 18.4892
2, 720.00000, 126.035, -31.4945, 125.537, -151.287, 126.21, 88.8141, 0, 0, 5.68195, -54.5684, 5.70447, -174.361, 5.67407, 65.7402, 0.0543323, 18.4892
