hour,t(sec),V1,VAngle1,V2,VAngle2,V3,VAngle3,V4,VAngle4,I1,IAngle1,I2,IAngle2,I3,IAngle3,I4,IAngle4
0, 60.00000, 118.603, -32.6847, 117.047, -151.578, 120.524, 88.7245, 0, 0, 5.31913, -55.7585, 5.2416, -174.652, 5.41451, 65.6511, 0.0475928, -97.9214
0, 120.00000, 118.606, -32.6988, 117.047, -151.579, 120.555, 88.7189, 0, 0, 5.31927, -55.7726, 5.24158, -174.652, 5.41607, 65.6455, 0.048012, -98.0205
0, 180.00000, 118.608, -32.7115, 117.047, -151.579, 120.582, 88.714, 0, 0, 5.31939, -55.7853, 5.24156, -174.653, 5.41748, 65.6405, 0.0483859, -98.1079
0, 240.00000, 118.611, -32.7229, 117.046, -151.579, 120.608, 88.7095, 0, 0, 5.31951, -55.7968, 5.24154, -174.653, 5.41874, 65.6359, 0.0487224, -98.1853
0, 300.00000, 118.613, -32.7332, 117.046, -151.58, 120.63, 88.7054, 0, 0, 5.31961, -55.8071, 5.24152, -174.653, 5.41988, 65.6318, 0.0490254, -98.254
0, 360.00000, 118.615, -32.7424, 117.046, -151.58, 120.65, 88.7017, 0, 0, 5.3197, -55.8163, 5.24151, -174.654, 5.4209, 65.6281, 0.0492982, -98.3152
0, 420.00000, 118.617, -32.7508, 117.046, -151.58, 120.669, 88.6984, 0, 0, 5.31977, -55.8247, 5.24149, -174.654, 5.42176, 65.6248, 0.0494794, -98.3482
0, 480.00000, 119.654, -32.6626, 118.006, -151.52, 121.847, 88.8074, 0, 0, 4.67317, -55.7365, 4.60171, -174.594, 4.67139, 65.7338, 0.0479465, 50.6341
0, 540.00000, 119.655, -32.6693, 118.005, -151.521, 121.863, 88.8048, 0, 0, 4.67321, -55.7432, 4.6017, -174.594, 4.67074, 65.7311, 0.0490159, 50.9193
0, 600.00000, 119.656, -32.6753, 118.005, -151.521, 121.878, 88.8024, 0, 0, 4.67325, -55.7492, 4.60169, -174.595, 4.67016, 65.7287, 0.0499762, 51.1668
0, 660.00000, 119.657, -32.6808, 118.005, -151.522, 121.891, 88.8002, 0, 0, 4.67328, -55.7547, 4.60168, -174.595, 4.66965, 65.7265, 0.0508412, 51.3813
0, 720.00000, 119.658, -32.6857, 118.005, -151.522, 121.903, 88.7983, 0, 0, 4.67332, -55.7596, 4.60167, -174.596, 4.66918, 65.7245, 0.0516202, 51.5682
0, 780.00000, 119.658, -32.6901, 118.005, -151.522, 121.914, 88.7965, 0, 0, 4.67334, -55.764, 4.60167, -174.596, 4.66876, 65.7227, 0.0523216, 51.7315
0, 840.00000, 119.659, -32.694, 118.005, -151.522, 121.924, 88.7949, 0, 0, 4.67337, -55.768, 4.60166, -174.596, 4.66838, 65.7212, 0.0529532, 51.8747
0, 900.00000, 119.66, -32.6976, 118.004, -151.523, 121.933, 88.7935, 0, 0, 4.67339, -55.7715, 4.60166, -174.596, 4.66804, 65.7197, 0.0535218, 52.0006
0, 960.00000, 119.106, -32.6704, 118.011, -151.509, 121.465, 88.5801, 0, 0, 4.6494, -55.7444, 4.60193, -174.583, 4.686, 65.5063, 0.0251404, 31.1617
0, 1020.00000, 119.106, -32.6733, 118.011, -151.51, 121.472, 88.579, 0, 0, 4.64941, -55.7472, 4.60193, -174.583, 4.68574, 65.5051, 0.0255302, 31.7132
0, 1080.00000, 119.107, -32.6758, 118.011, -151.51, 121.478, 88.5779, 0, 0, 4.64943, -55.7498, 4.60192, -174.584, 4.68549, 65.5041, 0.0258854, 32.1951
0, 1140.00000, 119.107, -32.6782, 118.011, -151.51, 121.484, 88.577, 0, 0, 4.64944, -55.7521, 4.60192, -174.584, 4.68527, 65.5032, 0.0262065, 32.6175
0, 1200.00000, 119.107, -32.6802, 118.01, -151.51, 121.489, 88.5762, 0, 0, 4.64945, -55.7542, 4.60192, -174.584, 4.68507, 65.5023, 0.0264967, 32.9889
0, 1260.00000, 119.107, -32.6821, 118.01, -151.51, 121.493, 88.5754, 0, 0, 4.64946, -55.756, 4.60191, -174.584, 4.68489, 65.5016, 0.0267588, 33.3162
0, 1320.00000, 119.108, -32.6838, 118.01, -151.51, 121.497, 88.5748, 0, 0, 4.64947, -55.7577, 4.60191, -174.584, 4.68473, 65.5009, 0.0269954, 33.6053
0, 1380.00000, 119.108, -32.6853, 118.01, -151.51, 121.501, 88.5742, 0, 0, 4.64947, -55.7592, 4.60191, -174.584, 4.68459, 65.5003, 0.0272089, 33.8611
0, 1440.00000, 119.108, -32.6867, 118.01, -151.511, 121.504, 88.5736, 0, 0, 4.64948, -55.7606, 4.60191, -174.584, 4.68446, 65.4997, 0.0274015, 34.0879
0, 1500.00000, 119.108, -32.6879, 118.01, -151.511, 121.507, 88.5731, 0, 0, 4.64949, -55.7618, 4.60191, -174.584, 4.68434, 65.4993, 0.0275752, 34.2893
0, 1560.00000, 119.108, -32.689, 118.01, -151.511, 121.51, 88.5727, 0, 0, 4.64949, -55.7629, 4.6019, -174.585, 4.68424, 65.4988, 0.0277318, 34.4684
0, 1620.00000, 119.109, -32.69, 118.01, -151.511, 121.512, 88.5723, 0, 0, 4.6495, -55.7639, 4.6019, -174.585, 4.68414, 65.4984, 0.027873, 34.6279
0, 1680.00000, 119.109, -32.6909, 118.01, -151.511, 121.515, 88.5719, 0, 0, 4.6495, -55.7648, 4.6019, -174.585, 4.68406, 65.498, 0.0280003, 34.77
0, 1740.00000, 119.109, -32.6917, 118.01, -151.511, 121.517, 88.5716, 0, 0, 4.64951, -55.7656, 4.6019, -174.585, 4.68398, 65.4977, 0.0281149, 34.8968
0, 1800.00000, 119.109, -32.6924, 118.01, -151.511, 121.518, 88.5713, 0, 0, 4.64951, -55.7664, 4.6019, -174.585, 4.68391, 65.4974, 0.0282182, 35.0101
0, 1860.00000, 119.109, -32.6931, 118.01, -151.511, 121.52, 88.5711, 0, 0, 4.64951, -55.767, 4.6019, -174.585, 4.68385, 65.4972, 0.0283113, 35.1113
0, 1920.00000, 119.109, -32.6937, 118.01, -151.511, 121.521, 88.5708, 0, 0, 4.64952, -55.7676, 4.6019, -174.585, 4.68379, 65.4969, 0.0283952, 35.2018
0, 1980.00000, 119.109, -32.6942, 118.01, -151.511, 121.523, 88.5706, 0, 0, 4.64952, -55.7681, 4.6019, -174.585, 4.68374, 65.4967, 0.0284707, 35.2828
0, 2040.00000, 119.109, -32.6947, 118.01, -151.511, 121.524, 88.5704, 0, 0, 4.64952, -55.7686, 4.6019, -174.585, 4.6837, 65.4965, 0.0285387, 35.3553
0, 2100.00000, 119.109, -32.6951, 118.01, -151.511, 121.525, 88.5703, 0, 0, 4.64952, -55.769, 4.6019, -174.585, 4.68366, 65.4963, 0.0285999, 35.4203
0, 2160.00000, 119.109, -32.6955, 118.01, -151.511, 121.526, 88.5701, 0, 0, 4.64953, -55.7694, 4.6019, -174.585, 4.68362, 65.4962, 0.0286551, 35.4785
0, 2220.00000, 119.109, -32.6958, 118.01, -151.511, 121.527, 88.57, 0, 0, 4.64953, -55.7698, 4.60189, -174.585, 4.68359, 65.496, 0.0287048, 35.5308
0, 2280.00000, 119.109, -32.6961, 118.01, -151.511, 121.527, 88.5698, 0, 0, 4.64953, -55.7701, 4.60189, -174.585, 4.68356, 65.4959, 0.0287495, 35.5776
0, 2340.00000, 119.109, -32.6964, 118.01, -151.511, 121.528, 88.5697, 0, 0, 4.64953, -55.7704, 4.60189, -174.585, 4.68353, 65.4958, 0.0287898, 35.6197
0, 2400.00000, 119.11, -32.6967, 118.01, -151.511, 121.529, 88.5696, 0, 0, 4.64953, -55.7706, 4.60189, -174.585, 4.68351, 65.4957, 0.028826, 35.6574
0, 2460.00000, 119.11, -32.6969, 118.01, -151.511, 121.529, 88.5695, 0, 0, 4.64953, -55.7708, 4.60189, -174.585, 4.68349, 65.4956, 0.0288586, 35.6913
0, 2520.00000, 119.11, -32.6971, 118.01, -151.511, 121.53, 88.5694, 0, 0, 4.64954, -55.771, 4.60189, -174.585, 4.68347, 65.4955, 0.028888, 35.7217
0, 2580.00000, 119.11, -32.6973, 118.01, -151.511, 121.53, 88.5694, 0, 0, 4.64954, -55.7712, 4.60189, -174.585, 4.68345, 65.4955, 0.0289145, 35.749
0, 2640.00000, 119.11, -32.6975, 118.01, -151.511, 121.531, 88.5693, 0, 0, 4.64954, -55.7714, 4.60189, -174.585, 4.68343, 65.4954, 0.0289383, 35.7736
0, 2700.00000, 119.11, -32.6976, 118.01, -151.511, 121.531, 88.5692, 0, 0, 4.64954, -55.7715, 4.60189, -174.585, 4.68342, 65.4953, 0.0289597, 35.7956
0, 2760.00000, 119.102, -32.695, 118.098, -151.387, 121.882, 88.6047, 0, 0, 4.6492, -55.7689, 4.60572, -174.461, 4.66993, 65.5308, 0.0513222, 47.6273
0, 2820.00000, 119.102, -32.6951, 118.098, -151.387, 121.882, 88.6047, 0, 0, 4.6492, -55.769, 4.60572, -174.461, 4.66992, 65.5308, 0.0513422, 47.6327
0, 2880.00000, 119.102, -32.6952, 118.098, -151.387, 121.882, 88.6047, 0, 0, 4.6492, -55.7691, 4.60572, -174.461, 4.66991, 65.5307, 0.0513591, 47.638
0, 2940.00000, 119.102, -32.6953, 118.098, -151.387, 121.883, 88.6046, 0, 0, 4.6492, -55.7692, 4.60572, -174.461, 4.6699, 65.5307, 0.0513743, 47.6427
0, 3000.00000, 119.102, -32.6954, 118.098, -151.387, 121.883, 88.6046, 0, 0, 4.6492, -55.7693, 4.60572, -174.461, 4.66989, 65.5307, 0.051388, 47.647
0, 3060.00000, 119.102, -32.6955, 118.098, -151.387, 121.883, 88.6045, 0, 0, 4.6492, -55.7694, 4.60572, -174.461, 4.66988, 65.5306, 0.0514003, 47.6508
0, 3120.00000, 119.102, -32.6955, 118.098, -151.387, 121.883, 88.6045, 0, 0, 4.6492, -55.7695, 4.60572, -174.461, 4.66987, 65.5306, 0.0514114, 47.6543
0, 3180.00000, 119.102, -32.6956, 118.098, -151.387, 121.883, 88.6045, 0, 0, 4.6492, -55.7695, 4.60572, -174.461, 4.66987, 65.5306, 0.0514214, 47.6574
0, 3240.00000, 119.102, -32.6957, 118.098, -151.387, 121.884, 88.6045, 0, 0, 4.6492, -55.7696, 4.60572, -174.461, 4.66986, 65.5305, 0.0514304, 47.6602
0, 3300.00000, 119.102, -32.6957, 118.098, -151.387, 121.884, 88.6044, 0, 0, 4.6492, -55.7696, 4.60572, -174.461, 4.66986, 65.5305, 0.0514385, 47.6627
0, 3360.00000, 119.102, -32.6958, 118.098, -151.387, 121.884, 88.6044, 0, 0, 4.6492, -55.7697, 4.60572, -174.461, 4.66985, 65.5305, 0.0514457, 47.6649
0, 3420.00000, 119.102, -32.6958, 118.098, -151.387, 121.884, 88.6044, 0, 0, 4.6492, -55.7697, 4.60572, -174.461, 4.66985, 65.5305, 0.0514523, 47.667
0, 3480.00000, 119.102, -32.6958, 118.098, -151.387, 121.884, 88.6044, 0, 0, 4.6492, -55.7698, 4.60572, -174.461, 4.66985, 65.5305, 0.0514582, 47.6688
0, 3540.00000, 119.102, -32.6959, 118.098, -151.387, 121.884, 88.6044, 0, 0, 4.6492, -55.7698, 4.60572, -174.461, 4.66984, 65.5305, 0.0514635, 47.6704
1, 0.00000, 119.102, -32.6959, 118.098, -151.387, 121.884, 88.6044, 0, 0, 4.6492, -55.7698, 4.60572, -174.461, 4.66984, 65.5304, 0.0514683, 47.6719
1, 60.00000, 119.186, -32.5653, 118.38, -151.354, 121.884, 88.6077, 0, 0, 4.65285, -55.6392, 4.61791, -174.427, 4.66985, 65.5337, 0.052923, 47.2072
1, 120.00000, 119.186, -32.5653, 118.38, -151.354, 121.884, 88.6076, 0, 0, 4.65285, -55.6393, 4.61791, -174.427, 4.66985, 65.5337, 0.0529273, 47.2083
1, 180.00000, 119.186, -32.5654, 118.38, -151.354, 121.884, 88.6076, 0, 0, 4.65285, -55.6393, 4.61791, -174.427, 4.66985, 65.5337, 0.0529307, 47.2094
1, 240.00000, 119.186, -32.5654, 118.38, -151.354, 121.884, 88.6076, 0, 0, 4.65285, -55.6393, 4.61791, -174.427, 4.66984, 65.5337, 0.0529339, 47.2104
1, 300.00000, 119.186, -32.5654, 118.38, -151.354, 121.884, 88.6076, 0, 0, 4.65285, -55.6393, 4.61791, -174.427, 4.66984, 65.5337, 0.0529367, 47.2113
1, 360.00000, 119.186, -32.5654, 118.38, -151.354, 121.884, 88.6076, 0, 0, 4.65285, -55.6393, 4.61791, -174.427, 4.66984, 65.5337, 0.0529392, 47.212
1, 420.00000, 119.186, -32.5654, 118.38, -151.354, 121.884, 88.6076, 0, 0, 4.65285, -55.6393, 4.61791, -174.427, 4.66984, 65.5337, 0.0529415, 47.2128
1, 480.00000, 119.186, -32.5654, 118.38, -151.354, 121.884, 88.6076, 0, 0, 4.65285, -55.6394, 4.61791, -174.427, 4.66984, 65.5337, 0.0529435, 47.2134
1, 540.00000, 119.186, -32.5654, 118.38, -151.354, 121.884, 88.6076, 0, 0, 4.65285, -55.6394, 4.61791, -174.427, 4.66984, 65.5337, 0.0529454, 47.214
1, 600.00000, 119.186, -32.5655, 118.38, -151.354, 121.884, 88.6076, 0, 0, 4.65285, -55.6394, 4.61791, -174.427, 4.66984, 65.5337, 0.0529471, 47.2145
1, 660.00000, 119.186, -32.5655, 118.38, -151.354, 121.884, 88.6076, 0, 0, 4.65285, -55.6394, 4.61791, -174.427, 4.66983, 65.5337, 0.0529485, 47.215
1, 720.00000, 119.186, -32.5655, 118.38, -151.354, 121.884, 88.6076, 0, 0, 4.65285, -55.6394, 4.61791, -174.427, 4.66983, 65.5337, 0.0529499, 47.2154
1, 780.00000, 119.186, -32.5655, 118.38, -151.354, 121.884, 88.6076, 0, 0, 4.65285, -55.6394, 4.61791, -174.427, 4.66983, 65.5337, 0.0529511, 47.2157
1, 840.00000, 119.186, -32.5655, 118.38, -151.354, 121.884, 88.6076, 0, 0, 4.65285, -55.6394, 4.61791, -174.427, 4.66983, 65.5337, 0.0529522, 47.2161
1, 900.00000, 119.186, -32.5655, 118.38, -151.354, 121.884, 88.6076, 0, 0, 4.65285, -55.6394, 4.61791, -174.427, 4.66983, 65.5337, 0.0529532, 47.2164
1, 960.00000, 119.186, -32.5655, 118.38, -151.354, 121.884, 88.6076, 0, 0, 4.65285, -55.6394, 4.61791, -174.427, 4.66983, 65.5337, 0.0529541, 47.2167
1, 1020.00000, 119.186, -32.5655, 118.38, -151.354, 121.884, 88.6076, 0, 0, 4.65285, -55.6394, 4.61791, -174.427, 4.66983, 65.5337, 0.0529549, 47.2169
1, 1080.00000, 119.186, -32.5655, 118.38, -151.354, 121.884, 88.6076, 0, 0, 4.65285, -55.6394, 4.61791, -174.427, 4.66983, 65.5337, 0.0529556, 47.2171
1, 1140.00000, 119.186, -32.5655, 118.38, -151.354, 121.884, 88.6076, 0, 0, 4.65285, -55.6394, 4.61791, -174.427, 4.66983, 65.5337, 0.0529562, 47.2173
1, 1200.00000, 119.186, -32.5655, 118.38, -151.354, 121.884, 88.6076, 0, 0, 4.65285, -55.6394, 4.61791, -174.427, 4.66983, 65.5336, 0.0529568, 47.2175
1, 1260.00000, 119.186, -32.5655, 118.38, -151.354, 121.884, 88.6076, 0, 0, 4.65285, -55.6394, 4.61791, -174.427, 4.66983, 65.5336, 0.0529573, 47.2177
1, 1320.00000, 119.186, -32.5655, 118.38, -151.354, 121.884, 88.6076, 0, 0, 4.65285, -55.6394, 4.61791, -174.427, 4.66983, 65.5336, 0.0529578, 47.2178
1, 1380.00000, 119.186, -32.5655, 118.38, -151.354, 121.884, 88.6076, 0, 0, 4.65285, -55.6395, 4.61791, -174.427, 4.66983, 65.5336, 0.0529582, 47.218
1, 1440.00000, 119.186, -32.5655, 118.38, -151.354, 121.884, 88.6076, 0, 0, 4.65285, -55.6395, 4.61791, -174.427, 4.66983, 65.5336, 0.0529586, 47.2181
1, 1500.00000, 119.186, -32.5655, 118.38, -151.354, 121.884, 88.6076, 0, 0, 4.65285, -55.6395, 4.61791, -174.427, 4.66983, 65.5336, 0.0529589, 47.2182
1, 1560.00000, 119.186, -32.5655, 118.38, -151.354, 121.884, 88.6076, 0, 0, 4.65285, -55.6395, 4.61791, -174.427, 4.66983, 65.5336, 0.0529592, 47.2183
1, 1620.00000, 119.186, -32.5655, 118.38, -151.354, 121.884, 88.6076, 0, 0, 4.65285, -55.6395, 4.61791, -174.427, 4.66983, 65.5336, 0.0529595, 47.2184
1, 1680.00000, 119.186, -32.5655, 118.38, -151.354, 121.884, 88.6076, 0, 0, 4.65285, -55.6395, 4.61791, -174.427, 4.66983, 65.5336, 0.0529598, 47.2184
1, 1740.00000, 119.186, -32.5655, 118.38, -151.354, 121.884, 88.6076, 0, 0, 4.65285, -55.6395, 4.61791, -174.427, 4.66983, 65.5336, 0.05296, 47.2185
1, 1800.00000, 119.186, -32.5655, 118.38, -151.354, 121.884, 88.6076, 0, 0, 4.65285, -55.6395, 4.61791, -174.427, 4.66983, 65.5336, 0.0529602, 47.2186
1, 1860.00000, 119.186, -32.5655, 118.38, -151.354, 121.885, 88.6076, 0, 0, 4.65285, -55.6395, 4.61791, -174.427, 4.66983, 65.5336, 0.0529604, 47.2186
1, 1920.00000, 119.186, -32.5655, 118.38, -151.354, 121.885, 88.6076, 0, 0, 4.65285, -55.6395, 4.61791, -174.427, 4.66983, 65.5336, 0.0529605, 47.2187
1, 1980.00000, 119.186, -32.5655, 118.38, -151.354, 121.885, 88.6076, 0, 0, 4.65285, -55.6395, 4.61791, -174.427, 4.66983, 65.5336, 0.0529607, 47.2187
1, 2040.00000, 119.186, -32.5655, 118.38, -151.354, 121.885, 88.6076, 0, 0, 4.65285, -55.6395, 4.61791, -174.427, 4.66983, 65.5336, 0.0529608, 47.2188
1, 2100.00000, 119.186, -32.5656, 118.38, -151.354, 121.885, 88.6076, 0, 0, 4.65285, -55.6395, 4.61791, -174.427, 4.66983, 65.5336, 0.0529609, 47.2188
1, 2160.00000, 119.186, -32.5656, 118.38, -151.354, 121.885, 88.6076, 0, 0, 4.65285, -55.6395, 4.61791, -174.427, 4.66983, 65.5336, 0.052961, 47.2188
1, 2220.00000, 119.186, -32.5656, 118.38, -151.354, 121.885, 88.6076, 0, 0, 4.65285, -55.6395, 4.61791, -174.427, 4.66983, 65.5336, 0.0529611, 47.2189
1, 2280.00000, 119.186, -32.5656, 118.38, -151.354, 121.885, 88.6076, 0, 0, 4.65285, -55.6395, 4.61791, -174.427, 4.66983, 65.5336, 0.0529612, 47.2189
1, 2340.00000, 119.186, -32.5656, 118.38, -151.354, 121.885, 88.6076, 0, 0, 4.65285, -55.6395, 4.61791, -174.427, 4.66983, 65.5336, 0.0529613, 47.2189
1, 2400.00000, 119.186, -32.5656, 118.38, -151.354, 121.885, 88.6076, 0, 0, 4.65285, -55.6395, 4.61791, -174.427, 4.66983, 65.5336, 0.0529614, 47.2189
1, 2460.00000, 119.186, -32.5656, 118.38, -151.354, 121.885, 88.6076, 0, 0, 4.65285, -55.6395, 4.61791, -174.427, 4.66983, 65.5336, 0.0529614, 47.219
1, 2520.00000, 119.186, -32.5656, 118.38, -151.354, 121.885, 88.6076, 0, 0, 4.65285, -55.6395, 4.61791, -174.427, 4.66983, 65.5336, 0.0529615, 47.219
1, 2580.00000, 119.186, -32.5656, 118.38, -151.354, 121.885, 88.6076, 0, 0, 4.65285, -55.6395, 4.61791, -174.427, 4.66983, 65.5336, 0.0529615, 47.219
1, 2640.00000, 119.186, -32.5656, 118.38, -151.354, 121.885, 88.6076, 0, 0, 4.65285, -55.6395, 4.61791, -174.427, 4.66983, 65.5336, 0.0529616, 47.219
1, 2700.00000, 119.186, -32.5656, 118.38, -151.354, 121.885, 88.6076, 0, 0, 4.65285, -55.6395, 4.61791, -174.427, 4.66983, 65.5336, 0.0529616, 47.219
1, 2760.00000, 119.186, -32.5656, 118.38, -151.354, 121.885, 88.6076, 0, 0, 4.65285, -55.6395, 4.61791, -174.427, 4.66983, 65.5336, 0.0529617, 47.219
1, 2820.00000, 119.186, -32.5656, 118.38, -151.354, 121.885, 88.6076, 0, 0, 4.65285, -55.6395, 4.61791, -174.427, 4.66983, 65.5336, 0.0529617, 47.219
1, 2880.00000, 119.186, -32.5656, 118.38, -151.354, 121.885, 88.6076, 0, 0, 4.65285, -55.6395, 4.61791, -174.427, 4.66983, 65.5336, 0.0529617, 47.2191
1, 2940.00000, 119.186, -32.5656, 118.38, -151.354, 121.885, 88.6076, 0, 0, 4.65285, -55.6395, 4.61791, -174.427, 4.66983, 65.5336, 0.0529618, 47.2191
1, 3000.00000, 119.186, -32.5656, 118.38, -151.354, 121.885, 88.6076, 0, 0, 4.65285, -55.6395, 4.61791, -174.427, 4.66983, 65.5336, 0.0529618, 47.2191
1, 3060.00000, 119.186, -32.5656, 118.38, -151.354, 121.885, 88.6076, 0, 0, 4.65285, -55.6395, 4.61791, -174.427, 4.66983, 65.5336, 0.0529618, 47.2191
1, 3120.00000, 119.186, -32.5656, 118.38, -151.354, 121.885, 88.6076, 0, 0, 4.65285, -55.6395, 4.61791, -174.427, 4.66983, 65.5336, 0.0529618, 47.2191
1, 3180.00000, 119.186, -32.5656, 118.38, -151.354, 121.885, 88.6076, 0, 0, 4.65285, -55.6395, 4.61791, -174.427, 4.66983, 65.5336, 0.0529618, 47.2191
1, 3240.00000, 119.186, -32.5656, 118.38, -151.354, 121.885, 88.6076, 0, 0, 4.65285, -55.6395, 4.61791, -174.427, 4.66983, 65.5336, 0.0529619, 47.2191
1, 3300.00000, 119.186, -32.5656, 118.38, -151.354, 121.885, 88.6076, 0, 0, 4.65285, -55.6395, 4.61791, -174.427, 4.66983, 65.5336, 0.0529619, 47.2191
1, 3360.00000, 119.186, -32.5656, 118.38, -151.354, 121.885, 88.6076, 0, 0, 4.65285, -55.6395, 4.61791, -174.427, 4.66983, 65.5336, 0.0529619, 47.2191
1, 3420.00000, 119.186, -32.5656, 118.38, -151.354, 121.885, 88.6076, 0, 0, 4.65285, -55.6395, 4.61791, -174.427, 4.66983, 65.5336, 0.0529619, 47.2191
1, 3480.00000, 119.186, -32.5656, 118.38, -151.354, 121.885, 88.6076, 0, 0, 4.65285, -55.6395, 4.61791, -174.427, 4.66983, 65.5336, 0.0529619, 47.2191
1, 3540.00000, 119.186, -32.5656, 118.38, -151.354, 121.885, 88.6076, 0, 0, 4.65285, -55.6395, 4.61791, -174.427, 4.66983, 65.5336, 0.0529619, 47.2191
2, 0.00000, 119.186, -32.5656, 118.38, -151.354, 121.885, 88.6076, 0, 0, 4.65285, -55.6395, 4.61791, -174.427, 4.66983, 65.5336, 0.0529619, 47.2191
2, 60.00000, 119.186, -32.5656, 118.38, -151.354, 121.885, 88.6076, 0, 0, 4.65285, -55.6395, 4.61791, -174.427, 4.66983, 65.5336, 0.0529619, 47.2191
2, 120.00000, 119.186, -32.5656, 118.38, -151.354, 121.885, 88.6076, 0, 0, 4.65285, -55.6395, 4.61791, -174.427, 4.66983, 65.5336, 0.0529619, 47.2191
2, 180.00000, 119.186, -32.5656, 118.38, -151.354, 121.885, 88.6076, 0, 0, 4.65285, -55.6395, 4.61791, -174.427, 4.66983, 65.5336, 0.0529619, 47.2191
2, 240.00000, 119.186, -32.5656, 118.38, -151.354, 121.885, 88.6076, 0, 0, 4.65285, -55.6395, 4.61791, -174.427, 4.66983, 65.5336, 0.052962, 47.2191
2, 300.00000, 119.186, -32.5656, 118.38, -151.354, 121.885, 88.6076, 0, 0, 4.65285, -55.6395, 4.61791, -174.427, 4.66983, 65.5336, 0.052962, 47.2191
2, 360.00000, 119.186, -32.5656, 118.38, -151.354, 121.885, 88.6076, 0, 0, 4.65285, -55.6395, 4.61791, -174.427, 4.66983, 65.5336, 0.052962, 47.2191
2, 420.00000, 119.186, -32.5656, 118.38, -151.354, 121.885, 88.6076, 0, 0, 4.65285, -55.6395, 4.61791, -174.427, 4.66983, 65.5336, 0.052962, 47.2191
2, 480.00000, 119.186, -32.5656, 118.38, -151.354, 121.885, 88.6076, 0, 0, 4.65285, -55.6395, 4.61791, -174.427, 4.66983, 65.5336, 0.052962, 47.2191
2, 540.00000, 119.186, -32.5656, 118.38, -151.354, 121.885, 88.6076, 0, 0, 4.65285, -55.6395, 4.61791, -174.427, 4.66983, 65.5336, 0.052962, 47.2191
2, 600.00000, 119.186, -32.5656, 118.38, -151.354, 121.885, 88.6076, 0, 0, 4.65285, -55.6395, 4.61791, -174.427, 4.66983, 65.5336, 0.052962, 47.2191
2, 660.00000, 119.186, -32.5656, 118.38, -151.354, 121.885, 88.6076, 0, 0, 4.65285, -55.6395, 4.61791, -174.427, 4.66983, 65.5336, 0.052962, 47.2191
2, 720.00000, 119.186, -32.5656, 118.38, -151.354, 121.885, 88.6076, 0, 0, 4.65285, -55.6395, 4.61791, -174.427, 4.66983, 65.5336, 0.052962, 47.2191
