hour,t(sec),"P1 (kW)","Q1 (kvar)","P2 (kW)","Q2 (kvar)","P3 (kW)","Q3 (kvar)","P4 (kW)","Q4 (kvar)"
0, 60.00000, 0.667631, 0.284373, 0.629421, 0.268136, 0.663289, 0.282549, 0, 0
0, 120.00000, 0.667626, 0.284374, 0.629146, 0.268018, 0.66329, 0.282551, 0, 0
0, 180.00000, 0.667623, 0.284376, 0.628898, 0.267912, 0.663291, 0.282552, 0, 0
0, 240.00000, 0.66762, 0.284377, 0.628674, 0.267816, 0.663293, 0.282554, 0, 0
0, 300.00000, 0.667617, 0.284378, 0.628472, 0.26773, 0.663294, 0.282555, 0, 0
0, 360.00000, 0.667614, 0.28438, 0.628289, 0.267652, 0.663295, 0.282556, 0, 0
0, 420.00000, 0.667612, 0.284381, 0.628125, 0.267581, 0.663296, 0.282557, 0, 0
0, 480.00000, 0.66761, 0.284382, 0.627976, 0.267518, 0.663296, 0.282558, 0, 0
0, 540.00000, 0.667608, 0.284383, 0.627842, 0.267461, 0.663297, 0.282559, 0, 0
0, 600.00000, 0.667606, 0.284384, 0.627721, 0.267409, 0.663298, 0.28256, 0, 0
0, 660.00000, 0.667605, 0.284384, 0.627612, 0.267362, 0.663299, 0.28256, 0, 0
0, 720.00000, 0.667603, 0.284385, 0.627513, 0.26732, 0.663299, 0.282561, 0, 0
0, 780.00000, 0.667602, 0.284386, 0.627425, 0.267283, 0.6633, 0.282562, 0, 0
0, 840.00000, 0.667601, 0.284387, 0.627345, 0.267248, 0.663301, 0.282562, 0, 0
0, 900.00000, 0.6676, 0.284387, 0.627273, 0.267218, 0.663301, 0.282563, 0, 0
0, 960.00000, 0.653335, 0.278311, 0.612223, 0.260807, 0.646202, 0.275279, 0, 0
0, 1020.00000, 0.653335, 0.278312, 0.612167, 0.260782, 0.646203, 0.27528, 0, 0
0, 1080.00000, 0.653334, 0.278312, 0.612116, 0.260761, 0.646204, 0.27528, 0, 0
0, 1140.00000, 0.653334, 0.278313, 0.61207, 0.260741, 0.646204, 0.27528, 0, 0
0, 1200.00000, 0.653333, 0.278313, 0.612028, 0.260723, 0.646205, 0.275281, 0, 0
0, 1260.00000, 0.653333, 0.278314, 0.611991, 0.260707, 0.646205, 0.275281, 0, 0
0, 1320.00000, 0.653332, 0.278314, 0.611958, 0.260693, 0.646206, 0.275281, 0, 0
0, 1380.00000, 0.653332, 0.278314, 0.611927, 0.26068, 0.646206, 0.275282, 0, 0
0, 1440.00000, 0.653331, 0.278314, 0.6119, 0.260669, 0.646206, 0.275282, 0, 0
0, 1500.00000, 0.653331, 0.278315, 0.611875, 0.260658, 0.646207, 0.275282, 0, 0
0, 1560.00000, 0.653331, 0.278315, 0.611853, 0.260649, 0.646207, 0.275282, 0, 0
0, 1620.00000, 0.653331, 0.278315, 0.611833, 0.26064, 0.646207, 0.275282, 0, 0
0, 1680.00000, 0.65333, 0.278315, 0.611816, 0.260632, 0.646207, 0.275283, 0, 0
0, 1740.00000, 0.65333, 0.278315, 0.611799, 0.260626, 0.646208, 0.275283, 0, 0
0, 1800.00000, 0.65333, 0.278315, 0.611785, 0.260619, 0.646208, 0.275283, 0, 0
0, 1860.00000, 0.61774, 0.263154, 0.580468, 0.247278, 0.613222, 0.261231, 0, 0
0, 1920.00000, 0.617739, 0.263154, 0.580456, 0.247274, 0.613222, 0.261231, 0, 0
0, 1980.00000, 0.617739, 0.263154, 0.580446, 0.247269, 0.613222, 0.261231, 0, 0
0, 2040.00000, 0.617739, 0.263154, 0.580437, 0.247265, 0.613222, 0.261231, 0, 0
0, 2100.00000, 0.617739, 0.263155, 0.580429, 0.247262, 0.613222, 0.261231, 0, 0
0, 2160.00000, 0.617739, 0.263155, 0.580422, 0.247259, 0.613222, 0.261231, 0, 0
0, 2220.00000, 0.617738, 0.263155, 0.580415, 0.247256, 0.613222, 0.261231, 0, 0
0, 2280.00000, 0.617738, 0.263155, 0.580409, 0.247253, 0.613222, 0.261231, 0, 0
0, 2340.00000, 0.617738, 0.263155, 0.580404, 0.247251, 0.613222, 0.261232, 0, 0
0, 2400.00000, 0.617738, 0.263155, 0.580399, 0.247249, 0.613223, 0.261232, 0, 0
0, 2460.00000, 0.617738, 0.263155, 0.580395, 0.247247, 0.613223, 0.261232, 0, 0
0, 2520.00000, 0.617738, 0.263155, 0.580391, 0.247246, 0.613223, 0.261232, 0, 0
0, 2580.00000, 0.617738, 0.263155, 0.580387, 0.247244, 0.613223, 0.261232, 0, 0
0, 2640.00000, 0.617738, 0.263155, 0.580384, 0.247243, 0.613223, 0.261232, 0, 0
0, 2700.00000, 0.617738, 0.263155, 0.580382, 0.247241, 0.613223, 0.261232, 0, 0
0, 2760.00000, 0.604662, 0.257585, 0.571096, 0.243286, 0.603614, 0.257138, 0, 0
0, 2820.00000, 0.604661, 0.257584, 0.571093, 0.243285, 0.603614, 0.257138, 0, 0
0, 2880.00000, 0.604661, 0.257584, 0.571091, 0.243284, 0.603614, 0.257138, 0, 0
0, 2940.00000, 0.604661, 0.257584, 0.571089, 0.243283, 0.603614, 0.257138, 0, 0
0, 3000.00000, 0.604661, 0.257584, 0.571087, 0.243282, 0.603614, 0.257138, 0, 0
0, 3060.00000, 0.604661, 0.257584, 0.571086, 0.243282, 0.603614, 0.257138, 0, 0
0, 3120.00000, 0.604661, 0.257584, 0.571085, 0.243281, 0.603614, 0.257138, 0, 0
0, 3180.00000, 0.604661, 0.257584, 0.571083, 0.243281, 0.603614, 0.257138, 0, 0
0, 3240.00000, 0.604661, 0.257584, 0.571082, 0.24328, 0.603614, 0.257138, 0, 0
0, 3300.00000, 0.604661, 0.257584, 0.571081, 0.24328, 0.603614, 0.257138, 0, 0
0, 3360.00000, 0.604661, 0.257584, 0.571081, 0.243279, 0.603614, 0.257138, 0, 0
0, 3420.00000, 0.604661, 0.257584, 0.57108, 0.243279, 0.603614, 0.257138, 0, 0
0, 3480.00000, 0.604661, 0.257584, 0.571079, 0.243279, 0.603614, 0.257138, 0, 0
0, 3540.00000, 0.604662, 0.257585, 0.570911, 0.243207, 0.604477, 0.257506, 0, 0
1, 0.00000, 0.604661, 0.257584, 0.57091, 0.243207, 0.604477, 0.257506, 0, 0
1, 60.00000, 0.555037, 0.236445, 0.526155, 0.224141, 0.555037, 0.236445, 0, 0
1, 120.00000, 0.555037, 0.236445, 0.526154, 0.224141, 0.555037, 0.236445, 0, 0
1, 180.00000, 0.555037, 0.236445, 0.526154, 0.224141, 0.555037, 0.236445, 0, 0
1, 240.00000, 0.555037, 0.236445, 0.526154, 0.224141, 0.555037, 0.236445, 0, 0
1, 300.00000, 0.555037, 0.236445, 0.526153, 0.22414, 0.555037, 0.236445, 0, 0
1, 360.00000, 0.555037, 0.236445, 0.526153, 0.22414, 0.555037, 0.236445, 0, 0
1, 420.00000, 0.555037, 0.236445, 0.526153, 0.22414, 0.555037, 0.236445, 0, 0
1, 480.00000, 0.555037, 0.236445, 0.526153, 0.22414, 0.555037, 0.236445, 0, 0
1, 540.00000, 0.555037, 0.236445, 0.526152, 0.22414, 0.555037, 0.236445, 0, 0
1, 600.00000, 0.555037, 0.236445, 0.526152, 0.22414, 0.555037, 0.236445, 0, 0
1, 660.00000, 0.555037, 0.236445, 0.526152, 0.22414, 0.555037, 0.236445, 0, 0
1, 720.00000, 0.555037, 0.236445, 0.526152, 0.22414, 0.555037, 0.236445, 0, 0
1, 780.00000, 0.555037, 0.236445, 0.526152, 0.22414, 0.555037, 0.236445, 0, 0
1, 840.00000, 0.555037, 0.236445, 0.526152, 0.22414, 0.555037, 0.236445, 0, 0
1, 900.00000, 0.555037, 0.236445, 0.526152, 0.22414, 0.555037, 0.236445, 0, 0
1, 960.00000, 0.560851, 0.238921, 0.532104, 0.226676, 0.560851, 0.238921, 0, 0
1, 1020.00000, 0.56085, 0.238921, 0.532104, 0.226675, 0.56085, 0.238921, 0, 0
1, 1080.00000, 0.56085, 0.238921, 0.532104, 0.226675, 0.56085, 0.238921, 0, 0
1, 1140.00000, 0.56085, 0.238921, 0.532104, 0.226675, 0.56085, 0.238921, 0, 0
1, 1200.00000, 0.56085, 0.238921, 0.532104, 0.226675, 0.56085, 0.238921, 0, 0
1, 1260.00000, 0.56085, 0.238921, 0.532104, 0.226675, 0.56085, 0.238921, 0, 0
1, 1320.00000, 0.56085, 0.238921, 0.532103, 0.226675, 0.56085, 0.238921, 0, 0
1, 1380.00000, 0.56085, 0.238921, 0.532103, 0.226675, 0.56085, 0.238921, 0, 0
1, 1440.00000, 0.56085, 0.238921, 0.532103, 0.226675, 0.56085, 0.238921, 0, 0
1, 1500.00000, 0.56085, 0.238921, 0.532103, 0.226675, 0.56085, 0.238921, 0, 0
1, 1560.00000, 0.56085, 0.238921, 0.532103, 0.226675, 0.56085, 0.238921, 0, 0
1, 1620.00000, 0.56085, 0.238921, 0.532103, 0.226675, 0.56085, 0.238921, 0, 0
1, 1680.00000, 0.56085, 0.238921, 0.532103, 0.226675, 0.56085, 0.238921, 0, 0
1, 1740.00000, 0.56085, 0.238921, 0.532103, 0.226675, 0.56085, 0.238921, 0, 0
1, 1800.00000, 0.56085, 0.238921, 0.532103, 0.226675, 0.56085, 0.238921, 0, 0
1, 1860.00000, 0.596694, 0.254191, 0.56999, 0.242815, 0.596694, 0.25419, 0, 0
1, 1920.00000, 0.596694, 0.25419, 0.569989, 0.242814, 0.596694, 0.25419, 0, 0
1, 1980.00000, 0.596694, 0.25419, 0.569989, 0.242814, 0.596694, 0.25419, 0, 0
1, 2040.00000, 0.596694, 0.25419, 0.569989, 0.242814, 0.596694, 0.25419, 0, 0
1, 2100.00000, 0.596694, 0.25419, 0.569989, 0.242814, 0.596694, 0.25419, 0, 0
1, 2160.00000, 0.596694, 0.25419, 0.569989, 0.242814, 0.596694, 0.25419, 0, 0
1, 2220.00000, 0.596694, 0.25419, 0.569989, 0.242814, 0.596694, 0.25419, 0, 0
1, 2280.00000, 0.596694, 0.25419, 0.569989, 0.242814, 0.596694, 0.25419, 0, 0
1, 2340.00000, 0.596694, 0.25419, 0.569989, 0.242814, 0.596694, 0.25419, 0, 0
1, 2400.00000, 0.596694, 0.25419, 0.569989, 0.242814, 0.596694, 0.25419, 0, 0
1, 2460.00000, 0.596694, 0.25419, 0.569989, 0.242814, 0.596694, 0.25419, 0, 0
1, 2520.00000, 0.596694, 0.25419, 0.569989, 0.242814, 0.596694, 0.25419, 0, 0
1, 2580.00000, 0.596694, 0.25419, 0.569989, 0.242814, 0.596694, 0.25419, 0, 0
1, 2640.00000, 0.596694, 0.25419, 0.569989, 0.242814, 0.596694, 0.25419, 0, 0
1, 2700.00000, 0.596694, 0.25419, 0.569989, 0.242814, 0.596694, 0.25419, 0, 0
1, 2760.00000, 0.563275, 0.239954, 0.542352, 0.231041, 0.563275, 0.239954, 0, 0
1, 2820.00000, 0.563275, 0.239954, 0.542351, 0.231041, 0.563275, 0.239954, 0, 0
1, 2880.00000, 0.563275, 0.239954, 0.542351, 0.231041, 0.563275, 0.239954, 0, 0
1, 2940.00000, 0.563275, 0.239954, 0.542351, 0.231041, 0.563275, 0.239954, 0, 0
1, 3000.00000, 0.563275, 0.239954, 0.542351, 0.231041, 0.563275, 0.239954, 0, 0
1, 3060.00000, 0.563275, 0.239954, 0.542351, 0.231041, 0.563275, 0.239954, 0, 0
1, 3120.00000, 0.563275, 0.239954, 0.542351, 0.231041, 0.563275, 0.239954, 0, 0
1, 3180.00000, 0.563275, 0.239954, 0.542351, 0.231041, 0.563275, 0.239954, 0, 0
1, 3240.00000, 0.563275, 0.239954, 0.542351, 0.231041, 0.563275, 0.239954, 0, 0
1, 3300.00000, 0.563275, 0.239954, 0.542351, 0.231041, 0.563275, 0.239954, 0, 0
1, 3360.00000, 0.563275, 0.239954, 0.542351, 0.231041, 0.563275, 0.239954, 0, 0
1, 3420.00000, 0.563275, 0.239954, 0.542351, 0.231041, 0.563275, 0.239954, 0, 0
1, 3480.00000, 0.563275, 0.239954, 0.542351, 0.231041, 0.563275, 0.239954, 0, 0
1, 3540.00000, 0.563275, 0.239954, 0.542351, 0.231041, 0.563275, 0.239954, 0, 0
2, 0.00000, 0.563275, 0.239954, 0.542351, 0.231041, 0.563275, 0.239954, 0, 0
2, 60.00000, 0.599409, 0.255347, 0.574608, 0.244782, 0.599409, 0.255347, 0, 0
2, 120.00000, 0.599409, 0.255347, 0.574608, 0.244782, 0.599409, 0.255347, 0, 0
2, 180.00000, 0.599409, 0.255347, 0.574608, 0.244782, 0.599409, 0.255347, 0, 0
2, 240.00000, 0.599409, 0.255347, 0.574608, 0.244782, 0.599409, 0.255347, 0, 0
2, 300.00000, 0.599409, 0.255347, 0.574608, 0.244782, 0.599409, 0.255347, 0, 0
2, 360.00000, 0.599409, 0.255347, 0.574608, 0.244782, 0.599409, 0.255347, 0, 0
2, 420.00000, 0.599409, 0.255347, 0.574608, 0.244782, 0.599409, 0.255347, 0, 0
2, 480.00000, 0.599409, 0.255347, 0.574608, 0.244782, 0.599409, 0.255347, 0, 0
2, 540.00000, 0.599409, 0.255347, 0.574608, 0.244782, 0.599409, 0.255347, 0, 0
2, 600.00000, 0.599409, 0.255347, 0.574608, 0.244782, 0.599409, 0.255347, 0, 0
2, 660.00000, 0.599409, 0.255347, 0.574608, 0.244782, 0.599409, 0.255347, 0, 0
2, 720.00000, 0.599409, 0.255347, 0.574608, 0.244782, 0.599409, 0.255347, 0, 0
2, 780.00000, 0.599409, 0.255347, 0.574608, 0.244782, 0.599409, 0.255347, 0, 0
2, 840.00000, 0.599409, 0.255347, 0.574608, 0.244782, 0.599409, 0.255347, 0, 0
2, 900.00000, 0.599409, 0.255347, 0.574608, 0.244782, 0.599409, 0.255347, 0, 0
2, 960.00000, 0.576186, 0.245454, 0.555449, 0.23662, 0.576185, 0.245454, 0, 0
2, 1020.00000, 0.576185, 0.245454, 0.555449, 0.23662, 0.576185, 0.245454, 0, 0
2, 1080.00000, 0.576185, 0.245454, 0.555449, 0.23662, 0.576185, 0.245454, 0, 0
2, 1140.00000, 0.576185, 0.245454, 0.555449, 0.23662, 0.576185, 0.245454, 0, 0
2, 1200.00000, 0.576185, 0.245454, 0.555449, 0.23662, 0.576185, 0.245454, 0, 0
2, 1260.00000, 0.576185, 0.245454, 0.555449, 0.23662, 0.576185, 0.245454, 0, 0
2, 1320.00000, 0.576185, 0.245454, 0.555449, 0.23662, 0.576185, 0.245454, 0, 0
2, 1380.00000, 0.576185, 0.245454, 0.555449, 0.23662, 0.576185, 0.245454, 0, 0
2, 1440.00000, 0.576185, 0.245454, 0.555449, 0.23662, 0.576185, 0.245454, 0, 0
2, 1500.00000, 0.576185, 0.245454, 0.555449, 0.23662, 0.576185, 0.245454, 0, 0
2, 1560.00000, 0.576185, 0.245454, 0.555449, 0.23662, 0.576185, 0.245454, 0, 0
2, 1620.00000, 0.576185, 0.245454, 0.555449, 0.23662, 0.576185, 0.245454, 0, 0
2, 1680.00000, 0.576185, 0.245454, 0.555449, 0.23662, 0.576185, 0.245454, 0, 0
2, 1740.00000, 0.576185, 0.245454, 0.555449, 0.23662, 0.576185, 0.245454, 0, 0
2, 1800.00000, 0.576185, 0.245454, 0.555449, 0.23662, 0.576185, 0.245454, 0, 0
2, 1860.00000, 0.615294, 0.262114, 0.591695, 0.252061, 0.615294, 0.262114, 0, 0
2, 1920.00000, 0.615294, 0.262114, 0.591696, 0.252061, 0.615294, 0.262114, 0, 0
2, 1980.00000, 0.615294, 0.262114, 0.591696, 0.252061, 0.615294, 0.262114, 0, 0
2, 2040.00000, 0.615294, 0.262114, 0.591696, 0.252061, 0.615294, 0.262114, 0, 0
2, 2100.00000, 0.615294, 0.262114, 0.591696, 0.252061, 0.615294, 0.262114, 0, 0
2, 2160.00000, 0.615294, 0.262114, 0.591696, 0.252061, 0.615294, 0.262114, 0, 0
2, 2220.00000, 0.615294, 0.262114, 0.591696, 0.252061, 0.615294, 0.262114, 0, 0
2, 2280.00000, 0.615294, 0.262114, 0.591696, 0.252061, 0.615294, 0.262114, 0, 0
2, 2340.00000, 0.615294, 0.262114, 0.591696, 0.252061, 0.615294, 0.262114, 0, 0
2, 2400.00000, 0.615294, 0.262114, 0.591696, 0.252061, 0.615294, 0.262114, 0, 0
2, 2460.00000, 0.615294, 0.262114, 0.591696, 0.252061, 0.615294, 0.262114, 0, 0
2, 2520.00000, 0.615294, 0.262114, 0.591696, 0.252061, 0.615294, 0.262114, 0, 0
2, 2580.00000, 0.615294, 0.262114, 0.591696, 0.252061, 0.615294, 0.262114, 0, 0
2, 2640.00000, 0.615294, 0.262114, 0.591696, 0.252061, 0.615294, 0.262114, 0, 0
2, 2700.00000, 0.615294, 0.262114, 0.591696, 0.252061, 0.615294, 0.262114, 0, 0
2, 2760.00000, 0.567983, 0.24196, 0.549653, 0.234151, 0.567982, 0.241959, 0, 0
2, 2820.00000, 0.567982, 0.241959, 0.549652, 0.234151, 0.567982, 0.241959, 0, 0
2, 2880.00000, 0.567982, 0.241959, 0.549652, 0.234151, 0.567982, 0.241959, 0, 0
2, 2940.00000, 0.567982, 0.241959, 0.549652, 0.234151, 0.567982, 0.241959, 0, 0
2, 3000.00000, 0.567982, 0.241959, 0.549652, 0.234151, 0.567982, 0.241959, 0, 0
2, 3060.00000, 0.567982, 0.241959, 0.549652, 0.234151, 0.567982, 0.241959, 0, 0
2, 3120.00000, 0.567982, 0.241959, 0.549652, 0.234151, 0.567982, 0.241959, 0, 0
2, 3180.00000, 0.567982, 0.241959, 0.549652, 0.234151, 0.567982, 0.241959, 0, 0
2, 3240.00000, 0.567982, 0.241959, 0.549652, 0.234151, 0.567982, 0.241959, 0, 0
2, 3300.00000, 0.567982, 0.241959, 0.549652, 0.234151, 0.567982, 0.241959, 0, 0
2, 3360.00000, 0.567982, 0.241959, 0.549652, 0.234151, 0.567982, 0.241959, 0, 0
2, 3420.00000, 0.567982, 0.241959, 0.549652, 0.234151, 0.567982, 0.241959, 0, 0
2, 3480.00000, 0.567982, 0.241959, 0.549652, 0.234151, 0.567982, 0.241959, 0, 0
2, 3540.00000, 0.567982, 0.241959, 0.549652, 0.234151, 0.567982, 0.241959, 0, 0
3, 0.00000, 0.567982, 0.241959, 0.549652, 0.234151, 0.567982, 0.241959, 0, 0
3, 60.00000, 0.608311, 0.259139, 0.586706, 0.249936, 0.608311, 0.259139, 0, 0
3, 120.00000, 0.608311, 0.259139, 0.586706, 0.249936, 0.608311, 0.259139, 0, 0
3, 180.00000, 0.608311, 0.259139, 0.586706, 0.249936, 0.608311, 0.259139, 0, 0
3, 240.00000, 0.608311, 0.259139, 0.586706, 0.249936, 0.608311, 0.259139, 0, 0
3, 300.00000, 0.608311, 0.259139, 0.586706, 0.249936, 0.608311, 0.259139, 0, 0
3, 360.00000, 0.608311, 0.259139, 0.586706, 0.249936, 0.608311, 0.259139, 0, 0
3, 420.00000, 0.608311, 0.259139, 0.586706, 0.249936, 0.608311, 0.259139, 0, 0
3, 480.00000, 0.608311, 0.259139, 0.586706, 0.249936, 0.608311, 0.259139, 0, 0
3, 540.00000, 0.608311, 0.259139, 0.586706, 0.249936, 0.608311, 0.259139, 0, 0
3, 600.00000, 0.608311, 0.259139, 0.586706, 0.249936, 0.608311, 0.259139, 0, 0
3, 660.00000, 0.608311, 0.259139, 0.586706, 0.249936, 0.608311, 0.259139, 0, 0
3, 720.00000, 0.608311, 0.259139, 0.586706, 0.249936, 0.608311, 0.259139, 0, 0
3, 780.00000, 0.608311, 0.259139, 0.586706, 0.249936, 0.608311, 0.259139, 0, 0
3, 840.00000, 0.608311, 0.259139, 0.586706, 0.249936, 0.608311, 0.259139, 0, 0
3, 900.00000, 0.608311, 0.259139, 0.586706, 0.249936, 0.608311, 0.259139, 0, 0
3, 960.00000, 0.56192, 0.239377, 0.54265, 0.231168, 0.56192, 0.239377, 0, 0
3, 1020.00000, 0.561919, 0.239377, 0.542649, 0.231167, 0.561919, 0.239377, 0, 0
3, 1080.00000, 0.561919, 0.239377, 0.542649, 0.231167, 0.561919, 0.239377, 0, 0
3, 1140.00000, 0.561919, 0.239377, 0.542649, 0.231167, 0.561919, 0.239377, 0, 0
3, 1200.00000, 0.561919, 0.239377, 0.542649, 0.231167, 0.561919, 0.239377, 0, 0
3, 1260.00000, 0.561919, 0.239377, 0.542649, 0.231167, 0.561919, 0.239377, 0, 0
3, 1320.00000, 0.561919, 0.239377, 0.542649, 0.231167, 0.561919, 0.239377, 0, 0
3, 1380.00000, 0.561919, 0.239377, 0.542649, 0.231167, 0.561919, 0.239377, 0, 0
3, 1440.00000, 0.561919, 0.239377, 0.542649, 0.231167, 0.561919, 0.239377, 0, 0
3, 1500.00000, 0.561919, 0.239377, 0.542649, 0.231167, 0.561919, 0.239377, 0, 0
3, 1560.00000, 0.561919, 0.239377, 0.542649, 0.231167, 0.561919, 0.239377, 0, 0
3, 1620.00000, 0.561919, 0.239377, 0.542649, 0.231167, 0.561919, 0.239377, 0, 0
3, 1680.00000, 0.561919, 0.239377, 0.542649, 0.231167, 0.561919, 0.239377, 0, 0
3, 1740.00000, 0.561919, 0.239377, 0.542649, 0.231167, 0.561919, 0.239377, 0, 0
3, 1800.00000, 0.561919, 0.239377, 0.542649, 0.231167, 0.561919, 0.239377, 0, 0
3, 1860.00000, 0.523609, 0.223056, 0.505758, 0.215452, 0.523609, 0.223056, 0, 0
3, 1920.00000, 0.523609, 0.223056, 0.505758, 0.215452, 0.523609, 0.223056, 0, 0
3, 1980.00000, 0.523609, 0.223056, 0.505758, 0.215452, 0.523609, 0.223056, 0, 0
3, 2040.00000, 0.523609, 0.223056, 0.505758, 0.215452, 0.523609, 0.223056, 0, 0
3, 2100.00000, 0.523609, 0.223056, 0.505758, 0.215452, 0.523609, 0.223056, 0, 0
3, 2160.00000, 0.523609, 0.223056, 0.505758, 0.215452, 0.523609, 0.223056, 0, 0
3, 2220.00000, 0.523609, 0.223056, 0.505758, 0.215452, 0.523609, 0.223056, 0, 0
3, 2280.00000, 0.523609, 0.223056, 0.505758, 0.215452, 0.523609, 0.223056, 0, 0
3, 2340.00000, 0.523609, 0.223056, 0.505758, 0.215452, 0.523609, 0.223056, 0, 0
3, 2400.00000, 0.523609, 0.223056, 0.505758, 0.215452, 0.523609, 0.223056, 0, 0
3, 2460.00000, 0.523609, 0.223056, 0.505758, 0.215452, 0.523609, 0.223056, 0, 0
3, 2520.00000, 0.523609, 0.223056, 0.505758, 0.215452, 0.523609, 0.223056, 0, 0
3, 2580.00000, 0.523609, 0.223056, 0.505758, 0.215452, 0.523609, 0.223056, 0, 0
3, 2640.00000, 0.523609, 0.223056, 0.505758, 0.215452, 0.523609, 0.223056, 0, 0
3, 2700.00000, 0.523609, 0.223056, 0.505758, 0.215452, 0.523609, 0.223056, 0, 0
3, 2760.00000, 0.55189, 0.235104, 0.536304, 0.228464, 0.55189, 0.235104, 0, 0
3, 2820.00000, 0.55189, 0.235104, 0.536303, 0.228464, 0.55189, 0.235104, 0, 0
3, 2880.00000, 0.55189, 0.235104, 0.536303, 0.228464, 0.55189, 0.235104, 0, 0
3, 2940.00000, 0.55189, 0.235104, 0.536303, 0.228464, 0.55189, 0.235104, 0, 0
3, 3000.00000, 0.55189, 0.235104, 0.536303, 0.228464, 0.55189, 0.235104, 0, 0
3, 3060.00000, 0.55189, 0.235104, 0.536303, 0.228464, 0.55189, 0.235104, 0, 0
3, 3120.00000, 0.55189, 0.235104, 0.536303, 0.228464, 0.55189, 0.235104, 0, 0
3, 3180.00000, 0.55189, 0.235104, 0.536303, 0.228464, 0.55189, 0.235104, 0, 0
3, 3240.00000, 0.55189, 0.235104, 0.536303, 0.228464, 0.55189, 0.235104, 0, 0
3, 3300.00000, 0.55189, 0.235104, 0.536303, 0.228464, 0.55189, 0.235104, 0, 0
3, 3360.00000, 0.55189, 0.235104, 0.536303, 0.228464, 0.55189, 0.235104, 0, 0
3, 3420.00000, 0.55189, 0.235104, 0.536303, 0.228464, 0.55189, 0.235104, 0, 0
3, 3480.00000, 0.55189, 0.235104, 0.536303, 0.228464, 0.55189, 0.235104, 0, 0
3, 3540.00000, 0.55189, 0.235104, 0.536303, 0.228464, 0.55189, 0.235104, 0, 0
4, 0.00000, 0.55189, 0.235104, 0.536303, 0.228464, 0.55189, 0.235104, 0, 0
4, 60.00000, 0.518741, 0.220983, 0.502111, 0.213898, 0.518741, 0.220983, 0, 0
4, 120.00000, 0.518742, 0.220983, 0.502111, 0.213899, 0.518742, 0.220983, 0, 0
4, 180.00000, 0.518742, 0.220983, 0.502111, 0.213899, 0.518742, 0.220983, 0, 0
4, 240.00000, 0.518742, 0.220983, 0.502111, 0.213899, 0.518742, 0.220983, 0, 0
4, 300.00000, 0.518742, 0.220983, 0.502111, 0.213899, 0.518742, 0.220983, 0, 0
4, 360.00000, 0.518742, 0.220983, 0.502111, 0.213899, 0.518742, 0.220983, 0, 0
4, 420.00000, 0.518742, 0.220983, 0.502111, 0.213899, 0.518742, 0.220983, 0, 0
4, 480.00000, 0.518742, 0.220983, 0.502111, 0.213899, 0.518742, 0.220983, 0, 0
4, 540.00000, 0.518742, 0.220983, 0.502111, 0.213899, 0.518742, 0.220983, 0, 0
4, 600.00000, 0.518742, 0.220983, 0.502111, 0.213899, 0.518742, 0.220983, 0, 0
4, 660.00000, 0.518742, 0.220983, 0.502111, 0.213899, 0.518742, 0.220983, 0, 0
