hour,t(sec),V1,VAngle1,V2,VAngle2,V3,VAngle3,V4,VAngle4,I1,IAngle1,I2,IAngle2,I3,IAngle3,I4,IAngle4
0, 60.00000, 122.471, -31.3521, 122.633, -151.308, 123.048, 88.6248, 0, 0, 4.49028, -54.4258, 4.48434, -174.381, 4.46919, 65.5512, 0.0228486, 87.9081
0, 120.00000, 122.471, -31.3521, 122.633, -151.308, 123.048, 88.6248, 0, 0, 4.49031, -54.4261, 4.48437, -174.381, 4.46925, 65.5509, 0.0228296, 87.9379
0, 180.00000, 122.471, -31.3521, 122.633, -151.308, 123.048, 88.6248, 0, 0, 4.49031, -54.4261, 4.48437, -174.381, 4.46925, 65.5509, 0.0228295, 87.9382
0, 240.00000, 122.471, -31.3521, 122.633, -151.308, 123.048, 88.6248, 0, 0, 4.49031, -54.4261, 4.48437, -174.381, 4.46925, 65.5509, 0.0228295, 87.9382
0, 300.00000, 122.471, -31.3521, 122.633, -151.308, 123.048, 88.6248, 0, 0, 4.49031, -54.4261, 4.48437, -174.381, 4.46925, 65.5509, 0.0228295, 87.9382
0, 360.00000, 122.471, -31.3521, 122.633, -151.308, 123.048, 88.6248, 0, 0, 4.49031, -54.4261, 4.48437, -174.381, 4.46925, 65.5509, 0.0228295, 87.9382
0, 420.00000, 122.471, -31.3521, 122.633, -151.308, 123.048, 88.6248, 0, 0, 4.49031, -54.4261, 4.48437, -174.381, 4.46925, 65.5509, 0.0228295, 87.9382
0, 480.00000, 123.159, -31.2251, 123.29, -151.183, 123.693, 88.7657, 0, 0, 3.88479, -54.2995, 3.88067, -174.258, 3.86808, 65.6912, 0.0180061, 83.8886
0, 540.00000, 123.159, -31.2251, 123.29, -151.184, 123.693, 88.7658, 0, 0, 3.88475, -54.299, 3.88062, -174.257, 3.86797, 65.6919, 0.0180425, 83.808
0, 600.00000, 123.159, -31.2251, 123.29, -151.184, 123.693, 88.7658, 0, 0, 3.88475, -54.299, 3.88062, -174.257, 3.86797, 65.6919, 0.0180433, 83.806
0, 660.00000, 123.159, -31.2251, 123.29, -151.184, 123.693, 88.7658, 0, 0, 3.88475, -54.299, 3.88062, -174.257, 3.86797, 65.6919, 0.0180434, 83.8059
0, 720.00000, 123.159, -31.2251, 123.29, -151.184, 123.693, 88.7658, 0, 0, 3.88475, -54.299, 3.88062, -174.257, 3.86797, 65.6919, 0.0180434, 83.8059
0, 780.00000, 123.159, -31.2251, 123.29, -151.184, 123.693, 88.7658, 0, 0, 3.88475, -54.299, 3.88062, -174.257, 3.86797, 65.6919, 0.0180434, 83.8059
0, 840.00000, 123.159, -31.2251, 123.29, -151.184, 123.693, 88.7658, 0, 0, 3.88475, -54.299, 3.88062, -174.257, 3.86797, 65.6919, 0.0180434, 83.8059
0, 900.00000, 123.159, -31.2251, 123.29, -151.184, 123.693, 88.7658, 0, 0, 3.88475, -54.299, 3.88062, -174.257, 3.86797, 65.6919, 0.0180434, 83.8059
0, 960.00000, 123.159, -31.2251, 123.29, -151.184, 123.693, 88.7658, 0, 0, 3.88475, -54.299, 3.88062, -174.257, 3.86797, 65.6919, 0.0180434, 83.8059
0, 1020.00000, 123.159, -31.2251, 123.29, -151.184, 123.693, 88.7658, 0, 0, 3.88475, -54.299, 3.88062, -174.257, 3.86797, 65.6919, 0.0180434, 83.8059
0, 1080.00000, 123.159, -31.2251, 123.29, -151.184, 123.693, 88.7658, 0, 0, 3.88475, -54.299, 3.88062, -174.257, 3.86797, 65.6919, 0.0180434, 83.8059
0, 1140.00000, 123.159, -31.2251, 123.29, -151.184, 123.693, 88.7658, 0, 0, 3.88475, -54.299, 3.88062, -174.257, 3.86797, 65.6919, 0.0180434, 83.8059
0, 1200.00000, 123.159, -31.2251, 123.29, -151.184, 123.693, 88.7658, 0, 0, 3.88475, -54.299, 3.88062, -174.257, 3.86797, 65.6919, 0.0180434, 83.8059
0, 1260.00000, 123.159, -31.2251, 123.29, -151.184, 123.693, 88.7658, 0, 0, 3.88475, -54.299, 3.88062, -174.257, 3.86797, 65.6919, 0.0180434, 83.8059
0, 1320.00000, 123.159, -31.2251, 123.29, -151.184, 123.693, 88.7658, 0, 0, 3.88475, -54.299, 3.88062, -174.257, 3.86797, 65.6919, 0.0180434, 83.8059
0, 1380.00000, 123.159, -31.2251, 123.29, -151.184, 123.693, 88.7658, 0, 0, 3.88475, -54.299, 3.88062, -174.257, 3.86797, 65.6919, 0.0180434, 83.8059
0, 1440.00000, 123.159, -31.2251, 123.29, -151.184, 123.693, 88.7658, 0, 0, 3.88475, -54.299, 3.88062, -174.257, 3.86797, 65.6919, 0.0180434, 83.8059
0, 1500.00000, 123.159, -31.2251, 123.29, -151.184, 123.693, 88.7658, 0, 0, 3.88475, -54.299, 3.88062, -174.257, 3.86797, 65.6919, 0.0180434, 83.8059
0, 1560.00000, 123.159, -31.2251, 123.29, -151.184, 123.693, 88.7658, 0, 0, 3.88475, -54.299, 3.88062, -174.257, 3.86797, 65.6919, 0.0180434, 83.8059
0, 1620.00000, 123.159, -31.2251, 123.29, -151.184, 123.693, 88.7658, 0, 0, 3.88475, -54.299, 3.88062, -174.257, 3.86797, 65.6919, 0.0180434, 83.8059
0, 1680.00000, 123.159, -31.2251, 123.29, -151.184, 123.693, 88.7658, 0, 0, 3.88475, -54.299, 3.88062, -174.257, 3.86797, 65.6919, 0.0180434, 83.8059
0, 1740.00000, 123.159, -31.2251, 123.29, -151.184, 123.693, 88.7658, 0, 0, 3.88475, -54.299, 3.88062, -174.257, 3.86797, 65.6919, 0.0180434, 83.8059
0, 1800.00000, 123.159, -31.2251, 123.29, -151.184, 123.693, 88.7658, 0, 0, 3.88475, -54.299, 3.88062, -174.257, 3.86797, 65.6919, 0.0180434, 83.8059
0, 1860.00000, 123.159, -31.2251, 123.29, -151.184, 123.693, 88.7658, 0, 0, 3.88475, -54.299, 3.88062, -174.257, 3.86797, 65.6919, 0.0180434, 83.8059
0, 1920.00000, 123.159, -31.2251, 123.29, -151.184, 123.693, 88.7658, 0, 0, 3.88475, -54.299, 3.88062, -174.257, 3.86797, 65.6919, 0.0180434, 83.8059
0, 1980.00000, 123.159, -31.2251, 123.29, -151.184, 123.693, 88.7658, 0, 0, 3.88475, -54.299, 3.88062, -174.257, 3.86797, 65.6919, 0.0180434, 83.8059
0, 2040.00000, 123.159, -31.2251, 123.29, -151.184, 123.693, 88.7658, 0, 0, 3.88475, -54.299, 3.88062, -174.257, 3.86797, 65.6919, 0.0180434, 83.8059
0, 2100.00000, 123.159, -31.2251, 123.29, -151.184, 123.693, 88.7658, 0, 0, 3.88475, -54.299, 3.88062, -174.257, 3.86797, 65.6919, 0.0180434, 83.8059
0, 2160.00000, 123.159, -31.2251, 123.29, -151.184, 123.693, 88.7658, 0, 0, 3.88475, -54.299, 3.88062, -174.257, 3.86797, 65.6919, 0.0180434, 83.8059
0, 2220.00000, 123.159, -31.2251, 123.29, -151.184, 123.693, 88.7658, 0, 0, 3.88475, -54.299, 3.88062, -174.257, 3.86797, 65.6919, 0.0180434, 83.8059
0, 2280.00000, 123.159, -31.2251, 123.29, -151.184, 123.693, 88.7658, 0, 0, 3.88475, -54.299, 3.88062, -174.257, 3.86797, 65.6919, 0.0180434, 83.8059
0, 2340.00000, 123.159, -31.2251, 123.29, -151.184, 123.693, 88.7658, 0, 0, 3.88475, -54.299, 3.88062, -174.257, 3.86797, 65.6919, 0.0180434, 83.8059
0, 2400.00000, 123.159, -31.2251, 123.29, -151.184, 123.693, 88.7658, 0, 0, 3.88475, -54.299, 3.88062, -174.257, 3.86797, 65.6919, 0.0180434, 83.8059
0, 2460.00000, 123.159, -31.2251, 123.29, -151.184, 123.693, 88.7658, 0, 0, 3.88475, -54.299, 3.88062, -174.257, 3.86797, 65.6919, 0.0180434, 83.8059
0, 2520.00000, 123.159, -31.2251, 123.29, -151.184, 123.693, 88.7658, 0, 0, 3.88475, -54.299, 3.88062, -174.257, 3.86797, 65.6919, 0.0180434, 83.8059
0, 2580.00000, 123.159, -31.2251, 123.29, -151.184, 123.693, 88.7658, 0, 0, 3.88475, -54.299, 3.88062, -174.257, 3.86797, 65.6919, 0.0180434, 83.8059
0, 2640.00000, 123.159, -31.2251, 123.29, -151.184, 123.693, 88.7658, 0, 0, 3.88475, -54.299, 3.88062, -174.257, 3.86797, 65.6919, 0.0180434, 83.8059
0, 2700.00000, 123.159, -31.2251, 123.29, -151.184, 123.693, 88.7658, 0, 0, 3.88475, -54.299, 3.88062, -174.257, 3.86797, 65.6919, 0.0180434, 83.8059
0, 2760.00000, 123.159, -31.2251, 123.29, -151.184, 123.693, 88.7658, 0, 0, 3.88475, -54.299, 3.88062, -174.257, 3.86797, 65.6919, 0.0180434, 83.8059
0, 2820.00000, 123.159, -31.2251, 123.29, -151.184, 123.693, 88.7658, 0, 0, 3.88475, -54.299, 3.88062, -174.257, 3.86797, 65.6919, 0.0180434, 83.8059
0, 2880.00000, 123.159, -31.2251, 123.29, -151.184, 123.693, 88.7658, 0, 0, 3.88475, -54.299, 3.88062, -174.257, 3.86797, 65.6919, 0.0180434, 83.8059
0, 2940.00000, 123.159, -31.2251, 123.29, -151.184, 123.693, 88.7658, 0, 0, 3.88475, -54.299, 3.88062, -174.257, 3.86797, 65.6919, 0.0180434, 83.8059
0, 3000.00000, 123.159, -31.2251, 123.29, -151.184, 123.693, 88.7658, 0, 0, 3.88475, -54.299, 3.88062, -174.257, 3.86797, 65.6919, 0.0180434, 83.8059
0, 3060.00000, 123.159, -31.2251, 123.29, -151.184, 123.693, 88.7658, 0, 0, 3.88475, -54.299, 3.88062, -174.257, 3.86797, 65.6919, 0.0180434, 83.8059
0, 3120.00000, 123.159, -31.2251, 123.29, -151.184, 123.693, 88.7658, 0, 0, 3.88475, -54.299, 3.88062, -174.257, 3.86797, 65.6919, 0.0180434, 83.8059
0, 3180.00000, 123.159, -31.2251, 123.29, -151.184, 123.693, 88.7658, 0, 0, 3.88475, -54.299, 3.88062, -174.257, 3.86797, 65.6919, 0.0180434, 83.8059
0, 3240.00000, 123.159, -31.2251, 123.29, -151.184, 123.693, 88.7658, 0, 0, 3.88475, -54.299, 3.88062, -174.257, 3.86797, 65.6919, 0.0180434, 83.8059
0, 3300.00000, 123.159, -31.2251, 123.29, -151.184, 123.693, 88.7658, 0, 0, 3.88475, -54.299, 3.88062, -174.257, 3.86797, 65.6919, 0.0180434, 83.8059
0, 3360.00000, 123.159, -31.2251, 123.29, -151.184, 123.693, 88.7658, 0, 0, 3.88475, -54.299, 3.88062, -174.257, 3.86797, 65.6919, 0.0180434, 83.8059
0, 3420.00000, 123.159, -31.2251, 123.29, -151.184, 123.693, 88.7658, 0, 0, 3.88475, -54.299, 3.88062, -174.257, 3.86797, 65.6919, 0.0180434, 83.8059
0, 3480.00000, 123.159, -31.2251, 123.29, -151.184, 123.693, 88.7658, 0, 0, 3.88475, -54.299, 3.88062, -174.257, 3.86797, 65.6919, 0.0180434, 83.8059
0, 3540.00000, 123.159, -31.2251, 123.29, -151.184, 123.693, 88.7658, 0, 0, 3.88475, -54.299, 3.88062, -174.257, 3.86797, 65.6919, 0.0180434, 83.8059
1, 0.00000, 123.159, -31.2251, 123.29, -151.184, 123.693, 88.7658, 0, 0, 3.88475, -54.299, 3.88062, -174.257, 3.86797, 65.6919, 0.0180434, 83.8059
1, 60.00000, 123.159, -31.2251, 123.29, -151.184, 123.693, 88.7658, 0, 0, 3.88475, -54.299, 3.88062, -174.257, 3.86797, 65.6919, 0.0180434, 83.8059
1, 120.00000, 123.159, -31.2251, 123.29, -151.184, 123.693, 88.7658, 0, 0, 3.88475, -54.299, 3.88062, -174.257, 3.86797, 65.6919, 0.0180434, 83.8059
1, 180.00000, 123.159, -31.2251, 123.29, -151.184, 123.693, 88.7658, 0, 0, 3.88475, -54.299, 3.88062, -174.257, 3.86797, 65.6919, 0.0180434, 83.8059
1, 240.00000, 123.159, -31.2251, 123.29, -151.184, 123.693, 88.7658, 0, 0, 3.88475, -54.299, 3.88062, -174.257, 3.86797, 65.6919, 0.0180434, 83.8059
1, 300.00000, 123.159, -31.2251, 123.29, -151.184, 123.693, 88.7658, 0, 0, 3.88475, -54.299, 3.88062, -174.257, 3.86797, 65.6919, 0.0180434, 83.8059
1, 360.00000, 123.159, -31.2251, 123.29, -151.184, 123.693, 88.7658, 0, 0, 3.88475, -54.299, 3.88062, -174.257, 3.86797, 65.6919, 0.0180434, 83.8059
1, 420.00000, 123.159, -31.2251, 123.29, -151.184, 123.693, 88.7658, 0, 0, 3.88475, -54.299, 3.88062, -174.257, 3.86797, 65.6919, 0.0180434, 83.8059
1, 480.00000, 123.159, -31.2251, 123.29, -151.184, 123.693, 88.7658, 0, 0, 3.88475, -54.299, 3.88062, -174.257, 3.86797, 65.6919, 0.0180434, 83.8059
1, 540.00000, 123.159, -31.2251, 123.29, -151.184, 123.693, 88.7658, 0, 0, 3.88475, -54.299, 3.88062, -174.257, 3.86797, 65.6919, 0.0180434, 83.8059
1, 600.00000, 123.159, -31.2251, 123.29, -151.184, 123.693, 88.7658, 0, 0, 3.88475, -54.299, 3.88062, -174.257, 3.86797, 65.6919, 0.0180434, 83.8059
1, 660.00000, 123.159, -31.2251, 123.29, -151.184, 123.693, 88.7658, 0, 0, 3.88475, -54.299, 3.88062, -174.257, 3.86797, 65.6919, 0.0180434, 83.8059
1, 720.00000, 123.159, -31.2251, 123.29, -151.184, 123.693, 88.7658, 0, 0, 3.88475, -54.299, 3.88062, -174.257, 3.86797, 65.6919, 0.0180434, 83.8059
1, 780.00000, 123.159, -31.2251, 123.29, -151.184, 123.693, 88.7658, 0, 0, 3.88475, -54.299, 3.88062, -174.257, 3.86797, 65.6919, 0.0180434, 83.8059
1, 840.00000, 123.159, -31.2251, 123.29, -151.184, 123.693, 88.7658, 0, 0, 3.88475, -54.299, 3.88062, -174.257, 3.86797, 65.6919, 0.0180434, 83.8059
1, 900.00000, 123.159, -31.2251, 123.29, -151.184, 123.693, 88.7658, 0, 0, 3.88475, -54.299, 3.88062, -174.257, 3.86797, 65.6919, 0.0180434, 83.8059
1, 960.00000, 123.159, -31.2251, 123.29, -151.184, 123.693, 88.7658, 0, 0, 3.88475, -54.299, 3.88062, -174.257, 3.86797, 65.6919, 0.0180434, 83.8059
1, 1020.00000, 123.159, -31.2251, 123.29, -151.184, 123.693, 88.7658, 0, 0, 3.88475, -54.299, 3.88062, -174.257, 3.86797, 65.6919, 0.0180434, 83.8059
1, 1080.00000, 123.159, -31.2251, 123.29, -151.184, 123.693, 88.7658, 0, 0, 3.88475, -54.299, 3.88062, -174.257, 3.86797, 65.6919, 0.0180434, 83.8059
1, 1140.00000, 123.159, -31.2251, 123.29, -151.184, 123.693, 88.7658, 0, 0, 3.88475, -54.299, 3.88062, -174.257, 3.86797, 65.6919, 0.0180434, 83.8059
1, 1200.00000, 123.159, -31.2251, 123.29, -151.184, 123.693, 88.7658, 0, 0, 3.88475, -54.299, 3.88062, -174.257, 3.86797, 65.6919, 0.0180434, 83.8059
1, 1260.00000, 123.159, -31.2251, 123.29, -151.184, 123.693, 88.7658, 0, 0, 3.88475, -54.299, 3.88062, -174.257, 3.86797, 65.6919, 0.0180434, 83.8059
1, 1320.00000, 123.159, -31.2251, 123.29, -151.184, 123.693, 88.7658, 0, 0, 3.88475, -54.299, 3.88062, -174.257, 3.86797, 65.6919, 0.0180434, 83.8059
1, 1380.00000, 123.159, -31.2251, 123.29, -151.184, 123.693, 88.7658, 0, 0, 3.88475, -54.299, 3.88062, -174.257, 3.86797, 65.6919, 0.0180434, 83.8059
1, 1440.00000, 123.159, -31.2251, 123.29, -151.184, 123.693, 88.7658, 0, 0, 3.88475, -54.299, 3.88062, -174.257, 3.86797, 65.6919, 0.0180434, 83.8059
1, 1500.00000, 123.159, -31.2251, 123.29, -151.184, 123.693, 88.7658, 0, 0, 3.88475, -54.299, 3.88062, -174.257, 3.86797, 65.6919, 0.0180434, 83.8059
1, 1560.00000, 123.159, -31.2251, 123.29, -151.184, 123.693, 88.7658, 0, 0, 3.88475, -54.299, 3.88062, -174.257, 3.86797, 65.6919, 0.0180434, 83.8059
1, 1620.00000, 123.159, -31.2251, 123.29, -151.184, 123.693, 88.7658, 0, 0, 3.88475, -54.299, 3.88062, -174.257, 3.86797, 65.6919, 0.0180434, 83.8059
1, 1680.00000, 123.159, -31.2251, 123.29, -151.184, 123.693, 88.7658, 0, 0, 3.88475, -54.299, 3.88062, -174.257, 3.86797, 65.6919, 0.0180434, 83.8059
1, 1740.00000, 123.159, -31.2251, 123.29, -151.184, 123.693, 88.7658, 0, 0, 3.88475, -54.299, 3.88062, -174.257, 3.86797, 65.6919, 0.0180434, 83.8059
1, 1800.00000, 123.159, -31.2251, 123.29, -151.184, 123.693, 88.7658, 0, 0, 3.88475, -54.299, 3.88062, -174.257, 3.86797, 65.6919, 0.0180434, 83.8059
1, 1860.00000, 123.159, -31.2251, 123.29, -151.184, 123.693, 88.7658, 0, 0, 3.88475, -54.299, 3.88062, -174.257, 3.86797, 65.6919, 0.0180434, 83.8059
1, 1920.00000, 123.159, -31.2251, 123.29, -151.184, 123.693, 88.7658, 0, 0, 3.88475, -54.299, 3.88062, -174.257, 3.86797, 65.6919, 0.0180434, 83.8059
1, 1980.00000, 123.159, -31.2251, 123.29, -151.184, 123.693, 88.7658, 0, 0, 3.88475, -54.299, 3.88062, -174.257, 3.86797, 65.6919, 0.0180434, 83.8059
1, 2040.00000, 123.159, -31.2251, 123.29, -151.184, 123.693, 88.7658, 0, 0, 3.88475, -54.299, 3.88062, -174.257, 3.86797, 65.6919, 0.0180434, 83.8059
1, 2100.00000, 123.159, -31.2251, 123.29, -151.184, 123.693, 88.7658, 0, 0, 3.88475, -54.299, 3.88062, -174.257, 3.86797, 65.6919, 0.0180434, 83.8059
1, 2160.00000, 123.159, -31.2251, 123.29, -151.184, 123.693, 88.7658, 0, 0, 3.88475, -54.299, 3.88062, -174.257, 3.86797, 65.6919, 0.0180434, 83.8059
1, 2220.00000, 123.159, -31.2251, 123.29, -151.184, 123.693, 88.7658, 0, 0, 3.88475, -54.299, 3.88062, -174.257, 3.86797, 65.6919, 0.0180434, 83.8059
1, 2280.00000, 123.159, -31.2251, 123.29, -151.184, 123.693, 88.7658, 0, 0, 3.88475, -54.299, 3.88062, -174.257, 3.86797, 65.6919, 0.0180434, 83.8059
1, 2340.00000, 123.159, -31.2251, 123.29, -151.184, 123.693, 88.7658, 0, 0, 3.88475, -54.299, 3.88062, -174.257, 3.86797, 65.6919, 0.0180434, 83.8059
1, 2400.00000, 123.159, -31.2251, 123.29, -151.184, 123.693, 88.7658, 0, 0, 3.88475, -54.299, 3.88062, -174.257, 3.86797, 65.6919, 0.0180434, 83.8059
1, 2460.00000, 123.159, -31.2251, 123.29, -151.184, 123.693, 88.7658, 0, 0, 3.88475, -54.299, 3.88062, -174.257, 3.86797, 65.6919, 0.0180434, 83.8059
1, 2520.00000, 123.159, -31.2251, 123.29, -151.184, 123.693, 88.7658, 0, 0, 3.88475, -54.299, 3.88062, -174.257, 3.86797, 65.6919, 0.0180434, 83.8059
1, 2580.00000, 123.159, -31.2251, 123.29, -151.184, 123.693, 88.7658, 0, 0, 3.88475, -54.299, 3.88062, -174.257, 3.86797, 65.6919, 0.0180434, 83.8059
1, 2640.00000, 123.159, -31.2251, 123.29, -151.184, 123.693, 88.7658, 0, 0, 3.88475, -54.299, 3.88062, -174.257, 3.86797, 65.6919, 0.0180434, 83.8059
1, 2700.00000, 123.159, -31.2251, 123.29, -151.184, 123.693, 88.7658, 0, 0, 3.88475, -54.299, 3.88062, -174.257, 3.86797, 65.6919, 0.0180434, 83.8059
1, 2760.00000, 123.159, -31.2251, 123.29, -151.184, 123.693, 88.7658, 0, 0, 3.88475, -54.299, 3.88062, -174.257, 3.86797, 65.6919, 0.0180434, 83.8059
1, 2820.00000, 123.159, -31.2251, 123.29, -151.184, 123.693, 88.7658, 0, 0, 3.88475, -54.299, 3.88062, -174.257, 3.86797, 65.6919, 0.0180434, 83.8059
1, 2880.00000, 123.159, -31.2251, 123.29, -151.184, 123.693, 88.7658, 0, 0, 3.88475, -54.299, 3.88062, -174.257, 3.86797, 65.6919, 0.0180434, 83.8059
1, 2940.00000, 123.159, -31.2251, 123.29, -151.184, 123.693, 88.7658, 0, 0, 3.88475, -54.299, 3.88062, -174.257, 3.86797, 65.6919, 0.0180434, 83.8059
1, 3000.00000, 123.159, -31.2251, 123.29, -151.184, 123.693, 88.7658, 0, 0, 3.88475, -54.299, 3.88062, -174.257, 3.86797, 65.6919, 0.0180434, 83.8059
1, 3060.00000, 123.159, -31.2251, 123.29, -151.184, 123.693, 88.7658, 0, 0, 3.88475, -54.299, 3.88062, -174.257, 3.86797, 65.6919, 0.0180434, 83.8059
1, 3120.00000, 123.159, -31.2251, 123.29, -151.184, 123.693, 88.7658, 0, 0, 3.88475, -54.299, 3.88062, -174.257, 3.86797, 65.6919, 0.0180434, 83.8059
1, 3180.00000, 123.159, -31.2251, 123.29, -151.184, 123.693, 88.7658, 0, 0, 3.88475, -54.299, 3.88062, -174.257, 3.86797, 65.6919, 0.0180434, 83.8059
1, 3240.00000, 123.159, -31.2251, 123.29, -151.184, 123.693, 88.7658, 0, 0, 3.88475, -54.299, 3.88062, -174.257, 3.86797, 65.6919, 0.0180434, 83.8059
1, 3300.00000, 123.159, -31.2251, 123.29, -151.184, 123.693, 88.7658, 0, 0, 3.88475, -54.299, 3.88062, -174.257, 3.86797, 65.6919, 0.0180434, 83.8059
1, 3360.00000, 123.159, -31.2251, 123.29, -151.184, 123.693, 88.7658, 0, 0, 3.88475, -54.299, 3.88062, -174.257, 3.86797, 65.6919, 0.0180434, 83.8059
1, 3420.00000, 123.159, -31.2251, 123.29, -151.184, 123.693, 88.7658, 0, 0, 3.88475, -54.299, 3.88062, -174.257, 3.86797, 65.6919, 0.0180434, 83.8059
1, 3480.00000, 123.159, -31.2251, 123.29, -151.184, 123.693, 88.7658, 0, 0, 3.88475, -54.299, 3.88062, -174.257, 3.86797, 65.6919, 0.0180434, 83.8059
1, 3540.00000, 123.159, -31.2251, 123.29, -151.184, 123.693, 88.7658, 0, 0, 3.88475, -54.299, 3.88062, -174.257, 3.86797, 65.6919, 0.0180434, 83.8059
2, 0.00000, 123.159, -31.2251, 123.29, -151.184, 123.693, 88.7658, 0, 0, 3.88475, -54.299, 3.88062, -174.257, 3.86797, 65.6919, 0.0180434, 83.8059
2, 60.00000, 123.159, -31.2251, 123.29, -151.184, 123.693, 88.7658, 0, 0, 3.88475, -54.299, 3.88062, -174.257, 3.86797, 65.6919, 0.0180434, 83.8059
2, 120.00000, 123.159, -31.2251, 123.29, -151.184, 123.693, 88.7658, 0, 0, 3.88475, -54.299, 3.88062, -174.257, 3.86797, 65.6919, 0.0180434, 83.8059
2, 180.00000, 123.159, -31.2251, 123.29, -151.184, 123.693, 88.7658, 0, 0, 3.88475, -54.299, 3.88062, -174.257, 3.86797, 65.6919, 0.0180434, 83.8059
2, 240.00000, 123.159, -31.2251, 123.29, -151.184, 123.693, 88.7658, 0, 0, 3.88475, -54.299, 3.88062, -174.257, 3.86797, 65.6919, 0.0180434, 83.8059
2, 300.00000, 123.159, -31.2251, 123.29, -151.184, 123.693, 88.7658, 0, 0, 3.88475, -54.299, 3.88062, -174.257, 3.86797, 65.6919, 0.0180434, 83.8059
2, 360.00000, 123.159, -31.2251, 123.29, -151.184, 123.693, 88.7658, 0, 0, 3.88475, -54.299, 3.88062, -174.257, 3.86797, 65.6919, 0.0180434, 83.8059
2, 420.00000, 123.159, -31.2251, 123.29, -151.184, 123.693, 88.7658, 0, 0, 3.88475, -54.299, 3.88062, -174.257, 3.86797, 65.6919, 0.0180434, 83.8059
2, 480.00000, 123.159, -31.2251, 123.29, -151.184, 123.693, 88.7658, 0, 0, 3.88475, -54.299, 3.88062, -174.257, 3.86797, 65.6919, 0.0180434, 83.8059
2, 540.00000, 123.159, -31.2251, 123.29, -151.184, 123.693, 88.7658, 0, 0, 3.88475, -54.299, 3.88062, -174.257, 3.86797, 65.6919, 0.0180434, 83.8059
2, 600.00000, 123.159, -31.2251, 123.29, -151.184, 123.693, 88.7658, 0, 0, 3.88475, -54.299, 3.88062, -174.257, 3.86797, 65.6919, 0.0180434, 83.8059
2, 660.00000, 123.159, -31.2251, 123.29, -151.184, 123.693, 88.7658, 0, 0, 3.88475, -54.299, 3.88062, -174.257, 3.86797, 65.6919, 0.0180434, 83.8059
2, 720.00000, 123.159, -31.2251, 123.29, -151.184, 123.693, 88.7658, 0, 0, 3.88475, -54.299, 3.88062, -174.257, 3.86797, 65.6919, 0.0180434, 83.8059
