hour,t(sec),V1,VAngle1,V2,VAngle2,V3,VAngle3,V4,VAngle4,I1,IAngle1,I2,IAngle2,I3,IAngle3,I4,IAngle4
0, 60.00000, 119.207, -31.7815, 118.992, -150.931, 121.087, 88.7964, 0, 0, 5.25334, -54.855, 5.24283, -174.005, 5.30609, 65.7228, 0.0106023, 36.9339
0, 120.00000, 119.207, -31.7815, 118.991, -150.931, 121.087, 88.7964, 0, 0, 5.25331, -54.8554, 5.24279, -174.005, 5.30618, 65.7225, 0.0105086, 36.7583
0, 180.00000, 119.207, -31.7815, 118.991, -150.931, 121.087, 88.7964, 0, 0, 5.25331, -54.8554, 5.24279, -174.005, 5.30618, 65.7225, 0.0105083, 36.7578
0, 240.00000, 119.207, -31.7815, 118.991, -150.931, 121.087, 88.7964, 0, 0, 5.25331, -54.8554, 5.24279, -174.005, 5.30618, 65.7225, 0.0105083, 36.7578
0, 300.00000, 119.207, -31.7815, 118.991, -150.931, 121.087, 88.7964, 0, 0, 5.25331, -54.8554, 5.24279, -174.005, 5.30618, 65.7225, 0.0105083, 36.7578
0, 360.00000, 119.207, -31.7815, 118.991, -150.931, 121.087, 88.7964, 0, 0, 5.25331, -54.8554, 5.24279, -174.005, 5.30618, 65.7225, 0.0105083, 36.7578
0, 420.00000, 119.207, -31.7815, 118.991, -150.931, 121.087, 88.7964, 0, 0, 5.25331, -54.8554, 5.24279, -174.005, 5.30618, 65.7225, 0.0105083, 36.7578
0, 480.00000, 120.092, -31.6728, 119.827, -150.835, 121.975, 88.9168, 0, 0, 4.60808, -54.7476, 4.59678, -173.908, 4.58305, 65.8422, 0.0777735, 62.8284
0, 540.00000, 120.092, -31.6727, 119.827, -150.835, 121.976, 88.9169, 0, 0, 4.60807, -54.7466, 4.5968, -173.909, 4.58278, 65.843, 0.0779445, 62.7767
0, 600.00000, 120.092, -31.6727, 119.827, -150.835, 121.976, 88.9169, 0, 0, 4.60807, -54.7466, 4.5968, -173.909, 4.58277, 65.843, 0.0779465, 62.7758
0, 660.00000, 120.092, -31.6727, 119.827, -150.835, 121.976, 88.9169, 0, 0, 4.60807, -54.7466, 4.5968, -173.909, 4.58277, 65.843, 0.0779465, 62.7758
0, 720.00000, 120.092, -31.6727, 119.827, -150.835, 121.976, 88.9169, 0, 0, 4.60807, -54.7466, 4.5968, -173.909, 4.58277, 65.843, 0.0779465, 62.7758
0, 780.00000, 120.092, -31.6727, 119.827, -150.835, 121.976, 88.9169, 0, 0, 4.60807, -54.7466, 4.5968, -173.909, 4.58277, 65.843, 0.0779465, 62.7758
0, 840.00000, 120.092, -31.6727, 119.827, -150.835, 121.976, 88.9169, 0, 0, 4.60807, -54.7466, 4.5968, -173.909, 4.58277, 65.843, 0.0779465, 62.7758
0, 900.00000, 120.092, -31.6727, 119.827, -150.835, 121.976, 88.9169, 0, 0, 4.60807, -54.7466, 4.5968, -173.909, 4.58277, 65.843, 0.0779465, 62.7758
0, 960.00000, 120.092, -31.6727, 119.827, -150.835, 121.976, 88.9169, 0, 0, 4.60807, -54.7466, 4.5968, -173.909, 4.58277, 65.843, 0.0779465, 62.7758
0, 1020.00000, 120.092, -31.6727, 119.827, -150.835, 121.976, 88.9169, 0, 0, 4.60807, -54.7466, 4.5968, -173.909, 4.58277, 65.843, 0.0779465, 62.7758
0, 1080.00000, 120.092, -31.6727, 119.827, -150.835, 121.976, 88.9169, 0, 0, 4.60807, -54.7466, 4.5968, -173.909, 4.58277, 65.843, 0.0779465, 62.7758
0, 1140.00000, 120.092, -31.6727, 119.827, -150.835, 121.976, 88.9169, 0, 0, 4.60807, -54.7466, 4.5968, -173.909, 4.58277, 65.843, 0.0779465, 62.7758
0, 1200.00000, 120.092, -31.6727, 119.827, -150.835, 121.976, 88.9169, 0, 0, 4.60807, -54.7466, 4.5968, -173.909, 4.58277, 65.843, 0.0779465, 62.7758
0, 1260.00000, 120.092, -31.6727, 119.827, -150.835, 121.976, 88.9169, 0, 0, 4.60807, -54.7466, 4.5968, -173.909, 4.58277, 65.843, 0.0779465, 62.7758
0, 1320.00000, 120.092, -31.6727, 119.827, -150.835, 121.976, 88.9169, 0, 0, 4.60807, -54.7466, 4.5968, -173.909, 4.58277, 65.843, 0.0779465, 62.7758
0, 1380.00000, 120.092, -31.6727, 119.827, -150.835, 121.976, 88.9169, 0, 0, 4.60807, -54.7466, 4.5968, -173.909, 4.58277, 65.843, 0.0779465, 62.7758
0, 1440.00000, 120.092, -31.6727, 119.827, -150.835, 121.976, 88.9169, 0, 0, 4.60807, -54.7466, 4.5968, -173.909, 4.58277, 65.843, 0.0779465, 62.7758
0, 1500.00000, 120.092, -31.6727, 119.827, -150.835, 121.976, 88.9169, 0, 0, 4.60807, -54.7466, 4.5968, -173.909, 4.58277, 65.843, 0.0779465, 62.7758
0, 1560.00000, 120.092, -31.6727, 119.827, -150.835, 121.976, 88.9169, 0, 0, 4.60807, -54.7466, 4.5968, -173.909, 4.58277, 65.843, 0.0779465, 62.7758
0, 1620.00000, 120.092, -31.6727, 119.827, -150.835, 121.976, 88.9169, 0, 0, 4.60807, -54.7466, 4.5968, -173.909, 4.58277, 65.843, 0.0779465, 62.7758
0, 1680.00000, 120.092, -31.6727, 119.827, -150.835, 121.976, 88.9169, 0, 0, 4.60807, -54.7466, 4.5968, -173.909, 4.58277, 65.843, 0.0779465, 62.7758
0, 1740.00000, 120.092, -31.6727, 119.827, -150.835, 121.976, 88.9169, 0, 0, 4.60807, -54.7466, 4.5968, -173.909, 4.58277, 65.843, 0.0779465, 62.7758
0, 1800.00000, 120.092, -31.6727, 119.827, -150.835, 121.976, 88.9169, 0, 0, 4.60807, -54.7466, 4.5968, -173.909, 4.58277, 65.843, 0.0779465, 62.7758
0, 1860.00000, 120.092, -31.6727, 119.827, -150.835, 121.976, 88.9169, 0, 0, 4.60807, -54.7466, 4.5968, -173.909, 4.58277, 65.843, 0.0779465, 62.7758
0, 1920.00000, 120.092, -31.6727, 119.827, -150.835, 121.976, 88.9169, 0, 0, 4.60807, -54.7466, 4.5968, -173.909, 4.58277, 65.843, 0.0779465, 62.7758
0, 1980.00000, 120.092, -31.6727, 119.827, -150.835, 121.976, 88.9169, 0, 0, 4.60807, -54.7466, 4.5968, -173.909, 4.58277, 65.843, 0.0779465, 62.7758
0, 2040.00000, 120.092, -31.6727, 119.827, -150.835, 121.976, 88.9169, 0, 0, 4.60807, -54.7466, 4.5968, -173.909, 4.58277, 65.843, 0.0779465, 62.7758
0, 2100.00000, 120.092, -31.6727, 119.827, -150.835, 121.976, 88.9169, 0, 0, 4.60807, -54.7466, 4.5968, -173.909, 4.58277, 65.843, 0.0779465, 62.7758
0, 2160.00000, 120.092, -31.6727, 119.827, -150.835, 121.976, 88.9169, 0, 0, 4.60807, -54.7466, 4.5968, -173.909, 4.58277, 65.843, 0.0779465, 62.7758
0, 2220.00000, 120.092, -31.6727, 119.827, -150.835, 121.976, 88.9169, 0, 0, 4.60807, -54.7466, 4.5968, -173.909, 4.58277, 65.843, 0.0779465, 62.7758
0, 2280.00000, 120.092, -31.6727, 119.827, -150.835, 121.976, 88.9169, 0, 0, 4.60807, -54.7466, 4.5968, -173.909, 4.58277, 65.843, 0.0779465, 62.7758
0, 2340.00000, 120.092, -31.6727, 119.827, -150.835, 121.976, 88.9169, 0, 0, 4.60807, -54.7466, 4.5968, -173.909, 4.58277, 65.843, 0.0779465, 62.7758
0, 2400.00000, 120.092, -31.6727, 119.827, -150.835, 121.976, 88.9169, 0, 0, 4.60807, -54.7466, 4.5968, -173.909, 4.58277, 65.843, 0.0779465, 62.7758
0, 2460.00000, 120.092, -31.6727, 119.827, -150.835, 121.976, 88.9169, 0, 0, 4.60807, -54.7466, 4.5968, -173.909, 4.58277, 65.843, 0.0779465, 62.7758
0, 2520.00000, 120.092, -31.6727, 119.827, -150.835, 121.976, 88.9169, 0, 0, 4.60807, -54.7466, 4.5968, -173.909, 4.58277, 65.843, 0.0779465, 62.7758
0, 2580.00000, 120.092, -31.6727, 119.827, -150.835, 121.976, 88.9169, 0, 0, 4.60807, -54.7466, 4.5968, -173.909, 4.58277, 65.843, 0.0779465, 62.7758
0, 2640.00000, 120.092, -31.6727, 119.827, -150.835, 121.976, 88.9169, 0, 0, 4.60807, -54.7466, 4.5968, -173.909, 4.58277, 65.843, 0.0779465, 62.7758
0, 2700.00000, 120.092, -31.6727, 119.827, -150.835, 121.976, 88.9169, 0, 0, 4.60807, -54.7466, 4.5968, -173.909, 4.58277, 65.843, 0.0779465, 62.7758
0, 2760.00000, 120.092, -31.6727, 119.827, -150.835, 121.976, 88.9169, 0, 0, 4.60807, -54.7466, 4.5968, -173.909, 4.58277, 65.843, 0.0779465, 62.7758
0, 2820.00000, 120.092, -31.6727, 119.827, -150.835, 121.976, 88.9169, 0, 0, 4.60807, -54.7466, 4.5968, -173.909, 4.58277, 65.843, 0.0779465, 62.7758
0, 2880.00000, 120.092, -31.6727, 119.827, -150.835, 121.976, 88.9169, 0, 0, 4.60807, -54.7466, 4.5968, -173.909, 4.58277, 65.843, 0.0779465, 62.7758
0, 2940.00000, 120.092, -31.6727, 119.827, -150.835, 121.976, 88.9169, 0, 0, 4.60807, -54.7466, 4.5968, -173.909, 4.58277, 65.843, 0.0779465, 62.7758
0, 3000.00000, 120.092, -31.6727, 119.827, -150.835, 121.976, 88.9169, 0, 0, 4.60807, -54.7466, 4.5968, -173.909, 4.58277, 65.843, 0.0779465, 62.7758
0, 3060.00000, 120.092, -31.6727, 119.827, -150.835, 121.976, 88.9169, 0, 0, 4.60807, -54.7466, 4.5968, -173.909, 4.58277, 65.843, 0.0779465, 62.7758
0, 3120.00000, 120.092, -31.6727, 119.827, -150.835, 121.976, 88.9169, 0, 0, 4.60807, -54.7466, 4.5968, -173.909, 4.58277, 65.843, 0.0779465, 62.7758
0, 3180.00000, 120.092, -31.6727, 119.827, -150.835, 121.976, 88.9169, 0, 0, 4.60807, -54.7466, 4.5968, -173.909, 4.58277, 65.843, 0.0779465, 62.7758
0, 3240.00000, 120.092, -31.6727, 119.827, -150.835, 121.976, 88.9169, 0, 0, 4.60807, -54.7466, 4.5968, -173.909, 4.58277, 65.843, 0.0779465, 62.7758
0, 3300.00000, 120.092, -31.6727, 119.827, -150.835, 121.976, 88.9169, 0, 0, 4.60807, -54.7466, 4.5968, -173.909, 4.58277, 65.843, 0.0779465, 62.7758
0, 3360.00000, 120.092, -31.6727, 119.827, -150.835, 121.976, 88.9169, 0, 0, 4.60807, -54.7466, 4.5968, -173.909, 4.58277, 65.843, 0.0779465, 62.7758
0, 3420.00000, 120.092, -31.6727, 119.827, -150.835, 121.976, 88.9169, 0, 0, 4.60807, -54.7466, 4.5968, -173.909, 4.58277, 65.843, 0.0779465, 62.7758
0, 3480.00000, 120.092, -31.6727, 119.827, -150.835, 121.976, 88.9169, 0, 0, 4.60807, -54.7466, 4.5968, -173.909, 4.58277, 65.843, 0.0779465, 62.7758
0, 3540.00000, 120.092, -31.6727, 119.827, -150.835, 121.976, 88.9169, 0, 0, 4.60807, -54.7466, 4.5968, -173.909, 4.58277, 65.843, 0.0779465, 62.7758
1, 0.00000, 120.092, -31.6727, 119.827, -150.835, 121.976, 88.9169, 0, 0, 4.60807, -54.7466, 4.5968, -173.909, 4.58277, 65.843, 0.0779465, 62.7758
1, 60.00000, 120.178, -31.5429, 120.114, -150.802, 121.975, 88.9176, 0, 0, 4.6117, -54.617, 4.60897, -173.876, 4.5828, 65.8437, 0.0791952, 62.2226
1, 120.00000, 120.178, -31.5429, 120.114, -150.802, 121.975, 88.9176, 0, 0, 4.61172, -54.6168, 4.60901, -173.876, 4.58281, 65.8437, 0.0792243, 62.2222
1, 180.00000, 120.178, -31.5429, 120.114, -150.802, 121.975, 88.9176, 0, 0, 4.61172, -54.6168, 4.60901, -173.876, 4.58281, 65.8437, 0.0792243, 62.2223
1, 240.00000, 120.178, -31.5429, 120.114, -150.802, 121.975, 88.9176, 0, 0, 4.61172, -54.6168, 4.60901, -173.876, 4.58281, 65.8437, 0.0792243, 62.2223
1, 300.00000, 120.178, -31.5429, 120.114, -150.802, 121.975, 88.9176, 0, 0, 4.61172, -54.6168, 4.60901, -173.876, 4.58281, 65.8437, 0.0792243, 62.2223
1, 360.00000, 120.178, -31.5429, 120.114, -150.802, 121.975, 88.9176, 0, 0, 4.61172, -54.6168, 4.60901, -173.876, 4.58281, 65.8437, 0.0792243, 62.2223
1, 420.00000, 120.178, -31.5429, 120.114, -150.802, 121.975, 88.9176, 0, 0, 4.61172, -54.6168, 4.60901, -173.876, 4.58281, 65.8437, 0.0792243, 62.2223
1, 480.00000, 120.178, -31.5429, 120.114, -150.802, 121.975, 88.9176, 0, 0, 4.61172, -54.6168, 4.60901, -173.876, 4.58281, 65.8437, 0.0792243, 62.2223
1, 540.00000, 120.178, -31.5429, 120.114, -150.802, 121.975, 88.9176, 0, 0, 4.61172, -54.6168, 4.60901, -173.876, 4.58281, 65.8437, 0.0792243, 62.2223
1, 600.00000, 120.178, -31.5429, 120.114, -150.802, 121.975, 88.9176, 0, 0, 4.61172, -54.6168, 4.60901, -173.876, 4.58281, 65.8437, 0.0792243, 62.2223
1, 660.00000, 120.178, -31.5429, 120.114, -150.802, 121.975, 88.9176, 0, 0, 4.61172, -54.6168, 4.60901, -173.876, 4.58281, 65.8437, 0.0792243, 62.2223
1, 720.00000, 120.178, -31.5429, 120.114, -150.802, 121.975, 88.9176, 0, 0, 4.61172, -54.6168, 4.60901, -173.876, 4.58281, 65.8437, 0.0792243, 62.2223
1, 780.00000, 120.178, -31.5429, 120.114, -150.802, 121.975, 88.9176, 0, 0, 4.61172, -54.6168, 4.60901, -173.876, 4.58281, 65.8437, 0.0792243, 62.2223
1, 840.00000, 120.178, -31.5429, 120.114, -150.802, 121.975, 88.9176, 0, 0, 4.61172, -54.6168, 4.60901, -173.876, 4.58281, 65.8437, 0.0792243, 62.2223
1, 900.00000, 120.178, -31.5429, 120.114, -150.802, 121.975, 88.9176, 0, 0, 4.61172, -54.6168, 4.60901, -173.876, 4.58281, 65.8437, 0.0792243, 62.2223
1, 960.00000, 120.178, -31.5429, 120.114, -150.802, 121.975, 88.9176, 0, 0, 4.61172, -54.6168, 4.60901, -173.876, 4.58281, 65.8437, 0.0792243, 62.2223
1, 1020.00000, 120.178, -31.5429, 120.114, -150.802, 121.975, 88.9176, 0, 0, 4.61172, -54.6168, 4.60901, -173.876, 4.58281, 65.8437, 0.0792243, 62.2223
1, 1080.00000, 120.178, -31.5429, 120.114, -150.802, 121.975, 88.9176, 0, 0, 4.61172, -54.6168, 4.60901, -173.876, 4.58281, 65.8437, 0.0792243, 62.2223
1, 1140.00000, 120.178, -31.5429, 120.114, -150.802, 121.975, 88.9176, 0, 0, 4.61172, -54.6168, 4.60901, -173.876, 4.58281, 65.8437, 0.0792243, 62.2223
1, 1200.00000, 120.178, -31.5429, 120.114, -150.802, 121.975, 88.9176, 0, 0, 4.61172, -54.6168, 4.60901, -173.876, 4.58281, 65.8437, 0.0792243, 62.2223
1, 1260.00000, 120.178, -31.5429, 120.114, -150.802, 121.975, 88.9176, 0, 0, 4.61172, -54.6168, 4.60901, -173.876, 4.58281, 65.8437, 0.0792243, 62.2223
1, 1320.00000, 120.178, -31.5429, 120.114, -150.802, 121.975, 88.9176, 0, 0, 4.61172, -54.6168, 4.60901, -173.876, 4.58281, 65.8437, 0.0792243, 62.2223
1, 1380.00000, 120.178, -31.5429, 120.114, -150.802, 121.975, 88.9176, 0, 0, 4.61172, -54.6168, 4.60901, -173.876, 4.58281, 65.8437, 0.0792243, 62.2223
1, 1440.00000, 120.178, -31.5429, 120.114, -150.802, 121.975, 88.9176, 0, 0, 4.61172, -54.6168, 4.60901, -173.876, 4.58281, 65.8437, 0.0792243, 62.2223
1, 1500.00000, 120.178, -31.5429, 120.114, -150.802, 121.975, 88.9176, 0, 0, 4.61172, -54.6168, 4.60901, -173.876, 4.58281, 65.8437, 0.0792243, 62.2223
1, 1560.00000, 120.178, -31.5429, 120.114, -150.802, 121.975, 88.9176, 0, 0, 4.61172, -54.6168, 4.60901, -173.876, 4.58281, 65.8437, 0.0792243, 62.2223
1, 1620.00000, 120.178, -31.5429, 120.114, -150.802, 121.975, 88.9176, 0, 0, 4.61172, -54.6168, 4.60901, -173.876, 4.58281, 65.8437, 0.0792243, 62.2223
1, 1680.00000, 120.178, -31.5429, 120.114, -150.802, 121.975, 88.9176, 0, 0, 4.61172, -54.6168, 4.60901, -173.876, 4.58281, 65.8437, 0.0792243, 62.2223
1, 1740.00000, 120.178, -31.5429, 120.114, -150.802, 121.975, 88.9176, 0, 0, 4.61172, -54.6168, 4.60901, -173.876, 4.58281, 65.8437, 0.0792243, 62.2223
1, 1800.00000, 120.178, -31.5429, 120.114, -150.802, 121.975, 88.9176, 0, 0, 4.61172, -54.6168, 4.60901, -173.876, 4.58281, 65.8437, 0.0792243, 62.2223
1, 1860.00000, 120.178, -31.5429, 120.114, -150.802, 121.975, 88.9176, 0, 0, 4.61172, -54.6168, 4.60901, -173.876, 4.58281, 65.8437, 0.0792243, 62.2223
1, 1920.00000, 120.178, -31.5429, 120.114, -150.802, 121.975, 88.9176, 0, 0, 4.61172, -54.6168, 4.60901, -173.876, 4.58281, 65.8437, 0.0792243, 62.2223
1, 1980.00000, 120.178, -31.5429, 120.114, -150.802, 121.975, 88.9176, 0, 0, 4.61172, -54.6168, 4.60901, -173.876, 4.58281, 65.8437, 0.0792243, 62.2223
1, 2040.00000, 120.178, -31.5429, 120.114, -150.802, 121.975, 88.9176, 0, 0, 4.61172, -54.6168, 4.60901, -173.876, 4.58281, 65.8437, 0.0792243, 62.2223
1, 2100.00000, 120.178, -31.5429, 120.114, -150.802, 121.975, 88.9176, 0, 0, 4.61172, -54.6168, 4.60901, -173.876, 4.58281, 65.8437, 0.0792243, 62.2223
1, 2160.00000, 120.178, -31.5429, 120.114, -150.802, 121.975, 88.9176, 0, 0, 4.61172, -54.6168, 4.60901, -173.876, 4.58281, 65.8437, 0.0792243, 62.2223
1, 2220.00000, 120.178, -31.5429, 120.114, -150.802, 121.975, 88.9176, 0, 0, 4.61172, -54.6168, 4.60901, -173.876, 4.58281, 65.8437, 0.0792243, 62.2223
1, 2280.00000, 120.178, -31.5429, 120.114, -150.802, 121.975, 88.9176, 0, 0, 4.61172, -54.6168, 4.60901, -173.876, 4.58281, 65.8437, 0.0792243, 62.2223
1, 2340.00000, 120.178, -31.5429, 120.114, -150.802, 121.975, 88.9176, 0, 0, 4.61172, -54.6168, 4.60901, -173.876, 4.58281, 65.8437, 0.0792243, 62.2223
1, 2400.00000, 120.178, -31.5429, 120.114, -150.802, 121.975, 88.9176, 0, 0, 4.61172, -54.6168, 4.60901, -173.876, 4.58281, 65.8437, 0.0792243, 62.2223
1, 2460.00000, 120.178, -31.5429, 120.114, -150.802, 121.975, 88.9176, 0, 0, 4.61172, -54.6168, 4.60901, -173.876, 4.58281, 65.8437, 0.0792243, 62.2223
1, 2520.00000, 120.178, -31.5429, 120.114, -150.802, 121.975, 88.9176, 0, 0, 4.61172, -54.6168, 4.60901, -173.876, 4.58281, 65.8437, 0.0792243, 62.2223
1, 2580.00000, 120.178, -31.5429, 120.114, -150.802, 121.975, 88.9176, 0, 0, 4.61172, -54.6168, 4.60901, -173.876, 4.58281, 65.8437, 0.0792243, 62.2223
1, 2640.00000, 120.178, -31.5429, 120.114, -150.802, 121.975, 88.9176, 0, 0, 4.61172, -54.6168, 4.60901, -173.876, 4.58281, 65.8437, 0.0792243, 62.2223
1, 2700.00000, 120.178, -31.5429, 120.114, -150.802, 121.975, 88.9176, 0, 0, 4.61172, -54.6168, 4.60901, -173.876, 4.58281, 65.8437, 0.0792243, 62.2223
1, 2760.00000, 120.178, -31.5429, 120.114, -150.802, 121.975, 88.9176, 0, 0, 4.61172, -54.6168, 4.60901, -173.876, 4.58281, 65.8437, 0.0792243, 62.2223
1, 2820.00000, 120.178, -31.5429, 120.114, -150.802, 121.975, 88.9176, 0, 0, 4.61172, -54.6168, 4.60901, -173.876, 4.58281, 65.8437, 0.0792243, 62.2223
1, 2880.00000, 120.178, -31.5429, 120.114, -150.802, 121.975, 88.9176, 0, 0, 4.61172, -54.6168, 4.60901, -173.876, 4.58281, 65.8437, 0.0792243, 62.2223
1, 2940.00000, 120.178, -31.5429, 120.114, -150.802, 121.975, 88.9176, 0, 0, 4.61172, -54.6168, 4.60901, -173.876, 4.58281, 65.8437, 0.0792243, 62.2223
1, 3000.00000, 120.178, -31.5429, 120.114, -150.802, 121.975, 88.9176, 0, 0, 4.61172, -54.6168, 4.60901, -173.876, 4.58281, 65.8437, 0.0792243, 62.2223
1, 3060.00000, 120.178, -31.5429, 120.114, -150.802, 121.975, 88.9176, 0, 0, 4.61172, -54.6168, 4.60901, -173.876, 4.58281, 65.8437, 0.0792243, 62.2223
1, 3120.00000, 120.178, -31.5429, 120.114, -150.802, 121.975, 88.9176, 0, 0, 4.61172, -54.6168, 4.60901, -173.876, 4.58281, 65.8437, 0.0792243, 62.2223
1, 3180.00000, 120.178, -31.5429, 120.114, -150.802, 121.975, 88.9176, 0, 0, 4.61172, -54.6168, 4.60901, -173.876, 4.58281, 65.8437, 0.0792243, 62.2223
1, 3240.00000, 120.178, -31.5429, 120.114, -150.802, 121.975, 88.9176, 0, 0, 4.61172, -54.6168, 4.60901, -173.876, 4.58281, 65.8437, 0.0792243, 62.2223
1, 3300.00000, 120.178, -31.5429, 120.114, -150.802, 121.975, 88.9176, 0, 0, 4.61172, -54.6168, 4.60901, -173.876, 4.58281, 65.8437, 0.0792243, 62.2223
1, 3360.00000, 120.178, -31.5429, 120.114, -150.802, 121.975, 88.9176, 0, 0, 4.61172, -54.6168, 4.60901, -173.876, 4.58281, 65.8437, 0.0792243, 62.2223
1, 3420.00000, 120.178, -31.5429, 120.114, -150.802, 121.975, 88.9176, 0, 0, 4.61172, -54.6168, 4.60901, -173.876, 4.58281, 65.8437, 0.0792243, 62.2223
1, 3480.00000, 120.178, -31.5429, 120.114, -150.802, 121.975, 88.9176, 0, 0, 4.61172, -54.6168, 4.60901, -173.876, 4.58281, 65.8437, 0.0792243, 62.2223
1, 3540.00000, 120.178, -31.5429, 120.114, -150.802, 121.975, 88.9176, 0, 0, 4.61172, -54.6168, 4.60901, -173.876, 4.58281, 65.8437, 0.0792243, 62.2223
2, 0.00000, 120.178, -31.5429, 120.114, -150.802, 121.975, 88.9176, 0, 0, 4.61172, -54.6168, 4.60901, -173.876, 4.58281, 65.8437, 0.0792243, 62.2223
2, 60.00000, 120.178, -31.5429, 120.114, -150.802, 121.975, 88.9176, 0, 0, 4.61172, -54.6168, 4.60901, -173.876, 4.58281, 65.8437, 0.0792243, 62.2223
2, 120.00000, 120.178, -31.5429, 120.114, -150.802, 121.975, 88.9176, 0, 0, 4.61172, -54.6168, 4.60901, -173.876, 4.58281, 65.8437, 0.0792243, 62.2223
2, 180.00000, 120.178, -31.5429, 120.114, -150.802, 121.975, 88.9176, 0, 0, 4.61172, -54.6168, 4.60901, -173.876, 4.58281, 65.8437, 0.0792243, 62.2223
2, 240.00000, 120.178, -31.5429, 120.114, -150.802, 121.975, 88.9176, 0, 0, 4.61172, -54.6168, 4.60901, -173.876, 4.58281, 65.8437, 0.0792243, 62.2223
2, 300.00000, 120.178, -31.5429, 120.114, -150.802, 121.975, 88.9176, 0, 0, 4.61172, -54.6168, 4.60901, -173.876, 4.58281, 65.8437, 0.0792243, 62.2223
2, 360.00000, 120.178, -31.5429, 120.114, -150.802, 121.975, 88.9176, 0, 0, 4.61172, -54.6168, 4.60901, -173.876, 4.58281, 65.8437, 0.0792243, 62.2223
2, 420.00000, 120.178, -31.5429, 120.114, -150.802, 121.975, 88.9176, 0, 0, 4.61172, -54.6168, 4.60901, -173.876, 4.58281, 65.8437, 0.0792243, 62.2223
2, 480.00000, 120.178, -31.5429, 120.114, -150.802, 121.975, 88.9176, 0, 0, 4.61172, -54.6168, 4.60901, -173.876, 4.58281, 65.8437, 0.0792243, 62.2223
2, 540.00000, 120.178, -31.5429, 120.114, -150.802, 121.975, 88.9176, 0, 0, 4.61172, -54.6168, 4.60901, -173.876, 4.58281, 65.8437, 0.0792243, 62.2223
2, 600.00000, 120.178, -31.5429, 120.114, -150.802, 121.975, 88.9176, 0, 0, 4.61172, -54.6168, 4.60901, -173.876, 4.58281, 65.8437, 0.0792243, 62.2223
2, 660.00000, 120.178, -31.5429, 120.114, -150.802, 121.975, 88.9176, 0, 0, 4.61172, -54.6168, 4.60901, -173.876, 4.58281, 65.8437, 0.0792243, 62.2223
