hour,t(sec),V1,VAngle1,V2,VAngle2,V3,VAngle3,V4,VAngle4,I1,IAngle1,I2,IAngle2,I3,IAngle3,I4,IAngle4
0, 60.00000, 117.106, -31.1669, 119.263, -151.101, 118.824, 88.0254, 0, 0, 3.88378, -54.2407, 3.96332, -174.175, 3.94717, 64.9519, 0.022183, -84.564
0, 120.00000, 117.106, -31.1669, 119.263, -151.101, 118.824, 88.0254, 0, 0, 3.88375, -54.2409, 3.96329, -174.175, 3.9471, 64.9515, 0.0221358, -84.579
0, 180.00000, 117.106, -31.1669, 119.263, -151.101, 118.824, 88.0254, 0, 0, 3.88375, -54.2409, 3.96329, -174.175, 3.9471, 64.9515, 0.0221356, -84.5791
0, 240.00000, 117.106, -31.1669, 119.263, -151.101, 118.824, 88.0254, 0, 0, 3.88375, -54.2409, 3.96329, -174.175, 3.9471, 64.9515, 0.0221356, -84.5791
0, 300.00000, 117.106, -31.1669, 119.263, -151.101, 118.824, 88.0254, 0, 0, 3.88375, -54.2409, 3.96329, -174.175, 3.9471, 64.9515, 0.0221356, -84.5791
0, 360.00000, 117.106, -31.1669, 119.263, -151.101, 118.824, 88.0254, 0, 0, 3.88375, -54.2409, 3.96329, -174.175, 3.9471, 64.9515, 0.0221356, -84.5791
0, 420.00000, 117.106, -31.1669, 119.263, -151.101, 118.824, 88.0254, 0, 0, 3.88375, -54.2409, 3.96329, -174.175, 3.9471, 64.9515, 0.0221356, -84.5791
0, 480.00000, 117.893, -31.0644, 120.044, -150.998, 119.581, 88.1458, 0, 0, 4.10577, -54.1383, 4.18901, -174.072, 4.17109, 65.0712, 0.0226359, -81.7342
0, 540.00000, 117.893, -31.0644, 120.044, -150.998, 119.581, 88.1458, 0, 0, 4.1058, -54.1383, 4.18907, -174.072, 4.17116, 65.0719, 0.0226776, -81.6151
0, 600.00000, 117.893, -31.0644, 120.044, -150.998, 119.581, 88.1458, 0, 0, 4.1058, -54.1383, 4.18907, -174.072, 4.17116, 65.0719, 0.0226778, -81.6148
0, 660.00000, 117.893, -31.0644, 120.044, -150.998, 119.581, 88.1458, 0, 0, 4.1058, -54.1383, 4.18907, -174.072, 4.17116, 65.0719, 0.0226778, -81.6148
0, 720.00000, 117.893, -31.0644, 120.044, -150.998, 119.581, 88.1458, 0, 0, 4.1058, -54.1383, 4.18907, -174.072, 4.17116, 65.0719, 0.0226778, -81.6148
0, 780.00000, 117.893, -31.0644, 120.044, -150.998, 119.581, 88.1458, 0, 0, 4.1058, -54.1383, 4.18907, -174.072, 4.17116, 65.0719, 0.0226778, -81.6148
0, 840.00000, 117.893, -31.0644, 120.044, -150.998, 119.581, 88.1458, 0, 0, 4.1058, -54.1383, 4.18907, -174.072, 4.17116, 65.0719, 0.0226778, -81.6148
0, 900.00000, 117.893, -31.0644, 120.044, -150.998, 119.581, 88.1458, 0, 0, 4.1058, -54.1383, 4.18907, -174.072, 4.17116, 65.0719, 0.0226778, -81.6148
0, 960.00000, 117.257, -30.9871, 120.045, -150.996, 119.128, 87.9199, 0, 0, 4.08125, -54.061, 4.18908, -174.07, 4.15365, 64.8462, 0.0233617, -75.6902
0, 1020.00000, 117.257, -30.9871, 120.045, -150.996, 119.128, 87.9199, 0, 0, 4.08122, -54.061, 4.18909, -174.07, 4.15363, 64.846, 0.0233527, -75.6219
0, 1080.00000, 117.257, -30.9871, 120.045, -150.996, 119.128, 87.9199, 0, 0, 4.08122, -54.061, 4.18909, -174.07, 4.15363, 64.846, 0.0233526, -75.6216
0, 1140.00000, 117.257, -30.9871, 120.045, -150.996, 119.128, 87.9199, 0, 0, 4.08122, -54.061, 4.18909, -174.07, 4.15363, 64.846, 0.0233526, -75.6216
0, 1200.00000, 117.257, -30.9871, 120.045, -150.996, 119.128, 87.9199, 0, 0, 4.08122, -54.061, 4.18909, -174.07, 4.15363, 64.846, 0.0233526, -75.6216
0, 1260.00000, 117.257, -30.9871, 120.045, -150.996, 119.128, 87.9199, 0, 0, 4.08122, -54.061, 4.18909, -174.07, 4.15363, 64.846, 0.0233526, -75.6216
0, 1320.00000, 117.257, -30.9871, 120.045, -150.996, 119.128, 87.9199, 0, 0, 4.08122, -54.061, 4.18909, -174.07, 4.15363, 64.846, 0.0233526, -75.6216
0, 1380.00000, 117.257, -30.9871, 120.045, -150.996, 119.128, 87.9199, 0, 0, 4.08122, -54.061, 4.18909, -174.07, 4.15363, 64.846, 0.0233526, -75.6216
0, 1440.00000, 117.257, -30.9871, 120.045, -150.996, 119.128, 87.9199, 0, 0, 4.08122, -54.061, 4.18909, -174.07, 4.15363, 64.846, 0.0233526, -75.6216
0, 1500.00000, 117.257, -30.9871, 120.045, -150.996, 119.128, 87.9199, 0, 0, 4.08122, -54.061, 4.18909, -174.07, 4.15363, 64.846, 0.0233526, -75.6216
0, 1560.00000, 117.257, -30.9871, 120.045, -150.996, 119.128, 87.9199, 0, 0, 4.08122, -54.061, 4.18909, -174.07, 4.15363, 64.846, 0.0233526, -75.6216
0, 1620.00000, 117.257, -30.9871, 120.045, -150.996, 119.128, 87.9199, 0, 0, 4.08122, -54.061, 4.18909, -174.07, 4.15363, 64.846, 0.0233526, -75.6216
0, 1680.00000, 117.257, -30.9871, 120.045, -150.996, 119.128, 87.9199, 0, 0, 4.08122, -54.061, 4.18909, -174.07, 4.15363, 64.846, 0.0233526, -75.6216
0, 1740.00000, 117.257, -30.9871, 120.045, -150.996, 119.128, 87.9199, 0, 0, 4.08122, -54.061, 4.18909, -174.07, 4.15363, 64.846, 0.0233526, -75.6216
0, 1800.00000, 116.795, -30.9628, 120.049, -150.994, 118.85, 87.7412, 0, 0, 4.06335, -54.0367, 4.18926, -174.068, 4.14286, 64.6675, 0.0240558, -70.6802
0, 1860.00000, 116.795, -30.9628, 120.049, -150.994, 118.849, 87.7412, 0, 0, 4.06332, -54.0368, 4.18927, -174.068, 4.14283, 64.6673, 0.0240515, -70.6311
0, 1920.00000, 116.795, -30.9628, 120.049, -150.994, 118.849, 87.7412, 0, 0, 4.06332, -54.0368, 4.18927, -174.068, 4.14283, 64.6673, 0.0240515, -70.6309
0, 1980.00000, 116.795, -30.9628, 120.049, -150.994, 118.849, 87.7412, 0, 0, 4.06332, -54.0368, 4.18927, -174.068, 4.14283, 64.6673, 0.0240515, -70.6309
0, 2040.00000, 116.795, -30.9628, 120.049, -150.994, 118.849, 87.7412, 0, 0, 4.06332, -54.0368, 4.18927, -174.068, 4.14283, 64.6673, 0.0240515, -70.6309
0, 2100.00000, 116.795, -30.9628, 120.049, -150.994, 118.849, 87.7412, 0, 0, 4.06332, -54.0368, 4.18927, -174.068, 4.14283, 64.6673, 0.0240515, -70.6309
0, 2160.00000, 116.795, -30.9628, 120.049, -150.994, 118.849, 87.7412, 0, 0, 4.06332, -54.0368, 4.18927, -174.068, 4.14283, 64.6673, 0.0240515, -70.6309
0, 2220.00000, 116.795, -30.9628, 120.049, -150.994, 118.849, 87.7412, 0, 0, 4.06332, -54.0368, 4.18927, -174.068, 4.14283, 64.6673, 0.0240515, -70.6309
0, 2280.00000, 116.795, -30.9628, 120.049, -150.994, 118.849, 87.7412, 0, 0, 4.06332, -54.0368, 4.18927, -174.068, 4.14283, 64.6673, 0.0240515, -70.6309
0, 2340.00000, 116.795, -30.9628, 120.049, -150.994, 118.849, 87.7412, 0, 0, 4.06332, -54.0368, 4.18927, -174.068, 4.14283, 64.6673, 0.0240515, -70.6309
0, 2400.00000, 116.795, -30.9628, 120.049, -150.994, 118.849, 87.7412, 0, 0, 4.06332, -54.0368, 4.18927, -174.068, 4.14283, 64.6673, 0.0240515, -70.6309
0, 2460.00000, 116.795, -30.9628, 120.049, -150.994, 118.849, 87.7412, 0, 0, 4.06332, -54.0368, 4.18927, -174.068, 4.14283, 64.6673, 0.0240515, -70.6309
0, 2520.00000, 116.795, -30.9628, 120.049, -150.994, 118.849, 87.7412, 0, 0, 4.06332, -54.0368, 4.18927, -174.068, 4.14283, 64.6673, 0.0240515, -70.6309
0, 2580.00000, 116.795, -30.9628, 120.049, -150.994, 118.849, 87.7412, 0, 0, 4.06332, -54.0368, 4.18927, -174.068, 4.14283, 64.6673, 0.0240515, -70.6309
0, 2640.00000, 116.795, -30.9628, 120.049, -150.994, 118.849, 87.7412, 0, 0, 4.06332, -54.0368, 4.18927, -174.068, 4.14283, 64.6673, 0.0240515, -70.6309
0, 2700.00000, 116.795, -30.9628, 120.049, -150.994, 118.849, 87.7412, 0, 0, 4.06332, -54.0368, 4.18927, -174.068, 4.14283, 64.6673, 0.0240515, -70.6309
0, 2760.00000, 117.446, -31.0056, 120.046, -150.995, 119.261, 87.9908, 0, 0, 4.08847, -54.0798, 4.18916, -174.069, 4.15868, 64.9165, 0.023207, -77.0959
0, 2820.00000, 117.446, -31.0056, 120.046, -150.995, 119.261, 87.9908, 0, 0, 4.08851, -54.0795, 4.18915, -174.069, 4.15875, 64.9169, 0.0232484, -77.2796
0, 2880.00000, 117.446, -31.0056, 120.046, -150.995, 119.261, 87.9908, 0, 0, 4.08851, -54.0795, 4.18915, -174.069, 4.15875, 64.9169, 0.0232487, -77.2806
0, 2940.00000, 117.446, -31.0056, 120.046, -150.995, 119.261, 87.9908, 0, 0, 4.08851, -54.0795, 4.18915, -174.069, 4.15875, 64.9169, 0.0232487, -77.2806
0, 3000.00000, 117.446, -31.0056, 120.046, -150.995, 119.261, 87.9908, 0, 0, 4.08851, -54.0795, 4.18915, -174.069, 4.15875, 64.9169, 0.0232487, -77.2806
0, 3060.00000, 117.446, -31.0056, 120.046, -150.995, 119.261, 87.9908, 0, 0, 4.08851, -54.0795, 4.18915, -174.069, 4.15875, 64.9169, 0.0232487, -77.2806
0, 3120.00000, 117.446, -31.0056, 120.046, -150.995, 119.261, 87.9908, 0, 0, 4.08851, -54.0795, 4.18915, -174.069, 4.15875, 64.9169, 0.0232487, -77.2806
0, 3180.00000, 117.446, -31.0056, 120.046, -150.995, 119.261, 87.9908, 0, 0, 4.08851, -54.0795, 4.18915, -174.069, 4.15875, 64.9169, 0.0232487, -77.2806
0, 3240.00000, 117.446, -31.0056, 120.046, -150.995, 119.261, 87.9908, 0, 0, 4.08851, -54.0795, 4.18915, -174.069, 4.15875, 64.9169, 0.0232487, -77.2806
0, 3300.00000, 117.446, -31.0056, 120.046, -150.995, 119.261, 87.9908, 0, 0, 4.08851, -54.0795, 4.18915, -174.069, 4.15875, 64.9169, 0.0232487, -77.2806
0, 3360.00000, 117.446, -31.0056, 120.046, -150.995, 119.261, 87.9908, 0, 0, 4.08851, -54.0795, 4.18915, -174.069, 4.15875, 64.9169, 0.0232487, -77.2806
0, 3420.00000, 117.446, -31.0056, 120.046, -150.995, 119.261, 87.9908, 0, 0, 4.08851, -54.0795, 4.18915, -174.069, 4.15875, 64.9169, 0.0232487, -77.2806
0, 3480.00000, 117.446, -31.0056, 120.046, -150.995, 119.261, 87.9908, 0, 0, 4.08851, -54.0795, 4.18915, -174.069, 4.15875, 64.9169, 0.0232487, -77.2806
0, 3540.00000, 117.446, -31.0056, 120.046, -150.995, 119.261, 87.9908, 0, 0, 4.08851, -54.0795, 4.18915, -174.069, 4.15875, 64.9169, 0.0232487, -77.2806
1, 0.00000, 117.446, -31.0056, 120.046, -150.995, 119.261, 87.9908, 0, 0, 4.08851, -54.0795, 4.18915, -174.069, 4.15875, 64.9169, 0.0232487, -77.2806
1, 60.00000, 117.863, -31.0011, 120.044, -150.995, 119.468, 88.1628, 0, 0, 4.10462, -54.0752, 4.18907, -174.069, 4.16672, 65.0887, 0.0225735, -81.6037
1, 120.00000, 117.863, -31.0011, 120.044, -150.995, 119.468, 88.1628, 0, 0, 4.10466, -54.075, 4.18906, -174.069, 4.16676, 65.0889, 0.0225876, -81.7409
1, 180.00000, 117.863, -31.0011, 120.044, -150.995, 119.468, 88.1628, 0, 0, 4.10466, -54.075, 4.18906, -174.069, 4.16676, 65.0889, 0.0225878, -81.7416
1, 240.00000, 117.863, -31.0011, 120.044, -150.995, 119.468, 88.1628, 0, 0, 4.10466, -54.075, 4.18906, -174.069, 4.16676, 65.0889, 0.0225878, -81.7416
1, 300.00000, 117.863, -31.0011, 120.044, -150.995, 119.468, 88.1628, 0, 0, 4.10466, -54.075, 4.18906, -174.069, 4.16676, 65.0889, 0.0225878, -81.7416
1, 360.00000, 117.863, -31.0011, 120.044, -150.995, 119.468, 88.1628, 0, 0, 4.10466, -54.075, 4.18906, -174.069, 4.16676, 65.0889, 0.0225878, -81.7416
1, 420.00000, 117.863, -31.0011, 120.044, -150.995, 119.468, 88.1628, 0, 0, 4.10466, -54.075, 4.18906, -174.069, 4.16676, 65.0889, 0.0225878, -81.7416
1, 480.00000, 117.863, -31.0011, 120.044, -150.995, 119.468, 88.1628, 0, 0, 4.10466, -54.075, 4.18906, -174.069, 4.16676, 65.0889, 0.0225878, -81.7416
1, 540.00000, 117.863, -31.0011, 120.044, -150.995, 119.468, 88.1628, 0, 0, 4.10466, -54.075, 4.18906, -174.069, 4.16676, 65.0889, 0.0225878, -81.7416
1, 600.00000, 117.863, -31.0011, 120.044, -150.995, 119.468, 88.1628, 0, 0, 4.10466, -54.075, 4.18906, -174.069, 4.16676, 65.0889, 0.0225878, -81.7416
1, 660.00000, 117.863, -31.0011, 120.044, -150.995, 119.468, 88.1628, 0, 0, 4.10466, -54.075, 4.18906, -174.069, 4.16676, 65.0889, 0.0225878, -81.7416
1, 720.00000, 117.863, -31.0011, 120.044, -150.995, 119.468, 88.1628, 0, 0, 4.10466, -54.075, 4.18906, -174.069, 4.16676, 65.0889, 0.0225878, -81.7416
1, 780.00000, 118.198, -30.986, 120.044, -150.995, 119.606, 88.3044, 0, 0, 4.11758, -54.0601, 4.18906, -174.069, 4.1721, 65.2304, 0.0217592, -85.0152
1, 840.00000, 118.198, -30.986, 120.044, -150.995, 119.606, 88.3044, 0, 0, 4.11763, -54.0599, 4.18905, -174.069, 4.17212, 65.2305, 0.0217415, -85.136
1, 900.00000, 118.198, -30.986, 120.044, -150.995, 119.606, 88.3044, 0, 0, 4.11763, -54.0599, 4.18905, -174.069, 4.17212, 65.2305, 0.0217414, -85.1367
1, 960.00000, 118.198, -30.986, 120.044, -150.995, 119.606, 88.3044, 0, 0, 4.11763, -54.0599, 4.18905, -174.069, 4.17212, 65.2305, 0.0217414, -85.1367
1, 1020.00000, 118.198, -30.986, 120.044, -150.995, 119.606, 88.3044, 0, 0, 4.11763, -54.0599, 4.18905, -174.069, 4.17212, 65.2305, 0.0217414, -85.1367
1, 1080.00000, 118.198, -30.986, 120.044, -150.995, 119.606, 88.3044, 0, 0, 4.11763, -54.0599, 4.18905, -174.069, 4.17212, 65.2305, 0.0217414, -85.1367
1, 1140.00000, 118.198, -30.986, 120.044, -150.995, 119.606, 88.3044, 0, 0, 4.11763, -54.0599, 4.18905, -174.069, 4.17212, 65.2305, 0.0217414, -85.1367
1, 1200.00000, 118.198, -30.986, 120.044, -150.995, 119.606, 88.3044, 0, 0, 4.11763, -54.0599, 4.18905, -174.069, 4.17212, 65.2305, 0.0217414, -85.1367
1, 1260.00000, 118.198, -30.986, 120.044, -150.995, 119.606, 88.3044, 0, 0, 4.11763, -54.0599, 4.18905, -174.069, 4.17212, 65.2305, 0.0217414, -85.1367
1, 1320.00000, 118.198, -30.986, 120.044, -150.995, 119.606, 88.3044, 0, 0, 4.11763, -54.0599, 4.18905, -174.069, 4.17212, 65.2305, 0.0217414, -85.1367
1, 1380.00000, 118.198, -30.986, 120.044, -150.995, 119.606, 88.3044, 0, 0, 4.11763, -54.0599, 4.18905, -174.069, 4.17212, 65.2305, 0.0217414, -85.1367
1, 1440.00000, 118.198, -30.986, 120.044, -150.995, 119.606, 88.3044, 0, 0, 4.11763, -54.0599, 4.18905, -174.069, 4.17212, 65.2305, 0.0217414, -85.1367
1, 1500.00000, 118.198, -30.986, 120.044, -150.995, 119.606, 88.3044, 0, 0, 4.11763, -54.0599, 4.18905, -174.069, 4.17212, 65.2305, 0.0217414, -85.1367
1, 1560.00000, 118.198, -30.986, 120.044, -150.995, 119.606, 88.3044, 0, 0, 4.11763, -54.0599, 4.18905, -174.069, 4.17212, 65.2305, 0.0217414, -85.1367
1, 1620.00000, 118.198, -30.986, 120.044, -150.995, 119.606, 88.3044, 0, 0, 4.11763, -54.0599, 4.18905, -174.069, 4.17212, 65.2305, 0.0217414, -85.1367
1, 1680.00000, 118.198, -30.986, 120.044, -150.995, 119.606, 88.3044, 0, 0, 4.11763, -54.0599, 4.18905, -174.069, 4.17212, 65.2305, 0.0217414, -85.1367
1, 1740.00000, 118.198, -30.986, 120.044, -150.995, 119.606, 88.3044, 0, 0, 4.11763, -54.0599, 4.18905, -174.069, 4.17212, 65.2305, 0.0217414, -85.1367
1, 1800.00000, 118.198, -30.986, 120.044, -150.995, 119.606, 88.3044, 0, 0, 4.11763, -54.0599, 4.18905, -174.069, 4.17212, 65.2305, 0.0217414, -85.1367
1, 1860.00000, 118.198, -30.986, 120.044, -150.995, 119.606, 88.3044, 0, 0, 4.11763, -54.0599, 4.18905, -174.069, 4.17212, 65.2305, 0.0217414, -85.1367
1, 1920.00000, 118.198, -30.986, 120.044, -150.995, 119.606, 88.3044, 0, 0, 4.11763, -54.0599, 4.18905, -174.069, 4.17212, 65.2305, 0.0217414, -85.1367
1, 1980.00000, 118.198, -30.986, 120.044, -150.995, 119.606, 88.3044, 0, 0, 4.11763, -54.0599, 4.18905, -174.069, 4.17212, 65.2305, 0.0217414, -85.1367
1, 2040.00000, 118.198, -30.986, 120.044, -150.995, 119.606, 88.3044, 0, 0, 4.11763, -54.0599, 4.18905, -174.069, 4.17212, 65.2305, 0.0217414, -85.1367
1, 2100.00000, 118.198, -30.986, 120.044, -150.995, 119.606, 88.3044, 0, 0, 4.11763, -54.0599, 4.18905, -174.069, 4.17212, 65.2305, 0.0217414, -85.1367
1, 2160.00000, 118.198, -30.986, 120.044, -150.995, 119.606, 88.3044, 0, 0, 4.11763, -54.0599, 4.18905, -174.069, 4.17212, 65.2305, 0.0217414, -85.1367
1, 2220.00000, 118.68, -31.0056, 120.038, -150.996, 119.888, 88.4842, 0, 0, 4.13622, -54.0797, 4.18885, -174.07, 4.18303, 65.4102, 0.0212766, -92.021
1, 2280.00000, 118.68, -31.0056, 120.038, -150.996, 119.888, 88.4842, 0, 0, 4.13627, -54.0795, 4.18884, -174.07, 4.18304, 65.4103, 0.021261, -92.164
1, 2340.00000, 118.68, -31.0056, 120.038, -150.996, 119.888, 88.4842, 0, 0, 4.13627, -54.0795, 4.18884, -174.07, 4.18304, 65.4103, 0.021261, -92.1648
1, 2400.00000, 118.68, -31.0056, 120.038, -150.996, 119.888, 88.4842, 0, 0, 4.13627, -54.0795, 4.18884, -174.07, 4.18304, 65.4103, 0.021261, -92.1648
1, 2460.00000, 118.68, -31.0056, 120.038, -150.996, 119.888, 88.4842, 0, 0, 4.13627, -54.0795, 4.18884, -174.07, 4.18304, 65.4103, 0.021261, -92.1648
1, 2520.00000, 118.68, -31.0056, 120.038, -150.996, 119.888, 88.4842, 0, 0, 4.13627, -54.0795, 4.18884, -174.07, 4.18304, 65.4103, 0.021261, -92.1648
1, 2580.00000, 118.68, -31.0056, 120.038, -150.996, 119.888, 88.4842, 0, 0, 4.13627, -54.0795, 4.18884, -174.07, 4.18304, 65.4103, 0.021261, -92.1648
1, 2640.00000, 118.68, -31.0056, 120.038, -150.996, 119.888, 88.4842, 0, 0, 4.13627, -54.0795, 4.18884, -174.07, 4.18304, 65.4103, 0.021261, -92.1648
1, 2700.00000, 118.68, -31.0056, 120.038, -150.996, 119.888, 88.4842, 0, 0, 4.13627, -54.0795, 4.18884, -174.07, 4.18304, 65.4103, 0.021261, -92.1648
1, 2760.00000, 118.68, -31.0056, 120.038, -150.996, 119.888, 88.4842, 0, 0, 4.13627, -54.0795, 4.18884, -174.07, 4.18304, 65.4103, 0.021261, -92.1648
1, 2820.00000, 118.68, -31.0056, 120.038, -150.996, 119.888, 88.4842, 0, 0, 4.13627, -54.0795, 4.18884, -174.07, 4.18304, 65.4103, 0.021261, -92.1648
1, 2880.00000, 118.68, -31.0056, 120.038, -150.996, 119.888, 88.4842, 0, 0, 4.13627, -54.0795, 4.18884, -174.07, 4.18304, 65.4103, 0.021261, -92.1648
1, 2940.00000, 118.68, -31.0056, 120.038, -150.996, 119.888, 88.4842, 0, 0, 4.13627, -54.0795, 4.18884, -174.07, 4.18304, 65.4103, 0.021261, -92.1648
1, 3000.00000, 118.68, -31.0056, 120.038, -150.996, 119.888, 88.4842, 0, 0, 4.13627, -54.0795, 4.18884, -174.07, 4.18304, 65.4103, 0.021261, -92.1648
1, 3060.00000, 118.68, -31.0056, 120.038, -150.996, 119.888, 88.4842, 0, 0, 4.13627, -54.0795, 4.18884, -174.07, 4.18304, 65.4103, 0.021261, -92.1648
1, 3120.00000, 118.68, -31.0056, 120.038, -150.996, 119.888, 88.4842, 0, 0, 4.13627, -54.0795, 4.18884, -174.07, 4.18304, 65.4103, 0.021261, -92.1648
1, 3180.00000, 118.68, -31.0056, 120.038, -150.996, 119.888, 88.4842, 0, 0, 4.13627, -54.0795, 4.18884, -174.07, 4.18304, 65.4103, 0.021261, -92.1648
1, 3240.00000, 118.68, -31.0056, 120.038, -150.996, 119.888, 88.4842, 0, 0, 4.13627, -54.0795, 4.18884, -174.07, 4.18304, 65.4103, 0.021261, -92.1648
1, 3300.00000, 118.68, -31.0056, 120.038, -150.996, 119.888, 88.4842, 0, 0, 4.13627, -54.0795, 4.18884, -174.07, 4.18304, 65.4103, 0.021261, -92.1648
1, 3360.00000, 118.68, -31.0056, 120.038, -150.996, 119.888, 88.4842, 0, 0, 4.13627, -54.0795, 4.18884, -174.07, 4.18304, 65.4103, 0.021261, -92.1648
1, 3420.00000, 118.68, -31.0056, 120.038, -150.996, 119.888, 88.4842, 0, 0, 4.13627, -54.0795, 4.18884, -174.07, 4.18304, 65.4103, 0.021261, -92.1648
1, 3480.00000, 118.68, -31.0056, 120.038, -150.996, 119.888, 88.4842, 0, 0, 4.13627, -54.0795, 4.18884, -174.07, 4.18304, 65.4103, 0.021261, -92.1648
1, 3540.00000, 118.68, -31.0056, 120.038, -150.996, 119.888, 88.4842, 0, 0, 4.13627, -54.0795, 4.18884, -174.07, 4.18304, 65.4103, 0.021261, -92.1648
2, 0.00000, 118.68, -31.0056, 120.038, -150.996, 119.888, 88.4842, 0, 0, 4.13627, -54.0795, 4.18884, -174.07, 4.18304, 65.4103, 0.021261, -92.1648
2, 60.00000, 118.68, -31.0056, 120.038, -150.996, 119.888, 88.4842, 0, 0, 4.13627, -54.0795, 4.18884, -174.07, 4.18304, 65.4103, 0.021261, -92.1648
2, 120.00000, 118.68, -31.0056, 120.038, -150.996, 119.888, 88.4842, 0, 0, 4.13627, -54.0795, 4.18884, -174.07, 4.18304, 65.4103, 0.021261, -92.1648
2, 180.00000, 118.68, -31.0056, 120.038, -150.996, 119.888, 88.4842, 0, 0, 4.13627, -54.0795, 4.18884, -174.07, 4.18304, 65.4103, 0.021261, -92.1648
2, 240.00000, 118.68, -31.0056, 120.038, -150.996, 119.888, 88.4842, 0, 0, 4.13627, -54.0795, 4.18884, -174.07, 4.18304, 65.4103, 0.021261, -92.1648
2, 300.00000, 118.68, -31.0056, 120.038, -150.996, 119.888, 88.4842, 0, 0, 4.13627, -54.0795, 4.18884, -174.07, 4.18304, 65.4103, 0.021261, -92.1648
2, 360.00000, 118.68, -31.0056, 120.038, -150.996, 119.888, 88.4842, 0, 0, 4.13627, -54.0795, 4.18884, -174.07, 4.18304, 65.4103, 0.021261, -92.1648
2, 420.00000, 118.68, -31.0056, 120.038, -150.996, 119.888, 88.4842, 0, 0, 4.13627, -54.0795, 4.18884, -174.07, 4.18304, 65.4103, 0.021261, -92.1648
2, 480.00000, 118.68, -31.0056, 120.038, -150.996, 119.888, 88.4842, 0, 0, 4.13627, -54.0795, 4.18884, -174.07, 4.18304, 65.4103, 0.021261, -92.1648
2, 540.00000, 118.68, -31.0056, 120.038, -150.996, 119.888, 88.4842, 0, 0, 4.13627, -54.0795, 4.18884, -174.07, 4.18304, 65.4103, 0.021261, -92.1648
2, 600.00000, 118.68, -31.0056, 120.038, -150.996, 119.888, 88.4842, 0, 0, 4.13627, -54.0795, 4.18884, -174.07, 4.18304, 65.4103, 0.021261, -92.1648
2, 660.00000, 118.68, -31.0056, 120.038, -150.996, 119.888, 88.4842, 0, 0, 4.13627, -54.0795, 4.18884, -174.07, 4.18304, 65.4103, 0.021261, -92.1648
