hour,t(sec),"P1 (kW)","Q1 (kvar)","P2 (kW)","Q2 (kvar)","P3 (kW)","Q3 (kvar)","P4 (kW)","Q4 (kvar)"
0, 60.00000, 0.999491, 0.425776, 0.98483, 0.419532, 0.987533, 0.420682, 0, 0
0, 120.00000, 0.999481, 0.425777, 0.98482, 0.419532, 0.987525, 0.420684, 0, 0
0, 180.00000, 0.999481, 0.425777, 0.98482, 0.419532, 0.987525, 0.420684, 0, 0
0, 240.00000, 0.999481, 0.425777, 0.98482, 0.419532, 0.987525, 0.420684, 0, 0
0, 300.00000, 0.999481, 0.425777, 0.98482, 0.419532, 0.987525, 0.420684, 0, 0
0, 360.00000, 0.999481, 0.425777, 0.98482, 0.419532, 0.987525, 0.420684, 0, 0
0, 420.00000, 0.999481, 0.425777, 0.98482, 0.419532, 0.987525, 0.420684, 0, 0
0, 480.00000, 0.886003, 0.377442, 0.871837, 0.371405, 0.874038, 0.372345, 0, 0
0, 540.00000, 0.886015, 0.377441, 0.871846, 0.371405, 0.874046, 0.372342, 0, 0
0, 600.00000, 0.886015, 0.377441, 0.871846, 0.371405, 0.874046, 0.372342, 0, 0
0, 660.00000, 0.886015, 0.377441, 0.871846, 0.371405, 0.874046, 0.372342, 0, 0
0, 720.00000, 0.886015, 0.377441, 0.871846, 0.371405, 0.874046, 0.372342, 0, 0
0, 780.00000, 0.886015, 0.377441, 0.871846, 0.371405, 0.874046, 0.372342, 0, 0
0, 840.00000, 0.886015, 0.377441, 0.871846, 0.371405, 0.874046, 0.372342, 0, 0
0, 900.00000, 0.886015, 0.377441, 0.871846, 0.371405, 0.874046, 0.372342, 0, 0
0, 960.00000, 0.881036, 0.375318, 0.863946, 0.368038, 0.874612, 0.372583, 0, 0
0, 1020.00000, 0.881033, 0.375319, 0.863941, 0.368037, 0.874614, 0.372584, 0, 0
0, 1080.00000, 0.881033, 0.375319, 0.863941, 0.368037, 0.874614, 0.372584, 0, 0
0, 1140.00000, 0.881033, 0.375319, 0.863941, 0.368037, 0.874614, 0.372584, 0, 0
0, 1200.00000, 0.881033, 0.375319, 0.863941, 0.368037, 0.874614, 0.372584, 0, 0
0, 1260.00000, 0.881033, 0.375319, 0.863941, 0.368037, 0.874614, 0.372584, 0, 0
0, 1320.00000, 0.881033, 0.375319, 0.863941, 0.368037, 0.874614, 0.372584, 0, 0
0, 1380.00000, 0.881033, 0.375319, 0.863941, 0.368037, 0.874614, 0.372584, 0, 0
0, 1440.00000, 0.881033, 0.375319, 0.863941, 0.368037, 0.874614, 0.372584, 0, 0
0, 1500.00000, 0.881033, 0.375319, 0.863941, 0.368037, 0.874614, 0.372584, 0, 0
0, 1560.00000, 0.881033, 0.375319, 0.863941, 0.368037, 0.874614, 0.372584, 0, 0
0, 1620.00000, 0.881033, 0.375319, 0.863941, 0.368037, 0.874614, 0.372584, 0, 0
0, 1680.00000, 0.881033, 0.375319, 0.863941, 0.368037, 0.874614, 0.372584, 0, 0
0, 1740.00000, 0.881033, 0.375319, 0.863941, 0.368037, 0.874614, 0.372584, 0, 0
0, 1800.00000, 0.881033, 0.375319, 0.863941, 0.368037, 0.874614, 0.372584, 0, 0
0, 1860.00000, 0.881033, 0.375319, 0.863941, 0.368037, 0.874614, 0.372584, 0, 0
0, 1920.00000, 0.881033, 0.375319, 0.863941, 0.368037, 0.874614, 0.372584, 0, 0
0, 1980.00000, 0.881033, 0.375319, 0.863941, 0.368037, 0.874614, 0.372584, 0, 0
0, 2040.00000, 0.881033, 0.375319, 0.863941, 0.368037, 0.874614, 0.372584, 0, 0
0, 2100.00000, 0.881033, 0.375319, 0.863941, 0.368037, 0.874614, 0.372584, 0, 0
0, 2160.00000, 0.881033, 0.375319, 0.863941, 0.368037, 0.874614, 0.372584, 0, 0
0, 2220.00000, 0.881033, 0.375319, 0.863941, 0.368037, 0.874614, 0.372584, 0, 0
0, 2280.00000, 0.881033, 0.375319, 0.863941, 0.368037, 0.874614, 0.372584, 0, 0
0, 2340.00000, 0.881033, 0.375319, 0.863941, 0.368037, 0.874614, 0.372584, 0, 0
0, 2400.00000, 0.881033, 0.375319, 0.863941, 0.368037, 0.874614, 0.372584, 0, 0
0, 2460.00000, 0.881033, 0.375319, 0.863941, 0.368037, 0.874614, 0.372584, 0, 0
0, 2520.00000, 0.881033, 0.375319, 0.863941, 0.368037, 0.874614, 0.372584, 0, 0
0, 2580.00000, 0.881033, 0.375319, 0.863941, 0.368037, 0.874614, 0.372584, 0, 0
0, 2640.00000, 0.881033, 0.375319, 0.863941, 0.368037, 0.874614, 0.372584, 0, 0
0, 2700.00000, 0.881033, 0.375319, 0.863941, 0.368037, 0.874614, 0.372584, 0, 0
0, 2760.00000, 0.882502, 0.375947, 0.868472, 0.369972, 0.874545, 0.372555, 0, 0
0, 2820.00000, 0.882507, 0.375946, 0.868481, 0.369972, 0.874543, 0.372554, 0, 0
0, 2880.00000, 0.882507, 0.375946, 0.868481, 0.369972, 0.874543, 0.372554, 0, 0
0, 2940.00000, 0.882507, 0.375946, 0.868481, 0.369972, 0.874543, 0.372554, 0, 0
0, 3000.00000, 0.882507, 0.375946, 0.868481, 0.369972, 0.874543, 0.372554, 0, 0
0, 3060.00000, 0.882507, 0.375946, 0.868481, 0.369972, 0.874543, 0.372554, 0, 0
0, 3120.00000, 0.882507, 0.375946, 0.868481, 0.369972, 0.874543, 0.372554, 0, 0
0, 3180.00000, 0.882507, 0.375946, 0.868481, 0.369972, 0.874543, 0.372554, 0, 0
0, 3240.00000, 0.882507, 0.375946, 0.868481, 0.369972, 0.874543, 0.372554, 0, 0
0, 3300.00000, 0.882507, 0.375946, 0.868481, 0.369972, 0.874543, 0.372554, 0, 0
0, 3360.00000, 0.882507, 0.375946, 0.868481, 0.369972, 0.874543, 0.372554, 0, 0
0, 3420.00000, 0.882507, 0.375946, 0.868481, 0.369972, 0.874543, 0.372554, 0, 0
0, 3480.00000, 0.882507, 0.375946, 0.868481, 0.369972, 0.874543, 0.372554, 0, 0
0, 3540.00000, 0.882507, 0.375946, 0.868481, 0.369972, 0.874543, 0.372554, 0, 0
1, 0.00000, 0.882507, 0.375946, 0.868481, 0.369972, 0.874543, 0.372554, 0, 0
1, 60.00000, 0.886988, 0.37786, 0.868502, 0.36998, 0.875926, 0.373145, 0, 0
1, 120.00000, 0.886998, 0.37786, 0.868501, 0.36998, 0.875929, 0.373144, 0, 0
1, 180.00000, 0.886998, 0.37786, 0.868501, 0.36998, 0.875929, 0.373144, 0, 0
1, 240.00000, 0.886998, 0.37786, 0.868501, 0.36998, 0.875929, 0.373144, 0, 0
1, 300.00000, 0.886998, 0.37786, 0.868501, 0.36998, 0.875929, 0.373144, 0, 0
1, 360.00000, 0.886998, 0.37786, 0.868501, 0.36998, 0.875929, 0.373144, 0, 0
1, 420.00000, 0.886998, 0.37786, 0.868501, 0.36998, 0.875929, 0.373144, 0, 0
1, 480.00000, 0.886998, 0.37786, 0.868501, 0.36998, 0.875929, 0.373144, 0, 0
1, 540.00000, 0.886998, 0.37786, 0.868501, 0.36998, 0.875929, 0.373144, 0, 0
1, 600.00000, 0.886998, 0.37786, 0.868501, 0.36998, 0.875929, 0.373144, 0, 0
1, 660.00000, 0.886998, 0.37786, 0.868501, 0.36998, 0.875929, 0.373144, 0, 0
1, 720.00000, 0.886998, 0.37786, 0.868501, 0.36998, 0.875929, 0.373144, 0, 0
1, 780.00000, 0.886998, 0.37786, 0.868501, 0.36998, 0.875929, 0.373144, 0, 0
1, 840.00000, 0.886998, 0.37786, 0.868501, 0.36998, 0.875929, 0.373144, 0, 0
1, 900.00000, 0.886998, 0.37786, 0.868501, 0.36998, 0.875929, 0.373144, 0, 0
1, 960.00000, 0.886998, 0.37786, 0.868501, 0.36998, 0.875929, 0.373144, 0, 0
1, 1020.00000, 0.886998, 0.37786, 0.868501, 0.36998, 0.875929, 0.373144, 0, 0
1, 1080.00000, 0.886998, 0.37786, 0.868501, 0.36998, 0.875929, 0.373144, 0, 0
1, 1140.00000, 0.886998, 0.37786, 0.868501, 0.36998, 0.875929, 0.373144, 0, 0
1, 1200.00000, 0.886998, 0.37786, 0.868501, 0.36998, 0.875929, 0.373144, 0, 0
1, 1260.00000, 0.886998, 0.37786, 0.868501, 0.36998, 0.875929, 0.373144, 0, 0
1, 1320.00000, 0.886998, 0.37786, 0.868501, 0.36998, 0.875929, 0.373144, 0, 0
1, 1380.00000, 0.886998, 0.37786, 0.868501, 0.36998, 0.875929, 0.373144, 0, 0
1, 1440.00000, 0.886998, 0.37786, 0.868501, 0.36998, 0.875929, 0.373144, 0, 0
1, 1500.00000, 0.886998, 0.37786, 0.868501, 0.36998, 0.875929, 0.373144, 0, 0
1, 1560.00000, 0.886998, 0.37786, 0.868501, 0.36998, 0.875929, 0.373144, 0, 0
1, 1620.00000, 0.886998, 0.37786, 0.868501, 0.36998, 0.875929, 0.373144, 0, 0
1, 1680.00000, 0.886998, 0.37786, 0.868501, 0.36998, 0.875929, 0.373144, 0, 0
1, 1740.00000, 0.886998, 0.37786, 0.868501, 0.36998, 0.875929, 0.373144, 0, 0
1, 1800.00000, 0.886998, 0.37786, 0.868501, 0.36998, 0.875929, 0.373144, 0, 0
1, 1860.00000, 0.886998, 0.37786, 0.868501, 0.36998, 0.875929, 0.373144, 0, 0
1, 1920.00000, 0.886998, 0.37786, 0.868501, 0.36998, 0.875929, 0.373144, 0, 0
1, 1980.00000, 0.886998, 0.37786, 0.868501, 0.36998, 0.875929, 0.373144, 0, 0
1, 2040.00000, 0.886998, 0.37786, 0.868501, 0.36998, 0.875929, 0.373144, 0, 0
1, 2100.00000, 0.886998, 0.37786, 0.868501, 0.36998, 0.875929, 0.373144, 0, 0
1, 2160.00000, 0.886998, 0.37786, 0.868501, 0.36998, 0.875929, 0.373144, 0, 0
1, 2220.00000, 0.886998, 0.37786, 0.868501, 0.36998, 0.875929, 0.373144, 0, 0
1, 2280.00000, 0.886998, 0.37786, 0.868501, 0.36998, 0.875929, 0.373144, 0, 0
1, 2340.00000, 0.886998, 0.37786, 0.868501, 0.36998, 0.875929, 0.373144, 0, 0
1, 2400.00000, 0.886998, 0.37786, 0.868501, 0.36998, 0.875929, 0.373144, 0, 0
1, 2460.00000, 0.886998, 0.37786, 0.868501, 0.36998, 0.875929, 0.373144, 0, 0
1, 2520.00000, 0.886998, 0.37786, 0.868501, 0.36998, 0.875929, 0.373144, 0, 0
1, 2580.00000, 0.886998, 0.37786, 0.868501, 0.36998, 0.875929, 0.373144, 0, 0
1, 2640.00000, 0.886998, 0.37786, 0.868501, 0.36998, 0.875929, 0.373144, 0, 0
1, 2700.00000, 0.886998, 0.37786, 0.868501, 0.36998, 0.875929, 0.373144, 0, 0
1, 2760.00000, 0.886998, 0.37786, 0.868501, 0.36998, 0.875929, 0.373144, 0, 0
1, 2820.00000, 0.886998, 0.37786, 0.868501, 0.36998, 0.875929, 0.373144, 0, 0
1, 2880.00000, 0.886998, 0.37786, 0.868501, 0.36998, 0.875929, 0.373144, 0, 0
1, 2940.00000, 0.886998, 0.37786, 0.868501, 0.36998, 0.875929, 0.373144, 0, 0
1, 3000.00000, 0.886998, 0.37786, 0.868501, 0.36998, 0.875929, 0.373144, 0, 0
1, 3060.00000, 0.886998, 0.37786, 0.868501, 0.36998, 0.875929, 0.373144, 0, 0
1, 3120.00000, 0.886998, 0.37786, 0.868501, 0.36998, 0.875929, 0.373144, 0, 0
1, 3180.00000, 0.886998, 0.37786, 0.868501, 0.36998, 0.875929, 0.373144, 0, 0
1, 3240.00000, 0.886998, 0.37786, 0.868501, 0.36998, 0.875929, 0.373144, 0, 0
1, 3300.00000, 0.886998, 0.37786, 0.868501, 0.36998, 0.875929, 0.373144, 0, 0
1, 3360.00000, 0.886998, 0.37786, 0.868501, 0.36998, 0.875929, 0.373144, 0, 0
1, 3420.00000, 0.886998, 0.37786, 0.868501, 0.36998, 0.875929, 0.373144, 0, 0
1, 3480.00000, 0.886998, 0.37786, 0.868501, 0.36998, 0.875929, 0.373144, 0, 0
1, 3540.00000, 0.886998, 0.37786, 0.868501, 0.36998, 0.875929, 0.373144, 0, 0
2, 0.00000, 0.886998, 0.37786, 0.868501, 0.36998, 0.875929, 0.373144, 0, 0
2, 60.00000, 0.886998, 0.37786, 0.868501, 0.36998, 0.875929, 0.373144, 0, 0
2, 120.00000, 0.886998, 0.37786, 0.868501, 0.36998, 0.875929, 0.373144, 0, 0
2, 180.00000, 0.886998, 0.37786, 0.868501, 0.36998, 0.875929, 0.373144, 0, 0
2, 240.00000, 0.886998, 0.37786, 0.868501, 0.36998, 0.875929, 0.373144, 0, 0
2, 300.00000, 0.886998, 0.37786, 0.868501, 0.36998, 0.875929, 0.373144, 0, 0
2, 360.00000, 0.886998, 0.37786, 0.868501, 0.36998, 0.875929, 0.373144, 0, 0
2, 420.00000, 0.886998, 0.37786, 0.868501, 0.36998, 0.875929, 0.373144, 0, 0
2, 480.00000, 0.886998, 0.37786, 0.868501, 0.36998, 0.875929, 0.373144, 0, 0
2, 540.00000, 0.886998, 0.37786, 0.868501, 0.36998, 0.875929, 0.373144, 0, 0
2, 600.00000, 0.886998, 0.37786, 0.868501, 0.36998, 0.875929, 0.373144, 0, 0
2, 660.00000, 0.886998, 0.37786, 0.868501, 0.36998, 0.875929, 0.373144, 0, 0
2, 720.00000, 0.886998, 0.37786, 0.868501, 0.36998, 0.875929, 0.373144, 0, 0
2, 780.00000, 0.886998, 0.37786, 0.868501, 0.36998, 0.875929, 0.373144, 0, 0
2, 840.00000, 0.892088, 0.380029, 0.876442, 0.373366, 0.875349, 0.372897, 0, 0
2, 900.00000, 0.892092, 0.38003, 0.876447, 0.373365, 0.875347, 0.372896, 0, 0
2, 960.00000, 0.892092, 0.38003, 0.876447, 0.373365, 0.875347, 0.372896, 0, 0
2, 1020.00000, 0.892092, 0.38003, 0.876447, 0.373365, 0.875347, 0.372896, 0, 0
2, 1080.00000, 0.892092, 0.38003, 0.876447, 0.373365, 0.875347, 0.372896, 0, 0
2, 1140.00000, 0.892092, 0.38003, 0.876447, 0.373365, 0.875347, 0.372896, 0, 0
2, 1200.00000, 0.892092, 0.38003, 0.876447, 0.373365, 0.875347, 0.372896, 0, 0
2, 1260.00000, 0.892092, 0.38003, 0.876447, 0.373365, 0.875347, 0.372896, 0, 0
2, 1320.00000, 0.892092, 0.38003, 0.876447, 0.373365, 0.875347, 0.372896, 0, 0
2, 1380.00000, 0.892092, 0.38003, 0.876447, 0.373365, 0.875347, 0.372896, 0, 0
2, 1440.00000, 0.892092, 0.38003, 0.876447, 0.373365, 0.875347, 0.372896, 0, 0
2, 1500.00000, 0.892092, 0.38003, 0.876447, 0.373365, 0.875347, 0.372896, 0, 0
2, 1560.00000, 0.892092, 0.38003, 0.876447, 0.373365, 0.875347, 0.372896, 0, 0
2, 1620.00000, 0.892092, 0.38003, 0.876447, 0.373365, 0.875347, 0.372896, 0, 0
2, 1680.00000, 0.892092, 0.38003, 0.876447, 0.373365, 0.875347, 0.372896, 0, 0
2, 1740.00000, 0.892092, 0.38003, 0.876447, 0.373365, 0.875347, 0.372896, 0, 0
2, 1800.00000, 0.892092, 0.38003, 0.876447, 0.373365, 0.875347, 0.372896, 0, 0
2, 1860.00000, 0.892092, 0.38003, 0.876447, 0.373365, 0.875347, 0.372896, 0, 0
2, 1920.00000, 0.892092, 0.38003, 0.876447, 0.373365, 0.875347, 0.372896, 0, 0
2, 1980.00000, 0.892092, 0.38003, 0.876447, 0.373365, 0.875347, 0.372896, 0, 0
2, 2040.00000, 0.892092, 0.38003, 0.876447, 0.373365, 0.875347, 0.372896, 0, 0
2, 2100.00000, 0.892092, 0.38003, 0.876447, 0.373365, 0.875347, 0.372896, 0, 0
2, 2160.00000, 0.892092, 0.38003, 0.876447, 0.373365, 0.875347, 0.372896, 0, 0
2, 2220.00000, 0.892092, 0.38003, 0.876447, 0.373365, 0.875347, 0.372896, 0, 0
2, 2280.00000, 0.892092, 0.38003, 0.876447, 0.373365, 0.875347, 0.372896, 0, 0
2, 2340.00000, 0.892092, 0.38003, 0.876447, 0.373365, 0.875347, 0.372896, 0, 0
2, 2400.00000, 0.893872, 0.380789, 0.89974, 0.38329, 0.899849, 0.383338, 0, 0
2, 2460.00000, 0.893871, 0.380788, 0.899752, 0.383293, 0.89987, 0.383343, 0, 0
2, 2520.00000, 0.893871, 0.380788, 0.899752, 0.383293, 0.89987, 0.383343, 0, 0
2, 2580.00000, 0.893871, 0.380788, 0.899752, 0.383293, 0.89987, 0.383343, 0, 0
2, 2640.00000, 0.893871, 0.380788, 0.899752, 0.383293, 0.89987, 0.383343, 0, 0
2, 2700.00000, 0.893345, 0.380563, 0.894067, 0.380869, 0.890869, 0.379506, 0, 0
2, 2760.00000, 0.893345, 0.380564, 0.894062, 0.380869, 0.890861, 0.379505, 0, 0
2, 2820.00000, 0.893345, 0.380564, 0.894062, 0.380869, 0.890861, 0.379505, 0, 0
2, 2880.00000, 0.893345, 0.380564, 0.894062, 0.380869, 0.890861, 0.379505, 0, 0
2, 2940.00000, 0.893345, 0.380564, 0.894062, 0.380869, 0.890861, 0.379505, 0, 0
2, 3000.00000, 0.893345, 0.380564, 0.894062, 0.380869, 0.890861, 0.379505, 0, 0
2, 3060.00000, 0.898109, 0.382601, 0.894038, 0.380861, 0.892298, 0.380118, 0, 0
2, 3120.00000, 0.898131, 0.382602, 0.894036, 0.380858, 0.892301, 0.380119, 0, 0
2, 3180.00000, 0.898131, 0.382602, 0.894036, 0.380858, 0.892301, 0.380119, 0, 0
2, 3240.00000, 0.898131, 0.382602, 0.894036, 0.380858, 0.892301, 0.380119, 0, 0
2, 3300.00000, 0.898131, 0.382602, 0.894036, 0.380858, 0.892301, 0.380119, 0, 0
2, 3360.00000, 0.898131, 0.382602, 0.894036, 0.380858, 0.892301, 0.380119, 0, 0
2, 3420.00000, 0.898131, 0.382602, 0.894036, 0.380858, 0.892301, 0.380119, 0, 0
2, 3480.00000, 0.898131, 0.382602, 0.894036, 0.380858, 0.892301, 0.380119, 0, 0
2, 3540.00000, 0.898131, 0.382602, 0.894036, 0.380858, 0.892301, 0.380119, 0, 0
3, 0.00000, 0.898131, 0.382602, 0.894036, 0.380858, 0.892301, 0.380119, 0, 0
3, 60.00000, 0.898131, 0.382602, 0.894036, 0.380858, 0.892301, 0.380119, 0, 0
3, 120.00000, 0.898131, 0.382602, 0.894036, 0.380858, 0.892301, 0.380119, 0, 0
3, 180.00000, 0.898131, 0.382602, 0.894036, 0.380858, 0.892301, 0.380119, 0, 0
3, 240.00000, 0.898131, 0.382602, 0.894036, 0.380858, 0.892301, 0.380119, 0, 0
3, 300.00000, 0.898131, 0.382602, 0.894036, 0.380858, 0.892301, 0.380119, 0, 0
3, 360.00000, 0.898131, 0.382602, 0.894036, 0.380858, 0.892301, 0.380119, 0, 0
3, 420.00000, 0.898131, 0.382602, 0.894036, 0.380858, 0.892301, 0.380119, 0, 0
3, 480.00000, 0.898131, 0.382602, 0.894036, 0.380858, 0.892301, 0.380119, 0, 0
3, 540.00000, 0.898131, 0.382602, 0.894036, 0.380858, 0.892301, 0.380119, 0, 0
3, 600.00000, 0.898131, 0.382602, 0.894036, 0.380858, 0.892301, 0.380119, 0, 0
3, 660.00000, 0.898131, 0.382602, 0.894036, 0.380858, 0.892301, 0.380119, 0, 0
3, 720.00000, 0.898131, 0.382602, 0.894036, 0.380858, 0.892301, 0.380119, 0, 0
3, 780.00000, 0.898131, 0.382602, 0.894036, 0.380858, 0.892301, 0.380119, 0, 0
3, 840.00000, 0.898131, 0.382602, 0.894036, 0.380858, 0.892301, 0.380119, 0, 0
3, 900.00000, 0.898131, 0.382602, 0.894036, 0.380858, 0.892301, 0.380119, 0, 0
3, 960.00000, 0.898131, 0.382602, 0.894036, 0.380858, 0.892301, 0.380119, 0, 0
3, 1020.00000, 0.898131, 0.382602, 0.894036, 0.380858, 0.892301, 0.380119, 0, 0
3, 1080.00000, 0.898131, 0.382602, 0.894036, 0.380858, 0.892301, 0.380119, 0, 0
3, 1140.00000, 0.898131, 0.382602, 0.894036, 0.380858, 0.892301, 0.380119, 0, 0
3, 1200.00000, 0.898131, 0.382602, 0.894036, 0.380858, 0.892301, 0.380119, 0, 0
3, 1260.00000, 0.898131, 0.382602, 0.894036, 0.380858, 0.892301, 0.380119, 0, 0
3, 1320.00000, 0.898131, 0.382602, 0.894036, 0.380858, 0.892301, 0.380119, 0, 0
3, 1380.00000, 0.898131, 0.382602, 0.894036, 0.380858, 0.892301, 0.380119, 0, 0
3, 1440.00000, 0.898131, 0.382602, 0.894036, 0.380858, 0.892301, 0.380119, 0, 0
3, 1500.00000, 0.898131, 0.382602, 0.894036, 0.380858, 0.892301, 0.380119, 0, 0
3, 1560.00000, 0.898131, 0.382602, 0.894036, 0.380858, 0.892301, 0.380119, 0, 0
3, 1620.00000, 0.898131, 0.382602, 0.894036, 0.380858, 0.892301, 0.380119, 0, 0
3, 1680.00000, 0.898131, 0.382602, 0.894036, 0.380858, 0.892301, 0.380119, 0, 0
3, 1740.00000, 0.898131, 0.382602, 0.894036, 0.380858, 0.892301, 0.380119, 0, 0
3, 1800.00000, 0.898131, 0.382602, 0.894036, 0.380858, 0.892301, 0.380119, 0, 0
3, 1860.00000, 0.898131, 0.382602, 0.894036, 0.380858, 0.892301, 0.380119, 0, 0
3, 1920.00000, 0.898131, 0.382602, 0.894036, 0.380858, 0.892301, 0.380119, 0, 0
3, 1980.00000, 0.898131, 0.382602, 0.894036, 0.380858, 0.892301, 0.380119, 0, 0
3, 2040.00000, 0.898131, 0.382602, 0.894036, 0.380858, 0.892301, 0.380119, 0, 0
3, 2100.00000, 0.898131, 0.382602, 0.894036, 0.380858, 0.892301, 0.380119, 0, 0
3, 2160.00000, 0.898131, 0.382602, 0.894036, 0.380858, 0.892301, 0.380119, 0, 0
3, 2220.00000, 0.898131, 0.382602, 0.894036, 0.380858, 0.892301, 0.380119, 0, 0
3, 2280.00000, 0.898131, 0.382602, 0.894036, 0.380858, 0.892301, 0.380119, 0, 0
3, 2340.00000, 0.898131, 0.382602, 0.894036, 0.380858, 0.892301, 0.380119, 0, 0
3, 2400.00000, 0.898131, 0.382602, 0.894036, 0.380858, 0.892301, 0.380119, 0, 0
3, 2460.00000, 0.898131, 0.382602, 0.894036, 0.380858, 0.892301, 0.380119, 0, 0
3, 2520.00000, 0.898131, 0.382602, 0.894036, 0.380858, 0.892301, 0.380119, 0, 0
3, 2580.00000, 0.898131, 0.382602, 0.894036, 0.380858, 0.892301, 0.380119, 0, 0
3, 2640.00000, 0.898131, 0.382602, 0.894036, 0.380858, 0.892301, 0.380119, 0, 0
3, 2700.00000, 0.898131, 0.382602, 0.894036, 0.380858, 0.892301, 0.380119, 0, 0
3, 2760.00000, 0.898131, 0.382602, 0.894036, 0.380858, 0.892301, 0.380119, 0, 0
3, 2820.00000, 0.898131, 0.382602, 0.894036, 0.380858, 0.892301, 0.380119, 0, 0
3, 2880.00000, 0.898131, 0.382602, 0.894036, 0.380858, 0.892301, 0.380119, 0, 0
3, 2940.00000, 0.898131, 0.382602, 0.894036, 0.380858, 0.892301, 0.380119, 0, 0
3, 3000.00000, 0.898131, 0.382602, 0.894036, 0.380858, 0.892301, 0.380119, 0, 0
3, 3060.00000, 0.898131, 0.382602, 0.894036, 0.380858, 0.892301, 0.380119, 0, 0
3, 3120.00000, 0.898131, 0.382602, 0.894036, 0.380858, 0.892301, 0.380119, 0, 0
3, 3180.00000, 0.945924, 0.402959, 0.941928, 0.401257, 0.940166, 0.400509, 0, 0
3, 3240.00000, 0.945916, 0.402959, 0.941925, 0.401259, 0.940164, 0.400508, 0, 0
3, 3300.00000, 0.945916, 0.402959, 0.941925, 0.401259, 0.940164, 0.400508, 0, 0
3, 3360.00000, 0.945916, 0.402959, 0.941925, 0.401259, 0.940164, 0.400508, 0, 0
3, 3420.00000, 0.945916, 0.402959, 0.941925, 0.401259, 0.940164, 0.400508, 0, 0
3, 3480.00000, 0.945916, 0.402959, 0.941925, 0.401259, 0.940164, 0.400508, 0, 0
3, 3540.00000, 0.945916, 0.402959, 0.941925, 0.401259, 0.940164, 0.400508, 0, 0
4, 0.00000, 0.945916, 0.402959, 0.941925, 0.401259, 0.940164, 0.400508, 0, 0
4, 60.00000, 0.945916, 0.402959, 0.941925, 0.401259, 0.940164, 0.400508, 0, 0
4, 120.00000, 0.945916, 0.402959, 0.941925, 0.401259, 0.940164, 0.400508, 0, 0
4, 180.00000, 0.945916, 0.402959, 0.941925, 0.401259, 0.940164, 0.400508, 0, 0
4, 240.00000, 0.945916, 0.402959, 0.941925, 0.401259, 0.940164, 0.400508, 0, 0
4, 300.00000, 0.945916, 0.402959, 0.941925, 0.401259, 0.940164, 0.400508, 0, 0
4, 360.00000, 0.945916, 0.402959, 0.941925, 0.401259, 0.940164, 0.400508, 0, 0
4, 420.00000, 0.945916, 0.402959, 0.941925, 0.401259, 0.940164, 0.400508, 0, 0
4, 480.00000, 0.945916, 0.402959, 0.941925, 0.401259, 0.940164, 0.400508, 0, 0
4, 540.00000, 0.945916, 0.402959, 0.941925, 0.401259, 0.940164, 0.400508, 0, 0
4, 600.00000, 0.945916, 0.402959, 0.941925, 0.401259, 0.940164, 0.400508, 0, 0
4, 660.00000, 0.945916, 0.402959, 0.941925, 0.401259, 0.940164, 0.400508, 0, 0
4, 720.00000, 0.945916, 0.402959, 0.941925, 0.401259, 0.940164, 0.400508, 0, 0
