hour,t(sec),"P1 (kW)","Q1 (kvar)","P2 (kW)","Q2 (kvar)","P3 (kW)","Q3 (kvar)","P4 (kW)","Q4 (kvar)"
0, 60.00000, 0.652646, 0.278013, 0.667632, 0.284374, 0.643177, 0.273995, 0, 0
0, 120.00000, 0.652635, 0.27801, 0.667628, 0.284375, 0.642896, 0.273875, 0, 0
0, 180.00000, 0.652625, 0.278007, 0.667624, 0.284376, 0.642643, 0.273766, 0, 0
0, 240.00000, 0.652616, 0.278004, 0.667621, 0.284377, 0.642414, 0.273669, 0, 0
0, 300.00000, 0.652608, 0.278002, 0.667618, 0.284379, 0.642208, 0.273581, 0, 0
0, 360.00000, 0.652601, 0.277999, 0.667615, 0.28438, 0.642021, 0.273501, 0, 0
0, 420.00000, 0.652594, 0.277997, 0.667613, 0.284381, 0.641852, 0.273429, 0, 0
0, 480.00000, 0.652588, 0.277995, 0.667611, 0.284382, 0.6417, 0.273364, 0, 0
0, 540.00000, 0.652582, 0.277994, 0.667609, 0.284383, 0.641563, 0.273306, 0, 0
0, 600.00000, 0.652577, 0.277992, 0.667607, 0.284384, 0.641439, 0.273253, 0, 0
0, 660.00000, 0.652573, 0.27799, 0.667605, 0.284385, 0.641328, 0.273205, 0, 0
0, 720.00000, 0.652569, 0.277989, 0.667604, 0.284385, 0.641227, 0.273162, 0, 0
0, 780.00000, 0.652565, 0.277988, 0.667603, 0.284386, 0.641137, 0.273124, 0, 0
0, 840.00000, 0.652562, 0.277987, 0.667601, 0.284387, 0.641055, 0.273089, 0, 0
0, 900.00000, 0.652559, 0.277986, 0.6676, 0.284387, 0.640981, 0.273057, 0, 0
0, 960.00000, 0.636517, 0.271153, 0.653336, 0.278312, 0.625285, 0.266371, 0, 0
0, 1020.00000, 0.636514, 0.271152, 0.653336, 0.278312, 0.625227, 0.266346, 0, 0
0, 1080.00000, 0.636512, 0.271151, 0.653335, 0.278313, 0.625175, 0.266324, 0, 0
0, 1140.00000, 0.63651, 0.27115, 0.653334, 0.278313, 0.625127, 0.266303, 0, 0
0, 1200.00000, 0.636509, 0.27115, 0.653334, 0.278314, 0.625085, 0.266285, 0, 0
0, 1260.00000, 0.636507, 0.271149, 0.653333, 0.278314, 0.625046, 0.266269, 0, 0
0, 1320.00000, 0.636506, 0.271149, 0.653332, 0.278314, 0.625012, 0.266254, 0, 0
0, 1380.00000, 0.636504, 0.271148, 0.653332, 0.278314, 0.624981, 0.266241, 0, 0
0, 1440.00000, 0.636503, 0.271148, 0.653332, 0.278315, 0.624952, 0.266229, 0, 0
0, 1500.00000, 0.636502, 0.271148, 0.653331, 0.278315, 0.624927, 0.266218, 0, 0
0, 1560.00000, 0.636501, 0.271147, 0.653331, 0.278315, 0.624904, 0.266208, 0, 0
0, 1620.00000, 0.6365, 0.271147, 0.653331, 0.278315, 0.624884, 0.2662, 0, 0
0, 1680.00000, 0.6365, 0.271147, 0.65333, 0.278315, 0.624866, 0.266192, 0, 0
0, 1740.00000, 0.636499, 0.271147, 0.65333, 0.278315, 0.624849, 0.266185, 0, 0
0, 1800.00000, 0.636498, 0.271147, 0.65333, 0.278316, 0.624834, 0.266178, 0, 0
0, 1860.00000, 0.604172, 0.257376, 0.61774, 0.263154, 0.592927, 0.252586, 0, 0
0, 1920.00000, 0.604172, 0.257376, 0.617739, 0.263154, 0.592915, 0.252581, 0, 0
0, 1980.00000, 0.604171, 0.257375, 0.617739, 0.263154, 0.592904, 0.252576, 0, 0
0, 2040.00000, 0.604171, 0.257375, 0.617739, 0.263154, 0.592895, 0.252572, 0, 0
0, 2100.00000, 0.60417, 0.257375, 0.617739, 0.263155, 0.592887, 0.252569, 0, 0
0, 2160.00000, 0.60417, 0.257375, 0.617739, 0.263155, 0.592879, 0.252565, 0, 0
0, 2220.00000, 0.60417, 0.257375, 0.617739, 0.263155, 0.592872, 0.252563, 0, 0
0, 2280.00000, 0.60417, 0.257375, 0.617738, 0.263155, 0.592866, 0.25256, 0, 0
0, 2340.00000, 0.604169, 0.257375, 0.617738, 0.263155, 0.592861, 0.252558, 0, 0
0, 2400.00000, 0.604169, 0.257375, 0.617738, 0.263155, 0.592856, 0.252556, 0, 0
0, 2460.00000, 0.604169, 0.257375, 0.617738, 0.263155, 0.592851, 0.252554, 0, 0
0, 2520.00000, 0.604169, 0.257375, 0.617738, 0.263155, 0.592847, 0.252552, 0, 0
0, 2580.00000, 0.604169, 0.257375, 0.617738, 0.263155, 0.592844, 0.25255, 0, 0
0, 2640.00000, 0.604169, 0.257375, 0.617738, 0.263155, 0.592841, 0.252549, 0, 0
0, 2700.00000, 0.604168, 0.257375, 0.617738, 0.263155, 0.592838, 0.252548, 0, 0
0, 2760.00000, 0.594864, 0.253411, 0.604662, 0.257585, 0.583487, 0.248565, 0, 0
0, 2820.00000, 0.594864, 0.253411, 0.604661, 0.257584, 0.583484, 0.248563, 0, 0
0, 2880.00000, 0.594864, 0.253411, 0.604661, 0.257584, 0.583482, 0.248562, 0, 0
0, 2940.00000, 0.594864, 0.253411, 0.604661, 0.257584, 0.58348, 0.248562, 0, 0
0, 3000.00000, 0.594864, 0.253411, 0.604661, 0.257584, 0.583479, 0.248561, 0, 0
0, 3060.00000, 0.594864, 0.253411, 0.604661, 0.257584, 0.583477, 0.24856, 0, 0
0, 3120.00000, 0.594864, 0.253411, 0.604661, 0.257584, 0.583476, 0.24856, 0, 0
0, 3180.00000, 0.594863, 0.253411, 0.604661, 0.257584, 0.583474, 0.248559, 0, 0
0, 3240.00000, 0.594863, 0.253411, 0.604661, 0.257584, 0.583473, 0.248559, 0, 0
0, 3300.00000, 0.594863, 0.253411, 0.604661, 0.257584, 0.583472, 0.248558, 0, 0
0, 3360.00000, 0.594863, 0.253411, 0.604661, 0.257584, 0.583471, 0.248558, 0, 0
0, 3420.00000, 0.594863, 0.253411, 0.604661, 0.257584, 0.583471, 0.248557, 0, 0
0, 3480.00000, 0.594863, 0.253411, 0.604661, 0.257584, 0.58347, 0.248557, 0, 0
0, 3540.00000, 0.594863, 0.253411, 0.604661, 0.257584, 0.583469, 0.248557, 0, 0
1, 0.00000, 0.594863, 0.253411, 0.604661, 0.257584, 0.583469, 0.248557, 0, 0
1, 60.00000, 0.548454, 0.23364, 0.555038, 0.236445, 0.537797, 0.2291, 0, 0
1, 120.00000, 0.548454, 0.23364, 0.555037, 0.236445, 0.537796, 0.2291, 0, 0
1, 180.00000, 0.548454, 0.23364, 0.555037, 0.236445, 0.537795, 0.2291, 0, 0
1, 240.00000, 0.548454, 0.23364, 0.555037, 0.236445, 0.537795, 0.2291, 0, 0
1, 300.00000, 0.548454, 0.23364, 0.555037, 0.236445, 0.537795, 0.2291, 0, 0
1, 360.00000, 0.548453, 0.23364, 0.555037, 0.236445, 0.537794, 0.229099, 0, 0
1, 420.00000, 0.548453, 0.23364, 0.555037, 0.236445, 0.537794, 0.229099, 0, 0
1, 480.00000, 0.548453, 0.23364, 0.555037, 0.236445, 0.537794, 0.229099, 0, 0
1, 540.00000, 0.548453, 0.23364, 0.555037, 0.236445, 0.537794, 0.229099, 0, 0
1, 600.00000, 0.548453, 0.23364, 0.555037, 0.236445, 0.537794, 0.229099, 0, 0
1, 660.00000, 0.548453, 0.23364, 0.555037, 0.236445, 0.537793, 0.229099, 0, 0
1, 720.00000, 0.548453, 0.23364, 0.555037, 0.236445, 0.537793, 0.229099, 0, 0
1, 780.00000, 0.548453, 0.23364, 0.555037, 0.236445, 0.537793, 0.229099, 0, 0
1, 840.00000, 0.548453, 0.23364, 0.555037, 0.236445, 0.537793, 0.229099, 0, 0
1, 900.00000, 0.548453, 0.23364, 0.555037, 0.236445, 0.537793, 0.229099, 0, 0
1, 960.00000, 0.554699, 0.236301, 0.560851, 0.238921, 0.543883, 0.231693, 0, 0
1, 1020.00000, 0.554699, 0.236301, 0.56085, 0.238921, 0.543882, 0.231693, 0, 0
1, 1080.00000, 0.554699, 0.236301, 0.56085, 0.238921, 0.543882, 0.231693, 0, 0
1, 1140.00000, 0.554699, 0.236301, 0.56085, 0.238921, 0.543882, 0.231693, 0, 0
1, 1200.00000, 0.554699, 0.236301, 0.56085, 0.238921, 0.543882, 0.231693, 0, 0
1, 1260.00000, 0.554699, 0.236301, 0.56085, 0.238921, 0.543882, 0.231693, 0, 0
1, 1320.00000, 0.554699, 0.236301, 0.56085, 0.238921, 0.543882, 0.231693, 0, 0
1, 1380.00000, 0.554699, 0.236301, 0.56085, 0.238921, 0.543882, 0.231693, 0, 0
1, 1440.00000, 0.554699, 0.236301, 0.56085, 0.238921, 0.543882, 0.231693, 0, 0
1, 1500.00000, 0.554699, 0.236301, 0.56085, 0.238921, 0.543882, 0.231693, 0, 0
1, 1560.00000, 0.554699, 0.236301, 0.56085, 0.238921, 0.543882, 0.231693, 0, 0
1, 1620.00000, 0.554699, 0.236301, 0.56085, 0.238921, 0.543882, 0.231693, 0, 0
1, 1680.00000, 0.554699, 0.236301, 0.56085, 0.238921, 0.543882, 0.231693, 0, 0
1, 1740.00000, 0.554699, 0.236301, 0.56085, 0.238921, 0.543882, 0.231693, 0, 0
1, 1800.00000, 0.554699, 0.236301, 0.56085, 0.238921, 0.543882, 0.231693, 0, 0
1, 1860.00000, 0.588148, 0.25055, 0.596693, 0.25419, 0.576794, 0.245713, 0, 0
1, 1920.00000, 0.588148, 0.25055, 0.596694, 0.25419, 0.576795, 0.245714, 0, 0
1, 1980.00000, 0.588148, 0.25055, 0.596694, 0.25419, 0.576795, 0.245714, 0, 0
1, 2040.00000, 0.588148, 0.25055, 0.596694, 0.25419, 0.576795, 0.245714, 0, 0
1, 2100.00000, 0.588148, 0.25055, 0.596694, 0.25419, 0.576795, 0.245714, 0, 0
1, 2160.00000, 0.588148, 0.25055, 0.596694, 0.25419, 0.576795, 0.245714, 0, 0
1, 2220.00000, 0.588148, 0.25055, 0.596694, 0.25419, 0.576795, 0.245714, 0, 0
1, 2280.00000, 0.588148, 0.25055, 0.596694, 0.25419, 0.576795, 0.245714, 0, 0
1, 2340.00000, 0.588148, 0.25055, 0.596694, 0.25419, 0.576795, 0.245714, 0, 0
1, 2400.00000, 0.588148, 0.25055, 0.596694, 0.25419, 0.576795, 0.245714, 0, 0
1, 2460.00000, 0.588148, 0.25055, 0.596694, 0.25419, 0.576795, 0.245714, 0, 0
1, 2520.00000, 0.588148, 0.25055, 0.596694, 0.25419, 0.576795, 0.245714, 0, 0
1, 2580.00000, 0.588148, 0.25055, 0.596694, 0.25419, 0.576795, 0.245714, 0, 0
1, 2640.00000, 0.588148, 0.25055, 0.596694, 0.25419, 0.576795, 0.245714, 0, 0
1, 2700.00000, 0.588148, 0.25055, 0.596694, 0.25419, 0.576795, 0.245714, 0, 0
1, 2760.00000, 0.559822, 0.238483, 0.563275, 0.239954, 0.5487, 0.233745, 0, 0
1, 2820.00000, 0.559822, 0.238483, 0.563275, 0.239954, 0.5487, 0.233745, 0, 0
1, 2880.00000, 0.559822, 0.238483, 0.563275, 0.239954, 0.5487, 0.233745, 0, 0
1, 2940.00000, 0.559822, 0.238483, 0.563275, 0.239954, 0.5487, 0.233745, 0, 0
1, 3000.00000, 0.559822, 0.238483, 0.563275, 0.239954, 0.5487, 0.233745, 0, 0
1, 3060.00000, 0.559822, 0.238483, 0.563275, 0.239954, 0.5487, 0.233745, 0, 0
1, 3120.00000, 0.559822, 0.238483, 0.563275, 0.239954, 0.5487, 0.233745, 0, 0
1, 3180.00000, 0.559822, 0.238483, 0.563275, 0.239954, 0.5487, 0.233745, 0, 0
1, 3240.00000, 0.559822, 0.238483, 0.563275, 0.239954, 0.5487, 0.233745, 0, 0
1, 3300.00000, 0.559822, 0.238483, 0.563275, 0.239954, 0.5487, 0.233745, 0, 0
1, 3360.00000, 0.559822, 0.238483, 0.563275, 0.239954, 0.5487, 0.233745, 0, 0
1, 3420.00000, 0.559822, 0.238483, 0.563275, 0.239954, 0.5487, 0.233745, 0, 0
1, 3480.00000, 0.559822, 0.238483, 0.563275, 0.239954, 0.5487, 0.233745, 0, 0
1, 3540.00000, 0.559822, 0.238483, 0.563275, 0.239954, 0.5487, 0.233745, 0, 0
2, 0.00000, 0.559822, 0.238483, 0.563275, 0.239954, 0.5487, 0.233745, 0, 0
2, 60.00000, 0.592997, 0.252616, 0.599409, 0.255347, 0.581412, 0.24768, 0, 0
2, 120.00000, 0.592997, 0.252616, 0.599409, 0.255347, 0.581412, 0.247681, 0, 0
2, 180.00000, 0.592997, 0.252616, 0.599409, 0.255347, 0.581412, 0.247681, 0, 0
2, 240.00000, 0.592997, 0.252616, 0.599409, 0.255347, 0.581412, 0.247681, 0, 0
2, 300.00000, 0.592997, 0.252616, 0.599409, 0.255347, 0.581412, 0.247681, 0, 0
2, 360.00000, 0.592997, 0.252616, 0.599409, 0.255347, 0.581412, 0.247681, 0, 0
2, 420.00000, 0.592997, 0.252616, 0.599409, 0.255347, 0.581412, 0.247681, 0, 0
2, 480.00000, 0.592997, 0.252616, 0.599409, 0.255347, 0.581412, 0.247681, 0, 0
2, 540.00000, 0.592997, 0.252616, 0.599409, 0.255347, 0.581412, 0.247681, 0, 0
2, 600.00000, 0.592997, 0.252616, 0.599409, 0.255347, 0.581412, 0.247681, 0, 0
2, 660.00000, 0.592997, 0.252616, 0.599409, 0.255347, 0.581412, 0.247681, 0, 0
2, 720.00000, 0.592997, 0.252616, 0.599409, 0.255347, 0.581412, 0.247681, 0, 0
2, 780.00000, 0.592997, 0.252616, 0.599409, 0.255347, 0.581412, 0.247681, 0, 0
2, 840.00000, 0.592997, 0.252616, 0.599409, 0.255347, 0.581412, 0.247681, 0, 0
2, 900.00000, 0.592997, 0.252616, 0.599409, 0.255347, 0.581412, 0.247681, 0, 0
2, 960.00000, 0.573389, 0.244263, 0.576186, 0.245454, 0.561928, 0.23938, 0, 0
2, 1020.00000, 0.573389, 0.244263, 0.576185, 0.245454, 0.561927, 0.23938, 0, 0
2, 1080.00000, 0.573389, 0.244263, 0.576185, 0.245454, 0.561927, 0.23938, 0, 0
2, 1140.00000, 0.573389, 0.244263, 0.576185, 0.245454, 0.561927, 0.23938, 0, 0
2, 1200.00000, 0.573389, 0.244263, 0.576185, 0.245454, 0.561927, 0.23938, 0, 0
2, 1260.00000, 0.573389, 0.244263, 0.576185, 0.245454, 0.561927, 0.23938, 0, 0
2, 1320.00000, 0.573389, 0.244263, 0.576185, 0.245454, 0.561927, 0.23938, 0, 0
2, 1380.00000, 0.573389, 0.244263, 0.576185, 0.245454, 0.561927, 0.23938, 0, 0
2, 1440.00000, 0.573389, 0.244263, 0.576185, 0.245454, 0.561927, 0.23938, 0, 0
2, 1500.00000, 0.573389, 0.244263, 0.576185, 0.245454, 0.561927, 0.23938, 0, 0
2, 1560.00000, 0.573389, 0.244263, 0.576185, 0.245454, 0.561927, 0.23938, 0, 0
2, 1620.00000, 0.573389, 0.244263, 0.576185, 0.245454, 0.561927, 0.23938, 0, 0
2, 1680.00000, 0.573389, 0.244263, 0.576185, 0.245454, 0.561927, 0.23938, 0, 0
2, 1740.00000, 0.573389, 0.244263, 0.576185, 0.245454, 0.561927, 0.23938, 0, 0
2, 1800.00000, 0.573389, 0.244263, 0.576185, 0.245454, 0.561927, 0.23938, 0, 0
2, 1860.00000, 0.61071, 0.260162, 0.615294, 0.262114, 0.598642, 0.25502, 0, 0
2, 1920.00000, 0.61071, 0.260161, 0.615294, 0.262114, 0.598642, 0.25502, 0, 0
2, 1980.00000, 0.61071, 0.260161, 0.615294, 0.262114, 0.598642, 0.25502, 0, 0
2, 2040.00000, 0.61071, 0.260161, 0.615294, 0.262114, 0.598642, 0.25502, 0, 0
2, 2100.00000, 0.61071, 0.260161, 0.615294, 0.262114, 0.598642, 0.25502, 0, 0
2, 2160.00000, 0.61071, 0.260161, 0.615294, 0.262114, 0.598642, 0.25502, 0, 0
2, 2220.00000, 0.61071, 0.260161, 0.615294, 0.262114, 0.598642, 0.25502, 0, 0
2, 2280.00000, 0.61071, 0.260161, 0.615294, 0.262114, 0.598642, 0.25502, 0, 0
2, 2340.00000, 0.61071, 0.260161, 0.615294, 0.262114, 0.598642, 0.25502, 0, 0
2, 2400.00000, 0.61071, 0.260161, 0.615294, 0.262114, 0.598642, 0.25502, 0, 0
2, 2460.00000, 0.61071, 0.260161, 0.615294, 0.262114, 0.598642, 0.25502, 0, 0
2, 2520.00000, 0.61071, 0.260161, 0.615294, 0.262114, 0.598642, 0.25502, 0, 0
2, 2580.00000, 0.61071, 0.260161, 0.615294, 0.262114, 0.598642, 0.25502, 0, 0
2, 2640.00000, 0.61071, 0.260161, 0.615294, 0.262114, 0.598642, 0.25502, 0, 0
2, 2700.00000, 0.61071, 0.260161, 0.615294, 0.262114, 0.598642, 0.25502, 0, 0
2, 2760.00000, 0.567565, 0.241782, 0.567983, 0.24196, 0.555985, 0.236849, 0, 0
2, 2820.00000, 0.567565, 0.241782, 0.567982, 0.241959, 0.555985, 0.236848, 0, 0
2, 2880.00000, 0.567565, 0.241782, 0.567982, 0.241959, 0.555985, 0.236848, 0, 0
2, 2940.00000, 0.567565, 0.241782, 0.567982, 0.241959, 0.555985, 0.236848, 0, 0
2, 3000.00000, 0.567565, 0.241782, 0.567982, 0.241959, 0.555985, 0.236848, 0, 0
2, 3060.00000, 0.567565, 0.241782, 0.567982, 0.241959, 0.555985, 0.236848, 0, 0
2, 3120.00000, 0.567565, 0.241782, 0.567982, 0.241959, 0.555985, 0.236848, 0, 0
2, 3180.00000, 0.567565, 0.241782, 0.567982, 0.241959, 0.555985, 0.236848, 0, 0
2, 3240.00000, 0.567565, 0.241782, 0.567982, 0.241959, 0.555985, 0.236848, 0, 0
2, 3300.00000, 0.567565, 0.241782, 0.567982, 0.241959, 0.555985, 0.236848, 0, 0
2, 3360.00000, 0.567565, 0.241782, 0.567982, 0.241959, 0.555985, 0.236848, 0, 0
2, 3420.00000, 0.567565, 0.241782, 0.567982, 0.241959, 0.555985, 0.236848, 0, 0
2, 3480.00000, 0.567565, 0.241782, 0.567982, 0.241959, 0.555985, 0.236848, 0, 0
2, 3540.00000, 0.567565, 0.241782, 0.567982, 0.241959, 0.555985, 0.236848, 0, 0
3, 0.00000, 0.567565, 0.241782, 0.567982, 0.241959, 0.555985, 0.236848, 0, 0
3, 60.00000, 0.60568, 0.258019, 0.608311, 0.259139, 0.593537, 0.252846, 0, 0
3, 120.00000, 0.60568, 0.258018, 0.608311, 0.259139, 0.593537, 0.252846, 0, 0
3, 180.00000, 0.60568, 0.258018, 0.608311, 0.259139, 0.593537, 0.252846, 0, 0
3, 240.00000, 0.60568, 0.258018, 0.608311, 0.259139, 0.593537, 0.252846, 0, 0
3, 300.00000, 0.60568, 0.258018, 0.608311, 0.259139, 0.593537, 0.252846, 0, 0
3, 360.00000, 0.60568, 0.258018, 0.608311, 0.259139, 0.593537, 0.252846, 0, 0
3, 420.00000, 0.60568, 0.258018, 0.608311, 0.259139, 0.593537, 0.252846, 0, 0
3, 480.00000, 0.60568, 0.258018, 0.608311, 0.259139, 0.593537, 0.252846, 0, 0
3, 540.00000, 0.60568, 0.258018, 0.608311, 0.259139, 0.593537, 0.252846, 0, 0
3, 600.00000, 0.60568, 0.258018, 0.608311, 0.259139, 0.593537, 0.252846, 0, 0
3, 660.00000, 0.60568, 0.258018, 0.608311, 0.259139, 0.593537, 0.252846, 0, 0
3, 720.00000, 0.60568, 0.258018, 0.608311, 0.259139, 0.593537, 0.252846, 0, 0
3, 780.00000, 0.60568, 0.258018, 0.608311, 0.259139, 0.593537, 0.252846, 0, 0
3, 840.00000, 0.60568, 0.258018, 0.608311, 0.259139, 0.593537, 0.252846, 0, 0
3, 900.00000, 0.60568, 0.258018, 0.608311, 0.259139, 0.593537, 0.252846, 0, 0
3, 960.00000, 0.560238, 0.23866, 0.56192, 0.239377, 0.548951, 0.233852, 0, 0
3, 1020.00000, 0.560238, 0.238661, 0.561919, 0.239377, 0.54895, 0.233852, 0, 0
3, 1080.00000, 0.560238, 0.238661, 0.561919, 0.239377, 0.54895, 0.233852, 0, 0
3, 1140.00000, 0.560238, 0.238661, 0.561919, 0.239377, 0.54895, 0.233852, 0, 0
3, 1200.00000, 0.560238, 0.238661, 0.561919, 0.239377, 0.54895, 0.233852, 0, 0
3, 1260.00000, 0.560238, 0.238661, 0.561919, 0.239377, 0.54895, 0.233852, 0, 0
3, 1320.00000, 0.560238, 0.238661, 0.561919, 0.239377, 0.54895, 0.233852, 0, 0
3, 1380.00000, 0.560238, 0.238661, 0.561919, 0.239377, 0.54895, 0.233852, 0, 0
3, 1440.00000, 0.560238, 0.238661, 0.561919, 0.239377, 0.54895, 0.233852, 0, 0
3, 1500.00000, 0.560238, 0.238661, 0.561919, 0.239377, 0.54895, 0.233852, 0, 0
3, 1560.00000, 0.560238, 0.238661, 0.561919, 0.239377, 0.54895, 0.233852, 0, 0
3, 1620.00000, 0.560238, 0.238661, 0.561919, 0.239377, 0.54895, 0.233852, 0, 0
3, 1680.00000, 0.560238, 0.238661, 0.561919, 0.239377, 0.54895, 0.233852, 0, 0
3, 1740.00000, 0.560238, 0.238661, 0.561919, 0.239377, 0.54895, 0.233852, 0, 0
3, 1800.00000, 0.560238, 0.238661, 0.561919, 0.239377, 0.54895, 0.233852, 0, 0
3, 1860.00000, 0.522165, 0.222441, 0.523609, 0.223056, 0.511628, 0.217953, 0, 0
3, 1920.00000, 0.522165, 0.222441, 0.523609, 0.223056, 0.511628, 0.217953, 0, 0
3, 1980.00000, 0.522165, 0.222441, 0.523609, 0.223056, 0.511628, 0.217953, 0, 0
3, 2040.00000, 0.522165, 0.222441, 0.523609, 0.223056, 0.511628, 0.217953, 0, 0
3, 2100.00000, 0.522165, 0.222441, 0.523609, 0.223056, 0.511628, 0.217953, 0, 0
3, 2160.00000, 0.522165, 0.222441, 0.523609, 0.223056, 0.511628, 0.217953, 0, 0
3, 2220.00000, 0.522165, 0.222441, 0.523609, 0.223056, 0.511628, 0.217953, 0, 0
3, 2280.00000, 0.522165, 0.222441, 0.523609, 0.223056, 0.511628, 0.217953, 0, 0
3, 2340.00000, 0.522165, 0.222441, 0.523609, 0.223056, 0.511628, 0.217953, 0, 0
3, 2400.00000, 0.522165, 0.222441, 0.523609, 0.223056, 0.511628, 0.217953, 0, 0
3, 2460.00000, 0.522165, 0.222441, 0.523609, 0.223056, 0.511628, 0.217953, 0, 0
3, 2520.00000, 0.522165, 0.222441, 0.523609, 0.223056, 0.511628, 0.217953, 0, 0
3, 2580.00000, 0.522165, 0.222441, 0.523609, 0.223056, 0.511628, 0.217953, 0, 0
3, 2640.00000, 0.522165, 0.222441, 0.523609, 0.223056, 0.511628, 0.217953, 0, 0
3, 2700.00000, 0.522165, 0.222441, 0.523609, 0.223056, 0.511628, 0.217953, 0, 0
3, 2760.00000, 0.55189, 0.235104, 0.55189, 0.235104, 0.542406, 0.231064, 0, 0
3, 2820.00000, 0.55189, 0.235104, 0.55189, 0.235104, 0.542406, 0.231064, 0, 0
3, 2880.00000, 0.55189, 0.235104, 0.55189, 0.235104, 0.542406, 0.231064, 0, 0
3, 2940.00000, 0.55189, 0.235104, 0.55189, 0.235104, 0.542406, 0.231064, 0, 0
3, 3000.00000, 0.55189, 0.235104, 0.55189, 0.235104, 0.542406, 0.231064, 0, 0
3, 3060.00000, 0.55189, 0.235104, 0.55189, 0.235104, 0.542406, 0.231064, 0, 0
3, 3120.00000, 0.55189, 0.235104, 0.55189, 0.235104, 0.542406, 0.231064, 0, 0
3, 3180.00000, 0.55189, 0.235104, 0.55189, 0.235104, 0.542406, 0.231064, 0, 0
3, 3240.00000, 0.55189, 0.235104, 0.55189, 0.235104, 0.542406, 0.231064, 0, 0
3, 3300.00000, 0.55189, 0.235104, 0.55189, 0.235104, 0.542406, 0.231064, 0, 0
3, 3360.00000, 0.55189, 0.235104, 0.55189, 0.235104, 0.542406, 0.231064, 0, 0
3, 3420.00000, 0.55189, 0.235104, 0.55189, 0.235104, 0.542406, 0.231064, 0, 0
3, 3480.00000, 0.55189, 0.235104, 0.55189, 0.235104, 0.542406, 0.231064, 0, 0
3, 3540.00000, 0.55189, 0.235104, 0.55189, 0.235104, 0.542406, 0.231064, 0, 0
4, 0.00000, 0.55189, 0.235104, 0.55189, 0.235104, 0.542406, 0.231064, 0, 0
4, 60.00000, 0.518479, 0.220871, 0.518741, 0.220983, 0.507899, 0.216364, 0, 0
4, 120.00000, 0.518479, 0.220871, 0.518742, 0.220983, 0.507899, 0.216364, 0, 0
4, 180.00000, 0.518479, 0.220871, 0.518742, 0.220983, 0.507899, 0.216364, 0, 0
4, 240.00000, 0.518479, 0.220871, 0.518742, 0.220983, 0.507899, 0.216364, 0, 0
4, 300.00000, 0.518479, 0.220871, 0.518742, 0.220983, 0.507899, 0.216364, 0, 0
4, 360.00000, 0.518479, 0.220871, 0.518742, 0.220983, 0.507899, 0.216364, 0, 0
4, 420.00000, 0.518479, 0.220871, 0.518742, 0.220983, 0.507899, 0.216364, 0, 0
4, 480.00000, 0.518479, 0.220871, 0.518742, 0.220983, 0.507899, 0.216364, 0, 0
4, 540.00000, 0.518479, 0.220871, 0.518742, 0.220983, 0.507899, 0.216364, 0, 0
4, 600.00000, 0.518479, 0.220871, 0.518742, 0.220983, 0.507899, 0.216364, 0, 0
4, 660.00000, 0.518479, 0.220871, 0.518742, 0.220983, 0.507899, 0.216364, 0, 0
4, 720.00000, 0.518479, 0.220871, 0.518742, 0.220983, 0.507899, 0.216364, 0, 0
