hour,t(sec),V1,VAngle1,V2,VAngle2,V3,VAngle3,V4,VAngle4,I1,IAngle1,I2,IAngle2,I3,IAngle3,I4,IAngle4
0, 60.00000, 127.368, -31.3753, 126.925, -150.549, 128.794, 89.2796, 0, 0, 2.55592, -54.4487, 2.56485, -173.623, 2.52766, 66.2059, 0.0671827, 50.0887
0, 120.00000, 127.377, -31.3838, 126.925, -150.549, 128.816, 89.279, 0, 0, 2.55573, -54.4573, 2.56485, -173.623, 2.52723, 66.2053, 0.0679135, 49.9838
0, 180.00000, 127.386, -31.3914, 126.925, -150.549, 128.836, 89.2784, 0, 0, 2.55557, -54.465, 2.56485, -173.623, 2.52684, 66.2047, 0.0685717, 49.8918
0, 240.00000, 127.393, -31.3983, 126.925, -150.549, 128.853, 89.2779, 0, 0, 2.55542, -54.4719, 2.56485, -173.623, 2.52649, 66.2041, 0.0691646, 49.8109
0, 300.00000, 127.4, -31.4045, 126.925, -150.549, 128.869, 89.2774, 0, 0, 2.55529, -54.4781, 2.56485, -173.623, 2.52617, 66.2037, 0.0696986, 49.7398
0, 360.00000, 127.405, -31.4101, 126.925, -150.549, 128.884, 89.277, 0, 0, 2.55517, -54.4837, 2.56485, -173.623, 2.52589, 66.2032, 0.0701794, 49.677
0, 420.00000, 127.411, -31.4151, 126.925, -150.549, 128.897, 89.2766, 0, 0, 2.55507, -54.4888, 2.56485, -173.623, 2.52563, 66.2028, 0.0706124, 49.6215
0, 480.00000, 127.416, -31.4197, 126.925, -150.549, 128.908, 89.2762, 0, 0, 2.55497, -54.4933, 2.56485, -173.623, 2.5254, 66.2024, 0.0710023, 49.5723
0, 540.00000, 127.42, -31.4237, 126.925, -150.549, 128.919, 89.2759, 0, 0, 2.55489, -54.4974, 2.56485, -173.623, 2.5252, 66.2021, 0.0713533, 49.5287
0, 600.00000, 127.424, -31.4274, 126.925, -150.549, 128.928, 89.2756, 0, 0, 2.55481, -54.5011, 2.56485, -173.623, 2.52501, 66.2018, 0.0716693, 49.49
0, 660.00000, 127.427, -31.4307, 126.925, -150.549, 128.937, 89.2753, 0, 0, 2.55474, -54.5045, 2.56485, -173.623, 2.52484, 66.2015, 0.0719538, 49.4555
0, 720.00000, 127.43, -31.4337, 126.925, -150.549, 128.944, 89.2751, 0, 0, 2.55468, -54.5075, 2.56485, -173.623, 2.52469, 66.2012, 0.07221, 49.4248
0, 780.00000, 127.433, -31.4364, 126.925, -150.549, 128.951, 89.2748, 0, 0, 2.55462, -54.5102, 2.56485, -173.623, 2.52456, 66.201, 0.0724405, 49.3974
0, 840.00000, 127.436, -31.4388, 126.925, -150.549, 128.957, 89.2747, 0, 0, 2.55457, -54.5126, 2.56485, -173.623, 2.52443, 66.2008, 0.0726481, 49.373
0, 900.00000, 127.438, -31.441, 126.925, -150.549, 128.963, 89.2745, 0, 0, 2.55452, -54.5148, 2.56485, -173.623, 2.52432, 66.2006, 0.072835, 49.3512
0, 960.00000, 127.44, -31.4429, 126.925, -150.549, 128.968, 89.2743, 0, 0, 2.55448, -54.5168, 2.56485, -173.623, 2.52423, 66.2004, 0.0730032, 49.3317
0, 1020.00000, 127.442, -31.4447, 126.925, -150.549, 128.973, 89.2742, 0, 0, 2.55445, -54.5185, 2.56485, -173.623, 2.52414, 66.2003, 0.0731546, 49.3143
0, 1080.00000, 127.443, -31.4463, 126.925, -150.549, 128.977, 89.274, 0, 0, 2.55441, -54.5201, 2.56485, -173.623, 2.52406, 66.2001, 0.0732909, 49.2987
0, 1140.00000, 127.445, -31.4477, 126.925, -150.549, 128.98, 89.2739, 0, 0, 2.55438, -54.5216, 2.56485, -173.623, 2.52398, 66.2, 0.0734135, 49.2847
0, 1200.00000, 127.446, -31.449, 126.925, -150.549, 128.984, 89.2738, 0, 0, 2.55436, -54.5228, 2.56485, -173.623, 2.52392, 66.1999, 0.073524, 49.2722
0, 1260.00000, 127.448, -31.4502, 126.925, -150.549, 128.987, 89.2737, 0, 0, 2.55433, -54.524, 2.56485, -173.623, 2.52386, 66.1998, 0.0736234, 49.261
0, 1320.00000, 127.449, -31.4512, 126.925, -150.549, 128.989, 89.2736, 0, 0, 2.55431, -54.5251, 2.56485, -173.623, 2.52381, 66.1997, 0.0737128, 49.2509
0, 1380.00000, 127.45, -31.4521, 126.925, -150.549, 128.992, 89.2735, 0, 0, 2.55429, -54.526, 2.56485, -173.623, 2.52376, 66.1996, 0.0737933, 49.2419
0, 1440.00000, 127.45, -31.453, 126.925, -150.549, 128.994, 89.2734, 0, 0, 2.55427, -54.5269, 2.56485, -173.623, 2.52372, 66.1996, 0.0738658, 49.2338
0, 1500.00000, 127.451, -31.4537, 126.925, -150.549, 128.996, 89.2734, 0, 0, 2.55426, -54.5276, 2.56485, -173.623, 2.52368, 66.1995, 0.073931, 49.2265
0, 1560.00000, 127.452, -31.4544, 126.925, -150.549, 128.997, 89.2733, 0, 0, 2.55424, -54.5283, 2.56485, -173.623, 2.52364, 66.1994, 0.0739897, 49.22
0, 1620.00000, 127.453, -31.455, 126.925, -150.549, 128.999, 89.2733, 0, 0, 2.55423, -54.5289, 2.56485, -173.623, 2.52361, 66.1994, 0.0740426, 49.2141
0, 1680.00000, 127.453, -31.4556, 126.925, -150.549, 129, 89.2732, 0, 0, 2.55422, -54.5295, 2.56485, -173.623, 2.52359, 66.1993, 0.0740902, 49.2089
0, 1740.00000, 127.454, -31.4561, 126.925, -150.549, 129.002, 89.2732, 0, 0, 2.55421, -54.53, 2.56485, -173.623, 2.52356, 66.1993, 0.074133, 49.2041
0, 1800.00000, 127.454, -31.4565, 126.925, -150.549, 129.003, 89.2731, 0, 0, 2.5542, -54.5304, 2.56485, -173.623, 2.52354, 66.1992, 0.0741715, 49.1999
0, 1860.00000, 127.455, -31.4569, 126.925, -150.549, 129.004, 89.2731, 0, 0, 2.55419, -54.5308, 2.56485, -173.623, 2.52352, 66.1992, 0.0742062, 49.1961
0, 1920.00000, 127.455, -31.4573, 126.925, -150.549, 129.005, 89.2731, 0, 0, 2.55418, -54.5312, 2.56485, -173.623, 2.5235, 66.1992, 0.0742374, 49.1926
0, 1980.00000, 127.455, -31.4576, 126.925, -150.549, 129.006, 89.273, 0, 0, 2.55418, -54.5315, 2.56485, -173.623, 2.52348, 66.1991, 0.0742655, 49.1895
0, 2040.00000, 127.456, -31.4579, 126.925, -150.549, 129.006, 89.273, 0, 0, 2.55417, -54.5318, 2.56485, -173.623, 2.52347, 66.1991, 0.0742908, 49.1868
0, 2100.00000, 127.456, -31.4582, 126.925, -150.549, 129.007, 89.273, 0, 0, 2.55417, -54.5321, 2.56485, -173.623, 2.52345, 66.1991, 0.0743135, 49.1843
0, 2160.00000, 127.456, -31.4584, 126.925, -150.549, 129.008, 89.273, 0, 0, 2.55416, -54.5323, 2.56485, -173.623, 2.52344, 66.1991, 0.074334, 49.182
0, 2220.00000, 127.456, -31.4586, 126.925, -150.549, 129.008, 89.273, 0, 0, 2.55416, -54.5326, 2.56485, -173.623, 2.52343, 66.199, 0.0743524, 49.18
0, 2280.00000, 127.457, -31.4588, 126.925, -150.549, 129.009, 89.2729, 0, 0, 2.55415, -54.5327, 2.56485, -173.623, 2.52342, 66.199, 0.074369, 49.1782
0, 2340.00000, 127.457, -31.459, 126.925, -150.549, 129.009, 89.2729, 0, 0, 2.55415, -54.5329, 2.56485, -173.623, 2.52341, 66.199, 0.0743839, 49.1765
0, 2400.00000, 127.457, -31.4592, 126.925, -150.549, 129.01, 89.2729, 0, 0, 2.55415, -54.5331, 2.56485, -173.623, 2.52341, 66.199, 0.0743974, 49.1751
0, 2460.00000, 127.457, -31.4593, 126.925, -150.549, 129.01, 89.2729, 0, 0, 2.55414, -54.5332, 2.56485, -173.623, 2.5234, 66.199, 0.0744095, 49.1738
0, 2520.00000, 127.457, -31.4594, 126.925, -150.549, 129.01, 89.2729, 0, 0, 2.55414, -54.5333, 2.56485, -173.623, 2.52339, 66.199, 0.0744203, 49.1726
0, 2580.00000, 127.457, -31.4595, 126.925, -150.549, 129.011, 89.2729, 0, 0, 2.55414, -54.5335, 2.56485, -173.623, 2.52339, 66.199, 0.0744301, 49.1715
0, 2640.00000, 127.457, -31.4597, 126.925, -150.549, 129.011, 89.2729, 0, 0, 2.55414, -54.5336, 2.56485, -173.623, 2.52338, 66.199, 0.074439, 49.1705
0, 2700.00000, 127.458, -31.4597, 126.925, -150.549, 129.011, 89.2729, 0, 0, 2.55413, -54.5337, 2.56485, -173.623, 2.52338, 66.1989, 0.0744469, 49.1697
0, 2760.00000, 127.458, -31.4598, 126.925, -150.549, 129.011, 89.2729, 0, 0, 2.55413, -54.5337, 2.56485, -173.623, 2.52337, 66.1989, 0.074454, 49.1689
0, 2820.00000, 127.458, -31.4599, 126.925, -150.549, 129.011, 89.2728, 0, 0, 2.55413, -54.5338, 2.56485, -173.623, 2.52337, 66.1989, 0.0744605, 49.1682
0, 2880.00000, 127.458, -31.46, 126.925, -150.549, 129.012, 89.2728, 0, 0, 2.55413, -54.5339, 2.56485, -173.623, 2.52337, 66.1989, 0.0744663, 49.1676
0, 2940.00000, 127.458, -31.46, 126.925, -150.549, 129.012, 89.2728, 0, 0, 2.55413, -54.5339, 2.56485, -173.623, 2.52336, 66.1989, 0.0744715, 49.167
0, 3000.00000, 127.458, -31.4601, 126.925, -150.549, 129.012, 89.2728, 0, 0, 2.55413, -54.534, 2.56485, -173.623, 2.52336, 66.1989, 0.0744761, 49.1665
0, 3060.00000, 127.458, -31.4601, 126.925, -150.549, 129.012, 89.2728, 0, 0, 2.55413, -54.534, 2.56485, -173.623, 2.52336, 66.1989, 0.0744804, 49.166
0, 3120.00000, 127.458, -31.4602, 126.925, -150.549, 129.012, 89.2728, 0, 0, 2.55412, -54.5341, 2.56485, -173.623, 2.52335, 66.1989, 0.0744842, 49.1656
0, 3180.00000, 127.458, -31.4602, 126.925, -150.549, 129.012, 89.2728, 0, 0, 2.55412, -54.5341, 2.56485, -173.623, 2.52335, 66.1989, 0.0744876, 49.1652
0, 3240.00000, 127.458, -31.4603, 126.925, -150.549, 129.012, 89.2728, 0, 0, 2.55412, -54.5342, 2.56485, -173.623, 2.52335, 66.1989, 0.0744906, 49.1649
0, 3300.00000, 127.458, -31.4603, 126.925, -150.549, 129.012, 89.2728, 0, 0, 2.55412, -54.5342, 2.56485, -173.623, 2.52335, 66.1989, 0.0744934, 49.1646
0, 3360.00000, 127.458, -31.4603, 126.925, -150.549, 129.013, 89.2728, 0, 0, 2.55412, -54.5342, 2.56485, -173.623, 2.52335, 66.1989, 0.0744959, 49.1643
0, 3420.00000, 127.458, -31.4603, 126.925, -150.549, 129.013, 89.2728, 0, 0, 2.55412, -54.5343, 2.56485, -173.623, 2.52335, 66.1989, 0.0744981, 49.1641
0, 3480.00000, 127.458, -31.4604, 126.925, -150.549, 129.013, 89.2728, 0, 0, 2.55412, -54.5343, 2.56485, -173.623, 2.52334, 66.1989, 0.0745002, 49.1639
0, 3540.00000, 127.458, -31.4604, 126.925, -150.549, 129.013, 89.2728, 0, 0, 2.55412, -54.5343, 2.56485, -173.623, 2.52334, 66.1989, 0.074502, 49.1637
1, 0.00000, 127.458, -31.4604, 126.925, -150.549, 129.013, 89.2728, 0, 0, 2.55412, -54.5343, 2.56485, -173.623, 2.52334, 66.1989, 0.0745036, 49.1635
1, 60.00000, 127.458, -31.4604, 126.925, -150.549, 129.013, 89.2728, 0, 0, 2.55412, -54.5343, 2.56485, -173.623, 2.52334, 66.1989, 0.0745051, 49.1633
1, 120.00000, 127.458, -31.4604, 126.925, -150.549, 129.013, 89.2728, 0, 0, 2.55412, -54.5344, 2.56485, -173.623, 2.52334, 66.1989, 0.0745064, 49.1632
1, 180.00000, 127.458, -31.4605, 126.925, -150.549, 129.013, 89.2728, 0, 0, 2.55412, -54.5344, 2.56485, -173.623, 2.52334, 66.1989, 0.0745076, 49.1631
1, 240.00000, 127.458, -31.4605, 126.925, -150.549, 129.013, 89.2728, 0, 0, 2.55412, -54.5344, 2.56485, -173.623, 2.52334, 66.1989, 0.0745087, 49.1629
1, 300.00000, 127.458, -31.4605, 126.925, -150.549, 129.013, 89.2728, 0, 0, 2.55412, -54.5344, 2.56485, -173.623, 2.52334, 66.1989, 0.0745096, 49.1628
1, 360.00000, 127.458, -31.4605, 126.925, -150.549, 129.013, 89.2728, 0, 0, 2.55412, -54.5344, 2.56485, -173.623, 2.52334, 66.1989, 0.0745105, 49.1627
1, 420.00000, 127.458, -31.4605, 126.925, -150.549, 129.013, 89.2728, 0, 0, 2.55412, -54.5344, 2.56485, -173.623, 2.52334, 66.1989, 0.0745113, 49.1627
1, 480.00000, 127.458, -31.4605, 126.925, -150.549, 129.013, 89.2728, 0, 0, 2.55412, -54.5344, 2.56485, -173.623, 2.52334, 66.1989, 0.074512, 49.1626
1, 540.00000, 127.458, -31.4605, 126.925, -150.549, 129.013, 89.2728, 0, 0, 2.55412, -54.5344, 2.56485, -173.623, 2.52334, 66.1989, 0.0745126, 49.1625
1, 600.00000, 127.458, -31.4605, 126.925, -150.549, 129.013, 89.2728, 0, 0, 2.55412, -54.5344, 2.56485, -173.623, 2.52334, 66.1989, 0.0745132, 49.1625
1, 660.00000, 127.458, -31.4605, 126.925, -150.549, 129.013, 89.2728, 0, 0, 2.55412, -54.5344, 2.56485, -173.623, 2.52334, 66.1989, 0.0745137, 49.1624
1, 720.00000, 127.458, -31.4605, 126.925, -150.549, 129.013, 89.2728, 0, 0, 2.55412, -54.5344, 2.56485, -173.623, 2.52334, 66.1989, 0.0745142, 49.1623
1, 780.00000, 127.458, -31.4605, 126.925, -150.549, 129.013, 89.2728, 0, 0, 2.55412, -54.5345, 2.56485, -173.623, 2.52334, 66.1989, 0.0745146, 49.1623
1, 840.00000, 127.458, -31.4605, 126.925, -150.549, 129.013, 89.2728, 0, 0, 2.55412, -54.5345, 2.56485, -173.623, 2.52334, 66.1989, 0.0745149, 49.1623
1, 900.00000, 127.458, -31.4605, 126.925, -150.549, 129.013, 89.2728, 0, 0, 2.55412, -54.5345, 2.56485, -173.623, 2.52334, 66.1989, 0.0745153, 49.1622
1, 960.00000, 127.458, -31.4605, 126.925, -150.549, 129.013, 89.2728, 0, 0, 2.55412, -54.5345, 2.56485, -173.623, 2.52334, 66.1989, 0.0745156, 49.1622
1, 1020.00000, 127.458, -31.4605, 126.925, -150.549, 129.013, 89.2728, 0, 0, 2.55412, -54.5345, 2.56485, -173.623, 2.52334, 66.1989, 0.0745159, 49.1622
1, 1080.00000, 127.458, -31.4606, 126.925, -150.549, 129.013, 89.2728, 0, 0, 2.55412, -54.5345, 2.56485, -173.623, 2.52334, 66.1989, 0.0745161, 49.1621
1, 1140.00000, 127.458, -31.4606, 126.925, -150.549, 129.013, 89.2728, 0, 0, 2.55412, -54.5345, 2.56485, -173.623, 2.52334, 66.1989, 0.0745163, 49.1621
1, 1200.00000, 127.458, -31.4606, 126.925, -150.549, 129.013, 89.2728, 0, 0, 2.55412, -54.5345, 2.56485, -173.623, 2.52334, 66.1989, 0.0745165, 49.1621
1, 1260.00000, 127.458, -31.4606, 126.925, -150.549, 129.013, 89.2728, 0, 0, 2.55412, -54.5345, 2.56485, -173.623, 2.52334, 66.1989, 0.0745167, 49.1621
1, 1320.00000, 127.458, -31.4606, 126.925, -150.549, 129.013, 89.2728, 0, 0, 2.55412, -54.5345, 2.56485, -173.623, 2.52334, 66.1989, 0.0745169, 49.1621
1, 1380.00000, 127.458, -31.4606, 126.925, -150.549, 129.013, 89.2728, 0, 0, 2.55412, -54.5345, 2.56485, -173.623, 2.52334, 66.1989, 0.074517, 49.162
1, 1440.00000, 127.458, -31.4606, 126.925, -150.549, 129.013, 89.2728, 0, 0, 2.55412, -54.5345, 2.56485, -173.623, 2.52333, 66.1989, 0.0745171, 49.162
1, 1500.00000, 127.458, -31.4606, 126.925, -150.549, 129.013, 89.2728, 0, 0, 2.55412, -54.5345, 2.56485, -173.623, 2.52333, 66.1989, 0.0745173, 49.162
1, 1560.00000, 127.458, -31.4606, 126.925, -150.549, 129.013, 89.2728, 0, 0, 2.55412, -54.5345, 2.56485, -173.623, 2.52333, 66.1989, 0.0745174, 49.162
1, 1620.00000, 127.458, -31.4606, 126.925, -150.549, 129.013, 89.2728, 0, 0, 2.55412, -54.5345, 2.56485, -173.623, 2.52333, 66.1989, 0.0745175, 49.162
1, 1680.00000, 127.458, -31.4606, 126.925, -150.549, 129.013, 89.2728, 0, 0, 2.55412, -54.5345, 2.56485, -173.623, 2.52333, 66.1989, 0.0745175, 49.162
1, 1740.00000, 127.458, -31.4606, 126.925, -150.549, 129.013, 89.2728, 0, 0, 2.55412, -54.5345, 2.56485, -173.623, 2.52333, 66.1989, 0.0745176, 49.162
1, 1800.00000, 127.458, -31.4606, 126.925, -150.549, 129.013, 89.2728, 0, 0, 2.55412, -54.5345, 2.56485, -173.623, 2.52333, 66.1989, 0.0745177, 49.162
1, 1860.00000, 127.458, -31.4606, 126.925, -150.549, 129.013, 89.2728, 0, 0, 2.55412, -54.5345, 2.56485, -173.623, 2.52333, 66.1989, 0.0745177, 49.162
1, 1920.00000, 127.458, -31.4606, 126.925, -150.549, 129.013, 89.2728, 0, 0, 2.55412, -54.5345, 2.56485, -173.623, 2.52333, 66.1989, 0.0745178, 49.1619
1, 1980.00000, 127.458, -31.4606, 126.925, -150.549, 129.013, 89.2728, 0, 0, 2.55412, -54.5345, 2.56485, -173.623, 2.52333, 66.1989, 0.0745179, 49.1619
1, 2040.00000, 127.458, -31.4606, 126.925, -150.549, 129.013, 89.2728, 0, 0, 2.55412, -54.5345, 2.56485, -173.623, 2.52333, 66.1989, 0.0745179, 49.1619
1, 2100.00000, 127.458, -31.4606, 126.925, -150.549, 129.013, 89.2728, 0, 0, 2.55412, -54.5345, 2.56485, -173.623, 2.52333, 66.1989, 0.0745179, 49.1619
1, 2160.00000, 127.458, -31.4606, 126.925, -150.549, 129.013, 89.2728, 0, 0, 2.55412, -54.5345, 2.56485, -173.623, 2.52333, 66.1989, 0.074518, 49.1619
1, 2220.00000, 127.458, -31.4606, 126.925, -150.549, 129.013, 89.2728, 0, 0, 2.55412, -54.5345, 2.56485, -173.623, 2.52333, 66.1989, 0.074518, 49.1619
1, 2280.00000, 127.458, -31.4606, 126.925, -150.549, 129.013, 89.2728, 0, 0, 2.55412, -54.5345, 2.56485, -173.623, 2.52333, 66.1989, 0.074518, 49.1619
1, 2340.00000, 127.458, -31.4606, 126.925, -150.549, 129.013, 89.2728, 0, 0, 2.55412, -54.5345, 2.56485, -173.623, 2.52333, 66.1989, 0.0745181, 49.1619
1, 2400.00000, 127.458, -31.4606, 126.925, -150.549, 129.013, 89.2728, 0, 0, 2.55412, -54.5345, 2.56485, -173.623, 2.52333, 66.1989, 0.0745181, 49.1619
1, 2460.00000, 127.458, -31.4606, 126.925, -150.549, 129.013, 89.2728, 0, 0, 2.55412, -54.5345, 2.56485, -173.623, 2.52333, 66.1989, 0.0745181, 49.1619
1, 2520.00000, 127.458, -31.4606, 126.925, -150.549, 129.013, 89.2728, 0, 0, 2.55412, -54.5345, 2.56485, -173.623, 2.52333, 66.1989, 0.0745181, 49.1619
1, 2580.00000, 127.458, -31.4606, 126.925, -150.549, 129.013, 89.2728, 0, 0, 2.55412, -54.5345, 2.56485, -173.623, 2.52333, 66.1989, 0.0745182, 49.1619
1, 2640.00000, 127.458, -31.4606, 126.925, -150.549, 129.013, 89.2728, 0, 0, 2.55412, -54.5345, 2.56485, -173.623, 2.52333, 66.1989, 0.0745182, 49.1619
1, 2700.00000, 127.458, -31.4606, 126.925, -150.549, 129.013, 89.2728, 0, 0, 2.55412, -54.5345, 2.56485, -173.623, 2.52333, 66.1989, 0.0745182, 49.1619
1, 2760.00000, 127.863, -31.4332, 126.925, -150.549, 129.18, 89.4343, 0, 0, 2.54603, -54.5071, 2.56485, -173.623, 2.52007, 66.3604, 0.0777968, 39.2529
1, 2820.00000, 127.863, -31.4332, 126.925, -150.549, 129.18, 89.4343, 0, 0, 2.54603, -54.5071, 2.56485, -173.623, 2.52007, 66.3604, 0.0777972, 39.2532
1, 2880.00000, 127.863, -31.4332, 126.925, -150.549, 129.18, 89.4343, 0, 0, 2.54603, -54.5071, 2.56485, -173.623, 2.52007, 66.3604, 0.0777972, 39.2532
1, 2940.00000, 127.863, -31.4332, 126.925, -150.549, 129.18, 89.4343, 0, 0, 2.54603, -54.5071, 2.56485, -173.623, 2.52007, 66.3604, 0.0777972, 39.2532
1, 3000.00000, 127.863, -31.4332, 126.925, -150.549, 129.18, 89.4343, 0, 0, 2.54603, -54.5071, 2.56485, -173.623, 2.52007, 66.3604, 0.0777972, 39.2532
1, 3060.00000, 127.863, -31.4332, 126.925, -150.549, 129.18, 89.4343, 0, 0, 2.54603, -54.5071, 2.56485, -173.623, 2.52007, 66.3604, 0.0777972, 39.2532
1, 3120.00000, 127.863, -31.4332, 126.925, -150.549, 129.18, 89.4343, 0, 0, 2.54603, -54.5071, 2.56485, -173.623, 2.52007, 66.3604, 0.0777972, 39.2532
1, 3180.00000, 127.863, -31.4332, 126.925, -150.549, 129.18, 89.4343, 0, 0, 2.54603, -54.5071, 2.56485, -173.623, 2.52007, 66.3604, 0.0777973, 39.2532
1, 3240.00000, 127.863, -31.4332, 126.925, -150.549, 129.18, 89.4343, 0, 0, 2.54603, -54.5071, 2.56485, -173.623, 2.52007, 66.3604, 0.0777973, 39.2532
1, 3300.00000, 127.863, -31.4332, 126.925, -150.549, 129.18, 89.4343, 0, 0, 2.54603, -54.5071, 2.56485, -173.623, 2.52007, 66.3604, 0.0777973, 39.2532
1, 3360.00000, 127.863, -31.4332, 126.925, -150.549, 129.18, 89.4343, 0, 0, 2.54603, -54.5071, 2.56485, -173.623, 2.52007, 66.3604, 0.0777973, 39.2532
1, 3420.00000, 127.863, -31.4332, 126.925, -150.549, 129.18, 89.4343, 0, 0, 2.54603, -54.5071, 2.56485, -173.623, 2.52007, 66.3604, 0.0777973, 39.2532
1, 3480.00000, 127.863, -31.4332, 126.925, -150.549, 129.18, 89.4343, 0, 0, 2.54603, -54.5071, 2.56485, -173.623, 2.52007, 66.3604, 0.0777973, 39.2532
1, 3540.00000, 127.863, -31.4332, 126.925, -150.549, 129.18, 89.4343, 0, 0, 2.54603, -54.5071, 2.56485, -173.623, 2.52007, 66.3604, 0.0777973, 39.2532
2, 0.00000, 127.863, -31.4332, 126.925, -150.549, 129.18, 89.4343, 0, 0, 2.54603, -54.5071, 2.56485, -173.623, 2.52007, 66.3604, 0.0777973, 39.2532
2, 60.00000, 127.863, -31.4332, 126.925, -150.549, 129.18, 89.4343, 0, 0, 2.54603, -54.5071, 2.56485, -173.623, 2.52007, 66.3604, 0.0777973, 39.2532
2, 120.00000, 127.859, -31.4342, 126.921, -150.55, 129.176, 89.4333, 0, 0, 2.55316, -54.5082, 2.57202, -173.624, 2.52712, 66.3593, 0.0780139, 39.2548
2, 180.00000, 127.855, -31.4353, 126.917, -150.551, 129.172, 89.4322, 0, 0, 2.56037, -54.5092, 2.57928, -173.625, 2.53426, 66.3583, 0.078233, 39.2563
2, 240.00000, 127.851, -31.4364, 126.913, -150.552, 129.168, 89.4311, 0, 0, 2.5675, -54.5103, 2.58646, -173.626, 2.54131, 66.3572, 0.0784496, 39.2578
2, 300.00000, 127.846, -31.4374, 126.91, -150.553, 129.164, 89.4301, 0, 0, 2.57463, -54.5113, 2.59364, -173.627, 2.54836, 66.3562, 0.0786661, 39.2593
2, 360.00000, 127.842, -31.4385, 126.906, -150.555, 129.16, 89.429, 0, 0, 2.58185, -54.5124, 2.6009, -173.629, 2.55549, 66.3551, 0.0788853, 39.2609
2, 420.00000, 127.838, -31.4396, 126.902, -150.556, 129.156, 89.4279, 0, 0, 2.58898, -54.5135, 2.60808, -173.63, 2.56255, 66.354, 0.0791019, 39.2624
2, 480.00000, 127.834, -31.4406, 126.898, -150.557, 129.152, 89.4269, 0, 0, 2.59611, -54.5145, 2.61525, -173.631, 2.5696, 66.353, 0.0793185, 39.264
2, 540.00000, 127.829, -31.4417, 126.894, -150.558, 129.148, 89.4258, 0, 0, 2.60333, -54.5156, 2.62252, -173.632, 2.57674, 66.3519, 0.0795377, 39.2655
2, 600.00000, 127.825, -31.4428, 126.89, -150.559, 129.144, 89.4248, 0, 0, 2.61046, -54.5167, 2.6297, -173.633, 2.58379, 66.3509, 0.0797543, 39.267
2, 660.00000, 127.821, -31.4438, 126.886, -150.56, 129.14, 89.4237, 0, 0, 2.61759, -54.5177, 2.63688, -173.634, 2.59084, 66.3498, 0.0799709, 39.2686
2, 720.00000, 127.817, -31.4449, 126.882, -150.561, 129.136, 89.4226, 0, 0, 2.62481, -54.5188, 2.64414, -173.635, 2.59798, 66.3487, 0.0801901, 39.2701
