hour,t(sec),V1,VAngle1,V2,VAngle2,V3,VAngle3,V4,VAngle4,I1,IAngle1,I2,IAngle2,I3,IAngle3,I4,IAngle4
0, 60.00000, 128.269, -30.6091, 127.492, -151.303, 126.453, 89.4431, 0, 0, 2.28802, -53.6829, 2.30193, -174.377, 2.32085, 66.3692, 0.0573768, -84.5283
0, 120.00000, 128.291, -30.6093, 127.502, -151.312, 126.453, 89.443, 0, 0, 2.28762, -53.6831, 2.30175, -174.385, 2.32085, 66.3691, 0.058053, -84.5032
0, 180.00000, 128.311, -30.6095, 127.512, -151.319, 126.453, 89.443, 0, 0, 2.28726, -53.6833, 2.30158, -174.393, 2.32085, 66.3691, 0.0586616, -84.4808
0, 240.00000, 128.329, -30.6097, 127.52, -151.326, 126.453, 89.443, 0, 0, 2.28694, -53.6835, 2.30143, -174.4, 2.32086, 66.3691, 0.0592095, -84.4609
0, 300.00000, 128.345, -30.6099, 127.528, -151.332, 126.453, 89.4429, 0, 0, 2.28665, -53.6837, 2.30129, -174.406, 2.32086, 66.369, 0.0597026, -84.443
0, 360.00000, 128.36, -30.61, 127.534, -151.338, 126.453, 89.4429, 0, 0, 2.28638, -53.6839, 2.30117, -174.411, 2.32086, 66.369, 0.0601464, -84.427
0, 420.00000, 128.373, -30.6102, 127.541, -151.343, 126.452, 89.4429, 0, 0, 2.28615, -53.684, 2.30106, -174.416, 2.32086, 66.369, 0.0605459, -84.4127
0, 480.00000, 128.385, -30.6103, 127.546, -151.347, 126.452, 89.4429, 0, 0, 2.28593, -53.6842, 2.30096, -174.421, 2.32086, 66.369, 0.0609054, -84.3999
0, 540.00000, 128.396, -30.6104, 127.551, -151.351, 126.452, 89.4429, 0, 0, 2.28574, -53.6843, 2.30087, -174.425, 2.32086, 66.369, 0.061229, -84.3884
0, 600.00000, 128.405, -30.6106, 127.555, -151.355, 126.452, 89.4429, 0, 0, 2.28557, -53.6844, 2.30079, -174.428, 2.32086, 66.369, 0.0615203, -84.3781
0, 660.00000, 128.414, -30.6107, 127.559, -151.358, 126.452, 89.4428, 0, 0, 2.28541, -53.6845, 2.30072, -174.432, 2.32086, 66.3689, 0.0617824, -84.3688
0, 720.00000, 128.422, -30.6107, 127.563, -151.361, 126.452, 89.4428, 0, 0, 2.28528, -53.6846, 2.30065, -174.435, 2.32086, 66.3689, 0.0620184, -84.3605
0, 780.00000, 128.429, -30.6108, 127.566, -151.363, 126.452, 89.4428, 0, 0, 2.28515, -53.6847, 2.30059, -174.437, 2.32086, 66.3689, 0.0622307, -84.3531
0, 840.00000, 128.435, -30.6109, 127.569, -151.366, 126.452, 89.4428, 0, 0, 2.28504, -53.6848, 2.30054, -174.44, 2.32086, 66.3689, 0.0624218, -84.3464
0, 900.00000, 128.441, -30.611, 127.572, -151.368, 126.452, 89.4428, 0, 0, 2.28493, -53.6849, 2.30049, -174.442, 2.32086, 66.3689, 0.0625939, -84.3403
0, 960.00000, 128.446, -30.611, 127.574, -151.37, 126.452, 89.4428, 0, 0, 2.28484, -53.6849, 2.30045, -174.444, 2.32086, 66.3689, 0.0627487, -84.3349
0, 1020.00000, 128.451, -30.6111, 127.576, -151.372, 126.452, 89.4428, 0, 0, 2.28476, -53.685, 2.30041, -174.445, 2.32086, 66.3689, 0.062888, -84.3301
0, 1080.00000, 128.455, -30.6112, 127.578, -151.373, 126.452, 89.4428, 0, 0, 2.28469, -53.6851, 2.30038, -174.447, 2.32086, 66.3689, 0.0630134, -84.3257
0, 1140.00000, 128.459, -30.6112, 127.58, -151.375, 126.452, 89.4428, 0, 0, 2.28462, -53.6851, 2.30035, -174.448, 2.32086, 66.3689, 0.0631263, -84.3218
0, 1200.00000, 128.462, -30.6112, 127.581, -151.376, 126.452, 89.4428, 0, 0, 2.28456, -53.6851, 2.30032, -174.45, 2.32086, 66.3689, 0.0632279, -84.3183
0, 1260.00000, 128.465, -30.6113, 127.583, -151.377, 126.452, 89.4428, 0, 0, 2.2845, -53.6852, 2.3003, -174.451, 2.32086, 66.3689, 0.0633193, -84.3151
0, 1320.00000, 128.468, -30.6113, 127.584, -151.378, 126.452, 89.4428, 0, 0, 2.28446, -53.6852, 2.30027, -174.452, 2.32086, 66.3689, 0.0634016, -84.3123
0, 1380.00000, 128.47, -30.6113, 127.585, -151.379, 126.452, 89.4428, 0, 0, 2.28441, -53.6853, 2.30025, -174.453, 2.32086, 66.3689, 0.0634757, -84.3097
0, 1440.00000, 128.472, -30.6114, 127.586, -151.38, 126.452, 89.4428, 0, 0, 2.28437, -53.6853, 2.30023, -174.454, 2.32086, 66.3689, 0.0635423, -84.3074
0, 1500.00000, 128.474, -30.6114, 127.587, -151.38, 126.452, 89.4428, 0, 0, 2.28434, -53.6853, 2.30022, -174.454, 2.32086, 66.3689, 0.0636023, -84.3053
0, 1560.00000, 128.476, -30.6114, 127.588, -151.381, 126.452, 89.4428, 0, 0, 2.28431, -53.6853, 2.3002, -174.455, 2.32086, 66.3689, 0.0636563, -84.3035
0, 1620.00000, 128.478, -30.6114, 127.589, -151.382, 126.452, 89.4428, 0, 0, 2.28428, -53.6854, 2.30019, -174.456, 2.32086, 66.3688, 0.0637049, -84.3018
0, 1680.00000, 128.479, -30.6115, 127.589, -151.382, 126.452, 89.4428, 0, 0, 2.28425, -53.6854, 2.30018, -174.456, 2.32086, 66.3688, 0.0637487, -84.3003
0, 1740.00000, 128.48, -30.6115, 127.59, -151.383, 126.452, 89.4428, 0, 0, 2.28423, -53.6854, 2.30017, -174.457, 2.32086, 66.3688, 0.063788, -84.2989
0, 1800.00000, 128.482, -30.6115, 127.591, -151.383, 126.452, 89.4428, 0, 0, 2.28421, -53.6854, 2.30016, -174.457, 2.32086, 66.3688, 0.0638234, -84.2977
0, 1860.00000, 128.483, -30.6115, 127.591, -151.384, 126.452, 89.4428, 0, 0, 2.28419, -53.6854, 2.30015, -174.457, 2.32086, 66.3688, 0.0638553, -84.2966
0, 1920.00000, 128.484, -30.6115, 127.591, -151.384, 126.452, 89.4427, 0, 0, 2.28417, -53.6854, 2.30014, -174.458, 2.32086, 66.3688, 0.063884, -84.2956
0, 1980.00000, 128.484, -30.6115, 127.592, -151.384, 126.452, 89.4427, 0, 0, 2.28415, -53.6854, 2.30013, -174.458, 2.32086, 66.3688, 0.0639098, -84.2947
0, 2040.00000, 128.485, -30.6115, 127.592, -151.385, 126.452, 89.4427, 0, 0, 2.28414, -53.6855, 2.30013, -174.458, 2.32086, 66.3688, 0.0639331, -84.2939
0, 2100.00000, 128.486, -30.6115, 127.593, -151.385, 126.452, 89.4427, 0, 0, 2.28413, -53.6855, 2.30012, -174.459, 2.32086, 66.3688, 0.063954, -84.2932
0, 2160.00000, 128.487, -30.6116, 127.593, -151.385, 126.452, 89.4427, 0, 0, 2.28412, -53.6855, 2.30012, -174.459, 2.32086, 66.3688, 0.0639728, -84.2926
0, 2220.00000, 128.487, -30.6116, 127.593, -151.385, 126.452, 89.4427, 0, 0, 2.28411, -53.6855, 2.30011, -174.459, 2.32086, 66.3688, 0.0639898, -84.292
0, 2280.00000, 128.488, -30.6116, 127.593, -151.385, 126.452, 89.4427, 0, 0, 2.2841, -53.6855, 2.30011, -174.459, 2.32086, 66.3688, 0.064005, -84.2915
0, 2340.00000, 128.488, -30.6116, 127.594, -151.386, 126.452, 89.4427, 0, 0, 2.28409, -53.6855, 2.3001, -174.46, 2.32086, 66.3688, 0.0640188, -84.291
0, 2400.00000, 128.488, -30.6116, 127.594, -151.386, 126.452, 89.4427, 0, 0, 2.28408, -53.6855, 2.3001, -174.46, 2.32086, 66.3688, 0.0640311, -84.2906
0, 2460.00000, 128.489, -30.6116, 127.594, -151.386, 126.452, 89.4427, 0, 0, 2.28408, -53.6855, 2.3001, -174.46, 2.32086, 66.3688, 0.0640422, -84.2902
0, 2520.00000, 128.489, -30.6116, 127.594, -151.386, 126.452, 89.4427, 0, 0, 2.28407, -53.6855, 2.30009, -174.46, 2.32086, 66.3688, 0.0640522, -84.2898
0, 2580.00000, 128.489, -30.6116, 127.594, -151.386, 126.452, 89.4427, 0, 0, 2.28407, -53.6855, 2.30009, -174.46, 2.32086, 66.3688, 0.0640612, -84.2895
0, 2640.00000, 128.49, -30.6116, 127.594, -151.386, 126.452, 89.4427, 0, 0, 2.28406, -53.6855, 2.30009, -174.46, 2.32086, 66.3688, 0.0640693, -84.2892
0, 2700.00000, 128.49, -30.6116, 127.594, -151.386, 126.452, 89.4427, 0, 0, 2.28406, -53.6855, 2.30009, -174.46, 2.32086, 66.3688, 0.0640766, -84.289
0, 2760.00000, 128.49, -30.6116, 127.594, -151.386, 126.452, 89.4427, 0, 0, 2.28405, -53.6855, 2.30009, -174.46, 2.32086, 66.3688, 0.0640832, -84.2888
0, 2820.00000, 128.49, -30.6116, 127.595, -151.386, 126.452, 89.4427, 0, 0, 2.28405, -53.6855, 2.30008, -174.46, 2.32086, 66.3688, 0.0640891, -84.2886
0, 2880.00000, 128.491, -30.6116, 127.595, -151.387, 126.452, 89.4427, 0, 0, 2.28405, -53.6855, 2.30008, -174.46, 2.32086, 66.3688, 0.0640944, -84.2884
0, 2940.00000, 128.491, -30.6116, 127.595, -151.387, 126.452, 89.4427, 0, 0, 2.28404, -53.6855, 2.30008, -174.461, 2.32086, 66.3688, 0.0640992, -84.2882
0, 3000.00000, 128.491, -30.6116, 127.595, -151.387, 126.452, 89.4427, 0, 0, 2.28404, -53.6855, 2.30008, -174.461, 2.32086, 66.3688, 0.0641035, -84.2881
0, 3060.00000, 128.491, -30.6116, 127.595, -151.387, 126.452, 89.4427, 0, 0, 2.28404, -53.6855, 2.30008, -174.461, 2.32086, 66.3688, 0.0641074, -84.2879
0, 3120.00000, 128.491, -30.6116, 127.595, -151.387, 126.452, 89.4427, 0, 0, 2.28404, -53.6855, 2.30008, -174.461, 2.32086, 66.3688, 0.0641109, -84.2878
0, 3180.00000, 128.491, -30.6116, 127.595, -151.387, 126.452, 89.4427, 0, 0, 2.28403, -53.6855, 2.30008, -174.461, 2.32086, 66.3688, 0.064114, -84.2877
0, 3240.00000, 128.491, -30.6116, 127.595, -151.387, 126.452, 89.4427, 0, 0, 2.28403, -53.6855, 2.30008, -174.461, 2.32086, 66.3688, 0.0641168, -84.2876
0, 3300.00000, 128.491, -30.6116, 127.595, -151.387, 126.452, 89.4427, 0, 0, 2.28403, -53.6855, 2.30008, -174.461, 2.32086, 66.3688, 0.0641194, -84.2875
0, 3360.00000, 128.491, -30.6116, 127.595, -151.387, 126.452, 89.4427, 0, 0, 2.28403, -53.6855, 2.30008, -174.461, 2.32086, 66.3688, 0.0641217, -84.2875
0, 3420.00000, 128.492, -30.6116, 127.595, -151.387, 126.452, 89.4427, 0, 0, 2.28403, -53.6855, 2.30007, -174.461, 2.32086, 66.3688, 0.0641237, -84.2874
0, 3480.00000, 128.492, -30.6116, 127.595, -151.387, 126.452, 89.4427, 0, 0, 2.28403, -53.6855, 2.30007, -174.461, 2.32086, 66.3688, 0.0641256, -84.2873
0, 3540.00000, 128.492, -30.6116, 127.595, -151.387, 126.452, 89.4427, 0, 0, 2.28403, -53.6855, 2.30007, -174.461, 2.32086, 66.3688, 0.0641273, -84.2873
1, 0.00000, 128.492, -30.6116, 127.595, -151.387, 126.452, 89.4427, 0, 0, 2.28403, -53.6855, 2.30007, -174.461, 2.32086, 66.3688, 0.0641288, -84.2872
1, 60.00000, 128.492, -30.6116, 127.595, -151.387, 126.452, 89.4427, 0, 0, 2.28402, -53.6855, 2.30007, -174.461, 2.32086, 66.3688, 0.0641301, -84.2872
1, 120.00000, 128.492, -30.6116, 127.595, -151.387, 126.452, 89.4427, 0, 0, 2.28402, -53.6855, 2.30007, -174.461, 2.32086, 66.3688, 0.0641313, -84.2871
1, 180.00000, 128.492, -30.6116, 127.595, -151.387, 126.452, 89.4427, 0, 0, 2.28402, -53.6855, 2.30007, -174.461, 2.32086, 66.3688, 0.0641324, -84.2871
1, 240.00000, 128.492, -30.6116, 127.595, -151.387, 126.452, 89.4427, 0, 0, 2.28402, -53.6855, 2.30007, -174.461, 2.32086, 66.3688, 0.0641334, -84.287
1, 300.00000, 128.492, -30.6116, 127.595, -151.387, 126.452, 89.4427, 0, 0, 2.28402, -53.6855, 2.30007, -174.461, 2.32086, 66.3688, 0.0641343, -84.287
1, 360.00000, 128.492, -30.6116, 127.595, -151.387, 126.452, 89.4427, 0, 0, 2.28402, -53.6855, 2.30007, -174.461, 2.32086, 66.3688, 0.0641351, -84.287
1, 420.00000, 128.492, -30.6116, 127.595, -151.387, 126.452, 89.4427, 0, 0, 2.28402, -53.6855, 2.30007, -174.461, 2.32086, 66.3688, 0.0641358, -84.287
1, 480.00000, 128.492, -30.6116, 127.595, -151.387, 126.452, 89.4427, 0, 0, 2.28402, -53.6855, 2.30007, -174.461, 2.32086, 66.3688, 0.0641365, -84.2869
1, 540.00000, 128.492, -30.6116, 127.595, -151.387, 126.452, 89.4427, 0, 0, 2.28402, -53.6855, 2.30007, -174.461, 2.32086, 66.3688, 0.064137, -84.2869
1, 600.00000, 128.492, -30.6116, 127.595, -151.387, 126.452, 89.4427, 0, 0, 2.28402, -53.6855, 2.30007, -174.461, 2.32086, 66.3688, 0.0641376, -84.2869
1, 660.00000, 128.492, -30.6116, 127.595, -151.387, 126.452, 89.4427, 0, 0, 2.28402, -53.6855, 2.30007, -174.461, 2.32086, 66.3688, 0.064138, -84.2869
1, 720.00000, 128.492, -30.6116, 127.595, -151.387, 126.452, 89.4427, 0, 0, 2.28402, -53.6855, 2.30007, -174.461, 2.32086, 66.3688, 0.0641385, -84.2869
1, 780.00000, 128.492, -30.6116, 127.595, -151.387, 126.452, 89.4427, 0, 0, 2.28402, -53.6855, 2.30007, -174.461, 2.32086, 66.3688, 0.0641388, -84.2869
1, 840.00000, 128.492, -30.6116, 127.595, -151.387, 126.452, 89.4427, 0, 0, 2.28402, -53.6855, 2.30007, -174.461, 2.32086, 66.3688, 0.0641392, -84.2868
1, 900.00000, 128.492, -30.6116, 127.595, -151.387, 126.452, 89.4427, 0, 0, 2.28402, -53.6855, 2.30007, -174.461, 2.32086, 66.3688, 0.0641395, -84.2868
1, 960.00000, 128.492, -30.6116, 127.595, -151.387, 126.452, 89.4427, 0, 0, 2.28402, -53.6855, 2.30007, -174.461, 2.32086, 66.3688, 0.0641398, -84.2868
1, 1020.00000, 128.492, -30.6116, 127.595, -151.387, 126.452, 89.4427, 0, 0, 2.28402, -53.6855, 2.30007, -174.461, 2.32086, 66.3688, 0.06414, -84.2868
1, 1080.00000, 128.492, -30.6116, 127.595, -151.387, 126.452, 89.4427, 0, 0, 2.28402, -53.6855, 2.30007, -174.461, 2.32086, 66.3688, 0.0641403, -84.2868
1, 1140.00000, 128.492, -30.6116, 127.595, -151.387, 126.452, 89.4427, 0, 0, 2.28402, -53.6855, 2.30007, -174.461, 2.32086, 66.3688, 0.0641405, -84.2868
1, 1200.00000, 128.492, -30.6116, 127.595, -151.387, 126.452, 89.4427, 0, 0, 2.28402, -53.6855, 2.30007, -174.461, 2.32086, 66.3688, 0.0641406, -84.2868
1, 1260.00000, 128.492, -30.6116, 127.595, -151.387, 126.452, 89.4427, 0, 0, 2.28402, -53.6855, 2.30007, -174.461, 2.32086, 66.3688, 0.0641408, -84.2868
1, 1320.00000, 128.492, -30.6116, 127.595, -151.387, 126.452, 89.4427, 0, 0, 2.28402, -53.6855, 2.30007, -174.461, 2.32086, 66.3688, 0.0641409, -84.2868
1, 1380.00000, 128.492, -30.6116, 127.595, -151.387, 126.452, 89.4427, 0, 0, 2.28402, -53.6855, 2.30007, -174.461, 2.32086, 66.3688, 0.0641411, -84.2868
1, 1440.00000, 128.492, -30.6116, 127.595, -151.387, 126.452, 89.4427, 0, 0, 2.28402, -53.6855, 2.30007, -174.461, 2.32086, 66.3688, 0.0641412, -84.2868
1, 1500.00000, 128.492, -30.6116, 127.595, -151.387, 126.452, 89.4427, 0, 0, 2.28402, -53.6855, 2.30007, -174.461, 2.32086, 66.3688, 0.0641413, -84.2868
1, 1560.00000, 128.492, -30.6116, 127.595, -151.387, 126.452, 89.4427, 0, 0, 2.28402, -53.6855, 2.30007, -174.461, 2.32086, 66.3688, 0.0641414, -84.2868
1, 1620.00000, 128.492, -30.6116, 127.595, -151.387, 126.452, 89.4427, 0, 0, 2.28402, -53.6855, 2.30007, -174.461, 2.32086, 66.3688, 0.0641415, -84.2868
1, 1680.00000, 128.492, -30.6116, 127.595, -151.387, 126.452, 89.4427, 0, 0, 2.28402, -53.6855, 2.30007, -174.461, 2.32086, 66.3688, 0.0641416, -84.2868
1, 1740.00000, 128.492, -30.6116, 127.595, -151.387, 126.452, 89.4427, 0, 0, 2.28402, -53.6855, 2.30007, -174.461, 2.32086, 66.3688, 0.0641416, -84.2868
1, 1800.00000, 128.492, -30.6116, 127.595, -151.387, 126.452, 89.4427, 0, 0, 2.28402, -53.6855, 2.30007, -174.461, 2.32086, 66.3688, 0.0641417, -84.2868
1, 1860.00000, 128.492, -30.6116, 127.595, -151.387, 126.452, 89.4427, 0, 0, 2.28402, -53.6855, 2.30007, -174.461, 2.32086, 66.3688, 0.0641418, -84.2868
1, 1920.00000, 128.492, -30.6116, 127.595, -151.387, 126.452, 89.4427, 0, 0, 2.28402, -53.6855, 2.30007, -174.461, 2.32086, 66.3688, 0.0641418, -84.2868
1, 1980.00000, 128.492, -30.6116, 127.595, -151.387, 126.452, 89.4427, 0, 0, 2.28402, -53.6855, 2.30007, -174.461, 2.32086, 66.3688, 0.0641419, -84.2868
1, 2040.00000, 128.492, -30.6116, 127.595, -151.387, 126.452, 89.4427, 0, 0, 2.28402, -53.6855, 2.30007, -174.461, 2.32086, 66.3688, 0.0641419, -84.2868
1, 2100.00000, 128.492, -30.6116, 127.595, -151.387, 126.452, 89.4427, 0, 0, 2.28402, -53.6855, 2.30007, -174.461, 2.32086, 66.3688, 0.0641419, -84.2868
1, 2160.00000, 128.492, -30.6116, 127.595, -151.387, 126.452, 89.4427, 0, 0, 2.28402, -53.6855, 2.30007, -174.461, 2.32086, 66.3688, 0.064142, -84.2868
1, 2220.00000, 128.492, -30.6116, 127.595, -151.387, 126.452, 89.4427, 0, 0, 2.28402, -53.6855, 2.30007, -174.461, 2.32086, 66.3688, 0.064142, -84.2868
1, 2280.00000, 128.492, -30.6116, 127.595, -151.387, 126.452, 89.4427, 0, 0, 2.28402, -53.6855, 2.30007, -174.461, 2.32086, 66.3688, 0.064142, -84.2868
1, 2340.00000, 128.492, -30.6116, 127.595, -151.387, 126.452, 89.4427, 0, 0, 2.28402, -53.6855, 2.30007, -174.461, 2.32086, 66.3688, 0.0641421, -84.2868
1, 2400.00000, 128.492, -30.6116, 127.595, -151.387, 126.452, 89.4427, 0, 0, 2.28402, -53.6855, 2.30007, -174.461, 2.32086, 66.3688, 0.0641421, -84.2868
1, 2460.00000, 128.492, -30.6116, 127.595, -151.387, 126.452, 89.4427, 0, 0, 2.28402, -53.6855, 2.30007, -174.461, 2.32086, 66.3688, 0.0641421, -84.2868
1, 2520.00000, 128.492, -30.6116, 127.595, -151.387, 126.452, 89.4427, 0, 0, 2.28402, -53.6855, 2.30007, -174.461, 2.32086, 66.3688, 0.0641421, -84.2868
1, 2580.00000, 128.492, -30.6116, 127.595, -151.387, 126.452, 89.4427, 0, 0, 2.28402, -53.6855, 2.30007, -174.461, 2.32086, 66.3688, 0.0641421, -84.2868
1, 2640.00000, 128.492, -30.6116, 127.595, -151.387, 126.452, 89.4427, 0, 0, 2.28402, -53.6855, 2.30007, -174.461, 2.32086, 66.3688, 0.0641421, -84.2868
1, 2700.00000, 128.492, -30.6116, 127.595, -151.387, 126.452, 89.4427, 0, 0, 2.28402, -53.6855, 2.30007, -174.461, 2.32086, 66.3688, 0.0641422, -84.2868
1, 2760.00000, 128.492, -30.6116, 127.595, -151.387, 126.452, 89.4427, 0, 0, 2.28402, -53.6855, 2.30007, -174.461, 2.32086, 66.3688, 0.0641422, -84.2868
1, 2820.00000, 128.492, -30.6116, 127.595, -151.387, 126.452, 89.4427, 0, 0, 2.28402, -53.6855, 2.30007, -174.461, 2.32086, 66.3688, 0.0641422, -84.2868
1, 2880.00000, 128.492, -30.6116, 127.595, -151.387, 126.452, 89.4427, 0, 0, 2.28402, -53.6855, 2.30007, -174.461, 2.32086, 66.3688, 0.0641422, -84.2868
1, 2940.00000, 128.492, -30.6116, 127.595, -151.387, 126.452, 89.4427, 0, 0, 2.28402, -53.6855, 2.30007, -174.461, 2.32086, 66.3688, 0.0641422, -84.2868
1, 3000.00000, 128.492, -30.6116, 127.595, -151.387, 126.452, 89.4427, 0, 0, 2.28402, -53.6855, 2.30007, -174.461, 2.32086, 66.3688, 0.0641422, -84.2867
1, 3060.00000, 128.492, -30.6116, 127.595, -151.387, 126.452, 89.4427, 0, 0, 2.28402, -53.6855, 2.30007, -174.461, 2.32086, 66.3688, 0.0641422, -84.2867
1, 3120.00000, 128.492, -30.6116, 127.595, -151.387, 126.452, 89.4427, 0, 0, 2.28402, -53.6855, 2.30007, -174.461, 2.32086, 66.3688, 0.0641422, -84.2867
1, 3180.00000, 128.492, -30.6116, 127.595, -151.387, 126.452, 89.4427, 0, 0, 2.28402, -53.6855, 2.30007, -174.461, 2.32086, 66.3688, 0.0641422, -84.2867
1, 3240.00000, 128.492, -30.6116, 127.595, -151.387, 126.452, 89.4427, 0, 0, 2.28402, -53.6855, 2.30007, -174.461, 2.32086, 66.3688, 0.0641422, -84.2867
1, 3300.00000, 128.492, -30.6116, 127.595, -151.387, 126.452, 89.4427, 0, 0, 2.28402, -53.6855, 2.30007, -174.461, 2.32086, 66.3688, 0.0641422, -84.2867
1, 3360.00000, 128.492, -30.6116, 127.595, -151.387, 126.452, 89.4427, 0, 0, 2.28402, -53.6855, 2.30007, -174.461, 2.32086, 66.3688, 0.0641422, -84.2867
1, 3420.00000, 128.492, -30.6116, 127.595, -151.387, 126.452, 89.4427, 0, 0, 2.28402, -53.6855, 2.30007, -174.461, 2.32086, 66.3688, 0.0641422, -84.2867
1, 3480.00000, 128.492, -30.6116, 127.595, -151.387, 126.452, 89.4427, 0, 0, 2.28402, -53.6855, 2.30007, -174.461, 2.32086, 66.3688, 0.0641422, -84.2867
1, 3540.00000, 128.492, -30.6116, 127.595, -151.387, 126.452, 89.4427, 0, 0, 2.28402, -53.6855, 2.30007, -174.461, 2.32086, 66.3688, 0.0641422, -84.2867
2, 0.00000, 128.492, -30.6116, 127.595, -151.387, 126.452, 89.4427, 0, 0, 2.28402, -53.6855, 2.30007, -174.461, 2.32086, 66.3688, 0.0641423, -84.2867
2, 60.00000, 128.492, -30.6116, 127.595, -151.387, 126.452, 89.4427, 0, 0, 2.28402, -53.6855, 2.30007, -174.461, 2.32086, 66.3688, 0.0641423, -84.2867
2, 120.00000, 128.487, -30.6128, 127.591, -151.388, 126.447, 89.4416, 0, 0, 2.29043, -53.6867, 2.30652, -174.462, 2.32737, 66.3677, 0.0643162, -84.2907
2, 180.00000, 128.482, -30.614, 127.586, -151.389, 126.443, 89.4405, 0, 0, 2.29691, -53.6879, 2.31304, -174.463, 2.33396, 66.3666, 0.0644921, -84.2947
2, 240.00000, 128.477, -30.6151, 127.581, -151.39, 126.438, 89.4393, 0, 0, 2.30332, -53.6891, 2.31949, -174.464, 2.34047, 66.3654, 0.064666, -84.2986
2, 300.00000, 128.472, -30.6163, 127.577, -151.391, 126.433, 89.4382, 0, 0, 2.30973, -53.6902, 2.32594, -174.465, 2.34698, 66.3643, 0.0648398, -84.3026
2, 360.00000, 128.467, -30.6175, 127.572, -151.392, 126.428, 89.4371, 0, 0, 2.31622, -53.6914, 2.33247, -174.466, 2.35357, 66.3632, 0.0650157, -84.3066
2, 420.00000, 128.462, -30.6186, 127.567, -151.394, 126.423, 89.4359, 0, 0, 2.32263, -53.6926, 2.33892, -174.467, 2.36008, 66.362, 0.0651895, -84.3105
2, 480.00000, 128.457, -30.6198, 127.563, -151.395, 126.419, 89.4348, 0, 0, 2.32905, -53.6937, 2.34537, -174.468, 2.36659, 66.3609, 0.0653633, -84.3145
2, 540.00000, 128.452, -30.621, 127.558, -151.396, 126.414, 89.4337, 0, 0, 2.33554, -53.6949, 2.3519, -174.47, 2.37319, 66.3598, 0.0655391, -84.3185
2, 600.00000, 128.447, -30.6222, 127.553, -151.397, 126.409, 89.4325, 0, 0, 2.34195, -53.6961, 2.35835, -174.471, 2.3797, 66.3586, 0.0657129, -84.3224
