hour,t(sec),V1,VAngle1,V2,VAngle2,V3,VAngle3,V4,VAngle4,I1,IAngle1,I2,IAngle2,I3,IAngle3,I4,IAngle4
0, 60.00000, 127.161, -30.7436, 126.833, -150.597, 127.293, 89.4612, 0, 0, 2.13697, -53.8174, 2.1425, -173.671, 2.13475, 66.3873, 0.0137251, 21.3567
0, 120.00000, 127.161, -30.7436, 126.833, -150.597, 127.293, 89.4612, 0, 0, 2.13697, -53.8175, 2.1425, -173.671, 2.13475, 66.3872, 0.0137303, 21.3572
0, 180.00000, 127.161, -30.7436, 126.833, -150.597, 127.293, 89.4612, 0, 0, 2.13697, -53.8175, 2.1425, -173.671, 2.13475, 66.3872, 0.0137304, 21.3572
0, 240.00000, 127.161, -30.7436, 126.833, -150.597, 127.293, 89.4612, 0, 0, 2.13697, -53.8175, 2.1425, -173.671, 2.13475, 66.3872, 0.0137304, 21.3572
0, 300.00000, 127.161, -30.7436, 126.833, -150.597, 127.293, 89.4612, 0, 0, 2.13697, -53.8175, 2.1425, -173.671, 2.13475, 66.3872, 0.0137304, 21.3572
0, 360.00000, 127.161, -30.7436, 126.833, -150.597, 127.293, 89.4612, 0, 0, 2.13697, -53.8175, 2.1425, -173.671, 2.13475, 66.3872, 0.0137304, 21.3572
0, 420.00000, 127.161, -30.7436, 126.833, -150.597, 127.293, 89.4612, 0, 0, 2.13697, -53.8175, 2.1425, -173.671, 2.13475, 66.3872, 0.0137304, 21.3572
0, 480.00000, 127.161, -30.7436, 126.833, -150.597, 127.293, 89.4612, 0, 0, 2.13697, -53.8175, 2.1425, -173.671, 2.13475, 66.3872, 0.0137304, 21.3572
0, 540.00000, 127.161, -30.7436, 126.833, -150.597, 127.293, 89.4612, 0, 0, 2.13697, -53.8175, 2.1425, -173.671, 2.13475, 66.3872, 0.0137304, 21.3572
0, 600.00000, 127.161, -30.7436, 126.833, -150.597, 127.293, 89.4612, 0, 0, 2.13697, -53.8175, 2.1425, -173.671, 2.13475, 66.3872, 0.0137304, 21.3572
0, 660.00000, 127.161, -30.7436, 126.833, -150.597, 127.293, 89.4612, 0, 0, 2.13697, -53.8175, 2.1425, -173.671, 2.13475, 66.3872, 0.0137304, 21.3572
0, 720.00000, 127.161, -30.7436, 126.833, -150.597, 127.293, 89.4612, 0, 0, 2.13697, -53.8175, 2.1425, -173.671, 2.13475, 66.3872, 0.0137304, 21.3572
0, 780.00000, 127.161, -30.7436, 126.833, -150.597, 127.293, 89.4612, 0, 0, 2.13697, -53.8175, 2.1425, -173.671, 2.13475, 66.3872, 0.0137304, 21.3572
0, 840.00000, 127.161, -30.7436, 126.833, -150.597, 127.293, 89.4612, 0, 0, 2.13697, -53.8175, 2.1425, -173.671, 2.13475, 66.3872, 0.0137304, 21.3572
0, 900.00000, 127.161, -30.7436, 126.833, -150.597, 127.293, 89.4612, 0, 0, 2.13697, -53.8175, 2.1425, -173.671, 2.13475, 66.3872, 0.0137304, 21.3572
0, 960.00000, 127.161, -30.7436, 126.833, -150.597, 127.293, 89.4612, 0, 0, 2.13697, -53.8175, 2.1425, -173.671, 2.13475, 66.3872, 0.0137304, 21.3572
0, 1020.00000, 127.161, -30.7436, 126.833, -150.597, 127.293, 89.4612, 0, 0, 2.13697, -53.8175, 2.1425, -173.671, 2.13475, 66.3872, 0.0137304, 21.3572
0, 1080.00000, 127.161, -30.7436, 126.833, -150.597, 127.293, 89.4612, 0, 0, 2.13697, -53.8175, 2.1425, -173.671, 2.13475, 66.3872, 0.0137304, 21.3572
0, 1140.00000, 127.161, -30.7436, 126.833, -150.597, 127.293, 89.4612, 0, 0, 2.13697, -53.8175, 2.1425, -173.671, 2.13475, 66.3872, 0.0137304, 21.3572
0, 1200.00000, 127.161, -30.7436, 126.833, -150.597, 127.293, 89.4612, 0, 0, 2.13697, -53.8175, 2.1425, -173.671, 2.13475, 66.3872, 0.0137304, 21.3572
0, 1260.00000, 127.161, -30.7436, 126.833, -150.597, 127.293, 89.4612, 0, 0, 2.13697, -53.8175, 2.1425, -173.671, 2.13475, 66.3872, 0.0137304, 21.3572
0, 1320.00000, 127.161, -30.7436, 126.833, -150.597, 127.293, 89.4612, 0, 0, 2.13697, -53.8175, 2.1425, -173.671, 2.13475, 66.3872, 0.0137304, 21.3572
0, 1380.00000, 127.161, -30.7436, 126.833, -150.597, 127.293, 89.4612, 0, 0, 2.13697, -53.8175, 2.1425, -173.671, 2.13475, 66.3872, 0.0137304, 21.3572
0, 1440.00000, 127.161, -30.7436, 126.833, -150.597, 127.293, 89.4612, 0, 0, 2.13697, -53.8175, 2.1425, -173.671, 2.13475, 66.3872, 0.0137304, 21.3572
0, 1500.00000, 127.161, -30.7436, 126.833, -150.597, 127.293, 89.4612, 0, 0, 2.13697, -53.8175, 2.1425, -173.671, 2.13475, 66.3872, 0.0137304, 21.3572
0, 1560.00000, 127.161, -30.7436, 126.833, -150.597, 127.293, 89.4612, 0, 0, 2.13697, -53.8175, 2.1425, -173.671, 2.13475, 66.3872, 0.0137304, 21.3572
0, 1620.00000, 127.161, -30.7436, 126.833, -150.597, 127.293, 89.4612, 0, 0, 2.13697, -53.8175, 2.1425, -173.671, 2.13475, 66.3872, 0.0137304, 21.3572
0, 1680.00000, 127.161, -30.7436, 126.833, -150.597, 127.293, 89.4612, 0, 0, 2.13697, -53.8175, 2.1425, -173.671, 2.13475, 66.3872, 0.0137304, 21.3572
0, 1740.00000, 127.161, -30.7436, 126.833, -150.597, 127.293, 89.4612, 0, 0, 2.13697, -53.8175, 2.1425, -173.671, 2.13475, 66.3872, 0.0137304, 21.3572
0, 1800.00000, 127.161, -30.7436, 126.833, -150.597, 127.293, 89.4612, 0, 0, 2.13697, -53.8175, 2.1425, -173.671, 2.13475, 66.3872, 0.0137304, 21.3572
0, 1860.00000, 127.161, -30.7436, 126.833, -150.597, 127.293, 89.4612, 0, 0, 2.13697, -53.8175, 2.1425, -173.671, 2.13475, 66.3872, 0.0137304, 21.3572
0, 1920.00000, 127.161, -30.7436, 126.833, -150.597, 127.293, 89.4612, 0, 0, 2.13697, -53.8175, 2.1425, -173.671, 2.13475, 66.3872, 0.0137304, 21.3572
0, 1980.00000, 127.161, -30.7436, 126.833, -150.597, 127.293, 89.4612, 0, 0, 2.13697, -53.8175, 2.1425, -173.671, 2.13475, 66.3872, 0.0137304, 21.3572
0, 2040.00000, 127.161, -30.7436, 126.833, -150.597, 127.293, 89.4612, 0, 0, 2.13697, -53.8175, 2.1425, -173.671, 2.13475, 66.3872, 0.0137304, 21.3572
0, 2100.00000, 127.161, -30.7436, 126.833, -150.597, 127.293, 89.4612, 0, 0, 2.13697, -53.8175, 2.1425, -173.671, 2.13475, 66.3872, 0.0137304, 21.3572
0, 2160.00000, 127.161, -30.7436, 126.833, -150.597, 127.293, 89.4612, 0, 0, 2.13697, -53.8175, 2.1425, -173.671, 2.13475, 66.3872, 0.0137304, 21.3572
0, 2220.00000, 127.161, -30.7436, 126.833, -150.597, 127.293, 89.4612, 0, 0, 2.13697, -53.8175, 2.1425, -173.671, 2.13475, 66.3872, 0.0137304, 21.3572
0, 2280.00000, 127.161, -30.7436, 126.833, -150.597, 127.293, 89.4612, 0, 0, 2.13697, -53.8175, 2.1425, -173.671, 2.13475, 66.3872, 0.0137304, 21.3572
0, 2340.00000, 127.161, -30.7436, 126.833, -150.597, 127.293, 89.4612, 0, 0, 2.13697, -53.8175, 2.1425, -173.671, 2.13475, 66.3872, 0.0137304, 21.3572
0, 2400.00000, 127.161, -30.7436, 126.833, -150.597, 127.293, 89.4612, 0, 0, 2.13697, -53.8175, 2.1425, -173.671, 2.13475, 66.3872, 0.0137304, 21.3572
0, 2460.00000, 127.161, -30.7436, 126.833, -150.597, 127.293, 89.4612, 0, 0, 2.13697, -53.8175, 2.1425, -173.671, 2.13475, 66.3872, 0.0137304, 21.3572
0, 2520.00000, 127.161, -30.7436, 126.833, -150.597, 127.293, 89.4612, 0, 0, 2.13697, -53.8175, 2.1425, -173.671, 2.13475, 66.3872, 0.0137304, 21.3572
0, 2580.00000, 127.161, -30.7436, 126.833, -150.597, 127.293, 89.4612, 0, 0, 2.13697, -53.8175, 2.1425, -173.671, 2.13475, 66.3872, 0.0137304, 21.3572
0, 2640.00000, 127.161, -30.7436, 126.833, -150.597, 127.293, 89.4612, 0, 0, 2.13697, -53.8175, 2.1425, -173.671, 2.13475, 66.3872, 0.0137304, 21.3572
0, 2700.00000, 127.161, -30.7436, 126.833, -150.597, 127.293, 89.4612, 0, 0, 2.13697, -53.8175, 2.1425, -173.671, 2.13475, 66.3872, 0.0137304, 21.3572
0, 2760.00000, 127.161, -30.7436, 126.833, -150.597, 127.293, 89.4612, 0, 0, 2.13697, -53.8175, 2.1425, -173.671, 2.13475, 66.3872, 0.0137304, 21.3572
0, 2820.00000, 127.161, -30.7436, 126.833, -150.597, 127.293, 89.4612, 0, 0, 2.13697, -53.8175, 2.1425, -173.671, 2.13475, 66.3872, 0.0137304, 21.3572
0, 2880.00000, 127.161, -30.7436, 126.833, -150.597, 127.293, 89.4612, 0, 0, 2.13697, -53.8175, 2.1425, -173.671, 2.13475, 66.3872, 0.0137304, 21.3572
0, 2940.00000, 127.161, -30.7436, 126.833, -150.597, 127.293, 89.4612, 0, 0, 2.13697, -53.8175, 2.1425, -173.671, 2.13475, 66.3872, 0.0137304, 21.3572
0, 3000.00000, 127.161, -30.7436, 126.833, -150.597, 127.293, 89.4612, 0, 0, 2.13697, -53.8175, 2.1425, -173.671, 2.13475, 66.3872, 0.0137304, 21.3572
0, 3060.00000, 127.161, -30.7436, 126.833, -150.597, 127.293, 89.4612, 0, 0, 2.13697, -53.8175, 2.1425, -173.671, 2.13475, 66.3872, 0.0137304, 21.3572
0, 3120.00000, 127.161, -30.7436, 126.833, -150.597, 127.293, 89.4612, 0, 0, 2.13697, -53.8175, 2.1425, -173.671, 2.13475, 66.3872, 0.0137304, 21.3572
0, 3180.00000, 127.161, -30.7436, 126.833, -150.597, 127.293, 89.4612, 0, 0, 2.13697, -53.8175, 2.1425, -173.671, 2.13475, 66.3872, 0.0137304, 21.3572
0, 3240.00000, 127.161, -30.7436, 126.833, -150.597, 127.293, 89.4612, 0, 0, 2.13697, -53.8175, 2.1425, -173.671, 2.13475, 66.3872, 0.0137304, 21.3572
0, 3300.00000, 127.161, -30.7436, 126.833, -150.597, 127.293, 89.4612, 0, 0, 2.13697, -53.8175, 2.1425, -173.671, 2.13475, 66.3872, 0.0137304, 21.3572
0, 3360.00000, 127.161, -30.7436, 126.833, -150.597, 127.293, 89.4612, 0, 0, 2.13697, -53.8175, 2.1425, -173.671, 2.13475, 66.3872, 0.0137304, 21.3572
0, 3420.00000, 127.161, -30.7436, 126.833, -150.597, 127.293, 89.4612, 0, 0, 2.13697, -53.8175, 2.1425, -173.671, 2.13475, 66.3872, 0.0137304, 21.3572
0, 3480.00000, 127.161, -30.7436, 126.833, -150.597, 127.293, 89.4612, 0, 0, 2.13697, -53.8175, 2.1425, -173.671, 2.13475, 66.3872, 0.0137304, 21.3572
0, 3540.00000, 127.161, -30.7436, 126.833, -150.597, 127.293, 89.4612, 0, 0, 2.13697, -53.8175, 2.1425, -173.671, 2.13475, 66.3872, 0.0137304, 21.3572
1, 0.00000, 127.161, -30.7436, 126.833, -150.597, 127.293, 89.4612, 0, 0, 2.13697, -53.8175, 2.1425, -173.671, 2.13475, 66.3872, 0.0137304, 21.3572
1, 60.00000, 127.161, -30.7436, 126.833, -150.597, 127.293, 89.4612, 0, 0, 2.13697, -53.8175, 2.1425, -173.671, 2.13475, 66.3872, 0.0137304, 21.3572
1, 120.00000, 127.161, -30.7436, 126.833, -150.597, 127.293, 89.4612, 0, 0, 2.13697, -53.8175, 2.1425, -173.671, 2.13475, 66.3872, 0.0137304, 21.3572
1, 180.00000, 127.161, -30.7436, 126.833, -150.597, 127.293, 89.4612, 0, 0, 2.13697, -53.8175, 2.1425, -173.671, 2.13475, 66.3872, 0.0137304, 21.3572
1, 240.00000, 127.161, -30.7436, 126.833, -150.597, 127.293, 89.4612, 0, 0, 2.13697, -53.8175, 2.1425, -173.671, 2.13475, 66.3872, 0.0137304, 21.3572
1, 300.00000, 127.161, -30.7436, 126.833, -150.597, 127.293, 89.4612, 0, 0, 2.13697, -53.8175, 2.1425, -173.671, 2.13475, 66.3872, 0.0137304, 21.3572
1, 360.00000, 127.161, -30.7436, 126.833, -150.597, 127.293, 89.4612, 0, 0, 2.13697, -53.8175, 2.1425, -173.671, 2.13475, 66.3872, 0.0137304, 21.3572
1, 420.00000, 127.161, -30.7436, 126.833, -150.597, 127.293, 89.4612, 0, 0, 2.13697, -53.8175, 2.1425, -173.671, 2.13475, 66.3872, 0.0137304, 21.3572
1, 480.00000, 127.161, -30.7436, 126.833, -150.597, 127.293, 89.4612, 0, 0, 2.13697, -53.8175, 2.1425, -173.671, 2.13475, 66.3872, 0.0137304, 21.3572
1, 540.00000, 127.161, -30.7436, 126.833, -150.597, 127.293, 89.4612, 0, 0, 2.13697, -53.8175, 2.1425, -173.671, 2.13475, 66.3872, 0.0137304, 21.3572
1, 600.00000, 127.161, -30.7436, 126.833, -150.597, 127.293, 89.4612, 0, 0, 2.13697, -53.8175, 2.1425, -173.671, 2.13475, 66.3872, 0.0137304, 21.3572
1, 660.00000, 127.161, -30.7436, 126.833, -150.597, 127.293, 89.4612, 0, 0, 2.13697, -53.8175, 2.1425, -173.671, 2.13475, 66.3872, 0.0137304, 21.3572
1, 720.00000, 127.161, -30.7436, 126.833, -150.597, 127.293, 89.4612, 0, 0, 2.13697, -53.8175, 2.1425, -173.671, 2.13475, 66.3872, 0.0137304, 21.3572
1, 780.00000, 127.161, -30.7436, 126.833, -150.597, 127.293, 89.4612, 0, 0, 2.13697, -53.8175, 2.1425, -173.671, 2.13475, 66.3872, 0.0137304, 21.3572
1, 840.00000, 127.161, -30.7436, 126.833, -150.597, 127.293, 89.4612, 0, 0, 2.13697, -53.8175, 2.1425, -173.671, 2.13475, 66.3872, 0.0137304, 21.3572
1, 900.00000, 127.161, -30.7436, 126.833, -150.597, 127.293, 89.4612, 0, 0, 2.13697, -53.8175, 2.1425, -173.671, 2.13475, 66.3872, 0.0137304, 21.3572
1, 960.00000, 127.161, -30.7436, 126.833, -150.597, 127.293, 89.4612, 0, 0, 2.13697, -53.8175, 2.1425, -173.671, 2.13475, 66.3872, 0.0137304, 21.3572
1, 1020.00000, 127.161, -30.7436, 126.833, -150.597, 127.293, 89.4612, 0, 0, 2.13697, -53.8175, 2.1425, -173.671, 2.13475, 66.3872, 0.0137304, 21.3572
1, 1080.00000, 127.161, -30.7436, 126.833, -150.597, 127.293, 89.4612, 0, 0, 2.13697, -53.8175, 2.1425, -173.671, 2.13475, 66.3872, 0.0137304, 21.3572
1, 1140.00000, 127.161, -30.7436, 126.833, -150.597, 127.293, 89.4612, 0, 0, 2.13697, -53.8175, 2.1425, -173.671, 2.13475, 66.3872, 0.0137304, 21.3572
1, 1200.00000, 127.161, -30.7436, 126.833, -150.597, 127.293, 89.4612, 0, 0, 2.13697, -53.8175, 2.1425, -173.671, 2.13475, 66.3872, 0.0137304, 21.3572
1, 1260.00000, 127.161, -30.7436, 126.833, -150.597, 127.293, 89.4612, 0, 0, 2.13697, -53.8175, 2.1425, -173.671, 2.13475, 66.3872, 0.0137304, 21.3572
1, 1320.00000, 127.161, -30.7436, 126.833, -150.597, 127.293, 89.4612, 0, 0, 2.13697, -53.8175, 2.1425, -173.671, 2.13475, 66.3872, 0.0137304, 21.3572
1, 1380.00000, 127.161, -30.7436, 126.833, -150.597, 127.293, 89.4612, 0, 0, 2.13697, -53.8175, 2.1425, -173.671, 2.13475, 66.3872, 0.0137304, 21.3572
1, 1440.00000, 127.161, -30.7436, 126.833, -150.597, 127.293, 89.4612, 0, 0, 2.13697, -53.8175, 2.1425, -173.671, 2.13475, 66.3872, 0.0137304, 21.3572
1, 1500.00000, 127.161, -30.7436, 126.833, -150.597, 127.293, 89.4612, 0, 0, 2.13697, -53.8175, 2.1425, -173.671, 2.13475, 66.3872, 0.0137304, 21.3572
1, 1560.00000, 127.161, -30.7436, 126.833, -150.597, 127.293, 89.4612, 0, 0, 2.13697, -53.8175, 2.1425, -173.671, 2.13475, 66.3872, 0.0137304, 21.3572
1, 1620.00000, 127.161, -30.7436, 126.833, -150.597, 127.293, 89.4612, 0, 0, 2.13697, -53.8175, 2.1425, -173.671, 2.13475, 66.3872, 0.0137304, 21.3572
1, 1680.00000, 127.161, -30.7436, 126.833, -150.597, 127.293, 89.4612, 0, 0, 2.13697, -53.8175, 2.1425, -173.671, 2.13475, 66.3872, 0.0137304, 21.3572
1, 1740.00000, 127.161, -30.7436, 126.833, -150.597, 127.293, 89.4612, 0, 0, 2.13697, -53.8175, 2.1425, -173.671, 2.13475, 66.3872, 0.0137304, 21.3572
1, 1800.00000, 127.161, -30.7436, 126.833, -150.597, 127.293, 89.4612, 0, 0, 2.13697, -53.8175, 2.1425, -173.671, 2.13475, 66.3872, 0.0137304, 21.3572
1, 1860.00000, 127.161, -30.7436, 126.833, -150.597, 127.293, 89.4612, 0, 0, 2.13697, -53.8175, 2.1425, -173.671, 2.13475, 66.3872, 0.0137304, 21.3572
1, 1920.00000, 127.161, -30.7436, 126.833, -150.597, 127.293, 89.4612, 0, 0, 2.13697, -53.8175, 2.1425, -173.671, 2.13475, 66.3872, 0.0137304, 21.3572
1, 1980.00000, 127.161, -30.7436, 126.833, -150.597, 127.293, 89.4612, 0, 0, 2.13697, -53.8175, 2.1425, -173.671, 2.13475, 66.3872, 0.0137304, 21.3572
1, 2040.00000, 127.161, -30.7436, 126.833, -150.597, 127.293, 89.4612, 0, 0, 2.13697, -53.8175, 2.1425, -173.671, 2.13475, 66.3872, 0.0137304, 21.3572
1, 2100.00000, 127.161, -30.7436, 126.833, -150.597, 127.293, 89.4612, 0, 0, 2.13697, -53.8175, 2.1425, -173.671, 2.13475, 66.3872, 0.0137304, 21.3572
1, 2160.00000, 127.161, -30.7436, 126.833, -150.597, 127.293, 89.4612, 0, 0, 2.13697, -53.8175, 2.1425, -173.671, 2.13475, 66.3872, 0.0137304, 21.3572
1, 2220.00000, 127.161, -30.7436, 126.833, -150.597, 127.293, 89.4612, 0, 0, 2.13697, -53.8175, 2.1425, -173.671, 2.13475, 66.3872, 0.0137304, 21.3572
1, 2280.00000, 127.161, -30.7436, 126.833, -150.597, 127.293, 89.4612, 0, 0, 2.13697, -53.8175, 2.1425, -173.671, 2.13475, 66.3872, 0.0137304, 21.3572
1, 2340.00000, 127.161, -30.7436, 126.833, -150.597, 127.293, 89.4612, 0, 0, 2.13697, -53.8175, 2.1425, -173.671, 2.13475, 66.3872, 0.0137304, 21.3572
1, 2400.00000, 127.161, -30.7436, 126.833, -150.597, 127.293, 89.4612, 0, 0, 2.13697, -53.8175, 2.1425, -173.671, 2.13475, 66.3872, 0.0137304, 21.3572
1, 2460.00000, 127.161, -30.7436, 126.833, -150.597, 127.293, 89.4612, 0, 0, 2.13697, -53.8175, 2.1425, -173.671, 2.13475, 66.3872, 0.0137304, 21.3572
1, 2520.00000, 127.161, -30.7436, 126.833, -150.597, 127.293, 89.4612, 0, 0, 2.13697, -53.8175, 2.1425, -173.671, 2.13475, 66.3872, 0.0137304, 21.3572
1, 2580.00000, 127.161, -30.7436, 126.833, -150.597, 127.293, 89.4612, 0, 0, 2.13697, -53.8175, 2.1425, -173.671, 2.13475, 66.3872, 0.0137304, 21.3572
1, 2640.00000, 127.161, -30.7436, 126.833, -150.597, 127.293, 89.4612, 0, 0, 2.13697, -53.8175, 2.1425, -173.671, 2.13475, 66.3872, 0.0137304, 21.3572
1, 2700.00000, 127.161, -30.7436, 126.833, -150.597, 127.293, 89.4612, 0, 0, 2.13697, -53.8175, 2.1425, -173.671, 2.13475, 66.3872, 0.0137304, 21.3572
1, 2760.00000, 127.287, -30.5719, 127.23, -150.553, 127.295, 89.4613, 0, 0, 2.13487, -53.6462, 2.13584, -173.628, 2.13472, 66.3874, 0.00213126, 11.4522
1, 2820.00000, 127.287, -30.5719, 127.23, -150.553, 127.295, 89.4613, 0, 0, 2.13486, -53.6458, 2.13582, -173.627, 2.13472, 66.3874, 0.00210492, 11.4408
1, 2880.00000, 127.287, -30.5719, 127.23, -150.553, 127.295, 89.4613, 0, 0, 2.13486, -53.6458, 2.13582, -173.627, 2.13472, 66.3874, 0.00210484, 11.4403
1, 2940.00000, 127.287, -30.5719, 127.23, -150.553, 127.295, 89.4613, 0, 0, 2.13486, -53.6458, 2.13582, -173.627, 2.13472, 66.3874, 0.00210484, 11.4403
1, 3000.00000, 127.287, -30.5719, 127.23, -150.553, 127.295, 89.4613, 0, 0, 2.13486, -53.6458, 2.13582, -173.627, 2.13472, 66.3874, 0.00210484, 11.4403
1, 3060.00000, 127.287, -30.5719, 127.23, -150.553, 127.295, 89.4613, 0, 0, 2.13486, -53.6458, 2.13582, -173.627, 2.13472, 66.3874, 0.00210484, 11.4403
1, 3120.00000, 127.287, -30.5719, 127.23, -150.553, 127.295, 89.4613, 0, 0, 2.13486, -53.6458, 2.13582, -173.627, 2.13472, 66.3874, 0.00210484, 11.4403
1, 3180.00000, 127.287, -30.5719, 127.23, -150.553, 127.295, 89.4613, 0, 0, 2.13486, -53.6458, 2.13582, -173.627, 2.13472, 66.3874, 0.00210484, 11.4403
1, 3240.00000, 127.287, -30.5719, 127.23, -150.553, 127.295, 89.4613, 0, 0, 2.13486, -53.6458, 2.13582, -173.627, 2.13472, 66.3874, 0.00210484, 11.4403
1, 3300.00000, 127.287, -30.5719, 127.23, -150.553, 127.295, 89.4613, 0, 0, 2.13486, -53.6458, 2.13582, -173.627, 2.13472, 66.3874, 0.00210484, 11.4403
1, 3360.00000, 127.287, -30.5719, 127.23, -150.553, 127.295, 89.4613, 0, 0, 2.13486, -53.6458, 2.13582, -173.627, 2.13472, 66.3874, 0.00210484, 11.4403
1, 3420.00000, 127.287, -30.5719, 127.23, -150.553, 127.295, 89.4613, 0, 0, 2.13486, -53.6458, 2.13582, -173.627, 2.13472, 66.3874, 0.00210484, 11.4403
1, 3480.00000, 127.287, -30.5719, 127.23, -150.553, 127.295, 89.4613, 0, 0, 2.13486, -53.6458, 2.13582, -173.627, 2.13472, 66.3874, 0.00210484, 11.4403
1, 3540.00000, 127.287, -30.5719, 127.23, -150.553, 127.295, 89.4613, 0, 0, 2.13486, -53.6458, 2.13582, -173.627, 2.13472, 66.3874, 0.00210484, 11.4403
2, 0.00000, 127.287, -30.5719, 127.23, -150.553, 127.295, 89.4613, 0, 0, 2.13486, -53.6458, 2.13582, -173.627, 2.13472, 66.3874, 0.00210484, 11.4403
2, 60.00000, 127.287, -30.5719, 127.23, -150.553, 127.295, 89.4613, 0, 0, 2.13486, -53.6458, 2.13582, -173.627, 2.13472, 66.3874, 0.00210484, 11.4403
2, 120.00000, 127.283, -30.573, 127.226, -150.555, 127.291, 89.4602, 0, 0, 2.14082, -53.6468, 2.14178, -173.628, 2.14068, 66.3864, 0.00210996, 11.4457
2, 180.00000, 127.28, -30.5741, 127.223, -150.556, 127.288, 89.4591, 0, 0, 2.14685, -53.6479, 2.14782, -173.63, 2.14672, 66.3852, 0.00211588, 11.4542
2, 240.00000, 127.277, -30.5752, 127.22, -150.557, 127.285, 89.458, 0, 0, 2.15282, -53.6491, 2.15378, -173.631, 2.15268, 66.3841, 0.00212175, 11.4627
2, 300.00000, 127.273, -30.5763, 127.216, -150.558, 127.281, 89.4569, 0, 0, 2.15878, -53.6502, 2.15975, -173.632, 2.15864, 66.383, 0.00212762, 11.4712
2, 360.00000, 127.27, -30.5774, 127.213, -150.559, 127.278, 89.4558, 0, 0, 2.16482, -53.6513, 2.16579, -173.633, 2.16468, 66.3819, 0.00213355, 11.4797
2, 420.00000, 127.266, -30.5785, 127.21, -150.56, 127.275, 89.4547, 0, 0, 2.17078, -53.6524, 2.17175, -173.634, 2.17064, 66.3808, 0.00213942, 11.4883
2, 480.00000, 127.263, -30.5796, 127.206, -150.561, 127.271, 89.4536, 0, 0, 2.17675, -53.6535, 2.17772, -173.635, 2.17661, 66.3797, 0.00214528, 11.4968
2, 540.00000, 127.26, -30.5807, 127.203, -150.562, 127.268, 89.4525, 0, 0, 2.18278, -53.6546, 2.18376, -173.636, 2.18264, 66.3786, 0.00215121, 11.5054
2, 600.00000, 127.256, -30.5818, 127.199, -150.563, 127.265, 89.4514, 0, 0, 2.18875, -53.6557, 2.18973, -173.637, 2.18861, 66.3775, 0.00215709, 11.514
2, 660.00000, 127.253, -30.583, 127.196, -150.564, 127.261, 89.4503, 0, 0, 2.19472, -53.6568, 2.1957, -173.638, 2.19457, 66.3764, 0.00216295, 11.5226
