hour,t(sec),"P1 (kW)","Q1 (kvar)","P2 (kW)","Q2 (kvar)","P3 (kW)","Q3 (kvar)","P4 (kW)","Q4 (kvar)"
0, 60.00000, 0.280002, 0.119277, 0.280011, 0.119277, 0.279992, 0.119273, 0, 0
0, 120.00000, 0.280001, 0.119278, 0.28001, 0.119277, 0.279993, 0.119273, 0, 0
0, 180.00000, 0.280001, 0.119278, 0.280009, 0.119277, 0.279993, 0.119274, 0, 0
0, 240.00000, 0.280001, 0.119278, 0.280008, 0.119277, 0.279994, 0.119274, 0, 0
0, 300.00000, 0.280001, 0.119278, 0.280007, 0.119277, 0.279994, 0.119275, 0, 0
0, 360.00000, 0.280001, 0.119278, 0.280006, 0.119278, 0.279995, 0.119275, 0, 0
0, 420.00000, 0.280001, 0.119278, 0.280006, 0.119278, 0.279995, 0.119276, 0, 0
0, 480.00000, 0.280001, 0.119278, 0.280005, 0.119278, 0.279996, 0.119276, 0, 0
0, 540.00000, 0.280001, 0.119279, 0.280005, 0.119278, 0.279996, 0.119276, 0, 0
0, 600.00000, 0.280001, 0.119279, 0.280004, 0.119278, 0.279997, 0.119277, 0, 0
0, 660.00000, 0.280001, 0.119279, 0.280004, 0.119278, 0.279997, 0.119277, 0, 0
0, 720.00000, 0.28, 0.119279, 0.280003, 0.119278, 0.279997, 0.119277, 0, 0
0, 780.00000, 0.28, 0.119279, 0.280003, 0.119278, 0.279997, 0.119277, 0, 0
0, 840.00000, 0.28, 0.119279, 0.280003, 0.119279, 0.279998, 0.119278, 0, 0
0, 900.00000, 0.28, 0.119279, 0.280003, 0.119279, 0.279998, 0.119278, 0, 0
0, 960.00000, 0.28, 0.119279, 0.280002, 0.119279, 0.277543, 0.118232, 0, 0
0, 1020.00000, 0.28, 0.119279, 0.280002, 0.119279, 0.277534, 0.118229, 0, 0
0, 1080.00000, 0.28, 0.119279, 0.280002, 0.119279, 0.277526, 0.118225, 0, 0
0, 1140.00000, 0.28, 0.119279, 0.280002, 0.119279, 0.277519, 0.118222, 0, 0
0, 1200.00000, 0.28, 0.119279, 0.280001, 0.119279, 0.277512, 0.118219, 0, 0
0, 1260.00000, 0.28, 0.119279, 0.280001, 0.119279, 0.277506, 0.118217, 0, 0
0, 1320.00000, 0.28, 0.119279, 0.280001, 0.119279, 0.277501, 0.118215, 0, 0
0, 1380.00000, 0.28, 0.119279, 0.280001, 0.119279, 0.277496, 0.118213, 0, 0
0, 1440.00000, 0.28, 0.119279, 0.280001, 0.119279, 0.277492, 0.118211, 0, 0
0, 1500.00000, 0.28, 0.119279, 0.280001, 0.119279, 0.277488, 0.118209, 0, 0
0, 1560.00000, 0.28, 0.119279, 0.280001, 0.119279, 0.277484, 0.118208, 0, 0
0, 1620.00000, 0.28, 0.119279, 0.280001, 0.119279, 0.277481, 0.118206, 0, 0
0, 1680.00000, 0.28, 0.119279, 0.280001, 0.119279, 0.277478, 0.118205, 0, 0
0, 1740.00000, 0.28, 0.119279, 0.280001, 0.119279, 0.277476, 0.118204, 0, 0
0, 1800.00000, 0.28, 0.119279, 0.280001, 0.119279, 0.277474, 0.118203, 0, 0
0, 1860.00000, 0.28, 0.119279, 0.28, 0.119279, 0.277472, 0.118202, 0, 0
0, 1920.00000, 0.28, 0.119279, 0.28, 0.119279, 0.27747, 0.118202, 0, 0
0, 1980.00000, 0.28, 0.119279, 0.28, 0.119279, 0.277468, 0.118201, 0, 0
0, 2040.00000, 0.28, 0.119279, 0.28, 0.119279, 0.277467, 0.1182, 0, 0
0, 2100.00000, 0.28, 0.119279, 0.28, 0.119279, 0.277465, 0.1182, 0, 0
0, 2160.00000, 0.28, 0.119279, 0.28, 0.119279, 0.277464, 0.118199, 0, 0
0, 2220.00000, 0.28, 0.119279, 0.28, 0.119279, 0.277463, 0.118199, 0, 0
0, 2280.00000, 0.28, 0.119279, 0.28, 0.119279, 0.277462, 0.118198, 0, 0
0, 2340.00000, 0.28, 0.119279, 0.28, 0.119279, 0.277461, 0.118198, 0, 0
0, 2400.00000, 0.28, 0.119279, 0.28, 0.119279, 0.27746, 0.118197, 0, 0
0, 2460.00000, 0.28, 0.119279, 0.28, 0.119279, 0.277459, 0.118197, 0, 0
0, 2520.00000, 0.28, 0.119279, 0.28, 0.119279, 0.277459, 0.118197, 0, 0
0, 2580.00000, 0.28, 0.119279, 0.28, 0.119279, 0.277458, 0.118197, 0, 0
0, 2640.00000, 0.28, 0.119279, 0.28, 0.119279, 0.277458, 0.118196, 0, 0
0, 2700.00000, 0.28, 0.119279, 0.28, 0.119279, 0.277457, 0.118196, 0, 0
0, 2760.00000, 0.28, 0.119279, 0.28, 0.119279, 0.277457, 0.118196, 0, 0
0, 2820.00000, 0.28, 0.119279, 0.28, 0.119279, 0.277456, 0.118196, 0, 0
0, 2880.00000, 0.28, 0.119279, 0.28, 0.119279, 0.277456, 0.118196, 0, 0
0, 2940.00000, 0.28, 0.119279, 0.28, 0.119279, 0.277456, 0.118196, 0, 0
0, 3000.00000, 0.28, 0.119279, 0.28, 0.119279, 0.277455, 0.118195, 0, 0
0, 3060.00000, 0.28, 0.119279, 0.28, 0.119279, 0.277455, 0.118195, 0, 0
0, 3120.00000, 0.28, 0.119279, 0.28, 0.119279, 0.277455, 0.118195, 0, 0
0, 3180.00000, 0.28, 0.119279, 0.28, 0.119279, 0.277455, 0.118195, 0, 0
0, 3240.00000, 0.28, 0.119279, 0.28, 0.119279, 0.277455, 0.118195, 0, 0
0, 3300.00000, 0.28, 0.119279, 0.28, 0.119279, 0.277454, 0.118195, 0, 0
0, 3360.00000, 0.28, 0.119279, 0.28, 0.119279, 0.277454, 0.118195, 0, 0
0, 3420.00000, 0.28, 0.119279, 0.28, 0.119279, 0.277454, 0.118195, 0, 0
0, 3480.00000, 0.28, 0.119279, 0.28, 0.119279, 0.277454, 0.118195, 0, 0
0, 3540.00000, 0.28, 0.119279, 0.28, 0.119279, 0.277454, 0.118195, 0, 0
1, 0.00000, 0.28, 0.119279, 0.28, 0.119279, 0.277454, 0.118195, 0, 0
1, 60.00000, 0.28, 0.119279, 0.28, 0.119279, 0.277454, 0.118195, 0, 0
1, 120.00000, 0.28, 0.119279, 0.28, 0.119279, 0.277454, 0.118195, 0, 0
1, 180.00000, 0.28, 0.119279, 0.28, 0.119279, 0.277454, 0.118195, 0, 0
1, 240.00000, 0.28, 0.119279, 0.28, 0.119279, 0.277453, 0.118195, 0, 0
1, 300.00000, 0.28, 0.119279, 0.28, 0.119279, 0.277453, 0.118195, 0, 0
1, 360.00000, 0.28, 0.119279, 0.28, 0.119279, 0.277453, 0.118195, 0, 0
1, 420.00000, 0.28, 0.119279, 0.28, 0.119279, 0.277453, 0.118195, 0, 0
1, 480.00000, 0.28, 0.119279, 0.28, 0.119279, 0.277453, 0.118195, 0, 0
1, 540.00000, 0.28, 0.119279, 0.28, 0.119279, 0.277453, 0.118195, 0, 0
1, 600.00000, 0.28, 0.119279, 0.28, 0.119279, 0.277453, 0.118195, 0, 0
1, 660.00000, 0.28, 0.119279, 0.28, 0.119279, 0.277453, 0.118195, 0, 0
1, 720.00000, 0.28, 0.119279, 0.28, 0.119279, 0.277453, 0.118195, 0, 0
1, 780.00000, 0.28, 0.119279, 0.28, 0.119279, 0.277453, 0.118195, 0, 0
1, 840.00000, 0.28, 0.119279, 0.28, 0.119279, 0.277453, 0.118195, 0, 0
1, 900.00000, 0.28, 0.119279, 0.28, 0.119279, 0.277453, 0.118195, 0, 0
1, 960.00000, 0.28, 0.11928, 0.28, 0.119279, 0.277453, 0.118194, 0, 0
1, 1020.00000, 0.28, 0.11928, 0.28, 0.119279, 0.277453, 0.118194, 0, 0
1, 1080.00000, 0.28, 0.11928, 0.28, 0.119279, 0.277453, 0.118194, 0, 0
1, 1140.00000, 0.28, 0.11928, 0.28, 0.119279, 0.277453, 0.118194, 0, 0
1, 1200.00000, 0.28, 0.11928, 0.28, 0.119279, 0.277453, 0.118194, 0, 0
1, 1260.00000, 0.28, 0.11928, 0.28, 0.119279, 0.277453, 0.118194, 0, 0
1, 1320.00000, 0.28, 0.11928, 0.28, 0.119279, 0.277453, 0.118194, 0, 0
1, 1380.00000, 0.28, 0.11928, 0.28, 0.119279, 0.277453, 0.118194, 0, 0
1, 1440.00000, 0.28, 0.11928, 0.28, 0.119279, 0.277453, 0.118194, 0, 0
1, 1500.00000, 0.28, 0.11928, 0.28, 0.119279, 0.277453, 0.118194, 0, 0
1, 1560.00000, 0.28, 0.11928, 0.28, 0.119279, 0.277453, 0.118194, 0, 0
1, 1620.00000, 0.28, 0.11928, 0.28, 0.119279, 0.277453, 0.118194, 0, 0
1, 1680.00000, 0.28, 0.11928, 0.28, 0.119279, 0.277453, 0.118194, 0, 0
1, 1740.00000, 0.28, 0.11928, 0.28, 0.11928, 0.277453, 0.118194, 0, 0
1, 1800.00000, 0.28, 0.11928, 0.28, 0.11928, 0.277453, 0.118194, 0, 0
1, 1860.00000, 0.28, 0.11928, 0.28, 0.11928, 0.277453, 0.118194, 0, 0
1, 1920.00000, 0.28, 0.11928, 0.28, 0.11928, 0.277453, 0.118194, 0, 0
1, 1980.00000, 0.28, 0.11928, 0.28, 0.11928, 0.277453, 0.118194, 0, 0
1, 2040.00000, 0.28, 0.119279, 0.28, 0.11928, 0.28, 0.119279, 0, 0
1, 2100.00000, 0.28, 0.11928, 0.28, 0.11928, 0.28, 0.11928, 0, 0
1, 2160.00000, 0.28, 0.11928, 0.28, 0.11928, 0.28, 0.11928, 0, 0
1, 2220.00000, 0.28, 0.11928, 0.28, 0.11928, 0.28, 0.11928, 0, 0
1, 2280.00000, 0.28, 0.11928, 0.28, 0.11928, 0.28, 0.11928, 0, 0
1, 2340.00000, 0.28, 0.11928, 0.28, 0.11928, 0.28, 0.11928, 0, 0
1, 2400.00000, 0.28, 0.11928, 0.28, 0.11928, 0.28, 0.11928, 0, 0
1, 2460.00000, 0.28, 0.11928, 0.28, 0.11928, 0.28, 0.11928, 0, 0
1, 2520.00000, 0.28, 0.11928, 0.28, 0.11928, 0.28, 0.119279, 0, 0
1, 2580.00000, 0.28, 0.11928, 0.28, 0.11928, 0.28, 0.11928, 0, 0
1, 2640.00000, 0.28, 0.11928, 0.28, 0.11928, 0.28, 0.11928, 0, 0
1, 2700.00000, 0.28, 0.11928, 0.28, 0.11928, 0.28, 0.11928, 0, 0
1, 2760.00000, 0.28, 0.119279, 0.28, 0.119279, 0.28, 0.119279, 0, 0
1, 2820.00000, 0.28, 0.11928, 0.28, 0.11928, 0.28, 0.11928, 0, 0
1, 2880.00000, 0.28, 0.11928, 0.28, 0.11928, 0.28, 0.11928, 0, 0
1, 2940.00000, 0.28, 0.11928, 0.28, 0.11928, 0.28, 0.11928, 0, 0
1, 3000.00000, 0.28, 0.11928, 0.28, 0.11928, 0.28, 0.11928, 0, 0
1, 3060.00000, 0.28, 0.11928, 0.28, 0.11928, 0.28, 0.11928, 0, 0
1, 3120.00000, 0.28, 0.11928, 0.28, 0.11928, 0.28, 0.11928, 0, 0
1, 3180.00000, 0.28, 0.11928, 0.28, 0.11928, 0.28, 0.11928, 0, 0
1, 3240.00000, 0.28, 0.11928, 0.28, 0.11928, 0.28, 0.11928, 0, 0
1, 3300.00000, 0.28, 0.11928, 0.28, 0.11928, 0.28, 0.11928, 0, 0
1, 3360.00000, 0.28, 0.11928, 0.28, 0.11928, 0.28, 0.11928, 0, 0
1, 3420.00000, 0.28, 0.11928, 0.28, 0.11928, 0.28, 0.11928, 0, 0
1, 3480.00000, 0.28, 0.11928, 0.28, 0.11928, 0.28, 0.11928, 0, 0
1, 3540.00000, 0.28, 0.11928, 0.28, 0.11928, 0.28, 0.11928, 0, 0
2, 0.00000, 0.28, 0.11928, 0.28, 0.11928, 0.28, 0.11928, 0, 0
2, 60.00000, 0.28, 0.11928, 0.28, 0.11928, 0.28, 0.11928, 0, 0
2, 120.00000, 0.280775, 0.11961, 0.280775, 0.11961, 0.280775, 0.11961, 0, 0
2, 180.00000, 0.281559, 0.119943, 0.281559, 0.119943, 0.281559, 0.119943, 0, 0
2, 240.00000, 0.282333, 0.120273, 0.282333, 0.120273, 0.282333, 0.120274, 0, 0
2, 300.00000, 0.283108, 0.120604, 0.283108, 0.120604, 0.283108, 0.120604, 0, 0
2, 360.00000, 0.283892, 0.120937, 0.283892, 0.120937, 0.283892, 0.120937, 0, 0
2, 420.00000, 0.284667, 0.121267, 0.284667, 0.121267, 0.284667, 0.121267, 0, 0
2, 480.00000, 0.285441, 0.121597, 0.285441, 0.121597, 0.285441, 0.121598, 0, 0
2, 540.00000, 0.286225, 0.121931, 0.286225, 0.121931, 0.286225, 0.121931, 0, 0
2, 600.00000, 0.287, 0.122261, 0.287, 0.122261, 0.287, 0.122261, 0, 0
2, 660.00000, 0.287775, 0.122591, 0.287775, 0.122591, 0.287775, 0.122592, 0, 0
2, 720.00000, 0.288559, 0.122925, 0.288559, 0.122925, 0.288559, 0.122925, 0, 0
2, 780.00000, 0.289333, 0.123255, 0.289333, 0.123255, 0.289333, 0.123255, 0, 0
2, 840.00000, 0.290108, 0.123585, 0.290108, 0.123585, 0.290108, 0.123585, 0, 0
2, 900.00000, 0.290892, 0.123919, 0.290892, 0.123919, 0.290892, 0.123919, 0, 0
2, 960.00000, 0.291667, 0.124249, 0.291667, 0.124249, 0.291667, 0.124249, 0, 0
2, 1020.00000, 0.292441, 0.124579, 0.292441, 0.124579, 0.292441, 0.124579, 0, 0
2, 1080.00000, 0.293225, 0.124913, 0.293225, 0.124913, 0.293225, 0.124913, 0, 0
2, 1140.00000, 0.294, 0.125243, 0.294, 0.125243, 0.294, 0.125243, 0, 0
2, 1200.00000, 0.294775, 0.125573, 0.294775, 0.125573, 0.294775, 0.125573, 0, 0
2, 1260.00000, 0.295559, 0.125907, 0.295559, 0.125907, 0.295559, 0.125907, 0, 0
2, 1320.00000, 0.296333, 0.126237, 0.296333, 0.126237, 0.296333, 0.126237, 0, 0
2, 1380.00000, 0.297108, 0.126567, 0.297108, 0.126567, 0.297108, 0.126567, 0, 0
2, 1440.00000, 0.297892, 0.126901, 0.297892, 0.126901, 0.297892, 0.126901, 0, 0
2, 1500.00000, 0.298667, 0.127231, 0.298667, 0.127231, 0.298667, 0.127231, 0, 0
2, 1560.00000, 0.299441, 0.127561, 0.299441, 0.127561, 0.299441, 0.127561, 0, 0
2, 1620.00000, 0.300225, 0.127895, 0.300225, 0.127895, 0.300225, 0.127895, 0, 0
2, 1680.00000, 0.301, 0.128225, 0.301, 0.128225, 0.301, 0.128225, 0, 0
2, 1740.00000, 0.301775, 0.128555, 0.301775, 0.128555, 0.301775, 0.128555, 0, 0
2, 1800.00000, 0.302559, 0.128889, 0.302559, 0.128889, 0.302559, 0.128889, 0, 0
2, 1860.00000, 0.303333, 0.129219, 0.303333, 0.129219, 0.303333, 0.129219, 0, 0
2, 1920.00000, 0.304108, 0.129549, 0.304108, 0.129549, 0.304108, 0.129549, 0, 0
2, 1980.00000, 0.304892, 0.129883, 0.304892, 0.129883, 0.304892, 0.129883, 0, 0
2, 2040.00000, 0.305667, 0.130213, 0.305667, 0.130213, 0.305667, 0.130213, 0, 0
2, 2100.00000, 0.306441, 0.130543, 0.306441, 0.130543, 0.306441, 0.130543, 0, 0
2, 2160.00000, 0.307225, 0.130877, 0.307225, 0.130877, 0.307225, 0.130877, 0, 0
2, 2220.00000, 0.308, 0.131207, 0.308, 0.131207, 0.308, 0.131207, 0, 0
2, 2280.00000, 0.308775, 0.131537, 0.308775, 0.131537, 0.308775, 0.131537, 0, 0
2, 2340.00000, 0.309559, 0.131871, 0.309559, 0.131871, 0.309559, 0.131871, 0, 0
2, 2400.00000, 0.310333, 0.132201, 0.310333, 0.132201, 0.310333, 0.132201, 0, 0
2, 2460.00000, 0.311108, 0.132531, 0.311108, 0.132531, 0.311108, 0.132531, 0, 0
2, 2520.00000, 0.311892, 0.132865, 0.311892, 0.132865, 0.311892, 0.132865, 0, 0
2, 2580.00000, 0.312667, 0.133195, 0.312667, 0.133195, 0.312667, 0.133195, 0, 0
2, 2640.00000, 0.313441, 0.133525, 0.313441, 0.133525, 0.313441, 0.133525, 0, 0
2, 2700.00000, 0.314225, 0.133859, 0.314225, 0.133859, 0.314225, 0.133859, 0, 0
2, 2760.00000, 0.315, 0.134189, 0.315, 0.134189, 0.315, 0.134189, 0, 0
2, 2820.00000, 0.315775, 0.134519, 0.315775, 0.134519, 0.315775, 0.134519, 0, 0
2, 2880.00000, 0.316559, 0.134853, 0.316559, 0.134853, 0.316559, 0.134853, 0, 0
2, 2940.00000, 0.317333, 0.135183, 0.317333, 0.135183, 0.317333, 0.135183, 0, 0
2, 3000.00000, 0.318108, 0.135513, 0.318108, 0.135513, 0.318108, 0.135513, 0, 0
2, 3060.00000, 0.318892, 0.135847, 0.318892, 0.135847, 0.318892, 0.135847, 0, 0
2, 3120.00000, 0.319667, 0.136177, 0.319667, 0.136177, 0.319667, 0.136177, 0, 0
2, 3180.00000, 0.320441, 0.136507, 0.320441, 0.136507, 0.320441, 0.136507, 0, 0
2, 3240.00000, 0.321225, 0.136841, 0.321225, 0.136841, 0.321225, 0.136841, 0, 0
2, 3300.00000, 0.322, 0.137171, 0.322, 0.137171, 0.322, 0.137171, 0, 0
2, 3360.00000, 0.322775, 0.137501, 0.322775, 0.137501, 0.322775, 0.137501, 0, 0
2, 3420.00000, 0.323559, 0.137835, 0.323559, 0.137835, 0.323559, 0.137835, 0, 0
2, 3480.00000, 0.324333, 0.138165, 0.324333, 0.138165, 0.324333, 0.138165, 0, 0
2, 3540.00000, 0.325108, 0.138495, 0.325108, 0.138495, 0.325108, 0.138495, 0, 0
3, 0.00000, 0.325892, 0.138829, 0.325892, 0.138829, 0.325892, 0.138829, 0, 0
3, 60.00000, 0.326667, 0.139159, 0.326667, 0.139159, 0.326667, 0.139159, 0, 0
3, 120.00000, 0.326825, 0.139227, 0.326825, 0.139227, 0.326825, 0.139227, 0, 0
3, 180.00000, 0.326975, 0.139291, 0.326975, 0.139291, 0.326975, 0.139291, 0, 0
3, 240.00000, 0.327133, 0.139358, 0.327133, 0.139358, 0.327133, 0.139358, 0, 0
3, 300.00000, 0.327292, 0.139426, 0.327292, 0.139426, 0.327292, 0.139426, 0, 0
3, 360.00000, 0.327441, 0.139489, 0.327441, 0.139489, 0.327441, 0.139489, 0, 0
3, 420.00000, 0.3276, 0.139557, 0.3276, 0.139557, 0.3276, 0.139557, 0, 0
3, 480.00000, 0.327759, 0.139625, 0.327759, 0.139625, 0.327759, 0.139625, 0, 0
3, 540.00000, 0.327908, 0.139688, 0.327908, 0.139688, 0.327908, 0.139688, 0, 0
3, 600.00000, 0.328067, 0.139756, 0.328067, 0.139756, 0.328067, 0.139756, 0, 0
3, 660.00000, 0.328225, 0.139823, 0.328225, 0.139823, 0.328225, 0.139823, 0, 0
3, 720.00000, 0.328375, 0.139887, 0.328375, 0.139887, 0.328375, 0.139887, 0, 0
3, 780.00000, 0.328533, 0.139955, 0.328533, 0.139955, 0.328533, 0.139955, 0, 0
3, 840.00000, 0.328692, 0.140022, 0.328692, 0.140022, 0.328692, 0.140022, 0, 0
3, 900.00000, 0.328841, 0.140086, 0.328841, 0.140086, 0.328841, 0.140086, 0, 0
3, 960.00000, 0.329, 0.140153, 0.329, 0.140153, 0.329, 0.140153, 0, 0
3, 1020.00000, 0.329159, 0.140221, 0.329159, 0.140221, 0.329159, 0.140221, 0, 0
3, 1080.00000, 0.329308, 0.140285, 0.329308, 0.140285, 0.329308, 0.140285, 0, 0
3, 1140.00000, 0.329467, 0.140352, 0.329467, 0.140352, 0.329467, 0.140352, 0, 0
3, 1200.00000, 0.329625, 0.14042, 0.329625, 0.14042, 0.329625, 0.14042, 0, 0
3, 1260.00000, 0.329775, 0.140483, 0.329775, 0.140483, 0.329775, 0.140483, 0, 0
3, 1320.00000, 0.329933, 0.140551, 0.329933, 0.140551, 0.329933, 0.140551, 0, 0
3, 1380.00000, 0.330092, 0.140619, 0.330092, 0.140619, 0.330092, 0.140619, 0, 0
3, 1440.00000, 0.330241, 0.140682, 0.330241, 0.140682, 0.330241, 0.140682, 0, 0
3, 1500.00000, 0.3304, 0.14075, 0.3304, 0.14075, 0.3304, 0.14075, 0, 0
3, 1560.00000, 0.330559, 0.140817, 0.330559, 0.140817, 0.330559, 0.140817, 0, 0
3, 1620.00000, 0.330708, 0.140881, 0.330708, 0.140881, 0.330708, 0.140881, 0, 0
3, 1680.00000, 0.330867, 0.140949, 0.330867, 0.140949, 0.330867, 0.140949, 0, 0
3, 1740.00000, 0.331025, 0.141016, 0.331025, 0.141016, 0.331025, 0.141016, 0, 0
3, 1800.00000, 0.331175, 0.14108, 0.331175, 0.14108, 0.331175, 0.14108, 0, 0
3, 1860.00000, 0.331333, 0.141147, 0.331333, 0.141147, 0.331333, 0.141147, 0, 0
3, 1920.00000, 0.331492, 0.141215, 0.331492, 0.141215, 0.331492, 0.141215, 0, 0
3, 1980.00000, 0.331641, 0.141279, 0.331641, 0.141279, 0.331641, 0.141279, 0, 0
3, 2040.00000, 0.3318, 0.141346, 0.3318, 0.141346, 0.3318, 0.141346, 0, 0
3, 2100.00000, 0.331959, 0.141414, 0.331959, 0.141414, 0.331959, 0.141414, 0, 0
3, 2160.00000, 0.332108, 0.141477, 0.332108, 0.141477, 0.332108, 0.141477, 0, 0
3, 2220.00000, 0.332267, 0.141545, 0.332267, 0.141545, 0.332267, 0.141545, 0, 0
3, 2280.00000, 0.332425, 0.141613, 0.332425, 0.141613, 0.332425, 0.141613, 0, 0
3, 2340.00000, 0.332575, 0.141676, 0.332575, 0.141676, 0.332575, 0.141676, 0, 0
3, 2400.00000, 0.332733, 0.141744, 0.332733, 0.141744, 0.332733, 0.141744, 0, 0
3, 2460.00000, 0.332892, 0.141811, 0.332892, 0.141811, 0.332892, 0.141811, 0, 0
3, 2520.00000, 0.333041, 0.141875, 0.333041, 0.141875, 0.333041, 0.141875, 0, 0
3, 2580.00000, 0.3332, 0.141943, 0.3332, 0.141943, 0.3332, 0.141943, 0, 0
3, 2640.00000, 0.333359, 0.14201, 0.333359, 0.14201, 0.333359, 0.14201, 0, 0
3, 2700.00000, 0.333508, 0.142074, 0.333508, 0.142074, 0.333508, 0.142074, 0, 0
3, 2760.00000, 0.333667, 0.142141, 0.333667, 0.142141, 0.333667, 0.142141, 0, 0
3, 2820.00000, 0.333825, 0.142209, 0.333825, 0.142209, 0.333825, 0.142209, 0, 0
3, 2880.00000, 0.333975, 0.142273, 0.333975, 0.142273, 0.333975, 0.142273, 0, 0
3, 2940.00000, 0.334133, 0.14234, 0.334133, 0.14234, 0.334133, 0.14234, 0, 0
3, 3000.00000, 0.334292, 0.142408, 0.334292, 0.142408, 0.334292, 0.142408, 0, 0
3, 3060.00000, 0.334441, 0.142471, 0.334441, 0.142471, 0.334441, 0.142471, 0, 0
3, 3120.00000, 0.3346, 0.142539, 0.3346, 0.142539, 0.3346, 0.142539, 0, 0
3, 3180.00000, 0.334759, 0.142607, 0.334759, 0.142607, 0.334759, 0.142607, 0, 0
3, 3240.00000, 0.334908, 0.14267, 0.334908, 0.14267, 0.334908, 0.14267, 0, 0
3, 3300.00000, 0.335067, 0.142738, 0.335067, 0.142738, 0.335067, 0.142738, 0, 0
3, 3360.00000, 0.335225, 0.142805, 0.335225, 0.142805, 0.335225, 0.142805, 0, 0
3, 3420.00000, 0.335375, 0.142869, 0.335375, 0.142869, 0.335375, 0.142869, 0, 0
3, 3480.00000, 0.335533, 0.142937, 0.335533, 0.142937, 0.335533, 0.142937, 0, 0
3, 3540.00000, 0.335692, 0.143004, 0.335692, 0.143004, 0.335692, 0.143004, 0, 0
4, 0.00000, 0.335841, 0.143068, 0.335841, 0.143068, 0.335841, 0.143068, 0, 0
4, 60.00000, 0.336, 0.143135, 0.336, 0.143135, 0.336, 0.143135, 0, 0
4, 120.00000, 0.336467, 0.143334, 0.336467, 0.143334, 0.336467, 0.143334, 0, 0
4, 180.00000, 0.336933, 0.143533, 0.336933, 0.143533, 0.336933, 0.143533, 0, 0
4, 240.00000, 0.3374, 0.143732, 0.3374, 0.143732, 0.3374, 0.143732, 0, 0
4, 300.00000, 0.337867, 0.143931, 0.337867, 0.143931, 0.337867, 0.143931, 0, 0
4, 360.00000, 0.338333, 0.144129, 0.338333, 0.144129, 0.338333, 0.144129, 0, 0
4, 420.00000, 0.3388, 0.144328, 0.3388, 0.144328, 0.3388, 0.144328, 0, 0
4, 480.00000, 0.339267, 0.144527, 0.339267, 0.144527, 0.339267, 0.144527, 0, 0
4, 540.00000, 0.339733, 0.144726, 0.339733, 0.144726, 0.339733, 0.144726, 0, 0
4, 600.00000, 0.3402, 0.144925, 0.3402, 0.144925, 0.3402, 0.144925, 0, 0
4, 660.00000, 0.340667, 0.145123, 0.340667, 0.145123, 0.340667, 0.145123, 0, 0
4, 720.00000, 0.341133, 0.145322, 0.341133, 0.145322, 0.341133, 0.145322, 0, 0
4, 780.00000, 0.3416, 0.145521, 0.3416, 0.145521, 0.3416, 0.145521, 0, 0
4, 840.00000, 0.342067, 0.14572, 0.342067, 0.14572, 0.342067, 0.14572, 0, 0
4, 900.00000, 0.342533, 0.145919, 0.342533, 0.145919, 0.342533, 0.145919, 0, 0
4, 960.00000, 0.343, 0.146117, 0.343, 0.146117, 0.343, 0.146117, 0, 0
4, 1020.00000, 0.343467, 0.146316, 0.343467, 0.146316, 0.343467, 0.146316, 0, 0
4, 1080.00000, 0.343933, 0.146515, 0.343933, 0.146515, 0.343933, 0.146515, 0, 0
4, 1140.00000, 0.3444, 0.146714, 0.3444, 0.146714, 0.3444, 0.146714, 0, 0
4, 1200.00000, 0.344867, 0.146913, 0.344867, 0.146913, 0.344867, 0.146913, 0, 0
4, 1260.00000, 0.345333, 0.147111, 0.345333, 0.147111, 0.345333, 0.147111, 0, 0
4, 1320.00000, 0.3458, 0.14731, 0.3458, 0.14731, 0.3458, 0.14731, 0, 0
4, 1380.00000, 0.346267, 0.147509, 0.346267, 0.147509, 0.346267, 0.147509, 0, 0
4, 1440.00000, 0.346733, 0.147708, 0.346733, 0.147708, 0.346733, 0.147708, 0, 0
4, 1500.00000, 0.3472, 0.147907, 0.3472, 0.147907, 0.3472, 0.147907, 0, 0
