hour,t(sec),V1,VAngle1,V2,VAngle2,V3,VAngle3,V4,VAngle4,I1,IAngle1,I2,IAngle2,I3,IAngle3,I4,IAngle4
0, 60.00000, 126.382, -30.7829, 126.152, -150.771, 126.276, 89.4022, 0, 0, 2.68853, -53.8568, 2.69342, -173.844, 2.69078, 66.3284, 0.0126572, -20.6501
0, 120.00000, 126.382, -30.783, 126.152, -150.771, 126.276, 89.4022, 0, 0, 2.68854, -53.8569, 2.69343, -173.845, 2.69079, 66.3283, 0.0126659, -20.6827
0, 180.00000, 126.382, -30.783, 126.152, -150.771, 126.276, 89.4022, 0, 0, 2.68854, -53.8569, 2.69343, -173.845, 2.69079, 66.3283, 0.012666, -20.683
0, 240.00000, 126.382, -30.783, 126.152, -150.771, 126.276, 89.4022, 0, 0, 2.68854, -53.8569, 2.69343, -173.845, 2.69079, 66.3283, 0.012666, -20.683
0, 300.00000, 126.382, -30.783, 126.152, -150.771, 126.276, 89.4022, 0, 0, 2.68854, -53.8569, 2.69343, -173.845, 2.69079, 66.3283, 0.012666, -20.683
0, 360.00000, 126.382, -30.783, 126.152, -150.771, 126.276, 89.4022, 0, 0, 2.68854, -53.8569, 2.69343, -173.845, 2.69079, 66.3283, 0.012666, -20.683
0, 420.00000, 126.382, -30.783, 126.152, -150.771, 126.276, 89.4022, 0, 0, 2.68854, -53.8569, 2.69343, -173.845, 2.69079, 66.3283, 0.012666, -20.683
0, 480.00000, 126.382, -30.783, 126.152, -150.771, 126.276, 89.4022, 0, 0, 2.68854, -53.8569, 2.69343, -173.845, 2.69079, 66.3283, 0.012666, -20.683
0, 540.00000, 126.382, -30.783, 126.152, -150.771, 126.276, 89.4022, 0, 0, 2.68854, -53.8569, 2.69343, -173.845, 2.69079, 66.3283, 0.012666, -20.683
0, 600.00000, 126.382, -30.783, 126.152, -150.771, 126.276, 89.4022, 0, 0, 2.68854, -53.8569, 2.69343, -173.845, 2.69079, 66.3283, 0.012666, -20.683
0, 660.00000, 126.382, -30.783, 126.152, -150.771, 126.276, 89.4022, 0, 0, 2.68854, -53.8569, 2.69343, -173.845, 2.69079, 66.3283, 0.012666, -20.683
0, 720.00000, 126.382, -30.783, 126.152, -150.771, 126.276, 89.4022, 0, 0, 2.68854, -53.8569, 2.69343, -173.845, 2.69079, 66.3283, 0.012666, -20.683
0, 780.00000, 126.382, -30.783, 126.152, -150.771, 126.276, 89.4022, 0, 0, 2.68854, -53.8569, 2.69343, -173.845, 2.69079, 66.3283, 0.012666, -20.683
0, 840.00000, 126.382, -30.783, 126.152, -150.771, 126.276, 89.4022, 0, 0, 2.68854, -53.8569, 2.69343, -173.845, 2.69079, 66.3283, 0.012666, -20.683
0, 900.00000, 126.382, -30.783, 126.152, -150.771, 126.276, 89.4022, 0, 0, 2.68854, -53.8569, 2.69343, -173.845, 2.69079, 66.3283, 0.012666, -20.683
0, 960.00000, 126.246, -30.9599, 125.739, -150.817, 126.275, 89.4005, 0, 0, 2.69139, -54.033, 2.70221, -173.891, 2.6908, 66.3267, 0.025788, 3.37206
0, 1020.00000, 126.246, -30.96, 125.739, -150.817, 126.275, 89.4005, 0, 0, 2.69143, -54.0339, 2.70228, -173.891, 2.69081, 66.3266, 0.0258631, 3.40567
0, 1080.00000, 126.246, -30.96, 125.739, -150.817, 126.275, 89.4005, 0, 0, 2.69143, -54.0339, 2.70228, -173.891, 2.69081, 66.3266, 0.0258635, 3.40587
0, 1140.00000, 126.246, -30.96, 125.739, -150.817, 126.275, 89.4005, 0, 0, 2.69143, -54.0339, 2.70228, -173.891, 2.69081, 66.3266, 0.0258635, 3.40587
0, 1200.00000, 126.246, -30.96, 125.739, -150.817, 126.275, 89.4005, 0, 0, 2.69143, -54.0339, 2.70228, -173.891, 2.69081, 66.3266, 0.0258635, 3.40587
0, 1260.00000, 126.246, -30.96, 125.739, -150.817, 126.275, 89.4005, 0, 0, 2.69143, -54.0339, 2.70228, -173.891, 2.69081, 66.3266, 0.0258635, 3.40587
0, 1320.00000, 126.246, -30.96, 125.739, -150.817, 126.275, 89.4005, 0, 0, 2.69143, -54.0339, 2.70228, -173.891, 2.69081, 66.3266, 0.0258635, 3.40587
0, 1380.00000, 126.246, -30.96, 125.739, -150.817, 126.275, 89.4005, 0, 0, 2.69143, -54.0339, 2.70228, -173.891, 2.69081, 66.3266, 0.0258635, 3.40587
0, 1440.00000, 126.246, -30.96, 125.739, -150.817, 126.275, 89.4005, 0, 0, 2.69143, -54.0339, 2.70228, -173.891, 2.69081, 66.3266, 0.0258635, 3.40587
0, 1500.00000, 126.246, -30.96, 125.739, -150.817, 126.275, 89.4005, 0, 0, 2.69143, -54.0339, 2.70228, -173.891, 2.69081, 66.3266, 0.0258635, 3.40587
0, 1560.00000, 126.246, -30.96, 125.739, -150.817, 126.275, 89.4005, 0, 0, 2.69143, -54.0339, 2.70228, -173.891, 2.69081, 66.3266, 0.0258635, 3.40587
0, 1620.00000, 126.246, -30.96, 125.739, -150.817, 126.275, 89.4005, 0, 0, 2.69143, -54.0339, 2.70228, -173.891, 2.69081, 66.3266, 0.0258635, 3.40587
0, 1680.00000, 126.246, -30.96, 125.739, -150.817, 126.275, 89.4005, 0, 0, 2.69143, -54.0339, 2.70228, -173.891, 2.69081, 66.3266, 0.0258635, 3.40587
0, 1740.00000, 126.246, -30.96, 125.739, -150.817, 126.275, 89.4005, 0, 0, 2.69143, -54.0339, 2.70228, -173.891, 2.69081, 66.3266, 0.0258635, 3.40587
0, 1800.00000, 126.246, -30.96, 125.739, -150.817, 126.275, 89.4005, 0, 0, 2.69143, -54.0339, 2.70228, -173.891, 2.69081, 66.3266, 0.0258635, 3.40587
0, 1860.00000, 126.246, -30.96, 125.739, -150.817, 126.275, 89.4005, 0, 0, 2.69143, -54.0339, 2.70228, -173.891, 2.69081, 66.3266, 0.0258635, 3.40587
0, 1920.00000, 126.246, -30.96, 125.739, -150.817, 126.275, 89.4005, 0, 0, 2.69143, -54.0339, 2.70228, -173.891, 2.69081, 66.3266, 0.0258635, 3.40587
0, 1980.00000, 126.246, -30.96, 125.739, -150.817, 126.275, 89.4005, 0, 0, 2.69143, -54.0339, 2.70228, -173.891, 2.69081, 66.3266, 0.0258635, 3.40587
0, 2040.00000, 126.246, -30.96, 125.739, -150.817, 126.275, 89.4005, 0, 0, 2.69143, -54.0339, 2.70228, -173.891, 2.69081, 66.3266, 0.0258635, 3.40587
0, 2100.00000, 126.246, -30.96, 125.739, -150.817, 126.275, 89.4005, 0, 0, 2.69143, -54.0339, 2.70228, -173.891, 2.69081, 66.3266, 0.0258635, 3.40587
0, 2160.00000, 126.246, -30.96, 125.739, -150.817, 126.275, 89.4005, 0, 0, 2.69143, -54.0339, 2.70228, -173.891, 2.69081, 66.3266, 0.0258635, 3.40587
0, 2220.00000, 126.246, -30.96, 125.739, -150.817, 126.275, 89.4005, 0, 0, 2.69143, -54.0339, 2.70228, -173.891, 2.69081, 66.3266, 0.0258635, 3.40587
0, 2280.00000, 126.246, -30.96, 125.739, -150.817, 126.275, 89.4005, 0, 0, 2.69143, -54.0339, 2.70228, -173.891, 2.69081, 66.3266, 0.0258635, 3.40587
0, 2340.00000, 126.246, -30.96, 125.739, -150.817, 126.275, 89.4005, 0, 0, 2.69143, -54.0339, 2.70228, -173.891, 2.69081, 66.3266, 0.0258635, 3.40587
0, 2400.00000, 126.246, -30.96, 125.739, -150.817, 126.275, 89.4005, 0, 0, 2.69143, -54.0339, 2.70228, -173.891, 2.69081, 66.3266, 0.0258635, 3.40587
0, 2460.00000, 126.246, -30.96, 125.739, -150.817, 126.275, 89.4005, 0, 0, 2.69143, -54.0339, 2.70228, -173.891, 2.69081, 66.3266, 0.0258635, 3.40587
0, 2520.00000, 126.246, -30.96, 125.739, -150.817, 126.275, 89.4005, 0, 0, 2.69143, -54.0339, 2.70228, -173.891, 2.69081, 66.3266, 0.0258635, 3.40587
0, 2580.00000, 126.246, -30.96, 125.739, -150.817, 126.275, 89.4005, 0, 0, 2.69143, -54.0339, 2.70228, -173.891, 2.69081, 66.3266, 0.0258635, 3.40587
0, 2640.00000, 126.246, -30.96, 125.739, -150.817, 126.275, 89.4005, 0, 0, 2.69143, -54.0339, 2.70228, -173.891, 2.69081, 66.3266, 0.0258635, 3.40587
0, 2700.00000, 126.246, -30.96, 125.739, -150.817, 126.275, 89.4005, 0, 0, 2.69143, -54.0339, 2.70228, -173.891, 2.69081, 66.3266, 0.0258635, 3.40587
0, 2760.00000, 126.246, -30.96, 125.739, -150.817, 126.275, 89.4005, 0, 0, 2.69143, -54.0339, 2.70228, -173.891, 2.69081, 66.3266, 0.0258635, 3.40587
0, 2820.00000, 126.246, -30.96, 125.739, -150.817, 126.275, 89.4005, 0, 0, 2.69143, -54.0339, 2.70228, -173.891, 2.69081, 66.3266, 0.0258635, 3.40587
0, 2880.00000, 126.246, -30.96, 125.739, -150.817, 126.275, 89.4005, 0, 0, 2.69143, -54.0339, 2.70228, -173.891, 2.69081, 66.3266, 0.0258635, 3.40587
0, 2940.00000, 126.246, -30.96, 125.739, -150.817, 126.275, 89.4005, 0, 0, 2.69143, -54.0339, 2.70228, -173.891, 2.69081, 66.3266, 0.0258635, 3.40587
0, 3000.00000, 126.246, -30.96, 125.739, -150.817, 126.275, 89.4005, 0, 0, 2.69143, -54.0339, 2.70228, -173.891, 2.69081, 66.3266, 0.0258635, 3.40587
0, 3060.00000, 126.246, -30.96, 125.739, -150.817, 126.275, 89.4005, 0, 0, 2.69143, -54.0339, 2.70228, -173.891, 2.69081, 66.3266, 0.0258635, 3.40587
0, 3120.00000, 126.246, -30.96, 125.739, -150.817, 126.275, 89.4005, 0, 0, 2.69143, -54.0339, 2.70228, -173.891, 2.69081, 66.3266, 0.0258635, 3.40587
0, 3180.00000, 126.246, -30.96, 125.739, -150.817, 126.275, 89.4005, 0, 0, 2.69143, -54.0339, 2.70228, -173.891, 2.69081, 66.3266, 0.0258635, 3.40587
0, 3240.00000, 126.246, -30.96, 125.739, -150.817, 126.275, 89.4005, 0, 0, 2.69143, -54.0339, 2.70228, -173.891, 2.69081, 66.3266, 0.0258635, 3.40587
0, 3300.00000, 126.246, -30.96, 125.739, -150.817, 126.275, 89.4005, 0, 0, 2.69143, -54.0339, 2.70228, -173.891, 2.69081, 66.3266, 0.0258635, 3.40587
0, 3360.00000, 126.246, -30.96, 125.739, -150.817, 126.275, 89.4005, 0, 0, 2.69143, -54.0339, 2.70228, -173.891, 2.69081, 66.3266, 0.0258635, 3.40587
0, 3420.00000, 126.246, -30.96, 125.739, -150.817, 126.275, 89.4005, 0, 0, 2.69143, -54.0339, 2.70228, -173.891, 2.69081, 66.3266, 0.0258635, 3.40587
0, 3480.00000, 126.246, -30.96, 125.739, -150.817, 126.275, 89.4005, 0, 0, 2.69143, -54.0339, 2.70228, -173.891, 2.69081, 66.3266, 0.0258635, 3.40587
0, 3540.00000, 126.246, -30.96, 125.739, -150.817, 126.275, 89.4005, 0, 0, 2.69143, -54.0339, 2.70228, -173.891, 2.69081, 66.3266, 0.0258635, 3.40587
1, 0.00000, 126.246, -30.96, 125.739, -150.817, 126.275, 89.4005, 0, 0, 2.69143, -54.0339, 2.70228, -173.891, 2.69081, 66.3266, 0.0258635, 3.40587
1, 60.00000, 126.246, -30.96, 125.739, -150.817, 126.275, 89.4005, 0, 0, 2.69143, -54.0339, 2.70228, -173.891, 2.69081, 66.3266, 0.0258635, 3.40587
1, 120.00000, 126.246, -30.96, 125.739, -150.817, 126.275, 89.4005, 0, 0, 2.69143, -54.0339, 2.70228, -173.891, 2.69081, 66.3266, 0.0258635, 3.40587
1, 180.00000, 126.246, -30.96, 125.739, -150.817, 126.275, 89.4005, 0, 0, 2.69143, -54.0339, 2.70228, -173.891, 2.69081, 66.3266, 0.0258635, 3.40587
1, 240.00000, 126.246, -30.96, 125.739, -150.817, 126.275, 89.4005, 0, 0, 2.69143, -54.0339, 2.70228, -173.891, 2.69081, 66.3266, 0.0258635, 3.40587
1, 300.00000, 126.246, -30.96, 125.739, -150.817, 126.275, 89.4005, 0, 0, 2.69143, -54.0339, 2.70228, -173.891, 2.69081, 66.3266, 0.0258635, 3.40587
1, 360.00000, 126.246, -30.96, 125.739, -150.817, 126.275, 89.4005, 0, 0, 2.69143, -54.0339, 2.70228, -173.891, 2.69081, 66.3266, 0.0258635, 3.40587
1, 420.00000, 126.246, -30.96, 125.739, -150.817, 126.275, 89.4005, 0, 0, 2.69143, -54.0339, 2.70228, -173.891, 2.69081, 66.3266, 0.0258635, 3.40587
1, 480.00000, 126.246, -30.96, 125.739, -150.817, 126.275, 89.4005, 0, 0, 2.69143, -54.0339, 2.70228, -173.891, 2.69081, 66.3266, 0.0258635, 3.40587
1, 540.00000, 126.246, -30.96, 125.739, -150.817, 126.275, 89.4005, 0, 0, 2.69143, -54.0339, 2.70228, -173.891, 2.69081, 66.3266, 0.0258635, 3.40587
1, 600.00000, 126.246, -30.96, 125.739, -150.817, 126.275, 89.4005, 0, 0, 2.69143, -54.0339, 2.70228, -173.891, 2.69081, 66.3266, 0.0258635, 3.40587
1, 660.00000, 126.246, -30.96, 125.739, -150.817, 126.275, 89.4005, 0, 0, 2.69143, -54.0339, 2.70228, -173.891, 2.69081, 66.3266, 0.0258635, 3.40587
1, 720.00000, 126.246, -30.96, 125.739, -150.817, 126.275, 89.4005, 0, 0, 2.69143, -54.0339, 2.70228, -173.891, 2.69081, 66.3266, 0.0258635, 3.40587
1, 780.00000, 126.246, -30.96, 125.739, -150.817, 126.275, 89.4005, 0, 0, 2.69143, -54.0339, 2.70228, -173.891, 2.69081, 66.3266, 0.0258635, 3.40587
1, 840.00000, 126.246, -30.96, 125.739, -150.817, 126.275, 89.4005, 0, 0, 2.69143, -54.0339, 2.70228, -173.891, 2.69081, 66.3266, 0.0258635, 3.40587
1, 900.00000, 126.246, -30.96, 125.739, -150.817, 126.275, 89.4005, 0, 0, 2.69143, -54.0339, 2.70228, -173.891, 2.69081, 66.3266, 0.0258635, 3.40587
1, 960.00000, 126.246, -30.96, 125.739, -150.817, 126.275, 89.4005, 0, 0, 2.69143, -54.0339, 2.70228, -173.891, 2.69081, 66.3266, 0.0258635, 3.40587
1, 1020.00000, 126.246, -30.96, 125.739, -150.817, 126.275, 89.4005, 0, 0, 2.69143, -54.0339, 2.70228, -173.891, 2.69081, 66.3266, 0.0258635, 3.40587
1, 1080.00000, 126.246, -30.96, 125.739, -150.817, 126.275, 89.4005, 0, 0, 2.69143, -54.0339, 2.70228, -173.891, 2.69081, 66.3266, 0.0258635, 3.40587
1, 1140.00000, 126.246, -30.96, 125.739, -150.817, 126.275, 89.4005, 0, 0, 2.69143, -54.0339, 2.70228, -173.891, 2.69081, 66.3266, 0.0258635, 3.40587
1, 1200.00000, 126.246, -30.96, 125.739, -150.817, 126.275, 89.4005, 0, 0, 2.69143, -54.0339, 2.70228, -173.891, 2.69081, 66.3266, 0.0258635, 3.40587
1, 1260.00000, 126.246, -30.96, 125.739, -150.817, 126.275, 89.4005, 0, 0, 2.69143, -54.0339, 2.70228, -173.891, 2.69081, 66.3266, 0.0258635, 3.40587
1, 1320.00000, 126.246, -30.96, 125.739, -150.817, 126.275, 89.4005, 0, 0, 2.69143, -54.0339, 2.70228, -173.891, 2.69081, 66.3266, 0.0258635, 3.40587
1, 1380.00000, 126.246, -30.96, 125.739, -150.817, 126.275, 89.4005, 0, 0, 2.69143, -54.0339, 2.70228, -173.891, 2.69081, 66.3266, 0.0258635, 3.40587
1, 1440.00000, 126.246, -30.96, 125.739, -150.817, 126.275, 89.4005, 0, 0, 2.69143, -54.0339, 2.70228, -173.891, 2.69081, 66.3266, 0.0258635, 3.40587
1, 1500.00000, 126.246, -30.96, 125.739, -150.817, 126.275, 89.4005, 0, 0, 2.69143, -54.0339, 2.70228, -173.891, 2.69081, 66.3266, 0.0258635, 3.40587
1, 1560.00000, 126.246, -30.96, 125.739, -150.817, 126.275, 89.4005, 0, 0, 2.69143, -54.0339, 2.70228, -173.891, 2.69081, 66.3266, 0.0258635, 3.40587
1, 1620.00000, 126.246, -30.96, 125.739, -150.817, 126.275, 89.4005, 0, 0, 2.69143, -54.0339, 2.70228, -173.891, 2.69081, 66.3266, 0.0258635, 3.40587
1, 1680.00000, 126.246, -30.96, 125.739, -150.817, 126.275, 89.4005, 0, 0, 2.69143, -54.0339, 2.70228, -173.891, 2.69081, 66.3266, 0.0258635, 3.40587
1, 1740.00000, 126.246, -30.96, 125.739, -150.817, 126.275, 89.4005, 0, 0, 2.69143, -54.0339, 2.70228, -173.891, 2.69081, 66.3266, 0.0258635, 3.40587
1, 1800.00000, 126.246, -30.96, 125.739, -150.817, 126.275, 89.4005, 0, 0, 2.69143, -54.0339, 2.70228, -173.891, 2.69081, 66.3266, 0.0258635, 3.40587
1, 1860.00000, 126.246, -30.96, 125.739, -150.817, 126.275, 89.4005, 0, 0, 2.69143, -54.0339, 2.70228, -173.891, 2.69081, 66.3266, 0.0258635, 3.40587
1, 1920.00000, 126.246, -30.96, 125.739, -150.817, 126.275, 89.4005, 0, 0, 2.69143, -54.0339, 2.70228, -173.891, 2.69081, 66.3266, 0.0258635, 3.40587
1, 1980.00000, 126.246, -30.96, 125.739, -150.817, 126.275, 89.4005, 0, 0, 2.69143, -54.0339, 2.70228, -173.891, 2.69081, 66.3266, 0.0258635, 3.40587
1, 2040.00000, 126.252, -30.959, 125.868, -150.643, 126.684, 89.4489, 0, 0, 2.69131, -54.0332, 2.69955, -173.718, 2.68218, 66.3744, 0.0322012, 30.3592
1, 2100.00000, 126.252, -30.959, 125.868, -150.643, 126.684, 89.4489, 0, 0, 2.6913, -54.0329, 2.69951, -173.717, 2.68213, 66.375, 0.0322133, 30.415
1, 2160.00000, 126.252, -30.959, 125.868, -150.643, 126.684, 89.4489, 0, 0, 2.6913, -54.0329, 2.69951, -173.717, 2.68213, 66.375, 0.0322132, 30.4153
1, 2220.00000, 126.252, -30.959, 125.868, -150.643, 126.684, 89.4489, 0, 0, 2.6913, -54.0329, 2.69951, -173.717, 2.68213, 66.375, 0.0322132, 30.4153
1, 2280.00000, 126.252, -30.959, 125.868, -150.643, 126.684, 89.4489, 0, 0, 2.6913, -54.0329, 2.69951, -173.717, 2.68213, 66.375, 0.0322132, 30.4153
1, 2340.00000, 126.252, -30.959, 125.868, -150.643, 126.684, 89.4489, 0, 0, 2.6913, -54.0329, 2.69951, -173.717, 2.68213, 66.375, 0.0322132, 30.4153
1, 2400.00000, 126.252, -30.959, 125.868, -150.643, 126.684, 89.4489, 0, 0, 2.6913, -54.0329, 2.69951, -173.717, 2.68213, 66.375, 0.0322132, 30.4153
1, 2460.00000, 126.252, -30.959, 125.868, -150.643, 126.684, 89.4489, 0, 0, 2.6913, -54.0329, 2.69951, -173.717, 2.68213, 66.375, 0.0322132, 30.4153
1, 2520.00000, 126.385, -30.7823, 126.282, -150.597, 126.683, 89.4493, 0, 0, 2.6885, -53.8567, 2.69073, -173.672, 2.68215, 66.3754, 0.0172208, 36.8129
1, 2580.00000, 126.385, -30.7822, 126.282, -150.597, 126.683, 89.4493, 0, 0, 2.68847, -53.8561, 2.69067, -173.671, 2.68214, 66.3754, 0.0171632, 36.9012
1, 2640.00000, 126.385, -30.7822, 126.282, -150.597, 126.683, 89.4493, 0, 0, 2.68847, -53.8561, 2.69067, -173.671, 2.68214, 66.3754, 0.0171629, 36.9016
1, 2700.00000, 126.385, -30.7822, 126.282, -150.597, 126.683, 89.4493, 0, 0, 2.68847, -53.8561, 2.69067, -173.671, 2.68214, 66.3754, 0.0171629, 36.9016
1, 2760.00000, 126.512, -30.6112, 126.682, -150.552, 126.683, 89.4497, 0, 0, 2.68578, -53.6854, 2.68221, -173.627, 2.68216, 66.3758, 0.00451156, 87.168
1, 2820.00000, 126.513, -30.6112, 126.682, -150.552, 126.683, 89.4497, 0, 0, 2.68576, -53.6851, 2.68217, -173.626, 2.68216, 66.3758, 0.0045064, 87.6735
1, 2880.00000, 126.513, -30.6112, 126.682, -150.552, 126.683, 89.4497, 0, 0, 2.68576, -53.6851, 2.68217, -173.626, 2.68216, 66.3758, 0.00450638, 87.6753
1, 2940.00000, 126.513, -30.6112, 126.682, -150.552, 126.683, 89.4497, 0, 0, 2.68576, -53.6851, 2.68217, -173.626, 2.68216, 66.3758, 0.00450638, 87.6753
1, 3000.00000, 126.513, -30.6112, 126.682, -150.552, 126.683, 89.4497, 0, 0, 2.68576, -53.6851, 2.68217, -173.626, 2.68216, 66.3758, 0.00450638, 87.6753
1, 3060.00000, 126.513, -30.6112, 126.682, -150.552, 126.683, 89.4497, 0, 0, 2.68576, -53.6851, 2.68217, -173.626, 2.68216, 66.3758, 0.00450638, 87.6753
1, 3120.00000, 126.513, -30.6112, 126.682, -150.552, 126.683, 89.4497, 0, 0, 2.68576, -53.6851, 2.68217, -173.626, 2.68216, 66.3758, 0.00450638, 87.6753
1, 3180.00000, 126.513, -30.6112, 126.682, -150.552, 126.683, 89.4497, 0, 0, 2.68576, -53.6851, 2.68217, -173.626, 2.68216, 66.3758, 0.00450638, 87.6753
1, 3240.00000, 126.513, -30.6112, 126.682, -150.552, 126.683, 89.4497, 0, 0, 2.68576, -53.6851, 2.68217, -173.626, 2.68216, 66.3758, 0.00450638, 87.6753
1, 3300.00000, 126.513, -30.6112, 126.682, -150.552, 126.683, 89.4497, 0, 0, 2.68576, -53.6851, 2.68217, -173.626, 2.68216, 66.3758, 0.00450638, 87.6753
1, 3360.00000, 126.513, -30.6112, 126.682, -150.552, 126.683, 89.4497, 0, 0, 2.68576, -53.6851, 2.68217, -173.626, 2.68216, 66.3758, 0.00450638, 87.6753
1, 3420.00000, 126.513, -30.6112, 126.682, -150.552, 126.683, 89.4497, 0, 0, 2.68576, -53.6851, 2.68217, -173.626, 2.68216, 66.3758, 0.00450638, 87.6753
1, 3480.00000, 126.513, -30.6112, 126.682, -150.552, 126.683, 89.4497, 0, 0, 2.68576, -53.6851, 2.68217, -173.626, 2.68216, 66.3758, 0.00450638, 87.6753
1, 3540.00000, 126.513, -30.6112, 126.682, -150.552, 126.683, 89.4497, 0, 0, 2.68576, -53.6851, 2.68217, -173.626, 2.68216, 66.3758, 0.00450638, 87.6753
2, 0.00000, 126.513, -30.6112, 126.682, -150.552, 126.683, 89.4497, 0, 0, 2.68576, -53.6851, 2.68217, -173.626, 2.68216, 66.3758, 0.00450638, 87.6753
2, 60.00000, 126.513, -30.6112, 126.682, -150.552, 126.683, 89.4497, 0, 0, 2.68576, -53.6851, 2.68217, -173.626, 2.68216, 66.3758, 0.00450638, 87.6753
2, 120.00000, 126.508, -30.6123, 126.678, -150.553, 126.678, 89.4486, 0, 0, 2.69329, -53.6862, 2.68968, -173.627, 2.68967, 66.3747, 0.00452514, 87.7262
2, 180.00000, 126.503, -30.6135, 126.673, -150.555, 126.674, 89.4475, 0, 0, 2.70091, -53.6874, 2.69728, -173.628, 2.69727, 66.3736, 0.00454409, 87.7734
2, 240.00000, 126.498, -30.6147, 126.669, -150.556, 126.669, 89.4464, 0, 0, 2.70844, -53.6885, 2.7048, -173.63, 2.70479, 66.3725, 0.00456284, 87.8198
2, 300.00000, 126.494, -30.6159, 126.665, -150.557, 126.665, 89.4453, 0, 0, 2.71598, -53.6897, 2.71231, -173.631, 2.71231, 66.3714, 0.00458163, 87.8662
2, 360.00000, 126.489, -30.6171, 126.66, -150.558, 126.66, 89.4441, 0, 0, 2.7236, -53.6909, 2.71992, -173.632, 2.71991, 66.3703, 0.00460069, 87.913
2, 420.00000, 126.484, -30.6182, 126.656, -150.559, 126.656, 89.443, 0, 0, 2.73114, -53.6921, 2.72743, -173.633, 2.72743, 66.3691, 0.00461956, 87.9591
2, 480.00000, 126.479, -30.6194, 126.652, -150.56, 126.651, 89.4419, 0, 0, 2.73867, -53.6933, 2.73495, -173.634, 2.73495, 66.368, 0.00463847, 88.0051
2, 540.00000, 126.475, -30.6206, 126.647, -150.561, 126.647, 89.4408, 0, 0, 2.7463, -53.6944, 2.74255, -173.635, 2.74256, 66.3669, 0.00465765, 88.0515
2, 600.00000, 126.47, -30.6218, 126.643, -150.562, 126.642, 89.4397, 0, 0, 2.75383, -53.6956, 2.75007, -173.636, 2.75008, 66.3658, 0.00467664, 88.0973
2, 660.00000, 126.465, -30.6229, 126.639, -150.563, 126.638, 89.4386, 0, 0, 2.76137, -53.6968, 2.75759, -173.637, 2.7576, 66.3647, 0.00469567, 88.1429
2, 720.00000, 126.46, -30.6241, 126.634, -150.565, 126.634, 89.4374, 0, 0, 2.769, -53.698, 2.7652, -173.638, 2.76521, 66.3636, 0.00471497, 88.1891
