hour,t(sec),V1,VAngle1,V2,VAngle2,V3,VAngle3,V4,VAngle4,I1,IAngle1,I2,IAngle2,I3,IAngle3,I4,IAngle4
0, 60.00000, 126.14, -30.7873, 125.995, -150.78, 126.056, 89.3972, 0, 0, 2.4774, -53.8611, 2.48024, -173.854, 2.47904, 66.3234, 0.010291, -23.5411
0, 120.00000, 126.14, -30.7873, 125.995, -150.78, 126.056, 89.3972, 0, 0, 2.47741, -53.8612, 2.48026, -173.854, 2.47905, 66.3233, 0.0102994, -23.5767
0, 180.00000, 126.14, -30.7873, 125.995, -150.78, 126.056, 89.3972, 0, 0, 2.47741, -53.8612, 2.48026, -173.854, 2.47905, 66.3233, 0.0102995, -23.577
0, 240.00000, 126.14, -30.7873, 125.995, -150.78, 126.056, 89.3972, 0, 0, 2.47741, -53.8612, 2.48026, -173.854, 2.47905, 66.3233, 0.0102995, -23.577
0, 300.00000, 126.14, -30.7873, 125.995, -150.78, 126.056, 89.3972, 0, 0, 2.47741, -53.8612, 2.48026, -173.854, 2.47905, 66.3233, 0.0102995, -23.577
0, 360.00000, 126.14, -30.7873, 125.995, -150.78, 126.056, 89.3972, 0, 0, 2.47741, -53.8612, 2.48026, -173.854, 2.47905, 66.3233, 0.0102995, -23.577
0, 420.00000, 126.14, -30.7873, 125.995, -150.78, 126.056, 89.3972, 0, 0, 2.47741, -53.8612, 2.48026, -173.854, 2.47905, 66.3233, 0.0102995, -23.577
0, 480.00000, 126.14, -30.7873, 125.995, -150.78, 126.056, 89.3972, 0, 0, 2.47741, -53.8612, 2.48026, -173.854, 2.47905, 66.3233, 0.0102995, -23.577
0, 540.00000, 126.14, -30.7873, 125.995, -150.78, 126.056, 89.3972, 0, 0, 2.47741, -53.8612, 2.48026, -173.854, 2.47905, 66.3233, 0.0102995, -23.577
0, 600.00000, 126.14, -30.7873, 125.995, -150.78, 126.056, 89.3972, 0, 0, 2.47741, -53.8612, 2.48026, -173.854, 2.47905, 66.3233, 0.0102995, -23.577
0, 660.00000, 126.14, -30.7873, 125.995, -150.78, 126.056, 89.3972, 0, 0, 2.47741, -53.8612, 2.48026, -173.854, 2.47905, 66.3233, 0.0102995, -23.577
0, 720.00000, 126.14, -30.7873, 125.995, -150.78, 126.056, 89.3972, 0, 0, 2.47741, -53.8612, 2.48026, -173.854, 2.47905, 66.3233, 0.0102995, -23.577
0, 780.00000, 126.14, -30.7873, 125.995, -150.78, 126.056, 89.3972, 0, 0, 2.47741, -53.8612, 2.48026, -173.854, 2.47905, 66.3233, 0.0102995, -23.577
0, 840.00000, 126.14, -30.7873, 125.995, -150.78, 126.056, 89.3972, 0, 0, 2.47741, -53.8612, 2.48026, -173.854, 2.47905, 66.3233, 0.0102995, -23.577
0, 900.00000, 126.14, -30.7873, 125.995, -150.78, 126.056, 89.3972, 0, 0, 2.47741, -53.8612, 2.48026, -173.854, 2.47905, 66.3233, 0.0102995, -23.577
0, 960.00000, 126.004, -30.964, 125.581, -150.827, 126.056, 89.3955, 0, 0, 2.48005, -54.0371, 2.48837, -173.9, 2.47905, 66.3217, 0.0222979, 3.61134
0, 1020.00000, 126.003, -30.9641, 125.581, -150.827, 126.056, 89.3955, 0, 0, 2.48009, -54.038, 2.48844, -173.901, 2.47906, 66.3216, 0.0223685, 3.64793
0, 1080.00000, 126.003, -30.9641, 125.581, -150.827, 126.056, 89.3955, 0, 0, 2.48009, -54.038, 2.48844, -173.901, 2.47906, 66.3216, 0.0223688, 3.64815
0, 1140.00000, 126.003, -30.9641, 125.581, -150.827, 126.056, 89.3955, 0, 0, 2.48009, -54.038, 2.48844, -173.901, 2.47906, 66.3216, 0.0223688, 3.64815
0, 1200.00000, 126.003, -30.9641, 125.581, -150.827, 126.056, 89.3955, 0, 0, 2.48009, -54.038, 2.48844, -173.901, 2.47906, 66.3216, 0.0223688, 3.64815
0, 1260.00000, 126.003, -30.9641, 125.581, -150.827, 126.056, 89.3955, 0, 0, 2.48009, -54.038, 2.48844, -173.901, 2.47906, 66.3216, 0.0223688, 3.64815
0, 1320.00000, 126.003, -30.9641, 125.581, -150.827, 126.056, 89.3955, 0, 0, 2.48009, -54.038, 2.48844, -173.901, 2.47906, 66.3216, 0.0223688, 3.64815
0, 1380.00000, 126.003, -30.9641, 125.581, -150.827, 126.056, 89.3955, 0, 0, 2.48009, -54.038, 2.48844, -173.901, 2.47906, 66.3216, 0.0223688, 3.64815
0, 1440.00000, 126.003, -30.9641, 125.581, -150.827, 126.056, 89.3955, 0, 0, 2.48009, -54.038, 2.48844, -173.901, 2.47906, 66.3216, 0.0223688, 3.64815
0, 1500.00000, 126.003, -30.9641, 125.581, -150.827, 126.056, 89.3955, 0, 0, 2.48009, -54.038, 2.48844, -173.901, 2.47906, 66.3216, 0.0223688, 3.64815
0, 1560.00000, 126.003, -30.9641, 125.581, -150.827, 126.056, 89.3955, 0, 0, 2.48009, -54.038, 2.48844, -173.901, 2.47906, 66.3216, 0.0223688, 3.64815
0, 1620.00000, 126.003, -30.9641, 125.581, -150.827, 126.056, 89.3955, 0, 0, 2.48009, -54.038, 2.48844, -173.901, 2.47906, 66.3216, 0.0223688, 3.64815
0, 1680.00000, 126.003, -30.9641, 125.581, -150.827, 126.056, 89.3955, 0, 0, 2.48009, -54.038, 2.48844, -173.901, 2.47906, 66.3216, 0.0223688, 3.64815
0, 1740.00000, 126.003, -30.9641, 125.581, -150.827, 126.056, 89.3955, 0, 0, 2.48009, -54.038, 2.48844, -173.901, 2.47906, 66.3216, 0.0223688, 3.64815
0, 1800.00000, 126.003, -30.9641, 125.581, -150.827, 126.056, 89.3955, 0, 0, 2.48009, -54.038, 2.48844, -173.901, 2.47906, 66.3216, 0.0223688, 3.64815
0, 1860.00000, 126.003, -30.9641, 125.581, -150.827, 126.056, 89.3955, 0, 0, 2.48009, -54.038, 2.48844, -173.901, 2.47906, 66.3216, 0.0223688, 3.64815
0, 1920.00000, 126.003, -30.9641, 125.581, -150.827, 126.056, 89.3955, 0, 0, 2.48009, -54.038, 2.48844, -173.901, 2.47906, 66.3216, 0.0223688, 3.64815
0, 1980.00000, 126.003, -30.9641, 125.581, -150.827, 126.056, 89.3955, 0, 0, 2.48009, -54.038, 2.48844, -173.901, 2.47906, 66.3216, 0.0223688, 3.64815
0, 2040.00000, 126.003, -30.9641, 125.581, -150.827, 126.056, 89.3955, 0, 0, 2.48009, -54.038, 2.48844, -173.901, 2.47906, 66.3216, 0.0223688, 3.64815
0, 2100.00000, 126.003, -30.9641, 125.581, -150.827, 126.056, 89.3955, 0, 0, 2.48009, -54.038, 2.48844, -173.901, 2.47906, 66.3216, 0.0223688, 3.64815
0, 2160.00000, 126.003, -30.9641, 125.581, -150.827, 126.056, 89.3955, 0, 0, 2.48009, -54.038, 2.48844, -173.901, 2.47906, 66.3216, 0.0223688, 3.64815
0, 2220.00000, 126.003, -30.9641, 125.581, -150.827, 126.056, 89.3955, 0, 0, 2.48009, -54.038, 2.48844, -173.901, 2.47906, 66.3216, 0.0223688, 3.64815
0, 2280.00000, 126.003, -30.9641, 125.581, -150.827, 126.056, 89.3955, 0, 0, 2.48009, -54.038, 2.48844, -173.901, 2.47906, 66.3216, 0.0223688, 3.64815
0, 2340.00000, 126.003, -30.9641, 125.581, -150.827, 126.056, 89.3955, 0, 0, 2.48009, -54.038, 2.48844, -173.901, 2.47906, 66.3216, 0.0223688, 3.64815
0, 2400.00000, 126.003, -30.9641, 125.581, -150.827, 126.056, 89.3955, 0, 0, 2.48009, -54.038, 2.48844, -173.901, 2.47906, 66.3216, 0.0223688, 3.64815
0, 2460.00000, 126.003, -30.9641, 125.581, -150.827, 126.056, 89.3955, 0, 0, 2.48009, -54.038, 2.48844, -173.901, 2.47906, 66.3216, 0.0223688, 3.64815
0, 2520.00000, 126.003, -30.9641, 125.581, -150.827, 126.056, 89.3955, 0, 0, 2.48009, -54.038, 2.48844, -173.901, 2.47906, 66.3216, 0.0223688, 3.64815
0, 2580.00000, 126.003, -30.9641, 125.581, -150.827, 126.056, 89.3955, 0, 0, 2.48009, -54.038, 2.48844, -173.901, 2.47906, 66.3216, 0.0223688, 3.64815
0, 2640.00000, 126.003, -30.9641, 125.581, -150.827, 126.056, 89.3955, 0, 0, 2.48009, -54.038, 2.48844, -173.901, 2.47906, 66.3216, 0.0223688, 3.64815
0, 2700.00000, 126.003, -30.9641, 125.581, -150.827, 126.056, 89.3955, 0, 0, 2.48009, -54.038, 2.48844, -173.901, 2.47906, 66.3216, 0.0223688, 3.64815
0, 2760.00000, 126.003, -30.9641, 125.581, -150.827, 126.056, 89.3955, 0, 0, 2.48009, -54.038, 2.48844, -173.901, 2.47906, 66.3216, 0.0223688, 3.64815
0, 2820.00000, 126.003, -30.9641, 125.581, -150.827, 126.056, 89.3955, 0, 0, 2.48009, -54.038, 2.48844, -173.901, 2.47906, 66.3216, 0.0223688, 3.64815
0, 2880.00000, 126.003, -30.9641, 125.581, -150.827, 126.056, 89.3955, 0, 0, 2.48009, -54.038, 2.48844, -173.901, 2.47906, 66.3216, 0.0223688, 3.64815
0, 2940.00000, 126.003, -30.9641, 125.581, -150.827, 126.056, 89.3955, 0, 0, 2.48009, -54.038, 2.48844, -173.901, 2.47906, 66.3216, 0.0223688, 3.64815
0, 3000.00000, 126.003, -30.9641, 125.581, -150.827, 126.056, 89.3955, 0, 0, 2.48009, -54.038, 2.48844, -173.901, 2.47906, 66.3216, 0.0223688, 3.64815
0, 3060.00000, 126.003, -30.9641, 125.581, -150.827, 126.056, 89.3955, 0, 0, 2.48009, -54.038, 2.48844, -173.901, 2.47906, 66.3216, 0.0223688, 3.64815
0, 3120.00000, 126.003, -30.9641, 125.581, -150.827, 126.056, 89.3955, 0, 0, 2.48009, -54.038, 2.48844, -173.901, 2.47906, 66.3216, 0.0223688, 3.64815
0, 3180.00000, 126.003, -30.9641, 125.581, -150.827, 126.056, 89.3955, 0, 0, 2.48009, -54.038, 2.48844, -173.901, 2.47906, 66.3216, 0.0223688, 3.64815
0, 3240.00000, 126.003, -30.9641, 125.581, -150.827, 126.056, 89.3955, 0, 0, 2.48009, -54.038, 2.48844, -173.901, 2.47906, 66.3216, 0.0223688, 3.64815
0, 3300.00000, 126.003, -30.9641, 125.581, -150.827, 126.056, 89.3955, 0, 0, 2.48009, -54.038, 2.48844, -173.901, 2.47906, 66.3216, 0.0223688, 3.64815
0, 3360.00000, 126.003, -30.9641, 125.581, -150.827, 126.056, 89.3955, 0, 0, 2.48009, -54.038, 2.48844, -173.901, 2.47906, 66.3216, 0.0223688, 3.64815
0, 3420.00000, 126.003, -30.9641, 125.581, -150.827, 126.056, 89.3955, 0, 0, 2.48009, -54.038, 2.48844, -173.901, 2.47906, 66.3216, 0.0223688, 3.64815
0, 3480.00000, 126.003, -30.9641, 125.581, -150.827, 126.056, 89.3955, 0, 0, 2.48009, -54.038, 2.48844, -173.901, 2.47906, 66.3216, 0.0223688, 3.64815
0, 3540.00000, 126.003, -30.9641, 125.581, -150.827, 126.056, 89.3955, 0, 0, 2.48009, -54.038, 2.48844, -173.901, 2.47906, 66.3216, 0.0223688, 3.64815
1, 0.00000, 126.003, -30.9641, 125.581, -150.827, 126.056, 89.3955, 0, 0, 2.48009, -54.038, 2.48844, -173.901, 2.47906, 66.3216, 0.0223688, 3.64815
1, 60.00000, 126.003, -30.9641, 125.581, -150.827, 126.056, 89.3955, 0, 0, 2.48009, -54.038, 2.48844, -173.901, 2.47906, 66.3216, 0.0223688, 3.64815
1, 120.00000, 126.003, -30.9641, 125.581, -150.827, 126.056, 89.3955, 0, 0, 2.48009, -54.038, 2.48844, -173.901, 2.47906, 66.3216, 0.0223688, 3.64815
1, 180.00000, 126.003, -30.9641, 125.581, -150.827, 126.056, 89.3955, 0, 0, 2.48009, -54.038, 2.48844, -173.901, 2.47906, 66.3216, 0.0223688, 3.64815
1, 240.00000, 126.003, -30.9641, 125.581, -150.827, 126.056, 89.3955, 0, 0, 2.48009, -54.038, 2.48844, -173.901, 2.47906, 66.3216, 0.0223688, 3.64815
1, 300.00000, 126.003, -30.9641, 125.581, -150.827, 126.056, 89.3955, 0, 0, 2.48009, -54.038, 2.48844, -173.901, 2.47906, 66.3216, 0.0223688, 3.64815
1, 360.00000, 126.003, -30.9641, 125.581, -150.827, 126.056, 89.3955, 0, 0, 2.48009, -54.038, 2.48844, -173.901, 2.47906, 66.3216, 0.0223688, 3.64815
1, 420.00000, 126.003, -30.9641, 125.581, -150.827, 126.056, 89.3955, 0, 0, 2.48009, -54.038, 2.48844, -173.901, 2.47906, 66.3216, 0.0223688, 3.64815
1, 480.00000, 126.003, -30.9641, 125.581, -150.827, 126.056, 89.3955, 0, 0, 2.48009, -54.038, 2.48844, -173.901, 2.47906, 66.3216, 0.0223688, 3.64815
1, 540.00000, 126.003, -30.9641, 125.581, -150.827, 126.056, 89.3955, 0, 0, 2.48009, -54.038, 2.48844, -173.901, 2.47906, 66.3216, 0.0223688, 3.64815
1, 600.00000, 126.003, -30.9641, 125.581, -150.827, 126.056, 89.3955, 0, 0, 2.48009, -54.038, 2.48844, -173.901, 2.47906, 66.3216, 0.0223688, 3.64815
1, 660.00000, 126.003, -30.9641, 125.581, -150.827, 126.056, 89.3955, 0, 0, 2.48009, -54.038, 2.48844, -173.901, 2.47906, 66.3216, 0.0223688, 3.64815
1, 720.00000, 126.003, -30.9641, 125.581, -150.827, 126.056, 89.3955, 0, 0, 2.48009, -54.038, 2.48844, -173.901, 2.47906, 66.3216, 0.0223688, 3.64815
1, 780.00000, 126.003, -30.9641, 125.581, -150.827, 126.056, 89.3955, 0, 0, 2.48009, -54.038, 2.48844, -173.901, 2.47906, 66.3216, 0.0223688, 3.64815
1, 840.00000, 126.003, -30.9641, 125.581, -150.827, 126.056, 89.3955, 0, 0, 2.48009, -54.038, 2.48844, -173.901, 2.47906, 66.3216, 0.0223688, 3.64815
1, 900.00000, 126.003, -30.9641, 125.581, -150.827, 126.056, 89.3955, 0, 0, 2.48009, -54.038, 2.48844, -173.901, 2.47906, 66.3216, 0.0223688, 3.64815
1, 960.00000, 126.003, -30.9641, 125.581, -150.827, 126.056, 89.3955, 0, 0, 2.48009, -54.038, 2.48844, -173.901, 2.47906, 66.3216, 0.0223688, 3.64815
1, 1020.00000, 126.003, -30.9641, 125.581, -150.827, 126.056, 89.3955, 0, 0, 2.48009, -54.038, 2.48844, -173.901, 2.47906, 66.3216, 0.0223688, 3.64815
1, 1080.00000, 126.003, -30.9641, 125.581, -150.827, 126.056, 89.3955, 0, 0, 2.48009, -54.038, 2.48844, -173.901, 2.47906, 66.3216, 0.0223688, 3.64815
1, 1140.00000, 126.003, -30.9641, 125.581, -150.827, 126.056, 89.3955, 0, 0, 2.48009, -54.038, 2.48844, -173.901, 2.47906, 66.3216, 0.0223688, 3.64815
1, 1200.00000, 126.003, -30.9641, 125.581, -150.827, 126.056, 89.3955, 0, 0, 2.48009, -54.038, 2.48844, -173.901, 2.47906, 66.3216, 0.0223688, 3.64815
1, 1260.00000, 126.003, -30.9641, 125.581, -150.827, 126.056, 89.3955, 0, 0, 2.48009, -54.038, 2.48844, -173.901, 2.47906, 66.3216, 0.0223688, 3.64815
1, 1320.00000, 126.003, -30.9641, 125.581, -150.827, 126.056, 89.3955, 0, 0, 2.48009, -54.038, 2.48844, -173.901, 2.47906, 66.3216, 0.0223688, 3.64815
1, 1380.00000, 126.003, -30.9641, 125.581, -150.827, 126.056, 89.3955, 0, 0, 2.48009, -54.038, 2.48844, -173.901, 2.47906, 66.3216, 0.0223688, 3.64815
1, 1440.00000, 126.003, -30.9641, 125.581, -150.827, 126.056, 89.3955, 0, 0, 2.48009, -54.038, 2.48844, -173.901, 2.47906, 66.3216, 0.0223688, 3.64815
1, 1500.00000, 126.003, -30.9641, 125.581, -150.827, 126.056, 89.3955, 0, 0, 2.48009, -54.038, 2.48844, -173.901, 2.47906, 66.3216, 0.0223688, 3.64815
1, 1560.00000, 126.003, -30.9641, 125.581, -150.827, 126.056, 89.3955, 0, 0, 2.48009, -54.038, 2.48844, -173.901, 2.47906, 66.3216, 0.0223688, 3.64815
1, 1620.00000, 126.003, -30.9641, 125.581, -150.827, 126.056, 89.3955, 0, 0, 2.48009, -54.038, 2.48844, -173.901, 2.47906, 66.3216, 0.0223688, 3.64815
1, 1680.00000, 126.003, -30.9641, 125.581, -150.827, 126.056, 89.3955, 0, 0, 2.48009, -54.038, 2.48844, -173.901, 2.47906, 66.3216, 0.0223688, 3.64815
1, 1740.00000, 126.003, -30.9641, 125.581, -150.827, 126.056, 89.3955, 0, 0, 2.48009, -54.038, 2.48844, -173.901, 2.47906, 66.3216, 0.0223688, 3.64815
1, 1800.00000, 126.003, -30.9641, 125.581, -150.827, 126.056, 89.3955, 0, 0, 2.48009, -54.038, 2.48844, -173.901, 2.47906, 66.3216, 0.0223688, 3.64815
1, 1860.00000, 126.003, -30.9641, 125.581, -150.827, 126.056, 89.3955, 0, 0, 2.48009, -54.038, 2.48844, -173.901, 2.47906, 66.3216, 0.0223688, 3.64815
1, 1920.00000, 126.003, -30.9641, 125.581, -150.827, 126.056, 89.3955, 0, 0, 2.48009, -54.038, 2.48844, -173.901, 2.47906, 66.3216, 0.0223688, 3.64815
1, 1980.00000, 126.003, -30.9641, 125.581, -150.827, 126.056, 89.3955, 0, 0, 2.48009, -54.038, 2.48844, -173.901, 2.47906, 66.3216, 0.0223688, 3.64815
1, 2040.00000, 126.009, -30.9631, 125.71, -150.653, 126.465, 89.4441, 0, 0, 2.47999, -54.0373, 2.48591, -173.728, 2.47108, 66.3696, 0.0284353, 31.8813
1, 2100.00000, 126.009, -30.9631, 125.71, -150.653, 126.465, 89.4441, 0, 0, 2.47997, -54.037, 2.48588, -173.727, 2.47103, 66.3702, 0.0284484, 31.9406
1, 2160.00000, 126.009, -30.9631, 125.71, -150.653, 126.465, 89.4441, 0, 0, 2.47997, -54.037, 2.48588, -173.727, 2.47103, 66.3702, 0.0284483, 31.9409
1, 2220.00000, 126.009, -30.9631, 125.71, -150.653, 126.465, 89.4441, 0, 0, 2.47997, -54.037, 2.48588, -173.727, 2.47103, 66.3702, 0.0284483, 31.9409
1, 2280.00000, 126.009, -30.9631, 125.71, -150.653, 126.465, 89.4441, 0, 0, 2.47997, -54.037, 2.48588, -173.727, 2.47103, 66.3702, 0.0284483, 31.9409
1, 2340.00000, 126.009, -30.9631, 125.71, -150.653, 126.465, 89.4441, 0, 0, 2.47997, -54.037, 2.48588, -173.727, 2.47103, 66.3702, 0.0284483, 31.9409
1, 2400.00000, 126.009, -30.9631, 125.71, -150.653, 126.465, 89.4441, 0, 0, 2.47997, -54.037, 2.48588, -173.727, 2.47103, 66.3702, 0.0284483, 31.9409
1, 2460.00000, 126.009, -30.9631, 125.71, -150.653, 126.465, 89.4441, 0, 0, 2.47997, -54.037, 2.48588, -173.727, 2.47103, 66.3702, 0.0284483, 31.9409
1, 2520.00000, 126.143, -30.7865, 126.125, -150.607, 126.464, 89.4446, 0, 0, 2.47738, -53.861, 2.47776, -173.681, 2.47105, 66.3707, 0.0147309, 40.2961
1, 2580.00000, 126.143, -30.7865, 126.125, -150.607, 126.464, 89.4446, 0, 0, 2.47735, -53.8604, 2.4777, -173.681, 2.47105, 66.3707, 0.0146781, 40.4049
1, 2640.00000, 126.143, -30.7865, 126.125, -150.607, 126.464, 89.4446, 0, 0, 2.47735, -53.8604, 2.4777, -173.681, 2.47105, 66.3707, 0.0146778, 40.4053
1, 2700.00000, 126.143, -30.7865, 126.125, -150.607, 126.464, 89.4446, 0, 0, 2.47735, -53.8604, 2.4777, -173.681, 2.47105, 66.3707, 0.0146778, 40.4053
1, 2760.00000, 126.27, -30.6156, 126.526, -150.562, 126.463, 89.4449, 0, 0, 2.47487, -53.6898, 2.46989, -173.636, 2.47107, 66.371, 0.004357, 107.025
1, 2820.00000, 126.27, -30.6156, 126.526, -150.562, 126.463, 89.4449, 0, 0, 2.47485, -53.6895, 2.46985, -173.636, 2.47107, 66.371, 0.00436482, 107.513
1, 2880.00000, 126.27, -30.6156, 126.526, -150.562, 126.463, 89.4449, 0, 0, 2.47485, -53.6895, 2.46985, -173.636, 2.47107, 66.371, 0.00436484, 107.514
1, 2940.00000, 126.27, -30.6156, 126.526, -150.562, 126.463, 89.4449, 0, 0, 2.47485, -53.6895, 2.46985, -173.636, 2.47107, 66.371, 0.00436484, 107.515
1, 3000.00000, 126.27, -30.6156, 126.526, -150.562, 126.463, 89.4449, 0, 0, 2.47485, -53.6895, 2.46985, -173.636, 2.47107, 66.371, 0.00436484, 107.515
1, 3060.00000, 126.27, -30.6156, 126.526, -150.562, 126.463, 89.4449, 0, 0, 2.47485, -53.6895, 2.46985, -173.636, 2.47107, 66.371, 0.00436484, 107.515
1, 3120.00000, 126.27, -30.6156, 126.526, -150.562, 126.463, 89.4449, 0, 0, 2.47485, -53.6895, 2.46985, -173.636, 2.47107, 66.371, 0.00436484, 107.515
1, 3180.00000, 126.27, -30.6156, 126.526, -150.562, 126.463, 89.4449, 0, 0, 2.47485, -53.6895, 2.46985, -173.636, 2.47107, 66.371, 0.00436484, 107.515
1, 3240.00000, 126.27, -30.6156, 126.526, -150.562, 126.463, 89.4449, 0, 0, 2.47485, -53.6895, 2.46985, -173.636, 2.47107, 66.371, 0.00436484, 107.515
1, 3300.00000, 126.27, -30.6156, 126.526, -150.562, 126.463, 89.4449, 0, 0, 2.47485, -53.6895, 2.46985, -173.636, 2.47107, 66.371, 0.00436484, 107.515
1, 3360.00000, 126.27, -30.6156, 126.526, -150.562, 126.463, 89.4449, 0, 0, 2.47485, -53.6895, 2.46985, -173.636, 2.47107, 66.371, 0.00436484, 107.515
1, 3420.00000, 126.27, -30.6156, 126.526, -150.562, 126.463, 89.4449, 0, 0, 2.47485, -53.6895, 2.46985, -173.636, 2.47107, 66.371, 0.00436484, 107.515
1, 3480.00000, 126.27, -30.6156, 126.526, -150.562, 126.463, 89.4449, 0, 0, 2.47485, -53.6895, 2.46985, -173.636, 2.47107, 66.371, 0.00436484, 107.515
1, 3540.00000, 126.27, -30.6156, 126.526, -150.562, 126.463, 89.4449, 0, 0, 2.47485, -53.6895, 2.46985, -173.636, 2.47107, 66.371, 0.00436484, 107.515
2, 0.00000, 126.27, -30.6156, 126.526, -150.562, 126.463, 89.4449, 0, 0, 2.47485, -53.6895, 2.46985, -173.636, 2.47107, 66.371, 0.00436484, 107.515
2, 60.00000, 126.27, -30.6156, 126.526, -150.562, 126.463, 89.4449, 0, 0, 2.47485, -53.6895, 2.46985, -173.636, 2.47107, 66.371, 0.00436484, 107.515
2, 120.00000, 126.265, -30.6168, 126.521, -150.563, 126.459, 89.4438, 0, 0, 2.48179, -53.6907, 2.47677, -173.637, 2.478, 66.37, 0.00438528, 107.54
2, 180.00000, 126.26, -30.618, 126.517, -150.564, 126.454, 89.4427, 0, 0, 2.48882, -53.6919, 2.48378, -173.638, 2.48501, 66.3688, 0.00440591, 107.563
2, 240.00000, 126.255, -30.6192, 126.512, -150.565, 126.449, 89.4416, 0, 0, 2.49577, -53.6931, 2.4907, -173.639, 2.49194, 66.3677, 0.00442633, 107.586
2, 300.00000, 126.25, -30.6204, 126.507, -150.566, 126.444, 89.4405, 0, 0, 2.50272, -53.6943, 2.49763, -173.64, 2.49887, 66.3666, 0.0044468, 107.609
2, 360.00000, 126.245, -30.6216, 126.503, -150.567, 126.439, 89.4394, 0, 0, 2.50975, -53.6955, 2.50464, -173.641, 2.50589, 66.3655, 0.00446757, 107.632
2, 420.00000, 126.24, -30.6228, 126.498, -150.569, 126.435, 89.4382, 0, 0, 2.5167, -53.6967, 2.51156, -173.642, 2.51282, 66.3644, 0.00448813, 107.655
2, 480.00000, 126.235, -30.624, 126.494, -150.57, 126.43, 89.4371, 0, 0, 2.52365, -53.6979, 2.51849, -173.644, 2.51976, 66.3633, 0.00450875, 107.678
2, 540.00000, 126.229, -30.6252, 126.489, -150.571, 126.425, 89.436, 0, 0, 2.53069, -53.6991, 2.5255, -173.645, 2.52677, 66.3621, 0.00452967, 107.701
2, 600.00000, 126.224, -30.6264, 126.484, -150.572, 126.42, 89.4349, 0, 0, 2.53764, -53.7003, 2.53243, -173.646, 2.53371, 66.361, 0.00455039, 107.724
2, 660.00000, 126.219, -30.6276, 126.48, -150.573, 126.416, 89.4338, 0, 0, 2.54459, -53.7015, 2.53935, -173.647, 2.54064, 66.3599, 0.00457116, 107.746
2, 720.00000, 126.214, -30.6288, 126.475, -150.574, 126.411, 89.4327, 0, 0, 2.55163, -53.7027, 2.54636, -173.648, 2.54766, 66.3588, 0.00459223, 107.769
