hour,t(sec),V1,VAngle1,V2,VAngle2,V3,VAngle3,V4,VAngle4,I1,IAngle1,I2,IAngle2,I3,IAngle3,I4,IAngle4
0, 60.00000, 126.492, -30.6111, 126.665, -150.552, 126.665, 89.4502, 0, 0, 3.20173, -53.6845, 3.19738, -173.625, 3.19739, 66.3766, 0.00541993, 88.0483
0, 120.00000, 126.492, -30.6111, 126.665, -150.552, 126.664, 89.4502, 0, 0, 3.20178, -53.685, 3.19742, -173.626, 3.19742, 66.3763, 0.00543008, 88.0605
0, 180.00000, 126.492, -30.6111, 126.665, -150.552, 126.664, 89.4502, 0, 0, 3.20178, -53.685, 3.19742, -173.626, 3.19742, 66.3763, 0.00543012, 88.0606
0, 240.00000, 126.492, -30.6111, 126.665, -150.552, 126.664, 89.4502, 0, 0, 3.20178, -53.685, 3.19742, -173.626, 3.19742, 66.3763, 0.00543012, 88.0606
0, 300.00000, 126.492, -30.6111, 126.665, -150.552, 126.664, 89.4502, 0, 0, 3.20178, -53.685, 3.19742, -173.626, 3.19742, 66.3763, 0.00543012, 88.0606
0, 360.00000, 126.492, -30.6111, 126.665, -150.552, 126.664, 89.4502, 0, 0, 3.20178, -53.685, 3.19742, -173.626, 3.19742, 66.3763, 0.00543012, 88.0606
0, 420.00000, 126.492, -30.6111, 126.665, -150.552, 126.664, 89.4502, 0, 0, 3.20178, -53.685, 3.19742, -173.626, 3.19742, 66.3763, 0.00543012, 88.0606
0, 480.00000, 126.492, -30.6111, 126.665, -150.552, 126.664, 89.4502, 0, 0, 3.20178, -53.685, 3.19742, -173.626, 3.19742, 66.3763, 0.00543012, 88.0606
0, 540.00000, 126.492, -30.6111, 126.665, -150.552, 126.664, 89.4502, 0, 0, 3.20178, -53.685, 3.19742, -173.626, 3.19742, 66.3763, 0.00543012, 88.0606
0, 600.00000, 126.492, -30.6111, 126.665, -150.552, 126.664, 89.4502, 0, 0, 3.20178, -53.685, 3.19742, -173.626, 3.19742, 66.3763, 0.00543012, 88.0606
0, 660.00000, 126.492, -30.6111, 126.665, -150.552, 126.664, 89.4502, 0, 0, 3.20178, -53.685, 3.19742, -173.626, 3.19742, 66.3763, 0.00543012, 88.0606
0, 720.00000, 126.492, -30.6111, 126.665, -150.552, 126.664, 89.4502, 0, 0, 3.20178, -53.685, 3.19742, -173.626, 3.19742, 66.3763, 0.00543012, 88.0606
0, 780.00000, 126.492, -30.6111, 126.665, -150.552, 126.664, 89.4502, 0, 0, 3.20178, -53.685, 3.19742, -173.626, 3.19742, 66.3763, 0.00543012, 88.0606
0, 840.00000, 126.492, -30.6111, 126.665, -150.552, 126.664, 89.4502, 0, 0, 3.20178, -53.685, 3.19742, -173.626, 3.19742, 66.3763, 0.00543012, 88.0606
0, 900.00000, 126.492, -30.6111, 126.665, -150.552, 126.664, 89.4502, 0, 0, 3.20178, -53.685, 3.19742, -173.626, 3.19742, 66.3763, 0.00543012, 88.0606
0, 960.00000, 126.492, -30.6111, 126.665, -150.552, 126.664, 89.4502, 0, 0, 3.20178, -53.685, 3.19742, -173.626, 3.19742, 66.3763, 0.00543012, 88.0606
0, 1020.00000, 126.492, -30.6111, 126.665, -150.552, 126.664, 89.4502, 0, 0, 3.20178, -53.685, 3.19742, -173.626, 3.19742, 66.3763, 0.00543012, 88.0606
0, 1080.00000, 126.492, -30.6111, 126.665, -150.552, 126.664, 89.4502, 0, 0, 3.20178, -53.685, 3.19742, -173.626, 3.19742, 66.3763, 0.00543012, 88.0606
0, 1140.00000, 126.492, -30.6111, 126.665, -150.552, 126.664, 89.4502, 0, 0, 3.20178, -53.685, 3.19742, -173.626, 3.19742, 66.3763, 0.00543012, 88.0606
0, 1200.00000, 126.492, -30.6111, 126.665, -150.552, 126.664, 89.4502, 0, 0, 3.20178, -53.685, 3.19742, -173.626, 3.19742, 66.3763, 0.00543012, 88.0606
0, 1260.00000, 126.492, -30.6111, 126.665, -150.552, 126.664, 89.4502, 0, 0, 3.20178, -53.685, 3.19742, -173.626, 3.19742, 66.3763, 0.00543012, 88.0606
0, 1320.00000, 126.492, -30.6111, 126.665, -150.552, 126.664, 89.4502, 0, 0, 3.20178, -53.685, 3.19742, -173.626, 3.19742, 66.3763, 0.00543012, 88.0606
0, 1380.00000, 126.492, -30.6111, 126.665, -150.552, 126.664, 89.4502, 0, 0, 3.20178, -53.685, 3.19742, -173.626, 3.19742, 66.3763, 0.00543012, 88.0606
0, 1440.00000, 126.492, -30.6111, 126.665, -150.552, 126.664, 89.4502, 0, 0, 3.20178, -53.685, 3.19742, -173.626, 3.19742, 66.3763, 0.00543012, 88.0606
0, 1500.00000, 126.492, -30.6111, 126.665, -150.552, 126.664, 89.4502, 0, 0, 3.20178, -53.685, 3.19742, -173.626, 3.19742, 66.3763, 0.00543012, 88.0606
0, 1560.00000, 126.492, -30.6111, 126.665, -150.552, 126.664, 89.4502, 0, 0, 3.20178, -53.685, 3.19742, -173.626, 3.19742, 66.3763, 0.00543012, 88.0606
0, 1620.00000, 126.492, -30.6111, 126.665, -150.552, 126.664, 89.4502, 0, 0, 3.20178, -53.685, 3.19742, -173.626, 3.19742, 66.3763, 0.00543012, 88.0606
0, 1680.00000, 126.492, -30.6111, 126.665, -150.552, 126.664, 89.4502, 0, 0, 3.20178, -53.685, 3.19742, -173.626, 3.19742, 66.3763, 0.00543012, 88.0606
0, 1740.00000, 126.492, -30.6111, 126.665, -150.552, 126.664, 89.4502, 0, 0, 3.20178, -53.685, 3.19742, -173.626, 3.19742, 66.3763, 0.00543012, 88.0606
0, 1800.00000, 126.492, -30.6111, 126.665, -150.552, 126.664, 89.4502, 0, 0, 3.20178, -53.685, 3.19742, -173.626, 3.19742, 66.3763, 0.00543012, 88.0606
0, 1860.00000, 126.492, -30.6111, 126.665, -150.552, 126.664, 89.4502, 0, 0, 3.20178, -53.685, 3.19742, -173.626, 3.19742, 66.3763, 0.00543012, 88.0606
0, 1920.00000, 126.492, -30.6111, 126.665, -150.552, 126.664, 89.4502, 0, 0, 3.20178, -53.685, 3.19742, -173.626, 3.19742, 66.3763, 0.00543012, 88.0606
0, 1980.00000, 126.492, -30.6111, 126.665, -150.552, 126.664, 89.4502, 0, 0, 3.20178, -53.685, 3.19742, -173.626, 3.19742, 66.3763, 0.00543012, 88.0606
0, 2040.00000, 126.492, -30.6111, 126.665, -150.552, 126.664, 89.4502, 0, 0, 3.20178, -53.685, 3.19742, -173.626, 3.19742, 66.3763, 0.00543012, 88.0606
0, 2100.00000, 126.492, -30.6111, 126.665, -150.552, 126.664, 89.4502, 0, 0, 3.20178, -53.685, 3.19742, -173.626, 3.19742, 66.3763, 0.00543012, 88.0606
0, 2160.00000, 126.492, -30.6111, 126.665, -150.552, 126.664, 89.4502, 0, 0, 3.20178, -53.685, 3.19742, -173.626, 3.19742, 66.3763, 0.00543012, 88.0606
0, 2220.00000, 126.492, -30.6111, 126.665, -150.552, 126.664, 89.4502, 0, 0, 3.20178, -53.685, 3.19742, -173.626, 3.19742, 66.3763, 0.00543012, 88.0606
0, 2280.00000, 126.492, -30.6111, 126.665, -150.552, 126.664, 89.4502, 0, 0, 3.20178, -53.685, 3.19742, -173.626, 3.19742, 66.3763, 0.00543012, 88.0606
0, 2340.00000, 126.492, -30.6111, 126.665, -150.552, 126.664, 89.4502, 0, 0, 3.20178, -53.685, 3.19742, -173.626, 3.19742, 66.3763, 0.00543012, 88.0606
0, 2400.00000, 126.492, -30.6111, 126.665, -150.552, 126.664, 89.4502, 0, 0, 3.20178, -53.685, 3.19742, -173.626, 3.19742, 66.3763, 0.00543012, 88.0606
0, 2460.00000, 126.492, -30.6111, 126.665, -150.552, 126.664, 89.4502, 0, 0, 3.20178, -53.685, 3.19742, -173.626, 3.19742, 66.3763, 0.00543012, 88.0606
0, 2520.00000, 126.492, -30.6111, 126.665, -150.552, 126.664, 89.4502, 0, 0, 3.20178, -53.685, 3.19742, -173.626, 3.19742, 66.3763, 0.00543012, 88.0606
0, 2580.00000, 126.492, -30.6111, 126.665, -150.552, 126.664, 89.4502, 0, 0, 3.20178, -53.685, 3.19742, -173.626, 3.19742, 66.3763, 0.00543012, 88.0606
0, 2640.00000, 126.492, -30.6111, 126.665, -150.552, 126.664, 89.4502, 0, 0, 3.20178, -53.685, 3.19742, -173.626, 3.19742, 66.3763, 0.00543012, 88.0606
0, 2700.00000, 126.492, -30.6111, 126.665, -150.552, 126.664, 89.4502, 0, 0, 3.20178, -53.685, 3.19742, -173.626, 3.19742, 66.3763, 0.00543012, 88.0606
0, 2760.00000, 126.492, -30.6111, 126.665, -150.552, 126.664, 89.4502, 0, 0, 3.20178, -53.685, 3.19742, -173.626, 3.19742, 66.3763, 0.00543012, 88.0606
0, 2820.00000, 126.492, -30.6111, 126.665, -150.552, 126.664, 89.4502, 0, 0, 3.20178, -53.685, 3.19742, -173.626, 3.19742, 66.3763, 0.00543012, 88.0606
0, 2880.00000, 126.492, -30.6111, 126.665, -150.552, 126.664, 89.4502, 0, 0, 3.20178, -53.685, 3.19742, -173.626, 3.19742, 66.3763, 0.00543012, 88.0606
0, 2940.00000, 126.492, -30.6111, 126.665, -150.552, 126.664, 89.4502, 0, 0, 3.20178, -53.685, 3.19742, -173.626, 3.19742, 66.3763, 0.00543012, 88.0606
0, 3000.00000, 126.492, -30.6111, 126.665, -150.552, 126.664, 89.4502, 0, 0, 3.20178, -53.685, 3.19742, -173.626, 3.19742, 66.3763, 0.00543012, 88.0606
0, 3060.00000, 126.492, -30.6111, 126.665, -150.552, 126.664, 89.4502, 0, 0, 3.20178, -53.685, 3.19742, -173.626, 3.19742, 66.3763, 0.00543012, 88.0606
0, 3120.00000, 126.492, -30.6111, 126.665, -150.552, 126.664, 89.4502, 0, 0, 3.20178, -53.685, 3.19742, -173.626, 3.19742, 66.3763, 0.00543012, 88.0606
0, 3180.00000, 126.492, -30.6111, 126.665, -150.552, 126.664, 89.4502, 0, 0, 3.20178, -53.685, 3.19742, -173.626, 3.19742, 66.3763, 0.00543012, 88.0606
0, 3240.00000, 126.492, -30.6111, 126.665, -150.552, 126.664, 89.4502, 0, 0, 3.20178, -53.685, 3.19742, -173.626, 3.19742, 66.3763, 0.00543012, 88.0606
0, 3300.00000, 126.492, -30.6111, 126.665, -150.552, 126.664, 89.4502, 0, 0, 3.20178, -53.685, 3.19742, -173.626, 3.19742, 66.3763, 0.00543012, 88.0606
0, 3360.00000, 126.492, -30.6111, 126.665, -150.552, 126.664, 89.4502, 0, 0, 3.20178, -53.685, 3.19742, -173.626, 3.19742, 66.3763, 0.00543012, 88.0606
0, 3420.00000, 126.492, -30.6111, 126.665, -150.552, 126.664, 89.4502, 0, 0, 3.20178, -53.685, 3.19742, -173.626, 3.19742, 66.3763, 0.00543012, 88.0606
0, 3480.00000, 126.492, -30.6111, 126.665, -150.552, 126.664, 89.4502, 0, 0, 3.20178, -53.685, 3.19742, -173.626, 3.19742, 66.3763, 0.00543012, 88.0606
0, 3540.00000, 126.492, -30.6111, 126.665, -150.552, 126.664, 89.4502, 0, 0, 3.20178, -53.685, 3.19742, -173.626, 3.19742, 66.3763, 0.00543012, 88.0606
1, 0.00000, 126.492, -30.6111, 126.665, -150.552, 126.664, 89.4502, 0, 0, 3.20178, -53.685, 3.19742, -173.626, 3.19742, 66.3763, 0.00543012, 88.0606
1, 60.00000, 126.492, -30.6111, 126.665, -150.552, 126.664, 89.4502, 0, 0, 3.20178, -53.685, 3.19742, -173.626, 3.19742, 66.3763, 0.00543012, 88.0606
1, 120.00000, 126.492, -30.6111, 126.665, -150.552, 126.664, 89.4502, 0, 0, 3.20178, -53.685, 3.19742, -173.626, 3.19742, 66.3763, 0.00543012, 88.0606
1, 180.00000, 126.492, -30.6111, 126.665, -150.552, 126.664, 89.4502, 0, 0, 3.20178, -53.685, 3.19742, -173.626, 3.19742, 66.3763, 0.00543012, 88.0606
1, 240.00000, 126.492, -30.6111, 126.665, -150.552, 126.664, 89.4502, 0, 0, 3.20178, -53.685, 3.19742, -173.626, 3.19742, 66.3763, 0.00543012, 88.0606
1, 300.00000, 126.492, -30.6111, 126.665, -150.552, 126.664, 89.4502, 0, 0, 3.20178, -53.685, 3.19742, -173.626, 3.19742, 66.3763, 0.00543012, 88.0606
1, 360.00000, 126.492, -30.6111, 126.665, -150.552, 126.664, 89.4502, 0, 0, 3.20178, -53.685, 3.19742, -173.626, 3.19742, 66.3763, 0.00543012, 88.0606
1, 420.00000, 126.492, -30.6111, 126.665, -150.552, 126.664, 89.4502, 0, 0, 3.20178, -53.685, 3.19742, -173.626, 3.19742, 66.3763, 0.00543012, 88.0606
1, 480.00000, 126.492, -30.6111, 126.665, -150.552, 126.664, 89.4502, 0, 0, 3.20178, -53.685, 3.19742, -173.626, 3.19742, 66.3763, 0.00543012, 88.0606
1, 540.00000, 126.492, -30.6111, 126.665, -150.552, 126.664, 89.4502, 0, 0, 3.20178, -53.685, 3.19742, -173.626, 3.19742, 66.3763, 0.00543012, 88.0606
1, 600.00000, 126.492, -30.6111, 126.665, -150.552, 126.664, 89.4502, 0, 0, 3.20178, -53.685, 3.19742, -173.626, 3.19742, 66.3763, 0.00543012, 88.0606
1, 660.00000, 126.492, -30.6111, 126.665, -150.552, 126.664, 89.4502, 0, 0, 3.20178, -53.685, 3.19742, -173.626, 3.19742, 66.3763, 0.00543012, 88.0606
1, 720.00000, 126.492, -30.6111, 126.665, -150.552, 126.664, 89.4502, 0, 0, 3.20178, -53.685, 3.19742, -173.626, 3.19742, 66.3763, 0.00543012, 88.0606
1, 780.00000, 126.492, -30.6111, 126.665, -150.552, 126.664, 89.4502, 0, 0, 3.20178, -53.685, 3.19742, -173.626, 3.19742, 66.3763, 0.00543012, 88.0606
1, 840.00000, 126.492, -30.6111, 126.665, -150.552, 126.664, 89.4502, 0, 0, 3.20178, -53.685, 3.19742, -173.626, 3.19742, 66.3763, 0.00543012, 88.0606
1, 900.00000, 126.492, -30.6111, 126.665, -150.552, 126.664, 89.4502, 0, 0, 3.20178, -53.685, 3.19742, -173.626, 3.19742, 66.3763, 0.00543012, 88.0606
1, 960.00000, 126.492, -30.6111, 126.665, -150.552, 126.664, 89.4502, 0, 0, 3.20178, -53.685, 3.19742, -173.626, 3.19742, 66.3763, 0.00543012, 88.0606
1, 1020.00000, 126.492, -30.6111, 126.665, -150.552, 126.664, 89.4502, 0, 0, 3.20178, -53.685, 3.19742, -173.626, 3.19742, 66.3763, 0.00543012, 88.0606
1, 1080.00000, 126.492, -30.6111, 126.665, -150.552, 126.664, 89.4502, 0, 0, 3.20178, -53.685, 3.19742, -173.626, 3.19742, 66.3763, 0.00543012, 88.0606
1, 1140.00000, 126.492, -30.6111, 126.665, -150.552, 126.664, 89.4502, 0, 0, 3.20178, -53.685, 3.19742, -173.626, 3.19742, 66.3763, 0.00543012, 88.0606
1, 1200.00000, 126.492, -30.6111, 126.665, -150.552, 126.664, 89.4502, 0, 0, 3.20178, -53.685, 3.19742, -173.626, 3.19742, 66.3763, 0.00543012, 88.0606
1, 1260.00000, 126.492, -30.6111, 126.665, -150.552, 126.664, 89.4502, 0, 0, 3.20178, -53.685, 3.19742, -173.626, 3.19742, 66.3763, 0.00543012, 88.0606
1, 1320.00000, 126.492, -30.6111, 126.665, -150.552, 126.664, 89.4502, 0, 0, 3.20178, -53.685, 3.19742, -173.626, 3.19742, 66.3763, 0.00543012, 88.0606
1, 1380.00000, 126.492, -30.6111, 126.665, -150.552, 126.664, 89.4502, 0, 0, 3.20178, -53.685, 3.19742, -173.626, 3.19742, 66.3763, 0.00543012, 88.0606
1, 1440.00000, 126.492, -30.6111, 126.665, -150.552, 126.664, 89.4502, 0, 0, 3.20178, -53.685, 3.19742, -173.626, 3.19742, 66.3763, 0.00543012, 88.0606
1, 1500.00000, 126.492, -30.6111, 126.665, -150.552, 126.664, 89.4502, 0, 0, 3.20178, -53.685, 3.19742, -173.626, 3.19742, 66.3763, 0.00543012, 88.0606
1, 1560.00000, 126.492, -30.6111, 126.665, -150.552, 126.664, 89.4502, 0, 0, 3.20178, -53.685, 3.19742, -173.626, 3.19742, 66.3763, 0.00543012, 88.0606
1, 1620.00000, 126.492, -30.6111, 126.665, -150.552, 126.664, 89.4502, 0, 0, 3.20178, -53.685, 3.19742, -173.626, 3.19742, 66.3763, 0.00543012, 88.0606
1, 1680.00000, 126.492, -30.6111, 126.665, -150.552, 126.664, 89.4502, 0, 0, 3.20178, -53.685, 3.19742, -173.626, 3.19742, 66.3763, 0.00543012, 88.0606
1, 1740.00000, 126.492, -30.6111, 126.665, -150.552, 126.664, 89.4502, 0, 0, 3.20178, -53.685, 3.19742, -173.626, 3.19742, 66.3763, 0.00543012, 88.0606
1, 1800.00000, 126.492, -30.6111, 126.665, -150.552, 126.664, 89.4502, 0, 0, 3.20178, -53.685, 3.19742, -173.626, 3.19742, 66.3763, 0.00543012, 88.0606
1, 1860.00000, 126.492, -30.6111, 126.665, -150.552, 126.664, 89.4502, 0, 0, 3.20178, -53.685, 3.19742, -173.626, 3.19742, 66.3763, 0.00543012, 88.0606
1, 1920.00000, 126.492, -30.6111, 126.665, -150.552, 126.664, 89.4502, 0, 0, 3.20178, -53.685, 3.19742, -173.626, 3.19742, 66.3763, 0.00543012, 88.0606
1, 1980.00000, 126.492, -30.6111, 126.665, -150.552, 126.664, 89.4502, 0, 0, 3.20178, -53.685, 3.19742, -173.626, 3.19742, 66.3763, 0.00543012, 88.0606
1, 2040.00000, 126.492, -30.6111, 126.665, -150.552, 126.664, 89.4502, 0, 0, 3.20178, -53.685, 3.19742, -173.626, 3.19742, 66.3763, 0.00543012, 88.0606
1, 2100.00000, 126.492, -30.6111, 126.665, -150.552, 126.664, 89.4502, 0, 0, 3.20178, -53.685, 3.19742, -173.626, 3.19742, 66.3763, 0.00543012, 88.0606
1, 2160.00000, 126.492, -30.6111, 126.665, -150.552, 126.664, 89.4502, 0, 0, 3.20178, -53.685, 3.19742, -173.626, 3.19742, 66.3763, 0.00543012, 88.0606
1, 2220.00000, 126.492, -30.6111, 126.665, -150.552, 126.664, 89.4502, 0, 0, 3.20178, -53.685, 3.19742, -173.626, 3.19742, 66.3763, 0.00543012, 88.0606
1, 2280.00000, 126.492, -30.6111, 126.665, -150.552, 126.664, 89.4502, 0, 0, 3.20178, -53.685, 3.19742, -173.626, 3.19742, 66.3763, 0.00543012, 88.0606
1, 2340.00000, 126.492, -30.6111, 126.665, -150.552, 126.664, 89.4502, 0, 0, 3.20178, -53.685, 3.19742, -173.626, 3.19742, 66.3763, 0.00543012, 88.0606
1, 2400.00000, 126.492, -30.6111, 126.665, -150.552, 126.664, 89.4502, 0, 0, 3.20178, -53.685, 3.19742, -173.626, 3.19742, 66.3763, 0.00543012, 88.0606
1, 2460.00000, 126.492, -30.6111, 126.665, -150.552, 126.664, 89.4502, 0, 0, 3.20178, -53.685, 3.19742, -173.626, 3.19742, 66.3763, 0.00543012, 88.0606
1, 2520.00000, 126.492, -30.6111, 126.665, -150.552, 126.664, 89.4502, 0, 0, 3.20178, -53.685, 3.19742, -173.626, 3.19742, 66.3763, 0.00543012, 88.0606
1, 2580.00000, 126.492, -30.6111, 126.665, -150.552, 126.664, 89.4502, 0, 0, 3.20178, -53.685, 3.19742, -173.626, 3.19742, 66.3763, 0.00543012, 88.0606
1, 2640.00000, 126.492, -30.6111, 126.665, -150.552, 126.664, 89.4502, 0, 0, 3.20178, -53.685, 3.19742, -173.626, 3.19742, 66.3763, 0.00543012, 88.0606
1, 2700.00000, 126.492, -30.6111, 126.665, -150.552, 126.664, 89.4502, 0, 0, 3.20178, -53.685, 3.19742, -173.626, 3.19742, 66.3763, 0.00543012, 88.0606
1, 2760.00000, 126.492, -30.6111, 126.665, -150.552, 126.664, 89.4502, 0, 0, 3.20178, -53.685, 3.19742, -173.626, 3.19742, 66.3763, 0.00543012, 88.0606
1, 2820.00000, 126.492, -30.6111, 126.665, -150.552, 126.664, 89.4502, 0, 0, 3.20178, -53.685, 3.19742, -173.626, 3.19742, 66.3763, 0.00543012, 88.0606
1, 2880.00000, 126.492, -30.6111, 126.665, -150.552, 126.664, 89.4502, 0, 0, 3.20178, -53.685, 3.19742, -173.626, 3.19742, 66.3763, 0.00543012, 88.0606
1, 2940.00000, 126.492, -30.6111, 126.665, -150.552, 126.664, 89.4502, 0, 0, 3.20178, -53.685, 3.19742, -173.626, 3.19742, 66.3763, 0.00543012, 88.0606
1, 3000.00000, 126.492, -30.6111, 126.665, -150.552, 126.664, 89.4502, 0, 0, 3.20178, -53.685, 3.19742, -173.626, 3.19742, 66.3763, 0.00543012, 88.0606
1, 3060.00000, 126.492, -30.6111, 126.665, -150.552, 126.664, 89.4502, 0, 0, 3.20178, -53.685, 3.19742, -173.626, 3.19742, 66.3763, 0.00543012, 88.0606
1, 3120.00000, 126.492, -30.6111, 126.665, -150.552, 126.664, 89.4502, 0, 0, 3.20178, -53.685, 3.19742, -173.626, 3.19742, 66.3763, 0.00543012, 88.0606
1, 3180.00000, 126.492, -30.6111, 126.665, -150.552, 126.664, 89.4502, 0, 0, 3.20178, -53.685, 3.19742, -173.626, 3.19742, 66.3763, 0.00543012, 88.0606
1, 3240.00000, 126.492, -30.6111, 126.665, -150.552, 126.664, 89.4502, 0, 0, 3.20178, -53.685, 3.19742, -173.626, 3.19742, 66.3763, 0.00543012, 88.0606
1, 3300.00000, 126.492, -30.6111, 126.665, -150.552, 126.664, 89.4502, 0, 0, 3.20178, -53.685, 3.19742, -173.626, 3.19742, 66.3763, 0.00543012, 88.0606
1, 3360.00000, 126.492, -30.6111, 126.665, -150.552, 126.664, 89.4502, 0, 0, 3.20178, -53.685, 3.19742, -173.626, 3.19742, 66.3763, 0.00543012, 88.0606
1, 3420.00000, 126.492, -30.6111, 126.665, -150.552, 126.664, 89.4502, 0, 0, 3.20178, -53.685, 3.19742, -173.626, 3.19742, 66.3763, 0.00543012, 88.0606
1, 3480.00000, 126.492, -30.6111, 126.665, -150.552, 126.664, 89.4502, 0, 0, 3.20178, -53.685, 3.19742, -173.626, 3.19742, 66.3763, 0.00543012, 88.0606
1, 3540.00000, 126.492, -30.6111, 126.665, -150.552, 126.664, 89.4502, 0, 0, 3.20178, -53.685, 3.19742, -173.626, 3.19742, 66.3763, 0.00543012, 88.0606
2, 0.00000, 126.492, -30.6111, 126.665, -150.552, 126.664, 89.4502, 0, 0, 3.20178, -53.685, 3.19742, -173.626, 3.19742, 66.3763, 0.00543012, 88.0606
2, 60.00000, 126.492, -30.6111, 126.665, -150.552, 126.664, 89.4502, 0, 0, 3.20178, -53.685, 3.19742, -173.626, 3.19742, 66.3763, 0.00543012, 88.0606
2, 120.00000, 126.487, -30.6123, 126.66, -150.553, 126.66, 89.4491, 0, 0, 3.21075, -53.6861, 3.20637, -173.627, 3.20638, 66.3752, 0.00545209, 88.1055
2, 180.00000, 126.483, -30.6135, 126.656, -150.554, 126.655, 89.448, 0, 0, 3.21984, -53.6873, 3.21544, -173.628, 3.21545, 66.3741, 0.00547502, 88.1527
2, 240.00000, 126.478, -30.6146, 126.651, -150.555, 126.651, 89.4469, 0, 0, 3.22882, -53.6885, 3.2244, -173.629, 3.22441, 66.373, 0.00549774, 88.1992
2, 300.00000, 126.473, -30.6158, 126.647, -150.556, 126.646, 89.4458, 0, 0, 3.2378, -53.6897, 3.23335, -173.63, 3.23337, 66.3719, 0.0055205, 88.2457
2, 360.00000, 126.468, -30.617, 126.643, -150.557, 126.642, 89.4446, 0, 0, 3.2469, -53.6909, 3.24242, -173.631, 3.24244, 66.3708, 0.00554358, 88.2925
2, 420.00000, 126.463, -30.6182, 126.638, -150.558, 126.637, 89.4435, 0, 0, 3.25588, -53.692, 3.25138, -173.632, 3.25141, 66.3697, 0.00556645, 88.3387
2, 480.00000, 126.459, -30.6193, 126.634, -150.56, 126.633, 89.4424, 0, 0, 3.26486, -53.6932, 3.26034, -173.633, 3.26037, 66.3685, 0.00558936, 88.3848
2, 540.00000, 126.454, -30.6205, 126.629, -150.561, 126.628, 89.4413, 0, 0, 3.27395, -53.6944, 3.26941, -173.635, 3.26944, 66.3674, 0.00561259, 88.4313
2, 600.00000, 126.449, -30.6217, 126.625, -150.562, 126.624, 89.4402, 0, 0, 3.28294, -53.6956, 3.27837, -173.636, 3.27841, 66.3663, 0.0056356, 88.4771
2, 660.00000, 126.444, -30.6229, 126.621, -150.563, 126.619, 89.4391, 0, 0, 3.29193, -53.6968, 3.28734, -173.637, 3.28737, 66.3652, 0.00565866, 88.5229
