hour,t(sec),V1,VAngle1,V2,VAngle2,V3,VAngle3,V4,VAngle4,I1,IAngle1,I2,IAngle2,I3,IAngle3,I4,IAngle4
0, 60.00000, 126.123, -30.9702, 125.625, -150.543, 126.73, 89.4945, 0, 0, 2.47774, -54.044, 2.48754, -173.617, 2.46587, 66.4206, 0.0380434, 35.708
0, 120.00000, 126.123, -30.9702, 125.625, -150.543, 126.73, 89.4945, 0, 0, 2.47775, -54.0442, 2.48755, -173.617, 2.46587, 66.4206, 0.0380556, 35.7088
0, 180.00000, 126.123, -30.9702, 125.625, -150.543, 126.73, 89.4945, 0, 0, 2.47775, -54.0442, 2.48755, -173.617, 2.46587, 66.4206, 0.0380556, 35.7088
0, 240.00000, 126.123, -30.9702, 125.625, -150.543, 126.73, 89.4945, 0, 0, 2.47775, -54.0442, 2.48755, -173.617, 2.46587, 66.4206, 0.0380556, 35.7088
0, 300.00000, 126.491, -30.7378, 126.259, -150.566, 126.714, 89.4982, 0, 0, 2.47055, -53.8121, 2.47512, -173.641, 2.46618, 66.4244, 0.0167253, 27.6573
0, 360.00000, 126.492, -30.7378, 126.259, -150.566, 126.714, 89.4982, 0, 0, 2.47052, -53.8117, 2.47507, -173.64, 2.46618, 66.4243, 0.0166755, 27.6506
0, 420.00000, 126.492, -30.7378, 126.259, -150.566, 126.714, 89.4982, 0, 0, 2.47052, -53.8117, 2.47507, -173.64, 2.46618, 66.4243, 0.0166754, 27.6505
0, 480.00000, 126.492, -30.7378, 126.259, -150.566, 126.714, 89.4982, 0, 0, 2.47052, -53.8117, 2.47507, -173.64, 2.46618, 66.4243, 0.0166754, 27.6505
0, 540.00000, 126.492, -30.7378, 126.259, -150.566, 126.714, 89.4982, 0, 0, 2.47052, -53.8117, 2.47507, -173.64, 2.46618, 66.4243, 0.0166754, 27.6505
0, 600.00000, 126.492, -30.7378, 126.259, -150.566, 126.714, 89.4982, 0, 0, 2.47052, -53.8117, 2.47507, -173.64, 2.46618, 66.4243, 0.0166754, 27.6505
0, 660.00000, 126.492, -30.7378, 126.259, -150.566, 126.714, 89.4982, 0, 0, 2.47052, -53.8117, 2.47507, -173.64, 2.46618, 66.4243, 0.0166754, 27.6505
0, 720.00000, 126.492, -30.7378, 126.259, -150.566, 126.714, 89.4982, 0, 0, 2.47052, -53.8117, 2.47507, -173.64, 2.46618, 66.4243, 0.0166754, 27.6505
0, 780.00000, 126.492, -30.7378, 126.259, -150.566, 126.714, 89.4982, 0, 0, 2.47052, -53.8117, 2.47507, -173.64, 2.46618, 66.4243, 0.0166754, 27.6505
0, 840.00000, 126.492, -30.7378, 126.259, -150.566, 126.714, 89.4982, 0, 0, 2.47052, -53.8117, 2.47507, -173.64, 2.46618, 66.4243, 0.0166754, 27.6505
0, 900.00000, 126.492, -30.7378, 126.259, -150.566, 126.714, 89.4982, 0, 0, 2.47052, -53.8117, 2.47507, -173.64, 2.46618, 66.4243, 0.0166754, 27.6505
0, 960.00000, 126.492, -30.7378, 126.259, -150.566, 126.714, 89.4982, 0, 0, 2.47052, -53.8117, 2.47507, -173.64, 2.46618, 66.4243, 0.0166754, 27.6505
0, 1020.00000, 126.492, -30.7378, 126.259, -150.566, 126.714, 89.4982, 0, 0, 2.47052, -53.8117, 2.47507, -173.64, 2.46618, 66.4243, 0.0166754, 27.6505
0, 1080.00000, 126.492, -30.7378, 126.259, -150.566, 126.714, 89.4982, 0, 0, 2.47052, -53.8117, 2.47507, -173.64, 2.46618, 66.4243, 0.0166754, 27.6505
0, 1140.00000, 126.492, -30.7378, 126.259, -150.566, 126.714, 89.4982, 0, 0, 2.47052, -53.8117, 2.47507, -173.64, 2.46618, 66.4243, 0.0166754, 27.6505
0, 1200.00000, 126.492, -30.7378, 126.259, -150.566, 126.714, 89.4982, 0, 0, 2.47052, -53.8117, 2.47507, -173.64, 2.46618, 66.4243, 0.0166754, 27.6505
0, 1260.00000, 126.492, -30.7378, 126.259, -150.566, 126.714, 89.4982, 0, 0, 2.47052, -53.8117, 2.47507, -173.64, 2.46618, 66.4243, 0.0166754, 27.6505
0, 1320.00000, 126.492, -30.7378, 126.259, -150.566, 126.714, 89.4982, 0, 0, 2.47052, -53.8117, 2.47507, -173.64, 2.46618, 66.4243, 0.0166754, 27.6505
0, 1380.00000, 126.492, -30.7378, 126.259, -150.566, 126.714, 89.4982, 0, 0, 2.47052, -53.8117, 2.47507, -173.64, 2.46618, 66.4243, 0.0166754, 27.6505
0, 1440.00000, 126.492, -30.7378, 126.259, -150.566, 126.714, 89.4982, 0, 0, 2.47052, -53.8117, 2.47507, -173.64, 2.46618, 66.4243, 0.0166754, 27.6505
0, 1500.00000, 126.492, -30.7378, 126.259, -150.566, 126.714, 89.4982, 0, 0, 2.47052, -53.8117, 2.47507, -173.64, 2.46618, 66.4243, 0.0166754, 27.6505
0, 1560.00000, 126.492, -30.7378, 126.259, -150.566, 126.714, 89.4982, 0, 0, 2.47052, -53.8117, 2.47507, -173.64, 2.46618, 66.4243, 0.0166754, 27.6505
0, 1620.00000, 126.492, -30.7378, 126.259, -150.566, 126.714, 89.4982, 0, 0, 2.47052, -53.8117, 2.47507, -173.64, 2.46618, 66.4243, 0.0166754, 27.6505
0, 1680.00000, 126.492, -30.7378, 126.259, -150.566, 126.714, 89.4982, 0, 0, 2.47052, -53.8117, 2.47507, -173.64, 2.46618, 66.4243, 0.0166754, 27.6505
0, 1740.00000, 126.492, -30.7378, 126.259, -150.566, 126.714, 89.4982, 0, 0, 2.47052, -53.8117, 2.47507, -173.64, 2.46618, 66.4243, 0.0166754, 27.6505
0, 1800.00000, 126.492, -30.7378, 126.259, -150.566, 126.714, 89.4982, 0, 0, 2.47052, -53.8117, 2.47507, -173.64, 2.46618, 66.4243, 0.0166754, 27.6505
0, 1860.00000, 126.492, -30.7378, 126.259, -150.566, 126.714, 89.4982, 0, 0, 2.47052, -53.8117, 2.47507, -173.64, 2.46618, 66.4243, 0.0166754, 27.6505
0, 1920.00000, 126.492, -30.7378, 126.259, -150.566, 126.714, 89.4982, 0, 0, 2.47052, -53.8117, 2.47507, -173.64, 2.46618, 66.4243, 0.0166754, 27.6505
0, 1980.00000, 126.492, -30.7378, 126.259, -150.566, 126.714, 89.4982, 0, 0, 2.47052, -53.8117, 2.47507, -173.64, 2.46618, 66.4243, 0.0166754, 27.6505
0, 2040.00000, 126.492, -30.7378, 126.259, -150.566, 126.714, 89.4982, 0, 0, 2.47052, -53.8117, 2.47507, -173.64, 2.46618, 66.4243, 0.0166754, 27.6505
0, 2100.00000, 126.492, -30.7378, 126.259, -150.566, 126.714, 89.4982, 0, 0, 2.47052, -53.8117, 2.47507, -173.64, 2.46618, 66.4243, 0.0166754, 27.6505
0, 2160.00000, 126.492, -30.7378, 126.259, -150.566, 126.714, 89.4982, 0, 0, 2.47052, -53.8117, 2.47507, -173.64, 2.46618, 66.4243, 0.0166754, 27.6505
0, 2220.00000, 126.492, -30.7378, 126.259, -150.566, 126.714, 89.4982, 0, 0, 2.47052, -53.8117, 2.47507, -173.64, 2.46618, 66.4243, 0.0166754, 27.6505
0, 2280.00000, 126.492, -30.7378, 126.259, -150.566, 126.714, 89.4982, 0, 0, 2.47052, -53.8117, 2.47507, -173.64, 2.46618, 66.4243, 0.0166754, 27.6505
0, 2340.00000, 126.492, -30.7378, 126.259, -150.566, 126.714, 89.4982, 0, 0, 2.47052, -53.8117, 2.47507, -173.64, 2.46618, 66.4243, 0.0166754, 27.6505
0, 2400.00000, 126.492, -30.7378, 126.259, -150.566, 126.714, 89.4982, 0, 0, 2.47052, -53.8117, 2.47507, -173.64, 2.46618, 66.4243, 0.0166754, 27.6505
0, 2460.00000, 126.492, -30.7378, 126.259, -150.566, 126.714, 89.4982, 0, 0, 2.47052, -53.8117, 2.47507, -173.64, 2.46618, 66.4243, 0.0166754, 27.6505
0, 2520.00000, 126.492, -30.7378, 126.259, -150.566, 126.714, 89.4982, 0, 0, 2.47052, -53.8117, 2.47507, -173.64, 2.46618, 66.4243, 0.0166754, 27.6505
0, 2580.00000, 126.492, -30.7378, 126.259, -150.566, 126.714, 89.4982, 0, 0, 2.47052, -53.8117, 2.47507, -173.64, 2.46618, 66.4243, 0.0166754, 27.6505
0, 2640.00000, 126.492, -30.7378, 126.259, -150.566, 126.714, 89.4982, 0, 0, 2.47052, -53.8117, 2.47507, -173.64, 2.46618, 66.4243, 0.0166754, 27.6505
0, 2700.00000, 126.492, -30.7378, 126.259, -150.566, 126.714, 89.4982, 0, 0, 2.47052, -53.8117, 2.47507, -173.64, 2.46618, 66.4243, 0.0166754, 27.6505
0, 2760.00000, 126.492, -30.7378, 126.259, -150.566, 126.714, 89.4982, 0, 0, 2.47052, -53.8117, 2.47507, -173.64, 2.46618, 66.4243, 0.0166754, 27.6505
0, 2820.00000, 126.492, -30.7378, 126.259, -150.566, 126.714, 89.4982, 0, 0, 2.47052, -53.8117, 2.47507, -173.64, 2.46618, 66.4243, 0.0166754, 27.6505
0, 2880.00000, 126.492, -30.7378, 126.259, -150.566, 126.714, 89.4982, 0, 0, 2.47052, -53.8117, 2.47507, -173.64, 2.46618, 66.4243, 0.0166754, 27.6505
0, 2940.00000, 126.492, -30.7378, 126.259, -150.566, 126.714, 89.4982, 0, 0, 2.47052, -53.8117, 2.47507, -173.64, 2.46618, 66.4243, 0.0166754, 27.6505
0, 3000.00000, 126.492, -30.7378, 126.259, -150.566, 126.714, 89.4982, 0, 0, 2.47052, -53.8117, 2.47507, -173.64, 2.46618, 66.4243, 0.0166754, 27.6505
0, 3060.00000, 126.492, -30.7378, 126.259, -150.566, 126.714, 89.4982, 0, 0, 2.47052, -53.8117, 2.47507, -173.64, 2.46618, 66.4243, 0.0166754, 27.6505
0, 3120.00000, 126.492, -30.7378, 126.259, -150.566, 126.714, 89.4982, 0, 0, 2.47052, -53.8117, 2.47507, -173.64, 2.46618, 66.4243, 0.0166754, 27.6505
0, 3180.00000, 126.492, -30.7378, 126.259, -150.566, 126.714, 89.4982, 0, 0, 2.47052, -53.8117, 2.47507, -173.64, 2.46618, 66.4243, 0.0166754, 27.6505
0, 3240.00000, 126.492, -30.7378, 126.259, -150.566, 126.714, 89.4982, 0, 0, 2.47052, -53.8117, 2.47507, -173.64, 2.46618, 66.4243, 0.0166754, 27.6505
0, 3300.00000, 126.492, -30.7378, 126.259, -150.566, 126.714, 89.4982, 0, 0, 2.47052, -53.8117, 2.47507, -173.64, 2.46618, 66.4243, 0.0166754, 27.6505
0, 3360.00000, 126.492, -30.7378, 126.259, -150.566, 126.714, 89.4982, 0, 0, 2.47052, -53.8117, 2.47507, -173.64, 2.46618, 66.4243, 0.0166754, 27.6505
0, 3420.00000, 126.492, -30.7378, 126.259, -150.566, 126.714, 89.4982, 0, 0, 2.47052, -53.8117, 2.47507, -173.64, 2.46618, 66.4243, 0.0166754, 27.6505
0, 3480.00000, 126.492, -30.7378, 126.259, -150.566, 126.714, 89.4982, 0, 0, 2.47052, -53.8117, 2.47507, -173.64, 2.46618, 66.4243, 0.0166754, 27.6505
0, 3540.00000, 126.492, -30.7378, 126.259, -150.566, 126.714, 89.4982, 0, 0, 2.47052, -53.8117, 2.47507, -173.64, 2.46618, 66.4243, 0.0166754, 27.6505
1, 0.00000, 126.492, -30.7378, 126.259, -150.566, 126.714, 89.4982, 0, 0, 2.47052, -53.8117, 2.47507, -173.64, 2.46618, 66.4243, 0.0166754, 27.6505
1, 60.00000, 126.492, -30.7378, 126.259, -150.566, 126.714, 89.4982, 0, 0, 2.47052, -53.8117, 2.47507, -173.64, 2.46618, 66.4243, 0.0166754, 27.6505
1, 120.00000, 126.492, -30.7378, 126.259, -150.566, 126.714, 89.4982, 0, 0, 2.47052, -53.8117, 2.47507, -173.64, 2.46618, 66.4243, 0.0166754, 27.6505
1, 180.00000, 126.492, -30.7378, 126.259, -150.566, 126.714, 89.4982, 0, 0, 2.47052, -53.8117, 2.47507, -173.64, 2.46618, 66.4243, 0.0166754, 27.6505
1, 240.00000, 126.492, -30.7378, 126.259, -150.566, 126.714, 89.4982, 0, 0, 2.47052, -53.8117, 2.47507, -173.64, 2.46618, 66.4243, 0.0166754, 27.6505
1, 300.00000, 126.492, -30.7378, 126.259, -150.566, 126.714, 89.4982, 0, 0, 2.47052, -53.8117, 2.47507, -173.64, 2.46618, 66.4243, 0.0166754, 27.6505
1, 360.00000, 126.492, -30.7378, 126.259, -150.566, 126.714, 89.4982, 0, 0, 2.47052, -53.8117, 2.47507, -173.64, 2.46618, 66.4243, 0.0166754, 27.6505
1, 420.00000, 126.492, -30.7378, 126.259, -150.566, 126.714, 89.4982, 0, 0, 2.47052, -53.8117, 2.47507, -173.64, 2.46618, 66.4243, 0.0166754, 27.6505
1, 480.00000, 126.492, -30.7378, 126.259, -150.566, 126.714, 89.4982, 0, 0, 2.47052, -53.8117, 2.47507, -173.64, 2.46618, 66.4243, 0.0166754, 27.6505
1, 540.00000, 126.492, -30.7378, 126.259, -150.566, 126.714, 89.4982, 0, 0, 2.47052, -53.8117, 2.47507, -173.64, 2.46618, 66.4243, 0.0166754, 27.6505
1, 600.00000, 126.492, -30.7378, 126.259, -150.566, 126.714, 89.4982, 0, 0, 2.47052, -53.8117, 2.47507, -173.64, 2.46618, 66.4243, 0.0166754, 27.6505
1, 660.00000, 126.611, -30.5712, 126.647, -150.525, 126.714, 89.4983, 0, 0, 2.46819, -53.6452, 2.4675, -173.6, 2.46619, 66.4244, 0.00364359, 43.46
1, 720.00000, 126.611, -30.5712, 126.647, -150.525, 126.714, 89.4983, 0, 0, 2.46818, -53.6452, 2.46748, -173.599, 2.46619, 66.4244, 0.00363026, 43.67
1, 780.00000, 126.611, -30.5712, 126.647, -150.525, 126.714, 89.4983, 0, 0, 2.46818, -53.6452, 2.46748, -173.599, 2.46619, 66.4244, 0.00363021, 43.6705
1, 840.00000, 126.611, -30.5712, 126.647, -150.525, 126.714, 89.4983, 0, 0, 2.46818, -53.6452, 2.46748, -173.599, 2.46619, 66.4244, 0.00363021, 43.6705
1, 900.00000, 126.611, -30.5712, 126.647, -150.525, 126.714, 89.4983, 0, 0, 2.46818, -53.6452, 2.46748, -173.599, 2.46619, 66.4244, 0.00363021, 43.6705
1, 960.00000, 126.611, -30.5712, 126.647, -150.525, 126.714, 89.4983, 0, 0, 2.46818, -53.6452, 2.46748, -173.599, 2.46619, 66.4244, 0.00363021, 43.6705
1, 1020.00000, 126.611, -30.5712, 126.647, -150.525, 126.714, 89.4983, 0, 0, 2.46818, -53.6452, 2.46748, -173.599, 2.46619, 66.4244, 0.00363021, 43.6705
1, 1080.00000, 126.611, -30.5712, 126.647, -150.525, 126.714, 89.4983, 0, 0, 2.46818, -53.6452, 2.46748, -173.599, 2.46619, 66.4244, 0.00363021, 43.6705
1, 1140.00000, 126.611, -30.5712, 126.647, -150.525, 126.714, 89.4983, 0, 0, 2.46818, -53.6452, 2.46748, -173.599, 2.46619, 66.4244, 0.00363021, 43.6705
1, 1200.00000, 126.611, -30.5712, 126.647, -150.525, 126.714, 89.4983, 0, 0, 2.46818, -53.6452, 2.46748, -173.599, 2.46619, 66.4244, 0.00363021, 43.6705
1, 1260.00000, 126.611, -30.5712, 126.647, -150.525, 126.714, 89.4983, 0, 0, 2.46818, -53.6452, 2.46748, -173.599, 2.46619, 66.4244, 0.00363021, 43.6705
1, 1320.00000, 126.611, -30.5712, 126.647, -150.525, 126.714, 89.4983, 0, 0, 2.46818, -53.6452, 2.46748, -173.599, 2.46619, 66.4244, 0.00363021, 43.6705
1, 1380.00000, 126.611, -30.5712, 126.647, -150.525, 126.714, 89.4983, 0, 0, 2.46818, -53.6452, 2.46748, -173.599, 2.46619, 66.4244, 0.00363021, 43.6705
1, 1440.00000, 126.611, -30.5712, 126.647, -150.525, 126.714, 89.4983, 0, 0, 2.46818, -53.6452, 2.46748, -173.599, 2.46619, 66.4244, 0.00363021, 43.6705
1, 1500.00000, 126.611, -30.5712, 126.647, -150.525, 126.714, 89.4983, 0, 0, 2.46818, -53.6452, 2.46748, -173.599, 2.46619, 66.4244, 0.00363021, 43.6705
1, 1560.00000, 126.611, -30.5712, 126.647, -150.525, 126.714, 89.4983, 0, 0, 2.46818, -53.6452, 2.46748, -173.599, 2.46619, 66.4244, 0.00363021, 43.6705
1, 1620.00000, 126.611, -30.5712, 126.647, -150.525, 126.714, 89.4983, 0, 0, 2.46818, -53.6452, 2.46748, -173.599, 2.46619, 66.4244, 0.00363021, 43.6705
1, 1680.00000, 126.611, -30.5712, 126.647, -150.525, 126.714, 89.4983, 0, 0, 2.46818, -53.6452, 2.46748, -173.599, 2.46619, 66.4244, 0.00363021, 43.6705
1, 1740.00000, 126.611, -30.5712, 126.647, -150.525, 126.714, 89.4983, 0, 0, 2.46818, -53.6452, 2.46748, -173.599, 2.46619, 66.4244, 0.00363021, 43.6705
1, 1800.00000, 126.611, -30.5712, 126.647, -150.525, 126.714, 89.4983, 0, 0, 2.46818, -53.6452, 2.46748, -173.599, 2.46619, 66.4244, 0.00363021, 43.6705
1, 1860.00000, 126.611, -30.5712, 126.647, -150.525, 126.714, 89.4983, 0, 0, 2.46818, -53.6452, 2.46748, -173.599, 2.46619, 66.4244, 0.00363021, 43.6705
1, 1920.00000, 126.611, -30.5712, 126.647, -150.525, 126.714, 89.4983, 0, 0, 2.46818, -53.6452, 2.46748, -173.599, 2.46619, 66.4244, 0.00363021, 43.6705
1, 1980.00000, 126.611, -30.5712, 126.647, -150.525, 126.714, 89.4983, 0, 0, 2.46818, -53.6452, 2.46748, -173.599, 2.46619, 66.4244, 0.00363021, 43.6705
1, 2040.00000, 126.611, -30.5712, 126.647, -150.525, 126.714, 89.4983, 0, 0, 2.46818, -53.6452, 2.46748, -173.599, 2.46619, 66.4244, 0.00363021, 43.6705
1, 2100.00000, 126.611, -30.5712, 126.647, -150.525, 126.714, 89.4983, 0, 0, 2.46818, -53.6452, 2.46748, -173.599, 2.46619, 66.4244, 0.00363021, 43.6705
1, 2160.00000, 126.611, -30.5712, 126.647, -150.525, 126.714, 89.4983, 0, 0, 2.46818, -53.6452, 2.46748, -173.599, 2.46619, 66.4244, 0.00363021, 43.6705
1, 2220.00000, 126.611, -30.5712, 126.647, -150.525, 126.714, 89.4983, 0, 0, 2.46818, -53.6452, 2.46748, -173.599, 2.46619, 66.4244, 0.00363021, 43.6705
1, 2280.00000, 126.611, -30.5712, 126.647, -150.525, 126.714, 89.4983, 0, 0, 2.46818, -53.6452, 2.46748, -173.599, 2.46619, 66.4244, 0.00363021, 43.6705
1, 2340.00000, 126.611, -30.5712, 126.647, -150.525, 126.714, 89.4983, 0, 0, 2.46818, -53.6452, 2.46748, -173.599, 2.46619, 66.4244, 0.00363021, 43.6705
1, 2400.00000, 126.611, -30.5712, 126.647, -150.525, 126.714, 89.4983, 0, 0, 2.46818, -53.6452, 2.46748, -173.599, 2.46619, 66.4244, 0.00363021, 43.6705
1, 2460.00000, 126.611, -30.5712, 126.647, -150.525, 126.714, 89.4983, 0, 0, 2.46818, -53.6452, 2.46748, -173.599, 2.46619, 66.4244, 0.00363021, 43.6705
1, 2520.00000, 126.611, -30.5712, 126.647, -150.525, 126.714, 89.4983, 0, 0, 2.46818, -53.6452, 2.46748, -173.599, 2.46619, 66.4244, 0.00363021, 43.6705
1, 2580.00000, 126.611, -30.5712, 126.647, -150.525, 126.714, 89.4983, 0, 0, 2.46818, -53.6452, 2.46748, -173.599, 2.46619, 66.4244, 0.00363021, 43.6705
1, 2640.00000, 126.611, -30.5712, 126.647, -150.525, 126.714, 89.4983, 0, 0, 2.46818, -53.6452, 2.46748, -173.599, 2.46619, 66.4244, 0.00363021, 43.6705
1, 2700.00000, 126.611, -30.5712, 126.647, -150.525, 126.714, 89.4983, 0, 0, 2.46818, -53.6452, 2.46748, -173.599, 2.46619, 66.4244, 0.00363021, 43.6705
1, 2760.00000, 126.611, -30.5712, 126.647, -150.525, 126.714, 89.4983, 0, 0, 2.46818, -53.6452, 2.46748, -173.599, 2.46619, 66.4244, 0.00363021, 43.6705
1, 2820.00000, 126.611, -30.5712, 126.647, -150.525, 126.714, 89.4983, 0, 0, 2.46818, -53.6452, 2.46748, -173.599, 2.46619, 66.4244, 0.00363021, 43.6705
1, 2880.00000, 126.611, -30.5712, 126.647, -150.525, 126.714, 89.4983, 0, 0, 2.46818, -53.6452, 2.46748, -173.599, 2.46619, 66.4244, 0.00363021, 43.6705
1, 2940.00000, 126.611, -30.5712, 126.647, -150.525, 126.714, 89.4983, 0, 0, 2.46818, -53.6452, 2.46748, -173.599, 2.46619, 66.4244, 0.00363021, 43.6705
1, 3000.00000, 126.611, -30.5712, 126.647, -150.525, 126.714, 89.4983, 0, 0, 2.46818, -53.6452, 2.46748, -173.599, 2.46619, 66.4244, 0.00363021, 43.6705
1, 3060.00000, 126.611, -30.5712, 126.647, -150.525, 126.714, 89.4983, 0, 0, 2.46818, -53.6452, 2.46748, -173.599, 2.46619, 66.4244, 0.00363021, 43.6705
1, 3120.00000, 126.611, -30.5712, 126.647, -150.525, 126.714, 89.4983, 0, 0, 2.46818, -53.6452, 2.46748, -173.599, 2.46619, 66.4244, 0.00363021, 43.6705
1, 3180.00000, 126.611, -30.5712, 126.647, -150.525, 126.714, 89.4983, 0, 0, 2.46818, -53.6452, 2.46748, -173.599, 2.46619, 66.4244, 0.00363021, 43.6705
1, 3240.00000, 126.611, -30.5712, 126.647, -150.525, 126.714, 89.4983, 0, 0, 2.46818, -53.6452, 2.46748, -173.599, 2.46619, 66.4244, 0.00363021, 43.6705
1, 3300.00000, 126.611, -30.5712, 126.647, -150.525, 126.714, 89.4983, 0, 0, 2.46818, -53.6452, 2.46748, -173.599, 2.46619, 66.4244, 0.00363021, 43.6705
1, 3360.00000, 126.611, -30.5712, 126.647, -150.525, 126.714, 89.4983, 0, 0, 2.46818, -53.6452, 2.46748, -173.599, 2.46619, 66.4244, 0.00363021, 43.6705
1, 3420.00000, 126.611, -30.5712, 126.647, -150.525, 126.714, 89.4983, 0, 0, 2.46818, -53.6452, 2.46748, -173.599, 2.46619, 66.4244, 0.00363021, 43.6705
1, 3480.00000, 126.611, -30.5712, 126.647, -150.525, 126.714, 89.4983, 0, 0, 2.46818, -53.6452, 2.46748, -173.599, 2.46619, 66.4244, 0.00363021, 43.6705
1, 3540.00000, 126.611, -30.5712, 126.647, -150.525, 126.714, 89.4983, 0, 0, 2.46818, -53.6452, 2.46748, -173.599, 2.46619, 66.4244, 0.00363021, 43.6705
2, 0.00000, 126.611, -30.5712, 126.647, -150.525, 126.714, 89.4983, 0, 0, 2.46818, -53.6452, 2.46748, -173.599, 2.46619, 66.4244, 0.00363021, 43.6705
2, 60.00000, 126.611, -30.5712, 126.647, -150.525, 126.714, 89.4983, 0, 0, 2.46818, -53.6452, 2.46748, -173.599, 2.46619, 66.4244, 0.00363021, 43.6705
2, 120.00000, 126.607, -30.5723, 126.643, -150.526, 126.709, 89.4973, 0, 0, 2.4751, -53.6462, 2.47439, -173.6, 2.4731, 66.4234, 0.00363996, 43.7458
2, 180.00000, 126.602, -30.5734, 126.638, -150.528, 126.704, 89.4962, 0, 0, 2.4821, -53.6473, 2.48139, -173.601, 2.4801, 66.4224, 0.0036515, 43.8166
2, 240.00000, 126.597, -30.5745, 126.634, -150.529, 126.7, 89.4952, 0, 0, 2.48903, -53.6484, 2.4883, -173.602, 2.48701, 66.4213, 0.00366297, 43.8864
2, 300.00000, 126.592, -30.5756, 126.63, -150.53, 126.695, 89.4942, 0, 0, 2.49595, -53.6495, 2.49522, -173.603, 2.49392, 66.4203, 0.00367443, 43.9562
2, 360.00000, 126.588, -30.5767, 126.625, -150.531, 126.691, 89.4931, 0, 0, 2.50296, -53.6506, 2.50222, -173.605, 2.50092, 66.4192, 0.00368603, 44.0269
2, 420.00000, 126.583, -30.5778, 126.621, -150.532, 126.686, 89.4921, 0, 0, 2.50988, -53.6517, 2.50913, -173.606, 2.50783, 66.4182, 0.00369754, 44.0966
2, 480.00000, 126.578, -30.5789, 126.616, -150.533, 126.682, 89.491, 0, 0, 2.5168, -53.6527, 2.51605, -173.607, 2.51475, 66.4171, 0.00370904, 44.1664
2, 540.00000, 126.573, -30.58, 126.612, -150.534, 126.677, 89.49, 0, 0, 2.52381, -53.6539, 2.52305, -173.608, 2.52175, 66.4161, 0.00372068, 44.237
2, 600.00000, 126.569, -30.5811, 126.607, -150.535, 126.673, 89.4889, 0, 0, 2.53074, -53.6549, 2.52997, -173.609, 2.52866, 66.415, 0.00373223, 44.3067
2, 660.00000, 126.564, -30.5822, 126.603, -150.536, 126.668, 89.4879, 0, 0, 2.53766, -53.656, 2.53689, -173.61, 2.53558, 66.414, 0.00374378, 44.3764
