hour,t(sec),V1,VAngle1,V2,VAngle2,V3,VAngle3,V4,VAngle4,I1,IAngle1,I2,IAngle2,I3,IAngle3,I4,IAngle4
0, 60.00000, 122.629, -30.5909, 129.338, -152.088, 121.515, 86.6346, 0, 0, 2.48187, -53.6644, 2.35318, -175.161, 2.50454, 63.5612, 0.245002, -169.47
0, 120.00000, 122.63, -30.5941, 129.396, -152.104, 121.506, 86.6047, 0, 0, 2.48185, -53.6676, 2.35213, -175.176, 2.50472, 63.5313, 0.24713, -169.503
0, 180.00000, 122.631, -30.5969, 129.447, -152.117, 121.498, 86.5779, 0, 0, 2.48182, -53.6705, 2.35119, -175.19, 2.50489, 63.5044, 0.249046, -169.532
0, 240.00000, 122.632, -30.5995, 129.494, -152.13, 121.491, 86.5537, 0, 0, 2.4818, -53.6731, 2.35034, -175.203, 2.50505, 63.4802, 0.250771, -169.557
0, 300.00000, 122.633, -30.6018, 129.536, -152.141, 121.484, 86.5319, 0, 0, 2.48178, -53.6754, 2.34957, -175.214, 2.50519, 63.4584, 0.252324, -169.58
0, 360.00000, 122.634, -30.6039, 129.573, -152.152, 121.478, 86.5123, 0, 0, 2.48176, -53.6775, 2.34888, -175.225, 2.50531, 63.4387, 0.253721, -169.599
0, 420.00000, 122.635, -30.6058, 129.607, -152.161, 121.473, 86.4946, 0, 0, 2.48175, -53.6794, 2.34827, -175.234, 2.50543, 63.421, 0.254979, -169.617
0, 480.00000, 122.635, -30.6074, 129.638, -152.169, 121.468, 86.4788, 0, 0, 2.48173, -53.6811, 2.34771, -175.242, 2.50553, 63.4051, 0.256111, -169.633
0, 540.00000, 122.636, -30.609, 129.665, -152.176, 121.464, 86.4644, 0, 0, 2.48172, -53.6827, 2.34721, -175.25, 2.50562, 63.3908, 0.25713, -169.647
0, 600.00000, 122.636, -30.6103, 129.69, -152.183, 121.46, 86.4516, 0, 0, 2.48171, -53.684, 2.34676, -175.257, 2.50571, 63.3779, 0.258047, -169.659
0, 660.00000, 122.637, -30.6116, 129.712, -152.189, 121.457, 86.44, 0, 0, 2.4817, -53.6853, 2.34635, -175.263, 2.50578, 63.3663, 0.258873, -169.671
0, 720.00000, 122.637, -30.6127, 129.732, -152.195, 121.454, 86.4295, 0, 0, 2.48169, -53.6864, 2.34599, -175.268, 2.50585, 63.3558, 0.259616, -169.681
0, 780.00000, 122.638, -30.6137, 129.75, -152.2, 121.451, 86.4201, 0, 0, 2.48168, -53.6874, 2.34566, -175.273, 2.50591, 63.3464, 0.260285, -169.689
0, 840.00000, 122.638, -30.6145, 129.766, -152.204, 121.448, 86.4117, 0, 0, 2.48167, -53.6883, 2.34537, -175.278, 2.50597, 63.3379, 0.260887, -169.697
0, 900.00000, 122.639, -30.6154, 129.781, -152.208, 121.446, 86.4041, 0, 0, 2.48167, -53.6892, 2.3451, -175.282, 2.50602, 63.3303, 0.261428, -169.704
0, 960.00000, 121.074, -30.4266, 129.879, -152.209, 120.162, 85.9475, 0, 0, 2.51373, -53.5005, 2.34333, -175.283, 2.51058, 62.8736, 0.305245, -176.049
0, 1020.00000, 121.075, -30.4272, 129.891, -152.213, 120.161, 85.9413, 0, 0, 2.51372, -53.5011, 2.34312, -175.286, 2.51053, 62.8675, 0.305638, -176.058
0, 1080.00000, 121.075, -30.4278, 129.901, -152.216, 120.159, 85.9358, 0, 0, 2.51372, -53.5017, 2.34293, -175.289, 2.5105, 62.8619, 0.305992, -176.066
0, 1140.00000, 121.075, -30.4283, 129.911, -152.218, 120.158, 85.9308, 0, 0, 2.51371, -53.5022, 2.34276, -175.292, 2.51046, 62.8569, 0.30631, -176.074
0, 1200.00000, 121.075, -30.4288, 129.919, -152.221, 120.156, 85.9263, 0, 0, 2.51371, -53.5026, 2.3426, -175.294, 2.51043, 62.8524, 0.306597, -176.08
0, 1260.00000, 121.076, -30.4292, 129.927, -152.223, 120.155, 85.9222, 0, 0, 2.5137, -53.503, 2.34246, -175.297, 2.5104, 62.8484, 0.306854, -176.086
0, 1320.00000, 121.076, -30.4295, 129.934, -152.225, 120.154, 85.9186, 0, 0, 2.5137, -53.5034, 2.34234, -175.298, 2.51037, 62.8447, 0.307086, -176.092
0, 1380.00000, 121.076, -30.4299, 129.94, -152.226, 120.153, 85.9153, 0, 0, 2.51369, -53.5038, 2.34222, -175.3, 2.51035, 62.8414, 0.307295, -176.097
0, 1440.00000, 121.076, -30.4302, 129.946, -152.228, 120.152, 85.9124, 0, 0, 2.51369, -53.5041, 2.34212, -175.302, 2.51033, 62.8385, 0.307483, -176.101
0, 1500.00000, 121.076, -30.4304, 129.951, -152.229, 120.151, 85.9097, 0, 0, 2.51369, -53.5043, 2.34203, -175.303, 2.51031, 62.8358, 0.307652, -176.105
0, 1560.00000, 121.076, -30.4307, 129.955, -152.231, 120.151, 85.9073, 0, 0, 2.51369, -53.5046, 2.34195, -175.305, 2.51029, 62.8334, 0.307804, -176.108
0, 1620.00000, 121.077, -30.4309, 129.959, -152.232, 120.15, 85.9052, 0, 0, 2.51368, -53.5048, 2.34187, -175.306, 2.51028, 62.8313, 0.307941, -176.112
0, 1680.00000, 121.077, -30.4311, 129.963, -152.233, 120.149, 85.9033, 0, 0, 2.51368, -53.505, 2.34181, -175.307, 2.51026, 62.8294, 0.308065, -176.114
0, 1740.00000, 121.077, -30.4313, 129.966, -152.234, 120.149, 85.9015, 0, 0, 2.51368, -53.5052, 2.34175, -175.308, 2.51025, 62.8276, 0.308175, -176.117
0, 1800.00000, 121.077, -30.4314, 129.969, -152.235, 120.149, 85.8999, 0, 0, 2.51368, -53.5053, 2.34169, -175.308, 2.51024, 62.826, 0.308275, -176.119
0, 1860.00000, 121.077, -30.4316, 129.972, -152.235, 120.148, 85.8985, 0, 0, 2.51368, -53.5055, 2.34164, -175.309, 2.51023, 62.8246, 0.308365, -176.121
0, 1920.00000, 121.077, -30.4317, 129.974, -152.236, 120.148, 85.8973, 0, 0, 2.51367, -53.5056, 2.3416, -175.31, 2.51022, 62.8234, 0.308446, -176.123
0, 1980.00000, 121.077, -30.4318, 129.977, -152.237, 120.147, 85.8961, 0, 0, 2.51367, -53.5057, 2.34156, -175.31, 2.51021, 62.8222, 0.308519, -176.125
0, 2040.00000, 121.077, -30.4319, 129.979, -152.237, 120.147, 85.8951, 0, 0, 2.51367, -53.5058, 2.34153, -175.311, 2.51021, 62.8212, 0.308584, -176.126
0, 2100.00000, 121.077, -30.432, 129.98, -152.238, 120.147, 85.8942, 0, 0, 2.51367, -53.5059, 2.34149, -175.312, 2.5102, 62.8203, 0.308643, -176.128
0, 2160.00000, 121.077, -30.4321, 129.982, -152.238, 120.147, 85.8933, 0, 0, 2.51367, -53.506, 2.34146, -175.312, 2.51019, 62.8194, 0.308696, -176.129
0, 2220.00000, 121.077, -30.4322, 129.983, -152.238, 120.146, 85.8926, 0, 0, 2.51367, -53.5061, 2.34144, -175.312, 2.51019, 62.8187, 0.308744, -176.13
0, 2280.00000, 121.077, -30.4323, 129.985, -152.239, 120.146, 85.8919, 0, 0, 2.51367, -53.5062, 2.34142, -175.313, 2.51018, 62.818, 0.308787, -176.131
0, 2340.00000, 121.077, -30.4323, 129.986, -152.239, 120.146, 85.8913, 0, 0, 2.51367, -53.5062, 2.34139, -175.313, 2.51018, 62.8174, 0.308826, -176.132
0, 2400.00000, 121.077, -30.4324, 129.987, -152.239, 120.146, 85.8907, 0, 0, 2.51367, -53.5063, 2.34138, -175.313, 2.51018, 62.8168, 0.30886, -176.133
0, 2460.00000, 121.077, -30.4324, 129.988, -152.24, 120.146, 85.8903, 0, 0, 2.51367, -53.5063, 2.34136, -175.314, 2.51017, 62.8163, 0.308892, -176.133
0, 2520.00000, 121.077, -30.4325, 129.989, -152.24, 120.146, 85.8898, 0, 0, 2.51367, -53.5064, 2.34134, -175.314, 2.51017, 62.8159, 0.30892, -176.134
0, 2580.00000, 121.077, -30.4325, 129.989, -152.24, 120.145, 85.8894, 0, 0, 2.51366, -53.5064, 2.34133, -175.314, 2.51017, 62.8155, 0.308945, -176.135
0, 2640.00000, 121.077, -30.4325, 129.99, -152.24, 120.145, 85.8891, 0, 0, 2.51366, -53.5065, 2.34132, -175.314, 2.51016, 62.8151, 0.308968, -176.135
0, 2700.00000, 121.077, -30.4326, 129.991, -152.241, 120.145, 85.8887, 0, 0, 2.51366, -53.5065, 2.34131, -175.314, 2.51016, 62.8148, 0.308989, -176.136
0, 2760.00000, 121.077, -30.4326, 129.991, -152.241, 120.145, 85.8884, 0, 0, 2.51366, -53.5065, 2.3413, -175.315, 2.51016, 62.8145, 0.309007, -176.136
0, 2820.00000, 121.077, -30.4326, 129.992, -152.241, 120.145, 85.8882, 0, 0, 2.51366, -53.5065, 2.34129, -175.315, 2.51016, 62.8143, 0.309024, -176.137
0, 2880.00000, 121.077, -30.4327, 129.992, -152.241, 120.145, 85.8879, 0, 0, 2.51366, -53.5066, 2.34128, -175.315, 2.51016, 62.814, 0.309039, -176.137
0, 2940.00000, 121.077, -30.4327, 129.993, -152.241, 120.145, 85.8877, 0, 0, 2.51366, -53.5066, 2.34127, -175.315, 2.51015, 62.8138, 0.309052, -176.137
0, 3000.00000, 121.077, -30.4327, 129.993, -152.241, 120.145, 85.8875, 0, 0, 2.51366, -53.5066, 2.34126, -175.315, 2.51015, 62.8136, 0.309064, -176.137
0, 3060.00000, 121.077, -30.4327, 129.993, -152.241, 120.145, 85.8874, 0, 0, 2.51366, -53.5066, 2.34126, -175.315, 2.51015, 62.8135, 0.309075, -176.138
0, 3120.00000, 121.077, -30.4327, 129.994, -152.241, 120.145, 85.8872, 0, 0, 2.51366, -53.5066, 2.34125, -175.315, 2.51015, 62.8133, 0.309085, -176.138
0, 3180.00000, 121.077, -30.4327, 129.994, -152.241, 120.145, 85.8871, 0, 0, 2.51366, -53.5067, 2.34125, -175.315, 2.51015, 62.8132, 0.309094, -176.138
0, 3240.00000, 121.077, -30.4328, 129.994, -152.241, 120.145, 85.887, 0, 0, 2.51366, -53.5067, 2.34124, -175.315, 2.51015, 62.813, 0.309102, -176.138
0, 3300.00000, 121.077, -30.4328, 129.994, -152.242, 120.145, 85.8868, 0, 0, 2.51366, -53.5067, 2.34124, -175.315, 2.51015, 62.8129, 0.309109, -176.138
0, 3360.00000, 121.077, -30.4328, 129.994, -152.242, 120.145, 85.8867, 0, 0, 2.51366, -53.5067, 2.34124, -175.315, 2.51015, 62.8128, 0.309115, -176.139
0, 3420.00000, 121.077, -30.4328, 129.995, -152.242, 120.145, 85.8867, 0, 0, 2.51366, -53.5067, 2.34123, -175.316, 2.51015, 62.8127, 0.309121, -176.139
0, 3480.00000, 121.077, -30.4328, 129.995, -152.242, 120.145, 85.8866, 0, 0, 2.51366, -53.5067, 2.34123, -175.316, 2.51015, 62.8126, 0.309126, -176.139
0, 3540.00000, 121.077, -30.4328, 129.995, -152.242, 120.145, 85.8865, 0, 0, 2.51366, -53.5067, 2.34123, -175.316, 2.51014, 62.8126, 0.309131, -176.139
1, 0.00000, 121.077, -30.4328, 129.995, -152.242, 120.145, 85.8864, 0, 0, 2.51366, -53.5067, 2.34123, -175.316, 2.51014, 62.8125, 0.309135, -176.139
1, 60.00000, 121.078, -30.4328, 129.995, -152.242, 120.145, 85.8864, 0, 0, 2.51366, -53.5067, 2.34122, -175.316, 2.51014, 62.8124, 0.309139, -176.139
1, 120.00000, 121.078, -30.4328, 129.995, -152.242, 120.145, 85.8863, 0, 0, 2.51366, -53.5067, 2.34122, -175.316, 2.51014, 62.8124, 0.309143, -176.139
1, 180.00000, 121.078, -30.4328, 129.995, -152.242, 120.145, 85.8863, 0, 0, 2.51366, -53.5067, 2.34122, -175.316, 2.51014, 62.8123, 0.309146, -176.139
1, 240.00000, 121.078, -30.4328, 129.995, -152.242, 120.144, 85.8862, 0, 0, 2.51366, -53.5068, 2.34122, -175.316, 2.51014, 62.8123, 0.309149, -176.139
1, 300.00000, 121.078, -30.4328, 129.996, -152.242, 120.144, 85.8862, 0, 0, 2.51366, -53.5068, 2.34122, -175.316, 2.51014, 62.8123, 0.309151, -176.139
1, 360.00000, 121.078, -30.4328, 129.996, -152.242, 120.144, 85.8861, 0, 0, 2.51366, -53.5068, 2.34122, -175.316, 2.51014, 62.8122, 0.309153, -176.139
1, 420.00000, 121.078, -30.4328, 129.996, -152.242, 120.144, 85.8861, 0, 0, 2.51366, -53.5068, 2.34122, -175.316, 2.51014, 62.8122, 0.309155, -176.14
1, 480.00000, 121.078, -30.4328, 129.996, -152.242, 120.144, 85.8861, 0, 0, 2.51366, -53.5068, 2.34121, -175.316, 2.51014, 62.8122, 0.309157, -176.14
1, 540.00000, 121.078, -30.4328, 129.996, -152.242, 120.144, 85.8861, 0, 0, 2.51366, -53.5068, 2.34121, -175.316, 2.51014, 62.8121, 0.309159, -176.14
1, 600.00000, 121.078, -30.4329, 129.996, -152.242, 120.144, 85.886, 0, 0, 2.51366, -53.5068, 2.34121, -175.316, 2.51014, 62.8121, 0.30916, -176.14
1, 660.00000, 121.078, -30.4329, 129.996, -152.242, 120.144, 85.886, 0, 0, 2.51366, -53.5068, 2.34121, -175.316, 2.51014, 62.8121, 0.309162, -176.14
1, 720.00000, 121.078, -30.4329, 129.996, -152.242, 120.144, 85.886, 0, 0, 2.51366, -53.5068, 2.34121, -175.316, 2.51014, 62.8121, 0.309163, -176.14
1, 780.00000, 121.078, -30.4329, 129.996, -152.242, 120.144, 85.886, 0, 0, 2.51366, -53.5068, 2.34121, -175.316, 2.51014, 62.8121, 0.309164, -176.14
1, 840.00000, 121.078, -30.4329, 129.996, -152.242, 120.144, 85.886, 0, 0, 2.51366, -53.5068, 2.34121, -175.316, 2.51014, 62.812, 0.309165, -176.14
1, 900.00000, 121.078, -30.4329, 129.996, -152.242, 120.144, 85.8859, 0, 0, 2.51366, -53.5068, 2.34121, -175.316, 2.51014, 62.812, 0.309166, -176.14
1, 960.00000, 121.078, -30.4329, 129.996, -152.242, 120.144, 85.8859, 0, 0, 2.51366, -53.5068, 2.34121, -175.316, 2.51014, 62.812, 0.309166, -176.14
1, 1020.00000, 121.078, -30.4329, 129.996, -152.242, 120.144, 85.8859, 0, 0, 2.51366, -53.5068, 2.34121, -175.316, 2.51014, 62.812, 0.309167, -176.14
1, 1080.00000, 121.078, -30.4329, 129.996, -152.242, 120.144, 85.8859, 0, 0, 2.51366, -53.5068, 2.34121, -175.316, 2.51014, 62.812, 0.309168, -176.14
1, 1140.00000, 121.078, -30.4329, 129.996, -152.242, 120.144, 85.8859, 0, 0, 2.51366, -53.5068, 2.34121, -175.316, 2.51014, 62.812, 0.309168, -176.14
1, 1200.00000, 121.078, -30.4329, 129.996, -152.242, 120.144, 85.8859, 0, 0, 2.51366, -53.5068, 2.34121, -175.316, 2.51014, 62.812, 0.309169, -176.14
1, 1260.00000, 121.078, -30.4329, 129.996, -152.242, 120.144, 85.8859, 0, 0, 2.51366, -53.5068, 2.34121, -175.316, 2.51014, 62.812, 0.309169, -176.14
1, 1320.00000, 121.078, -30.4329, 129.996, -152.242, 120.144, 85.8859, 0, 0, 2.51366, -53.5068, 2.34121, -175.316, 2.51014, 62.812, 0.30917, -176.14
1, 1380.00000, 121.078, -30.4329, 129.996, -152.242, 120.144, 85.8859, 0, 0, 2.51366, -53.5068, 2.34121, -175.316, 2.51014, 62.812, 0.30917, -176.14
1, 1440.00000, 121.078, -30.4329, 129.996, -152.242, 120.144, 85.8859, 0, 0, 2.51366, -53.5068, 2.34121, -175.316, 2.51014, 62.812, 0.30917, -176.14
1, 1500.00000, 121.078, -30.4329, 129.996, -152.242, 120.144, 85.8859, 0, 0, 2.51366, -53.5068, 2.34121, -175.316, 2.51014, 62.812, 0.309171, -176.14
1, 1560.00000, 121.078, -30.4329, 129.996, -152.242, 120.144, 85.8859, 0, 0, 2.51366, -53.5068, 2.34121, -175.316, 2.51014, 62.8119, 0.309171, -176.14
1, 1620.00000, 121.078, -30.4329, 129.996, -152.242, 120.144, 85.8859, 0, 0, 2.51366, -53.5068, 2.34121, -175.316, 2.51014, 62.8119, 0.309171, -176.14
1, 1680.00000, 121.078, -30.4329, 129.996, -152.242, 120.144, 85.8859, 0, 0, 2.51366, -53.5068, 2.34121, -175.316, 2.51014, 62.8119, 0.309171, -176.14
1, 1740.00000, 121.078, -30.4329, 129.996, -152.242, 120.144, 85.8859, 0, 0, 2.51366, -53.5068, 2.34121, -175.316, 2.51014, 62.8119, 0.309172, -176.14
1, 1800.00000, 121.078, -30.4329, 129.996, -152.242, 120.144, 85.8858, 0, 0, 2.51366, -53.5068, 2.34121, -175.316, 2.51014, 62.8119, 0.309172, -176.14
1, 1860.00000, 121.078, -30.4329, 129.996, -152.242, 120.144, 85.8858, 0, 0, 2.51366, -53.5068, 2.34121, -175.316, 2.51014, 62.8119, 0.309172, -176.14
1, 1920.00000, 121.078, -30.4329, 129.996, -152.242, 120.144, 85.8858, 0, 0, 2.51366, -53.5068, 2.34121, -175.316, 2.51014, 62.8119, 0.309172, -176.14
1, 1980.00000, 121.078, -30.4329, 129.996, -152.242, 120.144, 85.8858, 0, 0, 2.51366, -53.5068, 2.34121, -175.316, 2.51014, 62.8119, 0.309172, -176.14
1, 2040.00000, 122.944, -30.6836, 129.884, -152.247, 121.724, 86.4124, 0, 0, 2.4755, -53.7576, 2.34323, -175.321, 2.50031, 63.3385, 0.254373, -169.405
1, 2100.00000, 122.944, -30.6836, 129.884, -152.247, 121.724, 86.4124, 0, 0, 2.4755, -53.7576, 2.34323, -175.321, 2.50031, 63.3385, 0.254374, -169.404
1, 2160.00000, 122.944, -30.6836, 129.884, -152.247, 121.724, 86.4124, 0, 0, 2.4755, -53.7576, 2.34323, -175.321, 2.50031, 63.3385, 0.254374, -169.404
1, 2220.00000, 122.944, -30.6836, 129.884, -152.247, 121.724, 86.4124, 0, 0, 2.4755, -53.7576, 2.34323, -175.321, 2.50031, 63.3385, 0.254374, -169.404
1, 2280.00000, 122.944, -30.6836, 129.884, -152.247, 121.724, 86.4124, 0, 0, 2.4755, -53.7576, 2.34323, -175.321, 2.50031, 63.3385, 0.254374, -169.404
1, 2340.00000, 122.944, -30.6836, 129.884, -152.247, 121.724, 86.4124, 0, 0, 2.4755, -53.7576, 2.34323, -175.321, 2.50031, 63.3385, 0.254374, -169.404
1, 2400.00000, 122.944, -30.6836, 129.884, -152.247, 121.724, 86.4124, 0, 0, 2.4755, -53.7576, 2.34323, -175.321, 2.50031, 63.3385, 0.254374, -169.404
1, 2460.00000, 122.944, -30.6836, 129.884, -152.247, 121.724, 86.4124, 0, 0, 2.4755, -53.7576, 2.34323, -175.321, 2.50031, 63.3385, 0.254375, -169.404
1, 2520.00000, 124.578, -30.8708, 129.797, -152.252, 123.082, 86.8754, 0, 0, 2.44304, -53.9447, 2.34481, -175.326, 2.47272, 63.8015, 0.19958, -164.736
1, 2580.00000, 124.578, -30.8708, 129.797, -152.252, 123.082, 86.8754, 0, 0, 2.44304, -53.9447, 2.34481, -175.326, 2.47272, 63.8015, 0.199581, -164.736
1, 2640.00000, 124.578, -30.8708, 129.797, -152.252, 123.082, 86.8754, 0, 0, 2.44304, -53.9447, 2.34481, -175.326, 2.47272, 63.8015, 0.199581, -164.736
1, 2700.00000, 124.578, -30.8708, 129.797, -152.252, 123.082, 86.8754, 0, 0, 2.44304, -53.9447, 2.34481, -175.326, 2.47272, 63.8015, 0.199581, -164.736
1, 2760.00000, 124.691, -30.8862, 130.799, -151.919, 124.243, 86.6485, 0, 0, 2.44082, -53.9601, 2.32684, -174.993, 2.44962, 63.5746, 0.208941, -175.358
1, 2820.00000, 124.691, -30.8862, 130.799, -151.919, 124.243, 86.6485, 0, 0, 2.44082, -53.9601, 2.32684, -174.993, 2.44962, 63.5746, 0.208942, -175.358
1, 2880.00000, 124.691, -30.8862, 130.799, -151.919, 124.243, 86.6485, 0, 0, 2.44082, -53.9601, 2.32684, -174.993, 2.44962, 63.5746, 0.208942, -175.358
1, 2940.00000, 124.691, -30.8862, 130.799, -151.919, 124.243, 86.6485, 0, 0, 2.44082, -53.9601, 2.32684, -174.993, 2.44962, 63.5746, 0.208942, -175.358
1, 3000.00000, 124.691, -30.8862, 130.799, -151.919, 124.243, 86.6485, 0, 0, 2.44082, -53.9601, 2.32684, -174.993, 2.44962, 63.5746, 0.208942, -175.358
1, 3060.00000, 124.691, -30.8862, 130.799, -151.919, 124.243, 86.6485, 0, 0, 2.44082, -53.9601, 2.32684, -174.993, 2.44962, 63.5746, 0.208942, -175.358
1, 3120.00000, 124.691, -30.8862, 130.799, -151.919, 124.243, 86.6485, 0, 0, 2.44082, -53.9601, 2.32684, -174.993, 2.44962, 63.5746, 0.208942, -175.358
1, 3180.00000, 124.691, -30.8862, 130.799, -151.919, 124.243, 86.6485, 0, 0, 2.44082, -53.9601, 2.32684, -174.993, 2.44962, 63.5746, 0.208942, -175.358
1, 3240.00000, 124.691, -30.8862, 130.799, -151.919, 124.243, 86.6485, 0, 0, 2.44082, -53.9601, 2.32684, -174.993, 2.44962, 63.5746, 0.208942, -175.358
1, 3300.00000, 124.691, -30.8862, 130.799, -151.919, 124.243, 86.6485, 0, 0, 2.44082, -53.9601, 2.32684, -174.993, 2.44962, 63.5746, 0.208942, -175.358
1, 3360.00000, 124.691, -30.8862, 130.799, -151.919, 124.243, 86.6485, 0, 0, 2.44082, -53.9601, 2.32684, -174.993, 2.44962, 63.5746, 0.208942, -175.358
1, 3420.00000, 124.691, -30.8862, 130.799, -151.919, 124.243, 86.6485, 0, 0, 2.44082, -53.9601, 2.32684, -174.993, 2.44962, 63.5746, 0.208942, -175.358
1, 3480.00000, 124.691, -30.8862, 130.799, -151.919, 124.243, 86.6485, 0, 0, 2.44082, -53.9601, 2.32684, -174.993, 2.44962, 63.5746, 0.208942, -175.358
1, 3540.00000, 124.691, -30.8862, 130.799, -151.919, 124.243, 86.6485, 0, 0, 2.44082, -53.9601, 2.32684, -174.993, 2.44962, 63.5746, 0.208942, -175.358
2, 0.00000, 124.691, -30.8862, 130.799, -151.919, 124.243, 86.6485, 0, 0, 2.44082, -53.9601, 2.32684, -174.993, 2.44962, 63.5746, 0.208942, -175.358
2, 60.00000, 124.691, -30.8862, 130.799, -151.919, 124.243, 86.6485, 0, 0, 2.44082, -53.9601, 2.32684, -174.993, 2.44962, 63.5746, 0.208942, -175.358
2, 120.00000, 124.682, -30.8873, 130.791, -151.92, 124.235, 86.6478, 0, 0, 2.44775, -53.9612, 2.33341, -174.994, 2.45656, 63.5739, 0.209543, -175.362
2, 180.00000, 124.673, -30.8884, 130.784, -151.92, 124.226, 86.6472, 0, 0, 2.45476, -53.9624, 2.34006, -174.994, 2.46358, 63.5733, 0.21015, -175.367
2, 240.00000, 124.664, -30.8896, 130.776, -151.921, 124.218, 86.6466, 0, 0, 2.46168, -53.9635, 2.34663, -174.995, 2.47053, 63.5726, 0.210751, -175.371
2, 300.00000, 124.656, -30.8907, 130.769, -151.922, 124.21, 86.6459, 0, 0, 2.46861, -53.9646, 2.35321, -174.996, 2.47747, 63.572, 0.211352, -175.376
2, 360.00000, 124.647, -30.8918, 130.761, -151.922, 124.201, 86.6453, 0, 0, 2.47562, -53.9657, 2.35986, -174.996, 2.4845, 63.5713, 0.21196, -175.38
2, 420.00000, 124.638, -30.8929, 130.754, -151.923, 124.193, 86.6446, 0, 0, 2.48255, -53.9669, 2.36644, -174.997, 2.49145, 63.5707, 0.212561, -175.385
2, 480.00000, 124.629, -30.8941, 130.746, -151.924, 124.185, 86.644, 0, 0, 2.48948, -53.968, 2.37301, -174.998, 2.49839, 63.5701, 0.213162, -175.389
2, 540.00000, 124.621, -30.8952, 130.739, -151.925, 124.176, 86.6433, 0, 0, 2.49649, -53.9691, 2.37967, -174.999, 2.50543, 63.5694, 0.21377, -175.394
2, 600.00000, 124.612, -30.8963, 130.731, -151.925, 124.168, 86.6427, 0, 0, 2.50343, -53.9702, 2.38625, -174.999, 2.51237, 63.5688, 0.214372, -175.398
2, 660.00000, 124.603, -30.8974, 130.723, -151.926, 124.16, 86.6421, 0, 0, 2.51036, -53.9714, 2.39283, -175, 2.51932, 63.5681, 0.214973, -175.403
2, 720.00000, 124.594, -30.8986, 130.716, -151.927, 124.151, 86.6414, 0, 0, 2.51738, -53.9725, 2.39948, -175.001, 2.52636, 63.5675, 0.215582, -175.407
