hour,t(sec),V1,VAngle1,V2,VAngle2,V3,VAngle3,V4,VAngle4,I1,IAngle1,I2,IAngle2,I3,IAngle3,I4,IAngle4
0, 60.00000, 127.139, -30.5737, 127.003, -150.732, 126.758, 89.4174, 0, 0, 2.3502, -53.6471, 2.35269, -173.805, 2.3572, 66.3444, 0.0124279, -89.7435
0, 120.00000, 127.139, -30.5737, 127.003, -150.732, 126.758, 89.4173, 0, 0, 2.35023, -53.6477, 2.35274, -173.806, 2.35728, 66.3434, 0.0124899, -89.8041
0, 180.00000, 127.139, -30.5737, 127.003, -150.732, 126.758, 89.4173, 0, 0, 2.35023, -53.6477, 2.35274, -173.806, 2.35728, 66.3434, 0.0124902, -89.8043
0, 240.00000, 127.139, -30.5737, 127.003, -150.732, 126.758, 89.4173, 0, 0, 2.35023, -53.6477, 2.35274, -173.806, 2.35728, 66.3434, 0.0124902, -89.8043
0, 300.00000, 127.139, -30.5737, 127.003, -150.732, 126.758, 89.4173, 0, 0, 2.35023, -53.6477, 2.35274, -173.806, 2.35728, 66.3434, 0.0124902, -89.8043
0, 360.00000, 127.139, -30.5737, 127.003, -150.732, 126.758, 89.4173, 0, 0, 2.35023, -53.6477, 2.35274, -173.806, 2.35728, 66.3434, 0.0124902, -89.8043
0, 420.00000, 127.139, -30.5737, 127.003, -150.732, 126.758, 89.4173, 0, 0, 2.35023, -53.6477, 2.35274, -173.806, 2.35728, 66.3434, 0.0124902, -89.8043
0, 480.00000, 127.139, -30.5737, 127.003, -150.732, 126.758, 89.4173, 0, 0, 2.35023, -53.6477, 2.35274, -173.806, 2.35728, 66.3434, 0.0124902, -89.8043
0, 540.00000, 127.139, -30.5737, 127.003, -150.732, 126.758, 89.4173, 0, 0, 2.35023, -53.6477, 2.35274, -173.806, 2.35728, 66.3434, 0.0124902, -89.8043
0, 600.00000, 127.139, -30.5737, 127.003, -150.732, 126.758, 89.4173, 0, 0, 2.35023, -53.6477, 2.35274, -173.806, 2.35728, 66.3434, 0.0124902, -89.8043
0, 660.00000, 127.139, -30.5737, 127.003, -150.732, 126.758, 89.4173, 0, 0, 2.35023, -53.6477, 2.35274, -173.806, 2.35728, 66.3434, 0.0124902, -89.8043
0, 720.00000, 127.139, -30.5737, 127.003, -150.732, 126.758, 89.4173, 0, 0, 2.35023, -53.6477, 2.35274, -173.806, 2.35728, 66.3434, 0.0124902, -89.8043
0, 780.00000, 127.139, -30.5737, 127.003, -150.732, 126.758, 89.4173, 0, 0, 2.35023, -53.6477, 2.35274, -173.806, 2.35728, 66.3434, 0.0124902, -89.8043
0, 840.00000, 127.139, -30.5737, 127.003, -150.732, 126.758, 89.4173, 0, 0, 2.35023, -53.6477, 2.35274, -173.806, 2.35728, 66.3434, 0.0124902, -89.8043
0, 900.00000, 127.139, -30.5737, 127.003, -150.732, 126.758, 89.4173, 0, 0, 2.35023, -53.6477, 2.35274, -173.806, 2.35728, 66.3434, 0.0124902, -89.8043
0, 960.00000, 127.137, -30.5743, 126.872, -150.909, 126.348, 89.3718, 0, 0, 2.35026, -53.6481, 2.35514, -173.982, 2.36488, 66.2985, 0.0256523, -93.4799
0, 1020.00000, 127.136, -30.5743, 126.872, -150.909, 126.348, 89.3717, 0, 0, 2.35026, -53.6482, 2.35517, -173.983, 2.36494, 66.2978, 0.0257206, -93.496
0, 1080.00000, 127.136, -30.5743, 126.872, -150.909, 126.348, 89.3717, 0, 0, 2.35026, -53.6482, 2.35517, -173.983, 2.36494, 66.2978, 0.0257211, -93.496
0, 1140.00000, 127.136, -30.5743, 126.872, -150.909, 126.348, 89.3717, 0, 0, 2.35026, -53.6482, 2.35517, -173.983, 2.36494, 66.2978, 0.0257211, -93.496
0, 1200.00000, 127.136, -30.5743, 126.872, -150.909, 126.348, 89.3717, 0, 0, 2.35026, -53.6482, 2.35517, -173.983, 2.36494, 66.2978, 0.0257211, -93.496
0, 1260.00000, 127.136, -30.5743, 126.872, -150.909, 126.348, 89.3717, 0, 0, 2.35026, -53.6482, 2.35517, -173.983, 2.36494, 66.2978, 0.0257211, -93.496
0, 1320.00000, 127.136, -30.5743, 126.872, -150.909, 126.348, 89.3717, 0, 0, 2.35026, -53.6482, 2.35517, -173.983, 2.36494, 66.2978, 0.0257211, -93.496
0, 1380.00000, 127.136, -30.5743, 126.872, -150.909, 126.348, 89.3717, 0, 0, 2.35026, -53.6482, 2.35517, -173.983, 2.36494, 66.2978, 0.0257211, -93.496
0, 1440.00000, 127.136, -30.5743, 126.872, -150.909, 126.348, 89.3717, 0, 0, 2.35026, -53.6482, 2.35517, -173.983, 2.36494, 66.2978, 0.0257211, -93.496
0, 1500.00000, 127.136, -30.5743, 126.872, -150.909, 126.348, 89.3717, 0, 0, 2.35026, -53.6482, 2.35517, -173.983, 2.36494, 66.2978, 0.0257211, -93.496
0, 1560.00000, 127.136, -30.5743, 126.872, -150.909, 126.348, 89.3717, 0, 0, 2.35026, -53.6482, 2.35517, -173.983, 2.36494, 66.2978, 0.0257211, -93.496
0, 1620.00000, 127.136, -30.5743, 126.872, -150.909, 126.348, 89.3717, 0, 0, 2.35026, -53.6482, 2.35517, -173.983, 2.36494, 66.2978, 0.0257211, -93.496
0, 1680.00000, 127.136, -30.5743, 126.872, -150.909, 126.348, 89.3717, 0, 0, 2.35026, -53.6482, 2.35517, -173.983, 2.36494, 66.2978, 0.0257211, -93.496
0, 1740.00000, 127.136, -30.5743, 126.872, -150.909, 126.348, 89.3717, 0, 0, 2.35026, -53.6482, 2.35517, -173.983, 2.36494, 66.2978, 0.0257211, -93.496
0, 1800.00000, 127.136, -30.5743, 126.872, -150.909, 126.348, 89.3717, 0, 0, 2.35026, -53.6482, 2.35517, -173.983, 2.36494, 66.2978, 0.0257211, -93.496
0, 1860.00000, 127.136, -30.5743, 126.872, -150.909, 126.348, 89.3717, 0, 0, 2.35026, -53.6482, 2.35517, -173.983, 2.36494, 66.2978, 0.0257211, -93.496
0, 1920.00000, 127.136, -30.5743, 126.872, -150.909, 126.348, 89.3717, 0, 0, 2.35026, -53.6482, 2.35517, -173.983, 2.36494, 66.2978, 0.0257211, -93.496
0, 1980.00000, 127.136, -30.5743, 126.872, -150.909, 126.348, 89.3717, 0, 0, 2.35026, -53.6482, 2.35517, -173.983, 2.36494, 66.2978, 0.0257211, -93.496
0, 2040.00000, 127.136, -30.5743, 126.872, -150.909, 126.348, 89.3717, 0, 0, 2.35026, -53.6482, 2.35517, -173.983, 2.36494, 66.2978, 0.0257211, -93.496
0, 2100.00000, 127.136, -30.5743, 126.872, -150.909, 126.348, 89.3717, 0, 0, 2.35026, -53.6482, 2.35517, -173.983, 2.36494, 66.2978, 0.0257211, -93.496
0, 2160.00000, 127.136, -30.5743, 126.872, -150.909, 126.348, 89.3717, 0, 0, 2.35026, -53.6482, 2.35517, -173.983, 2.36494, 66.2978, 0.0257211, -93.496
0, 2220.00000, 127.136, -30.5743, 126.872, -150.909, 126.348, 89.3717, 0, 0, 2.35026, -53.6482, 2.35517, -173.983, 2.36494, 66.2978, 0.0257211, -93.496
0, 2280.00000, 127.136, -30.5743, 126.872, -150.909, 126.348, 89.3717, 0, 0, 2.35026, -53.6482, 2.35517, -173.983, 2.36494, 66.2978, 0.0257211, -93.496
0, 2340.00000, 127.136, -30.5743, 126.872, -150.909, 126.348, 89.3717, 0, 0, 2.35026, -53.6482, 2.35517, -173.983, 2.36494, 66.2978, 0.0257211, -93.496
0, 2400.00000, 127.136, -30.5743, 126.872, -150.909, 126.348, 89.3717, 0, 0, 2.35026, -53.6482, 2.35517, -173.983, 2.36494, 66.2978, 0.0257211, -93.496
0, 2460.00000, 127.136, -30.5743, 126.872, -150.909, 126.348, 89.3717, 0, 0, 2.35026, -53.6482, 2.35517, -173.983, 2.36494, 66.2978, 0.0257211, -93.496
0, 2520.00000, 127.136, -30.5743, 126.872, -150.909, 126.348, 89.3717, 0, 0, 2.35026, -53.6482, 2.35517, -173.983, 2.36494, 66.2978, 0.0257211, -93.496
0, 2580.00000, 127.136, -30.5743, 126.872, -150.909, 126.348, 89.3717, 0, 0, 2.35026, -53.6482, 2.35517, -173.983, 2.36494, 66.2978, 0.0257211, -93.496
0, 2640.00000, 127.136, -30.5743, 126.872, -150.909, 126.348, 89.3717, 0, 0, 2.35026, -53.6482, 2.35517, -173.983, 2.36494, 66.2978, 0.0257211, -93.496
0, 2700.00000, 127.136, -30.5743, 126.872, -150.909, 126.348, 89.3717, 0, 0, 2.35026, -53.6482, 2.35517, -173.983, 2.36494, 66.2978, 0.0257211, -93.496
0, 2760.00000, 127.136, -30.5743, 126.872, -150.909, 126.348, 89.3717, 0, 0, 2.35026, -53.6482, 2.35517, -173.983, 2.36494, 66.2978, 0.0257211, -93.496
0, 2820.00000, 127.136, -30.5743, 126.872, -150.909, 126.348, 89.3717, 0, 0, 2.35026, -53.6482, 2.35517, -173.983, 2.36494, 66.2978, 0.0257211, -93.496
0, 2880.00000, 127.136, -30.5743, 126.872, -150.909, 126.348, 89.3717, 0, 0, 2.35026, -53.6482, 2.35517, -173.983, 2.36494, 66.2978, 0.0257211, -93.496
0, 2940.00000, 127.136, -30.5743, 126.872, -150.909, 126.348, 89.3717, 0, 0, 2.35026, -53.6482, 2.35517, -173.983, 2.36494, 66.2978, 0.0257211, -93.496
0, 3000.00000, 127.136, -30.5743, 126.872, -150.909, 126.348, 89.3717, 0, 0, 2.35026, -53.6482, 2.35517, -173.983, 2.36494, 66.2978, 0.0257211, -93.496
0, 3060.00000, 127.136, -30.5743, 126.872, -150.909, 126.348, 89.3717, 0, 0, 2.35026, -53.6482, 2.35517, -173.983, 2.36494, 66.2978, 0.0257211, -93.496
0, 3120.00000, 127.136, -30.5743, 126.872, -150.909, 126.348, 89.3717, 0, 0, 2.35026, -53.6482, 2.35517, -173.983, 2.36494, 66.2978, 0.0257211, -93.496
0, 3180.00000, 127.136, -30.5743, 126.872, -150.909, 126.348, 89.3717, 0, 0, 2.35026, -53.6482, 2.35517, -173.983, 2.36494, 66.2978, 0.0257211, -93.496
0, 3240.00000, 127.136, -30.5743, 126.872, -150.909, 126.348, 89.3717, 0, 0, 2.35026, -53.6482, 2.35517, -173.983, 2.36494, 66.2978, 0.0257211, -93.496
0, 3300.00000, 127.136, -30.5743, 126.872, -150.909, 126.348, 89.3717, 0, 0, 2.35026, -53.6482, 2.35517, -173.983, 2.36494, 66.2978, 0.0257211, -93.496
0, 3360.00000, 127.136, -30.5743, 126.872, -150.909, 126.348, 89.3717, 0, 0, 2.35026, -53.6482, 2.35517, -173.983, 2.36494, 66.2978, 0.0257211, -93.496
0, 3420.00000, 127.136, -30.5743, 126.872, -150.909, 126.348, 89.3717, 0, 0, 2.35026, -53.6482, 2.35517, -173.983, 2.36494, 66.2978, 0.0257211, -93.496
0, 3480.00000, 127.136, -30.5743, 126.872, -150.909, 126.348, 89.3717, 0, 0, 2.35026, -53.6482, 2.35517, -173.983, 2.36494, 66.2978, 0.0257211, -93.496
0, 3540.00000, 127.136, -30.5743, 126.872, -150.909, 126.348, 89.3717, 0, 0, 2.35026, -53.6482, 2.35517, -173.983, 2.36494, 66.2978, 0.0257211, -93.496
1, 0.00000, 127.136, -30.5743, 126.872, -150.909, 126.348, 89.3717, 0, 0, 2.35026, -53.6482, 2.35517, -173.983, 2.36494, 66.2978, 0.0257211, -93.496
1, 60.00000, 127.136, -30.5743, 126.872, -150.909, 126.348, 89.3717, 0, 0, 2.35026, -53.6482, 2.35517, -173.983, 2.36494, 66.2978, 0.0257211, -93.496
1, 120.00000, 127.136, -30.5743, 126.872, -150.909, 126.348, 89.3717, 0, 0, 2.35026, -53.6482, 2.35517, -173.983, 2.36494, 66.2978, 0.0257211, -93.496
1, 180.00000, 127.136, -30.5743, 126.872, -150.909, 126.348, 89.3717, 0, 0, 2.35026, -53.6482, 2.35517, -173.983, 2.36494, 66.2978, 0.0257211, -93.496
1, 240.00000, 127.136, -30.5743, 126.872, -150.909, 126.348, 89.3717, 0, 0, 2.35026, -53.6482, 2.35517, -173.983, 2.36494, 66.2978, 0.0257211, -93.496
1, 300.00000, 127.136, -30.5743, 126.872, -150.909, 126.348, 89.3717, 0, 0, 2.35026, -53.6482, 2.35517, -173.983, 2.36494, 66.2978, 0.0257211, -93.496
1, 360.00000, 127.136, -30.5743, 126.872, -150.909, 126.348, 89.3717, 0, 0, 2.35026, -53.6482, 2.35517, -173.983, 2.36494, 66.2978, 0.0257211, -93.496
1, 420.00000, 127.136, -30.5743, 126.872, -150.909, 126.348, 89.3717, 0, 0, 2.35026, -53.6482, 2.35517, -173.983, 2.36494, 66.2978, 0.0257211, -93.496
1, 480.00000, 127.136, -30.5743, 126.872, -150.909, 126.348, 89.3717, 0, 0, 2.35026, -53.6482, 2.35517, -173.983, 2.36494, 66.2978, 0.0257211, -93.496
1, 540.00000, 127.136, -30.5743, 126.872, -150.909, 126.348, 89.3717, 0, 0, 2.35026, -53.6482, 2.35517, -173.983, 2.36494, 66.2978, 0.0257211, -93.496
1, 600.00000, 127.136, -30.5743, 126.872, -150.909, 126.348, 89.3717, 0, 0, 2.35026, -53.6482, 2.35517, -173.983, 2.36494, 66.2978, 0.0257211, -93.496
1, 660.00000, 127.136, -30.5743, 126.872, -150.909, 126.348, 89.3717, 0, 0, 2.35026, -53.6482, 2.35517, -173.983, 2.36494, 66.2978, 0.0257211, -93.496
1, 720.00000, 127.136, -30.5743, 126.872, -150.909, 126.348, 89.3717, 0, 0, 2.35026, -53.6482, 2.35517, -173.983, 2.36494, 66.2978, 0.0257211, -93.496
1, 780.00000, 127.136, -30.5743, 126.872, -150.909, 126.348, 89.3717, 0, 0, 2.35026, -53.6482, 2.35517, -173.983, 2.36494, 66.2978, 0.0257211, -93.496
1, 840.00000, 127.136, -30.5743, 126.872, -150.909, 126.348, 89.3717, 0, 0, 2.35026, -53.6482, 2.35517, -173.983, 2.36494, 66.2978, 0.0257211, -93.496
1, 900.00000, 127.136, -30.5743, 126.872, -150.909, 126.348, 89.3717, 0, 0, 2.35026, -53.6482, 2.35517, -173.983, 2.36494, 66.2978, 0.0257211, -93.496
1, 960.00000, 127.136, -30.5743, 126.872, -150.909, 126.348, 89.3717, 0, 0, 2.35026, -53.6482, 2.35517, -173.983, 2.36494, 66.2978, 0.0257211, -93.496
1, 1020.00000, 127.136, -30.5743, 126.872, -150.909, 126.348, 89.3717, 0, 0, 2.35026, -53.6482, 2.35517, -173.983, 2.36494, 66.2978, 0.0257211, -93.496
1, 1080.00000, 127.136, -30.5743, 126.872, -150.909, 126.348, 89.3717, 0, 0, 2.35026, -53.6482, 2.35517, -173.983, 2.36494, 66.2978, 0.0257211, -93.496
1, 1140.00000, 127.136, -30.5743, 126.872, -150.909, 126.348, 89.3717, 0, 0, 2.35026, -53.6482, 2.35517, -173.983, 2.36494, 66.2978, 0.0257211, -93.496
1, 1200.00000, 127.136, -30.5743, 126.872, -150.909, 126.348, 89.3717, 0, 0, 2.35026, -53.6482, 2.35517, -173.983, 2.36494, 66.2978, 0.0257211, -93.496
1, 1260.00000, 127.136, -30.5743, 126.872, -150.909, 126.348, 89.3717, 0, 0, 2.35026, -53.6482, 2.35517, -173.983, 2.36494, 66.2978, 0.0257211, -93.496
1, 1320.00000, 127.136, -30.5743, 126.872, -150.909, 126.348, 89.3717, 0, 0, 2.35026, -53.6482, 2.35517, -173.983, 2.36494, 66.2978, 0.0257211, -93.496
1, 1380.00000, 127.136, -30.5743, 126.872, -150.909, 126.348, 89.3717, 0, 0, 2.35026, -53.6482, 2.35517, -173.983, 2.36494, 66.2978, 0.0257211, -93.496
1, 1440.00000, 127.136, -30.5743, 126.872, -150.909, 126.348, 89.3717, 0, 0, 2.35026, -53.6482, 2.35517, -173.983, 2.36494, 66.2978, 0.0257211, -93.496
1, 1500.00000, 127.136, -30.5743, 126.872, -150.909, 126.348, 89.3717, 0, 0, 2.35026, -53.6482, 2.35517, -173.983, 2.36494, 66.2978, 0.0257211, -93.496
1, 1560.00000, 127.136, -30.5743, 126.872, -150.909, 126.348, 89.3717, 0, 0, 2.35026, -53.6482, 2.35517, -173.983, 2.36494, 66.2978, 0.0257211, -93.496
1, 1620.00000, 127.136, -30.5743, 126.872, -150.909, 126.348, 89.3717, 0, 0, 2.35026, -53.6482, 2.35517, -173.983, 2.36494, 66.2978, 0.0257211, -93.496
1, 1680.00000, 127.136, -30.5743, 126.872, -150.909, 126.348, 89.3717, 0, 0, 2.35026, -53.6482, 2.35517, -173.983, 2.36494, 66.2978, 0.0257211, -93.496
1, 1740.00000, 127.136, -30.5743, 126.872, -150.909, 126.348, 89.3717, 0, 0, 2.35026, -53.6482, 2.35517, -173.983, 2.36494, 66.2978, 0.0257211, -93.496
1, 1800.00000, 127.136, -30.5743, 126.872, -150.909, 126.348, 89.3717, 0, 0, 2.35026, -53.6482, 2.35517, -173.983, 2.36494, 66.2978, 0.0257211, -93.496
1, 1860.00000, 127.136, -30.5743, 126.872, -150.909, 126.348, 89.3717, 0, 0, 2.35026, -53.6482, 2.35517, -173.983, 2.36494, 66.2978, 0.0257211, -93.496
1, 1920.00000, 127.136, -30.5743, 126.872, -150.909, 126.348, 89.3717, 0, 0, 2.35026, -53.6482, 2.35517, -173.983, 2.36494, 66.2978, 0.0257211, -93.496
1, 1980.00000, 127.136, -30.5743, 126.872, -150.909, 126.348, 89.3717, 0, 0, 2.35026, -53.6482, 2.35517, -173.983, 2.36494, 66.2978, 0.0257211, -93.496
1, 2040.00000, 127.136, -30.5743, 126.872, -150.909, 126.348, 89.3717, 0, 0, 2.35026, -53.6482, 2.35517, -173.983, 2.36494, 66.2978, 0.0257211, -93.496
1, 2100.00000, 127.136, -30.5743, 126.872, -150.909, 126.348, 89.3717, 0, 0, 2.35026, -53.6482, 2.35517, -173.983, 2.36494, 66.2978, 0.0257211, -93.496
1, 2160.00000, 127.136, -30.5743, 126.872, -150.909, 126.348, 89.3717, 0, 0, 2.35026, -53.6482, 2.35517, -173.983, 2.36494, 66.2978, 0.0257211, -93.496
1, 2220.00000, 127.136, -30.5743, 126.872, -150.909, 126.348, 89.3717, 0, 0, 2.35026, -53.6482, 2.35517, -173.983, 2.36494, 66.2978, 0.0257211, -93.496
1, 2280.00000, 127.136, -30.5743, 126.872, -150.909, 126.348, 89.3717, 0, 0, 2.35026, -53.6482, 2.35517, -173.983, 2.36494, 66.2978, 0.0257211, -93.496
1, 2340.00000, 127.136, -30.5743, 126.872, -150.909, 126.348, 89.3717, 0, 0, 2.35026, -53.6482, 2.35517, -173.983, 2.36494, 66.2978, 0.0257211, -93.496
1, 2400.00000, 127.136, -30.5743, 126.872, -150.909, 126.348, 89.3717, 0, 0, 2.35026, -53.6482, 2.35517, -173.983, 2.36494, 66.2978, 0.0257211, -93.496
1, 2460.00000, 127.136, -30.5743, 126.872, -150.909, 126.348, 89.3717, 0, 0, 2.35026, -53.6482, 2.35517, -173.983, 2.36494, 66.2978, 0.0257211, -93.496
1, 2520.00000, 127.138, -30.5737, 127.002, -150.732, 126.758, 89.4173, 0, 0, 2.35023, -53.6477, 2.35276, -173.806, 2.35732, 66.3429, 0.0125332, -89.8461
1, 2580.00000, 127.139, -30.5737, 127.003, -150.732, 126.758, 89.4173, 0, 0, 2.35023, -53.6477, 2.35274, -173.806, 2.35728, 66.3434, 0.0124904, -89.8044
1, 2640.00000, 127.139, -30.5737, 127.003, -150.732, 126.758, 89.4173, 0, 0, 2.35023, -53.6477, 2.35274, -173.806, 2.35728, 66.3434, 0.0124902, -89.8043
1, 2700.00000, 127.139, -30.5737, 127.003, -150.732, 126.758, 89.4173, 0, 0, 2.35023, -53.6477, 2.35274, -173.806, 2.35728, 66.3434, 0.0124902, -89.8043
1, 2760.00000, 127.14, -30.5733, 127.128, -150.561, 127.155, 89.4613, 0, 0, 2.3502, -53.6473, 2.35043, -173.635, 2.34994, 66.387, 0.00158488, 7.39025
1, 2820.00000, 127.14, -30.5733, 127.128, -150.561, 127.155, 89.4613, 0, 0, 2.3502, -53.6473, 2.35042, -173.635, 2.34991, 66.3874, 0.00159673, 8.23435
1, 2880.00000, 127.14, -30.5733, 127.128, -150.561, 127.155, 89.4613, 0, 0, 2.3502, -53.6473, 2.35042, -173.635, 2.34991, 66.3874, 0.00159676, 8.23712
1, 2940.00000, 127.14, -30.5733, 127.128, -150.561, 127.155, 89.4613, 0, 0, 2.3502, -53.6473, 2.35042, -173.635, 2.34991, 66.3874, 0.00159676, 8.23713
1, 3000.00000, 127.14, -30.5733, 127.128, -150.561, 127.155, 89.4613, 0, 0, 2.3502, -53.6473, 2.35042, -173.635, 2.34991, 66.3874, 0.00159676, 8.23713
1, 3060.00000, 127.14, -30.5733, 127.128, -150.561, 127.155, 89.4613, 0, 0, 2.3502, -53.6473, 2.35042, -173.635, 2.34991, 66.3874, 0.00159676, 8.23713
1, 3120.00000, 127.14, -30.5733, 127.128, -150.561, 127.155, 89.4613, 0, 0, 2.3502, -53.6473, 2.35042, -173.635, 2.34991, 66.3874, 0.00159676, 8.23713
1, 3180.00000, 127.14, -30.5733, 127.128, -150.561, 127.155, 89.4613, 0, 0, 2.3502, -53.6473, 2.35042, -173.635, 2.34991, 66.3874, 0.00159676, 8.23713
1, 3240.00000, 127.14, -30.5733, 127.128, -150.561, 127.155, 89.4613, 0, 0, 2.3502, -53.6473, 2.35042, -173.635, 2.34991, 66.3874, 0.00159676, 8.23713
1, 3300.00000, 127.14, -30.5733, 127.128, -150.561, 127.155, 89.4613, 0, 0, 2.3502, -53.6473, 2.35042, -173.635, 2.34991, 66.3874, 0.00159676, 8.23713
1, 3360.00000, 127.14, -30.5733, 127.128, -150.561, 127.155, 89.4613, 0, 0, 2.3502, -53.6473, 2.35042, -173.635, 2.34991, 66.3874, 0.00159676, 8.23713
1, 3420.00000, 127.14, -30.5733, 127.128, -150.561, 127.155, 89.4613, 0, 0, 2.3502, -53.6473, 2.35042, -173.635, 2.34991, 66.3874, 0.00159676, 8.23713
1, 3480.00000, 127.14, -30.5733, 127.128, -150.561, 127.155, 89.4613, 0, 0, 2.3502, -53.6473, 2.35042, -173.635, 2.34991, 66.3874, 0.00159676, 8.23713
1, 3540.00000, 127.14, -30.5733, 127.128, -150.561, 127.155, 89.4613, 0, 0, 2.3502, -53.6473, 2.35042, -173.635, 2.34991, 66.3874, 0.00159676, 8.23713
2, 0.00000, 127.14, -30.5733, 127.128, -150.561, 127.155, 89.4613, 0, 0, 2.3502, -53.6473, 2.35042, -173.635, 2.34991, 66.3874, 0.00159676, 8.23713
2, 60.00000, 127.14, -30.5733, 127.128, -150.561, 127.155, 89.4613, 0, 0, 2.3502, -53.6473, 2.35042, -173.635, 2.34991, 66.3874, 0.00159676, 8.23713
2, 120.00000, 127.136, -30.5745, 127.125, -150.562, 127.152, 89.4602, 0, 0, 2.35676, -53.6483, 2.35699, -173.636, 2.35648, 66.3864, 0.0016009, 8.30596
2, 180.00000, 127.133, -30.5756, 127.121, -150.563, 127.148, 89.4591, 0, 0, 2.36341, -53.6495, 2.36363, -173.637, 2.36313, 66.3852, 0.00160486, 8.36209
2, 240.00000, 127.129, -30.5767, 127.117, -150.564, 127.145, 89.458, 0, 0, 2.36998, -53.6506, 2.3702, -173.638, 2.3697, 66.3841, 0.00160876, 8.41722
2, 300.00000, 127.125, -30.5778, 127.114, -150.565, 127.141, 89.4569, 0, 0, 2.37656, -53.6517, 2.37677, -173.639, 2.37627, 66.383, 0.00161266, 8.47259
2, 360.00000, 127.122, -30.579, 127.11, -150.566, 127.137, 89.4558, 0, 0, 2.38321, -53.6528, 2.38342, -173.64, 2.38291, 66.3819, 0.00161661, 8.52886
2, 420.00000, 127.118, -30.5801, 127.107, -150.567, 127.134, 89.4547, 0, 0, 2.38978, -53.6539, 2.39, -173.641, 2.38948, 66.3808, 0.00162051, 8.5842
2, 480.00000, 127.114, -30.5812, 127.103, -150.568, 127.13, 89.4536, 0, 0, 2.39635, -53.6551, 2.39657, -173.642, 2.39605, 66.3797, 0.0016244, 8.63977
2, 540.00000, 127.111, -30.5823, 127.099, -150.57, 127.126, 89.4525, 0, 0, 2.403, -53.6562, 2.40322, -173.643, 2.4027, 66.3786, 0.00162835, 8.69624
2, 600.00000, 127.107, -30.5835, 127.096, -150.571, 127.123, 89.4514, 0, 0, 2.40958, -53.6573, 2.40979, -173.645, 2.40928, 66.3775, 0.00163224, 8.75179
2, 660.00000, 127.103, -30.5846, 127.092, -150.572, 127.119, 89.4503, 0, 0, 2.41615, -53.6584, 2.41636, -173.646, 2.41585, 66.3764, 0.00163613, 8.80757
