hour,t(sec),V1,VAngle1,V2,VAngle2,V3,VAngle3,V4,VAngle4,I1,IAngle1,I2,IAngle2,I3,IAngle3,I4,IAngle4
0, 60.00000, 128.026, -30.5925, 127.348, -151.295, 126.226, 89.4377, 0, 0, 2.22443, -53.6664, 2.23625, -174.369, 2.25613, 66.3638, 0.0555547, -86.9396
0, 120.00000, 128.049, -30.5928, 127.359, -151.304, 126.226, 89.4376, 0, 0, 2.22404, -53.6666, 2.23606, -174.377, 2.25613, 66.3637, 0.0562113, -86.8853
0, 180.00000, 128.069, -30.593, 127.368, -151.311, 126.226, 89.4376, 0, 0, 2.22369, -53.6668, 2.2359, -174.385, 2.25613, 66.3637, 0.0568022, -86.8373
0, 240.00000, 128.087, -30.5932, 127.377, -151.318, 126.226, 89.4376, 0, 0, 2.22337, -53.667, 2.23575, -174.392, 2.25613, 66.3637, 0.0573341, -86.7946
0, 300.00000, 128.103, -30.5934, 127.384, -151.324, 126.226, 89.4375, 0, 0, 2.22309, -53.6672, 2.23562, -174.398, 2.25613, 66.3636, 0.0578129, -86.7567
0, 360.00000, 128.118, -30.5935, 127.391, -151.329, 126.226, 89.4375, 0, 0, 2.22283, -53.6674, 2.2355, -174.403, 2.25613, 66.3636, 0.0582438, -86.723
0, 420.00000, 128.131, -30.5937, 127.397, -151.334, 126.226, 89.4375, 0, 0, 2.2226, -53.6675, 2.23539, -174.408, 2.25613, 66.3636, 0.0586317, -86.6929
0, 480.00000, 128.143, -30.5938, 127.402, -151.339, 126.226, 89.4375, 0, 0, 2.22239, -53.6677, 2.2353, -174.413, 2.25613, 66.3636, 0.0589808, -86.666
0, 540.00000, 128.154, -30.5939, 127.407, -151.343, 126.226, 89.4375, 0, 0, 2.2222, -53.6678, 2.23521, -174.417, 2.25613, 66.3636, 0.0592951, -86.6421
0, 600.00000, 128.164, -30.5941, 127.412, -151.347, 126.226, 89.4374, 0, 0, 2.22204, -53.6679, 2.23513, -174.42, 2.25613, 66.3635, 0.0595779, -86.6206
0, 660.00000, 128.172, -30.5942, 127.416, -151.35, 126.226, 89.4374, 0, 0, 2.22188, -53.668, 2.23506, -174.424, 2.25613, 66.3635, 0.0598325, -86.6015
0, 720.00000, 128.18, -30.5943, 127.419, -151.353, 126.226, 89.4374, 0, 0, 2.22175, -53.6681, 2.235, -174.427, 2.25613, 66.3635, 0.0600616, -86.5843
0, 780.00000, 128.187, -30.5943, 127.423, -151.355, 126.226, 89.4374, 0, 0, 2.22162, -53.6682, 2.23494, -174.429, 2.25613, 66.3635, 0.0602678, -86.569
0, 840.00000, 128.193, -30.5944, 127.426, -151.358, 126.226, 89.4374, 0, 0, 2.22151, -53.6683, 2.23489, -174.432, 2.25613, 66.3635, 0.0604534, -86.5552
0, 900.00000, 128.199, -30.5945, 127.428, -151.36, 126.226, 89.4374, 0, 0, 2.22141, -53.6684, 2.23485, -174.434, 2.25613, 66.3635, 0.0606204, -86.5429
0, 960.00000, 128.204, -30.5946, 127.431, -151.362, 126.226, 89.4374, 0, 0, 2.22132, -53.6685, 2.2348, -174.436, 2.25613, 66.3635, 0.0607708, -86.5318
0, 1020.00000, 128.209, -30.5946, 127.433, -151.363, 126.226, 89.4374, 0, 0, 2.22124, -53.6685, 2.23477, -174.437, 2.25613, 66.3635, 0.0609061, -86.5219
0, 1080.00000, 128.213, -30.5947, 127.435, -151.365, 126.226, 89.4374, 0, 0, 2.22117, -53.6686, 2.23473, -174.439, 2.25613, 66.3634, 0.0610279, -86.513
0, 1140.00000, 128.217, -30.5947, 127.436, -151.366, 126.226, 89.4374, 0, 0, 2.22111, -53.6686, 2.2347, -174.44, 2.25613, 66.3634, 0.0611375, -86.505
0, 1200.00000, 128.22, -30.5948, 127.438, -151.368, 126.226, 89.4374, 0, 0, 2.22105, -53.6687, 2.23468, -174.442, 2.25613, 66.3634, 0.0612362, -86.4978
0, 1260.00000, 128.223, -30.5948, 127.439, -151.369, 126.226, 89.4373, 0, 0, 2.22099, -53.6687, 2.23465, -174.443, 2.25613, 66.3634, 0.061325, -86.4913
0, 1320.00000, 128.226, -30.5948, 127.441, -151.37, 126.226, 89.4373, 0, 0, 2.22095, -53.6687, 2.23463, -174.444, 2.25613, 66.3634, 0.0614049, -86.4855
0, 1380.00000, 128.228, -30.5949, 127.442, -151.371, 126.226, 89.4373, 0, 0, 2.2209, -53.6688, 2.23461, -174.445, 2.25613, 66.3634, 0.0614768, -86.4803
0, 1440.00000, 128.231, -30.5949, 127.443, -151.372, 126.226, 89.4373, 0, 0, 2.22087, -53.6688, 2.23459, -174.445, 2.25613, 66.3634, 0.0615415, -86.4756
0, 1500.00000, 128.233, -30.5949, 127.444, -151.372, 126.226, 89.4373, 0, 0, 2.22083, -53.6688, 2.23458, -174.446, 2.25613, 66.3634, 0.0615998, -86.4714
0, 1560.00000, 128.234, -30.5949, 127.444, -151.373, 126.226, 89.4373, 0, 0, 2.2208, -53.6689, 2.23456, -174.447, 2.25613, 66.3634, 0.0616522, -86.4677
0, 1620.00000, 128.236, -30.595, 127.445, -151.374, 126.226, 89.4373, 0, 0, 2.22077, -53.6689, 2.23455, -174.448, 2.25613, 66.3634, 0.0616994, -86.4643
0, 1680.00000, 128.237, -30.595, 127.446, -151.374, 126.226, 89.4373, 0, 0, 2.22075, -53.6689, 2.23454, -174.448, 2.25613, 66.3634, 0.0617419, -86.4612
0, 1740.00000, 128.239, -30.595, 127.446, -151.375, 126.226, 89.4373, 0, 0, 2.22072, -53.6689, 2.23453, -174.449, 2.25613, 66.3634, 0.0617801, -86.4585
0, 1800.00000, 128.24, -30.595, 127.447, -151.375, 126.226, 89.4373, 0, 0, 2.2207, -53.6689, 2.23452, -174.449, 2.25613, 66.3634, 0.0618145, -86.456
0, 1860.00000, 128.241, -30.595, 127.448, -151.375, 126.226, 89.4373, 0, 0, 2.22069, -53.6689, 2.23451, -174.449, 2.25613, 66.3634, 0.0618455, -86.4538
0, 1920.00000, 128.242, -30.595, 127.448, -151.376, 126.226, 89.4373, 0, 0, 2.22067, -53.669, 2.2345, -174.45, 2.25613, 66.3634, 0.0618733, -86.4518
0, 1980.00000, 128.243, -30.5951, 127.448, -151.376, 126.226, 89.4373, 0, 0, 2.22065, -53.669, 2.23449, -174.45, 2.25613, 66.3634, 0.0618984, -86.45
0, 2040.00000, 128.244, -30.5951, 127.449, -151.376, 126.226, 89.4373, 0, 0, 2.22064, -53.669, 2.23449, -174.45, 2.25613, 66.3634, 0.061921, -86.4484
0, 2100.00000, 128.244, -30.5951, 127.449, -151.377, 126.226, 89.4373, 0, 0, 2.22063, -53.669, 2.23448, -174.451, 2.25613, 66.3634, 0.0619413, -86.4469
0, 2160.00000, 128.245, -30.5951, 127.449, -151.377, 126.226, 89.4373, 0, 0, 2.22062, -53.669, 2.23448, -174.451, 2.25613, 66.3634, 0.0619596, -86.4456
0, 2220.00000, 128.245, -30.5951, 127.45, -151.377, 126.226, 89.4373, 0, 0, 2.22061, -53.669, 2.23447, -174.451, 2.25613, 66.3634, 0.061976, -86.4444
0, 2280.00000, 128.246, -30.5951, 127.45, -151.377, 126.226, 89.4373, 0, 0, 2.2206, -53.669, 2.23447, -174.451, 2.25613, 66.3634, 0.0619909, -86.4434
0, 2340.00000, 128.246, -30.5951, 127.45, -151.378, 126.226, 89.4373, 0, 0, 2.22059, -53.669, 2.23447, -174.451, 2.25613, 66.3634, 0.0620042, -86.4424
0, 2400.00000, 128.247, -30.5951, 127.45, -151.378, 126.226, 89.4373, 0, 0, 2.22058, -53.669, 2.23446, -174.452, 2.25613, 66.3634, 0.0620162, -86.4415
0, 2460.00000, 128.247, -30.5951, 127.45, -151.378, 126.226, 89.4373, 0, 0, 2.22058, -53.669, 2.23446, -174.452, 2.25613, 66.3634, 0.062027, -86.4408
0, 2520.00000, 128.247, -30.5951, 127.451, -151.378, 126.226, 89.4373, 0, 0, 2.22057, -53.669, 2.23446, -174.452, 2.25613, 66.3634, 0.0620367, -86.4401
0, 2580.00000, 128.248, -30.5951, 127.451, -151.378, 126.226, 89.4373, 0, 0, 2.22057, -53.669, 2.23445, -174.452, 2.25613, 66.3634, 0.0620454, -86.4395
0, 2640.00000, 128.248, -30.5951, 127.451, -151.378, 126.226, 89.4373, 0, 0, 2.22056, -53.669, 2.23445, -174.452, 2.25613, 66.3634, 0.0620533, -86.4389
0, 2700.00000, 128.248, -30.5951, 127.451, -151.378, 126.226, 89.4373, 0, 0, 2.22056, -53.669, 2.23445, -174.452, 2.25613, 66.3634, 0.0620604, -86.4384
0, 2760.00000, 128.249, -30.5951, 127.451, -151.378, 126.226, 89.4373, 0, 0, 2.22055, -53.669, 2.23445, -174.452, 2.25613, 66.3634, 0.0620668, -86.4379
0, 2820.00000, 128.249, -30.5951, 127.451, -151.378, 126.226, 89.4373, 0, 0, 2.22055, -53.669, 2.23445, -174.452, 2.25613, 66.3634, 0.0620725, -86.4375
0, 2880.00000, 128.249, -30.5951, 127.451, -151.378, 126.226, 89.4373, 0, 0, 2.22055, -53.669, 2.23445, -174.452, 2.25613, 66.3634, 0.0620777, -86.4372
0, 2940.00000, 128.249, -30.5951, 127.451, -151.379, 126.226, 89.4373, 0, 0, 2.22054, -53.6691, 2.23444, -174.452, 2.25613, 66.3634, 0.0620823, -86.4368
0, 3000.00000, 128.249, -30.5951, 127.451, -151.379, 126.226, 89.4373, 0, 0, 2.22054, -53.6691, 2.23444, -174.452, 2.25613, 66.3634, 0.0620865, -86.4365
0, 3060.00000, 128.249, -30.5951, 127.451, -151.379, 126.226, 89.4373, 0, 0, 2.22054, -53.6691, 2.23444, -174.453, 2.25613, 66.3634, 0.0620903, -86.4363
0, 3120.00000, 128.249, -30.5951, 127.451, -151.379, 126.226, 89.4373, 0, 0, 2.22054, -53.6691, 2.23444, -174.453, 2.25613, 66.3634, 0.0620937, -86.436
0, 3180.00000, 128.25, -30.5951, 127.451, -151.379, 126.226, 89.4373, 0, 0, 2.22054, -53.6691, 2.23444, -174.453, 2.25613, 66.3634, 0.0620967, -86.4358
0, 3240.00000, 128.25, -30.5951, 127.451, -151.379, 126.226, 89.4373, 0, 0, 2.22053, -53.6691, 2.23444, -174.453, 2.25613, 66.3634, 0.0620994, -86.4356
0, 3300.00000, 128.25, -30.5951, 127.452, -151.379, 126.226, 89.4373, 0, 0, 2.22053, -53.6691, 2.23444, -174.453, 2.25613, 66.3634, 0.0621019, -86.4354
0, 3360.00000, 128.25, -30.5951, 127.452, -151.379, 126.226, 89.4373, 0, 0, 2.22053, -53.6691, 2.23444, -174.453, 2.25613, 66.3634, 0.0621041, -86.4353
0, 3420.00000, 128.25, -30.5951, 127.452, -151.379, 126.226, 89.4373, 0, 0, 2.22053, -53.6691, 2.23444, -174.453, 2.25613, 66.3634, 0.0621061, -86.4351
0, 3480.00000, 128.25, -30.5951, 127.452, -151.379, 126.226, 89.4373, 0, 0, 2.22053, -53.6691, 2.23444, -174.453, 2.25613, 66.3634, 0.0621079, -86.435
0, 3540.00000, 128.25, -30.5951, 127.452, -151.379, 126.226, 89.4373, 0, 0, 2.22053, -53.6691, 2.23444, -174.453, 2.25613, 66.3634, 0.0621096, -86.4349
1, 0.00000, 128.25, -30.5951, 127.452, -151.379, 126.226, 89.4373, 0, 0, 2.22053, -53.6691, 2.23444, -174.453, 2.25613, 66.3634, 0.062111, -86.4348
1, 60.00000, 128.25, -30.5951, 127.452, -151.379, 126.226, 89.4373, 0, 0, 2.22053, -53.6691, 2.23444, -174.453, 2.25613, 66.3634, 0.0621123, -86.4347
1, 120.00000, 128.25, -30.5951, 127.452, -151.379, 126.226, 89.4373, 0, 0, 2.22053, -53.6691, 2.23444, -174.453, 2.25613, 66.3634, 0.0621135, -86.4346
1, 180.00000, 128.25, -30.5951, 127.452, -151.379, 126.226, 89.4373, 0, 0, 2.22053, -53.6691, 2.23444, -174.453, 2.25613, 66.3634, 0.0621146, -86.4345
1, 240.00000, 128.25, -30.5951, 127.452, -151.379, 126.226, 89.4373, 0, 0, 2.22052, -53.6691, 2.23443, -174.453, 2.25613, 66.3634, 0.0621155, -86.4345
1, 300.00000, 128.25, -30.5951, 127.452, -151.379, 126.226, 89.4373, 0, 0, 2.22052, -53.6691, 2.23443, -174.453, 2.25613, 66.3634, 0.0621164, -86.4344
1, 360.00000, 128.25, -30.5951, 127.452, -151.379, 126.226, 89.4373, 0, 0, 2.22052, -53.6691, 2.23443, -174.453, 2.25613, 66.3634, 0.0621172, -86.4343
1, 420.00000, 128.25, -30.5951, 127.452, -151.379, 126.226, 89.4373, 0, 0, 2.22052, -53.6691, 2.23443, -174.453, 2.25613, 66.3634, 0.0621179, -86.4343
1, 480.00000, 128.25, -30.5951, 127.452, -151.379, 126.226, 89.4373, 0, 0, 2.22052, -53.6691, 2.23443, -174.453, 2.25613, 66.3634, 0.0621185, -86.4342
1, 540.00000, 128.25, -30.5951, 127.452, -151.379, 126.226, 89.4373, 0, 0, 2.22052, -53.6691, 2.23443, -174.453, 2.25613, 66.3634, 0.0621191, -86.4342
1, 600.00000, 128.25, -30.5952, 127.452, -151.379, 126.226, 89.4373, 0, 0, 2.22052, -53.6691, 2.23443, -174.453, 2.25613, 66.3634, 0.0621196, -86.4342
1, 660.00000, 128.25, -30.5952, 127.452, -151.379, 126.226, 89.4373, 0, 0, 2.22052, -53.6691, 2.23443, -174.453, 2.25613, 66.3634, 0.06212, -86.4341
1, 720.00000, 128.25, -30.5952, 127.452, -151.379, 126.226, 89.4373, 0, 0, 2.22052, -53.6691, 2.23443, -174.453, 2.25613, 66.3634, 0.0621204, -86.4341
1, 780.00000, 128.25, -30.5952, 127.452, -151.379, 126.226, 89.4373, 0, 0, 2.22052, -53.6691, 2.23443, -174.453, 2.25613, 66.3634, 0.0621208, -86.4341
1, 840.00000, 128.25, -30.5952, 127.452, -151.379, 126.226, 89.4373, 0, 0, 2.22052, -53.6691, 2.23443, -174.453, 2.25613, 66.3634, 0.0621211, -86.4341
1, 900.00000, 128.25, -30.5952, 127.452, -151.379, 126.226, 89.4373, 0, 0, 2.22052, -53.6691, 2.23443, -174.453, 2.25613, 66.3634, 0.0621214, -86.434
1, 960.00000, 128.25, -30.5952, 127.452, -151.379, 126.226, 89.4373, 0, 0, 2.22052, -53.6691, 2.23443, -174.453, 2.25613, 66.3634, 0.0621217, -86.434
1, 1020.00000, 128.25, -30.5952, 127.452, -151.379, 126.226, 89.4373, 0, 0, 2.22052, -53.6691, 2.23443, -174.453, 2.25613, 66.3634, 0.062122, -86.434
1, 1080.00000, 128.25, -30.5952, 127.452, -151.379, 126.226, 89.4373, 0, 0, 2.22052, -53.6691, 2.23443, -174.453, 2.25613, 66.3634, 0.0621222, -86.434
1, 1140.00000, 128.25, -30.5952, 127.452, -151.379, 126.226, 89.4373, 0, 0, 2.22052, -53.6691, 2.23443, -174.453, 2.25613, 66.3634, 0.0621224, -86.434
1, 1200.00000, 128.25, -30.5952, 127.452, -151.379, 126.226, 89.4373, 0, 0, 2.22052, -53.6691, 2.23443, -174.453, 2.25613, 66.3634, 0.0621226, -86.434
1, 1260.00000, 128.25, -30.5952, 127.452, -151.379, 126.226, 89.4373, 0, 0, 2.22052, -53.6691, 2.23443, -174.453, 2.25613, 66.3634, 0.0621227, -86.4339
1, 1320.00000, 128.25, -30.5952, 127.452, -151.379, 126.226, 89.4373, 0, 0, 2.22052, -53.6691, 2.23443, -174.453, 2.25613, 66.3634, 0.0621229, -86.4339
1, 1380.00000, 128.25, -30.5952, 127.452, -151.379, 126.226, 89.4373, 0, 0, 2.22052, -53.6691, 2.23443, -174.453, 2.25613, 66.3634, 0.062123, -86.4339
1, 1440.00000, 128.25, -30.5952, 127.452, -151.379, 126.226, 89.4373, 0, 0, 2.22052, -53.6691, 2.23443, -174.453, 2.25613, 66.3634, 0.0621231, -86.4339
1, 1500.00000, 128.25, -30.5952, 127.452, -151.379, 126.226, 89.4373, 0, 0, 2.22052, -53.6691, 2.23443, -174.453, 2.25613, 66.3634, 0.0621232, -86.4339
1, 1560.00000, 128.25, -30.5952, 127.452, -151.379, 126.226, 89.4373, 0, 0, 2.22052, -53.6691, 2.23443, -174.453, 2.25613, 66.3634, 0.0621233, -86.4339
1, 1620.00000, 128.25, -30.5952, 127.452, -151.379, 126.226, 89.4373, 0, 0, 2.22052, -53.6691, 2.23443, -174.453, 2.25613, 66.3634, 0.0621234, -86.4339
1, 1680.00000, 128.25, -30.5952, 127.452, -151.379, 126.226, 89.4373, 0, 0, 2.22052, -53.6691, 2.23443, -174.453, 2.25613, 66.3634, 0.0621235, -86.4339
1, 1740.00000, 128.25, -30.5952, 127.452, -151.379, 126.226, 89.4373, 0, 0, 2.22052, -53.6691, 2.23443, -174.453, 2.25613, 66.3634, 0.0621235, -86.4339
1, 1800.00000, 128.25, -30.5952, 127.452, -151.379, 126.226, 89.4373, 0, 0, 2.22052, -53.6691, 2.23443, -174.453, 2.25613, 66.3634, 0.0621236, -86.4339
1, 1860.00000, 128.25, -30.5952, 127.452, -151.379, 126.226, 89.4373, 0, 0, 2.22052, -53.6691, 2.23443, -174.453, 2.25613, 66.3634, 0.0621236, -86.4339
1, 1920.00000, 128.25, -30.5952, 127.452, -151.379, 126.226, 89.4373, 0, 0, 2.22052, -53.6691, 2.23443, -174.453, 2.25613, 66.3634, 0.0621237, -86.4339
1, 1980.00000, 128.25, -30.5952, 127.452, -151.379, 126.226, 89.4373, 0, 0, 2.22052, -53.6691, 2.23443, -174.453, 2.25613, 66.3634, 0.0621237, -86.4339
1, 2040.00000, 128.25, -30.5952, 127.452, -151.379, 126.226, 89.4373, 0, 0, 2.22052, -53.6691, 2.23443, -174.453, 2.25613, 66.3634, 0.0621238, -86.4339
1, 2100.00000, 128.25, -30.5952, 127.452, -151.379, 126.226, 89.4373, 0, 0, 2.22052, -53.6691, 2.23443, -174.453, 2.25613, 66.3634, 0.0621238, -86.4339
1, 2160.00000, 128.25, -30.5952, 127.452, -151.379, 126.226, 89.4373, 0, 0, 2.22052, -53.6691, 2.23443, -174.453, 2.25613, 66.3634, 0.0621239, -86.4339
1, 2220.00000, 128.25, -30.5952, 127.452, -151.379, 126.226, 89.4373, 0, 0, 2.22052, -53.6691, 2.23443, -174.453, 2.25613, 66.3634, 0.0621239, -86.4339
1, 2280.00000, 128.25, -30.5952, 127.452, -151.379, 126.226, 89.4373, 0, 0, 2.22052, -53.6691, 2.23443, -174.453, 2.25613, 66.3634, 0.0621239, -86.4339
1, 2340.00000, 128.25, -30.5952, 127.452, -151.379, 126.226, 89.4373, 0, 0, 2.22052, -53.6691, 2.23443, -174.453, 2.25613, 66.3634, 0.0621239, -86.4339
1, 2400.00000, 128.25, -30.5952, 127.452, -151.379, 126.226, 89.4373, 0, 0, 2.22052, -53.6691, 2.23443, -174.453, 2.25613, 66.3634, 0.062124, -86.4339
1, 2460.00000, 128.25, -30.5952, 127.452, -151.379, 126.226, 89.4373, 0, 0, 2.22052, -53.6691, 2.23443, -174.453, 2.25613, 66.3634, 0.062124, -86.4339
1, 2520.00000, 128.25, -30.5952, 127.452, -151.379, 126.226, 89.4373, 0, 0, 2.22052, -53.6691, 2.23443, -174.453, 2.25613, 66.3634, 0.062124, -86.4339
1, 2580.00000, 128.25, -30.5952, 127.452, -151.379, 126.226, 89.4373, 0, 0, 2.22052, -53.6691, 2.23443, -174.453, 2.25613, 66.3634, 0.062124, -86.4338
1, 2640.00000, 128.25, -30.5952, 127.452, -151.379, 126.226, 89.4373, 0, 0, 2.22052, -53.6691, 2.23443, -174.453, 2.25613, 66.3634, 0.062124, -86.4338
1, 2700.00000, 128.25, -30.5952, 127.452, -151.379, 126.226, 89.4373, 0, 0, 2.22052, -53.6691, 2.23443, -174.453, 2.25613, 66.3634, 0.062124, -86.4338
1, 2760.00000, 128.25, -30.5952, 127.452, -151.379, 126.226, 89.4373, 0, 0, 2.22052, -53.6691, 2.23443, -174.453, 2.25613, 66.3634, 0.062124, -86.4338
1, 2820.00000, 128.25, -30.5952, 127.452, -151.379, 126.226, 89.4373, 0, 0, 2.22052, -53.6691, 2.23443, -174.453, 2.25613, 66.3634, 0.0621241, -86.4338
1, 2880.00000, 128.25, -30.5952, 127.452, -151.379, 126.226, 89.4373, 0, 0, 2.22052, -53.6691, 2.23443, -174.453, 2.25613, 66.3634, 0.0621241, -86.4338
1, 2940.00000, 128.25, -30.5952, 127.452, -151.379, 126.226, 89.4373, 0, 0, 2.22052, -53.6691, 2.23443, -174.453, 2.25613, 66.3634, 0.0621241, -86.4338
1, 3000.00000, 128.25, -30.5952, 127.452, -151.379, 126.226, 89.4373, 0, 0, 2.22052, -53.6691, 2.23443, -174.453, 2.25613, 66.3634, 0.0621241, -86.4338
1, 3060.00000, 128.25, -30.5952, 127.452, -151.379, 126.226, 89.4373, 0, 0, 2.22052, -53.6691, 2.23443, -174.453, 2.25613, 66.3634, 0.0621241, -86.4338
1, 3120.00000, 128.25, -30.5952, 127.452, -151.379, 126.226, 89.4373, 0, 0, 2.22052, -53.6691, 2.23443, -174.453, 2.25613, 66.3634, 0.0621241, -86.4338
1, 3180.00000, 128.25, -30.5952, 127.452, -151.379, 126.226, 89.4373, 0, 0, 2.22052, -53.6691, 2.23443, -174.453, 2.25613, 66.3634, 0.0621241, -86.4338
1, 3240.00000, 128.25, -30.5952, 127.452, -151.379, 126.226, 89.4373, 0, 0, 2.22052, -53.6691, 2.23443, -174.453, 2.25613, 66.3634, 0.0621241, -86.4338
1, 3300.00000, 128.25, -30.5952, 127.452, -151.379, 126.226, 89.4373, 0, 0, 2.22052, -53.6691, 2.23443, -174.453, 2.25613, 66.3634, 0.0621241, -86.4338
1, 3360.00000, 128.25, -30.5952, 127.452, -151.379, 126.226, 89.4373, 0, 0, 2.22052, -53.6691, 2.23443, -174.453, 2.25613, 66.3634, 0.0621241, -86.4338
1, 3420.00000, 128.25, -30.5952, 127.452, -151.379, 126.226, 89.4373, 0, 0, 2.22052, -53.6691, 2.23443, -174.453, 2.25613, 66.3634, 0.0621241, -86.4338
1, 3480.00000, 128.25, -30.5952, 127.452, -151.379, 126.226, 89.4373, 0, 0, 2.22052, -53.6691, 2.23443, -174.453, 2.25613, 66.3634, 0.0621241, -86.4338
1, 3540.00000, 128.25, -30.5952, 127.452, -151.379, 126.226, 89.4373, 0, 0, 2.22052, -53.6691, 2.23443, -174.453, 2.25613, 66.3634, 0.0621241, -86.4338
2, 0.00000, 128.25, -30.5952, 127.452, -151.379, 126.226, 89.4373, 0, 0, 2.22052, -53.6691, 2.23443, -174.453, 2.25613, 66.3634, 0.0621241, -86.4338
2, 60.00000, 128.25, -30.5952, 127.452, -151.379, 126.226, 89.4373, 0, 0, 2.22052, -53.6691, 2.23443, -174.453, 2.25613, 66.3634, 0.0621241, -86.4338
2, 120.00000, 128.245, -30.5963, 127.447, -151.38, 126.221, 89.4362, 0, 0, 2.22675, -53.6702, 2.2407, -174.454, 2.26247, 66.3623, 0.0622923, -86.4385
2, 180.00000, 128.24, -30.5975, 127.442, -151.381, 126.216, 89.4351, 0, 0, 2.23307, -53.6714, 2.24704, -174.455, 2.26888, 66.3611, 0.0624624, -86.4431
2, 240.00000, 128.234, -30.5987, 127.437, -151.382, 126.211, 89.4339, 0, 0, 2.2393, -53.6726, 2.25331, -174.456, 2.27521, 66.36, 0.0626304, -86.4477
2, 300.00000, 128.229, -30.5998, 127.432, -151.383, 126.206, 89.4328, 0, 0, 2.24554, -53.6737, 2.25958, -174.457, 2.28154, 66.3589, 0.0627985, -86.4524
2, 360.00000, 128.224, -30.601, 127.427, -151.384, 126.201, 89.4317, 0, 0, 2.25185, -53.6749, 2.26593, -174.458, 2.28795, 66.3578, 0.0629685, -86.457
2, 420.00000, 128.218, -30.6022, 127.422, -151.385, 126.196, 89.4306, 0, 0, 2.25809, -53.6761, 2.2722, -174.459, 2.29429, 66.3566, 0.0631365, -86.4617
2, 480.00000, 128.213, -30.6033, 127.417, -151.386, 126.191, 89.4294, 0, 0, 2.26433, -53.6772, 2.27847, -174.46, 2.30062, 66.3555, 0.0633045, -86.4663
2, 540.00000, 128.208, -30.6045, 127.413, -151.387, 126.185, 89.4283, 0, 0, 2.27064, -53.6784, 2.28482, -174.461, 2.30704, 66.3544, 0.0634745, -86.471
2, 600.00000, 128.203, -30.6057, 127.408, -151.389, 126.18, 89.4272, 0, 0, 2.27688, -53.6796, 2.29109, -174.462, 2.31337, 66.3533, 0.0636424, -86.4756
2, 660.00000, 128.197, -30.6068, 127.403, -151.39, 126.175, 89.4261, 0, 0, 2.28312, -53.6807, 2.29736, -174.464, 2.31971, 66.3521, 0.0638103, -86.4802
