hour,t(sec),V1,VAngle1,V2,VAngle2,V3,VAngle3,V4,VAngle4,I1,IAngle1,I2,IAngle2,I3,IAngle3,I4,IAngle4
0, 60.00000, 125.671, -31.0784, 127.936, -150.598, 127.708, 88.3698, 0, 0, 2.59044, -54.1524, 2.54461, -173.672, 2.54912, 65.2961, 0.0835855, 129.607
0, 120.00000, 125.671, -31.0784, 127.958, -150.598, 127.718, 88.3615, 0, 0, 2.59043, -54.1524, 2.54416, -173.672, 2.54892, 65.2878, 0.0842427, 129.849
0, 180.00000, 125.672, -31.0783, 127.978, -150.599, 127.728, 88.3539, 0, 0, 2.59043, -54.1523, 2.54376, -173.672, 2.54873, 65.2802, 0.0848352, 130.065
0, 240.00000, 125.672, -31.0783, 127.996, -150.599, 127.736, 88.3472, 0, 0, 2.59043, -54.1522, 2.5434, -173.673, 2.54856, 65.2734, 0.0853695, 130.256
0, 300.00000, 126.074, -31.0345, 128.015, -150.596, 127.876, 88.5126, 0, 0, 2.58217, -54.1084, 2.54304, -173.67, 2.54577, 65.4389, 0.0721679, 128.027
0, 360.00000, 126.074, -31.0344, 128.029, -150.596, 127.883, 88.5071, 0, 0, 2.58217, -54.1084, 2.54275, -173.67, 2.54564, 65.4334, 0.072592, 128.222
0, 420.00000, 126.074, -31.0344, 128.042, -150.596, 127.889, 88.5022, 0, 0, 2.58217, -54.1083, 2.54248, -173.67, 2.54552, 65.4284, 0.0729744, 128.395
0, 480.00000, 126.074, -31.0344, 128.054, -150.597, 127.895, 88.4977, 0, 0, 2.58217, -54.1083, 2.54225, -173.67, 2.54541, 65.424, 0.0733191, 128.55
0, 540.00000, 126.074, -31.0343, 128.065, -150.597, 127.899, 88.4937, 0, 0, 2.58217, -54.1083, 2.54204, -173.671, 2.54531, 65.4199, 0.0736298, 128.688
0, 600.00000, 126.074, -31.0343, 128.074, -150.597, 127.904, 88.4901, 0, 0, 2.58217, -54.1083, 2.54185, -173.671, 2.54522, 65.4163, 0.0739098, 128.811
0, 660.00000, 126.074, -31.0343, 128.083, -150.597, 127.908, 88.4869, 0, 0, 2.58216, -54.1082, 2.54167, -173.671, 2.54514, 65.4131, 0.074162, 128.921
0, 720.00000, 126.074, -31.0343, 128.091, -150.597, 127.912, 88.484, 0, 0, 2.58216, -54.1082, 2.54152, -173.671, 2.54507, 65.4101, 0.0743892, 129.019
0, 780.00000, 126.074, -31.0343, 128.098, -150.597, 127.915, 88.4813, 0, 0, 2.58216, -54.1082, 2.54138, -173.671, 2.545, 65.4075, 0.0745939, 129.107
0, 840.00000, 126.074, -31.0343, 128.104, -150.597, 127.918, 88.479, 0, 0, 2.58216, -54.1082, 2.54125, -173.671, 2.54495, 65.4051, 0.0747782, 129.186
0, 900.00000, 126.074, -31.0342, 128.109, -150.597, 127.92, 88.4768, 0, 0, 2.58216, -54.1082, 2.54114, -173.671, 2.54489, 65.403, 0.0749442, 129.257
0, 960.00000, 126.074, -31.0342, 128.115, -150.597, 127.923, 88.4749, 0, 0, 2.58216, -54.1082, 2.54104, -173.671, 2.54485, 65.401, 0.0750937, 129.321
0, 1020.00000, 126.074, -31.0342, 128.119, -150.597, 127.925, 88.4732, 0, 0, 2.58216, -54.1082, 2.54095, -173.671, 2.5448, 65.3993, 0.0752284, 129.377
0, 1080.00000, 126.074, -31.0342, 128.123, -150.598, 127.927, 88.4716, 0, 0, 2.58216, -54.1081, 2.54087, -173.671, 2.54477, 65.3978, 0.0753496, 129.428
0, 1140.00000, 126.074, -31.0342, 128.127, -150.598, 127.928, 88.4702, 0, 0, 2.58216, -54.1081, 2.54079, -173.671, 2.54473, 65.3963, 0.0754588, 129.474
0, 1200.00000, 126.074, -31.0342, 128.13, -150.598, 127.93, 88.469, 0, 0, 2.58216, -54.1081, 2.54073, -173.672, 2.5447, 65.3951, 0.075557, 129.515
0, 1260.00000, 126.074, -31.0342, 128.133, -150.598, 127.931, 88.4678, 0, 0, 2.58216, -54.1081, 2.54067, -173.672, 2.54467, 65.394, 0.0756455, 129.552
0, 1320.00000, 126.074, -31.0342, 128.136, -150.598, 127.933, 88.4668, 0, 0, 2.58216, -54.1081, 2.54061, -173.672, 2.54465, 65.3929, 0.0757252, 129.585
0, 1380.00000, 126.074, -31.0342, 128.138, -150.598, 127.934, 88.4659, 0, 0, 2.58216, -54.1081, 2.54056, -173.672, 2.54463, 65.392, 0.0757969, 129.615
0, 1440.00000, 126.074, -31.0342, 128.141, -150.598, 127.935, 88.4651, 0, 0, 2.58216, -54.1081, 2.54052, -173.672, 2.54461, 65.3912, 0.0758615, 129.642
0, 1500.00000, 126.074, -31.0342, 128.143, -150.598, 127.936, 88.4643, 0, 0, 2.58216, -54.1081, 2.54048, -173.672, 2.54459, 65.3904, 0.0759196, 129.666
0, 1560.00000, 126.074, -31.0342, 128.144, -150.598, 127.937, 88.4637, 0, 0, 2.58216, -54.1081, 2.54044, -173.672, 2.54457, 65.3898, 0.0759719, 129.688
0, 1620.00000, 126.074, -31.0342, 128.146, -150.598, 127.937, 88.4631, 0, 0, 2.58216, -54.1081, 2.54041, -173.672, 2.54456, 65.3892, 0.076019, 129.707
0, 1680.00000, 126.074, -31.0342, 128.147, -150.598, 127.938, 88.4625, 0, 0, 2.58216, -54.1081, 2.54038, -173.672, 2.54454, 65.3886, 0.0760614, 129.725
0, 1740.00000, 126.074, -31.0342, 128.149, -150.598, 127.939, 88.462, 0, 0, 2.58216, -54.1081, 2.54036, -173.672, 2.54453, 65.3881, 0.0760995, 129.74
0, 1800.00000, 126.074, -31.0342, 128.15, -150.598, 127.939, 88.4616, 0, 0, 2.58216, -54.1081, 2.54034, -173.672, 2.54452, 65.3877, 0.0761339, 129.754
0, 1860.00000, 126.074, -31.0342, 128.151, -150.598, 127.94, 88.4612, 0, 0, 2.58216, -54.1081, 2.54031, -173.672, 2.54451, 65.3873, 0.0761648, 129.767
0, 1920.00000, 126.074, -31.0342, 128.152, -150.598, 127.94, 88.4608, 0, 0, 2.58216, -54.1081, 2.5403, -173.672, 2.5445, 65.3869, 0.0761926, 129.778
0, 1980.00000, 126.074, -31.0342, 128.153, -150.598, 127.94, 88.4605, 0, 0, 2.58216, -54.1081, 2.54028, -173.672, 2.54449, 65.3866, 0.0762177, 129.789
0, 2040.00000, 126.074, -31.0341, 128.153, -150.598, 127.941, 88.4602, 0, 0, 2.58216, -54.1081, 2.54026, -173.672, 2.54449, 65.3863, 0.0762402, 129.798
0, 2100.00000, 126.074, -31.0341, 128.154, -150.598, 127.941, 88.46, 0, 0, 2.58216, -54.1081, 2.54025, -173.672, 2.54448, 65.386, 0.0762605, 129.806
0, 2160.00000, 126.074, -31.0341, 128.155, -150.598, 127.941, 88.4597, 0, 0, 2.58216, -54.1081, 2.54024, -173.672, 2.54447, 65.3858, 0.0762788, 129.814
0, 2220.00000, 126.352, -30.8084, 128.733, -150.596, 127.926, 88.4622, 0, 0, 2.57647, -53.8824, 2.52884, -173.67, 2.54478, 65.3883, 0.080002, 144.444
0, 2280.00000, 126.352, -30.8084, 128.733, -150.596, 127.926, 88.462, 0, 0, 2.57647, -53.8824, 2.52883, -173.67, 2.54478, 65.3881, 0.0800185, 144.447
0, 2340.00000, 126.352, -30.8084, 128.733, -150.596, 127.926, 88.4618, 0, 0, 2.57647, -53.8824, 2.52882, -173.67, 2.54477, 65.3879, 0.0800332, 144.45
0, 2400.00000, 126.352, -30.8084, 128.734, -150.596, 127.927, 88.4617, 0, 0, 2.57647, -53.8824, 2.52881, -173.67, 2.54477, 65.3877, 0.0800464, 144.452
0, 2460.00000, 126.352, -30.8084, 128.734, -150.596, 127.927, 88.4615, 0, 0, 2.57647, -53.8824, 2.5288, -173.67, 2.54476, 65.3876, 0.0800583, 144.454
0, 2520.00000, 126.352, -30.8084, 128.735, -150.596, 127.927, 88.4614, 0, 0, 2.57647, -53.8824, 2.5288, -173.67, 2.54476, 65.3875, 0.080069, 144.456
0, 2580.00000, 126.352, -30.8084, 128.735, -150.596, 127.927, 88.4613, 0, 0, 2.57647, -53.8824, 2.52879, -173.67, 2.54476, 65.3874, 0.0800786, 144.458
0, 2640.00000, 126.352, -30.8084, 128.735, -150.596, 127.927, 88.4612, 0, 0, 2.57647, -53.8824, 2.52879, -173.67, 2.54476, 65.3873, 0.0800873, 144.459
0, 2700.00000, 126.352, -30.8084, 128.735, -150.596, 127.927, 88.4611, 0, 0, 2.57647, -53.8824, 2.52878, -173.67, 2.54475, 65.3872, 0.0800951, 144.46
0, 2760.00000, 126.352, -30.8084, 128.736, -150.596, 127.927, 88.461, 0, 0, 2.57647, -53.8824, 2.52878, -173.67, 2.54475, 65.3871, 0.0801021, 144.462
0, 2820.00000, 126.352, -30.8084, 128.736, -150.596, 127.927, 88.4609, 0, 0, 2.57647, -53.8824, 2.52877, -173.67, 2.54475, 65.387, 0.0801085, 144.463
0, 2880.00000, 126.352, -30.8084, 128.736, -150.596, 127.928, 88.4609, 0, 0, 2.57647, -53.8824, 2.52877, -173.67, 2.54475, 65.387, 0.0801142, 144.464
0, 2940.00000, 126.352, -30.8084, 128.736, -150.596, 127.928, 88.4608, 0, 0, 2.57647, -53.8824, 2.52877, -173.67, 2.54475, 65.3869, 0.0801193, 144.465
0, 3000.00000, 126.352, -30.8084, 128.736, -150.596, 127.928, 88.4608, 0, 0, 2.57647, -53.8824, 2.52876, -173.67, 2.54475, 65.3868, 0.0801239, 144.465
0, 3060.00000, 126.352, -30.8084, 128.736, -150.596, 127.928, 88.4607, 0, 0, 2.57647, -53.8824, 2.52876, -173.67, 2.54474, 65.3868, 0.080128, 144.466
0, 3120.00000, 126.352, -30.8084, 128.736, -150.596, 127.928, 88.4607, 0, 0, 2.57647, -53.8824, 2.52876, -173.67, 2.54474, 65.3867, 0.0801318, 144.467
0, 3180.00000, 126.352, -30.8084, 128.737, -150.596, 127.928, 88.4606, 0, 0, 2.57647, -53.8824, 2.52876, -173.67, 2.54474, 65.3867, 0.0801351, 144.467
0, 3240.00000, 126.352, -30.8084, 128.737, -150.596, 127.928, 88.4606, 0, 0, 2.57647, -53.8824, 2.52875, -173.67, 2.54474, 65.3867, 0.0801382, 144.468
0, 3300.00000, 126.352, -30.8084, 128.737, -150.596, 127.928, 88.4606, 0, 0, 2.57647, -53.8824, 2.52875, -173.67, 2.54474, 65.3866, 0.0801409, 144.468
0, 3360.00000, 126.352, -30.8084, 128.737, -150.596, 127.928, 88.4605, 0, 0, 2.57647, -53.8824, 2.52875, -173.67, 2.54474, 65.3866, 0.0801433, 144.469
0, 3420.00000, 126.352, -30.8084, 128.737, -150.596, 127.928, 88.4605, 0, 0, 2.57647, -53.8824, 2.52875, -173.67, 2.54474, 65.3866, 0.0801455, 144.469
0, 3480.00000, 126.352, -30.8084, 128.737, -150.596, 127.928, 88.4605, 0, 0, 2.57647, -53.8824, 2.52875, -173.67, 2.54474, 65.3866, 0.0801475, 144.47
0, 3540.00000, 126.352, -30.8084, 128.737, -150.596, 127.928, 88.4605, 0, 0, 2.57647, -53.8824, 2.52875, -173.67, 2.54474, 65.3865, 0.0801493, 144.47
1, 0.00000, 126.352, -30.8084, 128.737, -150.596, 127.928, 88.4604, 0, 0, 2.57647, -53.8824, 2.52875, -173.67, 2.54474, 65.3865, 0.0801509, 144.47
1, 60.00000, 126.352, -30.8084, 128.737, -150.596, 127.928, 88.4604, 0, 0, 2.57647, -53.8824, 2.52875, -173.67, 2.54474, 65.3865, 0.0801524, 144.47
1, 120.00000, 126.352, -30.8084, 128.737, -150.596, 127.928, 88.4604, 0, 0, 2.57647, -53.8824, 2.52874, -173.67, 2.54474, 65.3865, 0.0801537, 144.471
1, 180.00000, 126.352, -30.8084, 128.737, -150.596, 127.928, 88.4604, 0, 0, 2.57647, -53.8824, 2.52874, -173.67, 2.54474, 65.3865, 0.0801548, 144.471
1, 240.00000, 126.352, -30.8084, 128.737, -150.596, 127.928, 88.4604, 0, 0, 2.57647, -53.8824, 2.52874, -173.67, 2.54474, 65.3865, 0.0801559, 144.471
1, 300.00000, 126.352, -30.8084, 128.737, -150.596, 127.928, 88.4604, 0, 0, 2.57647, -53.8824, 2.52874, -173.67, 2.54474, 65.3865, 0.0801568, 144.471
1, 360.00000, 126.352, -30.8084, 128.737, -150.596, 127.928, 88.4604, 0, 0, 2.57647, -53.8824, 2.52874, -173.67, 2.54474, 65.3865, 0.0801577, 144.471
1, 420.00000, 126.352, -30.8084, 128.737, -150.596, 127.928, 88.4604, 0, 0, 2.57647, -53.8824, 2.52874, -173.67, 2.54474, 65.3864, 0.0801585, 144.471
1, 480.00000, 126.352, -30.8084, 128.737, -150.596, 127.928, 88.4604, 0, 0, 2.57647, -53.8824, 2.52874, -173.67, 2.54474, 65.3864, 0.0801592, 144.472
1, 540.00000, 126.352, -30.8084, 128.737, -150.596, 127.928, 88.4603, 0, 0, 2.57647, -53.8824, 2.52874, -173.67, 2.54474, 65.3864, 0.0801598, 144.472
1, 600.00000, 126.352, -30.8084, 128.737, -150.596, 127.928, 88.4603, 0, 0, 2.57647, -53.8824, 2.52874, -173.67, 2.54474, 65.3864, 0.0801603, 144.472
1, 660.00000, 126.74, -30.7683, 128.737, -150.594, 128.049, 88.6266, 0, 0, 2.56859, -53.8422, 2.52875, -173.668, 2.54234, 65.5527, 0.0665092, 144.784
1, 720.00000, 126.74, -30.7683, 128.737, -150.594, 128.049, 88.6266, 0, 0, 2.56859, -53.8422, 2.52875, -173.668, 2.54234, 65.5527, 0.0665097, 144.784
1, 780.00000, 126.865, -30.5969, 129.139, -150.55, 128.05, 88.6251, 0, 0, 2.56605, -53.6708, 2.52088, -173.624, 2.54231, 65.5512, 0.0747377, 153.894
1, 840.00000, 126.865, -30.5969, 129.139, -150.55, 128.05, 88.6251, 0, 0, 2.56605, -53.6708, 2.52088, -173.624, 2.54231, 65.5512, 0.0747383, 153.894
1, 900.00000, 126.865, -30.5969, 129.139, -150.55, 128.05, 88.6251, 0, 0, 2.56605, -53.6708, 2.52088, -173.624, 2.54231, 65.5512, 0.0747386, 153.894
1, 960.00000, 126.865, -30.5969, 129.139, -150.55, 128.05, 88.6251, 0, 0, 2.56605, -53.6708, 2.52088, -173.624, 2.54231, 65.5512, 0.0747389, 153.894
1, 1020.00000, 126.865, -30.5969, 129.139, -150.55, 128.05, 88.6251, 0, 0, 2.56605, -53.6708, 2.52088, -173.624, 2.54231, 65.5512, 0.0747392, 153.894
1, 1080.00000, 126.865, -30.5969, 129.139, -150.55, 128.05, 88.6251, 0, 0, 2.56605, -53.6708, 2.52088, -173.624, 2.54231, 65.5512, 0.0747394, 153.894
1, 1140.00000, 126.865, -30.5969, 129.139, -150.55, 128.05, 88.6251, 0, 0, 2.56605, -53.6708, 2.52088, -173.624, 2.54231, 65.5512, 0.0747396, 153.894
1, 1200.00000, 126.865, -30.5969, 129.139, -150.55, 128.05, 88.6251, 0, 0, 2.56605, -53.6708, 2.52088, -173.624, 2.54231, 65.5512, 0.0747398, 153.894
1, 1260.00000, 126.865, -30.5969, 129.139, -150.55, 128.05, 88.6251, 0, 0, 2.56605, -53.6708, 2.52088, -173.624, 2.54231, 65.5512, 0.07474, 153.894
1, 1320.00000, 126.865, -30.5969, 129.139, -150.55, 128.05, 88.6251, 0, 0, 2.56605, -53.6708, 2.52088, -173.624, 2.54231, 65.5512, 0.0747402, 153.894
1, 1380.00000, 126.865, -30.5969, 129.139, -150.55, 128.05, 88.6251, 0, 0, 2.56605, -53.6708, 2.52088, -173.624, 2.54231, 65.5512, 0.0747403, 153.894
1, 1440.00000, 126.865, -30.5969, 129.139, -150.55, 128.05, 88.6251, 0, 0, 2.56605, -53.6708, 2.52088, -173.624, 2.54231, 65.5512, 0.0747405, 153.894
1, 1500.00000, 126.865, -30.5969, 129.139, -150.55, 128.05, 88.6251, 0, 0, 2.56605, -53.6708, 2.52088, -173.624, 2.54231, 65.5512, 0.0747406, 153.894
1, 1560.00000, 126.865, -30.5969, 129.139, -150.55, 128.05, 88.6251, 0, 0, 2.56605, -53.6708, 2.52088, -173.624, 2.54231, 65.5512, 0.0747407, 153.895
1, 1620.00000, 126.865, -30.5969, 129.139, -150.55, 128.05, 88.6251, 0, 0, 2.56605, -53.6708, 2.52088, -173.624, 2.54231, 65.5512, 0.0747408, 153.895
1, 1680.00000, 126.865, -30.5969, 129.139, -150.55, 128.05, 88.6251, 0, 0, 2.56605, -53.6708, 2.52088, -173.624, 2.54231, 65.5512, 0.0747409, 153.895
1, 1740.00000, 126.865, -30.5969, 129.139, -150.55, 128.05, 88.6251, 0, 0, 2.56605, -53.6708, 2.52088, -173.624, 2.54231, 65.5512, 0.0747409, 153.895
1, 1800.00000, 126.865, -30.5969, 129.139, -150.55, 128.05, 88.6251, 0, 0, 2.56605, -53.6708, 2.52088, -173.624, 2.54231, 65.5512, 0.074741, 153.895
1, 1860.00000, 126.865, -30.5969, 129.139, -150.55, 128.05, 88.6251, 0, 0, 2.56605, -53.6708, 2.52088, -173.624, 2.54231, 65.5512, 0.0747411, 153.895
1, 1920.00000, 126.865, -30.5969, 129.139, -150.55, 128.05, 88.6251, 0, 0, 2.56605, -53.6708, 2.52088, -173.624, 2.54231, 65.5512, 0.0747411, 153.895
1, 1980.00000, 126.865, -30.5969, 129.139, -150.55, 128.05, 88.6251, 0, 0, 2.56605, -53.6708, 2.52088, -173.624, 2.54231, 65.5512, 0.0747412, 153.895
1, 2040.00000, 126.865, -30.5969, 129.139, -150.55, 128.05, 88.6251, 0, 0, 2.56605, -53.6708, 2.52088, -173.624, 2.54231, 65.5512, 0.0747412, 153.895
1, 2100.00000, 126.865, -30.5969, 129.139, -150.55, 128.05, 88.6251, 0, 0, 2.56605, -53.6708, 2.52088, -173.624, 2.54231, 65.5512, 0.0747413, 153.895
1, 2160.00000, 126.865, -30.5969, 129.139, -150.55, 128.05, 88.6251, 0, 0, 2.56605, -53.6708, 2.52088, -173.624, 2.54231, 65.5512, 0.0747413, 153.895
1, 2220.00000, 126.865, -30.5969, 129.139, -150.55, 128.05, 88.6251, 0, 0, 2.56605, -53.6708, 2.52088, -173.624, 2.54231, 65.5512, 0.0747413, 153.895
1, 2280.00000, 126.865, -30.5969, 129.139, -150.55, 128.05, 88.6251, 0, 0, 2.56605, -53.6708, 2.52088, -173.624, 2.54231, 65.5512, 0.0747414, 153.895
1, 2340.00000, 126.865, -30.5969, 129.139, -150.55, 128.05, 88.6251, 0, 0, 2.56605, -53.6708, 2.52088, -173.624, 2.54231, 65.5512, 0.0747414, 153.895
1, 2400.00000, 126.865, -30.5969, 129.139, -150.55, 128.05, 88.6251, 0, 0, 2.56605, -53.6708, 2.52088, -173.624, 2.54231, 65.5512, 0.0747414, 153.895
1, 2460.00000, 126.865, -30.5969, 129.139, -150.55, 128.05, 88.6251, 0, 0, 2.56605, -53.6708, 2.52088, -173.624, 2.54231, 65.5512, 0.0747414, 153.895
1, 2520.00000, 126.865, -30.5969, 129.139, -150.55, 128.05, 88.6251, 0, 0, 2.56605, -53.6708, 2.52088, -173.624, 2.54231, 65.5512, 0.0747415, 153.895
1, 2580.00000, 126.865, -30.5969, 129.139, -150.55, 128.05, 88.6251, 0, 0, 2.56605, -53.6708, 2.52088, -173.624, 2.54231, 65.5512, 0.0747415, 153.895
1, 2640.00000, 126.865, -30.5969, 129.139, -150.55, 128.05, 88.6251, 0, 0, 2.56605, -53.6708, 2.52088, -173.624, 2.54231, 65.5512, 0.0747415, 153.895
1, 2700.00000, 126.865, -30.5969, 129.139, -150.55, 128.05, 88.6251, 0, 0, 2.56605, -53.6708, 2.52088, -173.624, 2.54231, 65.5512, 0.0747415, 153.895
1, 2760.00000, 126.865, -30.5969, 129.139, -150.55, 128.05, 88.6251, 0, 0, 2.56605, -53.6708, 2.52088, -173.624, 2.54231, 65.5512, 0.0747415, 153.895
1, 2820.00000, 126.865, -30.5969, 129.139, -150.55, 128.05, 88.6251, 0, 0, 2.56605, -53.6708, 2.52088, -173.624, 2.54231, 65.5512, 0.0747415, 153.895
1, 2880.00000, 126.865, -30.5969, 129.139, -150.55, 128.05, 88.6251, 0, 0, 2.56605, -53.6708, 2.52088, -173.624, 2.54231, 65.5512, 0.0747415, 153.895
1, 2940.00000, 126.865, -30.5969, 129.139, -150.55, 128.05, 88.6251, 0, 0, 2.56605, -53.6708, 2.52088, -173.624, 2.54231, 65.5512, 0.0747416, 153.895
1, 3000.00000, 126.865, -30.5969, 129.139, -150.55, 128.05, 88.6251, 0, 0, 2.56605, -53.6708, 2.52088, -173.624, 2.54231, 65.5512, 0.0747416, 153.895
1, 3060.00000, 126.865, -30.5969, 129.139, -150.55, 128.05, 88.6251, 0, 0, 2.56605, -53.6708, 2.52088, -173.624, 2.54231, 65.5512, 0.0747416, 153.895
1, 3120.00000, 126.865, -30.5969, 129.139, -150.55, 128.05, 88.6251, 0, 0, 2.56605, -53.6708, 2.52088, -173.624, 2.54231, 65.5512, 0.0747416, 153.895
1, 3180.00000, 126.865, -30.5969, 129.139, -150.55, 128.05, 88.6251, 0, 0, 2.56605, -53.6708, 2.52088, -173.624, 2.54231, 65.5512, 0.0747416, 153.895
1, 3240.00000, 126.865, -30.5969, 129.139, -150.55, 128.05, 88.6251, 0, 0, 2.56605, -53.6708, 2.52088, -173.624, 2.54231, 65.5512, 0.0747416, 153.895
1, 3300.00000, 126.865, -30.5969, 129.139, -150.55, 128.05, 88.6251, 0, 0, 2.56605, -53.6708, 2.52088, -173.624, 2.54231, 65.5512, 0.0747416, 153.895
1, 3360.00000, 126.865, -30.5969, 129.139, -150.55, 128.05, 88.6251, 0, 0, 2.56605, -53.6708, 2.52088, -173.624, 2.54231, 65.5512, 0.0747416, 153.895
1, 3420.00000, 126.865, -30.5969, 129.139, -150.55, 128.05, 88.6251, 0, 0, 2.56605, -53.6708, 2.52088, -173.624, 2.54231, 65.5512, 0.0747416, 153.895
1, 3480.00000, 126.865, -30.5969, 129.139, -150.55, 128.05, 88.6251, 0, 0, 2.56605, -53.6708, 2.52088, -173.624, 2.54231, 65.5512, 0.0747416, 153.895
1, 3540.00000, 126.865, -30.5969, 129.139, -150.55, 128.05, 88.6251, 0, 0, 2.56605, -53.6708, 2.52088, -173.624, 2.54231, 65.5512, 0.0747416, 153.895
2, 0.00000, 126.865, -30.5969, 129.139, -150.55, 128.05, 88.6251, 0, 0, 2.56605, -53.6708, 2.52088, -173.624, 2.54231, 65.5512, 0.0747416, 153.895
2, 60.00000, 126.865, -30.5969, 129.139, -150.55, 128.05, 88.6251, 0, 0, 2.56605, -53.6708, 2.52088, -173.624, 2.54231, 65.5512, 0.0747416, 153.895
2, 120.00000, 126.861, -30.598, 129.135, -150.551, 128.046, 88.624, 0, 0, 2.57324, -53.6719, 2.52793, -173.625, 2.54942, 65.5501, 0.0749543, 153.892
2, 180.00000, 126.857, -30.5992, 129.131, -150.552, 128.042, 88.623, 0, 0, 2.58051, -53.6731, 2.53506, -173.626, 2.55662, 65.549, 0.0751696, 153.889
2, 240.00000, 126.853, -30.6003, 129.127, -150.553, 128.038, 88.6219, 0, 0, 2.58769, -53.6743, 2.54211, -173.627, 2.56373, 65.548, 0.0753823, 153.886
2, 300.00000, 126.849, -30.6015, 129.123, -150.554, 128.034, 88.6208, 0, 0, 2.59487, -53.6754, 2.54916, -173.628, 2.57085, 65.5469, 0.0755951, 153.883
2, 360.00000, 126.845, -30.6027, 129.12, -150.556, 128.03, 88.6198, 0, 0, 2.60215, -53.6766, 2.5563, -173.629, 2.57805, 65.5458, 0.0758104, 153.88
2, 420.00000, 126.841, -30.6038, 129.116, -150.557, 128.026, 88.6187, 0, 0, 2.60933, -53.6777, 2.56335, -173.631, 2.58516, 65.5448, 0.0760233, 153.877
2, 480.00000, 126.837, -30.605, 129.112, -150.558, 128.022, 88.6176, 0, 0, 2.61652, -53.6789, 2.57041, -173.632, 2.59228, 65.5437, 0.0762362, 153.874
2, 540.00000, 126.832, -30.6061, 129.108, -150.559, 128.018, 88.6165, 0, 0, 2.62379, -53.68, 2.57754, -173.633, 2.59948, 65.5426, 0.0764516, 153.872
2, 600.00000, 126.828, -30.6073, 129.104, -150.56, 128.014, 88.6155, 0, 0, 2.63098, -53.6812, 2.5846, -173.634, 2.6066, 65.5416, 0.0766646, 153.869
2, 660.00000, 126.824, -30.6084, 129.1, -150.561, 128.01, 88.6144, 0, 0, 2.63816, -53.6824, 2.59165, -173.635, 2.61372, 65.5405, 0.0768776, 153.866
2, 720.00000, 126.82, -30.6096, 129.096, -150.562, 128.006, 88.6133, 0, 0, 2.64544, -53.6835, 2.59879, -173.636, 2.62092, 65.5394, 0.0770932, 153.863
