hour,t(sec),V1,VAngle1,V2,VAngle2,V3,VAngle3,V4,VAngle4,I1,IAngle1,I2,IAngle2,I3,IAngle3,I4,IAngle4
0, 60.00000, 126.246, -30.9997, 126.437, -150.639, 127.035, 89.1187, 0, 0, 2.15245, -54.0734, 2.14919, -173.713, 2.13908, 66.045, 0.0239956, 78.4331
0, 120.00000, 126.246, -30.9997, 126.437, -150.639, 127.035, 89.1187, 0, 0, 2.15246, -54.0737, 2.1492, -173.713, 2.13909, 66.0448, 0.0240078, 78.4352
0, 180.00000, 126.246, -30.9997, 126.437, -150.639, 127.035, 89.1187, 0, 0, 2.15246, -54.0737, 2.1492, -173.713, 2.13909, 66.0448, 0.0240079, 78.4352
0, 240.00000, 126.246, -30.9997, 126.437, -150.639, 127.035, 89.1187, 0, 0, 2.15246, -54.0737, 2.1492, -173.713, 2.13909, 66.0448, 0.0240079, 78.4352
0, 300.00000, 126.372, -30.8257, 126.839, -150.595, 127.04, 89.1187, 0, 0, 2.15032, -53.9001, 2.14241, -173.669, 2.13901, 66.0447, 0.0198827, 107.863
0, 360.00000, 126.373, -30.8256, 126.839, -150.595, 127.04, 89.1187, 0, 0, 2.1503, -53.8996, 2.14239, -173.669, 2.13901, 66.0448, 0.0198797, 107.943
0, 420.00000, 126.373, -30.8256, 126.839, -150.595, 127.04, 89.1187, 0, 0, 2.1503, -53.8996, 2.14239, -173.669, 2.13901, 66.0448, 0.0198797, 107.944
0, 480.00000, 126.373, -30.8256, 126.839, -150.595, 127.04, 89.1187, 0, 0, 2.1503, -53.8996, 2.14239, -173.669, 2.13901, 66.0448, 0.0198797, 107.944
0, 540.00000, 126.373, -30.8256, 126.839, -150.595, 127.04, 89.1187, 0, 0, 2.1503, -53.8996, 2.14239, -173.669, 2.13901, 66.0448, 0.0198797, 107.944
0, 600.00000, 126.373, -30.8256, 126.839, -150.595, 127.04, 89.1187, 0, 0, 2.1503, -53.8996, 2.14239, -173.669, 2.13901, 66.0448, 0.0198797, 107.944
0, 660.00000, 126.373, -30.8256, 126.839, -150.595, 127.04, 89.1187, 0, 0, 2.1503, -53.8996, 2.14239, -173.669, 2.13901, 66.0448, 0.0198797, 107.944
0, 720.00000, 126.373, -30.8256, 126.839, -150.595, 127.04, 89.1187, 0, 0, 2.1503, -53.8996, 2.14239, -173.669, 2.13901, 66.0448, 0.0198797, 107.944
0, 780.00000, 126.373, -30.8256, 126.839, -150.595, 127.04, 89.1187, 0, 0, 2.1503, -53.8996, 2.14239, -173.669, 2.13901, 66.0448, 0.0198797, 107.944
0, 840.00000, 126.373, -30.8256, 126.839, -150.595, 127.04, 89.1187, 0, 0, 2.1503, -53.8996, 2.14239, -173.669, 2.13901, 66.0448, 0.0198797, 107.944
0, 900.00000, 126.373, -30.8256, 126.839, -150.595, 127.04, 89.1187, 0, 0, 2.1503, -53.8996, 2.14239, -173.669, 2.13901, 66.0448, 0.0198797, 107.944
0, 960.00000, 126.373, -30.8256, 126.839, -150.595, 127.04, 89.1187, 0, 0, 2.1503, -53.8996, 2.14239, -173.669, 2.13901, 66.0448, 0.0198797, 107.944
0, 1020.00000, 126.373, -30.8256, 126.839, -150.595, 127.04, 89.1187, 0, 0, 2.1503, -53.8996, 2.14239, -173.669, 2.13901, 66.0448, 0.0198797, 107.944
0, 1080.00000, 126.373, -30.8256, 126.839, -150.595, 127.04, 89.1187, 0, 0, 2.1503, -53.8996, 2.14239, -173.669, 2.13901, 66.0448, 0.0198797, 107.944
0, 1140.00000, 126.373, -30.8256, 126.839, -150.595, 127.04, 89.1187, 0, 0, 2.1503, -53.8996, 2.14239, -173.669, 2.13901, 66.0448, 0.0198797, 107.944
0, 1200.00000, 126.373, -30.8256, 126.839, -150.595, 127.04, 89.1187, 0, 0, 2.1503, -53.8996, 2.14239, -173.669, 2.13901, 66.0448, 0.0198797, 107.944
0, 1260.00000, 126.373, -30.8256, 126.839, -150.595, 127.04, 89.1187, 0, 0, 2.1503, -53.8996, 2.14239, -173.669, 2.13901, 66.0448, 0.0198797, 107.944
0, 1320.00000, 126.373, -30.8256, 126.839, -150.595, 127.04, 89.1187, 0, 0, 2.1503, -53.8996, 2.14239, -173.669, 2.13901, 66.0448, 0.0198797, 107.944
0, 1380.00000, 126.373, -30.8256, 126.839, -150.595, 127.04, 89.1187, 0, 0, 2.1503, -53.8996, 2.14239, -173.669, 2.13901, 66.0448, 0.0198797, 107.944
0, 1440.00000, 126.373, -30.8256, 126.839, -150.595, 127.04, 89.1187, 0, 0, 2.1503, -53.8996, 2.14239, -173.669, 2.13901, 66.0448, 0.0198797, 107.944
0, 1500.00000, 126.373, -30.8256, 126.839, -150.595, 127.04, 89.1187, 0, 0, 2.1503, -53.8996, 2.14239, -173.669, 2.13901, 66.0448, 0.0198797, 107.944
0, 1560.00000, 126.373, -30.8256, 126.839, -150.595, 127.04, 89.1187, 0, 0, 2.1503, -53.8996, 2.14239, -173.669, 2.13901, 66.0448, 0.0198797, 107.944
0, 1620.00000, 126.373, -30.8256, 126.839, -150.595, 127.04, 89.1187, 0, 0, 2.1503, -53.8996, 2.14239, -173.669, 2.13901, 66.0448, 0.0198797, 107.944
0, 1680.00000, 126.373, -30.8256, 126.839, -150.595, 127.04, 89.1187, 0, 0, 2.1503, -53.8996, 2.14239, -173.669, 2.13901, 66.0448, 0.0198797, 107.944
0, 1740.00000, 126.373, -30.8256, 126.839, -150.595, 127.04, 89.1187, 0, 0, 2.1503, -53.8996, 2.14239, -173.669, 2.13901, 66.0448, 0.0198797, 107.944
0, 1800.00000, 126.373, -30.8256, 126.839, -150.595, 127.04, 89.1187, 0, 0, 2.1503, -53.8996, 2.14239, -173.669, 2.13901, 66.0448, 0.0198797, 107.944
0, 1860.00000, 126.373, -30.8256, 126.839, -150.595, 127.04, 89.1187, 0, 0, 2.1503, -53.8996, 2.14239, -173.669, 2.13901, 66.0448, 0.0198797, 107.944
0, 1920.00000, 126.373, -30.8256, 126.839, -150.595, 127.04, 89.1187, 0, 0, 2.1503, -53.8996, 2.14239, -173.669, 2.13901, 66.0448, 0.0198797, 107.944
0, 1980.00000, 126.373, -30.8256, 126.839, -150.595, 127.04, 89.1187, 0, 0, 2.1503, -53.8996, 2.14239, -173.669, 2.13901, 66.0448, 0.0198797, 107.944
0, 2040.00000, 126.373, -30.8256, 126.839, -150.595, 127.04, 89.1187, 0, 0, 2.1503, -53.8996, 2.14239, -173.669, 2.13901, 66.0448, 0.0198797, 107.944
0, 2100.00000, 126.373, -30.8256, 126.839, -150.595, 127.04, 89.1187, 0, 0, 2.1503, -53.8996, 2.14239, -173.669, 2.13901, 66.0448, 0.0198797, 107.944
0, 2160.00000, 126.373, -30.8256, 126.839, -150.595, 127.04, 89.1187, 0, 0, 2.1503, -53.8996, 2.14239, -173.669, 2.13901, 66.0448, 0.0198797, 107.944
0, 2220.00000, 126.768, -30.7838, 126.841, -150.594, 127.165, 89.289, 0, 0, 2.14361, -53.8581, 2.14236, -173.668, 2.13691, 66.2148, 0.012373, 75.0888
0, 2280.00000, 126.768, -30.7838, 126.841, -150.594, 127.165, 89.289, 0, 0, 2.14359, -53.8577, 2.14236, -173.668, 2.1369, 66.2151, 0.0123521, 75.0268
0, 2340.00000, 126.768, -30.7838, 126.841, -150.594, 127.165, 89.289, 0, 0, 2.14359, -53.8577, 2.14236, -173.668, 2.1369, 66.2151, 0.012352, 75.0266
0, 2400.00000, 126.768, -30.7838, 126.841, -150.594, 127.165, 89.289, 0, 0, 2.14359, -53.8577, 2.14236, -173.668, 2.1369, 66.2151, 0.012352, 75.0266
0, 2460.00000, 126.768, -30.7838, 126.841, -150.594, 127.165, 89.289, 0, 0, 2.14359, -53.8577, 2.14236, -173.668, 2.1369, 66.2151, 0.012352, 75.0266
0, 2520.00000, 126.768, -30.7838, 126.841, -150.594, 127.165, 89.289, 0, 0, 2.14359, -53.8577, 2.14236, -173.668, 2.1369, 66.2151, 0.012352, 75.0266
0, 2580.00000, 126.768, -30.7838, 126.841, -150.594, 127.165, 89.289, 0, 0, 2.14359, -53.8577, 2.14236, -173.668, 2.1369, 66.2151, 0.012352, 75.0266
0, 2640.00000, 126.768, -30.7838, 126.841, -150.594, 127.165, 89.289, 0, 0, 2.14359, -53.8577, 2.14236, -173.668, 2.1369, 66.2151, 0.012352, 75.0266
0, 2700.00000, 126.768, -30.7838, 126.841, -150.594, 127.165, 89.289, 0, 0, 2.14359, -53.8577, 2.14236, -173.668, 2.1369, 66.2151, 0.012352, 75.0266
0, 2760.00000, 126.768, -30.7838, 126.841, -150.594, 127.165, 89.289, 0, 0, 2.14359, -53.8577, 2.14236, -173.668, 2.1369, 66.2151, 0.012352, 75.0266
0, 2820.00000, 126.768, -30.7838, 126.841, -150.594, 127.165, 89.289, 0, 0, 2.14359, -53.8577, 2.14236, -173.668, 2.1369, 66.2151, 0.012352, 75.0266
0, 2880.00000, 126.768, -30.7838, 126.841, -150.594, 127.165, 89.289, 0, 0, 2.14359, -53.8577, 2.14236, -173.668, 2.1369, 66.2151, 0.012352, 75.0266
0, 2940.00000, 126.768, -30.7838, 126.841, -150.594, 127.165, 89.289, 0, 0, 2.14359, -53.8577, 2.14236, -173.668, 2.1369, 66.2151, 0.012352, 75.0266
0, 3000.00000, 126.768, -30.7838, 126.841, -150.594, 127.165, 89.289, 0, 0, 2.14359, -53.8577, 2.14236, -173.668, 2.1369, 66.2151, 0.012352, 75.0266
0, 3060.00000, 126.768, -30.7838, 126.841, -150.594, 127.165, 89.289, 0, 0, 2.14359, -53.8577, 2.14236, -173.668, 2.1369, 66.2151, 0.012352, 75.0266
0, 3120.00000, 126.768, -30.7838, 126.841, -150.594, 127.165, 89.289, 0, 0, 2.14359, -53.8577, 2.14236, -173.668, 2.1369, 66.2151, 0.012352, 75.0266
0, 3180.00000, 126.768, -30.7838, 126.841, -150.594, 127.165, 89.289, 0, 0, 2.14359, -53.8577, 2.14236, -173.668, 2.1369, 66.2151, 0.012352, 75.0266
0, 3240.00000, 126.768, -30.7838, 126.841, -150.594, 127.165, 89.289, 0, 0, 2.14359, -53.8577, 2.14236, -173.668, 2.1369, 66.2151, 0.012352, 75.0266
0, 3300.00000, 126.768, -30.7838, 126.841, -150.594, 127.165, 89.289, 0, 0, 2.14359, -53.8577, 2.14236, -173.668, 2.1369, 66.2151, 0.012352, 75.0266
0, 3360.00000, 126.768, -30.7838, 126.841, -150.594, 127.165, 89.289, 0, 0, 2.14359, -53.8577, 2.14236, -173.668, 2.1369, 66.2151, 0.012352, 75.0266
0, 3420.00000, 126.768, -30.7838, 126.841, -150.594, 127.165, 89.289, 0, 0, 2.14359, -53.8577, 2.14236, -173.668, 2.1369, 66.2151, 0.012352, 75.0266
0, 3480.00000, 126.768, -30.7838, 126.841, -150.594, 127.165, 89.289, 0, 0, 2.14359, -53.8577, 2.14236, -173.668, 2.1369, 66.2151, 0.012352, 75.0266
0, 3540.00000, 126.768, -30.7838, 126.841, -150.594, 127.165, 89.289, 0, 0, 2.14359, -53.8577, 2.14236, -173.668, 2.1369, 66.2151, 0.012352, 75.0266
1, 0.00000, 126.768, -30.7838, 126.841, -150.594, 127.165, 89.289, 0, 0, 2.14359, -53.8577, 2.14236, -173.668, 2.1369, 66.2151, 0.012352, 75.0266
1, 60.00000, 126.768, -30.7838, 126.841, -150.594, 127.165, 89.289, 0, 0, 2.14359, -53.8577, 2.14236, -173.668, 2.1369, 66.2151, 0.012352, 75.0266
1, 120.00000, 126.768, -30.7838, 126.841, -150.594, 127.165, 89.289, 0, 0, 2.14359, -53.8577, 2.14236, -173.668, 2.1369, 66.2151, 0.012352, 75.0266
1, 180.00000, 126.768, -30.7838, 126.841, -150.594, 127.165, 89.289, 0, 0, 2.14359, -53.8577, 2.14236, -173.668, 2.1369, 66.2151, 0.012352, 75.0266
1, 240.00000, 126.768, -30.7838, 126.841, -150.594, 127.165, 89.289, 0, 0, 2.14359, -53.8577, 2.14236, -173.668, 2.1369, 66.2151, 0.012352, 75.0266
1, 300.00000, 126.768, -30.7838, 126.841, -150.594, 127.165, 89.289, 0, 0, 2.14359, -53.8577, 2.14236, -173.668, 2.1369, 66.2151, 0.012352, 75.0266
1, 360.00000, 126.768, -30.7838, 126.841, -150.594, 127.165, 89.289, 0, 0, 2.14359, -53.8577, 2.14236, -173.668, 2.1369, 66.2151, 0.012352, 75.0266
1, 420.00000, 126.768, -30.7838, 126.841, -150.594, 127.165, 89.289, 0, 0, 2.14359, -53.8577, 2.14236, -173.668, 2.1369, 66.2151, 0.012352, 75.0266
1, 480.00000, 126.768, -30.7838, 126.841, -150.594, 127.165, 89.289, 0, 0, 2.14359, -53.8577, 2.14236, -173.668, 2.1369, 66.2151, 0.012352, 75.0266
1, 540.00000, 126.768, -30.7838, 126.841, -150.594, 127.165, 89.289, 0, 0, 2.14359, -53.8577, 2.14236, -173.668, 2.1369, 66.2151, 0.012352, 75.0266
1, 600.00000, 126.768, -30.7838, 126.841, -150.594, 127.165, 89.289, 0, 0, 2.14359, -53.8577, 2.14236, -173.668, 2.1369, 66.2151, 0.012352, 75.0266
1, 660.00000, 126.886, -30.6162, 127.228, -150.554, 127.167, 89.2888, 0, 0, 2.1416, -53.6902, 2.13586, -173.628, 2.13687, 66.2149, 0.0104174, 134.518
1, 720.00000, 126.886, -30.6162, 127.228, -150.554, 127.167, 89.2888, 0, 0, 2.14159, -53.6901, 2.13585, -173.628, 2.13687, 66.2149, 0.0104288, 134.557
1, 780.00000, 127.287, -30.5719, 127.23, -150.553, 127.295, 89.4613, 0, 0, 2.13489, -53.6464, 2.13582, -173.627, 2.13474, 66.3869, 0.0020973, 12.4259
1, 840.00000, 127.287, -30.5719, 127.23, -150.553, 127.295, 89.4613, 0, 0, 2.13486, -53.6458, 2.13582, -173.627, 2.13472, 66.3874, 0.00210482, 11.444
1, 900.00000, 127.287, -30.5719, 127.23, -150.553, 127.295, 89.4613, 0, 0, 2.13486, -53.6458, 2.13582, -173.627, 2.13472, 66.3874, 0.00210484, 11.4403
1, 960.00000, 127.287, -30.5719, 127.23, -150.553, 127.295, 89.4613, 0, 0, 2.13486, -53.6458, 2.13582, -173.627, 2.13472, 66.3874, 0.00210484, 11.4403
1, 1020.00000, 127.287, -30.5719, 127.23, -150.553, 127.295, 89.4613, 0, 0, 2.13486, -53.6458, 2.13582, -173.627, 2.13472, 66.3874, 0.00210484, 11.4403
1, 1080.00000, 127.287, -30.5719, 127.23, -150.553, 127.295, 89.4613, 0, 0, 2.13486, -53.6458, 2.13582, -173.627, 2.13472, 66.3874, 0.00210484, 11.4403
1, 1140.00000, 127.287, -30.5719, 127.23, -150.553, 127.295, 89.4613, 0, 0, 2.13486, -53.6458, 2.13582, -173.627, 2.13472, 66.3874, 0.00210484, 11.4403
1, 1200.00000, 127.287, -30.5719, 127.23, -150.553, 127.295, 89.4613, 0, 0, 2.13486, -53.6458, 2.13582, -173.627, 2.13472, 66.3874, 0.00210484, 11.4403
1, 1260.00000, 127.287, -30.5719, 127.23, -150.553, 127.295, 89.4613, 0, 0, 2.13486, -53.6458, 2.13582, -173.627, 2.13472, 66.3874, 0.00210484, 11.4403
1, 1320.00000, 127.287, -30.5719, 127.23, -150.553, 127.295, 89.4613, 0, 0, 2.13486, -53.6458, 2.13582, -173.627, 2.13472, 66.3874, 0.00210484, 11.4403
1, 1380.00000, 127.287, -30.5719, 127.23, -150.553, 127.295, 89.4613, 0, 0, 2.13486, -53.6458, 2.13582, -173.627, 2.13472, 66.3874, 0.00210484, 11.4403
1, 1440.00000, 127.287, -30.5719, 127.23, -150.553, 127.295, 89.4613, 0, 0, 2.13486, -53.6458, 2.13582, -173.627, 2.13472, 66.3874, 0.00210484, 11.4403
1, 1500.00000, 127.287, -30.5719, 127.23, -150.553, 127.295, 89.4613, 0, 0, 2.13486, -53.6458, 2.13582, -173.627, 2.13472, 66.3874, 0.00210484, 11.4403
1, 1560.00000, 127.287, -30.5719, 127.23, -150.553, 127.295, 89.4613, 0, 0, 2.13486, -53.6458, 2.13582, -173.627, 2.13472, 66.3874, 0.00210484, 11.4403
1, 1620.00000, 127.287, -30.5719, 127.23, -150.553, 127.295, 89.4613, 0, 0, 2.13486, -53.6458, 2.13582, -173.627, 2.13472, 66.3874, 0.00210484, 11.4403
1, 1680.00000, 127.287, -30.5719, 127.23, -150.553, 127.295, 89.4613, 0, 0, 2.13486, -53.6458, 2.13582, -173.627, 2.13472, 66.3874, 0.00210484, 11.4403
1, 1740.00000, 127.287, -30.5719, 127.23, -150.553, 127.295, 89.4613, 0, 0, 2.13486, -53.6458, 2.13582, -173.627, 2.13472, 66.3874, 0.00210484, 11.4403
1, 1800.00000, 127.287, -30.5719, 127.23, -150.553, 127.295, 89.4613, 0, 0, 2.13486, -53.6458, 2.13582, -173.627, 2.13472, 66.3874, 0.00210484, 11.4403
1, 1860.00000, 127.287, -30.5719, 127.23, -150.553, 127.295, 89.4613, 0, 0, 2.13486, -53.6458, 2.13582, -173.627, 2.13472, 66.3874, 0.00210484, 11.4403
1, 1920.00000, 127.287, -30.5719, 127.23, -150.553, 127.295, 89.4613, 0, 0, 2.13486, -53.6458, 2.13582, -173.627, 2.13472, 66.3874, 0.00210484, 11.4403
1, 1980.00000, 127.287, -30.5719, 127.23, -150.553, 127.295, 89.4613, 0, 0, 2.13486, -53.6458, 2.13582, -173.627, 2.13472, 66.3874, 0.00210484, 11.4403
1, 2040.00000, 127.287, -30.5719, 127.23, -150.553, 127.295, 89.4613, 0, 0, 2.13486, -53.6458, 2.13582, -173.627, 2.13472, 66.3874, 0.00210484, 11.4403
1, 2100.00000, 127.287, -30.5719, 127.23, -150.553, 127.295, 89.4613, 0, 0, 2.13486, -53.6458, 2.13582, -173.627, 2.13472, 66.3874, 0.00210484, 11.4403
1, 2160.00000, 127.287, -30.5719, 127.23, -150.553, 127.295, 89.4613, 0, 0, 2.13486, -53.6458, 2.13582, -173.627, 2.13472, 66.3874, 0.00210484, 11.4403
1, 2220.00000, 127.287, -30.5719, 127.23, -150.553, 127.295, 89.4613, 0, 0, 2.13486, -53.6458, 2.13582, -173.627, 2.13472, 66.3874, 0.00210484, 11.4403
1, 2280.00000, 127.287, -30.5719, 127.23, -150.553, 127.295, 89.4613, 0, 0, 2.13486, -53.6458, 2.13582, -173.627, 2.13472, 66.3874, 0.00210484, 11.4403
1, 2340.00000, 127.287, -30.5719, 127.23, -150.553, 127.295, 89.4613, 0, 0, 2.13486, -53.6458, 2.13582, -173.627, 2.13472, 66.3874, 0.00210484, 11.4403
1, 2400.00000, 127.287, -30.5719, 127.23, -150.553, 127.295, 89.4613, 0, 0, 2.13486, -53.6458, 2.13582, -173.627, 2.13472, 66.3874, 0.00210484, 11.4403
1, 2460.00000, 127.287, -30.5719, 127.23, -150.553, 127.295, 89.4613, 0, 0, 2.13486, -53.6458, 2.13582, -173.627, 2.13472, 66.3874, 0.00210484, 11.4403
1, 2520.00000, 127.287, -30.5719, 127.23, -150.553, 127.295, 89.4613, 0, 0, 2.13486, -53.6458, 2.13582, -173.627, 2.13472, 66.3874, 0.00210484, 11.4403
1, 2580.00000, 127.287, -30.5719, 127.23, -150.553, 127.295, 89.4613, 0, 0, 2.13486, -53.6458, 2.13582, -173.627, 2.13472, 66.3874, 0.00210484, 11.4403
1, 2640.00000, 127.287, -30.5719, 127.23, -150.553, 127.295, 89.4613, 0, 0, 2.13486, -53.6458, 2.13582, -173.627, 2.13472, 66.3874, 0.00210484, 11.4403
1, 2700.00000, 127.287, -30.5719, 127.23, -150.553, 127.295, 89.4613, 0, 0, 2.13486, -53.6458, 2.13582, -173.627, 2.13472, 66.3874, 0.00210484, 11.4403
1, 2760.00000, 127.287, -30.5719, 127.23, -150.553, 127.295, 89.4613, 0, 0, 2.13486, -53.6458, 2.13582, -173.627, 2.13472, 66.3874, 0.00210484, 11.4403
1, 2820.00000, 127.287, -30.5719, 127.23, -150.553, 127.295, 89.4613, 0, 0, 2.13486, -53.6458, 2.13582, -173.627, 2.13472, 66.3874, 0.00210484, 11.4403
1, 2880.00000, 127.287, -30.5719, 127.23, -150.553, 127.295, 89.4613, 0, 0, 2.13486, -53.6458, 2.13582, -173.627, 2.13472, 66.3874, 0.00210484, 11.4403
1, 2940.00000, 127.287, -30.5719, 127.23, -150.553, 127.295, 89.4613, 0, 0, 2.13486, -53.6458, 2.13582, -173.627, 2.13472, 66.3874, 0.00210484, 11.4403
1, 3000.00000, 127.287, -30.5719, 127.23, -150.553, 127.295, 89.4613, 0, 0, 2.13486, -53.6458, 2.13582, -173.627, 2.13472, 66.3874, 0.00210484, 11.4403
1, 3060.00000, 127.287, -30.5719, 127.23, -150.553, 127.295, 89.4613, 0, 0, 2.13486, -53.6458, 2.13582, -173.627, 2.13472, 66.3874, 0.00210484, 11.4403
1, 3120.00000, 127.287, -30.5719, 127.23, -150.553, 127.295, 89.4613, 0, 0, 2.13486, -53.6458, 2.13582, -173.627, 2.13472, 66.3874, 0.00210484, 11.4403
1, 3180.00000, 127.287, -30.5719, 127.23, -150.553, 127.295, 89.4613, 0, 0, 2.13486, -53.6458, 2.13582, -173.627, 2.13472, 66.3874, 0.00210484, 11.4403
1, 3240.00000, 127.287, -30.5719, 127.23, -150.553, 127.295, 89.4613, 0, 0, 2.13486, -53.6458, 2.13582, -173.627, 2.13472, 66.3874, 0.00210484, 11.4403
1, 3300.00000, 127.287, -30.5719, 127.23, -150.553, 127.295, 89.4613, 0, 0, 2.13486, -53.6458, 2.13582, -173.627, 2.13472, 66.3874, 0.00210484, 11.4403
1, 3360.00000, 127.287, -30.5719, 127.23, -150.553, 127.295, 89.4613, 0, 0, 2.13486, -53.6458, 2.13582, -173.627, 2.13472, 66.3874, 0.00210484, 11.4403
1, 3420.00000, 127.287, -30.5719, 127.23, -150.553, 127.295, 89.4613, 0, 0, 2.13486, -53.6458, 2.13582, -173.627, 2.13472, 66.3874, 0.00210484, 11.4403
1, 3480.00000, 127.287, -30.5719, 127.23, -150.553, 127.295, 89.4613, 0, 0, 2.13486, -53.6458, 2.13582, -173.627, 2.13472, 66.3874, 0.00210484, 11.4403
1, 3540.00000, 127.287, -30.5719, 127.23, -150.553, 127.295, 89.4613, 0, 0, 2.13486, -53.6458, 2.13582, -173.627, 2.13472, 66.3874, 0.00210484, 11.4403
2, 0.00000, 127.287, -30.5719, 127.23, -150.553, 127.295, 89.4613, 0, 0, 2.13486, -53.6458, 2.13582, -173.627, 2.13472, 66.3874, 0.00210484, 11.4403
2, 60.00000, 127.287, -30.5719, 127.23, -150.553, 127.295, 89.4613, 0, 0, 2.13486, -53.6458, 2.13582, -173.627, 2.13472, 66.3874, 0.00210484, 11.4403
2, 120.00000, 127.283, -30.573, 127.226, -150.555, 127.291, 89.4602, 0, 0, 2.14082, -53.6468, 2.14178, -173.628, 2.14068, 66.3864, 0.00211006, 11.4214
2, 180.00000, 127.28, -30.5741, 127.223, -150.556, 127.288, 89.4591, 0, 0, 2.14685, -53.6479, 2.14782, -173.63, 2.14672, 66.3853, 0.00211598, 11.4294
2, 240.00000, 127.277, -30.5752, 127.22, -150.557, 127.285, 89.458, 0, 0, 2.15282, -53.649, 2.15378, -173.631, 2.15268, 66.3842, 0.00212186, 11.4382
2, 300.00000, 127.273, -30.5763, 127.216, -150.558, 127.281, 89.4569, 0, 0, 2.15878, -53.6501, 2.15975, -173.632, 2.15864, 66.3831, 0.00212772, 11.4467
2, 360.00000, 127.27, -30.5774, 127.213, -150.559, 127.278, 89.4558, 0, 0, 2.16482, -53.6513, 2.16579, -173.633, 2.16468, 66.3819, 0.00213365, 11.4549
2, 420.00000, 127.266, -30.5785, 127.21, -150.56, 127.275, 89.4547, 0, 0, 2.17078, -53.6524, 2.17175, -173.634, 2.17064, 66.3808, 0.00213952, 11.4637
2, 480.00000, 127.263, -30.5796, 127.206, -150.561, 127.271, 89.4536, 0, 0, 2.17675, -53.6535, 2.17772, -173.635, 2.17661, 66.3797, 0.00214539, 11.4723
2, 540.00000, 127.26, -30.5807, 127.203, -150.562, 127.268, 89.4525, 0, 0, 2.18278, -53.6546, 2.18376, -173.636, 2.18264, 66.3786, 0.00215131, 11.4806
2, 600.00000, 127.256, -30.5818, 127.199, -150.563, 127.265, 89.4514, 0, 0, 2.18875, -53.6557, 2.18973, -173.637, 2.18861, 66.3775, 0.00215719, 11.4895
2, 660.00000, 127.253, -30.5829, 127.196, -150.564, 127.261, 89.4503, 0, 0, 2.19471, -53.6568, 2.1957, -173.638, 2.19457, 66.3764, 0.00216305, 11.4981
2, 720.00000, 127.25, -30.5841, 127.193, -150.566, 127.258, 89.4492, 0, 0, 2.20075, -53.6579, 2.20174, -173.639, 2.20061, 66.3753, 0.00216898, 11.5064
