hour,t(sec),V1,VAngle1,V2,VAngle2,V3,VAngle3,V4,VAngle4,I1,IAngle1,I2,IAngle2,I3,IAngle3,I4,IAngle4
0, 60.00000, 126.576, -30.5687, 126.287, -150.758, 126.086, 89.5238, 0, 0, 2.46882, -53.6422, 2.47443, -173.831, 2.47835, 66.4506, 0.0188933, -70.4603
0, 120.00000, 126.576, -30.5688, 126.287, -150.758, 126.086, 89.5237, 0, 0, 2.46887, -53.6427, 2.47452, -173.832, 2.47847, 66.4498, 0.0189839, -70.5275
0, 180.00000, 126.576, -30.5688, 126.287, -150.758, 126.086, 89.5237, 0, 0, 2.46887, -53.6427, 2.47453, -173.832, 2.47847, 66.4498, 0.0189843, -70.5278
0, 240.00000, 126.576, -30.5688, 126.287, -150.758, 126.086, 89.5237, 0, 0, 2.46887, -53.6427, 2.47453, -173.832, 2.47847, 66.4498, 0.0189843, -70.5278
0, 300.00000, 126.576, -30.5688, 126.287, -150.758, 126.086, 89.5237, 0, 0, 2.46887, -53.6427, 2.47453, -173.832, 2.47847, 66.4498, 0.0189843, -70.5278
0, 360.00000, 126.576, -30.5688, 126.287, -150.758, 126.086, 89.5237, 0, 0, 2.46887, -53.6427, 2.47453, -173.832, 2.47847, 66.4498, 0.0189843, -70.5278
0, 420.00000, 126.576, -30.5688, 126.287, -150.758, 126.086, 89.5237, 0, 0, 2.46887, -53.6427, 2.47453, -173.832, 2.47847, 66.4498, 0.0189843, -70.5278
0, 480.00000, 126.576, -30.5688, 126.287, -150.758, 126.086, 89.5237, 0, 0, 2.46887, -53.6427, 2.47453, -173.832, 2.47847, 66.4498, 0.0189843, -70.5278
0, 540.00000, 126.576, -30.5688, 126.287, -150.758, 126.086, 89.5237, 0, 0, 2.46887, -53.6427, 2.47453, -173.832, 2.47847, 66.4498, 0.0189843, -70.5278
0, 600.00000, 126.576, -30.5688, 126.287, -150.758, 126.086, 89.5237, 0, 0, 2.46887, -53.6427, 2.47453, -173.832, 2.47847, 66.4498, 0.0189843, -70.5278
0, 660.00000, 126.576, -30.5688, 126.287, -150.758, 126.086, 89.5237, 0, 0, 2.46887, -53.6427, 2.47453, -173.832, 2.47847, 66.4498, 0.0189843, -70.5278
0, 720.00000, 126.576, -30.5688, 126.287, -150.758, 126.086, 89.5237, 0, 0, 2.46887, -53.6427, 2.47453, -173.832, 2.47847, 66.4498, 0.0189843, -70.5278
0, 780.00000, 126.576, -30.5688, 126.287, -150.758, 126.086, 89.5237, 0, 0, 2.46887, -53.6427, 2.47453, -173.832, 2.47847, 66.4498, 0.0189843, -70.5278
0, 840.00000, 126.576, -30.5688, 126.287, -150.758, 126.086, 89.5237, 0, 0, 2.46887, -53.6427, 2.47453, -173.832, 2.47847, 66.4498, 0.0189843, -70.5278
0, 900.00000, 126.576, -30.5688, 126.287, -150.758, 126.086, 89.5237, 0, 0, 2.46887, -53.6427, 2.47453, -173.832, 2.47847, 66.4498, 0.0189843, -70.5278
0, 960.00000, 126.54, -30.5661, 125.913, -150.998, 125.437, 89.5503, 0, 0, 2.46957, -53.64, 2.48181, -174.071, 2.4912, 66.4768, 0.0403626, -75.4345
0, 1020.00000, 126.54, -30.5661, 125.913, -150.998, 125.437, 89.5502, 0, 0, 2.46957, -53.64, 2.48188, -174.072, 2.49129, 66.4763, 0.0404661, -75.4525
0, 1080.00000, 126.54, -30.5661, 125.913, -150.998, 125.437, 89.5502, 0, 0, 2.46957, -53.64, 2.48188, -174.072, 2.49129, 66.4763, 0.0404667, -75.4526
0, 1140.00000, 126.54, -30.5661, 125.913, -150.998, 125.437, 89.5502, 0, 0, 2.46957, -53.64, 2.48188, -174.072, 2.49129, 66.4763, 0.0404667, -75.4526
0, 1200.00000, 126.54, -30.5661, 125.913, -150.998, 125.437, 89.5502, 0, 0, 2.46957, -53.64, 2.48188, -174.072, 2.49129, 66.4763, 0.0404667, -75.4526
0, 1260.00000, 126.54, -30.5661, 125.913, -150.998, 125.437, 89.5502, 0, 0, 2.46957, -53.64, 2.48188, -174.072, 2.49129, 66.4763, 0.0404667, -75.4526
0, 1320.00000, 126.54, -30.5661, 125.913, -150.998, 125.437, 89.5502, 0, 0, 2.46957, -53.64, 2.48188, -174.072, 2.49129, 66.4763, 0.0404667, -75.4526
0, 1380.00000, 126.54, -30.5661, 125.913, -150.998, 125.437, 89.5502, 0, 0, 2.46957, -53.64, 2.48188, -174.072, 2.49129, 66.4763, 0.0404667, -75.4526
0, 1440.00000, 126.54, -30.5661, 125.913, -150.998, 125.437, 89.5502, 0, 0, 2.46957, -53.64, 2.48188, -174.072, 2.49129, 66.4763, 0.0404667, -75.4526
0, 1500.00000, 126.54, -30.5661, 125.913, -150.998, 125.437, 89.5502, 0, 0, 2.46957, -53.64, 2.48188, -174.072, 2.49129, 66.4763, 0.0404667, -75.4526
0, 1560.00000, 126.54, -30.5661, 125.913, -150.998, 125.437, 89.5502, 0, 0, 2.46957, -53.64, 2.48188, -174.072, 2.49129, 66.4763, 0.0404667, -75.4526
0, 1620.00000, 126.54, -30.5661, 125.913, -150.998, 125.437, 89.5502, 0, 0, 2.46957, -53.64, 2.48188, -174.072, 2.49129, 66.4763, 0.0404667, -75.4526
0, 1680.00000, 126.54, -30.5661, 125.913, -150.998, 125.437, 89.5502, 0, 0, 2.46957, -53.64, 2.48188, -174.072, 2.49129, 66.4763, 0.0404667, -75.4526
0, 1740.00000, 126.54, -30.5661, 125.913, -150.998, 125.437, 89.5502, 0, 0, 2.46957, -53.64, 2.48188, -174.072, 2.49129, 66.4763, 0.0404667, -75.4526
0, 1800.00000, 126.54, -30.5661, 125.913, -150.998, 125.437, 89.5502, 0, 0, 2.46957, -53.64, 2.48188, -174.072, 2.49129, 66.4763, 0.0404667, -75.4526
0, 1860.00000, 126.54, -30.5661, 125.913, -150.998, 125.437, 89.5502, 0, 0, 2.46957, -53.64, 2.48188, -174.072, 2.49129, 66.4763, 0.0404667, -75.4526
0, 1920.00000, 126.54, -30.5661, 125.913, -150.998, 125.437, 89.5502, 0, 0, 2.46957, -53.64, 2.48188, -174.072, 2.49129, 66.4763, 0.0404667, -75.4526
0, 1980.00000, 126.54, -30.5661, 125.913, -150.998, 125.437, 89.5502, 0, 0, 2.46957, -53.64, 2.48188, -174.072, 2.49129, 66.4763, 0.0404667, -75.4526
0, 2040.00000, 126.54, -30.5661, 125.913, -150.998, 125.437, 89.5502, 0, 0, 2.46957, -53.64, 2.48188, -174.072, 2.49129, 66.4763, 0.0404667, -75.4526
0, 2100.00000, 126.54, -30.5661, 125.913, -150.998, 125.437, 89.5502, 0, 0, 2.46957, -53.64, 2.48188, -174.072, 2.49129, 66.4763, 0.0404667, -75.4526
0, 2160.00000, 126.54, -30.5661, 125.913, -150.998, 125.437, 89.5502, 0, 0, 2.46957, -53.64, 2.48188, -174.072, 2.49129, 66.4763, 0.0404667, -75.4526
0, 2220.00000, 126.54, -30.5661, 125.913, -150.998, 125.437, 89.5502, 0, 0, 2.46957, -53.64, 2.48188, -174.072, 2.49129, 66.4763, 0.0404667, -75.4526
0, 2280.00000, 126.54, -30.5661, 125.913, -150.998, 125.437, 89.5502, 0, 0, 2.46957, -53.64, 2.48188, -174.072, 2.49129, 66.4763, 0.0404667, -75.4526
0, 2340.00000, 126.54, -30.5661, 125.913, -150.998, 125.437, 89.5502, 0, 0, 2.46957, -53.64, 2.48188, -174.072, 2.49129, 66.4763, 0.0404667, -75.4526
0, 2400.00000, 126.54, -30.5661, 125.913, -150.998, 125.437, 89.5502, 0, 0, 2.46957, -53.64, 2.48188, -174.072, 2.49129, 66.4763, 0.0404667, -75.4526
0, 2460.00000, 126.54, -30.5661, 125.913, -150.998, 125.437, 89.5502, 0, 0, 2.46957, -53.64, 2.48188, -174.072, 2.49129, 66.4763, 0.0404667, -75.4526
0, 2520.00000, 126.54, -30.5661, 125.913, -150.998, 125.437, 89.5502, 0, 0, 2.46957, -53.64, 2.48188, -174.072, 2.49129, 66.4763, 0.0404667, -75.4526
0, 2580.00000, 126.54, -30.5661, 125.913, -150.998, 125.437, 89.5502, 0, 0, 2.46957, -53.64, 2.48188, -174.072, 2.49129, 66.4763, 0.0404667, -75.4526
0, 2640.00000, 126.54, -30.5661, 125.913, -150.998, 125.437, 89.5502, 0, 0, 2.46957, -53.64, 2.48188, -174.072, 2.49129, 66.4763, 0.0404667, -75.4526
0, 2700.00000, 126.54, -30.5661, 125.913, -150.998, 125.437, 89.5502, 0, 0, 2.46957, -53.64, 2.48188, -174.072, 2.49129, 66.4763, 0.0404667, -75.4526
0, 2760.00000, 126.54, -30.5661, 125.913, -150.998, 125.437, 89.5502, 0, 0, 2.46957, -53.64, 2.48188, -174.072, 2.49129, 66.4763, 0.0404667, -75.4526
0, 2820.00000, 126.54, -30.5661, 125.913, -150.998, 125.437, 89.5502, 0, 0, 2.46957, -53.64, 2.48188, -174.072, 2.49129, 66.4763, 0.0404667, -75.4526
0, 2880.00000, 126.54, -30.5661, 125.913, -150.998, 125.437, 89.5502, 0, 0, 2.46957, -53.64, 2.48188, -174.072, 2.49129, 66.4763, 0.0404667, -75.4526
0, 2940.00000, 126.54, -30.5661, 125.913, -150.998, 125.437, 89.5502, 0, 0, 2.46957, -53.64, 2.48188, -174.072, 2.49129, 66.4763, 0.0404667, -75.4526
0, 3000.00000, 126.54, -30.5661, 125.913, -150.998, 125.437, 89.5502, 0, 0, 2.46957, -53.64, 2.48188, -174.072, 2.49129, 66.4763, 0.0404667, -75.4526
0, 3060.00000, 126.54, -30.5661, 125.913, -150.998, 125.437, 89.5502, 0, 0, 2.46957, -53.64, 2.48188, -174.072, 2.49129, 66.4763, 0.0404667, -75.4526
0, 3120.00000, 126.54, -30.5661, 125.913, -150.998, 125.437, 89.5502, 0, 0, 2.46957, -53.64, 2.48188, -174.072, 2.49129, 66.4763, 0.0404667, -75.4526
0, 3180.00000, 126.54, -30.5661, 125.913, -150.998, 125.437, 89.5502, 0, 0, 2.46957, -53.64, 2.48188, -174.072, 2.49129, 66.4763, 0.0404667, -75.4526
0, 3240.00000, 126.54, -30.5661, 125.913, -150.998, 125.437, 89.5502, 0, 0, 2.46957, -53.64, 2.48188, -174.072, 2.49129, 66.4763, 0.0404667, -75.4526
0, 3300.00000, 126.54, -30.5661, 125.913, -150.998, 125.437, 89.5502, 0, 0, 2.46957, -53.64, 2.48188, -174.072, 2.49129, 66.4763, 0.0404667, -75.4526
0, 3360.00000, 126.54, -30.5661, 125.913, -150.998, 125.437, 89.5502, 0, 0, 2.46957, -53.64, 2.48188, -174.072, 2.49129, 66.4763, 0.0404667, -75.4526
0, 3420.00000, 126.54, -30.5661, 125.913, -150.998, 125.437, 89.5502, 0, 0, 2.46957, -53.64, 2.48188, -174.072, 2.49129, 66.4763, 0.0404667, -75.4526
0, 3480.00000, 126.54, -30.5661, 125.913, -150.998, 125.437, 89.5502, 0, 0, 2.46957, -53.64, 2.48188, -174.072, 2.49129, 66.4763, 0.0404667, -75.4526
0, 3540.00000, 126.54, -30.5661, 125.913, -150.998, 125.437, 89.5502, 0, 0, 2.46957, -53.64, 2.48188, -174.072, 2.49129, 66.4763, 0.0404667, -75.4526
1, 0.00000, 126.54, -30.5661, 125.913, -150.998, 125.437, 89.5502, 0, 0, 2.46957, -53.64, 2.48188, -174.072, 2.49129, 66.4763, 0.0404667, -75.4526
1, 60.00000, 126.54, -30.5661, 125.913, -150.998, 125.437, 89.5502, 0, 0, 2.46957, -53.64, 2.48188, -174.072, 2.49129, 66.4763, 0.0404667, -75.4526
1, 120.00000, 126.54, -30.5661, 125.913, -150.998, 125.437, 89.5502, 0, 0, 2.46957, -53.64, 2.48188, -174.072, 2.49129, 66.4763, 0.0404667, -75.4526
1, 180.00000, 126.54, -30.5661, 125.913, -150.998, 125.437, 89.5502, 0, 0, 2.46957, -53.64, 2.48188, -174.072, 2.49129, 66.4763, 0.0404667, -75.4526
1, 240.00000, 126.54, -30.5661, 125.913, -150.998, 125.437, 89.5502, 0, 0, 2.46957, -53.64, 2.48188, -174.072, 2.49129, 66.4763, 0.0404667, -75.4526
1, 300.00000, 126.54, -30.5661, 125.913, -150.998, 125.437, 89.5502, 0, 0, 2.46957, -53.64, 2.48188, -174.072, 2.49129, 66.4763, 0.0404667, -75.4526
1, 360.00000, 126.54, -30.5661, 125.913, -150.998, 125.437, 89.5502, 0, 0, 2.46957, -53.64, 2.48188, -174.072, 2.49129, 66.4763, 0.0404667, -75.4526
1, 420.00000, 126.54, -30.5661, 125.913, -150.998, 125.437, 89.5502, 0, 0, 2.46957, -53.64, 2.48188, -174.072, 2.49129, 66.4763, 0.0404667, -75.4526
1, 480.00000, 126.54, -30.5661, 125.913, -150.998, 125.437, 89.5502, 0, 0, 2.46957, -53.64, 2.48188, -174.072, 2.49129, 66.4763, 0.0404667, -75.4526
1, 540.00000, 126.54, -30.5661, 125.913, -150.998, 125.437, 89.5502, 0, 0, 2.46957, -53.64, 2.48188, -174.072, 2.49129, 66.4763, 0.0404667, -75.4526
1, 600.00000, 126.54, -30.5661, 125.913, -150.998, 125.437, 89.5502, 0, 0, 2.46957, -53.64, 2.48188, -174.072, 2.49129, 66.4763, 0.0404667, -75.4526
1, 660.00000, 126.54, -30.5661, 125.913, -150.998, 125.437, 89.5502, 0, 0, 2.46957, -53.64, 2.48188, -174.072, 2.49129, 66.4763, 0.0404667, -75.4526
1, 720.00000, 126.54, -30.5661, 125.913, -150.998, 125.437, 89.5502, 0, 0, 2.46957, -53.64, 2.48188, -174.072, 2.49129, 66.4763, 0.0404667, -75.4526
1, 780.00000, 126.54, -30.5661, 125.913, -150.998, 125.437, 89.5502, 0, 0, 2.46957, -53.64, 2.48188, -174.072, 2.49129, 66.4763, 0.0404667, -75.4526
1, 840.00000, 126.54, -30.5661, 125.913, -150.998, 125.437, 89.5502, 0, 0, 2.46957, -53.64, 2.48188, -174.072, 2.49129, 66.4763, 0.0404667, -75.4526
1, 900.00000, 126.54, -30.5661, 125.913, -150.998, 125.437, 89.5502, 0, 0, 2.46957, -53.64, 2.48188, -174.072, 2.49129, 66.4763, 0.0404667, -75.4526
1, 960.00000, 126.54, -30.5661, 125.913, -150.998, 125.437, 89.5502, 0, 0, 2.46957, -53.64, 2.48188, -174.072, 2.49129, 66.4763, 0.0404667, -75.4526
1, 1020.00000, 126.54, -30.5661, 125.913, -150.998, 125.437, 89.5502, 0, 0, 2.46957, -53.64, 2.48188, -174.072, 2.49129, 66.4763, 0.0404667, -75.4526
1, 1080.00000, 126.54, -30.5661, 125.913, -150.998, 125.437, 89.5502, 0, 0, 2.46957, -53.64, 2.48188, -174.072, 2.49129, 66.4763, 0.0404667, -75.4526
1, 1140.00000, 126.54, -30.5661, 125.913, -150.998, 125.437, 89.5502, 0, 0, 2.46957, -53.64, 2.48188, -174.072, 2.49129, 66.4763, 0.0404667, -75.4526
1, 1200.00000, 126.54, -30.5661, 125.913, -150.998, 125.437, 89.5502, 0, 0, 2.46957, -53.64, 2.48188, -174.072, 2.49129, 66.4763, 0.0404667, -75.4526
1, 1260.00000, 126.54, -30.5661, 125.913, -150.998, 125.437, 89.5502, 0, 0, 2.46957, -53.64, 2.48188, -174.072, 2.49129, 66.4763, 0.0404667, -75.4526
1, 1320.00000, 126.54, -30.5661, 125.913, -150.998, 125.437, 89.5502, 0, 0, 2.46957, -53.64, 2.48188, -174.072, 2.49129, 66.4763, 0.0404667, -75.4526
1, 1380.00000, 126.54, -30.5661, 125.913, -150.998, 125.437, 89.5502, 0, 0, 2.46957, -53.64, 2.48188, -174.072, 2.49129, 66.4763, 0.0404667, -75.4526
1, 1440.00000, 126.54, -30.5661, 125.913, -150.998, 125.437, 89.5502, 0, 0, 2.46957, -53.64, 2.48188, -174.072, 2.49129, 66.4763, 0.0404667, -75.4526
1, 1500.00000, 126.54, -30.5661, 125.913, -150.998, 125.437, 89.5502, 0, 0, 2.46957, -53.64, 2.48188, -174.072, 2.49129, 66.4763, 0.0404667, -75.4526
1, 1560.00000, 126.54, -30.5661, 125.913, -150.998, 125.437, 89.5502, 0, 0, 2.46957, -53.64, 2.48188, -174.072, 2.49129, 66.4763, 0.0404667, -75.4526
1, 1620.00000, 126.54, -30.5661, 125.913, -150.998, 125.437, 89.5502, 0, 0, 2.46957, -53.64, 2.48188, -174.072, 2.49129, 66.4763, 0.0404667, -75.4526
1, 1680.00000, 126.54, -30.5661, 125.913, -150.998, 125.437, 89.5502, 0, 0, 2.46957, -53.64, 2.48188, -174.072, 2.49129, 66.4763, 0.0404667, -75.4526
1, 1740.00000, 126.54, -30.5661, 125.913, -150.998, 125.437, 89.5502, 0, 0, 2.46957, -53.64, 2.48188, -174.072, 2.49129, 66.4763, 0.0404667, -75.4526
1, 1800.00000, 126.54, -30.5661, 125.913, -150.998, 125.437, 89.5502, 0, 0, 2.46957, -53.64, 2.48188, -174.072, 2.49129, 66.4763, 0.0404667, -75.4526
1, 1860.00000, 126.54, -30.5661, 125.913, -150.998, 125.437, 89.5502, 0, 0, 2.46957, -53.64, 2.48188, -174.072, 2.49129, 66.4763, 0.0404667, -75.4526
1, 1920.00000, 126.54, -30.5661, 125.913, -150.998, 125.437, 89.5502, 0, 0, 2.46957, -53.64, 2.48188, -174.072, 2.49129, 66.4763, 0.0404667, -75.4526
1, 1980.00000, 126.54, -30.5661, 125.913, -150.998, 125.437, 89.5502, 0, 0, 2.46957, -53.64, 2.48188, -174.072, 2.49129, 66.4763, 0.0404667, -75.4526
1, 2040.00000, 126.54, -30.5661, 125.913, -150.998, 125.437, 89.5502, 0, 0, 2.46957, -53.64, 2.48188, -174.072, 2.49129, 66.4763, 0.0404667, -75.4526
1, 2100.00000, 126.54, -30.5661, 125.913, -150.998, 125.437, 89.5502, 0, 0, 2.46957, -53.64, 2.48188, -174.072, 2.49129, 66.4763, 0.0404667, -75.4526
1, 2160.00000, 126.54, -30.5661, 125.913, -150.998, 125.437, 89.5502, 0, 0, 2.46957, -53.64, 2.48188, -174.072, 2.49129, 66.4763, 0.0404667, -75.4526
1, 2220.00000, 126.54, -30.5661, 125.913, -150.998, 125.437, 89.5502, 0, 0, 2.46957, -53.64, 2.48188, -174.072, 2.49129, 66.4763, 0.0404667, -75.4526
1, 2280.00000, 126.54, -30.5661, 125.913, -150.998, 125.437, 89.5502, 0, 0, 2.46957, -53.64, 2.48188, -174.072, 2.49129, 66.4763, 0.0404667, -75.4526
1, 2340.00000, 126.54, -30.5661, 125.913, -150.998, 125.437, 89.5502, 0, 0, 2.46957, -53.64, 2.48188, -174.072, 2.49129, 66.4763, 0.0404667, -75.4526
1, 2400.00000, 126.54, -30.5661, 125.913, -150.998, 125.437, 89.5502, 0, 0, 2.46957, -53.64, 2.48188, -174.072, 2.49129, 66.4763, 0.0404667, -75.4526
1, 2460.00000, 126.54, -30.5661, 125.913, -150.998, 125.437, 89.5502, 0, 0, 2.46957, -53.64, 2.48188, -174.072, 2.49129, 66.4763, 0.0404667, -75.4526
1, 2520.00000, 126.576, -30.5688, 126.287, -150.758, 126.085, 89.5237, 0, 0, 2.46887, -53.6427, 2.47457, -173.832, 2.47853, 66.4493, 0.0190471, -70.5769
1, 2580.00000, 126.576, -30.5688, 126.287, -150.758, 126.086, 89.5237, 0, 0, 2.46887, -53.6427, 2.47453, -173.832, 2.47847, 66.4498, 0.0189846, -70.528
1, 2640.00000, 126.576, -30.5688, 126.287, -150.758, 126.086, 89.5237, 0, 0, 2.46887, -53.6427, 2.47453, -173.832, 2.47847, 66.4498, 0.0189843, -70.5278
1, 2700.00000, 126.576, -30.5688, 126.287, -150.758, 126.086, 89.5237, 0, 0, 2.46887, -53.6427, 2.47453, -173.832, 2.47847, 66.4498, 0.0189843, -70.5278
1, 2760.00000, 126.611, -30.5712, 126.647, -150.525, 126.713, 89.4983, 0, 0, 2.46818, -53.6451, 2.46751, -173.6, 2.46623, 66.424, 0.00360298, 43.2628
1, 2820.00000, 126.611, -30.5712, 126.647, -150.525, 126.714, 89.4983, 0, 0, 2.46818, -53.6452, 2.46748, -173.599, 2.46619, 66.4244, 0.00363013, 43.6691
1, 2880.00000, 126.611, -30.5712, 126.647, -150.525, 126.714, 89.4983, 0, 0, 2.46818, -53.6452, 2.46748, -173.599, 2.46619, 66.4244, 0.00363021, 43.6705
1, 2940.00000, 126.611, -30.5712, 126.647, -150.525, 126.714, 89.4983, 0, 0, 2.46818, -53.6452, 2.46748, -173.599, 2.46619, 66.4244, 0.00363021, 43.6705
1, 3000.00000, 126.611, -30.5712, 126.647, -150.525, 126.714, 89.4983, 0, 0, 2.46818, -53.6452, 2.46748, -173.599, 2.46619, 66.4244, 0.00363021, 43.6705
1, 3060.00000, 126.611, -30.5712, 126.647, -150.525, 126.714, 89.4983, 0, 0, 2.46818, -53.6452, 2.46748, -173.599, 2.46619, 66.4244, 0.00363021, 43.6705
1, 3120.00000, 126.611, -30.5712, 126.647, -150.525, 126.714, 89.4983, 0, 0, 2.46818, -53.6452, 2.46748, -173.599, 2.46619, 66.4244, 0.00363021, 43.6705
1, 3180.00000, 126.611, -30.5712, 126.647, -150.525, 126.714, 89.4983, 0, 0, 2.46818, -53.6452, 2.46748, -173.599, 2.46619, 66.4244, 0.00363021, 43.6705
1, 3240.00000, 126.611, -30.5712, 126.647, -150.525, 126.714, 89.4983, 0, 0, 2.46818, -53.6452, 2.46748, -173.599, 2.46619, 66.4244, 0.00363021, 43.6705
1, 3300.00000, 126.611, -30.5712, 126.647, -150.525, 126.714, 89.4983, 0, 0, 2.46818, -53.6452, 2.46748, -173.599, 2.46619, 66.4244, 0.00363021, 43.6705
1, 3360.00000, 126.611, -30.5712, 126.647, -150.525, 126.714, 89.4983, 0, 0, 2.46818, -53.6452, 2.46748, -173.599, 2.46619, 66.4244, 0.00363021, 43.6705
1, 3420.00000, 126.611, -30.5712, 126.647, -150.525, 126.714, 89.4983, 0, 0, 2.46818, -53.6452, 2.46748, -173.599, 2.46619, 66.4244, 0.00363021, 43.6705
1, 3480.00000, 126.611, -30.5712, 126.647, -150.525, 126.714, 89.4983, 0, 0, 2.46818, -53.6452, 2.46748, -173.599, 2.46619, 66.4244, 0.00363021, 43.6705
1, 3540.00000, 126.611, -30.5712, 126.647, -150.525, 126.714, 89.4983, 0, 0, 2.46818, -53.6452, 2.46748, -173.599, 2.46619, 66.4244, 0.00363021, 43.6705
2, 0.00000, 126.611, -30.5712, 126.647, -150.525, 126.714, 89.4983, 0, 0, 2.46818, -53.6452, 2.46748, -173.599, 2.46619, 66.4244, 0.00363021, 43.6705
2, 60.00000, 126.611, -30.5712, 126.647, -150.525, 126.714, 89.4983, 0, 0, 2.46818, -53.6452, 2.46748, -173.599, 2.46619, 66.4244, 0.00363021, 43.6705
2, 120.00000, 126.607, -30.5723, 126.643, -150.526, 126.709, 89.4973, 0, 0, 2.4751, -53.6462, 2.47439, -173.6, 2.4731, 66.4234, 0.00364205, 43.7462
2, 180.00000, 126.602, -30.5734, 126.638, -150.527, 126.704, 89.4962, 0, 0, 2.4821, -53.6473, 2.48139, -173.601, 2.48009, 66.4224, 0.00365364, 43.817
2, 240.00000, 126.597, -30.5745, 126.634, -150.529, 126.7, 89.4952, 0, 0, 2.48903, -53.6484, 2.4883, -173.602, 2.48701, 66.4213, 0.00366509, 43.8867
2, 300.00000, 126.592, -30.5756, 126.63, -150.53, 126.695, 89.4942, 0, 0, 2.49595, -53.6495, 2.49522, -173.603, 2.49392, 66.4203, 0.00367656, 43.9565
2, 360.00000, 126.588, -30.5767, 126.625, -150.531, 126.691, 89.4931, 0, 0, 2.50296, -53.6506, 2.50222, -173.605, 2.50092, 66.4192, 0.00368818, 44.0272
2, 420.00000, 126.583, -30.5778, 126.621, -150.532, 126.686, 89.4921, 0, 0, 2.50988, -53.6517, 2.50913, -173.606, 2.50783, 66.4182, 0.00369967, 44.0968
2, 480.00000, 126.578, -30.5789, 126.616, -150.533, 126.682, 89.491, 0, 0, 2.5168, -53.6528, 2.51605, -173.607, 2.51475, 66.4171, 0.00371119, 44.1665
2, 540.00000, 126.573, -30.58, 126.612, -150.534, 126.677, 89.49, 0, 0, 2.52381, -53.6539, 2.52305, -173.608, 2.52174, 66.4161, 0.00372285, 44.2371
2, 600.00000, 126.569, -30.5811, 126.607, -150.535, 126.673, 89.4889, 0, 0, 2.53074, -53.655, 2.52997, -173.609, 2.52866, 66.415, 0.00373439, 44.3068
2, 660.00000, 126.564, -30.5822, 126.603, -150.536, 126.668, 89.4879, 0, 0, 2.53766, -53.6561, 2.53689, -173.61, 2.53558, 66.414, 0.00374594, 44.3764
2, 720.00000, 126.559, -30.5833, 126.598, -150.537, 126.663, 89.4868, 0, 0, 2.54467, -53.6572, 2.54389, -173.611, 2.54258, 66.4129, 0.00375765, 44.4469
