hour,t(sec),V1,VAngle1,V2,VAngle2,V3,VAngle3,V4,VAngle4,I1,IAngle1,I2,IAngle2,I3,IAngle3,I4,IAngle4
0, 60.00000, 123.747, -30.9166, 122.688, -150.727, 123.754, 89.8815, 0, 0, 3.40364, -53.9905, 3.43299, -173.801, 3.40344, 66.8075, 0.071632, -3.52184
0, 120.00000, 123.747, -30.9166, 122.688, -150.727, 123.754, 89.8815, 0, 0, 3.40368, -53.9905, 3.43306, -173.801, 3.40348, 66.8076, 0.0716753, -3.53807
0, 180.00000, 123.747, -30.9166, 122.688, -150.727, 123.754, 89.8815, 0, 0, 3.40368, -53.9905, 3.43306, -173.801, 3.40348, 66.8076, 0.0716756, -3.5382
0, 240.00000, 123.747, -30.9166, 122.688, -150.727, 123.754, 89.8815, 0, 0, 3.40368, -53.9905, 3.43306, -173.801, 3.40348, 66.8076, 0.0716756, -3.5382
0, 300.00000, 123.747, -30.9166, 122.688, -150.727, 123.754, 89.8815, 0, 0, 3.40368, -53.9905, 3.43306, -173.801, 3.40348, 66.8076, 0.0716756, -3.5382
0, 360.00000, 123.747, -30.9166, 122.688, -150.727, 123.754, 89.8815, 0, 0, 3.40368, -53.9905, 3.43306, -173.801, 3.40348, 66.8076, 0.0716756, -3.5382
0, 420.00000, 123.747, -30.9166, 122.688, -150.727, 123.754, 89.8815, 0, 0, 3.40368, -53.9905, 3.43306, -173.801, 3.40348, 66.8076, 0.0716756, -3.5382
0, 480.00000, 123.747, -30.9166, 122.688, -150.727, 123.754, 89.8815, 0, 0, 3.40368, -53.9905, 3.43306, -173.801, 3.40348, 66.8076, 0.0716756, -3.5382
0, 540.00000, 123.747, -30.9166, 122.688, -150.727, 123.754, 89.8815, 0, 0, 3.40368, -53.9905, 3.43306, -173.801, 3.40348, 66.8076, 0.0716756, -3.5382
0, 600.00000, 123.747, -30.9166, 122.688, -150.727, 123.754, 89.8815, 0, 0, 3.40368, -53.9905, 3.43306, -173.801, 3.40348, 66.8076, 0.0716756, -3.5382
0, 660.00000, 123.747, -30.9166, 122.688, -150.727, 123.754, 89.8815, 0, 0, 3.40368, -53.9905, 3.43306, -173.801, 3.40348, 66.8076, 0.0716756, -3.5382
0, 720.00000, 123.747, -30.9166, 122.688, -150.727, 123.754, 89.8815, 0, 0, 3.40368, -53.9905, 3.43306, -173.801, 3.40348, 66.8076, 0.0716756, -3.5382
0, 780.00000, 123.747, -30.9166, 122.688, -150.727, 123.754, 89.8815, 0, 0, 3.40368, -53.9905, 3.43306, -173.801, 3.40348, 66.8076, 0.0716756, -3.5382
0, 840.00000, 123.747, -30.9166, 122.688, -150.727, 123.754, 89.8815, 0, 0, 3.40368, -53.9905, 3.43306, -173.801, 3.40348, 66.8076, 0.0716756, -3.5382
0, 900.00000, 123.747, -30.9166, 122.688, -150.727, 123.754, 89.8815, 0, 0, 3.40368, -53.9905, 3.43306, -173.801, 3.40348, 66.8076, 0.0716756, -3.5382
0, 960.00000, 123.568, -30.902, 121.2, -151.244, 122.068, 90.2659, 0, 0, 3.40861, -53.9759, 3.47504, -174.318, 3.45035, 67.1926, 0.140599, -34.5507
0, 1020.00000, 123.567, -30.902, 121.199, -151.244, 122.068, 90.2659, 0, 0, 3.40863, -53.976, 3.47523, -174.318, 3.45051, 67.1919, 0.140718, -34.5644
0, 1080.00000, 123.567, -30.902, 121.199, -151.244, 122.068, 90.2659, 0, 0, 3.40863, -53.976, 3.47523, -174.318, 3.45051, 67.1919, 0.140718, -34.5644
0, 1140.00000, 123.567, -30.902, 121.199, -151.244, 122.068, 90.2659, 0, 0, 3.40863, -53.976, 3.47523, -174.318, 3.45051, 67.1919, 0.140718, -34.5644
0, 1200.00000, 123.567, -30.902, 121.199, -151.244, 122.068, 90.2659, 0, 0, 3.40863, -53.976, 3.47523, -174.318, 3.45051, 67.1919, 0.140718, -34.5644
0, 1260.00000, 123.567, -30.902, 121.199, -151.244, 122.068, 90.2659, 0, 0, 3.40863, -53.976, 3.47523, -174.318, 3.45051, 67.1919, 0.140718, -34.5644
0, 1320.00000, 123.567, -30.902, 121.199, -151.244, 122.068, 90.2659, 0, 0, 3.40863, -53.976, 3.47523, -174.318, 3.45051, 67.1919, 0.140718, -34.5644
0, 1380.00000, 123.567, -30.902, 121.199, -151.244, 122.068, 90.2659, 0, 0, 3.40863, -53.976, 3.47523, -174.318, 3.45051, 67.1919, 0.140718, -34.5644
0, 1440.00000, 123.567, -30.902, 121.199, -151.244, 122.068, 90.2659, 0, 0, 3.40863, -53.976, 3.47523, -174.318, 3.45051, 67.1919, 0.140718, -34.5644
0, 1500.00000, 123.567, -30.902, 121.199, -151.244, 122.068, 90.2659, 0, 0, 3.40863, -53.976, 3.47523, -174.318, 3.45051, 67.1919, 0.140718, -34.5644
0, 1560.00000, 123.567, -30.902, 121.199, -151.244, 122.068, 90.2659, 0, 0, 3.40863, -53.976, 3.47523, -174.318, 3.45051, 67.1919, 0.140718, -34.5644
0, 1620.00000, 123.567, -30.902, 121.199, -151.244, 122.068, 90.2659, 0, 0, 3.40863, -53.976, 3.47523, -174.318, 3.45051, 67.1919, 0.140718, -34.5644
0, 1680.00000, 123.567, -30.902, 121.199, -151.244, 122.068, 90.2659, 0, 0, 3.40863, -53.976, 3.47523, -174.318, 3.45051, 67.1919, 0.140718, -34.5644
0, 1740.00000, 123.567, -30.902, 121.199, -151.244, 122.068, 90.2659, 0, 0, 3.40863, -53.976, 3.47523, -174.318, 3.45051, 67.1919, 0.140718, -34.5644
0, 1800.00000, 123.567, -30.902, 121.199, -151.244, 122.068, 90.2659, 0, 0, 3.40863, -53.976, 3.47523, -174.318, 3.45051, 67.1919, 0.140718, -34.5644
0, 1860.00000, 123.567, -30.902, 121.199, -151.244, 122.068, 90.2659, 0, 0, 3.40863, -53.976, 3.47523, -174.318, 3.45051, 67.1919, 0.140718, -34.5644
0, 1920.00000, 123.567, -30.902, 121.199, -151.244, 122.068, 90.2659, 0, 0, 3.40863, -53.976, 3.47523, -174.318, 3.45051, 67.1919, 0.140718, -34.5644
0, 1980.00000, 123.567, -30.902, 121.199, -151.244, 122.068, 90.2659, 0, 0, 3.40863, -53.976, 3.47523, -174.318, 3.45051, 67.1919, 0.140718, -34.5644
0, 2040.00000, 123.567, -30.902, 121.199, -151.244, 122.068, 90.2659, 0, 0, 3.40863, -53.976, 3.47523, -174.318, 3.45051, 67.1919, 0.140718, -34.5644
0, 2100.00000, 123.567, -30.902, 121.199, -151.244, 122.068, 90.2659, 0, 0, 3.40863, -53.976, 3.47523, -174.318, 3.45051, 67.1919, 0.140718, -34.5644
0, 2160.00000, 123.567, -30.902, 121.199, -151.244, 122.068, 90.2659, 0, 0, 3.40863, -53.976, 3.47523, -174.318, 3.45051, 67.1919, 0.140718, -34.5644
0, 2220.00000, 123.567, -30.902, 121.199, -151.244, 122.068, 90.2659, 0, 0, 3.40863, -53.976, 3.47523, -174.318, 3.45051, 67.1919, 0.140718, -34.5644
0, 2280.00000, 123.567, -30.902, 121.199, -151.244, 122.068, 90.2659, 0, 0, 3.40863, -53.976, 3.47523, -174.318, 3.45051, 67.1919, 0.140718, -34.5644
0, 2340.00000, 123.567, -30.902, 121.199, -151.244, 122.068, 90.2659, 0, 0, 3.40863, -53.976, 3.47523, -174.318, 3.45051, 67.1919, 0.140718, -34.5644
0, 2400.00000, 123.567, -30.902, 121.199, -151.244, 122.068, 90.2659, 0, 0, 3.40863, -53.976, 3.47523, -174.318, 3.45051, 67.1919, 0.140718, -34.5644
0, 2460.00000, 123.567, -30.902, 121.199, -151.244, 122.068, 90.2659, 0, 0, 3.40863, -53.976, 3.47523, -174.318, 3.45051, 67.1919, 0.140718, -34.5644
0, 2520.00000, 123.567, -30.902, 121.199, -151.244, 122.068, 90.2659, 0, 0, 3.40863, -53.976, 3.47523, -174.318, 3.45051, 67.1919, 0.140718, -34.5644
0, 2580.00000, 123.567, -30.902, 121.199, -151.244, 122.068, 90.2659, 0, 0, 3.40863, -53.976, 3.47523, -174.318, 3.45051, 67.1919, 0.140718, -34.5644
0, 2640.00000, 123.567, -30.902, 121.199, -151.244, 122.068, 90.2659, 0, 0, 3.40863, -53.976, 3.47523, -174.318, 3.45051, 67.1919, 0.140718, -34.5644
0, 2700.00000, 123.567, -30.902, 121.199, -151.244, 122.068, 90.2659, 0, 0, 3.40863, -53.976, 3.47523, -174.318, 3.45051, 67.1919, 0.140718, -34.5644
0, 2760.00000, 123.567, -30.902, 121.199, -151.244, 122.068, 90.2659, 0, 0, 3.40863, -53.976, 3.47523, -174.318, 3.45051, 67.1919, 0.140718, -34.5644
0, 2820.00000, 123.567, -30.902, 121.199, -151.244, 122.068, 90.2659, 0, 0, 3.40863, -53.976, 3.47523, -174.318, 3.45051, 67.1919, 0.140718, -34.5644
0, 2880.00000, 123.567, -30.902, 121.199, -151.244, 122.068, 90.2659, 0, 0, 3.40863, -53.976, 3.47523, -174.318, 3.45051, 67.1919, 0.140718, -34.5644
0, 2940.00000, 123.567, -30.902, 121.199, -151.244, 122.068, 90.2659, 0, 0, 3.40863, -53.976, 3.47523, -174.318, 3.45051, 67.1919, 0.140718, -34.5644
0, 3000.00000, 123.567, -30.902, 121.199, -151.244, 122.068, 90.2659, 0, 0, 3.40863, -53.976, 3.47523, -174.318, 3.45051, 67.1919, 0.140718, -34.5644
0, 3060.00000, 123.567, -30.902, 121.199, -151.244, 122.068, 90.2659, 0, 0, 3.40863, -53.976, 3.47523, -174.318, 3.45051, 67.1919, 0.140718, -34.5644
0, 3120.00000, 123.567, -30.902, 121.199, -151.244, 122.068, 90.2659, 0, 0, 3.40863, -53.976, 3.47523, -174.318, 3.45051, 67.1919, 0.140718, -34.5644
0, 3180.00000, 123.567, -30.902, 121.199, -151.244, 122.068, 90.2659, 0, 0, 3.40863, -53.976, 3.47523, -174.318, 3.45051, 67.1919, 0.140718, -34.5644
0, 3240.00000, 123.567, -30.902, 121.199, -151.244, 122.068, 90.2659, 0, 0, 3.40863, -53.976, 3.47523, -174.318, 3.45051, 67.1919, 0.140718, -34.5644
0, 3300.00000, 123.567, -30.902, 121.199, -151.244, 122.068, 90.2659, 0, 0, 3.40863, -53.976, 3.47523, -174.318, 3.45051, 67.1919, 0.140718, -34.5644
0, 3360.00000, 123.567, -30.902, 121.199, -151.244, 122.068, 90.2659, 0, 0, 3.40863, -53.976, 3.47523, -174.318, 3.45051, 67.1919, 0.140718, -34.5644
0, 3420.00000, 123.567, -30.902, 121.199, -151.244, 122.068, 90.2659, 0, 0, 3.40863, -53.976, 3.47523, -174.318, 3.45051, 67.1919, 0.140718, -34.5644
0, 3480.00000, 123.567, -30.902, 121.199, -151.244, 122.068, 90.2659, 0, 0, 3.40863, -53.976, 3.47523, -174.318, 3.45051, 67.1919, 0.140718, -34.5644
0, 3540.00000, 123.567, -30.902, 121.199, -151.244, 122.068, 90.2659, 0, 0, 3.40863, -53.976, 3.47523, -174.318, 3.45051, 67.1919, 0.140718, -34.5644
1, 0.00000, 123.567, -30.902, 121.199, -151.244, 122.068, 90.2659, 0, 0, 3.40863, -53.976, 3.47523, -174.318, 3.45051, 67.1919, 0.140718, -34.5644
1, 60.00000, 123.567, -30.902, 121.199, -151.244, 122.068, 90.2659, 0, 0, 3.40863, -53.976, 3.47523, -174.318, 3.45051, 67.1919, 0.140718, -34.5644
1, 120.00000, 123.567, -30.902, 121.199, -151.244, 122.068, 90.2659, 0, 0, 3.40863, -53.976, 3.47523, -174.318, 3.45051, 67.1919, 0.140718, -34.5644
1, 180.00000, 123.567, -30.902, 121.199, -151.244, 122.068, 90.2659, 0, 0, 3.40863, -53.976, 3.47523, -174.318, 3.45051, 67.1919, 0.140718, -34.5644
1, 240.00000, 123.567, -30.902, 121.199, -151.244, 122.068, 90.2659, 0, 0, 3.40863, -53.976, 3.47523, -174.318, 3.45051, 67.1919, 0.140718, -34.5644
1, 300.00000, 123.567, -30.902, 121.199, -151.244, 122.068, 90.2659, 0, 0, 3.40863, -53.976, 3.47523, -174.318, 3.45051, 67.1919, 0.140718, -34.5644
1, 360.00000, 123.567, -30.902, 121.199, -151.244, 122.068, 90.2659, 0, 0, 3.40863, -53.976, 3.47523, -174.318, 3.45051, 67.1919, 0.140718, -34.5644
1, 420.00000, 123.567, -30.902, 121.199, -151.244, 122.068, 90.2659, 0, 0, 3.40863, -53.976, 3.47523, -174.318, 3.45051, 67.1919, 0.140718, -34.5644
1, 480.00000, 123.567, -30.902, 121.199, -151.244, 122.068, 90.2659, 0, 0, 3.40863, -53.976, 3.47523, -174.318, 3.45051, 67.1919, 0.140718, -34.5644
1, 540.00000, 123.567, -30.902, 121.199, -151.244, 122.068, 90.2659, 0, 0, 3.40863, -53.976, 3.47523, -174.318, 3.45051, 67.1919, 0.140718, -34.5644
1, 600.00000, 123.567, -30.902, 121.199, -151.244, 122.068, 90.2659, 0, 0, 3.40863, -53.976, 3.47523, -174.318, 3.45051, 67.1919, 0.140718, -34.5644
1, 660.00000, 123.567, -30.902, 121.199, -151.244, 122.068, 90.2659, 0, 0, 3.40863, -53.976, 3.47523, -174.318, 3.45051, 67.1919, 0.140718, -34.5644
1, 720.00000, 123.567, -30.902, 121.199, -151.244, 122.068, 90.2659, 0, 0, 3.40863, -53.976, 3.47523, -174.318, 3.45051, 67.1919, 0.140718, -34.5644
1, 780.00000, 123.567, -30.902, 121.199, -151.244, 122.068, 90.2659, 0, 0, 3.40863, -53.976, 3.47523, -174.318, 3.45051, 67.1919, 0.140718, -34.5644
1, 840.00000, 123.567, -30.902, 121.199, -151.244, 122.068, 90.2659, 0, 0, 3.40863, -53.976, 3.47523, -174.318, 3.45051, 67.1919, 0.140718, -34.5644
1, 900.00000, 123.567, -30.902, 121.199, -151.244, 122.068, 90.2659, 0, 0, 3.40863, -53.976, 3.47523, -174.318, 3.45051, 67.1919, 0.140718, -34.5644
1, 960.00000, 123.567, -30.902, 121.199, -151.244, 122.068, 90.2659, 0, 0, 3.40863, -53.976, 3.47523, -174.318, 3.45051, 67.1919, 0.140718, -34.5644
1, 1020.00000, 123.567, -30.902, 121.199, -151.244, 122.068, 90.2659, 0, 0, 3.40863, -53.976, 3.47523, -174.318, 3.45051, 67.1919, 0.140718, -34.5644
1, 1080.00000, 123.567, -30.902, 121.199, -151.244, 122.068, 90.2659, 0, 0, 3.40863, -53.976, 3.47523, -174.318, 3.45051, 67.1919, 0.140718, -34.5644
1, 1140.00000, 123.567, -30.902, 121.199, -151.244, 122.068, 90.2659, 0, 0, 3.40863, -53.976, 3.47523, -174.318, 3.45051, 67.1919, 0.140718, -34.5644
1, 1200.00000, 123.567, -30.902, 121.199, -151.244, 122.068, 90.2659, 0, 0, 3.40863, -53.976, 3.47523, -174.318, 3.45051, 67.1919, 0.140718, -34.5644
1, 1260.00000, 123.567, -30.902, 121.199, -151.244, 122.068, 90.2659, 0, 0, 3.40863, -53.976, 3.47523, -174.318, 3.45051, 67.1919, 0.140718, -34.5644
1, 1320.00000, 123.567, -30.902, 121.199, -151.244, 122.068, 90.2659, 0, 0, 3.40863, -53.976, 3.47523, -174.318, 3.45051, 67.1919, 0.140718, -34.5644
1, 1380.00000, 123.567, -30.902, 121.199, -151.244, 122.068, 90.2659, 0, 0, 3.40863, -53.976, 3.47523, -174.318, 3.45051, 67.1919, 0.140718, -34.5644
1, 1440.00000, 123.567, -30.902, 121.199, -151.244, 122.068, 90.2659, 0, 0, 3.40863, -53.976, 3.47523, -174.318, 3.45051, 67.1919, 0.140718, -34.5644
1, 1500.00000, 123.567, -30.902, 121.199, -151.244, 122.068, 90.2659, 0, 0, 3.40863, -53.976, 3.47523, -174.318, 3.45051, 67.1919, 0.140718, -34.5644
1, 1560.00000, 123.567, -30.902, 121.199, -151.244, 122.068, 90.2659, 0, 0, 3.40863, -53.976, 3.47523, -174.318, 3.45051, 67.1919, 0.140718, -34.5644
1, 1620.00000, 123.567, -30.902, 121.199, -151.244, 122.068, 90.2659, 0, 0, 3.40863, -53.976, 3.47523, -174.318, 3.45051, 67.1919, 0.140718, -34.5644
1, 1680.00000, 123.567, -30.902, 121.199, -151.244, 122.068, 90.2659, 0, 0, 3.40863, -53.976, 3.47523, -174.318, 3.45051, 67.1919, 0.140718, -34.5644
1, 1740.00000, 123.567, -30.902, 121.199, -151.244, 122.068, 90.2659, 0, 0, 3.40863, -53.976, 3.47523, -174.318, 3.45051, 67.1919, 0.140718, -34.5644
1, 1800.00000, 123.567, -30.902, 121.199, -151.244, 122.068, 90.2659, 0, 0, 3.40863, -53.976, 3.47523, -174.318, 3.45051, 67.1919, 0.140718, -34.5644
1, 1860.00000, 123.567, -30.902, 121.199, -151.244, 122.068, 90.2659, 0, 0, 3.40863, -53.976, 3.47523, -174.318, 3.45051, 67.1919, 0.140718, -34.5644
1, 1920.00000, 123.567, -30.902, 121.199, -151.244, 122.068, 90.2659, 0, 0, 3.40863, -53.976, 3.47523, -174.318, 3.45051, 67.1919, 0.140718, -34.5644
1, 1980.00000, 123.567, -30.902, 121.199, -151.244, 122.068, 90.2659, 0, 0, 3.40863, -53.976, 3.47523, -174.318, 3.45051, 67.1919, 0.140718, -34.5644
1, 2040.00000, 123.736, -30.9168, 122.45, -150.76, 123.577, 89.9679, 0, 0, 3.40402, -53.9906, 3.43998, -173.835, 3.4086, 66.8938, 0.0820499, -8.52394
1, 2100.00000, 123.736, -30.9168, 122.451, -150.76, 123.577, 89.9679, 0, 0, 3.40399, -53.9907, 3.4397, -173.834, 3.40836, 66.894, 0.0818613, -8.38442
1, 2160.00000, 123.736, -30.9168, 122.451, -150.76, 123.577, 89.9679, 0, 0, 3.40399, -53.9907, 3.4397, -173.834, 3.40836, 66.894, 0.0818601, -8.38381
1, 2220.00000, 123.736, -30.9168, 122.451, -150.76, 123.577, 89.9679, 0, 0, 3.40399, -53.9907, 3.4397, -173.834, 3.40836, 66.894, 0.0818601, -8.38381
1, 2280.00000, 123.736, -30.9168, 122.451, -150.76, 123.577, 89.9679, 0, 0, 3.40399, -53.9907, 3.4397, -173.834, 3.40836, 66.894, 0.0818601, -8.38381
1, 2340.00000, 123.736, -30.9168, 122.451, -150.76, 123.577, 89.9679, 0, 0, 3.40399, -53.9907, 3.4397, -173.834, 3.40836, 66.894, 0.0818601, -8.38381
1, 2400.00000, 123.736, -30.9168, 122.451, -150.76, 123.577, 89.9679, 0, 0, 3.40399, -53.9907, 3.4397, -173.834, 3.40836, 66.894, 0.0818601, -8.38381
1, 2460.00000, 123.736, -30.9168, 122.451, -150.76, 123.577, 89.9679, 0, 0, 3.40399, -53.9907, 3.4397, -173.834, 3.40836, 66.894, 0.0818601, -8.38381
1, 2520.00000, 123.913, -30.9308, 123.921, -150.259, 125.244, 89.6003, 0, 0, 3.39913, -54.0047, 3.39904, -173.333, 3.36313, 66.5259, 0.0713329, 57.163
1, 2580.00000, 123.914, -30.9308, 123.922, -150.259, 125.244, 89.6004, 0, 0, 3.39911, -54.0047, 3.39889, -173.333, 3.36299, 66.5264, 0.0713799, 57.2507
1, 2640.00000, 123.914, -30.9308, 123.922, -150.259, 125.244, 89.6004, 0, 0, 3.39911, -54.0047, 3.39889, -173.333, 3.36299, 66.5264, 0.0713798, 57.2511
1, 2700.00000, 123.914, -30.9308, 123.922, -150.259, 125.244, 89.6004, 0, 0, 3.39911, -54.0047, 3.39889, -173.333, 3.36299, 66.5264, 0.0713798, 57.2511
1, 2760.00000, 124.865, -30.5533, 125.116, -150.444, 125.186, 89.6125, 0, 0, 3.37331, -53.6274, 3.36658, -173.518, 3.36455, 66.5389, 0.0109741, 62.5444
1, 2820.00000, 124.866, -30.5533, 125.116, -150.444, 125.186, 89.6124, 0, 0, 3.37319, -53.6272, 3.36645, -173.518, 3.36457, 66.5385, 0.0108561, 62.855
1, 2880.00000, 124.866, -30.5533, 125.116, -150.444, 125.186, 89.6124, 0, 0, 3.37319, -53.6272, 3.36645, -173.518, 3.36457, 66.5385, 0.0108557, 62.8561
1, 2940.00000, 124.866, -30.5533, 125.116, -150.444, 125.186, 89.6124, 0, 0, 3.37319, -53.6272, 3.36645, -173.518, 3.36457, 66.5385, 0.0108557, 62.8561
1, 3000.00000, 124.866, -30.5533, 125.116, -150.444, 125.186, 89.6124, 0, 0, 3.37319, -53.6272, 3.36645, -173.518, 3.36457, 66.5385, 0.0108557, 62.8561
1, 3060.00000, 124.866, -30.5533, 125.116, -150.444, 125.186, 89.6124, 0, 0, 3.37319, -53.6272, 3.36645, -173.518, 3.36457, 66.5385, 0.0108557, 62.8561
1, 3120.00000, 124.866, -30.5533, 125.116, -150.444, 125.186, 89.6124, 0, 0, 3.37319, -53.6272, 3.36645, -173.518, 3.36457, 66.5385, 0.0108557, 62.8561
1, 3180.00000, 124.866, -30.5533, 125.116, -150.444, 125.186, 89.6124, 0, 0, 3.37319, -53.6272, 3.36645, -173.518, 3.36457, 66.5385, 0.0108557, 62.8561
1, 3240.00000, 124.866, -30.5533, 125.116, -150.444, 125.186, 89.6124, 0, 0, 3.37319, -53.6272, 3.36645, -173.518, 3.36457, 66.5385, 0.0108557, 62.8561
1, 3300.00000, 124.866, -30.5533, 125.116, -150.444, 125.186, 89.6124, 0, 0, 3.37319, -53.6272, 3.36645, -173.518, 3.36457, 66.5385, 0.0108557, 62.8561
1, 3360.00000, 124.866, -30.5533, 125.116, -150.444, 125.186, 89.6124, 0, 0, 3.37319, -53.6272, 3.36645, -173.518, 3.36457, 66.5385, 0.0108557, 62.8561
1, 3420.00000, 124.866, -30.5533, 125.116, -150.444, 125.186, 89.6124, 0, 0, 3.37319, -53.6272, 3.36645, -173.518, 3.36457, 66.5385, 0.0108557, 62.8561
1, 3480.00000, 124.866, -30.5533, 125.116, -150.444, 125.186, 89.6124, 0, 0, 3.37319, -53.6272, 3.36645, -173.518, 3.36457, 66.5385, 0.0108557, 62.8561
1, 3540.00000, 124.866, -30.5533, 125.116, -150.444, 125.186, 89.6124, 0, 0, 3.37319, -53.6272, 3.36645, -173.518, 3.36457, 66.5385, 0.0108557, 62.8561
2, 0.00000, 124.866, -30.5533, 125.116, -150.444, 125.186, 89.6124, 0, 0, 3.37319, -53.6272, 3.36645, -173.518, 3.36457, 66.5385, 0.0108557, 62.8561
2, 60.00000, 124.866, -30.5533, 125.116, -150.444, 125.186, 89.6124, 0, 0, 3.37319, -53.6272, 3.36645, -173.518, 3.36457, 66.5385, 0.0108557, 62.8561
2, 120.00000, 124.857, -30.5543, 125.108, -150.445, 125.178, 89.6116, 0, 0, 3.38274, -53.6282, 3.37595, -173.518, 3.37407, 66.5377, 0.0108969, 62.962
2, 180.00000, 124.849, -30.5553, 125.101, -150.445, 125.17, 89.6107, 0, 0, 3.39241, -53.6292, 3.38557, -173.519, 3.3837, 66.5368, 0.01094, 63.0543
2, 240.00000, 124.841, -30.5564, 125.094, -150.446, 125.163, 89.6098, 0, 0, 3.40197, -53.6302, 3.39509, -173.52, 3.39322, 66.5359, 0.0109828, 63.1448
2, 300.00000, 124.832, -30.5574, 125.086, -150.447, 125.155, 89.609, 0, 0, 3.41153, -53.6312, 3.40461, -173.521, 3.40274, 66.5351, 0.0110256, 63.2354
2, 360.00000, 124.824, -30.5584, 125.079, -150.448, 125.147, 89.6081, 0, 0, 3.42121, -53.6322, 3.41424, -173.522, 3.41237, 66.5342, 0.011069, 63.327
2, 420.00000, 124.816, -30.5594, 125.071, -150.449, 125.14, 89.6073, 0, 0, 3.43077, -53.6333, 3.42376, -173.523, 3.42189, 66.5334, 0.0111121, 63.4171
2, 480.00000, 124.807, -30.5604, 125.064, -150.45, 125.132, 89.6064, 0, 0, 3.44034, -53.6343, 3.43328, -173.524, 3.43141, 66.5325, 0.0111552, 63.5071
2, 540.00000, 124.799, -30.5615, 125.056, -150.451, 125.124, 89.6055, 0, 0, 3.45002, -53.6353, 3.44291, -173.525, 3.44105, 66.5316, 0.011199, 63.5983
2, 600.00000, 124.791, -30.5625, 125.049, -150.452, 125.116, 89.6047, 0, 0, 3.45959, -53.6363, 3.45244, -173.525, 3.45058, 66.5308, 0.0112423, 63.6879
2, 660.00000, 124.782, -30.5635, 125.042, -150.453, 125.109, 89.6038, 0, 0, 3.46916, -53.6373, 3.46196, -173.526, 3.4601, 66.5299, 0.0112858, 63.7775
2, 720.00000, 124.774, -30.5645, 125.034, -150.453, 125.101, 89.603, 0, 0, 3.47884, -53.6384, 3.4716, -173.527, 3.46974, 66.529, 0.0113299, 63.8681
