hour,t(sec),V1,VAngle1,V2,VAngle2,V3,VAngle3,V4,VAngle4,I1,IAngle1,I2,IAngle2,I3,IAngle3,I4,IAngle4
0, 60.00000, 126.858, -30.5978, 126.922, -150.551, 126.966, 89.4537, 0, 0, 2.59187, -53.6713, 2.59057, -173.625, 2.58968, 66.3801, 0.00337153, 63.8769
0, 120.00000, 126.858, -30.5979, 126.922, -150.551, 126.966, 89.4537, 0, 0, 2.5919, -53.6718, 2.5906, -173.625, 2.58971, 66.3798, 0.00337829, 63.916
0, 180.00000, 126.858, -30.5979, 126.922, -150.551, 126.966, 89.4537, 0, 0, 2.5919, -53.6718, 2.5906, -173.625, 2.58971, 66.3798, 0.00337831, 63.9162
0, 240.00000, 126.858, -30.5979, 126.922, -150.551, 126.966, 89.4537, 0, 0, 2.5919, -53.6718, 2.5906, -173.625, 2.58971, 66.3798, 0.00337831, 63.9162
0, 300.00000, 126.858, -30.5979, 126.922, -150.551, 126.966, 89.4537, 0, 0, 2.5919, -53.6718, 2.5906, -173.625, 2.58971, 66.3798, 0.00337831, 63.9162
0, 360.00000, 126.858, -30.5979, 126.922, -150.551, 126.966, 89.4537, 0, 0, 2.5919, -53.6718, 2.5906, -173.625, 2.58971, 66.3798, 0.00337831, 63.9162
0, 420.00000, 126.858, -30.5979, 126.922, -150.551, 126.966, 89.4537, 0, 0, 2.5919, -53.6718, 2.5906, -173.625, 2.58971, 66.3798, 0.00337831, 63.9162
0, 480.00000, 126.858, -30.5979, 126.922, -150.551, 126.966, 89.4537, 0, 0, 2.5919, -53.6718, 2.5906, -173.625, 2.58971, 66.3798, 0.00337831, 63.9162
0, 540.00000, 126.858, -30.5979, 126.922, -150.551, 126.966, 89.4537, 0, 0, 2.5919, -53.6718, 2.5906, -173.625, 2.58971, 66.3798, 0.00337831, 63.9162
0, 600.00000, 126.858, -30.5979, 126.922, -150.551, 126.966, 89.4537, 0, 0, 2.5919, -53.6718, 2.5906, -173.625, 2.58971, 66.3798, 0.00337831, 63.9162
0, 660.00000, 126.858, -30.5979, 126.922, -150.551, 126.966, 89.4537, 0, 0, 2.5919, -53.6718, 2.5906, -173.625, 2.58971, 66.3798, 0.00337831, 63.9162
0, 720.00000, 126.858, -30.5979, 126.922, -150.551, 126.966, 89.4537, 0, 0, 2.5919, -53.6718, 2.5906, -173.625, 2.58971, 66.3798, 0.00337831, 63.9162
0, 780.00000, 126.858, -30.5979, 126.922, -150.551, 126.966, 89.4537, 0, 0, 2.5919, -53.6718, 2.5906, -173.625, 2.58971, 66.3798, 0.00337831, 63.9162
0, 840.00000, 126.858, -30.5979, 126.922, -150.551, 126.966, 89.4537, 0, 0, 2.5919, -53.6718, 2.5906, -173.625, 2.58971, 66.3798, 0.00337831, 63.9162
0, 900.00000, 126.858, -30.5979, 126.922, -150.551, 126.966, 89.4537, 0, 0, 2.5919, -53.6718, 2.5906, -173.625, 2.58971, 66.3798, 0.00337831, 63.9162
0, 960.00000, 126.858, -30.5979, 126.922, -150.551, 126.966, 89.4537, 0, 0, 2.5919, -53.6718, 2.5906, -173.625, 2.58971, 66.3798, 0.00337831, 63.9162
0, 1020.00000, 126.858, -30.5979, 126.922, -150.551, 126.966, 89.4537, 0, 0, 2.5919, -53.6718, 2.5906, -173.625, 2.58971, 66.3798, 0.00337831, 63.9162
0, 1080.00000, 126.858, -30.5979, 126.922, -150.551, 126.966, 89.4537, 0, 0, 2.5919, -53.6718, 2.5906, -173.625, 2.58971, 66.3798, 0.00337831, 63.9162
0, 1140.00000, 126.858, -30.5979, 126.922, -150.551, 126.966, 89.4537, 0, 0, 2.5919, -53.6718, 2.5906, -173.625, 2.58971, 66.3798, 0.00337831, 63.9162
0, 1200.00000, 126.858, -30.5979, 126.922, -150.551, 126.966, 89.4537, 0, 0, 2.5919, -53.6718, 2.5906, -173.625, 2.58971, 66.3798, 0.00337831, 63.9162
0, 1260.00000, 126.858, -30.5979, 126.922, -150.551, 126.966, 89.4537, 0, 0, 2.5919, -53.6718, 2.5906, -173.625, 2.58971, 66.3798, 0.00337831, 63.9162
0, 1320.00000, 126.858, -30.5979, 126.922, -150.551, 126.966, 89.4537, 0, 0, 2.5919, -53.6718, 2.5906, -173.625, 2.58971, 66.3798, 0.00337831, 63.9162
0, 1380.00000, 126.858, -30.5979, 126.922, -150.551, 126.966, 89.4537, 0, 0, 2.5919, -53.6718, 2.5906, -173.625, 2.58971, 66.3798, 0.00337831, 63.9162
0, 1440.00000, 126.858, -30.5979, 126.922, -150.551, 126.966, 89.4537, 0, 0, 2.5919, -53.6718, 2.5906, -173.625, 2.58971, 66.3798, 0.00337831, 63.9162
0, 1500.00000, 126.858, -30.5979, 126.922, -150.551, 126.966, 89.4537, 0, 0, 2.5919, -53.6718, 2.5906, -173.625, 2.58971, 66.3798, 0.00337831, 63.9162
0, 1560.00000, 126.858, -30.5979, 126.922, -150.551, 126.966, 89.4537, 0, 0, 2.5919, -53.6718, 2.5906, -173.625, 2.58971, 66.3798, 0.00337831, 63.9162
0, 1620.00000, 126.858, -30.5979, 126.922, -150.551, 126.966, 89.4537, 0, 0, 2.5919, -53.6718, 2.5906, -173.625, 2.58971, 66.3798, 0.00337831, 63.9162
0, 1680.00000, 126.858, -30.5979, 126.922, -150.551, 126.966, 89.4537, 0, 0, 2.5919, -53.6718, 2.5906, -173.625, 2.58971, 66.3798, 0.00337831, 63.9162
0, 1740.00000, 126.858, -30.5979, 126.922, -150.551, 126.966, 89.4537, 0, 0, 2.5919, -53.6718, 2.5906, -173.625, 2.58971, 66.3798, 0.00337831, 63.9162
0, 1800.00000, 126.858, -30.5979, 126.922, -150.551, 126.966, 89.4537, 0, 0, 2.5919, -53.6718, 2.5906, -173.625, 2.58971, 66.3798, 0.00337831, 63.9162
0, 1860.00000, 126.858, -30.5979, 126.922, -150.551, 126.966, 89.4537, 0, 0, 2.5919, -53.6718, 2.5906, -173.625, 2.58971, 66.3798, 0.00337831, 63.9162
0, 1920.00000, 126.858, -30.5979, 126.922, -150.551, 126.966, 89.4537, 0, 0, 2.5919, -53.6718, 2.5906, -173.625, 2.58971, 66.3798, 0.00337831, 63.9162
0, 1980.00000, 126.858, -30.5979, 126.922, -150.551, 126.966, 89.4537, 0, 0, 2.5919, -53.6718, 2.5906, -173.625, 2.58971, 66.3798, 0.00337831, 63.9162
0, 2040.00000, 126.858, -30.5979, 126.922, -150.551, 126.966, 89.4537, 0, 0, 2.5919, -53.6718, 2.5906, -173.625, 2.58971, 66.3798, 0.00337831, 63.9162
0, 2100.00000, 126.858, -30.5979, 126.922, -150.551, 126.966, 89.4537, 0, 0, 2.5919, -53.6718, 2.5906, -173.625, 2.58971, 66.3798, 0.00337831, 63.9162
0, 2160.00000, 126.858, -30.5979, 126.922, -150.551, 126.966, 89.4537, 0, 0, 2.5919, -53.6718, 2.5906, -173.625, 2.58971, 66.3798, 0.00337831, 63.9162
0, 2220.00000, 126.858, -30.5979, 126.922, -150.551, 126.966, 89.4537, 0, 0, 2.5919, -53.6718, 2.5906, -173.625, 2.58971, 66.3798, 0.00337831, 63.9162
0, 2280.00000, 126.858, -30.5979, 126.922, -150.551, 126.966, 89.4537, 0, 0, 2.5919, -53.6718, 2.5906, -173.625, 2.58971, 66.3798, 0.00337831, 63.9162
0, 2340.00000, 126.858, -30.5979, 126.922, -150.551, 126.966, 89.4537, 0, 0, 2.5919, -53.6718, 2.5906, -173.625, 2.58971, 66.3798, 0.00337831, 63.9162
0, 2400.00000, 126.858, -30.5979, 126.922, -150.551, 126.966, 89.4537, 0, 0, 2.5919, -53.6718, 2.5906, -173.625, 2.58971, 66.3798, 0.00337831, 63.9162
0, 2460.00000, 126.858, -30.5979, 126.922, -150.551, 126.966, 89.4537, 0, 0, 2.5919, -53.6718, 2.5906, -173.625, 2.58971, 66.3798, 0.00337831, 63.9162
0, 2520.00000, 126.858, -30.5979, 126.922, -150.551, 126.966, 89.4537, 0, 0, 2.5919, -53.6718, 2.5906, -173.625, 2.58971, 66.3798, 0.00337831, 63.9162
0, 2580.00000, 126.858, -30.5979, 126.922, -150.551, 126.966, 89.4537, 0, 0, 2.5919, -53.6718, 2.5906, -173.625, 2.58971, 66.3798, 0.00337831, 63.9162
0, 2640.00000, 126.858, -30.5979, 126.922, -150.551, 126.966, 89.4537, 0, 0, 2.5919, -53.6718, 2.5906, -173.625, 2.58971, 66.3798, 0.00337831, 63.9162
0, 2700.00000, 126.858, -30.5979, 126.922, -150.551, 126.966, 89.4537, 0, 0, 2.5919, -53.6718, 2.5906, -173.625, 2.58971, 66.3798, 0.00337831, 63.9162
0, 2760.00000, 126.858, -30.5979, 126.922, -150.551, 126.966, 89.4537, 0, 0, 2.5919, -53.6718, 2.5906, -173.625, 2.58971, 66.3798, 0.00337831, 63.9162
0, 2820.00000, 126.858, -30.5979, 126.922, -150.551, 126.966, 89.4537, 0, 0, 2.5919, -53.6718, 2.5906, -173.625, 2.58971, 66.3798, 0.00337831, 63.9162
0, 2880.00000, 126.858, -30.5979, 126.922, -150.551, 126.966, 89.4537, 0, 0, 2.5919, -53.6718, 2.5906, -173.625, 2.58971, 66.3798, 0.00337831, 63.9162
0, 2940.00000, 126.858, -30.5979, 126.922, -150.551, 126.966, 89.4537, 0, 0, 2.5919, -53.6718, 2.5906, -173.625, 2.58971, 66.3798, 0.00337831, 63.9162
0, 3000.00000, 126.858, -30.5979, 126.922, -150.551, 126.966, 89.4537, 0, 0, 2.5919, -53.6718, 2.5906, -173.625, 2.58971, 66.3798, 0.00337831, 63.9162
0, 3060.00000, 126.858, -30.5979, 126.922, -150.551, 126.966, 89.4537, 0, 0, 2.5919, -53.6718, 2.5906, -173.625, 2.58971, 66.3798, 0.00337831, 63.9162
0, 3120.00000, 126.858, -30.5979, 126.922, -150.551, 126.966, 89.4537, 0, 0, 2.5919, -53.6718, 2.5906, -173.625, 2.58971, 66.3798, 0.00337831, 63.9162
0, 3180.00000, 126.858, -30.5979, 126.922, -150.551, 126.966, 89.4537, 0, 0, 2.5919, -53.6718, 2.5906, -173.625, 2.58971, 66.3798, 0.00337831, 63.9162
0, 3240.00000, 126.858, -30.5979, 126.922, -150.551, 126.966, 89.4537, 0, 0, 2.5919, -53.6718, 2.5906, -173.625, 2.58971, 66.3798, 0.00337831, 63.9162
0, 3300.00000, 126.858, -30.5979, 126.922, -150.551, 126.966, 89.4537, 0, 0, 2.5919, -53.6718, 2.5906, -173.625, 2.58971, 66.3798, 0.00337831, 63.9162
0, 3360.00000, 126.858, -30.5979, 126.922, -150.551, 126.966, 89.4537, 0, 0, 2.5919, -53.6718, 2.5906, -173.625, 2.58971, 66.3798, 0.00337831, 63.9162
0, 3420.00000, 126.858, -30.5979, 126.922, -150.551, 126.966, 89.4537, 0, 0, 2.5919, -53.6718, 2.5906, -173.625, 2.58971, 66.3798, 0.00337831, 63.9162
0, 3480.00000, 126.858, -30.5979, 126.922, -150.551, 126.966, 89.4537, 0, 0, 2.5919, -53.6718, 2.5906, -173.625, 2.58971, 66.3798, 0.00337831, 63.9162
0, 3540.00000, 126.858, -30.5979, 126.922, -150.551, 126.966, 89.4537, 0, 0, 2.5919, -53.6718, 2.5906, -173.625, 2.58971, 66.3798, 0.00337831, 63.9162
1, 0.00000, 126.858, -30.5979, 126.922, -150.551, 126.966, 89.4537, 0, 0, 2.5919, -53.6718, 2.5906, -173.625, 2.58971, 66.3798, 0.00337831, 63.9162
1, 60.00000, 126.858, -30.5979, 126.922, -150.551, 126.966, 89.4537, 0, 0, 2.5919, -53.6718, 2.5906, -173.625, 2.58971, 66.3798, 0.00337831, 63.9162
1, 120.00000, 126.858, -30.5979, 126.922, -150.551, 126.966, 89.4537, 0, 0, 2.5919, -53.6718, 2.5906, -173.625, 2.58971, 66.3798, 0.00337831, 63.9162
1, 180.00000, 126.858, -30.5979, 126.922, -150.551, 126.966, 89.4537, 0, 0, 2.5919, -53.6718, 2.5906, -173.625, 2.58971, 66.3798, 0.00337831, 63.9162
1, 240.00000, 126.858, -30.5979, 126.922, -150.551, 126.966, 89.4537, 0, 0, 2.5919, -53.6718, 2.5906, -173.625, 2.58971, 66.3798, 0.00337831, 63.9162
1, 300.00000, 126.858, -30.5979, 126.922, -150.551, 126.966, 89.4537, 0, 0, 2.5919, -53.6718, 2.5906, -173.625, 2.58971, 66.3798, 0.00337831, 63.9162
1, 360.00000, 126.858, -30.5979, 126.922, -150.551, 126.966, 89.4537, 0, 0, 2.5919, -53.6718, 2.5906, -173.625, 2.58971, 66.3798, 0.00337831, 63.9162
1, 420.00000, 126.858, -30.5979, 126.922, -150.551, 126.966, 89.4537, 0, 0, 2.5919, -53.6718, 2.5906, -173.625, 2.58971, 66.3798, 0.00337831, 63.9162
1, 480.00000, 126.858, -30.5979, 126.922, -150.551, 126.966, 89.4537, 0, 0, 2.5919, -53.6718, 2.5906, -173.625, 2.58971, 66.3798, 0.00337831, 63.9162
1, 540.00000, 126.858, -30.5979, 126.922, -150.551, 126.966, 89.4537, 0, 0, 2.5919, -53.6718, 2.5906, -173.625, 2.58971, 66.3798, 0.00337831, 63.9162
1, 600.00000, 126.858, -30.5979, 126.922, -150.551, 126.966, 89.4537, 0, 0, 2.5919, -53.6718, 2.5906, -173.625, 2.58971, 66.3798, 0.00337831, 63.9162
1, 660.00000, 126.858, -30.5979, 126.922, -150.551, 126.966, 89.4537, 0, 0, 2.5919, -53.6718, 2.5906, -173.625, 2.58971, 66.3798, 0.00337831, 63.9162
1, 720.00000, 126.858, -30.5979, 126.922, -150.551, 126.966, 89.4537, 0, 0, 2.5919, -53.6718, 2.5906, -173.625, 2.58971, 66.3798, 0.00337831, 63.9162
1, 780.00000, 126.858, -30.5979, 126.922, -150.551, 126.966, 89.4537, 0, 0, 2.5919, -53.6718, 2.5906, -173.625, 2.58971, 66.3798, 0.00337831, 63.9162
1, 840.00000, 126.858, -30.5979, 126.922, -150.551, 126.966, 89.4537, 0, 0, 2.5919, -53.6718, 2.5906, -173.625, 2.58971, 66.3798, 0.00337831, 63.9162
1, 900.00000, 126.858, -30.5979, 126.922, -150.551, 126.966, 89.4537, 0, 0, 2.5919, -53.6718, 2.5906, -173.625, 2.58971, 66.3798, 0.00337831, 63.9162
1, 960.00000, 126.858, -30.5979, 126.922, -150.551, 126.966, 89.4537, 0, 0, 2.5919, -53.6718, 2.5906, -173.625, 2.58971, 66.3798, 0.00337831, 63.9162
1, 1020.00000, 126.858, -30.5979, 126.922, -150.551, 126.966, 89.4537, 0, 0, 2.5919, -53.6718, 2.5906, -173.625, 2.58971, 66.3798, 0.00337831, 63.9162
1, 1080.00000, 126.858, -30.5979, 126.922, -150.551, 126.966, 89.4537, 0, 0, 2.5919, -53.6718, 2.5906, -173.625, 2.58971, 66.3798, 0.00337831, 63.9162
1, 1140.00000, 126.858, -30.5979, 126.922, -150.551, 126.966, 89.4537, 0, 0, 2.5919, -53.6718, 2.5906, -173.625, 2.58971, 66.3798, 0.00337831, 63.9162
1, 1200.00000, 126.858, -30.5979, 126.922, -150.551, 126.966, 89.4537, 0, 0, 2.5919, -53.6718, 2.5906, -173.625, 2.58971, 66.3798, 0.00337831, 63.9162
1, 1260.00000, 126.858, -30.5979, 126.922, -150.551, 126.966, 89.4537, 0, 0, 2.5919, -53.6718, 2.5906, -173.625, 2.58971, 66.3798, 0.00337831, 63.9162
1, 1320.00000, 126.858, -30.5979, 126.922, -150.551, 126.966, 89.4537, 0, 0, 2.5919, -53.6718, 2.5906, -173.625, 2.58971, 66.3798, 0.00337831, 63.9162
1, 1380.00000, 126.858, -30.5979, 126.922, -150.551, 126.966, 89.4537, 0, 0, 2.5919, -53.6718, 2.5906, -173.625, 2.58971, 66.3798, 0.00337831, 63.9162
1, 1440.00000, 126.858, -30.5979, 126.922, -150.551, 126.966, 89.4537, 0, 0, 2.5919, -53.6718, 2.5906, -173.625, 2.58971, 66.3798, 0.00337831, 63.9162
1, 1500.00000, 126.858, -30.5979, 126.922, -150.551, 126.966, 89.4537, 0, 0, 2.5919, -53.6718, 2.5906, -173.625, 2.58971, 66.3798, 0.00337831, 63.9162
1, 1560.00000, 126.858, -30.5979, 126.922, -150.551, 126.966, 89.4537, 0, 0, 2.5919, -53.6718, 2.5906, -173.625, 2.58971, 66.3798, 0.00337831, 63.9162
1, 1620.00000, 126.858, -30.5979, 126.922, -150.551, 126.966, 89.4537, 0, 0, 2.5919, -53.6718, 2.5906, -173.625, 2.58971, 66.3798, 0.00337831, 63.9162
1, 1680.00000, 126.858, -30.5979, 126.922, -150.551, 126.966, 89.4537, 0, 0, 2.5919, -53.6718, 2.5906, -173.625, 2.58971, 66.3798, 0.00337831, 63.9162
1, 1740.00000, 126.858, -30.5979, 126.922, -150.551, 126.966, 89.4537, 0, 0, 2.5919, -53.6718, 2.5906, -173.625, 2.58971, 66.3798, 0.00337831, 63.9162
1, 1800.00000, 126.858, -30.5979, 126.922, -150.551, 126.966, 89.4537, 0, 0, 2.5919, -53.6718, 2.5906, -173.625, 2.58971, 66.3798, 0.00337831, 63.9162
1, 1860.00000, 126.858, -30.5979, 126.922, -150.551, 126.966, 89.4537, 0, 0, 2.5919, -53.6718, 2.5906, -173.625, 2.58971, 66.3798, 0.00337831, 63.9162
1, 1920.00000, 126.858, -30.5979, 126.922, -150.551, 126.966, 89.4537, 0, 0, 2.5919, -53.6718, 2.5906, -173.625, 2.58971, 66.3798, 0.00337831, 63.9162
1, 1980.00000, 126.858, -30.5979, 126.922, -150.551, 126.966, 89.4537, 0, 0, 2.5919, -53.6718, 2.5906, -173.625, 2.58971, 66.3798, 0.00337831, 63.9162
1, 2040.00000, 126.858, -30.5979, 126.922, -150.551, 126.966, 89.4537, 0, 0, 2.5919, -53.6718, 2.5906, -173.625, 2.58971, 66.3798, 0.00337831, 63.9162
1, 2100.00000, 126.858, -30.5979, 126.922, -150.551, 126.966, 89.4537, 0, 0, 2.5919, -53.6718, 2.5906, -173.625, 2.58971, 66.3798, 0.00337831, 63.9162
1, 2160.00000, 126.858, -30.5979, 126.922, -150.551, 126.966, 89.4537, 0, 0, 2.5919, -53.6718, 2.5906, -173.625, 2.58971, 66.3798, 0.00337831, 63.9162
1, 2220.00000, 126.858, -30.5979, 126.922, -150.551, 126.966, 89.4537, 0, 0, 2.5919, -53.6718, 2.5906, -173.625, 2.58971, 66.3798, 0.00337831, 63.9162
1, 2280.00000, 126.858, -30.5979, 126.922, -150.551, 126.966, 89.4537, 0, 0, 2.5919, -53.6718, 2.5906, -173.625, 2.58971, 66.3798, 0.00337831, 63.9162
1, 2340.00000, 126.858, -30.5979, 126.922, -150.551, 126.966, 89.4537, 0, 0, 2.5919, -53.6718, 2.5906, -173.625, 2.58971, 66.3798, 0.00337831, 63.9162
1, 2400.00000, 126.858, -30.5979, 126.922, -150.551, 126.966, 89.4537, 0, 0, 2.5919, -53.6718, 2.5906, -173.625, 2.58971, 66.3798, 0.00337831, 63.9162
1, 2460.00000, 126.858, -30.5979, 126.922, -150.551, 126.966, 89.4537, 0, 0, 2.5919, -53.6718, 2.5906, -173.625, 2.58971, 66.3798, 0.00337831, 63.9162
1, 2520.00000, 126.858, -30.5979, 126.922, -150.551, 126.966, 89.4537, 0, 0, 2.5919, -53.6718, 2.5906, -173.625, 2.58971, 66.3798, 0.00337831, 63.9162
1, 2580.00000, 126.858, -30.5979, 126.922, -150.551, 126.966, 89.4537, 0, 0, 2.5919, -53.6718, 2.5906, -173.625, 2.58971, 66.3798, 0.00337831, 63.9162
1, 2640.00000, 126.858, -30.5979, 126.922, -150.551, 126.966, 89.4537, 0, 0, 2.5919, -53.6718, 2.5906, -173.625, 2.58971, 66.3798, 0.00337831, 63.9162
1, 2700.00000, 126.858, -30.5979, 126.922, -150.551, 126.966, 89.4537, 0, 0, 2.5919, -53.6718, 2.5906, -173.625, 2.58971, 66.3798, 0.00337831, 63.9162
1, 2760.00000, 126.858, -30.5979, 126.922, -150.551, 126.966, 89.4537, 0, 0, 2.5919, -53.6718, 2.5906, -173.625, 2.58971, 66.3798, 0.00337831, 63.9162
1, 2820.00000, 126.858, -30.5979, 126.922, -150.551, 126.966, 89.4537, 0, 0, 2.5919, -53.6718, 2.5906, -173.625, 2.58971, 66.3798, 0.00337831, 63.9162
1, 2880.00000, 126.858, -30.5979, 126.922, -150.551, 126.966, 89.4537, 0, 0, 2.5919, -53.6718, 2.5906, -173.625, 2.58971, 66.3798, 0.00337831, 63.9162
1, 2940.00000, 126.858, -30.5979, 126.922, -150.551, 126.966, 89.4537, 0, 0, 2.5919, -53.6718, 2.5906, -173.625, 2.58971, 66.3798, 0.00337831, 63.9162
1, 3000.00000, 126.858, -30.5979, 126.922, -150.551, 126.966, 89.4537, 0, 0, 2.5919, -53.6718, 2.5906, -173.625, 2.58971, 66.3798, 0.00337831, 63.9162
1, 3060.00000, 126.858, -30.5979, 126.922, -150.551, 126.966, 89.4537, 0, 0, 2.5919, -53.6718, 2.5906, -173.625, 2.58971, 66.3798, 0.00337831, 63.9162
1, 3120.00000, 126.858, -30.5979, 126.922, -150.551, 126.966, 89.4537, 0, 0, 2.5919, -53.6718, 2.5906, -173.625, 2.58971, 66.3798, 0.00337831, 63.9162
1, 3180.00000, 126.858, -30.5979, 126.922, -150.551, 126.966, 89.4537, 0, 0, 2.5919, -53.6718, 2.5906, -173.625, 2.58971, 66.3798, 0.00337831, 63.9162
1, 3240.00000, 126.858, -30.5979, 126.922, -150.551, 126.966, 89.4537, 0, 0, 2.5919, -53.6718, 2.5906, -173.625, 2.58971, 66.3798, 0.00337831, 63.9162
1, 3300.00000, 126.858, -30.5979, 126.922, -150.551, 126.966, 89.4537, 0, 0, 2.5919, -53.6718, 2.5906, -173.625, 2.58971, 66.3798, 0.00337831, 63.9162
1, 3360.00000, 126.858, -30.5979, 126.922, -150.551, 126.966, 89.4537, 0, 0, 2.5919, -53.6718, 2.5906, -173.625, 2.58971, 66.3798, 0.00337831, 63.9162
1, 3420.00000, 126.858, -30.5979, 126.922, -150.551, 126.966, 89.4537, 0, 0, 2.5919, -53.6718, 2.5906, -173.625, 2.58971, 66.3798, 0.00337831, 63.9162
1, 3480.00000, 126.858, -30.5979, 126.922, -150.551, 126.966, 89.4537, 0, 0, 2.5919, -53.6718, 2.5906, -173.625, 2.58971, 66.3798, 0.00337831, 63.9162
1, 3540.00000, 126.858, -30.5979, 126.922, -150.551, 126.966, 89.4537, 0, 0, 2.5919, -53.6718, 2.5906, -173.625, 2.58971, 66.3798, 0.00337831, 63.9162
2, 0.00000, 126.858, -30.5979, 126.922, -150.551, 126.966, 89.4537, 0, 0, 2.5919, -53.6718, 2.5906, -173.625, 2.58971, 66.3798, 0.00337831, 63.9162
2, 60.00000, 126.858, -30.5979, 126.922, -150.551, 126.966, 89.4537, 0, 0, 2.5919, -53.6718, 2.5906, -173.625, 2.58971, 66.3798, 0.00337831, 63.9162
2, 120.00000, 126.854, -30.599, 126.918, -150.552, 126.962, 89.4526, 0, 0, 2.59915, -53.6729, 2.59784, -173.626, 2.59695, 66.3787, 0.00338974, 63.9681
2, 180.00000, 126.85, -30.6002, 126.914, -150.553, 126.958, 89.4514, 0, 0, 2.6065, -53.674, 2.60518, -173.627, 2.60428, 66.3776, 0.0034017, 64.0234
2, 240.00000, 126.846, -30.6013, 126.91, -150.554, 126.954, 89.4503, 0, 0, 2.61375, -53.6752, 2.61242, -173.628, 2.61153, 66.3765, 0.00341354, 64.078
2, 300.00000, 126.842, -30.6025, 126.907, -150.556, 126.95, 89.4492, 0, 0, 2.62101, -53.6763, 2.61967, -173.629, 2.61878, 66.3753, 0.00342539, 64.1325
2, 360.00000, 126.838, -30.6036, 126.903, -150.557, 126.946, 89.4481, 0, 0, 2.62836, -53.6775, 2.62701, -173.631, 2.62611, 66.3742, 0.0034374, 64.1876
2, 420.00000, 126.833, -30.6048, 126.899, -150.558, 126.942, 89.447, 0, 0, 2.63561, -53.6786, 2.63426, -173.632, 2.63336, 66.3731, 0.00344929, 64.2421
2, 480.00000, 126.829, -30.6059, 126.895, -150.559, 126.938, 89.4459, 0, 0, 2.64287, -53.6798, 2.64151, -173.633, 2.64061, 66.372, 0.0034612, 64.2964
2, 540.00000, 126.825, -30.6071, 126.891, -150.56, 126.934, 89.4448, 0, 0, 2.65022, -53.681, 2.64885, -173.634, 2.64794, 66.3709, 0.00347326, 64.3514
2, 600.00000, 126.821, -30.6082, 126.887, -150.561, 126.93, 89.4436, 0, 0, 2.65748, -53.6821, 2.6561, -173.635, 2.65519, 66.3698, 0.00348521, 64.4056
2, 660.00000, 126.817, -30.6094, 126.883, -150.562, 126.926, 89.4425, 0, 0, 2.66474, -53.6833, 2.66335, -173.636, 2.66244, 66.3687, 0.00349717, 64.4598
2, 720.00000, 126.813, -30.6105, 126.879, -150.563, 126.922, 89.4414, 0, 0, 2.67208, -53.6844, 2.67069, -173.637, 2.66978, 66.3675, 0.00350928, 64.5146
