hour,t(sec),V1,VAngle1,V2,VAngle2,V3,VAngle3,V4,VAngle4,I1,IAngle1,I2,IAngle2,I3,IAngle3,I4,IAngle4
0, 60.00000, 123.893, -30.4337, 124.63, -150.842, 123.352, 89.4086, 0, 0, 2.47143, -53.5075, 2.45682, -173.916, 2.48224, 66.3348, 0.0349988, -131.466
0, 120.00000, 123.893, -30.4337, 124.63, -150.842, 123.352, 89.4086, 0, 0, 2.47145, -53.5076, 2.45684, -173.916, 2.48229, 66.3346, 0.0350233, -131.455
0, 180.00000, 123.893, -30.4337, 124.63, -150.842, 123.352, 89.4086, 0, 0, 2.47145, -53.5076, 2.45684, -173.916, 2.48229, 66.3346, 0.0350235, -131.455
0, 240.00000, 123.893, -30.4337, 124.63, -150.842, 123.352, 89.4086, 0, 0, 2.47145, -53.5076, 2.45684, -173.916, 2.48229, 66.3346, 0.0350235, -131.455
0, 300.00000, 123.893, -30.4337, 124.63, -150.842, 123.352, 89.4086, 0, 0, 2.47145, -53.5076, 2.45684, -173.916, 2.48229, 66.3346, 0.0350235, -131.455
0, 360.00000, 123.893, -30.4337, 124.63, -150.842, 123.352, 89.4086, 0, 0, 2.47145, -53.5076, 2.45684, -173.916, 2.48229, 66.3346, 0.0350235, -131.455
0, 420.00000, 123.893, -30.4337, 124.63, -150.842, 123.352, 89.4086, 0, 0, 2.47145, -53.5076, 2.45684, -173.916, 2.48229, 66.3346, 0.0350235, -131.455
0, 480.00000, 123.893, -30.4337, 124.63, -150.842, 123.352, 89.4086, 0, 0, 2.47145, -53.5076, 2.45684, -173.916, 2.48229, 66.3346, 0.0350235, -131.455
0, 540.00000, 123.893, -30.4337, 124.63, -150.842, 123.352, 89.4086, 0, 0, 2.47145, -53.5076, 2.45684, -173.916, 2.48229, 66.3346, 0.0350235, -131.455
0, 600.00000, 123.893, -30.4337, 124.63, -150.842, 123.352, 89.4086, 0, 0, 2.47145, -53.5076, 2.45684, -173.916, 2.48229, 66.3346, 0.0350235, -131.455
0, 660.00000, 123.893, -30.4337, 124.63, -150.842, 123.352, 89.4086, 0, 0, 2.47145, -53.5076, 2.45684, -173.916, 2.48229, 66.3346, 0.0350235, -131.455
0, 720.00000, 123.893, -30.4337, 124.63, -150.842, 123.352, 89.4086, 0, 0, 2.47145, -53.5076, 2.45684, -173.916, 2.48229, 66.3346, 0.0350235, -131.455
0, 780.00000, 123.893, -30.4337, 124.63, -150.842, 123.352, 89.4086, 0, 0, 2.47145, -53.5076, 2.45684, -173.916, 2.48229, 66.3346, 0.0350235, -131.455
0, 840.00000, 123.893, -30.4337, 124.63, -150.842, 123.352, 89.4086, 0, 0, 2.47145, -53.5076, 2.45684, -173.916, 2.48229, 66.3346, 0.0350235, -131.455
0, 900.00000, 123.893, -30.4337, 124.63, -150.842, 123.352, 89.4086, 0, 0, 2.47145, -53.5076, 2.45684, -173.916, 2.48229, 66.3346, 0.0350235, -131.455
0, 960.00000, 122.922, -30.8159, 123.418, -150.661, 123.396, 89.3959, 0, 0, 2.49087, -53.8895, 2.48086, -173.734, 2.48138, 66.3218, 0.0107155, 81.7126
0, 1020.00000, 122.921, -30.8159, 123.417, -150.661, 123.396, 89.3959, 0, 0, 2.49099, -53.8898, 2.48098, -173.735, 2.4814, 66.3219, 0.0107768, 81.4903
0, 1080.00000, 122.921, -30.8159, 123.417, -150.661, 123.396, 89.3959, 0, 0, 2.49099, -53.8898, 2.48098, -173.735, 2.4814, 66.3219, 0.0107769, 81.49
0, 1140.00000, 122.921, -30.8159, 123.417, -150.661, 123.396, 89.3959, 0, 0, 2.49099, -53.8898, 2.48098, -173.735, 2.4814, 66.3219, 0.0107769, 81.49
0, 1200.00000, 122.921, -30.8159, 123.417, -150.661, 123.396, 89.3959, 0, 0, 2.49099, -53.8898, 2.48098, -173.735, 2.4814, 66.3219, 0.0107769, 81.49
0, 1260.00000, 122.921, -30.8159, 123.417, -150.661, 123.396, 89.3959, 0, 0, 2.49099, -53.8898, 2.48098, -173.735, 2.4814, 66.3219, 0.0107769, 81.49
0, 1320.00000, 122.921, -30.8159, 123.417, -150.661, 123.396, 89.3959, 0, 0, 2.49099, -53.8898, 2.48098, -173.735, 2.4814, 66.3219, 0.0107769, 81.49
0, 1380.00000, 122.921, -30.8159, 123.417, -150.661, 123.396, 89.3959, 0, 0, 2.49099, -53.8898, 2.48098, -173.735, 2.4814, 66.3219, 0.0107769, 81.49
0, 1440.00000, 122.921, -30.8159, 123.417, -150.661, 123.396, 89.3959, 0, 0, 2.49099, -53.8898, 2.48098, -173.735, 2.4814, 66.3219, 0.0107769, 81.49
0, 1500.00000, 122.921, -30.8159, 123.417, -150.661, 123.396, 89.3959, 0, 0, 2.49099, -53.8898, 2.48098, -173.735, 2.4814, 66.3219, 0.0107769, 81.49
0, 1560.00000, 122.921, -30.8159, 123.417, -150.661, 123.396, 89.3959, 0, 0, 2.49099, -53.8898, 2.48098, -173.735, 2.4814, 66.3219, 0.0107769, 81.49
0, 1620.00000, 122.921, -30.8159, 123.417, -150.661, 123.396, 89.3959, 0, 0, 2.49099, -53.8898, 2.48098, -173.735, 2.4814, 66.3219, 0.0107769, 81.49
0, 1680.00000, 122.921, -30.8159, 123.417, -150.661, 123.396, 89.3959, 0, 0, 2.49099, -53.8898, 2.48098, -173.735, 2.4814, 66.3219, 0.0107769, 81.49
0, 1740.00000, 122.921, -30.8159, 123.417, -150.661, 123.396, 89.3959, 0, 0, 2.49099, -53.8898, 2.48098, -173.735, 2.4814, 66.3219, 0.0107769, 81.49
0, 1800.00000, 122.921, -30.8159, 123.417, -150.661, 123.396, 89.3959, 0, 0, 2.49099, -53.8898, 2.48098, -173.735, 2.4814, 66.3219, 0.0107769, 81.49
0, 1860.00000, 122.921, -30.8159, 123.417, -150.661, 123.396, 89.3959, 0, 0, 2.49099, -53.8898, 2.48098, -173.735, 2.4814, 66.3219, 0.0107769, 81.49
0, 1920.00000, 122.921, -30.8159, 123.417, -150.661, 123.396, 89.3959, 0, 0, 2.49099, -53.8898, 2.48098, -173.735, 2.4814, 66.3219, 0.0107769, 81.49
0, 1980.00000, 122.921, -30.8159, 123.417, -150.661, 123.396, 89.3959, 0, 0, 2.49099, -53.8898, 2.48098, -173.735, 2.4814, 66.3219, 0.0107769, 81.49
0, 2040.00000, 122.921, -30.8159, 123.417, -150.661, 123.396, 89.3959, 0, 0, 2.49099, -53.8898, 2.48098, -173.735, 2.4814, 66.3219, 0.0107769, 81.49
0, 2100.00000, 122.921, -30.8159, 123.417, -150.661, 123.396, 89.3959, 0, 0, 2.49099, -53.8898, 2.48098, -173.735, 2.4814, 66.3219, 0.0107769, 81.49
0, 2160.00000, 122.921, -30.8159, 123.417, -150.661, 123.396, 89.3959, 0, 0, 2.49099, -53.8898, 2.48098, -173.735, 2.4814, 66.3219, 0.0107769, 81.49
0, 2220.00000, 122.921, -30.8159, 123.417, -150.661, 123.396, 89.3959, 0, 0, 2.49099, -53.8898, 2.48098, -173.735, 2.4814, 66.3219, 0.0107769, 81.49
0, 2280.00000, 122.921, -30.8159, 123.417, -150.661, 123.396, 89.3959, 0, 0, 2.49099, -53.8898, 2.48098, -173.735, 2.4814, 66.3219, 0.0107769, 81.49
0, 2340.00000, 122.921, -30.8159, 123.417, -150.661, 123.396, 89.3959, 0, 0, 2.49099, -53.8898, 2.48098, -173.735, 2.4814, 66.3219, 0.0107769, 81.49
0, 2400.00000, 122.921, -30.8159, 123.417, -150.661, 123.396, 89.3959, 0, 0, 2.49099, -53.8898, 2.48098, -173.735, 2.4814, 66.3219, 0.0107769, 81.49
0, 2460.00000, 122.921, -30.8159, 123.417, -150.661, 123.396, 89.3959, 0, 0, 2.49099, -53.8898, 2.48098, -173.735, 2.4814, 66.3219, 0.0107769, 81.49
0, 2520.00000, 122.921, -30.8159, 123.417, -150.661, 123.396, 89.3959, 0, 0, 2.49099, -53.8898, 2.48098, -173.735, 2.4814, 66.3219, 0.0107769, 81.49
0, 2580.00000, 122.921, -30.8159, 123.417, -150.661, 123.396, 89.3959, 0, 0, 2.49099, -53.8898, 2.48098, -173.735, 2.4814, 66.3219, 0.0107769, 81.49
0, 2640.00000, 122.921, -30.8159, 123.417, -150.661, 123.396, 89.3959, 0, 0, 2.49099, -53.8898, 2.48098, -173.735, 2.4814, 66.3219, 0.0107769, 81.49
0, 2700.00000, 122.921, -30.8159, 123.417, -150.661, 123.396, 89.3959, 0, 0, 2.49099, -53.8898, 2.48098, -173.735, 2.4814, 66.3219, 0.0107769, 81.49
0, 2760.00000, 122.921, -30.8159, 123.417, -150.661, 123.396, 89.3959, 0, 0, 2.49099, -53.8898, 2.48098, -173.735, 2.4814, 66.3219, 0.0107769, 81.49
0, 2820.00000, 122.921, -30.8159, 123.417, -150.661, 123.396, 89.3959, 0, 0, 2.49099, -53.8898, 2.48098, -173.735, 2.4814, 66.3219, 0.0107769, 81.49
0, 2880.00000, 122.921, -30.8159, 123.417, -150.661, 123.396, 89.3959, 0, 0, 2.49099, -53.8898, 2.48098, -173.735, 2.4814, 66.3219, 0.0107769, 81.49
0, 2940.00000, 122.921, -30.8159, 123.417, -150.661, 123.396, 89.3959, 0, 0, 2.49099, -53.8898, 2.48098, -173.735, 2.4814, 66.3219, 0.0107769, 81.49
0, 3000.00000, 122.921, -30.8159, 123.417, -150.661, 123.396, 89.3959, 0, 0, 2.49099, -53.8898, 2.48098, -173.735, 2.4814, 66.3219, 0.0107769, 81.49
0, 3060.00000, 122.921, -30.8159, 123.417, -150.661, 123.396, 89.3959, 0, 0, 2.49099, -53.8898, 2.48098, -173.735, 2.4814, 66.3219, 0.0107769, 81.49
0, 3120.00000, 122.921, -30.8159, 123.417, -150.661, 123.396, 89.3959, 0, 0, 2.49099, -53.8898, 2.48098, -173.735, 2.4814, 66.3219, 0.0107769, 81.49
0, 3180.00000, 122.921, -30.8159, 123.417, -150.661, 123.396, 89.3959, 0, 0, 2.49099, -53.8898, 2.48098, -173.735, 2.4814, 66.3219, 0.0107769, 81.49
0, 3240.00000, 122.921, -30.8159, 123.417, -150.661, 123.396, 89.3959, 0, 0, 2.49099, -53.8898, 2.48098, -173.735, 2.4814, 66.3219, 0.0107769, 81.49
0, 3300.00000, 122.921, -30.8159, 123.417, -150.661, 123.396, 89.3959, 0, 0, 2.49099, -53.8898, 2.48098, -173.735, 2.4814, 66.3219, 0.0107769, 81.49
0, 3360.00000, 122.921, -30.8159, 123.417, -150.661, 123.396, 89.3959, 0, 0, 2.49099, -53.8898, 2.48098, -173.735, 2.4814, 66.3219, 0.0107769, 81.49
0, 3420.00000, 122.921, -30.8159, 123.417, -150.661, 123.396, 89.3959, 0, 0, 2.49099, -53.8898, 2.48098, -173.735, 2.4814, 66.3219, 0.0107769, 81.49
0, 3480.00000, 122.921, -30.8159, 123.417, -150.661, 123.396, 89.3959, 0, 0, 2.49099, -53.8898, 2.48098, -173.735, 2.4814, 66.3219, 0.0107769, 81.49
0, 3540.00000, 122.921, -30.8159, 123.417, -150.661, 123.396, 89.3959, 0, 0, 2.49099, -53.8898, 2.48098, -173.735, 2.4814, 66.3219, 0.0107769, 81.49
1, 0.00000, 122.921, -30.8159, 123.417, -150.661, 123.396, 89.3959, 0, 0, 2.49099, -53.8898, 2.48098, -173.735, 2.4814, 66.3219, 0.0107769, 81.49
1, 60.00000, 122.921, -30.8159, 123.417, -150.661, 123.396, 89.3959, 0, 0, 2.49099, -53.8898, 2.48098, -173.735, 2.4814, 66.3219, 0.0107769, 81.49
1, 120.00000, 122.921, -30.8159, 123.417, -150.661, 123.396, 89.3959, 0, 0, 2.49099, -53.8898, 2.48098, -173.735, 2.4814, 66.3219, 0.0107769, 81.49
1, 180.00000, 122.921, -30.8159, 123.417, -150.661, 123.396, 89.3959, 0, 0, 2.49099, -53.8898, 2.48098, -173.735, 2.4814, 66.3219, 0.0107769, 81.49
1, 240.00000, 122.921, -30.8159, 123.417, -150.661, 123.396, 89.3959, 0, 0, 2.49099, -53.8898, 2.48098, -173.735, 2.4814, 66.3219, 0.0107769, 81.49
1, 300.00000, 122.921, -30.8159, 123.417, -150.661, 123.396, 89.3959, 0, 0, 2.49099, -53.8898, 2.48098, -173.735, 2.4814, 66.3219, 0.0107769, 81.49
1, 360.00000, 122.921, -30.8159, 123.417, -150.661, 123.396, 89.3959, 0, 0, 2.49099, -53.8898, 2.48098, -173.735, 2.4814, 66.3219, 0.0107769, 81.49
1, 420.00000, 122.921, -30.8159, 123.417, -150.661, 123.396, 89.3959, 0, 0, 2.49099, -53.8898, 2.48098, -173.735, 2.4814, 66.3219, 0.0107769, 81.49
1, 480.00000, 122.921, -30.8159, 123.417, -150.661, 123.396, 89.3959, 0, 0, 2.49099, -53.8898, 2.48098, -173.735, 2.4814, 66.3219, 0.0107769, 81.49
1, 540.00000, 122.921, -30.8159, 123.417, -150.661, 123.396, 89.3959, 0, 0, 2.49099, -53.8898, 2.48098, -173.735, 2.4814, 66.3219, 0.0107769, 81.49
1, 600.00000, 122.921, -30.8159, 123.417, -150.661, 123.396, 89.3959, 0, 0, 2.49099, -53.8898, 2.48098, -173.735, 2.4814, 66.3219, 0.0107769, 81.49
1, 660.00000, 122.921, -30.8159, 123.417, -150.661, 123.396, 89.3959, 0, 0, 2.49099, -53.8898, 2.48098, -173.735, 2.4814, 66.3219, 0.0107769, 81.49
1, 720.00000, 122.921, -30.8159, 123.417, -150.661, 123.396, 89.3959, 0, 0, 2.49099, -53.8898, 2.48098, -173.735, 2.4814, 66.3219, 0.0107769, 81.49
1, 780.00000, 122.921, -30.8159, 123.417, -150.661, 123.396, 89.3959, 0, 0, 2.49099, -53.8898, 2.48098, -173.735, 2.4814, 66.3219, 0.0107769, 81.49
1, 840.00000, 122.921, -30.8159, 123.417, -150.661, 123.396, 89.3959, 0, 0, 2.49099, -53.8898, 2.48098, -173.735, 2.4814, 66.3219, 0.0107769, 81.49
1, 900.00000, 122.921, -30.8159, 123.417, -150.661, 123.396, 89.3959, 0, 0, 2.49099, -53.8898, 2.48098, -173.735, 2.4814, 66.3219, 0.0107769, 81.49
1, 960.00000, 122.921, -30.8159, 123.417, -150.661, 123.396, 89.3959, 0, 0, 2.49099, -53.8898, 2.48098, -173.735, 2.4814, 66.3219, 0.0107769, 81.49
1, 1020.00000, 122.921, -30.8159, 123.417, -150.661, 123.396, 89.3959, 0, 0, 2.49099, -53.8898, 2.48098, -173.735, 2.4814, 66.3219, 0.0107769, 81.49
1, 1080.00000, 122.921, -30.8159, 123.417, -150.661, 123.396, 89.3959, 0, 0, 2.49099, -53.8898, 2.48098, -173.735, 2.4814, 66.3219, 0.0107769, 81.49
1, 1140.00000, 122.921, -30.8159, 123.417, -150.661, 123.396, 89.3959, 0, 0, 2.49099, -53.8898, 2.48098, -173.735, 2.4814, 66.3219, 0.0107769, 81.49
1, 1200.00000, 122.921, -30.8159, 123.417, -150.661, 123.396, 89.3959, 0, 0, 2.49099, -53.8898, 2.48098, -173.735, 2.4814, 66.3219, 0.0107769, 81.49
1, 1260.00000, 122.921, -30.8159, 123.417, -150.661, 123.396, 89.3959, 0, 0, 2.49099, -53.8898, 2.48098, -173.735, 2.4814, 66.3219, 0.0107769, 81.49
1, 1320.00000, 122.921, -30.8159, 123.417, -150.661, 123.396, 89.3959, 0, 0, 2.49099, -53.8898, 2.48098, -173.735, 2.4814, 66.3219, 0.0107769, 81.49
1, 1380.00000, 122.921, -30.8159, 123.417, -150.661, 123.396, 89.3959, 0, 0, 2.49099, -53.8898, 2.48098, -173.735, 2.4814, 66.3219, 0.0107769, 81.49
1, 1440.00000, 122.921, -30.8159, 123.417, -150.661, 123.396, 89.3959, 0, 0, 2.49099, -53.8898, 2.48098, -173.735, 2.4814, 66.3219, 0.0107769, 81.49
1, 1500.00000, 122.921, -30.8159, 123.417, -150.661, 123.396, 89.3959, 0, 0, 2.49099, -53.8898, 2.48098, -173.735, 2.4814, 66.3219, 0.0107769, 81.49
1, 1560.00000, 122.921, -30.8159, 123.417, -150.661, 123.396, 89.3959, 0, 0, 2.49099, -53.8898, 2.48098, -173.735, 2.4814, 66.3219, 0.0107769, 81.49
1, 1620.00000, 122.921, -30.8159, 123.417, -150.661, 123.396, 89.3959, 0, 0, 2.49099, -53.8898, 2.48098, -173.735, 2.4814, 66.3219, 0.0107769, 81.49
1, 1680.00000, 122.921, -30.8159, 123.417, -150.661, 123.396, 89.3959, 0, 0, 2.49099, -53.8898, 2.48098, -173.735, 2.4814, 66.3219, 0.0107769, 81.49
1, 1740.00000, 122.921, -30.8159, 123.417, -150.661, 123.396, 89.3959, 0, 0, 2.49099, -53.8898, 2.48098, -173.735, 2.4814, 66.3219, 0.0107769, 81.49
1, 1800.00000, 122.921, -30.8159, 123.417, -150.661, 123.396, 89.3959, 0, 0, 2.49099, -53.8898, 2.48098, -173.735, 2.4814, 66.3219, 0.0107769, 81.49
1, 1860.00000, 122.921, -30.8159, 123.417, -150.661, 123.396, 89.3959, 0, 0, 2.49099, -53.8898, 2.48098, -173.735, 2.4814, 66.3219, 0.0107769, 81.49
1, 1920.00000, 122.921, -30.8159, 123.417, -150.661, 123.396, 89.3959, 0, 0, 2.49099, -53.8898, 2.48098, -173.735, 2.4814, 66.3219, 0.0107769, 81.49
1, 1980.00000, 122.921, -30.8159, 123.417, -150.661, 123.396, 89.3959, 0, 0, 2.49099, -53.8898, 2.48098, -173.735, 2.4814, 66.3219, 0.0107769, 81.49
1, 2040.00000, 123.055, -30.8253, 124.375, -150.273, 124.614, 89.2041, 0, 0, 2.48833, -53.8992, 2.46197, -173.347, 2.45727, 66.1293, 0.0509614, 107.286
1, 2100.00000, 123.056, -30.8253, 124.376, -150.273, 124.614, 89.2041, 0, 0, 2.48827, -53.8993, 2.46186, -173.347, 2.45714, 66.1302, 0.0510122, 107.249
1, 2160.00000, 123.056, -30.8253, 124.376, -150.273, 124.614, 89.2041, 0, 0, 2.48827, -53.8993, 2.46186, -173.347, 2.45714, 66.1302, 0.0510122, 107.249
1, 2220.00000, 123.056, -30.8253, 124.376, -150.273, 124.614, 89.2041, 0, 0, 2.48827, -53.8993, 2.46186, -173.347, 2.45714, 66.1302, 0.0510122, 107.249
1, 2280.00000, 123.056, -30.8253, 124.376, -150.273, 124.614, 89.2041, 0, 0, 2.48827, -53.8993, 2.46186, -173.347, 2.45714, 66.1302, 0.0510122, 107.249
1, 2340.00000, 123.056, -30.8253, 124.376, -150.273, 124.614, 89.2041, 0, 0, 2.48827, -53.8993, 2.46186, -173.347, 2.45714, 66.1302, 0.0510122, 107.249
1, 2400.00000, 123.056, -30.8253, 124.376, -150.273, 124.614, 89.2041, 0, 0, 2.48827, -53.8993, 2.46186, -173.347, 2.45714, 66.1302, 0.0510122, 107.249
1, 2460.00000, 123.056, -30.8253, 124.376, -150.273, 124.614, 89.2041, 0, 0, 2.48827, -53.8993, 2.46186, -173.347, 2.45714, 66.1302, 0.0510122, 107.249
1, 2520.00000, 124.017, -30.4422, 125.584, -150.456, 124.562, 89.2142, 0, 0, 2.46905, -53.5161, 2.43823, -173.531, 2.45818, 66.1405, 0.0414192, 163.457
1, 2580.00000, 124.018, -30.4422, 125.585, -150.456, 124.562, 89.2142, 0, 0, 2.46897, -53.5161, 2.43816, -173.53, 2.45818, 66.1403, 0.0414373, 163.521
1, 2640.00000, 124.018, -30.4422, 125.585, -150.456, 124.562, 89.2142, 0, 0, 2.46897, -53.5161, 2.43816, -173.53, 2.45818, 66.1403, 0.0414373, 163.522
1, 2700.00000, 124.018, -30.4422, 125.585, -150.456, 124.562, 89.2142, 0, 0, 2.46897, -53.5161, 2.43816, -173.53, 2.45818, 66.1403, 0.0414373, 163.522
1, 2760.00000, 125.303, -30.558, 125.495, -150.466, 125.565, 89.5852, 0, 0, 2.44371, -53.6328, 2.43987, -173.539, 2.43862, 66.5111, 0.00666807, 59.3813
1, 2820.00000, 125.303, -30.5579, 125.495, -150.466, 125.565, 89.5853, 0, 0, 2.44363, -53.6319, 2.4399, -173.54, 2.43854, 66.5113, 0.00669357, 58.705
1, 2880.00000, 125.303, -30.5579, 125.495, -150.466, 125.565, 89.5853, 0, 0, 2.44363, -53.6319, 2.4399, -173.54, 2.43854, 66.5113, 0.00669372, 58.7028
1, 2940.00000, 125.303, -30.5579, 125.495, -150.466, 125.565, 89.5853, 0, 0, 2.44363, -53.6319, 2.4399, -173.54, 2.43854, 66.5113, 0.00669373, 58.7028
1, 3000.00000, 125.303, -30.5579, 125.495, -150.466, 125.565, 89.5853, 0, 0, 2.44363, -53.6319, 2.4399, -173.54, 2.43854, 66.5113, 0.00669373, 58.7028
1, 3060.00000, 125.303, -30.5579, 125.495, -150.466, 125.565, 89.5853, 0, 0, 2.44363, -53.6319, 2.4399, -173.54, 2.43854, 66.5113, 0.00669373, 58.7028
1, 3120.00000, 125.303, -30.5579, 125.495, -150.466, 125.565, 89.5853, 0, 0, 2.44363, -53.6319, 2.4399, -173.54, 2.43854, 66.5113, 0.00669373, 58.7028
1, 3180.00000, 125.303, -30.5579, 125.495, -150.466, 125.565, 89.5853, 0, 0, 2.44363, -53.6319, 2.4399, -173.54, 2.43854, 66.5113, 0.00669373, 58.7028
1, 3240.00000, 125.303, -30.5579, 125.495, -150.466, 125.565, 89.5853, 0, 0, 2.44363, -53.6319, 2.4399, -173.54, 2.43854, 66.5113, 0.00669373, 58.7028
1, 3300.00000, 125.303, -30.5579, 125.495, -150.466, 125.565, 89.5853, 0, 0, 2.44363, -53.6319, 2.4399, -173.54, 2.43854, 66.5113, 0.00669373, 58.7028
1, 3360.00000, 125.303, -30.5579, 125.495, -150.466, 125.565, 89.5853, 0, 0, 2.44363, -53.6319, 2.4399, -173.54, 2.43854, 66.5113, 0.00669373, 58.7028
1, 3420.00000, 125.303, -30.5579, 125.495, -150.466, 125.565, 89.5853, 0, 0, 2.44363, -53.6319, 2.4399, -173.54, 2.43854, 66.5113, 0.00669373, 58.7028
1, 3480.00000, 125.303, -30.5579, 125.495, -150.466, 125.565, 89.5853, 0, 0, 2.44363, -53.6319, 2.4399, -173.54, 2.43854, 66.5113, 0.00669373, 58.7028
1, 3540.00000, 125.303, -30.5579, 125.495, -150.466, 125.565, 89.5853, 0, 0, 2.44363, -53.6319, 2.4399, -173.54, 2.43854, 66.5113, 0.00669373, 58.7028
2, 0.00000, 125.303, -30.5579, 125.495, -150.466, 125.565, 89.5853, 0, 0, 2.44363, -53.6319, 2.4399, -173.54, 2.43854, 66.5113, 0.00669373, 58.7028
2, 60.00000, 125.303, -30.5579, 125.495, -150.466, 125.565, 89.5853, 0, 0, 2.44363, -53.6319, 2.4399, -173.54, 2.43854, 66.5113, 0.00669373, 58.7028
2, 120.00000, 125.296, -30.559, 125.488, -150.467, 125.558, 89.5844, 0, 0, 2.45053, -53.6328, 2.44677, -173.54, 2.44542, 66.5105, 0.00672006, 58.7856
2, 180.00000, 125.288, -30.56, 125.482, -150.467, 125.551, 89.5834, 0, 0, 2.45752, -53.6339, 2.45374, -173.541, 2.45238, 66.5096, 0.00674573, 58.88
2, 240.00000, 125.281, -30.5611, 125.475, -150.468, 125.544, 89.5825, 0, 0, 2.46443, -53.6349, 2.46062, -173.542, 2.45926, 66.5087, 0.00677111, 58.9736
2, 300.00000, 125.273, -30.5621, 125.468, -150.469, 125.537, 89.5816, 0, 0, 2.47134, -53.636, 2.46751, -173.543, 2.46615, 66.5078, 0.00679656, 59.0669
2, 360.00000, 125.266, -30.5631, 125.461, -150.47, 125.53, 89.5807, 0, 0, 2.47834, -53.637, 2.47447, -173.544, 2.47312, 66.5069, 0.00682239, 59.161
2, 420.00000, 125.258, -30.5642, 125.455, -150.471, 125.523, 89.5798, 0, 0, 2.48525, -53.638, 2.48136, -173.545, 2.48, 66.506, 0.00684795, 59.2541
2, 480.00000, 125.251, -30.5652, 125.448, -150.472, 125.516, 89.5789, 0, 0, 2.49216, -53.6391, 2.48824, -173.546, 2.48689, 66.505, 0.00687357, 59.3469
2, 540.00000, 125.243, -30.5662, 125.441, -150.473, 125.509, 89.578, 0, 0, 2.49916, -53.6401, 2.49521, -173.547, 2.49386, 66.5041, 0.00689958, 59.4406
2, 600.00000, 125.236, -30.5673, 125.434, -150.474, 125.502, 89.5771, 0, 0, 2.50607, -53.6411, 2.5021, -173.548, 2.50075, 66.5032, 0.00692532, 59.5333
2, 660.00000, 125.228, -30.5683, 125.428, -150.475, 125.495, 89.5762, 0, 0, 2.51299, -53.6422, 2.50899, -173.549, 2.50764, 66.5023, 0.00695112, 59.6257
2, 720.00000, 125.221, -30.5694, 125.421, -150.476, 125.488, 89.5753, 0, 0, 2.51998, -53.6432, 2.51596, -173.55, 2.51461, 66.5014, 0.00697731, 59.7189
