hour,t(sec),V1,VAngle1,V2,VAngle2,V3,VAngle3,V4,VAngle4,I1,IAngle1,I2,IAngle2,I3,IAngle3,I4,IAngle4
0, 60.00000, 126.519, -31.3747, 126.371, -150.556, 128.069, 89.268, 0, 0, 2.25091, -54.4482, 2.25353, -173.63, 2.2237, 66.1942, 0.0574633, 54.5988
0, 120.00000, 126.528, -31.3831, 126.371, -150.556, 128.091, 89.2673, 0, 0, 2.25074, -54.4567, 2.25354, -173.63, 2.22331, 66.1936, 0.0581, 54.4391
0, 180.00000, 126.536, -31.3908, 126.371, -150.556, 128.111, 89.2668, 0, 0, 2.2506, -54.4643, 2.25354, -173.63, 2.22296, 66.193, 0.0586739, 54.2987
0, 240.00000, 126.544, -31.3976, 126.371, -150.556, 128.129, 89.2663, 0, 0, 2.25047, -54.4712, 2.25354, -173.63, 2.22265, 66.1925, 0.0591909, 54.1752
0, 300.00000, 126.55, -31.4038, 126.371, -150.556, 128.145, 89.2658, 0, 0, 2.25035, -54.4774, 2.25354, -173.63, 2.22237, 66.192, 0.0596567, 54.0663
0, 360.00000, 126.556, -31.4094, 126.371, -150.556, 128.16, 89.2654, 0, 0, 2.25025, -54.483, 2.25354, -173.63, 2.22212, 66.1916, 0.0600763, 53.9701
0, 420.00000, 126.561, -31.4144, 126.371, -150.556, 128.173, 89.265, 0, 0, 2.25015, -54.4881, 2.25354, -173.63, 2.22189, 66.1912, 0.0604542, 53.8849
0, 480.00000, 126.566, -31.4189, 126.371, -150.556, 128.184, 89.2646, 0, 0, 2.25007, -54.4926, 2.25354, -173.63, 2.22168, 66.1908, 0.0607946, 53.8093
0, 540.00000, 126.57, -31.423, 126.371, -150.556, 128.195, 89.2643, 0, 0, 2.24999, -54.4967, 2.25354, -173.63, 2.2215, 66.1905, 0.0611011, 53.7422
0, 600.00000, 126.574, -31.4267, 126.371, -150.556, 128.204, 89.264, 0, 0, 2.24992, -54.5004, 2.25354, -173.63, 2.22133, 66.1902, 0.0613772, 53.6825
0, 660.00000, 126.578, -31.43, 126.371, -150.556, 128.213, 89.2637, 0, 0, 2.24986, -54.5037, 2.25354, -173.63, 2.22118, 66.1899, 0.0616257, 53.6294
0, 720.00000, 126.581, -31.4329, 126.371, -150.556, 128.221, 89.2635, 0, 0, 2.2498, -54.5067, 2.25354, -173.63, 2.22105, 66.1897, 0.0618495, 53.582
0, 780.00000, 126.584, -31.4356, 126.371, -150.556, 128.228, 89.2633, 0, 0, 2.24976, -54.5094, 2.25354, -173.63, 2.22092, 66.1894, 0.062051, 53.5398
0, 840.00000, 126.586, -31.438, 126.371, -150.556, 128.234, 89.2631, 0, 0, 2.24971, -54.5118, 2.25354, -173.63, 2.22081, 66.1892, 0.0622324, 53.502
0, 900.00000, 126.589, -31.4402, 126.371, -150.556, 128.24, 89.2629, 0, 0, 2.24967, -54.514, 2.25354, -173.63, 2.22072, 66.189, 0.0623957, 53.4683
0, 960.00000, 126.591, -31.4421, 126.371, -150.556, 128.245, 89.2627, 0, 0, 2.24963, -54.516, 2.25354, -173.63, 2.22063, 66.1889, 0.0625428, 53.4381
0, 1020.00000, 126.592, -31.4439, 126.371, -150.556, 128.249, 89.2626, 0, 0, 2.2496, -54.5177, 2.25355, -173.63, 2.22055, 66.1887, 0.0626751, 53.4111
0, 1080.00000, 126.594, -31.4455, 126.371, -150.556, 128.253, 89.2625, 0, 0, 2.24957, -54.5193, 2.25355, -173.63, 2.22048, 66.1886, 0.0627943, 53.3869
0, 1140.00000, 126.596, -31.4469, 126.371, -150.556, 128.257, 89.2624, 0, 0, 2.24955, -54.5208, 2.25355, -173.63, 2.22041, 66.1885, 0.0629015, 53.3653
0, 1200.00000, 126.597, -31.4482, 126.371, -150.556, 128.26, 89.2622, 0, 0, 2.24952, -54.5221, 2.25355, -173.63, 2.22035, 66.1884, 0.0629981, 53.3458
0, 1260.00000, 126.598, -31.4494, 126.371, -150.556, 128.263, 89.2621, 0, 0, 2.2495, -54.5232, 2.25355, -173.63, 2.2203, 66.1883, 0.063085, 53.3284
0, 1320.00000, 126.599, -31.4504, 126.371, -150.556, 128.266, 89.2621, 0, 0, 2.24948, -54.5243, 2.25355, -173.63, 2.22025, 66.1882, 0.0631632, 53.3128
0, 1380.00000, 126.6, -31.4513, 126.371, -150.556, 128.268, 89.262, 0, 0, 2.24946, -54.5252, 2.25355, -173.63, 2.22021, 66.1881, 0.0632336, 53.2988
0, 1440.00000, 126.601, -31.4522, 126.371, -150.556, 128.271, 89.2619, 0, 0, 2.24945, -54.526, 2.25355, -173.63, 2.22017, 66.188, 0.063297, 53.2862
0, 1500.00000, 126.602, -31.4529, 126.371, -150.556, 128.273, 89.2618, 0, 0, 2.24943, -54.5268, 2.25355, -173.63, 2.22014, 66.188, 0.063354, 53.2749
0, 1560.00000, 126.603, -31.4536, 126.371, -150.556, 128.274, 89.2618, 0, 0, 2.24942, -54.5275, 2.25355, -173.63, 2.22011, 66.1879, 0.0634054, 53.2648
0, 1620.00000, 126.603, -31.4542, 126.371, -150.556, 128.276, 89.2617, 0, 0, 2.24941, -54.5281, 2.25355, -173.63, 2.22008, 66.1878, 0.0634516, 53.2557
0, 1680.00000, 126.604, -31.4548, 126.371, -150.556, 128.277, 89.2617, 0, 0, 2.2494, -54.5287, 2.25355, -173.63, 2.22006, 66.1878, 0.0634932, 53.2475
0, 1740.00000, 126.604, -31.4553, 126.371, -150.556, 128.279, 89.2616, 0, 0, 2.24939, -54.5292, 2.25355, -173.63, 2.22003, 66.1877, 0.0635306, 53.2401
0, 1800.00000, 126.605, -31.4557, 126.371, -150.556, 128.28, 89.2616, 0, 0, 2.24938, -54.5296, 2.25355, -173.63, 2.22001, 66.1877, 0.0635643, 53.2335
0, 1860.00000, 126.605, -31.4561, 126.371, -150.556, 128.281, 89.2616, 0, 0, 2.24937, -54.53, 2.25355, -173.63, 2.22, 66.1877, 0.0635947, 53.2276
0, 1920.00000, 126.606, -31.4565, 126.371, -150.556, 128.282, 89.2615, 0, 0, 2.24937, -54.5304, 2.25355, -173.63, 2.21998, 66.1876, 0.063622, 53.2222
0, 1980.00000, 126.606, -31.4568, 126.371, -150.556, 128.283, 89.2615, 0, 0, 2.24936, -54.5307, 2.25355, -173.63, 2.21996, 66.1876, 0.0636465, 53.2174
0, 2040.00000, 126.606, -31.4571, 126.371, -150.556, 128.283, 89.2615, 0, 0, 2.24936, -54.531, 2.25355, -173.63, 2.21995, 66.1876, 0.0636687, 53.2131
0, 2100.00000, 126.607, -31.4574, 126.371, -150.556, 128.284, 89.2615, 0, 0, 2.24935, -54.5313, 2.25355, -173.63, 2.21994, 66.1876, 0.0636886, 53.2092
0, 2160.00000, 126.607, -31.4576, 126.371, -150.556, 128.285, 89.2614, 0, 0, 2.24935, -54.5315, 2.25355, -173.63, 2.21993, 66.1875, 0.0637065, 53.2058
0, 2220.00000, 126.607, -31.4578, 126.371, -150.556, 128.285, 89.2614, 0, 0, 2.24934, -54.5317, 2.25355, -173.63, 2.21992, 66.1875, 0.0637226, 53.2026
0, 2280.00000, 126.607, -31.458, 126.371, -150.556, 128.286, 89.2614, 0, 0, 2.24934, -54.5319, 2.25355, -173.63, 2.21991, 66.1875, 0.0637371, 53.1998
0, 2340.00000, 126.607, -31.4582, 126.371, -150.556, 128.286, 89.2614, 0, 0, 2.24934, -54.5321, 2.25355, -173.63, 2.2199, 66.1875, 0.0637502, 53.1973
0, 2400.00000, 126.608, -31.4583, 126.371, -150.556, 128.287, 89.2614, 0, 0, 2.24933, -54.5323, 2.25355, -173.63, 2.21989, 66.1875, 0.0637619, 53.195
0, 2460.00000, 126.608, -31.4585, 126.371, -150.556, 128.287, 89.2614, 0, 0, 2.24933, -54.5324, 2.25355, -173.63, 2.21989, 66.1875, 0.0637725, 53.1929
0, 2520.00000, 126.608, -31.4586, 126.371, -150.556, 128.287, 89.2614, 0, 0, 2.24933, -54.5325, 2.25355, -173.63, 2.21988, 66.1874, 0.063782, 53.1911
0, 2580.00000, 126.608, -31.4587, 126.371, -150.556, 128.288, 89.2614, 0, 0, 2.24933, -54.5326, 2.25355, -173.63, 2.21988, 66.1874, 0.0637906, 53.1894
0, 2640.00000, 126.608, -31.4588, 126.371, -150.556, 128.288, 89.2613, 0, 0, 2.24932, -54.5327, 2.25355, -173.63, 2.21987, 66.1874, 0.0637983, 53.1879
0, 2700.00000, 126.608, -31.4589, 126.371, -150.556, 128.288, 89.2613, 0, 0, 2.24932, -54.5328, 2.25355, -173.63, 2.21987, 66.1874, 0.0638052, 53.1866
0, 2760.00000, 126.608, -31.459, 126.371, -150.556, 128.288, 89.2613, 0, 0, 2.24932, -54.5329, 2.25355, -173.63, 2.21986, 66.1874, 0.0638115, 53.1853
0, 2820.00000, 126.608, -31.4591, 126.371, -150.556, 128.288, 89.2613, 0, 0, 2.24932, -54.533, 2.25355, -173.63, 2.21986, 66.1874, 0.0638171, 53.1842
0, 2880.00000, 126.608, -31.4591, 126.371, -150.556, 128.289, 89.2613, 0, 0, 2.24932, -54.5331, 2.25355, -173.63, 2.21986, 66.1874, 0.0638222, 53.1833
0, 2940.00000, 126.608, -31.4592, 126.371, -150.556, 128.289, 89.2613, 0, 0, 2.24932, -54.5331, 2.25355, -173.63, 2.21986, 66.1874, 0.0638267, 53.1824
0, 3000.00000, 126.608, -31.4593, 126.371, -150.556, 128.289, 89.2613, 0, 0, 2.24932, -54.5332, 2.25355, -173.63, 2.21985, 66.1874, 0.0638308, 53.1816
0, 3060.00000, 126.609, -31.4593, 126.371, -150.556, 128.289, 89.2613, 0, 0, 2.24932, -54.5332, 2.25355, -173.63, 2.21985, 66.1874, 0.0638345, 53.1809
0, 3120.00000, 126.609, -31.4594, 126.371, -150.556, 128.289, 89.2613, 0, 0, 2.24932, -54.5333, 2.25355, -173.63, 2.21985, 66.1874, 0.0638378, 53.1802
0, 3180.00000, 126.609, -31.4594, 126.371, -150.556, 128.289, 89.2613, 0, 0, 2.24931, -54.5333, 2.25355, -173.63, 2.21985, 66.1874, 0.0638408, 53.1797
0, 3240.00000, 126.609, -31.4594, 126.371, -150.556, 128.289, 89.2613, 0, 0, 2.24931, -54.5333, 2.25355, -173.63, 2.21985, 66.1874, 0.0638435, 53.1791
0, 3300.00000, 126.609, -31.4595, 126.371, -150.556, 128.289, 89.2613, 0, 0, 2.24931, -54.5334, 2.25355, -173.63, 2.21984, 66.1874, 0.0638459, 53.1787
0, 3360.00000, 126.609, -31.4595, 126.371, -150.556, 128.29, 89.2613, 0, 0, 2.24931, -54.5334, 2.25355, -173.63, 2.21984, 66.1874, 0.0638481, 53.1782
0, 3420.00000, 126.609, -31.4595, 126.371, -150.556, 128.29, 89.2613, 0, 0, 2.24931, -54.5334, 2.25355, -173.63, 2.21984, 66.1874, 0.0638501, 53.1779
0, 3480.00000, 126.609, -31.4595, 126.371, -150.556, 128.29, 89.2613, 0, 0, 2.24931, -54.5335, 2.25355, -173.63, 2.21984, 66.1874, 0.0638518, 53.1775
0, 3540.00000, 126.609, -31.4596, 126.371, -150.556, 128.29, 89.2613, 0, 0, 2.24931, -54.5335, 2.25355, -173.63, 2.21984, 66.1874, 0.0638534, 53.1772
1, 0.00000, 126.609, -31.4596, 126.371, -150.556, 128.29, 89.2613, 0, 0, 2.24931, -54.5335, 2.25355, -173.63, 2.21984, 66.1874, 0.0638549, 53.1769
1, 60.00000, 126.609, -31.4596, 126.371, -150.556, 128.29, 89.2613, 0, 0, 2.24931, -54.5335, 2.25355, -173.63, 2.21984, 66.1874, 0.0638561, 53.1767
1, 120.00000, 126.609, -31.4596, 126.371, -150.556, 128.29, 89.2613, 0, 0, 2.24931, -54.5335, 2.25355, -173.63, 2.21984, 66.1874, 0.0638573, 53.1765
1, 180.00000, 126.609, -31.4596, 126.371, -150.556, 128.29, 89.2613, 0, 0, 2.24931, -54.5335, 2.25355, -173.63, 2.21984, 66.1874, 0.0638583, 53.1763
1, 240.00000, 126.609, -31.4596, 126.371, -150.556, 128.29, 89.2613, 0, 0, 2.24931, -54.5336, 2.25355, -173.63, 2.21984, 66.1874, 0.0638593, 53.1761
1, 300.00000, 126.609, -31.4596, 126.371, -150.556, 128.29, 89.2613, 0, 0, 2.24931, -54.5336, 2.25355, -173.63, 2.21984, 66.1874, 0.0638601, 53.1759
1, 360.00000, 126.609, -31.4597, 126.371, -150.556, 128.29, 89.2613, 0, 0, 2.24931, -54.5336, 2.25355, -173.63, 2.21984, 66.1874, 0.0638609, 53.1758
1, 420.00000, 126.609, -31.4597, 126.371, -150.556, 128.29, 89.2613, 0, 0, 2.24931, -54.5336, 2.25355, -173.63, 2.21983, 66.1874, 0.0638616, 53.1756
1, 480.00000, 126.609, -31.4597, 126.371, -150.556, 128.29, 89.2613, 0, 0, 2.24931, -54.5336, 2.25355, -173.63, 2.21983, 66.1873, 0.0638622, 53.1755
1, 540.00000, 126.609, -31.4597, 126.371, -150.556, 128.29, 89.2613, 0, 0, 2.24931, -54.5336, 2.25355, -173.63, 2.21983, 66.1873, 0.0638627, 53.1754
1, 600.00000, 126.609, -31.4597, 126.371, -150.556, 128.29, 89.2613, 0, 0, 2.24931, -54.5336, 2.25355, -173.63, 2.21983, 66.1873, 0.0638632, 53.1753
1, 660.00000, 126.609, -31.4597, 126.371, -150.556, 128.29, 89.2613, 0, 0, 2.24931, -54.5336, 2.25355, -173.63, 2.21983, 66.1873, 0.0638637, 53.1752
1, 720.00000, 126.609, -31.4597, 126.371, -150.556, 128.29, 89.2613, 0, 0, 2.24931, -54.5336, 2.25355, -173.63, 2.21983, 66.1873, 0.0638641, 53.1751
1, 780.00000, 126.609, -31.4597, 126.371, -150.556, 128.29, 89.2613, 0, 0, 2.24931, -54.5336, 2.25355, -173.63, 2.21983, 66.1873, 0.0638644, 53.1751
1, 840.00000, 126.609, -31.4597, 126.371, -150.556, 128.29, 89.2613, 0, 0, 2.24931, -54.5336, 2.25355, -173.63, 2.21983, 66.1873, 0.0638648, 53.175
1, 900.00000, 126.609, -31.4597, 126.371, -150.556, 128.29, 89.2613, 0, 0, 2.24931, -54.5336, 2.25355, -173.63, 2.21983, 66.1873, 0.0638651, 53.175
1, 960.00000, 126.609, -31.4597, 126.371, -150.556, 128.29, 89.2613, 0, 0, 2.24931, -54.5336, 2.25355, -173.63, 2.21983, 66.1873, 0.0638653, 53.1749
1, 1020.00000, 126.609, -31.4597, 126.371, -150.556, 128.29, 89.2613, 0, 0, 2.24931, -54.5336, 2.25355, -173.63, 2.21983, 66.1873, 0.0638656, 53.1749
1, 1080.00000, 126.609, -31.4597, 126.371, -150.556, 128.29, 89.2613, 0, 0, 2.24931, -54.5336, 2.25355, -173.63, 2.21983, 66.1873, 0.0638658, 53.1748
1, 1140.00000, 126.609, -31.4597, 126.371, -150.556, 128.29, 89.2613, 0, 0, 2.24931, -54.5336, 2.25355, -173.63, 2.21983, 66.1873, 0.063866, 53.1748
1, 1200.00000, 126.609, -31.4597, 126.371, -150.556, 128.29, 89.2613, 0, 0, 2.24931, -54.5336, 2.25355, -173.63, 2.21983, 66.1873, 0.0638662, 53.1747
1, 1260.00000, 126.609, -31.4597, 126.371, -150.556, 128.29, 89.2613, 0, 0, 2.24931, -54.5336, 2.25355, -173.63, 2.21983, 66.1873, 0.0638663, 53.1747
1, 1320.00000, 126.609, -31.4597, 126.371, -150.556, 128.29, 89.2613, 0, 0, 2.24931, -54.5336, 2.25355, -173.63, 2.21983, 66.1873, 0.0638665, 53.1747
1, 1380.00000, 126.609, -31.4597, 126.371, -150.556, 128.29, 89.2613, 0, 0, 2.24931, -54.5336, 2.25355, -173.63, 2.21983, 66.1873, 0.0638666, 53.1747
1, 1440.00000, 126.609, -31.4597, 126.371, -150.556, 128.29, 89.2613, 0, 0, 2.24931, -54.5337, 2.25355, -173.63, 2.21983, 66.1873, 0.0638667, 53.1746
1, 1500.00000, 126.609, -31.4597, 126.371, -150.556, 128.29, 89.2613, 0, 0, 2.24931, -54.5337, 2.25355, -173.63, 2.21983, 66.1873, 0.0638668, 53.1746
1, 1560.00000, 126.609, -31.4597, 126.371, -150.556, 128.29, 89.2613, 0, 0, 2.24931, -54.5337, 2.25355, -173.63, 2.21983, 66.1873, 0.0638669, 53.1746
1, 1620.00000, 126.609, -31.4597, 126.371, -150.556, 128.29, 89.2613, 0, 0, 2.24931, -54.5337, 2.25355, -173.63, 2.21983, 66.1873, 0.063867, 53.1746
1, 1680.00000, 126.609, -31.4597, 126.371, -150.556, 128.29, 89.2613, 0, 0, 2.24931, -54.5337, 2.25355, -173.63, 2.21983, 66.1873, 0.063867, 53.1746
1, 1740.00000, 126.609, -31.4597, 126.371, -150.556, 128.29, 89.2613, 0, 0, 2.24931, -54.5337, 2.25355, -173.63, 2.21983, 66.1873, 0.0638671, 53.1746
1, 1800.00000, 126.609, -31.4597, 126.371, -150.556, 128.29, 89.2613, 0, 0, 2.24931, -54.5337, 2.25355, -173.63, 2.21983, 66.1873, 0.0638672, 53.1745
1, 1860.00000, 126.609, -31.4597, 126.371, -150.556, 128.29, 89.2613, 0, 0, 2.24931, -54.5337, 2.25355, -173.63, 2.21983, 66.1873, 0.0638672, 53.1745
1, 1920.00000, 126.609, -31.4597, 126.371, -150.556, 128.29, 89.2613, 0, 0, 2.24931, -54.5337, 2.25355, -173.63, 2.21983, 66.1873, 0.0638673, 53.1745
1, 1980.00000, 126.609, -31.4597, 126.371, -150.556, 128.29, 89.2613, 0, 0, 2.24931, -54.5337, 2.25355, -173.63, 2.21983, 66.1873, 0.0638673, 53.1745
1, 2040.00000, 126.609, -31.4597, 126.371, -150.556, 128.29, 89.2613, 0, 0, 2.24931, -54.5337, 2.25355, -173.63, 2.21983, 66.1873, 0.0638674, 53.1745
1, 2100.00000, 126.609, -31.4597, 126.371, -150.556, 128.29, 89.2613, 0, 0, 2.24931, -54.5337, 2.25355, -173.63, 2.21983, 66.1873, 0.0638674, 53.1745
1, 2160.00000, 126.609, -31.4597, 126.371, -150.556, 128.29, 89.2613, 0, 0, 2.24931, -54.5337, 2.25355, -173.63, 2.21983, 66.1873, 0.0638674, 53.1745
1, 2220.00000, 126.609, -31.4597, 126.371, -150.556, 128.29, 89.2613, 0, 0, 2.24931, -54.5337, 2.25355, -173.63, 2.21983, 66.1873, 0.0638675, 53.1745
1, 2280.00000, 126.609, -31.4597, 126.371, -150.556, 128.29, 89.2613, 0, 0, 2.24931, -54.5337, 2.25355, -173.63, 2.21983, 66.1873, 0.0638675, 53.1745
1, 2340.00000, 126.609, -31.4597, 126.371, -150.556, 128.29, 89.2613, 0, 0, 2.24931, -54.5337, 2.25355, -173.63, 2.21983, 66.1873, 0.0638675, 53.1745
1, 2400.00000, 126.609, -31.4597, 126.371, -150.556, 128.29, 89.2613, 0, 0, 2.24931, -54.5337, 2.25355, -173.63, 2.21983, 66.1873, 0.0638675, 53.1745
1, 2460.00000, 126.609, -31.4597, 126.371, -150.556, 128.29, 89.2613, 0, 0, 2.24931, -54.5337, 2.25355, -173.63, 2.21983, 66.1873, 0.0638675, 53.1745
1, 2520.00000, 126.609, -31.4597, 126.371, -150.556, 128.29, 89.2613, 0, 0, 2.24931, -54.5337, 2.25355, -173.63, 2.21983, 66.1873, 0.0638676, 53.1745
1, 2580.00000, 126.609, -31.4597, 126.371, -150.556, 128.29, 89.2613, 0, 0, 2.24931, -54.5337, 2.25355, -173.63, 2.21983, 66.1873, 0.0638676, 53.1745
1, 2640.00000, 126.609, -31.4597, 126.371, -150.556, 128.29, 89.2613, 0, 0, 2.24931, -54.5337, 2.25355, -173.63, 2.21983, 66.1873, 0.0638676, 53.1745
1, 2700.00000, 126.609, -31.4597, 126.371, -150.556, 128.29, 89.2613, 0, 0, 2.24931, -54.5337, 2.25355, -173.63, 2.21983, 66.1873, 0.0638676, 53.1745
1, 2760.00000, 127.017, -31.4318, 126.369, -150.556, 128.459, 89.4222, 0, 0, 2.24208, -54.5057, 2.25357, -173.63, 2.21691, 66.3483, 0.066004, 42.7246
1, 2820.00000, 127.017, -31.4318, 126.369, -150.556, 128.459, 89.4222, 0, 0, 2.24208, -54.5057, 2.25357, -173.63, 2.21691, 66.3483, 0.0660044, 42.7249
1, 2880.00000, 127.017, -31.4318, 126.369, -150.556, 128.459, 89.4222, 0, 0, 2.24208, -54.5057, 2.25357, -173.63, 2.21691, 66.3483, 0.0660044, 42.7249
1, 2940.00000, 127.017, -31.4318, 126.369, -150.556, 128.459, 89.4222, 0, 0, 2.24208, -54.5057, 2.25357, -173.63, 2.21691, 66.3483, 0.0660044, 42.7249
1, 3000.00000, 127.017, -31.4318, 126.369, -150.556, 128.459, 89.4222, 0, 0, 2.24208, -54.5057, 2.25357, -173.63, 2.21691, 66.3483, 0.0660045, 42.7249
1, 3060.00000, 127.017, -31.4318, 126.369, -150.556, 128.459, 89.4222, 0, 0, 2.24208, -54.5057, 2.25357, -173.63, 2.21691, 66.3483, 0.0660045, 42.7249
1, 3120.00000, 127.017, -31.4318, 126.369, -150.556, 128.459, 89.4222, 0, 0, 2.24208, -54.5057, 2.25357, -173.63, 2.21691, 66.3483, 0.0660045, 42.7249
1, 3180.00000, 127.017, -31.4318, 126.369, -150.556, 128.459, 89.4222, 0, 0, 2.24208, -54.5057, 2.25357, -173.63, 2.21691, 66.3483, 0.0660045, 42.7249
1, 3240.00000, 127.017, -31.4318, 126.369, -150.556, 128.459, 89.4222, 0, 0, 2.24208, -54.5057, 2.25357, -173.63, 2.21691, 66.3483, 0.0660045, 42.7249
1, 3300.00000, 127.017, -31.4318, 126.369, -150.556, 128.459, 89.4222, 0, 0, 2.24208, -54.5057, 2.25357, -173.63, 2.21691, 66.3483, 0.0660045, 42.7249
1, 3360.00000, 127.017, -31.4318, 126.369, -150.556, 128.459, 89.4222, 0, 0, 2.24208, -54.5057, 2.25357, -173.63, 2.21691, 66.3483, 0.0660045, 42.7249
1, 3420.00000, 127.017, -31.4318, 126.369, -150.556, 128.459, 89.4222, 0, 0, 2.24208, -54.5057, 2.25357, -173.63, 2.21691, 66.3483, 0.0660045, 42.7249
1, 3480.00000, 127.017, -31.4318, 126.369, -150.556, 128.459, 89.4222, 0, 0, 2.24208, -54.5057, 2.25357, -173.63, 2.21691, 66.3483, 0.0660045, 42.7249
1, 3540.00000, 127.017, -31.4318, 126.369, -150.556, 128.459, 89.4222, 0, 0, 2.24208, -54.5057, 2.25357, -173.63, 2.21691, 66.3483, 0.0660045, 42.7249
2, 0.00000, 127.017, -31.4318, 126.369, -150.556, 128.459, 89.4222, 0, 0, 2.24208, -54.5057, 2.25357, -173.63, 2.21691, 66.3483, 0.0660045, 42.7249
2, 60.00000, 127.017, -31.4318, 126.369, -150.556, 128.459, 89.4222, 0, 0, 2.24208, -54.5057, 2.25357, -173.63, 2.21691, 66.3483, 0.0660045, 42.7249
2, 120.00000, 127.012, -31.4329, 126.364, -150.557, 128.454, 89.4212, 0, 0, 2.24838, -54.5068, 2.2599, -173.631, 2.22313, 66.3473, 0.0661903, 42.7308
2, 180.00000, 127.006, -31.434, 126.36, -150.558, 128.449, 89.4201, 0, 0, 2.25476, -54.5079, 2.26629, -173.632, 2.22943, 66.3462, 0.0663784, 42.7367
2, 240.00000, 127, -31.4351, 126.355, -150.559, 128.444, 89.4191, 0, 0, 2.26106, -54.509, 2.27262, -173.633, 2.23565, 66.3452, 0.0665642, 42.7425
2, 300.00000, 126.995, -31.4362, 126.35, -150.561, 128.439, 89.418, 0, 0, 2.26736, -54.5101, 2.27894, -173.634, 2.24187, 66.3441, 0.06675, 42.7483
2, 360.00000, 126.989, -31.4373, 126.345, -150.562, 128.434, 89.417, 0, 0, 2.27374, -54.5112, 2.28534, -173.636, 2.24817, 66.343, 0.0669381, 42.7542
2, 420.00000, 126.984, -31.4384, 126.34, -150.563, 128.429, 89.4159, 0, 0, 2.28005, -54.5123, 2.29167, -173.637, 2.25439, 66.342, 0.0671239, 42.7601
2, 480.00000, 126.978, -31.4395, 126.335, -150.564, 128.424, 89.4149, 0, 0, 2.28635, -54.5134, 2.29799, -173.638, 2.26061, 66.3409, 0.0673098, 42.7659
2, 540.00000, 126.973, -31.4406, 126.33, -150.565, 128.419, 89.4138, 0, 0, 2.29273, -54.5145, 2.30439, -173.639, 2.26691, 66.3399, 0.067498, 42.7718
2, 600.00000, 126.967, -31.4417, 126.325, -150.566, 128.414, 89.4128, 0, 0, 2.29904, -54.5156, 2.31072, -173.64, 2.27313, 66.3388, 0.0676839, 42.7777
2, 660.00000, 126.962, -31.4428, 126.32, -150.567, 128.409, 89.4117, 0, 0, 2.30534, -54.5167, 2.31704, -173.641, 2.27936, 66.3378, 0.0678699, 42.7835
2, 720.00000, 126.956, -31.4439, 126.316, -150.568, 128.404, 89.4106, 0, 0, 2.31172, -54.5178, 2.32345, -173.642, 2.28566, 66.3367, 0.0680581, 42.7895
