hour,t(sec),V1,VAngle1,V2,VAngle2,V3,VAngle3,V4,VAngle4,I1,IAngle1,I2,IAngle2,I3,IAngle3,I4,IAngle4
0, 60.00000, 127.373, -31.3813, 127.226, -150.55, 128.937, 89.1165, 0, 0, 2.13341, -54.4547, 2.13588, -173.624, 2.10757, 66.0427, 0.0540601, 60.4931
0, 120.00000, 127.382, -31.3896, 127.226, -150.55, 128.958, 89.116, 0, 0, 2.13326, -54.4631, 2.13588, -173.624, 2.10722, 66.0421, 0.0546282, 60.268
0, 180.00000, 127.39, -31.3971, 127.226, -150.55, 128.977, 89.1155, 0, 0, 2.13312, -54.4706, 2.13588, -173.624, 2.1069, 66.0416, 0.0551405, 60.0697
0, 240.00000, 127.398, -31.4039, 127.226, -150.55, 128.994, 89.115, 0, 0, 2.133, -54.4774, 2.13588, -173.624, 2.10662, 66.0412, 0.0556024, 59.8948
0, 300.00000, 127.404, -31.4099, 127.226, -150.55, 129.01, 89.1146, 0, 0, 2.13289, -54.4836, 2.13588, -173.624, 2.10636, 66.0408, 0.0560189, 59.7403
0, 360.00000, 127.41, -31.4154, 127.226, -150.55, 129.024, 89.1143, 0, 0, 2.13279, -54.4891, 2.13588, -173.624, 2.10613, 66.0404, 0.0563943, 59.6035
0, 420.00000, 127.415, -31.4204, 127.226, -150.55, 129.037, 89.1139, 0, 0, 2.1327, -54.494, 2.13588, -173.624, 2.10592, 66.0401, 0.0567326, 59.4822
0, 480.00000, 127.42, -31.4248, 127.226, -150.55, 129.048, 89.1136, 0, 0, 2.13262, -54.4985, 2.13588, -173.624, 2.10573, 66.0398, 0.0570374, 59.3745
0, 540.00000, 127.424, -31.4288, 127.226, -150.55, 129.058, 89.1133, 0, 0, 2.13255, -54.5025, 2.13588, -173.624, 2.10557, 66.0395, 0.057312, 59.2786
0, 600.00000, 127.428, -31.4324, 127.226, -150.55, 129.067, 89.1131, 0, 0, 2.13249, -54.5062, 2.13588, -173.624, 2.10541, 66.0392, 0.0575594, 59.1933
0, 660.00000, 127.432, -31.4357, 127.226, -150.55, 129.076, 89.1128, 0, 0, 2.13243, -54.5094, 2.13588, -173.624, 2.10528, 66.039, 0.0577822, 59.1172
0, 720.00000, 127.435, -31.4386, 127.226, -150.55, 129.083, 89.1126, 0, 0, 2.13238, -54.5124, 2.13588, -173.624, 2.10516, 66.0388, 0.0579829, 59.0493
0, 780.00000, 127.438, -31.4412, 127.226, -150.55, 129.09, 89.1124, 0, 0, 2.13233, -54.515, 2.13588, -173.624, 2.10505, 66.0386, 0.0581636, 58.9887
0, 840.00000, 127.44, -31.4436, 127.226, -150.55, 129.096, 89.1123, 0, 0, 2.13229, -54.5174, 2.13588, -173.624, 2.10495, 66.0384, 0.0583264, 58.9345
0, 900.00000, 127.442, -31.4458, 127.226, -150.55, 129.101, 89.1121, 0, 0, 2.13225, -54.5196, 2.13588, -173.624, 2.10486, 66.0382, 0.0584729, 58.8861
0, 960.00000, 127.016, -31.4752, 127.224, -150.55, 128.927, 88.9391, 0, 0, 2.13941, -54.5491, 2.13591, -173.624, 2.1077, 65.8652, 0.0599604, 70.4905
0, 1020.00000, 127.018, -31.4769, 127.224, -150.55, 128.932, 88.939, 0, 0, 2.13938, -54.5508, 2.13591, -173.624, 2.10762, 65.8651, 0.0600662, 70.4303
0, 1080.00000, 127.02, -31.4784, 127.224, -150.55, 128.936, 88.9389, 0, 0, 2.13935, -54.5523, 2.13591, -173.624, 2.10756, 65.865, 0.0601616, 70.3761
0, 1140.00000, 127.021, -31.4798, 127.224, -150.55, 128.939, 88.9388, 0, 0, 2.13932, -54.5537, 2.13591, -173.624, 2.1075, 65.8649, 0.0602476, 70.3274
0, 1200.00000, 127.022, -31.481, 127.224, -150.55, 128.942, 88.9387, 0, 0, 2.1393, -54.5549, 2.13591, -173.624, 2.10745, 65.8648, 0.060325, 70.2838
0, 1260.00000, 127.024, -31.4822, 127.224, -150.55, 128.945, 88.9386, 0, 0, 2.13928, -54.556, 2.13591, -173.624, 2.1074, 65.8647, 0.0603947, 70.2447
0, 1320.00000, 127.025, -31.4832, 127.224, -150.55, 128.948, 88.9386, 0, 0, 2.13926, -54.557, 2.13591, -173.624, 2.10736, 65.8647, 0.0604574, 70.2095
0, 1380.00000, 127.026, -31.4841, 127.224, -150.55, 128.95, 88.9385, 0, 0, 2.13925, -54.5579, 2.13591, -173.624, 2.10732, 65.8646, 0.0605139, 70.1779
0, 1440.00000, 127.027, -31.4849, 127.224, -150.55, 128.952, 88.9385, 0, 0, 2.13923, -54.5588, 2.13591, -173.624, 2.10729, 65.8645, 0.0605648, 70.1496
0, 1500.00000, 127.027, -31.4856, 127.224, -150.55, 128.954, 88.9384, 0, 0, 2.13922, -54.5595, 2.13591, -173.624, 2.10726, 65.8645, 0.0606106, 70.1241
0, 1560.00000, 127.028, -31.4863, 127.224, -150.55, 128.956, 88.9384, 0, 0, 2.13921, -54.5602, 2.13591, -173.624, 2.10723, 65.8645, 0.0606519, 70.1012
0, 1620.00000, 127.029, -31.4869, 127.224, -150.55, 128.957, 88.9383, 0, 0, 2.1392, -54.5607, 2.13591, -173.624, 2.10721, 65.8644, 0.060689, 70.0806
0, 1680.00000, 127.029, -31.4874, 127.224, -150.55, 128.958, 88.9383, 0, 0, 2.13919, -54.5613, 2.13591, -173.624, 2.10718, 65.8644, 0.0607224, 70.0621
0, 1740.00000, 127.03, -31.4879, 127.224, -150.55, 128.96, 88.9383, 0, 0, 2.13918, -54.5618, 2.13591, -173.624, 2.10716, 65.8644, 0.0607525, 70.0455
0, 1800.00000, 127.03, -31.4883, 127.224, -150.55, 128.961, 88.9382, 0, 0, 2.13917, -54.5622, 2.13591, -173.624, 2.10715, 65.8643, 0.0607796, 70.0305
0, 1860.00000, 127.031, -31.4887, 127.224, -150.55, 128.962, 88.9382, 0, 0, 2.13916, -54.5626, 2.13591, -173.624, 2.10713, 65.8643, 0.060804, 70.0171
0, 1920.00000, 127.031, -31.489, 127.224, -150.55, 128.963, 88.9382, 0, 0, 2.13916, -54.5629, 2.13591, -173.624, 2.10712, 65.8643, 0.060826, 70.005
0, 1980.00000, 127.031, -31.4893, 127.224, -150.55, 128.963, 88.9382, 0, 0, 2.13915, -54.5633, 2.13591, -173.624, 2.1071, 65.8643, 0.0608457, 69.9942
0, 2040.00000, 127.032, -31.4896, 127.224, -150.55, 128.964, 88.9382, 0, 0, 2.13914, -54.5635, 2.13591, -173.624, 2.10709, 65.8642, 0.0608635, 69.9844
0, 2100.00000, 127.032, -31.4899, 127.224, -150.55, 128.965, 88.9381, 0, 0, 2.13914, -54.5638, 2.13591, -173.624, 2.10708, 65.8642, 0.0608795, 69.9756
0, 2160.00000, 127.032, -31.4901, 127.224, -150.55, 128.965, 88.9381, 0, 0, 2.13914, -54.564, 2.13591, -173.624, 2.10707, 65.8642, 0.0608939, 69.9677
0, 2220.00000, 127.032, -31.4903, 127.224, -150.55, 128.966, 88.9381, 0, 0, 2.13913, -54.5642, 2.13591, -173.624, 2.10706, 65.8642, 0.0609069, 69.9606
0, 2280.00000, 127.033, -31.4905, 127.224, -150.55, 128.966, 88.9381, 0, 0, 2.13913, -54.5644, 2.13591, -173.624, 2.10705, 65.8642, 0.0609186, 69.9542
0, 2340.00000, 127.033, -31.4907, 127.224, -150.55, 128.967, 88.9381, 0, 0, 2.13913, -54.5646, 2.13591, -173.624, 2.10705, 65.8642, 0.0609291, 69.9484
0, 2400.00000, 127.033, -31.4908, 127.224, -150.55, 128.967, 88.9381, 0, 0, 2.13912, -54.5647, 2.13591, -173.624, 2.10704, 65.8642, 0.0609385, 69.9432
0, 2460.00000, 127.033, -31.491, 127.224, -150.55, 128.968, 88.9381, 0, 0, 2.13912, -54.5649, 2.13591, -173.624, 2.10703, 65.8642, 0.0609471, 69.9386
0, 2520.00000, 127.033, -31.4911, 127.224, -150.55, 128.968, 88.9381, 0, 0, 2.13912, -54.565, 2.13591, -173.624, 2.10703, 65.8641, 0.0609547, 69.9344
0, 2580.00000, 127.033, -31.4912, 127.224, -150.55, 128.968, 88.9381, 0, 0, 2.13912, -54.5651, 2.13591, -173.624, 2.10702, 65.8641, 0.0609616, 69.9306
0, 2640.00000, 127.033, -31.4913, 127.224, -150.55, 128.968, 88.938, 0, 0, 2.13911, -54.5652, 2.13591, -173.624, 2.10702, 65.8641, 0.0609678, 69.9272
0, 2700.00000, 127.034, -31.4914, 127.224, -150.55, 128.969, 88.938, 0, 0, 2.13911, -54.5653, 2.13591, -173.624, 2.10702, 65.8641, 0.0609734, 69.9242
0, 2760.00000, 127.034, -31.4915, 127.224, -150.55, 128.969, 88.938, 0, 0, 2.13911, -54.5654, 2.13591, -173.624, 2.10701, 65.8641, 0.0609784, 69.9214
0, 2820.00000, 127.034, -31.4915, 127.224, -150.55, 128.969, 88.938, 0, 0, 2.13911, -54.5654, 2.13591, -173.624, 2.10701, 65.8641, 0.060983, 69.9189
0, 2880.00000, 127.034, -31.4916, 127.224, -150.55, 128.969, 88.938, 0, 0, 2.13911, -54.5655, 2.13591, -173.624, 2.10701, 65.8641, 0.060987, 69.9167
0, 2940.00000, 127.034, -31.4917, 127.224, -150.55, 128.969, 88.938, 0, 0, 2.13911, -54.5656, 2.13591, -173.624, 2.10701, 65.8641, 0.0609907, 69.9147
0, 3000.00000, 127.034, -31.4917, 127.224, -150.55, 128.969, 88.938, 0, 0, 2.13911, -54.5656, 2.13591, -173.624, 2.107, 65.8641, 0.060994, 69.9129
0, 3060.00000, 127.034, -31.4918, 127.224, -150.55, 128.97, 88.938, 0, 0, 2.13911, -54.5657, 2.13591, -173.624, 2.107, 65.8641, 0.060997, 69.9113
0, 3120.00000, 127.034, -31.4918, 127.224, -150.55, 128.97, 88.938, 0, 0, 2.13911, -54.5657, 2.13591, -173.624, 2.107, 65.8641, 0.0609996, 69.9098
0, 3180.00000, 127.034, -31.4918, 127.224, -150.55, 128.97, 88.938, 0, 0, 2.13911, -54.5658, 2.13591, -173.624, 2.107, 65.8641, 0.061002, 69.9085
0, 3240.00000, 127.034, -31.4919, 127.224, -150.55, 128.97, 88.938, 0, 0, 2.1391, -54.5658, 2.13591, -173.624, 2.107, 65.8641, 0.0610042, 69.9073
0, 3300.00000, 127.034, -31.4919, 127.224, -150.55, 128.97, 88.938, 0, 0, 2.1391, -54.5658, 2.13591, -173.624, 2.107, 65.8641, 0.0610062, 69.9063
0, 3360.00000, 127.034, -31.4919, 127.224, -150.55, 128.97, 88.938, 0, 0, 2.1391, -54.5658, 2.13591, -173.624, 2.10699, 65.8641, 0.0610079, 69.9053
0, 3420.00000, 127.034, -31.492, 127.224, -150.55, 128.97, 88.938, 0, 0, 2.1391, -54.5659, 2.13591, -173.624, 2.10699, 65.8641, 0.0610095, 69.9044
0, 3480.00000, 127.034, -31.492, 127.224, -150.55, 128.97, 88.938, 0, 0, 2.1391, -54.5659, 2.13591, -173.624, 2.10699, 65.8641, 0.0610109, 69.9037
0, 3540.00000, 127.034, -31.492, 127.224, -150.55, 128.97, 88.938, 0, 0, 2.1391, -54.5659, 2.13591, -173.624, 2.10699, 65.8641, 0.0610122, 69.903
1, 0.00000, 127.034, -31.492, 127.224, -150.55, 128.97, 88.938, 0, 0, 2.1391, -54.5659, 2.13591, -173.624, 2.10699, 65.8641, 0.0610133, 69.9023
1, 60.00000, 127.034, -31.492, 127.224, -150.55, 128.97, 88.938, 0, 0, 2.1391, -54.5659, 2.13591, -173.624, 2.10699, 65.8641, 0.0610144, 69.9018
1, 120.00000, 127.034, -31.492, 127.224, -150.55, 128.97, 88.938, 0, 0, 2.1391, -54.566, 2.13591, -173.624, 2.10699, 65.8641, 0.0610153, 69.9013
1, 180.00000, 127.034, -31.4921, 127.224, -150.55, 128.97, 88.938, 0, 0, 2.1391, -54.566, 2.13591, -173.624, 2.10699, 65.8641, 0.0610161, 69.9008
1, 240.00000, 127.034, -31.4921, 127.224, -150.55, 128.97, 88.938, 0, 0, 2.1391, -54.566, 2.13591, -173.624, 2.10699, 65.8641, 0.0610169, 69.9004
1, 300.00000, 127.034, -31.4921, 127.224, -150.55, 128.97, 88.938, 0, 0, 2.1391, -54.566, 2.13591, -173.624, 2.10699, 65.8641, 0.0610176, 69.9
1, 360.00000, 127.034, -31.4921, 127.224, -150.55, 128.97, 88.938, 0, 0, 2.1391, -54.566, 2.13591, -173.624, 2.10699, 65.8641, 0.0610182, 69.8997
1, 420.00000, 127.034, -31.4921, 127.224, -150.55, 128.97, 88.938, 0, 0, 2.1391, -54.566, 2.13591, -173.624, 2.10699, 65.8641, 0.0610187, 69.8994
1, 480.00000, 127.034, -31.4921, 127.224, -150.55, 128.971, 88.938, 0, 0, 2.1391, -54.566, 2.13591, -173.624, 2.10699, 65.8641, 0.0610192, 69.8991
1, 540.00000, 127.034, -31.4921, 127.224, -150.55, 128.971, 88.938, 0, 0, 2.1391, -54.566, 2.13591, -173.624, 2.10699, 65.8641, 0.0610197, 69.8989
1, 600.00000, 127.034, -31.4921, 127.224, -150.55, 128.971, 88.938, 0, 0, 2.1391, -54.566, 2.13591, -173.624, 2.10699, 65.8641, 0.0610201, 69.8987
1, 660.00000, 127.034, -31.4921, 127.224, -150.55, 128.971, 88.938, 0, 0, 2.1391, -54.566, 2.13591, -173.624, 2.10699, 65.8641, 0.0610204, 69.8985
1, 720.00000, 127.034, -31.4921, 127.224, -150.55, 128.971, 88.938, 0, 0, 2.1391, -54.566, 2.13591, -173.624, 2.10699, 65.8641, 0.0610208, 69.8983
1, 780.00000, 127.034, -31.4921, 127.224, -150.55, 128.971, 88.938, 0, 0, 2.1391, -54.5661, 2.13591, -173.624, 2.10699, 65.8641, 0.0610211, 69.8981
1, 840.00000, 127.034, -31.4921, 127.224, -150.55, 128.971, 88.938, 0, 0, 2.1391, -54.5661, 2.13591, -173.624, 2.10699, 65.8641, 0.0610213, 69.898
1, 900.00000, 127.034, -31.4921, 127.224, -150.55, 128.971, 88.938, 0, 0, 2.1391, -54.5661, 2.13591, -173.624, 2.10699, 65.8641, 0.0610216, 69.8979
1, 960.00000, 127.034, -31.4921, 127.224, -150.55, 128.971, 88.938, 0, 0, 2.1391, -54.5661, 2.13591, -173.624, 2.10698, 65.8641, 0.0610218, 69.8977
1, 1020.00000, 127.034, -31.4921, 127.224, -150.55, 128.971, 88.938, 0, 0, 2.1391, -54.5661, 2.13591, -173.624, 2.10698, 65.8641, 0.061022, 69.8976
1, 1080.00000, 127.034, -31.4922, 127.224, -150.55, 128.971, 88.938, 0, 0, 2.1391, -54.5661, 2.13591, -173.624, 2.10698, 65.8641, 0.0610221, 69.8975
1, 1140.00000, 127.034, -31.4922, 127.224, -150.55, 128.971, 88.938, 0, 0, 2.1391, -54.5661, 2.13591, -173.624, 2.10698, 65.8641, 0.0610223, 69.8975
1, 1200.00000, 127.034, -31.4922, 127.224, -150.55, 128.971, 88.938, 0, 0, 2.1391, -54.5661, 2.13591, -173.624, 2.10698, 65.8641, 0.0610224, 69.8974
1, 1260.00000, 127.034, -31.4922, 127.224, -150.55, 128.971, 88.938, 0, 0, 2.1391, -54.5661, 2.13591, -173.624, 2.10698, 65.8641, 0.0610226, 69.8973
1, 1320.00000, 127.034, -31.4922, 127.224, -150.55, 128.971, 88.938, 0, 0, 2.1391, -54.5661, 2.13591, -173.624, 2.10698, 65.8641, 0.0610227, 69.8972
1, 1380.00000, 127.034, -31.4922, 127.224, -150.55, 128.971, 88.938, 0, 0, 2.1391, -54.5661, 2.13591, -173.624, 2.10698, 65.8641, 0.0610228, 69.8972
1, 1440.00000, 127.034, -31.4922, 127.224, -150.55, 128.971, 88.938, 0, 0, 2.1391, -54.5661, 2.13591, -173.624, 2.10698, 65.8641, 0.0610229, 69.8971
1, 1500.00000, 127.034, -31.4922, 127.224, -150.55, 128.971, 88.938, 0, 0, 2.1391, -54.5661, 2.13591, -173.624, 2.10698, 65.8641, 0.0610229, 69.8971
1, 1560.00000, 127.034, -31.4922, 127.224, -150.55, 128.971, 88.938, 0, 0, 2.1391, -54.5661, 2.13591, -173.624, 2.10698, 65.8641, 0.061023, 69.8971
1, 1620.00000, 127.034, -31.4922, 127.224, -150.55, 128.971, 88.938, 0, 0, 2.1391, -54.5661, 2.13591, -173.624, 2.10698, 65.8641, 0.0610231, 69.897
1, 1680.00000, 127.034, -31.4922, 127.224, -150.55, 128.971, 88.938, 0, 0, 2.1391, -54.5661, 2.13591, -173.624, 2.10698, 65.8641, 0.0610231, 69.897
1, 1740.00000, 127.034, -31.4922, 127.224, -150.55, 128.971, 88.938, 0, 0, 2.1391, -54.5661, 2.13591, -173.624, 2.10698, 65.8641, 0.0610232, 69.897
1, 1800.00000, 127.034, -31.4922, 127.224, -150.55, 128.971, 88.938, 0, 0, 2.1391, -54.5661, 2.13591, -173.624, 2.10698, 65.8641, 0.0610233, 69.8969
1, 1860.00000, 127.034, -31.4922, 127.224, -150.55, 128.971, 88.938, 0, 0, 2.1391, -54.5661, 2.13591, -173.624, 2.10698, 65.8641, 0.0610233, 69.8969
1, 1920.00000, 127.034, -31.4922, 127.224, -150.55, 128.971, 88.938, 0, 0, 2.1391, -54.5661, 2.13591, -173.624, 2.10698, 65.8641, 0.0610233, 69.8969
1, 1980.00000, 127.034, -31.4922, 127.224, -150.55, 128.971, 88.938, 0, 0, 2.1391, -54.5661, 2.13591, -173.624, 2.10698, 65.8641, 0.0610234, 69.8969
1, 2040.00000, 127.466, -31.4646, 127.226, -150.55, 129.152, 89.1118, 0, 0, 2.13186, -54.5385, 2.13587, -173.624, 2.10403, 66.0379, 0.0597937, 58.3941
1, 2100.00000, 127.466, -31.4646, 127.226, -150.55, 129.152, 89.1118, 0, 0, 2.13186, -54.5385, 2.13587, -173.624, 2.10403, 66.0379, 0.0597938, 58.394
1, 2160.00000, 127.466, -31.4646, 127.226, -150.55, 129.152, 89.1118, 0, 0, 2.13186, -54.5385, 2.13587, -173.624, 2.10403, 66.0379, 0.0597939, 58.394
1, 2220.00000, 127.466, -31.4646, 127.226, -150.55, 129.152, 89.1118, 0, 0, 2.13186, -54.5385, 2.13587, -173.624, 2.10403, 66.0379, 0.0597939, 58.394
1, 2280.00000, 127.466, -31.4646, 127.226, -150.55, 129.152, 89.1118, 0, 0, 2.13186, -54.5385, 2.13587, -173.624, 2.10403, 66.0379, 0.0597939, 58.394
1, 2340.00000, 127.466, -31.4646, 127.226, -150.55, 129.152, 89.1118, 0, 0, 2.13186, -54.5385, 2.13587, -173.624, 2.10402, 66.0379, 0.0597939, 58.394
1, 2400.00000, 127.466, -31.4646, 127.226, -150.55, 129.152, 89.1118, 0, 0, 2.13186, -54.5385, 2.13587, -173.624, 2.10402, 66.0379, 0.0597939, 58.394
1, 2460.00000, 127.466, -31.4646, 127.226, -150.55, 129.152, 89.1118, 0, 0, 2.13186, -54.5385, 2.13587, -173.624, 2.10402, 66.0379, 0.059794, 58.394
1, 2520.00000, 127.882, -31.4371, 127.228, -150.55, 129.325, 89.279, 0, 0, 2.12492, -54.511, 2.13584, -173.623, 2.10121, 66.2051, 0.0608877, 47.3487
1, 2580.00000, 127.882, -31.4371, 127.228, -150.55, 129.325, 89.279, 0, 0, 2.12492, -54.511, 2.13584, -173.623, 2.10121, 66.2051, 0.0608878, 47.3487
1, 2640.00000, 127.882, -31.4371, 127.228, -150.55, 129.325, 89.279, 0, 0, 2.12492, -54.511, 2.13584, -173.623, 2.10121, 66.2051, 0.0608878, 47.3487
1, 2700.00000, 127.882, -31.4371, 127.228, -150.55, 129.325, 89.279, 0, 0, 2.12492, -54.511, 2.13584, -173.623, 2.10121, 66.2051, 0.0608878, 47.3487
1, 2760.00000, 128.285, -31.4103, 127.23, -150.549, 129.492, 89.4409, 0, 0, 2.11824, -54.4842, 2.13582, -173.623, 2.09851, 66.367, 0.0639708, 37.4067
1, 2820.00000, 128.285, -31.4103, 127.23, -150.549, 129.492, 89.4409, 0, 0, 2.11824, -54.4842, 2.13582, -173.623, 2.09851, 66.367, 0.0639709, 37.4067
1, 2880.00000, 128.285, -31.4103, 127.23, -150.549, 129.492, 89.4409, 0, 0, 2.11824, -54.4842, 2.13582, -173.623, 2.09851, 66.367, 0.0639709, 37.4067
1, 2940.00000, 128.285, -31.4103, 127.23, -150.549, 129.492, 89.4409, 0, 0, 2.11824, -54.4842, 2.13582, -173.623, 2.09851, 66.367, 0.0639709, 37.4067
1, 3000.00000, 128.285, -31.4103, 127.23, -150.549, 129.492, 89.4409, 0, 0, 2.11824, -54.4842, 2.13582, -173.623, 2.09851, 66.367, 0.0639709, 37.4067
1, 3060.00000, 128.285, -31.4103, 127.23, -150.549, 129.492, 89.4409, 0, 0, 2.11824, -54.4842, 2.13582, -173.623, 2.09851, 66.367, 0.0639709, 37.4067
1, 3120.00000, 128.285, -31.4103, 127.23, -150.549, 129.492, 89.4409, 0, 0, 2.11824, -54.4842, 2.13582, -173.623, 2.09851, 66.367, 0.0639709, 37.4067
1, 3180.00000, 128.285, -31.4103, 127.23, -150.549, 129.492, 89.4409, 0, 0, 2.11824, -54.4842, 2.13582, -173.623, 2.09851, 66.367, 0.0639709, 37.4067
1, 3240.00000, 128.285, -31.4103, 127.23, -150.549, 129.492, 89.4409, 0, 0, 2.11824, -54.4842, 2.13582, -173.623, 2.09851, 66.367, 0.0639709, 37.4067
1, 3300.00000, 128.285, -31.4103, 127.23, -150.549, 129.492, 89.4409, 0, 0, 2.11824, -54.4842, 2.13582, -173.623, 2.09851, 66.367, 0.0639709, 37.4067
1, 3360.00000, 128.285, -31.4103, 127.23, -150.549, 129.492, 89.4409, 0, 0, 2.11824, -54.4842, 2.13582, -173.623, 2.09851, 66.367, 0.0639709, 37.4067
1, 3420.00000, 128.285, -31.4103, 127.23, -150.549, 129.492, 89.4409, 0, 0, 2.11824, -54.4842, 2.13582, -173.623, 2.09851, 66.367, 0.0639709, 37.4067
1, 3480.00000, 128.285, -31.4103, 127.23, -150.549, 129.492, 89.4409, 0, 0, 2.11824, -54.4842, 2.13582, -173.623, 2.09851, 66.367, 0.0639709, 37.4067
1, 3540.00000, 128.285, -31.4103, 127.23, -150.549, 129.492, 89.4409, 0, 0, 2.11824, -54.4842, 2.13582, -173.623, 2.09851, 66.367, 0.0639709, 37.4067
2, 0.00000, 128.285, -31.4103, 127.23, -150.549, 129.492, 89.4409, 0, 0, 2.11824, -54.4842, 2.13582, -173.623, 2.09851, 66.367, 0.0639709, 37.4067
2, 60.00000, 128.285, -31.4103, 127.23, -150.549, 129.492, 89.4409, 0, 0, 2.11824, -54.4842, 2.13582, -173.623, 2.09851, 66.367, 0.0639709, 37.4067
2, 120.00000, 128.282, -31.4113, 127.226, -150.55, 129.488, 89.4399, 0, 0, 2.12416, -54.4852, 2.14178, -173.624, 2.10437, 66.366, 0.0641479, 37.4057
2, 180.00000, 128.278, -31.4123, 127.223, -150.551, 129.485, 89.4388, 0, 0, 2.13015, -54.4862, 2.14782, -173.625, 2.1103, 66.3649, 0.064327, 37.4046
2, 240.00000, 128.275, -31.4133, 127.22, -150.553, 129.481, 89.4378, 0, 0, 2.13607, -54.4873, 2.15379, -173.626, 2.11616, 66.3639, 0.064504, 37.4036
2, 300.00000, 128.271, -31.4144, 127.216, -150.554, 129.478, 89.4367, 0, 0, 2.14199, -54.4883, 2.15975, -173.628, 2.12203, 66.3628, 0.064681, 37.4026
2, 360.00000, 128.268, -31.4154, 127.213, -150.555, 129.474, 89.4357, 0, 0, 2.14798, -54.4893, 2.16579, -173.629, 2.12796, 66.3618, 0.06486, 37.4016
2, 420.00000, 128.264, -31.4164, 127.209, -150.556, 129.471, 89.4346, 0, 0, 2.1539, -54.4904, 2.17176, -173.63, 2.13382, 66.3607, 0.065037, 37.4005
2, 480.00000, 128.261, -31.4175, 127.206, -150.557, 129.468, 89.4336, 0, 0, 2.15982, -54.4914, 2.17772, -173.631, 2.13968, 66.3597, 0.065214, 37.3995
2, 540.00000, 128.257, -31.4185, 127.203, -150.558, 129.464, 89.4325, 0, 0, 2.16581, -54.4924, 2.18376, -173.632, 2.14562, 66.3586, 0.0653931, 37.3985
2, 600.00000, 128.254, -31.4195, 127.199, -150.559, 129.461, 89.4315, 0, 0, 2.17173, -54.4935, 2.18973, -173.633, 2.15148, 66.3575, 0.06557, 37.3974
2, 660.00000, 128.25, -31.4206, 127.196, -150.56, 129.457, 89.4304, 0, 0, 2.17765, -54.4945, 2.1957, -173.634, 2.15734, 66.3565, 0.065747, 37.3964
2, 720.00000, 128.247, -31.4216, 127.193, -150.561, 129.454, 89.4294, 0, 0, 2.18364, -54.4955, 2.20174, -173.635, 2.16328, 66.3554, 0.0659261, 37.3954
2, 780.00000, 128.243, -31.4226, 127.189, -150.563, 129.451, 89.4283, 0, 0, 2.18956, -54.4966, 2.20771, -173.636, 2.16914, 66.3544, 0.066103, 37.3944
