hour,t(sec),V1,VAngle1,V2,VAngle2,V3,VAngle3,V4,VAngle4,I1,IAngle1,I2,IAngle2,I3,IAngle3,I4,IAngle4
0, 60.00000, 123.627, -30.5404, 126.144, -151.107, 123.414, 88.502, 0, 0, 2.37387, -53.6141, 2.32653, -174.18, 2.37796, 65.4286, 0.0839787, -169.257
0, 120.00000, 123.627, -30.5404, 126.144, -151.107, 123.414, 88.5019, 0, 0, 2.37391, -53.6144, 2.32654, -174.181, 2.37799, 65.428, 0.0840241, -169.268
0, 180.00000, 123.627, -30.5404, 126.144, -151.107, 123.414, 88.5019, 0, 0, 2.37391, -53.6144, 2.32654, -174.181, 2.37799, 65.428, 0.0840244, -169.268
0, 240.00000, 123.627, -30.5404, 126.144, -151.107, 123.414, 88.5019, 0, 0, 2.37391, -53.6144, 2.32654, -174.181, 2.37799, 65.428, 0.0840244, -169.268
0, 300.00000, 123.632, -30.5388, 126.278, -150.935, 123.822, 88.5502, 0, 0, 2.37383, -53.6128, 2.32408, -174.009, 2.37023, 65.4753, 0.0807592, -177.998
0, 360.00000, 123.632, -30.5388, 126.278, -150.935, 123.822, 88.5502, 0, 0, 2.3738, -53.6127, 2.32406, -174.008, 2.37017, 65.4763, 0.0806968, -178.014
0, 420.00000, 123.632, -30.5388, 126.278, -150.935, 123.822, 88.5502, 0, 0, 2.3738, -53.6127, 2.32406, -174.008, 2.37017, 65.4763, 0.0806963, -178.013
0, 480.00000, 123.632, -30.5388, 126.278, -150.935, 123.822, 88.5502, 0, 0, 2.3738, -53.6127, 2.32406, -174.008, 2.37017, 65.4763, 0.0806963, -178.013
0, 540.00000, 123.632, -30.5388, 126.278, -150.935, 123.822, 88.5502, 0, 0, 2.3738, -53.6127, 2.32406, -174.008, 2.37017, 65.4763, 0.0806963, -178.013
0, 600.00000, 123.632, -30.5388, 126.278, -150.935, 123.822, 88.5502, 0, 0, 2.3738, -53.6127, 2.32406, -174.008, 2.37017, 65.4763, 0.0806963, -178.013
0, 660.00000, 123.632, -30.5388, 126.278, -150.935, 123.822, 88.5502, 0, 0, 2.3738, -53.6127, 2.32406, -174.008, 2.37017, 65.4763, 0.0806963, -178.013
0, 720.00000, 123.632, -30.5388, 126.278, -150.935, 123.822, 88.5502, 0, 0, 2.3738, -53.6127, 2.32406, -174.008, 2.37017, 65.4763, 0.0806963, -178.013
0, 780.00000, 123.679, -30.5405, 126.556, -150.71, 124.395, 88.5524, 0, 0, 2.37292, -53.6145, 2.31896, -173.784, 2.35928, 65.4778, 0.082881, 169.637
0, 840.00000, 123.68, -30.5405, 126.556, -150.71, 124.395, 88.5525, 0, 0, 2.37289, -53.6144, 2.31896, -173.784, 2.35924, 65.4785, 0.082829, 169.627
0, 900.00000, 123.68, -30.5405, 126.556, -150.71, 124.395, 88.5525, 0, 0, 2.37289, -53.6144, 2.31896, -173.784, 2.35924, 65.4785, 0.0828286, 169.627
0, 960.00000, 123.264, -30.5823, 126.557, -150.711, 124.257, 88.3759, 0, 0, 2.38084, -53.6559, 2.31896, -173.785, 2.36182, 65.3025, 0.0952883, 166.043
0, 1020.00000, 123.264, -30.5824, 126.557, -150.711, 124.257, 88.3759, 0, 0, 2.38089, -53.6563, 2.31894, -173.785, 2.36187, 65.302, 0.0953581, 166.046
0, 1080.00000, 123.264, -30.5824, 126.557, -150.711, 124.257, 88.3759, 0, 0, 2.38089, -53.6563, 2.31894, -173.785, 2.36187, 65.302, 0.0953584, 166.046
0, 1140.00000, 123.264, -30.5824, 126.557, -150.711, 124.257, 88.3759, 0, 0, 2.38089, -53.6563, 2.31894, -173.785, 2.36187, 65.302, 0.0953584, 166.046
0, 1200.00000, 123.264, -30.5824, 126.557, -150.711, 124.257, 88.3759, 0, 0, 2.38089, -53.6563, 2.31894, -173.785, 2.36187, 65.302, 0.0953584, 166.046
0, 1260.00000, 123.264, -30.5824, 126.557, -150.711, 124.257, 88.3759, 0, 0, 2.38089, -53.6563, 2.31894, -173.785, 2.36187, 65.302, 0.0953584, 166.046
0, 1320.00000, 123.264, -30.5824, 126.557, -150.711, 124.257, 88.3759, 0, 0, 2.38089, -53.6563, 2.31894, -173.785, 2.36187, 65.302, 0.0953584, 166.046
0, 1380.00000, 123.264, -30.5824, 126.557, -150.711, 124.257, 88.3759, 0, 0, 2.38089, -53.6563, 2.31894, -173.785, 2.36187, 65.302, 0.0953584, 166.046
0, 1440.00000, 123.264, -30.5824, 126.557, -150.711, 124.257, 88.3759, 0, 0, 2.38089, -53.6563, 2.31894, -173.785, 2.36187, 65.302, 0.0953584, 166.046
0, 1500.00000, 123.264, -30.5824, 126.557, -150.711, 124.257, 88.3759, 0, 0, 2.38089, -53.6563, 2.31894, -173.785, 2.36187, 65.302, 0.0953584, 166.046
0, 1560.00000, 123.264, -30.5824, 126.557, -150.711, 124.257, 88.3759, 0, 0, 2.38089, -53.6563, 2.31894, -173.785, 2.36187, 65.302, 0.0953584, 166.046
0, 1620.00000, 123.264, -30.5824, 126.557, -150.711, 124.257, 88.3759, 0, 0, 2.38089, -53.6563, 2.31894, -173.785, 2.36187, 65.302, 0.0953584, 166.046
0, 1680.00000, 123.264, -30.5824, 126.557, -150.711, 124.257, 88.3759, 0, 0, 2.38089, -53.6563, 2.31894, -173.785, 2.36187, 65.302, 0.0953584, 166.046
0, 1740.00000, 123.264, -30.5824, 126.557, -150.711, 124.257, 88.3759, 0, 0, 2.38089, -53.6563, 2.31894, -173.785, 2.36187, 65.302, 0.0953584, 166.046
0, 1800.00000, 123.264, -30.5824, 126.557, -150.711, 124.257, 88.3759, 0, 0, 2.38089, -53.6563, 2.31894, -173.785, 2.36187, 65.302, 0.0953584, 166.046
0, 1860.00000, 123.264, -30.5824, 126.557, -150.711, 124.257, 88.3759, 0, 0, 2.38089, -53.6563, 2.31894, -173.785, 2.36187, 65.302, 0.0953584, 166.046
0, 1920.00000, 123.264, -30.5824, 126.557, -150.711, 124.257, 88.3759, 0, 0, 2.38089, -53.6563, 2.31894, -173.785, 2.36187, 65.302, 0.0953584, 166.046
0, 1980.00000, 123.264, -30.5824, 126.557, -150.711, 124.257, 88.3759, 0, 0, 2.38089, -53.6563, 2.31894, -173.785, 2.36187, 65.302, 0.0953584, 166.046
0, 2040.00000, 123.264, -30.5824, 126.557, -150.711, 124.257, 88.3759, 0, 0, 2.38089, -53.6563, 2.31894, -173.785, 2.36187, 65.302, 0.0953584, 166.046
0, 2100.00000, 123.264, -30.5824, 126.557, -150.711, 124.257, 88.3759, 0, 0, 2.38089, -53.6563, 2.31894, -173.785, 2.36187, 65.302, 0.0953584, 166.046
0, 2160.00000, 123.264, -30.5824, 126.557, -150.711, 124.257, 88.3759, 0, 0, 2.38089, -53.6563, 2.31894, -173.785, 2.36187, 65.302, 0.0953584, 166.046
0, 2220.00000, 124.613, -30.7136, 126.459, -150.722, 125.315, 88.7749, 0, 0, 2.35516, -53.788, 2.32072, -173.796, 2.34195, 65.7005, 0.0507522, 160.934
0, 2280.00000, 124.613, -30.7135, 126.459, -150.722, 125.315, 88.7749, 0, 0, 2.35512, -53.7875, 2.32074, -173.796, 2.34192, 65.701, 0.0506921, 160.948
0, 2340.00000, 124.613, -30.7135, 126.459, -150.722, 125.315, 88.7749, 0, 0, 2.35512, -53.7875, 2.32074, -173.796, 2.34192, 65.701, 0.0506919, 160.948
0, 2400.00000, 124.613, -30.7135, 126.459, -150.722, 125.315, 88.7749, 0, 0, 2.35512, -53.7875, 2.32074, -173.796, 2.34192, 65.701, 0.0506919, 160.948
0, 2460.00000, 124.613, -30.7135, 126.459, -150.722, 125.315, 88.7749, 0, 0, 2.35512, -53.7875, 2.32074, -173.796, 2.34192, 65.701, 0.0506919, 160.948
0, 2520.00000, 124.613, -30.7135, 126.459, -150.722, 125.315, 88.7749, 0, 0, 2.35512, -53.7875, 2.32074, -173.796, 2.34192, 65.701, 0.0506919, 160.948
0, 2580.00000, 124.613, -30.7135, 126.459, -150.722, 125.315, 88.7749, 0, 0, 2.35512, -53.7875, 2.32074, -173.796, 2.34192, 65.701, 0.0506919, 160.948
0, 2640.00000, 124.613, -30.7135, 126.459, -150.722, 125.315, 88.7749, 0, 0, 2.35512, -53.7875, 2.32074, -173.796, 2.34192, 65.701, 0.0506919, 160.948
0, 2700.00000, 124.613, -30.7135, 126.459, -150.722, 125.315, 88.7749, 0, 0, 2.35512, -53.7875, 2.32074, -173.796, 2.34192, 65.701, 0.0506919, 160.948
0, 2760.00000, 124.613, -30.7135, 126.459, -150.722, 125.315, 88.7749, 0, 0, 2.35512, -53.7875, 2.32074, -173.796, 2.34192, 65.701, 0.0506919, 160.948
0, 2820.00000, 124.613, -30.7135, 126.459, -150.722, 125.315, 88.7749, 0, 0, 2.35512, -53.7875, 2.32074, -173.796, 2.34192, 65.701, 0.0506919, 160.948
0, 2880.00000, 124.613, -30.7135, 126.459, -150.722, 125.315, 88.7749, 0, 0, 2.35512, -53.7875, 2.32074, -173.796, 2.34192, 65.701, 0.0506919, 160.948
0, 2940.00000, 124.613, -30.7135, 126.459, -150.722, 125.315, 88.7749, 0, 0, 2.35512, -53.7875, 2.32074, -173.796, 2.34192, 65.701, 0.0506919, 160.948
0, 3000.00000, 124.613, -30.7135, 126.459, -150.722, 125.315, 88.7749, 0, 0, 2.35512, -53.7875, 2.32074, -173.796, 2.34192, 65.701, 0.0506919, 160.948
0, 3060.00000, 124.613, -30.7135, 126.459, -150.722, 125.315, 88.7749, 0, 0, 2.35512, -53.7875, 2.32074, -173.796, 2.34192, 65.701, 0.0506919, 160.948
0, 3120.00000, 124.613, -30.7135, 126.459, -150.722, 125.315, 88.7749, 0, 0, 2.35512, -53.7875, 2.32074, -173.796, 2.34192, 65.701, 0.0506919, 160.948
0, 3180.00000, 124.613, -30.7135, 126.459, -150.722, 125.315, 88.7749, 0, 0, 2.35512, -53.7875, 2.32074, -173.796, 2.34192, 65.701, 0.0506919, 160.948
0, 3240.00000, 124.613, -30.7135, 126.459, -150.722, 125.315, 88.7749, 0, 0, 2.35512, -53.7875, 2.32074, -173.796, 2.34192, 65.701, 0.0506919, 160.948
0, 3300.00000, 124.613, -30.7135, 126.459, -150.722, 125.315, 88.7749, 0, 0, 2.35512, -53.7875, 2.32074, -173.796, 2.34192, 65.701, 0.0506919, 160.948
0, 3360.00000, 124.613, -30.7135, 126.459, -150.722, 125.315, 88.7749, 0, 0, 2.35512, -53.7875, 2.32074, -173.796, 2.34192, 65.701, 0.0506919, 160.948
0, 3420.00000, 124.613, -30.7135, 126.459, -150.722, 125.315, 88.7749, 0, 0, 2.35512, -53.7875, 2.32074, -173.796, 2.34192, 65.701, 0.0506919, 160.948
0, 3480.00000, 124.613, -30.7135, 126.459, -150.722, 125.315, 88.7749, 0, 0, 2.35512, -53.7875, 2.32074, -173.796, 2.34192, 65.701, 0.0506919, 160.948
0, 3540.00000, 125.03, -30.6686, 126.459, -150.721, 125.452, 88.9514, 0, 0, 2.34734, -53.7433, 2.32073, -173.795, 2.33941, 65.8765, 0.0381852, 167.039
1, 0.00000, 125.03, -30.6686, 126.459, -150.721, 125.452, 88.9515, 0, 0, 2.34727, -53.7425, 2.32075, -173.795, 2.33937, 65.8776, 0.0380918, 167.097
1, 60.00000, 125.03, -30.6686, 126.459, -150.721, 125.452, 88.9515, 0, 0, 2.34727, -53.7425, 2.32075, -173.795, 2.33937, 65.8776, 0.0380912, 167.098
1, 120.00000, 125.03, -30.6686, 126.459, -150.721, 125.452, 88.9515, 0, 0, 2.34727, -53.7425, 2.32075, -173.795, 2.33937, 65.8776, 0.0380912, 167.098
1, 180.00000, 125.03, -30.6686, 126.459, -150.721, 125.452, 88.9515, 0, 0, 2.34727, -53.7425, 2.32075, -173.795, 2.33937, 65.8776, 0.0380912, 167.098
1, 240.00000, 125.03, -30.6686, 126.459, -150.721, 125.452, 88.9515, 0, 0, 2.34727, -53.7425, 2.32075, -173.795, 2.33937, 65.8776, 0.0380912, 167.098
1, 300.00000, 125.03, -30.6686, 126.459, -150.721, 125.452, 88.9515, 0, 0, 2.34727, -53.7425, 2.32075, -173.795, 2.33937, 65.8776, 0.0380912, 167.098
1, 360.00000, 125.03, -30.6686, 126.459, -150.721, 125.452, 88.9515, 0, 0, 2.34727, -53.7425, 2.32075, -173.795, 2.33937, 65.8776, 0.0380912, 167.098
1, 420.00000, 125.03, -30.6686, 126.459, -150.721, 125.452, 88.9515, 0, 0, 2.34727, -53.7425, 2.32075, -173.795, 2.33937, 65.8776, 0.0380912, 167.098
1, 480.00000, 125.03, -30.6686, 126.459, -150.721, 125.452, 88.9515, 0, 0, 2.34727, -53.7425, 2.32075, -173.795, 2.33937, 65.8776, 0.0380912, 167.098
1, 540.00000, 125.03, -30.6686, 126.459, -150.721, 125.452, 88.9515, 0, 0, 2.34727, -53.7425, 2.32075, -173.795, 2.33937, 65.8776, 0.0380912, 167.098
1, 600.00000, 125.03, -30.6686, 126.459, -150.721, 125.452, 88.9515, 0, 0, 2.34727, -53.7425, 2.32075, -173.795, 2.33937, 65.8776, 0.0380912, 167.098
1, 660.00000, 125.031, -30.6682, 126.58, -150.556, 125.842, 88.9949, 0, 0, 2.34726, -53.7422, 2.31853, -173.63, 2.33215, 65.9205, 0.0411648, 149.675
1, 720.00000, 125.031, -30.6682, 126.58, -150.556, 125.842, 88.9949, 0, 0, 2.34725, -53.7421, 2.31852, -173.63, 2.33212, 65.921, 0.0411373, 149.646
1, 780.00000, 125.439, -30.6236, 126.578, -150.555, 125.974, 89.1678, 0, 0, 2.33966, -53.6983, 2.31854, -173.629, 2.3297, 66.0932, 0.0282261, 152.591
1, 840.00000, 125.439, -30.6236, 126.578, -150.555, 125.974, 89.1679, 0, 0, 2.3396, -53.6975, 2.31855, -173.629, 2.32967, 66.094, 0.0281501, 152.622
1, 900.00000, 125.439, -30.6236, 126.578, -150.555, 125.974, 89.1679, 0, 0, 2.3396, -53.6975, 2.31855, -173.629, 2.32967, 66.094, 0.0281498, 152.622
1, 960.00000, 125.439, -30.6236, 126.578, -150.555, 125.974, 89.1679, 0, 0, 2.3396, -53.6975, 2.31855, -173.629, 2.32967, 66.094, 0.0281498, 152.622
1, 1020.00000, 125.439, -30.6236, 126.578, -150.555, 125.974, 89.1679, 0, 0, 2.3396, -53.6975, 2.31855, -173.629, 2.32967, 66.094, 0.0281498, 152.622
1, 1080.00000, 125.439, -30.6236, 126.578, -150.555, 125.974, 89.1679, 0, 0, 2.3396, -53.6975, 2.31855, -173.629, 2.32967, 66.094, 0.0281498, 152.622
1, 1140.00000, 125.439, -30.6236, 126.578, -150.555, 125.974, 89.1679, 0, 0, 2.3396, -53.6975, 2.31855, -173.629, 2.32967, 66.094, 0.0281498, 152.622
1, 1200.00000, 125.439, -30.6236, 126.578, -150.555, 125.974, 89.1679, 0, 0, 2.3396, -53.6975, 2.31855, -173.629, 2.32967, 66.094, 0.0281498, 152.622
1, 1260.00000, 125.439, -30.6236, 126.578, -150.555, 125.974, 89.1679, 0, 0, 2.3396, -53.6975, 2.31855, -173.629, 2.32967, 66.094, 0.0281498, 152.622
1, 1320.00000, 125.439, -30.6236, 126.578, -150.555, 125.974, 89.1679, 0, 0, 2.3396, -53.6975, 2.31855, -173.629, 2.32967, 66.094, 0.0281498, 152.622
1, 1380.00000, 125.439, -30.6236, 126.578, -150.555, 125.974, 89.1679, 0, 0, 2.3396, -53.6975, 2.31855, -173.629, 2.32967, 66.094, 0.0281498, 152.622
1, 1440.00000, 125.439, -30.6236, 126.578, -150.555, 125.974, 89.1679, 0, 0, 2.3396, -53.6975, 2.31855, -173.629, 2.32967, 66.094, 0.0281498, 152.622
1, 1500.00000, 125.439, -30.6236, 126.578, -150.555, 125.974, 89.1679, 0, 0, 2.3396, -53.6975, 2.31855, -173.629, 2.32967, 66.094, 0.0281498, 152.622
1, 1560.00000, 125.439, -30.6236, 126.578, -150.555, 125.974, 89.1679, 0, 0, 2.3396, -53.6975, 2.31855, -173.629, 2.32967, 66.094, 0.0281498, 152.622
1, 1620.00000, 125.439, -30.6236, 126.578, -150.555, 125.974, 89.1679, 0, 0, 2.3396, -53.6975, 2.31855, -173.629, 2.32967, 66.094, 0.0281498, 152.622
1, 1680.00000, 125.439, -30.6236, 126.578, -150.555, 125.974, 89.1679, 0, 0, 2.3396, -53.6975, 2.31855, -173.629, 2.32967, 66.094, 0.0281498, 152.622
1, 1740.00000, 125.439, -30.6236, 126.578, -150.555, 125.974, 89.1679, 0, 0, 2.3396, -53.6975, 2.31855, -173.629, 2.32967, 66.094, 0.0281498, 152.622
1, 1800.00000, 125.439, -30.6236, 126.578, -150.555, 125.974, 89.1679, 0, 0, 2.3396, -53.6975, 2.31855, -173.629, 2.32967, 66.094, 0.0281498, 152.622
1, 1860.00000, 125.439, -30.6236, 126.578, -150.555, 125.974, 89.1679, 0, 0, 2.3396, -53.6975, 2.31855, -173.629, 2.32967, 66.094, 0.0281498, 152.622
1, 1920.00000, 125.439, -30.6236, 126.578, -150.555, 125.974, 89.1679, 0, 0, 2.3396, -53.6975, 2.31855, -173.629, 2.32967, 66.094, 0.0281498, 152.622
1, 1980.00000, 125.439, -30.6236, 126.578, -150.555, 125.974, 89.1679, 0, 0, 2.3396, -53.6975, 2.31855, -173.629, 2.32967, 66.094, 0.0281498, 152.622
1, 2040.00000, 125.439, -30.6236, 126.578, -150.555, 125.974, 89.1679, 0, 0, 2.3396, -53.6975, 2.31855, -173.629, 2.32967, 66.094, 0.0281498, 152.622
1, 2100.00000, 125.439, -30.6236, 126.578, -150.555, 125.974, 89.1679, 0, 0, 2.3396, -53.6975, 2.31855, -173.629, 2.32967, 66.094, 0.0281498, 152.622
1, 2160.00000, 125.439, -30.6236, 126.578, -150.555, 125.974, 89.1679, 0, 0, 2.3396, -53.6975, 2.31855, -173.629, 2.32967, 66.094, 0.0281498, 152.622
1, 2220.00000, 125.439, -30.6236, 126.578, -150.555, 125.974, 89.1679, 0, 0, 2.3396, -53.6975, 2.31855, -173.629, 2.32967, 66.094, 0.0281498, 152.622
1, 2280.00000, 125.439, -30.6236, 126.578, -150.555, 125.974, 89.1679, 0, 0, 2.3396, -53.6975, 2.31855, -173.629, 2.32967, 66.094, 0.0281498, 152.622
1, 2340.00000, 125.439, -30.6236, 126.578, -150.555, 125.974, 89.1679, 0, 0, 2.3396, -53.6975, 2.31855, -173.629, 2.32967, 66.094, 0.0281498, 152.622
1, 2400.00000, 125.439, -30.6236, 126.578, -150.555, 125.974, 89.1679, 0, 0, 2.3396, -53.6975, 2.31855, -173.629, 2.32967, 66.094, 0.0281498, 152.622
1, 2460.00000, 125.439, -30.6236, 126.578, -150.555, 125.974, 89.1679, 0, 0, 2.3396, -53.6975, 2.31855, -173.629, 2.32967, 66.094, 0.0281498, 152.622
1, 2520.00000, 125.439, -30.6236, 126.578, -150.555, 125.974, 89.1679, 0, 0, 2.3396, -53.6975, 2.31855, -173.629, 2.32967, 66.094, 0.0281498, 152.622
1, 2580.00000, 125.439, -30.6236, 126.578, -150.555, 125.974, 89.1679, 0, 0, 2.3396, -53.6975, 2.31855, -173.629, 2.32967, 66.094, 0.0281498, 152.622
1, 2640.00000, 125.439, -30.6236, 126.578, -150.555, 125.974, 89.1679, 0, 0, 2.3396, -53.6975, 2.31855, -173.629, 2.32967, 66.094, 0.0281498, 152.622
1, 2700.00000, 125.439, -30.6236, 126.578, -150.555, 125.974, 89.1679, 0, 0, 2.3396, -53.6975, 2.31855, -173.629, 2.32967, 66.094, 0.0281498, 152.622
1, 2760.00000, 125.439, -30.6236, 126.578, -150.555, 125.974, 89.1679, 0, 0, 2.3396, -53.6975, 2.31855, -173.629, 2.32967, 66.094, 0.0281498, 152.622
1, 2820.00000, 125.439, -30.6236, 126.578, -150.555, 125.974, 89.1679, 0, 0, 2.3396, -53.6975, 2.31855, -173.629, 2.32967, 66.094, 0.0281498, 152.622
1, 2880.00000, 125.439, -30.6236, 126.578, -150.555, 125.974, 89.1679, 0, 0, 2.3396, -53.6975, 2.31855, -173.629, 2.32967, 66.094, 0.0281498, 152.622
1, 2940.00000, 125.439, -30.6236, 126.578, -150.555, 125.974, 89.1679, 0, 0, 2.3396, -53.6975, 2.31855, -173.629, 2.32967, 66.094, 0.0281498, 152.622
1, 3000.00000, 125.439, -30.6236, 126.578, -150.555, 125.974, 89.1679, 0, 0, 2.3396, -53.6975, 2.31855, -173.629, 2.32967, 66.094, 0.0281498, 152.622
1, 3060.00000, 125.439, -30.6236, 126.578, -150.555, 125.974, 89.1679, 0, 0, 2.3396, -53.6975, 2.31855, -173.629, 2.32967, 66.094, 0.0281498, 152.622
1, 3120.00000, 125.439, -30.6236, 126.578, -150.555, 125.974, 89.1679, 0, 0, 2.3396, -53.6975, 2.31855, -173.629, 2.32967, 66.094, 0.0281498, 152.622
1, 3180.00000, 125.439, -30.6236, 126.578, -150.555, 125.974, 89.1679, 0, 0, 2.3396, -53.6975, 2.31855, -173.629, 2.32967, 66.094, 0.0281498, 152.622
1, 3240.00000, 125.439, -30.6236, 126.578, -150.555, 125.974, 89.1679, 0, 0, 2.3396, -53.6975, 2.31855, -173.629, 2.32967, 66.094, 0.0281498, 152.622
1, 3300.00000, 125.439, -30.6236, 126.578, -150.555, 125.974, 89.1679, 0, 0, 2.3396, -53.6975, 2.31855, -173.629, 2.32967, 66.094, 0.0281498, 152.622
1, 3360.00000, 125.439, -30.6236, 126.578, -150.555, 125.974, 89.1679, 0, 0, 2.3396, -53.6975, 2.31855, -173.629, 2.32967, 66.094, 0.0281498, 152.622
1, 3420.00000, 125.439, -30.6236, 126.578, -150.555, 125.974, 89.1679, 0, 0, 2.3396, -53.6975, 2.31855, -173.629, 2.32967, 66.094, 0.0281498, 152.622
1, 3480.00000, 126.263, -30.6147, 126.519, -150.561, 126.457, 89.4459, 0, 0, 2.32437, -53.6892, 2.31962, -173.635, 2.32079, 66.3716, 0.00415774, 107.798
1, 3540.00000, 126.263, -30.6147, 126.519, -150.561, 126.457, 89.4459, 0, 0, 2.32433, -53.6886, 2.31963, -173.635, 2.32078, 66.372, 0.00410889, 107.55
2, 0.00000, 126.263, -30.6147, 126.519, -150.561, 126.457, 89.4459, 0, 0, 2.32433, -53.6886, 2.31963, -173.635, 2.32078, 66.372, 0.00410874, 107.55
2, 60.00000, 126.263, -30.6147, 126.519, -150.561, 126.457, 89.4459, 0, 0, 2.32433, -53.6886, 2.31963, -173.635, 2.32078, 66.372, 0.00410874, 107.55
2, 120.00000, 126.258, -30.6159, 126.515, -150.562, 126.452, 89.4448, 0, 0, 2.33085, -53.6897, 2.32613, -173.636, 2.32729, 66.371, 0.00412553, 107.533
2, 180.00000, 126.253, -30.6171, 126.51, -150.563, 126.447, 89.4437, 0, 0, 2.33746, -53.6909, 2.33271, -173.637, 2.33387, 66.3699, 0.0041449, 107.556
2, 240.00000, 126.248, -30.6183, 126.505, -150.564, 126.442, 89.4426, 0, 0, 2.34398, -53.6921, 2.33922, -173.638, 2.34038, 66.3688, 0.00416415, 107.58
2, 300.00000, 126.243, -30.6195, 126.501, -150.565, 126.438, 89.4415, 0, 0, 2.35051, -53.6933, 2.34572, -173.639, 2.34689, 66.3677, 0.00418342, 107.603
2, 360.00000, 126.238, -30.6207, 126.496, -150.566, 126.433, 89.4404, 0, 0, 2.35711, -53.6945, 2.3523, -173.64, 2.35348, 66.3665, 0.00420295, 107.625
2, 420.00000, 126.233, -30.6219, 126.492, -150.568, 126.428, 89.4392, 0, 0, 2.36364, -53.6957, 2.35881, -173.641, 2.35999, 66.3654, 0.00422234, 107.649
2, 480.00000, 126.228, -30.6231, 126.487, -150.569, 126.423, 89.4381, 0, 0, 2.37017, -53.6969, 2.36531, -173.643, 2.3665, 66.3643, 0.00424176, 107.672
2, 540.00000, 126.222, -30.6243, 126.482, -150.57, 126.418, 89.437, 0, 0, 2.37678, -53.6981, 2.3719, -173.644, 2.37309, 66.3632, 0.00426142, 107.694
2, 600.00000, 126.217, -30.6255, 126.478, -150.571, 126.414, 89.4359, 0, 0, 2.38331, -53.6993, 2.3784, -173.645, 2.37961, 66.3621, 0.00428096, 107.717
2, 660.00000, 126.212, -30.6266, 126.473, -150.572, 126.409, 89.4348, 0, 0, 2.38984, -53.7005, 2.38491, -173.646, 2.38612, 66.361, 0.00430051, 107.74
2, 720.00000, 126.207, -30.6279, 126.468, -150.573, 126.404, 89.4337, 0, 0, 2.39645, -53.7017, 2.3915, -173.647, 2.39271, 66.3598, 0.00432032, 107.762
