hour,t(sec),V1,VAngle1,V2,VAngle2,V3,VAngle3,V4,VAngle4,I1,IAngle1,I2,IAngle2,I3,IAngle3,I4,IAngle4
0, 60.00000, 127.923, -30.5608, 127.006, -151.233, 126.102, 89.5407, 0, 0, 2.3163, -53.6346, 2.333, -174.307, 2.34972, 66.4668, 0.0585052, -80.2743
0, 120.00000, 127.945, -30.561, 127.016, -151.242, 126.102, 89.5406, 0, 0, 2.3159, -53.6348, 2.33281, -174.316, 2.34973, 66.4667, 0.0591931, -80.2981
0, 180.00000, 127.965, -30.5612, 127.025, -151.249, 126.102, 89.5406, 0, 0, 2.31553, -53.6351, 2.33264, -174.323, 2.34973, 66.4667, 0.0598124, -80.3188
0, 240.00000, 127.984, -30.5614, 127.034, -151.256, 126.102, 89.5406, 0, 0, 2.3152, -53.6353, 2.33248, -174.33, 2.34973, 66.4667, 0.0603697, -80.3368
0, 300.00000, 128, -30.5616, 127.041, -151.262, 126.101, 89.5405, 0, 0, 2.3149, -53.6355, 2.33235, -174.336, 2.34973, 66.4666, 0.0608714, -80.3525
0, 360.00000, 128.015, -30.5618, 127.048, -151.268, 126.101, 89.5405, 0, 0, 2.31463, -53.6356, 2.33222, -174.342, 2.34973, 66.4666, 0.061323, -80.3663
0, 420.00000, 128.028, -30.5619, 127.054, -151.273, 126.101, 89.5405, 0, 0, 2.31439, -53.6358, 2.33211, -174.347, 2.34973, 66.4666, 0.0617294, -80.3784
0, 480.00000, 128.04, -30.5621, 127.06, -151.277, 126.101, 89.5405, 0, 0, 2.31417, -53.6359, 2.33201, -174.351, 2.34973, 66.4666, 0.0620952, -80.3891
0, 540.00000, 128.051, -30.5622, 127.065, -151.281, 126.101, 89.5405, 0, 0, 2.31398, -53.6361, 2.33192, -174.355, 2.34973, 66.4666, 0.0624245, -80.3985
0, 600.00000, 128.06, -30.5623, 127.069, -151.285, 126.101, 89.5404, 0, 0, 2.3138, -53.6362, 2.33183, -174.359, 2.34973, 66.4665, 0.0627209, -80.4068
0, 660.00000, 128.069, -30.5624, 127.073, -151.288, 126.101, 89.5404, 0, 0, 2.31364, -53.6363, 2.33176, -174.362, 2.34973, 66.4665, 0.0629876, -80.4142
0, 720.00000, 128.077, -30.5625, 127.077, -151.291, 126.101, 89.5404, 0, 0, 2.3135, -53.6364, 2.33169, -174.365, 2.34973, 66.4665, 0.0632277, -80.4207
0, 780.00000, 128.084, -30.5626, 127.08, -151.294, 126.101, 89.5404, 0, 0, 2.31337, -53.6365, 2.33163, -174.367, 2.34973, 66.4665, 0.0634438, -80.4265
0, 840.00000, 128.09, -30.5627, 127.083, -151.296, 126.101, 89.5404, 0, 0, 2.31326, -53.6366, 2.33158, -174.37, 2.34973, 66.4665, 0.0636382, -80.4317
0, 900.00000, 128.096, -30.5628, 127.086, -151.298, 126.101, 89.5404, 0, 0, 2.31315, -53.6367, 2.33153, -174.372, 2.34973, 66.4665, 0.0638133, -80.4363
0, 960.00000, 128.101, -30.5628, 127.088, -151.3, 126.101, 89.5404, 0, 0, 2.31306, -53.6367, 2.33149, -174.374, 2.34973, 66.4665, 0.0639708, -80.4404
0, 1020.00000, 128.106, -30.5629, 127.09, -151.302, 126.101, 89.5404, 0, 0, 2.31297, -53.6368, 2.33145, -174.376, 2.34973, 66.4665, 0.0641126, -80.444
0, 1080.00000, 128.11, -30.563, 127.092, -151.303, 126.101, 89.5404, 0, 0, 2.3129, -53.6369, 2.33141, -174.377, 2.34973, 66.4664, 0.0642402, -80.4473
0, 1140.00000, 128.114, -30.563, 127.094, -151.305, 126.101, 89.5404, 0, 0, 2.31283, -53.6369, 2.33138, -174.379, 2.34973, 66.4664, 0.0643551, -80.4502
0, 1200.00000, 128.117, -30.5631, 127.095, -151.306, 126.101, 89.5404, 0, 0, 2.31277, -53.637, 2.33135, -174.38, 2.34973, 66.4664, 0.0644585, -80.4528
0, 1260.00000, 128.12, -30.5631, 127.097, -151.307, 126.101, 89.5403, 0, 0, 2.31271, -53.637, 2.33133, -174.381, 2.34973, 66.4664, 0.0645515, -80.4552
0, 1320.00000, 128.123, -30.5631, 127.098, -151.308, 126.101, 89.5403, 0, 0, 2.31266, -53.637, 2.33131, -174.382, 2.34973, 66.4664, 0.0646352, -80.4573
0, 1380.00000, 128.125, -30.5632, 127.099, -151.309, 126.101, 89.5403, 0, 0, 2.31262, -53.6371, 2.33128, -174.383, 2.34973, 66.4664, 0.0647106, -80.4591
0, 1440.00000, 128.127, -30.5632, 127.1, -151.31, 126.101, 89.5403, 0, 0, 2.31258, -53.6371, 2.33127, -174.384, 2.34973, 66.4664, 0.0647784, -80.4608
0, 1500.00000, 128.129, -30.5632, 127.101, -151.311, 126.101, 89.5403, 0, 0, 2.31254, -53.6371, 2.33125, -174.385, 2.34973, 66.4664, 0.0648395, -80.4623
0, 1560.00000, 128.131, -30.5632, 127.102, -151.311, 126.101, 89.5403, 0, 0, 2.31251, -53.6371, 2.33123, -174.385, 2.34973, 66.4664, 0.0648944, -80.4637
0, 1620.00000, 128.133, -30.5633, 127.103, -151.312, 126.101, 89.5403, 0, 0, 2.31248, -53.6372, 2.33122, -174.386, 2.34973, 66.4664, 0.0649439, -80.4649
0, 1680.00000, 128.134, -30.5633, 127.103, -151.313, 126.101, 89.5403, 0, 0, 2.31246, -53.6372, 2.33121, -174.386, 2.34974, 66.4664, 0.0649884, -80.466
0, 1740.00000, 128.135, -30.5633, 127.104, -151.313, 126.101, 89.5403, 0, 0, 2.31243, -53.6372, 2.3312, -174.387, 2.34974, 66.4664, 0.0650284, -80.4669
0, 1800.00000, 128.137, -30.5633, 127.104, -151.313, 126.101, 89.5403, 0, 0, 2.31241, -53.6372, 2.33119, -174.387, 2.34974, 66.4664, 0.0650645, -80.4678
0, 1860.00000, 128.138, -30.5633, 127.105, -151.314, 126.101, 89.5403, 0, 0, 2.31239, -53.6372, 2.33118, -174.388, 2.34974, 66.4664, 0.0650969, -80.4686
0, 1920.00000, 128.139, -30.5633, 127.105, -151.314, 126.101, 89.5403, 0, 0, 2.31237, -53.6373, 2.33117, -174.388, 2.34974, 66.4664, 0.0651261, -80.4693
0, 1980.00000, 128.14, -30.5633, 127.106, -151.314, 126.101, 89.5403, 0, 0, 2.31236, -53.6373, 2.33116, -174.388, 2.34974, 66.4664, 0.0651524, -80.4699
0, 2040.00000, 128.14, -30.5634, 127.106, -151.315, 126.101, 89.5403, 0, 0, 2.31234, -53.6373, 2.33116, -174.389, 2.34974, 66.4664, 0.0651761, -80.4705
0, 2100.00000, 128.141, -30.5634, 127.106, -151.315, 126.101, 89.5403, 0, 0, 2.31233, -53.6373, 2.33115, -174.389, 2.34974, 66.4664, 0.0651973, -80.471
0, 2160.00000, 128.142, -30.5634, 127.107, -151.315, 126.101, 89.5403, 0, 0, 2.31232, -53.6373, 2.33115, -174.389, 2.34974, 66.4664, 0.0652165, -80.4715
0, 2220.00000, 128.142, -30.5634, 127.107, -151.316, 126.101, 89.5403, 0, 0, 2.31231, -53.6373, 2.33114, -174.389, 2.34974, 66.4664, 0.0652337, -80.4719
0, 2280.00000, 128.143, -30.5634, 127.107, -151.316, 126.101, 89.5403, 0, 0, 2.3123, -53.6373, 2.33114, -174.39, 2.34974, 66.4664, 0.0652493, -80.4723
0, 2340.00000, 128.143, -30.5634, 127.107, -151.316, 126.101, 89.5403, 0, 0, 2.31229, -53.6373, 2.33113, -174.39, 2.34974, 66.4664, 0.0652632, -80.4726
0, 2400.00000, 128.144, -30.5634, 127.108, -151.316, 126.101, 89.5403, 0, 0, 2.31228, -53.6373, 2.33113, -174.39, 2.34974, 66.4664, 0.0652758, -80.4729
0, 2460.00000, 128.144, -30.5634, 127.108, -151.316, 126.101, 89.5403, 0, 0, 2.31228, -53.6373, 2.33113, -174.39, 2.34974, 66.4664, 0.0652871, -80.4732
0, 2520.00000, 128.144, -30.5634, 127.108, -151.316, 126.101, 89.5403, 0, 0, 2.31227, -53.6373, 2.33112, -174.39, 2.34974, 66.4664, 0.0652973, -80.4734
0, 2580.00000, 128.145, -30.5634, 127.108, -151.316, 126.101, 89.5403, 0, 0, 2.31227, -53.6373, 2.33112, -174.39, 2.34974, 66.4664, 0.0653065, -80.4736
0, 2640.00000, 128.145, -30.5634, 127.108, -151.316, 126.101, 89.5403, 0, 0, 2.31226, -53.6373, 2.33112, -174.39, 2.34974, 66.4664, 0.0653147, -80.4738
0, 2700.00000, 128.145, -30.5634, 127.108, -151.317, 126.101, 89.5403, 0, 0, 2.31226, -53.6373, 2.33112, -174.391, 2.34974, 66.4664, 0.0653221, -80.474
0, 2760.00000, 128.145, -30.5634, 127.108, -151.317, 126.101, 89.5403, 0, 0, 2.31225, -53.6373, 2.33111, -174.391, 2.34974, 66.4664, 0.0653288, -80.4742
0, 2820.00000, 128.146, -30.5634, 127.109, -151.317, 126.101, 89.5403, 0, 0, 2.31225, -53.6373, 2.33111, -174.391, 2.34974, 66.4664, 0.0653348, -80.4743
0, 2880.00000, 128.146, -30.5634, 127.109, -151.317, 126.101, 89.5403, 0, 0, 2.31225, -53.6373, 2.33111, -174.391, 2.34974, 66.4664, 0.0653402, -80.4744
0, 2940.00000, 128.146, -30.5634, 127.109, -151.317, 126.101, 89.5403, 0, 0, 2.31224, -53.6374, 2.33111, -174.391, 2.34974, 66.4664, 0.0653451, -80.4746
0, 3000.00000, 128.146, -30.5634, 127.109, -151.317, 126.101, 89.5403, 0, 0, 2.31224, -53.6374, 2.33111, -174.391, 2.34974, 66.4664, 0.0653495, -80.4747
0, 3060.00000, 128.146, -30.5634, 127.109, -151.317, 126.101, 89.5403, 0, 0, 2.31224, -53.6374, 2.33111, -174.391, 2.34974, 66.4664, 0.0653534, -80.4748
0, 3120.00000, 128.146, -30.5634, 127.109, -151.317, 126.101, 89.5403, 0, 0, 2.31224, -53.6374, 2.33111, -174.391, 2.34974, 66.4664, 0.065357, -80.4748
0, 3180.00000, 128.146, -30.5634, 127.109, -151.317, 126.101, 89.5403, 0, 0, 2.31223, -53.6374, 2.33111, -174.391, 2.34974, 66.4664, 0.0653602, -80.4749
0, 3240.00000, 128.146, -30.5634, 127.109, -151.317, 126.101, 89.5403, 0, 0, 2.31223, -53.6374, 2.3311, -174.391, 2.34974, 66.4664, 0.0653631, -80.475
0, 3300.00000, 128.146, -30.5634, 127.109, -151.317, 126.101, 89.5403, 0, 0, 2.31223, -53.6374, 2.3311, -174.391, 2.34974, 66.4664, 0.0653656, -80.4751
0, 3360.00000, 128.147, -30.5634, 127.109, -151.317, 126.101, 89.5403, 0, 0, 2.31223, -53.6374, 2.3311, -174.391, 2.34974, 66.4664, 0.065368, -80.4751
0, 3420.00000, 128.147, -30.5634, 127.109, -151.317, 126.101, 89.5403, 0, 0, 2.31223, -53.6374, 2.3311, -174.391, 2.34974, 66.4664, 0.0653701, -80.4752
0, 3480.00000, 128.147, -30.5634, 127.109, -151.317, 126.101, 89.5403, 0, 0, 2.31223, -53.6374, 2.3311, -174.391, 2.34974, 66.4664, 0.065372, -80.4752
0, 3540.00000, 128.147, -30.5634, 127.109, -151.317, 126.101, 89.5403, 0, 0, 2.31223, -53.6374, 2.3311, -174.391, 2.34974, 66.4664, 0.0653737, -80.4752
1, 0.00000, 128.147, -30.5634, 127.109, -151.317, 126.101, 89.5403, 0, 0, 2.31223, -53.6374, 2.3311, -174.391, 2.34974, 66.4664, 0.0653752, -80.4753
1, 60.00000, 128.147, -30.5634, 127.109, -151.317, 126.101, 89.5403, 0, 0, 2.31222, -53.6374, 2.3311, -174.391, 2.34974, 66.4664, 0.0653766, -80.4753
1, 120.00000, 128.147, -30.5634, 127.109, -151.317, 126.101, 89.5403, 0, 0, 2.31222, -53.6374, 2.3311, -174.391, 2.34974, 66.4664, 0.0653778, -80.4753
1, 180.00000, 128.147, -30.5634, 127.109, -151.317, 126.101, 89.5403, 0, 0, 2.31222, -53.6374, 2.3311, -174.391, 2.34974, 66.4664, 0.0653789, -80.4754
1, 240.00000, 128.147, -30.5634, 127.109, -151.317, 126.101, 89.5403, 0, 0, 2.31222, -53.6374, 2.3311, -174.391, 2.34974, 66.4664, 0.0653799, -80.4754
1, 300.00000, 128.147, -30.5634, 127.109, -151.317, 126.101, 89.5403, 0, 0, 2.31222, -53.6374, 2.3311, -174.391, 2.34974, 66.4664, 0.0653808, -80.4754
1, 360.00000, 128.147, -30.5634, 127.109, -151.317, 126.101, 89.5403, 0, 0, 2.31222, -53.6374, 2.3311, -174.391, 2.34974, 66.4664, 0.0653816, -80.4754
1, 420.00000, 128.147, -30.5634, 127.109, -151.317, 126.101, 89.5403, 0, 0, 2.31222, -53.6374, 2.3311, -174.391, 2.34974, 66.4664, 0.0653824, -80.4754
1, 480.00000, 128.147, -30.5634, 127.109, -151.317, 126.101, 89.5403, 0, 0, 2.31222, -53.6374, 2.3311, -174.391, 2.34974, 66.4664, 0.065383, -80.4755
1, 540.00000, 128.147, -30.5634, 127.109, -151.317, 126.101, 89.5403, 0, 0, 2.31222, -53.6374, 2.3311, -174.391, 2.34974, 66.4664, 0.0653836, -80.4755
1, 600.00000, 128.147, -30.5634, 127.109, -151.317, 126.101, 89.5403, 0, 0, 2.31222, -53.6374, 2.3311, -174.391, 2.34974, 66.4664, 0.0653841, -80.4755
1, 660.00000, 128.147, -30.5634, 127.109, -151.317, 126.101, 89.5403, 0, 0, 2.31222, -53.6374, 2.3311, -174.391, 2.34974, 66.4664, 0.0653846, -80.4755
1, 720.00000, 128.147, -30.5635, 127.109, -151.317, 126.101, 89.5403, 0, 0, 2.31222, -53.6374, 2.3311, -174.391, 2.34974, 66.4664, 0.0653851, -80.4755
1, 780.00000, 128.147, -30.5635, 127.109, -151.317, 126.101, 89.5403, 0, 0, 2.31222, -53.6374, 2.3311, -174.391, 2.34974, 66.4664, 0.0653854, -80.4755
1, 840.00000, 128.147, -30.5635, 127.109, -151.317, 126.101, 89.5403, 0, 0, 2.31222, -53.6374, 2.3311, -174.391, 2.34974, 66.4664, 0.0653858, -80.4755
1, 900.00000, 128.147, -30.5635, 127.109, -151.317, 126.101, 89.5403, 0, 0, 2.31222, -53.6374, 2.3311, -174.391, 2.34974, 66.4664, 0.0653861, -80.4755
1, 960.00000, 128.147, -30.5635, 127.109, -151.317, 126.101, 89.5403, 0, 0, 2.31222, -53.6374, 2.3311, -174.391, 2.34974, 66.4664, 0.0653864, -80.4755
1, 1020.00000, 128.147, -30.5635, 127.109, -151.317, 126.101, 89.5403, 0, 0, 2.31222, -53.6374, 2.3311, -174.391, 2.34974, 66.4664, 0.0653866, -80.4756
1, 1080.00000, 128.147, -30.5635, 127.109, -151.317, 126.101, 89.5403, 0, 0, 2.31222, -53.6374, 2.3311, -174.391, 2.34974, 66.4664, 0.0653869, -80.4756
1, 1140.00000, 128.147, -30.5635, 127.109, -151.317, 126.101, 89.5403, 0, 0, 2.31222, -53.6374, 2.3311, -174.391, 2.34974, 66.4664, 0.0653871, -80.4756
1, 1200.00000, 128.147, -30.5635, 127.109, -151.317, 126.101, 89.5403, 0, 0, 2.31222, -53.6374, 2.3311, -174.391, 2.34974, 66.4664, 0.0653873, -80.4756
1, 1260.00000, 128.147, -30.5635, 127.109, -151.317, 126.101, 89.5403, 0, 0, 2.31222, -53.6374, 2.3311, -174.391, 2.34974, 66.4664, 0.0653874, -80.4756
1, 1320.00000, 128.147, -30.5635, 127.109, -151.317, 126.101, 89.5403, 0, 0, 2.31222, -53.6374, 2.3311, -174.391, 2.34974, 66.4664, 0.0653876, -80.4756
1, 1380.00000, 128.147, -30.5635, 127.109, -151.317, 126.101, 89.5403, 0, 0, 2.31222, -53.6374, 2.3311, -174.391, 2.34974, 66.4664, 0.0653877, -80.4756
1, 1440.00000, 128.147, -30.5635, 127.109, -151.317, 126.101, 89.5403, 0, 0, 2.31222, -53.6374, 2.3311, -174.391, 2.34974, 66.4664, 0.0653878, -80.4756
1, 1500.00000, 128.147, -30.5635, 127.109, -151.317, 126.101, 89.5403, 0, 0, 2.31222, -53.6374, 2.3311, -174.391, 2.34974, 66.4664, 0.0653879, -80.4756
1, 1560.00000, 128.147, -30.5635, 127.109, -151.317, 126.101, 89.5403, 0, 0, 2.31222, -53.6374, 2.3311, -174.391, 2.34974, 66.4664, 0.065388, -80.4756
1, 1620.00000, 128.147, -30.5635, 127.109, -151.317, 126.101, 89.5403, 0, 0, 2.31222, -53.6374, 2.3311, -174.391, 2.34974, 66.4664, 0.0653881, -80.4756
1, 1680.00000, 128.147, -30.5635, 127.109, -151.317, 126.101, 89.5403, 0, 0, 2.31222, -53.6374, 2.3311, -174.391, 2.34974, 66.4664, 0.0653882, -80.4756
1, 1740.00000, 128.147, -30.5635, 127.109, -151.317, 126.101, 89.5403, 0, 0, 2.31222, -53.6374, 2.3311, -174.391, 2.34974, 66.4664, 0.0653883, -80.4756
1, 1800.00000, 128.147, -30.5635, 127.109, -151.317, 126.101, 89.5403, 0, 0, 2.31222, -53.6374, 2.3311, -174.391, 2.34974, 66.4664, 0.0653884, -80.4756
1, 1860.00000, 128.147, -30.5635, 127.109, -151.317, 126.101, 89.5403, 0, 0, 2.31222, -53.6374, 2.3311, -174.391, 2.34974, 66.4664, 0.0653884, -80.4756
1, 1920.00000, 128.147, -30.5635, 127.109, -151.317, 126.101, 89.5403, 0, 0, 2.31222, -53.6374, 2.3311, -174.391, 2.34974, 66.4664, 0.0653885, -80.4756
1, 1980.00000, 128.147, -30.5635, 127.109, -151.317, 126.101, 89.5403, 0, 0, 2.31222, -53.6374, 2.3311, -174.391, 2.34974, 66.4664, 0.0653885, -80.4756
1, 2040.00000, 128.147, -30.5635, 127.109, -151.317, 126.101, 89.5403, 0, 0, 2.31222, -53.6374, 2.3311, -174.391, 2.34974, 66.4664, 0.0653886, -80.4756
1, 2100.00000, 128.147, -30.5635, 127.109, -151.317, 126.101, 89.5403, 0, 0, 2.31222, -53.6374, 2.3311, -174.391, 2.34974, 66.4664, 0.0653886, -80.4756
1, 2160.00000, 128.147, -30.5635, 127.109, -151.317, 126.101, 89.5403, 0, 0, 2.31222, -53.6374, 2.3311, -174.391, 2.34974, 66.4664, 0.0653886, -80.4756
1, 2220.00000, 128.147, -30.5635, 127.109, -151.317, 126.101, 89.5403, 0, 0, 2.31222, -53.6374, 2.3311, -174.391, 2.34974, 66.4664, 0.0653887, -80.4756
1, 2280.00000, 128.147, -30.5635, 127.109, -151.317, 126.101, 89.5403, 0, 0, 2.31222, -53.6374, 2.3311, -174.391, 2.34974, 66.4664, 0.0653887, -80.4756
1, 2340.00000, 128.147, -30.5635, 127.109, -151.317, 126.101, 89.5403, 0, 0, 2.31222, -53.6374, 2.3311, -174.391, 2.34974, 66.4664, 0.0653887, -80.4756
1, 2400.00000, 128.147, -30.5635, 127.109, -151.317, 126.101, 89.5403, 0, 0, 2.31222, -53.6374, 2.3311, -174.391, 2.34974, 66.4664, 0.0653887, -80.4756
1, 2460.00000, 128.147, -30.5635, 127.109, -151.317, 126.101, 89.5403, 0, 0, 2.31222, -53.6374, 2.3311, -174.391, 2.34974, 66.4664, 0.0653888, -80.4756
1, 2520.00000, 128.147, -30.5635, 127.109, -151.317, 126.101, 89.5403, 0, 0, 2.31222, -53.6374, 2.3311, -174.391, 2.34974, 66.4664, 0.0653888, -80.4756
1, 2580.00000, 128.147, -30.5635, 127.109, -151.317, 126.101, 89.5403, 0, 0, 2.31222, -53.6374, 2.3311, -174.391, 2.34974, 66.4664, 0.0653888, -80.4756
1, 2640.00000, 128.147, -30.5635, 127.109, -151.317, 126.101, 89.5403, 0, 0, 2.31222, -53.6374, 2.3311, -174.391, 2.34974, 66.4664, 0.0653888, -80.4756
1, 2700.00000, 128.147, -30.5635, 127.109, -151.317, 126.101, 89.5403, 0, 0, 2.31222, -53.6374, 2.3311, -174.391, 2.34974, 66.4664, 0.0653888, -80.4756
1, 2760.00000, 128.147, -30.5635, 127.109, -151.317, 126.101, 89.5403, 0, 0, 2.31222, -53.6374, 2.3311, -174.391, 2.34974, 66.4664, 0.0653888, -80.4756
1, 2820.00000, 128.147, -30.5635, 127.109, -151.317, 126.101, 89.5403, 0, 0, 2.31222, -53.6374, 2.3311, -174.391, 2.34974, 66.4664, 0.0653888, -80.4756
1, 2880.00000, 128.147, -30.5635, 127.109, -151.317, 126.101, 89.5403, 0, 0, 2.31222, -53.6374, 2.3311, -174.391, 2.34974, 66.4664, 0.0653889, -80.4756
1, 2940.00000, 128.147, -30.5635, 127.109, -151.317, 126.101, 89.5403, 0, 0, 2.31222, -53.6374, 2.3311, -174.391, 2.34974, 66.4664, 0.0653889, -80.4756
1, 3000.00000, 128.147, -30.5635, 127.109, -151.317, 126.101, 89.5403, 0, 0, 2.31222, -53.6374, 2.3311, -174.391, 2.34974, 66.4664, 0.0653889, -80.4756
1, 3060.00000, 128.147, -30.5635, 127.109, -151.317, 126.101, 89.5403, 0, 0, 2.31222, -53.6374, 2.3311, -174.391, 2.34974, 66.4664, 0.0653889, -80.4756
1, 3120.00000, 128.147, -30.5635, 127.109, -151.317, 126.101, 89.5403, 0, 0, 2.31222, -53.6374, 2.3311, -174.391, 2.34974, 66.4664, 0.0653889, -80.4756
1, 3180.00000, 128.147, -30.5635, 127.109, -151.317, 126.101, 89.5403, 0, 0, 2.31222, -53.6374, 2.3311, -174.391, 2.34974, 66.4664, 0.0653889, -80.4756
1, 3240.00000, 128.147, -30.5635, 127.109, -151.317, 126.101, 89.5403, 0, 0, 2.31222, -53.6374, 2.3311, -174.391, 2.34974, 66.4664, 0.0653889, -80.4756
1, 3300.00000, 128.147, -30.5635, 127.109, -151.317, 126.101, 89.5403, 0, 0, 2.31222, -53.6374, 2.3311, -174.391, 2.34974, 66.4664, 0.0653889, -80.4756
1, 3360.00000, 128.147, -30.5635, 127.109, -151.317, 126.101, 89.5403, 0, 0, 2.31222, -53.6374, 2.3311, -174.391, 2.34974, 66.4664, 0.0653889, -80.4756
1, 3420.00000, 128.147, -30.5635, 127.109, -151.317, 126.101, 89.5403, 0, 0, 2.31222, -53.6374, 2.3311, -174.391, 2.34974, 66.4664, 0.0653889, -80.4756
1, 3480.00000, 128.147, -30.5635, 127.109, -151.317, 126.101, 89.5403, 0, 0, 2.31222, -53.6374, 2.3311, -174.391, 2.34974, 66.4664, 0.0653889, -80.4756
1, 3540.00000, 128.147, -30.5635, 127.109, -151.317, 126.101, 89.5403, 0, 0, 2.31222, -53.6374, 2.3311, -174.391, 2.34974, 66.4664, 0.0653889, -80.4756
2, 0.00000, 128.147, -30.5635, 127.109, -151.317, 126.101, 89.5403, 0, 0, 2.31222, -53.6374, 2.3311, -174.391, 2.34974, 66.4664, 0.0653889, -80.4756
2, 60.00000, 128.147, -30.5635, 127.109, -151.317, 126.101, 89.5403, 0, 0, 2.31222, -53.6374, 2.3311, -174.391, 2.34974, 66.4664, 0.0653889, -80.4756
2, 120.00000, 128.141, -30.5645, 127.104, -151.318, 126.095, 89.5393, 0, 0, 2.31873, -53.6384, 2.33765, -174.392, 2.35635, 66.4654, 0.0655665, -80.4789
2, 180.00000, 128.135, -30.5655, 127.098, -151.319, 126.089, 89.5383, 0, 0, 2.32531, -53.6395, 2.34429, -174.393, 2.36304, 66.4644, 0.0657462, -80.4822
2, 240.00000, 128.129, -30.5666, 127.092, -151.32, 126.084, 89.5373, 0, 0, 2.33182, -53.6405, 2.35084, -174.394, 2.36965, 66.4634, 0.0659238, -80.4855
2, 300.00000, 128.123, -30.5676, 127.086, -151.321, 126.078, 89.5363, 0, 0, 2.33833, -53.6415, 2.3574, -174.395, 2.37626, 66.4624, 0.0661013, -80.4887
2, 360.00000, 128.117, -30.5687, 127.081, -151.322, 126.072, 89.5353, 0, 0, 2.34492, -53.6426, 2.36404, -174.396, 2.38295, 66.4614, 0.066281, -80.4921
2, 420.00000, 128.11, -30.5697, 127.075, -151.323, 126.066, 89.5344, 0, 0, 2.35143, -53.6436, 2.37059, -174.397, 2.38957, 66.4604, 0.0664585, -80.4953
2, 480.00000, 128.104, -30.5707, 127.069, -151.324, 126.06, 89.5334, 0, 0, 2.35794, -53.6446, 2.37715, -174.398, 2.39618, 66.4594, 0.066636, -80.4986
2, 540.00000, 128.098, -30.5718, 127.063, -151.325, 126.054, 89.5324, 0, 0, 2.36453, -53.6457, 2.38379, -174.399, 2.40288, 66.4585, 0.0668156, -80.5019
2, 600.00000, 128.092, -30.5728, 127.058, -151.326, 126.048, 89.5314, 0, 0, 2.37105, -53.6467, 2.39035, -174.4, 2.40949, 66.4575, 0.066993, -80.5052
2, 660.00000, 128.086, -30.5739, 127.052, -151.327, 126.042, 89.5304, 0, 0, 2.37756, -53.6478, 2.39691, -174.401, 2.41611, 66.4565, 0.0671704, -80.5085
