hour,t(sec),V1,VAngle1,V2,VAngle2,V3,VAngle3,V4,VAngle4,I1,IAngle1,I2,IAngle2,I3,IAngle3,I4,IAngle4
0, 60.00000, 125.26, -30.6203, 125.977, -150.727, 125.325, 89.2392, 0, 0, 2.3655, -53.6941, 2.35204, -173.801, 2.36426, 66.1655, 0.0178619, -172.393
0, 120.00000, 125.26, -30.6203, 125.977, -150.727, 125.325, 89.2392, 0, 0, 2.36551, -53.6942, 2.35205, -173.801, 2.36428, 66.1653, 0.0178721, -172.379
0, 180.00000, 125.26, -30.6203, 125.977, -150.727, 125.325, 89.2392, 0, 0, 2.36551, -53.6942, 2.35205, -173.801, 2.36428, 66.1653, 0.0178722, -172.379
0, 240.00000, 125.26, -30.6203, 125.977, -150.727, 125.325, 89.2392, 0, 0, 2.36551, -53.6942, 2.35205, -173.801, 2.36428, 66.1653, 0.0178722, -172.379
0, 300.00000, 125.26, -30.6203, 125.977, -150.727, 125.325, 89.2392, 0, 0, 2.36551, -53.6942, 2.35205, -173.801, 2.36428, 66.1653, 0.0178722, -172.379
0, 360.00000, 125.26, -30.6203, 125.977, -150.727, 125.325, 89.2392, 0, 0, 2.36551, -53.6942, 2.35205, -173.801, 2.36428, 66.1653, 0.0178722, -172.379
0, 420.00000, 125.26, -30.6203, 125.977, -150.727, 125.325, 89.2392, 0, 0, 2.36551, -53.6942, 2.35205, -173.801, 2.36428, 66.1653, 0.0178722, -172.379
0, 480.00000, 125.26, -30.6203, 125.977, -150.727, 125.325, 89.2392, 0, 0, 2.36551, -53.6942, 2.35205, -173.801, 2.36428, 66.1653, 0.0178722, -172.379
0, 540.00000, 125.26, -30.6203, 125.977, -150.727, 125.325, 89.2392, 0, 0, 2.36551, -53.6942, 2.35205, -173.801, 2.36428, 66.1653, 0.0178722, -172.379
0, 600.00000, 125.26, -30.6203, 125.977, -150.727, 125.325, 89.2392, 0, 0, 2.36551, -53.6942, 2.35205, -173.801, 2.36428, 66.1653, 0.0178722, -172.379
0, 660.00000, 125.26, -30.6203, 125.977, -150.727, 125.325, 89.2392, 0, 0, 2.36551, -53.6942, 2.35205, -173.801, 2.36428, 66.1653, 0.0178722, -172.379
0, 720.00000, 125.26, -30.6203, 125.977, -150.727, 125.325, 89.2392, 0, 0, 2.36551, -53.6942, 2.35205, -173.801, 2.36428, 66.1653, 0.0178722, -172.379
0, 780.00000, 125.26, -30.6203, 125.977, -150.727, 125.325, 89.2392, 0, 0, 2.36551, -53.6942, 2.35205, -173.801, 2.36428, 66.1653, 0.0178722, -172.379
0, 840.00000, 125.26, -30.6203, 125.977, -150.727, 125.325, 89.2392, 0, 0, 2.36551, -53.6942, 2.35205, -173.801, 2.36428, 66.1653, 0.0178722, -172.379
0, 900.00000, 125.26, -30.6203, 125.977, -150.727, 125.325, 89.2392, 0, 0, 2.36551, -53.6942, 2.35205, -173.801, 2.36428, 66.1653, 0.0178722, -172.379
0, 960.00000, 125.127, -30.7934, 125.57, -150.775, 125.323, 89.2377, 0, 0, 2.36799, -53.8669, 2.35963, -173.848, 2.36432, 66.1639, 0.00636403, 154.574
0, 1020.00000, 125.127, -30.7934, 125.57, -150.775, 125.323, 89.2377, 0, 0, 2.36803, -53.8673, 2.35968, -173.849, 2.36433, 66.1637, 0.00633817, 154.373
0, 1080.00000, 125.127, -30.7934, 125.57, -150.775, 125.323, 89.2377, 0, 0, 2.36803, -53.8673, 2.35968, -173.849, 2.36433, 66.1637, 0.00633814, 154.373
0, 1140.00000, 125.127, -30.7934, 125.57, -150.775, 125.323, 89.2377, 0, 0, 2.36803, -53.8673, 2.35968, -173.849, 2.36433, 66.1637, 0.00633814, 154.373
0, 1200.00000, 125.127, -30.7934, 125.57, -150.775, 125.323, 89.2377, 0, 0, 2.36803, -53.8673, 2.35968, -173.849, 2.36433, 66.1637, 0.00633814, 154.373
0, 1260.00000, 125.127, -30.7934, 125.57, -150.775, 125.323, 89.2377, 0, 0, 2.36803, -53.8673, 2.35968, -173.849, 2.36433, 66.1637, 0.00633814, 154.373
0, 1320.00000, 125.127, -30.7934, 125.57, -150.775, 125.323, 89.2377, 0, 0, 2.36803, -53.8673, 2.35968, -173.849, 2.36433, 66.1637, 0.00633814, 154.373
0, 1380.00000, 125.127, -30.7934, 125.57, -150.775, 125.323, 89.2377, 0, 0, 2.36803, -53.8673, 2.35968, -173.849, 2.36433, 66.1637, 0.00633814, 154.373
0, 1440.00000, 125.127, -30.7934, 125.57, -150.775, 125.323, 89.2377, 0, 0, 2.36803, -53.8673, 2.35968, -173.849, 2.36433, 66.1637, 0.00633814, 154.373
0, 1500.00000, 125.127, -30.7934, 125.57, -150.775, 125.323, 89.2377, 0, 0, 2.36803, -53.8673, 2.35968, -173.849, 2.36433, 66.1637, 0.00633814, 154.373
0, 1560.00000, 125.127, -30.7934, 125.57, -150.775, 125.323, 89.2377, 0, 0, 2.36803, -53.8673, 2.35968, -173.849, 2.36433, 66.1637, 0.00633814, 154.373
0, 1620.00000, 125.127, -30.7934, 125.57, -150.775, 125.323, 89.2377, 0, 0, 2.36803, -53.8673, 2.35968, -173.849, 2.36433, 66.1637, 0.00633814, 154.373
0, 1680.00000, 125.127, -30.7934, 125.57, -150.775, 125.323, 89.2377, 0, 0, 2.36803, -53.8673, 2.35968, -173.849, 2.36433, 66.1637, 0.00633814, 154.373
0, 1740.00000, 125.127, -30.7934, 125.57, -150.775, 125.323, 89.2377, 0, 0, 2.36803, -53.8673, 2.35968, -173.849, 2.36433, 66.1637, 0.00633814, 154.373
0, 1800.00000, 125.127, -30.7934, 125.57, -150.775, 125.323, 89.2377, 0, 0, 2.36803, -53.8673, 2.35968, -173.849, 2.36433, 66.1637, 0.00633814, 154.373
0, 1860.00000, 125.127, -30.7934, 125.57, -150.775, 125.323, 89.2377, 0, 0, 2.36803, -53.8673, 2.35968, -173.849, 2.36433, 66.1637, 0.00633814, 154.373
0, 1920.00000, 125.127, -30.7934, 125.57, -150.775, 125.323, 89.2377, 0, 0, 2.36803, -53.8673, 2.35968, -173.849, 2.36433, 66.1637, 0.00633814, 154.373
0, 1980.00000, 125.127, -30.7934, 125.57, -150.775, 125.323, 89.2377, 0, 0, 2.36803, -53.8673, 2.35968, -173.849, 2.36433, 66.1637, 0.00633814, 154.373
0, 2040.00000, 125.127, -30.7934, 125.57, -150.775, 125.323, 89.2377, 0, 0, 2.36803, -53.8673, 2.35968, -173.849, 2.36433, 66.1637, 0.00633814, 154.373
0, 2100.00000, 125.127, -30.7934, 125.57, -150.775, 125.323, 89.2377, 0, 0, 2.36803, -53.8673, 2.35968, -173.849, 2.36433, 66.1637, 0.00633814, 154.373
0, 2160.00000, 125.127, -30.7934, 125.57, -150.775, 125.323, 89.2377, 0, 0, 2.36803, -53.8673, 2.35968, -173.849, 2.36433, 66.1637, 0.00633814, 154.373
0, 2220.00000, 125.127, -30.7934, 125.57, -150.775, 125.323, 89.2377, 0, 0, 2.36803, -53.8673, 2.35968, -173.849, 2.36433, 66.1637, 0.00633814, 154.373
0, 2280.00000, 125.127, -30.7934, 125.57, -150.775, 125.323, 89.2377, 0, 0, 2.36803, -53.8673, 2.35968, -173.849, 2.36433, 66.1637, 0.00633814, 154.373
0, 2340.00000, 125.127, -30.7934, 125.57, -150.775, 125.323, 89.2377, 0, 0, 2.36803, -53.8673, 2.35968, -173.849, 2.36433, 66.1637, 0.00633814, 154.373
0, 2400.00000, 125.127, -30.7934, 125.57, -150.775, 125.323, 89.2377, 0, 0, 2.36803, -53.8673, 2.35968, -173.849, 2.36433, 66.1637, 0.00633814, 154.373
0, 2460.00000, 125.127, -30.7934, 125.57, -150.775, 125.323, 89.2377, 0, 0, 2.36803, -53.8673, 2.35968, -173.849, 2.36433, 66.1637, 0.00633814, 154.373
0, 2520.00000, 125.127, -30.7934, 125.57, -150.775, 125.323, 89.2377, 0, 0, 2.36803, -53.8673, 2.35968, -173.849, 2.36433, 66.1637, 0.00633814, 154.373
0, 2580.00000, 125.127, -30.7934, 125.57, -150.775, 125.323, 89.2377, 0, 0, 2.36803, -53.8673, 2.35968, -173.849, 2.36433, 66.1637, 0.00633814, 154.373
0, 2640.00000, 125.127, -30.7934, 125.57, -150.775, 125.323, 89.2377, 0, 0, 2.36803, -53.8673, 2.35968, -173.849, 2.36433, 66.1637, 0.00633814, 154.373
0, 2700.00000, 125.127, -30.7934, 125.57, -150.775, 125.323, 89.2377, 0, 0, 2.36803, -53.8673, 2.35968, -173.849, 2.36433, 66.1637, 0.00633814, 154.373
0, 2760.00000, 125.127, -30.7934, 125.57, -150.775, 125.323, 89.2377, 0, 0, 2.36803, -53.8673, 2.35968, -173.849, 2.36433, 66.1637, 0.00633814, 154.373
0, 2820.00000, 125.127, -30.7934, 125.57, -150.775, 125.323, 89.2377, 0, 0, 2.36803, -53.8673, 2.35968, -173.849, 2.36433, 66.1637, 0.00633814, 154.373
0, 2880.00000, 125.127, -30.7934, 125.57, -150.775, 125.323, 89.2377, 0, 0, 2.36803, -53.8673, 2.35968, -173.849, 2.36433, 66.1637, 0.00633814, 154.373
0, 2940.00000, 125.127, -30.7934, 125.57, -150.775, 125.323, 89.2377, 0, 0, 2.36803, -53.8673, 2.35968, -173.849, 2.36433, 66.1637, 0.00633814, 154.373
0, 3000.00000, 125.127, -30.7934, 125.57, -150.775, 125.323, 89.2377, 0, 0, 2.36803, -53.8673, 2.35968, -173.849, 2.36433, 66.1637, 0.00633814, 154.373
0, 3060.00000, 125.127, -30.7934, 125.57, -150.775, 125.323, 89.2377, 0, 0, 2.36803, -53.8673, 2.35968, -173.849, 2.36433, 66.1637, 0.00633814, 154.373
0, 3120.00000, 125.127, -30.7934, 125.57, -150.775, 125.323, 89.2377, 0, 0, 2.36803, -53.8673, 2.35968, -173.849, 2.36433, 66.1637, 0.00633814, 154.373
0, 3180.00000, 125.127, -30.7934, 125.57, -150.775, 125.323, 89.2377, 0, 0, 2.36803, -53.8673, 2.35968, -173.849, 2.36433, 66.1637, 0.00633814, 154.373
0, 3240.00000, 125.127, -30.7934, 125.57, -150.775, 125.323, 89.2377, 0, 0, 2.36803, -53.8673, 2.35968, -173.849, 2.36433, 66.1637, 0.00633814, 154.373
0, 3300.00000, 125.127, -30.7934, 125.57, -150.775, 125.323, 89.2377, 0, 0, 2.36803, -53.8673, 2.35968, -173.849, 2.36433, 66.1637, 0.00633814, 154.373
0, 3360.00000, 125.127, -30.7934, 125.57, -150.775, 125.323, 89.2377, 0, 0, 2.36803, -53.8673, 2.35968, -173.849, 2.36433, 66.1637, 0.00633814, 154.373
0, 3420.00000, 125.127, -30.7934, 125.57, -150.775, 125.323, 89.2377, 0, 0, 2.36803, -53.8673, 2.35968, -173.849, 2.36433, 66.1637, 0.00633814, 154.373
0, 3480.00000, 125.127, -30.7934, 125.57, -150.775, 125.323, 89.2377, 0, 0, 2.36803, -53.8673, 2.35968, -173.849, 2.36433, 66.1637, 0.00633814, 154.373
0, 3540.00000, 125.127, -30.7934, 125.57, -150.775, 125.323, 89.2377, 0, 0, 2.36803, -53.8673, 2.35968, -173.849, 2.36433, 66.1637, 0.00633814, 154.373
1, 0.00000, 125.127, -30.7934, 125.57, -150.775, 125.323, 89.2377, 0, 0, 2.36803, -53.8673, 2.35968, -173.849, 2.36433, 66.1637, 0.00633814, 154.373
1, 60.00000, 125.127, -30.7934, 125.57, -150.775, 125.323, 89.2377, 0, 0, 2.36803, -53.8673, 2.35968, -173.849, 2.36433, 66.1637, 0.00633814, 154.373
1, 120.00000, 125.127, -30.7934, 125.57, -150.775, 125.323, 89.2377, 0, 0, 2.36803, -53.8673, 2.35968, -173.849, 2.36433, 66.1637, 0.00633814, 154.373
1, 180.00000, 125.127, -30.7934, 125.57, -150.775, 125.323, 89.2377, 0, 0, 2.36803, -53.8673, 2.35968, -173.849, 2.36433, 66.1637, 0.00633814, 154.373
1, 240.00000, 125.127, -30.7934, 125.57, -150.775, 125.323, 89.2377, 0, 0, 2.36803, -53.8673, 2.35968, -173.849, 2.36433, 66.1637, 0.00633814, 154.373
1, 300.00000, 125.127, -30.7934, 125.57, -150.775, 125.323, 89.2377, 0, 0, 2.36803, -53.8673, 2.35968, -173.849, 2.36433, 66.1637, 0.00633814, 154.373
1, 360.00000, 125.127, -30.7934, 125.57, -150.775, 125.323, 89.2377, 0, 0, 2.36803, -53.8673, 2.35968, -173.849, 2.36433, 66.1637, 0.00633814, 154.373
1, 420.00000, 125.127, -30.7934, 125.57, -150.775, 125.323, 89.2377, 0, 0, 2.36803, -53.8673, 2.35968, -173.849, 2.36433, 66.1637, 0.00633814, 154.373
1, 480.00000, 125.127, -30.7934, 125.57, -150.775, 125.323, 89.2377, 0, 0, 2.36803, -53.8673, 2.35968, -173.849, 2.36433, 66.1637, 0.00633814, 154.373
1, 540.00000, 125.127, -30.7934, 125.57, -150.775, 125.323, 89.2377, 0, 0, 2.36803, -53.8673, 2.35968, -173.849, 2.36433, 66.1637, 0.00633814, 154.373
1, 600.00000, 125.127, -30.7934, 125.57, -150.775, 125.323, 89.2377, 0, 0, 2.36803, -53.8673, 2.35968, -173.849, 2.36433, 66.1637, 0.00633814, 154.373
1, 660.00000, 125.127, -30.7934, 125.57, -150.775, 125.323, 89.2377, 0, 0, 2.36803, -53.8673, 2.35968, -173.849, 2.36433, 66.1637, 0.00633814, 154.373
1, 720.00000, 125.127, -30.7934, 125.57, -150.775, 125.323, 89.2377, 0, 0, 2.36803, -53.8673, 2.35968, -173.849, 2.36433, 66.1637, 0.00633814, 154.373
1, 780.00000, 125.127, -30.7934, 125.57, -150.775, 125.323, 89.2377, 0, 0, 2.36803, -53.8673, 2.35968, -173.849, 2.36433, 66.1637, 0.00633814, 154.373
1, 840.00000, 125.127, -30.7934, 125.57, -150.775, 125.323, 89.2377, 0, 0, 2.36803, -53.8673, 2.35968, -173.849, 2.36433, 66.1637, 0.00633814, 154.373
1, 900.00000, 125.127, -30.7934, 125.57, -150.775, 125.323, 89.2377, 0, 0, 2.36803, -53.8673, 2.35968, -173.849, 2.36433, 66.1637, 0.00633814, 154.373
1, 960.00000, 125.127, -30.7934, 125.57, -150.775, 125.323, 89.2377, 0, 0, 2.36803, -53.8673, 2.35968, -173.849, 2.36433, 66.1637, 0.00633814, 154.373
1, 1020.00000, 125.127, -30.7934, 125.57, -150.775, 125.323, 89.2377, 0, 0, 2.36803, -53.8673, 2.35968, -173.849, 2.36433, 66.1637, 0.00633814, 154.373
1, 1080.00000, 125.127, -30.7934, 125.57, -150.775, 125.323, 89.2377, 0, 0, 2.36803, -53.8673, 2.35968, -173.849, 2.36433, 66.1637, 0.00633814, 154.373
1, 1140.00000, 125.127, -30.7934, 125.57, -150.775, 125.323, 89.2377, 0, 0, 2.36803, -53.8673, 2.35968, -173.849, 2.36433, 66.1637, 0.00633814, 154.373
1, 1200.00000, 125.127, -30.7934, 125.57, -150.775, 125.323, 89.2377, 0, 0, 2.36803, -53.8673, 2.35968, -173.849, 2.36433, 66.1637, 0.00633814, 154.373
1, 1260.00000, 125.127, -30.7934, 125.57, -150.775, 125.323, 89.2377, 0, 0, 2.36803, -53.8673, 2.35968, -173.849, 2.36433, 66.1637, 0.00633814, 154.373
1, 1320.00000, 125.127, -30.7934, 125.57, -150.775, 125.323, 89.2377, 0, 0, 2.36803, -53.8673, 2.35968, -173.849, 2.36433, 66.1637, 0.00633814, 154.373
1, 1380.00000, 125.127, -30.7934, 125.57, -150.775, 125.323, 89.2377, 0, 0, 2.36803, -53.8673, 2.35968, -173.849, 2.36433, 66.1637, 0.00633814, 154.373
1, 1440.00000, 125.127, -30.7934, 125.57, -150.775, 125.323, 89.2377, 0, 0, 2.36803, -53.8673, 2.35968, -173.849, 2.36433, 66.1637, 0.00633814, 154.373
1, 1500.00000, 125.127, -30.7934, 125.57, -150.775, 125.323, 89.2377, 0, 0, 2.36803, -53.8673, 2.35968, -173.849, 2.36433, 66.1637, 0.00633814, 154.373
1, 1560.00000, 125.127, -30.7934, 125.57, -150.775, 125.323, 89.2377, 0, 0, 2.36803, -53.8673, 2.35968, -173.849, 2.36433, 66.1637, 0.00633814, 154.373
1, 1620.00000, 125.127, -30.7934, 125.57, -150.775, 125.323, 89.2377, 0, 0, 2.36803, -53.8673, 2.35968, -173.849, 2.36433, 66.1637, 0.00633814, 154.373
1, 1680.00000, 125.127, -30.7934, 125.57, -150.775, 125.323, 89.2377, 0, 0, 2.36803, -53.8673, 2.35968, -173.849, 2.36433, 66.1637, 0.00633814, 154.373
1, 1740.00000, 125.127, -30.7934, 125.57, -150.775, 125.323, 89.2377, 0, 0, 2.36803, -53.8673, 2.35968, -173.849, 2.36433, 66.1637, 0.00633814, 154.373
1, 1800.00000, 125.127, -30.7934, 125.57, -150.775, 125.323, 89.2377, 0, 0, 2.36803, -53.8673, 2.35968, -173.849, 2.36433, 66.1637, 0.00633814, 154.373
1, 1860.00000, 125.127, -30.7934, 125.57, -150.775, 125.323, 89.2377, 0, 0, 2.36803, -53.8673, 2.35968, -173.849, 2.36433, 66.1637, 0.00633814, 154.373
1, 1920.00000, 125.127, -30.7934, 125.57, -150.775, 125.323, 89.2377, 0, 0, 2.36803, -53.8673, 2.35968, -173.849, 2.36433, 66.1637, 0.00633814, 154.373
1, 1980.00000, 125.127, -30.7934, 125.57, -150.775, 125.323, 89.2377, 0, 0, 2.36803, -53.8673, 2.35968, -173.849, 2.36433, 66.1637, 0.00633814, 154.373
1, 2040.00000, 125.132, -30.7917, 125.703, -150.601, 125.733, 89.2861, 0, 0, 2.36796, -53.8659, 2.35721, -173.676, 2.35667, 66.2115, 0.0161888, 104.526
1, 2100.00000, 125.132, -30.7917, 125.703, -150.601, 125.733, 89.2862, 0, 0, 2.36794, -53.8656, 2.35718, -173.675, 2.35662, 66.2122, 0.0162109, 104.433
1, 2160.00000, 125.132, -30.7917, 125.703, -150.601, 125.733, 89.2862, 0, 0, 2.36794, -53.8656, 2.35718, -173.675, 2.35662, 66.2123, 0.0162109, 104.433
1, 2220.00000, 125.132, -30.7917, 125.703, -150.601, 125.733, 89.2862, 0, 0, 2.36794, -53.8656, 2.35718, -173.675, 2.35662, 66.2123, 0.0162109, 104.433
1, 2280.00000, 125.132, -30.7917, 125.703, -150.601, 125.733, 89.2862, 0, 0, 2.36794, -53.8656, 2.35718, -173.675, 2.35662, 66.2123, 0.0162109, 104.433
1, 2340.00000, 125.132, -30.7917, 125.703, -150.601, 125.733, 89.2862, 0, 0, 2.36794, -53.8656, 2.35718, -173.675, 2.35662, 66.2123, 0.0162109, 104.433
1, 2400.00000, 125.132, -30.7917, 125.703, -150.601, 125.733, 89.2862, 0, 0, 2.36794, -53.8656, 2.35718, -173.675, 2.35662, 66.2123, 0.0162109, 104.433
1, 2460.00000, 125.132, -30.7917, 125.703, -150.601, 125.733, 89.2862, 0, 0, 2.36794, -53.8656, 2.35718, -173.675, 2.35662, 66.2123, 0.0162109, 104.433
1, 2520.00000, 125.262, -30.6189, 126.11, -150.554, 125.734, 89.2865, 0, 0, 2.3655, -53.693, 2.3496, -173.629, 2.3566, 66.2125, 0.0192582, 146.624
1, 2580.00000, 125.262, -30.6188, 126.11, -150.554, 125.734, 89.2865, 0, 0, 2.36547, -53.6928, 2.34956, -173.628, 2.35659, 66.2125, 0.0192738, 146.685
1, 2640.00000, 125.262, -30.6188, 126.11, -150.554, 125.734, 89.2865, 0, 0, 2.36547, -53.6927, 2.34956, -173.628, 2.35659, 66.2125, 0.0192738, 146.685
1, 2700.00000, 125.262, -30.6188, 126.11, -150.554, 125.734, 89.2865, 0, 0, 2.36547, -53.6927, 2.34956, -173.628, 2.35659, 66.2125, 0.0192738, 146.685
1, 2760.00000, 125.665, -30.5743, 126.109, -150.554, 125.863, 89.4565, 0, 0, 2.35792, -53.6487, 2.34959, -173.628, 2.3542, 66.3822, 0.00638007, 153.691
1, 2820.00000, 125.665, -30.5743, 126.109, -150.554, 125.863, 89.4565, 0, 0, 2.35788, -53.6482, 2.3496, -173.628, 2.35418, 66.3826, 0.00633846, 153.769
1, 2880.00000, 125.665, -30.5743, 126.109, -150.554, 125.863, 89.4565, 0, 0, 2.35788, -53.6482, 2.3496, -173.628, 2.35418, 66.3826, 0.0063383, 153.769
1, 2940.00000, 125.665, -30.5743, 126.109, -150.554, 125.863, 89.4565, 0, 0, 2.35788, -53.6482, 2.3496, -173.628, 2.35418, 66.3826, 0.0063383, 153.769
1, 3000.00000, 125.665, -30.5743, 126.109, -150.554, 125.863, 89.4565, 0, 0, 2.35788, -53.6482, 2.3496, -173.628, 2.35418, 66.3826, 0.0063383, 153.769
1, 3060.00000, 125.665, -30.5743, 126.109, -150.554, 125.863, 89.4565, 0, 0, 2.35788, -53.6482, 2.3496, -173.628, 2.35418, 66.3826, 0.0063383, 153.769
1, 3120.00000, 125.665, -30.5743, 126.109, -150.554, 125.863, 89.4565, 0, 0, 2.35788, -53.6482, 2.3496, -173.628, 2.35418, 66.3826, 0.0063383, 153.769
1, 3180.00000, 125.665, -30.5743, 126.109, -150.554, 125.863, 89.4565, 0, 0, 2.35788, -53.6482, 2.3496, -173.628, 2.35418, 66.3826, 0.0063383, 153.769
1, 3240.00000, 125.665, -30.5743, 126.109, -150.554, 125.863, 89.4565, 0, 0, 2.35788, -53.6482, 2.3496, -173.628, 2.35418, 66.3826, 0.0063383, 153.769
1, 3300.00000, 125.665, -30.5743, 126.109, -150.554, 125.863, 89.4565, 0, 0, 2.35788, -53.6482, 2.3496, -173.628, 2.35418, 66.3826, 0.0063383, 153.769
1, 3360.00000, 125.665, -30.5743, 126.109, -150.554, 125.863, 89.4565, 0, 0, 2.35788, -53.6482, 2.3496, -173.628, 2.35418, 66.3826, 0.0063383, 153.769
1, 3420.00000, 125.665, -30.5743, 126.109, -150.554, 125.863, 89.4565, 0, 0, 2.35788, -53.6482, 2.3496, -173.628, 2.35418, 66.3826, 0.0063383, 153.769
1, 3480.00000, 125.665, -30.5743, 126.109, -150.554, 125.863, 89.4565, 0, 0, 2.35788, -53.6482, 2.3496, -173.628, 2.35418, 66.3826, 0.0063383, 153.769
1, 3540.00000, 125.665, -30.5743, 126.109, -150.554, 125.863, 89.4565, 0, 0, 2.35788, -53.6482, 2.3496, -173.628, 2.35418, 66.3826, 0.0063383, 153.769
2, 0.00000, 125.665, -30.5743, 126.109, -150.554, 125.863, 89.4565, 0, 0, 2.35788, -53.6482, 2.3496, -173.628, 2.35418, 66.3826, 0.0063383, 153.769
2, 60.00000, 125.665, -30.5743, 126.109, -150.554, 125.863, 89.4565, 0, 0, 2.35788, -53.6482, 2.3496, -173.628, 2.35418, 66.3826, 0.0063383, 153.769
2, 120.00000, 125.66, -30.5754, 126.103, -150.555, 125.858, 89.4554, 0, 0, 2.36451, -53.6493, 2.35619, -173.629, 2.36079, 66.3815, 0.00636339, 153.719
2, 180.00000, 125.654, -30.5766, 126.098, -150.556, 125.852, 89.4543, 0, 0, 2.37122, -53.6505, 2.36287, -173.63, 2.36748, 66.3804, 0.00639013, 153.671
2, 240.00000, 125.648, -30.5778, 126.093, -150.557, 125.847, 89.4532, 0, 0, 2.37786, -53.6517, 2.36947, -173.631, 2.3741, 66.3794, 0.00641664, 153.624
2, 300.00000, 125.642, -30.579, 126.088, -150.558, 125.842, 89.4521, 0, 0, 2.38449, -53.6529, 2.37606, -173.632, 2.38071, 66.3783, 0.0064432, 153.577
2, 360.00000, 125.636, -30.5802, 126.083, -150.559, 125.836, 89.4511, 0, 0, 2.39121, -53.6541, 2.38274, -173.633, 2.38741, 66.3772, 0.00647011, 153.53
2, 420.00000, 125.63, -30.5814, 126.077, -150.56, 125.831, 89.45, 0, 0, 2.39784, -53.6552, 2.38934, -173.634, 2.39402, 66.3761, 0.0064968, 153.483
2, 480.00000, 125.625, -30.5826, 126.072, -150.562, 125.825, 89.4489, 0, 0, 2.40448, -53.6564, 2.39594, -173.635, 2.40064, 66.375, 0.00652352, 153.436
2, 540.00000, 125.619, -30.5838, 126.067, -150.563, 125.82, 89.4478, 0, 0, 2.4112, -53.6576, 2.40262, -173.637, 2.40734, 66.3739, 0.00655061, 153.389
2, 600.00000, 125.613, -30.5849, 126.062, -150.564, 125.815, 89.4467, 0, 0, 2.41783, -53.6588, 2.40922, -173.638, 2.41396, 66.3729, 0.00657747, 153.343
2, 660.00000, 125.607, -30.5861, 126.057, -150.565, 125.809, 89.4456, 0, 0, 2.42447, -53.66, 2.41583, -173.639, 2.42058, 66.3718, 0.00660436, 153.296
