hour,t(sec),V1,VAngle1,V2,VAngle2,V3,VAngle3,V4,VAngle4,I1,IAngle1,I2,IAngle2,I3,IAngle3,I4,IAngle4
0, 60.00000, 126.735, -30.7691, 126.4, -150.769, 126.566, 89.4073, 0, 0, 2.5687, -53.8429, 2.57548, -173.843, 2.57211, 66.3335, 0.0137863, -23.8473
0, 120.00000, 126.735, -30.7691, 126.4, -150.769, 126.566, 89.4073, 0, 0, 2.5687, -53.843, 2.5755, -173.843, 2.57213, 66.3333, 0.0137949, -23.8737
0, 180.00000, 126.735, -30.7691, 126.4, -150.769, 126.566, 89.4073, 0, 0, 2.5687, -53.843, 2.5755, -173.843, 2.57213, 66.3333, 0.013795, -23.8739
0, 240.00000, 126.735, -30.7691, 126.4, -150.769, 126.566, 89.4073, 0, 0, 2.5687, -53.843, 2.5755, -173.843, 2.57213, 66.3333, 0.013795, -23.8739
0, 300.00000, 126.735, -30.7691, 126.4, -150.769, 126.566, 89.4073, 0, 0, 2.5687, -53.843, 2.5755, -173.843, 2.57213, 66.3333, 0.013795, -23.8739
0, 360.00000, 126.735, -30.7691, 126.4, -150.769, 126.566, 89.4073, 0, 0, 2.5687, -53.843, 2.5755, -173.843, 2.57213, 66.3333, 0.013795, -23.8739
0, 420.00000, 126.735, -30.7691, 126.4, -150.769, 126.566, 89.4073, 0, 0, 2.5687, -53.843, 2.5755, -173.843, 2.57213, 66.3333, 0.013795, -23.8739
0, 480.00000, 126.735, -30.7691, 126.4, -150.769, 126.566, 89.4073, 0, 0, 2.5687, -53.843, 2.5755, -173.843, 2.57213, 66.3333, 0.013795, -23.8739
0, 540.00000, 126.735, -30.7691, 126.4, -150.769, 126.566, 89.4073, 0, 0, 2.5687, -53.843, 2.5755, -173.843, 2.57213, 66.3333, 0.013795, -23.8739
0, 600.00000, 126.735, -30.7691, 126.4, -150.769, 126.566, 89.4073, 0, 0, 2.5687, -53.843, 2.5755, -173.843, 2.57213, 66.3333, 0.013795, -23.8739
0, 660.00000, 126.735, -30.7691, 126.4, -150.769, 126.566, 89.4073, 0, 0, 2.5687, -53.843, 2.5755, -173.843, 2.57213, 66.3333, 0.013795, -23.8739
0, 720.00000, 126.735, -30.7691, 126.4, -150.769, 126.566, 89.4073, 0, 0, 2.5687, -53.843, 2.5755, -173.843, 2.57213, 66.3333, 0.013795, -23.8739
0, 780.00000, 126.735, -30.7691, 126.4, -150.769, 126.566, 89.4073, 0, 0, 2.5687, -53.843, 2.5755, -173.843, 2.57213, 66.3333, 0.013795, -23.8739
0, 840.00000, 126.735, -30.7691, 126.4, -150.769, 126.566, 89.4073, 0, 0, 2.5687, -53.843, 2.5755, -173.843, 2.57213, 66.3333, 0.013795, -23.8739
0, 900.00000, 126.735, -30.7691, 126.4, -150.769, 126.566, 89.4073, 0, 0, 2.5687, -53.843, 2.5755, -173.843, 2.57213, 66.3333, 0.013795, -23.8739
0, 960.00000, 126.731, -30.7697, 126.27, -150.945, 126.157, 89.3608, 0, 0, 2.56877, -53.8434, 2.57812, -174.018, 2.58043, 66.2874, 0.0225977, -61.4491
0, 1020.00000, 126.731, -30.7697, 126.27, -150.945, 126.157, 89.3608, 0, 0, 2.56878, -53.8436, 2.57815, -174.019, 2.58047, 66.2869, 0.0226246, -61.4892
0, 1080.00000, 126.731, -30.7697, 126.27, -150.945, 126.157, 89.3608, 0, 0, 2.56878, -53.8436, 2.57815, -174.019, 2.58047, 66.2869, 0.0226247, -61.4891
0, 1140.00000, 126.731, -30.7697, 126.27, -150.945, 126.157, 89.3608, 0, 0, 2.56878, -53.8436, 2.57815, -174.019, 2.58047, 66.2869, 0.0226247, -61.4891
0, 1200.00000, 126.731, -30.7697, 126.27, -150.945, 126.157, 89.3608, 0, 0, 2.56878, -53.8436, 2.57815, -174.019, 2.58047, 66.2869, 0.0226247, -61.4891
0, 1260.00000, 126.731, -30.7697, 126.27, -150.945, 126.157, 89.3608, 0, 0, 2.56878, -53.8436, 2.57815, -174.019, 2.58047, 66.2869, 0.0226247, -61.4891
0, 1320.00000, 126.731, -30.7697, 126.27, -150.945, 126.157, 89.3608, 0, 0, 2.56878, -53.8436, 2.57815, -174.019, 2.58047, 66.2869, 0.0226247, -61.4891
0, 1380.00000, 126.731, -30.7697, 126.27, -150.945, 126.157, 89.3608, 0, 0, 2.56878, -53.8436, 2.57815, -174.019, 2.58047, 66.2869, 0.0226247, -61.4891
0, 1440.00000, 126.731, -30.7697, 126.27, -150.945, 126.157, 89.3608, 0, 0, 2.56878, -53.8436, 2.57815, -174.019, 2.58047, 66.2869, 0.0226247, -61.4891
0, 1500.00000, 126.731, -30.7697, 126.27, -150.945, 126.157, 89.3608, 0, 0, 2.56878, -53.8436, 2.57815, -174.019, 2.58047, 66.2869, 0.0226247, -61.4891
0, 1560.00000, 126.731, -30.7697, 126.27, -150.945, 126.157, 89.3608, 0, 0, 2.56878, -53.8436, 2.57815, -174.019, 2.58047, 66.2869, 0.0226247, -61.4891
0, 1620.00000, 126.731, -30.7697, 126.27, -150.945, 126.157, 89.3608, 0, 0, 2.56878, -53.8436, 2.57815, -174.019, 2.58047, 66.2869, 0.0226247, -61.4891
0, 1680.00000, 126.731, -30.7697, 126.27, -150.945, 126.157, 89.3608, 0, 0, 2.56878, -53.8436, 2.57815, -174.019, 2.58047, 66.2869, 0.0226247, -61.4891
0, 1740.00000, 126.731, -30.7697, 126.27, -150.945, 126.157, 89.3608, 0, 0, 2.56878, -53.8436, 2.57815, -174.019, 2.58047, 66.2869, 0.0226247, -61.4891
0, 1800.00000, 126.731, -30.7697, 126.27, -150.945, 126.157, 89.3608, 0, 0, 2.56878, -53.8436, 2.57815, -174.019, 2.58047, 66.2869, 0.0226247, -61.4891
0, 1860.00000, 126.731, -30.7697, 126.27, -150.945, 126.157, 89.3608, 0, 0, 2.56878, -53.8436, 2.57815, -174.019, 2.58047, 66.2869, 0.0226247, -61.4891
0, 1920.00000, 126.731, -30.7697, 126.27, -150.945, 126.157, 89.3608, 0, 0, 2.56878, -53.8436, 2.57815, -174.019, 2.58047, 66.2869, 0.0226247, -61.4891
0, 1980.00000, 126.731, -30.7697, 126.27, -150.945, 126.157, 89.3608, 0, 0, 2.56878, -53.8436, 2.57815, -174.019, 2.58047, 66.2869, 0.0226247, -61.4891
0, 2040.00000, 126.731, -30.7697, 126.27, -150.945, 126.157, 89.3608, 0, 0, 2.56878, -53.8436, 2.57815, -174.019, 2.58047, 66.2869, 0.0226247, -61.4891
0, 2100.00000, 126.731, -30.7697, 126.27, -150.945, 126.157, 89.3608, 0, 0, 2.56878, -53.8436, 2.57815, -174.019, 2.58047, 66.2869, 0.0226247, -61.4891
0, 2160.00000, 126.731, -30.7697, 126.27, -150.945, 126.157, 89.3608, 0, 0, 2.56878, -53.8436, 2.57815, -174.019, 2.58047, 66.2869, 0.0226247, -61.4891
0, 2220.00000, 126.731, -30.7697, 126.27, -150.945, 126.157, 89.3608, 0, 0, 2.56878, -53.8436, 2.57815, -174.019, 2.58047, 66.2869, 0.0226247, -61.4891
0, 2280.00000, 126.731, -30.7697, 126.27, -150.945, 126.157, 89.3608, 0, 0, 2.56878, -53.8436, 2.57815, -174.019, 2.58047, 66.2869, 0.0226247, -61.4891
0, 2340.00000, 126.731, -30.7697, 126.27, -150.945, 126.157, 89.3608, 0, 0, 2.56878, -53.8436, 2.57815, -174.019, 2.58047, 66.2869, 0.0226247, -61.4891
0, 2400.00000, 126.731, -30.7697, 126.27, -150.945, 126.157, 89.3608, 0, 0, 2.56878, -53.8436, 2.57815, -174.019, 2.58047, 66.2869, 0.0226247, -61.4891
0, 2460.00000, 126.731, -30.7697, 126.27, -150.945, 126.157, 89.3608, 0, 0, 2.56878, -53.8436, 2.57815, -174.019, 2.58047, 66.2869, 0.0226247, -61.4891
0, 2520.00000, 126.731, -30.7697, 126.27, -150.945, 126.157, 89.3608, 0, 0, 2.56878, -53.8436, 2.57815, -174.019, 2.58047, 66.2869, 0.0226247, -61.4891
0, 2580.00000, 126.731, -30.7697, 126.27, -150.945, 126.157, 89.3608, 0, 0, 2.56878, -53.8436, 2.57815, -174.019, 2.58047, 66.2869, 0.0226247, -61.4891
0, 2640.00000, 126.731, -30.7697, 126.27, -150.945, 126.157, 89.3608, 0, 0, 2.56878, -53.8436, 2.57815, -174.019, 2.58047, 66.2869, 0.0226247, -61.4891
0, 2700.00000, 126.731, -30.7697, 126.27, -150.945, 126.157, 89.3608, 0, 0, 2.56878, -53.8436, 2.57815, -174.019, 2.58047, 66.2869, 0.0226247, -61.4891
0, 2760.00000, 126.731, -30.7697, 126.27, -150.945, 126.157, 89.3608, 0, 0, 2.56878, -53.8436, 2.57815, -174.019, 2.58047, 66.2869, 0.0226247, -61.4891
0, 2820.00000, 126.731, -30.7697, 126.27, -150.945, 126.157, 89.3608, 0, 0, 2.56878, -53.8436, 2.57815, -174.019, 2.58047, 66.2869, 0.0226247, -61.4891
0, 2880.00000, 126.731, -30.7697, 126.27, -150.945, 126.157, 89.3608, 0, 0, 2.56878, -53.8436, 2.57815, -174.019, 2.58047, 66.2869, 0.0226247, -61.4891
0, 2940.00000, 126.731, -30.7697, 126.27, -150.945, 126.157, 89.3608, 0, 0, 2.56878, -53.8436, 2.57815, -174.019, 2.58047, 66.2869, 0.0226247, -61.4891
0, 3000.00000, 126.731, -30.7697, 126.27, -150.945, 126.157, 89.3608, 0, 0, 2.56878, -53.8436, 2.57815, -174.019, 2.58047, 66.2869, 0.0226247, -61.4891
0, 3060.00000, 126.731, -30.7697, 126.27, -150.945, 126.157, 89.3608, 0, 0, 2.56878, -53.8436, 2.57815, -174.019, 2.58047, 66.2869, 0.0226247, -61.4891
0, 3120.00000, 126.731, -30.7697, 126.27, -150.945, 126.157, 89.3608, 0, 0, 2.56878, -53.8436, 2.57815, -174.019, 2.58047, 66.2869, 0.0226247, -61.4891
0, 3180.00000, 126.731, -30.7697, 126.27, -150.945, 126.157, 89.3608, 0, 0, 2.56878, -53.8436, 2.57815, -174.019, 2.58047, 66.2869, 0.0226247, -61.4891
0, 3240.00000, 126.731, -30.7697, 126.27, -150.945, 126.157, 89.3608, 0, 0, 2.56878, -53.8436, 2.57815, -174.019, 2.58047, 66.2869, 0.0226247, -61.4891
0, 3300.00000, 126.731, -30.7697, 126.27, -150.945, 126.157, 89.3608, 0, 0, 2.56878, -53.8436, 2.57815, -174.019, 2.58047, 66.2869, 0.0226247, -61.4891
0, 3360.00000, 126.731, -30.7697, 126.27, -150.945, 126.157, 89.3608, 0, 0, 2.56878, -53.8436, 2.57815, -174.019, 2.58047, 66.2869, 0.0226247, -61.4891
0, 3420.00000, 126.731, -30.7697, 126.27, -150.945, 126.157, 89.3608, 0, 0, 2.56878, -53.8436, 2.57815, -174.019, 2.58047, 66.2869, 0.0226247, -61.4891
0, 3480.00000, 126.731, -30.7697, 126.27, -150.945, 126.157, 89.3608, 0, 0, 2.56878, -53.8436, 2.57815, -174.019, 2.58047, 66.2869, 0.0226247, -61.4891
0, 3540.00000, 126.731, -30.7697, 126.27, -150.945, 126.157, 89.3608, 0, 0, 2.56878, -53.8436, 2.57815, -174.019, 2.58047, 66.2869, 0.0226247, -61.4891
1, 0.00000, 126.731, -30.7697, 126.27, -150.945, 126.157, 89.3608, 0, 0, 2.56878, -53.8436, 2.57815, -174.019, 2.58047, 66.2869, 0.0226247, -61.4891
1, 60.00000, 126.731, -30.7697, 126.27, -150.945, 126.157, 89.3608, 0, 0, 2.56878, -53.8436, 2.57815, -174.019, 2.58047, 66.2869, 0.0226247, -61.4891
1, 120.00000, 126.731, -30.7697, 126.27, -150.945, 126.157, 89.3608, 0, 0, 2.56878, -53.8436, 2.57815, -174.019, 2.58047, 66.2869, 0.0226247, -61.4891
1, 180.00000, 126.731, -30.7697, 126.27, -150.945, 126.157, 89.3608, 0, 0, 2.56878, -53.8436, 2.57815, -174.019, 2.58047, 66.2869, 0.0226247, -61.4891
1, 240.00000, 126.731, -30.7697, 126.27, -150.945, 126.157, 89.3608, 0, 0, 2.56878, -53.8436, 2.57815, -174.019, 2.58047, 66.2869, 0.0226247, -61.4891
1, 300.00000, 126.731, -30.7697, 126.27, -150.945, 126.157, 89.3608, 0, 0, 2.56878, -53.8436, 2.57815, -174.019, 2.58047, 66.2869, 0.0226247, -61.4891
1, 360.00000, 126.731, -30.7697, 126.27, -150.945, 126.157, 89.3608, 0, 0, 2.56878, -53.8436, 2.57815, -174.019, 2.58047, 66.2869, 0.0226247, -61.4891
1, 420.00000, 126.731, -30.7697, 126.27, -150.945, 126.157, 89.3608, 0, 0, 2.56878, -53.8436, 2.57815, -174.019, 2.58047, 66.2869, 0.0226247, -61.4891
1, 480.00000, 126.731, -30.7697, 126.27, -150.945, 126.157, 89.3608, 0, 0, 2.56878, -53.8436, 2.57815, -174.019, 2.58047, 66.2869, 0.0226247, -61.4891
1, 540.00000, 126.731, -30.7697, 126.27, -150.945, 126.157, 89.3608, 0, 0, 2.56878, -53.8436, 2.57815, -174.019, 2.58047, 66.2869, 0.0226247, -61.4891
1, 600.00000, 126.731, -30.7697, 126.27, -150.945, 126.157, 89.3608, 0, 0, 2.56878, -53.8436, 2.57815, -174.019, 2.58047, 66.2869, 0.0226247, -61.4891
1, 660.00000, 126.731, -30.7697, 126.27, -150.945, 126.157, 89.3608, 0, 0, 2.56878, -53.8436, 2.57815, -174.019, 2.58047, 66.2869, 0.0226247, -61.4891
1, 720.00000, 126.731, -30.7697, 126.27, -150.945, 126.157, 89.3608, 0, 0, 2.56878, -53.8436, 2.57815, -174.019, 2.58047, 66.2869, 0.0226247, -61.4891
1, 780.00000, 126.731, -30.7697, 126.27, -150.945, 126.157, 89.3608, 0, 0, 2.56878, -53.8436, 2.57815, -174.019, 2.58047, 66.2869, 0.0226247, -61.4891
1, 840.00000, 126.731, -30.7697, 126.27, -150.945, 126.157, 89.3608, 0, 0, 2.56878, -53.8436, 2.57815, -174.019, 2.58047, 66.2869, 0.0226247, -61.4891
1, 900.00000, 126.731, -30.7697, 126.27, -150.945, 126.157, 89.3608, 0, 0, 2.56878, -53.8436, 2.57815, -174.019, 2.58047, 66.2869, 0.0226247, -61.4891
1, 960.00000, 126.731, -30.7697, 126.27, -150.945, 126.157, 89.3608, 0, 0, 2.56878, -53.8436, 2.57815, -174.019, 2.58047, 66.2869, 0.0226247, -61.4891
1, 1020.00000, 126.731, -30.7697, 126.27, -150.945, 126.157, 89.3608, 0, 0, 2.56878, -53.8436, 2.57815, -174.019, 2.58047, 66.2869, 0.0226247, -61.4891
1, 1080.00000, 126.731, -30.7697, 126.27, -150.945, 126.157, 89.3608, 0, 0, 2.56878, -53.8436, 2.57815, -174.019, 2.58047, 66.2869, 0.0226247, -61.4891
1, 1140.00000, 126.731, -30.7697, 126.27, -150.945, 126.157, 89.3608, 0, 0, 2.56878, -53.8436, 2.57815, -174.019, 2.58047, 66.2869, 0.0226247, -61.4891
1, 1200.00000, 126.731, -30.7697, 126.27, -150.945, 126.157, 89.3608, 0, 0, 2.56878, -53.8436, 2.57815, -174.019, 2.58047, 66.2869, 0.0226247, -61.4891
1, 1260.00000, 126.731, -30.7697, 126.27, -150.945, 126.157, 89.3608, 0, 0, 2.56878, -53.8436, 2.57815, -174.019, 2.58047, 66.2869, 0.0226247, -61.4891
1, 1320.00000, 126.731, -30.7697, 126.27, -150.945, 126.157, 89.3608, 0, 0, 2.56878, -53.8436, 2.57815, -174.019, 2.58047, 66.2869, 0.0226247, -61.4891
1, 1380.00000, 126.731, -30.7697, 126.27, -150.945, 126.157, 89.3608, 0, 0, 2.56878, -53.8436, 2.57815, -174.019, 2.58047, 66.2869, 0.0226247, -61.4891
1, 1440.00000, 126.731, -30.7697, 126.27, -150.945, 126.157, 89.3608, 0, 0, 2.56878, -53.8436, 2.57815, -174.019, 2.58047, 66.2869, 0.0226247, -61.4891
1, 1500.00000, 126.731, -30.7697, 126.27, -150.945, 126.157, 89.3608, 0, 0, 2.56878, -53.8436, 2.57815, -174.019, 2.58047, 66.2869, 0.0226247, -61.4891
1, 1560.00000, 126.731, -30.7697, 126.27, -150.945, 126.157, 89.3608, 0, 0, 2.56878, -53.8436, 2.57815, -174.019, 2.58047, 66.2869, 0.0226247, -61.4891
1, 1620.00000, 126.731, -30.7697, 126.27, -150.945, 126.157, 89.3608, 0, 0, 2.56878, -53.8436, 2.57815, -174.019, 2.58047, 66.2869, 0.0226247, -61.4891
1, 1680.00000, 126.731, -30.7697, 126.27, -150.945, 126.157, 89.3608, 0, 0, 2.56878, -53.8436, 2.57815, -174.019, 2.58047, 66.2869, 0.0226247, -61.4891
1, 1740.00000, 126.731, -30.7697, 126.27, -150.945, 126.157, 89.3608, 0, 0, 2.56878, -53.8436, 2.57815, -174.019, 2.58047, 66.2869, 0.0226247, -61.4891
1, 1800.00000, 126.731, -30.7697, 126.27, -150.945, 126.157, 89.3608, 0, 0, 2.56878, -53.8436, 2.57815, -174.019, 2.58047, 66.2869, 0.0226247, -61.4891
1, 1860.00000, 126.731, -30.7697, 126.27, -150.945, 126.157, 89.3608, 0, 0, 2.56878, -53.8436, 2.57815, -174.019, 2.58047, 66.2869, 0.0226247, -61.4891
1, 1920.00000, 126.731, -30.7697, 126.27, -150.945, 126.157, 89.3608, 0, 0, 2.56878, -53.8436, 2.57815, -174.019, 2.58047, 66.2869, 0.0226247, -61.4891
1, 1980.00000, 126.731, -30.7697, 126.27, -150.945, 126.157, 89.3608, 0, 0, 2.56878, -53.8436, 2.57815, -174.019, 2.58047, 66.2869, 0.0226247, -61.4891
1, 2040.00000, 126.735, -30.769, 126.401, -150.768, 126.569, 89.4079, 0, 0, 2.56871, -53.8431, 2.57551, -173.842, 2.57212, 66.3334, 0.0138008, -23.7172
1, 2100.00000, 126.735, -30.769, 126.401, -150.768, 126.569, 89.408, 0, 0, 2.5687, -53.8429, 2.57547, -173.842, 2.57206, 66.334, 0.0137785, -23.4774
1, 2160.00000, 126.735, -30.769, 126.401, -150.768, 126.569, 89.408, 0, 0, 2.5687, -53.8429, 2.57547, -173.842, 2.57206, 66.334, 0.0137783, -23.4763
1, 2220.00000, 126.735, -30.769, 126.401, -150.768, 126.569, 89.408, 0, 0, 2.5687, -53.8429, 2.57547, -173.842, 2.57206, 66.334, 0.0137783, -23.4762
1, 2280.00000, 126.735, -30.769, 126.401, -150.768, 126.569, 89.408, 0, 0, 2.5687, -53.8429, 2.57547, -173.842, 2.57206, 66.334, 0.0137783, -23.4762
1, 2340.00000, 126.735, -30.769, 126.401, -150.768, 126.569, 89.408, 0, 0, 2.5687, -53.8429, 2.57547, -173.842, 2.57206, 66.334, 0.0137783, -23.4762
1, 2400.00000, 126.735, -30.769, 126.401, -150.768, 126.569, 89.408, 0, 0, 2.5687, -53.8429, 2.57547, -173.842, 2.57206, 66.334, 0.0137783, -23.4762
1, 2460.00000, 126.735, -30.769, 126.401, -150.768, 126.569, 89.408, 0, 0, 2.5687, -53.8429, 2.57547, -173.842, 2.57206, 66.334, 0.0137783, -23.4762
1, 2520.00000, 126.739, -30.7684, 126.529, -150.595, 126.972, 89.454, 0, 0, 2.56863, -53.8424, 2.5729, -173.669, 2.56394, 66.3797, 0.0167097, 30.5131
1, 2580.00000, 126.739, -30.7683, 126.529, -150.595, 126.972, 89.4541, 0, 0, 2.56862, -53.8423, 2.57287, -173.669, 2.56391, 66.3802, 0.0167276, 30.6051
1, 2640.00000, 126.739, -30.7683, 126.529, -150.595, 126.972, 89.4541, 0, 0, 2.56862, -53.8423, 2.57287, -173.669, 2.56391, 66.3802, 0.0167276, 30.6056
1, 2700.00000, 126.739, -30.7683, 126.529, -150.595, 126.972, 89.4541, 0, 0, 2.56862, -53.8423, 2.57287, -173.669, 2.56391, 66.3802, 0.0167276, 30.6056
1, 2760.00000, 126.865, -30.597, 126.928, -150.55, 126.972, 89.4544, 0, 0, 2.56608, -53.6713, 2.56482, -173.625, 2.5639, 66.3805, 0.00335177, 63.0941
1, 2820.00000, 126.865, -30.597, 126.928, -150.55, 126.972, 89.4544, 0, 0, 2.56606, -53.6709, 2.56479, -173.624, 2.5639, 66.3804, 0.0033335, 63.6405
1, 2880.00000, 126.865, -30.597, 126.928, -150.55, 126.972, 89.4544, 0, 0, 2.56606, -53.6709, 2.56479, -173.624, 2.5639, 66.3804, 0.00333344, 63.6423
1, 2940.00000, 126.865, -30.597, 126.928, -150.55, 126.972, 89.4544, 0, 0, 2.56606, -53.6709, 2.56479, -173.624, 2.5639, 66.3804, 0.00333344, 63.6424
1, 3000.00000, 126.865, -30.597, 126.928, -150.55, 126.972, 89.4544, 0, 0, 2.56606, -53.6709, 2.56479, -173.624, 2.5639, 66.3804, 0.00333344, 63.6424
1, 3060.00000, 126.865, -30.597, 126.928, -150.55, 126.972, 89.4544, 0, 0, 2.56606, -53.6709, 2.56479, -173.624, 2.5639, 66.3804, 0.00333344, 63.6424
1, 3120.00000, 126.865, -30.597, 126.928, -150.55, 126.972, 89.4544, 0, 0, 2.56606, -53.6709, 2.56479, -173.624, 2.5639, 66.3804, 0.00333344, 63.6424
1, 3180.00000, 126.865, -30.597, 126.928, -150.55, 126.972, 89.4544, 0, 0, 2.56606, -53.6709, 2.56479, -173.624, 2.5639, 66.3804, 0.00333344, 63.6424
1, 3240.00000, 126.865, -30.597, 126.928, -150.55, 126.972, 89.4544, 0, 0, 2.56606, -53.6709, 2.56479, -173.624, 2.5639, 66.3804, 0.00333344, 63.6424
1, 3300.00000, 126.865, -30.597, 126.928, -150.55, 126.972, 89.4544, 0, 0, 2.56606, -53.6709, 2.56479, -173.624, 2.5639, 66.3804, 0.00333344, 63.6424
1, 3360.00000, 126.865, -30.597, 126.928, -150.55, 126.972, 89.4544, 0, 0, 2.56606, -53.6709, 2.56479, -173.624, 2.5639, 66.3804, 0.00333344, 63.6424
1, 3420.00000, 126.865, -30.597, 126.928, -150.55, 126.972, 89.4544, 0, 0, 2.56606, -53.6709, 2.56479, -173.624, 2.5639, 66.3804, 0.00333344, 63.6424
1, 3480.00000, 126.865, -30.597, 126.928, -150.55, 126.972, 89.4544, 0, 0, 2.56606, -53.6709, 2.56479, -173.624, 2.5639, 66.3804, 0.00333344, 63.6424
1, 3540.00000, 126.865, -30.597, 126.928, -150.55, 126.972, 89.4544, 0, 0, 2.56606, -53.6709, 2.56479, -173.624, 2.5639, 66.3804, 0.00333344, 63.6424
2, 0.00000, 126.865, -30.597, 126.928, -150.55, 126.972, 89.4544, 0, 0, 2.56606, -53.6709, 2.56479, -173.624, 2.5639, 66.3804, 0.00333344, 63.6424
2, 60.00000, 126.865, -30.597, 126.928, -150.55, 126.972, 89.4544, 0, 0, 2.56606, -53.6709, 2.56479, -173.624, 2.5639, 66.3804, 0.00333344, 63.6424
2, 120.00000, 126.861, -30.5981, 126.924, -150.552, 126.968, 89.4533, 0, 0, 2.57324, -53.672, 2.57196, -173.625, 2.57107, 66.3794, 0.00334504, 63.7053
2, 180.00000, 126.857, -30.5993, 126.92, -150.553, 126.964, 89.4521, 0, 0, 2.58051, -53.6731, 2.57922, -173.627, 2.57833, 66.3783, 0.0033568, 63.7604
2, 240.00000, 126.853, -30.6004, 126.916, -150.554, 126.96, 89.451, 0, 0, 2.58769, -53.6743, 2.5864, -173.628, 2.58551, 66.3772, 0.00336844, 63.8145
2, 300.00000, 126.849, -30.6016, 126.912, -150.555, 126.956, 89.4499, 0, 0, 2.59488, -53.6754, 2.59358, -173.629, 2.59268, 66.376, 0.0033801, 63.8686
2, 360.00000, 126.845, -30.6027, 126.908, -150.556, 126.952, 89.4488, 0, 0, 2.60215, -53.6766, 2.60084, -173.63, 2.59994, 66.3749, 0.00339191, 63.9234
2, 420.00000, 126.84, -30.6039, 126.904, -150.557, 126.948, 89.4477, 0, 0, 2.60933, -53.6777, 2.60801, -173.631, 2.60712, 66.3738, 0.0034036, 63.9774
2, 480.00000, 126.836, -30.605, 126.901, -150.558, 126.944, 89.4466, 0, 0, 2.61652, -53.6789, 2.61519, -173.632, 2.61429, 66.3727, 0.00341531, 64.0313
2, 540.00000, 126.832, -30.6062, 126.897, -150.559, 126.94, 89.4455, 0, 0, 2.62379, -53.68, 2.62246, -173.633, 2.62156, 66.3716, 0.00342718, 64.086
2, 600.00000, 126.828, -30.6073, 126.893, -150.56, 126.936, 89.4444, 0, 0, 2.63098, -53.6812, 2.62963, -173.634, 2.62873, 66.3705, 0.00343892, 64.1397
2, 660.00000, 126.824, -30.6085, 126.889, -150.562, 126.932, 89.4432, 0, 0, 2.63816, -53.6823, 2.63681, -173.635, 2.63591, 66.3694, 0.00345068, 64.1935
2, 720.00000, 126.82, -30.6096, 126.885, -150.563, 126.928, 89.4421, 0, 0, 2.64544, -53.6835, 2.64408, -173.637, 2.64318, 66.3683, 0.0034626, 64.248
