hour,t(sec),V1,VAngle1,V2,VAngle2,V3,VAngle3,V4,VAngle4,I1,IAngle1,I2,IAngle2,I3,IAngle3,I4,IAngle4
0, 60.00000, 126.012, -30.6003, 128.381, -150.564, 127.16, 88.6905, 0, 0, 2.25996, -53.6742, 2.2183, -173.638, 2.23956, 65.617, 0.0644974, 155.478
0, 120.00000, 126.012, -30.6003, 128.403, -150.565, 127.169, 88.6819, 0, 0, 2.25996, -53.6742, 2.21791, -173.639, 2.23939, 65.6084, 0.0651565, 155.526
0, 180.00000, 126.012, -30.6004, 128.423, -150.566, 127.178, 88.6742, 0, 0, 2.25996, -53.6743, 2.21756, -173.639, 2.23924, 65.6006, 0.0657498, 155.569
0, 240.00000, 126.012, -30.6004, 128.441, -150.566, 127.185, 88.6672, 0, 0, 2.25996, -53.6743, 2.21724, -173.64, 2.23911, 65.5936, 0.0662839, 155.607
0, 300.00000, 126.012, -30.6004, 128.458, -150.567, 127.192, 88.661, 0, 0, 2.25996, -53.6743, 2.21696, -173.64, 2.23899, 65.5873, 0.0667646, 155.641
0, 360.00000, 126.012, -30.6004, 128.472, -150.567, 127.198, 88.6553, 0, 0, 2.25996, -53.6743, 2.2167, -173.641, 2.23888, 65.5816, 0.0671973, 155.672
0, 420.00000, 126.012, -30.6004, 128.486, -150.567, 127.204, 88.6502, 0, 0, 2.25996, -53.6743, 2.21647, -173.641, 2.23878, 65.5765, 0.0675869, 155.699
0, 480.00000, 126.012, -30.6004, 128.498, -150.568, 127.209, 88.6456, 0, 0, 2.25996, -53.6743, 2.21626, -173.641, 2.23869, 65.5719, 0.0679375, 155.724
0, 540.00000, 126.012, -30.6004, 128.508, -150.568, 127.214, 88.6415, 0, 0, 2.25997, -53.6743, 2.21608, -173.642, 2.23862, 65.5678, 0.0682531, 155.746
0, 600.00000, 126.012, -30.6004, 128.518, -150.568, 127.218, 88.6378, 0, 0, 2.25997, -53.6743, 2.21591, -173.642, 2.23854, 65.564, 0.0685371, 155.766
0, 660.00000, 126.012, -30.6004, 128.527, -150.569, 127.221, 88.6345, 0, 0, 2.25997, -53.6744, 2.21576, -173.642, 2.23848, 65.5607, 0.0687928, 155.784
0, 720.00000, 126.012, -30.6005, 128.535, -150.569, 127.225, 88.6314, 0, 0, 2.25997, -53.6744, 2.21562, -173.643, 2.23842, 65.5577, 0.0690229, 155.8
0, 780.00000, 126.012, -30.6005, 128.542, -150.569, 127.227, 88.6287, 0, 0, 2.25997, -53.6744, 2.2155, -173.643, 2.23837, 65.5549, 0.06923, 155.814
0, 840.00000, 126.012, -30.6005, 128.548, -150.569, 127.23, 88.6263, 0, 0, 2.25997, -53.6744, 2.21539, -173.643, 2.23832, 65.5525, 0.0694164, 155.827
0, 900.00000, 126.012, -30.6005, 128.554, -150.569, 127.233, 88.6241, 0, 0, 2.25997, -53.6744, 2.21529, -173.643, 2.23828, 65.5503, 0.0695842, 155.839
0, 960.00000, 126.012, -30.6005, 128.559, -150.57, 127.235, 88.6221, 0, 0, 2.25997, -53.6744, 2.2152, -173.643, 2.23825, 65.5483, 0.0697353, 155.849
0, 1020.00000, 126.012, -30.6005, 128.563, -150.57, 127.237, 88.6203, 0, 0, 2.25997, -53.6744, 2.21512, -173.644, 2.23821, 65.5465, 0.0698712, 155.858
0, 1080.00000, 126.012, -30.6005, 128.568, -150.57, 127.238, 88.6187, 0, 0, 2.25997, -53.6744, 2.21505, -173.644, 2.23818, 65.5449, 0.0699935, 155.867
0, 1140.00000, 126.012, -30.6005, 128.571, -150.57, 127.24, 88.6173, 0, 0, 2.25997, -53.6744, 2.21498, -173.644, 2.23815, 65.5434, 0.0701036, 155.874
0, 1200.00000, 126.012, -30.6005, 128.575, -150.57, 127.241, 88.616, 0, 0, 2.25997, -53.6744, 2.21492, -173.644, 2.23813, 65.5421, 0.0702027, 155.881
0, 1260.00000, 126.012, -30.6005, 128.578, -150.57, 127.243, 88.6148, 0, 0, 2.25997, -53.6744, 2.21487, -173.644, 2.23811, 65.541, 0.0702919, 155.887
0, 1320.00000, 126.012, -30.6005, 128.581, -150.57, 127.244, 88.6138, 0, 0, 2.25997, -53.6744, 2.21482, -173.644, 2.23809, 65.5399, 0.0703722, 155.893
0, 1380.00000, 126.012, -30.6005, 128.583, -150.57, 127.245, 88.6128, 0, 0, 2.25997, -53.6744, 2.21478, -173.644, 2.23807, 65.539, 0.0704444, 155.898
0, 1440.00000, 126.012, -30.6005, 128.585, -150.57, 127.246, 88.612, 0, 0, 2.25997, -53.6744, 2.21474, -173.644, 2.23805, 65.5381, 0.0705095, 155.902
0, 1500.00000, 126.012, -30.6005, 128.587, -150.57, 127.247, 88.6112, 0, 0, 2.25997, -53.6744, 2.21471, -173.644, 2.23804, 65.5373, 0.070568, 155.906
0, 1560.00000, 126.012, -30.6005, 128.589, -150.571, 127.247, 88.6105, 0, 0, 2.25997, -53.6744, 2.21468, -173.644, 2.23802, 65.5366, 0.0706207, 155.91
0, 1620.00000, 126.012, -30.6005, 128.591, -150.571, 127.248, 88.6099, 0, 0, 2.25997, -53.6744, 2.21465, -173.644, 2.23801, 65.536, 0.0706681, 155.913
0, 1680.00000, 126.012, -30.6005, 128.592, -150.571, 127.249, 88.6093, 0, 0, 2.25997, -53.6744, 2.21462, -173.645, 2.238, 65.5355, 0.0707107, 155.916
0, 1740.00000, 126.012, -30.6005, 128.593, -150.571, 127.249, 88.6088, 0, 0, 2.25997, -53.6744, 2.2146, -173.645, 2.23799, 65.535, 0.0707491, 155.919
0, 1800.00000, 126.012, -30.6005, 128.595, -150.571, 127.25, 88.6084, 0, 0, 2.25997, -53.6744, 2.21458, -173.645, 2.23798, 65.5345, 0.0707837, 155.921
0, 1860.00000, 126.012, -30.6005, 128.596, -150.571, 127.25, 88.608, 0, 0, 2.25997, -53.6744, 2.21456, -173.645, 2.23798, 65.5341, 0.0708148, 155.923
0, 1920.00000, 126.012, -30.6005, 128.597, -150.571, 127.25, 88.6076, 0, 0, 2.25997, -53.6744, 2.21454, -173.645, 2.23797, 65.5337, 0.0708428, 155.925
0, 1980.00000, 126.012, -30.6005, 128.597, -150.571, 127.251, 88.6073, 0, 0, 2.25997, -53.6744, 2.21453, -173.645, 2.23796, 65.5334, 0.070868, 155.927
0, 2040.00000, 126.012, -30.6005, 128.598, -150.571, 127.251, 88.607, 0, 0, 2.25997, -53.6744, 2.21452, -173.645, 2.23796, 65.5331, 0.0708907, 155.928
0, 2100.00000, 126.012, -30.6005, 128.599, -150.571, 127.251, 88.6067, 0, 0, 2.25997, -53.6744, 2.2145, -173.645, 2.23795, 65.5328, 0.0709111, 155.93
0, 2160.00000, 126.012, -30.6005, 128.599, -150.571, 127.252, 88.6065, 0, 0, 2.25997, -53.6744, 2.21449, -173.645, 2.23795, 65.5326, 0.0709295, 155.931
0, 2220.00000, 126.012, -30.6005, 128.6, -150.571, 127.252, 88.6063, 0, 0, 2.25997, -53.6744, 2.21448, -173.645, 2.23794, 65.5324, 0.070946, 155.932
0, 2280.00000, 126.012, -30.6005, 128.601, -150.571, 127.252, 88.6061, 0, 0, 2.25997, -53.6744, 2.21447, -173.645, 2.23794, 65.5322, 0.0709609, 155.933
0, 2340.00000, 126.012, -30.6005, 128.601, -150.571, 127.252, 88.6059, 0, 0, 2.25997, -53.6744, 2.21447, -173.645, 2.23794, 65.532, 0.0709743, 155.934
0, 2400.00000, 126.012, -30.6005, 128.601, -150.571, 127.252, 88.6057, 0, 0, 2.25997, -53.6744, 2.21446, -173.645, 2.23793, 65.5318, 0.0709863, 155.935
0, 2460.00000, 126.012, -30.6005, 128.602, -150.571, 127.253, 88.6056, 0, 0, 2.25997, -53.6744, 2.21445, -173.645, 2.23793, 65.5317, 0.0709972, 155.936
0, 2520.00000, 126.012, -30.6005, 128.602, -150.571, 127.253, 88.6055, 0, 0, 2.25997, -53.6744, 2.21445, -173.645, 2.23793, 65.5315, 0.0710069, 155.936
0, 2580.00000, 126.012, -30.6005, 128.602, -150.571, 127.253, 88.6053, 0, 0, 2.25997, -53.6744, 2.21444, -173.645, 2.23793, 65.5314, 0.0710157, 155.937
0, 2640.00000, 126.012, -30.6005, 128.603, -150.571, 127.253, 88.6052, 0, 0, 2.25997, -53.6744, 2.21444, -173.645, 2.23792, 65.5313, 0.0710236, 155.938
0, 2700.00000, 126.012, -30.6005, 128.603, -150.571, 127.253, 88.6051, 0, 0, 2.25997, -53.6744, 2.21443, -173.645, 2.23792, 65.5312, 0.0710307, 155.938
0, 2760.00000, 126.012, -30.6005, 128.603, -150.571, 127.253, 88.6051, 0, 0, 2.25997, -53.6744, 2.21443, -173.645, 2.23792, 65.5312, 0.0710371, 155.938
0, 2820.00000, 126.012, -30.6005, 128.603, -150.571, 127.253, 88.605, 0, 0, 2.25997, -53.6744, 2.21443, -173.645, 2.23792, 65.5311, 0.0710429, 155.939
0, 2880.00000, 126.012, -30.6005, 128.604, -150.571, 127.253, 88.6049, 0, 0, 2.25997, -53.6744, 2.21442, -173.645, 2.23792, 65.531, 0.0710481, 155.939
0, 2940.00000, 126.012, -30.6005, 128.604, -150.571, 127.253, 88.6049, 0, 0, 2.25997, -53.6744, 2.21442, -173.645, 2.23792, 65.5309, 0.0710528, 155.939
0, 3000.00000, 126.012, -30.6005, 128.604, -150.571, 127.253, 88.6048, 0, 0, 2.25997, -53.6744, 2.21442, -173.645, 2.23792, 65.5309, 0.071057, 155.94
0, 3060.00000, 126.012, -30.6005, 128.604, -150.571, 127.254, 88.6048, 0, 0, 2.25997, -53.6744, 2.21442, -173.645, 2.23792, 65.5308, 0.0710607, 155.94
0, 3120.00000, 126.012, -30.6005, 128.604, -150.571, 127.254, 88.6047, 0, 0, 2.25997, -53.6744, 2.21441, -173.645, 2.23791, 65.5308, 0.0710641, 155.94
0, 3180.00000, 126.012, -30.6005, 128.604, -150.571, 127.254, 88.6047, 0, 0, 2.25997, -53.6744, 2.21441, -173.645, 2.23791, 65.5308, 0.0710672, 155.94
0, 3240.00000, 126.012, -30.6005, 128.604, -150.571, 127.254, 88.6046, 0, 0, 2.25997, -53.6744, 2.21441, -173.645, 2.23791, 65.5307, 0.07107, 155.941
0, 3300.00000, 126.012, -30.6005, 128.604, -150.571, 127.254, 88.6046, 0, 0, 2.25997, -53.6744, 2.21441, -173.645, 2.23791, 65.5307, 0.0710724, 155.941
0, 3360.00000, 126.012, -30.6005, 128.604, -150.571, 127.254, 88.6046, 0, 0, 2.25997, -53.6744, 2.21441, -173.645, 2.23791, 65.5307, 0.0710747, 155.941
0, 3420.00000, 126.012, -30.6005, 128.605, -150.571, 127.254, 88.6045, 0, 0, 2.25997, -53.6744, 2.21441, -173.645, 2.23791, 65.5306, 0.0710767, 155.941
0, 3480.00000, 126.012, -30.6005, 128.605, -150.571, 127.254, 88.6045, 0, 0, 2.25997, -53.6744, 2.21441, -173.645, 2.23791, 65.5306, 0.0710785, 155.941
0, 3540.00000, 126.012, -30.6005, 128.605, -150.571, 127.254, 88.6045, 0, 0, 2.25997, -53.6744, 2.2144, -173.645, 2.23791, 65.5306, 0.0710801, 155.941
1, 0.00000, 126.012, -30.6005, 128.605, -150.571, 127.254, 88.6045, 0, 0, 2.25997, -53.6744, 2.2144, -173.645, 2.23791, 65.5306, 0.0710816, 155.941
1, 60.00000, 126.012, -30.6005, 128.605, -150.571, 127.254, 88.6045, 0, 0, 2.25997, -53.6744, 2.2144, -173.645, 2.23791, 65.5305, 0.0710829, 155.942
1, 120.00000, 126.012, -30.6005, 128.605, -150.571, 127.254, 88.6045, 0, 0, 2.25997, -53.6744, 2.2144, -173.645, 2.23791, 65.5305, 0.0710841, 155.942
1, 180.00000, 126.012, -30.6005, 128.605, -150.571, 127.254, 88.6044, 0, 0, 2.25997, -53.6744, 2.2144, -173.645, 2.23791, 65.5305, 0.0710852, 155.942
1, 240.00000, 126.012, -30.6005, 128.605, -150.571, 127.254, 88.6044, 0, 0, 2.25997, -53.6744, 2.2144, -173.645, 2.23791, 65.5305, 0.0710861, 155.942
1, 300.00000, 126.012, -30.6005, 128.605, -150.571, 127.254, 88.6044, 0, 0, 2.25997, -53.6744, 2.2144, -173.645, 2.23791, 65.5305, 0.071087, 155.942
1, 360.00000, 126.012, -30.6005, 128.605, -150.571, 127.254, 88.6044, 0, 0, 2.25997, -53.6744, 2.2144, -173.645, 2.23791, 65.5305, 0.0710878, 155.942
1, 420.00000, 126.012, -30.6005, 128.605, -150.571, 127.254, 88.6044, 0, 0, 2.25997, -53.6744, 2.2144, -173.645, 2.23791, 65.5305, 0.0710885, 155.942
1, 480.00000, 126.012, -30.6005, 128.605, -150.571, 127.254, 88.6044, 0, 0, 2.25997, -53.6744, 2.2144, -173.645, 2.23791, 65.5305, 0.0710891, 155.942
1, 540.00000, 126.012, -30.6005, 128.605, -150.571, 127.254, 88.6044, 0, 0, 2.25997, -53.6744, 2.2144, -173.645, 2.23791, 65.5305, 0.0710897, 155.942
1, 600.00000, 126.012, -30.6005, 128.605, -150.571, 127.254, 88.6044, 0, 0, 2.25997, -53.6744, 2.2144, -173.645, 2.23791, 65.5305, 0.0710902, 155.942
1, 660.00000, 126.012, -30.6005, 128.605, -150.571, 127.254, 88.6044, 0, 0, 2.25997, -53.6744, 2.2144, -173.645, 2.23791, 65.5304, 0.0710906, 155.942
1, 720.00000, 126.012, -30.6005, 128.605, -150.571, 127.254, 88.6044, 0, 0, 2.25997, -53.6744, 2.2144, -173.645, 2.23791, 65.5304, 0.071091, 155.942
1, 780.00000, 126.012, -30.6005, 128.605, -150.571, 127.254, 88.6044, 0, 0, 2.25997, -53.6744, 2.2144, -173.645, 2.23791, 65.5304, 0.0710914, 155.942
1, 840.00000, 126.012, -30.6005, 128.605, -150.571, 127.254, 88.6043, 0, 0, 2.25997, -53.6744, 2.2144, -173.645, 2.23791, 65.5304, 0.0710918, 155.942
1, 900.00000, 126.012, -30.6005, 128.605, -150.571, 127.254, 88.6043, 0, 0, 2.25997, -53.6744, 2.2144, -173.645, 2.23791, 65.5304, 0.0710921, 155.942
1, 960.00000, 126.012, -30.6005, 128.605, -150.571, 127.254, 88.6043, 0, 0, 2.25997, -53.6744, 2.2144, -173.645, 2.23791, 65.5304, 0.0710923, 155.942
1, 1020.00000, 126.012, -30.6005, 128.605, -150.571, 127.254, 88.6043, 0, 0, 2.25997, -53.6744, 2.2144, -173.645, 2.23791, 65.5304, 0.0710926, 155.942
1, 1080.00000, 126.012, -30.6005, 128.605, -150.571, 127.254, 88.6043, 0, 0, 2.25997, -53.6744, 2.2144, -173.645, 2.23791, 65.5304, 0.0710928, 155.942
1, 1140.00000, 126.012, -30.6005, 128.605, -150.571, 127.254, 88.6043, 0, 0, 2.25997, -53.6744, 2.2144, -173.645, 2.23791, 65.5304, 0.071093, 155.942
1, 1200.00000, 126.012, -30.6005, 128.605, -150.571, 127.254, 88.6043, 0, 0, 2.25997, -53.6744, 2.2144, -173.645, 2.23791, 65.5304, 0.0710932, 155.942
1, 1260.00000, 126.012, -30.6005, 128.605, -150.571, 127.254, 88.6043, 0, 0, 2.25997, -53.6744, 2.2144, -173.645, 2.23791, 65.5304, 0.0710933, 155.942
1, 1320.00000, 126.012, -30.6005, 128.605, -150.571, 127.254, 88.6043, 0, 0, 2.25997, -53.6744, 2.2144, -173.645, 2.23791, 65.5304, 0.0710935, 155.942
1, 1380.00000, 126.012, -30.6005, 128.605, -150.571, 127.254, 88.6043, 0, 0, 2.25997, -53.6744, 2.2144, -173.645, 2.23791, 65.5304, 0.0710936, 155.942
1, 1440.00000, 126.012, -30.6005, 128.605, -150.571, 127.254, 88.6043, 0, 0, 2.25997, -53.6744, 2.2144, -173.645, 2.23791, 65.5304, 0.0710937, 155.942
1, 1500.00000, 126.012, -30.6005, 128.605, -150.571, 127.254, 88.6043, 0, 0, 2.25997, -53.6744, 2.2144, -173.645, 2.23791, 65.5304, 0.0710938, 155.942
1, 1560.00000, 126.012, -30.6005, 128.605, -150.571, 127.254, 88.6043, 0, 0, 2.25997, -53.6744, 2.2144, -173.645, 2.23791, 65.5304, 0.0710939, 155.942
1, 1620.00000, 126.012, -30.6005, 128.605, -150.571, 127.254, 88.6043, 0, 0, 2.25997, -53.6744, 2.2144, -173.645, 2.23791, 65.5304, 0.071094, 155.942
1, 1680.00000, 126.012, -30.6005, 128.605, -150.571, 127.254, 88.6043, 0, 0, 2.25997, -53.6744, 2.2144, -173.645, 2.23791, 65.5304, 0.0710941, 155.942
1, 1740.00000, 126.012, -30.6005, 128.605, -150.571, 127.254, 88.6043, 0, 0, 2.25997, -53.6744, 2.2144, -173.645, 2.23791, 65.5304, 0.0710942, 155.942
1, 1800.00000, 126.012, -30.6005, 128.605, -150.571, 127.254, 88.6043, 0, 0, 2.25997, -53.6744, 2.2144, -173.645, 2.23791, 65.5304, 0.0710942, 155.942
1, 1860.00000, 126.012, -30.6005, 128.605, -150.571, 127.254, 88.6043, 0, 0, 2.25997, -53.6744, 2.2144, -173.645, 2.23791, 65.5304, 0.0710943, 155.942
1, 1920.00000, 126.012, -30.6005, 128.605, -150.571, 127.254, 88.6043, 0, 0, 2.25997, -53.6744, 2.2144, -173.645, 2.23791, 65.5304, 0.0710943, 155.942
1, 1980.00000, 126.012, -30.6005, 128.605, -150.571, 127.254, 88.6043, 0, 0, 2.25997, -53.6744, 2.2144, -173.645, 2.23791, 65.5304, 0.0710944, 155.942
1, 2040.00000, 126.012, -30.6005, 128.605, -150.571, 127.254, 88.6043, 0, 0, 2.25997, -53.6744, 2.2144, -173.645, 2.23791, 65.5304, 0.0710944, 155.942
1, 2100.00000, 126.012, -30.6005, 128.605, -150.571, 127.254, 88.6043, 0, 0, 2.25997, -53.6744, 2.2144, -173.645, 2.23791, 65.5304, 0.0710944, 155.942
1, 2160.00000, 126.012, -30.6005, 128.605, -150.571, 127.254, 88.6043, 0, 0, 2.25997, -53.6744, 2.2144, -173.645, 2.23791, 65.5304, 0.0710945, 155.942
1, 2220.00000, 126.012, -30.6005, 128.605, -150.571, 127.254, 88.6043, 0, 0, 2.25997, -53.6744, 2.2144, -173.645, 2.23791, 65.5304, 0.0710945, 155.942
1, 2280.00000, 126.012, -30.6005, 128.605, -150.571, 127.254, 88.6043, 0, 0, 2.25997, -53.6744, 2.2144, -173.645, 2.23791, 65.5304, 0.0710945, 155.942
1, 2340.00000, 126.012, -30.6005, 128.605, -150.571, 127.254, 88.6043, 0, 0, 2.25997, -53.6744, 2.2144, -173.645, 2.23791, 65.5304, 0.0710946, 155.942
1, 2400.00000, 126.012, -30.6005, 128.605, -150.571, 127.254, 88.6043, 0, 0, 2.25997, -53.6744, 2.2144, -173.645, 2.23791, 65.5304, 0.0710946, 155.942
1, 2460.00000, 126.012, -30.6005, 128.605, -150.571, 127.254, 88.6043, 0, 0, 2.25997, -53.6744, 2.2144, -173.645, 2.23791, 65.5304, 0.0710946, 155.942
1, 2520.00000, 126.012, -30.6005, 128.605, -150.571, 127.254, 88.6043, 0, 0, 2.25997, -53.6744, 2.2144, -173.645, 2.23791, 65.5304, 0.0710946, 155.942
1, 2580.00000, 126.012, -30.6005, 128.605, -150.571, 127.254, 88.6043, 0, 0, 2.25997, -53.6744, 2.2144, -173.645, 2.23791, 65.5304, 0.0710946, 155.942
1, 2640.00000, 126.012, -30.6005, 128.605, -150.571, 127.254, 88.6043, 0, 0, 2.25997, -53.6744, 2.2144, -173.645, 2.23791, 65.5304, 0.0710946, 155.942
1, 2700.00000, 126.012, -30.6005, 128.605, -150.571, 127.254, 88.6043, 0, 0, 2.25997, -53.6744, 2.2144, -173.645, 2.23791, 65.5304, 0.0710947, 155.942
1, 2760.00000, 126.012, -30.6005, 128.605, -150.571, 127.254, 88.6043, 0, 0, 2.25997, -53.6744, 2.2144, -173.645, 2.23791, 65.5304, 0.0710947, 155.942
1, 2820.00000, 126.012, -30.6005, 128.605, -150.571, 127.254, 88.6043, 0, 0, 2.25997, -53.6744, 2.2144, -173.645, 2.23791, 65.5304, 0.0710947, 155.942
1, 2880.00000, 126.012, -30.6005, 128.605, -150.571, 127.254, 88.6043, 0, 0, 2.25997, -53.6744, 2.2144, -173.645, 2.23791, 65.5304, 0.0710947, 155.942
1, 2940.00000, 126.012, -30.6005, 128.605, -150.571, 127.254, 88.6043, 0, 0, 2.25997, -53.6744, 2.2144, -173.645, 2.23791, 65.5304, 0.0710947, 155.942
1, 3000.00000, 126.012, -30.6005, 128.605, -150.571, 127.254, 88.6043, 0, 0, 2.25997, -53.6744, 2.2144, -173.645, 2.23791, 65.5304, 0.0710947, 155.942
1, 3060.00000, 126.012, -30.6005, 128.605, -150.571, 127.254, 88.6043, 0, 0, 2.25997, -53.6744, 2.2144, -173.645, 2.23791, 65.5304, 0.0710947, 155.942
1, 3120.00000, 126.012, -30.6005, 128.605, -150.571, 127.254, 88.6043, 0, 0, 2.25997, -53.6744, 2.2144, -173.645, 2.23791, 65.5304, 0.0710947, 155.942
1, 3180.00000, 126.012, -30.6005, 128.605, -150.571, 127.254, 88.6043, 0, 0, 2.25997, -53.6744, 2.2144, -173.645, 2.23791, 65.5304, 0.0710947, 155.942
1, 3240.00000, 126.012, -30.6005, 128.605, -150.571, 127.254, 88.6043, 0, 0, 2.25997, -53.6744, 2.2144, -173.645, 2.23791, 65.5304, 0.0710947, 155.942
1, 3300.00000, 126.012, -30.6005, 128.605, -150.571, 127.254, 88.6043, 0, 0, 2.25997, -53.6744, 2.2144, -173.645, 2.23791, 65.5304, 0.0710947, 155.942
1, 3360.00000, 126.012, -30.6005, 128.605, -150.571, 127.254, 88.6043, 0, 0, 2.25997, -53.6744, 2.2144, -173.645, 2.23791, 65.5304, 0.0710947, 155.942
1, 3420.00000, 126.012, -30.6005, 128.605, -150.571, 127.254, 88.6043, 0, 0, 2.25997, -53.6744, 2.2144, -173.645, 2.23791, 65.5304, 0.0710947, 155.942
1, 3480.00000, 126.012, -30.6005, 128.605, -150.571, 127.254, 88.6043, 0, 0, 2.25997, -53.6744, 2.2144, -173.645, 2.23791, 65.5304, 0.0710947, 155.942
1, 3540.00000, 126.012, -30.6005, 128.605, -150.571, 127.254, 88.6043, 0, 0, 2.25997, -53.6744, 2.2144, -173.645, 2.23791, 65.5304, 0.0710948, 155.942
2, 0.00000, 126.012, -30.6005, 128.605, -150.571, 127.254, 88.6043, 0, 0, 2.25997, -53.6744, 2.2144, -173.645, 2.23791, 65.5304, 0.0710948, 155.942
2, 60.00000, 126.012, -30.6005, 128.605, -150.571, 127.254, 88.6043, 0, 0, 2.25997, -53.6744, 2.2144, -173.645, 2.23791, 65.5304, 0.0710948, 155.942
2, 120.00000, 126.006, -30.6017, 128.6, -150.572, 127.249, 88.6033, 0, 0, 2.26632, -53.6756, 2.2206, -173.646, 2.24419, 65.5294, 0.0713015, 155.937
2, 180.00000, 126.001, -30.6029, 128.596, -150.573, 127.244, 88.6022, 0, 0, 2.27274, -53.6769, 2.22689, -173.647, 2.25055, 65.5283, 0.0715109, 155.932
2, 240.00000, 125.996, -30.6042, 128.591, -150.574, 127.239, 88.6012, 0, 0, 2.2791, -53.6781, 2.2331, -173.648, 2.25683, 65.5273, 0.0717178, 155.927
2, 300.00000, 125.99, -30.6054, 128.586, -150.575, 127.234, 88.6002, 0, 0, 2.28545, -53.6793, 2.23931, -173.649, 2.26311, 65.5262, 0.0719247, 155.922
2, 360.00000, 125.985, -30.6066, 128.581, -150.576, 127.228, 88.5991, 0, 0, 2.29188, -53.6805, 2.24559, -173.65, 2.26947, 65.5252, 0.0721342, 155.917
2, 420.00000, 125.979, -30.6078, 128.576, -150.578, 127.223, 88.5981, 0, 0, 2.29823, -53.6817, 2.25181, -173.651, 2.27575, 65.5242, 0.0723413, 155.912
2, 480.00000, 125.974, -30.609, 128.572, -150.579, 127.218, 88.597, 0, 0, 2.30458, -53.6829, 2.25802, -173.653, 2.28204, 65.5231, 0.0725484, 155.908
2, 540.00000, 125.968, -30.6102, 128.567, -150.58, 127.213, 88.596, 0, 0, 2.31101, -53.6842, 2.26431, -173.654, 2.2884, 65.5221, 0.0727581, 155.902
2, 600.00000, 125.963, -30.6115, 128.562, -150.581, 127.208, 88.595, 0, 0, 2.31737, -53.6854, 2.27052, -173.655, 2.29469, 65.521, 0.0729654, 155.898
2, 660.00000, 125.957, -30.6127, 128.557, -150.582, 127.203, 88.5939, 0, 0, 2.32372, -53.6866, 2.27673, -173.656, 2.30097, 65.52, 0.0731727, 155.893
2, 720.00000, 125.952, -30.6139, 128.552, -150.583, 127.198, 88.5929, 0, 0, 2.33016, -53.6878, 2.28302, -173.657, 2.30733, 65.519, 0.0733825, 155.888
