hour,t(sec),V1,VAngle1,V2,VAngle2,V3,VAngle3,V4,VAngle4,I1,IAngle1,I2,IAngle2,I3,IAngle3,I4,IAngle4
0, 60.00000, 125.893, -30.5644, 126.015, -150.489, 126.091, 89.5451, 0, 0, 3.21693, -53.6378, 3.21384, -173.562, 3.21191, 66.4713, 0.00727302, 55.8509
0, 120.00000, 125.893, -30.5644, 126.015, -150.489, 126.091, 89.5451, 0, 0, 3.21701, -53.6383, 3.21391, -173.563, 3.21197, 66.4711, 0.00729007, 55.9425
0, 180.00000, 125.893, -30.5644, 126.015, -150.489, 126.091, 89.5451, 0, 0, 3.21701, -53.6383, 3.21391, -173.563, 3.21197, 66.4711, 0.00729011, 55.943
0, 240.00000, 125.893, -30.5644, 126.015, -150.489, 126.091, 89.5451, 0, 0, 3.21701, -53.6383, 3.21391, -173.563, 3.21197, 66.4711, 0.00729011, 55.943
0, 300.00000, 125.893, -30.5644, 126.015, -150.489, 126.091, 89.5451, 0, 0, 3.21701, -53.6383, 3.21391, -173.563, 3.21197, 66.4711, 0.00729011, 55.943
0, 360.00000, 125.893, -30.5644, 126.015, -150.489, 126.091, 89.5451, 0, 0, 3.21701, -53.6383, 3.21391, -173.563, 3.21197, 66.4711, 0.00729011, 55.943
0, 420.00000, 125.893, -30.5644, 126.015, -150.489, 126.091, 89.5451, 0, 0, 3.21701, -53.6383, 3.21391, -173.563, 3.21197, 66.4711, 0.00729011, 55.943
0, 480.00000, 125.893, -30.5644, 126.015, -150.489, 126.091, 89.5451, 0, 0, 3.21701, -53.6383, 3.21391, -173.563, 3.21197, 66.4711, 0.00729011, 55.943
0, 540.00000, 125.893, -30.5644, 126.015, -150.489, 126.091, 89.5451, 0, 0, 3.21701, -53.6383, 3.21391, -173.563, 3.21197, 66.4711, 0.00729011, 55.943
0, 600.00000, 125.893, -30.5644, 126.015, -150.489, 126.091, 89.5451, 0, 0, 3.21701, -53.6383, 3.21391, -173.563, 3.21197, 66.4711, 0.00729011, 55.943
0, 660.00000, 125.893, -30.5644, 126.015, -150.489, 126.091, 89.5451, 0, 0, 3.21701, -53.6383, 3.21391, -173.563, 3.21197, 66.4711, 0.00729011, 55.943
0, 720.00000, 125.893, -30.5644, 126.015, -150.489, 126.091, 89.5451, 0, 0, 3.21701, -53.6383, 3.21391, -173.563, 3.21197, 66.4711, 0.00729011, 55.943
0, 780.00000, 125.893, -30.5644, 126.015, -150.489, 126.091, 89.5451, 0, 0, 3.21701, -53.6383, 3.21391, -173.563, 3.21197, 66.4711, 0.00729011, 55.943
0, 840.00000, 125.893, -30.5644, 126.015, -150.489, 126.091, 89.5451, 0, 0, 3.21701, -53.6383, 3.21391, -173.563, 3.21197, 66.4711, 0.00729011, 55.943
0, 900.00000, 125.893, -30.5644, 126.015, -150.489, 126.091, 89.5451, 0, 0, 3.21701, -53.6383, 3.21391, -173.563, 3.21197, 66.4711, 0.00729011, 55.943
0, 960.00000, 125.893, -30.5644, 126.015, -150.489, 126.091, 89.5451, 0, 0, 3.21701, -53.6383, 3.21391, -173.563, 3.21197, 66.4711, 0.00729011, 55.943
0, 1020.00000, 125.893, -30.5644, 126.015, -150.489, 126.091, 89.5451, 0, 0, 3.21701, -53.6383, 3.21391, -173.563, 3.21197, 66.4711, 0.00729011, 55.943
0, 1080.00000, 125.893, -30.5644, 126.015, -150.489, 126.091, 89.5451, 0, 0, 3.21701, -53.6383, 3.21391, -173.563, 3.21197, 66.4711, 0.00729011, 55.943
0, 1140.00000, 125.893, -30.5644, 126.015, -150.489, 126.091, 89.5451, 0, 0, 3.21701, -53.6383, 3.21391, -173.563, 3.21197, 66.4711, 0.00729011, 55.943
0, 1200.00000, 125.893, -30.5644, 126.015, -150.489, 126.091, 89.5451, 0, 0, 3.21701, -53.6383, 3.21391, -173.563, 3.21197, 66.4711, 0.00729011, 55.943
0, 1260.00000, 125.893, -30.5644, 126.015, -150.489, 126.091, 89.5451, 0, 0, 3.21701, -53.6383, 3.21391, -173.563, 3.21197, 66.4711, 0.00729011, 55.943
0, 1320.00000, 125.893, -30.5644, 126.015, -150.489, 126.091, 89.5451, 0, 0, 3.21701, -53.6383, 3.21391, -173.563, 3.21197, 66.4711, 0.00729011, 55.943
0, 1380.00000, 125.893, -30.5644, 126.015, -150.489, 126.091, 89.5451, 0, 0, 3.21701, -53.6383, 3.21391, -173.563, 3.21197, 66.4711, 0.00729011, 55.943
0, 1440.00000, 125.893, -30.5644, 126.015, -150.489, 126.091, 89.5451, 0, 0, 3.21701, -53.6383, 3.21391, -173.563, 3.21197, 66.4711, 0.00729011, 55.943
0, 1500.00000, 125.893, -30.5644, 126.015, -150.489, 126.091, 89.5451, 0, 0, 3.21701, -53.6383, 3.21391, -173.563, 3.21197, 66.4711, 0.00729011, 55.943
0, 1560.00000, 125.893, -30.5644, 126.015, -150.489, 126.091, 89.5451, 0, 0, 3.21701, -53.6383, 3.21391, -173.563, 3.21197, 66.4711, 0.00729011, 55.943
0, 1620.00000, 125.893, -30.5644, 126.015, -150.489, 126.091, 89.5451, 0, 0, 3.21701, -53.6383, 3.21391, -173.563, 3.21197, 66.4711, 0.00729011, 55.943
0, 1680.00000, 125.893, -30.5644, 126.015, -150.489, 126.091, 89.5451, 0, 0, 3.21701, -53.6383, 3.21391, -173.563, 3.21197, 66.4711, 0.00729011, 55.943
0, 1740.00000, 125.893, -30.5644, 126.015, -150.489, 126.091, 89.5451, 0, 0, 3.21701, -53.6383, 3.21391, -173.563, 3.21197, 66.4711, 0.00729011, 55.943
0, 1800.00000, 125.893, -30.5644, 126.015, -150.489, 126.091, 89.5451, 0, 0, 3.21701, -53.6383, 3.21391, -173.563, 3.21197, 66.4711, 0.00729011, 55.943
0, 1860.00000, 125.893, -30.5644, 126.015, -150.489, 126.091, 89.5451, 0, 0, 3.21701, -53.6383, 3.21391, -173.563, 3.21197, 66.4711, 0.00729011, 55.943
0, 1920.00000, 125.893, -30.5644, 126.015, -150.489, 126.091, 89.5451, 0, 0, 3.21701, -53.6383, 3.21391, -173.563, 3.21197, 66.4711, 0.00729011, 55.943
0, 1980.00000, 125.893, -30.5644, 126.015, -150.489, 126.091, 89.5451, 0, 0, 3.21701, -53.6383, 3.21391, -173.563, 3.21197, 66.4711, 0.00729011, 55.943
0, 2040.00000, 125.893, -30.5644, 126.015, -150.489, 126.091, 89.5451, 0, 0, 3.21701, -53.6383, 3.21391, -173.563, 3.21197, 66.4711, 0.00729011, 55.943
0, 2100.00000, 125.893, -30.5644, 126.015, -150.489, 126.091, 89.5451, 0, 0, 3.21701, -53.6383, 3.21391, -173.563, 3.21197, 66.4711, 0.00729011, 55.943
0, 2160.00000, 125.893, -30.5644, 126.015, -150.489, 126.091, 89.5451, 0, 0, 3.21701, -53.6383, 3.21391, -173.563, 3.21197, 66.4711, 0.00729011, 55.943
0, 2220.00000, 125.893, -30.5644, 126.015, -150.489, 126.091, 89.5451, 0, 0, 3.21701, -53.6383, 3.21391, -173.563, 3.21197, 66.4711, 0.00729011, 55.943
0, 2280.00000, 125.893, -30.5644, 126.015, -150.489, 126.091, 89.5451, 0, 0, 3.21701, -53.6383, 3.21391, -173.563, 3.21197, 66.4711, 0.00729011, 55.943
0, 2340.00000, 125.893, -30.5644, 126.015, -150.489, 126.091, 89.5451, 0, 0, 3.21701, -53.6383, 3.21391, -173.563, 3.21197, 66.4711, 0.00729011, 55.943
0, 2400.00000, 125.893, -30.5644, 126.015, -150.489, 126.091, 89.5451, 0, 0, 3.21701, -53.6383, 3.21391, -173.563, 3.21197, 66.4711, 0.00729011, 55.943
0, 2460.00000, 125.893, -30.5644, 126.015, -150.489, 126.091, 89.5451, 0, 0, 3.21701, -53.6383, 3.21391, -173.563, 3.21197, 66.4711, 0.00729011, 55.943
0, 2520.00000, 125.893, -30.5644, 126.015, -150.489, 126.091, 89.5451, 0, 0, 3.21701, -53.6383, 3.21391, -173.563, 3.21197, 66.4711, 0.00729011, 55.943
0, 2580.00000, 125.893, -30.5644, 126.015, -150.489, 126.091, 89.5451, 0, 0, 3.21701, -53.6383, 3.21391, -173.563, 3.21197, 66.4711, 0.00729011, 55.943
0, 2640.00000, 125.893, -30.5644, 126.015, -150.489, 126.091, 89.5451, 0, 0, 3.21701, -53.6383, 3.21391, -173.563, 3.21197, 66.4711, 0.00729011, 55.943
0, 2700.00000, 125.893, -30.5644, 126.015, -150.489, 126.091, 89.5451, 0, 0, 3.21701, -53.6383, 3.21391, -173.563, 3.21197, 66.4711, 0.00729011, 55.943
0, 2760.00000, 125.893, -30.5644, 126.015, -150.489, 126.091, 89.5451, 0, 0, 3.21701, -53.6383, 3.21391, -173.563, 3.21197, 66.4711, 0.00729011, 55.943
0, 2820.00000, 125.893, -30.5644, 126.015, -150.489, 126.091, 89.5451, 0, 0, 3.21701, -53.6383, 3.21391, -173.563, 3.21197, 66.4711, 0.00729011, 55.943
0, 2880.00000, 125.893, -30.5644, 126.015, -150.489, 126.091, 89.5451, 0, 0, 3.21701, -53.6383, 3.21391, -173.563, 3.21197, 66.4711, 0.00729011, 55.943
0, 2940.00000, 125.893, -30.5644, 126.015, -150.489, 126.091, 89.5451, 0, 0, 3.21701, -53.6383, 3.21391, -173.563, 3.21197, 66.4711, 0.00729011, 55.943
0, 3000.00000, 125.893, -30.5644, 126.015, -150.489, 126.091, 89.5451, 0, 0, 3.21701, -53.6383, 3.21391, -173.563, 3.21197, 66.4711, 0.00729011, 55.943
0, 3060.00000, 125.893, -30.5644, 126.015, -150.489, 126.091, 89.5451, 0, 0, 3.21701, -53.6383, 3.21391, -173.563, 3.21197, 66.4711, 0.00729011, 55.943
0, 3120.00000, 125.893, -30.5644, 126.015, -150.489, 126.091, 89.5451, 0, 0, 3.21701, -53.6383, 3.21391, -173.563, 3.21197, 66.4711, 0.00729011, 55.943
0, 3180.00000, 125.893, -30.5644, 126.015, -150.489, 126.091, 89.5451, 0, 0, 3.21701, -53.6383, 3.21391, -173.563, 3.21197, 66.4711, 0.00729011, 55.943
0, 3240.00000, 125.893, -30.5644, 126.015, -150.489, 126.091, 89.5451, 0, 0, 3.21701, -53.6383, 3.21391, -173.563, 3.21197, 66.4711, 0.00729011, 55.943
0, 3300.00000, 125.893, -30.5644, 126.015, -150.489, 126.091, 89.5451, 0, 0, 3.21701, -53.6383, 3.21391, -173.563, 3.21197, 66.4711, 0.00729011, 55.943
0, 3360.00000, 125.893, -30.5644, 126.015, -150.489, 126.091, 89.5451, 0, 0, 3.21701, -53.6383, 3.21391, -173.563, 3.21197, 66.4711, 0.00729011, 55.943
0, 3420.00000, 125.893, -30.5644, 126.015, -150.489, 126.091, 89.5451, 0, 0, 3.21701, -53.6383, 3.21391, -173.563, 3.21197, 66.4711, 0.00729011, 55.943
0, 3480.00000, 125.893, -30.5644, 126.015, -150.489, 126.091, 89.5451, 0, 0, 3.21701, -53.6383, 3.21391, -173.563, 3.21197, 66.4711, 0.00729011, 55.943
0, 3540.00000, 125.893, -30.5644, 126.015, -150.489, 126.091, 89.5451, 0, 0, 3.21701, -53.6383, 3.21391, -173.563, 3.21197, 66.4711, 0.00729011, 55.943
1, 0.00000, 125.893, -30.5644, 126.015, -150.489, 126.091, 89.5451, 0, 0, 3.21701, -53.6383, 3.21391, -173.563, 3.21197, 66.4711, 0.00729011, 55.943
1, 60.00000, 125.893, -30.5644, 126.015, -150.489, 126.091, 89.5451, 0, 0, 3.21701, -53.6383, 3.21391, -173.563, 3.21197, 66.4711, 0.00729011, 55.943
1, 120.00000, 125.893, -30.5644, 126.015, -150.489, 126.091, 89.5451, 0, 0, 3.21701, -53.6383, 3.21391, -173.563, 3.21197, 66.4711, 0.00729011, 55.943
1, 180.00000, 125.893, -30.5644, 126.015, -150.489, 126.091, 89.5451, 0, 0, 3.21701, -53.6383, 3.21391, -173.563, 3.21197, 66.4711, 0.00729011, 55.943
1, 240.00000, 125.893, -30.5644, 126.015, -150.489, 126.091, 89.5451, 0, 0, 3.21701, -53.6383, 3.21391, -173.563, 3.21197, 66.4711, 0.00729011, 55.943
1, 300.00000, 125.893, -30.5644, 126.015, -150.489, 126.091, 89.5451, 0, 0, 3.21701, -53.6383, 3.21391, -173.563, 3.21197, 66.4711, 0.00729011, 55.943
1, 360.00000, 125.893, -30.5644, 126.015, -150.489, 126.091, 89.5451, 0, 0, 3.21701, -53.6383, 3.21391, -173.563, 3.21197, 66.4711, 0.00729011, 55.943
1, 420.00000, 125.893, -30.5644, 126.015, -150.489, 126.091, 89.5451, 0, 0, 3.21701, -53.6383, 3.21391, -173.563, 3.21197, 66.4711, 0.00729011, 55.943
1, 480.00000, 125.893, -30.5644, 126.015, -150.489, 126.091, 89.5451, 0, 0, 3.21701, -53.6383, 3.21391, -173.563, 3.21197, 66.4711, 0.00729011, 55.943
1, 540.00000, 125.893, -30.5644, 126.015, -150.489, 126.091, 89.5451, 0, 0, 3.21701, -53.6383, 3.21391, -173.563, 3.21197, 66.4711, 0.00729011, 55.943
1, 600.00000, 125.893, -30.5644, 126.015, -150.489, 126.091, 89.5451, 0, 0, 3.21701, -53.6383, 3.21391, -173.563, 3.21197, 66.4711, 0.00729011, 55.943
1, 660.00000, 125.893, -30.5644, 126.015, -150.489, 126.091, 89.5451, 0, 0, 3.21701, -53.6383, 3.21391, -173.563, 3.21197, 66.4711, 0.00729011, 55.943
1, 720.00000, 125.893, -30.5644, 126.015, -150.489, 126.091, 89.5451, 0, 0, 3.21701, -53.6383, 3.21391, -173.563, 3.21197, 66.4711, 0.00729011, 55.943
1, 780.00000, 125.893, -30.5644, 126.015, -150.489, 126.091, 89.5451, 0, 0, 3.21701, -53.6383, 3.21391, -173.563, 3.21197, 66.4711, 0.00729011, 55.943
1, 840.00000, 125.893, -30.5644, 126.015, -150.489, 126.091, 89.5451, 0, 0, 3.21701, -53.6383, 3.21391, -173.563, 3.21197, 66.4711, 0.00729011, 55.943
1, 900.00000, 125.893, -30.5644, 126.015, -150.489, 126.091, 89.5451, 0, 0, 3.21701, -53.6383, 3.21391, -173.563, 3.21197, 66.4711, 0.00729011, 55.943
1, 960.00000, 125.893, -30.5644, 126.015, -150.489, 126.091, 89.5451, 0, 0, 3.21701, -53.6383, 3.21391, -173.563, 3.21197, 66.4711, 0.00729011, 55.943
1, 1020.00000, 125.893, -30.5644, 126.015, -150.489, 126.091, 89.5451, 0, 0, 3.21701, -53.6383, 3.21391, -173.563, 3.21197, 66.4711, 0.00729011, 55.943
1, 1080.00000, 125.893, -30.5644, 126.015, -150.489, 126.091, 89.5451, 0, 0, 3.21701, -53.6383, 3.21391, -173.563, 3.21197, 66.4711, 0.00729011, 55.943
1, 1140.00000, 125.893, -30.5644, 126.015, -150.489, 126.091, 89.5451, 0, 0, 3.21701, -53.6383, 3.21391, -173.563, 3.21197, 66.4711, 0.00729011, 55.943
1, 1200.00000, 125.893, -30.5644, 126.015, -150.489, 126.091, 89.5451, 0, 0, 3.21701, -53.6383, 3.21391, -173.563, 3.21197, 66.4711, 0.00729011, 55.943
1, 1260.00000, 125.893, -30.5644, 126.015, -150.489, 126.091, 89.5451, 0, 0, 3.21701, -53.6383, 3.21391, -173.563, 3.21197, 66.4711, 0.00729011, 55.943
1, 1320.00000, 125.893, -30.5644, 126.015, -150.489, 126.091, 89.5451, 0, 0, 3.21701, -53.6383, 3.21391, -173.563, 3.21197, 66.4711, 0.00729011, 55.943
1, 1380.00000, 125.893, -30.5644, 126.015, -150.489, 126.091, 89.5451, 0, 0, 3.21701, -53.6383, 3.21391, -173.563, 3.21197, 66.4711, 0.00729011, 55.943
1, 1440.00000, 125.893, -30.5644, 126.015, -150.489, 126.091, 89.5451, 0, 0, 3.21701, -53.6383, 3.21391, -173.563, 3.21197, 66.4711, 0.00729011, 55.943
1, 1500.00000, 125.893, -30.5644, 126.015, -150.489, 126.091, 89.5451, 0, 0, 3.21701, -53.6383, 3.21391, -173.563, 3.21197, 66.4711, 0.00729011, 55.943
1, 1560.00000, 125.893, -30.5644, 126.015, -150.489, 126.091, 89.5451, 0, 0, 3.21701, -53.6383, 3.21391, -173.563, 3.21197, 66.4711, 0.00729011, 55.943
1, 1620.00000, 125.893, -30.5644, 126.015, -150.489, 126.091, 89.5451, 0, 0, 3.21701, -53.6383, 3.21391, -173.563, 3.21197, 66.4711, 0.00729011, 55.943
1, 1680.00000, 125.893, -30.5644, 126.015, -150.489, 126.091, 89.5451, 0, 0, 3.21701, -53.6383, 3.21391, -173.563, 3.21197, 66.4711, 0.00729011, 55.943
1, 1740.00000, 125.893, -30.5644, 126.015, -150.489, 126.091, 89.5451, 0, 0, 3.21701, -53.6383, 3.21391, -173.563, 3.21197, 66.4711, 0.00729011, 55.943
1, 1800.00000, 125.893, -30.5644, 126.015, -150.489, 126.091, 89.5451, 0, 0, 3.21701, -53.6383, 3.21391, -173.563, 3.21197, 66.4711, 0.00729011, 55.943
1, 1860.00000, 125.893, -30.5644, 126.015, -150.489, 126.091, 89.5451, 0, 0, 3.21701, -53.6383, 3.21391, -173.563, 3.21197, 66.4711, 0.00729011, 55.943
1, 1920.00000, 125.893, -30.5644, 126.015, -150.489, 126.091, 89.5451, 0, 0, 3.21701, -53.6383, 3.21391, -173.563, 3.21197, 66.4711, 0.00729011, 55.943
1, 1980.00000, 125.893, -30.5644, 126.015, -150.489, 126.091, 89.5451, 0, 0, 3.21701, -53.6383, 3.21391, -173.563, 3.21197, 66.4711, 0.00729011, 55.943
1, 2040.00000, 125.893, -30.5644, 126.015, -150.489, 126.091, 89.5451, 0, 0, 3.21701, -53.6383, 3.21391, -173.563, 3.21197, 66.4711, 0.00729011, 55.943
1, 2100.00000, 125.893, -30.5644, 126.015, -150.489, 126.091, 89.5451, 0, 0, 3.21701, -53.6383, 3.21391, -173.563, 3.21197, 66.4711, 0.00729011, 55.943
1, 2160.00000, 125.893, -30.5644, 126.015, -150.489, 126.091, 89.5451, 0, 0, 3.21701, -53.6383, 3.21391, -173.563, 3.21197, 66.4711, 0.00729011, 55.943
1, 2220.00000, 125.893, -30.5644, 126.015, -150.489, 126.091, 89.5451, 0, 0, 3.21701, -53.6383, 3.21391, -173.563, 3.21197, 66.4711, 0.00729011, 55.943
1, 2280.00000, 125.893, -30.5644, 126.015, -150.489, 126.091, 89.5451, 0, 0, 3.21701, -53.6383, 3.21391, -173.563, 3.21197, 66.4711, 0.00729011, 55.943
1, 2340.00000, 125.893, -30.5644, 126.015, -150.489, 126.091, 89.5451, 0, 0, 3.21701, -53.6383, 3.21391, -173.563, 3.21197, 66.4711, 0.00729011, 55.943
1, 2400.00000, 125.893, -30.5644, 126.015, -150.489, 126.091, 89.5451, 0, 0, 3.21701, -53.6383, 3.21391, -173.563, 3.21197, 66.4711, 0.00729011, 55.943
1, 2460.00000, 125.893, -30.5644, 126.015, -150.489, 126.091, 89.5451, 0, 0, 3.21701, -53.6383, 3.21391, -173.563, 3.21197, 66.4711, 0.00729011, 55.943
1, 2520.00000, 125.893, -30.5644, 126.015, -150.489, 126.091, 89.5451, 0, 0, 3.21701, -53.6383, 3.21391, -173.563, 3.21197, 66.4711, 0.00729011, 55.943
1, 2580.00000, 125.893, -30.5644, 126.015, -150.489, 126.091, 89.5451, 0, 0, 3.21701, -53.6383, 3.21391, -173.563, 3.21197, 66.4711, 0.00729011, 55.943
1, 2640.00000, 125.893, -30.5644, 126.015, -150.489, 126.091, 89.5451, 0, 0, 3.21701, -53.6383, 3.21391, -173.563, 3.21197, 66.4711, 0.00729011, 55.943
1, 2700.00000, 125.893, -30.5644, 126.015, -150.489, 126.091, 89.5451, 0, 0, 3.21701, -53.6383, 3.21391, -173.563, 3.21197, 66.4711, 0.00729011, 55.943
1, 2760.00000, 125.893, -30.5644, 126.015, -150.489, 126.091, 89.5451, 0, 0, 3.21701, -53.6383, 3.21391, -173.563, 3.21197, 66.4711, 0.00729011, 55.943
1, 2820.00000, 125.893, -30.5644, 126.015, -150.489, 126.091, 89.5451, 0, 0, 3.21701, -53.6383, 3.21391, -173.563, 3.21197, 66.4711, 0.00729011, 55.943
1, 2880.00000, 125.893, -30.5644, 126.015, -150.489, 126.091, 89.5451, 0, 0, 3.21701, -53.6383, 3.21391, -173.563, 3.21197, 66.4711, 0.00729011, 55.943
1, 2940.00000, 125.893, -30.5644, 126.015, -150.489, 126.091, 89.5451, 0, 0, 3.21701, -53.6383, 3.21391, -173.563, 3.21197, 66.4711, 0.00729011, 55.943
1, 3000.00000, 125.893, -30.5644, 126.015, -150.489, 126.091, 89.5451, 0, 0, 3.21701, -53.6383, 3.21391, -173.563, 3.21197, 66.4711, 0.00729011, 55.943
1, 3060.00000, 125.893, -30.5644, 126.015, -150.489, 126.091, 89.5451, 0, 0, 3.21701, -53.6383, 3.21391, -173.563, 3.21197, 66.4711, 0.00729011, 55.943
1, 3120.00000, 125.893, -30.5644, 126.015, -150.489, 126.091, 89.5451, 0, 0, 3.21701, -53.6383, 3.21391, -173.563, 3.21197, 66.4711, 0.00729011, 55.943
1, 3180.00000, 125.893, -30.5644, 126.015, -150.489, 126.091, 89.5451, 0, 0, 3.21701, -53.6383, 3.21391, -173.563, 3.21197, 66.4711, 0.00729011, 55.943
1, 3240.00000, 125.893, -30.5644, 126.015, -150.489, 126.091, 89.5451, 0, 0, 3.21701, -53.6383, 3.21391, -173.563, 3.21197, 66.4711, 0.00729011, 55.943
1, 3300.00000, 125.893, -30.5644, 126.015, -150.489, 126.091, 89.5451, 0, 0, 3.21701, -53.6383, 3.21391, -173.563, 3.21197, 66.4711, 0.00729011, 55.943
1, 3360.00000, 125.893, -30.5644, 126.015, -150.489, 126.091, 89.5451, 0, 0, 3.21701, -53.6383, 3.21391, -173.563, 3.21197, 66.4711, 0.00729011, 55.943
1, 3420.00000, 125.893, -30.5644, 126.015, -150.489, 126.091, 89.5451, 0, 0, 3.21701, -53.6383, 3.21391, -173.563, 3.21197, 66.4711, 0.00729011, 55.943
1, 3480.00000, 125.893, -30.5644, 126.015, -150.489, 126.091, 89.5451, 0, 0, 3.21701, -53.6383, 3.21391, -173.563, 3.21197, 66.4711, 0.00729011, 55.943
1, 3540.00000, 125.893, -30.5644, 126.015, -150.489, 126.091, 89.5451, 0, 0, 3.21701, -53.6383, 3.21391, -173.563, 3.21197, 66.4711, 0.00729011, 55.943
2, 0.00000, 125.893, -30.5644, 126.015, -150.489, 126.091, 89.5451, 0, 0, 3.21701, -53.6383, 3.21391, -173.563, 3.21197, 66.4711, 0.00729011, 55.943
2, 60.00000, 125.893, -30.5644, 126.015, -150.489, 126.091, 89.5451, 0, 0, 3.21701, -53.6383, 3.21391, -173.563, 3.21197, 66.4711, 0.00729011, 55.943
2, 120.00000, 125.887, -30.5655, 126.009, -150.49, 126.085, 89.5441, 0, 0, 3.22607, -53.6393, 3.22294, -173.564, 3.221, 66.4702, 0.00731522, 56.0206
2, 180.00000, 125.881, -30.5665, 126.003, -150.491, 126.079, 89.5431, 0, 0, 3.23524, -53.6404, 3.23208, -173.565, 3.23015, 66.4692, 0.00734155, 56.1033
2, 240.00000, 125.874, -30.5676, 125.998, -150.492, 126.073, 89.5422, 0, 0, 3.2443, -53.6414, 3.24112, -173.566, 3.23919, 66.4683, 0.00736765, 56.185
2, 300.00000, 125.868, -30.5686, 125.992, -150.493, 126.067, 89.5412, 0, 0, 3.25337, -53.6425, 3.25016, -173.566, 3.24822, 66.4673, 0.00739379, 56.2666
2, 360.00000, 125.862, -30.5697, 125.986, -150.494, 126.061, 89.5402, 0, 0, 3.26254, -53.6436, 3.25932, -173.567, 3.25737, 66.4663, 0.00742028, 56.3491
2, 420.00000, 125.855, -30.5708, 125.98, -150.495, 126.055, 89.5392, 0, 0, 3.2716, -53.6446, 3.26836, -173.568, 3.26641, 66.4654, 0.00744652, 56.4305
2, 480.00000, 125.849, -30.5718, 125.975, -150.496, 126.05, 89.5383, 0, 0, 3.28067, -53.6457, 3.2774, -173.569, 3.27546, 66.4644, 0.00747281, 56.5118
2, 540.00000, 125.843, -30.5729, 125.969, -150.497, 126.044, 89.5373, 0, 0, 3.28985, -53.6468, 3.28655, -173.57, 3.28461, 66.4634, 0.00749945, 56.594
2, 600.00000, 125.836, -30.5739, 125.963, -150.497, 126.038, 89.5363, 0, 0, 3.29892, -53.6478, 3.2956, -173.571, 3.29365, 66.4625, 0.00752585, 56.6752
2, 660.00000, 125.83, -30.575, 125.957, -150.498, 126.032, 89.5354, 0, 0, 3.30799, -53.6489, 3.30464, -173.572, 3.30269, 66.4615, 0.00755229, 56.7562
