hour,t(sec),V1,VAngle1,V2,VAngle2,V3,VAngle3,V4,VAngle4,I1,IAngle1,I2,IAngle2,I3,IAngle3,I4,IAngle4
0, 60.00000, 124.291, -33.1956, 124.512, -150.7, 128.67, 87.9275, 0, 0, 2.46348, -56.2685, 2.45918, -173.774, 2.37978, 64.8552, 0.173984, 67.8795
0, 120.00000, 124.293, -33.2267, 124.511, -150.699, 128.727, 87.91, 0, 0, 2.46345, -56.2998, 2.4592, -173.773, 2.3787, 64.8376, 0.176263, 67.8474
0, 180.00000, 124.294, -33.2548, 124.509, -150.697, 128.78, 87.8942, 0, 0, 2.46342, -56.3279, 2.45922, -173.771, 2.37773, 64.8217, 0.178314, 67.8192
0, 240.00000, 124.296, -33.28, 124.508, -150.696, 128.827, 87.88, 0, 0, 2.46339, -56.3532, 2.45925, -173.77, 2.37686, 64.8074, 0.18016, 67.7946
0, 300.00000, 124.298, -33.3027, 124.507, -150.695, 128.869, 87.8672, 0, 0, 2.46336, -56.376, 2.45926, -173.769, 2.37607, 64.7945, 0.181822, 67.773
0, 360.00000, 124.299, -33.3232, 124.506, -150.694, 128.907, 87.8557, 0, 0, 2.46334, -56.3965, 2.45928, -173.768, 2.37537, 64.7828, 0.183317, 67.7541
0, 420.00000, 124.3, -33.3416, 124.506, -150.693, 128.941, 87.8453, 0, 0, 2.46333, -56.415, 2.4593, -173.767, 2.37473, 64.7723, 0.184664, 67.7373
0, 480.00000, 124.301, -33.3582, 124.505, -150.692, 128.972, 87.836, 0, 0, 2.46331, -56.4316, 2.45931, -173.766, 2.37416, 64.7629, 0.185875, 67.7226
0, 540.00000, 124.302, -33.3731, 124.504, -150.691, 128.999, 87.8275, 0, 0, 2.46329, -56.4466, 2.45932, -173.765, 2.37365, 64.7544, 0.186966, 67.7095
0, 600.00000, 124.303, -33.3866, 124.504, -150.69, 129.024, 87.8199, 0, 0, 2.46328, -56.4601, 2.45933, -173.764, 2.37319, 64.7467, 0.187947, 67.698
0, 660.00000, 124.303, -33.3987, 124.503, -150.69, 129.047, 87.8131, 0, 0, 2.46327, -56.4722, 2.45934, -173.764, 2.37277, 64.7398, 0.188831, 67.6877
0, 720.00000, 124.304, -33.4096, 124.503, -150.689, 129.067, 87.8069, 0, 0, 2.46326, -56.4832, 2.45935, -173.763, 2.3724, 64.7336, 0.189626, 67.6786
0, 780.00000, 124.304, -33.4194, 124.502, -150.689, 129.085, 87.8014, 0, 0, 2.46325, -56.493, 2.45936, -173.763, 2.37207, 64.728, 0.190342, 67.6705
0, 840.00000, 124.305, -33.4282, 124.502, -150.688, 129.101, 87.7964, 0, 0, 2.46325, -56.5019, 2.45937, -173.762, 2.37176, 64.723, 0.190986, 67.6632
0, 900.00000, 124.305, -33.4362, 124.502, -150.688, 129.116, 87.7919, 0, 0, 2.46324, -56.5098, 2.45937, -173.762, 2.37149, 64.7184, 0.191566, 67.6568
0, 960.00000, 124.207, -33.4236, 123.562, -151.072, 127.924, 87.9805, 0, 0, 2.46519, -56.4973, 2.47807, -174.146, 2.39359, 64.907, 0.166666, 57.5915
0, 1020.00000, 124.208, -33.43, 123.562, -151.071, 127.936, 87.9768, 0, 0, 2.46518, -56.5037, 2.47807, -174.145, 2.39336, 64.9033, 0.167133, 57.6147
0, 1080.00000, 124.208, -33.4358, 123.562, -151.071, 127.947, 87.9735, 0, 0, 2.46517, -56.5095, 2.47808, -174.145, 2.39316, 64.8999, 0.167555, 57.6361
0, 1140.00000, 124.208, -33.441, 123.562, -151.071, 127.957, 87.9706, 0, 0, 2.46517, -56.5147, 2.47808, -174.145, 2.39298, 64.8969, 0.167935, 57.6553
0, 1200.00000, 124.209, -33.4456, 123.562, -151.07, 127.965, 87.9679, 0, 0, 2.46516, -56.5194, 2.47808, -174.144, 2.39281, 64.8942, 0.168277, 57.6725
0, 1260.00000, 124.209, -33.4498, 123.561, -151.07, 127.973, 87.9655, 0, 0, 2.46516, -56.5236, 2.47809, -174.144, 2.39266, 64.8918, 0.168585, 57.688
0, 1320.00000, 124.209, -33.4536, 123.561, -151.07, 127.98, 87.9633, 0, 0, 2.46515, -56.5274, 2.47809, -174.144, 2.39253, 64.8896, 0.168861, 57.7018
0, 1380.00000, 124.209, -33.457, 123.561, -151.07, 127.987, 87.9613, 0, 0, 2.46515, -56.5309, 2.47809, -174.144, 2.39241, 64.8876, 0.169111, 57.7143
0, 1440.00000, 124.21, -33.4601, 123.561, -151.07, 127.992, 87.9596, 0, 0, 2.46515, -56.5339, 2.47809, -174.143, 2.3923, 64.8858, 0.169335, 57.7254
0, 1500.00000, 124.21, -33.4629, 123.561, -151.069, 127.997, 87.958, 0, 0, 2.46514, -56.5367, 2.4781, -174.143, 2.39221, 64.8842, 0.169537, 57.7354
0, 1560.00000, 124.21, -33.4654, 123.561, -151.069, 128.002, 87.9566, 0, 0, 2.46514, -56.5392, 2.4781, -174.143, 2.39212, 64.8828, 0.169719, 57.7444
0, 1620.00000, 124.21, -33.4676, 123.561, -151.069, 128.006, 87.9553, 0, 0, 2.46514, -56.5415, 2.4781, -174.143, 2.39204, 64.8815, 0.169882, 57.7525
0, 1680.00000, 124.21, -33.4696, 123.561, -151.069, 128.01, 87.9541, 0, 0, 2.46514, -56.5435, 2.4781, -174.143, 2.39197, 64.8803, 0.170029, 57.7598
0, 1740.00000, 124.21, -33.4714, 123.561, -151.069, 128.013, 87.9531, 0, 0, 2.46514, -56.5453, 2.4781, -174.143, 2.39191, 64.8793, 0.170162, 57.7663
0, 1800.00000, 124.21, -33.4731, 123.561, -151.069, 128.016, 87.9522, 0, 0, 2.46513, -56.5469, 2.4781, -174.143, 2.39185, 64.8783, 0.170281, 57.7722
0, 1860.00000, 124.21, -33.4745, 123.561, -151.069, 128.019, 87.9513, 0, 0, 2.46513, -56.5484, 2.4781, -174.143, 2.3918, 64.8775, 0.170388, 57.7775
0, 1920.00000, 124.211, -33.4759, 123.561, -151.069, 128.022, 87.9506, 0, 0, 2.46513, -56.5497, 2.4781, -174.143, 2.39175, 64.8767, 0.170485, 57.7822
0, 1980.00000, 124.211, -33.477, 123.56, -151.069, 128.024, 87.9499, 0, 0, 2.46513, -56.5509, 2.4781, -174.142, 2.39171, 64.876, 0.170572, 57.7865
0, 2040.00000, 124.211, -33.4781, 123.56, -151.068, 128.026, 87.9493, 0, 0, 2.46513, -56.552, 2.4781, -174.142, 2.39167, 64.8754, 0.17065, 57.7903
0, 2100.00000, 124.211, -33.4791, 123.56, -151.068, 128.028, 87.9487, 0, 0, 2.46513, -56.553, 2.47811, -174.142, 2.39164, 64.8749, 0.170721, 57.7938
0, 2160.00000, 124.211, -33.4799, 123.56, -151.068, 128.029, 87.9482, 0, 0, 2.46513, -56.5538, 2.47811, -174.142, 2.39161, 64.8744, 0.170784, 57.7969
0, 2220.00000, 124.211, -33.4807, 123.56, -151.068, 128.031, 87.9478, 0, 0, 2.46513, -56.5546, 2.47811, -174.142, 2.39158, 64.8739, 0.170841, 57.7997
0, 2280.00000, 124.211, -33.4814, 123.56, -151.068, 128.032, 87.9474, 0, 0, 2.46513, -56.5553, 2.47811, -174.142, 2.39156, 64.8735, 0.170892, 57.8022
0, 2340.00000, 124.211, -33.4821, 123.56, -151.068, 128.033, 87.947, 0, 0, 2.46513, -56.556, 2.47811, -174.142, 2.39153, 64.8731, 0.170938, 57.8044
0, 2400.00000, 124.211, -33.4826, 123.56, -151.068, 128.034, 87.9467, 0, 0, 2.46513, -56.5565, 2.47811, -174.142, 2.39152, 64.8728, 0.17098, 57.8064
0, 2460.00000, 124.211, -33.4831, 123.56, -151.068, 128.035, 87.9464, 0, 0, 2.46513, -56.557, 2.47811, -174.142, 2.3915, 64.8725, 0.171017, 57.8083
0, 2520.00000, 124.211, -33.4836, 123.56, -151.068, 128.036, 87.9461, 0, 0, 2.46512, -56.5575, 2.47811, -174.142, 2.39148, 64.8722, 0.171051, 57.8099
0, 2580.00000, 124.211, -33.484, 123.56, -151.068, 128.037, 87.9459, 0, 0, 2.46512, -56.5579, 2.47811, -174.142, 2.39147, 64.872, 0.171081, 57.8114
0, 2640.00000, 124.211, -33.4844, 123.56, -151.068, 128.038, 87.9457, 0, 0, 2.46512, -56.5583, 2.47811, -174.142, 2.39145, 64.8718, 0.171109, 57.8127
0, 2700.00000, 124.211, -33.4847, 123.56, -151.068, 128.038, 87.9455, 0, 0, 2.46512, -56.5586, 2.47811, -174.142, 2.39144, 64.8716, 0.171133, 57.8139
0, 2760.00000, 124.211, -33.485, 123.56, -151.068, 128.039, 87.9453, 0, 0, 2.46512, -56.5589, 2.47811, -174.142, 2.39143, 64.8714, 0.171155, 57.815
0, 2820.00000, 124.211, -33.4853, 123.56, -151.068, 128.039, 87.9452, 0, 0, 2.46512, -56.5592, 2.47811, -174.142, 2.39142, 64.8713, 0.171175, 57.816
0, 2880.00000, 124.211, -33.4855, 123.56, -151.068, 128.04, 87.945, 0, 0, 2.46512, -56.5595, 2.47811, -174.142, 2.39141, 64.8711, 0.171193, 57.8168
0, 2940.00000, 124.211, -33.4858, 123.56, -151.068, 128.04, 87.9449, 0, 0, 2.46512, -56.5597, 2.47811, -174.142, 2.39141, 64.871, 0.171209, 57.8176
0, 3000.00000, 124.211, -33.486, 123.56, -151.068, 128.04, 87.9448, 0, 0, 2.46512, -56.5599, 2.47811, -174.142, 2.3914, 64.8709, 0.171224, 57.8183
0, 3060.00000, 124.211, -33.4861, 123.56, -151.068, 128.041, 87.9447, 0, 0, 2.46512, -56.5601, 2.47811, -174.142, 2.39139, 64.8708, 0.171237, 57.819
0, 3120.00000, 124.211, -33.4863, 123.56, -151.068, 128.041, 87.9446, 0, 0, 2.46512, -56.5602, 2.47811, -174.142, 2.39139, 64.8707, 0.171249, 57.8195
0, 3180.00000, 124.211, -33.4865, 123.56, -151.068, 128.041, 87.9445, 0, 0, 2.46512, -56.5604, 2.47811, -174.142, 2.39138, 64.8706, 0.171259, 57.8201
0, 3240.00000, 124.211, -33.4866, 123.56, -151.068, 128.042, 87.9444, 0, 0, 2.46512, -56.5605, 2.47811, -174.142, 2.39138, 64.8705, 0.171269, 57.8205
0, 3300.00000, 124.211, -33.4867, 123.56, -151.068, 128.042, 87.9444, 0, 0, 2.46512, -56.5606, 2.47811, -174.142, 2.39137, 64.8705, 0.171277, 57.8209
0, 3360.00000, 124.211, -33.4868, 123.56, -151.068, 128.042, 87.9443, 0, 0, 2.46512, -56.5607, 2.47811, -174.142, 2.39137, 64.8704, 0.171285, 57.8213
0, 3420.00000, 124.211, -33.4869, 123.56, -151.068, 128.042, 87.9442, 0, 0, 2.46512, -56.5608, 2.47811, -174.142, 2.39137, 64.8703, 0.171292, 57.8216
0, 3480.00000, 124.211, -33.487, 123.56, -151.068, 128.042, 87.9442, 0, 0, 2.46512, -56.5609, 2.47811, -174.142, 2.39136, 64.8703, 0.171298, 57.822
0, 3540.00000, 124.211, -33.4871, 123.56, -151.068, 128.042, 87.9442, 0, 0, 2.46512, -56.561, 2.47811, -174.142, 2.39136, 64.8702, 0.171304, 57.8222
1, 0.00000, 124.211, -33.4871, 123.56, -151.068, 128.043, 87.9441, 0, 0, 2.46512, -56.5611, 2.47811, -174.142, 2.39136, 64.8702, 0.171309, 57.8225
1, 60.00000, 124.211, -33.4872, 123.56, -151.068, 128.043, 87.9441, 0, 0, 2.46512, -56.5611, 2.47811, -174.142, 2.39136, 64.8702, 0.171313, 57.8227
1, 120.00000, 124.211, -33.4873, 123.56, -151.068, 128.043, 87.944, 0, 0, 2.46512, -56.5612, 2.47811, -174.142, 2.39135, 64.8701, 0.171317, 57.8229
1, 180.00000, 124.211, -33.4873, 123.56, -151.068, 128.043, 87.944, 0, 0, 2.46512, -56.5612, 2.47811, -174.142, 2.39135, 64.8701, 0.171321, 57.8231
1, 240.00000, 124.211, -33.4873, 123.56, -151.068, 128.043, 87.944, 0, 0, 2.46512, -56.5613, 2.47811, -174.142, 2.39135, 64.8701, 0.171324, 57.8232
1, 300.00000, 124.211, -33.4874, 123.56, -151.068, 128.043, 87.944, 0, 0, 2.46512, -56.5613, 2.47811, -174.142, 2.39135, 64.87, 0.171327, 57.8234
1, 360.00000, 124.211, -33.4874, 123.56, -151.068, 128.043, 87.9439, 0, 0, 2.46512, -56.5613, 2.47811, -174.142, 2.39135, 64.87, 0.17133, 57.8235
1, 420.00000, 124.211, -33.4875, 123.56, -151.068, 128.043, 87.9439, 0, 0, 2.46512, -56.5614, 2.47811, -174.142, 2.39135, 64.87, 0.171332, 57.8236
1, 480.00000, 124.211, -33.4875, 123.56, -151.068, 128.043, 87.9439, 0, 0, 2.46512, -56.5614, 2.47811, -174.142, 2.39135, 64.87, 0.171335, 57.8237
1, 540.00000, 124.211, -33.4875, 123.56, -151.068, 128.043, 87.9439, 0, 0, 2.46512, -56.5614, 2.47811, -174.142, 2.39134, 64.87, 0.171337, 57.8238
1, 600.00000, 124.211, -33.4875, 123.56, -151.068, 128.043, 87.9439, 0, 0, 2.46512, -56.5615, 2.47811, -174.142, 2.39134, 64.87, 0.171338, 57.8239
1, 660.00000, 124.211, -33.4876, 123.56, -151.068, 128.043, 87.9439, 0, 0, 2.46512, -56.5615, 2.47811, -174.142, 2.39134, 64.8699, 0.17134, 57.824
1, 720.00000, 124.211, -33.4876, 123.56, -151.068, 128.043, 87.9439, 0, 0, 2.46512, -56.5615, 2.47811, -174.142, 2.39134, 64.8699, 0.171341, 57.8241
1, 780.00000, 124.211, -33.4876, 123.56, -151.068, 128.043, 87.9438, 0, 0, 2.46512, -56.5615, 2.47811, -174.142, 2.39134, 64.8699, 0.171343, 57.8241
1, 840.00000, 124.211, -33.4876, 123.56, -151.068, 128.044, 87.9438, 0, 0, 2.46512, -56.5615, 2.47811, -174.142, 2.39134, 64.8699, 0.171344, 57.8242
1, 900.00000, 124.211, -33.4876, 123.56, -151.068, 128.044, 87.9438, 0, 0, 2.46512, -56.5615, 2.47811, -174.142, 2.39134, 64.8699, 0.171345, 57.8242
1, 960.00000, 124.211, -33.4876, 123.56, -151.068, 128.044, 87.9438, 0, 0, 2.46512, -56.5616, 2.47811, -174.142, 2.39134, 64.8699, 0.171346, 57.8243
1, 1020.00000, 124.211, -33.4877, 123.56, -151.068, 128.044, 87.9438, 0, 0, 2.46512, -56.5616, 2.47811, -174.142, 2.39134, 64.8699, 0.171347, 57.8243
1, 1080.00000, 124.211, -33.4877, 123.56, -151.068, 128.044, 87.9438, 0, 0, 2.46512, -56.5616, 2.47811, -174.142, 2.39134, 64.8699, 0.171347, 57.8244
1, 1140.00000, 124.211, -33.4877, 123.56, -151.068, 128.044, 87.9438, 0, 0, 2.46512, -56.5616, 2.47811, -174.142, 2.39134, 64.8699, 0.171348, 57.8244
1, 1200.00000, 124.211, -33.4877, 123.56, -151.068, 128.044, 87.9438, 0, 0, 2.46512, -56.5616, 2.47811, -174.142, 2.39134, 64.8699, 0.171349, 57.8244
1, 1260.00000, 124.211, -33.4877, 123.56, -151.068, 128.044, 87.9438, 0, 0, 2.46512, -56.5616, 2.47811, -174.142, 2.39134, 64.8699, 0.171349, 57.8244
1, 1320.00000, 124.211, -33.4877, 123.56, -151.068, 128.044, 87.9438, 0, 0, 2.46512, -56.5616, 2.47811, -174.142, 2.39134, 64.8699, 0.17135, 57.8245
1, 1380.00000, 124.211, -33.4877, 123.56, -151.068, 128.044, 87.9438, 0, 0, 2.46512, -56.5616, 2.47811, -174.142, 2.39134, 64.8699, 0.17135, 57.8245
1, 1440.00000, 124.211, -33.4877, 123.56, -151.068, 128.044, 87.9438, 0, 0, 2.46512, -56.5616, 2.47811, -174.142, 2.39134, 64.8699, 0.171351, 57.8245
1, 1500.00000, 124.211, -33.4877, 123.56, -151.068, 128.044, 87.9438, 0, 0, 2.46512, -56.5616, 2.47811, -174.142, 2.39134, 64.8699, 0.171351, 57.8245
1, 1560.00000, 124.211, -33.4877, 123.56, -151.068, 128.044, 87.9438, 0, 0, 2.46512, -56.5616, 2.47811, -174.142, 2.39134, 64.8699, 0.171351, 57.8245
1, 1620.00000, 124.211, -33.4877, 123.56, -151.068, 128.044, 87.9438, 0, 0, 2.46512, -56.5616, 2.47811, -174.142, 2.39134, 64.8699, 0.171352, 57.8246
1, 1680.00000, 124.211, -33.4877, 123.56, -151.068, 128.044, 87.9438, 0, 0, 2.46512, -56.5616, 2.47811, -174.142, 2.39134, 64.8699, 0.171352, 57.8246
1, 1740.00000, 124.211, -33.4877, 123.56, -151.068, 128.044, 87.9438, 0, 0, 2.46512, -56.5616, 2.47811, -174.142, 2.39134, 64.8699, 0.171352, 57.8246
1, 1800.00000, 124.211, -33.4877, 123.56, -151.068, 128.044, 87.9438, 0, 0, 2.46512, -56.5616, 2.47811, -174.142, 2.39134, 64.8699, 0.171352, 57.8246
1, 1860.00000, 124.211, -33.4877, 123.56, -151.068, 128.044, 87.9438, 0, 0, 2.46512, -56.5616, 2.47811, -174.142, 2.39134, 64.8699, 0.171353, 57.8246
1, 1920.00000, 124.211, -33.4877, 123.56, -151.068, 128.044, 87.9438, 0, 0, 2.46512, -56.5617, 2.47811, -174.142, 2.39134, 64.8699, 0.171353, 57.8246
1, 1980.00000, 124.211, -33.4877, 123.56, -151.068, 128.044, 87.9438, 0, 0, 2.46512, -56.5617, 2.47811, -174.142, 2.39134, 64.8699, 0.171353, 57.8246
1, 2040.00000, 125.515, -33.6299, 123.483, -151.078, 129.14, 88.2703, 0, 0, 2.43952, -56.7038, 2.47967, -174.152, 2.37104, 65.1964, 0.192586, 46.3743
1, 2100.00000, 125.515, -33.6299, 123.483, -151.078, 129.14, 88.2703, 0, 0, 2.43952, -56.7038, 2.47967, -174.152, 2.37104, 65.1964, 0.192586, 46.3744
1, 2160.00000, 125.515, -33.6299, 123.483, -151.078, 129.14, 88.2703, 0, 0, 2.43952, -56.7038, 2.47967, -174.152, 2.37104, 65.1964, 0.192586, 46.3744
1, 2220.00000, 125.515, -33.6299, 123.483, -151.078, 129.14, 88.2703, 0, 0, 2.43952, -56.7038, 2.47967, -174.152, 2.37104, 65.1964, 0.192586, 46.3744
1, 2280.00000, 125.515, -33.6299, 123.483, -151.078, 129.14, 88.2703, 0, 0, 2.43952, -56.7038, 2.47967, -174.152, 2.37104, 65.1964, 0.192586, 46.3744
1, 2340.00000, 125.515, -33.6299, 123.483, -151.078, 129.14, 88.2703, 0, 0, 2.43952, -56.7039, 2.47967, -174.152, 2.37104, 65.1964, 0.192586, 46.3744
1, 2400.00000, 125.515, -33.6299, 123.483, -151.078, 129.14, 88.2703, 0, 0, 2.43952, -56.7039, 2.47967, -174.152, 2.37104, 65.1964, 0.192586, 46.3744
1, 2460.00000, 125.515, -33.6299, 123.483, -151.078, 129.14, 88.2703, 0, 0, 2.43952, -56.7039, 2.47967, -174.152, 2.37104, 65.1964, 0.192587, 46.3744
1, 2520.00000, 125.604, -33.6517, 124.412, -150.692, 130.339, 88.0764, 0, 0, 2.43779, -56.7256, 2.46113, -173.766, 2.34922, 65.0025, 0.21117, 56.5637
1, 2580.00000, 125.604, -33.6517, 124.412, -150.692, 130.339, 88.0764, 0, 0, 2.43779, -56.7256, 2.46113, -173.766, 2.34922, 65.0024, 0.211171, 56.5642
1, 2640.00000, 125.604, -33.6517, 124.412, -150.692, 130.339, 88.0764, 0, 0, 2.43779, -56.7256, 2.46113, -173.766, 2.34922, 65.0024, 0.211171, 56.5642
1, 2700.00000, 125.604, -33.6517, 124.412, -150.692, 130.339, 88.0764, 0, 0, 2.43779, -56.7256, 2.46113, -173.766, 2.34922, 65.0024, 0.211171, 56.5642
1, 2760.00000, 125.691, -33.6721, 125.313, -150.32, 131.504, 87.8912, 0, 0, 2.4361, -56.746, 2.44345, -173.394, 2.32841, 64.8172, 0.233924, 64.5205
1, 2820.00000, 125.691, -33.6721, 125.313, -150.32, 131.504, 87.8912, 0, 0, 2.4361, -56.746, 2.44345, -173.394, 2.32841, 64.8172, 0.233924, 64.5208
1, 2880.00000, 125.691, -33.6721, 125.313, -150.32, 131.504, 87.8912, 0, 0, 2.4361, -56.746, 2.44345, -173.394, 2.32841, 64.8172, 0.233924, 64.5208
1, 2940.00000, 125.691, -33.6721, 125.313, -150.32, 131.504, 87.8912, 0, 0, 2.4361, -56.746, 2.44345, -173.394, 2.32841, 64.8172, 0.233924, 64.5208
1, 3000.00000, 125.691, -33.6721, 125.313, -150.32, 131.504, 87.8912, 0, 0, 2.4361, -56.746, 2.44345, -173.394, 2.32841, 64.8172, 0.233924, 64.5208
1, 3060.00000, 125.691, -33.6721, 125.313, -150.32, 131.504, 87.8912, 0, 0, 2.4361, -56.746, 2.44345, -173.394, 2.32841, 64.8172, 0.233924, 64.5208
1, 3120.00000, 125.691, -33.6721, 125.313, -150.32, 131.504, 87.8912, 0, 0, 2.4361, -56.746, 2.44345, -173.394, 2.32841, 64.8172, 0.233924, 64.5208
1, 3180.00000, 125.691, -33.6721, 125.313, -150.32, 131.504, 87.8912, 0, 0, 2.4361, -56.746, 2.44345, -173.394, 2.32841, 64.8172, 0.233924, 64.5208
1, 3240.00000, 125.691, -33.6721, 125.313, -150.32, 131.504, 87.8912, 0, 0, 2.4361, -56.746, 2.44345, -173.394, 2.32841, 64.8172, 0.233924, 64.5208
1, 3300.00000, 125.691, -33.6721, 125.313, -150.32, 131.504, 87.8912, 0, 0, 2.4361, -56.746, 2.44345, -173.394, 2.32841, 64.8172, 0.233924, 64.5208
1, 3360.00000, 125.691, -33.6721, 125.313, -150.32, 131.504, 87.8912, 0, 0, 2.4361, -56.746, 2.44345, -173.394, 2.32841, 64.8172, 0.233924, 64.5208
1, 3420.00000, 125.691, -33.6721, 125.313, -150.32, 131.504, 87.8912, 0, 0, 2.4361, -56.746, 2.44345, -173.394, 2.32841, 64.8172, 0.233924, 64.5208
1, 3480.00000, 125.691, -33.6721, 125.313, -150.32, 131.504, 87.8912, 0, 0, 2.4361, -56.746, 2.44345, -173.394, 2.32841, 64.8172, 0.233924, 64.5208
1, 3540.00000, 125.691, -33.6721, 125.313, -150.32, 131.504, 87.8912, 0, 0, 2.4361, -56.746, 2.44345, -173.394, 2.32841, 64.8172, 0.233924, 64.5208
2, 0.00000, 125.691, -33.6721, 125.313, -150.32, 131.504, 87.8912, 0, 0, 2.4361, -56.746, 2.44345, -173.394, 2.32841, 64.8172, 0.233924, 64.5208
2, 60.00000, 125.691, -33.6721, 125.313, -150.32, 131.504, 87.8912, 0, 0, 2.4361, -56.746, 2.44345, -173.394, 2.32841, 64.8172, 0.233924, 64.5208
2, 120.00000, 125.683, -33.673, 125.306, -150.321, 131.497, 87.8904, 0, 0, 2.443, -56.7469, 2.45034, -173.395, 2.33497, 64.8165, 0.234592, 64.5224
2, 180.00000, 125.675, -33.6738, 125.299, -150.322, 131.49, 87.8896, 0, 0, 2.44997, -56.7477, 2.45731, -173.396, 2.34162, 64.8157, 0.235268, 64.5239
2, 240.00000, 125.667, -33.6747, 125.293, -150.323, 131.484, 87.8888, 0, 0, 2.45686, -56.7486, 2.46421, -173.397, 2.34818, 64.8149, 0.235935, 64.5254
2, 300.00000, 125.66, -33.6755, 125.286, -150.324, 131.477, 87.8881, 0, 0, 2.46376, -56.7494, 2.4711, -173.398, 2.35475, 64.8141, 0.236603, 64.5269
2, 360.00000, 125.652, -33.6764, 125.279, -150.325, 131.47, 87.8873, 0, 0, 2.47073, -56.7503, 2.47808, -173.399, 2.36139, 64.8134, 0.237279, 64.5284
2, 420.00000, 125.644, -33.6772, 125.272, -150.326, 131.463, 87.8865, 0, 0, 2.47763, -56.7511, 2.48497, -173.4, 2.36796, 64.8126, 0.237947, 64.5299
2, 480.00000, 125.636, -33.6781, 125.266, -150.327, 131.456, 87.8857, 0, 0, 2.48452, -56.752, 2.49187, -173.401, 2.37452, 64.8118, 0.238615, 64.5314
2, 540.00000, 125.628, -33.6789, 125.259, -150.329, 131.449, 87.885, 0, 0, 2.4915, -56.7528, 2.49885, -173.402, 2.38117, 64.811, 0.239291, 64.533
2, 600.00000, 125.621, -33.6798, 125.252, -150.33, 131.443, 87.8842, 0, 0, 2.4984, -56.7537, 2.50575, -173.403, 2.38774, 64.8103, 0.239959, 64.5345
2, 660.00000, 125.613, -33.6806, 125.245, -150.331, 131.436, 87.8834, 0, 0, 2.5053, -56.7545, 2.51265, -173.405, 2.39431, 64.8095, 0.240628, 64.536
2, 720.00000, 125.605, -33.6815, 125.239, -150.332, 131.429, 87.8826, 0, 0, 2.51228, -56.7554, 2.51963, -173.406, 2.40096, 64.8087, 0.241304, 64.5375
2, 780.00000, 125.597, -33.6823, 125.232, -150.333, 131.422, 87.8819, 0, 0, 2.51918, -56.7563, 2.52653, -173.407, 2.40753, 64.8079, 0.241973, 64.539
