hour,t(sec),V1,VAngle1,V2,VAngle2,V3,VAngle3,V4,VAngle4,I1,IAngle1,I2,IAngle2,I3,IAngle3,I4,IAngle4
0, 60.00000, 126.253, -30.9483, 125.88, -150.636, 126.674, 89.4507, 0, 0, 2.69903, -54.0221, 2.70702, -173.71, 2.69006, 66.3768, 0.0315783, 30.6841
0, 120.00000, 126.253, -30.9483, 125.88, -150.636, 126.674, 89.4507, 0, 0, 2.69904, -54.0222, 2.70703, -173.71, 2.69006, 66.3767, 0.0315884, 30.6818
0, 180.00000, 126.253, -30.9483, 125.88, -150.636, 126.674, 89.4507, 0, 0, 2.69904, -54.0222, 2.70703, -173.71, 2.69006, 66.3767, 0.0315885, 30.6818
0, 240.00000, 126.253, -30.9483, 125.88, -150.636, 126.674, 89.4507, 0, 0, 2.69904, -54.0222, 2.70703, -173.71, 2.69006, 66.3767, 0.0315885, 30.6818
0, 300.00000, 126.382, -30.7761, 126.283, -150.592, 126.674, 89.451, 0, 0, 2.69631, -53.8504, 2.69843, -173.666, 2.69007, 66.3771, 0.0169236, 37.2578
0, 360.00000, 126.382, -30.7761, 126.283, -150.592, 126.673, 89.451, 0, 0, 2.69629, -53.85, 2.69839, -173.666, 2.69007, 66.3771, 0.016882, 37.3114
0, 420.00000, 126.382, -30.7761, 126.283, -150.592, 126.673, 89.451, 0, 0, 2.69629, -53.85, 2.69839, -173.666, 2.69007, 66.3771, 0.0168819, 37.3116
0, 480.00000, 126.382, -30.7761, 126.283, -150.592, 126.673, 89.451, 0, 0, 2.69629, -53.85, 2.69839, -173.666, 2.69007, 66.3771, 0.0168819, 37.3116
0, 540.00000, 126.382, -30.7761, 126.283, -150.592, 126.673, 89.451, 0, 0, 2.69629, -53.85, 2.69839, -173.666, 2.69007, 66.3771, 0.0168819, 37.3116
0, 600.00000, 126.382, -30.7761, 126.283, -150.592, 126.673, 89.451, 0, 0, 2.69629, -53.85, 2.69839, -173.666, 2.69007, 66.3771, 0.0168819, 37.3116
0, 660.00000, 126.382, -30.7761, 126.283, -150.592, 126.673, 89.451, 0, 0, 2.69629, -53.85, 2.69839, -173.666, 2.69007, 66.3771, 0.0168819, 37.3116
0, 720.00000, 126.382, -30.7761, 126.283, -150.592, 126.673, 89.451, 0, 0, 2.69629, -53.85, 2.69839, -173.666, 2.69007, 66.3771, 0.0168819, 37.3116
0, 780.00000, 126.382, -30.7761, 126.283, -150.592, 126.673, 89.451, 0, 0, 2.69629, -53.85, 2.69839, -173.666, 2.69007, 66.3771, 0.0168819, 37.3116
0, 840.00000, 126.382, -30.7761, 126.283, -150.592, 126.673, 89.451, 0, 0, 2.69629, -53.85, 2.69839, -173.666, 2.69007, 66.3771, 0.0168819, 37.3116
0, 900.00000, 126.382, -30.7761, 126.283, -150.592, 126.673, 89.451, 0, 0, 2.69629, -53.85, 2.69839, -173.666, 2.69007, 66.3771, 0.0168819, 37.3116
0, 960.00000, 126.382, -30.7761, 126.283, -150.592, 126.673, 89.451, 0, 0, 2.69629, -53.85, 2.69839, -173.666, 2.69007, 66.3771, 0.0168819, 37.3116
0, 1020.00000, 126.382, -30.7761, 126.283, -150.592, 126.673, 89.451, 0, 0, 2.69629, -53.85, 2.69839, -173.666, 2.69007, 66.3771, 0.0168819, 37.3116
0, 1080.00000, 126.382, -30.7761, 126.283, -150.592, 126.673, 89.451, 0, 0, 2.69629, -53.85, 2.69839, -173.666, 2.69007, 66.3771, 0.0168819, 37.3116
0, 1140.00000, 126.382, -30.7761, 126.283, -150.592, 126.673, 89.451, 0, 0, 2.69629, -53.85, 2.69839, -173.666, 2.69007, 66.3771, 0.0168819, 37.3116
0, 1200.00000, 126.382, -30.7761, 126.283, -150.592, 126.673, 89.451, 0, 0, 2.69629, -53.85, 2.69839, -173.666, 2.69007, 66.3771, 0.0168819, 37.3116
0, 1260.00000, 126.382, -30.7761, 126.283, -150.592, 126.673, 89.451, 0, 0, 2.69629, -53.85, 2.69839, -173.666, 2.69007, 66.3771, 0.0168819, 37.3116
0, 1320.00000, 126.382, -30.7761, 126.283, -150.592, 126.673, 89.451, 0, 0, 2.69629, -53.85, 2.69839, -173.666, 2.69007, 66.3771, 0.0168819, 37.3116
0, 1380.00000, 126.382, -30.7761, 126.283, -150.592, 126.673, 89.451, 0, 0, 2.69629, -53.85, 2.69839, -173.666, 2.69007, 66.3771, 0.0168819, 37.3116
0, 1440.00000, 126.382, -30.7761, 126.283, -150.592, 126.673, 89.451, 0, 0, 2.69629, -53.85, 2.69839, -173.666, 2.69007, 66.3771, 0.0168819, 37.3116
0, 1500.00000, 126.382, -30.7761, 126.283, -150.592, 126.673, 89.451, 0, 0, 2.69629, -53.85, 2.69839, -173.666, 2.69007, 66.3771, 0.0168819, 37.3116
0, 1560.00000, 126.382, -30.7761, 126.283, -150.592, 126.673, 89.451, 0, 0, 2.69629, -53.85, 2.69839, -173.666, 2.69007, 66.3771, 0.0168819, 37.3116
0, 1620.00000, 126.382, -30.7761, 126.283, -150.592, 126.673, 89.451, 0, 0, 2.69629, -53.85, 2.69839, -173.666, 2.69007, 66.3771, 0.0168819, 37.3116
0, 1680.00000, 126.382, -30.7761, 126.283, -150.592, 126.673, 89.451, 0, 0, 2.69629, -53.85, 2.69839, -173.666, 2.69007, 66.3771, 0.0168819, 37.3116
0, 1740.00000, 126.382, -30.7761, 126.283, -150.592, 126.673, 89.451, 0, 0, 2.69629, -53.85, 2.69839, -173.666, 2.69007, 66.3771, 0.0168819, 37.3116
0, 1800.00000, 126.382, -30.7761, 126.283, -150.592, 126.673, 89.451, 0, 0, 2.69629, -53.85, 2.69839, -173.666, 2.69007, 66.3771, 0.0168819, 37.3116
0, 1860.00000, 126.382, -30.7761, 126.283, -150.592, 126.673, 89.451, 0, 0, 2.69629, -53.85, 2.69839, -173.666, 2.69007, 66.3771, 0.0168819, 37.3116
0, 1920.00000, 126.382, -30.7761, 126.283, -150.592, 126.673, 89.451, 0, 0, 2.69629, -53.85, 2.69839, -173.666, 2.69007, 66.3771, 0.0168819, 37.3116
0, 1980.00000, 126.382, -30.7761, 126.283, -150.592, 126.673, 89.451, 0, 0, 2.69629, -53.85, 2.69839, -173.666, 2.69007, 66.3771, 0.0168819, 37.3116
0, 2040.00000, 126.382, -30.7761, 126.283, -150.592, 126.673, 89.451, 0, 0, 2.69629, -53.85, 2.69839, -173.666, 2.69007, 66.3771, 0.0168819, 37.3116
0, 2100.00000, 126.382, -30.7761, 126.283, -150.592, 126.673, 89.451, 0, 0, 2.69629, -53.85, 2.69839, -173.666, 2.69007, 66.3771, 0.0168819, 37.3116
0, 2160.00000, 126.382, -30.7761, 126.283, -150.592, 126.673, 89.451, 0, 0, 2.69629, -53.85, 2.69839, -173.666, 2.69007, 66.3771, 0.0168819, 37.3116
0, 2220.00000, 126.382, -30.7761, 126.283, -150.592, 126.673, 89.451, 0, 0, 2.69629, -53.85, 2.69839, -173.666, 2.69007, 66.3771, 0.0168819, 37.3116
0, 2280.00000, 126.382, -30.7761, 126.283, -150.592, 126.673, 89.451, 0, 0, 2.69629, -53.85, 2.69839, -173.666, 2.69007, 66.3771, 0.0168819, 37.3116
0, 2340.00000, 126.382, -30.7761, 126.283, -150.592, 126.673, 89.451, 0, 0, 2.69629, -53.85, 2.69839, -173.666, 2.69007, 66.3771, 0.0168819, 37.3116
0, 2400.00000, 126.382, -30.7761, 126.283, -150.592, 126.673, 89.451, 0, 0, 2.69629, -53.85, 2.69839, -173.666, 2.69007, 66.3771, 0.0168819, 37.3116
0, 2460.00000, 126.382, -30.7761, 126.283, -150.592, 126.673, 89.451, 0, 0, 2.69629, -53.85, 2.69839, -173.666, 2.69007, 66.3771, 0.0168819, 37.3116
0, 2520.00000, 126.382, -30.7761, 126.283, -150.592, 126.673, 89.451, 0, 0, 2.69629, -53.85, 2.69839, -173.666, 2.69007, 66.3771, 0.0168819, 37.3116
0, 2580.00000, 126.382, -30.7761, 126.283, -150.592, 126.673, 89.451, 0, 0, 2.69629, -53.85, 2.69839, -173.666, 2.69007, 66.3771, 0.0168819, 37.3116
0, 2640.00000, 126.382, -30.7761, 126.283, -150.592, 126.673, 89.451, 0, 0, 2.69629, -53.85, 2.69839, -173.666, 2.69007, 66.3771, 0.0168819, 37.3116
0, 2700.00000, 126.382, -30.7761, 126.283, -150.592, 126.673, 89.451, 0, 0, 2.69629, -53.85, 2.69839, -173.666, 2.69007, 66.3771, 0.0168819, 37.3116
0, 2760.00000, 126.382, -30.7761, 126.283, -150.592, 126.673, 89.451, 0, 0, 2.69629, -53.85, 2.69839, -173.666, 2.69007, 66.3771, 0.0168819, 37.3116
0, 2820.00000, 126.382, -30.7761, 126.283, -150.592, 126.673, 89.451, 0, 0, 2.69629, -53.85, 2.69839, -173.666, 2.69007, 66.3771, 0.0168819, 37.3116
0, 2880.00000, 126.382, -30.7761, 126.283, -150.592, 126.673, 89.451, 0, 0, 2.69629, -53.85, 2.69839, -173.666, 2.69007, 66.3771, 0.0168819, 37.3116
0, 2940.00000, 126.382, -30.7761, 126.283, -150.592, 126.673, 89.451, 0, 0, 2.69629, -53.85, 2.69839, -173.666, 2.69007, 66.3771, 0.0168819, 37.3116
0, 3000.00000, 126.382, -30.7761, 126.283, -150.592, 126.673, 89.451, 0, 0, 2.69629, -53.85, 2.69839, -173.666, 2.69007, 66.3771, 0.0168819, 37.3116
0, 3060.00000, 126.382, -30.7761, 126.283, -150.592, 126.673, 89.451, 0, 0, 2.69629, -53.85, 2.69839, -173.666, 2.69007, 66.3771, 0.0168819, 37.3116
0, 3120.00000, 126.382, -30.7761, 126.283, -150.592, 126.673, 89.451, 0, 0, 2.69629, -53.85, 2.69839, -173.666, 2.69007, 66.3771, 0.0168819, 37.3116
0, 3180.00000, 126.382, -30.7761, 126.283, -150.592, 126.673, 89.451, 0, 0, 2.69629, -53.85, 2.69839, -173.666, 2.69007, 66.3771, 0.0168819, 37.3116
0, 3240.00000, 126.382, -30.7761, 126.283, -150.592, 126.673, 89.451, 0, 0, 2.69629, -53.85, 2.69839, -173.666, 2.69007, 66.3771, 0.0168819, 37.3116
0, 3300.00000, 126.382, -30.7761, 126.283, -150.592, 126.673, 89.451, 0, 0, 2.69629, -53.85, 2.69839, -173.666, 2.69007, 66.3771, 0.0168819, 37.3116
0, 3360.00000, 126.382, -30.7761, 126.283, -150.592, 126.673, 89.451, 0, 0, 2.69629, -53.85, 2.69839, -173.666, 2.69007, 66.3771, 0.0168819, 37.3116
0, 3420.00000, 126.382, -30.7761, 126.283, -150.592, 126.673, 89.451, 0, 0, 2.69629, -53.85, 2.69839, -173.666, 2.69007, 66.3771, 0.0168819, 37.3116
0, 3480.00000, 126.382, -30.7761, 126.283, -150.592, 126.673, 89.451, 0, 0, 2.69629, -53.85, 2.69839, -173.666, 2.69007, 66.3771, 0.0168819, 37.3116
0, 3540.00000, 126.382, -30.7761, 126.283, -150.592, 126.673, 89.451, 0, 0, 2.69629, -53.85, 2.69839, -173.666, 2.69007, 66.3771, 0.0168819, 37.3116
1, 0.00000, 126.382, -30.7761, 126.283, -150.592, 126.673, 89.451, 0, 0, 2.69629, -53.85, 2.69839, -173.666, 2.69007, 66.3771, 0.0168819, 37.3116
1, 60.00000, 126.382, -30.7761, 126.283, -150.592, 126.673, 89.451, 0, 0, 2.69629, -53.85, 2.69839, -173.666, 2.69007, 66.3771, 0.0168819, 37.3116
1, 120.00000, 126.382, -30.7761, 126.283, -150.592, 126.673, 89.451, 0, 0, 2.69629, -53.85, 2.69839, -173.666, 2.69007, 66.3771, 0.0168819, 37.3116
1, 180.00000, 126.382, -30.7761, 126.283, -150.592, 126.673, 89.451, 0, 0, 2.69629, -53.85, 2.69839, -173.666, 2.69007, 66.3771, 0.0168819, 37.3116
1, 240.00000, 126.382, -30.7761, 126.283, -150.592, 126.673, 89.451, 0, 0, 2.69629, -53.85, 2.69839, -173.666, 2.69007, 66.3771, 0.0168819, 37.3116
1, 300.00000, 126.382, -30.7761, 126.283, -150.592, 126.673, 89.451, 0, 0, 2.69629, -53.85, 2.69839, -173.666, 2.69007, 66.3771, 0.0168819, 37.3116
1, 360.00000, 126.382, -30.7761, 126.283, -150.592, 126.673, 89.451, 0, 0, 2.69629, -53.85, 2.69839, -173.666, 2.69007, 66.3771, 0.0168819, 37.3116
1, 420.00000, 126.382, -30.7761, 126.283, -150.592, 126.673, 89.451, 0, 0, 2.69629, -53.85, 2.69839, -173.666, 2.69007, 66.3771, 0.0168819, 37.3116
1, 480.00000, 126.382, -30.7761, 126.283, -150.592, 126.673, 89.451, 0, 0, 2.69629, -53.85, 2.69839, -173.666, 2.69007, 66.3771, 0.0168819, 37.3116
1, 540.00000, 126.382, -30.7761, 126.283, -150.592, 126.673, 89.451, 0, 0, 2.69629, -53.85, 2.69839, -173.666, 2.69007, 66.3771, 0.0168819, 37.3116
1, 600.00000, 126.382, -30.7761, 126.283, -150.592, 126.673, 89.451, 0, 0, 2.69629, -53.85, 2.69839, -173.666, 2.69007, 66.3771, 0.0168819, 37.3116
1, 660.00000, 126.502, -30.6097, 126.672, -150.551, 126.672, 89.4512, 0, 0, 2.69373, -53.6837, 2.69012, -173.625, 2.69009, 66.3773, 0.00453201, 87.5705
1, 720.00000, 126.502, -30.6097, 126.672, -150.551, 126.672, 89.4512, 0, 0, 2.69372, -53.6836, 2.69011, -173.625, 2.6901, 66.3773, 0.00453409, 87.7967
1, 780.00000, 126.502, -30.6097, 126.672, -150.551, 126.672, 89.4512, 0, 0, 2.69372, -53.6836, 2.69011, -173.625, 2.6901, 66.3773, 0.00453409, 87.7973
1, 840.00000, 126.502, -30.6097, 126.672, -150.551, 126.672, 89.4512, 0, 0, 2.69372, -53.6836, 2.69011, -173.625, 2.6901, 66.3773, 0.00453409, 87.7973
1, 900.00000, 126.502, -30.6097, 126.672, -150.551, 126.672, 89.4512, 0, 0, 2.69372, -53.6836, 2.69011, -173.625, 2.6901, 66.3773, 0.00453409, 87.7973
1, 960.00000, 126.502, -30.6097, 126.672, -150.551, 126.672, 89.4512, 0, 0, 2.69372, -53.6836, 2.69011, -173.625, 2.6901, 66.3773, 0.00453409, 87.7973
1, 1020.00000, 126.502, -30.6097, 126.672, -150.551, 126.672, 89.4512, 0, 0, 2.69372, -53.6836, 2.69011, -173.625, 2.6901, 66.3773, 0.00453409, 87.7973
1, 1080.00000, 126.502, -30.6097, 126.672, -150.551, 126.672, 89.4512, 0, 0, 2.69372, -53.6836, 2.69011, -173.625, 2.6901, 66.3773, 0.00453409, 87.7973
1, 1140.00000, 126.502, -30.6097, 126.672, -150.551, 126.672, 89.4512, 0, 0, 2.69372, -53.6836, 2.69011, -173.625, 2.6901, 66.3773, 0.00453409, 87.7973
1, 1200.00000, 126.502, -30.6097, 126.672, -150.551, 126.672, 89.4512, 0, 0, 2.69372, -53.6836, 2.69011, -173.625, 2.6901, 66.3773, 0.00453409, 87.7973
1, 1260.00000, 126.502, -30.6097, 126.672, -150.551, 126.672, 89.4512, 0, 0, 2.69372, -53.6836, 2.69011, -173.625, 2.6901, 66.3773, 0.00453409, 87.7973
1, 1320.00000, 126.502, -30.6097, 126.672, -150.551, 126.672, 89.4512, 0, 0, 2.69372, -53.6836, 2.69011, -173.625, 2.6901, 66.3773, 0.00453409, 87.7973
1, 1380.00000, 126.502, -30.6097, 126.672, -150.551, 126.672, 89.4512, 0, 0, 2.69372, -53.6836, 2.69011, -173.625, 2.6901, 66.3773, 0.00453409, 87.7973
1, 1440.00000, 126.502, -30.6097, 126.672, -150.551, 126.672, 89.4512, 0, 0, 2.69372, -53.6836, 2.69011, -173.625, 2.6901, 66.3773, 0.00453409, 87.7973
1, 1500.00000, 126.502, -30.6097, 126.672, -150.551, 126.672, 89.4512, 0, 0, 2.69372, -53.6836, 2.69011, -173.625, 2.6901, 66.3773, 0.00453409, 87.7973
1, 1560.00000, 126.502, -30.6097, 126.672, -150.551, 126.672, 89.4512, 0, 0, 2.69372, -53.6836, 2.69011, -173.625, 2.6901, 66.3773, 0.00453409, 87.7973
1, 1620.00000, 126.502, -30.6097, 126.672, -150.551, 126.672, 89.4512, 0, 0, 2.69372, -53.6836, 2.69011, -173.625, 2.6901, 66.3773, 0.00453409, 87.7973
1, 1680.00000, 126.502, -30.6097, 126.672, -150.551, 126.672, 89.4512, 0, 0, 2.69372, -53.6836, 2.69011, -173.625, 2.6901, 66.3773, 0.00453409, 87.7973
1, 1740.00000, 126.502, -30.6097, 126.672, -150.551, 126.672, 89.4512, 0, 0, 2.69372, -53.6836, 2.69011, -173.625, 2.6901, 66.3773, 0.00453409, 87.7973
1, 1800.00000, 126.502, -30.6097, 126.672, -150.551, 126.672, 89.4512, 0, 0, 2.69372, -53.6836, 2.69011, -173.625, 2.6901, 66.3773, 0.00453409, 87.7973
1, 1860.00000, 126.502, -30.6097, 126.672, -150.551, 126.672, 89.4512, 0, 0, 2.69372, -53.6836, 2.69011, -173.625, 2.6901, 66.3773, 0.00453409, 87.7973
1, 1920.00000, 126.502, -30.6097, 126.672, -150.551, 126.672, 89.4512, 0, 0, 2.69372, -53.6836, 2.69011, -173.625, 2.6901, 66.3773, 0.00453409, 87.7973
1, 1980.00000, 126.502, -30.6097, 126.672, -150.551, 126.672, 89.4512, 0, 0, 2.69372, -53.6836, 2.69011, -173.625, 2.6901, 66.3773, 0.00453409, 87.7973
1, 2040.00000, 126.502, -30.6097, 126.672, -150.551, 126.672, 89.4512, 0, 0, 2.69372, -53.6836, 2.69011, -173.625, 2.6901, 66.3773, 0.00453409, 87.7973
1, 2100.00000, 126.502, -30.6097, 126.672, -150.551, 126.672, 89.4512, 0, 0, 2.69372, -53.6836, 2.69011, -173.625, 2.6901, 66.3773, 0.00453409, 87.7973
1, 2160.00000, 126.502, -30.6097, 126.672, -150.551, 126.672, 89.4512, 0, 0, 2.69372, -53.6836, 2.69011, -173.625, 2.6901, 66.3773, 0.00453409, 87.7973
1, 2220.00000, 126.502, -30.6097, 126.672, -150.551, 126.672, 89.4512, 0, 0, 2.69372, -53.6836, 2.69011, -173.625, 2.6901, 66.3773, 0.00453409, 87.7973
1, 2280.00000, 126.502, -30.6097, 126.672, -150.551, 126.672, 89.4512, 0, 0, 2.69372, -53.6836, 2.69011, -173.625, 2.6901, 66.3773, 0.00453409, 87.7973
1, 2340.00000, 126.502, -30.6097, 126.672, -150.551, 126.672, 89.4512, 0, 0, 2.69372, -53.6836, 2.69011, -173.625, 2.6901, 66.3773, 0.00453409, 87.7973
1, 2400.00000, 126.502, -30.6097, 126.672, -150.551, 126.672, 89.4512, 0, 0, 2.69372, -53.6836, 2.69011, -173.625, 2.6901, 66.3773, 0.00453409, 87.7973
1, 2460.00000, 126.502, -30.6097, 126.672, -150.551, 126.672, 89.4512, 0, 0, 2.69372, -53.6836, 2.69011, -173.625, 2.6901, 66.3773, 0.00453409, 87.7973
1, 2520.00000, 126.502, -30.6097, 126.672, -150.551, 126.672, 89.4512, 0, 0, 2.69372, -53.6836, 2.69011, -173.625, 2.6901, 66.3773, 0.00453409, 87.7973
1, 2580.00000, 126.502, -30.6097, 126.672, -150.551, 126.672, 89.4512, 0, 0, 2.69372, -53.6836, 2.69011, -173.625, 2.6901, 66.3773, 0.00453409, 87.7973
1, 2640.00000, 126.502, -30.6097, 126.672, -150.551, 126.672, 89.4512, 0, 0, 2.69372, -53.6836, 2.69011, -173.625, 2.6901, 66.3773, 0.00453409, 87.7973
1, 2700.00000, 126.502, -30.6097, 126.672, -150.551, 126.672, 89.4512, 0, 0, 2.69372, -53.6836, 2.69011, -173.625, 2.6901, 66.3773, 0.00453409, 87.7973
1, 2760.00000, 126.502, -30.6097, 126.672, -150.551, 126.672, 89.4512, 0, 0, 2.69372, -53.6836, 2.69011, -173.625, 2.6901, 66.3773, 0.00453409, 87.7973
1, 2820.00000, 126.502, -30.6097, 126.672, -150.551, 126.672, 89.4512, 0, 0, 2.69372, -53.6836, 2.69011, -173.625, 2.6901, 66.3773, 0.00453409, 87.7973
1, 2880.00000, 126.502, -30.6097, 126.672, -150.551, 126.672, 89.4512, 0, 0, 2.69372, -53.6836, 2.69011, -173.625, 2.6901, 66.3773, 0.00453409, 87.7973
1, 2940.00000, 126.502, -30.6097, 126.672, -150.551, 126.672, 89.4512, 0, 0, 2.69372, -53.6836, 2.69011, -173.625, 2.6901, 66.3773, 0.00453409, 87.7973
1, 3000.00000, 126.502, -30.6097, 126.672, -150.551, 126.672, 89.4512, 0, 0, 2.69372, -53.6836, 2.69011, -173.625, 2.6901, 66.3773, 0.00453409, 87.7973
1, 3060.00000, 126.502, -30.6097, 126.672, -150.551, 126.672, 89.4512, 0, 0, 2.69372, -53.6836, 2.69011, -173.625, 2.6901, 66.3773, 0.00453409, 87.7973
1, 3120.00000, 126.502, -30.6097, 126.672, -150.551, 126.672, 89.4512, 0, 0, 2.69372, -53.6836, 2.69011, -173.625, 2.6901, 66.3773, 0.00453409, 87.7973
1, 3180.00000, 126.502, -30.6097, 126.672, -150.551, 126.672, 89.4512, 0, 0, 2.69372, -53.6836, 2.69011, -173.625, 2.6901, 66.3773, 0.00453409, 87.7973
1, 3240.00000, 126.502, -30.6097, 126.672, -150.551, 126.672, 89.4512, 0, 0, 2.69372, -53.6836, 2.69011, -173.625, 2.6901, 66.3773, 0.00453409, 87.7973
1, 3300.00000, 126.502, -30.6097, 126.672, -150.551, 126.672, 89.4512, 0, 0, 2.69372, -53.6836, 2.69011, -173.625, 2.6901, 66.3773, 0.00453409, 87.7973
1, 3360.00000, 126.502, -30.6097, 126.672, -150.551, 126.672, 89.4512, 0, 0, 2.69372, -53.6836, 2.69011, -173.625, 2.6901, 66.3773, 0.00453409, 87.7973
1, 3420.00000, 126.502, -30.6097, 126.672, -150.551, 126.672, 89.4512, 0, 0, 2.69372, -53.6836, 2.69011, -173.625, 2.6901, 66.3773, 0.00453409, 87.7973
1, 3480.00000, 126.502, -30.6097, 126.672, -150.551, 126.672, 89.4512, 0, 0, 2.69372, -53.6836, 2.69011, -173.625, 2.6901, 66.3773, 0.00453409, 87.7973
1, 3540.00000, 126.502, -30.6097, 126.672, -150.551, 126.672, 89.4512, 0, 0, 2.69372, -53.6836, 2.69011, -173.625, 2.6901, 66.3773, 0.00453409, 87.7973
2, 0.00000, 126.502, -30.6097, 126.672, -150.551, 126.672, 89.4512, 0, 0, 2.69372, -53.6836, 2.69011, -173.625, 2.6901, 66.3773, 0.00453409, 87.7973
2, 60.00000, 126.502, -30.6097, 126.672, -150.551, 126.672, 89.4512, 0, 0, 2.69372, -53.6836, 2.69011, -173.625, 2.6901, 66.3773, 0.00453409, 87.7973
2, 120.00000, 126.497, -30.6109, 126.668, -150.552, 126.668, 89.4501, 0, 0, 2.70127, -53.6847, 2.69764, -173.626, 2.69763, 66.3762, 0.00455229, 87.857
2, 180.00000, 126.492, -30.6121, 126.663, -150.553, 126.663, 89.449, 0, 0, 2.70892, -53.6859, 2.70526, -173.627, 2.70526, 66.3751, 0.00457137, 87.9044
2, 240.00000, 126.487, -30.6132, 126.659, -150.554, 126.659, 89.4479, 0, 0, 2.71648, -53.6871, 2.7128, -173.628, 2.7128, 66.374, 0.00459027, 87.9508
2, 300.00000, 126.483, -30.6144, 126.654, -150.555, 126.654, 89.4468, 0, 0, 2.72403, -53.6883, 2.72034, -173.629, 2.72034, 66.3729, 0.00460921, 87.9971
2, 360.00000, 126.478, -30.6156, 126.65, -150.556, 126.65, 89.4456, 0, 0, 2.73168, -53.6894, 2.72797, -173.63, 2.72797, 66.3718, 0.00462841, 88.0441
2, 420.00000, 126.473, -30.6168, 126.646, -150.557, 126.645, 89.4445, 0, 0, 2.73924, -53.6906, 2.7355, -173.631, 2.73551, 66.3707, 0.00464743, 88.0901
2, 480.00000, 126.468, -30.6179, 126.641, -150.559, 126.641, 89.4434, 0, 0, 2.74679, -53.6918, 2.74304, -173.632, 2.74305, 66.3696, 0.00466649, 88.1362
2, 540.00000, 126.464, -30.6191, 126.637, -150.56, 126.636, 89.4423, 0, 0, 2.75444, -53.693, 2.75067, -173.633, 2.75068, 66.3684, 0.00468581, 88.1828
2, 600.00000, 126.459, -30.6203, 126.633, -150.561, 126.632, 89.4412, 0, 0, 2.762, -53.6941, 2.75821, -173.635, 2.75822, 66.3673, 0.00470496, 88.2285
2, 660.00000, 126.454, -30.6215, 126.628, -150.562, 126.627, 89.4401, 0, 0, 2.76956, -53.6953, 2.76575, -173.636, 2.76577, 66.3662, 0.00472414, 88.2742
2, 720.00000, 126.449, -30.6226, 126.624, -150.563, 126.623, 89.439, 0, 0, 2.77721, -53.6965, 2.77338, -173.637, 2.7734, 66.3651, 0.00474358, 88.3205
