hour,t(sec),V1,VAngle1,V2,VAngle2,V3,VAngle3,V4,VAngle4,I1,IAngle1,I2,IAngle2,I3,IAngle3,I4,IAngle4
0, 60.00000, 126.034, -31.002, 126.313, -150.649, 126.845, 89.1118, 0, 0, 2.2725, -54.0756, 2.26748, -173.723, 2.25797, 66.0381, 0.0250485, 81.859
0, 120.00000, 126.034, -31.002, 126.313, -150.649, 126.845, 89.1118, 0, 0, 2.27251, -54.0759, 2.26749, -173.723, 2.25798, 66.0379, 0.0250616, 81.86
0, 180.00000, 126.034, -31.002, 126.313, -150.649, 126.845, 89.1118, 0, 0, 2.27251, -54.0759, 2.26749, -173.723, 2.25798, 66.0379, 0.0250617, 81.86
0, 240.00000, 126.034, -31.002, 126.313, -150.649, 126.845, 89.1118, 0, 0, 2.27251, -54.0759, 2.26749, -173.723, 2.25798, 66.0379, 0.0250617, 81.86
0, 300.00000, 126.161, -30.8282, 126.715, -150.604, 126.849, 89.1119, 0, 0, 2.27024, -53.9025, 2.26031, -173.678, 2.25791, 66.0379, 0.0214903, 111.794
0, 360.00000, 126.161, -30.8282, 126.716, -150.604, 126.849, 89.1119, 0, 0, 2.27022, -53.9021, 2.26028, -173.678, 2.25791, 66.038, 0.0214891, 111.875
0, 420.00000, 126.161, -30.8282, 126.716, -150.604, 126.849, 89.1119, 0, 0, 2.27022, -53.9021, 2.26028, -173.678, 2.25791, 66.038, 0.021489, 111.875
0, 480.00000, 126.161, -30.8282, 126.716, -150.604, 126.849, 89.1119, 0, 0, 2.27022, -53.9021, 2.26028, -173.678, 2.25791, 66.038, 0.021489, 111.875
0, 540.00000, 126.161, -30.8282, 126.716, -150.604, 126.849, 89.1119, 0, 0, 2.27022, -53.9021, 2.26028, -173.678, 2.25791, 66.038, 0.021489, 111.875
0, 600.00000, 126.161, -30.8282, 126.716, -150.604, 126.849, 89.1119, 0, 0, 2.27022, -53.9021, 2.26028, -173.678, 2.25791, 66.038, 0.021489, 111.875
0, 660.00000, 126.161, -30.8282, 126.716, -150.604, 126.849, 89.1119, 0, 0, 2.27022, -53.9021, 2.26028, -173.678, 2.25791, 66.038, 0.021489, 111.875
0, 720.00000, 126.161, -30.8282, 126.716, -150.604, 126.849, 89.1119, 0, 0, 2.27022, -53.9021, 2.26028, -173.678, 2.25791, 66.038, 0.021489, 111.875
0, 780.00000, 126.161, -30.8282, 126.716, -150.604, 126.849, 89.1119, 0, 0, 2.27022, -53.9021, 2.26028, -173.678, 2.25791, 66.038, 0.021489, 111.875
0, 840.00000, 126.161, -30.8282, 126.716, -150.604, 126.849, 89.1119, 0, 0, 2.27022, -53.9021, 2.26028, -173.678, 2.25791, 66.038, 0.021489, 111.875
0, 900.00000, 126.161, -30.8282, 126.716, -150.604, 126.849, 89.1119, 0, 0, 2.27022, -53.9021, 2.26028, -173.678, 2.25791, 66.038, 0.021489, 111.875
0, 960.00000, 126.161, -30.8282, 126.716, -150.604, 126.849, 89.1119, 0, 0, 2.27022, -53.9021, 2.26028, -173.678, 2.25791, 66.038, 0.021489, 111.875
0, 1020.00000, 126.161, -30.8282, 126.716, -150.604, 126.849, 89.1119, 0, 0, 2.27022, -53.9021, 2.26028, -173.678, 2.25791, 66.038, 0.021489, 111.875
0, 1080.00000, 126.161, -30.8282, 126.716, -150.604, 126.849, 89.1119, 0, 0, 2.27022, -53.9021, 2.26028, -173.678, 2.25791, 66.038, 0.021489, 111.875
0, 1140.00000, 126.161, -30.8282, 126.716, -150.604, 126.849, 89.1119, 0, 0, 2.27022, -53.9021, 2.26028, -173.678, 2.25791, 66.038, 0.021489, 111.875
0, 1200.00000, 126.161, -30.8282, 126.716, -150.604, 126.849, 89.1119, 0, 0, 2.27022, -53.9021, 2.26028, -173.678, 2.25791, 66.038, 0.021489, 111.875
0, 1260.00000, 126.161, -30.8282, 126.716, -150.604, 126.849, 89.1119, 0, 0, 2.27022, -53.9021, 2.26028, -173.678, 2.25791, 66.038, 0.021489, 111.875
0, 1320.00000, 126.161, -30.8282, 126.716, -150.604, 126.849, 89.1119, 0, 0, 2.27022, -53.9021, 2.26028, -173.678, 2.25791, 66.038, 0.021489, 111.875
0, 1380.00000, 126.161, -30.8282, 126.716, -150.604, 126.849, 89.1119, 0, 0, 2.27022, -53.9021, 2.26028, -173.678, 2.25791, 66.038, 0.021489, 111.875
0, 1440.00000, 126.161, -30.8282, 126.716, -150.604, 126.849, 89.1119, 0, 0, 2.27022, -53.9021, 2.26028, -173.678, 2.25791, 66.038, 0.021489, 111.875
0, 1500.00000, 126.161, -30.8282, 126.716, -150.604, 126.849, 89.1119, 0, 0, 2.27022, -53.9021, 2.26028, -173.678, 2.25791, 66.038, 0.021489, 111.875
0, 1560.00000, 126.161, -30.8282, 126.716, -150.604, 126.849, 89.1119, 0, 0, 2.27022, -53.9021, 2.26028, -173.678, 2.25791, 66.038, 0.021489, 111.875
0, 1620.00000, 126.161, -30.8282, 126.716, -150.604, 126.849, 89.1119, 0, 0, 2.27022, -53.9021, 2.26028, -173.678, 2.25791, 66.038, 0.021489, 111.875
0, 1680.00000, 126.161, -30.8282, 126.716, -150.604, 126.849, 89.1119, 0, 0, 2.27022, -53.9021, 2.26028, -173.678, 2.25791, 66.038, 0.021489, 111.875
0, 1740.00000, 126.161, -30.8282, 126.716, -150.604, 126.849, 89.1119, 0, 0, 2.27022, -53.9021, 2.26028, -173.678, 2.25791, 66.038, 0.021489, 111.875
0, 1800.00000, 126.161, -30.8282, 126.716, -150.604, 126.849, 89.1119, 0, 0, 2.27022, -53.9021, 2.26028, -173.678, 2.25791, 66.038, 0.021489, 111.875
0, 1860.00000, 126.161, -30.8282, 126.716, -150.604, 126.849, 89.1119, 0, 0, 2.27022, -53.9021, 2.26028, -173.678, 2.25791, 66.038, 0.021489, 111.875
0, 1920.00000, 126.161, -30.8282, 126.716, -150.604, 126.849, 89.1119, 0, 0, 2.27022, -53.9021, 2.26028, -173.678, 2.25791, 66.038, 0.021489, 111.875
0, 1980.00000, 126.161, -30.8282, 126.716, -150.604, 126.849, 89.1119, 0, 0, 2.27022, -53.9021, 2.26028, -173.678, 2.25791, 66.038, 0.021489, 111.875
0, 2040.00000, 126.161, -30.8282, 126.716, -150.604, 126.849, 89.1119, 0, 0, 2.27022, -53.9021, 2.26028, -173.678, 2.25791, 66.038, 0.021489, 111.875
0, 2100.00000, 126.161, -30.8282, 126.716, -150.604, 126.849, 89.1119, 0, 0, 2.27022, -53.9021, 2.26028, -173.678, 2.25791, 66.038, 0.021489, 111.875
0, 2160.00000, 126.161, -30.8282, 126.716, -150.604, 126.849, 89.1119, 0, 0, 2.27022, -53.9021, 2.26028, -173.678, 2.25791, 66.038, 0.021489, 111.875
0, 2220.00000, 126.557, -30.7861, 126.717, -150.604, 126.974, 89.2819, 0, 0, 2.26313, -53.8604, 2.26027, -173.678, 2.25568, 66.2077, 0.0127186, 81.6915
0, 2280.00000, 126.558, -30.7861, 126.717, -150.604, 126.975, 89.2819, 0, 0, 2.2631, -53.86, 2.26026, -173.678, 2.25567, 66.208, 0.0126946, 81.6353
0, 2340.00000, 126.558, -30.7861, 126.717, -150.604, 126.975, 89.2819, 0, 0, 2.2631, -53.86, 2.26026, -173.678, 2.25567, 66.208, 0.0126945, 81.635
0, 2400.00000, 126.558, -30.7861, 126.717, -150.604, 126.975, 89.2819, 0, 0, 2.2631, -53.86, 2.26026, -173.678, 2.25567, 66.208, 0.0126945, 81.635
0, 2460.00000, 126.558, -30.7861, 126.717, -150.604, 126.975, 89.2819, 0, 0, 2.2631, -53.86, 2.26026, -173.678, 2.25567, 66.208, 0.0126945, 81.635
0, 2520.00000, 126.558, -30.7861, 126.717, -150.604, 126.975, 89.2819, 0, 0, 2.2631, -53.86, 2.26026, -173.678, 2.25567, 66.208, 0.0126945, 81.635
0, 2580.00000, 126.558, -30.7861, 126.717, -150.604, 126.975, 89.2819, 0, 0, 2.2631, -53.86, 2.26026, -173.678, 2.25567, 66.208, 0.0126945, 81.635
0, 2640.00000, 126.558, -30.7861, 126.717, -150.604, 126.975, 89.2819, 0, 0, 2.2631, -53.86, 2.26026, -173.678, 2.25567, 66.208, 0.0126945, 81.635
0, 2700.00000, 126.558, -30.7861, 126.717, -150.604, 126.975, 89.2819, 0, 0, 2.2631, -53.86, 2.26026, -173.678, 2.25567, 66.208, 0.0126945, 81.635
0, 2760.00000, 126.558, -30.7861, 126.717, -150.604, 126.975, 89.2819, 0, 0, 2.2631, -53.86, 2.26026, -173.678, 2.25567, 66.208, 0.0126945, 81.635
0, 2820.00000, 126.558, -30.7861, 126.717, -150.604, 126.975, 89.2819, 0, 0, 2.2631, -53.86, 2.26026, -173.678, 2.25567, 66.208, 0.0126945, 81.635
0, 2880.00000, 126.558, -30.7861, 126.717, -150.604, 126.975, 89.2819, 0, 0, 2.2631, -53.86, 2.26026, -173.678, 2.25567, 66.208, 0.0126945, 81.635
0, 2940.00000, 126.558, -30.7861, 126.717, -150.604, 126.975, 89.2819, 0, 0, 2.2631, -53.86, 2.26026, -173.678, 2.25567, 66.208, 0.0126945, 81.635
0, 3000.00000, 126.558, -30.7861, 126.717, -150.604, 126.975, 89.2819, 0, 0, 2.2631, -53.86, 2.26026, -173.678, 2.25567, 66.208, 0.0126945, 81.635
0, 3060.00000, 126.558, -30.7861, 126.717, -150.604, 126.975, 89.2819, 0, 0, 2.2631, -53.86, 2.26026, -173.678, 2.25567, 66.208, 0.0126945, 81.635
0, 3120.00000, 126.558, -30.7861, 126.717, -150.604, 126.975, 89.2819, 0, 0, 2.2631, -53.86, 2.26026, -173.678, 2.25567, 66.208, 0.0126945, 81.635
0, 3180.00000, 126.558, -30.7861, 126.717, -150.604, 126.975, 89.2819, 0, 0, 2.2631, -53.86, 2.26026, -173.678, 2.25567, 66.208, 0.0126945, 81.635
0, 3240.00000, 126.558, -30.7861, 126.717, -150.604, 126.975, 89.2819, 0, 0, 2.2631, -53.86, 2.26026, -173.678, 2.25567, 66.208, 0.0126945, 81.635
0, 3300.00000, 126.558, -30.7861, 126.717, -150.604, 126.975, 89.2819, 0, 0, 2.2631, -53.86, 2.26026, -173.678, 2.25567, 66.208, 0.0126945, 81.635
0, 3360.00000, 126.558, -30.7861, 126.717, -150.604, 126.975, 89.2819, 0, 0, 2.2631, -53.86, 2.26026, -173.678, 2.25567, 66.208, 0.0126945, 81.635
0, 3420.00000, 126.558, -30.7861, 126.717, -150.604, 126.975, 89.2819, 0, 0, 2.2631, -53.86, 2.26026, -173.678, 2.25567, 66.208, 0.0126945, 81.635
0, 3480.00000, 126.558, -30.7861, 126.717, -150.604, 126.975, 89.2819, 0, 0, 2.2631, -53.86, 2.26026, -173.678, 2.25567, 66.208, 0.0126945, 81.635
0, 3540.00000, 126.558, -30.7861, 126.717, -150.604, 126.975, 89.2819, 0, 0, 2.2631, -53.86, 2.26026, -173.678, 2.25567, 66.208, 0.0126945, 81.635
1, 0.00000, 126.558, -30.7861, 126.717, -150.604, 126.975, 89.2819, 0, 0, 2.2631, -53.86, 2.26026, -173.678, 2.25567, 66.208, 0.0126945, 81.635
1, 60.00000, 126.558, -30.7861, 126.717, -150.604, 126.975, 89.2819, 0, 0, 2.2631, -53.86, 2.26026, -173.678, 2.25567, 66.208, 0.0126945, 81.635
1, 120.00000, 126.558, -30.7861, 126.717, -150.604, 126.975, 89.2819, 0, 0, 2.2631, -53.86, 2.26026, -173.678, 2.25567, 66.208, 0.0126945, 81.635
1, 180.00000, 126.558, -30.7861, 126.717, -150.604, 126.975, 89.2819, 0, 0, 2.2631, -53.86, 2.26026, -173.678, 2.25567, 66.208, 0.0126945, 81.635
1, 240.00000, 126.558, -30.7861, 126.717, -150.604, 126.975, 89.2819, 0, 0, 2.2631, -53.86, 2.26026, -173.678, 2.25567, 66.208, 0.0126945, 81.635
1, 300.00000, 126.558, -30.7861, 126.717, -150.604, 126.975, 89.2819, 0, 0, 2.2631, -53.86, 2.26026, -173.678, 2.25567, 66.208, 0.0126945, 81.635
1, 360.00000, 126.558, -30.7861, 126.717, -150.604, 126.975, 89.2819, 0, 0, 2.2631, -53.86, 2.26026, -173.678, 2.25567, 66.208, 0.0126945, 81.635
1, 420.00000, 126.558, -30.7861, 126.717, -150.604, 126.975, 89.2819, 0, 0, 2.2631, -53.86, 2.26026, -173.678, 2.25567, 66.208, 0.0126945, 81.635
1, 480.00000, 126.558, -30.7861, 126.717, -150.604, 126.975, 89.2819, 0, 0, 2.2631, -53.86, 2.26026, -173.678, 2.25567, 66.208, 0.0126945, 81.635
1, 540.00000, 126.558, -30.7861, 126.717, -150.604, 126.975, 89.2819, 0, 0, 2.2631, -53.86, 2.26026, -173.678, 2.25567, 66.208, 0.0126945, 81.635
1, 600.00000, 126.558, -30.7861, 126.717, -150.604, 126.975, 89.2819, 0, 0, 2.2631, -53.86, 2.26026, -173.678, 2.25567, 66.208, 0.0126945, 81.635
1, 660.00000, 126.676, -30.6187, 127.104, -150.563, 126.975, 89.2818, 0, 0, 2.26098, -53.6927, 2.25338, -173.637, 2.25566, 66.2079, 0.0120935, 139.829
1, 720.00000, 126.676, -30.6187, 127.104, -150.563, 126.975, 89.2818, 0, 0, 2.26098, -53.6926, 2.25337, -173.637, 2.25566, 66.2079, 0.0121064, 139.86
1, 780.00000, 127.078, -30.5742, 127.105, -150.562, 127.104, 89.454, 0, 0, 2.25388, -53.6487, 2.25336, -173.636, 2.25339, 66.3796, 0.000775022, 33.1267
1, 840.00000, 127.078, -30.5742, 127.105, -150.562, 127.104, 89.454, 0, 0, 2.25384, -53.6481, 2.25335, -173.636, 2.25338, 66.3801, 0.000770354, 30.1816
1, 900.00000, 127.078, -30.5742, 127.105, -150.562, 127.104, 89.454, 0, 0, 2.25384, -53.6481, 2.25335, -173.636, 2.25338, 66.3801, 0.000770324, 30.1708
1, 960.00000, 127.078, -30.5742, 127.105, -150.562, 127.104, 89.454, 0, 0, 2.25384, -53.6481, 2.25335, -173.636, 2.25338, 66.3801, 0.000770324, 30.1708
1, 1020.00000, 127.078, -30.5742, 127.105, -150.562, 127.104, 89.454, 0, 0, 2.25384, -53.6481, 2.25335, -173.636, 2.25338, 66.3801, 0.000770324, 30.1708
1, 1080.00000, 127.078, -30.5742, 127.105, -150.562, 127.104, 89.454, 0, 0, 2.25384, -53.6481, 2.25335, -173.636, 2.25338, 66.3801, 0.000770324, 30.1708
1, 1140.00000, 127.078, -30.5742, 127.105, -150.562, 127.104, 89.454, 0, 0, 2.25384, -53.6481, 2.25335, -173.636, 2.25338, 66.3801, 0.000770324, 30.1708
1, 1200.00000, 127.078, -30.5742, 127.105, -150.562, 127.104, 89.454, 0, 0, 2.25384, -53.6481, 2.25335, -173.636, 2.25338, 66.3801, 0.000770324, 30.1708
1, 1260.00000, 127.078, -30.5742, 127.105, -150.562, 127.104, 89.454, 0, 0, 2.25384, -53.6481, 2.25335, -173.636, 2.25338, 66.3801, 0.000770324, 30.1708
1, 1320.00000, 127.078, -30.5742, 127.105, -150.562, 127.104, 89.454, 0, 0, 2.25384, -53.6481, 2.25335, -173.636, 2.25338, 66.3801, 0.000770324, 30.1708
1, 1380.00000, 127.078, -30.5742, 127.105, -150.562, 127.104, 89.454, 0, 0, 2.25384, -53.6481, 2.25335, -173.636, 2.25338, 66.3801, 0.000770324, 30.1708
1, 1440.00000, 127.078, -30.5742, 127.105, -150.562, 127.104, 89.454, 0, 0, 2.25384, -53.6481, 2.25335, -173.636, 2.25338, 66.3801, 0.000770324, 30.1708
1, 1500.00000, 127.078, -30.5742, 127.105, -150.562, 127.104, 89.454, 0, 0, 2.25384, -53.6481, 2.25335, -173.636, 2.25338, 66.3801, 0.000770324, 30.1708
1, 1560.00000, 127.078, -30.5742, 127.105, -150.562, 127.104, 89.454, 0, 0, 2.25384, -53.6481, 2.25335, -173.636, 2.25338, 66.3801, 0.000770324, 30.1708
1, 1620.00000, 127.078, -30.5742, 127.105, -150.562, 127.104, 89.454, 0, 0, 2.25384, -53.6481, 2.25335, -173.636, 2.25338, 66.3801, 0.000770324, 30.1708
1, 1680.00000, 127.078, -30.5742, 127.105, -150.562, 127.104, 89.454, 0, 0, 2.25384, -53.6481, 2.25335, -173.636, 2.25338, 66.3801, 0.000770324, 30.1708
1, 1740.00000, 127.078, -30.5742, 127.105, -150.562, 127.104, 89.454, 0, 0, 2.25384, -53.6481, 2.25335, -173.636, 2.25338, 66.3801, 0.000770324, 30.1708
1, 1800.00000, 127.078, -30.5742, 127.105, -150.562, 127.104, 89.454, 0, 0, 2.25384, -53.6481, 2.25335, -173.636, 2.25338, 66.3801, 0.000770324, 30.1708
1, 1860.00000, 127.078, -30.5742, 127.105, -150.562, 127.104, 89.454, 0, 0, 2.25384, -53.6481, 2.25335, -173.636, 2.25338, 66.3801, 0.000770324, 30.1708
1, 1920.00000, 127.078, -30.5742, 127.105, -150.562, 127.104, 89.454, 0, 0, 2.25384, -53.6481, 2.25335, -173.636, 2.25338, 66.3801, 0.000770324, 30.1708
1, 1980.00000, 127.078, -30.5742, 127.105, -150.562, 127.104, 89.454, 0, 0, 2.25384, -53.6481, 2.25335, -173.636, 2.25338, 66.3801, 0.000770324, 30.1708
1, 2040.00000, 127.078, -30.5742, 127.105, -150.562, 127.104, 89.454, 0, 0, 2.25384, -53.6481, 2.25335, -173.636, 2.25338, 66.3801, 0.000770324, 30.1708
1, 2100.00000, 127.078, -30.5742, 127.105, -150.562, 127.104, 89.454, 0, 0, 2.25384, -53.6481, 2.25335, -173.636, 2.25338, 66.3801, 0.000770324, 30.1708
1, 2160.00000, 127.078, -30.5742, 127.105, -150.562, 127.104, 89.454, 0, 0, 2.25384, -53.6481, 2.25335, -173.636, 2.25338, 66.3801, 0.000770324, 30.1708
1, 2220.00000, 127.078, -30.5742, 127.105, -150.562, 127.104, 89.454, 0, 0, 2.25384, -53.6481, 2.25335, -173.636, 2.25338, 66.3801, 0.000770324, 30.1708
1, 2280.00000, 127.078, -30.5742, 127.105, -150.562, 127.104, 89.454, 0, 0, 2.25384, -53.6481, 2.25335, -173.636, 2.25338, 66.3801, 0.000770324, 30.1708
1, 2340.00000, 127.078, -30.5742, 127.105, -150.562, 127.104, 89.454, 0, 0, 2.25384, -53.6481, 2.25335, -173.636, 2.25338, 66.3801, 0.000770324, 30.1708
1, 2400.00000, 127.078, -30.5742, 127.105, -150.562, 127.104, 89.454, 0, 0, 2.25384, -53.6481, 2.25335, -173.636, 2.25338, 66.3801, 0.000770324, 30.1708
1, 2460.00000, 127.078, -30.5742, 127.105, -150.562, 127.104, 89.454, 0, 0, 2.25384, -53.6481, 2.25335, -173.636, 2.25338, 66.3801, 0.000770324, 30.1708
1, 2520.00000, 127.078, -30.5742, 127.105, -150.562, 127.104, 89.454, 0, 0, 2.25384, -53.6481, 2.25335, -173.636, 2.25338, 66.3801, 0.000770324, 30.1708
1, 2580.00000, 127.078, -30.5742, 127.105, -150.562, 127.104, 89.454, 0, 0, 2.25384, -53.6481, 2.25335, -173.636, 2.25338, 66.3801, 0.000770324, 30.1708
1, 2640.00000, 127.078, -30.5742, 127.105, -150.562, 127.104, 89.454, 0, 0, 2.25384, -53.6481, 2.25335, -173.636, 2.25338, 66.3801, 0.000770324, 30.1708
1, 2700.00000, 127.078, -30.5742, 127.105, -150.562, 127.104, 89.454, 0, 0, 2.25384, -53.6481, 2.25335, -173.636, 2.25338, 66.3801, 0.000770324, 30.1708
1, 2760.00000, 127.078, -30.5742, 127.105, -150.562, 127.104, 89.454, 0, 0, 2.25384, -53.6481, 2.25335, -173.636, 2.25338, 66.3801, 0.000770324, 30.1708
1, 2820.00000, 127.078, -30.5742, 127.105, -150.562, 127.104, 89.454, 0, 0, 2.25384, -53.6481, 2.25335, -173.636, 2.25338, 66.3801, 0.000770324, 30.1708
1, 2880.00000, 127.078, -30.5742, 127.105, -150.562, 127.104, 89.454, 0, 0, 2.25384, -53.6481, 2.25335, -173.636, 2.25338, 66.3801, 0.000770324, 30.1708
1, 2940.00000, 127.078, -30.5742, 127.105, -150.562, 127.104, 89.454, 0, 0, 2.25384, -53.6481, 2.25335, -173.636, 2.25338, 66.3801, 0.000770324, 30.1708
1, 3000.00000, 127.078, -30.5742, 127.105, -150.562, 127.104, 89.454, 0, 0, 2.25384, -53.6481, 2.25335, -173.636, 2.25338, 66.3801, 0.000770324, 30.1708
1, 3060.00000, 127.078, -30.5742, 127.105, -150.562, 127.104, 89.454, 0, 0, 2.25384, -53.6481, 2.25335, -173.636, 2.25338, 66.3801, 0.000770324, 30.1708
1, 3120.00000, 127.078, -30.5742, 127.105, -150.562, 127.104, 89.454, 0, 0, 2.25384, -53.6481, 2.25335, -173.636, 2.25338, 66.3801, 0.000770324, 30.1708
1, 3180.00000, 127.078, -30.5742, 127.105, -150.562, 127.104, 89.454, 0, 0, 2.25384, -53.6481, 2.25335, -173.636, 2.25338, 66.3801, 0.000770324, 30.1708
1, 3240.00000, 127.078, -30.5742, 127.105, -150.562, 127.104, 89.454, 0, 0, 2.25384, -53.6481, 2.25335, -173.636, 2.25338, 66.3801, 0.000770324, 30.1708
1, 3300.00000, 127.078, -30.5742, 127.105, -150.562, 127.104, 89.454, 0, 0, 2.25384, -53.6481, 2.25335, -173.636, 2.25338, 66.3801, 0.000770324, 30.1708
1, 3360.00000, 127.078, -30.5742, 127.105, -150.562, 127.104, 89.454, 0, 0, 2.25384, -53.6481, 2.25335, -173.636, 2.25338, 66.3801, 0.000770324, 30.1708
1, 3420.00000, 127.078, -30.5742, 127.105, -150.562, 127.104, 89.454, 0, 0, 2.25384, -53.6481, 2.25335, -173.636, 2.25338, 66.3801, 0.000770324, 30.1708
1, 3480.00000, 127.078, -30.5742, 127.105, -150.562, 127.104, 89.454, 0, 0, 2.25384, -53.6481, 2.25335, -173.636, 2.25338, 66.3801, 0.000770324, 30.1708
1, 3540.00000, 127.078, -30.5742, 127.105, -150.562, 127.104, 89.454, 0, 0, 2.25384, -53.6481, 2.25335, -173.636, 2.25338, 66.3801, 0.000770324, 30.1708
2, 0.00000, 127.078, -30.5742, 127.105, -150.562, 127.104, 89.454, 0, 0, 2.25384, -53.6481, 2.25335, -173.636, 2.25338, 66.3801, 0.000770324, 30.1708
2, 60.00000, 127.078, -30.5742, 127.105, -150.562, 127.104, 89.454, 0, 0, 2.25384, -53.6481, 2.25335, -173.636, 2.25338, 66.3801, 0.000770324, 30.1708
2, 120.00000, 127.074, -30.5753, 127.102, -150.564, 127.1, 89.4529, 0, 0, 2.26014, -53.6491, 2.25965, -173.637, 2.25967, 66.379, 0.000771602, 30.2651
2, 180.00000, 127.07, -30.5764, 127.098, -150.565, 127.097, 89.4518, 0, 0, 2.26652, -53.6503, 2.26603, -173.639, 2.26605, 66.3779, 0.000773796, 30.4227
2, 240.00000, 127.066, -30.5776, 127.094, -150.566, 127.093, 89.4507, 0, 0, 2.27282, -53.6514, 2.27233, -173.64, 2.27235, 66.3768, 0.000775999, 30.5803
2, 300.00000, 127.063, -30.5787, 127.091, -150.567, 127.089, 89.4496, 0, 0, 2.27913, -53.6525, 2.27863, -173.641, 2.27865, 66.3757, 0.000778197, 30.7372
2, 360.00000, 127.059, -30.5798, 127.087, -150.568, 127.085, 89.4484, 0, 0, 2.28551, -53.6537, 2.285, -173.642, 2.28503, 66.3746, 0.000780417, 30.8953
2, 420.00000, 127.055, -30.581, 127.083, -150.569, 127.082, 89.4473, 0, 0, 2.29181, -53.6548, 2.2913, -173.643, 2.29133, 66.3735, 0.00078264, 31.0531
2, 480.00000, 127.051, -30.5821, 127.08, -150.57, 127.078, 89.4462, 0, 0, 2.29812, -53.6559, 2.2976, -173.644, 2.29763, 66.3724, 0.000784857, 31.2101
2, 540.00000, 127.047, -30.5832, 127.076, -150.571, 127.074, 89.4451, 0, 0, 2.3045, -53.6571, 2.30398, -173.645, 2.30401, 66.3713, 0.000787097, 31.3684
2, 600.00000, 127.044, -30.5844, 127.072, -150.572, 127.071, 89.444, 0, 0, 2.31081, -53.6582, 2.31028, -173.646, 2.31031, 66.3701, 0.000789339, 31.5263
2, 660.00000, 127.04, -30.5855, 127.069, -150.574, 127.067, 89.4429, 0, 0, 2.31711, -53.6593, 2.31659, -173.647, 2.31662, 66.369, 0.000791576, 31.6835
2, 720.00000, 127.036, -30.5866, 127.065, -150.575, 127.063, 89.4418, 0, 0, 2.3235, -53.6605, 2.32297, -173.649, 2.323, 66.3679, 0.000793836, 31.8418
