hour,t(sec),V1,VAngle1,V2,VAngle2,V3,VAngle3,V4,VAngle4,I1,IAngle1,I2,IAngle2,I3,IAngle3,I4,IAngle4
0, 60.00000, 127.175, -31.3571, 126.391, -150.728, 128.06, 89.3951, 0, 0, 2.30766, -54.4305, 2.32199, -173.802, 2.29176, 66.3215, 0.0540858, 32.3424
0, 120.00000, 127.184, -31.3656, 126.391, -150.728, 128.082, 89.3945, 0, 0, 2.3075, -54.4392, 2.32199, -173.802, 2.29136, 66.3208, 0.0547643, 32.4519
0, 180.00000, 127.192, -31.3734, 126.391, -150.728, 128.103, 89.3939, 0, 0, 2.30735, -54.4469, 2.32199, -173.802, 2.29099, 66.3202, 0.0553753, 32.5487
0, 240.00000, 127.2, -31.3803, 126.391, -150.728, 128.121, 89.3934, 0, 0, 2.30722, -54.4539, 2.32199, -173.802, 2.29066, 66.3197, 0.0559255, 32.6346
0, 300.00000, 127.206, -31.3866, 126.391, -150.728, 128.137, 89.3929, 0, 0, 2.3071, -54.4602, 2.32199, -173.802, 2.29037, 66.3191, 0.0564208, 32.711
0, 360.00000, 127.212, -31.3923, 126.391, -150.728, 128.152, 89.3924, 0, 0, 2.30699, -54.4659, 2.32199, -173.802, 2.2901, 66.3187, 0.0568667, 32.7791
0, 420.00000, 127.218, -31.3973, 126.391, -150.728, 128.165, 89.392, 0, 0, 2.30689, -54.471, 2.32199, -173.802, 2.28986, 66.3182, 0.0572681, 32.8397
0, 480.00000, 127.223, -31.4019, 126.391, -150.728, 128.177, 89.3916, 0, 0, 2.3068, -54.4756, 2.322, -173.802, 2.28965, 66.3178, 0.0576295, 32.8939
0, 540.00000, 127.227, -31.4061, 126.391, -150.728, 128.188, 89.3913, 0, 0, 2.30673, -54.4798, 2.322, -173.802, 2.28945, 66.3175, 0.0579548, 32.9422
0, 600.00000, 127.231, -31.4098, 126.391, -150.728, 128.198, 89.391, 0, 0, 2.30666, -54.4835, 2.322, -173.802, 2.28928, 66.3172, 0.0582476, 32.9854
0, 660.00000, 127.234, -31.4131, 126.391, -150.728, 128.206, 89.3907, 0, 0, 2.30659, -54.4869, 2.322, -173.802, 2.28912, 66.3169, 0.0585112, 33.0241
0, 720.00000, 127.238, -31.4161, 126.391, -150.728, 128.214, 89.3904, 0, 0, 2.30654, -54.4899, 2.322, -173.802, 2.28898, 66.3166, 0.0587485, 33.0587
0, 780.00000, 127.24, -31.4188, 126.39, -150.728, 128.221, 89.3902, 0, 0, 2.30648, -54.4926, 2.322, -173.802, 2.28885, 66.3164, 0.0589621, 33.0898
0, 840.00000, 127.243, -31.4213, 126.39, -150.728, 128.228, 89.39, 0, 0, 2.30644, -54.4951, 2.322, -173.802, 2.28874, 66.3162, 0.0591543, 33.1176
0, 900.00000, 127.245, -31.4235, 126.39, -150.728, 128.234, 89.3898, 0, 0, 2.3064, -54.4973, 2.322, -173.802, 2.28863, 66.316, 0.0593274, 33.1425
0, 960.00000, 127.095, -31.5994, 125.978, -150.77, 128.234, 89.383, 0, 0, 2.30911, -54.6732, 2.3296, -173.844, 2.28863, 66.3092, 0.0721708, 31.7511
0, 1020.00000, 127.097, -31.6011, 125.978, -150.77, 128.238, 89.3829, 0, 0, 2.30908, -54.675, 2.3296, -173.844, 2.28855, 66.309, 0.0723088, 31.7709
0, 1080.00000, 127.099, -31.6027, 125.978, -150.77, 128.242, 89.3827, 0, 0, 2.30905, -54.6766, 2.3296, -173.844, 2.28847, 66.3089, 0.0724334, 31.789
0, 1140.00000, 127.1, -31.6041, 125.978, -150.77, 128.246, 89.3826, 0, 0, 2.30902, -54.678, 2.3296, -173.844, 2.28841, 66.3087, 0.0725455, 31.8052
0, 1200.00000, 127.102, -31.6054, 125.978, -150.77, 128.249, 89.3825, 0, 0, 2.309, -54.6793, 2.3296, -173.844, 2.28834, 66.3086, 0.0726465, 31.8198
0, 1260.00000, 127.103, -31.6066, 125.978, -150.77, 128.253, 89.3824, 0, 0, 2.30898, -54.6805, 2.3296, -173.844, 2.28829, 66.3085, 0.0727373, 31.8329
0, 1320.00000, 127.104, -31.6076, 125.978, -150.77, 128.255, 89.3823, 0, 0, 2.30896, -54.6815, 2.3296, -173.844, 2.28824, 66.3084, 0.0728191, 31.8447
0, 1380.00000, 127.105, -31.6086, 125.978, -150.77, 128.258, 89.3822, 0, 0, 2.30894, -54.6825, 2.3296, -173.844, 2.2882, 66.3083, 0.0728927, 31.8553
0, 1440.00000, 127.106, -31.6094, 125.978, -150.77, 128.26, 89.3821, 0, 0, 2.30893, -54.6833, 2.3296, -173.844, 2.28816, 66.3082, 0.072959, 31.8648
0, 1500.00000, 127.107, -31.6102, 125.978, -150.77, 128.262, 89.382, 0, 0, 2.30891, -54.6841, 2.3296, -173.844, 2.28812, 66.3081, 0.0730186, 31.8734
0, 1560.00000, 127.107, -31.6109, 125.978, -150.77, 128.264, 89.382, 0, 0, 2.3089, -54.6848, 2.3296, -173.844, 2.28809, 66.3081, 0.0730723, 31.8811
0, 1620.00000, 127.108, -31.6115, 125.978, -150.77, 128.265, 89.3819, 0, 0, 2.30889, -54.6854, 2.3296, -173.844, 2.28806, 66.308, 0.0731205, 31.888
0, 1680.00000, 127.109, -31.612, 125.978, -150.77, 128.267, 89.3818, 0, 0, 2.30888, -54.6859, 2.3296, -173.844, 2.28803, 66.3079, 0.073164, 31.8942
0, 1740.00000, 127.109, -31.6125, 125.978, -150.77, 128.268, 89.3818, 0, 0, 2.30887, -54.6864, 2.3296, -173.844, 2.28801, 66.3079, 0.0732031, 31.8998
0, 1800.00000, 127.11, -31.613, 125.978, -150.77, 128.269, 89.3818, 0, 0, 2.30886, -54.6869, 2.3296, -173.844, 2.28799, 66.3078, 0.0732384, 31.9049
0, 1860.00000, 127.11, -31.6134, 125.978, -150.77, 128.27, 89.3817, 0, 0, 2.30885, -54.6873, 2.3296, -173.844, 2.28797, 66.3078, 0.0732701, 31.9094
0, 1920.00000, 127.11, -31.6138, 125.978, -150.77, 128.271, 89.3817, 0, 0, 2.30885, -54.6877, 2.3296, -173.844, 2.28795, 66.3078, 0.0732986, 31.9135
0, 1980.00000, 127.111, -31.6141, 125.978, -150.77, 128.272, 89.3816, 0, 0, 2.30884, -54.688, 2.3296, -173.844, 2.28794, 66.3077, 0.0733242, 31.9171
0, 2040.00000, 127.111, -31.6144, 125.978, -150.77, 128.273, 89.3816, 0, 0, 2.30883, -54.6883, 2.32959, -173.844, 2.28792, 66.3077, 0.0733473, 31.9204
0, 2100.00000, 127.111, -31.6147, 125.978, -150.77, 128.274, 89.3816, 0, 0, 2.30883, -54.6886, 2.32959, -173.844, 2.28791, 66.3077, 0.0733681, 31.9234
0, 2160.00000, 127.112, -31.6149, 125.978, -150.77, 128.274, 89.3816, 0, 0, 2.30882, -54.6888, 2.32959, -173.844, 2.2879, 66.3077, 0.0733869, 31.9261
0, 2220.00000, 127.112, -31.6151, 125.978, -150.77, 128.275, 89.3815, 0, 0, 2.30882, -54.689, 2.32959, -173.844, 2.28789, 66.3076, 0.0734037, 31.9285
0, 2280.00000, 127.112, -31.6153, 125.978, -150.77, 128.275, 89.3815, 0, 0, 2.30882, -54.6892, 2.32959, -173.844, 2.28788, 66.3076, 0.0734189, 31.9306
0, 2340.00000, 127.112, -31.6155, 125.978, -150.77, 128.276, 89.3815, 0, 0, 2.30881, -54.6894, 2.32959, -173.844, 2.28787, 66.3076, 0.0734325, 31.9326
0, 2400.00000, 127.112, -31.6156, 125.978, -150.77, 128.276, 89.3815, 0, 0, 2.30881, -54.6895, 2.32959, -173.844, 2.28786, 66.3076, 0.0734448, 31.9343
0, 2460.00000, 127.112, -31.6158, 125.978, -150.77, 128.277, 89.3815, 0, 0, 2.30881, -54.6897, 2.32959, -173.844, 2.28786, 66.3076, 0.0734558, 31.9359
0, 2520.00000, 127.113, -31.6159, 125.978, -150.77, 128.277, 89.3815, 0, 0, 2.30881, -54.6898, 2.32959, -173.844, 2.28785, 66.3076, 0.0734658, 31.9373
0, 2580.00000, 127.113, -31.616, 125.978, -150.77, 128.277, 89.3815, 0, 0, 2.3088, -54.6899, 2.32959, -173.844, 2.28785, 66.3075, 0.0734747, 31.9386
0, 2640.00000, 127.113, -31.6161, 125.978, -150.77, 128.277, 89.3814, 0, 0, 2.3088, -54.69, 2.32959, -173.844, 2.28784, 66.3075, 0.0734828, 31.9397
0, 2700.00000, 127.113, -31.6162, 125.978, -150.77, 128.278, 89.3814, 0, 0, 2.3088, -54.6901, 2.32959, -173.844, 2.28784, 66.3075, 0.07349, 31.9407
0, 2760.00000, 127.113, -31.6163, 125.978, -150.77, 128.278, 89.3814, 0, 0, 2.3088, -54.6902, 2.32959, -173.844, 2.28783, 66.3075, 0.0734966, 31.9417
0, 2820.00000, 127.113, -31.6164, 125.978, -150.77, 128.278, 89.3814, 0, 0, 2.3088, -54.6903, 2.32959, -173.844, 2.28783, 66.3075, 0.0735024, 31.9425
0, 2880.00000, 127.113, -31.6164, 125.978, -150.77, 128.278, 89.3814, 0, 0, 2.3088, -54.6904, 2.32959, -173.844, 2.28783, 66.3075, 0.0735077, 31.9433
0, 2940.00000, 127.113, -31.6165, 125.978, -150.77, 128.278, 89.3814, 0, 0, 2.30879, -54.6904, 2.32959, -173.844, 2.28782, 66.3075, 0.0735125, 31.9439
0, 3000.00000, 127.113, -31.6166, 125.978, -150.77, 128.279, 89.3814, 0, 0, 2.30879, -54.6905, 2.32959, -173.844, 2.28782, 66.3075, 0.0735168, 31.9446
0, 3060.00000, 127.113, -31.6166, 125.978, -150.77, 128.279, 89.3814, 0, 0, 2.30879, -54.6905, 2.32959, -173.844, 2.28782, 66.3075, 0.0735206, 31.9451
0, 3120.00000, 127.113, -31.6167, 125.978, -150.77, 128.279, 89.3814, 0, 0, 2.30879, -54.6906, 2.32959, -173.844, 2.28782, 66.3075, 0.0735241, 31.9456
0, 3180.00000, 127.113, -31.6167, 125.978, -150.77, 128.279, 89.3814, 0, 0, 2.30879, -54.6906, 2.32959, -173.844, 2.28781, 66.3075, 0.0735272, 31.946
0, 3240.00000, 127.113, -31.6167, 125.978, -150.77, 128.279, 89.3814, 0, 0, 2.30879, -54.6906, 2.32959, -173.844, 2.28781, 66.3075, 0.07353, 31.9464
0, 3300.00000, 127.113, -31.6168, 125.978, -150.77, 128.279, 89.3814, 0, 0, 2.30879, -54.6907, 2.32959, -173.844, 2.28781, 66.3075, 0.0735326, 31.9468
0, 3360.00000, 127.113, -31.6168, 125.978, -150.77, 128.279, 89.3814, 0, 0, 2.30879, -54.6907, 2.32959, -173.844, 2.28781, 66.3075, 0.0735348, 31.9471
0, 3420.00000, 127.114, -31.6168, 125.978, -150.77, 128.279, 89.3814, 0, 0, 2.30879, -54.6907, 2.32959, -173.844, 2.28781, 66.3075, 0.0735369, 31.9474
0, 3480.00000, 127.114, -31.6168, 125.978, -150.77, 128.279, 89.3814, 0, 0, 2.30879, -54.6908, 2.32959, -173.844, 2.28781, 66.3075, 0.0735387, 31.9477
0, 3540.00000, 127.114, -31.6169, 125.978, -150.77, 128.279, 89.3814, 0, 0, 2.30879, -54.6908, 2.32959, -173.844, 2.28781, 66.3075, 0.0735404, 31.9479
1, 0.00000, 127.114, -31.6169, 125.978, -150.77, 128.279, 89.3814, 0, 0, 2.30879, -54.6908, 2.32959, -173.844, 2.28781, 66.3075, 0.0735419, 31.9481
1, 60.00000, 127.114, -31.6169, 125.978, -150.77, 128.279, 89.3814, 0, 0, 2.30879, -54.6908, 2.32959, -173.844, 2.2878, 66.3075, 0.0735432, 31.9483
1, 120.00000, 127.114, -31.6169, 125.978, -150.77, 128.279, 89.3814, 0, 0, 2.30879, -54.6908, 2.32959, -173.844, 2.2878, 66.3075, 0.0735444, 31.9485
1, 180.00000, 127.114, -31.6169, 125.978, -150.77, 128.28, 89.3814, 0, 0, 2.30879, -54.6908, 2.32959, -173.844, 2.2878, 66.3075, 0.0735455, 31.9486
1, 240.00000, 127.114, -31.6169, 125.978, -150.77, 128.28, 89.3814, 0, 0, 2.30879, -54.6909, 2.32959, -173.844, 2.2878, 66.3075, 0.0735465, 31.9488
1, 300.00000, 127.114, -31.617, 125.978, -150.77, 128.28, 89.3814, 0, 0, 2.30879, -54.6909, 2.32959, -173.844, 2.2878, 66.3075, 0.0735474, 31.9489
1, 360.00000, 127.114, -31.617, 125.978, -150.77, 128.28, 89.3814, 0, 0, 2.30879, -54.6909, 2.32959, -173.844, 2.2878, 66.3074, 0.0735482, 31.949
1, 420.00000, 127.114, -31.617, 125.978, -150.77, 128.28, 89.3814, 0, 0, 2.30879, -54.6909, 2.32959, -173.844, 2.2878, 66.3074, 0.0735489, 31.9491
1, 480.00000, 127.114, -31.617, 125.978, -150.77, 128.28, 89.3814, 0, 0, 2.30879, -54.6909, 2.32959, -173.844, 2.2878, 66.3074, 0.0735495, 31.9492
1, 540.00000, 127.114, -31.617, 125.978, -150.77, 128.28, 89.3814, 0, 0, 2.30879, -54.6909, 2.32959, -173.844, 2.2878, 66.3074, 0.0735501, 31.9493
1, 600.00000, 127.114, -31.617, 125.978, -150.77, 128.28, 89.3814, 0, 0, 2.30879, -54.6909, 2.32959, -173.844, 2.2878, 66.3074, 0.0735506, 31.9494
1, 660.00000, 127.114, -31.617, 125.978, -150.77, 128.28, 89.3814, 0, 0, 2.30879, -54.6909, 2.32959, -173.844, 2.2878, 66.3074, 0.0735511, 31.9494
1, 720.00000, 127.114, -31.617, 125.978, -150.77, 128.28, 89.3814, 0, 0, 2.30879, -54.6909, 2.32959, -173.844, 2.2878, 66.3074, 0.0735515, 31.9495
1, 780.00000, 127.114, -31.617, 125.978, -150.77, 128.28, 89.3814, 0, 0, 2.30879, -54.6909, 2.32959, -173.844, 2.2878, 66.3074, 0.0735519, 31.9495
1, 840.00000, 127.114, -31.617, 125.978, -150.77, 128.28, 89.3814, 0, 0, 2.30879, -54.6909, 2.32959, -173.844, 2.2878, 66.3074, 0.0735522, 31.9496
1, 900.00000, 127.114, -31.617, 125.978, -150.77, 128.28, 89.3814, 0, 0, 2.30879, -54.6909, 2.32959, -173.844, 2.2878, 66.3074, 0.0735525, 31.9496
1, 960.00000, 127.114, -31.617, 125.978, -150.77, 128.28, 89.3814, 0, 0, 2.30879, -54.6909, 2.32959, -173.844, 2.2878, 66.3074, 0.0735528, 31.9497
1, 1020.00000, 127.114, -31.617, 125.978, -150.77, 128.28, 89.3814, 0, 0, 2.30879, -54.6909, 2.32959, -173.844, 2.2878, 66.3074, 0.0735531, 31.9497
1, 1080.00000, 127.114, -31.617, 125.978, -150.77, 128.28, 89.3814, 0, 0, 2.30878, -54.6909, 2.32959, -173.844, 2.2878, 66.3074, 0.0735533, 31.9497
1, 1140.00000, 127.114, -31.617, 125.978, -150.77, 128.28, 89.3814, 0, 0, 2.30878, -54.6909, 2.32959, -173.844, 2.2878, 66.3074, 0.0735535, 31.9498
1, 1200.00000, 127.114, -31.617, 125.978, -150.77, 128.28, 89.3814, 0, 0, 2.30878, -54.6909, 2.32959, -173.844, 2.2878, 66.3074, 0.0735537, 31.9498
1, 1260.00000, 127.114, -31.617, 125.978, -150.77, 128.28, 89.3814, 0, 0, 2.30878, -54.691, 2.32959, -173.844, 2.2878, 66.3074, 0.0735538, 31.9498
1, 1320.00000, 127.114, -31.617, 125.978, -150.77, 128.28, 89.3814, 0, 0, 2.30878, -54.691, 2.32959, -173.844, 2.2878, 66.3074, 0.073554, 31.9498
1, 1380.00000, 127.114, -31.617, 125.978, -150.77, 128.28, 89.3814, 0, 0, 2.30878, -54.691, 2.32959, -173.844, 2.2878, 66.3074, 0.0735541, 31.9499
1, 1440.00000, 127.114, -31.617, 125.978, -150.77, 128.28, 89.3814, 0, 0, 2.30878, -54.691, 2.32959, -173.844, 2.2878, 66.3074, 0.0735542, 31.9499
1, 1500.00000, 127.114, -31.617, 125.978, -150.77, 128.28, 89.3814, 0, 0, 2.30878, -54.691, 2.32959, -173.844, 2.2878, 66.3074, 0.0735543, 31.9499
1, 1560.00000, 127.114, -31.617, 125.978, -150.77, 128.28, 89.3814, 0, 0, 2.30878, -54.691, 2.32959, -173.844, 2.2878, 66.3074, 0.0735544, 31.9499
1, 1620.00000, 127.114, -31.617, 125.978, -150.77, 128.28, 89.3814, 0, 0, 2.30878, -54.691, 2.32959, -173.844, 2.2878, 66.3074, 0.0735545, 31.9499
1, 1680.00000, 127.114, -31.617, 125.978, -150.77, 128.28, 89.3814, 0, 0, 2.30878, -54.691, 2.32959, -173.844, 2.2878, 66.3074, 0.0735546, 31.9499
1, 1740.00000, 127.114, -31.617, 125.978, -150.77, 128.28, 89.3814, 0, 0, 2.30878, -54.691, 2.32959, -173.844, 2.2878, 66.3074, 0.0735547, 31.9499
1, 1800.00000, 127.114, -31.617, 125.978, -150.77, 128.28, 89.3814, 0, 0, 2.30878, -54.691, 2.32959, -173.844, 2.2878, 66.3074, 0.0735547, 31.95
1, 1860.00000, 127.114, -31.617, 125.978, -150.77, 128.28, 89.3814, 0, 0, 2.30878, -54.691, 2.32959, -173.844, 2.2878, 66.3074, 0.0735548, 31.95
1, 1920.00000, 127.114, -31.617, 125.978, -150.77, 128.28, 89.3814, 0, 0, 2.30878, -54.691, 2.32959, -173.844, 2.2878, 66.3074, 0.0735548, 31.95
1, 1980.00000, 127.114, -31.617, 125.978, -150.77, 128.28, 89.3814, 0, 0, 2.30878, -54.691, 2.32959, -173.844, 2.2878, 66.3074, 0.0735549, 31.95
1, 2040.00000, 127.114, -31.617, 125.978, -150.77, 128.28, 89.3814, 0, 0, 2.30878, -54.691, 2.32959, -173.844, 2.2878, 66.3074, 0.0735549, 31.95
1, 2100.00000, 127.114, -31.617, 125.978, -150.77, 128.28, 89.3814, 0, 0, 2.30878, -54.691, 2.32959, -173.844, 2.2878, 66.3074, 0.073555, 31.95
1, 2160.00000, 127.114, -31.617, 125.978, -150.77, 128.28, 89.3814, 0, 0, 2.30878, -54.691, 2.32959, -173.844, 2.2878, 66.3074, 0.073555, 31.95
1, 2220.00000, 127.114, -31.617, 125.978, -150.77, 128.28, 89.3814, 0, 0, 2.30878, -54.691, 2.32959, -173.844, 2.2878, 66.3074, 0.073555, 31.95
1, 2280.00000, 127.114, -31.617, 125.978, -150.77, 128.28, 89.3814, 0, 0, 2.30878, -54.691, 2.32959, -173.844, 2.2878, 66.3074, 0.0735551, 31.95
1, 2340.00000, 127.114, -31.617, 125.978, -150.77, 128.28, 89.3814, 0, 0, 2.30878, -54.691, 2.32959, -173.844, 2.2878, 66.3074, 0.0735551, 31.95
1, 2400.00000, 127.114, -31.617, 125.978, -150.77, 128.28, 89.3814, 0, 0, 2.30878, -54.691, 2.32959, -173.844, 2.2878, 66.3074, 0.0735551, 31.95
1, 2460.00000, 127.114, -31.6171, 125.978, -150.77, 128.28, 89.3814, 0, 0, 2.30878, -54.691, 2.32959, -173.844, 2.2878, 66.3074, 0.0735551, 31.95
1, 2520.00000, 127.266, -31.4433, 126.39, -150.728, 128.285, 89.3881, 0, 0, 2.30603, -54.5172, 2.322, -173.802, 2.2877, 66.3141, 0.0608851, 33.3625
1, 2580.00000, 127.266, -31.4433, 126.39, -150.728, 128.285, 89.3881, 0, 0, 2.30603, -54.5172, 2.322, -173.802, 2.2877, 66.3141, 0.0608855, 33.3628
1, 2640.00000, 127.266, -31.4433, 126.39, -150.728, 128.285, 89.3881, 0, 0, 2.30603, -54.5172, 2.322, -173.802, 2.2877, 66.3141, 0.0608855, 33.3628
1, 2700.00000, 127.266, -31.4433, 126.39, -150.728, 128.285, 89.3881, 0, 0, 2.30603, -54.5172, 2.322, -173.802, 2.2877, 66.3141, 0.0608855, 33.3628
1, 2760.00000, 127.262, -31.4483, 126.513, -150.563, 128.681, 89.4265, 0, 0, 2.3061, -54.5223, 2.31974, -173.637, 2.28066, 66.3526, 0.0695261, 41.2963
1, 2820.00000, 127.262, -31.4483, 126.513, -150.563, 128.681, 89.4265, 0, 0, 2.3061, -54.5223, 2.31974, -173.637, 2.28066, 66.3526, 0.069526, 41.2966
1, 2880.00000, 127.262, -31.4483, 126.513, -150.563, 128.681, 89.4265, 0, 0, 2.3061, -54.5223, 2.31974, -173.637, 2.28066, 66.3526, 0.069526, 41.2966
1, 2940.00000, 127.262, -31.4483, 126.513, -150.563, 128.681, 89.4265, 0, 0, 2.3061, -54.5223, 2.31974, -173.637, 2.28066, 66.3526, 0.069526, 41.2966
1, 3000.00000, 127.262, -31.4483, 126.513, -150.563, 128.681, 89.4265, 0, 0, 2.3061, -54.5223, 2.31974, -173.637, 2.28066, 66.3526, 0.069526, 41.2966
1, 3060.00000, 127.262, -31.4483, 126.513, -150.563, 128.681, 89.4265, 0, 0, 2.3061, -54.5223, 2.31974, -173.637, 2.28066, 66.3526, 0.069526, 41.2966
1, 3120.00000, 127.262, -31.4483, 126.513, -150.563, 128.681, 89.4265, 0, 0, 2.3061, -54.5223, 2.31974, -173.637, 2.28066, 66.3526, 0.069526, 41.2966
1, 3180.00000, 127.262, -31.4483, 126.513, -150.563, 128.681, 89.4265, 0, 0, 2.3061, -54.5223, 2.31974, -173.637, 2.28066, 66.3526, 0.0695261, 41.2966
1, 3240.00000, 127.262, -31.4483, 126.513, -150.563, 128.681, 89.4265, 0, 0, 2.3061, -54.5223, 2.31974, -173.637, 2.28066, 66.3526, 0.0695261, 41.2966
1, 3300.00000, 127.262, -31.4483, 126.513, -150.563, 128.681, 89.4265, 0, 0, 2.3061, -54.5223, 2.31974, -173.637, 2.28066, 66.3526, 0.0695261, 41.2966
1, 3360.00000, 127.262, -31.4483, 126.513, -150.563, 128.681, 89.4265, 0, 0, 2.3061, -54.5223, 2.31974, -173.637, 2.28066, 66.3526, 0.0695261, 41.2966
1, 3420.00000, 127.262, -31.4483, 126.513, -150.563, 128.681, 89.4265, 0, 0, 2.3061, -54.5223, 2.31974, -173.637, 2.28066, 66.3526, 0.0695261, 41.2966
1, 3480.00000, 127.262, -31.4483, 126.513, -150.563, 128.681, 89.4265, 0, 0, 2.3061, -54.5223, 2.31974, -173.637, 2.28066, 66.3526, 0.0695261, 41.2966
1, 3540.00000, 127.262, -31.4483, 126.513, -150.563, 128.681, 89.4265, 0, 0, 2.3061, -54.5223, 2.31974, -173.637, 2.28066, 66.3526, 0.0695261, 41.2966
2, 0.00000, 127.262, -31.4483, 126.513, -150.563, 128.681, 89.4265, 0, 0, 2.3061, -54.5223, 2.31974, -173.637, 2.28066, 66.3526, 0.0695261, 41.2966
2, 60.00000, 127.262, -31.4483, 126.513, -150.563, 128.681, 89.4265, 0, 0, 2.3061, -54.5223, 2.31974, -173.637, 2.28066, 66.3526, 0.0695261, 41.2966
2, 120.00000, 127.257, -31.4494, 126.509, -150.564, 128.677, 89.4255, 0, 0, 2.31257, -54.5234, 2.32625, -173.638, 2.28705, 66.3515, 0.0697213, 41.3015
2, 180.00000, 127.251, -31.4505, 126.504, -150.565, 128.672, 89.4244, 0, 0, 2.31913, -54.5245, 2.33283, -173.639, 2.29353, 66.3505, 0.0699189, 41.3065
2, 240.00000, 127.246, -31.4516, 126.499, -150.567, 128.667, 89.4233, 0, 0, 2.3256, -54.5256, 2.33933, -173.64, 2.29992, 66.3494, 0.0701141, 41.3114
2, 300.00000, 127.241, -31.4527, 126.495, -150.568, 128.662, 89.4223, 0, 0, 2.33208, -54.5267, 2.34584, -173.642, 2.30632, 66.3484, 0.0703094, 41.3164
2, 360.00000, 127.235, -31.4538, 126.49, -150.569, 128.657, 89.4212, 0, 0, 2.33864, -54.5278, 2.35242, -173.643, 2.31279, 66.3473, 0.070507, 41.3214
2, 420.00000, 127.23, -31.4549, 126.485, -150.57, 128.653, 89.4202, 0, 0, 2.34512, -54.5289, 2.35893, -173.644, 2.31919, 66.3462, 0.0707023, 41.3263
2, 480.00000, 127.225, -31.456, 126.481, -150.571, 128.648, 89.4191, 0, 0, 2.35159, -54.53, 2.36543, -173.645, 2.32558, 66.3452, 0.0708976, 41.3312
2, 540.00000, 127.22, -31.4572, 126.476, -150.572, 128.643, 89.418, 0, 0, 2.35815, -54.5311, 2.37202, -173.646, 2.33206, 66.3441, 0.0710953, 41.3362
2, 600.00000, 127.214, -31.4583, 126.471, -150.573, 128.638, 89.417, 0, 0, 2.36463, -54.5322, 2.37853, -173.647, 2.33846, 66.343, 0.0712906, 41.3412
2, 660.00000, 127.209, -31.4594, 126.467, -150.575, 128.634, 89.4159, 0, 0, 2.37111, -54.5333, 2.38503, -173.648, 2.34486, 66.342, 0.071486, 41.3461
2, 720.00000, 127.204, -31.4605, 126.462, -150.576, 128.629, 89.4148, 0, 0, 2.37767, -54.5344, 2.39162, -173.65, 2.35133, 66.3409, 0.0716837, 41.3511
2, 780.00000, 127.199, -31.4616, 126.457, -150.577, 128.624, 89.4138, 0, 0, 2.38415, -54.5355, 2.39813, -173.651, 2.35773, 66.3399, 0.0718791, 41.3561
