hour,t(sec),V1,VAngle1,V2,VAngle2,V3,VAngle3,V4,VAngle4,I1,IAngle1,I2,IAngle2,I3,IAngle3,I4,IAngle4
0, 60.00000, 127.182, -31.358, 126.397, -150.729, 128.066, 89.3942, 0, 0, 2.4571, -54.4315, 2.47236, -173.803, 2.44018, 66.3206, 0.0575852, 32.3305
0, 120.00000, 127.191, -31.3666, 126.397, -150.729, 128.089, 89.3935, 0, 0, 2.45692, -54.4401, 2.47236, -173.803, 2.43975, 66.3199, 0.0583076, 32.4402
0, 180.00000, 127.199, -31.3743, 126.397, -150.729, 128.109, 89.393, 0, 0, 2.45677, -54.4479, 2.47237, -173.803, 2.43936, 66.3193, 0.0589582, 32.5371
0, 240.00000, 127.207, -31.3813, 126.397, -150.729, 128.127, 89.3924, 0, 0, 2.45662, -54.4549, 2.47237, -173.803, 2.43901, 66.3187, 0.0595439, 32.6231
0, 300.00000, 127.213, -31.3876, 126.397, -150.729, 128.144, 89.3919, 0, 0, 2.4565, -54.4612, 2.47237, -173.803, 2.4387, 66.3182, 0.0600712, 32.6996
0, 360.00000, 127.219, -31.3932, 126.397, -150.729, 128.158, 89.3915, 0, 0, 2.45638, -54.4668, 2.47237, -173.803, 2.43841, 66.3177, 0.060546, 32.7677
0, 420.00000, 127.225, -31.3983, 126.397, -150.729, 128.172, 89.391, 0, 0, 2.45628, -54.472, 2.47237, -173.803, 2.43816, 66.3173, 0.0609733, 32.8284
0, 480.00000, 127.23, -31.4029, 126.397, -150.729, 128.184, 89.3907, 0, 0, 2.45619, -54.4766, 2.47237, -173.803, 2.43793, 66.3169, 0.0613581, 32.8826
0, 540.00000, 127.234, -31.407, 126.397, -150.729, 128.195, 89.3903, 0, 0, 2.4561, -54.4807, 2.47237, -173.803, 2.43772, 66.3166, 0.0617044, 32.931
0, 600.00000, 127.238, -31.4107, 126.397, -150.729, 128.204, 89.39, 0, 0, 2.45603, -54.4845, 2.47237, -173.803, 2.43753, 66.3162, 0.0620162, 32.9743
0, 660.00000, 127.241, -31.4141, 126.397, -150.729, 128.213, 89.3897, 0, 0, 2.45596, -54.4878, 2.47237, -173.803, 2.43737, 66.3159, 0.0622969, 33.013
0, 720.00000, 127.244, -31.4171, 126.397, -150.729, 128.221, 89.3895, 0, 0, 2.4559, -54.4908, 2.47237, -173.803, 2.43722, 66.3157, 0.0625495, 33.0477
0, 780.00000, 127.247, -31.4198, 126.397, -150.729, 128.228, 89.3892, 0, 0, 2.45584, -54.4936, 2.47237, -173.803, 2.43708, 66.3154, 0.0627769, 33.0787
0, 840.00000, 127.25, -31.4222, 126.397, -150.729, 128.234, 89.389, 0, 0, 2.4558, -54.496, 2.47237, -173.803, 2.43696, 66.3152, 0.0629816, 33.1065
0, 900.00000, 127.252, -31.4244, 126.397, -150.729, 128.24, 89.3888, 0, 0, 2.45575, -54.4982, 2.47237, -173.803, 2.43685, 66.315, 0.0631658, 33.1315
0, 960.00000, 127.102, -31.6003, 125.985, -150.771, 128.24, 89.3821, 0, 0, 2.45864, -54.6741, 2.48046, -173.845, 2.43685, 66.3082, 0.0768404, 31.7416
0, 1020.00000, 127.104, -31.6021, 125.985, -150.771, 128.245, 89.3819, 0, 0, 2.45861, -54.6759, 2.48046, -173.845, 2.43676, 66.3081, 0.0769873, 31.7615
0, 1080.00000, 127.106, -31.6037, 125.985, -150.771, 128.249, 89.3818, 0, 0, 2.45858, -54.6775, 2.48046, -173.845, 2.43668, 66.3079, 0.07712, 31.7796
0, 1140.00000, 127.107, -31.6051, 125.985, -150.771, 128.253, 89.3816, 0, 0, 2.45855, -54.679, 2.48046, -173.845, 2.43661, 66.3078, 0.0772394, 31.7958
0, 1200.00000, 127.109, -31.6064, 125.985, -150.771, 128.256, 89.3815, 0, 0, 2.45852, -54.6803, 2.48046, -173.845, 2.43654, 66.3076, 0.0773469, 31.8104
0, 1260.00000, 127.11, -31.6076, 125.985, -150.771, 128.259, 89.3814, 0, 0, 2.4585, -54.6814, 2.48046, -173.845, 2.43648, 66.3075, 0.0774436, 31.8236
0, 1320.00000, 127.111, -31.6086, 125.985, -150.771, 128.262, 89.3813, 0, 0, 2.45848, -54.6825, 2.48046, -173.845, 2.43643, 66.3074, 0.0775307, 31.8353
0, 1380.00000, 127.112, -31.6095, 125.985, -150.771, 128.264, 89.3812, 0, 0, 2.45846, -54.6834, 2.48046, -173.845, 2.43638, 66.3073, 0.077609, 31.8459
0, 1440.00000, 127.113, -31.6104, 125.985, -150.771, 128.266, 89.3811, 0, 0, 2.45844, -54.6843, 2.48046, -173.845, 2.43634, 66.3073, 0.0776796, 31.8555
0, 1500.00000, 127.114, -31.6111, 125.985, -150.771, 128.268, 89.3811, 0, 0, 2.45843, -54.685, 2.48046, -173.845, 2.4363, 66.3072, 0.0777431, 31.864
0, 1560.00000, 127.114, -31.6118, 125.985, -150.771, 128.27, 89.381, 0, 0, 2.45842, -54.6857, 2.48046, -173.845, 2.43627, 66.3071, 0.0778002, 31.8717
0, 1620.00000, 127.115, -31.6125, 125.985, -150.771, 128.272, 89.381, 0, 0, 2.4584, -54.6863, 2.48046, -173.845, 2.43624, 66.3071, 0.0778516, 31.8787
0, 1680.00000, 127.116, -31.613, 125.985, -150.771, 128.273, 89.3809, 0, 0, 2.45839, -54.6869, 2.48046, -173.845, 2.43621, 66.307, 0.0778979, 31.8849
0, 1740.00000, 127.116, -31.6135, 125.985, -150.771, 128.275, 89.3808, 0, 0, 2.45838, -54.6874, 2.48046, -173.845, 2.43618, 66.3069, 0.0779395, 31.8905
0, 1800.00000, 127.117, -31.614, 125.985, -150.771, 128.276, 89.3808, 0, 0, 2.45837, -54.6879, 2.48046, -173.845, 2.43616, 66.3069, 0.077977, 31.8955
0, 1860.00000, 127.117, -31.6144, 125.985, -150.771, 128.277, 89.3808, 0, 0, 2.45837, -54.6883, 2.48046, -173.845, 2.43614, 66.3069, 0.0780108, 31.9001
0, 1920.00000, 127.117, -31.6147, 125.985, -150.771, 128.278, 89.3807, 0, 0, 2.45836, -54.6886, 2.48046, -173.845, 2.43612, 66.3068, 0.0780412, 31.9041
0, 1980.00000, 127.118, -31.6151, 125.985, -150.771, 128.279, 89.3807, 0, 0, 2.45835, -54.689, 2.48046, -173.845, 2.43611, 66.3068, 0.0780685, 31.9078
0, 2040.00000, 127.118, -31.6154, 125.985, -150.771, 128.279, 89.3807, 0, 0, 2.45835, -54.6893, 2.48046, -173.845, 2.43609, 66.3068, 0.0780931, 31.9111
0, 2100.00000, 127.118, -31.6156, 125.985, -150.771, 128.28, 89.3806, 0, 0, 2.45834, -54.6895, 2.48046, -173.845, 2.43608, 66.3067, 0.0781152, 31.9141
0, 2160.00000, 127.118, -31.6159, 125.985, -150.771, 128.281, 89.3806, 0, 0, 2.45834, -54.6898, 2.48046, -173.845, 2.43607, 66.3067, 0.0781351, 31.9167
0, 2220.00000, 127.119, -31.6161, 125.985, -150.771, 128.281, 89.3806, 0, 0, 2.45833, -54.69, 2.48046, -173.845, 2.43606, 66.3067, 0.0781531, 31.9191
0, 2280.00000, 127.119, -31.6163, 125.985, -150.771, 128.282, 89.3806, 0, 0, 2.45833, -54.6902, 2.48046, -173.845, 2.43605, 66.3067, 0.0781692, 31.9213
0, 2340.00000, 127.119, -31.6164, 125.985, -150.771, 128.282, 89.3806, 0, 0, 2.45832, -54.6903, 2.48046, -173.845, 2.43604, 66.3067, 0.0781837, 31.9233
0, 2400.00000, 127.119, -31.6166, 125.985, -150.771, 128.283, 89.3806, 0, 0, 2.45832, -54.6905, 2.48046, -173.845, 2.43603, 66.3066, 0.0781968, 31.925
0, 2460.00000, 127.119, -31.6167, 125.985, -150.771, 128.283, 89.3805, 0, 0, 2.45832, -54.6907, 2.48046, -173.845, 2.43602, 66.3066, 0.0782086, 31.9266
0, 2520.00000, 127.12, -31.6169, 125.985, -150.771, 128.283, 89.3805, 0, 0, 2.45832, -54.6908, 2.48046, -173.845, 2.43602, 66.3066, 0.0782192, 31.928
0, 2580.00000, 127.12, -31.617, 125.985, -150.771, 128.284, 89.3805, 0, 0, 2.45831, -54.6909, 2.48046, -173.845, 2.43601, 66.3066, 0.0782287, 31.9293
0, 2640.00000, 127.12, -31.6171, 125.985, -150.771, 128.284, 89.3805, 0, 0, 2.45831, -54.691, 2.48046, -173.845, 2.436, 66.3066, 0.0782373, 31.9304
0, 2700.00000, 127.12, -31.6172, 125.985, -150.771, 128.284, 89.3805, 0, 0, 2.45831, -54.6911, 2.48046, -173.845, 2.436, 66.3066, 0.078245, 31.9315
0, 2760.00000, 127.12, -31.6173, 125.985, -150.771, 128.284, 89.3805, 0, 0, 2.45831, -54.6912, 2.48046, -173.845, 2.436, 66.3066, 0.078252, 31.9324
0, 2820.00000, 127.12, -31.6173, 125.985, -150.771, 128.285, 89.3805, 0, 0, 2.45831, -54.6912, 2.48046, -173.845, 2.43599, 66.3066, 0.0782582, 31.9332
0, 2880.00000, 127.12, -31.6174, 125.985, -150.771, 128.285, 89.3805, 0, 0, 2.45831, -54.6913, 2.48046, -173.845, 2.43599, 66.3066, 0.0782638, 31.934
0, 2940.00000, 127.12, -31.6175, 125.985, -150.771, 128.285, 89.3805, 0, 0, 2.4583, -54.6914, 2.48046, -173.845, 2.43599, 66.3066, 0.0782689, 31.9347
0, 3000.00000, 127.12, -31.6175, 125.985, -150.771, 128.285, 89.3805, 0, 0, 2.4583, -54.6914, 2.48046, -173.845, 2.43598, 66.3065, 0.0782735, 31.9353
0, 3060.00000, 127.12, -31.6176, 125.985, -150.771, 128.285, 89.3805, 0, 0, 2.4583, -54.6915, 2.48046, -173.845, 2.43598, 66.3065, 0.0782776, 31.9358
0, 3120.00000, 127.12, -31.6176, 125.985, -150.771, 128.285, 89.3805, 0, 0, 2.4583, -54.6915, 2.48046, -173.845, 2.43598, 66.3065, 0.0782813, 31.9363
0, 3180.00000, 127.12, -31.6177, 125.985, -150.771, 128.285, 89.3805, 0, 0, 2.4583, -54.6916, 2.48046, -173.845, 2.43598, 66.3065, 0.0782846, 31.9367
0, 3240.00000, 127.12, -31.6177, 125.985, -150.771, 128.285, 89.3804, 0, 0, 2.4583, -54.6916, 2.48046, -173.845, 2.43597, 66.3065, 0.0782876, 31.9371
0, 3300.00000, 127.12, -31.6177, 125.985, -150.771, 128.286, 89.3804, 0, 0, 2.4583, -54.6916, 2.48046, -173.845, 2.43597, 66.3065, 0.0782903, 31.9375
0, 3360.00000, 127.12, -31.6177, 125.985, -150.771, 128.286, 89.3804, 0, 0, 2.4583, -54.6917, 2.48046, -173.845, 2.43597, 66.3065, 0.0782927, 31.9378
0, 3420.00000, 127.12, -31.6178, 125.985, -150.771, 128.286, 89.3804, 0, 0, 2.4583, -54.6917, 2.48046, -173.845, 2.43597, 66.3065, 0.0782949, 31.9381
0, 3480.00000, 127.12, -31.6178, 125.985, -150.771, 128.286, 89.3804, 0, 0, 2.4583, -54.6917, 2.48046, -173.845, 2.43597, 66.3065, 0.0782968, 31.9384
0, 3540.00000, 127.121, -31.6178, 125.985, -150.771, 128.286, 89.3804, 0, 0, 2.4583, -54.6917, 2.48046, -173.845, 2.43597, 66.3065, 0.0782986, 31.9386
1, 0.00000, 127.121, -31.6178, 125.985, -150.771, 128.286, 89.3804, 0, 0, 2.4583, -54.6918, 2.48046, -173.845, 2.43597, 66.3065, 0.0783002, 31.9388
1, 60.00000, 127.121, -31.6179, 125.985, -150.771, 128.286, 89.3804, 0, 0, 2.4583, -54.6918, 2.48046, -173.845, 2.43597, 66.3065, 0.0783016, 31.939
1, 120.00000, 127.121, -31.6179, 125.985, -150.771, 128.286, 89.3804, 0, 0, 2.4583, -54.6918, 2.48046, -173.845, 2.43597, 66.3065, 0.0783029, 31.9392
1, 180.00000, 127.121, -31.6179, 125.985, -150.771, 128.286, 89.3804, 0, 0, 2.4583, -54.6918, 2.48046, -173.845, 2.43596, 66.3065, 0.0783041, 31.9394
1, 240.00000, 127.121, -31.6179, 125.985, -150.771, 128.286, 89.3804, 0, 0, 2.4583, -54.6918, 2.48046, -173.845, 2.43596, 66.3065, 0.0783051, 31.9395
1, 300.00000, 127.121, -31.6179, 125.985, -150.771, 128.286, 89.3804, 0, 0, 2.4583, -54.6918, 2.48046, -173.845, 2.43596, 66.3065, 0.078306, 31.9396
1, 360.00000, 127.121, -31.6179, 125.985, -150.771, 128.286, 89.3804, 0, 0, 2.4583, -54.6918, 2.48046, -173.845, 2.43596, 66.3065, 0.0783069, 31.9397
1, 420.00000, 127.121, -31.6179, 125.985, -150.771, 128.286, 89.3804, 0, 0, 2.4583, -54.6918, 2.48046, -173.845, 2.43596, 66.3065, 0.0783076, 31.9398
1, 480.00000, 127.121, -31.6179, 125.985, -150.771, 128.286, 89.3804, 0, 0, 2.4583, -54.6919, 2.48046, -173.845, 2.43596, 66.3065, 0.0783083, 31.9399
1, 540.00000, 127.121, -31.6179, 125.985, -150.771, 128.286, 89.3804, 0, 0, 2.45829, -54.6919, 2.48046, -173.845, 2.43596, 66.3065, 0.0783089, 31.94
1, 600.00000, 127.121, -31.618, 125.985, -150.771, 128.286, 89.3804, 0, 0, 2.45829, -54.6919, 2.48046, -173.845, 2.43596, 66.3065, 0.0783095, 31.9401
1, 660.00000, 127.121, -31.618, 125.985, -150.771, 128.286, 89.3804, 0, 0, 2.45829, -54.6919, 2.48046, -173.845, 2.43596, 66.3065, 0.07831, 31.9401
1, 720.00000, 127.121, -31.618, 125.985, -150.771, 128.286, 89.3804, 0, 0, 2.45829, -54.6919, 2.48046, -173.845, 2.43596, 66.3065, 0.0783104, 31.9402
1, 780.00000, 127.121, -31.618, 125.985, -150.771, 128.286, 89.3804, 0, 0, 2.45829, -54.6919, 2.48046, -173.845, 2.43596, 66.3065, 0.0783108, 31.9403
1, 840.00000, 127.121, -31.618, 125.985, -150.771, 128.286, 89.3804, 0, 0, 2.45829, -54.6919, 2.48046, -173.845, 2.43596, 66.3065, 0.0783112, 31.9403
1, 900.00000, 127.121, -31.618, 125.985, -150.771, 128.286, 89.3804, 0, 0, 2.45829, -54.6919, 2.48046, -173.845, 2.43596, 66.3065, 0.0783115, 31.9404
1, 960.00000, 127.121, -31.618, 125.985, -150.771, 128.286, 89.3804, 0, 0, 2.45829, -54.6919, 2.48046, -173.845, 2.43596, 66.3065, 0.0783118, 31.9404
1, 1020.00000, 127.121, -31.618, 125.985, -150.771, 128.286, 89.3804, 0, 0, 2.45829, -54.6919, 2.48046, -173.845, 2.43596, 66.3065, 0.0783121, 31.9404
1, 1080.00000, 127.121, -31.618, 125.985, -150.771, 128.286, 89.3804, 0, 0, 2.45829, -54.6919, 2.48046, -173.845, 2.43596, 66.3065, 0.0783123, 31.9405
1, 1140.00000, 127.121, -31.618, 125.985, -150.771, 128.286, 89.3804, 0, 0, 2.45829, -54.6919, 2.48046, -173.845, 2.43596, 66.3065, 0.0783126, 31.9405
1, 1200.00000, 127.121, -31.618, 125.985, -150.771, 128.286, 89.3804, 0, 0, 2.45829, -54.6919, 2.48046, -173.845, 2.43596, 66.3065, 0.0783127, 31.9405
1, 1260.00000, 127.121, -31.618, 125.985, -150.771, 128.286, 89.3804, 0, 0, 2.45829, -54.6919, 2.48046, -173.845, 2.43596, 66.3065, 0.0783129, 31.9405
1, 1320.00000, 127.121, -31.618, 125.985, -150.771, 128.286, 89.3804, 0, 0, 2.45829, -54.6919, 2.48046, -173.845, 2.43596, 66.3065, 0.0783131, 31.9406
1, 1380.00000, 127.121, -31.618, 125.985, -150.771, 128.286, 89.3804, 0, 0, 2.45829, -54.6919, 2.48046, -173.845, 2.43596, 66.3065, 0.0783132, 31.9406
1, 1440.00000, 127.121, -31.618, 125.985, -150.771, 128.286, 89.3804, 0, 0, 2.45829, -54.6919, 2.48046, -173.845, 2.43596, 66.3065, 0.0783133, 31.9406
1, 1500.00000, 127.121, -31.618, 125.985, -150.771, 128.286, 89.3804, 0, 0, 2.45829, -54.6919, 2.48046, -173.845, 2.43596, 66.3065, 0.0783135, 31.9406
1, 1560.00000, 127.121, -31.618, 125.985, -150.771, 128.286, 89.3804, 0, 0, 2.45829, -54.6919, 2.48046, -173.845, 2.43596, 66.3065, 0.0783136, 31.9406
1, 1620.00000, 127.121, -31.618, 125.985, -150.771, 128.286, 89.3804, 0, 0, 2.45829, -54.6919, 2.48046, -173.845, 2.43596, 66.3065, 0.0783136, 31.9406
1, 1680.00000, 127.121, -31.618, 125.985, -150.771, 128.286, 89.3804, 0, 0, 2.45829, -54.6919, 2.48046, -173.845, 2.43596, 66.3065, 0.0783137, 31.9406
1, 1740.00000, 127.121, -31.618, 125.985, -150.771, 128.286, 89.3804, 0, 0, 2.45829, -54.6919, 2.48046, -173.845, 2.43596, 66.3065, 0.0783138, 31.9407
1, 1800.00000, 127.121, -31.618, 125.985, -150.771, 128.286, 89.3804, 0, 0, 2.45829, -54.6919, 2.48046, -173.845, 2.43596, 66.3065, 0.0783139, 31.9407
1, 1860.00000, 127.121, -31.618, 125.985, -150.771, 128.286, 89.3804, 0, 0, 2.45829, -54.6919, 2.48046, -173.845, 2.43596, 66.3065, 0.0783139, 31.9407
1, 1920.00000, 127.121, -31.618, 125.985, -150.771, 128.286, 89.3804, 0, 0, 2.45829, -54.6919, 2.48046, -173.845, 2.43596, 66.3065, 0.078314, 31.9407
1, 1980.00000, 127.121, -31.618, 125.985, -150.771, 128.286, 89.3804, 0, 0, 2.45829, -54.6919, 2.48046, -173.845, 2.43596, 66.3065, 0.078314, 31.9407
1, 2040.00000, 127.121, -31.618, 125.985, -150.771, 128.286, 89.3804, 0, 0, 2.45829, -54.6919, 2.48046, -173.845, 2.43596, 66.3065, 0.0783141, 31.9407
1, 2100.00000, 127.121, -31.618, 125.985, -150.771, 128.286, 89.3804, 0, 0, 2.45829, -54.6919, 2.48046, -173.845, 2.43596, 66.3065, 0.0783141, 31.9407
1, 2160.00000, 127.121, -31.618, 125.985, -150.771, 128.286, 89.3804, 0, 0, 2.45829, -54.6919, 2.48046, -173.845, 2.43596, 66.3065, 0.0783142, 31.9407
1, 2220.00000, 127.121, -31.618, 125.985, -150.771, 128.286, 89.3804, 0, 0, 2.45829, -54.6919, 2.48046, -173.845, 2.43596, 66.3065, 0.0783142, 31.9407
1, 2280.00000, 127.121, -31.618, 125.985, -150.771, 128.286, 89.3804, 0, 0, 2.45829, -54.6919, 2.48046, -173.845, 2.43596, 66.3065, 0.0783142, 31.9407
1, 2340.00000, 127.121, -31.618, 125.985, -150.771, 128.286, 89.3804, 0, 0, 2.45829, -54.6919, 2.48046, -173.845, 2.43596, 66.3065, 0.0783143, 31.9407
1, 2400.00000, 127.121, -31.618, 125.985, -150.771, 128.286, 89.3804, 0, 0, 2.45829, -54.6919, 2.48046, -173.845, 2.43596, 66.3065, 0.0783143, 31.9407
1, 2460.00000, 127.121, -31.618, 125.985, -150.771, 128.286, 89.3804, 0, 0, 2.45829, -54.6919, 2.48046, -173.845, 2.43596, 66.3065, 0.0783143, 31.9407
1, 2520.00000, 127.273, -31.4442, 126.397, -150.729, 128.292, 89.3871, 0, 0, 2.45536, -54.5182, 2.47237, -173.803, 2.43586, 66.3132, 0.0648242, 33.3518
1, 2580.00000, 127.273, -31.4442, 126.397, -150.729, 128.292, 89.3871, 0, 0, 2.45536, -54.5182, 2.47237, -173.803, 2.43586, 66.3132, 0.0648246, 33.3521
1, 2640.00000, 127.273, -31.4442, 126.397, -150.729, 128.292, 89.3871, 0, 0, 2.45536, -54.5182, 2.47237, -173.803, 2.43586, 66.3132, 0.0648247, 33.3521
1, 2700.00000, 127.273, -31.4442, 126.397, -150.729, 128.292, 89.3871, 0, 0, 2.45536, -54.5182, 2.47237, -173.803, 2.43586, 66.3132, 0.0648247, 33.3521
1, 2760.00000, 127.269, -31.4493, 126.52, -150.564, 128.688, 89.4256, 0, 0, 2.45543, -54.5232, 2.46997, -173.638, 2.42836, 66.3517, 0.074023, 41.2868
1, 2820.00000, 127.269, -31.4493, 126.52, -150.564, 128.688, 89.4256, 0, 0, 2.45543, -54.5232, 2.46997, -173.638, 2.42836, 66.3517, 0.074023, 41.287
1, 2880.00000, 127.269, -31.4493, 126.52, -150.564, 128.688, 89.4256, 0, 0, 2.45543, -54.5232, 2.46997, -173.638, 2.42836, 66.3517, 0.074023, 41.287
1, 2940.00000, 127.269, -31.4493, 126.52, -150.564, 128.688, 89.4256, 0, 0, 2.45543, -54.5232, 2.46997, -173.638, 2.42836, 66.3517, 0.074023, 41.287
1, 3000.00000, 127.269, -31.4493, 126.52, -150.564, 128.688, 89.4256, 0, 0, 2.45543, -54.5232, 2.46997, -173.638, 2.42836, 66.3517, 0.074023, 41.287
1, 3060.00000, 127.269, -31.4493, 126.52, -150.564, 128.688, 89.4256, 0, 0, 2.45543, -54.5232, 2.46997, -173.638, 2.42836, 66.3517, 0.074023, 41.287
1, 3120.00000, 127.269, -31.4493, 126.52, -150.564, 128.688, 89.4256, 0, 0, 2.45543, -54.5232, 2.46997, -173.638, 2.42836, 66.3517, 0.074023, 41.287
1, 3180.00000, 127.269, -31.4493, 126.52, -150.564, 128.688, 89.4256, 0, 0, 2.45543, -54.5232, 2.46997, -173.638, 2.42836, 66.3517, 0.074023, 41.287
1, 3240.00000, 127.269, -31.4493, 126.52, -150.564, 128.688, 89.4256, 0, 0, 2.45543, -54.5232, 2.46997, -173.638, 2.42836, 66.3517, 0.074023, 41.287
1, 3300.00000, 127.269, -31.4493, 126.52, -150.564, 128.688, 89.4256, 0, 0, 2.45543, -54.5232, 2.46997, -173.638, 2.42836, 66.3517, 0.074023, 41.287
1, 3360.00000, 127.269, -31.4493, 126.52, -150.564, 128.688, 89.4256, 0, 0, 2.45543, -54.5232, 2.46997, -173.638, 2.42836, 66.3517, 0.074023, 41.287
1, 3420.00000, 127.269, -31.4493, 126.52, -150.564, 128.688, 89.4256, 0, 0, 2.45543, -54.5232, 2.46997, -173.638, 2.42836, 66.3517, 0.074023, 41.287
1, 3480.00000, 127.269, -31.4493, 126.52, -150.564, 128.688, 89.4256, 0, 0, 2.45543, -54.5232, 2.46997, -173.638, 2.42836, 66.3517, 0.074023, 41.287
1, 3540.00000, 127.269, -31.4493, 126.52, -150.564, 128.688, 89.4256, 0, 0, 2.45543, -54.5232, 2.46997, -173.638, 2.42836, 66.3517, 0.074023, 41.287
2, 0.00000, 127.269, -31.4493, 126.52, -150.564, 128.688, 89.4256, 0, 0, 2.45543, -54.5232, 2.46997, -173.638, 2.42836, 66.3517, 0.074023, 41.287
2, 60.00000, 127.269, -31.4493, 126.52, -150.564, 128.688, 89.4256, 0, 0, 2.45543, -54.5232, 2.46997, -173.638, 2.42836, 66.3517, 0.074023, 41.287
2, 120.00000, 127.264, -31.4504, 126.515, -150.565, 128.683, 89.4245, 0, 0, 2.46233, -54.5243, 2.47689, -173.639, 2.43517, 66.3506, 0.0742309, 41.292
2, 180.00000, 127.258, -31.4515, 126.51, -150.566, 128.678, 89.4234, 0, 0, 2.46931, -54.5254, 2.4839, -173.64, 2.44206, 66.3495, 0.0744412, 41.2969
2, 240.00000, 127.253, -31.4526, 126.506, -150.568, 128.673, 89.4224, 0, 0, 2.4762, -54.5265, 2.49083, -173.641, 2.44887, 66.3485, 0.074649, 41.3018
2, 300.00000, 127.248, -31.4537, 126.501, -150.569, 128.669, 89.4213, 0, 0, 2.4831, -54.5276, 2.49775, -173.643, 2.45568, 66.3474, 0.0748569, 41.3067
2, 360.00000, 127.243, -31.4548, 126.497, -150.57, 128.664, 89.4202, 0, 0, 2.49008, -54.5287, 2.50476, -173.644, 2.46257, 66.3463, 0.0750673, 41.3117
2, 420.00000, 127.237, -31.4559, 126.492, -150.571, 128.659, 89.4192, 0, 0, 2.49698, -54.5298, 2.51169, -173.645, 2.46938, 66.3453, 0.0752752, 41.3166
2, 480.00000, 127.232, -31.457, 126.487, -150.572, 128.654, 89.4181, 0, 0, 2.50387, -54.5309, 2.51862, -173.646, 2.47619, 66.3442, 0.0754831, 41.3215
2, 540.00000, 127.227, -31.4581, 126.483, -150.573, 128.65, 89.4171, 0, 0, 2.51085, -54.532, 2.52563, -173.647, 2.48308, 66.3431, 0.0756935, 41.3265
2, 600.00000, 127.222, -31.4592, 126.478, -150.574, 128.645, 89.416, 0, 0, 2.51775, -54.5331, 2.53256, -173.648, 2.4899, 66.3421, 0.0759015, 41.3314
2, 660.00000, 127.216, -31.4603, 126.473, -150.576, 128.64, 89.4149, 0, 0, 2.52465, -54.5342, 2.53948, -173.649, 2.49671, 66.341, 0.0761094, 41.3363
2, 720.00000, 127.211, -31.4614, 126.469, -150.577, 128.635, 89.4139, 0, 0, 2.53164, -54.5354, 2.5465, -173.651, 2.5036, 66.3399, 0.0763199, 41.3413
