hour,t(sec),V1,VAngle1,V2,VAngle2,V3,VAngle3,V4,VAngle4,I1,IAngle1,I2,IAngle2,I3,IAngle3,I4,IAngle4
0, 60.00000, 126.58, -31.3172, 125.979, -150.723, 127.475, 89.4062, 0, 0, 2.34084, -54.3906, 2.35201, -173.797, 2.32445, 66.3325, 0.0508072, 33.8894
0, 120.00000, 126.589, -31.3258, 125.979, -150.722, 127.498, 89.4055, 0, 0, 2.34067, -54.3993, 2.35202, -173.796, 2.32404, 66.3319, 0.051502, 33.9872
0, 180.00000, 126.598, -31.3335, 125.979, -150.722, 127.518, 89.4049, 0, 0, 2.34052, -54.407, 2.35202, -173.796, 2.32366, 66.3313, 0.0521276, 34.0734
0, 240.00000, 126.605, -31.3405, 125.979, -150.722, 127.536, 89.4044, 0, 0, 2.34038, -54.414, 2.35202, -173.796, 2.32332, 66.3307, 0.0526909, 34.15
0, 300.00000, 126.612, -31.3467, 125.979, -150.722, 127.553, 89.4039, 0, 0, 2.34026, -54.4203, 2.35202, -173.796, 2.32302, 66.3302, 0.053198, 34.2181
0, 360.00000, 126.618, -31.3524, 125.979, -150.722, 127.568, 89.4035, 0, 0, 2.34015, -54.426, 2.35202, -173.796, 2.32275, 66.3297, 0.0536545, 34.2787
0, 420.00000, 126.623, -31.3575, 125.979, -150.722, 127.581, 89.403, 0, 0, 2.34005, -54.4311, 2.35202, -173.796, 2.3225, 66.3293, 0.0540654, 34.3327
0, 480.00000, 126.628, -31.3621, 125.979, -150.722, 127.593, 89.4027, 0, 0, 2.33996, -54.4357, 2.35202, -173.796, 2.32228, 66.3289, 0.0544354, 34.3809
0, 540.00000, 126.632, -31.3662, 125.979, -150.722, 127.604, 89.4023, 0, 0, 2.33988, -54.4399, 2.35202, -173.796, 2.32208, 66.3286, 0.0547684, 34.424
0, 600.00000, 126.636, -31.3699, 125.979, -150.722, 127.614, 89.402, 0, 0, 2.33981, -54.4436, 2.35202, -173.796, 2.3219, 66.3282, 0.0550682, 34.4625
0, 660.00000, 126.64, -31.3733, 125.979, -150.722, 127.622, 89.4017, 0, 0, 2.33974, -54.447, 2.35202, -173.796, 2.32174, 66.3279, 0.055338, 34.4969
0, 720.00000, 126.643, -31.3763, 125.979, -150.722, 127.63, 89.4015, 0, 0, 2.33968, -54.45, 2.35202, -173.796, 2.3216, 66.3277, 0.0555809, 34.5277
0, 780.00000, 126.646, -31.379, 125.979, -150.722, 127.637, 89.4013, 0, 0, 2.33963, -54.4528, 2.35202, -173.796, 2.32147, 66.3274, 0.0557995, 34.5553
0, 840.00000, 126.648, -31.3814, 125.979, -150.722, 127.644, 89.4011, 0, 0, 2.33958, -54.4552, 2.35202, -173.796, 2.32135, 66.3272, 0.0559963, 34.5801
0, 900.00000, 126.651, -31.3836, 125.979, -150.722, 127.65, 89.4009, 0, 0, 2.33954, -54.4574, 2.35202, -173.796, 2.32124, 66.327, 0.0561734, 34.6023
0, 960.00000, 126.5, -31.5594, 125.565, -150.765, 127.65, 89.3943, 0, 0, 2.34233, -54.6332, 2.35977, -173.839, 2.32123, 66.3204, 0.0691979, 32.8619
0, 1020.00000, 126.502, -31.5612, 125.565, -150.765, 127.655, 89.3941, 0, 0, 2.3423, -54.635, 2.35977, -173.839, 2.32115, 66.3203, 0.0693391, 32.8807
0, 1080.00000, 126.503, -31.5628, 125.565, -150.765, 127.659, 89.394, 0, 0, 2.34226, -54.6366, 2.35977, -173.839, 2.32107, 66.3201, 0.0694666, 32.8979
0, 1140.00000, 126.505, -31.5642, 125.565, -150.765, 127.663, 89.3938, 0, 0, 2.34224, -54.638, 2.35977, -173.839, 2.321, 66.32, 0.0695814, 32.9133
0, 1200.00000, 126.506, -31.5655, 125.565, -150.765, 127.666, 89.3937, 0, 0, 2.34221, -54.6393, 2.35977, -173.839, 2.32094, 66.3198, 0.0696847, 32.9272
0, 1260.00000, 126.507, -31.5666, 125.565, -150.765, 127.669, 89.3936, 0, 0, 2.34219, -54.6405, 2.35977, -173.839, 2.32088, 66.3197, 0.0697777, 32.9396
0, 1320.00000, 126.508, -31.5677, 125.565, -150.765, 127.672, 89.3935, 0, 0, 2.34217, -54.6416, 2.35977, -173.839, 2.32083, 66.3196, 0.0698614, 32.9508
0, 1380.00000, 126.509, -31.5686, 125.565, -150.765, 127.674, 89.3934, 0, 0, 2.34215, -54.6425, 2.35977, -173.839, 2.32079, 66.3195, 0.0699368, 32.9608
0, 1440.00000, 126.51, -31.5695, 125.565, -150.765, 127.676, 89.3933, 0, 0, 2.34214, -54.6434, 2.35977, -173.839, 2.32075, 66.3195, 0.0700046, 32.9699
0, 1500.00000, 126.511, -31.5702, 125.565, -150.765, 127.679, 89.3933, 0, 0, 2.34212, -54.6441, 2.35977, -173.839, 2.32071, 66.3194, 0.0700656, 32.978
0, 1560.00000, 126.512, -31.5709, 125.565, -150.765, 127.68, 89.3932, 0, 0, 2.34211, -54.6448, 2.35977, -173.839, 2.32068, 66.3193, 0.0701205, 32.9853
0, 1620.00000, 126.512, -31.5715, 125.565, -150.765, 127.682, 89.3931, 0, 0, 2.3421, -54.6454, 2.35977, -173.839, 2.32065, 66.3193, 0.0701699, 32.9918
0, 1680.00000, 126.513, -31.5721, 125.565, -150.765, 127.683, 89.3931, 0, 0, 2.34209, -54.646, 2.35977, -173.839, 2.32062, 66.3192, 0.0702144, 32.9977
0, 1740.00000, 126.513, -31.5726, 125.565, -150.765, 127.685, 89.393, 0, 0, 2.34208, -54.6465, 2.35977, -173.839, 2.3206, 66.3191, 0.0702545, 33.0031
0, 1800.00000, 126.514, -31.573, 125.565, -150.765, 127.686, 89.393, 0, 0, 2.34207, -54.6469, 2.35977, -173.839, 2.32057, 66.3191, 0.0702905, 33.0078
0, 1860.00000, 126.514, -31.5735, 125.565, -150.765, 127.687, 89.393, 0, 0, 2.34206, -54.6474, 2.35977, -173.839, 2.32055, 66.3191, 0.0703229, 33.0121
0, 1920.00000, 126.515, -31.5738, 125.565, -150.765, 127.688, 89.3929, 0, 0, 2.34205, -54.6477, 2.35977, -173.839, 2.32054, 66.319, 0.0703521, 33.016
0, 1980.00000, 126.515, -31.5741, 125.565, -150.765, 127.689, 89.3929, 0, 0, 2.34205, -54.648, 2.35977, -173.839, 2.32052, 66.319, 0.0703784, 33.0195
0, 2040.00000, 126.515, -31.5744, 125.565, -150.765, 127.69, 89.3929, 0, 0, 2.34204, -54.6483, 2.35977, -173.839, 2.32051, 66.319, 0.070402, 33.0226
0, 2100.00000, 126.516, -31.5747, 125.565, -150.765, 127.69, 89.3928, 0, 0, 2.34204, -54.6486, 2.35977, -173.839, 2.32049, 66.3189, 0.0704233, 33.0254
0, 2160.00000, 126.516, -31.5749, 125.565, -150.765, 127.691, 89.3928, 0, 0, 2.34203, -54.6489, 2.35977, -173.839, 2.32048, 66.3189, 0.0704425, 33.028
0, 2220.00000, 126.516, -31.5752, 125.565, -150.765, 127.691, 89.3928, 0, 0, 2.34203, -54.6491, 2.35977, -173.839, 2.32047, 66.3189, 0.0704597, 33.0302
0, 2280.00000, 126.516, -31.5754, 125.565, -150.765, 127.692, 89.3928, 0, 0, 2.34202, -54.6493, 2.35977, -173.839, 2.32046, 66.3189, 0.0704752, 33.0323
0, 2340.00000, 126.516, -31.5755, 125.565, -150.765, 127.692, 89.3928, 0, 0, 2.34202, -54.6494, 2.35977, -173.839, 2.32045, 66.3189, 0.0704892, 33.0341
0, 2400.00000, 126.517, -31.5757, 125.565, -150.765, 127.693, 89.3928, 0, 0, 2.34202, -54.6496, 2.35977, -173.839, 2.32045, 66.3188, 0.0705018, 33.0358
0, 2460.00000, 126.517, -31.5758, 125.565, -150.765, 127.693, 89.3927, 0, 0, 2.34202, -54.6497, 2.35977, -173.839, 2.32044, 66.3188, 0.0705131, 33.0373
0, 2520.00000, 126.517, -31.576, 125.565, -150.765, 127.694, 89.3927, 0, 0, 2.34201, -54.6499, 2.35977, -173.839, 2.32043, 66.3188, 0.0705233, 33.0386
0, 2580.00000, 126.517, -31.5761, 125.565, -150.765, 127.694, 89.3927, 0, 0, 2.34201, -54.65, 2.35977, -173.839, 2.32043, 66.3188, 0.0705324, 33.0398
0, 2640.00000, 126.517, -31.5762, 125.565, -150.765, 127.694, 89.3927, 0, 0, 2.34201, -54.6501, 2.35977, -173.839, 2.32042, 66.3188, 0.0705407, 33.0409
0, 2700.00000, 126.517, -31.5763, 125.565, -150.765, 127.694, 89.3927, 0, 0, 2.34201, -54.6502, 2.35977, -173.839, 2.32042, 66.3188, 0.0705481, 33.0419
0, 2760.00000, 126.517, -31.5764, 125.565, -150.765, 127.695, 89.3927, 0, 0, 2.34201, -54.6503, 2.35977, -173.839, 2.32042, 66.3188, 0.0705548, 33.0428
0, 2820.00000, 126.517, -31.5764, 125.565, -150.765, 127.695, 89.3927, 0, 0, 2.342, -54.6503, 2.35977, -173.839, 2.32041, 66.3188, 0.0705608, 33.0436
0, 2880.00000, 126.517, -31.5765, 125.565, -150.765, 127.695, 89.3927, 0, 0, 2.342, -54.6504, 2.35977, -173.839, 2.32041, 66.3188, 0.0705662, 33.0443
0, 2940.00000, 126.518, -31.5766, 125.565, -150.765, 127.695, 89.3927, 0, 0, 2.342, -54.6505, 2.35977, -173.839, 2.32041, 66.3188, 0.0705711, 33.0449
0, 3000.00000, 126.518, -31.5766, 125.565, -150.765, 127.695, 89.3927, 0, 0, 2.342, -54.6505, 2.35977, -173.839, 2.3204, 66.3187, 0.0705754, 33.0455
0, 3060.00000, 126.518, -31.5767, 125.565, -150.765, 127.695, 89.3927, 0, 0, 2.342, -54.6506, 2.35977, -173.839, 2.3204, 66.3187, 0.0705794, 33.046
0, 3120.00000, 126.518, -31.5767, 125.565, -150.765, 127.695, 89.3927, 0, 0, 2.342, -54.6506, 2.35977, -173.839, 2.3204, 66.3187, 0.0705829, 33.0465
0, 3180.00000, 126.518, -31.5767, 125.565, -150.765, 127.696, 89.3927, 0, 0, 2.342, -54.6507, 2.35977, -173.839, 2.3204, 66.3187, 0.0705861, 33.0469
0, 3240.00000, 126.518, -31.5768, 125.565, -150.765, 127.696, 89.3927, 0, 0, 2.342, -54.6507, 2.35977, -173.839, 2.32039, 66.3187, 0.070589, 33.0473
0, 3300.00000, 126.518, -31.5768, 125.565, -150.765, 127.696, 89.3926, 0, 0, 2.342, -54.6507, 2.35977, -173.839, 2.32039, 66.3187, 0.0705916, 33.0476
0, 3360.00000, 126.518, -31.5768, 125.565, -150.765, 127.696, 89.3926, 0, 0, 2.342, -54.6508, 2.35977, -173.839, 2.32039, 66.3187, 0.0705939, 33.0479
0, 3420.00000, 126.518, -31.5769, 125.565, -150.765, 127.696, 89.3926, 0, 0, 2.342, -54.6508, 2.35977, -173.839, 2.32039, 66.3187, 0.070596, 33.0482
0, 3480.00000, 126.518, -31.5769, 125.565, -150.765, 127.696, 89.3926, 0, 0, 2.342, -54.6508, 2.35977, -173.839, 2.32039, 66.3187, 0.0705979, 33.0485
0, 3540.00000, 126.518, -31.5769, 125.565, -150.765, 127.696, 89.3926, 0, 0, 2.342, -54.6508, 2.35977, -173.839, 2.32039, 66.3187, 0.0705996, 33.0487
1, 0.00000, 126.518, -31.5769, 125.565, -150.765, 127.696, 89.3926, 0, 0, 2.342, -54.6508, 2.35977, -173.839, 2.32039, 66.3187, 0.0706011, 33.0489
1, 60.00000, 126.518, -31.5769, 125.565, -150.765, 127.696, 89.3926, 0, 0, 2.34199, -54.6509, 2.35977, -173.839, 2.32039, 66.3187, 0.0706025, 33.0491
1, 120.00000, 126.518, -31.577, 125.565, -150.765, 127.696, 89.3926, 0, 0, 2.34199, -54.6509, 2.35977, -173.839, 2.32039, 66.3187, 0.0706037, 33.0492
1, 180.00000, 126.518, -31.577, 125.565, -150.765, 127.696, 89.3926, 0, 0, 2.34199, -54.6509, 2.35977, -173.839, 2.32038, 66.3187, 0.0706049, 33.0494
1, 240.00000, 126.518, -31.577, 125.565, -150.765, 127.696, 89.3926, 0, 0, 2.34199, -54.6509, 2.35977, -173.839, 2.32038, 66.3187, 0.0706059, 33.0495
1, 300.00000, 126.518, -31.577, 125.565, -150.765, 127.696, 89.3926, 0, 0, 2.34199, -54.6509, 2.35977, -173.839, 2.32038, 66.3187, 0.0706068, 33.0496
1, 360.00000, 126.518, -31.577, 125.565, -150.765, 127.696, 89.3926, 0, 0, 2.34199, -54.6509, 2.35977, -173.839, 2.32038, 66.3187, 0.0706076, 33.0497
1, 420.00000, 126.518, -31.577, 125.565, -150.765, 127.696, 89.3926, 0, 0, 2.34199, -54.6509, 2.35977, -173.839, 2.32038, 66.3187, 0.0706083, 33.0498
1, 480.00000, 126.518, -31.577, 125.565, -150.765, 127.696, 89.3926, 0, 0, 2.34199, -54.6509, 2.35977, -173.839, 2.32038, 66.3187, 0.070609, 33.0499
1, 540.00000, 126.518, -31.577, 125.565, -150.765, 127.696, 89.3926, 0, 0, 2.34199, -54.651, 2.35977, -173.839, 2.32038, 66.3187, 0.0706096, 33.05
1, 600.00000, 126.518, -31.577, 125.565, -150.765, 127.696, 89.3926, 0, 0, 2.34199, -54.651, 2.35977, -173.839, 2.32038, 66.3187, 0.0706101, 33.0501
1, 660.00000, 126.518, -31.577, 125.565, -150.765, 127.696, 89.3926, 0, 0, 2.34199, -54.651, 2.35977, -173.839, 2.32038, 66.3187, 0.0706106, 33.0501
1, 720.00000, 126.518, -31.5771, 125.565, -150.765, 127.696, 89.3926, 0, 0, 2.34199, -54.651, 2.35977, -173.839, 2.32038, 66.3187, 0.070611, 33.0502
1, 780.00000, 126.518, -31.5771, 125.565, -150.765, 127.696, 89.3926, 0, 0, 2.34199, -54.651, 2.35977, -173.839, 2.32038, 66.3187, 0.0706114, 33.0502
1, 840.00000, 126.518, -31.5771, 125.565, -150.765, 127.696, 89.3926, 0, 0, 2.34199, -54.651, 2.35977, -173.839, 2.32038, 66.3187, 0.0706117, 33.0503
1, 900.00000, 126.518, -31.5771, 125.565, -150.765, 127.696, 89.3926, 0, 0, 2.34199, -54.651, 2.35977, -173.839, 2.32038, 66.3187, 0.0706121, 33.0503
1, 960.00000, 126.518, -31.5771, 125.565, -150.765, 127.696, 89.3926, 0, 0, 2.34199, -54.651, 2.35977, -173.839, 2.32038, 66.3187, 0.0706123, 33.0504
1, 1020.00000, 126.518, -31.5771, 125.565, -150.765, 127.696, 89.3926, 0, 0, 2.34199, -54.651, 2.35977, -173.839, 2.32038, 66.3187, 0.0706126, 33.0504
1, 1080.00000, 126.518, -31.5771, 125.565, -150.765, 127.696, 89.3926, 0, 0, 2.34199, -54.651, 2.35977, -173.839, 2.32038, 66.3187, 0.0706128, 33.0504
1, 1140.00000, 126.518, -31.5771, 125.565, -150.765, 127.696, 89.3926, 0, 0, 2.34199, -54.651, 2.35977, -173.839, 2.32038, 66.3187, 0.070613, 33.0505
1, 1200.00000, 126.518, -31.5771, 125.565, -150.765, 127.696, 89.3926, 0, 0, 2.34199, -54.651, 2.35977, -173.839, 2.32038, 66.3187, 0.0706132, 33.0505
1, 1260.00000, 126.518, -31.5771, 125.565, -150.765, 127.696, 89.3926, 0, 0, 2.34199, -54.651, 2.35977, -173.839, 2.32038, 66.3187, 0.0706134, 33.0505
1, 1320.00000, 126.518, -31.5771, 125.565, -150.765, 127.697, 89.3926, 0, 0, 2.34199, -54.651, 2.35977, -173.839, 2.32038, 66.3187, 0.0706135, 33.0505
1, 1380.00000, 126.518, -31.5771, 125.565, -150.765, 127.697, 89.3926, 0, 0, 2.34199, -54.651, 2.35977, -173.839, 2.32038, 66.3187, 0.0706137, 33.0505
1, 1440.00000, 126.518, -31.5771, 125.565, -150.765, 127.697, 89.3926, 0, 0, 2.34199, -54.651, 2.35977, -173.839, 2.32038, 66.3187, 0.0706138, 33.0506
1, 1500.00000, 126.518, -31.5771, 125.565, -150.765, 127.697, 89.3926, 0, 0, 2.34199, -54.651, 2.35977, -173.839, 2.32038, 66.3187, 0.0706139, 33.0506
1, 1560.00000, 126.518, -31.5771, 125.565, -150.765, 127.697, 89.3926, 0, 0, 2.34199, -54.651, 2.35977, -173.839, 2.32038, 66.3187, 0.070614, 33.0506
1, 1620.00000, 126.518, -31.5771, 125.565, -150.765, 127.697, 89.3926, 0, 0, 2.34199, -54.651, 2.35977, -173.839, 2.32038, 66.3187, 0.0706141, 33.0506
1, 1680.00000, 126.518, -31.5771, 125.565, -150.765, 127.697, 89.3926, 0, 0, 2.34199, -54.651, 2.35977, -173.839, 2.32038, 66.3187, 0.0706142, 33.0506
1, 1740.00000, 126.518, -31.5771, 125.565, -150.765, 127.697, 89.3926, 0, 0, 2.34199, -54.651, 2.35977, -173.839, 2.32038, 66.3187, 0.0706142, 33.0506
1, 1800.00000, 126.518, -31.5771, 125.565, -150.765, 127.697, 89.3926, 0, 0, 2.34199, -54.651, 2.35977, -173.839, 2.32038, 66.3187, 0.0706143, 33.0506
1, 1860.00000, 126.518, -31.5771, 125.565, -150.765, 127.697, 89.3926, 0, 0, 2.34199, -54.651, 2.35977, -173.839, 2.32038, 66.3187, 0.0706144, 33.0506
1, 1920.00000, 126.518, -31.5771, 125.565, -150.765, 127.697, 89.3926, 0, 0, 2.34199, -54.651, 2.35977, -173.839, 2.32038, 66.3187, 0.0706144, 33.0506
1, 1980.00000, 126.518, -31.5771, 125.565, -150.765, 127.697, 89.3926, 0, 0, 2.34199, -54.651, 2.35977, -173.839, 2.32038, 66.3187, 0.0706145, 33.0506
1, 2040.00000, 126.518, -31.5771, 125.565, -150.765, 127.697, 89.3926, 0, 0, 2.34199, -54.651, 2.35977, -173.839, 2.32038, 66.3187, 0.0706145, 33.0506
1, 2100.00000, 126.518, -31.5771, 125.565, -150.765, 127.697, 89.3926, 0, 0, 2.34199, -54.651, 2.35977, -173.839, 2.32038, 66.3187, 0.0706145, 33.0507
1, 2160.00000, 126.518, -31.5771, 125.565, -150.765, 127.697, 89.3926, 0, 0, 2.34199, -54.651, 2.35977, -173.839, 2.32038, 66.3187, 0.0706146, 33.0507
1, 2220.00000, 126.518, -31.5771, 125.565, -150.765, 127.697, 89.3926, 0, 0, 2.34199, -54.651, 2.35977, -173.839, 2.32038, 66.3187, 0.0706146, 33.0507
1, 2280.00000, 126.518, -31.5771, 125.565, -150.765, 127.697, 89.3926, 0, 0, 2.34199, -54.651, 2.35977, -173.839, 2.32038, 66.3187, 0.0706146, 33.0507
1, 2340.00000, 126.518, -31.5771, 125.565, -150.765, 127.697, 89.3926, 0, 0, 2.34199, -54.651, 2.35977, -173.839, 2.32038, 66.3187, 0.0706147, 33.0507
1, 2400.00000, 126.518, -31.5771, 125.565, -150.765, 127.697, 89.3926, 0, 0, 2.34199, -54.651, 2.35977, -173.839, 2.32038, 66.3187, 0.0706147, 33.0507
1, 2460.00000, 126.518, -31.5771, 125.565, -150.765, 127.697, 89.3926, 0, 0, 2.34199, -54.651, 2.35977, -173.839, 2.32038, 66.3187, 0.0706147, 33.0507
1, 2520.00000, 126.671, -31.4035, 125.979, -150.722, 127.701, 89.3992, 0, 0, 2.33916, -54.4774, 2.35202, -173.796, 2.32029, 66.3252, 0.0577678, 34.7981
1, 2580.00000, 126.671, -31.4035, 125.979, -150.722, 127.701, 89.3992, 0, 0, 2.33916, -54.4774, 2.35202, -173.796, 2.32029, 66.3252, 0.0577682, 34.7984
1, 2640.00000, 126.671, -31.4035, 125.979, -150.722, 127.701, 89.3992, 0, 0, 2.33916, -54.4774, 2.35202, -173.796, 2.32029, 66.3252, 0.0577682, 34.7984
1, 2700.00000, 126.671, -31.4035, 125.979, -150.722, 127.701, 89.3992, 0, 0, 2.33916, -54.4774, 2.35202, -173.796, 2.32029, 66.3252, 0.0577682, 34.7985
1, 2760.00000, 126.667, -31.4086, 126.102, -150.558, 128.099, 89.4378, 0, 0, 2.33924, -54.4825, 2.34971, -173.632, 2.31308, 66.3639, 0.0668188, 43.0187
1, 2820.00000, 126.667, -31.4086, 126.102, -150.558, 128.099, 89.4378, 0, 0, 2.33924, -54.4825, 2.34971, -173.632, 2.31308, 66.3639, 0.0668188, 43.019
1, 2880.00000, 126.667, -31.4086, 126.102, -150.558, 128.099, 89.4378, 0, 0, 2.33924, -54.4825, 2.34971, -173.632, 2.31308, 66.3639, 0.0668188, 43.019
1, 2940.00000, 126.667, -31.4086, 126.102, -150.558, 128.099, 89.4378, 0, 0, 2.33924, -54.4825, 2.34971, -173.632, 2.31308, 66.3639, 0.0668188, 43.019
1, 3000.00000, 126.667, -31.4086, 126.102, -150.558, 128.099, 89.4378, 0, 0, 2.33924, -54.4825, 2.34971, -173.632, 2.31308, 66.3639, 0.0668188, 43.019
1, 3060.00000, 126.667, -31.4086, 126.102, -150.558, 128.099, 89.4378, 0, 0, 2.33924, -54.4825, 2.34971, -173.632, 2.31308, 66.3639, 0.0668188, 43.019
1, 3120.00000, 126.667, -31.4086, 126.102, -150.558, 128.099, 89.4378, 0, 0, 2.33924, -54.4825, 2.34971, -173.632, 2.31308, 66.3639, 0.0668188, 43.019
1, 3180.00000, 126.667, -31.4086, 126.102, -150.558, 128.099, 89.4378, 0, 0, 2.33924, -54.4825, 2.34971, -173.632, 2.31308, 66.3639, 0.0668188, 43.019
1, 3240.00000, 126.667, -31.4086, 126.102, -150.558, 128.099, 89.4378, 0, 0, 2.33924, -54.4825, 2.34971, -173.632, 2.31308, 66.3639, 0.0668188, 43.019
1, 3300.00000, 126.667, -31.4086, 126.102, -150.558, 128.099, 89.4378, 0, 0, 2.33924, -54.4825, 2.34971, -173.632, 2.31308, 66.3639, 0.0668188, 43.019
1, 3360.00000, 126.667, -31.4086, 126.102, -150.558, 128.099, 89.4378, 0, 0, 2.33924, -54.4825, 2.34971, -173.632, 2.31308, 66.3639, 0.0668189, 43.019
1, 3420.00000, 126.667, -31.4086, 126.102, -150.558, 128.099, 89.4378, 0, 0, 2.33924, -54.4825, 2.34971, -173.632, 2.31308, 66.3639, 0.0668189, 43.019
1, 3480.00000, 126.667, -31.4086, 126.102, -150.558, 128.099, 89.4378, 0, 0, 2.33924, -54.4825, 2.34971, -173.632, 2.31308, 66.3639, 0.0668189, 43.019
1, 3540.00000, 126.667, -31.4086, 126.102, -150.558, 128.099, 89.4378, 0, 0, 2.33924, -54.4825, 2.34971, -173.632, 2.31308, 66.3639, 0.0668189, 43.019
2, 0.00000, 126.667, -31.4086, 126.102, -150.558, 128.099, 89.4378, 0, 0, 2.33924, -54.4825, 2.34971, -173.632, 2.31308, 66.3639, 0.0668189, 43.019
2, 60.00000, 126.667, -31.4086, 126.102, -150.558, 128.099, 89.4378, 0, 0, 2.33924, -54.4825, 2.34971, -173.632, 2.31308, 66.3639, 0.0668189, 43.019
2, 120.00000, 126.661, -31.4097, 126.097, -150.559, 128.094, 89.4367, 0, 0, 2.34582, -54.4836, 2.35631, -173.633, 2.31958, 66.3628, 0.0670075, 43.0261
2, 180.00000, 126.655, -31.4108, 126.092, -150.56, 128.089, 89.4357, 0, 0, 2.35248, -54.4847, 2.36299, -173.634, 2.32615, 66.3618, 0.0671983, 43.0332
2, 240.00000, 126.649, -31.4119, 126.087, -150.561, 128.083, 89.4347, 0, 0, 2.35907, -54.4858, 2.36959, -173.635, 2.33265, 66.3608, 0.0673869, 43.0402
2, 300.00000, 126.643, -31.413, 126.082, -150.562, 128.078, 89.4336, 0, 0, 2.36565, -54.4869, 2.37619, -173.636, 2.33915, 66.3597, 0.0675756, 43.0473
2, 360.00000, 126.637, -31.4141, 126.076, -150.563, 128.073, 89.4326, 0, 0, 2.37231, -54.488, 2.38287, -173.637, 2.34572, 66.3587, 0.0677665, 43.0544
2, 420.00000, 126.631, -31.4151, 126.071, -150.565, 128.067, 89.4316, 0, 0, 2.3789, -54.4891, 2.38947, -173.638, 2.35222, 66.3577, 0.0679552, 43.0615
2, 480.00000, 126.625, -31.4162, 126.066, -150.566, 128.062, 89.4305, 0, 0, 2.38548, -54.4901, 2.39607, -173.64, 2.35872, 66.3566, 0.0681439, 43.0686
2, 540.00000, 126.619, -31.4173, 126.061, -150.567, 128.057, 89.4295, 0, 0, 2.39215, -54.4912, 2.40275, -173.641, 2.3653, 66.3556, 0.0683348, 43.0757
2, 600.00000, 126.613, -31.4184, 126.055, -150.568, 128.051, 89.4285, 0, 0, 2.39873, -54.4923, 2.40935, -173.642, 2.3718, 66.3545, 0.0685236, 43.0828
2, 660.00000, 126.608, -31.4195, 126.05, -150.569, 128.046, 89.4274, 0, 0, 2.40532, -54.4934, 2.41596, -173.643, 2.3783, 66.3535, 0.0687124, 43.0899
2, 720.00000, 126.602, -31.4206, 126.045, -150.57, 128.041, 89.4264, 0, 0, 2.41199, -54.4945, 2.42264, -173.644, 2.38488, 66.3525, 0.0689034, 43.097
