hour,t(sec),V1,VAngle1,V2,VAngle2,V3,VAngle3,V4,VAngle4,I1,IAngle1,I2,IAngle2,I3,IAngle3,I4,IAngle4
0, 60.00000, 127.582, -31.3511, 126.984, -150.728, 128.53, 89.2368, 0, 0, 2.02512, -54.4246, 2.03467, -173.802, 2.01022, 66.1631, 0.0427233, 41.0608
0, 120.00000, 127.591, -31.3596, 126.984, -150.728, 128.552, 89.2363, 0, 0, 2.02498, -54.4331, 2.03467, -173.802, 2.00987, 66.1625, 0.0433129, 41.0536
0, 180.00000, 127.599, -31.3672, 126.984, -150.728, 128.571, 89.2358, 0, 0, 2.02485, -54.4407, 2.03467, -173.802, 2.00956, 66.162, 0.0438436, 41.0478
0, 240.00000, 127.607, -31.374, 126.984, -150.728, 128.589, 89.2353, 0, 0, 2.02473, -54.4476, 2.03467, -173.802, 2.00928, 66.1615, 0.0443215, 41.0434
0, 300.00000, 127.613, -31.3802, 126.984, -150.728, 128.605, 89.2349, 0, 0, 2.02463, -54.4538, 2.03467, -173.802, 2.00903, 66.1611, 0.0447517, 41.04
0, 360.00000, 127.619, -31.3858, 126.984, -150.728, 128.62, 89.2345, 0, 0, 2.02453, -54.4594, 2.03467, -173.802, 2.00881, 66.1607, 0.0451389, 41.0375
0, 420.00000, 127.625, -31.3908, 126.984, -150.728, 128.632, 89.2341, 0, 0, 2.02445, -54.4644, 2.03467, -173.802, 2.0086, 66.1603, 0.0454876, 41.0355
0, 480.00000, 127.629, -31.3953, 126.984, -150.727, 128.644, 89.2338, 0, 0, 2.02437, -54.469, 2.03467, -173.801, 2.00842, 66.16, 0.0458014, 41.0341
0, 540.00000, 127.634, -31.3993, 126.984, -150.727, 128.655, 89.2335, 0, 0, 2.0243, -54.473, 2.03467, -173.801, 2.00826, 66.1597, 0.0460839, 41.0331
0, 600.00000, 127.638, -31.403, 126.984, -150.727, 128.664, 89.2332, 0, 0, 2.02424, -54.4767, 2.03467, -173.801, 2.00811, 66.1594, 0.0463382, 41.0324
0, 660.00000, 127.641, -31.4063, 126.984, -150.727, 128.672, 89.233, 0, 0, 2.02419, -54.48, 2.03467, -173.801, 2.00797, 66.1591, 0.0465671, 41.0319
0, 720.00000, 127.644, -31.4092, 126.984, -150.727, 128.68, 89.2327, 0, 0, 2.02414, -54.483, 2.03467, -173.801, 2.00785, 66.1589, 0.0467731, 41.0315
0, 780.00000, 127.647, -31.4119, 126.984, -150.727, 128.687, 89.2326, 0, 0, 2.02409, -54.4857, 2.03467, -173.801, 2.00775, 66.1587, 0.0469586, 41.0313
0, 840.00000, 127.65, -31.4143, 126.984, -150.727, 128.693, 89.2324, 0, 0, 2.02405, -54.4881, 2.03467, -173.801, 2.00765, 66.1585, 0.0471255, 41.0312
0, 900.00000, 127.652, -31.4165, 126.984, -150.727, 128.699, 89.2322, 0, 0, 2.02402, -54.4903, 2.03467, -173.801, 2.00756, 66.1583, 0.0472758, 41.0312
0, 960.00000, 127.654, -31.4146, 126.854, -150.898, 128.298, 89.1921, 0, 0, 2.02398, -54.4884, 2.03674, -173.972, 2.01383, 66.1182, 0.0398799, 30.0606
0, 1020.00000, 127.656, -31.4163, 126.854, -150.898, 128.302, 89.192, 0, 0, 2.02395, -54.4902, 2.03674, -173.972, 2.01376, 66.1181, 0.0399996, 30.0933
0, 1080.00000, 127.658, -31.4179, 126.854, -150.898, 128.306, 89.1918, 0, 0, 2.02392, -54.4917, 2.03674, -173.972, 2.0137, 66.118, 0.0401076, 30.1234
0, 1140.00000, 127.659, -31.4193, 126.854, -150.898, 128.31, 89.1917, 0, 0, 2.0239, -54.4932, 2.03674, -173.972, 2.01364, 66.1179, 0.0402048, 30.1505
0, 1200.00000, 127.661, -31.4206, 126.854, -150.898, 128.313, 89.1917, 0, 0, 2.02388, -54.4944, 2.03674, -173.972, 2.01359, 66.1178, 0.0402924, 30.1747
0, 1260.00000, 127.662, -31.4217, 126.854, -150.898, 128.316, 89.1916, 0, 0, 2.02386, -54.4956, 2.03674, -173.972, 2.01354, 66.1177, 0.0403712, 30.1964
0, 1320.00000, 127.663, -31.4228, 126.854, -150.898, 128.319, 89.1915, 0, 0, 2.02384, -54.4966, 2.03674, -173.972, 2.0135, 66.1176, 0.0404421, 30.216
0, 1380.00000, 127.664, -31.4237, 126.854, -150.898, 128.321, 89.1914, 0, 0, 2.02383, -54.4976, 2.03674, -173.972, 2.01346, 66.1175, 0.0405059, 30.2335
0, 1440.00000, 127.665, -31.4245, 126.854, -150.898, 128.324, 89.1914, 0, 0, 2.02381, -54.4984, 2.03674, -173.972, 2.01343, 66.1175, 0.0405634, 30.2492
0, 1500.00000, 127.666, -31.4253, 126.854, -150.898, 128.325, 89.1913, 0, 0, 2.0238, -54.4991, 2.03674, -173.972, 2.0134, 66.1174, 0.0406151, 30.2633
0, 1560.00000, 127.666, -31.4259, 126.854, -150.898, 128.327, 89.1913, 0, 0, 2.02379, -54.4998, 2.03674, -173.972, 2.01337, 66.1174, 0.0406616, 30.276
0, 1620.00000, 127.667, -31.4266, 126.854, -150.898, 128.329, 89.1912, 0, 0, 2.02378, -54.5004, 2.03674, -173.972, 2.01334, 66.1173, 0.0407035, 30.2874
0, 1680.00000, 127.667, -31.4271, 126.854, -150.898, 128.33, 89.1912, 0, 0, 2.02377, -54.501, 2.03674, -173.972, 2.01332, 66.1173, 0.0407412, 30.2977
0, 1740.00000, 127.668, -31.4276, 126.854, -150.898, 128.331, 89.1912, 0, 0, 2.02376, -54.5015, 2.03674, -173.972, 2.0133, 66.1173, 0.0407751, 30.3069
0, 1800.00000, 127.668, -31.428, 126.854, -150.898, 128.333, 89.1911, 0, 0, 2.02375, -54.5019, 2.03674, -173.972, 2.01328, 66.1172, 0.0408057, 30.3152
0, 1860.00000, 127.669, -31.4284, 126.854, -150.898, 128.334, 89.1911, 0, 0, 2.02375, -54.5023, 2.03674, -173.972, 2.01327, 66.1172, 0.0408331, 30.3226
0, 1920.00000, 127.669, -31.4288, 126.854, -150.898, 128.335, 89.1911, 0, 0, 2.02374, -54.5027, 2.03674, -173.972, 2.01325, 66.1172, 0.0408579, 30.3293
0, 1980.00000, 127.67, -31.4291, 126.854, -150.898, 128.335, 89.1911, 0, 0, 2.02374, -54.503, 2.03674, -173.972, 2.01324, 66.1171, 0.0408802, 30.3353
0, 2040.00000, 127.67, -31.4294, 126.854, -150.898, 128.336, 89.191, 0, 0, 2.02373, -54.5033, 2.03674, -173.972, 2.01323, 66.1171, 0.0409002, 30.3408
0, 2100.00000, 127.67, -31.4297, 126.854, -150.898, 128.337, 89.191, 0, 0, 2.02373, -54.5036, 2.03674, -173.972, 2.01321, 66.1171, 0.0409182, 30.3456
0, 2160.00000, 127.67, -31.4299, 126.854, -150.898, 128.337, 89.191, 0, 0, 2.02372, -54.5038, 2.03674, -173.972, 2.0132, 66.1171, 0.0409345, 30.35
0, 2220.00000, 127.671, -31.4301, 126.854, -150.898, 128.338, 89.191, 0, 0, 2.02372, -54.504, 2.03674, -173.972, 2.0132, 66.1171, 0.0409491, 30.3539
0, 2280.00000, 127.671, -31.4303, 126.854, -150.898, 128.339, 89.191, 0, 0, 2.02372, -54.5042, 2.03674, -173.972, 2.01319, 66.1171, 0.0409622, 30.3575
0, 2340.00000, 127.671, -31.4305, 126.854, -150.898, 128.339, 89.191, 0, 0, 2.02371, -54.5044, 2.03674, -173.972, 2.01318, 66.117, 0.0409741, 30.3607
0, 2400.00000, 127.671, -31.4306, 126.854, -150.898, 128.339, 89.1909, 0, 0, 2.02371, -54.5045, 2.03674, -173.972, 2.01318, 66.117, 0.0409847, 30.3635
0, 2460.00000, 127.671, -31.4308, 126.854, -150.898, 128.34, 89.1909, 0, 0, 2.02371, -54.5047, 2.03674, -173.972, 2.01317, 66.117, 0.0409943, 30.3661
0, 2520.00000, 127.671, -31.4309, 126.854, -150.898, 128.34, 89.1909, 0, 0, 2.02371, -54.5048, 2.03674, -173.972, 2.01316, 66.117, 0.0410029, 30.3684
0, 2580.00000, 127.672, -31.431, 126.854, -150.898, 128.34, 89.1909, 0, 0, 2.0237, -54.5049, 2.03674, -173.972, 2.01316, 66.117, 0.0410107, 30.3705
0, 2640.00000, 127.672, -31.4311, 126.854, -150.898, 128.341, 89.1909, 0, 0, 2.0237, -54.505, 2.03674, -173.972, 2.01316, 66.117, 0.0410177, 30.3724
0, 2700.00000, 127.672, -31.4312, 126.854, -150.898, 128.341, 89.1909, 0, 0, 2.0237, -54.5051, 2.03674, -173.972, 2.01315, 66.117, 0.041024, 30.3741
0, 2760.00000, 127.672, -31.4313, 126.854, -150.898, 128.341, 89.1909, 0, 0, 2.0237, -54.5052, 2.03674, -173.972, 2.01315, 66.117, 0.0410296, 30.3756
0, 2820.00000, 127.672, -31.4314, 126.854, -150.898, 128.341, 89.1909, 0, 0, 2.0237, -54.5053, 2.03674, -173.972, 2.01314, 66.117, 0.0410347, 30.377
0, 2880.00000, 127.672, -31.4314, 126.854, -150.898, 128.341, 89.1909, 0, 0, 2.0237, -54.5053, 2.03674, -173.972, 2.01314, 66.117, 0.0410393, 30.3782
0, 2940.00000, 127.672, -31.4315, 126.854, -150.898, 128.342, 89.1909, 0, 0, 2.0237, -54.5054, 2.03674, -173.972, 2.01314, 66.117, 0.0410434, 30.3793
0, 3000.00000, 127.672, -31.4315, 126.854, -150.898, 128.342, 89.1909, 0, 0, 2.0237, -54.5055, 2.03674, -173.972, 2.01314, 66.117, 0.0410471, 30.3803
0, 3060.00000, 127.672, -31.4316, 126.854, -150.898, 128.342, 89.1909, 0, 0, 2.02369, -54.5055, 2.03674, -173.972, 2.01314, 66.117, 0.0410505, 30.3812
0, 3120.00000, 127.672, -31.4316, 126.854, -150.898, 128.342, 89.1909, 0, 0, 2.02369, -54.5056, 2.03674, -173.972, 2.01313, 66.117, 0.0410535, 30.382
0, 3180.00000, 127.672, -31.4317, 126.854, -150.898, 128.342, 89.1909, 0, 0, 2.02369, -54.5056, 2.03674, -173.972, 2.01313, 66.117, 0.0410562, 30.3828
0, 3240.00000, 127.672, -31.4317, 126.854, -150.898, 128.342, 89.1909, 0, 0, 2.02369, -54.5056, 2.03674, -173.972, 2.01313, 66.117, 0.0410586, 30.3834
0, 3300.00000, 127.672, -31.4317, 126.854, -150.898, 128.342, 89.1909, 0, 0, 2.02369, -54.5057, 2.03674, -173.972, 2.01313, 66.1169, 0.0410608, 30.384
0, 3360.00000, 127.672, -31.4318, 126.854, -150.898, 128.342, 89.1909, 0, 0, 2.02369, -54.5057, 2.03674, -173.972, 2.01313, 66.1169, 0.0410628, 30.3845
0, 3420.00000, 127.672, -31.4318, 126.854, -150.898, 128.342, 89.1909, 0, 0, 2.02369, -54.5057, 2.03674, -173.972, 2.01313, 66.1169, 0.0410646, 30.385
0, 3480.00000, 127.672, -31.4318, 126.854, -150.898, 128.342, 89.1909, 0, 0, 2.02369, -54.5057, 2.03674, -173.972, 2.01313, 66.1169, 0.0410662, 30.3854
0, 3540.00000, 127.672, -31.4318, 126.854, -150.898, 128.343, 89.1909, 0, 0, 2.02369, -54.5058, 2.03674, -173.972, 2.01313, 66.1169, 0.0410676, 30.3858
1, 0.00000, 127.673, -31.4319, 126.854, -150.898, 128.343, 89.1909, 0, 0, 2.02369, -54.5058, 2.03674, -173.972, 2.01312, 66.1169, 0.0410689, 30.3862
1, 60.00000, 127.673, -31.4319, 126.854, -150.898, 128.343, 89.1909, 0, 0, 2.02369, -54.5058, 2.03674, -173.972, 2.01312, 66.1169, 0.0410701, 30.3865
1, 120.00000, 127.673, -31.4319, 126.854, -150.898, 128.343, 89.1909, 0, 0, 2.02369, -54.5058, 2.03674, -173.972, 2.01312, 66.1169, 0.0410711, 30.3868
1, 180.00000, 127.673, -31.4319, 126.854, -150.898, 128.343, 89.1908, 0, 0, 2.02369, -54.5058, 2.03674, -173.972, 2.01312, 66.1169, 0.0410721, 30.387
1, 240.00000, 127.673, -31.4319, 126.854, -150.898, 128.343, 89.1908, 0, 0, 2.02369, -54.5058, 2.03674, -173.972, 2.01312, 66.1169, 0.0410729, 30.3872
1, 300.00000, 127.673, -31.4319, 126.854, -150.898, 128.343, 89.1908, 0, 0, 2.02369, -54.5058, 2.03674, -173.972, 2.01312, 66.1169, 0.0410737, 30.3874
1, 360.00000, 127.673, -31.4319, 126.854, -150.898, 128.343, 89.1908, 0, 0, 2.02369, -54.5059, 2.03674, -173.972, 2.01312, 66.1169, 0.0410744, 30.3876
1, 420.00000, 127.673, -31.4319, 126.854, -150.898, 128.343, 89.1908, 0, 0, 2.02369, -54.5059, 2.03674, -173.972, 2.01312, 66.1169, 0.041075, 30.3878
1, 480.00000, 127.673, -31.432, 126.854, -150.898, 128.343, 89.1908, 0, 0, 2.02369, -54.5059, 2.03674, -173.972, 2.01312, 66.1169, 0.0410756, 30.3879
1, 540.00000, 127.673, -31.432, 126.854, -150.898, 128.343, 89.1908, 0, 0, 2.02369, -54.5059, 2.03674, -173.972, 2.01312, 66.1169, 0.041076, 30.3881
1, 600.00000, 127.673, -31.432, 126.854, -150.898, 128.343, 89.1908, 0, 0, 2.02369, -54.5059, 2.03674, -173.972, 2.01312, 66.1169, 0.0410765, 30.3882
1, 660.00000, 127.673, -31.432, 126.854, -150.898, 128.343, 89.1908, 0, 0, 2.02369, -54.5059, 2.03674, -173.972, 2.01312, 66.1169, 0.0410769, 30.3883
1, 720.00000, 127.673, -31.432, 126.854, -150.898, 128.343, 89.1908, 0, 0, 2.02369, -54.5059, 2.03674, -173.972, 2.01312, 66.1169, 0.0410773, 30.3884
1, 780.00000, 127.673, -31.432, 126.854, -150.898, 128.343, 89.1908, 0, 0, 2.02369, -54.5059, 2.03674, -173.972, 2.01312, 66.1169, 0.0410776, 30.3885
1, 840.00000, 127.673, -31.432, 126.854, -150.898, 128.343, 89.1908, 0, 0, 2.02369, -54.5059, 2.03674, -173.972, 2.01312, 66.1169, 0.0410779, 30.3886
1, 900.00000, 127.673, -31.432, 126.854, -150.898, 128.343, 89.1908, 0, 0, 2.02369, -54.5059, 2.03674, -173.972, 2.01312, 66.1169, 0.0410782, 30.3887
1, 960.00000, 127.673, -31.432, 126.854, -150.898, 128.343, 89.1908, 0, 0, 2.02369, -54.5059, 2.03674, -173.972, 2.01312, 66.1169, 0.0410784, 30.3887
1, 1020.00000, 127.673, -31.432, 126.854, -150.898, 128.343, 89.1908, 0, 0, 2.02369, -54.5059, 2.03674, -173.972, 2.01312, 66.1169, 0.0410786, 30.3888
1, 1080.00000, 127.673, -31.432, 126.854, -150.898, 128.343, 89.1908, 0, 0, 2.02369, -54.5059, 2.03674, -173.972, 2.01312, 66.1169, 0.0410788, 30.3888
1, 1140.00000, 127.673, -31.432, 126.854, -150.898, 128.343, 89.1908, 0, 0, 2.02369, -54.5059, 2.03674, -173.972, 2.01312, 66.1169, 0.041079, 30.3889
1, 1200.00000, 127.673, -31.432, 126.854, -150.898, 128.343, 89.1908, 0, 0, 2.02369, -54.5059, 2.03674, -173.972, 2.01312, 66.1169, 0.0410791, 30.3889
1, 1260.00000, 127.673, -31.432, 126.854, -150.898, 128.343, 89.1908, 0, 0, 2.02369, -54.5059, 2.03674, -173.972, 2.01312, 66.1169, 0.0410793, 30.389
1, 1320.00000, 127.673, -31.432, 126.854, -150.898, 128.343, 89.1908, 0, 0, 2.02369, -54.5059, 2.03674, -173.972, 2.01312, 66.1169, 0.0410794, 30.389
1, 1380.00000, 127.673, -31.432, 126.854, -150.898, 128.343, 89.1908, 0, 0, 2.02369, -54.5059, 2.03674, -173.972, 2.01312, 66.1169, 0.0410795, 30.389
1, 1440.00000, 127.673, -31.432, 126.854, -150.898, 128.343, 89.1908, 0, 0, 2.02369, -54.5059, 2.03674, -173.972, 2.01312, 66.1169, 0.0410796, 30.389
1, 1500.00000, 127.673, -31.432, 126.854, -150.898, 128.343, 89.1908, 0, 0, 2.02369, -54.5059, 2.03674, -173.972, 2.01312, 66.1169, 0.0410797, 30.3891
1, 1560.00000, 127.673, -31.432, 126.854, -150.898, 128.343, 89.1908, 0, 0, 2.02369, -54.5059, 2.03674, -173.972, 2.01312, 66.1169, 0.0410798, 30.3891
1, 1620.00000, 127.673, -31.432, 126.854, -150.898, 128.343, 89.1908, 0, 0, 2.02369, -54.5059, 2.03674, -173.972, 2.01312, 66.1169, 0.0410799, 30.3891
1, 1680.00000, 127.673, -31.432, 126.854, -150.898, 128.343, 89.1908, 0, 0, 2.02369, -54.5059, 2.03674, -173.972, 2.01312, 66.1169, 0.04108, 30.3891
1, 1740.00000, 127.673, -31.432, 126.854, -150.898, 128.343, 89.1908, 0, 0, 2.02369, -54.5059, 2.03674, -173.972, 2.01312, 66.1169, 0.04108, 30.3891
1, 1800.00000, 127.673, -31.432, 126.854, -150.898, 128.343, 89.1908, 0, 0, 2.02369, -54.5059, 2.03674, -173.972, 2.01312, 66.1169, 0.0410801, 30.3892
1, 1860.00000, 127.673, -31.432, 126.854, -150.898, 128.343, 89.1908, 0, 0, 2.02369, -54.5059, 2.03674, -173.972, 2.01312, 66.1169, 0.0410801, 30.3892
1, 1920.00000, 127.673, -31.432, 126.854, -150.898, 128.343, 89.1908, 0, 0, 2.02369, -54.5059, 2.03674, -173.972, 2.01312, 66.1169, 0.0410802, 30.3892
1, 1980.00000, 127.673, -31.432, 126.854, -150.898, 128.343, 89.1908, 0, 0, 2.02369, -54.5059, 2.03674, -173.972, 2.01312, 66.1169, 0.0410802, 30.3892
1, 2040.00000, 128.086, -31.402, 126.861, -150.897, 128.514, 89.3564, 0, 0, 2.01715, -54.4759, 2.03664, -173.971, 2.01043, 66.2824, 0.0471074, 18.5384
1, 2100.00000, 128.086, -31.402, 126.861, -150.897, 128.514, 89.3564, 0, 0, 2.01715, -54.4759, 2.03664, -173.971, 2.01043, 66.2824, 0.0471075, 18.5385
1, 2160.00000, 128.086, -31.402, 126.861, -150.897, 128.514, 89.3564, 0, 0, 2.01715, -54.4759, 2.03664, -173.971, 2.01043, 66.2824, 0.0471075, 18.5386
1, 2220.00000, 128.086, -31.402, 126.861, -150.897, 128.514, 89.3564, 0, 0, 2.01715, -54.4759, 2.03664, -173.971, 2.01043, 66.2824, 0.0471075, 18.5386
1, 2280.00000, 128.086, -31.402, 126.861, -150.897, 128.514, 89.3564, 0, 0, 2.01715, -54.4759, 2.03664, -173.971, 2.01043, 66.2824, 0.0471075, 18.5386
1, 2340.00000, 128.086, -31.402, 126.861, -150.897, 128.514, 89.3564, 0, 0, 2.01715, -54.4759, 2.03664, -173.971, 2.01043, 66.2824, 0.0471076, 18.5386
1, 2400.00000, 128.086, -31.402, 126.861, -150.897, 128.514, 89.3564, 0, 0, 2.01715, -54.4759, 2.03664, -173.971, 2.01043, 66.2824, 0.0471076, 18.5386
1, 2460.00000, 128.086, -31.402, 126.861, -150.897, 128.514, 89.3564, 0, 0, 2.01715, -54.4759, 2.03664, -173.971, 2.01043, 66.2824, 0.0471076, 18.5386
1, 2520.00000, 128.084, -31.4071, 126.987, -150.727, 128.92, 89.3954, 0, 0, 2.01719, -54.481, 2.03461, -173.8, 2.00411, 66.3215, 0.0528517, 29.6729
1, 2580.00000, 128.084, -31.4071, 126.987, -150.727, 128.92, 89.3954, 0, 0, 2.01719, -54.481, 2.03461, -173.8, 2.00411, 66.3215, 0.0528518, 29.6734
1, 2640.00000, 128.084, -31.4071, 126.987, -150.727, 128.92, 89.3954, 0, 0, 2.01719, -54.481, 2.03461, -173.8, 2.00411, 66.3215, 0.0528518, 29.6734
1, 2700.00000, 128.084, -31.4071, 126.987, -150.727, 128.92, 89.3954, 0, 0, 2.01719, -54.481, 2.03461, -173.8, 2.00411, 66.3215, 0.0528518, 29.6734
1, 2760.00000, 128.082, -31.4121, 127.109, -150.561, 129.313, 89.4332, 0, 0, 2.01722, -54.486, 2.03267, -173.635, 1.99802, 66.3593, 0.059897, 38.1226
1, 2820.00000, 128.082, -31.4121, 127.109, -150.561, 129.313, 89.4332, 0, 0, 2.01722, -54.486, 2.03267, -173.635, 1.99802, 66.3593, 0.0598971, 38.123
1, 2880.00000, 128.082, -31.4121, 127.109, -150.561, 129.313, 89.4332, 0, 0, 2.01722, -54.486, 2.03267, -173.635, 1.99802, 66.3593, 0.0598971, 38.123
1, 2940.00000, 128.082, -31.4121, 127.109, -150.561, 129.313, 89.4332, 0, 0, 2.01722, -54.486, 2.03267, -173.635, 1.99802, 66.3593, 0.0598971, 38.123
1, 3000.00000, 128.082, -31.4121, 127.109, -150.561, 129.313, 89.4332, 0, 0, 2.01722, -54.486, 2.03267, -173.635, 1.99802, 66.3593, 0.0598971, 38.123
1, 3060.00000, 128.082, -31.4121, 127.109, -150.561, 129.313, 89.4332, 0, 0, 2.01722, -54.486, 2.03267, -173.635, 1.99802, 66.3593, 0.0598971, 38.123
1, 3120.00000, 128.082, -31.4121, 127.109, -150.561, 129.313, 89.4332, 0, 0, 2.01722, -54.486, 2.03267, -173.635, 1.99802, 66.3593, 0.0598971, 38.123
1, 3180.00000, 128.082, -31.4121, 127.109, -150.561, 129.313, 89.4332, 0, 0, 2.01722, -54.486, 2.03267, -173.635, 1.99802, 66.3593, 0.0598971, 38.123
1, 3240.00000, 128.082, -31.4121, 127.109, -150.561, 129.313, 89.4332, 0, 0, 2.01722, -54.486, 2.03267, -173.635, 1.99802, 66.3593, 0.0598971, 38.123
1, 3300.00000, 128.082, -31.4121, 127.109, -150.561, 129.313, 89.4332, 0, 0, 2.01722, -54.486, 2.03267, -173.635, 1.99802, 66.3593, 0.0598971, 38.123
1, 3360.00000, 128.082, -31.4121, 127.109, -150.561, 129.313, 89.4332, 0, 0, 2.01722, -54.486, 2.03267, -173.635, 1.99802, 66.3593, 0.0598971, 38.123
1, 3420.00000, 128.082, -31.4121, 127.109, -150.561, 129.313, 89.4332, 0, 0, 2.01722, -54.486, 2.03267, -173.635, 1.99802, 66.3593, 0.0598971, 38.123
1, 3480.00000, 128.082, -31.4121, 127.109, -150.561, 129.313, 89.4332, 0, 0, 2.01722, -54.486, 2.03267, -173.635, 1.99802, 66.3593, 0.0598971, 38.123
1, 3540.00000, 128.082, -31.4121, 127.109, -150.561, 129.313, 89.4332, 0, 0, 2.01722, -54.486, 2.03267, -173.635, 1.99802, 66.3593, 0.0598971, 38.123
2, 0.00000, 128.082, -31.4121, 127.109, -150.561, 129.313, 89.4332, 0, 0, 2.01722, -54.486, 2.03267, -173.635, 1.99802, 66.3593, 0.0598971, 38.123
2, 60.00000, 128.082, -31.4121, 127.109, -150.561, 129.313, 89.4332, 0, 0, 2.01722, -54.486, 2.03267, -173.635, 1.99802, 66.3593, 0.0598971, 38.123
2, 120.00000, 128.078, -31.4131, 127.105, -150.562, 129.309, 89.4322, 0, 0, 2.02287, -54.487, 2.03835, -173.636, 2.0036, 66.3582, 0.0600633, 38.1234
2, 180.00000, 128.074, -31.4142, 127.101, -150.563, 129.305, 89.4311, 0, 0, 2.02858, -54.4881, 2.0441, -173.637, 2.00926, 66.3572, 0.0602314, 38.1239
2, 240.00000, 128.07, -31.4152, 127.098, -150.564, 129.302, 89.43, 0, 0, 2.03422, -54.4892, 2.04978, -173.638, 2.01484, 66.3561, 0.0603976, 38.1243
2, 300.00000, 128.066, -31.4163, 127.094, -150.565, 129.298, 89.429, 0, 0, 2.03986, -54.4902, 2.05546, -173.639, 2.02043, 66.355, 0.0605637, 38.1248
2, 360.00000, 128.062, -31.4174, 127.09, -150.566, 129.294, 89.4279, 0, 0, 2.04557, -54.4913, 2.06122, -173.64, 2.02608, 66.354, 0.0607318, 38.1252
2, 420.00000, 128.058, -31.4184, 127.087, -150.568, 129.291, 89.4268, 0, 0, 2.05122, -54.4923, 2.0669, -173.642, 2.03167, 66.3529, 0.060898, 38.1256
2, 480.00000, 128.054, -31.4195, 127.083, -150.569, 129.287, 89.4258, 0, 0, 2.05686, -54.4934, 2.07258, -173.643, 2.03726, 66.3519, 0.0610641, 38.1261
2, 540.00000, 128.051, -31.4205, 127.079, -150.57, 129.283, 89.4247, 0, 0, 2.06258, -54.4944, 2.07834, -173.644, 2.04291, 66.3508, 0.0612323, 38.1265
2, 600.00000, 128.047, -31.4216, 127.076, -150.571, 129.279, 89.4236, 0, 0, 2.06822, -54.4955, 2.08402, -173.645, 2.0485, 66.3497, 0.0613984, 38.127
2, 660.00000, 128.043, -31.4226, 127.072, -150.572, 129.276, 89.4226, 0, 0, 2.07387, -54.4965, 2.08971, -173.646, 2.05409, 66.3487, 0.0615646, 38.1274
2, 720.00000, 128.039, -31.4237, 127.069, -150.573, 129.272, 89.4215, 0, 0, 2.07958, -54.4976, 2.09546, -173.647, 2.05974, 66.3476, 0.0617327, 38.1279
