hour,t(sec),V1,VAngle1,V2,VAngle2,V3,VAngle3,V4,VAngle4,I1,IAngle1,I2,IAngle2,I3,IAngle3,I4,IAngle4
0, 60.00000, 126.268, -30.6164, 126.523, -150.563, 126.461, 89.4442, 0, 0, 2.47486, -53.6898, 2.46988, -173.636, 2.47109, 66.3707, 0.00435934, 107.522
0, 120.00000, 126.268, -30.6164, 126.523, -150.563, 126.461, 89.4442, 0, 0, 2.4749, -53.6903, 2.4699, -173.637, 2.47113, 66.3703, 0.00436776, 107.515
0, 180.00000, 126.268, -30.6164, 126.523, -150.563, 126.461, 89.4442, 0, 0, 2.4749, -53.6903, 2.4699, -173.637, 2.47113, 66.3703, 0.00436779, 107.515
0, 240.00000, 126.268, -30.6164, 126.523, -150.563, 126.461, 89.4442, 0, 0, 2.4749, -53.6903, 2.4699, -173.637, 2.47113, 66.3703, 0.00436779, 107.515
0, 300.00000, 126.268, -30.6164, 126.523, -150.563, 126.461, 89.4442, 0, 0, 2.4749, -53.6903, 2.4699, -173.637, 2.47113, 66.3703, 0.00436779, 107.515
0, 360.00000, 126.268, -30.6164, 126.523, -150.563, 126.461, 89.4442, 0, 0, 2.4749, -53.6903, 2.4699, -173.637, 2.47113, 66.3703, 0.00436779, 107.515
0, 420.00000, 126.268, -30.6164, 126.523, -150.563, 126.461, 89.4442, 0, 0, 2.4749, -53.6903, 2.4699, -173.637, 2.47113, 66.3703, 0.00436779, 107.515
0, 480.00000, 126.268, -30.6164, 126.523, -150.563, 126.461, 89.4442, 0, 0, 2.4749, -53.6903, 2.4699, -173.637, 2.47113, 66.3703, 0.00436779, 107.515
0, 540.00000, 126.268, -30.6164, 126.523, -150.563, 126.461, 89.4442, 0, 0, 2.4749, -53.6903, 2.4699, -173.637, 2.47113, 66.3703, 0.00436779, 107.515
0, 600.00000, 126.268, -30.6164, 126.523, -150.563, 126.461, 89.4442, 0, 0, 2.4749, -53.6903, 2.4699, -173.637, 2.47113, 66.3703, 0.00436779, 107.515
0, 660.00000, 126.268, -30.6164, 126.523, -150.563, 126.461, 89.4442, 0, 0, 2.4749, -53.6903, 2.4699, -173.637, 2.47113, 66.3703, 0.00436779, 107.515
0, 720.00000, 126.268, -30.6164, 126.523, -150.563, 126.461, 89.4442, 0, 0, 2.4749, -53.6903, 2.4699, -173.637, 2.47113, 66.3703, 0.00436779, 107.515
0, 780.00000, 126.268, -30.6164, 126.523, -150.563, 126.461, 89.4442, 0, 0, 2.4749, -53.6903, 2.4699, -173.637, 2.47113, 66.3703, 0.00436779, 107.515
0, 840.00000, 126.268, -30.6164, 126.523, -150.563, 126.461, 89.4442, 0, 0, 2.4749, -53.6903, 2.4699, -173.637, 2.47113, 66.3703, 0.00436779, 107.515
0, 900.00000, 126.268, -30.6164, 126.523, -150.563, 126.461, 89.4442, 0, 0, 2.4749, -53.6903, 2.4699, -173.637, 2.47113, 66.3703, 0.00436779, 107.515
0, 960.00000, 126.268, -30.6164, 126.523, -150.563, 126.461, 89.4442, 0, 0, 2.4749, -53.6903, 2.4699, -173.637, 2.47113, 66.3703, 0.00436779, 107.515
0, 1020.00000, 126.268, -30.6164, 126.523, -150.563, 126.461, 89.4442, 0, 0, 2.4749, -53.6903, 2.4699, -173.637, 2.47113, 66.3703, 0.00436779, 107.515
0, 1080.00000, 126.268, -30.6164, 126.523, -150.563, 126.461, 89.4442, 0, 0, 2.4749, -53.6903, 2.4699, -173.637, 2.47113, 66.3703, 0.00436779, 107.515
0, 1140.00000, 126.268, -30.6164, 126.523, -150.563, 126.461, 89.4442, 0, 0, 2.4749, -53.6903, 2.4699, -173.637, 2.47113, 66.3703, 0.00436779, 107.515
0, 1200.00000, 126.268, -30.6164, 126.523, -150.563, 126.461, 89.4442, 0, 0, 2.4749, -53.6903, 2.4699, -173.637, 2.47113, 66.3703, 0.00436779, 107.515
0, 1260.00000, 126.268, -30.6164, 126.523, -150.563, 126.461, 89.4442, 0, 0, 2.4749, -53.6903, 2.4699, -173.637, 2.47113, 66.3703, 0.00436779, 107.515
0, 1320.00000, 126.268, -30.6164, 126.523, -150.563, 126.461, 89.4442, 0, 0, 2.4749, -53.6903, 2.4699, -173.637, 2.47113, 66.3703, 0.00436779, 107.515
0, 1380.00000, 126.268, -30.6164, 126.523, -150.563, 126.461, 89.4442, 0, 0, 2.4749, -53.6903, 2.4699, -173.637, 2.47113, 66.3703, 0.00436779, 107.515
0, 1440.00000, 126.268, -30.6164, 126.523, -150.563, 126.461, 89.4442, 0, 0, 2.4749, -53.6903, 2.4699, -173.637, 2.47113, 66.3703, 0.00436779, 107.515
0, 1500.00000, 126.268, -30.6164, 126.523, -150.563, 126.461, 89.4442, 0, 0, 2.4749, -53.6903, 2.4699, -173.637, 2.47113, 66.3703, 0.00436779, 107.515
0, 1560.00000, 126.268, -30.6164, 126.523, -150.563, 126.461, 89.4442, 0, 0, 2.4749, -53.6903, 2.4699, -173.637, 2.47113, 66.3703, 0.00436779, 107.515
0, 1620.00000, 126.268, -30.6164, 126.523, -150.563, 126.461, 89.4442, 0, 0, 2.4749, -53.6903, 2.4699, -173.637, 2.47113, 66.3703, 0.00436779, 107.515
0, 1680.00000, 126.268, -30.6164, 126.523, -150.563, 126.461, 89.4442, 0, 0, 2.4749, -53.6903, 2.4699, -173.637, 2.47113, 66.3703, 0.00436779, 107.515
0, 1740.00000, 126.268, -30.6164, 126.523, -150.563, 126.461, 89.4442, 0, 0, 2.4749, -53.6903, 2.4699, -173.637, 2.47113, 66.3703, 0.00436779, 107.515
0, 1800.00000, 125.86, -30.6624, 126.524, -150.563, 126.329, 89.2716, 0, 0, 2.48287, -53.7357, 2.46989, -173.637, 2.47366, 66.1982, 0.0174456, 134.736
0, 1860.00000, 125.86, -30.6624, 126.524, -150.563, 126.329, 89.2716, 0, 0, 2.48292, -53.7363, 2.46989, -173.637, 2.47369, 66.1977, 0.0175001, 134.754
0, 1920.00000, 125.86, -30.6624, 126.524, -150.563, 126.329, 89.2716, 0, 0, 2.48292, -53.7363, 2.46989, -173.637, 2.47369, 66.1977, 0.0175003, 134.754
0, 1980.00000, 125.86, -30.6624, 126.524, -150.563, 126.329, 89.2716, 0, 0, 2.48292, -53.7363, 2.46989, -173.637, 2.47369, 66.1977, 0.0175003, 134.754
0, 2040.00000, 125.86, -30.6624, 126.524, -150.563, 126.329, 89.2716, 0, 0, 2.48292, -53.7363, 2.46989, -173.637, 2.47369, 66.1977, 0.0175003, 134.754
0, 2100.00000, 125.86, -30.6624, 126.524, -150.563, 126.329, 89.2716, 0, 0, 2.48292, -53.7363, 2.46989, -173.637, 2.47369, 66.1977, 0.0175003, 134.754
0, 2160.00000, 125.86, -30.6624, 126.524, -150.563, 126.329, 89.2716, 0, 0, 2.48292, -53.7363, 2.46989, -173.637, 2.47369, 66.1977, 0.0175003, 134.754
0, 2220.00000, 125.86, -30.6624, 126.524, -150.563, 126.329, 89.2716, 0, 0, 2.48292, -53.7363, 2.46989, -173.637, 2.47369, 66.1977, 0.0175003, 134.754
0, 2280.00000, 125.86, -30.6624, 126.524, -150.563, 126.329, 89.2716, 0, 0, 2.48292, -53.7363, 2.46989, -173.637, 2.47369, 66.1977, 0.0175003, 134.754
0, 2340.00000, 125.86, -30.6624, 126.524, -150.563, 126.329, 89.2716, 0, 0, 2.48292, -53.7363, 2.46989, -173.637, 2.47369, 66.1977, 0.0175003, 134.754
0, 2400.00000, 125.86, -30.6624, 126.524, -150.563, 126.329, 89.2716, 0, 0, 2.48292, -53.7363, 2.46989, -173.637, 2.47369, 66.1977, 0.0175003, 134.754
0, 2460.00000, 125.86, -30.6624, 126.524, -150.563, 126.329, 89.2716, 0, 0, 2.48292, -53.7363, 2.46989, -173.637, 2.47369, 66.1977, 0.0175003, 134.754
0, 2520.00000, 125.86, -30.6624, 126.524, -150.563, 126.329, 89.2716, 0, 0, 2.48292, -53.7363, 2.46989, -173.637, 2.47369, 66.1977, 0.0175003, 134.754
0, 2580.00000, 125.86, -30.6624, 126.524, -150.563, 126.329, 89.2716, 0, 0, 2.48292, -53.7363, 2.46989, -173.637, 2.47369, 66.1977, 0.0175003, 134.754
0, 2640.00000, 125.86, -30.6624, 126.524, -150.563, 126.329, 89.2716, 0, 0, 2.48292, -53.7363, 2.46989, -173.637, 2.47369, 66.1977, 0.0175003, 134.754
0, 2700.00000, 125.86, -30.6624, 126.524, -150.563, 126.329, 89.2716, 0, 0, 2.48292, -53.7363, 2.46989, -173.637, 2.47369, 66.1977, 0.0175003, 134.754
0, 2760.00000, 125.86, -30.6624, 126.524, -150.563, 126.329, 89.2716, 0, 0, 2.48292, -53.7363, 2.46989, -173.637, 2.47369, 66.1977, 0.0175003, 134.754
0, 2820.00000, 125.86, -30.6624, 126.524, -150.563, 126.329, 89.2716, 0, 0, 2.48292, -53.7363, 2.46989, -173.637, 2.47369, 66.1977, 0.0175003, 134.754
0, 2880.00000, 125.86, -30.6624, 126.524, -150.563, 126.329, 89.2716, 0, 0, 2.48292, -53.7363, 2.46989, -173.637, 2.47369, 66.1977, 0.0175003, 134.754
0, 2940.00000, 125.86, -30.6624, 126.524, -150.563, 126.329, 89.2716, 0, 0, 2.48292, -53.7363, 2.46989, -173.637, 2.47369, 66.1977, 0.0175003, 134.754
0, 3000.00000, 125.86, -30.6624, 126.524, -150.563, 126.329, 89.2716, 0, 0, 2.48292, -53.7363, 2.46989, -173.637, 2.47369, 66.1977, 0.0175003, 134.754
0, 3060.00000, 125.86, -30.6624, 126.524, -150.563, 126.329, 89.2716, 0, 0, 2.48292, -53.7363, 2.46989, -173.637, 2.47369, 66.1977, 0.0175003, 134.754
0, 3120.00000, 125.86, -30.6624, 126.524, -150.563, 126.329, 89.2716, 0, 0, 2.48292, -53.7363, 2.46989, -173.637, 2.47369, 66.1977, 0.0175003, 134.754
0, 3180.00000, 125.86, -30.6624, 126.524, -150.563, 126.329, 89.2716, 0, 0, 2.48292, -53.7363, 2.46989, -173.637, 2.47369, 66.1977, 0.0175003, 134.754
0, 3240.00000, 125.86, -30.6624, 126.524, -150.563, 126.329, 89.2716, 0, 0, 2.48292, -53.7363, 2.46989, -173.637, 2.47369, 66.1977, 0.0175003, 134.754
0, 3300.00000, 125.86, -30.6624, 126.524, -150.563, 126.329, 89.2716, 0, 0, 2.48292, -53.7363, 2.46989, -173.637, 2.47369, 66.1977, 0.0175003, 134.754
0, 3360.00000, 125.86, -30.6624, 126.524, -150.563, 126.329, 89.2716, 0, 0, 2.48292, -53.7363, 2.46989, -173.637, 2.47369, 66.1977, 0.0175003, 134.754
0, 3420.00000, 125.86, -30.6624, 126.524, -150.563, 126.329, 89.2716, 0, 0, 2.48292, -53.7363, 2.46989, -173.637, 2.47369, 66.1977, 0.0175003, 134.754
0, 3480.00000, 125.86, -30.6624, 126.524, -150.563, 126.329, 89.2716, 0, 0, 2.48292, -53.7363, 2.46989, -173.637, 2.47369, 66.1977, 0.0175003, 134.754
0, 3540.00000, 125.86, -30.6624, 126.524, -150.563, 126.329, 89.2716, 0, 0, 2.48292, -53.7363, 2.46989, -173.637, 2.47369, 66.1977, 0.0175003, 134.754
1, 0.00000, 125.86, -30.6624, 126.524, -150.563, 126.329, 89.2716, 0, 0, 2.48292, -53.7363, 2.46989, -173.637, 2.47369, 66.1977, 0.0175003, 134.754
1, 60.00000, 125.86, -30.6624, 126.524, -150.563, 126.329, 89.2716, 0, 0, 2.48292, -53.7363, 2.46989, -173.637, 2.47369, 66.1977, 0.0175003, 134.754
1, 120.00000, 125.86, -30.6624, 126.524, -150.563, 126.329, 89.2716, 0, 0, 2.48292, -53.7363, 2.46989, -173.637, 2.47369, 66.1977, 0.0175003, 134.754
1, 180.00000, 125.86, -30.6624, 126.524, -150.563, 126.329, 89.2716, 0, 0, 2.48292, -53.7363, 2.46989, -173.637, 2.47369, 66.1977, 0.0175003, 134.754
1, 240.00000, 125.86, -30.6624, 126.524, -150.563, 126.329, 89.2716, 0, 0, 2.48292, -53.7363, 2.46989, -173.637, 2.47369, 66.1977, 0.0175003, 134.754
1, 300.00000, 125.86, -30.6624, 126.524, -150.563, 126.329, 89.2716, 0, 0, 2.48292, -53.7363, 2.46989, -173.637, 2.47369, 66.1977, 0.0175003, 134.754
1, 360.00000, 125.86, -30.6624, 126.524, -150.563, 126.329, 89.2716, 0, 0, 2.48292, -53.7363, 2.46989, -173.637, 2.47369, 66.1977, 0.0175003, 134.754
1, 420.00000, 125.86, -30.6624, 126.524, -150.563, 126.329, 89.2716, 0, 0, 2.48292, -53.7363, 2.46989, -173.637, 2.47369, 66.1977, 0.0175003, 134.754
1, 480.00000, 125.86, -30.6624, 126.524, -150.563, 126.329, 89.2716, 0, 0, 2.48292, -53.7363, 2.46989, -173.637, 2.47369, 66.1977, 0.0175003, 134.754
1, 540.00000, 125.86, -30.6624, 126.524, -150.563, 126.329, 89.2716, 0, 0, 2.48292, -53.7363, 2.46989, -173.637, 2.47369, 66.1977, 0.0175003, 134.754
1, 600.00000, 125.86, -30.6624, 126.524, -150.563, 126.329, 89.2716, 0, 0, 2.48292, -53.7363, 2.46989, -173.637, 2.47369, 66.1977, 0.0175003, 134.754
1, 660.00000, 125.86, -30.6624, 126.524, -150.563, 126.329, 89.2716, 0, 0, 2.48292, -53.7363, 2.46989, -173.637, 2.47369, 66.1977, 0.0175003, 134.754
1, 720.00000, 125.86, -30.6624, 126.524, -150.563, 126.329, 89.2716, 0, 0, 2.48292, -53.7363, 2.46989, -173.637, 2.47369, 66.1977, 0.0175003, 134.754
1, 780.00000, 125.86, -30.6624, 126.524, -150.563, 126.329, 89.2716, 0, 0, 2.48292, -53.7363, 2.46989, -173.637, 2.47369, 66.1977, 0.0175003, 134.754
1, 840.00000, 125.86, -30.6624, 126.524, -150.563, 126.329, 89.2716, 0, 0, 2.48292, -53.7363, 2.46989, -173.637, 2.47369, 66.1977, 0.0175003, 134.754
1, 900.00000, 125.86, -30.6624, 126.524, -150.563, 126.329, 89.2716, 0, 0, 2.48292, -53.7363, 2.46989, -173.637, 2.47369, 66.1977, 0.0175003, 134.754
1, 960.00000, 125.86, -30.6624, 126.524, -150.563, 126.329, 89.2716, 0, 0, 2.48292, -53.7363, 2.46989, -173.637, 2.47369, 66.1977, 0.0175003, 134.754
1, 1020.00000, 125.86, -30.6624, 126.524, -150.563, 126.329, 89.2716, 0, 0, 2.48292, -53.7363, 2.46989, -173.637, 2.47369, 66.1977, 0.0175003, 134.754
1, 1080.00000, 125.86, -30.6624, 126.524, -150.563, 126.329, 89.2716, 0, 0, 2.48292, -53.7363, 2.46989, -173.637, 2.47369, 66.1977, 0.0175003, 134.754
1, 1140.00000, 125.86, -30.6624, 126.524, -150.563, 126.329, 89.2716, 0, 0, 2.48292, -53.7363, 2.46989, -173.637, 2.47369, 66.1977, 0.0175003, 134.754
1, 1200.00000, 125.86, -30.6624, 126.524, -150.563, 126.329, 89.2716, 0, 0, 2.48292, -53.7363, 2.46989, -173.637, 2.47369, 66.1977, 0.0175003, 134.754
1, 1260.00000, 125.86, -30.6624, 126.524, -150.563, 126.329, 89.2716, 0, 0, 2.48292, -53.7363, 2.46989, -173.637, 2.47369, 66.1977, 0.0175003, 134.754
1, 1320.00000, 125.86, -30.6624, 126.524, -150.563, 126.329, 89.2716, 0, 0, 2.48292, -53.7363, 2.46989, -173.637, 2.47369, 66.1977, 0.0175003, 134.754
1, 1380.00000, 125.86, -30.6624, 126.524, -150.563, 126.329, 89.2716, 0, 0, 2.48292, -53.7363, 2.46989, -173.637, 2.47369, 66.1977, 0.0175003, 134.754
1, 1440.00000, 125.86, -30.6624, 126.524, -150.563, 126.329, 89.2716, 0, 0, 2.48292, -53.7363, 2.46989, -173.637, 2.47369, 66.1977, 0.0175003, 134.754
1, 1500.00000, 125.86, -30.6624, 126.524, -150.563, 126.329, 89.2716, 0, 0, 2.48292, -53.7363, 2.46989, -173.637, 2.47369, 66.1977, 0.0175003, 134.754
1, 1560.00000, 125.86, -30.6624, 126.524, -150.563, 126.329, 89.2716, 0, 0, 2.48292, -53.7363, 2.46989, -173.637, 2.47369, 66.1977, 0.0175003, 134.754
1, 1620.00000, 125.86, -30.6624, 126.524, -150.563, 126.329, 89.2716, 0, 0, 2.48292, -53.7363, 2.46989, -173.637, 2.47369, 66.1977, 0.0175003, 134.754
1, 1680.00000, 125.86, -30.6624, 126.524, -150.563, 126.329, 89.2716, 0, 0, 2.48292, -53.7363, 2.46989, -173.637, 2.47369, 66.1977, 0.0175003, 134.754
1, 1740.00000, 125.86, -30.6624, 126.524, -150.563, 126.329, 89.2716, 0, 0, 2.48292, -53.7363, 2.46989, -173.637, 2.47369, 66.1977, 0.0175003, 134.754
1, 1800.00000, 125.86, -30.6624, 126.524, -150.563, 126.329, 89.2716, 0, 0, 2.48292, -53.7363, 2.46989, -173.637, 2.47369, 66.1977, 0.0175003, 134.754
1, 1860.00000, 125.86, -30.6624, 126.524, -150.563, 126.329, 89.2716, 0, 0, 2.48292, -53.7363, 2.46989, -173.637, 2.47369, 66.1977, 0.0175003, 134.754
1, 1920.00000, 125.86, -30.6624, 126.524, -150.563, 126.329, 89.2716, 0, 0, 2.48292, -53.7363, 2.46989, -173.637, 2.47369, 66.1977, 0.0175003, 134.754
1, 1980.00000, 125.86, -30.6624, 126.524, -150.563, 126.329, 89.2716, 0, 0, 2.48292, -53.7363, 2.46989, -173.637, 2.47369, 66.1977, 0.0175003, 134.754
1, 2040.00000, 125.86, -30.6624, 126.524, -150.563, 126.329, 89.2716, 0, 0, 2.48292, -53.7363, 2.46989, -173.637, 2.47369, 66.1977, 0.0175003, 134.754
1, 2100.00000, 125.86, -30.6624, 126.524, -150.563, 126.329, 89.2716, 0, 0, 2.48292, -53.7363, 2.46989, -173.637, 2.47369, 66.1977, 0.0175003, 134.754
1, 2160.00000, 125.86, -30.6624, 126.524, -150.563, 126.329, 89.2716, 0, 0, 2.48292, -53.7363, 2.46989, -173.637, 2.47369, 66.1977, 0.0175003, 134.754
1, 2220.00000, 125.86, -30.6624, 126.524, -150.563, 126.329, 89.2716, 0, 0, 2.48292, -53.7363, 2.46989, -173.637, 2.47369, 66.1977, 0.0175003, 134.754
1, 2280.00000, 125.86, -30.6624, 126.524, -150.563, 126.329, 89.2716, 0, 0, 2.48292, -53.7363, 2.46989, -173.637, 2.47369, 66.1977, 0.0175003, 134.754
1, 2340.00000, 125.86, -30.6624, 126.524, -150.563, 126.329, 89.2716, 0, 0, 2.48292, -53.7363, 2.46989, -173.637, 2.47369, 66.1977, 0.0175003, 134.754
1, 2400.00000, 125.86, -30.6624, 126.524, -150.563, 126.329, 89.2716, 0, 0, 2.48292, -53.7363, 2.46989, -173.637, 2.47369, 66.1977, 0.0175003, 134.754
1, 2460.00000, 125.86, -30.6624, 126.524, -150.563, 126.329, 89.2716, 0, 0, 2.48292, -53.7363, 2.46989, -173.637, 2.47369, 66.1977, 0.0175003, 134.754
1, 2520.00000, 125.86, -30.6624, 126.524, -150.563, 126.329, 89.2716, 0, 0, 2.48292, -53.7363, 2.46989, -173.637, 2.47369, 66.1977, 0.0175003, 134.754
1, 2580.00000, 125.86, -30.6624, 126.524, -150.563, 126.329, 89.2716, 0, 0, 2.48292, -53.7363, 2.46989, -173.637, 2.47369, 66.1977, 0.0175003, 134.754
1, 2640.00000, 125.86, -30.6624, 126.524, -150.563, 126.329, 89.2716, 0, 0, 2.48292, -53.7363, 2.46989, -173.637, 2.47369, 66.1977, 0.0175003, 134.754
1, 2700.00000, 125.86, -30.6624, 126.524, -150.563, 126.329, 89.2716, 0, 0, 2.48292, -53.7363, 2.46989, -173.637, 2.47369, 66.1977, 0.0175003, 134.754
1, 2760.00000, 125.86, -30.6624, 126.524, -150.563, 126.329, 89.2716, 0, 0, 2.48292, -53.7363, 2.46989, -173.637, 2.47369, 66.1977, 0.0175003, 134.754
1, 2820.00000, 125.86, -30.6624, 126.524, -150.563, 126.329, 89.2716, 0, 0, 2.48292, -53.7363, 2.46989, -173.637, 2.47369, 66.1977, 0.0175003, 134.754
1, 2880.00000, 125.86, -30.6624, 126.524, -150.563, 126.329, 89.2716, 0, 0, 2.48292, -53.7363, 2.46989, -173.637, 2.47369, 66.1977, 0.0175003, 134.754
1, 2940.00000, 125.86, -30.6624, 126.524, -150.563, 126.329, 89.2716, 0, 0, 2.48292, -53.7363, 2.46989, -173.637, 2.47369, 66.1977, 0.0175003, 134.754
1, 3000.00000, 125.86, -30.6624, 126.524, -150.563, 126.329, 89.2716, 0, 0, 2.48292, -53.7363, 2.46989, -173.637, 2.47369, 66.1977, 0.0175003, 134.754
1, 3060.00000, 125.86, -30.6624, 126.524, -150.563, 126.329, 89.2716, 0, 0, 2.48292, -53.7363, 2.46989, -173.637, 2.47369, 66.1977, 0.0175003, 134.754
1, 3120.00000, 125.86, -30.6624, 126.524, -150.563, 126.329, 89.2716, 0, 0, 2.48292, -53.7363, 2.46989, -173.637, 2.47369, 66.1977, 0.0175003, 134.754
1, 3180.00000, 125.86, -30.6624, 126.524, -150.563, 126.329, 89.2716, 0, 0, 2.48292, -53.7363, 2.46989, -173.637, 2.47369, 66.1977, 0.0175003, 134.754
1, 3240.00000, 125.86, -30.6624, 126.524, -150.563, 126.329, 89.2716, 0, 0, 2.48292, -53.7363, 2.46989, -173.637, 2.47369, 66.1977, 0.0175003, 134.754
1, 3300.00000, 125.86, -30.6624, 126.524, -150.563, 126.329, 89.2716, 0, 0, 2.48292, -53.7363, 2.46989, -173.637, 2.47369, 66.1977, 0.0175003, 134.754
1, 3360.00000, 125.86, -30.6624, 126.524, -150.563, 126.329, 89.2716, 0, 0, 2.48292, -53.7363, 2.46989, -173.637, 2.47369, 66.1977, 0.0175003, 134.754
1, 3420.00000, 125.86, -30.6624, 126.524, -150.563, 126.329, 89.2716, 0, 0, 2.48292, -53.7363, 2.46989, -173.637, 2.47369, 66.1977, 0.0175003, 134.754
1, 3480.00000, 125.86, -30.6624, 126.524, -150.563, 126.329, 89.2716, 0, 0, 2.48292, -53.7363, 2.46989, -173.637, 2.47369, 66.1977, 0.0175003, 134.754
1, 3540.00000, 125.86, -30.6624, 126.524, -150.563, 126.329, 89.2716, 0, 0, 2.48292, -53.7363, 2.46989, -173.637, 2.47369, 66.1977, 0.0175003, 134.754
2, 0.00000, 125.86, -30.6624, 126.524, -150.563, 126.329, 89.2716, 0, 0, 2.48292, -53.7363, 2.46989, -173.637, 2.47369, 66.1977, 0.0175003, 134.754
2, 60.00000, 125.86, -30.6624, 126.524, -150.563, 126.329, 89.2716, 0, 0, 2.48292, -53.7363, 2.46989, -173.637, 2.47369, 66.1977, 0.0175003, 134.754
2, 120.00000, 125.855, -30.6636, 126.519, -150.564, 126.325, 89.2705, 0, 0, 2.48989, -53.7375, 2.47681, -173.638, 2.48063, 66.1966, 0.0175576, 134.747
2, 180.00000, 125.849, -30.6648, 126.515, -150.565, 126.32, 89.2693, 0, 0, 2.49694, -53.7387, 2.48381, -173.639, 2.48765, 66.1954, 0.0176171, 134.739
2, 240.00000, 125.844, -30.6661, 126.51, -150.567, 126.315, 89.2682, 0, 0, 2.50392, -53.7399, 2.49074, -173.64, 2.49459, 66.1943, 0.0176761, 134.732
2, 300.00000, 125.839, -30.6673, 126.506, -150.568, 126.31, 89.2671, 0, 0, 2.51089, -53.7411, 2.49766, -173.642, 2.50153, 66.1932, 0.0177351, 134.725
2, 360.00000, 125.834, -30.6685, 126.501, -150.569, 126.305, 89.2659, 0, 0, 2.51795, -53.7424, 2.50467, -173.643, 2.50855, 66.1921, 0.0177948, 134.718
2, 420.00000, 125.829, -30.6697, 126.496, -150.57, 126.3, 89.2648, 0, 0, 2.52492, -53.7436, 2.5116, -173.644, 2.51549, 66.1909, 0.0178539, 134.711
2, 480.00000, 125.824, -30.6709, 126.492, -150.571, 126.296, 89.2637, 0, 0, 2.5319, -53.7448, 2.51852, -173.645, 2.52243, 66.1898, 0.0179131, 134.704
2, 540.00000, 125.818, -30.6722, 126.487, -150.572, 126.291, 89.2625, 0, 0, 2.53896, -53.746, 2.52553, -173.646, 2.52946, 66.1887, 0.017973, 134.697
2, 600.00000, 125.813, -30.6734, 126.483, -150.573, 126.286, 89.2614, 0, 0, 2.54593, -53.7472, 2.53246, -173.647, 2.5364, 66.1875, 0.0180323, 134.69
2, 660.00000, 125.808, -30.6746, 126.478, -150.574, 126.281, 89.2603, 0, 0, 2.55291, -53.7485, 2.53939, -173.648, 2.54334, 66.1864, 0.0180917, 134.683
2, 720.00000, 125.803, -30.6758, 126.473, -150.576, 126.276, 89.2591, 0, 0, 2.55997, -53.7497, 2.5464, -173.649, 2.55037, 66.1853, 0.0181518, 134.675
