hour,t(sec),V1,VAngle1,V2,VAngle2,V3,VAngle3,V4,VAngle4,I1,IAngle1,I2,IAngle2,I3,IAngle3,I4,IAngle4
0, 60.00000, 126.952, -31.4062, 126.929, -150.551, 128.627, 89.1101, 0, 0, 1.85794, -54.4797, 1.85828, -173.625, 1.83377, 66.0362, 0.0484041, 62.2461
0, 120.00000, 126.961, -31.4145, 126.929, -150.551, 128.648, 89.1095, 0, 0, 1.85781, -54.488, 1.85828, -173.625, 1.83347, 66.0357, 0.0488937, 62.0082
0, 180.00000, 126.969, -31.422, 126.929, -150.551, 128.668, 89.1091, 0, 0, 1.85769, -54.4956, 1.85828, -173.625, 1.83319, 66.0352, 0.0493354, 61.7986
0, 240.00000, 126.977, -31.4287, 126.929, -150.551, 128.685, 89.1086, 0, 0, 1.85758, -54.5023, 1.85828, -173.625, 1.83294, 66.0348, 0.0497338, 61.6136
0, 300.00000, 126.983, -31.4348, 126.929, -150.551, 128.701, 89.1082, 0, 0, 1.85748, -54.5084, 1.85828, -173.624, 1.83271, 66.0344, 0.050093, 61.4499
0, 360.00000, 126.989, -31.4403, 126.929, -150.551, 128.715, 89.1078, 0, 0, 1.8574, -54.5139, 1.85828, -173.624, 1.83251, 66.034, 0.0504168, 61.3049
0, 420.00000, 126.995, -31.4452, 126.929, -150.551, 128.728, 89.1075, 0, 0, 1.85732, -54.5189, 1.85828, -173.624, 1.83233, 66.0337, 0.0507087, 61.1762
0, 480.00000, 126.999, -31.4496, 126.929, -150.551, 128.739, 89.1072, 0, 0, 1.85725, -54.5234, 1.85828, -173.624, 1.83217, 66.0333, 0.0509717, 61.0619
0, 540.00000, 127.004, -31.4536, 126.929, -150.551, 128.749, 89.1069, 0, 0, 1.85719, -54.5274, 1.85829, -173.624, 1.83202, 66.0331, 0.0512088, 60.9601
0, 600.00000, 127.007, -31.4572, 126.929, -150.551, 128.759, 89.1067, 0, 0, 1.85713, -54.531, 1.85829, -173.624, 1.83189, 66.0328, 0.0514223, 60.8694
0, 660.00000, 127.011, -31.4605, 126.929, -150.551, 128.767, 89.1064, 0, 0, 1.85708, -54.5342, 1.85829, -173.624, 1.83177, 66.0326, 0.0516146, 60.7886
0, 720.00000, 127.014, -31.4634, 126.929, -150.551, 128.774, 89.1062, 0, 0, 1.85703, -54.5372, 1.85829, -173.624, 1.83166, 66.0324, 0.0517879, 60.7164
0, 780.00000, 127.017, -31.466, 126.929, -150.551, 128.781, 89.106, 0, 0, 1.85699, -54.5398, 1.85829, -173.624, 1.83156, 66.0322, 0.0519439, 60.652
0, 840.00000, 127.019, -31.4684, 126.929, -150.551, 128.787, 89.1059, 0, 0, 1.85696, -54.5422, 1.85829, -173.624, 1.83147, 66.032, 0.0520845, 60.5943
0, 900.00000, 127.022, -31.4705, 126.929, -150.551, 128.793, 89.1057, 0, 0, 1.85692, -54.5443, 1.85829, -173.624, 1.8314, 66.0318, 0.052211, 60.5428
0, 960.00000, 126.593, -31.5006, 126.928, -150.551, 128.618, 88.9331, 0, 0, 1.8632, -54.5744, 1.85829, -173.625, 1.83388, 65.8592, 0.0537962, 71.8195
0, 1020.00000, 126.595, -31.5023, 126.928, -150.551, 128.622, 88.933, 0, 0, 1.86318, -54.5761, 1.85829, -173.625, 1.83382, 65.8591, 0.0538872, 71.7585
0, 1080.00000, 126.597, -31.5038, 126.928, -150.551, 128.626, 88.9329, 0, 0, 1.86315, -54.5777, 1.85829, -173.625, 1.83377, 65.859, 0.0539692, 71.7037
0, 1140.00000, 126.598, -31.5052, 126.928, -150.551, 128.63, 88.9329, 0, 0, 1.86313, -54.579, 1.85829, -173.625, 1.83371, 65.8589, 0.0540431, 71.6545
0, 1200.00000, 126.6, -31.5064, 126.928, -150.551, 128.633, 88.9328, 0, 0, 1.86311, -54.5803, 1.85829, -173.625, 1.83367, 65.8589, 0.0541097, 71.6103
0, 1260.00000, 126.601, -31.5075, 126.928, -150.551, 128.636, 88.9327, 0, 0, 1.86309, -54.5814, 1.85829, -173.625, 1.83363, 65.8588, 0.0541696, 71.5706
0, 1320.00000, 126.602, -31.5085, 126.928, -150.551, 128.638, 88.9326, 0, 0, 1.86308, -54.5824, 1.85829, -173.625, 1.83359, 65.8587, 0.0542236, 71.535
0, 1380.00000, 126.603, -31.5094, 126.928, -150.551, 128.641, 88.9326, 0, 0, 1.86306, -54.5833, 1.85829, -173.625, 1.83356, 65.8587, 0.0542722, 71.503
0, 1440.00000, 126.604, -31.5102, 126.928, -150.551, 128.643, 88.9325, 0, 0, 1.86305, -54.5841, 1.85829, -173.625, 1.83353, 65.8586, 0.054316, 71.4743
0, 1500.00000, 126.605, -31.511, 126.928, -150.551, 128.644, 88.9325, 0, 0, 1.86304, -54.5848, 1.8583, -173.625, 1.8335, 65.8586, 0.0543554, 71.4485
0, 1560.00000, 126.605, -31.5116, 126.928, -150.551, 128.646, 88.9324, 0, 0, 1.86303, -54.5855, 1.8583, -173.625, 1.83348, 65.8585, 0.0543908, 71.4253
0, 1620.00000, 126.606, -31.5122, 126.928, -150.551, 128.648, 88.9324, 0, 0, 1.86302, -54.5861, 1.8583, -173.625, 1.83346, 65.8585, 0.0544228, 71.4045
0, 1680.00000, 126.607, -31.5127, 126.928, -150.551, 128.649, 88.9324, 0, 0, 1.86301, -54.5866, 1.8583, -173.625, 1.83344, 65.8585, 0.0544515, 71.3857
0, 1740.00000, 126.607, -31.5132, 126.928, -150.551, 128.65, 88.9324, 0, 0, 1.863, -54.5871, 1.8583, -173.625, 1.83342, 65.8584, 0.0544774, 71.3689
0, 1800.00000, 126.608, -31.5136, 126.928, -150.551, 128.651, 88.9323, 0, 0, 1.863, -54.5875, 1.8583, -173.625, 1.8334, 65.8584, 0.0545007, 71.3537
0, 1860.00000, 126.608, -31.514, 126.928, -150.551, 128.652, 88.9323, 0, 0, 1.86299, -54.5879, 1.8583, -173.625, 1.83339, 65.8584, 0.0545217, 71.3401
0, 1920.00000, 126.608, -31.5144, 126.928, -150.551, 128.653, 88.9323, 0, 0, 1.86299, -54.5883, 1.8583, -173.625, 1.83338, 65.8584, 0.0545406, 71.3279
0, 1980.00000, 126.609, -31.5147, 126.928, -150.551, 128.654, 88.9323, 0, 0, 1.86298, -54.5886, 1.8583, -173.625, 1.83336, 65.8583, 0.0545576, 71.3168
0, 2040.00000, 126.609, -31.515, 126.928, -150.551, 128.655, 88.9322, 0, 0, 1.86298, -54.5889, 1.8583, -173.625, 1.83335, 65.8583, 0.0545729, 71.3069
0, 2100.00000, 126.609, -31.5152, 126.928, -150.551, 128.655, 88.9322, 0, 0, 1.86297, -54.5891, 1.8583, -173.625, 1.83334, 65.8583, 0.0545866, 71.298
0, 2160.00000, 126.609, -31.5155, 126.928, -150.551, 128.656, 88.9322, 0, 0, 1.86297, -54.5894, 1.8583, -173.625, 1.83334, 65.8583, 0.054599, 71.29
0, 2220.00000, 126.61, -31.5157, 126.928, -150.551, 128.657, 88.9322, 0, 0, 1.86297, -54.5896, 1.8583, -173.625, 1.83333, 65.8583, 0.0546102, 71.2828
0, 2280.00000, 126.61, -31.5158, 126.928, -150.551, 128.657, 88.9322, 0, 0, 1.86296, -54.5898, 1.8583, -173.625, 1.83332, 65.8583, 0.0546202, 71.2763
0, 2340.00000, 126.61, -31.516, 126.928, -150.551, 128.657, 88.9322, 0, 0, 1.86296, -54.5899, 1.8583, -173.625, 1.83331, 65.8583, 0.0546293, 71.2705
0, 2400.00000, 126.61, -31.5162, 126.928, -150.551, 128.658, 88.9322, 0, 0, 1.86296, -54.5901, 1.8583, -173.625, 1.83331, 65.8582, 0.0546374, 71.2652
0, 2460.00000, 126.61, -31.5163, 126.928, -150.551, 128.658, 88.9322, 0, 0, 1.86296, -54.5902, 1.8583, -173.625, 1.8333, 65.8582, 0.0546447, 71.2605
0, 2520.00000, 126.611, -31.5164, 126.928, -150.551, 128.658, 88.9321, 0, 0, 1.86295, -54.5903, 1.8583, -173.625, 1.8333, 65.8582, 0.0546513, 71.2563
0, 2580.00000, 126.611, -31.5165, 126.928, -150.551, 128.659, 88.9321, 0, 0, 1.86295, -54.5904, 1.8583, -173.625, 1.8333, 65.8582, 0.0546573, 71.2524
0, 2640.00000, 126.611, -31.5166, 126.928, -150.551, 128.659, 88.9321, 0, 0, 1.86295, -54.5905, 1.8583, -173.625, 1.83329, 65.8582, 0.0546626, 71.249
0, 2700.00000, 126.611, -31.5167, 126.928, -150.551, 128.659, 88.9321, 0, 0, 1.86295, -54.5906, 1.8583, -173.625, 1.83329, 65.8582, 0.0546674, 71.2459
0, 2760.00000, 126.611, -31.5168, 126.928, -150.551, 128.659, 88.9321, 0, 0, 1.86295, -54.5907, 1.8583, -173.625, 1.83329, 65.8582, 0.0546717, 71.2431
0, 2820.00000, 126.611, -31.5169, 126.928, -150.551, 128.66, 88.9321, 0, 0, 1.86295, -54.5908, 1.8583, -173.625, 1.83328, 65.8582, 0.0546756, 71.2406
0, 2880.00000, 126.611, -31.5169, 126.928, -150.551, 128.66, 88.9321, 0, 0, 1.86295, -54.5908, 1.8583, -173.625, 1.83328, 65.8582, 0.0546791, 71.2383
0, 2940.00000, 126.611, -31.517, 126.928, -150.551, 128.66, 88.9321, 0, 0, 1.86294, -54.5909, 1.8583, -173.625, 1.83328, 65.8582, 0.0546823, 71.2363
0, 3000.00000, 126.611, -31.517, 126.928, -150.551, 128.66, 88.9321, 0, 0, 1.86294, -54.591, 1.8583, -173.625, 1.83328, 65.8582, 0.0546851, 71.2345
0, 3060.00000, 126.611, -31.5171, 126.928, -150.551, 128.66, 88.9321, 0, 0, 1.86294, -54.591, 1.8583, -173.625, 1.83328, 65.8582, 0.0546877, 71.2328
0, 3120.00000, 126.611, -31.5171, 126.928, -150.551, 128.66, 88.9321, 0, 0, 1.86294, -54.591, 1.8583, -173.625, 1.83327, 65.8582, 0.05469, 71.2314
0, 3180.00000, 126.611, -31.5172, 126.928, -150.551, 128.66, 88.9321, 0, 0, 1.86294, -54.5911, 1.8583, -173.625, 1.83327, 65.8582, 0.054692, 71.23
0, 3240.00000, 126.611, -31.5172, 126.928, -150.551, 128.661, 88.9321, 0, 0, 1.86294, -54.5911, 1.8583, -173.625, 1.83327, 65.8582, 0.0546939, 71.2288
0, 3300.00000, 126.611, -31.5172, 126.928, -150.551, 128.661, 88.9321, 0, 0, 1.86294, -54.5912, 1.8583, -173.625, 1.83327, 65.8582, 0.0546956, 71.2278
0, 3360.00000, 126.611, -31.5173, 126.928, -150.551, 128.661, 88.9321, 0, 0, 1.86294, -54.5912, 1.8583, -173.625, 1.83327, 65.8582, 0.0546971, 71.2268
0, 3420.00000, 126.611, -31.5173, 126.928, -150.551, 128.661, 88.9321, 0, 0, 1.86294, -54.5912, 1.8583, -173.625, 1.83327, 65.8582, 0.0546984, 71.2259
0, 3480.00000, 126.611, -31.5173, 126.928, -150.551, 128.661, 88.9321, 0, 0, 1.86294, -54.5912, 1.8583, -173.625, 1.83327, 65.8582, 0.0546997, 71.2251
0, 3540.00000, 126.611, -31.5173, 126.928, -150.551, 128.661, 88.9321, 0, 0, 1.86294, -54.5912, 1.8583, -173.625, 1.83327, 65.8582, 0.0547008, 71.2244
1, 0.00000, 126.612, -31.5173, 126.928, -150.551, 128.661, 88.9321, 0, 0, 1.86294, -54.5913, 1.8583, -173.625, 1.83327, 65.8582, 0.0547017, 71.2238
1, 60.00000, 126.612, -31.5174, 126.928, -150.551, 128.661, 88.9321, 0, 0, 1.86294, -54.5913, 1.8583, -173.625, 1.83327, 65.8582, 0.0547026, 71.2232
1, 120.00000, 126.612, -31.5174, 126.928, -150.551, 128.661, 88.9321, 0, 0, 1.86294, -54.5913, 1.8583, -173.625, 1.83326, 65.8582, 0.0547034, 71.2227
1, 180.00000, 126.612, -31.5174, 126.928, -150.551, 128.661, 88.9321, 0, 0, 1.86294, -54.5913, 1.8583, -173.625, 1.83326, 65.8582, 0.0547042, 71.2222
1, 240.00000, 126.612, -31.5174, 126.928, -150.551, 128.661, 88.9321, 0, 0, 1.86294, -54.5913, 1.8583, -173.625, 1.83326, 65.8582, 0.0547048, 71.2218
1, 300.00000, 126.612, -31.5174, 126.928, -150.551, 128.661, 88.9321, 0, 0, 1.86294, -54.5913, 1.8583, -173.625, 1.83326, 65.8582, 0.0547054, 71.2214
1, 360.00000, 126.612, -31.5174, 126.928, -150.551, 128.661, 88.9321, 0, 0, 1.86294, -54.5913, 1.8583, -173.625, 1.83326, 65.8582, 0.0547059, 71.2211
1, 420.00000, 126.612, -31.5174, 126.928, -150.551, 128.661, 88.9321, 0, 0, 1.86294, -54.5914, 1.8583, -173.625, 1.83326, 65.8582, 0.0547064, 71.2208
1, 480.00000, 126.612, -31.5174, 126.928, -150.551, 128.661, 88.9321, 0, 0, 1.86294, -54.5914, 1.8583, -173.625, 1.83326, 65.8582, 0.0547068, 71.2205
1, 540.00000, 126.612, -31.5174, 126.928, -150.551, 128.661, 88.9321, 0, 0, 1.86294, -54.5914, 1.8583, -173.625, 1.83326, 65.8582, 0.0547072, 71.2203
1, 600.00000, 126.612, -31.5175, 126.928, -150.551, 128.661, 88.9321, 0, 0, 1.86294, -54.5914, 1.8583, -173.625, 1.83326, 65.8582, 0.0547075, 71.2201
1, 660.00000, 126.612, -31.5175, 126.928, -150.551, 128.661, 88.9321, 0, 0, 1.86294, -54.5914, 1.8583, -173.625, 1.83326, 65.8582, 0.0547079, 71.2199
1, 720.00000, 126.612, -31.5175, 126.928, -150.551, 128.661, 88.9321, 0, 0, 1.86294, -54.5914, 1.8583, -173.625, 1.83326, 65.8582, 0.0547081, 71.2197
1, 780.00000, 126.612, -31.5175, 126.928, -150.551, 128.661, 88.9321, 0, 0, 1.86294, -54.5914, 1.8583, -173.625, 1.83326, 65.8582, 0.0547084, 71.2195
1, 840.00000, 126.612, -31.5175, 126.928, -150.551, 128.661, 88.9321, 0, 0, 1.86294, -54.5914, 1.8583, -173.625, 1.83326, 65.8582, 0.0547086, 71.2194
1, 900.00000, 126.612, -31.5175, 126.928, -150.551, 128.661, 88.9321, 0, 0, 1.86294, -54.5914, 1.8583, -173.625, 1.83326, 65.8582, 0.0547088, 71.2192
1, 960.00000, 126.612, -31.5175, 126.928, -150.551, 128.661, 88.9321, 0, 0, 1.86294, -54.5914, 1.8583, -173.625, 1.83326, 65.8582, 0.054709, 71.2191
1, 1020.00000, 126.612, -31.5175, 126.928, -150.551, 128.661, 88.9321, 0, 0, 1.86294, -54.5914, 1.8583, -173.625, 1.83326, 65.8582, 0.0547092, 71.219
1, 1080.00000, 126.612, -31.5175, 126.928, -150.551, 128.661, 88.9321, 0, 0, 1.86294, -54.5914, 1.8583, -173.625, 1.83326, 65.8582, 0.0547093, 71.2189
1, 1140.00000, 126.612, -31.5175, 126.928, -150.551, 128.661, 88.9321, 0, 0, 1.86294, -54.5914, 1.8583, -173.625, 1.83326, 65.8582, 0.0547095, 71.2188
1, 1200.00000, 126.612, -31.5175, 126.928, -150.551, 128.661, 88.9321, 0, 0, 1.86294, -54.5914, 1.8583, -173.625, 1.83326, 65.8582, 0.0547096, 71.2188
1, 1260.00000, 126.612, -31.5175, 126.928, -150.551, 128.661, 88.9321, 0, 0, 1.86294, -54.5914, 1.8583, -173.625, 1.83326, 65.8582, 0.0547097, 71.2187
1, 1320.00000, 126.612, -31.5175, 126.928, -150.551, 128.661, 88.9321, 0, 0, 1.86294, -54.5914, 1.8583, -173.625, 1.83326, 65.8582, 0.0547098, 71.2186
1, 1380.00000, 126.612, -31.5175, 126.928, -150.551, 128.661, 88.9321, 0, 0, 1.86294, -54.5914, 1.8583, -173.625, 1.83326, 65.8582, 0.0547099, 71.2186
1, 1440.00000, 126.612, -31.5175, 126.928, -150.551, 128.661, 88.9321, 0, 0, 1.86294, -54.5914, 1.8583, -173.625, 1.83326, 65.8582, 0.0547099, 71.2185
1, 1500.00000, 126.612, -31.5175, 126.928, -150.551, 128.661, 88.9321, 0, 0, 1.86294, -54.5914, 1.8583, -173.625, 1.83326, 65.8582, 0.05471, 71.2185
1, 1560.00000, 126.612, -31.5175, 126.928, -150.551, 128.661, 88.9321, 0, 0, 1.86294, -54.5914, 1.8583, -173.625, 1.83326, 65.8582, 0.0547101, 71.2184
1, 1620.00000, 126.612, -31.5175, 126.928, -150.551, 128.661, 88.9321, 0, 0, 1.86294, -54.5914, 1.8583, -173.625, 1.83326, 65.8582, 0.0547101, 71.2184
1, 1680.00000, 126.612, -31.5175, 126.928, -150.551, 128.661, 88.9321, 0, 0, 1.86294, -54.5914, 1.8583, -173.625, 1.83326, 65.8582, 0.0547102, 71.2184
1, 1740.00000, 126.612, -31.5175, 126.928, -150.551, 128.661, 88.9321, 0, 0, 1.86294, -54.5914, 1.8583, -173.625, 1.83326, 65.8582, 0.0547102, 71.2183
1, 1800.00000, 126.612, -31.5175, 126.928, -150.551, 128.661, 88.9321, 0, 0, 1.86294, -54.5914, 1.8583, -173.625, 1.83326, 65.8582, 0.0547103, 71.2183
1, 1860.00000, 126.612, -31.5175, 126.928, -150.551, 128.661, 88.9321, 0, 0, 1.86294, -54.5914, 1.8583, -173.625, 1.83326, 65.8582, 0.0547103, 71.2183
1, 1920.00000, 126.612, -31.5175, 126.928, -150.551, 128.661, 88.9321, 0, 0, 1.86294, -54.5914, 1.8583, -173.625, 1.83326, 65.8582, 0.0547104, 71.2183
1, 1980.00000, 126.612, -31.5175, 126.928, -150.551, 128.661, 88.9321, 0, 0, 1.86294, -54.5914, 1.8583, -173.625, 1.83326, 65.8582, 0.0547104, 71.2182
1, 2040.00000, 127.045, -31.4893, 126.929, -150.55, 128.844, 89.1054, 0, 0, 1.85658, -54.5632, 1.85828, -173.624, 1.83067, 66.0315, 0.05335, 60.0246
1, 2100.00000, 127.045, -31.4893, 126.929, -150.55, 128.844, 89.1054, 0, 0, 1.85658, -54.5632, 1.85828, -173.624, 1.83067, 66.0315, 0.0533501, 60.0246
1, 2160.00000, 127.045, -31.4893, 126.929, -150.55, 128.844, 89.1054, 0, 0, 1.85658, -54.5632, 1.85828, -173.624, 1.83067, 66.0315, 0.0533501, 60.0245
1, 2220.00000, 127.045, -31.4893, 126.929, -150.55, 128.844, 89.1054, 0, 0, 1.85658, -54.5632, 1.85828, -173.624, 1.83067, 66.0315, 0.0533501, 60.0245
1, 2280.00000, 127.045, -31.4893, 126.929, -150.55, 128.844, 89.1054, 0, 0, 1.85658, -54.5632, 1.85828, -173.624, 1.83067, 66.0315, 0.0533502, 60.0245
1, 2340.00000, 127.045, -31.4893, 126.929, -150.55, 128.844, 89.1054, 0, 0, 1.85658, -54.5632, 1.85828, -173.624, 1.83067, 66.0315, 0.0533502, 60.0245
1, 2400.00000, 127.045, -31.4893, 126.929, -150.55, 128.844, 89.1054, 0, 0, 1.85658, -54.5632, 1.85828, -173.624, 1.83067, 66.0315, 0.0533502, 60.0245
1, 2460.00000, 127.045, -31.4893, 126.929, -150.55, 128.844, 89.1054, 0, 0, 1.85658, -54.5632, 1.85828, -173.624, 1.83067, 66.0315, 0.0533502, 60.0245
1, 2520.00000, 127.463, -31.4612, 126.929, -150.55, 129.018, 89.2721, 0, 0, 1.85049, -54.5351, 1.85828, -173.624, 1.8282, 66.1982, 0.0539859, 49.1554
1, 2580.00000, 127.463, -31.4612, 126.929, -150.55, 129.018, 89.2721, 0, 0, 1.85049, -54.5351, 1.85828, -173.624, 1.8282, 66.1982, 0.053986, 49.1555
1, 2640.00000, 127.463, -31.4612, 126.929, -150.55, 129.018, 89.2721, 0, 0, 1.85049, -54.5351, 1.85828, -173.624, 1.8282, 66.1982, 0.053986, 49.1555
1, 2700.00000, 127.463, -31.4612, 126.929, -150.55, 129.018, 89.2721, 0, 0, 1.85049, -54.5351, 1.85828, -173.624, 1.8282, 66.1982, 0.053986, 49.1555
1, 2760.00000, 127.868, -31.4338, 126.93, -150.55, 129.185, 89.4337, 0, 0, 1.84463, -54.5077, 1.85827, -173.624, 1.82583, 66.3597, 0.0563625, 39.2468
1, 2820.00000, 127.868, -31.4338, 126.93, -150.55, 129.185, 89.4337, 0, 0, 1.84463, -54.5077, 1.85827, -173.624, 1.82583, 66.3597, 0.0563625, 39.2468
1, 2880.00000, 127.868, -31.4338, 126.93, -150.55, 129.185, 89.4337, 0, 0, 1.84463, -54.5077, 1.85827, -173.624, 1.82583, 66.3597, 0.0563625, 39.2468
1, 2940.00000, 127.868, -31.4338, 126.93, -150.55, 129.185, 89.4337, 0, 0, 1.84463, -54.5077, 1.85827, -173.624, 1.82583, 66.3597, 0.0563625, 39.2468
1, 3000.00000, 127.868, -31.4338, 126.93, -150.55, 129.185, 89.4337, 0, 0, 1.84463, -54.5077, 1.85827, -173.624, 1.82583, 66.3597, 0.0563625, 39.2468
1, 3060.00000, 127.868, -31.4338, 126.93, -150.55, 129.185, 89.4337, 0, 0, 1.84463, -54.5077, 1.85827, -173.624, 1.82583, 66.3597, 0.0563625, 39.2468
1, 3120.00000, 127.868, -31.4338, 126.93, -150.55, 129.185, 89.4337, 0, 0, 1.84463, -54.5077, 1.85827, -173.624, 1.82583, 66.3597, 0.0563625, 39.2468
1, 3180.00000, 127.868, -31.4338, 126.93, -150.55, 129.185, 89.4337, 0, 0, 1.84463, -54.5077, 1.85827, -173.624, 1.82583, 66.3597, 0.0563625, 39.2468
1, 3240.00000, 127.868, -31.4338, 126.93, -150.55, 129.185, 89.4337, 0, 0, 1.84463, -54.5077, 1.85827, -173.624, 1.82583, 66.3597, 0.0563625, 39.2468
1, 3300.00000, 127.868, -31.4338, 126.93, -150.55, 129.185, 89.4337, 0, 0, 1.84463, -54.5077, 1.85827, -173.624, 1.82583, 66.3597, 0.0563625, 39.2468
1, 3360.00000, 127.868, -31.4338, 126.93, -150.55, 129.185, 89.4337, 0, 0, 1.84463, -54.5077, 1.85827, -173.624, 1.82583, 66.3597, 0.0563626, 39.2468
1, 3420.00000, 127.868, -31.4338, 126.93, -150.55, 129.185, 89.4337, 0, 0, 1.84463, -54.5077, 1.85827, -173.624, 1.82583, 66.3597, 0.0563626, 39.2468
1, 3480.00000, 127.868, -31.4338, 126.93, -150.55, 129.185, 89.4337, 0, 0, 1.84463, -54.5077, 1.85827, -173.624, 1.82583, 66.3597, 0.0563626, 39.2468
1, 3540.00000, 127.868, -31.4338, 126.93, -150.55, 129.185, 89.4337, 0, 0, 1.84463, -54.5077, 1.85827, -173.624, 1.82583, 66.3597, 0.0563626, 39.2468
2, 0.00000, 127.868, -31.4338, 126.93, -150.55, 129.185, 89.4337, 0, 0, 1.84463, -54.5077, 1.85827, -173.624, 1.82583, 66.3597, 0.0563626, 39.2468
2, 60.00000, 127.868, -31.4338, 126.93, -150.55, 129.185, 89.4337, 0, 0, 1.84463, -54.5077, 1.85827, -173.624, 1.82583, 66.3597, 0.0563626, 39.2468
2, 120.00000, 127.864, -31.4349, 126.926, -150.551, 129.181, 89.4326, 0, 0, 1.8498, -54.5088, 1.86347, -173.625, 1.83094, 66.3587, 0.0565195, 39.2483
2, 180.00000, 127.86, -31.436, 126.922, -150.552, 129.177, 89.4315, 0, 0, 1.85502, -54.5099, 1.86873, -173.626, 1.83611, 66.3576, 0.0566782, 39.2498
2, 240.00000, 127.855, -31.437, 126.918, -150.553, 129.173, 89.4305, 0, 0, 1.86019, -54.5109, 1.87393, -173.627, 1.84122, 66.3566, 0.0568351, 39.2513
2, 300.00000, 127.851, -31.4381, 126.914, -150.554, 129.169, 89.4294, 0, 0, 1.86536, -54.512, 1.87913, -173.628, 1.84633, 66.3555, 0.056992, 39.2529
2, 360.00000, 127.847, -31.4392, 126.91, -150.555, 129.165, 89.4284, 0, 0, 1.87058, -54.5131, 1.88439, -173.629, 1.8515, 66.3544, 0.0571508, 39.2544
2, 420.00000, 127.843, -31.4402, 126.906, -150.556, 129.161, 89.4273, 0, 0, 1.87575, -54.5141, 1.88959, -173.63, 1.8566, 66.3534, 0.0573076, 39.2559
2, 480.00000, 127.838, -31.4413, 126.902, -150.558, 129.157, 89.4262, 0, 0, 1.88092, -54.5152, 1.89479, -173.631, 1.86171, 66.3523, 0.0574645, 39.2574
2, 540.00000, 127.834, -31.4424, 126.898, -150.559, 129.153, 89.4252, 0, 0, 1.88614, -54.5163, 1.90005, -173.633, 1.86689, 66.3512, 0.0576233, 39.2589
2, 600.00000, 127.83, -31.4434, 126.895, -150.56, 129.149, 89.4241, 0, 0, 1.89131, -54.5173, 1.90525, -173.634, 1.872, 66.3502, 0.0577802, 39.2604
2, 660.00000, 127.826, -31.4445, 126.891, -150.561, 129.145, 89.423, 0, 0, 1.89648, -54.5184, 1.91045, -173.635, 1.87711, 66.3491, 0.0579371, 39.262
2, 720.00000, 127.821, -31.4456, 126.887, -150.562, 129.141, 89.422, 0, 0, 1.90171, -54.5195, 1.91572, -173.636, 1.88228, 66.3481, 0.058096, 39.2635
