hour,t(sec),V1,VAngle1,V2,VAngle2,V3,VAngle3,V4,VAngle4,I1,IAngle1,I2,IAngle2,I3,IAngle3,I4,IAngle4
0, 60.00000, 125.676, -31.0791, 127.94, -150.599, 127.713, 88.3691, 0, 0, 1.8768, -54.1531, 1.84361, -173.673, 1.84688, 65.2954, 0.0605517, 129.606
0, 120.00000, 125.676, -31.079, 127.963, -150.599, 127.723, 88.3608, 0, 0, 1.8768, -54.153, 1.84329, -173.673, 1.84673, 65.2871, 0.0610278, 129.849
0, 180.00000, 125.676, -31.079, 127.983, -150.599, 127.732, 88.3532, 0, 0, 1.8768, -54.1529, 1.843, -173.673, 1.84659, 65.2795, 0.0614571, 130.064
0, 240.00000, 125.676, -31.0789, 128.001, -150.6, 127.741, 88.3465, 0, 0, 1.8768, -54.1529, 1.84274, -173.673, 1.84647, 65.2727, 0.0618441, 130.256
0, 300.00000, 126.079, -31.0351, 128.019, -150.597, 127.881, 88.5119, 0, 0, 1.87082, -54.109, 1.84247, -173.671, 1.84445, 65.4382, 0.0522797, 128.027
0, 360.00000, 126.079, -31.035, 128.033, -150.597, 127.887, 88.5065, 0, 0, 1.87081, -54.109, 1.84226, -173.671, 1.84435, 65.4327, 0.052587, 128.221
0, 420.00000, 126.079, -31.035, 128.047, -150.597, 127.894, 88.5015, 0, 0, 1.87081, -54.109, 1.84207, -173.671, 1.84426, 65.4277, 0.0528641, 128.395
0, 480.00000, 126.079, -31.035, 128.058, -150.597, 127.899, 88.4971, 0, 0, 1.87081, -54.1089, 1.8419, -173.671, 1.84419, 65.4233, 0.0531138, 128.549
0, 540.00000, 126.079, -31.035, 128.069, -150.597, 127.904, 88.4931, 0, 0, 1.87081, -54.1089, 1.84175, -173.671, 1.84411, 65.4192, 0.0533389, 128.687
0, 600.00000, 126.079, -31.035, 128.079, -150.598, 127.908, 88.4894, 0, 0, 1.87081, -54.1089, 1.84161, -173.671, 1.84405, 65.4156, 0.0535417, 128.81
0, 660.00000, 126.079, -31.0349, 128.087, -150.598, 127.912, 88.4862, 0, 0, 1.87081, -54.1089, 1.84148, -173.672, 1.84399, 65.4124, 0.0537244, 128.92
0, 720.00000, 126.079, -31.0349, 128.095, -150.598, 127.916, 88.4833, 0, 0, 1.87081, -54.1088, 1.84137, -173.672, 1.84394, 65.4094, 0.0538891, 129.019
0, 780.00000, 126.079, -31.0349, 128.102, -150.598, 127.919, 88.4806, 0, 0, 1.87081, -54.1088, 1.84127, -173.672, 1.84389, 65.4068, 0.0540373, 129.107
0, 840.00000, 126.079, -31.0349, 128.108, -150.598, 127.922, 88.4783, 0, 0, 1.87081, -54.1088, 1.84118, -173.672, 1.84385, 65.4044, 0.0541709, 129.186
0, 900.00000, 126.079, -31.0349, 128.114, -150.598, 127.925, 88.4761, 0, 0, 1.87081, -54.1088, 1.8411, -173.672, 1.84381, 65.4023, 0.0542912, 129.257
0, 960.00000, 126.079, -31.0349, 128.119, -150.598, 127.927, 88.4742, 0, 0, 1.87081, -54.1088, 1.84102, -173.672, 1.84378, 65.4004, 0.0543995, 129.32
0, 1020.00000, 126.079, -31.0349, 128.123, -150.598, 127.929, 88.4725, 0, 0, 1.87081, -54.1088, 1.84096, -173.672, 1.84375, 65.3986, 0.054497, 129.377
0, 1080.00000, 126.079, -31.0348, 128.128, -150.598, 127.931, 88.4709, 0, 0, 1.87081, -54.1088, 1.8409, -173.672, 1.84372, 65.3971, 0.0545849, 129.428
0, 1140.00000, 126.079, -31.0348, 128.131, -150.598, 127.933, 88.4695, 0, 0, 1.87081, -54.1088, 1.84085, -173.672, 1.8437, 65.3957, 0.054664, 129.474
0, 1200.00000, 126.079, -31.0348, 128.135, -150.598, 127.935, 88.4683, 0, 0, 1.87081, -54.1088, 1.8408, -173.672, 1.84367, 65.3944, 0.0547352, 129.515
0, 1260.00000, 126.079, -31.0348, 128.138, -150.598, 127.936, 88.4671, 0, 0, 1.87081, -54.1087, 1.84075, -173.672, 1.84365, 65.3933, 0.0547993, 129.552
0, 1320.00000, 126.079, -31.0348, 128.14, -150.598, 127.937, 88.4661, 0, 0, 1.87081, -54.1087, 1.84071, -173.672, 1.84364, 65.3922, 0.054857, 129.585
0, 1380.00000, 126.079, -31.0348, 128.143, -150.598, 127.938, 88.4652, 0, 0, 1.87081, -54.1087, 1.84068, -173.672, 1.84362, 65.3913, 0.0549089, 129.615
0, 1440.00000, 126.079, -31.0348, 128.145, -150.598, 127.939, 88.4644, 0, 0, 1.87081, -54.1087, 1.84065, -173.672, 1.84361, 65.3905, 0.0549557, 129.641
0, 1500.00000, 126.079, -31.0348, 128.147, -150.599, 127.94, 88.4636, 0, 0, 1.87081, -54.1087, 1.84062, -173.672, 1.84359, 65.3897, 0.0549978, 129.666
0, 1560.00000, 126.079, -31.0348, 128.149, -150.599, 127.941, 88.463, 0, 0, 1.87081, -54.1087, 1.84059, -173.672, 1.84358, 65.3891, 0.0550357, 129.687
0, 1620.00000, 126.079, -31.0348, 128.15, -150.599, 127.942, 88.4624, 0, 0, 1.87081, -54.1087, 1.84057, -173.672, 1.84357, 65.3885, 0.0550698, 129.707
0, 1680.00000, 126.079, -31.0348, 128.152, -150.599, 127.942, 88.4618, 0, 0, 1.87081, -54.1087, 1.84055, -173.672, 1.84356, 65.3879, 0.0551005, 129.724
0, 1740.00000, 126.079, -31.0348, 128.153, -150.599, 127.943, 88.4613, 0, 0, 1.87081, -54.1087, 1.84053, -173.673, 1.84355, 65.3874, 0.0551282, 129.74
0, 1800.00000, 126.079, -31.0348, 128.154, -150.599, 127.944, 88.4609, 0, 0, 1.87081, -54.1087, 1.84051, -173.673, 1.84354, 65.387, 0.0551531, 129.754
0, 1860.00000, 126.079, -31.0348, 128.155, -150.599, 127.944, 88.4605, 0, 0, 1.87081, -54.1087, 1.8405, -173.673, 1.84354, 65.3866, 0.0551755, 129.767
0, 1920.00000, 126.079, -31.0348, 128.156, -150.599, 127.945, 88.4601, 0, 0, 1.87081, -54.1087, 1.84049, -173.673, 1.84353, 65.3862, 0.0551956, 129.778
0, 1980.00000, 126.079, -31.0348, 128.157, -150.599, 127.945, 88.4598, 0, 0, 1.87081, -54.1087, 1.84047, -173.673, 1.84352, 65.3859, 0.0552138, 129.788
0, 2040.00000, 126.079, -31.0348, 128.158, -150.599, 127.945, 88.4595, 0, 0, 1.87081, -54.1087, 1.84046, -173.673, 1.84352, 65.3856, 0.0552301, 129.798
0, 2100.00000, 126.079, -31.0348, 128.159, -150.599, 127.946, 88.4593, 0, 0, 1.87081, -54.1087, 1.84045, -173.673, 1.84351, 65.3854, 0.0552448, 129.806
0, 2160.00000, 126.079, -31.0348, 128.159, -150.599, 127.946, 88.459, 0, 0, 1.87081, -54.1087, 1.84044, -173.673, 1.84351, 65.3851, 0.055258, 129.813
0, 2220.00000, 126.357, -30.8091, 128.737, -150.597, 127.931, 88.4615, 0, 0, 1.86669, -53.883, 1.83218, -173.671, 1.84373, 65.3876, 0.0579559, 144.445
0, 2280.00000, 126.357, -30.8091, 128.737, -150.597, 127.931, 88.4613, 0, 0, 1.86669, -53.883, 1.83218, -173.671, 1.84373, 65.3874, 0.0579678, 144.448
0, 2340.00000, 126.357, -30.8091, 128.738, -150.597, 127.931, 88.4611, 0, 0, 1.86669, -53.883, 1.83217, -173.671, 1.84373, 65.3872, 0.0579785, 144.45
0, 2400.00000, 126.357, -30.8091, 128.738, -150.597, 127.931, 88.461, 0, 0, 1.86669, -53.883, 1.83216, -173.671, 1.84372, 65.3871, 0.0579881, 144.453
0, 2460.00000, 126.357, -30.8091, 128.739, -150.597, 127.931, 88.4608, 0, 0, 1.86669, -53.883, 1.83216, -173.671, 1.84372, 65.3869, 0.0579967, 144.455
0, 2520.00000, 126.357, -30.8091, 128.739, -150.597, 127.931, 88.4607, 0, 0, 1.86669, -53.883, 1.83215, -173.671, 1.84372, 65.3868, 0.0580044, 144.457
0, 2580.00000, 126.357, -30.8091, 128.739, -150.597, 127.932, 88.4606, 0, 0, 1.86669, -53.883, 1.83215, -173.671, 1.84372, 65.3867, 0.0580114, 144.458
0, 2640.00000, 126.357, -30.8091, 128.739, -150.597, 127.932, 88.4605, 0, 0, 1.86669, -53.883, 1.83215, -173.671, 1.84371, 65.3866, 0.0580177, 144.46
0, 2700.00000, 126.357, -30.8091, 128.74, -150.597, 127.932, 88.4604, 0, 0, 1.86669, -53.883, 1.83214, -173.671, 1.84371, 65.3865, 0.0580234, 144.461
0, 2760.00000, 126.357, -30.8091, 128.74, -150.597, 127.932, 88.4603, 0, 0, 1.86669, -53.883, 1.83214, -173.671, 1.84371, 65.3864, 0.0580285, 144.462
0, 2820.00000, 126.357, -30.8091, 128.74, -150.597, 127.932, 88.4603, 0, 0, 1.86669, -53.883, 1.83214, -173.671, 1.84371, 65.3863, 0.058033, 144.463
0, 2880.00000, 126.357, -30.8091, 128.74, -150.597, 127.932, 88.4602, 0, 0, 1.86669, -53.883, 1.83213, -173.671, 1.84371, 65.3863, 0.0580372, 144.464
0, 2940.00000, 126.357, -30.8091, 128.74, -150.597, 127.932, 88.4601, 0, 0, 1.86669, -53.883, 1.83213, -173.671, 1.84371, 65.3862, 0.0580409, 144.465
0, 3000.00000, 126.357, -30.8091, 128.741, -150.597, 127.932, 88.4601, 0, 0, 1.86669, -53.883, 1.83213, -173.671, 1.84371, 65.3862, 0.0580442, 144.466
0, 3060.00000, 126.357, -30.8091, 128.741, -150.597, 127.932, 88.46, 0, 0, 1.86669, -53.883, 1.83213, -173.671, 1.84371, 65.3861, 0.0580472, 144.467
0, 3120.00000, 126.357, -30.8091, 128.741, -150.597, 127.932, 88.46, 0, 0, 1.86669, -53.883, 1.83213, -173.671, 1.84371, 65.3861, 0.0580499, 144.468
0, 3180.00000, 126.357, -30.8091, 128.741, -150.597, 127.932, 88.4599, 0, 0, 1.86669, -53.883, 1.83213, -173.671, 1.8437, 65.386, 0.0580524, 144.468
0, 3240.00000, 126.357, -30.8091, 128.741, -150.597, 127.932, 88.4599, 0, 0, 1.86669, -53.883, 1.83212, -173.671, 1.8437, 65.386, 0.0580546, 144.469
0, 3300.00000, 126.357, -30.8091, 128.741, -150.597, 127.932, 88.4599, 0, 0, 1.86669, -53.883, 1.83212, -173.671, 1.8437, 65.386, 0.0580565, 144.469
0, 3360.00000, 126.357, -30.8091, 128.741, -150.597, 127.933, 88.4598, 0, 0, 1.86669, -53.883, 1.83212, -173.671, 1.8437, 65.3859, 0.0580583, 144.47
0, 3420.00000, 126.357, -30.8091, 128.741, -150.597, 127.933, 88.4598, 0, 0, 1.86669, -53.883, 1.83212, -173.671, 1.8437, 65.3859, 0.0580599, 144.47
0, 3480.00000, 126.357, -30.8091, 128.741, -150.597, 127.933, 88.4598, 0, 0, 1.86669, -53.883, 1.83212, -173.671, 1.8437, 65.3859, 0.0580613, 144.47
0, 3540.00000, 126.357, -30.8091, 128.741, -150.597, 127.933, 88.4598, 0, 0, 1.86669, -53.883, 1.83212, -173.671, 1.8437, 65.3859, 0.0580626, 144.471
1, 0.00000, 126.357, -30.8091, 128.741, -150.597, 127.933, 88.4598, 0, 0, 1.86669, -53.883, 1.83212, -173.671, 1.8437, 65.3858, 0.0580638, 144.471
1, 60.00000, 126.357, -30.8091, 128.741, -150.597, 127.933, 88.4597, 0, 0, 1.86669, -53.883, 1.83212, -173.671, 1.8437, 65.3858, 0.0580648, 144.471
1, 120.00000, 126.357, -30.8091, 128.742, -150.597, 127.933, 88.4597, 0, 0, 1.86669, -53.883, 1.83212, -173.671, 1.8437, 65.3858, 0.0580658, 144.471
1, 180.00000, 126.357, -30.8091, 128.742, -150.597, 127.933, 88.4597, 0, 0, 1.86669, -53.883, 1.83212, -173.671, 1.8437, 65.3858, 0.0580666, 144.472
1, 240.00000, 126.357, -30.8091, 128.742, -150.597, 127.933, 88.4597, 0, 0, 1.86669, -53.883, 1.83212, -173.671, 1.8437, 65.3858, 0.0580674, 144.472
1, 300.00000, 126.357, -30.8091, 128.742, -150.597, 127.933, 88.4597, 0, 0, 1.86669, -53.883, 1.83212, -173.671, 1.8437, 65.3858, 0.0580681, 144.472
1, 360.00000, 126.357, -30.8091, 128.742, -150.597, 127.933, 88.4597, 0, 0, 1.86669, -53.883, 1.83212, -173.671, 1.8437, 65.3858, 0.0580687, 144.472
1, 420.00000, 126.357, -30.8091, 128.742, -150.597, 127.933, 88.4597, 0, 0, 1.86669, -53.883, 1.83212, -173.671, 1.8437, 65.3858, 0.0580693, 144.472
1, 480.00000, 126.357, -30.8091, 128.742, -150.597, 127.933, 88.4597, 0, 0, 1.86669, -53.883, 1.83212, -173.671, 1.8437, 65.3857, 0.0580698, 144.472
1, 540.00000, 126.357, -30.8091, 128.742, -150.597, 127.933, 88.4597, 0, 0, 1.86669, -53.883, 1.83211, -173.671, 1.8437, 65.3857, 0.0580702, 144.472
1, 600.00000, 126.357, -30.8091, 128.742, -150.597, 127.933, 88.4596, 0, 0, 1.86669, -53.883, 1.83211, -173.671, 1.8437, 65.3857, 0.0580706, 144.472
1, 660.00000, 126.745, -30.7689, 128.741, -150.595, 128.053, 88.6259, 0, 0, 1.86097, -53.8428, 1.83212, -173.669, 1.84196, 65.552, 0.0481806, 144.785
1, 720.00000, 126.745, -30.7689, 128.742, -150.595, 128.053, 88.6259, 0, 0, 1.86097, -53.8428, 1.83212, -173.669, 1.84196, 65.552, 0.0481809, 144.785
1, 780.00000, 126.87, -30.5975, 129.143, -150.551, 128.055, 88.6245, 0, 0, 1.85914, -53.6714, 1.82642, -173.625, 1.84194, 65.5505, 0.0541424, 153.896
1, 840.00000, 126.87, -30.5975, 129.143, -150.551, 128.055, 88.6245, 0, 0, 1.85914, -53.6714, 1.82642, -173.625, 1.84194, 65.5505, 0.0541429, 153.896
1, 900.00000, 126.87, -30.5975, 129.143, -150.551, 128.055, 88.6245, 0, 0, 1.85914, -53.6714, 1.82642, -173.625, 1.84194, 65.5505, 0.0541431, 153.896
1, 960.00000, 126.87, -30.5975, 129.143, -150.551, 128.055, 88.6245, 0, 0, 1.85914, -53.6714, 1.82642, -173.625, 1.84194, 65.5505, 0.0541433, 153.896
1, 1020.00000, 126.87, -30.5975, 129.143, -150.551, 128.055, 88.6245, 0, 0, 1.85914, -53.6714, 1.82642, -173.625, 1.84194, 65.5505, 0.0541435, 153.896
1, 1080.00000, 126.87, -30.5975, 129.143, -150.551, 128.055, 88.6244, 0, 0, 1.85914, -53.6714, 1.82642, -173.625, 1.84194, 65.5505, 0.0541437, 153.896
1, 1140.00000, 126.87, -30.5975, 129.143, -150.551, 128.055, 88.6244, 0, 0, 1.85914, -53.6714, 1.82642, -173.625, 1.84194, 65.5505, 0.0541439, 153.896
1, 1200.00000, 126.87, -30.5975, 129.143, -150.551, 128.055, 88.6244, 0, 0, 1.85914, -53.6714, 1.82642, -173.625, 1.84194, 65.5505, 0.054144, 153.896
1, 1260.00000, 126.87, -30.5975, 129.143, -150.551, 128.055, 88.6244, 0, 0, 1.85914, -53.6714, 1.82642, -173.625, 1.84194, 65.5505, 0.0541441, 153.896
1, 1320.00000, 126.87, -30.5975, 129.143, -150.551, 128.055, 88.6244, 0, 0, 1.85914, -53.6714, 1.82642, -173.625, 1.84194, 65.5505, 0.0541443, 153.896
1, 1380.00000, 126.87, -30.5975, 129.143, -150.551, 128.055, 88.6244, 0, 0, 1.85914, -53.6714, 1.82642, -173.625, 1.84194, 65.5505, 0.0541444, 153.896
1, 1440.00000, 126.87, -30.5975, 129.143, -150.551, 128.055, 88.6244, 0, 0, 1.85914, -53.6714, 1.82642, -173.625, 1.84194, 65.5505, 0.0541445, 153.896
1, 1500.00000, 126.87, -30.5975, 129.143, -150.551, 128.055, 88.6244, 0, 0, 1.85914, -53.6714, 1.82642, -173.625, 1.84194, 65.5505, 0.0541445, 153.896
1, 1560.00000, 126.87, -30.5975, 129.143, -150.551, 128.055, 88.6244, 0, 0, 1.85914, -53.6714, 1.82642, -173.625, 1.84194, 65.5505, 0.0541446, 153.896
1, 1620.00000, 126.87, -30.5975, 129.143, -150.551, 128.055, 88.6244, 0, 0, 1.85914, -53.6714, 1.82642, -173.625, 1.84194, 65.5505, 0.0541447, 153.896
1, 1680.00000, 126.87, -30.5975, 129.143, -150.551, 128.055, 88.6244, 0, 0, 1.85914, -53.6714, 1.82642, -173.625, 1.84194, 65.5505, 0.0541448, 153.896
1, 1740.00000, 126.87, -30.5975, 129.143, -150.551, 128.055, 88.6244, 0, 0, 1.85914, -53.6714, 1.82642, -173.625, 1.84194, 65.5505, 0.0541448, 153.896
1, 1800.00000, 126.87, -30.5975, 129.143, -150.551, 128.055, 88.6244, 0, 0, 1.85914, -53.6714, 1.82642, -173.625, 1.84194, 65.5505, 0.0541449, 153.896
1, 1860.00000, 126.87, -30.5975, 129.143, -150.551, 128.055, 88.6244, 0, 0, 1.85914, -53.6714, 1.82642, -173.625, 1.84194, 65.5505, 0.0541449, 153.896
1, 1920.00000, 126.87, -30.5975, 129.143, -150.551, 128.055, 88.6244, 0, 0, 1.85914, -53.6714, 1.82642, -173.625, 1.84194, 65.5505, 0.0541449, 153.896
1, 1980.00000, 126.87, -30.5975, 129.143, -150.551, 128.055, 88.6244, 0, 0, 1.85914, -53.6714, 1.82642, -173.625, 1.84194, 65.5505, 0.054145, 153.896
1, 2040.00000, 126.87, -30.5975, 129.143, -150.551, 128.055, 88.6244, 0, 0, 1.85914, -53.6714, 1.82642, -173.625, 1.84194, 65.5505, 0.054145, 153.896
1, 2100.00000, 126.87, -30.5975, 129.143, -150.551, 128.055, 88.6244, 0, 0, 1.85914, -53.6714, 1.82642, -173.625, 1.84194, 65.5505, 0.054145, 153.896
1, 2160.00000, 126.87, -30.5975, 129.143, -150.551, 128.055, 88.6244, 0, 0, 1.85914, -53.6714, 1.82642, -173.625, 1.84194, 65.5505, 0.0541451, 153.896
1, 2220.00000, 126.87, -30.5975, 129.143, -150.551, 128.055, 88.6244, 0, 0, 1.85914, -53.6714, 1.82642, -173.625, 1.84194, 65.5505, 0.0541451, 153.896
1, 2280.00000, 126.87, -30.5975, 129.143, -150.551, 128.055, 88.6244, 0, 0, 1.85914, -53.6714, 1.82642, -173.625, 1.84194, 65.5505, 0.0541451, 153.896
1, 2340.00000, 126.87, -30.5975, 129.143, -150.551, 128.055, 88.6244, 0, 0, 1.85914, -53.6714, 1.82642, -173.625, 1.84194, 65.5505, 0.0541451, 153.896
1, 2400.00000, 126.87, -30.5975, 129.143, -150.551, 128.055, 88.6244, 0, 0, 1.85914, -53.6714, 1.82642, -173.625, 1.84194, 65.5505, 0.0541452, 153.896
1, 2460.00000, 126.87, -30.5975, 129.143, -150.551, 128.055, 88.6244, 0, 0, 1.85914, -53.6714, 1.82642, -173.625, 1.84194, 65.5505, 0.0541452, 153.896
1, 2520.00000, 126.87, -30.5975, 129.143, -150.551, 128.055, 88.6244, 0, 0, 1.85914, -53.6714, 1.82642, -173.625, 1.84194, 65.5505, 0.0541452, 153.896
1, 2580.00000, 126.87, -30.5975, 129.143, -150.551, 128.055, 88.6244, 0, 0, 1.85914, -53.6714, 1.82642, -173.625, 1.84194, 65.5505, 0.0541452, 153.896
1, 2640.00000, 126.87, -30.5975, 129.143, -150.551, 128.055, 88.6244, 0, 0, 1.85914, -53.6714, 1.82642, -173.625, 1.84194, 65.5505, 0.0541452, 153.896
1, 2700.00000, 126.87, -30.5975, 129.143, -150.551, 128.055, 88.6244, 0, 0, 1.85914, -53.6714, 1.82642, -173.625, 1.84194, 65.5505, 0.0541452, 153.896
1, 2760.00000, 126.87, -30.5975, 129.143, -150.551, 128.055, 88.6244, 0, 0, 1.85914, -53.6714, 1.82642, -173.625, 1.84194, 65.5505, 0.0541452, 153.896
1, 2820.00000, 126.87, -30.5975, 129.143, -150.551, 128.055, 88.6244, 0, 0, 1.85914, -53.6714, 1.82642, -173.625, 1.84194, 65.5505, 0.0541452, 153.896
1, 2880.00000, 126.87, -30.5975, 129.143, -150.551, 128.055, 88.6244, 0, 0, 1.85914, -53.6714, 1.82642, -173.625, 1.84194, 65.5505, 0.0541452, 153.896
1, 2940.00000, 126.87, -30.5975, 129.143, -150.551, 128.055, 88.6244, 0, 0, 1.85914, -53.6714, 1.82642, -173.625, 1.84194, 65.5505, 0.0541453, 153.896
1, 3000.00000, 126.87, -30.5975, 129.143, -150.551, 128.055, 88.6244, 0, 0, 1.85914, -53.6714, 1.82642, -173.625, 1.84194, 65.5505, 0.0541453, 153.896
1, 3060.00000, 126.87, -30.5975, 129.143, -150.551, 128.055, 88.6244, 0, 0, 1.85914, -53.6714, 1.82642, -173.625, 1.84194, 65.5505, 0.0541453, 153.896
1, 3120.00000, 126.87, -30.5975, 129.143, -150.551, 128.055, 88.6244, 0, 0, 1.85914, -53.6714, 1.82642, -173.625, 1.84194, 65.5505, 0.0541453, 153.896
1, 3180.00000, 126.87, -30.5975, 129.143, -150.551, 128.055, 88.6244, 0, 0, 1.85914, -53.6714, 1.82642, -173.625, 1.84194, 65.5505, 0.0541453, 153.896
1, 3240.00000, 126.87, -30.5975, 129.143, -150.551, 128.055, 88.6244, 0, 0, 1.85914, -53.6714, 1.82642, -173.625, 1.84194, 65.5505, 0.0541453, 153.896
1, 3300.00000, 126.87, -30.5975, 129.143, -150.551, 128.055, 88.6244, 0, 0, 1.85914, -53.6714, 1.82642, -173.625, 1.84194, 65.5505, 0.0541453, 153.896
1, 3360.00000, 126.87, -30.5975, 129.143, -150.551, 128.055, 88.6244, 0, 0, 1.85914, -53.6714, 1.82642, -173.625, 1.84194, 65.5505, 0.0541453, 153.896
1, 3420.00000, 126.87, -30.5975, 129.143, -150.551, 128.055, 88.6244, 0, 0, 1.85914, -53.6714, 1.82642, -173.625, 1.84194, 65.5505, 0.0541453, 153.896
1, 3480.00000, 126.87, -30.5975, 129.143, -150.551, 128.055, 88.6244, 0, 0, 1.85914, -53.6714, 1.82642, -173.625, 1.84194, 65.5505, 0.0541453, 153.896
1, 3540.00000, 126.87, -30.5975, 129.143, -150.551, 128.055, 88.6244, 0, 0, 1.85914, -53.6714, 1.82642, -173.625, 1.84194, 65.5505, 0.0541453, 153.896
2, 0.00000, 126.87, -30.5975, 129.143, -150.551, 128.055, 88.6244, 0, 0, 1.85914, -53.6714, 1.82642, -173.625, 1.84194, 65.5505, 0.0541453, 153.896
2, 60.00000, 126.87, -30.5975, 129.143, -150.551, 128.055, 88.6244, 0, 0, 1.85914, -53.6714, 1.82642, -173.625, 1.84194, 65.5505, 0.0541453, 153.896
2, 120.00000, 126.866, -30.5986, 129.139, -150.552, 128.051, 88.6234, 0, 0, 1.86434, -53.6725, 1.83153, -173.626, 1.84709, 65.5494, 0.0542994, 153.893
2, 180.00000, 126.862, -30.5998, 129.136, -150.553, 128.047, 88.6223, 0, 0, 1.86961, -53.6737, 1.8367, -173.627, 1.85231, 65.5484, 0.0544553, 153.89
2, 240.00000, 126.858, -30.601, 129.132, -150.554, 128.043, 88.6212, 0, 0, 1.87482, -53.6749, 1.8418, -173.628, 1.85746, 65.5473, 0.0546094, 153.888
2, 300.00000, 126.854, -30.6021, 129.128, -150.555, 128.039, 88.6201, 0, 0, 1.88002, -53.676, 1.84691, -173.629, 1.86262, 65.5462, 0.0547635, 153.885
2, 360.00000, 126.85, -30.6033, 129.124, -150.556, 128.035, 88.6191, 0, 0, 1.88529, -53.6772, 1.85208, -173.63, 1.86783, 65.5451, 0.0549195, 153.882
2, 420.00000, 126.846, -30.6044, 129.12, -150.557, 128.031, 88.618, 0, 0, 1.89049, -53.6783, 1.85719, -173.631, 1.87299, 65.5441, 0.0550736, 153.879
2, 480.00000, 126.841, -30.6056, 129.116, -150.558, 128.027, 88.6169, 0, 0, 1.8957, -53.6795, 1.8623, -173.632, 1.87815, 65.543, 0.0552278, 153.876
2, 540.00000, 126.837, -30.6068, 129.112, -150.56, 128.023, 88.6158, 0, 0, 1.90097, -53.6807, 1.86747, -173.633, 1.88336, 65.5419, 0.0553839, 153.873
2, 600.00000, 126.833, -30.6079, 129.109, -150.561, 128.019, 88.6148, 0, 0, 1.90618, -53.6818, 1.87258, -173.635, 1.88852, 65.5409, 0.0555381, 153.87
2, 660.00000, 126.829, -30.6091, 129.105, -150.562, 128.015, 88.6137, 0, 0, 1.91138, -53.683, 1.87769, -173.636, 1.89368, 65.5398, 0.0556924, 153.867
2, 720.00000, 126.825, -30.6102, 129.101, -150.563, 128.011, 88.6126, 0, 0, 1.91665, -53.6841, 1.88286, -173.637, 1.89889, 65.5387, 0.0558486, 153.865
