hour,t(sec),V1,VAngle1,V2,VAngle2,V3,VAngle3,V4,VAngle4,I1,IAngle1,I2,IAngle2,I3,IAngle3,I4,IAngle4
0, 60.00000, 125.414, -30.9122, 125.312, -150.641, 125.866, 89.4562, 0, 0, 2.36261, -53.9861, 2.36453, -173.714, 2.35412, 66.3823, 0.0222089, 35.8155
0, 120.00000, 125.414, -30.9123, 125.312, -150.641, 125.866, 89.4562, 0, 0, 2.36261, -53.9862, 2.36454, -173.715, 2.35412, 66.3823, 0.022218, 35.811
0, 180.00000, 125.414, -30.9123, 125.312, -150.641, 125.866, 89.4562, 0, 0, 2.36261, -53.9862, 2.36454, -173.715, 2.35412, 66.3823, 0.022218, 35.811
0, 240.00000, 125.414, -30.9123, 125.312, -150.641, 125.866, 89.4562, 0, 0, 2.36261, -53.9862, 2.36454, -173.715, 2.35412, 66.3823, 0.022218, 35.811
0, 300.00000, 125.544, -30.7404, 125.717, -150.596, 125.865, 89.4565, 0, 0, 2.36019, -53.8146, 2.35695, -173.67, 2.35414, 66.3826, 0.00986239, 52.5795
0, 360.00000, 125.544, -30.7404, 125.717, -150.596, 125.865, 89.4565, 0, 0, 2.36016, -53.8143, 2.35691, -173.67, 2.35414, 66.3825, 0.00982747, 52.7214
0, 420.00000, 125.544, -30.7404, 125.717, -150.596, 125.865, 89.4565, 0, 0, 2.36016, -53.8143, 2.35691, -173.67, 2.35414, 66.3825, 0.00982733, 52.7218
0, 480.00000, 125.544, -30.7404, 125.717, -150.596, 125.865, 89.4565, 0, 0, 2.36016, -53.8143, 2.35691, -173.67, 2.35414, 66.3825, 0.00982733, 52.7218
0, 540.00000, 125.544, -30.7404, 125.717, -150.596, 125.865, 89.4565, 0, 0, 2.36016, -53.8143, 2.35691, -173.67, 2.35414, 66.3825, 0.00982733, 52.7218
0, 600.00000, 125.544, -30.7404, 125.717, -150.596, 125.865, 89.4565, 0, 0, 2.36016, -53.8143, 2.35691, -173.67, 2.35414, 66.3825, 0.00982733, 52.7218
0, 660.00000, 125.544, -30.7404, 125.717, -150.596, 125.865, 89.4565, 0, 0, 2.36016, -53.8143, 2.35691, -173.67, 2.35414, 66.3825, 0.00982733, 52.7218
0, 720.00000, 125.544, -30.7404, 125.717, -150.596, 125.865, 89.4565, 0, 0, 2.36016, -53.8143, 2.35691, -173.67, 2.35414, 66.3825, 0.00982733, 52.7218
0, 780.00000, 125.544, -30.7404, 125.717, -150.596, 125.865, 89.4565, 0, 0, 2.36016, -53.8143, 2.35691, -173.67, 2.35414, 66.3825, 0.00982733, 52.7218
0, 840.00000, 125.544, -30.7404, 125.717, -150.596, 125.865, 89.4565, 0, 0, 2.36016, -53.8143, 2.35691, -173.67, 2.35414, 66.3825, 0.00982733, 52.7218
0, 900.00000, 125.544, -30.7404, 125.717, -150.596, 125.865, 89.4565, 0, 0, 2.36016, -53.8143, 2.35691, -173.67, 2.35414, 66.3825, 0.00982733, 52.7218
0, 960.00000, 125.544, -30.7404, 125.717, -150.596, 125.865, 89.4565, 0, 0, 2.36016, -53.8143, 2.35691, -173.67, 2.35414, 66.3825, 0.00982733, 52.7218
0, 1020.00000, 125.544, -30.7404, 125.717, -150.596, 125.865, 89.4565, 0, 0, 2.36016, -53.8143, 2.35691, -173.67, 2.35414, 66.3825, 0.00982733, 52.7218
0, 1080.00000, 125.544, -30.7404, 125.717, -150.596, 125.865, 89.4565, 0, 0, 2.36016, -53.8143, 2.35691, -173.67, 2.35414, 66.3825, 0.00982733, 52.7218
0, 1140.00000, 125.544, -30.7404, 125.717, -150.596, 125.865, 89.4565, 0, 0, 2.36016, -53.8143, 2.35691, -173.67, 2.35414, 66.3825, 0.00982733, 52.7218
0, 1200.00000, 125.544, -30.7404, 125.717, -150.596, 125.865, 89.4565, 0, 0, 2.36016, -53.8143, 2.35691, -173.67, 2.35414, 66.3825, 0.00982733, 52.7218
0, 1260.00000, 125.544, -30.7404, 125.717, -150.596, 125.865, 89.4565, 0, 0, 2.36016, -53.8143, 2.35691, -173.67, 2.35414, 66.3825, 0.00982733, 52.7218
0, 1320.00000, 125.544, -30.7404, 125.717, -150.596, 125.865, 89.4565, 0, 0, 2.36016, -53.8143, 2.35691, -173.67, 2.35414, 66.3825, 0.00982733, 52.7218
0, 1380.00000, 125.544, -30.7404, 125.717, -150.596, 125.865, 89.4565, 0, 0, 2.36016, -53.8143, 2.35691, -173.67, 2.35414, 66.3825, 0.00982733, 52.7218
0, 1440.00000, 125.544, -30.7404, 125.717, -150.596, 125.865, 89.4565, 0, 0, 2.36016, -53.8143, 2.35691, -173.67, 2.35414, 66.3825, 0.00982733, 52.7218
0, 1500.00000, 125.544, -30.7404, 125.717, -150.596, 125.865, 89.4565, 0, 0, 2.36016, -53.8143, 2.35691, -173.67, 2.35414, 66.3825, 0.00982733, 52.7218
0, 1560.00000, 125.544, -30.7404, 125.717, -150.596, 125.865, 89.4565, 0, 0, 2.36016, -53.8143, 2.35691, -173.67, 2.35414, 66.3825, 0.00982733, 52.7218
0, 1620.00000, 125.544, -30.7404, 125.717, -150.596, 125.865, 89.4565, 0, 0, 2.36016, -53.8143, 2.35691, -173.67, 2.35414, 66.3825, 0.00982733, 52.7218
0, 1680.00000, 125.544, -30.7404, 125.717, -150.596, 125.865, 89.4565, 0, 0, 2.36016, -53.8143, 2.35691, -173.67, 2.35414, 66.3825, 0.00982733, 52.7218
0, 1740.00000, 125.544, -30.7404, 125.717, -150.596, 125.865, 89.4565, 0, 0, 2.36016, -53.8143, 2.35691, -173.67, 2.35414, 66.3825, 0.00982733, 52.7218
0, 1800.00000, 125.544, -30.7404, 125.717, -150.596, 125.865, 89.4565, 0, 0, 2.36016, -53.8143, 2.35691, -173.67, 2.35414, 66.3825, 0.00982733, 52.7218
0, 1860.00000, 125.544, -30.7404, 125.717, -150.596, 125.865, 89.4565, 0, 0, 2.36016, -53.8143, 2.35691, -173.67, 2.35414, 66.3825, 0.00982733, 52.7218
0, 1920.00000, 125.544, -30.7404, 125.717, -150.596, 125.865, 89.4565, 0, 0, 2.36016, -53.8143, 2.35691, -173.67, 2.35414, 66.3825, 0.00982733, 52.7218
0, 1980.00000, 125.544, -30.7404, 125.717, -150.596, 125.865, 89.4565, 0, 0, 2.36016, -53.8143, 2.35691, -173.67, 2.35414, 66.3825, 0.00982733, 52.7218
0, 2040.00000, 125.544, -30.7404, 125.717, -150.596, 125.865, 89.4565, 0, 0, 2.36016, -53.8143, 2.35691, -173.67, 2.35414, 66.3825, 0.00982733, 52.7218
0, 2100.00000, 125.544, -30.7404, 125.717, -150.596, 125.865, 89.4565, 0, 0, 2.36016, -53.8143, 2.35691, -173.67, 2.35414, 66.3825, 0.00982733, 52.7218
0, 2160.00000, 125.544, -30.7404, 125.717, -150.596, 125.865, 89.4565, 0, 0, 2.36016, -53.8143, 2.35691, -173.67, 2.35414, 66.3825, 0.00982733, 52.7218
0, 2220.00000, 125.544, -30.7404, 125.717, -150.596, 125.865, 89.4565, 0, 0, 2.36016, -53.8143, 2.35691, -173.67, 2.35414, 66.3825, 0.00982733, 52.7218
0, 2280.00000, 125.544, -30.7404, 125.717, -150.596, 125.865, 89.4565, 0, 0, 2.36016, -53.8143, 2.35691, -173.67, 2.35414, 66.3825, 0.00982733, 52.7218
0, 2340.00000, 125.544, -30.7404, 125.717, -150.596, 125.865, 89.4565, 0, 0, 2.36016, -53.8143, 2.35691, -173.67, 2.35414, 66.3825, 0.00982733, 52.7218
0, 2400.00000, 125.544, -30.7404, 125.717, -150.596, 125.865, 89.4565, 0, 0, 2.36016, -53.8143, 2.35691, -173.67, 2.35414, 66.3825, 0.00982733, 52.7218
0, 2460.00000, 125.544, -30.7404, 125.717, -150.596, 125.865, 89.4565, 0, 0, 2.36016, -53.8143, 2.35691, -173.67, 2.35414, 66.3825, 0.00982733, 52.7218
0, 2520.00000, 125.544, -30.7404, 125.717, -150.596, 125.865, 89.4565, 0, 0, 2.36016, -53.8143, 2.35691, -173.67, 2.35414, 66.3825, 0.00982733, 52.7218
0, 2580.00000, 125.544, -30.7404, 125.717, -150.596, 125.865, 89.4565, 0, 0, 2.36016, -53.8143, 2.35691, -173.67, 2.35414, 66.3825, 0.00982733, 52.7218
0, 2640.00000, 125.544, -30.7404, 125.717, -150.596, 125.865, 89.4565, 0, 0, 2.36016, -53.8143, 2.35691, -173.67, 2.35414, 66.3825, 0.00982733, 52.7218
0, 2700.00000, 125.544, -30.7404, 125.717, -150.596, 125.865, 89.4565, 0, 0, 2.36016, -53.8143, 2.35691, -173.67, 2.35414, 66.3825, 0.00982733, 52.7218
0, 2760.00000, 125.544, -30.7404, 125.717, -150.596, 125.865, 89.4565, 0, 0, 2.36016, -53.8143, 2.35691, -173.67, 2.35414, 66.3825, 0.00982733, 52.7218
0, 2820.00000, 125.544, -30.7404, 125.717, -150.596, 125.865, 89.4565, 0, 0, 2.36016, -53.8143, 2.35691, -173.67, 2.35414, 66.3825, 0.00982733, 52.7218
0, 2880.00000, 125.544, -30.7404, 125.717, -150.596, 125.865, 89.4565, 0, 0, 2.36016, -53.8143, 2.35691, -173.67, 2.35414, 66.3825, 0.00982733, 52.7218
0, 2940.00000, 125.544, -30.7404, 125.717, -150.596, 125.865, 89.4565, 0, 0, 2.36016, -53.8143, 2.35691, -173.67, 2.35414, 66.3825, 0.00982733, 52.7218
0, 3000.00000, 125.544, -30.7404, 125.717, -150.596, 125.865, 89.4565, 0, 0, 2.36016, -53.8143, 2.35691, -173.67, 2.35414, 66.3825, 0.00982733, 52.7218
0, 3060.00000, 125.544, -30.7404, 125.717, -150.596, 125.865, 89.4565, 0, 0, 2.36016, -53.8143, 2.35691, -173.67, 2.35414, 66.3825, 0.00982733, 52.7218
0, 3120.00000, 125.544, -30.7404, 125.717, -150.596, 125.865, 89.4565, 0, 0, 2.36016, -53.8143, 2.35691, -173.67, 2.35414, 66.3825, 0.00982733, 52.7218
0, 3180.00000, 125.544, -30.7404, 125.717, -150.596, 125.865, 89.4565, 0, 0, 2.36016, -53.8143, 2.35691, -173.67, 2.35414, 66.3825, 0.00982733, 52.7218
0, 3240.00000, 125.544, -30.7404, 125.717, -150.596, 125.865, 89.4565, 0, 0, 2.36016, -53.8143, 2.35691, -173.67, 2.35414, 66.3825, 0.00982733, 52.7218
0, 3300.00000, 125.544, -30.7404, 125.717, -150.596, 125.865, 89.4565, 0, 0, 2.36016, -53.8143, 2.35691, -173.67, 2.35414, 66.3825, 0.00982733, 52.7218
0, 3360.00000, 125.544, -30.7404, 125.717, -150.596, 125.865, 89.4565, 0, 0, 2.36016, -53.8143, 2.35691, -173.67, 2.35414, 66.3825, 0.00982733, 52.7218
0, 3420.00000, 125.544, -30.7404, 125.717, -150.596, 125.865, 89.4565, 0, 0, 2.36016, -53.8143, 2.35691, -173.67, 2.35414, 66.3825, 0.00982733, 52.7218
0, 3480.00000, 125.544, -30.7404, 125.717, -150.596, 125.865, 89.4565, 0, 0, 2.36016, -53.8143, 2.35691, -173.67, 2.35414, 66.3825, 0.00982733, 52.7218
0, 3540.00000, 125.544, -30.7404, 125.717, -150.596, 125.865, 89.4565, 0, 0, 2.36016, -53.8143, 2.35691, -173.67, 2.35414, 66.3825, 0.00982733, 52.7218
1, 0.00000, 125.544, -30.7404, 125.717, -150.596, 125.865, 89.4565, 0, 0, 2.36016, -53.8143, 2.35691, -173.67, 2.35414, 66.3825, 0.00982733, 52.7218
1, 60.00000, 125.544, -30.7404, 125.717, -150.596, 125.865, 89.4565, 0, 0, 2.36016, -53.8143, 2.35691, -173.67, 2.35414, 66.3825, 0.00982733, 52.7218
1, 120.00000, 125.544, -30.7404, 125.717, -150.596, 125.865, 89.4565, 0, 0, 2.36016, -53.8143, 2.35691, -173.67, 2.35414, 66.3825, 0.00982733, 52.7218
1, 180.00000, 125.544, -30.7404, 125.717, -150.596, 125.865, 89.4565, 0, 0, 2.36016, -53.8143, 2.35691, -173.67, 2.35414, 66.3825, 0.00982733, 52.7218
1, 240.00000, 125.544, -30.7404, 125.717, -150.596, 125.865, 89.4565, 0, 0, 2.36016, -53.8143, 2.35691, -173.67, 2.35414, 66.3825, 0.00982733, 52.7218
1, 300.00000, 125.544, -30.7404, 125.717, -150.596, 125.865, 89.4565, 0, 0, 2.36016, -53.8143, 2.35691, -173.67, 2.35414, 66.3825, 0.00982733, 52.7218
1, 360.00000, 125.544, -30.7404, 125.717, -150.596, 125.865, 89.4565, 0, 0, 2.36016, -53.8143, 2.35691, -173.67, 2.35414, 66.3825, 0.00982733, 52.7218
1, 420.00000, 125.544, -30.7404, 125.717, -150.596, 125.865, 89.4565, 0, 0, 2.36016, -53.8143, 2.35691, -173.67, 2.35414, 66.3825, 0.00982733, 52.7218
1, 480.00000, 125.544, -30.7404, 125.717, -150.596, 125.865, 89.4565, 0, 0, 2.36016, -53.8143, 2.35691, -173.67, 2.35414, 66.3825, 0.00982733, 52.7218
1, 540.00000, 125.544, -30.7404, 125.717, -150.596, 125.865, 89.4565, 0, 0, 2.36016, -53.8143, 2.35691, -173.67, 2.35414, 66.3825, 0.00982733, 52.7218
1, 600.00000, 125.544, -30.7404, 125.717, -150.596, 125.865, 89.4565, 0, 0, 2.36016, -53.8143, 2.35691, -173.67, 2.35414, 66.3825, 0.00982733, 52.7218
1, 660.00000, 125.665, -30.5743, 126.109, -150.554, 125.863, 89.4565, 0, 0, 2.35789, -53.6482, 2.34962, -173.628, 2.35418, 66.3826, 0.00632145, 153.711
1, 720.00000, 125.665, -30.5743, 126.109, -150.554, 125.863, 89.4565, 0, 0, 2.35788, -53.6482, 2.3496, -173.628, 2.35418, 66.3826, 0.00633826, 153.769
1, 780.00000, 125.665, -30.5743, 126.109, -150.554, 125.863, 89.4565, 0, 0, 2.35788, -53.6482, 2.3496, -173.628, 2.35418, 66.3826, 0.0063383, 153.769
1, 840.00000, 125.665, -30.5743, 126.109, -150.554, 125.863, 89.4565, 0, 0, 2.35788, -53.6482, 2.3496, -173.628, 2.35418, 66.3826, 0.0063383, 153.769
1, 900.00000, 125.665, -30.5743, 126.109, -150.554, 125.863, 89.4565, 0, 0, 2.35788, -53.6482, 2.3496, -173.628, 2.35418, 66.3826, 0.0063383, 153.769
1, 960.00000, 125.665, -30.5743, 126.109, -150.554, 125.863, 89.4565, 0, 0, 2.35788, -53.6482, 2.3496, -173.628, 2.35418, 66.3826, 0.0063383, 153.769
1, 1020.00000, 125.665, -30.5743, 126.109, -150.554, 125.863, 89.4565, 0, 0, 2.35788, -53.6482, 2.3496, -173.628, 2.35418, 66.3826, 0.0063383, 153.769
1, 1080.00000, 125.665, -30.5743, 126.109, -150.554, 125.863, 89.4565, 0, 0, 2.35788, -53.6482, 2.3496, -173.628, 2.35418, 66.3826, 0.0063383, 153.769
1, 1140.00000, 125.665, -30.5743, 126.109, -150.554, 125.863, 89.4565, 0, 0, 2.35788, -53.6482, 2.3496, -173.628, 2.35418, 66.3826, 0.0063383, 153.769
1, 1200.00000, 125.665, -30.5743, 126.109, -150.554, 125.863, 89.4565, 0, 0, 2.35788, -53.6482, 2.3496, -173.628, 2.35418, 66.3826, 0.0063383, 153.769
1, 1260.00000, 125.665, -30.5743, 126.109, -150.554, 125.863, 89.4565, 0, 0, 2.35788, -53.6482, 2.3496, -173.628, 2.35418, 66.3826, 0.0063383, 153.769
1, 1320.00000, 125.665, -30.5743, 126.109, -150.554, 125.863, 89.4565, 0, 0, 2.35788, -53.6482, 2.3496, -173.628, 2.35418, 66.3826, 0.0063383, 153.769
1, 1380.00000, 125.665, -30.5743, 126.109, -150.554, 125.863, 89.4565, 0, 0, 2.35788, -53.6482, 2.3496, -173.628, 2.35418, 66.3826, 0.0063383, 153.769
1, 1440.00000, 125.665, -30.5743, 126.109, -150.554, 125.863, 89.4565, 0, 0, 2.35788, -53.6482, 2.3496, -173.628, 2.35418, 66.3826, 0.0063383, 153.769
1, 1500.00000, 125.665, -30.5743, 126.109, -150.554, 125.863, 89.4565, 0, 0, 2.35788, -53.6482, 2.3496, -173.628, 2.35418, 66.3826, 0.0063383, 153.769
1, 1560.00000, 125.665, -30.5743, 126.109, -150.554, 125.863, 89.4565, 0, 0, 2.35788, -53.6482, 2.3496, -173.628, 2.35418, 66.3826, 0.0063383, 153.769
1, 1620.00000, 125.665, -30.5743, 126.109, -150.554, 125.863, 89.4565, 0, 0, 2.35788, -53.6482, 2.3496, -173.628, 2.35418, 66.3826, 0.0063383, 153.769
1, 1680.00000, 125.665, -30.5743, 126.109, -150.554, 125.863, 89.4565, 0, 0, 2.35788, -53.6482, 2.3496, -173.628, 2.35418, 66.3826, 0.0063383, 153.769
1, 1740.00000, 125.665, -30.5743, 126.109, -150.554, 125.863, 89.4565, 0, 0, 2.35788, -53.6482, 2.3496, -173.628, 2.35418, 66.3826, 0.0063383, 153.769
1, 1800.00000, 125.665, -30.5743, 126.109, -150.554, 125.863, 89.4565, 0, 0, 2.35788, -53.6482, 2.3496, -173.628, 2.35418, 66.3826, 0.0063383, 153.769
1, 1860.00000, 125.665, -30.5743, 126.109, -150.554, 125.863, 89.4565, 0, 0, 2.35788, -53.6482, 2.3496, -173.628, 2.35418, 66.3826, 0.0063383, 153.769
1, 1920.00000, 125.665, -30.5743, 126.109, -150.554, 125.863, 89.4565, 0, 0, 2.35788, -53.6482, 2.3496, -173.628, 2.35418, 66.3826, 0.0063383, 153.769
1, 1980.00000, 125.665, -30.5743, 126.109, -150.554, 125.863, 89.4565, 0, 0, 2.35788, -53.6482, 2.3496, -173.628, 2.35418, 66.3826, 0.0063383, 153.769
1, 2040.00000, 125.665, -30.5743, 126.109, -150.554, 125.863, 89.4565, 0, 0, 2.35788, -53.6482, 2.3496, -173.628, 2.35418, 66.3826, 0.0063383, 153.769
1, 2100.00000, 125.665, -30.5743, 126.109, -150.554, 125.863, 89.4565, 0, 0, 2.35788, -53.6482, 2.3496, -173.628, 2.35418, 66.3826, 0.0063383, 153.769
1, 2160.00000, 125.665, -30.5743, 126.109, -150.554, 125.863, 89.4565, 0, 0, 2.35788, -53.6482, 2.3496, -173.628, 2.35418, 66.3826, 0.0063383, 153.769
1, 2220.00000, 125.665, -30.5743, 126.109, -150.554, 125.863, 89.4565, 0, 0, 2.35788, -53.6482, 2.3496, -173.628, 2.35418, 66.3826, 0.0063383, 153.769
1, 2280.00000, 125.665, -30.5743, 126.109, -150.554, 125.863, 89.4565, 0, 0, 2.35788, -53.6482, 2.3496, -173.628, 2.35418, 66.3826, 0.0063383, 153.769
1, 2340.00000, 125.665, -30.5743, 126.109, -150.554, 125.863, 89.4565, 0, 0, 2.35788, -53.6482, 2.3496, -173.628, 2.35418, 66.3826, 0.0063383, 153.769
1, 2400.00000, 125.665, -30.5743, 126.109, -150.554, 125.863, 89.4565, 0, 0, 2.35788, -53.6482, 2.3496, -173.628, 2.35418, 66.3826, 0.0063383, 153.769
1, 2460.00000, 125.665, -30.5743, 126.109, -150.554, 125.863, 89.4565, 0, 0, 2.35788, -53.6482, 2.3496, -173.628, 2.35418, 66.3826, 0.0063383, 153.769
1, 2520.00000, 125.665, -30.5743, 126.109, -150.554, 125.863, 89.4565, 0, 0, 2.35788, -53.6482, 2.3496, -173.628, 2.35418, 66.3826, 0.0063383, 153.769
1, 2580.00000, 125.665, -30.5743, 126.109, -150.554, 125.863, 89.4565, 0, 0, 2.35788, -53.6482, 2.3496, -173.628, 2.35418, 66.3826, 0.0063383, 153.769
1, 2640.00000, 125.665, -30.5743, 126.109, -150.554, 125.863, 89.4565, 0, 0, 2.35788, -53.6482, 2.3496, -173.628, 2.35418, 66.3826, 0.0063383, 153.769
1, 2700.00000, 125.665, -30.5743, 126.109, -150.554, 125.863, 89.4565, 0, 0, 2.35788, -53.6482, 2.3496, -173.628, 2.35418, 66.3826, 0.0063383, 153.769
1, 2760.00000, 125.665, -30.5743, 126.109, -150.554, 125.863, 89.4565, 0, 0, 2.35788, -53.6482, 2.3496, -173.628, 2.35418, 66.3826, 0.0063383, 153.769
1, 2820.00000, 125.665, -30.5743, 126.109, -150.554, 125.863, 89.4565, 0, 0, 2.35788, -53.6482, 2.3496, -173.628, 2.35418, 66.3826, 0.0063383, 153.769
1, 2880.00000, 125.665, -30.5743, 126.109, -150.554, 125.863, 89.4565, 0, 0, 2.35788, -53.6482, 2.3496, -173.628, 2.35418, 66.3826, 0.0063383, 153.769
1, 2940.00000, 125.665, -30.5743, 126.109, -150.554, 125.863, 89.4565, 0, 0, 2.35788, -53.6482, 2.3496, -173.628, 2.35418, 66.3826, 0.0063383, 153.769
1, 3000.00000, 125.665, -30.5743, 126.109, -150.554, 125.863, 89.4565, 0, 0, 2.35788, -53.6482, 2.3496, -173.628, 2.35418, 66.3826, 0.0063383, 153.769
1, 3060.00000, 125.665, -30.5743, 126.109, -150.554, 125.863, 89.4565, 0, 0, 2.35788, -53.6482, 2.3496, -173.628, 2.35418, 66.3826, 0.0063383, 153.769
1, 3120.00000, 125.665, -30.5743, 126.109, -150.554, 125.863, 89.4565, 0, 0, 2.35788, -53.6482, 2.3496, -173.628, 2.35418, 66.3826, 0.0063383, 153.769
1, 3180.00000, 125.665, -30.5743, 126.109, -150.554, 125.863, 89.4565, 0, 0, 2.35788, -53.6482, 2.3496, -173.628, 2.35418, 66.3826, 0.0063383, 153.769
1, 3240.00000, 125.665, -30.5743, 126.109, -150.554, 125.863, 89.4565, 0, 0, 2.35788, -53.6482, 2.3496, -173.628, 2.35418, 66.3826, 0.0063383, 153.769
1, 3300.00000, 125.665, -30.5743, 126.109, -150.554, 125.863, 89.4565, 0, 0, 2.35788, -53.6482, 2.3496, -173.628, 2.35418, 66.3826, 0.0063383, 153.769
1, 3360.00000, 125.665, -30.5743, 126.109, -150.554, 125.863, 89.4565, 0, 0, 2.35788, -53.6482, 2.3496, -173.628, 2.35418, 66.3826, 0.0063383, 153.769
1, 3420.00000, 125.665, -30.5743, 126.109, -150.554, 125.863, 89.4565, 0, 0, 2.35788, -53.6482, 2.3496, -173.628, 2.35418, 66.3826, 0.0063383, 153.769
1, 3480.00000, 125.665, -30.5743, 126.109, -150.554, 125.863, 89.4565, 0, 0, 2.35788, -53.6482, 2.3496, -173.628, 2.35418, 66.3826, 0.0063383, 153.769
1, 3540.00000, 125.665, -30.5743, 126.109, -150.554, 125.863, 89.4565, 0, 0, 2.35788, -53.6482, 2.3496, -173.628, 2.35418, 66.3826, 0.0063383, 153.769
2, 0.00000, 125.665, -30.5743, 126.109, -150.554, 125.863, 89.4565, 0, 0, 2.35788, -53.6482, 2.3496, -173.628, 2.35418, 66.3826, 0.0063383, 153.769
2, 60.00000, 125.665, -30.5743, 126.109, -150.554, 125.863, 89.4565, 0, 0, 2.35788, -53.6482, 2.3496, -173.628, 2.35418, 66.3826, 0.0063383, 153.769
2, 120.00000, 125.66, -30.5754, 126.103, -150.555, 125.858, 89.4554, 0, 0, 2.36451, -53.6493, 2.35619, -173.629, 2.36079, 66.3815, 0.00636482, 153.727
2, 180.00000, 125.654, -30.5766, 126.098, -150.556, 125.852, 89.4543, 0, 0, 2.37123, -53.6505, 2.36287, -173.63, 2.36748, 66.3804, 0.00639159, 153.679
2, 240.00000, 125.648, -30.5778, 126.093, -150.557, 125.847, 89.4532, 0, 0, 2.37786, -53.6517, 2.36946, -173.631, 2.3741, 66.3793, 0.00641809, 153.632
2, 300.00000, 125.642, -30.579, 126.088, -150.558, 125.842, 89.4521, 0, 0, 2.38449, -53.6529, 2.37606, -173.632, 2.38071, 66.3783, 0.00644465, 153.585
2, 360.00000, 125.636, -30.5802, 126.083, -150.559, 125.836, 89.451, 0, 0, 2.39121, -53.654, 2.38274, -173.633, 2.38741, 66.3772, 0.00647159, 153.538
2, 420.00000, 125.63, -30.5814, 126.077, -150.56, 125.831, 89.45, 0, 0, 2.39784, -53.6552, 2.38934, -173.634, 2.39403, 66.3761, 0.00649826, 153.491
2, 480.00000, 125.625, -30.5826, 126.072, -150.562, 125.825, 89.4489, 0, 0, 2.40448, -53.6564, 2.39594, -173.635, 2.40064, 66.375, 0.00652499, 153.444
2, 540.00000, 125.619, -30.5838, 126.067, -150.563, 125.82, 89.4478, 0, 0, 2.4112, -53.6576, 2.40262, -173.637, 2.40734, 66.3739, 0.0065521, 153.397
2, 600.00000, 125.613, -30.5849, 126.062, -150.564, 125.815, 89.4467, 0, 0, 2.41783, -53.6588, 2.40922, -173.638, 2.41396, 66.3728, 0.00657894, 153.351
2, 660.00000, 125.607, -30.5861, 126.057, -150.565, 125.809, 89.4456, 0, 0, 2.42447, -53.66, 2.41583, -173.639, 2.42058, 66.3718, 0.00660584, 153.304
