hour,t(sec),V1,VAngle1,V2,VAngle2,V3,VAngle3,V4,VAngle4,I1,IAngle1,I2,IAngle2,I3,IAngle3,I4,IAngle4
0, 60.00000, 126.141, -31.0848, 129.077, -150.864, 127.684, 87.9745, 0, 0, 2.36881, -54.1587, 2.31495, -173.937, 2.34017, 64.9009, 0.0900736, 149.621
0, 120.00000, 126.141, -31.0857, 129.108, -150.866, 127.692, 87.9617, 0, 0, 2.36881, -54.1596, 2.3144, -173.94, 2.34003, 64.8881, 0.0909645, 149.801
0, 180.00000, 126.142, -31.0865, 129.135, -150.869, 127.7, 87.9501, 0, 0, 2.3688, -54.1604, 2.3139, -173.943, 2.33989, 64.8765, 0.091767, 149.96
0, 240.00000, 126.142, -31.0872, 129.16, -150.871, 127.706, 87.9397, 0, 0, 2.36879, -54.1612, 2.31346, -173.945, 2.33977, 64.8661, 0.0924898, 150.1
0, 300.00000, 126.543, -31.0446, 129.185, -150.869, 127.843, 88.1029, 0, 0, 2.36128, -54.1185, 2.313, -173.943, 2.33727, 65.0292, 0.0803707, 151.415
0, 360.00000, 126.543, -31.0452, 129.205, -150.871, 127.849, 88.0945, 0, 0, 2.36128, -54.1191, 2.31264, -173.945, 2.33717, 65.0207, 0.0809604, 151.535
0, 420.00000, 126.544, -31.0457, 129.223, -150.873, 127.853, 88.0869, 0, 0, 2.36128, -54.1196, 2.31232, -173.947, 2.33708, 65.0131, 0.0814914, 151.642
0, 480.00000, 126.544, -31.0462, 129.24, -150.874, 127.858, 88.08, 0, 0, 2.36127, -54.1201, 2.31203, -173.948, 2.33701, 65.0063, 0.0819696, 151.737
0, 540.00000, 126.544, -31.0466, 129.254, -150.876, 127.861, 88.0739, 0, 0, 2.36127, -54.1206, 2.31177, -173.949, 2.33694, 65.0001, 0.0824, 151.822
0, 600.00000, 126.544, -31.047, 129.267, -150.877, 127.865, 88.0683, 0, 0, 2.36127, -54.121, 2.31153, -173.951, 2.33687, 64.9946, 0.0827876, 151.897
0, 660.00000, 126.544, -31.0474, 129.279, -150.878, 127.868, 88.0634, 0, 0, 2.36126, -54.1213, 2.31132, -173.952, 2.33682, 64.9896, 0.0831366, 151.964
0, 720.00000, 126.544, -31.0477, 129.29, -150.879, 127.871, 88.0589, 0, 0, 2.36126, -54.1217, 2.31113, -173.953, 2.33676, 64.9851, 0.0834507, 152.024
0, 780.00000, 126.545, -31.048, 129.299, -150.88, 127.873, 88.0548, 0, 0, 2.36126, -54.1219, 2.31096, -173.954, 2.33672, 64.981, 0.0837335, 152.078
0, 840.00000, 126.545, -31.0483, 129.308, -150.881, 127.876, 88.0512, 0, 0, 2.36126, -54.1222, 2.3108, -173.954, 2.33668, 64.9774, 0.0839881, 152.126
0, 900.00000, 126.545, -31.0485, 129.316, -150.881, 127.878, 88.0479, 0, 0, 2.36125, -54.1224, 2.31066, -173.955, 2.33664, 64.9741, 0.0842173, 152.169
0, 960.00000, 126.545, -31.0487, 129.323, -150.882, 127.88, 88.045, 0, 0, 2.36125, -54.1226, 2.31054, -173.956, 2.33661, 64.9711, 0.0844236, 152.208
0, 1020.00000, 126.545, -31.0489, 129.329, -150.882, 127.881, 88.0423, 0, 0, 2.36125, -54.1228, 2.31042, -173.956, 2.33658, 64.9685, 0.0846093, 152.242
0, 1080.00000, 126.545, -31.0491, 129.335, -150.883, 127.883, 88.0399, 0, 0, 2.36125, -54.123, 2.31032, -173.957, 2.33655, 64.9661, 0.0847764, 152.273
0, 1140.00000, 126.545, -31.0492, 129.34, -150.883, 127.884, 88.0378, 0, 0, 2.36125, -54.1232, 2.31023, -173.957, 2.33653, 64.9639, 0.0849269, 152.301
0, 1200.00000, 126.545, -31.0494, 129.344, -150.884, 127.885, 88.0359, 0, 0, 2.36125, -54.1233, 2.31015, -173.958, 2.3365, 64.962, 0.0850623, 152.326
0, 1260.00000, 126.545, -31.0495, 129.349, -150.884, 127.886, 88.0341, 0, 0, 2.36125, -54.1234, 2.31007, -173.958, 2.33648, 64.9603, 0.0851842, 152.348
0, 1320.00000, 126.545, -31.0496, 129.352, -150.885, 127.887, 88.0326, 0, 0, 2.36125, -54.1235, 2.31001, -173.958, 2.33647, 64.9587, 0.0852939, 152.368
0, 1380.00000, 126.545, -31.0497, 129.356, -150.885, 127.888, 88.0312, 0, 0, 2.36125, -54.1236, 2.30995, -173.959, 2.33645, 64.9573, 0.0853927, 152.386
0, 1440.00000, 126.545, -31.0498, 129.359, -150.885, 127.889, 88.0299, 0, 0, 2.36125, -54.1237, 2.30989, -173.959, 2.33644, 64.956, 0.0854816, 152.402
0, 1500.00000, 126.545, -31.0499, 129.361, -150.885, 127.89, 88.0287, 0, 0, 2.36124, -54.1238, 2.30985, -173.959, 2.33642, 64.9549, 0.0855616, 152.417
0, 1560.00000, 126.545, -31.05, 129.364, -150.886, 127.89, 88.0277, 0, 0, 2.36124, -54.1239, 2.3098, -173.96, 2.33641, 64.9538, 0.0856336, 152.43
0, 1620.00000, 126.545, -31.05, 129.366, -150.886, 127.891, 88.0268, 0, 0, 2.36124, -54.124, 2.30976, -173.96, 2.3364, 64.9529, 0.0856984, 152.442
0, 1680.00000, 126.545, -31.0501, 129.368, -150.886, 127.891, 88.026, 0, 0, 2.36124, -54.124, 2.30973, -173.96, 2.33639, 64.9521, 0.0857567, 152.452
0, 1740.00000, 126.545, -31.0502, 129.37, -150.886, 127.892, 88.0252, 0, 0, 2.36124, -54.1241, 2.3097, -173.96, 2.33638, 64.9513, 0.0858093, 152.462
0, 1800.00000, 126.545, -31.0502, 129.371, -150.886, 127.892, 88.0245, 0, 0, 2.36124, -54.1241, 2.30967, -173.96, 2.33638, 64.9506, 0.0858565, 152.47
0, 1860.00000, 126.545, -31.0502, 129.373, -150.886, 127.893, 88.0239, 0, 0, 2.36124, -54.1242, 2.30964, -173.96, 2.33637, 64.95, 0.085899, 152.478
0, 1920.00000, 126.545, -31.0503, 129.374, -150.887, 127.893, 88.0234, 0, 0, 2.36124, -54.1242, 2.30962, -173.96, 2.33636, 64.9495, 0.0859373, 152.485
0, 1980.00000, 126.545, -31.0503, 129.375, -150.887, 127.893, 88.0229, 0, 0, 2.36124, -54.1242, 2.3096, -173.961, 2.33636, 64.949, 0.0859718, 152.491
0, 2040.00000, 126.545, -31.0504, 129.376, -150.887, 127.894, 88.0225, 0, 0, 2.36124, -54.1243, 2.30958, -173.961, 2.33635, 64.9485, 0.0860028, 152.497
0, 2100.00000, 126.545, -31.0504, 129.377, -150.887, 127.894, 88.022, 0, 0, 2.36124, -54.1243, 2.30956, -173.961, 2.33635, 64.9481, 0.0860307, 152.502
0, 2160.00000, 126.545, -31.0504, 129.378, -150.887, 127.894, 88.0217, 0, 0, 2.36124, -54.1243, 2.30955, -173.961, 2.33634, 64.9478, 0.0860558, 152.506
0, 2220.00000, 126.666, -30.881, 129.776, -150.846, 127.896, 88.0188, 0, 0, 2.359, -53.9549, 2.30247, -173.92, 2.33631, 64.9449, 0.0945995, 158.424
0, 2280.00000, 126.666, -30.881, 129.776, -150.846, 127.896, 88.0185, 0, 0, 2.359, -53.955, 2.30246, -173.92, 2.33631, 64.9446, 0.0946205, 158.426
0, 2340.00000, 126.666, -30.8811, 129.777, -150.846, 127.896, 88.0183, 0, 0, 2.359, -53.955, 2.30245, -173.92, 2.3363, 64.9444, 0.0946391, 158.428
0, 2400.00000, 126.666, -30.8811, 129.778, -150.846, 127.896, 88.018, 0, 0, 2.359, -53.955, 2.30244, -173.92, 2.3363, 64.9441, 0.094656, 158.43
0, 2460.00000, 126.666, -30.8811, 129.778, -150.846, 127.896, 88.0178, 0, 0, 2.359, -53.955, 2.30243, -173.92, 2.3363, 64.9439, 0.0946711, 158.431
0, 2520.00000, 126.666, -30.8811, 129.778, -150.846, 127.897, 88.0176, 0, 0, 2.359, -53.955, 2.30242, -173.92, 2.3363, 64.9437, 0.0946847, 158.433
0, 2580.00000, 126.666, -30.8811, 129.779, -150.846, 127.897, 88.0175, 0, 0, 2.359, -53.955, 2.30241, -173.92, 2.3363, 64.9436, 0.094697, 158.434
0, 2640.00000, 126.666, -30.8811, 129.779, -150.846, 127.897, 88.0173, 0, 0, 2.359, -53.955, 2.30241, -173.92, 2.33629, 64.9434, 0.094708, 158.435
0, 2700.00000, 126.666, -30.8811, 129.78, -150.846, 127.897, 88.0172, 0, 0, 2.359, -53.9551, 2.3024, -173.92, 2.33629, 64.9433, 0.0947179, 158.436
0, 2760.00000, 126.666, -30.8811, 129.78, -150.846, 127.897, 88.0171, 0, 0, 2.359, -53.9551, 2.30239, -173.92, 2.33629, 64.9431, 0.0947269, 158.437
0, 2820.00000, 126.666, -30.8812, 129.78, -150.846, 127.897, 88.0169, 0, 0, 2.359, -53.9551, 2.30239, -173.92, 2.33629, 64.943, 0.0947349, 158.437
0, 2880.00000, 126.666, -30.8812, 129.78, -150.846, 127.897, 88.0168, 0, 0, 2.359, -53.9551, 2.30239, -173.92, 2.33629, 64.9429, 0.0947421, 158.438
0, 2940.00000, 126.666, -30.8812, 129.781, -150.846, 127.897, 88.0167, 0, 0, 2.359, -53.9551, 2.30238, -173.92, 2.33629, 64.9428, 0.0947487, 158.439
0, 3000.00000, 126.666, -30.8812, 129.781, -150.846, 127.897, 88.0167, 0, 0, 2.359, -53.9551, 2.30238, -173.92, 2.33629, 64.9427, 0.0947545, 158.439
0, 3060.00000, 126.666, -30.8812, 129.781, -150.847, 127.897, 88.0166, 0, 0, 2.359, -53.9551, 2.30237, -173.92, 2.33629, 64.9427, 0.0947598, 158.44
0, 3120.00000, 126.666, -30.8812, 129.781, -150.847, 127.897, 88.0165, 0, 0, 2.359, -53.9551, 2.30237, -173.92, 2.33628, 64.9426, 0.0947646, 158.44
0, 3180.00000, 126.666, -30.8812, 129.781, -150.847, 127.897, 88.0165, 0, 0, 2.359, -53.9551, 2.30237, -173.92, 2.33628, 64.9426, 0.0947688, 158.441
0, 3240.00000, 126.666, -30.8812, 129.781, -150.847, 127.897, 88.0164, 0, 0, 2.359, -53.9551, 2.30237, -173.92, 2.33628, 64.9425, 0.0947727, 158.441
0, 3300.00000, 126.666, -30.8812, 129.781, -150.847, 127.897, 88.0164, 0, 0, 2.359, -53.9551, 2.30236, -173.92, 2.33628, 64.9424, 0.0947761, 158.441
0, 3360.00000, 126.666, -30.8812, 129.782, -150.847, 127.897, 88.0163, 0, 0, 2.359, -53.9551, 2.30236, -173.92, 2.33628, 64.9424, 0.0947793, 158.442
0, 3420.00000, 126.666, -30.8812, 129.782, -150.847, 127.897, 88.0163, 0, 0, 2.359, -53.9551, 2.30236, -173.92, 2.33628, 64.9424, 0.0947821, 158.442
0, 3480.00000, 126.666, -30.8812, 129.782, -150.847, 127.897, 88.0162, 0, 0, 2.359, -53.9551, 2.30236, -173.921, 2.33628, 64.9423, 0.0947846, 158.442
0, 3540.00000, 126.666, -30.8812, 129.782, -150.847, 127.897, 88.0162, 0, 0, 2.359, -53.9551, 2.30236, -173.921, 2.33628, 64.9423, 0.0947869, 158.442
1, 0.00000, 126.666, -30.8812, 129.782, -150.847, 127.897, 88.0162, 0, 0, 2.359, -53.9551, 2.30236, -173.921, 2.33628, 64.9423, 0.0947889, 158.443
1, 60.00000, 126.666, -30.8812, 129.782, -150.847, 127.897, 88.0162, 0, 0, 2.359, -53.9551, 2.30236, -173.921, 2.33628, 64.9422, 0.0947907, 158.443
1, 120.00000, 126.666, -30.8812, 129.782, -150.847, 127.897, 88.0161, 0, 0, 2.359, -53.9551, 2.30236, -173.921, 2.33628, 64.9422, 0.0947924, 158.443
1, 180.00000, 126.666, -30.8812, 129.782, -150.847, 127.897, 88.0161, 0, 0, 2.359, -53.9551, 2.30235, -173.921, 2.33628, 64.9422, 0.0947939, 158.443
1, 240.00000, 126.666, -30.8812, 129.782, -150.847, 127.897, 88.0161, 0, 0, 2.359, -53.9551, 2.30235, -173.921, 2.33628, 64.9422, 0.0947952, 158.443
1, 300.00000, 126.666, -30.8812, 129.782, -150.847, 127.898, 88.0161, 0, 0, 2.359, -53.9551, 2.30235, -173.921, 2.33628, 64.9422, 0.0947964, 158.443
1, 360.00000, 126.666, -30.8812, 129.782, -150.847, 127.898, 88.0161, 0, 0, 2.359, -53.9551, 2.30235, -173.921, 2.33628, 64.9421, 0.0947975, 158.443
1, 420.00000, 126.666, -30.8812, 129.782, -150.847, 127.898, 88.0161, 0, 0, 2.359, -53.9551, 2.30235, -173.921, 2.33628, 64.9421, 0.0947985, 158.444
1, 480.00000, 126.666, -30.8812, 129.782, -150.847, 127.898, 88.016, 0, 0, 2.359, -53.9551, 2.30235, -173.921, 2.33628, 64.9421, 0.0947994, 158.444
1, 540.00000, 126.666, -30.8812, 129.782, -150.847, 127.898, 88.016, 0, 0, 2.359, -53.9551, 2.30235, -173.921, 2.33628, 64.9421, 0.0948002, 158.444
1, 600.00000, 126.666, -30.8812, 129.782, -150.847, 127.898, 88.016, 0, 0, 2.359, -53.9551, 2.30235, -173.921, 2.33628, 64.9421, 0.0948009, 158.444
1, 660.00000, 127.053, -30.8411, 129.783, -150.844, 128.017, 88.1832, 0, 0, 2.35181, -53.915, 2.30233, -173.918, 2.3341, 65.1093, 0.0828177, 160.791
1, 720.00000, 127.053, -30.8411, 129.783, -150.844, 128.017, 88.1832, 0, 0, 2.35181, -53.915, 2.30233, -173.918, 2.3341, 65.1093, 0.0828184, 160.791
1, 780.00000, 127.177, -30.6696, 130.185, -150.8, 128.018, 88.1809, 0, 0, 2.34952, -53.7436, 2.29523, -173.874, 2.33408, 65.107, 0.0925809, 166.061
1, 840.00000, 127.177, -30.6696, 130.185, -150.8, 128.018, 88.1809, 0, 0, 2.34952, -53.7436, 2.29523, -173.874, 2.33408, 65.107, 0.0925816, 166.061
1, 900.00000, 127.177, -30.6696, 130.185, -150.8, 128.018, 88.1809, 0, 0, 2.34952, -53.7436, 2.29523, -173.874, 2.33408, 65.107, 0.092582, 166.061
1, 960.00000, 127.177, -30.6696, 130.185, -150.8, 128.018, 88.1809, 0, 0, 2.34952, -53.7436, 2.29523, -173.874, 2.33408, 65.107, 0.0925824, 166.061
1, 1020.00000, 127.177, -30.6696, 130.185, -150.8, 128.018, 88.1809, 0, 0, 2.34952, -53.7436, 2.29523, -173.874, 2.33408, 65.107, 0.0925828, 166.061
1, 1080.00000, 127.177, -30.6696, 130.185, -150.8, 128.018, 88.1809, 0, 0, 2.34952, -53.7436, 2.29523, -173.874, 2.33408, 65.107, 0.0925831, 166.061
1, 1140.00000, 127.177, -30.6696, 130.185, -150.8, 128.018, 88.1809, 0, 0, 2.34952, -53.7436, 2.29523, -173.874, 2.33408, 65.107, 0.0925834, 166.061
1, 1200.00000, 127.177, -30.6696, 130.185, -150.8, 128.018, 88.1809, 0, 0, 2.34952, -53.7436, 2.29523, -173.874, 2.33408, 65.107, 0.0925836, 166.061
1, 1260.00000, 127.177, -30.6696, 130.185, -150.8, 128.018, 88.1809, 0, 0, 2.34952, -53.7436, 2.29523, -173.874, 2.33408, 65.107, 0.0925838, 166.061
1, 1320.00000, 127.177, -30.6696, 130.185, -150.8, 128.018, 88.1809, 0, 0, 2.34952, -53.7436, 2.29523, -173.874, 2.33408, 65.107, 0.092584, 166.061
1, 1380.00000, 127.177, -30.6696, 130.185, -150.8, 128.018, 88.1809, 0, 0, 2.34952, -53.7436, 2.29523, -173.874, 2.33408, 65.107, 0.0925842, 166.061
1, 1440.00000, 127.177, -30.6696, 130.185, -150.8, 128.018, 88.1809, 0, 0, 2.34952, -53.7436, 2.29523, -173.874, 2.33408, 65.107, 0.0925844, 166.061
1, 1500.00000, 127.177, -30.6696, 130.185, -150.8, 128.018, 88.1809, 0, 0, 2.34952, -53.7436, 2.29523, -173.874, 2.33408, 65.107, 0.0925845, 166.061
1, 1560.00000, 127.177, -30.6696, 130.185, -150.8, 128.018, 88.1809, 0, 0, 2.34952, -53.7436, 2.29523, -173.874, 2.33408, 65.107, 0.0925847, 166.061
1, 1620.00000, 127.177, -30.6696, 130.185, -150.8, 128.018, 88.1809, 0, 0, 2.34952, -53.7436, 2.29523, -173.874, 2.33408, 65.107, 0.0925848, 166.061
1, 1680.00000, 127.177, -30.6696, 130.185, -150.8, 128.018, 88.1809, 0, 0, 2.34952, -53.7436, 2.29523, -173.874, 2.33408, 65.107, 0.0925849, 166.061
1, 1740.00000, 127.177, -30.6696, 130.185, -150.8, 128.018, 88.1809, 0, 0, 2.34952, -53.7436, 2.29523, -173.874, 2.33408, 65.107, 0.092585, 166.061
1, 1800.00000, 127.177, -30.6696, 130.185, -150.8, 128.018, 88.1809, 0, 0, 2.34952, -53.7436, 2.29523, -173.874, 2.33408, 65.107, 0.0925851, 166.061
1, 1860.00000, 127.177, -30.6696, 130.185, -150.8, 128.018, 88.1809, 0, 0, 2.34952, -53.7436, 2.29523, -173.874, 2.33408, 65.107, 0.0925852, 166.061
1, 1920.00000, 127.177, -30.6696, 130.185, -150.8, 128.018, 88.1809, 0, 0, 2.34952, -53.7436, 2.29523, -173.874, 2.33408, 65.107, 0.0925852, 166.061
1, 1980.00000, 127.177, -30.6696, 130.185, -150.8, 128.018, 88.1809, 0, 0, 2.34952, -53.7436, 2.29523, -173.874, 2.33408, 65.107, 0.0925853, 166.061
1, 2040.00000, 127.177, -30.6696, 130.185, -150.8, 128.018, 88.1809, 0, 0, 2.34952, -53.7436, 2.29523, -173.874, 2.33408, 65.107, 0.0925854, 166.061
1, 2100.00000, 127.177, -30.6696, 130.185, -150.8, 128.018, 88.1809, 0, 0, 2.34952, -53.7436, 2.29523, -173.874, 2.33408, 65.107, 0.0925854, 166.061
1, 2160.00000, 127.177, -30.6696, 130.185, -150.8, 128.018, 88.1809, 0, 0, 2.34952, -53.7436, 2.29523, -173.874, 2.33408, 65.107, 0.0925855, 166.061
1, 2220.00000, 127.177, -30.6696, 130.185, -150.8, 128.018, 88.1809, 0, 0, 2.34952, -53.7436, 2.29523, -173.874, 2.33408, 65.107, 0.0925855, 166.061
1, 2280.00000, 127.177, -30.6696, 130.185, -150.8, 128.018, 88.1809, 0, 0, 2.34952, -53.7436, 2.29523, -173.874, 2.33408, 65.107, 0.0925855, 166.061
1, 2340.00000, 127.177, -30.6696, 130.185, -150.8, 128.018, 88.1809, 0, 0, 2.34952, -53.7436, 2.29523, -173.874, 2.33408, 65.107, 0.0925856, 166.061
1, 2400.00000, 127.177, -30.6696, 130.185, -150.8, 128.018, 88.1809, 0, 0, 2.34952, -53.7436, 2.29523, -173.874, 2.33408, 65.107, 0.0925856, 166.061
1, 2460.00000, 127.177, -30.6696, 130.185, -150.8, 128.018, 88.1809, 0, 0, 2.34952, -53.7436, 2.29523, -173.874, 2.33408, 65.107, 0.0925856, 166.061
1, 2520.00000, 127.177, -30.6696, 130.185, -150.8, 128.018, 88.1809, 0, 0, 2.34952, -53.7436, 2.29523, -173.874, 2.33408, 65.107, 0.0925856, 166.061
1, 2580.00000, 127.177, -30.6696, 130.185, -150.8, 128.018, 88.1809, 0, 0, 2.34952, -53.7436, 2.29523, -173.874, 2.33408, 65.107, 0.0925857, 166.061
1, 2640.00000, 127.177, -30.6696, 130.185, -150.8, 128.018, 88.1809, 0, 0, 2.34952, -53.7436, 2.29523, -173.874, 2.33408, 65.107, 0.0925857, 166.061
1, 2700.00000, 127.177, -30.6696, 130.185, -150.8, 128.018, 88.1809, 0, 0, 2.34952, -53.7436, 2.29523, -173.874, 2.33408, 65.107, 0.0925857, 166.061
1, 2760.00000, 127.177, -30.6696, 130.185, -150.8, 128.018, 88.1809, 0, 0, 2.34952, -53.7436, 2.29523, -173.874, 2.33408, 65.107, 0.0925857, 166.061
1, 2820.00000, 127.177, -30.6696, 130.185, -150.8, 128.018, 88.1809, 0, 0, 2.34952, -53.7436, 2.29523, -173.874, 2.33408, 65.107, 0.0925857, 166.061
1, 2880.00000, 127.177, -30.6696, 130.185, -150.8, 128.018, 88.1809, 0, 0, 2.34952, -53.7436, 2.29523, -173.874, 2.33408, 65.107, 0.0925857, 166.061
1, 2940.00000, 127.177, -30.6696, 130.185, -150.8, 128.018, 88.1809, 0, 0, 2.34952, -53.7436, 2.29523, -173.874, 2.33408, 65.107, 0.0925858, 166.061
1, 3000.00000, 127.177, -30.6696, 130.185, -150.8, 128.018, 88.1809, 0, 0, 2.34952, -53.7436, 2.29523, -173.874, 2.33408, 65.107, 0.0925858, 166.061
1, 3060.00000, 127.177, -30.6696, 130.185, -150.8, 128.018, 88.1809, 0, 0, 2.34952, -53.7436, 2.29523, -173.874, 2.33408, 65.107, 0.0925858, 166.061
1, 3120.00000, 127.177, -30.6696, 130.185, -150.8, 128.018, 88.1809, 0, 0, 2.34952, -53.7436, 2.29523, -173.874, 2.33408, 65.107, 0.0925858, 166.061
1, 3180.00000, 127.177, -30.6696, 130.185, -150.8, 128.018, 88.1809, 0, 0, 2.34952, -53.7436, 2.29523, -173.874, 2.33408, 65.107, 0.0925858, 166.061
1, 3240.00000, 127.177, -30.6696, 130.185, -150.8, 128.018, 88.1809, 0, 0, 2.34952, -53.7436, 2.29523, -173.874, 2.33408, 65.107, 0.0925858, 166.061
1, 3300.00000, 127.177, -30.6696, 130.185, -150.8, 128.018, 88.1809, 0, 0, 2.34952, -53.7436, 2.29523, -173.874, 2.33408, 65.107, 0.0925858, 166.061
1, 3360.00000, 127.177, -30.6696, 130.185, -150.8, 128.018, 88.1809, 0, 0, 2.34952, -53.7436, 2.29523, -173.874, 2.33408, 65.107, 0.0925858, 166.061
1, 3420.00000, 127.177, -30.6696, 130.185, -150.8, 128.018, 88.1809, 0, 0, 2.34952, -53.7436, 2.29523, -173.874, 2.33408, 65.107, 0.0925858, 166.061
1, 3480.00000, 127.177, -30.6696, 130.185, -150.8, 128.018, 88.1809, 0, 0, 2.34952, -53.7436, 2.29523, -173.874, 2.33408, 65.107, 0.0925858, 166.061
1, 3540.00000, 127.177, -30.6696, 130.185, -150.8, 128.018, 88.1809, 0, 0, 2.34952, -53.7436, 2.29523, -173.874, 2.33408, 65.107, 0.0925858, 166.061
2, 0.00000, 127.177, -30.6696, 130.185, -150.8, 128.018, 88.1809, 0, 0, 2.34952, -53.7436, 2.29523, -173.874, 2.33408, 65.107, 0.0925858, 166.061
2, 60.00000, 127.177, -30.6696, 130.185, -150.8, 128.018, 88.1809, 0, 0, 2.34952, -53.7436, 2.29523, -173.874, 2.33408, 65.107, 0.0925858, 166.061
2, 120.00000, 127.173, -30.6708, 130.181, -150.801, 128.014, 88.1798, 0, 0, 2.35609, -53.7447, 2.30164, -173.875, 2.3406, 65.1059, 0.0928459, 166.059
2, 180.00000, 127.169, -30.6719, 130.178, -150.802, 128.011, 88.1787, 0, 0, 2.36274, -53.7458, 2.30813, -173.876, 2.34721, 65.1048, 0.093109, 166.057
2, 240.00000, 127.165, -30.673, 130.174, -150.803, 128.007, 88.1777, 0, 0, 2.36931, -53.747, 2.31455, -173.877, 2.35373, 65.1038, 0.0933691, 166.055
2, 300.00000, 127.162, -30.6742, 130.171, -150.805, 128.003, 88.1766, 0, 0, 2.37588, -53.7481, 2.32096, -173.878, 2.36026, 65.1027, 0.0936292, 166.053
2, 360.00000, 127.158, -30.6753, 130.167, -150.806, 128, 88.1755, 0, 0, 2.38253, -53.7492, 2.32745, -173.88, 2.36686, 65.1016, 0.0938924, 166.052
2, 420.00000, 127.154, -30.6764, 130.163, -150.807, 127.996, 88.1745, 0, 0, 2.3891, -53.7503, 2.33387, -173.881, 2.37339, 65.1006, 0.0941525, 166.05
2, 480.00000, 127.151, -30.6775, 130.16, -150.808, 127.992, 88.1734, 0, 0, 2.39567, -53.7515, 2.34028, -173.882, 2.37992, 65.0995, 0.0944127, 166.048
2, 540.00000, 127.147, -30.6787, 130.156, -150.809, 127.989, 88.1723, 0, 0, 2.40232, -53.7526, 2.34678, -173.883, 2.38652, 65.0984, 0.094676, 166.046
2, 600.00000, 127.143, -30.6798, 130.153, -150.81, 127.985, 88.1713, 0, 0, 2.40889, -53.7537, 2.35319, -173.884, 2.39305, 65.0974, 0.0949362, 166.044
2, 660.00000, 127.14, -30.6809, 130.149, -150.811, 127.981, 88.1702, 0, 0, 2.41546, -53.7549, 2.35961, -173.885, 2.39958, 65.0963, 0.0951964, 166.042
2, 720.00000, 127.136, -30.6821, 130.145, -150.812, 127.978, 88.1691, 0, 0, 2.42212, -53.756, 2.3661, -173.886, 2.40618, 65.0952, 0.0954598, 166.04
2, 780.00000, 127.132, -30.6832, 130.142, -150.813, 127.974, 88.1681, 0, 0, 2.42869, -53.7571, 2.37252, -173.887, 2.41271, 65.0942, 0.09572, 166.039
