hour,t(sec),V1,VAngle1,V2,VAngle2,V3,VAngle3,V4,VAngle4,I1,IAngle1,I2,IAngle2,I3,IAngle3,I4,IAngle4
0, 60.00000, 122.021, -30.4593, 123.769, -151.126, 121.35, 88.9603, 0, 0, 2.49417, -53.533, 2.45899, -174.2, 2.50794, 65.8868, 0.0699023, -150.149
0, 120.00000, 122.02, -30.4593, 123.769, -151.126, 121.35, 88.9603, 0, 0, 2.49424, -53.5333, 2.45901, -174.2, 2.50802, 65.8864, 0.0699612, -150.17
0, 180.00000, 122.02, -30.4593, 123.769, -151.126, 121.35, 88.9603, 0, 0, 2.49424, -53.5333, 2.45901, -174.2, 2.50802, 65.8864, 0.0699617, -150.171
0, 240.00000, 122.02, -30.4593, 123.769, -151.126, 121.35, 88.9603, 0, 0, 2.49424, -53.5333, 2.45901, -174.2, 2.50802, 65.8864, 0.0699617, -150.171
0, 300.00000, 122.145, -30.4679, 124.722, -150.744, 122.554, 88.7637, 0, 0, 2.49173, -53.5417, 2.44029, -173.818, 2.48351, 65.6886, 0.077109, 177.348
0, 360.00000, 122.146, -30.4679, 124.722, -150.744, 122.555, 88.7637, 0, 0, 2.49168, -53.5418, 2.44021, -173.818, 2.48337, 65.6898, 0.0770501, 177.291
0, 420.00000, 122.146, -30.4679, 124.722, -150.744, 122.555, 88.7637, 0, 0, 2.49168, -53.5418, 2.44021, -173.818, 2.48337, 65.6898, 0.0770494, 177.291
0, 480.00000, 122.146, -30.4679, 124.722, -150.744, 122.555, 88.7637, 0, 0, 2.49168, -53.5418, 2.44021, -173.818, 2.48337, 65.6898, 0.0770494, 177.291
0, 540.00000, 122.146, -30.4679, 124.722, -150.744, 122.555, 88.7637, 0, 0, 2.49168, -53.5418, 2.44021, -173.818, 2.48337, 65.6898, 0.0770494, 177.291
0, 600.00000, 122.146, -30.4679, 124.722, -150.744, 122.555, 88.7637, 0, 0, 2.49168, -53.5418, 2.44021, -173.818, 2.48337, 65.6898, 0.0770494, 177.291
0, 660.00000, 122.146, -30.4679, 124.722, -150.744, 122.555, 88.7637, 0, 0, 2.49168, -53.5418, 2.44021, -173.818, 2.48337, 65.6898, 0.0770494, 177.291
0, 720.00000, 122.146, -30.4679, 124.722, -150.744, 122.555, 88.7637, 0, 0, 2.49168, -53.5418, 2.44021, -173.818, 2.48337, 65.6898, 0.0770494, 177.291
0, 780.00000, 122.147, -30.4672, 124.85, -150.579, 122.956, 88.8089, 0, 0, 2.49167, -53.5412, 2.43771, -173.653, 2.47532, 65.7343, 0.0770459, 167.333
0, 840.00000, 122.147, -30.4672, 124.85, -150.579, 122.957, 88.8089, 0, 0, 2.49165, -53.5411, 2.4377, -173.653, 2.47525, 65.735, 0.0769979, 167.304
0, 900.00000, 122.147, -30.4672, 124.85, -150.579, 122.957, 88.8089, 0, 0, 2.49165, -53.5411, 2.4377, -173.653, 2.47525, 65.735, 0.0769975, 167.304
0, 960.00000, 120.216, -30.2173, 125, -150.561, 121.305, 88.2708, 0, 0, 2.5118, -53.2897, 2.43481, -173.635, 2.50886, 65.1964, 0.134301, 177.383
0, 1020.00000, 120.216, -30.2173, 125, -150.56, 121.304, 88.2707, 0, 0, 2.51179, -53.2912, 2.43479, -173.634, 2.50896, 65.1968, 0.134298, 177.399
0, 1080.00000, 120.216, -30.2173, 125, -150.56, 121.304, 88.2707, 0, 0, 2.51179, -53.2912, 2.43479, -173.634, 2.50896, 65.1968, 0.134298, 177.399
0, 1140.00000, 120.216, -30.2173, 125, -150.56, 121.304, 88.2707, 0, 0, 2.51179, -53.2912, 2.43479, -173.634, 2.50896, 65.1968, 0.134298, 177.399
0, 1200.00000, 120.216, -30.2173, 125, -150.56, 121.304, 88.2707, 0, 0, 2.51179, -53.2912, 2.43479, -173.634, 2.50896, 65.1968, 0.134298, 177.399
0, 1260.00000, 120.216, -30.2173, 125, -150.56, 121.304, 88.2707, 0, 0, 2.51179, -53.2912, 2.43479, -173.634, 2.50896, 65.1968, 0.134298, 177.399
0, 1320.00000, 120.216, -30.2173, 125, -150.56, 121.304, 88.2707, 0, 0, 2.51179, -53.2912, 2.43479, -173.634, 2.50896, 65.1968, 0.134298, 177.399
0, 1380.00000, 120.216, -30.2173, 125, -150.56, 121.304, 88.2707, 0, 0, 2.51179, -53.2912, 2.43479, -173.634, 2.50896, 65.1968, 0.134298, 177.399
0, 1440.00000, 120.216, -30.2173, 125, -150.56, 121.304, 88.2707, 0, 0, 2.51179, -53.2912, 2.43479, -173.634, 2.50896, 65.1968, 0.134298, 177.399
0, 1500.00000, 120.216, -30.2173, 125, -150.56, 121.304, 88.2707, 0, 0, 2.51179, -53.2912, 2.43479, -173.634, 2.50896, 65.1968, 0.134298, 177.399
0, 1560.00000, 120.216, -30.2173, 125, -150.56, 121.304, 88.2707, 0, 0, 2.51179, -53.2912, 2.43479, -173.634, 2.50896, 65.1968, 0.134298, 177.399
0, 1620.00000, 120.216, -30.2173, 125, -150.56, 121.304, 88.2707, 0, 0, 2.51179, -53.2912, 2.43479, -173.634, 2.50896, 65.1968, 0.134298, 177.399
0, 1680.00000, 120.216, -30.2173, 125, -150.56, 121.304, 88.2707, 0, 0, 2.51179, -53.2912, 2.43479, -173.634, 2.50896, 65.1968, 0.134298, 177.399
0, 1740.00000, 120.216, -30.2173, 125, -150.56, 121.304, 88.2707, 0, 0, 2.51179, -53.2912, 2.43479, -173.634, 2.50896, 65.1968, 0.134298, 177.399
0, 1800.00000, 120.216, -30.2173, 125, -150.56, 121.304, 88.2707, 0, 0, 2.51179, -53.2912, 2.43479, -173.634, 2.50896, 65.1968, 0.134298, 177.399
0, 1860.00000, 120.216, -30.2173, 125, -150.56, 121.304, 88.2707, 0, 0, 2.51179, -53.2912, 2.43479, -173.634, 2.50896, 65.1968, 0.134298, 177.399
0, 1920.00000, 120.216, -30.2173, 125, -150.56, 121.304, 88.2707, 0, 0, 2.51179, -53.2912, 2.43479, -173.634, 2.50896, 65.1968, 0.134298, 177.399
0, 1980.00000, 120.216, -30.2173, 125, -150.56, 121.304, 88.2707, 0, 0, 2.51179, -53.2912, 2.43479, -173.634, 2.50896, 65.1968, 0.134298, 177.399
0, 2040.00000, 120.216, -30.2173, 125, -150.56, 121.304, 88.2707, 0, 0, 2.51179, -53.2912, 2.43479, -173.634, 2.50896, 65.1968, 0.134298, 177.399
0, 2100.00000, 120.216, -30.2173, 125, -150.56, 121.304, 88.2707, 0, 0, 2.51179, -53.2912, 2.43479, -173.634, 2.50896, 65.1968, 0.134298, 177.399
0, 2160.00000, 120.216, -30.2173, 125, -150.56, 121.304, 88.2707, 0, 0, 2.51179, -53.2912, 2.43479, -173.634, 2.50896, 65.1968, 0.134298, 177.399
0, 2220.00000, 120.607, -30.178, 125, -150.561, 121.426, 88.4406, 0, 0, 2.52082, -53.2523, 2.43478, -173.635, 2.50647, 65.3665, 0.133636, 175.082
0, 2280.00000, 120.607, -30.178, 125, -150.561, 121.426, 88.4406, 0, 0, 2.52085, -53.2519, 2.43479, -173.635, 2.50645, 65.3666, 0.13365, 175.071
0, 2340.00000, 120.607, -30.178, 125, -150.561, 121.426, 88.4406, 0, 0, 2.52085, -53.2519, 2.43479, -173.635, 2.50645, 65.3666, 0.13365, 175.071
0, 2400.00000, 120.607, -30.178, 125, -150.561, 121.426, 88.4406, 0, 0, 2.52085, -53.2519, 2.43479, -173.635, 2.50645, 65.3666, 0.13365, 175.071
0, 2460.00000, 120.607, -30.178, 125, -150.561, 121.426, 88.4406, 0, 0, 2.52085, -53.2519, 2.43479, -173.635, 2.50645, 65.3666, 0.13365, 175.071
0, 2520.00000, 120.607, -30.178, 125, -150.561, 121.426, 88.4406, 0, 0, 2.52085, -53.2519, 2.43479, -173.635, 2.50645, 65.3666, 0.13365, 175.071
0, 2580.00000, 120.607, -30.178, 125, -150.561, 121.426, 88.4406, 0, 0, 2.52085, -53.2519, 2.43479, -173.635, 2.50645, 65.3666, 0.13365, 175.071
0, 2640.00000, 120.607, -30.178, 125, -150.561, 121.426, 88.4406, 0, 0, 2.52085, -53.2519, 2.43479, -173.635, 2.50645, 65.3666, 0.13365, 175.071
0, 2700.00000, 120.607, -30.178, 125, -150.561, 121.426, 88.4406, 0, 0, 2.52085, -53.2519, 2.43479, -173.635, 2.50645, 65.3666, 0.13365, 175.071
0, 2760.00000, 120.607, -30.178, 125, -150.561, 121.426, 88.4406, 0, 0, 2.52085, -53.2519, 2.43479, -173.635, 2.50645, 65.3666, 0.13365, 175.071
0, 2820.00000, 120.607, -30.178, 125, -150.561, 121.426, 88.4406, 0, 0, 2.52085, -53.2519, 2.43479, -173.635, 2.50645, 65.3666, 0.13365, 175.071
0, 2880.00000, 120.607, -30.178, 125, -150.561, 121.426, 88.4406, 0, 0, 2.52085, -53.2519, 2.43479, -173.635, 2.50645, 65.3666, 0.13365, 175.071
0, 2940.00000, 120.607, -30.178, 125, -150.561, 121.426, 88.4406, 0, 0, 2.52085, -53.2519, 2.43479, -173.635, 2.50645, 65.3666, 0.13365, 175.071
0, 3000.00000, 120.607, -30.178, 125, -150.561, 121.426, 88.4406, 0, 0, 2.52085, -53.2519, 2.43479, -173.635, 2.50645, 65.3666, 0.13365, 175.071
0, 3060.00000, 120.607, -30.178, 125, -150.561, 121.426, 88.4406, 0, 0, 2.52085, -53.2519, 2.43479, -173.635, 2.50645, 65.3666, 0.13365, 175.071
0, 3120.00000, 120.607, -30.178, 125, -150.561, 121.426, 88.4406, 0, 0, 2.52085, -53.2519, 2.43479, -173.635, 2.50645, 65.3666, 0.13365, 175.071
0, 3180.00000, 120.607, -30.178, 125, -150.561, 121.426, 88.4406, 0, 0, 2.52085, -53.2519, 2.43479, -173.635, 2.50645, 65.3666, 0.13365, 175.071
0, 3240.00000, 120.607, -30.178, 125, -150.561, 121.426, 88.4406, 0, 0, 2.52085, -53.2519, 2.43479, -173.635, 2.50645, 65.3666, 0.13365, 175.071
0, 3300.00000, 120.607, -30.178, 125, -150.561, 121.426, 88.4406, 0, 0, 2.52085, -53.2519, 2.43479, -173.635, 2.50645, 65.3666, 0.13365, 175.071
0, 3360.00000, 120.607, -30.178, 125, -150.561, 121.426, 88.4406, 0, 0, 2.52085, -53.2519, 2.43479, -173.635, 2.50645, 65.3666, 0.13365, 175.071
0, 3420.00000, 120.607, -30.178, 125, -150.561, 121.426, 88.4406, 0, 0, 2.52085, -53.2519, 2.43479, -173.635, 2.50645, 65.3666, 0.13365, 175.071
0, 3480.00000, 120.607, -30.178, 125, -150.561, 121.426, 88.4406, 0, 0, 2.52085, -53.2519, 2.43479, -173.635, 2.50645, 65.3666, 0.13365, 175.071
0, 3540.00000, 122.563, -30.4265, 124.846, -150.579, 123.091, 88.9809, 0, 0, 2.48336, -53.5016, 2.43773, -173.652, 2.47271, 65.9063, 0.0643317, 172.364
1, 0.00000, 122.564, -30.4264, 124.846, -150.579, 123.092, 88.981, 0, 0, 2.48318, -53.5003, 2.43778, -173.653, 2.47252, 65.9071, 0.0641016, 172.366
1, 60.00000, 122.564, -30.4264, 124.846, -150.579, 123.092, 88.981, 0, 0, 2.48318, -53.5003, 2.43778, -173.653, 2.47252, 65.9071, 0.0641002, 172.366
1, 120.00000, 122.564, -30.4264, 124.846, -150.579, 123.092, 88.981, 0, 0, 2.48318, -53.5003, 2.43778, -173.653, 2.47252, 65.9071, 0.0641002, 172.366
1, 180.00000, 122.564, -30.4264, 124.846, -150.579, 123.092, 88.981, 0, 0, 2.48318, -53.5003, 2.43778, -173.653, 2.47252, 65.9071, 0.0641002, 172.366
1, 240.00000, 122.564, -30.4264, 124.846, -150.579, 123.092, 88.981, 0, 0, 2.48318, -53.5003, 2.43778, -173.653, 2.47252, 65.9071, 0.0641002, 172.366
1, 300.00000, 122.564, -30.4264, 124.846, -150.579, 123.092, 88.981, 0, 0, 2.48318, -53.5003, 2.43778, -173.653, 2.47252, 65.9071, 0.0641002, 172.366
1, 360.00000, 122.564, -30.4264, 124.846, -150.579, 123.092, 88.981, 0, 0, 2.48318, -53.5003, 2.43778, -173.653, 2.47252, 65.9071, 0.0641002, 172.366
1, 420.00000, 122.564, -30.4264, 124.846, -150.579, 123.092, 88.981, 0, 0, 2.48318, -53.5003, 2.43778, -173.653, 2.47252, 65.9071, 0.0641002, 172.366
1, 480.00000, 122.564, -30.4264, 124.846, -150.579, 123.092, 88.981, 0, 0, 2.48318, -53.5003, 2.43778, -173.653, 2.47252, 65.9071, 0.0641002, 172.366
1, 540.00000, 122.564, -30.4264, 124.846, -150.579, 123.092, 88.981, 0, 0, 2.48318, -53.5003, 2.43778, -173.653, 2.47252, 65.9071, 0.0641002, 172.366
1, 600.00000, 122.564, -30.4264, 124.846, -150.579, 123.092, 88.981, 0, 0, 2.48318, -53.5003, 2.43778, -173.653, 2.47252, 65.9071, 0.0641002, 172.366
1, 660.00000, 122.564, -30.4263, 124.97, -150.415, 123.489, 89.0253, 0, 0, 2.48319, -53.5002, 2.43537, -173.488, 2.46463, 65.9509, 0.065457, 160.703
1, 720.00000, 122.564, -30.4262, 124.97, -150.415, 123.489, 89.0254, 0, 0, 2.48318, -53.5002, 2.43536, -173.488, 2.46457, 65.9514, 0.0654217, 160.668
1, 780.00000, 124.179, -30.6004, 124.847, -150.429, 124.818, 89.4713, 0, 0, 2.451, -53.6756, 2.43772, -173.502, 2.43844, 66.397, 0.0172629, 110.882
1, 840.00000, 124.179, -30.6003, 124.847, -150.429, 124.818, 89.4713, 0, 0, 2.45087, -53.6742, 2.43777, -173.502, 2.43832, 66.3974, 0.0171747, 110.496
1, 900.00000, 124.179, -30.6003, 124.847, -150.429, 124.818, 89.4713, 0, 0, 2.45087, -53.6742, 2.43777, -173.502, 2.43832, 66.3974, 0.0171743, 110.494
1, 960.00000, 124.179, -30.6003, 124.847, -150.429, 124.818, 89.4713, 0, 0, 2.45087, -53.6742, 2.43777, -173.502, 2.43832, 66.3974, 0.0171743, 110.494
1, 1020.00000, 124.179, -30.6003, 124.847, -150.429, 124.818, 89.4713, 0, 0, 2.45087, -53.6742, 2.43777, -173.502, 2.43832, 66.3974, 0.0171743, 110.494
1, 1080.00000, 124.179, -30.6003, 124.847, -150.429, 124.818, 89.4713, 0, 0, 2.45087, -53.6742, 2.43777, -173.502, 2.43832, 66.3974, 0.0171743, 110.494
1, 1140.00000, 124.179, -30.6003, 124.847, -150.429, 124.818, 89.4713, 0, 0, 2.45087, -53.6742, 2.43777, -173.502, 2.43832, 66.3974, 0.0171743, 110.494
1, 1200.00000, 124.179, -30.6003, 124.847, -150.429, 124.818, 89.4713, 0, 0, 2.45087, -53.6742, 2.43777, -173.502, 2.43832, 66.3974, 0.0171743, 110.494
1, 1260.00000, 124.179, -30.6003, 124.847, -150.429, 124.818, 89.4713, 0, 0, 2.45087, -53.6742, 2.43777, -173.502, 2.43832, 66.3974, 0.0171743, 110.494
1, 1320.00000, 124.179, -30.6003, 124.847, -150.429, 124.818, 89.4713, 0, 0, 2.45087, -53.6742, 2.43777, -173.502, 2.43832, 66.3974, 0.0171743, 110.494
1, 1380.00000, 124.179, -30.6003, 124.847, -150.429, 124.818, 89.4713, 0, 0, 2.45087, -53.6742, 2.43777, -173.502, 2.43832, 66.3974, 0.0171743, 110.494
1, 1440.00000, 124.179, -30.6003, 124.847, -150.429, 124.818, 89.4713, 0, 0, 2.45087, -53.6742, 2.43777, -173.502, 2.43832, 66.3974, 0.0171743, 110.494
1, 1500.00000, 124.179, -30.6003, 124.847, -150.429, 124.818, 89.4713, 0, 0, 2.45087, -53.6742, 2.43777, -173.502, 2.43832, 66.3974, 0.0171743, 110.494
1, 1560.00000, 124.179, -30.6003, 124.847, -150.429, 124.818, 89.4713, 0, 0, 2.45087, -53.6742, 2.43777, -173.502, 2.43832, 66.3974, 0.0171743, 110.494
1, 1620.00000, 124.179, -30.6003, 124.847, -150.429, 124.818, 89.4713, 0, 0, 2.45087, -53.6742, 2.43777, -173.502, 2.43832, 66.3974, 0.0171743, 110.494
1, 1680.00000, 124.179, -30.6003, 124.847, -150.429, 124.818, 89.4713, 0, 0, 2.45087, -53.6742, 2.43777, -173.502, 2.43832, 66.3974, 0.0171743, 110.494
1, 1740.00000, 124.179, -30.6003, 124.847, -150.429, 124.818, 89.4713, 0, 0, 2.45087, -53.6742, 2.43777, -173.502, 2.43832, 66.3974, 0.0171743, 110.494
1, 1800.00000, 124.179, -30.6003, 124.847, -150.429, 124.818, 89.4713, 0, 0, 2.45087, -53.6742, 2.43777, -173.502, 2.43832, 66.3974, 0.0171743, 110.494
1, 1860.00000, 124.179, -30.6003, 124.847, -150.429, 124.818, 89.4713, 0, 0, 2.45087, -53.6742, 2.43777, -173.502, 2.43832, 66.3974, 0.0171743, 110.494
1, 1920.00000, 124.179, -30.6003, 124.847, -150.429, 124.818, 89.4713, 0, 0, 2.45087, -53.6742, 2.43777, -173.502, 2.43832, 66.3974, 0.0171743, 110.494
1, 1980.00000, 124.179, -30.6003, 124.847, -150.429, 124.818, 89.4713, 0, 0, 2.45087, -53.6742, 2.43777, -173.502, 2.43832, 66.3974, 0.0171743, 110.494
1, 2040.00000, 124.179, -30.6003, 124.847, -150.429, 124.818, 89.4713, 0, 0, 2.45087, -53.6742, 2.43777, -173.502, 2.43832, 66.3974, 0.0171743, 110.494
1, 2100.00000, 124.179, -30.6003, 124.847, -150.429, 124.818, 89.4713, 0, 0, 2.45087, -53.6742, 2.43777, -173.502, 2.43832, 66.3974, 0.0171743, 110.494
1, 2160.00000, 124.179, -30.6003, 124.847, -150.429, 124.818, 89.4713, 0, 0, 2.45087, -53.6742, 2.43777, -173.502, 2.43832, 66.3974, 0.0171743, 110.494
1, 2220.00000, 124.179, -30.6003, 124.847, -150.429, 124.818, 89.4713, 0, 0, 2.45087, -53.6742, 2.43777, -173.502, 2.43832, 66.3974, 0.0171743, 110.494
1, 2280.00000, 124.179, -30.6003, 124.847, -150.429, 124.818, 89.4713, 0, 0, 2.45087, -53.6742, 2.43777, -173.502, 2.43832, 66.3974, 0.0171743, 110.494
1, 2340.00000, 124.179, -30.6003, 124.847, -150.429, 124.818, 89.4713, 0, 0, 2.45087, -53.6742, 2.43777, -173.502, 2.43832, 66.3974, 0.0171743, 110.494
1, 2400.00000, 124.179, -30.6003, 124.847, -150.429, 124.818, 89.4713, 0, 0, 2.45087, -53.6742, 2.43777, -173.502, 2.43832, 66.3974, 0.0171743, 110.494
1, 2460.00000, 124.179, -30.6003, 124.847, -150.429, 124.818, 89.4713, 0, 0, 2.45087, -53.6742, 2.43777, -173.502, 2.43832, 66.3974, 0.0171743, 110.494
1, 2520.00000, 124.179, -30.6003, 124.847, -150.429, 124.818, 89.4713, 0, 0, 2.45087, -53.6742, 2.43777, -173.502, 2.43832, 66.3974, 0.0171743, 110.494
1, 2580.00000, 124.179, -30.6003, 124.847, -150.429, 124.818, 89.4713, 0, 0, 2.45087, -53.6742, 2.43777, -173.502, 2.43832, 66.3974, 0.0171743, 110.494
1, 2640.00000, 124.179, -30.6003, 124.847, -150.429, 124.818, 89.4713, 0, 0, 2.45087, -53.6742, 2.43777, -173.502, 2.43832, 66.3974, 0.0171743, 110.494
1, 2700.00000, 124.179, -30.6003, 124.847, -150.429, 124.818, 89.4713, 0, 0, 2.45087, -53.6742, 2.43777, -173.502, 2.43832, 66.3974, 0.0171743, 110.494
1, 2760.00000, 124.179, -30.6003, 124.847, -150.429, 124.818, 89.4713, 0, 0, 2.45087, -53.6742, 2.43777, -173.502, 2.43832, 66.3974, 0.0171743, 110.494
1, 2820.00000, 124.179, -30.6003, 124.847, -150.429, 124.818, 89.4713, 0, 0, 2.45087, -53.6742, 2.43777, -173.502, 2.43832, 66.3974, 0.0171743, 110.494
1, 2880.00000, 124.179, -30.6003, 124.847, -150.429, 124.818, 89.4713, 0, 0, 2.45087, -53.6742, 2.43777, -173.502, 2.43832, 66.3974, 0.0171743, 110.494
1, 2940.00000, 124.179, -30.6003, 124.847, -150.429, 124.818, 89.4713, 0, 0, 2.45087, -53.6742, 2.43777, -173.502, 2.43832, 66.3974, 0.0171743, 110.494
1, 3000.00000, 124.179, -30.6003, 124.847, -150.429, 124.818, 89.4713, 0, 0, 2.45087, -53.6742, 2.43777, -173.502, 2.43832, 66.3974, 0.0171743, 110.494
1, 3060.00000, 124.179, -30.6003, 124.847, -150.429, 124.818, 89.4713, 0, 0, 2.45087, -53.6742, 2.43777, -173.502, 2.43832, 66.3974, 0.0171743, 110.494
1, 3120.00000, 124.179, -30.6003, 124.847, -150.429, 124.818, 89.4713, 0, 0, 2.45087, -53.6742, 2.43777, -173.502, 2.43832, 66.3974, 0.0171743, 110.494
1, 3180.00000, 124.179, -30.6003, 124.847, -150.429, 124.818, 89.4713, 0, 0, 2.45087, -53.6742, 2.43777, -173.502, 2.43832, 66.3974, 0.0171743, 110.494
1, 3240.00000, 124.179, -30.6003, 124.847, -150.429, 124.818, 89.4713, 0, 0, 2.45087, -53.6742, 2.43777, -173.502, 2.43832, 66.3974, 0.0171743, 110.494
1, 3300.00000, 124.179, -30.6003, 124.847, -150.429, 124.818, 89.4713, 0, 0, 2.45087, -53.6742, 2.43777, -173.502, 2.43832, 66.3974, 0.0171743, 110.494
1, 3360.00000, 124.179, -30.6003, 124.847, -150.429, 124.818, 89.4713, 0, 0, 2.45087, -53.6742, 2.43777, -173.502, 2.43832, 66.3974, 0.0171743, 110.494
1, 3420.00000, 124.179, -30.6003, 124.847, -150.429, 124.818, 89.4713, 0, 0, 2.45087, -53.6742, 2.43777, -173.502, 2.43832, 66.3974, 0.0171743, 110.494
1, 3480.00000, 124.581, -30.557, 124.843, -150.428, 124.944, 89.6374, 0, 0, 2.44303, -53.6316, 2.43783, -173.502, 2.43588, 66.5632, 0.00937877, 60.0935
1, 3540.00000, 124.581, -30.557, 124.843, -150.428, 124.944, 89.6374, 0, 0, 2.44297, -53.6309, 2.43785, -173.502, 2.43587, 66.5635, 0.00935716, 59.7075
2, 0.00000, 124.581, -30.557, 124.843, -150.428, 124.944, 89.6374, 0, 0, 2.44297, -53.6309, 2.43785, -173.502, 2.43587, 66.5635, 0.00935709, 59.706
2, 60.00000, 124.581, -30.557, 124.843, -150.428, 124.944, 89.6374, 0, 0, 2.44297, -53.6309, 2.43785, -173.502, 2.43587, 66.5635, 0.00935709, 59.7059
2, 120.00000, 124.572, -30.558, 124.835, -150.429, 124.936, 89.6365, 0, 0, 2.44989, -53.6319, 2.44474, -173.503, 2.44275, 66.5627, 0.00939332, 59.7705
2, 180.00000, 124.563, -30.559, 124.827, -150.43, 124.928, 89.6357, 0, 0, 2.45691, -53.6329, 2.45172, -173.504, 2.44973, 66.5618, 0.00942898, 59.8564
2, 240.00000, 124.555, -30.56, 124.819, -150.431, 124.92, 89.6349, 0, 0, 2.46384, -53.6339, 2.45862, -173.505, 2.45663, 66.561, 0.00946425, 59.9418
2, 300.00000, 124.546, -30.561, 124.812, -150.432, 124.912, 89.634, 0, 0, 2.47077, -53.6349, 2.46551, -173.506, 2.46353, 66.5602, 0.00949962, 60.0269
2, 360.00000, 124.537, -30.5621, 124.804, -150.433, 124.904, 89.6332, 0, 0, 2.47779, -53.6359, 2.4725, -173.507, 2.47051, 66.5593, 0.0095355, 60.1126
2, 420.00000, 124.528, -30.5631, 124.796, -150.434, 124.896, 89.6323, 0, 0, 2.48473, -53.6369, 2.4794, -173.507, 2.47741, 66.5585, 0.009571, 60.1977
2, 480.00000, 124.52, -30.5641, 124.788, -150.434, 124.888, 89.6315, 0, 0, 2.49166, -53.6379, 2.4863, -173.508, 2.48431, 66.5577, 0.0096066, 60.2824
2, 540.00000, 124.511, -30.5651, 124.781, -150.435, 124.88, 89.6307, 0, 0, 2.49868, -53.639, 2.49328, -173.509, 2.4913, 66.5568, 0.00964272, 60.3678
2, 600.00000, 124.502, -30.5661, 124.773, -150.436, 124.872, 89.6298, 0, 0, 2.50562, -53.64, 2.50019, -173.51, 2.4982, 66.556, 0.00967845, 60.4525
2, 660.00000, 124.493, -30.5671, 124.765, -150.437, 124.864, 89.629, 0, 0, 2.51256, -53.641, 2.50709, -173.511, 2.5051, 66.5551, 0.00971428, 60.5368
2, 720.00000, 124.485, -30.5681, 124.757, -150.438, 124.856, 89.6282, 0, 0, 2.51958, -53.642, 2.51408, -173.512, 2.51209, 66.5543, 0.00975063, 60.6218
2, 780.00000, 124.476, -30.5691, 124.75, -150.439, 124.848, 89.6273, 0, 0, 2.52653, -53.643, 2.52099, -173.513, 2.519, 66.5535, 0.00978661, 60.7061
