hour,t(sec),V1,VAngle1,V2,VAngle2,V3,VAngle3,V4,VAngle4,I1,IAngle1,I2,IAngle2,I3,IAngle3,I4,IAngle4
0, 60.00000, 125.143, -31.1513, 127.505, -150.558, 127.427, 88.3644, 0, 0, 2.72298, -54.2253, 2.67257, -173.632, 2.67417, 65.2907, 0.0932591, 125.095
0, 120.00000, 125.143, -31.1513, 127.527, -150.559, 127.437, 88.3561, 0, 0, 2.72298, -54.2252, 2.6721, -173.633, 2.67396, 65.2824, 0.0939177, 125.357
0, 180.00000, 125.143, -31.1512, 127.547, -150.559, 127.446, 88.3486, 0, 0, 2.72298, -54.2252, 2.67168, -173.633, 2.67376, 65.2749, 0.0945119, 125.59
0, 240.00000, 125.143, -31.1512, 127.565, -150.559, 127.455, 88.3419, 0, 0, 2.72298, -54.2251, 2.67129, -173.633, 2.67358, 65.2681, 0.095048, 125.798
0, 300.00000, 125.547, -31.1066, 127.583, -150.556, 127.595, 88.5069, 0, 0, 2.71422, -54.1805, 2.67092, -173.63, 2.67064, 65.4332, 0.0814409, 122.996
0, 360.00000, 125.547, -31.1066, 127.598, -150.557, 127.602, 88.5015, 0, 0, 2.71422, -54.1805, 2.67061, -173.63, 2.6705, 65.4277, 0.0818619, 123.205
0, 420.00000, 125.547, -31.1065, 127.611, -150.557, 127.608, 88.4965, 0, 0, 2.71422, -54.1805, 2.67033, -173.631, 2.67037, 65.4227, 0.0822417, 123.392
0, 480.00000, 125.547, -31.1065, 127.623, -150.557, 127.614, 88.4921, 0, 0, 2.71422, -54.1805, 2.67008, -173.631, 2.67025, 65.4183, 0.0825842, 123.558
0, 540.00000, 125.547, -31.1065, 127.633, -150.557, 127.619, 88.4881, 0, 0, 2.71421, -54.1804, 2.66986, -173.631, 2.67015, 65.4143, 0.082893, 123.707
0, 600.00000, 125.547, -31.1065, 127.643, -150.557, 127.623, 88.4845, 0, 0, 2.71421, -54.1804, 2.66966, -173.631, 2.67006, 65.4107, 0.0831714, 123.839
0, 660.00000, 125.547, -31.1065, 127.652, -150.557, 127.627, 88.4813, 0, 0, 2.71421, -54.1804, 2.66947, -173.631, 2.66997, 65.4074, 0.0834223, 123.958
0, 720.00000, 125.547, -31.1065, 127.659, -150.557, 127.631, 88.4783, 0, 0, 2.71421, -54.1804, 2.66931, -173.631, 2.6699, 65.4045, 0.0836484, 124.064
0, 780.00000, 125.547, -31.1065, 127.666, -150.558, 127.634, 88.4757, 0, 0, 2.71421, -54.1804, 2.66916, -173.631, 2.66983, 65.4019, 0.0838521, 124.16
0, 840.00000, 125.547, -31.1064, 127.673, -150.558, 127.637, 88.4734, 0, 0, 2.71421, -54.1804, 2.66903, -173.632, 2.66977, 65.3995, 0.0840356, 124.245
0, 900.00000, 125.547, -31.1064, 127.678, -150.558, 127.639, 88.4712, 0, 0, 2.71421, -54.1804, 2.66891, -173.632, 2.66971, 65.3974, 0.0842009, 124.322
0, 960.00000, 125.547, -31.1064, 127.683, -150.558, 127.642, 88.4693, 0, 0, 2.71421, -54.1804, 2.6688, -173.632, 2.66967, 65.3954, 0.0843499, 124.39
0, 1020.00000, 125.547, -31.1064, 127.688, -150.558, 127.644, 88.4676, 0, 0, 2.71421, -54.1804, 2.6687, -173.632, 2.66962, 65.3937, 0.084484, 124.452
0, 1080.00000, 125.547, -31.1064, 127.692, -150.558, 127.646, 88.466, 0, 0, 2.71421, -54.1803, 2.66862, -173.632, 2.66958, 65.3922, 0.0846047, 124.507
0, 1140.00000, 125.547, -31.1064, 127.696, -150.558, 127.648, 88.4646, 0, 0, 2.71421, -54.1803, 2.66854, -173.632, 2.66955, 65.3908, 0.0847135, 124.557
0, 1200.00000, 125.547, -31.1064, 127.699, -150.558, 127.649, 88.4634, 0, 0, 2.71421, -54.1803, 2.66847, -173.632, 2.66951, 65.3895, 0.0848114, 124.601
0, 1260.00000, 125.547, -31.1064, 127.702, -150.558, 127.65, 88.4622, 0, 0, 2.71421, -54.1803, 2.6684, -173.632, 2.66948, 65.3884, 0.0848996, 124.641
0, 1320.00000, 125.547, -31.1064, 127.705, -150.558, 127.652, 88.4612, 0, 0, 2.71421, -54.1803, 2.66835, -173.632, 2.66946, 65.3873, 0.084979, 124.677
0, 1380.00000, 125.547, -31.1064, 127.707, -150.558, 127.653, 88.4603, 0, 0, 2.71421, -54.1803, 2.6683, -173.632, 2.66943, 65.3864, 0.0850505, 124.709
0, 1440.00000, 125.547, -31.1064, 127.71, -150.558, 127.654, 88.4595, 0, 0, 2.71421, -54.1803, 2.66825, -173.632, 2.66941, 65.3856, 0.0851149, 124.738
0, 1500.00000, 125.547, -31.1064, 127.712, -150.558, 127.655, 88.4587, 0, 0, 2.71421, -54.1803, 2.66821, -173.632, 2.66939, 65.3848, 0.0851728, 124.765
0, 1560.00000, 125.547, -31.1064, 127.713, -150.558, 127.656, 88.4581, 0, 0, 2.71421, -54.1803, 2.66817, -173.632, 2.66938, 65.3842, 0.085225, 124.788
0, 1620.00000, 125.547, -31.1064, 127.715, -150.558, 127.656, 88.4575, 0, 0, 2.71421, -54.1803, 2.66814, -173.632, 2.66936, 65.3836, 0.0852719, 124.809
0, 1680.00000, 125.547, -31.1064, 127.716, -150.558, 127.657, 88.4569, 0, 0, 2.71421, -54.1803, 2.66811, -173.632, 2.66935, 65.383, 0.0853142, 124.828
0, 1740.00000, 125.547, -31.1064, 127.718, -150.558, 127.658, 88.4565, 0, 0, 2.71421, -54.1803, 2.66808, -173.632, 2.66933, 65.3825, 0.0853523, 124.845
0, 1800.00000, 125.547, -31.1064, 127.719, -150.558, 127.658, 88.456, 0, 0, 2.71421, -54.1803, 2.66805, -173.632, 2.66932, 65.3821, 0.0853865, 124.86
0, 1860.00000, 125.547, -31.1064, 127.72, -150.558, 127.659, 88.4556, 0, 0, 2.71421, -54.1803, 2.66803, -173.632, 2.66931, 65.3817, 0.0854173, 124.874
0, 1920.00000, 125.547, -31.1064, 127.721, -150.558, 127.659, 88.4553, 0, 0, 2.71421, -54.1803, 2.66801, -173.632, 2.6693, 65.3814, 0.0854451, 124.887
0, 1980.00000, 125.547, -31.1064, 127.722, -150.558, 127.659, 88.4549, 0, 0, 2.71421, -54.1803, 2.66799, -173.632, 2.6693, 65.381, 0.0854701, 124.898
0, 2040.00000, 125.547, -31.1064, 127.723, -150.558, 127.66, 88.4547, 0, 0, 2.71421, -54.1803, 2.66798, -173.632, 2.66929, 65.3807, 0.0854926, 124.908
0, 2100.00000, 125.547, -31.1064, 127.723, -150.558, 127.66, 88.4544, 0, 0, 2.71421, -54.1803, 2.66796, -173.632, 2.66928, 65.3805, 0.0855128, 124.917
0, 2160.00000, 125.547, -31.1064, 127.724, -150.558, 127.66, 88.4542, 0, 0, 2.71421, -54.1803, 2.66795, -173.632, 2.66928, 65.3802, 0.085531, 124.925
0, 2220.00000, 125.985, -30.8232, 128.486, -150.597, 127.627, 88.4612, 0, 0, 2.70477, -53.8971, 2.65212, -173.671, 2.66998, 65.3873, 0.0860491, 144.206
0, 2280.00000, 125.985, -30.8232, 128.487, -150.597, 127.627, 88.461, 0, 0, 2.70477, -53.8971, 2.65211, -173.671, 2.66998, 65.3871, 0.0860664, 144.209
0, 2340.00000, 125.985, -30.8232, 128.487, -150.597, 127.627, 88.4608, 0, 0, 2.70477, -53.8971, 2.6521, -173.671, 2.66997, 65.3869, 0.0860818, 144.211
0, 2400.00000, 125.985, -30.8232, 128.488, -150.597, 127.627, 88.4607, 0, 0, 2.70477, -53.8971, 2.65209, -173.671, 2.66997, 65.3868, 0.0860957, 144.214
0, 2460.00000, 125.985, -30.8232, 128.488, -150.597, 127.627, 88.4605, 0, 0, 2.70477, -53.8971, 2.65209, -173.671, 2.66997, 65.3866, 0.0861082, 144.216
0, 2520.00000, 125.985, -30.8232, 128.488, -150.597, 127.628, 88.4604, 0, 0, 2.70477, -53.8971, 2.65208, -173.671, 2.66996, 65.3865, 0.0861194, 144.218
0, 2580.00000, 125.985, -30.8231, 128.489, -150.597, 127.628, 88.4603, 0, 0, 2.70477, -53.8971, 2.65207, -173.671, 2.66996, 65.3864, 0.0861295, 144.219
0, 2640.00000, 125.985, -30.8231, 128.489, -150.597, 127.628, 88.4602, 0, 0, 2.70477, -53.8971, 2.65207, -173.671, 2.66996, 65.3863, 0.0861386, 144.221
0, 2700.00000, 125.985, -30.8231, 128.489, -150.597, 127.628, 88.4601, 0, 0, 2.70477, -53.8971, 2.65206, -173.671, 2.66996, 65.3862, 0.0861468, 144.222
0, 2760.00000, 125.985, -30.8231, 128.489, -150.597, 127.628, 88.46, 0, 0, 2.70477, -53.8971, 2.65206, -173.671, 2.66995, 65.3861, 0.0861542, 144.223
0, 2820.00000, 125.985, -30.8231, 128.489, -150.597, 127.628, 88.4599, 0, 0, 2.70477, -53.8971, 2.65205, -173.671, 2.66995, 65.386, 0.0861609, 144.224
0, 2880.00000, 125.985, -30.8231, 128.49, -150.597, 127.628, 88.4599, 0, 0, 2.70477, -53.8971, 2.65205, -173.671, 2.66995, 65.386, 0.0861668, 144.225
0, 2940.00000, 125.985, -30.8231, 128.49, -150.597, 127.628, 88.4598, 0, 0, 2.70477, -53.8971, 2.65205, -173.671, 2.66995, 65.3859, 0.0861722, 144.226
0, 3000.00000, 125.985, -30.8231, 128.49, -150.597, 127.628, 88.4598, 0, 0, 2.70477, -53.8971, 2.65204, -173.671, 2.66995, 65.3858, 0.0861771, 144.227
0, 3060.00000, 125.985, -30.8231, 128.49, -150.597, 127.628, 88.4597, 0, 0, 2.70477, -53.8971, 2.65204, -173.671, 2.66995, 65.3858, 0.0861814, 144.228
0, 3120.00000, 125.985, -30.8231, 128.49, -150.597, 127.628, 88.4597, 0, 0, 2.70477, -53.8971, 2.65204, -173.671, 2.66995, 65.3858, 0.0861853, 144.228
0, 3180.00000, 125.985, -30.8231, 128.49, -150.597, 127.628, 88.4596, 0, 0, 2.70477, -53.8971, 2.65204, -173.671, 2.66994, 65.3857, 0.0861889, 144.229
0, 3240.00000, 125.985, -30.8231, 128.49, -150.597, 127.628, 88.4596, 0, 0, 2.70477, -53.8971, 2.65203, -173.671, 2.66994, 65.3857, 0.086192, 144.23
0, 3300.00000, 125.985, -30.8231, 128.49, -150.597, 127.629, 88.4596, 0, 0, 2.70477, -53.8971, 2.65203, -173.671, 2.66994, 65.3857, 0.0861949, 144.23
0, 3360.00000, 125.985, -30.8231, 128.49, -150.597, 127.629, 88.4595, 0, 0, 2.70477, -53.8971, 2.65203, -173.671, 2.66994, 65.3856, 0.0861975, 144.23
0, 3420.00000, 125.985, -30.8231, 128.491, -150.597, 127.629, 88.4595, 0, 0, 2.70477, -53.8971, 2.65203, -173.671, 2.66994, 65.3856, 0.0861998, 144.231
0, 3480.00000, 125.985, -30.8231, 128.491, -150.597, 127.629, 88.4595, 0, 0, 2.70477, -53.8971, 2.65203, -173.671, 2.66994, 65.3856, 0.0862019, 144.231
0, 3540.00000, 125.985, -30.8231, 128.491, -150.597, 127.629, 88.4595, 0, 0, 2.70477, -53.8971, 2.65203, -173.671, 2.66994, 65.3856, 0.0862038, 144.231
1, 0.00000, 125.985, -30.8231, 128.491, -150.597, 127.629, 88.4595, 0, 0, 2.70477, -53.8971, 2.65203, -173.671, 2.66994, 65.3855, 0.0862055, 144.232
1, 60.00000, 125.985, -30.8231, 128.491, -150.597, 127.629, 88.4594, 0, 0, 2.70477, -53.8971, 2.65203, -173.671, 2.66994, 65.3855, 0.086207, 144.232
1, 120.00000, 125.985, -30.8231, 128.491, -150.597, 127.629, 88.4594, 0, 0, 2.70477, -53.8971, 2.65203, -173.671, 2.66994, 65.3855, 0.0862083, 144.232
1, 180.00000, 125.985, -30.8231, 128.491, -150.597, 127.629, 88.4594, 0, 0, 2.70477, -53.8971, 2.65202, -173.671, 2.66994, 65.3855, 0.0862096, 144.232
1, 240.00000, 125.985, -30.8231, 128.491, -150.597, 127.629, 88.4594, 0, 0, 2.70477, -53.8971, 2.65202, -173.671, 2.66994, 65.3855, 0.0862107, 144.233
1, 300.00000, 125.985, -30.8231, 128.491, -150.597, 127.629, 88.4594, 0, 0, 2.70477, -53.8971, 2.65202, -173.671, 2.66994, 65.3855, 0.0862117, 144.233
1, 360.00000, 125.985, -30.8231, 128.491, -150.597, 127.629, 88.4594, 0, 0, 2.70477, -53.8971, 2.65202, -173.671, 2.66994, 65.3855, 0.0862126, 144.233
1, 420.00000, 125.985, -30.8231, 128.491, -150.597, 127.629, 88.4594, 0, 0, 2.70477, -53.8971, 2.65202, -173.671, 2.66994, 65.3855, 0.0862134, 144.233
1, 480.00000, 125.985, -30.8231, 128.491, -150.597, 127.629, 88.4594, 0, 0, 2.70477, -53.8971, 2.65202, -173.671, 2.66994, 65.3854, 0.0862141, 144.233
1, 540.00000, 125.985, -30.8231, 128.491, -150.597, 127.629, 88.4594, 0, 0, 2.70477, -53.8971, 2.65202, -173.671, 2.66994, 65.3854, 0.0862148, 144.233
1, 600.00000, 125.985, -30.8231, 128.491, -150.597, 127.629, 88.4593, 0, 0, 2.70477, -53.8971, 2.65202, -173.671, 2.66994, 65.3854, 0.0862153, 144.233
1, 660.00000, 126.375, -30.7826, 128.49, -150.595, 127.75, 88.6252, 0, 0, 2.69643, -53.8565, 2.65205, -173.669, 2.6674, 65.5513, 0.0718461, 144.496
1, 720.00000, 126.375, -30.7826, 128.49, -150.595, 127.75, 88.6252, 0, 0, 2.69643, -53.8565, 2.65205, -173.669, 2.6674, 65.5513, 0.0718466, 144.496
1, 780.00000, 126.501, -30.6115, 128.893, -150.55, 127.751, 88.6238, 0, 0, 2.69375, -53.6854, 2.64375, -173.624, 2.66739, 65.5499, 0.0804141, 153.428
1, 840.00000, 126.501, -30.6115, 128.893, -150.55, 127.751, 88.6238, 0, 0, 2.69375, -53.6854, 2.64375, -173.624, 2.66739, 65.5499, 0.0804147, 153.428
1, 900.00000, 126.501, -30.6115, 128.893, -150.55, 127.751, 88.6238, 0, 0, 2.69375, -53.6854, 2.64375, -173.624, 2.66739, 65.5499, 0.080415, 153.428
1, 960.00000, 126.501, -30.6115, 128.893, -150.55, 127.751, 88.6238, 0, 0, 2.69375, -53.6854, 2.64375, -173.624, 2.66739, 65.5499, 0.0804154, 153.428
1, 1020.00000, 126.501, -30.6115, 128.893, -150.55, 127.751, 88.6238, 0, 0, 2.69375, -53.6854, 2.64375, -173.624, 2.66739, 65.5499, 0.0804157, 153.428
1, 1080.00000, 126.501, -30.6115, 128.893, -150.55, 127.751, 88.6238, 0, 0, 2.69375, -53.6854, 2.64375, -173.624, 2.66739, 65.5499, 0.0804159, 153.428
1, 1140.00000, 126.501, -30.6115, 128.893, -150.55, 127.751, 88.6238, 0, 0, 2.69375, -53.6854, 2.64375, -173.624, 2.66739, 65.5499, 0.0804161, 153.428
1, 1200.00000, 126.501, -30.6115, 128.893, -150.55, 127.751, 88.6238, 0, 0, 2.69375, -53.6854, 2.64375, -173.624, 2.66739, 65.5499, 0.0804164, 153.429
1, 1260.00000, 126.501, -30.6115, 128.893, -150.55, 127.751, 88.6238, 0, 0, 2.69375, -53.6854, 2.64375, -173.624, 2.66739, 65.5499, 0.0804165, 153.429
1, 1320.00000, 126.501, -30.6115, 128.893, -150.55, 127.751, 88.6238, 0, 0, 2.69375, -53.6854, 2.64375, -173.624, 2.66739, 65.5499, 0.0804167, 153.429
1, 1380.00000, 126.501, -30.6115, 128.893, -150.55, 127.751, 88.6238, 0, 0, 2.69375, -53.6854, 2.64375, -173.624, 2.66739, 65.5499, 0.0804169, 153.429
1, 1440.00000, 126.501, -30.6115, 128.893, -150.55, 127.751, 88.6238, 0, 0, 2.69375, -53.6854, 2.64375, -173.624, 2.66739, 65.5499, 0.080417, 153.429
1, 1500.00000, 126.501, -30.6115, 128.893, -150.55, 127.751, 88.6238, 0, 0, 2.69375, -53.6854, 2.64375, -173.624, 2.66739, 65.5499, 0.0804171, 153.429
1, 1560.00000, 126.501, -30.6115, 128.893, -150.55, 127.751, 88.6238, 0, 0, 2.69375, -53.6854, 2.64375, -173.624, 2.66739, 65.5499, 0.0804172, 153.429
1, 1620.00000, 126.501, -30.6115, 128.893, -150.55, 127.751, 88.6238, 0, 0, 2.69375, -53.6854, 2.64375, -173.624, 2.66739, 65.5499, 0.0804173, 153.429
1, 1680.00000, 126.501, -30.6115, 128.893, -150.55, 127.751, 88.6238, 0, 0, 2.69375, -53.6854, 2.64375, -173.624, 2.66739, 65.5499, 0.0804174, 153.429
1, 1740.00000, 126.501, -30.6115, 128.893, -150.55, 127.751, 88.6238, 0, 0, 2.69375, -53.6854, 2.64375, -173.624, 2.66739, 65.5499, 0.0804175, 153.429
1, 1800.00000, 126.501, -30.6115, 128.893, -150.55, 127.751, 88.6238, 0, 0, 2.69375, -53.6854, 2.64375, -173.624, 2.66739, 65.5499, 0.0804176, 153.429
1, 1860.00000, 126.501, -30.6115, 128.893, -150.55, 127.751, 88.6238, 0, 0, 2.69375, -53.6854, 2.64375, -173.624, 2.66739, 65.5499, 0.0804176, 153.429
1, 1920.00000, 126.501, -30.6115, 128.893, -150.55, 127.751, 88.6238, 0, 0, 2.69375, -53.6854, 2.64375, -173.624, 2.66739, 65.5499, 0.0804177, 153.429
1, 1980.00000, 126.501, -30.6115, 128.893, -150.55, 127.751, 88.6238, 0, 0, 2.69375, -53.6854, 2.64375, -173.624, 2.66739, 65.5499, 0.0804178, 153.429
1, 2040.00000, 126.501, -30.6115, 128.893, -150.55, 127.751, 88.6238, 0, 0, 2.69375, -53.6854, 2.64375, -173.624, 2.66739, 65.5499, 0.0804178, 153.429
1, 2100.00000, 126.501, -30.6115, 128.893, -150.55, 127.751, 88.6238, 0, 0, 2.69375, -53.6854, 2.64375, -173.624, 2.66739, 65.5499, 0.0804179, 153.429
1, 2160.00000, 126.501, -30.6115, 128.893, -150.55, 127.751, 88.6238, 0, 0, 2.69375, -53.6854, 2.64375, -173.624, 2.66739, 65.5499, 0.0804179, 153.429
1, 2220.00000, 126.501, -30.6115, 128.893, -150.55, 127.751, 88.6238, 0, 0, 2.69375, -53.6854, 2.64375, -173.624, 2.66739, 65.5499, 0.0804179, 153.429
1, 2280.00000, 126.501, -30.6115, 128.893, -150.55, 127.751, 88.6238, 0, 0, 2.69375, -53.6854, 2.64375, -173.624, 2.66739, 65.5499, 0.080418, 153.429
1, 2340.00000, 126.501, -30.6115, 128.893, -150.55, 127.751, 88.6238, 0, 0, 2.69375, -53.6854, 2.64375, -173.624, 2.66739, 65.5499, 0.080418, 153.429
1, 2400.00000, 126.501, -30.6115, 128.893, -150.55, 127.751, 88.6238, 0, 0, 2.69375, -53.6854, 2.64375, -173.624, 2.66739, 65.5499, 0.080418, 153.429
1, 2460.00000, 126.501, -30.6115, 128.893, -150.55, 127.751, 88.6238, 0, 0, 2.69375, -53.6854, 2.64375, -173.624, 2.66739, 65.5499, 0.080418, 153.429
1, 2520.00000, 126.501, -30.6115, 128.893, -150.55, 127.751, 88.6238, 0, 0, 2.69375, -53.6854, 2.64375, -173.624, 2.66739, 65.5499, 0.0804181, 153.429
1, 2580.00000, 126.501, -30.6115, 128.893, -150.55, 127.751, 88.6238, 0, 0, 2.69375, -53.6854, 2.64375, -173.624, 2.66739, 65.5499, 0.0804181, 153.429
1, 2640.00000, 126.501, -30.6115, 128.893, -150.55, 127.751, 88.6238, 0, 0, 2.69375, -53.6854, 2.64375, -173.624, 2.66739, 65.5499, 0.0804181, 153.429
1, 2700.00000, 126.501, -30.6115, 128.893, -150.55, 127.751, 88.6238, 0, 0, 2.69375, -53.6854, 2.64375, -173.624, 2.66739, 65.5499, 0.0804181, 153.429
1, 2760.00000, 126.501, -30.6115, 128.893, -150.55, 127.751, 88.6238, 0, 0, 2.69375, -53.6854, 2.64375, -173.624, 2.66739, 65.5499, 0.0804181, 153.429
1, 2820.00000, 126.501, -30.6115, 128.893, -150.55, 127.751, 88.6238, 0, 0, 2.69375, -53.6854, 2.64375, -173.624, 2.66739, 65.5499, 0.0804181, 153.429
1, 2880.00000, 126.501, -30.6115, 128.893, -150.55, 127.751, 88.6238, 0, 0, 2.69375, -53.6854, 2.64375, -173.624, 2.66739, 65.5499, 0.0804181, 153.429
1, 2940.00000, 126.501, -30.6115, 128.893, -150.55, 127.751, 88.6238, 0, 0, 2.69375, -53.6854, 2.64375, -173.624, 2.66739, 65.5499, 0.0804182, 153.429
1, 3000.00000, 126.501, -30.6115, 128.893, -150.55, 127.751, 88.6238, 0, 0, 2.69375, -53.6854, 2.64375, -173.624, 2.66739, 65.5499, 0.0804182, 153.429
1, 3060.00000, 126.501, -30.6115, 128.893, -150.55, 127.751, 88.6238, 0, 0, 2.69375, -53.6854, 2.64375, -173.624, 2.66739, 65.5499, 0.0804182, 153.429
1, 3120.00000, 126.501, -30.6115, 128.893, -150.55, 127.751, 88.6238, 0, 0, 2.69375, -53.6854, 2.64375, -173.624, 2.66739, 65.5499, 0.0804182, 153.429
1, 3180.00000, 126.501, -30.6115, 128.893, -150.55, 127.751, 88.6238, 0, 0, 2.69375, -53.6854, 2.64375, -173.624, 2.66739, 65.5499, 0.0804182, 153.429
1, 3240.00000, 126.501, -30.6115, 128.893, -150.55, 127.751, 88.6238, 0, 0, 2.69375, -53.6854, 2.64375, -173.624, 2.66739, 65.5499, 0.0804182, 153.429
1, 3300.00000, 126.501, -30.6115, 128.893, -150.55, 127.751, 88.6238, 0, 0, 2.69375, -53.6854, 2.64375, -173.624, 2.66739, 65.5499, 0.0804182, 153.429
1, 3360.00000, 126.501, -30.6115, 128.893, -150.55, 127.751, 88.6238, 0, 0, 2.69375, -53.6854, 2.64375, -173.624, 2.66739, 65.5499, 0.0804182, 153.429
1, 3420.00000, 126.501, -30.6115, 128.893, -150.55, 127.751, 88.6238, 0, 0, 2.69375, -53.6854, 2.64375, -173.624, 2.66739, 65.5499, 0.0804182, 153.429
1, 3480.00000, 126.501, -30.6115, 128.893, -150.55, 127.751, 88.6238, 0, 0, 2.69375, -53.6854, 2.64375, -173.624, 2.66739, 65.5499, 0.0804182, 153.429
1, 3540.00000, 126.501, -30.6115, 128.893, -150.55, 127.751, 88.6238, 0, 0, 2.69375, -53.6854, 2.64375, -173.624, 2.66739, 65.5499, 0.0804182, 153.429
2, 0.00000, 126.501, -30.6115, 128.893, -150.55, 127.751, 88.6238, 0, 0, 2.69375, -53.6854, 2.64375, -173.624, 2.66739, 65.5499, 0.0804182, 153.429
2, 60.00000, 126.501, -30.6115, 128.893, -150.55, 127.751, 88.6238, 0, 0, 2.69375, -53.6854, 2.64375, -173.624, 2.66739, 65.5499, 0.0804182, 153.429
2, 120.00000, 126.496, -30.6127, 128.889, -150.551, 127.746, 88.6227, 0, 0, 2.7013, -53.6866, 2.65115, -173.625, 2.67486, 65.5488, 0.0806502, 153.425
2, 180.00000, 126.491, -30.6139, 128.884, -150.552, 127.742, 88.6217, 0, 0, 2.70895, -53.6878, 2.65865, -173.626, 2.68243, 65.5478, 0.080885, 153.421
2, 240.00000, 126.486, -30.615, 128.88, -150.553, 127.737, 88.6206, 0, 0, 2.71651, -53.689, 2.66605, -173.627, 2.6899, 65.5467, 0.0811171, 153.417
2, 300.00000, 126.481, -30.6162, 128.876, -150.555, 127.733, 88.6196, 0, 0, 2.72406, -53.6902, 2.67345, -173.628, 2.69738, 65.5457, 0.0813492, 153.413
2, 360.00000, 126.477, -30.6174, 128.871, -150.556, 127.728, 88.6185, 0, 0, 2.73171, -53.6913, 2.68095, -173.63, 2.70495, 65.5446, 0.0815842, 153.409
2, 420.00000, 126.472, -30.6186, 128.867, -150.557, 127.723, 88.6174, 0, 0, 2.73927, -53.6925, 2.68835, -173.631, 2.71242, 65.5435, 0.0818164, 153.405
2, 480.00000, 126.467, -30.6198, 128.863, -150.558, 127.719, 88.6164, 0, 0, 2.74683, -53.6937, 2.69576, -173.632, 2.7199, 65.5425, 0.0820487, 153.401
2, 540.00000, 126.462, -30.621, 128.858, -150.559, 127.714, 88.6153, 0, 0, 2.75448, -53.6949, 2.70325, -173.633, 2.72747, 65.5414, 0.0822839, 153.397
2, 600.00000, 126.457, -30.6222, 128.854, -150.56, 127.71, 88.6143, 0, 0, 2.76203, -53.6961, 2.71066, -173.634, 2.73495, 65.5403, 0.0825163, 153.393
2, 660.00000, 126.453, -30.6234, 128.85, -150.561, 127.705, 88.6132, 0, 0, 2.76959, -53.6973, 2.71807, -173.635, 2.74243, 65.5393, 0.0827487, 153.389
2, 720.00000, 126.448, -30.6246, 128.845, -150.562, 127.701, 88.6121, 0, 0, 2.77725, -53.6985, 2.72557, -173.636, 2.75, 65.5382, 0.0829841, 153.385
