hour,t(sec),V1,VAngle1,V2,VAngle2,V3,VAngle3,V4,VAngle4,I1,IAngle1,I2,IAngle2,I3,IAngle3,I4,IAngle4
0, 60.00000, 123.308, -30.6153, 125.725, -151.101, 123.186, 88.5686, 0, 0, 2.40292, -53.6889, 2.35677, -174.175, 2.4053, 65.4951, 0.0771111, -170.189
0, 120.00000, 123.308, -30.6153, 125.725, -151.101, 123.186, 88.5685, 0, 0, 2.40296, -53.6892, 2.35677, -174.175, 2.40534, 65.4946, 0.0771563, -170.202
0, 180.00000, 123.308, -30.6153, 125.725, -151.101, 123.186, 88.5685, 0, 0, 2.40296, -53.6892, 2.35677, -174.175, 2.40534, 65.4946, 0.0771566, -170.202
0, 240.00000, 123.308, -30.6153, 125.725, -151.101, 123.186, 88.5685, 0, 0, 2.40296, -53.6892, 2.35677, -174.175, 2.40534, 65.4946, 0.0771566, -170.202
0, 300.00000, 123.313, -30.6136, 125.859, -150.929, 123.594, 88.6164, 0, 0, 2.4029, -53.6877, 2.35427, -174.003, 2.39745, 65.5415, 0.0742061, -179.92
0, 360.00000, 123.313, -30.6136, 125.859, -150.929, 123.595, 88.6165, 0, 0, 2.40286, -53.6875, 2.35425, -174.003, 2.39739, 65.5425, 0.0741469, -179.94
0, 420.00000, 123.313, -30.6136, 125.859, -150.929, 123.595, 88.6165, 0, 0, 2.40286, -53.6875, 2.35425, -174.003, 2.39739, 65.5425, 0.0741464, -179.94
0, 480.00000, 123.313, -30.6136, 125.859, -150.929, 123.595, 88.6165, 0, 0, 2.40286, -53.6875, 2.35425, -174.003, 2.39739, 65.5425, 0.0741464, -179.94
0, 540.00000, 123.313, -30.6136, 125.859, -150.929, 123.595, 88.6165, 0, 0, 2.40286, -53.6875, 2.35425, -174.003, 2.39739, 65.5425, 0.0741464, -179.94
0, 600.00000, 123.313, -30.6136, 125.859, -150.929, 123.595, 88.6165, 0, 0, 2.40286, -53.6875, 2.35425, -174.003, 2.39739, 65.5425, 0.0741464, -179.94
0, 660.00000, 123.313, -30.6136, 125.859, -150.929, 123.595, 88.6165, 0, 0, 2.40286, -53.6875, 2.35425, -174.003, 2.39739, 65.5425, 0.0741464, -179.94
0, 720.00000, 123.313, -30.6136, 125.859, -150.929, 123.595, 88.6165, 0, 0, 2.40286, -53.6875, 2.35425, -174.003, 2.39739, 65.5425, 0.0741464, -179.94
0, 780.00000, 123.359, -30.6153, 126.139, -150.705, 124.17, 88.6182, 0, 0, 2.40199, -53.6893, 2.34903, -173.779, 2.38633, 65.5436, 0.0772121, 166.595
0, 840.00000, 123.359, -30.6153, 126.139, -150.705, 124.17, 88.6183, 0, 0, 2.40196, -53.6892, 2.34903, -173.779, 2.38628, 65.5443, 0.0771628, 166.582
0, 900.00000, 123.359, -30.6153, 126.139, -150.705, 124.17, 88.6183, 0, 0, 2.40196, -53.6892, 2.34903, -173.779, 2.38628, 65.5443, 0.0771625, 166.582
0, 960.00000, 122.942, -30.658, 126.141, -150.705, 124.031, 88.4421, 0, 0, 2.41006, -53.7314, 2.34901, -173.779, 2.3889, 65.3687, 0.0900477, 163.143
0, 1020.00000, 122.942, -30.658, 126.141, -150.705, 124.031, 88.4421, 0, 0, 2.41011, -53.7319, 2.349, -173.779, 2.38895, 65.3682, 0.0901194, 163.145
0, 1080.00000, 122.942, -30.658, 126.141, -150.705, 124.031, 88.4421, 0, 0, 2.41011, -53.7319, 2.349, -173.779, 2.38895, 65.3682, 0.0901197, 163.145
0, 1140.00000, 122.942, -30.658, 126.141, -150.705, 124.031, 88.4421, 0, 0, 2.41011, -53.7319, 2.349, -173.779, 2.38895, 65.3682, 0.0901197, 163.145
0, 1200.00000, 122.942, -30.658, 126.141, -150.705, 124.031, 88.4421, 0, 0, 2.41011, -53.7319, 2.349, -173.779, 2.38895, 65.3682, 0.0901197, 163.145
0, 1260.00000, 122.942, -30.658, 126.141, -150.705, 124.031, 88.4421, 0, 0, 2.41011, -53.7319, 2.349, -173.779, 2.38895, 65.3682, 0.0901197, 163.145
0, 1320.00000, 122.942, -30.658, 126.141, -150.705, 124.031, 88.4421, 0, 0, 2.41011, -53.7319, 2.349, -173.779, 2.38895, 65.3682, 0.0901197, 163.145
0, 1380.00000, 122.942, -30.658, 126.141, -150.705, 124.031, 88.4421, 0, 0, 2.41011, -53.7319, 2.349, -173.779, 2.38895, 65.3682, 0.0901197, 163.145
0, 1440.00000, 122.942, -30.658, 126.141, -150.705, 124.031, 88.4421, 0, 0, 2.41011, -53.7319, 2.349, -173.779, 2.38895, 65.3682, 0.0901197, 163.145
0, 1500.00000, 122.942, -30.658, 126.141, -150.705, 124.031, 88.4421, 0, 0, 2.41011, -53.7319, 2.349, -173.779, 2.38895, 65.3682, 0.0901197, 163.145
0, 1560.00000, 122.942, -30.658, 126.141, -150.705, 124.031, 88.4421, 0, 0, 2.41011, -53.7319, 2.349, -173.779, 2.38895, 65.3682, 0.0901197, 163.145
0, 1620.00000, 122.942, -30.658, 126.141, -150.705, 124.031, 88.4421, 0, 0, 2.41011, -53.7319, 2.349, -173.779, 2.38895, 65.3682, 0.0901197, 163.145
0, 1680.00000, 122.942, -30.658, 126.141, -150.705, 124.031, 88.4421, 0, 0, 2.41011, -53.7319, 2.349, -173.779, 2.38895, 65.3682, 0.0901197, 163.145
0, 1740.00000, 122.942, -30.658, 126.141, -150.705, 124.031, 88.4421, 0, 0, 2.41011, -53.7319, 2.349, -173.779, 2.38895, 65.3682, 0.0901197, 163.145
0, 1800.00000, 122.942, -30.658, 126.141, -150.705, 124.031, 88.4421, 0, 0, 2.41011, -53.7319, 2.349, -173.779, 2.38895, 65.3682, 0.0901197, 163.145
0, 1860.00000, 122.942, -30.658, 126.141, -150.705, 124.031, 88.4421, 0, 0, 2.41011, -53.7319, 2.349, -173.779, 2.38895, 65.3682, 0.0901197, 163.145
0, 1920.00000, 122.942, -30.658, 126.141, -150.705, 124.031, 88.4421, 0, 0, 2.41011, -53.7319, 2.349, -173.779, 2.38895, 65.3682, 0.0901197, 163.145
0, 1980.00000, 122.942, -30.658, 126.141, -150.705, 124.031, 88.4421, 0, 0, 2.41011, -53.7319, 2.349, -173.779, 2.38895, 65.3682, 0.0901197, 163.145
0, 2040.00000, 122.942, -30.658, 126.141, -150.705, 124.031, 88.4421, 0, 0, 2.41011, -53.7319, 2.349, -173.779, 2.38895, 65.3682, 0.0901197, 163.145
0, 2100.00000, 122.942, -30.658, 126.141, -150.705, 124.031, 88.4421, 0, 0, 2.41011, -53.7319, 2.349, -173.779, 2.38895, 65.3682, 0.0901197, 163.145
0, 2160.00000, 122.942, -30.658, 126.141, -150.705, 124.031, 88.4421, 0, 0, 2.41011, -53.7319, 2.349, -173.779, 2.38895, 65.3682, 0.0901197, 163.145
0, 2220.00000, 124.008, -30.6725, 126.05, -150.714, 124.715, 88.7856, 0, 0, 2.38946, -53.747, 2.35067, -173.788, 2.3759, 65.7113, 0.0556766, 163.666
0, 2280.00000, 124.008, -30.6725, 126.05, -150.714, 124.715, 88.7856, 0, 0, 2.3894, -53.7464, 2.35069, -173.788, 2.37586, 65.7117, 0.055611, 163.681
0, 2340.00000, 124.008, -30.6725, 126.05, -150.714, 124.715, 88.7856, 0, 0, 2.3894, -53.7464, 2.35069, -173.788, 2.37586, 65.7117, 0.0556108, 163.681
0, 2400.00000, 124.008, -30.6725, 126.05, -150.714, 124.715, 88.7856, 0, 0, 2.3894, -53.7464, 2.35069, -173.788, 2.37586, 65.7117, 0.0556108, 163.681
0, 2460.00000, 124.008, -30.6725, 126.05, -150.714, 124.715, 88.7856, 0, 0, 2.3894, -53.7464, 2.35069, -173.788, 2.37586, 65.7117, 0.0556108, 163.681
0, 2520.00000, 124.008, -30.6725, 126.05, -150.714, 124.715, 88.7856, 0, 0, 2.3894, -53.7464, 2.35069, -173.788, 2.37586, 65.7117, 0.0556108, 163.681
0, 2580.00000, 124.008, -30.6725, 126.05, -150.714, 124.715, 88.7856, 0, 0, 2.3894, -53.7464, 2.35069, -173.788, 2.37586, 65.7117, 0.0556108, 163.681
0, 2640.00000, 124.008, -30.6725, 126.05, -150.714, 124.715, 88.7856, 0, 0, 2.3894, -53.7464, 2.35069, -173.788, 2.37586, 65.7117, 0.0556108, 163.681
0, 2700.00000, 124.008, -30.6725, 126.05, -150.714, 124.715, 88.7856, 0, 0, 2.3894, -53.7464, 2.35069, -173.788, 2.37586, 65.7117, 0.0556108, 163.681
0, 2760.00000, 124.008, -30.6725, 126.05, -150.714, 124.715, 88.7856, 0, 0, 2.3894, -53.7464, 2.35069, -173.788, 2.37586, 65.7117, 0.0556108, 163.681
0, 2820.00000, 124.008, -30.6725, 126.05, -150.714, 124.715, 88.7856, 0, 0, 2.3894, -53.7464, 2.35069, -173.788, 2.37586, 65.7117, 0.0556108, 163.681
0, 2880.00000, 124.008, -30.6725, 126.05, -150.714, 124.715, 88.7856, 0, 0, 2.3894, -53.7464, 2.35069, -173.788, 2.37586, 65.7117, 0.0556108, 163.681
0, 2940.00000, 124.008, -30.6725, 126.05, -150.714, 124.715, 88.7856, 0, 0, 2.3894, -53.7464, 2.35069, -173.788, 2.37586, 65.7117, 0.0556108, 163.681
0, 3000.00000, 124.008, -30.6725, 126.05, -150.714, 124.715, 88.7856, 0, 0, 2.3894, -53.7464, 2.35069, -173.788, 2.37586, 65.7117, 0.0556108, 163.681
0, 3060.00000, 124.008, -30.6725, 126.05, -150.714, 124.715, 88.7856, 0, 0, 2.3894, -53.7464, 2.35069, -173.788, 2.37586, 65.7117, 0.0556108, 163.681
0, 3120.00000, 124.008, -30.6725, 126.05, -150.714, 124.715, 88.7856, 0, 0, 2.3894, -53.7464, 2.35069, -173.788, 2.37586, 65.7117, 0.0556108, 163.681
0, 3180.00000, 124.008, -30.6725, 126.05, -150.714, 124.715, 88.7856, 0, 0, 2.3894, -53.7464, 2.35069, -173.788, 2.37586, 65.7117, 0.0556108, 163.681
0, 3240.00000, 124.008, -30.6725, 126.05, -150.714, 124.715, 88.7856, 0, 0, 2.3894, -53.7464, 2.35069, -173.788, 2.37586, 65.7117, 0.0556108, 163.681
0, 3300.00000, 124.008, -30.6725, 126.05, -150.714, 124.715, 88.7856, 0, 0, 2.3894, -53.7464, 2.35069, -173.788, 2.37586, 65.7117, 0.0556108, 163.681
0, 3360.00000, 124.008, -30.6725, 126.05, -150.714, 124.715, 88.7856, 0, 0, 2.3894, -53.7464, 2.35069, -173.788, 2.37586, 65.7117, 0.0556108, 163.681
0, 3420.00000, 124.008, -30.6725, 126.05, -150.714, 124.715, 88.7856, 0, 0, 2.3894, -53.7464, 2.35069, -173.788, 2.37586, 65.7117, 0.0556108, 163.681
0, 3480.00000, 124.008, -30.6725, 126.05, -150.714, 124.715, 88.7856, 0, 0, 2.3894, -53.7464, 2.35069, -173.788, 2.37586, 65.7117, 0.0556108, 163.681
0, 3540.00000, 124.426, -30.6277, 126.049, -150.714, 124.852, 88.962, 0, 0, 2.38144, -53.7025, 2.3507, -173.788, 2.37329, 65.8872, 0.0430963, 169.969
1, 0.00000, 124.426, -30.6277, 126.049, -150.714, 124.852, 88.9621, 0, 0, 2.38136, -53.7016, 2.35071, -173.788, 2.37324, 65.8882, 0.0430001, 170.027
1, 60.00000, 124.426, -30.6277, 126.049, -150.714, 124.852, 88.9621, 0, 0, 2.38136, -53.7016, 2.35071, -173.788, 2.37324, 65.8882, 0.0429995, 170.027
1, 120.00000, 124.426, -30.6277, 126.049, -150.714, 124.852, 88.9621, 0, 0, 2.38136, -53.7016, 2.35071, -173.788, 2.37324, 65.8882, 0.0429995, 170.027
1, 180.00000, 124.426, -30.6277, 126.049, -150.714, 124.852, 88.9621, 0, 0, 2.38136, -53.7016, 2.35071, -173.788, 2.37324, 65.8882, 0.0429995, 170.027
1, 240.00000, 124.426, -30.6277, 126.049, -150.714, 124.852, 88.9621, 0, 0, 2.38136, -53.7016, 2.35071, -173.788, 2.37324, 65.8882, 0.0429995, 170.027
1, 300.00000, 124.426, -30.6277, 126.049, -150.714, 124.852, 88.9621, 0, 0, 2.38136, -53.7016, 2.35071, -173.788, 2.37324, 65.8882, 0.0429995, 170.027
1, 360.00000, 124.426, -30.6277, 126.049, -150.714, 124.852, 88.9621, 0, 0, 2.38136, -53.7016, 2.35071, -173.788, 2.37324, 65.8882, 0.0429995, 170.027
1, 420.00000, 124.426, -30.6277, 126.049, -150.714, 124.852, 88.9621, 0, 0, 2.38136, -53.7016, 2.35071, -173.788, 2.37324, 65.8882, 0.0429995, 170.027
1, 480.00000, 124.426, -30.6277, 126.049, -150.714, 124.852, 88.9621, 0, 0, 2.38136, -53.7016, 2.35071, -173.788, 2.37324, 65.8882, 0.0429995, 170.027
1, 540.00000, 124.426, -30.6277, 126.049, -150.714, 124.852, 88.9621, 0, 0, 2.38136, -53.7016, 2.35071, -173.788, 2.37324, 65.8882, 0.0429995, 170.027
1, 600.00000, 124.426, -30.6277, 126.049, -150.714, 124.852, 88.9621, 0, 0, 2.38136, -53.7016, 2.35071, -173.788, 2.37324, 65.8882, 0.0429995, 170.027
1, 660.00000, 124.427, -30.6274, 126.171, -150.549, 125.244, 89.0057, 0, 0, 2.38136, -53.7014, 2.34844, -173.623, 2.36585, 65.9313, 0.0453352, 153.903
1, 720.00000, 124.427, -30.6274, 126.171, -150.549, 125.244, 89.0057, 0, 0, 2.38135, -53.7013, 2.34844, -173.623, 2.36582, 65.9318, 0.0453059, 153.876
1, 780.00000, 124.838, -30.583, 126.169, -150.548, 125.377, 89.1785, 0, 0, 2.37358, -53.6576, 2.34846, -173.622, 2.36333, 66.1039, 0.0323312, 158.174
1, 840.00000, 124.838, -30.5829, 126.169, -150.548, 125.377, 89.1786, 0, 0, 2.37352, -53.6568, 2.34848, -173.622, 2.3633, 66.1047, 0.032253, 158.213
1, 900.00000, 124.838, -30.5829, 126.169, -150.548, 125.377, 89.1786, 0, 0, 2.37351, -53.6568, 2.34848, -173.622, 2.3633, 66.1047, 0.0322527, 158.213
1, 960.00000, 124.838, -30.5829, 126.169, -150.548, 125.377, 89.1786, 0, 0, 2.37351, -53.6568, 2.34848, -173.622, 2.3633, 66.1047, 0.0322527, 158.213
1, 1020.00000, 124.838, -30.5829, 126.169, -150.548, 125.377, 89.1786, 0, 0, 2.37351, -53.6568, 2.34848, -173.622, 2.3633, 66.1047, 0.0322527, 158.213
1, 1080.00000, 124.838, -30.5829, 126.169, -150.548, 125.377, 89.1786, 0, 0, 2.37351, -53.6568, 2.34848, -173.622, 2.3633, 66.1047, 0.0322527, 158.213
1, 1140.00000, 124.838, -30.5829, 126.169, -150.548, 125.377, 89.1786, 0, 0, 2.37351, -53.6568, 2.34848, -173.622, 2.3633, 66.1047, 0.0322527, 158.213
1, 1200.00000, 124.838, -30.5829, 126.169, -150.548, 125.377, 89.1786, 0, 0, 2.37351, -53.6568, 2.34848, -173.622, 2.3633, 66.1047, 0.0322527, 158.213
1, 1260.00000, 124.838, -30.5829, 126.169, -150.548, 125.377, 89.1786, 0, 0, 2.37351, -53.6568, 2.34848, -173.622, 2.3633, 66.1047, 0.0322527, 158.213
1, 1320.00000, 124.838, -30.5829, 126.169, -150.548, 125.377, 89.1786, 0, 0, 2.37351, -53.6568, 2.34848, -173.622, 2.3633, 66.1047, 0.0322527, 158.213
1, 1380.00000, 124.838, -30.5829, 126.169, -150.548, 125.377, 89.1786, 0, 0, 2.37351, -53.6568, 2.34848, -173.622, 2.3633, 66.1047, 0.0322527, 158.213
1, 1440.00000, 124.838, -30.5829, 126.169, -150.548, 125.377, 89.1786, 0, 0, 2.37351, -53.6568, 2.34848, -173.622, 2.3633, 66.1047, 0.0322527, 158.213
1, 1500.00000, 124.838, -30.5829, 126.169, -150.548, 125.377, 89.1786, 0, 0, 2.37351, -53.6568, 2.34848, -173.622, 2.3633, 66.1047, 0.0322527, 158.213
1, 1560.00000, 124.838, -30.5829, 126.169, -150.548, 125.377, 89.1786, 0, 0, 2.37351, -53.6568, 2.34848, -173.622, 2.3633, 66.1047, 0.0322527, 158.213
1, 1620.00000, 124.838, -30.5829, 126.169, -150.548, 125.377, 89.1786, 0, 0, 2.37351, -53.6568, 2.34848, -173.622, 2.3633, 66.1047, 0.0322527, 158.213
1, 1680.00000, 124.838, -30.5829, 126.169, -150.548, 125.377, 89.1786, 0, 0, 2.37351, -53.6568, 2.34848, -173.622, 2.3633, 66.1047, 0.0322527, 158.213
1, 1740.00000, 124.838, -30.5829, 126.169, -150.548, 125.377, 89.1786, 0, 0, 2.37351, -53.6568, 2.34848, -173.622, 2.3633, 66.1047, 0.0322527, 158.213
1, 1800.00000, 124.838, -30.5829, 126.169, -150.548, 125.377, 89.1786, 0, 0, 2.37351, -53.6568, 2.34848, -173.622, 2.3633, 66.1047, 0.0322527, 158.213
1, 1860.00000, 124.838, -30.5829, 126.169, -150.548, 125.377, 89.1786, 0, 0, 2.37351, -53.6568, 2.34848, -173.622, 2.3633, 66.1047, 0.0322527, 158.213
1, 1920.00000, 124.838, -30.5829, 126.169, -150.548, 125.377, 89.1786, 0, 0, 2.37351, -53.6568, 2.34848, -173.622, 2.3633, 66.1047, 0.0322527, 158.213
1, 1980.00000, 124.838, -30.5829, 126.169, -150.548, 125.377, 89.1786, 0, 0, 2.37351, -53.6568, 2.34848, -173.622, 2.3633, 66.1047, 0.0322527, 158.213
1, 2040.00000, 124.838, -30.5829, 126.169, -150.548, 125.377, 89.1786, 0, 0, 2.37351, -53.6568, 2.34848, -173.622, 2.3633, 66.1047, 0.0322527, 158.213
1, 2100.00000, 124.838, -30.5829, 126.169, -150.548, 125.377, 89.1786, 0, 0, 2.37351, -53.6568, 2.34848, -173.622, 2.3633, 66.1047, 0.0322527, 158.213
1, 2160.00000, 124.838, -30.5829, 126.169, -150.548, 125.377, 89.1786, 0, 0, 2.37351, -53.6568, 2.34848, -173.622, 2.3633, 66.1047, 0.0322527, 158.213
1, 2220.00000, 124.838, -30.5829, 126.169, -150.548, 125.377, 89.1786, 0, 0, 2.37351, -53.6568, 2.34848, -173.622, 2.3633, 66.1047, 0.0322527, 158.213
1, 2280.00000, 124.838, -30.5829, 126.169, -150.548, 125.377, 89.1786, 0, 0, 2.37351, -53.6568, 2.34848, -173.622, 2.3633, 66.1047, 0.0322527, 158.213
1, 2340.00000, 124.838, -30.5829, 126.169, -150.548, 125.377, 89.1786, 0, 0, 2.37351, -53.6568, 2.34848, -173.622, 2.3633, 66.1047, 0.0322527, 158.213
1, 2400.00000, 124.838, -30.5829, 126.169, -150.548, 125.377, 89.1786, 0, 0, 2.37351, -53.6568, 2.34848, -173.622, 2.3633, 66.1047, 0.0322527, 158.213
1, 2460.00000, 124.838, -30.5829, 126.169, -150.548, 125.377, 89.1786, 0, 0, 2.37351, -53.6568, 2.34848, -173.622, 2.3633, 66.1047, 0.0322527, 158.213
1, 2520.00000, 124.838, -30.5829, 126.169, -150.548, 125.377, 89.1786, 0, 0, 2.37351, -53.6568, 2.34848, -173.622, 2.3633, 66.1047, 0.0322527, 158.213
1, 2580.00000, 124.838, -30.5829, 126.169, -150.548, 125.377, 89.1786, 0, 0, 2.37351, -53.6568, 2.34848, -173.622, 2.3633, 66.1047, 0.0322527, 158.213
1, 2640.00000, 124.838, -30.5829, 126.169, -150.548, 125.377, 89.1786, 0, 0, 2.37351, -53.6568, 2.34848, -173.622, 2.3633, 66.1047, 0.0322527, 158.213
1, 2700.00000, 124.838, -30.5829, 126.169, -150.548, 125.377, 89.1786, 0, 0, 2.37351, -53.6568, 2.34848, -173.622, 2.3633, 66.1047, 0.0322527, 158.213
1, 2760.00000, 124.838, -30.5829, 126.169, -150.548, 125.377, 89.1786, 0, 0, 2.37351, -53.6568, 2.34848, -173.622, 2.3633, 66.1047, 0.0322527, 158.213
1, 2820.00000, 124.838, -30.5829, 126.169, -150.548, 125.377, 89.1786, 0, 0, 2.37351, -53.6568, 2.34848, -173.622, 2.3633, 66.1047, 0.0322527, 158.213
1, 2880.00000, 124.838, -30.5829, 126.169, -150.548, 125.377, 89.1786, 0, 0, 2.37351, -53.6568, 2.34848, -173.622, 2.3633, 66.1047, 0.0322527, 158.213
1, 2940.00000, 124.838, -30.5829, 126.169, -150.548, 125.377, 89.1786, 0, 0, 2.37351, -53.6568, 2.34848, -173.622, 2.3633, 66.1047, 0.0322527, 158.213
1, 3000.00000, 124.838, -30.5829, 126.169, -150.548, 125.377, 89.1786, 0, 0, 2.37351, -53.6568, 2.34848, -173.622, 2.3633, 66.1047, 0.0322527, 158.213
1, 3060.00000, 124.838, -30.5829, 126.169, -150.548, 125.377, 89.1786, 0, 0, 2.37351, -53.6568, 2.34848, -173.622, 2.3633, 66.1047, 0.0322527, 158.213
1, 3120.00000, 124.838, -30.5829, 126.169, -150.548, 125.377, 89.1786, 0, 0, 2.37351, -53.6568, 2.34848, -173.622, 2.3633, 66.1047, 0.0322527, 158.213
1, 3180.00000, 124.838, -30.5829, 126.169, -150.548, 125.377, 89.1786, 0, 0, 2.37351, -53.6568, 2.34848, -173.622, 2.3633, 66.1047, 0.0322527, 158.213
1, 3240.00000, 124.838, -30.5829, 126.169, -150.548, 125.377, 89.1786, 0, 0, 2.37351, -53.6568, 2.34848, -173.622, 2.3633, 66.1047, 0.0322527, 158.213
1, 3300.00000, 124.838, -30.5829, 126.169, -150.548, 125.377, 89.1786, 0, 0, 2.37351, -53.6568, 2.34848, -173.622, 2.3633, 66.1047, 0.0322527, 158.213
1, 3360.00000, 124.838, -30.5829, 126.169, -150.548, 125.377, 89.1786, 0, 0, 2.37351, -53.6568, 2.34848, -173.622, 2.3633, 66.1047, 0.0322527, 158.213
1, 3420.00000, 124.838, -30.5829, 126.169, -150.548, 125.377, 89.1786, 0, 0, 2.37351, -53.6568, 2.34848, -173.622, 2.3633, 66.1047, 0.0322527, 158.213
1, 3480.00000, 125.665, -30.5743, 126.109, -150.554, 125.863, 89.4565, 0, 0, 2.35793, -53.6488, 2.34958, -173.628, 2.3542, 66.3823, 0.0063894, 153.575
1, 3540.00000, 125.665, -30.5743, 126.109, -150.554, 125.863, 89.4565, 0, 0, 2.35788, -53.6482, 2.3496, -173.628, 2.35418, 66.3826, 0.00633843, 153.768
2, 0.00000, 125.665, -30.5743, 126.109, -150.554, 125.863, 89.4565, 0, 0, 2.35788, -53.6482, 2.3496, -173.628, 2.35418, 66.3826, 0.0063383, 153.769
2, 60.00000, 125.665, -30.5743, 126.109, -150.554, 125.863, 89.4565, 0, 0, 2.35788, -53.6482, 2.3496, -173.628, 2.35418, 66.3826, 0.0063383, 153.769
2, 120.00000, 125.66, -30.5754, 126.103, -150.555, 125.858, 89.4554, 0, 0, 2.36451, -53.6493, 2.35619, -173.629, 2.36079, 66.3816, 0.00636109, 153.718
2, 180.00000, 125.654, -30.5766, 126.098, -150.556, 125.852, 89.4543, 0, 0, 2.37122, -53.6505, 2.36287, -173.63, 2.36748, 66.3805, 0.00638777, 153.67
2, 240.00000, 125.648, -30.5778, 126.093, -150.557, 125.847, 89.4532, 0, 0, 2.37786, -53.6517, 2.36947, -173.631, 2.3741, 66.3794, 0.00641431, 153.623
2, 300.00000, 125.642, -30.579, 126.088, -150.558, 125.842, 89.4521, 0, 0, 2.38449, -53.6528, 2.37606, -173.632, 2.38071, 66.3783, 0.00644086, 153.576
2, 360.00000, 125.636, -30.5802, 126.083, -150.559, 125.836, 89.4511, 0, 0, 2.39121, -53.654, 2.38274, -173.633, 2.38741, 66.3772, 0.00646774, 153.529
2, 420.00000, 125.63, -30.5814, 126.077, -150.56, 125.831, 89.45, 0, 0, 2.39784, -53.6552, 2.38934, -173.634, 2.39402, 66.3762, 0.00649445, 153.482
2, 480.00000, 125.625, -30.5826, 126.072, -150.562, 125.825, 89.4489, 0, 0, 2.40448, -53.6564, 2.39594, -173.635, 2.40064, 66.3751, 0.00652117, 153.435
2, 540.00000, 125.619, -30.5838, 126.067, -150.563, 125.82, 89.4478, 0, 0, 2.4112, -53.6576, 2.40262, -173.636, 2.40734, 66.374, 0.00654822, 153.388
2, 600.00000, 125.613, -30.5849, 126.062, -150.564, 125.815, 89.4467, 0, 0, 2.41783, -53.6588, 2.40922, -173.638, 2.41396, 66.3729, 0.0065751, 153.342
2, 660.00000, 125.607, -30.5861, 126.057, -150.565, 125.809, 89.4456, 0, 0, 2.42447, -53.66, 2.41583, -173.639, 2.42058, 66.3718, 0.00660199, 153.295
2, 720.00000, 125.601, -30.5873, 126.051, -150.566, 125.804, 89.4445, 0, 0, 2.43119, -53.6612, 2.42251, -173.64, 2.42728, 66.3707, 0.00662921, 153.249
