hour,t(sec),V1,VAngle1,V2,VAngle2,V3,VAngle3,V4,VAngle4,I1,IAngle1,I2,IAngle2,I3,IAngle3,I4,IAngle4
0, 60.00000, 122.024, -30.4598, 123.772, -151.127, 121.354, 88.9598, 0, 0, 2.33376, -53.5335, 2.30085, -174.201, 2.34664, 65.8862, 0.0654042, -150.145
0, 120.00000, 122.024, -30.4598, 123.772, -151.127, 121.354, 88.9597, 0, 0, 2.33382, -53.5338, 2.30086, -174.201, 2.34672, 65.8858, 0.0654593, -150.167
0, 180.00000, 122.024, -30.4598, 123.772, -151.127, 121.354, 88.9597, 0, 0, 2.33383, -53.5338, 2.30086, -174.201, 2.34672, 65.8858, 0.0654597, -150.167
0, 240.00000, 122.024, -30.4598, 123.772, -151.127, 121.354, 88.9597, 0, 0, 2.33383, -53.5338, 2.30086, -174.201, 2.34672, 65.8858, 0.0654597, -150.167
0, 300.00000, 122.149, -30.4684, 124.725, -150.745, 122.558, 88.7631, 0, 0, 2.33148, -53.5422, 2.28336, -173.819, 2.32379, 65.688, 0.0721446, 177.35
0, 360.00000, 122.149, -30.4684, 124.725, -150.745, 122.558, 88.7632, 0, 0, 2.33143, -53.5423, 2.28328, -173.819, 2.32365, 65.6893, 0.0720895, 177.293
0, 420.00000, 122.149, -30.4684, 124.725, -150.745, 122.558, 88.7632, 0, 0, 2.33143, -53.5423, 2.28328, -173.819, 2.32365, 65.6893, 0.0720888, 177.293
0, 480.00000, 122.149, -30.4684, 124.725, -150.745, 122.558, 88.7632, 0, 0, 2.33143, -53.5423, 2.28328, -173.819, 2.32365, 65.6893, 0.0720888, 177.293
0, 540.00000, 122.149, -30.4684, 124.725, -150.745, 122.558, 88.7632, 0, 0, 2.33143, -53.5423, 2.28328, -173.819, 2.32365, 65.6893, 0.0720888, 177.293
0, 600.00000, 122.149, -30.4684, 124.725, -150.745, 122.558, 88.7632, 0, 0, 2.33143, -53.5423, 2.28328, -173.819, 2.32365, 65.6893, 0.0720888, 177.293
0, 660.00000, 122.149, -30.4684, 124.725, -150.745, 122.558, 88.7632, 0, 0, 2.33143, -53.5423, 2.28328, -173.819, 2.32365, 65.6893, 0.0720888, 177.293
0, 720.00000, 122.149, -30.4684, 124.725, -150.745, 122.558, 88.7632, 0, 0, 2.33143, -53.5423, 2.28328, -173.819, 2.32365, 65.6893, 0.0720888, 177.293
0, 780.00000, 122.151, -30.4677, 124.854, -150.579, 122.96, 88.8083, 0, 0, 2.33142, -53.5417, 2.28094, -173.653, 2.31612, 65.7337, 0.0720849, 167.335
0, 840.00000, 122.151, -30.4677, 124.854, -150.579, 122.96, 88.8084, 0, 0, 2.3314, -53.5416, 2.28093, -173.653, 2.31606, 65.7345, 0.0720399, 167.306
0, 900.00000, 122.151, -30.4677, 124.854, -150.579, 122.96, 88.8084, 0, 0, 2.3314, -53.5416, 2.28093, -173.653, 2.31606, 65.7345, 0.0720395, 167.306
0, 960.00000, 119.929, -30.0949, 125.012, -150.558, 120.924, 88.2114, 0, 0, 2.3441, -53.1673, 2.27807, -173.633, 2.35498, 65.137, 0.131617, -176.567
0, 1020.00000, 119.929, -30.095, 125.012, -150.558, 120.923, 88.2114, 0, 0, 2.3441, -53.1689, 2.27804, -173.632, 2.35507, 65.1375, 0.131612, -176.557
0, 1080.00000, 119.929, -30.095, 125.012, -150.558, 120.923, 88.2114, 0, 0, 2.3441, -53.1689, 2.27804, -173.632, 2.35507, 65.1375, 0.131612, -176.557
0, 1140.00000, 119.929, -30.095, 125.012, -150.558, 120.923, 88.2114, 0, 0, 2.3441, -53.1689, 2.27804, -173.632, 2.35507, 65.1375, 0.131612, -176.557
0, 1200.00000, 119.929, -30.095, 125.012, -150.558, 120.923, 88.2114, 0, 0, 2.3441, -53.1689, 2.27804, -173.632, 2.35507, 65.1375, 0.131612, -176.557
0, 1260.00000, 119.929, -30.095, 125.012, -150.558, 120.923, 88.2114, 0, 0, 2.3441, -53.1689, 2.27804, -173.632, 2.35507, 65.1375, 0.131612, -176.557
0, 1320.00000, 119.929, -30.095, 125.012, -150.558, 120.923, 88.2114, 0, 0, 2.3441, -53.1689, 2.27804, -173.632, 2.35507, 65.1375, 0.131612, -176.557
0, 1380.00000, 119.929, -30.095, 125.012, -150.558, 120.923, 88.2114, 0, 0, 2.3441, -53.1689, 2.27804, -173.632, 2.35507, 65.1375, 0.131612, -176.557
0, 1440.00000, 119.929, -30.095, 125.012, -150.558, 120.923, 88.2114, 0, 0, 2.3441, -53.1689, 2.27804, -173.632, 2.35507, 65.1375, 0.131612, -176.557
0, 1500.00000, 119.929, -30.095, 125.012, -150.558, 120.923, 88.2114, 0, 0, 2.3441, -53.1689, 2.27804, -173.632, 2.35507, 65.1375, 0.131612, -176.557
0, 1560.00000, 119.929, -30.095, 125.012, -150.558, 120.923, 88.2114, 0, 0, 2.3441, -53.1689, 2.27804, -173.632, 2.35507, 65.1375, 0.131612, -176.557
0, 1620.00000, 119.929, -30.095, 125.012, -150.558, 120.923, 88.2114, 0, 0, 2.3441, -53.1689, 2.27804, -173.632, 2.35507, 65.1375, 0.131612, -176.557
0, 1680.00000, 119.929, -30.095, 125.012, -150.558, 120.923, 88.2114, 0, 0, 2.3441, -53.1689, 2.27804, -173.632, 2.35507, 65.1375, 0.131612, -176.557
0, 1740.00000, 119.929, -30.095, 125.012, -150.558, 120.923, 88.2114, 0, 0, 2.3441, -53.1689, 2.27804, -173.632, 2.35507, 65.1375, 0.131612, -176.557
0, 1800.00000, 119.929, -30.095, 125.012, -150.558, 120.923, 88.2114, 0, 0, 2.3441, -53.1689, 2.27804, -173.632, 2.35507, 65.1375, 0.131612, -176.557
0, 1860.00000, 119.929, -30.095, 125.012, -150.558, 120.923, 88.2114, 0, 0, 2.3441, -53.1689, 2.27804, -173.632, 2.35507, 65.1375, 0.131612, -176.557
0, 1920.00000, 119.929, -30.095, 125.012, -150.558, 120.923, 88.2114, 0, 0, 2.3441, -53.1689, 2.27804, -173.632, 2.35507, 65.1375, 0.131612, -176.557
0, 1980.00000, 119.929, -30.095, 125.012, -150.558, 120.923, 88.2114, 0, 0, 2.3441, -53.1689, 2.27804, -173.632, 2.35507, 65.1375, 0.131612, -176.557
0, 2040.00000, 119.929, -30.095, 125.012, -150.558, 120.923, 88.2114, 0, 0, 2.3441, -53.1689, 2.27804, -173.632, 2.35507, 65.1375, 0.131612, -176.557
0, 2100.00000, 119.929, -30.095, 125.012, -150.558, 120.923, 88.2114, 0, 0, 2.3441, -53.1689, 2.27804, -173.632, 2.35507, 65.1375, 0.131612, -176.557
0, 2160.00000, 119.929, -30.095, 125.012, -150.558, 120.923, 88.2114, 0, 0, 2.3441, -53.1689, 2.27804, -173.632, 2.35507, 65.1375, 0.131612, -176.557
0, 2220.00000, 120.318, -30.0559, 125.012, -150.558, 121.044, 88.3812, 0, 0, 2.35252, -53.1302, 2.27804, -173.632, 2.35274, 65.3072, 0.130425, -178.71
0, 2280.00000, 120.318, -30.0559, 125.012, -150.559, 121.044, 88.3812, 0, 0, 2.35255, -53.1298, 2.27804, -173.632, 2.35273, 65.3073, 0.130437, -178.72
0, 2340.00000, 120.318, -30.0559, 125.012, -150.559, 121.044, 88.3812, 0, 0, 2.35255, -53.1298, 2.27804, -173.632, 2.35273, 65.3073, 0.130437, -178.72
0, 2400.00000, 120.318, -30.0559, 125.012, -150.559, 121.044, 88.3812, 0, 0, 2.35255, -53.1298, 2.27804, -173.632, 2.35273, 65.3073, 0.130437, -178.72
0, 2460.00000, 120.318, -30.0559, 125.012, -150.559, 121.044, 88.3812, 0, 0, 2.35255, -53.1298, 2.27804, -173.632, 2.35273, 65.3073, 0.130437, -178.72
0, 2520.00000, 120.318, -30.0559, 125.012, -150.559, 121.044, 88.3812, 0, 0, 2.35255, -53.1298, 2.27804, -173.632, 2.35273, 65.3073, 0.130437, -178.72
0, 2580.00000, 120.318, -30.0559, 125.012, -150.559, 121.044, 88.3812, 0, 0, 2.35255, -53.1298, 2.27804, -173.632, 2.35273, 65.3073, 0.130437, -178.72
0, 2640.00000, 120.318, -30.0559, 125.012, -150.559, 121.044, 88.3812, 0, 0, 2.35255, -53.1298, 2.27804, -173.632, 2.35273, 65.3073, 0.130437, -178.72
0, 2700.00000, 120.318, -30.0559, 125.012, -150.559, 121.044, 88.3812, 0, 0, 2.35255, -53.1298, 2.27804, -173.632, 2.35273, 65.3073, 0.130437, -178.72
0, 2760.00000, 120.318, -30.0559, 125.012, -150.559, 121.044, 88.3812, 0, 0, 2.35255, -53.1298, 2.27804, -173.632, 2.35273, 65.3073, 0.130437, -178.72
0, 2820.00000, 120.318, -30.0559, 125.012, -150.559, 121.044, 88.3812, 0, 0, 2.35255, -53.1298, 2.27804, -173.632, 2.35273, 65.3073, 0.130437, -178.72
0, 2880.00000, 120.318, -30.0559, 125.012, -150.559, 121.044, 88.3812, 0, 0, 2.35255, -53.1298, 2.27804, -173.632, 2.35273, 65.3073, 0.130437, -178.72
0, 2940.00000, 120.318, -30.0559, 125.012, -150.559, 121.044, 88.3812, 0, 0, 2.35255, -53.1298, 2.27804, -173.632, 2.35273, 65.3073, 0.130437, -178.72
0, 3000.00000, 120.318, -30.0559, 125.012, -150.559, 121.044, 88.3812, 0, 0, 2.35255, -53.1298, 2.27804, -173.632, 2.35273, 65.3073, 0.130437, -178.72
0, 3060.00000, 120.318, -30.0559, 125.012, -150.559, 121.044, 88.3812, 0, 0, 2.35255, -53.1298, 2.27804, -173.632, 2.35273, 65.3073, 0.130437, -178.72
0, 3120.00000, 120.318, -30.0559, 125.012, -150.559, 121.044, 88.3812, 0, 0, 2.35255, -53.1298, 2.27804, -173.632, 2.35273, 65.3073, 0.130437, -178.72
0, 3180.00000, 120.318, -30.0559, 125.012, -150.559, 121.044, 88.3812, 0, 0, 2.35255, -53.1298, 2.27804, -173.632, 2.35273, 65.3073, 0.130437, -178.72
0, 3240.00000, 120.318, -30.0559, 125.012, -150.559, 121.044, 88.3812, 0, 0, 2.35255, -53.1298, 2.27804, -173.632, 2.35273, 65.3073, 0.130437, -178.72
0, 3300.00000, 120.318, -30.0559, 125.012, -150.559, 121.044, 88.3812, 0, 0, 2.35255, -53.1298, 2.27804, -173.632, 2.35273, 65.3073, 0.130437, -178.72
0, 3360.00000, 120.318, -30.0559, 125.012, -150.559, 121.044, 88.3812, 0, 0, 2.35255, -53.1298, 2.27804, -173.632, 2.35273, 65.3073, 0.130437, -178.72
0, 3420.00000, 120.318, -30.0559, 125.012, -150.559, 121.044, 88.3812, 0, 0, 2.35255, -53.1298, 2.27804, -173.632, 2.35273, 65.3073, 0.130437, -178.72
0, 3480.00000, 120.318, -30.0559, 125.012, -150.559, 121.044, 88.3812, 0, 0, 2.35255, -53.1298, 2.27804, -173.632, 2.35273, 65.3073, 0.130437, -178.72
0, 3540.00000, 122.567, -30.427, 124.85, -150.579, 123.095, 88.9804, 0, 0, 2.32364, -53.5021, 2.28095, -173.653, 2.31368, 65.9057, 0.0601889, 172.366
1, 0.00000, 122.568, -30.4269, 124.85, -150.579, 123.096, 88.9804, 0, 0, 2.32348, -53.5008, 2.28101, -173.653, 2.31351, 65.9065, 0.0599737, 172.368
1, 60.00000, 122.568, -30.4269, 124.85, -150.579, 123.096, 88.9804, 0, 0, 2.32348, -53.5008, 2.28101, -173.653, 2.31351, 65.9065, 0.0599725, 172.368
1, 120.00000, 122.568, -30.4269, 124.85, -150.579, 123.096, 88.9804, 0, 0, 2.32348, -53.5008, 2.28101, -173.653, 2.31351, 65.9065, 0.0599724, 172.368
1, 180.00000, 122.568, -30.4269, 124.85, -150.579, 123.096, 88.9804, 0, 0, 2.32348, -53.5008, 2.28101, -173.653, 2.31351, 65.9065, 0.0599724, 172.368
1, 240.00000, 122.568, -30.4269, 124.85, -150.579, 123.096, 88.9804, 0, 0, 2.32348, -53.5008, 2.28101, -173.653, 2.31351, 65.9065, 0.0599724, 172.368
1, 300.00000, 122.568, -30.4269, 124.85, -150.579, 123.096, 88.9804, 0, 0, 2.32348, -53.5008, 2.28101, -173.653, 2.31351, 65.9065, 0.0599724, 172.368
1, 360.00000, 122.568, -30.4269, 124.85, -150.579, 123.096, 88.9804, 0, 0, 2.32348, -53.5008, 2.28101, -173.653, 2.31351, 65.9065, 0.0599724, 172.368
1, 420.00000, 122.568, -30.4269, 124.85, -150.579, 123.096, 88.9804, 0, 0, 2.32348, -53.5008, 2.28101, -173.653, 2.31351, 65.9065, 0.0599724, 172.368
1, 480.00000, 122.568, -30.4269, 124.85, -150.579, 123.096, 88.9804, 0, 0, 2.32348, -53.5008, 2.28101, -173.653, 2.31351, 65.9065, 0.0599724, 172.368
1, 540.00000, 122.568, -30.4269, 124.85, -150.579, 123.096, 88.9804, 0, 0, 2.32348, -53.5008, 2.28101, -173.653, 2.31351, 65.9065, 0.0599724, 172.368
1, 600.00000, 122.568, -30.4269, 124.85, -150.579, 123.096, 88.9804, 0, 0, 2.32348, -53.5008, 2.28101, -173.653, 2.31351, 65.9065, 0.0599724, 172.368
1, 660.00000, 122.568, -30.4268, 124.974, -150.415, 123.493, 89.0248, 0, 0, 2.32349, -53.5007, 2.27875, -173.489, 2.30612, 65.9503, 0.0612413, 160.704
1, 720.00000, 122.568, -30.4267, 124.974, -150.415, 123.493, 89.0248, 0, 0, 2.32347, -53.5007, 2.27874, -173.489, 2.30606, 65.9509, 0.0612082, 160.67
1, 780.00000, 124.183, -30.6009, 124.851, -150.429, 124.822, 89.4707, 0, 0, 2.29336, -53.6761, 2.28094, -173.503, 2.28162, 66.3964, 0.0161472, 110.876
1, 840.00000, 124.183, -30.6008, 124.85, -150.429, 124.822, 89.4708, 0, 0, 2.29325, -53.6747, 2.28099, -173.503, 2.28151, 66.3968, 0.0160647, 110.491
1, 900.00000, 124.183, -30.6008, 124.85, -150.429, 124.822, 89.4708, 0, 0, 2.29325, -53.6747, 2.28099, -173.503, 2.28151, 66.3968, 0.0160643, 110.489
1, 960.00000, 124.183, -30.6008, 124.85, -150.429, 124.822, 89.4708, 0, 0, 2.29325, -53.6747, 2.28099, -173.503, 2.28151, 66.3968, 0.0160643, 110.489
1, 1020.00000, 124.183, -30.6008, 124.85, -150.429, 124.822, 89.4708, 0, 0, 2.29325, -53.6747, 2.28099, -173.503, 2.28151, 66.3968, 0.0160643, 110.489
1, 1080.00000, 124.183, -30.6008, 124.85, -150.429, 124.822, 89.4708, 0, 0, 2.29325, -53.6747, 2.28099, -173.503, 2.28151, 66.3968, 0.0160643, 110.489
1, 1140.00000, 124.183, -30.6008, 124.85, -150.429, 124.822, 89.4708, 0, 0, 2.29325, -53.6747, 2.28099, -173.503, 2.28151, 66.3968, 0.0160643, 110.489
1, 1200.00000, 124.183, -30.6008, 124.85, -150.429, 124.822, 89.4708, 0, 0, 2.29325, -53.6747, 2.28099, -173.503, 2.28151, 66.3968, 0.0160643, 110.489
1, 1260.00000, 124.183, -30.6008, 124.85, -150.429, 124.822, 89.4708, 0, 0, 2.29325, -53.6747, 2.28099, -173.503, 2.28151, 66.3968, 0.0160643, 110.489
1, 1320.00000, 124.183, -30.6008, 124.85, -150.429, 124.822, 89.4708, 0, 0, 2.29325, -53.6747, 2.28099, -173.503, 2.28151, 66.3968, 0.0160643, 110.489
1, 1380.00000, 124.183, -30.6008, 124.85, -150.429, 124.822, 89.4708, 0, 0, 2.29325, -53.6747, 2.28099, -173.503, 2.28151, 66.3968, 0.0160643, 110.489
1, 1440.00000, 124.183, -30.6008, 124.85, -150.429, 124.822, 89.4708, 0, 0, 2.29325, -53.6747, 2.28099, -173.503, 2.28151, 66.3968, 0.0160643, 110.489
1, 1500.00000, 124.183, -30.6008, 124.85, -150.429, 124.822, 89.4708, 0, 0, 2.29325, -53.6747, 2.28099, -173.503, 2.28151, 66.3968, 0.0160643, 110.489
1, 1560.00000, 124.183, -30.6008, 124.85, -150.429, 124.822, 89.4708, 0, 0, 2.29325, -53.6747, 2.28099, -173.503, 2.28151, 66.3968, 0.0160643, 110.489
1, 1620.00000, 124.183, -30.6008, 124.85, -150.429, 124.822, 89.4708, 0, 0, 2.29325, -53.6747, 2.28099, -173.503, 2.28151, 66.3968, 0.0160643, 110.489
1, 1680.00000, 124.183, -30.6008, 124.85, -150.429, 124.822, 89.4708, 0, 0, 2.29325, -53.6747, 2.28099, -173.503, 2.28151, 66.3968, 0.0160643, 110.489
1, 1740.00000, 124.183, -30.6008, 124.85, -150.429, 124.822, 89.4708, 0, 0, 2.29325, -53.6747, 2.28099, -173.503, 2.28151, 66.3968, 0.0160643, 110.489
1, 1800.00000, 124.183, -30.6008, 124.85, -150.429, 124.822, 89.4708, 0, 0, 2.29325, -53.6747, 2.28099, -173.503, 2.28151, 66.3968, 0.0160643, 110.489
1, 1860.00000, 124.183, -30.6008, 124.85, -150.429, 124.822, 89.4708, 0, 0, 2.29325, -53.6747, 2.28099, -173.503, 2.28151, 66.3968, 0.0160643, 110.489
1, 1920.00000, 124.183, -30.6008, 124.85, -150.429, 124.822, 89.4708, 0, 0, 2.29325, -53.6747, 2.28099, -173.503, 2.28151, 66.3968, 0.0160643, 110.489
1, 1980.00000, 124.183, -30.6008, 124.85, -150.429, 124.822, 89.4708, 0, 0, 2.29325, -53.6747, 2.28099, -173.503, 2.28151, 66.3968, 0.0160643, 110.489
1, 2040.00000, 124.183, -30.6008, 124.85, -150.429, 124.822, 89.4708, 0, 0, 2.29325, -53.6747, 2.28099, -173.503, 2.28151, 66.3968, 0.0160643, 110.489
1, 2100.00000, 124.183, -30.6008, 124.85, -150.429, 124.822, 89.4708, 0, 0, 2.29325, -53.6747, 2.28099, -173.503, 2.28151, 66.3968, 0.0160643, 110.489
1, 2160.00000, 124.183, -30.6008, 124.85, -150.429, 124.822, 89.4708, 0, 0, 2.29325, -53.6747, 2.28099, -173.503, 2.28151, 66.3968, 0.0160643, 110.489
1, 2220.00000, 124.183, -30.6008, 124.85, -150.429, 124.822, 89.4708, 0, 0, 2.29325, -53.6747, 2.28099, -173.503, 2.28151, 66.3968, 0.0160643, 110.489
1, 2280.00000, 124.183, -30.6008, 124.85, -150.429, 124.822, 89.4708, 0, 0, 2.29325, -53.6747, 2.28099, -173.503, 2.28151, 66.3968, 0.0160643, 110.489
1, 2340.00000, 124.183, -30.6008, 124.85, -150.429, 124.822, 89.4708, 0, 0, 2.29325, -53.6747, 2.28099, -173.503, 2.28151, 66.3968, 0.0160643, 110.489
1, 2400.00000, 124.183, -30.6008, 124.85, -150.429, 124.822, 89.4708, 0, 0, 2.29325, -53.6747, 2.28099, -173.503, 2.28151, 66.3968, 0.0160643, 110.489
1, 2460.00000, 124.183, -30.6008, 124.85, -150.429, 124.822, 89.4708, 0, 0, 2.29325, -53.6747, 2.28099, -173.503, 2.28151, 66.3968, 0.0160643, 110.489
1, 2520.00000, 124.183, -30.6008, 124.85, -150.429, 124.822, 89.4708, 0, 0, 2.29325, -53.6747, 2.28099, -173.503, 2.28151, 66.3968, 0.0160643, 110.489
1, 2580.00000, 124.183, -30.6008, 124.85, -150.429, 124.822, 89.4708, 0, 0, 2.29325, -53.6747, 2.28099, -173.503, 2.28151, 66.3968, 0.0160643, 110.489
1, 2640.00000, 124.183, -30.6008, 124.85, -150.429, 124.822, 89.4708, 0, 0, 2.29325, -53.6747, 2.28099, -173.503, 2.28151, 66.3968, 0.0160643, 110.489
1, 2700.00000, 124.183, -30.6008, 124.85, -150.429, 124.822, 89.4708, 0, 0, 2.29325, -53.6747, 2.28099, -173.503, 2.28151, 66.3968, 0.0160643, 110.489
1, 2760.00000, 124.183, -30.6008, 124.85, -150.429, 124.822, 89.4708, 0, 0, 2.29325, -53.6747, 2.28099, -173.503, 2.28151, 66.3968, 0.0160643, 110.489
1, 2820.00000, 124.183, -30.6008, 124.85, -150.429, 124.822, 89.4708, 0, 0, 2.29325, -53.6747, 2.28099, -173.503, 2.28151, 66.3968, 0.0160643, 110.489
1, 2880.00000, 124.183, -30.6008, 124.85, -150.429, 124.822, 89.4708, 0, 0, 2.29325, -53.6747, 2.28099, -173.503, 2.28151, 66.3968, 0.0160643, 110.489
1, 2940.00000, 124.183, -30.6008, 124.85, -150.429, 124.822, 89.4708, 0, 0, 2.29325, -53.6747, 2.28099, -173.503, 2.28151, 66.3968, 0.0160643, 110.489
1, 3000.00000, 124.183, -30.6008, 124.85, -150.429, 124.822, 89.4708, 0, 0, 2.29325, -53.6747, 2.28099, -173.503, 2.28151, 66.3968, 0.0160643, 110.489
1, 3060.00000, 124.183, -30.6008, 124.85, -150.429, 124.822, 89.4708, 0, 0, 2.29325, -53.6747, 2.28099, -173.503, 2.28151, 66.3968, 0.0160643, 110.489
1, 3120.00000, 124.183, -30.6008, 124.85, -150.429, 124.822, 89.4708, 0, 0, 2.29325, -53.6747, 2.28099, -173.503, 2.28151, 66.3968, 0.0160643, 110.489
1, 3180.00000, 124.183, -30.6008, 124.85, -150.429, 124.822, 89.4708, 0, 0, 2.29325, -53.6747, 2.28099, -173.503, 2.28151, 66.3968, 0.0160643, 110.489
1, 3240.00000, 124.183, -30.6008, 124.85, -150.429, 124.822, 89.4708, 0, 0, 2.29325, -53.6747, 2.28099, -173.503, 2.28151, 66.3968, 0.0160643, 110.489
1, 3300.00000, 124.183, -30.6008, 124.85, -150.429, 124.822, 89.4708, 0, 0, 2.29325, -53.6747, 2.28099, -173.503, 2.28151, 66.3968, 0.0160643, 110.489
1, 3360.00000, 124.183, -30.6008, 124.85, -150.429, 124.822, 89.4708, 0, 0, 2.29325, -53.6747, 2.28099, -173.503, 2.28151, 66.3968, 0.0160643, 110.489
1, 3420.00000, 124.183, -30.6008, 124.85, -150.429, 124.822, 89.4708, 0, 0, 2.29325, -53.6747, 2.28099, -173.503, 2.28151, 66.3968, 0.0160643, 110.489
1, 3480.00000, 124.584, -30.5575, 124.846, -150.429, 124.948, 89.6368, 0, 0, 2.28591, -53.6321, 2.28105, -173.503, 2.27923, 66.5627, 0.00877305, 60.0626
1, 3540.00000, 124.585, -30.5575, 124.846, -150.429, 124.948, 89.6368, 0, 0, 2.28586, -53.6314, 2.28107, -173.503, 2.27921, 66.5629, 0.00875286, 59.6766
2, 0.00000, 124.585, -30.5575, 124.846, -150.429, 124.948, 89.6368, 0, 0, 2.28586, -53.6314, 2.28107, -173.503, 2.27921, 66.5629, 0.00875279, 59.6751
2, 60.00000, 124.585, -30.5575, 124.846, -150.429, 124.948, 89.6368, 0, 0, 2.28586, -53.6314, 2.28107, -173.503, 2.27921, 66.5629, 0.00875279, 59.6751
2, 120.00000, 124.576, -30.5585, 124.838, -150.43, 124.94, 89.636, 0, 0, 2.29233, -53.6324, 2.28751, -173.504, 2.28565, 66.5622, 0.00878667, 59.7396
2, 180.00000, 124.567, -30.5595, 124.831, -150.431, 124.932, 89.6352, 0, 0, 2.29889, -53.6334, 2.29404, -173.505, 2.29218, 66.5613, 0.00882001, 59.8254
2, 240.00000, 124.558, -30.5605, 124.823, -150.432, 124.924, 89.6343, 0, 0, 2.30538, -53.6344, 2.3005, -173.505, 2.29864, 66.5605, 0.00885299, 59.9108
2, 300.00000, 124.55, -30.5615, 124.815, -150.432, 124.916, 89.6335, 0, 0, 2.31187, -53.6354, 2.30695, -173.506, 2.30509, 66.5596, 0.00888606, 59.9959
2, 360.00000, 124.541, -30.5626, 124.807, -150.433, 124.908, 89.6327, 0, 0, 2.31843, -53.6364, 2.31349, -173.507, 2.31163, 66.5588, 0.00891961, 60.0816
2, 420.00000, 124.532, -30.5636, 124.8, -150.434, 124.9, 89.6318, 0, 0, 2.32492, -53.6374, 2.31994, -173.508, 2.31808, 66.558, 0.00895281, 60.1666
2, 480.00000, 124.523, -30.5646, 124.792, -150.435, 124.892, 89.631, 0, 0, 2.33141, -53.6384, 2.3264, -173.509, 2.32454, 66.5571, 0.00898609, 60.2513
2, 540.00000, 124.515, -30.5656, 124.784, -150.436, 124.884, 89.6301, 0, 0, 2.33798, -53.6395, 2.33294, -173.51, 2.33108, 66.5563, 0.00901986, 60.3366
2, 600.00000, 124.506, -30.5666, 124.776, -150.437, 124.876, 89.6293, 0, 0, 2.34447, -53.6405, 2.33939, -173.511, 2.33753, 66.5554, 0.00905328, 60.4212
2, 660.00000, 124.497, -30.5676, 124.769, -150.438, 124.868, 89.6285, 0, 0, 2.35097, -53.6415, 2.34585, -173.511, 2.34399, 66.5546, 0.00908678, 60.5055
2, 720.00000, 124.488, -30.5686, 124.761, -150.438, 124.859, 89.6276, 0, 0, 2.35754, -53.6425, 2.35239, -173.512, 2.35053, 66.5538, 0.00912077, 60.5905
