hour,t(sec),V1,VAngle1,V2,VAngle2,V3,VAngle3,V4,VAngle4,I1,IAngle1,I2,IAngle2,I3,IAngle3,I4,IAngle4
0, 60.00000, 126.999, -31.3843, 126.543, -150.718, 128.103, 89.2351, 0, 0, 2.68318, -54.4578, 2.69285, -173.792, 2.6601, 66.1614, 0.0590724, 44.3892
0, 120.00000, 127.008, -31.3927, 126.543, -150.718, 128.125, 89.2346, 0, 0, 2.68298, -54.4662, 2.69285, -173.792, 2.65963, 66.1608, 0.0598541, 44.3379
0, 180.00000, 127.016, -31.4002, 126.543, -150.718, 128.145, 89.2341, 0, 0, 2.68281, -54.4738, 2.69285, -173.792, 2.65922, 66.1603, 0.0605578, 44.2933
0, 240.00000, 127.024, -31.4071, 126.543, -150.718, 128.163, 89.2336, 0, 0, 2.68266, -54.4807, 2.69285, -173.792, 2.65885, 66.1598, 0.0611915, 44.2547
0, 300.00000, 127.03, -31.4132, 126.543, -150.718, 128.179, 89.2332, 0, 0, 2.68252, -54.4869, 2.69286, -173.792, 2.65851, 66.1594, 0.061762, 44.2211
0, 360.00000, 127.036, -31.4188, 126.543, -150.718, 128.193, 89.2328, 0, 0, 2.68239, -54.4924, 2.69286, -173.792, 2.65821, 66.159, 0.0622756, 44.1918
0, 420.00000, 127.041, -31.4238, 126.543, -150.717, 128.206, 89.2324, 0, 0, 2.68228, -54.4974, 2.69286, -173.791, 2.65793, 66.1586, 0.062738, 44.1662
0, 480.00000, 127.046, -31.4283, 126.543, -150.717, 128.218, 89.2321, 0, 0, 2.68218, -54.502, 2.69286, -173.791, 2.65769, 66.1583, 0.0631543, 44.1438
0, 540.00000, 127.051, -31.4323, 126.543, -150.717, 128.229, 89.2318, 0, 0, 2.68209, -54.506, 2.69286, -173.791, 2.65747, 66.158, 0.063529, 44.124
0, 600.00000, 127.054, -31.4359, 126.543, -150.717, 128.238, 89.2315, 0, 0, 2.682, -54.5097, 2.69286, -173.791, 2.65727, 66.1577, 0.0638664, 44.1066
0, 660.00000, 127.058, -31.4392, 126.543, -150.717, 128.247, 89.2313, 0, 0, 2.68193, -54.513, 2.69286, -173.791, 2.65709, 66.1574, 0.06417, 44.0913
0, 720.00000, 127.061, -31.4422, 126.543, -150.717, 128.254, 89.2311, 0, 0, 2.68186, -54.516, 2.69286, -173.791, 2.65693, 66.1572, 0.0644434, 44.0777
0, 780.00000, 127.064, -31.4448, 126.543, -150.717, 128.261, 89.2309, 0, 0, 2.68181, -54.5186, 2.69286, -173.791, 2.65679, 66.157, 0.0646894, 44.0656
0, 840.00000, 127.066, -31.4472, 126.543, -150.717, 128.267, 89.2307, 0, 0, 2.68175, -54.521, 2.69286, -173.791, 2.65666, 66.1568, 0.0649109, 44.0549
0, 900.00000, 127.069, -31.4494, 126.543, -150.717, 128.273, 89.2305, 0, 0, 2.6817, -54.5232, 2.69286, -173.791, 2.65654, 66.1567, 0.0651103, 44.0454
0, 960.00000, 127.072, -31.4475, 126.412, -150.888, 127.87, 89.1899, 0, 0, 2.68163, -54.5213, 2.69564, -173.962, 2.66492, 66.116, 0.0546374, 34.0376
0, 1020.00000, 127.074, -31.4492, 126.412, -150.888, 127.874, 89.1898, 0, 0, 2.68159, -54.5231, 2.69564, -173.962, 2.66482, 66.1159, 0.054798, 34.0575
0, 1080.00000, 127.076, -31.4508, 126.412, -150.888, 127.878, 89.1897, 0, 0, 2.68156, -54.5246, 2.69564, -173.962, 2.66473, 66.1158, 0.0549432, 34.0761
0, 1140.00000, 127.077, -31.4522, 126.412, -150.888, 127.882, 89.1896, 0, 0, 2.68152, -54.526, 2.69564, -173.962, 2.66466, 66.1157, 0.0550739, 34.0929
0, 1200.00000, 127.079, -31.4535, 126.412, -150.888, 127.885, 89.1895, 0, 0, 2.6815, -54.5273, 2.69564, -173.962, 2.66459, 66.1156, 0.0551915, 34.1079
0, 1260.00000, 127.08, -31.4546, 126.412, -150.888, 127.888, 89.1894, 0, 0, 2.68147, -54.5285, 2.69564, -173.962, 2.66452, 66.1155, 0.0552973, 34.1214
0, 1320.00000, 127.081, -31.4556, 126.412, -150.888, 127.891, 89.1893, 0, 0, 2.68145, -54.5295, 2.69564, -173.962, 2.66447, 66.1154, 0.0553926, 34.1335
0, 1380.00000, 127.082, -31.4565, 126.412, -150.888, 127.893, 89.1893, 0, 0, 2.68143, -54.5304, 2.69564, -173.962, 2.66442, 66.1154, 0.0554784, 34.1443
0, 1440.00000, 127.083, -31.4574, 126.412, -150.888, 127.896, 89.1892, 0, 0, 2.68141, -54.5313, 2.69564, -173.962, 2.66437, 66.1153, 0.0555555, 34.1541
0, 1500.00000, 127.084, -31.4581, 126.412, -150.888, 127.898, 89.1892, 0, 0, 2.68139, -54.532, 2.69564, -173.962, 2.66433, 66.1153, 0.055625, 34.1629
0, 1560.00000, 127.084, -31.4588, 126.412, -150.888, 127.899, 89.1891, 0, 0, 2.68138, -54.5327, 2.69564, -173.962, 2.66429, 66.1152, 0.0556875, 34.1708
0, 1620.00000, 127.085, -31.4594, 126.412, -150.888, 127.901, 89.1891, 0, 0, 2.68136, -54.5333, 2.69564, -173.962, 2.66426, 66.1152, 0.0557438, 34.1779
0, 1680.00000, 127.086, -31.46, 126.412, -150.888, 127.902, 89.189, 0, 0, 2.68135, -54.5338, 2.69564, -173.962, 2.66423, 66.1151, 0.0557944, 34.1842
0, 1740.00000, 127.086, -31.4604, 126.412, -150.888, 127.904, 89.189, 0, 0, 2.68134, -54.5343, 2.69564, -173.962, 2.6642, 66.1151, 0.05584, 34.19
0, 1800.00000, 127.087, -31.4609, 126.412, -150.888, 127.905, 89.189, 0, 0, 2.68133, -54.5348, 2.69564, -173.962, 2.66418, 66.1151, 0.055881, 34.1951
0, 1860.00000, 127.087, -31.4613, 126.412, -150.888, 127.906, 89.1889, 0, 0, 2.68132, -54.5352, 2.69564, -173.962, 2.66415, 66.115, 0.055918, 34.1997
0, 1920.00000, 127.087, -31.4616, 126.412, -150.888, 127.907, 89.1889, 0, 0, 2.68131, -54.5355, 2.69564, -173.962, 2.66413, 66.115, 0.0559512, 34.2039
0, 1980.00000, 127.088, -31.462, 126.412, -150.888, 127.908, 89.1889, 0, 0, 2.6813, -54.5359, 2.69564, -173.962, 2.66412, 66.115, 0.0559811, 34.2077
0, 2040.00000, 127.088, -31.4623, 126.412, -150.888, 127.908, 89.1889, 0, 0, 2.6813, -54.5362, 2.69564, -173.962, 2.6641, 66.115, 0.056008, 34.211
0, 2100.00000, 127.088, -31.4625, 126.412, -150.888, 127.909, 89.1889, 0, 0, 2.68129, -54.5364, 2.69564, -173.962, 2.66409, 66.1149, 0.0560323, 34.2141
0, 2160.00000, 127.089, -31.4627, 126.412, -150.888, 127.91, 89.1888, 0, 0, 2.68129, -54.5367, 2.69564, -173.962, 2.66407, 66.1149, 0.0560541, 34.2168
0, 2220.00000, 127.089, -31.463, 126.412, -150.888, 127.91, 89.1888, 0, 0, 2.68128, -54.5369, 2.69564, -173.962, 2.66406, 66.1149, 0.0560737, 34.2192
0, 2280.00000, 127.089, -31.4632, 126.412, -150.888, 127.911, 89.1888, 0, 0, 2.68128, -54.5371, 2.69564, -173.962, 2.66405, 66.1149, 0.0560913, 34.2214
0, 2340.00000, 127.089, -31.4633, 126.412, -150.888, 127.911, 89.1888, 0, 0, 2.68127, -54.5372, 2.69564, -173.962, 2.66404, 66.1149, 0.0561072, 34.2234
0, 2400.00000, 127.089, -31.4635, 126.412, -150.888, 127.912, 89.1888, 0, 0, 2.68127, -54.5374, 2.69564, -173.962, 2.66403, 66.1149, 0.0561215, 34.2252
0, 2460.00000, 127.089, -31.4636, 126.412, -150.888, 127.912, 89.1888, 0, 0, 2.68127, -54.5375, 2.69564, -173.962, 2.66403, 66.1149, 0.0561344, 34.2268
0, 2520.00000, 127.09, -31.4637, 126.412, -150.888, 127.912, 89.1888, 0, 0, 2.68126, -54.5377, 2.69564, -173.962, 2.66402, 66.1149, 0.056146, 34.2283
0, 2580.00000, 127.09, -31.4639, 126.412, -150.888, 127.913, 89.1888, 0, 0, 2.68126, -54.5378, 2.69564, -173.962, 2.66401, 66.1148, 0.0561564, 34.2296
0, 2640.00000, 127.09, -31.464, 126.412, -150.888, 127.913, 89.1888, 0, 0, 2.68126, -54.5379, 2.69564, -173.962, 2.66401, 66.1148, 0.0561658, 34.2307
0, 2700.00000, 127.09, -31.464, 126.412, -150.888, 127.913, 89.1887, 0, 0, 2.68126, -54.538, 2.69564, -173.962, 2.664, 66.1148, 0.0561743, 34.2318
0, 2760.00000, 127.09, -31.4641, 126.412, -150.888, 127.913, 89.1887, 0, 0, 2.68126, -54.538, 2.69564, -173.962, 2.664, 66.1148, 0.0561819, 34.2327
0, 2820.00000, 127.09, -31.4642, 126.412, -150.888, 127.914, 89.1887, 0, 0, 2.68125, -54.5381, 2.69564, -173.962, 2.66399, 66.1148, 0.0561887, 34.2336
0, 2880.00000, 127.09, -31.4643, 126.412, -150.888, 127.914, 89.1887, 0, 0, 2.68125, -54.5382, 2.69564, -173.962, 2.66399, 66.1148, 0.0561949, 34.2344
0, 2940.00000, 127.09, -31.4643, 126.412, -150.888, 127.914, 89.1887, 0, 0, 2.68125, -54.5382, 2.69564, -173.962, 2.66399, 66.1148, 0.0562004, 34.2351
0, 3000.00000, 127.09, -31.4644, 126.412, -150.888, 127.914, 89.1887, 0, 0, 2.68125, -54.5383, 2.69564, -173.962, 2.66398, 66.1148, 0.0562054, 34.2357
0, 3060.00000, 127.09, -31.4644, 126.412, -150.888, 127.914, 89.1887, 0, 0, 2.68125, -54.5383, 2.69564, -173.962, 2.66398, 66.1148, 0.0562099, 34.2362
0, 3120.00000, 127.09, -31.4645, 126.412, -150.888, 127.914, 89.1887, 0, 0, 2.68125, -54.5384, 2.69564, -173.962, 2.66398, 66.1148, 0.0562139, 34.2367
0, 3180.00000, 127.09, -31.4645, 126.412, -150.888, 127.914, 89.1887, 0, 0, 2.68125, -54.5384, 2.69564, -173.962, 2.66398, 66.1148, 0.0562176, 34.2372
0, 3240.00000, 127.09, -31.4645, 126.412, -150.888, 127.914, 89.1887, 0, 0, 2.68125, -54.5385, 2.69564, -173.962, 2.66397, 66.1148, 0.0562208, 34.2376
0, 3300.00000, 127.09, -31.4646, 126.412, -150.888, 127.915, 89.1887, 0, 0, 2.68125, -54.5385, 2.69564, -173.962, 2.66397, 66.1148, 0.0562238, 34.238
0, 3360.00000, 127.091, -31.4646, 126.412, -150.888, 127.915, 89.1887, 0, 0, 2.68125, -54.5385, 2.69564, -173.962, 2.66397, 66.1148, 0.0562264, 34.2383
0, 3420.00000, 127.091, -31.4646, 126.412, -150.888, 127.915, 89.1887, 0, 0, 2.68124, -54.5386, 2.69564, -173.962, 2.66397, 66.1148, 0.0562288, 34.2386
0, 3480.00000, 127.091, -31.4647, 126.412, -150.888, 127.915, 89.1887, 0, 0, 2.68124, -54.5386, 2.69564, -173.962, 2.66397, 66.1148, 0.056231, 34.2389
0, 3540.00000, 127.091, -31.4647, 126.412, -150.888, 127.915, 89.1887, 0, 0, 2.68124, -54.5386, 2.69564, -173.962, 2.66397, 66.1148, 0.0562329, 34.2391
1, 0.00000, 127.091, -31.4647, 126.412, -150.888, 127.915, 89.1887, 0, 0, 2.68124, -54.5386, 2.69564, -173.962, 2.66397, 66.1148, 0.0562346, 34.2393
1, 60.00000, 127.091, -31.4647, 126.412, -150.888, 127.915, 89.1887, 0, 0, 2.68124, -54.5386, 2.69564, -173.962, 2.66397, 66.1148, 0.0562362, 34.2395
1, 120.00000, 127.091, -31.4647, 126.412, -150.888, 127.915, 89.1887, 0, 0, 2.68124, -54.5386, 2.69564, -173.962, 2.66396, 66.1148, 0.0562376, 34.2397
1, 180.00000, 127.091, -31.4647, 126.412, -150.888, 127.915, 89.1887, 0, 0, 2.68124, -54.5387, 2.69564, -173.962, 2.66396, 66.1148, 0.0562389, 34.2398
1, 240.00000, 127.091, -31.4648, 126.412, -150.888, 127.915, 89.1887, 0, 0, 2.68124, -54.5387, 2.69564, -173.962, 2.66396, 66.1148, 0.05624, 34.24
1, 300.00000, 127.091, -31.4648, 126.412, -150.888, 127.915, 89.1887, 0, 0, 2.68124, -54.5387, 2.69564, -173.962, 2.66396, 66.1148, 0.0562411, 34.2401
1, 360.00000, 127.091, -31.4648, 126.412, -150.888, 127.915, 89.1887, 0, 0, 2.68124, -54.5387, 2.69564, -173.962, 2.66396, 66.1148, 0.056242, 34.2402
1, 420.00000, 127.091, -31.4648, 126.412, -150.888, 127.915, 89.1887, 0, 0, 2.68124, -54.5387, 2.69564, -173.962, 2.66396, 66.1148, 0.0562428, 34.2403
1, 480.00000, 127.091, -31.4648, 126.412, -150.888, 127.915, 89.1887, 0, 0, 2.68124, -54.5387, 2.69564, -173.962, 2.66396, 66.1148, 0.0562436, 34.2404
1, 540.00000, 127.091, -31.4648, 126.412, -150.888, 127.915, 89.1887, 0, 0, 2.68124, -54.5387, 2.69564, -173.962, 2.66396, 66.1148, 0.0562442, 34.2405
1, 600.00000, 127.091, -31.4648, 126.412, -150.888, 127.915, 89.1887, 0, 0, 2.68124, -54.5387, 2.69564, -173.962, 2.66396, 66.1148, 0.0562448, 34.2406
1, 660.00000, 127.091, -31.4648, 126.412, -150.888, 127.915, 89.1887, 0, 0, 2.68124, -54.5387, 2.69564, -173.962, 2.66396, 66.1148, 0.0562454, 34.2407
1, 720.00000, 127.091, -31.4648, 126.412, -150.888, 127.915, 89.1887, 0, 0, 2.68124, -54.5387, 2.69564, -173.962, 2.66396, 66.1148, 0.0562459, 34.2407
1, 780.00000, 127.091, -31.4648, 126.412, -150.888, 127.915, 89.1887, 0, 0, 2.68124, -54.5387, 2.69564, -173.962, 2.66396, 66.1148, 0.0562463, 34.2408
1, 840.00000, 127.091, -31.4648, 126.412, -150.888, 127.915, 89.1887, 0, 0, 2.68124, -54.5387, 2.69564, -173.962, 2.66396, 66.1148, 0.0562467, 34.2408
1, 900.00000, 127.091, -31.4648, 126.412, -150.888, 127.915, 89.1887, 0, 0, 2.68124, -54.5387, 2.69564, -173.962, 2.66396, 66.1148, 0.0562471, 34.2409
1, 960.00000, 127.091, -31.4648, 126.412, -150.888, 127.915, 89.1887, 0, 0, 2.68124, -54.5387, 2.69564, -173.962, 2.66396, 66.1148, 0.0562474, 34.2409
1, 1020.00000, 127.091, -31.4648, 126.412, -150.888, 127.915, 89.1887, 0, 0, 2.68124, -54.5388, 2.69564, -173.962, 2.66396, 66.1148, 0.0562477, 34.2409
1, 1080.00000, 127.091, -31.4648, 126.412, -150.888, 127.915, 89.1887, 0, 0, 2.68124, -54.5388, 2.69564, -173.962, 2.66396, 66.1148, 0.0562479, 34.241
1, 1140.00000, 127.091, -31.4648, 126.412, -150.888, 127.915, 89.1887, 0, 0, 2.68124, -54.5388, 2.69564, -173.962, 2.66396, 66.1148, 0.0562482, 34.241
1, 1200.00000, 127.091, -31.4648, 126.412, -150.888, 127.915, 89.1887, 0, 0, 2.68124, -54.5388, 2.69564, -173.962, 2.66396, 66.1148, 0.0562484, 34.241
1, 1260.00000, 127.091, -31.4648, 126.412, -150.888, 127.915, 89.1887, 0, 0, 2.68124, -54.5388, 2.69564, -173.962, 2.66396, 66.1148, 0.0562486, 34.2411
1, 1320.00000, 127.091, -31.4648, 126.412, -150.888, 127.915, 89.1887, 0, 0, 2.68124, -54.5388, 2.69564, -173.962, 2.66396, 66.1148, 0.0562488, 34.2411
1, 1380.00000, 127.091, -31.4648, 126.412, -150.888, 127.915, 89.1887, 0, 0, 2.68124, -54.5388, 2.69564, -173.962, 2.66396, 66.1148, 0.0562489, 34.2411
1, 1440.00000, 127.091, -31.4649, 126.412, -150.888, 127.915, 89.1887, 0, 0, 2.68124, -54.5388, 2.69564, -173.962, 2.66396, 66.1148, 0.0562491, 34.2411
1, 1500.00000, 127.091, -31.4649, 126.412, -150.888, 127.915, 89.1887, 0, 0, 2.68124, -54.5388, 2.69564, -173.962, 2.66396, 66.1148, 0.0562492, 34.2411
1, 1560.00000, 127.091, -31.4649, 126.412, -150.888, 127.915, 89.1887, 0, 0, 2.68124, -54.5388, 2.69564, -173.962, 2.66396, 66.1148, 0.0562493, 34.2411
1, 1620.00000, 127.091, -31.4649, 126.412, -150.888, 127.915, 89.1887, 0, 0, 2.68124, -54.5388, 2.69564, -173.962, 2.66396, 66.1148, 0.0562494, 34.2411
1, 1680.00000, 127.091, -31.4649, 126.412, -150.888, 127.915, 89.1887, 0, 0, 2.68124, -54.5388, 2.69564, -173.962, 2.66396, 66.1148, 0.0562495, 34.2412
1, 1740.00000, 127.091, -31.4649, 126.412, -150.888, 127.915, 89.1887, 0, 0, 2.68124, -54.5388, 2.69564, -173.962, 2.66396, 66.1148, 0.0562496, 34.2412
1, 1800.00000, 127.091, -31.4649, 126.412, -150.888, 127.915, 89.1887, 0, 0, 2.68124, -54.5388, 2.69564, -173.962, 2.66396, 66.1148, 0.0562496, 34.2412
1, 1860.00000, 127.091, -31.4649, 126.412, -150.888, 127.915, 89.1887, 0, 0, 2.68124, -54.5388, 2.69564, -173.962, 2.66396, 66.1148, 0.0562497, 34.2412
1, 1920.00000, 127.091, -31.4649, 126.412, -150.888, 127.915, 89.1887, 0, 0, 2.68124, -54.5388, 2.69564, -173.962, 2.66396, 66.1148, 0.0562498, 34.2412
1, 1980.00000, 127.091, -31.4649, 126.412, -150.888, 127.915, 89.1887, 0, 0, 2.68124, -54.5388, 2.69564, -173.962, 2.66396, 66.1148, 0.0562498, 34.2412
1, 2040.00000, 127.507, -31.4341, 126.417, -150.887, 128.088, 89.3536, 0, 0, 2.67249, -54.508, 2.69553, -173.961, 2.66037, 66.2797, 0.0634333, 22.1456
1, 2100.00000, 127.507, -31.4341, 126.417, -150.887, 128.088, 89.3536, 0, 0, 2.67249, -54.508, 2.69553, -173.961, 2.66037, 66.2797, 0.0634334, 22.1458
1, 2160.00000, 127.507, -31.4341, 126.417, -150.887, 128.088, 89.3536, 0, 0, 2.67249, -54.508, 2.69553, -173.961, 2.66037, 66.2797, 0.0634334, 22.1458
1, 2220.00000, 127.507, -31.4341, 126.417, -150.887, 128.088, 89.3536, 0, 0, 2.67249, -54.508, 2.69553, -173.961, 2.66037, 66.2797, 0.0634335, 22.1458
1, 2280.00000, 127.507, -31.4341, 126.417, -150.887, 128.088, 89.3536, 0, 0, 2.67249, -54.508, 2.69553, -173.961, 2.66037, 66.2797, 0.0634335, 22.1458
1, 2340.00000, 127.507, -31.4341, 126.417, -150.887, 128.088, 89.3536, 0, 0, 2.67249, -54.508, 2.69553, -173.961, 2.66037, 66.2797, 0.0634335, 22.1458
1, 2400.00000, 127.507, -31.4341, 126.417, -150.887, 128.088, 89.3536, 0, 0, 2.67249, -54.508, 2.69553, -173.961, 2.66037, 66.2797, 0.0634335, 22.1458
1, 2460.00000, 127.507, -31.4341, 126.417, -150.887, 128.088, 89.3536, 0, 0, 2.67249, -54.508, 2.69553, -173.961, 2.66037, 66.2797, 0.0634336, 22.1458
1, 2520.00000, 127.503, -31.4392, 126.545, -150.717, 128.496, 89.3932, 0, 0, 2.67256, -54.5131, 2.69281, -173.791, 2.65193, 66.3192, 0.0717918, 32.682
1, 2580.00000, 127.503, -31.4392, 126.545, -150.717, 128.496, 89.3932, 0, 0, 2.67256, -54.5131, 2.69281, -173.791, 2.65193, 66.3192, 0.071792, 32.6826
1, 2640.00000, 127.503, -31.4392, 126.545, -150.717, 128.496, 89.3932, 0, 0, 2.67256, -54.5131, 2.69281, -173.791, 2.65193, 66.3192, 0.071792, 32.6826
1, 2700.00000, 127.503, -31.4392, 126.545, -150.717, 128.496, 89.3932, 0, 0, 2.67256, -54.5131, 2.69281, -173.791, 2.65193, 66.3192, 0.071792, 32.6826
1, 2760.00000, 127.5, -31.4442, 126.667, -150.552, 128.891, 89.4314, 0, 0, 2.67264, -54.5181, 2.69021, -173.626, 2.64379, 66.3575, 0.0816613, 40.5818
1, 2820.00000, 127.5, -31.4442, 126.667, -150.552, 128.891, 89.4314, 0, 0, 2.67264, -54.5181, 2.69021, -173.626, 2.64379, 66.3575, 0.0816613, 40.5821
1, 2880.00000, 127.5, -31.4442, 126.667, -150.552, 128.891, 89.4314, 0, 0, 2.67264, -54.5181, 2.69021, -173.626, 2.64379, 66.3575, 0.0816613, 40.5821
1, 2940.00000, 127.5, -31.4442, 126.667, -150.552, 128.891, 89.4314, 0, 0, 2.67264, -54.5181, 2.69021, -173.626, 2.64379, 66.3575, 0.0816614, 40.5821
1, 3000.00000, 127.5, -31.4442, 126.667, -150.552, 128.891, 89.4314, 0, 0, 2.67264, -54.5181, 2.69021, -173.626, 2.64379, 66.3575, 0.0816614, 40.5821
1, 3060.00000, 127.5, -31.4442, 126.667, -150.552, 128.891, 89.4314, 0, 0, 2.67264, -54.5182, 2.69021, -173.626, 2.64379, 66.3575, 0.0816614, 40.5821
1, 3120.00000, 127.5, -31.4442, 126.667, -150.552, 128.891, 89.4314, 0, 0, 2.67264, -54.5182, 2.69021, -173.626, 2.64379, 66.3575, 0.0816614, 40.5821
1, 3180.00000, 127.5, -31.4442, 126.667, -150.552, 128.891, 89.4314, 0, 0, 2.67264, -54.5182, 2.69021, -173.626, 2.64379, 66.3575, 0.0816614, 40.5821
1, 3240.00000, 127.5, -31.4442, 126.667, -150.552, 128.891, 89.4314, 0, 0, 2.67264, -54.5182, 2.69021, -173.626, 2.64379, 66.3575, 0.0816614, 40.5821
1, 3300.00000, 127.5, -31.4442, 126.667, -150.552, 128.891, 89.4314, 0, 0, 2.67264, -54.5182, 2.69021, -173.626, 2.64379, 66.3575, 0.0816614, 40.5821
1, 3360.00000, 127.5, -31.4442, 126.667, -150.552, 128.891, 89.4314, 0, 0, 2.67264, -54.5182, 2.69021, -173.626, 2.64379, 66.3575, 0.0816614, 40.5821
1, 3420.00000, 127.5, -31.4442, 126.667, -150.552, 128.891, 89.4314, 0, 0, 2.67264, -54.5182, 2.69021, -173.626, 2.64379, 66.3575, 0.0816614, 40.5821
1, 3480.00000, 127.5, -31.4442, 126.667, -150.552, 128.891, 89.4314, 0, 0, 2.67264, -54.5182, 2.69021, -173.626, 2.64379, 66.3575, 0.0816614, 40.5821
1, 3540.00000, 127.5, -31.4442, 126.667, -150.552, 128.891, 89.4314, 0, 0, 2.67264, -54.5182, 2.69021, -173.626, 2.64379, 66.3575, 0.0816614, 40.5821
2, 0.00000, 127.5, -31.4442, 126.667, -150.552, 128.891, 89.4314, 0, 0, 2.67264, -54.5182, 2.69021, -173.626, 2.64379, 66.3575, 0.0816614, 40.5821
2, 60.00000, 127.5, -31.4442, 126.667, -150.552, 128.891, 89.4314, 0, 0, 2.67264, -54.5182, 2.69021, -173.626, 2.64379, 66.3575, 0.0816614, 40.5821
2, 120.00000, 127.495, -31.4453, 126.663, -150.553, 128.886, 89.4304, 0, 0, 2.68014, -54.5192, 2.69775, -173.627, 2.6512, 66.3565, 0.08189, 40.5857
2, 180.00000, 127.49, -31.4464, 126.658, -150.554, 128.882, 89.4293, 0, 0, 2.68772, -54.5203, 2.70537, -173.628, 2.6587, 66.3554, 0.0821214, 40.5894
2, 240.00000, 127.485, -31.4475, 126.654, -150.555, 128.877, 89.4283, 0, 0, 2.69522, -54.5214, 2.71291, -173.629, 2.66611, 66.3543, 0.08235, 40.593
2, 300.00000, 127.48, -31.4486, 126.649, -150.556, 128.873, 89.4272, 0, 0, 2.70272, -54.5225, 2.72045, -173.63, 2.67351, 66.3533, 0.0825786, 40.5966
2, 360.00000, 127.475, -31.4496, 126.645, -150.557, 128.868, 89.4261, 0, 0, 2.71031, -54.5236, 2.72808, -173.631, 2.68101, 66.3522, 0.0828099, 40.6002
2, 420.00000, 127.47, -31.4507, 126.641, -150.558, 128.864, 89.4251, 0, 0, 2.71781, -54.5246, 2.73562, -173.632, 2.68842, 66.3512, 0.0830386, 40.6038
2, 480.00000, 127.465, -31.4518, 126.636, -150.56, 128.859, 89.424, 0, 0, 2.72531, -54.5257, 2.74316, -173.633, 2.69583, 66.3501, 0.0832672, 40.6074
2, 540.00000, 127.461, -31.4529, 126.632, -150.561, 128.855, 89.423, 0, 0, 2.7329, -54.5268, 2.75079, -173.635, 2.70333, 66.349, 0.0834987, 40.6111
2, 600.00000, 127.456, -31.454, 126.627, -150.562, 128.85, 89.4219, 0, 0, 2.7404, -54.5279, 2.75833, -173.636, 2.71074, 66.348, 0.0837274, 40.6147
2, 660.00000, 127.451, -31.4551, 126.623, -150.563, 128.846, 89.4209, 0, 0, 2.7479, -54.529, 2.76587, -173.637, 2.71815, 66.3469, 0.0839561, 40.6183
2, 720.00000, 127.446, -31.4562, 126.619, -150.564, 128.841, 89.4198, 0, 0, 2.7555, -54.5301, 2.7735, -173.638, 2.72565, 66.3459, 0.0841876, 40.6219
