hour,t(sec),V1,VAngle1,V2,VAngle2,V3,VAngle3,V4,VAngle4,I1,IAngle1,I2,IAngle2,I3,IAngle3,I4,IAngle4
0, 60.00000, 123.446, -30.4314, 124.004, -150.901, 122.727, 89.5194, 0, 0, 3.28077, -53.5052, 3.266, -173.974, 3.29995, 66.4456, 0.0498408, -116.202
0, 120.00000, 123.445, -30.4314, 124.004, -150.901, 122.727, 89.5194, 0, 0, 3.2808, -53.5053, 3.26603, -173.975, 3.30002, 66.4455, 0.049879, -116.195
0, 180.00000, 123.445, -30.4314, 124.004, -150.901, 122.727, 89.5194, 0, 0, 3.2808, -53.5053, 3.26603, -173.975, 3.30002, 66.4455, 0.0498793, -116.195
0, 240.00000, 123.445, -30.4314, 124.004, -150.901, 122.727, 89.5194, 0, 0, 3.2808, -53.5053, 3.26603, -173.975, 3.30002, 66.4455, 0.0498793, -116.195
0, 300.00000, 123.445, -30.4314, 124.004, -150.901, 122.727, 89.5194, 0, 0, 3.2808, -53.5053, 3.26603, -173.975, 3.30002, 66.4455, 0.0498793, -116.195
0, 360.00000, 123.445, -30.4314, 124.004, -150.901, 122.727, 89.5194, 0, 0, 3.2808, -53.5053, 3.26603, -173.975, 3.30002, 66.4455, 0.0498793, -116.195
0, 420.00000, 123.445, -30.4314, 124.004, -150.901, 122.727, 89.5194, 0, 0, 3.2808, -53.5053, 3.26603, -173.975, 3.30002, 66.4455, 0.0498793, -116.195
0, 480.00000, 123.445, -30.4314, 124.004, -150.901, 122.727, 89.5194, 0, 0, 3.2808, -53.5053, 3.26603, -173.975, 3.30002, 66.4455, 0.0498793, -116.195
0, 540.00000, 123.445, -30.4314, 124.004, -150.901, 122.727, 89.5194, 0, 0, 3.2808, -53.5053, 3.26603, -173.975, 3.30002, 66.4455, 0.0498793, -116.195
0, 600.00000, 123.445, -30.4314, 124.004, -150.901, 122.727, 89.5194, 0, 0, 3.2808, -53.5053, 3.26603, -173.975, 3.30002, 66.4455, 0.0498793, -116.195
0, 660.00000, 123.445, -30.4314, 124.004, -150.901, 122.727, 89.5194, 0, 0, 3.2808, -53.5053, 3.26603, -173.975, 3.30002, 66.4455, 0.0498793, -116.195
0, 720.00000, 123.445, -30.4314, 124.004, -150.901, 122.727, 89.5194, 0, 0, 3.2808, -53.5053, 3.26603, -173.975, 3.30002, 66.4455, 0.0498793, -116.195
0, 780.00000, 123.445, -30.4314, 124.004, -150.901, 122.727, 89.5194, 0, 0, 3.2808, -53.5053, 3.26603, -173.975, 3.30002, 66.4455, 0.0498793, -116.195
0, 840.00000, 123.445, -30.4314, 124.004, -150.901, 122.727, 89.5194, 0, 0, 3.2808, -53.5053, 3.26603, -173.975, 3.30002, 66.4455, 0.0498793, -116.195
0, 900.00000, 123.445, -30.4314, 124.004, -150.901, 122.727, 89.5194, 0, 0, 3.2808, -53.5053, 3.26603, -173.975, 3.30002, 66.4455, 0.0498793, -116.195
0, 960.00000, 122.186, -30.8892, 122.512, -150.638, 122.787, 89.5017, 0, 0, 3.31443, -53.9628, 3.30562, -173.711, 3.29837, 66.4275, 0.0254413, 48.767
0, 1020.00000, 122.186, -30.8892, 122.512, -150.638, 122.787, 89.5017, 0, 0, 3.31463, -53.9631, 3.3058, -173.712, 3.2984, 66.4278, 0.0255635, 48.7574
0, 1080.00000, 122.186, -30.8892, 122.512, -150.638, 122.787, 89.5017, 0, 0, 3.31463, -53.9631, 3.3058, -173.712, 3.2984, 66.4278, 0.0255637, 48.7573
0, 1140.00000, 122.186, -30.8892, 122.512, -150.638, 122.787, 89.5017, 0, 0, 3.31463, -53.9631, 3.3058, -173.712, 3.2984, 66.4278, 0.0255637, 48.7573
0, 1200.00000, 122.186, -30.8892, 122.512, -150.638, 122.787, 89.5017, 0, 0, 3.31463, -53.9631, 3.3058, -173.712, 3.2984, 66.4278, 0.0255637, 48.7573
0, 1260.00000, 122.186, -30.8892, 122.512, -150.638, 122.787, 89.5017, 0, 0, 3.31463, -53.9631, 3.3058, -173.712, 3.2984, 66.4278, 0.0255637, 48.7573
0, 1320.00000, 122.186, -30.8892, 122.512, -150.638, 122.787, 89.5017, 0, 0, 3.31463, -53.9631, 3.3058, -173.712, 3.2984, 66.4278, 0.0255637, 48.7573
0, 1380.00000, 122.186, -30.8892, 122.512, -150.638, 122.787, 89.5017, 0, 0, 3.31463, -53.9631, 3.3058, -173.712, 3.2984, 66.4278, 0.0255637, 48.7573
0, 1440.00000, 122.186, -30.8892, 122.512, -150.638, 122.787, 89.5017, 0, 0, 3.31463, -53.9631, 3.3058, -173.712, 3.2984, 66.4278, 0.0255637, 48.7573
0, 1500.00000, 122.186, -30.8892, 122.512, -150.638, 122.787, 89.5017, 0, 0, 3.31463, -53.9631, 3.3058, -173.712, 3.2984, 66.4278, 0.0255637, 48.7573
0, 1560.00000, 122.186, -30.8892, 122.512, -150.638, 122.787, 89.5017, 0, 0, 3.31463, -53.9631, 3.3058, -173.712, 3.2984, 66.4278, 0.0255637, 48.7573
0, 1620.00000, 122.186, -30.8892, 122.512, -150.638, 122.787, 89.5017, 0, 0, 3.31463, -53.9631, 3.3058, -173.712, 3.2984, 66.4278, 0.0255637, 48.7573
0, 1680.00000, 122.186, -30.8892, 122.512, -150.638, 122.787, 89.5017, 0, 0, 3.31463, -53.9631, 3.3058, -173.712, 3.2984, 66.4278, 0.0255637, 48.7573
0, 1740.00000, 122.186, -30.8892, 122.512, -150.638, 122.787, 89.5017, 0, 0, 3.31463, -53.9631, 3.3058, -173.712, 3.2984, 66.4278, 0.0255637, 48.7573
0, 1800.00000, 122.186, -30.8892, 122.512, -150.638, 122.787, 89.5017, 0, 0, 3.31463, -53.9631, 3.3058, -173.712, 3.2984, 66.4278, 0.0255637, 48.7573
0, 1860.00000, 122.186, -30.8892, 122.512, -150.638, 122.787, 89.5017, 0, 0, 3.31463, -53.9631, 3.3058, -173.712, 3.2984, 66.4278, 0.0255637, 48.7573
0, 1920.00000, 122.186, -30.8892, 122.512, -150.638, 122.787, 89.5017, 0, 0, 3.31463, -53.9631, 3.3058, -173.712, 3.2984, 66.4278, 0.0255637, 48.7573
0, 1980.00000, 122.186, -30.8892, 122.512, -150.638, 122.787, 89.5017, 0, 0, 3.31463, -53.9631, 3.3058, -173.712, 3.2984, 66.4278, 0.0255637, 48.7573
0, 2040.00000, 122.186, -30.8892, 122.512, -150.638, 122.787, 89.5017, 0, 0, 3.31463, -53.9631, 3.3058, -173.712, 3.2984, 66.4278, 0.0255637, 48.7573
0, 2100.00000, 122.186, -30.8892, 122.512, -150.638, 122.787, 89.5017, 0, 0, 3.31463, -53.9631, 3.3058, -173.712, 3.2984, 66.4278, 0.0255637, 48.7573
0, 2160.00000, 122.186, -30.8892, 122.512, -150.638, 122.787, 89.5017, 0, 0, 3.31463, -53.9631, 3.3058, -173.712, 3.2984, 66.4278, 0.0255637, 48.7573
0, 2220.00000, 122.186, -30.8892, 122.512, -150.638, 122.787, 89.5017, 0, 0, 3.31463, -53.9631, 3.3058, -173.712, 3.2984, 66.4278, 0.0255637, 48.7573
0, 2280.00000, 122.186, -30.8892, 122.512, -150.638, 122.787, 89.5017, 0, 0, 3.31463, -53.9631, 3.3058, -173.712, 3.2984, 66.4278, 0.0255637, 48.7573
0, 2340.00000, 122.186, -30.8892, 122.512, -150.638, 122.787, 89.5017, 0, 0, 3.31463, -53.9631, 3.3058, -173.712, 3.2984, 66.4278, 0.0255637, 48.7573
0, 2400.00000, 122.186, -30.8892, 122.512, -150.638, 122.787, 89.5017, 0, 0, 3.31463, -53.9631, 3.3058, -173.712, 3.2984, 66.4278, 0.0255637, 48.7573
0, 2460.00000, 122.186, -30.8892, 122.512, -150.638, 122.787, 89.5017, 0, 0, 3.31463, -53.9631, 3.3058, -173.712, 3.2984, 66.4278, 0.0255637, 48.7573
0, 2520.00000, 122.186, -30.8892, 122.512, -150.638, 122.787, 89.5017, 0, 0, 3.31463, -53.9631, 3.3058, -173.712, 3.2984, 66.4278, 0.0255637, 48.7573
0, 2580.00000, 122.186, -30.8892, 122.512, -150.638, 122.787, 89.5017, 0, 0, 3.31463, -53.9631, 3.3058, -173.712, 3.2984, 66.4278, 0.0255637, 48.7573
0, 2640.00000, 122.186, -30.8892, 122.512, -150.638, 122.787, 89.5017, 0, 0, 3.31463, -53.9631, 3.3058, -173.712, 3.2984, 66.4278, 0.0255637, 48.7573
0, 2700.00000, 122.186, -30.8892, 122.512, -150.638, 122.787, 89.5017, 0, 0, 3.31463, -53.9631, 3.3058, -173.712, 3.2984, 66.4278, 0.0255637, 48.7573
0, 2760.00000, 122.186, -30.8892, 122.512, -150.638, 122.787, 89.5017, 0, 0, 3.31463, -53.9631, 3.3058, -173.712, 3.2984, 66.4278, 0.0255637, 48.7573
0, 2820.00000, 122.186, -30.8892, 122.512, -150.638, 122.787, 89.5017, 0, 0, 3.31463, -53.9631, 3.3058, -173.712, 3.2984, 66.4278, 0.0255637, 48.7573
0, 2880.00000, 122.186, -30.8892, 122.512, -150.638, 122.787, 89.5017, 0, 0, 3.31463, -53.9631, 3.3058, -173.712, 3.2984, 66.4278, 0.0255637, 48.7573
0, 2940.00000, 122.186, -30.8892, 122.512, -150.638, 122.787, 89.5017, 0, 0, 3.31463, -53.9631, 3.3058, -173.712, 3.2984, 66.4278, 0.0255637, 48.7573
0, 3000.00000, 122.186, -30.8892, 122.512, -150.638, 122.787, 89.5017, 0, 0, 3.31463, -53.9631, 3.3058, -173.712, 3.2984, 66.4278, 0.0255637, 48.7573
0, 3060.00000, 122.186, -30.8892, 122.512, -150.638, 122.787, 89.5017, 0, 0, 3.31463, -53.9631, 3.3058, -173.712, 3.2984, 66.4278, 0.0255637, 48.7573
0, 3120.00000, 122.186, -30.8892, 122.512, -150.638, 122.787, 89.5017, 0, 0, 3.31463, -53.9631, 3.3058, -173.712, 3.2984, 66.4278, 0.0255637, 48.7573
0, 3180.00000, 122.186, -30.8892, 122.512, -150.638, 122.787, 89.5017, 0, 0, 3.31463, -53.9631, 3.3058, -173.712, 3.2984, 66.4278, 0.0255637, 48.7573
0, 3240.00000, 122.186, -30.8892, 122.512, -150.638, 122.787, 89.5017, 0, 0, 3.31463, -53.9631, 3.3058, -173.712, 3.2984, 66.4278, 0.0255637, 48.7573
0, 3300.00000, 122.186, -30.8892, 122.512, -150.638, 122.787, 89.5017, 0, 0, 3.31463, -53.9631, 3.3058, -173.712, 3.2984, 66.4278, 0.0255637, 48.7573
0, 3360.00000, 122.186, -30.8892, 122.512, -150.638, 122.787, 89.5017, 0, 0, 3.31463, -53.9631, 3.3058, -173.712, 3.2984, 66.4278, 0.0255637, 48.7573
0, 3420.00000, 122.186, -30.8892, 122.512, -150.638, 122.787, 89.5017, 0, 0, 3.31463, -53.9631, 3.3058, -173.712, 3.2984, 66.4278, 0.0255637, 48.7573
0, 3480.00000, 122.186, -30.8892, 122.512, -150.638, 122.787, 89.5017, 0, 0, 3.31463, -53.9631, 3.3058, -173.712, 3.2984, 66.4278, 0.0255637, 48.7573
0, 3540.00000, 122.186, -30.8892, 122.512, -150.638, 122.787, 89.5017, 0, 0, 3.31463, -53.9631, 3.3058, -173.712, 3.2984, 66.4278, 0.0255637, 48.7573
1, 0.00000, 122.186, -30.8892, 122.512, -150.638, 122.787, 89.5017, 0, 0, 3.31463, -53.9631, 3.3058, -173.712, 3.2984, 66.4278, 0.0255637, 48.7573
1, 60.00000, 122.186, -30.8892, 122.512, -150.638, 122.787, 89.5017, 0, 0, 3.31463, -53.9631, 3.3058, -173.712, 3.2984, 66.4278, 0.0255637, 48.7573
1, 120.00000, 122.186, -30.8892, 122.512, -150.638, 122.787, 89.5017, 0, 0, 3.31463, -53.9631, 3.3058, -173.712, 3.2984, 66.4278, 0.0255637, 48.7573
1, 180.00000, 122.186, -30.8892, 122.512, -150.638, 122.787, 89.5017, 0, 0, 3.31463, -53.9631, 3.3058, -173.712, 3.2984, 66.4278, 0.0255637, 48.7573
1, 240.00000, 122.186, -30.8892, 122.512, -150.638, 122.787, 89.5017, 0, 0, 3.31463, -53.9631, 3.3058, -173.712, 3.2984, 66.4278, 0.0255637, 48.7573
1, 300.00000, 122.186, -30.8892, 122.512, -150.638, 122.787, 89.5017, 0, 0, 3.31463, -53.9631, 3.3058, -173.712, 3.2984, 66.4278, 0.0255637, 48.7573
1, 360.00000, 122.186, -30.8892, 122.512, -150.638, 122.787, 89.5017, 0, 0, 3.31463, -53.9631, 3.3058, -173.712, 3.2984, 66.4278, 0.0255637, 48.7573
1, 420.00000, 122.186, -30.8892, 122.512, -150.638, 122.787, 89.5017, 0, 0, 3.31463, -53.9631, 3.3058, -173.712, 3.2984, 66.4278, 0.0255637, 48.7573
1, 480.00000, 122.186, -30.8892, 122.512, -150.638, 122.787, 89.5017, 0, 0, 3.31463, -53.9631, 3.3058, -173.712, 3.2984, 66.4278, 0.0255637, 48.7573
1, 540.00000, 122.186, -30.8892, 122.512, -150.638, 122.787, 89.5017, 0, 0, 3.31463, -53.9631, 3.3058, -173.712, 3.2984, 66.4278, 0.0255637, 48.7573
1, 600.00000, 122.186, -30.8892, 122.512, -150.638, 122.787, 89.5017, 0, 0, 3.31463, -53.9631, 3.3058, -173.712, 3.2984, 66.4278, 0.0255637, 48.7573
1, 660.00000, 122.186, -30.8892, 122.512, -150.638, 122.787, 89.5017, 0, 0, 3.31463, -53.9631, 3.3058, -173.712, 3.2984, 66.4278, 0.0255637, 48.7573
1, 720.00000, 122.186, -30.8892, 122.512, -150.638, 122.787, 89.5017, 0, 0, 3.31463, -53.9631, 3.3058, -173.712, 3.2984, 66.4278, 0.0255637, 48.7573
1, 780.00000, 122.186, -30.8892, 122.512, -150.638, 122.787, 89.5017, 0, 0, 3.31463, -53.9631, 3.3058, -173.712, 3.2984, 66.4278, 0.0255637, 48.7573
1, 840.00000, 122.186, -30.8892, 122.512, -150.638, 122.787, 89.5017, 0, 0, 3.31463, -53.9631, 3.3058, -173.712, 3.2984, 66.4278, 0.0255637, 48.7573
1, 900.00000, 122.186, -30.8892, 122.512, -150.638, 122.787, 89.5017, 0, 0, 3.31463, -53.9631, 3.3058, -173.712, 3.2984, 66.4278, 0.0255637, 48.7573
1, 960.00000, 122.186, -30.8892, 122.512, -150.638, 122.787, 89.5017, 0, 0, 3.31463, -53.9631, 3.3058, -173.712, 3.2984, 66.4278, 0.0255637, 48.7573
1, 1020.00000, 122.186, -30.8892, 122.512, -150.638, 122.787, 89.5017, 0, 0, 3.31463, -53.9631, 3.3058, -173.712, 3.2984, 66.4278, 0.0255637, 48.7573
1, 1080.00000, 122.186, -30.8892, 122.512, -150.638, 122.787, 89.5017, 0, 0, 3.31463, -53.9631, 3.3058, -173.712, 3.2984, 66.4278, 0.0255637, 48.7573
1, 1140.00000, 122.186, -30.8892, 122.512, -150.638, 122.787, 89.5017, 0, 0, 3.31463, -53.9631, 3.3058, -173.712, 3.2984, 66.4278, 0.0255637, 48.7573
1, 1200.00000, 122.186, -30.8892, 122.512, -150.638, 122.787, 89.5017, 0, 0, 3.31463, -53.9631, 3.3058, -173.712, 3.2984, 66.4278, 0.0255637, 48.7573
1, 1260.00000, 122.186, -30.8892, 122.512, -150.638, 122.787, 89.5017, 0, 0, 3.31463, -53.9631, 3.3058, -173.712, 3.2984, 66.4278, 0.0255637, 48.7573
1, 1320.00000, 122.186, -30.8892, 122.512, -150.638, 122.787, 89.5017, 0, 0, 3.31463, -53.9631, 3.3058, -173.712, 3.2984, 66.4278, 0.0255637, 48.7573
1, 1380.00000, 122.186, -30.8892, 122.512, -150.638, 122.787, 89.5017, 0, 0, 3.31463, -53.9631, 3.3058, -173.712, 3.2984, 66.4278, 0.0255637, 48.7573
1, 1440.00000, 122.186, -30.8892, 122.512, -150.638, 122.787, 89.5017, 0, 0, 3.31463, -53.9631, 3.3058, -173.712, 3.2984, 66.4278, 0.0255637, 48.7573
1, 1500.00000, 122.186, -30.8892, 122.512, -150.638, 122.787, 89.5017, 0, 0, 3.31463, -53.9631, 3.3058, -173.712, 3.2984, 66.4278, 0.0255637, 48.7573
1, 1560.00000, 122.186, -30.8892, 122.512, -150.638, 122.787, 89.5017, 0, 0, 3.31463, -53.9631, 3.3058, -173.712, 3.2984, 66.4278, 0.0255637, 48.7573
1, 1620.00000, 122.186, -30.8892, 122.512, -150.638, 122.787, 89.5017, 0, 0, 3.31463, -53.9631, 3.3058, -173.712, 3.2984, 66.4278, 0.0255637, 48.7573
1, 1680.00000, 122.186, -30.8892, 122.512, -150.638, 122.787, 89.5017, 0, 0, 3.31463, -53.9631, 3.3058, -173.712, 3.2984, 66.4278, 0.0255637, 48.7573
1, 1740.00000, 122.186, -30.8892, 122.512, -150.638, 122.787, 89.5017, 0, 0, 3.31463, -53.9631, 3.3058, -173.712, 3.2984, 66.4278, 0.0255637, 48.7573
1, 1800.00000, 122.186, -30.8892, 122.512, -150.638, 122.787, 89.5017, 0, 0, 3.31463, -53.9631, 3.3058, -173.712, 3.2984, 66.4278, 0.0255637, 48.7573
1, 1860.00000, 122.186, -30.8892, 122.512, -150.638, 122.787, 89.5017, 0, 0, 3.31463, -53.9631, 3.3058, -173.712, 3.2984, 66.4278, 0.0255637, 48.7573
1, 1920.00000, 122.186, -30.8892, 122.512, -150.638, 122.787, 89.5017, 0, 0, 3.31463, -53.9631, 3.3058, -173.712, 3.2984, 66.4278, 0.0255637, 48.7573
1, 1980.00000, 122.186, -30.8892, 122.512, -150.638, 122.787, 89.5017, 0, 0, 3.31463, -53.9631, 3.3058, -173.712, 3.2984, 66.4278, 0.0255637, 48.7573
1, 2040.00000, 122.364, -30.9025, 123.754, -150.174, 124.283, 89.2228, 0, 0, 3.30988, -53.9763, 3.27277, -173.248, 3.25888, 66.148, 0.0824491, 100.017
1, 2100.00000, 122.364, -30.9025, 123.755, -150.174, 124.283, 89.2228, 0, 0, 3.3098, -53.9764, 3.27261, -173.248, 3.25869, 66.1489, 0.0825341, 100
1, 2160.00000, 122.364, -30.9025, 123.755, -150.174, 124.283, 89.2228, 0, 0, 3.3098, -53.9764, 3.27261, -173.248, 3.25868, 66.1489, 0.0825342, 100
1, 2220.00000, 122.364, -30.9025, 123.755, -150.174, 124.283, 89.2228, 0, 0, 3.3098, -53.9764, 3.27261, -173.248, 3.25868, 66.1489, 0.0825342, 100
1, 2280.00000, 122.364, -30.9025, 123.755, -150.174, 124.283, 89.2228, 0, 0, 3.3098, -53.9764, 3.27261, -173.248, 3.25868, 66.1489, 0.0825342, 100
1, 2340.00000, 122.364, -30.9025, 123.755, -150.174, 124.283, 89.2228, 0, 0, 3.3098, -53.9764, 3.27261, -173.248, 3.25868, 66.1489, 0.0825342, 100
1, 2400.00000, 122.364, -30.9025, 123.755, -150.174, 124.283, 89.2228, 0, 0, 3.3098, -53.9764, 3.27261, -173.248, 3.25868, 66.1489, 0.0825342, 100
1, 2460.00000, 122.364, -30.9025, 123.755, -150.174, 124.283, 89.2228, 0, 0, 3.3098, -53.9764, 3.27261, -173.248, 3.25868, 66.1489, 0.0825342, 100
1, 2520.00000, 123.611, -30.4434, 125.24, -150.439, 124.212, 89.2373, 0, 0, 3.27652, -53.5173, 3.23388, -173.514, 3.26054, 66.1637, 0.0554203, 161.786
1, 2580.00000, 123.612, -30.4434, 125.241, -150.439, 124.212, 89.2373, 0, 0, 3.27639, -53.5173, 3.23378, -173.513, 3.26055, 66.1634, 0.0554476, 161.862
1, 2640.00000, 123.612, -30.4434, 125.241, -150.439, 124.212, 89.2373, 0, 0, 3.27639, -53.5173, 3.23378, -173.513, 3.26055, 66.1634, 0.0554475, 161.862
1, 2700.00000, 123.612, -30.4434, 125.241, -150.439, 124.212, 89.2373, 0, 0, 3.27639, -53.5173, 3.23378, -173.513, 3.26055, 66.1634, 0.0554475, 161.862
1, 2760.00000, 124.901, -30.5582, 125.149, -150.449, 125.219, 89.6074, 0, 0, 3.24267, -53.6331, 3.23609, -173.523, 3.23444, 66.5333, 0.0103627, 63.1584
1, 2820.00000, 124.901, -30.5581, 125.149, -150.449, 125.219, 89.6074, 0, 0, 3.24256, -53.6321, 3.23614, -173.523, 3.23432, 66.5335, 0.010398, 62.518
1, 2880.00000, 124.901, -30.5581, 125.149, -150.449, 125.219, 89.6074, 0, 0, 3.24256, -53.6321, 3.23614, -173.523, 3.23432, 66.5335, 0.0103982, 62.5159
1, 2940.00000, 124.901, -30.5581, 125.149, -150.449, 125.219, 89.6074, 0, 0, 3.24256, -53.6321, 3.23614, -173.523, 3.23432, 66.5335, 0.0103982, 62.5159
1, 3000.00000, 124.901, -30.5581, 125.149, -150.449, 125.219, 89.6074, 0, 0, 3.24256, -53.6321, 3.23614, -173.523, 3.23432, 66.5335, 0.0103982, 62.5159
1, 3060.00000, 124.901, -30.5581, 125.149, -150.449, 125.219, 89.6074, 0, 0, 3.24256, -53.6321, 3.23614, -173.523, 3.23432, 66.5335, 0.0103982, 62.5159
1, 3120.00000, 124.901, -30.5581, 125.149, -150.449, 125.219, 89.6074, 0, 0, 3.24256, -53.6321, 3.23614, -173.523, 3.23432, 66.5335, 0.0103982, 62.5159
1, 3180.00000, 124.901, -30.5581, 125.149, -150.449, 125.219, 89.6074, 0, 0, 3.24256, -53.6321, 3.23614, -173.523, 3.23432, 66.5335, 0.0103982, 62.5159
1, 3240.00000, 124.901, -30.5581, 125.149, -150.449, 125.219, 89.6074, 0, 0, 3.24256, -53.6321, 3.23614, -173.523, 3.23432, 66.5335, 0.0103982, 62.5159
1, 3300.00000, 124.901, -30.5581, 125.149, -150.449, 125.219, 89.6074, 0, 0, 3.24256, -53.6321, 3.23614, -173.523, 3.23432, 66.5335, 0.0103982, 62.5159
1, 3360.00000, 124.901, -30.5581, 125.149, -150.449, 125.219, 89.6074, 0, 0, 3.24256, -53.6321, 3.23614, -173.523, 3.23432, 66.5335, 0.0103982, 62.5159
1, 3420.00000, 124.901, -30.5581, 125.149, -150.449, 125.219, 89.6074, 0, 0, 3.24256, -53.6321, 3.23614, -173.523, 3.23432, 66.5335, 0.0103982, 62.5159
1, 3480.00000, 124.901, -30.5581, 125.149, -150.449, 125.219, 89.6074, 0, 0, 3.24256, -53.6321, 3.23614, -173.523, 3.23432, 66.5335, 0.0103982, 62.5159
1, 3540.00000, 124.901, -30.5581, 125.149, -150.449, 125.219, 89.6074, 0, 0, 3.24256, -53.6321, 3.23614, -173.523, 3.23432, 66.5335, 0.0103982, 62.5159
2, 0.00000, 124.901, -30.5581, 125.149, -150.449, 125.219, 89.6074, 0, 0, 3.24256, -53.6321, 3.23614, -173.523, 3.23432, 66.5335, 0.0103982, 62.5159
2, 60.00000, 124.901, -30.5581, 125.149, -150.449, 125.219, 89.6074, 0, 0, 3.24256, -53.6321, 3.23614, -173.523, 3.23432, 66.5335, 0.0103982, 62.5159
2, 120.00000, 124.893, -30.5592, 125.142, -150.45, 125.212, 89.6065, 0, 0, 3.25173, -53.633, 3.24527, -173.524, 3.24345, 66.5326, 0.0104403, 62.5992
2, 180.00000, 124.885, -30.5602, 125.134, -150.451, 125.204, 89.6056, 0, 0, 3.26103, -53.6341, 3.25453, -173.525, 3.25271, 66.5318, 0.0104815, 62.6907
2, 240.00000, 124.877, -30.5612, 125.127, -150.452, 125.197, 89.6048, 0, 0, 3.27022, -53.6351, 3.26367, -173.526, 3.26185, 66.5309, 0.0105222, 62.7811
2, 300.00000, 124.868, -30.5623, 125.12, -150.453, 125.189, 89.6039, 0, 0, 3.27941, -53.6361, 3.27282, -173.527, 3.271, 66.53, 0.0105631, 62.8713
2, 360.00000, 124.86, -30.5633, 125.112, -150.454, 125.182, 89.603, 0, 0, 3.28871, -53.6372, 3.28207, -173.527, 3.28026, 66.5291, 0.0106045, 62.9624
2, 420.00000, 124.852, -30.5643, 125.105, -150.454, 125.174, 89.6021, 0, 0, 3.2979, -53.6382, 3.29122, -173.528, 3.28941, 66.5283, 0.0106456, 63.0524
2, 480.00000, 124.844, -30.5654, 125.098, -150.455, 125.166, 89.6013, 0, 0, 3.30709, -53.6392, 3.30037, -173.529, 3.29856, 66.5274, 0.0106867, 63.1421
2, 540.00000, 124.835, -30.5664, 125.09, -150.456, 125.159, 89.6004, 0, 0, 3.31639, -53.6403, 3.30963, -173.53, 3.30782, 66.5265, 0.0107285, 63.2326
2, 600.00000, 124.827, -30.5674, 125.083, -150.457, 125.151, 89.5995, 0, 0, 3.32559, -53.6413, 3.31878, -173.531, 3.31697, 66.5256, 0.0107698, 63.3221
2, 660.00000, 124.819, -30.5685, 125.076, -150.458, 125.144, 89.5986, 0, 0, 3.33478, -53.6423, 3.32793, -173.532, 3.32613, 66.5248, 0.0108112, 63.4114
2, 720.00000, 124.811, -30.5695, 125.069, -150.459, 125.136, 89.5977, 0, 0, 3.34409, -53.6434, 3.3372, -173.533, 3.33539, 66.5239, 0.0108533, 63.5014
