hour,t(sec),V1,VAngle1,V2,VAngle2,V3,VAngle3,V4,VAngle4,I1,IAngle1,I2,IAngle2,I3,IAngle3,I4,IAngle4
0, 60.00000, 126.088, -30.6516, 128.488, -150.728, 127.025, 88.5047, 0, 0, 2.70257, -53.7255, 2.65212, -173.802, 2.68263, 65.4312, 0.0818007, 161.932
0, 120.00000, 126.088, -30.6515, 128.51, -150.729, 127.034, 88.4964, 0, 0, 2.70257, -53.7255, 2.65166, -173.803, 2.68244, 65.4228, 0.0825696, 161.923
0, 180.00000, 126.088, -30.6515, 128.529, -150.73, 127.042, 88.4889, 0, 0, 2.70257, -53.7254, 2.65126, -173.803, 2.68227, 65.4153, 0.0832619, 161.915
0, 240.00000, 126.088, -30.6514, 128.547, -150.73, 127.049, 88.4821, 0, 0, 2.70257, -53.7254, 2.65089, -173.804, 2.68212, 65.4085, 0.0838851, 161.909
0, 300.00000, 126.088, -30.6514, 128.563, -150.731, 127.055, 88.476, 0, 0, 2.70257, -53.7253, 2.65056, -173.804, 2.68199, 65.4024, 0.0844461, 161.903
0, 360.00000, 126.088, -30.6513, 128.577, -150.731, 127.061, 88.4705, 0, 0, 2.70257, -53.7253, 2.65027, -173.805, 2.68186, 65.3969, 0.0849511, 161.899
0, 420.00000, 126.088, -30.6513, 128.59, -150.732, 127.066, 88.4656, 0, 0, 2.70256, -53.7252, 2.65, -173.805, 2.68175, 65.3919, 0.0854057, 161.895
0, 480.00000, 126.088, -30.6513, 128.602, -150.732, 127.071, 88.4611, 0, 0, 2.70256, -53.7252, 2.64976, -173.806, 2.68166, 65.3874, 0.0858149, 161.892
0, 540.00000, 126.088, -30.6512, 128.612, -150.732, 127.075, 88.4571, 0, 0, 2.70256, -53.7252, 2.64954, -173.806, 2.68157, 65.3834, 0.0861832, 161.889
0, 600.00000, 126.088, -30.6512, 128.621, -150.733, 127.079, 88.4535, 0, 0, 2.70256, -53.7251, 2.64935, -173.806, 2.68149, 65.3798, 0.0865147, 161.887
0, 660.00000, 126.088, -30.6512, 128.63, -150.733, 127.082, 88.4503, 0, 0, 2.70256, -53.7251, 2.64917, -173.807, 2.68142, 65.3765, 0.0868132, 161.885
0, 720.00000, 126.088, -30.6512, 128.637, -150.733, 127.085, 88.4473, 0, 0, 2.70256, -53.7251, 2.64902, -173.807, 2.68135, 65.3735, 0.0870818, 161.884
0, 780.00000, 126.088, -30.6511, 128.644, -150.733, 127.088, 88.4447, 0, 0, 2.70256, -53.7251, 2.64887, -173.807, 2.6813, 65.3709, 0.0873235, 161.882
0, 840.00000, 126.088, -30.6511, 128.65, -150.734, 127.09, 88.4423, 0, 0, 2.70256, -53.725, 2.64875, -173.807, 2.68124, 65.3685, 0.0875411, 161.881
0, 900.00000, 126.088, -30.6511, 128.656, -150.734, 127.093, 88.4402, 0, 0, 2.70256, -53.725, 2.64863, -173.808, 2.6812, 65.3664, 0.087737, 161.88
0, 960.00000, 125.691, -30.691, 128.654, -150.739, 126.953, 88.2721, 0, 0, 2.7111, -53.7649, 2.64866, -173.813, 2.68415, 65.1983, 0.10169, 159.486
0, 1020.00000, 125.691, -30.691, 128.659, -150.739, 126.954, 88.2704, 0, 0, 2.71109, -53.7649, 2.64857, -173.813, 2.68412, 65.1965, 0.101847, 159.49
0, 1080.00000, 125.691, -30.6909, 128.663, -150.74, 126.956, 88.2688, 0, 0, 2.71109, -53.7649, 2.64849, -173.813, 2.68408, 65.195, 0.101989, 159.493
0, 1140.00000, 125.691, -30.6909, 128.666, -150.74, 126.957, 88.2674, 0, 0, 2.71109, -53.7648, 2.64841, -173.814, 2.68405, 65.1936, 0.102116, 159.496
0, 1200.00000, 125.691, -30.6909, 128.67, -150.74, 126.959, 88.2662, 0, 0, 2.71109, -53.7648, 2.64834, -173.814, 2.68403, 65.1923, 0.102231, 159.499
0, 1260.00000, 125.691, -30.6909, 128.673, -150.74, 126.96, 88.2651, 0, 0, 2.71109, -53.7648, 2.64828, -173.814, 2.684, 65.1912, 0.102335, 159.501
0, 1320.00000, 125.691, -30.6909, 128.675, -150.74, 126.961, 88.2641, 0, 0, 2.71109, -53.7648, 2.64823, -173.814, 2.68398, 65.1902, 0.102428, 159.503
0, 1380.00000, 125.691, -30.6908, 128.678, -150.74, 126.962, 88.2631, 0, 0, 2.71109, -53.7648, 2.64818, -173.814, 2.68396, 65.1893, 0.102511, 159.505
0, 1440.00000, 125.691, -30.6908, 128.68, -150.74, 126.963, 88.2623, 0, 0, 2.71109, -53.7648, 2.64813, -173.814, 2.68394, 65.1884, 0.102587, 159.507
0, 1500.00000, 125.691, -30.6908, 128.682, -150.74, 126.964, 88.2616, 0, 0, 2.71109, -53.7648, 2.64809, -173.814, 2.68393, 65.1877, 0.102655, 159.509
0, 1560.00000, 125.691, -30.6908, 128.683, -150.74, 126.964, 88.2609, 0, 0, 2.71109, -53.7647, 2.64806, -173.814, 2.68391, 65.187, 0.102716, 159.51
0, 1620.00000, 125.691, -30.6908, 128.685, -150.74, 126.965, 88.2603, 0, 0, 2.71109, -53.7647, 2.64802, -173.814, 2.6839, 65.1864, 0.102771, 159.512
0, 1680.00000, 125.691, -30.6908, 128.686, -150.74, 126.965, 88.2598, 0, 0, 2.71109, -53.7647, 2.648, -173.814, 2.68389, 65.1859, 0.10282, 159.513
0, 1740.00000, 125.691, -30.6908, 128.688, -150.74, 126.966, 88.2593, 0, 0, 2.71109, -53.7647, 2.64797, -173.814, 2.68388, 65.1854, 0.102865, 159.514
0, 1800.00000, 125.691, -30.6908, 128.689, -150.74, 126.966, 88.2588, 0, 0, 2.71109, -53.7647, 2.64795, -173.814, 2.68387, 65.1849, 0.102905, 159.515
0, 1860.00000, 125.691, -30.6908, 128.69, -150.741, 126.967, 88.2584, 0, 0, 2.71109, -53.7647, 2.64792, -173.814, 2.68386, 65.1845, 0.102941, 159.516
0, 1920.00000, 125.691, -30.6908, 128.691, -150.741, 126.967, 88.2581, 0, 0, 2.71109, -53.7647, 2.64791, -173.814, 2.68385, 65.1842, 0.102973, 159.517
0, 1980.00000, 125.691, -30.6908, 128.692, -150.741, 126.967, 88.2578, 0, 0, 2.71109, -53.7647, 2.64789, -173.814, 2.68384, 65.1839, 0.103002, 159.517
0, 2040.00000, 125.691, -30.6908, 128.692, -150.741, 126.968, 88.2575, 0, 0, 2.71109, -53.7647, 2.64787, -173.815, 2.68384, 65.1836, 0.103029, 159.518
0, 2100.00000, 125.691, -30.6908, 128.693, -150.741, 126.968, 88.2572, 0, 0, 2.71109, -53.7647, 2.64786, -173.815, 2.68383, 65.1833, 0.103052, 159.519
0, 2160.00000, 125.691, -30.6908, 128.694, -150.741, 126.968, 88.257, 0, 0, 2.71109, -53.7647, 2.64785, -173.815, 2.68383, 65.1831, 0.103074, 159.519
0, 2220.00000, 125.691, -30.6908, 128.694, -150.741, 126.968, 88.2568, 0, 0, 2.71109, -53.7647, 2.64784, -173.815, 2.68382, 65.1829, 0.103093, 159.52
0, 2280.00000, 125.691, -30.6908, 128.695, -150.741, 126.969, 88.2566, 0, 0, 2.71109, -53.7647, 2.64782, -173.815, 2.68382, 65.1827, 0.10311, 159.52
0, 2340.00000, 125.691, -30.6908, 128.695, -150.741, 126.969, 88.2564, 0, 0, 2.71109, -53.7647, 2.64782, -173.815, 2.68382, 65.1825, 0.103126, 159.52
0, 2400.00000, 125.691, -30.6908, 128.696, -150.741, 126.969, 88.2563, 0, 0, 2.71109, -53.7647, 2.64781, -173.815, 2.68381, 65.1824, 0.10314, 159.521
0, 2460.00000, 125.691, -30.6907, 128.696, -150.741, 126.969, 88.2561, 0, 0, 2.71109, -53.7647, 2.6478, -173.815, 2.68381, 65.1822, 0.103152, 159.521
0, 2520.00000, 125.691, -30.6907, 128.696, -150.741, 126.969, 88.256, 0, 0, 2.71109, -53.7647, 2.64779, -173.815, 2.68381, 65.1821, 0.103164, 159.521
0, 2580.00000, 125.691, -30.6907, 128.696, -150.741, 126.969, 88.2559, 0, 0, 2.71109, -53.7647, 2.64779, -173.815, 2.6838, 65.182, 0.103174, 159.521
0, 2640.00000, 125.691, -30.6907, 128.697, -150.741, 126.969, 88.2558, 0, 0, 2.71109, -53.7647, 2.64778, -173.815, 2.6838, 65.1819, 0.103183, 159.522
0, 2700.00000, 125.691, -30.6907, 128.697, -150.741, 126.97, 88.2557, 0, 0, 2.71109, -53.7647, 2.64778, -173.815, 2.6838, 65.1818, 0.103191, 159.522
0, 2760.00000, 125.691, -30.6907, 128.697, -150.741, 126.97, 88.2556, 0, 0, 2.71109, -53.7647, 2.64777, -173.815, 2.6838, 65.1817, 0.103199, 159.522
0, 2820.00000, 125.691, -30.6907, 128.697, -150.741, 126.97, 88.2556, 0, 0, 2.71109, -53.7647, 2.64777, -173.815, 2.6838, 65.1816, 0.103205, 159.522
0, 2880.00000, 125.691, -30.6907, 128.698, -150.741, 126.97, 88.2555, 0, 0, 2.71109, -53.7647, 2.64777, -173.815, 2.68379, 65.1816, 0.103211, 159.522
0, 2940.00000, 125.691, -30.6907, 128.698, -150.741, 126.97, 88.2554, 0, 0, 2.71109, -53.7647, 2.64776, -173.815, 2.68379, 65.1815, 0.103217, 159.523
0, 3000.00000, 125.691, -30.6907, 128.698, -150.741, 126.97, 88.2554, 0, 0, 2.71109, -53.7647, 2.64776, -173.815, 2.68379, 65.1815, 0.103222, 159.523
0, 3060.00000, 125.691, -30.6907, 128.698, -150.741, 126.97, 88.2553, 0, 0, 2.71109, -53.7647, 2.64776, -173.815, 2.68379, 65.1814, 0.103226, 159.523
0, 3120.00000, 125.691, -30.6907, 128.698, -150.741, 126.97, 88.2553, 0, 0, 2.71109, -53.7647, 2.64775, -173.815, 2.68379, 65.1814, 0.10323, 159.523
0, 3180.00000, 125.691, -30.6907, 128.698, -150.741, 126.97, 88.2552, 0, 0, 2.71109, -53.7647, 2.64775, -173.815, 2.68379, 65.1813, 0.103233, 159.523
0, 3240.00000, 125.691, -30.6907, 128.698, -150.741, 126.97, 88.2552, 0, 0, 2.71109, -53.7647, 2.64775, -173.815, 2.68379, 65.1813, 0.103237, 159.523
0, 3300.00000, 125.691, -30.6907, 128.698, -150.741, 126.97, 88.2552, 0, 0, 2.71109, -53.7647, 2.64775, -173.815, 2.68379, 65.1813, 0.10324, 159.523
0, 3360.00000, 125.691, -30.6907, 128.698, -150.741, 126.97, 88.2552, 0, 0, 2.71109, -53.7647, 2.64775, -173.815, 2.68379, 65.1812, 0.103242, 159.523
0, 3420.00000, 125.691, -30.6907, 128.698, -150.741, 126.97, 88.2551, 0, 0, 2.71109, -53.7647, 2.64775, -173.815, 2.68379, 65.1812, 0.103244, 159.523
0, 3480.00000, 125.691, -30.6907, 128.699, -150.741, 126.97, 88.2551, 0, 0, 2.71109, -53.7647, 2.64774, -173.815, 2.68379, 65.1812, 0.103247, 159.523
0, 3540.00000, 125.691, -30.6907, 128.699, -150.741, 126.97, 88.2551, 0, 0, 2.71109, -53.7647, 2.64774, -173.815, 2.68379, 65.1812, 0.103248, 159.523
1, 0.00000, 125.691, -30.6907, 128.699, -150.741, 126.97, 88.2551, 0, 0, 2.71109, -53.7646, 2.64774, -173.815, 2.68379, 65.1812, 0.10325, 159.523
1, 60.00000, 125.691, -30.6907, 128.699, -150.741, 126.97, 88.2551, 0, 0, 2.71109, -53.7646, 2.64774, -173.815, 2.68379, 65.1811, 0.103252, 159.523
1, 120.00000, 125.691, -30.6907, 128.699, -150.741, 126.97, 88.255, 0, 0, 2.71109, -53.7646, 2.64774, -173.815, 2.68379, 65.1811, 0.103253, 159.523
1, 180.00000, 125.691, -30.6907, 128.699, -150.741, 126.97, 88.255, 0, 0, 2.71109, -53.7646, 2.64774, -173.815, 2.68378, 65.1811, 0.103254, 159.523
1, 240.00000, 125.691, -30.6907, 128.699, -150.741, 126.97, 88.255, 0, 0, 2.71109, -53.7646, 2.64774, -173.815, 2.68378, 65.1811, 0.103255, 159.523
1, 300.00000, 125.691, -30.6907, 128.699, -150.741, 126.97, 88.255, 0, 0, 2.71109, -53.7646, 2.64774, -173.815, 2.68378, 65.1811, 0.103256, 159.523
1, 360.00000, 125.691, -30.6907, 128.699, -150.741, 126.97, 88.255, 0, 0, 2.71109, -53.7646, 2.64774, -173.815, 2.68378, 65.1811, 0.103257, 159.524
1, 420.00000, 125.691, -30.6907, 128.699, -150.741, 126.97, 88.255, 0, 0, 2.71109, -53.7646, 2.64774, -173.815, 2.68378, 65.1811, 0.103258, 159.524
1, 480.00000, 125.691, -30.6907, 128.699, -150.741, 126.97, 88.255, 0, 0, 2.71109, -53.7646, 2.64774, -173.815, 2.68378, 65.1811, 0.103259, 159.524
1, 540.00000, 125.691, -30.6907, 128.699, -150.741, 126.97, 88.255, 0, 0, 2.71109, -53.7646, 2.64774, -173.815, 2.68378, 65.181, 0.103259, 159.524
1, 600.00000, 125.691, -30.6907, 128.699, -150.741, 126.97, 88.255, 0, 0, 2.71109, -53.7646, 2.64774, -173.815, 2.68378, 65.181, 0.10326, 159.524
1, 660.00000, 125.691, -30.6907, 128.699, -150.741, 126.97, 88.255, 0, 0, 2.71109, -53.7646, 2.64774, -173.815, 2.68378, 65.181, 0.103261, 159.524
1, 720.00000, 125.691, -30.6907, 128.699, -150.741, 126.97, 88.255, 0, 0, 2.71109, -53.7646, 2.64774, -173.815, 2.68378, 65.181, 0.103261, 159.524
1, 780.00000, 125.691, -30.6907, 128.699, -150.741, 126.97, 88.2549, 0, 0, 2.71109, -53.7646, 2.64774, -173.815, 2.68378, 65.181, 0.103262, 159.524
1, 840.00000, 125.691, -30.6907, 128.699, -150.741, 126.97, 88.2549, 0, 0, 2.71109, -53.7646, 2.64774, -173.815, 2.68378, 65.181, 0.103262, 159.524
1, 900.00000, 125.691, -30.6907, 128.699, -150.741, 126.97, 88.2549, 0, 0, 2.71109, -53.7646, 2.64774, -173.815, 2.68378, 65.181, 0.103262, 159.524
1, 960.00000, 125.691, -30.6907, 128.699, -150.741, 126.97, 88.2549, 0, 0, 2.71109, -53.7646, 2.64774, -173.815, 2.68378, 65.181, 0.103263, 159.524
1, 1020.00000, 125.691, -30.6907, 128.699, -150.741, 126.97, 88.2549, 0, 0, 2.71109, -53.7646, 2.64773, -173.815, 2.68378, 65.181, 0.103263, 159.524
1, 1080.00000, 125.691, -30.6907, 128.699, -150.741, 126.97, 88.2549, 0, 0, 2.71109, -53.7646, 2.64773, -173.815, 2.68378, 65.181, 0.103263, 159.524
1, 1140.00000, 125.691, -30.6907, 128.699, -150.741, 126.97, 88.2549, 0, 0, 2.71109, -53.7646, 2.64773, -173.815, 2.68378, 65.181, 0.103263, 159.524
1, 1200.00000, 125.691, -30.6907, 128.699, -150.741, 126.97, 88.2549, 0, 0, 2.71109, -53.7646, 2.64773, -173.815, 2.68378, 65.181, 0.103264, 159.524
1, 1260.00000, 125.691, -30.6907, 128.699, -150.741, 126.97, 88.2549, 0, 0, 2.71109, -53.7646, 2.64773, -173.815, 2.68378, 65.181, 0.103264, 159.524
1, 1320.00000, 125.691, -30.6907, 128.699, -150.741, 126.97, 88.2549, 0, 0, 2.71109, -53.7646, 2.64773, -173.815, 2.68378, 65.181, 0.103264, 159.524
1, 1380.00000, 125.691, -30.6907, 128.699, -150.741, 126.97, 88.2549, 0, 0, 2.71109, -53.7646, 2.64773, -173.815, 2.68378, 65.181, 0.103264, 159.524
1, 1440.00000, 125.691, -30.6907, 128.699, -150.741, 126.97, 88.2549, 0, 0, 2.71109, -53.7646, 2.64773, -173.815, 2.68378, 65.181, 0.103264, 159.524
1, 1500.00000, 125.691, -30.6907, 128.699, -150.741, 126.97, 88.2549, 0, 0, 2.71109, -53.7646, 2.64773, -173.815, 2.68378, 65.181, 0.103264, 159.524
1, 1560.00000, 125.691, -30.6907, 128.699, -150.741, 126.97, 88.2549, 0, 0, 2.71109, -53.7646, 2.64773, -173.815, 2.68378, 65.181, 0.103264, 159.524
1, 1620.00000, 125.691, -30.6907, 128.699, -150.741, 126.97, 88.2549, 0, 0, 2.71109, -53.7646, 2.64773, -173.815, 2.68378, 65.181, 0.103265, 159.524
1, 1680.00000, 125.691, -30.6907, 128.699, -150.741, 126.97, 88.2549, 0, 0, 2.71109, -53.7646, 2.64773, -173.815, 2.68378, 65.181, 0.103265, 159.524
1, 1740.00000, 125.691, -30.6907, 128.699, -150.741, 126.97, 88.2549, 0, 0, 2.71109, -53.7646, 2.64773, -173.815, 2.68378, 65.181, 0.103265, 159.524
1, 1800.00000, 125.691, -30.6907, 128.699, -150.741, 126.97, 88.2549, 0, 0, 2.71109, -53.7646, 2.64773, -173.815, 2.68378, 65.181, 0.103265, 159.524
1, 1860.00000, 125.691, -30.6907, 128.699, -150.741, 126.97, 88.2549, 0, 0, 2.71109, -53.7646, 2.64773, -173.815, 2.68378, 65.181, 0.103265, 159.524
1, 1920.00000, 125.691, -30.6907, 128.699, -150.741, 126.97, 88.2549, 0, 0, 2.71109, -53.7646, 2.64773, -173.815, 2.68378, 65.181, 0.103265, 159.524
1, 1980.00000, 125.691, -30.6907, 128.699, -150.741, 126.97, 88.2549, 0, 0, 2.71109, -53.7646, 2.64773, -173.815, 2.68378, 65.181, 0.103265, 159.524
1, 2040.00000, 126.085, -30.651, 128.706, -150.735, 127.112, 88.4196, 0, 0, 2.70262, -53.7249, 2.64759, -173.809, 2.68079, 65.3457, 0.0896192, 161.852
1, 2100.00000, 126.085, -30.651, 128.706, -150.735, 127.112, 88.4196, 0, 0, 2.70262, -53.7249, 2.64759, -173.809, 2.68079, 65.3457, 0.0896196, 161.852
1, 2160.00000, 126.085, -30.651, 128.706, -150.735, 127.112, 88.4196, 0, 0, 2.70262, -53.7249, 2.64759, -173.809, 2.68079, 65.3457, 0.0896197, 161.852
1, 2220.00000, 126.085, -30.651, 128.706, -150.735, 127.112, 88.4196, 0, 0, 2.70262, -53.7249, 2.64759, -173.809, 2.68079, 65.3457, 0.0896197, 161.852
1, 2280.00000, 126.085, -30.651, 128.706, -150.735, 127.112, 88.4196, 0, 0, 2.70262, -53.7249, 2.64759, -173.809, 2.68079, 65.3457, 0.0896197, 161.852
1, 2340.00000, 126.085, -30.651, 128.706, -150.735, 127.112, 88.4196, 0, 0, 2.70262, -53.7249, 2.64759, -173.809, 2.68079, 65.3457, 0.0896197, 161.852
1, 2400.00000, 126.085, -30.651, 128.706, -150.735, 127.112, 88.4196, 0, 0, 2.70262, -53.7249, 2.64759, -173.809, 2.68079, 65.3457, 0.0896198, 161.852
1, 2460.00000, 126.085, -30.651, 128.706, -150.735, 127.112, 88.4196, 0, 0, 2.70262, -53.7249, 2.64759, -173.809, 2.68079, 65.3457, 0.0896198, 161.852
1, 2520.00000, 126.498, -30.609, 128.713, -150.73, 127.261, 88.5929, 0, 0, 2.69381, -53.6829, 2.64745, -173.804, 2.67766, 65.519, 0.0755588, 165.145
1, 2580.00000, 126.498, -30.609, 128.713, -150.73, 127.261, 88.5929, 0, 0, 2.69381, -53.6829, 2.64745, -173.804, 2.67766, 65.519, 0.0755593, 165.145
1, 2640.00000, 126.498, -30.609, 128.713, -150.73, 127.261, 88.5929, 0, 0, 2.69381, -53.6829, 2.64745, -173.804, 2.67766, 65.519, 0.0755593, 165.145
1, 2700.00000, 126.498, -30.609, 128.713, -150.73, 127.261, 88.5929, 0, 0, 2.69381, -53.6829, 2.64745, -173.804, 2.67766, 65.519, 0.0755593, 165.145
1, 2760.00000, 126.498, -30.6085, 128.88, -150.568, 127.667, 88.621, 0, 0, 2.69381, -53.6825, 2.64402, -173.642, 2.66914, 65.5471, 0.0799507, 155.152
1, 2820.00000, 126.498, -30.6085, 128.88, -150.568, 127.667, 88.621, 0, 0, 2.69381, -53.6825, 2.64402, -173.642, 2.66914, 65.5471, 0.0799511, 155.152
1, 2880.00000, 126.498, -30.6085, 128.88, -150.568, 127.667, 88.621, 0, 0, 2.69381, -53.6825, 2.64402, -173.642, 2.66914, 65.5471, 0.0799511, 155.152
1, 2940.00000, 126.498, -30.6085, 128.88, -150.568, 127.667, 88.621, 0, 0, 2.69381, -53.6825, 2.64402, -173.642, 2.66914, 65.5471, 0.0799511, 155.152
1, 3000.00000, 126.498, -30.6085, 128.88, -150.568, 127.667, 88.621, 0, 0, 2.69381, -53.6825, 2.64402, -173.642, 2.66914, 65.5471, 0.0799511, 155.152
1, 3060.00000, 126.498, -30.6085, 128.88, -150.568, 127.667, 88.621, 0, 0, 2.69381, -53.6825, 2.64402, -173.642, 2.66914, 65.5471, 0.0799511, 155.152
1, 3120.00000, 126.498, -30.6085, 128.88, -150.568, 127.667, 88.621, 0, 0, 2.69381, -53.6825, 2.64402, -173.642, 2.66914, 65.5471, 0.0799511, 155.152
1, 3180.00000, 126.498, -30.6085, 128.88, -150.568, 127.667, 88.621, 0, 0, 2.69381, -53.6825, 2.64402, -173.642, 2.66914, 65.5471, 0.0799511, 155.152
1, 3240.00000, 126.498, -30.6085, 128.88, -150.568, 127.667, 88.621, 0, 0, 2.69381, -53.6825, 2.64402, -173.642, 2.66914, 65.5471, 0.0799511, 155.152
1, 3300.00000, 126.498, -30.6085, 128.88, -150.568, 127.667, 88.621, 0, 0, 2.69381, -53.6825, 2.64402, -173.642, 2.66914, 65.5471, 0.0799511, 155.152
1, 3360.00000, 126.498, -30.6085, 128.88, -150.568, 127.667, 88.621, 0, 0, 2.69381, -53.6825, 2.64402, -173.642, 2.66914, 65.5471, 0.0799511, 155.152
1, 3420.00000, 126.498, -30.6085, 128.88, -150.568, 127.667, 88.621, 0, 0, 2.69381, -53.6825, 2.64402, -173.642, 2.66914, 65.5471, 0.0799511, 155.152
1, 3480.00000, 126.498, -30.6085, 128.88, -150.568, 127.667, 88.621, 0, 0, 2.69381, -53.6825, 2.64402, -173.642, 2.66914, 65.5471, 0.0799512, 155.152
1, 3540.00000, 126.498, -30.6085, 128.88, -150.568, 127.667, 88.621, 0, 0, 2.69381, -53.6825, 2.64402, -173.642, 2.66914, 65.5471, 0.0799512, 155.152
2, 0.00000, 126.498, -30.6085, 128.88, -150.568, 127.667, 88.621, 0, 0, 2.69381, -53.6825, 2.64402, -173.642, 2.66914, 65.5471, 0.0799512, 155.152
2, 60.00000, 126.498, -30.6085, 128.88, -150.568, 127.667, 88.621, 0, 0, 2.69381, -53.6825, 2.64402, -173.642, 2.66914, 65.5471, 0.0799512, 155.152
2, 120.00000, 126.493, -30.6097, 128.875, -150.569, 127.662, 88.62, 0, 0, 2.70136, -53.6836, 2.65143, -173.643, 2.67662, 65.5461, 0.08018, 155.148
2, 180.00000, 126.488, -30.6109, 128.871, -150.57, 127.658, 88.619, 0, 0, 2.70901, -53.6848, 2.65892, -173.644, 2.6842, 65.5451, 0.0804116, 155.144
2, 240.00000, 126.483, -30.6121, 128.867, -150.571, 127.653, 88.618, 0, 0, 2.71656, -53.686, 2.66633, -173.645, 2.69168, 65.544, 0.0806405, 155.14
2, 300.00000, 126.479, -30.6133, 128.862, -150.572, 127.648, 88.6169, 0, 0, 2.72412, -53.6872, 2.67373, -173.646, 2.69916, 65.543, 0.0808695, 155.136
2, 360.00000, 126.474, -30.6145, 128.858, -150.574, 127.644, 88.6159, 0, 0, 2.73177, -53.6884, 2.68123, -173.647, 2.70673, 65.542, 0.0811013, 155.132
2, 420.00000, 126.469, -30.6156, 128.853, -150.575, 127.639, 88.6149, 0, 0, 2.73933, -53.6896, 2.68864, -173.648, 2.71422, 65.541, 0.0813303, 155.127
2, 480.00000, 126.464, -30.6168, 128.849, -150.576, 127.634, 88.6139, 0, 0, 2.74689, -53.6907, 2.69605, -173.65, 2.7217, 65.5399, 0.0815594, 155.123
2, 540.00000, 126.459, -30.618, 128.845, -150.577, 127.63, 88.6128, 0, 0, 2.75454, -53.6919, 2.70354, -173.651, 2.72928, 65.5389, 0.0817913, 155.119
2, 600.00000, 126.455, -30.6192, 128.84, -150.578, 127.625, 88.6118, 0, 0, 2.76209, -53.6931, 2.71095, -173.652, 2.73676, 65.5379, 0.0820205, 155.115
2, 660.00000, 126.45, -30.6204, 128.836, -150.579, 127.621, 88.6108, 0, 0, 2.76965, -53.6943, 2.71836, -173.653, 2.74425, 65.5369, 0.0822497, 155.111
2, 720.00000, 126.445, -30.6216, 128.832, -150.58, 127.616, 88.6098, 0, 0, 2.77731, -53.6955, 2.72586, -173.654, 2.75183, 65.5358, 0.0824818, 155.107
2, 780.00000, 126.44, -30.6228, 128.827, -150.581, 127.611, 88.6087, 0, 0, 2.78487, -53.6967, 2.73327, -173.655, 2.75931, 65.5348, 0.0827111, 155.103
