hour,t(sec),V1,VAngle1,V2,VAngle2,V3,VAngle3,V4,VAngle4,I1,IAngle1,I2,IAngle2,I3,IAngle3,I4,IAngle4
0, 60.00000, 126.865, -30.5987, 126.928, -150.552, 126.972, 89.4528, 0, 0, 1.79922, -53.6721, 1.79833, -173.626, 1.79771, 66.3792, 0.00233673, 63.7374
0, 120.00000, 126.865, -30.5987, 126.928, -150.552, 126.972, 89.4528, 0, 0, 1.79925, -53.6726, 1.79835, -173.626, 1.79772, 66.3789, 0.00234141, 63.7767
0, 180.00000, 126.865, -30.5987, 126.928, -150.552, 126.972, 89.4528, 0, 0, 1.79925, -53.6726, 1.79835, -173.626, 1.79772, 66.3789, 0.00234143, 63.7769
0, 240.00000, 126.865, -30.5987, 126.928, -150.552, 126.972, 89.4528, 0, 0, 1.79925, -53.6726, 1.79835, -173.626, 1.79772, 66.3789, 0.00234143, 63.7769
0, 300.00000, 126.865, -30.5987, 126.928, -150.552, 126.972, 89.4528, 0, 0, 1.79925, -53.6726, 1.79835, -173.626, 1.79772, 66.3789, 0.00234143, 63.7769
0, 360.00000, 126.865, -30.5987, 126.928, -150.552, 126.972, 89.4528, 0, 0, 1.79925, -53.6726, 1.79835, -173.626, 1.79772, 66.3789, 0.00234143, 63.7769
0, 420.00000, 126.865, -30.5987, 126.928, -150.552, 126.972, 89.4528, 0, 0, 1.79925, -53.6726, 1.79835, -173.626, 1.79772, 66.3789, 0.00234143, 63.7769
0, 480.00000, 126.865, -30.5987, 126.928, -150.552, 126.972, 89.4528, 0, 0, 1.79925, -53.6726, 1.79835, -173.626, 1.79772, 66.3789, 0.00234143, 63.7769
0, 540.00000, 126.865, -30.5987, 126.928, -150.552, 126.972, 89.4528, 0, 0, 1.79925, -53.6726, 1.79835, -173.626, 1.79772, 66.3789, 0.00234143, 63.7769
0, 600.00000, 126.865, -30.5987, 126.928, -150.552, 126.972, 89.4528, 0, 0, 1.79925, -53.6726, 1.79835, -173.626, 1.79772, 66.3789, 0.00234143, 63.7769
0, 660.00000, 126.865, -30.5987, 126.928, -150.552, 126.972, 89.4528, 0, 0, 1.79925, -53.6726, 1.79835, -173.626, 1.79772, 66.3789, 0.00234143, 63.7769
0, 720.00000, 126.865, -30.5987, 126.928, -150.552, 126.972, 89.4528, 0, 0, 1.79925, -53.6726, 1.79835, -173.626, 1.79772, 66.3789, 0.00234143, 63.7769
0, 780.00000, 126.865, -30.5987, 126.928, -150.552, 126.972, 89.4528, 0, 0, 1.79925, -53.6726, 1.79835, -173.626, 1.79772, 66.3789, 0.00234143, 63.7769
0, 840.00000, 126.865, -30.5987, 126.928, -150.552, 126.972, 89.4528, 0, 0, 1.79925, -53.6726, 1.79835, -173.626, 1.79772, 66.3789, 0.00234143, 63.7769
0, 900.00000, 126.865, -30.5987, 126.928, -150.552, 126.972, 89.4528, 0, 0, 1.79925, -53.6726, 1.79835, -173.626, 1.79772, 66.3789, 0.00234143, 63.7769
0, 960.00000, 126.865, -30.5987, 126.928, -150.552, 126.972, 89.4528, 0, 0, 1.79925, -53.6726, 1.79835, -173.626, 1.79772, 66.3789, 0.00234143, 63.7769
0, 1020.00000, 126.865, -30.5987, 126.928, -150.552, 126.972, 89.4528, 0, 0, 1.79925, -53.6726, 1.79835, -173.626, 1.79772, 66.3789, 0.00234143, 63.7769
0, 1080.00000, 126.865, -30.5987, 126.928, -150.552, 126.972, 89.4528, 0, 0, 1.79925, -53.6726, 1.79835, -173.626, 1.79772, 66.3789, 0.00234143, 63.7769
0, 1140.00000, 126.865, -30.5987, 126.928, -150.552, 126.972, 89.4528, 0, 0, 1.79925, -53.6726, 1.79835, -173.626, 1.79772, 66.3789, 0.00234143, 63.7769
0, 1200.00000, 126.865, -30.5987, 126.928, -150.552, 126.972, 89.4528, 0, 0, 1.79925, -53.6726, 1.79835, -173.626, 1.79772, 66.3789, 0.00234143, 63.7769
0, 1260.00000, 126.865, -30.5987, 126.928, -150.552, 126.972, 89.4528, 0, 0, 1.79925, -53.6726, 1.79835, -173.626, 1.79772, 66.3789, 0.00234143, 63.7769
0, 1320.00000, 126.865, -30.5987, 126.928, -150.552, 126.972, 89.4528, 0, 0, 1.79925, -53.6726, 1.79835, -173.626, 1.79772, 66.3789, 0.00234143, 63.7769
0, 1380.00000, 126.865, -30.5987, 126.928, -150.552, 126.972, 89.4528, 0, 0, 1.79925, -53.6726, 1.79835, -173.626, 1.79772, 66.3789, 0.00234143, 63.7769
0, 1440.00000, 126.865, -30.5987, 126.928, -150.552, 126.972, 89.4528, 0, 0, 1.79925, -53.6726, 1.79835, -173.626, 1.79772, 66.3789, 0.00234143, 63.7769
0, 1500.00000, 126.865, -30.5987, 126.928, -150.552, 126.972, 89.4528, 0, 0, 1.79925, -53.6726, 1.79835, -173.626, 1.79772, 66.3789, 0.00234143, 63.7769
0, 1560.00000, 126.865, -30.5987, 126.928, -150.552, 126.972, 89.4528, 0, 0, 1.79925, -53.6726, 1.79835, -173.626, 1.79772, 66.3789, 0.00234143, 63.7769
0, 1620.00000, 126.865, -30.5987, 126.928, -150.552, 126.972, 89.4528, 0, 0, 1.79925, -53.6726, 1.79835, -173.626, 1.79772, 66.3789, 0.00234143, 63.7769
0, 1680.00000, 126.865, -30.5987, 126.928, -150.552, 126.972, 89.4528, 0, 0, 1.79925, -53.6726, 1.79835, -173.626, 1.79772, 66.3789, 0.00234143, 63.7769
0, 1740.00000, 126.865, -30.5987, 126.928, -150.552, 126.972, 89.4528, 0, 0, 1.79925, -53.6726, 1.79835, -173.626, 1.79772, 66.3789, 0.00234143, 63.7769
0, 1800.00000, 126.46, -30.6441, 126.927, -150.553, 126.842, 89.2796, 0, 0, 1.80498, -53.7175, 1.79836, -173.626, 1.79955, 66.2062, 0.0106085, 130.621
0, 1860.00000, 126.46, -30.6441, 126.927, -150.553, 126.842, 89.2796, 0, 0, 1.80501, -53.7181, 1.79836, -173.626, 1.79957, 66.2057, 0.010644, 130.651
0, 1920.00000, 126.46, -30.6441, 126.927, -150.553, 126.842, 89.2796, 0, 0, 1.80501, -53.7181, 1.79836, -173.626, 1.79957, 66.2057, 0.0106441, 130.651
0, 1980.00000, 126.46, -30.6441, 126.927, -150.553, 126.842, 89.2796, 0, 0, 1.80501, -53.7181, 1.79836, -173.626, 1.79957, 66.2057, 0.0106441, 130.651
0, 2040.00000, 126.46, -30.6441, 126.927, -150.553, 126.842, 89.2796, 0, 0, 1.80501, -53.7181, 1.79836, -173.626, 1.79957, 66.2057, 0.0106441, 130.651
0, 2100.00000, 126.46, -30.6441, 126.927, -150.553, 126.842, 89.2796, 0, 0, 1.80501, -53.7181, 1.79836, -173.626, 1.79957, 66.2057, 0.0106441, 130.651
0, 2160.00000, 126.46, -30.6441, 126.927, -150.553, 126.842, 89.2796, 0, 0, 1.80501, -53.7181, 1.79836, -173.626, 1.79957, 66.2057, 0.0106441, 130.651
0, 2220.00000, 126.46, -30.6441, 126.927, -150.553, 126.842, 89.2796, 0, 0, 1.80501, -53.7181, 1.79836, -173.626, 1.79957, 66.2057, 0.0106441, 130.651
0, 2280.00000, 126.46, -30.6441, 126.927, -150.553, 126.842, 89.2796, 0, 0, 1.80501, -53.7181, 1.79836, -173.626, 1.79957, 66.2057, 0.0106441, 130.651
0, 2340.00000, 126.46, -30.6441, 126.927, -150.553, 126.842, 89.2796, 0, 0, 1.80501, -53.7181, 1.79836, -173.626, 1.79957, 66.2057, 0.0106441, 130.651
0, 2400.00000, 126.46, -30.6441, 126.927, -150.553, 126.842, 89.2796, 0, 0, 1.80501, -53.7181, 1.79836, -173.626, 1.79957, 66.2057, 0.0106441, 130.651
0, 2460.00000, 126.46, -30.6441, 126.927, -150.553, 126.842, 89.2796, 0, 0, 1.80501, -53.7181, 1.79836, -173.626, 1.79957, 66.2057, 0.0106441, 130.651
0, 2520.00000, 126.46, -30.6441, 126.927, -150.553, 126.842, 89.2796, 0, 0, 1.80501, -53.7181, 1.79836, -173.626, 1.79957, 66.2057, 0.0106441, 130.651
0, 2580.00000, 126.46, -30.6441, 126.927, -150.553, 126.842, 89.2796, 0, 0, 1.80501, -53.7181, 1.79836, -173.626, 1.79957, 66.2057, 0.0106441, 130.651
0, 2640.00000, 126.46, -30.6441, 126.927, -150.553, 126.842, 89.2796, 0, 0, 1.80501, -53.7181, 1.79836, -173.626, 1.79957, 66.2057, 0.0106441, 130.651
0, 2700.00000, 126.46, -30.6441, 126.927, -150.553, 126.842, 89.2796, 0, 0, 1.80501, -53.7181, 1.79836, -173.626, 1.79957, 66.2057, 0.0106441, 130.651
0, 2760.00000, 126.46, -30.6441, 126.927, -150.553, 126.842, 89.2796, 0, 0, 1.80501, -53.7181, 1.79836, -173.626, 1.79957, 66.2057, 0.0106441, 130.651
0, 2820.00000, 126.46, -30.6441, 126.927, -150.553, 126.842, 89.2796, 0, 0, 1.80501, -53.7181, 1.79836, -173.626, 1.79957, 66.2057, 0.0106441, 130.651
0, 2880.00000, 126.46, -30.6441, 126.927, -150.553, 126.842, 89.2796, 0, 0, 1.80501, -53.7181, 1.79836, -173.626, 1.79957, 66.2057, 0.0106441, 130.651
0, 2940.00000, 126.46, -30.6441, 126.927, -150.553, 126.842, 89.2796, 0, 0, 1.80501, -53.7181, 1.79836, -173.626, 1.79957, 66.2057, 0.0106441, 130.651
0, 3000.00000, 126.46, -30.6441, 126.927, -150.553, 126.842, 89.2796, 0, 0, 1.80501, -53.7181, 1.79836, -173.626, 1.79957, 66.2057, 0.0106441, 130.651
0, 3060.00000, 126.46, -30.6441, 126.927, -150.553, 126.842, 89.2796, 0, 0, 1.80501, -53.7181, 1.79836, -173.626, 1.79957, 66.2057, 0.0106441, 130.651
0, 3120.00000, 126.46, -30.6441, 126.927, -150.553, 126.842, 89.2796, 0, 0, 1.80501, -53.7181, 1.79836, -173.626, 1.79957, 66.2057, 0.0106441, 130.651
0, 3180.00000, 126.46, -30.6441, 126.927, -150.553, 126.842, 89.2796, 0, 0, 1.80501, -53.7181, 1.79836, -173.626, 1.79957, 66.2057, 0.0106441, 130.651
0, 3240.00000, 126.46, -30.6441, 126.927, -150.553, 126.842, 89.2796, 0, 0, 1.80501, -53.7181, 1.79836, -173.626, 1.79957, 66.2057, 0.0106441, 130.651
0, 3300.00000, 126.46, -30.6441, 126.927, -150.553, 126.842, 89.2796, 0, 0, 1.80501, -53.7181, 1.79836, -173.626, 1.79957, 66.2057, 0.0106441, 130.651
0, 3360.00000, 126.46, -30.6441, 126.927, -150.553, 126.842, 89.2796, 0, 0, 1.80501, -53.7181, 1.79836, -173.626, 1.79957, 66.2057, 0.0106441, 130.651
0, 3420.00000, 126.46, -30.6441, 126.927, -150.553, 126.842, 89.2796, 0, 0, 1.80501, -53.7181, 1.79836, -173.626, 1.79957, 66.2057, 0.0106441, 130.651
0, 3480.00000, 126.46, -30.6441, 126.927, -150.553, 126.842, 89.2796, 0, 0, 1.80501, -53.7181, 1.79836, -173.626, 1.79957, 66.2057, 0.0106441, 130.651
0, 3540.00000, 126.46, -30.6441, 126.927, -150.553, 126.842, 89.2796, 0, 0, 1.80501, -53.7181, 1.79836, -173.626, 1.79957, 66.2057, 0.0106441, 130.651
1, 0.00000, 126.46, -30.6441, 126.927, -150.553, 126.842, 89.2796, 0, 0, 1.80501, -53.7181, 1.79836, -173.626, 1.79957, 66.2057, 0.0106441, 130.651
1, 60.00000, 126.46, -30.6441, 126.927, -150.553, 126.842, 89.2796, 0, 0, 1.80501, -53.7181, 1.79836, -173.626, 1.79957, 66.2057, 0.0106441, 130.651
1, 120.00000, 126.46, -30.6441, 126.927, -150.553, 126.842, 89.2796, 0, 0, 1.80501, -53.7181, 1.79836, -173.626, 1.79957, 66.2057, 0.0106441, 130.651
1, 180.00000, 126.46, -30.6441, 126.927, -150.553, 126.842, 89.2796, 0, 0, 1.80501, -53.7181, 1.79836, -173.626, 1.79957, 66.2057, 0.0106441, 130.651
1, 240.00000, 126.46, -30.6441, 126.927, -150.553, 126.842, 89.2796, 0, 0, 1.80501, -53.7181, 1.79836, -173.626, 1.79957, 66.2057, 0.0106441, 130.651
1, 300.00000, 126.46, -30.6441, 126.927, -150.553, 126.842, 89.2796, 0, 0, 1.80501, -53.7181, 1.79836, -173.626, 1.79957, 66.2057, 0.0106441, 130.651
1, 360.00000, 126.46, -30.6441, 126.927, -150.553, 126.842, 89.2796, 0, 0, 1.80501, -53.7181, 1.79836, -173.626, 1.79957, 66.2057, 0.0106441, 130.651
1, 420.00000, 126.46, -30.6441, 126.927, -150.553, 126.842, 89.2796, 0, 0, 1.80501, -53.7181, 1.79836, -173.626, 1.79957, 66.2057, 0.0106441, 130.651
1, 480.00000, 126.46, -30.6441, 126.927, -150.553, 126.842, 89.2796, 0, 0, 1.80501, -53.7181, 1.79836, -173.626, 1.79957, 66.2057, 0.0106441, 130.651
1, 540.00000, 126.46, -30.6441, 126.927, -150.553, 126.842, 89.2796, 0, 0, 1.80501, -53.7181, 1.79836, -173.626, 1.79957, 66.2057, 0.0106441, 130.651
1, 600.00000, 126.46, -30.6441, 126.927, -150.553, 126.842, 89.2796, 0, 0, 1.80501, -53.7181, 1.79836, -173.626, 1.79957, 66.2057, 0.0106441, 130.651
1, 660.00000, 126.46, -30.6441, 126.927, -150.553, 126.842, 89.2796, 0, 0, 1.80501, -53.7181, 1.79836, -173.626, 1.79957, 66.2057, 0.0106441, 130.651
1, 720.00000, 126.46, -30.6441, 126.927, -150.553, 126.842, 89.2796, 0, 0, 1.80501, -53.7181, 1.79836, -173.626, 1.79957, 66.2057, 0.0106441, 130.651
1, 780.00000, 126.46, -30.6441, 126.927, -150.553, 126.842, 89.2796, 0, 0, 1.80501, -53.7181, 1.79836, -173.626, 1.79957, 66.2057, 0.0106441, 130.651
1, 840.00000, 126.46, -30.6441, 126.927, -150.553, 126.842, 89.2796, 0, 0, 1.80501, -53.7181, 1.79836, -173.626, 1.79957, 66.2057, 0.0106441, 130.651
1, 900.00000, 126.46, -30.6441, 126.927, -150.553, 126.842, 89.2796, 0, 0, 1.80501, -53.7181, 1.79836, -173.626, 1.79957, 66.2057, 0.0106441, 130.651
1, 960.00000, 126.46, -30.6441, 126.927, -150.553, 126.842, 89.2796, 0, 0, 1.80501, -53.7181, 1.79836, -173.626, 1.79957, 66.2057, 0.0106441, 130.651
1, 1020.00000, 126.46, -30.6441, 126.927, -150.553, 126.842, 89.2796, 0, 0, 1.80501, -53.7181, 1.79836, -173.626, 1.79957, 66.2057, 0.0106441, 130.651
1, 1080.00000, 126.46, -30.6441, 126.927, -150.553, 126.842, 89.2796, 0, 0, 1.80501, -53.7181, 1.79836, -173.626, 1.79957, 66.2057, 0.0106441, 130.651
1, 1140.00000, 126.46, -30.6441, 126.927, -150.553, 126.842, 89.2796, 0, 0, 1.80501, -53.7181, 1.79836, -173.626, 1.79957, 66.2057, 0.0106441, 130.651
1, 1200.00000, 126.46, -30.6441, 126.927, -150.553, 126.842, 89.2796, 0, 0, 1.80501, -53.7181, 1.79836, -173.626, 1.79957, 66.2057, 0.0106441, 130.651
1, 1260.00000, 126.46, -30.6441, 126.927, -150.553, 126.842, 89.2796, 0, 0, 1.80501, -53.7181, 1.79836, -173.626, 1.79957, 66.2057, 0.0106441, 130.651
1, 1320.00000, 126.46, -30.6441, 126.927, -150.553, 126.842, 89.2796, 0, 0, 1.80501, -53.7181, 1.79836, -173.626, 1.79957, 66.2057, 0.0106441, 130.651
1, 1380.00000, 126.46, -30.6441, 126.927, -150.553, 126.842, 89.2796, 0, 0, 1.80501, -53.7181, 1.79836, -173.626, 1.79957, 66.2057, 0.0106441, 130.651
1, 1440.00000, 126.46, -30.6441, 126.927, -150.553, 126.842, 89.2796, 0, 0, 1.80501, -53.7181, 1.79836, -173.626, 1.79957, 66.2057, 0.0106441, 130.651
1, 1500.00000, 126.46, -30.6441, 126.927, -150.553, 126.842, 89.2796, 0, 0, 1.80501, -53.7181, 1.79836, -173.626, 1.79957, 66.2057, 0.0106441, 130.651
1, 1560.00000, 126.46, -30.6441, 126.927, -150.553, 126.842, 89.2796, 0, 0, 1.80501, -53.7181, 1.79836, -173.626, 1.79957, 66.2057, 0.0106441, 130.651
1, 1620.00000, 126.46, -30.6441, 126.927, -150.553, 126.842, 89.2796, 0, 0, 1.80501, -53.7181, 1.79836, -173.626, 1.79957, 66.2057, 0.0106441, 130.651
1, 1680.00000, 126.46, -30.6441, 126.927, -150.553, 126.842, 89.2796, 0, 0, 1.80501, -53.7181, 1.79836, -173.626, 1.79957, 66.2057, 0.0106441, 130.651
1, 1740.00000, 126.46, -30.6441, 126.927, -150.553, 126.842, 89.2796, 0, 0, 1.80501, -53.7181, 1.79836, -173.626, 1.79957, 66.2057, 0.0106441, 130.651
1, 1800.00000, 126.46, -30.6441, 126.927, -150.553, 126.842, 89.2796, 0, 0, 1.80501, -53.7181, 1.79836, -173.626, 1.79957, 66.2057, 0.0106441, 130.651
1, 1860.00000, 126.46, -30.6441, 126.927, -150.553, 126.842, 89.2796, 0, 0, 1.80501, -53.7181, 1.79836, -173.626, 1.79957, 66.2057, 0.0106441, 130.651
1, 1920.00000, 126.46, -30.6441, 126.927, -150.553, 126.842, 89.2796, 0, 0, 1.80501, -53.7181, 1.79836, -173.626, 1.79957, 66.2057, 0.0106441, 130.651
1, 1980.00000, 126.46, -30.6441, 126.927, -150.553, 126.842, 89.2796, 0, 0, 1.80501, -53.7181, 1.79836, -173.626, 1.79957, 66.2057, 0.0106441, 130.651
1, 2040.00000, 126.46, -30.6441, 126.927, -150.553, 126.842, 89.2796, 0, 0, 1.80501, -53.7181, 1.79836, -173.626, 1.79957, 66.2057, 0.0106441, 130.651
1, 2100.00000, 126.46, -30.6441, 126.927, -150.553, 126.842, 89.2796, 0, 0, 1.80501, -53.7181, 1.79836, -173.626, 1.79957, 66.2057, 0.0106441, 130.651
1, 2160.00000, 126.46, -30.6441, 126.927, -150.553, 126.842, 89.2796, 0, 0, 1.80501, -53.7181, 1.79836, -173.626, 1.79957, 66.2057, 0.0106441, 130.651
1, 2220.00000, 126.46, -30.6441, 126.927, -150.553, 126.842, 89.2796, 0, 0, 1.80501, -53.7181, 1.79836, -173.626, 1.79957, 66.2057, 0.0106441, 130.651
1, 2280.00000, 126.46, -30.6441, 126.927, -150.553, 126.842, 89.2796, 0, 0, 1.80501, -53.7181, 1.79836, -173.626, 1.79957, 66.2057, 0.0106441, 130.651
1, 2340.00000, 126.46, -30.6441, 126.927, -150.553, 126.842, 89.2796, 0, 0, 1.80501, -53.7181, 1.79836, -173.626, 1.79957, 66.2057, 0.0106441, 130.651
1, 2400.00000, 126.46, -30.6441, 126.927, -150.553, 126.842, 89.2796, 0, 0, 1.80501, -53.7181, 1.79836, -173.626, 1.79957, 66.2057, 0.0106441, 130.651
1, 2460.00000, 126.46, -30.6441, 126.927, -150.553, 126.842, 89.2796, 0, 0, 1.80501, -53.7181, 1.79836, -173.626, 1.79957, 66.2057, 0.0106441, 130.651
1, 2520.00000, 126.46, -30.6441, 126.927, -150.553, 126.842, 89.2796, 0, 0, 1.80501, -53.7181, 1.79836, -173.626, 1.79957, 66.2057, 0.0106441, 130.651
1, 2580.00000, 126.46, -30.6441, 126.927, -150.553, 126.842, 89.2796, 0, 0, 1.80501, -53.7181, 1.79836, -173.626, 1.79957, 66.2057, 0.0106441, 130.651
1, 2640.00000, 126.46, -30.6441, 126.927, -150.553, 126.842, 89.2796, 0, 0, 1.80501, -53.7181, 1.79836, -173.626, 1.79957, 66.2057, 0.0106441, 130.651
1, 2700.00000, 126.46, -30.6441, 126.927, -150.553, 126.842, 89.2796, 0, 0, 1.80501, -53.7181, 1.79836, -173.626, 1.79957, 66.2057, 0.0106441, 130.651
1, 2760.00000, 126.46, -30.6441, 126.927, -150.553, 126.842, 89.2796, 0, 0, 1.80501, -53.7181, 1.79836, -173.626, 1.79957, 66.2057, 0.0106441, 130.651
1, 2820.00000, 126.46, -30.6441, 126.927, -150.553, 126.842, 89.2796, 0, 0, 1.80501, -53.7181, 1.79836, -173.626, 1.79957, 66.2057, 0.0106441, 130.651
1, 2880.00000, 126.46, -30.6441, 126.927, -150.553, 126.842, 89.2796, 0, 0, 1.80501, -53.7181, 1.79836, -173.626, 1.79957, 66.2057, 0.0106441, 130.651
1, 2940.00000, 126.46, -30.6441, 126.927, -150.553, 126.842, 89.2796, 0, 0, 1.80501, -53.7181, 1.79836, -173.626, 1.79957, 66.2057, 0.0106441, 130.651
1, 3000.00000, 126.46, -30.6441, 126.927, -150.553, 126.842, 89.2796, 0, 0, 1.80501, -53.7181, 1.79836, -173.626, 1.79957, 66.2057, 0.0106441, 130.651
1, 3060.00000, 126.46, -30.6441, 126.927, -150.553, 126.842, 89.2796, 0, 0, 1.80501, -53.7181, 1.79836, -173.626, 1.79957, 66.2057, 0.0106441, 130.651
1, 3120.00000, 126.46, -30.6441, 126.927, -150.553, 126.842, 89.2796, 0, 0, 1.80501, -53.7181, 1.79836, -173.626, 1.79957, 66.2057, 0.0106441, 130.651
1, 3180.00000, 126.46, -30.6441, 126.927, -150.553, 126.842, 89.2796, 0, 0, 1.80501, -53.7181, 1.79836, -173.626, 1.79957, 66.2057, 0.0106441, 130.651
1, 3240.00000, 126.46, -30.6441, 126.927, -150.553, 126.842, 89.2796, 0, 0, 1.80501, -53.7181, 1.79836, -173.626, 1.79957, 66.2057, 0.0106441, 130.651
1, 3300.00000, 126.46, -30.6441, 126.927, -150.553, 126.842, 89.2796, 0, 0, 1.80501, -53.7181, 1.79836, -173.626, 1.79957, 66.2057, 0.0106441, 130.651
1, 3360.00000, 126.46, -30.6441, 126.927, -150.553, 126.842, 89.2796, 0, 0, 1.80501, -53.7181, 1.79836, -173.626, 1.79957, 66.2057, 0.0106441, 130.651
1, 3420.00000, 126.46, -30.6441, 126.927, -150.553, 126.842, 89.2796, 0, 0, 1.80501, -53.7181, 1.79836, -173.626, 1.79957, 66.2057, 0.0106441, 130.651
1, 3480.00000, 126.46, -30.6441, 126.927, -150.553, 126.842, 89.2796, 0, 0, 1.80501, -53.7181, 1.79836, -173.626, 1.79957, 66.2057, 0.0106441, 130.651
1, 3540.00000, 126.46, -30.6441, 126.927, -150.553, 126.842, 89.2796, 0, 0, 1.80501, -53.7181, 1.79836, -173.626, 1.79957, 66.2057, 0.0106441, 130.651
2, 0.00000, 126.46, -30.6441, 126.927, -150.553, 126.842, 89.2796, 0, 0, 1.80501, -53.7181, 1.79836, -173.626, 1.79957, 66.2057, 0.0106441, 130.651
2, 60.00000, 126.46, -30.6441, 126.927, -150.553, 126.842, 89.2796, 0, 0, 1.80501, -53.7181, 1.79836, -173.626, 1.79957, 66.2057, 0.0106441, 130.651
2, 120.00000, 126.456, -30.6453, 126.924, -150.554, 126.838, 89.2784, 0, 0, 1.81006, -53.7192, 1.80339, -173.628, 1.8046, 66.2046, 0.0106768, 130.648
2, 180.00000, 126.451, -30.6465, 126.92, -150.555, 126.834, 89.2773, 0, 0, 1.81517, -53.7204, 1.80848, -173.629, 1.8097, 66.2034, 0.0107109, 130.645
2, 240.00000, 126.447, -30.6477, 126.916, -150.556, 126.83, 89.2762, 0, 0, 1.82023, -53.7215, 1.81351, -173.63, 1.81474, 66.2023, 0.0107446, 130.642
2, 300.00000, 126.443, -30.6488, 126.912, -150.557, 126.826, 89.2751, 0, 0, 1.82528, -53.7227, 1.81854, -173.631, 1.81977, 66.2012, 0.0107782, 130.639
2, 360.00000, 126.439, -30.65, 126.908, -150.558, 126.822, 89.2739, 0, 0, 1.8304, -53.7239, 1.82363, -173.632, 1.82487, 66.2001, 0.0108124, 130.636
2, 420.00000, 126.435, -30.6512, 126.904, -150.559, 126.818, 89.2728, 0, 0, 1.83545, -53.725, 1.82866, -173.633, 1.82991, 66.1989, 0.0108461, 130.633
2, 480.00000, 126.43, -30.6523, 126.9, -150.56, 126.814, 89.2717, 0, 0, 1.84051, -53.7262, 1.8337, -173.634, 1.83494, 66.1978, 0.0108799, 130.63
2, 540.00000, 126.426, -30.6535, 126.896, -150.561, 126.81, 89.2705, 0, 0, 1.84563, -53.7274, 1.83879, -173.635, 1.84004, 66.1967, 0.0109141, 130.627
2, 600.00000, 126.422, -30.6547, 126.892, -150.563, 126.806, 89.2694, 0, 0, 1.85068, -53.7285, 1.84382, -173.636, 1.84508, 66.1955, 0.0109479, 130.624
2, 660.00000, 126.418, -30.6558, 126.889, -150.564, 126.802, 89.2683, 0, 0, 1.85574, -53.7297, 1.84886, -173.638, 1.85012, 66.1944, 0.0109817, 130.621
