hour,t(sec),V1,VAngle1,V2,VAngle2,V3,VAngle3,V4,VAngle4,I1,IAngle1,I2,IAngle2,I3,IAngle3,I4,IAngle4
0, 60.00000, 123.905, -30.5826, 124.432, -151.587, 122.315, 89.136, 0, 0, 2.4563, -53.6564, 2.44595, -174.662, 2.48826, 66.0624, 0.0744558, -113.688
0, 120.00000, 123.905, -30.5826, 124.455, -151.587, 122.326, 89.1275, 0, 0, 2.4563, -53.6565, 2.4455, -174.662, 2.48804, 66.0539, 0.0744469, -114.277
0, 180.00000, 123.905, -30.5827, 124.475, -151.587, 122.335, 89.1199, 0, 0, 2.4563, -53.6565, 2.44509, -174.661, 2.48784, 66.0462, 0.0744463, -114.807
0, 240.00000, 123.905, -30.5828, 124.494, -151.587, 122.344, 89.113, 0, 0, 2.4563, -53.6566, 2.44473, -174.661, 2.48766, 66.0393, 0.0744515, -115.284
0, 300.00000, 124.022, -30.5941, 125.477, -151.201, 123.568, 88.8989, 0, 0, 2.45399, -53.668, 2.42557, -174.275, 2.46302, 65.8252, 0.0565742, -150.192
0, 360.00000, 124.022, -30.5942, 125.491, -151.201, 123.575, 88.8934, 0, 0, 2.45399, -53.668, 2.42528, -174.275, 2.46288, 65.8197, 0.0568665, -150.59
0, 420.00000, 124.021, -30.5942, 125.505, -151.201, 123.581, 88.8884, 0, 0, 2.45399, -53.6681, 2.42502, -174.275, 2.46275, 65.8147, 0.0571323, -150.944
0, 480.00000, 124.021, -30.5942, 125.517, -151.201, 123.586, 88.8839, 0, 0, 2.45399, -53.6681, 2.42478, -174.275, 2.46264, 65.8102, 0.0573735, -151.259
0, 540.00000, 124.021, -30.5943, 125.528, -151.201, 123.591, 88.8799, 0, 0, 2.45399, -53.6682, 2.42457, -174.275, 2.46254, 65.8061, 0.0575921, -151.54
0, 600.00000, 124.021, -30.5943, 125.538, -151.201, 123.596, 88.8763, 0, 0, 2.45399, -53.6682, 2.42438, -174.275, 2.46245, 65.8025, 0.0577901, -151.792
0, 660.00000, 124.021, -30.5943, 125.546, -151.201, 123.6, 88.873, 0, 0, 2.45399, -53.6682, 2.42421, -174.275, 2.46237, 65.7992, 0.0579693, -152.017
0, 720.00000, 124.021, -30.5944, 125.554, -151.201, 123.604, 88.87, 0, 0, 2.45399, -53.6683, 2.42405, -174.275, 2.46229, 65.7962, 0.0581314, -152.218
0, 780.00000, 124.021, -30.5944, 125.561, -151.201, 123.607, 88.8674, 0, 0, 2.45399, -53.6683, 2.42391, -174.275, 2.46223, 65.7936, 0.0582779, -152.398
0, 840.00000, 124.021, -30.5944, 125.568, -151.201, 123.61, 88.865, 0, 0, 2.45399, -53.6683, 2.42379, -174.275, 2.46217, 65.7912, 0.0584103, -152.559
0, 900.00000, 124.021, -30.5944, 125.574, -151.201, 123.613, 88.8629, 0, 0, 2.45399, -53.6683, 2.42367, -174.275, 2.46211, 65.789, 0.0585299, -152.703
0, 960.00000, 124.021, -30.5944, 125.579, -151.201, 123.615, 88.8609, 0, 0, 2.45399, -53.6683, 2.42357, -174.275, 2.46206, 65.7871, 0.0586378, -152.833
0, 1020.00000, 124.021, -30.5945, 125.584, -151.201, 123.617, 88.8592, 0, 0, 2.45399, -53.6684, 2.42348, -174.275, 2.46202, 65.7854, 0.0587353, -152.949
0, 1080.00000, 124.021, -30.5945, 125.588, -151.201, 123.619, 88.8576, 0, 0, 2.45399, -53.6684, 2.4234, -174.275, 2.46198, 65.7838, 0.0588232, -153.053
0, 1140.00000, 124.021, -30.5945, 125.592, -151.201, 123.621, 88.8562, 0, 0, 2.45399, -53.6684, 2.42332, -174.275, 2.46194, 65.7824, 0.0589024, -153.146
0, 1200.00000, 124.021, -30.5945, 125.595, -151.201, 123.623, 88.855, 0, 0, 2.45399, -53.6684, 2.42326, -174.275, 2.46191, 65.7811, 0.0589739, -153.23
0, 1260.00000, 124.021, -30.5945, 125.598, -151.201, 123.624, 88.8538, 0, 0, 2.45399, -53.6684, 2.4232, -174.275, 2.46188, 65.7799, 0.0590384, -153.306
0, 1320.00000, 124.021, -30.5945, 125.601, -151.201, 123.625, 88.8528, 0, 0, 2.45399, -53.6684, 2.42314, -174.275, 2.46186, 65.7789, 0.0590965, -153.373
0, 1380.00000, 124.021, -30.5945, 125.603, -151.201, 123.627, 88.8519, 0, 0, 2.45399, -53.6684, 2.42309, -174.275, 2.46184, 65.778, 0.0591489, -153.434
0, 1440.00000, 124.021, -30.5945, 125.606, -151.201, 123.628, 88.851, 0, 0, 2.45399, -53.6684, 2.42305, -174.275, 2.46181, 65.7772, 0.0591961, -153.489
0, 1500.00000, 124.021, -30.5945, 125.608, -151.201, 123.628, 88.8503, 0, 0, 2.45399, -53.6684, 2.42301, -174.275, 2.4618, 65.7764, 0.0592386, -153.538
0, 1560.00000, 124.021, -30.5945, 125.609, -151.201, 123.629, 88.8496, 0, 0, 2.45399, -53.6685, 2.42297, -174.275, 2.46178, 65.7757, 0.0592769, -153.582
0, 1620.00000, 124.021, -30.5946, 125.611, -151.201, 123.63, 88.849, 0, 0, 2.45399, -53.6685, 2.42294, -174.275, 2.46176, 65.7751, 0.0593114, -153.621
0, 1680.00000, 124.021, -30.5946, 125.612, -151.201, 123.631, 88.8485, 0, 0, 2.45399, -53.6685, 2.42291, -174.275, 2.46175, 65.7746, 0.0593425, -153.657
0, 1740.00000, 124.021, -30.5946, 125.614, -151.201, 123.631, 88.848, 0, 0, 2.45399, -53.6685, 2.42289, -174.275, 2.46174, 65.7741, 0.0593705, -153.689
0, 1800.00000, 124.021, -30.5946, 125.615, -151.201, 123.632, 88.8475, 0, 0, 2.45399, -53.6685, 2.42287, -174.275, 2.46173, 65.7736, 0.0593957, -153.718
0, 1860.00000, 124.021, -30.5946, 125.616, -151.201, 123.632, 88.8471, 0, 0, 2.45399, -53.6685, 2.42284, -174.275, 2.46172, 65.7732, 0.0594185, -153.744
0, 1920.00000, 124.021, -30.5946, 125.617, -151.201, 123.633, 88.8468, 0, 0, 2.45399, -53.6685, 2.42283, -174.275, 2.46171, 65.7729, 0.0594389, -153.767
0, 1980.00000, 124.021, -30.5946, 125.618, -151.201, 123.633, 88.8465, 0, 0, 2.45399, -53.6685, 2.42281, -174.275, 2.4617, 65.7725, 0.0594573, -153.788
0, 2040.00000, 124.021, -30.5946, 125.619, -151.201, 123.634, 88.8462, 0, 0, 2.45399, -53.6685, 2.42279, -174.275, 2.46169, 65.7722, 0.0594739, -153.807
0, 2100.00000, 124.021, -30.5946, 125.619, -151.201, 123.634, 88.8459, 0, 0, 2.45399, -53.6685, 2.42278, -174.275, 2.46169, 65.772, 0.0594888, -153.824
0, 2160.00000, 124.021, -30.5946, 125.62, -151.201, 123.634, 88.8457, 0, 0, 2.45399, -53.6685, 2.42277, -174.275, 2.46168, 65.7718, 0.0595023, -153.839
0, 2220.00000, 124.429, -30.552, 125.619, -151.201, 123.763, 89.0144, 0, 0, 2.44596, -53.6259, 2.42279, -174.275, 2.45912, 65.9405, 0.0546209, -140.979
0, 2280.00000, 124.429, -30.552, 125.619, -151.201, 123.763, 89.0142, 0, 0, 2.44596, -53.6259, 2.42278, -174.275, 2.45912, 65.9403, 0.0546286, -140.994
0, 2340.00000, 124.429, -30.552, 125.62, -151.201, 123.763, 89.014, 0, 0, 2.44596, -53.6259, 2.42277, -174.275, 2.45911, 65.9401, 0.0546356, -141.008
0, 2400.00000, 124.429, -30.552, 125.62, -151.201, 123.764, 89.0139, 0, 0, 2.44596, -53.6259, 2.42276, -174.275, 2.45911, 65.94, 0.0546419, -141.021
0, 2460.00000, 124.429, -30.552, 125.621, -151.201, 123.764, 89.0137, 0, 0, 2.44596, -53.6259, 2.42275, -174.275, 2.4591, 65.9398, 0.0546475, -141.033
0, 2520.00000, 124.429, -30.552, 125.621, -151.201, 123.764, 89.0136, 0, 0, 2.44596, -53.6259, 2.42275, -174.275, 2.4591, 65.9397, 0.0546526, -141.043
0, 2580.00000, 124.429, -30.552, 125.621, -151.201, 123.764, 89.0135, 0, 0, 2.44596, -53.6259, 2.42274, -174.275, 2.4591, 65.9396, 0.0546572, -141.052
0, 2640.00000, 124.429, -30.552, 125.622, -151.201, 123.764, 89.0134, 0, 0, 2.44596, -53.6259, 2.42274, -174.275, 2.4591, 65.9395, 0.0546613, -141.06
0, 2700.00000, 124.429, -30.552, 125.622, -151.201, 123.764, 89.0133, 0, 0, 2.44596, -53.6259, 2.42273, -174.275, 2.45909, 65.9394, 0.0546651, -141.068
0, 2760.00000, 124.429, -30.552, 125.622, -151.201, 123.764, 89.0132, 0, 0, 2.44596, -53.6259, 2.42273, -174.275, 2.45909, 65.9393, 0.0546684, -141.075
0, 2820.00000, 124.429, -30.552, 125.622, -151.201, 123.764, 89.0132, 0, 0, 2.44596, -53.6259, 2.42272, -174.275, 2.45909, 65.9392, 0.0546714, -141.081
0, 2880.00000, 124.429, -30.552, 125.622, -151.201, 123.765, 89.0131, 0, 0, 2.44596, -53.6259, 2.42272, -174.275, 2.45909, 65.9392, 0.0546741, -141.086
0, 2940.00000, 124.429, -30.552, 125.623, -151.201, 123.765, 89.013, 0, 0, 2.44596, -53.6259, 2.42272, -174.275, 2.45909, 65.9391, 0.0546766, -141.091
0, 3000.00000, 124.429, -30.552, 125.623, -151.201, 123.765, 89.013, 0, 0, 2.44596, -53.6259, 2.42271, -174.275, 2.45908, 65.9391, 0.0546788, -141.095
0, 3060.00000, 124.429, -30.552, 125.623, -151.201, 123.765, 89.0129, 0, 0, 2.44596, -53.6259, 2.42271, -174.275, 2.45908, 65.939, 0.0546808, -141.099
0, 3120.00000, 124.429, -30.552, 125.623, -151.201, 123.765, 89.0129, 0, 0, 2.44596, -53.6259, 2.42271, -174.275, 2.45908, 65.939, 0.0546825, -141.103
0, 3180.00000, 124.429, -30.552, 125.623, -151.201, 123.765, 89.0129, 0, 0, 2.44596, -53.6259, 2.42271, -174.275, 2.45908, 65.9389, 0.0546842, -141.106
0, 3240.00000, 124.429, -30.552, 125.623, -151.201, 123.765, 89.0128, 0, 0, 2.44596, -53.6259, 2.4227, -174.275, 2.45908, 65.9389, 0.0546856, -141.109
0, 3300.00000, 124.429, -30.552, 125.623, -151.201, 123.765, 89.0128, 0, 0, 2.44596, -53.6259, 2.4227, -174.275, 2.45908, 65.9389, 0.0546869, -141.112
0, 3360.00000, 124.429, -30.552, 125.623, -151.201, 123.765, 89.0128, 0, 0, 2.44596, -53.6259, 2.4227, -174.275, 2.45908, 65.9388, 0.0546881, -141.114
0, 3420.00000, 124.429, -30.552, 125.623, -151.201, 123.765, 89.0127, 0, 0, 2.44596, -53.6259, 2.4227, -174.275, 2.45908, 65.9388, 0.0546891, -141.116
0, 3480.00000, 124.429, -30.552, 125.624, -151.201, 123.765, 89.0127, 0, 0, 2.44596, -53.6259, 2.4227, -174.275, 2.45908, 65.9388, 0.0546901, -141.118
0, 3540.00000, 124.429, -30.552, 125.624, -151.201, 123.765, 89.0127, 0, 0, 2.44596, -53.6259, 2.4227, -174.275, 2.45908, 65.9388, 0.0546909, -141.12
1, 0.00000, 124.429, -30.552, 125.624, -151.201, 123.765, 89.0127, 0, 0, 2.44596, -53.6259, 2.4227, -174.275, 2.45908, 65.9388, 0.0546917, -141.121
1, 60.00000, 124.429, -30.552, 125.624, -151.201, 123.765, 89.0126, 0, 0, 2.44596, -53.6259, 2.4227, -174.275, 2.45908, 65.9387, 0.0546924, -141.123
1, 120.00000, 124.429, -30.552, 125.624, -151.201, 123.765, 89.0126, 0, 0, 2.44596, -53.6259, 2.42269, -174.275, 2.45908, 65.9387, 0.054693, -141.124
1, 180.00000, 124.429, -30.552, 125.624, -151.201, 123.765, 89.0126, 0, 0, 2.44596, -53.6259, 2.42269, -174.275, 2.45908, 65.9387, 0.0546936, -141.125
1, 240.00000, 124.429, -30.552, 125.624, -151.201, 123.765, 89.0126, 0, 0, 2.44596, -53.6259, 2.42269, -174.275, 2.45907, 65.9387, 0.0546941, -141.126
1, 300.00000, 124.429, -30.552, 125.624, -151.201, 123.765, 89.0126, 0, 0, 2.44596, -53.6259, 2.42269, -174.275, 2.45907, 65.9387, 0.0546945, -141.127
1, 360.00000, 124.429, -30.552, 125.624, -151.201, 123.765, 89.0126, 0, 0, 2.44596, -53.6259, 2.42269, -174.275, 2.45907, 65.9387, 0.0546949, -141.128
1, 420.00000, 124.429, -30.552, 125.624, -151.201, 123.765, 89.0126, 0, 0, 2.44596, -53.6259, 2.42269, -174.275, 2.45907, 65.9387, 0.0546953, -141.128
1, 480.00000, 124.429, -30.552, 125.624, -151.201, 123.765, 89.0126, 0, 0, 2.44596, -53.6259, 2.42269, -174.275, 2.45907, 65.9387, 0.0546956, -141.129
1, 540.00000, 124.429, -30.552, 125.624, -151.201, 123.765, 89.0126, 0, 0, 2.44596, -53.6259, 2.42269, -174.275, 2.45907, 65.9386, 0.0546959, -141.13
1, 600.00000, 124.429, -30.552, 125.624, -151.201, 123.765, 89.0126, 0, 0, 2.44596, -53.6259, 2.42269, -174.275, 2.45907, 65.9386, 0.0546962, -141.13
1, 660.00000, 124.425, -30.5524, 125.76, -151.037, 124.169, 89.0491, 0, 0, 2.44603, -53.6263, 2.42006, -174.111, 2.45109, 65.9752, 0.0462686, -153.043
1, 720.00000, 124.425, -30.5524, 125.76, -151.037, 124.169, 89.0491, 0, 0, 2.44603, -53.6263, 2.42006, -174.111, 2.45108, 65.9752, 0.0462688, -153.045
1, 780.00000, 124.58, -30.5663, 126.98, -150.592, 125.628, 88.7719, 0, 0, 2.44299, -53.6403, 2.39682, -173.666, 2.42261, 65.698, 0.0675127, 159.312
1, 840.00000, 124.58, -30.5663, 126.98, -150.592, 125.628, 88.7719, 0, 0, 2.44299, -53.6403, 2.39682, -173.666, 2.42261, 65.698, 0.0675137, 159.311
1, 900.00000, 124.58, -30.5663, 126.98, -150.592, 125.628, 88.7719, 0, 0, 2.44299, -53.6403, 2.39682, -173.666, 2.42261, 65.698, 0.067514, 159.311
1, 960.00000, 124.58, -30.5663, 126.98, -150.592, 125.628, 88.7719, 0, 0, 2.44299, -53.6403, 2.39682, -173.666, 2.42261, 65.698, 0.0675143, 159.311
1, 1020.00000, 124.58, -30.5663, 126.98, -150.592, 125.628, 88.7719, 0, 0, 2.44299, -53.6403, 2.39682, -173.666, 2.42261, 65.698, 0.0675146, 159.311
1, 1080.00000, 124.58, -30.5663, 126.98, -150.592, 125.628, 88.7719, 0, 0, 2.44299, -53.6403, 2.39682, -173.666, 2.42261, 65.698, 0.0675148, 159.311
1, 1140.00000, 124.58, -30.5663, 126.98, -150.592, 125.628, 88.7719, 0, 0, 2.44299, -53.6403, 2.39682, -173.666, 2.42261, 65.698, 0.0675151, 159.311
1, 1200.00000, 124.58, -30.5663, 126.98, -150.592, 125.628, 88.7719, 0, 0, 2.44299, -53.6403, 2.39682, -173.666, 2.42261, 65.698, 0.0675152, 159.311
1, 1260.00000, 124.58, -30.5663, 126.98, -150.592, 125.628, 88.7719, 0, 0, 2.44299, -53.6403, 2.39682, -173.666, 2.42261, 65.698, 0.0675154, 159.311
1, 1320.00000, 124.58, -30.5663, 126.98, -150.592, 125.628, 88.7719, 0, 0, 2.44299, -53.6403, 2.39682, -173.666, 2.42261, 65.698, 0.0675156, 159.311
1, 1380.00000, 124.58, -30.5663, 126.98, -150.592, 125.628, 88.7719, 0, 0, 2.44299, -53.6403, 2.39682, -173.666, 2.42261, 65.698, 0.0675157, 159.311
1, 1440.00000, 124.58, -30.5663, 126.98, -150.592, 125.628, 88.7719, 0, 0, 2.44299, -53.6403, 2.39682, -173.666, 2.42261, 65.698, 0.0675159, 159.311
1, 1500.00000, 124.58, -30.5663, 126.98, -150.592, 125.628, 88.7719, 0, 0, 2.44299, -53.6403, 2.39682, -173.666, 2.42261, 65.698, 0.067516, 159.311
1, 1560.00000, 124.58, -30.5663, 126.98, -150.592, 125.628, 88.7719, 0, 0, 2.44299, -53.6403, 2.39682, -173.666, 2.4226, 65.698, 0.0675161, 159.311
1, 1620.00000, 124.58, -30.5663, 126.98, -150.592, 125.628, 88.7719, 0, 0, 2.44299, -53.6403, 2.39682, -173.666, 2.4226, 65.698, 0.0675162, 159.311
1, 1680.00000, 124.58, -30.5663, 126.98, -150.592, 125.628, 88.7719, 0, 0, 2.44299, -53.6403, 2.39682, -173.666, 2.4226, 65.698, 0.0675162, 159.311
1, 1740.00000, 124.58, -30.5663, 126.98, -150.592, 125.628, 88.7719, 0, 0, 2.44299, -53.6403, 2.39682, -173.666, 2.4226, 65.698, 0.0675163, 159.311
1, 1800.00000, 124.58, -30.5663, 126.98, -150.592, 125.628, 88.7719, 0, 0, 2.44299, -53.6403, 2.39682, -173.666, 2.4226, 65.698, 0.0675164, 159.311
1, 1860.00000, 124.58, -30.5663, 126.98, -150.592, 125.628, 88.7719, 0, 0, 2.44299, -53.6403, 2.39682, -173.666, 2.4226, 65.698, 0.0675165, 159.311
1, 1920.00000, 124.58, -30.5663, 126.98, -150.592, 125.628, 88.7719, 0, 0, 2.44299, -53.6403, 2.39682, -173.666, 2.4226, 65.698, 0.0675165, 159.311
1, 1980.00000, 124.58, -30.5663, 126.98, -150.592, 125.628, 88.7719, 0, 0, 2.44299, -53.6403, 2.39682, -173.666, 2.4226, 65.698, 0.0675166, 159.311
1, 2040.00000, 124.58, -30.5663, 126.98, -150.592, 125.628, 88.7719, 0, 0, 2.44299, -53.6403, 2.39682, -173.666, 2.4226, 65.698, 0.0675166, 159.311
1, 2100.00000, 124.58, -30.5663, 126.98, -150.592, 125.628, 88.7719, 0, 0, 2.44299, -53.6403, 2.39682, -173.666, 2.4226, 65.698, 0.0675166, 159.311
1, 2160.00000, 124.58, -30.5663, 126.98, -150.592, 125.628, 88.7719, 0, 0, 2.44299, -53.6403, 2.39682, -173.666, 2.4226, 65.698, 0.0675167, 159.311
1, 2220.00000, 124.58, -30.5663, 126.98, -150.592, 125.628, 88.7719, 0, 0, 2.44299, -53.6403, 2.39682, -173.666, 2.4226, 65.698, 0.0675167, 159.311
1, 2280.00000, 124.58, -30.5663, 126.98, -150.592, 125.628, 88.7719, 0, 0, 2.44299, -53.6403, 2.39682, -173.666, 2.4226, 65.698, 0.0675167, 159.311
1, 2340.00000, 124.58, -30.5663, 126.98, -150.592, 125.628, 88.7719, 0, 0, 2.44299, -53.6403, 2.39682, -173.666, 2.4226, 65.698, 0.0675168, 159.311
1, 2400.00000, 124.58, -30.5663, 126.98, -150.592, 125.628, 88.7719, 0, 0, 2.44299, -53.6403, 2.39682, -173.666, 2.4226, 65.698, 0.0675168, 159.311
1, 2460.00000, 124.58, -30.5663, 126.98, -150.592, 125.628, 88.7719, 0, 0, 2.44299, -53.6403, 2.39682, -173.666, 2.4226, 65.698, 0.0675168, 159.311
1, 2520.00000, 124.58, -30.5663, 126.98, -150.592, 125.628, 88.7719, 0, 0, 2.44299, -53.6403, 2.39682, -173.666, 2.4226, 65.698, 0.0675168, 159.311
1, 2580.00000, 124.58, -30.5663, 126.98, -150.592, 125.628, 88.7719, 0, 0, 2.44299, -53.6403, 2.39682, -173.666, 2.4226, 65.698, 0.0675168, 159.311
1, 2640.00000, 124.58, -30.5663, 126.98, -150.592, 125.628, 88.7719, 0, 0, 2.44299, -53.6403, 2.39682, -173.666, 2.4226, 65.698, 0.0675169, 159.311
1, 2700.00000, 124.58, -30.5663, 126.98, -150.592, 125.628, 88.7719, 0, 0, 2.44299, -53.6403, 2.39682, -173.666, 2.4226, 65.698, 0.0675169, 159.311
1, 2760.00000, 124.58, -30.5663, 126.98, -150.592, 125.628, 88.7719, 0, 0, 2.44299, -53.6403, 2.39682, -173.666, 2.4226, 65.698, 0.0675169, 159.311
1, 2820.00000, 124.58, -30.5663, 126.98, -150.592, 125.628, 88.7719, 0, 0, 2.44299, -53.6403, 2.39682, -173.666, 2.4226, 65.698, 0.0675169, 159.311
1, 2880.00000, 124.58, -30.5663, 126.98, -150.592, 125.628, 88.7719, 0, 0, 2.44299, -53.6403, 2.39682, -173.666, 2.4226, 65.698, 0.0675169, 159.311
1, 2940.00000, 124.58, -30.5663, 126.98, -150.592, 125.628, 88.7719, 0, 0, 2.44299, -53.6403, 2.39682, -173.666, 2.4226, 65.698, 0.0675169, 159.311
1, 3000.00000, 124.58, -30.5663, 126.98, -150.592, 125.628, 88.7719, 0, 0, 2.44299, -53.6403, 2.39682, -173.666, 2.4226, 65.698, 0.0675169, 159.311
1, 3060.00000, 124.58, -30.5663, 126.98, -150.592, 125.628, 88.7719, 0, 0, 2.44299, -53.6403, 2.39682, -173.666, 2.4226, 65.698, 0.0675169, 159.311
1, 3120.00000, 124.58, -30.5663, 126.98, -150.592, 125.628, 88.7719, 0, 0, 2.44299, -53.6403, 2.39682, -173.666, 2.4226, 65.698, 0.0675169, 159.311
1, 3180.00000, 124.58, -30.5663, 126.98, -150.592, 125.628, 88.7719, 0, 0, 2.44299, -53.6403, 2.39682, -173.666, 2.4226, 65.698, 0.0675169, 159.311
1, 3240.00000, 124.58, -30.5663, 126.98, -150.592, 125.628, 88.7719, 0, 0, 2.44299, -53.6403, 2.39682, -173.666, 2.4226, 65.698, 0.067517, 159.311
1, 3300.00000, 124.58, -30.5663, 126.98, -150.592, 125.628, 88.7719, 0, 0, 2.44299, -53.6403, 2.39682, -173.666, 2.4226, 65.698, 0.067517, 159.311
1, 3360.00000, 124.58, -30.5663, 126.98, -150.592, 125.628, 88.7719, 0, 0, 2.44299, -53.6403, 2.39682, -173.666, 2.4226, 65.698, 0.067517, 159.311
1, 3420.00000, 124.58, -30.5663, 126.98, -150.592, 125.628, 88.7719, 0, 0, 2.44299, -53.6403, 2.39682, -173.666, 2.4226, 65.698, 0.067517, 159.311
1, 3480.00000, 124.577, -30.5663, 127.113, -150.43, 126.029, 88.8127, 0, 0, 2.44305, -53.6402, 2.3943, -173.504, 2.41491, 65.7388, 0.0717902, 149.287
1, 3540.00000, 124.577, -30.5663, 127.113, -150.43, 126.029, 88.8127, 0, 0, 2.44305, -53.6402, 2.3943, -173.504, 2.41491, 65.7388, 0.0717904, 149.286
2, 0.00000, 124.577, -30.5663, 127.113, -150.43, 126.029, 88.8127, 0, 0, 2.44305, -53.6402, 2.3943, -173.504, 2.41491, 65.7388, 0.0717904, 149.286
2, 60.00000, 124.577, -30.5663, 127.113, -150.43, 126.029, 88.8127, 0, 0, 2.44305, -53.6402, 2.3943, -173.504, 2.41491, 65.7388, 0.0717904, 149.286
2, 120.00000, 124.568, -30.5673, 127.106, -150.431, 126.021, 88.8119, 0, 0, 2.44998, -53.6412, 2.40107, -173.505, 2.42174, 65.738, 0.0720105, 149.279
2, 180.00000, 124.559, -30.5684, 127.098, -150.432, 126.013, 88.8112, 0, 0, 2.457, -53.6423, 2.40792, -173.506, 2.42866, 65.7372, 0.0722333, 149.272
2, 240.00000, 124.55, -30.5694, 127.091, -150.433, 126.004, 88.8104, 0, 0, 2.46393, -53.6433, 2.41469, -173.506, 2.4355, 65.7365, 0.0724535, 149.265
2, 300.00000, 124.542, -30.5705, 127.083, -150.433, 125.996, 88.8096, 0, 0, 2.47087, -53.6444, 2.42146, -173.507, 2.44234, 65.7357, 0.0726739, 149.257
2, 360.00000, 124.533, -30.5715, 127.075, -150.434, 125.988, 88.8088, 0, 0, 2.47789, -53.6454, 2.42831, -173.508, 2.44926, 65.7349, 0.0728971, 149.25
2, 420.00000, 124.524, -30.5726, 127.068, -150.435, 125.98, 88.8081, 0, 0, 2.48482, -53.6465, 2.43508, -173.509, 2.4561, 65.7342, 0.0731178, 149.243
2, 480.00000, 124.515, -30.5736, 127.06, -150.436, 125.972, 88.8073, 0, 0, 2.49176, -53.6475, 2.44185, -173.51, 2.46294, 65.7334, 0.0733386, 149.236
2, 540.00000, 124.506, -30.5747, 127.053, -150.437, 125.964, 88.8065, 0, 0, 2.49878, -53.6486, 2.44871, -173.511, 2.46987, 65.7326, 0.0735622, 149.229
2, 600.00000, 124.498, -30.5757, 127.045, -150.438, 125.956, 88.8058, 0, 0, 2.50572, -53.6496, 2.45548, -173.512, 2.47671, 65.7318, 0.0737833, 149.222
2, 660.00000, 124.489, -30.5768, 127.037, -150.438, 125.948, 88.805, 0, 0, 2.51266, -53.6507, 2.46225, -173.512, 2.48356, 65.7311, 0.0740045, 149.214
2, 720.00000, 124.48, -30.5778, 127.03, -150.439, 125.94, 88.8042, 0, 0, 2.51969, -53.6517, 2.46911, -173.513, 2.49048, 65.7303, 0.0742285, 149.207
