hour,t(sec),V1,VAngle1,V2,VAngle2,V3,VAngle3,V4,VAngle4,I1,IAngle1,I2,IAngle2,I3,IAngle3,I4,IAngle4
0, 60.00000, 127.775, -31.7976, 126.928, -150.679, 129.343, 88.9797, 0, 0, 2.24154, -54.8711, 2.25649, -173.753, 2.2144, 65.906, 0.0755944, 49.3172
0, 120.00000, 127.786, -31.8108, 126.928, -150.679, 129.373, 88.9764, 0, 0, 2.24134, -54.8844, 2.2565, -173.753, 2.21387, 65.9027, 0.0765362, 49.2842
0, 180.00000, 127.797, -31.8227, 126.927, -150.678, 129.401, 88.9735, 0, 0, 2.24116, -54.8963, 2.25651, -173.752, 2.2134, 65.8998, 0.0773838, 49.2555
0, 240.00000, 127.806, -31.8334, 126.927, -150.678, 129.425, 88.9708, 0, 0, 2.24099, -54.9071, 2.25652, -173.752, 2.21298, 65.8971, 0.0781467, 49.2303
0, 300.00000, 128.216, -31.8001, 126.927, -150.677, 129.583, 89.1356, 0, 0, 2.23384, -54.8737, 2.25651, -173.751, 2.21029, 66.0619, 0.0804409, 40.7139
0, 360.00000, 128.223, -31.8088, 126.927, -150.677, 129.603, 89.1334, 0, 0, 2.2337, -54.8824, 2.25652, -173.751, 2.20995, 66.0597, 0.081055, 40.7617
0, 420.00000, 128.23, -31.8166, 126.927, -150.676, 129.621, 89.1314, 0, 0, 2.23359, -54.8903, 2.25652, -173.75, 2.20964, 66.0577, 0.0816077, 40.8042
0, 480.00000, 128.236, -31.8236, 126.926, -150.676, 129.637, 89.1297, 0, 0, 2.23348, -54.8974, 2.25653, -173.75, 2.20936, 66.0559, 0.0821052, 40.842
0, 540.00000, 128.242, -31.83, 126.926, -150.676, 129.652, 89.128, 0, 0, 2.23338, -54.9037, 2.25653, -173.75, 2.20911, 66.0543, 0.0825529, 40.8757
0, 600.00000, 128.247, -31.8357, 126.926, -150.676, 129.665, 89.1266, 0, 0, 2.2333, -54.9095, 2.25654, -173.75, 2.20888, 66.0528, 0.0829559, 40.9058
0, 660.00000, 128.251, -31.8408, 126.926, -150.675, 129.677, 89.1253, 0, 0, 2.23322, -54.9146, 2.25654, -173.749, 2.20868, 66.0515, 0.0833186, 40.9327
0, 720.00000, 128.255, -31.8455, 126.925, -150.675, 129.687, 89.1241, 0, 0, 2.23315, -54.9193, 2.25655, -173.749, 2.2085, 66.0503, 0.0836451, 40.9567
0, 780.00000, 128.259, -31.8496, 126.925, -150.675, 129.697, 89.1231, 0, 0, 2.23308, -54.9234, 2.25655, -173.749, 2.20833, 66.0492, 0.0839389, 40.9782
0, 840.00000, 128.262, -31.8534, 126.925, -150.675, 129.706, 89.1221, 0, 0, 2.23303, -54.9272, 2.25655, -173.749, 2.20818, 66.0483, 0.0842034, 40.9974
0, 900.00000, 128.265, -31.8568, 126.925, -150.675, 129.713, 89.1213, 0, 0, 2.23298, -54.9306, 2.25656, -173.749, 2.20805, 66.0474, 0.0844414, 41.0146
0, 960.00000, 128.268, -31.8598, 126.925, -150.675, 129.72, 89.1205, 0, 0, 2.23293, -54.9336, 2.25656, -173.749, 2.20793, 66.0466, 0.0846557, 41.03
0, 1020.00000, 128.27, -31.8625, 126.925, -150.674, 129.727, 89.1198, 0, 0, 2.23289, -54.9364, 2.25656, -173.748, 2.20782, 66.0459, 0.0848485, 41.0438
0, 1080.00000, 128.272, -31.865, 126.924, -150.674, 129.732, 89.1192, 0, 0, 2.23285, -54.9388, 2.25656, -173.748, 2.20773, 66.0453, 0.085022, 41.0562
0, 1140.00000, 128.274, -31.8672, 126.924, -150.674, 129.738, 89.1186, 0, 0, 2.23282, -54.9411, 2.25656, -173.748, 2.20764, 66.0447, 0.0851782, 41.0673
0, 1200.00000, 128.276, -31.8692, 126.924, -150.674, 129.742, 89.1181, 0, 0, 2.23279, -54.9431, 2.25657, -173.748, 2.20756, 66.0442, 0.0853188, 41.0773
0, 1260.00000, 128.278, -31.871, 126.924, -150.674, 129.746, 89.1176, 0, 0, 2.23276, -54.9449, 2.25657, -173.748, 2.20749, 66.0437, 0.0854453, 41.0863
0, 1320.00000, 128.279, -31.8726, 126.924, -150.674, 129.75, 89.1172, 0, 0, 2.23274, -54.9465, 2.25657, -173.748, 2.20742, 66.0433, 0.0855592, 41.0943
0, 1380.00000, 128.28, -31.8741, 126.924, -150.674, 129.753, 89.1168, 0, 0, 2.23271, -54.9479, 2.25657, -173.748, 2.20737, 66.043, 0.0856617, 41.1015
0, 1440.00000, 128.281, -31.8754, 126.924, -150.674, 129.756, 89.1165, 0, 0, 2.23269, -54.9493, 2.25657, -173.748, 2.20732, 66.0426, 0.0857539, 41.108
0, 1500.00000, 128.282, -31.8766, 126.924, -150.674, 129.759, 89.1162, 0, 0, 2.23268, -54.9504, 2.25657, -173.748, 2.20727, 66.0423, 0.0858369, 41.1139
0, 1560.00000, 128.283, -31.8776, 126.924, -150.674, 129.762, 89.1159, 0, 0, 2.23266, -54.9515, 2.25657, -173.748, 2.20723, 66.042, 0.0859116, 41.1191
0, 1620.00000, 128.284, -31.8786, 126.924, -150.674, 129.764, 89.1157, 0, 0, 2.23265, -54.9525, 2.25657, -173.748, 2.20719, 66.0418, 0.0859789, 41.1238
0, 1680.00000, 128.285, -31.8794, 126.924, -150.674, 129.766, 89.1155, 0, 0, 2.23263, -54.9533, 2.25657, -173.748, 2.20716, 66.0416, 0.0860394, 41.128
0, 1740.00000, 128.286, -31.8802, 126.924, -150.674, 129.768, 89.1153, 0, 0, 2.23262, -54.9541, 2.25657, -173.748, 2.20713, 66.0414, 0.0860939, 41.1319
0, 1800.00000, 128.286, -31.8809, 126.924, -150.674, 129.769, 89.1151, 0, 0, 2.23261, -54.9548, 2.25658, -173.748, 2.2071, 66.0412, 0.0861429, 41.1353
0, 1860.00000, 128.287, -31.8815, 126.924, -150.674, 129.771, 89.1149, 0, 0, 2.2326, -54.9554, 2.25658, -173.748, 2.20707, 66.041, 0.086187, 41.1383
0, 1920.00000, 128.287, -31.8821, 126.924, -150.674, 129.772, 89.1148, 0, 0, 2.23259, -54.956, 2.25658, -173.748, 2.20705, 66.0409, 0.0862267, 41.1411
0, 1980.00000, 128.288, -31.8826, 126.924, -150.674, 129.773, 89.1147, 0, 0, 2.23259, -54.9565, 2.25658, -173.748, 2.20703, 66.0408, 0.0862625, 41.1436
0, 2040.00000, 128.288, -31.883, 126.924, -150.674, 129.774, 89.1146, 0, 0, 2.23258, -54.957, 2.25658, -173.747, 2.20701, 66.0406, 0.0862946, 41.1458
0, 2100.00000, 128.288, -31.8835, 126.924, -150.674, 129.775, 89.1144, 0, 0, 2.23257, -54.9574, 2.25658, -173.747, 2.207, 66.0405, 0.0863236, 41.1479
0, 2160.00000, 128.289, -31.8838, 126.924, -150.674, 129.776, 89.1144, 0, 0, 2.23257, -54.9577, 2.25658, -173.747, 2.20698, 66.0404, 0.0863496, 41.1497
0, 2220.00000, 128.289, -31.8842, 126.924, -150.674, 129.777, 89.1143, 0, 0, 2.23256, -54.9581, 2.25658, -173.747, 2.20697, 66.0404, 0.0863731, 41.1513
0, 2280.00000, 128.289, -31.8845, 126.924, -150.674, 129.777, 89.1142, 0, 0, 2.23256, -54.9584, 2.25658, -173.747, 2.20696, 66.0403, 0.0863942, 41.1528
0, 2340.00000, 128.289, -31.8847, 126.924, -150.674, 129.778, 89.1141, 0, 0, 2.23255, -54.9586, 2.25658, -173.747, 2.20695, 66.0402, 0.0864132, 41.1541
0, 2400.00000, 128.29, -31.885, 126.924, -150.673, 129.779, 89.1141, 0, 0, 2.23255, -54.9589, 2.25658, -173.747, 2.20694, 66.0402, 0.0864303, 41.1553
0, 2460.00000, 128.29, -31.8852, 126.924, -150.673, 129.779, 89.114, 0, 0, 2.23255, -54.9591, 2.25658, -173.747, 2.20693, 66.0401, 0.0864457, 41.1563
0, 2520.00000, 128.29, -31.8854, 126.924, -150.673, 129.779, 89.114, 0, 0, 2.23254, -54.9593, 2.25658, -173.747, 2.20692, 66.04, 0.0864595, 41.1573
0, 2580.00000, 128.29, -31.8856, 126.924, -150.673, 129.78, 89.1139, 0, 0, 2.23254, -54.9595, 2.25658, -173.747, 2.20691, 66.04, 0.086472, 41.1581
0, 2640.00000, 128.29, -31.8857, 126.924, -150.673, 129.78, 89.1139, 0, 0, 2.23254, -54.9596, 2.25658, -173.747, 2.20691, 66.04, 0.0864832, 41.1589
0, 2700.00000, 128.29, -31.8859, 126.924, -150.673, 129.781, 89.1138, 0, 0, 2.23254, -54.9598, 2.25658, -173.747, 2.2069, 66.0399, 0.0864933, 41.1596
0, 2760.00000, 128.291, -31.886, 126.924, -150.673, 129.781, 89.1138, 0, 0, 2.23253, -54.9599, 2.25658, -173.747, 2.2069, 66.0399, 0.0865024, 41.1603
0, 2820.00000, 128.291, -31.8861, 126.924, -150.673, 129.781, 89.1138, 0, 0, 2.23253, -54.96, 2.25658, -173.747, 2.20689, 66.0399, 0.0865105, 41.1608
0, 2880.00000, 128.291, -31.8862, 126.924, -150.673, 129.781, 89.1137, 0, 0, 2.23253, -54.9601, 2.25658, -173.747, 2.20689, 66.0398, 0.0865179, 41.1613
0, 2940.00000, 128.291, -31.8863, 126.924, -150.673, 129.782, 89.1137, 0, 0, 2.23253, -54.9602, 2.25658, -173.747, 2.20688, 66.0398, 0.0865245, 41.1618
0, 3000.00000, 128.291, -31.8864, 126.924, -150.673, 129.782, 89.1137, 0, 0, 2.23253, -54.9603, 2.25658, -173.747, 2.20688, 66.0398, 0.0865305, 41.1622
0, 3060.00000, 128.291, -31.8865, 126.924, -150.673, 129.782, 89.1137, 0, 0, 2.23253, -54.9604, 2.25658, -173.747, 2.20688, 66.0398, 0.0865358, 41.1626
0, 3120.00000, 128.291, -31.8865, 126.924, -150.673, 129.782, 89.1137, 0, 0, 2.23253, -54.9605, 2.25658, -173.747, 2.20688, 66.0397, 0.0865407, 41.1629
0, 3180.00000, 128.291, -31.8866, 126.924, -150.673, 129.782, 89.1136, 0, 0, 2.23252, -54.9605, 2.25658, -173.747, 2.20687, 66.0397, 0.086545, 41.1632
0, 3240.00000, 128.291, -31.8867, 126.924, -150.673, 129.782, 89.1136, 0, 0, 2.23252, -54.9606, 2.25658, -173.747, 2.20687, 66.0397, 0.0865489, 41.1635
0, 3300.00000, 128.291, -31.8867, 126.924, -150.673, 129.783, 89.1136, 0, 0, 2.23252, -54.9606, 2.25658, -173.747, 2.20687, 66.0397, 0.0865525, 41.1637
0, 3360.00000, 128.291, -31.8867, 126.924, -150.673, 129.783, 89.1136, 0, 0, 2.23252, -54.9607, 2.25658, -173.747, 2.20687, 66.0397, 0.0865556, 41.1639
0, 3420.00000, 128.291, -31.8868, 126.924, -150.673, 129.783, 89.1136, 0, 0, 2.23252, -54.9607, 2.25658, -173.747, 2.20687, 66.0397, 0.0865585, 41.1641
0, 3480.00000, 128.291, -31.8868, 126.924, -150.673, 129.783, 89.1136, 0, 0, 2.23252, -54.9607, 2.25658, -173.747, 2.20686, 66.0397, 0.086561, 41.1643
0, 3540.00000, 128.291, -31.8869, 126.924, -150.673, 129.783, 89.1136, 0, 0, 2.23252, -54.9608, 2.25658, -173.747, 2.20686, 66.0397, 0.0865633, 41.1645
1, 0.00000, 128.291, -31.8869, 126.924, -150.673, 129.783, 89.1136, 0, 0, 2.23252, -54.9608, 2.25658, -173.747, 2.20686, 66.0397, 0.0865654, 41.1646
1, 60.00000, 128.291, -31.8869, 126.924, -150.673, 129.783, 89.1136, 0, 0, 2.23252, -54.9608, 2.25658, -173.747, 2.20686, 66.0396, 0.0865673, 41.1647
1, 120.00000, 128.291, -31.8869, 126.924, -150.673, 129.783, 89.1136, 0, 0, 2.23252, -54.9609, 2.25658, -173.747, 2.20686, 66.0396, 0.086569, 41.1649
1, 180.00000, 128.291, -31.887, 126.924, -150.673, 129.783, 89.1136, 0, 0, 2.23252, -54.9609, 2.25658, -173.747, 2.20686, 66.0396, 0.0865705, 41.165
1, 240.00000, 128.291, -31.887, 126.924, -150.673, 129.783, 89.1135, 0, 0, 2.23252, -54.9609, 2.25658, -173.747, 2.20686, 66.0396, 0.0865719, 41.1651
1, 300.00000, 128.291, -31.887, 126.924, -150.673, 129.783, 89.1135, 0, 0, 2.23252, -54.9609, 2.25658, -173.747, 2.20686, 66.0396, 0.0865731, 41.1651
1, 360.00000, 128.291, -31.887, 126.924, -150.673, 129.783, 89.1135, 0, 0, 2.23252, -54.9609, 2.25658, -173.747, 2.20686, 66.0396, 0.0865742, 41.1652
1, 420.00000, 128.291, -31.887, 126.924, -150.673, 129.783, 89.1135, 0, 0, 2.23252, -54.9609, 2.25658, -173.747, 2.20686, 66.0396, 0.0865752, 41.1653
1, 480.00000, 128.291, -31.887, 126.924, -150.673, 129.783, 89.1135, 0, 0, 2.23252, -54.961, 2.25658, -173.747, 2.20686, 66.0396, 0.0865761, 41.1654
1, 540.00000, 128.291, -31.8871, 126.924, -150.673, 129.783, 89.1135, 0, 0, 2.23252, -54.961, 2.25658, -173.747, 2.20686, 66.0396, 0.0865769, 41.1654
1, 600.00000, 128.291, -31.8871, 126.924, -150.673, 129.783, 89.1135, 0, 0, 2.23252, -54.961, 2.25658, -173.747, 2.20685, 66.0396, 0.0865776, 41.1655
1, 660.00000, 128.292, -31.8896, 127.04, -150.508, 130.171, 89.1536, 0, 0, 2.2325, -54.9635, 2.25452, -173.582, 2.20029, 66.0796, 0.0956339, 45.885
1, 720.00000, 128.292, -31.8896, 127.04, -150.508, 130.171, 89.1536, 0, 0, 2.2325, -54.9635, 2.25452, -173.582, 2.20029, 66.0796, 0.0956345, 45.885
1, 780.00000, 128.292, -31.8896, 127.04, -150.508, 130.171, 89.1536, 0, 0, 2.2325, -54.9636, 2.25452, -173.582, 2.20029, 66.0796, 0.095635, 45.885
1, 840.00000, 128.292, -31.8896, 127.04, -150.508, 130.171, 89.1536, 0, 0, 2.2325, -54.9636, 2.25452, -173.582, 2.20029, 66.0796, 0.0956355, 45.885
1, 900.00000, 128.292, -31.8896, 127.04, -150.508, 130.171, 89.1536, 0, 0, 2.2325, -54.9636, 2.25452, -173.582, 2.20029, 66.0796, 0.095636, 45.885
1, 960.00000, 128.292, -31.8897, 127.04, -150.508, 130.171, 89.1535, 0, 0, 2.2325, -54.9636, 2.25452, -173.582, 2.20029, 66.0796, 0.0956363, 45.885
1, 1020.00000, 128.293, -31.8897, 127.04, -150.508, 130.171, 89.1535, 0, 0, 2.2325, -54.9636, 2.25452, -173.582, 2.20029, 66.0796, 0.0956367, 45.885
1, 1080.00000, 128.293, -31.8897, 127.04, -150.508, 130.171, 89.1535, 0, 0, 2.2325, -54.9636, 2.25452, -173.582, 2.20029, 66.0796, 0.095637, 45.885
1, 1140.00000, 128.293, -31.8897, 127.04, -150.508, 130.171, 89.1535, 0, 0, 2.2325, -54.9636, 2.25452, -173.582, 2.20029, 66.0796, 0.0956373, 45.885
1, 1200.00000, 128.293, -31.8897, 127.04, -150.508, 130.171, 89.1535, 0, 0, 2.2325, -54.9636, 2.25452, -173.582, 2.20029, 66.0796, 0.0956375, 45.885
1, 1260.00000, 128.293, -31.8897, 127.04, -150.508, 130.171, 89.1535, 0, 0, 2.2325, -54.9636, 2.25452, -173.582, 2.20029, 66.0796, 0.0956378, 45.885
1, 1320.00000, 128.293, -31.8897, 127.04, -150.508, 130.171, 89.1535, 0, 0, 2.2325, -54.9636, 2.25452, -173.582, 2.20029, 66.0796, 0.095638, 45.885
1, 1380.00000, 128.293, -31.8897, 127.04, -150.508, 130.171, 89.1535, 0, 0, 2.2325, -54.9636, 2.25452, -173.582, 2.20029, 66.0796, 0.0956381, 45.885
1, 1440.00000, 128.293, -31.8897, 127.04, -150.508, 130.171, 89.1535, 0, 0, 2.2325, -54.9636, 2.25452, -173.582, 2.20029, 66.0796, 0.0956383, 45.885
1, 1500.00000, 128.293, -31.8897, 127.04, -150.508, 130.171, 89.1535, 0, 0, 2.2325, -54.9636, 2.25452, -173.582, 2.20029, 66.0796, 0.0956385, 45.885
1, 1560.00000, 128.293, -31.8897, 127.04, -150.508, 130.171, 89.1535, 0, 0, 2.2325, -54.9636, 2.25452, -173.582, 2.20029, 66.0796, 0.0956386, 45.885
1, 1620.00000, 128.293, -31.8897, 127.04, -150.508, 130.171, 89.1535, 0, 0, 2.2325, -54.9636, 2.25452, -173.582, 2.20029, 66.0796, 0.0956387, 45.8851
1, 1680.00000, 128.293, -31.8897, 127.04, -150.508, 130.171, 89.1535, 0, 0, 2.2325, -54.9636, 2.25452, -173.582, 2.20029, 66.0796, 0.0956388, 45.8851
1, 1740.00000, 128.293, -31.8897, 127.04, -150.508, 130.171, 89.1535, 0, 0, 2.2325, -54.9636, 2.25452, -173.582, 2.20029, 66.0796, 0.0956389, 45.8851
1, 1800.00000, 128.293, -31.8897, 127.04, -150.508, 130.171, 89.1535, 0, 0, 2.2325, -54.9636, 2.25452, -173.582, 2.20029, 66.0796, 0.095639, 45.8851
1, 1860.00000, 128.293, -31.8897, 127.04, -150.508, 130.171, 89.1535, 0, 0, 2.2325, -54.9636, 2.25452, -173.582, 2.20029, 66.0796, 0.0956391, 45.8851
1, 1920.00000, 128.293, -31.8897, 127.04, -150.508, 130.171, 89.1535, 0, 0, 2.2325, -54.9636, 2.25452, -173.582, 2.20029, 66.0796, 0.0956392, 45.8851
1, 1980.00000, 128.293, -31.8897, 127.04, -150.508, 130.171, 89.1535, 0, 0, 2.2325, -54.9636, 2.25452, -173.582, 2.20029, 66.0796, 0.0956392, 45.8851
1, 2040.00000, 128.293, -31.8897, 127.04, -150.508, 130.171, 89.1535, 0, 0, 2.2325, -54.9636, 2.25452, -173.582, 2.20029, 66.0796, 0.0956393, 45.8851
1, 2100.00000, 128.293, -31.8897, 127.04, -150.508, 130.171, 89.1535, 0, 0, 2.2325, -54.9636, 2.25452, -173.582, 2.20029, 66.0796, 0.0956393, 45.8851
1, 2160.00000, 128.293, -31.8897, 127.04, -150.508, 130.171, 89.1535, 0, 0, 2.2325, -54.9636, 2.25452, -173.582, 2.20029, 66.0796, 0.0956394, 45.8851
1, 2220.00000, 128.293, -31.8897, 127.04, -150.508, 130.171, 89.1535, 0, 0, 2.2325, -54.9636, 2.25452, -173.582, 2.20029, 66.0796, 0.0956394, 45.8851
1, 2280.00000, 128.293, -31.8897, 127.04, -150.508, 130.171, 89.1535, 0, 0, 2.2325, -54.9636, 2.25452, -173.582, 2.20029, 66.0796, 0.0956395, 45.8851
1, 2340.00000, 128.293, -31.8897, 127.04, -150.508, 130.171, 89.1535, 0, 0, 2.2325, -54.9636, 2.25452, -173.582, 2.20029, 66.0796, 0.0956395, 45.8851
1, 2400.00000, 128.293, -31.8897, 127.04, -150.508, 130.171, 89.1535, 0, 0, 2.2325, -54.9636, 2.25452, -173.582, 2.20029, 66.0796, 0.0956395, 45.8851
1, 2460.00000, 128.293, -31.8897, 127.04, -150.508, 130.171, 89.1535, 0, 0, 2.2325, -54.9636, 2.25452, -173.582, 2.20029, 66.0796, 0.0956396, 45.8851
1, 2520.00000, 128.293, -31.8897, 127.04, -150.508, 130.171, 89.1535, 0, 0, 2.2325, -54.9636, 2.25452, -173.582, 2.20029, 66.0796, 0.0956396, 45.8851
1, 2580.00000, 128.293, -31.8897, 127.04, -150.508, 130.171, 89.1535, 0, 0, 2.2325, -54.9636, 2.25452, -173.582, 2.20029, 66.0796, 0.0956396, 45.8851
1, 2640.00000, 128.293, -31.8897, 127.04, -150.508, 130.171, 89.1535, 0, 0, 2.2325, -54.9636, 2.25452, -173.582, 2.20029, 66.0796, 0.0956396, 45.8851
1, 2700.00000, 128.293, -31.8897, 127.04, -150.508, 130.171, 89.1535, 0, 0, 2.2325, -54.9636, 2.25452, -173.582, 2.20029, 66.0796, 0.0956396, 45.8851
1, 2760.00000, 128.293, -31.8897, 127.04, -150.508, 130.171, 89.1535, 0, 0, 2.2325, -54.9636, 2.25452, -173.582, 2.20029, 66.0796, 0.0956397, 45.8851
1, 2820.00000, 128.293, -31.8897, 127.04, -150.508, 130.171, 89.1535, 0, 0, 2.2325, -54.9636, 2.25452, -173.582, 2.20029, 66.0796, 0.0956397, 45.8851
1, 2880.00000, 128.293, -31.8897, 127.04, -150.508, 130.171, 89.1535, 0, 0, 2.2325, -54.9636, 2.25452, -173.582, 2.20029, 66.0796, 0.0956397, 45.8851
1, 2940.00000, 128.293, -31.8897, 127.04, -150.508, 130.171, 89.1535, 0, 0, 2.2325, -54.9636, 2.25452, -173.582, 2.20029, 66.0796, 0.0956397, 45.8851
1, 3000.00000, 128.293, -31.8897, 127.04, -150.508, 130.171, 89.1535, 0, 0, 2.2325, -54.9636, 2.25452, -173.582, 2.20029, 66.0796, 0.0956397, 45.8851
1, 3060.00000, 128.293, -31.8897, 127.04, -150.508, 130.171, 89.1535, 0, 0, 2.2325, -54.9636, 2.25452, -173.582, 2.20029, 66.0796, 0.0956397, 45.8851
1, 3120.00000, 128.293, -31.8897, 127.04, -150.508, 130.171, 89.1535, 0, 0, 2.2325, -54.9636, 2.25452, -173.582, 2.20029, 66.0796, 0.0956397, 45.8851
1, 3180.00000, 128.293, -31.8897, 127.04, -150.508, 130.171, 89.1535, 0, 0, 2.2325, -54.9636, 2.25452, -173.582, 2.20029, 66.0796, 0.0956397, 45.8851
1, 3240.00000, 128.293, -31.8897, 127.04, -150.508, 130.171, 89.1535, 0, 0, 2.2325, -54.9636, 2.25452, -173.582, 2.20029, 66.0796, 0.0956398, 45.8851
1, 3300.00000, 128.293, -31.8897, 127.04, -150.508, 130.171, 89.1535, 0, 0, 2.2325, -54.9636, 2.25452, -173.582, 2.20029, 66.0796, 0.0956398, 45.8851
1, 3360.00000, 128.293, -31.8897, 127.04, -150.508, 130.171, 89.1535, 0, 0, 2.2325, -54.9636, 2.25452, -173.582, 2.20029, 66.0796, 0.0956398, 45.8851
1, 3420.00000, 128.293, -31.8897, 127.04, -150.508, 130.171, 89.1535, 0, 0, 2.2325, -54.9636, 2.25452, -173.582, 2.20029, 66.0796, 0.0956398, 45.8851
1, 3480.00000, 128.293, -31.8897, 127.04, -150.508, 130.171, 89.1535, 0, 0, 2.2325, -54.9636, 2.25452, -173.582, 2.20029, 66.0796, 0.0956398, 45.8851
1, 3540.00000, 128.293, -31.8897, 127.04, -150.508, 130.171, 89.1535, 0, 0, 2.2325, -54.9636, 2.25452, -173.582, 2.20029, 66.0796, 0.0956398, 45.8851
2, 0.00000, 128.293, -31.8897, 127.04, -150.508, 130.171, 89.1535, 0, 0, 2.2325, -54.9636, 2.25452, -173.582, 2.20029, 66.0796, 0.0956398, 45.8851
2, 60.00000, 128.293, -31.8897, 127.04, -150.508, 130.171, 89.1535, 0, 0, 2.2325, -54.9636, 2.25452, -173.582, 2.20029, 66.0796, 0.0956398, 45.8851
2, 120.00000, 128.289, -31.8908, 127.036, -150.509, 130.167, 89.1525, 0, 0, 2.23874, -54.9647, 2.26082, -173.583, 2.20644, 66.0785, 0.0959079, 45.8851
2, 180.00000, 128.285, -31.8919, 127.032, -150.51, 130.163, 89.1514, 0, 0, 2.24506, -54.9658, 2.2672, -173.584, 2.21266, 66.0774, 0.0961793, 45.8851
2, 240.00000, 128.281, -31.893, 127.029, -150.511, 130.16, 89.1503, 0, 0, 2.25131, -54.9669, 2.2735, -173.585, 2.21881, 66.0764, 0.0964475, 45.8852
2, 300.00000, 128.277, -31.8941, 127.025, -150.512, 130.156, 89.1492, 0, 0, 2.25755, -54.968, 2.27981, -173.586, 2.22496, 66.0753, 0.0967156, 45.8852
2, 360.00000, 128.273, -31.8952, 127.021, -150.513, 130.152, 89.1481, 0, 0, 2.26387, -54.9691, 2.28619, -173.587, 2.23119, 66.0742, 0.0969871, 45.8852
2, 420.00000, 128.269, -31.8962, 127.018, -150.514, 130.149, 89.147, 0, 0, 2.27012, -54.9702, 2.29249, -173.588, 2.23734, 66.0731, 0.0972553, 45.8853
2, 480.00000, 128.266, -31.8973, 127.014, -150.516, 130.145, 89.1459, 0, 0, 2.27636, -54.9713, 2.2988, -173.59, 2.24349, 66.072, 0.0975235, 45.8853
2, 540.00000, 128.262, -31.8984, 127.01, -150.517, 130.141, 89.1448, 0, 0, 2.28268, -54.9724, 2.30518, -173.591, 2.24972, 66.0709, 0.097795, 45.8853
2, 600.00000, 128.258, -31.8995, 127.007, -150.518, 130.137, 89.1438, 0, 0, 2.28893, -54.9734, 2.31148, -173.592, 2.25587, 66.0698, 0.0980633, 45.8854
2, 660.00000, 128.254, -31.9006, 127.003, -150.519, 130.134, 89.1427, 0, 0, 2.29518, -54.9745, 2.31779, -173.593, 2.26202, 66.0688, 0.0983316, 45.8854
2, 720.00000, 128.25, -31.9017, 126.999, -150.52, 130.13, 89.1416, 0, 0, 2.3015, -54.9756, 2.32417, -173.594, 2.26825, 66.0677, 0.0986032, 45.8854
