hour,t(sec),V1,VAngle1,V2,VAngle2,V3,VAngle3,V4,VAngle4,I1,IAngle1,I2,IAngle2,I3,IAngle3,I4,IAngle4
0, 60.00000, 123.626, -30.9345, 123.646, -150.244, 125.004, 89.6255, 0, 0, 2.46183, -54.0083, 2.46142, -173.318, 2.4347, 66.5515, 0.0533183, 56.8797
0, 120.00000, 123.626, -30.9345, 123.646, -150.244, 125.004, 89.6255, 0, 0, 2.46185, -54.0084, 2.46144, -173.318, 2.4347, 66.5516, 0.0533381, 56.8811
0, 180.00000, 123.626, -30.9345, 123.646, -150.244, 125.004, 89.6255, 0, 0, 2.46185, -54.0084, 2.46144, -173.318, 2.4347, 66.5516, 0.0533382, 56.8812
0, 240.00000, 123.626, -30.9345, 123.646, -150.244, 125.004, 89.6255, 0, 0, 2.46185, -54.0084, 2.46144, -173.318, 2.4347, 66.5516, 0.0533382, 56.8812
0, 300.00000, 123.626, -30.9345, 123.646, -150.244, 125.004, 89.6255, 0, 0, 2.46185, -54.0084, 2.46144, -173.318, 2.4347, 66.5516, 0.0533382, 56.8812
0, 360.00000, 123.626, -30.9345, 123.646, -150.244, 125.004, 89.6255, 0, 0, 2.46185, -54.0084, 2.46144, -173.318, 2.4347, 66.5516, 0.0533382, 56.8812
0, 420.00000, 123.626, -30.9345, 123.646, -150.244, 125.004, 89.6255, 0, 0, 2.46185, -54.0084, 2.46144, -173.318, 2.4347, 66.5516, 0.0533382, 56.8812
0, 480.00000, 123.626, -30.9345, 123.646, -150.244, 125.004, 89.6255, 0, 0, 2.46185, -54.0084, 2.46144, -173.318, 2.4347, 66.5516, 0.0533382, 56.8812
0, 540.00000, 123.626, -30.9345, 123.646, -150.244, 125.004, 89.6255, 0, 0, 2.46185, -54.0084, 2.46144, -173.318, 2.4347, 66.5516, 0.0533382, 56.8812
0, 600.00000, 123.626, -30.9345, 123.646, -150.244, 125.004, 89.6255, 0, 0, 2.46185, -54.0084, 2.46144, -173.318, 2.4347, 66.5516, 0.0533382, 56.8812
0, 660.00000, 123.626, -30.9345, 123.646, -150.244, 125.004, 89.6255, 0, 0, 2.46185, -54.0084, 2.46144, -173.318, 2.4347, 66.5516, 0.0533382, 56.8812
0, 720.00000, 123.626, -30.9345, 123.646, -150.244, 125.004, 89.6255, 0, 0, 2.46185, -54.0084, 2.46144, -173.318, 2.4347, 66.5516, 0.0533382, 56.8812
0, 780.00000, 123.626, -30.9345, 123.646, -150.244, 125.004, 89.6255, 0, 0, 2.46185, -54.0084, 2.46144, -173.318, 2.4347, 66.5516, 0.0533382, 56.8812
0, 840.00000, 123.626, -30.9345, 123.646, -150.244, 125.004, 89.6255, 0, 0, 2.46185, -54.0084, 2.46144, -173.318, 2.4347, 66.5516, 0.0533382, 56.8812
0, 900.00000, 123.626, -30.9345, 123.646, -150.244, 125.004, 89.6255, 0, 0, 2.46185, -54.0084, 2.46144, -173.318, 2.4347, 66.5516, 0.0533382, 56.8812
0, 960.00000, 123.626, -30.9345, 123.646, -150.244, 125.004, 89.6255, 0, 0, 2.46185, -54.0084, 2.46144, -173.318, 2.4347, 66.5516, 0.0533382, 56.8812
0, 1020.00000, 123.626, -30.9345, 123.646, -150.244, 125.004, 89.6255, 0, 0, 2.46185, -54.0084, 2.46144, -173.318, 2.4347, 66.5516, 0.0533382, 56.8812
0, 1080.00000, 123.626, -30.9345, 123.646, -150.244, 125.004, 89.6255, 0, 0, 2.46185, -54.0084, 2.46144, -173.318, 2.4347, 66.5516, 0.0533382, 56.8812
0, 1140.00000, 123.626, -30.9345, 123.646, -150.244, 125.004, 89.6255, 0, 0, 2.46185, -54.0084, 2.46144, -173.318, 2.4347, 66.5516, 0.0533382, 56.8812
0, 1200.00000, 123.626, -30.9345, 123.646, -150.244, 125.004, 89.6255, 0, 0, 2.46185, -54.0084, 2.46144, -173.318, 2.4347, 66.5516, 0.0533382, 56.8812
0, 1260.00000, 123.626, -30.9345, 123.646, -150.244, 125.004, 89.6255, 0, 0, 2.46185, -54.0084, 2.46144, -173.318, 2.4347, 66.5516, 0.0533382, 56.8812
0, 1320.00000, 123.626, -30.9345, 123.646, -150.244, 125.004, 89.6255, 0, 0, 2.46185, -54.0084, 2.46144, -173.318, 2.4347, 66.5516, 0.0533382, 56.8812
0, 1380.00000, 123.626, -30.9345, 123.646, -150.244, 125.004, 89.6255, 0, 0, 2.46185, -54.0084, 2.46144, -173.318, 2.4347, 66.5516, 0.0533382, 56.8812
0, 1440.00000, 123.626, -30.9345, 123.646, -150.244, 125.004, 89.6255, 0, 0, 2.46185, -54.0084, 2.46144, -173.318, 2.4347, 66.5516, 0.0533382, 56.8812
0, 1500.00000, 123.626, -30.9345, 123.646, -150.244, 125.004, 89.6255, 0, 0, 2.46185, -54.0084, 2.46144, -173.318, 2.4347, 66.5516, 0.0533382, 56.8812
0, 1560.00000, 123.626, -30.9345, 123.646, -150.244, 125.004, 89.6255, 0, 0, 2.46185, -54.0084, 2.46144, -173.318, 2.4347, 66.5516, 0.0533382, 56.8812
0, 1620.00000, 123.626, -30.9345, 123.646, -150.244, 125.004, 89.6255, 0, 0, 2.46185, -54.0084, 2.46144, -173.318, 2.4347, 66.5516, 0.0533382, 56.8812
0, 1680.00000, 123.626, -30.9345, 123.646, -150.244, 125.004, 89.6255, 0, 0, 2.46185, -54.0084, 2.46144, -173.318, 2.4347, 66.5516, 0.0533382, 56.8812
0, 1740.00000, 123.626, -30.9345, 123.646, -150.244, 125.004, 89.6255, 0, 0, 2.46185, -54.0084, 2.46144, -173.318, 2.4347, 66.5516, 0.0533382, 56.8812
0, 1800.00000, 123.626, -30.9345, 123.646, -150.244, 125.004, 89.6255, 0, 0, 2.46185, -54.0084, 2.46144, -173.318, 2.4347, 66.5516, 0.0533382, 56.8812
0, 1860.00000, 123.626, -30.9345, 123.646, -150.244, 125.004, 89.6255, 0, 0, 2.46185, -54.0084, 2.46144, -173.318, 2.4347, 66.5516, 0.0533382, 56.8812
0, 1920.00000, 123.626, -30.9345, 123.646, -150.244, 125.004, 89.6255, 0, 0, 2.46185, -54.0084, 2.46144, -173.318, 2.4347, 66.5516, 0.0533382, 56.8812
0, 1980.00000, 123.626, -30.9345, 123.646, -150.244, 125.004, 89.6255, 0, 0, 2.46185, -54.0084, 2.46144, -173.318, 2.4347, 66.5516, 0.0533382, 56.8812
0, 2040.00000, 123.626, -30.9345, 123.646, -150.244, 125.004, 89.6255, 0, 0, 2.46185, -54.0084, 2.46144, -173.318, 2.4347, 66.5516, 0.0533382, 56.8812
0, 2100.00000, 123.626, -30.9345, 123.646, -150.244, 125.004, 89.6255, 0, 0, 2.46185, -54.0084, 2.46144, -173.318, 2.4347, 66.5516, 0.0533382, 56.8812
0, 2160.00000, 123.626, -30.9345, 123.646, -150.244, 125.004, 89.6255, 0, 0, 2.46185, -54.0084, 2.46144, -173.318, 2.4347, 66.5516, 0.0533382, 56.8812
0, 2220.00000, 123.626, -30.9345, 123.646, -150.244, 125.004, 89.6255, 0, 0, 2.46185, -54.0084, 2.46144, -173.318, 2.4347, 66.5516, 0.0533382, 56.8812
0, 2280.00000, 123.626, -30.9345, 123.646, -150.244, 125.004, 89.6255, 0, 0, 2.46185, -54.0084, 2.46144, -173.318, 2.4347, 66.5516, 0.0533382, 56.8812
0, 2340.00000, 123.626, -30.9345, 123.646, -150.244, 125.004, 89.6255, 0, 0, 2.46185, -54.0084, 2.46144, -173.318, 2.4347, 66.5516, 0.0533382, 56.8812
0, 2400.00000, 123.626, -30.9345, 123.646, -150.244, 125.004, 89.6255, 0, 0, 2.46185, -54.0084, 2.46144, -173.318, 2.4347, 66.5516, 0.0533382, 56.8812
0, 2460.00000, 123.626, -30.9345, 123.646, -150.244, 125.004, 89.6255, 0, 0, 2.46185, -54.0084, 2.46144, -173.318, 2.4347, 66.5516, 0.0533382, 56.8812
0, 2520.00000, 123.626, -30.9345, 123.646, -150.244, 125.004, 89.6255, 0, 0, 2.46185, -54.0084, 2.46144, -173.318, 2.4347, 66.5516, 0.0533382, 56.8812
0, 2580.00000, 123.626, -30.9345, 123.646, -150.244, 125.004, 89.6255, 0, 0, 2.46185, -54.0084, 2.46144, -173.318, 2.4347, 66.5516, 0.0533382, 56.8812
0, 2640.00000, 123.626, -30.9345, 123.646, -150.244, 125.004, 89.6255, 0, 0, 2.46185, -54.0084, 2.46144, -173.318, 2.4347, 66.5516, 0.0533382, 56.8812
0, 2700.00000, 123.626, -30.9345, 123.646, -150.244, 125.004, 89.6255, 0, 0, 2.46185, -54.0084, 2.46144, -173.318, 2.4347, 66.5516, 0.0533382, 56.8812
0, 2760.00000, 123.626, -30.9345, 123.646, -150.244, 125.004, 89.6255, 0, 0, 2.46185, -54.0084, 2.46144, -173.318, 2.4347, 66.5516, 0.0533382, 56.8812
0, 2820.00000, 123.626, -30.9345, 123.646, -150.244, 125.004, 89.6255, 0, 0, 2.46185, -54.0084, 2.46144, -173.318, 2.4347, 66.5516, 0.0533382, 56.8812
0, 2880.00000, 123.626, -30.9345, 123.646, -150.244, 125.004, 89.6255, 0, 0, 2.46185, -54.0084, 2.46144, -173.318, 2.4347, 66.5516, 0.0533382, 56.8812
0, 2940.00000, 123.626, -30.9345, 123.646, -150.244, 125.004, 89.6255, 0, 0, 2.46185, -54.0084, 2.46144, -173.318, 2.4347, 66.5516, 0.0533382, 56.8812
0, 3000.00000, 123.626, -30.9345, 123.646, -150.244, 125.004, 89.6255, 0, 0, 2.46185, -54.0084, 2.46144, -173.318, 2.4347, 66.5516, 0.0533382, 56.8812
0, 3060.00000, 123.626, -30.9345, 123.646, -150.244, 125.004, 89.6255, 0, 0, 2.46185, -54.0084, 2.46144, -173.318, 2.4347, 66.5516, 0.0533382, 56.8812
0, 3120.00000, 123.626, -30.9345, 123.646, -150.244, 125.004, 89.6255, 0, 0, 2.46185, -54.0084, 2.46144, -173.318, 2.4347, 66.5516, 0.0533382, 56.8812
0, 3180.00000, 123.626, -30.9345, 123.646, -150.244, 125.004, 89.6255, 0, 0, 2.46185, -54.0084, 2.46144, -173.318, 2.4347, 66.5516, 0.0533382, 56.8812
0, 3240.00000, 123.626, -30.9345, 123.646, -150.244, 125.004, 89.6255, 0, 0, 2.46185, -54.0084, 2.46144, -173.318, 2.4347, 66.5516, 0.0533382, 56.8812
0, 3300.00000, 123.626, -30.9345, 123.646, -150.244, 125.004, 89.6255, 0, 0, 2.46185, -54.0084, 2.46144, -173.318, 2.4347, 66.5516, 0.0533382, 56.8812
0, 3360.00000, 123.626, -30.9345, 123.646, -150.244, 125.004, 89.6255, 0, 0, 2.46185, -54.0084, 2.46144, -173.318, 2.4347, 66.5516, 0.0533382, 56.8812
0, 3420.00000, 123.626, -30.9345, 123.646, -150.244, 125.004, 89.6255, 0, 0, 2.46185, -54.0084, 2.46144, -173.318, 2.4347, 66.5516, 0.0533382, 56.8812
0, 3480.00000, 123.626, -30.9345, 123.646, -150.244, 125.004, 89.6255, 0, 0, 2.46185, -54.0084, 2.46144, -173.318, 2.4347, 66.5516, 0.0533382, 56.8812
0, 3540.00000, 123.626, -30.9345, 123.646, -150.244, 125.004, 89.6255, 0, 0, 2.46185, -54.0084, 2.46144, -173.318, 2.4347, 66.5516, 0.0533382, 56.8812
1, 0.00000, 123.626, -30.9345, 123.646, -150.244, 125.004, 89.6255, 0, 0, 2.46185, -54.0084, 2.46144, -173.318, 2.4347, 66.5516, 0.0533382, 56.8812
1, 60.00000, 123.626, -30.9345, 123.646, -150.244, 125.004, 89.6255, 0, 0, 2.46185, -54.0084, 2.46144, -173.318, 2.4347, 66.5516, 0.0533382, 56.8812
1, 120.00000, 123.626, -30.9345, 123.646, -150.244, 125.004, 89.6255, 0, 0, 2.46185, -54.0084, 2.46144, -173.318, 2.4347, 66.5516, 0.0533382, 56.8812
1, 180.00000, 123.626, -30.9345, 123.646, -150.244, 125.004, 89.6255, 0, 0, 2.46185, -54.0084, 2.46144, -173.318, 2.4347, 66.5516, 0.0533382, 56.8812
1, 240.00000, 123.626, -30.9345, 123.646, -150.244, 125.004, 89.6255, 0, 0, 2.46185, -54.0084, 2.46144, -173.318, 2.4347, 66.5516, 0.0533382, 56.8812
1, 300.00000, 123.626, -30.9345, 123.646, -150.244, 125.004, 89.6255, 0, 0, 2.46185, -54.0084, 2.46144, -173.318, 2.4347, 66.5516, 0.0533382, 56.8812
1, 360.00000, 123.626, -30.9345, 123.646, -150.244, 125.004, 89.6255, 0, 0, 2.46185, -54.0084, 2.46144, -173.318, 2.4347, 66.5516, 0.0533382, 56.8812
1, 420.00000, 123.626, -30.9345, 123.646, -150.244, 125.004, 89.6255, 0, 0, 2.46185, -54.0084, 2.46144, -173.318, 2.4347, 66.5516, 0.0533382, 56.8812
1, 480.00000, 123.626, -30.9345, 123.646, -150.244, 125.004, 89.6255, 0, 0, 2.46185, -54.0084, 2.46144, -173.318, 2.4347, 66.5516, 0.0533382, 56.8812
1, 540.00000, 123.626, -30.9345, 123.646, -150.244, 125.004, 89.6255, 0, 0, 2.46185, -54.0084, 2.46144, -173.318, 2.4347, 66.5516, 0.0533382, 56.8812
1, 600.00000, 123.626, -30.9345, 123.646, -150.244, 125.004, 89.6255, 0, 0, 2.46185, -54.0084, 2.46144, -173.318, 2.4347, 66.5516, 0.0533382, 56.8812
1, 660.00000, 123.626, -30.9345, 123.646, -150.244, 125.004, 89.6255, 0, 0, 2.46185, -54.0084, 2.46144, -173.318, 2.4347, 66.5516, 0.0533382, 56.8812
1, 720.00000, 123.626, -30.9345, 123.646, -150.244, 125.004, 89.6255, 0, 0, 2.46185, -54.0084, 2.46144, -173.318, 2.4347, 66.5516, 0.0533382, 56.8812
1, 780.00000, 123.626, -30.9345, 123.646, -150.244, 125.004, 89.6255, 0, 0, 2.46185, -54.0084, 2.46144, -173.318, 2.4347, 66.5516, 0.0533382, 56.8812
1, 840.00000, 123.626, -30.9345, 123.646, -150.244, 125.004, 89.6255, 0, 0, 2.46185, -54.0084, 2.46144, -173.318, 2.4347, 66.5516, 0.0533382, 56.8812
1, 900.00000, 123.626, -30.9345, 123.646, -150.244, 125.004, 89.6255, 0, 0, 2.46185, -54.0084, 2.46144, -173.318, 2.4347, 66.5516, 0.0533382, 56.8812
1, 960.00000, 123.626, -30.9345, 123.646, -150.244, 125.004, 89.6255, 0, 0, 2.46185, -54.0084, 2.46144, -173.318, 2.4347, 66.5516, 0.0533382, 56.8812
1, 1020.00000, 123.626, -30.9345, 123.646, -150.244, 125.004, 89.6255, 0, 0, 2.46185, -54.0084, 2.46144, -173.318, 2.4347, 66.5516, 0.0533382, 56.8812
1, 1080.00000, 123.626, -30.9345, 123.646, -150.244, 125.004, 89.6255, 0, 0, 2.46185, -54.0084, 2.46144, -173.318, 2.4347, 66.5516, 0.0533382, 56.8812
1, 1140.00000, 123.626, -30.9345, 123.646, -150.244, 125.004, 89.6255, 0, 0, 2.46185, -54.0084, 2.46144, -173.318, 2.4347, 66.5516, 0.0533382, 56.8812
1, 1200.00000, 123.626, -30.9345, 123.646, -150.244, 125.004, 89.6255, 0, 0, 2.46185, -54.0084, 2.46144, -173.318, 2.4347, 66.5516, 0.0533382, 56.8812
1, 1260.00000, 123.626, -30.9345, 123.646, -150.244, 125.004, 89.6255, 0, 0, 2.46185, -54.0084, 2.46144, -173.318, 2.4347, 66.5516, 0.0533382, 56.8812
1, 1320.00000, 123.626, -30.9345, 123.646, -150.244, 125.004, 89.6255, 0, 0, 2.46185, -54.0084, 2.46144, -173.318, 2.4347, 66.5516, 0.0533382, 56.8812
1, 1380.00000, 123.626, -30.9345, 123.646, -150.244, 125.004, 89.6255, 0, 0, 2.46185, -54.0084, 2.46144, -173.318, 2.4347, 66.5516, 0.0533382, 56.8812
1, 1440.00000, 123.626, -30.9345, 123.646, -150.244, 125.004, 89.6255, 0, 0, 2.46185, -54.0084, 2.46144, -173.318, 2.4347, 66.5516, 0.0533382, 56.8812
1, 1500.00000, 123.626, -30.9345, 123.646, -150.244, 125.004, 89.6255, 0, 0, 2.46185, -54.0084, 2.46144, -173.318, 2.4347, 66.5516, 0.0533382, 56.8812
1, 1560.00000, 123.626, -30.9345, 123.646, -150.244, 125.004, 89.6255, 0, 0, 2.46185, -54.0084, 2.46144, -173.318, 2.4347, 66.5516, 0.0533382, 56.8812
1, 1620.00000, 123.626, -30.9345, 123.646, -150.244, 125.004, 89.6255, 0, 0, 2.46185, -54.0084, 2.46144, -173.318, 2.4347, 66.5516, 0.0533382, 56.8812
1, 1680.00000, 123.626, -30.9345, 123.646, -150.244, 125.004, 89.6255, 0, 0, 2.46185, -54.0084, 2.46144, -173.318, 2.4347, 66.5516, 0.0533382, 56.8812
1, 1740.00000, 123.626, -30.9345, 123.646, -150.244, 125.004, 89.6255, 0, 0, 2.46185, -54.0084, 2.46144, -173.318, 2.4347, 66.5516, 0.0533382, 56.8812
1, 1800.00000, 123.626, -30.9345, 123.646, -150.244, 125.004, 89.6255, 0, 0, 2.46185, -54.0084, 2.46144, -173.318, 2.4347, 66.5516, 0.0533382, 56.8812
1, 1860.00000, 123.626, -30.9345, 123.646, -150.244, 125.004, 89.6255, 0, 0, 2.46185, -54.0084, 2.46144, -173.318, 2.4347, 66.5516, 0.0533382, 56.8812
1, 1920.00000, 123.626, -30.9345, 123.646, -150.244, 125.004, 89.6255, 0, 0, 2.46185, -54.0084, 2.46144, -173.318, 2.4347, 66.5516, 0.0533382, 56.8812
1, 1980.00000, 123.626, -30.9345, 123.646, -150.244, 125.004, 89.6255, 0, 0, 2.46185, -54.0084, 2.46144, -173.318, 2.4347, 66.5516, 0.0533382, 56.8812
1, 2040.00000, 123.626, -30.9345, 123.646, -150.244, 125.004, 89.6255, 0, 0, 2.46185, -54.0084, 2.46144, -173.318, 2.4347, 66.5516, 0.0533382, 56.8812
1, 2100.00000, 123.626, -30.9345, 123.646, -150.244, 125.004, 89.6255, 0, 0, 2.46185, -54.0084, 2.46144, -173.318, 2.4347, 66.5516, 0.0533382, 56.8812
1, 2160.00000, 123.626, -30.9345, 123.646, -150.244, 125.004, 89.6255, 0, 0, 2.46185, -54.0084, 2.46144, -173.318, 2.4347, 66.5516, 0.0533382, 56.8812
1, 2220.00000, 123.626, -30.9345, 123.646, -150.244, 125.004, 89.6255, 0, 0, 2.46185, -54.0084, 2.46144, -173.318, 2.4347, 66.5516, 0.0533382, 56.8812
1, 2280.00000, 123.626, -30.9345, 123.646, -150.244, 125.004, 89.6255, 0, 0, 2.46185, -54.0084, 2.46144, -173.318, 2.4347, 66.5516, 0.0533382, 56.8812
1, 2340.00000, 123.626, -30.9345, 123.646, -150.244, 125.004, 89.6255, 0, 0, 2.46185, -54.0084, 2.46144, -173.318, 2.4347, 66.5516, 0.0533382, 56.8812
1, 2400.00000, 123.626, -30.9345, 123.646, -150.244, 125.004, 89.6255, 0, 0, 2.46185, -54.0084, 2.46144, -173.318, 2.4347, 66.5516, 0.0533382, 56.8812
1, 2460.00000, 123.626, -30.9345, 123.646, -150.244, 125.004, 89.6255, 0, 0, 2.46185, -54.0084, 2.46144, -173.318, 2.4347, 66.5516, 0.0533382, 56.8812
1, 2520.00000, 123.626, -30.9345, 123.646, -150.244, 125.004, 89.6255, 0, 0, 2.46185, -54.0084, 2.46144, -173.318, 2.4347, 66.5516, 0.0533382, 56.8812
1, 2580.00000, 123.626, -30.9345, 123.646, -150.244, 125.004, 89.6255, 0, 0, 2.46185, -54.0084, 2.46144, -173.318, 2.4347, 66.5516, 0.0533382, 56.8812
1, 2640.00000, 123.626, -30.9345, 123.646, -150.244, 125.004, 89.6255, 0, 0, 2.46185, -54.0084, 2.46144, -173.318, 2.4347, 66.5516, 0.0533382, 56.8812
1, 2700.00000, 123.626, -30.9345, 123.646, -150.244, 125.004, 89.6255, 0, 0, 2.46185, -54.0084, 2.46144, -173.318, 2.4347, 66.5516, 0.0533382, 56.8812
1, 2760.00000, 124.581, -30.557, 124.843, -150.428, 124.944, 89.6374, 0, 0, 2.44306, -53.6311, 2.43793, -173.503, 2.43584, 66.5637, 0.00944902, 59.6301
1, 2820.00000, 124.581, -30.557, 124.843, -150.428, 124.944, 89.6374, 0, 0, 2.44297, -53.6309, 2.43785, -173.502, 2.43587, 66.5635, 0.00935741, 59.706
1, 2880.00000, 124.581, -30.557, 124.843, -150.428, 124.944, 89.6374, 0, 0, 2.44297, -53.6309, 2.43785, -173.502, 2.43587, 66.5635, 0.00935709, 59.7059
1, 2940.00000, 124.581, -30.557, 124.843, -150.428, 124.944, 89.6374, 0, 0, 2.44297, -53.6309, 2.43785, -173.502, 2.43587, 66.5635, 0.00935709, 59.7059
1, 3000.00000, 124.581, -30.557, 124.843, -150.428, 124.944, 89.6374, 0, 0, 2.44297, -53.6309, 2.43785, -173.502, 2.43587, 66.5635, 0.00935709, 59.7059
1, 3060.00000, 124.581, -30.557, 124.843, -150.428, 124.944, 89.6374, 0, 0, 2.44297, -53.6309, 2.43785, -173.502, 2.43587, 66.5635, 0.00935709, 59.7059
1, 3120.00000, 124.581, -30.557, 124.843, -150.428, 124.944, 89.6374, 0, 0, 2.44297, -53.6309, 2.43785, -173.502, 2.43587, 66.5635, 0.00935709, 59.7059
1, 3180.00000, 124.581, -30.557, 124.843, -150.428, 124.944, 89.6374, 0, 0, 2.44297, -53.6309, 2.43785, -173.502, 2.43587, 66.5635, 0.00935709, 59.7059
1, 3240.00000, 124.581, -30.557, 124.843, -150.428, 124.944, 89.6374, 0, 0, 2.44297, -53.6309, 2.43785, -173.502, 2.43587, 66.5635, 0.00935709, 59.7059
1, 3300.00000, 124.581, -30.557, 124.843, -150.428, 124.944, 89.6374, 0, 0, 2.44297, -53.6309, 2.43785, -173.502, 2.43587, 66.5635, 0.00935709, 59.7059
1, 3360.00000, 124.581, -30.557, 124.843, -150.428, 124.944, 89.6374, 0, 0, 2.44297, -53.6309, 2.43785, -173.502, 2.43587, 66.5635, 0.00935709, 59.7059
1, 3420.00000, 124.581, -30.557, 124.843, -150.428, 124.944, 89.6374, 0, 0, 2.44297, -53.6309, 2.43785, -173.502, 2.43587, 66.5635, 0.00935709, 59.7059
1, 3480.00000, 124.581, -30.557, 124.843, -150.428, 124.944, 89.6374, 0, 0, 2.44297, -53.6309, 2.43785, -173.502, 2.43587, 66.5635, 0.00935709, 59.7059
1, 3540.00000, 124.581, -30.557, 124.843, -150.428, 124.944, 89.6374, 0, 0, 2.44297, -53.6309, 2.43785, -173.502, 2.43587, 66.5635, 0.00935709, 59.7059
2, 0.00000, 124.581, -30.557, 124.843, -150.428, 124.944, 89.6374, 0, 0, 2.44297, -53.6309, 2.43785, -173.502, 2.43587, 66.5635, 0.00935709, 59.7059
2, 60.00000, 124.581, -30.557, 124.843, -150.428, 124.944, 89.6374, 0, 0, 2.44297, -53.6309, 2.43785, -173.502, 2.43587, 66.5635, 0.00935709, 59.7059
2, 120.00000, 124.572, -30.558, 124.835, -150.429, 124.936, 89.6365, 0, 0, 2.44989, -53.6318, 2.44474, -173.503, 2.44275, 66.5626, 0.00938883, 59.7916
2, 180.00000, 124.563, -30.559, 124.827, -150.43, 124.928, 89.6357, 0, 0, 2.45691, -53.6329, 2.45172, -173.504, 2.44973, 66.5618, 0.00942439, 59.878
2, 240.00000, 124.555, -30.56, 124.819, -150.431, 124.92, 89.6349, 0, 0, 2.46384, -53.6339, 2.45861, -173.505, 2.45663, 66.561, 0.00945972, 59.9632
2, 300.00000, 124.546, -30.561, 124.812, -150.432, 124.912, 89.634, 0, 0, 2.47077, -53.6349, 2.46551, -173.506, 2.46353, 66.5601, 0.00949507, 60.0483
2, 360.00000, 124.537, -30.5621, 124.804, -150.433, 124.904, 89.6332, 0, 0, 2.47779, -53.6359, 2.4725, -173.507, 2.47051, 66.5593, 0.00953089, 60.1343
2, 420.00000, 124.528, -30.5631, 124.796, -150.434, 124.896, 89.6323, 0, 0, 2.48473, -53.6369, 2.4794, -173.507, 2.47741, 66.5584, 0.00956644, 60.2192
2, 480.00000, 124.52, -30.5641, 124.788, -150.434, 124.888, 89.6315, 0, 0, 2.49166, -53.6379, 2.4863, -173.508, 2.48431, 66.5576, 0.00960203, 60.3039
2, 540.00000, 124.511, -30.5651, 124.781, -150.435, 124.88, 89.6307, 0, 0, 2.49868, -53.6389, 2.49328, -173.509, 2.4913, 66.5568, 0.00963808, 60.3895
2, 600.00000, 124.502, -30.5661, 124.773, -150.436, 124.872, 89.6298, 0, 0, 2.50562, -53.6399, 2.50019, -173.51, 2.4982, 66.5559, 0.00967387, 60.474
2, 660.00000, 124.493, -30.5671, 124.765, -150.437, 124.864, 89.629, 0, 0, 2.51256, -53.641, 2.50709, -173.511, 2.50511, 66.5551, 0.00970969, 60.5583
2, 720.00000, 124.484, -30.5681, 124.757, -150.438, 124.856, 89.6281, 0, 0, 2.51959, -53.642, 2.51408, -173.512, 2.51209, 66.5542, 0.00974598, 60.6436
