hour,t(sec),V1,VAngle1,V2,VAngle2,V3,VAngle3,V4,VAngle4,I1,IAngle1,I2,IAngle2,I3,IAngle3,I4,IAngle4
0, 60.00000, 125.666, -30.5745, 125.981, -150.724, 125.461, 89.4115, 0, 0, 2.35783, -53.6479, 2.35192, -173.797, 2.36162, 66.3386, 0.0123234, -125.977
0, 120.00000, 125.666, -30.5746, 125.981, -150.724, 125.461, 89.4115, 0, 0, 2.35788, -53.6485, 2.35198, -173.798, 2.36173, 66.3375, 0.0123952, -125.875
0, 180.00000, 125.666, -30.5746, 125.981, -150.724, 125.461, 89.4115, 0, 0, 2.35788, -53.6485, 2.35198, -173.798, 2.36173, 66.3375, 0.0123955, -125.875
0, 240.00000, 125.666, -30.5746, 125.981, -150.724, 125.461, 89.4115, 0, 0, 2.35788, -53.6485, 2.35198, -173.798, 2.36173, 66.3375, 0.0123955, -125.875
0, 300.00000, 125.666, -30.5746, 125.981, -150.724, 125.461, 89.4115, 0, 0, 2.35788, -53.6485, 2.35198, -173.798, 2.36173, 66.3375, 0.0123955, -125.875
0, 360.00000, 125.666, -30.5746, 125.981, -150.724, 125.461, 89.4115, 0, 0, 2.35788, -53.6485, 2.35198, -173.798, 2.36173, 66.3375, 0.0123955, -125.875
0, 420.00000, 125.666, -30.5746, 125.981, -150.724, 125.461, 89.4115, 0, 0, 2.35788, -53.6485, 2.35198, -173.798, 2.36173, 66.3375, 0.0123955, -125.875
0, 480.00000, 125.666, -30.5746, 125.981, -150.724, 125.461, 89.4115, 0, 0, 2.35788, -53.6485, 2.35198, -173.798, 2.36173, 66.3375, 0.0123955, -125.875
0, 540.00000, 125.666, -30.5746, 125.981, -150.724, 125.461, 89.4115, 0, 0, 2.35788, -53.6485, 2.35198, -173.798, 2.36173, 66.3375, 0.0123955, -125.875
0, 600.00000, 125.666, -30.5746, 125.981, -150.724, 125.461, 89.4115, 0, 0, 2.35788, -53.6485, 2.35198, -173.798, 2.36173, 66.3375, 0.0123955, -125.875
0, 660.00000, 125.666, -30.5746, 125.981, -150.724, 125.461, 89.4115, 0, 0, 2.35788, -53.6485, 2.35198, -173.798, 2.36173, 66.3375, 0.0123955, -125.875
0, 720.00000, 125.666, -30.5746, 125.981, -150.724, 125.461, 89.4115, 0, 0, 2.35788, -53.6485, 2.35198, -173.798, 2.36173, 66.3375, 0.0123955, -125.875
0, 780.00000, 125.666, -30.5746, 125.981, -150.724, 125.461, 89.4115, 0, 0, 2.35788, -53.6485, 2.35198, -173.798, 2.36173, 66.3375, 0.0123955, -125.875
0, 840.00000, 125.666, -30.5746, 125.981, -150.724, 125.461, 89.4115, 0, 0, 2.35788, -53.6485, 2.35198, -173.798, 2.36173, 66.3375, 0.0123955, -125.875
0, 900.00000, 125.666, -30.5746, 125.981, -150.724, 125.461, 89.4115, 0, 0, 2.35788, -53.6485, 2.35198, -173.798, 2.36173, 66.3375, 0.0123955, -125.875
0, 960.00000, 125.666, -30.575, 125.847, -150.899, 125.045, 89.365, 0, 0, 2.35788, -53.6489, 2.35444, -173.973, 2.36952, 66.2917, 0.0249248, -110.928
0, 1020.00000, 125.666, -30.575, 125.847, -150.9, 125.045, 89.3649, 0, 0, 2.35788, -53.6489, 2.35448, -173.973, 2.36959, 66.291, 0.0250037, -110.895
0, 1080.00000, 125.666, -30.575, 125.847, -150.9, 125.045, 89.3649, 0, 0, 2.35788, -53.6489, 2.35448, -173.973, 2.36959, 66.291, 0.0250042, -110.894
0, 1140.00000, 125.666, -30.575, 125.847, -150.9, 125.045, 89.3649, 0, 0, 2.35788, -53.6489, 2.35448, -173.973, 2.36959, 66.291, 0.0250042, -110.894
0, 1200.00000, 125.666, -30.575, 125.847, -150.9, 125.045, 89.3649, 0, 0, 2.35788, -53.6489, 2.35448, -173.973, 2.36959, 66.291, 0.0250042, -110.894
0, 1260.00000, 125.666, -30.575, 125.847, -150.9, 125.045, 89.3649, 0, 0, 2.35788, -53.6489, 2.35448, -173.973, 2.36959, 66.291, 0.0250042, -110.894
0, 1320.00000, 125.666, -30.575, 125.847, -150.9, 125.045, 89.3649, 0, 0, 2.35788, -53.6489, 2.35448, -173.973, 2.36959, 66.291, 0.0250042, -110.894
0, 1380.00000, 125.666, -30.575, 125.847, -150.9, 125.045, 89.3649, 0, 0, 2.35788, -53.6489, 2.35448, -173.973, 2.36959, 66.291, 0.0250042, -110.894
0, 1440.00000, 125.666, -30.575, 125.847, -150.9, 125.045, 89.3649, 0, 0, 2.35788, -53.6489, 2.35448, -173.973, 2.36959, 66.291, 0.0250042, -110.894
0, 1500.00000, 125.666, -30.575, 125.847, -150.9, 125.045, 89.3649, 0, 0, 2.35788, -53.6489, 2.35448, -173.973, 2.36959, 66.291, 0.0250042, -110.894
0, 1560.00000, 125.666, -30.575, 125.847, -150.9, 125.045, 89.3649, 0, 0, 2.35788, -53.6489, 2.35448, -173.973, 2.36959, 66.291, 0.0250042, -110.894
0, 1620.00000, 125.666, -30.575, 125.847, -150.9, 125.045, 89.3649, 0, 0, 2.35788, -53.6489, 2.35448, -173.973, 2.36959, 66.291, 0.0250042, -110.894
0, 1680.00000, 125.666, -30.575, 125.847, -150.9, 125.045, 89.3649, 0, 0, 2.35788, -53.6489, 2.35448, -173.973, 2.36959, 66.291, 0.0250042, -110.894
0, 1740.00000, 125.666, -30.575, 125.847, -150.9, 125.045, 89.3649, 0, 0, 2.35788, -53.6489, 2.35448, -173.973, 2.36959, 66.291, 0.0250042, -110.894
0, 1800.00000, 125.666, -30.575, 125.847, -150.9, 125.045, 89.3649, 0, 0, 2.35788, -53.6489, 2.35448, -173.973, 2.36959, 66.291, 0.0250042, -110.894
0, 1860.00000, 125.666, -30.575, 125.847, -150.9, 125.045, 89.3649, 0, 0, 2.35788, -53.6489, 2.35448, -173.973, 2.36959, 66.291, 0.0250042, -110.894
0, 1920.00000, 125.666, -30.575, 125.847, -150.9, 125.045, 89.3649, 0, 0, 2.35788, -53.6489, 2.35448, -173.973, 2.36959, 66.291, 0.0250042, -110.894
0, 1980.00000, 125.666, -30.575, 125.847, -150.9, 125.045, 89.3649, 0, 0, 2.35788, -53.6489, 2.35448, -173.973, 2.36959, 66.291, 0.0250042, -110.894
0, 2040.00000, 125.666, -30.575, 125.847, -150.9, 125.045, 89.3649, 0, 0, 2.35788, -53.6489, 2.35448, -173.973, 2.36959, 66.291, 0.0250042, -110.894
0, 2100.00000, 125.666, -30.575, 125.847, -150.9, 125.045, 89.3649, 0, 0, 2.35788, -53.6489, 2.35448, -173.973, 2.36959, 66.291, 0.0250042, -110.894
0, 2160.00000, 125.666, -30.575, 125.847, -150.9, 125.045, 89.3649, 0, 0, 2.35788, -53.6489, 2.35448, -173.973, 2.36959, 66.291, 0.0250042, -110.894
0, 2220.00000, 125.666, -30.575, 125.847, -150.9, 125.045, 89.3649, 0, 0, 2.35788, -53.6489, 2.35448, -173.973, 2.36959, 66.291, 0.0250042, -110.894
0, 2280.00000, 125.666, -30.575, 125.847, -150.9, 125.045, 89.3649, 0, 0, 2.35788, -53.6489, 2.35448, -173.973, 2.36959, 66.291, 0.0250042, -110.894
0, 2340.00000, 125.666, -30.575, 125.847, -150.9, 125.045, 89.3649, 0, 0, 2.35788, -53.6489, 2.35448, -173.973, 2.36959, 66.291, 0.0250042, -110.894
0, 2400.00000, 125.666, -30.575, 125.847, -150.9, 125.045, 89.3649, 0, 0, 2.35788, -53.6489, 2.35448, -173.973, 2.36959, 66.291, 0.0250042, -110.894
0, 2460.00000, 125.666, -30.575, 125.847, -150.9, 125.045, 89.3649, 0, 0, 2.35788, -53.6489, 2.35448, -173.973, 2.36959, 66.291, 0.0250042, -110.894
0, 2520.00000, 125.666, -30.575, 125.847, -150.9, 125.045, 89.3649, 0, 0, 2.35788, -53.6489, 2.35448, -173.973, 2.36959, 66.291, 0.0250042, -110.894
0, 2580.00000, 125.666, -30.575, 125.847, -150.9, 125.045, 89.3649, 0, 0, 2.35788, -53.6489, 2.35448, -173.973, 2.36959, 66.291, 0.0250042, -110.894
0, 2640.00000, 125.666, -30.575, 125.847, -150.9, 125.045, 89.3649, 0, 0, 2.35788, -53.6489, 2.35448, -173.973, 2.36959, 66.291, 0.0250042, -110.894
0, 2700.00000, 125.666, -30.575, 125.847, -150.9, 125.045, 89.3649, 0, 0, 2.35788, -53.6489, 2.35448, -173.973, 2.36959, 66.291, 0.0250042, -110.894
0, 2760.00000, 125.666, -30.575, 125.847, -150.9, 125.045, 89.3649, 0, 0, 2.35788, -53.6489, 2.35448, -173.973, 2.36959, 66.291, 0.0250042, -110.894
0, 2820.00000, 125.666, -30.575, 125.847, -150.9, 125.045, 89.3649, 0, 0, 2.35788, -53.6489, 2.35448, -173.973, 2.36959, 66.291, 0.0250042, -110.894
0, 2880.00000, 125.666, -30.575, 125.847, -150.9, 125.045, 89.3649, 0, 0, 2.35788, -53.6489, 2.35448, -173.973, 2.36959, 66.291, 0.0250042, -110.894
0, 2940.00000, 125.666, -30.575, 125.847, -150.9, 125.045, 89.3649, 0, 0, 2.35788, -53.6489, 2.35448, -173.973, 2.36959, 66.291, 0.0250042, -110.894
0, 3000.00000, 125.666, -30.575, 125.847, -150.9, 125.045, 89.3649, 0, 0, 2.35788, -53.6489, 2.35448, -173.973, 2.36959, 66.291, 0.0250042, -110.894
0, 3060.00000, 125.666, -30.575, 125.847, -150.9, 125.045, 89.3649, 0, 0, 2.35788, -53.6489, 2.35448, -173.973, 2.36959, 66.291, 0.0250042, -110.894
0, 3120.00000, 125.666, -30.575, 125.847, -150.9, 125.045, 89.3649, 0, 0, 2.35788, -53.6489, 2.35448, -173.973, 2.36959, 66.291, 0.0250042, -110.894
0, 3180.00000, 125.666, -30.575, 125.847, -150.9, 125.045, 89.3649, 0, 0, 2.35788, -53.6489, 2.35448, -173.973, 2.36959, 66.291, 0.0250042, -110.894
0, 3240.00000, 125.666, -30.575, 125.847, -150.9, 125.045, 89.3649, 0, 0, 2.35788, -53.6489, 2.35448, -173.973, 2.36959, 66.291, 0.0250042, -110.894
0, 3300.00000, 125.666, -30.575, 125.847, -150.9, 125.045, 89.3649, 0, 0, 2.35788, -53.6489, 2.35448, -173.973, 2.36959, 66.291, 0.0250042, -110.894
0, 3360.00000, 125.666, -30.575, 125.847, -150.9, 125.045, 89.3649, 0, 0, 2.35788, -53.6489, 2.35448, -173.973, 2.36959, 66.291, 0.0250042, -110.894
0, 3420.00000, 125.666, -30.575, 125.847, -150.9, 125.045, 89.3649, 0, 0, 2.35788, -53.6489, 2.35448, -173.973, 2.36959, 66.291, 0.0250042, -110.894
0, 3480.00000, 125.666, -30.575, 125.847, -150.9, 125.045, 89.3649, 0, 0, 2.35788, -53.6489, 2.35448, -173.973, 2.36959, 66.291, 0.0250042, -110.894
0, 3540.00000, 125.666, -30.575, 125.847, -150.9, 125.045, 89.3649, 0, 0, 2.35788, -53.6489, 2.35448, -173.973, 2.36959, 66.291, 0.0250042, -110.894
1, 0.00000, 125.666, -30.575, 125.847, -150.9, 125.045, 89.3649, 0, 0, 2.35788, -53.6489, 2.35448, -173.973, 2.36959, 66.291, 0.0250042, -110.894
1, 60.00000, 125.666, -30.575, 125.847, -150.9, 125.045, 89.3649, 0, 0, 2.35788, -53.6489, 2.35448, -173.973, 2.36959, 66.291, 0.0250042, -110.894
1, 120.00000, 125.666, -30.575, 125.847, -150.9, 125.045, 89.3649, 0, 0, 2.35788, -53.6489, 2.35448, -173.973, 2.36959, 66.291, 0.0250042, -110.894
1, 180.00000, 125.666, -30.575, 125.847, -150.9, 125.045, 89.3649, 0, 0, 2.35788, -53.6489, 2.35448, -173.973, 2.36959, 66.291, 0.0250042, -110.894
1, 240.00000, 125.666, -30.575, 125.847, -150.9, 125.045, 89.3649, 0, 0, 2.35788, -53.6489, 2.35448, -173.973, 2.36959, 66.291, 0.0250042, -110.894
1, 300.00000, 125.666, -30.575, 125.847, -150.9, 125.045, 89.3649, 0, 0, 2.35788, -53.6489, 2.35448, -173.973, 2.36959, 66.291, 0.0250042, -110.894
1, 360.00000, 125.666, -30.575, 125.847, -150.9, 125.045, 89.3649, 0, 0, 2.35788, -53.6489, 2.35448, -173.973, 2.36959, 66.291, 0.0250042, -110.894
1, 420.00000, 125.666, -30.575, 125.847, -150.9, 125.045, 89.3649, 0, 0, 2.35788, -53.6489, 2.35448, -173.973, 2.36959, 66.291, 0.0250042, -110.894
1, 480.00000, 125.666, -30.575, 125.847, -150.9, 125.045, 89.3649, 0, 0, 2.35788, -53.6489, 2.35448, -173.973, 2.36959, 66.291, 0.0250042, -110.894
1, 540.00000, 125.666, -30.575, 125.847, -150.9, 125.045, 89.3649, 0, 0, 2.35788, -53.6489, 2.35448, -173.973, 2.36959, 66.291, 0.0250042, -110.894
1, 600.00000, 125.666, -30.575, 125.847, -150.9, 125.045, 89.3649, 0, 0, 2.35788, -53.6489, 2.35448, -173.973, 2.36959, 66.291, 0.0250042, -110.894
1, 660.00000, 125.666, -30.575, 125.847, -150.9, 125.045, 89.3649, 0, 0, 2.35788, -53.6489, 2.35448, -173.973, 2.36959, 66.291, 0.0250042, -110.894
1, 720.00000, 125.666, -30.575, 125.847, -150.9, 125.045, 89.3649, 0, 0, 2.35788, -53.6489, 2.35448, -173.973, 2.36959, 66.291, 0.0250042, -110.894
1, 780.00000, 125.666, -30.575, 125.847, -150.9, 125.045, 89.3649, 0, 0, 2.35788, -53.6489, 2.35448, -173.973, 2.36959, 66.291, 0.0250042, -110.894
1, 840.00000, 125.666, -30.575, 125.847, -150.9, 125.045, 89.3649, 0, 0, 2.35788, -53.6489, 2.35448, -173.973, 2.36959, 66.291, 0.0250042, -110.894
1, 900.00000, 125.666, -30.575, 125.847, -150.9, 125.045, 89.3649, 0, 0, 2.35788, -53.6489, 2.35448, -173.973, 2.36959, 66.291, 0.0250042, -110.894
1, 960.00000, 125.666, -30.575, 125.847, -150.9, 125.045, 89.3649, 0, 0, 2.35788, -53.6489, 2.35448, -173.973, 2.36959, 66.291, 0.0250042, -110.894
1, 1020.00000, 125.666, -30.575, 125.847, -150.9, 125.045, 89.3649, 0, 0, 2.35788, -53.6489, 2.35448, -173.973, 2.36959, 66.291, 0.0250042, -110.894
1, 1080.00000, 125.666, -30.575, 125.847, -150.9, 125.045, 89.3649, 0, 0, 2.35788, -53.6489, 2.35448, -173.973, 2.36959, 66.291, 0.0250042, -110.894
1, 1140.00000, 125.666, -30.575, 125.847, -150.9, 125.045, 89.3649, 0, 0, 2.35788, -53.6489, 2.35448, -173.973, 2.36959, 66.291, 0.0250042, -110.894
1, 1200.00000, 125.666, -30.575, 125.847, -150.9, 125.045, 89.3649, 0, 0, 2.35788, -53.6489, 2.35448, -173.973, 2.36959, 66.291, 0.0250042, -110.894
1, 1260.00000, 125.666, -30.575, 125.847, -150.9, 125.045, 89.3649, 0, 0, 2.35788, -53.6489, 2.35448, -173.973, 2.36959, 66.291, 0.0250042, -110.894
1, 1320.00000, 125.666, -30.575, 125.847, -150.9, 125.045, 89.3649, 0, 0, 2.35788, -53.6489, 2.35448, -173.973, 2.36959, 66.291, 0.0250042, -110.894
1, 1380.00000, 125.666, -30.575, 125.847, -150.9, 125.045, 89.3649, 0, 0, 2.35788, -53.6489, 2.35448, -173.973, 2.36959, 66.291, 0.0250042, -110.894
1, 1440.00000, 125.666, -30.575, 125.847, -150.9, 125.045, 89.3649, 0, 0, 2.35788, -53.6489, 2.35448, -173.973, 2.36959, 66.291, 0.0250042, -110.894
1, 1500.00000, 125.666, -30.575, 125.847, -150.9, 125.045, 89.3649, 0, 0, 2.35788, -53.6489, 2.35448, -173.973, 2.36959, 66.291, 0.0250042, -110.894
1, 1560.00000, 125.666, -30.575, 125.847, -150.9, 125.045, 89.3649, 0, 0, 2.35788, -53.6489, 2.35448, -173.973, 2.36959, 66.291, 0.0250042, -110.894
1, 1620.00000, 125.666, -30.575, 125.847, -150.9, 125.045, 89.3649, 0, 0, 2.35788, -53.6489, 2.35448, -173.973, 2.36959, 66.291, 0.0250042, -110.894
1, 1680.00000, 125.666, -30.575, 125.847, -150.9, 125.045, 89.3649, 0, 0, 2.35788, -53.6489, 2.35448, -173.973, 2.36959, 66.291, 0.0250042, -110.894
1, 1740.00000, 125.666, -30.575, 125.847, -150.9, 125.045, 89.3649, 0, 0, 2.35788, -53.6489, 2.35448, -173.973, 2.36959, 66.291, 0.0250042, -110.894
1, 1800.00000, 125.666, -30.575, 125.847, -150.9, 125.045, 89.3649, 0, 0, 2.35788, -53.6489, 2.35448, -173.973, 2.36959, 66.291, 0.0250042, -110.894
1, 1860.00000, 125.666, -30.575, 125.847, -150.9, 125.045, 89.3649, 0, 0, 2.35788, -53.6489, 2.35448, -173.973, 2.36959, 66.291, 0.0250042, -110.894
1, 1920.00000, 125.666, -30.575, 125.847, -150.9, 125.045, 89.3649, 0, 0, 2.35788, -53.6489, 2.35448, -173.973, 2.36959, 66.291, 0.0250042, -110.894
1, 1980.00000, 125.666, -30.575, 125.847, -150.9, 125.045, 89.3649, 0, 0, 2.35788, -53.6489, 2.35448, -173.973, 2.36959, 66.291, 0.0250042, -110.894
1, 2040.00000, 125.666, -30.575, 125.847, -150.9, 125.045, 89.3649, 0, 0, 2.35788, -53.6489, 2.35448, -173.973, 2.36959, 66.291, 0.0250042, -110.894
1, 2100.00000, 125.666, -30.575, 125.847, -150.9, 125.045, 89.3649, 0, 0, 2.35788, -53.6489, 2.35448, -173.973, 2.36959, 66.291, 0.0250042, -110.894
1, 2160.00000, 125.666, -30.575, 125.847, -150.9, 125.045, 89.3649, 0, 0, 2.35788, -53.6489, 2.35448, -173.973, 2.36959, 66.291, 0.0250042, -110.894
1, 2220.00000, 125.666, -30.575, 125.847, -150.9, 125.045, 89.3649, 0, 0, 2.35788, -53.6489, 2.35448, -173.973, 2.36959, 66.291, 0.0250042, -110.894
1, 2280.00000, 125.666, -30.575, 125.847, -150.9, 125.045, 89.3649, 0, 0, 2.35788, -53.6489, 2.35448, -173.973, 2.36959, 66.291, 0.0250042, -110.894
1, 2340.00000, 125.666, -30.575, 125.847, -150.9, 125.045, 89.3649, 0, 0, 2.35788, -53.6489, 2.35448, -173.973, 2.36959, 66.291, 0.0250042, -110.894
1, 2400.00000, 125.666, -30.575, 125.847, -150.9, 125.045, 89.3649, 0, 0, 2.35788, -53.6489, 2.35448, -173.973, 2.36959, 66.291, 0.0250042, -110.894
1, 2460.00000, 125.666, -30.575, 125.847, -150.9, 125.045, 89.3649, 0, 0, 2.35788, -53.6489, 2.35448, -173.973, 2.36959, 66.291, 0.0250042, -110.894
1, 2520.00000, 125.666, -30.5746, 125.981, -150.724, 125.46, 89.4114, 0, 0, 2.35788, -53.6485, 2.35201, -173.798, 2.36178, 66.337, 0.0124446, -125.778
1, 2580.00000, 125.666, -30.5746, 125.981, -150.724, 125.461, 89.4115, 0, 0, 2.35788, -53.6485, 2.35198, -173.798, 2.36173, 66.3375, 0.0123957, -125.874
1, 2640.00000, 125.666, -30.5746, 125.981, -150.724, 125.461, 89.4115, 0, 0, 2.35788, -53.6485, 2.35198, -173.798, 2.36173, 66.3375, 0.0123955, -125.875
1, 2700.00000, 125.666, -30.5746, 125.981, -150.724, 125.461, 89.4115, 0, 0, 2.35788, -53.6485, 2.35198, -173.798, 2.36173, 66.3375, 0.0123955, -125.875
1, 2760.00000, 125.665, -30.5743, 126.108, -150.554, 125.863, 89.4565, 0, 0, 2.35789, -53.6482, 2.34962, -173.628, 2.35422, 66.3821, 0.00633407, 154.075
1, 2820.00000, 125.665, -30.5743, 126.109, -150.554, 125.863, 89.4565, 0, 0, 2.35788, -53.6482, 2.3496, -173.628, 2.35418, 66.3826, 0.00633828, 153.77
1, 2880.00000, 125.665, -30.5743, 126.109, -150.554, 125.863, 89.4565, 0, 0, 2.35788, -53.6482, 2.3496, -173.628, 2.35418, 66.3826, 0.0063383, 153.769
1, 2940.00000, 125.665, -30.5743, 126.109, -150.554, 125.863, 89.4565, 0, 0, 2.35788, -53.6482, 2.3496, -173.628, 2.35418, 66.3826, 0.0063383, 153.769
1, 3000.00000, 125.665, -30.5743, 126.109, -150.554, 125.863, 89.4565, 0, 0, 2.35788, -53.6482, 2.3496, -173.628, 2.35418, 66.3826, 0.0063383, 153.769
1, 3060.00000, 125.665, -30.5743, 126.109, -150.554, 125.863, 89.4565, 0, 0, 2.35788, -53.6482, 2.3496, -173.628, 2.35418, 66.3826, 0.0063383, 153.769
1, 3120.00000, 125.665, -30.5743, 126.109, -150.554, 125.863, 89.4565, 0, 0, 2.35788, -53.6482, 2.3496, -173.628, 2.35418, 66.3826, 0.0063383, 153.769
1, 3180.00000, 125.665, -30.5743, 126.109, -150.554, 125.863, 89.4565, 0, 0, 2.35788, -53.6482, 2.3496, -173.628, 2.35418, 66.3826, 0.0063383, 153.769
1, 3240.00000, 125.665, -30.5743, 126.109, -150.554, 125.863, 89.4565, 0, 0, 2.35788, -53.6482, 2.3496, -173.628, 2.35418, 66.3826, 0.0063383, 153.769
1, 3300.00000, 125.665, -30.5743, 126.109, -150.554, 125.863, 89.4565, 0, 0, 2.35788, -53.6482, 2.3496, -173.628, 2.35418, 66.3826, 0.0063383, 153.769
1, 3360.00000, 125.665, -30.5743, 126.109, -150.554, 125.863, 89.4565, 0, 0, 2.35788, -53.6482, 2.3496, -173.628, 2.35418, 66.3826, 0.0063383, 153.769
1, 3420.00000, 125.665, -30.5743, 126.109, -150.554, 125.863, 89.4565, 0, 0, 2.35788, -53.6482, 2.3496, -173.628, 2.35418, 66.3826, 0.0063383, 153.769
1, 3480.00000, 125.665, -30.5743, 126.109, -150.554, 125.863, 89.4565, 0, 0, 2.35788, -53.6482, 2.3496, -173.628, 2.35418, 66.3826, 0.0063383, 153.769
1, 3540.00000, 125.665, -30.5743, 126.109, -150.554, 125.863, 89.4565, 0, 0, 2.35788, -53.6482, 2.3496, -173.628, 2.35418, 66.3826, 0.0063383, 153.769
2, 0.00000, 125.665, -30.5743, 126.109, -150.554, 125.863, 89.4565, 0, 0, 2.35788, -53.6482, 2.3496, -173.628, 2.35418, 66.3826, 0.0063383, 153.769
2, 60.00000, 125.665, -30.5743, 126.109, -150.554, 125.863, 89.4565, 0, 0, 2.35788, -53.6482, 2.3496, -173.628, 2.35418, 66.3826, 0.0063383, 153.769
2, 120.00000, 125.66, -30.5754, 126.103, -150.555, 125.858, 89.4554, 0, 0, 2.36451, -53.6493, 2.35619, -173.629, 2.36079, 66.3815, 0.00636394, 153.717
2, 180.00000, 125.654, -30.5766, 126.098, -150.556, 125.852, 89.4543, 0, 0, 2.37123, -53.6505, 2.36287, -173.63, 2.36748, 66.3804, 0.00639069, 153.669
2, 240.00000, 125.648, -30.5778, 126.093, -150.557, 125.847, 89.4532, 0, 0, 2.37786, -53.6517, 2.36947, -173.631, 2.3741, 66.3794, 0.0064172, 153.622
2, 300.00000, 125.642, -30.579, 126.088, -150.558, 125.842, 89.4521, 0, 0, 2.38449, -53.6529, 2.37606, -173.632, 2.38071, 66.3783, 0.00644375, 153.575
2, 360.00000, 125.636, -30.5802, 126.083, -150.559, 125.836, 89.4511, 0, 0, 2.39121, -53.6541, 2.38274, -173.633, 2.38741, 66.3772, 0.00647068, 153.527
2, 420.00000, 125.63, -30.5814, 126.077, -150.56, 125.831, 89.45, 0, 0, 2.39784, -53.6552, 2.38934, -173.634, 2.39403, 66.3761, 0.00649736, 153.481
2, 480.00000, 125.625, -30.5826, 126.072, -150.562, 125.825, 89.4489, 0, 0, 2.40448, -53.6564, 2.39594, -173.635, 2.40064, 66.375, 0.00652409, 153.434
2, 540.00000, 125.619, -30.5838, 126.067, -150.563, 125.82, 89.4478, 0, 0, 2.4112, -53.6576, 2.40262, -173.637, 2.40734, 66.3739, 0.00655119, 153.387
2, 600.00000, 125.613, -30.5849, 126.062, -150.564, 125.815, 89.4467, 0, 0, 2.41783, -53.6588, 2.40922, -173.638, 2.41396, 66.3728, 0.00657804, 153.341
2, 660.00000, 125.607, -30.5861, 126.057, -150.565, 125.809, 89.4456, 0, 0, 2.42447, -53.66, 2.41583, -173.639, 2.42058, 66.3718, 0.00660493, 153.294
2, 720.00000, 125.601, -30.5873, 126.052, -150.566, 125.804, 89.4445, 0, 0, 2.43119, -53.6612, 2.42251, -173.64, 2.42728, 66.3707, 0.0066322, 153.247
