hour,t(sec),V1,VAngle1,V2,VAngle2,V3,VAngle3,V4,VAngle4,I1,IAngle1,I2,IAngle2,I3,IAngle3,I4,IAngle4
0, 60.00000, 121.955, -30.451, 123.72, -151.136, 121.258, 88.9644, 0, 0, 2.04988, -53.5246, 2.02069, -174.209, 2.06166, 65.8909, 0.0584315, -149.549
0, 120.00000, 121.955, -30.451, 123.72, -151.136, 121.257, 88.9644, 0, 0, 2.04994, -53.5249, 2.0207, -174.209, 2.06173, 65.8905, 0.0584806, -149.571
0, 180.00000, 121.955, -30.451, 123.72, -151.136, 121.257, 88.9644, 0, 0, 2.04994, -53.5249, 2.0207, -174.209, 2.06173, 65.8905, 0.058481, -149.571
0, 240.00000, 121.955, -30.451, 123.72, -151.136, 121.257, 88.9644, 0, 0, 2.04994, -53.5249, 2.0207, -174.209, 2.06173, 65.8905, 0.058481, -149.571
0, 300.00000, 122.08, -30.4596, 124.673, -150.753, 122.462, 88.7676, 0, 0, 2.04787, -53.5334, 2.00531, -173.827, 2.04156, 65.6926, 0.0638843, 178.254
0, 360.00000, 122.08, -30.4596, 124.673, -150.753, 122.463, 88.7677, 0, 0, 2.04783, -53.5335, 2.00524, -173.827, 2.04144, 65.6938, 0.0638346, 178.197
0, 420.00000, 122.08, -30.4596, 124.673, -150.753, 122.463, 88.7677, 0, 0, 2.04783, -53.5335, 2.00524, -173.827, 2.04144, 65.6938, 0.063834, 178.197
0, 480.00000, 122.08, -30.4596, 124.673, -150.753, 122.463, 88.7677, 0, 0, 2.04783, -53.5335, 2.00524, -173.827, 2.04144, 65.6938, 0.063834, 178.197
0, 540.00000, 122.08, -30.4596, 124.673, -150.753, 122.463, 88.7677, 0, 0, 2.04783, -53.5335, 2.00524, -173.827, 2.04144, 65.6938, 0.063834, 178.197
0, 600.00000, 122.08, -30.4596, 124.673, -150.753, 122.463, 88.7677, 0, 0, 2.04783, -53.5335, 2.00524, -173.827, 2.04144, 65.6938, 0.063834, 178.197
0, 660.00000, 122.08, -30.4596, 124.673, -150.753, 122.463, 88.7677, 0, 0, 2.04783, -53.5335, 2.00524, -173.827, 2.04144, 65.6938, 0.063834, 178.197
0, 720.00000, 122.08, -30.4596, 124.673, -150.753, 122.463, 88.7677, 0, 0, 2.04783, -53.5335, 2.00524, -173.827, 2.04144, 65.6938, 0.063834, 178.197
0, 780.00000, 122.082, -30.4589, 124.802, -150.588, 122.865, 88.8129, 0, 0, 2.04782, -53.5329, 2.00318, -173.662, 2.03481, 65.7383, 0.0636495, 168.299
0, 840.00000, 122.082, -30.4589, 124.802, -150.588, 122.865, 88.8129, 0, 0, 2.0478, -53.5328, 2.00317, -173.662, 2.03476, 65.739, 0.0636092, 168.27
0, 900.00000, 122.082, -30.4589, 124.802, -150.588, 122.865, 88.8129, 0, 0, 2.0478, -53.5328, 2.00317, -173.662, 2.03476, 65.739, 0.0636088, 168.27
0, 960.00000, 120.151, -30.2088, 124.952, -150.569, 121.212, 88.2748, 0, 0, 2.06202, -53.2813, 2.0008, -173.644, 2.06242, 65.2004, 0.109455, 178.873
0, 1020.00000, 120.151, -30.2088, 124.952, -150.569, 121.212, 88.2747, 0, 0, 2.06202, -53.2827, 2.00078, -173.643, 2.0625, 65.2008, 0.109453, 178.89
0, 1080.00000, 120.151, -30.2088, 124.952, -150.569, 121.212, 88.2747, 0, 0, 2.06202, -53.2828, 2.00078, -173.643, 2.0625, 65.2008, 0.109453, 178.89
0, 1140.00000, 120.151, -30.2088, 124.952, -150.569, 121.212, 88.2747, 0, 0, 2.06202, -53.2828, 2.00078, -173.643, 2.0625, 65.2008, 0.109453, 178.89
0, 1200.00000, 120.151, -30.2088, 124.952, -150.569, 121.212, 88.2747, 0, 0, 2.06202, -53.2828, 2.00078, -173.643, 2.0625, 65.2008, 0.109453, 178.89
0, 1260.00000, 120.151, -30.2088, 124.952, -150.569, 121.212, 88.2747, 0, 0, 2.06202, -53.2828, 2.00078, -173.643, 2.0625, 65.2008, 0.109453, 178.89
0, 1320.00000, 120.151, -30.2088, 124.952, -150.569, 121.212, 88.2747, 0, 0, 2.06202, -53.2828, 2.00078, -173.643, 2.0625, 65.2008, 0.109453, 178.89
0, 1380.00000, 120.151, -30.2088, 124.952, -150.569, 121.212, 88.2747, 0, 0, 2.06202, -53.2828, 2.00078, -173.643, 2.0625, 65.2008, 0.109453, 178.89
0, 1440.00000, 120.151, -30.2088, 124.952, -150.569, 121.212, 88.2747, 0, 0, 2.06202, -53.2828, 2.00078, -173.643, 2.0625, 65.2008, 0.109453, 178.89
0, 1500.00000, 120.151, -30.2088, 124.952, -150.569, 121.212, 88.2747, 0, 0, 2.06202, -53.2828, 2.00078, -173.643, 2.0625, 65.2008, 0.109453, 178.89
0, 1560.00000, 120.151, -30.2088, 124.952, -150.569, 121.212, 88.2747, 0, 0, 2.06202, -53.2828, 2.00078, -173.643, 2.0625, 65.2008, 0.109453, 178.89
0, 1620.00000, 120.151, -30.2088, 124.952, -150.569, 121.212, 88.2747, 0, 0, 2.06202, -53.2828, 2.00078, -173.643, 2.0625, 65.2008, 0.109453, 178.89
0, 1680.00000, 120.151, -30.2088, 124.952, -150.569, 121.212, 88.2747, 0, 0, 2.06202, -53.2828, 2.00078, -173.643, 2.0625, 65.2008, 0.109453, 178.89
0, 1740.00000, 120.151, -30.2088, 124.952, -150.569, 121.212, 88.2747, 0, 0, 2.06202, -53.2828, 2.00078, -173.643, 2.0625, 65.2008, 0.109453, 178.89
0, 1800.00000, 120.151, -30.2088, 124.952, -150.569, 121.212, 88.2747, 0, 0, 2.06202, -53.2828, 2.00078, -173.643, 2.0625, 65.2008, 0.109453, 178.89
0, 1860.00000, 120.151, -30.2088, 124.952, -150.569, 121.212, 88.2747, 0, 0, 2.06202, -53.2828, 2.00078, -173.643, 2.0625, 65.2008, 0.109453, 178.89
0, 1920.00000, 120.151, -30.2088, 124.952, -150.569, 121.212, 88.2747, 0, 0, 2.06202, -53.2828, 2.00078, -173.643, 2.0625, 65.2008, 0.109453, 178.89
0, 1980.00000, 120.151, -30.2088, 124.952, -150.569, 121.212, 88.2747, 0, 0, 2.06202, -53.2828, 2.00078, -173.643, 2.0625, 65.2008, 0.109453, 178.89
0, 2040.00000, 120.151, -30.2088, 124.952, -150.569, 121.212, 88.2747, 0, 0, 2.06202, -53.2828, 2.00078, -173.643, 2.0625, 65.2008, 0.109453, 178.89
0, 2100.00000, 120.151, -30.2088, 124.952, -150.569, 121.212, 88.2747, 0, 0, 2.06202, -53.2828, 2.00078, -173.643, 2.0625, 65.2008, 0.109453, 178.89
0, 2160.00000, 120.151, -30.2088, 124.952, -150.569, 121.212, 88.2747, 0, 0, 2.06202, -53.2828, 2.00078, -173.643, 2.0625, 65.2008, 0.109453, 178.89
0, 2220.00000, 120.541, -30.1695, 124.952, -150.57, 121.333, 88.4445, 0, 0, 2.06943, -53.2438, 2.00077, -173.643, 2.06045, 65.3705, 0.108785, 176.563
0, 2280.00000, 120.541, -30.1695, 124.952, -150.57, 121.334, 88.4446, 0, 0, 2.06945, -53.2434, 2.00077, -173.644, 2.06044, 65.3706, 0.108796, 176.552
0, 2340.00000, 120.541, -30.1695, 124.952, -150.57, 121.334, 88.4446, 0, 0, 2.06945, -53.2434, 2.00077, -173.644, 2.06044, 65.3706, 0.108796, 176.552
0, 2400.00000, 120.541, -30.1695, 124.952, -150.57, 121.334, 88.4446, 0, 0, 2.06945, -53.2434, 2.00077, -173.644, 2.06044, 65.3706, 0.108796, 176.552
0, 2460.00000, 120.541, -30.1695, 124.952, -150.57, 121.334, 88.4446, 0, 0, 2.06945, -53.2434, 2.00077, -173.644, 2.06044, 65.3706, 0.108796, 176.552
0, 2520.00000, 120.541, -30.1695, 124.952, -150.57, 121.334, 88.4446, 0, 0, 2.06945, -53.2434, 2.00077, -173.644, 2.06044, 65.3706, 0.108796, 176.552
0, 2580.00000, 120.541, -30.1695, 124.952, -150.57, 121.334, 88.4446, 0, 0, 2.06945, -53.2434, 2.00077, -173.644, 2.06044, 65.3706, 0.108796, 176.552
0, 2640.00000, 120.541, -30.1695, 124.952, -150.57, 121.334, 88.4446, 0, 0, 2.06945, -53.2434, 2.00077, -173.644, 2.06044, 65.3706, 0.108796, 176.552
0, 2700.00000, 120.541, -30.1695, 124.952, -150.57, 121.334, 88.4446, 0, 0, 2.06945, -53.2434, 2.00077, -173.644, 2.06044, 65.3706, 0.108796, 176.552
0, 2760.00000, 120.541, -30.1695, 124.952, -150.57, 121.334, 88.4446, 0, 0, 2.06945, -53.2434, 2.00077, -173.644, 2.06044, 65.3706, 0.108796, 176.552
0, 2820.00000, 120.541, -30.1695, 124.952, -150.57, 121.334, 88.4446, 0, 0, 2.06945, -53.2434, 2.00077, -173.644, 2.06044, 65.3706, 0.108796, 176.552
0, 2880.00000, 120.541, -30.1695, 124.952, -150.57, 121.334, 88.4446, 0, 0, 2.06945, -53.2434, 2.00077, -173.644, 2.06044, 65.3706, 0.108796, 176.552
0, 2940.00000, 120.541, -30.1695, 124.952, -150.57, 121.334, 88.4446, 0, 0, 2.06945, -53.2434, 2.00077, -173.644, 2.06044, 65.3706, 0.108796, 176.552
0, 3000.00000, 120.541, -30.1695, 124.952, -150.57, 121.334, 88.4446, 0, 0, 2.06945, -53.2434, 2.00077, -173.644, 2.06044, 65.3706, 0.108796, 176.552
0, 3060.00000, 120.541, -30.1695, 124.952, -150.57, 121.334, 88.4446, 0, 0, 2.06945, -53.2434, 2.00077, -173.644, 2.06044, 65.3706, 0.108796, 176.552
0, 3120.00000, 120.541, -30.1695, 124.952, -150.57, 121.334, 88.4446, 0, 0, 2.06945, -53.2434, 2.00077, -173.644, 2.06044, 65.3706, 0.108796, 176.552
0, 3180.00000, 120.541, -30.1695, 124.952, -150.57, 121.334, 88.4446, 0, 0, 2.06945, -53.2434, 2.00077, -173.644, 2.06044, 65.3706, 0.108796, 176.552
0, 3240.00000, 120.541, -30.1695, 124.952, -150.57, 121.334, 88.4446, 0, 0, 2.06945, -53.2434, 2.00077, -173.644, 2.06044, 65.3706, 0.108796, 176.552
0, 3300.00000, 120.541, -30.1695, 124.952, -150.57, 121.334, 88.4446, 0, 0, 2.06945, -53.2434, 2.00077, -173.644, 2.06044, 65.3706, 0.108796, 176.552
0, 3360.00000, 120.541, -30.1695, 124.952, -150.57, 121.334, 88.4446, 0, 0, 2.06945, -53.2434, 2.00077, -173.644, 2.06044, 65.3706, 0.108796, 176.552
0, 3420.00000, 120.541, -30.1695, 124.952, -150.57, 121.334, 88.4446, 0, 0, 2.06945, -53.2434, 2.00077, -173.644, 2.06044, 65.3706, 0.108796, 176.552
0, 3480.00000, 120.541, -30.1695, 124.952, -150.57, 121.334, 88.4446, 0, 0, 2.06945, -53.2434, 2.00077, -173.644, 2.06044, 65.3706, 0.108796, 176.552
0, 3540.00000, 122.498, -30.4182, 124.798, -150.588, 123, 88.9849, 0, 0, 2.04099, -53.4933, 2.00319, -173.661, 2.03267, 65.9103, 0.0532845, 173.482
1, 0.00000, 122.499, -30.4181, 124.798, -150.588, 123, 88.985, 0, 0, 2.04084, -53.492, 2.00324, -173.662, 2.03251, 65.9111, 0.0530929, 173.487
1, 60.00000, 122.499, -30.4181, 124.798, -150.588, 123, 88.985, 0, 0, 2.04084, -53.492, 2.00324, -173.662, 2.03251, 65.9111, 0.0530917, 173.487
1, 120.00000, 122.499, -30.4181, 124.798, -150.588, 123, 88.985, 0, 0, 2.04084, -53.492, 2.00324, -173.662, 2.03251, 65.9111, 0.0530917, 173.487
1, 180.00000, 122.499, -30.4181, 124.798, -150.588, 123, 88.985, 0, 0, 2.04084, -53.492, 2.00324, -173.662, 2.03251, 65.9111, 0.0530917, 173.487
1, 240.00000, 122.499, -30.4181, 124.798, -150.588, 123, 88.985, 0, 0, 2.04084, -53.492, 2.00324, -173.662, 2.03251, 65.9111, 0.0530917, 173.487
1, 300.00000, 122.499, -30.4181, 124.798, -150.588, 123, 88.985, 0, 0, 2.04084, -53.492, 2.00324, -173.662, 2.03251, 65.9111, 0.0530917, 173.487
1, 360.00000, 122.499, -30.4181, 124.798, -150.588, 123, 88.985, 0, 0, 2.04084, -53.492, 2.00324, -173.662, 2.03251, 65.9111, 0.0530917, 173.487
1, 420.00000, 122.499, -30.4181, 124.798, -150.588, 123, 88.985, 0, 0, 2.04084, -53.492, 2.00324, -173.662, 2.03251, 65.9111, 0.0530917, 173.487
1, 480.00000, 122.499, -30.4181, 124.798, -150.588, 123, 88.985, 0, 0, 2.04084, -53.492, 2.00324, -173.662, 2.03251, 65.9111, 0.0530917, 173.487
1, 540.00000, 122.499, -30.4181, 124.798, -150.588, 123, 88.985, 0, 0, 2.04084, -53.492, 2.00324, -173.662, 2.03251, 65.9111, 0.0530917, 173.487
1, 600.00000, 122.499, -30.4181, 124.798, -150.588, 123, 88.985, 0, 0, 2.04084, -53.492, 2.00324, -173.662, 2.03251, 65.9111, 0.0530917, 173.487
1, 660.00000, 122.499, -30.418, 124.922, -150.424, 123.398, 89.0293, 0, 0, 2.04085, -53.492, 2.00125, -173.498, 2.02601, 65.9549, 0.0539898, 161.86
1, 720.00000, 122.499, -30.418, 124.922, -150.424, 123.398, 89.0294, 0, 0, 2.04084, -53.4919, 2.00125, -173.498, 2.02596, 65.9554, 0.05396, 161.825
1, 780.00000, 124.115, -30.5924, 124.799, -150.438, 124.728, 89.4753, 0, 0, 2.01436, -53.6676, 2.00319, -173.511, 2.00446, 66.401, 0.0134927, 114.262
1, 840.00000, 124.115, -30.5923, 124.799, -150.438, 124.728, 89.4753, 0, 0, 2.01426, -53.6662, 2.00323, -173.512, 2.00436, 66.4014, 0.0134143, 113.866
1, 900.00000, 124.115, -30.5923, 124.799, -150.438, 124.728, 89.4753, 0, 0, 2.01426, -53.6662, 2.00323, -173.512, 2.00436, 66.4014, 0.013414, 113.864
1, 960.00000, 124.115, -30.5923, 124.799, -150.438, 124.728, 89.4753, 0, 0, 2.01426, -53.6662, 2.00323, -173.512, 2.00436, 66.4014, 0.013414, 113.864
1, 1020.00000, 124.115, -30.5923, 124.799, -150.438, 124.728, 89.4753, 0, 0, 2.01426, -53.6662, 2.00323, -173.512, 2.00436, 66.4014, 0.013414, 113.864
1, 1080.00000, 124.115, -30.5923, 124.799, -150.438, 124.728, 89.4753, 0, 0, 2.01426, -53.6662, 2.00323, -173.512, 2.00436, 66.4014, 0.013414, 113.864
1, 1140.00000, 124.115, -30.5923, 124.799, -150.438, 124.728, 89.4753, 0, 0, 2.01426, -53.6662, 2.00323, -173.512, 2.00436, 66.4014, 0.013414, 113.864
1, 1200.00000, 124.115, -30.5923, 124.799, -150.438, 124.728, 89.4753, 0, 0, 2.01426, -53.6662, 2.00323, -173.512, 2.00436, 66.4014, 0.013414, 113.864
1, 1260.00000, 124.115, -30.5923, 124.799, -150.438, 124.728, 89.4753, 0, 0, 2.01426, -53.6662, 2.00323, -173.512, 2.00436, 66.4014, 0.013414, 113.864
1, 1320.00000, 124.115, -30.5923, 124.799, -150.438, 124.728, 89.4753, 0, 0, 2.01426, -53.6662, 2.00323, -173.512, 2.00436, 66.4014, 0.013414, 113.864
1, 1380.00000, 124.115, -30.5923, 124.799, -150.438, 124.728, 89.4753, 0, 0, 2.01426, -53.6662, 2.00323, -173.512, 2.00436, 66.4014, 0.013414, 113.864
1, 1440.00000, 124.115, -30.5923, 124.799, -150.438, 124.728, 89.4753, 0, 0, 2.01426, -53.6662, 2.00323, -173.512, 2.00436, 66.4014, 0.013414, 113.864
1, 1500.00000, 124.115, -30.5923, 124.799, -150.438, 124.728, 89.4753, 0, 0, 2.01426, -53.6662, 2.00323, -173.512, 2.00436, 66.4014, 0.013414, 113.864
1, 1560.00000, 124.115, -30.5923, 124.799, -150.438, 124.728, 89.4753, 0, 0, 2.01426, -53.6662, 2.00323, -173.512, 2.00436, 66.4014, 0.013414, 113.864
1, 1620.00000, 124.115, -30.5923, 124.799, -150.438, 124.728, 89.4753, 0, 0, 2.01426, -53.6662, 2.00323, -173.512, 2.00436, 66.4014, 0.013414, 113.864
1, 1680.00000, 124.115, -30.5923, 124.799, -150.438, 124.728, 89.4753, 0, 0, 2.01426, -53.6662, 2.00323, -173.512, 2.00436, 66.4014, 0.013414, 113.864
1, 1740.00000, 124.115, -30.5923, 124.799, -150.438, 124.728, 89.4753, 0, 0, 2.01426, -53.6662, 2.00323, -173.512, 2.00436, 66.4014, 0.013414, 113.864
1, 1800.00000, 124.115, -30.5923, 124.799, -150.438, 124.728, 89.4753, 0, 0, 2.01426, -53.6662, 2.00323, -173.512, 2.00436, 66.4014, 0.013414, 113.864
1, 1860.00000, 124.115, -30.5923, 124.799, -150.438, 124.728, 89.4753, 0, 0, 2.01426, -53.6662, 2.00323, -173.512, 2.00436, 66.4014, 0.013414, 113.864
1, 1920.00000, 124.115, -30.5923, 124.799, -150.438, 124.728, 89.4753, 0, 0, 2.01426, -53.6662, 2.00323, -173.512, 2.00436, 66.4014, 0.013414, 113.864
1, 1980.00000, 124.115, -30.5923, 124.799, -150.438, 124.728, 89.4753, 0, 0, 2.01426, -53.6662, 2.00323, -173.512, 2.00436, 66.4014, 0.013414, 113.864
1, 2040.00000, 124.115, -30.5923, 124.799, -150.438, 124.728, 89.4753, 0, 0, 2.01426, -53.6662, 2.00323, -173.512, 2.00436, 66.4014, 0.013414, 113.864
1, 2100.00000, 124.115, -30.5923, 124.799, -150.438, 124.728, 89.4753, 0, 0, 2.01426, -53.6662, 2.00323, -173.512, 2.00436, 66.4014, 0.013414, 113.864
1, 2160.00000, 124.115, -30.5923, 124.799, -150.438, 124.728, 89.4753, 0, 0, 2.01426, -53.6662, 2.00323, -173.512, 2.00436, 66.4014, 0.013414, 113.864
1, 2220.00000, 124.115, -30.5923, 124.799, -150.438, 124.728, 89.4753, 0, 0, 2.01426, -53.6662, 2.00323, -173.512, 2.00436, 66.4014, 0.013414, 113.864
1, 2280.00000, 124.115, -30.5923, 124.799, -150.438, 124.728, 89.4753, 0, 0, 2.01426, -53.6662, 2.00323, -173.512, 2.00436, 66.4014, 0.013414, 113.864
1, 2340.00000, 124.115, -30.5923, 124.799, -150.438, 124.728, 89.4753, 0, 0, 2.01426, -53.6662, 2.00323, -173.512, 2.00436, 66.4014, 0.013414, 113.864
1, 2400.00000, 124.115, -30.5923, 124.799, -150.438, 124.728, 89.4753, 0, 0, 2.01426, -53.6662, 2.00323, -173.512, 2.00436, 66.4014, 0.013414, 113.864
1, 2460.00000, 124.115, -30.5923, 124.799, -150.438, 124.728, 89.4753, 0, 0, 2.01426, -53.6662, 2.00323, -173.512, 2.00436, 66.4014, 0.013414, 113.864
1, 2520.00000, 124.115, -30.5923, 124.799, -150.438, 124.728, 89.4753, 0, 0, 2.01426, -53.6662, 2.00323, -173.512, 2.00436, 66.4014, 0.013414, 113.864
1, 2580.00000, 124.115, -30.5923, 124.799, -150.438, 124.728, 89.4753, 0, 0, 2.01426, -53.6662, 2.00323, -173.512, 2.00436, 66.4014, 0.013414, 113.864
1, 2640.00000, 124.115, -30.5923, 124.799, -150.438, 124.728, 89.4753, 0, 0, 2.01426, -53.6662, 2.00323, -173.512, 2.00436, 66.4014, 0.013414, 113.864
1, 2700.00000, 124.115, -30.5923, 124.799, -150.438, 124.728, 89.4753, 0, 0, 2.01426, -53.6662, 2.00323, -173.512, 2.00436, 66.4014, 0.013414, 113.864
1, 2760.00000, 124.115, -30.5923, 124.799, -150.438, 124.728, 89.4753, 0, 0, 2.01426, -53.6662, 2.00323, -173.512, 2.00436, 66.4014, 0.013414, 113.864
1, 2820.00000, 124.115, -30.5923, 124.799, -150.438, 124.728, 89.4753, 0, 0, 2.01426, -53.6662, 2.00323, -173.512, 2.00436, 66.4014, 0.013414, 113.864
1, 2880.00000, 124.115, -30.5923, 124.799, -150.438, 124.728, 89.4753, 0, 0, 2.01426, -53.6662, 2.00323, -173.512, 2.00436, 66.4014, 0.013414, 113.864
1, 2940.00000, 124.115, -30.5923, 124.799, -150.438, 124.728, 89.4753, 0, 0, 2.01426, -53.6662, 2.00323, -173.512, 2.00436, 66.4014, 0.013414, 113.864
1, 3000.00000, 124.115, -30.5923, 124.799, -150.438, 124.728, 89.4753, 0, 0, 2.01426, -53.6662, 2.00323, -173.512, 2.00436, 66.4014, 0.013414, 113.864
1, 3060.00000, 124.115, -30.5923, 124.799, -150.438, 124.728, 89.4753, 0, 0, 2.01426, -53.6662, 2.00323, -173.512, 2.00436, 66.4014, 0.013414, 113.864
1, 3120.00000, 124.115, -30.5923, 124.799, -150.438, 124.728, 89.4753, 0, 0, 2.01426, -53.6662, 2.00323, -173.512, 2.00436, 66.4014, 0.013414, 113.864
1, 3180.00000, 124.115, -30.5923, 124.799, -150.438, 124.728, 89.4753, 0, 0, 2.01426, -53.6662, 2.00323, -173.512, 2.00436, 66.4014, 0.013414, 113.864
1, 3240.00000, 124.115, -30.5923, 124.799, -150.438, 124.728, 89.4753, 0, 0, 2.01426, -53.6662, 2.00323, -173.512, 2.00436, 66.4014, 0.013414, 113.864
1, 3300.00000, 124.115, -30.5923, 124.799, -150.438, 124.728, 89.4753, 0, 0, 2.01426, -53.6662, 2.00323, -173.512, 2.00436, 66.4014, 0.013414, 113.864
1, 3360.00000, 124.115, -30.5923, 124.799, -150.438, 124.728, 89.4753, 0, 0, 2.01426, -53.6662, 2.00323, -173.512, 2.00436, 66.4014, 0.013414, 113.864
1, 3420.00000, 124.115, -30.5923, 124.799, -150.438, 124.728, 89.4753, 0, 0, 2.01426, -53.6662, 2.00323, -173.512, 2.00436, 66.4014, 0.013414, 113.864
1, 3480.00000, 124.517, -30.5491, 124.794, -150.438, 124.854, 89.6414, 0, 0, 2.00781, -53.6236, 2.00328, -173.512, 2.00235, 66.5673, 0.00664392, 59.541
1, 3540.00000, 124.517, -30.549, 124.794, -150.438, 124.854, 89.6414, 0, 0, 2.00776, -53.6229, 2.0033, -173.512, 2.00233, 66.5675, 0.00662694, 59.0863
2, 0.00000, 124.517, -30.549, 124.794, -150.438, 124.854, 89.6414, 0, 0, 2.00776, -53.6229, 2.0033, -173.512, 2.00233, 66.5675, 0.00662688, 59.0845
2, 60.00000, 124.517, -30.549, 124.794, -150.438, 124.854, 89.6414, 0, 0, 2.00776, -53.6229, 2.0033, -173.512, 2.00233, 66.5675, 0.00662688, 59.0845
2, 120.00000, 124.508, -30.55, 124.787, -150.439, 124.846, 89.6406, 0, 0, 2.01345, -53.6239, 2.00896, -173.512, 2.008, 66.5667, 0.00665365, 59.1617
2, 180.00000, 124.499, -30.5511, 124.779, -150.439, 124.838, 89.6397, 0, 0, 2.01921, -53.6249, 2.01469, -173.513, 2.01373, 66.5659, 0.00667975, 59.2637
2, 240.00000, 124.49, -30.5521, 124.771, -150.44, 124.83, 89.6389, 0, 0, 2.02491, -53.6259, 2.02036, -173.514, 2.0194, 66.565, 0.00670557, 59.3651
2, 300.00000, 124.482, -30.5531, 124.763, -150.441, 124.822, 89.6381, 0, 0, 2.03061, -53.6269, 2.02603, -173.515, 2.02508, 66.5642, 0.00673147, 59.466
2, 360.00000, 124.473, -30.5541, 124.755, -150.442, 124.814, 89.6372, 0, 0, 2.03638, -53.628, 2.03177, -173.516, 2.03082, 66.5634, 0.00675776, 59.5676
2, 420.00000, 124.464, -30.5551, 124.747, -150.443, 124.806, 89.6364, 0, 0, 2.04208, -53.629, 2.03744, -173.517, 2.03649, 66.5625, 0.00678378, 59.6685
2, 480.00000, 124.455, -30.5561, 124.74, -150.444, 124.798, 89.6355, 0, 0, 2.04778, -53.63, 2.04312, -173.518, 2.04216, 66.5617, 0.00680987, 59.7689
2, 540.00000, 124.446, -30.5571, 124.732, -150.445, 124.789, 89.6347, 0, 0, 2.05355, -53.631, 2.04886, -173.518, 2.04791, 66.5609, 0.00683636, 59.87
2, 600.00000, 124.438, -30.5582, 124.724, -150.445, 124.781, 89.6339, 0, 0, 2.05926, -53.632, 2.05453, -173.519, 2.05358, 66.56, 0.00686258, 59.9704
2, 660.00000, 124.429, -30.5592, 124.716, -150.446, 124.773, 89.633, 0, 0, 2.06496, -53.633, 2.0602, -173.52, 2.05926, 66.5592, 0.00688887, 60.0702
2, 720.00000, 124.42, -30.5602, 124.708, -150.447, 124.765, 89.6322, 0, 0, 2.07073, -53.6341, 2.06595, -173.521, 2.065, 66.5583, 0.00691556, 60.1708
2, 780.00000, 124.411, -30.5612, 124.701, -150.448, 124.757, 89.6313, 0, 0, 2.07644, -53.6351, 2.07162, -173.522, 2.07068, 66.5575, 0.00694198, 60.2706
