hour,t(sec),V1,VAngle1,V2,VAngle2,V3,VAngle3,V4,VAngle4,I1,IAngle1,I2,IAngle2,I3,IAngle3,I4,IAngle4
0, 60.00000, 127.987, -31.3197, 126.982, -150.726, 128.691, 89.4034, 0, 0, 2.23781, -54.3931, 2.25555, -173.801, 2.22561, 66.3298, 0.0521146, 28.1856
0, 120.00000, 127.997, -31.3283, 126.982, -150.726, 128.714, 89.4027, 0, 0, 2.23765, -54.4018, 2.25555, -173.8, 2.22522, 66.3291, 0.0527604, 28.3478
0, 180.00000, 128.005, -31.3361, 126.982, -150.726, 128.734, 89.4021, 0, 0, 2.23751, -54.4096, 2.25555, -173.8, 2.22487, 66.3284, 0.0533421, 28.491
0, 240.00000, 128.012, -31.3431, 126.982, -150.726, 128.752, 89.4016, 0, 0, 2.23738, -54.4166, 2.25555, -173.8, 2.22456, 66.3279, 0.0538659, 28.6178
0, 300.00000, 128.019, -31.3494, 126.982, -150.726, 128.768, 89.4011, 0, 0, 2.23727, -54.423, 2.25555, -173.8, 2.22428, 66.3273, 0.0543377, 28.7304
0, 360.00000, 128.025, -31.355, 126.982, -150.726, 128.783, 89.4006, 0, 0, 2.23716, -54.4287, 2.25555, -173.8, 2.22402, 66.3269, 0.0547624, 28.8305
0, 420.00000, 128.03, -31.3601, 126.982, -150.726, 128.796, 89.4002, 0, 0, 2.23707, -54.4338, 2.25555, -173.8, 2.22379, 66.3264, 0.0551448, 28.9196
0, 480.00000, 128.035, -31.3647, 126.982, -150.726, 128.808, 89.3998, 0, 0, 2.23698, -54.4384, 2.25555, -173.8, 2.22359, 66.326, 0.0554892, 28.999
0, 540.00000, 128.039, -31.3689, 126.982, -150.726, 128.818, 89.3994, 0, 0, 2.23691, -54.4426, 2.25555, -173.8, 2.2234, 66.3257, 0.0557992, 29.0698
0, 600.00000, 128.043, -31.3726, 126.982, -150.726, 128.828, 89.3991, 0, 0, 2.23684, -54.4463, 2.25555, -173.8, 2.22323, 66.3253, 0.0560782, 29.1331
0, 660.00000, 128.047, -31.376, 126.982, -150.726, 128.837, 89.3988, 0, 0, 2.23678, -54.4497, 2.25555, -173.8, 2.22308, 66.3251, 0.0563295, 29.1896
0, 720.00000, 128.05, -31.379, 126.982, -150.726, 128.844, 89.3986, 0, 0, 2.23672, -54.4528, 2.25555, -173.8, 2.22295, 66.3248, 0.0565556, 29.2402
0, 780.00000, 128.053, -31.3817, 126.982, -150.726, 128.851, 89.3984, 0, 0, 2.23668, -54.4555, 2.25555, -173.8, 2.22283, 66.3245, 0.0567592, 29.2855
0, 840.00000, 128.055, -31.3842, 126.982, -150.726, 128.858, 89.3981, 0, 0, 2.23663, -54.458, 2.25555, -173.8, 2.22272, 66.3243, 0.0569425, 29.326
0, 900.00000, 128.058, -31.3864, 126.982, -150.726, 128.863, 89.3979, 0, 0, 2.23659, -54.4602, 2.25555, -173.8, 2.22262, 66.3241, 0.0571075, 29.3623
0, 960.00000, 127.91, -31.5628, 126.572, -150.767, 128.861, 89.3913, 0, 0, 2.23918, -54.6366, 2.26284, -173.841, 2.22265, 66.3175, 0.0695739, 28.6334
0, 1020.00000, 127.912, -31.5646, 126.572, -150.767, 128.866, 89.3911, 0, 0, 2.23914, -54.6384, 2.26284, -173.841, 2.22257, 66.3173, 0.0697056, 28.6594
0, 1080.00000, 127.913, -31.5662, 126.573, -150.767, 128.87, 89.391, 0, 0, 2.23912, -54.64, 2.26284, -173.841, 2.2225, 66.3171, 0.0698244, 28.683
0, 1140.00000, 127.915, -31.5676, 126.573, -150.767, 128.874, 89.3909, 0, 0, 2.23909, -54.6415, 2.26284, -173.841, 2.22243, 66.317, 0.0699314, 28.7042
0, 1200.00000, 127.916, -31.5689, 126.573, -150.767, 128.877, 89.3907, 0, 0, 2.23907, -54.6428, 2.26284, -173.841, 2.22237, 66.3169, 0.0700277, 28.7232
0, 1260.00000, 127.917, -31.5701, 126.573, -150.767, 128.88, 89.3906, 0, 0, 2.23905, -54.6439, 2.26284, -173.841, 2.22232, 66.3168, 0.0701144, 28.7403
0, 1320.00000, 127.918, -31.5711, 126.573, -150.767, 128.883, 89.3905, 0, 0, 2.23903, -54.645, 2.26284, -173.841, 2.22228, 66.3167, 0.0701924, 28.7557
0, 1380.00000, 127.919, -31.5721, 126.573, -150.767, 128.885, 89.3904, 0, 0, 2.23901, -54.6459, 2.26284, -173.841, 2.22223, 66.3166, 0.0702627, 28.7695
0, 1440.00000, 127.92, -31.5729, 126.573, -150.767, 128.888, 89.3904, 0, 0, 2.23899, -54.6468, 2.26284, -173.841, 2.22219, 66.3165, 0.0703259, 28.782
0, 1500.00000, 127.921, -31.5737, 126.573, -150.767, 128.89, 89.3903, 0, 0, 2.23898, -54.6476, 2.26284, -173.841, 2.22216, 66.3164, 0.0703827, 28.7931
0, 1560.00000, 127.922, -31.5744, 126.573, -150.767, 128.891, 89.3902, 0, 0, 2.23897, -54.6483, 2.26284, -173.841, 2.22213, 66.3163, 0.0704339, 28.8032
0, 1620.00000, 127.922, -31.575, 126.573, -150.767, 128.893, 89.3902, 0, 0, 2.23896, -54.6489, 2.26284, -173.841, 2.2221, 66.3163, 0.07048, 28.8122
0, 1680.00000, 127.923, -31.5756, 126.573, -150.767, 128.894, 89.3901, 0, 0, 2.23895, -54.6494, 2.26284, -173.841, 2.22208, 66.3162, 0.0705215, 28.8203
0, 1740.00000, 127.924, -31.5761, 126.573, -150.767, 128.896, 89.3901, 0, 0, 2.23894, -54.6499, 2.26284, -173.841, 2.22205, 66.3162, 0.0705588, 28.8276
0, 1800.00000, 127.924, -31.5765, 126.573, -150.767, 128.897, 89.39, 0, 0, 2.23893, -54.6504, 2.26284, -173.841, 2.22203, 66.3161, 0.0705924, 28.8341
0, 1860.00000, 127.924, -31.5769, 126.573, -150.767, 128.898, 89.39, 0, 0, 2.23892, -54.6508, 2.26284, -173.841, 2.22202, 66.3161, 0.0706227, 28.84
0, 1920.00000, 127.925, -31.5773, 126.573, -150.767, 128.899, 89.3899, 0, 0, 2.23892, -54.6512, 2.26284, -173.841, 2.222, 66.316, 0.0706499, 28.8454
0, 1980.00000, 127.925, -31.5776, 126.573, -150.767, 128.9, 89.3899, 0, 0, 2.23891, -54.6515, 2.26284, -173.841, 2.22198, 66.316, 0.0706744, 28.8501
0, 2040.00000, 127.925, -31.5779, 126.573, -150.767, 128.9, 89.3899, 0, 0, 2.23891, -54.6518, 2.26284, -173.841, 2.22197, 66.316, 0.0706964, 28.8544
0, 2100.00000, 127.926, -31.5782, 126.573, -150.767, 128.901, 89.3899, 0, 0, 2.2389, -54.6521, 2.26284, -173.841, 2.22196, 66.3159, 0.0707162, 28.8583
0, 2160.00000, 127.926, -31.5784, 126.573, -150.767, 128.902, 89.3898, 0, 0, 2.2389, -54.6523, 2.26284, -173.841, 2.22195, 66.3159, 0.0707341, 28.8618
0, 2220.00000, 127.926, -31.5786, 126.573, -150.767, 128.902, 89.3898, 0, 0, 2.23889, -54.6525, 2.26283, -173.841, 2.22194, 66.3159, 0.0707502, 28.8649
0, 2280.00000, 127.926, -31.5788, 126.573, -150.767, 128.903, 89.3898, 0, 0, 2.23889, -54.6527, 2.26283, -173.841, 2.22193, 66.3159, 0.0707646, 28.8677
0, 2340.00000, 127.927, -31.579, 126.573, -150.767, 128.903, 89.3898, 0, 0, 2.23889, -54.6529, 2.26283, -173.841, 2.22192, 66.3159, 0.0707777, 28.8702
0, 2400.00000, 127.927, -31.5792, 126.573, -150.767, 128.904, 89.3898, 0, 0, 2.23888, -54.6531, 2.26283, -173.841, 2.22192, 66.3158, 0.0707894, 28.8725
0, 2460.00000, 127.927, -31.5793, 126.573, -150.767, 128.904, 89.3897, 0, 0, 2.23888, -54.6532, 2.26283, -173.841, 2.22191, 66.3158, 0.0707999, 28.8746
0, 2520.00000, 127.927, -31.5794, 126.573, -150.767, 128.904, 89.3897, 0, 0, 2.23888, -54.6533, 2.26283, -173.841, 2.2219, 66.3158, 0.0708094, 28.8764
0, 2580.00000, 127.927, -31.5795, 126.573, -150.767, 128.905, 89.3897, 0, 0, 2.23888, -54.6535, 2.26283, -173.841, 2.2219, 66.3158, 0.0708179, 28.8781
0, 2640.00000, 127.927, -31.5796, 126.573, -150.767, 128.905, 89.3897, 0, 0, 2.23887, -54.6536, 2.26283, -173.841, 2.22189, 66.3158, 0.0708256, 28.8796
0, 2700.00000, 127.927, -31.5797, 126.573, -150.767, 128.905, 89.3897, 0, 0, 2.23887, -54.6536, 2.26283, -173.841, 2.22189, 66.3158, 0.0708326, 28.8809
0, 2760.00000, 127.927, -31.5798, 126.573, -150.767, 128.905, 89.3897, 0, 0, 2.23887, -54.6537, 2.26283, -173.841, 2.22189, 66.3158, 0.0708388, 28.8821
0, 2820.00000, 127.927, -31.5799, 126.573, -150.767, 128.906, 89.3897, 0, 0, 2.23887, -54.6538, 2.26283, -173.841, 2.22188, 66.3158, 0.0708444, 28.8832
0, 2880.00000, 127.928, -31.58, 126.573, -150.767, 128.906, 89.3897, 0, 0, 2.23887, -54.6539, 2.26283, -173.841, 2.22188, 66.3158, 0.0708494, 28.8842
0, 2940.00000, 127.928, -31.58, 126.573, -150.767, 128.906, 89.3897, 0, 0, 2.23887, -54.6539, 2.26283, -173.841, 2.22188, 66.3158, 0.070854, 28.8851
0, 3000.00000, 127.928, -31.5801, 126.573, -150.767, 128.906, 89.3897, 0, 0, 2.23887, -54.654, 2.26283, -173.841, 2.22187, 66.3158, 0.0708581, 28.8859
0, 3060.00000, 127.928, -31.5801, 126.573, -150.767, 128.906, 89.3897, 0, 0, 2.23887, -54.654, 2.26283, -173.841, 2.22187, 66.3158, 0.0708617, 28.8866
0, 3120.00000, 127.928, -31.5802, 126.573, -150.767, 128.906, 89.3897, 0, 0, 2.23887, -54.6541, 2.26283, -173.841, 2.22187, 66.3157, 0.070865, 28.8872
0, 3180.00000, 127.928, -31.5802, 126.573, -150.767, 128.906, 89.3897, 0, 0, 2.23886, -54.6541, 2.26283, -173.841, 2.22187, 66.3157, 0.070868, 28.8878
0, 3240.00000, 127.928, -31.5802, 126.573, -150.767, 128.907, 89.3897, 0, 0, 2.23886, -54.6542, 2.26283, -173.841, 2.22187, 66.3157, 0.0708707, 28.8883
0, 3300.00000, 127.928, -31.5803, 126.573, -150.767, 128.907, 89.3896, 0, 0, 2.23886, -54.6542, 2.26283, -173.841, 2.22186, 66.3157, 0.0708731, 28.8888
0, 3360.00000, 127.928, -31.5803, 126.573, -150.767, 128.907, 89.3896, 0, 0, 2.23886, -54.6542, 2.26283, -173.841, 2.22186, 66.3157, 0.0708753, 28.8892
0, 3420.00000, 127.928, -31.5803, 126.573, -150.767, 128.907, 89.3896, 0, 0, 2.23886, -54.6543, 2.26283, -173.841, 2.22186, 66.3157, 0.0708772, 28.8896
0, 3480.00000, 127.928, -31.5804, 126.573, -150.767, 128.907, 89.3896, 0, 0, 2.23886, -54.6543, 2.26283, -173.841, 2.22186, 66.3157, 0.070879, 28.8899
0, 3540.00000, 127.928, -31.5804, 126.573, -150.767, 128.907, 89.3896, 0, 0, 2.23886, -54.6543, 2.26283, -173.841, 2.22186, 66.3157, 0.0708806, 28.8902
1, 0.00000, 127.928, -31.5804, 126.573, -150.767, 128.907, 89.3896, 0, 0, 2.23886, -54.6543, 2.26283, -173.841, 2.22186, 66.3157, 0.070882, 28.8905
1, 60.00000, 127.928, -31.5804, 126.573, -150.767, 128.907, 89.3896, 0, 0, 2.23886, -54.6543, 2.26283, -173.841, 2.22186, 66.3157, 0.0708833, 28.8908
1, 120.00000, 127.928, -31.5804, 126.573, -150.767, 128.907, 89.3896, 0, 0, 2.23886, -54.6544, 2.26283, -173.841, 2.22186, 66.3157, 0.0708844, 28.891
1, 180.00000, 127.928, -31.5804, 126.573, -150.767, 128.907, 89.3896, 0, 0, 2.23886, -54.6544, 2.26283, -173.841, 2.22186, 66.3157, 0.0708855, 28.8912
1, 240.00000, 127.928, -31.5805, 126.573, -150.767, 128.907, 89.3896, 0, 0, 2.23886, -54.6544, 2.26283, -173.841, 2.22186, 66.3157, 0.0708864, 28.8914
1, 300.00000, 127.928, -31.5805, 126.573, -150.767, 128.907, 89.3896, 0, 0, 2.23886, -54.6544, 2.26283, -173.841, 2.22186, 66.3157, 0.0708873, 28.8915
1, 360.00000, 127.928, -31.5805, 126.573, -150.767, 128.907, 89.3896, 0, 0, 2.23886, -54.6544, 2.26283, -173.841, 2.22186, 66.3157, 0.070888, 28.8917
1, 420.00000, 127.928, -31.5805, 126.573, -150.767, 128.907, 89.3896, 0, 0, 2.23886, -54.6544, 2.26283, -173.841, 2.22186, 66.3157, 0.0708887, 28.8918
1, 480.00000, 127.928, -31.5805, 126.573, -150.767, 128.907, 89.3896, 0, 0, 2.23886, -54.6544, 2.26283, -173.841, 2.22185, 66.3157, 0.0708893, 28.8919
1, 540.00000, 127.928, -31.5805, 126.573, -150.767, 128.907, 89.3896, 0, 0, 2.23886, -54.6544, 2.26283, -173.841, 2.22185, 66.3157, 0.0708899, 28.892
1, 600.00000, 127.928, -31.5805, 126.573, -150.767, 128.907, 89.3896, 0, 0, 2.23886, -54.6544, 2.26283, -173.841, 2.22185, 66.3157, 0.0708904, 28.8921
1, 660.00000, 127.928, -31.5805, 126.573, -150.767, 128.907, 89.3896, 0, 0, 2.23886, -54.6544, 2.26283, -173.841, 2.22185, 66.3157, 0.0708908, 28.8922
1, 720.00000, 127.928, -31.5805, 126.573, -150.767, 128.907, 89.3896, 0, 0, 2.23886, -54.6544, 2.26283, -173.841, 2.22185, 66.3157, 0.0708912, 28.8923
1, 780.00000, 127.928, -31.5805, 126.573, -150.767, 128.907, 89.3896, 0, 0, 2.23886, -54.6544, 2.26283, -173.841, 2.22185, 66.3157, 0.0708916, 28.8924
1, 840.00000, 127.928, -31.5805, 126.573, -150.767, 128.907, 89.3896, 0, 0, 2.23886, -54.6544, 2.26283, -173.841, 2.22185, 66.3157, 0.0708919, 28.8924
1, 900.00000, 127.928, -31.5805, 126.573, -150.767, 128.907, 89.3896, 0, 0, 2.23886, -54.6545, 2.26283, -173.841, 2.22185, 66.3157, 0.0708922, 28.8925
1, 960.00000, 127.928, -31.5805, 126.573, -150.767, 128.907, 89.3896, 0, 0, 2.23886, -54.6545, 2.26283, -173.841, 2.22185, 66.3157, 0.0708924, 28.8926
1, 1020.00000, 127.928, -31.5805, 126.573, -150.767, 128.907, 89.3896, 0, 0, 2.23886, -54.6545, 2.26283, -173.841, 2.22185, 66.3157, 0.0708927, 28.8926
1, 1080.00000, 127.928, -31.5805, 126.573, -150.767, 128.907, 89.3896, 0, 0, 2.23886, -54.6545, 2.26283, -173.841, 2.22185, 66.3157, 0.0708929, 28.8926
1, 1140.00000, 127.928, -31.5805, 126.573, -150.767, 128.907, 89.3896, 0, 0, 2.23886, -54.6545, 2.26283, -173.841, 2.22185, 66.3157, 0.0708931, 28.8927
1, 1200.00000, 127.928, -31.5806, 126.573, -150.767, 128.907, 89.3896, 0, 0, 2.23886, -54.6545, 2.26283, -173.841, 2.22185, 66.3157, 0.0708933, 28.8927
1, 1260.00000, 127.928, -31.5806, 126.573, -150.767, 128.907, 89.3896, 0, 0, 2.23886, -54.6545, 2.26283, -173.841, 2.22185, 66.3157, 0.0708934, 28.8927
1, 1320.00000, 127.928, -31.5806, 126.573, -150.767, 128.907, 89.3896, 0, 0, 2.23886, -54.6545, 2.26283, -173.841, 2.22185, 66.3157, 0.0708936, 28.8928
1, 1380.00000, 127.928, -31.5806, 126.573, -150.767, 128.907, 89.3896, 0, 0, 2.23886, -54.6545, 2.26283, -173.841, 2.22185, 66.3157, 0.0708937, 28.8928
1, 1440.00000, 127.928, -31.5806, 126.573, -150.767, 128.907, 89.3896, 0, 0, 2.23886, -54.6545, 2.26283, -173.841, 2.22185, 66.3157, 0.0708938, 28.8928
1, 1500.00000, 127.928, -31.5806, 126.573, -150.767, 128.907, 89.3896, 0, 0, 2.23886, -54.6545, 2.26283, -173.841, 2.22185, 66.3157, 0.0708939, 28.8928
1, 1560.00000, 127.928, -31.5806, 126.573, -150.767, 128.907, 89.3896, 0, 0, 2.23886, -54.6545, 2.26283, -173.841, 2.22185, 66.3157, 0.070894, 28.8929
1, 1620.00000, 127.928, -31.5806, 126.573, -150.767, 128.907, 89.3896, 0, 0, 2.23886, -54.6545, 2.26283, -173.841, 2.22185, 66.3157, 0.0708941, 28.8929
1, 1680.00000, 127.928, -31.5806, 126.573, -150.767, 128.907, 89.3896, 0, 0, 2.23886, -54.6545, 2.26283, -173.841, 2.22185, 66.3157, 0.0708942, 28.8929
1, 1740.00000, 127.928, -31.5806, 126.573, -150.767, 128.907, 89.3896, 0, 0, 2.23886, -54.6545, 2.26283, -173.841, 2.22185, 66.3157, 0.0708942, 28.8929
1, 1800.00000, 127.928, -31.5806, 126.573, -150.767, 128.907, 89.3896, 0, 0, 2.23886, -54.6545, 2.26283, -173.841, 2.22185, 66.3157, 0.0708943, 28.8929
1, 1860.00000, 127.928, -31.5806, 126.573, -150.767, 128.907, 89.3896, 0, 0, 2.23886, -54.6545, 2.26283, -173.841, 2.22185, 66.3157, 0.0708943, 28.8929
1, 1920.00000, 127.928, -31.5806, 126.573, -150.767, 128.907, 89.3896, 0, 0, 2.23886, -54.6545, 2.26283, -173.841, 2.22185, 66.3157, 0.0708944, 28.8929
1, 1980.00000, 127.928, -31.5806, 126.573, -150.767, 128.907, 89.3896, 0, 0, 2.23886, -54.6545, 2.26283, -173.841, 2.22185, 66.3157, 0.0708944, 28.8929
1, 2040.00000, 127.928, -31.5806, 126.573, -150.767, 128.907, 89.3896, 0, 0, 2.23886, -54.6545, 2.26283, -173.841, 2.22185, 66.3157, 0.0708945, 28.8929
1, 2100.00000, 127.928, -31.5806, 126.573, -150.767, 128.907, 89.3896, 0, 0, 2.23886, -54.6545, 2.26283, -173.841, 2.22185, 66.3157, 0.0708945, 28.893
1, 2160.00000, 127.928, -31.5806, 126.573, -150.767, 128.907, 89.3896, 0, 0, 2.23886, -54.6545, 2.26283, -173.841, 2.22185, 66.3157, 0.0708945, 28.893
1, 2220.00000, 127.928, -31.5806, 126.573, -150.767, 128.907, 89.3896, 0, 0, 2.23886, -54.6545, 2.26283, -173.841, 2.22185, 66.3157, 0.0708946, 28.893
1, 2280.00000, 127.928, -31.5806, 126.573, -150.767, 128.907, 89.3896, 0, 0, 2.23886, -54.6545, 2.26283, -173.841, 2.22185, 66.3157, 0.0708946, 28.893
1, 2340.00000, 127.928, -31.5806, 126.573, -150.767, 128.907, 89.3896, 0, 0, 2.23886, -54.6545, 2.26283, -173.841, 2.22185, 66.3157, 0.0708946, 28.893
1, 2400.00000, 127.928, -31.5806, 126.573, -150.767, 128.907, 89.3896, 0, 0, 2.23886, -54.6545, 2.26283, -173.841, 2.22185, 66.3157, 0.0708946, 28.893
1, 2460.00000, 127.928, -31.5806, 126.573, -150.767, 128.907, 89.3896, 0, 0, 2.23886, -54.6545, 2.26283, -173.841, 2.22185, 66.3157, 0.0708947, 28.893
1, 2520.00000, 128.078, -31.4063, 126.982, -150.726, 128.914, 89.3962, 0, 0, 2.23623, -54.4802, 2.25554, -173.8, 2.22173, 66.3223, 0.0585929, 29.682
1, 2580.00000, 128.078, -31.4063, 126.982, -150.726, 128.914, 89.3962, 0, 0, 2.23623, -54.4802, 2.25554, -173.8, 2.22173, 66.3223, 0.0585933, 29.6823
1, 2640.00000, 128.078, -31.4063, 126.982, -150.726, 128.914, 89.3962, 0, 0, 2.23623, -54.4802, 2.25554, -173.8, 2.22173, 66.3223, 0.0585933, 29.6823
1, 2700.00000, 128.078, -31.4063, 126.982, -150.726, 128.914, 89.3962, 0, 0, 2.23623, -54.4802, 2.25554, -173.8, 2.22173, 66.3223, 0.0585933, 29.6823
1, 2760.00000, 128.076, -31.4113, 127.103, -150.56, 129.307, 89.434, 0, 0, 2.23627, -54.4852, 2.25339, -173.634, 2.21498, 66.3601, 0.0664051, 38.1307
1, 2820.00000, 128.076, -31.4113, 127.103, -150.56, 129.307, 89.434, 0, 0, 2.23628, -54.4852, 2.25339, -173.634, 2.21498, 66.3601, 0.066405, 38.1309
1, 2880.00000, 128.076, -31.4113, 127.103, -150.56, 129.307, 89.434, 0, 0, 2.23628, -54.4852, 2.25339, -173.634, 2.21498, 66.3601, 0.066405, 38.1309
1, 2940.00000, 128.076, -31.4113, 127.103, -150.56, 129.307, 89.434, 0, 0, 2.23628, -54.4852, 2.25339, -173.634, 2.21498, 66.3601, 0.066405, 38.1309
1, 3000.00000, 128.076, -31.4113, 127.103, -150.56, 129.307, 89.434, 0, 0, 2.23628, -54.4852, 2.25339, -173.634, 2.21498, 66.3601, 0.066405, 38.1309
1, 3060.00000, 128.076, -31.4113, 127.103, -150.56, 129.307, 89.434, 0, 0, 2.23628, -54.4852, 2.25339, -173.634, 2.21498, 66.3601, 0.066405, 38.1309
1, 3120.00000, 128.076, -31.4113, 127.103, -150.56, 129.307, 89.434, 0, 0, 2.23628, -54.4852, 2.25339, -173.634, 2.21498, 66.3601, 0.0664051, 38.1309
1, 3180.00000, 128.076, -31.4113, 127.103, -150.56, 129.307, 89.434, 0, 0, 2.23628, -54.4852, 2.25339, -173.634, 2.21498, 66.3601, 0.0664051, 38.1309
1, 3240.00000, 128.076, -31.4113, 127.103, -150.56, 129.307, 89.434, 0, 0, 2.23628, -54.4852, 2.25339, -173.634, 2.21498, 66.3601, 0.0664051, 38.1309
1, 3300.00000, 128.076, -31.4113, 127.103, -150.56, 129.307, 89.434, 0, 0, 2.23628, -54.4852, 2.25339, -173.634, 2.21498, 66.3601, 0.0664051, 38.1309
1, 3360.00000, 128.076, -31.4113, 127.103, -150.56, 129.307, 89.434, 0, 0, 2.23628, -54.4852, 2.25339, -173.634, 2.21498, 66.3601, 0.0664051, 38.1309
1, 3420.00000, 128.076, -31.4113, 127.103, -150.56, 129.307, 89.434, 0, 0, 2.23628, -54.4852, 2.25339, -173.634, 2.21498, 66.3601, 0.0664051, 38.1309
1, 3480.00000, 128.076, -31.4113, 127.103, -150.56, 129.307, 89.434, 0, 0, 2.23628, -54.4852, 2.25339, -173.634, 2.21498, 66.3601, 0.0664051, 38.1309
1, 3540.00000, 128.076, -31.4113, 127.103, -150.56, 129.307, 89.434, 0, 0, 2.23628, -54.4852, 2.25339, -173.634, 2.21498, 66.3601, 0.0664051, 38.1309
2, 0.00000, 128.076, -31.4113, 127.103, -150.56, 129.307, 89.434, 0, 0, 2.23628, -54.4852, 2.25339, -173.634, 2.21498, 66.3601, 0.0664051, 38.1309
2, 60.00000, 128.076, -31.4113, 127.103, -150.56, 129.307, 89.434, 0, 0, 2.23628, -54.4852, 2.25339, -173.634, 2.21498, 66.3601, 0.0664051, 38.1309
2, 120.00000, 128.072, -31.4123, 127.1, -150.561, 129.304, 89.4329, 0, 0, 2.24253, -54.4863, 2.25969, -173.635, 2.22117, 66.359, 0.0665893, 38.1314
2, 180.00000, 128.068, -31.4134, 127.096, -150.562, 129.3, 89.4319, 0, 0, 2.24886, -54.4873, 2.26606, -173.636, 2.22744, 66.3579, 0.0667757, 38.1319
2, 240.00000, 128.064, -31.4144, 127.092, -150.563, 129.296, 89.4308, 0, 0, 2.25512, -54.4884, 2.27236, -173.637, 2.23363, 66.3569, 0.0669599, 38.1324
2, 300.00000, 128.06, -31.4155, 127.089, -150.565, 129.293, 89.4298, 0, 0, 2.26137, -54.4894, 2.27866, -173.638, 2.23982, 66.3558, 0.0671441, 38.1328
2, 360.00000, 128.056, -31.4165, 127.085, -150.566, 129.289, 89.4287, 0, 0, 2.26771, -54.4905, 2.28504, -173.64, 2.24609, 66.3548, 0.0673306, 38.1333
2, 420.00000, 128.052, -31.4176, 127.081, -150.567, 129.285, 89.4276, 0, 0, 2.27396, -54.4915, 2.29134, -173.641, 2.25228, 66.3537, 0.0675148, 38.1338
2, 480.00000, 128.049, -31.4186, 127.078, -150.568, 129.281, 89.4266, 0, 0, 2.28022, -54.4926, 2.29764, -173.642, 2.25848, 66.3527, 0.067699, 38.1342
2, 540.00000, 128.045, -31.4197, 127.074, -150.569, 129.278, 89.4255, 0, 0, 2.28655, -54.4936, 2.30402, -173.643, 2.26475, 66.3516, 0.0678854, 38.1347
2, 600.00000, 128.041, -31.4208, 127.07, -150.57, 129.274, 89.4245, 0, 0, 2.29281, -54.4947, 2.31032, -173.644, 2.27094, 66.3505, 0.0680697, 38.1352
2, 660.00000, 128.037, -31.4218, 127.067, -150.571, 129.27, 89.4234, 0, 0, 2.29907, -54.4957, 2.31663, -173.645, 2.27714, 66.3495, 0.0682539, 38.1357
2, 720.00000, 128.033, -31.4229, 127.063, -150.572, 129.266, 89.4223, 0, 0, 2.30541, -54.4968, 2.32301, -173.646, 2.28341, 66.3484, 0.0684403, 38.1361
