hour,t(sec),V1,VAngle1,V2,VAngle2,V3,VAngle3,V4,VAngle4,I1,IAngle1,I2,IAngle2,I3,IAngle3,I4,IAngle4
0, 60.00000, 127.654, -31.3537, 127.135, -150.56, 128.981, 89.2848, 0, 0, 2.21726, -54.4272, 2.22632, -173.634, 2.19448, 66.211, 0.0565545, 48.4073
0, 120.00000, 127.663, -31.3622, 127.135, -150.56, 129.003, 89.2841, 0, 0, 2.2171, -54.4357, 2.22632, -173.634, 2.19411, 66.2104, 0.0571907, 48.3186
0, 180.00000, 127.672, -31.3699, 127.135, -150.56, 129.023, 89.2836, 0, 0, 2.21696, -54.4434, 2.22632, -173.634, 2.19377, 66.2098, 0.0577636, 48.2409
0, 240.00000, 127.679, -31.3768, 127.135, -150.56, 129.04, 89.283, 0, 0, 2.21683, -54.4503, 2.22632, -173.634, 2.19347, 66.2093, 0.0582796, 48.1727
0, 300.00000, 127.686, -31.383, 127.135, -150.56, 129.056, 89.2825, 0, 0, 2.21672, -54.4566, 2.22632, -173.634, 2.1932, 66.2088, 0.0587442, 48.1129
0, 360.00000, 127.691, -31.3886, 127.135, -150.56, 129.07, 89.2821, 0, 0, 2.21662, -54.4622, 2.22632, -173.634, 2.19295, 66.2083, 0.0591626, 48.0602
0, 420.00000, 127.697, -31.3936, 127.135, -150.56, 129.083, 89.2817, 0, 0, 2.21653, -54.4673, 2.22632, -173.634, 2.19273, 66.2079, 0.0595393, 48.0136
0, 480.00000, 127.702, -31.3982, 127.135, -150.56, 129.095, 89.2813, 0, 0, 2.21644, -54.4718, 2.22632, -173.634, 2.19253, 66.2075, 0.0598785, 47.9725
0, 540.00000, 127.706, -31.4023, 127.135, -150.56, 129.105, 89.281, 0, 0, 2.21637, -54.476, 2.22632, -173.634, 2.19236, 66.2072, 0.0601839, 47.936
0, 600.00000, 127.71, -31.4059, 127.135, -150.56, 129.115, 89.2807, 0, 0, 2.2163, -54.4797, 2.22632, -173.634, 2.1922, 66.2069, 0.0604588, 47.9037
0, 660.00000, 127.713, -31.4092, 127.135, -150.56, 129.123, 89.2804, 0, 0, 2.21624, -54.483, 2.22632, -173.634, 2.19205, 66.2066, 0.0607063, 47.8749
0, 720.00000, 127.716, -31.4122, 127.135, -150.56, 129.131, 89.2802, 0, 0, 2.21619, -54.486, 2.22632, -173.634, 2.19192, 66.2064, 0.0609291, 47.8493
0, 780.00000, 127.719, -31.4149, 127.135, -150.56, 129.138, 89.28, 0, 0, 2.21614, -54.4887, 2.22632, -173.634, 2.1918, 66.2061, 0.0611296, 47.8266
0, 840.00000, 127.722, -31.4173, 127.135, -150.56, 129.144, 89.2798, 0, 0, 2.21609, -54.4911, 2.22632, -173.634, 2.1917, 66.2059, 0.0613102, 47.8063
0, 900.00000, 127.724, -31.4195, 127.135, -150.56, 129.149, 89.2796, 0, 0, 2.21605, -54.4933, 2.22632, -173.633, 2.1916, 66.2057, 0.0614727, 47.7881
0, 960.00000, 127.726, -31.4215, 127.135, -150.56, 129.154, 89.2794, 0, 0, 2.21602, -54.4953, 2.22632, -173.633, 2.19152, 66.2056, 0.061619, 47.7719
0, 1020.00000, 127.728, -31.4232, 127.135, -150.56, 129.159, 89.2793, 0, 0, 2.21599, -54.4971, 2.22632, -173.633, 2.19144, 66.2054, 0.0617506, 47.7575
0, 1080.00000, 127.729, -31.4248, 127.135, -150.56, 129.163, 89.2791, 0, 0, 2.21596, -54.4987, 2.22632, -173.633, 2.19137, 66.2053, 0.0618692, 47.7445
0, 1140.00000, 127.731, -31.4263, 127.135, -150.56, 129.167, 89.279, 0, 0, 2.21593, -54.5001, 2.22632, -173.633, 2.19131, 66.2051, 0.0619758, 47.7329
0, 1200.00000, 127.732, -31.4275, 127.135, -150.56, 129.17, 89.2789, 0, 0, 2.21591, -54.5014, 2.22632, -173.633, 2.19125, 66.205, 0.0620719, 47.7225
0, 1260.00000, 127.734, -31.4287, 127.135, -150.56, 129.173, 89.2788, 0, 0, 2.21589, -54.5026, 2.22632, -173.633, 2.1912, 66.2049, 0.0621583, 47.7132
0, 1320.00000, 127.735, -31.4297, 127.135, -150.56, 129.176, 89.2787, 0, 0, 2.21587, -54.5036, 2.22632, -173.633, 2.19116, 66.2048, 0.0622361, 47.7049
0, 1380.00000, 127.736, -31.4307, 127.135, -150.56, 129.178, 89.2786, 0, 0, 2.21585, -54.5046, 2.22632, -173.633, 2.19112, 66.2047, 0.0623061, 47.6974
0, 1440.00000, 127.736, -31.4315, 127.135, -150.56, 129.18, 89.2786, 0, 0, 2.21584, -54.5054, 2.22632, -173.633, 2.19108, 66.2047, 0.0623691, 47.6907
0, 1500.00000, 127.737, -31.4323, 127.135, -150.56, 129.182, 89.2785, 0, 0, 2.21582, -54.5062, 2.22632, -173.633, 2.19105, 66.2046, 0.0624259, 47.6847
0, 1560.00000, 127.738, -31.433, 127.135, -150.56, 129.184, 89.2784, 0, 0, 2.21581, -54.5069, 2.22632, -173.633, 2.19102, 66.2045, 0.0624769, 47.6793
0, 1620.00000, 127.739, -31.4336, 127.135, -150.56, 129.185, 89.2784, 0, 0, 2.2158, -54.5075, 2.22632, -173.633, 2.19099, 66.2045, 0.0625229, 47.6744
0, 1680.00000, 127.739, -31.4341, 127.135, -150.56, 129.187, 89.2783, 0, 0, 2.21579, -54.508, 2.22632, -173.633, 2.19096, 66.2044, 0.0625642, 47.6701
0, 1740.00000, 127.74, -31.4346, 127.135, -150.56, 129.188, 89.2783, 0, 0, 2.21578, -54.5085, 2.22632, -173.633, 2.19094, 66.2044, 0.0626014, 47.6662
0, 1800.00000, 127.74, -31.4351, 127.135, -150.56, 129.189, 89.2782, 0, 0, 2.21577, -54.509, 2.22632, -173.633, 2.19092, 66.2043, 0.0626349, 47.6627
0, 1860.00000, 127.741, -31.4355, 127.135, -150.56, 129.19, 89.2782, 0, 0, 2.21577, -54.5094, 2.22632, -173.633, 2.19091, 66.2043, 0.0626651, 47.6595
0, 1920.00000, 127.741, -31.4359, 127.135, -150.56, 129.191, 89.2782, 0, 0, 2.21576, -54.5098, 2.22632, -173.633, 2.19089, 66.2043, 0.0626922, 47.6567
0, 1980.00000, 127.741, -31.4362, 127.135, -150.56, 129.192, 89.2782, 0, 0, 2.21575, -54.5101, 2.22632, -173.633, 2.19088, 66.2042, 0.0627167, 47.6541
0, 2040.00000, 127.742, -31.4365, 127.135, -150.56, 129.193, 89.2781, 0, 0, 2.21575, -54.5104, 2.22632, -173.633, 2.19086, 66.2042, 0.0627386, 47.6518
0, 2100.00000, 127.742, -31.4368, 127.135, -150.56, 129.193, 89.2781, 0, 0, 2.21574, -54.5107, 2.22632, -173.633, 2.19085, 66.2042, 0.0627584, 47.6497
0, 2160.00000, 127.742, -31.437, 127.135, -150.56, 129.194, 89.2781, 0, 0, 2.21574, -54.5109, 2.22632, -173.633, 2.19084, 66.2042, 0.0627762, 47.6479
0, 2220.00000, 127.742, -31.4372, 127.135, -150.56, 129.195, 89.2781, 0, 0, 2.21574, -54.5111, 2.22632, -173.633, 2.19083, 66.2042, 0.0627923, 47.6462
0, 2280.00000, 127.743, -31.4374, 127.135, -150.56, 129.195, 89.278, 0, 0, 2.21573, -54.5113, 2.22632, -173.633, 2.19082, 66.2041, 0.0628067, 47.6447
0, 2340.00000, 127.743, -31.4376, 127.135, -150.56, 129.196, 89.278, 0, 0, 2.21573, -54.5115, 2.22632, -173.633, 2.19082, 66.2041, 0.0628197, 47.6434
0, 2400.00000, 127.743, -31.4377, 127.135, -150.56, 129.196, 89.278, 0, 0, 2.21573, -54.5116, 2.22632, -173.633, 2.19081, 66.2041, 0.0628314, 47.6422
0, 2460.00000, 127.743, -31.4379, 127.135, -150.56, 129.196, 89.278, 0, 0, 2.21572, -54.5118, 2.22632, -173.633, 2.1908, 66.2041, 0.0628419, 47.6411
0, 2520.00000, 127.743, -31.438, 127.135, -150.56, 129.197, 89.278, 0, 0, 2.21572, -54.5119, 2.22632, -173.633, 2.1908, 66.2041, 0.0628513, 47.6401
0, 2580.00000, 127.743, -31.4381, 127.135, -150.56, 129.197, 89.278, 0, 0, 2.21572, -54.512, 2.22632, -173.633, 2.19079, 66.2041, 0.0628599, 47.6392
0, 2640.00000, 127.743, -31.4382, 127.135, -150.56, 129.197, 89.278, 0, 0, 2.21572, -54.5121, 2.22632, -173.633, 2.19079, 66.2041, 0.0628675, 47.6384
0, 2700.00000, 127.744, -31.4383, 127.135, -150.56, 129.197, 89.278, 0, 0, 2.21572, -54.5122, 2.22632, -173.633, 2.19078, 66.204, 0.0628744, 47.6377
0, 2760.00000, 127.744, -31.4384, 127.135, -150.56, 129.198, 89.278, 0, 0, 2.21572, -54.5123, 2.22632, -173.633, 2.19078, 66.204, 0.0628806, 47.6371
0, 2820.00000, 127.744, -31.4385, 127.135, -150.56, 129.198, 89.278, 0, 0, 2.21571, -54.5124, 2.22632, -173.633, 2.19078, 66.204, 0.0628862, 47.6365
0, 2880.00000, 127.744, -31.4385, 127.135, -150.56, 129.198, 89.2779, 0, 0, 2.21571, -54.5124, 2.22632, -173.633, 2.19077, 66.204, 0.0628912, 47.636
0, 2940.00000, 127.744, -31.4386, 127.135, -150.56, 129.198, 89.2779, 0, 0, 2.21571, -54.5125, 2.22632, -173.633, 2.19077, 66.204, 0.0628958, 47.6355
0, 3000.00000, 127.744, -31.4387, 127.135, -150.56, 129.198, 89.2779, 0, 0, 2.21571, -54.5126, 2.22632, -173.633, 2.19077, 66.204, 0.0628999, 47.6351
0, 3060.00000, 127.744, -31.4387, 127.135, -150.56, 129.198, 89.2779, 0, 0, 2.21571, -54.5126, 2.22632, -173.633, 2.19077, 66.204, 0.0629035, 47.6347
0, 3120.00000, 127.744, -31.4387, 127.135, -150.56, 129.198, 89.2779, 0, 0, 2.21571, -54.5127, 2.22632, -173.633, 2.19076, 66.204, 0.0629068, 47.6343
0, 3180.00000, 127.744, -31.4388, 127.135, -150.56, 129.199, 89.2779, 0, 0, 2.21571, -54.5127, 2.22632, -173.633, 2.19076, 66.204, 0.0629098, 47.634
0, 3240.00000, 127.744, -31.4388, 127.135, -150.56, 129.199, 89.2779, 0, 0, 2.21571, -54.5127, 2.22632, -173.633, 2.19076, 66.204, 0.0629125, 47.6338
0, 3300.00000, 127.744, -31.4389, 127.135, -150.56, 129.199, 89.2779, 0, 0, 2.21571, -54.5128, 2.22632, -173.633, 2.19076, 66.204, 0.0629149, 47.6335
0, 3360.00000, 127.744, -31.4389, 127.135, -150.56, 129.199, 89.2779, 0, 0, 2.21571, -54.5128, 2.22632, -173.633, 2.19076, 66.204, 0.062917, 47.6333
0, 3420.00000, 127.744, -31.4389, 127.135, -150.56, 129.199, 89.2779, 0, 0, 2.21571, -54.5128, 2.22632, -173.633, 2.19076, 66.204, 0.062919, 47.6331
0, 3480.00000, 127.744, -31.4389, 127.135, -150.56, 129.199, 89.2779, 0, 0, 2.21571, -54.5128, 2.22632, -173.633, 2.19076, 66.204, 0.0629207, 47.6329
0, 3540.00000, 127.744, -31.439, 127.135, -150.56, 129.199, 89.2779, 0, 0, 2.21571, -54.5129, 2.22632, -173.633, 2.19076, 66.204, 0.0629223, 47.6327
1, 0.00000, 127.744, -31.439, 127.135, -150.56, 129.199, 89.2779, 0, 0, 2.21571, -54.5129, 2.22632, -173.633, 2.19075, 66.204, 0.0629237, 47.6326
1, 60.00000, 127.744, -31.439, 127.135, -150.56, 129.199, 89.2779, 0, 0, 2.2157, -54.5129, 2.22632, -173.633, 2.19075, 66.204, 0.062925, 47.6325
1, 120.00000, 127.744, -31.439, 127.135, -150.56, 129.199, 89.2779, 0, 0, 2.2157, -54.5129, 2.22632, -173.633, 2.19075, 66.204, 0.0629262, 47.6323
1, 180.00000, 127.744, -31.439, 127.135, -150.56, 129.199, 89.2779, 0, 0, 2.2157, -54.5129, 2.22632, -173.633, 2.19075, 66.204, 0.0629272, 47.6322
1, 240.00000, 127.744, -31.439, 127.135, -150.56, 129.199, 89.2779, 0, 0, 2.2157, -54.5129, 2.22632, -173.633, 2.19075, 66.204, 0.0629281, 47.6321
1, 300.00000, 127.744, -31.439, 127.135, -150.56, 129.199, 89.2779, 0, 0, 2.2157, -54.513, 2.22632, -173.633, 2.19075, 66.204, 0.062929, 47.6321
1, 360.00000, 127.744, -31.4391, 127.135, -150.56, 129.199, 89.2779, 0, 0, 2.2157, -54.513, 2.22632, -173.633, 2.19075, 66.204, 0.0629297, 47.632
1, 420.00000, 127.744, -31.4391, 127.135, -150.56, 129.199, 89.2779, 0, 0, 2.2157, -54.513, 2.22632, -173.633, 2.19075, 66.204, 0.0629304, 47.6319
1, 480.00000, 127.744, -31.4391, 127.135, -150.56, 129.199, 89.2779, 0, 0, 2.2157, -54.513, 2.22632, -173.633, 2.19075, 66.204, 0.062931, 47.6318
1, 540.00000, 127.744, -31.4391, 127.135, -150.56, 129.199, 89.2779, 0, 0, 2.2157, -54.513, 2.22632, -173.633, 2.19075, 66.204, 0.0629316, 47.6318
1, 600.00000, 127.744, -31.4391, 127.135, -150.56, 129.199, 89.2779, 0, 0, 2.2157, -54.513, 2.22632, -173.633, 2.19075, 66.204, 0.0629321, 47.6317
1, 660.00000, 127.744, -31.4391, 127.135, -150.56, 129.199, 89.2779, 0, 0, 2.2157, -54.513, 2.22632, -173.633, 2.19075, 66.204, 0.0629325, 47.6317
1, 720.00000, 127.744, -31.4391, 127.135, -150.56, 129.199, 89.2779, 0, 0, 2.2157, -54.513, 2.22632, -173.633, 2.19075, 66.204, 0.0629329, 47.6316
1, 780.00000, 127.744, -31.4391, 127.135, -150.56, 129.199, 89.2779, 0, 0, 2.2157, -54.513, 2.22632, -173.633, 2.19075, 66.204, 0.0629333, 47.6316
1, 840.00000, 127.744, -31.4391, 127.135, -150.56, 129.199, 89.2779, 0, 0, 2.2157, -54.513, 2.22632, -173.633, 2.19075, 66.204, 0.0629336, 47.6316
1, 900.00000, 127.744, -31.4391, 127.135, -150.56, 129.199, 89.2779, 0, 0, 2.2157, -54.513, 2.22632, -173.633, 2.19075, 66.204, 0.0629339, 47.6315
1, 960.00000, 127.744, -31.4391, 127.135, -150.56, 129.199, 89.2779, 0, 0, 2.2157, -54.513, 2.22632, -173.633, 2.19075, 66.204, 0.0629341, 47.6315
1, 1020.00000, 127.744, -31.4391, 127.135, -150.56, 129.199, 89.2779, 0, 0, 2.2157, -54.513, 2.22632, -173.633, 2.19075, 66.204, 0.0629344, 47.6315
1, 1080.00000, 127.744, -31.4391, 127.135, -150.56, 129.199, 89.2779, 0, 0, 2.2157, -54.513, 2.22632, -173.633, 2.19075, 66.204, 0.0629346, 47.6315
1, 1140.00000, 127.744, -31.4391, 127.135, -150.56, 129.199, 89.2779, 0, 0, 2.2157, -54.513, 2.22632, -173.633, 2.19075, 66.204, 0.0629348, 47.6315
1, 1200.00000, 127.744, -31.4391, 127.135, -150.56, 129.199, 89.2779, 0, 0, 2.2157, -54.513, 2.22632, -173.633, 2.19075, 66.204, 0.062935, 47.6314
1, 1260.00000, 127.744, -31.4391, 127.135, -150.56, 129.199, 89.2779, 0, 0, 2.2157, -54.513, 2.22632, -173.633, 2.19075, 66.204, 0.0629351, 47.6314
1, 1320.00000, 127.744, -31.4391, 127.135, -150.56, 129.199, 89.2779, 0, 0, 2.2157, -54.513, 2.22632, -173.633, 2.19075, 66.204, 0.0629353, 47.6314
1, 1380.00000, 127.744, -31.4391, 127.135, -150.56, 129.199, 89.2779, 0, 0, 2.2157, -54.513, 2.22632, -173.633, 2.19075, 66.204, 0.0629354, 47.6314
1, 1440.00000, 127.744, -31.4391, 127.135, -150.56, 129.199, 89.2779, 0, 0, 2.2157, -54.513, 2.22632, -173.633, 2.19075, 66.204, 0.0629355, 47.6314
1, 1500.00000, 127.744, -31.4391, 127.135, -150.56, 129.199, 89.2779, 0, 0, 2.2157, -54.513, 2.22632, -173.633, 2.19075, 66.204, 0.0629356, 47.6314
1, 1560.00000, 127.744, -31.4391, 127.135, -150.56, 129.199, 89.2779, 0, 0, 2.2157, -54.5131, 2.22632, -173.633, 2.19075, 66.204, 0.0629357, 47.6314
1, 1620.00000, 127.744, -31.4391, 127.135, -150.56, 129.199, 89.2779, 0, 0, 2.2157, -54.5131, 2.22632, -173.633, 2.19075, 66.204, 0.0629358, 47.6314
1, 1680.00000, 127.744, -31.4391, 127.135, -150.56, 129.199, 89.2779, 0, 0, 2.2157, -54.5131, 2.22632, -173.633, 2.19075, 66.204, 0.0629358, 47.6313
1, 1740.00000, 127.744, -31.4391, 127.135, -150.56, 129.199, 89.2779, 0, 0, 2.2157, -54.5131, 2.22632, -173.633, 2.19075, 66.204, 0.0629359, 47.6313
1, 1800.00000, 127.744, -31.4391, 127.135, -150.56, 129.199, 89.2779, 0, 0, 2.2157, -54.5131, 2.22632, -173.633, 2.19075, 66.204, 0.062936, 47.6313
1, 1860.00000, 127.744, -31.4391, 127.135, -150.56, 129.199, 89.2779, 0, 0, 2.2157, -54.5131, 2.22632, -173.633, 2.19075, 66.204, 0.062936, 47.6313
1, 1920.00000, 127.744, -31.4391, 127.135, -150.56, 129.199, 89.2779, 0, 0, 2.2157, -54.5131, 2.22632, -173.633, 2.19075, 66.204, 0.0629361, 47.6313
1, 1980.00000, 127.744, -31.4391, 127.135, -150.56, 129.199, 89.2779, 0, 0, 2.2157, -54.5131, 2.22632, -173.633, 2.19075, 66.204, 0.0629361, 47.6313
1, 2040.00000, 127.744, -31.4391, 127.135, -150.56, 129.199, 89.2779, 0, 0, 2.2157, -54.5131, 2.22632, -173.633, 2.19075, 66.204, 0.0629362, 47.6313
1, 2100.00000, 127.744, -31.4391, 127.135, -150.56, 129.199, 89.2779, 0, 0, 2.2157, -54.5131, 2.22632, -173.633, 2.19075, 66.204, 0.0629362, 47.6313
1, 2160.00000, 127.744, -31.4391, 127.135, -150.56, 129.199, 89.2779, 0, 0, 2.2157, -54.5131, 2.22632, -173.633, 2.19075, 66.204, 0.0629362, 47.6313
1, 2220.00000, 127.744, -31.4391, 127.135, -150.56, 129.199, 89.2779, 0, 0, 2.2157, -54.5131, 2.22632, -173.633, 2.19075, 66.204, 0.0629363, 47.6313
1, 2280.00000, 127.744, -31.4391, 127.135, -150.56, 129.199, 89.2779, 0, 0, 2.2157, -54.5131, 2.22632, -173.633, 2.19075, 66.204, 0.0629363, 47.6313
1, 2340.00000, 127.744, -31.4391, 127.135, -150.56, 129.199, 89.2779, 0, 0, 2.2157, -54.5131, 2.22632, -173.633, 2.19075, 66.204, 0.0629363, 47.6313
1, 2400.00000, 127.744, -31.4391, 127.135, -150.56, 129.2, 89.2779, 0, 0, 2.2157, -54.5131, 2.22632, -173.633, 2.19075, 66.204, 0.0629363, 47.6313
1, 2460.00000, 127.744, -31.4391, 127.135, -150.56, 129.2, 89.2779, 0, 0, 2.2157, -54.5131, 2.22632, -173.633, 2.19075, 66.204, 0.0629363, 47.6313
1, 2520.00000, 127.744, -31.4391, 127.135, -150.56, 129.2, 89.2779, 0, 0, 2.2157, -54.5131, 2.22632, -173.633, 2.19075, 66.204, 0.0629364, 47.6313
1, 2580.00000, 127.744, -31.4391, 127.135, -150.56, 129.2, 89.2779, 0, 0, 2.2157, -54.5131, 2.22632, -173.633, 2.19075, 66.204, 0.0629364, 47.6313
1, 2640.00000, 127.744, -31.4391, 127.135, -150.56, 129.2, 89.2779, 0, 0, 2.2157, -54.5131, 2.22632, -173.633, 2.19075, 66.204, 0.0629364, 47.6313
1, 2700.00000, 127.744, -31.4391, 127.135, -150.56, 129.2, 89.2779, 0, 0, 2.2157, -54.5131, 2.22632, -173.633, 2.19075, 66.204, 0.0629364, 47.6313
1, 2760.00000, 128.148, -31.4121, 127.136, -150.559, 129.366, 89.4397, 0, 0, 2.20872, -54.486, 2.22631, -173.633, 2.18793, 66.3658, 0.0661092, 37.5776
1, 2820.00000, 128.148, -31.4121, 127.136, -150.559, 129.366, 89.4397, 0, 0, 2.20872, -54.486, 2.22631, -173.633, 2.18793, 66.3658, 0.0661095, 37.5779
1, 2880.00000, 128.148, -31.4121, 127.136, -150.559, 129.366, 89.4397, 0, 0, 2.20872, -54.486, 2.22631, -173.633, 2.18793, 66.3658, 0.0661096, 37.5779
1, 2940.00000, 128.148, -31.4121, 127.136, -150.559, 129.366, 89.4397, 0, 0, 2.20872, -54.486, 2.22631, -173.633, 2.18793, 66.3658, 0.0661096, 37.5779
1, 3000.00000, 128.148, -31.4121, 127.136, -150.559, 129.366, 89.4397, 0, 0, 2.20872, -54.486, 2.22631, -173.633, 2.18793, 66.3658, 0.0661096, 37.5779
1, 3060.00000, 128.148, -31.4121, 127.136, -150.559, 129.366, 89.4397, 0, 0, 2.20872, -54.486, 2.22631, -173.633, 2.18793, 66.3658, 0.0661096, 37.5779
1, 3120.00000, 128.148, -31.4121, 127.136, -150.559, 129.366, 89.4397, 0, 0, 2.20872, -54.486, 2.22631, -173.633, 2.18793, 66.3658, 0.0661096, 37.5779
1, 3180.00000, 128.148, -31.4121, 127.136, -150.559, 129.366, 89.4397, 0, 0, 2.20872, -54.486, 2.22631, -173.633, 2.18793, 66.3658, 0.0661096, 37.5779
1, 3240.00000, 128.148, -31.4121, 127.136, -150.559, 129.366, 89.4397, 0, 0, 2.20872, -54.486, 2.22631, -173.633, 2.18793, 66.3658, 0.0661096, 37.5779
1, 3300.00000, 128.148, -31.4121, 127.136, -150.559, 129.366, 89.4397, 0, 0, 2.20872, -54.486, 2.22631, -173.633, 2.18793, 66.3658, 0.0661096, 37.5779
1, 3360.00000, 128.148, -31.4121, 127.136, -150.559, 129.366, 89.4397, 0, 0, 2.20872, -54.486, 2.22631, -173.633, 2.18793, 66.3658, 0.0661096, 37.5779
1, 3420.00000, 128.148, -31.4121, 127.136, -150.559, 129.366, 89.4397, 0, 0, 2.20872, -54.486, 2.22631, -173.633, 2.18793, 66.3658, 0.0661096, 37.5779
1, 3480.00000, 128.148, -31.4121, 127.136, -150.559, 129.366, 89.4397, 0, 0, 2.20872, -54.486, 2.22631, -173.633, 2.18793, 66.3658, 0.0661096, 37.5779
1, 3540.00000, 128.148, -31.4121, 127.136, -150.559, 129.366, 89.4397, 0, 0, 2.20872, -54.486, 2.22631, -173.633, 2.18793, 66.3658, 0.0661096, 37.5779
2, 0.00000, 128.148, -31.4121, 127.136, -150.559, 129.366, 89.4397, 0, 0, 2.20872, -54.486, 2.22631, -173.633, 2.18793, 66.3658, 0.0661096, 37.5779
2, 60.00000, 128.148, -31.4121, 127.136, -150.559, 129.366, 89.4397, 0, 0, 2.20872, -54.486, 2.22631, -173.633, 2.18793, 66.3658, 0.0661096, 37.5779
2, 120.00000, 128.144, -31.4132, 127.132, -150.56, 129.363, 89.4386, 0, 0, 2.2149, -54.4871, 2.23253, -173.634, 2.19404, 66.3647, 0.0662929, 37.5779
2, 180.00000, 128.141, -31.4142, 127.129, -150.561, 129.359, 89.4376, 0, 0, 2.22115, -54.4881, 2.23882, -173.635, 2.20023, 66.3636, 0.0664783, 37.5779
2, 240.00000, 128.137, -31.4153, 127.125, -150.563, 129.355, 89.4365, 0, 0, 2.22732, -54.4892, 2.24505, -173.636, 2.20634, 66.3626, 0.0666615, 37.5779
2, 300.00000, 128.133, -31.4163, 127.122, -150.564, 129.352, 89.4355, 0, 0, 2.2335, -54.4902, 2.25127, -173.638, 2.21246, 66.3615, 0.0668448, 37.5778
2, 360.00000, 128.129, -31.4174, 127.118, -150.565, 129.348, 89.4344, 0, 0, 2.23975, -54.4913, 2.25757, -173.639, 2.21865, 66.3605, 0.0670302, 37.5778
2, 420.00000, 128.125, -31.4184, 127.115, -150.566, 129.344, 89.4333, 0, 0, 2.24593, -54.4923, 2.26379, -173.64, 2.22477, 66.3594, 0.0672134, 37.5778
2, 480.00000, 128.122, -31.4195, 127.111, -150.567, 129.341, 89.4323, 0, 0, 2.25211, -54.4934, 2.27002, -173.641, 2.23088, 66.3584, 0.0673967, 37.5777
2, 540.00000, 128.118, -31.4205, 127.107, -150.568, 129.337, 89.4312, 0, 0, 2.25836, -54.4944, 2.27631, -173.642, 2.23707, 66.3573, 0.0675821, 37.5777
2, 600.00000, 128.114, -31.4216, 127.104, -150.569, 129.333, 89.4302, 0, 0, 2.26454, -54.4955, 2.28254, -173.643, 2.24319, 66.3562, 0.0677653, 37.5777
2, 660.00000, 128.11, -31.4226, 127.1, -150.57, 129.33, 89.4291, 0, 0, 2.27072, -54.4965, 2.28876, -173.644, 2.24931, 66.3552, 0.0679486, 37.5777
2, 720.00000, 128.107, -31.4236, 127.097, -150.572, 129.326, 89.428, 0, 0, 2.27697, -54.4976, 2.29506, -173.645, 2.2555, 66.3541, 0.068134, 37.5777
2, 780.00000, 128.103, -31.4247, 127.093, -150.573, 129.323, 89.427, 0, 0, 2.28315, -54.4986, 2.30129, -173.647, 2.26162, 66.3531, 0.0683173, 37.5776
