hour,t(sec),V1,VAngle1,V2,VAngle2,V3,VAngle3,V4,VAngle4,I1,IAngle1,I2,IAngle2,I3,IAngle3,I4,IAngle4
0, 60.00000, 126.168, -31.3514, 126.105, -150.558, 127.708, 89.2836, 0, 0, 2.3485, -54.4249, 2.34967, -173.632, 2.32021, 66.2098, 0.0579874, 55.3893
0, 120.00000, 126.177, -31.3598, 126.105, -150.558, 127.73, 89.2829, 0, 0, 2.34833, -54.4334, 2.34967, -173.632, 2.3198, 66.2092, 0.0586516, 55.2149
0, 180.00000, 126.185, -31.3675, 126.105, -150.558, 127.75, 89.2824, 0, 0, 2.34817, -54.441, 2.34967, -173.632, 2.31944, 66.2086, 0.0592503, 55.0617
0, 240.00000, 126.192, -31.3743, 126.105, -150.558, 127.768, 89.2819, 0, 0, 2.34804, -54.4479, 2.34967, -173.632, 2.31911, 66.2081, 0.0597897, 54.9269
0, 300.00000, 126.199, -31.3805, 126.105, -150.558, 127.784, 89.2814, 0, 0, 2.34791, -54.4542, 2.34967, -173.632, 2.31881, 66.2076, 0.0602757, 54.8081
0, 360.00000, 126.205, -31.3861, 126.105, -150.558, 127.799, 89.281, 0, 0, 2.3478, -54.4598, 2.34967, -173.632, 2.31855, 66.2072, 0.0607136, 54.7032
0, 420.00000, 126.21, -31.3911, 126.104, -150.558, 127.812, 89.2806, 0, 0, 2.3477, -54.4648, 2.34967, -173.632, 2.31831, 66.2068, 0.061108, 54.6103
0, 480.00000, 126.215, -31.3957, 126.104, -150.558, 127.824, 89.2802, 0, 0, 2.34762, -54.4694, 2.34967, -173.632, 2.31809, 66.2064, 0.0614632, 54.5279
0, 540.00000, 126.219, -31.3997, 126.104, -150.558, 127.834, 89.2799, 0, 0, 2.34754, -54.4734, 2.34967, -173.632, 2.3179, 66.2061, 0.0617831, 54.4548
0, 600.00000, 126.223, -31.4034, 126.104, -150.558, 127.844, 89.2796, 0, 0, 2.34746, -54.4771, 2.34967, -173.632, 2.31772, 66.2058, 0.0620712, 54.3897
0, 660.00000, 126.227, -31.4067, 126.104, -150.558, 127.852, 89.2794, 0, 0, 2.3474, -54.4805, 2.34967, -173.632, 2.31757, 66.2055, 0.0623306, 54.3319
0, 720.00000, 126.23, -31.4097, 126.104, -150.558, 127.86, 89.2791, 0, 0, 2.34734, -54.4834, 2.34967, -173.632, 2.31742, 66.2053, 0.0625642, 54.2803
0, 780.00000, 126.233, -31.4123, 126.104, -150.558, 127.867, 89.2789, 0, 0, 2.34729, -54.4861, 2.34968, -173.632, 2.3173, 66.205, 0.0627746, 54.2342
0, 840.00000, 126.235, -31.4148, 126.104, -150.558, 127.873, 89.2787, 0, 0, 2.34724, -54.4886, 2.34968, -173.632, 2.31718, 66.2048, 0.0629639, 54.1931
0, 900.00000, 126.237, -31.4169, 126.104, -150.558, 127.879, 89.2785, 0, 0, 2.3472, -54.4907, 2.34968, -173.632, 2.31708, 66.2047, 0.0631344, 54.1564
0, 960.00000, 126.239, -31.4189, 126.104, -150.558, 127.884, 89.2784, 0, 0, 2.34716, -54.4927, 2.34968, -173.632, 2.31699, 66.2045, 0.0632879, 54.1235
0, 1020.00000, 126.241, -31.4206, 126.104, -150.558, 127.889, 89.2782, 0, 0, 2.34713, -54.4945, 2.34968, -173.632, 2.3169, 66.2043, 0.0634261, 54.0941
0, 1080.00000, 126.243, -31.4222, 126.104, -150.558, 127.893, 89.2781, 0, 0, 2.3471, -54.4961, 2.34968, -173.632, 2.31683, 66.2042, 0.0635504, 54.0678
0, 1140.00000, 126.244, -31.4236, 126.104, -150.558, 127.896, 89.278, 0, 0, 2.34707, -54.4975, 2.34968, -173.632, 2.31676, 66.2041, 0.0636624, 54.0442
0, 1200.00000, 126.246, -31.4249, 126.104, -150.558, 127.9, 89.2778, 0, 0, 2.34704, -54.4988, 2.34968, -173.632, 2.3167, 66.204, 0.0637632, 54.0231
0, 1260.00000, 126.247, -31.4261, 126.104, -150.558, 127.903, 89.2777, 0, 0, 2.34702, -54.4999, 2.34968, -173.632, 2.31664, 66.2039, 0.0638539, 54.0041
0, 1320.00000, 126.248, -31.4271, 126.104, -150.558, 127.905, 89.2777, 0, 0, 2.347, -54.501, 2.34968, -173.632, 2.31659, 66.2038, 0.0639356, 53.9871
0, 1380.00000, 126.249, -31.4281, 126.104, -150.558, 127.908, 89.2776, 0, 0, 2.34698, -54.5019, 2.34968, -173.632, 2.31655, 66.2037, 0.0640091, 53.9719
0, 1440.00000, 126.25, -31.4289, 126.104, -150.558, 127.91, 89.2775, 0, 0, 2.34697, -54.5028, 2.34968, -173.632, 2.31651, 66.2036, 0.0640753, 53.9582
0, 1500.00000, 126.251, -31.4297, 126.104, -150.558, 127.912, 89.2775, 0, 0, 2.34695, -54.5035, 2.34968, -173.632, 2.31647, 66.2036, 0.0641348, 53.9459
0, 1560.00000, 126.251, -31.4303, 126.104, -150.558, 127.914, 89.2774, 0, 0, 2.34694, -54.5042, 2.34968, -173.632, 2.31644, 66.2035, 0.0641885, 53.9349
0, 1620.00000, 126.252, -31.431, 126.104, -150.558, 127.915, 89.2773, 0, 0, 2.34693, -54.5048, 2.34968, -173.632, 2.31641, 66.2034, 0.0642367, 53.925
0, 1680.00000, 126.253, -31.4315, 126.104, -150.558, 127.917, 89.2773, 0, 0, 2.34692, -54.5054, 2.34968, -173.632, 2.31639, 66.2034, 0.0642801, 53.916
0, 1740.00000, 126.253, -31.432, 126.104, -150.558, 127.918, 89.2773, 0, 0, 2.34691, -54.5059, 2.34968, -173.632, 2.31636, 66.2033, 0.0643192, 53.908
0, 1800.00000, 126.254, -31.4325, 126.104, -150.558, 127.919, 89.2772, 0, 0, 2.3469, -54.5064, 2.34968, -173.632, 2.31634, 66.2033, 0.0643544, 53.9009
0, 1860.00000, 126.254, -31.4329, 126.104, -150.558, 127.92, 89.2772, 0, 0, 2.34689, -54.5068, 2.34968, -173.632, 2.31632, 66.2033, 0.0643861, 53.8944
0, 1920.00000, 126.254, -31.4332, 126.104, -150.558, 127.921, 89.2771, 0, 0, 2.34688, -54.5071, 2.34968, -173.632, 2.3163, 66.2032, 0.0644146, 53.8886
0, 1980.00000, 126.255, -31.4335, 126.104, -150.558, 127.922, 89.2771, 0, 0, 2.34688, -54.5075, 2.34968, -173.632, 2.31629, 66.2032, 0.0644402, 53.8834
0, 2040.00000, 126.255, -31.4338, 126.104, -150.558, 127.923, 89.2771, 0, 0, 2.34687, -54.5077, 2.34968, -173.632, 2.31627, 66.2032, 0.0644633, 53.8787
0, 2100.00000, 126.255, -31.4341, 126.104, -150.558, 127.924, 89.2771, 0, 0, 2.34686, -54.508, 2.34968, -173.632, 2.31626, 66.2032, 0.0644841, 53.8744
0, 2160.00000, 126.256, -31.4343, 126.104, -150.558, 127.924, 89.2771, 0, 0, 2.34686, -54.5083, 2.34968, -173.632, 2.31625, 66.2031, 0.0645028, 53.8706
0, 2220.00000, 126.256, -31.4346, 126.104, -150.558, 127.925, 89.277, 0, 0, 2.34686, -54.5085, 2.34968, -173.632, 2.31624, 66.2031, 0.0645196, 53.8672
0, 2280.00000, 126.256, -31.4348, 126.104, -150.558, 127.925, 89.277, 0, 0, 2.34685, -54.5087, 2.34968, -173.632, 2.31623, 66.2031, 0.0645348, 53.8641
0, 2340.00000, 126.256, -31.4349, 126.104, -150.558, 127.926, 89.277, 0, 0, 2.34685, -54.5088, 2.34968, -173.632, 2.31622, 66.2031, 0.0645484, 53.8614
0, 2400.00000, 126.256, -31.4351, 126.104, -150.558, 127.926, 89.277, 0, 0, 2.34685, -54.509, 2.34968, -173.632, 2.31622, 66.2031, 0.0645607, 53.8589
0, 2460.00000, 126.257, -31.4352, 126.104, -150.558, 127.926, 89.277, 0, 0, 2.34684, -54.5091, 2.34968, -173.632, 2.31621, 66.2031, 0.0645717, 53.8567
0, 2520.00000, 126.257, -31.4354, 126.104, -150.558, 127.927, 89.277, 0, 0, 2.34684, -54.5093, 2.34968, -173.632, 2.3162, 66.203, 0.0645817, 53.8546
0, 2580.00000, 126.257, -31.4355, 126.104, -150.558, 127.927, 89.277, 0, 0, 2.34684, -54.5094, 2.34968, -173.632, 2.3162, 66.203, 0.0645906, 53.8528
0, 2640.00000, 126.257, -31.4356, 126.104, -150.558, 127.927, 89.2769, 0, 0, 2.34684, -54.5095, 2.34968, -173.632, 2.31619, 66.203, 0.0645987, 53.8512
0, 2700.00000, 126.257, -31.4357, 126.104, -150.558, 127.928, 89.2769, 0, 0, 2.34683, -54.5096, 2.34968, -173.632, 2.31619, 66.203, 0.0646059, 53.8497
0, 2760.00000, 126.257, -31.4357, 126.104, -150.558, 127.928, 89.2769, 0, 0, 2.34683, -54.5097, 2.34968, -173.632, 2.31618, 66.203, 0.0646124, 53.8484
0, 2820.00000, 126.257, -31.4358, 126.104, -150.558, 127.928, 89.2769, 0, 0, 2.34683, -54.5097, 2.34968, -173.632, 2.31618, 66.203, 0.0646183, 53.8472
0, 2880.00000, 126.257, -31.4359, 126.104, -150.558, 127.928, 89.2769, 0, 0, 2.34683, -54.5098, 2.34968, -173.632, 2.31618, 66.203, 0.0646236, 53.8462
0, 2940.00000, 126.257, -31.4359, 126.104, -150.558, 127.928, 89.2769, 0, 0, 2.34683, -54.5099, 2.34968, -173.632, 2.31617, 66.203, 0.0646284, 53.8452
0, 3000.00000, 126.257, -31.436, 126.104, -150.558, 127.928, 89.2769, 0, 0, 2.34683, -54.5099, 2.34968, -173.632, 2.31617, 66.203, 0.0646326, 53.8443
0, 3060.00000, 126.257, -31.436, 126.104, -150.558, 127.929, 89.2769, 0, 0, 2.34683, -54.51, 2.34968, -173.632, 2.31617, 66.203, 0.0646365, 53.8436
0, 3120.00000, 126.257, -31.4361, 126.104, -150.558, 127.929, 89.2769, 0, 0, 2.34683, -54.51, 2.34968, -173.632, 2.31617, 66.203, 0.06464, 53.8429
0, 3180.00000, 126.257, -31.4361, 126.104, -150.558, 127.929, 89.2769, 0, 0, 2.34683, -54.51, 2.34968, -173.632, 2.31617, 66.203, 0.0646431, 53.8422
0, 3240.00000, 126.258, -31.4362, 126.104, -150.558, 127.929, 89.2769, 0, 0, 2.34683, -54.5101, 2.34968, -173.632, 2.31616, 66.203, 0.0646459, 53.8417
0, 3300.00000, 126.258, -31.4362, 126.104, -150.558, 127.929, 89.2769, 0, 0, 2.34682, -54.5101, 2.34968, -173.632, 2.31616, 66.203, 0.0646484, 53.8412
0, 3360.00000, 126.258, -31.4362, 126.104, -150.558, 127.929, 89.2769, 0, 0, 2.34682, -54.5101, 2.34968, -173.632, 2.31616, 66.203, 0.0646507, 53.8407
0, 3420.00000, 126.258, -31.4363, 126.104, -150.558, 127.929, 89.2769, 0, 0, 2.34682, -54.5102, 2.34968, -173.632, 2.31616, 66.203, 0.0646527, 53.8403
0, 3480.00000, 126.258, -31.4363, 126.104, -150.558, 127.929, 89.2769, 0, 0, 2.34682, -54.5102, 2.34968, -173.632, 2.31616, 66.203, 0.0646546, 53.8399
0, 3540.00000, 126.258, -31.4363, 126.104, -150.558, 127.929, 89.2769, 0, 0, 2.34682, -54.5102, 2.34968, -173.632, 2.31616, 66.203, 0.0646562, 53.8396
1, 0.00000, 126.258, -31.4363, 126.104, -150.558, 127.929, 89.2769, 0, 0, 2.34682, -54.5102, 2.34968, -173.632, 2.31616, 66.203, 0.0646577, 53.8393
1, 60.00000, 126.258, -31.4363, 126.104, -150.558, 127.929, 89.2769, 0, 0, 2.34682, -54.5103, 2.34968, -173.632, 2.31616, 66.203, 0.0646591, 53.839
1, 120.00000, 126.258, -31.4364, 126.104, -150.558, 127.929, 89.2769, 0, 0, 2.34682, -54.5103, 2.34968, -173.632, 2.31616, 66.203, 0.0646603, 53.8388
1, 180.00000, 126.258, -31.4364, 126.104, -150.558, 127.929, 89.2769, 0, 0, 2.34682, -54.5103, 2.34968, -173.632, 2.31615, 66.203, 0.0646614, 53.8385
1, 240.00000, 126.258, -31.4364, 126.104, -150.558, 127.929, 89.2769, 0, 0, 2.34682, -54.5103, 2.34968, -173.632, 2.31615, 66.203, 0.0646623, 53.8383
1, 300.00000, 126.258, -31.4364, 126.104, -150.558, 127.929, 89.2769, 0, 0, 2.34682, -54.5103, 2.34968, -173.632, 2.31615, 66.203, 0.0646632, 53.8382
1, 360.00000, 126.258, -31.4364, 126.104, -150.558, 127.93, 89.2769, 0, 0, 2.34682, -54.5103, 2.34968, -173.632, 2.31615, 66.203, 0.064664, 53.838
1, 420.00000, 126.258, -31.4364, 126.104, -150.558, 127.93, 89.2769, 0, 0, 2.34682, -54.5103, 2.34968, -173.632, 2.31615, 66.203, 0.0646647, 53.8379
1, 480.00000, 126.258, -31.4364, 126.104, -150.558, 127.93, 89.2769, 0, 0, 2.34682, -54.5103, 2.34968, -173.632, 2.31615, 66.203, 0.0646654, 53.8377
1, 540.00000, 126.258, -31.4364, 126.104, -150.558, 127.93, 89.2769, 0, 0, 2.34682, -54.5103, 2.34968, -173.632, 2.31615, 66.203, 0.064666, 53.8376
1, 600.00000, 126.258, -31.4364, 126.104, -150.558, 127.93, 89.2769, 0, 0, 2.34682, -54.5103, 2.34968, -173.632, 2.31615, 66.203, 0.0646665, 53.8375
1, 660.00000, 126.258, -31.4364, 126.104, -150.558, 127.93, 89.2769, 0, 0, 2.34682, -54.5104, 2.34968, -173.632, 2.31615, 66.203, 0.0646669, 53.8374
1, 720.00000, 126.258, -31.4364, 126.104, -150.558, 127.93, 89.2769, 0, 0, 2.34682, -54.5104, 2.34968, -173.632, 2.31615, 66.203, 0.0646674, 53.8373
1, 780.00000, 126.258, -31.4364, 126.104, -150.558, 127.93, 89.2769, 0, 0, 2.34682, -54.5104, 2.34968, -173.632, 2.31615, 66.203, 0.0646677, 53.8373
1, 840.00000, 126.258, -31.4365, 126.104, -150.558, 127.93, 89.2769, 0, 0, 2.34682, -54.5104, 2.34968, -173.632, 2.31615, 66.2029, 0.0646681, 53.8372
1, 900.00000, 126.258, -31.4365, 126.104, -150.558, 127.93, 89.2769, 0, 0, 2.34682, -54.5104, 2.34968, -173.632, 2.31615, 66.2029, 0.0646684, 53.8371
1, 960.00000, 126.258, -31.4365, 126.104, -150.558, 127.93, 89.2769, 0, 0, 2.34682, -54.5104, 2.34968, -173.632, 2.31615, 66.2029, 0.0646687, 53.8371
1, 1020.00000, 126.258, -31.4365, 126.104, -150.558, 127.93, 89.2769, 0, 0, 2.34682, -54.5104, 2.34968, -173.632, 2.31615, 66.2029, 0.0646689, 53.837
1, 1080.00000, 126.258, -31.4365, 126.104, -150.558, 127.93, 89.2769, 0, 0, 2.34682, -54.5104, 2.34968, -173.632, 2.31615, 66.2029, 0.0646691, 53.837
1, 1140.00000, 126.258, -31.4365, 126.104, -150.558, 127.93, 89.2769, 0, 0, 2.34682, -54.5104, 2.34968, -173.632, 2.31615, 66.2029, 0.0646693, 53.8369
1, 1200.00000, 126.258, -31.4365, 126.104, -150.558, 127.93, 89.2769, 0, 0, 2.34682, -54.5104, 2.34968, -173.632, 2.31615, 66.2029, 0.0646695, 53.8369
1, 1260.00000, 126.258, -31.4365, 126.104, -150.558, 127.93, 89.2769, 0, 0, 2.34682, -54.5104, 2.34968, -173.632, 2.31615, 66.2029, 0.0646697, 53.8369
1, 1320.00000, 126.258, -31.4365, 126.104, -150.558, 127.93, 89.2769, 0, 0, 2.34682, -54.5104, 2.34968, -173.632, 2.31615, 66.2029, 0.0646698, 53.8368
1, 1380.00000, 126.258, -31.4365, 126.104, -150.558, 127.93, 89.2769, 0, 0, 2.34682, -54.5104, 2.34968, -173.632, 2.31615, 66.2029, 0.06467, 53.8368
1, 1440.00000, 126.258, -31.4365, 126.104, -150.558, 127.93, 89.2769, 0, 0, 2.34682, -54.5104, 2.34968, -173.632, 2.31615, 66.2029, 0.0646701, 53.8368
1, 1500.00000, 126.258, -31.4365, 126.104, -150.558, 127.93, 89.2769, 0, 0, 2.34682, -54.5104, 2.34968, -173.632, 2.31615, 66.2029, 0.0646702, 53.8368
1, 1560.00000, 126.258, -31.4365, 126.104, -150.558, 127.93, 89.2769, 0, 0, 2.34682, -54.5104, 2.34968, -173.632, 2.31615, 66.2029, 0.0646703, 53.8367
1, 1620.00000, 126.258, -31.4365, 126.104, -150.558, 127.93, 89.2769, 0, 0, 2.34682, -54.5104, 2.34968, -173.632, 2.31615, 66.2029, 0.0646704, 53.8367
1, 1680.00000, 126.258, -31.4365, 126.104, -150.558, 127.93, 89.2769, 0, 0, 2.34682, -54.5104, 2.34968, -173.632, 2.31615, 66.2029, 0.0646705, 53.8367
1, 1740.00000, 126.258, -31.4365, 126.104, -150.558, 127.93, 89.2769, 0, 0, 2.34682, -54.5104, 2.34968, -173.632, 2.31615, 66.2029, 0.0646705, 53.8367
1, 1800.00000, 126.258, -31.4365, 126.104, -150.558, 127.93, 89.2769, 0, 0, 2.34682, -54.5104, 2.34968, -173.632, 2.31615, 66.2029, 0.0646706, 53.8367
1, 1860.00000, 126.258, -31.4365, 126.104, -150.558, 127.93, 89.2769, 0, 0, 2.34682, -54.5104, 2.34968, -173.632, 2.31615, 66.2029, 0.0646706, 53.8367
1, 1920.00000, 126.258, -31.4365, 126.104, -150.558, 127.93, 89.2769, 0, 0, 2.34682, -54.5104, 2.34968, -173.632, 2.31615, 66.2029, 0.0646707, 53.8367
1, 1980.00000, 126.258, -31.4365, 126.104, -150.558, 127.93, 89.2769, 0, 0, 2.34682, -54.5104, 2.34968, -173.632, 2.31615, 66.2029, 0.0646707, 53.8367
1, 2040.00000, 126.258, -31.4365, 126.104, -150.558, 127.93, 89.2769, 0, 0, 2.34682, -54.5104, 2.34968, -173.632, 2.31615, 66.2029, 0.0646708, 53.8366
1, 2100.00000, 126.258, -31.4365, 126.104, -150.558, 127.93, 89.2769, 0, 0, 2.34682, -54.5104, 2.34968, -173.632, 2.31615, 66.2029, 0.0646708, 53.8366
1, 2160.00000, 126.258, -31.4365, 126.104, -150.558, 127.93, 89.2769, 0, 0, 2.34682, -54.5104, 2.34968, -173.632, 2.31615, 66.2029, 0.0646709, 53.8366
1, 2220.00000, 126.258, -31.4365, 126.104, -150.558, 127.93, 89.2769, 0, 0, 2.34682, -54.5104, 2.34968, -173.632, 2.31615, 66.2029, 0.0646709, 53.8366
1, 2280.00000, 126.258, -31.4365, 126.104, -150.558, 127.93, 89.2769, 0, 0, 2.34682, -54.5104, 2.34968, -173.632, 2.31615, 66.2029, 0.0646709, 53.8366
1, 2340.00000, 126.258, -31.4365, 126.104, -150.558, 127.93, 89.2769, 0, 0, 2.34682, -54.5104, 2.34968, -173.632, 2.31615, 66.2029, 0.0646709, 53.8366
1, 2400.00000, 126.258, -31.4365, 126.104, -150.558, 127.93, 89.2769, 0, 0, 2.34682, -54.5104, 2.34968, -173.632, 2.31615, 66.2029, 0.064671, 53.8366
1, 2460.00000, 126.258, -31.4365, 126.104, -150.558, 127.93, 89.2769, 0, 0, 2.34682, -54.5104, 2.34968, -173.632, 2.31615, 66.2029, 0.064671, 53.8366
1, 2520.00000, 126.258, -31.4365, 126.104, -150.558, 127.93, 89.2769, 0, 0, 2.34682, -54.5104, 2.34968, -173.632, 2.31615, 66.2029, 0.064671, 53.8366
1, 2580.00000, 126.258, -31.4365, 126.104, -150.558, 127.93, 89.2769, 0, 0, 2.34682, -54.5104, 2.34968, -173.632, 2.31615, 66.2029, 0.064671, 53.8366
1, 2640.00000, 126.258, -31.4365, 126.104, -150.558, 127.93, 89.2769, 0, 0, 2.34682, -54.5104, 2.34968, -173.632, 2.31615, 66.2029, 0.064671, 53.8366
1, 2700.00000, 126.258, -31.4365, 126.104, -150.558, 127.93, 89.2769, 0, 0, 2.34682, -54.5104, 2.34968, -173.632, 2.31615, 66.2029, 0.064671, 53.8366
1, 2760.00000, 126.667, -31.4086, 126.102, -150.558, 128.099, 89.4378, 0, 0, 2.33924, -54.4825, 2.34971, -173.632, 2.31308, 66.3639, 0.0668183, 43.0186
1, 2820.00000, 126.667, -31.4086, 126.102, -150.558, 128.099, 89.4378, 0, 0, 2.33924, -54.4825, 2.34971, -173.632, 2.31308, 66.3639, 0.0668188, 43.019
1, 2880.00000, 126.667, -31.4086, 126.102, -150.558, 128.099, 89.4378, 0, 0, 2.33924, -54.4825, 2.34971, -173.632, 2.31308, 66.3639, 0.0668188, 43.019
1, 2940.00000, 126.667, -31.4086, 126.102, -150.558, 128.099, 89.4378, 0, 0, 2.33924, -54.4825, 2.34971, -173.632, 2.31308, 66.3639, 0.0668188, 43.019
1, 3000.00000, 126.667, -31.4086, 126.102, -150.558, 128.099, 89.4378, 0, 0, 2.33924, -54.4825, 2.34971, -173.632, 2.31308, 66.3639, 0.0668188, 43.019
1, 3060.00000, 126.667, -31.4086, 126.102, -150.558, 128.099, 89.4378, 0, 0, 2.33924, -54.4825, 2.34971, -173.632, 2.31308, 66.3639, 0.0668188, 43.019
1, 3120.00000, 126.667, -31.4086, 126.102, -150.558, 128.099, 89.4378, 0, 0, 2.33924, -54.4825, 2.34971, -173.632, 2.31308, 66.3639, 0.0668188, 43.019
1, 3180.00000, 126.667, -31.4086, 126.102, -150.558, 128.099, 89.4378, 0, 0, 2.33924, -54.4825, 2.34971, -173.632, 2.31308, 66.3639, 0.0668188, 43.019
1, 3240.00000, 126.667, -31.4086, 126.102, -150.558, 128.099, 89.4378, 0, 0, 2.33924, -54.4825, 2.34971, -173.632, 2.31308, 66.3639, 0.0668188, 43.019
1, 3300.00000, 126.667, -31.4086, 126.102, -150.558, 128.099, 89.4378, 0, 0, 2.33924, -54.4825, 2.34971, -173.632, 2.31308, 66.3639, 0.0668188, 43.019
1, 3360.00000, 126.667, -31.4086, 126.102, -150.558, 128.099, 89.4378, 0, 0, 2.33924, -54.4825, 2.34971, -173.632, 2.31308, 66.3639, 0.0668189, 43.019
1, 3420.00000, 126.667, -31.4086, 126.102, -150.558, 128.099, 89.4378, 0, 0, 2.33924, -54.4825, 2.34971, -173.632, 2.31308, 66.3639, 0.0668189, 43.019
1, 3480.00000, 126.667, -31.4086, 126.102, -150.558, 128.099, 89.4378, 0, 0, 2.33924, -54.4825, 2.34971, -173.632, 2.31308, 66.3639, 0.0668189, 43.019
1, 3540.00000, 126.667, -31.4086, 126.102, -150.558, 128.099, 89.4378, 0, 0, 2.33924, -54.4825, 2.34971, -173.632, 2.31308, 66.3639, 0.0668189, 43.019
2, 0.00000, 126.667, -31.4086, 126.102, -150.558, 128.099, 89.4378, 0, 0, 2.33924, -54.4825, 2.34971, -173.632, 2.31308, 66.3639, 0.0668189, 43.019
2, 60.00000, 126.667, -31.4086, 126.102, -150.558, 128.099, 89.4378, 0, 0, 2.33924, -54.4825, 2.34971, -173.632, 2.31308, 66.3639, 0.0668189, 43.019
2, 120.00000, 126.661, -31.4097, 126.097, -150.559, 128.094, 89.4367, 0, 0, 2.34582, -54.4836, 2.35631, -173.633, 2.31958, 66.3628, 0.0670075, 43.026
2, 180.00000, 126.655, -31.4108, 126.092, -150.56, 128.089, 89.4357, 0, 0, 2.35248, -54.4847, 2.36299, -173.634, 2.32615, 66.3618, 0.0671983, 43.0332
2, 240.00000, 126.649, -31.4119, 126.087, -150.561, 128.083, 89.4347, 0, 0, 2.35907, -54.4858, 2.36959, -173.635, 2.33265, 66.3608, 0.0673869, 43.0402
2, 300.00000, 126.643, -31.413, 126.082, -150.562, 128.078, 89.4336, 0, 0, 2.36565, -54.4869, 2.37619, -173.636, 2.33915, 66.3597, 0.0675756, 43.0473
2, 360.00000, 126.637, -31.4141, 126.076, -150.563, 128.073, 89.4326, 0, 0, 2.37231, -54.488, 2.38287, -173.637, 2.34572, 66.3587, 0.0677665, 43.0544
2, 420.00000, 126.631, -31.4151, 126.071, -150.565, 128.067, 89.4316, 0, 0, 2.3789, -54.4891, 2.38947, -173.638, 2.35222, 66.3577, 0.0679552, 43.0615
2, 480.00000, 126.625, -31.4162, 126.066, -150.566, 128.062, 89.4305, 0, 0, 2.38548, -54.4901, 2.39607, -173.64, 2.35872, 66.3566, 0.0681439, 43.0686
2, 540.00000, 126.619, -31.4173, 126.061, -150.567, 128.057, 89.4295, 0, 0, 2.39215, -54.4912, 2.40275, -173.641, 2.3653, 66.3556, 0.0683348, 43.0757
2, 600.00000, 126.613, -31.4184, 126.055, -150.568, 128.051, 89.4285, 0, 0, 2.39873, -54.4923, 2.40935, -173.642, 2.3718, 66.3545, 0.0685236, 43.0828
2, 660.00000, 126.608, -31.4195, 126.05, -150.569, 128.046, 89.4274, 0, 0, 2.40532, -54.4934, 2.41596, -173.643, 2.3783, 66.3535, 0.0687124, 43.0898
2, 720.00000, 126.602, -31.4206, 126.045, -150.57, 128.041, 89.4264, 0, 0, 2.41199, -54.4945, 2.42264, -173.644, 2.38488, 66.3525, 0.0689034, 43.097
