hour,t(sec),V1,VAngle1,V2,VAngle2,V3,VAngle3,V4,VAngle4,I1,IAngle1,I2,IAngle2,I3,IAngle3,I4,IAngle4
0, 60.00000, 127.084, -30.5744, 127.109, -150.563, 127.109, 89.4534, 0, 0, 2.2537, -53.6479, 2.25326, -173.637, 2.25327, 66.3798, 0.000768002, 27.341
0, 120.00000, 127.084, -30.5745, 127.109, -150.563, 127.109, 89.4533, 0, 0, 2.25373, -53.6484, 2.25328, -173.637, 2.25329, 66.3794, 0.00077152, 27.6044
0, 180.00000, 127.084, -30.5745, 127.109, -150.563, 127.109, 89.4533, 0, 0, 2.25373, -53.6484, 2.25328, -173.637, 2.25329, 66.3794, 0.000771531, 27.6057
0, 240.00000, 127.084, -30.5745, 127.109, -150.563, 127.109, 89.4533, 0, 0, 2.25373, -53.6484, 2.25328, -173.637, 2.25329, 66.3794, 0.000771531, 27.6057
0, 300.00000, 127.084, -30.5745, 127.109, -150.563, 127.109, 89.4533, 0, 0, 2.25373, -53.6484, 2.25328, -173.637, 2.25329, 66.3794, 0.000771531, 27.6057
0, 360.00000, 127.084, -30.5745, 127.109, -150.563, 127.109, 89.4533, 0, 0, 2.25373, -53.6484, 2.25328, -173.637, 2.25329, 66.3794, 0.000771531, 27.6057
0, 420.00000, 127.084, -30.5745, 127.109, -150.563, 127.109, 89.4533, 0, 0, 2.25373, -53.6484, 2.25328, -173.637, 2.25329, 66.3794, 0.000771531, 27.6057
0, 480.00000, 127.084, -30.5745, 127.109, -150.563, 127.109, 89.4533, 0, 0, 2.25373, -53.6484, 2.25328, -173.637, 2.25329, 66.3794, 0.000771531, 27.6057
0, 540.00000, 127.084, -30.5745, 127.109, -150.563, 127.109, 89.4533, 0, 0, 2.25373, -53.6484, 2.25328, -173.637, 2.25329, 66.3794, 0.000771531, 27.6057
0, 600.00000, 127.084, -30.5745, 127.109, -150.563, 127.109, 89.4533, 0, 0, 2.25373, -53.6484, 2.25328, -173.637, 2.25329, 66.3794, 0.000771531, 27.6057
0, 660.00000, 127.084, -30.5745, 127.109, -150.563, 127.109, 89.4533, 0, 0, 2.25373, -53.6484, 2.25328, -173.637, 2.25329, 66.3794, 0.000771531, 27.6057
0, 720.00000, 127.084, -30.5745, 127.109, -150.563, 127.109, 89.4533, 0, 0, 2.25373, -53.6484, 2.25328, -173.637, 2.25329, 66.3794, 0.000771531, 27.6057
0, 780.00000, 127.084, -30.5745, 127.109, -150.563, 127.109, 89.4533, 0, 0, 2.25373, -53.6484, 2.25328, -173.637, 2.25329, 66.3794, 0.000771531, 27.6057
0, 840.00000, 127.084, -30.5745, 127.109, -150.563, 127.109, 89.4533, 0, 0, 2.25373, -53.6484, 2.25328, -173.637, 2.25329, 66.3794, 0.000771531, 27.6057
0, 900.00000, 127.084, -30.5745, 127.109, -150.563, 127.109, 89.4533, 0, 0, 2.25373, -53.6484, 2.25328, -173.637, 2.25329, 66.3794, 0.000771531, 27.6057
0, 960.00000, 127.084, -30.5745, 127.109, -150.563, 127.109, 89.4533, 0, 0, 2.25373, -53.6484, 2.25328, -173.637, 2.25329, 66.3794, 0.000771531, 27.6057
0, 1020.00000, 127.084, -30.5745, 127.109, -150.563, 127.109, 89.4533, 0, 0, 2.25373, -53.6484, 2.25328, -173.637, 2.25329, 66.3794, 0.000771531, 27.6057
0, 1080.00000, 127.084, -30.5745, 127.109, -150.563, 127.109, 89.4533, 0, 0, 2.25373, -53.6484, 2.25328, -173.637, 2.25329, 66.3794, 0.000771531, 27.6057
0, 1140.00000, 127.084, -30.5745, 127.109, -150.563, 127.109, 89.4533, 0, 0, 2.25373, -53.6484, 2.25328, -173.637, 2.25329, 66.3794, 0.000771531, 27.6057
0, 1200.00000, 127.084, -30.5745, 127.109, -150.563, 127.109, 89.4533, 0, 0, 2.25373, -53.6484, 2.25328, -173.637, 2.25329, 66.3794, 0.000771531, 27.6057
0, 1260.00000, 127.084, -30.5745, 127.109, -150.563, 127.109, 89.4533, 0, 0, 2.25373, -53.6484, 2.25328, -173.637, 2.25329, 66.3794, 0.000771531, 27.6057
0, 1320.00000, 127.084, -30.5745, 127.109, -150.563, 127.109, 89.4533, 0, 0, 2.25373, -53.6484, 2.25328, -173.637, 2.25329, 66.3794, 0.000771531, 27.6057
0, 1380.00000, 127.084, -30.5745, 127.109, -150.563, 127.109, 89.4533, 0, 0, 2.25373, -53.6484, 2.25328, -173.637, 2.25329, 66.3794, 0.000771531, 27.6057
0, 1440.00000, 127.084, -30.5745, 127.109, -150.563, 127.109, 89.4533, 0, 0, 2.25373, -53.6484, 2.25328, -173.637, 2.25329, 66.3794, 0.000771531, 27.6057
0, 1500.00000, 127.084, -30.5745, 127.109, -150.563, 127.109, 89.4533, 0, 0, 2.25373, -53.6484, 2.25328, -173.637, 2.25329, 66.3794, 0.000771531, 27.6057
0, 1560.00000, 127.084, -30.5745, 127.109, -150.563, 127.109, 89.4533, 0, 0, 2.25373, -53.6484, 2.25328, -173.637, 2.25329, 66.3794, 0.000771531, 27.6057
0, 1620.00000, 127.084, -30.5745, 127.109, -150.563, 127.109, 89.4533, 0, 0, 2.25373, -53.6484, 2.25328, -173.637, 2.25329, 66.3794, 0.000771531, 27.6057
0, 1680.00000, 127.084, -30.5745, 127.109, -150.563, 127.109, 89.4533, 0, 0, 2.25373, -53.6484, 2.25328, -173.637, 2.25329, 66.3794, 0.000771531, 27.6057
0, 1740.00000, 127.084, -30.5745, 127.109, -150.563, 127.109, 89.4533, 0, 0, 2.25373, -53.6484, 2.25328, -173.637, 2.25329, 66.3794, 0.000771531, 27.6057
0, 1800.00000, 126.68, -30.6195, 127.108, -150.563, 126.979, 89.2799, 0, 0, 2.26088, -53.6929, 2.2533, -173.637, 2.25557, 66.2065, 0.0121067, 139.923
0, 1860.00000, 126.68, -30.6195, 127.108, -150.563, 126.979, 89.2799, 0, 0, 2.26092, -53.6935, 2.2533, -173.637, 2.25559, 66.206, 0.0121499, 139.924
0, 1920.00000, 126.68, -30.6195, 127.108, -150.563, 126.979, 89.2799, 0, 0, 2.26092, -53.6935, 2.2533, -173.637, 2.25559, 66.206, 0.0121501, 139.924
0, 1980.00000, 126.68, -30.6195, 127.108, -150.563, 126.979, 89.2799, 0, 0, 2.26092, -53.6935, 2.2533, -173.637, 2.25559, 66.206, 0.0121501, 139.924
0, 2040.00000, 126.68, -30.6195, 127.108, -150.563, 126.979, 89.2799, 0, 0, 2.26092, -53.6935, 2.2533, -173.637, 2.25559, 66.206, 0.0121501, 139.924
0, 2100.00000, 126.68, -30.6195, 127.108, -150.563, 126.979, 89.2799, 0, 0, 2.26092, -53.6935, 2.2533, -173.637, 2.25559, 66.206, 0.0121501, 139.924
0, 2160.00000, 126.68, -30.6195, 127.108, -150.563, 126.979, 89.2799, 0, 0, 2.26092, -53.6935, 2.2533, -173.637, 2.25559, 66.206, 0.0121501, 139.924
0, 2220.00000, 126.68, -30.6195, 127.108, -150.563, 126.979, 89.2799, 0, 0, 2.26092, -53.6935, 2.2533, -173.637, 2.25559, 66.206, 0.0121501, 139.924
0, 2280.00000, 126.68, -30.6195, 127.108, -150.563, 126.979, 89.2799, 0, 0, 2.26092, -53.6935, 2.2533, -173.637, 2.25559, 66.206, 0.0121501, 139.924
0, 2340.00000, 126.68, -30.6195, 127.108, -150.563, 126.979, 89.2799, 0, 0, 2.26092, -53.6935, 2.2533, -173.637, 2.25559, 66.206, 0.0121501, 139.924
0, 2400.00000, 126.68, -30.6195, 127.108, -150.563, 126.979, 89.2799, 0, 0, 2.26092, -53.6935, 2.2533, -173.637, 2.25559, 66.206, 0.0121501, 139.924
0, 2460.00000, 126.68, -30.6195, 127.108, -150.563, 126.979, 89.2799, 0, 0, 2.26092, -53.6935, 2.2533, -173.637, 2.25559, 66.206, 0.0121501, 139.924
0, 2520.00000, 126.68, -30.6195, 127.108, -150.563, 126.979, 89.2799, 0, 0, 2.26092, -53.6935, 2.2533, -173.637, 2.25559, 66.206, 0.0121501, 139.924
0, 2580.00000, 126.68, -30.6195, 127.108, -150.563, 126.979, 89.2799, 0, 0, 2.26092, -53.6935, 2.2533, -173.637, 2.25559, 66.206, 0.0121501, 139.924
0, 2640.00000, 126.68, -30.6195, 127.108, -150.563, 126.979, 89.2799, 0, 0, 2.26092, -53.6935, 2.2533, -173.637, 2.25559, 66.206, 0.0121501, 139.924
0, 2700.00000, 126.68, -30.6195, 127.108, -150.563, 126.979, 89.2799, 0, 0, 2.26092, -53.6935, 2.2533, -173.637, 2.25559, 66.206, 0.0121501, 139.924
0, 2760.00000, 126.68, -30.6195, 127.108, -150.563, 126.979, 89.2799, 0, 0, 2.26092, -53.6935, 2.2533, -173.637, 2.25559, 66.206, 0.0121501, 139.924
0, 2820.00000, 126.68, -30.6195, 127.108, -150.563, 126.979, 89.2799, 0, 0, 2.26092, -53.6935, 2.2533, -173.637, 2.25559, 66.206, 0.0121501, 139.924
0, 2880.00000, 126.68, -30.6195, 127.108, -150.563, 126.979, 89.2799, 0, 0, 2.26092, -53.6935, 2.2533, -173.637, 2.25559, 66.206, 0.0121501, 139.924
0, 2940.00000, 126.68, -30.6195, 127.108, -150.563, 126.979, 89.2799, 0, 0, 2.26092, -53.6935, 2.2533, -173.637, 2.25559, 66.206, 0.0121501, 139.924
0, 3000.00000, 126.68, -30.6195, 127.108, -150.563, 126.979, 89.2799, 0, 0, 2.26092, -53.6935, 2.2533, -173.637, 2.25559, 66.206, 0.0121501, 139.924
0, 3060.00000, 126.68, -30.6195, 127.108, -150.563, 126.979, 89.2799, 0, 0, 2.26092, -53.6935, 2.2533, -173.637, 2.25559, 66.206, 0.0121501, 139.924
0, 3120.00000, 126.68, -30.6195, 127.108, -150.563, 126.979, 89.2799, 0, 0, 2.26092, -53.6935, 2.2533, -173.637, 2.25559, 66.206, 0.0121501, 139.924
0, 3180.00000, 126.68, -30.6195, 127.108, -150.563, 126.979, 89.2799, 0, 0, 2.26092, -53.6935, 2.2533, -173.637, 2.25559, 66.206, 0.0121501, 139.924
0, 3240.00000, 126.68, -30.6195, 127.108, -150.563, 126.979, 89.2799, 0, 0, 2.26092, -53.6935, 2.2533, -173.637, 2.25559, 66.206, 0.0121501, 139.924
0, 3300.00000, 126.68, -30.6195, 127.108, -150.563, 126.979, 89.2799, 0, 0, 2.26092, -53.6935, 2.2533, -173.637, 2.25559, 66.206, 0.0121501, 139.924
0, 3360.00000, 126.68, -30.6195, 127.108, -150.563, 126.979, 89.2799, 0, 0, 2.26092, -53.6935, 2.2533, -173.637, 2.25559, 66.206, 0.0121501, 139.924
0, 3420.00000, 126.68, -30.6195, 127.108, -150.563, 126.979, 89.2799, 0, 0, 2.26092, -53.6935, 2.2533, -173.637, 2.25559, 66.206, 0.0121501, 139.924
0, 3480.00000, 126.68, -30.6195, 127.108, -150.563, 126.979, 89.2799, 0, 0, 2.26092, -53.6935, 2.2533, -173.637, 2.25559, 66.206, 0.0121501, 139.924
0, 3540.00000, 126.68, -30.6195, 127.108, -150.563, 126.979, 89.2799, 0, 0, 2.26092, -53.6935, 2.2533, -173.637, 2.25559, 66.206, 0.0121501, 139.924
1, 0.00000, 126.68, -30.6195, 127.108, -150.563, 126.979, 89.2799, 0, 0, 2.26092, -53.6935, 2.2533, -173.637, 2.25559, 66.206, 0.0121501, 139.924
1, 60.00000, 126.68, -30.6195, 127.108, -150.563, 126.979, 89.2799, 0, 0, 2.26092, -53.6935, 2.2533, -173.637, 2.25559, 66.206, 0.0121501, 139.924
1, 120.00000, 126.68, -30.6195, 127.108, -150.563, 126.979, 89.2799, 0, 0, 2.26092, -53.6935, 2.2533, -173.637, 2.25559, 66.206, 0.0121501, 139.924
1, 180.00000, 126.68, -30.6195, 127.108, -150.563, 126.979, 89.2799, 0, 0, 2.26092, -53.6935, 2.2533, -173.637, 2.25559, 66.206, 0.0121501, 139.924
1, 240.00000, 126.68, -30.6195, 127.108, -150.563, 126.979, 89.2799, 0, 0, 2.26092, -53.6935, 2.2533, -173.637, 2.25559, 66.206, 0.0121501, 139.924
1, 300.00000, 126.68, -30.6195, 127.108, -150.563, 126.979, 89.2799, 0, 0, 2.26092, -53.6935, 2.2533, -173.637, 2.25559, 66.206, 0.0121501, 139.924
1, 360.00000, 126.68, -30.6195, 127.108, -150.563, 126.979, 89.2799, 0, 0, 2.26092, -53.6935, 2.2533, -173.637, 2.25559, 66.206, 0.0121501, 139.924
1, 420.00000, 126.68, -30.6195, 127.108, -150.563, 126.979, 89.2799, 0, 0, 2.26092, -53.6935, 2.2533, -173.637, 2.25559, 66.206, 0.0121501, 139.924
1, 480.00000, 126.68, -30.6195, 127.108, -150.563, 126.979, 89.2799, 0, 0, 2.26092, -53.6935, 2.2533, -173.637, 2.25559, 66.206, 0.0121501, 139.924
1, 540.00000, 126.68, -30.6195, 127.108, -150.563, 126.979, 89.2799, 0, 0, 2.26092, -53.6935, 2.2533, -173.637, 2.25559, 66.206, 0.0121501, 139.924
1, 600.00000, 126.68, -30.6195, 127.108, -150.563, 126.979, 89.2799, 0, 0, 2.26092, -53.6935, 2.2533, -173.637, 2.25559, 66.206, 0.0121501, 139.924
1, 660.00000, 126.68, -30.6195, 127.108, -150.563, 126.979, 89.2799, 0, 0, 2.26092, -53.6935, 2.2533, -173.637, 2.25559, 66.206, 0.0121501, 139.924
1, 720.00000, 126.68, -30.6195, 127.108, -150.563, 126.979, 89.2799, 0, 0, 2.26092, -53.6935, 2.2533, -173.637, 2.25559, 66.206, 0.0121501, 139.924
1, 780.00000, 126.68, -30.6195, 127.108, -150.563, 126.979, 89.2799, 0, 0, 2.26092, -53.6935, 2.2533, -173.637, 2.25559, 66.206, 0.0121501, 139.924
1, 840.00000, 126.68, -30.6195, 127.108, -150.563, 126.979, 89.2799, 0, 0, 2.26092, -53.6935, 2.2533, -173.637, 2.25559, 66.206, 0.0121501, 139.924
1, 900.00000, 126.68, -30.6195, 127.108, -150.563, 126.979, 89.2799, 0, 0, 2.26092, -53.6935, 2.2533, -173.637, 2.25559, 66.206, 0.0121501, 139.924
1, 960.00000, 126.68, -30.6195, 127.108, -150.563, 126.979, 89.2799, 0, 0, 2.26092, -53.6935, 2.2533, -173.637, 2.25559, 66.206, 0.0121501, 139.924
1, 1020.00000, 126.68, -30.6195, 127.108, -150.563, 126.979, 89.2799, 0, 0, 2.26092, -53.6935, 2.2533, -173.637, 2.25559, 66.206, 0.0121501, 139.924
1, 1080.00000, 126.68, -30.6195, 127.108, -150.563, 126.979, 89.2799, 0, 0, 2.26092, -53.6935, 2.2533, -173.637, 2.25559, 66.206, 0.0121501, 139.924
1, 1140.00000, 126.68, -30.6195, 127.108, -150.563, 126.979, 89.2799, 0, 0, 2.26092, -53.6935, 2.2533, -173.637, 2.25559, 66.206, 0.0121501, 139.924
1, 1200.00000, 126.68, -30.6195, 127.108, -150.563, 126.979, 89.2799, 0, 0, 2.26092, -53.6935, 2.2533, -173.637, 2.25559, 66.206, 0.0121501, 139.924
1, 1260.00000, 126.68, -30.6195, 127.108, -150.563, 126.979, 89.2799, 0, 0, 2.26092, -53.6935, 2.2533, -173.637, 2.25559, 66.206, 0.0121501, 139.924
1, 1320.00000, 126.68, -30.6195, 127.108, -150.563, 126.979, 89.2799, 0, 0, 2.26092, -53.6935, 2.2533, -173.637, 2.25559, 66.206, 0.0121501, 139.924
1, 1380.00000, 126.68, -30.6195, 127.108, -150.563, 126.979, 89.2799, 0, 0, 2.26092, -53.6935, 2.2533, -173.637, 2.25559, 66.206, 0.0121501, 139.924
1, 1440.00000, 126.68, -30.6195, 127.108, -150.563, 126.979, 89.2799, 0, 0, 2.26092, -53.6935, 2.2533, -173.637, 2.25559, 66.206, 0.0121501, 139.924
1, 1500.00000, 126.68, -30.6195, 127.108, -150.563, 126.979, 89.2799, 0, 0, 2.26092, -53.6935, 2.2533, -173.637, 2.25559, 66.206, 0.0121501, 139.924
1, 1560.00000, 126.68, -30.6195, 127.108, -150.563, 126.979, 89.2799, 0, 0, 2.26092, -53.6935, 2.2533, -173.637, 2.25559, 66.206, 0.0121501, 139.924
1, 1620.00000, 126.68, -30.6195, 127.108, -150.563, 126.979, 89.2799, 0, 0, 2.26092, -53.6935, 2.2533, -173.637, 2.25559, 66.206, 0.0121501, 139.924
1, 1680.00000, 126.68, -30.6195, 127.108, -150.563, 126.979, 89.2799, 0, 0, 2.26092, -53.6935, 2.2533, -173.637, 2.25559, 66.206, 0.0121501, 139.924
1, 1740.00000, 126.68, -30.6195, 127.108, -150.563, 126.979, 89.2799, 0, 0, 2.26092, -53.6935, 2.2533, -173.637, 2.25559, 66.206, 0.0121501, 139.924
1, 1800.00000, 126.68, -30.6195, 127.108, -150.563, 126.979, 89.2799, 0, 0, 2.26092, -53.6935, 2.2533, -173.637, 2.25559, 66.206, 0.0121501, 139.924
1, 1860.00000, 126.68, -30.6195, 127.108, -150.563, 126.979, 89.2799, 0, 0, 2.26092, -53.6935, 2.2533, -173.637, 2.25559, 66.206, 0.0121501, 139.924
1, 1920.00000, 126.68, -30.6195, 127.108, -150.563, 126.979, 89.2799, 0, 0, 2.26092, -53.6935, 2.2533, -173.637, 2.25559, 66.206, 0.0121501, 139.924
1, 1980.00000, 126.68, -30.6195, 127.108, -150.563, 126.979, 89.2799, 0, 0, 2.26092, -53.6935, 2.2533, -173.637, 2.25559, 66.206, 0.0121501, 139.924
1, 2040.00000, 126.68, -30.6195, 127.108, -150.563, 126.979, 89.2799, 0, 0, 2.26092, -53.6935, 2.2533, -173.637, 2.25559, 66.206, 0.0121501, 139.924
1, 2100.00000, 126.68, -30.6195, 127.108, -150.563, 126.979, 89.2799, 0, 0, 2.26092, -53.6935, 2.2533, -173.637, 2.25559, 66.206, 0.0121501, 139.924
1, 2160.00000, 126.68, -30.6195, 127.108, -150.563, 126.979, 89.2799, 0, 0, 2.26092, -53.6935, 2.2533, -173.637, 2.25559, 66.206, 0.0121501, 139.924
1, 2220.00000, 126.68, -30.6195, 127.108, -150.563, 126.979, 89.2799, 0, 0, 2.26092, -53.6935, 2.2533, -173.637, 2.25559, 66.206, 0.0121501, 139.924
1, 2280.00000, 126.68, -30.6195, 127.108, -150.563, 126.979, 89.2799, 0, 0, 2.26092, -53.6935, 2.2533, -173.637, 2.25559, 66.206, 0.0121501, 139.924
1, 2340.00000, 126.68, -30.6195, 127.108, -150.563, 126.979, 89.2799, 0, 0, 2.26092, -53.6935, 2.2533, -173.637, 2.25559, 66.206, 0.0121501, 139.924
1, 2400.00000, 126.68, -30.6195, 127.108, -150.563, 126.979, 89.2799, 0, 0, 2.26092, -53.6935, 2.2533, -173.637, 2.25559, 66.206, 0.0121501, 139.924
1, 2460.00000, 126.68, -30.6195, 127.108, -150.563, 126.979, 89.2799, 0, 0, 2.26092, -53.6935, 2.2533, -173.637, 2.25559, 66.206, 0.0121501, 139.924
1, 2520.00000, 126.68, -30.6195, 127.108, -150.563, 126.979, 89.2799, 0, 0, 2.26092, -53.6935, 2.2533, -173.637, 2.25559, 66.206, 0.0121501, 139.924
1, 2580.00000, 126.68, -30.6195, 127.108, -150.563, 126.979, 89.2799, 0, 0, 2.26092, -53.6935, 2.2533, -173.637, 2.25559, 66.206, 0.0121501, 139.924
1, 2640.00000, 126.68, -30.6195, 127.108, -150.563, 126.979, 89.2799, 0, 0, 2.26092, -53.6935, 2.2533, -173.637, 2.25559, 66.206, 0.0121501, 139.924
1, 2700.00000, 126.68, -30.6195, 127.108, -150.563, 126.979, 89.2799, 0, 0, 2.26092, -53.6935, 2.2533, -173.637, 2.25559, 66.206, 0.0121501, 139.924
1, 2760.00000, 126.68, -30.6195, 127.108, -150.563, 126.979, 89.2799, 0, 0, 2.26092, -53.6935, 2.2533, -173.637, 2.25559, 66.206, 0.0121501, 139.924
1, 2820.00000, 126.68, -30.6195, 127.108, -150.563, 126.979, 89.2799, 0, 0, 2.26092, -53.6935, 2.2533, -173.637, 2.25559, 66.206, 0.0121501, 139.924
1, 2880.00000, 126.68, -30.6195, 127.108, -150.563, 126.979, 89.2799, 0, 0, 2.26092, -53.6935, 2.2533, -173.637, 2.25559, 66.206, 0.0121501, 139.924
1, 2940.00000, 126.68, -30.6195, 127.108, -150.563, 126.979, 89.2799, 0, 0, 2.26092, -53.6935, 2.2533, -173.637, 2.25559, 66.206, 0.0121501, 139.924
1, 3000.00000, 126.68, -30.6195, 127.108, -150.563, 126.979, 89.2799, 0, 0, 2.26092, -53.6935, 2.2533, -173.637, 2.25559, 66.206, 0.0121501, 139.924
1, 3060.00000, 126.68, -30.6195, 127.108, -150.563, 126.979, 89.2799, 0, 0, 2.26092, -53.6935, 2.2533, -173.637, 2.25559, 66.206, 0.0121501, 139.924
1, 3120.00000, 126.68, -30.6195, 127.108, -150.563, 126.979, 89.2799, 0, 0, 2.26092, -53.6935, 2.2533, -173.637, 2.25559, 66.206, 0.0121501, 139.924
1, 3180.00000, 126.68, -30.6195, 127.108, -150.563, 126.979, 89.2799, 0, 0, 2.26092, -53.6935, 2.2533, -173.637, 2.25559, 66.206, 0.0121501, 139.924
1, 3240.00000, 126.68, -30.6195, 127.108, -150.563, 126.979, 89.2799, 0, 0, 2.26092, -53.6935, 2.2533, -173.637, 2.25559, 66.206, 0.0121501, 139.924
1, 3300.00000, 126.68, -30.6195, 127.108, -150.563, 126.979, 89.2799, 0, 0, 2.26092, -53.6935, 2.2533, -173.637, 2.25559, 66.206, 0.0121501, 139.924
1, 3360.00000, 126.68, -30.6195, 127.108, -150.563, 126.979, 89.2799, 0, 0, 2.26092, -53.6935, 2.2533, -173.637, 2.25559, 66.206, 0.0121501, 139.924
1, 3420.00000, 126.68, -30.6195, 127.108, -150.563, 126.979, 89.2799, 0, 0, 2.26092, -53.6935, 2.2533, -173.637, 2.25559, 66.206, 0.0121501, 139.924
1, 3480.00000, 126.68, -30.6195, 127.108, -150.563, 126.979, 89.2799, 0, 0, 2.26092, -53.6935, 2.2533, -173.637, 2.25559, 66.206, 0.0121501, 139.924
1, 3540.00000, 126.68, -30.6195, 127.108, -150.563, 126.979, 89.2799, 0, 0, 2.26092, -53.6935, 2.2533, -173.637, 2.25559, 66.206, 0.0121501, 139.924
2, 0.00000, 126.68, -30.6195, 127.108, -150.563, 126.979, 89.2799, 0, 0, 2.26092, -53.6935, 2.2533, -173.637, 2.25559, 66.206, 0.0121501, 139.924
2, 60.00000, 126.68, -30.6195, 127.108, -150.563, 126.979, 89.2799, 0, 0, 2.26092, -53.6935, 2.2533, -173.637, 2.25559, 66.206, 0.0121501, 139.924
2, 120.00000, 126.676, -30.6207, 127.105, -150.565, 126.975, 89.2788, 0, 0, 2.26724, -53.6945, 2.2596, -173.638, 2.2619, 66.2049, 0.0121863, 139.919
2, 180.00000, 126.672, -30.6218, 127.101, -150.566, 126.972, 89.2776, 0, 0, 2.27364, -53.6957, 2.26597, -173.64, 2.26828, 66.2038, 0.012224, 139.915
2, 240.00000, 126.669, -30.623, 127.097, -150.567, 126.968, 89.2765, 0, 0, 2.27996, -53.6968, 2.27227, -173.641, 2.27459, 66.2027, 0.0122613, 139.911
2, 300.00000, 126.665, -30.6241, 127.094, -150.568, 126.964, 89.2754, 0, 0, 2.28629, -53.698, 2.27857, -173.642, 2.2809, 66.2015, 0.0122986, 139.907
2, 360.00000, 126.661, -30.6253, 127.09, -150.569, 126.96, 89.2743, 0, 0, 2.29269, -53.6992, 2.28495, -173.643, 2.28728, 66.2004, 0.0123364, 139.903
2, 420.00000, 126.657, -30.6264, 127.086, -150.57, 126.957, 89.2731, 0, 0, 2.29901, -53.7003, 2.29125, -173.644, 2.29359, 66.1993, 0.0123737, 139.899
2, 480.00000, 126.653, -30.6276, 127.083, -150.571, 126.953, 89.272, 0, 0, 2.30534, -53.7014, 2.29755, -173.645, 2.2999, 66.1981, 0.0124111, 139.895
2, 540.00000, 126.649, -30.6287, 127.079, -150.572, 126.949, 89.2709, 0, 0, 2.31174, -53.7026, 2.30393, -173.646, 2.30628, 66.197, 0.0124489, 139.891
2, 600.00000, 126.646, -30.6299, 127.075, -150.574, 126.945, 89.2697, 0, 0, 2.31807, -53.7037, 2.31023, -173.647, 2.31259, 66.1959, 0.0124864, 139.887
2, 660.00000, 126.642, -30.631, 127.072, -150.575, 126.942, 89.2686, 0, 0, 2.32439, -53.7049, 2.31653, -173.649, 2.3189, 66.1948, 0.0125238, 139.883
2, 720.00000, 126.638, -30.6322, 127.068, -150.576, 126.938, 89.2675, 0, 0, 2.3308, -53.7061, 2.32291, -173.65, 2.32529, 66.1936, 0.0125617, 139.878
