hour,t(sec),V1,VAngle1,V2,VAngle2,V3,VAngle3,V4,VAngle4,I1,IAngle1,I2,IAngle2,I3,IAngle3,I4,IAngle4
0, 60.00000, 125.86, -30.661, 126.388, -150.734, 125.922, 89.2287, 0, 0, 2.33177, -53.7348, 2.32203, -173.808, 2.33063, 66.155, 0.0130519, -174.931
0, 120.00000, 125.86, -30.661, 126.388, -150.734, 125.922, 89.2287, 0, 0, 2.33178, -53.7349, 2.32204, -173.808, 2.33064, 66.1548, 0.0130607, -174.912
0, 180.00000, 125.86, -30.661, 126.388, -150.734, 125.922, 89.2287, 0, 0, 2.33178, -53.7349, 2.32204, -173.808, 2.33064, 66.1548, 0.0130607, -174.912
0, 240.00000, 125.86, -30.661, 126.388, -150.734, 125.922, 89.2287, 0, 0, 2.33178, -53.7349, 2.32204, -173.808, 2.33064, 66.1548, 0.0130607, -174.912
0, 300.00000, 125.86, -30.661, 126.388, -150.734, 125.922, 89.2287, 0, 0, 2.33178, -53.7349, 2.32204, -173.808, 2.33064, 66.1548, 0.0130607, -174.912
0, 360.00000, 125.86, -30.661, 126.388, -150.734, 125.922, 89.2287, 0, 0, 2.33178, -53.7349, 2.32204, -173.808, 2.33064, 66.1548, 0.0130607, -174.912
0, 420.00000, 125.86, -30.661, 126.388, -150.734, 125.922, 89.2287, 0, 0, 2.33178, -53.7349, 2.32204, -173.808, 2.33064, 66.1548, 0.0130607, -174.912
0, 480.00000, 125.86, -30.661, 126.388, -150.734, 125.922, 89.2287, 0, 0, 2.33178, -53.7349, 2.32204, -173.808, 2.33064, 66.1548, 0.0130607, -174.912
0, 540.00000, 125.86, -30.661, 126.388, -150.734, 125.922, 89.2287, 0, 0, 2.33178, -53.7349, 2.32204, -173.808, 2.33064, 66.1548, 0.0130607, -174.912
0, 600.00000, 125.86, -30.661, 126.388, -150.734, 125.922, 89.2287, 0, 0, 2.33178, -53.7349, 2.32204, -173.808, 2.33064, 66.1548, 0.0130607, -174.912
0, 660.00000, 125.86, -30.661, 126.388, -150.734, 125.922, 89.2287, 0, 0, 2.33178, -53.7349, 2.32204, -173.808, 2.33064, 66.1548, 0.0130607, -174.912
0, 720.00000, 125.86, -30.661, 126.388, -150.734, 125.922, 89.2287, 0, 0, 2.33178, -53.7349, 2.32204, -173.808, 2.33064, 66.1548, 0.0130607, -174.912
0, 780.00000, 125.86, -30.661, 126.388, -150.734, 125.922, 89.2287, 0, 0, 2.33178, -53.7349, 2.32204, -173.808, 2.33064, 66.1548, 0.0130607, -174.912
0, 840.00000, 125.86, -30.661, 126.388, -150.734, 125.922, 89.2287, 0, 0, 2.33178, -53.7349, 2.32204, -173.808, 2.33064, 66.1548, 0.0130607, -174.912
0, 900.00000, 125.86, -30.661, 126.388, -150.734, 125.922, 89.2287, 0, 0, 2.33178, -53.7349, 2.32204, -173.808, 2.33064, 66.1548, 0.0130607, -174.912
0, 960.00000, 125.728, -30.8342, 125.982, -150.782, 125.919, 89.227, 0, 0, 2.3342, -53.9076, 2.32948, -173.855, 2.33068, 66.1533, 0.00404268, 107.821
0, 1020.00000, 125.728, -30.8342, 125.982, -150.782, 125.919, 89.227, 0, 0, 2.33424, -53.9081, 2.32952, -173.856, 2.33069, 66.1531, 0.00404058, 107.375
0, 1080.00000, 125.728, -30.8342, 125.982, -150.782, 125.919, 89.227, 0, 0, 2.33424, -53.9081, 2.32952, -173.856, 2.33069, 66.1531, 0.00404059, 107.374
0, 1140.00000, 125.728, -30.8342, 125.982, -150.782, 125.919, 89.227, 0, 0, 2.33424, -53.9081, 2.32952, -173.856, 2.33069, 66.1531, 0.00404059, 107.374
0, 1200.00000, 125.728, -30.8342, 125.982, -150.782, 125.919, 89.227, 0, 0, 2.33424, -53.9081, 2.32952, -173.856, 2.33069, 66.1531, 0.00404059, 107.374
0, 1260.00000, 125.728, -30.8342, 125.982, -150.782, 125.919, 89.227, 0, 0, 2.33424, -53.9081, 2.32952, -173.856, 2.33069, 66.1531, 0.00404059, 107.374
0, 1320.00000, 125.728, -30.8342, 125.982, -150.782, 125.919, 89.227, 0, 0, 2.33424, -53.9081, 2.32952, -173.856, 2.33069, 66.1531, 0.00404059, 107.374
0, 1380.00000, 125.728, -30.8342, 125.982, -150.782, 125.919, 89.227, 0, 0, 2.33424, -53.9081, 2.32952, -173.856, 2.33069, 66.1531, 0.00404059, 107.374
0, 1440.00000, 125.728, -30.8342, 125.982, -150.782, 125.919, 89.227, 0, 0, 2.33424, -53.9081, 2.32952, -173.856, 2.33069, 66.1531, 0.00404059, 107.374
0, 1500.00000, 125.728, -30.8342, 125.982, -150.782, 125.919, 89.227, 0, 0, 2.33424, -53.9081, 2.32952, -173.856, 2.33069, 66.1531, 0.00404059, 107.374
0, 1560.00000, 125.728, -30.8342, 125.982, -150.782, 125.919, 89.227, 0, 0, 2.33424, -53.9081, 2.32952, -173.856, 2.33069, 66.1531, 0.00404059, 107.374
0, 1620.00000, 125.728, -30.8342, 125.982, -150.782, 125.919, 89.227, 0, 0, 2.33424, -53.9081, 2.32952, -173.856, 2.33069, 66.1531, 0.00404059, 107.374
0, 1680.00000, 125.728, -30.8342, 125.982, -150.782, 125.919, 89.227, 0, 0, 2.33424, -53.9081, 2.32952, -173.856, 2.33069, 66.1531, 0.00404059, 107.374
0, 1740.00000, 125.728, -30.8342, 125.982, -150.782, 125.919, 89.227, 0, 0, 2.33424, -53.9081, 2.32952, -173.856, 2.33069, 66.1531, 0.00404059, 107.374
0, 1800.00000, 125.728, -30.8342, 125.982, -150.782, 125.919, 89.227, 0, 0, 2.33424, -53.9081, 2.32952, -173.856, 2.33069, 66.1531, 0.00404059, 107.374
0, 1860.00000, 125.728, -30.8342, 125.982, -150.782, 125.919, 89.227, 0, 0, 2.33424, -53.9081, 2.32952, -173.856, 2.33069, 66.1531, 0.00404059, 107.374
0, 1920.00000, 125.728, -30.8342, 125.982, -150.782, 125.919, 89.227, 0, 0, 2.33424, -53.9081, 2.32952, -173.856, 2.33069, 66.1531, 0.00404059, 107.374
0, 1980.00000, 125.728, -30.8342, 125.982, -150.782, 125.919, 89.227, 0, 0, 2.33424, -53.9081, 2.32952, -173.856, 2.33069, 66.1531, 0.00404059, 107.374
0, 2040.00000, 125.728, -30.8342, 125.982, -150.782, 125.919, 89.227, 0, 0, 2.33424, -53.9081, 2.32952, -173.856, 2.33069, 66.1531, 0.00404059, 107.374
0, 2100.00000, 125.728, -30.8342, 125.982, -150.782, 125.919, 89.227, 0, 0, 2.33424, -53.9081, 2.32952, -173.856, 2.33069, 66.1531, 0.00404059, 107.374
0, 2160.00000, 125.728, -30.8342, 125.982, -150.782, 125.919, 89.227, 0, 0, 2.33424, -53.9081, 2.32952, -173.856, 2.33069, 66.1531, 0.00404059, 107.374
0, 2220.00000, 125.728, -30.8342, 125.982, -150.782, 125.919, 89.227, 0, 0, 2.33424, -53.9081, 2.32952, -173.856, 2.33069, 66.1531, 0.00404059, 107.374
0, 2280.00000, 125.728, -30.8342, 125.982, -150.782, 125.919, 89.227, 0, 0, 2.33424, -53.9081, 2.32952, -173.856, 2.33069, 66.1531, 0.00404059, 107.374
0, 2340.00000, 125.728, -30.8342, 125.982, -150.782, 125.919, 89.227, 0, 0, 2.33424, -53.9081, 2.32952, -173.856, 2.33069, 66.1531, 0.00404059, 107.374
0, 2400.00000, 125.728, -30.8342, 125.982, -150.782, 125.919, 89.227, 0, 0, 2.33424, -53.9081, 2.32952, -173.856, 2.33069, 66.1531, 0.00404059, 107.374
0, 2460.00000, 125.728, -30.8342, 125.982, -150.782, 125.919, 89.227, 0, 0, 2.33424, -53.9081, 2.32952, -173.856, 2.33069, 66.1531, 0.00404059, 107.374
0, 2520.00000, 125.728, -30.8342, 125.982, -150.782, 125.919, 89.227, 0, 0, 2.33424, -53.9081, 2.32952, -173.856, 2.33069, 66.1531, 0.00404059, 107.374
0, 2580.00000, 125.728, -30.8342, 125.982, -150.782, 125.919, 89.227, 0, 0, 2.33424, -53.9081, 2.32952, -173.856, 2.33069, 66.1531, 0.00404059, 107.374
0, 2640.00000, 125.728, -30.8342, 125.982, -150.782, 125.919, 89.227, 0, 0, 2.33424, -53.9081, 2.32952, -173.856, 2.33069, 66.1531, 0.00404059, 107.374
0, 2700.00000, 125.728, -30.8342, 125.982, -150.782, 125.919, 89.227, 0, 0, 2.33424, -53.9081, 2.32952, -173.856, 2.33069, 66.1531, 0.00404059, 107.374
0, 2760.00000, 125.728, -30.8342, 125.982, -150.782, 125.919, 89.227, 0, 0, 2.33424, -53.9081, 2.32952, -173.856, 2.33069, 66.1531, 0.00404059, 107.374
0, 2820.00000, 125.728, -30.8342, 125.982, -150.782, 125.919, 89.227, 0, 0, 2.33424, -53.9081, 2.32952, -173.856, 2.33069, 66.1531, 0.00404059, 107.374
0, 2880.00000, 125.728, -30.8342, 125.982, -150.782, 125.919, 89.227, 0, 0, 2.33424, -53.9081, 2.32952, -173.856, 2.33069, 66.1531, 0.00404059, 107.374
0, 2940.00000, 125.728, -30.8342, 125.982, -150.782, 125.919, 89.227, 0, 0, 2.33424, -53.9081, 2.32952, -173.856, 2.33069, 66.1531, 0.00404059, 107.374
0, 3000.00000, 125.728, -30.8342, 125.982, -150.782, 125.919, 89.227, 0, 0, 2.33424, -53.9081, 2.32952, -173.856, 2.33069, 66.1531, 0.00404059, 107.374
0, 3060.00000, 125.728, -30.8342, 125.982, -150.782, 125.919, 89.227, 0, 0, 2.33424, -53.9081, 2.32952, -173.856, 2.33069, 66.1531, 0.00404059, 107.374
0, 3120.00000, 125.728, -30.8342, 125.982, -150.782, 125.919, 89.227, 0, 0, 2.33424, -53.9081, 2.32952, -173.856, 2.33069, 66.1531, 0.00404059, 107.374
0, 3180.00000, 125.728, -30.8342, 125.982, -150.782, 125.919, 89.227, 0, 0, 2.33424, -53.9081, 2.32952, -173.856, 2.33069, 66.1531, 0.00404059, 107.374
0, 3240.00000, 125.728, -30.8342, 125.982, -150.782, 125.919, 89.227, 0, 0, 2.33424, -53.9081, 2.32952, -173.856, 2.33069, 66.1531, 0.00404059, 107.374
0, 3300.00000, 125.728, -30.8342, 125.982, -150.782, 125.919, 89.227, 0, 0, 2.33424, -53.9081, 2.32952, -173.856, 2.33069, 66.1531, 0.00404059, 107.374
0, 3360.00000, 125.728, -30.8342, 125.982, -150.782, 125.919, 89.227, 0, 0, 2.33424, -53.9081, 2.32952, -173.856, 2.33069, 66.1531, 0.00404059, 107.374
0, 3420.00000, 125.728, -30.8342, 125.982, -150.782, 125.919, 89.227, 0, 0, 2.33424, -53.9081, 2.32952, -173.856, 2.33069, 66.1531, 0.00404059, 107.374
0, 3480.00000, 125.728, -30.8342, 125.982, -150.782, 125.919, 89.227, 0, 0, 2.33424, -53.9081, 2.32952, -173.856, 2.33069, 66.1531, 0.00404059, 107.374
0, 3540.00000, 125.728, -30.8342, 125.982, -150.782, 125.919, 89.227, 0, 0, 2.33424, -53.9081, 2.32952, -173.856, 2.33069, 66.1531, 0.00404059, 107.374
1, 0.00000, 125.728, -30.8342, 125.982, -150.782, 125.919, 89.227, 0, 0, 2.33424, -53.9081, 2.32952, -173.856, 2.33069, 66.1531, 0.00404059, 107.374
1, 60.00000, 125.728, -30.8342, 125.982, -150.782, 125.919, 89.227, 0, 0, 2.33424, -53.9081, 2.32952, -173.856, 2.33069, 66.1531, 0.00404059, 107.374
1, 120.00000, 125.728, -30.8342, 125.982, -150.782, 125.919, 89.227, 0, 0, 2.33424, -53.9081, 2.32952, -173.856, 2.33069, 66.1531, 0.00404059, 107.374
1, 180.00000, 125.728, -30.8342, 125.982, -150.782, 125.919, 89.227, 0, 0, 2.33424, -53.9081, 2.32952, -173.856, 2.33069, 66.1531, 0.00404059, 107.374
1, 240.00000, 125.728, -30.8342, 125.982, -150.782, 125.919, 89.227, 0, 0, 2.33424, -53.9081, 2.32952, -173.856, 2.33069, 66.1531, 0.00404059, 107.374
1, 300.00000, 125.728, -30.8342, 125.982, -150.782, 125.919, 89.227, 0, 0, 2.33424, -53.9081, 2.32952, -173.856, 2.33069, 66.1531, 0.00404059, 107.374
1, 360.00000, 125.728, -30.8342, 125.982, -150.782, 125.919, 89.227, 0, 0, 2.33424, -53.9081, 2.32952, -173.856, 2.33069, 66.1531, 0.00404059, 107.374
1, 420.00000, 125.728, -30.8342, 125.982, -150.782, 125.919, 89.227, 0, 0, 2.33424, -53.9081, 2.32952, -173.856, 2.33069, 66.1531, 0.00404059, 107.374
1, 480.00000, 125.728, -30.8342, 125.982, -150.782, 125.919, 89.227, 0, 0, 2.33424, -53.9081, 2.32952, -173.856, 2.33069, 66.1531, 0.00404059, 107.374
1, 540.00000, 125.728, -30.8342, 125.982, -150.782, 125.919, 89.227, 0, 0, 2.33424, -53.9081, 2.32952, -173.856, 2.33069, 66.1531, 0.00404059, 107.374
1, 600.00000, 125.728, -30.8342, 125.982, -150.782, 125.919, 89.227, 0, 0, 2.33424, -53.9081, 2.32952, -173.856, 2.33069, 66.1531, 0.00404059, 107.374
1, 660.00000, 125.728, -30.8342, 125.982, -150.782, 125.919, 89.227, 0, 0, 2.33424, -53.9081, 2.32952, -173.856, 2.33069, 66.1531, 0.00404059, 107.374
1, 720.00000, 125.728, -30.8342, 125.982, -150.782, 125.919, 89.227, 0, 0, 2.33424, -53.9081, 2.32952, -173.856, 2.33069, 66.1531, 0.00404059, 107.374
1, 780.00000, 125.728, -30.8342, 125.982, -150.782, 125.919, 89.227, 0, 0, 2.33424, -53.9081, 2.32952, -173.856, 2.33069, 66.1531, 0.00404059, 107.374
1, 840.00000, 125.728, -30.8342, 125.982, -150.782, 125.919, 89.227, 0, 0, 2.33424, -53.9081, 2.32952, -173.856, 2.33069, 66.1531, 0.00404059, 107.374
1, 900.00000, 125.728, -30.8342, 125.982, -150.782, 125.919, 89.227, 0, 0, 2.33424, -53.9081, 2.32952, -173.856, 2.33069, 66.1531, 0.00404059, 107.374
1, 960.00000, 125.728, -30.8342, 125.982, -150.782, 125.919, 89.227, 0, 0, 2.33424, -53.9081, 2.32952, -173.856, 2.33069, 66.1531, 0.00404059, 107.374
1, 1020.00000, 125.728, -30.8342, 125.982, -150.782, 125.919, 89.227, 0, 0, 2.33424, -53.9081, 2.32952, -173.856, 2.33069, 66.1531, 0.00404059, 107.374
1, 1080.00000, 125.728, -30.8342, 125.982, -150.782, 125.919, 89.227, 0, 0, 2.33424, -53.9081, 2.32952, -173.856, 2.33069, 66.1531, 0.00404059, 107.374
1, 1140.00000, 125.728, -30.8342, 125.982, -150.782, 125.919, 89.227, 0, 0, 2.33424, -53.9081, 2.32952, -173.856, 2.33069, 66.1531, 0.00404059, 107.374
1, 1200.00000, 125.728, -30.8342, 125.982, -150.782, 125.919, 89.227, 0, 0, 2.33424, -53.9081, 2.32952, -173.856, 2.33069, 66.1531, 0.00404059, 107.374
1, 1260.00000, 125.728, -30.8342, 125.982, -150.782, 125.919, 89.227, 0, 0, 2.33424, -53.9081, 2.32952, -173.856, 2.33069, 66.1531, 0.00404059, 107.374
1, 1320.00000, 125.728, -30.8342, 125.982, -150.782, 125.919, 89.227, 0, 0, 2.33424, -53.9081, 2.32952, -173.856, 2.33069, 66.1531, 0.00404059, 107.374
1, 1380.00000, 125.728, -30.8342, 125.982, -150.782, 125.919, 89.227, 0, 0, 2.33424, -53.9081, 2.32952, -173.856, 2.33069, 66.1531, 0.00404059, 107.374
1, 1440.00000, 125.728, -30.8342, 125.982, -150.782, 125.919, 89.227, 0, 0, 2.33424, -53.9081, 2.32952, -173.856, 2.33069, 66.1531, 0.00404059, 107.374
1, 1500.00000, 125.728, -30.8342, 125.982, -150.782, 125.919, 89.227, 0, 0, 2.33424, -53.9081, 2.32952, -173.856, 2.33069, 66.1531, 0.00404059, 107.374
1, 1560.00000, 125.728, -30.8342, 125.982, -150.782, 125.919, 89.227, 0, 0, 2.33424, -53.9081, 2.32952, -173.856, 2.33069, 66.1531, 0.00404059, 107.374
1, 1620.00000, 125.728, -30.8342, 125.982, -150.782, 125.919, 89.227, 0, 0, 2.33424, -53.9081, 2.32952, -173.856, 2.33069, 66.1531, 0.00404059, 107.374
1, 1680.00000, 125.728, -30.8342, 125.982, -150.782, 125.919, 89.227, 0, 0, 2.33424, -53.9081, 2.32952, -173.856, 2.33069, 66.1531, 0.00404059, 107.374
1, 1740.00000, 125.728, -30.8342, 125.982, -150.782, 125.919, 89.227, 0, 0, 2.33424, -53.9081, 2.32952, -173.856, 2.33069, 66.1531, 0.00404059, 107.374
1, 1800.00000, 125.728, -30.8342, 125.982, -150.782, 125.919, 89.227, 0, 0, 2.33424, -53.9081, 2.32952, -173.856, 2.33069, 66.1531, 0.00404059, 107.374
1, 1860.00000, 125.728, -30.8342, 125.982, -150.782, 125.919, 89.227, 0, 0, 2.33424, -53.9081, 2.32952, -173.856, 2.33069, 66.1531, 0.00404059, 107.374
1, 1920.00000, 125.728, -30.8342, 125.982, -150.782, 125.919, 89.227, 0, 0, 2.33424, -53.9081, 2.32952, -173.856, 2.33069, 66.1531, 0.00404059, 107.374
1, 1980.00000, 125.728, -30.8342, 125.982, -150.782, 125.919, 89.227, 0, 0, 2.33424, -53.9081, 2.32952, -173.856, 2.33069, 66.1531, 0.00404059, 107.374
1, 2040.00000, 125.733, -30.8324, 126.115, -150.608, 126.327, 89.2753, 0, 0, 2.33416, -53.9065, 2.3271, -173.682, 2.32321, 66.2007, 0.0165683, 88.5828
1, 2100.00000, 125.733, -30.8323, 126.115, -150.608, 126.327, 89.2754, 0, 0, 2.33415, -53.9063, 2.32707, -173.682, 2.32316, 66.2014, 0.0165929, 88.5247
1, 2160.00000, 125.733, -30.8323, 126.115, -150.608, 126.327, 89.2754, 0, 0, 2.33415, -53.9063, 2.32707, -173.682, 2.32316, 66.2014, 0.016593, 88.5244
1, 2220.00000, 125.733, -30.8323, 126.115, -150.608, 126.327, 89.2754, 0, 0, 2.33415, -53.9063, 2.32707, -173.682, 2.32316, 66.2014, 0.016593, 88.5244
1, 2280.00000, 125.733, -30.8323, 126.115, -150.608, 126.327, 89.2754, 0, 0, 2.33415, -53.9063, 2.32707, -173.682, 2.32316, 66.2014, 0.016593, 88.5244
1, 2340.00000, 125.733, -30.8323, 126.115, -150.608, 126.327, 89.2754, 0, 0, 2.33415, -53.9063, 2.32707, -173.682, 2.32316, 66.2014, 0.016593, 88.5244
1, 2400.00000, 125.733, -30.8323, 126.115, -150.608, 126.327, 89.2754, 0, 0, 2.33415, -53.9063, 2.32707, -173.682, 2.32316, 66.2014, 0.016593, 88.5244
1, 2460.00000, 125.733, -30.8323, 126.115, -150.608, 126.327, 89.2754, 0, 0, 2.33415, -53.9063, 2.32707, -173.682, 2.32316, 66.2014, 0.016593, 88.5244
1, 2520.00000, 125.862, -30.6594, 126.521, -150.561, 126.329, 89.2758, 0, 0, 2.33177, -53.7336, 2.31964, -173.636, 2.32313, 66.2018, 0.0162615, 134.6
1, 2580.00000, 125.862, -30.6594, 126.521, -150.561, 126.329, 89.2758, 0, 0, 2.33175, -53.7333, 2.31961, -173.635, 2.32313, 66.2019, 0.016272, 134.674
1, 2640.00000, 125.862, -30.6594, 126.521, -150.561, 126.329, 89.2758, 0, 0, 2.33175, -53.7333, 2.31961, -173.635, 2.32313, 66.2019, 0.016272, 134.675
1, 2700.00000, 125.862, -30.6594, 126.521, -150.561, 126.329, 89.2758, 0, 0, 2.33175, -53.7333, 2.31961, -173.635, 2.32313, 66.2019, 0.016272, 134.675
1, 2760.00000, 126.263, -30.6147, 126.519, -150.561, 126.457, 89.4459, 0, 0, 2.32436, -53.6891, 2.31962, -173.635, 2.3208, 66.3717, 0.00414092, 107.824
1, 2820.00000, 126.263, -30.6147, 126.519, -150.561, 126.457, 89.4459, 0, 0, 2.32433, -53.6886, 2.31963, -173.635, 2.32078, 66.372, 0.00410883, 107.551
1, 2880.00000, 126.263, -30.6147, 126.519, -150.561, 126.457, 89.4459, 0, 0, 2.32433, -53.6886, 2.31963, -173.635, 2.32078, 66.372, 0.00410874, 107.55
1, 2940.00000, 126.263, -30.6147, 126.519, -150.561, 126.457, 89.4459, 0, 0, 2.32433, -53.6886, 2.31963, -173.635, 2.32078, 66.372, 0.00410874, 107.55
1, 3000.00000, 126.263, -30.6147, 126.519, -150.561, 126.457, 89.4459, 0, 0, 2.32433, -53.6886, 2.31963, -173.635, 2.32078, 66.372, 0.00410874, 107.55
1, 3060.00000, 126.263, -30.6147, 126.519, -150.561, 126.457, 89.4459, 0, 0, 2.32433, -53.6886, 2.31963, -173.635, 2.32078, 66.372, 0.00410874, 107.55
1, 3120.00000, 126.263, -30.6147, 126.519, -150.561, 126.457, 89.4459, 0, 0, 2.32433, -53.6886, 2.31963, -173.635, 2.32078, 66.372, 0.00410874, 107.55
1, 3180.00000, 126.263, -30.6147, 126.519, -150.561, 126.457, 89.4459, 0, 0, 2.32433, -53.6886, 2.31963, -173.635, 2.32078, 66.372, 0.00410874, 107.55
1, 3240.00000, 126.263, -30.6147, 126.519, -150.561, 126.457, 89.4459, 0, 0, 2.32433, -53.6886, 2.31963, -173.635, 2.32078, 66.372, 0.00410874, 107.55
1, 3300.00000, 126.263, -30.6147, 126.519, -150.561, 126.457, 89.4459, 0, 0, 2.32433, -53.6886, 2.31963, -173.635, 2.32078, 66.372, 0.00410874, 107.55
1, 3360.00000, 126.263, -30.6147, 126.519, -150.561, 126.457, 89.4459, 0, 0, 2.32433, -53.6886, 2.31963, -173.635, 2.32078, 66.372, 0.00410874, 107.55
1, 3420.00000, 126.263, -30.6147, 126.519, -150.561, 126.457, 89.4459, 0, 0, 2.32433, -53.6886, 2.31963, -173.635, 2.32078, 66.372, 0.00410874, 107.55
1, 3480.00000, 126.263, -30.6147, 126.519, -150.561, 126.457, 89.4459, 0, 0, 2.32433, -53.6886, 2.31963, -173.635, 2.32078, 66.372, 0.00410874, 107.55
1, 3540.00000, 126.263, -30.6147, 126.519, -150.561, 126.457, 89.4459, 0, 0, 2.32433, -53.6886, 2.31963, -173.635, 2.32078, 66.372, 0.00410874, 107.55
2, 0.00000, 126.263, -30.6147, 126.519, -150.561, 126.457, 89.4459, 0, 0, 2.32433, -53.6886, 2.31963, -173.635, 2.32078, 66.372, 0.00410874, 107.55
2, 60.00000, 126.263, -30.6147, 126.519, -150.561, 126.457, 89.4459, 0, 0, 2.32433, -53.6886, 2.31963, -173.635, 2.32078, 66.372, 0.00410874, 107.55
2, 120.00000, 126.258, -30.6159, 126.515, -150.562, 126.452, 89.4448, 0, 0, 2.33085, -53.6897, 2.32613, -173.636, 2.32729, 66.371, 0.00412726, 107.563
2, 180.00000, 126.253, -30.6171, 126.51, -150.563, 126.447, 89.4437, 0, 0, 2.33746, -53.6909, 2.33271, -173.637, 2.33387, 66.3698, 0.00414667, 107.586
2, 240.00000, 126.248, -30.6183, 126.505, -150.564, 126.442, 89.4426, 0, 0, 2.34398, -53.6921, 2.33921, -173.638, 2.34038, 66.3687, 0.00416591, 107.609
2, 300.00000, 126.243, -30.6195, 126.501, -150.565, 126.438, 89.4415, 0, 0, 2.35051, -53.6933, 2.34572, -173.639, 2.34689, 66.3676, 0.00418519, 107.632
2, 360.00000, 126.238, -30.6207, 126.496, -150.566, 126.433, 89.4403, 0, 0, 2.35712, -53.6945, 2.3523, -173.64, 2.35348, 66.3665, 0.00420474, 107.655
2, 420.00000, 126.233, -30.6219, 126.492, -150.568, 126.428, 89.4392, 0, 0, 2.36364, -53.6957, 2.35881, -173.641, 2.35999, 66.3654, 0.00422412, 107.678
2, 480.00000, 126.228, -30.6231, 126.487, -150.569, 126.423, 89.4381, 0, 0, 2.37017, -53.6969, 2.36531, -173.643, 2.36651, 66.3643, 0.00424354, 107.701
2, 540.00000, 126.222, -30.6243, 126.482, -150.57, 126.418, 89.437, 0, 0, 2.37678, -53.6981, 2.3719, -173.644, 2.3731, 66.3631, 0.00426323, 107.724
2, 600.00000, 126.217, -30.6255, 126.478, -150.571, 126.414, 89.4359, 0, 0, 2.38331, -53.6993, 2.3784, -173.645, 2.37961, 66.362, 0.00428275, 107.747
2, 660.00000, 126.212, -30.6266, 126.473, -150.572, 126.409, 89.4348, 0, 0, 2.38984, -53.7005, 2.38491, -173.646, 2.38612, 66.3609, 0.00430231, 107.769
