hour,t(sec),V1,VAngle1,V2,VAngle2,V3,VAngle3,V4,VAngle4,I1,IAngle1,I2,IAngle2,I3,IAngle3,I4,IAngle4
0, 60.00000, 123.079, -30.4274, 123.409, -150.959, 122.166, 89.6422, 0, 0, 2.47276, -53.5012, 2.46613, -174.033, 2.4912, 66.5683, 0.0424987, -101.791
0, 120.00000, 123.079, -30.4274, 123.409, -150.959, 122.166, 89.6422, 0, 0, 2.47279, -53.5013, 2.46617, -174.033, 2.49126, 66.5682, 0.0425324, -101.788
0, 180.00000, 123.079, -30.4274, 123.409, -150.959, 122.166, 89.6422, 0, 0, 2.47279, -53.5013, 2.46617, -174.033, 2.49126, 66.5682, 0.0425327, -101.788
0, 240.00000, 123.079, -30.4274, 123.409, -150.959, 122.166, 89.6422, 0, 0, 2.47279, -53.5013, 2.46617, -174.033, 2.49126, 66.5682, 0.0425327, -101.788
0, 300.00000, 123.079, -30.4274, 123.409, -150.959, 122.166, 89.6422, 0, 0, 2.47279, -53.5013, 2.46617, -174.033, 2.49126, 66.5682, 0.0425327, -101.788
0, 360.00000, 123.079, -30.4274, 123.409, -150.959, 122.166, 89.6422, 0, 0, 2.47279, -53.5013, 2.46617, -174.033, 2.49126, 66.5682, 0.0425327, -101.788
0, 420.00000, 123.079, -30.4274, 123.409, -150.959, 122.166, 89.6422, 0, 0, 2.47279, -53.5013, 2.46617, -174.033, 2.49126, 66.5682, 0.0425327, -101.788
0, 480.00000, 123.079, -30.4274, 123.409, -150.959, 122.166, 89.6422, 0, 0, 2.47279, -53.5013, 2.46617, -174.033, 2.49126, 66.5682, 0.0425327, -101.788
0, 540.00000, 123.079, -30.4274, 123.409, -150.959, 122.166, 89.6422, 0, 0, 2.47279, -53.5013, 2.46617, -174.033, 2.49126, 66.5682, 0.0425327, -101.788
0, 600.00000, 123.079, -30.4274, 123.409, -150.959, 122.166, 89.6422, 0, 0, 2.47279, -53.5013, 2.46617, -174.033, 2.49126, 66.5682, 0.0425327, -101.788
0, 660.00000, 123.079, -30.4274, 123.409, -150.959, 122.166, 89.6422, 0, 0, 2.47279, -53.5013, 2.46617, -174.033, 2.49126, 66.5682, 0.0425327, -101.788
0, 720.00000, 123.079, -30.4274, 123.409, -150.959, 122.166, 89.6422, 0, 0, 2.47279, -53.5013, 2.46617, -174.033, 2.49126, 66.5682, 0.0425327, -101.788
0, 780.00000, 123.079, -30.4274, 123.409, -150.959, 122.166, 89.6422, 0, 0, 2.47279, -53.5013, 2.46617, -174.033, 2.49126, 66.5682, 0.0425327, -101.788
0, 840.00000, 123.079, -30.4274, 123.409, -150.959, 122.166, 89.6422, 0, 0, 2.47279, -53.5013, 2.46617, -174.033, 2.49126, 66.5682, 0.0425327, -101.788
0, 900.00000, 123.079, -30.4274, 123.409, -150.959, 122.166, 89.6422, 0, 0, 2.47279, -53.5013, 2.46617, -174.033, 2.49126, 66.5682, 0.0425327, -101.788
0, 960.00000, 121.814, -30.8853, 121.914, -150.698, 122.226, 89.6244, 0, 0, 2.49831, -53.959, 2.49628, -173.771, 2.49003, 66.55, 0.0217485, 17.6867
0, 1020.00000, 121.813, -30.8853, 121.913, -150.698, 122.225, 89.6244, 0, 0, 2.49848, -53.9592, 2.49643, -173.772, 2.49005, 66.5505, 0.0218392, 17.7948
0, 1080.00000, 121.813, -30.8853, 121.913, -150.698, 122.225, 89.6244, 0, 0, 2.49848, -53.9592, 2.49643, -173.772, 2.49006, 66.5505, 0.0218394, 17.7948
0, 1140.00000, 121.813, -30.8853, 121.913, -150.698, 122.225, 89.6244, 0, 0, 2.49848, -53.9592, 2.49643, -173.772, 2.49006, 66.5505, 0.0218394, 17.7948
0, 1200.00000, 121.813, -30.8853, 121.913, -150.698, 122.225, 89.6244, 0, 0, 2.49848, -53.9592, 2.49643, -173.772, 2.49006, 66.5505, 0.0218394, 17.7948
0, 1260.00000, 121.813, -30.8853, 121.913, -150.698, 122.225, 89.6244, 0, 0, 2.49848, -53.9592, 2.49643, -173.772, 2.49006, 66.5505, 0.0218394, 17.7948
0, 1320.00000, 121.813, -30.8853, 121.913, -150.698, 122.225, 89.6244, 0, 0, 2.49848, -53.9592, 2.49643, -173.772, 2.49006, 66.5505, 0.0218394, 17.7948
0, 1380.00000, 121.813, -30.8853, 121.913, -150.698, 122.225, 89.6244, 0, 0, 2.49848, -53.9592, 2.49643, -173.772, 2.49006, 66.5505, 0.0218394, 17.7948
0, 1440.00000, 121.813, -30.8853, 121.913, -150.698, 122.225, 89.6244, 0, 0, 2.49848, -53.9592, 2.49643, -173.772, 2.49006, 66.5505, 0.0218394, 17.7948
0, 1500.00000, 121.813, -30.8853, 121.913, -150.698, 122.225, 89.6244, 0, 0, 2.49848, -53.9592, 2.49643, -173.772, 2.49006, 66.5505, 0.0218394, 17.7948
0, 1560.00000, 121.813, -30.8853, 121.913, -150.698, 122.225, 89.6244, 0, 0, 2.49848, -53.9592, 2.49643, -173.772, 2.49006, 66.5505, 0.0218394, 17.7948
0, 1620.00000, 121.813, -30.8853, 121.913, -150.698, 122.225, 89.6244, 0, 0, 2.49848, -53.9592, 2.49643, -173.772, 2.49006, 66.5505, 0.0218394, 17.7948
0, 1680.00000, 121.813, -30.8853, 121.913, -150.698, 122.225, 89.6244, 0, 0, 2.49848, -53.9592, 2.49643, -173.772, 2.49006, 66.5505, 0.0218394, 17.7948
0, 1740.00000, 121.813, -30.8853, 121.913, -150.698, 122.225, 89.6244, 0, 0, 2.49848, -53.9592, 2.49643, -173.772, 2.49006, 66.5505, 0.0218394, 17.7948
0, 1800.00000, 121.813, -30.8853, 121.913, -150.698, 122.225, 89.6244, 0, 0, 2.49848, -53.9592, 2.49643, -173.772, 2.49006, 66.5505, 0.0218394, 17.7948
0, 1860.00000, 121.813, -30.8853, 121.913, -150.698, 122.225, 89.6244, 0, 0, 2.49848, -53.9592, 2.49643, -173.772, 2.49006, 66.5505, 0.0218394, 17.7948
0, 1920.00000, 121.813, -30.8853, 121.913, -150.698, 122.225, 89.6244, 0, 0, 2.49848, -53.9592, 2.49643, -173.772, 2.49006, 66.5505, 0.0218394, 17.7948
0, 1980.00000, 121.813, -30.8853, 121.913, -150.698, 122.225, 89.6244, 0, 0, 2.49848, -53.9592, 2.49643, -173.772, 2.49006, 66.5505, 0.0218394, 17.7948
0, 2040.00000, 121.813, -30.8853, 121.913, -150.698, 122.225, 89.6244, 0, 0, 2.49848, -53.9592, 2.49643, -173.772, 2.49006, 66.5505, 0.0218394, 17.7948
0, 2100.00000, 121.813, -30.8853, 121.913, -150.698, 122.225, 89.6244, 0, 0, 2.49848, -53.9592, 2.49643, -173.772, 2.49006, 66.5505, 0.0218394, 17.7948
0, 2160.00000, 121.813, -30.8853, 121.913, -150.698, 122.225, 89.6244, 0, 0, 2.49848, -53.9592, 2.49643, -173.772, 2.49006, 66.5505, 0.0218394, 17.7948
0, 2220.00000, 121.813, -30.8853, 121.913, -150.698, 122.225, 89.6244, 0, 0, 2.49848, -53.9592, 2.49643, -173.772, 2.49006, 66.5505, 0.0218394, 17.7948
0, 2280.00000, 121.813, -30.8853, 121.913, -150.698, 122.225, 89.6244, 0, 0, 2.49848, -53.9592, 2.49643, -173.772, 2.49006, 66.5505, 0.0218394, 17.7948
0, 2340.00000, 121.813, -30.8853, 121.913, -150.698, 122.225, 89.6244, 0, 0, 2.49848, -53.9592, 2.49643, -173.772, 2.49006, 66.5505, 0.0218394, 17.7948
0, 2400.00000, 121.813, -30.8853, 121.913, -150.698, 122.225, 89.6244, 0, 0, 2.49848, -53.9592, 2.49643, -173.772, 2.49006, 66.5505, 0.0218394, 17.7948
0, 2460.00000, 121.813, -30.8853, 121.913, -150.698, 122.225, 89.6244, 0, 0, 2.49848, -53.9592, 2.49643, -173.772, 2.49006, 66.5505, 0.0218394, 17.7948
0, 2520.00000, 121.813, -30.8853, 121.913, -150.698, 122.225, 89.6244, 0, 0, 2.49848, -53.9592, 2.49643, -173.772, 2.49006, 66.5505, 0.0218394, 17.7948
0, 2580.00000, 121.813, -30.8853, 121.913, -150.698, 122.225, 89.6244, 0, 0, 2.49848, -53.9592, 2.49643, -173.772, 2.49006, 66.5505, 0.0218394, 17.7948
0, 2640.00000, 121.813, -30.8853, 121.913, -150.698, 122.225, 89.6244, 0, 0, 2.49848, -53.9592, 2.49643, -173.772, 2.49006, 66.5505, 0.0218394, 17.7948
0, 2700.00000, 121.813, -30.8853, 121.913, -150.698, 122.225, 89.6244, 0, 0, 2.49848, -53.9592, 2.49643, -173.772, 2.49006, 66.5505, 0.0218394, 17.7948
0, 2760.00000, 121.813, -30.8853, 121.913, -150.698, 122.225, 89.6244, 0, 0, 2.49848, -53.9592, 2.49643, -173.772, 2.49006, 66.5505, 0.0218394, 17.7948
0, 2820.00000, 121.813, -30.8853, 121.913, -150.698, 122.225, 89.6244, 0, 0, 2.49848, -53.9592, 2.49643, -173.772, 2.49006, 66.5505, 0.0218394, 17.7948
0, 2880.00000, 121.813, -30.8853, 121.913, -150.698, 122.225, 89.6244, 0, 0, 2.49848, -53.9592, 2.49643, -173.772, 2.49006, 66.5505, 0.0218394, 17.7948
0, 2940.00000, 121.813, -30.8853, 121.913, -150.698, 122.225, 89.6244, 0, 0, 2.49848, -53.9592, 2.49643, -173.772, 2.49006, 66.5505, 0.0218394, 17.7948
0, 3000.00000, 121.813, -30.8853, 121.913, -150.698, 122.225, 89.6244, 0, 0, 2.49848, -53.9592, 2.49643, -173.772, 2.49006, 66.5505, 0.0218394, 17.7948
0, 3060.00000, 121.813, -30.8853, 121.913, -150.698, 122.225, 89.6244, 0, 0, 2.49848, -53.9592, 2.49643, -173.772, 2.49006, 66.5505, 0.0218394, 17.7948
0, 3120.00000, 121.813, -30.8853, 121.913, -150.698, 122.225, 89.6244, 0, 0, 2.49848, -53.9592, 2.49643, -173.772, 2.49006, 66.5505, 0.0218394, 17.7948
0, 3180.00000, 121.813, -30.8853, 121.913, -150.698, 122.225, 89.6244, 0, 0, 2.49848, -53.9592, 2.49643, -173.772, 2.49006, 66.5505, 0.0218394, 17.7948
0, 3240.00000, 121.813, -30.8853, 121.913, -150.698, 122.225, 89.6244, 0, 0, 2.49848, -53.9592, 2.49643, -173.772, 2.49006, 66.5505, 0.0218394, 17.7948
0, 3300.00000, 121.813, -30.8853, 121.913, -150.698, 122.225, 89.6244, 0, 0, 2.49848, -53.9592, 2.49643, -173.772, 2.49006, 66.5505, 0.0218394, 17.7948
0, 3360.00000, 121.813, -30.8853, 121.913, -150.698, 122.225, 89.6244, 0, 0, 2.49848, -53.9592, 2.49643, -173.772, 2.49006, 66.5505, 0.0218394, 17.7948
0, 3420.00000, 121.813, -30.8853, 121.913, -150.698, 122.225, 89.6244, 0, 0, 2.49848, -53.9592, 2.49643, -173.772, 2.49006, 66.5505, 0.0218394, 17.7948
0, 3480.00000, 121.813, -30.8853, 121.913, -150.698, 122.225, 89.6244, 0, 0, 2.49848, -53.9592, 2.49643, -173.772, 2.49006, 66.5505, 0.0218394, 17.7948
0, 3540.00000, 121.813, -30.8853, 121.913, -150.698, 122.225, 89.6244, 0, 0, 2.49848, -53.9592, 2.49643, -173.772, 2.49006, 66.5505, 0.0218394, 17.7948
1, 0.00000, 121.813, -30.8853, 121.913, -150.698, 122.225, 89.6244, 0, 0, 2.49848, -53.9592, 2.49643, -173.772, 2.49006, 66.5505, 0.0218394, 17.7948
1, 60.00000, 121.813, -30.8853, 121.913, -150.698, 122.225, 89.6244, 0, 0, 2.49848, -53.9592, 2.49643, -173.772, 2.49006, 66.5505, 0.0218394, 17.7948
1, 120.00000, 121.813, -30.8853, 121.913, -150.698, 122.225, 89.6244, 0, 0, 2.49848, -53.9592, 2.49643, -173.772, 2.49006, 66.5505, 0.0218394, 17.7948
1, 180.00000, 121.813, -30.8853, 121.913, -150.698, 122.225, 89.6244, 0, 0, 2.49848, -53.9592, 2.49643, -173.772, 2.49006, 66.5505, 0.0218394, 17.7948
1, 240.00000, 121.813, -30.8853, 121.913, -150.698, 122.225, 89.6244, 0, 0, 2.49848, -53.9592, 2.49643, -173.772, 2.49006, 66.5505, 0.0218394, 17.7948
1, 300.00000, 121.813, -30.8853, 121.913, -150.698, 122.225, 89.6244, 0, 0, 2.49848, -53.9592, 2.49643, -173.772, 2.49006, 66.5505, 0.0218394, 17.7948
1, 360.00000, 121.813, -30.8853, 121.913, -150.698, 122.225, 89.6244, 0, 0, 2.49848, -53.9592, 2.49643, -173.772, 2.49006, 66.5505, 0.0218394, 17.7948
1, 420.00000, 121.813, -30.8853, 121.913, -150.698, 122.225, 89.6244, 0, 0, 2.49848, -53.9592, 2.49643, -173.772, 2.49006, 66.5505, 0.0218394, 17.7948
1, 480.00000, 121.813, -30.8853, 121.913, -150.698, 122.225, 89.6244, 0, 0, 2.49848, -53.9592, 2.49643, -173.772, 2.49006, 66.5505, 0.0218394, 17.7948
1, 540.00000, 121.813, -30.8853, 121.913, -150.698, 122.225, 89.6244, 0, 0, 2.49848, -53.9592, 2.49643, -173.772, 2.49006, 66.5505, 0.0218394, 17.7948
1, 600.00000, 121.813, -30.8853, 121.913, -150.698, 122.225, 89.6244, 0, 0, 2.49848, -53.9592, 2.49643, -173.772, 2.49006, 66.5505, 0.0218394, 17.7948
1, 660.00000, 121.813, -30.8853, 121.913, -150.698, 122.225, 89.6244, 0, 0, 2.49848, -53.9592, 2.49643, -173.772, 2.49006, 66.5505, 0.0218394, 17.7948
1, 720.00000, 121.813, -30.8853, 121.913, -150.698, 122.225, 89.6244, 0, 0, 2.49848, -53.9592, 2.49643, -173.772, 2.49006, 66.5505, 0.0218394, 17.7948
1, 780.00000, 121.813, -30.8853, 121.913, -150.698, 122.225, 89.6244, 0, 0, 2.49848, -53.9592, 2.49643, -173.772, 2.49006, 66.5505, 0.0218394, 17.7948
1, 840.00000, 121.813, -30.8853, 121.913, -150.698, 122.225, 89.6244, 0, 0, 2.49848, -53.9592, 2.49643, -173.772, 2.49006, 66.5505, 0.0218394, 17.7948
1, 900.00000, 121.813, -30.8853, 121.913, -150.698, 122.225, 89.6244, 0, 0, 2.49848, -53.9592, 2.49643, -173.772, 2.49006, 66.5505, 0.0218394, 17.7948
1, 960.00000, 121.813, -30.8853, 121.913, -150.698, 122.225, 89.6244, 0, 0, 2.49848, -53.9592, 2.49643, -173.772, 2.49006, 66.5505, 0.0218394, 17.7948
1, 1020.00000, 121.813, -30.8853, 121.913, -150.698, 122.225, 89.6244, 0, 0, 2.49848, -53.9592, 2.49643, -173.772, 2.49006, 66.5505, 0.0218394, 17.7948
1, 1080.00000, 121.813, -30.8853, 121.913, -150.698, 122.225, 89.6244, 0, 0, 2.49848, -53.9592, 2.49643, -173.772, 2.49006, 66.5505, 0.0218394, 17.7948
1, 1140.00000, 121.813, -30.8853, 121.913, -150.698, 122.225, 89.6244, 0, 0, 2.49848, -53.9592, 2.49643, -173.772, 2.49006, 66.5505, 0.0218394, 17.7948
1, 1200.00000, 121.813, -30.8853, 121.913, -150.698, 122.225, 89.6244, 0, 0, 2.49848, -53.9592, 2.49643, -173.772, 2.49006, 66.5505, 0.0218394, 17.7948
1, 1260.00000, 121.813, -30.8853, 121.913, -150.698, 122.225, 89.6244, 0, 0, 2.49848, -53.9592, 2.49643, -173.772, 2.49006, 66.5505, 0.0218394, 17.7948
1, 1320.00000, 121.813, -30.8853, 121.913, -150.698, 122.225, 89.6244, 0, 0, 2.49848, -53.9592, 2.49643, -173.772, 2.49006, 66.5505, 0.0218394, 17.7948
1, 1380.00000, 121.813, -30.8853, 121.913, -150.698, 122.225, 89.6244, 0, 0, 2.49848, -53.9592, 2.49643, -173.772, 2.49006, 66.5505, 0.0218394, 17.7948
1, 1440.00000, 121.813, -30.8853, 121.913, -150.698, 122.225, 89.6244, 0, 0, 2.49848, -53.9592, 2.49643, -173.772, 2.49006, 66.5505, 0.0218394, 17.7948
1, 1500.00000, 121.813, -30.8853, 121.913, -150.698, 122.225, 89.6244, 0, 0, 2.49848, -53.9592, 2.49643, -173.772, 2.49006, 66.5505, 0.0218394, 17.7948
1, 1560.00000, 121.813, -30.8853, 121.913, -150.698, 122.225, 89.6244, 0, 0, 2.49848, -53.9592, 2.49643, -173.772, 2.49006, 66.5505, 0.0218394, 17.7948
1, 1620.00000, 121.813, -30.8853, 121.913, -150.698, 122.225, 89.6244, 0, 0, 2.49848, -53.9592, 2.49643, -173.772, 2.49006, 66.5505, 0.0218394, 17.7948
1, 1680.00000, 121.813, -30.8853, 121.913, -150.698, 122.225, 89.6244, 0, 0, 2.49848, -53.9592, 2.49643, -173.772, 2.49006, 66.5505, 0.0218394, 17.7948
1, 1740.00000, 121.813, -30.8853, 121.913, -150.698, 122.225, 89.6244, 0, 0, 2.49848, -53.9592, 2.49643, -173.772, 2.49006, 66.5505, 0.0218394, 17.7948
1, 1800.00000, 121.813, -30.8853, 121.913, -150.698, 122.225, 89.6244, 0, 0, 2.49848, -53.9592, 2.49643, -173.772, 2.49006, 66.5505, 0.0218394, 17.7948
1, 1860.00000, 121.813, -30.8853, 121.913, -150.698, 122.225, 89.6244, 0, 0, 2.49848, -53.9592, 2.49643, -173.772, 2.49006, 66.5505, 0.0218394, 17.7948
1, 1920.00000, 121.813, -30.8853, 121.913, -150.698, 122.225, 89.6244, 0, 0, 2.49848, -53.9592, 2.49643, -173.772, 2.49006, 66.5505, 0.0218394, 17.7948
1, 1980.00000, 121.813, -30.8853, 121.913, -150.698, 122.225, 89.6244, 0, 0, 2.49848, -53.9592, 2.49643, -173.772, 2.49006, 66.5505, 0.0218394, 17.7948
1, 2040.00000, 122.035, -30.9019, 123.446, -150.153, 124.006, 89.2539, 0, 0, 2.49399, -53.9757, 2.46557, -173.227, 2.45445, 66.1792, 0.063219, 98.8421
1, 2100.00000, 122.036, -30.9019, 123.446, -150.153, 124.006, 89.254, 0, 0, 2.49392, -53.9758, 2.46543, -173.227, 2.45429, 66.1801, 0.0632978, 98.8341
1, 2160.00000, 122.036, -30.9019, 123.446, -150.153, 124.006, 89.254, 0, 0, 2.49392, -53.9758, 2.46543, -173.227, 2.45429, 66.1801, 0.0632979, 98.834
1, 2220.00000, 122.036, -30.9019, 123.446, -150.153, 124.006, 89.254, 0, 0, 2.49392, -53.9758, 2.46543, -173.227, 2.45429, 66.1801, 0.0632979, 98.834
1, 2280.00000, 122.036, -30.9019, 123.446, -150.153, 124.006, 89.254, 0, 0, 2.49392, -53.9758, 2.46543, -173.227, 2.45429, 66.1801, 0.0632979, 98.834
1, 2340.00000, 122.036, -30.9019, 123.446, -150.153, 124.006, 89.254, 0, 0, 2.49392, -53.9758, 2.46543, -173.227, 2.45429, 66.1801, 0.0632979, 98.834
1, 2400.00000, 122.036, -30.9019, 123.446, -150.153, 124.006, 89.254, 0, 0, 2.49392, -53.9758, 2.46543, -173.227, 2.45429, 66.1801, 0.0632979, 98.834
1, 2460.00000, 122.036, -30.9019, 123.446, -150.153, 124.006, 89.254, 0, 0, 2.49392, -53.9758, 2.46543, -173.227, 2.45429, 66.1801, 0.0632979, 98.834
1, 2520.00000, 123.288, -30.4429, 124.935, -150.418, 123.934, 89.2681, 0, 0, 2.46869, -53.5167, 2.43613, -173.493, 2.45572, 66.1946, 0.0411533, 159.82
1, 2580.00000, 123.288, -30.4429, 124.935, -150.418, 123.934, 89.2681, 0, 0, 2.46859, -53.5168, 2.43604, -173.492, 2.45573, 66.1942, 0.0411761, 159.91
1, 2640.00000, 123.288, -30.4429, 124.935, -150.418, 123.934, 89.2681, 0, 0, 2.46858, -53.5168, 2.43604, -173.492, 2.45573, 66.1942, 0.041176, 159.91
1, 2700.00000, 123.288, -30.4429, 124.935, -150.418, 123.934, 89.2681, 0, 0, 2.46858, -53.5168, 2.43604, -173.492, 2.45573, 66.1942, 0.041176, 159.91
1, 2760.00000, 124.581, -30.5571, 124.843, -150.428, 124.944, 89.6374, 0, 0, 2.44306, -53.632, 2.43781, -173.502, 2.43596, 66.5633, 0.00932008, 60.2628
1, 2820.00000, 124.581, -30.557, 124.843, -150.428, 124.944, 89.6374, 0, 0, 2.44297, -53.6309, 2.43785, -173.502, 2.43587, 66.5635, 0.00935688, 59.7077
1, 2880.00000, 124.581, -30.557, 124.843, -150.428, 124.944, 89.6374, 0, 0, 2.44297, -53.6309, 2.43785, -173.502, 2.43587, 66.5635, 0.00935709, 59.706
1, 2940.00000, 124.581, -30.557, 124.843, -150.428, 124.944, 89.6374, 0, 0, 2.44297, -53.6309, 2.43785, -173.502, 2.43587, 66.5635, 0.00935709, 59.7059
1, 3000.00000, 124.581, -30.557, 124.843, -150.428, 124.944, 89.6374, 0, 0, 2.44297, -53.6309, 2.43785, -173.502, 2.43587, 66.5635, 0.00935709, 59.7059
1, 3060.00000, 124.581, -30.557, 124.843, -150.428, 124.944, 89.6374, 0, 0, 2.44297, -53.6309, 2.43785, -173.502, 2.43587, 66.5635, 0.00935709, 59.7059
1, 3120.00000, 124.581, -30.557, 124.843, -150.428, 124.944, 89.6374, 0, 0, 2.44297, -53.6309, 2.43785, -173.502, 2.43587, 66.5635, 0.00935709, 59.7059
1, 3180.00000, 124.581, -30.557, 124.843, -150.428, 124.944, 89.6374, 0, 0, 2.44297, -53.6309, 2.43785, -173.502, 2.43587, 66.5635, 0.00935709, 59.7059
1, 3240.00000, 124.581, -30.557, 124.843, -150.428, 124.944, 89.6374, 0, 0, 2.44297, -53.6309, 2.43785, -173.502, 2.43587, 66.5635, 0.00935709, 59.7059
1, 3300.00000, 124.581, -30.557, 124.843, -150.428, 124.944, 89.6374, 0, 0, 2.44297, -53.6309, 2.43785, -173.502, 2.43587, 66.5635, 0.00935709, 59.7059
1, 3360.00000, 124.581, -30.557, 124.843, -150.428, 124.944, 89.6374, 0, 0, 2.44297, -53.6309, 2.43785, -173.502, 2.43587, 66.5635, 0.00935709, 59.7059
1, 3420.00000, 124.581, -30.557, 124.843, -150.428, 124.944, 89.6374, 0, 0, 2.44297, -53.6309, 2.43785, -173.502, 2.43587, 66.5635, 0.00935709, 59.7059
1, 3480.00000, 124.581, -30.557, 124.843, -150.428, 124.944, 89.6374, 0, 0, 2.44297, -53.6309, 2.43785, -173.502, 2.43587, 66.5635, 0.00935709, 59.7059
1, 3540.00000, 124.581, -30.557, 124.843, -150.428, 124.944, 89.6374, 0, 0, 2.44297, -53.6309, 2.43785, -173.502, 2.43587, 66.5635, 0.00935709, 59.7059
2, 0.00000, 124.581, -30.557, 124.843, -150.428, 124.944, 89.6374, 0, 0, 2.44297, -53.6309, 2.43785, -173.502, 2.43587, 66.5635, 0.00935709, 59.7059
2, 60.00000, 124.581, -30.557, 124.843, -150.428, 124.944, 89.6374, 0, 0, 2.44297, -53.6309, 2.43785, -173.502, 2.43587, 66.5635, 0.00935709, 59.7059
2, 120.00000, 124.572, -30.558, 124.835, -150.429, 124.936, 89.6365, 0, 0, 2.44989, -53.6319, 2.44474, -173.503, 2.44275, 66.5627, 0.0093936, 59.7885
2, 180.00000, 124.563, -30.559, 124.827, -150.43, 124.928, 89.6357, 0, 0, 2.45691, -53.6329, 2.45172, -173.504, 2.44973, 66.5618, 0.00942927, 59.8748
2, 240.00000, 124.555, -30.56, 124.819, -150.431, 124.92, 89.6349, 0, 0, 2.46384, -53.6339, 2.45861, -173.505, 2.45663, 66.561, 0.00946455, 59.96
2, 300.00000, 124.546, -30.561, 124.812, -150.432, 124.912, 89.634, 0, 0, 2.47077, -53.6349, 2.46551, -173.506, 2.46353, 66.5601, 0.00949992, 60.0451
2, 360.00000, 124.537, -30.5621, 124.804, -150.433, 124.904, 89.6332, 0, 0, 2.47779, -53.6359, 2.4725, -173.507, 2.47051, 66.5593, 0.00953581, 60.131
2, 420.00000, 124.528, -30.5631, 124.796, -150.434, 124.896, 89.6323, 0, 0, 2.48473, -53.6369, 2.4794, -173.507, 2.47741, 66.5585, 0.00957132, 60.2159
2, 480.00000, 124.52, -30.5641, 124.788, -150.434, 124.888, 89.6315, 0, 0, 2.49166, -53.6379, 2.4863, -173.508, 2.48431, 66.5576, 0.00960692, 60.3006
2, 540.00000, 124.511, -30.5651, 124.781, -150.435, 124.88, 89.6307, 0, 0, 2.49868, -53.639, 2.49328, -173.509, 2.4913, 66.5568, 0.00964304, 60.3861
2, 600.00000, 124.502, -30.5661, 124.773, -150.436, 124.872, 89.6298, 0, 0, 2.50562, -53.64, 2.50019, -173.51, 2.4982, 66.5559, 0.00967878, 60.4706
2, 660.00000, 124.493, -30.5671, 124.765, -150.437, 124.864, 89.629, 0, 0, 2.51256, -53.641, 2.50709, -173.511, 2.5051, 66.5551, 0.00971462, 60.5549
