hour,t(sec),V1,VAngle1,V2,VAngle2,V3,VAngle3,V4,VAngle4,I1,IAngle1,I2,IAngle2,I3,IAngle3,I4,IAngle4
0, 60.00000, 125.325, -30.5602, 125.514, -150.468, 125.584, 89.5825, 0, 0, 2.49343, -53.6336, 2.48971, -173.542, 2.48831, 66.5087, 0.00678722, 58.1692
0, 120.00000, 125.325, -30.5602, 125.514, -150.468, 125.584, 89.5825, 0, 0, 2.49352, -53.6342, 2.48977, -173.542, 2.48837, 66.5086, 0.00680409, 58.2678
0, 180.00000, 125.325, -30.5602, 125.514, -150.468, 125.584, 89.5825, 0, 0, 2.49352, -53.6342, 2.48977, -173.542, 2.48837, 66.5086, 0.00680414, 58.2683
0, 240.00000, 125.325, -30.5602, 125.514, -150.468, 125.584, 89.5825, 0, 0, 2.49352, -53.6342, 2.48977, -173.542, 2.48837, 66.5086, 0.00680414, 58.2683
0, 300.00000, 125.325, -30.5602, 125.514, -150.468, 125.584, 89.5825, 0, 0, 2.49352, -53.6342, 2.48977, -173.542, 2.48837, 66.5086, 0.00680414, 58.2683
0, 360.00000, 125.325, -30.5602, 125.514, -150.468, 125.584, 89.5825, 0, 0, 2.49352, -53.6342, 2.48977, -173.542, 2.48837, 66.5086, 0.00680414, 58.2683
0, 420.00000, 125.325, -30.5602, 125.514, -150.468, 125.584, 89.5825, 0, 0, 2.49352, -53.6342, 2.48977, -173.542, 2.48837, 66.5086, 0.00680414, 58.2683
0, 480.00000, 125.325, -30.5602, 125.514, -150.468, 125.584, 89.5825, 0, 0, 2.49352, -53.6342, 2.48977, -173.542, 2.48837, 66.5086, 0.00680414, 58.2683
0, 540.00000, 125.325, -30.5602, 125.514, -150.468, 125.584, 89.5825, 0, 0, 2.49352, -53.6342, 2.48977, -173.542, 2.48837, 66.5086, 0.00680414, 58.2683
0, 600.00000, 125.325, -30.5602, 125.514, -150.468, 125.584, 89.5825, 0, 0, 2.49352, -53.6342, 2.48977, -173.542, 2.48837, 66.5086, 0.00680414, 58.2683
0, 660.00000, 125.325, -30.5602, 125.514, -150.468, 125.584, 89.5825, 0, 0, 2.49352, -53.6342, 2.48977, -173.542, 2.48837, 66.5086, 0.00680414, 58.2683
0, 720.00000, 125.325, -30.5602, 125.514, -150.468, 125.584, 89.5825, 0, 0, 2.49352, -53.6342, 2.48977, -173.542, 2.48837, 66.5086, 0.00680414, 58.2683
0, 780.00000, 125.325, -30.5602, 125.514, -150.468, 125.584, 89.5825, 0, 0, 2.49352, -53.6342, 2.48977, -173.542, 2.48837, 66.5086, 0.00680414, 58.2683
0, 840.00000, 125.325, -30.5602, 125.514, -150.468, 125.584, 89.5825, 0, 0, 2.49352, -53.6342, 2.48977, -173.542, 2.48837, 66.5086, 0.00680414, 58.2683
0, 900.00000, 125.325, -30.5602, 125.514, -150.468, 125.584, 89.5825, 0, 0, 2.49352, -53.6342, 2.48977, -173.542, 2.48837, 66.5086, 0.00680414, 58.2683
0, 960.00000, 125.325, -30.5602, 125.514, -150.468, 125.584, 89.5825, 0, 0, 2.49352, -53.6342, 2.48977, -173.542, 2.48837, 66.5086, 0.00680414, 58.2683
0, 1020.00000, 125.325, -30.5602, 125.514, -150.468, 125.584, 89.5825, 0, 0, 2.49352, -53.6342, 2.48977, -173.542, 2.48837, 66.5086, 0.00680414, 58.2683
0, 1080.00000, 125.325, -30.5602, 125.514, -150.468, 125.584, 89.5825, 0, 0, 2.49352, -53.6342, 2.48977, -173.542, 2.48837, 66.5086, 0.00680414, 58.2683
0, 1140.00000, 125.325, -30.5602, 125.514, -150.468, 125.584, 89.5825, 0, 0, 2.49352, -53.6342, 2.48977, -173.542, 2.48837, 66.5086, 0.00680414, 58.2683
0, 1200.00000, 125.325, -30.5602, 125.514, -150.468, 125.584, 89.5825, 0, 0, 2.49352, -53.6342, 2.48977, -173.542, 2.48837, 66.5086, 0.00680414, 58.2683
0, 1260.00000, 125.325, -30.5602, 125.514, -150.468, 125.584, 89.5825, 0, 0, 2.49352, -53.6342, 2.48977, -173.542, 2.48837, 66.5086, 0.00680414, 58.2683
0, 1320.00000, 125.325, -30.5602, 125.514, -150.468, 125.584, 89.5825, 0, 0, 2.49352, -53.6342, 2.48977, -173.542, 2.48837, 66.5086, 0.00680414, 58.2683
0, 1380.00000, 125.325, -30.5602, 125.514, -150.468, 125.584, 89.5825, 0, 0, 2.49352, -53.6342, 2.48977, -173.542, 2.48837, 66.5086, 0.00680414, 58.2683
0, 1440.00000, 125.325, -30.5602, 125.514, -150.468, 125.584, 89.5825, 0, 0, 2.49352, -53.6342, 2.48977, -173.542, 2.48837, 66.5086, 0.00680414, 58.2683
0, 1500.00000, 125.325, -30.5602, 125.514, -150.468, 125.584, 89.5825, 0, 0, 2.49352, -53.6342, 2.48977, -173.542, 2.48837, 66.5086, 0.00680414, 58.2683
0, 1560.00000, 125.325, -30.5602, 125.514, -150.468, 125.584, 89.5825, 0, 0, 2.49352, -53.6342, 2.48977, -173.542, 2.48837, 66.5086, 0.00680414, 58.2683
0, 1620.00000, 125.325, -30.5602, 125.514, -150.468, 125.584, 89.5825, 0, 0, 2.49352, -53.6342, 2.48977, -173.542, 2.48837, 66.5086, 0.00680414, 58.2683
0, 1680.00000, 125.325, -30.5602, 125.514, -150.468, 125.584, 89.5825, 0, 0, 2.49352, -53.6342, 2.48977, -173.542, 2.48837, 66.5086, 0.00680414, 58.2683
0, 1740.00000, 125.325, -30.5602, 125.514, -150.468, 125.584, 89.5825, 0, 0, 2.49352, -53.6342, 2.48977, -173.542, 2.48837, 66.5086, 0.00680414, 58.2683
0, 1800.00000, 125.325, -30.5602, 125.514, -150.468, 125.584, 89.5825, 0, 0, 2.49352, -53.6342, 2.48977, -173.542, 2.48837, 66.5086, 0.00680414, 58.2683
0, 1860.00000, 125.325, -30.5602, 125.514, -150.468, 125.584, 89.5825, 0, 0, 2.49352, -53.6342, 2.48977, -173.542, 2.48837, 66.5086, 0.00680414, 58.2683
0, 1920.00000, 125.325, -30.5602, 125.514, -150.468, 125.584, 89.5825, 0, 0, 2.49352, -53.6342, 2.48977, -173.542, 2.48837, 66.5086, 0.00680414, 58.2683
0, 1980.00000, 125.325, -30.5602, 125.514, -150.468, 125.584, 89.5825, 0, 0, 2.49352, -53.6342, 2.48977, -173.542, 2.48837, 66.5086, 0.00680414, 58.2683
0, 2040.00000, 125.325, -30.5602, 125.514, -150.468, 125.584, 89.5825, 0, 0, 2.49352, -53.6342, 2.48977, -173.542, 2.48837, 66.5086, 0.00680414, 58.2683
0, 2100.00000, 125.325, -30.5602, 125.514, -150.468, 125.584, 89.5825, 0, 0, 2.49352, -53.6342, 2.48977, -173.542, 2.48837, 66.5086, 0.00680414, 58.2683
0, 2160.00000, 125.325, -30.5602, 125.514, -150.468, 125.584, 89.5825, 0, 0, 2.49352, -53.6342, 2.48977, -173.542, 2.48837, 66.5086, 0.00680414, 58.2683
0, 2220.00000, 125.325, -30.5602, 125.514, -150.468, 125.584, 89.5825, 0, 0, 2.49352, -53.6342, 2.48977, -173.542, 2.48837, 66.5086, 0.00680414, 58.2683
0, 2280.00000, 125.325, -30.5602, 125.514, -150.468, 125.584, 89.5825, 0, 0, 2.49352, -53.6342, 2.48977, -173.542, 2.48837, 66.5086, 0.00680414, 58.2683
0, 2340.00000, 125.325, -30.5602, 125.514, -150.468, 125.584, 89.5825, 0, 0, 2.49352, -53.6342, 2.48977, -173.542, 2.48837, 66.5086, 0.00680414, 58.2683
0, 2400.00000, 125.325, -30.5602, 125.514, -150.468, 125.584, 89.5825, 0, 0, 2.49352, -53.6342, 2.48977, -173.542, 2.48837, 66.5086, 0.00680414, 58.2683
0, 2460.00000, 125.325, -30.5602, 125.514, -150.468, 125.584, 89.5825, 0, 0, 2.49352, -53.6342, 2.48977, -173.542, 2.48837, 66.5086, 0.00680414, 58.2683
0, 2520.00000, 125.325, -30.5602, 125.514, -150.468, 125.584, 89.5825, 0, 0, 2.49352, -53.6342, 2.48977, -173.542, 2.48837, 66.5086, 0.00680414, 58.2683
0, 2580.00000, 125.325, -30.5602, 125.514, -150.468, 125.584, 89.5825, 0, 0, 2.49352, -53.6342, 2.48977, -173.542, 2.48837, 66.5086, 0.00680414, 58.2683
0, 2640.00000, 125.325, -30.5602, 125.514, -150.468, 125.584, 89.5825, 0, 0, 2.49352, -53.6342, 2.48977, -173.542, 2.48837, 66.5086, 0.00680414, 58.2683
0, 2700.00000, 125.325, -30.5602, 125.514, -150.468, 125.584, 89.5825, 0, 0, 2.49352, -53.6342, 2.48977, -173.542, 2.48837, 66.5086, 0.00680414, 58.2683
0, 2760.00000, 125.325, -30.5602, 125.514, -150.468, 125.584, 89.5825, 0, 0, 2.49352, -53.6342, 2.48977, -173.542, 2.48837, 66.5086, 0.00680414, 58.2683
0, 2820.00000, 125.325, -30.5602, 125.514, -150.468, 125.584, 89.5825, 0, 0, 2.49352, -53.6342, 2.48977, -173.542, 2.48837, 66.5086, 0.00680414, 58.2683
0, 2880.00000, 125.325, -30.5602, 125.514, -150.468, 125.584, 89.5825, 0, 0, 2.49352, -53.6342, 2.48977, -173.542, 2.48837, 66.5086, 0.00680414, 58.2683
0, 2940.00000, 125.325, -30.5602, 125.514, -150.468, 125.584, 89.5825, 0, 0, 2.49352, -53.6342, 2.48977, -173.542, 2.48837, 66.5086, 0.00680414, 58.2683
0, 3000.00000, 125.325, -30.5602, 125.514, -150.468, 125.584, 89.5825, 0, 0, 2.49352, -53.6342, 2.48977, -173.542, 2.48837, 66.5086, 0.00680414, 58.2683
0, 3060.00000, 125.325, -30.5602, 125.514, -150.468, 125.584, 89.5825, 0, 0, 2.49352, -53.6342, 2.48977, -173.542, 2.48837, 66.5086, 0.00680414, 58.2683
0, 3120.00000, 125.325, -30.5602, 125.514, -150.468, 125.584, 89.5825, 0, 0, 2.49352, -53.6342, 2.48977, -173.542, 2.48837, 66.5086, 0.00680414, 58.2683
0, 3180.00000, 125.325, -30.5602, 125.514, -150.468, 125.584, 89.5825, 0, 0, 2.49352, -53.6342, 2.48977, -173.542, 2.48837, 66.5086, 0.00680414, 58.2683
0, 3240.00000, 125.325, -30.5602, 125.514, -150.468, 125.584, 89.5825, 0, 0, 2.49352, -53.6342, 2.48977, -173.542, 2.48837, 66.5086, 0.00680414, 58.2683
0, 3300.00000, 125.325, -30.5602, 125.514, -150.468, 125.584, 89.5825, 0, 0, 2.49352, -53.6342, 2.48977, -173.542, 2.48837, 66.5086, 0.00680414, 58.2683
0, 3360.00000, 125.325, -30.5602, 125.514, -150.468, 125.584, 89.5825, 0, 0, 2.49352, -53.6342, 2.48977, -173.542, 2.48837, 66.5086, 0.00680414, 58.2683
0, 3420.00000, 125.325, -30.5602, 125.514, -150.468, 125.584, 89.5825, 0, 0, 2.49352, -53.6342, 2.48977, -173.542, 2.48837, 66.5086, 0.00680414, 58.2683
0, 3480.00000, 125.325, -30.5602, 125.514, -150.468, 125.584, 89.5825, 0, 0, 2.49352, -53.6342, 2.48977, -173.542, 2.48837, 66.5086, 0.00680414, 58.2683
0, 3540.00000, 125.325, -30.5602, 125.514, -150.468, 125.584, 89.5825, 0, 0, 2.49352, -53.6342, 2.48977, -173.542, 2.48837, 66.5086, 0.00680414, 58.2683
1, 0.00000, 125.325, -30.5602, 125.514, -150.468, 125.584, 89.5825, 0, 0, 2.49352, -53.6342, 2.48977, -173.542, 2.48837, 66.5086, 0.00680414, 58.2683
1, 60.00000, 125.325, -30.5602, 125.514, -150.468, 125.584, 89.5825, 0, 0, 2.49352, -53.6342, 2.48977, -173.542, 2.48837, 66.5086, 0.00680414, 58.2683
1, 120.00000, 125.325, -30.5602, 125.514, -150.468, 125.584, 89.5825, 0, 0, 2.49352, -53.6342, 2.48977, -173.542, 2.48837, 66.5086, 0.00680414, 58.2683
1, 180.00000, 125.325, -30.5602, 125.514, -150.468, 125.584, 89.5825, 0, 0, 2.49352, -53.6342, 2.48977, -173.542, 2.48837, 66.5086, 0.00680414, 58.2683
1, 240.00000, 125.325, -30.5602, 125.514, -150.468, 125.584, 89.5825, 0, 0, 2.49352, -53.6342, 2.48977, -173.542, 2.48837, 66.5086, 0.00680414, 58.2683
1, 300.00000, 125.325, -30.5602, 125.514, -150.468, 125.584, 89.5825, 0, 0, 2.49352, -53.6342, 2.48977, -173.542, 2.48837, 66.5086, 0.00680414, 58.2683
1, 360.00000, 125.325, -30.5602, 125.514, -150.468, 125.584, 89.5825, 0, 0, 2.49352, -53.6342, 2.48977, -173.542, 2.48837, 66.5086, 0.00680414, 58.2683
1, 420.00000, 125.325, -30.5602, 125.514, -150.468, 125.584, 89.5825, 0, 0, 2.49352, -53.6342, 2.48977, -173.542, 2.48837, 66.5086, 0.00680414, 58.2683
1, 480.00000, 125.325, -30.5602, 125.514, -150.468, 125.584, 89.5825, 0, 0, 2.49352, -53.6342, 2.48977, -173.542, 2.48837, 66.5086, 0.00680414, 58.2683
1, 540.00000, 125.325, -30.5602, 125.514, -150.468, 125.584, 89.5825, 0, 0, 2.49352, -53.6342, 2.48977, -173.542, 2.48837, 66.5086, 0.00680414, 58.2683
1, 600.00000, 125.325, -30.5602, 125.514, -150.468, 125.584, 89.5825, 0, 0, 2.49352, -53.6342, 2.48977, -173.542, 2.48837, 66.5086, 0.00680414, 58.2683
1, 660.00000, 125.325, -30.5602, 125.514, -150.468, 125.584, 89.5825, 0, 0, 2.49352, -53.6342, 2.48977, -173.542, 2.48837, 66.5086, 0.00680414, 58.2683
1, 720.00000, 125.325, -30.5602, 125.514, -150.468, 125.584, 89.5825, 0, 0, 2.49352, -53.6342, 2.48977, -173.542, 2.48837, 66.5086, 0.00680414, 58.2683
1, 780.00000, 125.325, -30.5602, 125.514, -150.468, 125.584, 89.5825, 0, 0, 2.49352, -53.6342, 2.48977, -173.542, 2.48837, 66.5086, 0.00680414, 58.2683
1, 840.00000, 125.325, -30.5602, 125.514, -150.468, 125.584, 89.5825, 0, 0, 2.49352, -53.6342, 2.48977, -173.542, 2.48837, 66.5086, 0.00680414, 58.2683
1, 900.00000, 125.325, -30.5602, 125.514, -150.468, 125.584, 89.5825, 0, 0, 2.49352, -53.6342, 2.48977, -173.542, 2.48837, 66.5086, 0.00680414, 58.2683
1, 960.00000, 125.325, -30.5602, 125.514, -150.468, 125.584, 89.5825, 0, 0, 2.49352, -53.6342, 2.48977, -173.542, 2.48837, 66.5086, 0.00680414, 58.2683
1, 1020.00000, 125.325, -30.5602, 125.514, -150.468, 125.584, 89.5825, 0, 0, 2.49352, -53.6342, 2.48977, -173.542, 2.48837, 66.5086, 0.00680414, 58.2683
1, 1080.00000, 125.325, -30.5602, 125.514, -150.468, 125.584, 89.5825, 0, 0, 2.49352, -53.6342, 2.48977, -173.542, 2.48837, 66.5086, 0.00680414, 58.2683
1, 1140.00000, 125.325, -30.5602, 125.514, -150.468, 125.584, 89.5825, 0, 0, 2.49352, -53.6342, 2.48977, -173.542, 2.48837, 66.5086, 0.00680414, 58.2683
1, 1200.00000, 125.325, -30.5602, 125.514, -150.468, 125.584, 89.5825, 0, 0, 2.49352, -53.6342, 2.48977, -173.542, 2.48837, 66.5086, 0.00680414, 58.2683
1, 1260.00000, 125.325, -30.5602, 125.514, -150.468, 125.584, 89.5825, 0, 0, 2.49352, -53.6342, 2.48977, -173.542, 2.48837, 66.5086, 0.00680414, 58.2683
1, 1320.00000, 125.325, -30.5602, 125.514, -150.468, 125.584, 89.5825, 0, 0, 2.49352, -53.6342, 2.48977, -173.542, 2.48837, 66.5086, 0.00680414, 58.2683
1, 1380.00000, 125.325, -30.5602, 125.514, -150.468, 125.584, 89.5825, 0, 0, 2.49352, -53.6342, 2.48977, -173.542, 2.48837, 66.5086, 0.00680414, 58.2683
1, 1440.00000, 125.325, -30.5602, 125.514, -150.468, 125.584, 89.5825, 0, 0, 2.49352, -53.6342, 2.48977, -173.542, 2.48837, 66.5086, 0.00680414, 58.2683
1, 1500.00000, 125.325, -30.5602, 125.514, -150.468, 125.584, 89.5825, 0, 0, 2.49352, -53.6342, 2.48977, -173.542, 2.48837, 66.5086, 0.00680414, 58.2683
1, 1560.00000, 125.325, -30.5602, 125.514, -150.468, 125.584, 89.5825, 0, 0, 2.49352, -53.6342, 2.48977, -173.542, 2.48837, 66.5086, 0.00680414, 58.2683
1, 1620.00000, 125.325, -30.5602, 125.514, -150.468, 125.584, 89.5825, 0, 0, 2.49352, -53.6342, 2.48977, -173.542, 2.48837, 66.5086, 0.00680414, 58.2683
1, 1680.00000, 125.325, -30.5602, 125.514, -150.468, 125.584, 89.5825, 0, 0, 2.49352, -53.6342, 2.48977, -173.542, 2.48837, 66.5086, 0.00680414, 58.2683
1, 1740.00000, 125.325, -30.5602, 125.514, -150.468, 125.584, 89.5825, 0, 0, 2.49352, -53.6342, 2.48977, -173.542, 2.48837, 66.5086, 0.00680414, 58.2683
1, 1800.00000, 125.325, -30.5602, 125.514, -150.468, 125.584, 89.5825, 0, 0, 2.49352, -53.6342, 2.48977, -173.542, 2.48837, 66.5086, 0.00680414, 58.2683
1, 1860.00000, 125.325, -30.5602, 125.514, -150.468, 125.584, 89.5825, 0, 0, 2.49352, -53.6342, 2.48977, -173.542, 2.48837, 66.5086, 0.00680414, 58.2683
1, 1920.00000, 125.325, -30.5602, 125.514, -150.468, 125.584, 89.5825, 0, 0, 2.49352, -53.6342, 2.48977, -173.542, 2.48837, 66.5086, 0.00680414, 58.2683
1, 1980.00000, 125.325, -30.5602, 125.514, -150.468, 125.584, 89.5825, 0, 0, 2.49352, -53.6342, 2.48977, -173.542, 2.48837, 66.5086, 0.00680414, 58.2683
1, 2040.00000, 125.325, -30.5602, 125.514, -150.468, 125.584, 89.5825, 0, 0, 2.49352, -53.6342, 2.48977, -173.542, 2.48837, 66.5086, 0.00680414, 58.2683
1, 2100.00000, 125.325, -30.5602, 125.514, -150.468, 125.584, 89.5825, 0, 0, 2.49352, -53.6342, 2.48977, -173.542, 2.48837, 66.5086, 0.00680414, 58.2683
1, 2160.00000, 125.325, -30.5602, 125.514, -150.468, 125.584, 89.5825, 0, 0, 2.49352, -53.6342, 2.48977, -173.542, 2.48837, 66.5086, 0.00680414, 58.2683
1, 2220.00000, 125.325, -30.5602, 125.514, -150.468, 125.584, 89.5825, 0, 0, 2.49352, -53.6342, 2.48977, -173.542, 2.48837, 66.5086, 0.00680414, 58.2683
1, 2280.00000, 125.325, -30.5602, 125.514, -150.468, 125.584, 89.5825, 0, 0, 2.49352, -53.6342, 2.48977, -173.542, 2.48837, 66.5086, 0.00680414, 58.2683
1, 2340.00000, 125.325, -30.5602, 125.514, -150.468, 125.584, 89.5825, 0, 0, 2.49352, -53.6342, 2.48977, -173.542, 2.48837, 66.5086, 0.00680414, 58.2683
1, 2400.00000, 125.325, -30.5602, 125.514, -150.468, 125.584, 89.5825, 0, 0, 2.49352, -53.6342, 2.48977, -173.542, 2.48837, 66.5086, 0.00680414, 58.2683
1, 2460.00000, 125.325, -30.5602, 125.514, -150.468, 125.584, 89.5825, 0, 0, 2.49352, -53.6342, 2.48977, -173.542, 2.48837, 66.5086, 0.00680414, 58.2683
1, 2520.00000, 125.325, -30.5602, 125.514, -150.468, 125.584, 89.5825, 0, 0, 2.49352, -53.6342, 2.48977, -173.542, 2.48837, 66.5086, 0.00680414, 58.2683
1, 2580.00000, 125.325, -30.5602, 125.514, -150.468, 125.584, 89.5825, 0, 0, 2.49352, -53.6342, 2.48977, -173.542, 2.48837, 66.5086, 0.00680414, 58.2683
1, 2640.00000, 125.325, -30.5602, 125.514, -150.468, 125.584, 89.5825, 0, 0, 2.49352, -53.6342, 2.48977, -173.542, 2.48837, 66.5086, 0.00680414, 58.2683
1, 2700.00000, 125.325, -30.5602, 125.514, -150.468, 125.584, 89.5825, 0, 0, 2.49352, -53.6342, 2.48977, -173.542, 2.48837, 66.5086, 0.00680414, 58.2683
1, 2760.00000, 125.325, -30.5602, 125.514, -150.468, 125.584, 89.5825, 0, 0, 2.49352, -53.6342, 2.48977, -173.542, 2.48837, 66.5086, 0.00680414, 58.2683
1, 2820.00000, 125.325, -30.5602, 125.514, -150.468, 125.584, 89.5825, 0, 0, 2.49352, -53.6342, 2.48977, -173.542, 2.48837, 66.5086, 0.00680414, 58.2683
1, 2880.00000, 125.325, -30.5602, 125.514, -150.468, 125.584, 89.5825, 0, 0, 2.49352, -53.6342, 2.48977, -173.542, 2.48837, 66.5086, 0.00680414, 58.2683
1, 2940.00000, 125.325, -30.5602, 125.514, -150.468, 125.584, 89.5825, 0, 0, 2.49352, -53.6342, 2.48977, -173.542, 2.48837, 66.5086, 0.00680414, 58.2683
1, 3000.00000, 125.325, -30.5602, 125.514, -150.468, 125.584, 89.5825, 0, 0, 2.49352, -53.6342, 2.48977, -173.542, 2.48837, 66.5086, 0.00680414, 58.2683
1, 3060.00000, 125.325, -30.5602, 125.514, -150.468, 125.584, 89.5825, 0, 0, 2.49352, -53.6342, 2.48977, -173.542, 2.48837, 66.5086, 0.00680414, 58.2683
1, 3120.00000, 125.325, -30.5602, 125.514, -150.468, 125.584, 89.5825, 0, 0, 2.49352, -53.6342, 2.48977, -173.542, 2.48837, 66.5086, 0.00680414, 58.2683
1, 3180.00000, 125.325, -30.5602, 125.514, -150.468, 125.584, 89.5825, 0, 0, 2.49352, -53.6342, 2.48977, -173.542, 2.48837, 66.5086, 0.00680414, 58.2683
1, 3240.00000, 125.325, -30.5602, 125.514, -150.468, 125.584, 89.5825, 0, 0, 2.49352, -53.6342, 2.48977, -173.542, 2.48837, 66.5086, 0.00680414, 58.2683
1, 3300.00000, 125.325, -30.5602, 125.514, -150.468, 125.584, 89.5825, 0, 0, 2.49352, -53.6342, 2.48977, -173.542, 2.48837, 66.5086, 0.00680414, 58.2683
1, 3360.00000, 125.325, -30.5602, 125.514, -150.468, 125.584, 89.5825, 0, 0, 2.49352, -53.6342, 2.48977, -173.542, 2.48837, 66.5086, 0.00680414, 58.2683
1, 3420.00000, 125.325, -30.5602, 125.514, -150.468, 125.584, 89.5825, 0, 0, 2.49352, -53.6342, 2.48977, -173.542, 2.48837, 66.5086, 0.00680414, 58.2683
1, 3480.00000, 125.325, -30.5602, 125.514, -150.468, 125.584, 89.5825, 0, 0, 2.49352, -53.6342, 2.48977, -173.542, 2.48837, 66.5086, 0.00680414, 58.2683
1, 3540.00000, 125.325, -30.5602, 125.514, -150.468, 125.584, 89.5825, 0, 0, 2.49352, -53.6342, 2.48977, -173.542, 2.48837, 66.5086, 0.00680414, 58.2683
2, 0.00000, 125.325, -30.5602, 125.514, -150.468, 125.584, 89.5825, 0, 0, 2.49352, -53.6342, 2.48977, -173.542, 2.48837, 66.5086, 0.00680414, 58.2683
2, 60.00000, 125.325, -30.5602, 125.514, -150.468, 125.584, 89.5825, 0, 0, 2.49352, -53.6342, 2.48977, -173.542, 2.48837, 66.5086, 0.00680414, 58.2683
2, 120.00000, 125.318, -30.5613, 125.507, -150.469, 125.577, 89.5816, 0, 0, 2.50056, -53.6352, 2.49679, -173.543, 2.49538, 66.5077, 0.00682882, 58.3569
2, 180.00000, 125.31, -30.5623, 125.5, -150.47, 125.57, 89.5807, 0, 0, 2.50769, -53.6362, 2.50389, -173.544, 2.50249, 66.5068, 0.00685472, 58.4509
2, 240.00000, 125.303, -30.5634, 125.493, -150.471, 125.564, 89.5798, 0, 0, 2.51474, -53.6372, 2.51091, -173.545, 2.50951, 66.5059, 0.00688039, 58.5439
2, 300.00000, 125.295, -30.5644, 125.487, -150.472, 125.557, 89.5788, 0, 0, 2.52179, -53.6383, 2.51794, -173.546, 2.51654, 66.505, 0.00690612, 58.6366
2, 360.00000, 125.288, -30.5655, 125.48, -150.473, 125.55, 89.5779, 0, 0, 2.52892, -53.6393, 2.52505, -173.547, 2.52364, 66.504, 0.0069322, 58.7303
2, 420.00000, 125.28, -30.5665, 125.473, -150.474, 125.543, 89.577, 0, 0, 2.53597, -53.6404, 2.53207, -173.548, 2.53067, 66.5031, 0.00695805, 58.8228
2, 480.00000, 125.273, -30.5676, 125.467, -150.475, 125.536, 89.5761, 0, 0, 2.54303, -53.6414, 2.5391, -173.549, 2.5377, 66.5022, 0.00698395, 58.9151
2, 540.00000, 125.265, -30.5686, 125.46, -150.476, 125.529, 89.5752, 0, 0, 2.55016, -53.6425, 2.54621, -173.55, 2.54481, 66.5013, 0.00701021, 59.0083
2, 600.00000, 125.258, -30.5696, 125.453, -150.477, 125.522, 89.5743, 0, 0, 2.55722, -53.6435, 2.55324, -173.551, 2.55183, 66.5004, 0.00703624, 59.1004
