hour,t(sec),V1,VAngle1,V2,VAngle2,V3,VAngle3,V4,VAngle4,I1,IAngle1,I2,IAngle2,I3,IAngle3,I4,IAngle4
0, 60.00000, 127.082, -30.5753, 126.985, -150.734, 126.712, 89.4091, 0, 0, 2.03307, -53.6487, 2.0346, -173.807, 2.03896, 66.3362, 0.010629, -93.8782
0, 120.00000, 127.082, -30.5754, 126.985, -150.734, 126.712, 89.409, 0, 0, 2.03309, -53.6493, 2.03465, -173.808, 2.03903, 66.3351, 0.0106835, -93.9217
0, 180.00000, 127.082, -30.5754, 126.985, -150.734, 126.712, 89.409, 0, 0, 2.03309, -53.6493, 2.03465, -173.808, 2.03903, 66.3351, 0.0106838, -93.9218
0, 240.00000, 127.082, -30.5754, 126.985, -150.734, 126.712, 89.409, 0, 0, 2.03309, -53.6493, 2.03465, -173.808, 2.03903, 66.3351, 0.0106838, -93.9218
0, 300.00000, 127.082, -30.5754, 126.985, -150.734, 126.712, 89.409, 0, 0, 2.03309, -53.6493, 2.03465, -173.808, 2.03903, 66.3351, 0.0106838, -93.9218
0, 360.00000, 127.082, -30.5754, 126.985, -150.734, 126.712, 89.409, 0, 0, 2.03309, -53.6493, 2.03465, -173.808, 2.03903, 66.3351, 0.0106838, -93.9218
0, 420.00000, 127.082, -30.5754, 126.985, -150.734, 126.712, 89.409, 0, 0, 2.03309, -53.6493, 2.03465, -173.808, 2.03903, 66.3351, 0.0106838, -93.9218
0, 480.00000, 127.082, -30.5754, 126.985, -150.734, 126.712, 89.409, 0, 0, 2.03309, -53.6493, 2.03465, -173.808, 2.03903, 66.3351, 0.0106838, -93.9218
0, 540.00000, 127.082, -30.5754, 126.985, -150.734, 126.712, 89.409, 0, 0, 2.03309, -53.6493, 2.03465, -173.808, 2.03903, 66.3351, 0.0106838, -93.9218
0, 600.00000, 127.082, -30.5754, 126.985, -150.734, 126.712, 89.409, 0, 0, 2.03309, -53.6493, 2.03465, -173.808, 2.03903, 66.3351, 0.0106838, -93.9218
0, 660.00000, 127.082, -30.5754, 126.985, -150.734, 126.712, 89.409, 0, 0, 2.03309, -53.6493, 2.03465, -173.808, 2.03903, 66.3351, 0.0106838, -93.9218
0, 720.00000, 127.082, -30.5754, 126.985, -150.734, 126.712, 89.409, 0, 0, 2.03309, -53.6493, 2.03465, -173.808, 2.03903, 66.3351, 0.0106838, -93.9218
0, 780.00000, 127.082, -30.5754, 126.985, -150.734, 126.712, 89.409, 0, 0, 2.03309, -53.6493, 2.03465, -173.808, 2.03903, 66.3351, 0.0106838, -93.9218
0, 840.00000, 127.082, -30.5754, 126.985, -150.734, 126.712, 89.409, 0, 0, 2.03309, -53.6493, 2.03465, -173.808, 2.03903, 66.3351, 0.0106838, -93.9218
0, 900.00000, 127.082, -30.5754, 126.985, -150.734, 126.712, 89.409, 0, 0, 2.03309, -53.6493, 2.03465, -173.808, 2.03903, 66.3351, 0.0106838, -93.9218
0, 960.00000, 127.08, -30.5759, 126.854, -150.911, 126.301, 89.3634, 0, 0, 2.03312, -53.6497, 2.03672, -173.984, 2.04561, 66.2901, 0.022105, -95.5015
0, 1020.00000, 127.08, -30.5759, 126.854, -150.911, 126.301, 89.3634, 0, 0, 2.03312, -53.6498, 2.03675, -173.985, 2.04566, 66.2895, 0.0221645, -95.513
0, 1080.00000, 127.08, -30.5759, 126.854, -150.911, 126.301, 89.3634, 0, 0, 2.03312, -53.6498, 2.03675, -173.985, 2.04566, 66.2895, 0.0221649, -95.513
0, 1140.00000, 127.08, -30.5759, 126.854, -150.911, 126.301, 89.3634, 0, 0, 2.03312, -53.6498, 2.03675, -173.985, 2.04566, 66.2895, 0.0221649, -95.513
0, 1200.00000, 127.08, -30.5759, 126.854, -150.911, 126.301, 89.3634, 0, 0, 2.03312, -53.6498, 2.03675, -173.985, 2.04566, 66.2895, 0.0221649, -95.513
0, 1260.00000, 127.08, -30.5759, 126.854, -150.911, 126.301, 89.3634, 0, 0, 2.03312, -53.6498, 2.03675, -173.985, 2.04566, 66.2895, 0.0221649, -95.513
0, 1320.00000, 127.08, -30.5759, 126.854, -150.911, 126.301, 89.3634, 0, 0, 2.03312, -53.6498, 2.03675, -173.985, 2.04566, 66.2895, 0.0221649, -95.513
0, 1380.00000, 127.08, -30.5759, 126.854, -150.911, 126.301, 89.3634, 0, 0, 2.03312, -53.6498, 2.03675, -173.985, 2.04566, 66.2895, 0.0221649, -95.513
0, 1440.00000, 127.08, -30.5759, 126.854, -150.911, 126.301, 89.3634, 0, 0, 2.03312, -53.6498, 2.03675, -173.985, 2.04566, 66.2895, 0.0221649, -95.513
0, 1500.00000, 127.08, -30.5759, 126.854, -150.911, 126.301, 89.3634, 0, 0, 2.03312, -53.6498, 2.03675, -173.985, 2.04566, 66.2895, 0.0221649, -95.513
0, 1560.00000, 127.08, -30.5759, 126.854, -150.911, 126.301, 89.3634, 0, 0, 2.03312, -53.6498, 2.03675, -173.985, 2.04566, 66.2895, 0.0221649, -95.513
0, 1620.00000, 127.08, -30.5759, 126.854, -150.911, 126.301, 89.3634, 0, 0, 2.03312, -53.6498, 2.03675, -173.985, 2.04566, 66.2895, 0.0221649, -95.513
0, 1680.00000, 127.08, -30.5759, 126.854, -150.911, 126.301, 89.3634, 0, 0, 2.03312, -53.6498, 2.03675, -173.985, 2.04566, 66.2895, 0.0221649, -95.513
0, 1740.00000, 127.08, -30.5759, 126.854, -150.911, 126.301, 89.3634, 0, 0, 2.03312, -53.6498, 2.03675, -173.985, 2.04566, 66.2895, 0.0221649, -95.513
0, 1800.00000, 127.08, -30.5759, 126.854, -150.911, 126.301, 89.3634, 0, 0, 2.03312, -53.6498, 2.03675, -173.985, 2.04566, 66.2895, 0.0221649, -95.513
0, 1860.00000, 127.08, -30.5759, 126.854, -150.911, 126.301, 89.3634, 0, 0, 2.03312, -53.6498, 2.03675, -173.985, 2.04566, 66.2895, 0.0221649, -95.513
0, 1920.00000, 127.08, -30.5759, 126.854, -150.911, 126.301, 89.3634, 0, 0, 2.03312, -53.6498, 2.03675, -173.985, 2.04566, 66.2895, 0.0221649, -95.513
0, 1980.00000, 127.08, -30.5759, 126.854, -150.911, 126.301, 89.3634, 0, 0, 2.03312, -53.6498, 2.03675, -173.985, 2.04566, 66.2895, 0.0221649, -95.513
0, 2040.00000, 127.08, -30.5759, 126.854, -150.911, 126.301, 89.3634, 0, 0, 2.03312, -53.6498, 2.03675, -173.985, 2.04566, 66.2895, 0.0221649, -95.513
0, 2100.00000, 127.08, -30.5759, 126.854, -150.911, 126.301, 89.3634, 0, 0, 2.03312, -53.6498, 2.03675, -173.985, 2.04566, 66.2895, 0.0221649, -95.513
0, 2160.00000, 127.08, -30.5759, 126.854, -150.911, 126.301, 89.3634, 0, 0, 2.03312, -53.6498, 2.03675, -173.985, 2.04566, 66.2895, 0.0221649, -95.513
0, 2220.00000, 127.08, -30.5759, 126.854, -150.911, 126.301, 89.3634, 0, 0, 2.03312, -53.6498, 2.03675, -173.985, 2.04566, 66.2895, 0.0221649, -95.513
0, 2280.00000, 127.08, -30.5759, 126.854, -150.911, 126.301, 89.3634, 0, 0, 2.03312, -53.6498, 2.03675, -173.985, 2.04566, 66.2895, 0.0221649, -95.513
0, 2340.00000, 127.08, -30.5759, 126.854, -150.911, 126.301, 89.3634, 0, 0, 2.03312, -53.6498, 2.03675, -173.985, 2.04566, 66.2895, 0.0221649, -95.513
0, 2400.00000, 127.08, -30.5759, 126.854, -150.911, 126.301, 89.3634, 0, 0, 2.03312, -53.6498, 2.03675, -173.985, 2.04566, 66.2895, 0.0221649, -95.513
0, 2460.00000, 127.08, -30.5759, 126.854, -150.911, 126.301, 89.3634, 0, 0, 2.03312, -53.6498, 2.03675, -173.985, 2.04566, 66.2895, 0.0221649, -95.513
0, 2520.00000, 127.08, -30.5759, 126.854, -150.911, 126.301, 89.3634, 0, 0, 2.03312, -53.6498, 2.03675, -173.985, 2.04566, 66.2895, 0.0221649, -95.513
0, 2580.00000, 127.08, -30.5759, 126.854, -150.911, 126.301, 89.3634, 0, 0, 2.03312, -53.6498, 2.03675, -173.985, 2.04566, 66.2895, 0.0221649, -95.513
0, 2640.00000, 127.08, -30.5759, 126.854, -150.911, 126.301, 89.3634, 0, 0, 2.03312, -53.6498, 2.03675, -173.985, 2.04566, 66.2895, 0.0221649, -95.513
0, 2700.00000, 127.08, -30.5759, 126.854, -150.911, 126.301, 89.3634, 0, 0, 2.03312, -53.6498, 2.03675, -173.985, 2.04566, 66.2895, 0.0221649, -95.513
0, 2760.00000, 127.08, -30.5759, 126.854, -150.911, 126.301, 89.3634, 0, 0, 2.03312, -53.6498, 2.03675, -173.985, 2.04566, 66.2895, 0.0221649, -95.513
0, 2820.00000, 127.08, -30.5759, 126.854, -150.911, 126.301, 89.3634, 0, 0, 2.03312, -53.6498, 2.03675, -173.985, 2.04566, 66.2895, 0.0221649, -95.513
0, 2880.00000, 127.08, -30.5759, 126.854, -150.911, 126.301, 89.3634, 0, 0, 2.03312, -53.6498, 2.03675, -173.985, 2.04566, 66.2895, 0.0221649, -95.513
0, 2940.00000, 127.08, -30.5759, 126.854, -150.911, 126.301, 89.3634, 0, 0, 2.03312, -53.6498, 2.03675, -173.985, 2.04566, 66.2895, 0.0221649, -95.513
0, 3000.00000, 127.08, -30.5759, 126.854, -150.911, 126.301, 89.3634, 0, 0, 2.03312, -53.6498, 2.03675, -173.985, 2.04566, 66.2895, 0.0221649, -95.513
0, 3060.00000, 127.08, -30.5759, 126.854, -150.911, 126.301, 89.3634, 0, 0, 2.03312, -53.6498, 2.03675, -173.985, 2.04566, 66.2895, 0.0221649, -95.513
0, 3120.00000, 127.08, -30.5759, 126.854, -150.911, 126.301, 89.3634, 0, 0, 2.03312, -53.6498, 2.03675, -173.985, 2.04566, 66.2895, 0.0221649, -95.513
0, 3180.00000, 127.08, -30.5759, 126.854, -150.911, 126.301, 89.3634, 0, 0, 2.03312, -53.6498, 2.03675, -173.985, 2.04566, 66.2895, 0.0221649, -95.513
0, 3240.00000, 127.08, -30.5759, 126.854, -150.911, 126.301, 89.3634, 0, 0, 2.03312, -53.6498, 2.03675, -173.985, 2.04566, 66.2895, 0.0221649, -95.513
0, 3300.00000, 127.08, -30.5759, 126.854, -150.911, 126.301, 89.3634, 0, 0, 2.03312, -53.6498, 2.03675, -173.985, 2.04566, 66.2895, 0.0221649, -95.513
0, 3360.00000, 127.08, -30.5759, 126.854, -150.911, 126.301, 89.3634, 0, 0, 2.03312, -53.6498, 2.03675, -173.985, 2.04566, 66.2895, 0.0221649, -95.513
0, 3420.00000, 127.08, -30.5759, 126.854, -150.911, 126.301, 89.3634, 0, 0, 2.03312, -53.6498, 2.03675, -173.985, 2.04566, 66.2895, 0.0221649, -95.513
0, 3480.00000, 127.08, -30.5759, 126.854, -150.911, 126.301, 89.3634, 0, 0, 2.03312, -53.6498, 2.03675, -173.985, 2.04566, 66.2895, 0.0221649, -95.513
0, 3540.00000, 127.08, -30.5759, 126.854, -150.911, 126.301, 89.3634, 0, 0, 2.03312, -53.6498, 2.03675, -173.985, 2.04566, 66.2895, 0.0221649, -95.513
1, 0.00000, 127.08, -30.5759, 126.854, -150.911, 126.301, 89.3634, 0, 0, 2.03312, -53.6498, 2.03675, -173.985, 2.04566, 66.2895, 0.0221649, -95.513
1, 60.00000, 127.08, -30.5759, 126.854, -150.911, 126.301, 89.3634, 0, 0, 2.03312, -53.6498, 2.03675, -173.985, 2.04566, 66.2895, 0.0221649, -95.513
1, 120.00000, 127.08, -30.5759, 126.854, -150.911, 126.301, 89.3634, 0, 0, 2.03312, -53.6498, 2.03675, -173.985, 2.04566, 66.2895, 0.0221649, -95.513
1, 180.00000, 127.08, -30.5759, 126.854, -150.911, 126.301, 89.3634, 0, 0, 2.03312, -53.6498, 2.03675, -173.985, 2.04566, 66.2895, 0.0221649, -95.513
1, 240.00000, 127.08, -30.5759, 126.854, -150.911, 126.301, 89.3634, 0, 0, 2.03312, -53.6498, 2.03675, -173.985, 2.04566, 66.2895, 0.0221649, -95.513
1, 300.00000, 127.08, -30.5759, 126.854, -150.911, 126.301, 89.3634, 0, 0, 2.03312, -53.6498, 2.03675, -173.985, 2.04566, 66.2895, 0.0221649, -95.513
1, 360.00000, 127.08, -30.5759, 126.854, -150.911, 126.301, 89.3634, 0, 0, 2.03312, -53.6498, 2.03675, -173.985, 2.04566, 66.2895, 0.0221649, -95.513
1, 420.00000, 127.08, -30.5759, 126.854, -150.911, 126.301, 89.3634, 0, 0, 2.03312, -53.6498, 2.03675, -173.985, 2.04566, 66.2895, 0.0221649, -95.513
1, 480.00000, 127.08, -30.5759, 126.854, -150.911, 126.301, 89.3634, 0, 0, 2.03312, -53.6498, 2.03675, -173.985, 2.04566, 66.2895, 0.0221649, -95.513
1, 540.00000, 127.08, -30.5759, 126.854, -150.911, 126.301, 89.3634, 0, 0, 2.03312, -53.6498, 2.03675, -173.985, 2.04566, 66.2895, 0.0221649, -95.513
1, 600.00000, 127.08, -30.5759, 126.854, -150.911, 126.301, 89.3634, 0, 0, 2.03312, -53.6498, 2.03675, -173.985, 2.04566, 66.2895, 0.0221649, -95.513
1, 660.00000, 127.08, -30.5759, 126.854, -150.911, 126.301, 89.3634, 0, 0, 2.03312, -53.6498, 2.03675, -173.985, 2.04566, 66.2895, 0.0221649, -95.513
1, 720.00000, 127.08, -30.5759, 126.854, -150.911, 126.301, 89.3634, 0, 0, 2.03312, -53.6498, 2.03675, -173.985, 2.04566, 66.2895, 0.0221649, -95.513
1, 780.00000, 127.08, -30.5759, 126.854, -150.911, 126.301, 89.3634, 0, 0, 2.03312, -53.6498, 2.03675, -173.985, 2.04566, 66.2895, 0.0221649, -95.513
1, 840.00000, 127.08, -30.5759, 126.854, -150.911, 126.301, 89.3634, 0, 0, 2.03312, -53.6498, 2.03675, -173.985, 2.04566, 66.2895, 0.0221649, -95.513
1, 900.00000, 127.08, -30.5759, 126.854, -150.911, 126.301, 89.3634, 0, 0, 2.03312, -53.6498, 2.03675, -173.985, 2.04566, 66.2895, 0.0221649, -95.513
1, 960.00000, 127.08, -30.5759, 126.854, -150.911, 126.301, 89.3634, 0, 0, 2.03312, -53.6498, 2.03675, -173.985, 2.04566, 66.2895, 0.0221649, -95.513
1, 1020.00000, 127.08, -30.5759, 126.854, -150.911, 126.301, 89.3634, 0, 0, 2.03312, -53.6498, 2.03675, -173.985, 2.04566, 66.2895, 0.0221649, -95.513
1, 1080.00000, 127.08, -30.5759, 126.854, -150.911, 126.301, 89.3634, 0, 0, 2.03312, -53.6498, 2.03675, -173.985, 2.04566, 66.2895, 0.0221649, -95.513
1, 1140.00000, 127.08, -30.5759, 126.854, -150.911, 126.301, 89.3634, 0, 0, 2.03312, -53.6498, 2.03675, -173.985, 2.04566, 66.2895, 0.0221649, -95.513
1, 1200.00000, 127.08, -30.5759, 126.854, -150.911, 126.301, 89.3634, 0, 0, 2.03312, -53.6498, 2.03675, -173.985, 2.04566, 66.2895, 0.0221649, -95.513
1, 1260.00000, 127.08, -30.5759, 126.854, -150.911, 126.301, 89.3634, 0, 0, 2.03312, -53.6498, 2.03675, -173.985, 2.04566, 66.2895, 0.0221649, -95.513
1, 1320.00000, 127.08, -30.5759, 126.854, -150.911, 126.301, 89.3634, 0, 0, 2.03312, -53.6498, 2.03675, -173.985, 2.04566, 66.2895, 0.0221649, -95.513
1, 1380.00000, 127.08, -30.5759, 126.854, -150.911, 126.301, 89.3634, 0, 0, 2.03312, -53.6498, 2.03675, -173.985, 2.04566, 66.2895, 0.0221649, -95.513
1, 1440.00000, 127.08, -30.5759, 126.854, -150.911, 126.301, 89.3634, 0, 0, 2.03312, -53.6498, 2.03675, -173.985, 2.04566, 66.2895, 0.0221649, -95.513
1, 1500.00000, 127.08, -30.5759, 126.854, -150.911, 126.301, 89.3634, 0, 0, 2.03312, -53.6498, 2.03675, -173.985, 2.04566, 66.2895, 0.0221649, -95.513
1, 1560.00000, 127.08, -30.5759, 126.854, -150.911, 126.301, 89.3634, 0, 0, 2.03312, -53.6498, 2.03675, -173.985, 2.04566, 66.2895, 0.0221649, -95.513
1, 1620.00000, 127.08, -30.5759, 126.854, -150.911, 126.301, 89.3634, 0, 0, 2.03312, -53.6498, 2.03675, -173.985, 2.04566, 66.2895, 0.0221649, -95.513
1, 1680.00000, 127.08, -30.5759, 126.854, -150.911, 126.301, 89.3634, 0, 0, 2.03312, -53.6498, 2.03675, -173.985, 2.04566, 66.2895, 0.0221649, -95.513
1, 1740.00000, 127.08, -30.5759, 126.854, -150.911, 126.301, 89.3634, 0, 0, 2.03312, -53.6498, 2.03675, -173.985, 2.04566, 66.2895, 0.0221649, -95.513
1, 1800.00000, 127.08, -30.5759, 126.854, -150.911, 126.301, 89.3634, 0, 0, 2.03312, -53.6498, 2.03675, -173.985, 2.04566, 66.2895, 0.0221649, -95.513
1, 1860.00000, 127.08, -30.5759, 126.854, -150.911, 126.301, 89.3634, 0, 0, 2.03312, -53.6498, 2.03675, -173.985, 2.04566, 66.2895, 0.0221649, -95.513
1, 1920.00000, 127.08, -30.5759, 126.854, -150.911, 126.301, 89.3634, 0, 0, 2.03312, -53.6498, 2.03675, -173.985, 2.04566, 66.2895, 0.0221649, -95.513
1, 1980.00000, 127.08, -30.5759, 126.854, -150.911, 126.301, 89.3634, 0, 0, 2.03312, -53.6498, 2.03675, -173.985, 2.04566, 66.2895, 0.0221649, -95.513
1, 2040.00000, 127.08, -30.5759, 126.854, -150.911, 126.301, 89.3634, 0, 0, 2.03312, -53.6498, 2.03675, -173.985, 2.04566, 66.2895, 0.0221649, -95.513
1, 2100.00000, 127.08, -30.5759, 126.854, -150.911, 126.301, 89.3634, 0, 0, 2.03312, -53.6498, 2.03675, -173.985, 2.04566, 66.2895, 0.0221649, -95.513
1, 2160.00000, 127.08, -30.5759, 126.854, -150.911, 126.301, 89.3634, 0, 0, 2.03312, -53.6498, 2.03675, -173.985, 2.04566, 66.2895, 0.0221649, -95.513
1, 2220.00000, 127.08, -30.5759, 126.854, -150.911, 126.301, 89.3634, 0, 0, 2.03312, -53.6498, 2.03675, -173.985, 2.04566, 66.2895, 0.0221649, -95.513
1, 2280.00000, 127.08, -30.5759, 126.854, -150.911, 126.301, 89.3634, 0, 0, 2.03312, -53.6498, 2.03675, -173.985, 2.04566, 66.2895, 0.0221649, -95.513
1, 2340.00000, 127.08, -30.5759, 126.854, -150.911, 126.301, 89.3634, 0, 0, 2.03312, -53.6498, 2.03675, -173.985, 2.04566, 66.2895, 0.0221649, -95.513
1, 2400.00000, 127.08, -30.5759, 126.854, -150.911, 126.301, 89.3634, 0, 0, 2.03312, -53.6498, 2.03675, -173.985, 2.04566, 66.2895, 0.0221649, -95.513
1, 2460.00000, 127.08, -30.5759, 126.854, -150.911, 126.301, 89.3634, 0, 0, 2.03312, -53.6498, 2.03675, -173.985, 2.04566, 66.2895, 0.0221649, -95.513
1, 2520.00000, 127.082, -30.5754, 126.985, -150.734, 126.712, 89.409, 0, 0, 2.0331, -53.6493, 2.03466, -173.809, 2.03906, 66.3346, 0.0107216, -93.951
1, 2580.00000, 127.082, -30.5754, 126.985, -150.734, 126.712, 89.409, 0, 0, 2.03309, -53.6493, 2.03465, -173.808, 2.03903, 66.3351, 0.0106839, -93.9219
1, 2640.00000, 127.082, -30.5754, 126.985, -150.734, 126.712, 89.409, 0, 0, 2.03309, -53.6493, 2.03465, -173.808, 2.03903, 66.3351, 0.0106838, -93.9218
1, 2700.00000, 127.082, -30.5754, 126.985, -150.734, 126.712, 89.409, 0, 0, 2.03309, -53.6493, 2.03465, -173.808, 2.03903, 66.3351, 0.0106838, -93.9218
1, 2760.00000, 127.083, -30.5749, 127.111, -150.563, 127.109, 89.4532, 0, 0, 2.03307, -53.6489, 2.03265, -173.638, 2.03267, 66.3789, 0.000677788, 28.3354
1, 2820.00000, 127.084, -30.5749, 127.111, -150.563, 127.109, 89.4532, 0, 0, 2.03307, -53.6489, 2.03264, -173.637, 2.03265, 66.3793, 0.000694911, 29.6041
1, 2880.00000, 127.084, -30.5749, 127.111, -150.563, 127.109, 89.4532, 0, 0, 2.03307, -53.6489, 2.03264, -173.637, 2.03265, 66.3793, 0.000694959, 29.6085
1, 2940.00000, 127.084, -30.5749, 127.111, -150.563, 127.109, 89.4532, 0, 0, 2.03307, -53.6489, 2.03264, -173.637, 2.03265, 66.3793, 0.000694959, 29.6086
1, 3000.00000, 127.084, -30.5749, 127.111, -150.563, 127.109, 89.4532, 0, 0, 2.03307, -53.6489, 2.03264, -173.637, 2.03265, 66.3793, 0.000694959, 29.6086
1, 3060.00000, 127.084, -30.5749, 127.111, -150.563, 127.109, 89.4532, 0, 0, 2.03307, -53.6489, 2.03264, -173.637, 2.03265, 66.3793, 0.000694959, 29.6086
1, 3120.00000, 127.084, -30.5749, 127.111, -150.563, 127.109, 89.4532, 0, 0, 2.03307, -53.6489, 2.03264, -173.637, 2.03265, 66.3793, 0.000694959, 29.6086
1, 3180.00000, 127.084, -30.5749, 127.111, -150.563, 127.109, 89.4532, 0, 0, 2.03307, -53.6489, 2.03264, -173.637, 2.03265, 66.3793, 0.000694959, 29.6086
1, 3240.00000, 127.084, -30.5749, 127.111, -150.563, 127.109, 89.4532, 0, 0, 2.03307, -53.6489, 2.03264, -173.637, 2.03265, 66.3793, 0.000694959, 29.6086
1, 3300.00000, 127.084, -30.5749, 127.111, -150.563, 127.109, 89.4532, 0, 0, 2.03307, -53.6489, 2.03264, -173.637, 2.03265, 66.3793, 0.000694959, 29.6086
1, 3360.00000, 127.084, -30.5749, 127.111, -150.563, 127.109, 89.4532, 0, 0, 2.03307, -53.6489, 2.03264, -173.637, 2.03265, 66.3793, 0.000694959, 29.6086
1, 3420.00000, 127.084, -30.5749, 127.111, -150.563, 127.109, 89.4532, 0, 0, 2.03307, -53.6489, 2.03264, -173.637, 2.03265, 66.3793, 0.000694959, 29.6086
1, 3480.00000, 127.084, -30.5749, 127.111, -150.563, 127.109, 89.4532, 0, 0, 2.03307, -53.6489, 2.03264, -173.637, 2.03265, 66.3793, 0.000694959, 29.6086
1, 3540.00000, 127.084, -30.5749, 127.111, -150.563, 127.109, 89.4532, 0, 0, 2.03307, -53.6489, 2.03264, -173.637, 2.03265, 66.3793, 0.000694959, 29.6086
2, 0.00000, 127.084, -30.5749, 127.111, -150.563, 127.109, 89.4532, 0, 0, 2.03307, -53.6489, 2.03264, -173.637, 2.03265, 66.3793, 0.000694959, 29.6086
2, 60.00000, 127.084, -30.5749, 127.111, -150.563, 127.109, 89.4532, 0, 0, 2.03307, -53.6489, 2.03264, -173.637, 2.03265, 66.3793, 0.000694959, 29.6086
2, 120.00000, 127.08, -30.5761, 127.107, -150.564, 127.106, 89.4521, 0, 0, 2.03875, -53.6499, 2.03831, -173.638, 2.03833, 66.3782, 0.000697256, 29.7801
2, 180.00000, 127.076, -30.5772, 127.103, -150.566, 127.102, 89.451, 0, 0, 2.04451, -53.6511, 2.04407, -173.639, 2.04409, 66.3771, 0.000699245, 29.9372
2, 240.00000, 127.072, -30.5783, 127.1, -150.567, 127.098, 89.4499, 0, 0, 2.05019, -53.6522, 2.04975, -173.64, 2.04977, 66.376, 0.000701206, 30.092
2, 300.00000, 127.068, -30.5795, 127.096, -150.568, 127.095, 89.4487, 0, 0, 2.05588, -53.6533, 2.05543, -173.642, 2.05545, 66.3749, 0.000703176, 30.2471
2, 360.00000, 127.065, -30.5806, 127.092, -150.569, 127.091, 89.4476, 0, 0, 2.06163, -53.6545, 2.06118, -173.643, 2.0612, 66.3738, 0.00070518, 30.4043
2, 420.00000, 127.061, -30.5818, 127.089, -150.57, 127.087, 89.4465, 0, 0, 2.06732, -53.6556, 2.06687, -173.644, 2.06689, 66.3726, 0.000707157, 30.5593
2, 480.00000, 127.057, -30.5829, 127.085, -150.571, 127.084, 89.4454, 0, 0, 2.07301, -53.6568, 2.07255, -173.645, 2.07257, 66.3715, 0.000709144, 30.7145
2, 540.00000, 127.053, -30.584, 127.081, -150.572, 127.08, 89.4443, 0, 0, 2.07876, -53.6579, 2.0783, -173.646, 2.07833, 66.3704, 0.000711165, 30.8718
2, 600.00000, 127.049, -30.5852, 127.078, -150.573, 127.076, 89.4432, 0, 0, 2.08445, -53.659, 2.08399, -173.647, 2.08401, 66.3693, 0.000713159, 31.027
2, 660.00000, 127.046, -30.5863, 127.074, -150.574, 127.073, 89.4421, 0, 0, 2.09014, -53.6602, 2.08967, -173.648, 2.0897, 66.3682, 0.000715163, 31.1824
