hour,t(sec),V1,VAngle1,V2,VAngle2,V3,VAngle3,V4,VAngle4,I1,IAngle1,I2,IAngle2,I3,IAngle3,I4,IAngle4
0, 60.00000, 126.513, -30.5644, 126.566, -150.524, 126.611, 89.5051, 0, 0, 1.97605, -53.6379, 1.97523, -173.598, 1.97452, 66.4315, 0.00251589, 43.3183
0, 120.00000, 126.513, -30.5644, 126.566, -150.524, 126.611, 89.5051, 0, 0, 1.97609, -53.6384, 1.97525, -173.598, 1.97455, 66.4312, 0.00252192, 43.4446
0, 180.00000, 126.513, -30.5644, 126.566, -150.524, 126.611, 89.5051, 0, 0, 1.97609, -53.6384, 1.97526, -173.598, 1.97455, 66.4312, 0.00252193, 43.4452
0, 240.00000, 126.513, -30.5644, 126.566, -150.524, 126.611, 89.5051, 0, 0, 1.97609, -53.6384, 1.97526, -173.598, 1.97455, 66.4312, 0.00252193, 43.4452
0, 300.00000, 126.513, -30.5644, 126.566, -150.524, 126.611, 89.5051, 0, 0, 1.97609, -53.6384, 1.97526, -173.598, 1.97455, 66.4312, 0.00252193, 43.4452
0, 360.00000, 126.513, -30.5644, 126.566, -150.524, 126.611, 89.5051, 0, 0, 1.97609, -53.6384, 1.97526, -173.598, 1.97455, 66.4312, 0.00252193, 43.4452
0, 420.00000, 126.513, -30.5644, 126.566, -150.524, 126.611, 89.5051, 0, 0, 1.97609, -53.6384, 1.97526, -173.598, 1.97455, 66.4312, 0.00252193, 43.4452
0, 480.00000, 126.513, -30.5644, 126.566, -150.524, 126.611, 89.5051, 0, 0, 1.97609, -53.6384, 1.97526, -173.598, 1.97455, 66.4312, 0.00252193, 43.4452
0, 540.00000, 126.513, -30.5644, 126.566, -150.524, 126.611, 89.5051, 0, 0, 1.97609, -53.6384, 1.97526, -173.598, 1.97455, 66.4312, 0.00252193, 43.4452
0, 600.00000, 126.513, -30.5644, 126.566, -150.524, 126.611, 89.5051, 0, 0, 1.97609, -53.6384, 1.97526, -173.598, 1.97455, 66.4312, 0.00252193, 43.4452
0, 660.00000, 126.513, -30.5644, 126.566, -150.524, 126.611, 89.5051, 0, 0, 1.97609, -53.6384, 1.97526, -173.598, 1.97455, 66.4312, 0.00252193, 43.4452
0, 720.00000, 126.513, -30.5644, 126.566, -150.524, 126.611, 89.5051, 0, 0, 1.97609, -53.6384, 1.97526, -173.598, 1.97455, 66.4312, 0.00252193, 43.4452
0, 780.00000, 126.513, -30.5644, 126.566, -150.524, 126.611, 89.5051, 0, 0, 1.97609, -53.6384, 1.97526, -173.598, 1.97455, 66.4312, 0.00252193, 43.4452
0, 840.00000, 126.513, -30.5644, 126.566, -150.524, 126.611, 89.5051, 0, 0, 1.97609, -53.6384, 1.97526, -173.598, 1.97455, 66.4312, 0.00252193, 43.4452
0, 900.00000, 126.513, -30.5644, 126.566, -150.524, 126.611, 89.5051, 0, 0, 1.97609, -53.6384, 1.97526, -173.598, 1.97455, 66.4312, 0.00252193, 43.4452
0, 960.00000, 126.513, -30.5644, 126.566, -150.524, 126.611, 89.5051, 0, 0, 1.97609, -53.6384, 1.97526, -173.598, 1.97455, 66.4312, 0.00252193, 43.4452
0, 1020.00000, 126.513, -30.5644, 126.566, -150.524, 126.611, 89.5051, 0, 0, 1.97609, -53.6384, 1.97526, -173.598, 1.97455, 66.4312, 0.00252193, 43.4452
0, 1080.00000, 126.513, -30.5644, 126.566, -150.524, 126.611, 89.5051, 0, 0, 1.97609, -53.6384, 1.97526, -173.598, 1.97455, 66.4312, 0.00252193, 43.4452
0, 1140.00000, 126.513, -30.5644, 126.566, -150.524, 126.611, 89.5051, 0, 0, 1.97609, -53.6384, 1.97526, -173.598, 1.97455, 66.4312, 0.00252193, 43.4452
0, 1200.00000, 126.513, -30.5644, 126.566, -150.524, 126.611, 89.5051, 0, 0, 1.97609, -53.6384, 1.97526, -173.598, 1.97455, 66.4312, 0.00252193, 43.4452
0, 1260.00000, 126.513, -30.5644, 126.566, -150.524, 126.611, 89.5051, 0, 0, 1.97609, -53.6384, 1.97526, -173.598, 1.97455, 66.4312, 0.00252193, 43.4452
0, 1320.00000, 126.513, -30.5644, 126.566, -150.524, 126.611, 89.5051, 0, 0, 1.97609, -53.6384, 1.97526, -173.598, 1.97455, 66.4312, 0.00252193, 43.4452
0, 1380.00000, 126.513, -30.5644, 126.566, -150.524, 126.611, 89.5051, 0, 0, 1.97609, -53.6384, 1.97526, -173.598, 1.97455, 66.4312, 0.00252193, 43.4452
0, 1440.00000, 126.513, -30.5644, 126.566, -150.524, 126.611, 89.5051, 0, 0, 1.97609, -53.6384, 1.97526, -173.598, 1.97455, 66.4312, 0.00252193, 43.4452
0, 1500.00000, 126.513, -30.5644, 126.566, -150.524, 126.611, 89.5051, 0, 0, 1.97609, -53.6384, 1.97526, -173.598, 1.97455, 66.4312, 0.00252193, 43.4452
0, 1560.00000, 126.513, -30.5644, 126.566, -150.524, 126.611, 89.5051, 0, 0, 1.97609, -53.6384, 1.97526, -173.598, 1.97455, 66.4312, 0.00252193, 43.4452
0, 1620.00000, 126.513, -30.5644, 126.566, -150.524, 126.611, 89.5051, 0, 0, 1.97609, -53.6384, 1.97526, -173.598, 1.97455, 66.4312, 0.00252193, 43.4452
0, 1680.00000, 126.513, -30.5644, 126.566, -150.524, 126.611, 89.5051, 0, 0, 1.97609, -53.6384, 1.97526, -173.598, 1.97455, 66.4312, 0.00252193, 43.4452
0, 1740.00000, 126.513, -30.5644, 126.566, -150.524, 126.611, 89.5051, 0, 0, 1.97609, -53.6384, 1.97526, -173.598, 1.97455, 66.4312, 0.00252193, 43.4452
0, 1800.00000, 126.513, -30.5644, 126.566, -150.524, 126.611, 89.5051, 0, 0, 1.97609, -53.6384, 1.97526, -173.598, 1.97455, 66.4312, 0.00252193, 43.4452
0, 1860.00000, 126.513, -30.5644, 126.566, -150.524, 126.611, 89.5051, 0, 0, 1.97609, -53.6384, 1.97526, -173.598, 1.97455, 66.4312, 0.00252193, 43.4452
0, 1920.00000, 126.513, -30.5644, 126.566, -150.524, 126.611, 89.5051, 0, 0, 1.97609, -53.6384, 1.97526, -173.598, 1.97455, 66.4312, 0.00252193, 43.4452
0, 1980.00000, 126.513, -30.5644, 126.566, -150.524, 126.611, 89.5051, 0, 0, 1.97609, -53.6384, 1.97526, -173.598, 1.97455, 66.4312, 0.00252193, 43.4452
0, 2040.00000, 126.513, -30.5644, 126.566, -150.524, 126.611, 89.5051, 0, 0, 1.97609, -53.6384, 1.97526, -173.598, 1.97455, 66.4312, 0.00252193, 43.4452
0, 2100.00000, 126.513, -30.5644, 126.566, -150.524, 126.611, 89.5051, 0, 0, 1.97609, -53.6384, 1.97526, -173.598, 1.97455, 66.4312, 0.00252193, 43.4452
0, 2160.00000, 126.513, -30.5644, 126.566, -150.524, 126.611, 89.5051, 0, 0, 1.97609, -53.6384, 1.97526, -173.598, 1.97455, 66.4312, 0.00252193, 43.4452
0, 2220.00000, 126.513, -30.5644, 126.566, -150.524, 126.611, 89.5051, 0, 0, 1.97609, -53.6384, 1.97526, -173.598, 1.97455, 66.4312, 0.00252193, 43.4452
0, 2280.00000, 126.513, -30.5644, 126.566, -150.524, 126.611, 89.5051, 0, 0, 1.97609, -53.6384, 1.97526, -173.598, 1.97455, 66.4312, 0.00252193, 43.4452
0, 2340.00000, 126.513, -30.5644, 126.566, -150.524, 126.611, 89.5051, 0, 0, 1.97609, -53.6384, 1.97526, -173.598, 1.97455, 66.4312, 0.00252193, 43.4452
0, 2400.00000, 126.513, -30.5644, 126.566, -150.524, 126.611, 89.5051, 0, 0, 1.97609, -53.6384, 1.97526, -173.598, 1.97455, 66.4312, 0.00252193, 43.4452
0, 2460.00000, 126.513, -30.5644, 126.566, -150.524, 126.611, 89.5051, 0, 0, 1.97609, -53.6384, 1.97526, -173.598, 1.97455, 66.4312, 0.00252193, 43.4452
0, 2520.00000, 126.513, -30.5644, 126.566, -150.524, 126.611, 89.5051, 0, 0, 1.97609, -53.6384, 1.97526, -173.598, 1.97455, 66.4312, 0.00252193, 43.4452
0, 2580.00000, 126.513, -30.5644, 126.566, -150.524, 126.611, 89.5051, 0, 0, 1.97609, -53.6384, 1.97526, -173.598, 1.97455, 66.4312, 0.00252193, 43.4452
0, 2640.00000, 126.513, -30.5644, 126.566, -150.524, 126.611, 89.5051, 0, 0, 1.97609, -53.6384, 1.97526, -173.598, 1.97455, 66.4312, 0.00252193, 43.4452
0, 2700.00000, 126.513, -30.5644, 126.566, -150.524, 126.611, 89.5051, 0, 0, 1.97609, -53.6384, 1.97526, -173.598, 1.97455, 66.4312, 0.00252193, 43.4452
0, 2760.00000, 126.513, -30.5644, 126.566, -150.524, 126.611, 89.5051, 0, 0, 1.97609, -53.6384, 1.97526, -173.598, 1.97455, 66.4312, 0.00252193, 43.4452
0, 2820.00000, 126.513, -30.5644, 126.566, -150.524, 126.611, 89.5051, 0, 0, 1.97609, -53.6384, 1.97526, -173.598, 1.97455, 66.4312, 0.00252193, 43.4452
0, 2880.00000, 126.513, -30.5644, 126.566, -150.524, 126.611, 89.5051, 0, 0, 1.97609, -53.6384, 1.97526, -173.598, 1.97455, 66.4312, 0.00252193, 43.4452
0, 2940.00000, 126.513, -30.5644, 126.566, -150.524, 126.611, 89.5051, 0, 0, 1.97609, -53.6384, 1.97526, -173.598, 1.97455, 66.4312, 0.00252193, 43.4452
0, 3000.00000, 126.513, -30.5644, 126.566, -150.524, 126.611, 89.5051, 0, 0, 1.97609, -53.6384, 1.97526, -173.598, 1.97455, 66.4312, 0.00252193, 43.4452
0, 3060.00000, 126.513, -30.5644, 126.566, -150.524, 126.611, 89.5051, 0, 0, 1.97609, -53.6384, 1.97526, -173.598, 1.97455, 66.4312, 0.00252193, 43.4452
0, 3120.00000, 126.513, -30.5644, 126.566, -150.524, 126.611, 89.5051, 0, 0, 1.97609, -53.6384, 1.97526, -173.598, 1.97455, 66.4312, 0.00252193, 43.4452
0, 3180.00000, 126.513, -30.5644, 126.566, -150.524, 126.611, 89.5051, 0, 0, 1.97609, -53.6384, 1.97526, -173.598, 1.97455, 66.4312, 0.00252193, 43.4452
0, 3240.00000, 126.513, -30.5644, 126.566, -150.524, 126.611, 89.5051, 0, 0, 1.97609, -53.6384, 1.97526, -173.598, 1.97455, 66.4312, 0.00252193, 43.4452
0, 3300.00000, 126.513, -30.5644, 126.566, -150.524, 126.611, 89.5051, 0, 0, 1.97609, -53.6384, 1.97526, -173.598, 1.97455, 66.4312, 0.00252193, 43.4452
0, 3360.00000, 126.513, -30.5644, 126.566, -150.524, 126.611, 89.5051, 0, 0, 1.97609, -53.6384, 1.97526, -173.598, 1.97455, 66.4312, 0.00252193, 43.4452
0, 3420.00000, 126.513, -30.5644, 126.566, -150.524, 126.611, 89.5051, 0, 0, 1.97609, -53.6384, 1.97526, -173.598, 1.97455, 66.4312, 0.00252193, 43.4452
0, 3480.00000, 126.513, -30.5644, 126.566, -150.524, 126.611, 89.5051, 0, 0, 1.97609, -53.6384, 1.97526, -173.598, 1.97455, 66.4312, 0.00252193, 43.4452
0, 3540.00000, 126.513, -30.5644, 126.566, -150.524, 126.611, 89.5051, 0, 0, 1.97609, -53.6384, 1.97526, -173.598, 1.97455, 66.4312, 0.00252193, 43.4452
1, 0.00000, 126.513, -30.5644, 126.566, -150.524, 126.611, 89.5051, 0, 0, 1.97609, -53.6384, 1.97526, -173.598, 1.97455, 66.4312, 0.00252193, 43.4452
1, 60.00000, 126.513, -30.5644, 126.566, -150.524, 126.611, 89.5051, 0, 0, 1.97609, -53.6384, 1.97526, -173.598, 1.97455, 66.4312, 0.00252193, 43.4452
1, 120.00000, 126.513, -30.5644, 126.566, -150.524, 126.611, 89.5051, 0, 0, 1.97609, -53.6384, 1.97526, -173.598, 1.97455, 66.4312, 0.00252193, 43.4452
1, 180.00000, 126.513, -30.5644, 126.566, -150.524, 126.611, 89.5051, 0, 0, 1.97609, -53.6384, 1.97526, -173.598, 1.97455, 66.4312, 0.00252193, 43.4452
1, 240.00000, 126.513, -30.5644, 126.566, -150.524, 126.611, 89.5051, 0, 0, 1.97609, -53.6384, 1.97526, -173.598, 1.97455, 66.4312, 0.00252193, 43.4452
1, 300.00000, 126.513, -30.5644, 126.566, -150.524, 126.611, 89.5051, 0, 0, 1.97609, -53.6384, 1.97526, -173.598, 1.97455, 66.4312, 0.00252193, 43.4452
1, 360.00000, 126.513, -30.5644, 126.566, -150.524, 126.611, 89.5051, 0, 0, 1.97609, -53.6384, 1.97526, -173.598, 1.97455, 66.4312, 0.00252193, 43.4452
1, 420.00000, 126.513, -30.5644, 126.566, -150.524, 126.611, 89.5051, 0, 0, 1.97609, -53.6384, 1.97526, -173.598, 1.97455, 66.4312, 0.00252193, 43.4452
1, 480.00000, 126.513, -30.5644, 126.566, -150.524, 126.611, 89.5051, 0, 0, 1.97609, -53.6384, 1.97526, -173.598, 1.97455, 66.4312, 0.00252193, 43.4452
1, 540.00000, 126.513, -30.5644, 126.566, -150.524, 126.611, 89.5051, 0, 0, 1.97609, -53.6384, 1.97526, -173.598, 1.97455, 66.4312, 0.00252193, 43.4452
1, 600.00000, 126.513, -30.5644, 126.566, -150.524, 126.611, 89.5051, 0, 0, 1.97609, -53.6384, 1.97526, -173.598, 1.97455, 66.4312, 0.00252193, 43.4452
1, 660.00000, 126.513, -30.5644, 126.566, -150.524, 126.611, 89.5051, 0, 0, 1.97609, -53.6384, 1.97526, -173.598, 1.97455, 66.4312, 0.00252193, 43.4452
1, 720.00000, 126.513, -30.5644, 126.566, -150.524, 126.611, 89.5051, 0, 0, 1.97609, -53.6384, 1.97526, -173.598, 1.97455, 66.4312, 0.00252193, 43.4452
1, 780.00000, 126.513, -30.5644, 126.566, -150.524, 126.611, 89.5051, 0, 0, 1.97609, -53.6384, 1.97526, -173.598, 1.97455, 66.4312, 0.00252193, 43.4452
1, 840.00000, 126.513, -30.5644, 126.566, -150.524, 126.611, 89.5051, 0, 0, 1.97609, -53.6384, 1.97526, -173.598, 1.97455, 66.4312, 0.00252193, 43.4452
1, 900.00000, 126.513, -30.5644, 126.566, -150.524, 126.611, 89.5051, 0, 0, 1.97609, -53.6384, 1.97526, -173.598, 1.97455, 66.4312, 0.00252193, 43.4452
1, 960.00000, 126.513, -30.5644, 126.566, -150.524, 126.611, 89.5051, 0, 0, 1.97609, -53.6384, 1.97526, -173.598, 1.97455, 66.4312, 0.00252193, 43.4452
1, 1020.00000, 126.513, -30.5644, 126.566, -150.524, 126.611, 89.5051, 0, 0, 1.97609, -53.6384, 1.97526, -173.598, 1.97455, 66.4312, 0.00252193, 43.4452
1, 1080.00000, 126.513, -30.5644, 126.566, -150.524, 126.611, 89.5051, 0, 0, 1.97609, -53.6384, 1.97526, -173.598, 1.97455, 66.4312, 0.00252193, 43.4452
1, 1140.00000, 126.513, -30.5644, 126.566, -150.524, 126.611, 89.5051, 0, 0, 1.97609, -53.6384, 1.97526, -173.598, 1.97455, 66.4312, 0.00252193, 43.4452
1, 1200.00000, 126.513, -30.5644, 126.566, -150.524, 126.611, 89.5051, 0, 0, 1.97609, -53.6384, 1.97526, -173.598, 1.97455, 66.4312, 0.00252193, 43.4452
1, 1260.00000, 126.513, -30.5644, 126.566, -150.524, 126.611, 89.5051, 0, 0, 1.97609, -53.6384, 1.97526, -173.598, 1.97455, 66.4312, 0.00252193, 43.4452
1, 1320.00000, 126.513, -30.5644, 126.566, -150.524, 126.611, 89.5051, 0, 0, 1.97609, -53.6384, 1.97526, -173.598, 1.97455, 66.4312, 0.00252193, 43.4452
1, 1380.00000, 126.513, -30.5644, 126.566, -150.524, 126.611, 89.5051, 0, 0, 1.97609, -53.6384, 1.97526, -173.598, 1.97455, 66.4312, 0.00252193, 43.4452
1, 1440.00000, 126.513, -30.5644, 126.566, -150.524, 126.611, 89.5051, 0, 0, 1.97609, -53.6384, 1.97526, -173.598, 1.97455, 66.4312, 0.00252193, 43.4452
1, 1500.00000, 126.513, -30.5644, 126.566, -150.524, 126.611, 89.5051, 0, 0, 1.97609, -53.6384, 1.97526, -173.598, 1.97455, 66.4312, 0.00252193, 43.4452
1, 1560.00000, 126.513, -30.5644, 126.566, -150.524, 126.611, 89.5051, 0, 0, 1.97609, -53.6384, 1.97526, -173.598, 1.97455, 66.4312, 0.00252193, 43.4452
1, 1620.00000, 126.513, -30.5644, 126.566, -150.524, 126.611, 89.5051, 0, 0, 1.97609, -53.6384, 1.97526, -173.598, 1.97455, 66.4312, 0.00252193, 43.4452
1, 1680.00000, 126.513, -30.5644, 126.566, -150.524, 126.611, 89.5051, 0, 0, 1.97609, -53.6384, 1.97526, -173.598, 1.97455, 66.4312, 0.00252193, 43.4452
1, 1740.00000, 126.513, -30.5644, 126.566, -150.524, 126.611, 89.5051, 0, 0, 1.97609, -53.6384, 1.97526, -173.598, 1.97455, 66.4312, 0.00252193, 43.4452
1, 1800.00000, 126.513, -30.5644, 126.566, -150.524, 126.611, 89.5051, 0, 0, 1.97609, -53.6384, 1.97526, -173.598, 1.97455, 66.4312, 0.00252193, 43.4452
1, 1860.00000, 126.513, -30.5644, 126.566, -150.524, 126.611, 89.5051, 0, 0, 1.97609, -53.6384, 1.97526, -173.598, 1.97455, 66.4312, 0.00252193, 43.4452
1, 1920.00000, 126.513, -30.5644, 126.566, -150.524, 126.611, 89.5051, 0, 0, 1.97609, -53.6384, 1.97526, -173.598, 1.97455, 66.4312, 0.00252193, 43.4452
1, 1980.00000, 126.513, -30.5644, 126.566, -150.524, 126.611, 89.5051, 0, 0, 1.97609, -53.6384, 1.97526, -173.598, 1.97455, 66.4312, 0.00252193, 43.4452
1, 2040.00000, 126.513, -30.5644, 126.566, -150.524, 126.611, 89.5051, 0, 0, 1.97609, -53.6384, 1.97526, -173.598, 1.97455, 66.4312, 0.00252193, 43.4452
1, 2100.00000, 126.513, -30.5644, 126.566, -150.524, 126.611, 89.5051, 0, 0, 1.97609, -53.6384, 1.97526, -173.598, 1.97455, 66.4312, 0.00252193, 43.4452
1, 2160.00000, 126.513, -30.5644, 126.566, -150.524, 126.611, 89.5051, 0, 0, 1.97609, -53.6384, 1.97526, -173.598, 1.97455, 66.4312, 0.00252193, 43.4452
1, 2220.00000, 126.513, -30.5644, 126.566, -150.524, 126.611, 89.5051, 0, 0, 1.97609, -53.6384, 1.97526, -173.598, 1.97455, 66.4312, 0.00252193, 43.4452
1, 2280.00000, 126.513, -30.5644, 126.566, -150.524, 126.611, 89.5051, 0, 0, 1.97609, -53.6384, 1.97526, -173.598, 1.97455, 66.4312, 0.00252193, 43.4452
1, 2340.00000, 126.513, -30.5644, 126.566, -150.524, 126.611, 89.5051, 0, 0, 1.97609, -53.6384, 1.97526, -173.598, 1.97455, 66.4312, 0.00252193, 43.4452
1, 2400.00000, 126.513, -30.5644, 126.566, -150.524, 126.611, 89.5051, 0, 0, 1.97609, -53.6384, 1.97526, -173.598, 1.97455, 66.4312, 0.00252193, 43.4452
1, 2460.00000, 126.513, -30.5644, 126.566, -150.524, 126.611, 89.5051, 0, 0, 1.97609, -53.6384, 1.97526, -173.598, 1.97455, 66.4312, 0.00252193, 43.4452
1, 2520.00000, 126.513, -30.5644, 126.566, -150.524, 126.611, 89.5051, 0, 0, 1.97609, -53.6384, 1.97526, -173.598, 1.97455, 66.4312, 0.00252193, 43.4452
1, 2580.00000, 126.513, -30.5644, 126.566, -150.524, 126.611, 89.5051, 0, 0, 1.97609, -53.6384, 1.97526, -173.598, 1.97455, 66.4312, 0.00252193, 43.4452
1, 2640.00000, 126.513, -30.5644, 126.566, -150.524, 126.611, 89.5051, 0, 0, 1.97609, -53.6384, 1.97526, -173.598, 1.97455, 66.4312, 0.00252193, 43.4452
1, 2700.00000, 126.513, -30.5644, 126.566, -150.524, 126.611, 89.5051, 0, 0, 1.97609, -53.6384, 1.97526, -173.598, 1.97455, 66.4312, 0.00252193, 43.4452
1, 2760.00000, 126.513, -30.5644, 126.566, -150.524, 126.611, 89.5051, 0, 0, 1.97609, -53.6384, 1.97526, -173.598, 1.97455, 66.4312, 0.00252193, 43.4452
1, 2820.00000, 126.513, -30.5644, 126.566, -150.524, 126.611, 89.5051, 0, 0, 1.97609, -53.6384, 1.97526, -173.598, 1.97455, 66.4312, 0.00252193, 43.4452
1, 2880.00000, 126.513, -30.5644, 126.566, -150.524, 126.611, 89.5051, 0, 0, 1.97609, -53.6384, 1.97526, -173.598, 1.97455, 66.4312, 0.00252193, 43.4452
1, 2940.00000, 126.513, -30.5644, 126.566, -150.524, 126.611, 89.5051, 0, 0, 1.97609, -53.6384, 1.97526, -173.598, 1.97455, 66.4312, 0.00252193, 43.4452
1, 3000.00000, 126.513, -30.5644, 126.566, -150.524, 126.611, 89.5051, 0, 0, 1.97609, -53.6384, 1.97526, -173.598, 1.97455, 66.4312, 0.00252193, 43.4452
1, 3060.00000, 126.513, -30.5644, 126.566, -150.524, 126.611, 89.5051, 0, 0, 1.97609, -53.6384, 1.97526, -173.598, 1.97455, 66.4312, 0.00252193, 43.4452
1, 3120.00000, 126.513, -30.5644, 126.566, -150.524, 126.611, 89.5051, 0, 0, 1.97609, -53.6384, 1.97526, -173.598, 1.97455, 66.4312, 0.00252193, 43.4452
1, 3180.00000, 126.513, -30.5644, 126.566, -150.524, 126.611, 89.5051, 0, 0, 1.97609, -53.6384, 1.97526, -173.598, 1.97455, 66.4312, 0.00252193, 43.4452
1, 3240.00000, 126.513, -30.5644, 126.566, -150.524, 126.611, 89.5051, 0, 0, 1.97609, -53.6384, 1.97526, -173.598, 1.97455, 66.4312, 0.00252193, 43.4452
1, 3300.00000, 126.513, -30.5644, 126.566, -150.524, 126.611, 89.5051, 0, 0, 1.97609, -53.6384, 1.97526, -173.598, 1.97455, 66.4312, 0.00252193, 43.4452
1, 3360.00000, 126.513, -30.5644, 126.566, -150.524, 126.611, 89.5051, 0, 0, 1.97609, -53.6384, 1.97526, -173.598, 1.97455, 66.4312, 0.00252193, 43.4452
1, 3420.00000, 126.513, -30.5644, 126.566, -150.524, 126.611, 89.5051, 0, 0, 1.97609, -53.6384, 1.97526, -173.598, 1.97455, 66.4312, 0.00252193, 43.4452
1, 3480.00000, 126.513, -30.5644, 126.566, -150.524, 126.611, 89.5051, 0, 0, 1.97609, -53.6384, 1.97526, -173.598, 1.97455, 66.4312, 0.00252193, 43.4452
1, 3540.00000, 126.513, -30.5644, 126.566, -150.524, 126.611, 89.5051, 0, 0, 1.97609, -53.6384, 1.97526, -173.598, 1.97455, 66.4312, 0.00252193, 43.4452
2, 0.00000, 126.513, -30.5644, 126.566, -150.524, 126.611, 89.5051, 0, 0, 1.97609, -53.6384, 1.97526, -173.598, 1.97455, 66.4312, 0.00252193, 43.4452
2, 60.00000, 126.513, -30.5644, 126.566, -150.524, 126.611, 89.5051, 0, 0, 1.97609, -53.6384, 1.97526, -173.598, 1.97455, 66.4312, 0.00252193, 43.4452
2, 120.00000, 126.508, -30.5655, 126.561, -150.525, 126.606, 89.5041, 0, 0, 1.98163, -53.6394, 1.98079, -173.599, 1.98009, 66.4302, 0.0025298, 43.5312
2, 180.00000, 126.503, -30.5666, 126.557, -150.526, 126.601, 89.503, 0, 0, 1.98724, -53.6405, 1.98639, -173.6, 1.98569, 66.4292, 0.00253805, 43.6237
2, 240.00000, 126.498, -30.5677, 126.552, -150.527, 126.597, 89.502, 0, 0, 1.99279, -53.6416, 1.99193, -173.601, 1.99123, 66.4281, 0.00254622, 43.7152
2, 300.00000, 126.493, -30.5688, 126.547, -150.528, 126.592, 89.501, 0, 0, 1.99833, -53.6427, 1.99747, -173.602, 1.99677, 66.4271, 0.0025544, 43.8066
2, 360.00000, 126.488, -30.5699, 126.543, -150.529, 126.587, 89.4999, 0, 0, 2.00395, -53.6438, 2.00308, -173.603, 2.00237, 66.426, 0.00256269, 43.899
2, 420.00000, 126.483, -30.571, 126.538, -150.53, 126.582, 89.4989, 0, 0, 2.00949, -53.6448, 2.00862, -173.604, 2.00791, 66.425, 0.00257091, 43.9904
2, 480.00000, 126.478, -30.5721, 126.533, -150.531, 126.578, 89.4979, 0, 0, 2.01504, -53.6459, 2.01416, -173.605, 2.01345, 66.424, 0.00257913, 44.0816
2, 540.00000, 126.473, -30.5731, 126.529, -150.532, 126.573, 89.4968, 0, 0, 2.02066, -53.647, 2.01976, -173.606, 2.01906, 66.4229, 0.00258746, 44.1739
2, 600.00000, 126.468, -30.5742, 126.524, -150.534, 126.568, 89.4958, 0, 0, 2.0262, -53.6481, 2.02531, -173.607, 2.0246, 66.4219, 0.00259571, 44.2651
