hour,t(sec),V1,VAngle1,V2,VAngle2,V3,VAngle3,V4,VAngle4,I1,IAngle1,I2,IAngle2,I3,IAngle3,I4,IAngle4
0, 60.00000, 125.887, -30.7694, 125.844, -150.771, 125.822, 89.3932, 0, 0, 2.26221, -53.8432, 2.26297, -173.845, 2.26336, 66.3194, 0.00716832, -30.4953
0, 120.00000, 125.886, -30.7694, 125.844, -150.771, 125.822, 89.3932, 0, 0, 2.26222, -53.8433, 2.26298, -173.845, 2.26337, 66.3193, 0.00717658, -30.5355
0, 180.00000, 125.886, -30.7694, 125.844, -150.771, 125.822, 89.3932, 0, 0, 2.26222, -53.8433, 2.26298, -173.845, 2.26338, 66.3193, 0.00717664, -30.5358
0, 240.00000, 125.886, -30.7694, 125.844, -150.771, 125.822, 89.3932, 0, 0, 2.26222, -53.8433, 2.26298, -173.845, 2.26338, 66.3193, 0.00717664, -30.5358
0, 300.00000, 125.886, -30.7694, 125.844, -150.771, 125.822, 89.3932, 0, 0, 2.26222, -53.8433, 2.26298, -173.845, 2.26338, 66.3193, 0.00717664, -30.5358
0, 360.00000, 125.886, -30.7694, 125.844, -150.771, 125.822, 89.3932, 0, 0, 2.26222, -53.8433, 2.26298, -173.845, 2.26338, 66.3193, 0.00717664, -30.5358
0, 420.00000, 125.886, -30.7694, 125.844, -150.771, 125.822, 89.3932, 0, 0, 2.26222, -53.8433, 2.26298, -173.845, 2.26338, 66.3193, 0.00717664, -30.5358
0, 480.00000, 125.886, -30.7694, 125.844, -150.771, 125.822, 89.3932, 0, 0, 2.26222, -53.8433, 2.26298, -173.845, 2.26338, 66.3193, 0.00717664, -30.5358
0, 540.00000, 125.886, -30.7694, 125.844, -150.771, 125.822, 89.3932, 0, 0, 2.26222, -53.8433, 2.26298, -173.845, 2.26338, 66.3193, 0.00717664, -30.5358
0, 600.00000, 125.886, -30.7694, 125.844, -150.771, 125.822, 89.3932, 0, 0, 2.26222, -53.8433, 2.26298, -173.845, 2.26338, 66.3193, 0.00717664, -30.5358
0, 660.00000, 125.886, -30.7694, 125.844, -150.771, 125.822, 89.3932, 0, 0, 2.26222, -53.8433, 2.26298, -173.845, 2.26338, 66.3193, 0.00717664, -30.5358
0, 720.00000, 125.886, -30.7694, 125.844, -150.771, 125.822, 89.3932, 0, 0, 2.26222, -53.8433, 2.26298, -173.845, 2.26338, 66.3193, 0.00717664, -30.5358
0, 780.00000, 125.886, -30.7694, 125.844, -150.771, 125.822, 89.3932, 0, 0, 2.26222, -53.8433, 2.26298, -173.845, 2.26338, 66.3193, 0.00717664, -30.5358
0, 840.00000, 125.886, -30.7694, 125.844, -150.771, 125.822, 89.3932, 0, 0, 2.26222, -53.8433, 2.26298, -173.845, 2.26338, 66.3193, 0.00717664, -30.5358
0, 900.00000, 125.886, -30.7694, 125.844, -150.771, 125.822, 89.3932, 0, 0, 2.26222, -53.8433, 2.26298, -173.845, 2.26338, 66.3193, 0.00717664, -30.5358
0, 960.00000, 125.75, -30.9461, 125.429, -150.818, 125.822, 89.3915, 0, 0, 2.26464, -54.0192, 2.2704, -173.892, 2.26337, 66.3177, 0.0179446, 4.50824
0, 1020.00000, 125.75, -30.9462, 125.429, -150.818, 125.822, 89.3915, 0, 0, 2.26468, -54.0201, 2.27047, -173.892, 2.26338, 66.3176, 0.0180102, 4.54946
0, 1080.00000, 125.75, -30.9462, 125.429, -150.818, 125.822, 89.3915, 0, 0, 2.26468, -54.0201, 2.27047, -173.892, 2.26338, 66.3176, 0.0180105, 4.54971
0, 1140.00000, 125.75, -30.9462, 125.429, -150.818, 125.822, 89.3915, 0, 0, 2.26468, -54.0201, 2.27047, -173.892, 2.26338, 66.3176, 0.0180105, 4.54971
0, 1200.00000, 125.75, -30.9462, 125.429, -150.818, 125.822, 89.3915, 0, 0, 2.26468, -54.0201, 2.27047, -173.892, 2.26338, 66.3176, 0.0180105, 4.54971
0, 1260.00000, 125.75, -30.9462, 125.429, -150.818, 125.822, 89.3915, 0, 0, 2.26468, -54.0201, 2.27047, -173.892, 2.26338, 66.3176, 0.0180105, 4.54971
0, 1320.00000, 125.75, -30.9462, 125.429, -150.818, 125.822, 89.3915, 0, 0, 2.26468, -54.0201, 2.27047, -173.892, 2.26338, 66.3176, 0.0180105, 4.54971
0, 1380.00000, 125.75, -30.9462, 125.429, -150.818, 125.822, 89.3915, 0, 0, 2.26468, -54.0201, 2.27047, -173.892, 2.26338, 66.3176, 0.0180105, 4.54971
0, 1440.00000, 125.75, -30.9462, 125.429, -150.818, 125.822, 89.3915, 0, 0, 2.26468, -54.0201, 2.27047, -173.892, 2.26338, 66.3176, 0.0180105, 4.54971
0, 1500.00000, 125.75, -30.9462, 125.429, -150.818, 125.822, 89.3915, 0, 0, 2.26468, -54.0201, 2.27047, -173.892, 2.26338, 66.3176, 0.0180105, 4.54971
0, 1560.00000, 125.75, -30.9462, 125.429, -150.818, 125.822, 89.3915, 0, 0, 2.26468, -54.0201, 2.27047, -173.892, 2.26338, 66.3176, 0.0180105, 4.54971
0, 1620.00000, 125.75, -30.9462, 125.429, -150.818, 125.822, 89.3915, 0, 0, 2.26468, -54.0201, 2.27047, -173.892, 2.26338, 66.3176, 0.0180105, 4.54971
0, 1680.00000, 125.75, -30.9462, 125.429, -150.818, 125.822, 89.3915, 0, 0, 2.26468, -54.0201, 2.27047, -173.892, 2.26338, 66.3176, 0.0180105, 4.54971
0, 1740.00000, 125.75, -30.9462, 125.429, -150.818, 125.822, 89.3915, 0, 0, 2.26468, -54.0201, 2.27047, -173.892, 2.26338, 66.3176, 0.0180105, 4.54971
0, 1800.00000, 125.75, -30.9462, 125.429, -150.818, 125.822, 89.3915, 0, 0, 2.26468, -54.0201, 2.27047, -173.892, 2.26338, 66.3176, 0.0180105, 4.54971
0, 1860.00000, 125.75, -30.9462, 125.429, -150.818, 125.822, 89.3915, 0, 0, 2.26468, -54.0201, 2.27047, -173.892, 2.26338, 66.3176, 0.0180105, 4.54971
0, 1920.00000, 125.75, -30.9462, 125.429, -150.818, 125.822, 89.3915, 0, 0, 2.26468, -54.0201, 2.27047, -173.892, 2.26338, 66.3176, 0.0180105, 4.54971
0, 1980.00000, 125.75, -30.9462, 125.429, -150.818, 125.822, 89.3915, 0, 0, 2.26468, -54.0201, 2.27047, -173.892, 2.26338, 66.3176, 0.0180105, 4.54971
0, 2040.00000, 125.75, -30.9462, 125.429, -150.818, 125.822, 89.3915, 0, 0, 2.26468, -54.0201, 2.27047, -173.892, 2.26338, 66.3176, 0.0180105, 4.54971
0, 2100.00000, 125.75, -30.9462, 125.429, -150.818, 125.822, 89.3915, 0, 0, 2.26468, -54.0201, 2.27047, -173.892, 2.26338, 66.3176, 0.0180105, 4.54971
0, 2160.00000, 125.75, -30.9462, 125.429, -150.818, 125.822, 89.3915, 0, 0, 2.26468, -54.0201, 2.27047, -173.892, 2.26338, 66.3176, 0.0180105, 4.54971
0, 2220.00000, 125.75, -30.9462, 125.429, -150.818, 125.822, 89.3915, 0, 0, 2.26468, -54.0201, 2.27047, -173.892, 2.26338, 66.3176, 0.0180105, 4.54971
0, 2280.00000, 125.75, -30.9462, 125.429, -150.818, 125.822, 89.3915, 0, 0, 2.26468, -54.0201, 2.27047, -173.892, 2.26338, 66.3176, 0.0180105, 4.54971
0, 2340.00000, 125.75, -30.9462, 125.429, -150.818, 125.822, 89.3915, 0, 0, 2.26468, -54.0201, 2.27047, -173.892, 2.26338, 66.3176, 0.0180105, 4.54971
0, 2400.00000, 125.75, -30.9462, 125.429, -150.818, 125.822, 89.3915, 0, 0, 2.26468, -54.0201, 2.27047, -173.892, 2.26338, 66.3176, 0.0180105, 4.54971
0, 2460.00000, 125.75, -30.9462, 125.429, -150.818, 125.822, 89.3915, 0, 0, 2.26468, -54.0201, 2.27047, -173.892, 2.26338, 66.3176, 0.0180105, 4.54971
0, 2520.00000, 125.75, -30.9462, 125.429, -150.818, 125.822, 89.3915, 0, 0, 2.26468, -54.0201, 2.27047, -173.892, 2.26338, 66.3176, 0.0180105, 4.54971
0, 2580.00000, 125.75, -30.9462, 125.429, -150.818, 125.822, 89.3915, 0, 0, 2.26468, -54.0201, 2.27047, -173.892, 2.26338, 66.3176, 0.0180105, 4.54971
0, 2640.00000, 125.75, -30.9462, 125.429, -150.818, 125.822, 89.3915, 0, 0, 2.26468, -54.0201, 2.27047, -173.892, 2.26338, 66.3176, 0.0180105, 4.54971
0, 2700.00000, 125.75, -30.9462, 125.429, -150.818, 125.822, 89.3915, 0, 0, 2.26468, -54.0201, 2.27047, -173.892, 2.26338, 66.3176, 0.0180105, 4.54971
0, 2760.00000, 125.75, -30.9462, 125.429, -150.818, 125.822, 89.3915, 0, 0, 2.26468, -54.0201, 2.27047, -173.892, 2.26338, 66.3176, 0.0180105, 4.54971
0, 2820.00000, 125.75, -30.9462, 125.429, -150.818, 125.822, 89.3915, 0, 0, 2.26468, -54.0201, 2.27047, -173.892, 2.26338, 66.3176, 0.0180105, 4.54971
0, 2880.00000, 125.75, -30.9462, 125.429, -150.818, 125.822, 89.3915, 0, 0, 2.26468, -54.0201, 2.27047, -173.892, 2.26338, 66.3176, 0.0180105, 4.54971
0, 2940.00000, 125.75, -30.9462, 125.429, -150.818, 125.822, 89.3915, 0, 0, 2.26468, -54.0201, 2.27047, -173.892, 2.26338, 66.3176, 0.0180105, 4.54971
0, 3000.00000, 125.75, -30.9462, 125.429, -150.818, 125.822, 89.3915, 0, 0, 2.26468, -54.0201, 2.27047, -173.892, 2.26338, 66.3176, 0.0180105, 4.54971
0, 3060.00000, 125.75, -30.9462, 125.429, -150.818, 125.822, 89.3915, 0, 0, 2.26468, -54.0201, 2.27047, -173.892, 2.26338, 66.3176, 0.0180105, 4.54971
0, 3120.00000, 125.75, -30.9462, 125.429, -150.818, 125.822, 89.3915, 0, 0, 2.26468, -54.0201, 2.27047, -173.892, 2.26338, 66.3176, 0.0180105, 4.54971
0, 3180.00000, 125.75, -30.9462, 125.429, -150.818, 125.822, 89.3915, 0, 0, 2.26468, -54.0201, 2.27047, -173.892, 2.26338, 66.3176, 0.0180105, 4.54971
0, 3240.00000, 125.75, -30.9462, 125.429, -150.818, 125.822, 89.3915, 0, 0, 2.26468, -54.0201, 2.27047, -173.892, 2.26338, 66.3176, 0.0180105, 4.54971
0, 3300.00000, 125.75, -30.9462, 125.429, -150.818, 125.822, 89.3915, 0, 0, 2.26468, -54.0201, 2.27047, -173.892, 2.26338, 66.3176, 0.0180105, 4.54971
0, 3360.00000, 125.75, -30.9462, 125.429, -150.818, 125.822, 89.3915, 0, 0, 2.26468, -54.0201, 2.27047, -173.892, 2.26338, 66.3176, 0.0180105, 4.54971
0, 3420.00000, 125.75, -30.9462, 125.429, -150.818, 125.822, 89.3915, 0, 0, 2.26468, -54.0201, 2.27047, -173.892, 2.26338, 66.3176, 0.0180105, 4.54971
0, 3480.00000, 125.75, -30.9462, 125.429, -150.818, 125.822, 89.3915, 0, 0, 2.26468, -54.0201, 2.27047, -173.892, 2.26338, 66.3176, 0.0180105, 4.54971
0, 3540.00000, 125.75, -30.9462, 125.429, -150.818, 125.822, 89.3915, 0, 0, 2.26468, -54.0201, 2.27047, -173.892, 2.26338, 66.3176, 0.0180105, 4.54971
1, 0.00000, 125.75, -30.9462, 125.429, -150.818, 125.822, 89.3915, 0, 0, 2.26468, -54.0201, 2.27047, -173.892, 2.26338, 66.3176, 0.0180105, 4.54971
1, 60.00000, 125.75, -30.9462, 125.429, -150.818, 125.822, 89.3915, 0, 0, 2.26468, -54.0201, 2.27047, -173.892, 2.26338, 66.3176, 0.0180105, 4.54971
1, 120.00000, 125.75, -30.9462, 125.429, -150.818, 125.822, 89.3915, 0, 0, 2.26468, -54.0201, 2.27047, -173.892, 2.26338, 66.3176, 0.0180105, 4.54971
1, 180.00000, 125.75, -30.9462, 125.429, -150.818, 125.822, 89.3915, 0, 0, 2.26468, -54.0201, 2.27047, -173.892, 2.26338, 66.3176, 0.0180105, 4.54971
1, 240.00000, 125.75, -30.9462, 125.429, -150.818, 125.822, 89.3915, 0, 0, 2.26468, -54.0201, 2.27047, -173.892, 2.26338, 66.3176, 0.0180105, 4.54971
1, 300.00000, 125.75, -30.9462, 125.429, -150.818, 125.822, 89.3915, 0, 0, 2.26468, -54.0201, 2.27047, -173.892, 2.26338, 66.3176, 0.0180105, 4.54971
1, 360.00000, 125.75, -30.9462, 125.429, -150.818, 125.822, 89.3915, 0, 0, 2.26468, -54.0201, 2.27047, -173.892, 2.26338, 66.3176, 0.0180105, 4.54971
1, 420.00000, 125.75, -30.9462, 125.429, -150.818, 125.822, 89.3915, 0, 0, 2.26468, -54.0201, 2.27047, -173.892, 2.26338, 66.3176, 0.0180105, 4.54971
1, 480.00000, 125.75, -30.9462, 125.429, -150.818, 125.822, 89.3915, 0, 0, 2.26468, -54.0201, 2.27047, -173.892, 2.26338, 66.3176, 0.0180105, 4.54971
1, 540.00000, 125.75, -30.9462, 125.429, -150.818, 125.822, 89.3915, 0, 0, 2.26468, -54.0201, 2.27047, -173.892, 2.26338, 66.3176, 0.0180105, 4.54971
1, 600.00000, 125.75, -30.9462, 125.429, -150.818, 125.822, 89.3915, 0, 0, 2.26468, -54.0201, 2.27047, -173.892, 2.26338, 66.3176, 0.0180105, 4.54971
1, 660.00000, 125.75, -30.9462, 125.429, -150.818, 125.822, 89.3915, 0, 0, 2.26468, -54.0201, 2.27047, -173.892, 2.26338, 66.3176, 0.0180105, 4.54971
1, 720.00000, 125.75, -30.9462, 125.429, -150.818, 125.822, 89.3915, 0, 0, 2.26468, -54.0201, 2.27047, -173.892, 2.26338, 66.3176, 0.0180105, 4.54971
1, 780.00000, 125.75, -30.9462, 125.429, -150.818, 125.822, 89.3915, 0, 0, 2.26468, -54.0201, 2.27047, -173.892, 2.26338, 66.3176, 0.0180105, 4.54971
1, 840.00000, 125.75, -30.9462, 125.429, -150.818, 125.822, 89.3915, 0, 0, 2.26468, -54.0201, 2.27047, -173.892, 2.26338, 66.3176, 0.0180105, 4.54971
1, 900.00000, 125.75, -30.9462, 125.429, -150.818, 125.822, 89.3915, 0, 0, 2.26468, -54.0201, 2.27047, -173.892, 2.26338, 66.3176, 0.0180105, 4.54971
1, 960.00000, 125.75, -30.9462, 125.429, -150.818, 125.822, 89.3915, 0, 0, 2.26468, -54.0201, 2.27047, -173.892, 2.26338, 66.3176, 0.0180105, 4.54971
1, 1020.00000, 125.75, -30.9462, 125.429, -150.818, 125.822, 89.3915, 0, 0, 2.26468, -54.0201, 2.27047, -173.892, 2.26338, 66.3176, 0.0180105, 4.54971
1, 1080.00000, 125.75, -30.9462, 125.429, -150.818, 125.822, 89.3915, 0, 0, 2.26468, -54.0201, 2.27047, -173.892, 2.26338, 66.3176, 0.0180105, 4.54971
1, 1140.00000, 125.75, -30.9462, 125.429, -150.818, 125.822, 89.3915, 0, 0, 2.26468, -54.0201, 2.27047, -173.892, 2.26338, 66.3176, 0.0180105, 4.54971
1, 1200.00000, 125.75, -30.9462, 125.429, -150.818, 125.822, 89.3915, 0, 0, 2.26468, -54.0201, 2.27047, -173.892, 2.26338, 66.3176, 0.0180105, 4.54971
1, 1260.00000, 125.75, -30.9462, 125.429, -150.818, 125.822, 89.3915, 0, 0, 2.26468, -54.0201, 2.27047, -173.892, 2.26338, 66.3176, 0.0180105, 4.54971
1, 1320.00000, 125.75, -30.9462, 125.429, -150.818, 125.822, 89.3915, 0, 0, 2.26468, -54.0201, 2.27047, -173.892, 2.26338, 66.3176, 0.0180105, 4.54971
1, 1380.00000, 125.75, -30.9462, 125.429, -150.818, 125.822, 89.3915, 0, 0, 2.26468, -54.0201, 2.27047, -173.892, 2.26338, 66.3176, 0.0180105, 4.54971
1, 1440.00000, 125.75, -30.9462, 125.429, -150.818, 125.822, 89.3915, 0, 0, 2.26468, -54.0201, 2.27047, -173.892, 2.26338, 66.3176, 0.0180105, 4.54971
1, 1500.00000, 125.75, -30.9462, 125.429, -150.818, 125.822, 89.3915, 0, 0, 2.26468, -54.0201, 2.27047, -173.892, 2.26338, 66.3176, 0.0180105, 4.54971
1, 1560.00000, 125.75, -30.9462, 125.429, -150.818, 125.822, 89.3915, 0, 0, 2.26468, -54.0201, 2.27047, -173.892, 2.26338, 66.3176, 0.0180105, 4.54971
1, 1620.00000, 125.75, -30.9462, 125.429, -150.818, 125.822, 89.3915, 0, 0, 2.26468, -54.0201, 2.27047, -173.892, 2.26338, 66.3176, 0.0180105, 4.54971
1, 1680.00000, 125.75, -30.9462, 125.429, -150.818, 125.822, 89.3915, 0, 0, 2.26468, -54.0201, 2.27047, -173.892, 2.26338, 66.3176, 0.0180105, 4.54971
1, 1740.00000, 125.75, -30.9462, 125.429, -150.818, 125.822, 89.3915, 0, 0, 2.26468, -54.0201, 2.27047, -173.892, 2.26338, 66.3176, 0.0180105, 4.54971
1, 1800.00000, 125.75, -30.9462, 125.429, -150.818, 125.822, 89.3915, 0, 0, 2.26468, -54.0201, 2.27047, -173.892, 2.26338, 66.3176, 0.0180105, 4.54971
1, 1860.00000, 125.75, -30.9462, 125.429, -150.818, 125.822, 89.3915, 0, 0, 2.26468, -54.0201, 2.27047, -173.892, 2.26338, 66.3176, 0.0180105, 4.54971
1, 1920.00000, 125.75, -30.9462, 125.429, -150.818, 125.822, 89.3915, 0, 0, 2.26468, -54.0201, 2.27047, -173.892, 2.26338, 66.3176, 0.0180105, 4.54971
1, 1980.00000, 125.75, -30.9462, 125.429, -150.818, 125.822, 89.3915, 0, 0, 2.26468, -54.0201, 2.27047, -173.892, 2.26338, 66.3176, 0.0180105, 4.54971
1, 2040.00000, 125.755, -30.9452, 125.559, -150.645, 126.232, 89.4403, 0, 0, 2.26458, -54.0194, 2.26816, -173.719, 2.25607, 66.3658, 0.0240232, 35.2144
1, 2100.00000, 125.756, -30.9452, 125.559, -150.645, 126.232, 89.4403, 0, 0, 2.26457, -54.0191, 2.26812, -173.718, 2.25602, 66.3664, 0.024038, 35.2778
1, 2160.00000, 125.756, -30.9452, 125.559, -150.645, 126.232, 89.4403, 0, 0, 2.26457, -54.0191, 2.26812, -173.718, 2.25602, 66.3664, 0.0240379, 35.2781
1, 2220.00000, 125.756, -30.9452, 125.559, -150.645, 126.232, 89.4403, 0, 0, 2.26457, -54.0191, 2.26812, -173.718, 2.25602, 66.3664, 0.0240379, 35.2781
1, 2280.00000, 125.756, -30.9452, 125.559, -150.645, 126.232, 89.4403, 0, 0, 2.26457, -54.0191, 2.26812, -173.718, 2.25602, 66.3664, 0.0240379, 35.2781
1, 2340.00000, 125.756, -30.9452, 125.559, -150.645, 126.232, 89.4403, 0, 0, 2.26457, -54.0191, 2.26812, -173.718, 2.25602, 66.3664, 0.0240379, 35.2781
1, 2400.00000, 125.756, -30.9452, 125.559, -150.645, 126.232, 89.4403, 0, 0, 2.26457, -54.0191, 2.26812, -173.718, 2.25602, 66.3664, 0.0240379, 35.2781
1, 2460.00000, 125.756, -30.9452, 125.559, -150.645, 126.232, 89.4403, 0, 0, 2.26457, -54.0191, 2.26812, -173.718, 2.25602, 66.3664, 0.0240379, 35.2781
1, 2520.00000, 125.889, -30.7687, 125.974, -150.598, 126.231, 89.4407, 0, 0, 2.2622, -53.8431, 2.2607, -173.673, 2.25604, 66.3668, 0.0118004, 48.4176
1, 2580.00000, 125.889, -30.7687, 125.974, -150.598, 126.231, 89.4407, 0, 0, 2.26217, -53.8426, 2.26065, -173.672, 2.25604, 66.3668, 0.0117551, 48.5738
1, 2640.00000, 125.889, -30.7687, 125.974, -150.598, 126.231, 89.4407, 0, 0, 2.26217, -53.8426, 2.26065, -173.672, 2.25604, 66.3668, 0.0117549, 48.5745
1, 2700.00000, 125.889, -30.7687, 125.974, -150.598, 126.231, 89.4407, 0, 0, 2.26217, -53.8426, 2.26065, -173.672, 2.25604, 66.3668, 0.0117549, 48.5745
1, 2760.00000, 126.017, -30.5979, 126.376, -150.553, 126.23, 89.441, 0, 0, 2.25989, -53.6721, 2.25349, -173.628, 2.25607, 66.3671, 0.00532106, 132.576
1, 2820.00000, 126.017, -30.5979, 126.376, -150.553, 126.23, 89.441, 0, 0, 2.25987, -53.6718, 2.25346, -173.627, 2.25607, 66.3671, 0.00534207, 132.883
1, 2880.00000, 126.017, -30.5979, 126.376, -150.553, 126.23, 89.441, 0, 0, 2.25987, -53.6718, 2.25346, -173.627, 2.25607, 66.3671, 0.00534214, 132.884
1, 2940.00000, 126.017, -30.5979, 126.376, -150.553, 126.23, 89.441, 0, 0, 2.25987, -53.6718, 2.25346, -173.627, 2.25607, 66.3671, 0.00534214, 132.884
1, 3000.00000, 126.017, -30.5979, 126.376, -150.553, 126.23, 89.441, 0, 0, 2.25987, -53.6718, 2.25346, -173.627, 2.25607, 66.3671, 0.00534214, 132.884
1, 3060.00000, 126.017, -30.5979, 126.376, -150.553, 126.23, 89.441, 0, 0, 2.25987, -53.6718, 2.25346, -173.627, 2.25607, 66.3671, 0.00534214, 132.884
1, 3120.00000, 126.017, -30.5979, 126.376, -150.553, 126.23, 89.441, 0, 0, 2.25987, -53.6718, 2.25346, -173.627, 2.25607, 66.3671, 0.00534214, 132.884
1, 3180.00000, 126.017, -30.5979, 126.376, -150.553, 126.23, 89.441, 0, 0, 2.25987, -53.6718, 2.25346, -173.627, 2.25607, 66.3671, 0.00534214, 132.884
1, 3240.00000, 126.017, -30.5979, 126.376, -150.553, 126.23, 89.441, 0, 0, 2.25987, -53.6718, 2.25346, -173.627, 2.25607, 66.3671, 0.00534214, 132.884
1, 3300.00000, 126.017, -30.5979, 126.376, -150.553, 126.23, 89.441, 0, 0, 2.25987, -53.6718, 2.25346, -173.627, 2.25607, 66.3671, 0.00534214, 132.884
1, 3360.00000, 126.017, -30.5979, 126.376, -150.553, 126.23, 89.441, 0, 0, 2.25987, -53.6718, 2.25346, -173.627, 2.25607, 66.3671, 0.00534214, 132.884
1, 3420.00000, 126.017, -30.5979, 126.376, -150.553, 126.23, 89.441, 0, 0, 2.25987, -53.6718, 2.25346, -173.627, 2.25607, 66.3671, 0.00534214, 132.884
1, 3480.00000, 126.017, -30.5979, 126.376, -150.553, 126.23, 89.441, 0, 0, 2.25987, -53.6718, 2.25346, -173.627, 2.25607, 66.3671, 0.00534214, 132.884
1, 3540.00000, 126.017, -30.5979, 126.376, -150.553, 126.23, 89.441, 0, 0, 2.25987, -53.6718, 2.25346, -173.627, 2.25607, 66.3671, 0.00534214, 132.884
2, 0.00000, 126.017, -30.5979, 126.376, -150.553, 126.23, 89.441, 0, 0, 2.25987, -53.6718, 2.25346, -173.627, 2.25607, 66.3671, 0.00534214, 132.884
2, 60.00000, 126.017, -30.5979, 126.376, -150.553, 126.23, 89.441, 0, 0, 2.25987, -53.6718, 2.25346, -173.627, 2.25607, 66.3671, 0.00534214, 132.884
2, 120.00000, 126.012, -30.599, 126.371, -150.554, 126.225, 89.4399, 0, 0, 2.26621, -53.6729, 2.25978, -173.628, 2.26239, 66.3661, 0.00536543, 132.864
2, 180.00000, 126.006, -30.6002, 126.366, -150.555, 126.22, 89.4388, 0, 0, 2.27264, -53.6741, 2.26617, -173.629, 2.2688, 66.3649, 0.00538907, 132.845
2, 240.00000, 126.001, -30.6014, 126.361, -150.556, 126.215, 89.4377, 0, 0, 2.27899, -53.6753, 2.2725, -173.63, 2.27513, 66.3638, 0.00541248, 132.827
2, 300.00000, 125.996, -30.6026, 126.356, -150.557, 126.21, 89.4366, 0, 0, 2.28534, -53.6765, 2.27882, -173.631, 2.28147, 66.3627, 0.00543594, 132.809
2, 360.00000, 125.99, -30.6038, 126.351, -150.559, 126.205, 89.4355, 0, 0, 2.29177, -53.6777, 2.28522, -173.632, 2.28788, 66.3616, 0.00545974, 132.79
2, 420.00000, 125.985, -30.605, 126.347, -150.56, 126.2, 89.4344, 0, 0, 2.29812, -53.6789, 2.29154, -173.634, 2.29421, 66.3605, 0.0054833, 132.771
2, 480.00000, 125.979, -30.6062, 126.342, -150.561, 126.195, 89.4333, 0, 0, 2.30447, -53.6801, 2.29787, -173.635, 2.30054, 66.3594, 0.00550691, 132.753
2, 540.00000, 125.974, -30.6074, 126.337, -150.562, 126.19, 89.4322, 0, 0, 2.3109, -53.6813, 2.30427, -173.636, 2.30696, 66.3583, 0.00553086, 132.735
2, 600.00000, 125.969, -30.6086, 126.332, -150.563, 126.185, 89.4311, 0, 0, 2.31726, -53.6825, 2.31059, -173.637, 2.31329, 66.3572, 0.00555457, 132.716
2, 660.00000, 125.963, -30.6098, 126.327, -150.564, 126.18, 89.43, 0, 0, 2.32361, -53.6837, 2.31692, -173.638, 2.31963, 66.3561, 0.00557834, 132.698
