hour,t(sec),V1,VAngle1,V2,VAngle2,V3,VAngle3,V4,VAngle4,I1,IAngle1,I2,IAngle2,I3,IAngle3,I4,IAngle4
0, 60.00000, 126.243, -31.3609, 125.987, -150.724, 127.354, 89.2523, 0, 0, 2.3471, -54.4346, 2.35186, -173.798, 2.32664, 66.1784, 0.0482086, 46.4149
0, 120.00000, 126.254, -31.3693, 125.987, -150.724, 127.377, 89.2521, 0, 0, 2.3469, -54.443, 2.35186, -173.798, 2.32623, 66.1782, 0.0488942, 46.2851
0, 180.00000, 126.263, -31.3768, 125.987, -150.724, 127.397, 89.2519, 0, 0, 2.34673, -54.4506, 2.35186, -173.798, 2.32586, 66.178, 0.0495115, 46.1717
0, 240.00000, 126.271, -31.3836, 125.987, -150.724, 127.415, 89.2517, 0, 0, 2.34657, -54.4574, 2.35186, -173.798, 2.32553, 66.1779, 0.0500674, 46.0724
0, 300.00000, 126.683, -31.3462, 125.986, -150.724, 127.567, 89.4185, 0, 0, 2.33895, -54.42, 2.35188, -173.798, 2.32275, 66.3447, 0.0536368, 32.4617
0, 360.00000, 126.69, -31.3517, 125.986, -150.724, 127.582, 89.4184, 0, 0, 2.33882, -54.4255, 2.35188, -173.798, 2.32248, 66.3445, 0.05409, 32.5056
0, 420.00000, 126.696, -31.3567, 125.986, -150.724, 127.595, 89.4182, 0, 0, 2.3387, -54.4305, 2.35188, -173.798, 2.32224, 66.3443, 0.0544979, 32.5448
0, 480.00000, 126.702, -31.3612, 125.986, -150.724, 127.607, 89.4181, 0, 0, 2.3386, -54.435, 2.35188, -173.798, 2.32202, 66.3442, 0.0548649, 32.5797
0, 540.00000, 126.707, -31.3652, 125.986, -150.724, 127.618, 89.4179, 0, 0, 2.33851, -54.439, 2.35188, -173.798, 2.32182, 66.344, 0.0551953, 32.6108
0, 600.00000, 126.711, -31.3688, 125.986, -150.724, 127.628, 89.4178, 0, 0, 2.33843, -54.4426, 2.35188, -173.798, 2.32164, 66.3439, 0.0554927, 32.6385
0, 660.00000, 126.715, -31.3721, 125.986, -150.724, 127.636, 89.4177, 0, 0, 2.33835, -54.4459, 2.35188, -173.798, 2.32148, 66.3438, 0.0557604, 32.6633
0, 720.00000, 126.719, -31.375, 125.986, -150.724, 127.644, 89.4176, 0, 0, 2.33828, -54.4488, 2.35188, -173.798, 2.32134, 66.3437, 0.0560013, 32.6854
0, 780.00000, 126.722, -31.3776, 125.986, -150.724, 127.651, 89.4175, 0, 0, 2.33822, -54.4515, 2.35188, -173.798, 2.32121, 66.3436, 0.0562182, 32.7053
0, 840.00000, 126.725, -31.38, 125.986, -150.724, 127.658, 89.4174, 0, 0, 2.33817, -54.4539, 2.35188, -173.798, 2.32109, 66.3435, 0.0564133, 32.723
0, 900.00000, 126.728, -31.3822, 125.986, -150.724, 127.664, 89.4174, 0, 0, 2.33812, -54.456, 2.35188, -173.798, 2.32099, 66.3435, 0.056589, 32.7389
0, 960.00000, 126.73, -31.3841, 125.986, -150.724, 127.669, 89.4173, 0, 0, 2.33808, -54.4579, 2.35188, -173.798, 2.32089, 66.3434, 0.0567471, 32.7531
0, 1020.00000, 126.732, -31.3858, 125.986, -150.724, 127.673, 89.4172, 0, 0, 2.33804, -54.4597, 2.35188, -173.798, 2.32081, 66.3433, 0.0568894, 32.7659
0, 1080.00000, 126.734, -31.3874, 125.986, -150.724, 127.678, 89.4172, 0, 0, 2.338, -54.4613, 2.35188, -173.798, 2.32073, 66.3433, 0.0570175, 32.7773
0, 1140.00000, 126.736, -31.3888, 125.986, -150.724, 127.681, 89.4171, 0, 0, 2.33797, -54.4627, 2.35188, -173.798, 2.32066, 66.3432, 0.0571328, 32.7876
0, 1200.00000, 126.737, -31.39, 125.986, -150.724, 127.685, 89.4171, 0, 0, 2.33794, -54.4639, 2.35188, -173.798, 2.3206, 66.3432, 0.0572365, 32.7968
0, 1260.00000, 126.739, -31.3912, 125.986, -150.724, 127.688, 89.417, 0, 0, 2.33791, -54.4651, 2.35188, -173.798, 2.32054, 66.3431, 0.0573299, 32.8051
0, 1320.00000, 126.74, -31.3922, 125.986, -150.724, 127.69, 89.417, 0, 0, 2.33789, -54.4661, 2.35188, -173.798, 2.32049, 66.3431, 0.0574139, 32.8125
0, 1380.00000, 126.741, -31.3931, 125.986, -150.724, 127.693, 89.417, 0, 0, 2.33787, -54.467, 2.35188, -173.798, 2.32045, 66.3431, 0.0574896, 32.8192
0, 1440.00000, 126.742, -31.394, 125.986, -150.724, 127.695, 89.4169, 0, 0, 2.33785, -54.4679, 2.35188, -173.798, 2.32041, 66.343, 0.0575576, 32.8252
0, 1500.00000, 126.743, -31.3947, 125.986, -150.724, 127.697, 89.4169, 0, 0, 2.33783, -54.4686, 2.35188, -173.798, 2.32037, 66.343, 0.0576189, 32.8305
0, 1560.00000, 126.744, -31.3954, 125.986, -150.724, 127.699, 89.4169, 0, 0, 2.33782, -54.4693, 2.35188, -173.798, 2.32034, 66.343, 0.0576741, 32.8354
0, 1620.00000, 126.745, -31.396, 125.986, -150.724, 127.701, 89.4169, 0, 0, 2.3378, -54.4699, 2.35188, -173.798, 2.32031, 66.343, 0.0577237, 32.8397
0, 1680.00000, 126.745, -31.3965, 125.986, -150.724, 127.702, 89.4169, 0, 0, 2.33779, -54.4704, 2.35188, -173.798, 2.32028, 66.3429, 0.0577684, 32.8436
0, 1740.00000, 126.746, -31.397, 125.986, -150.724, 127.703, 89.4168, 0, 0, 2.33778, -54.4709, 2.35188, -173.798, 2.32026, 66.3429, 0.0578086, 32.8471
0, 1800.00000, 126.747, -31.3975, 125.986, -150.724, 127.705, 89.4168, 0, 0, 2.33777, -54.4714, 2.35188, -173.798, 2.32023, 66.3429, 0.0578447, 32.8503
0, 1860.00000, 126.747, -31.3979, 125.986, -150.724, 127.706, 89.4168, 0, 0, 2.33776, -54.4718, 2.35188, -173.798, 2.32022, 66.3429, 0.0578773, 32.8531
0, 1920.00000, 126.748, -31.3982, 125.986, -150.724, 127.707, 89.4168, 0, 0, 2.33775, -54.4721, 2.35188, -173.798, 2.3202, 66.3429, 0.0579066, 32.8557
0, 1980.00000, 126.748, -31.3985, 125.986, -150.724, 127.707, 89.4168, 0, 0, 2.33775, -54.4725, 2.35188, -173.798, 2.32018, 66.3429, 0.057933, 32.858
0, 2040.00000, 126.748, -31.3988, 125.986, -150.724, 127.708, 89.4168, 0, 0, 2.33774, -54.4727, 2.35188, -173.798, 2.32017, 66.3429, 0.0579567, 32.8601
0, 2100.00000, 126.749, -31.3991, 125.986, -150.724, 127.709, 89.4168, 0, 0, 2.33773, -54.473, 2.35188, -173.798, 2.32015, 66.3428, 0.0579781, 32.8619
0, 2160.00000, 126.749, -31.3993, 125.986, -150.724, 127.71, 89.4168, 0, 0, 2.33773, -54.4732, 2.35188, -173.798, 2.32014, 66.3428, 0.0579973, 32.8636
0, 2220.00000, 126.749, -31.3995, 125.986, -150.724, 127.71, 89.4167, 0, 0, 2.33772, -54.4734, 2.35188, -173.798, 2.32013, 66.3428, 0.0580146, 32.8651
0, 2280.00000, 126.749, -31.3997, 125.986, -150.724, 127.711, 89.4167, 0, 0, 2.33772, -54.4736, 2.35188, -173.798, 2.32012, 66.3428, 0.0580302, 32.8665
0, 2340.00000, 126.75, -31.3999, 125.986, -150.724, 127.711, 89.4167, 0, 0, 2.33771, -54.4738, 2.35188, -173.798, 2.32012, 66.3428, 0.0580442, 32.8677
0, 2400.00000, 126.75, -31.4, 125.986, -150.724, 127.711, 89.4167, 0, 0, 2.33771, -54.474, 2.35188, -173.798, 2.32011, 66.3428, 0.0580568, 32.8688
0, 2460.00000, 126.75, -31.4002, 125.986, -150.724, 127.712, 89.4167, 0, 0, 2.33771, -54.4741, 2.35188, -173.798, 2.3201, 66.3428, 0.0580682, 32.8698
0, 2520.00000, 126.75, -31.4003, 125.986, -150.724, 127.712, 89.4167, 0, 0, 2.3377, -54.4742, 2.35188, -173.798, 2.32009, 66.3428, 0.0580784, 32.8706
0, 2580.00000, 126.75, -31.4004, 125.986, -150.724, 127.713, 89.4167, 0, 0, 2.3377, -54.4743, 2.35188, -173.798, 2.32009, 66.3428, 0.0580876, 32.8714
0, 2640.00000, 126.75, -31.4005, 125.986, -150.724, 127.713, 89.4167, 0, 0, 2.3377, -54.4744, 2.35188, -173.798, 2.32008, 66.3428, 0.0580959, 32.8722
0, 2700.00000, 126.75, -31.4006, 125.986, -150.724, 127.713, 89.4167, 0, 0, 2.3377, -54.4745, 2.35188, -173.798, 2.32008, 66.3428, 0.0581033, 32.8728
0, 2760.00000, 126.751, -31.4007, 125.986, -150.724, 127.713, 89.4167, 0, 0, 2.3377, -54.4746, 2.35188, -173.798, 2.32008, 66.3428, 0.0581101, 32.8734
0, 2820.00000, 126.751, -31.4008, 125.986, -150.724, 127.713, 89.4167, 0, 0, 2.33769, -54.4747, 2.35188, -173.798, 2.32007, 66.3428, 0.0581161, 32.8739
0, 2880.00000, 126.751, -31.4008, 125.986, -150.724, 127.714, 89.4167, 0, 0, 2.33769, -54.4748, 2.35188, -173.798, 2.32007, 66.3428, 0.0581215, 32.8744
0, 2940.00000, 126.751, -31.4009, 125.986, -150.724, 127.714, 89.4167, 0, 0, 2.33769, -54.4748, 2.35188, -173.798, 2.32007, 66.3428, 0.0581264, 32.8748
0, 3000.00000, 126.751, -31.401, 125.986, -150.724, 127.714, 89.4167, 0, 0, 2.33769, -54.4749, 2.35188, -173.798, 2.32006, 66.3428, 0.0581308, 32.8752
0, 3060.00000, 126.751, -31.401, 125.986, -150.724, 127.714, 89.4167, 0, 0, 2.33769, -54.4749, 2.35188, -173.798, 2.32006, 66.3428, 0.0581348, 32.8755
0, 3120.00000, 126.751, -31.401, 125.986, -150.724, 127.714, 89.4167, 0, 0, 2.33769, -54.475, 2.35188, -173.798, 2.32006, 66.3428, 0.0581383, 32.8758
0, 3180.00000, 126.751, -31.4011, 125.986, -150.724, 127.714, 89.4167, 0, 0, 2.33769, -54.475, 2.35188, -173.798, 2.32006, 66.3428, 0.0581415, 32.8761
0, 3240.00000, 126.751, -31.4011, 125.986, -150.724, 127.714, 89.4167, 0, 0, 2.33769, -54.475, 2.35188, -173.798, 2.32006, 66.3428, 0.0581444, 32.8764
0, 3300.00000, 126.751, -31.4011, 125.986, -150.724, 127.714, 89.4167, 0, 0, 2.33769, -54.4751, 2.35188, -173.798, 2.32005, 66.3428, 0.058147, 32.8766
0, 3360.00000, 126.751, -31.4012, 125.986, -150.724, 127.715, 89.4167, 0, 0, 2.33768, -54.4751, 2.35188, -173.798, 2.32005, 66.3428, 0.0581494, 32.8768
0, 3420.00000, 126.751, -31.4012, 125.986, -150.724, 127.715, 89.4167, 0, 0, 2.33768, -54.4751, 2.35188, -173.798, 2.32005, 66.3428, 0.0581515, 32.877
0, 3480.00000, 126.751, -31.4012, 125.986, -150.724, 127.715, 89.4167, 0, 0, 2.33768, -54.4751, 2.35188, -173.798, 2.32005, 66.3428, 0.0581534, 32.8771
0, 3540.00000, 126.751, -31.4012, 125.986, -150.724, 127.715, 89.4167, 0, 0, 2.33768, -54.4752, 2.35188, -173.798, 2.32005, 66.3428, 0.0581551, 32.8773
1, 0.00000, 126.751, -31.4013, 125.986, -150.724, 127.715, 89.4167, 0, 0, 2.33768, -54.4752, 2.35188, -173.798, 2.32005, 66.3428, 0.0581566, 32.8774
1, 60.00000, 126.751, -31.4013, 125.986, -150.724, 127.715, 89.4167, 0, 0, 2.33768, -54.4752, 2.35188, -173.798, 2.32005, 66.3428, 0.058158, 32.8775
1, 120.00000, 126.751, -31.4013, 125.986, -150.724, 127.715, 89.4167, 0, 0, 2.33768, -54.4752, 2.35188, -173.798, 2.32005, 66.3428, 0.0581592, 32.8776
1, 180.00000, 126.751, -31.4013, 125.986, -150.724, 127.715, 89.4167, 0, 0, 2.33768, -54.4752, 2.35188, -173.798, 2.32005, 66.3428, 0.0581603, 32.8777
1, 240.00000, 126.751, -31.4013, 125.986, -150.724, 127.715, 89.4167, 0, 0, 2.33768, -54.4752, 2.35188, -173.798, 2.32004, 66.3428, 0.0581613, 32.8778
1, 300.00000, 126.751, -31.4013, 125.986, -150.724, 127.715, 89.4167, 0, 0, 2.33768, -54.4753, 2.35188, -173.798, 2.32004, 66.3428, 0.0581622, 32.8779
1, 360.00000, 126.751, -31.4013, 125.986, -150.724, 127.715, 89.4167, 0, 0, 2.33768, -54.4753, 2.35188, -173.798, 2.32004, 66.3428, 0.0581631, 32.878
1, 420.00000, 126.751, -31.4014, 125.986, -150.724, 127.715, 89.4167, 0, 0, 2.33768, -54.4753, 2.35188, -173.798, 2.32004, 66.3428, 0.0581638, 32.878
1, 480.00000, 126.751, -31.4014, 125.986, -150.724, 127.715, 89.4167, 0, 0, 2.33768, -54.4753, 2.35188, -173.798, 2.32004, 66.3428, 0.0581645, 32.8781
1, 540.00000, 126.751, -31.4014, 125.986, -150.724, 127.715, 89.4167, 0, 0, 2.33768, -54.4753, 2.35188, -173.798, 2.32004, 66.3428, 0.058165, 32.8782
1, 600.00000, 126.751, -31.4014, 125.986, -150.724, 127.715, 89.4167, 0, 0, 2.33768, -54.4753, 2.35188, -173.798, 2.32004, 66.3428, 0.0581656, 32.8782
1, 660.00000, 126.751, -31.4032, 126.104, -150.559, 128.106, 89.4576, 0, 0, 2.33769, -54.4771, 2.34969, -173.633, 2.31296, 66.3837, 0.0668051, 41.1057
1, 720.00000, 126.751, -31.4032, 126.104, -150.559, 128.106, 89.4576, 0, 0, 2.33769, -54.4771, 2.34969, -173.633, 2.31296, 66.3837, 0.0668056, 41.1057
1, 780.00000, 126.751, -31.4032, 126.104, -150.559, 128.106, 89.4576, 0, 0, 2.33769, -54.4771, 2.34969, -173.633, 2.31296, 66.3837, 0.066806, 41.1057
1, 840.00000, 126.751, -31.4032, 126.104, -150.559, 128.106, 89.4576, 0, 0, 2.33769, -54.4771, 2.34969, -173.633, 2.31296, 66.3837, 0.0668064, 41.1056
1, 900.00000, 126.751, -31.4032, 126.104, -150.559, 128.106, 89.4576, 0, 0, 2.33769, -54.4771, 2.34969, -173.633, 2.31296, 66.3837, 0.0668067, 41.1056
1, 960.00000, 126.751, -31.4032, 126.104, -150.559, 128.106, 89.4576, 0, 0, 2.33769, -54.4771, 2.34969, -173.633, 2.31296, 66.3837, 0.066807, 41.1056
1, 1020.00000, 126.751, -31.4032, 126.104, -150.559, 128.106, 89.4576, 0, 0, 2.33769, -54.4771, 2.34969, -173.633, 2.31296, 66.3837, 0.0668072, 41.1056
1, 1080.00000, 126.751, -31.4032, 126.104, -150.559, 128.106, 89.4576, 0, 0, 2.33769, -54.4771, 2.34969, -173.633, 2.31296, 66.3837, 0.0668075, 41.1056
1, 1140.00000, 126.751, -31.4032, 126.104, -150.559, 128.106, 89.4576, 0, 0, 2.33769, -54.4771, 2.34969, -173.633, 2.31296, 66.3837, 0.0668077, 41.1056
1, 1200.00000, 126.751, -31.4032, 126.104, -150.559, 128.106, 89.4576, 0, 0, 2.33769, -54.4771, 2.34969, -173.633, 2.31296, 66.3837, 0.0668079, 41.1056
1, 1260.00000, 126.751, -31.4032, 126.104, -150.559, 128.106, 89.4576, 0, 0, 2.33769, -54.4771, 2.34969, -173.633, 2.31295, 66.3837, 0.066808, 41.1056
1, 1320.00000, 126.751, -31.4032, 126.104, -150.559, 128.106, 89.4576, 0, 0, 2.33769, -54.4771, 2.34969, -173.633, 2.31295, 66.3837, 0.0668082, 41.1055
1, 1380.00000, 126.751, -31.4032, 126.104, -150.559, 128.106, 89.4576, 0, 0, 2.33769, -54.4771, 2.34969, -173.633, 2.31295, 66.3837, 0.0668083, 41.1055
1, 1440.00000, 126.751, -31.4032, 126.104, -150.559, 128.106, 89.4576, 0, 0, 2.33769, -54.4771, 2.34969, -173.633, 2.31295, 66.3837, 0.0668084, 41.1055
1, 1500.00000, 126.751, -31.4032, 126.104, -150.559, 128.106, 89.4576, 0, 0, 2.33769, -54.4771, 2.34969, -173.633, 2.31295, 66.3837, 0.0668085, 41.1055
1, 1560.00000, 126.751, -31.4032, 126.104, -150.559, 128.106, 89.4576, 0, 0, 2.33769, -54.4771, 2.34969, -173.633, 2.31295, 66.3837, 0.0668086, 41.1055
1, 1620.00000, 126.751, -31.4032, 126.104, -150.559, 128.106, 89.4576, 0, 0, 2.33769, -54.4772, 2.34969, -173.633, 2.31295, 66.3837, 0.0668087, 41.1055
1, 1680.00000, 126.751, -31.4032, 126.104, -150.559, 128.106, 89.4576, 0, 0, 2.33769, -54.4772, 2.34969, -173.633, 2.31295, 66.3837, 0.0668088, 41.1055
1, 1740.00000, 126.751, -31.4032, 126.104, -150.559, 128.106, 89.4576, 0, 0, 2.33769, -54.4772, 2.34969, -173.633, 2.31295, 66.3837, 0.0668089, 41.1055
1, 1800.00000, 126.751, -31.4032, 126.104, -150.559, 128.106, 89.4576, 0, 0, 2.33769, -54.4772, 2.34969, -173.633, 2.31295, 66.3837, 0.0668089, 41.1055
1, 1860.00000, 126.751, -31.4032, 126.104, -150.559, 128.106, 89.4576, 0, 0, 2.33769, -54.4772, 2.34969, -173.633, 2.31295, 66.3837, 0.066809, 41.1055
1, 1920.00000, 126.751, -31.4032, 126.104, -150.559, 128.106, 89.4576, 0, 0, 2.33769, -54.4772, 2.34969, -173.633, 2.31295, 66.3837, 0.0668091, 41.1055
1, 1980.00000, 126.751, -31.4032, 126.104, -150.559, 128.106, 89.4576, 0, 0, 2.33769, -54.4772, 2.34969, -173.633, 2.31295, 66.3837, 0.0668091, 41.1055
1, 2040.00000, 126.751, -31.4032, 126.104, -150.559, 128.106, 89.4576, 0, 0, 2.33769, -54.4772, 2.34969, -173.633, 2.31295, 66.3837, 0.0668091, 41.1055
1, 2100.00000, 126.751, -31.4032, 126.104, -150.559, 128.106, 89.4576, 0, 0, 2.33769, -54.4772, 2.34969, -173.633, 2.31295, 66.3837, 0.0668092, 41.1055
1, 2160.00000, 126.751, -31.4032, 126.104, -150.559, 128.106, 89.4576, 0, 0, 2.33769, -54.4772, 2.34969, -173.633, 2.31295, 66.3837, 0.0668092, 41.1055
1, 2220.00000, 126.751, -31.4032, 126.104, -150.559, 128.106, 89.4576, 0, 0, 2.33769, -54.4772, 2.34969, -173.633, 2.31295, 66.3837, 0.0668093, 41.1055
1, 2280.00000, 126.751, -31.4032, 126.104, -150.559, 128.106, 89.4576, 0, 0, 2.33769, -54.4772, 2.34969, -173.633, 2.31295, 66.3837, 0.0668093, 41.1055
1, 2340.00000, 126.751, -31.4032, 126.104, -150.559, 128.106, 89.4576, 0, 0, 2.33769, -54.4772, 2.34969, -173.633, 2.31295, 66.3837, 0.0668093, 41.1055
1, 2400.00000, 126.751, -31.4032, 126.104, -150.559, 128.106, 89.4576, 0, 0, 2.33769, -54.4772, 2.34969, -173.633, 2.31295, 66.3837, 0.0668093, 41.1055
1, 2460.00000, 126.751, -31.4032, 126.104, -150.559, 128.106, 89.4576, 0, 0, 2.33769, -54.4772, 2.34969, -173.633, 2.31295, 66.3837, 0.0668093, 41.1055
1, 2520.00000, 126.751, -31.4032, 126.104, -150.559, 128.106, 89.4576, 0, 0, 2.33769, -54.4772, 2.34969, -173.633, 2.31295, 66.3837, 0.0668094, 41.1055
1, 2580.00000, 126.751, -31.4032, 126.104, -150.559, 128.106, 89.4576, 0, 0, 2.33769, -54.4772, 2.34969, -173.633, 2.31295, 66.3837, 0.0668094, 41.1055
1, 2640.00000, 126.751, -31.4032, 126.104, -150.559, 128.106, 89.4576, 0, 0, 2.33769, -54.4772, 2.34969, -173.633, 2.31295, 66.3837, 0.0668094, 41.1055
1, 2700.00000, 126.751, -31.4032, 126.104, -150.559, 128.106, 89.4576, 0, 0, 2.33769, -54.4772, 2.34969, -173.633, 2.31295, 66.3837, 0.0668094, 41.1055
1, 2760.00000, 126.751, -31.4032, 126.104, -150.559, 128.106, 89.4576, 0, 0, 2.33769, -54.4772, 2.34969, -173.633, 2.31295, 66.3837, 0.0668094, 41.1055
1, 2820.00000, 126.751, -31.4032, 126.104, -150.559, 128.106, 89.4576, 0, 0, 2.33769, -54.4772, 2.34969, -173.633, 2.31295, 66.3837, 0.0668094, 41.1055
1, 2880.00000, 126.751, -31.4032, 126.104, -150.559, 128.106, 89.4576, 0, 0, 2.33769, -54.4772, 2.34969, -173.633, 2.31295, 66.3837, 0.0668094, 41.1055
1, 2940.00000, 126.751, -31.4032, 126.104, -150.559, 128.106, 89.4576, 0, 0, 2.33769, -54.4772, 2.34969, -173.633, 2.31295, 66.3837, 0.0668095, 41.1055
1, 3000.00000, 126.751, -31.4032, 126.104, -150.559, 128.106, 89.4576, 0, 0, 2.33769, -54.4772, 2.34969, -173.633, 2.31295, 66.3837, 0.0668095, 41.1055
1, 3060.00000, 126.751, -31.4032, 126.104, -150.559, 128.106, 89.4576, 0, 0, 2.33769, -54.4772, 2.34969, -173.633, 2.31295, 66.3837, 0.0668095, 41.1055
1, 3120.00000, 126.751, -31.4032, 126.104, -150.559, 128.106, 89.4576, 0, 0, 2.33769, -54.4772, 2.34969, -173.633, 2.31295, 66.3837, 0.0668095, 41.1055
1, 3180.00000, 126.751, -31.4032, 126.104, -150.559, 128.106, 89.4576, 0, 0, 2.33769, -54.4772, 2.34969, -173.633, 2.31295, 66.3837, 0.0668095, 41.1055
1, 3240.00000, 126.751, -31.4032, 126.104, -150.559, 128.106, 89.4576, 0, 0, 2.33769, -54.4772, 2.34969, -173.633, 2.31295, 66.3837, 0.0668095, 41.1055
1, 3300.00000, 126.751, -31.4032, 126.104, -150.559, 128.106, 89.4576, 0, 0, 2.33769, -54.4772, 2.34969, -173.633, 2.31295, 66.3837, 0.0668095, 41.1055
1, 3360.00000, 126.751, -31.4032, 126.104, -150.559, 128.106, 89.4576, 0, 0, 2.33769, -54.4772, 2.34969, -173.633, 2.31295, 66.3837, 0.0668095, 41.1055
1, 3420.00000, 126.751, -31.4032, 126.104, -150.559, 128.106, 89.4576, 0, 0, 2.33769, -54.4772, 2.34969, -173.633, 2.31295, 66.3837, 0.0668095, 41.1055
1, 3480.00000, 126.751, -31.4032, 126.104, -150.559, 128.106, 89.4576, 0, 0, 2.33769, -54.4772, 2.34969, -173.633, 2.31295, 66.3837, 0.0668095, 41.1055
1, 3540.00000, 126.751, -31.4032, 126.104, -150.559, 128.106, 89.4576, 0, 0, 2.33769, -54.4772, 2.34969, -173.633, 2.31295, 66.3837, 0.0668095, 41.1055
2, 0.00000, 126.751, -31.4032, 126.104, -150.559, 128.106, 89.4576, 0, 0, 2.33769, -54.4772, 2.34969, -173.633, 2.31295, 66.3837, 0.0668095, 41.1055
2, 60.00000, 126.751, -31.4032, 126.104, -150.559, 128.106, 89.4576, 0, 0, 2.33769, -54.4772, 2.34969, -173.633, 2.31295, 66.3837, 0.0668095, 41.1055
2, 120.00000, 126.745, -31.4044, 126.099, -150.561, 128.101, 89.4565, 0, 0, 2.34426, -54.4783, 2.35628, -173.634, 2.31945, 66.3826, 0.0669997, 41.1126
2, 180.00000, 126.739, -31.4055, 126.093, -150.562, 128.096, 89.4555, 0, 0, 2.35092, -54.4794, 2.36296, -173.636, 2.32602, 66.3815, 0.0671923, 41.1197
2, 240.00000, 126.733, -31.4066, 126.088, -150.563, 128.091, 89.4544, 0, 0, 2.3575, -54.4805, 2.36956, -173.637, 2.33252, 66.3805, 0.0673826, 41.1268
2, 300.00000, 126.728, -31.4078, 126.083, -150.564, 128.085, 89.4533, 0, 0, 2.36407, -54.4817, 2.37616, -173.638, 2.33901, 66.3794, 0.0675729, 41.1339
2, 360.00000, 126.722, -31.4089, 126.078, -150.565, 128.08, 89.4523, 0, 0, 2.37073, -54.4828, 2.38284, -173.639, 2.34559, 66.3783, 0.0677656, 41.1411
2, 420.00000, 126.716, -31.41, 126.072, -150.566, 128.075, 89.4512, 0, 0, 2.37731, -54.4839, 2.38944, -173.64, 2.35209, 66.3773, 0.067956, 41.1482
2, 480.00000, 126.71, -31.4111, 126.067, -150.567, 128.069, 89.4501, 0, 0, 2.38389, -54.4851, 2.39604, -173.641, 2.35858, 66.3762, 0.0681464, 41.1553
2, 540.00000, 126.704, -31.4123, 126.062, -150.568, 128.064, 89.4491, 0, 0, 2.39055, -54.4862, 2.40272, -173.642, 2.36516, 66.3751, 0.0683391, 41.1625
2, 600.00000, 126.698, -31.4134, 126.057, -150.57, 128.059, 89.448, 0, 0, 2.39713, -54.4873, 2.40933, -173.643, 2.37166, 66.3741, 0.0685296, 41.1696
2, 660.00000, 126.692, -31.4145, 126.052, -150.571, 128.054, 89.4469, 0, 0, 2.40371, -54.4885, 2.41593, -173.645, 2.37816, 66.373, 0.0687202, 41.1767
