hour,t(sec),V1,VAngle1,V2,VAngle2,V3,VAngle3,V4,VAngle4,I1,IAngle1,I2,IAngle2,I3,IAngle3,I4,IAngle4
0, 60.00000, 126.729, -30.6116, 128.929, -150.739, 127.512, 88.5119, 0, 0, 2.35781, -53.6855, 2.31762, -173.813, 2.34333, 65.4384, 0.0687714, 164.512
0, 120.00000, 126.729, -30.6115, 128.95, -150.74, 127.521, 88.5035, 0, 0, 2.35781, -53.6854, 2.31723, -173.813, 2.34317, 65.43, 0.0694396, 164.477
0, 180.00000, 126.73, -30.6114, 128.97, -150.74, 127.529, 88.496, 0, 0, 2.35781, -53.6853, 2.31688, -173.814, 2.34303, 65.4224, 0.0700414, 164.446
0, 240.00000, 126.73, -30.6113, 128.987, -150.741, 127.536, 88.4892, 0, 0, 2.35781, -53.6852, 2.31656, -173.815, 2.34289, 65.4156, 0.0705831, 164.42
0, 300.00000, 126.73, -30.6112, 129.003, -150.741, 127.543, 88.4831, 0, 0, 2.35781, -53.6852, 2.31628, -173.815, 2.34278, 65.4094, 0.0710707, 164.397
0, 360.00000, 126.73, -30.6112, 129.017, -150.742, 127.548, 88.4776, 0, 0, 2.35781, -53.6851, 2.31602, -173.816, 2.34267, 65.4039, 0.0715098, 164.377
0, 420.00000, 126.73, -30.6111, 129.03, -150.742, 127.554, 88.4726, 0, 0, 2.35781, -53.685, 2.31579, -173.816, 2.34257, 65.3989, 0.071905, 164.359
0, 480.00000, 126.73, -30.611, 129.041, -150.743, 127.558, 88.4681, 0, 0, 2.35781, -53.685, 2.31558, -173.816, 2.34249, 65.3944, 0.0722607, 164.344
0, 540.00000, 126.73, -30.611, 129.052, -150.743, 127.562, 88.4641, 0, 0, 2.35781, -53.6849, 2.3154, -173.817, 2.34241, 65.3904, 0.072581, 164.33
0, 600.00000, 126.73, -30.611, 129.061, -150.743, 127.566, 88.4605, 0, 0, 2.35781, -53.6849, 2.31523, -173.817, 2.34234, 65.3867, 0.0728693, 164.318
0, 660.00000, 126.73, -30.6109, 129.069, -150.744, 127.57, 88.4572, 0, 0, 2.35781, -53.6849, 2.31508, -173.817, 2.34228, 65.3835, 0.0731287, 164.307
0, 720.00000, 126.73, -30.6109, 129.077, -150.744, 127.573, 88.4543, 0, 0, 2.35781, -53.6848, 2.31494, -173.818, 2.34222, 65.3805, 0.0733623, 164.298
0, 780.00000, 126.73, -30.6108, 129.084, -150.744, 127.575, 88.4516, 0, 0, 2.35781, -53.6848, 2.31482, -173.818, 2.34217, 65.3778, 0.0735725, 164.29
0, 840.00000, 126.73, -30.6108, 129.09, -150.744, 127.578, 88.4492, 0, 0, 2.35781, -53.6848, 2.31471, -173.818, 2.34213, 65.3755, 0.0737618, 164.282
0, 900.00000, 126.73, -30.6108, 129.095, -150.744, 127.58, 88.4471, 0, 0, 2.35781, -53.6847, 2.31461, -173.818, 2.34209, 65.3733, 0.0739321, 164.275
0, 960.00000, 126.336, -30.6499, 129.092, -150.75, 127.441, 88.2784, 0, 0, 2.36516, -53.7238, 2.31467, -173.824, 2.34464, 65.2046, 0.0859208, 161.493
0, 1020.00000, 126.336, -30.6499, 129.096, -150.75, 127.443, 88.2767, 0, 0, 2.36516, -53.7238, 2.31459, -173.824, 2.34461, 65.2028, 0.086058, 161.494
0, 1080.00000, 126.336, -30.6498, 129.1, -150.75, 127.445, 88.2751, 0, 0, 2.36516, -53.7238, 2.31452, -173.824, 2.34458, 65.2013, 0.0861815, 161.494
0, 1140.00000, 126.336, -30.6498, 129.104, -150.75, 127.446, 88.2737, 0, 0, 2.36516, -53.7237, 2.31445, -173.824, 2.34455, 65.1999, 0.0862928, 161.495
0, 1200.00000, 126.336, -30.6498, 129.107, -150.75, 127.447, 88.2725, 0, 0, 2.36516, -53.7237, 2.31439, -173.824, 2.34453, 65.1986, 0.0863929, 161.495
0, 1260.00000, 126.336, -30.6498, 129.11, -150.751, 127.449, 88.2713, 0, 0, 2.36516, -53.7237, 2.31434, -173.824, 2.34451, 65.1975, 0.086483, 161.496
0, 1320.00000, 126.336, -30.6497, 129.113, -150.751, 127.45, 88.2703, 0, 0, 2.36516, -53.7237, 2.31429, -173.824, 2.34449, 65.1964, 0.0865641, 161.496
0, 1380.00000, 126.336, -30.6497, 129.115, -150.751, 127.451, 88.2694, 0, 0, 2.36516, -53.7237, 2.31425, -173.825, 2.34447, 65.1955, 0.0866371, 161.497
0, 1440.00000, 126.336, -30.6497, 129.117, -150.751, 127.451, 88.2686, 0, 0, 2.36516, -53.7236, 2.31421, -173.825, 2.34446, 65.1947, 0.0867028, 161.497
0, 1500.00000, 126.336, -30.6497, 129.119, -150.751, 127.452, 88.2678, 0, 0, 2.36516, -53.7236, 2.31418, -173.825, 2.34444, 65.194, 0.0867619, 161.497
0, 1560.00000, 126.336, -30.6497, 129.121, -150.751, 127.453, 88.2672, 0, 0, 2.36516, -53.7236, 2.31415, -173.825, 2.34443, 65.1933, 0.0868151, 161.497
0, 1620.00000, 126.336, -30.6497, 129.122, -150.751, 127.453, 88.2666, 0, 0, 2.36516, -53.7236, 2.31412, -173.825, 2.34442, 65.1927, 0.086863, 161.498
0, 1680.00000, 126.336, -30.6497, 129.124, -150.751, 127.454, 88.266, 0, 0, 2.36516, -53.7236, 2.31409, -173.825, 2.34441, 65.1921, 0.0869061, 161.498
0, 1740.00000, 126.336, -30.6497, 129.125, -150.751, 127.455, 88.2655, 0, 0, 2.36516, -53.7236, 2.31407, -173.825, 2.3444, 65.1916, 0.0869449, 161.498
0, 1800.00000, 126.336, -30.6497, 129.126, -150.751, 127.455, 88.2651, 0, 0, 2.36516, -53.7236, 2.31405, -173.825, 2.34439, 65.1912, 0.0869799, 161.498
0, 1860.00000, 126.336, -30.6496, 129.127, -150.751, 127.455, 88.2647, 0, 0, 2.36516, -53.7236, 2.31403, -173.825, 2.34438, 65.1908, 0.0870113, 161.499
0, 1920.00000, 126.336, -30.6496, 129.128, -150.751, 127.456, 88.2643, 0, 0, 2.36516, -53.7236, 2.31401, -173.825, 2.34438, 65.1904, 0.0870396, 161.499
0, 1980.00000, 126.336, -30.6496, 129.129, -150.751, 127.456, 88.264, 0, 0, 2.36516, -53.7236, 2.314, -173.825, 2.34437, 65.1901, 0.087065, 161.499
0, 2040.00000, 126.336, -30.6496, 129.13, -150.751, 127.456, 88.2637, 0, 0, 2.36516, -53.7235, 2.31399, -173.825, 2.34437, 65.1898, 0.0870879, 161.499
0, 2100.00000, 126.336, -30.6496, 129.13, -150.751, 127.457, 88.2635, 0, 0, 2.36516, -53.7235, 2.31397, -173.825, 2.34436, 65.1896, 0.0871085, 161.499
0, 2160.00000, 126.336, -30.6496, 129.131, -150.751, 127.457, 88.2632, 0, 0, 2.36516, -53.7235, 2.31396, -173.825, 2.34436, 65.1893, 0.0871271, 161.499
0, 2220.00000, 126.336, -30.6496, 129.132, -150.751, 127.457, 88.263, 0, 0, 2.36516, -53.7235, 2.31395, -173.825, 2.34435, 65.1891, 0.0871438, 161.499
0, 2280.00000, 126.336, -30.6496, 129.132, -150.751, 127.457, 88.2628, 0, 0, 2.36516, -53.7235, 2.31395, -173.825, 2.34435, 65.1889, 0.0871588, 161.499
0, 2340.00000, 126.336, -30.6496, 129.132, -150.751, 127.457, 88.2627, 0, 0, 2.36516, -53.7235, 2.31394, -173.825, 2.34435, 65.1888, 0.0871724, 161.499
0, 2400.00000, 126.336, -30.6496, 129.133, -150.751, 127.458, 88.2625, 0, 0, 2.36516, -53.7235, 2.31393, -173.825, 2.34434, 65.1886, 0.0871845, 161.499
0, 2460.00000, 126.336, -30.6496, 129.133, -150.751, 127.458, 88.2624, 0, 0, 2.36516, -53.7235, 2.31392, -173.825, 2.34434, 65.1885, 0.0871955, 161.5
0, 2520.00000, 126.336, -30.6496, 129.134, -150.751, 127.458, 88.2623, 0, 0, 2.36516, -53.7235, 2.31392, -173.825, 2.34434, 65.1883, 0.0872054, 161.5
0, 2580.00000, 126.336, -30.6496, 129.134, -150.751, 127.458, 88.2621, 0, 0, 2.36516, -53.7235, 2.31391, -173.825, 2.34434, 65.1882, 0.0872142, 161.5
0, 2640.00000, 126.336, -30.6496, 129.134, -150.751, 127.458, 88.262, 0, 0, 2.36516, -53.7235, 2.31391, -173.825, 2.34433, 65.1881, 0.0872222, 161.5
0, 2700.00000, 126.336, -30.6496, 129.134, -150.751, 127.458, 88.262, 0, 0, 2.36516, -53.7235, 2.3139, -173.825, 2.34433, 65.188, 0.0872294, 161.5
0, 2760.00000, 126.336, -30.6496, 129.135, -150.751, 127.458, 88.2619, 0, 0, 2.36516, -53.7235, 2.3139, -173.825, 2.34433, 65.188, 0.0872359, 161.5
0, 2820.00000, 126.336, -30.6496, 129.135, -150.751, 127.458, 88.2618, 0, 0, 2.36516, -53.7235, 2.3139, -173.825, 2.34433, 65.1879, 0.0872417, 161.5
0, 2880.00000, 126.336, -30.6496, 129.135, -150.751, 127.458, 88.2617, 0, 0, 2.36516, -53.7235, 2.31389, -173.825, 2.34433, 65.1878, 0.0872469, 161.5
0, 2940.00000, 126.336, -30.6496, 129.135, -150.751, 127.458, 88.2617, 0, 0, 2.36516, -53.7235, 2.31389, -173.825, 2.34433, 65.1878, 0.0872517, 161.5
0, 3000.00000, 126.336, -30.6496, 129.135, -150.751, 127.459, 88.2616, 0, 0, 2.36516, -53.7235, 2.31389, -173.825, 2.34433, 65.1877, 0.0872559, 161.5
0, 3060.00000, 126.336, -30.6496, 129.135, -150.751, 127.459, 88.2616, 0, 0, 2.36516, -53.7235, 2.31389, -173.825, 2.34433, 65.1877, 0.0872597, 161.5
0, 3120.00000, 126.336, -30.6496, 129.135, -150.751, 127.459, 88.2615, 0, 0, 2.36516, -53.7235, 2.31388, -173.825, 2.34432, 65.1876, 0.0872632, 161.5
0, 3180.00000, 126.336, -30.6496, 129.135, -150.751, 127.459, 88.2615, 0, 0, 2.36516, -53.7235, 2.31388, -173.825, 2.34432, 65.1876, 0.0872663, 161.5
0, 3240.00000, 126.336, -30.6496, 129.136, -150.751, 127.459, 88.2615, 0, 0, 2.36516, -53.7235, 2.31388, -173.825, 2.34432, 65.1875, 0.0872691, 161.5
0, 3300.00000, 126.336, -30.6496, 129.136, -150.751, 127.459, 88.2614, 0, 0, 2.36516, -53.7235, 2.31388, -173.825, 2.34432, 65.1875, 0.0872716, 161.5
0, 3360.00000, 126.336, -30.6496, 129.136, -150.751, 127.459, 88.2614, 0, 0, 2.36516, -53.7235, 2.31388, -173.825, 2.34432, 65.1875, 0.0872738, 161.5
0, 3420.00000, 126.336, -30.6496, 129.136, -150.751, 127.459, 88.2614, 0, 0, 2.36516, -53.7235, 2.31388, -173.825, 2.34432, 65.1875, 0.0872758, 161.5
0, 3480.00000, 126.336, -30.6496, 129.136, -150.751, 127.459, 88.2614, 0, 0, 2.36516, -53.7235, 2.31388, -173.825, 2.34432, 65.1874, 0.0872777, 161.5
0, 3540.00000, 126.336, -30.6496, 129.136, -150.751, 127.459, 88.2613, 0, 0, 2.36516, -53.7235, 2.31387, -173.825, 2.34432, 65.1874, 0.0872793, 161.5
1, 0.00000, 126.336, -30.6496, 129.136, -150.751, 127.459, 88.2613, 0, 0, 2.36516, -53.7235, 2.31387, -173.825, 2.34432, 65.1874, 0.0872808, 161.5
1, 60.00000, 126.336, -30.6496, 129.136, -150.751, 127.459, 88.2613, 0, 0, 2.36516, -53.7235, 2.31387, -173.825, 2.34432, 65.1874, 0.0872821, 161.5
1, 120.00000, 126.336, -30.6496, 129.136, -150.751, 127.459, 88.2613, 0, 0, 2.36516, -53.7235, 2.31387, -173.825, 2.34432, 65.1874, 0.0872833, 161.5
1, 180.00000, 126.336, -30.6496, 129.136, -150.751, 127.459, 88.2613, 0, 0, 2.36516, -53.7235, 2.31387, -173.825, 2.34432, 65.1873, 0.0872844, 161.5
1, 240.00000, 126.336, -30.6496, 129.136, -150.751, 127.459, 88.2613, 0, 0, 2.36516, -53.7235, 2.31387, -173.825, 2.34432, 65.1873, 0.0872854, 161.5
1, 300.00000, 126.336, -30.6496, 129.136, -150.751, 127.459, 88.2612, 0, 0, 2.36516, -53.7235, 2.31387, -173.825, 2.34432, 65.1873, 0.0872862, 161.5
1, 360.00000, 126.336, -30.6496, 129.136, -150.751, 127.459, 88.2612, 0, 0, 2.36516, -53.7235, 2.31387, -173.825, 2.34432, 65.1873, 0.087287, 161.5
1, 420.00000, 126.336, -30.6496, 129.136, -150.751, 127.459, 88.2612, 0, 0, 2.36516, -53.7235, 2.31387, -173.825, 2.34432, 65.1873, 0.0872877, 161.5
1, 480.00000, 126.336, -30.6496, 129.136, -150.751, 127.459, 88.2612, 0, 0, 2.36516, -53.7235, 2.31387, -173.825, 2.34432, 65.1873, 0.0872884, 161.5
1, 540.00000, 126.336, -30.6496, 129.136, -150.751, 127.459, 88.2612, 0, 0, 2.36516, -53.7235, 2.31387, -173.825, 2.34432, 65.1873, 0.087289, 161.5
1, 600.00000, 126.336, -30.6496, 129.136, -150.751, 127.459, 88.2612, 0, 0, 2.36516, -53.7235, 2.31387, -173.825, 2.34432, 65.1873, 0.0872895, 161.5
1, 660.00000, 126.336, -30.6496, 129.136, -150.751, 127.459, 88.2612, 0, 0, 2.36516, -53.7235, 2.31387, -173.825, 2.34432, 65.1873, 0.0872899, 161.5
1, 720.00000, 126.336, -30.6496, 129.136, -150.751, 127.459, 88.2612, 0, 0, 2.36516, -53.7235, 2.31387, -173.825, 2.34432, 65.1873, 0.0872904, 161.5
1, 780.00000, 126.336, -30.6496, 129.136, -150.751, 127.459, 88.2612, 0, 0, 2.36516, -53.7235, 2.31387, -173.825, 2.34432, 65.1873, 0.0872907, 161.5
1, 840.00000, 126.336, -30.6496, 129.136, -150.751, 127.459, 88.2612, 0, 0, 2.36516, -53.7235, 2.31387, -173.825, 2.34432, 65.1873, 0.0872911, 161.5
1, 900.00000, 126.336, -30.6496, 129.136, -150.751, 127.459, 88.2612, 0, 0, 2.36516, -53.7235, 2.31387, -173.825, 2.34432, 65.1873, 0.0872914, 161.5
1, 960.00000, 126.336, -30.6496, 129.136, -150.751, 127.459, 88.2612, 0, 0, 2.36516, -53.7235, 2.31387, -173.825, 2.34432, 65.1873, 0.0872917, 161.5
1, 1020.00000, 126.336, -30.6496, 129.136, -150.751, 127.459, 88.2612, 0, 0, 2.36516, -53.7235, 2.31387, -173.825, 2.34432, 65.1873, 0.0872919, 161.5
1, 1080.00000, 126.336, -30.6496, 129.136, -150.751, 127.459, 88.2612, 0, 0, 2.36516, -53.7235, 2.31387, -173.825, 2.34432, 65.1872, 0.0872921, 161.5
1, 1140.00000, 126.336, -30.6496, 129.136, -150.751, 127.459, 88.2612, 0, 0, 2.36516, -53.7235, 2.31387, -173.825, 2.34432, 65.1872, 0.0872923, 161.5
1, 1200.00000, 126.336, -30.6496, 129.136, -150.751, 127.459, 88.2612, 0, 0, 2.36516, -53.7235, 2.31387, -173.825, 2.34432, 65.1872, 0.0872925, 161.5
1, 1260.00000, 126.336, -30.6496, 129.136, -150.751, 127.459, 88.2612, 0, 0, 2.36516, -53.7235, 2.31387, -173.825, 2.34432, 65.1872, 0.0872927, 161.5
1, 1320.00000, 126.336, -30.6496, 129.136, -150.751, 127.459, 88.2612, 0, 0, 2.36516, -53.7235, 2.31387, -173.825, 2.34432, 65.1872, 0.0872928, 161.5
1, 1380.00000, 126.336, -30.6496, 129.136, -150.751, 127.459, 88.2612, 0, 0, 2.36516, -53.7235, 2.31387, -173.825, 2.34432, 65.1872, 0.0872929, 161.5
1, 1440.00000, 126.336, -30.6496, 129.136, -150.751, 127.459, 88.2612, 0, 0, 2.36516, -53.7235, 2.31387, -173.825, 2.34432, 65.1872, 0.0872931, 161.5
1, 1500.00000, 126.336, -30.6496, 129.136, -150.751, 127.459, 88.2612, 0, 0, 2.36516, -53.7235, 2.31387, -173.825, 2.34432, 65.1872, 0.0872932, 161.5
1, 1560.00000, 126.336, -30.6496, 129.136, -150.751, 127.459, 88.2612, 0, 0, 2.36516, -53.7235, 2.31387, -173.825, 2.34432, 65.1872, 0.0872933, 161.5
1, 1620.00000, 126.336, -30.6496, 129.136, -150.751, 127.459, 88.2612, 0, 0, 2.36516, -53.7235, 2.31387, -173.825, 2.34432, 65.1872, 0.0872933, 161.5
1, 1680.00000, 126.336, -30.6496, 129.136, -150.751, 127.459, 88.2612, 0, 0, 2.36516, -53.7235, 2.31387, -173.825, 2.34432, 65.1872, 0.0872934, 161.5
1, 1740.00000, 126.336, -30.6496, 129.136, -150.751, 127.459, 88.2611, 0, 0, 2.36516, -53.7235, 2.31387, -173.825, 2.34432, 65.1872, 0.0872935, 161.5
1, 1800.00000, 126.336, -30.6496, 129.136, -150.751, 127.459, 88.2611, 0, 0, 2.36516, -53.7235, 2.31387, -173.825, 2.34432, 65.1872, 0.0872936, 161.5
1, 1860.00000, 126.336, -30.6496, 129.136, -150.751, 127.459, 88.2611, 0, 0, 2.36516, -53.7235, 2.31387, -173.825, 2.34432, 65.1872, 0.0872936, 161.5
1, 1920.00000, 126.336, -30.6496, 129.136, -150.751, 127.459, 88.2611, 0, 0, 2.36516, -53.7235, 2.31387, -173.825, 2.34432, 65.1872, 0.0872937, 161.5
1, 1980.00000, 126.336, -30.6496, 129.136, -150.751, 127.459, 88.2611, 0, 0, 2.36516, -53.7235, 2.31387, -173.825, 2.34432, 65.1872, 0.0872937, 161.5
1, 2040.00000, 126.727, -30.6106, 129.145, -150.746, 127.6, 88.4264, 0, 0, 2.35786, -53.6845, 2.31372, -173.82, 2.34174, 65.3525, 0.0755678, 164.195
1, 2100.00000, 126.727, -30.6106, 129.145, -150.746, 127.6, 88.4264, 0, 0, 2.35786, -53.6845, 2.31372, -173.82, 2.34174, 65.3525, 0.0755681, 164.195
1, 2160.00000, 126.727, -30.6106, 129.145, -150.746, 127.6, 88.4264, 0, 0, 2.35786, -53.6845, 2.31372, -173.82, 2.34174, 65.3525, 0.0755681, 164.195
1, 2220.00000, 126.727, -30.6106, 129.145, -150.746, 127.6, 88.4264, 0, 0, 2.35786, -53.6845, 2.31372, -173.82, 2.34174, 65.3525, 0.0755682, 164.195
1, 2280.00000, 126.727, -30.6106, 129.145, -150.746, 127.6, 88.4264, 0, 0, 2.35786, -53.6845, 2.31372, -173.82, 2.34174, 65.3525, 0.0755682, 164.195
1, 2340.00000, 126.727, -30.6106, 129.145, -150.746, 127.6, 88.4264, 0, 0, 2.35786, -53.6845, 2.31372, -173.82, 2.34174, 65.3525, 0.0755682, 164.195
1, 2400.00000, 126.727, -30.6106, 129.145, -150.746, 127.6, 88.4264, 0, 0, 2.35786, -53.6845, 2.31372, -173.82, 2.34174, 65.3525, 0.0755683, 164.195
1, 2460.00000, 126.727, -30.6106, 129.145, -150.746, 127.6, 88.4264, 0, 0, 2.35786, -53.6845, 2.31372, -173.82, 2.34174, 65.3525, 0.0755683, 164.195
1, 2520.00000, 127.137, -30.5694, 129.153, -150.74, 127.747, 88.6004, 0, 0, 2.35026, -53.6433, 2.31356, -173.814, 2.33903, 65.5265, 0.0635425, 168.031
1, 2580.00000, 127.137, -30.5694, 129.153, -150.74, 127.747, 88.6004, 0, 0, 2.35026, -53.6433, 2.31356, -173.814, 2.33903, 65.5265, 0.0635429, 168.031
1, 2640.00000, 127.137, -30.5694, 129.153, -150.74, 127.747, 88.6004, 0, 0, 2.35026, -53.6433, 2.31356, -173.814, 2.33903, 65.5265, 0.0635429, 168.031
1, 2700.00000, 127.137, -30.5694, 129.153, -150.74, 127.747, 88.6004, 0, 0, 2.35026, -53.6433, 2.31356, -173.814, 2.33903, 65.5265, 0.0635429, 168.031
1, 2760.00000, 127.138, -30.5689, 129.319, -150.578, 128.151, 88.6279, 0, 0, 2.35023, -53.6428, 2.3106, -173.652, 2.33166, 65.554, 0.0668309, 157.511
1, 2820.00000, 127.138, -30.5689, 129.319, -150.578, 128.151, 88.6279, 0, 0, 2.35023, -53.6428, 2.3106, -173.652, 2.33166, 65.554, 0.0668312, 157.511
1, 2880.00000, 127.138, -30.5689, 129.319, -150.578, 128.151, 88.6279, 0, 0, 2.35023, -53.6428, 2.3106, -173.652, 2.33166, 65.554, 0.0668312, 157.511
1, 2940.00000, 127.138, -30.5689, 129.319, -150.578, 128.151, 88.6279, 0, 0, 2.35023, -53.6428, 2.3106, -173.652, 2.33166, 65.554, 0.0668312, 157.511
1, 3000.00000, 127.138, -30.5689, 129.319, -150.578, 128.151, 88.6279, 0, 0, 2.35023, -53.6428, 2.3106, -173.652, 2.33166, 65.554, 0.0668312, 157.511
1, 3060.00000, 127.138, -30.5689, 129.319, -150.578, 128.151, 88.6279, 0, 0, 2.35023, -53.6428, 2.3106, -173.652, 2.33166, 65.554, 0.0668312, 157.511
1, 3120.00000, 127.138, -30.5689, 129.319, -150.578, 128.151, 88.6279, 0, 0, 2.35023, -53.6428, 2.3106, -173.652, 2.33166, 65.554, 0.0668313, 157.511
1, 3180.00000, 127.138, -30.5689, 129.319, -150.578, 128.151, 88.6279, 0, 0, 2.35023, -53.6428, 2.3106, -173.652, 2.33166, 65.554, 0.0668313, 157.511
1, 3240.00000, 127.138, -30.5689, 129.319, -150.578, 128.151, 88.6279, 0, 0, 2.35023, -53.6428, 2.3106, -173.652, 2.33166, 65.554, 0.0668313, 157.511
1, 3300.00000, 127.138, -30.5689, 129.319, -150.578, 128.151, 88.6279, 0, 0, 2.35023, -53.6428, 2.3106, -173.652, 2.33166, 65.554, 0.0668313, 157.511
1, 3360.00000, 127.138, -30.5689, 129.319, -150.578, 128.151, 88.6279, 0, 0, 2.35023, -53.6428, 2.3106, -173.652, 2.33166, 65.554, 0.0668313, 157.511
1, 3420.00000, 127.138, -30.5689, 129.319, -150.578, 128.151, 88.6279, 0, 0, 2.35023, -53.6428, 2.3106, -173.652, 2.33166, 65.554, 0.0668313, 157.511
1, 3480.00000, 127.138, -30.5689, 129.319, -150.578, 128.151, 88.6279, 0, 0, 2.35023, -53.6428, 2.3106, -173.652, 2.33166, 65.554, 0.0668313, 157.511
1, 3540.00000, 127.138, -30.5689, 129.319, -150.578, 128.151, 88.6279, 0, 0, 2.35023, -53.6428, 2.3106, -173.652, 2.33166, 65.554, 0.0668313, 157.511
2, 0.00000, 127.138, -30.5689, 129.319, -150.578, 128.151, 88.6279, 0, 0, 2.35023, -53.6428, 2.3106, -173.652, 2.33166, 65.554, 0.0668313, 157.511
2, 60.00000, 127.138, -30.5689, 129.319, -150.578, 128.151, 88.6279, 0, 0, 2.35023, -53.6428, 2.3106, -173.652, 2.33166, 65.554, 0.0668313, 157.511
2, 120.00000, 127.135, -30.57, 129.315, -150.579, 128.147, 88.6269, 0, 0, 2.3568, -53.644, 2.31706, -173.653, 2.33818, 65.553, 0.0670181, 157.509
2, 180.00000, 127.131, -30.5712, 129.312, -150.58, 128.143, 88.6258, 0, 0, 2.36345, -53.6451, 2.32359, -173.654, 2.34478, 65.5519, 0.067207, 157.507
2, 240.00000, 127.127, -30.5723, 129.308, -150.581, 128.14, 88.6248, 0, 0, 2.37002, -53.6462, 2.33005, -173.655, 2.3513, 65.5509, 0.0673938, 157.505
2, 300.00000, 127.123, -30.5734, 129.304, -150.583, 128.136, 88.6238, 0, 0, 2.3766, -53.6473, 2.33651, -173.656, 2.35782, 65.5499, 0.0675806, 157.503
2, 360.00000, 127.12, -30.5745, 129.301, -150.584, 128.132, 88.6227, 0, 0, 2.38325, -53.6485, 2.34305, -173.657, 2.36442, 65.5488, 0.0677696, 157.501
2, 420.00000, 127.116, -30.5757, 129.297, -150.585, 128.128, 88.6217, 0, 0, 2.38982, -53.6496, 2.3495, -173.659, 2.37094, 65.5478, 0.0679564, 157.499
2, 480.00000, 127.112, -30.5768, 129.294, -150.586, 128.125, 88.6207, 0, 0, 2.39639, -53.6507, 2.35596, -173.66, 2.37746, 65.5468, 0.0681432, 157.497
2, 540.00000, 127.109, -30.5779, 129.29, -150.587, 128.121, 88.6196, 0, 0, 2.40305, -53.6518, 2.3625, -173.661, 2.38406, 65.5457, 0.0683322, 157.495
2, 600.00000, 127.105, -30.579, 129.286, -150.588, 128.117, 88.6186, 0, 0, 2.40962, -53.653, 2.36896, -173.662, 2.39058, 65.5447, 0.0685191, 157.493
2, 660.00000, 127.101, -30.5802, 129.283, -150.589, 128.113, 88.6176, 0, 0, 2.41619, -53.6541, 2.37542, -173.663, 2.3971, 65.5437, 0.0687059, 157.491
2, 720.00000, 127.097, -30.5813, 129.279, -150.59, 128.11, 88.6165, 0, 0, 2.42285, -53.6552, 2.38196, -173.664, 2.40371, 65.5426, 0.068895, 157.489
