hour,t(sec),V1,VAngle1,V2,VAngle2,V3,VAngle3,V4,VAngle4,I1,IAngle1,I2,IAngle2,I3,IAngle3,I4,IAngle4
0, 60.00000, 128.316, -30.9725, 126.028, -151.788, 125.61, 89.6045, 0, 0, 1.69422, -54.0458, 1.72492, -174.861, 1.73069, 66.5307, 0.0703294, -61.0983
0, 120.00000, 128.349, -30.9778, 126.032, -151.803, 125.61, 89.6047, 0, 0, 1.69378, -54.0511, 1.72487, -174.876, 1.73069, 66.5309, 0.0711338, -61.1113
0, 180.00000, 128.379, -30.9825, 126.036, -151.816, 125.61, 89.6049, 0, 0, 1.69339, -54.0559, 1.72482, -174.889, 1.73068, 66.5311, 0.071858, -61.1224
0, 240.00000, 128.405, -30.9868, 126.04, -151.828, 125.61, 89.6051, 0, 0, 1.69303, -54.0602, 1.72477, -174.902, 1.73068, 66.5313, 0.0725098, -61.1318
0, 300.00000, 128.429, -30.9906, 126.043, -151.839, 125.611, 89.6053, 0, 0, 1.69271, -54.0641, 1.72473, -174.912, 1.73067, 66.5315, 0.0730966, -61.1399
0, 360.00000, 128.451, -30.9941, 126.045, -151.849, 125.611, 89.6055, 0, 0, 1.69243, -54.0676, 1.72469, -174.922, 1.73067, 66.5316, 0.0736248, -61.1468
0, 420.00000, 128.47, -30.9972, 126.048, -151.857, 125.611, 89.6056, 0, 0, 1.69217, -54.0708, 1.72466, -174.931, 1.73067, 66.5318, 0.0741002, -61.1528
0, 480.00000, 128.488, -31.0001, 126.05, -151.865, 125.611, 89.6057, 0, 0, 1.69194, -54.0737, 1.72463, -174.939, 1.73067, 66.5319, 0.0745281, -61.1579
0, 540.00000, 128.503, -31.0026, 126.052, -151.872, 125.611, 89.6059, 0, 0, 1.69173, -54.0763, 1.7246, -174.946, 1.73066, 66.532, 0.0749132, -61.1624
0, 600.00000, 128.517, -31.0049, 126.054, -151.879, 125.612, 89.606, 0, 0, 1.69154, -54.0786, 1.72458, -174.953, 1.73066, 66.5321, 0.0752599, -61.1663
0, 660.00000, 128.53, -31.007, 126.056, -151.885, 125.612, 89.6061, 0, 0, 1.69137, -54.0807, 1.72456, -174.958, 1.73066, 66.5322, 0.0755719, -61.1696
0, 720.00000, 128.542, -31.0089, 126.057, -151.89, 125.612, 89.6061, 0, 0, 1.69122, -54.0826, 1.72454, -174.964, 1.73066, 66.5323, 0.0758528, -61.1726
0, 780.00000, 128.552, -31.0105, 126.058, -151.894, 125.612, 89.6062, 0, 0, 1.69109, -54.0843, 1.72452, -174.968, 1.73066, 66.5323, 0.0761055, -61.1752
0, 840.00000, 128.561, -31.012, 126.059, -151.899, 125.612, 89.6063, 0, 0, 1.69096, -54.0858, 1.72451, -174.972, 1.73066, 66.5324, 0.0763331, -61.1775
0, 900.00000, 128.57, -31.0134, 126.061, -151.902, 125.612, 89.6063, 0, 0, 1.69085, -54.0872, 1.72449, -174.976, 1.73066, 66.5325, 0.0765378, -61.1795
0, 960.00000, 128.577, -31.0146, 126.061, -151.906, 125.612, 89.6064, 0, 0, 1.69075, -54.0884, 1.72448, -174.98, 1.73065, 66.5325, 0.0767221, -61.1812
0, 1020.00000, 128.584, -31.0157, 126.062, -151.909, 125.612, 89.6065, 0, 0, 1.69066, -54.0895, 1.72447, -174.983, 1.73065, 66.5326, 0.076888, -61.1828
0, 1080.00000, 128.59, -31.0167, 126.063, -151.912, 125.612, 89.6065, 0, 0, 1.69058, -54.0905, 1.72446, -174.986, 1.73065, 66.5326, 0.0770373, -61.1842
0, 1140.00000, 128.596, -31.0176, 126.064, -151.914, 125.612, 89.6065, 0, 0, 1.69051, -54.0914, 1.72445, -174.988, 1.73065, 66.5326, 0.0771717, -61.1854
0, 1200.00000, 128.6, -31.0184, 126.064, -151.916, 125.612, 89.6066, 0, 0, 1.69044, -54.0923, 1.72444, -174.99, 1.73065, 66.5327, 0.0772926, -61.1865
0, 1260.00000, 128.605, -31.0192, 126.065, -151.918, 125.612, 89.6066, 0, 0, 1.69038, -54.093, 1.72444, -174.992, 1.73065, 66.5327, 0.0774015, -61.1874
0, 1320.00000, 128.609, -31.0198, 126.065, -151.92, 125.613, 89.6066, 0, 0, 1.69033, -54.0937, 1.72443, -174.994, 1.73065, 66.5327, 0.0774994, -61.1883
0, 1380.00000, 128.613, -31.0204, 126.066, -151.922, 125.613, 89.6067, 0, 0, 1.69028, -54.0943, 1.72442, -174.996, 1.73065, 66.5328, 0.0775876, -61.1891
0, 1440.00000, 128.616, -31.0209, 126.066, -151.923, 125.613, 89.6067, 0, 0, 1.69024, -54.0948, 1.72442, -174.997, 1.73065, 66.5328, 0.077667, -61.1897
0, 1500.00000, 128.619, -31.0214, 126.067, -151.925, 125.613, 89.6067, 0, 0, 1.6902, -54.0953, 1.72441, -174.999, 1.73065, 66.5328, 0.0777384, -61.1903
0, 1560.00000, 128.621, -31.0219, 126.067, -151.926, 125.613, 89.6067, 0, 0, 1.69017, -54.0957, 1.72441, -175, 1.73065, 66.5328, 0.0778027, -61.1909
0, 1620.00000, 128.624, -31.0222, 126.067, -151.927, 125.613, 89.6068, 0, 0, 1.69014, -54.0961, 1.72441, -175.001, 1.73065, 66.5328, 0.0778605, -61.1914
0, 1680.00000, 128.626, -31.0226, 126.067, -151.928, 125.613, 89.6068, 0, 0, 1.69011, -54.0965, 1.7244, -175.002, 1.73065, 66.5329, 0.0779126, -61.1918
0, 1740.00000, 128.628, -31.0229, 126.068, -151.929, 125.613, 89.6068, 0, 0, 1.69008, -54.0968, 1.7244, -175.003, 1.73065, 66.5329, 0.0779594, -61.1922
0, 1800.00000, 127.651, -31.3835, 124.87, -151.744, 125.669, 89.594, 0, 0, 1.70301, -54.4574, 1.74094, -174.818, 1.72987, 66.5201, 0.0699333, -38.6385
0, 1860.00000, 127.653, -31.3838, 124.87, -151.744, 125.669, 89.594, 0, 0, 1.70299, -54.4577, 1.74094, -174.818, 1.72987, 66.5201, 0.069968, -38.651
0, 1920.00000, 127.654, -31.384, 124.87, -151.745, 125.669, 89.5941, 0, 0, 1.70297, -54.4579, 1.74094, -174.819, 1.72987, 66.5201, 0.0699996, -38.6625
0, 1980.00000, 127.655, -31.3842, 124.871, -151.746, 125.669, 89.5941, 0, 0, 1.70295, -54.4581, 1.74093, -174.819, 1.72987, 66.5202, 0.0700281, -38.6728
0, 2040.00000, 127.657, -31.3844, 124.871, -151.746, 125.669, 89.5941, 0, 0, 1.70294, -54.4583, 1.74093, -174.82, 1.72987, 66.5202, 0.0700537, -38.6821
0, 2100.00000, 127.658, -31.3845, 124.871, -151.747, 125.669, 89.5941, 0, 0, 1.70293, -54.4584, 1.74093, -174.82, 1.72987, 66.5202, 0.0700767, -38.6905
0, 2160.00000, 127.659, -31.3847, 124.871, -151.747, 125.669, 89.5941, 0, 0, 1.70291, -54.4586, 1.74093, -174.821, 1.72987, 66.5202, 0.0700975, -38.698
0, 2220.00000, 127.659, -31.3848, 124.871, -151.747, 125.669, 89.5941, 0, 0, 1.7029, -54.4587, 1.74093, -174.821, 1.72987, 66.5202, 0.0701161, -38.7048
0, 2280.00000, 127.66, -31.3849, 124.871, -151.748, 125.669, 89.5941, 0, 0, 1.70289, -54.4588, 1.74093, -174.822, 1.72987, 66.5202, 0.0701329, -38.7109
0, 2340.00000, 127.661, -31.385, 124.871, -151.748, 125.669, 89.5941, 0, 0, 1.70288, -54.4589, 1.74092, -174.822, 1.72987, 66.5202, 0.0701481, -38.7163
0, 2400.00000, 127.661, -31.3851, 124.871, -151.748, 125.67, 89.5941, 0, 0, 1.70288, -54.459, 1.74092, -174.822, 1.72987, 66.5202, 0.0701617, -38.7213
0, 2460.00000, 127.662, -31.3852, 124.871, -151.748, 125.67, 89.5941, 0, 0, 1.70287, -54.4591, 1.74092, -174.822, 1.72987, 66.5202, 0.0701739, -38.7257
0, 2520.00000, 127.662, -31.3853, 124.871, -151.749, 125.67, 89.5941, 0, 0, 1.70286, -54.4592, 1.74092, -174.823, 1.72987, 66.5202, 0.0701849, -38.7297
0, 2580.00000, 127.663, -31.3853, 124.871, -151.749, 125.67, 89.5941, 0, 0, 1.70286, -54.4593, 1.74092, -174.823, 1.72987, 66.5202, 0.0701949, -38.7333
0, 2640.00000, 127.663, -31.3854, 124.871, -151.749, 125.67, 89.5941, 0, 0, 1.70285, -54.4593, 1.74092, -174.823, 1.72987, 66.5202, 0.0702038, -38.7365
0, 2700.00000, 127.664, -31.3855, 124.872, -151.749, 125.67, 89.5941, 0, 0, 1.70285, -54.4594, 1.74092, -174.823, 1.72986, 66.5202, 0.0702118, -38.7394
0, 2760.00000, 127.664, -31.3855, 124.872, -151.749, 125.67, 89.5941, 0, 0, 1.70284, -54.4594, 1.74092, -174.823, 1.72986, 66.5202, 0.0702191, -38.742
0, 2820.00000, 127.664, -31.3856, 124.872, -151.749, 125.67, 89.5941, 0, 0, 1.70284, -54.4595, 1.74092, -174.823, 1.72986, 66.5202, 0.0702256, -38.7444
0, 2880.00000, 127.664, -31.3856, 124.872, -151.75, 125.67, 89.5941, 0, 0, 1.70283, -54.4595, 1.74092, -174.824, 1.72986, 66.5202, 0.0702314, -38.7465
0, 2940.00000, 127.665, -31.3856, 124.872, -151.75, 125.67, 89.5941, 0, 0, 1.70283, -54.4596, 1.74092, -174.824, 1.72986, 66.5202, 0.0702367, -38.7484
0, 3000.00000, 127.665, -31.3857, 124.872, -151.75, 125.67, 89.5941, 0, 0, 1.70283, -54.4596, 1.74092, -174.824, 1.72986, 66.5202, 0.0702415, -38.7501
0, 3060.00000, 127.665, -31.3857, 124.872, -151.75, 125.67, 89.5941, 0, 0, 1.70283, -54.4596, 1.74092, -174.824, 1.72986, 66.5202, 0.0702457, -38.7516
0, 3120.00000, 127.665, -31.3857, 124.872, -151.75, 125.67, 89.5941, 0, 0, 1.70282, -54.4596, 1.74092, -174.824, 1.72986, 66.5202, 0.0702496, -38.753
0, 3180.00000, 127.665, -31.3858, 124.872, -151.75, 125.67, 89.5941, 0, 0, 1.70282, -54.4597, 1.74092, -174.824, 1.72986, 66.5202, 0.070253, -38.7543
0, 3240.00000, 127.665, -31.3858, 124.872, -151.75, 125.67, 89.5941, 0, 0, 1.70282, -54.4597, 1.74092, -174.824, 1.72986, 66.5202, 0.0702562, -38.7554
0, 3300.00000, 127.666, -31.3858, 124.872, -151.75, 125.67, 89.5941, 0, 0, 1.70282, -54.4597, 1.74092, -174.824, 1.72986, 66.5202, 0.070259, -38.7564
0, 3360.00000, 127.666, -31.3858, 124.872, -151.75, 125.67, 89.5941, 0, 0, 1.70282, -54.4597, 1.74092, -174.824, 1.72986, 66.5202, 0.0702615, -38.7573
0, 3420.00000, 127.666, -31.3858, 124.872, -151.75, 125.67, 89.5941, 0, 0, 1.70282, -54.4597, 1.74092, -174.824, 1.72986, 66.5202, 0.0702638, -38.7581
0, 3480.00000, 127.666, -31.3858, 124.872, -151.75, 125.67, 89.5941, 0, 0, 1.70281, -54.4598, 1.74092, -174.824, 1.72986, 66.5202, 0.0702658, -38.7589
0, 3540.00000, 127.666, -31.3859, 124.872, -151.75, 125.67, 89.5941, 0, 0, 1.70281, -54.4598, 1.74092, -174.824, 1.72986, 66.5202, 0.0702676, -38.7595
1, 0.00000, 127.666, -31.3859, 124.872, -151.75, 125.67, 89.5941, 0, 0, 1.70281, -54.4598, 1.74092, -174.824, 1.72986, 66.5202, 0.0702693, -38.7601
1, 60.00000, 127.666, -31.3859, 124.872, -151.75, 125.67, 89.5941, 0, 0, 1.70281, -54.4598, 1.74091, -174.824, 1.72986, 66.5202, 0.0702708, -38.7607
1, 120.00000, 127.666, -31.3859, 124.872, -151.75, 125.67, 89.5941, 0, 0, 1.70281, -54.4598, 1.74091, -174.824, 1.72986, 66.5202, 0.0702721, -38.7612
1, 180.00000, 127.666, -31.3859, 124.872, -151.75, 125.67, 89.5941, 0, 0, 1.70281, -54.4598, 1.74091, -174.824, 1.72986, 66.5202, 0.0702733, -38.7616
1, 240.00000, 127.666, -31.3859, 124.872, -151.75, 125.67, 89.5941, 0, 0, 1.70281, -54.4598, 1.74091, -174.824, 1.72986, 66.5202, 0.0702744, -38.762
1, 300.00000, 127.666, -31.3859, 124.872, -151.75, 125.67, 89.5941, 0, 0, 1.70281, -54.4598, 1.74091, -174.824, 1.72986, 66.5202, 0.0702754, -38.7623
1, 360.00000, 127.666, -31.3859, 124.872, -151.751, 125.67, 89.5941, 0, 0, 1.70281, -54.4598, 1.74091, -174.824, 1.72986, 66.5202, 0.0702763, -38.7627
1, 420.00000, 127.666, -31.3859, 124.872, -151.751, 125.67, 89.5941, 0, 0, 1.70281, -54.4598, 1.74091, -174.824, 1.72986, 66.5202, 0.0702771, -38.7629
1, 480.00000, 127.666, -31.3859, 124.872, -151.751, 125.67, 89.5941, 0, 0, 1.70281, -54.4598, 1.74091, -174.824, 1.72986, 66.5202, 0.0702778, -38.7632
1, 540.00000, 127.666, -31.3859, 124.872, -151.751, 125.67, 89.5941, 0, 0, 1.70281, -54.4598, 1.74091, -174.824, 1.72986, 66.5202, 0.0702784, -38.7634
1, 600.00000, 127.666, -31.3859, 124.872, -151.751, 125.67, 89.5941, 0, 0, 1.70281, -54.4599, 1.74091, -174.824, 1.72986, 66.5202, 0.070279, -38.7636
1, 660.00000, 127.667, -31.3859, 124.872, -151.751, 125.67, 89.5941, 0, 0, 1.70281, -54.4599, 1.74091, -174.824, 1.72986, 66.5202, 0.0702795, -38.7638
1, 720.00000, 127.667, -31.3859, 124.872, -151.751, 125.67, 89.5941, 0, 0, 1.70281, -54.4599, 1.74091, -174.824, 1.72986, 66.5202, 0.07028, -38.764
1, 780.00000, 127.667, -31.3859, 124.872, -151.751, 125.67, 89.5941, 0, 0, 1.70281, -54.4599, 1.74091, -174.824, 1.72986, 66.5202, 0.0702804, -38.7641
1, 840.00000, 127.667, -31.3859, 124.872, -151.751, 125.67, 89.5941, 0, 0, 1.70281, -54.4599, 1.74091, -174.825, 1.72986, 66.5202, 0.0702808, -38.7643
1, 900.00000, 127.667, -31.3859, 124.872, -151.751, 125.67, 89.5941, 0, 0, 1.70281, -54.4599, 1.74091, -174.825, 1.72986, 66.5202, 0.0702811, -38.7644
1, 960.00000, 127.667, -31.386, 124.872, -151.751, 125.67, 89.5941, 0, 0, 1.7028, -54.4599, 1.74091, -174.825, 1.72986, 66.5202, 0.0702814, -38.7645
1, 1020.00000, 127.667, -31.386, 124.872, -151.751, 125.67, 89.5941, 0, 0, 1.7028, -54.4599, 1.74091, -174.825, 1.72986, 66.5202, 0.0702817, -38.7646
1, 1080.00000, 127.667, -31.386, 124.872, -151.751, 125.67, 89.5941, 0, 0, 1.7028, -54.4599, 1.74091, -174.825, 1.72986, 66.5202, 0.070282, -38.7647
1, 1140.00000, 127.667, -31.386, 124.872, -151.751, 125.67, 89.5941, 0, 0, 1.7028, -54.4599, 1.74091, -174.825, 1.72986, 66.5202, 0.0702822, -38.7648
1, 1200.00000, 127.667, -31.386, 124.872, -151.751, 125.67, 89.5941, 0, 0, 1.7028, -54.4599, 1.74091, -174.825, 1.72986, 66.5202, 0.0702824, -38.7649
1, 1260.00000, 127.667, -31.386, 124.872, -151.751, 125.67, 89.5941, 0, 0, 1.7028, -54.4599, 1.74091, -174.825, 1.72986, 66.5202, 0.0702826, -38.7649
1, 1320.00000, 127.667, -31.386, 124.872, -151.751, 125.67, 89.5941, 0, 0, 1.7028, -54.4599, 1.74091, -174.825, 1.72986, 66.5202, 0.0702827, -38.765
1, 1380.00000, 127.667, -31.386, 124.872, -151.751, 125.67, 89.5941, 0, 0, 1.7028, -54.4599, 1.74091, -174.825, 1.72986, 66.5202, 0.0702829, -38.765
1, 1440.00000, 127.667, -31.386, 124.872, -151.751, 125.67, 89.5941, 0, 0, 1.7028, -54.4599, 1.74091, -174.825, 1.72986, 66.5202, 0.070283, -38.7651
1, 1500.00000, 127.667, -31.386, 124.872, -151.751, 125.67, 89.5941, 0, 0, 1.7028, -54.4599, 1.74091, -174.825, 1.72986, 66.5202, 0.0702831, -38.7651
1, 1560.00000, 127.667, -31.386, 124.872, -151.751, 125.67, 89.5941, 0, 0, 1.7028, -54.4599, 1.74091, -174.825, 1.72986, 66.5202, 0.0702832, -38.7652
1, 1620.00000, 127.667, -31.386, 124.872, -151.751, 125.67, 89.5941, 0, 0, 1.7028, -54.4599, 1.74091, -174.825, 1.72986, 66.5202, 0.0702833, -38.7652
1, 1680.00000, 127.667, -31.386, 124.872, -151.751, 125.67, 89.5941, 0, 0, 1.7028, -54.4599, 1.74091, -174.825, 1.72986, 66.5202, 0.0702834, -38.7652
1, 1740.00000, 127.667, -31.386, 124.872, -151.751, 125.67, 89.5941, 0, 0, 1.7028, -54.4599, 1.74091, -174.825, 1.72986, 66.5202, 0.0702835, -38.7653
1, 1800.00000, 127.667, -31.386, 124.872, -151.751, 125.67, 89.5942, 0, 0, 1.7028, -54.4599, 1.74091, -174.825, 1.72986, 66.5202, 0.0702836, -38.7653
1, 1860.00000, 127.667, -31.386, 124.872, -151.751, 125.67, 89.5942, 0, 0, 1.7028, -54.4599, 1.74091, -174.825, 1.72986, 66.5202, 0.0702836, -38.7653
1, 1920.00000, 127.667, -31.386, 124.872, -151.751, 125.67, 89.5942, 0, 0, 1.7028, -54.4599, 1.74091, -174.825, 1.72986, 66.5202, 0.0702837, -38.7653
1, 1980.00000, 127.667, -31.386, 124.872, -151.751, 125.67, 89.5942, 0, 0, 1.7028, -54.4599, 1.74091, -174.825, 1.72986, 66.5202, 0.0702837, -38.7653
1, 2040.00000, 127.667, -31.386, 124.872, -151.751, 125.67, 89.5942, 0, 0, 1.7028, -54.4599, 1.74091, -174.825, 1.72986, 66.5202, 0.0702838, -38.7654
1, 2100.00000, 127.667, -31.386, 124.872, -151.751, 125.67, 89.5942, 0, 0, 1.7028, -54.4599, 1.74091, -174.825, 1.72986, 66.5202, 0.0702838, -38.7654
1, 2160.00000, 127.667, -31.386, 124.872, -151.751, 125.67, 89.5942, 0, 0, 1.7028, -54.4599, 1.74091, -174.825, 1.72986, 66.5202, 0.0702839, -38.7654
1, 2220.00000, 127.667, -31.386, 124.872, -151.751, 125.67, 89.5942, 0, 0, 1.7028, -54.4599, 1.74091, -174.825, 1.72986, 66.5202, 0.0702839, -38.7654
1, 2280.00000, 127.667, -31.386, 124.872, -151.751, 125.67, 89.5942, 0, 0, 1.7028, -54.4599, 1.74091, -174.825, 1.72986, 66.5202, 0.0702839, -38.7654
1, 2340.00000, 127.667, -31.386, 124.872, -151.751, 125.67, 89.5942, 0, 0, 1.7028, -54.4599, 1.74091, -174.825, 1.72986, 66.5202, 0.0702839, -38.7654
1, 2400.00000, 127.667, -31.386, 124.872, -151.751, 125.67, 89.5942, 0, 0, 1.7028, -54.4599, 1.74091, -174.825, 1.72986, 66.5202, 0.070284, -38.7654
1, 2460.00000, 127.667, -31.386, 124.872, -151.751, 125.67, 89.5942, 0, 0, 1.7028, -54.4599, 1.74091, -174.825, 1.72986, 66.5202, 0.070284, -38.7654
1, 2520.00000, 127.667, -31.386, 124.872, -151.751, 125.67, 89.5942, 0, 0, 1.7028, -54.4599, 1.74091, -174.825, 1.72986, 66.5202, 0.070284, -38.7654
1, 2580.00000, 127.667, -31.386, 124.872, -151.751, 125.67, 89.5942, 0, 0, 1.7028, -54.4599, 1.74091, -174.825, 1.72986, 66.5202, 0.070284, -38.7654
1, 2640.00000, 127.667, -31.386, 124.872, -151.751, 125.67, 89.5942, 0, 0, 1.7028, -54.4599, 1.74091, -174.825, 1.72986, 66.5202, 0.0702841, -38.7655
1, 2700.00000, 127.667, -31.386, 124.872, -151.751, 125.67, 89.5942, 0, 0, 1.7028, -54.4599, 1.74091, -174.825, 1.72986, 66.5202, 0.0702841, -38.7655
1, 2760.00000, 127.667, -31.386, 124.872, -151.751, 125.67, 89.5942, 0, 0, 1.7028, -54.4599, 1.74091, -174.825, 1.72986, 66.5202, 0.0702841, -38.7655
1, 2820.00000, 127.667, -31.386, 124.872, -151.751, 125.67, 89.5942, 0, 0, 1.7028, -54.4599, 1.74091, -174.825, 1.72986, 66.5202, 0.0702841, -38.7655
1, 2880.00000, 127.667, -31.386, 124.872, -151.751, 125.67, 89.5942, 0, 0, 1.7028, -54.4599, 1.74091, -174.825, 1.72986, 66.5202, 0.0702841, -38.7655
1, 2940.00000, 127.667, -31.386, 124.872, -151.751, 125.67, 89.5942, 0, 0, 1.7028, -54.4599, 1.74091, -174.825, 1.72986, 66.5202, 0.0702841, -38.7655
1, 3000.00000, 127.667, -31.386, 124.872, -151.751, 125.67, 89.5942, 0, 0, 1.7028, -54.4599, 1.74091, -174.825, 1.72986, 66.5202, 0.0702841, -38.7655
1, 3060.00000, 127.667, -31.386, 124.872, -151.751, 125.67, 89.5942, 0, 0, 1.7028, -54.4599, 1.74091, -174.825, 1.72986, 66.5202, 0.0702841, -38.7655
1, 3120.00000, 127.667, -31.386, 124.872, -151.751, 125.67, 89.5942, 0, 0, 1.7028, -54.4599, 1.74091, -174.825, 1.72986, 66.5202, 0.0702841, -38.7655
1, 3180.00000, 127.667, -31.386, 124.872, -151.751, 125.67, 89.5942, 0, 0, 1.7028, -54.4599, 1.74091, -174.825, 1.72986, 66.5202, 0.0702841, -38.7655
1, 3240.00000, 127.667, -31.386, 124.872, -151.751, 125.67, 89.5942, 0, 0, 1.7028, -54.4599, 1.74091, -174.825, 1.72986, 66.5202, 0.0702842, -38.7655
1, 3300.00000, 127.667, -31.386, 124.872, -151.751, 125.67, 89.5942, 0, 0, 1.7028, -54.4599, 1.74091, -174.825, 1.72986, 66.5202, 0.0702842, -38.7655
1, 3360.00000, 127.667, -31.386, 124.872, -151.751, 125.67, 89.5942, 0, 0, 1.7028, -54.4599, 1.74091, -174.825, 1.72986, 66.5202, 0.0702842, -38.7655
1, 3420.00000, 127.667, -31.386, 124.872, -151.751, 125.67, 89.5942, 0, 0, 1.7028, -54.4599, 1.74091, -174.825, 1.72986, 66.5202, 0.0702842, -38.7655
1, 3480.00000, 127.667, -31.386, 124.872, -151.751, 125.67, 89.5942, 0, 0, 1.7028, -54.4599, 1.74091, -174.825, 1.72986, 66.5202, 0.0702842, -38.7655
1, 3540.00000, 127.667, -31.386, 124.872, -151.751, 125.67, 89.5942, 0, 0, 1.7028, -54.4599, 1.74091, -174.825, 1.72986, 66.5202, 0.0702842, -38.7655
2, 0.00000, 127.667, -31.386, 124.872, -151.751, 125.67, 89.5942, 0, 0, 1.7028, -54.4599, 1.74091, -174.825, 1.72986, 66.5202, 0.0702842, -38.7655
2, 60.00000, 127.667, -31.386, 124.872, -151.751, 125.67, 89.5942, 0, 0, 1.7028, -54.4599, 1.74091, -174.825, 1.72986, 66.5202, 0.0702842, -38.7655
2, 120.00000, 127.659, -31.387, 124.865, -151.752, 125.663, 89.5932, 0, 0, 1.70761, -54.4609, 1.74583, -174.825, 1.73475, 66.5193, 0.0704758, -38.761
2, 180.00000, 127.652, -31.388, 124.858, -151.752, 125.656, 89.5922, 0, 0, 1.71248, -54.4619, 1.7508, -174.826, 1.73968, 66.5183, 0.0706697, -38.7564
2, 240.00000, 127.644, -31.389, 124.851, -151.753, 125.649, 89.5913, 0, 0, 1.71729, -54.4629, 1.75572, -174.827, 1.74457, 66.5173, 0.0708613, -38.7519
2, 300.00000, 127.637, -31.39, 124.844, -151.754, 125.642, 89.5903, 0, 0, 1.72211, -54.4639, 1.76063, -174.828, 1.74945, 66.5164, 0.0710529, -38.7474
2, 360.00000, 127.629, -31.391, 124.837, -151.755, 125.635, 89.5893, 0, 0, 1.72698, -54.4649, 1.76561, -174.829, 1.75439, 66.5154, 0.0712468, -38.7428
2, 420.00000, 127.622, -31.392, 124.83, -151.756, 125.628, 89.5884, 0, 0, 1.73179, -54.4659, 1.77052, -174.83, 1.75927, 66.5145, 0.0714383, -38.7383
2, 480.00000, 127.614, -31.393, 124.823, -151.757, 125.621, 89.5874, 0, 0, 1.73661, -54.4669, 1.77544, -174.831, 1.76416, 66.5135, 0.0716298, -38.7338
2, 540.00000, 127.607, -31.394, 124.816, -151.757, 125.614, 89.5864, 0, 0, 1.74148, -54.4679, 1.78042, -174.831, 1.7691, 66.5125, 0.0718236, -38.7292
2, 600.00000, 127.599, -31.395, 124.809, -151.758, 125.608, 89.5855, 0, 0, 1.74629, -54.4689, 1.78534, -174.832, 1.77399, 66.5116, 0.0720151, -38.7247
2, 660.00000, 127.592, -31.396, 124.802, -151.759, 125.601, 89.5845, 0, 0, 1.75111, -54.4699, 1.79025, -174.833, 1.77887, 66.5106, 0.0722066, -38.7201
2, 720.00000, 127.584, -31.397, 124.795, -151.76, 125.594, 89.5836, 0, 0, 1.75598, -54.4709, 1.79523, -174.834, 1.78382, 66.5096, 0.0724003, -38.7155
