hour,t(sec),V1,VAngle1,V2,VAngle2,V3,VAngle3,V4,VAngle4,I1,IAngle1,I2,IAngle2,I3,IAngle3,I4,IAngle4
0, 60.00000, 127.609, -30.9677, 125.363, -151.748, 124.981, 89.6545, 0, 0, 2.38506, -54.041, 2.42771, -174.821, 2.43515, 66.5807, 0.0981962, -59.7885
0, 120.00000, 127.642, -30.9729, 125.367, -151.763, 124.981, 89.6547, 0, 0, 2.38443, -54.0463, 2.42763, -174.836, 2.43514, 66.5809, 0.0993353, -59.8164
0, 180.00000, 127.672, -30.9776, 125.371, -151.776, 124.982, 89.6549, 0, 0, 2.38387, -54.051, 2.42756, -174.85, 2.43514, 66.5811, 0.100361, -59.8406
0, 240.00000, 127.698, -30.9819, 125.374, -151.788, 124.982, 89.655, 0, 0, 2.38337, -54.0553, 2.4275, -174.862, 2.43513, 66.5812, 0.101284, -59.8617
0, 300.00000, 127.723, -30.9857, 125.377, -151.799, 124.982, 89.6552, 0, 0, 2.38291, -54.0592, 2.42744, -174.873, 2.43513, 66.5813, 0.102115, -59.88
0, 360.00000, 127.744, -30.9892, 125.38, -151.809, 124.982, 89.6553, 0, 0, 2.38251, -54.0627, 2.42739, -174.882, 2.43512, 66.5815, 0.102863, -59.896
0, 420.00000, 127.764, -30.9923, 125.382, -151.817, 124.983, 89.6554, 0, 0, 2.38214, -54.0659, 2.42734, -174.891, 2.43512, 66.5816, 0.103536, -59.91
0, 480.00000, 127.782, -30.9951, 125.384, -151.825, 124.983, 89.6555, 0, 0, 2.38181, -54.0687, 2.4273, -174.899, 2.43512, 66.5817, 0.104142, -59.9223
0, 540.00000, 127.797, -30.9976, 125.386, -151.833, 124.983, 89.6556, 0, 0, 2.38151, -54.0713, 2.42727, -174.906, 2.43511, 66.5818, 0.104688, -59.9332
0, 600.00000, 127.812, -30.9999, 125.388, -151.839, 124.983, 89.6557, 0, 0, 2.38124, -54.0736, 2.42723, -174.913, 2.43511, 66.5819, 0.105179, -59.9427
0, 660.00000, 127.824, -31.002, 125.39, -151.845, 124.983, 89.6558, 0, 0, 2.381, -54.0757, 2.4272, -174.918, 2.43511, 66.5819, 0.105621, -59.9511
0, 720.00000, 127.836, -31.0038, 125.391, -151.85, 124.983, 89.6559, 0, 0, 2.38078, -54.0775, 2.42718, -174.924, 2.43511, 66.582, 0.106018, -59.9586
0, 780.00000, 127.846, -31.0055, 125.392, -151.855, 124.983, 89.6559, 0, 0, 2.38059, -54.0792, 2.42715, -174.928, 2.4351, 66.5821, 0.106376, -59.9652
0, 840.00000, 127.856, -31.007, 125.394, -151.859, 124.984, 89.656, 0, 0, 2.38041, -54.0808, 2.42713, -174.933, 2.4351, 66.5821, 0.106699, -59.9711
0, 900.00000, 127.864, -31.0084, 125.395, -151.863, 124.984, 89.656, 0, 0, 2.38025, -54.0821, 2.42711, -174.936, 2.4351, 66.5822, 0.106989, -59.9764
0, 960.00000, 127.872, -31.0096, 125.396, -151.866, 124.984, 89.6561, 0, 0, 2.38011, -54.0834, 2.4271, -174.94, 2.4351, 66.5822, 0.10725, -59.981
0, 1020.00000, 127.879, -31.0107, 125.396, -151.869, 124.984, 89.6561, 0, 0, 2.37998, -54.0845, 2.42708, -174.943, 2.4351, 66.5822, 0.107485, -59.9852
0, 1080.00000, 127.885, -31.0117, 125.397, -151.872, 124.984, 89.6562, 0, 0, 2.37987, -54.0855, 2.42707, -174.946, 2.4351, 66.5823, 0.107696, -59.9889
0, 1140.00000, 127.89, -31.0126, 125.398, -151.874, 124.984, 89.6562, 0, 0, 2.37977, -54.0864, 2.42705, -174.948, 2.4351, 66.5823, 0.107886, -59.9922
0, 1200.00000, 127.895, -31.0134, 125.398, -151.877, 124.984, 89.6562, 0, 0, 2.37967, -54.0872, 2.42704, -174.95, 2.4351, 66.5823, 0.108058, -59.9951
0, 1260.00000, 127.9, -31.0141, 125.399, -151.879, 124.984, 89.6563, 0, 0, 2.37959, -54.0879, 2.42703, -174.952, 2.43509, 66.5824, 0.108212, -59.9978
0, 1320.00000, 127.904, -31.0147, 125.399, -151.88, 124.984, 89.6563, 0, 0, 2.37951, -54.0886, 2.42702, -174.954, 2.43509, 66.5824, 0.108351, -60.0001
0, 1380.00000, 127.907, -31.0153, 125.4, -151.882, 124.984, 89.6563, 0, 0, 2.37944, -54.0892, 2.42702, -174.956, 2.43509, 66.5824, 0.108476, -60.0022
0, 1440.00000, 127.911, -31.0159, 125.4, -151.883, 124.984, 89.6563, 0, 0, 2.37938, -54.0897, 2.42701, -174.957, 2.43509, 66.5824, 0.108588, -60.0041
0, 1500.00000, 127.914, -31.0163, 125.401, -151.885, 124.984, 89.6563, 0, 0, 2.37933, -54.0902, 2.427, -174.959, 2.43509, 66.5824, 0.108689, -60.0058
0, 1560.00000, 127.916, -31.0168, 125.401, -151.886, 124.984, 89.6564, 0, 0, 2.37928, -54.0906, 2.427, -174.96, 2.43509, 66.5825, 0.10878, -60.0074
0, 1620.00000, 127.919, -31.0171, 125.401, -151.887, 124.984, 89.6564, 0, 0, 2.37923, -54.091, 2.42699, -174.961, 2.43509, 66.5825, 0.108862, -60.0087
0, 1680.00000, 127.921, -31.0175, 125.401, -151.888, 124.984, 89.6564, 0, 0, 2.37919, -54.0914, 2.42699, -174.962, 2.43509, 66.5825, 0.108936, -60.0099
0, 1740.00000, 127.923, -31.0178, 125.402, -151.889, 124.984, 89.6564, 0, 0, 2.37916, -54.0917, 2.42698, -174.963, 2.43509, 66.5825, 0.109002, -60.011
0, 1800.00000, 126.002, -31.5696, 123.374, -151.411, 125.087, 89.6311, 0, 0, 2.41542, -54.6435, 2.46687, -174.485, 2.43309, 66.5571, 0.0932628, -15.7118
0, 1860.00000, 126.004, -31.5699, 123.374, -151.412, 125.087, 89.6311, 0, 0, 2.41539, -54.6438, 2.46687, -174.486, 2.43309, 66.5572, 0.0933001, -15.7362
0, 1920.00000, 126.005, -31.5701, 123.374, -151.413, 125.087, 89.6311, 0, 0, 2.41536, -54.644, 2.46687, -174.487, 2.43309, 66.5572, 0.0933339, -15.7587
0, 1980.00000, 126.006, -31.5703, 123.374, -151.413, 125.087, 89.6311, 0, 0, 2.41534, -54.6442, 2.46686, -174.487, 2.43309, 66.5572, 0.0933643, -15.779
0, 2040.00000, 126.008, -31.5704, 123.375, -151.414, 125.087, 89.6311, 0, 0, 2.41532, -54.6443, 2.46686, -174.488, 2.43309, 66.5572, 0.0933917, -15.7972
0, 2100.00000, 126.009, -31.5706, 123.375, -151.414, 125.087, 89.6311, 0, 0, 2.4153, -54.6445, 2.46686, -174.488, 2.43309, 66.5572, 0.0934163, -15.8136
0, 2160.00000, 126.009, -31.5707, 123.375, -151.415, 125.087, 89.6311, 0, 0, 2.41528, -54.6446, 2.46686, -174.489, 2.43309, 66.5572, 0.0934386, -15.8284
0, 2220.00000, 126.01, -31.5708, 123.375, -151.415, 125.087, 89.6311, 0, 0, 2.41526, -54.6448, 2.46685, -174.489, 2.43309, 66.5572, 0.0934585, -15.8416
0, 2280.00000, 126.011, -31.571, 123.375, -151.416, 125.087, 89.6311, 0, 0, 2.41525, -54.6449, 2.46685, -174.489, 2.43309, 66.5572, 0.0934765, -15.8536
0, 2340.00000, 126.012, -31.5711, 123.375, -151.416, 125.087, 89.6311, 0, 0, 2.41523, -54.645, 2.46685, -174.49, 2.43309, 66.5572, 0.0934927, -15.8643
0, 2400.00000, 126.012, -31.5712, 123.375, -151.416, 125.087, 89.6311, 0, 0, 2.41522, -54.6451, 2.46685, -174.49, 2.43309, 66.5572, 0.0935073, -15.874
0, 2460.00000, 126.013, -31.5712, 123.375, -151.416, 125.087, 89.6311, 0, 0, 2.41521, -54.6451, 2.46685, -174.49, 2.43309, 66.5572, 0.0935204, -15.8827
0, 2520.00000, 126.013, -31.5713, 123.375, -151.417, 125.087, 89.6311, 0, 0, 2.4152, -54.6452, 2.46685, -174.49, 2.43309, 66.5572, 0.0935322, -15.8905
0, 2580.00000, 126.014, -31.5714, 123.375, -151.417, 125.087, 89.6311, 0, 0, 2.41519, -54.6453, 2.46684, -174.491, 2.43309, 66.5572, 0.0935429, -15.8975
0, 2640.00000, 126.014, -31.5714, 123.375, -151.417, 125.087, 89.6311, 0, 0, 2.41519, -54.6453, 2.46684, -174.491, 2.43309, 66.5572, 0.0935525, -15.9038
0, 2700.00000, 126.015, -31.5715, 123.375, -151.417, 125.087, 89.6311, 0, 0, 2.41518, -54.6454, 2.46684, -174.491, 2.43309, 66.5572, 0.0935611, -15.9095
0, 2760.00000, 126.015, -31.5715, 123.375, -151.417, 125.087, 89.6311, 0, 0, 2.41517, -54.6455, 2.46684, -174.491, 2.43309, 66.5572, 0.0935688, -15.9147
0, 2820.00000, 126.015, -31.5716, 123.376, -151.417, 125.087, 89.6311, 0, 0, 2.41517, -54.6455, 2.46684, -174.491, 2.43309, 66.5572, 0.0935758, -15.9193
0, 2880.00000, 126.015, -31.5716, 123.376, -151.417, 125.087, 89.6311, 0, 0, 2.41516, -54.6455, 2.46684, -174.491, 2.43309, 66.5572, 0.0935821, -15.9234
0, 2940.00000, 126.016, -31.5717, 123.376, -151.418, 125.087, 89.6311, 0, 0, 2.41516, -54.6456, 2.46684, -174.492, 2.43309, 66.5572, 0.0935878, -15.9272
0, 3000.00000, 126.016, -31.5717, 123.376, -151.418, 125.087, 89.6311, 0, 0, 2.41515, -54.6456, 2.46684, -174.492, 2.43309, 66.5572, 0.0935928, -15.9305
0, 3060.00000, 126.016, -31.5717, 123.376, -151.418, 125.087, 89.6311, 0, 0, 2.41515, -54.6456, 2.46684, -174.492, 2.43309, 66.5572, 0.0935974, -15.9335
0, 3120.00000, 126.016, -31.5717, 123.376, -151.418, 125.087, 89.6311, 0, 0, 2.41515, -54.6457, 2.46684, -174.492, 2.43309, 66.5572, 0.0936016, -15.9363
0, 3180.00000, 126.016, -31.5718, 123.376, -151.418, 125.087, 89.6311, 0, 0, 2.41514, -54.6457, 2.46684, -174.492, 2.43309, 66.5572, 0.0936053, -15.9387
0, 3240.00000, 126.017, -31.5718, 123.376, -151.418, 125.087, 89.6311, 0, 0, 2.41514, -54.6457, 2.46684, -174.492, 2.43309, 66.5572, 0.0936086, -15.9409
0, 3300.00000, 126.017, -31.5718, 123.376, -151.418, 125.087, 89.6311, 0, 0, 2.41514, -54.6457, 2.46684, -174.492, 2.43309, 66.5572, 0.0936116, -15.9429
0, 3360.00000, 126.017, -31.5718, 123.376, -151.418, 125.087, 89.6311, 0, 0, 2.41514, -54.6457, 2.46684, -174.492, 2.43309, 66.5572, 0.0936143, -15.9447
0, 3420.00000, 126.017, -31.5718, 123.376, -151.418, 125.087, 89.6311, 0, 0, 2.41514, -54.6458, 2.46684, -174.492, 2.43309, 66.5572, 0.0936168, -15.9463
0, 3480.00000, 126.017, -31.5718, 123.376, -151.418, 125.087, 89.6311, 0, 0, 2.41513, -54.6458, 2.46684, -174.492, 2.43309, 66.5572, 0.0936189, -15.9477
0, 3540.00000, 126.017, -31.5719, 123.376, -151.418, 125.087, 89.6311, 0, 0, 2.41513, -54.6458, 2.46684, -174.492, 2.43309, 66.5572, 0.0936209, -15.949
1, 0.00000, 126.017, -31.5719, 123.376, -151.418, 125.087, 89.6311, 0, 0, 2.41513, -54.6458, 2.46684, -174.492, 2.43309, 66.5572, 0.0936227, -15.9502
1, 60.00000, 126.017, -31.5719, 123.376, -151.418, 125.087, 89.6311, 0, 0, 2.41513, -54.6458, 2.46684, -174.492, 2.43309, 66.5572, 0.0936243, -15.9513
1, 120.00000, 126.017, -31.5719, 123.376, -151.418, 125.087, 89.6311, 0, 0, 2.41513, -54.6458, 2.46684, -174.492, 2.43309, 66.5572, 0.0936257, -15.9522
1, 180.00000, 126.017, -31.5719, 123.376, -151.418, 125.087, 89.6311, 0, 0, 2.41513, -54.6458, 2.46684, -174.492, 2.43309, 66.5572, 0.093627, -15.9531
1, 240.00000, 126.017, -31.5719, 123.376, -151.418, 125.087, 89.6311, 0, 0, 2.41513, -54.6458, 2.46684, -174.492, 2.43309, 66.5572, 0.0936282, -15.9538
1, 300.00000, 126.017, -31.5719, 123.376, -151.418, 125.087, 89.6311, 0, 0, 2.41513, -54.6458, 2.46684, -174.492, 2.43309, 66.5572, 0.0936292, -15.9545
1, 360.00000, 126.017, -31.5719, 123.376, -151.418, 125.087, 89.6311, 0, 0, 2.41512, -54.6458, 2.46684, -174.492, 2.43309, 66.5572, 0.0936302, -15.9552
1, 420.00000, 126.017, -31.5719, 123.376, -151.418, 125.087, 89.6311, 0, 0, 2.41512, -54.6458, 2.46684, -174.492, 2.43309, 66.5572, 0.093631, -15.9557
1, 480.00000, 126.018, -31.5719, 123.376, -151.418, 125.087, 89.6311, 0, 0, 2.41512, -54.6458, 2.46684, -174.492, 2.43309, 66.5572, 0.0936318, -15.9562
1, 540.00000, 126.018, -31.5719, 123.376, -151.418, 125.087, 89.6311, 0, 0, 2.41512, -54.6459, 2.46684, -174.492, 2.43309, 66.5572, 0.0936325, -15.9567
1, 600.00000, 126.018, -31.5719, 123.376, -151.418, 125.087, 89.6311, 0, 0, 2.41512, -54.6459, 2.46684, -174.492, 2.43309, 66.5572, 0.0936331, -15.9571
1, 660.00000, 126.018, -31.5719, 123.376, -151.418, 125.087, 89.6311, 0, 0, 2.41512, -54.6459, 2.46684, -174.492, 2.43309, 66.5572, 0.0936337, -15.9574
1, 720.00000, 126.018, -31.5719, 123.376, -151.418, 125.087, 89.6311, 0, 0, 2.41512, -54.6459, 2.46684, -174.492, 2.43309, 66.5572, 0.0936342, -15.9578
1, 780.00000, 126.018, -31.5719, 123.376, -151.418, 125.087, 89.6311, 0, 0, 2.41512, -54.6459, 2.46684, -174.492, 2.43309, 66.5572, 0.0936346, -15.9581
1, 840.00000, 126.018, -31.572, 123.376, -151.418, 125.087, 89.6311, 0, 0, 2.41512, -54.6459, 2.46684, -174.492, 2.43309, 66.5572, 0.093635, -15.9583
1, 900.00000, 126.018, -31.572, 123.376, -151.418, 125.087, 89.6311, 0, 0, 2.41512, -54.6459, 2.46683, -174.492, 2.43309, 66.5572, 0.0936354, -15.9586
1, 960.00000, 126.018, -31.572, 123.376, -151.418, 125.087, 89.6311, 0, 0, 2.41512, -54.6459, 2.46683, -174.492, 2.43309, 66.5572, 0.0936357, -15.9588
1, 1020.00000, 126.018, -31.572, 123.376, -151.419, 125.087, 89.6311, 0, 0, 2.41512, -54.6459, 2.46683, -174.492, 2.43309, 66.5572, 0.093636, -15.959
1, 1080.00000, 126.018, -31.572, 123.376, -151.419, 125.087, 89.6311, 0, 0, 2.41512, -54.6459, 2.46683, -174.492, 2.43309, 66.5572, 0.0936363, -15.9592
1, 1140.00000, 126.018, -31.572, 123.376, -151.419, 125.087, 89.6311, 0, 0, 2.41512, -54.6459, 2.46683, -174.492, 2.43309, 66.5572, 0.0936365, -15.9593
1, 1200.00000, 126.018, -31.572, 123.376, -151.419, 125.087, 89.6311, 0, 0, 2.41512, -54.6459, 2.46683, -174.492, 2.43309, 66.5572, 0.0936367, -15.9595
1, 1260.00000, 126.018, -31.572, 123.376, -151.419, 125.087, 89.6311, 0, 0, 2.41512, -54.6459, 2.46683, -174.492, 2.43309, 66.5572, 0.0936369, -15.9596
1, 1320.00000, 126.018, -31.572, 123.376, -151.419, 125.087, 89.6311, 0, 0, 2.41512, -54.6459, 2.46683, -174.492, 2.43309, 66.5572, 0.0936371, -15.9597
1, 1380.00000, 126.018, -31.572, 123.376, -151.419, 125.087, 89.6311, 0, 0, 2.41512, -54.6459, 2.46683, -174.492, 2.43309, 66.5572, 0.0936373, -15.9598
1, 1440.00000, 126.018, -31.572, 123.376, -151.419, 125.087, 89.6311, 0, 0, 2.41512, -54.6459, 2.46683, -174.492, 2.43309, 66.5572, 0.0936374, -15.9599
1, 1500.00000, 126.018, -31.572, 123.376, -151.419, 125.087, 89.6311, 0, 0, 2.41512, -54.6459, 2.46683, -174.492, 2.43309, 66.5572, 0.0936375, -15.96
1, 1560.00000, 126.018, -31.572, 123.376, -151.419, 125.087, 89.6311, 0, 0, 2.41512, -54.6459, 2.46683, -174.492, 2.43309, 66.5572, 0.0936376, -15.9601
1, 1620.00000, 126.018, -31.572, 123.376, -151.419, 125.087, 89.6311, 0, 0, 2.41512, -54.6459, 2.46683, -174.492, 2.43309, 66.5572, 0.0936377, -15.9601
1, 1680.00000, 126.018, -31.572, 123.376, -151.419, 125.087, 89.6311, 0, 0, 2.41512, -54.6459, 2.46683, -174.492, 2.43309, 66.5572, 0.0936378, -15.9602
1, 1740.00000, 126.018, -31.572, 123.376, -151.419, 125.087, 89.6311, 0, 0, 2.41512, -54.6459, 2.46683, -174.492, 2.43309, 66.5572, 0.0936379, -15.9603
1, 1800.00000, 126.018, -31.572, 123.376, -151.419, 125.087, 89.6311, 0, 0, 2.41512, -54.6459, 2.46683, -174.492, 2.43309, 66.5572, 0.093638, -15.9603
1, 1860.00000, 126.018, -31.572, 123.376, -151.419, 125.087, 89.6311, 0, 0, 2.41512, -54.6459, 2.46683, -174.492, 2.43309, 66.5572, 0.0936381, -15.9604
1, 1920.00000, 126.018, -31.572, 123.376, -151.419, 125.087, 89.6311, 0, 0, 2.41512, -54.6459, 2.46683, -174.492, 2.43309, 66.5572, 0.0936381, -15.9604
1, 1980.00000, 126.018, -31.572, 123.376, -151.419, 125.087, 89.6311, 0, 0, 2.41512, -54.6459, 2.46683, -174.492, 2.43309, 66.5572, 0.0936382, -15.9604
1, 2040.00000, 126.018, -31.572, 123.376, -151.419, 125.087, 89.6311, 0, 0, 2.41512, -54.6459, 2.46683, -174.492, 2.43309, 66.5572, 0.0936382, -15.9605
1, 2100.00000, 126.018, -31.572, 123.376, -151.419, 125.087, 89.6311, 0, 0, 2.41512, -54.6459, 2.46683, -174.492, 2.43309, 66.5572, 0.0936383, -15.9605
1, 2160.00000, 126.018, -31.572, 123.376, -151.419, 125.087, 89.6311, 0, 0, 2.41512, -54.6459, 2.46683, -174.492, 2.43309, 66.5572, 0.0936383, -15.9605
1, 2220.00000, 126.018, -31.572, 123.376, -151.419, 125.087, 89.6311, 0, 0, 2.41512, -54.6459, 2.46683, -174.492, 2.43309, 66.5572, 0.0936384, -15.9605
1, 2280.00000, 126.018, -31.572, 123.376, -151.419, 125.087, 89.6311, 0, 0, 2.41512, -54.6459, 2.46683, -174.492, 2.43309, 66.5572, 0.0936384, -15.9606
1, 2340.00000, 126.018, -31.572, 123.376, -151.419, 125.087, 89.6311, 0, 0, 2.41512, -54.6459, 2.46683, -174.492, 2.43309, 66.5572, 0.0936384, -15.9606
1, 2400.00000, 126.018, -31.572, 123.376, -151.419, 125.087, 89.6311, 0, 0, 2.41512, -54.6459, 2.46683, -174.492, 2.43309, 66.5572, 0.0936384, -15.9606
1, 2460.00000, 126.018, -31.572, 123.376, -151.419, 125.087, 89.6311, 0, 0, 2.41512, -54.6459, 2.46683, -174.492, 2.43309, 66.5572, 0.0936385, -15.9606
1, 2520.00000, 126.018, -31.572, 123.376, -151.419, 125.087, 89.6311, 0, 0, 2.41512, -54.6459, 2.46683, -174.492, 2.43309, 66.5572, 0.0936385, -15.9606
1, 2580.00000, 126.018, -31.572, 123.376, -151.419, 125.087, 89.6311, 0, 0, 2.41512, -54.6459, 2.46683, -174.492, 2.43309, 66.5572, 0.0936385, -15.9606
1, 2640.00000, 126.018, -31.572, 123.376, -151.419, 125.087, 89.6311, 0, 0, 2.41512, -54.6459, 2.46683, -174.492, 2.43309, 66.5572, 0.0936385, -15.9607
1, 2700.00000, 126.018, -31.572, 123.376, -151.419, 125.087, 89.6311, 0, 0, 2.41512, -54.6459, 2.46683, -174.492, 2.43309, 66.5572, 0.0936385, -15.9607
1, 2760.00000, 126.018, -31.572, 123.376, -151.419, 125.087, 89.6311, 0, 0, 2.41512, -54.6459, 2.46683, -174.492, 2.43309, 66.5572, 0.0936386, -15.9607
1, 2820.00000, 126.018, -31.572, 123.376, -151.419, 125.087, 89.6311, 0, 0, 2.41512, -54.6459, 2.46683, -174.492, 2.43309, 66.5572, 0.0936386, -15.9607
1, 2880.00000, 126.018, -31.572, 123.376, -151.419, 125.087, 89.6311, 0, 0, 2.41512, -54.6459, 2.46683, -174.492, 2.43309, 66.5572, 0.0936386, -15.9607
1, 2940.00000, 126.018, -31.572, 123.376, -151.419, 125.087, 89.6311, 0, 0, 2.41512, -54.6459, 2.46683, -174.492, 2.43309, 66.5572, 0.0936386, -15.9607
1, 3000.00000, 126.018, -31.572, 123.376, -151.419, 125.087, 89.6311, 0, 0, 2.41512, -54.6459, 2.46683, -174.492, 2.43309, 66.5572, 0.0936386, -15.9607
1, 3060.00000, 126.018, -31.572, 123.376, -151.419, 125.087, 89.6311, 0, 0, 2.41512, -54.6459, 2.46683, -174.492, 2.43309, 66.5572, 0.0936386, -15.9607
1, 3120.00000, 126.018, -31.572, 123.376, -151.419, 125.087, 89.6311, 0, 0, 2.41512, -54.6459, 2.46683, -174.492, 2.43309, 66.5572, 0.0936386, -15.9607
1, 3180.00000, 126.018, -31.572, 123.376, -151.419, 125.087, 89.6311, 0, 0, 2.41512, -54.6459, 2.46683, -174.492, 2.43309, 66.5572, 0.0936386, -15.9607
1, 3240.00000, 126.018, -31.572, 123.376, -151.419, 125.087, 89.6311, 0, 0, 2.41512, -54.6459, 2.46683, -174.492, 2.43309, 66.5572, 0.0936386, -15.9607
1, 3300.00000, 126.018, -31.572, 123.376, -151.419, 125.087, 89.6311, 0, 0, 2.41512, -54.6459, 2.46683, -174.492, 2.43309, 66.5572, 0.0936386, -15.9607
1, 3360.00000, 126.018, -31.572, 123.376, -151.419, 125.087, 89.6311, 0, 0, 2.41512, -54.6459, 2.46683, -174.492, 2.43309, 66.5572, 0.0936386, -15.9607
1, 3420.00000, 126.018, -31.572, 123.376, -151.419, 125.087, 89.6311, 0, 0, 2.41512, -54.6459, 2.46683, -174.492, 2.43309, 66.5572, 0.0936386, -15.9607
1, 3480.00000, 126.018, -31.572, 123.376, -151.419, 125.087, 89.6311, 0, 0, 2.41512, -54.6459, 2.46683, -174.492, 2.43309, 66.5572, 0.0936386, -15.9607
1, 3540.00000, 126.018, -31.572, 123.376, -151.419, 125.087, 89.6311, 0, 0, 2.41512, -54.6459, 2.46683, -174.492, 2.43309, 66.5572, 0.0936386, -15.9607
2, 0.00000, 126.018, -31.572, 123.376, -151.419, 125.087, 89.6311, 0, 0, 2.41512, -54.6459, 2.46683, -174.492, 2.43309, 66.5572, 0.0936387, -15.9607
2, 60.00000, 126.018, -31.572, 123.376, -151.419, 125.087, 89.6311, 0, 0, 2.41512, -54.6459, 2.46683, -174.492, 2.43309, 66.5572, 0.0936387, -15.9607
2, 120.00000, 126.009, -31.573, 123.368, -151.419, 125.079, 89.6302, 0, 0, 2.42197, -54.6469, 2.47382, -174.493, 2.43998, 66.5563, 0.0938974, -15.9496
2, 180.00000, 126, -31.574, 123.36, -151.42, 125.071, 89.6293, 0, 0, 2.4289, -54.6479, 2.48089, -174.494, 2.44695, 66.5554, 0.0941591, -15.9382
2, 240.00000, 125.992, -31.5749, 123.351, -151.421, 125.063, 89.6284, 0, 0, 2.43575, -54.6489, 2.48788, -174.495, 2.45383, 66.5545, 0.0944178, -15.927
2, 300.00000, 125.983, -31.5759, 123.343, -151.422, 125.055, 89.6275, 0, 0, 2.4426, -54.6498, 2.49487, -174.495, 2.46072, 66.5536, 0.0946765, -15.9157
2, 360.00000, 125.974, -31.5769, 123.335, -151.422, 125.047, 89.6266, 0, 0, 2.44954, -54.6508, 2.50195, -174.496, 2.46769, 66.5527, 0.0949383, -15.9043
2, 420.00000, 125.965, -31.5779, 123.327, -151.423, 125.039, 89.6257, 0, 0, 2.45639, -54.6518, 2.50894, -174.497, 2.47459, 66.5518, 0.0951969, -15.8931
2, 480.00000, 125.956, -31.5789, 123.319, -151.424, 125.031, 89.6248, 0, 0, 2.46325, -54.6528, 2.51593, -174.498, 2.48148, 66.5509, 0.0954556, -15.8818
2, 540.00000, 125.948, -31.5799, 123.311, -151.425, 125.023, 89.6239, 0, 0, 2.47019, -54.6538, 2.52301, -174.498, 2.48845, 66.55, 0.0957174, -15.8704
2, 600.00000, 125.939, -31.5809, 123.303, -151.425, 125.015, 89.623, 0, 0, 2.47705, -54.6548, 2.53, -174.499, 2.49535, 66.5491, 0.0959761, -15.8591
2, 660.00000, 125.93, -31.5819, 123.295, -151.426, 125.007, 89.6221, 0, 0, 2.4839, -54.6558, 2.537, -174.5, 2.50224, 66.5482, 0.0962348, -15.8479
