hour,t(sec),V1,VAngle1,V2,VAngle2,V3,VAngle3,V4,VAngle4,I1,IAngle1,I2,IAngle2,I3,IAngle3,I4,IAngle4
0, 60.00000, 127.775, -31.3417, 126.803, -150.715, 128.563, 89.4035, 0, 0, 2.54777, -54.4151, 2.56731, -173.789, 2.53221, 66.3299, 0.0612368, 29.936
0, 120.00000, 127.784, -31.3503, 126.803, -150.715, 128.585, 89.4029, 0, 0, 2.54759, -54.4237, 2.56731, -173.789, 2.53176, 66.3292, 0.0619774, 30.0722
0, 180.00000, 127.793, -31.358, 126.803, -150.715, 128.605, 89.4023, 0, 0, 2.54743, -54.4315, 2.56731, -173.789, 2.53137, 66.3286, 0.0626443, 30.1925
0, 240.00000, 127.8, -31.365, 126.803, -150.715, 128.624, 89.4017, 0, 0, 2.54728, -54.4385, 2.56731, -173.789, 2.53101, 66.328, 0.0632449, 30.2993
0, 300.00000, 127.807, -31.3713, 126.803, -150.715, 128.64, 89.4012, 0, 0, 2.54715, -54.4449, 2.56731, -173.789, 2.53068, 66.3275, 0.0637856, 30.3941
0, 360.00000, 127.813, -31.3769, 126.803, -150.715, 128.654, 89.4008, 0, 0, 2.54703, -54.4506, 2.56731, -173.789, 2.53039, 66.327, 0.0642725, 30.4785
0, 420.00000, 127.818, -31.382, 126.803, -150.715, 128.668, 89.4003, 0, 0, 2.54692, -54.4557, 2.56731, -173.789, 2.53013, 66.3266, 0.0647108, 30.5537
0, 480.00000, 127.823, -31.3866, 126.803, -150.715, 128.68, 89.4, 0, 0, 2.54683, -54.4603, 2.56731, -173.789, 2.5299, 66.3262, 0.0651055, 30.6208
0, 540.00000, 127.827, -31.3908, 126.803, -150.715, 128.69, 89.3996, 0, 0, 2.54674, -54.4645, 2.56731, -173.789, 2.52968, 66.3258, 0.0654607, 30.6807
0, 600.00000, 127.831, -31.3945, 126.803, -150.715, 128.7, 89.3993, 0, 0, 2.54667, -54.4682, 2.56731, -173.789, 2.52949, 66.3255, 0.0657805, 30.7342
0, 660.00000, 127.835, -31.3979, 126.803, -150.715, 128.708, 89.399, 0, 0, 2.5466, -54.4716, 2.56731, -173.789, 2.52932, 66.3252, 0.0660684, 30.782
0, 720.00000, 127.838, -31.4009, 126.803, -150.715, 128.716, 89.3988, 0, 0, 2.54653, -54.4746, 2.56731, -173.789, 2.52917, 66.325, 0.0663276, 30.8249
0, 780.00000, 127.841, -31.4036, 126.803, -150.715, 128.723, 89.3985, 0, 0, 2.54648, -54.4774, 2.56731, -173.789, 2.52903, 66.3247, 0.0665609, 30.8632
0, 840.00000, 127.843, -31.4061, 126.803, -150.715, 128.73, 89.3983, 0, 0, 2.54643, -54.4798, 2.56731, -173.789, 2.5289, 66.3245, 0.0667708, 30.8976
0, 900.00000, 127.845, -31.4083, 126.803, -150.715, 128.735, 89.3981, 0, 0, 2.54638, -54.4821, 2.56731, -173.789, 2.52879, 66.3243, 0.0669599, 30.9283
0, 960.00000, 127.697, -31.5846, 126.393, -150.756, 128.734, 89.3914, 0, 0, 2.54934, -54.6584, 2.57564, -173.83, 2.52882, 66.3176, 0.0811515, 29.9483
0, 1020.00000, 127.699, -31.5864, 126.393, -150.756, 128.739, 89.3913, 0, 0, 2.5493, -54.6602, 2.57564, -173.83, 2.52872, 66.3174, 0.0813024, 29.9712
0, 1080.00000, 127.701, -31.588, 126.393, -150.756, 128.743, 89.3911, 0, 0, 2.54927, -54.6618, 2.57564, -173.83, 2.52864, 66.3173, 0.0814385, 29.992
0, 1140.00000, 127.702, -31.5894, 126.393, -150.756, 128.746, 89.391, 0, 0, 2.54924, -54.6632, 2.57564, -173.83, 2.52857, 66.3171, 0.081561, 30.0107
0, 1200.00000, 127.703, -31.5907, 126.393, -150.756, 128.75, 89.3909, 0, 0, 2.54922, -54.6645, 2.57564, -173.83, 2.5285, 66.317, 0.0816713, 30.0276
0, 1260.00000, 127.705, -31.5919, 126.393, -150.756, 128.753, 89.3908, 0, 0, 2.54919, -54.6657, 2.57564, -173.83, 2.52844, 66.3169, 0.0817706, 30.0427
0, 1320.00000, 127.706, -31.5929, 126.393, -150.756, 128.756, 89.3906, 0, 0, 2.54917, -54.6668, 2.57564, -173.83, 2.52839, 66.3168, 0.08186, 30.0562
0, 1380.00000, 127.707, -31.5938, 126.393, -150.756, 128.758, 89.3906, 0, 0, 2.54915, -54.6677, 2.57564, -173.83, 2.52834, 66.3167, 0.0819404, 30.0684
0, 1440.00000, 127.707, -31.5947, 126.393, -150.756, 128.76, 89.3905, 0, 0, 2.54913, -54.6686, 2.57564, -173.83, 2.5283, 66.3166, 0.0820128, 30.0794
0, 1500.00000, 127.708, -31.5955, 126.393, -150.756, 128.762, 89.3904, 0, 0, 2.54912, -54.6693, 2.57564, -173.83, 2.52826, 66.3165, 0.0820779, 30.0893
0, 1560.00000, 127.709, -31.5961, 126.393, -150.756, 128.764, 89.3903, 0, 0, 2.5491, -54.67, 2.57564, -173.83, 2.52822, 66.3165, 0.0821365, 30.0981
0, 1620.00000, 127.71, -31.5968, 126.393, -150.756, 128.766, 89.3903, 0, 0, 2.54909, -54.6707, 2.57564, -173.83, 2.52819, 66.3164, 0.0821893, 30.1061
0, 1680.00000, 127.71, -31.5973, 126.393, -150.756, 128.767, 89.3902, 0, 0, 2.54908, -54.6712, 2.57564, -173.83, 2.52816, 66.3163, 0.0822368, 30.1133
0, 1740.00000, 127.711, -31.5978, 126.393, -150.756, 128.768, 89.3902, 0, 0, 2.54907, -54.6717, 2.57564, -173.83, 2.52814, 66.3163, 0.0822796, 30.1197
0, 1800.00000, 127.711, -31.5983, 126.393, -150.756, 128.769, 89.3901, 0, 0, 2.54906, -54.6722, 2.57564, -173.83, 2.52811, 66.3162, 0.082318, 30.1255
0, 1860.00000, 127.712, -31.5987, 126.393, -150.756, 128.77, 89.3901, 0, 0, 2.54905, -54.6726, 2.57564, -173.83, 2.52809, 66.3162, 0.0823527, 30.1307
0, 1920.00000, 127.712, -31.5991, 126.393, -150.756, 128.771, 89.3901, 0, 0, 2.54904, -54.673, 2.57564, -173.83, 2.52807, 66.3162, 0.0823838, 30.1354
0, 1980.00000, 127.712, -31.5994, 126.393, -150.756, 128.772, 89.39, 0, 0, 2.54904, -54.6733, 2.57564, -173.83, 2.52806, 66.3161, 0.0824119, 30.1396
0, 2040.00000, 127.713, -31.5997, 126.393, -150.756, 128.773, 89.39, 0, 0, 2.54903, -54.6736, 2.57564, -173.83, 2.52804, 66.3161, 0.0824371, 30.1434
0, 2100.00000, 127.713, -31.5999, 126.393, -150.756, 128.774, 89.39, 0, 0, 2.54903, -54.6738, 2.57564, -173.83, 2.52803, 66.3161, 0.0824598, 30.1468
0, 2160.00000, 127.713, -31.6002, 126.393, -150.756, 128.774, 89.39, 0, 0, 2.54902, -54.6741, 2.57564, -173.83, 2.52802, 66.316, 0.0824803, 30.1499
0, 2220.00000, 127.713, -31.6004, 126.393, -150.756, 128.775, 89.3899, 0, 0, 2.54902, -54.6743, 2.57564, -173.83, 2.528, 66.316, 0.0824987, 30.1527
0, 2280.00000, 127.714, -31.6006, 126.393, -150.756, 128.775, 89.3899, 0, 0, 2.54901, -54.6745, 2.57564, -173.83, 2.52799, 66.316, 0.0825153, 30.1552
0, 2340.00000, 127.714, -31.6008, 126.393, -150.756, 128.776, 89.3899, 0, 0, 2.54901, -54.6747, 2.57564, -173.83, 2.52799, 66.316, 0.0825302, 30.1574
0, 2400.00000, 127.714, -31.6009, 126.393, -150.756, 128.776, 89.3899, 0, 0, 2.54901, -54.6748, 2.57564, -173.83, 2.52798, 66.316, 0.0825436, 30.1594
0, 2460.00000, 127.714, -31.6011, 126.393, -150.756, 128.777, 89.3899, 0, 0, 2.549, -54.675, 2.57564, -173.83, 2.52797, 66.316, 0.0825557, 30.1612
0, 2520.00000, 127.714, -31.6012, 126.393, -150.756, 128.777, 89.3899, 0, 0, 2.549, -54.6751, 2.57564, -173.83, 2.52796, 66.3159, 0.0825665, 30.1629
0, 2580.00000, 127.714, -31.6013, 126.393, -150.756, 128.777, 89.3898, 0, 0, 2.549, -54.6752, 2.57564, -173.83, 2.52796, 66.3159, 0.0825763, 30.1643
0, 2640.00000, 127.714, -31.6014, 126.393, -150.756, 128.778, 89.3898, 0, 0, 2.549, -54.6753, 2.57564, -173.83, 2.52795, 66.3159, 0.0825851, 30.1656
0, 2700.00000, 127.714, -31.6015, 126.393, -150.756, 128.778, 89.3898, 0, 0, 2.54899, -54.6754, 2.57564, -173.83, 2.52795, 66.3159, 0.082593, 30.1668
0, 2760.00000, 127.715, -31.6016, 126.393, -150.756, 128.778, 89.3898, 0, 0, 2.54899, -54.6755, 2.57564, -173.83, 2.52794, 66.3159, 0.0826002, 30.1679
0, 2820.00000, 127.715, -31.6017, 126.393, -150.756, 128.778, 89.3898, 0, 0, 2.54899, -54.6756, 2.57564, -173.83, 2.52794, 66.3159, 0.0826066, 30.1689
0, 2880.00000, 127.715, -31.6017, 126.393, -150.756, 128.778, 89.3898, 0, 0, 2.54899, -54.6756, 2.57564, -173.83, 2.52794, 66.3159, 0.0826124, 30.1697
0, 2940.00000, 127.715, -31.6018, 126.393, -150.756, 128.779, 89.3898, 0, 0, 2.54899, -54.6757, 2.57564, -173.83, 2.52793, 66.3159, 0.0826176, 30.1705
0, 3000.00000, 127.715, -31.6018, 126.393, -150.756, 128.779, 89.3898, 0, 0, 2.54899, -54.6758, 2.57564, -173.83, 2.52793, 66.3159, 0.0826222, 30.1712
0, 3060.00000, 127.715, -31.6019, 126.393, -150.756, 128.779, 89.3898, 0, 0, 2.54899, -54.6758, 2.57564, -173.83, 2.52793, 66.3159, 0.0826265, 30.1718
0, 3120.00000, 127.715, -31.6019, 126.393, -150.756, 128.779, 89.3898, 0, 0, 2.54899, -54.6759, 2.57564, -173.83, 2.52793, 66.3159, 0.0826302, 30.1724
0, 3180.00000, 127.715, -31.602, 126.393, -150.756, 128.779, 89.3898, 0, 0, 2.54899, -54.6759, 2.57564, -173.83, 2.52792, 66.3159, 0.0826337, 30.1729
0, 3240.00000, 127.715, -31.602, 126.393, -150.756, 128.779, 89.3898, 0, 0, 2.54898, -54.6759, 2.57564, -173.83, 2.52792, 66.3159, 0.0826367, 30.1734
0, 3300.00000, 127.715, -31.6021, 126.393, -150.756, 128.779, 89.3898, 0, 0, 2.54898, -54.676, 2.57564, -173.83, 2.52792, 66.3159, 0.0826395, 30.1738
0, 3360.00000, 127.715, -31.6021, 126.393, -150.756, 128.779, 89.3898, 0, 0, 2.54898, -54.676, 2.57564, -173.83, 2.52792, 66.3159, 0.082642, 30.1742
0, 3420.00000, 127.715, -31.6021, 126.393, -150.756, 128.779, 89.3898, 0, 0, 2.54898, -54.676, 2.57564, -173.83, 2.52792, 66.3158, 0.0826442, 30.1745
0, 3480.00000, 127.715, -31.6021, 126.393, -150.756, 128.779, 89.3898, 0, 0, 2.54898, -54.676, 2.57564, -173.83, 2.52792, 66.3158, 0.0826462, 30.1748
0, 3540.00000, 127.715, -31.6021, 126.393, -150.756, 128.779, 89.3898, 0, 0, 2.54898, -54.6761, 2.57564, -173.83, 2.52792, 66.3158, 0.082648, 30.1751
1, 0.00000, 127.715, -31.6022, 126.393, -150.756, 128.779, 89.3898, 0, 0, 2.54898, -54.6761, 2.57564, -173.83, 2.52791, 66.3158, 0.0826497, 30.1753
1, 60.00000, 127.715, -31.6022, 126.393, -150.756, 128.78, 89.3898, 0, 0, 2.54898, -54.6761, 2.57564, -173.83, 2.52791, 66.3158, 0.0826511, 30.1755
1, 120.00000, 127.715, -31.6022, 126.393, -150.756, 128.78, 89.3898, 0, 0, 2.54898, -54.6761, 2.57564, -173.83, 2.52791, 66.3158, 0.0826525, 30.1757
1, 180.00000, 127.715, -31.6022, 126.393, -150.756, 128.78, 89.3898, 0, 0, 2.54898, -54.6761, 2.57564, -173.83, 2.52791, 66.3158, 0.0826537, 30.1759
1, 240.00000, 127.715, -31.6022, 126.393, -150.756, 128.78, 89.3898, 0, 0, 2.54898, -54.6761, 2.57564, -173.83, 2.52791, 66.3158, 0.0826547, 30.1761
1, 300.00000, 127.715, -31.6022, 126.393, -150.756, 128.78, 89.3898, 0, 0, 2.54898, -54.6762, 2.57564, -173.83, 2.52791, 66.3158, 0.0826557, 30.1762
1, 360.00000, 127.715, -31.6023, 126.393, -150.756, 128.78, 89.3898, 0, 0, 2.54898, -54.6762, 2.57564, -173.83, 2.52791, 66.3158, 0.0826566, 30.1764
1, 420.00000, 127.715, -31.6023, 126.393, -150.756, 128.78, 89.3898, 0, 0, 2.54898, -54.6762, 2.57564, -173.83, 2.52791, 66.3158, 0.0826573, 30.1765
1, 480.00000, 127.715, -31.6023, 126.393, -150.756, 128.78, 89.3898, 0, 0, 2.54898, -54.6762, 2.57564, -173.83, 2.52791, 66.3158, 0.082658, 30.1766
1, 540.00000, 127.715, -31.6023, 126.393, -150.756, 128.78, 89.3898, 0, 0, 2.54898, -54.6762, 2.57564, -173.83, 2.52791, 66.3158, 0.0826587, 30.1767
1, 600.00000, 127.715, -31.6023, 126.393, -150.756, 128.78, 89.3898, 0, 0, 2.54898, -54.6762, 2.57564, -173.83, 2.52791, 66.3158, 0.0826592, 30.1768
1, 660.00000, 127.715, -31.6023, 126.393, -150.756, 128.78, 89.3898, 0, 0, 2.54898, -54.6762, 2.57564, -173.83, 2.52791, 66.3158, 0.0826598, 30.1768
1, 720.00000, 127.715, -31.6023, 126.393, -150.756, 128.78, 89.3898, 0, 0, 2.54898, -54.6762, 2.57564, -173.83, 2.52791, 66.3158, 0.0826602, 30.1769
1, 780.00000, 127.715, -31.6023, 126.393, -150.756, 128.78, 89.3898, 0, 0, 2.54898, -54.6762, 2.57564, -173.83, 2.52791, 66.3158, 0.0826606, 30.177
1, 840.00000, 127.715, -31.6023, 126.393, -150.756, 128.78, 89.3897, 0, 0, 2.54898, -54.6762, 2.57564, -173.83, 2.52791, 66.3158, 0.082661, 30.177
1, 900.00000, 127.715, -31.6023, 126.393, -150.756, 128.78, 89.3897, 0, 0, 2.54898, -54.6762, 2.57564, -173.83, 2.52791, 66.3158, 0.0826613, 30.1771
1, 960.00000, 127.715, -31.6023, 126.393, -150.756, 128.78, 89.3897, 0, 0, 2.54898, -54.6762, 2.57564, -173.83, 2.52791, 66.3158, 0.0826616, 30.1771
1, 1020.00000, 127.715, -31.6023, 126.393, -150.756, 128.78, 89.3897, 0, 0, 2.54898, -54.6762, 2.57564, -173.83, 2.52791, 66.3158, 0.0826619, 30.1772
1, 1080.00000, 127.715, -31.6023, 126.393, -150.756, 128.78, 89.3897, 0, 0, 2.54898, -54.6762, 2.57564, -173.83, 2.52791, 66.3158, 0.0826622, 30.1772
1, 1140.00000, 127.715, -31.6023, 126.393, -150.756, 128.78, 89.3897, 0, 0, 2.54898, -54.6762, 2.57564, -173.83, 2.52791, 66.3158, 0.0826624, 30.1772
1, 1200.00000, 127.715, -31.6023, 126.393, -150.756, 128.78, 89.3897, 0, 0, 2.54898, -54.6762, 2.57564, -173.83, 2.52791, 66.3158, 0.0826626, 30.1773
1, 1260.00000, 127.715, -31.6023, 126.393, -150.756, 128.78, 89.3897, 0, 0, 2.54898, -54.6762, 2.57564, -173.83, 2.52791, 66.3158, 0.0826627, 30.1773
1, 1320.00000, 127.715, -31.6023, 126.393, -150.756, 128.78, 89.3897, 0, 0, 2.54898, -54.6762, 2.57564, -173.83, 2.52791, 66.3158, 0.0826629, 30.1773
1, 1380.00000, 127.715, -31.6023, 126.393, -150.756, 128.78, 89.3897, 0, 0, 2.54898, -54.6762, 2.57564, -173.83, 2.52791, 66.3158, 0.0826631, 30.1773
1, 1440.00000, 127.715, -31.6023, 126.393, -150.756, 128.78, 89.3897, 0, 0, 2.54898, -54.6762, 2.57564, -173.83, 2.52791, 66.3158, 0.0826632, 30.1773
1, 1500.00000, 127.715, -31.6023, 126.393, -150.756, 128.78, 89.3897, 0, 0, 2.54898, -54.6762, 2.57564, -173.83, 2.52791, 66.3158, 0.0826633, 30.1774
1, 1560.00000, 127.715, -31.6023, 126.393, -150.756, 128.78, 89.3897, 0, 0, 2.54898, -54.6763, 2.57564, -173.83, 2.52791, 66.3158, 0.0826634, 30.1774
1, 1620.00000, 127.715, -31.6023, 126.393, -150.756, 128.78, 89.3897, 0, 0, 2.54898, -54.6763, 2.57564, -173.83, 2.52791, 66.3158, 0.0826635, 30.1774
1, 1680.00000, 127.715, -31.6023, 126.393, -150.756, 128.78, 89.3897, 0, 0, 2.54898, -54.6763, 2.57564, -173.83, 2.52791, 66.3158, 0.0826636, 30.1774
1, 1740.00000, 127.715, -31.6023, 126.393, -150.756, 128.78, 89.3897, 0, 0, 2.54898, -54.6763, 2.57564, -173.83, 2.52791, 66.3158, 0.0826637, 30.1774
1, 1800.00000, 127.715, -31.6023, 126.393, -150.756, 128.78, 89.3897, 0, 0, 2.54898, -54.6763, 2.57564, -173.83, 2.52791, 66.3158, 0.0826637, 30.1774
1, 1860.00000, 127.715, -31.6023, 126.393, -150.756, 128.78, 89.3897, 0, 0, 2.54898, -54.6763, 2.57564, -173.83, 2.52791, 66.3158, 0.0826638, 30.1774
1, 1920.00000, 127.715, -31.6023, 126.393, -150.756, 128.78, 89.3897, 0, 0, 2.54898, -54.6763, 2.57564, -173.83, 2.52791, 66.3158, 0.0826638, 30.1774
1, 1980.00000, 127.715, -31.6023, 126.393, -150.756, 128.78, 89.3897, 0, 0, 2.54898, -54.6763, 2.57564, -173.83, 2.52791, 66.3158, 0.0826639, 30.1775
1, 2040.00000, 127.715, -31.6023, 126.393, -150.756, 128.78, 89.3897, 0, 0, 2.54898, -54.6763, 2.57564, -173.83, 2.52791, 66.3158, 0.0826639, 30.1775
1, 2100.00000, 127.715, -31.6023, 126.393, -150.756, 128.78, 89.3897, 0, 0, 2.54898, -54.6763, 2.57564, -173.83, 2.52791, 66.3158, 0.082664, 30.1775
1, 2160.00000, 127.715, -31.6023, 126.393, -150.756, 128.78, 89.3897, 0, 0, 2.54898, -54.6763, 2.57564, -173.83, 2.52791, 66.3158, 0.082664, 30.1775
1, 2220.00000, 127.715, -31.6023, 126.393, -150.756, 128.78, 89.3897, 0, 0, 2.54898, -54.6763, 2.57564, -173.83, 2.52791, 66.3158, 0.0826641, 30.1775
1, 2280.00000, 127.715, -31.6023, 126.393, -150.756, 128.78, 89.3897, 0, 0, 2.54898, -54.6763, 2.57564, -173.83, 2.52791, 66.3158, 0.0826641, 30.1775
1, 2340.00000, 127.715, -31.6023, 126.393, -150.756, 128.78, 89.3897, 0, 0, 2.54898, -54.6763, 2.57564, -173.83, 2.52791, 66.3158, 0.0826641, 30.1775
1, 2400.00000, 127.715, -31.6023, 126.393, -150.756, 128.78, 89.3897, 0, 0, 2.54898, -54.6763, 2.57564, -173.83, 2.52791, 66.3158, 0.0826641, 30.1775
1, 2460.00000, 127.715, -31.6023, 126.393, -150.756, 128.78, 89.3897, 0, 0, 2.54898, -54.6763, 2.57564, -173.83, 2.52791, 66.3158, 0.0826642, 30.1775
1, 2520.00000, 127.866, -31.4281, 126.803, -150.714, 128.787, 89.3964, 0, 0, 2.54597, -54.502, 2.56731, -173.788, 2.52778, 66.3224, 0.0686616, 31.1999
1, 2580.00000, 127.866, -31.4281, 126.803, -150.714, 128.787, 89.3964, 0, 0, 2.54597, -54.502, 2.56731, -173.788, 2.52778, 66.3224, 0.068662, 31.2002
1, 2640.00000, 127.866, -31.4281, 126.803, -150.714, 128.787, 89.3964, 0, 0, 2.54597, -54.502, 2.56731, -173.788, 2.52778, 66.3224, 0.068662, 31.2002
1, 2700.00000, 127.866, -31.4281, 126.803, -150.714, 128.787, 89.3964, 0, 0, 2.54597, -54.502, 2.56731, -173.788, 2.52778, 66.3224, 0.068662, 31.2002
1, 2760.00000, 127.863, -31.4332, 126.925, -150.549, 129.18, 89.4343, 0, 0, 2.54603, -54.5071, 2.56485, -173.623, 2.52007, 66.3604, 0.0777973, 39.253
1, 2820.00000, 127.863, -31.4332, 126.925, -150.549, 129.18, 89.4343, 0, 0, 2.54603, -54.5071, 2.56485, -173.623, 2.52007, 66.3604, 0.0777972, 39.2532
1, 2880.00000, 127.863, -31.4332, 126.925, -150.549, 129.18, 89.4343, 0, 0, 2.54603, -54.5071, 2.56485, -173.623, 2.52007, 66.3604, 0.0777972, 39.2532
1, 2940.00000, 127.863, -31.4332, 126.925, -150.549, 129.18, 89.4343, 0, 0, 2.54603, -54.5071, 2.56485, -173.623, 2.52007, 66.3604, 0.0777972, 39.2532
1, 3000.00000, 127.863, -31.4332, 126.925, -150.549, 129.18, 89.4343, 0, 0, 2.54603, -54.5071, 2.56485, -173.623, 2.52007, 66.3604, 0.0777972, 39.2532
1, 3060.00000, 127.863, -31.4332, 126.925, -150.549, 129.18, 89.4343, 0, 0, 2.54603, -54.5071, 2.56485, -173.623, 2.52007, 66.3604, 0.0777972, 39.2532
1, 3120.00000, 127.863, -31.4332, 126.925, -150.549, 129.18, 89.4343, 0, 0, 2.54603, -54.5071, 2.56485, -173.623, 2.52007, 66.3604, 0.0777972, 39.2532
1, 3180.00000, 127.863, -31.4332, 126.925, -150.549, 129.18, 89.4343, 0, 0, 2.54603, -54.5071, 2.56485, -173.623, 2.52007, 66.3604, 0.0777973, 39.2532
1, 3240.00000, 127.863, -31.4332, 126.925, -150.549, 129.18, 89.4343, 0, 0, 2.54603, -54.5071, 2.56485, -173.623, 2.52007, 66.3604, 0.0777973, 39.2532
1, 3300.00000, 127.863, -31.4332, 126.925, -150.549, 129.18, 89.4343, 0, 0, 2.54603, -54.5071, 2.56485, -173.623, 2.52007, 66.3604, 0.0777973, 39.2532
1, 3360.00000, 127.863, -31.4332, 126.925, -150.549, 129.18, 89.4343, 0, 0, 2.54603, -54.5071, 2.56485, -173.623, 2.52007, 66.3604, 0.0777973, 39.2532
1, 3420.00000, 127.863, -31.4332, 126.925, -150.549, 129.18, 89.4343, 0, 0, 2.54603, -54.5071, 2.56485, -173.623, 2.52007, 66.3604, 0.0777973, 39.2532
1, 3480.00000, 127.863, -31.4332, 126.925, -150.549, 129.18, 89.4343, 0, 0, 2.54603, -54.5071, 2.56485, -173.623, 2.52007, 66.3604, 0.0777973, 39.2532
1, 3540.00000, 127.863, -31.4332, 126.925, -150.549, 129.18, 89.4343, 0, 0, 2.54603, -54.5071, 2.56485, -173.623, 2.52007, 66.3604, 0.0777973, 39.2532
2, 0.00000, 127.863, -31.4332, 126.925, -150.549, 129.18, 89.4343, 0, 0, 2.54603, -54.5071, 2.56485, -173.623, 2.52007, 66.3604, 0.0777973, 39.2532
2, 60.00000, 127.863, -31.4332, 126.925, -150.549, 129.18, 89.4343, 0, 0, 2.54603, -54.5071, 2.56485, -173.623, 2.52007, 66.3604, 0.0777973, 39.2532
2, 120.00000, 127.859, -31.4342, 126.921, -150.55, 129.176, 89.4333, 0, 0, 2.55316, -54.5082, 2.57202, -173.624, 2.52712, 66.3593, 0.0780139, 39.2548
2, 180.00000, 127.855, -31.4353, 126.917, -150.551, 129.172, 89.4322, 0, 0, 2.56037, -54.5092, 2.57928, -173.625, 2.53426, 66.3583, 0.078233, 39.2563
2, 240.00000, 127.851, -31.4364, 126.913, -150.552, 129.168, 89.4311, 0, 0, 2.5675, -54.5103, 2.58646, -173.626, 2.54131, 66.3572, 0.0784496, 39.2578
2, 300.00000, 127.846, -31.4374, 126.91, -150.553, 129.164, 89.4301, 0, 0, 2.57463, -54.5113, 2.59364, -173.627, 2.54836, 66.3562, 0.0786661, 39.2594
2, 360.00000, 127.842, -31.4385, 126.906, -150.555, 129.16, 89.429, 0, 0, 2.58185, -54.5124, 2.6009, -173.629, 2.55549, 66.3551, 0.0788853, 39.2609
2, 420.00000, 127.838, -31.4396, 126.902, -150.556, 129.156, 89.4279, 0, 0, 2.58898, -54.5135, 2.60808, -173.63, 2.56255, 66.354, 0.0791019, 39.2624
2, 480.00000, 127.834, -31.4406, 126.898, -150.557, 129.152, 89.4269, 0, 0, 2.59611, -54.5145, 2.61525, -173.631, 2.5696, 66.353, 0.0793185, 39.264
2, 540.00000, 127.829, -31.4417, 126.894, -150.558, 129.148, 89.4258, 0, 0, 2.60333, -54.5156, 2.62252, -173.632, 2.57674, 66.3519, 0.0795377, 39.2655
2, 600.00000, 127.825, -31.4428, 126.89, -150.559, 129.144, 89.4248, 0, 0, 2.61046, -54.5167, 2.6297, -173.633, 2.58379, 66.3509, 0.0797543, 39.267
2, 660.00000, 127.821, -31.4438, 126.886, -150.56, 129.14, 89.4237, 0, 0, 2.61759, -54.5177, 2.63688, -173.634, 2.59084, 66.3498, 0.0799709, 39.2686
2, 720.00000, 127.817, -31.4449, 126.882, -150.561, 129.136, 89.4226, 0, 0, 2.62481, -54.5188, 2.64414, -173.635, 2.59798, 66.3487, 0.0801901, 39.2701
