hour,t(sec),V1,VAngle1,V2,VAngle2,V3,VAngle3,V4,VAngle4,I1,IAngle1,I2,IAngle2,I3,IAngle3,I4,IAngle4
0, 60.00000, 122.658, -32.9646, 123.927, -150.661, 127.094, 87.7955, 0, 0, 2.32171, -56.0374, 2.29799, -173.735, 2.24082, 64.7231, 0.153172, 78.5444
0, 120.00000, 122.66, -32.9958, 123.926, -150.66, 127.152, 87.7782, 0, 0, 2.32168, -56.0687, 2.29801, -173.734, 2.23978, 64.7057, 0.155287, 78.3563
0, 180.00000, 122.662, -33.0239, 123.925, -150.659, 127.205, 87.7627, 0, 0, 2.32164, -56.0969, 2.29803, -173.732, 2.23884, 64.6901, 0.157193, 78.1912
0, 240.00000, 122.664, -33.0492, 123.924, -150.657, 127.252, 87.7487, 0, 0, 2.32161, -56.1223, 2.29805, -173.731, 2.238, 64.6759, 0.15891, 78.0463
0, 300.00000, 122.665, -33.0719, 123.923, -150.656, 127.295, 87.7361, 0, 0, 2.32159, -56.1451, 2.29807, -173.73, 2.23725, 64.6632, 0.160456, 77.9186
0, 360.00000, 122.667, -33.0924, 123.922, -150.655, 127.333, 87.7247, 0, 0, 2.32157, -56.1657, 2.29808, -173.729, 2.23656, 64.6518, 0.161848, 77.806
0, 420.00000, 122.668, -33.1109, 123.921, -150.654, 127.368, 87.7145, 0, 0, 2.32155, -56.1842, 2.2981, -173.728, 2.23595, 64.6414, 0.163102, 77.7063
0, 480.00000, 122.669, -33.1275, 123.921, -150.653, 127.399, 87.7052, 0, 0, 2.32153, -56.2009, 2.29811, -173.727, 2.2354, 64.6321, 0.16423, 77.618
0, 540.00000, 122.67, -33.1425, 123.92, -150.653, 127.427, 87.6969, 0, 0, 2.32152, -56.2159, 2.29812, -173.727, 2.23491, 64.6237, 0.165247, 77.5397
0, 600.00000, 122.671, -33.156, 123.919, -150.652, 127.452, 87.6894, 0, 0, 2.3215, -56.2295, 2.29813, -173.726, 2.23446, 64.6162, 0.166162, 77.47
0, 660.00000, 122.671, -33.1681, 123.919, -150.652, 127.475, 87.6827, 0, 0, 2.32149, -56.2416, 2.29814, -173.725, 2.23406, 64.6094, 0.166985, 77.408
0, 720.00000, 122.672, -33.179, 123.918, -150.651, 127.495, 87.6766, 0, 0, 2.32148, -56.2526, 2.29815, -173.725, 2.2337, 64.6032, 0.167727, 77.3528
0, 780.00000, 122.672, -33.1889, 123.918, -150.651, 127.514, 87.6712, 0, 0, 2.32147, -56.2625, 2.29816, -173.724, 2.23337, 64.5977, 0.168395, 77.3035
0, 840.00000, 122.673, -33.1977, 123.918, -150.65, 127.53, 87.6662, 0, 0, 2.32146, -56.2713, 2.29816, -173.724, 2.23308, 64.5928, 0.168996, 77.2595
0, 900.00000, 122.673, -33.2057, 123.917, -150.65, 127.545, 87.6618, 0, 0, 2.32146, -56.2793, 2.29817, -173.724, 2.23282, 64.5883, 0.169537, 77.2202
0, 960.00000, 122.528, -33.1907, 122.7, -151.107, 126.074, 87.9271, 0, 0, 2.32422, -56.2644, 2.32098, -174.181, 2.25888, 64.8535, 0.13646, 64.6794
0, 1020.00000, 122.528, -33.1971, 122.699, -151.107, 126.086, 87.9234, 0, 0, 2.32421, -56.2708, 2.32098, -174.181, 2.25866, 64.8499, 0.136911, 64.6825
0, 1080.00000, 122.529, -33.2029, 122.699, -151.107, 126.097, 87.9202, 0, 0, 2.32421, -56.2766, 2.32098, -174.181, 2.25847, 64.8465, 0.137319, 64.686
0, 1140.00000, 122.529, -33.2081, 122.699, -151.106, 126.106, 87.9172, 0, 0, 2.3242, -56.2819, 2.32099, -174.18, 2.25829, 64.8436, 0.137686, 64.6891
0, 1200.00000, 122.529, -33.2128, 122.699, -151.106, 126.115, 87.9146, 0, 0, 2.32419, -56.2866, 2.32099, -174.18, 2.25813, 64.8409, 0.138016, 64.692
0, 1260.00000, 122.529, -33.217, 122.699, -151.106, 126.123, 87.9122, 0, 0, 2.32419, -56.2908, 2.32099, -174.18, 2.25799, 64.8385, 0.138314, 64.6945
0, 1320.00000, 122.53, -33.2208, 122.699, -151.106, 126.13, 87.91, 0, 0, 2.32419, -56.2946, 2.32099, -174.18, 2.25786, 64.8363, 0.138581, 64.6968
0, 1380.00000, 122.53, -33.2243, 122.699, -151.106, 126.137, 87.9081, 0, 0, 2.32418, -56.298, 2.32099, -174.18, 2.25774, 64.8344, 0.138822, 64.6988
0, 1440.00000, 122.53, -33.2273, 122.699, -151.105, 126.142, 87.9063, 0, 0, 2.32418, -56.3011, 2.321, -174.179, 2.25764, 64.8326, 0.139039, 64.7007
0, 1500.00000, 122.53, -33.2301, 122.698, -151.105, 126.148, 87.9048, 0, 0, 2.32418, -56.3039, 2.321, -174.179, 2.25754, 64.831, 0.139234, 64.7023
0, 1560.00000, 122.53, -33.2326, 122.698, -151.105, 126.152, 87.9034, 0, 0, 2.32417, -56.3064, 2.321, -174.179, 2.25746, 64.8296, 0.13941, 64.7038
0, 1620.00000, 122.531, -33.2348, 122.698, -151.105, 126.157, 87.9021, 0, 0, 2.32417, -56.3087, 2.321, -174.179, 2.25738, 64.8283, 0.139568, 64.7052
0, 1680.00000, 122.531, -33.2369, 122.698, -151.105, 126.16, 87.901, 0, 0, 2.32417, -56.3107, 2.321, -174.179, 2.25731, 64.8271, 0.13971, 64.7064
0, 1740.00000, 122.531, -33.2387, 122.698, -151.105, 126.164, 87.8999, 0, 0, 2.32417, -56.3125, 2.321, -174.179, 2.25725, 64.8261, 0.139838, 64.7075
0, 1800.00000, 122.531, -33.2403, 122.698, -151.105, 126.167, 87.899, 0, 0, 2.32417, -56.3142, 2.321, -174.179, 2.2572, 64.8252, 0.139953, 64.7084
0, 1860.00000, 122.531, -33.2418, 122.698, -151.105, 126.17, 87.8982, 0, 0, 2.32416, -56.3157, 2.321, -174.179, 2.25715, 64.8243, 0.140057, 64.7093
0, 1920.00000, 122.531, -33.2431, 122.698, -151.105, 126.172, 87.8974, 0, 0, 2.32416, -56.317, 2.321, -174.178, 2.2571, 64.8236, 0.14015, 64.7101
0, 1980.00000, 122.531, -33.2443, 122.698, -151.104, 126.174, 87.8967, 0, 0, 2.32416, -56.3182, 2.321, -174.178, 2.25706, 64.8229, 0.140234, 64.7108
0, 2040.00000, 122.531, -33.2454, 122.698, -151.104, 126.176, 87.8961, 0, 0, 2.32416, -56.3193, 2.32101, -174.178, 2.25702, 64.8223, 0.14031, 64.7115
0, 2100.00000, 122.531, -33.2463, 122.698, -151.104, 126.178, 87.8956, 0, 0, 2.32416, -56.3202, 2.32101, -174.178, 2.25699, 64.8217, 0.140378, 64.712
0, 2160.00000, 122.531, -33.2472, 122.698, -151.104, 126.18, 87.8951, 0, 0, 2.32416, -56.3211, 2.32101, -174.178, 2.25696, 64.8212, 0.140439, 64.7125
0, 2220.00000, 122.531, -33.248, 122.698, -151.104, 126.181, 87.8946, 0, 0, 2.32416, -56.3219, 2.32101, -174.178, 2.25693, 64.8208, 0.140494, 64.713
0, 2280.00000, 122.532, -33.2487, 122.698, -151.104, 126.183, 87.8942, 0, 0, 2.32416, -56.3226, 2.32101, -174.178, 2.25691, 64.8204, 0.140544, 64.7134
0, 2340.00000, 122.532, -33.2493, 122.698, -151.104, 126.184, 87.8939, 0, 0, 2.32416, -56.3232, 2.32101, -174.178, 2.25689, 64.82, 0.140588, 64.7138
0, 2400.00000, 122.532, -33.2499, 122.698, -151.104, 126.185, 87.8936, 0, 0, 2.32416, -56.3238, 2.32101, -174.178, 2.25687, 64.8197, 0.140629, 64.7141
0, 2460.00000, 122.532, -33.2504, 122.698, -151.104, 126.186, 87.8933, 0, 0, 2.32416, -56.3243, 2.32101, -174.178, 2.25685, 64.8194, 0.140665, 64.7144
0, 2520.00000, 122.532, -33.2509, 122.698, -151.104, 126.187, 87.893, 0, 0, 2.32415, -56.3248, 2.32101, -174.178, 2.25684, 64.8191, 0.140697, 64.7147
0, 2580.00000, 122.532, -33.2513, 122.698, -151.104, 126.187, 87.8928, 0, 0, 2.32415, -56.3252, 2.32101, -174.178, 2.25682, 64.8189, 0.140727, 64.715
0, 2640.00000, 122.532, -33.2517, 122.698, -151.104, 126.188, 87.8926, 0, 0, 2.32415, -56.3256, 2.32101, -174.178, 2.25681, 64.8187, 0.140753, 64.7152
0, 2700.00000, 122.532, -33.252, 122.698, -151.104, 126.189, 87.8924, 0, 0, 2.32415, -56.3259, 2.32101, -174.178, 2.2568, 64.8185, 0.140777, 64.7154
0, 2760.00000, 122.532, -33.2523, 122.698, -151.104, 126.189, 87.8922, 0, 0, 2.32415, -56.3262, 2.32101, -174.178, 2.25679, 64.8183, 0.140798, 64.7156
0, 2820.00000, 122.532, -33.2526, 122.698, -151.104, 126.19, 87.892, 0, 0, 2.32415, -56.3265, 2.32101, -174.178, 2.25678, 64.8181, 0.140817, 64.7157
0, 2880.00000, 122.532, -33.2528, 122.698, -151.104, 126.19, 87.8919, 0, 0, 2.32415, -56.3267, 2.32101, -174.178, 2.25677, 64.818, 0.140835, 64.7159
0, 2940.00000, 122.532, -33.2531, 122.698, -151.104, 126.191, 87.8918, 0, 0, 2.32415, -56.327, 2.32101, -174.178, 2.25676, 64.8179, 0.14085, 64.716
0, 3000.00000, 122.532, -33.2533, 122.698, -151.104, 126.191, 87.8917, 0, 0, 2.32415, -56.3272, 2.32101, -174.178, 2.25676, 64.8178, 0.140864, 64.7161
0, 3060.00000, 122.532, -33.2534, 122.698, -151.104, 126.191, 87.8916, 0, 0, 2.32415, -56.3273, 2.32101, -174.178, 2.25675, 64.8177, 0.140877, 64.7162
0, 3120.00000, 122.532, -33.2536, 122.698, -151.104, 126.192, 87.8915, 0, 0, 2.32415, -56.3275, 2.32101, -174.178, 2.25674, 64.8176, 0.140888, 64.7163
0, 3180.00000, 122.532, -33.2537, 122.698, -151.104, 126.192, 87.8914, 0, 0, 2.32415, -56.3277, 2.32101, -174.178, 2.25674, 64.8175, 0.140898, 64.7164
0, 3240.00000, 122.532, -33.2539, 122.698, -151.104, 126.192, 87.8913, 0, 0, 2.32415, -56.3278, 2.32101, -174.178, 2.25674, 64.8174, 0.140907, 64.7165
0, 3300.00000, 122.532, -33.254, 122.698, -151.104, 126.193, 87.8913, 0, 0, 2.32415, -56.3279, 2.32101, -174.178, 2.25673, 64.8173, 0.140916, 64.7166
0, 3360.00000, 122.532, -33.2541, 122.698, -151.104, 126.193, 87.8912, 0, 0, 2.32415, -56.328, 2.32101, -174.178, 2.25673, 64.8173, 0.140923, 64.7166
0, 3420.00000, 122.532, -33.2542, 122.698, -151.104, 126.193, 87.8911, 0, 0, 2.32415, -56.3281, 2.32101, -174.178, 2.25672, 64.8172, 0.14093, 64.7167
0, 3480.00000, 122.532, -33.2543, 122.698, -151.104, 126.193, 87.8911, 0, 0, 2.32415, -56.3282, 2.32101, -174.178, 2.25672, 64.8172, 0.140936, 64.7167
0, 3540.00000, 122.532, -33.2544, 122.698, -151.104, 126.193, 87.891, 0, 0, 2.32415, -56.3283, 2.32101, -174.178, 2.25672, 64.8171, 0.140941, 64.7168
1, 0.00000, 122.532, -33.2544, 122.698, -151.104, 126.193, 87.891, 0, 0, 2.32415, -56.3283, 2.32101, -174.178, 2.25672, 64.8171, 0.140946, 64.7168
1, 60.00000, 122.532, -33.2545, 122.698, -151.104, 126.193, 87.891, 0, 0, 2.32415, -56.3284, 2.32101, -174.178, 2.25671, 64.8171, 0.140951, 64.7169
1, 120.00000, 122.532, -33.2545, 122.698, -151.104, 126.194, 87.8909, 0, 0, 2.32415, -56.3285, 2.32101, -174.178, 2.25671, 64.817, 0.140955, 64.7169
1, 180.00000, 122.532, -33.2546, 122.698, -151.104, 126.194, 87.8909, 0, 0, 2.32415, -56.3285, 2.32101, -174.178, 2.25671, 64.817, 0.140958, 64.7169
1, 240.00000, 122.532, -33.2546, 122.698, -151.104, 126.194, 87.8909, 0, 0, 2.32415, -56.3286, 2.32101, -174.178, 2.25671, 64.817, 0.140961, 64.7169
1, 300.00000, 122.532, -33.2547, 122.698, -151.104, 126.194, 87.8909, 0, 0, 2.32415, -56.3286, 2.32101, -174.178, 2.25671, 64.8169, 0.140964, 64.717
1, 360.00000, 122.532, -33.2547, 122.698, -151.104, 126.194, 87.8908, 0, 0, 2.32415, -56.3286, 2.32101, -174.178, 2.25671, 64.8169, 0.140967, 64.717
1, 420.00000, 122.532, -33.2547, 122.698, -151.104, 126.194, 87.8908, 0, 0, 2.32415, -56.3287, 2.32101, -174.178, 2.25671, 64.8169, 0.140969, 64.717
1, 480.00000, 122.532, -33.2548, 122.698, -151.104, 126.194, 87.8908, 0, 0, 2.32415, -56.3287, 2.32101, -174.178, 2.2567, 64.8169, 0.140971, 64.717
1, 540.00000, 122.532, -33.2548, 122.698, -151.104, 126.194, 87.8908, 0, 0, 2.32415, -56.3287, 2.32101, -174.178, 2.2567, 64.8169, 0.140973, 64.717
1, 600.00000, 122.532, -33.2548, 122.698, -151.104, 126.194, 87.8908, 0, 0, 2.32415, -56.3287, 2.32101, -174.178, 2.2567, 64.8169, 0.140975, 64.7171
1, 660.00000, 122.532, -33.2549, 122.698, -151.104, 126.194, 87.8908, 0, 0, 2.32415, -56.3288, 2.32101, -174.178, 2.2567, 64.8168, 0.140976, 64.7171
1, 720.00000, 122.532, -33.2549, 122.698, -151.104, 126.194, 87.8908, 0, 0, 2.32415, -56.3288, 2.32101, -174.178, 2.2567, 64.8168, 0.140978, 64.7171
1, 780.00000, 122.532, -33.2549, 122.698, -151.104, 126.194, 87.8907, 0, 0, 2.32415, -56.3288, 2.32101, -174.178, 2.2567, 64.8168, 0.140979, 64.7171
1, 840.00000, 122.532, -33.2549, 122.698, -151.104, 126.194, 87.8907, 0, 0, 2.32415, -56.3288, 2.32101, -174.178, 2.2567, 64.8168, 0.14098, 64.7171
1, 900.00000, 122.532, -33.2549, 122.698, -151.104, 126.194, 87.8907, 0, 0, 2.32415, -56.3288, 2.32101, -174.178, 2.2567, 64.8168, 0.140981, 64.7171
1, 960.00000, 122.532, -33.2549, 122.698, -151.104, 126.194, 87.8907, 0, 0, 2.32415, -56.3288, 2.32101, -174.178, 2.2567, 64.8168, 0.140982, 64.7171
1, 1020.00000, 122.532, -33.2549, 122.698, -151.104, 126.194, 87.8907, 0, 0, 2.32415, -56.3289, 2.32101, -174.178, 2.2567, 64.8168, 0.140983, 64.7171
1, 1080.00000, 122.532, -33.255, 122.698, -151.104, 126.194, 87.8907, 0, 0, 2.32415, -56.3289, 2.32101, -174.178, 2.2567, 64.8168, 0.140984, 64.7171
1, 1140.00000, 122.532, -33.255, 122.698, -151.104, 126.194, 87.8907, 0, 0, 2.32415, -56.3289, 2.32101, -174.178, 2.2567, 64.8168, 0.140984, 64.7171
1, 1200.00000, 122.532, -33.255, 122.698, -151.104, 126.194, 87.8907, 0, 0, 2.32415, -56.3289, 2.32101, -174.178, 2.2567, 64.8168, 0.140985, 64.7171
1, 1260.00000, 122.532, -33.255, 122.698, -151.104, 126.194, 87.8907, 0, 0, 2.32415, -56.3289, 2.32101, -174.178, 2.2567, 64.8168, 0.140985, 64.7171
1, 1320.00000, 122.532, -33.255, 122.698, -151.104, 126.194, 87.8907, 0, 0, 2.32415, -56.3289, 2.32101, -174.178, 2.2567, 64.8168, 0.140986, 64.7171
1, 1380.00000, 122.532, -33.255, 122.698, -151.104, 126.194, 87.8907, 0, 0, 2.32415, -56.3289, 2.32101, -174.178, 2.2567, 64.8168, 0.140986, 64.7172
1, 1440.00000, 122.532, -33.255, 122.698, -151.104, 126.194, 87.8907, 0, 0, 2.32415, -56.3289, 2.32101, -174.178, 2.2567, 64.8168, 0.140987, 64.7172
1, 1500.00000, 122.532, -33.255, 122.698, -151.104, 126.194, 87.8907, 0, 0, 2.32415, -56.3289, 2.32101, -174.178, 2.2567, 64.8168, 0.140987, 64.7172
1, 1560.00000, 122.532, -33.255, 122.698, -151.104, 126.194, 87.8907, 0, 0, 2.32415, -56.3289, 2.32101, -174.178, 2.2567, 64.8168, 0.140987, 64.7172
1, 1620.00000, 122.532, -33.255, 122.698, -151.104, 126.194, 87.8907, 0, 0, 2.32415, -56.3289, 2.32101, -174.178, 2.2567, 64.8168, 0.140988, 64.7172
1, 1680.00000, 122.532, -33.255, 122.698, -151.104, 126.194, 87.8907, 0, 0, 2.32415, -56.3289, 2.32101, -174.178, 2.2567, 64.8167, 0.140988, 64.7172
1, 1740.00000, 122.532, -33.255, 122.698, -151.104, 126.194, 87.8907, 0, 0, 2.32415, -56.3289, 2.32101, -174.178, 2.2567, 64.8167, 0.140988, 64.7172
1, 1800.00000, 122.532, -33.255, 122.698, -151.104, 126.194, 87.8907, 0, 0, 2.32415, -56.3289, 2.32101, -174.178, 2.2567, 64.8167, 0.140988, 64.7172
1, 1860.00000, 122.532, -33.255, 122.698, -151.104, 126.194, 87.8907, 0, 0, 2.32415, -56.3289, 2.32101, -174.178, 2.2567, 64.8167, 0.140989, 64.7172
1, 1920.00000, 122.532, -33.255, 122.698, -151.104, 126.194, 87.8907, 0, 0, 2.32415, -56.3289, 2.32101, -174.178, 2.2567, 64.8167, 0.140989, 64.7172
1, 1980.00000, 122.532, -33.255, 122.698, -151.104, 126.194, 87.8907, 0, 0, 2.32415, -56.3289, 2.32101, -174.178, 2.2567, 64.8167, 0.140989, 64.7172
1, 2040.00000, 124.741, -33.6253, 122.555, -151.123, 128.285, 88.4, 0, 0, 2.28299, -56.6992, 2.32371, -174.197, 2.21992, 65.3261, 0.182115, 43.7048
1, 2100.00000, 124.741, -33.6253, 122.555, -151.123, 128.285, 88.4, 0, 0, 2.28299, -56.6992, 2.32371, -174.197, 2.21992, 65.326, 0.182115, 43.7049
1, 2160.00000, 124.741, -33.6253, 122.555, -151.123, 128.285, 88.4, 0, 0, 2.28299, -56.6992, 2.32371, -174.197, 2.21992, 65.326, 0.182115, 43.7049
1, 2220.00000, 124.741, -33.6253, 122.555, -151.123, 128.285, 88.4, 0, 0, 2.28299, -56.6992, 2.32371, -174.197, 2.21992, 65.326, 0.182115, 43.7049
1, 2280.00000, 124.741, -33.6253, 122.555, -151.123, 128.285, 88.4, 0, 0, 2.28299, -56.6992, 2.32371, -174.197, 2.21992, 65.326, 0.182115, 43.7049
1, 2340.00000, 124.741, -33.6253, 122.555, -151.123, 128.285, 88.4, 0, 0, 2.28299, -56.6992, 2.32371, -174.197, 2.21992, 65.326, 0.182116, 43.7049
1, 2400.00000, 124.741, -33.6253, 122.555, -151.123, 128.285, 88.4, 0, 0, 2.28299, -56.6992, 2.32371, -174.197, 2.21992, 65.326, 0.182116, 43.7049
1, 2460.00000, 124.741, -33.6253, 122.555, -151.123, 128.285, 88.4, 0, 0, 2.28299, -56.6992, 2.32371, -174.197, 2.21992, 65.326, 0.182116, 43.705
1, 2520.00000, 124.87, -33.6499, 123.761, -150.662, 129.758, 88.1272, 0, 0, 2.28063, -56.7238, 2.30107, -173.736, 2.19471, 65.0533, 0.200833, 56.6763
1, 2580.00000, 124.87, -33.6499, 123.761, -150.662, 129.758, 88.1272, 0, 0, 2.28063, -56.7239, 2.30107, -173.736, 2.19471, 65.0533, 0.200833, 56.6769
1, 2640.00000, 124.87, -33.6499, 123.761, -150.662, 129.758, 88.1272, 0, 0, 2.28063, -56.7239, 2.30107, -173.736, 2.19471, 65.0533, 0.200833, 56.6769
1, 2700.00000, 124.87, -33.6499, 123.761, -150.662, 129.758, 88.1272, 0, 0, 2.28063, -56.7239, 2.30107, -173.736, 2.19471, 65.0533, 0.200833, 56.6769
1, 2760.00000, 124.956, -33.6714, 124.669, -150.291, 130.929, 87.9423, 0, 0, 2.27907, -56.7453, 2.28431, -173.365, 2.17509, 64.8684, 0.222168, 64.5419
1, 2820.00000, 124.956, -33.6714, 124.669, -150.291, 130.929, 87.9423, 0, 0, 2.27907, -56.7453, 2.28431, -173.365, 2.1751, 64.8684, 0.222169, 64.5423
1, 2880.00000, 124.956, -33.6714, 124.669, -150.291, 130.929, 87.9423, 0, 0, 2.27907, -56.7453, 2.28431, -173.365, 2.1751, 64.8684, 0.222169, 64.5423
1, 2940.00000, 124.956, -33.6714, 124.669, -150.291, 130.929, 87.9423, 0, 0, 2.27907, -56.7453, 2.28431, -173.365, 2.1751, 64.8684, 0.222169, 64.5423
1, 3000.00000, 124.956, -33.6714, 124.669, -150.291, 130.929, 87.9423, 0, 0, 2.27907, -56.7453, 2.28431, -173.365, 2.1751, 64.8684, 0.222169, 64.5423
1, 3060.00000, 124.956, -33.6714, 124.669, -150.291, 130.929, 87.9423, 0, 0, 2.27907, -56.7453, 2.28431, -173.365, 2.1751, 64.8684, 0.222169, 64.5423
1, 3120.00000, 124.956, -33.6714, 124.669, -150.291, 130.929, 87.9423, 0, 0, 2.27907, -56.7453, 2.28431, -173.365, 2.1751, 64.8684, 0.222169, 64.5423
1, 3180.00000, 124.956, -33.6714, 124.669, -150.291, 130.929, 87.9423, 0, 0, 2.27907, -56.7453, 2.28431, -173.365, 2.1751, 64.8684, 0.222169, 64.5423
1, 3240.00000, 124.956, -33.6714, 124.669, -150.291, 130.929, 87.9423, 0, 0, 2.27907, -56.7453, 2.28431, -173.365, 2.1751, 64.8684, 0.222169, 64.5423
1, 3300.00000, 124.956, -33.6714, 124.669, -150.291, 130.929, 87.9423, 0, 0, 2.27907, -56.7453, 2.28431, -173.365, 2.1751, 64.8684, 0.222169, 64.5423
1, 3360.00000, 124.956, -33.6714, 124.669, -150.291, 130.929, 87.9423, 0, 0, 2.27907, -56.7453, 2.28431, -173.365, 2.1751, 64.8684, 0.222169, 64.5423
1, 3420.00000, 124.956, -33.6714, 124.669, -150.291, 130.929, 87.9423, 0, 0, 2.27907, -56.7453, 2.28431, -173.365, 2.1751, 64.8684, 0.222169, 64.5423
1, 3480.00000, 124.956, -33.6714, 124.669, -150.291, 130.929, 87.9423, 0, 0, 2.27907, -56.7453, 2.28431, -173.365, 2.1751, 64.8684, 0.222169, 64.5423
1, 3540.00000, 124.956, -33.6714, 124.669, -150.291, 130.929, 87.9423, 0, 0, 2.27907, -56.7453, 2.28431, -173.365, 2.1751, 64.8684, 0.222169, 64.5423
2, 0.00000, 124.956, -33.6714, 124.669, -150.291, 130.929, 87.9423, 0, 0, 2.27907, -56.7453, 2.28431, -173.365, 2.1751, 64.8684, 0.222169, 64.5423
2, 60.00000, 124.956, -33.6714, 124.669, -150.291, 130.929, 87.9423, 0, 0, 2.27907, -56.7453, 2.28431, -173.365, 2.1751, 64.8684, 0.222169, 64.5423
2, 120.00000, 124.947, -33.6722, 124.661, -150.292, 130.921, 87.9416, 0, 0, 2.28554, -56.7461, 2.29077, -173.366, 2.18124, 64.8677, 0.222809, 64.5445
2, 180.00000, 124.937, -33.673, 124.653, -150.293, 130.913, 87.9409, 0, 0, 2.29209, -56.7469, 2.29731, -173.367, 2.18746, 64.867, 0.223456, 64.5468
2, 240.00000, 124.928, -33.6738, 124.646, -150.294, 130.905, 87.9402, 0, 0, 2.29856, -56.7478, 2.30378, -173.368, 2.19361, 64.8663, 0.224096, 64.549
2, 300.00000, 124.919, -33.6746, 124.638, -150.295, 130.898, 87.9395, 0, 0, 2.30504, -56.7486, 2.31024, -173.369, 2.19976, 64.8656, 0.224736, 64.5512
2, 360.00000, 124.91, -33.6755, 124.63, -150.296, 130.89, 87.9388, 0, 0, 2.31159, -56.7494, 2.31678, -173.37, 2.20599, 64.8649, 0.225384, 64.5535
2, 420.00000, 124.901, -33.6763, 124.622, -150.297, 130.882, 87.9381, 0, 0, 2.31806, -56.7502, 2.32325, -173.371, 2.21214, 64.8642, 0.226025, 64.5557
2, 480.00000, 124.892, -33.6771, 124.615, -150.298, 130.874, 87.9374, 0, 0, 2.32454, -56.751, 2.32972, -173.372, 2.21829, 64.8635, 0.226665, 64.558
2, 540.00000, 124.883, -33.6779, 124.607, -150.299, 130.866, 87.9367, 0, 0, 2.3311, -56.7518, 2.33626, -173.373, 2.22452, 64.8628, 0.227314, 64.5602
2, 600.00000, 124.874, -33.6787, 124.599, -150.3, 130.859, 87.936, 0, 0, 2.33757, -56.7526, 2.34273, -173.374, 2.23067, 64.8621, 0.227955, 64.5625
2, 660.00000, 124.865, -33.6795, 124.591, -150.301, 130.851, 87.9353, 0, 0, 2.34405, -56.7535, 2.3492, -173.375, 2.23682, 64.8614, 0.228596, 64.5647
2, 720.00000, 124.856, -33.6804, 124.584, -150.302, 130.843, 87.9346, 0, 0, 2.35061, -56.7543, 2.35575, -173.376, 2.24305, 64.8607, 0.229245, 64.567
2, 780.00000, 124.847, -33.6812, 124.576, -150.303, 130.835, 87.9339, 0, 0, 2.35709, -56.7551, 2.36222, -173.377, 2.24921, 64.86, 0.229886, 64.5692
