hour,t(sec),V1,VAngle1,V2,VAngle2,V3,VAngle3,V4,VAngle4,I1,IAngle1,I2,IAngle2,I3,IAngle3,I4,IAngle4
0, 60.00000, 126.947, -30.7464, 126.579, -150.781, 126.698, 89.4071, 0, 0, 2.25615, -53.8202, 2.26272, -173.855, 2.26058, 66.3333, 0.0126343, -34.4051
0, 120.00000, 126.947, -30.7464, 126.579, -150.781, 126.698, 89.4071, 0, 0, 2.25616, -53.8203, 2.26273, -173.855, 2.26059, 66.3332, 0.0126428, -34.4242
0, 180.00000, 126.947, -30.7464, 126.579, -150.781, 126.698, 89.4071, 0, 0, 2.25616, -53.8203, 2.26273, -173.855, 2.26059, 66.3332, 0.0126428, -34.4243
0, 240.00000, 126.947, -30.7464, 126.579, -150.781, 126.698, 89.4071, 0, 0, 2.25616, -53.8203, 2.26273, -173.855, 2.26059, 66.3332, 0.0126428, -34.4243
0, 300.00000, 126.947, -30.7464, 126.579, -150.781, 126.698, 89.4071, 0, 0, 2.25616, -53.8203, 2.26273, -173.855, 2.26059, 66.3332, 0.0126428, -34.4243
0, 360.00000, 126.947, -30.7464, 126.579, -150.781, 126.698, 89.4071, 0, 0, 2.25616, -53.8203, 2.26273, -173.855, 2.26059, 66.3332, 0.0126428, -34.4243
0, 420.00000, 126.947, -30.7464, 126.579, -150.781, 126.698, 89.4071, 0, 0, 2.25616, -53.8203, 2.26273, -173.855, 2.26059, 66.3332, 0.0126428, -34.4243
0, 480.00000, 126.947, -30.7464, 126.579, -150.781, 126.698, 89.4071, 0, 0, 2.25616, -53.8203, 2.26273, -173.855, 2.26059, 66.3332, 0.0126428, -34.4243
0, 540.00000, 126.947, -30.7464, 126.579, -150.781, 126.698, 89.4071, 0, 0, 2.25616, -53.8203, 2.26273, -173.855, 2.26059, 66.3332, 0.0126428, -34.4243
0, 600.00000, 126.947, -30.7464, 126.579, -150.781, 126.698, 89.4071, 0, 0, 2.25616, -53.8203, 2.26273, -173.855, 2.26059, 66.3332, 0.0126428, -34.4243
0, 660.00000, 126.947, -30.7464, 126.579, -150.781, 126.698, 89.4071, 0, 0, 2.25616, -53.8203, 2.26273, -173.855, 2.26059, 66.3332, 0.0126428, -34.4243
0, 720.00000, 126.947, -30.7464, 126.579, -150.781, 126.698, 89.4071, 0, 0, 2.25616, -53.8203, 2.26273, -173.855, 2.26059, 66.3332, 0.0126428, -34.4243
0, 780.00000, 126.947, -30.7464, 126.579, -150.781, 126.698, 89.4071, 0, 0, 2.25616, -53.8203, 2.26273, -173.855, 2.26059, 66.3332, 0.0126428, -34.4243
0, 840.00000, 126.947, -30.7464, 126.579, -150.781, 126.698, 89.4071, 0, 0, 2.25616, -53.8203, 2.26273, -173.855, 2.26059, 66.3332, 0.0126428, -34.4243
0, 900.00000, 126.947, -30.7464, 126.579, -150.781, 126.698, 89.4071, 0, 0, 2.25616, -53.8203, 2.26273, -173.855, 2.26059, 66.3332, 0.0126428, -34.4243
0, 960.00000, 126.943, -30.747, 126.449, -150.957, 126.29, 89.3608, 0, 0, 2.25623, -53.8208, 2.26502, -174.03, 2.26787, 66.2874, 0.0215626, -65.8151
0, 1020.00000, 126.943, -30.7471, 126.449, -150.957, 126.29, 89.3608, 0, 0, 2.25623, -53.821, 2.26505, -174.031, 2.2679, 66.2869, 0.0215861, -65.846
0, 1080.00000, 126.943, -30.7471, 126.449, -150.957, 126.29, 89.3608, 0, 0, 2.25623, -53.821, 2.26505, -174.031, 2.2679, 66.2869, 0.0215862, -65.846
0, 1140.00000, 126.943, -30.7471, 126.449, -150.957, 126.29, 89.3608, 0, 0, 2.25623, -53.821, 2.26505, -174.031, 2.2679, 66.2869, 0.0215862, -65.846
0, 1200.00000, 126.943, -30.7471, 126.449, -150.957, 126.29, 89.3608, 0, 0, 2.25623, -53.821, 2.26505, -174.031, 2.2679, 66.2869, 0.0215862, -65.846
0, 1260.00000, 126.943, -30.7471, 126.449, -150.957, 126.29, 89.3608, 0, 0, 2.25623, -53.821, 2.26505, -174.031, 2.2679, 66.2869, 0.0215862, -65.846
0, 1320.00000, 126.943, -30.7471, 126.449, -150.957, 126.29, 89.3608, 0, 0, 2.25623, -53.821, 2.26505, -174.031, 2.2679, 66.2869, 0.0215862, -65.846
0, 1380.00000, 126.943, -30.7471, 126.449, -150.957, 126.29, 89.3608, 0, 0, 2.25623, -53.821, 2.26505, -174.031, 2.2679, 66.2869, 0.0215862, -65.846
0, 1440.00000, 126.943, -30.7471, 126.449, -150.957, 126.29, 89.3608, 0, 0, 2.25623, -53.821, 2.26505, -174.031, 2.2679, 66.2869, 0.0215862, -65.846
0, 1500.00000, 126.943, -30.7471, 126.449, -150.957, 126.29, 89.3608, 0, 0, 2.25623, -53.821, 2.26505, -174.031, 2.2679, 66.2869, 0.0215862, -65.846
0, 1560.00000, 126.943, -30.7471, 126.449, -150.957, 126.29, 89.3608, 0, 0, 2.25623, -53.821, 2.26505, -174.031, 2.2679, 66.2869, 0.0215862, -65.846
0, 1620.00000, 126.943, -30.7471, 126.449, -150.957, 126.29, 89.3608, 0, 0, 2.25623, -53.821, 2.26505, -174.031, 2.2679, 66.2869, 0.0215862, -65.846
0, 1680.00000, 126.943, -30.7471, 126.449, -150.957, 126.29, 89.3608, 0, 0, 2.25623, -53.821, 2.26505, -174.031, 2.2679, 66.2869, 0.0215862, -65.846
0, 1740.00000, 126.943, -30.7471, 126.449, -150.957, 126.29, 89.3608, 0, 0, 2.25623, -53.821, 2.26505, -174.031, 2.2679, 66.2869, 0.0215862, -65.846
0, 1800.00000, 126.943, -30.7471, 126.449, -150.957, 126.29, 89.3608, 0, 0, 2.25623, -53.821, 2.26505, -174.031, 2.2679, 66.2869, 0.0215862, -65.846
0, 1860.00000, 126.943, -30.7471, 126.449, -150.957, 126.29, 89.3608, 0, 0, 2.25623, -53.821, 2.26505, -174.031, 2.2679, 66.2869, 0.0215862, -65.846
0, 1920.00000, 126.943, -30.7471, 126.449, -150.957, 126.29, 89.3608, 0, 0, 2.25623, -53.821, 2.26505, -174.031, 2.2679, 66.2869, 0.0215862, -65.846
0, 1980.00000, 126.943, -30.7471, 126.449, -150.957, 126.29, 89.3608, 0, 0, 2.25623, -53.821, 2.26505, -174.031, 2.2679, 66.2869, 0.0215862, -65.846
0, 2040.00000, 126.943, -30.7471, 126.449, -150.957, 126.29, 89.3608, 0, 0, 2.25623, -53.821, 2.26505, -174.031, 2.2679, 66.2869, 0.0215862, -65.846
0, 2100.00000, 126.943, -30.7471, 126.449, -150.957, 126.29, 89.3608, 0, 0, 2.25623, -53.821, 2.26505, -174.031, 2.2679, 66.2869, 0.0215862, -65.846
0, 2160.00000, 126.943, -30.7471, 126.449, -150.957, 126.29, 89.3608, 0, 0, 2.25623, -53.821, 2.26505, -174.031, 2.2679, 66.2869, 0.0215862, -65.846
0, 2220.00000, 126.943, -30.7471, 126.449, -150.957, 126.29, 89.3608, 0, 0, 2.25623, -53.821, 2.26505, -174.031, 2.2679, 66.2869, 0.0215862, -65.846
0, 2280.00000, 126.943, -30.7471, 126.449, -150.957, 126.29, 89.3608, 0, 0, 2.25623, -53.821, 2.26505, -174.031, 2.2679, 66.2869, 0.0215862, -65.846
0, 2340.00000, 126.943, -30.7471, 126.449, -150.957, 126.29, 89.3608, 0, 0, 2.25623, -53.821, 2.26505, -174.031, 2.2679, 66.2869, 0.0215862, -65.846
0, 2400.00000, 126.943, -30.7471, 126.449, -150.957, 126.29, 89.3608, 0, 0, 2.25623, -53.821, 2.26505, -174.031, 2.2679, 66.2869, 0.0215862, -65.846
0, 2460.00000, 126.943, -30.7471, 126.449, -150.957, 126.29, 89.3608, 0, 0, 2.25623, -53.821, 2.26505, -174.031, 2.2679, 66.2869, 0.0215862, -65.846
0, 2520.00000, 126.943, -30.7471, 126.449, -150.957, 126.29, 89.3608, 0, 0, 2.25623, -53.821, 2.26505, -174.031, 2.2679, 66.2869, 0.0215862, -65.846
0, 2580.00000, 126.943, -30.7471, 126.449, -150.957, 126.29, 89.3608, 0, 0, 2.25623, -53.821, 2.26505, -174.031, 2.2679, 66.2869, 0.0215862, -65.846
0, 2640.00000, 126.943, -30.7471, 126.449, -150.957, 126.29, 89.3608, 0, 0, 2.25623, -53.821, 2.26505, -174.031, 2.2679, 66.2869, 0.0215862, -65.846
0, 2700.00000, 126.943, -30.7471, 126.449, -150.957, 126.29, 89.3608, 0, 0, 2.25623, -53.821, 2.26505, -174.031, 2.2679, 66.2869, 0.0215862, -65.846
0, 2760.00000, 126.943, -30.7471, 126.449, -150.957, 126.29, 89.3608, 0, 0, 2.25623, -53.821, 2.26505, -174.031, 2.2679, 66.2869, 0.0215862, -65.846
0, 2820.00000, 126.943, -30.7471, 126.449, -150.957, 126.29, 89.3608, 0, 0, 2.25623, -53.821, 2.26505, -174.031, 2.2679, 66.2869, 0.0215862, -65.846
0, 2880.00000, 126.943, -30.7471, 126.449, -150.957, 126.29, 89.3608, 0, 0, 2.25623, -53.821, 2.26505, -174.031, 2.2679, 66.2869, 0.0215862, -65.846
0, 2940.00000, 126.943, -30.7471, 126.449, -150.957, 126.29, 89.3608, 0, 0, 2.25623, -53.821, 2.26505, -174.031, 2.2679, 66.2869, 0.0215862, -65.846
0, 3000.00000, 126.943, -30.7471, 126.449, -150.957, 126.29, 89.3608, 0, 0, 2.25623, -53.821, 2.26505, -174.031, 2.2679, 66.2869, 0.0215862, -65.846
0, 3060.00000, 126.943, -30.7471, 126.449, -150.957, 126.29, 89.3608, 0, 0, 2.25623, -53.821, 2.26505, -174.031, 2.2679, 66.2869, 0.0215862, -65.846
0, 3120.00000, 126.943, -30.7471, 126.449, -150.957, 126.29, 89.3608, 0, 0, 2.25623, -53.821, 2.26505, -174.031, 2.2679, 66.2869, 0.0215862, -65.846
0, 3180.00000, 126.943, -30.7471, 126.449, -150.957, 126.29, 89.3608, 0, 0, 2.25623, -53.821, 2.26505, -174.031, 2.2679, 66.2869, 0.0215862, -65.846
0, 3240.00000, 126.943, -30.7471, 126.449, -150.957, 126.29, 89.3608, 0, 0, 2.25623, -53.821, 2.26505, -174.031, 2.2679, 66.2869, 0.0215862, -65.846
0, 3300.00000, 126.943, -30.7471, 126.449, -150.957, 126.29, 89.3608, 0, 0, 2.25623, -53.821, 2.26505, -174.031, 2.2679, 66.2869, 0.0215862, -65.846
0, 3360.00000, 126.943, -30.7471, 126.449, -150.957, 126.29, 89.3608, 0, 0, 2.25623, -53.821, 2.26505, -174.031, 2.2679, 66.2869, 0.0215862, -65.846
0, 3420.00000, 126.943, -30.7471, 126.449, -150.957, 126.29, 89.3608, 0, 0, 2.25623, -53.821, 2.26505, -174.031, 2.2679, 66.2869, 0.0215862, -65.846
0, 3480.00000, 126.943, -30.7471, 126.449, -150.957, 126.29, 89.3608, 0, 0, 2.25623, -53.821, 2.26505, -174.031, 2.2679, 66.2869, 0.0215862, -65.846
0, 3540.00000, 126.943, -30.7471, 126.449, -150.957, 126.29, 89.3608, 0, 0, 2.25623, -53.821, 2.26505, -174.031, 2.2679, 66.2869, 0.0215862, -65.846
1, 0.00000, 126.943, -30.7471, 126.449, -150.957, 126.29, 89.3608, 0, 0, 2.25623, -53.821, 2.26505, -174.031, 2.2679, 66.2869, 0.0215862, -65.846
1, 60.00000, 126.943, -30.7471, 126.449, -150.957, 126.29, 89.3608, 0, 0, 2.25623, -53.821, 2.26505, -174.031, 2.2679, 66.2869, 0.0215862, -65.846
1, 120.00000, 126.943, -30.7471, 126.449, -150.957, 126.29, 89.3608, 0, 0, 2.25623, -53.821, 2.26505, -174.031, 2.2679, 66.2869, 0.0215862, -65.846
1, 180.00000, 126.943, -30.7471, 126.449, -150.957, 126.29, 89.3608, 0, 0, 2.25623, -53.821, 2.26505, -174.031, 2.2679, 66.2869, 0.0215862, -65.846
1, 240.00000, 126.943, -30.7471, 126.449, -150.957, 126.29, 89.3608, 0, 0, 2.25623, -53.821, 2.26505, -174.031, 2.2679, 66.2869, 0.0215862, -65.846
1, 300.00000, 126.943, -30.7471, 126.449, -150.957, 126.29, 89.3608, 0, 0, 2.25623, -53.821, 2.26505, -174.031, 2.2679, 66.2869, 0.0215862, -65.846
1, 360.00000, 126.943, -30.7471, 126.449, -150.957, 126.29, 89.3608, 0, 0, 2.25623, -53.821, 2.26505, -174.031, 2.2679, 66.2869, 0.0215862, -65.846
1, 420.00000, 126.943, -30.7471, 126.449, -150.957, 126.29, 89.3608, 0, 0, 2.25623, -53.821, 2.26505, -174.031, 2.2679, 66.2869, 0.0215862, -65.846
1, 480.00000, 126.943, -30.7471, 126.449, -150.957, 126.29, 89.3608, 0, 0, 2.25623, -53.821, 2.26505, -174.031, 2.2679, 66.2869, 0.0215862, -65.846
1, 540.00000, 126.943, -30.7471, 126.449, -150.957, 126.29, 89.3608, 0, 0, 2.25623, -53.821, 2.26505, -174.031, 2.2679, 66.2869, 0.0215862, -65.846
1, 600.00000, 126.943, -30.7471, 126.449, -150.957, 126.29, 89.3608, 0, 0, 2.25623, -53.821, 2.26505, -174.031, 2.2679, 66.2869, 0.0215862, -65.846
1, 660.00000, 126.943, -30.7471, 126.449, -150.957, 126.29, 89.3608, 0, 0, 2.25623, -53.821, 2.26505, -174.031, 2.2679, 66.2869, 0.0215862, -65.846
1, 720.00000, 126.943, -30.7471, 126.449, -150.957, 126.29, 89.3608, 0, 0, 2.25623, -53.821, 2.26505, -174.031, 2.2679, 66.2869, 0.0215862, -65.846
1, 780.00000, 126.943, -30.7471, 126.449, -150.957, 126.29, 89.3608, 0, 0, 2.25623, -53.821, 2.26505, -174.031, 2.2679, 66.2869, 0.0215862, -65.846
1, 840.00000, 126.943, -30.7471, 126.449, -150.957, 126.29, 89.3608, 0, 0, 2.25623, -53.821, 2.26505, -174.031, 2.2679, 66.2869, 0.0215862, -65.846
1, 900.00000, 126.943, -30.7471, 126.449, -150.957, 126.29, 89.3608, 0, 0, 2.25623, -53.821, 2.26505, -174.031, 2.2679, 66.2869, 0.0215862, -65.846
1, 960.00000, 126.943, -30.7471, 126.449, -150.957, 126.29, 89.3608, 0, 0, 2.25623, -53.821, 2.26505, -174.031, 2.2679, 66.2869, 0.0215862, -65.846
1, 1020.00000, 126.943, -30.7471, 126.449, -150.957, 126.29, 89.3608, 0, 0, 2.25623, -53.821, 2.26505, -174.031, 2.2679, 66.2869, 0.0215862, -65.846
1, 1080.00000, 126.943, -30.7471, 126.449, -150.957, 126.29, 89.3608, 0, 0, 2.25623, -53.821, 2.26505, -174.031, 2.2679, 66.2869, 0.0215862, -65.846
1, 1140.00000, 126.943, -30.7471, 126.449, -150.957, 126.29, 89.3608, 0, 0, 2.25623, -53.821, 2.26505, -174.031, 2.2679, 66.2869, 0.0215862, -65.846
1, 1200.00000, 126.943, -30.7471, 126.449, -150.957, 126.29, 89.3608, 0, 0, 2.25623, -53.821, 2.26505, -174.031, 2.2679, 66.2869, 0.0215862, -65.846
1, 1260.00000, 126.943, -30.7471, 126.449, -150.957, 126.29, 89.3608, 0, 0, 2.25623, -53.821, 2.26505, -174.031, 2.2679, 66.2869, 0.0215862, -65.846
1, 1320.00000, 126.943, -30.7471, 126.449, -150.957, 126.29, 89.3608, 0, 0, 2.25623, -53.821, 2.26505, -174.031, 2.2679, 66.2869, 0.0215862, -65.846
1, 1380.00000, 126.943, -30.7471, 126.449, -150.957, 126.29, 89.3608, 0, 0, 2.25623, -53.821, 2.26505, -174.031, 2.2679, 66.2869, 0.0215862, -65.846
1, 1440.00000, 126.943, -30.7471, 126.449, -150.957, 126.29, 89.3608, 0, 0, 2.25623, -53.821, 2.26505, -174.031, 2.2679, 66.2869, 0.0215862, -65.846
1, 1500.00000, 126.943, -30.7471, 126.449, -150.957, 126.29, 89.3608, 0, 0, 2.25623, -53.821, 2.26505, -174.031, 2.2679, 66.2869, 0.0215862, -65.846
1, 1560.00000, 126.943, -30.7471, 126.449, -150.957, 126.29, 89.3608, 0, 0, 2.25623, -53.821, 2.26505, -174.031, 2.2679, 66.2869, 0.0215862, -65.846
1, 1620.00000, 126.943, -30.7471, 126.449, -150.957, 126.29, 89.3608, 0, 0, 2.25623, -53.821, 2.26505, -174.031, 2.2679, 66.2869, 0.0215862, -65.846
1, 1680.00000, 126.943, -30.7471, 126.449, -150.957, 126.29, 89.3608, 0, 0, 2.25623, -53.821, 2.26505, -174.031, 2.2679, 66.2869, 0.0215862, -65.846
1, 1740.00000, 126.943, -30.7471, 126.449, -150.957, 126.29, 89.3608, 0, 0, 2.25623, -53.821, 2.26505, -174.031, 2.2679, 66.2869, 0.0215862, -65.846
1, 1800.00000, 126.943, -30.7471, 126.449, -150.957, 126.29, 89.3608, 0, 0, 2.25623, -53.821, 2.26505, -174.031, 2.2679, 66.2869, 0.0215862, -65.846
1, 1860.00000, 126.943, -30.7471, 126.449, -150.957, 126.29, 89.3608, 0, 0, 2.25623, -53.821, 2.26505, -174.031, 2.2679, 66.2869, 0.0215862, -65.846
1, 1920.00000, 126.943, -30.7471, 126.449, -150.957, 126.29, 89.3608, 0, 0, 2.25623, -53.821, 2.26505, -174.031, 2.2679, 66.2869, 0.0215862, -65.846
1, 1980.00000, 126.943, -30.7471, 126.449, -150.957, 126.29, 89.3608, 0, 0, 2.25623, -53.821, 2.26505, -174.031, 2.2679, 66.2869, 0.0215862, -65.846
1, 2040.00000, 126.947, -30.7463, 126.58, -150.78, 126.701, 89.4078, 0, 0, 2.25616, -53.8204, 2.26274, -173.855, 2.26058, 66.3333, 0.0126412, -34.2684
1, 2100.00000, 126.947, -30.7463, 126.58, -150.78, 126.701, 89.4078, 0, 0, 2.25615, -53.8202, 2.2627, -173.854, 2.26054, 66.3339, 0.0126133, -34.0627
1, 2160.00000, 126.947, -30.7463, 126.58, -150.78, 126.701, 89.4078, 0, 0, 2.25615, -53.8202, 2.2627, -173.854, 2.26054, 66.3339, 0.0126131, -34.0618
1, 2220.00000, 126.947, -30.7463, 126.58, -150.78, 126.701, 89.4078, 0, 0, 2.25615, -53.8202, 2.2627, -173.854, 2.26054, 66.3339, 0.0126131, -34.0618
1, 2280.00000, 126.947, -30.7463, 126.58, -150.78, 126.701, 89.4078, 0, 0, 2.25615, -53.8202, 2.2627, -173.854, 2.26054, 66.3339, 0.0126131, -34.0618
1, 2340.00000, 126.947, -30.7463, 126.58, -150.78, 126.701, 89.4078, 0, 0, 2.25615, -53.8202, 2.2627, -173.854, 2.26054, 66.3339, 0.0126131, -34.0618
1, 2400.00000, 126.947, -30.7463, 126.58, -150.78, 126.701, 89.4078, 0, 0, 2.25615, -53.8202, 2.2627, -173.854, 2.26054, 66.3339, 0.0126131, -34.0618
1, 2460.00000, 126.947, -30.7463, 126.58, -150.78, 126.701, 89.4078, 0, 0, 2.25615, -53.8202, 2.2627, -173.854, 2.26054, 66.3339, 0.0126131, -34.0618
1, 2520.00000, 126.952, -30.7456, 126.707, -150.607, 127.103, 89.4538, 0, 0, 2.25609, -53.8197, 2.26045, -173.681, 2.25342, 66.3794, 0.0130733, 23.4409
1, 2580.00000, 126.952, -30.7456, 126.707, -150.607, 127.103, 89.4538, 0, 0, 2.25608, -53.8195, 2.26043, -173.68, 2.25339, 66.3799, 0.0130857, 23.5484
1, 2640.00000, 126.952, -30.7456, 126.707, -150.607, 127.103, 89.4538, 0, 0, 2.25608, -53.8195, 2.26043, -173.68, 2.25339, 66.3799, 0.0130857, 23.5489
1, 2700.00000, 126.952, -30.7456, 126.707, -150.607, 127.103, 89.4538, 0, 0, 2.25608, -53.8195, 2.26043, -173.68, 2.25339, 66.3799, 0.0130857, 23.5489
1, 2760.00000, 127.078, -30.5742, 127.105, -150.562, 127.104, 89.454, 0, 0, 2.25386, -53.6484, 2.25338, -173.637, 2.25338, 66.3801, 0.000797833, 29.0811
1, 2820.00000, 127.078, -30.5742, 127.105, -150.562, 127.104, 89.454, 0, 0, 2.25384, -53.6481, 2.25335, -173.636, 2.25338, 66.3801, 0.000770418, 30.1668
1, 2880.00000, 127.078, -30.5742, 127.105, -150.562, 127.104, 89.454, 0, 0, 2.25384, -53.6481, 2.25335, -173.636, 2.25338, 66.3801, 0.000770324, 30.1708
1, 2940.00000, 127.078, -30.5742, 127.105, -150.562, 127.104, 89.454, 0, 0, 2.25384, -53.6481, 2.25335, -173.636, 2.25338, 66.3801, 0.000770324, 30.1708
1, 3000.00000, 127.078, -30.5742, 127.105, -150.562, 127.104, 89.454, 0, 0, 2.25384, -53.6481, 2.25335, -173.636, 2.25338, 66.3801, 0.000770324, 30.1708
1, 3060.00000, 127.078, -30.5742, 127.105, -150.562, 127.104, 89.454, 0, 0, 2.25384, -53.6481, 2.25335, -173.636, 2.25338, 66.3801, 0.000770324, 30.1708
1, 3120.00000, 127.078, -30.5742, 127.105, -150.562, 127.104, 89.454, 0, 0, 2.25384, -53.6481, 2.25335, -173.636, 2.25338, 66.3801, 0.000770324, 30.1708
1, 3180.00000, 127.078, -30.5742, 127.105, -150.562, 127.104, 89.454, 0, 0, 2.25384, -53.6481, 2.25335, -173.636, 2.25338, 66.3801, 0.000770324, 30.1708
1, 3240.00000, 127.078, -30.5742, 127.105, -150.562, 127.104, 89.454, 0, 0, 2.25384, -53.6481, 2.25335, -173.636, 2.25338, 66.3801, 0.000770324, 30.1708
1, 3300.00000, 127.078, -30.5742, 127.105, -150.562, 127.104, 89.454, 0, 0, 2.25384, -53.6481, 2.25335, -173.636, 2.25338, 66.3801, 0.000770324, 30.1708
1, 3360.00000, 127.078, -30.5742, 127.105, -150.562, 127.104, 89.454, 0, 0, 2.25384, -53.6481, 2.25335, -173.636, 2.25338, 66.3801, 0.000770324, 30.1708
1, 3420.00000, 127.078, -30.5742, 127.105, -150.562, 127.104, 89.454, 0, 0, 2.25384, -53.6481, 2.25335, -173.636, 2.25338, 66.3801, 0.000770324, 30.1708
1, 3480.00000, 127.078, -30.5742, 127.105, -150.562, 127.104, 89.454, 0, 0, 2.25384, -53.6481, 2.25335, -173.636, 2.25338, 66.3801, 0.000770324, 30.1708
1, 3540.00000, 127.078, -30.5742, 127.105, -150.562, 127.104, 89.454, 0, 0, 2.25384, -53.6481, 2.25335, -173.636, 2.25338, 66.3801, 0.000770324, 30.1708
2, 0.00000, 127.078, -30.5742, 127.105, -150.562, 127.104, 89.454, 0, 0, 2.25384, -53.6481, 2.25335, -173.636, 2.25338, 66.3801, 0.000770324, 30.1708
2, 60.00000, 127.078, -30.5742, 127.105, -150.562, 127.104, 89.454, 0, 0, 2.25384, -53.6481, 2.25335, -173.636, 2.25338, 66.3801, 0.000770324, 30.1708
2, 120.00000, 127.074, -30.5753, 127.102, -150.564, 127.1, 89.4529, 0, 0, 2.26014, -53.6492, 2.25965, -173.637, 2.25967, 66.379, 0.000772341, 30.3659
2, 180.00000, 127.07, -30.5764, 127.098, -150.565, 127.097, 89.4518, 0, 0, 2.26652, -53.6503, 2.26603, -173.639, 2.26605, 66.3779, 0.000774557, 30.5253
2, 240.00000, 127.066, -30.5776, 127.094, -150.566, 127.093, 89.4507, 0, 0, 2.27282, -53.6514, 2.27233, -173.64, 2.27235, 66.3768, 0.000776757, 30.6816
2, 300.00000, 127.063, -30.5787, 127.091, -150.567, 127.089, 89.4496, 0, 0, 2.27913, -53.6526, 2.27863, -173.641, 2.27865, 66.3757, 0.000778961, 30.8384
2, 360.00000, 127.059, -30.5798, 127.087, -150.568, 127.085, 89.4484, 0, 0, 2.28551, -53.6537, 2.285, -173.642, 2.28503, 66.3746, 0.000781197, 30.9975
2, 420.00000, 127.055, -30.581, 127.083, -150.569, 127.082, 89.4473, 0, 0, 2.29181, -53.6548, 2.2913, -173.643, 2.29133, 66.3735, 0.000783416, 31.1539
2, 480.00000, 127.051, -30.5821, 127.08, -150.57, 127.078, 89.4462, 0, 0, 2.29812, -53.656, 2.2976, -173.644, 2.29763, 66.3724, 0.000785639, 31.3108
2, 540.00000, 127.047, -30.5832, 127.076, -150.571, 127.074, 89.4451, 0, 0, 2.3045, -53.6571, 2.30398, -173.645, 2.30401, 66.3712, 0.000787894, 31.4701
2, 600.00000, 127.044, -30.5844, 127.072, -150.572, 127.071, 89.444, 0, 0, 2.31081, -53.6582, 2.31028, -173.646, 2.31031, 66.3701, 0.000790133, 31.6267
2, 660.00000, 127.04, -30.5855, 127.069, -150.574, 127.067, 89.4429, 0, 0, 2.31711, -53.6594, 2.31659, -173.647, 2.31662, 66.369, 0.000792376, 31.7837
2, 720.00000, 127.036, -30.5866, 127.065, -150.575, 127.063, 89.4418, 0, 0, 2.3235, -53.6605, 2.32297, -173.649, 2.323, 66.3679, 0.000794652, 31.9431
