hour,t(sec),V1,VAngle1,V2,VAngle2,V3,VAngle3,V4,VAngle4,I1,IAngle1,I2,IAngle2,I3,IAngle3,I4,IAngle4
0, 60.00000, 127.285, -30.5726, 127.228, -150.554, 127.293, 89.4606, 0, 0, 2.13487, -53.646, 2.13583, -173.628, 2.13474, 66.3871, 0.00210254, 11.3247
0, 120.00000, 127.285, -30.5726, 127.227, -150.554, 127.293, 89.4606, 0, 0, 2.13489, -53.6465, 2.13585, -173.628, 2.13476, 66.3867, 0.00210529, 11.433
0, 180.00000, 127.285, -30.5726, 127.227, -150.554, 127.293, 89.4606, 0, 0, 2.13489, -53.6465, 2.13585, -173.628, 2.13476, 66.3867, 0.0021053, 11.4335
0, 240.00000, 127.285, -30.5726, 127.227, -150.554, 127.293, 89.4606, 0, 0, 2.13489, -53.6465, 2.13585, -173.628, 2.13476, 66.3867, 0.0021053, 11.4335
0, 300.00000, 127.285, -30.5726, 127.227, -150.554, 127.293, 89.4606, 0, 0, 2.13489, -53.6465, 2.13585, -173.628, 2.13476, 66.3867, 0.0021053, 11.4335
0, 360.00000, 127.285, -30.5726, 127.227, -150.554, 127.293, 89.4606, 0, 0, 2.13489, -53.6465, 2.13585, -173.628, 2.13476, 66.3867, 0.0021053, 11.4335
0, 420.00000, 127.285, -30.5726, 127.227, -150.554, 127.293, 89.4606, 0, 0, 2.13489, -53.6465, 2.13585, -173.628, 2.13476, 66.3867, 0.0021053, 11.4335
0, 480.00000, 127.285, -30.5726, 127.227, -150.554, 127.293, 89.4606, 0, 0, 2.13489, -53.6465, 2.13585, -173.628, 2.13476, 66.3867, 0.0021053, 11.4335
0, 540.00000, 127.285, -30.5726, 127.227, -150.554, 127.293, 89.4606, 0, 0, 2.13489, -53.6465, 2.13585, -173.628, 2.13476, 66.3867, 0.0021053, 11.4335
0, 600.00000, 127.285, -30.5726, 127.227, -150.554, 127.293, 89.4606, 0, 0, 2.13489, -53.6465, 2.13585, -173.628, 2.13476, 66.3867, 0.0021053, 11.4335
0, 660.00000, 127.285, -30.5726, 127.227, -150.554, 127.293, 89.4606, 0, 0, 2.13489, -53.6465, 2.13585, -173.628, 2.13476, 66.3867, 0.0021053, 11.4335
0, 720.00000, 127.285, -30.5726, 127.227, -150.554, 127.293, 89.4606, 0, 0, 2.13489, -53.6465, 2.13585, -173.628, 2.13476, 66.3867, 0.0021053, 11.4335
0, 780.00000, 127.285, -30.5726, 127.227, -150.554, 127.293, 89.4606, 0, 0, 2.13489, -53.6465, 2.13585, -173.628, 2.13476, 66.3867, 0.0021053, 11.4335
0, 840.00000, 127.285, -30.5726, 127.227, -150.554, 127.293, 89.4606, 0, 0, 2.13489, -53.6465, 2.13585, -173.628, 2.13476, 66.3867, 0.0021053, 11.4335
0, 900.00000, 127.285, -30.5726, 127.227, -150.554, 127.293, 89.4606, 0, 0, 2.13489, -53.6465, 2.13585, -173.628, 2.13476, 66.3867, 0.0021053, 11.4335
0, 960.00000, 127.285, -30.5726, 127.227, -150.554, 127.293, 89.4606, 0, 0, 2.13489, -53.6465, 2.13585, -173.628, 2.13476, 66.3867, 0.0021053, 11.4335
0, 1020.00000, 127.285, -30.5726, 127.227, -150.554, 127.293, 89.4606, 0, 0, 2.13489, -53.6465, 2.13585, -173.628, 2.13476, 66.3867, 0.0021053, 11.4335
0, 1080.00000, 127.285, -30.5726, 127.227, -150.554, 127.293, 89.4606, 0, 0, 2.13489, -53.6465, 2.13585, -173.628, 2.13476, 66.3867, 0.0021053, 11.4335
0, 1140.00000, 127.285, -30.5726, 127.227, -150.554, 127.293, 89.4606, 0, 0, 2.13489, -53.6465, 2.13585, -173.628, 2.13476, 66.3867, 0.0021053, 11.4335
0, 1200.00000, 127.285, -30.5726, 127.227, -150.554, 127.293, 89.4606, 0, 0, 2.13489, -53.6465, 2.13585, -173.628, 2.13476, 66.3867, 0.0021053, 11.4335
0, 1260.00000, 127.285, -30.5726, 127.227, -150.554, 127.293, 89.4606, 0, 0, 2.13489, -53.6465, 2.13585, -173.628, 2.13476, 66.3867, 0.0021053, 11.4335
0, 1320.00000, 127.285, -30.5726, 127.227, -150.554, 127.293, 89.4606, 0, 0, 2.13489, -53.6465, 2.13585, -173.628, 2.13476, 66.3867, 0.0021053, 11.4335
0, 1380.00000, 127.285, -30.5726, 127.227, -150.554, 127.293, 89.4606, 0, 0, 2.13489, -53.6465, 2.13585, -173.628, 2.13476, 66.3867, 0.0021053, 11.4335
0, 1440.00000, 127.285, -30.5726, 127.227, -150.554, 127.293, 89.4606, 0, 0, 2.13489, -53.6465, 2.13585, -173.628, 2.13476, 66.3867, 0.0021053, 11.4335
0, 1500.00000, 127.285, -30.5726, 127.227, -150.554, 127.293, 89.4606, 0, 0, 2.13489, -53.6465, 2.13585, -173.628, 2.13476, 66.3867, 0.0021053, 11.4335
0, 1560.00000, 127.285, -30.5726, 127.227, -150.554, 127.293, 89.4606, 0, 0, 2.13489, -53.6465, 2.13585, -173.628, 2.13476, 66.3867, 0.0021053, 11.4335
0, 1620.00000, 127.285, -30.5726, 127.227, -150.554, 127.293, 89.4606, 0, 0, 2.13489, -53.6465, 2.13585, -173.628, 2.13476, 66.3867, 0.0021053, 11.4335
0, 1680.00000, 127.285, -30.5726, 127.227, -150.554, 127.293, 89.4606, 0, 0, 2.13489, -53.6465, 2.13585, -173.628, 2.13476, 66.3867, 0.0021053, 11.4335
0, 1740.00000, 127.285, -30.5726, 127.227, -150.554, 127.293, 89.4606, 0, 0, 2.13489, -53.6465, 2.13585, -173.628, 2.13476, 66.3867, 0.0021053, 11.4335
0, 1800.00000, 126.882, -30.6174, 127.225, -150.555, 127.163, 89.287, 0, 0, 2.14165, -53.6909, 2.13589, -173.628, 2.13691, 66.2136, 0.0104619, 134.584
0, 1860.00000, 126.881, -30.6174, 127.225, -150.555, 127.163, 89.2869, 0, 0, 2.14168, -53.6914, 2.13589, -173.628, 2.13693, 66.213, 0.0105013, 134.603
0, 1920.00000, 126.881, -30.6174, 127.225, -150.555, 127.163, 89.2869, 0, 0, 2.14168, -53.6914, 2.13589, -173.628, 2.13693, 66.213, 0.0105015, 134.604
0, 1980.00000, 126.881, -30.6174, 127.225, -150.555, 127.163, 89.2869, 0, 0, 2.14168, -53.6914, 2.13589, -173.628, 2.13693, 66.213, 0.0105015, 134.604
0, 2040.00000, 126.881, -30.6174, 127.225, -150.555, 127.163, 89.2869, 0, 0, 2.14168, -53.6914, 2.13589, -173.628, 2.13693, 66.213, 0.0105015, 134.604
0, 2100.00000, 126.881, -30.6174, 127.225, -150.555, 127.163, 89.2869, 0, 0, 2.14168, -53.6914, 2.13589, -173.628, 2.13693, 66.213, 0.0105015, 134.604
0, 2160.00000, 126.881, -30.6174, 127.225, -150.555, 127.163, 89.2869, 0, 0, 2.14168, -53.6914, 2.13589, -173.628, 2.13693, 66.213, 0.0105015, 134.604
0, 2220.00000, 126.881, -30.6174, 127.225, -150.555, 127.163, 89.2869, 0, 0, 2.14168, -53.6914, 2.13589, -173.628, 2.13693, 66.213, 0.0105015, 134.604
0, 2280.00000, 126.881, -30.6174, 127.225, -150.555, 127.163, 89.2869, 0, 0, 2.14168, -53.6914, 2.13589, -173.628, 2.13693, 66.213, 0.0105015, 134.604
0, 2340.00000, 126.881, -30.6174, 127.225, -150.555, 127.163, 89.2869, 0, 0, 2.14168, -53.6914, 2.13589, -173.628, 2.13693, 66.213, 0.0105015, 134.604
0, 2400.00000, 126.881, -30.6174, 127.225, -150.555, 127.163, 89.2869, 0, 0, 2.14168, -53.6914, 2.13589, -173.628, 2.13693, 66.213, 0.0105015, 134.604
0, 2460.00000, 126.881, -30.6174, 127.225, -150.555, 127.163, 89.2869, 0, 0, 2.14168, -53.6914, 2.13589, -173.628, 2.13693, 66.213, 0.0105015, 134.604
0, 2520.00000, 126.881, -30.6174, 127.225, -150.555, 127.163, 89.2869, 0, 0, 2.14168, -53.6914, 2.13589, -173.628, 2.13693, 66.213, 0.0105015, 134.604
0, 2580.00000, 126.881, -30.6174, 127.225, -150.555, 127.163, 89.2869, 0, 0, 2.14168, -53.6914, 2.13589, -173.628, 2.13693, 66.213, 0.0105015, 134.604
0, 2640.00000, 126.881, -30.6174, 127.225, -150.555, 127.163, 89.2869, 0, 0, 2.14168, -53.6914, 2.13589, -173.628, 2.13693, 66.213, 0.0105015, 134.604
0, 2700.00000, 126.881, -30.6174, 127.225, -150.555, 127.163, 89.2869, 0, 0, 2.14168, -53.6914, 2.13589, -173.628, 2.13693, 66.213, 0.0105015, 134.604
0, 2760.00000, 126.881, -30.6174, 127.225, -150.555, 127.163, 89.2869, 0, 0, 2.14168, -53.6914, 2.13589, -173.628, 2.13693, 66.213, 0.0105015, 134.604
0, 2820.00000, 126.881, -30.6174, 127.225, -150.555, 127.163, 89.2869, 0, 0, 2.14168, -53.6914, 2.13589, -173.628, 2.13693, 66.213, 0.0105015, 134.604
0, 2880.00000, 126.881, -30.6174, 127.225, -150.555, 127.163, 89.2869, 0, 0, 2.14168, -53.6914, 2.13589, -173.628, 2.13693, 66.213, 0.0105015, 134.604
0, 2940.00000, 126.881, -30.6174, 127.225, -150.555, 127.163, 89.2869, 0, 0, 2.14168, -53.6914, 2.13589, -173.628, 2.13693, 66.213, 0.0105015, 134.604
0, 3000.00000, 126.881, -30.6174, 127.225, -150.555, 127.163, 89.2869, 0, 0, 2.14168, -53.6914, 2.13589, -173.628, 2.13693, 66.213, 0.0105015, 134.604
0, 3060.00000, 126.881, -30.6174, 127.225, -150.555, 127.163, 89.2869, 0, 0, 2.14168, -53.6914, 2.13589, -173.628, 2.13693, 66.213, 0.0105015, 134.604
0, 3120.00000, 126.881, -30.6174, 127.225, -150.555, 127.163, 89.2869, 0, 0, 2.14168, -53.6914, 2.13589, -173.628, 2.13693, 66.213, 0.0105015, 134.604
0, 3180.00000, 126.881, -30.6174, 127.225, -150.555, 127.163, 89.2869, 0, 0, 2.14168, -53.6914, 2.13589, -173.628, 2.13693, 66.213, 0.0105015, 134.604
0, 3240.00000, 126.881, -30.6174, 127.225, -150.555, 127.163, 89.2869, 0, 0, 2.14168, -53.6914, 2.13589, -173.628, 2.13693, 66.213, 0.0105015, 134.604
0, 3300.00000, 126.881, -30.6174, 127.225, -150.555, 127.163, 89.2869, 0, 0, 2.14168, -53.6914, 2.13589, -173.628, 2.13693, 66.213, 0.0105015, 134.604
0, 3360.00000, 126.881, -30.6174, 127.225, -150.555, 127.163, 89.2869, 0, 0, 2.14168, -53.6914, 2.13589, -173.628, 2.13693, 66.213, 0.0105015, 134.604
0, 3420.00000, 126.881, -30.6174, 127.225, -150.555, 127.163, 89.2869, 0, 0, 2.14168, -53.6914, 2.13589, -173.628, 2.13693, 66.213, 0.0105015, 134.604
0, 3480.00000, 126.881, -30.6174, 127.225, -150.555, 127.163, 89.2869, 0, 0, 2.14168, -53.6914, 2.13589, -173.628, 2.13693, 66.213, 0.0105015, 134.604
0, 3540.00000, 126.881, -30.6174, 127.225, -150.555, 127.163, 89.2869, 0, 0, 2.14168, -53.6914, 2.13589, -173.628, 2.13693, 66.213, 0.0105015, 134.604
1, 0.00000, 126.881, -30.6174, 127.225, -150.555, 127.163, 89.2869, 0, 0, 2.14168, -53.6914, 2.13589, -173.628, 2.13693, 66.213, 0.0105015, 134.604
1, 60.00000, 126.881, -30.6174, 127.225, -150.555, 127.163, 89.2869, 0, 0, 2.14168, -53.6914, 2.13589, -173.628, 2.13693, 66.213, 0.0105015, 134.604
1, 120.00000, 126.881, -30.6174, 127.225, -150.555, 127.163, 89.2869, 0, 0, 2.14168, -53.6914, 2.13589, -173.628, 2.13693, 66.213, 0.0105015, 134.604
1, 180.00000, 126.881, -30.6174, 127.225, -150.555, 127.163, 89.2869, 0, 0, 2.14168, -53.6914, 2.13589, -173.628, 2.13693, 66.213, 0.0105015, 134.604
1, 240.00000, 126.881, -30.6174, 127.225, -150.555, 127.163, 89.2869, 0, 0, 2.14168, -53.6914, 2.13589, -173.628, 2.13693, 66.213, 0.0105015, 134.604
1, 300.00000, 126.881, -30.6174, 127.225, -150.555, 127.163, 89.2869, 0, 0, 2.14168, -53.6914, 2.13589, -173.628, 2.13693, 66.213, 0.0105015, 134.604
1, 360.00000, 126.881, -30.6174, 127.225, -150.555, 127.163, 89.2869, 0, 0, 2.14168, -53.6914, 2.13589, -173.628, 2.13693, 66.213, 0.0105015, 134.604
1, 420.00000, 126.881, -30.6174, 127.225, -150.555, 127.163, 89.2869, 0, 0, 2.14168, -53.6914, 2.13589, -173.628, 2.13693, 66.213, 0.0105015, 134.604
1, 480.00000, 126.881, -30.6174, 127.225, -150.555, 127.163, 89.2869, 0, 0, 2.14168, -53.6914, 2.13589, -173.628, 2.13693, 66.213, 0.0105015, 134.604
1, 540.00000, 126.881, -30.6174, 127.225, -150.555, 127.163, 89.2869, 0, 0, 2.14168, -53.6914, 2.13589, -173.628, 2.13693, 66.213, 0.0105015, 134.604
1, 600.00000, 126.881, -30.6174, 127.225, -150.555, 127.163, 89.2869, 0, 0, 2.14168, -53.6914, 2.13589, -173.628, 2.13693, 66.213, 0.0105015, 134.604
1, 660.00000, 126.881, -30.6174, 127.225, -150.555, 127.163, 89.2869, 0, 0, 2.14168, -53.6914, 2.13589, -173.628, 2.13693, 66.213, 0.0105015, 134.604
1, 720.00000, 126.881, -30.6174, 127.225, -150.555, 127.163, 89.2869, 0, 0, 2.14168, -53.6914, 2.13589, -173.628, 2.13693, 66.213, 0.0105015, 134.604
1, 780.00000, 126.881, -30.6174, 127.225, -150.555, 127.163, 89.2869, 0, 0, 2.14168, -53.6914, 2.13589, -173.628, 2.13693, 66.213, 0.0105015, 134.604
1, 840.00000, 126.881, -30.6174, 127.225, -150.555, 127.163, 89.2869, 0, 0, 2.14168, -53.6914, 2.13589, -173.628, 2.13693, 66.213, 0.0105015, 134.604
1, 900.00000, 126.881, -30.6174, 127.225, -150.555, 127.163, 89.2869, 0, 0, 2.14168, -53.6914, 2.13589, -173.628, 2.13693, 66.213, 0.0105015, 134.604
1, 960.00000, 126.881, -30.6174, 127.225, -150.555, 127.163, 89.2869, 0, 0, 2.14168, -53.6914, 2.13589, -173.628, 2.13693, 66.213, 0.0105015, 134.604
1, 1020.00000, 126.881, -30.6174, 127.225, -150.555, 127.163, 89.2869, 0, 0, 2.14168, -53.6914, 2.13589, -173.628, 2.13693, 66.213, 0.0105015, 134.604
1, 1080.00000, 126.881, -30.6174, 127.225, -150.555, 127.163, 89.2869, 0, 0, 2.14168, -53.6914, 2.13589, -173.628, 2.13693, 66.213, 0.0105015, 134.604
1, 1140.00000, 126.881, -30.6174, 127.225, -150.555, 127.163, 89.2869, 0, 0, 2.14168, -53.6914, 2.13589, -173.628, 2.13693, 66.213, 0.0105015, 134.604
1, 1200.00000, 126.881, -30.6174, 127.225, -150.555, 127.163, 89.2869, 0, 0, 2.14168, -53.6914, 2.13589, -173.628, 2.13693, 66.213, 0.0105015, 134.604
1, 1260.00000, 126.881, -30.6174, 127.225, -150.555, 127.163, 89.2869, 0, 0, 2.14168, -53.6914, 2.13589, -173.628, 2.13693, 66.213, 0.0105015, 134.604
1, 1320.00000, 126.881, -30.6174, 127.225, -150.555, 127.163, 89.2869, 0, 0, 2.14168, -53.6914, 2.13589, -173.628, 2.13693, 66.213, 0.0105015, 134.604
1, 1380.00000, 126.881, -30.6174, 127.225, -150.555, 127.163, 89.2869, 0, 0, 2.14168, -53.6914, 2.13589, -173.628, 2.13693, 66.213, 0.0105015, 134.604
1, 1440.00000, 126.881, -30.6174, 127.225, -150.555, 127.163, 89.2869, 0, 0, 2.14168, -53.6914, 2.13589, -173.628, 2.13693, 66.213, 0.0105015, 134.604
1, 1500.00000, 126.881, -30.6174, 127.225, -150.555, 127.163, 89.2869, 0, 0, 2.14168, -53.6914, 2.13589, -173.628, 2.13693, 66.213, 0.0105015, 134.604
1, 1560.00000, 126.881, -30.6174, 127.225, -150.555, 127.163, 89.2869, 0, 0, 2.14168, -53.6914, 2.13589, -173.628, 2.13693, 66.213, 0.0105015, 134.604
1, 1620.00000, 126.881, -30.6174, 127.225, -150.555, 127.163, 89.2869, 0, 0, 2.14168, -53.6914, 2.13589, -173.628, 2.13693, 66.213, 0.0105015, 134.604
1, 1680.00000, 126.881, -30.6174, 127.225, -150.555, 127.163, 89.2869, 0, 0, 2.14168, -53.6914, 2.13589, -173.628, 2.13693, 66.213, 0.0105015, 134.604
1, 1740.00000, 126.881, -30.6174, 127.225, -150.555, 127.163, 89.2869, 0, 0, 2.14168, -53.6914, 2.13589, -173.628, 2.13693, 66.213, 0.0105015, 134.604
1, 1800.00000, 126.881, -30.6174, 127.225, -150.555, 127.163, 89.2869, 0, 0, 2.14168, -53.6914, 2.13589, -173.628, 2.13693, 66.213, 0.0105015, 134.604
1, 1860.00000, 126.881, -30.6174, 127.225, -150.555, 127.163, 89.2869, 0, 0, 2.14168, -53.6914, 2.13589, -173.628, 2.13693, 66.213, 0.0105015, 134.604
1, 1920.00000, 126.881, -30.6174, 127.225, -150.555, 127.163, 89.2869, 0, 0, 2.14168, -53.6914, 2.13589, -173.628, 2.13693, 66.213, 0.0105015, 134.604
1, 1980.00000, 126.881, -30.6174, 127.225, -150.555, 127.163, 89.2869, 0, 0, 2.14168, -53.6914, 2.13589, -173.628, 2.13693, 66.213, 0.0105015, 134.604
1, 2040.00000, 126.881, -30.6174, 127.225, -150.555, 127.163, 89.2869, 0, 0, 2.14168, -53.6914, 2.13589, -173.628, 2.13693, 66.213, 0.0105015, 134.604
1, 2100.00000, 126.881, -30.6174, 127.225, -150.555, 127.163, 89.2869, 0, 0, 2.14168, -53.6914, 2.13589, -173.628, 2.13693, 66.213, 0.0105015, 134.604
1, 2160.00000, 126.881, -30.6174, 127.225, -150.555, 127.163, 89.2869, 0, 0, 2.14168, -53.6914, 2.13589, -173.628, 2.13693, 66.213, 0.0105015, 134.604
1, 2220.00000, 126.881, -30.6174, 127.225, -150.555, 127.163, 89.2869, 0, 0, 2.14168, -53.6914, 2.13589, -173.628, 2.13693, 66.213, 0.0105015, 134.604
1, 2280.00000, 126.881, -30.6174, 127.225, -150.555, 127.163, 89.2869, 0, 0, 2.14168, -53.6914, 2.13589, -173.628, 2.13693, 66.213, 0.0105015, 134.604
1, 2340.00000, 126.881, -30.6174, 127.225, -150.555, 127.163, 89.2869, 0, 0, 2.14168, -53.6914, 2.13589, -173.628, 2.13693, 66.213, 0.0105015, 134.604
1, 2400.00000, 126.881, -30.6174, 127.225, -150.555, 127.163, 89.2869, 0, 0, 2.14168, -53.6914, 2.13589, -173.628, 2.13693, 66.213, 0.0105015, 134.604
1, 2460.00000, 126.881, -30.6174, 127.225, -150.555, 127.163, 89.2869, 0, 0, 2.14168, -53.6914, 2.13589, -173.628, 2.13693, 66.213, 0.0105015, 134.604
1, 2520.00000, 126.881, -30.6174, 127.225, -150.555, 127.163, 89.2869, 0, 0, 2.14168, -53.6914, 2.13589, -173.628, 2.13693, 66.213, 0.0105015, 134.604
1, 2580.00000, 126.881, -30.6174, 127.225, -150.555, 127.163, 89.2869, 0, 0, 2.14168, -53.6914, 2.13589, -173.628, 2.13693, 66.213, 0.0105015, 134.604
1, 2640.00000, 126.881, -30.6174, 127.225, -150.555, 127.163, 89.2869, 0, 0, 2.14168, -53.6914, 2.13589, -173.628, 2.13693, 66.213, 0.0105015, 134.604
1, 2700.00000, 126.881, -30.6174, 127.225, -150.555, 127.163, 89.2869, 0, 0, 2.14168, -53.6914, 2.13589, -173.628, 2.13693, 66.213, 0.0105015, 134.604
1, 2760.00000, 126.881, -30.6174, 127.225, -150.555, 127.163, 89.2869, 0, 0, 2.14168, -53.6914, 2.13589, -173.628, 2.13693, 66.213, 0.0105015, 134.604
1, 2820.00000, 126.881, -30.6174, 127.225, -150.555, 127.163, 89.2869, 0, 0, 2.14168, -53.6914, 2.13589, -173.628, 2.13693, 66.213, 0.0105015, 134.604
1, 2880.00000, 126.881, -30.6174, 127.225, -150.555, 127.163, 89.2869, 0, 0, 2.14168, -53.6914, 2.13589, -173.628, 2.13693, 66.213, 0.0105015, 134.604
1, 2940.00000, 126.881, -30.6174, 127.225, -150.555, 127.163, 89.2869, 0, 0, 2.14168, -53.6914, 2.13589, -173.628, 2.13693, 66.213, 0.0105015, 134.604
1, 3000.00000, 126.881, -30.6174, 127.225, -150.555, 127.163, 89.2869, 0, 0, 2.14168, -53.6914, 2.13589, -173.628, 2.13693, 66.213, 0.0105015, 134.604
1, 3060.00000, 126.881, -30.6174, 127.225, -150.555, 127.163, 89.2869, 0, 0, 2.14168, -53.6914, 2.13589, -173.628, 2.13693, 66.213, 0.0105015, 134.604
1, 3120.00000, 126.881, -30.6174, 127.225, -150.555, 127.163, 89.2869, 0, 0, 2.14168, -53.6914, 2.13589, -173.628, 2.13693, 66.213, 0.0105015, 134.604
1, 3180.00000, 126.881, -30.6174, 127.225, -150.555, 127.163, 89.2869, 0, 0, 2.14168, -53.6914, 2.13589, -173.628, 2.13693, 66.213, 0.0105015, 134.604
1, 3240.00000, 126.881, -30.6174, 127.225, -150.555, 127.163, 89.2869, 0, 0, 2.14168, -53.6914, 2.13589, -173.628, 2.13693, 66.213, 0.0105015, 134.604
1, 3300.00000, 126.881, -30.6174, 127.225, -150.555, 127.163, 89.2869, 0, 0, 2.14168, -53.6914, 2.13589, -173.628, 2.13693, 66.213, 0.0105015, 134.604
1, 3360.00000, 126.881, -30.6174, 127.225, -150.555, 127.163, 89.2869, 0, 0, 2.14168, -53.6914, 2.13589, -173.628, 2.13693, 66.213, 0.0105015, 134.604
1, 3420.00000, 126.881, -30.6174, 127.225, -150.555, 127.163, 89.2869, 0, 0, 2.14168, -53.6914, 2.13589, -173.628, 2.13693, 66.213, 0.0105015, 134.604
1, 3480.00000, 126.881, -30.6174, 127.225, -150.555, 127.163, 89.2869, 0, 0, 2.14168, -53.6914, 2.13589, -173.628, 2.13693, 66.213, 0.0105015, 134.604
1, 3540.00000, 126.881, -30.6174, 127.225, -150.555, 127.163, 89.2869, 0, 0, 2.14168, -53.6914, 2.13589, -173.628, 2.13693, 66.213, 0.0105015, 134.604
2, 0.00000, 126.881, -30.6174, 127.225, -150.555, 127.163, 89.2869, 0, 0, 2.14168, -53.6914, 2.13589, -173.628, 2.13693, 66.213, 0.0105015, 134.604
2, 60.00000, 126.881, -30.6174, 127.225, -150.555, 127.163, 89.2869, 0, 0, 2.14168, -53.6914, 2.13589, -173.628, 2.13693, 66.213, 0.0105015, 134.604
2, 120.00000, 126.878, -30.6186, 127.222, -150.556, 127.16, 89.2858, 0, 0, 2.14766, -53.6924, 2.14185, -173.629, 2.1429, 66.2119, 0.0105315, 134.602
2, 180.00000, 126.875, -30.6197, 127.219, -150.557, 127.156, 89.2847, 0, 0, 2.15371, -53.6936, 2.14789, -173.631, 2.14894, 66.2108, 0.0105627, 134.601
2, 240.00000, 126.871, -30.6208, 127.215, -150.558, 127.153, 89.2836, 0, 0, 2.1597, -53.6947, 2.15385, -173.632, 2.15491, 66.2097, 0.0105936, 134.6
2, 300.00000, 126.868, -30.6219, 127.212, -150.559, 127.15, 89.2824, 0, 0, 2.16568, -53.6958, 2.15982, -173.633, 2.16088, 66.2086, 0.0106245, 134.599
2, 360.00000, 126.864, -30.6231, 127.209, -150.56, 127.146, 89.2813, 0, 0, 2.17174, -53.6969, 2.16586, -173.634, 2.16692, 66.2074, 0.0106558, 134.598
2, 420.00000, 126.861, -30.6242, 127.205, -150.561, 127.143, 89.2802, 0, 0, 2.17772, -53.6981, 2.17183, -173.635, 2.17289, 66.2063, 0.0106868, 134.597
2, 480.00000, 126.857, -30.6253, 127.202, -150.562, 127.139, 89.2791, 0, 0, 2.18371, -53.6992, 2.17779, -173.636, 2.17886, 66.2052, 0.0107177, 134.596
2, 540.00000, 126.854, -30.6264, 127.199, -150.563, 127.136, 89.2779, 0, 0, 2.18977, -53.7003, 2.18383, -173.637, 2.18491, 66.2041, 0.010749, 134.595
2, 600.00000, 126.851, -30.6276, 127.195, -150.564, 127.133, 89.2768, 0, 0, 2.19575, -53.7014, 2.1898, -173.638, 2.19088, 66.2029, 0.01078, 134.594
2, 660.00000, 126.847, -30.6287, 127.192, -150.566, 127.129, 89.2757, 0, 0, 2.20174, -53.7026, 2.19577, -173.639, 2.19685, 66.2018, 0.010811, 134.593
