hour,t(sec),V1,VAngle1,V2,VAngle2,V3,VAngle3,V4,VAngle4,I1,IAngle1,I2,IAngle2,I3,IAngle3,I4,IAngle4
0, 60.00000, 126.079, -30.7012, 126.849, -151.062, 125.739, 88.8166, 0, 0, 2.15528, -53.7749, 2.14222, -174.136, 2.16112, 65.7431, 0.0330943, -157.287
0, 120.00000, 126.079, -30.7012, 126.849, -151.062, 125.739, 88.8166, 0, 0, 2.1553, -53.7751, 2.14222, -174.136, 2.16114, 65.7426, 0.0331113, -157.312
0, 180.00000, 126.079, -30.7012, 126.849, -151.062, 125.739, 88.8166, 0, 0, 2.1553, -53.7751, 2.14222, -174.136, 2.16114, 65.7426, 0.0331114, -157.313
0, 240.00000, 126.079, -30.7012, 126.849, -151.062, 125.739, 88.8166, 0, 0, 2.1553, -53.7751, 2.14222, -174.136, 2.16114, 65.7426, 0.0331114, -157.313
0, 300.00000, 126.084, -30.6995, 126.981, -150.889, 126.14, 88.8616, 0, 0, 2.15524, -53.7736, 2.14001, -173.963, 2.15429, 65.787, 0.0291162, -177.816
0, 360.00000, 126.084, -30.6995, 126.981, -150.889, 126.14, 88.8617, 0, 0, 2.15522, -53.7734, 2.13999, -173.963, 2.15426, 65.7878, 0.0290843, -177.844
0, 420.00000, 126.084, -30.6995, 126.981, -150.889, 126.14, 88.8617, 0, 0, 2.15521, -53.7734, 2.13999, -173.963, 2.15426, 65.7878, 0.0290841, -177.844
0, 480.00000, 126.084, -30.6995, 126.981, -150.889, 126.14, 88.8617, 0, 0, 2.15521, -53.7734, 2.13999, -173.963, 2.15426, 65.7878, 0.0290841, -177.844
0, 540.00000, 126.084, -30.6995, 126.981, -150.889, 126.14, 88.8617, 0, 0, 2.15521, -53.7734, 2.13999, -173.963, 2.15426, 65.7878, 0.0290841, -177.844
0, 600.00000, 126.084, -30.6995, 126.981, -150.889, 126.14, 88.8617, 0, 0, 2.15521, -53.7734, 2.13999, -173.963, 2.15426, 65.7878, 0.0290841, -177.844
0, 660.00000, 126.084, -30.6995, 126.981, -150.889, 126.14, 88.8617, 0, 0, 2.15521, -53.7734, 2.13999, -173.963, 2.15426, 65.7878, 0.0290841, -177.844
0, 720.00000, 126.084, -30.6995, 126.981, -150.889, 126.14, 88.8617, 0, 0, 2.15521, -53.7734, 2.13999, -173.963, 2.15426, 65.7878, 0.0290841, -177.844
0, 780.00000, 126.088, -30.6986, 127.105, -150.72, 126.53, 88.9042, 0, 0, 2.15516, -53.7726, 2.13791, -173.795, 2.14764, 65.8298, 0.0294868, 159.649
0, 840.00000, 126.088, -30.6986, 127.105, -150.72, 126.53, 88.9042, 0, 0, 2.15515, -53.7725, 2.13791, -173.794, 2.14762, 65.8303, 0.0294631, 159.63
0, 900.00000, 126.088, -30.6986, 127.105, -150.72, 126.53, 88.9042, 0, 0, 2.15515, -53.7725, 2.13791, -173.794, 2.14762, 65.8303, 0.0294629, 159.63
0, 960.00000, 125.681, -30.7416, 127.102, -150.721, 126.397, 88.7282, 0, 0, 2.16212, -53.8152, 2.13796, -173.795, 2.14987, 65.6547, 0.0412118, 154.893
0, 1020.00000, 125.681, -30.7417, 127.102, -150.721, 126.397, 88.7282, 0, 0, 2.16214, -53.8156, 2.13795, -173.795, 2.14989, 65.6543, 0.0412386, 154.898
0, 1080.00000, 125.681, -30.7417, 127.102, -150.721, 126.397, 88.7282, 0, 0, 2.16214, -53.8156, 2.13795, -173.795, 2.14989, 65.6543, 0.0412387, 154.898
0, 1140.00000, 125.681, -30.7417, 127.102, -150.721, 126.397, 88.7282, 0, 0, 2.16214, -53.8156, 2.13795, -173.795, 2.14989, 65.6543, 0.0412387, 154.898
0, 1200.00000, 125.681, -30.7417, 127.102, -150.721, 126.397, 88.7282, 0, 0, 2.16214, -53.8156, 2.13795, -173.795, 2.14989, 65.6543, 0.0412387, 154.898
0, 1260.00000, 125.681, -30.7417, 127.102, -150.721, 126.397, 88.7282, 0, 0, 2.16214, -53.8156, 2.13795, -173.795, 2.14989, 65.6543, 0.0412387, 154.898
0, 1320.00000, 125.681, -30.7417, 127.102, -150.721, 126.397, 88.7282, 0, 0, 2.16214, -53.8156, 2.13795, -173.795, 2.14989, 65.6543, 0.0412387, 154.898
0, 1380.00000, 125.681, -30.7417, 127.102, -150.721, 126.397, 88.7282, 0, 0, 2.16214, -53.8156, 2.13795, -173.795, 2.14989, 65.6543, 0.0412387, 154.898
0, 1440.00000, 125.681, -30.7417, 127.102, -150.721, 126.397, 88.7282, 0, 0, 2.16214, -53.8156, 2.13795, -173.795, 2.14989, 65.6543, 0.0412387, 154.898
0, 1500.00000, 125.681, -30.7417, 127.102, -150.721, 126.397, 88.7282, 0, 0, 2.16214, -53.8156, 2.13795, -173.795, 2.14989, 65.6543, 0.0412387, 154.898
0, 1560.00000, 125.681, -30.7417, 127.102, -150.721, 126.397, 88.7282, 0, 0, 2.16214, -53.8156, 2.13795, -173.795, 2.14989, 65.6543, 0.0412387, 154.898
0, 1620.00000, 125.681, -30.7417, 127.102, -150.721, 126.397, 88.7282, 0, 0, 2.16214, -53.8156, 2.13795, -173.795, 2.14989, 65.6543, 0.0412387, 154.898
0, 1680.00000, 125.681, -30.7417, 127.102, -150.721, 126.397, 88.7282, 0, 0, 2.16214, -53.8156, 2.13795, -173.795, 2.14989, 65.6543, 0.0412387, 154.898
0, 1740.00000, 125.681, -30.7417, 127.102, -150.721, 126.397, 88.7282, 0, 0, 2.16214, -53.8156, 2.13795, -173.795, 2.14989, 65.6543, 0.0412387, 154.898
0, 1800.00000, 125.681, -30.7417, 127.102, -150.721, 126.397, 88.7282, 0, 0, 2.16214, -53.8156, 2.13795, -173.795, 2.14989, 65.6543, 0.0412387, 154.898
0, 1860.00000, 125.681, -30.7417, 127.102, -150.721, 126.397, 88.7282, 0, 0, 2.16214, -53.8156, 2.13795, -173.795, 2.14989, 65.6543, 0.0412387, 154.898
0, 1920.00000, 125.681, -30.7417, 127.102, -150.721, 126.397, 88.7282, 0, 0, 2.16214, -53.8156, 2.13795, -173.795, 2.14989, 65.6543, 0.0412387, 154.898
0, 1980.00000, 125.681, -30.7417, 127.102, -150.721, 126.397, 88.7282, 0, 0, 2.16214, -53.8156, 2.13795, -173.795, 2.14989, 65.6543, 0.0412387, 154.898
0, 2040.00000, 125.681, -30.7417, 127.102, -150.721, 126.397, 88.7282, 0, 0, 2.16214, -53.8156, 2.13795, -173.795, 2.14989, 65.6543, 0.0412387, 154.898
0, 2100.00000, 125.681, -30.7417, 127.102, -150.721, 126.397, 88.7282, 0, 0, 2.16214, -53.8156, 2.13795, -173.795, 2.14989, 65.6543, 0.0412387, 154.898
0, 2160.00000, 125.681, -30.7417, 127.102, -150.721, 126.397, 88.7282, 0, 0, 2.16214, -53.8156, 2.13795, -173.795, 2.14989, 65.6543, 0.0412387, 154.898
0, 2220.00000, 126.08, -30.7018, 127.104, -150.721, 126.524, 88.9003, 0, 0, 2.15531, -53.776, 2.13792, -173.795, 2.14773, 65.8261, 0.0296796, 159.439
0, 2280.00000, 126.08, -30.7018, 127.104, -150.721, 126.524, 88.9003, 0, 0, 2.1553, -53.7757, 2.13792, -173.795, 2.14772, 65.8264, 0.0296574, 159.461
0, 2340.00000, 126.08, -30.7018, 127.104, -150.721, 126.524, 88.9003, 0, 0, 2.1553, -53.7757, 2.13792, -173.795, 2.14772, 65.8264, 0.0296573, 159.461
0, 2400.00000, 126.08, -30.7018, 127.104, -150.721, 126.524, 88.9003, 0, 0, 2.1553, -53.7757, 2.13792, -173.795, 2.14772, 65.8264, 0.0296573, 159.461
0, 2460.00000, 126.08, -30.7018, 127.104, -150.721, 126.524, 88.9003, 0, 0, 2.1553, -53.7757, 2.13792, -173.795, 2.14772, 65.8264, 0.0296573, 159.461
0, 2520.00000, 126.08, -30.7018, 127.104, -150.721, 126.524, 88.9003, 0, 0, 2.1553, -53.7757, 2.13792, -173.795, 2.14772, 65.8264, 0.0296573, 159.461
0, 2580.00000, 126.08, -30.7018, 127.104, -150.721, 126.524, 88.9003, 0, 0, 2.1553, -53.7757, 2.13792, -173.795, 2.14772, 65.8264, 0.0296573, 159.461
0, 2640.00000, 126.08, -30.7018, 127.104, -150.721, 126.524, 88.9003, 0, 0, 2.1553, -53.7757, 2.13792, -173.795, 2.14772, 65.8264, 0.0296573, 159.461
0, 2700.00000, 126.08, -30.7018, 127.104, -150.721, 126.524, 88.9003, 0, 0, 2.1553, -53.7757, 2.13792, -173.795, 2.14772, 65.8264, 0.0296573, 159.461
0, 2760.00000, 126.08, -30.7018, 127.104, -150.721, 126.524, 88.9003, 0, 0, 2.1553, -53.7757, 2.13792, -173.795, 2.14772, 65.8264, 0.0296573, 159.461
0, 2820.00000, 126.08, -30.7018, 127.104, -150.721, 126.524, 88.9003, 0, 0, 2.1553, -53.7757, 2.13792, -173.795, 2.14772, 65.8264, 0.0296573, 159.461
0, 2880.00000, 126.08, -30.7018, 127.104, -150.721, 126.524, 88.9003, 0, 0, 2.1553, -53.7757, 2.13792, -173.795, 2.14772, 65.8264, 0.0296573, 159.461
0, 2940.00000, 126.08, -30.7018, 127.104, -150.721, 126.524, 88.9003, 0, 0, 2.1553, -53.7757, 2.13792, -173.795, 2.14772, 65.8264, 0.0296573, 159.461
0, 3000.00000, 126.08, -30.7018, 127.104, -150.721, 126.524, 88.9003, 0, 0, 2.1553, -53.7757, 2.13792, -173.795, 2.14772, 65.8264, 0.0296573, 159.461
0, 3060.00000, 126.08, -30.7018, 127.104, -150.721, 126.524, 88.9003, 0, 0, 2.1553, -53.7757, 2.13792, -173.795, 2.14772, 65.8264, 0.0296573, 159.461
0, 3120.00000, 126.08, -30.7018, 127.104, -150.721, 126.524, 88.9003, 0, 0, 2.1553, -53.7757, 2.13792, -173.795, 2.14772, 65.8264, 0.0296573, 159.461
0, 3180.00000, 126.08, -30.7018, 127.104, -150.721, 126.524, 88.9003, 0, 0, 2.1553, -53.7757, 2.13792, -173.795, 2.14772, 65.8264, 0.0296573, 159.461
0, 3240.00000, 126.08, -30.7018, 127.104, -150.721, 126.524, 88.9003, 0, 0, 2.1553, -53.7757, 2.13792, -173.795, 2.14772, 65.8264, 0.0296573, 159.461
0, 3300.00000, 126.08, -30.7018, 127.104, -150.721, 126.524, 88.9003, 0, 0, 2.1553, -53.7757, 2.13792, -173.795, 2.14772, 65.8264, 0.0296573, 159.461
0, 3360.00000, 126.08, -30.7018, 127.104, -150.721, 126.524, 88.9003, 0, 0, 2.1553, -53.7757, 2.13792, -173.795, 2.14772, 65.8264, 0.0296573, 159.461
0, 3420.00000, 126.08, -30.7018, 127.104, -150.721, 126.524, 88.9003, 0, 0, 2.1553, -53.7757, 2.13792, -173.795, 2.14772, 65.8264, 0.0296573, 159.461
0, 3480.00000, 126.08, -30.7018, 127.104, -150.721, 126.524, 88.9003, 0, 0, 2.1553, -53.7757, 2.13792, -173.795, 2.14772, 65.8264, 0.0296573, 159.461
0, 3540.00000, 126.491, -30.6575, 127.107, -150.72, 126.658, 89.0774, 0, 0, 2.14834, -53.732, 2.13787, -173.794, 2.14548, 66.0026, 0.0183623, 170.037
1, 0.00000, 126.491, -30.6575, 127.107, -150.72, 126.658, 89.0775, 0, 0, 2.14829, -53.7314, 2.13788, -173.794, 2.14546, 66.0036, 0.0183047, 170.136
1, 60.00000, 126.491, -30.6575, 127.107, -150.72, 126.658, 89.0775, 0, 0, 2.14829, -53.7314, 2.13788, -173.794, 2.14546, 66.0036, 0.0183043, 170.137
1, 120.00000, 126.491, -30.6575, 127.107, -150.72, 126.658, 89.0775, 0, 0, 2.14829, -53.7314, 2.13788, -173.794, 2.14546, 66.0036, 0.0183043, 170.137
1, 180.00000, 126.491, -30.6575, 127.107, -150.72, 126.658, 89.0775, 0, 0, 2.14829, -53.7314, 2.13788, -173.794, 2.14546, 66.0036, 0.0183043, 170.137
1, 240.00000, 126.491, -30.6575, 127.107, -150.72, 126.658, 89.0775, 0, 0, 2.14829, -53.7314, 2.13788, -173.794, 2.14546, 66.0036, 0.0183043, 170.137
1, 300.00000, 126.491, -30.6575, 127.107, -150.72, 126.658, 89.0775, 0, 0, 2.14829, -53.7314, 2.13788, -173.794, 2.14546, 66.0036, 0.0183043, 170.137
1, 360.00000, 126.491, -30.6575, 127.107, -150.72, 126.658, 89.0775, 0, 0, 2.14829, -53.7314, 2.13788, -173.794, 2.14546, 66.0036, 0.0183043, 170.137
1, 420.00000, 126.491, -30.6575, 127.107, -150.72, 126.658, 89.0775, 0, 0, 2.14829, -53.7314, 2.13788, -173.794, 2.14546, 66.0036, 0.0183043, 170.137
1, 480.00000, 126.491, -30.6575, 127.107, -150.72, 126.658, 89.0775, 0, 0, 2.14829, -53.7314, 2.13788, -173.794, 2.14546, 66.0036, 0.0183043, 170.137
1, 540.00000, 126.491, -30.6575, 127.107, -150.72, 126.658, 89.0775, 0, 0, 2.14829, -53.7314, 2.13788, -173.794, 2.14546, 66.0036, 0.0183043, 170.137
1, 600.00000, 126.491, -30.6575, 127.107, -150.72, 126.658, 89.0775, 0, 0, 2.14829, -53.7314, 2.13788, -173.794, 2.14546, 66.0036, 0.0183043, 170.137
1, 660.00000, 126.493, -30.6572, 127.227, -150.554, 127.043, 89.1192, 0, 0, 2.14826, -53.7312, 2.13587, -173.628, 2.13896, 66.0449, 0.02199, 139.201
1, 720.00000, 126.493, -30.6572, 127.227, -150.554, 127.043, 89.1193, 0, 0, 2.14825, -53.7311, 2.13587, -173.628, 2.13895, 66.0453, 0.0219754, 139.163
1, 780.00000, 126.896, -30.6133, 127.228, -150.553, 127.173, 89.2927, 0, 0, 2.14146, -53.6877, 2.13583, -173.627, 2.13679, 66.2182, 0.0102449, 134.467
1, 840.00000, 126.896, -30.6132, 127.228, -150.553, 127.173, 89.2928, 0, 0, 2.14143, -53.6872, 2.13584, -173.627, 2.13677, 66.2189, 0.0101973, 134.459
1, 900.00000, 126.896, -30.6132, 127.228, -150.553, 127.173, 89.2928, 0, 0, 2.14143, -53.6872, 2.13584, -173.627, 2.13677, 66.2189, 0.0101971, 134.458
1, 960.00000, 126.896, -30.6132, 127.228, -150.553, 127.173, 89.2928, 0, 0, 2.14143, -53.6872, 2.13584, -173.627, 2.13677, 66.2189, 0.0101971, 134.458
1, 1020.00000, 126.896, -30.6132, 127.228, -150.553, 127.173, 89.2928, 0, 0, 2.14143, -53.6872, 2.13584, -173.627, 2.13677, 66.2189, 0.0101971, 134.458
1, 1080.00000, 126.896, -30.6132, 127.228, -150.553, 127.173, 89.2928, 0, 0, 2.14143, -53.6872, 2.13584, -173.627, 2.13677, 66.2189, 0.0101971, 134.458
1, 1140.00000, 126.896, -30.6132, 127.228, -150.553, 127.173, 89.2928, 0, 0, 2.14143, -53.6872, 2.13584, -173.627, 2.13677, 66.2189, 0.0101971, 134.458
1, 1200.00000, 126.896, -30.6132, 127.228, -150.553, 127.173, 89.2928, 0, 0, 2.14143, -53.6872, 2.13584, -173.627, 2.13677, 66.2189, 0.0101971, 134.458
1, 1260.00000, 126.896, -30.6132, 127.228, -150.553, 127.173, 89.2928, 0, 0, 2.14143, -53.6872, 2.13584, -173.627, 2.13677, 66.2189, 0.0101971, 134.458
1, 1320.00000, 126.896, -30.6132, 127.228, -150.553, 127.173, 89.2928, 0, 0, 2.14143, -53.6872, 2.13584, -173.627, 2.13677, 66.2189, 0.0101971, 134.458
1, 1380.00000, 126.896, -30.6132, 127.228, -150.553, 127.173, 89.2928, 0, 0, 2.14143, -53.6872, 2.13584, -173.627, 2.13677, 66.2189, 0.0101971, 134.458
1, 1440.00000, 126.896, -30.6132, 127.228, -150.553, 127.173, 89.2928, 0, 0, 2.14143, -53.6872, 2.13584, -173.627, 2.13677, 66.2189, 0.0101971, 134.458
1, 1500.00000, 126.896, -30.6132, 127.228, -150.553, 127.173, 89.2928, 0, 0, 2.14143, -53.6872, 2.13584, -173.627, 2.13677, 66.2189, 0.0101971, 134.458
1, 1560.00000, 126.896, -30.6132, 127.228, -150.553, 127.173, 89.2928, 0, 0, 2.14143, -53.6872, 2.13584, -173.627, 2.13677, 66.2189, 0.0101971, 134.458
1, 1620.00000, 126.896, -30.6132, 127.228, -150.553, 127.173, 89.2928, 0, 0, 2.14143, -53.6872, 2.13584, -173.627, 2.13677, 66.2189, 0.0101971, 134.458
1, 1680.00000, 126.896, -30.6132, 127.228, -150.553, 127.173, 89.2928, 0, 0, 2.14143, -53.6872, 2.13584, -173.627, 2.13677, 66.2189, 0.0101971, 134.458
1, 1740.00000, 126.896, -30.6132, 127.228, -150.553, 127.173, 89.2928, 0, 0, 2.14143, -53.6872, 2.13584, -173.627, 2.13677, 66.2189, 0.0101971, 134.458
1, 1800.00000, 126.896, -30.6132, 127.228, -150.553, 127.173, 89.2928, 0, 0, 2.14143, -53.6872, 2.13584, -173.627, 2.13677, 66.2189, 0.0101971, 134.458
1, 1860.00000, 126.896, -30.6132, 127.228, -150.553, 127.173, 89.2928, 0, 0, 2.14143, -53.6872, 2.13584, -173.627, 2.13677, 66.2189, 0.0101971, 134.458
1, 1920.00000, 126.896, -30.6132, 127.228, -150.553, 127.173, 89.2928, 0, 0, 2.14143, -53.6872, 2.13584, -173.627, 2.13677, 66.2189, 0.0101971, 134.458
1, 1980.00000, 126.896, -30.6132, 127.228, -150.553, 127.173, 89.2928, 0, 0, 2.14143, -53.6872, 2.13584, -173.627, 2.13677, 66.2189, 0.0101971, 134.458
1, 2040.00000, 126.896, -30.6132, 127.228, -150.553, 127.173, 89.2928, 0, 0, 2.14143, -53.6872, 2.13584, -173.627, 2.13677, 66.2189, 0.0101971, 134.458
1, 2100.00000, 126.896, -30.6132, 127.228, -150.553, 127.173, 89.2928, 0, 0, 2.14143, -53.6872, 2.13584, -173.627, 2.13677, 66.2189, 0.0101971, 134.458
1, 2160.00000, 126.896, -30.6132, 127.228, -150.553, 127.173, 89.2928, 0, 0, 2.14143, -53.6872, 2.13584, -173.627, 2.13677, 66.2189, 0.0101971, 134.458
1, 2220.00000, 126.896, -30.6132, 127.228, -150.553, 127.173, 89.2928, 0, 0, 2.14143, -53.6872, 2.13584, -173.627, 2.13677, 66.2189, 0.0101971, 134.458
1, 2280.00000, 126.896, -30.6132, 127.228, -150.553, 127.173, 89.2928, 0, 0, 2.14143, -53.6872, 2.13584, -173.627, 2.13677, 66.2189, 0.0101971, 134.458
1, 2340.00000, 126.896, -30.6132, 127.228, -150.553, 127.173, 89.2928, 0, 0, 2.14143, -53.6872, 2.13584, -173.627, 2.13677, 66.2189, 0.0101971, 134.458
1, 2400.00000, 126.896, -30.6132, 127.228, -150.553, 127.173, 89.2928, 0, 0, 2.14143, -53.6872, 2.13584, -173.627, 2.13677, 66.2189, 0.0101971, 134.458
1, 2460.00000, 126.896, -30.6132, 127.228, -150.553, 127.173, 89.2928, 0, 0, 2.14143, -53.6872, 2.13584, -173.627, 2.13677, 66.2189, 0.0101971, 134.458
1, 2520.00000, 126.896, -30.6132, 127.228, -150.553, 127.173, 89.2928, 0, 0, 2.14143, -53.6872, 2.13584, -173.627, 2.13677, 66.2189, 0.0101971, 134.458
1, 2580.00000, 126.896, -30.6132, 127.228, -150.553, 127.173, 89.2928, 0, 0, 2.14143, -53.6872, 2.13584, -173.627, 2.13677, 66.2189, 0.0101971, 134.458
1, 2640.00000, 126.896, -30.6132, 127.228, -150.553, 127.173, 89.2928, 0, 0, 2.14143, -53.6872, 2.13584, -173.627, 2.13677, 66.2189, 0.0101971, 134.458
1, 2700.00000, 126.896, -30.6132, 127.228, -150.553, 127.173, 89.2928, 0, 0, 2.14143, -53.6872, 2.13584, -173.627, 2.13677, 66.2189, 0.0101971, 134.458
1, 2760.00000, 126.896, -30.6132, 127.228, -150.553, 127.173, 89.2928, 0, 0, 2.14143, -53.6872, 2.13584, -173.627, 2.13677, 66.2189, 0.0101971, 134.458
1, 2820.00000, 126.896, -30.6132, 127.228, -150.553, 127.173, 89.2928, 0, 0, 2.14143, -53.6872, 2.13584, -173.627, 2.13677, 66.2189, 0.0101971, 134.458
1, 2880.00000, 126.896, -30.6132, 127.228, -150.553, 127.173, 89.2928, 0, 0, 2.14143, -53.6872, 2.13584, -173.627, 2.13677, 66.2189, 0.0101971, 134.458
1, 2940.00000, 126.896, -30.6132, 127.228, -150.553, 127.173, 89.2928, 0, 0, 2.14143, -53.6872, 2.13584, -173.627, 2.13677, 66.2189, 0.0101971, 134.458
1, 3000.00000, 126.896, -30.6132, 127.228, -150.553, 127.173, 89.2928, 0, 0, 2.14143, -53.6872, 2.13584, -173.627, 2.13677, 66.2189, 0.0101971, 134.458
1, 3060.00000, 126.896, -30.6132, 127.228, -150.553, 127.173, 89.2928, 0, 0, 2.14143, -53.6872, 2.13584, -173.627, 2.13677, 66.2189, 0.0101971, 134.458
1, 3120.00000, 126.896, -30.6132, 127.228, -150.553, 127.173, 89.2928, 0, 0, 2.14143, -53.6872, 2.13584, -173.627, 2.13677, 66.2189, 0.0101971, 134.458
1, 3180.00000, 126.896, -30.6132, 127.228, -150.553, 127.173, 89.2928, 0, 0, 2.14143, -53.6872, 2.13584, -173.627, 2.13677, 66.2189, 0.0101971, 134.458
1, 3240.00000, 126.896, -30.6132, 127.228, -150.553, 127.173, 89.2928, 0, 0, 2.14143, -53.6872, 2.13584, -173.627, 2.13677, 66.2189, 0.0101971, 134.458
1, 3300.00000, 126.896, -30.6132, 127.228, -150.553, 127.173, 89.2928, 0, 0, 2.14143, -53.6872, 2.13584, -173.627, 2.13677, 66.2189, 0.0101971, 134.458
1, 3360.00000, 126.896, -30.6132, 127.228, -150.553, 127.173, 89.2928, 0, 0, 2.14143, -53.6872, 2.13584, -173.627, 2.13677, 66.2189, 0.0101971, 134.458
1, 3420.00000, 126.896, -30.6132, 127.228, -150.553, 127.173, 89.2928, 0, 0, 2.14143, -53.6872, 2.13584, -173.627, 2.13677, 66.2189, 0.0101971, 134.458
1, 3480.00000, 127.287, -30.5719, 127.23, -150.553, 127.295, 89.4613, 0, 0, 2.13487, -53.6462, 2.13581, -173.627, 2.13472, 66.3871, 0.00209971, 12.1699
1, 3540.00000, 127.287, -30.5719, 127.23, -150.553, 127.295, 89.4613, 0, 0, 2.13486, -53.6458, 2.13582, -173.627, 2.13472, 66.3874, 0.00210483, 11.4427
2, 0.00000, 127.287, -30.5719, 127.23, -150.553, 127.295, 89.4613, 0, 0, 2.13486, -53.6458, 2.13582, -173.627, 2.13472, 66.3874, 0.00210484, 11.4403
2, 60.00000, 127.287, -30.5719, 127.23, -150.553, 127.295, 89.4613, 0, 0, 2.13486, -53.6458, 2.13582, -173.627, 2.13472, 66.3874, 0.00210484, 11.4403
2, 120.00000, 127.283, -30.573, 127.226, -150.555, 127.291, 89.4602, 0, 0, 2.14082, -53.6468, 2.14178, -173.628, 2.14068, 66.3864, 0.00211196, 11.4312
2, 180.00000, 127.28, -30.5741, 127.223, -150.556, 127.288, 89.4591, 0, 0, 2.14685, -53.6479, 2.14782, -173.629, 2.14672, 66.3853, 0.00211792, 11.4393
2, 240.00000, 127.277, -30.5752, 127.22, -150.557, 127.285, 89.458, 0, 0, 2.15282, -53.649, 2.15378, -173.631, 2.15268, 66.3842, 0.00212378, 11.4479
2, 300.00000, 127.273, -30.5763, 127.216, -150.558, 127.281, 89.4569, 0, 0, 2.15878, -53.6502, 2.15975, -173.632, 2.15864, 66.3831, 0.00212965, 11.4564
2, 360.00000, 127.27, -30.5774, 127.213, -150.559, 127.278, 89.4558, 0, 0, 2.16482, -53.6513, 2.16579, -173.633, 2.16468, 66.382, 0.0021356, 11.4648
2, 420.00000, 127.266, -30.5785, 127.21, -150.56, 127.275, 89.4547, 0, 0, 2.17078, -53.6524, 2.17175, -173.634, 2.17064, 66.3809, 0.00214146, 11.4735
2, 480.00000, 127.263, -30.5796, 127.206, -150.561, 127.271, 89.4536, 0, 0, 2.17675, -53.6535, 2.17772, -173.635, 2.17661, 66.3798, 0.00214733, 11.482
2, 540.00000, 127.26, -30.5807, 127.203, -150.562, 127.268, 89.4525, 0, 0, 2.18278, -53.6546, 2.18376, -173.636, 2.18264, 66.3786, 0.00215329, 11.4904
2, 600.00000, 127.256, -30.5818, 127.199, -150.563, 127.265, 89.4514, 0, 0, 2.18875, -53.6557, 2.18973, -173.637, 2.18861, 66.3775, 0.00215914, 11.4992
2, 660.00000, 127.253, -30.5829, 127.196, -150.564, 127.261, 89.4503, 0, 0, 2.19471, -53.6568, 2.1957, -173.638, 2.19457, 66.3764, 0.00216501, 11.5078
