hour,t(sec),V1,VAngle1,V2,VAngle2,V3,VAngle3,V4,VAngle4,I1,IAngle1,I2,IAngle2,I3,IAngle3,I4,IAngle4
0, 60.00000, 123.561, -30.9264, 123.598, -150.253, 124.914, 89.6296, 0, 0, 2.02327, -54.0002, 2.02268, -173.327, 2.00138, 66.5557, 0.0427573, 56.7099
0, 120.00000, 123.561, -30.9264, 123.598, -150.253, 124.914, 89.6296, 0, 0, 2.02329, -54.0003, 2.02269, -173.327, 2.00138, 66.5557, 0.0427735, 56.7114
0, 180.00000, 123.561, -30.9264, 123.598, -150.253, 124.914, 89.6296, 0, 0, 2.02329, -54.0003, 2.02269, -173.327, 2.00138, 66.5557, 0.0427736, 56.7114
0, 240.00000, 123.561, -30.9264, 123.598, -150.253, 124.914, 89.6296, 0, 0, 2.02329, -54.0003, 2.02269, -173.327, 2.00138, 66.5557, 0.0427736, 56.7114
0, 300.00000, 123.561, -30.9264, 123.598, -150.253, 124.914, 89.6296, 0, 0, 2.02329, -54.0003, 2.02269, -173.327, 2.00138, 66.5557, 0.0427736, 56.7114
0, 360.00000, 123.561, -30.9264, 123.598, -150.253, 124.914, 89.6296, 0, 0, 2.02329, -54.0003, 2.02269, -173.327, 2.00138, 66.5557, 0.0427736, 56.7114
0, 420.00000, 123.561, -30.9264, 123.598, -150.253, 124.914, 89.6296, 0, 0, 2.02329, -54.0003, 2.02269, -173.327, 2.00138, 66.5557, 0.0427736, 56.7114
0, 480.00000, 123.561, -30.9264, 123.598, -150.253, 124.914, 89.6296, 0, 0, 2.02329, -54.0003, 2.02269, -173.327, 2.00138, 66.5557, 0.0427736, 56.7114
0, 540.00000, 123.561, -30.9264, 123.598, -150.253, 124.914, 89.6296, 0, 0, 2.02329, -54.0003, 2.02269, -173.327, 2.00138, 66.5557, 0.0427736, 56.7114
0, 600.00000, 123.561, -30.9264, 123.598, -150.253, 124.914, 89.6296, 0, 0, 2.02329, -54.0003, 2.02269, -173.327, 2.00138, 66.5557, 0.0427736, 56.7114
0, 660.00000, 123.561, -30.9264, 123.598, -150.253, 124.914, 89.6296, 0, 0, 2.02329, -54.0003, 2.02269, -173.327, 2.00138, 66.5557, 0.0427736, 56.7114
0, 720.00000, 123.561, -30.9264, 123.598, -150.253, 124.914, 89.6296, 0, 0, 2.02329, -54.0003, 2.02269, -173.327, 2.00138, 66.5557, 0.0427736, 56.7114
0, 780.00000, 123.561, -30.9264, 123.598, -150.253, 124.914, 89.6296, 0, 0, 2.02329, -54.0003, 2.02269, -173.327, 2.00138, 66.5557, 0.0427736, 56.7114
0, 840.00000, 123.561, -30.9264, 123.598, -150.253, 124.914, 89.6296, 0, 0, 2.02329, -54.0003, 2.02269, -173.327, 2.00138, 66.5557, 0.0427736, 56.7114
0, 900.00000, 123.561, -30.9264, 123.598, -150.253, 124.914, 89.6296, 0, 0, 2.02329, -54.0003, 2.02269, -173.327, 2.00138, 66.5557, 0.0427736, 56.7114
0, 960.00000, 123.561, -30.9264, 123.598, -150.253, 124.914, 89.6296, 0, 0, 2.02329, -54.0003, 2.02269, -173.327, 2.00138, 66.5557, 0.0427736, 56.7114
0, 1020.00000, 123.561, -30.9264, 123.598, -150.253, 124.914, 89.6296, 0, 0, 2.02329, -54.0003, 2.02269, -173.327, 2.00138, 66.5557, 0.0427736, 56.7114
0, 1080.00000, 123.561, -30.9264, 123.598, -150.253, 124.914, 89.6296, 0, 0, 2.02329, -54.0003, 2.02269, -173.327, 2.00138, 66.5557, 0.0427736, 56.7114
0, 1140.00000, 123.561, -30.9264, 123.598, -150.253, 124.914, 89.6296, 0, 0, 2.02329, -54.0003, 2.02269, -173.327, 2.00138, 66.5557, 0.0427736, 56.7114
0, 1200.00000, 123.561, -30.9264, 123.598, -150.253, 124.914, 89.6296, 0, 0, 2.02329, -54.0003, 2.02269, -173.327, 2.00138, 66.5557, 0.0427736, 56.7114
0, 1260.00000, 123.561, -30.9264, 123.598, -150.253, 124.914, 89.6296, 0, 0, 2.02329, -54.0003, 2.02269, -173.327, 2.00138, 66.5557, 0.0427736, 56.7114
0, 1320.00000, 123.561, -30.9264, 123.598, -150.253, 124.914, 89.6296, 0, 0, 2.02329, -54.0003, 2.02269, -173.327, 2.00138, 66.5557, 0.0427736, 56.7114
0, 1380.00000, 123.561, -30.9264, 123.598, -150.253, 124.914, 89.6296, 0, 0, 2.02329, -54.0003, 2.02269, -173.327, 2.00138, 66.5557, 0.0427736, 56.7114
0, 1440.00000, 123.561, -30.9264, 123.598, -150.253, 124.914, 89.6296, 0, 0, 2.02329, -54.0003, 2.02269, -173.327, 2.00138, 66.5557, 0.0427736, 56.7114
0, 1500.00000, 123.561, -30.9264, 123.598, -150.253, 124.914, 89.6296, 0, 0, 2.02329, -54.0003, 2.02269, -173.327, 2.00138, 66.5557, 0.0427736, 56.7114
0, 1560.00000, 123.561, -30.9264, 123.598, -150.253, 124.914, 89.6296, 0, 0, 2.02329, -54.0003, 2.02269, -173.327, 2.00138, 66.5557, 0.0427736, 56.7114
0, 1620.00000, 123.561, -30.9264, 123.598, -150.253, 124.914, 89.6296, 0, 0, 2.02329, -54.0003, 2.02269, -173.327, 2.00138, 66.5557, 0.0427736, 56.7114
0, 1680.00000, 123.561, -30.9264, 123.598, -150.253, 124.914, 89.6296, 0, 0, 2.02329, -54.0003, 2.02269, -173.327, 2.00138, 66.5557, 0.0427736, 56.7114
0, 1740.00000, 123.561, -30.9264, 123.598, -150.253, 124.914, 89.6296, 0, 0, 2.02329, -54.0003, 2.02269, -173.327, 2.00138, 66.5557, 0.0427736, 56.7114
0, 1800.00000, 123.561, -30.9264, 123.598, -150.253, 124.914, 89.6296, 0, 0, 2.02329, -54.0003, 2.02269, -173.327, 2.00138, 66.5557, 0.0427736, 56.7114
0, 1860.00000, 123.561, -30.9264, 123.598, -150.253, 124.914, 89.6296, 0, 0, 2.02329, -54.0003, 2.02269, -173.327, 2.00138, 66.5557, 0.0427736, 56.7114
0, 1920.00000, 123.561, -30.9264, 123.598, -150.253, 124.914, 89.6296, 0, 0, 2.02329, -54.0003, 2.02269, -173.327, 2.00138, 66.5557, 0.0427736, 56.7114
0, 1980.00000, 123.561, -30.9264, 123.598, -150.253, 124.914, 89.6296, 0, 0, 2.02329, -54.0003, 2.02269, -173.327, 2.00138, 66.5557, 0.0427736, 56.7114
0, 2040.00000, 123.561, -30.9264, 123.598, -150.253, 124.914, 89.6296, 0, 0, 2.02329, -54.0003, 2.02269, -173.327, 2.00138, 66.5557, 0.0427736, 56.7114
0, 2100.00000, 123.561, -30.9264, 123.598, -150.253, 124.914, 89.6296, 0, 0, 2.02329, -54.0003, 2.02269, -173.327, 2.00138, 66.5557, 0.0427736, 56.7114
0, 2160.00000, 123.561, -30.9264, 123.598, -150.253, 124.914, 89.6296, 0, 0, 2.02329, -54.0003, 2.02269, -173.327, 2.00138, 66.5557, 0.0427736, 56.7114
0, 2220.00000, 123.561, -30.9264, 123.598, -150.253, 124.914, 89.6296, 0, 0, 2.02329, -54.0003, 2.02269, -173.327, 2.00138, 66.5557, 0.0427736, 56.7114
0, 2280.00000, 123.561, -30.9264, 123.598, -150.253, 124.914, 89.6296, 0, 0, 2.02329, -54.0003, 2.02269, -173.327, 2.00138, 66.5557, 0.0427736, 56.7114
0, 2340.00000, 123.561, -30.9264, 123.598, -150.253, 124.914, 89.6296, 0, 0, 2.02329, -54.0003, 2.02269, -173.327, 2.00138, 66.5557, 0.0427736, 56.7114
0, 2400.00000, 123.561, -30.9264, 123.598, -150.253, 124.914, 89.6296, 0, 0, 2.02329, -54.0003, 2.02269, -173.327, 2.00138, 66.5557, 0.0427736, 56.7114
0, 2460.00000, 123.561, -30.9264, 123.598, -150.253, 124.914, 89.6296, 0, 0, 2.02329, -54.0003, 2.02269, -173.327, 2.00138, 66.5557, 0.0427736, 56.7114
0, 2520.00000, 123.561, -30.9264, 123.598, -150.253, 124.914, 89.6296, 0, 0, 2.02329, -54.0003, 2.02269, -173.327, 2.00138, 66.5557, 0.0427736, 56.7114
0, 2580.00000, 123.561, -30.9264, 123.598, -150.253, 124.914, 89.6296, 0, 0, 2.02329, -54.0003, 2.02269, -173.327, 2.00138, 66.5557, 0.0427736, 56.7114
0, 2640.00000, 123.561, -30.9264, 123.598, -150.253, 124.914, 89.6296, 0, 0, 2.02329, -54.0003, 2.02269, -173.327, 2.00138, 66.5557, 0.0427736, 56.7114
0, 2700.00000, 123.561, -30.9264, 123.598, -150.253, 124.914, 89.6296, 0, 0, 2.02329, -54.0003, 2.02269, -173.327, 2.00138, 66.5557, 0.0427736, 56.7114
0, 2760.00000, 123.561, -30.9264, 123.598, -150.253, 124.914, 89.6296, 0, 0, 2.02329, -54.0003, 2.02269, -173.327, 2.00138, 66.5557, 0.0427736, 56.7114
0, 2820.00000, 123.561, -30.9264, 123.598, -150.253, 124.914, 89.6296, 0, 0, 2.02329, -54.0003, 2.02269, -173.327, 2.00138, 66.5557, 0.0427736, 56.7114
0, 2880.00000, 123.561, -30.9264, 123.598, -150.253, 124.914, 89.6296, 0, 0, 2.02329, -54.0003, 2.02269, -173.327, 2.00138, 66.5557, 0.0427736, 56.7114
0, 2940.00000, 123.561, -30.9264, 123.598, -150.253, 124.914, 89.6296, 0, 0, 2.02329, -54.0003, 2.02269, -173.327, 2.00138, 66.5557, 0.0427736, 56.7114
0, 3000.00000, 123.561, -30.9264, 123.598, -150.253, 124.914, 89.6296, 0, 0, 2.02329, -54.0003, 2.02269, -173.327, 2.00138, 66.5557, 0.0427736, 56.7114
0, 3060.00000, 123.561, -30.9264, 123.598, -150.253, 124.914, 89.6296, 0, 0, 2.02329, -54.0003, 2.02269, -173.327, 2.00138, 66.5557, 0.0427736, 56.7114
0, 3120.00000, 123.561, -30.9264, 123.598, -150.253, 124.914, 89.6296, 0, 0, 2.02329, -54.0003, 2.02269, -173.327, 2.00138, 66.5557, 0.0427736, 56.7114
0, 3180.00000, 123.561, -30.9264, 123.598, -150.253, 124.914, 89.6296, 0, 0, 2.02329, -54.0003, 2.02269, -173.327, 2.00138, 66.5557, 0.0427736, 56.7114
0, 3240.00000, 123.561, -30.9264, 123.598, -150.253, 124.914, 89.6296, 0, 0, 2.02329, -54.0003, 2.02269, -173.327, 2.00138, 66.5557, 0.0427736, 56.7114
0, 3300.00000, 123.561, -30.9264, 123.598, -150.253, 124.914, 89.6296, 0, 0, 2.02329, -54.0003, 2.02269, -173.327, 2.00138, 66.5557, 0.0427736, 56.7114
0, 3360.00000, 123.561, -30.9264, 123.598, -150.253, 124.914, 89.6296, 0, 0, 2.02329, -54.0003, 2.02269, -173.327, 2.00138, 66.5557, 0.0427736, 56.7114
0, 3420.00000, 123.561, -30.9264, 123.598, -150.253, 124.914, 89.6296, 0, 0, 2.02329, -54.0003, 2.02269, -173.327, 2.00138, 66.5557, 0.0427736, 56.7114
0, 3480.00000, 123.561, -30.9264, 123.598, -150.253, 124.914, 89.6296, 0, 0, 2.02329, -54.0003, 2.02269, -173.327, 2.00138, 66.5557, 0.0427736, 56.7114
0, 3540.00000, 123.561, -30.9264, 123.598, -150.253, 124.914, 89.6296, 0, 0, 2.02329, -54.0003, 2.02269, -173.327, 2.00138, 66.5557, 0.0427736, 56.7114
1, 0.00000, 123.561, -30.9264, 123.598, -150.253, 124.914, 89.6296, 0, 0, 2.02329, -54.0003, 2.02269, -173.327, 2.00138, 66.5557, 0.0427736, 56.7114
1, 60.00000, 123.561, -30.9264, 123.598, -150.253, 124.914, 89.6296, 0, 0, 2.02329, -54.0003, 2.02269, -173.327, 2.00138, 66.5557, 0.0427736, 56.7114
1, 120.00000, 123.561, -30.9264, 123.598, -150.253, 124.914, 89.6296, 0, 0, 2.02329, -54.0003, 2.02269, -173.327, 2.00138, 66.5557, 0.0427736, 56.7114
1, 180.00000, 123.561, -30.9264, 123.598, -150.253, 124.914, 89.6296, 0, 0, 2.02329, -54.0003, 2.02269, -173.327, 2.00138, 66.5557, 0.0427736, 56.7114
1, 240.00000, 123.561, -30.9264, 123.598, -150.253, 124.914, 89.6296, 0, 0, 2.02329, -54.0003, 2.02269, -173.327, 2.00138, 66.5557, 0.0427736, 56.7114
1, 300.00000, 123.561, -30.9264, 123.598, -150.253, 124.914, 89.6296, 0, 0, 2.02329, -54.0003, 2.02269, -173.327, 2.00138, 66.5557, 0.0427736, 56.7114
1, 360.00000, 123.561, -30.9264, 123.598, -150.253, 124.914, 89.6296, 0, 0, 2.02329, -54.0003, 2.02269, -173.327, 2.00138, 66.5557, 0.0427736, 56.7114
1, 420.00000, 123.561, -30.9264, 123.598, -150.253, 124.914, 89.6296, 0, 0, 2.02329, -54.0003, 2.02269, -173.327, 2.00138, 66.5557, 0.0427736, 56.7114
1, 480.00000, 123.561, -30.9264, 123.598, -150.253, 124.914, 89.6296, 0, 0, 2.02329, -54.0003, 2.02269, -173.327, 2.00138, 66.5557, 0.0427736, 56.7114
1, 540.00000, 123.561, -30.9264, 123.598, -150.253, 124.914, 89.6296, 0, 0, 2.02329, -54.0003, 2.02269, -173.327, 2.00138, 66.5557, 0.0427736, 56.7114
1, 600.00000, 123.561, -30.9264, 123.598, -150.253, 124.914, 89.6296, 0, 0, 2.02329, -54.0003, 2.02269, -173.327, 2.00138, 66.5557, 0.0427736, 56.7114
1, 660.00000, 123.561, -30.9264, 123.598, -150.253, 124.914, 89.6296, 0, 0, 2.02329, -54.0003, 2.02269, -173.327, 2.00138, 66.5557, 0.0427736, 56.7114
1, 720.00000, 123.561, -30.9264, 123.598, -150.253, 124.914, 89.6296, 0, 0, 2.02329, -54.0003, 2.02269, -173.327, 2.00138, 66.5557, 0.0427736, 56.7114
1, 780.00000, 123.561, -30.9264, 123.598, -150.253, 124.914, 89.6296, 0, 0, 2.02329, -54.0003, 2.02269, -173.327, 2.00138, 66.5557, 0.0427736, 56.7114
1, 840.00000, 123.561, -30.9264, 123.598, -150.253, 124.914, 89.6296, 0, 0, 2.02329, -54.0003, 2.02269, -173.327, 2.00138, 66.5557, 0.0427736, 56.7114
1, 900.00000, 123.561, -30.9264, 123.598, -150.253, 124.914, 89.6296, 0, 0, 2.02329, -54.0003, 2.02269, -173.327, 2.00138, 66.5557, 0.0427736, 56.7114
1, 960.00000, 123.561, -30.9264, 123.598, -150.253, 124.914, 89.6296, 0, 0, 2.02329, -54.0003, 2.02269, -173.327, 2.00138, 66.5557, 0.0427736, 56.7114
1, 1020.00000, 123.561, -30.9264, 123.598, -150.253, 124.914, 89.6296, 0, 0, 2.02329, -54.0003, 2.02269, -173.327, 2.00138, 66.5557, 0.0427736, 56.7114
1, 1080.00000, 123.561, -30.9264, 123.598, -150.253, 124.914, 89.6296, 0, 0, 2.02329, -54.0003, 2.02269, -173.327, 2.00138, 66.5557, 0.0427736, 56.7114
1, 1140.00000, 123.561, -30.9264, 123.598, -150.253, 124.914, 89.6296, 0, 0, 2.02329, -54.0003, 2.02269, -173.327, 2.00138, 66.5557, 0.0427736, 56.7114
1, 1200.00000, 123.561, -30.9264, 123.598, -150.253, 124.914, 89.6296, 0, 0, 2.02329, -54.0003, 2.02269, -173.327, 2.00138, 66.5557, 0.0427736, 56.7114
1, 1260.00000, 123.561, -30.9264, 123.598, -150.253, 124.914, 89.6296, 0, 0, 2.02329, -54.0003, 2.02269, -173.327, 2.00138, 66.5557, 0.0427736, 56.7114
1, 1320.00000, 123.561, -30.9264, 123.598, -150.253, 124.914, 89.6296, 0, 0, 2.02329, -54.0003, 2.02269, -173.327, 2.00138, 66.5557, 0.0427736, 56.7114
1, 1380.00000, 123.561, -30.9264, 123.598, -150.253, 124.914, 89.6296, 0, 0, 2.02329, -54.0003, 2.02269, -173.327, 2.00138, 66.5557, 0.0427736, 56.7114
1, 1440.00000, 123.561, -30.9264, 123.598, -150.253, 124.914, 89.6296, 0, 0, 2.02329, -54.0003, 2.02269, -173.327, 2.00138, 66.5557, 0.0427736, 56.7114
1, 1500.00000, 123.561, -30.9264, 123.598, -150.253, 124.914, 89.6296, 0, 0, 2.02329, -54.0003, 2.02269, -173.327, 2.00138, 66.5557, 0.0427736, 56.7114
1, 1560.00000, 123.561, -30.9264, 123.598, -150.253, 124.914, 89.6296, 0, 0, 2.02329, -54.0003, 2.02269, -173.327, 2.00138, 66.5557, 0.0427736, 56.7114
1, 1620.00000, 123.561, -30.9264, 123.598, -150.253, 124.914, 89.6296, 0, 0, 2.02329, -54.0003, 2.02269, -173.327, 2.00138, 66.5557, 0.0427736, 56.7114
1, 1680.00000, 123.561, -30.9264, 123.598, -150.253, 124.914, 89.6296, 0, 0, 2.02329, -54.0003, 2.02269, -173.327, 2.00138, 66.5557, 0.0427736, 56.7114
1, 1740.00000, 123.561, -30.9264, 123.598, -150.253, 124.914, 89.6296, 0, 0, 2.02329, -54.0003, 2.02269, -173.327, 2.00138, 66.5557, 0.0427736, 56.7114
1, 1800.00000, 123.561, -30.9264, 123.598, -150.253, 124.914, 89.6296, 0, 0, 2.02329, -54.0003, 2.02269, -173.327, 2.00138, 66.5557, 0.0427736, 56.7114
1, 1860.00000, 123.561, -30.9264, 123.598, -150.253, 124.914, 89.6296, 0, 0, 2.02329, -54.0003, 2.02269, -173.327, 2.00138, 66.5557, 0.0427736, 56.7114
1, 1920.00000, 123.561, -30.9264, 123.598, -150.253, 124.914, 89.6296, 0, 0, 2.02329, -54.0003, 2.02269, -173.327, 2.00138, 66.5557, 0.0427736, 56.7114
1, 1980.00000, 123.561, -30.9264, 123.598, -150.253, 124.914, 89.6296, 0, 0, 2.02329, -54.0003, 2.02269, -173.327, 2.00138, 66.5557, 0.0427736, 56.7114
1, 2040.00000, 123.561, -30.9264, 123.598, -150.253, 124.914, 89.6296, 0, 0, 2.02329, -54.0003, 2.02269, -173.327, 2.00138, 66.5557, 0.0427736, 56.7114
1, 2100.00000, 123.561, -30.9264, 123.598, -150.253, 124.914, 89.6296, 0, 0, 2.02329, -54.0003, 2.02269, -173.327, 2.00138, 66.5557, 0.0427736, 56.7114
1, 2160.00000, 123.561, -30.9264, 123.598, -150.253, 124.914, 89.6296, 0, 0, 2.02329, -54.0003, 2.02269, -173.327, 2.00138, 66.5557, 0.0427736, 56.7114
1, 2220.00000, 123.561, -30.9264, 123.598, -150.253, 124.914, 89.6296, 0, 0, 2.02329, -54.0003, 2.02269, -173.327, 2.00138, 66.5557, 0.0427736, 56.7114
1, 2280.00000, 123.561, -30.9264, 123.598, -150.253, 124.914, 89.6296, 0, 0, 2.02329, -54.0003, 2.02269, -173.327, 2.00138, 66.5557, 0.0427736, 56.7114
1, 2340.00000, 123.561, -30.9264, 123.598, -150.253, 124.914, 89.6296, 0, 0, 2.02329, -54.0003, 2.02269, -173.327, 2.00138, 66.5557, 0.0427736, 56.7114
1, 2400.00000, 123.561, -30.9264, 123.598, -150.253, 124.914, 89.6296, 0, 0, 2.02329, -54.0003, 2.02269, -173.327, 2.00138, 66.5557, 0.0427736, 56.7114
1, 2460.00000, 123.561, -30.9264, 123.598, -150.253, 124.914, 89.6296, 0, 0, 2.02329, -54.0003, 2.02269, -173.327, 2.00138, 66.5557, 0.0427736, 56.7114
1, 2520.00000, 123.561, -30.9264, 123.598, -150.253, 124.914, 89.6296, 0, 0, 2.02329, -54.0003, 2.02269, -173.327, 2.00138, 66.5557, 0.0427736, 56.7114
1, 2580.00000, 123.561, -30.9264, 123.598, -150.253, 124.914, 89.6296, 0, 0, 2.02329, -54.0003, 2.02269, -173.327, 2.00138, 66.5557, 0.0427736, 56.7114
1, 2640.00000, 123.561, -30.9264, 123.598, -150.253, 124.914, 89.6296, 0, 0, 2.02329, -54.0003, 2.02269, -173.327, 2.00138, 66.5557, 0.0427736, 56.7114
1, 2700.00000, 123.561, -30.9264, 123.598, -150.253, 124.914, 89.6296, 0, 0, 2.02329, -54.0003, 2.02269, -173.327, 2.00138, 66.5557, 0.0427736, 56.7114
1, 2760.00000, 124.517, -30.549, 124.794, -150.438, 124.854, 89.6414, 0, 0, 2.00783, -53.6231, 2.00336, -173.512, 2.00231, 66.5678, 0.00670247, 59.0019
1, 2820.00000, 124.517, -30.549, 124.794, -150.438, 124.854, 89.6414, 0, 0, 2.00776, -53.6229, 2.0033, -173.512, 2.00233, 66.5675, 0.00662714, 59.0846
1, 2880.00000, 124.517, -30.549, 124.794, -150.438, 124.854, 89.6414, 0, 0, 2.00776, -53.6229, 2.0033, -173.512, 2.00233, 66.5675, 0.00662688, 59.0845
1, 2940.00000, 124.517, -30.549, 124.794, -150.438, 124.854, 89.6414, 0, 0, 2.00776, -53.6229, 2.0033, -173.512, 2.00233, 66.5675, 0.00662688, 59.0845
1, 3000.00000, 124.517, -30.549, 124.794, -150.438, 124.854, 89.6414, 0, 0, 2.00776, -53.6229, 2.0033, -173.512, 2.00233, 66.5675, 0.00662688, 59.0845
1, 3060.00000, 124.517, -30.549, 124.794, -150.438, 124.854, 89.6414, 0, 0, 2.00776, -53.6229, 2.0033, -173.512, 2.00233, 66.5675, 0.00662688, 59.0845
1, 3120.00000, 124.517, -30.549, 124.794, -150.438, 124.854, 89.6414, 0, 0, 2.00776, -53.6229, 2.0033, -173.512, 2.00233, 66.5675, 0.00662688, 59.0845
1, 3180.00000, 124.517, -30.549, 124.794, -150.438, 124.854, 89.6414, 0, 0, 2.00776, -53.6229, 2.0033, -173.512, 2.00233, 66.5675, 0.00662688, 59.0845
1, 3240.00000, 124.517, -30.549, 124.794, -150.438, 124.854, 89.6414, 0, 0, 2.00776, -53.6229, 2.0033, -173.512, 2.00233, 66.5675, 0.00662688, 59.0845
1, 3300.00000, 124.517, -30.549, 124.794, -150.438, 124.854, 89.6414, 0, 0, 2.00776, -53.6229, 2.0033, -173.512, 2.00233, 66.5675, 0.00662688, 59.0845
1, 3360.00000, 124.517, -30.549, 124.794, -150.438, 124.854, 89.6414, 0, 0, 2.00776, -53.6229, 2.0033, -173.512, 2.00233, 66.5675, 0.00662688, 59.0845
1, 3420.00000, 124.517, -30.549, 124.794, -150.438, 124.854, 89.6414, 0, 0, 2.00776, -53.6229, 2.0033, -173.512, 2.00233, 66.5675, 0.00662688, 59.0845
1, 3480.00000, 124.517, -30.549, 124.794, -150.438, 124.854, 89.6414, 0, 0, 2.00776, -53.6229, 2.0033, -173.512, 2.00233, 66.5675, 0.00662688, 59.0845
1, 3540.00000, 124.517, -30.549, 124.794, -150.438, 124.854, 89.6414, 0, 0, 2.00776, -53.6229, 2.0033, -173.512, 2.00233, 66.5675, 0.00662688, 59.0845
2, 0.00000, 124.517, -30.549, 124.794, -150.438, 124.854, 89.6414, 0, 0, 2.00776, -53.6229, 2.0033, -173.512, 2.00233, 66.5675, 0.00662688, 59.0845
2, 60.00000, 124.517, -30.549, 124.794, -150.438, 124.854, 89.6414, 0, 0, 2.00776, -53.6229, 2.0033, -173.512, 2.00233, 66.5675, 0.00662688, 59.0845
2, 120.00000, 124.508, -30.55, 124.787, -150.439, 124.846, 89.6406, 0, 0, 2.01345, -53.6239, 2.00896, -173.512, 2.008, 66.5667, 0.00664993, 59.1859
2, 180.00000, 124.499, -30.5511, 124.779, -150.439, 124.838, 89.6397, 0, 0, 2.01921, -53.6249, 2.01469, -173.513, 2.01374, 66.5658, 0.00667595, 59.2884
2, 240.00000, 124.49, -30.5521, 124.771, -150.44, 124.83, 89.6389, 0, 0, 2.02491, -53.6259, 2.02036, -173.514, 2.01941, 66.565, 0.00670181, 59.3895
2, 300.00000, 124.482, -30.5531, 124.763, -150.441, 124.822, 89.6381, 0, 0, 2.03061, -53.6269, 2.02603, -173.515, 2.02508, 66.5642, 0.0067277, 59.4905
2, 360.00000, 124.473, -30.5541, 124.755, -150.442, 124.814, 89.6372, 0, 0, 2.03638, -53.6279, 2.03177, -173.516, 2.03082, 66.5633, 0.00675394, 59.5925
2, 420.00000, 124.464, -30.5551, 124.747, -150.443, 124.806, 89.6364, 0, 0, 2.04208, -53.629, 2.03744, -173.517, 2.03649, 66.5625, 0.00678, 59.6931
2, 480.00000, 124.455, -30.5561, 124.74, -150.444, 124.798, 89.6355, 0, 0, 2.04778, -53.63, 2.04311, -173.518, 2.04217, 66.5616, 0.00680609, 59.7935
2, 540.00000, 124.446, -30.5571, 124.732, -150.445, 124.789, 89.6347, 0, 0, 2.05355, -53.631, 2.04886, -173.518, 2.04791, 66.5608, 0.00683253, 59.895
2, 600.00000, 124.438, -30.5582, 124.724, -150.445, 124.781, 89.6339, 0, 0, 2.05926, -53.632, 2.05453, -173.519, 2.05358, 66.56, 0.00685878, 59.995
2, 660.00000, 124.429, -30.5592, 124.716, -150.446, 124.773, 89.633, 0, 0, 2.06496, -53.633, 2.0602, -173.52, 2.05926, 66.5591, 0.00688507, 60.0949
