hour,t(sec),V1,VAngle1,V2,VAngle2,V3,VAngle3,V4,VAngle4,I1,IAngle1,I2,IAngle2,I3,IAngle3,I4,IAngle4
0, 60.00000, 123.014, -30.4192, 123.36, -150.968, 122.075, 89.6464, 0, 0, 2.03227, -53.493, 2.02656, -174.042, 2.04789, 66.5725, 0.0360237, -102.241
0, 120.00000, 123.014, -30.4192, 123.36, -150.968, 122.074, 89.6464, 0, 0, 2.03229, -53.4931, 2.02659, -174.042, 2.04793, 66.5724, 0.0360519, -102.237
0, 180.00000, 123.014, -30.4192, 123.36, -150.968, 122.074, 89.6464, 0, 0, 2.03229, -53.4931, 2.02659, -174.042, 2.04793, 66.5724, 0.0360521, -102.237
0, 240.00000, 123.014, -30.4192, 123.36, -150.968, 122.074, 89.6464, 0, 0, 2.03229, -53.4931, 2.02659, -174.042, 2.04793, 66.5724, 0.0360521, -102.237
0, 300.00000, 123.014, -30.4192, 123.36, -150.968, 122.074, 89.6464, 0, 0, 2.03229, -53.4931, 2.02659, -174.042, 2.04793, 66.5724, 0.0360521, -102.237
0, 360.00000, 123.014, -30.4192, 123.36, -150.968, 122.074, 89.6464, 0, 0, 2.03229, -53.4931, 2.02659, -174.042, 2.04793, 66.5724, 0.0360521, -102.237
0, 420.00000, 123.014, -30.4192, 123.36, -150.968, 122.074, 89.6464, 0, 0, 2.03229, -53.4931, 2.02659, -174.042, 2.04793, 66.5724, 0.0360521, -102.237
0, 480.00000, 123.014, -30.4192, 123.36, -150.968, 122.074, 89.6464, 0, 0, 2.03229, -53.4931, 2.02659, -174.042, 2.04793, 66.5724, 0.0360521, -102.237
0, 540.00000, 123.014, -30.4192, 123.36, -150.968, 122.074, 89.6464, 0, 0, 2.03229, -53.4931, 2.02659, -174.042, 2.04793, 66.5724, 0.0360521, -102.237
0, 600.00000, 123.014, -30.4192, 123.36, -150.968, 122.074, 89.6464, 0, 0, 2.03229, -53.4931, 2.02659, -174.042, 2.04793, 66.5724, 0.0360521, -102.237
0, 660.00000, 123.014, -30.4192, 123.36, -150.968, 122.074, 89.6464, 0, 0, 2.03229, -53.4931, 2.02659, -174.042, 2.04793, 66.5724, 0.0360521, -102.237
0, 720.00000, 123.014, -30.4192, 123.36, -150.968, 122.074, 89.6464, 0, 0, 2.03229, -53.4931, 2.02659, -174.042, 2.04793, 66.5724, 0.0360521, -102.237
0, 780.00000, 123.014, -30.4192, 123.36, -150.968, 122.074, 89.6464, 0, 0, 2.03229, -53.4931, 2.02659, -174.042, 2.04793, 66.5724, 0.0360521, -102.237
0, 840.00000, 123.014, -30.4192, 123.36, -150.968, 122.074, 89.6464, 0, 0, 2.03229, -53.4931, 2.02659, -174.042, 2.04793, 66.5724, 0.0360521, -102.237
0, 900.00000, 123.014, -30.4192, 123.36, -150.968, 122.074, 89.6464, 0, 0, 2.03229, -53.4931, 2.02659, -174.042, 2.04793, 66.5724, 0.0360521, -102.237
0, 960.00000, 121.749, -30.877, 121.864, -150.708, 122.133, 89.6287, 0, 0, 2.05329, -53.9507, 2.05135, -173.781, 2.04692, 66.5543, 0.0171057, 14.9411
0, 1020.00000, 121.748, -30.877, 121.864, -150.708, 122.133, 89.6287, 0, 0, 2.05342, -53.9509, 2.05147, -173.782, 2.04694, 66.5548, 0.0171784, 15.064
0, 1080.00000, 121.748, -30.877, 121.864, -150.708, 122.133, 89.6287, 0, 0, 2.05342, -53.9509, 2.05147, -173.782, 2.04695, 66.5548, 0.0171786, 15.0641
0, 1140.00000, 121.748, -30.877, 121.864, -150.708, 122.133, 89.6287, 0, 0, 2.05342, -53.9509, 2.05147, -173.782, 2.04695, 66.5548, 0.0171786, 15.0641
0, 1200.00000, 121.748, -30.877, 121.864, -150.708, 122.133, 89.6287, 0, 0, 2.05342, -53.9509, 2.05147, -173.782, 2.04695, 66.5548, 0.0171786, 15.0641
0, 1260.00000, 121.748, -30.877, 121.864, -150.708, 122.133, 89.6287, 0, 0, 2.05342, -53.9509, 2.05147, -173.782, 2.04695, 66.5548, 0.0171786, 15.0641
0, 1320.00000, 121.748, -30.877, 121.864, -150.708, 122.133, 89.6287, 0, 0, 2.05342, -53.9509, 2.05147, -173.782, 2.04695, 66.5548, 0.0171786, 15.0641
0, 1380.00000, 121.748, -30.877, 121.864, -150.708, 122.133, 89.6287, 0, 0, 2.05342, -53.9509, 2.05147, -173.782, 2.04695, 66.5548, 0.0171786, 15.0641
0, 1440.00000, 121.748, -30.877, 121.864, -150.708, 122.133, 89.6287, 0, 0, 2.05342, -53.9509, 2.05147, -173.782, 2.04695, 66.5548, 0.0171786, 15.0641
0, 1500.00000, 121.748, -30.877, 121.864, -150.708, 122.133, 89.6287, 0, 0, 2.05342, -53.9509, 2.05147, -173.782, 2.04695, 66.5548, 0.0171786, 15.0641
0, 1560.00000, 121.748, -30.877, 121.864, -150.708, 122.133, 89.6287, 0, 0, 2.05342, -53.9509, 2.05147, -173.782, 2.04695, 66.5548, 0.0171786, 15.0641
0, 1620.00000, 121.748, -30.877, 121.864, -150.708, 122.133, 89.6287, 0, 0, 2.05342, -53.9509, 2.05147, -173.782, 2.04695, 66.5548, 0.0171786, 15.0641
0, 1680.00000, 121.748, -30.877, 121.864, -150.708, 122.133, 89.6287, 0, 0, 2.05342, -53.9509, 2.05147, -173.782, 2.04695, 66.5548, 0.0171786, 15.0641
0, 1740.00000, 121.748, -30.877, 121.864, -150.708, 122.133, 89.6287, 0, 0, 2.05342, -53.9509, 2.05147, -173.782, 2.04695, 66.5548, 0.0171786, 15.0641
0, 1800.00000, 121.748, -30.877, 121.864, -150.708, 122.133, 89.6287, 0, 0, 2.05342, -53.9509, 2.05147, -173.782, 2.04695, 66.5548, 0.0171786, 15.0641
0, 1860.00000, 121.748, -30.877, 121.864, -150.708, 122.133, 89.6287, 0, 0, 2.05342, -53.9509, 2.05147, -173.782, 2.04695, 66.5548, 0.0171786, 15.0641
0, 1920.00000, 121.748, -30.877, 121.864, -150.708, 122.133, 89.6287, 0, 0, 2.05342, -53.9509, 2.05147, -173.782, 2.04695, 66.5548, 0.0171786, 15.0641
0, 1980.00000, 121.748, -30.877, 121.864, -150.708, 122.133, 89.6287, 0, 0, 2.05342, -53.9509, 2.05147, -173.782, 2.04695, 66.5548, 0.0171786, 15.0641
0, 2040.00000, 121.748, -30.877, 121.864, -150.708, 122.133, 89.6287, 0, 0, 2.05342, -53.9509, 2.05147, -173.782, 2.04695, 66.5548, 0.0171786, 15.0641
0, 2100.00000, 121.748, -30.877, 121.864, -150.708, 122.133, 89.6287, 0, 0, 2.05342, -53.9509, 2.05147, -173.782, 2.04695, 66.5548, 0.0171786, 15.0641
0, 2160.00000, 121.748, -30.877, 121.864, -150.708, 122.133, 89.6287, 0, 0, 2.05342, -53.9509, 2.05147, -173.782, 2.04695, 66.5548, 0.0171786, 15.0641
0, 2220.00000, 121.748, -30.877, 121.864, -150.708, 122.133, 89.6287, 0, 0, 2.05342, -53.9509, 2.05147, -173.782, 2.04695, 66.5548, 0.0171786, 15.0641
0, 2280.00000, 121.748, -30.877, 121.864, -150.708, 122.133, 89.6287, 0, 0, 2.05342, -53.9509, 2.05147, -173.782, 2.04695, 66.5548, 0.0171786, 15.0641
0, 2340.00000, 121.748, -30.877, 121.864, -150.708, 122.133, 89.6287, 0, 0, 2.05342, -53.9509, 2.05147, -173.782, 2.04695, 66.5548, 0.0171786, 15.0641
0, 2400.00000, 121.748, -30.877, 121.864, -150.708, 122.133, 89.6287, 0, 0, 2.05342, -53.9509, 2.05147, -173.782, 2.04695, 66.5548, 0.0171786, 15.0641
0, 2460.00000, 121.748, -30.877, 121.864, -150.708, 122.133, 89.6287, 0, 0, 2.05342, -53.9509, 2.05147, -173.782, 2.04695, 66.5548, 0.0171786, 15.0641
0, 2520.00000, 121.748, -30.877, 121.864, -150.708, 122.133, 89.6287, 0, 0, 2.05342, -53.9509, 2.05147, -173.782, 2.04695, 66.5548, 0.0171786, 15.0641
0, 2580.00000, 121.748, -30.877, 121.864, -150.708, 122.133, 89.6287, 0, 0, 2.05342, -53.9509, 2.05147, -173.782, 2.04695, 66.5548, 0.0171786, 15.0641
0, 2640.00000, 121.748, -30.877, 121.864, -150.708, 122.133, 89.6287, 0, 0, 2.05342, -53.9509, 2.05147, -173.782, 2.04695, 66.5548, 0.0171786, 15.0641
0, 2700.00000, 121.748, -30.877, 121.864, -150.708, 122.133, 89.6287, 0, 0, 2.05342, -53.9509, 2.05147, -173.782, 2.04695, 66.5548, 0.0171786, 15.0641
0, 2760.00000, 121.748, -30.877, 121.864, -150.708, 122.133, 89.6287, 0, 0, 2.05342, -53.9509, 2.05147, -173.782, 2.04695, 66.5548, 0.0171786, 15.0641
0, 2820.00000, 121.748, -30.877, 121.864, -150.708, 122.133, 89.6287, 0, 0, 2.05342, -53.9509, 2.05147, -173.782, 2.04695, 66.5548, 0.0171786, 15.0641
0, 2880.00000, 121.748, -30.877, 121.864, -150.708, 122.133, 89.6287, 0, 0, 2.05342, -53.9509, 2.05147, -173.782, 2.04695, 66.5548, 0.0171786, 15.0641
0, 2940.00000, 121.748, -30.877, 121.864, -150.708, 122.133, 89.6287, 0, 0, 2.05342, -53.9509, 2.05147, -173.782, 2.04695, 66.5548, 0.0171786, 15.0641
0, 3000.00000, 121.748, -30.877, 121.864, -150.708, 122.133, 89.6287, 0, 0, 2.05342, -53.9509, 2.05147, -173.782, 2.04695, 66.5548, 0.0171786, 15.0641
0, 3060.00000, 121.748, -30.877, 121.864, -150.708, 122.133, 89.6287, 0, 0, 2.05342, -53.9509, 2.05147, -173.782, 2.04695, 66.5548, 0.0171786, 15.0641
0, 3120.00000, 121.748, -30.877, 121.864, -150.708, 122.133, 89.6287, 0, 0, 2.05342, -53.9509, 2.05147, -173.782, 2.04695, 66.5548, 0.0171786, 15.0641
0, 3180.00000, 121.748, -30.877, 121.864, -150.708, 122.133, 89.6287, 0, 0, 2.05342, -53.9509, 2.05147, -173.782, 2.04695, 66.5548, 0.0171786, 15.0641
0, 3240.00000, 121.748, -30.877, 121.864, -150.708, 122.133, 89.6287, 0, 0, 2.05342, -53.9509, 2.05147, -173.782, 2.04695, 66.5548, 0.0171786, 15.0641
0, 3300.00000, 121.748, -30.877, 121.864, -150.708, 122.133, 89.6287, 0, 0, 2.05342, -53.9509, 2.05147, -173.782, 2.04695, 66.5548, 0.0171786, 15.0641
0, 3360.00000, 121.748, -30.877, 121.864, -150.708, 122.133, 89.6287, 0, 0, 2.05342, -53.9509, 2.05147, -173.782, 2.04695, 66.5548, 0.0171786, 15.0641
0, 3420.00000, 121.748, -30.877, 121.864, -150.708, 122.133, 89.6287, 0, 0, 2.05342, -53.9509, 2.05147, -173.782, 2.04695, 66.5548, 0.0171786, 15.0641
0, 3480.00000, 121.748, -30.877, 121.864, -150.708, 122.133, 89.6287, 0, 0, 2.05342, -53.9509, 2.05147, -173.782, 2.04695, 66.5548, 0.0171786, 15.0641
0, 3540.00000, 121.748, -30.877, 121.864, -150.708, 122.133, 89.6287, 0, 0, 2.05342, -53.9509, 2.05147, -173.782, 2.04695, 66.5548, 0.0171786, 15.0641
1, 0.00000, 121.748, -30.877, 121.864, -150.708, 122.133, 89.6287, 0, 0, 2.05342, -53.9509, 2.05147, -173.782, 2.04695, 66.5548, 0.0171786, 15.0641
1, 60.00000, 121.748, -30.877, 121.864, -150.708, 122.133, 89.6287, 0, 0, 2.05342, -53.9509, 2.05147, -173.782, 2.04695, 66.5548, 0.0171786, 15.0641
1, 120.00000, 121.748, -30.877, 121.864, -150.708, 122.133, 89.6287, 0, 0, 2.05342, -53.9509, 2.05147, -173.782, 2.04695, 66.5548, 0.0171786, 15.0641
1, 180.00000, 121.748, -30.877, 121.864, -150.708, 122.133, 89.6287, 0, 0, 2.05342, -53.9509, 2.05147, -173.782, 2.04695, 66.5548, 0.0171786, 15.0641
1, 240.00000, 121.748, -30.877, 121.864, -150.708, 122.133, 89.6287, 0, 0, 2.05342, -53.9509, 2.05147, -173.782, 2.04695, 66.5548, 0.0171786, 15.0641
1, 300.00000, 121.748, -30.877, 121.864, -150.708, 122.133, 89.6287, 0, 0, 2.05342, -53.9509, 2.05147, -173.782, 2.04695, 66.5548, 0.0171786, 15.0641
1, 360.00000, 121.748, -30.877, 121.864, -150.708, 122.133, 89.6287, 0, 0, 2.05342, -53.9509, 2.05147, -173.782, 2.04695, 66.5548, 0.0171786, 15.0641
1, 420.00000, 121.748, -30.877, 121.864, -150.708, 122.133, 89.6287, 0, 0, 2.05342, -53.9509, 2.05147, -173.782, 2.04695, 66.5548, 0.0171786, 15.0641
1, 480.00000, 121.748, -30.877, 121.864, -150.708, 122.133, 89.6287, 0, 0, 2.05342, -53.9509, 2.05147, -173.782, 2.04695, 66.5548, 0.0171786, 15.0641
1, 540.00000, 121.748, -30.877, 121.864, -150.708, 122.133, 89.6287, 0, 0, 2.05342, -53.9509, 2.05147, -173.782, 2.04695, 66.5548, 0.0171786, 15.0641
1, 600.00000, 121.748, -30.877, 121.864, -150.708, 122.133, 89.6287, 0, 0, 2.05342, -53.9509, 2.05147, -173.782, 2.04695, 66.5548, 0.0171786, 15.0641
1, 660.00000, 121.748, -30.877, 121.864, -150.708, 122.133, 89.6287, 0, 0, 2.05342, -53.9509, 2.05147, -173.782, 2.04695, 66.5548, 0.0171786, 15.0641
1, 720.00000, 121.748, -30.877, 121.864, -150.708, 122.133, 89.6287, 0, 0, 2.05342, -53.9509, 2.05147, -173.782, 2.04695, 66.5548, 0.0171786, 15.0641
1, 780.00000, 121.748, -30.877, 121.864, -150.708, 122.133, 89.6287, 0, 0, 2.05342, -53.9509, 2.05147, -173.782, 2.04695, 66.5548, 0.0171786, 15.0641
1, 840.00000, 121.748, -30.877, 121.864, -150.708, 122.133, 89.6287, 0, 0, 2.05342, -53.9509, 2.05147, -173.782, 2.04695, 66.5548, 0.0171786, 15.0641
1, 900.00000, 121.748, -30.877, 121.864, -150.708, 122.133, 89.6287, 0, 0, 2.05342, -53.9509, 2.05147, -173.782, 2.04695, 66.5548, 0.0171786, 15.0641
1, 960.00000, 121.748, -30.877, 121.864, -150.708, 122.133, 89.6287, 0, 0, 2.05342, -53.9509, 2.05147, -173.782, 2.04695, 66.5548, 0.0171786, 15.0641
1, 1020.00000, 121.748, -30.877, 121.864, -150.708, 122.133, 89.6287, 0, 0, 2.05342, -53.9509, 2.05147, -173.782, 2.04695, 66.5548, 0.0171786, 15.0641
1, 1080.00000, 121.748, -30.877, 121.864, -150.708, 122.133, 89.6287, 0, 0, 2.05342, -53.9509, 2.05147, -173.782, 2.04695, 66.5548, 0.0171786, 15.0641
1, 1140.00000, 121.748, -30.877, 121.864, -150.708, 122.133, 89.6287, 0, 0, 2.05342, -53.9509, 2.05147, -173.782, 2.04695, 66.5548, 0.0171786, 15.0641
1, 1200.00000, 121.748, -30.877, 121.864, -150.708, 122.133, 89.6287, 0, 0, 2.05342, -53.9509, 2.05147, -173.782, 2.04695, 66.5548, 0.0171786, 15.0641
1, 1260.00000, 121.748, -30.877, 121.864, -150.708, 122.133, 89.6287, 0, 0, 2.05342, -53.9509, 2.05147, -173.782, 2.04695, 66.5548, 0.0171786, 15.0641
1, 1320.00000, 121.748, -30.877, 121.864, -150.708, 122.133, 89.6287, 0, 0, 2.05342, -53.9509, 2.05147, -173.782, 2.04695, 66.5548, 0.0171786, 15.0641
1, 1380.00000, 121.748, -30.877, 121.864, -150.708, 122.133, 89.6287, 0, 0, 2.05342, -53.9509, 2.05147, -173.782, 2.04695, 66.5548, 0.0171786, 15.0641
1, 1440.00000, 121.748, -30.877, 121.864, -150.708, 122.133, 89.6287, 0, 0, 2.05342, -53.9509, 2.05147, -173.782, 2.04695, 66.5548, 0.0171786, 15.0641
1, 1500.00000, 121.748, -30.877, 121.864, -150.708, 122.133, 89.6287, 0, 0, 2.05342, -53.9509, 2.05147, -173.782, 2.04695, 66.5548, 0.0171786, 15.0641
1, 1560.00000, 121.748, -30.877, 121.864, -150.708, 122.133, 89.6287, 0, 0, 2.05342, -53.9509, 2.05147, -173.782, 2.04695, 66.5548, 0.0171786, 15.0641
1, 1620.00000, 121.748, -30.877, 121.864, -150.708, 122.133, 89.6287, 0, 0, 2.05342, -53.9509, 2.05147, -173.782, 2.04695, 66.5548, 0.0171786, 15.0641
1, 1680.00000, 121.748, -30.877, 121.864, -150.708, 122.133, 89.6287, 0, 0, 2.05342, -53.9509, 2.05147, -173.782, 2.04695, 66.5548, 0.0171786, 15.0641
1, 1740.00000, 121.748, -30.877, 121.864, -150.708, 122.133, 89.6287, 0, 0, 2.05342, -53.9509, 2.05147, -173.782, 2.04695, 66.5548, 0.0171786, 15.0641
1, 1800.00000, 121.748, -30.877, 121.864, -150.708, 122.133, 89.6287, 0, 0, 2.05342, -53.9509, 2.05147, -173.782, 2.04695, 66.5548, 0.0171786, 15.0641
1, 1860.00000, 121.748, -30.877, 121.864, -150.708, 122.133, 89.6287, 0, 0, 2.05342, -53.9509, 2.05147, -173.782, 2.04695, 66.5548, 0.0171786, 15.0641
1, 1920.00000, 121.748, -30.877, 121.864, -150.708, 122.133, 89.6287, 0, 0, 2.05342, -53.9509, 2.05147, -173.782, 2.04695, 66.5548, 0.0171786, 15.0641
1, 1980.00000, 121.748, -30.877, 121.864, -150.708, 122.133, 89.6287, 0, 0, 2.05342, -53.9509, 2.05147, -173.782, 2.04695, 66.5548, 0.0171786, 15.0641
1, 2040.00000, 121.97, -30.8936, 123.397, -150.162, 123.915, 89.2581, 0, 0, 2.04973, -53.9674, 2.02609, -173.237, 2.01764, 66.1834, 0.0510793, 99.5786
1, 2100.00000, 121.971, -30.8936, 123.398, -150.162, 123.915, 89.2581, 0, 0, 2.04968, -53.9675, 2.02597, -173.236, 2.01751, 66.1842, 0.0511461, 99.569
1, 2160.00000, 121.971, -30.8936, 123.398, -150.162, 123.915, 89.2581, 0, 0, 2.04967, -53.9675, 2.02597, -173.236, 2.01751, 66.1842, 0.0511462, 99.5689
1, 2220.00000, 121.971, -30.8936, 123.398, -150.162, 123.915, 89.2581, 0, 0, 2.04967, -53.9675, 2.02597, -173.236, 2.01751, 66.1842, 0.0511462, 99.5689
1, 2280.00000, 121.971, -30.8936, 123.398, -150.162, 123.915, 89.2581, 0, 0, 2.04967, -53.9675, 2.02597, -173.236, 2.01751, 66.1842, 0.0511462, 99.5689
1, 2340.00000, 121.971, -30.8936, 123.398, -150.162, 123.915, 89.2581, 0, 0, 2.04967, -53.9675, 2.02597, -173.236, 2.01751, 66.1842, 0.0511462, 99.5689
1, 2400.00000, 121.971, -30.8936, 123.398, -150.162, 123.915, 89.2581, 0, 0, 2.04967, -53.9675, 2.02597, -173.236, 2.01751, 66.1842, 0.0511462, 99.5689
1, 2460.00000, 121.971, -30.8936, 123.398, -150.162, 123.915, 89.2581, 0, 0, 2.04967, -53.9675, 2.02597, -173.236, 2.01751, 66.1842, 0.0511462, 99.5689
1, 2520.00000, 123.223, -30.4348, 124.887, -150.427, 123.843, 89.2721, 0, 0, 2.02892, -53.5086, 2.00188, -173.502, 2.01868, 66.1986, 0.0339862, 161.645
1, 2580.00000, 123.224, -30.4348, 124.887, -150.427, 123.843, 89.2721, 0, 0, 2.02883, -53.5087, 2.00181, -173.501, 2.01869, 66.1982, 0.0340067, 161.733
1, 2640.00000, 123.224, -30.4348, 124.887, -150.427, 123.843, 89.2721, 0, 0, 2.02883, -53.5087, 2.00181, -173.501, 2.01869, 66.1982, 0.0340066, 161.733
1, 2700.00000, 123.224, -30.4348, 124.887, -150.427, 123.843, 89.2721, 0, 0, 2.02883, -53.5087, 2.00181, -173.501, 2.01869, 66.1982, 0.0340066, 161.733
1, 2760.00000, 124.517, -30.5491, 124.794, -150.438, 124.854, 89.6414, 0, 0, 2.00783, -53.624, 2.00327, -173.511, 2.00242, 66.5674, 0.00659454, 59.7386
1, 2820.00000, 124.517, -30.549, 124.794, -150.438, 124.854, 89.6414, 0, 0, 2.00776, -53.6229, 2.0033, -173.512, 2.00234, 66.5675, 0.0066267, 59.0866
1, 2880.00000, 124.517, -30.549, 124.794, -150.438, 124.854, 89.6414, 0, 0, 2.00776, -53.6229, 2.0033, -173.512, 2.00233, 66.5675, 0.00662688, 59.0845
1, 2940.00000, 124.517, -30.549, 124.794, -150.438, 124.854, 89.6414, 0, 0, 2.00776, -53.6229, 2.0033, -173.512, 2.00233, 66.5675, 0.00662688, 59.0845
1, 3000.00000, 124.517, -30.549, 124.794, -150.438, 124.854, 89.6414, 0, 0, 2.00776, -53.6229, 2.0033, -173.512, 2.00233, 66.5675, 0.00662688, 59.0845
1, 3060.00000, 124.517, -30.549, 124.794, -150.438, 124.854, 89.6414, 0, 0, 2.00776, -53.6229, 2.0033, -173.512, 2.00233, 66.5675, 0.00662688, 59.0845
1, 3120.00000, 124.517, -30.549, 124.794, -150.438, 124.854, 89.6414, 0, 0, 2.00776, -53.6229, 2.0033, -173.512, 2.00233, 66.5675, 0.00662688, 59.0845
1, 3180.00000, 124.517, -30.549, 124.794, -150.438, 124.854, 89.6414, 0, 0, 2.00776, -53.6229, 2.0033, -173.512, 2.00233, 66.5675, 0.00662688, 59.0845
1, 3240.00000, 124.517, -30.549, 124.794, -150.438, 124.854, 89.6414, 0, 0, 2.00776, -53.6229, 2.0033, -173.512, 2.00233, 66.5675, 0.00662688, 59.0845
1, 3300.00000, 124.517, -30.549, 124.794, -150.438, 124.854, 89.6414, 0, 0, 2.00776, -53.6229, 2.0033, -173.512, 2.00233, 66.5675, 0.00662688, 59.0845
1, 3360.00000, 124.517, -30.549, 124.794, -150.438, 124.854, 89.6414, 0, 0, 2.00776, -53.6229, 2.0033, -173.512, 2.00233, 66.5675, 0.00662688, 59.0845
1, 3420.00000, 124.517, -30.549, 124.794, -150.438, 124.854, 89.6414, 0, 0, 2.00776, -53.6229, 2.0033, -173.512, 2.00233, 66.5675, 0.00662688, 59.0845
1, 3480.00000, 124.517, -30.549, 124.794, -150.438, 124.854, 89.6414, 0, 0, 2.00776, -53.6229, 2.0033, -173.512, 2.00233, 66.5675, 0.00662688, 59.0845
1, 3540.00000, 124.517, -30.549, 124.794, -150.438, 124.854, 89.6414, 0, 0, 2.00776, -53.6229, 2.0033, -173.512, 2.00233, 66.5675, 0.00662688, 59.0845
2, 0.00000, 124.517, -30.549, 124.794, -150.438, 124.854, 89.6414, 0, 0, 2.00776, -53.6229, 2.0033, -173.512, 2.00233, 66.5675, 0.00662688, 59.0845
2, 60.00000, 124.517, -30.549, 124.794, -150.438, 124.854, 89.6414, 0, 0, 2.00776, -53.6229, 2.0033, -173.512, 2.00233, 66.5675, 0.00662688, 59.0845
2, 120.00000, 124.508, -30.55, 124.787, -150.439, 124.846, 89.6406, 0, 0, 2.01345, -53.6239, 2.00896, -173.512, 2.008, 66.5667, 0.00665386, 59.1827
2, 180.00000, 124.499, -30.5511, 124.779, -150.439, 124.838, 89.6397, 0, 0, 2.01921, -53.6249, 2.01469, -173.513, 2.01373, 66.5658, 0.00667997, 59.2851
2, 240.00000, 124.49, -30.5521, 124.771, -150.44, 124.83, 89.6389, 0, 0, 2.02491, -53.6259, 2.02036, -173.514, 2.0194, 66.565, 0.00670579, 59.3862
2, 300.00000, 124.482, -30.5531, 124.763, -150.441, 124.822, 89.6381, 0, 0, 2.03061, -53.6269, 2.02603, -173.515, 2.02508, 66.5642, 0.00673169, 59.4871
2, 360.00000, 124.473, -30.5541, 124.755, -150.442, 124.814, 89.6372, 0, 0, 2.03638, -53.628, 2.03177, -173.516, 2.03082, 66.5633, 0.00675799, 59.589
2, 420.00000, 124.464, -30.5551, 124.747, -150.443, 124.806, 89.6364, 0, 0, 2.04208, -53.629, 2.03744, -173.517, 2.03649, 66.5625, 0.00678401, 59.6896
2, 480.00000, 124.455, -30.5561, 124.74, -150.444, 124.798, 89.6355, 0, 0, 2.04778, -53.63, 2.04311, -173.518, 2.04216, 66.5617, 0.00681011, 59.7899
2, 540.00000, 124.446, -30.5571, 124.732, -150.445, 124.789, 89.6347, 0, 0, 2.05355, -53.631, 2.04886, -173.518, 2.04791, 66.5608, 0.00683661, 59.8913
2, 600.00000, 124.438, -30.5582, 124.724, -150.445, 124.781, 89.6339, 0, 0, 2.05926, -53.632, 2.05453, -173.519, 2.05358, 66.56, 0.00686282, 59.9914
2, 660.00000, 124.429, -30.5592, 124.716, -150.446, 124.773, 89.633, 0, 0, 2.06496, -53.633, 2.0602, -173.52, 2.05926, 66.5591, 0.00688912, 60.0912
2, 720.00000, 124.42, -30.5602, 124.708, -150.447, 124.765, 89.6322, 0, 0, 2.07074, -53.6341, 2.06595, -173.521, 2.065, 66.5583, 0.00691582, 60.1921
