hour,t(sec),V1,VAngle1,V2,VAngle2,V3,VAngle3,V4,VAngle4,I1,IAngle1,I2,IAngle2,I3,IAngle3,I4,IAngle4
0, 60.00000, 126.502, -30.6101, 126.546, -150.721, 126.273, 89.4066, 0, 0, 2.69369, -53.6834, 2.69273, -173.794, 2.69851, 66.3337, 0.0101309, -98.9844
0, 120.00000, 126.501, -30.6101, 126.545, -150.721, 126.273, 89.4066, 0, 0, 2.69373, -53.684, 2.6928, -173.795, 2.69861, 66.3326, 0.0102062, -99.0245
0, 180.00000, 126.501, -30.6101, 126.545, -150.721, 126.273, 89.4066, 0, 0, 2.69373, -53.684, 2.6928, -173.795, 2.69861, 66.3326, 0.0102065, -99.0246
0, 240.00000, 126.501, -30.6101, 126.545, -150.721, 126.273, 89.4066, 0, 0, 2.69373, -53.684, 2.6928, -173.795, 2.69861, 66.3326, 0.0102065, -99.0246
0, 300.00000, 126.501, -30.6101, 126.545, -150.721, 126.273, 89.4066, 0, 0, 2.69373, -53.684, 2.6928, -173.795, 2.69861, 66.3326, 0.0102065, -99.0246
0, 360.00000, 126.501, -30.6101, 126.545, -150.721, 126.273, 89.4066, 0, 0, 2.69373, -53.684, 2.6928, -173.795, 2.69861, 66.3326, 0.0102065, -99.0246
0, 420.00000, 126.501, -30.6101, 126.545, -150.721, 126.273, 89.4066, 0, 0, 2.69373, -53.684, 2.6928, -173.795, 2.69861, 66.3326, 0.0102065, -99.0246
0, 480.00000, 126.501, -30.6101, 126.545, -150.721, 126.273, 89.4066, 0, 0, 2.69373, -53.684, 2.6928, -173.795, 2.69861, 66.3326, 0.0102065, -99.0246
0, 540.00000, 126.501, -30.6101, 126.545, -150.721, 126.273, 89.4066, 0, 0, 2.69373, -53.684, 2.6928, -173.795, 2.69861, 66.3326, 0.0102065, -99.0246
0, 600.00000, 126.501, -30.6101, 126.545, -150.721, 126.273, 89.4066, 0, 0, 2.69373, -53.684, 2.6928, -173.795, 2.69861, 66.3326, 0.0102065, -99.0246
0, 660.00000, 126.501, -30.6101, 126.545, -150.721, 126.273, 89.4066, 0, 0, 2.69373, -53.684, 2.6928, -173.795, 2.69861, 66.3326, 0.0102065, -99.0246
0, 720.00000, 126.501, -30.6101, 126.545, -150.721, 126.273, 89.4066, 0, 0, 2.69373, -53.684, 2.6928, -173.795, 2.69861, 66.3326, 0.0102065, -99.0246
0, 780.00000, 126.501, -30.6101, 126.545, -150.721, 126.273, 89.4066, 0, 0, 2.69373, -53.684, 2.6928, -173.795, 2.69861, 66.3326, 0.0102065, -99.0246
0, 840.00000, 126.501, -30.6101, 126.545, -150.721, 126.273, 89.4066, 0, 0, 2.69373, -53.684, 2.6928, -173.795, 2.69861, 66.3326, 0.0102065, -99.0246
0, 900.00000, 126.501, -30.6101, 126.545, -150.721, 126.273, 89.4066, 0, 0, 2.69373, -53.684, 2.6928, -173.795, 2.69861, 66.3326, 0.0102065, -99.0246
0, 960.00000, 126.501, -30.6107, 126.413, -150.897, 125.86, 89.3605, 0, 0, 2.69374, -53.6845, 2.69557, -173.97, 2.7074, 66.2872, 0.025377, -97.8067
0, 1020.00000, 126.501, -30.6107, 126.413, -150.897, 125.859, 89.3604, 0, 0, 2.69374, -53.6846, 2.69561, -173.971, 2.70747, 66.2865, 0.0254607, -97.8126
0, 1080.00000, 126.501, -30.6107, 126.413, -150.897, 125.859, 89.3604, 0, 0, 2.69374, -53.6846, 2.69561, -173.971, 2.70747, 66.2865, 0.0254613, -97.8126
0, 1140.00000, 126.501, -30.6107, 126.413, -150.897, 125.859, 89.3604, 0, 0, 2.69374, -53.6846, 2.69561, -173.971, 2.70747, 66.2865, 0.0254613, -97.8126
0, 1200.00000, 126.501, -30.6107, 126.413, -150.897, 125.859, 89.3604, 0, 0, 2.69374, -53.6846, 2.69561, -173.971, 2.70747, 66.2865, 0.0254613, -97.8126
0, 1260.00000, 126.501, -30.6107, 126.413, -150.897, 125.859, 89.3604, 0, 0, 2.69374, -53.6846, 2.69561, -173.971, 2.70747, 66.2865, 0.0254613, -97.8126
0, 1320.00000, 126.501, -30.6107, 126.413, -150.897, 125.859, 89.3604, 0, 0, 2.69374, -53.6846, 2.69561, -173.971, 2.70747, 66.2865, 0.0254613, -97.8126
0, 1380.00000, 126.501, -30.6107, 126.413, -150.897, 125.859, 89.3604, 0, 0, 2.69374, -53.6846, 2.69561, -173.971, 2.70747, 66.2865, 0.0254613, -97.8126
0, 1440.00000, 126.501, -30.6107, 126.413, -150.897, 125.859, 89.3604, 0, 0, 2.69374, -53.6846, 2.69561, -173.971, 2.70747, 66.2865, 0.0254613, -97.8126
0, 1500.00000, 126.501, -30.6107, 126.413, -150.897, 125.859, 89.3604, 0, 0, 2.69374, -53.6846, 2.69561, -173.971, 2.70747, 66.2865, 0.0254613, -97.8126
0, 1560.00000, 126.501, -30.6107, 126.413, -150.897, 125.859, 89.3604, 0, 0, 2.69374, -53.6846, 2.69561, -173.971, 2.70747, 66.2865, 0.0254613, -97.8126
0, 1620.00000, 126.501, -30.6107, 126.413, -150.897, 125.859, 89.3604, 0, 0, 2.69374, -53.6846, 2.69561, -173.971, 2.70747, 66.2865, 0.0254613, -97.8126
0, 1680.00000, 126.501, -30.6107, 126.413, -150.897, 125.859, 89.3604, 0, 0, 2.69374, -53.6846, 2.69561, -173.971, 2.70747, 66.2865, 0.0254613, -97.8126
0, 1740.00000, 126.501, -30.6107, 126.413, -150.897, 125.859, 89.3604, 0, 0, 2.69374, -53.6846, 2.69561, -173.971, 2.70747, 66.2865, 0.0254613, -97.8126
0, 1800.00000, 126.501, -30.6107, 126.413, -150.897, 125.859, 89.3604, 0, 0, 2.69374, -53.6846, 2.69561, -173.971, 2.70747, 66.2865, 0.0254613, -97.8126
0, 1860.00000, 126.501, -30.6107, 126.413, -150.897, 125.859, 89.3604, 0, 0, 2.69374, -53.6846, 2.69561, -173.971, 2.70747, 66.2865, 0.0254613, -97.8126
0, 1920.00000, 126.501, -30.6107, 126.413, -150.897, 125.859, 89.3604, 0, 0, 2.69374, -53.6846, 2.69561, -173.971, 2.70747, 66.2865, 0.0254613, -97.8126
0, 1980.00000, 126.501, -30.6107, 126.413, -150.897, 125.859, 89.3604, 0, 0, 2.69374, -53.6846, 2.69561, -173.971, 2.70747, 66.2865, 0.0254613, -97.8126
0, 2040.00000, 126.501, -30.6107, 126.413, -150.897, 125.859, 89.3604, 0, 0, 2.69374, -53.6846, 2.69561, -173.971, 2.70747, 66.2865, 0.0254613, -97.8126
0, 2100.00000, 126.501, -30.6107, 126.413, -150.897, 125.859, 89.3604, 0, 0, 2.69374, -53.6846, 2.69561, -173.971, 2.70747, 66.2865, 0.0254613, -97.8126
0, 2160.00000, 126.501, -30.6107, 126.413, -150.897, 125.859, 89.3604, 0, 0, 2.69374, -53.6846, 2.69561, -173.971, 2.70747, 66.2865, 0.0254613, -97.8126
0, 2220.00000, 126.501, -30.6107, 126.413, -150.897, 125.859, 89.3604, 0, 0, 2.69374, -53.6846, 2.69561, -173.971, 2.70747, 66.2865, 0.0254613, -97.8126
0, 2280.00000, 126.501, -30.6107, 126.413, -150.897, 125.859, 89.3604, 0, 0, 2.69374, -53.6846, 2.69561, -173.971, 2.70747, 66.2865, 0.0254613, -97.8126
0, 2340.00000, 126.501, -30.6107, 126.413, -150.897, 125.859, 89.3604, 0, 0, 2.69374, -53.6846, 2.69561, -173.971, 2.70747, 66.2865, 0.0254613, -97.8126
0, 2400.00000, 126.501, -30.6107, 126.413, -150.897, 125.859, 89.3604, 0, 0, 2.69374, -53.6846, 2.69561, -173.971, 2.70747, 66.2865, 0.0254613, -97.8126
0, 2460.00000, 126.501, -30.6107, 126.413, -150.897, 125.859, 89.3604, 0, 0, 2.69374, -53.6846, 2.69561, -173.971, 2.70747, 66.2865, 0.0254613, -97.8126
0, 2520.00000, 126.501, -30.6107, 126.413, -150.897, 125.859, 89.3604, 0, 0, 2.69374, -53.6846, 2.69561, -173.971, 2.70747, 66.2865, 0.0254613, -97.8126
0, 2580.00000, 126.501, -30.6107, 126.413, -150.897, 125.859, 89.3604, 0, 0, 2.69374, -53.6846, 2.69561, -173.971, 2.70747, 66.2865, 0.0254613, -97.8126
0, 2640.00000, 126.501, -30.6107, 126.413, -150.897, 125.859, 89.3604, 0, 0, 2.69374, -53.6846, 2.69561, -173.971, 2.70747, 66.2865, 0.0254613, -97.8126
0, 2700.00000, 126.501, -30.6107, 126.413, -150.897, 125.859, 89.3604, 0, 0, 2.69374, -53.6846, 2.69561, -173.971, 2.70747, 66.2865, 0.0254613, -97.8126
0, 2760.00000, 126.501, -30.6107, 126.413, -150.897, 125.859, 89.3604, 0, 0, 2.69374, -53.6846, 2.69561, -173.971, 2.70747, 66.2865, 0.0254613, -97.8126
0, 2820.00000, 126.501, -30.6107, 126.413, -150.897, 125.859, 89.3604, 0, 0, 2.69374, -53.6846, 2.69561, -173.971, 2.70747, 66.2865, 0.0254613, -97.8126
0, 2880.00000, 126.501, -30.6107, 126.413, -150.897, 125.859, 89.3604, 0, 0, 2.69374, -53.6846, 2.69561, -173.971, 2.70747, 66.2865, 0.0254613, -97.8126
0, 2940.00000, 126.501, -30.6107, 126.413, -150.897, 125.859, 89.3604, 0, 0, 2.69374, -53.6846, 2.69561, -173.971, 2.70747, 66.2865, 0.0254613, -97.8126
0, 3000.00000, 126.501, -30.6107, 126.413, -150.897, 125.859, 89.3604, 0, 0, 2.69374, -53.6846, 2.69561, -173.971, 2.70747, 66.2865, 0.0254613, -97.8126
0, 3060.00000, 126.501, -30.6107, 126.413, -150.897, 125.859, 89.3604, 0, 0, 2.69374, -53.6846, 2.69561, -173.971, 2.70747, 66.2865, 0.0254613, -97.8126
0, 3120.00000, 126.501, -30.6107, 126.413, -150.897, 125.859, 89.3604, 0, 0, 2.69374, -53.6846, 2.69561, -173.971, 2.70747, 66.2865, 0.0254613, -97.8126
0, 3180.00000, 126.501, -30.6107, 126.413, -150.897, 125.859, 89.3604, 0, 0, 2.69374, -53.6846, 2.69561, -173.971, 2.70747, 66.2865, 0.0254613, -97.8126
0, 3240.00000, 126.501, -30.6107, 126.413, -150.897, 125.859, 89.3604, 0, 0, 2.69374, -53.6846, 2.69561, -173.971, 2.70747, 66.2865, 0.0254613, -97.8126
0, 3300.00000, 126.501, -30.6107, 126.413, -150.897, 125.859, 89.3604, 0, 0, 2.69374, -53.6846, 2.69561, -173.971, 2.70747, 66.2865, 0.0254613, -97.8126
0, 3360.00000, 126.501, -30.6107, 126.413, -150.897, 125.859, 89.3604, 0, 0, 2.69374, -53.6846, 2.69561, -173.971, 2.70747, 66.2865, 0.0254613, -97.8126
0, 3420.00000, 126.501, -30.6107, 126.413, -150.897, 125.859, 89.3604, 0, 0, 2.69374, -53.6846, 2.69561, -173.971, 2.70747, 66.2865, 0.0254613, -97.8126
0, 3480.00000, 126.501, -30.6107, 126.413, -150.897, 125.859, 89.3604, 0, 0, 2.69374, -53.6846, 2.69561, -173.971, 2.70747, 66.2865, 0.0254613, -97.8126
0, 3540.00000, 126.501, -30.6107, 126.413, -150.897, 125.859, 89.3604, 0, 0, 2.69374, -53.6846, 2.69561, -173.971, 2.70747, 66.2865, 0.0254613, -97.8126
1, 0.00000, 126.501, -30.6107, 126.413, -150.897, 125.859, 89.3604, 0, 0, 2.69374, -53.6846, 2.69561, -173.971, 2.70747, 66.2865, 0.0254613, -97.8126
1, 60.00000, 126.501, -30.6107, 126.413, -150.897, 125.859, 89.3604, 0, 0, 2.69374, -53.6846, 2.69561, -173.971, 2.70747, 66.2865, 0.0254613, -97.8126
1, 120.00000, 126.501, -30.6107, 126.413, -150.897, 125.859, 89.3604, 0, 0, 2.69374, -53.6846, 2.69561, -173.971, 2.70747, 66.2865, 0.0254613, -97.8126
1, 180.00000, 126.501, -30.6107, 126.413, -150.897, 125.859, 89.3604, 0, 0, 2.69374, -53.6846, 2.69561, -173.971, 2.70747, 66.2865, 0.0254613, -97.8126
1, 240.00000, 126.501, -30.6107, 126.413, -150.897, 125.859, 89.3604, 0, 0, 2.69374, -53.6846, 2.69561, -173.971, 2.70747, 66.2865, 0.0254613, -97.8126
1, 300.00000, 126.501, -30.6107, 126.413, -150.897, 125.859, 89.3604, 0, 0, 2.69374, -53.6846, 2.69561, -173.971, 2.70747, 66.2865, 0.0254613, -97.8126
1, 360.00000, 126.501, -30.6107, 126.413, -150.897, 125.859, 89.3604, 0, 0, 2.69374, -53.6846, 2.69561, -173.971, 2.70747, 66.2865, 0.0254613, -97.8126
1, 420.00000, 126.501, -30.6107, 126.413, -150.897, 125.859, 89.3604, 0, 0, 2.69374, -53.6846, 2.69561, -173.971, 2.70747, 66.2865, 0.0254613, -97.8126
1, 480.00000, 126.501, -30.6107, 126.413, -150.897, 125.859, 89.3604, 0, 0, 2.69374, -53.6846, 2.69561, -173.971, 2.70747, 66.2865, 0.0254613, -97.8126
1, 540.00000, 126.501, -30.6107, 126.413, -150.897, 125.859, 89.3604, 0, 0, 2.69374, -53.6846, 2.69561, -173.971, 2.70747, 66.2865, 0.0254613, -97.8126
1, 600.00000, 126.501, -30.6107, 126.413, -150.897, 125.859, 89.3604, 0, 0, 2.69374, -53.6846, 2.69561, -173.971, 2.70747, 66.2865, 0.0254613, -97.8126
1, 660.00000, 126.501, -30.6107, 126.413, -150.897, 125.859, 89.3604, 0, 0, 2.69374, -53.6846, 2.69561, -173.971, 2.70747, 66.2865, 0.0254613, -97.8126
1, 720.00000, 126.501, -30.6107, 126.413, -150.897, 125.859, 89.3604, 0, 0, 2.69374, -53.6846, 2.69561, -173.971, 2.70747, 66.2865, 0.0254613, -97.8126
1, 780.00000, 126.501, -30.6107, 126.413, -150.897, 125.859, 89.3604, 0, 0, 2.69374, -53.6846, 2.69561, -173.971, 2.70747, 66.2865, 0.0254613, -97.8126
1, 840.00000, 126.501, -30.6107, 126.413, -150.897, 125.859, 89.3604, 0, 0, 2.69374, -53.6846, 2.69561, -173.971, 2.70747, 66.2865, 0.0254613, -97.8126
1, 900.00000, 126.501, -30.6107, 126.413, -150.897, 125.859, 89.3604, 0, 0, 2.69374, -53.6846, 2.69561, -173.971, 2.70747, 66.2865, 0.0254613, -97.8126
1, 960.00000, 126.501, -30.6107, 126.413, -150.897, 125.859, 89.3604, 0, 0, 2.69374, -53.6846, 2.69561, -173.971, 2.70747, 66.2865, 0.0254613, -97.8126
1, 1020.00000, 126.501, -30.6107, 126.413, -150.897, 125.859, 89.3604, 0, 0, 2.69374, -53.6846, 2.69561, -173.971, 2.70747, 66.2865, 0.0254613, -97.8126
1, 1080.00000, 126.501, -30.6107, 126.413, -150.897, 125.859, 89.3604, 0, 0, 2.69374, -53.6846, 2.69561, -173.971, 2.70747, 66.2865, 0.0254613, -97.8126
1, 1140.00000, 126.501, -30.6107, 126.413, -150.897, 125.859, 89.3604, 0, 0, 2.69374, -53.6846, 2.69561, -173.971, 2.70747, 66.2865, 0.0254613, -97.8126
1, 1200.00000, 126.501, -30.6107, 126.413, -150.897, 125.859, 89.3604, 0, 0, 2.69374, -53.6846, 2.69561, -173.971, 2.70747, 66.2865, 0.0254613, -97.8126
1, 1260.00000, 126.501, -30.6107, 126.413, -150.897, 125.859, 89.3604, 0, 0, 2.69374, -53.6846, 2.69561, -173.971, 2.70747, 66.2865, 0.0254613, -97.8126
1, 1320.00000, 126.501, -30.6107, 126.413, -150.897, 125.859, 89.3604, 0, 0, 2.69374, -53.6846, 2.69561, -173.971, 2.70747, 66.2865, 0.0254613, -97.8126
1, 1380.00000, 126.501, -30.6107, 126.413, -150.897, 125.859, 89.3604, 0, 0, 2.69374, -53.6846, 2.69561, -173.971, 2.70747, 66.2865, 0.0254613, -97.8126
1, 1440.00000, 126.501, -30.6107, 126.413, -150.897, 125.859, 89.3604, 0, 0, 2.69374, -53.6846, 2.69561, -173.971, 2.70747, 66.2865, 0.0254613, -97.8126
1, 1500.00000, 126.501, -30.6107, 126.413, -150.897, 125.859, 89.3604, 0, 0, 2.69374, -53.6846, 2.69561, -173.971, 2.70747, 66.2865, 0.0254613, -97.8126
1, 1560.00000, 126.501, -30.6107, 126.413, -150.897, 125.859, 89.3604, 0, 0, 2.69374, -53.6846, 2.69561, -173.971, 2.70747, 66.2865, 0.0254613, -97.8126
1, 1620.00000, 126.501, -30.6107, 126.413, -150.897, 125.859, 89.3604, 0, 0, 2.69374, -53.6846, 2.69561, -173.971, 2.70747, 66.2865, 0.0254613, -97.8126
1, 1680.00000, 126.501, -30.6107, 126.413, -150.897, 125.859, 89.3604, 0, 0, 2.69374, -53.6846, 2.69561, -173.971, 2.70747, 66.2865, 0.0254613, -97.8126
1, 1740.00000, 126.501, -30.6107, 126.413, -150.897, 125.859, 89.3604, 0, 0, 2.69374, -53.6846, 2.69561, -173.971, 2.70747, 66.2865, 0.0254613, -97.8126
1, 1800.00000, 126.501, -30.6107, 126.413, -150.897, 125.859, 89.3604, 0, 0, 2.69374, -53.6846, 2.69561, -173.971, 2.70747, 66.2865, 0.0254613, -97.8126
1, 1860.00000, 126.501, -30.6107, 126.413, -150.897, 125.859, 89.3604, 0, 0, 2.69374, -53.6846, 2.69561, -173.971, 2.70747, 66.2865, 0.0254613, -97.8126
1, 1920.00000, 126.501, -30.6107, 126.413, -150.897, 125.859, 89.3604, 0, 0, 2.69374, -53.6846, 2.69561, -173.971, 2.70747, 66.2865, 0.0254613, -97.8126
1, 1980.00000, 126.501, -30.6107, 126.413, -150.897, 125.859, 89.3604, 0, 0, 2.69374, -53.6846, 2.69561, -173.971, 2.70747, 66.2865, 0.0254613, -97.8126
1, 2040.00000, 126.501, -30.6107, 126.413, -150.897, 125.859, 89.3604, 0, 0, 2.69374, -53.6846, 2.69561, -173.971, 2.70747, 66.2865, 0.0254613, -97.8126
1, 2100.00000, 126.501, -30.6107, 126.413, -150.897, 125.859, 89.3604, 0, 0, 2.69374, -53.6846, 2.69561, -173.971, 2.70747, 66.2865, 0.0254613, -97.8126
1, 2160.00000, 126.501, -30.6107, 126.413, -150.897, 125.859, 89.3604, 0, 0, 2.69374, -53.6846, 2.69561, -173.971, 2.70747, 66.2865, 0.0254613, -97.8126
1, 2220.00000, 126.501, -30.6107, 126.413, -150.897, 125.859, 89.3604, 0, 0, 2.69374, -53.6846, 2.69561, -173.971, 2.70747, 66.2865, 0.0254613, -97.8126
1, 2280.00000, 126.501, -30.6107, 126.413, -150.897, 125.859, 89.3604, 0, 0, 2.69374, -53.6846, 2.69561, -173.971, 2.70747, 66.2865, 0.0254613, -97.8126
1, 2340.00000, 126.501, -30.6107, 126.413, -150.897, 125.859, 89.3604, 0, 0, 2.69374, -53.6846, 2.69561, -173.971, 2.70747, 66.2865, 0.0254613, -97.8126
1, 2400.00000, 126.501, -30.6107, 126.413, -150.897, 125.859, 89.3604, 0, 0, 2.69374, -53.6846, 2.69561, -173.971, 2.70747, 66.2865, 0.0254613, -97.8126
1, 2460.00000, 126.501, -30.6107, 126.413, -150.897, 125.859, 89.3604, 0, 0, 2.69374, -53.6846, 2.69561, -173.971, 2.70747, 66.2865, 0.0254613, -97.8126
1, 2520.00000, 126.501, -30.6101, 126.545, -150.721, 126.272, 89.4065, 0, 0, 2.69373, -53.6841, 2.69283, -173.796, 2.69866, 66.3321, 0.0102609, -99.0392
1, 2580.00000, 126.501, -30.6101, 126.545, -150.721, 126.273, 89.4066, 0, 0, 2.69373, -53.684, 2.6928, -173.795, 2.69861, 66.3326, 0.0102068, -99.0245
1, 2640.00000, 126.501, -30.6101, 126.545, -150.721, 126.273, 89.4066, 0, 0, 2.69373, -53.684, 2.6928, -173.795, 2.69861, 66.3326, 0.0102065, -99.0246
1, 2700.00000, 126.501, -30.6101, 126.545, -150.721, 126.273, 89.4066, 0, 0, 2.69373, -53.684, 2.6928, -173.795, 2.69861, 66.3326, 0.0102065, -99.0246
1, 2760.00000, 126.502, -30.6097, 126.672, -150.551, 126.672, 89.4512, 0, 0, 2.69373, -53.6837, 2.69012, -173.625, 2.69013, 66.3769, 0.00450196, 87.9167
1, 2820.00000, 126.502, -30.6097, 126.672, -150.551, 126.672, 89.4512, 0, 0, 2.69372, -53.6836, 2.69011, -173.625, 2.6901, 66.3773, 0.00453399, 87.7976
1, 2880.00000, 126.502, -30.6097, 126.672, -150.551, 126.672, 89.4512, 0, 0, 2.69372, -53.6836, 2.69011, -173.625, 2.6901, 66.3773, 0.00453409, 87.7973
1, 2940.00000, 126.502, -30.6097, 126.672, -150.551, 126.672, 89.4512, 0, 0, 2.69372, -53.6836, 2.69011, -173.625, 2.6901, 66.3773, 0.00453409, 87.7973
1, 3000.00000, 126.502, -30.6097, 126.672, -150.551, 126.672, 89.4512, 0, 0, 2.69372, -53.6836, 2.69011, -173.625, 2.6901, 66.3773, 0.00453409, 87.7973
1, 3060.00000, 126.502, -30.6097, 126.672, -150.551, 126.672, 89.4512, 0, 0, 2.69372, -53.6836, 2.69011, -173.625, 2.6901, 66.3773, 0.00453409, 87.7973
1, 3120.00000, 126.502, -30.6097, 126.672, -150.551, 126.672, 89.4512, 0, 0, 2.69372, -53.6836, 2.69011, -173.625, 2.6901, 66.3773, 0.00453409, 87.7973
1, 3180.00000, 126.502, -30.6097, 126.672, -150.551, 126.672, 89.4512, 0, 0, 2.69372, -53.6836, 2.69011, -173.625, 2.6901, 66.3773, 0.00453409, 87.7973
1, 3240.00000, 126.502, -30.6097, 126.672, -150.551, 126.672, 89.4512, 0, 0, 2.69372, -53.6836, 2.69011, -173.625, 2.6901, 66.3773, 0.00453409, 87.7973
1, 3300.00000, 126.502, -30.6097, 126.672, -150.551, 126.672, 89.4512, 0, 0, 2.69372, -53.6836, 2.69011, -173.625, 2.6901, 66.3773, 0.00453409, 87.7973
1, 3360.00000, 126.502, -30.6097, 126.672, -150.551, 126.672, 89.4512, 0, 0, 2.69372, -53.6836, 2.69011, -173.625, 2.6901, 66.3773, 0.00453409, 87.7973
1, 3420.00000, 126.502, -30.6097, 126.672, -150.551, 126.672, 89.4512, 0, 0, 2.69372, -53.6836, 2.69011, -173.625, 2.6901, 66.3773, 0.00453409, 87.7973
1, 3480.00000, 126.502, -30.6097, 126.672, -150.551, 126.672, 89.4512, 0, 0, 2.69372, -53.6836, 2.69011, -173.625, 2.6901, 66.3773, 0.00453409, 87.7973
1, 3540.00000, 126.502, -30.6097, 126.672, -150.551, 126.672, 89.4512, 0, 0, 2.69372, -53.6836, 2.69011, -173.625, 2.6901, 66.3773, 0.00453409, 87.7973
2, 0.00000, 126.502, -30.6097, 126.672, -150.551, 126.672, 89.4512, 0, 0, 2.69372, -53.6836, 2.69011, -173.625, 2.6901, 66.3773, 0.00453409, 87.7973
2, 60.00000, 126.502, -30.6097, 126.672, -150.551, 126.672, 89.4512, 0, 0, 2.69372, -53.6836, 2.69011, -173.625, 2.6901, 66.3773, 0.00453409, 87.7973
2, 120.00000, 126.497, -30.6109, 126.668, -150.552, 126.668, 89.4501, 0, 0, 2.70127, -53.6847, 2.69764, -173.626, 2.69763, 66.3762, 0.00455305, 87.8389
2, 180.00000, 126.492, -30.6121, 126.663, -150.553, 126.663, 89.449, 0, 0, 2.70892, -53.6859, 2.70526, -173.627, 2.70526, 66.3751, 0.00457214, 87.8859
2, 240.00000, 126.487, -30.6132, 126.659, -150.554, 126.659, 89.4479, 0, 0, 2.71648, -53.6871, 2.7128, -173.628, 2.7128, 66.374, 0.00459103, 87.9325
2, 300.00000, 126.483, -30.6144, 126.654, -150.555, 126.654, 89.4468, 0, 0, 2.72403, -53.6883, 2.72034, -173.629, 2.72034, 66.3729, 0.00460997, 87.9789
2, 360.00000, 126.478, -30.6156, 126.65, -150.556, 126.65, 89.4457, 0, 0, 2.73168, -53.6895, 2.72797, -173.63, 2.72797, 66.3718, 0.00462918, 88.0257
2, 420.00000, 126.473, -30.6168, 126.646, -150.557, 126.645, 89.4445, 0, 0, 2.73924, -53.6906, 2.7355, -173.631, 2.73551, 66.3707, 0.0046482, 88.0719
2, 480.00000, 126.468, -30.6179, 126.641, -150.559, 126.641, 89.4434, 0, 0, 2.74679, -53.6918, 2.74304, -173.632, 2.74305, 66.3696, 0.00466726, 88.118
2, 540.00000, 126.464, -30.6191, 126.637, -150.56, 126.636, 89.4423, 0, 0, 2.75444, -53.693, 2.75067, -173.633, 2.75068, 66.3685, 0.00468659, 88.1644
2, 600.00000, 126.459, -30.6203, 126.633, -150.561, 126.632, 89.4412, 0, 0, 2.762, -53.6941, 2.75821, -173.635, 2.75822, 66.3673, 0.00470573, 88.2103
