hour,t(sec),V1,VAngle1,V2,VAngle2,V3,VAngle3,V4,VAngle4,I1,IAngle1,I2,IAngle2,I3,IAngle3,I4,IAngle4
0, 60.00000, 123.061, -30.5184, 124.398, -151.17, 122.297, 88.9815, 0, 0, 2.48811, -53.592, 2.46141, -174.244, 2.50364, 65.9079, 0.0615583, -143.946
0, 120.00000, 123.061, -30.5184, 124.398, -151.17, 122.297, 88.9815, 0, 0, 2.48816, -53.5923, 2.46142, -174.244, 2.50371, 65.9075, 0.0616032, -143.971
0, 180.00000, 123.061, -30.5184, 124.398, -151.17, 122.297, 88.9815, 0, 0, 2.48816, -53.5923, 2.46142, -174.244, 2.50371, 65.9075, 0.0616035, -143.971
0, 240.00000, 123.061, -30.5184, 124.398, -151.17, 122.297, 88.9815, 0, 0, 2.48816, -53.5923, 2.46142, -174.244, 2.50371, 65.9075, 0.0616035, -143.971
0, 300.00000, 123.186, -30.5263, 125.343, -150.787, 123.493, 88.7833, 0, 0, 2.48568, -53.6002, 2.44293, -173.861, 2.47956, 65.7084, 0.0661963, 178.322
0, 360.00000, 123.186, -30.5263, 125.343, -150.786, 123.494, 88.7834, 0, 0, 2.48563, -53.6002, 2.44286, -173.86, 2.47944, 65.7095, 0.0661437, 178.267
0, 420.00000, 123.186, -30.5263, 125.343, -150.786, 123.494, 88.7834, 0, 0, 2.48563, -53.6002, 2.44286, -173.86, 2.47944, 65.7095, 0.0661431, 178.267
0, 480.00000, 123.186, -30.5263, 125.343, -150.786, 123.494, 88.7834, 0, 0, 2.48563, -53.6002, 2.44286, -173.86, 2.47944, 65.7095, 0.0661431, 178.267
0, 540.00000, 123.186, -30.5263, 125.343, -150.786, 123.494, 88.7834, 0, 0, 2.48563, -53.6002, 2.44286, -173.86, 2.47944, 65.7095, 0.0661431, 178.267
0, 600.00000, 123.186, -30.5263, 125.343, -150.786, 123.494, 88.7834, 0, 0, 2.48563, -53.6002, 2.44286, -173.86, 2.47944, 65.7095, 0.0661431, 178.267
0, 660.00000, 123.186, -30.5263, 125.343, -150.786, 123.494, 88.7834, 0, 0, 2.48563, -53.6002, 2.44286, -173.86, 2.47944, 65.7095, 0.0661431, 178.267
0, 720.00000, 123.186, -30.5263, 125.343, -150.786, 123.494, 88.7834, 0, 0, 2.48563, -53.6002, 2.44286, -173.86, 2.47944, 65.7095, 0.0661431, 178.267
0, 780.00000, 123.188, -30.5255, 125.47, -150.62, 123.893, 88.828, 0, 0, 2.48562, -53.5995, 2.44039, -173.694, 2.47151, 65.7534, 0.0661285, 166.728
0, 840.00000, 123.188, -30.5254, 125.47, -150.62, 123.893, 88.828, 0, 0, 2.48559, -53.5994, 2.44038, -173.694, 2.47146, 65.7541, 0.0660861, 166.699
0, 900.00000, 123.188, -30.5254, 125.47, -150.62, 123.893, 88.828, 0, 0, 2.48559, -53.5994, 2.44038, -173.694, 2.47146, 65.7541, 0.0660857, 166.699
0, 960.00000, 121.88, -30.4009, 125.561, -150.609, 122.861, 88.444, 0, 0, 2.51226, -53.4737, 2.43864, -173.684, 2.49213, 65.3699, 0.112171, 168.834
0, 1020.00000, 121.88, -30.4009, 125.561, -150.609, 122.861, 88.444, 0, 0, 2.51228, -53.4749, 2.43862, -173.683, 2.49221, 65.3701, 0.112191, 168.847
0, 1080.00000, 121.88, -30.4009, 125.561, -150.609, 122.861, 88.444, 0, 0, 2.51228, -53.4749, 2.43862, -173.683, 2.49221, 65.3701, 0.112191, 168.847
0, 1140.00000, 121.88, -30.4009, 125.561, -150.609, 122.861, 88.444, 0, 0, 2.51228, -53.4749, 2.43862, -173.683, 2.49221, 65.3701, 0.112191, 168.847
0, 1200.00000, 121.88, -30.4009, 125.561, -150.609, 122.861, 88.444, 0, 0, 2.51228, -53.4749, 2.43862, -173.683, 2.49221, 65.3701, 0.112191, 168.847
0, 1260.00000, 121.88, -30.4009, 125.561, -150.609, 122.861, 88.444, 0, 0, 2.51228, -53.4749, 2.43862, -173.683, 2.49221, 65.3701, 0.112191, 168.847
0, 1320.00000, 121.88, -30.4009, 125.561, -150.609, 122.861, 88.444, 0, 0, 2.51228, -53.4749, 2.43862, -173.683, 2.49221, 65.3701, 0.112191, 168.847
0, 1380.00000, 121.88, -30.4009, 125.561, -150.609, 122.861, 88.444, 0, 0, 2.51228, -53.4749, 2.43862, -173.683, 2.49221, 65.3701, 0.112191, 168.847
0, 1440.00000, 121.88, -30.4009, 125.561, -150.609, 122.861, 88.444, 0, 0, 2.51228, -53.4749, 2.43862, -173.683, 2.49221, 65.3701, 0.112191, 168.847
0, 1500.00000, 121.88, -30.4009, 125.561, -150.609, 122.861, 88.444, 0, 0, 2.51228, -53.4749, 2.43862, -173.683, 2.49221, 65.3701, 0.112191, 168.847
0, 1560.00000, 121.88, -30.4009, 125.561, -150.609, 122.861, 88.444, 0, 0, 2.51228, -53.4749, 2.43862, -173.683, 2.49221, 65.3701, 0.112191, 168.847
0, 1620.00000, 121.88, -30.4009, 125.561, -150.609, 122.861, 88.444, 0, 0, 2.51228, -53.4749, 2.43862, -173.683, 2.49221, 65.3701, 0.112191, 168.847
0, 1680.00000, 121.88, -30.4009, 125.561, -150.609, 122.861, 88.444, 0, 0, 2.51228, -53.4749, 2.43862, -173.683, 2.49221, 65.3701, 0.112191, 168.847
0, 1740.00000, 121.88, -30.4009, 125.561, -150.609, 122.861, 88.444, 0, 0, 2.51228, -53.4749, 2.43862, -173.683, 2.49221, 65.3701, 0.112191, 168.847
0, 1800.00000, 121.88, -30.4009, 125.561, -150.609, 122.861, 88.444, 0, 0, 2.51228, -53.4749, 2.43862, -173.683, 2.49221, 65.3701, 0.112191, 168.847
0, 1860.00000, 121.88, -30.4009, 125.561, -150.609, 122.861, 88.444, 0, 0, 2.51228, -53.4749, 2.43862, -173.683, 2.49221, 65.3701, 0.112191, 168.847
0, 1920.00000, 121.88, -30.4009, 125.561, -150.609, 122.861, 88.444, 0, 0, 2.51228, -53.4749, 2.43862, -173.683, 2.49221, 65.3701, 0.112191, 168.847
0, 1980.00000, 121.88, -30.4009, 125.561, -150.609, 122.861, 88.444, 0, 0, 2.51228, -53.4749, 2.43862, -173.683, 2.49221, 65.3701, 0.112191, 168.847
0, 2040.00000, 121.88, -30.4009, 125.561, -150.609, 122.861, 88.444, 0, 0, 2.51228, -53.4749, 2.43862, -173.683, 2.49221, 65.3701, 0.112191, 168.847
0, 2100.00000, 121.88, -30.4009, 125.561, -150.609, 122.861, 88.444, 0, 0, 2.51228, -53.4749, 2.43862, -173.683, 2.49221, 65.3701, 0.112191, 168.847
0, 2160.00000, 121.88, -30.4009, 125.561, -150.609, 122.861, 88.444, 0, 0, 2.51228, -53.4749, 2.43862, -173.683, 2.49221, 65.3701, 0.112191, 168.847
0, 2220.00000, 122.275, -30.3612, 125.561, -150.609, 122.985, 88.6142, 0, 0, 2.50418, -53.4354, 2.43862, -173.683, 2.48971, 65.5401, 0.0997724, 172.3
0, 2280.00000, 122.275, -30.3611, 125.561, -150.609, 122.985, 88.6142, 0, 0, 2.50415, -53.4351, 2.43863, -173.683, 2.48969, 65.5402, 0.099746, 172.31
0, 2340.00000, 122.275, -30.3611, 125.561, -150.609, 122.985, 88.6142, 0, 0, 2.50415, -53.4351, 2.43863, -173.683, 2.48969, 65.5402, 0.0997459, 172.31
0, 2400.00000, 122.275, -30.3611, 125.561, -150.609, 122.985, 88.6142, 0, 0, 2.50415, -53.4351, 2.43863, -173.683, 2.48969, 65.5402, 0.0997459, 172.31
0, 2460.00000, 122.275, -30.3611, 125.561, -150.609, 122.985, 88.6142, 0, 0, 2.50415, -53.4351, 2.43863, -173.683, 2.48969, 65.5402, 0.0997459, 172.31
0, 2520.00000, 122.275, -30.3611, 125.561, -150.609, 122.985, 88.6142, 0, 0, 2.50415, -53.4351, 2.43863, -173.683, 2.48969, 65.5402, 0.0997459, 172.31
0, 2580.00000, 122.275, -30.3611, 125.561, -150.609, 122.985, 88.6142, 0, 0, 2.50415, -53.4351, 2.43863, -173.683, 2.48969, 65.5402, 0.0997459, 172.31
0, 2640.00000, 122.275, -30.3611, 125.561, -150.609, 122.985, 88.6142, 0, 0, 2.50415, -53.4351, 2.43863, -173.683, 2.48969, 65.5402, 0.0997459, 172.31
0, 2700.00000, 122.275, -30.3611, 125.561, -150.609, 122.985, 88.6142, 0, 0, 2.50415, -53.4351, 2.43863, -173.683, 2.48969, 65.5402, 0.0997459, 172.31
0, 2760.00000, 122.275, -30.3611, 125.561, -150.609, 122.985, 88.6142, 0, 0, 2.50415, -53.4351, 2.43863, -173.683, 2.48969, 65.5402, 0.0997459, 172.31
0, 2820.00000, 122.275, -30.3611, 125.561, -150.609, 122.985, 88.6142, 0, 0, 2.50415, -53.4351, 2.43863, -173.683, 2.48969, 65.5402, 0.0997459, 172.31
0, 2880.00000, 122.275, -30.3611, 125.561, -150.609, 122.985, 88.6142, 0, 0, 2.50415, -53.4351, 2.43863, -173.683, 2.48969, 65.5402, 0.0997459, 172.31
0, 2940.00000, 122.275, -30.3611, 125.561, -150.609, 122.985, 88.6142, 0, 0, 2.50415, -53.4351, 2.43863, -173.683, 2.48969, 65.5402, 0.0997459, 172.31
0, 3000.00000, 122.275, -30.3611, 125.561, -150.609, 122.985, 88.6142, 0, 0, 2.50415, -53.4351, 2.43863, -173.683, 2.48969, 65.5402, 0.0997459, 172.31
0, 3060.00000, 122.275, -30.3611, 125.561, -150.609, 122.985, 88.6142, 0, 0, 2.50415, -53.4351, 2.43863, -173.683, 2.48969, 65.5402, 0.0997459, 172.31
0, 3120.00000, 122.275, -30.3611, 125.561, -150.609, 122.985, 88.6142, 0, 0, 2.50415, -53.4351, 2.43863, -173.683, 2.48969, 65.5402, 0.0997459, 172.31
0, 3180.00000, 122.275, -30.3611, 125.561, -150.609, 122.985, 88.6142, 0, 0, 2.50415, -53.4351, 2.43863, -173.683, 2.48969, 65.5402, 0.0997459, 172.31
0, 3240.00000, 122.275, -30.3611, 125.561, -150.609, 122.985, 88.6142, 0, 0, 2.50415, -53.4351, 2.43863, -173.683, 2.48969, 65.5402, 0.0997459, 172.31
0, 3300.00000, 122.275, -30.3611, 125.561, -150.609, 122.985, 88.6142, 0, 0, 2.50415, -53.4351, 2.43863, -173.683, 2.48969, 65.5402, 0.0997459, 172.31
0, 3360.00000, 122.275, -30.3611, 125.561, -150.609, 122.985, 88.6142, 0, 0, 2.50415, -53.4351, 2.43863, -173.683, 2.48969, 65.5402, 0.0997459, 172.31
0, 3420.00000, 122.275, -30.3611, 125.561, -150.609, 122.985, 88.6142, 0, 0, 2.50415, -53.4351, 2.43863, -173.683, 2.48969, 65.5402, 0.0997459, 172.31
0, 3480.00000, 122.275, -30.3611, 125.561, -150.609, 122.985, 88.6142, 0, 0, 2.50415, -53.4351, 2.43863, -173.683, 2.48969, 65.5402, 0.0997459, 172.31
0, 3540.00000, 123.601, -30.4846, 125.468, -150.62, 124.026, 89.0002, 0, 0, 2.47743, -53.5595, 2.4404, -173.694, 2.46894, 65.9255, 0.0535198, 172.594
1, 0.00000, 123.601, -30.4845, 125.467, -150.62, 124.026, 89.0003, 0, 0, 2.47729, -53.5584, 2.44044, -173.694, 2.4688, 65.9263, 0.0533337, 172.604
1, 60.00000, 123.601, -30.4845, 125.467, -150.62, 124.026, 89.0003, 0, 0, 2.47729, -53.5584, 2.44044, -173.694, 2.4688, 65.9264, 0.0533326, 172.604
1, 120.00000, 123.601, -30.4845, 125.467, -150.62, 124.026, 89.0003, 0, 0, 2.47729, -53.5584, 2.44044, -173.694, 2.4688, 65.9264, 0.0533325, 172.604
1, 180.00000, 123.601, -30.4845, 125.467, -150.62, 124.026, 89.0003, 0, 0, 2.47729, -53.5584, 2.44044, -173.694, 2.4688, 65.9264, 0.0533325, 172.604
1, 240.00000, 123.601, -30.4845, 125.467, -150.62, 124.026, 89.0003, 0, 0, 2.47729, -53.5584, 2.44044, -173.694, 2.4688, 65.9264, 0.0533325, 172.604
1, 300.00000, 123.601, -30.4845, 125.467, -150.62, 124.026, 89.0003, 0, 0, 2.47729, -53.5584, 2.44044, -173.694, 2.4688, 65.9264, 0.0533325, 172.604
1, 360.00000, 123.601, -30.4845, 125.467, -150.62, 124.026, 89.0003, 0, 0, 2.47729, -53.5584, 2.44044, -173.694, 2.4688, 65.9264, 0.0533325, 172.604
1, 420.00000, 123.601, -30.4845, 125.467, -150.62, 124.026, 89.0003, 0, 0, 2.47729, -53.5584, 2.44044, -173.694, 2.4688, 65.9264, 0.0533325, 172.604
1, 480.00000, 123.601, -30.4845, 125.467, -150.62, 124.026, 89.0003, 0, 0, 2.47729, -53.5584, 2.44044, -173.694, 2.4688, 65.9264, 0.0533325, 172.604
1, 540.00000, 123.601, -30.4845, 125.467, -150.62, 124.026, 89.0003, 0, 0, 2.47729, -53.5584, 2.44044, -173.694, 2.4688, 65.9264, 0.0533325, 172.604
1, 600.00000, 123.601, -30.4845, 125.467, -150.62, 124.026, 89.0003, 0, 0, 2.47729, -53.5584, 2.44044, -173.694, 2.4688, 65.9264, 0.0533325, 172.604
1, 660.00000, 123.602, -30.4843, 125.59, -150.456, 124.421, 89.044, 0, 0, 2.47729, -53.5582, 2.43806, -173.53, 2.46102, 65.9696, 0.0549135, 158.741
1, 720.00000, 123.602, -30.4842, 125.59, -150.456, 124.421, 89.0441, 0, 0, 2.47728, -53.5582, 2.43805, -173.53, 2.46097, 65.9701, 0.0548832, 158.705
1, 780.00000, 124.904, -30.6009, 125.498, -150.466, 125.44, 89.4186, 0, 0, 2.45154, -53.6759, 2.4398, -173.54, 2.44106, 66.3442, 0.0155558, 118.081
1, 840.00000, 124.904, -30.6008, 125.498, -150.466, 125.44, 89.4187, 0, 0, 2.45144, -53.6747, 2.43984, -173.54, 2.44097, 66.3447, 0.0154688, 117.774
1, 900.00000, 124.904, -30.6008, 125.498, -150.466, 125.44, 89.4187, 0, 0, 2.45144, -53.6747, 2.43984, -173.54, 2.44097, 66.3447, 0.0154685, 117.773
1, 960.00000, 124.904, -30.6008, 125.498, -150.466, 125.44, 89.4187, 0, 0, 2.45144, -53.6747, 2.43984, -173.54, 2.44097, 66.3447, 0.0154685, 117.773
1, 1020.00000, 124.904, -30.6008, 125.498, -150.466, 125.44, 89.4187, 0, 0, 2.45144, -53.6747, 2.43984, -173.54, 2.44097, 66.3447, 0.0154685, 117.773
1, 1080.00000, 124.904, -30.6008, 125.498, -150.466, 125.44, 89.4187, 0, 0, 2.45144, -53.6747, 2.43984, -173.54, 2.44097, 66.3447, 0.0154685, 117.773
1, 1140.00000, 124.904, -30.6008, 125.498, -150.466, 125.44, 89.4187, 0, 0, 2.45144, -53.6747, 2.43984, -173.54, 2.44097, 66.3447, 0.0154685, 117.773
1, 1200.00000, 124.904, -30.6008, 125.498, -150.466, 125.44, 89.4187, 0, 0, 2.45144, -53.6747, 2.43984, -173.54, 2.44097, 66.3447, 0.0154685, 117.773
1, 1260.00000, 124.904, -30.6008, 125.498, -150.466, 125.44, 89.4187, 0, 0, 2.45144, -53.6747, 2.43984, -173.54, 2.44097, 66.3447, 0.0154685, 117.773
1, 1320.00000, 124.904, -30.6008, 125.498, -150.466, 125.44, 89.4187, 0, 0, 2.45144, -53.6747, 2.43984, -173.54, 2.44097, 66.3447, 0.0154685, 117.773
1, 1380.00000, 124.904, -30.6008, 125.498, -150.466, 125.44, 89.4187, 0, 0, 2.45144, -53.6747, 2.43984, -173.54, 2.44097, 66.3447, 0.0154685, 117.773
1, 1440.00000, 124.904, -30.6008, 125.498, -150.466, 125.44, 89.4187, 0, 0, 2.45144, -53.6747, 2.43984, -173.54, 2.44097, 66.3447, 0.0154685, 117.773
1, 1500.00000, 124.904, -30.6008, 125.498, -150.466, 125.44, 89.4187, 0, 0, 2.45144, -53.6747, 2.43984, -173.54, 2.44097, 66.3447, 0.0154685, 117.773
1, 1560.00000, 124.904, -30.6008, 125.498, -150.466, 125.44, 89.4187, 0, 0, 2.45144, -53.6747, 2.43984, -173.54, 2.44097, 66.3447, 0.0154685, 117.773
1, 1620.00000, 124.904, -30.6008, 125.498, -150.466, 125.44, 89.4187, 0, 0, 2.45144, -53.6747, 2.43984, -173.54, 2.44097, 66.3447, 0.0154685, 117.773
1, 1680.00000, 124.904, -30.6008, 125.498, -150.466, 125.44, 89.4187, 0, 0, 2.45144, -53.6747, 2.43984, -173.54, 2.44097, 66.3447, 0.0154685, 117.773
1, 1740.00000, 124.904, -30.6008, 125.498, -150.466, 125.44, 89.4187, 0, 0, 2.45144, -53.6747, 2.43984, -173.54, 2.44097, 66.3447, 0.0154685, 117.773
1, 1800.00000, 124.904, -30.6008, 125.498, -150.466, 125.44, 89.4187, 0, 0, 2.45144, -53.6747, 2.43984, -173.54, 2.44097, 66.3447, 0.0154685, 117.773
1, 1860.00000, 124.904, -30.6008, 125.498, -150.466, 125.44, 89.4187, 0, 0, 2.45144, -53.6747, 2.43984, -173.54, 2.44097, 66.3447, 0.0154685, 117.773
1, 1920.00000, 124.904, -30.6008, 125.498, -150.466, 125.44, 89.4187, 0, 0, 2.45144, -53.6747, 2.43984, -173.54, 2.44097, 66.3447, 0.0154685, 117.773
1, 1980.00000, 124.904, -30.6008, 125.498, -150.466, 125.44, 89.4187, 0, 0, 2.45144, -53.6747, 2.43984, -173.54, 2.44097, 66.3447, 0.0154685, 117.773
1, 2040.00000, 124.904, -30.6008, 125.498, -150.466, 125.44, 89.4187, 0, 0, 2.45144, -53.6747, 2.43984, -173.54, 2.44097, 66.3447, 0.0154685, 117.773
1, 2100.00000, 124.904, -30.6008, 125.498, -150.466, 125.44, 89.4187, 0, 0, 2.45144, -53.6747, 2.43984, -173.54, 2.44097, 66.3447, 0.0154685, 117.773
1, 2160.00000, 124.904, -30.6008, 125.498, -150.466, 125.44, 89.4187, 0, 0, 2.45144, -53.6747, 2.43984, -173.54, 2.44097, 66.3447, 0.0154685, 117.773
1, 2220.00000, 124.904, -30.6008, 125.498, -150.466, 125.44, 89.4187, 0, 0, 2.45144, -53.6747, 2.43984, -173.54, 2.44097, 66.3447, 0.0154685, 117.773
1, 2280.00000, 124.904, -30.6008, 125.498, -150.466, 125.44, 89.4187, 0, 0, 2.45144, -53.6747, 2.43984, -173.54, 2.44097, 66.3447, 0.0154685, 117.773
1, 2340.00000, 124.904, -30.6008, 125.498, -150.466, 125.44, 89.4187, 0, 0, 2.45144, -53.6747, 2.43984, -173.54, 2.44097, 66.3447, 0.0154685, 117.773
1, 2400.00000, 124.904, -30.6008, 125.498, -150.466, 125.44, 89.4187, 0, 0, 2.45144, -53.6747, 2.43984, -173.54, 2.44097, 66.3447, 0.0154685, 117.773
1, 2460.00000, 124.904, -30.6008, 125.498, -150.466, 125.44, 89.4187, 0, 0, 2.45144, -53.6747, 2.43984, -173.54, 2.44097, 66.3447, 0.0154685, 117.773
1, 2520.00000, 124.904, -30.6008, 125.498, -150.466, 125.44, 89.4187, 0, 0, 2.45144, -53.6747, 2.43984, -173.54, 2.44097, 66.3447, 0.0154685, 117.773
1, 2580.00000, 124.904, -30.6008, 125.498, -150.466, 125.44, 89.4187, 0, 0, 2.45144, -53.6747, 2.43984, -173.54, 2.44097, 66.3447, 0.0154685, 117.773
1, 2640.00000, 124.904, -30.6008, 125.498, -150.466, 125.44, 89.4187, 0, 0, 2.45144, -53.6747, 2.43984, -173.54, 2.44097, 66.3447, 0.0154685, 117.773
1, 2700.00000, 124.904, -30.6008, 125.498, -150.466, 125.44, 89.4187, 0, 0, 2.45144, -53.6747, 2.43984, -173.54, 2.44097, 66.3447, 0.0154685, 117.773
1, 2760.00000, 124.904, -30.6008, 125.498, -150.466, 125.44, 89.4187, 0, 0, 2.45144, -53.6747, 2.43984, -173.54, 2.44097, 66.3447, 0.0154685, 117.773
1, 2820.00000, 124.904, -30.6008, 125.498, -150.466, 125.44, 89.4187, 0, 0, 2.45144, -53.6747, 2.43984, -173.54, 2.44097, 66.3447, 0.0154685, 117.773
1, 2880.00000, 124.904, -30.6008, 125.498, -150.466, 125.44, 89.4187, 0, 0, 2.45144, -53.6747, 2.43984, -173.54, 2.44097, 66.3447, 0.0154685, 117.773
1, 2940.00000, 124.904, -30.6008, 125.498, -150.466, 125.44, 89.4187, 0, 0, 2.45144, -53.6747, 2.43984, -173.54, 2.44097, 66.3447, 0.0154685, 117.773
1, 3000.00000, 124.904, -30.6008, 125.498, -150.466, 125.44, 89.4187, 0, 0, 2.45144, -53.6747, 2.43984, -173.54, 2.44097, 66.3447, 0.0154685, 117.773
1, 3060.00000, 124.904, -30.6008, 125.498, -150.466, 125.44, 89.4187, 0, 0, 2.45144, -53.6747, 2.43984, -173.54, 2.44097, 66.3447, 0.0154685, 117.773
1, 3120.00000, 124.904, -30.6008, 125.498, -150.466, 125.44, 89.4187, 0, 0, 2.45144, -53.6747, 2.43984, -173.54, 2.44097, 66.3447, 0.0154685, 117.773
1, 3180.00000, 124.904, -30.6008, 125.498, -150.466, 125.44, 89.4187, 0, 0, 2.45144, -53.6747, 2.43984, -173.54, 2.44097, 66.3447, 0.0154685, 117.773
1, 3240.00000, 124.904, -30.6008, 125.498, -150.466, 125.44, 89.4187, 0, 0, 2.45144, -53.6747, 2.43984, -173.54, 2.44097, 66.3447, 0.0154685, 117.773
1, 3300.00000, 124.904, -30.6008, 125.498, -150.466, 125.44, 89.4187, 0, 0, 2.45144, -53.6747, 2.43984, -173.54, 2.44097, 66.3447, 0.0154685, 117.773
1, 3360.00000, 124.904, -30.6008, 125.498, -150.466, 125.44, 89.4187, 0, 0, 2.45144, -53.6747, 2.43984, -173.54, 2.44097, 66.3447, 0.0154685, 117.773
1, 3420.00000, 124.904, -30.6008, 125.498, -150.466, 125.44, 89.4187, 0, 0, 2.45144, -53.6747, 2.43984, -173.54, 2.44097, 66.3447, 0.0154685, 117.773
1, 3480.00000, 125.303, -30.558, 125.495, -150.466, 125.565, 89.5852, 0, 0, 2.44368, -53.6325, 2.43988, -173.54, 2.43855, 66.5111, 0.00671279, 59.1628
1, 3540.00000, 125.303, -30.5579, 125.495, -150.466, 125.565, 89.5853, 0, 0, 2.44363, -53.6319, 2.4399, -173.54, 2.43854, 66.5113, 0.00669379, 58.7045
2, 0.00000, 125.303, -30.5579, 125.495, -150.466, 125.565, 89.5853, 0, 0, 2.44363, -53.6319, 2.4399, -173.54, 2.43854, 66.5113, 0.00669373, 58.7028
2, 60.00000, 125.303, -30.5579, 125.495, -150.466, 125.565, 89.5853, 0, 0, 2.44363, -53.6319, 2.4399, -173.54, 2.43854, 66.5113, 0.00669373, 58.7028
2, 120.00000, 125.296, -30.559, 125.488, -150.467, 125.558, 89.5844, 0, 0, 2.45053, -53.6328, 2.44677, -173.54, 2.44542, 66.5105, 0.00672032, 58.7739
2, 180.00000, 125.288, -30.56, 125.482, -150.467, 125.551, 89.5834, 0, 0, 2.45752, -53.6339, 2.45374, -173.541, 2.45238, 66.5096, 0.00674598, 58.8681
2, 240.00000, 125.281, -30.5611, 125.475, -150.468, 125.544, 89.5825, 0, 0, 2.46443, -53.6349, 2.46062, -173.542, 2.45926, 66.5087, 0.00677135, 58.9618
2, 300.00000, 125.273, -30.5621, 125.468, -150.469, 125.537, 89.5816, 0, 0, 2.47134, -53.6359, 2.46751, -173.543, 2.46615, 66.5078, 0.0067968, 59.0551
2, 360.00000, 125.266, -30.5631, 125.461, -150.47, 125.53, 89.5807, 0, 0, 2.47834, -53.637, 2.47447, -173.544, 2.47312, 66.5069, 0.00682264, 59.1491
2, 420.00000, 125.258, -30.5642, 125.455, -150.471, 125.523, 89.5798, 0, 0, 2.48525, -53.638, 2.48136, -173.545, 2.48, 66.506, 0.00684819, 59.2423
2, 480.00000, 125.251, -30.5652, 125.448, -150.472, 125.516, 89.5789, 0, 0, 2.49216, -53.6391, 2.48825, -173.546, 2.48689, 66.5051, 0.00687381, 59.3352
2, 540.00000, 125.243, -30.5662, 125.441, -150.473, 125.509, 89.578, 0, 0, 2.49916, -53.6401, 2.49521, -173.547, 2.49386, 66.5042, 0.00689982, 59.4287
2, 600.00000, 125.236, -30.5673, 125.434, -150.474, 125.502, 89.5771, 0, 0, 2.50607, -53.6411, 2.5021, -173.548, 2.50075, 66.5033, 0.00692555, 59.5215
2, 660.00000, 125.228, -30.5683, 125.428, -150.475, 125.495, 89.5762, 0, 0, 2.51299, -53.6422, 2.50899, -173.549, 2.50764, 66.5023, 0.00695136, 59.614
2, 720.00000, 125.221, -30.5694, 125.421, -150.476, 125.488, 89.5753, 0, 0, 2.51998, -53.6432, 2.51596, -173.55, 2.51461, 66.5014, 0.00697755, 59.7071
