hour,t(sec),V1,VAngle1,V2,VAngle2,V3,VAngle3,V4,VAngle4,I1,IAngle1,I2,IAngle2,I3,IAngle3,I4,IAngle4
0, 60.00000, 126.625, -30.5512, 125.819, -151.169, 124.935, 89.6297, 0, 0, 2.40357, -53.625, 2.41894, -174.243, 2.43605, 66.5559, 0.0583118, -78.06
0, 120.00000, 126.648, -30.5514, 125.829, -151.177, 124.935, 89.6296, 0, 0, 2.40314, -53.6252, 2.41874, -174.251, 2.43605, 66.5558, 0.0590332, -78.1109
0, 180.00000, 126.668, -30.5516, 125.839, -151.185, 124.935, 89.6295, 0, 0, 2.40274, -53.6254, 2.41856, -174.259, 2.43605, 66.5557, 0.0596826, -78.1554
0, 240.00000, 126.687, -30.5518, 125.847, -151.192, 124.935, 89.6295, 0, 0, 2.40239, -53.6256, 2.4184, -174.265, 2.43605, 66.5556, 0.0602671, -78.1943
0, 300.00000, 126.704, -30.552, 125.855, -151.198, 124.935, 89.6294, 0, 0, 2.40207, -53.6258, 2.41825, -174.271, 2.43606, 66.5555, 0.0607932, -78.2286
0, 360.00000, 126.718, -30.5521, 125.861, -151.203, 124.935, 89.6294, 0, 0, 2.40179, -53.626, 2.41812, -174.277, 2.43606, 66.5555, 0.0612668, -78.2587
0, 420.00000, 126.732, -30.5523, 125.867, -151.208, 124.934, 89.6293, 0, 0, 2.40153, -53.6261, 2.418, -174.282, 2.43606, 66.5554, 0.0616931, -78.2853
0, 480.00000, 126.744, -30.5524, 125.873, -151.213, 124.934, 89.6293, 0, 0, 2.4013, -53.6263, 2.4179, -174.286, 2.43606, 66.5554, 0.0620768, -78.3089
0, 540.00000, 126.755, -30.5525, 125.878, -151.217, 124.934, 89.6292, 0, 0, 2.40109, -53.6264, 2.4178, -174.29, 2.43606, 66.5553, 0.0624221, -78.3297
0, 600.00000, 126.765, -30.5526, 125.882, -151.22, 124.934, 89.6292, 0, 0, 2.4009, -53.6265, 2.41772, -174.294, 2.43606, 66.5553, 0.062733, -78.3482
0, 660.00000, 126.774, -30.5527, 125.886, -151.223, 124.934, 89.6292, 0, 0, 2.40073, -53.6266, 2.41764, -174.297, 2.43606, 66.5553, 0.0630128, -78.3647
0, 720.00000, 126.782, -30.5528, 125.89, -151.226, 124.934, 89.6291, 0, 0, 2.40058, -53.6267, 2.41757, -174.3, 2.43606, 66.5552, 0.0632646, -78.3793
0, 780.00000, 126.789, -30.5529, 125.893, -151.229, 124.934, 89.6291, 0, 0, 2.40044, -53.6268, 2.41751, -174.303, 2.43606, 66.5552, 0.0634912, -78.3923
0, 840.00000, 126.795, -30.553, 125.896, -151.231, 124.934, 89.6291, 0, 0, 2.40032, -53.6269, 2.41745, -174.305, 2.43606, 66.5552, 0.0636952, -78.4039
0, 900.00000, 126.801, -30.5531, 125.899, -151.233, 124.934, 89.629, 0, 0, 2.40021, -53.627, 2.4174, -174.307, 2.43607, 66.5551, 0.0638789, -78.4143
0, 960.00000, 126.806, -30.5531, 125.901, -151.235, 124.934, 89.629, 0, 0, 2.40011, -53.627, 2.41736, -174.309, 2.43607, 66.5551, 0.0640441, -78.4236
0, 1020.00000, 126.811, -30.5532, 125.903, -151.237, 124.934, 89.629, 0, 0, 2.40002, -53.6271, 2.41731, -174.311, 2.43607, 66.5551, 0.0641929, -78.4318
0, 1080.00000, 126.815, -30.5532, 125.905, -151.239, 124.934, 89.629, 0, 0, 2.39994, -53.6271, 2.41728, -174.312, 2.43607, 66.5551, 0.0643267, -78.4392
0, 1140.00000, 126.819, -30.5533, 125.907, -151.24, 124.934, 89.629, 0, 0, 2.39987, -53.6272, 2.41724, -174.314, 2.43607, 66.5551, 0.0644472, -78.4459
0, 1200.00000, 126.822, -30.5533, 125.909, -151.241, 124.934, 89.629, 0, 0, 2.3998, -53.6272, 2.41721, -174.315, 2.43607, 66.5551, 0.0645557, -78.4518
0, 1260.00000, 126.825, -30.5534, 125.91, -151.242, 124.934, 89.629, 0, 0, 2.39974, -53.6273, 2.41719, -174.316, 2.43607, 66.555, 0.0646532, -78.4571
0, 1320.00000, 126.828, -30.5534, 125.911, -151.243, 124.934, 89.6289, 0, 0, 2.39969, -53.6273, 2.41716, -174.317, 2.43607, 66.555, 0.0647411, -78.4619
0, 1380.00000, 126.831, -30.5534, 125.912, -151.244, 124.934, 89.6289, 0, 0, 2.39964, -53.6273, 2.41714, -174.318, 2.43607, 66.555, 0.0648201, -78.4662
0, 1440.00000, 126.833, -30.5535, 125.913, -151.245, 124.934, 89.6289, 0, 0, 2.3996, -53.6274, 2.41712, -174.319, 2.43607, 66.555, 0.0648913, -78.47
0, 1500.00000, 126.835, -30.5535, 125.914, -151.246, 124.934, 89.6289, 0, 0, 2.39956, -53.6274, 2.4171, -174.32, 2.43607, 66.555, 0.0649553, -78.4735
0, 1560.00000, 126.837, -30.5535, 125.915, -151.247, 124.934, 89.6289, 0, 0, 2.39953, -53.6274, 2.41709, -174.32, 2.43607, 66.555, 0.065013, -78.4766
0, 1620.00000, 126.838, -30.5535, 125.916, -151.247, 124.934, 89.6289, 0, 0, 2.3995, -53.6274, 2.41707, -174.321, 2.43607, 66.555, 0.0650649, -78.4793
0, 1680.00000, 126.84, -30.5535, 125.916, -151.248, 124.934, 89.6289, 0, 0, 2.39947, -53.6274, 2.41706, -174.322, 2.43607, 66.555, 0.0651115, -78.4818
0, 1740.00000, 126.841, -30.5536, 125.917, -151.248, 124.934, 89.6289, 0, 0, 2.39944, -53.6275, 2.41705, -174.322, 2.43607, 66.555, 0.0651536, -78.4841
0, 1800.00000, 126.842, -30.5536, 125.918, -151.249, 124.934, 89.6289, 0, 0, 2.39942, -53.6275, 2.41704, -174.323, 2.43607, 66.555, 0.0651914, -78.4861
0, 1860.00000, 126.843, -30.5536, 125.918, -151.249, 124.934, 89.6289, 0, 0, 2.3994, -53.6275, 2.41703, -174.323, 2.43607, 66.555, 0.0652254, -78.4879
0, 1920.00000, 126.844, -30.5536, 125.919, -151.249, 124.934, 89.6289, 0, 0, 2.39938, -53.6275, 2.41702, -174.323, 2.43607, 66.555, 0.065256, -78.4895
0, 1980.00000, 126.845, -30.5536, 125.919, -151.25, 124.934, 89.6289, 0, 0, 2.39936, -53.6275, 2.41701, -174.324, 2.43607, 66.555, 0.0652836, -78.491
0, 2040.00000, 126.846, -30.5536, 125.919, -151.25, 124.934, 89.6289, 0, 0, 2.39935, -53.6275, 2.41701, -174.324, 2.43607, 66.555, 0.0653084, -78.4923
0, 2100.00000, 126.847, -30.5536, 125.92, -151.25, 124.934, 89.6289, 0, 0, 2.39933, -53.6275, 2.417, -174.324, 2.43607, 66.555, 0.0653308, -78.4935
0, 2160.00000, 126.847, -30.5536, 125.92, -151.25, 124.934, 89.6289, 0, 0, 2.39932, -53.6275, 2.417, -174.324, 2.43607, 66.555, 0.0653509, -78.4945
0, 2220.00000, 126.848, -30.5536, 125.92, -151.251, 124.934, 89.6289, 0, 0, 2.39931, -53.6276, 2.41699, -174.325, 2.43607, 66.555, 0.065369, -78.4955
0, 2280.00000, 126.849, -30.5536, 125.92, -151.251, 124.934, 89.6289, 0, 0, 2.3993, -53.6276, 2.41699, -174.325, 2.43607, 66.5549, 0.0653852, -78.4963
0, 2340.00000, 126.849, -30.5537, 125.921, -151.251, 124.934, 89.6289, 0, 0, 2.39929, -53.6276, 2.41698, -174.325, 2.43607, 66.5549, 0.0653999, -78.4971
0, 2400.00000, 126.849, -30.5537, 125.921, -151.251, 124.934, 89.6289, 0, 0, 2.39929, -53.6276, 2.41698, -174.325, 2.43607, 66.5549, 0.0654131, -78.4978
0, 2460.00000, 126.85, -30.5537, 125.921, -151.251, 124.934, 89.6289, 0, 0, 2.39928, -53.6276, 2.41698, -174.325, 2.43607, 66.5549, 0.0654249, -78.4984
0, 2520.00000, 126.85, -30.5537, 125.921, -151.251, 124.934, 89.6289, 0, 0, 2.39927, -53.6276, 2.41697, -174.325, 2.43607, 66.5549, 0.0654356, -78.499
0, 2580.00000, 126.85, -30.5537, 125.921, -151.252, 124.934, 89.6289, 0, 0, 2.39927, -53.6276, 2.41697, -174.326, 2.43607, 66.5549, 0.0654452, -78.4995
0, 2640.00000, 126.851, -30.5537, 125.921, -151.252, 124.934, 89.6289, 0, 0, 2.39926, -53.6276, 2.41697, -174.326, 2.43607, 66.5549, 0.0654539, -78.5
0, 2700.00000, 126.851, -30.5537, 125.921, -151.252, 124.934, 89.6289, 0, 0, 2.39926, -53.6276, 2.41697, -174.326, 2.43607, 66.5549, 0.0654617, -78.5004
0, 2760.00000, 126.851, -30.5537, 125.922, -151.252, 124.934, 89.6289, 0, 0, 2.39925, -53.6276, 2.41696, -174.326, 2.43607, 66.5549, 0.0654687, -78.5007
0, 2820.00000, 126.851, -30.5537, 125.922, -151.252, 124.934, 89.6289, 0, 0, 2.39925, -53.6276, 2.41696, -174.326, 2.43607, 66.5549, 0.065475, -78.5011
0, 2880.00000, 126.852, -30.5537, 125.922, -151.252, 124.934, 89.6289, 0, 0, 2.39924, -53.6276, 2.41696, -174.326, 2.43607, 66.5549, 0.0654807, -78.5014
0, 2940.00000, 126.852, -30.5537, 125.922, -151.252, 124.934, 89.6289, 0, 0, 2.39924, -53.6276, 2.41696, -174.326, 2.43607, 66.5549, 0.0654858, -78.5016
0, 3000.00000, 126.852, -30.5537, 125.922, -151.252, 124.934, 89.6289, 0, 0, 2.39924, -53.6276, 2.41696, -174.326, 2.43607, 66.5549, 0.0654904, -78.5019
0, 3060.00000, 126.852, -30.5537, 125.922, -151.252, 124.934, 89.6289, 0, 0, 2.39924, -53.6276, 2.41696, -174.326, 2.43607, 66.5549, 0.0654945, -78.5021
0, 3120.00000, 126.852, -30.5537, 125.922, -151.252, 124.934, 89.6289, 0, 0, 2.39923, -53.6276, 2.41696, -174.326, 2.43607, 66.5549, 0.0654982, -78.5023
0, 3180.00000, 126.852, -30.5537, 125.922, -151.252, 124.934, 89.6289, 0, 0, 2.39923, -53.6276, 2.41695, -174.326, 2.43607, 66.5549, 0.0655016, -78.5025
0, 3240.00000, 126.852, -30.5537, 125.922, -151.252, 124.934, 89.6289, 0, 0, 2.39923, -53.6276, 2.41695, -174.326, 2.43607, 66.5549, 0.0655046, -78.5026
0, 3300.00000, 126.852, -30.5537, 125.922, -151.252, 124.934, 89.6289, 0, 0, 2.39923, -53.6276, 2.41695, -174.326, 2.43607, 66.5549, 0.0655073, -78.5028
0, 3360.00000, 126.852, -30.5537, 125.922, -151.252, 124.934, 89.6289, 0, 0, 2.39923, -53.6276, 2.41695, -174.326, 2.43607, 66.5549, 0.0655098, -78.5029
0, 3420.00000, 126.853, -30.5537, 125.922, -151.252, 124.934, 89.6289, 0, 0, 2.39923, -53.6276, 2.41695, -174.326, 2.43607, 66.5549, 0.065512, -78.503
0, 3480.00000, 126.853, -30.5537, 125.922, -151.252, 124.934, 89.6289, 0, 0, 2.39922, -53.6276, 2.41695, -174.326, 2.43607, 66.5549, 0.0655139, -78.5031
0, 3540.00000, 126.853, -30.5537, 125.922, -151.252, 124.934, 89.6289, 0, 0, 2.39922, -53.6276, 2.41695, -174.326, 2.43607, 66.5549, 0.0655157, -78.5032
1, 0.00000, 126.853, -30.5537, 125.922, -151.252, 124.934, 89.6289, 0, 0, 2.39922, -53.6276, 2.41695, -174.326, 2.43607, 66.5549, 0.0655173, -78.5033
1, 60.00000, 126.853, -30.5537, 125.922, -151.252, 124.934, 89.6289, 0, 0, 2.39922, -53.6276, 2.41695, -174.326, 2.43607, 66.5549, 0.0655188, -78.5034
1, 120.00000, 126.853, -30.5537, 125.922, -151.252, 124.934, 89.6289, 0, 0, 2.39922, -53.6276, 2.41695, -174.326, 2.43607, 66.5549, 0.0655201, -78.5034
1, 180.00000, 126.853, -30.5537, 125.922, -151.252, 124.934, 89.6289, 0, 0, 2.39922, -53.6276, 2.41695, -174.326, 2.43607, 66.5549, 0.0655212, -78.5035
1, 240.00000, 126.853, -30.5537, 125.922, -151.252, 124.934, 89.6289, 0, 0, 2.39922, -53.6276, 2.41695, -174.326, 2.43607, 66.5549, 0.0655223, -78.5035
1, 300.00000, 126.853, -30.5537, 125.922, -151.252, 124.934, 89.6289, 0, 0, 2.39922, -53.6276, 2.41695, -174.326, 2.43607, 66.5549, 0.0655232, -78.5036
1, 360.00000, 126.853, -30.5537, 125.922, -151.252, 124.934, 89.6289, 0, 0, 2.39922, -53.6276, 2.41695, -174.326, 2.43607, 66.5549, 0.0655241, -78.5036
1, 420.00000, 126.853, -30.5537, 125.922, -151.253, 124.934, 89.6289, 0, 0, 2.39922, -53.6276, 2.41695, -174.326, 2.43607, 66.5549, 0.0655249, -78.5037
1, 480.00000, 126.853, -30.5537, 125.922, -151.253, 124.934, 89.6289, 0, 0, 2.39922, -53.6276, 2.41695, -174.326, 2.43607, 66.5549, 0.0655255, -78.5037
1, 540.00000, 126.853, -30.5537, 125.922, -151.253, 124.934, 89.6289, 0, 0, 2.39922, -53.6276, 2.41695, -174.326, 2.43607, 66.5549, 0.0655262, -78.5037
1, 600.00000, 126.853, -30.5537, 125.922, -151.253, 124.934, 89.6289, 0, 0, 2.39922, -53.6276, 2.41695, -174.326, 2.43607, 66.5549, 0.0655267, -78.5038
1, 660.00000, 126.853, -30.5537, 125.922, -151.253, 124.934, 89.6289, 0, 0, 2.39922, -53.6276, 2.41695, -174.326, 2.43607, 66.5549, 0.0655272, -78.5038
1, 720.00000, 126.853, -30.5537, 125.922, -151.253, 124.934, 89.6289, 0, 0, 2.39922, -53.6276, 2.41695, -174.326, 2.43607, 66.5549, 0.0655277, -78.5038
1, 780.00000, 126.853, -30.5537, 125.922, -151.253, 124.934, 89.6289, 0, 0, 2.39922, -53.6276, 2.41695, -174.326, 2.43607, 66.5549, 0.0655281, -78.5038
1, 840.00000, 126.853, -30.5537, 125.922, -151.253, 124.934, 89.6289, 0, 0, 2.39922, -53.6276, 2.41695, -174.326, 2.43607, 66.5549, 0.0655285, -78.5039
1, 900.00000, 126.853, -30.5537, 125.922, -151.253, 124.934, 89.6289, 0, 0, 2.39922, -53.6276, 2.41695, -174.326, 2.43607, 66.5549, 0.0655288, -78.5039
1, 960.00000, 126.853, -30.5537, 125.922, -151.253, 124.934, 89.6289, 0, 0, 2.39921, -53.6276, 2.41695, -174.326, 2.43607, 66.5549, 0.0655291, -78.5039
1, 1020.00000, 126.853, -30.5537, 125.922, -151.253, 124.934, 89.6289, 0, 0, 2.39921, -53.6276, 2.41695, -174.326, 2.43607, 66.5549, 0.0655293, -78.5039
1, 1080.00000, 126.853, -30.5537, 125.922, -151.253, 124.934, 89.6289, 0, 0, 2.39921, -53.6276, 2.41695, -174.326, 2.43607, 66.5549, 0.0655296, -78.5039
1, 1140.00000, 126.853, -30.5537, 125.922, -151.253, 124.934, 89.6289, 0, 0, 2.39921, -53.6276, 2.41695, -174.326, 2.43607, 66.5549, 0.0655298, -78.5039
1, 1200.00000, 126.853, -30.5537, 125.922, -151.253, 124.934, 89.6289, 0, 0, 2.39921, -53.6276, 2.41695, -174.326, 2.43607, 66.5549, 0.06553, -78.5039
1, 1260.00000, 126.853, -30.5537, 125.922, -151.253, 124.934, 89.6289, 0, 0, 2.39921, -53.6276, 2.41695, -174.326, 2.43607, 66.5549, 0.0655302, -78.504
1, 1320.00000, 126.853, -30.5537, 125.922, -151.253, 124.934, 89.6289, 0, 0, 2.39921, -53.6276, 2.41695, -174.326, 2.43607, 66.5549, 0.0655303, -78.504
1, 1380.00000, 126.853, -30.5537, 125.922, -151.253, 124.934, 89.6289, 0, 0, 2.39921, -53.6276, 2.41695, -174.326, 2.43607, 66.5549, 0.0655305, -78.504
1, 1440.00000, 126.853, -30.5537, 125.922, -151.253, 124.934, 89.6289, 0, 0, 2.39921, -53.6276, 2.41695, -174.326, 2.43607, 66.5549, 0.0655306, -78.504
1, 1500.00000, 126.853, -30.5537, 125.922, -151.253, 124.934, 89.6289, 0, 0, 2.39921, -53.6276, 2.41695, -174.326, 2.43607, 66.5549, 0.0655307, -78.504
1, 1560.00000, 126.853, -30.5537, 125.922, -151.253, 124.934, 89.6289, 0, 0, 2.39921, -53.6276, 2.41695, -174.326, 2.43607, 66.5549, 0.0655308, -78.504
1, 1620.00000, 126.853, -30.5537, 125.922, -151.253, 124.934, 89.6289, 0, 0, 2.39921, -53.6276, 2.41695, -174.326, 2.43607, 66.5549, 0.0655309, -78.504
1, 1680.00000, 126.853, -30.5537, 125.922, -151.253, 124.934, 89.6289, 0, 0, 2.39921, -53.6276, 2.41695, -174.326, 2.43607, 66.5549, 0.065531, -78.504
1, 1740.00000, 126.853, -30.5537, 125.922, -151.253, 124.934, 89.6289, 0, 0, 2.39921, -53.6276, 2.41695, -174.326, 2.43607, 66.5549, 0.0655311, -78.504
1, 1800.00000, 126.853, -30.5537, 125.922, -151.253, 124.934, 89.6289, 0, 0, 2.39921, -53.6276, 2.41695, -174.326, 2.43607, 66.5549, 0.0655311, -78.504
1, 1860.00000, 126.853, -30.5537, 125.922, -151.253, 124.934, 89.6289, 0, 0, 2.39921, -53.6276, 2.41695, -174.326, 2.43607, 66.5549, 0.0655312, -78.504
1, 1920.00000, 126.853, -30.5537, 125.922, -151.253, 124.934, 89.6289, 0, 0, 2.39921, -53.6276, 2.41695, -174.326, 2.43607, 66.5549, 0.0655313, -78.504
1, 1980.00000, 126.853, -30.5537, 125.922, -151.253, 124.934, 89.6289, 0, 0, 2.39921, -53.6276, 2.41695, -174.326, 2.43607, 66.5549, 0.0655313, -78.504
1, 2040.00000, 126.853, -30.5537, 125.922, -151.253, 124.934, 89.6289, 0, 0, 2.39921, -53.6276, 2.41695, -174.326, 2.43607, 66.5549, 0.0655314, -78.504
1, 2100.00000, 126.853, -30.5537, 125.922, -151.253, 124.934, 89.6289, 0, 0, 2.39921, -53.6276, 2.41695, -174.326, 2.43607, 66.5549, 0.0655314, -78.504
1, 2160.00000, 126.853, -30.5537, 125.922, -151.253, 124.934, 89.6289, 0, 0, 2.39921, -53.6276, 2.41695, -174.326, 2.43607, 66.5549, 0.0655314, -78.504
1, 2220.00000, 126.853, -30.5537, 125.922, -151.253, 124.934, 89.6289, 0, 0, 2.39921, -53.6276, 2.41695, -174.326, 2.43607, 66.5549, 0.0655315, -78.504
1, 2280.00000, 126.853, -30.5537, 125.922, -151.253, 124.934, 89.6289, 0, 0, 2.39921, -53.6276, 2.41695, -174.326, 2.43607, 66.5549, 0.0655315, -78.504
1, 2340.00000, 126.853, -30.5537, 125.922, -151.253, 124.934, 89.6289, 0, 0, 2.39921, -53.6276, 2.41695, -174.326, 2.43607, 66.5549, 0.0655315, -78.504
1, 2400.00000, 126.853, -30.5537, 125.922, -151.253, 124.934, 89.6289, 0, 0, 2.39921, -53.6276, 2.41695, -174.326, 2.43607, 66.5549, 0.0655315, -78.504
1, 2460.00000, 126.853, -30.5537, 125.922, -151.253, 124.934, 89.6289, 0, 0, 2.39921, -53.6276, 2.41695, -174.326, 2.43607, 66.5549, 0.0655316, -78.504
1, 2520.00000, 126.853, -30.5537, 125.922, -151.253, 124.934, 89.6289, 0, 0, 2.39921, -53.6276, 2.41695, -174.326, 2.43607, 66.5549, 0.0655316, -78.504
1, 2580.00000, 126.853, -30.5537, 125.922, -151.253, 124.934, 89.6289, 0, 0, 2.39921, -53.6276, 2.41695, -174.326, 2.43607, 66.5549, 0.0655316, -78.504
1, 2640.00000, 126.853, -30.5537, 125.922, -151.253, 124.934, 89.6289, 0, 0, 2.39921, -53.6276, 2.41695, -174.326, 2.43607, 66.5549, 0.0655316, -78.504
1, 2700.00000, 126.853, -30.5537, 125.922, -151.253, 124.934, 89.6289, 0, 0, 2.39921, -53.6276, 2.41695, -174.326, 2.43607, 66.5549, 0.0655316, -78.504
1, 2760.00000, 126.853, -30.5537, 125.922, -151.253, 124.934, 89.6289, 0, 0, 2.39921, -53.6276, 2.41695, -174.327, 2.43607, 66.5549, 0.0655316, -78.504
1, 2820.00000, 126.853, -30.5537, 125.922, -151.253, 124.934, 89.6289, 0, 0, 2.39921, -53.6276, 2.41695, -174.327, 2.43607, 66.5549, 0.0655316, -78.504
1, 2880.00000, 126.853, -30.5537, 125.922, -151.253, 124.934, 89.6289, 0, 0, 2.39921, -53.6276, 2.41695, -174.327, 2.43607, 66.5549, 0.0655317, -78.504
1, 2940.00000, 126.853, -30.5537, 125.922, -151.253, 124.934, 89.6289, 0, 0, 2.39921, -53.6276, 2.41695, -174.327, 2.43607, 66.5549, 0.0655317, -78.504
1, 3000.00000, 126.853, -30.5537, 125.922, -151.253, 124.934, 89.6289, 0, 0, 2.39921, -53.6276, 2.41695, -174.327, 2.43607, 66.5549, 0.0655317, -78.504
1, 3060.00000, 126.853, -30.5537, 125.922, -151.253, 124.934, 89.6289, 0, 0, 2.39921, -53.6276, 2.41695, -174.327, 2.43607, 66.5549, 0.0655317, -78.504
1, 3120.00000, 126.853, -30.5537, 125.922, -151.253, 124.934, 89.6289, 0, 0, 2.39921, -53.6276, 2.41695, -174.327, 2.43607, 66.5549, 0.0655317, -78.504
1, 3180.00000, 126.853, -30.5537, 125.922, -151.253, 124.934, 89.6289, 0, 0, 2.39921, -53.6276, 2.41695, -174.327, 2.43607, 66.5549, 0.0655317, -78.504
1, 3240.00000, 126.853, -30.5537, 125.922, -151.253, 124.934, 89.6289, 0, 0, 2.39921, -53.6276, 2.41695, -174.327, 2.43607, 66.5549, 0.0655317, -78.504
1, 3300.00000, 126.853, -30.5537, 125.922, -151.253, 124.934, 89.6289, 0, 0, 2.39921, -53.6276, 2.41695, -174.327, 2.43607, 66.5549, 0.0655317, -78.504
1, 3360.00000, 126.853, -30.5537, 125.922, -151.253, 124.934, 89.6289, 0, 0, 2.39921, -53.6276, 2.41695, -174.327, 2.43607, 66.5549, 0.0655317, -78.504
1, 3420.00000, 126.853, -30.5537, 125.922, -151.253, 124.934, 89.6289, 0, 0, 2.39921, -53.6276, 2.41695, -174.327, 2.43607, 66.5549, 0.0655317, -78.504
1, 3480.00000, 126.853, -30.5537, 125.922, -151.253, 124.934, 89.6289, 0, 0, 2.39921, -53.6276, 2.41695, -174.327, 2.43607, 66.5549, 0.0655317, -78.504
1, 3540.00000, 126.853, -30.5537, 125.922, -151.253, 124.934, 89.6289, 0, 0, 2.39921, -53.6276, 2.41695, -174.327, 2.43607, 66.5549, 0.0655317, -78.504
2, 0.00000, 126.853, -30.5537, 125.922, -151.253, 124.934, 89.6289, 0, 0, 2.39921, -53.6276, 2.41695, -174.327, 2.43607, 66.5549, 0.0655317, -78.504
2, 60.00000, 126.853, -30.5537, 125.922, -151.253, 124.934, 89.6289, 0, 0, 2.39921, -53.6276, 2.41695, -174.327, 2.43607, 66.5549, 0.0655317, -78.504
2, 120.00000, 126.845, -30.5547, 125.915, -151.253, 124.926, 89.628, 0, 0, 2.40601, -53.6286, 2.42378, -174.327, 2.44297, 66.5541, 0.0657051, -78.5088
2, 180.00000, 126.836, -30.5557, 125.907, -151.254, 124.918, 89.6271, 0, 0, 2.4129, -53.6296, 2.4307, -174.328, 2.44995, 66.5532, 0.0658805, -78.5137
2, 240.00000, 126.827, -30.5567, 125.899, -151.255, 124.91, 89.6262, 0, 0, 2.4197, -53.6306, 2.43754, -174.329, 2.45685, 66.5523, 0.0660537, -78.5185
2, 300.00000, 126.819, -30.5577, 125.891, -151.256, 124.902, 89.6254, 0, 0, 2.4265, -53.6316, 2.44438, -174.33, 2.46375, 66.5514, 0.0662269, -78.5232
2, 360.00000, 126.81, -30.5587, 125.883, -151.257, 124.893, 89.6245, 0, 0, 2.43338, -53.6326, 2.4513, -174.33, 2.47073, 66.5506, 0.0664022, -78.5281
2, 420.00000, 126.802, -30.5596, 125.876, -151.257, 124.885, 89.6236, 0, 0, 2.44019, -53.6336, 2.45815, -174.331, 2.47764, 66.5497, 0.0665753, -78.5329
2, 480.00000, 126.793, -30.5606, 125.868, -151.258, 124.877, 89.6227, 0, 0, 2.44699, -53.6345, 2.46499, -174.332, 2.48454, 66.5488, 0.0667483, -78.5377
2, 540.00000, 126.785, -30.5616, 125.86, -151.259, 124.869, 89.6218, 0, 0, 2.45388, -53.6355, 2.47191, -174.333, 2.49153, 66.5479, 0.0669234, -78.5426
2, 600.00000, 126.776, -30.5626, 125.852, -151.26, 124.861, 89.621, 0, 0, 2.46069, -53.6365, 2.47876, -174.334, 2.49843, 66.5471, 0.0670964, -78.5474
2, 660.00000, 126.767, -30.5636, 125.844, -151.26, 124.853, 89.6201, 0, 0, 2.4675, -53.6375, 2.4856, -174.334, 2.50534, 66.5462, 0.0672693, -78.5522
