hour,t(sec),V1,VAngle1,V2,VAngle2,V3,VAngle3,V4,VAngle4,I1,IAngle1,I2,IAngle2,I3,IAngle3,I4,IAngle4
0, 60.00000, 125.166, -30.6903, 126.177, -151.148, 124.658, 88.8377, 0, 0, 2.60086, -53.764, 2.58006, -174.221, 2.61146, 65.7642, 0.0486097, -150.813
0, 120.00000, 125.166, -30.6903, 126.177, -151.148, 124.658, 88.8377, 0, 0, 2.60089, -53.7642, 2.58006, -174.222, 2.61149, 65.7638, 0.0486341, -150.84
0, 180.00000, 125.166, -30.6903, 126.177, -151.148, 124.658, 88.8377, 0, 0, 2.60089, -53.7642, 2.58006, -174.222, 2.61149, 65.7637, 0.0486343, -150.841
0, 240.00000, 125.166, -30.6903, 126.177, -151.148, 124.658, 88.8377, 0, 0, 2.60089, -53.7642, 2.58006, -174.222, 2.61149, 65.7637, 0.0486343, -150.841
0, 300.00000, 125.171, -30.6886, 126.31, -150.975, 125.062, 88.8828, 0, 0, 2.60081, -53.7627, 2.57735, -174.049, 2.6031, 65.8081, 0.0417918, -166.823
0, 360.00000, 125.171, -30.6886, 126.31, -150.975, 125.062, 88.8829, 0, 0, 2.60078, -53.7625, 2.57733, -174.048, 2.60305, 65.809, 0.0417446, -166.843
0, 420.00000, 125.171, -30.6886, 126.31, -150.975, 125.062, 88.8829, 0, 0, 2.60078, -53.7625, 2.57733, -174.048, 2.60305, 65.809, 0.0417443, -166.843
0, 480.00000, 125.171, -30.6886, 126.31, -150.975, 125.062, 88.8829, 0, 0, 2.60078, -53.7625, 2.57733, -174.048, 2.60305, 65.809, 0.0417443, -166.843
0, 540.00000, 125.171, -30.6886, 126.31, -150.975, 125.062, 88.8829, 0, 0, 2.60078, -53.7625, 2.57733, -174.048, 2.60305, 65.809, 0.0417443, -166.843
0, 600.00000, 125.171, -30.6886, 126.31, -150.975, 125.062, 88.8829, 0, 0, 2.60078, -53.7625, 2.57733, -174.048, 2.60305, 65.809, 0.0417443, -166.843
0, 660.00000, 125.171, -30.6886, 126.31, -150.975, 125.062, 88.8829, 0, 0, 2.60078, -53.7625, 2.57733, -174.048, 2.60305, 65.809, 0.0417443, -166.843
0, 720.00000, 125.171, -30.6886, 126.31, -150.975, 125.062, 88.8829, 0, 0, 2.60078, -53.7625, 2.57733, -174.048, 2.60305, 65.809, 0.0417443, -166.843
0, 780.00000, 125.232, -30.6907, 126.864, -150.712, 125.843, 88.7868, 0, 0, 2.59955, -53.7647, 2.56609, -173.786, 2.58693, 65.7123, 0.0523451, 161.511
0, 840.00000, 125.232, -30.6907, 126.864, -150.712, 125.843, 88.7868, 0, 0, 2.59953, -53.7646, 2.56608, -173.785, 2.5869, 65.7129, 0.0523093, 161.492
0, 900.00000, 125.232, -30.6907, 126.864, -150.712, 125.843, 88.7868, 0, 0, 2.59953, -53.7646, 2.56608, -173.785, 2.5869, 65.7129, 0.052309, 161.492
0, 960.00000, 124.821, -30.7338, 126.863, -150.712, 125.708, 88.6108, 0, 0, 2.60805, -53.8073, 2.56612, -173.786, 2.58965, 65.5374, 0.0664377, 157.536
0, 1020.00000, 124.821, -30.7338, 126.863, -150.712, 125.708, 88.6108, 0, 0, 2.60808, -53.8077, 2.56611, -173.786, 2.58968, 65.5369, 0.0664847, 157.542
0, 1080.00000, 124.821, -30.7338, 126.863, -150.712, 125.708, 88.6108, 0, 0, 2.60809, -53.8077, 2.56611, -173.786, 2.58968, 65.5369, 0.0664849, 157.542
0, 1140.00000, 124.821, -30.7338, 126.863, -150.712, 125.708, 88.6108, 0, 0, 2.60809, -53.8077, 2.56611, -173.786, 2.58968, 65.5369, 0.0664849, 157.542
0, 1200.00000, 124.821, -30.7338, 126.863, -150.712, 125.708, 88.6108, 0, 0, 2.60809, -53.8077, 2.56611, -173.786, 2.58968, 65.5369, 0.0664849, 157.542
0, 1260.00000, 124.821, -30.7338, 126.863, -150.712, 125.708, 88.6108, 0, 0, 2.60809, -53.8077, 2.56611, -173.786, 2.58968, 65.5369, 0.0664849, 157.542
0, 1320.00000, 124.821, -30.7338, 126.863, -150.712, 125.708, 88.6108, 0, 0, 2.60809, -53.8077, 2.56611, -173.786, 2.58968, 65.5369, 0.0664849, 157.542
0, 1380.00000, 124.821, -30.7338, 126.863, -150.712, 125.708, 88.6108, 0, 0, 2.60809, -53.8077, 2.56611, -173.786, 2.58968, 65.5369, 0.0664849, 157.542
0, 1440.00000, 124.821, -30.7338, 126.863, -150.712, 125.708, 88.6108, 0, 0, 2.60809, -53.8077, 2.56611, -173.786, 2.58968, 65.5369, 0.0664849, 157.542
0, 1500.00000, 124.821, -30.7338, 126.863, -150.712, 125.708, 88.6108, 0, 0, 2.60809, -53.8077, 2.56611, -173.786, 2.58968, 65.5369, 0.0664849, 157.542
0, 1560.00000, 124.821, -30.7338, 126.863, -150.712, 125.708, 88.6108, 0, 0, 2.60809, -53.8077, 2.56611, -173.786, 2.58968, 65.5369, 0.0664849, 157.542
0, 1620.00000, 124.821, -30.7338, 126.863, -150.712, 125.708, 88.6108, 0, 0, 2.60809, -53.8077, 2.56611, -173.786, 2.58968, 65.5369, 0.0664849, 157.542
0, 1680.00000, 124.821, -30.7338, 126.863, -150.712, 125.708, 88.6108, 0, 0, 2.60809, -53.8077, 2.56611, -173.786, 2.58968, 65.5369, 0.0664849, 157.542
0, 1740.00000, 124.821, -30.7338, 126.863, -150.712, 125.708, 88.6108, 0, 0, 2.60809, -53.8077, 2.56611, -173.786, 2.58968, 65.5369, 0.0664849, 157.542
0, 1800.00000, 124.821, -30.7338, 126.863, -150.712, 125.708, 88.6108, 0, 0, 2.60809, -53.8077, 2.56611, -173.786, 2.58968, 65.5369, 0.0664849, 157.542
0, 1860.00000, 124.821, -30.7338, 126.863, -150.712, 125.708, 88.6108, 0, 0, 2.60809, -53.8077, 2.56611, -173.786, 2.58968, 65.5369, 0.0664849, 157.542
0, 1920.00000, 124.821, -30.7338, 126.863, -150.712, 125.708, 88.6108, 0, 0, 2.60809, -53.8077, 2.56611, -173.786, 2.58968, 65.5369, 0.0664849, 157.542
0, 1980.00000, 124.821, -30.7338, 126.863, -150.712, 125.708, 88.6108, 0, 0, 2.60809, -53.8077, 2.56611, -173.786, 2.58968, 65.5369, 0.0664849, 157.542
0, 2040.00000, 124.821, -30.7338, 126.863, -150.712, 125.708, 88.6108, 0, 0, 2.60809, -53.8077, 2.56611, -173.786, 2.58968, 65.5369, 0.0664849, 157.542
0, 2100.00000, 124.821, -30.7338, 126.863, -150.712, 125.708, 88.6108, 0, 0, 2.60809, -53.8077, 2.56611, -173.786, 2.58968, 65.5369, 0.0664849, 157.542
0, 2160.00000, 124.821, -30.7338, 126.863, -150.712, 125.708, 88.6108, 0, 0, 2.60809, -53.8077, 2.56611, -173.786, 2.58968, 65.5369, 0.0664849, 157.542
0, 2220.00000, 125.44, -30.7114, 126.834, -150.715, 126.019, 88.8389, 0, 0, 2.59525, -53.7857, 2.56668, -173.789, 2.58331, 65.7646, 0.0450151, 159.239
0, 2280.00000, 125.44, -30.7114, 126.834, -150.715, 126.019, 88.8389, 0, 0, 2.59522, -53.7853, 2.56669, -173.789, 2.58329, 65.765, 0.0449741, 159.254
0, 2340.00000, 125.44, -30.7114, 126.834, -150.715, 126.019, 88.8389, 0, 0, 2.59522, -53.7853, 2.56669, -173.789, 2.58329, 65.765, 0.044974, 159.254
0, 2400.00000, 125.44, -30.7114, 126.834, -150.715, 126.019, 88.8389, 0, 0, 2.59522, -53.7853, 2.56669, -173.789, 2.58329, 65.765, 0.044974, 159.254
0, 2460.00000, 125.44, -30.7114, 126.834, -150.715, 126.019, 88.8389, 0, 0, 2.59522, -53.7853, 2.56669, -173.789, 2.58329, 65.765, 0.044974, 159.254
0, 2520.00000, 125.44, -30.7114, 126.834, -150.715, 126.019, 88.8389, 0, 0, 2.59522, -53.7853, 2.56669, -173.789, 2.58329, 65.765, 0.044974, 159.254
0, 2580.00000, 125.44, -30.7114, 126.834, -150.715, 126.019, 88.8389, 0, 0, 2.59522, -53.7853, 2.56669, -173.789, 2.58329, 65.765, 0.044974, 159.254
0, 2640.00000, 125.44, -30.7114, 126.834, -150.715, 126.019, 88.8389, 0, 0, 2.59522, -53.7853, 2.56669, -173.789, 2.58329, 65.765, 0.044974, 159.254
0, 2700.00000, 125.44, -30.7114, 126.834, -150.715, 126.019, 88.8389, 0, 0, 2.59522, -53.7853, 2.56669, -173.789, 2.58329, 65.765, 0.044974, 159.254
0, 2760.00000, 125.44, -30.7114, 126.834, -150.715, 126.019, 88.8389, 0, 0, 2.59522, -53.7853, 2.56669, -173.789, 2.58329, 65.765, 0.044974, 159.254
0, 2820.00000, 125.44, -30.7114, 126.834, -150.715, 126.019, 88.8389, 0, 0, 2.59522, -53.7853, 2.56669, -173.789, 2.58329, 65.765, 0.044974, 159.254
0, 2880.00000, 125.44, -30.7114, 126.834, -150.715, 126.019, 88.8389, 0, 0, 2.59522, -53.7853, 2.56669, -173.789, 2.58329, 65.765, 0.044974, 159.254
0, 2940.00000, 125.44, -30.7114, 126.834, -150.715, 126.019, 88.8389, 0, 0, 2.59522, -53.7853, 2.56669, -173.789, 2.58329, 65.765, 0.044974, 159.254
0, 3000.00000, 125.44, -30.7114, 126.834, -150.715, 126.019, 88.8389, 0, 0, 2.59522, -53.7853, 2.56669, -173.789, 2.58329, 65.765, 0.044974, 159.254
0, 3060.00000, 125.44, -30.7114, 126.834, -150.715, 126.019, 88.8389, 0, 0, 2.59522, -53.7853, 2.56669, -173.789, 2.58329, 65.765, 0.044974, 159.254
0, 3120.00000, 125.44, -30.7114, 126.834, -150.715, 126.019, 88.8389, 0, 0, 2.59522, -53.7853, 2.56669, -173.789, 2.58329, 65.765, 0.044974, 159.254
0, 3180.00000, 125.44, -30.7114, 126.834, -150.715, 126.019, 88.8389, 0, 0, 2.59522, -53.7853, 2.56669, -173.789, 2.58329, 65.765, 0.044974, 159.254
0, 3240.00000, 125.44, -30.7114, 126.834, -150.715, 126.019, 88.8389, 0, 0, 2.59522, -53.7853, 2.56669, -173.789, 2.58329, 65.765, 0.044974, 159.254
0, 3300.00000, 125.44, -30.7114, 126.834, -150.715, 126.019, 88.8389, 0, 0, 2.59522, -53.7853, 2.56669, -173.789, 2.58329, 65.765, 0.044974, 159.254
0, 3360.00000, 125.44, -30.7114, 126.834, -150.715, 126.019, 88.8389, 0, 0, 2.59522, -53.7853, 2.56669, -173.789, 2.58329, 65.765, 0.044974, 159.254
0, 3420.00000, 125.44, -30.7114, 126.834, -150.715, 126.019, 88.8389, 0, 0, 2.59522, -53.7853, 2.56669, -173.789, 2.58329, 65.765, 0.044974, 159.254
0, 3480.00000, 125.44, -30.7114, 126.834, -150.715, 126.019, 88.8389, 0, 0, 2.59522, -53.7853, 2.56669, -173.789, 2.58329, 65.765, 0.044974, 159.254
0, 3540.00000, 125.853, -30.6668, 126.835, -150.714, 126.154, 89.0158, 0, 0, 2.58676, -53.7414, 2.56665, -173.788, 2.58057, 65.9409, 0.0311786, 166.682
1, 0.00000, 125.853, -30.6668, 126.835, -150.714, 126.154, 89.0159, 0, 0, 2.58669, -53.7407, 2.56666, -173.788, 2.58053, 65.9419, 0.0310952, 166.747
1, 60.00000, 125.853, -30.6668, 126.835, -150.714, 126.154, 89.0159, 0, 0, 2.58669, -53.7407, 2.56666, -173.788, 2.58053, 65.9419, 0.0310947, 166.747
1, 120.00000, 125.853, -30.6668, 126.835, -150.714, 126.154, 89.0159, 0, 0, 2.58669, -53.7407, 2.56666, -173.788, 2.58053, 65.9419, 0.0310946, 166.747
1, 180.00000, 125.853, -30.6668, 126.835, -150.714, 126.154, 89.0159, 0, 0, 2.58669, -53.7407, 2.56666, -173.788, 2.58053, 65.9419, 0.0310946, 166.747
1, 240.00000, 125.853, -30.6668, 126.835, -150.714, 126.154, 89.0159, 0, 0, 2.58669, -53.7407, 2.56666, -173.788, 2.58053, 65.9419, 0.0310946, 166.747
1, 300.00000, 125.853, -30.6668, 126.835, -150.714, 126.154, 89.0159, 0, 0, 2.58669, -53.7407, 2.56666, -173.788, 2.58053, 65.9419, 0.0310946, 166.747
1, 360.00000, 125.853, -30.6668, 126.835, -150.714, 126.154, 89.0159, 0, 0, 2.58669, -53.7407, 2.56666, -173.788, 2.58053, 65.9419, 0.0310946, 166.747
1, 420.00000, 125.853, -30.6668, 126.835, -150.714, 126.154, 89.0159, 0, 0, 2.58669, -53.7407, 2.56666, -173.788, 2.58053, 65.9419, 0.0310946, 166.747
1, 480.00000, 125.853, -30.6668, 126.835, -150.714, 126.154, 89.0159, 0, 0, 2.58669, -53.7407, 2.56666, -173.788, 2.58053, 65.9419, 0.0310946, 166.747
1, 540.00000, 125.853, -30.6668, 126.835, -150.714, 126.154, 89.0159, 0, 0, 2.58669, -53.7407, 2.56666, -173.788, 2.58053, 65.9419, 0.0310946, 166.747
1, 600.00000, 125.853, -30.6668, 126.835, -150.714, 126.154, 89.0159, 0, 0, 2.58669, -53.7407, 2.56666, -173.788, 2.58053, 65.9419, 0.0310946, 166.747
1, 660.00000, 125.855, -30.6665, 126.956, -150.548, 126.541, 89.0583, 0, 0, 2.58667, -53.7405, 2.56423, -173.622, 2.57265, 65.984, 0.0352387, 144.129
1, 720.00000, 125.855, -30.6665, 126.956, -150.548, 126.541, 89.0584, 0, 0, 2.58666, -53.7404, 2.56423, -173.622, 2.57263, 65.9845, 0.0352172, 144.095
1, 780.00000, 126.26, -30.6222, 126.956, -150.548, 126.672, 89.2316, 0, 0, 2.5784, -53.6968, 2.56421, -173.622, 2.57, 66.157, 0.0209497, 144.686
1, 840.00000, 126.26, -30.6222, 126.956, -150.548, 126.672, 89.2317, 0, 0, 2.57835, -53.6961, 2.56422, -173.622, 2.56998, 66.1578, 0.0208829, 144.701
1, 900.00000, 126.26, -30.6222, 126.956, -150.548, 126.672, 89.2317, 0, 0, 2.57835, -53.6961, 2.56422, -173.622, 2.56998, 66.1578, 0.0208826, 144.701
1, 960.00000, 126.26, -30.6222, 126.956, -150.548, 126.672, 89.2317, 0, 0, 2.57835, -53.6961, 2.56422, -173.622, 2.56998, 66.1578, 0.0208826, 144.701
1, 1020.00000, 126.26, -30.6222, 126.956, -150.548, 126.672, 89.2317, 0, 0, 2.57835, -53.6961, 2.56422, -173.622, 2.56998, 66.1578, 0.0208826, 144.701
1, 1080.00000, 126.26, -30.6222, 126.956, -150.548, 126.672, 89.2317, 0, 0, 2.57835, -53.6961, 2.56422, -173.622, 2.56998, 66.1578, 0.0208826, 144.701
1, 1140.00000, 126.26, -30.6222, 126.956, -150.548, 126.672, 89.2317, 0, 0, 2.57835, -53.6961, 2.56422, -173.622, 2.56998, 66.1578, 0.0208826, 144.701
1, 1200.00000, 126.26, -30.6222, 126.956, -150.548, 126.672, 89.2317, 0, 0, 2.57835, -53.6961, 2.56422, -173.622, 2.56998, 66.1578, 0.0208826, 144.701
1, 1260.00000, 126.26, -30.6222, 126.956, -150.548, 126.672, 89.2317, 0, 0, 2.57835, -53.6961, 2.56422, -173.622, 2.56998, 66.1578, 0.0208826, 144.701
1, 1320.00000, 126.26, -30.6222, 126.956, -150.548, 126.672, 89.2317, 0, 0, 2.57835, -53.6961, 2.56422, -173.622, 2.56998, 66.1578, 0.0208826, 144.701
1, 1380.00000, 126.26, -30.6222, 126.956, -150.548, 126.672, 89.2317, 0, 0, 2.57835, -53.6961, 2.56422, -173.622, 2.56998, 66.1578, 0.0208826, 144.701
1, 1440.00000, 126.26, -30.6222, 126.956, -150.548, 126.672, 89.2317, 0, 0, 2.57835, -53.6961, 2.56422, -173.622, 2.56998, 66.1578, 0.0208826, 144.701
1, 1500.00000, 126.26, -30.6222, 126.956, -150.548, 126.672, 89.2317, 0, 0, 2.57835, -53.6961, 2.56422, -173.622, 2.56998, 66.1578, 0.0208826, 144.701
1, 1560.00000, 126.26, -30.6222, 126.956, -150.548, 126.672, 89.2317, 0, 0, 2.57835, -53.6961, 2.56422, -173.622, 2.56998, 66.1578, 0.0208826, 144.701
1, 1620.00000, 126.26, -30.6222, 126.956, -150.548, 126.672, 89.2317, 0, 0, 2.57835, -53.6961, 2.56422, -173.622, 2.56998, 66.1578, 0.0208826, 144.701
1, 1680.00000, 126.26, -30.6222, 126.956, -150.548, 126.672, 89.2317, 0, 0, 2.57835, -53.6961, 2.56422, -173.622, 2.56998, 66.1578, 0.0208826, 144.701
1, 1740.00000, 126.26, -30.6222, 126.956, -150.548, 126.672, 89.2317, 0, 0, 2.57835, -53.6961, 2.56422, -173.622, 2.56998, 66.1578, 0.0208826, 144.701
1, 1800.00000, 126.26, -30.6222, 126.956, -150.548, 126.672, 89.2317, 0, 0, 2.57835, -53.6961, 2.56422, -173.622, 2.56998, 66.1578, 0.0208826, 144.701
1, 1860.00000, 126.26, -30.6222, 126.956, -150.548, 126.672, 89.2317, 0, 0, 2.57835, -53.6961, 2.56422, -173.622, 2.56998, 66.1578, 0.0208826, 144.701
1, 1920.00000, 126.26, -30.6222, 126.956, -150.548, 126.672, 89.2317, 0, 0, 2.57835, -53.6961, 2.56422, -173.622, 2.56998, 66.1578, 0.0208826, 144.701
1, 1980.00000, 126.26, -30.6222, 126.956, -150.548, 126.672, 89.2317, 0, 0, 2.57835, -53.6961, 2.56422, -173.622, 2.56998, 66.1578, 0.0208826, 144.701
1, 2040.00000, 126.26, -30.6222, 126.956, -150.548, 126.672, 89.2317, 0, 0, 2.57835, -53.6961, 2.56422, -173.622, 2.56998, 66.1578, 0.0208826, 144.701
1, 2100.00000, 126.26, -30.6222, 126.956, -150.548, 126.672, 89.2317, 0, 0, 2.57835, -53.6961, 2.56422, -173.622, 2.56998, 66.1578, 0.0208826, 144.701
1, 2160.00000, 126.26, -30.6222, 126.956, -150.548, 126.672, 89.2317, 0, 0, 2.57835, -53.6961, 2.56422, -173.622, 2.56998, 66.1578, 0.0208826, 144.701
1, 2220.00000, 126.26, -30.6222, 126.956, -150.548, 126.672, 89.2317, 0, 0, 2.57835, -53.6961, 2.56422, -173.622, 2.56998, 66.1578, 0.0208826, 144.701
1, 2280.00000, 126.26, -30.6222, 126.956, -150.548, 126.672, 89.2317, 0, 0, 2.57835, -53.6961, 2.56422, -173.622, 2.56998, 66.1578, 0.0208826, 144.701
1, 2340.00000, 126.26, -30.6222, 126.956, -150.548, 126.672, 89.2317, 0, 0, 2.57835, -53.6961, 2.56422, -173.622, 2.56998, 66.1578, 0.0208826, 144.701
1, 2400.00000, 126.26, -30.6222, 126.956, -150.548, 126.672, 89.2317, 0, 0, 2.57835, -53.6961, 2.56422, -173.622, 2.56998, 66.1578, 0.0208826, 144.701
1, 2460.00000, 126.26, -30.6222, 126.956, -150.548, 126.672, 89.2317, 0, 0, 2.57835, -53.6961, 2.56422, -173.622, 2.56998, 66.1578, 0.0208826, 144.701
1, 2520.00000, 126.26, -30.6222, 126.956, -150.548, 126.672, 89.2317, 0, 0, 2.57835, -53.6961, 2.56422, -173.622, 2.56998, 66.1578, 0.0208826, 144.701
1, 2580.00000, 126.26, -30.6222, 126.956, -150.548, 126.672, 89.2317, 0, 0, 2.57835, -53.6961, 2.56422, -173.622, 2.56998, 66.1578, 0.0208826, 144.701
1, 2640.00000, 126.26, -30.6222, 126.956, -150.548, 126.672, 89.2317, 0, 0, 2.57835, -53.6961, 2.56422, -173.622, 2.56998, 66.1578, 0.0208826, 144.701
1, 2700.00000, 126.26, -30.6222, 126.956, -150.548, 126.672, 89.2317, 0, 0, 2.57835, -53.6961, 2.56422, -173.622, 2.56998, 66.1578, 0.0208826, 144.701
1, 2760.00000, 126.26, -30.6222, 126.956, -150.548, 126.672, 89.2317, 0, 0, 2.57835, -53.6961, 2.56422, -173.622, 2.56998, 66.1578, 0.0208826, 144.701
1, 2820.00000, 126.26, -30.6222, 126.956, -150.548, 126.672, 89.2317, 0, 0, 2.57835, -53.6961, 2.56422, -173.622, 2.56998, 66.1578, 0.0208826, 144.701
1, 2880.00000, 126.26, -30.6222, 126.956, -150.548, 126.672, 89.2317, 0, 0, 2.57835, -53.6961, 2.56422, -173.622, 2.56998, 66.1578, 0.0208826, 144.701
1, 2940.00000, 126.26, -30.6222, 126.956, -150.548, 126.672, 89.2317, 0, 0, 2.57835, -53.6961, 2.56422, -173.622, 2.56998, 66.1578, 0.0208826, 144.701
1, 3000.00000, 126.26, -30.6222, 126.956, -150.548, 126.672, 89.2317, 0, 0, 2.57835, -53.6961, 2.56422, -173.622, 2.56998, 66.1578, 0.0208826, 144.701
1, 3060.00000, 126.26, -30.6222, 126.956, -150.548, 126.672, 89.2317, 0, 0, 2.57835, -53.6961, 2.56422, -173.622, 2.56998, 66.1578, 0.0208826, 144.701
1, 3120.00000, 126.26, -30.6222, 126.956, -150.548, 126.672, 89.2317, 0, 0, 2.57835, -53.6961, 2.56422, -173.622, 2.56998, 66.1578, 0.0208826, 144.701
1, 3180.00000, 126.26, -30.6222, 126.956, -150.548, 126.672, 89.2317, 0, 0, 2.57835, -53.6961, 2.56422, -173.622, 2.56998, 66.1578, 0.0208826, 144.701
1, 3240.00000, 126.26, -30.6222, 126.956, -150.548, 126.672, 89.2317, 0, 0, 2.57835, -53.6961, 2.56422, -173.622, 2.56998, 66.1578, 0.0208826, 144.701
1, 3300.00000, 126.26, -30.6222, 126.956, -150.548, 126.672, 89.2317, 0, 0, 2.57835, -53.6961, 2.56422, -173.622, 2.56998, 66.1578, 0.0208826, 144.701
1, 3360.00000, 126.26, -30.6222, 126.956, -150.548, 126.672, 89.2317, 0, 0, 2.57835, -53.6961, 2.56422, -173.622, 2.56998, 66.1578, 0.0208826, 144.701
1, 3420.00000, 126.26, -30.6222, 126.956, -150.548, 126.672, 89.2317, 0, 0, 2.57835, -53.6961, 2.56422, -173.622, 2.56998, 66.1578, 0.0208826, 144.701
1, 3480.00000, 126.865, -30.597, 126.928, -150.55, 126.972, 89.4543, 0, 0, 2.56609, -53.6714, 2.56478, -173.624, 2.56391, 66.3801, 0.00335576, 64.2259
1, 3540.00000, 126.865, -30.597, 126.928, -150.55, 126.972, 89.4544, 0, 0, 2.56606, -53.6709, 2.56479, -173.624, 2.5639, 66.3804, 0.00333353, 63.6439
2, 0.00000, 126.865, -30.597, 126.928, -150.55, 126.972, 89.4544, 0, 0, 2.56606, -53.6709, 2.56479, -173.624, 2.5639, 66.3804, 0.00333344, 63.6424
2, 60.00000, 126.865, -30.597, 126.928, -150.55, 126.972, 89.4544, 0, 0, 2.56606, -53.6709, 2.56479, -173.624, 2.5639, 66.3804, 0.00333344, 63.6424
2, 120.00000, 126.861, -30.5981, 126.924, -150.552, 126.968, 89.4533, 0, 0, 2.57324, -53.672, 2.57196, -173.625, 2.57107, 66.3794, 0.00334559, 63.6607
2, 180.00000, 126.857, -30.5993, 126.92, -150.553, 126.964, 89.4521, 0, 0, 2.58051, -53.6731, 2.57922, -173.626, 2.57833, 66.3783, 0.00335735, 63.7149
2, 240.00000, 126.853, -30.6004, 126.916, -150.554, 126.96, 89.451, 0, 0, 2.58769, -53.6743, 2.5864, -173.628, 2.58551, 66.3772, 0.00336898, 63.7695
2, 300.00000, 126.849, -30.6016, 126.912, -150.555, 126.956, 89.4499, 0, 0, 2.59487, -53.6754, 2.59358, -173.629, 2.59268, 66.3761, 0.00338064, 63.8237
2, 360.00000, 126.845, -30.6027, 126.908, -150.556, 126.952, 89.4488, 0, 0, 2.60215, -53.6766, 2.60084, -173.63, 2.59994, 66.375, 0.00339246, 63.878
2, 420.00000, 126.84, -30.6039, 126.904, -150.557, 126.948, 89.4477, 0, 0, 2.60933, -53.6777, 2.60802, -173.631, 2.60712, 66.3739, 0.00340414, 63.9324
2, 480.00000, 126.836, -30.605, 126.901, -150.558, 126.944, 89.4466, 0, 0, 2.61652, -53.6789, 2.61519, -173.632, 2.61429, 66.3727, 0.00341585, 63.9864
2, 540.00000, 126.832, -30.6062, 126.897, -150.559, 126.94, 89.4455, 0, 0, 2.62379, -53.68, 2.62246, -173.633, 2.62156, 66.3716, 0.00342772, 64.0406
2, 600.00000, 126.828, -30.6073, 126.893, -150.56, 126.936, 89.4444, 0, 0, 2.63098, -53.6812, 2.62963, -173.634, 2.62873, 66.3705, 0.00343946, 64.0949
2, 660.00000, 126.824, -30.6085, 126.889, -150.562, 126.932, 89.4432, 0, 0, 2.63816, -53.6823, 2.63681, -173.635, 2.63591, 66.3694, 0.00345122, 64.1487
2, 720.00000, 126.82, -30.6096, 126.885, -150.563, 126.928, 89.4421, 0, 0, 2.64544, -53.6835, 2.64408, -173.637, 2.64317, 66.3683, 0.00346314, 64.2027
