hour,t(sec),V1,VAngle1,V2,VAngle2,V3,VAngle3,V4,VAngle4,I1,IAngle1,I2,IAngle2,I3,IAngle3,I4,IAngle4
0, 60.00000, 124.921, -30.7733, 124.553, -151.408, 123.616, 89.3832, 0, 0, 2.37193, -53.847, 2.37892, -174.481, 2.39694, 66.3096, 0.0512677, -83.8294
0, 120.00000, 124.921, -30.7733, 124.553, -151.408, 123.616, 89.3832, 0, 0, 2.37194, -53.8472, 2.37893, -174.482, 2.39698, 66.3093, 0.0512854, -83.843
0, 180.00000, 124.921, -30.7733, 124.553, -151.408, 123.616, 89.3832, 0, 0, 2.37194, -53.8472, 2.37893, -174.482, 2.39698, 66.3093, 0.0512855, -83.8431
0, 240.00000, 124.921, -30.7733, 124.553, -151.408, 123.616, 89.3832, 0, 0, 2.37194, -53.8472, 2.37893, -174.482, 2.39698, 66.3093, 0.0512855, -83.8431
0, 300.00000, 124.923, -30.7724, 124.689, -151.234, 124.026, 89.4263, 0, 0, 2.37191, -53.8465, 2.37639, -174.308, 2.38911, 66.3518, 0.0382702, -79.4019
0, 360.00000, 124.923, -30.7724, 124.689, -151.234, 124.027, 89.4264, 0, 0, 2.3719, -53.8463, 2.37635, -174.307, 2.38904, 66.3525, 0.0382203, -79.3592
0, 420.00000, 124.923, -30.7724, 124.689, -151.234, 124.027, 89.4264, 0, 0, 2.3719, -53.8463, 2.37635, -174.307, 2.38904, 66.3525, 0.0382202, -79.3589
0, 480.00000, 124.923, -30.7724, 124.689, -151.234, 124.027, 89.4264, 0, 0, 2.3719, -53.8463, 2.37635, -174.307, 2.38904, 66.3525, 0.0382202, -79.3589
0, 540.00000, 124.923, -30.7724, 124.689, -151.234, 124.027, 89.4264, 0, 0, 2.3719, -53.8463, 2.37635, -174.307, 2.38904, 66.3525, 0.0382202, -79.3589
0, 600.00000, 124.923, -30.7724, 124.689, -151.234, 124.027, 89.4264, 0, 0, 2.3719, -53.8463, 2.37635, -174.307, 2.38904, 66.3525, 0.0382202, -79.3589
0, 660.00000, 124.923, -30.7724, 124.689, -151.234, 124.027, 89.4264, 0, 0, 2.3719, -53.8463, 2.37635, -174.307, 2.38904, 66.3525, 0.0382202, -79.3589
0, 720.00000, 124.923, -30.7724, 124.689, -151.234, 124.027, 89.4264, 0, 0, 2.3719, -53.8463, 2.37635, -174.307, 2.38904, 66.3525, 0.0382202, -79.3589
0, 780.00000, 124.923, -30.7724, 124.689, -151.234, 124.027, 89.4264, 0, 0, 2.3719, -53.8463, 2.37635, -174.307, 2.38904, 66.3525, 0.0382202, -79.3589
0, 840.00000, 124.923, -30.7724, 124.689, -151.234, 124.027, 89.4264, 0, 0, 2.3719, -53.8463, 2.37635, -174.307, 2.38904, 66.3525, 0.0382202, -79.3589
0, 900.00000, 124.923, -30.7724, 124.689, -151.234, 124.027, 89.4264, 0, 0, 2.3719, -53.8463, 2.37635, -174.307, 2.38904, 66.3525, 0.0382202, -79.3589
0, 960.00000, 124.923, -30.7724, 124.689, -151.234, 124.027, 89.4264, 0, 0, 2.3719, -53.8463, 2.37635, -174.307, 2.38904, 66.3525, 0.0382202, -79.3589
0, 1020.00000, 124.923, -30.7724, 124.689, -151.234, 124.027, 89.4264, 0, 0, 2.3719, -53.8463, 2.37635, -174.307, 2.38904, 66.3525, 0.0382202, -79.3589
0, 1080.00000, 124.923, -30.7724, 124.689, -151.234, 124.027, 89.4264, 0, 0, 2.3719, -53.8463, 2.37635, -174.307, 2.38904, 66.3525, 0.0382202, -79.3589
0, 1140.00000, 124.923, -30.7724, 124.689, -151.234, 124.027, 89.4264, 0, 0, 2.3719, -53.8463, 2.37635, -174.307, 2.38904, 66.3525, 0.0382202, -79.3589
0, 1200.00000, 124.923, -30.7724, 124.689, -151.234, 124.027, 89.4264, 0, 0, 2.3719, -53.8463, 2.37635, -174.307, 2.38904, 66.3525, 0.0382202, -79.3589
0, 1260.00000, 124.923, -30.7724, 124.689, -151.234, 124.027, 89.4264, 0, 0, 2.3719, -53.8463, 2.37635, -174.307, 2.38904, 66.3525, 0.0382202, -79.3589
0, 1320.00000, 124.923, -30.7724, 124.689, -151.234, 124.027, 89.4264, 0, 0, 2.3719, -53.8463, 2.37635, -174.307, 2.38904, 66.3525, 0.0382202, -79.3589
0, 1380.00000, 124.923, -30.7724, 124.689, -151.234, 124.027, 89.4264, 0, 0, 2.3719, -53.8463, 2.37635, -174.307, 2.38904, 66.3525, 0.0382202, -79.3589
0, 1440.00000, 124.923, -30.7724, 124.689, -151.234, 124.027, 89.4264, 0, 0, 2.3719, -53.8463, 2.37635, -174.307, 2.38904, 66.3525, 0.0382202, -79.3589
0, 1500.00000, 124.923, -30.7724, 124.689, -151.234, 124.027, 89.4264, 0, 0, 2.3719, -53.8463, 2.37635, -174.307, 2.38904, 66.3525, 0.0382202, -79.3589
0, 1560.00000, 124.923, -30.7724, 124.689, -151.234, 124.027, 89.4264, 0, 0, 2.3719, -53.8463, 2.37635, -174.307, 2.38904, 66.3525, 0.0382202, -79.3589
0, 1620.00000, 124.923, -30.7724, 124.689, -151.234, 124.027, 89.4264, 0, 0, 2.3719, -53.8463, 2.37635, -174.307, 2.38904, 66.3525, 0.0382202, -79.3589
0, 1680.00000, 124.923, -30.7724, 124.689, -151.234, 124.027, 89.4264, 0, 0, 2.3719, -53.8463, 2.37635, -174.307, 2.38904, 66.3525, 0.0382202, -79.3589
0, 1740.00000, 124.923, -30.7724, 124.689, -151.234, 124.027, 89.4264, 0, 0, 2.3719, -53.8463, 2.37635, -174.307, 2.38904, 66.3525, 0.0382202, -79.3589
0, 1800.00000, 124.923, -30.7724, 124.689, -151.234, 124.027, 89.4264, 0, 0, 2.3719, -53.8463, 2.37635, -174.307, 2.38904, 66.3525, 0.0382202, -79.3589
0, 1860.00000, 124.923, -30.7724, 124.689, -151.234, 124.027, 89.4264, 0, 0, 2.3719, -53.8463, 2.37635, -174.307, 2.38904, 66.3525, 0.0382202, -79.3589
0, 1920.00000, 124.923, -30.7724, 124.689, -151.234, 124.027, 89.4264, 0, 0, 2.3719, -53.8463, 2.37635, -174.307, 2.38904, 66.3525, 0.0382202, -79.3589
0, 1980.00000, 124.923, -30.7724, 124.689, -151.234, 124.027, 89.4264, 0, 0, 2.3719, -53.8463, 2.37635, -174.307, 2.38904, 66.3525, 0.0382202, -79.3589
0, 2040.00000, 124.923, -30.7724, 124.689, -151.234, 124.027, 89.4264, 0, 0, 2.3719, -53.8463, 2.37635, -174.307, 2.38904, 66.3525, 0.0382202, -79.3589
0, 2100.00000, 124.923, -30.7724, 124.689, -151.234, 124.027, 89.4264, 0, 0, 2.3719, -53.8463, 2.37635, -174.307, 2.38904, 66.3525, 0.0382202, -79.3589
0, 2160.00000, 124.923, -30.7724, 124.689, -151.234, 124.027, 89.4264, 0, 0, 2.3719, -53.8463, 2.37635, -174.307, 2.38904, 66.3525, 0.0382202, -79.3589
0, 2220.00000, 125.052, -30.7809, 125.285, -150.882, 124.977, 89.3311, 0, 0, 2.36945, -53.8548, 2.36506, -173.956, 2.37093, 66.2567, 0.00784806, -92.1821
0, 2280.00000, 125.052, -30.7809, 125.286, -150.882, 124.977, 89.3312, 0, 0, 2.36944, -53.8548, 2.36503, -173.956, 2.37087, 66.2573, 0.00779835, -92.0364
0, 2340.00000, 125.052, -30.7809, 125.286, -150.882, 124.977, 89.3312, 0, 0, 2.36944, -53.8548, 2.36503, -173.956, 2.37087, 66.2573, 0.00779825, -92.0353
0, 2400.00000, 125.052, -30.7809, 125.286, -150.882, 124.977, 89.3312, 0, 0, 2.36944, -53.8548, 2.36503, -173.956, 2.37087, 66.2573, 0.00779825, -92.0353
0, 2460.00000, 125.052, -30.7809, 125.286, -150.882, 124.977, 89.3312, 0, 0, 2.36944, -53.8548, 2.36503, -173.956, 2.37087, 66.2573, 0.00779825, -92.0353
0, 2520.00000, 125.052, -30.7809, 125.286, -150.882, 124.977, 89.3312, 0, 0, 2.36944, -53.8548, 2.36503, -173.956, 2.37087, 66.2573, 0.00779825, -92.0353
0, 2580.00000, 125.052, -30.7809, 125.286, -150.882, 124.977, 89.3312, 0, 0, 2.36944, -53.8548, 2.36503, -173.956, 2.37087, 66.2573, 0.00779825, -92.0353
0, 2640.00000, 125.052, -30.7809, 125.286, -150.882, 124.977, 89.3312, 0, 0, 2.36944, -53.8548, 2.36503, -173.956, 2.37087, 66.2573, 0.00779825, -92.0353
0, 2700.00000, 125.052, -30.7809, 125.286, -150.882, 124.977, 89.3312, 0, 0, 2.36944, -53.8548, 2.36503, -173.956, 2.37087, 66.2573, 0.00779825, -92.0353
0, 2760.00000, 125.052, -30.7809, 125.286, -150.882, 124.977, 89.3312, 0, 0, 2.36944, -53.8548, 2.36503, -173.956, 2.37087, 66.2573, 0.00779825, -92.0353
0, 2820.00000, 125.052, -30.7809, 125.286, -150.882, 124.977, 89.3312, 0, 0, 2.36944, -53.8548, 2.36503, -173.956, 2.37087, 66.2573, 0.00779825, -92.0353
0, 2880.00000, 125.052, -30.7809, 125.286, -150.882, 124.977, 89.3312, 0, 0, 2.36944, -53.8548, 2.36503, -173.956, 2.37087, 66.2573, 0.00779825, -92.0353
0, 2940.00000, 125.052, -30.7809, 125.286, -150.882, 124.977, 89.3312, 0, 0, 2.36944, -53.8548, 2.36503, -173.956, 2.37087, 66.2573, 0.00779825, -92.0353
0, 3000.00000, 125.052, -30.7809, 125.286, -150.882, 124.977, 89.3312, 0, 0, 2.36944, -53.8548, 2.36503, -173.956, 2.37087, 66.2573, 0.00779825, -92.0353
0, 3060.00000, 125.052, -30.7809, 125.286, -150.882, 124.977, 89.3312, 0, 0, 2.36944, -53.8548, 2.36503, -173.956, 2.37087, 66.2573, 0.00779825, -92.0353
0, 3120.00000, 125.052, -30.7809, 125.286, -150.882, 124.977, 89.3312, 0, 0, 2.36944, -53.8548, 2.36503, -173.956, 2.37087, 66.2573, 0.00779825, -92.0353
0, 3180.00000, 125.052, -30.7809, 125.286, -150.882, 124.977, 89.3312, 0, 0, 2.36944, -53.8548, 2.36503, -173.956, 2.37087, 66.2573, 0.00779825, -92.0353
0, 3240.00000, 125.052, -30.7809, 125.286, -150.882, 124.977, 89.3312, 0, 0, 2.36944, -53.8548, 2.36503, -173.956, 2.37087, 66.2573, 0.00779825, -92.0353
0, 3300.00000, 125.052, -30.7809, 125.286, -150.882, 124.977, 89.3312, 0, 0, 2.36944, -53.8548, 2.36503, -173.956, 2.37087, 66.2573, 0.00779825, -92.0353
0, 3360.00000, 125.052, -30.7809, 125.286, -150.882, 124.977, 89.3312, 0, 0, 2.36944, -53.8548, 2.36503, -173.956, 2.37087, 66.2573, 0.00779825, -92.0353
0, 3420.00000, 125.052, -30.7809, 125.286, -150.882, 124.977, 89.3312, 0, 0, 2.36944, -53.8548, 2.36503, -173.956, 2.37087, 66.2573, 0.00779825, -92.0353
0, 3480.00000, 125.052, -30.7809, 125.286, -150.882, 124.977, 89.3312, 0, 0, 2.36944, -53.8548, 2.36503, -173.956, 2.37087, 66.2573, 0.00779825, -92.0353
0, 3540.00000, 125.052, -30.7809, 125.286, -150.882, 124.977, 89.3312, 0, 0, 2.36944, -53.8548, 2.36503, -173.956, 2.37087, 66.2573, 0.00779825, -92.0353
1, 0.00000, 125.052, -30.7809, 125.286, -150.882, 124.977, 89.3312, 0, 0, 2.36944, -53.8548, 2.36503, -173.956, 2.37087, 66.2573, 0.00779825, -92.0353
1, 60.00000, 125.052, -30.7809, 125.286, -150.882, 124.977, 89.3312, 0, 0, 2.36944, -53.8548, 2.36503, -173.956, 2.37087, 66.2573, 0.00779825, -92.0353
1, 120.00000, 125.052, -30.7809, 125.286, -150.882, 124.977, 89.3312, 0, 0, 2.36944, -53.8548, 2.36503, -173.956, 2.37087, 66.2573, 0.00779825, -92.0353
1, 180.00000, 125.052, -30.7809, 125.286, -150.882, 124.977, 89.3312, 0, 0, 2.36944, -53.8548, 2.36503, -173.956, 2.37087, 66.2573, 0.00779825, -92.0353
1, 240.00000, 125.052, -30.7809, 125.286, -150.882, 124.977, 89.3312, 0, 0, 2.36944, -53.8548, 2.36503, -173.956, 2.37087, 66.2573, 0.00779825, -92.0353
1, 300.00000, 125.052, -30.7809, 125.286, -150.882, 124.977, 89.3312, 0, 0, 2.36944, -53.8548, 2.36503, -173.956, 2.37087, 66.2573, 0.00779825, -92.0353
1, 360.00000, 125.052, -30.7809, 125.286, -150.882, 124.977, 89.3312, 0, 0, 2.36944, -53.8548, 2.36503, -173.956, 2.37087, 66.2573, 0.00779825, -92.0353
1, 420.00000, 125.052, -30.7809, 125.286, -150.882, 124.977, 89.3312, 0, 0, 2.36944, -53.8548, 2.36503, -173.956, 2.37087, 66.2573, 0.00779825, -92.0353
1, 480.00000, 125.052, -30.7809, 125.286, -150.882, 124.977, 89.3312, 0, 0, 2.36944, -53.8548, 2.36503, -173.956, 2.37087, 66.2573, 0.00779825, -92.0353
1, 540.00000, 125.052, -30.7809, 125.286, -150.882, 124.977, 89.3312, 0, 0, 2.36944, -53.8548, 2.36503, -173.956, 2.37087, 66.2573, 0.00779825, -92.0353
1, 600.00000, 125.052, -30.7809, 125.286, -150.882, 124.977, 89.3312, 0, 0, 2.36944, -53.8548, 2.36503, -173.956, 2.37087, 66.2573, 0.00779825, -92.0353
1, 660.00000, 125.174, -30.6142, 125.677, -150.839, 124.977, 89.3311, 0, 0, 2.36714, -53.6881, 2.35768, -173.913, 2.37088, 66.2572, 0.0174885, -133.228
1, 720.00000, 125.174, -30.6142, 125.678, -150.839, 124.977, 89.3311, 0, 0, 2.36713, -53.6881, 2.35766, -173.912, 2.37087, 66.2572, 0.0174889, -133.298
1, 780.00000, 125.582, -30.5688, 125.677, -150.839, 125.108, 89.5032, 0, 0, 2.3595, -53.6433, 2.35766, -173.912, 2.36842, 66.4289, 0.02063, -94.081
1, 840.00000, 125.582, -30.5688, 125.677, -150.839, 125.108, 89.5032, 0, 0, 2.35945, -53.6427, 2.35767, -173.912, 2.36839, 66.4293, 0.0206584, -93.9591
1, 900.00000, 125.582, -30.5688, 125.677, -150.839, 125.108, 89.5032, 0, 0, 2.35945, -53.6427, 2.35767, -173.912, 2.36839, 66.4293, 0.0206585, -93.9586
1, 960.00000, 125.582, -30.5688, 125.677, -150.839, 125.108, 89.5032, 0, 0, 2.35945, -53.6427, 2.35767, -173.912, 2.36839, 66.4293, 0.0206585, -93.9586
1, 1020.00000, 125.582, -30.5688, 125.677, -150.839, 125.108, 89.5032, 0, 0, 2.35945, -53.6427, 2.35767, -173.912, 2.36839, 66.4293, 0.0206585, -93.9586
1, 1080.00000, 125.582, -30.5688, 125.677, -150.839, 125.108, 89.5032, 0, 0, 2.35945, -53.6427, 2.35767, -173.912, 2.36839, 66.4293, 0.0206585, -93.9586
1, 1140.00000, 125.582, -30.5688, 125.677, -150.839, 125.108, 89.5032, 0, 0, 2.35945, -53.6427, 2.35767, -173.912, 2.36839, 66.4293, 0.0206585, -93.9586
1, 1200.00000, 125.582, -30.5688, 125.677, -150.839, 125.108, 89.5032, 0, 0, 2.35945, -53.6427, 2.35767, -173.912, 2.36839, 66.4293, 0.0206585, -93.9586
1, 1260.00000, 125.582, -30.5688, 125.677, -150.839, 125.108, 89.5032, 0, 0, 2.35945, -53.6427, 2.35767, -173.912, 2.36839, 66.4293, 0.0206585, -93.9586
1, 1320.00000, 125.582, -30.5688, 125.677, -150.839, 125.108, 89.5032, 0, 0, 2.35945, -53.6427, 2.35767, -173.912, 2.36839, 66.4293, 0.0206585, -93.9586
1, 1380.00000, 125.582, -30.5688, 125.677, -150.839, 125.108, 89.5032, 0, 0, 2.35945, -53.6427, 2.35767, -173.912, 2.36839, 66.4293, 0.0206585, -93.9586
1, 1440.00000, 125.582, -30.5688, 125.677, -150.839, 125.108, 89.5032, 0, 0, 2.35945, -53.6427, 2.35767, -173.912, 2.36839, 66.4293, 0.0206585, -93.9586
1, 1500.00000, 125.582, -30.5688, 125.677, -150.839, 125.108, 89.5032, 0, 0, 2.35945, -53.6427, 2.35767, -173.912, 2.36839, 66.4293, 0.0206585, -93.9586
1, 1560.00000, 125.582, -30.5688, 125.677, -150.839, 125.108, 89.5032, 0, 0, 2.35945, -53.6427, 2.35767, -173.912, 2.36839, 66.4293, 0.0206585, -93.9586
1, 1620.00000, 125.582, -30.5688, 125.677, -150.839, 125.108, 89.5032, 0, 0, 2.35945, -53.6427, 2.35767, -173.912, 2.36839, 66.4293, 0.0206585, -93.9586
1, 1680.00000, 125.582, -30.5688, 125.677, -150.839, 125.108, 89.5032, 0, 0, 2.35945, -53.6427, 2.35767, -173.912, 2.36839, 66.4293, 0.0206585, -93.9586
1, 1740.00000, 125.582, -30.5688, 125.677, -150.839, 125.108, 89.5032, 0, 0, 2.35945, -53.6427, 2.35767, -173.912, 2.36839, 66.4293, 0.0206585, -93.9586
1, 1800.00000, 125.582, -30.5688, 125.677, -150.839, 125.108, 89.5032, 0, 0, 2.35945, -53.6427, 2.35767, -173.912, 2.36839, 66.4293, 0.0206585, -93.9586
1, 1860.00000, 125.582, -30.5688, 125.677, -150.839, 125.108, 89.5032, 0, 0, 2.35945, -53.6427, 2.35767, -173.912, 2.36839, 66.4293, 0.0206585, -93.9586
1, 1920.00000, 125.582, -30.5688, 125.677, -150.839, 125.108, 89.5032, 0, 0, 2.35945, -53.6427, 2.35767, -173.912, 2.36839, 66.4293, 0.0206585, -93.9586
1, 1980.00000, 125.582, -30.5688, 125.677, -150.839, 125.108, 89.5032, 0, 0, 2.35945, -53.6427, 2.35767, -173.912, 2.36839, 66.4293, 0.0206585, -93.9586
1, 2040.00000, 125.582, -30.5688, 125.677, -150.839, 125.108, 89.5032, 0, 0, 2.35945, -53.6427, 2.35767, -173.912, 2.36839, 66.4293, 0.0206585, -93.9586
1, 2100.00000, 125.582, -30.5688, 125.677, -150.839, 125.108, 89.5032, 0, 0, 2.35945, -53.6427, 2.35767, -173.912, 2.36839, 66.4293, 0.0206585, -93.9586
1, 2160.00000, 125.582, -30.5688, 125.677, -150.839, 125.108, 89.5032, 0, 0, 2.35945, -53.6427, 2.35767, -173.912, 2.36839, 66.4293, 0.0206585, -93.9586
1, 2220.00000, 125.582, -30.5688, 125.677, -150.839, 125.108, 89.5032, 0, 0, 2.35945, -53.6427, 2.35767, -173.912, 2.36839, 66.4293, 0.0206585, -93.9586
1, 2280.00000, 125.582, -30.5688, 125.677, -150.839, 125.108, 89.5032, 0, 0, 2.35945, -53.6427, 2.35767, -173.912, 2.36839, 66.4293, 0.0206585, -93.9586
1, 2340.00000, 125.582, -30.5688, 125.677, -150.839, 125.108, 89.5032, 0, 0, 2.35945, -53.6427, 2.35767, -173.912, 2.36839, 66.4293, 0.0206585, -93.9586
1, 2400.00000, 125.582, -30.5688, 125.677, -150.839, 125.108, 89.5032, 0, 0, 2.35945, -53.6427, 2.35767, -173.912, 2.36839, 66.4293, 0.0206585, -93.9586
1, 2460.00000, 125.582, -30.5688, 125.677, -150.839, 125.108, 89.5032, 0, 0, 2.35945, -53.6427, 2.35767, -173.912, 2.36839, 66.4293, 0.0206585, -93.9586
1, 2520.00000, 125.582, -30.5688, 125.677, -150.839, 125.108, 89.5032, 0, 0, 2.35945, -53.6427, 2.35767, -173.912, 2.36839, 66.4293, 0.0206585, -93.9586
1, 2580.00000, 125.582, -30.5688, 125.677, -150.839, 125.108, 89.5032, 0, 0, 2.35945, -53.6427, 2.35767, -173.912, 2.36839, 66.4293, 0.0206585, -93.9586
1, 2640.00000, 125.582, -30.5688, 125.677, -150.839, 125.108, 89.5032, 0, 0, 2.35945, -53.6427, 2.35767, -173.912, 2.36839, 66.4293, 0.0206585, -93.9586
1, 2700.00000, 125.582, -30.5688, 125.677, -150.839, 125.108, 89.5032, 0, 0, 2.35945, -53.6427, 2.35767, -173.912, 2.36839, 66.4293, 0.0206585, -93.9586
1, 2760.00000, 125.582, -30.5688, 125.677, -150.839, 125.108, 89.5032, 0, 0, 2.35945, -53.6427, 2.35767, -173.912, 2.36839, 66.4293, 0.0206585, -93.9586
1, 2820.00000, 125.582, -30.5688, 125.677, -150.839, 125.108, 89.5032, 0, 0, 2.35945, -53.6427, 2.35767, -173.912, 2.36839, 66.4293, 0.0206585, -93.9586
1, 2880.00000, 125.582, -30.5688, 125.677, -150.839, 125.108, 89.5032, 0, 0, 2.35945, -53.6427, 2.35767, -173.912, 2.36839, 66.4293, 0.0206585, -93.9586
1, 2940.00000, 125.582, -30.5688, 125.677, -150.839, 125.108, 89.5032, 0, 0, 2.35945, -53.6427, 2.35767, -173.912, 2.36839, 66.4293, 0.0206585, -93.9586
1, 3000.00000, 125.582, -30.5688, 125.677, -150.839, 125.108, 89.5032, 0, 0, 2.35945, -53.6427, 2.35767, -173.912, 2.36839, 66.4293, 0.0206585, -93.9586
1, 3060.00000, 125.582, -30.5688, 125.677, -150.839, 125.108, 89.5032, 0, 0, 2.35945, -53.6427, 2.35767, -173.912, 2.36839, 66.4293, 0.0206585, -93.9586
1, 3120.00000, 125.582, -30.5688, 125.677, -150.839, 125.108, 89.5032, 0, 0, 2.35945, -53.6427, 2.35767, -173.912, 2.36839, 66.4293, 0.0206585, -93.9586
1, 3180.00000, 125.582, -30.5688, 125.677, -150.839, 125.108, 89.5032, 0, 0, 2.35945, -53.6427, 2.35767, -173.912, 2.36839, 66.4293, 0.0206585, -93.9586
1, 3240.00000, 125.582, -30.5688, 125.677, -150.839, 125.108, 89.5032, 0, 0, 2.35945, -53.6427, 2.35767, -173.912, 2.36839, 66.4293, 0.0206585, -93.9586
1, 3300.00000, 125.582, -30.5688, 125.677, -150.839, 125.108, 89.5032, 0, 0, 2.35945, -53.6427, 2.35767, -173.912, 2.36839, 66.4293, 0.0206585, -93.9586
1, 3360.00000, 125.582, -30.5688, 125.677, -150.839, 125.108, 89.5032, 0, 0, 2.35945, -53.6427, 2.35767, -173.912, 2.36839, 66.4293, 0.0206585, -93.9586
1, 3420.00000, 125.582, -30.5688, 125.677, -150.839, 125.108, 89.5032, 0, 0, 2.35945, -53.6427, 2.35767, -173.912, 2.36839, 66.4293, 0.0206585, -93.9586
1, 3480.00000, 125.665, -30.5743, 126.109, -150.554, 125.863, 89.4565, 0, 0, 2.35789, -53.6482, 2.34961, -173.628, 2.35422, 66.3821, 0.00634365, 154.149
1, 3540.00000, 125.665, -30.5743, 126.109, -150.554, 125.863, 89.4565, 0, 0, 2.35788, -53.6482, 2.3496, -173.628, 2.35418, 66.3826, 0.00633836, 153.77
2, 0.00000, 125.665, -30.5743, 126.109, -150.554, 125.863, 89.4565, 0, 0, 2.35788, -53.6482, 2.3496, -173.628, 2.35418, 66.3826, 0.0063383, 153.769
2, 60.00000, 125.665, -30.5743, 126.109, -150.554, 125.863, 89.4565, 0, 0, 2.35788, -53.6482, 2.3496, -173.628, 2.35418, 66.3826, 0.0063383, 153.769
2, 120.00000, 125.66, -30.5754, 126.103, -150.555, 125.858, 89.4554, 0, 0, 2.36451, -53.6493, 2.35619, -173.629, 2.36079, 66.3815, 0.00636404, 153.703
2, 180.00000, 125.654, -30.5766, 126.098, -150.556, 125.852, 89.4543, 0, 0, 2.37122, -53.6505, 2.36287, -173.63, 2.36748, 66.3805, 0.00639079, 153.655
2, 240.00000, 125.648, -30.5778, 126.093, -150.557, 125.847, 89.4532, 0, 0, 2.37786, -53.6517, 2.36947, -173.631, 2.3741, 66.3794, 0.0064173, 153.608
2, 300.00000, 125.642, -30.579, 126.088, -150.558, 125.842, 89.4521, 0, 0, 2.38449, -53.6529, 2.37606, -173.632, 2.38071, 66.3783, 0.00644386, 153.561
2, 360.00000, 125.636, -30.5802, 126.083, -150.559, 125.836, 89.4511, 0, 0, 2.39121, -53.6541, 2.38274, -173.633, 2.38741, 66.3772, 0.00647079, 153.513
2, 420.00000, 125.63, -30.5814, 126.077, -150.56, 125.831, 89.45, 0, 0, 2.39784, -53.6552, 2.38934, -173.634, 2.39402, 66.3761, 0.00649747, 153.467
2, 480.00000, 125.625, -30.5826, 126.072, -150.562, 125.825, 89.4489, 0, 0, 2.40448, -53.6564, 2.39594, -173.635, 2.40064, 66.375, 0.0065242, 153.42
2, 540.00000, 125.619, -30.5838, 126.067, -150.563, 125.82, 89.4478, 0, 0, 2.4112, -53.6576, 2.40262, -173.636, 2.40734, 66.3739, 0.0065513, 153.373
2, 600.00000, 125.613, -30.5849, 126.062, -150.564, 125.815, 89.4467, 0, 0, 2.41783, -53.6588, 2.40922, -173.638, 2.41396, 66.3729, 0.00657815, 153.327
