hour,t(sec),V1,VAngle1,V2,VAngle2,V3,VAngle3,V4,VAngle4,I1,IAngle1,I2,IAngle2,I3,IAngle3,I4,IAngle4
0, 60.00000, 124.268, -33.1539, 125.432, -150.33, 129.671, 87.7186, 0, 0, 2.51467, -56.2268, 2.49138, -173.404, 2.41, 64.6462, 0.203658, 77.2374
0, 120.00000, 124.27, -33.1852, 125.431, -150.328, 129.729, 87.7013, 0, 0, 2.51464, -56.2581, 2.49141, -173.402, 2.40893, 64.6288, 0.205919, 77.0993
0, 180.00000, 124.271, -33.2133, 125.429, -150.327, 129.781, 87.6856, 0, 0, 2.51461, -56.2864, 2.49144, -173.401, 2.40796, 64.613, 0.207956, 76.9775
0, 240.00000, 124.273, -33.2387, 125.428, -150.326, 129.828, 87.6715, 0, 0, 2.51458, -56.3118, 2.49147, -173.4, 2.40708, 64.5988, 0.209791, 76.8701
0, 300.00000, 124.274, -33.2615, 125.427, -150.325, 129.87, 87.6588, 0, 0, 2.51456, -56.3347, 2.49149, -173.398, 2.4063, 64.586, 0.211443, 76.7751
0, 360.00000, 124.275, -33.2821, 125.426, -150.324, 129.908, 87.6474, 0, 0, 2.51455, -56.3553, 2.49151, -173.398, 2.40559, 64.5745, 0.21293, 76.6911
0, 420.00000, 124.276, -33.3006, 125.425, -150.323, 129.942, 87.6371, 0, 0, 2.51453, -56.3739, 2.49153, -173.397, 2.40496, 64.5641, 0.214269, 76.6165
0, 480.00000, 124.277, -33.3172, 125.424, -150.322, 129.972, 87.6278, 0, 0, 2.51452, -56.3906, 2.49155, -173.396, 2.40439, 64.5547, 0.215475, 76.5502
0, 540.00000, 124.277, -33.3322, 125.423, -150.321, 130, 87.6194, 0, 0, 2.5145, -56.4056, 2.49157, -173.395, 2.40387, 64.5463, 0.21656, 76.4912
0, 600.00000, 124.278, -33.3457, 125.422, -150.321, 130.025, 87.6119, 0, 0, 2.51449, -56.4192, 2.49158, -173.395, 2.40341, 64.5387, 0.217537, 76.4387
0, 660.00000, 124.279, -33.3579, 125.422, -150.32, 130.047, 87.6051, 0, 0, 2.51448, -56.4314, 2.49159, -173.394, 2.403, 64.5318, 0.218417, 76.3919
0, 720.00000, 124.279, -33.3688, 125.421, -150.32, 130.067, 87.599, 0, 0, 2.51448, -56.4424, 2.4916, -173.393, 2.40262, 64.5256, 0.219209, 76.3501
0, 780.00000, 124.28, -33.3787, 125.421, -150.319, 130.085, 87.5935, 0, 0, 2.51447, -56.4523, 2.49161, -173.393, 2.40229, 64.5201, 0.219922, 76.3127
0, 840.00000, 124.28, -33.3875, 125.42, -150.319, 130.102, 87.5886, 0, 0, 2.51446, -56.4612, 2.49162, -173.393, 2.40198, 64.5151, 0.220563, 76.2793
0, 900.00000, 124.28, -33.3955, 125.42, -150.318, 130.116, 87.5841, 0, 0, 2.51446, -56.4692, 2.49163, -173.392, 2.40171, 64.5106, 0.221141, 76.2495
0, 960.00000, 124.281, -33.4027, 125.42, -150.318, 130.13, 87.5801, 0, 0, 2.51445, -56.4764, 2.49164, -173.392, 2.40147, 64.5065, 0.221661, 76.2227
0, 1020.00000, 124.281, -33.4092, 125.419, -150.318, 130.141, 87.5765, 0, 0, 2.51445, -56.4829, 2.49164, -173.391, 2.40125, 64.5029, 0.222129, 76.1988
0, 1080.00000, 124.281, -33.415, 125.419, -150.317, 130.152, 87.5732, 0, 0, 2.51444, -56.4887, 2.49165, -173.391, 2.40105, 64.4996, 0.22255, 76.1774
0, 1140.00000, 124.282, -33.4202, 125.419, -150.317, 130.162, 87.5703, 0, 0, 2.51444, -56.494, 2.49165, -173.391, 2.40087, 64.4966, 0.222929, 76.1581
0, 1200.00000, 124.282, -33.4249, 125.418, -150.317, 130.17, 87.5676, 0, 0, 2.51444, -56.4987, 2.49166, -173.391, 2.40071, 64.494, 0.22327, 76.1409
0, 1260.00000, 124.282, -33.4292, 125.418, -150.317, 130.178, 87.5653, 0, 0, 2.51443, -56.503, 2.49166, -173.391, 2.40056, 64.4916, 0.223578, 76.1254
0, 1320.00000, 124.282, -33.433, 125.418, -150.316, 130.185, 87.5631, 0, 0, 2.51443, -56.5068, 2.49167, -173.39, 2.40043, 64.4894, 0.223854, 76.1115
0, 1380.00000, 124.282, -33.4364, 125.418, -150.316, 130.191, 87.5612, 0, 0, 2.51443, -56.5102, 2.49167, -173.39, 2.40032, 64.4875, 0.224103, 76.099
0, 1440.00000, 124.282, -33.4395, 125.418, -150.316, 130.197, 87.5595, 0, 0, 2.51443, -56.5133, 2.49167, -173.39, 2.40021, 64.4857, 0.224327, 76.0879
0, 1500.00000, 124.283, -33.4423, 125.418, -150.316, 130.202, 87.5579, 0, 0, 2.51443, -56.5161, 2.49168, -173.39, 2.40012, 64.4841, 0.224528, 76.0778
0, 1560.00000, 124.283, -33.4448, 125.417, -150.316, 130.207, 87.5565, 0, 0, 2.51442, -56.5187, 2.49168, -173.39, 2.40003, 64.4827, 0.22471, 76.0688
0, 1620.00000, 124.283, -33.4471, 125.417, -150.316, 130.211, 87.5553, 0, 0, 2.51442, -56.5209, 2.49168, -173.39, 2.39996, 64.4815, 0.224873, 76.0607
0, 1680.00000, 124.283, -33.4491, 125.417, -150.316, 130.215, 87.5541, 0, 0, 2.51442, -56.523, 2.49168, -173.39, 2.39989, 64.4803, 0.22502, 76.0534
0, 1740.00000, 124.283, -33.4509, 125.417, -150.316, 130.218, 87.5531, 0, 0, 2.51442, -56.5248, 2.49168, -173.39, 2.39982, 64.4793, 0.225152, 76.0468
0, 1800.00000, 124.283, -33.4526, 125.417, -150.316, 130.221, 87.5522, 0, 0, 2.51442, -56.5265, 2.49169, -173.389, 2.39977, 64.4783, 0.225271, 76.0409
0, 1860.00000, 124.283, -33.4541, 125.417, -150.315, 130.224, 87.5513, 0, 0, 2.51442, -56.5279, 2.49169, -173.389, 2.39972, 64.4775, 0.225379, 76.0356
0, 1920.00000, 124.283, -33.4554, 125.417, -150.315, 130.226, 87.5506, 0, 0, 2.51442, -56.5293, 2.49169, -173.389, 2.39967, 64.4767, 0.225475, 76.0309
0, 1980.00000, 124.283, -33.4566, 125.417, -150.315, 130.228, 87.5499, 0, 0, 2.51442, -56.5305, 2.49169, -173.389, 2.39963, 64.4761, 0.225562, 76.0266
0, 2040.00000, 124.283, -33.4577, 125.417, -150.315, 130.23, 87.5493, 0, 0, 2.51442, -56.5316, 2.49169, -173.389, 2.3996, 64.4755, 0.22564, 76.0227
0, 2100.00000, 124.283, -33.4587, 125.417, -150.315, 130.232, 87.5488, 0, 0, 2.51442, -56.5325, 2.49169, -173.389, 2.39956, 64.4749, 0.22571, 76.0193
0, 2160.00000, 124.283, -33.4595, 125.417, -150.315, 130.234, 87.5483, 0, 0, 2.51442, -56.5334, 2.49169, -173.389, 2.39953, 64.4744, 0.225773, 76.0161
0, 2220.00000, 124.283, -33.4603, 125.417, -150.315, 130.235, 87.5478, 0, 0, 2.51441, -56.5342, 2.49169, -173.389, 2.39951, 64.474, 0.22583, 76.0133
0, 2280.00000, 124.283, -33.461, 125.417, -150.315, 130.237, 87.5474, 0, 0, 2.51441, -56.5349, 2.49169, -173.389, 2.39948, 64.4736, 0.225882, 76.0108
0, 2340.00000, 124.283, -33.4617, 125.417, -150.315, 130.238, 87.5471, 0, 0, 2.51441, -56.5356, 2.4917, -173.389, 2.39946, 64.4732, 0.225928, 76.0086
0, 2400.00000, 124.283, -33.4622, 125.417, -150.315, 130.239, 87.5468, 0, 0, 2.51441, -56.5361, 2.4917, -173.389, 2.39944, 64.4729, 0.225969, 76.0065
0, 2460.00000, 124.283, -33.4628, 125.417, -150.315, 130.24, 87.5465, 0, 0, 2.51441, -56.5367, 2.4917, -173.389, 2.39942, 64.4726, 0.226007, 76.0047
0, 2520.00000, 124.283, -33.4632, 125.417, -150.315, 130.241, 87.5462, 0, 0, 2.51441, -56.5371, 2.4917, -173.389, 2.39941, 64.4723, 0.22604, 76.003
0, 2580.00000, 124.283, -33.4636, 125.417, -150.315, 130.241, 87.546, 0, 0, 2.51441, -56.5375, 2.4917, -173.389, 2.39939, 64.4721, 0.226071, 76.0015
0, 2640.00000, 124.283, -33.464, 125.416, -150.315, 130.242, 87.5458, 0, 0, 2.51441, -56.5379, 2.4917, -173.389, 2.39938, 64.4719, 0.226098, 76.0002
0, 2700.00000, 124.283, -33.4644, 125.416, -150.315, 130.243, 87.5456, 0, 0, 2.51441, -56.5383, 2.4917, -173.389, 2.39937, 64.4717, 0.226122, 75.999
0, 2760.00000, 124.283, -33.4647, 125.416, -150.315, 130.243, 87.5454, 0, 0, 2.51441, -56.5386, 2.4917, -173.389, 2.39936, 64.4715, 0.226144, 75.9979
0, 2820.00000, 124.284, -33.4649, 125.416, -150.315, 130.244, 87.5453, 0, 0, 2.51441, -56.5388, 2.4917, -173.389, 2.39935, 64.4714, 0.226164, 75.9969
0, 2880.00000, 124.284, -33.4652, 125.416, -150.315, 130.244, 87.5451, 0, 0, 2.51441, -56.5391, 2.4917, -173.389, 2.39934, 64.4712, 0.226182, 75.9961
0, 2940.00000, 124.284, -33.4654, 125.416, -150.315, 130.245, 87.545, 0, 0, 2.51441, -56.5393, 2.4917, -173.389, 2.39933, 64.4711, 0.226198, 75.9953
0, 3000.00000, 124.284, -33.4656, 125.416, -150.315, 130.245, 87.5449, 0, 0, 2.51441, -56.5395, 2.4917, -173.389, 2.39933, 64.471, 0.226213, 75.9946
0, 3060.00000, 124.284, -33.4658, 125.416, -150.315, 130.245, 87.5448, 0, 0, 2.51441, -56.5397, 2.4917, -173.389, 2.39932, 64.4709, 0.226226, 75.9939
0, 3120.00000, 124.284, -33.4659, 125.416, -150.315, 130.246, 87.5447, 0, 0, 2.51441, -56.5399, 2.4917, -173.389, 2.39931, 64.4708, 0.226237, 75.9934
0, 3180.00000, 124.284, -33.4661, 125.416, -150.315, 130.246, 87.5446, 0, 0, 2.51441, -56.54, 2.4917, -173.389, 2.39931, 64.4707, 0.226248, 75.9928
0, 3240.00000, 124.284, -33.4662, 125.416, -150.315, 130.246, 87.5445, 0, 0, 2.51441, -56.5401, 2.4917, -173.389, 2.3993, 64.4706, 0.226257, 75.9924
0, 3300.00000, 124.284, -33.4663, 125.416, -150.315, 130.246, 87.5445, 0, 0, 2.51441, -56.5402, 2.4917, -173.389, 2.3993, 64.4706, 0.226266, 75.992
0, 3360.00000, 124.284, -33.4664, 125.416, -150.315, 130.246, 87.5444, 0, 0, 2.51441, -56.5404, 2.4917, -173.389, 2.3993, 64.4705, 0.226274, 75.9916
0, 3420.00000, 124.284, -33.4665, 125.416, -150.315, 130.247, 87.5444, 0, 0, 2.51441, -56.5405, 2.4917, -173.389, 2.39929, 64.4704, 0.226281, 75.9912
0, 3480.00000, 124.284, -33.4666, 125.416, -150.315, 130.247, 87.5443, 0, 0, 2.51441, -56.5405, 2.4917, -173.389, 2.39929, 64.4704, 0.226287, 75.9909
0, 3540.00000, 124.284, -33.4667, 125.416, -150.315, 130.247, 87.5443, 0, 0, 2.51441, -56.5406, 2.4917, -173.389, 2.39929, 64.4704, 0.226293, 75.9907
1, 0.00000, 124.284, -33.4668, 125.416, -150.315, 130.247, 87.5442, 0, 0, 2.51441, -56.5407, 2.4917, -173.389, 2.39929, 64.4703, 0.226298, 75.9904
1, 60.00000, 124.284, -33.4668, 125.416, -150.315, 130.247, 87.5442, 0, 0, 2.51441, -56.5407, 2.4917, -173.389, 2.39928, 64.4703, 0.226302, 75.9902
1, 120.00000, 124.284, -33.4669, 125.416, -150.315, 130.247, 87.5442, 0, 0, 2.51441, -56.5408, 2.4917, -173.389, 2.39928, 64.4702, 0.226306, 75.99
1, 180.00000, 124.284, -33.4669, 125.416, -150.315, 130.247, 87.5441, 0, 0, 2.51441, -56.5409, 2.4917, -173.389, 2.39928, 64.4702, 0.22631, 75.9898
1, 240.00000, 124.284, -33.467, 125.416, -150.315, 130.247, 87.5441, 0, 0, 2.51441, -56.5409, 2.4917, -173.389, 2.39928, 64.4702, 0.226313, 75.9897
1, 300.00000, 124.284, -33.467, 125.416, -150.315, 130.248, 87.5441, 0, 0, 2.51441, -56.5409, 2.4917, -173.389, 2.39928, 64.4702, 0.226316, 75.9895
1, 360.00000, 124.284, -33.4671, 125.416, -150.315, 130.248, 87.5441, 0, 0, 2.51441, -56.541, 2.4917, -173.389, 2.39928, 64.4701, 0.226319, 75.9894
1, 420.00000, 124.284, -33.4671, 125.416, -150.315, 130.248, 87.544, 0, 0, 2.51441, -56.541, 2.4917, -173.389, 2.39928, 64.4701, 0.226321, 75.9893
1, 480.00000, 124.284, -33.4671, 125.416, -150.315, 130.248, 87.544, 0, 0, 2.51441, -56.541, 2.4917, -173.389, 2.39927, 64.4701, 0.226323, 75.9892
1, 540.00000, 124.284, -33.4672, 125.416, -150.315, 130.248, 87.544, 0, 0, 2.51441, -56.5411, 2.4917, -173.389, 2.39927, 64.4701, 0.226325, 75.9891
1, 600.00000, 124.284, -33.4672, 125.416, -150.315, 130.248, 87.544, 0, 0, 2.51441, -56.5411, 2.4917, -173.389, 2.39927, 64.4701, 0.226327, 75.989
1, 660.00000, 124.284, -33.4672, 125.416, -150.315, 130.248, 87.544, 0, 0, 2.51441, -56.5411, 2.4917, -173.389, 2.39927, 64.4701, 0.226329, 75.9889
1, 720.00000, 124.284, -33.4672, 125.416, -150.315, 130.248, 87.544, 0, 0, 2.51441, -56.5411, 2.4917, -173.389, 2.39927, 64.4701, 0.22633, 75.9888
1, 780.00000, 124.284, -33.4672, 125.416, -150.315, 130.248, 87.544, 0, 0, 2.51441, -56.5412, 2.4917, -173.389, 2.39927, 64.47, 0.226331, 75.9888
1, 840.00000, 124.284, -33.4673, 125.416, -150.315, 130.248, 87.544, 0, 0, 2.51441, -56.5412, 2.4917, -173.389, 2.39927, 64.47, 0.226333, 75.9887
1, 900.00000, 124.284, -33.4673, 125.416, -150.315, 130.248, 87.544, 0, 0, 2.51441, -56.5412, 2.4917, -173.389, 2.39927, 64.47, 0.226334, 75.9887
1, 960.00000, 124.284, -33.4673, 125.416, -150.315, 130.248, 87.5439, 0, 0, 2.51441, -56.5412, 2.4917, -173.389, 2.39927, 64.47, 0.226335, 75.9886
1, 1020.00000, 124.284, -33.4673, 125.416, -150.315, 130.248, 87.5439, 0, 0, 2.51441, -56.5412, 2.4917, -173.389, 2.39927, 64.47, 0.226335, 75.9886
1, 1080.00000, 124.284, -33.4673, 125.416, -150.315, 130.248, 87.5439, 0, 0, 2.51441, -56.5412, 2.4917, -173.389, 2.39927, 64.47, 0.226336, 75.9885
1, 1140.00000, 124.284, -33.4673, 125.416, -150.315, 130.248, 87.5439, 0, 0, 2.51441, -56.5412, 2.4917, -173.389, 2.39927, 64.47, 0.226337, 75.9885
1, 1200.00000, 124.284, -33.4673, 125.416, -150.315, 130.248, 87.5439, 0, 0, 2.51441, -56.5412, 2.4917, -173.389, 2.39927, 64.47, 0.226337, 75.9885
1, 1260.00000, 124.284, -33.4673, 125.416, -150.315, 130.248, 87.5439, 0, 0, 2.51441, -56.5412, 2.4917, -173.389, 2.39927, 64.47, 0.226338, 75.9884
1, 1320.00000, 124.284, -33.4673, 125.416, -150.315, 130.248, 87.5439, 0, 0, 2.51441, -56.5413, 2.4917, -173.389, 2.39927, 64.47, 0.226339, 75.9884
1, 1380.00000, 124.284, -33.4673, 125.416, -150.315, 130.248, 87.5439, 0, 0, 2.51441, -56.5413, 2.4917, -173.389, 2.39927, 64.47, 0.226339, 75.9884
1, 1440.00000, 124.284, -33.4674, 125.416, -150.315, 130.248, 87.5439, 0, 0, 2.51441, -56.5413, 2.4917, -173.389, 2.39927, 64.47, 0.226339, 75.9884
1, 1500.00000, 124.284, -33.4674, 125.416, -150.315, 130.248, 87.5439, 0, 0, 2.51441, -56.5413, 2.4917, -173.389, 2.39927, 64.47, 0.22634, 75.9884
1, 1560.00000, 124.284, -33.4674, 125.416, -150.315, 130.248, 87.5439, 0, 0, 2.51441, -56.5413, 2.4917, -173.389, 2.39927, 64.47, 0.22634, 75.9883
1, 1620.00000, 124.284, -33.4674, 125.416, -150.315, 130.248, 87.5439, 0, 0, 2.51441, -56.5413, 2.4917, -173.389, 2.39927, 64.47, 0.22634, 75.9883
1, 1680.00000, 124.284, -33.4674, 125.416, -150.315, 130.248, 87.5439, 0, 0, 2.51441, -56.5413, 2.4917, -173.389, 2.39927, 64.47, 0.226341, 75.9883
1, 1740.00000, 124.284, -33.4674, 125.416, -150.315, 130.248, 87.5439, 0, 0, 2.51441, -56.5413, 2.4917, -173.389, 2.39927, 64.47, 0.226341, 75.9883
1, 1800.00000, 124.284, -33.4674, 125.416, -150.315, 130.248, 87.5439, 0, 0, 2.51441, -56.5413, 2.4917, -173.389, 2.39927, 64.47, 0.226341, 75.9883
1, 1860.00000, 124.284, -33.4674, 125.416, -150.315, 130.248, 87.5439, 0, 0, 2.51441, -56.5413, 2.4917, -173.389, 2.39927, 64.47, 0.226341, 75.9883
1, 1920.00000, 124.284, -33.4674, 125.416, -150.315, 130.248, 87.5439, 0, 0, 2.51441, -56.5413, 2.4917, -173.389, 2.39927, 64.47, 0.226341, 75.9883
1, 1980.00000, 124.284, -33.4674, 125.416, -150.315, 130.248, 87.5439, 0, 0, 2.51441, -56.5413, 2.4917, -173.389, 2.39927, 64.47, 0.226342, 75.9883
1, 2040.00000, 124.284, -33.4674, 125.416, -150.315, 130.248, 87.5439, 0, 0, 2.51441, -56.5413, 2.4917, -173.389, 2.39927, 64.47, 0.226342, 75.9883
1, 2100.00000, 124.284, -33.4674, 125.416, -150.315, 130.248, 87.5439, 0, 0, 2.51441, -56.5413, 2.4917, -173.389, 2.39927, 64.47, 0.226342, 75.9883
1, 2160.00000, 124.284, -33.4674, 125.416, -150.315, 130.248, 87.5439, 0, 0, 2.51441, -56.5413, 2.4917, -173.389, 2.39927, 64.47, 0.226342, 75.9883
1, 2220.00000, 124.284, -33.4674, 125.416, -150.315, 130.248, 87.5439, 0, 0, 2.51441, -56.5413, 2.4917, -173.389, 2.39927, 64.47, 0.226342, 75.9882
1, 2280.00000, 124.284, -33.4674, 125.416, -150.315, 130.248, 87.5439, 0, 0, 2.51441, -56.5413, 2.4917, -173.389, 2.39927, 64.47, 0.226342, 75.9882
1, 2340.00000, 124.284, -33.4674, 125.416, -150.315, 130.248, 87.5439, 0, 0, 2.51441, -56.5413, 2.4917, -173.389, 2.39927, 64.47, 0.226342, 75.9882
1, 2400.00000, 124.284, -33.4674, 125.416, -150.315, 130.248, 87.5439, 0, 0, 2.51441, -56.5413, 2.4917, -173.389, 2.39927, 64.47, 0.226342, 75.9882
1, 2460.00000, 124.284, -33.4674, 125.416, -150.315, 130.248, 87.5439, 0, 0, 2.51441, -56.5413, 2.4917, -173.389, 2.39927, 64.47, 0.226342, 75.9882
1, 2520.00000, 124.284, -33.4674, 125.416, -150.315, 130.248, 87.5439, 0, 0, 2.51441, -56.5413, 2.4917, -173.389, 2.39927, 64.47, 0.226342, 75.9882
1, 2580.00000, 124.284, -33.4674, 125.416, -150.315, 130.248, 87.5439, 0, 0, 2.51441, -56.5413, 2.4917, -173.389, 2.39927, 64.47, 0.226342, 75.9882
1, 2640.00000, 124.284, -33.4674, 125.416, -150.315, 130.248, 87.5439, 0, 0, 2.51441, -56.5413, 2.4917, -173.389, 2.39927, 64.47, 0.226343, 75.9882
1, 2700.00000, 124.284, -33.4674, 125.416, -150.315, 130.248, 87.5439, 0, 0, 2.51441, -56.5413, 2.4917, -173.389, 2.39927, 64.47, 0.226343, 75.9882
1, 2760.00000, 125.701, -33.6735, 125.322, -150.321, 131.513, 87.8898, 0, 0, 2.48606, -56.7474, 2.49358, -173.395, 2.3762, 64.8159, 0.238698, 64.5154
1, 2820.00000, 125.701, -33.6735, 125.322, -150.321, 131.513, 87.8898, 0, 0, 2.48606, -56.7474, 2.49358, -173.395, 2.3762, 64.8159, 0.238699, 64.5158
1, 2880.00000, 125.701, -33.6735, 125.322, -150.321, 131.513, 87.8898, 0, 0, 2.48606, -56.7474, 2.49358, -173.395, 2.3762, 64.8159, 0.238699, 64.5158
1, 2940.00000, 125.701, -33.6735, 125.322, -150.321, 131.513, 87.8898, 0, 0, 2.48606, -56.7474, 2.49358, -173.395, 2.3762, 64.8159, 0.238699, 64.5158
1, 3000.00000, 125.701, -33.6735, 125.322, -150.321, 131.513, 87.8898, 0, 0, 2.48606, -56.7474, 2.49358, -173.395, 2.3762, 64.8159, 0.238699, 64.5158
1, 3060.00000, 125.701, -33.6735, 125.322, -150.321, 131.513, 87.8898, 0, 0, 2.48606, -56.7474, 2.49358, -173.395, 2.3762, 64.8159, 0.238699, 64.5158
1, 3120.00000, 125.701, -33.6735, 125.322, -150.321, 131.513, 87.8898, 0, 0, 2.48606, -56.7474, 2.49358, -173.395, 2.3762, 64.8159, 0.238699, 64.5158
1, 3180.00000, 125.701, -33.6735, 125.322, -150.321, 131.513, 87.8898, 0, 0, 2.48606, -56.7474, 2.49358, -173.395, 2.3762, 64.8159, 0.238699, 64.5158
1, 3240.00000, 125.701, -33.6735, 125.322, -150.321, 131.513, 87.8898, 0, 0, 2.48606, -56.7474, 2.49358, -173.395, 2.3762, 64.8159, 0.238699, 64.5158
1, 3300.00000, 125.701, -33.6735, 125.322, -150.321, 131.513, 87.8898, 0, 0, 2.48606, -56.7474, 2.49358, -173.395, 2.3762, 64.8159, 0.238699, 64.5158
1, 3360.00000, 125.701, -33.6735, 125.322, -150.321, 131.513, 87.8898, 0, 0, 2.48606, -56.7474, 2.49358, -173.395, 2.3762, 64.8159, 0.238699, 64.5158
1, 3420.00000, 125.701, -33.6735, 125.322, -150.321, 131.513, 87.8898, 0, 0, 2.48606, -56.7474, 2.49358, -173.395, 2.3762, 64.8159, 0.238699, 64.5158
1, 3480.00000, 125.701, -33.6735, 125.322, -150.321, 131.513, 87.8898, 0, 0, 2.48606, -56.7474, 2.49358, -173.395, 2.3762, 64.8159, 0.238699, 64.5158
1, 3540.00000, 125.701, -33.6735, 125.322, -150.321, 131.513, 87.8898, 0, 0, 2.48606, -56.7474, 2.49358, -173.395, 2.3762, 64.8159, 0.238699, 64.5158
2, 0.00000, 125.701, -33.6735, 125.322, -150.321, 131.513, 87.8898, 0, 0, 2.48606, -56.7474, 2.49358, -173.395, 2.3762, 64.8159, 0.238699, 64.5158
2, 60.00000, 125.701, -33.6735, 125.322, -150.321, 131.513, 87.8898, 0, 0, 2.48606, -56.7474, 2.49358, -173.395, 2.3762, 64.8159, 0.238699, 64.5158
2, 120.00000, 125.693, -33.6743, 125.315, -150.323, 131.506, 87.889, 0, 0, 2.49309, -56.7483, 2.50061, -173.396, 2.38289, 64.8151, 0.23938, 64.5173
2, 180.00000, 125.685, -33.6752, 125.309, -150.324, 131.499, 87.8882, 0, 0, 2.50021, -56.7491, 2.50773, -173.397, 2.38967, 64.8143, 0.240069, 64.5188
2, 240.00000, 125.678, -33.6761, 125.302, -150.325, 131.492, 87.8875, 0, 0, 2.50724, -56.75, 2.51476, -173.399, 2.39637, 64.8135, 0.24075, 64.5203
2, 300.00000, 125.67, -33.6769, 125.295, -150.326, 131.485, 87.8867, 0, 0, 2.51428, -56.7508, 2.5218, -173.4, 2.40307, 64.8128, 0.241431, 64.5218
2, 360.00000, 125.662, -33.6778, 125.288, -150.327, 131.479, 87.8859, 0, 0, 2.5214, -56.7517, 2.52892, -173.401, 2.40985, 64.812, 0.242121, 64.5233
2, 420.00000, 125.654, -33.6786, 125.282, -150.328, 131.472, 87.8851, 0, 0, 2.52843, -56.7525, 2.53595, -173.402, 2.41655, 64.8112, 0.242802, 64.5248
2, 480.00000, 125.646, -33.6795, 125.275, -150.329, 131.465, 87.8843, 0, 0, 2.53547, -56.7534, 2.54299, -173.403, 2.42325, 64.8104, 0.243484, 64.5263
2, 540.00000, 125.639, -33.6803, 125.268, -150.33, 131.458, 87.8836, 0, 0, 2.54259, -56.7543, 2.55011, -173.404, 2.43004, 64.8096, 0.244174, 64.5278
2, 600.00000, 125.631, -33.6812, 125.262, -150.331, 131.451, 87.8828, 0, 0, 2.54963, -56.7551, 2.55715, -173.405, 2.43674, 64.8089, 0.244856, 64.5293
2, 660.00000, 125.623, -33.6821, 125.255, -150.332, 131.444, 87.882, 0, 0, 2.55667, -56.756, 2.56419, -173.406, 2.44344, 64.8081, 0.245538, 64.5308
2, 720.00000, 125.615, -33.6829, 125.248, -150.333, 131.438, 87.8812, 0, 0, 2.5638, -56.7568, 2.57131, -173.407, 2.45023, 64.8073, 0.246228, 64.5323
2, 780.00000, 125.608, -33.6838, 125.241, -150.334, 131.431, 87.8804, 0, 0, 2.57084, -56.7577, 2.57836, -173.408, 2.45693, 64.8065, 0.24691, 64.5338
