hour,t(sec),V1,VAngle1,V2,VAngle2,V3,VAngle3,V4,VAngle4,I1,IAngle1,I2,IAngle2,I3,IAngle3,I4,IAngle4
0, 60.00000, 124.788, -33.3262, 123.722, -150.687, 129.078, 88.3129, 0, 0, 2.00333, -56.3992, 2.02067, -173.761, 1.93687, 65.241, 0.156956, 55.5066
0, 120.00000, 124.79, -33.3577, 123.721, -150.686, 129.137, 88.2949, 0, 0, 2.00331, -56.4307, 2.02069, -173.76, 1.93598, 65.2228, 0.1588, 55.6315
0, 180.00000, 124.791, -33.386, 123.72, -150.684, 129.19, 88.2787, 0, 0, 2.00329, -56.4591, 2.0207, -173.758, 1.93518, 65.2064, 0.160461, 55.7414
0, 240.00000, 124.793, -33.4115, 123.719, -150.683, 129.238, 88.2641, 0, 0, 2.00327, -56.4847, 2.02072, -173.757, 1.93446, 65.1917, 0.161957, 55.8385
0, 300.00000, 124.794, -33.4345, 123.718, -150.682, 129.281, 88.2509, 0, 0, 2.00326, -56.5077, 2.02074, -173.756, 1.93381, 65.1784, 0.163303, 55.9246
0, 360.00000, 124.795, -33.4551, 123.717, -150.681, 129.32, 88.2391, 0, 0, 2.00325, -56.5285, 2.02075, -173.755, 1.93323, 65.1664, 0.164515, 56.001
0, 420.00000, 124.796, -33.4737, 123.716, -150.68, 129.355, 88.2284, 0, 0, 2.00324, -56.5471, 2.02076, -173.754, 1.9327, 65.1556, 0.165606, 56.0688
0, 480.00000, 124.796, -33.4905, 123.715, -150.679, 129.386, 88.2188, 0, 0, 2.00323, -56.5639, 2.02077, -173.753, 1.93223, 65.1458, 0.166588, 56.1292
0, 540.00000, 124.797, -33.5056, 123.715, -150.678, 129.414, 88.2101, 0, 0, 2.00322, -56.5791, 2.02078, -173.752, 1.93181, 65.1371, 0.167472, 56.183
0, 600.00000, 124.798, -33.5192, 123.714, -150.678, 129.439, 88.2023, 0, 0, 2.00321, -56.5927, 2.02079, -173.751, 1.93143, 65.1292, 0.168268, 56.231
0, 660.00000, 124.798, -33.5314, 123.714, -150.677, 129.462, 88.1952, 0, 0, 2.00321, -56.605, 2.0208, -173.751, 1.93109, 65.1221, 0.168984, 56.2738
0, 720.00000, 124.799, -33.5424, 123.713, -150.676, 129.483, 88.1889, 0, 0, 2.0032, -56.616, 2.0208, -173.75, 1.93078, 65.1157, 0.169629, 56.3121
0, 780.00000, 124.799, -33.5523, 123.713, -150.676, 129.501, 88.1832, 0, 0, 2.0032, -56.6259, 2.02081, -173.75, 1.9305, 65.1099, 0.170209, 56.3463
0, 840.00000, 124.799, -33.5612, 123.713, -150.675, 129.518, 88.1781, 0, 0, 2.0032, -56.6349, 2.02082, -173.749, 1.93025, 65.1047, 0.170732, 56.3769
0, 900.00000, 124.8, -33.5693, 123.712, -150.675, 129.533, 88.1734, 0, 0, 2.00319, -56.6429, 2.02082, -173.749, 1.93003, 65.1, 0.171202, 56.4043
0, 960.00000, 123.51, -34.0456, 122.227, -150.386, 129.587, 88.141, 0, 0, 2.02412, -57.1194, 2.04537, -173.46, 1.92922, 65.0676, 0.219136, 56.822
0, 1020.00000, 123.51, -34.0521, 122.227, -150.385, 129.599, 88.1373, 0, 0, 2.02412, -57.1259, 2.04537, -173.459, 1.92904, 65.0638, 0.219514, 56.8381
0, 1080.00000, 123.51, -34.0579, 122.227, -150.385, 129.609, 88.1339, 0, 0, 2.02411, -57.1317, 2.04538, -173.459, 1.92888, 65.0603, 0.219856, 56.8528
0, 1140.00000, 123.51, -34.0632, 122.227, -150.385, 129.619, 88.1308, 0, 0, 2.02411, -57.137, 2.04538, -173.459, 1.92874, 65.0572, 0.220164, 56.866
0, 1200.00000, 123.511, -34.0679, 122.227, -150.384, 129.628, 88.1281, 0, 0, 2.02411, -57.1417, 2.04538, -173.458, 1.9286, 65.0545, 0.220441, 56.8779
0, 1260.00000, 123.511, -34.0722, 122.227, -150.384, 129.636, 88.1256, 0, 0, 2.0241, -57.146, 2.04538, -173.458, 1.92849, 65.052, 0.22069, 56.8885
0, 1320.00000, 123.511, -34.076, 122.227, -150.384, 129.643, 88.1234, 0, 0, 2.0241, -57.1499, 2.04538, -173.458, 1.92838, 65.0497, 0.220914, 56.8981
0, 1380.00000, 123.511, -34.0795, 122.227, -150.384, 129.649, 88.1214, 0, 0, 2.0241, -57.1533, 2.04538, -173.458, 1.92828, 65.0477, 0.221116, 56.9067
0, 1440.00000, 123.511, -34.0826, 122.227, -150.384, 129.655, 88.1196, 0, 0, 2.0241, -57.1564, 2.04538, -173.458, 1.9282, 65.0459, 0.221298, 56.9144
0, 1500.00000, 123.511, -34.0854, 122.227, -150.383, 129.66, 88.118, 0, 0, 2.0241, -57.1592, 2.04538, -173.457, 1.92812, 65.0442, 0.221461, 56.9213
0, 1560.00000, 123.512, -34.0879, 122.227, -150.383, 129.665, 88.1165, 0, 0, 2.0241, -57.1618, 2.04538, -173.457, 1.92805, 65.0427, 0.221608, 56.9276
0, 1620.00000, 123.512, -34.0902, 122.227, -150.383, 129.669, 88.1152, 0, 0, 2.02409, -57.164, 2.04538, -173.457, 1.92799, 65.0414, 0.221741, 56.9332
0, 1680.00000, 123.512, -34.0922, 122.227, -150.383, 129.673, 88.114, 0, 0, 2.02409, -57.1661, 2.04538, -173.457, 1.92793, 65.0402, 0.22186, 56.9382
0, 1740.00000, 123.512, -34.0941, 122.227, -150.383, 129.676, 88.1129, 0, 0, 2.02409, -57.1679, 2.04538, -173.457, 1.92788, 65.0391, 0.221967, 56.9428
0, 1800.00000, 123.512, -34.0957, 122.227, -150.383, 129.679, 88.112, 0, 0, 2.02409, -57.1696, 2.04538, -173.457, 1.92783, 65.0382, 0.222064, 56.9468
0, 1860.00000, 123.512, -34.0972, 122.226, -150.383, 129.682, 88.1111, 0, 0, 2.02409, -57.1711, 2.04538, -173.457, 1.92779, 65.0373, 0.222151, 56.9505
0, 1920.00000, 123.512, -34.0985, 122.226, -150.383, 129.685, 88.1103, 0, 0, 2.02409, -57.1724, 2.04538, -173.457, 1.92775, 65.0365, 0.222229, 56.9538
0, 1980.00000, 123.512, -34.0997, 122.226, -150.383, 129.687, 88.1096, 0, 0, 2.02409, -57.1736, 2.04538, -173.457, 1.92772, 65.0358, 0.222299, 56.9568
0, 2040.00000, 123.512, -34.1008, 122.226, -150.383, 129.689, 88.109, 0, 0, 2.02409, -57.1747, 2.04539, -173.457, 1.92769, 65.0352, 0.222362, 56.9595
0, 2100.00000, 123.512, -34.1018, 122.226, -150.383, 129.691, 88.1084, 0, 0, 2.02409, -57.1757, 2.04539, -173.456, 1.92766, 65.0346, 0.222419, 56.9619
0, 2160.00000, 123.512, -34.1027, 122.226, -150.382, 129.692, 88.1079, 0, 0, 2.02409, -57.1766, 2.04539, -173.456, 1.92764, 65.0341, 0.222471, 56.964
0, 2220.00000, 123.512, -34.1035, 122.226, -150.382, 129.694, 88.1075, 0, 0, 2.02409, -57.1774, 2.04539, -173.456, 1.92762, 65.0336, 0.222517, 56.966
0, 2280.00000, 123.512, -34.1042, 122.226, -150.382, 129.695, 88.1071, 0, 0, 2.02409, -57.1781, 2.04539, -173.456, 1.9276, 65.0332, 0.222559, 56.9677
0, 2340.00000, 123.512, -34.1048, 122.226, -150.382, 129.696, 88.1067, 0, 0, 2.02409, -57.1787, 2.04539, -173.456, 1.92758, 65.0328, 0.222596, 56.9693
0, 2400.00000, 123.512, -34.1054, 122.226, -150.382, 129.697, 88.1064, 0, 0, 2.02409, -57.1793, 2.04539, -173.456, 1.92756, 65.0325, 0.22263, 56.9707
0, 2460.00000, 123.512, -34.1059, 122.226, -150.382, 129.698, 88.1061, 0, 0, 2.02409, -57.1798, 2.04539, -173.456, 1.92755, 65.0322, 0.22266, 56.972
0, 2520.00000, 123.512, -34.1064, 122.226, -150.382, 129.699, 88.1058, 0, 0, 2.02409, -57.1803, 2.04539, -173.456, 1.92754, 65.0319, 0.222687, 56.9731
0, 2580.00000, 123.512, -34.1068, 122.226, -150.382, 129.7, 88.1055, 0, 0, 2.02409, -57.1807, 2.04539, -173.456, 1.92753, 65.0317, 0.222712, 56.9742
0, 2640.00000, 123.512, -34.1072, 122.226, -150.382, 129.701, 88.1053, 0, 0, 2.02409, -57.1811, 2.04539, -173.456, 1.92751, 65.0314, 0.222734, 56.9751
0, 2700.00000, 123.513, -34.1075, 122.226, -150.382, 129.701, 88.1051, 0, 0, 2.02409, -57.1814, 2.04539, -173.456, 1.92751, 65.0312, 0.222754, 56.9759
0, 2760.00000, 123.513, -34.1078, 122.226, -150.382, 129.702, 88.1049, 0, 0, 2.02409, -57.1817, 2.04539, -173.456, 1.9275, 65.0311, 0.222772, 56.9767
0, 2820.00000, 123.513, -34.1081, 122.226, -150.382, 129.702, 88.1048, 0, 0, 2.02409, -57.182, 2.04539, -173.456, 1.92749, 65.0309, 0.222788, 56.9773
0, 2880.00000, 123.513, -34.1084, 122.226, -150.382, 129.703, 88.1046, 0, 0, 2.02409, -57.1823, 2.04539, -173.456, 1.92748, 65.0307, 0.222802, 56.978
0, 2940.00000, 123.513, -34.1086, 122.226, -150.382, 129.703, 88.1045, 0, 0, 2.02409, -57.1825, 2.04539, -173.456, 1.92748, 65.0306, 0.222815, 56.9785
0, 3000.00000, 123.513, -34.1088, 122.226, -150.382, 129.704, 88.1044, 0, 0, 2.02409, -57.1827, 2.04539, -173.456, 1.92747, 65.0305, 0.222827, 56.979
0, 3060.00000, 123.513, -34.109, 122.226, -150.382, 129.704, 88.1043, 0, 0, 2.02409, -57.1829, 2.04539, -173.456, 1.92747, 65.0304, 0.222838, 56.9794
0, 3120.00000, 123.513, -34.1091, 122.226, -150.382, 129.704, 88.1042, 0, 0, 2.02408, -57.183, 2.04539, -173.456, 1.92746, 65.0303, 0.222847, 56.9798
0, 3180.00000, 123.513, -34.1093, 122.226, -150.382, 129.705, 88.1041, 0, 0, 2.02408, -57.1832, 2.04539, -173.456, 1.92746, 65.0302, 0.222856, 56.9802
0, 3240.00000, 123.513, -34.1094, 122.226, -150.382, 129.705, 88.104, 0, 0, 2.02408, -57.1833, 2.04539, -173.456, 1.92745, 65.0301, 0.222863, 56.9805
0, 3300.00000, 123.513, -34.1095, 122.226, -150.382, 129.705, 88.104, 0, 0, 2.02408, -57.1834, 2.04539, -173.456, 1.92745, 65.0301, 0.22287, 56.9808
0, 3360.00000, 123.513, -34.1096, 122.226, -150.382, 129.705, 88.1039, 0, 0, 2.02408, -57.1835, 2.04539, -173.456, 1.92745, 65.03, 0.222876, 56.9811
0, 3420.00000, 123.513, -34.1097, 122.226, -150.382, 129.705, 88.1039, 0, 0, 2.02408, -57.1836, 2.04539, -173.456, 1.92744, 65.0299, 0.222882, 56.9813
0, 3480.00000, 123.513, -34.1098, 122.226, -150.382, 129.706, 88.1038, 0, 0, 2.02408, -57.1837, 2.04539, -173.456, 1.92744, 65.0299, 0.222887, 56.9815
0, 3540.00000, 123.513, -34.1099, 122.226, -150.382, 129.706, 88.1038, 0, 0, 2.02408, -57.1838, 2.04539, -173.456, 1.92744, 65.0298, 0.222892, 56.9817
1, 0.00000, 123.513, -34.11, 122.226, -150.382, 129.706, 88.1037, 0, 0, 2.02408, -57.1839, 2.04539, -173.456, 1.92744, 65.0298, 0.222896, 56.9819
1, 60.00000, 123.513, -34.11, 122.226, -150.382, 129.706, 88.1037, 0, 0, 2.02408, -57.1839, 2.04539, -173.456, 1.92744, 65.0298, 0.222899, 56.982
1, 120.00000, 123.513, -34.1101, 122.226, -150.382, 129.706, 88.1036, 0, 0, 2.02408, -57.184, 2.04539, -173.456, 1.92743, 65.0297, 0.222903, 56.9822
1, 180.00000, 123.513, -34.1101, 122.226, -150.382, 129.706, 88.1036, 0, 0, 2.02408, -57.184, 2.04539, -173.456, 1.92743, 65.0297, 0.222906, 56.9823
1, 240.00000, 123.513, -34.1102, 122.226, -150.382, 129.706, 88.1036, 0, 0, 2.02408, -57.1841, 2.04539, -173.456, 1.92743, 65.0297, 0.222908, 56.9824
1, 300.00000, 123.513, -34.1102, 122.226, -150.382, 129.706, 88.1036, 0, 0, 2.02408, -57.1841, 2.04539, -173.456, 1.92743, 65.0296, 0.222911, 56.9825
1, 360.00000, 123.513, -34.1103, 122.226, -150.382, 129.706, 88.1035, 0, 0, 2.02408, -57.1842, 2.04539, -173.456, 1.92743, 65.0296, 0.222913, 56.9826
1, 420.00000, 123.513, -34.1103, 122.226, -150.382, 129.706, 88.1035, 0, 0, 2.02408, -57.1842, 2.04539, -173.456, 1.92743, 65.0296, 0.222915, 56.9827
1, 480.00000, 123.513, -34.1103, 122.226, -150.382, 129.707, 88.1035, 0, 0, 2.02408, -57.1842, 2.04539, -173.456, 1.92743, 65.0296, 0.222917, 56.9828
1, 540.00000, 123.513, -34.1103, 122.226, -150.382, 129.707, 88.1035, 0, 0, 2.02408, -57.1843, 2.04539, -173.456, 1.92743, 65.0296, 0.222918, 56.9828
1, 600.00000, 123.513, -34.1104, 122.226, -150.382, 129.707, 88.1035, 0, 0, 2.02408, -57.1843, 2.04539, -173.456, 1.92743, 65.0296, 0.22292, 56.9829
1, 660.00000, 123.513, -34.1104, 122.226, -150.382, 129.707, 88.1035, 0, 0, 2.02408, -57.1843, 2.04539, -173.456, 1.92743, 65.0295, 0.222921, 56.9829
1, 720.00000, 123.513, -34.1104, 122.226, -150.382, 129.707, 88.1034, 0, 0, 2.02408, -57.1843, 2.04539, -173.456, 1.92743, 65.0295, 0.222922, 56.983
1, 780.00000, 123.513, -34.1104, 122.226, -150.382, 129.707, 88.1034, 0, 0, 2.02408, -57.1843, 2.04539, -173.456, 1.92743, 65.0295, 0.222923, 56.983
1, 840.00000, 123.513, -34.1104, 122.226, -150.382, 129.707, 88.1034, 0, 0, 2.02408, -57.1844, 2.04539, -173.456, 1.92742, 65.0295, 0.222924, 56.9831
1, 900.00000, 123.513, -34.1105, 122.226, -150.382, 129.707, 88.1034, 0, 0, 2.02408, -57.1844, 2.04539, -173.456, 1.92742, 65.0295, 0.222925, 56.9831
1, 960.00000, 123.513, -34.1105, 122.226, -150.382, 129.707, 88.1034, 0, 0, 2.02408, -57.1844, 2.04539, -173.456, 1.92742, 65.0295, 0.222926, 56.9831
1, 1020.00000, 123.513, -34.1105, 122.226, -150.382, 129.707, 88.1034, 0, 0, 2.02408, -57.1844, 2.04539, -173.456, 1.92742, 65.0295, 0.222926, 56.9832
1, 1080.00000, 123.513, -34.1105, 122.226, -150.382, 129.707, 88.1034, 0, 0, 2.02408, -57.1844, 2.04539, -173.456, 1.92742, 65.0295, 0.222927, 56.9832
1, 1140.00000, 123.513, -34.1105, 122.226, -150.382, 129.707, 88.1034, 0, 0, 2.02408, -57.1844, 2.04539, -173.456, 1.92742, 65.0295, 0.222928, 56.9832
1, 1200.00000, 123.513, -34.1105, 122.226, -150.382, 129.707, 88.1034, 0, 0, 2.02408, -57.1844, 2.04539, -173.456, 1.92742, 65.0295, 0.222928, 56.9832
1, 1260.00000, 123.513, -34.1105, 122.226, -150.382, 129.707, 88.1034, 0, 0, 2.02408, -57.1844, 2.04539, -173.456, 1.92742, 65.0295, 0.222929, 56.9833
1, 1320.00000, 123.513, -34.1105, 122.226, -150.382, 129.707, 88.1034, 0, 0, 2.02408, -57.1844, 2.04539, -173.456, 1.92742, 65.0295, 0.222929, 56.9833
1, 1380.00000, 123.513, -34.1105, 122.226, -150.382, 129.707, 88.1034, 0, 0, 2.02408, -57.1844, 2.04539, -173.456, 1.92742, 65.0295, 0.222929, 56.9833
1, 1440.00000, 123.513, -34.1105, 122.226, -150.382, 129.707, 88.1034, 0, 0, 2.02408, -57.1845, 2.04539, -173.456, 1.92742, 65.0295, 0.22293, 56.9833
1, 1500.00000, 123.513, -34.1105, 122.226, -150.382, 129.707, 88.1034, 0, 0, 2.02408, -57.1845, 2.04539, -173.456, 1.92742, 65.0295, 0.22293, 56.9833
1, 1560.00000, 123.513, -34.1105, 122.226, -150.382, 129.707, 88.1034, 0, 0, 2.02408, -57.1845, 2.04539, -173.456, 1.92742, 65.0294, 0.22293, 56.9833
1, 1620.00000, 123.513, -34.1105, 122.226, -150.382, 129.707, 88.1034, 0, 0, 2.02408, -57.1845, 2.04539, -173.456, 1.92742, 65.0294, 0.22293, 56.9833
1, 1680.00000, 123.513, -34.1106, 122.226, -150.382, 129.707, 88.1034, 0, 0, 2.02408, -57.1845, 2.04539, -173.456, 1.92742, 65.0294, 0.222931, 56.9833
1, 1740.00000, 123.513, -34.1106, 122.226, -150.382, 129.707, 88.1034, 0, 0, 2.02408, -57.1845, 2.04539, -173.456, 1.92742, 65.0294, 0.222931, 56.9834
1, 1800.00000, 123.513, -34.1106, 122.226, -150.382, 129.707, 88.1034, 0, 0, 2.02408, -57.1845, 2.04539, -173.456, 1.92742, 65.0294, 0.222931, 56.9834
1, 1860.00000, 123.513, -34.1106, 122.226, -150.382, 129.707, 88.1034, 0, 0, 2.02408, -57.1845, 2.04539, -173.456, 1.92742, 65.0294, 0.222931, 56.9834
1, 1920.00000, 123.513, -34.1106, 122.226, -150.382, 129.707, 88.1034, 0, 0, 2.02408, -57.1845, 2.04539, -173.456, 1.92742, 65.0294, 0.222931, 56.9834
1, 1980.00000, 123.513, -34.1106, 122.226, -150.382, 129.707, 88.1034, 0, 0, 2.02408, -57.1845, 2.04539, -173.456, 1.92742, 65.0294, 0.222931, 56.9834
1, 2040.00000, 123.513, -34.1106, 122.226, -150.382, 129.707, 88.1034, 0, 0, 2.02408, -57.1845, 2.04539, -173.456, 1.92742, 65.0294, 0.222932, 56.9834
1, 2100.00000, 123.513, -34.1106, 122.226, -150.382, 129.707, 88.1034, 0, 0, 2.02408, -57.1845, 2.04539, -173.456, 1.92742, 65.0294, 0.222932, 56.9834
1, 2160.00000, 123.513, -34.1106, 122.226, -150.382, 129.707, 88.1034, 0, 0, 2.02408, -57.1845, 2.04539, -173.456, 1.92742, 65.0294, 0.222932, 56.9834
1, 2220.00000, 123.513, -34.1106, 122.226, -150.382, 129.707, 88.1034, 0, 0, 2.02408, -57.1845, 2.04539, -173.456, 1.92742, 65.0294, 0.222932, 56.9834
1, 2280.00000, 123.513, -34.1106, 122.226, -150.382, 129.707, 88.1034, 0, 0, 2.02408, -57.1845, 2.04539, -173.456, 1.92742, 65.0294, 0.222932, 56.9834
1, 2340.00000, 123.513, -34.1106, 122.226, -150.382, 129.707, 88.1034, 0, 0, 2.02408, -57.1845, 2.04539, -173.456, 1.92742, 65.0294, 0.222932, 56.9834
1, 2400.00000, 123.513, -34.1106, 122.226, -150.382, 129.707, 88.1034, 0, 0, 2.02408, -57.1845, 2.04539, -173.456, 1.92742, 65.0294, 0.222932, 56.9834
1, 2460.00000, 123.513, -34.1106, 122.226, -150.382, 129.707, 88.1034, 0, 0, 2.02408, -57.1845, 2.04539, -173.456, 1.92742, 65.0294, 0.222932, 56.9834
1, 2520.00000, 124.803, -33.6416, 123.709, -150.671, 129.668, 88.1318, 0, 0, 2.00316, -56.7155, 2.02087, -173.745, 1.92801, 65.0578, 0.175435, 56.6446
1, 2580.00000, 124.803, -33.6416, 123.709, -150.671, 129.668, 88.1318, 0, 0, 2.00316, -56.7155, 2.02087, -173.745, 1.92801, 65.0578, 0.175436, 56.645
1, 2640.00000, 124.803, -33.6416, 123.709, -150.671, 129.668, 88.1318, 0, 0, 2.00316, -56.7155, 2.02087, -173.745, 1.92801, 65.0578, 0.175436, 56.645
1, 2700.00000, 124.803, -33.6416, 123.709, -150.671, 129.668, 88.1318, 0, 0, 2.00316, -56.7155, 2.02087, -173.745, 1.92801, 65.0578, 0.175436, 56.645
1, 2760.00000, 124.888, -33.6631, 124.618, -150.3, 130.839, 87.9468, 0, 0, 2.00179, -56.737, 2.00613, -173.374, 1.91075, 64.8729, 0.194193, 64.5572
1, 2820.00000, 124.888, -33.6631, 124.618, -150.3, 130.839, 87.9468, 0, 0, 2.00179, -56.737, 2.00613, -173.374, 1.91075, 64.8729, 0.194192, 64.5574
1, 2880.00000, 124.888, -33.6631, 124.618, -150.3, 130.839, 87.9468, 0, 0, 2.00179, -56.737, 2.00613, -173.374, 1.91075, 64.8729, 0.194192, 64.5574
1, 2940.00000, 124.888, -33.6631, 124.618, -150.3, 130.839, 87.9468, 0, 0, 2.00179, -56.737, 2.00613, -173.374, 1.91075, 64.8729, 0.194193, 64.5574
1, 3000.00000, 124.888, -33.6631, 124.618, -150.3, 130.839, 87.9468, 0, 0, 2.00179, -56.737, 2.00613, -173.374, 1.91075, 64.8729, 0.194193, 64.5574
1, 3060.00000, 124.888, -33.6631, 124.618, -150.3, 130.839, 87.9468, 0, 0, 2.00179, -56.737, 2.00613, -173.374, 1.91075, 64.8729, 0.194193, 64.5574
1, 3120.00000, 124.888, -33.6631, 124.618, -150.3, 130.839, 87.9468, 0, 0, 2.00179, -56.737, 2.00613, -173.374, 1.91075, 64.8729, 0.194193, 64.5574
1, 3180.00000, 124.888, -33.6631, 124.618, -150.3, 130.839, 87.9468, 0, 0, 2.00179, -56.737, 2.00613, -173.374, 1.91075, 64.8729, 0.194193, 64.5574
1, 3240.00000, 124.888, -33.6631, 124.618, -150.3, 130.839, 87.9468, 0, 0, 2.00179, -56.737, 2.00613, -173.374, 1.91075, 64.8729, 0.194193, 64.5574
1, 3300.00000, 124.888, -33.6631, 124.618, -150.3, 130.839, 87.9468, 0, 0, 2.00179, -56.737, 2.00613, -173.374, 1.91075, 64.8729, 0.194193, 64.5574
1, 3360.00000, 124.888, -33.6631, 124.618, -150.3, 130.839, 87.9468, 0, 0, 2.00179, -56.737, 2.00613, -173.374, 1.91075, 64.8729, 0.194193, 64.5574
1, 3420.00000, 124.888, -33.6631, 124.618, -150.3, 130.839, 87.9468, 0, 0, 2.00179, -56.737, 2.00613, -173.374, 1.91075, 64.8729, 0.194193, 64.5574
1, 3480.00000, 124.888, -33.6631, 124.618, -150.3, 130.839, 87.9468, 0, 0, 2.00179, -56.737, 2.00613, -173.374, 1.91075, 64.8729, 0.194193, 64.5574
1, 3540.00000, 124.888, -33.6631, 124.618, -150.3, 130.839, 87.9468, 0, 0, 2.00179, -56.737, 2.00613, -173.374, 1.91075, 64.8729, 0.194193, 64.5574
2, 0.00000, 124.888, -33.6631, 124.618, -150.3, 130.839, 87.9468, 0, 0, 2.00179, -56.737, 2.00613, -173.374, 1.91075, 64.8729, 0.194193, 64.5574
2, 60.00000, 124.888, -33.6631, 124.618, -150.3, 130.839, 87.9468, 0, 0, 2.00179, -56.737, 2.00613, -173.374, 1.91075, 64.8729, 0.194193, 64.5574
2, 120.00000, 124.879, -33.6639, 124.61, -150.301, 130.831, 87.9461, 0, 0, 2.00748, -56.7378, 2.01181, -173.375, 1.91615, 64.8722, 0.194752, 64.5598
2, 180.00000, 124.87, -33.6647, 124.602, -150.303, 130.823, 87.9454, 0, 0, 2.01323, -56.7386, 2.01755, -173.376, 1.92162, 64.8715, 0.195318, 64.5621
2, 240.00000, 124.861, -33.6655, 124.595, -150.304, 130.815, 87.9447, 0, 0, 2.01892, -56.7394, 2.02323, -173.377, 1.92702, 64.8708, 0.195878, 64.5644
2, 300.00000, 124.851, -33.6663, 124.587, -150.305, 130.807, 87.944, 0, 0, 2.02461, -56.7402, 2.02891, -173.378, 1.93242, 64.8701, 0.196438, 64.5667
2, 360.00000, 124.842, -33.6672, 124.579, -150.306, 130.799, 87.9433, 0, 0, 2.03036, -56.7411, 2.03465, -173.379, 1.93789, 64.8694, 0.197004, 64.569
2, 420.00000, 124.833, -33.668, 124.571, -150.307, 130.791, 87.9426, 0, 0, 2.03605, -56.7419, 2.04033, -173.38, 1.9433, 64.8687, 0.197564, 64.5713
2, 480.00000, 124.824, -33.6688, 124.563, -150.308, 130.784, 87.9419, 0, 0, 2.04174, -56.7427, 2.04601, -173.382, 1.9487, 64.868, 0.198125, 64.5736
2, 540.00000, 124.815, -33.6696, 124.555, -150.309, 130.776, 87.9412, 0, 0, 2.0475, -56.7435, 2.05176, -173.383, 1.95417, 64.8673, 0.198692, 64.5759
2, 600.00000, 124.806, -33.6704, 124.548, -150.31, 130.768, 87.9405, 0, 0, 2.05319, -56.7443, 2.05745, -173.384, 1.95958, 64.8666, 0.199252, 64.5782
2, 660.00000, 124.797, -33.6712, 124.54, -150.311, 130.76, 87.9398, 0, 0, 2.05888, -56.7451, 2.06313, -173.385, 1.96499, 64.8659, 0.199813, 64.5806
2, 720.00000, 124.787, -33.6721, 124.532, -150.312, 130.752, 87.9391, 0, 0, 2.06465, -56.746, 2.06888, -173.386, 1.97046, 64.8652, 0.20038, 64.5829
2, 780.00000, 124.778, -33.6729, 124.524, -150.313, 130.744, 87.9384, 0, 0, 2.07034, -56.7468, 2.07456, -173.387, 1.97587, 64.8645, 0.200941, 64.5852
