hour,t(sec),V1,VAngle1,V2,VAngle2,V3,VAngle3,V4,VAngle4,I1,IAngle1,I2,IAngle2,I3,IAngle3,I4,IAngle4
0, 60.00000, 126.107, -31.0025, 126.345, -150.649, 126.906, 89.1176, 0, 0, 2.24446, -54.0761, 2.24024, -173.722, 2.23034, 66.0439, 0.0246894, 79.8298
0, 120.00000, 126.107, -31.0025, 126.345, -150.649, 126.905, 89.1176, 0, 0, 2.24447, -54.0764, 2.24025, -173.723, 2.23035, 66.0437, 0.0247022, 79.8315
0, 180.00000, 126.107, -31.0025, 126.345, -150.649, 126.905, 89.1176, 0, 0, 2.24447, -54.0764, 2.24025, -173.723, 2.23035, 66.0437, 0.0247023, 79.8315
0, 240.00000, 126.107, -31.0025, 126.345, -150.649, 126.905, 89.1176, 0, 0, 2.24447, -54.0764, 2.24025, -173.723, 2.23035, 66.0437, 0.0247023, 79.8315
0, 300.00000, 126.234, -30.8286, 126.747, -150.604, 126.91, 89.1177, 0, 0, 2.24223, -53.903, 2.23316, -173.678, 2.23028, 66.0437, 0.0207461, 109.787
0, 360.00000, 126.234, -30.8286, 126.747, -150.604, 126.91, 89.1177, 0, 0, 2.24221, -53.9025, 2.23313, -173.678, 2.23028, 66.0438, 0.0207439, 109.869
0, 420.00000, 126.234, -30.8286, 126.747, -150.604, 126.91, 89.1177, 0, 0, 2.24221, -53.9025, 2.23313, -173.678, 2.23028, 66.0438, 0.0207439, 109.869
0, 480.00000, 126.234, -30.8286, 126.747, -150.604, 126.91, 89.1177, 0, 0, 2.24221, -53.9025, 2.23313, -173.678, 2.23028, 66.0438, 0.0207439, 109.869
0, 540.00000, 126.234, -30.8286, 126.747, -150.604, 126.91, 89.1177, 0, 0, 2.24221, -53.9025, 2.23313, -173.678, 2.23028, 66.0438, 0.0207439, 109.869
0, 600.00000, 126.234, -30.8286, 126.747, -150.604, 126.91, 89.1177, 0, 0, 2.24221, -53.9025, 2.23313, -173.678, 2.23028, 66.0438, 0.0207439, 109.869
0, 660.00000, 126.234, -30.8286, 126.747, -150.604, 126.91, 89.1177, 0, 0, 2.24221, -53.9025, 2.23313, -173.678, 2.23028, 66.0438, 0.0207439, 109.869
0, 720.00000, 126.234, -30.8286, 126.747, -150.604, 126.91, 89.1177, 0, 0, 2.24221, -53.9025, 2.23313, -173.678, 2.23028, 66.0438, 0.0207439, 109.869
0, 780.00000, 126.234, -30.8286, 126.747, -150.604, 126.91, 89.1177, 0, 0, 2.24221, -53.9025, 2.23313, -173.678, 2.23028, 66.0438, 0.0207439, 109.869
0, 840.00000, 126.234, -30.8286, 126.747, -150.604, 126.91, 89.1177, 0, 0, 2.24221, -53.9025, 2.23313, -173.678, 2.23028, 66.0438, 0.0207439, 109.869
0, 900.00000, 126.234, -30.8286, 126.747, -150.604, 126.91, 89.1177, 0, 0, 2.24221, -53.9025, 2.23313, -173.678, 2.23028, 66.0438, 0.0207439, 109.869
0, 960.00000, 126.234, -30.8286, 126.747, -150.604, 126.91, 89.1177, 0, 0, 2.24221, -53.9025, 2.23313, -173.678, 2.23028, 66.0438, 0.0207439, 109.869
0, 1020.00000, 126.234, -30.8286, 126.747, -150.604, 126.91, 89.1177, 0, 0, 2.24221, -53.9025, 2.23313, -173.678, 2.23028, 66.0438, 0.0207439, 109.869
0, 1080.00000, 126.234, -30.8286, 126.747, -150.604, 126.91, 89.1177, 0, 0, 2.24221, -53.9025, 2.23313, -173.678, 2.23028, 66.0438, 0.0207439, 109.869
0, 1140.00000, 126.234, -30.8286, 126.747, -150.604, 126.91, 89.1177, 0, 0, 2.24221, -53.9025, 2.23313, -173.678, 2.23028, 66.0438, 0.0207439, 109.869
0, 1200.00000, 126.234, -30.8286, 126.747, -150.604, 126.91, 89.1177, 0, 0, 2.24221, -53.9025, 2.23313, -173.678, 2.23028, 66.0438, 0.0207439, 109.869
0, 1260.00000, 126.234, -30.8286, 126.747, -150.604, 126.91, 89.1177, 0, 0, 2.24221, -53.9025, 2.23313, -173.678, 2.23028, 66.0438, 0.0207439, 109.869
0, 1320.00000, 126.234, -30.8286, 126.747, -150.604, 126.91, 89.1177, 0, 0, 2.24221, -53.9025, 2.23313, -173.678, 2.23028, 66.0438, 0.0207439, 109.869
0, 1380.00000, 126.234, -30.8286, 126.747, -150.604, 126.91, 89.1177, 0, 0, 2.24221, -53.9025, 2.23313, -173.678, 2.23028, 66.0438, 0.0207439, 109.869
0, 1440.00000, 126.234, -30.8286, 126.747, -150.604, 126.91, 89.1177, 0, 0, 2.24221, -53.9025, 2.23313, -173.678, 2.23028, 66.0438, 0.0207439, 109.869
0, 1500.00000, 126.234, -30.8286, 126.747, -150.604, 126.91, 89.1177, 0, 0, 2.24221, -53.9025, 2.23313, -173.678, 2.23028, 66.0438, 0.0207439, 109.869
0, 1560.00000, 126.234, -30.8286, 126.747, -150.604, 126.91, 89.1177, 0, 0, 2.24221, -53.9025, 2.23313, -173.678, 2.23028, 66.0438, 0.0207439, 109.869
0, 1620.00000, 126.234, -30.8286, 126.747, -150.604, 126.91, 89.1177, 0, 0, 2.24221, -53.9025, 2.23313, -173.678, 2.23028, 66.0438, 0.0207439, 109.869
0, 1680.00000, 126.234, -30.8286, 126.747, -150.604, 126.91, 89.1177, 0, 0, 2.24221, -53.9025, 2.23313, -173.678, 2.23028, 66.0438, 0.0207439, 109.869
0, 1740.00000, 126.234, -30.8286, 126.747, -150.604, 126.91, 89.1177, 0, 0, 2.24221, -53.9025, 2.23313, -173.678, 2.23028, 66.0438, 0.0207439, 109.869
0, 1800.00000, 126.234, -30.8286, 126.747, -150.604, 126.91, 89.1177, 0, 0, 2.24221, -53.9025, 2.23313, -173.678, 2.23028, 66.0438, 0.0207439, 109.869
0, 1860.00000, 126.234, -30.8286, 126.747, -150.604, 126.91, 89.1177, 0, 0, 2.24221, -53.9025, 2.23313, -173.678, 2.23028, 66.0438, 0.0207439, 109.869
0, 1920.00000, 126.234, -30.8286, 126.747, -150.604, 126.91, 89.1177, 0, 0, 2.24221, -53.9025, 2.23313, -173.678, 2.23028, 66.0438, 0.0207439, 109.869
0, 1980.00000, 126.234, -30.8286, 126.747, -150.604, 126.91, 89.1177, 0, 0, 2.24221, -53.9025, 2.23313, -173.678, 2.23028, 66.0438, 0.0207439, 109.869
0, 2040.00000, 126.234, -30.8286, 126.747, -150.604, 126.91, 89.1177, 0, 0, 2.24221, -53.9025, 2.23313, -173.678, 2.23028, 66.0438, 0.0207439, 109.869
0, 2100.00000, 126.234, -30.8286, 126.747, -150.604, 126.91, 89.1177, 0, 0, 2.24221, -53.9025, 2.23313, -173.678, 2.23028, 66.0438, 0.0207439, 109.869
0, 2160.00000, 126.234, -30.8286, 126.747, -150.604, 126.91, 89.1177, 0, 0, 2.24221, -53.9025, 2.23313, -173.678, 2.23028, 66.0438, 0.0207439, 109.869
0, 2220.00000, 126.63, -30.7866, 126.749, -150.603, 127.035, 89.2878, 0, 0, 2.23522, -53.8609, 2.23311, -173.677, 2.22808, 66.2136, 0.012534, 77.7175
0, 2280.00000, 126.63, -30.7866, 126.749, -150.603, 127.035, 89.2878, 0, 0, 2.2352, -53.8605, 2.23311, -173.677, 2.22807, 66.2139, 0.0125114, 77.6556
0, 2340.00000, 126.63, -30.7866, 126.749, -150.603, 127.035, 89.2878, 0, 0, 2.2352, -53.8605, 2.23311, -173.677, 2.22807, 66.2139, 0.0125113, 77.6553
0, 2400.00000, 126.63, -30.7866, 126.749, -150.603, 127.035, 89.2878, 0, 0, 2.2352, -53.8605, 2.23311, -173.677, 2.22807, 66.2139, 0.0125113, 77.6553
0, 2460.00000, 126.63, -30.7866, 126.749, -150.603, 127.035, 89.2878, 0, 0, 2.2352, -53.8605, 2.23311, -173.677, 2.22807, 66.2139, 0.0125113, 77.6553
0, 2520.00000, 126.63, -30.7866, 126.749, -150.603, 127.035, 89.2878, 0, 0, 2.2352, -53.8605, 2.23311, -173.677, 2.22807, 66.2139, 0.0125113, 77.6553
0, 2580.00000, 126.63, -30.7866, 126.749, -150.603, 127.035, 89.2878, 0, 0, 2.2352, -53.8605, 2.23311, -173.677, 2.22807, 66.2139, 0.0125113, 77.6553
0, 2640.00000, 126.63, -30.7866, 126.749, -150.603, 127.035, 89.2878, 0, 0, 2.2352, -53.8605, 2.23311, -173.677, 2.22807, 66.2139, 0.0125113, 77.6553
0, 2700.00000, 126.63, -30.7866, 126.749, -150.603, 127.035, 89.2878, 0, 0, 2.2352, -53.8605, 2.23311, -173.677, 2.22807, 66.2139, 0.0125113, 77.6553
0, 2760.00000, 126.63, -30.7866, 126.749, -150.603, 127.035, 89.2878, 0, 0, 2.2352, -53.8605, 2.23311, -173.677, 2.22807, 66.2139, 0.0125113, 77.6553
0, 2820.00000, 126.63, -30.7866, 126.749, -150.603, 127.035, 89.2878, 0, 0, 2.2352, -53.8605, 2.23311, -173.677, 2.22807, 66.2139, 0.0125113, 77.6553
0, 2880.00000, 126.63, -30.7866, 126.749, -150.603, 127.035, 89.2878, 0, 0, 2.2352, -53.8605, 2.23311, -173.677, 2.22807, 66.2139, 0.0125113, 77.6553
0, 2940.00000, 126.63, -30.7866, 126.749, -150.603, 127.035, 89.2878, 0, 0, 2.2352, -53.8605, 2.23311, -173.677, 2.22807, 66.2139, 0.0125113, 77.6553
0, 3000.00000, 126.63, -30.7866, 126.749, -150.603, 127.035, 89.2878, 0, 0, 2.2352, -53.8605, 2.23311, -173.677, 2.22807, 66.2139, 0.0125113, 77.6553
0, 3060.00000, 126.63, -30.7866, 126.749, -150.603, 127.035, 89.2878, 0, 0, 2.2352, -53.8605, 2.23311, -173.677, 2.22807, 66.2139, 0.0125113, 77.6553
0, 3120.00000, 126.63, -30.7866, 126.749, -150.603, 127.035, 89.2878, 0, 0, 2.2352, -53.8605, 2.23311, -173.677, 2.22807, 66.2139, 0.0125113, 77.6553
0, 3180.00000, 126.63, -30.7866, 126.749, -150.603, 127.035, 89.2878, 0, 0, 2.2352, -53.8605, 2.23311, -173.677, 2.22807, 66.2139, 0.0125113, 77.6553
0, 3240.00000, 126.63, -30.7866, 126.749, -150.603, 127.035, 89.2878, 0, 0, 2.2352, -53.8605, 2.23311, -173.677, 2.22807, 66.2139, 0.0125113, 77.6553
0, 3300.00000, 126.63, -30.7866, 126.749, -150.603, 127.035, 89.2878, 0, 0, 2.2352, -53.8605, 2.23311, -173.677, 2.22807, 66.2139, 0.0125113, 77.6553
0, 3360.00000, 126.63, -30.7866, 126.749, -150.603, 127.035, 89.2878, 0, 0, 2.2352, -53.8605, 2.23311, -173.677, 2.22807, 66.2139, 0.0125113, 77.6553
0, 3420.00000, 126.63, -30.7866, 126.749, -150.603, 127.035, 89.2878, 0, 0, 2.2352, -53.8605, 2.23311, -173.677, 2.22807, 66.2139, 0.0125113, 77.6553
0, 3480.00000, 126.63, -30.7866, 126.749, -150.603, 127.035, 89.2878, 0, 0, 2.2352, -53.8605, 2.23311, -173.677, 2.22807, 66.2139, 0.0125113, 77.6553
0, 3540.00000, 126.63, -30.7866, 126.749, -150.603, 127.035, 89.2878, 0, 0, 2.2352, -53.8605, 2.23311, -173.677, 2.22807, 66.2139, 0.0125113, 77.6553
1, 0.00000, 126.63, -30.7866, 126.749, -150.603, 127.035, 89.2878, 0, 0, 2.2352, -53.8605, 2.23311, -173.677, 2.22807, 66.2139, 0.0125113, 77.6553
1, 60.00000, 126.63, -30.7866, 126.749, -150.603, 127.035, 89.2878, 0, 0, 2.2352, -53.8605, 2.23311, -173.677, 2.22807, 66.2139, 0.0125113, 77.6553
1, 120.00000, 126.63, -30.7866, 126.749, -150.603, 127.035, 89.2878, 0, 0, 2.2352, -53.8605, 2.23311, -173.677, 2.22807, 66.2139, 0.0125113, 77.6553
1, 180.00000, 126.63, -30.7866, 126.749, -150.603, 127.035, 89.2878, 0, 0, 2.2352, -53.8605, 2.23311, -173.677, 2.22807, 66.2139, 0.0125113, 77.6553
1, 240.00000, 126.63, -30.7866, 126.749, -150.603, 127.035, 89.2878, 0, 0, 2.2352, -53.8605, 2.23311, -173.677, 2.22807, 66.2139, 0.0125113, 77.6553
1, 300.00000, 126.63, -30.7866, 126.749, -150.603, 127.035, 89.2878, 0, 0, 2.2352, -53.8605, 2.23311, -173.677, 2.22807, 66.2139, 0.0125113, 77.6553
1, 360.00000, 126.63, -30.7866, 126.749, -150.603, 127.035, 89.2878, 0, 0, 2.2352, -53.8605, 2.23311, -173.677, 2.22807, 66.2139, 0.0125113, 77.6553
1, 420.00000, 126.63, -30.7866, 126.749, -150.603, 127.035, 89.2878, 0, 0, 2.2352, -53.8605, 2.23311, -173.677, 2.22807, 66.2139, 0.0125113, 77.6553
1, 480.00000, 126.63, -30.7866, 126.749, -150.603, 127.035, 89.2878, 0, 0, 2.2352, -53.8605, 2.23311, -173.677, 2.22807, 66.2139, 0.0125113, 77.6553
1, 540.00000, 126.63, -30.7866, 126.749, -150.603, 127.035, 89.2878, 0, 0, 2.2352, -53.8605, 2.23311, -173.677, 2.22807, 66.2139, 0.0125113, 77.6553
1, 600.00000, 126.63, -30.7866, 126.749, -150.603, 127.035, 89.2878, 0, 0, 2.2352, -53.8605, 2.23311, -173.677, 2.22807, 66.2139, 0.0125113, 77.6553
1, 660.00000, 126.749, -30.6191, 127.136, -150.562, 127.036, 89.2877, 0, 0, 2.23311, -53.6931, 2.22632, -173.637, 2.22805, 66.2137, 0.0111844, 137.721
1, 720.00000, 126.749, -30.6191, 127.136, -150.562, 127.036, 89.2877, 0, 0, 2.2331, -53.693, 2.22631, -173.636, 2.22805, 66.2137, 0.0111968, 137.756
1, 780.00000, 127.15, -30.5747, 127.137, -150.562, 127.165, 89.4599, 0, 0, 2.22609, -53.6492, 2.22629, -173.636, 2.22582, 66.3856, 0.00150639, 9.22789
1, 840.00000, 127.15, -30.5746, 127.137, -150.562, 127.165, 89.46, 0, 0, 2.22606, -53.6486, 2.22628, -173.636, 2.2258, 66.3861, 0.00151713, 7.8034
1, 900.00000, 127.15, -30.5746, 127.137, -150.562, 127.165, 89.46, 0, 0, 2.22606, -53.6486, 2.22628, -173.636, 2.2258, 66.3861, 0.00151716, 7.79802
1, 960.00000, 127.15, -30.5746, 127.137, -150.562, 127.165, 89.46, 0, 0, 2.22606, -53.6486, 2.22628, -173.636, 2.2258, 66.3861, 0.00151716, 7.798
1, 1020.00000, 127.15, -30.5746, 127.137, -150.562, 127.165, 89.46, 0, 0, 2.22606, -53.6486, 2.22628, -173.636, 2.2258, 66.3861, 0.00151716, 7.798
1, 1080.00000, 127.15, -30.5746, 127.137, -150.562, 127.165, 89.46, 0, 0, 2.22606, -53.6486, 2.22628, -173.636, 2.2258, 66.3861, 0.00151716, 7.798
1, 1140.00000, 127.15, -30.5746, 127.137, -150.562, 127.165, 89.46, 0, 0, 2.22606, -53.6486, 2.22628, -173.636, 2.2258, 66.3861, 0.00151716, 7.798
1, 1200.00000, 127.15, -30.5746, 127.137, -150.562, 127.165, 89.46, 0, 0, 2.22606, -53.6486, 2.22628, -173.636, 2.2258, 66.3861, 0.00151716, 7.798
1, 1260.00000, 127.15, -30.5746, 127.137, -150.562, 127.165, 89.46, 0, 0, 2.22606, -53.6486, 2.22628, -173.636, 2.2258, 66.3861, 0.00151716, 7.798
1, 1320.00000, 127.15, -30.5746, 127.137, -150.562, 127.165, 89.46, 0, 0, 2.22606, -53.6486, 2.22628, -173.636, 2.2258, 66.3861, 0.00151716, 7.798
1, 1380.00000, 127.15, -30.5746, 127.137, -150.562, 127.165, 89.46, 0, 0, 2.22606, -53.6486, 2.22628, -173.636, 2.2258, 66.3861, 0.00151716, 7.798
1, 1440.00000, 127.15, -30.5746, 127.137, -150.562, 127.165, 89.46, 0, 0, 2.22606, -53.6486, 2.22628, -173.636, 2.2258, 66.3861, 0.00151716, 7.798
1, 1500.00000, 127.15, -30.5746, 127.137, -150.562, 127.165, 89.46, 0, 0, 2.22606, -53.6486, 2.22628, -173.636, 2.2258, 66.3861, 0.00151716, 7.798
1, 1560.00000, 127.15, -30.5746, 127.137, -150.562, 127.165, 89.46, 0, 0, 2.22606, -53.6486, 2.22628, -173.636, 2.2258, 66.3861, 0.00151716, 7.798
1, 1620.00000, 127.15, -30.5746, 127.137, -150.562, 127.165, 89.46, 0, 0, 2.22606, -53.6486, 2.22628, -173.636, 2.2258, 66.3861, 0.00151716, 7.798
1, 1680.00000, 127.15, -30.5746, 127.137, -150.562, 127.165, 89.46, 0, 0, 2.22606, -53.6486, 2.22628, -173.636, 2.2258, 66.3861, 0.00151716, 7.798
1, 1740.00000, 127.15, -30.5746, 127.137, -150.562, 127.165, 89.46, 0, 0, 2.22606, -53.6486, 2.22628, -173.636, 2.2258, 66.3861, 0.00151716, 7.798
1, 1800.00000, 127.15, -30.5746, 127.137, -150.562, 127.165, 89.46, 0, 0, 2.22606, -53.6486, 2.22628, -173.636, 2.2258, 66.3861, 0.00151716, 7.798
1, 1860.00000, 127.15, -30.5746, 127.137, -150.562, 127.165, 89.46, 0, 0, 2.22606, -53.6486, 2.22628, -173.636, 2.2258, 66.3861, 0.00151716, 7.798
1, 1920.00000, 127.15, -30.5746, 127.137, -150.562, 127.165, 89.46, 0, 0, 2.22606, -53.6486, 2.22628, -173.636, 2.2258, 66.3861, 0.00151716, 7.798
1, 1980.00000, 127.15, -30.5746, 127.137, -150.562, 127.165, 89.46, 0, 0, 2.22606, -53.6486, 2.22628, -173.636, 2.2258, 66.3861, 0.00151716, 7.798
1, 2040.00000, 127.15, -30.5746, 127.137, -150.562, 127.165, 89.46, 0, 0, 2.22606, -53.6486, 2.22628, -173.636, 2.2258, 66.3861, 0.00151716, 7.798
1, 2100.00000, 127.15, -30.5746, 127.137, -150.562, 127.165, 89.46, 0, 0, 2.22606, -53.6486, 2.22628, -173.636, 2.2258, 66.3861, 0.00151716, 7.798
1, 2160.00000, 127.15, -30.5746, 127.137, -150.562, 127.165, 89.46, 0, 0, 2.22606, -53.6486, 2.22628, -173.636, 2.2258, 66.3861, 0.00151716, 7.798
1, 2220.00000, 127.15, -30.5746, 127.137, -150.562, 127.165, 89.46, 0, 0, 2.22606, -53.6486, 2.22628, -173.636, 2.2258, 66.3861, 0.00151716, 7.798
1, 2280.00000, 127.15, -30.5746, 127.137, -150.562, 127.165, 89.46, 0, 0, 2.22606, -53.6486, 2.22628, -173.636, 2.2258, 66.3861, 0.00151716, 7.798
1, 2340.00000, 127.15, -30.5746, 127.137, -150.562, 127.165, 89.46, 0, 0, 2.22606, -53.6486, 2.22628, -173.636, 2.2258, 66.3861, 0.00151716, 7.798
1, 2400.00000, 127.15, -30.5746, 127.137, -150.562, 127.165, 89.46, 0, 0, 2.22606, -53.6486, 2.22628, -173.636, 2.2258, 66.3861, 0.00151716, 7.798
1, 2460.00000, 127.15, -30.5746, 127.137, -150.562, 127.165, 89.46, 0, 0, 2.22606, -53.6486, 2.22628, -173.636, 2.2258, 66.3861, 0.00151716, 7.798
1, 2520.00000, 127.15, -30.5746, 127.137, -150.562, 127.165, 89.46, 0, 0, 2.22606, -53.6486, 2.22628, -173.636, 2.2258, 66.3861, 0.00151716, 7.798
1, 2580.00000, 127.15, -30.5746, 127.137, -150.562, 127.165, 89.46, 0, 0, 2.22606, -53.6486, 2.22628, -173.636, 2.2258, 66.3861, 0.00151716, 7.798
1, 2640.00000, 127.15, -30.5746, 127.137, -150.562, 127.165, 89.46, 0, 0, 2.22606, -53.6486, 2.22628, -173.636, 2.2258, 66.3861, 0.00151716, 7.798
1, 2700.00000, 127.15, -30.5746, 127.137, -150.562, 127.165, 89.46, 0, 0, 2.22606, -53.6486, 2.22628, -173.636, 2.2258, 66.3861, 0.00151716, 7.798
1, 2760.00000, 127.15, -30.5746, 127.137, -150.562, 127.165, 89.46, 0, 0, 2.22606, -53.6486, 2.22628, -173.636, 2.2258, 66.3861, 0.00151716, 7.798
1, 2820.00000, 127.15, -30.5746, 127.137, -150.562, 127.165, 89.46, 0, 0, 2.22606, -53.6486, 2.22628, -173.636, 2.2258, 66.3861, 0.00151716, 7.798
1, 2880.00000, 127.15, -30.5746, 127.137, -150.562, 127.165, 89.46, 0, 0, 2.22606, -53.6486, 2.22628, -173.636, 2.2258, 66.3861, 0.00151716, 7.798
1, 2940.00000, 127.15, -30.5746, 127.137, -150.562, 127.165, 89.46, 0, 0, 2.22606, -53.6486, 2.22628, -173.636, 2.2258, 66.3861, 0.00151716, 7.798
1, 3000.00000, 127.15, -30.5746, 127.137, -150.562, 127.165, 89.46, 0, 0, 2.22606, -53.6486, 2.22628, -173.636, 2.2258, 66.3861, 0.00151716, 7.798
1, 3060.00000, 127.15, -30.5746, 127.137, -150.562, 127.165, 89.46, 0, 0, 2.22606, -53.6486, 2.22628, -173.636, 2.2258, 66.3861, 0.00151716, 7.798
1, 3120.00000, 127.15, -30.5746, 127.137, -150.562, 127.165, 89.46, 0, 0, 2.22606, -53.6486, 2.22628, -173.636, 2.2258, 66.3861, 0.00151716, 7.798
1, 3180.00000, 127.15, -30.5746, 127.137, -150.562, 127.165, 89.46, 0, 0, 2.22606, -53.6486, 2.22628, -173.636, 2.2258, 66.3861, 0.00151716, 7.798
1, 3240.00000, 127.15, -30.5746, 127.137, -150.562, 127.165, 89.46, 0, 0, 2.22606, -53.6486, 2.22628, -173.636, 2.2258, 66.3861, 0.00151716, 7.798
1, 3300.00000, 127.15, -30.5746, 127.137, -150.562, 127.165, 89.46, 0, 0, 2.22606, -53.6486, 2.22628, -173.636, 2.2258, 66.3861, 0.00151716, 7.798
1, 3360.00000, 127.15, -30.5746, 127.137, -150.562, 127.165, 89.46, 0, 0, 2.22606, -53.6486, 2.22628, -173.636, 2.2258, 66.3861, 0.00151716, 7.798
1, 3420.00000, 127.15, -30.5746, 127.137, -150.562, 127.165, 89.46, 0, 0, 2.22606, -53.6486, 2.22628, -173.636, 2.2258, 66.3861, 0.00151716, 7.798
1, 3480.00000, 127.15, -30.5746, 127.137, -150.562, 127.165, 89.46, 0, 0, 2.22606, -53.6486, 2.22628, -173.636, 2.2258, 66.3861, 0.00151716, 7.798
1, 3540.00000, 127.15, -30.5746, 127.137, -150.562, 127.165, 89.46, 0, 0, 2.22606, -53.6486, 2.22628, -173.636, 2.2258, 66.3861, 0.00151716, 7.798
2, 0.00000, 127.15, -30.5746, 127.137, -150.562, 127.165, 89.46, 0, 0, 2.22606, -53.6486, 2.22628, -173.636, 2.2258, 66.3861, 0.00151716, 7.798
2, 60.00000, 127.15, -30.5746, 127.137, -150.562, 127.165, 89.46, 0, 0, 2.22606, -53.6486, 2.22628, -173.636, 2.2258, 66.3861, 0.00151716, 7.798
2, 120.00000, 127.146, -30.5758, 127.134, -150.563, 127.161, 89.4589, 0, 0, 2.23228, -53.6496, 2.2325, -173.637, 2.23202, 66.385, 0.00152031, 7.81058
2, 180.00000, 127.143, -30.5769, 127.13, -150.564, 127.158, 89.4577, 0, 0, 2.23858, -53.6507, 2.2388, -173.638, 2.23832, 66.3839, 0.00152406, 7.86409
2, 240.00000, 127.139, -30.578, 127.127, -150.565, 127.154, 89.4566, 0, 0, 2.2448, -53.6519, 2.24502, -173.639, 2.24454, 66.3828, 0.00152777, 7.91831
2, 300.00000, 127.135, -30.5791, 127.123, -150.567, 127.15, 89.4555, 0, 0, 2.25103, -53.653, 2.25124, -173.64, 2.25076, 66.3817, 0.00153148, 7.97211
2, 360.00000, 127.132, -30.5803, 127.119, -150.568, 127.147, 89.4544, 0, 0, 2.25733, -53.6541, 2.25754, -173.642, 2.25706, 66.3806, 0.00153522, 8.02612
2, 420.00000, 127.128, -30.5814, 127.116, -150.569, 127.143, 89.4533, 0, 0, 2.26355, -53.6553, 2.26377, -173.643, 2.26328, 66.3794, 0.00153893, 8.08055
2, 480.00000, 127.124, -30.5825, 127.112, -150.57, 127.14, 89.4522, 0, 0, 2.26977, -53.6564, 2.26999, -173.644, 2.2695, 66.3783, 0.00154263, 8.13455
2, 540.00000, 127.121, -30.5837, 127.109, -150.571, 127.136, 89.4511, 0, 0, 2.27608, -53.6575, 2.27629, -173.645, 2.2758, 66.3772, 0.00154637, 8.18877
2, 600.00000, 127.117, -30.5848, 127.105, -150.572, 127.132, 89.45, 0, 0, 2.2823, -53.6586, 2.28251, -173.646, 2.28202, 66.3761, 0.00155008, 8.24339
2, 660.00000, 127.113, -30.5859, 127.102, -150.573, 127.129, 89.4489, 0, 0, 2.28853, -53.6598, 2.28874, -173.647, 2.28825, 66.375, 0.00155378, 8.29759
2, 720.00000, 127.11, -30.587, 127.098, -150.574, 127.125, 89.4477, 0, 0, 2.29483, -53.6609, 2.29504, -173.648, 2.29455, 66.3739, 0.00155751, 8.35202
2, 780.00000, 127.106, -30.5882, 127.094, -150.575, 127.122, 89.4466, 0, 0, 2.30106, -53.662, 2.30126, -173.649, 2.30077, 66.3728, 0.00156121, 8.40684
