hour,t(sec),V1,VAngle1,V2,VAngle2,V3,VAngle3,V4,VAngle4,I1,IAngle1,I2,IAngle2,I3,IAngle3,I4,IAngle4
0, 60.00000, 126.11, -30.6572, 126.551, -150.726, 126.149, 89.2325, 0, 0, 2.69433, -53.731, 2.68495, -173.8, 2.69348, 66.1588, 0.013443, -174.205
0, 120.00000, 126.11, -30.6572, 126.551, -150.726, 126.149, 89.2325, 0, 0, 2.69434, -53.7311, 2.68495, -173.8, 2.6935, 66.1586, 0.0134528, -174.185
0, 180.00000, 126.11, -30.6572, 126.551, -150.726, 126.149, 89.2325, 0, 0, 2.69434, -53.7311, 2.68495, -173.8, 2.6935, 66.1586, 0.0134529, -174.185
0, 240.00000, 126.11, -30.6572, 126.551, -150.726, 126.149, 89.2325, 0, 0, 2.69434, -53.7311, 2.68495, -173.8, 2.6935, 66.1586, 0.0134529, -174.185
0, 300.00000, 126.11, -30.6572, 126.551, -150.726, 126.149, 89.2325, 0, 0, 2.69434, -53.7311, 2.68495, -173.8, 2.6935, 66.1586, 0.0134529, -174.185
0, 360.00000, 126.11, -30.6572, 126.551, -150.726, 126.149, 89.2325, 0, 0, 2.69434, -53.7311, 2.68495, -173.8, 2.6935, 66.1586, 0.0134529, -174.185
0, 420.00000, 126.11, -30.6572, 126.551, -150.726, 126.149, 89.2325, 0, 0, 2.69434, -53.7311, 2.68495, -173.8, 2.6935, 66.1586, 0.0134529, -174.185
0, 480.00000, 126.11, -30.6572, 126.551, -150.726, 126.149, 89.2325, 0, 0, 2.69434, -53.7311, 2.68495, -173.8, 2.6935, 66.1586, 0.0134529, -174.185
0, 540.00000, 126.11, -30.6572, 126.551, -150.726, 126.149, 89.2325, 0, 0, 2.69434, -53.7311, 2.68495, -173.8, 2.6935, 66.1586, 0.0134529, -174.185
0, 600.00000, 126.11, -30.6572, 126.551, -150.726, 126.149, 89.2325, 0, 0, 2.69434, -53.7311, 2.68495, -173.8, 2.6935, 66.1586, 0.0134529, -174.185
0, 660.00000, 126.11, -30.6572, 126.551, -150.726, 126.149, 89.2325, 0, 0, 2.69434, -53.7311, 2.68495, -173.8, 2.6935, 66.1586, 0.0134529, -174.185
0, 720.00000, 126.11, -30.6572, 126.551, -150.726, 126.149, 89.2325, 0, 0, 2.69434, -53.7311, 2.68495, -173.8, 2.6935, 66.1586, 0.0134529, -174.185
0, 780.00000, 126.11, -30.6572, 126.551, -150.726, 126.149, 89.2325, 0, 0, 2.69434, -53.7311, 2.68495, -173.8, 2.6935, 66.1586, 0.0134529, -174.185
0, 840.00000, 126.11, -30.6572, 126.551, -150.726, 126.149, 89.2325, 0, 0, 2.69434, -53.7311, 2.68495, -173.8, 2.6935, 66.1586, 0.0134529, -174.185
0, 900.00000, 126.11, -30.6572, 126.551, -150.726, 126.149, 89.2325, 0, 0, 2.69434, -53.7311, 2.68495, -173.8, 2.6935, 66.1586, 0.0134529, -174.185
0, 960.00000, 125.978, -30.8306, 126.146, -150.773, 126.146, 89.2308, 0, 0, 2.69713, -53.9041, 2.69353, -173.846, 2.69356, 66.1571, 0.00442206, 87.326
0, 1020.00000, 125.978, -30.8306, 126.146, -150.773, 126.146, 89.2308, 0, 0, 2.69716, -53.9046, 2.69358, -173.847, 2.69357, 66.1569, 0.0044318, 86.8855
0, 1080.00000, 125.978, -30.8306, 126.146, -150.773, 126.146, 89.2308, 0, 0, 2.69716, -53.9046, 2.69358, -173.847, 2.69357, 66.1569, 0.00443182, 86.8847
0, 1140.00000, 125.978, -30.8306, 126.146, -150.773, 126.146, 89.2308, 0, 0, 2.69716, -53.9046, 2.69358, -173.847, 2.69357, 66.1569, 0.00443182, 86.8847
0, 1200.00000, 125.978, -30.8306, 126.146, -150.773, 126.146, 89.2308, 0, 0, 2.69716, -53.9046, 2.69358, -173.847, 2.69357, 66.1569, 0.00443182, 86.8847
0, 1260.00000, 125.978, -30.8306, 126.146, -150.773, 126.146, 89.2308, 0, 0, 2.69716, -53.9046, 2.69358, -173.847, 2.69357, 66.1569, 0.00443182, 86.8847
0, 1320.00000, 125.978, -30.8306, 126.146, -150.773, 126.146, 89.2308, 0, 0, 2.69716, -53.9046, 2.69358, -173.847, 2.69357, 66.1569, 0.00443182, 86.8847
0, 1380.00000, 125.978, -30.8306, 126.146, -150.773, 126.146, 89.2308, 0, 0, 2.69716, -53.9046, 2.69358, -173.847, 2.69357, 66.1569, 0.00443182, 86.8847
0, 1440.00000, 125.978, -30.8306, 126.146, -150.773, 126.146, 89.2308, 0, 0, 2.69716, -53.9046, 2.69358, -173.847, 2.69357, 66.1569, 0.00443182, 86.8847
0, 1500.00000, 125.978, -30.8306, 126.146, -150.773, 126.146, 89.2308, 0, 0, 2.69716, -53.9046, 2.69358, -173.847, 2.69357, 66.1569, 0.00443182, 86.8847
0, 1560.00000, 125.978, -30.8306, 126.146, -150.773, 126.146, 89.2308, 0, 0, 2.69716, -53.9046, 2.69358, -173.847, 2.69357, 66.1569, 0.00443182, 86.8847
0, 1620.00000, 125.978, -30.8306, 126.146, -150.773, 126.146, 89.2308, 0, 0, 2.69716, -53.9046, 2.69358, -173.847, 2.69357, 66.1569, 0.00443182, 86.8847
0, 1680.00000, 125.978, -30.8306, 126.146, -150.773, 126.146, 89.2308, 0, 0, 2.69716, -53.9046, 2.69358, -173.847, 2.69357, 66.1569, 0.00443182, 86.8847
0, 1740.00000, 125.978, -30.8306, 126.146, -150.773, 126.146, 89.2308, 0, 0, 2.69716, -53.9046, 2.69358, -173.847, 2.69357, 66.1569, 0.00443182, 86.8847
0, 1800.00000, 125.978, -30.8306, 126.146, -150.773, 126.146, 89.2308, 0, 0, 2.69716, -53.9046, 2.69358, -173.847, 2.69357, 66.1569, 0.00443182, 86.8847
0, 1860.00000, 125.978, -30.8306, 126.146, -150.773, 126.146, 89.2308, 0, 0, 2.69716, -53.9046, 2.69358, -173.847, 2.69357, 66.1569, 0.00443182, 86.8847
0, 1920.00000, 125.978, -30.8306, 126.146, -150.773, 126.146, 89.2308, 0, 0, 2.69716, -53.9046, 2.69358, -173.847, 2.69357, 66.1569, 0.00443182, 86.8847
0, 1980.00000, 125.978, -30.8306, 126.146, -150.773, 126.146, 89.2308, 0, 0, 2.69716, -53.9046, 2.69358, -173.847, 2.69357, 66.1569, 0.00443182, 86.8847
0, 2040.00000, 125.978, -30.8306, 126.146, -150.773, 126.146, 89.2308, 0, 0, 2.69716, -53.9046, 2.69358, -173.847, 2.69357, 66.1569, 0.00443182, 86.8847
0, 2100.00000, 125.978, -30.8306, 126.146, -150.773, 126.146, 89.2308, 0, 0, 2.69716, -53.9046, 2.69358, -173.847, 2.69357, 66.1569, 0.00443182, 86.8847
0, 2160.00000, 125.978, -30.8306, 126.146, -150.773, 126.146, 89.2308, 0, 0, 2.69716, -53.9046, 2.69358, -173.847, 2.69357, 66.1569, 0.00443182, 86.8847
0, 2220.00000, 125.978, -30.8306, 126.146, -150.773, 126.146, 89.2308, 0, 0, 2.69716, -53.9046, 2.69358, -173.847, 2.69357, 66.1569, 0.00443182, 86.8847
0, 2280.00000, 125.978, -30.8306, 126.146, -150.773, 126.146, 89.2308, 0, 0, 2.69716, -53.9046, 2.69358, -173.847, 2.69357, 66.1569, 0.00443182, 86.8847
0, 2340.00000, 125.978, -30.8306, 126.146, -150.773, 126.146, 89.2308, 0, 0, 2.69716, -53.9046, 2.69358, -173.847, 2.69357, 66.1569, 0.00443182, 86.8847
0, 2400.00000, 125.978, -30.8306, 126.146, -150.773, 126.146, 89.2308, 0, 0, 2.69716, -53.9046, 2.69358, -173.847, 2.69357, 66.1569, 0.00443182, 86.8847
0, 2460.00000, 125.978, -30.8306, 126.146, -150.773, 126.146, 89.2308, 0, 0, 2.69716, -53.9046, 2.69358, -173.847, 2.69357, 66.1569, 0.00443182, 86.8847
0, 2520.00000, 125.978, -30.8306, 126.146, -150.773, 126.146, 89.2308, 0, 0, 2.69716, -53.9046, 2.69358, -173.847, 2.69357, 66.1569, 0.00443182, 86.8847
0, 2580.00000, 125.978, -30.8306, 126.146, -150.773, 126.146, 89.2308, 0, 0, 2.69716, -53.9046, 2.69358, -173.847, 2.69357, 66.1569, 0.00443182, 86.8847
0, 2640.00000, 125.978, -30.8306, 126.146, -150.773, 126.146, 89.2308, 0, 0, 2.69716, -53.9046, 2.69358, -173.847, 2.69357, 66.1569, 0.00443182, 86.8847
0, 2700.00000, 125.978, -30.8306, 126.146, -150.773, 126.146, 89.2308, 0, 0, 2.69716, -53.9046, 2.69358, -173.847, 2.69357, 66.1569, 0.00443182, 86.8847
0, 2760.00000, 125.978, -30.8306, 126.146, -150.773, 126.146, 89.2308, 0, 0, 2.69716, -53.9046, 2.69358, -173.847, 2.69357, 66.1569, 0.00443182, 86.8847
0, 2820.00000, 125.978, -30.8306, 126.146, -150.773, 126.146, 89.2308, 0, 0, 2.69716, -53.9046, 2.69358, -173.847, 2.69357, 66.1569, 0.00443182, 86.8847
0, 2880.00000, 125.978, -30.8306, 126.146, -150.773, 126.146, 89.2308, 0, 0, 2.69716, -53.9046, 2.69358, -173.847, 2.69357, 66.1569, 0.00443182, 86.8847
0, 2940.00000, 125.978, -30.8306, 126.146, -150.773, 126.146, 89.2308, 0, 0, 2.69716, -53.9046, 2.69358, -173.847, 2.69357, 66.1569, 0.00443182, 86.8847
0, 3000.00000, 125.978, -30.8306, 126.146, -150.773, 126.146, 89.2308, 0, 0, 2.69716, -53.9046, 2.69358, -173.847, 2.69357, 66.1569, 0.00443182, 86.8847
0, 3060.00000, 125.978, -30.8306, 126.146, -150.773, 126.146, 89.2308, 0, 0, 2.69716, -53.9046, 2.69358, -173.847, 2.69357, 66.1569, 0.00443182, 86.8847
0, 3120.00000, 125.978, -30.8306, 126.146, -150.773, 126.146, 89.2308, 0, 0, 2.69716, -53.9046, 2.69358, -173.847, 2.69357, 66.1569, 0.00443182, 86.8847
0, 3180.00000, 125.978, -30.8306, 126.146, -150.773, 126.146, 89.2308, 0, 0, 2.69716, -53.9046, 2.69358, -173.847, 2.69357, 66.1569, 0.00443182, 86.8847
0, 3240.00000, 125.978, -30.8306, 126.146, -150.773, 126.146, 89.2308, 0, 0, 2.69716, -53.9046, 2.69358, -173.847, 2.69357, 66.1569, 0.00443182, 86.8847
0, 3300.00000, 125.978, -30.8306, 126.146, -150.773, 126.146, 89.2308, 0, 0, 2.69716, -53.9046, 2.69358, -173.847, 2.69357, 66.1569, 0.00443182, 86.8847
0, 3360.00000, 125.978, -30.8306, 126.146, -150.773, 126.146, 89.2308, 0, 0, 2.69716, -53.9046, 2.69358, -173.847, 2.69357, 66.1569, 0.00443182, 86.8847
0, 3420.00000, 125.978, -30.8306, 126.146, -150.773, 126.146, 89.2308, 0, 0, 2.69716, -53.9046, 2.69358, -173.847, 2.69357, 66.1569, 0.00443182, 86.8847
0, 3480.00000, 125.978, -30.8306, 126.146, -150.773, 126.146, 89.2308, 0, 0, 2.69716, -53.9046, 2.69358, -173.847, 2.69357, 66.1569, 0.00443182, 86.8847
0, 3540.00000, 125.978, -30.8306, 126.146, -150.773, 126.146, 89.2308, 0, 0, 2.69716, -53.9046, 2.69358, -173.847, 2.69357, 66.1569, 0.00443182, 86.8847
1, 0.00000, 125.978, -30.8306, 126.146, -150.773, 126.146, 89.2308, 0, 0, 2.69716, -53.9046, 2.69358, -173.847, 2.69357, 66.1569, 0.00443182, 86.8847
1, 60.00000, 125.978, -30.8306, 126.146, -150.773, 126.146, 89.2308, 0, 0, 2.69716, -53.9046, 2.69358, -173.847, 2.69357, 66.1569, 0.00443182, 86.8847
1, 120.00000, 125.978, -30.8306, 126.146, -150.773, 126.146, 89.2308, 0, 0, 2.69716, -53.9046, 2.69358, -173.847, 2.69357, 66.1569, 0.00443182, 86.8847
1, 180.00000, 125.978, -30.8306, 126.146, -150.773, 126.146, 89.2308, 0, 0, 2.69716, -53.9046, 2.69358, -173.847, 2.69357, 66.1569, 0.00443182, 86.8847
1, 240.00000, 125.978, -30.8306, 126.146, -150.773, 126.146, 89.2308, 0, 0, 2.69716, -53.9046, 2.69358, -173.847, 2.69357, 66.1569, 0.00443182, 86.8847
1, 300.00000, 125.978, -30.8306, 126.146, -150.773, 126.146, 89.2308, 0, 0, 2.69716, -53.9046, 2.69358, -173.847, 2.69357, 66.1569, 0.00443182, 86.8847
1, 360.00000, 125.978, -30.8306, 126.146, -150.773, 126.146, 89.2308, 0, 0, 2.69716, -53.9046, 2.69358, -173.847, 2.69357, 66.1569, 0.00443182, 86.8847
1, 420.00000, 125.978, -30.8306, 126.146, -150.773, 126.146, 89.2308, 0, 0, 2.69716, -53.9046, 2.69358, -173.847, 2.69357, 66.1569, 0.00443182, 86.8847
1, 480.00000, 125.978, -30.8306, 126.146, -150.773, 126.146, 89.2308, 0, 0, 2.69716, -53.9046, 2.69358, -173.847, 2.69357, 66.1569, 0.00443182, 86.8847
1, 540.00000, 125.978, -30.8306, 126.146, -150.773, 126.146, 89.2308, 0, 0, 2.69716, -53.9046, 2.69358, -173.847, 2.69357, 66.1569, 0.00443182, 86.8847
1, 600.00000, 125.978, -30.8306, 126.146, -150.773, 126.146, 89.2308, 0, 0, 2.69716, -53.9046, 2.69358, -173.847, 2.69357, 66.1569, 0.00443182, 86.8847
1, 660.00000, 125.978, -30.8306, 126.146, -150.773, 126.146, 89.2308, 0, 0, 2.69716, -53.9046, 2.69358, -173.847, 2.69357, 66.1569, 0.00443182, 86.8847
1, 720.00000, 125.978, -30.8306, 126.146, -150.773, 126.146, 89.2308, 0, 0, 2.69716, -53.9046, 2.69358, -173.847, 2.69357, 66.1569, 0.00443182, 86.8847
1, 780.00000, 125.978, -30.8306, 126.146, -150.773, 126.146, 89.2308, 0, 0, 2.69716, -53.9046, 2.69358, -173.847, 2.69357, 66.1569, 0.00443182, 86.8847
1, 840.00000, 125.978, -30.8306, 126.146, -150.773, 126.146, 89.2308, 0, 0, 2.69716, -53.9046, 2.69358, -173.847, 2.69357, 66.1569, 0.00443182, 86.8847
1, 900.00000, 125.978, -30.8306, 126.146, -150.773, 126.146, 89.2308, 0, 0, 2.69716, -53.9046, 2.69358, -173.847, 2.69357, 66.1569, 0.00443182, 86.8847
1, 960.00000, 125.978, -30.8306, 126.146, -150.773, 126.146, 89.2308, 0, 0, 2.69716, -53.9046, 2.69358, -173.847, 2.69357, 66.1569, 0.00443182, 86.8847
1, 1020.00000, 125.978, -30.8306, 126.146, -150.773, 126.146, 89.2308, 0, 0, 2.69716, -53.9046, 2.69358, -173.847, 2.69357, 66.1569, 0.00443182, 86.8847
1, 1080.00000, 125.978, -30.8306, 126.146, -150.773, 126.146, 89.2308, 0, 0, 2.69716, -53.9046, 2.69358, -173.847, 2.69357, 66.1569, 0.00443182, 86.8847
1, 1140.00000, 125.978, -30.8306, 126.146, -150.773, 126.146, 89.2308, 0, 0, 2.69716, -53.9046, 2.69358, -173.847, 2.69357, 66.1569, 0.00443182, 86.8847
1, 1200.00000, 125.978, -30.8306, 126.146, -150.773, 126.146, 89.2308, 0, 0, 2.69716, -53.9046, 2.69358, -173.847, 2.69357, 66.1569, 0.00443182, 86.8847
1, 1260.00000, 125.978, -30.8306, 126.146, -150.773, 126.146, 89.2308, 0, 0, 2.69716, -53.9046, 2.69358, -173.847, 2.69357, 66.1569, 0.00443182, 86.8847
1, 1320.00000, 125.978, -30.8306, 126.146, -150.773, 126.146, 89.2308, 0, 0, 2.69716, -53.9046, 2.69358, -173.847, 2.69357, 66.1569, 0.00443182, 86.8847
1, 1380.00000, 125.978, -30.8306, 126.146, -150.773, 126.146, 89.2308, 0, 0, 2.69716, -53.9046, 2.69358, -173.847, 2.69357, 66.1569, 0.00443182, 86.8847
1, 1440.00000, 125.978, -30.8306, 126.146, -150.773, 126.146, 89.2308, 0, 0, 2.69716, -53.9046, 2.69358, -173.847, 2.69357, 66.1569, 0.00443182, 86.8847
1, 1500.00000, 125.978, -30.8306, 126.146, -150.773, 126.146, 89.2308, 0, 0, 2.69716, -53.9046, 2.69358, -173.847, 2.69357, 66.1569, 0.00443182, 86.8847
1, 1560.00000, 125.978, -30.8306, 126.146, -150.773, 126.146, 89.2308, 0, 0, 2.69716, -53.9046, 2.69358, -173.847, 2.69357, 66.1569, 0.00443182, 86.8847
1, 1620.00000, 125.978, -30.8306, 126.146, -150.773, 126.146, 89.2308, 0, 0, 2.69716, -53.9046, 2.69358, -173.847, 2.69357, 66.1569, 0.00443182, 86.8847
1, 1680.00000, 125.978, -30.8306, 126.146, -150.773, 126.146, 89.2308, 0, 0, 2.69716, -53.9046, 2.69358, -173.847, 2.69357, 66.1569, 0.00443182, 86.8847
1, 1740.00000, 125.978, -30.8306, 126.146, -150.773, 126.146, 89.2308, 0, 0, 2.69716, -53.9046, 2.69358, -173.847, 2.69357, 66.1569, 0.00443182, 86.8847
1, 1800.00000, 125.978, -30.8306, 126.146, -150.773, 126.146, 89.2308, 0, 0, 2.69716, -53.9046, 2.69358, -173.847, 2.69357, 66.1569, 0.00443182, 86.8847
1, 1860.00000, 125.978, -30.8306, 126.146, -150.773, 126.146, 89.2308, 0, 0, 2.69716, -53.9046, 2.69358, -173.847, 2.69357, 66.1569, 0.00443182, 86.8847
1, 1920.00000, 125.978, -30.8306, 126.146, -150.773, 126.146, 89.2308, 0, 0, 2.69716, -53.9046, 2.69358, -173.847, 2.69357, 66.1569, 0.00443182, 86.8847
1, 1980.00000, 125.978, -30.8306, 126.146, -150.773, 126.146, 89.2308, 0, 0, 2.69716, -53.9046, 2.69358, -173.847, 2.69357, 66.1569, 0.00443182, 86.8847
1, 2040.00000, 125.983, -30.8288, 126.278, -150.599, 126.553, 89.2789, 0, 0, 2.69707, -53.903, 2.69079, -173.674, 2.68495, 66.2043, 0.0192073, 83.725
1, 2100.00000, 125.983, -30.8288, 126.278, -150.599, 126.553, 89.2789, 0, 0, 2.69705, -53.9027, 2.69076, -173.673, 2.6849, 66.205, 0.0192359, 83.6764
1, 2160.00000, 125.983, -30.8288, 126.278, -150.599, 126.553, 89.2789, 0, 0, 2.69705, -53.9027, 2.69076, -173.673, 2.6849, 66.205, 0.0192359, 83.6761
1, 2220.00000, 125.983, -30.8288, 126.278, -150.599, 126.553, 89.2789, 0, 0, 2.69705, -53.9027, 2.69076, -173.673, 2.6849, 66.205, 0.0192359, 83.6761
1, 2280.00000, 125.983, -30.8288, 126.278, -150.599, 126.553, 89.2789, 0, 0, 2.69705, -53.9027, 2.69076, -173.673, 2.6849, 66.205, 0.0192359, 83.6761
1, 2340.00000, 125.983, -30.8288, 126.278, -150.599, 126.553, 89.2789, 0, 0, 2.69705, -53.9027, 2.69076, -173.673, 2.6849, 66.205, 0.0192359, 83.6761
1, 2400.00000, 125.983, -30.8288, 126.278, -150.599, 126.553, 89.2789, 0, 0, 2.69705, -53.9027, 2.69076, -173.673, 2.6849, 66.205, 0.0192359, 83.6761
1, 2460.00000, 125.983, -30.8288, 126.278, -150.599, 126.553, 89.2789, 0, 0, 2.69705, -53.9027, 2.69076, -173.673, 2.6849, 66.205, 0.0192359, 83.6761
1, 2520.00000, 126.112, -30.6557, 126.683, -150.553, 126.555, 89.2794, 0, 0, 2.69431, -53.7299, 2.68219, -173.627, 2.68486, 66.2054, 0.0176464, 130.908
1, 2580.00000, 126.112, -30.6557, 126.683, -150.553, 126.555, 89.2794, 0, 0, 2.69429, -53.7296, 2.68216, -173.627, 2.68486, 66.2055, 0.0176569, 130.986
1, 2640.00000, 126.112, -30.6557, 126.683, -150.553, 126.555, 89.2794, 0, 0, 2.69429, -53.7296, 2.68216, -173.627, 2.68486, 66.2055, 0.0176569, 130.986
1, 2700.00000, 126.112, -30.6557, 126.683, -150.553, 126.555, 89.2794, 0, 0, 2.69429, -53.7296, 2.68216, -173.627, 2.68486, 66.2055, 0.0176569, 130.986
1, 2760.00000, 126.512, -30.6112, 126.682, -150.552, 126.683, 89.4497, 0, 0, 2.6858, -53.6856, 2.68216, -173.626, 2.68218, 66.3754, 0.00453272, 88.0829
1, 2820.00000, 126.513, -30.6112, 126.682, -150.552, 126.683, 89.4497, 0, 0, 2.68576, -53.6851, 2.68217, -173.626, 2.68216, 66.3758, 0.00450645, 87.677
1, 2880.00000, 126.513, -30.6112, 126.682, -150.552, 126.683, 89.4497, 0, 0, 2.68576, -53.6851, 2.68217, -173.626, 2.68216, 66.3758, 0.00450638, 87.6753
1, 2940.00000, 126.513, -30.6112, 126.682, -150.552, 126.683, 89.4497, 0, 0, 2.68576, -53.6851, 2.68217, -173.626, 2.68216, 66.3758, 0.00450638, 87.6753
1, 3000.00000, 126.513, -30.6112, 126.682, -150.552, 126.683, 89.4497, 0, 0, 2.68576, -53.6851, 2.68217, -173.626, 2.68216, 66.3758, 0.00450638, 87.6753
1, 3060.00000, 126.513, -30.6112, 126.682, -150.552, 126.683, 89.4497, 0, 0, 2.68576, -53.6851, 2.68217, -173.626, 2.68216, 66.3758, 0.00450638, 87.6753
1, 3120.00000, 126.513, -30.6112, 126.682, -150.552, 126.683, 89.4497, 0, 0, 2.68576, -53.6851, 2.68217, -173.626, 2.68216, 66.3758, 0.00450638, 87.6753
1, 3180.00000, 126.513, -30.6112, 126.682, -150.552, 126.683, 89.4497, 0, 0, 2.68576, -53.6851, 2.68217, -173.626, 2.68216, 66.3758, 0.00450638, 87.6753
1, 3240.00000, 126.513, -30.6112, 126.682, -150.552, 126.683, 89.4497, 0, 0, 2.68576, -53.6851, 2.68217, -173.626, 2.68216, 66.3758, 0.00450638, 87.6753
1, 3300.00000, 126.513, -30.6112, 126.682, -150.552, 126.683, 89.4497, 0, 0, 2.68576, -53.6851, 2.68217, -173.626, 2.68216, 66.3758, 0.00450638, 87.6753
1, 3360.00000, 126.513, -30.6112, 126.682, -150.552, 126.683, 89.4497, 0, 0, 2.68576, -53.6851, 2.68217, -173.626, 2.68216, 66.3758, 0.00450638, 87.6753
1, 3420.00000, 126.513, -30.6112, 126.682, -150.552, 126.683, 89.4497, 0, 0, 2.68576, -53.6851, 2.68217, -173.626, 2.68216, 66.3758, 0.00450638, 87.6753
1, 3480.00000, 126.513, -30.6112, 126.682, -150.552, 126.683, 89.4497, 0, 0, 2.68576, -53.6851, 2.68217, -173.626, 2.68216, 66.3758, 0.00450638, 87.6753
1, 3540.00000, 126.513, -30.6112, 126.682, -150.552, 126.683, 89.4497, 0, 0, 2.68576, -53.6851, 2.68217, -173.626, 2.68216, 66.3758, 0.00450638, 87.6753
2, 0.00000, 126.513, -30.6112, 126.682, -150.552, 126.683, 89.4497, 0, 0, 2.68576, -53.6851, 2.68217, -173.626, 2.68216, 66.3758, 0.00450638, 87.6753
2, 60.00000, 126.513, -30.6112, 126.682, -150.552, 126.683, 89.4497, 0, 0, 2.68576, -53.6851, 2.68217, -173.626, 2.68216, 66.3758, 0.00450638, 87.6753
2, 120.00000, 126.508, -30.6123, 126.678, -150.553, 126.678, 89.4486, 0, 0, 2.69329, -53.6862, 2.68968, -173.627, 2.68967, 66.3747, 0.00452469, 87.711
2, 180.00000, 126.503, -30.6135, 126.673, -150.555, 126.674, 89.4475, 0, 0, 2.70091, -53.6874, 2.69728, -173.628, 2.69727, 66.3736, 0.00454362, 87.7579
2, 240.00000, 126.498, -30.6147, 126.669, -150.556, 126.669, 89.4464, 0, 0, 2.70844, -53.6886, 2.7048, -173.63, 2.70479, 66.3725, 0.00456237, 87.8045
2, 300.00000, 126.494, -30.6159, 126.665, -150.557, 126.665, 89.4453, 0, 0, 2.71598, -53.6897, 2.71231, -173.631, 2.71231, 66.3714, 0.00458116, 87.8508
2, 360.00000, 126.489, -30.6171, 126.66, -150.558, 126.66, 89.4441, 0, 0, 2.7236, -53.6909, 2.71992, -173.632, 2.71991, 66.3703, 0.00460021, 87.8975
2, 420.00000, 126.484, -30.6182, 126.656, -150.559, 126.656, 89.443, 0, 0, 2.73114, -53.6921, 2.72743, -173.633, 2.72743, 66.3692, 0.00461909, 87.9438
2, 480.00000, 126.479, -30.6194, 126.652, -150.56, 126.651, 89.4419, 0, 0, 2.73867, -53.6933, 2.73495, -173.634, 2.73495, 66.368, 0.004638, 87.9898
2, 540.00000, 126.475, -30.6206, 126.647, -150.561, 126.647, 89.4408, 0, 0, 2.7463, -53.6944, 2.74255, -173.635, 2.74256, 66.3669, 0.00465717, 88.0361
2, 600.00000, 126.47, -30.6218, 126.643, -150.562, 126.642, 89.4397, 0, 0, 2.75383, -53.6956, 2.75007, -173.636, 2.75008, 66.3658, 0.00467616, 88.0821
2, 660.00000, 126.465, -30.6229, 126.639, -150.563, 126.638, 89.4386, 0, 0, 2.76137, -53.6968, 2.75759, -173.637, 2.7576, 66.3647, 0.00469519, 88.1278
