hour,t(sec),V1,VAngle1,V2,VAngle2,V3,VAngle3,V4,VAngle4,I1,IAngle1,I2,IAngle2,I3,IAngle3,I4,IAngle4
0, 60.00000, 126.458, -30.6374, 128.739, -150.729, 127.331, 88.5055, 0, 0, 1.8652, -53.7113, 1.83217, -173.803, 1.8524, 65.432, 0.0551643, 162.588
0, 120.00000, 126.458, -30.6373, 128.761, -150.73, 127.34, 88.4972, 0, 0, 1.8652, -53.7112, 1.83186, -173.804, 1.85227, 65.4236, 0.0556941, 162.572
0, 180.00000, 126.458, -30.6372, 128.78, -150.731, 127.348, 88.4896, 0, 0, 1.8652, -53.7112, 1.83158, -173.804, 1.85216, 65.4161, 0.056171, 162.559
0, 240.00000, 126.458, -30.6371, 128.798, -150.731, 127.355, 88.4829, 0, 0, 1.8652, -53.7111, 1.83133, -173.805, 1.85205, 65.4093, 0.0566004, 162.547
0, 300.00000, 126.458, -30.6371, 128.814, -150.732, 127.362, 88.4768, 0, 0, 1.8652, -53.711, 1.83111, -173.805, 1.85196, 65.4031, 0.0569869, 162.537
0, 360.00000, 126.458, -30.637, 128.828, -150.732, 127.368, 88.4713, 0, 0, 1.8652, -53.711, 1.8309, -173.806, 1.85188, 65.3976, 0.0573349, 162.529
0, 420.00000, 126.458, -30.637, 128.841, -150.733, 127.373, 88.4663, 0, 0, 1.8652, -53.7109, 1.83072, -173.806, 1.8518, 65.3926, 0.0576481, 162.522
0, 480.00000, 126.458, -30.6369, 128.852, -150.733, 127.378, 88.4618, 0, 0, 1.8652, -53.7109, 1.83056, -173.807, 1.85173, 65.3881, 0.05793, 162.515
0, 540.00000, 126.458, -30.6369, 128.862, -150.733, 127.382, 88.4578, 0, 0, 1.8652, -53.7108, 1.83041, -173.807, 1.85167, 65.3841, 0.0581838, 162.51
0, 600.00000, 126.458, -30.6368, 128.872, -150.734, 127.385, 88.4542, 0, 0, 1.8652, -53.7108, 1.83027, -173.807, 1.85162, 65.3805, 0.0584123, 162.505
0, 660.00000, 126.458, -30.6368, 128.88, -150.734, 127.389, 88.4509, 0, 0, 1.8652, -53.7107, 1.83015, -173.808, 1.85157, 65.3772, 0.0586179, 162.501
0, 720.00000, 126.458, -30.6368, 128.888, -150.734, 127.392, 88.448, 0, 0, 1.8652, -53.7107, 1.83005, -173.808, 1.85152, 65.3742, 0.0588029, 162.498
0, 780.00000, 126.458, -30.6368, 128.895, -150.734, 127.395, 88.4454, 0, 0, 1.86519, -53.7107, 1.82995, -173.808, 1.85148, 65.3716, 0.0589695, 162.495
0, 840.00000, 126.458, -30.6367, 128.901, -150.735, 127.397, 88.443, 0, 0, 1.86519, -53.7107, 1.82986, -173.808, 1.85145, 65.3692, 0.0591195, 162.492
0, 900.00000, 126.458, -30.6367, 128.906, -150.735, 127.399, 88.4408, 0, 0, 1.86519, -53.7106, 1.82978, -173.809, 1.85142, 65.367, 0.0592544, 162.489
0, 960.00000, 126.063, -30.6762, 128.904, -150.74, 127.26, 88.2724, 0, 0, 1.87104, -53.7501, 1.82982, -173.814, 1.85344, 65.1986, 0.0688332, 159.975
0, 1020.00000, 126.063, -30.6762, 128.908, -150.74, 127.262, 88.2707, 0, 0, 1.87104, -53.7501, 1.82975, -173.814, 1.85342, 65.1968, 0.0689417, 159.977
0, 1080.00000, 126.063, -30.6761, 128.912, -150.741, 127.263, 88.2691, 0, 0, 1.87104, -53.7501, 1.8297, -173.814, 1.85339, 65.1953, 0.0690395, 159.98
0, 1140.00000, 126.063, -30.6761, 128.916, -150.741, 127.265, 88.2677, 0, 0, 1.87104, -53.75, 1.82965, -173.815, 1.85337, 65.1939, 0.0691275, 159.983
0, 1200.00000, 126.063, -30.6761, 128.919, -150.741, 127.266, 88.2665, 0, 0, 1.87104, -53.75, 1.8296, -173.815, 1.85336, 65.1926, 0.0692067, 159.985
0, 1260.00000, 126.063, -30.6761, 128.922, -150.741, 127.267, 88.2654, 0, 0, 1.87104, -53.75, 1.82956, -173.815, 1.85334, 65.1915, 0.069278, 159.987
0, 1320.00000, 126.063, -30.6761, 128.924, -150.741, 127.268, 88.2643, 0, 0, 1.87104, -53.75, 1.82952, -173.815, 1.85332, 65.1905, 0.0693421, 159.989
0, 1380.00000, 126.063, -30.676, 128.927, -150.741, 127.269, 88.2634, 0, 0, 1.87104, -53.75, 1.82949, -173.815, 1.85331, 65.1895, 0.0693999, 159.99
0, 1440.00000, 126.063, -30.676, 128.929, -150.741, 127.27, 88.2626, 0, 0, 1.87104, -53.7499, 1.82946, -173.815, 1.8533, 65.1887, 0.0694518, 159.992
0, 1500.00000, 126.063, -30.676, 128.931, -150.741, 127.271, 88.2618, 0, 0, 1.87104, -53.7499, 1.82943, -173.815, 1.85329, 65.188, 0.0694986, 159.993
0, 1560.00000, 126.063, -30.676, 128.933, -150.741, 127.272, 88.2612, 0, 0, 1.87104, -53.7499, 1.8294, -173.815, 1.85328, 65.1873, 0.0695407, 159.994
0, 1620.00000, 126.063, -30.676, 128.934, -150.741, 127.272, 88.2606, 0, 0, 1.87104, -53.7499, 1.82938, -173.815, 1.85327, 65.1867, 0.0695786, 159.996
0, 1680.00000, 126.063, -30.676, 128.936, -150.741, 127.273, 88.26, 0, 0, 1.87104, -53.7499, 1.82936, -173.815, 1.85326, 65.1861, 0.0696127, 159.997
0, 1740.00000, 126.063, -30.676, 128.937, -150.741, 127.273, 88.2595, 0, 0, 1.87104, -53.7499, 1.82934, -173.815, 1.85325, 65.1857, 0.0696434, 159.997
0, 1800.00000, 126.063, -30.676, 128.938, -150.742, 127.274, 88.2591, 0, 0, 1.87104, -53.7499, 1.82933, -173.815, 1.85325, 65.1852, 0.069671, 159.998
0, 1860.00000, 126.063, -30.676, 128.939, -150.742, 127.274, 88.2587, 0, 0, 1.87104, -53.7499, 1.82931, -173.815, 1.85324, 65.1848, 0.0696959, 159.999
0, 1920.00000, 126.063, -30.6759, 128.94, -150.742, 127.275, 88.2584, 0, 0, 1.87104, -53.7499, 1.8293, -173.815, 1.85323, 65.1845, 0.0697182, 160
0, 1980.00000, 126.063, -30.6759, 128.941, -150.742, 127.275, 88.258, 0, 0, 1.87104, -53.7499, 1.82929, -173.816, 1.85323, 65.1841, 0.0697384, 160
0, 2040.00000, 126.063, -30.6759, 128.941, -150.742, 127.275, 88.2578, 0, 0, 1.87104, -53.7499, 1.82928, -173.816, 1.85323, 65.1838, 0.0697565, 160.001
0, 2100.00000, 126.063, -30.6759, 128.942, -150.742, 127.275, 88.2575, 0, 0, 1.87104, -53.7499, 1.82927, -173.816, 1.85322, 65.1836, 0.0697728, 160.001
0, 2160.00000, 126.063, -30.6759, 128.943, -150.742, 127.276, 88.2573, 0, 0, 1.87104, -53.7499, 1.82926, -173.816, 1.85322, 65.1833, 0.0697875, 160.002
0, 2220.00000, 126.063, -30.6759, 128.943, -150.742, 127.276, 88.257, 0, 0, 1.87104, -53.7498, 1.82925, -173.816, 1.85321, 65.1831, 0.0698007, 160.002
0, 2280.00000, 126.063, -30.6759, 128.944, -150.742, 127.276, 88.2569, 0, 0, 1.87104, -53.7498, 1.82924, -173.816, 1.85321, 65.183, 0.0698126, 160.002
0, 2340.00000, 126.063, -30.6759, 128.944, -150.742, 127.276, 88.2567, 0, 0, 1.87104, -53.7498, 1.82924, -173.816, 1.85321, 65.1828, 0.0698233, 160.003
0, 2400.00000, 126.063, -30.6759, 128.945, -150.742, 127.276, 88.2565, 0, 0, 1.87104, -53.7498, 1.82923, -173.816, 1.85321, 65.1826, 0.0698329, 160.003
0, 2460.00000, 126.063, -30.6759, 128.945, -150.742, 127.277, 88.2564, 0, 0, 1.87104, -53.7498, 1.82923, -173.816, 1.85321, 65.1825, 0.0698416, 160.003
0, 2520.00000, 126.063, -30.6759, 128.945, -150.742, 127.277, 88.2563, 0, 0, 1.87104, -53.7498, 1.82922, -173.816, 1.8532, 65.1824, 0.0698494, 160.003
0, 2580.00000, 126.063, -30.6759, 128.946, -150.742, 127.277, 88.2562, 0, 0, 1.87104, -53.7498, 1.82922, -173.816, 1.8532, 65.1823, 0.0698564, 160.004
0, 2640.00000, 126.063, -30.6759, 128.946, -150.742, 127.277, 88.2561, 0, 0, 1.87104, -53.7498, 1.82921, -173.816, 1.8532, 65.1822, 0.0698627, 160.004
0, 2700.00000, 126.063, -30.6759, 128.946, -150.742, 127.277, 88.256, 0, 0, 1.87104, -53.7498, 1.82921, -173.816, 1.8532, 65.1821, 0.0698684, 160.004
0, 2760.00000, 126.063, -30.6759, 128.946, -150.742, 127.277, 88.2559, 0, 0, 1.87104, -53.7498, 1.82921, -173.816, 1.8532, 65.182, 0.0698735, 160.004
0, 2820.00000, 126.063, -30.6759, 128.946, -150.742, 127.277, 88.2558, 0, 0, 1.87104, -53.7498, 1.82921, -173.816, 1.8532, 65.1819, 0.0698781, 160.004
0, 2880.00000, 126.063, -30.6759, 128.947, -150.742, 127.277, 88.2558, 0, 0, 1.87104, -53.7498, 1.8292, -173.816, 1.8532, 65.1818, 0.0698823, 160.004
0, 2940.00000, 126.063, -30.6759, 128.947, -150.742, 127.277, 88.2557, 0, 0, 1.87104, -53.7498, 1.8292, -173.816, 1.85319, 65.1818, 0.069886, 160.004
0, 3000.00000, 126.063, -30.6759, 128.947, -150.742, 127.277, 88.2556, 0, 0, 1.87104, -53.7498, 1.8292, -173.816, 1.85319, 65.1817, 0.0698894, 160.005
0, 3060.00000, 126.063, -30.6759, 128.947, -150.742, 127.277, 88.2556, 0, 0, 1.87104, -53.7498, 1.8292, -173.816, 1.85319, 65.1817, 0.0698924, 160.005
0, 3120.00000, 126.063, -30.6759, 128.947, -150.742, 127.277, 88.2556, 0, 0, 1.87104, -53.7498, 1.8292, -173.816, 1.85319, 65.1816, 0.0698951, 160.005
0, 3180.00000, 126.063, -30.6759, 128.947, -150.742, 127.277, 88.2555, 0, 0, 1.87104, -53.7498, 1.82919, -173.816, 1.85319, 65.1816, 0.0698976, 160.005
0, 3240.00000, 126.063, -30.6759, 128.947, -150.742, 127.277, 88.2555, 0, 0, 1.87104, -53.7498, 1.82919, -173.816, 1.85319, 65.1816, 0.0698998, 160.005
0, 3300.00000, 126.063, -30.6759, 128.947, -150.742, 127.278, 88.2554, 0, 0, 1.87104, -53.7498, 1.82919, -173.816, 1.85319, 65.1815, 0.0699017, 160.005
0, 3360.00000, 126.063, -30.6759, 128.947, -150.742, 127.278, 88.2554, 0, 0, 1.87104, -53.7498, 1.82919, -173.816, 1.85319, 65.1815, 0.0699035, 160.005
0, 3420.00000, 126.063, -30.6759, 128.948, -150.742, 127.278, 88.2554, 0, 0, 1.87104, -53.7498, 1.82919, -173.816, 1.85319, 65.1815, 0.0699051, 160.005
0, 3480.00000, 126.063, -30.6759, 128.948, -150.742, 127.278, 88.2554, 0, 0, 1.87104, -53.7498, 1.82919, -173.816, 1.85319, 65.1814, 0.0699066, 160.005
0, 3540.00000, 126.063, -30.6759, 128.948, -150.742, 127.278, 88.2553, 0, 0, 1.87104, -53.7498, 1.82919, -173.816, 1.85319, 65.1814, 0.0699079, 160.005
1, 0.00000, 126.063, -30.6759, 128.948, -150.742, 127.278, 88.2553, 0, 0, 1.87104, -53.7498, 1.82919, -173.816, 1.85319, 65.1814, 0.0699091, 160.005
1, 60.00000, 126.063, -30.6759, 128.948, -150.742, 127.278, 88.2553, 0, 0, 1.87104, -53.7498, 1.82919, -173.816, 1.85319, 65.1814, 0.0699101, 160.005
1, 120.00000, 126.063, -30.6759, 128.948, -150.742, 127.278, 88.2553, 0, 0, 1.87104, -53.7498, 1.82919, -173.816, 1.85319, 65.1814, 0.0699111, 160.005
1, 180.00000, 126.063, -30.6759, 128.948, -150.742, 127.278, 88.2553, 0, 0, 1.87104, -53.7498, 1.82919, -173.816, 1.85319, 65.1814, 0.0699119, 160.005
1, 240.00000, 126.063, -30.6759, 128.948, -150.742, 127.278, 88.2553, 0, 0, 1.87104, -53.7498, 1.82919, -173.816, 1.85319, 65.1814, 0.0699127, 160.005
1, 300.00000, 126.063, -30.6759, 128.948, -150.742, 127.278, 88.2553, 0, 0, 1.87104, -53.7498, 1.82919, -173.816, 1.85319, 65.1813, 0.0699134, 160.005
1, 360.00000, 126.063, -30.6759, 128.948, -150.742, 127.278, 88.2552, 0, 0, 1.87104, -53.7498, 1.82918, -173.816, 1.85319, 65.1813, 0.069914, 160.005
1, 420.00000, 126.063, -30.6759, 128.948, -150.742, 127.278, 88.2552, 0, 0, 1.87104, -53.7498, 1.82918, -173.816, 1.85319, 65.1813, 0.0699145, 160.005
1, 480.00000, 126.063, -30.6759, 128.948, -150.742, 127.278, 88.2552, 0, 0, 1.87104, -53.7498, 1.82918, -173.816, 1.85319, 65.1813, 0.0699151, 160.005
1, 540.00000, 126.063, -30.6759, 128.948, -150.742, 127.278, 88.2552, 0, 0, 1.87104, -53.7498, 1.82918, -173.816, 1.85319, 65.1813, 0.0699155, 160.005
1, 600.00000, 126.063, -30.6759, 128.948, -150.742, 127.278, 88.2552, 0, 0, 1.87104, -53.7498, 1.82918, -173.816, 1.85319, 65.1813, 0.0699159, 160.005
1, 660.00000, 126.063, -30.6759, 128.948, -150.742, 127.278, 88.2552, 0, 0, 1.87104, -53.7498, 1.82918, -173.816, 1.85319, 65.1813, 0.0699163, 160.005
1, 720.00000, 126.063, -30.6759, 128.948, -150.742, 127.278, 88.2552, 0, 0, 1.87104, -53.7498, 1.82918, -173.816, 1.85319, 65.1813, 0.0699166, 160.005
1, 780.00000, 126.063, -30.6759, 128.948, -150.742, 127.278, 88.2552, 0, 0, 1.87104, -53.7498, 1.82918, -173.816, 1.85319, 65.1813, 0.0699169, 160.005
1, 840.00000, 126.063, -30.6759, 128.948, -150.742, 127.278, 88.2552, 0, 0, 1.87104, -53.7498, 1.82918, -173.816, 1.85319, 65.1813, 0.0699172, 160.005
1, 900.00000, 126.063, -30.6759, 128.948, -150.742, 127.278, 88.2552, 0, 0, 1.87104, -53.7498, 1.82918, -173.816, 1.85319, 65.1813, 0.0699174, 160.005
1, 960.00000, 126.063, -30.6759, 128.948, -150.742, 127.278, 88.2552, 0, 0, 1.87104, -53.7498, 1.82918, -173.816, 1.85319, 65.1813, 0.0699176, 160.005
1, 1020.00000, 126.063, -30.6759, 128.948, -150.742, 127.278, 88.2552, 0, 0, 1.87104, -53.7498, 1.82918, -173.816, 1.85319, 65.1813, 0.0699178, 160.005
1, 1080.00000, 126.063, -30.6759, 128.948, -150.742, 127.278, 88.2552, 0, 0, 1.87104, -53.7498, 1.82918, -173.816, 1.85319, 65.1813, 0.069918, 160.005
1, 1140.00000, 126.063, -30.6759, 128.948, -150.742, 127.278, 88.2552, 0, 0, 1.87104, -53.7498, 1.82918, -173.816, 1.85319, 65.1813, 0.0699182, 160.005
1, 1200.00000, 126.063, -30.6759, 128.948, -150.742, 127.278, 88.2552, 0, 0, 1.87104, -53.7498, 1.82918, -173.816, 1.85319, 65.1813, 0.0699183, 160.005
1, 1260.00000, 126.063, -30.6759, 128.948, -150.742, 127.278, 88.2552, 0, 0, 1.87104, -53.7498, 1.82918, -173.816, 1.85319, 65.1813, 0.0699184, 160.005
1, 1320.00000, 126.063, -30.6759, 128.948, -150.742, 127.278, 88.2552, 0, 0, 1.87104, -53.7498, 1.82918, -173.816, 1.85319, 65.1813, 0.0699186, 160.005
1, 1380.00000, 126.063, -30.6759, 128.948, -150.742, 127.278, 88.2552, 0, 0, 1.87104, -53.7498, 1.82918, -173.816, 1.85319, 65.1813, 0.0699187, 160.005
1, 1440.00000, 126.063, -30.6759, 128.948, -150.742, 127.278, 88.2552, 0, 0, 1.87104, -53.7498, 1.82918, -173.816, 1.85319, 65.1813, 0.0699188, 160.005
1, 1500.00000, 126.063, -30.6759, 128.948, -150.742, 127.278, 88.2552, 0, 0, 1.87104, -53.7498, 1.82918, -173.816, 1.85319, 65.1813, 0.0699188, 160.005
1, 1560.00000, 126.063, -30.6759, 128.948, -150.742, 127.278, 88.2552, 0, 0, 1.87104, -53.7498, 1.82918, -173.816, 1.85319, 65.1813, 0.0699189, 160.005
1, 1620.00000, 126.063, -30.6759, 128.948, -150.742, 127.278, 88.2552, 0, 0, 1.87104, -53.7498, 1.82918, -173.816, 1.85319, 65.1813, 0.069919, 160.005
1, 1680.00000, 126.063, -30.6759, 128.948, -150.742, 127.278, 88.2552, 0, 0, 1.87104, -53.7498, 1.82918, -173.816, 1.85319, 65.1813, 0.069919, 160.005
1, 1740.00000, 126.063, -30.6759, 128.948, -150.742, 127.278, 88.2552, 0, 0, 1.87104, -53.7498, 1.82918, -173.816, 1.85319, 65.1813, 0.0699191, 160.005
1, 1800.00000, 126.063, -30.6759, 128.948, -150.742, 127.278, 88.2552, 0, 0, 1.87104, -53.7498, 1.82918, -173.816, 1.85319, 65.1813, 0.0699191, 160.005
1, 1860.00000, 126.063, -30.6759, 128.948, -150.742, 127.278, 88.2552, 0, 0, 1.87104, -53.7498, 1.82918, -173.816, 1.85319, 65.1813, 0.0699192, 160.005
1, 1920.00000, 126.063, -30.6759, 128.948, -150.742, 127.278, 88.2552, 0, 0, 1.87104, -53.7498, 1.82918, -173.816, 1.85319, 65.1813, 0.0699192, 160.005
1, 1980.00000, 126.063, -30.6759, 128.948, -150.742, 127.278, 88.2552, 0, 0, 1.87104, -53.7498, 1.82918, -173.816, 1.85319, 65.1813, 0.0699193, 160.005
1, 2040.00000, 126.456, -30.6366, 128.956, -150.736, 127.419, 88.4202, 0, 0, 1.86524, -53.7105, 1.82907, -173.81, 1.85114, 65.3463, 0.0605511, 162.448
1, 2100.00000, 126.456, -30.6366, 128.956, -150.736, 127.419, 88.4202, 0, 0, 1.86524, -53.7105, 1.82907, -173.81, 1.85114, 65.3463, 0.0605514, 162.448
1, 2160.00000, 126.456, -30.6366, 128.956, -150.736, 127.419, 88.4202, 0, 0, 1.86524, -53.7105, 1.82907, -173.81, 1.85114, 65.3463, 0.0605514, 162.448
1, 2220.00000, 126.456, -30.6366, 128.956, -150.736, 127.419, 88.4202, 0, 0, 1.86524, -53.7105, 1.82907, -173.81, 1.85114, 65.3463, 0.0605514, 162.448
1, 2280.00000, 126.456, -30.6366, 128.956, -150.736, 127.419, 88.4202, 0, 0, 1.86524, -53.7105, 1.82907, -173.81, 1.85114, 65.3463, 0.0605514, 162.448
1, 2340.00000, 126.456, -30.6366, 128.956, -150.736, 127.419, 88.4202, 0, 0, 1.86524, -53.7105, 1.82907, -173.81, 1.85114, 65.3463, 0.0605514, 162.448
1, 2400.00000, 126.456, -30.6366, 128.956, -150.736, 127.419, 88.4202, 0, 0, 1.86524, -53.7105, 1.82907, -173.81, 1.85114, 65.3463, 0.0605515, 162.448
1, 2460.00000, 126.456, -30.6366, 128.956, -150.736, 127.419, 88.4202, 0, 0, 1.86524, -53.7105, 1.82907, -173.81, 1.85114, 65.3463, 0.0605515, 162.448
1, 2520.00000, 126.866, -30.5949, 128.964, -150.731, 127.567, 88.5939, 0, 0, 1.8592, -53.6689, 1.82896, -173.805, 1.84899, 65.52, 0.0509106, 165.921
1, 2580.00000, 126.866, -30.5949, 128.964, -150.731, 127.567, 88.5939, 0, 0, 1.8592, -53.6689, 1.82896, -173.805, 1.84899, 65.52, 0.0509109, 165.921
1, 2640.00000, 126.866, -30.5949, 128.964, -150.731, 127.567, 88.5939, 0, 0, 1.8592, -53.6689, 1.82896, -173.805, 1.84899, 65.52, 0.0509109, 165.921
1, 2700.00000, 126.866, -30.5949, 128.964, -150.731, 127.567, 88.5939, 0, 0, 1.8592, -53.6689, 1.82896, -173.805, 1.84899, 65.52, 0.0509109, 165.921
1, 2760.00000, 126.867, -30.5945, 129.13, -150.569, 127.971, 88.6217, 0, 0, 1.85918, -53.6684, 1.82661, -173.643, 1.84314, 65.5478, 0.0538366, 155.661
1, 2820.00000, 126.867, -30.5945, 129.13, -150.569, 127.971, 88.6217, 0, 0, 1.85918, -53.6684, 1.82661, -173.643, 1.84314, 65.5478, 0.0538368, 155.662
1, 2880.00000, 126.867, -30.5945, 129.13, -150.569, 127.971, 88.6217, 0, 0, 1.85918, -53.6684, 1.82661, -173.643, 1.84314, 65.5478, 0.0538368, 155.662
1, 2940.00000, 126.867, -30.5945, 129.13, -150.569, 127.971, 88.6217, 0, 0, 1.85918, -53.6684, 1.82661, -173.643, 1.84314, 65.5478, 0.0538368, 155.662
1, 3000.00000, 126.867, -30.5945, 129.13, -150.569, 127.971, 88.6217, 0, 0, 1.85918, -53.6684, 1.82661, -173.643, 1.84314, 65.5478, 0.0538369, 155.662
1, 3060.00000, 126.867, -30.5945, 129.13, -150.569, 127.971, 88.6217, 0, 0, 1.85918, -53.6684, 1.82661, -173.643, 1.84314, 65.5478, 0.0538369, 155.662
1, 3120.00000, 126.867, -30.5945, 129.13, -150.569, 127.971, 88.6217, 0, 0, 1.85918, -53.6684, 1.82661, -173.643, 1.84314, 65.5478, 0.0538369, 155.662
1, 3180.00000, 126.867, -30.5945, 129.13, -150.569, 127.971, 88.6217, 0, 0, 1.85918, -53.6684, 1.82661, -173.643, 1.84314, 65.5478, 0.0538369, 155.662
1, 3240.00000, 126.867, -30.5945, 129.13, -150.569, 127.971, 88.6217, 0, 0, 1.85918, -53.6684, 1.82661, -173.643, 1.84314, 65.5478, 0.0538369, 155.662
1, 3300.00000, 126.867, -30.5945, 129.13, -150.569, 127.971, 88.6217, 0, 0, 1.85918, -53.6684, 1.82661, -173.643, 1.84314, 65.5478, 0.0538369, 155.662
1, 3360.00000, 126.867, -30.5945, 129.13, -150.569, 127.971, 88.6217, 0, 0, 1.85918, -53.6684, 1.82661, -173.643, 1.84314, 65.5478, 0.0538369, 155.662
1, 3420.00000, 126.867, -30.5945, 129.13, -150.569, 127.971, 88.6217, 0, 0, 1.85918, -53.6684, 1.82661, -173.643, 1.84314, 65.5478, 0.0538369, 155.662
1, 3480.00000, 126.867, -30.5945, 129.13, -150.569, 127.971, 88.6217, 0, 0, 1.85918, -53.6684, 1.82661, -173.643, 1.84314, 65.5478, 0.0538369, 155.662
1, 3540.00000, 126.867, -30.5945, 129.13, -150.569, 127.971, 88.6217, 0, 0, 1.85918, -53.6684, 1.82661, -173.643, 1.84314, 65.5478, 0.0538369, 155.662
2, 0.00000, 126.867, -30.5945, 129.13, -150.569, 127.971, 88.6217, 0, 0, 1.85918, -53.6684, 1.82661, -173.643, 1.84314, 65.5478, 0.0538369, 155.662
2, 60.00000, 126.867, -30.5945, 129.13, -150.569, 127.971, 88.6217, 0, 0, 1.85918, -53.6684, 1.82661, -173.643, 1.84314, 65.5478, 0.0538369, 155.662
2, 120.00000, 126.863, -30.5957, 129.126, -150.57, 127.967, 88.6207, 0, 0, 1.86439, -53.6696, 1.83171, -173.644, 1.8483, 65.5467, 0.0539889, 155.659
2, 180.00000, 126.859, -30.5968, 129.122, -150.571, 127.963, 88.6196, 0, 0, 1.86965, -53.6707, 1.83689, -173.645, 1.85352, 65.5457, 0.0541427, 155.656
2, 240.00000, 126.855, -30.598, 129.118, -150.572, 127.959, 88.6186, 0, 0, 1.87486, -53.6719, 1.84199, -173.646, 1.85868, 65.5447, 0.0542946, 155.653
2, 300.00000, 126.851, -30.5991, 129.114, -150.573, 127.955, 88.6176, 0, 0, 1.88006, -53.673, 1.8471, -173.647, 1.86384, 65.5436, 0.0544467, 155.65
2, 360.00000, 126.847, -30.6003, 129.11, -150.574, 127.951, 88.6165, 0, 0, 1.88533, -53.6742, 1.85228, -173.648, 1.86906, 65.5426, 0.0546005, 155.647
2, 420.00000, 126.843, -30.6014, 129.107, -150.575, 127.947, 88.6155, 0, 0, 1.89054, -53.6754, 1.85739, -173.649, 1.87422, 65.5416, 0.0547525, 155.644
2, 480.00000, 126.839, -30.6026, 129.103, -150.576, 127.943, 88.6144, 0, 0, 1.89574, -53.6765, 1.8625, -173.65, 1.87938, 65.5405, 0.0549046, 155.641
2, 540.00000, 126.834, -30.6038, 129.099, -150.577, 127.939, 88.6134, 0, 0, 1.90101, -53.6777, 1.86767, -173.651, 1.8846, 65.5395, 0.0550585, 155.638
2, 600.00000, 126.83, -30.6049, 129.095, -150.578, 127.935, 88.6124, 0, 0, 1.90622, -53.6788, 1.87278, -173.652, 1.88976, 65.5385, 0.0552106, 155.635
2, 660.00000, 126.826, -30.6061, 129.091, -150.58, 127.931, 88.6113, 0, 0, 1.91143, -53.68, 1.87789, -173.653, 1.89492, 65.5374, 0.0553627, 155.632
2, 720.00000, 126.822, -30.6072, 129.087, -150.581, 127.927, 88.6103, 0, 0, 1.9167, -53.6811, 1.88306, -173.655, 1.90015, 65.5364, 0.0555167, 155.629
