hour,t(sec),V1,VAngle1,V2,VAngle2,V3,VAngle3,V4,VAngle4,I1,IAngle1,I2,IAngle2,I3,IAngle3,I4,IAngle4
0, 60.00000, 123.957, -33.2084, 125.044, -150.313, 129.503, 87.7742, 0, 0, 3.39781, -56.2813, 3.36839, -173.386, 3.25249, 64.7018, 0.282386, 75.6666
0, 120.00000, 123.959, -33.2396, 125.042, -150.311, 129.561, 87.7568, 0, 0, 3.39778, -56.3126, 3.36843, -173.385, 3.25103, 64.6843, 0.285462, 75.5497
0, 180.00000, 123.96, -33.2677, 125.041, -150.31, 129.613, 87.7411, 0, 0, 3.39775, -56.3408, 3.36847, -173.384, 3.24971, 64.6685, 0.288232, 75.4465
0, 240.00000, 123.962, -33.2931, 125.039, -150.309, 129.66, 87.727, 0, 0, 3.39772, -56.3662, 3.36851, -173.382, 3.24853, 64.6543, 0.290727, 75.3555
0, 300.00000, 123.963, -33.3159, 125.038, -150.308, 129.702, 87.7143, 0, 0, 3.39769, -56.3891, 3.36854, -173.381, 3.24746, 64.6415, 0.292973, 75.275
0, 360.00000, 123.964, -33.3364, 125.037, -150.307, 129.74, 87.7028, 0, 0, 3.39767, -56.4097, 3.36857, -173.381, 3.24651, 64.6299, 0.294995, 75.2037
0, 420.00000, 123.965, -33.3549, 125.036, -150.306, 129.775, 87.6925, 0, 0, 3.39765, -56.4282, 3.36859, -173.38, 3.24564, 64.6195, 0.296815, 75.1405
0, 480.00000, 123.965, -33.3715, 125.035, -150.305, 129.805, 87.6832, 0, 0, 3.39764, -56.445, 3.36861, -173.379, 3.24487, 64.6101, 0.298454, 75.0843
0, 540.00000, 123.966, -33.3865, 125.035, -150.304, 129.833, 87.6748, 0, 0, 3.39762, -56.46, 3.36863, -173.378, 3.24417, 64.6017, 0.299929, 75.0343
0, 600.00000, 123.967, -33.4, 125.034, -150.304, 129.858, 87.6673, 0, 0, 3.39761, -56.4735, 3.36865, -173.378, 3.24355, 64.594, 0.301257, 74.9898
0, 660.00000, 123.967, -33.4122, 125.033, -150.303, 129.88, 87.6605, 0, 0, 3.3976, -56.4857, 3.36867, -173.377, 3.24298, 64.5872, 0.302453, 74.9501
0, 720.00000, 123.968, -33.4231, 125.033, -150.303, 129.901, 87.6544, 0, 0, 3.39759, -56.4967, 3.36868, -173.377, 3.24247, 64.581, 0.303529, 74.9146
0, 780.00000, 123.968, -33.4329, 125.032, -150.302, 129.919, 87.6489, 0, 0, 3.39758, -56.5065, 3.3687, -173.376, 3.24202, 64.5754, 0.304498, 74.8829
0, 840.00000, 123.968, -33.4418, 125.032, -150.302, 129.935, 87.6439, 0, 0, 3.39758, -56.5154, 3.36871, -173.376, 3.24161, 64.5704, 0.30537, 74.8546
0, 900.00000, 123.969, -33.4498, 125.031, -150.301, 129.95, 87.6394, 0, 0, 3.39757, -56.5234, 3.36872, -173.375, 3.24124, 64.5659, 0.306154, 74.8293
0, 960.00000, 123.969, -33.457, 125.031, -150.301, 129.963, 87.6354, 0, 0, 3.39757, -56.5306, 3.36873, -173.375, 3.24091, 64.5619, 0.306861, 74.8066
0, 1020.00000, 123.969, -33.4634, 125.031, -150.301, 129.975, 87.6318, 0, 0, 3.39756, -56.5371, 3.36874, -173.375, 3.24061, 64.5582, 0.307497, 74.7863
0, 1080.00000, 123.97, -33.4692, 125.03, -150.301, 129.986, 87.6285, 0, 0, 3.39756, -56.543, 3.36875, -173.374, 3.24034, 64.5549, 0.308069, 74.7682
0, 1140.00000, 123.97, -33.4745, 125.03, -150.3, 129.995, 87.6256, 0, 0, 3.39755, -56.5482, 3.36875, -173.374, 3.24009, 64.5519, 0.308584, 74.7518
0, 1200.00000, 123.97, -33.4792, 125.03, -150.3, 130.004, 87.6229, 0, 0, 3.39755, -56.5529, 3.36876, -173.374, 3.23988, 64.5493, 0.309048, 74.7372
0, 1260.00000, 123.97, -33.4834, 125.03, -150.3, 130.012, 87.6206, 0, 0, 3.39755, -56.5572, 3.36876, -173.374, 3.23968, 64.5469, 0.309465, 74.7241
0, 1320.00000, 123.97, -33.4872, 125.03, -150.3, 130.019, 87.6184, 0, 0, 3.39754, -56.561, 3.36877, -173.374, 3.2395, 64.5447, 0.309841, 74.7123
0, 1380.00000, 123.97, -33.4907, 125.029, -150.3, 130.025, 87.6165, 0, 0, 3.39754, -56.5645, 3.36877, -173.374, 3.23935, 64.5427, 0.310179, 74.7017
0, 1440.00000, 123.97, -33.4938, 125.029, -150.299, 130.031, 87.6148, 0, 0, 3.39754, -56.5676, 3.36878, -173.373, 3.2392, 64.541, 0.310483, 74.6923
0, 1500.00000, 123.971, -33.4966, 125.029, -150.299, 130.036, 87.6132, 0, 0, 3.39754, -56.5704, 3.36878, -173.373, 3.23907, 64.5394, 0.310757, 74.6837
0, 1560.00000, 123.971, -33.4991, 125.029, -150.299, 130.041, 87.6118, 0, 0, 3.39753, -56.5729, 3.36879, -173.373, 3.23896, 64.538, 0.311004, 74.6761
0, 1620.00000, 123.971, -33.5013, 125.029, -150.299, 130.045, 87.6105, 0, 0, 3.39753, -56.5752, 3.36879, -173.373, 3.23885, 64.5367, 0.311225, 74.6692
0, 1680.00000, 123.971, -33.5033, 125.029, -150.299, 130.049, 87.6094, 0, 0, 3.39753, -56.5772, 3.36879, -173.373, 3.23876, 64.5356, 0.311425, 74.663
0, 1740.00000, 123.971, -33.5052, 125.029, -150.299, 130.052, 87.6084, 0, 0, 3.39753, -56.579, 3.36879, -173.373, 3.23868, 64.5345, 0.311605, 74.6574
0, 1800.00000, 123.971, -33.5068, 125.029, -150.299, 130.055, 87.6074, 0, 0, 3.39753, -56.5807, 3.3688, -173.373, 3.2386, 64.5336, 0.311766, 74.6524
0, 1860.00000, 123.971, -33.5083, 125.028, -150.299, 130.058, 87.6066, 0, 0, 3.39753, -56.5822, 3.3688, -173.373, 3.23853, 64.5328, 0.311912, 74.6479
0, 1920.00000, 123.971, -33.5096, 125.028, -150.299, 130.06, 87.6059, 0, 0, 3.39753, -56.5835, 3.3688, -173.373, 3.23847, 64.532, 0.312043, 74.6439
0, 1980.00000, 123.971, -33.5108, 125.028, -150.299, 130.062, 87.6052, 0, 0, 3.39753, -56.5847, 3.3688, -173.373, 3.23842, 64.5313, 0.312161, 74.6403
0, 2040.00000, 123.971, -33.5119, 125.028, -150.299, 130.064, 87.6046, 0, 0, 3.39753, -56.5858, 3.3688, -173.373, 3.23837, 64.5307, 0.312267, 74.637
0, 2100.00000, 123.971, -33.5129, 125.028, -150.299, 130.066, 87.604, 0, 0, 3.39753, -56.5868, 3.3688, -173.373, 3.23832, 64.5302, 0.312363, 74.6341
0, 2160.00000, 123.971, -33.5137, 125.028, -150.299, 130.068, 87.6035, 0, 0, 3.39752, -56.5876, 3.36881, -173.372, 3.23828, 64.5297, 0.312449, 74.6314
0, 2220.00000, 123.971, -33.5145, 125.028, -150.299, 130.069, 87.6031, 0, 0, 3.39752, -56.5884, 3.36881, -173.372, 3.23824, 64.5292, 0.312526, 74.6291
0, 2280.00000, 123.971, -33.5152, 125.028, -150.298, 130.071, 87.6027, 0, 0, 3.39752, -56.5891, 3.36881, -173.372, 3.23821, 64.5288, 0.312596, 74.6269
0, 2340.00000, 123.971, -33.5159, 125.028, -150.298, 130.072, 87.6023, 0, 0, 3.39752, -56.5898, 3.36881, -173.372, 3.23818, 64.5285, 0.312658, 74.625
0, 2400.00000, 123.971, -33.5164, 125.028, -150.298, 130.073, 87.602, 0, 0, 3.39752, -56.5904, 3.36881, -173.372, 3.23816, 64.5281, 0.312715, 74.6233
0, 2460.00000, 123.971, -33.517, 125.028, -150.298, 130.074, 87.6017, 0, 0, 3.39752, -56.5909, 3.36881, -173.372, 3.23813, 64.5278, 0.312765, 74.6217
0, 2520.00000, 123.971, -33.5174, 125.028, -150.298, 130.075, 87.6015, 0, 0, 3.39752, -56.5913, 3.36881, -173.372, 3.23811, 64.5276, 0.312811, 74.6203
0, 2580.00000, 123.971, -33.5178, 125.028, -150.298, 130.075, 87.6012, 0, 0, 3.39752, -56.5918, 3.36881, -173.372, 3.23809, 64.5273, 0.312852, 74.619
0, 2640.00000, 123.971, -33.5182, 125.028, -150.298, 130.076, 87.601, 0, 0, 3.39752, -56.5921, 3.36881, -173.372, 3.23807, 64.5271, 0.312889, 74.6179
0, 2700.00000, 123.971, -33.5186, 125.028, -150.298, 130.077, 87.6008, 0, 0, 3.39752, -56.5925, 3.36881, -173.372, 3.23806, 64.5269, 0.312923, 74.6169
0, 2760.00000, 123.971, -33.5189, 125.028, -150.298, 130.077, 87.6007, 0, 0, 3.39752, -56.5928, 3.36881, -173.372, 3.23804, 64.5268, 0.312952, 74.616
0, 2820.00000, 123.971, -33.5191, 125.028, -150.298, 130.078, 87.6005, 0, 0, 3.39752, -56.5931, 3.36881, -173.372, 3.23803, 64.5266, 0.312979, 74.6152
0, 2880.00000, 123.971, -33.5194, 125.028, -150.298, 130.078, 87.6004, 0, 0, 3.39752, -56.5933, 3.36881, -173.372, 3.23802, 64.5265, 0.313004, 74.6144
0, 2940.00000, 123.971, -33.5196, 125.028, -150.298, 130.079, 87.6003, 0, 0, 3.39752, -56.5935, 3.36881, -173.372, 3.23801, 64.5263, 0.313026, 74.6137
0, 3000.00000, 123.971, -33.5198, 125.028, -150.298, 130.079, 87.6001, 0, 0, 3.39752, -56.5937, 3.36881, -173.372, 3.238, 64.5262, 0.313045, 74.6131
0, 3060.00000, 123.971, -33.52, 125.028, -150.298, 130.079, 87.6, 0, 0, 3.39752, -56.5939, 3.36881, -173.372, 3.23799, 64.5261, 0.313063, 74.6126
0, 3120.00000, 123.971, -33.5202, 125.028, -150.298, 130.08, 87.5999, 0, 0, 3.39752, -56.5941, 3.36881, -173.372, 3.23798, 64.526, 0.313079, 74.6121
0, 3180.00000, 123.971, -33.5203, 125.028, -150.298, 130.08, 87.5999, 0, 0, 3.39752, -56.5942, 3.36881, -173.372, 3.23798, 64.5259, 0.313093, 74.6117
0, 3240.00000, 123.971, -33.5204, 125.028, -150.298, 130.08, 87.5998, 0, 0, 3.39752, -56.5943, 3.36881, -173.372, 3.23797, 64.5259, 0.313106, 74.6113
0, 3300.00000, 123.971, -33.5205, 125.028, -150.298, 130.08, 87.5997, 0, 0, 3.39752, -56.5945, 3.36881, -173.372, 3.23797, 64.5258, 0.313118, 74.6109
0, 3360.00000, 123.971, -33.5207, 125.028, -150.298, 130.081, 87.5997, 0, 0, 3.39752, -56.5946, 3.36881, -173.372, 3.23796, 64.5257, 0.313128, 74.6106
0, 3420.00000, 123.971, -33.5208, 125.028, -150.298, 130.081, 87.5996, 0, 0, 3.39752, -56.5947, 3.36881, -173.372, 3.23796, 64.5257, 0.313138, 74.6103
0, 3480.00000, 123.971, -33.5208, 125.028, -150.298, 130.081, 87.5996, 0, 0, 3.39752, -56.5948, 3.36881, -173.372, 3.23795, 64.5257, 0.313146, 74.6101
0, 3540.00000, 123.971, -33.5209, 125.028, -150.298, 130.081, 87.5995, 0, 0, 3.39752, -56.5948, 3.36881, -173.372, 3.23795, 64.5256, 0.313154, 74.6098
1, 0.00000, 123.971, -33.521, 125.028, -150.298, 130.081, 87.5995, 0, 0, 3.39752, -56.5949, 3.36881, -173.372, 3.23795, 64.5256, 0.313161, 74.6096
1, 60.00000, 123.971, -33.521, 125.028, -150.298, 130.081, 87.5994, 0, 0, 3.39752, -56.595, 3.36882, -173.372, 3.23794, 64.5255, 0.313167, 74.6094
1, 120.00000, 123.972, -33.5211, 125.028, -150.298, 130.081, 87.5994, 0, 0, 3.39752, -56.595, 3.36882, -173.372, 3.23794, 64.5255, 0.313172, 74.6093
1, 180.00000, 123.972, -33.5212, 125.028, -150.298, 130.081, 87.5994, 0, 0, 3.39752, -56.5951, 3.36882, -173.372, 3.23794, 64.5255, 0.313177, 74.6091
1, 240.00000, 123.972, -33.5212, 125.028, -150.298, 130.082, 87.5994, 0, 0, 3.39752, -56.5951, 3.36882, -173.372, 3.23794, 64.5254, 0.313182, 74.609
1, 300.00000, 123.972, -33.5212, 125.028, -150.298, 130.082, 87.5993, 0, 0, 3.39752, -56.5952, 3.36882, -173.372, 3.23793, 64.5254, 0.313186, 74.6088
1, 360.00000, 123.972, -33.5213, 125.028, -150.298, 130.082, 87.5993, 0, 0, 3.39752, -56.5952, 3.36882, -173.372, 3.23793, 64.5254, 0.313189, 74.6087
1, 420.00000, 123.972, -33.5213, 125.028, -150.298, 130.082, 87.5993, 0, 0, 3.39752, -56.5952, 3.36882, -173.372, 3.23793, 64.5254, 0.313193, 74.6086
1, 480.00000, 123.972, -33.5213, 125.028, -150.298, 130.082, 87.5993, 0, 0, 3.39752, -56.5953, 3.36882, -173.372, 3.23793, 64.5254, 0.313196, 74.6085
1, 540.00000, 123.972, -33.5214, 125.028, -150.298, 130.082, 87.5993, 0, 0, 3.39752, -56.5953, 3.36882, -173.372, 3.23793, 64.5253, 0.313198, 74.6085
1, 600.00000, 123.972, -33.5214, 125.028, -150.298, 130.082, 87.5993, 0, 0, 3.39752, -56.5953, 3.36882, -173.372, 3.23793, 64.5253, 0.313201, 74.6084
1, 660.00000, 123.972, -33.5214, 125.028, -150.298, 130.082, 87.5992, 0, 0, 3.39752, -56.5953, 3.36882, -173.372, 3.23793, 64.5253, 0.313203, 74.6083
1, 720.00000, 123.972, -33.5214, 125.028, -150.298, 130.082, 87.5992, 0, 0, 3.39752, -56.5954, 3.36882, -173.372, 3.23793, 64.5253, 0.313205, 74.6083
1, 780.00000, 123.972, -33.5215, 125.028, -150.298, 130.082, 87.5992, 0, 0, 3.39752, -56.5954, 3.36882, -173.372, 3.23792, 64.5253, 0.313207, 74.6082
1, 840.00000, 123.972, -33.5215, 125.028, -150.298, 130.082, 87.5992, 0, 0, 3.39752, -56.5954, 3.36882, -173.372, 3.23792, 64.5253, 0.313208, 74.6082
1, 900.00000, 123.972, -33.5215, 125.028, -150.298, 130.082, 87.5992, 0, 0, 3.39752, -56.5954, 3.36882, -173.372, 3.23792, 64.5253, 0.31321, 74.6081
1, 960.00000, 123.972, -33.5215, 125.028, -150.298, 130.082, 87.5992, 0, 0, 3.39752, -56.5954, 3.36882, -173.372, 3.23792, 64.5253, 0.313211, 74.6081
1, 1020.00000, 123.972, -33.5215, 125.028, -150.298, 130.082, 87.5992, 0, 0, 3.39752, -56.5954, 3.36882, -173.372, 3.23792, 64.5253, 0.313212, 74.608
1, 1080.00000, 123.972, -33.5215, 125.028, -150.298, 130.082, 87.5992, 0, 0, 3.39752, -56.5954, 3.36882, -173.372, 3.23792, 64.5253, 0.313213, 74.608
1, 1140.00000, 123.972, -33.5215, 125.028, -150.298, 130.082, 87.5992, 0, 0, 3.39752, -56.5954, 3.36882, -173.372, 3.23792, 64.5253, 0.313214, 74.608
1, 1200.00000, 123.972, -33.5215, 125.028, -150.298, 130.082, 87.5992, 0, 0, 3.39752, -56.5955, 3.36882, -173.372, 3.23792, 64.5253, 0.313215, 74.608
1, 1260.00000, 123.972, -33.5215, 125.028, -150.298, 130.082, 87.5992, 0, 0, 3.39752, -56.5955, 3.36882, -173.372, 3.23792, 64.5252, 0.313216, 74.6079
1, 1320.00000, 123.972, -33.5215, 125.028, -150.298, 130.082, 87.5992, 0, 0, 3.39752, -56.5955, 3.36882, -173.372, 3.23792, 64.5252, 0.313216, 74.6079
1, 1380.00000, 123.972, -33.5216, 125.028, -150.298, 130.082, 87.5992, 0, 0, 3.39752, -56.5955, 3.36882, -173.372, 3.23792, 64.5252, 0.313217, 74.6079
1, 1440.00000, 123.972, -33.5216, 125.028, -150.298, 130.082, 87.5992, 0, 0, 3.39752, -56.5955, 3.36882, -173.372, 3.23792, 64.5252, 0.313217, 74.6079
1, 1500.00000, 123.972, -33.5216, 125.028, -150.298, 130.082, 87.5992, 0, 0, 3.39752, -56.5955, 3.36882, -173.372, 3.23792, 64.5252, 0.313218, 74.6079
1, 1560.00000, 123.972, -33.5216, 125.028, -150.298, 130.082, 87.5991, 0, 0, 3.39752, -56.5955, 3.36882, -173.372, 3.23792, 64.5252, 0.313218, 74.6078
1, 1620.00000, 123.972, -33.5216, 125.028, -150.298, 130.082, 87.5991, 0, 0, 3.39752, -56.5955, 3.36882, -173.372, 3.23792, 64.5252, 0.313219, 74.6078
1, 1680.00000, 123.972, -33.5216, 125.028, -150.298, 130.082, 87.5991, 0, 0, 3.39752, -56.5955, 3.36882, -173.372, 3.23792, 64.5252, 0.313219, 74.6078
1, 1740.00000, 123.972, -33.5216, 125.028, -150.298, 130.082, 87.5991, 0, 0, 3.39752, -56.5955, 3.36882, -173.372, 3.23792, 64.5252, 0.313219, 74.6078
1, 1800.00000, 123.972, -33.5216, 125.028, -150.298, 130.082, 87.5991, 0, 0, 3.39752, -56.5955, 3.36882, -173.372, 3.23792, 64.5252, 0.31322, 74.6078
1, 1860.00000, 123.972, -33.5216, 125.028, -150.298, 130.082, 87.5991, 0, 0, 3.39752, -56.5955, 3.36882, -173.372, 3.23792, 64.5252, 0.31322, 74.6078
1, 1920.00000, 123.972, -33.5216, 125.028, -150.298, 130.082, 87.5991, 0, 0, 3.39752, -56.5955, 3.36882, -173.372, 3.23792, 64.5252, 0.31322, 74.6078
1, 1980.00000, 123.972, -33.5216, 125.028, -150.298, 130.082, 87.5991, 0, 0, 3.39752, -56.5955, 3.36882, -173.372, 3.23792, 64.5252, 0.31322, 74.6078
1, 2040.00000, 123.972, -33.5216, 125.028, -150.298, 130.082, 87.5991, 0, 0, 3.39752, -56.5955, 3.36882, -173.372, 3.23792, 64.5252, 0.313221, 74.6078
1, 2100.00000, 123.972, -33.5216, 125.028, -150.298, 130.082, 87.5991, 0, 0, 3.39752, -56.5955, 3.36882, -173.372, 3.23792, 64.5252, 0.313221, 74.6078
1, 2160.00000, 123.972, -33.5216, 125.028, -150.298, 130.082, 87.5991, 0, 0, 3.39752, -56.5955, 3.36882, -173.372, 3.23792, 64.5252, 0.313221, 74.6078
1, 2220.00000, 123.972, -33.5216, 125.028, -150.298, 130.082, 87.5991, 0, 0, 3.39752, -56.5955, 3.36882, -173.372, 3.23792, 64.5252, 0.313221, 74.6078
1, 2280.00000, 123.972, -33.5216, 125.028, -150.298, 130.082, 87.5991, 0, 0, 3.39752, -56.5955, 3.36882, -173.372, 3.23792, 64.5252, 0.313221, 74.6078
1, 2340.00000, 123.972, -33.5216, 125.028, -150.298, 130.082, 87.5991, 0, 0, 3.39752, -56.5955, 3.36882, -173.372, 3.23792, 64.5252, 0.313221, 74.6078
1, 2400.00000, 123.972, -33.5216, 125.028, -150.298, 130.082, 87.5991, 0, 0, 3.39752, -56.5955, 3.36882, -173.372, 3.23792, 64.5252, 0.313221, 74.6078
1, 2460.00000, 123.972, -33.5216, 125.028, -150.298, 130.082, 87.5991, 0, 0, 3.39752, -56.5955, 3.36882, -173.372, 3.23792, 64.5252, 0.313221, 74.6078
1, 2520.00000, 123.972, -33.5216, 125.028, -150.298, 130.082, 87.5991, 0, 0, 3.39752, -56.5955, 3.36882, -173.372, 3.23792, 64.5252, 0.313222, 74.6077
1, 2580.00000, 123.972, -33.5216, 125.028, -150.298, 130.082, 87.5991, 0, 0, 3.39752, -56.5955, 3.36882, -173.372, 3.23792, 64.5252, 0.313222, 74.6077
1, 2640.00000, 123.972, -33.5216, 125.028, -150.298, 130.082, 87.5991, 0, 0, 3.39752, -56.5955, 3.36882, -173.372, 3.23792, 64.5252, 0.313222, 74.6077
1, 2700.00000, 123.972, -33.5216, 125.028, -150.298, 130.082, 87.5991, 0, 0, 3.39752, -56.5955, 3.36882, -173.372, 3.23792, 64.5252, 0.313222, 74.6077
1, 2760.00000, 125.242, -33.6667, 124.936, -150.304, 131.152, 87.9189, 0, 0, 3.36306, -56.7406, 3.37129, -173.378, 3.21151, 64.845, 0.325343, 64.6513
1, 2820.00000, 125.242, -33.6667, 124.936, -150.304, 131.152, 87.9189, 0, 0, 3.36306, -56.7406, 3.37129, -173.378, 3.21151, 64.8449, 0.325344, 64.6517
1, 2880.00000, 125.242, -33.6667, 124.936, -150.304, 131.152, 87.9189, 0, 0, 3.36306, -56.7406, 3.37129, -173.378, 3.21151, 64.8449, 0.325344, 64.6517
1, 2940.00000, 125.242, -33.6667, 124.936, -150.304, 131.152, 87.9189, 0, 0, 3.36306, -56.7406, 3.37129, -173.378, 3.21151, 64.8449, 0.325344, 64.6517
1, 3000.00000, 125.242, -33.6667, 124.936, -150.304, 131.152, 87.9189, 0, 0, 3.36306, -56.7406, 3.37129, -173.378, 3.21151, 64.8449, 0.325344, 64.6517
1, 3060.00000, 125.242, -33.6667, 124.936, -150.304, 131.152, 87.9189, 0, 0, 3.36306, -56.7406, 3.37129, -173.378, 3.21151, 64.8449, 0.325344, 64.6517
1, 3120.00000, 125.242, -33.6667, 124.936, -150.304, 131.152, 87.9189, 0, 0, 3.36306, -56.7406, 3.37129, -173.378, 3.21151, 64.8449, 0.325344, 64.6517
1, 3180.00000, 125.242, -33.6667, 124.936, -150.304, 131.152, 87.9189, 0, 0, 3.36306, -56.7406, 3.37129, -173.378, 3.21151, 64.8449, 0.325344, 64.6517
1, 3240.00000, 125.242, -33.6667, 124.936, -150.304, 131.152, 87.9189, 0, 0, 3.36306, -56.7406, 3.37129, -173.378, 3.21151, 64.8449, 0.325344, 64.6517
1, 3300.00000, 125.242, -33.6667, 124.936, -150.304, 131.152, 87.9189, 0, 0, 3.36306, -56.7406, 3.37129, -173.378, 3.21151, 64.8449, 0.325344, 64.6517
1, 3360.00000, 125.242, -33.6667, 124.936, -150.304, 131.152, 87.9189, 0, 0, 3.36306, -56.7406, 3.37129, -173.378, 3.21151, 64.8449, 0.325344, 64.6517
1, 3420.00000, 125.242, -33.6667, 124.936, -150.304, 131.152, 87.9189, 0, 0, 3.36306, -56.7406, 3.37129, -173.378, 3.21151, 64.8449, 0.325344, 64.6517
1, 3480.00000, 125.242, -33.6667, 124.936, -150.304, 131.152, 87.9189, 0, 0, 3.36306, -56.7406, 3.37129, -173.378, 3.21151, 64.8449, 0.325345, 64.6517
1, 3540.00000, 125.242, -33.6667, 124.936, -150.304, 131.152, 87.9189, 0, 0, 3.36306, -56.7406, 3.37129, -173.378, 3.21151, 64.8449, 0.325345, 64.6517
2, 0.00000, 125.242, -33.6667, 124.936, -150.304, 131.152, 87.9189, 0, 0, 3.36306, -56.7406, 3.37129, -173.378, 3.21151, 64.8449, 0.325345, 64.6517
2, 60.00000, 125.242, -33.6667, 124.936, -150.304, 131.152, 87.9189, 0, 0, 3.36306, -56.7406, 3.37129, -173.378, 3.21151, 64.8449, 0.325345, 64.6517
2, 120.00000, 125.233, -33.6675, 124.929, -150.305, 131.145, 87.9181, 0, 0, 3.37259, -56.7414, 3.38082, -173.379, 3.22057, 64.8442, 0.326279, 64.6537
2, 180.00000, 125.225, -33.6683, 124.921, -150.306, 131.137, 87.9174, 0, 0, 3.38225, -56.7422, 3.39046, -173.38, 3.22975, 64.8435, 0.327224, 64.6557
2, 240.00000, 125.216, -33.6692, 124.914, -150.307, 131.13, 87.9167, 0, 0, 3.39179, -56.7431, 3.39999, -173.381, 3.23882, 64.8428, 0.328158, 64.6577
2, 300.00000, 125.207, -33.67, 124.906, -150.308, 131.122, 87.916, 0, 0, 3.40133, -56.7439, 3.40952, -173.382, 3.24789, 64.842, 0.329092, 64.6597
2, 360.00000, 125.199, -33.6708, 124.899, -150.309, 131.115, 87.9152, 0, 0, 3.41098, -56.7447, 3.41917, -173.383, 3.25708, 64.8413, 0.330038, 64.6618
2, 420.00000, 125.19, -33.6716, 124.891, -150.31, 131.107, 87.9145, 0, 0, 3.42053, -56.7455, 3.4287, -173.384, 3.26615, 64.8406, 0.330973, 64.6638
2, 480.00000, 125.181, -33.6725, 124.884, -150.311, 131.1, 87.9138, 0, 0, 3.43007, -56.7464, 3.43824, -173.385, 3.27522, 64.8399, 0.331908, 64.6658
2, 540.00000, 125.173, -33.6733, 124.877, -150.312, 131.092, 87.913, 0, 0, 3.43973, -56.7472, 3.44789, -173.386, 3.28441, 64.8391, 0.332855, 64.6678
2, 600.00000, 125.164, -33.6741, 124.869, -150.313, 131.085, 87.9123, 0, 0, 3.44928, -56.748, 3.45742, -173.387, 3.29349, 64.8384, 0.33379, 64.6698
2, 660.00000, 125.155, -33.6749, 124.862, -150.314, 131.077, 87.9116, 0, 0, 3.45883, -56.7488, 3.46696, -173.388, 3.30256, 64.8377, 0.334726, 64.6719
2, 720.00000, 125.147, -33.6758, 124.854, -150.315, 131.07, 87.9109, 0, 0, 3.46849, -56.7497, 3.47662, -173.389, 3.31175, 64.8369, 0.335673, 64.6739
