hour,t(sec),V1,VAngle1,V2,VAngle2,V3,VAngle3,V4,VAngle4,I1,IAngle1,I2,IAngle2,I3,IAngle3,I4,IAngle4
0, 60.00000, 123.54, -33.1339, 124.16, -150.68, 128.008, 87.8895, 0, 0, 3.40929, -56.2069, 3.39238, -173.754, 3.29051, 64.8172, 0.237091, 71.3368
0, 120.00000, 123.542, -33.1651, 124.159, -150.678, 128.066, 87.8721, 0, 0, 3.40924, -56.2381, 3.39241, -173.752, 3.289, 64.7997, 0.240245, 71.2567
0, 180.00000, 123.544, -33.1931, 124.157, -150.677, 128.118, 87.8565, 0, 0, 3.4092, -56.2662, 3.39244, -173.751, 3.28764, 64.7839, 0.243084, 71.1863
0, 240.00000, 123.546, -33.2184, 124.156, -150.676, 128.166, 87.8423, 0, 0, 3.40916, -56.2915, 3.39247, -173.75, 3.28642, 64.7696, 0.245639, 71.1245
0, 300.00000, 123.547, -33.2411, 124.155, -150.675, 128.208, 87.8296, 0, 0, 3.40913, -56.3143, 3.3925, -173.749, 3.28532, 64.7568, 0.24794, 71.0702
0, 360.00000, 123.548, -33.2616, 124.154, -150.674, 128.246, 87.8181, 0, 0, 3.4091, -56.3349, 3.39252, -173.748, 3.28434, 64.7452, 0.25001, 71.0223
0, 420.00000, 123.55, -33.28, 124.154, -150.673, 128.281, 87.8078, 0, 0, 3.40907, -56.3533, 3.39254, -173.747, 3.28345, 64.7348, 0.251874, 70.9799
0, 480.00000, 123.551, -33.2966, 124.153, -150.672, 128.312, 87.7985, 0, 0, 3.40905, -56.37, 3.39256, -173.746, 3.28265, 64.7254, 0.253552, 70.9424
0, 540.00000, 123.551, -33.3115, 124.152, -150.671, 128.339, 87.7901, 0, 0, 3.40903, -56.385, 3.39258, -173.745, 3.28194, 64.7169, 0.255062, 70.9091
0, 600.00000, 123.552, -33.325, 124.152, -150.67, 128.365, 87.7825, 0, 0, 3.40901, -56.3985, 3.39259, -173.744, 3.28129, 64.7093, 0.256422, 70.8795
0, 660.00000, 123.553, -33.3371, 124.151, -150.67, 128.387, 87.7757, 0, 0, 3.409, -56.4106, 3.39261, -173.744, 3.28071, 64.7024, 0.257645, 70.8532
0, 720.00000, 123.553, -33.348, 124.151, -150.669, 128.407, 87.7696, 0, 0, 3.40899, -56.4216, 3.39262, -173.743, 3.28019, 64.6962, 0.258747, 70.8298
0, 780.00000, 123.554, -33.3578, 124.15, -150.669, 128.426, 87.7641, 0, 0, 3.40897, -56.4314, 3.39263, -173.743, 3.27972, 64.6907, 0.259738, 70.809
0, 840.00000, 123.554, -33.3666, 124.15, -150.668, 128.442, 87.7591, 0, 0, 3.40896, -56.4403, 3.39264, -173.742, 3.27929, 64.6857, 0.26063, 70.7903
0, 900.00000, 123.555, -33.3746, 124.15, -150.668, 128.457, 87.7546, 0, 0, 3.40895, -56.4482, 3.39265, -173.742, 3.27891, 64.6811, 0.261433, 70.7737
0, 960.00000, 123.401, -33.3597, 122.692, -151.161, 126.802, 88.1032, 0, 0, 3.4132, -56.4334, 3.43295, -174.235, 3.32171, 65.0296, 0.217878, 54.6196
0, 1020.00000, 123.402, -33.3661, 122.692, -151.161, 126.814, 88.0995, 0, 0, 3.41319, -56.4398, 3.43295, -174.235, 3.32139, 65.0259, 0.218524, 54.6539
0, 1080.00000, 123.402, -33.3719, 122.692, -151.16, 126.825, 88.0962, 0, 0, 3.41318, -56.4456, 3.43296, -174.234, 3.32111, 65.0226, 0.219107, 54.6854
0, 1140.00000, 123.403, -33.3771, 122.692, -151.16, 126.835, 88.0932, 0, 0, 3.41317, -56.4509, 3.43296, -174.234, 3.32085, 65.0195, 0.219632, 54.7136
0, 1200.00000, 123.403, -33.3818, 122.692, -151.16, 126.843, 88.0905, 0, 0, 3.41316, -56.4556, 3.43296, -174.234, 3.32062, 65.0168, 0.220104, 54.7389
0, 1260.00000, 123.403, -33.386, 122.692, -151.16, 126.851, 88.0881, 0, 0, 3.41316, -56.4598, 3.43297, -174.234, 3.32041, 65.0144, 0.22053, 54.7616
0, 1320.00000, 123.403, -33.3898, 122.691, -151.159, 126.858, 88.0859, 0, 0, 3.41315, -56.4636, 3.43297, -174.233, 3.32022, 65.0122, 0.220912, 54.782
0, 1380.00000, 123.404, -33.3932, 122.691, -151.159, 126.865, 88.0839, 0, 0, 3.41315, -56.467, 3.43297, -174.233, 3.32005, 65.0102, 0.221257, 54.8002
0, 1440.00000, 123.404, -33.3963, 122.691, -151.159, 126.87, 88.0821, 0, 0, 3.41314, -56.4701, 3.43297, -174.233, 3.3199, 65.0084, 0.221567, 54.8166
0, 1500.00000, 123.404, -33.3991, 122.691, -151.159, 126.876, 88.0806, 0, 0, 3.41314, -56.4729, 3.43298, -174.233, 3.31976, 65.0068, 0.221846, 54.8313
0, 1560.00000, 123.404, -33.4015, 122.691, -151.159, 126.88, 88.0791, 0, 0, 3.41314, -56.4754, 3.43298, -174.233, 3.31964, 65.0053, 0.222097, 54.8445
0, 1620.00000, 123.404, -33.4038, 122.691, -151.159, 126.884, 88.0778, 0, 0, 3.41313, -56.4776, 3.43298, -174.233, 3.31953, 65.004, 0.222323, 54.8564
0, 1680.00000, 123.404, -33.4058, 122.691, -151.159, 126.888, 88.0767, 0, 0, 3.41313, -56.4797, 3.43298, -174.232, 3.31943, 65.0029, 0.222526, 54.8671
0, 1740.00000, 123.404, -33.4076, 122.691, -151.158, 126.892, 88.0756, 0, 0, 3.41313, -56.4815, 3.43298, -174.232, 3.31934, 65.0018, 0.22271, 54.8766
0, 1800.00000, 123.405, -33.4093, 122.691, -151.158, 126.895, 88.0747, 0, 0, 3.41313, -56.4831, 3.43298, -174.232, 3.31926, 65.0009, 0.222874, 54.8852
0, 1860.00000, 123.405, -33.4107, 122.691, -151.158, 126.897, 88.0738, 0, 0, 3.41312, -56.4846, 3.43298, -174.232, 3.31919, 65, 0.223023, 54.893
0, 1920.00000, 123.405, -33.412, 122.691, -151.158, 126.9, 88.0731, 0, 0, 3.41312, -56.4859, 3.43299, -174.232, 3.31912, 64.9992, 0.223156, 54.8999
0, 1980.00000, 123.405, -33.4132, 122.691, -151.158, 126.902, 88.0724, 0, 0, 3.41312, -56.4871, 3.43299, -174.232, 3.31906, 64.9985, 0.223276, 54.9062
0, 2040.00000, 123.405, -33.4143, 122.691, -151.158, 126.904, 88.0718, 0, 0, 3.41312, -56.4882, 3.43299, -174.232, 3.31901, 64.9979, 0.223385, 54.9118
0, 2100.00000, 123.405, -33.4153, 122.691, -151.158, 126.906, 88.0712, 0, 0, 3.41312, -56.4892, 3.43299, -174.232, 3.31896, 64.9974, 0.223482, 54.9169
0, 2160.00000, 123.405, -33.4161, 122.691, -151.158, 126.908, 88.0707, 0, 0, 3.41312, -56.49, 3.43299, -174.232, 3.31892, 64.9969, 0.223569, 54.9214
0, 2220.00000, 123.405, -33.4169, 122.691, -151.158, 126.909, 88.0703, 0, 0, 3.41312, -56.4908, 3.43299, -174.232, 3.31888, 64.9964, 0.223648, 54.9255
0, 2280.00000, 123.405, -33.4176, 122.691, -151.158, 126.91, 88.0699, 0, 0, 3.41311, -56.4915, 3.43299, -174.232, 3.31885, 64.996, 0.223719, 54.9292
0, 2340.00000, 123.405, -33.4183, 122.691, -151.158, 126.912, 88.0695, 0, 0, 3.41311, -56.4922, 3.43299, -174.232, 3.31881, 64.9956, 0.223783, 54.9325
0, 2400.00000, 123.405, -33.4188, 122.691, -151.158, 126.913, 88.0692, 0, 0, 3.41311, -56.4927, 3.43299, -174.232, 3.31879, 64.9953, 0.223841, 54.9355
0, 2460.00000, 123.405, -33.4193, 122.691, -151.158, 126.914, 88.0689, 0, 0, 3.41311, -56.4932, 3.43299, -174.232, 3.31876, 64.995, 0.223892, 54.9381
0, 2520.00000, 123.405, -33.4198, 122.691, -151.158, 126.914, 88.0686, 0, 0, 3.41311, -56.4937, 3.43299, -174.232, 3.31874, 64.9947, 0.223939, 54.9405
0, 2580.00000, 123.405, -33.4202, 122.691, -151.158, 126.915, 88.0684, 0, 0, 3.41311, -56.4941, 3.43299, -174.232, 3.31872, 64.9945, 0.223981, 54.9427
0, 2640.00000, 123.405, -33.4206, 122.691, -151.158, 126.916, 88.0682, 0, 0, 3.41311, -56.4945, 3.43299, -174.232, 3.3187, 64.9943, 0.224018, 54.9447
0, 2700.00000, 123.405, -33.4209, 122.691, -151.158, 126.917, 88.068, 0, 0, 3.41311, -56.4948, 3.43299, -174.232, 3.31868, 64.9941, 0.224052, 54.9464
0, 2760.00000, 123.405, -33.4212, 122.691, -151.158, 126.917, 88.0678, 0, 0, 3.41311, -56.4951, 3.43299, -174.232, 3.31867, 64.9939, 0.224083, 54.948
0, 2820.00000, 123.405, -33.4215, 122.691, -151.158, 126.918, 88.0676, 0, 0, 3.41311, -56.4954, 3.43299, -174.232, 3.31865, 64.9937, 0.22411, 54.9494
0, 2880.00000, 123.405, -33.4217, 122.691, -151.158, 126.918, 88.0675, 0, 0, 3.41311, -56.4957, 3.43299, -174.232, 3.31864, 64.9936, 0.224135, 54.9507
0, 2940.00000, 123.405, -33.422, 122.691, -151.158, 126.919, 88.0674, 0, 0, 3.41311, -56.4959, 3.43299, -174.232, 3.31863, 64.9935, 0.224157, 54.9518
0, 3000.00000, 123.405, -33.4222, 122.691, -151.158, 126.919, 88.0673, 0, 0, 3.41311, -56.4961, 3.43299, -174.232, 3.31862, 64.9933, 0.224177, 54.9529
0, 3060.00000, 123.405, -33.4223, 122.691, -151.158, 126.919, 88.0672, 0, 0, 3.41311, -56.4963, 3.43299, -174.232, 3.31861, 64.9932, 0.224196, 54.9538
0, 3120.00000, 123.405, -33.4225, 122.691, -151.158, 126.92, 88.0671, 0, 0, 3.41311, -56.4964, 3.43299, -174.232, 3.3186, 64.9931, 0.224212, 54.9546
0, 3180.00000, 123.405, -33.4227, 122.691, -151.158, 126.92, 88.067, 0, 0, 3.41311, -56.4966, 3.43299, -174.232, 3.3186, 64.9931, 0.224226, 54.9554
0, 3240.00000, 123.405, -33.4228, 122.691, -151.158, 126.92, 88.0669, 0, 0, 3.41311, -56.4967, 3.43299, -174.232, 3.31859, 64.993, 0.22424, 54.9561
0, 3300.00000, 123.405, -33.4229, 122.691, -151.158, 126.92, 88.0668, 0, 0, 3.41311, -56.4968, 3.43299, -174.231, 3.31859, 64.9929, 0.224251, 54.9567
0, 3360.00000, 123.405, -33.423, 122.691, -151.158, 126.92, 88.0668, 0, 0, 3.41311, -56.4969, 3.43299, -174.231, 3.31858, 64.9929, 0.224262, 54.9572
0, 3420.00000, 123.405, -33.4231, 122.691, -151.158, 126.921, 88.0667, 0, 0, 3.41311, -56.497, 3.43299, -174.231, 3.31858, 64.9928, 0.224272, 54.9577
0, 3480.00000, 123.405, -33.4232, 122.691, -151.158, 126.921, 88.0667, 0, 0, 3.41311, -56.4971, 3.43299, -174.231, 3.31857, 64.9928, 0.22428, 54.9582
0, 3540.00000, 123.405, -33.4233, 122.691, -151.158, 126.921, 88.0666, 0, 0, 3.41311, -56.4972, 3.43299, -174.231, 3.31857, 64.9927, 0.224288, 54.9586
1, 0.00000, 123.405, -33.4233, 122.691, -151.158, 126.921, 88.0666, 0, 0, 3.41311, -56.4972, 3.43299, -174.231, 3.31856, 64.9927, 0.224295, 54.9589
1, 60.00000, 123.405, -33.4234, 122.69, -151.158, 126.921, 88.0666, 0, 0, 3.41311, -56.4973, 3.43299, -174.231, 3.31856, 64.9926, 0.224301, 54.9593
1, 120.00000, 123.405, -33.4235, 122.69, -151.158, 126.921, 88.0665, 0, 0, 3.41311, -56.4974, 3.43299, -174.231, 3.31856, 64.9926, 0.224307, 54.9596
1, 180.00000, 123.405, -33.4235, 122.69, -151.158, 126.921, 88.0665, 0, 0, 3.41311, -56.4974, 3.43299, -174.231, 3.31856, 64.9926, 0.224312, 54.9598
1, 240.00000, 123.405, -33.4235, 122.69, -151.158, 126.921, 88.0665, 0, 0, 3.41311, -56.4975, 3.43299, -174.231, 3.31855, 64.9925, 0.224317, 54.9601
1, 300.00000, 123.405, -33.4236, 122.69, -151.158, 126.922, 88.0664, 0, 0, 3.41311, -56.4975, 3.43299, -174.231, 3.31855, 64.9925, 0.224321, 54.9603
1, 360.00000, 123.405, -33.4236, 122.69, -151.158, 126.922, 88.0664, 0, 0, 3.41311, -56.4975, 3.43299, -174.231, 3.31855, 64.9925, 0.224324, 54.9605
1, 420.00000, 123.405, -33.4237, 122.69, -151.158, 126.922, 88.0664, 0, 0, 3.41311, -56.4976, 3.43299, -174.231, 3.31855, 64.9925, 0.224328, 54.9606
1, 480.00000, 123.405, -33.4237, 122.69, -151.158, 126.922, 88.0664, 0, 0, 3.41311, -56.4976, 3.43299, -174.231, 3.31855, 64.9925, 0.224331, 54.9608
1, 540.00000, 123.405, -33.4237, 122.69, -151.158, 126.922, 88.0664, 0, 0, 3.41311, -56.4976, 3.43299, -174.231, 3.31854, 64.9924, 0.224333, 54.9609
1, 600.00000, 123.405, -33.4237, 122.69, -151.158, 126.922, 88.0664, 0, 0, 3.41311, -56.4977, 3.43299, -174.231, 3.31854, 64.9924, 0.224336, 54.9611
1, 660.00000, 123.405, -33.4238, 122.69, -151.158, 126.922, 88.0663, 0, 0, 3.41311, -56.4977, 3.43299, -174.231, 3.31854, 64.9924, 0.224338, 54.9612
1, 720.00000, 123.405, -33.4238, 122.69, -151.158, 126.922, 88.0663, 0, 0, 3.41311, -56.4977, 3.43299, -174.231, 3.31854, 64.9924, 0.22434, 54.9613
1, 780.00000, 123.405, -33.4238, 122.69, -151.158, 126.922, 88.0663, 0, 0, 3.41311, -56.4977, 3.43299, -174.231, 3.31854, 64.9924, 0.224342, 54.9614
1, 840.00000, 123.405, -33.4238, 122.69, -151.158, 126.922, 88.0663, 0, 0, 3.41311, -56.4977, 3.43299, -174.231, 3.31854, 64.9924, 0.224343, 54.9614
1, 900.00000, 123.405, -33.4238, 122.69, -151.158, 126.922, 88.0663, 0, 0, 3.41311, -56.4977, 3.43299, -174.231, 3.31854, 64.9924, 0.224345, 54.9615
1, 960.00000, 123.405, -33.4238, 122.69, -151.158, 126.922, 88.0663, 0, 0, 3.41311, -56.4978, 3.43299, -174.231, 3.31854, 64.9924, 0.224346, 54.9616
1, 1020.00000, 123.405, -33.4239, 122.69, -151.158, 126.922, 88.0663, 0, 0, 3.41311, -56.4978, 3.43299, -174.231, 3.31854, 64.9924, 0.224347, 54.9616
1, 1080.00000, 123.405, -33.4239, 122.69, -151.158, 126.922, 88.0663, 0, 0, 3.41311, -56.4978, 3.43299, -174.231, 3.31854, 64.9924, 0.224348, 54.9617
1, 1140.00000, 123.405, -33.4239, 122.69, -151.158, 126.922, 88.0663, 0, 0, 3.41311, -56.4978, 3.43299, -174.231, 3.31854, 64.9924, 0.224349, 54.9617
1, 1200.00000, 123.405, -33.4239, 122.69, -151.158, 126.922, 88.0663, 0, 0, 3.41311, -56.4978, 3.43299, -174.231, 3.31854, 64.9924, 0.22435, 54.9618
1, 1260.00000, 123.405, -33.4239, 122.69, -151.158, 126.922, 88.0663, 0, 0, 3.41311, -56.4978, 3.43299, -174.231, 3.31854, 64.9923, 0.224351, 54.9618
1, 1320.00000, 123.405, -33.4239, 122.69, -151.158, 126.922, 88.0663, 0, 0, 3.41311, -56.4978, 3.43299, -174.231, 3.31854, 64.9923, 0.224352, 54.9619
1, 1380.00000, 123.405, -33.4239, 122.69, -151.158, 126.922, 88.0663, 0, 0, 3.41311, -56.4978, 3.43299, -174.231, 3.31854, 64.9923, 0.224352, 54.9619
1, 1440.00000, 123.405, -33.4239, 122.69, -151.158, 126.922, 88.0663, 0, 0, 3.41311, -56.4978, 3.43299, -174.231, 3.31854, 64.9923, 0.224353, 54.9619
1, 1500.00000, 123.405, -33.4239, 122.69, -151.158, 126.922, 88.0663, 0, 0, 3.41311, -56.4978, 3.43299, -174.231, 3.31854, 64.9923, 0.224353, 54.9619
1, 1560.00000, 123.405, -33.4239, 122.69, -151.158, 126.922, 88.0662, 0, 0, 3.41311, -56.4978, 3.43299, -174.231, 3.31854, 64.9923, 0.224354, 54.962
1, 1620.00000, 123.405, -33.4239, 122.69, -151.158, 126.922, 88.0662, 0, 0, 3.41311, -56.4978, 3.43299, -174.231, 3.31853, 64.9923, 0.224354, 54.962
1, 1680.00000, 123.405, -33.4239, 122.69, -151.158, 126.922, 88.0662, 0, 0, 3.41311, -56.4978, 3.43299, -174.231, 3.31853, 64.9923, 0.224355, 54.962
1, 1740.00000, 123.405, -33.4239, 122.69, -151.158, 126.922, 88.0662, 0, 0, 3.41311, -56.4978, 3.43299, -174.231, 3.31853, 64.9923, 0.224355, 54.962
1, 1800.00000, 123.405, -33.4239, 122.69, -151.158, 126.922, 88.0662, 0, 0, 3.41311, -56.4978, 3.43299, -174.231, 3.31853, 64.9923, 0.224355, 54.962
1, 1860.00000, 123.405, -33.4239, 122.69, -151.158, 126.922, 88.0662, 0, 0, 3.41311, -56.4979, 3.43299, -174.231, 3.31853, 64.9923, 0.224355, 54.9621
1, 1920.00000, 123.405, -33.4239, 122.69, -151.158, 126.922, 88.0662, 0, 0, 3.41311, -56.4979, 3.43299, -174.231, 3.31853, 64.9923, 0.224356, 54.9621
1, 1980.00000, 123.405, -33.4239, 122.69, -151.158, 126.922, 88.0662, 0, 0, 3.41311, -56.4979, 3.43299, -174.231, 3.31853, 64.9923, 0.224356, 54.9621
1, 2040.00000, 125.014, -33.6215, 122.586, -151.172, 128.324, 88.4561, 0, 0, 3.36918, -56.6954, 3.43591, -174.246, 3.28228, 65.3822, 0.267669, 41.22
1, 2100.00000, 125.014, -33.6215, 122.586, -151.172, 128.324, 88.4561, 0, 0, 3.36918, -56.6954, 3.43591, -174.246, 3.28228, 65.3822, 0.267669, 41.2201
1, 2160.00000, 125.014, -33.6215, 122.586, -151.172, 128.324, 88.4561, 0, 0, 3.36918, -56.6954, 3.43591, -174.246, 3.28228, 65.3822, 0.267669, 41.2201
1, 2220.00000, 125.014, -33.6215, 122.586, -151.172, 128.324, 88.4561, 0, 0, 3.36918, -56.6954, 3.43591, -174.246, 3.28228, 65.3822, 0.267669, 41.2201
1, 2280.00000, 125.014, -33.6215, 122.586, -151.172, 128.324, 88.4561, 0, 0, 3.36918, -56.6954, 3.43591, -174.246, 3.28228, 65.3822, 0.267669, 41.2201
1, 2340.00000, 125.014, -33.6215, 122.586, -151.172, 128.324, 88.4561, 0, 0, 3.36918, -56.6954, 3.43591, -174.246, 3.28228, 65.3822, 0.26767, 41.2201
1, 2400.00000, 125.014, -33.6215, 122.586, -151.172, 128.324, 88.4561, 0, 0, 3.36918, -56.6954, 3.43591, -174.246, 3.28228, 65.3822, 0.26767, 41.2201
1, 2460.00000, 125.014, -33.6215, 122.586, -151.172, 128.324, 88.4561, 0, 0, 3.36918, -56.6954, 3.43591, -174.246, 3.28228, 65.3822, 0.26767, 41.2201
1, 2520.00000, 125.156, -33.6456, 124.031, -150.675, 129.984, 88.1036, 0, 0, 3.36536, -56.7195, 3.3959, -173.749, 3.24037, 65.0297, 0.293799, 56.7495
1, 2580.00000, 125.156, -33.6456, 124.031, -150.675, 129.984, 88.1036, 0, 0, 3.36536, -56.7195, 3.3959, -173.749, 3.24037, 65.0297, 0.293799, 56.75
1, 2640.00000, 125.156, -33.6456, 124.031, -150.675, 129.984, 88.1036, 0, 0, 3.36536, -56.7196, 3.3959, -173.749, 3.24037, 65.0297, 0.2938, 56.75
1, 2700.00000, 125.156, -33.6456, 124.031, -150.675, 129.984, 88.1036, 0, 0, 3.36536, -56.7196, 3.3959, -173.749, 3.24037, 65.0297, 0.2938, 56.75
1, 2760.00000, 125.242, -33.6667, 124.936, -150.304, 131.152, 87.9189, 0, 0, 3.36306, -56.7406, 3.37129, -173.378, 3.21151, 64.8449, 0.325344, 64.6514
1, 2820.00000, 125.242, -33.6667, 124.936, -150.304, 131.152, 87.9189, 0, 0, 3.36306, -56.7406, 3.37129, -173.378, 3.21151, 64.8449, 0.325344, 64.6517
1, 2880.00000, 125.242, -33.6667, 124.936, -150.304, 131.152, 87.9189, 0, 0, 3.36306, -56.7406, 3.37129, -173.378, 3.21151, 64.8449, 0.325344, 64.6517
1, 2940.00000, 125.242, -33.6667, 124.936, -150.304, 131.152, 87.9189, 0, 0, 3.36306, -56.7406, 3.37129, -173.378, 3.21151, 64.8449, 0.325344, 64.6517
1, 3000.00000, 125.242, -33.6667, 124.936, -150.304, 131.152, 87.9189, 0, 0, 3.36306, -56.7406, 3.37129, -173.378, 3.21151, 64.8449, 0.325344, 64.6517
1, 3060.00000, 125.242, -33.6667, 124.936, -150.304, 131.152, 87.9189, 0, 0, 3.36306, -56.7406, 3.37129, -173.378, 3.21151, 64.8449, 0.325344, 64.6517
1, 3120.00000, 125.242, -33.6667, 124.936, -150.304, 131.152, 87.9189, 0, 0, 3.36306, -56.7406, 3.37129, -173.378, 3.21151, 64.8449, 0.325344, 64.6517
1, 3180.00000, 125.242, -33.6667, 124.936, -150.304, 131.152, 87.9189, 0, 0, 3.36306, -56.7406, 3.37129, -173.378, 3.21151, 64.8449, 0.325344, 64.6517
1, 3240.00000, 125.242, -33.6667, 124.936, -150.304, 131.152, 87.9189, 0, 0, 3.36306, -56.7406, 3.37129, -173.378, 3.21151, 64.8449, 0.325344, 64.6517
1, 3300.00000, 125.242, -33.6667, 124.936, -150.304, 131.152, 87.9189, 0, 0, 3.36306, -56.7406, 3.37129, -173.378, 3.21151, 64.8449, 0.325344, 64.6517
1, 3360.00000, 125.242, -33.6667, 124.936, -150.304, 131.152, 87.9189, 0, 0, 3.36306, -56.7406, 3.37129, -173.378, 3.21151, 64.8449, 0.325344, 64.6517
1, 3420.00000, 125.242, -33.6667, 124.936, -150.304, 131.152, 87.9189, 0, 0, 3.36306, -56.7406, 3.37129, -173.378, 3.21151, 64.8449, 0.325344, 64.6517
1, 3480.00000, 125.242, -33.6667, 124.936, -150.304, 131.152, 87.9189, 0, 0, 3.36306, -56.7406, 3.37129, -173.378, 3.21151, 64.8449, 0.325345, 64.6517
1, 3540.00000, 125.242, -33.6667, 124.936, -150.304, 131.152, 87.9189, 0, 0, 3.36306, -56.7406, 3.37129, -173.378, 3.21151, 64.8449, 0.325345, 64.6517
2, 0.00000, 125.242, -33.6667, 124.936, -150.304, 131.152, 87.9189, 0, 0, 3.36306, -56.7406, 3.37129, -173.378, 3.21151, 64.8449, 0.325345, 64.6517
2, 60.00000, 125.242, -33.6667, 124.936, -150.304, 131.152, 87.9189, 0, 0, 3.36306, -56.7406, 3.37129, -173.378, 3.21151, 64.8449, 0.325345, 64.6517
2, 120.00000, 125.233, -33.6675, 124.929, -150.305, 131.145, 87.9181, 0, 0, 3.37259, -56.7414, 3.38082, -173.379, 3.22057, 64.8442, 0.326279, 64.6537
2, 180.00000, 125.225, -33.6683, 124.921, -150.306, 131.137, 87.9174, 0, 0, 3.38225, -56.7422, 3.39046, -173.38, 3.22975, 64.8435, 0.327224, 64.6557
2, 240.00000, 125.216, -33.6692, 124.914, -150.307, 131.13, 87.9167, 0, 0, 3.39179, -56.7431, 3.39999, -173.381, 3.23882, 64.8428, 0.328158, 64.6577
2, 300.00000, 125.207, -33.67, 124.906, -150.308, 131.122, 87.916, 0, 0, 3.40133, -56.7439, 3.40952, -173.382, 3.24789, 64.842, 0.329093, 64.6598
2, 360.00000, 125.199, -33.6708, 124.899, -150.309, 131.115, 87.9152, 0, 0, 3.41098, -56.7447, 3.41917, -173.383, 3.25708, 64.8413, 0.330038, 64.6618
2, 420.00000, 125.19, -33.6716, 124.891, -150.31, 131.107, 87.9145, 0, 0, 3.42053, -56.7455, 3.4287, -173.384, 3.26615, 64.8406, 0.330973, 64.6638
2, 480.00000, 125.181, -33.6725, 124.884, -150.311, 131.1, 87.9138, 0, 0, 3.43007, -56.7464, 3.43824, -173.385, 3.27522, 64.8399, 0.331908, 64.6658
2, 540.00000, 125.173, -33.6733, 124.877, -150.312, 131.092, 87.913, 0, 0, 3.43973, -56.7472, 3.44789, -173.386, 3.28441, 64.8391, 0.332855, 64.6678
2, 600.00000, 125.164, -33.6741, 124.869, -150.313, 131.085, 87.9123, 0, 0, 3.44928, -56.748, 3.45742, -173.387, 3.29349, 64.8384, 0.33379, 64.6698
2, 660.00000, 125.155, -33.6749, 124.862, -150.314, 131.077, 87.9116, 0, 0, 3.45883, -56.7488, 3.46696, -173.388, 3.30256, 64.8377, 0.334726, 64.6719
2, 720.00000, 125.147, -33.6758, 124.854, -150.315, 131.07, 87.9109, 0, 0, 3.46849, -56.7497, 3.47662, -173.389, 3.31175, 64.8369, 0.335673, 64.6739
2, 780.00000, 125.138, -33.6766, 124.847, -150.316, 131.062, 87.9101, 0, 0, 3.47804, -56.7505, 3.48616, -173.39, 3.32083, 64.8362, 0.336609, 64.6759
