hour,t(sec),V1,VAngle1,V2,VAngle2,V3,VAngle3,V4,VAngle4,I1,IAngle1,I2,IAngle2,I3,IAngle3,I4,IAngle4
0, 60.00000, 127.792, -31.3516, 127.228, -150.55, 129.107, 89.2859, 0, 0, 2.12641, -54.425, 2.13584, -173.624, 2.10478, 66.2122, 0.0547692, 48.0833
0, 120.00000, 127.801, -31.3601, 127.228, -150.55, 129.129, 89.2852, 0, 0, 2.12626, -54.4336, 2.13584, -173.624, 2.10442, 66.2115, 0.0553791, 47.9992
0, 180.00000, 127.809, -31.3678, 127.228, -150.55, 129.149, 89.2847, 0, 0, 2.12613, -54.4413, 2.13584, -173.624, 2.1041, 66.2109, 0.0559285, 47.9256
0, 240.00000, 127.817, -31.3747, 127.228, -150.55, 129.166, 89.2841, 0, 0, 2.126, -54.4482, 2.13584, -173.624, 2.10381, 66.2104, 0.0564232, 47.861
0, 300.00000, 127.823, -31.3809, 127.228, -150.55, 129.182, 89.2836, 0, 0, 2.12589, -54.4545, 2.13584, -173.624, 2.10355, 66.2099, 0.0568687, 47.8044
0, 360.00000, 127.829, -31.3865, 127.228, -150.55, 129.197, 89.2832, 0, 0, 2.1258, -54.4601, 2.13584, -173.624, 2.10332, 66.2094, 0.0572698, 47.7544
0, 420.00000, 127.834, -31.3915, 127.228, -150.55, 129.209, 89.2828, 0, 0, 2.12571, -54.4652, 2.13584, -173.624, 2.10311, 66.209, 0.057631, 47.7104
0, 480.00000, 127.839, -31.3961, 127.228, -150.55, 129.221, 89.2824, 0, 0, 2.12563, -54.4697, 2.13584, -173.624, 2.10292, 66.2086, 0.0579562, 47.6714
0, 540.00000, 127.844, -31.4002, 127.228, -150.55, 129.231, 89.2821, 0, 0, 2.12556, -54.4739, 2.13584, -173.624, 2.10274, 66.2083, 0.058249, 47.6369
0, 600.00000, 127.847, -31.4038, 127.228, -150.55, 129.241, 89.2818, 0, 0, 2.12549, -54.4776, 2.13584, -173.624, 2.10259, 66.208, 0.0585125, 47.6063
0, 660.00000, 127.851, -31.4072, 127.228, -150.55, 129.249, 89.2815, 0, 0, 2.12543, -54.4809, 2.13584, -173.624, 2.10245, 66.2077, 0.0587498, 47.5791
0, 720.00000, 127.854, -31.4102, 127.228, -150.55, 129.257, 89.2813, 0, 0, 2.12538, -54.4839, 2.13584, -173.624, 2.10233, 66.2074, 0.0589634, 47.5549
0, 780.00000, 127.857, -31.4128, 127.228, -150.55, 129.264, 89.2811, 0, 0, 2.12534, -54.4866, 2.13584, -173.624, 2.10222, 66.2072, 0.0591557, 47.5334
0, 840.00000, 127.859, -31.4153, 127.228, -150.55, 129.27, 89.2809, 0, 0, 2.12529, -54.489, 2.13584, -173.624, 2.10212, 66.207, 0.0593287, 47.5142
0, 900.00000, 127.862, -31.4174, 127.228, -150.55, 129.275, 89.2807, 0, 0, 2.12526, -54.4912, 2.13584, -173.624, 2.10202, 66.2068, 0.0594846, 47.497
0, 960.00000, 127.864, -31.4194, 127.228, -150.55, 129.28, 89.2805, 0, 0, 2.12522, -54.4932, 2.13584, -173.624, 2.10194, 66.2066, 0.0596248, 47.4817
0, 1020.00000, 127.866, -31.4212, 127.228, -150.55, 129.285, 89.2804, 0, 0, 2.12519, -54.495, 2.13584, -173.624, 2.10187, 66.2065, 0.059751, 47.468
0, 1080.00000, 127.867, -31.4228, 127.228, -150.55, 129.289, 89.2802, 0, 0, 2.12516, -54.4966, 2.13584, -173.624, 2.1018, 66.2063, 0.0598647, 47.4558
0, 1140.00000, 127.869, -31.4242, 127.228, -150.55, 129.292, 89.2801, 0, 0, 2.12514, -54.498, 2.13584, -173.624, 2.10174, 66.2062, 0.0599669, 47.4448
0, 1200.00000, 127.87, -31.4255, 127.228, -150.55, 129.296, 89.28, 0, 0, 2.12512, -54.4993, 2.13584, -173.624, 2.10169, 66.2061, 0.060059, 47.435
0, 1260.00000, 127.871, -31.4266, 127.228, -150.55, 129.299, 89.2799, 0, 0, 2.1251, -54.5005, 2.13584, -173.624, 2.10164, 66.206, 0.0601419, 47.4262
0, 1320.00000, 127.872, -31.4277, 127.228, -150.55, 129.301, 89.2798, 0, 0, 2.12508, -54.5015, 2.13584, -173.624, 2.1016, 66.2059, 0.0602164, 47.4183
0, 1380.00000, 127.873, -31.4286, 127.228, -150.55, 129.304, 89.2797, 0, 0, 2.12506, -54.5025, 2.13584, -173.624, 2.10156, 66.2058, 0.0602836, 47.4112
0, 1440.00000, 127.874, -31.4295, 127.228, -150.55, 129.306, 89.2796, 0, 0, 2.12505, -54.5033, 2.13584, -173.624, 2.10152, 66.2057, 0.060344, 47.4049
0, 1500.00000, 127.875, -31.4302, 127.228, -150.55, 129.308, 89.2796, 0, 0, 2.12504, -54.5041, 2.13584, -173.624, 2.10149, 66.2057, 0.0603984, 47.3992
0, 1560.00000, 127.876, -31.4309, 127.228, -150.55, 129.31, 89.2795, 0, 0, 2.12502, -54.5048, 2.13584, -173.623, 2.10146, 66.2056, 0.0604473, 47.3941
0, 1620.00000, 127.876, -31.4315, 127.228, -150.55, 129.311, 89.2795, 0, 0, 2.12501, -54.5054, 2.13584, -173.623, 2.10144, 66.2056, 0.0604913, 47.3895
0, 1680.00000, 127.877, -31.4321, 127.228, -150.55, 129.313, 89.2794, 0, 0, 2.125, -54.506, 2.13584, -173.623, 2.10141, 66.2055, 0.060531, 47.3854
0, 1740.00000, 127.877, -31.4326, 127.228, -150.55, 129.314, 89.2794, 0, 0, 2.125, -54.5065, 2.13584, -173.623, 2.10139, 66.2055, 0.0605667, 47.3817
0, 1800.00000, 127.878, -31.433, 127.228, -150.55, 129.315, 89.2793, 0, 0, 2.12499, -54.5069, 2.13584, -173.623, 2.10138, 66.2054, 0.0605988, 47.3784
0, 1860.00000, 127.878, -31.4334, 127.228, -150.55, 129.316, 89.2793, 0, 0, 2.12498, -54.5073, 2.13584, -173.623, 2.10136, 66.2054, 0.0606277, 47.3754
0, 1920.00000, 127.879, -31.4338, 127.228, -150.55, 129.317, 89.2793, 0, 0, 2.12497, -54.5077, 2.13584, -173.623, 2.10134, 66.2054, 0.0606537, 47.3727
0, 1980.00000, 127.879, -31.4341, 127.228, -150.55, 129.318, 89.2792, 0, 0, 2.12497, -54.508, 2.13584, -173.623, 2.10133, 66.2053, 0.0606771, 47.3703
0, 2040.00000, 127.879, -31.4344, 127.228, -150.55, 129.318, 89.2792, 0, 0, 2.12496, -54.5083, 2.13584, -173.623, 2.10132, 66.2053, 0.0606982, 47.3681
0, 2100.00000, 127.88, -31.4347, 127.228, -150.55, 129.319, 89.2792, 0, 0, 2.12496, -54.5086, 2.13584, -173.623, 2.10131, 66.2053, 0.0607172, 47.3662
0, 2160.00000, 127.88, -31.4349, 127.228, -150.55, 129.32, 89.2792, 0, 0, 2.12496, -54.5088, 2.13584, -173.623, 2.1013, 66.2053, 0.0607342, 47.3644
0, 2220.00000, 127.88, -31.4352, 127.228, -150.55, 129.32, 89.2792, 0, 0, 2.12495, -54.5091, 2.13584, -173.623, 2.10129, 66.2052, 0.0607496, 47.3628
0, 2280.00000, 127.88, -31.4353, 127.228, -150.55, 129.321, 89.2791, 0, 0, 2.12495, -54.5093, 2.13584, -173.623, 2.10128, 66.2052, 0.0607634, 47.3614
0, 2340.00000, 127.881, -31.4355, 127.228, -150.55, 129.321, 89.2791, 0, 0, 2.12495, -54.5094, 2.13584, -173.623, 2.10127, 66.2052, 0.0607759, 47.3601
0, 2400.00000, 127.881, -31.4357, 127.228, -150.55, 129.322, 89.2791, 0, 0, 2.12494, -54.5096, 2.13584, -173.623, 2.10127, 66.2052, 0.0607871, 47.359
0, 2460.00000, 127.881, -31.4358, 127.228, -150.55, 129.322, 89.2791, 0, 0, 2.12494, -54.5097, 2.13584, -173.623, 2.10126, 66.2052, 0.0607972, 47.358
0, 2520.00000, 127.881, -31.4359, 127.228, -150.55, 129.322, 89.2791, 0, 0, 2.12494, -54.5099, 2.13584, -173.623, 2.10125, 66.2052, 0.0608062, 47.357
0, 2580.00000, 127.881, -31.4361, 127.228, -150.55, 129.323, 89.2791, 0, 0, 2.12494, -54.51, 2.13584, -173.623, 2.10125, 66.2052, 0.0608144, 47.3562
0, 2640.00000, 127.881, -31.4362, 127.228, -150.55, 129.323, 89.2791, 0, 0, 2.12493, -54.5101, 2.13584, -173.623, 2.10125, 66.2051, 0.0608218, 47.3555
0, 2700.00000, 127.881, -31.4363, 127.228, -150.55, 129.323, 89.2791, 0, 0, 2.12493, -54.5102, 2.13584, -173.623, 2.10124, 66.2051, 0.0608284, 47.3548
0, 2760.00000, 127.881, -31.4363, 127.228, -150.55, 129.323, 89.279, 0, 0, 2.12493, -54.5103, 2.13584, -173.623, 2.10124, 66.2051, 0.0608343, 47.3542
0, 2820.00000, 127.881, -31.4364, 127.228, -150.55, 129.324, 89.279, 0, 0, 2.12493, -54.5103, 2.13584, -173.623, 2.10124, 66.2051, 0.0608397, 47.3536
0, 2880.00000, 127.882, -31.4365, 127.228, -150.55, 129.324, 89.279, 0, 0, 2.12493, -54.5104, 2.13584, -173.623, 2.10123, 66.2051, 0.0608445, 47.3531
0, 2940.00000, 127.882, -31.4365, 127.228, -150.55, 129.324, 89.279, 0, 0, 2.12493, -54.5105, 2.13584, -173.623, 2.10123, 66.2051, 0.0608488, 47.3527
0, 3000.00000, 127.882, -31.4366, 127.228, -150.55, 129.324, 89.279, 0, 0, 2.12493, -54.5105, 2.13584, -173.623, 2.10123, 66.2051, 0.0608527, 47.3523
0, 3060.00000, 127.882, -31.4366, 127.228, -150.55, 129.324, 89.279, 0, 0, 2.12493, -54.5106, 2.13584, -173.623, 2.10123, 66.2051, 0.0608563, 47.3519
0, 3120.00000, 127.882, -31.4367, 127.228, -150.55, 129.324, 89.279, 0, 0, 2.12493, -54.5106, 2.13584, -173.623, 2.10122, 66.2051, 0.0608594, 47.3516
0, 3180.00000, 127.882, -31.4367, 127.228, -150.55, 129.324, 89.279, 0, 0, 2.12492, -54.5106, 2.13584, -173.623, 2.10122, 66.2051, 0.0608623, 47.3513
0, 3240.00000, 127.882, -31.4368, 127.228, -150.55, 129.324, 89.279, 0, 0, 2.12492, -54.5107, 2.13584, -173.623, 2.10122, 66.2051, 0.0608648, 47.3511
0, 3300.00000, 127.882, -31.4368, 127.228, -150.55, 129.325, 89.279, 0, 0, 2.12492, -54.5107, 2.13584, -173.623, 2.10122, 66.2051, 0.0608671, 47.3508
0, 3360.00000, 127.882, -31.4368, 127.228, -150.55, 129.325, 89.279, 0, 0, 2.12492, -54.5107, 2.13584, -173.623, 2.10122, 66.2051, 0.0608692, 47.3506
0, 3420.00000, 127.882, -31.4369, 127.228, -150.55, 129.325, 89.279, 0, 0, 2.12492, -54.5108, 2.13584, -173.623, 2.10122, 66.2051, 0.0608711, 47.3504
0, 3480.00000, 127.882, -31.4369, 127.228, -150.55, 129.325, 89.279, 0, 0, 2.12492, -54.5108, 2.13584, -173.623, 2.10122, 66.2051, 0.0608728, 47.3503
0, 3540.00000, 127.882, -31.4369, 127.228, -150.55, 129.325, 89.279, 0, 0, 2.12492, -54.5108, 2.13584, -173.623, 2.10122, 66.2051, 0.0608743, 47.3501
1, 0.00000, 127.882, -31.4369, 127.228, -150.55, 129.325, 89.279, 0, 0, 2.12492, -54.5108, 2.13584, -173.623, 2.10121, 66.2051, 0.0608756, 47.35
1, 60.00000, 127.882, -31.4369, 127.228, -150.55, 129.325, 89.279, 0, 0, 2.12492, -54.5109, 2.13584, -173.623, 2.10121, 66.2051, 0.0608769, 47.3498
1, 120.00000, 127.882, -31.437, 127.228, -150.55, 129.325, 89.279, 0, 0, 2.12492, -54.5109, 2.13584, -173.623, 2.10121, 66.2051, 0.060878, 47.3497
1, 180.00000, 127.882, -31.437, 127.228, -150.55, 129.325, 89.279, 0, 0, 2.12492, -54.5109, 2.13584, -173.623, 2.10121, 66.2051, 0.060879, 47.3496
1, 240.00000, 127.882, -31.437, 127.228, -150.55, 129.325, 89.279, 0, 0, 2.12492, -54.5109, 2.13584, -173.623, 2.10121, 66.2051, 0.0608799, 47.3495
1, 300.00000, 127.882, -31.437, 127.228, -150.55, 129.325, 89.279, 0, 0, 2.12492, -54.5109, 2.13584, -173.623, 2.10121, 66.2051, 0.0608807, 47.3494
1, 360.00000, 127.882, -31.437, 127.228, -150.55, 129.325, 89.279, 0, 0, 2.12492, -54.5109, 2.13584, -173.623, 2.10121, 66.2051, 0.0608814, 47.3494
1, 420.00000, 127.882, -31.437, 127.228, -150.55, 129.325, 89.279, 0, 0, 2.12492, -54.5109, 2.13584, -173.623, 2.10121, 66.2051, 0.060882, 47.3493
1, 480.00000, 127.882, -31.437, 127.228, -150.55, 129.325, 89.279, 0, 0, 2.12492, -54.5109, 2.13584, -173.623, 2.10121, 66.2051, 0.0608826, 47.3492
1, 540.00000, 127.882, -31.437, 127.228, -150.55, 129.325, 89.279, 0, 0, 2.12492, -54.5109, 2.13584, -173.623, 2.10121, 66.2051, 0.0608831, 47.3492
1, 600.00000, 127.882, -31.437, 127.228, -150.55, 129.325, 89.279, 0, 0, 2.12492, -54.5109, 2.13584, -173.623, 2.10121, 66.2051, 0.0608836, 47.3491
1, 660.00000, 127.882, -31.437, 127.228, -150.55, 129.325, 89.279, 0, 0, 2.12492, -54.511, 2.13584, -173.623, 2.10121, 66.2051, 0.060884, 47.3491
1, 720.00000, 127.882, -31.437, 127.228, -150.55, 129.325, 89.279, 0, 0, 2.12492, -54.511, 2.13584, -173.623, 2.10121, 66.2051, 0.0608844, 47.3491
1, 780.00000, 127.882, -31.437, 127.228, -150.55, 129.325, 89.279, 0, 0, 2.12492, -54.511, 2.13584, -173.623, 2.10121, 66.2051, 0.0608848, 47.349
1, 840.00000, 127.882, -31.437, 127.228, -150.55, 129.325, 89.279, 0, 0, 2.12492, -54.511, 2.13584, -173.623, 2.10121, 66.2051, 0.0608851, 47.349
1, 900.00000, 127.882, -31.4371, 127.228, -150.55, 129.325, 89.279, 0, 0, 2.12492, -54.511, 2.13584, -173.623, 2.10121, 66.2051, 0.0608854, 47.349
1, 960.00000, 127.882, -31.4371, 127.228, -150.55, 129.325, 89.279, 0, 0, 2.12492, -54.511, 2.13584, -173.623, 2.10121, 66.2051, 0.0608856, 47.3489
1, 1020.00000, 127.882, -31.4371, 127.228, -150.55, 129.325, 89.279, 0, 0, 2.12492, -54.511, 2.13584, -173.623, 2.10121, 66.2051, 0.0608859, 47.3489
1, 1080.00000, 127.882, -31.4371, 127.228, -150.55, 129.325, 89.279, 0, 0, 2.12492, -54.511, 2.13584, -173.623, 2.10121, 66.2051, 0.0608861, 47.3489
1, 1140.00000, 127.882, -31.4371, 127.228, -150.55, 129.325, 89.279, 0, 0, 2.12492, -54.511, 2.13584, -173.623, 2.10121, 66.2051, 0.0608862, 47.3489
1, 1200.00000, 127.882, -31.4371, 127.228, -150.55, 129.325, 89.279, 0, 0, 2.12492, -54.511, 2.13584, -173.623, 2.10121, 66.2051, 0.0608864, 47.3489
1, 1260.00000, 127.882, -31.4371, 127.228, -150.55, 129.325, 89.279, 0, 0, 2.12492, -54.511, 2.13584, -173.623, 2.10121, 66.2051, 0.0608866, 47.3488
1, 1320.00000, 127.882, -31.4371, 127.228, -150.55, 129.325, 89.279, 0, 0, 2.12492, -54.511, 2.13584, -173.623, 2.10121, 66.2051, 0.0608867, 47.3488
1, 1380.00000, 127.882, -31.4371, 127.228, -150.55, 129.325, 89.279, 0, 0, 2.12492, -54.511, 2.13584, -173.623, 2.10121, 66.2051, 0.0608868, 47.3488
1, 1440.00000, 127.882, -31.4371, 127.228, -150.55, 129.325, 89.279, 0, 0, 2.12492, -54.511, 2.13584, -173.623, 2.10121, 66.2051, 0.0608869, 47.3488
1, 1500.00000, 127.882, -31.4371, 127.228, -150.55, 129.325, 89.279, 0, 0, 2.12492, -54.511, 2.13584, -173.623, 2.10121, 66.2051, 0.060887, 47.3488
1, 1560.00000, 127.882, -31.4371, 127.228, -150.55, 129.325, 89.279, 0, 0, 2.12492, -54.511, 2.13584, -173.623, 2.10121, 66.2051, 0.0608871, 47.3488
1, 1620.00000, 127.882, -31.4371, 127.228, -150.55, 129.325, 89.279, 0, 0, 2.12492, -54.511, 2.13584, -173.623, 2.10121, 66.2051, 0.0608872, 47.3488
1, 1680.00000, 127.882, -31.4371, 127.228, -150.55, 129.325, 89.279, 0, 0, 2.12492, -54.511, 2.13584, -173.623, 2.10121, 66.2051, 0.0608873, 47.3488
1, 1740.00000, 127.882, -31.4371, 127.228, -150.55, 129.325, 89.279, 0, 0, 2.12492, -54.511, 2.13584, -173.623, 2.10121, 66.2051, 0.0608873, 47.3488
1, 1800.00000, 127.882, -31.4371, 127.228, -150.55, 129.325, 89.279, 0, 0, 2.12492, -54.511, 2.13584, -173.623, 2.10121, 66.2051, 0.0608874, 47.3488
1, 1860.00000, 127.882, -31.4371, 127.228, -150.55, 129.325, 89.279, 0, 0, 2.12492, -54.511, 2.13584, -173.623, 2.10121, 66.2051, 0.0608874, 47.3488
1, 1920.00000, 127.882, -31.4371, 127.228, -150.55, 129.325, 89.279, 0, 0, 2.12492, -54.511, 2.13584, -173.623, 2.10121, 66.2051, 0.0608875, 47.3488
1, 1980.00000, 127.882, -31.4371, 127.228, -150.55, 129.325, 89.279, 0, 0, 2.12492, -54.511, 2.13584, -173.623, 2.10121, 66.2051, 0.0608875, 47.3488
1, 2040.00000, 127.882, -31.4371, 127.228, -150.55, 129.325, 89.279, 0, 0, 2.12492, -54.511, 2.13584, -173.623, 2.10121, 66.2051, 0.0608876, 47.3487
1, 2100.00000, 127.882, -31.4371, 127.228, -150.55, 129.325, 89.279, 0, 0, 2.12492, -54.511, 2.13584, -173.623, 2.10121, 66.2051, 0.0608876, 47.3487
1, 2160.00000, 127.882, -31.4371, 127.228, -150.55, 129.325, 89.279, 0, 0, 2.12492, -54.511, 2.13584, -173.623, 2.10121, 66.2051, 0.0608876, 47.3487
1, 2220.00000, 127.882, -31.4371, 127.228, -150.55, 129.325, 89.279, 0, 0, 2.12492, -54.511, 2.13584, -173.623, 2.10121, 66.2051, 0.0608876, 47.3487
1, 2280.00000, 127.882, -31.4371, 127.228, -150.55, 129.325, 89.279, 0, 0, 2.12492, -54.511, 2.13584, -173.623, 2.10121, 66.2051, 0.0608877, 47.3487
1, 2340.00000, 127.882, -31.4371, 127.228, -150.55, 129.325, 89.279, 0, 0, 2.12492, -54.511, 2.13584, -173.623, 2.10121, 66.2051, 0.0608877, 47.3487
1, 2400.00000, 127.882, -31.4371, 127.228, -150.55, 129.325, 89.279, 0, 0, 2.12492, -54.511, 2.13584, -173.623, 2.10121, 66.2051, 0.0608877, 47.3487
1, 2460.00000, 127.882, -31.4371, 127.228, -150.55, 129.325, 89.279, 0, 0, 2.12492, -54.511, 2.13584, -173.623, 2.10121, 66.2051, 0.0608877, 47.3487
1, 2520.00000, 127.882, -31.4371, 127.228, -150.55, 129.325, 89.279, 0, 0, 2.12492, -54.511, 2.13584, -173.623, 2.10121, 66.2051, 0.0608878, 47.3487
1, 2580.00000, 127.882, -31.4371, 127.228, -150.55, 129.325, 89.279, 0, 0, 2.12492, -54.511, 2.13584, -173.623, 2.10121, 66.2051, 0.0608878, 47.3487
1, 2640.00000, 127.882, -31.4371, 127.228, -150.55, 129.325, 89.279, 0, 0, 2.12492, -54.511, 2.13584, -173.623, 2.10121, 66.2051, 0.0608878, 47.3487
1, 2700.00000, 127.882, -31.4371, 127.228, -150.55, 129.325, 89.279, 0, 0, 2.12492, -54.511, 2.13584, -173.623, 2.10121, 66.2051, 0.0608878, 47.3487
1, 2760.00000, 128.285, -31.4103, 127.23, -150.549, 129.492, 89.4409, 0, 0, 2.11824, -54.4842, 2.13582, -173.623, 2.09851, 66.367, 0.0639705, 37.4064
1, 2820.00000, 128.285, -31.4103, 127.23, -150.549, 129.492, 89.4409, 0, 0, 2.11824, -54.4842, 2.13582, -173.623, 2.09851, 66.367, 0.0639709, 37.4067
1, 2880.00000, 128.285, -31.4103, 127.23, -150.549, 129.492, 89.4409, 0, 0, 2.11824, -54.4842, 2.13582, -173.623, 2.09851, 66.367, 0.0639709, 37.4067
1, 2940.00000, 128.285, -31.4103, 127.23, -150.549, 129.492, 89.4409, 0, 0, 2.11824, -54.4842, 2.13582, -173.623, 2.09851, 66.367, 0.0639709, 37.4067
1, 3000.00000, 128.285, -31.4103, 127.23, -150.549, 129.492, 89.4409, 0, 0, 2.11824, -54.4842, 2.13582, -173.623, 2.09851, 66.367, 0.0639709, 37.4067
1, 3060.00000, 128.285, -31.4103, 127.23, -150.549, 129.492, 89.4409, 0, 0, 2.11824, -54.4842, 2.13582, -173.623, 2.09851, 66.367, 0.0639709, 37.4067
1, 3120.00000, 128.285, -31.4103, 127.23, -150.549, 129.492, 89.4409, 0, 0, 2.11824, -54.4842, 2.13582, -173.623, 2.09851, 66.367, 0.0639709, 37.4067
1, 3180.00000, 128.285, -31.4103, 127.23, -150.549, 129.492, 89.4409, 0, 0, 2.11824, -54.4842, 2.13582, -173.623, 2.09851, 66.367, 0.0639709, 37.4067
1, 3240.00000, 128.285, -31.4103, 127.23, -150.549, 129.492, 89.4409, 0, 0, 2.11824, -54.4842, 2.13582, -173.623, 2.09851, 66.367, 0.0639709, 37.4067
1, 3300.00000, 128.285, -31.4103, 127.23, -150.549, 129.492, 89.4409, 0, 0, 2.11824, -54.4842, 2.13582, -173.623, 2.09851, 66.367, 0.0639709, 37.4067
1, 3360.00000, 128.285, -31.4103, 127.23, -150.549, 129.492, 89.4409, 0, 0, 2.11824, -54.4842, 2.13582, -173.623, 2.09851, 66.367, 0.0639709, 37.4067
1, 3420.00000, 128.285, -31.4103, 127.23, -150.549, 129.492, 89.4409, 0, 0, 2.11824, -54.4842, 2.13582, -173.623, 2.09851, 66.367, 0.0639709, 37.4067
1, 3480.00000, 128.285, -31.4103, 127.23, -150.549, 129.492, 89.4409, 0, 0, 2.11824, -54.4842, 2.13582, -173.623, 2.09851, 66.367, 0.0639709, 37.4067
1, 3540.00000, 128.285, -31.4103, 127.23, -150.549, 129.492, 89.4409, 0, 0, 2.11824, -54.4842, 2.13582, -173.623, 2.09851, 66.367, 0.0639709, 37.4067
2, 0.00000, 128.285, -31.4103, 127.23, -150.549, 129.492, 89.4409, 0, 0, 2.11824, -54.4842, 2.13582, -173.623, 2.09851, 66.367, 0.0639709, 37.4067
2, 60.00000, 128.285, -31.4103, 127.23, -150.549, 129.492, 89.4409, 0, 0, 2.11824, -54.4842, 2.13582, -173.623, 2.09851, 66.367, 0.0639709, 37.4067
2, 120.00000, 128.282, -31.4113, 127.226, -150.55, 129.488, 89.4399, 0, 0, 2.12416, -54.4852, 2.14178, -173.624, 2.10437, 66.366, 0.0641479, 37.4057
2, 180.00000, 128.278, -31.4123, 127.223, -150.551, 129.485, 89.4388, 0, 0, 2.13015, -54.4862, 2.14782, -173.625, 2.1103, 66.3649, 0.064327, 37.4047
2, 240.00000, 128.275, -31.4133, 127.22, -150.553, 129.481, 89.4378, 0, 0, 2.13607, -54.4873, 2.15379, -173.626, 2.11616, 66.3639, 0.064504, 37.4036
2, 300.00000, 128.271, -31.4144, 127.216, -150.554, 129.478, 89.4367, 0, 0, 2.14199, -54.4883, 2.15975, -173.628, 2.12203, 66.3628, 0.0646809, 37.4026
2, 360.00000, 128.268, -31.4154, 127.213, -150.555, 129.474, 89.4357, 0, 0, 2.14798, -54.4893, 2.16579, -173.629, 2.12796, 66.3618, 0.06486, 37.4016
2, 420.00000, 128.264, -31.4164, 127.209, -150.556, 129.471, 89.4346, 0, 0, 2.1539, -54.4904, 2.17176, -173.63, 2.13382, 66.3607, 0.065037, 37.4005
2, 480.00000, 128.261, -31.4175, 127.206, -150.557, 129.468, 89.4336, 0, 0, 2.15982, -54.4914, 2.17772, -173.631, 2.13968, 66.3597, 0.0652139, 37.3995
2, 540.00000, 128.257, -31.4185, 127.203, -150.558, 129.464, 89.4325, 0, 0, 2.16581, -54.4924, 2.18376, -173.632, 2.14562, 66.3586, 0.065393, 37.3985
2, 600.00000, 128.254, -31.4195, 127.199, -150.559, 129.461, 89.4315, 0, 0, 2.17173, -54.4935, 2.18973, -173.633, 2.15148, 66.3575, 0.06557, 37.3974
2, 660.00000, 128.25, -31.4206, 127.196, -150.56, 129.457, 89.4304, 0, 0, 2.17765, -54.4945, 2.1957, -173.634, 2.15734, 66.3565, 0.065747, 37.3964
2, 720.00000, 128.247, -31.4216, 127.193, -150.561, 129.454, 89.4294, 0, 0, 2.18364, -54.4955, 2.20174, -173.635, 2.16328, 66.3554, 0.0659261, 37.3954
2, 780.00000, 128.243, -31.4226, 127.189, -150.563, 129.451, 89.4283, 0, 0, 2.18956, -54.4966, 2.20771, -173.636, 2.16914, 66.3544, 0.066103, 37.3944
