hour,t(sec),V1,VAngle1,V2,VAngle2,V3,VAngle3,V4,VAngle4,I1,IAngle1,I2,IAngle2,I3,IAngle3,I4,IAngle4
0, 60.00000, 122.346, -30.958, 126.006, -150.319, 125.211, 88.2654, 0, 0, 3.21613, -54.032, 3.12275, -173.393, 3.14253, 65.1916, 0.152214, 133.872
0, 120.00000, 122.346, -30.958, 126.029, -150.32, 125.221, 88.257, 0, 0, 3.21612, -54.0319, 3.12218, -173.393, 3.14227, 65.1833, 0.153057, 134.017
0, 180.00000, 122.346, -30.9579, 126.049, -150.32, 125.23, 88.2495, 0, 0, 3.21612, -54.0319, 3.12167, -173.394, 3.14204, 65.1758, 0.153816, 134.147
0, 240.00000, 122.346, -30.9579, 126.067, -150.32, 125.239, 88.2428, 0, 0, 3.21611, -54.0318, 3.12121, -173.394, 3.14182, 65.169, 0.154501, 134.263
0, 300.00000, 123.826, -31.1543, 125.995, -150.328, 126.51, 88.6422, 0, 0, 3.17767, -54.2282, 3.123, -173.401, 3.11026, 65.5685, 0.113255, 111.571
0, 360.00000, 123.826, -31.1543, 126.01, -150.328, 126.517, 88.6368, 0, 0, 3.17767, -54.2282, 3.12263, -173.402, 3.11009, 65.563, 0.113666, 111.797
0, 420.00000, 123.826, -31.1544, 126.023, -150.328, 126.523, 88.6318, 0, 0, 3.17767, -54.2283, 3.1223, -173.402, 3.10994, 65.5581, 0.114039, 111.999
0, 480.00000, 123.826, -31.1544, 126.035, -150.328, 126.528, 88.6274, 0, 0, 3.17766, -54.2283, 3.12199, -173.402, 3.10981, 65.5536, 0.114375, 112.179
0, 540.00000, 123.826, -31.1544, 126.046, -150.328, 126.533, 88.6234, 0, 0, 3.17766, -54.2283, 3.12172, -173.402, 3.10969, 65.5496, 0.114678, 112.341
0, 600.00000, 123.826, -31.1544, 126.056, -150.329, 126.538, 88.6198, 0, 0, 3.17766, -54.2283, 3.12148, -173.402, 3.10958, 65.546, 0.114952, 112.485
0, 660.00000, 123.826, -31.1544, 126.065, -150.329, 126.542, 88.6166, 0, 0, 3.17766, -54.2283, 3.12126, -173.403, 3.10948, 65.5428, 0.115199, 112.615
0, 720.00000, 123.827, -31.1544, 126.073, -150.329, 126.545, 88.6137, 0, 0, 3.17766, -54.2283, 3.12106, -173.403, 3.10939, 65.5399, 0.115422, 112.731
0, 780.00000, 123.827, -31.1544, 126.08, -150.329, 126.549, 88.6111, 0, 0, 3.17766, -54.2283, 3.12088, -173.403, 3.10931, 65.5372, 0.115623, 112.835
0, 840.00000, 123.827, -31.1544, 126.086, -150.329, 126.551, 88.6087, 0, 0, 3.17766, -54.2283, 3.12072, -173.403, 3.10924, 65.5349, 0.115804, 112.929
0, 900.00000, 123.827, -31.1544, 126.092, -150.329, 126.554, 88.6066, 0, 0, 3.17766, -54.2283, 3.12058, -173.403, 3.10917, 65.5327, 0.115967, 113.013
0, 960.00000, 123.827, -31.1544, 126.097, -150.329, 126.556, 88.6047, 0, 0, 3.17765, -54.2283, 3.12045, -173.403, 3.10911, 65.5308, 0.116114, 113.088
0, 1020.00000, 123.827, -31.1544, 126.102, -150.329, 126.559, 88.603, 0, 0, 3.17765, -54.2283, 3.12033, -173.403, 3.10906, 65.5291, 0.116247, 113.156
0, 1080.00000, 123.827, -31.1544, 126.106, -150.33, 126.56, 88.6014, 0, 0, 3.17765, -54.2284, 3.12023, -173.403, 3.10901, 65.5275, 0.116366, 113.217
0, 1140.00000, 123.827, -31.1544, 126.11, -150.33, 126.562, 88.6, 0, 0, 3.17765, -54.2284, 3.12013, -173.403, 3.10897, 65.5261, 0.116474, 113.271
0, 1200.00000, 123.827, -31.1544, 126.113, -150.33, 126.564, 88.5988, 0, 0, 3.17765, -54.2284, 3.12005, -173.404, 3.10893, 65.5249, 0.116571, 113.321
0, 1260.00000, 123.827, -31.1544, 126.116, -150.33, 126.565, 88.5976, 0, 0, 3.17765, -54.2284, 3.11997, -173.404, 3.1089, 65.5238, 0.116658, 113.365
0, 1320.00000, 123.827, -31.1545, 126.119, -150.33, 126.566, 88.5966, 0, 0, 3.17765, -54.2284, 3.1199, -173.404, 3.10887, 65.5227, 0.116737, 113.404
0, 1380.00000, 123.827, -31.1545, 126.121, -150.33, 126.568, 88.5957, 0, 0, 3.17765, -54.2284, 3.11984, -173.404, 3.10884, 65.5218, 0.116808, 113.44
0, 1440.00000, 123.827, -31.1545, 126.124, -150.33, 126.569, 88.5949, 0, 0, 3.17765, -54.2284, 3.11978, -173.404, 3.10882, 65.521, 0.116872, 113.472
0, 1500.00000, 123.827, -31.1545, 126.126, -150.33, 126.569, 88.5941, 0, 0, 3.17765, -54.2284, 3.11973, -173.404, 3.10879, 65.5203, 0.116929, 113.501
0, 1560.00000, 123.827, -31.1545, 126.128, -150.33, 126.57, 88.5935, 0, 0, 3.17765, -54.2284, 3.11969, -173.404, 3.10877, 65.5196, 0.116981, 113.527
0, 1620.00000, 123.827, -31.1545, 126.129, -150.33, 126.571, 88.5929, 0, 0, 3.17765, -54.2284, 3.11965, -173.404, 3.10875, 65.519, 0.117027, 113.55
0, 1680.00000, 123.827, -31.1545, 126.131, -150.33, 126.572, 88.5923, 0, 0, 3.17765, -54.2284, 3.11961, -173.404, 3.10874, 65.5184, 0.117069, 113.571
0, 1740.00000, 123.827, -31.1545, 126.132, -150.33, 126.572, 88.5919, 0, 0, 3.17765, -54.2284, 3.11958, -173.404, 3.10872, 65.518, 0.117107, 113.59
0, 1800.00000, 123.827, -31.1545, 126.133, -150.33, 126.573, 88.5914, 0, 0, 3.17765, -54.2284, 3.11955, -173.404, 3.10871, 65.5175, 0.117141, 113.607
0, 1860.00000, 123.827, -31.1545, 126.134, -150.33, 126.573, 88.591, 0, 0, 3.17765, -54.2284, 3.11952, -173.404, 3.1087, 65.5171, 0.117171, 113.622
0, 1920.00000, 123.827, -31.1545, 126.135, -150.33, 126.574, 88.5907, 0, 0, 3.17765, -54.2284, 3.1195, -173.404, 3.10869, 65.5168, 0.117199, 113.636
0, 1980.00000, 123.827, -31.1545, 126.136, -150.33, 126.574, 88.5903, 0, 0, 3.17765, -54.2284, 3.11948, -173.404, 3.10868, 65.5164, 0.117224, 113.648
0, 2040.00000, 123.827, -31.1545, 126.137, -150.33, 126.575, 88.5901, 0, 0, 3.17765, -54.2284, 3.11946, -173.404, 3.10867, 65.5162, 0.117246, 113.659
0, 2100.00000, 123.827, -31.1545, 126.138, -150.33, 126.575, 88.5898, 0, 0, 3.17765, -54.2284, 3.11944, -173.404, 3.10866, 65.5159, 0.117266, 113.669
0, 2160.00000, 123.827, -31.1545, 126.138, -150.33, 126.575, 88.5896, 0, 0, 3.17765, -54.2284, 3.11942, -173.404, 3.10865, 65.5157, 0.117284, 113.678
0, 2220.00000, 123.954, -30.9853, 126.543, -150.29, 126.574, 88.5879, 0, 0, 3.1744, -54.0592, 3.10943, -173.364, 3.10868, 65.514, 0.118492, 122.156
0, 2280.00000, 123.954, -30.9853, 126.544, -150.29, 126.574, 88.5877, 0, 0, 3.1744, -54.0592, 3.10942, -173.364, 3.10867, 65.5138, 0.118508, 122.162
0, 2340.00000, 123.954, -30.9853, 126.544, -150.29, 126.575, 88.5876, 0, 0, 3.1744, -54.0592, 3.10941, -173.364, 3.10867, 65.5137, 0.118523, 122.168
0, 2400.00000, 123.954, -30.9853, 126.545, -150.29, 126.575, 88.5874, 0, 0, 3.1744, -54.0592, 3.1094, -173.364, 3.10866, 65.5135, 0.118537, 122.173
0, 2460.00000, 123.954, -30.9853, 126.545, -150.29, 126.575, 88.5873, 0, 0, 3.1744, -54.0592, 3.10939, -173.364, 3.10866, 65.5134, 0.118549, 122.177
0, 2520.00000, 123.954, -30.9853, 126.546, -150.29, 126.575, 88.5872, 0, 0, 3.1744, -54.0592, 3.10938, -173.364, 3.10865, 65.5132, 0.11856, 122.181
0, 2580.00000, 123.954, -30.9853, 126.546, -150.29, 126.575, 88.587, 0, 0, 3.1744, -54.0592, 3.10937, -173.364, 3.10865, 65.5131, 0.11857, 122.185
0, 2640.00000, 123.954, -30.9853, 126.546, -150.29, 126.575, 88.5869, 0, 0, 3.1744, -54.0592, 3.10937, -173.364, 3.10865, 65.513, 0.118579, 122.188
0, 2700.00000, 123.954, -30.9853, 126.546, -150.29, 126.576, 88.5869, 0, 0, 3.1744, -54.0592, 3.10936, -173.364, 3.10864, 65.5129, 0.118587, 122.191
0, 2760.00000, 123.954, -30.9853, 126.547, -150.29, 126.576, 88.5868, 0, 0, 3.1744, -54.0592, 3.10935, -173.364, 3.10864, 65.5129, 0.118594, 122.193
0, 2820.00000, 123.954, -30.9853, 126.547, -150.29, 126.576, 88.5867, 0, 0, 3.1744, -54.0592, 3.10935, -173.364, 3.10864, 65.5128, 0.1186, 122.196
0, 2880.00000, 123.954, -30.9853, 126.547, -150.29, 126.576, 88.5866, 0, 0, 3.1744, -54.0592, 3.10935, -173.364, 3.10864, 65.5127, 0.118606, 122.198
0, 2940.00000, 123.954, -30.9853, 126.547, -150.29, 126.576, 88.5866, 0, 0, 3.1744, -54.0592, 3.10934, -173.364, 3.10864, 65.5127, 0.118611, 122.2
0, 3000.00000, 123.954, -30.9853, 126.547, -150.29, 126.576, 88.5865, 0, 0, 3.1744, -54.0592, 3.10934, -173.364, 3.10863, 65.5126, 0.118616, 122.201
0, 3060.00000, 123.954, -30.9853, 126.547, -150.29, 126.576, 88.5865, 0, 0, 3.1744, -54.0592, 3.10933, -173.364, 3.10863, 65.5126, 0.11862, 122.203
0, 3120.00000, 123.954, -30.9853, 126.548, -150.29, 126.576, 88.5864, 0, 0, 3.1744, -54.0592, 3.10933, -173.364, 3.10863, 65.5125, 0.118624, 122.204
0, 3180.00000, 123.954, -30.9853, 126.548, -150.29, 126.576, 88.5864, 0, 0, 3.1744, -54.0592, 3.10933, -173.364, 3.10863, 65.5125, 0.118628, 122.206
0, 3240.00000, 123.954, -30.9853, 126.548, -150.29, 126.576, 88.5864, 0, 0, 3.1744, -54.0592, 3.10933, -173.364, 3.10863, 65.5124, 0.118631, 122.207
0, 3300.00000, 123.954, -30.9853, 126.548, -150.29, 126.576, 88.5863, 0, 0, 3.1744, -54.0592, 3.10932, -173.364, 3.10863, 65.5124, 0.118633, 122.208
0, 3360.00000, 123.954, -30.9853, 126.548, -150.29, 126.576, 88.5863, 0, 0, 3.1744, -54.0592, 3.10932, -173.364, 3.10863, 65.5124, 0.118636, 122.209
0, 3420.00000, 123.954, -30.9853, 126.548, -150.29, 126.576, 88.5863, 0, 0, 3.1744, -54.0592, 3.10932, -173.364, 3.10863, 65.5124, 0.118638, 122.209
0, 3480.00000, 123.954, -30.9853, 126.548, -150.29, 126.576, 88.5862, 0, 0, 3.1744, -54.0592, 3.10932, -173.364, 3.10863, 65.5123, 0.11864, 122.21
0, 3540.00000, 123.954, -30.9853, 126.548, -150.29, 126.576, 88.5862, 0, 0, 3.1744, -54.0592, 3.10932, -173.364, 3.10862, 65.5123, 0.118642, 122.211
1, 0.00000, 123.954, -30.9853, 126.548, -150.29, 126.576, 88.5862, 0, 0, 3.1744, -54.0592, 3.10932, -173.364, 3.10862, 65.5123, 0.118644, 122.211
1, 60.00000, 123.954, -30.9853, 126.548, -150.29, 126.576, 88.5862, 0, 0, 3.1744, -54.0592, 3.10932, -173.364, 3.10862, 65.5123, 0.118645, 122.212
1, 120.00000, 123.954, -30.9853, 126.548, -150.29, 126.576, 88.5862, 0, 0, 3.1744, -54.0592, 3.10931, -173.364, 3.10862, 65.5123, 0.118646, 122.212
1, 180.00000, 123.954, -30.9853, 126.548, -150.29, 126.576, 88.5862, 0, 0, 3.1744, -54.0592, 3.10931, -173.364, 3.10862, 65.5122, 0.118648, 122.213
1, 240.00000, 123.954, -30.9853, 126.548, -150.29, 126.576, 88.5862, 0, 0, 3.1744, -54.0592, 3.10931, -173.364, 3.10862, 65.5122, 0.118649, 122.213
1, 300.00000, 123.954, -30.9853, 126.548, -150.29, 126.576, 88.5861, 0, 0, 3.1744, -54.0592, 3.10931, -173.364, 3.10862, 65.5122, 0.11865, 122.214
1, 360.00000, 123.954, -30.9853, 126.548, -150.29, 126.576, 88.5861, 0, 0, 3.1744, -54.0592, 3.10931, -173.364, 3.10862, 65.5122, 0.118651, 122.214
1, 420.00000, 123.954, -30.9853, 126.548, -150.29, 126.576, 88.5861, 0, 0, 3.1744, -54.0592, 3.10931, -173.364, 3.10862, 65.5122, 0.118651, 122.214
1, 480.00000, 123.954, -30.9853, 126.548, -150.29, 126.576, 88.5861, 0, 0, 3.1744, -54.0592, 3.10931, -173.364, 3.10862, 65.5122, 0.118652, 122.214
1, 540.00000, 123.954, -30.9853, 126.548, -150.29, 126.576, 88.5861, 0, 0, 3.1744, -54.0592, 3.10931, -173.364, 3.10862, 65.5122, 0.118653, 122.215
1, 600.00000, 123.954, -30.9853, 126.548, -150.29, 126.576, 88.5861, 0, 0, 3.1744, -54.0592, 3.10931, -173.364, 3.10862, 65.5122, 0.118653, 122.215
1, 660.00000, 124.349, -30.9428, 126.547, -150.288, 126.699, 88.7508, 0, 0, 3.16431, -54.0167, 3.10935, -173.362, 3.10561, 65.6769, 0.102867, 118.97
1, 720.00000, 124.349, -30.9428, 126.547, -150.288, 126.699, 88.7508, 0, 0, 3.16431, -54.0167, 3.10935, -173.362, 3.10561, 65.6769, 0.102868, 118.971
1, 780.00000, 125.294, -30.5639, 127.743, -150.466, 126.642, 88.7604, 0, 0, 3.14044, -53.6379, 3.08023, -173.54, 3.10701, 65.6865, 0.0917781, 151.302
1, 840.00000, 125.294, -30.5639, 127.743, -150.466, 126.642, 88.7604, 0, 0, 3.14044, -53.6379, 3.08023, -173.54, 3.10701, 65.6865, 0.0917786, 151.302
1, 900.00000, 125.294, -30.5639, 127.743, -150.466, 126.642, 88.7604, 0, 0, 3.14044, -53.6379, 3.08023, -173.54, 3.10701, 65.6865, 0.091779, 151.302
1, 960.00000, 125.294, -30.5639, 127.743, -150.466, 126.642, 88.7604, 0, 0, 3.14044, -53.6379, 3.08023, -173.54, 3.10701, 65.6865, 0.0917794, 151.302
1, 1020.00000, 125.294, -30.5639, 127.743, -150.466, 126.642, 88.7604, 0, 0, 3.14044, -53.6379, 3.08023, -173.54, 3.10701, 65.6865, 0.0917798, 151.302
1, 1080.00000, 125.294, -30.5639, 127.743, -150.466, 126.642, 88.7604, 0, 0, 3.14044, -53.6379, 3.08023, -173.54, 3.10701, 65.6865, 0.0917801, 151.302
1, 1140.00000, 125.294, -30.5639, 127.743, -150.466, 126.642, 88.7604, 0, 0, 3.14044, -53.6379, 3.08023, -173.54, 3.10701, 65.6865, 0.0917803, 151.302
1, 1200.00000, 125.294, -30.5639, 127.743, -150.466, 126.642, 88.7604, 0, 0, 3.14044, -53.6379, 3.08023, -173.54, 3.10701, 65.6865, 0.0917806, 151.302
1, 1260.00000, 125.294, -30.5639, 127.743, -150.466, 126.642, 88.7604, 0, 0, 3.14044, -53.6379, 3.08023, -173.54, 3.10701, 65.6865, 0.0917808, 151.302
1, 1320.00000, 125.294, -30.5639, 127.743, -150.466, 126.642, 88.7604, 0, 0, 3.14044, -53.6379, 3.08023, -173.54, 3.10701, 65.6865, 0.091781, 151.302
1, 1380.00000, 125.294, -30.5639, 127.743, -150.466, 126.642, 88.7604, 0, 0, 3.14044, -53.6379, 3.08023, -173.54, 3.10701, 65.6865, 0.0917812, 151.302
1, 1440.00000, 125.294, -30.5639, 127.743, -150.466, 126.642, 88.7604, 0, 0, 3.14044, -53.6379, 3.08023, -173.54, 3.10701, 65.6865, 0.0917813, 151.302
1, 1500.00000, 125.294, -30.5639, 127.743, -150.466, 126.642, 88.7604, 0, 0, 3.14044, -53.6379, 3.08023, -173.54, 3.10701, 65.6865, 0.0917815, 151.302
1, 1560.00000, 125.294, -30.5639, 127.743, -150.466, 126.642, 88.7604, 0, 0, 3.14044, -53.6379, 3.08023, -173.54, 3.10701, 65.6865, 0.0917816, 151.302
1, 1620.00000, 125.294, -30.5639, 127.743, -150.466, 126.642, 88.7604, 0, 0, 3.14044, -53.6379, 3.08023, -173.54, 3.10701, 65.6865, 0.0917817, 151.302
1, 1680.00000, 125.294, -30.5639, 127.743, -150.466, 126.642, 88.7604, 0, 0, 3.14044, -53.6379, 3.08023, -173.54, 3.10701, 65.6865, 0.0917819, 151.302
1, 1740.00000, 125.294, -30.5639, 127.743, -150.466, 126.642, 88.7604, 0, 0, 3.14044, -53.6379, 3.08023, -173.54, 3.10701, 65.6865, 0.0917819, 151.302
1, 1800.00000, 125.294, -30.5639, 127.743, -150.466, 126.642, 88.7604, 0, 0, 3.14044, -53.6379, 3.08023, -173.54, 3.10701, 65.6865, 0.091782, 151.302
1, 1860.00000, 125.294, -30.5639, 127.743, -150.466, 126.642, 88.7604, 0, 0, 3.14044, -53.6379, 3.08023, -173.54, 3.10701, 65.6865, 0.0917821, 151.302
1, 1920.00000, 125.294, -30.5639, 127.743, -150.466, 126.642, 88.7604, 0, 0, 3.14044, -53.6379, 3.08023, -173.54, 3.10701, 65.6865, 0.0917822, 151.302
1, 1980.00000, 125.294, -30.5639, 127.743, -150.466, 126.642, 88.7604, 0, 0, 3.14044, -53.6379, 3.08023, -173.54, 3.10701, 65.6865, 0.0917822, 151.302
1, 2040.00000, 125.294, -30.5639, 127.743, -150.466, 126.642, 88.7604, 0, 0, 3.14044, -53.6379, 3.08023, -173.54, 3.10701, 65.6865, 0.0917823, 151.302
1, 2100.00000, 125.294, -30.5639, 127.743, -150.466, 126.642, 88.7604, 0, 0, 3.14044, -53.6379, 3.08023, -173.54, 3.10701, 65.6865, 0.0917823, 151.302
1, 2160.00000, 125.294, -30.5639, 127.743, -150.466, 126.642, 88.7604, 0, 0, 3.14044, -53.6379, 3.08023, -173.54, 3.10701, 65.6865, 0.0917824, 151.302
1, 2220.00000, 125.294, -30.5639, 127.743, -150.466, 126.642, 88.7604, 0, 0, 3.14044, -53.6379, 3.08023, -173.54, 3.10701, 65.6865, 0.0917824, 151.302
1, 2280.00000, 125.294, -30.5639, 127.743, -150.466, 126.642, 88.7604, 0, 0, 3.14044, -53.6379, 3.08023, -173.54, 3.10701, 65.6865, 0.0917825, 151.302
1, 2340.00000, 125.294, -30.5639, 127.743, -150.466, 126.642, 88.7604, 0, 0, 3.14044, -53.6379, 3.08023, -173.54, 3.10701, 65.6865, 0.0917825, 151.303
1, 2400.00000, 125.294, -30.5639, 127.743, -150.466, 126.642, 88.7604, 0, 0, 3.14044, -53.6379, 3.08023, -173.54, 3.10701, 65.6865, 0.0917825, 151.303
1, 2460.00000, 125.294, -30.5639, 127.743, -150.466, 126.642, 88.7604, 0, 0, 3.14044, -53.6379, 3.08023, -173.54, 3.10701, 65.6865, 0.0917826, 151.303
1, 2520.00000, 125.294, -30.5639, 127.743, -150.466, 126.642, 88.7604, 0, 0, 3.14044, -53.6379, 3.08023, -173.54, 3.10701, 65.6865, 0.0917826, 151.303
1, 2580.00000, 125.294, -30.5639, 127.743, -150.466, 126.642, 88.7604, 0, 0, 3.14044, -53.6379, 3.08023, -173.54, 3.10701, 65.6865, 0.0917826, 151.303
1, 2640.00000, 125.294, -30.5639, 127.743, -150.466, 126.642, 88.7604, 0, 0, 3.14044, -53.6379, 3.08023, -173.54, 3.10701, 65.6865, 0.0917826, 151.303
1, 2700.00000, 125.294, -30.5639, 127.743, -150.466, 126.642, 88.7604, 0, 0, 3.14044, -53.6379, 3.08023, -173.54, 3.10701, 65.6865, 0.0917826, 151.303
1, 2760.00000, 125.294, -30.5639, 127.743, -150.466, 126.642, 88.7604, 0, 0, 3.14044, -53.6379, 3.08023, -173.54, 3.10701, 65.6865, 0.0917827, 151.303
1, 2820.00000, 125.294, -30.5639, 127.743, -150.466, 126.642, 88.7604, 0, 0, 3.14044, -53.6379, 3.08023, -173.54, 3.10701, 65.6865, 0.0917827, 151.303
1, 2880.00000, 125.294, -30.5639, 127.743, -150.466, 126.642, 88.7604, 0, 0, 3.14044, -53.6379, 3.08023, -173.54, 3.10701, 65.6865, 0.0917827, 151.303
1, 2940.00000, 125.294, -30.5639, 127.743, -150.466, 126.642, 88.7604, 0, 0, 3.14044, -53.6379, 3.08023, -173.54, 3.10701, 65.6865, 0.0917827, 151.303
1, 3000.00000, 125.294, -30.5639, 127.743, -150.466, 126.642, 88.7604, 0, 0, 3.14044, -53.6379, 3.08023, -173.54, 3.10701, 65.6865, 0.0917827, 151.303
1, 3060.00000, 125.294, -30.5639, 127.743, -150.466, 126.642, 88.7604, 0, 0, 3.14044, -53.6379, 3.08023, -173.54, 3.10701, 65.6865, 0.0917827, 151.303
1, 3120.00000, 125.294, -30.5639, 127.743, -150.466, 126.642, 88.7604, 0, 0, 3.14044, -53.6379, 3.08023, -173.54, 3.10701, 65.6865, 0.0917827, 151.303
1, 3180.00000, 125.294, -30.5639, 127.743, -150.466, 126.642, 88.7604, 0, 0, 3.14044, -53.6379, 3.08023, -173.54, 3.10701, 65.6865, 0.0917827, 151.303
1, 3240.00000, 125.294, -30.5639, 127.743, -150.466, 126.642, 88.7604, 0, 0, 3.14044, -53.6379, 3.08023, -173.54, 3.10701, 65.6865, 0.0917827, 151.303
1, 3300.00000, 125.294, -30.5639, 127.743, -150.466, 126.642, 88.7604, 0, 0, 3.14044, -53.6379, 3.08023, -173.54, 3.10701, 65.6865, 0.0917827, 151.303
1, 3360.00000, 125.294, -30.5639, 127.743, -150.466, 126.642, 88.7604, 0, 0, 3.14044, -53.6379, 3.08023, -173.54, 3.10701, 65.6865, 0.0917828, 151.303
1, 3420.00000, 125.294, -30.5639, 127.743, -150.466, 126.642, 88.7604, 0, 0, 3.14044, -53.6379, 3.08023, -173.54, 3.10701, 65.6865, 0.0917828, 151.303
1, 3480.00000, 125.294, -30.5639, 127.743, -150.466, 126.642, 88.7604, 0, 0, 3.14044, -53.6379, 3.08023, -173.54, 3.10701, 65.6865, 0.0917828, 151.303
1, 3540.00000, 125.294, -30.5639, 127.743, -150.466, 126.642, 88.7604, 0, 0, 3.14044, -53.6379, 3.08023, -173.54, 3.10701, 65.6865, 0.0917828, 151.303
2, 0.00000, 125.294, -30.5639, 127.743, -150.466, 126.642, 88.7604, 0, 0, 3.14044, -53.6379, 3.08023, -173.54, 3.10701, 65.6865, 0.0917828, 151.303
2, 60.00000, 125.294, -30.5639, 127.743, -150.466, 126.642, 88.7604, 0, 0, 3.14044, -53.6379, 3.08023, -173.54, 3.10701, 65.6865, 0.0917828, 151.303
2, 120.00000, 125.286, -30.565, 127.737, -150.467, 126.635, 88.7595, 0, 0, 3.14932, -53.6389, 3.08891, -173.541, 3.11578, 65.6856, 0.0920583, 151.296
2, 180.00000, 125.279, -30.5661, 127.73, -150.468, 126.628, 88.7587, 0, 0, 3.15831, -53.64, 3.09769, -173.542, 3.12466, 65.6848, 0.0923372, 151.29
2, 240.00000, 125.271, -30.5671, 127.723, -150.469, 126.621, 88.7579, 0, 0, 3.16719, -53.641, 3.10638, -173.543, 3.13343, 65.6839, 0.092613, 151.284
2, 300.00000, 125.264, -30.5682, 127.717, -150.47, 126.614, 88.757, 0, 0, 3.17607, -53.6421, 3.11506, -173.544, 3.1422, 65.6831, 0.0928888, 151.278
2, 360.00000, 125.256, -30.5693, 127.71, -150.47, 126.607, 88.7562, 0, 0, 3.18506, -53.6432, 3.12385, -173.544, 3.15108, 65.6822, 0.0931682, 151.272
2, 420.00000, 125.248, -30.5703, 127.704, -150.471, 126.6, 88.7553, 0, 0, 3.19394, -53.6442, 3.13254, -173.545, 3.15985, 65.6814, 0.0934443, 151.266
2, 480.00000, 125.241, -30.5714, 127.697, -150.472, 126.593, 88.7545, 0, 0, 3.20283, -53.6453, 3.14122, -173.546, 3.16862, 65.6806, 0.0937206, 151.26
2, 540.00000, 125.233, -30.5725, 127.69, -150.473, 126.586, 88.7536, 0, 0, 3.21182, -53.6464, 3.15002, -173.547, 3.1775, 65.6797, 0.0940003, 151.253
2, 600.00000, 125.226, -30.5735, 127.684, -150.474, 126.579, 88.7528, 0, 0, 3.22071, -53.6474, 3.1587, -173.548, 3.18628, 65.6789, 0.0942768, 151.247
2, 660.00000, 125.218, -30.5746, 127.677, -150.475, 126.572, 88.7519, 0, 0, 3.22959, -53.6485, 3.16739, -173.549, 3.19506, 65.678, 0.0945535, 151.241
2, 720.00000, 125.211, -30.5757, 127.67, -150.476, 126.565, 88.7511, 0, 0, 3.23859, -53.6496, 3.17619, -173.55, 3.20394, 65.6772, 0.0948336, 151.235
2, 780.00000, 125.203, -30.5767, 127.664, -150.477, 126.558, 88.7503, 0, 0, 3.24748, -53.6506, 3.18488, -173.551, 3.21272, 65.6763, 0.0951106, 151.229
