hour,t(sec),V1,VAngle1,V2,VAngle2,V3,VAngle3,V4,VAngle4,I1,IAngle1,I2,IAngle2,I3,IAngle3,I4,IAngle4
0, 60.00000, 123.666, -33.2131, 124.774, -150.299, 129.272, 87.7989, 0, 0, 2.46099, -56.286, 2.4392, -173.372, 2.35439, 64.7266, 0.206191, 75.4628
0, 120.00000, 123.667, -33.2443, 124.772, -150.297, 129.331, 87.7815, 0, 0, 2.46096, -56.3173, 2.43923, -173.371, 2.35332, 64.709, 0.208424, 75.349
0, 180.00000, 123.669, -33.2724, 124.771, -150.296, 129.383, 87.7658, 0, 0, 2.46094, -56.3455, 2.43926, -173.37, 2.35236, 64.6932, 0.210436, 75.2487
0, 240.00000, 123.67, -33.2978, 124.769, -150.295, 129.43, 87.7517, 0, 0, 2.46092, -56.3709, 2.43928, -173.369, 2.3515, 64.679, 0.212247, 75.1601
0, 300.00000, 123.671, -33.3206, 124.768, -150.294, 129.472, 87.739, 0, 0, 2.4609, -56.3938, 2.4393, -173.368, 2.35073, 64.6662, 0.213877, 75.0818
0, 360.00000, 123.672, -33.3411, 124.767, -150.293, 129.51, 87.7275, 0, 0, 2.46089, -56.4144, 2.43932, -173.367, 2.35003, 64.6546, 0.215345, 75.0125
0, 420.00000, 123.673, -33.3596, 124.766, -150.292, 129.545, 87.7172, 0, 0, 2.46088, -56.433, 2.43934, -173.366, 2.3494, 64.6442, 0.216667, 74.951
0, 480.00000, 123.673, -33.3763, 124.765, -150.291, 129.576, 87.7079, 0, 0, 2.46087, -56.4497, 2.43936, -173.365, 2.34884, 64.6348, 0.217857, 74.8963
0, 540.00000, 123.674, -33.3912, 124.765, -150.291, 129.603, 87.6995, 0, 0, 2.46086, -56.4647, 2.43937, -173.365, 2.34833, 64.6263, 0.218928, 74.8477
0, 600.00000, 123.675, -33.4047, 124.764, -150.29, 129.628, 87.692, 0, 0, 2.46085, -56.4783, 2.43939, -173.364, 2.34788, 64.6187, 0.219892, 74.8044
0, 660.00000, 123.675, -33.4169, 124.763, -150.29, 129.651, 87.6852, 0, 0, 2.46084, -56.4904, 2.4394, -173.363, 2.34747, 64.6118, 0.22076, 74.7657
0, 720.00000, 123.676, -33.4278, 124.763, -150.289, 129.671, 87.679, 0, 0, 2.46083, -56.5014, 2.43941, -173.363, 2.3471, 64.6057, 0.221541, 74.7312
0, 780.00000, 123.676, -33.4377, 124.762, -150.289, 129.689, 87.6735, 0, 0, 2.46083, -56.5113, 2.43942, -173.362, 2.34677, 64.6001, 0.222244, 74.7004
0, 840.00000, 123.676, -33.4465, 124.762, -150.288, 129.706, 87.6685, 0, 0, 2.46082, -56.5202, 2.43943, -173.362, 2.34647, 64.5951, 0.222877, 74.6729
0, 900.00000, 123.677, -33.4545, 124.762, -150.288, 129.72, 87.6641, 0, 0, 2.46082, -56.5282, 2.43943, -173.362, 2.3462, 64.5906, 0.223447, 74.6483
0, 960.00000, 123.677, -33.4617, 124.761, -150.287, 129.734, 87.6601, 0, 0, 2.46082, -56.5354, 2.43944, -173.361, 2.34596, 64.5865, 0.22396, 74.6262
0, 1020.00000, 123.677, -33.4682, 124.761, -150.287, 129.746, 87.6564, 0, 0, 2.46081, -56.5419, 2.43945, -173.361, 2.34574, 64.5828, 0.224421, 74.6064
0, 1080.00000, 123.677, -33.474, 124.761, -150.287, 129.756, 87.6532, 0, 0, 2.46081, -56.5477, 2.43945, -173.361, 2.34554, 64.5796, 0.224837, 74.5887
0, 1140.00000, 123.678, -33.4792, 124.76, -150.287, 129.766, 87.6502, 0, 0, 2.46081, -56.553, 2.43946, -173.361, 2.34537, 64.5766, 0.225211, 74.5729
0, 1200.00000, 123.678, -33.4839, 124.76, -150.286, 129.775, 87.6476, 0, 0, 2.4608, -56.5577, 2.43946, -173.36, 2.34521, 64.5739, 0.225548, 74.5586
0, 1260.00000, 123.678, -33.4882, 124.76, -150.286, 129.783, 87.6452, 0, 0, 2.4608, -56.562, 2.43947, -173.36, 2.34507, 64.5715, 0.22585, 74.5459
0, 1320.00000, 123.678, -33.492, 124.76, -150.286, 129.79, 87.6431, 0, 0, 2.4608, -56.5658, 2.43947, -173.36, 2.34494, 64.5693, 0.226123, 74.5344
0, 1380.00000, 123.678, -33.4954, 124.76, -150.286, 129.796, 87.6411, 0, 0, 2.4608, -56.5692, 2.43947, -173.36, 2.34482, 64.5674, 0.226369, 74.5241
0, 1440.00000, 123.678, -33.4985, 124.759, -150.286, 129.802, 87.6394, 0, 0, 2.4608, -56.5723, 2.43948, -173.36, 2.34472, 64.5656, 0.226589, 74.5149
0, 1500.00000, 123.678, -33.5013, 124.759, -150.286, 129.807, 87.6378, 0, 0, 2.4608, -56.5751, 2.43948, -173.36, 2.34463, 64.5641, 0.226788, 74.5066
0, 1560.00000, 123.678, -33.5038, 124.759, -150.286, 129.812, 87.6364, 0, 0, 2.46079, -56.5776, 2.43948, -173.359, 2.34454, 64.5626, 0.226967, 74.4991
0, 1620.00000, 123.678, -33.5061, 124.759, -150.285, 129.816, 87.6352, 0, 0, 2.46079, -56.5799, 2.43948, -173.359, 2.34447, 64.5614, 0.227128, 74.4924
0, 1680.00000, 123.679, -33.5081, 124.759, -150.285, 129.819, 87.634, 0, 0, 2.46079, -56.582, 2.43949, -173.359, 2.3444, 64.5602, 0.227273, 74.4864
0, 1740.00000, 123.679, -33.5099, 124.759, -150.285, 129.823, 87.633, 0, 0, 2.46079, -56.5838, 2.43949, -173.359, 2.34434, 64.5592, 0.227404, 74.481
0, 1800.00000, 123.679, -33.5116, 124.759, -150.285, 129.826, 87.6321, 0, 0, 2.46079, -56.5854, 2.43949, -173.359, 2.34428, 64.5582, 0.227521, 74.4761
0, 1860.00000, 123.679, -33.513, 124.759, -150.285, 129.829, 87.6312, 0, 0, 2.46079, -56.5869, 2.43949, -173.359, 2.34423, 64.5574, 0.227627, 74.4718
0, 1920.00000, 123.679, -33.5144, 124.759, -150.285, 129.831, 87.6305, 0, 0, 2.46079, -56.5883, 2.43949, -173.359, 2.34419, 64.5566, 0.227722, 74.4678
0, 1980.00000, 123.679, -33.5156, 124.759, -150.285, 129.833, 87.6298, 0, 0, 2.46079, -56.5895, 2.43949, -173.359, 2.34415, 64.556, 0.227807, 74.4643
0, 2040.00000, 123.679, -33.5167, 124.759, -150.285, 129.835, 87.6292, 0, 0, 2.46079, -56.5905, 2.43949, -173.359, 2.34411, 64.5554, 0.227884, 74.4611
0, 2100.00000, 123.679, -33.5176, 124.759, -150.285, 129.837, 87.6287, 0, 0, 2.46079, -56.5915, 2.4395, -173.359, 2.34408, 64.5548, 0.227954, 74.4583
0, 2160.00000, 123.679, -33.5185, 124.758, -150.285, 129.839, 87.6282, 0, 0, 2.46079, -56.5924, 2.4395, -173.359, 2.34405, 64.5543, 0.228016, 74.4557
0, 2220.00000, 123.679, -33.5193, 124.758, -150.285, 129.84, 87.6277, 0, 0, 2.46079, -56.5932, 2.4395, -173.359, 2.34402, 64.5539, 0.228072, 74.4534
0, 2280.00000, 123.679, -33.52, 124.758, -150.285, 129.841, 87.6273, 0, 0, 2.46079, -56.5939, 2.4395, -173.359, 2.344, 64.5535, 0.228123, 74.4513
0, 2340.00000, 123.679, -33.5206, 124.758, -150.285, 129.843, 87.627, 0, 0, 2.46079, -56.5945, 2.4395, -173.359, 2.34398, 64.5531, 0.228168, 74.4494
0, 2400.00000, 123.679, -33.5212, 124.758, -150.285, 129.844, 87.6267, 0, 0, 2.46079, -56.5951, 2.4395, -173.359, 2.34396, 64.5528, 0.228209, 74.4477
0, 2460.00000, 123.679, -33.5217, 124.758, -150.285, 129.845, 87.6264, 0, 0, 2.46079, -56.5956, 2.4395, -173.359, 2.34394, 64.5525, 0.228246, 74.4462
0, 2520.00000, 123.679, -33.5222, 124.758, -150.285, 129.845, 87.6261, 0, 0, 2.46079, -56.5961, 2.4395, -173.359, 2.34392, 64.5522, 0.228279, 74.4449
0, 2580.00000, 123.679, -33.5226, 124.758, -150.285, 129.846, 87.6259, 0, 0, 2.46079, -56.5965, 2.4395, -173.359, 2.34391, 64.552, 0.228309, 74.4436
0, 2640.00000, 123.679, -33.523, 124.758, -150.285, 129.847, 87.6257, 0, 0, 2.46079, -56.5969, 2.4395, -173.359, 2.3439, 64.5518, 0.228336, 74.4425
0, 2700.00000, 123.679, -33.5233, 124.758, -150.285, 129.848, 87.6255, 0, 0, 2.46079, -56.5972, 2.4395, -173.359, 2.34389, 64.5516, 0.22836, 74.4415
0, 2760.00000, 123.679, -33.5236, 124.758, -150.285, 129.848, 87.6253, 0, 0, 2.46079, -56.5975, 2.4395, -173.359, 2.34388, 64.5514, 0.228382, 74.4407
0, 2820.00000, 123.679, -33.5239, 124.758, -150.285, 129.849, 87.6252, 0, 0, 2.46079, -56.5978, 2.4395, -173.359, 2.34387, 64.5512, 0.228402, 74.4398
0, 2880.00000, 123.679, -33.5241, 124.758, -150.285, 129.849, 87.625, 0, 0, 2.46079, -56.5981, 2.4395, -173.359, 2.34386, 64.5511, 0.228419, 74.4391
0, 2940.00000, 123.679, -33.5244, 124.758, -150.285, 129.85, 87.6249, 0, 0, 2.46079, -56.5983, 2.4395, -173.359, 2.34385, 64.551, 0.228435, 74.4385
0, 3000.00000, 123.679, -33.5246, 124.758, -150.285, 129.85, 87.6248, 0, 0, 2.46079, -56.5985, 2.4395, -173.359, 2.34384, 64.5509, 0.228449, 74.4379
0, 3060.00000, 123.679, -33.5247, 124.758, -150.285, 129.85, 87.6247, 0, 0, 2.46079, -56.5987, 2.4395, -173.359, 2.34384, 64.5508, 0.228462, 74.4374
0, 3120.00000, 123.679, -33.5249, 124.758, -150.285, 129.85, 87.6246, 0, 0, 2.46079, -56.5988, 2.4395, -173.359, 2.34383, 64.5507, 0.228474, 74.4369
0, 3180.00000, 123.679, -33.5251, 124.758, -150.285, 129.851, 87.6245, 0, 0, 2.46079, -56.599, 2.4395, -173.359, 2.34383, 64.5506, 0.228484, 74.4365
0, 3240.00000, 123.679, -33.5252, 124.758, -150.285, 129.851, 87.6244, 0, 0, 2.46079, -56.5991, 2.4395, -173.359, 2.34382, 64.5505, 0.228494, 74.4361
0, 3300.00000, 123.679, -33.5253, 124.758, -150.285, 129.851, 87.6244, 0, 0, 2.46079, -56.5992, 2.4395, -173.359, 2.34382, 64.5504, 0.228502, 74.4357
0, 3360.00000, 123.679, -33.5254, 124.758, -150.285, 129.851, 87.6243, 0, 0, 2.46079, -56.5993, 2.4395, -173.359, 2.34382, 64.5504, 0.22851, 74.4354
0, 3420.00000, 123.679, -33.5255, 124.758, -150.285, 129.852, 87.6242, 0, 0, 2.46079, -56.5994, 2.4395, -173.358, 2.34381, 64.5503, 0.228516, 74.4351
0, 3480.00000, 123.679, -33.5256, 124.758, -150.285, 129.852, 87.6242, 0, 0, 2.46079, -56.5995, 2.4395, -173.358, 2.34381, 64.5503, 0.228523, 74.4349
0, 3540.00000, 123.679, -33.5257, 124.758, -150.285, 129.852, 87.6242, 0, 0, 2.46079, -56.5996, 2.4395, -173.358, 2.34381, 64.5502, 0.228528, 74.4347
1, 0.00000, 123.679, -33.5257, 124.758, -150.285, 129.852, 87.6241, 0, 0, 2.46079, -56.5997, 2.4395, -173.358, 2.34381, 64.5502, 0.228533, 74.4345
1, 60.00000, 123.679, -33.5258, 124.758, -150.285, 129.852, 87.6241, 0, 0, 2.46079, -56.5997, 2.4395, -173.358, 2.3438, 64.5502, 0.228538, 74.4343
1, 120.00000, 123.679, -33.5259, 124.758, -150.285, 129.852, 87.624, 0, 0, 2.46079, -56.5998, 2.4395, -173.358, 2.3438, 64.5501, 0.228542, 74.4341
1, 180.00000, 123.679, -33.5259, 124.758, -150.285, 129.852, 87.624, 0, 0, 2.46079, -56.5998, 2.4395, -173.358, 2.3438, 64.5501, 0.228545, 74.434
1, 240.00000, 123.679, -33.526, 124.758, -150.285, 129.852, 87.624, 0, 0, 2.46079, -56.5999, 2.4395, -173.358, 2.3438, 64.5501, 0.228548, 74.4338
1, 300.00000, 123.679, -33.526, 124.758, -150.285, 129.853, 87.624, 0, 0, 2.46079, -56.5999, 2.4395, -173.358, 2.3438, 64.5501, 0.228551, 74.4337
1, 360.00000, 123.679, -33.526, 124.758, -150.285, 129.853, 87.6239, 0, 0, 2.46079, -56.6, 2.4395, -173.358, 2.3438, 64.55, 0.228554, 74.4336
1, 420.00000, 123.679, -33.5261, 124.758, -150.285, 129.853, 87.6239, 0, 0, 2.46079, -56.6, 2.4395, -173.358, 2.34379, 64.55, 0.228556, 74.4335
1, 480.00000, 123.679, -33.5261, 124.758, -150.285, 129.853, 87.6239, 0, 0, 2.46079, -56.6, 2.4395, -173.358, 2.34379, 64.55, 0.228559, 74.4334
1, 540.00000, 123.679, -33.5261, 124.758, -150.285, 129.853, 87.6239, 0, 0, 2.46078, -56.6, 2.4395, -173.358, 2.34379, 64.55, 0.22856, 74.4333
1, 600.00000, 123.679, -33.5261, 124.758, -150.285, 129.853, 87.6239, 0, 0, 2.46078, -56.6001, 2.4395, -173.358, 2.34379, 64.55, 0.228562, 74.4333
1, 660.00000, 123.679, -33.5262, 124.758, -150.285, 129.853, 87.6239, 0, 0, 2.46078, -56.6001, 2.4395, -173.358, 2.34379, 64.55, 0.228564, 74.4332
1, 720.00000, 123.679, -33.5262, 124.758, -150.285, 129.853, 87.6239, 0, 0, 2.46078, -56.6001, 2.4395, -173.358, 2.34379, 64.5499, 0.228565, 74.4331
1, 780.00000, 123.679, -33.5262, 124.758, -150.285, 129.853, 87.6239, 0, 0, 2.46078, -56.6001, 2.4395, -173.358, 2.34379, 64.5499, 0.228566, 74.4331
1, 840.00000, 123.679, -33.5262, 124.758, -150.285, 129.853, 87.6238, 0, 0, 2.46078, -56.6001, 2.4395, -173.358, 2.34379, 64.5499, 0.228568, 74.433
1, 900.00000, 123.679, -33.5262, 124.758, -150.285, 129.853, 87.6238, 0, 0, 2.46078, -56.6002, 2.4395, -173.358, 2.34379, 64.5499, 0.228569, 74.433
1, 960.00000, 123.679, -33.5263, 124.758, -150.285, 129.853, 87.6238, 0, 0, 2.46078, -56.6002, 2.4395, -173.358, 2.34379, 64.5499, 0.22857, 74.433
1, 1020.00000, 123.679, -33.5263, 124.758, -150.285, 129.853, 87.6238, 0, 0, 2.46078, -56.6002, 2.4395, -173.358, 2.34379, 64.5499, 0.22857, 74.4329
1, 1080.00000, 123.679, -33.5263, 124.758, -150.285, 129.853, 87.6238, 0, 0, 2.46078, -56.6002, 2.4395, -173.358, 2.34379, 64.5499, 0.228571, 74.4329
1, 1140.00000, 123.679, -33.5263, 124.758, -150.285, 129.853, 87.6238, 0, 0, 2.46078, -56.6002, 2.4395, -173.358, 2.34379, 64.5499, 0.228572, 74.4329
1, 1200.00000, 123.679, -33.5263, 124.758, -150.285, 129.853, 87.6238, 0, 0, 2.46078, -56.6002, 2.4395, -173.358, 2.34379, 64.5499, 0.228572, 74.4328
1, 1260.00000, 123.679, -33.5263, 124.758, -150.285, 129.853, 87.6238, 0, 0, 2.46078, -56.6002, 2.4395, -173.358, 2.34379, 64.5499, 0.228573, 74.4328
1, 1320.00000, 123.679, -33.5263, 124.758, -150.285, 129.853, 87.6238, 0, 0, 2.46078, -56.6002, 2.4395, -173.358, 2.34379, 64.5499, 0.228573, 74.4328
1, 1380.00000, 123.679, -33.5263, 124.758, -150.285, 129.853, 87.6238, 0, 0, 2.46078, -56.6002, 2.4395, -173.358, 2.34379, 64.5499, 0.228574, 74.4328
1, 1440.00000, 123.679, -33.5263, 124.758, -150.285, 129.853, 87.6238, 0, 0, 2.46078, -56.6002, 2.4395, -173.358, 2.34379, 64.5499, 0.228574, 74.4328
1, 1500.00000, 123.679, -33.5263, 124.758, -150.285, 129.853, 87.6238, 0, 0, 2.46078, -56.6002, 2.4395, -173.358, 2.34379, 64.5499, 0.228575, 74.4328
1, 1560.00000, 123.679, -33.5263, 124.758, -150.285, 129.853, 87.6238, 0, 0, 2.46078, -56.6002, 2.4395, -173.358, 2.34379, 64.5499, 0.228575, 74.4327
1, 1620.00000, 123.679, -33.5263, 124.758, -150.285, 129.853, 87.6238, 0, 0, 2.46078, -56.6003, 2.4395, -173.358, 2.34379, 64.5499, 0.228575, 74.4327
1, 1680.00000, 123.679, -33.5263, 124.758, -150.285, 129.853, 87.6238, 0, 0, 2.46078, -56.6003, 2.4395, -173.358, 2.34379, 64.5499, 0.228576, 74.4327
1, 1740.00000, 123.679, -33.5263, 124.758, -150.285, 129.853, 87.6238, 0, 0, 2.46078, -56.6003, 2.4395, -173.358, 2.34379, 64.5499, 0.228576, 74.4327
1, 1800.00000, 123.679, -33.5263, 124.758, -150.285, 129.853, 87.6238, 0, 0, 2.46078, -56.6003, 2.4395, -173.358, 2.34378, 64.5499, 0.228576, 74.4327
1, 1860.00000, 123.679, -33.5263, 124.758, -150.285, 129.853, 87.6238, 0, 0, 2.46078, -56.6003, 2.4395, -173.358, 2.34378, 64.5499, 0.228576, 74.4327
1, 1920.00000, 123.679, -33.5263, 124.758, -150.285, 129.853, 87.6238, 0, 0, 2.46078, -56.6003, 2.4395, -173.358, 2.34378, 64.5499, 0.228576, 74.4327
1, 1980.00000, 123.679, -33.5264, 124.758, -150.285, 129.853, 87.6238, 0, 0, 2.46078, -56.6003, 2.4395, -173.358, 2.34378, 64.5499, 0.228576, 74.4327
1, 2040.00000, 123.679, -33.5264, 124.758, -150.285, 129.853, 87.6238, 0, 0, 2.46078, -56.6003, 2.4395, -173.358, 2.34378, 64.5499, 0.228577, 74.4327
1, 2100.00000, 123.679, -33.5264, 124.758, -150.285, 129.853, 87.6238, 0, 0, 2.46078, -56.6003, 2.4395, -173.358, 2.34378, 64.5499, 0.228577, 74.4327
1, 2160.00000, 123.679, -33.5264, 124.758, -150.285, 129.853, 87.6238, 0, 0, 2.46078, -56.6003, 2.4395, -173.358, 2.34378, 64.5499, 0.228577, 74.4327
1, 2220.00000, 123.679, -33.5264, 124.758, -150.285, 129.853, 87.6238, 0, 0, 2.46078, -56.6003, 2.4395, -173.358, 2.34378, 64.5499, 0.228577, 74.4327
1, 2280.00000, 123.679, -33.5264, 124.758, -150.285, 129.853, 87.6238, 0, 0, 2.46078, -56.6003, 2.4395, -173.358, 2.34378, 64.5499, 0.228577, 74.4327
1, 2340.00000, 123.679, -33.5264, 124.758, -150.285, 129.853, 87.6238, 0, 0, 2.46078, -56.6003, 2.4395, -173.358, 2.34378, 64.5499, 0.228577, 74.4327
1, 2400.00000, 123.679, -33.5264, 124.758, -150.285, 129.853, 87.6238, 0, 0, 2.46078, -56.6003, 2.4395, -173.358, 2.34378, 64.5499, 0.228577, 74.4326
1, 2460.00000, 123.679, -33.5264, 124.758, -150.285, 129.853, 87.6238, 0, 0, 2.46078, -56.6003, 2.4395, -173.358, 2.34378, 64.5499, 0.228577, 74.4326
1, 2520.00000, 123.679, -33.5264, 124.758, -150.285, 129.853, 87.6238, 0, 0, 2.46078, -56.6003, 2.4395, -173.358, 2.34378, 64.5499, 0.228577, 74.4326
1, 2580.00000, 123.679, -33.5264, 124.758, -150.285, 129.853, 87.6238, 0, 0, 2.46078, -56.6003, 2.4395, -173.358, 2.34378, 64.5499, 0.228577, 74.4326
1, 2640.00000, 123.679, -33.5264, 124.758, -150.285, 129.853, 87.6238, 0, 0, 2.46078, -56.6003, 2.4395, -173.358, 2.34378, 64.5499, 0.228577, 74.4326
1, 2700.00000, 123.679, -33.5264, 124.758, -150.285, 129.853, 87.6238, 0, 0, 2.46078, -56.6003, 2.4395, -173.358, 2.34378, 64.5499, 0.228577, 74.4326
1, 2760.00000, 124.952, -33.6709, 124.665, -150.291, 130.926, 87.9429, 0, 0, 2.43572, -56.7448, 2.44132, -173.365, 2.32459, 64.869, 0.237447, 64.5438
1, 2820.00000, 124.952, -33.6709, 124.665, -150.291, 130.926, 87.9429, 0, 0, 2.43572, -56.7448, 2.44132, -173.365, 2.32459, 64.8689, 0.237448, 64.5442
1, 2880.00000, 124.952, -33.6709, 124.665, -150.291, 130.926, 87.9429, 0, 0, 2.43572, -56.7448, 2.44132, -173.365, 2.32459, 64.8689, 0.237448, 64.5442
1, 2940.00000, 124.952, -33.6709, 124.665, -150.291, 130.926, 87.9429, 0, 0, 2.43572, -56.7448, 2.44132, -173.365, 2.32459, 64.8689, 0.237448, 64.5442
1, 3000.00000, 124.952, -33.6709, 124.665, -150.291, 130.926, 87.9429, 0, 0, 2.43572, -56.7448, 2.44132, -173.365, 2.32459, 64.8689, 0.237448, 64.5442
1, 3060.00000, 124.952, -33.6709, 124.665, -150.291, 130.926, 87.9429, 0, 0, 2.43572, -56.7448, 2.44132, -173.365, 2.32459, 64.8689, 0.237448, 64.5442
1, 3120.00000, 124.952, -33.6709, 124.665, -150.291, 130.926, 87.9429, 0, 0, 2.43572, -56.7448, 2.44132, -173.365, 2.32459, 64.8689, 0.237448, 64.5442
1, 3180.00000, 124.952, -33.6709, 124.665, -150.291, 130.926, 87.9429, 0, 0, 2.43572, -56.7448, 2.44132, -173.365, 2.32459, 64.8689, 0.237448, 64.5442
1, 3240.00000, 124.952, -33.6709, 124.665, -150.291, 130.926, 87.9429, 0, 0, 2.43572, -56.7448, 2.44132, -173.365, 2.32459, 64.8689, 0.237448, 64.5442
1, 3300.00000, 124.952, -33.6709, 124.665, -150.291, 130.926, 87.9429, 0, 0, 2.43572, -56.7448, 2.44132, -173.365, 2.32459, 64.8689, 0.237448, 64.5442
1, 3360.00000, 124.952, -33.6709, 124.665, -150.291, 130.926, 87.9429, 0, 0, 2.43572, -56.7448, 2.44132, -173.365, 2.32459, 64.8689, 0.237448, 64.5442
1, 3420.00000, 124.952, -33.6709, 124.665, -150.291, 130.926, 87.9429, 0, 0, 2.43572, -56.7448, 2.44132, -173.365, 2.32459, 64.8689, 0.237448, 64.5442
1, 3480.00000, 124.952, -33.6709, 124.665, -150.291, 130.926, 87.9429, 0, 0, 2.43572, -56.7448, 2.44132, -173.365, 2.32459, 64.8689, 0.237448, 64.5442
1, 3540.00000, 124.952, -33.6709, 124.665, -150.291, 130.926, 87.9429, 0, 0, 2.43572, -56.7448, 2.44132, -173.365, 2.32459, 64.8689, 0.237448, 64.5442
2, 0.00000, 124.952, -33.6709, 124.665, -150.291, 130.926, 87.9429, 0, 0, 2.43572, -56.7448, 2.44132, -173.365, 2.32459, 64.8689, 0.237448, 64.5442
2, 60.00000, 124.952, -33.6709, 124.665, -150.291, 130.926, 87.9429, 0, 0, 2.43572, -56.7448, 2.44132, -173.365, 2.32459, 64.8689, 0.237448, 64.5442
2, 120.00000, 124.943, -33.6717, 124.658, -150.292, 130.918, 87.9422, 0, 0, 2.44264, -56.7456, 2.44822, -173.366, 2.33116, 64.8682, 0.238132, 64.5465
2, 180.00000, 124.934, -33.6725, 124.65, -150.293, 130.91, 87.9415, 0, 0, 2.44964, -56.7464, 2.45521, -173.367, 2.33781, 64.8675, 0.238824, 64.5487
2, 240.00000, 124.925, -33.6733, 124.642, -150.294, 130.902, 87.9408, 0, 0, 2.45656, -56.7472, 2.46212, -173.368, 2.34438, 64.8668, 0.239508, 64.551
2, 300.00000, 124.916, -33.6741, 124.634, -150.295, 130.894, 87.9401, 0, 0, 2.46347, -56.748, 2.46903, -173.369, 2.35095, 64.8661, 0.240192, 64.5532
2, 360.00000, 124.906, -33.6749, 124.627, -150.296, 130.886, 87.9394, 0, 0, 2.47048, -56.7489, 2.47602, -173.37, 2.3576, 64.8654, 0.240885, 64.5555
2, 420.00000, 124.897, -33.6757, 124.619, -150.297, 130.879, 87.9387, 0, 0, 2.4774, -56.7497, 2.48293, -173.371, 2.36418, 64.8647, 0.241569, 64.5577
2, 480.00000, 124.888, -33.6766, 124.611, -150.298, 130.871, 87.938, 0, 0, 2.48432, -56.7505, 2.48984, -173.372, 2.37075, 64.864, 0.242254, 64.56
2, 540.00000, 124.879, -33.6774, 124.603, -150.299, 130.863, 87.9373, 0, 0, 2.49133, -56.7513, 2.49684, -173.373, 2.37741, 64.8633, 0.242947, 64.5622
2, 600.00000, 124.87, -33.6782, 124.596, -150.3, 130.855, 87.9366, 0, 0, 2.49825, -56.7521, 2.50375, -173.374, 2.38398, 64.8626, 0.243632, 64.5645
2, 660.00000, 124.861, -33.679, 124.588, -150.301, 130.847, 87.9359, 0, 0, 2.50518, -56.7529, 2.51067, -173.375, 2.39056, 64.8619, 0.244317, 64.5667
2, 720.00000, 124.852, -33.6798, 124.58, -150.302, 130.84, 87.9352, 0, 0, 2.51218, -56.7537, 2.51766, -173.376, 2.39722, 64.8612, 0.245011, 64.569
2, 780.00000, 124.843, -33.6806, 124.572, -150.303, 130.832, 87.9344, 0, 0, 2.51911, -56.7545, 2.52458, -173.377, 2.4038, 64.8605, 0.245697, 64.5712
