hour,t(sec),V1,VAngle1,V2,VAngle2,V3,VAngle3,V4,VAngle4,I1,IAngle1,I2,IAngle2,I3,IAngle3,I4,IAngle4
0, 60.00000, 122.948, -33.0012, 125.528, -150.323, 128.563, 87.3781, 0, 0, 2.54169, -56.0741, 2.48949, -173.397, 2.43079, 64.3054, 0.204821, 89.8653
0, 120.00000, 122.95, -33.0322, 125.526, -150.322, 128.62, 87.3612, 0, 0, 2.54165, -56.1051, 2.48952, -173.396, 2.42971, 64.2885, 0.206918, 89.586
0, 180.00000, 122.951, -33.06, 125.525, -150.321, 128.671, 87.3461, 0, 0, 2.54161, -56.1331, 2.48955, -173.394, 2.42873, 64.2732, 0.20881, 89.3394
0, 240.00000, 122.953, -33.0851, 125.523, -150.319, 128.718, 87.3324, 0, 0, 2.54158, -56.1582, 2.48958, -173.393, 2.42785, 64.2594, 0.210517, 89.1215
0, 300.00000, 122.954, -33.1077, 125.522, -150.318, 128.759, 87.3201, 0, 0, 2.54156, -56.1809, 2.4896, -173.392, 2.42706, 64.247, 0.212056, 88.9284
0, 360.00000, 122.956, -33.128, 125.521, -150.317, 128.797, 87.309, 0, 0, 2.54153, -56.2013, 2.48962, -173.391, 2.42635, 64.2358, 0.213443, 88.7571
0, 420.00000, 122.957, -33.1464, 125.52, -150.316, 128.83, 87.299, 0, 0, 2.54151, -56.2197, 2.48964, -173.39, 2.42571, 64.2258, 0.214693, 88.605
0, 480.00000, 122.958, -33.1628, 125.519, -150.316, 128.861, 87.2899, 0, 0, 2.5415, -56.2362, 2.48966, -173.39, 2.42513, 64.2167, 0.21582, 88.4696
0, 540.00000, 122.959, -33.1777, 125.518, -150.315, 128.888, 87.2818, 0, 0, 2.54148, -56.2511, 2.48967, -173.389, 2.42461, 64.2085, 0.216835, 88.349
0, 600.00000, 122.959, -33.1911, 125.518, -150.314, 128.913, 87.2745, 0, 0, 2.54147, -56.2645, 2.48969, -173.388, 2.42415, 64.2011, 0.21775, 88.2415
0, 660.00000, 122.96, -33.2031, 125.517, -150.314, 128.935, 87.2679, 0, 0, 2.54145, -56.2766, 2.4897, -173.388, 2.42373, 64.1945, 0.218574, 88.1455
0, 720.00000, 122.961, -33.2139, 125.517, -150.313, 128.955, 87.262, 0, 0, 2.54144, -56.2875, 2.48971, -173.387, 2.42335, 64.1885, 0.219316, 88.0598
0, 780.00000, 122.961, -33.2237, 125.516, -150.313, 128.973, 87.2567, 0, 0, 2.54143, -56.2973, 2.48972, -173.387, 2.42301, 64.1831, 0.219984, 87.9832
0, 840.00000, 122.962, -33.2324, 125.516, -150.312, 128.989, 87.2519, 0, 0, 2.54143, -56.3061, 2.48973, -173.386, 2.42271, 64.1783, 0.220586, 87.9146
0, 900.00000, 122.962, -33.2403, 125.515, -150.312, 129.003, 87.2475, 0, 0, 2.54142, -56.314, 2.48974, -173.386, 2.42243, 64.1739, 0.221128, 87.8532
0, 960.00000, 121.624, -33.0798, 125.61, -150.305, 127.877, 86.8932, 0, 0, 2.56938, -56.1536, 2.48787, -173.379, 2.44377, 63.8195, 0.230905, 99.4685
0, 1020.00000, 121.625, -33.0861, 125.609, -150.305, 127.889, 86.8898, 0, 0, 2.56937, -56.1599, 2.48787, -173.379, 2.44354, 63.816, 0.231294, 99.3989
0, 1080.00000, 121.625, -33.0918, 125.609, -150.304, 127.899, 86.8867, 0, 0, 2.56937, -56.1656, 2.48788, -173.378, 2.44334, 63.813, 0.231645, 99.3364
0, 1140.00000, 121.625, -33.097, 125.609, -150.304, 127.909, 86.8839, 0, 0, 2.56936, -56.1708, 2.48788, -173.378, 2.44316, 63.8102, 0.231962, 99.2802
0, 1200.00000, 121.625, -33.1016, 125.608, -150.304, 127.917, 86.8815, 0, 0, 2.56936, -56.1754, 2.48789, -173.378, 2.443, 63.8077, 0.232247, 99.2298
0, 1260.00000, 121.626, -33.1058, 125.608, -150.304, 127.925, 86.8792, 0, 0, 2.56935, -56.1796, 2.48789, -173.378, 2.44285, 63.8054, 0.232503, 99.1846
0, 1320.00000, 121.626, -33.1095, 125.608, -150.304, 127.932, 86.8772, 0, 0, 2.56935, -56.1833, 2.4879, -173.378, 2.44272, 63.8034, 0.232734, 99.144
0, 1380.00000, 121.626, -33.1129, 125.608, -150.303, 127.938, 86.8754, 0, 0, 2.56934, -56.1867, 2.4879, -173.377, 2.4426, 63.8016, 0.232942, 99.1075
0, 1440.00000, 121.626, -33.1159, 125.608, -150.303, 127.943, 86.8738, 0, 0, 2.56934, -56.1897, 2.4879, -173.377, 2.44249, 63.8, 0.23313, 99.0747
0, 1500.00000, 121.627, -33.1186, 125.608, -150.303, 127.948, 86.8723, 0, 0, 2.56934, -56.1925, 2.48791, -173.377, 2.4424, 63.7985, 0.233298, 99.0452
0, 1560.00000, 121.627, -33.1211, 125.607, -150.303, 127.953, 86.871, 0, 0, 2.56933, -56.1949, 2.48791, -173.377, 2.44231, 63.7972, 0.23345, 99.0187
0, 1620.00000, 121.627, -33.1233, 125.607, -150.303, 127.957, 86.8698, 0, 0, 2.56933, -56.1972, 2.48791, -173.377, 2.44223, 63.796, 0.233587, 98.9949
0, 1680.00000, 121.627, -33.1253, 125.607, -150.303, 127.961, 86.8687, 0, 0, 2.56933, -56.1992, 2.48791, -173.377, 2.44216, 63.7949, 0.23371, 98.9735
0, 1740.00000, 121.627, -33.1271, 125.607, -150.303, 127.964, 86.8678, 0, 0, 2.56933, -56.2009, 2.48792, -173.377, 2.4421, 63.7939, 0.233821, 98.9543
0, 1800.00000, 121.627, -33.1287, 125.607, -150.303, 127.967, 86.8669, 0, 0, 2.56933, -56.2026, 2.48792, -173.377, 2.44204, 63.793, 0.233921, 98.937
0, 1860.00000, 121.627, -33.1301, 125.607, -150.303, 127.969, 86.8661, 0, 0, 2.56932, -56.204, 2.48792, -173.377, 2.44199, 63.7923, 0.234011, 98.9215
0, 1920.00000, 121.627, -33.1314, 125.607, -150.303, 127.972, 86.8654, 0, 0, 2.56932, -56.2053, 2.48792, -173.377, 2.44195, 63.7916, 0.234092, 98.9075
0, 1980.00000, 121.627, -33.1326, 125.607, -150.303, 127.974, 86.8648, 0, 0, 2.56932, -56.2065, 2.48792, -173.377, 2.44191, 63.7909, 0.234164, 98.8949
0, 2040.00000, 121.627, -33.1337, 125.607, -150.303, 127.976, 86.8642, 0, 0, 2.56932, -56.2076, 2.48792, -173.376, 2.44187, 63.7903, 0.23423, 98.8836
0, 2100.00000, 121.627, -33.1346, 125.607, -150.303, 127.978, 86.8637, 0, 0, 2.56932, -56.2085, 2.48792, -173.376, 2.44183, 63.7898, 0.234289, 98.8734
0, 2160.00000, 121.628, -33.1355, 125.607, -150.302, 127.979, 86.8633, 0, 0, 2.56932, -56.2094, 2.48792, -173.376, 2.4418, 63.7894, 0.234342, 98.8642
0, 2220.00000, 121.628, -33.1363, 125.607, -150.302, 127.981, 86.8628, 0, 0, 2.56932, -56.2102, 2.48793, -173.376, 2.44178, 63.789, 0.23439, 98.856
0, 2280.00000, 121.628, -33.137, 125.607, -150.302, 127.982, 86.8625, 0, 0, 2.56932, -56.2108, 2.48793, -173.376, 2.44175, 63.7886, 0.234433, 98.8486
0, 2340.00000, 121.628, -33.1376, 125.607, -150.302, 127.983, 86.8621, 0, 0, 2.56932, -56.2115, 2.48793, -173.376, 2.44173, 63.7882, 0.234471, 98.8419
0, 2400.00000, 121.628, -33.1381, 125.607, -150.302, 127.984, 86.8618, 0, 0, 2.56932, -56.212, 2.48793, -173.376, 2.44171, 63.7879, 0.234506, 98.8359
0, 2460.00000, 121.628, -33.1386, 125.607, -150.302, 127.985, 86.8616, 0, 0, 2.56932, -56.2125, 2.48793, -173.376, 2.44169, 63.7877, 0.234538, 98.8305
0, 2520.00000, 121.628, -33.1391, 125.607, -150.302, 127.986, 86.8613, 0, 0, 2.56932, -56.213, 2.48793, -173.376, 2.44168, 63.7874, 0.234566, 98.8257
0, 2580.00000, 121.628, -33.1395, 125.607, -150.302, 127.987, 86.8611, 0, 0, 2.56931, -56.2134, 2.48793, -173.376, 2.44166, 63.7872, 0.234591, 98.8213
0, 2640.00000, 121.628, -33.1399, 125.606, -150.302, 127.987, 86.8609, 0, 0, 2.56931, -56.2138, 2.48793, -173.376, 2.44165, 63.787, 0.234614, 98.8174
0, 2700.00000, 121.628, -33.1402, 125.606, -150.302, 127.988, 86.8607, 0, 0, 2.56931, -56.2141, 2.48793, -173.376, 2.44164, 63.7868, 0.234635, 98.8138
0, 2760.00000, 121.628, -33.1405, 125.606, -150.302, 127.988, 86.8606, 0, 0, 2.56931, -56.2144, 2.48793, -173.376, 2.44163, 63.7867, 0.234653, 98.8106
0, 2820.00000, 121.628, -33.1408, 125.606, -150.302, 127.989, 86.8604, 0, 0, 2.56931, -56.2147, 2.48793, -173.376, 2.44162, 63.7865, 0.23467, 98.8078
0, 2880.00000, 121.628, -33.141, 125.606, -150.302, 127.989, 86.8603, 0, 0, 2.56931, -56.2149, 2.48793, -173.376, 2.44161, 63.7864, 0.234685, 98.8052
0, 2940.00000, 121.628, -33.1412, 125.606, -150.302, 127.99, 86.8602, 0, 0, 2.56931, -56.2151, 2.48793, -173.376, 2.4416, 63.7863, 0.234698, 98.8029
0, 3000.00000, 121.628, -33.1414, 125.606, -150.302, 127.99, 86.8601, 0, 0, 2.56931, -56.2153, 2.48793, -173.376, 2.44159, 63.7861, 0.23471, 98.8008
0, 3060.00000, 121.628, -33.1416, 125.606, -150.302, 127.99, 86.86, 0, 0, 2.56931, -56.2155, 2.48793, -173.376, 2.44159, 63.7861, 0.234721, 98.7989
0, 3120.00000, 121.628, -33.1418, 125.606, -150.302, 127.991, 86.8599, 0, 0, 2.56931, -56.2157, 2.48793, -173.376, 2.44158, 63.786, 0.234731, 98.7972
0, 3180.00000, 121.628, -33.1419, 125.606, -150.302, 127.991, 86.8598, 0, 0, 2.56931, -56.2158, 2.48793, -173.376, 2.44158, 63.7859, 0.23474, 98.7957
0, 3240.00000, 121.628, -33.142, 125.606, -150.302, 127.991, 86.8597, 0, 0, 2.56931, -56.216, 2.48793, -173.376, 2.44157, 63.7858, 0.234748, 98.7943
0, 3300.00000, 121.628, -33.1422, 125.606, -150.302, 127.991, 86.8597, 0, 0, 2.56931, -56.2161, 2.48793, -173.376, 2.44157, 63.7858, 0.234755, 98.7931
0, 3360.00000, 121.628, -33.1423, 125.606, -150.302, 127.992, 86.8596, 0, 0, 2.56931, -56.2162, 2.48793, -173.376, 2.44157, 63.7857, 0.234762, 98.792
0, 3420.00000, 121.628, -33.1424, 125.606, -150.302, 127.992, 86.8596, 0, 0, 2.56931, -56.2163, 2.48793, -173.376, 2.44156, 63.7857, 0.234768, 98.791
0, 3480.00000, 121.628, -33.1424, 125.606, -150.302, 127.992, 86.8595, 0, 0, 2.56931, -56.2164, 2.48793, -173.376, 2.44156, 63.7856, 0.234773, 98.7901
0, 3540.00000, 121.628, -33.1425, 125.606, -150.302, 127.992, 86.8595, 0, 0, 2.56931, -56.2164, 2.48793, -173.376, 2.44156, 63.7856, 0.234777, 98.7893
1, 0.00000, 121.628, -33.1426, 125.606, -150.302, 127.992, 86.8594, 0, 0, 2.56931, -56.2165, 2.48793, -173.376, 2.44155, 63.7855, 0.234782, 98.7886
1, 60.00000, 121.628, -33.1426, 125.606, -150.302, 127.992, 86.8594, 0, 0, 2.56931, -56.2166, 2.48793, -173.376, 2.44155, 63.7855, 0.234786, 98.7879
1, 120.00000, 121.628, -33.1427, 125.606, -150.302, 127.992, 86.8594, 0, 0, 2.56931, -56.2166, 2.48793, -173.376, 2.44155, 63.7855, 0.234789, 98.7873
1, 180.00000, 121.628, -33.1427, 125.606, -150.302, 127.993, 86.8594, 0, 0, 2.56931, -56.2167, 2.48793, -173.376, 2.44155, 63.7854, 0.234792, 98.7868
1, 240.00000, 121.628, -33.1428, 125.606, -150.302, 127.993, 86.8593, 0, 0, 2.56931, -56.2167, 2.48793, -173.376, 2.44155, 63.7854, 0.234795, 98.7863
1, 300.00000, 121.628, -33.1428, 125.606, -150.302, 127.993, 86.8593, 0, 0, 2.56931, -56.2168, 2.48793, -173.376, 2.44155, 63.7854, 0.234797, 98.7859
1, 360.00000, 121.628, -33.1429, 125.606, -150.302, 127.993, 86.8593, 0, 0, 2.56931, -56.2168, 2.48793, -173.376, 2.44154, 63.7854, 0.2348, 98.7855
1, 420.00000, 121.628, -33.1429, 125.606, -150.302, 127.993, 86.8593, 0, 0, 2.56931, -56.2168, 2.48793, -173.376, 2.44154, 63.7854, 0.234802, 98.7851
1, 480.00000, 121.628, -33.1429, 125.606, -150.302, 127.993, 86.8593, 0, 0, 2.56931, -56.2169, 2.48793, -173.376, 2.44154, 63.7853, 0.234803, 98.7848
1, 540.00000, 121.628, -33.143, 125.606, -150.302, 127.993, 86.8592, 0, 0, 2.56931, -56.2169, 2.48793, -173.376, 2.44154, 63.7853, 0.234805, 98.7846
1, 600.00000, 121.628, -33.143, 125.606, -150.302, 127.993, 86.8592, 0, 0, 2.56931, -56.2169, 2.48793, -173.376, 2.44154, 63.7853, 0.234807, 98.7843
1, 660.00000, 121.628, -33.143, 125.606, -150.302, 127.993, 86.8592, 0, 0, 2.56931, -56.2169, 2.48793, -173.376, 2.44154, 63.7853, 0.234808, 98.7841
1, 720.00000, 121.628, -33.143, 125.606, -150.302, 127.993, 86.8592, 0, 0, 2.56931, -56.2169, 2.48793, -173.376, 2.44154, 63.7853, 0.234809, 98.7839
1, 780.00000, 121.628, -33.143, 125.606, -150.302, 127.993, 86.8592, 0, 0, 2.56931, -56.217, 2.48793, -173.376, 2.44154, 63.7853, 0.23481, 98.7837
1, 840.00000, 121.628, -33.1431, 125.606, -150.302, 127.993, 86.8592, 0, 0, 2.56931, -56.217, 2.48793, -173.376, 2.44154, 63.7853, 0.234811, 98.7835
1, 900.00000, 121.628, -33.1431, 125.606, -150.302, 127.993, 86.8592, 0, 0, 2.56931, -56.217, 2.48793, -173.376, 2.44154, 63.7853, 0.234812, 98.7834
1, 960.00000, 121.628, -33.1431, 125.606, -150.302, 127.993, 86.8592, 0, 0, 2.56931, -56.217, 2.48793, -173.376, 2.44154, 63.7853, 0.234813, 98.7832
1, 1020.00000, 121.628, -33.1431, 125.606, -150.302, 127.993, 86.8592, 0, 0, 2.56931, -56.217, 2.48793, -173.376, 2.44154, 63.7853, 0.234813, 98.7831
1, 1080.00000, 121.628, -33.1431, 125.606, -150.302, 127.993, 86.8592, 0, 0, 2.56931, -56.217, 2.48793, -173.376, 2.44154, 63.7852, 0.234814, 98.783
1, 1140.00000, 121.628, -33.1431, 125.606, -150.302, 127.993, 86.8592, 0, 0, 2.56931, -56.217, 2.48793, -173.376, 2.44154, 63.7852, 0.234815, 98.7829
1, 1200.00000, 121.628, -33.1431, 125.606, -150.302, 127.993, 86.8592, 0, 0, 2.56931, -56.217, 2.48793, -173.376, 2.44154, 63.7852, 0.234815, 98.7828
1, 1260.00000, 121.628, -33.1431, 125.606, -150.302, 127.993, 86.8591, 0, 0, 2.56931, -56.217, 2.48793, -173.376, 2.44153, 63.7852, 0.234816, 98.7827
1, 1320.00000, 121.628, -33.1431, 125.606, -150.302, 127.993, 86.8591, 0, 0, 2.56931, -56.2171, 2.48793, -173.376, 2.44153, 63.7852, 0.234816, 98.7827
1, 1380.00000, 121.628, -33.1431, 125.606, -150.302, 127.993, 86.8591, 0, 0, 2.56931, -56.2171, 2.48793, -173.376, 2.44153, 63.7852, 0.234816, 98.7826
1, 1440.00000, 121.628, -33.1432, 125.606, -150.302, 127.993, 86.8591, 0, 0, 2.56931, -56.2171, 2.48793, -173.376, 2.44153, 63.7852, 0.234817, 98.7825
1, 1500.00000, 121.628, -33.1432, 125.606, -150.302, 127.993, 86.8591, 0, 0, 2.56931, -56.2171, 2.48793, -173.376, 2.44153, 63.7852, 0.234817, 98.7825
1, 1560.00000, 121.628, -33.1432, 125.606, -150.302, 127.993, 86.8591, 0, 0, 2.56931, -56.2171, 2.48793, -173.376, 2.44153, 63.7852, 0.234817, 98.7824
1, 1620.00000, 121.628, -33.1432, 125.606, -150.302, 127.993, 86.8591, 0, 0, 2.56931, -56.2171, 2.48793, -173.376, 2.44153, 63.7852, 0.234818, 98.7824
1, 1680.00000, 121.628, -33.1432, 125.606, -150.302, 127.993, 86.8591, 0, 0, 2.56931, -56.2171, 2.48793, -173.376, 2.44153, 63.7852, 0.234818, 98.7824
1, 1740.00000, 121.628, -33.1432, 125.606, -150.302, 127.993, 86.8591, 0, 0, 2.56931, -56.2171, 2.48793, -173.376, 2.44153, 63.7852, 0.234818, 98.7823
1, 1800.00000, 121.628, -33.1432, 125.606, -150.302, 127.993, 86.8591, 0, 0, 2.56931, -56.2171, 2.48793, -173.376, 2.44153, 63.7852, 0.234818, 98.7823
1, 1860.00000, 121.628, -33.1432, 125.606, -150.302, 127.993, 86.8591, 0, 0, 2.56931, -56.2171, 2.48793, -173.376, 2.44153, 63.7852, 0.234818, 98.7823
1, 1920.00000, 121.628, -33.1432, 125.606, -150.302, 127.993, 86.8591, 0, 0, 2.56931, -56.2171, 2.48793, -173.376, 2.44153, 63.7852, 0.234819, 98.7822
1, 1980.00000, 121.628, -33.1432, 125.606, -150.302, 127.993, 86.8591, 0, 0, 2.56931, -56.2171, 2.48793, -173.376, 2.44153, 63.7852, 0.234819, 98.7822
1, 2040.00000, 122.976, -33.3115, 125.511, -150.309, 129.144, 87.2101, 0, 0, 2.54115, -56.3854, 2.48983, -173.383, 2.41979, 64.1362, 0.225982, 87.2456
1, 2100.00000, 122.976, -33.3115, 125.511, -150.309, 129.144, 87.2101, 0, 0, 2.54115, -56.3854, 2.48983, -173.383, 2.41979, 64.1362, 0.225983, 87.2456
1, 2160.00000, 122.976, -33.3115, 125.511, -150.309, 129.144, 87.2101, 0, 0, 2.54115, -56.3854, 2.48983, -173.383, 2.41979, 64.1362, 0.225983, 87.2455
1, 2220.00000, 122.976, -33.3115, 125.511, -150.309, 129.144, 87.2101, 0, 0, 2.54115, -56.3854, 2.48983, -173.383, 2.41979, 64.1362, 0.225983, 87.2455
1, 2280.00000, 122.976, -33.3115, 125.511, -150.309, 129.144, 87.2101, 0, 0, 2.54115, -56.3854, 2.48983, -173.383, 2.41979, 64.1362, 0.225983, 87.2455
1, 2340.00000, 122.976, -33.3115, 125.511, -150.309, 129.144, 87.2101, 0, 0, 2.54115, -56.3854, 2.48983, -173.383, 2.41979, 64.1362, 0.225983, 87.2455
1, 2400.00000, 122.976, -33.3115, 125.511, -150.309, 129.144, 87.2101, 0, 0, 2.54115, -56.3854, 2.48983, -173.383, 2.41979, 64.1362, 0.225983, 87.2455
1, 2460.00000, 122.976, -33.3115, 125.511, -150.309, 129.144, 87.2101, 0, 0, 2.54115, -56.3854, 2.48983, -173.383, 2.41979, 64.1362, 0.225983, 87.2455
1, 2520.00000, 124.284, -33.4674, 125.416, -150.315, 130.248, 87.5439, 0, 0, 2.51441, -56.5413, 2.4917, -173.389, 2.39927, 64.47, 0.226342, 75.9882
1, 2580.00000, 124.284, -33.4674, 125.416, -150.315, 130.248, 87.5439, 0, 0, 2.51441, -56.5413, 2.4917, -173.389, 2.39927, 64.47, 0.226342, 75.9882
1, 2640.00000, 124.284, -33.4674, 125.416, -150.315, 130.248, 87.5439, 0, 0, 2.51441, -56.5413, 2.4917, -173.389, 2.39927, 64.47, 0.226343, 75.9882
1, 2700.00000, 124.284, -33.4674, 125.416, -150.315, 130.248, 87.5439, 0, 0, 2.51441, -56.5413, 2.4917, -173.389, 2.39927, 64.47, 0.226343, 75.9882
1, 2760.00000, 125.701, -33.6735, 125.322, -150.321, 131.513, 87.8898, 0, 0, 2.48606, -56.7474, 2.49358, -173.395, 2.3762, 64.8159, 0.238698, 64.5157
1, 2820.00000, 125.701, -33.6735, 125.322, -150.321, 131.513, 87.8898, 0, 0, 2.48606, -56.7474, 2.49358, -173.395, 2.3762, 64.8159, 0.238699, 64.5158
1, 2880.00000, 125.701, -33.6735, 125.322, -150.321, 131.513, 87.8898, 0, 0, 2.48606, -56.7474, 2.49358, -173.395, 2.3762, 64.8159, 0.238699, 64.5158
1, 2940.00000, 125.701, -33.6735, 125.322, -150.321, 131.513, 87.8898, 0, 0, 2.48606, -56.7474, 2.49358, -173.395, 2.3762, 64.8159, 0.238699, 64.5158
1, 3000.00000, 125.701, -33.6735, 125.322, -150.321, 131.513, 87.8898, 0, 0, 2.48606, -56.7474, 2.49358, -173.395, 2.3762, 64.8159, 0.238699, 64.5158
1, 3060.00000, 125.701, -33.6735, 125.322, -150.321, 131.513, 87.8898, 0, 0, 2.48606, -56.7474, 2.49358, -173.395, 2.3762, 64.8159, 0.238699, 64.5158
1, 3120.00000, 125.701, -33.6735, 125.322, -150.321, 131.513, 87.8898, 0, 0, 2.48606, -56.7474, 2.49358, -173.395, 2.3762, 64.8159, 0.238699, 64.5158
1, 3180.00000, 125.701, -33.6735, 125.322, -150.321, 131.513, 87.8898, 0, 0, 2.48606, -56.7474, 2.49358, -173.395, 2.3762, 64.8159, 0.238699, 64.5158
1, 3240.00000, 125.701, -33.6735, 125.322, -150.321, 131.513, 87.8898, 0, 0, 2.48606, -56.7474, 2.49358, -173.395, 2.3762, 64.8159, 0.238699, 64.5158
1, 3300.00000, 125.701, -33.6735, 125.322, -150.321, 131.513, 87.8898, 0, 0, 2.48606, -56.7474, 2.49358, -173.395, 2.3762, 64.8159, 0.238699, 64.5158
1, 3360.00000, 125.701, -33.6735, 125.322, -150.321, 131.513, 87.8898, 0, 0, 2.48606, -56.7474, 2.49358, -173.395, 2.3762, 64.8159, 0.238699, 64.5158
1, 3420.00000, 125.701, -33.6735, 125.322, -150.321, 131.513, 87.8898, 0, 0, 2.48606, -56.7474, 2.49358, -173.395, 2.3762, 64.8159, 0.238699, 64.5158
1, 3480.00000, 125.701, -33.6735, 125.322, -150.321, 131.513, 87.8898, 0, 0, 2.48606, -56.7474, 2.49358, -173.395, 2.3762, 64.8159, 0.238699, 64.5158
1, 3540.00000, 125.701, -33.6735, 125.322, -150.321, 131.513, 87.8898, 0, 0, 2.48606, -56.7474, 2.49358, -173.395, 2.3762, 64.8159, 0.238699, 64.5158
2, 0.00000, 125.701, -33.6735, 125.322, -150.321, 131.513, 87.8898, 0, 0, 2.48606, -56.7474, 2.49358, -173.395, 2.3762, 64.8159, 0.238699, 64.5158
2, 60.00000, 125.701, -33.6735, 125.322, -150.321, 131.513, 87.8898, 0, 0, 2.48606, -56.7474, 2.49358, -173.395, 2.3762, 64.8159, 0.238699, 64.5158
2, 120.00000, 125.693, -33.6743, 125.315, -150.323, 131.506, 87.889, 0, 0, 2.49309, -56.7483, 2.50061, -173.396, 2.38289, 64.8151, 0.23938, 64.5173
2, 180.00000, 125.685, -33.6752, 125.309, -150.324, 131.499, 87.8882, 0, 0, 2.50021, -56.7491, 2.50773, -173.397, 2.38967, 64.8143, 0.240069, 64.5188
2, 240.00000, 125.678, -33.6761, 125.302, -150.325, 131.492, 87.8875, 0, 0, 2.50724, -56.75, 2.51476, -173.399, 2.39637, 64.8135, 0.24075, 64.5203
2, 300.00000, 125.67, -33.6769, 125.295, -150.326, 131.485, 87.8867, 0, 0, 2.51428, -56.7508, 2.5218, -173.4, 2.40307, 64.8128, 0.241431, 64.5218
2, 360.00000, 125.662, -33.6778, 125.288, -150.327, 131.479, 87.8859, 0, 0, 2.5214, -56.7517, 2.52892, -173.401, 2.40985, 64.812, 0.242121, 64.5233
2, 420.00000, 125.654, -33.6786, 125.282, -150.328, 131.472, 87.8851, 0, 0, 2.52843, -56.7525, 2.53595, -173.402, 2.41655, 64.8112, 0.242802, 64.5248
2, 480.00000, 125.646, -33.6795, 125.275, -150.329, 131.465, 87.8843, 0, 0, 2.53547, -56.7534, 2.54299, -173.403, 2.42325, 64.8104, 0.243484, 64.5263
2, 540.00000, 125.639, -33.6803, 125.268, -150.33, 131.458, 87.8836, 0, 0, 2.54259, -56.7543, 2.55011, -173.404, 2.43004, 64.8096, 0.244174, 64.5278
2, 600.00000, 125.631, -33.6812, 125.262, -150.331, 131.451, 87.8828, 0, 0, 2.54963, -56.7551, 2.55715, -173.405, 2.43674, 64.8089, 0.244856, 64.5293
2, 660.00000, 125.623, -33.6821, 125.255, -150.332, 131.444, 87.882, 0, 0, 2.55667, -56.756, 2.56419, -173.406, 2.44344, 64.8081, 0.245538, 64.5308
2, 720.00000, 125.615, -33.6829, 125.248, -150.333, 131.438, 87.8812, 0, 0, 2.5638, -56.7568, 2.57131, -173.407, 2.45023, 64.8073, 0.246228, 64.5323
2, 780.00000, 125.608, -33.6838, 125.241, -150.334, 131.431, 87.8804, 0, 0, 2.57084, -56.7577, 2.57836, -173.408, 2.45693, 64.8065, 0.24691, 64.5338
