hour,t(sec),V1,VAngle1,V2,VAngle2,V3,VAngle3,V4,VAngle4,I1,IAngle1,I2,IAngle2,I3,IAngle3,I4,IAngle4
0, 60.00000, 123.738, -30.6009, 123.747, -151.255, 122.356, 89.4108, 0, 0, 3.17988, -53.6747, 3.17967, -174.328, 3.21578, 66.3371, 0.069983, -98.4067
0, 120.00000, 123.738, -30.6009, 123.747, -151.255, 122.356, 89.4108, 0, 0, 3.17993, -53.6748, 3.1797, -174.328, 3.21586, 66.3369, 0.0700256, -98.4268
0, 180.00000, 123.738, -30.6009, 123.747, -151.255, 122.356, 89.4108, 0, 0, 3.17993, -53.6748, 3.1797, -174.328, 3.21586, 66.3369, 0.0700259, -98.427
0, 240.00000, 123.738, -30.6009, 123.747, -151.255, 122.356, 89.4108, 0, 0, 3.17993, -53.6748, 3.1797, -174.328, 3.21586, 66.3369, 0.0700259, -98.427
0, 300.00000, 123.875, -30.6094, 124.933, -150.833, 123.739, 89.125, 0, 0, 3.17645, -53.6832, 3.14961, -173.907, 3.18006, 66.0503, 0.0422308, -162.751
0, 360.00000, 123.875, -30.6094, 124.933, -150.833, 123.739, 89.1251, 0, 0, 3.17641, -53.6833, 3.14952, -173.907, 3.17991, 66.0512, 0.0421566, -162.867
0, 420.00000, 123.875, -30.6094, 124.933, -150.833, 123.739, 89.1251, 0, 0, 3.17641, -53.6833, 3.14952, -173.907, 3.17991, 66.0512, 0.042156, -162.868
0, 480.00000, 123.875, -30.6094, 124.933, -150.833, 123.739, 89.1251, 0, 0, 3.17641, -53.6833, 3.14952, -173.907, 3.17991, 66.0512, 0.042156, -162.868
0, 540.00000, 123.875, -30.6094, 124.933, -150.833, 123.739, 89.1251, 0, 0, 3.17641, -53.6833, 3.14952, -173.907, 3.17991, 66.0512, 0.042156, -162.868
0, 600.00000, 123.875, -30.6094, 124.933, -150.833, 123.739, 89.1251, 0, 0, 3.17641, -53.6833, 3.14952, -173.907, 3.17991, 66.0512, 0.042156, -162.868
0, 660.00000, 123.875, -30.6094, 124.933, -150.833, 123.739, 89.1251, 0, 0, 3.17641, -53.6833, 3.14952, -173.907, 3.17991, 66.0512, 0.042156, -162.868
0, 720.00000, 123.875, -30.6094, 124.933, -150.833, 123.739, 89.1251, 0, 0, 3.17641, -53.6833, 3.14952, -173.907, 3.17991, 66.0512, 0.042156, -162.868
0, 780.00000, 123.875, -30.6094, 124.933, -150.833, 123.739, 89.1251, 0, 0, 3.17641, -53.6833, 3.14952, -173.907, 3.17991, 66.0512, 0.042156, -162.868
0, 840.00000, 123.875, -30.6094, 124.933, -150.833, 123.739, 89.1251, 0, 0, 3.17641, -53.6833, 3.14952, -173.907, 3.17991, 66.0512, 0.042156, -162.868
0, 900.00000, 123.875, -30.6094, 124.933, -150.833, 123.739, 89.1251, 0, 0, 3.17641, -53.6833, 3.14952, -173.907, 3.17991, 66.0512, 0.042156, -162.868
0, 960.00000, 123.875, -30.6094, 124.933, -150.833, 123.739, 89.1251, 0, 0, 3.17641, -53.6833, 3.14952, -173.907, 3.17991, 66.0512, 0.042156, -162.868
0, 1020.00000, 123.875, -30.6094, 124.933, -150.833, 123.739, 89.1251, 0, 0, 3.17641, -53.6833, 3.14952, -173.907, 3.17991, 66.0512, 0.042156, -162.868
0, 1080.00000, 123.875, -30.6094, 124.933, -150.833, 123.739, 89.1251, 0, 0, 3.17641, -53.6833, 3.14952, -173.907, 3.17991, 66.0512, 0.042156, -162.868
0, 1140.00000, 123.875, -30.6094, 124.933, -150.833, 123.739, 89.1251, 0, 0, 3.17641, -53.6833, 3.14952, -173.907, 3.17991, 66.0512, 0.042156, -162.868
0, 1200.00000, 123.875, -30.6094, 124.933, -150.833, 123.739, 89.1251, 0, 0, 3.17641, -53.6833, 3.14952, -173.907, 3.17991, 66.0512, 0.042156, -162.868
0, 1260.00000, 123.875, -30.6094, 124.933, -150.833, 123.739, 89.1251, 0, 0, 3.17641, -53.6833, 3.14952, -173.907, 3.17991, 66.0512, 0.042156, -162.868
0, 1320.00000, 123.875, -30.6094, 124.933, -150.833, 123.739, 89.1251, 0, 0, 3.17641, -53.6833, 3.14952, -173.907, 3.17991, 66.0512, 0.042156, -162.868
0, 1380.00000, 123.875, -30.6094, 124.933, -150.833, 123.739, 89.1251, 0, 0, 3.17641, -53.6833, 3.14952, -173.907, 3.17991, 66.0512, 0.042156, -162.868
0, 1440.00000, 123.875, -30.6094, 124.933, -150.833, 123.739, 89.1251, 0, 0, 3.17641, -53.6833, 3.14952, -173.907, 3.17991, 66.0512, 0.042156, -162.868
0, 1500.00000, 123.875, -30.6094, 124.933, -150.833, 123.739, 89.1251, 0, 0, 3.17641, -53.6833, 3.14952, -173.907, 3.17991, 66.0512, 0.042156, -162.868
0, 1560.00000, 123.875, -30.6094, 124.933, -150.833, 123.739, 89.1251, 0, 0, 3.17641, -53.6833, 3.14952, -173.907, 3.17991, 66.0512, 0.042156, -162.868
0, 1620.00000, 123.875, -30.6094, 124.933, -150.833, 123.739, 89.1251, 0, 0, 3.17641, -53.6833, 3.14952, -173.907, 3.17991, 66.0512, 0.042156, -162.868
0, 1680.00000, 123.875, -30.6094, 124.933, -150.833, 123.739, 89.1251, 0, 0, 3.17641, -53.6833, 3.14952, -173.907, 3.17991, 66.0512, 0.042156, -162.868
0, 1740.00000, 123.875, -30.6094, 124.933, -150.833, 123.739, 89.1251, 0, 0, 3.17641, -53.6833, 3.14952, -173.907, 3.17991, 66.0512, 0.042156, -162.868
0, 1800.00000, 123.875, -30.6094, 124.933, -150.833, 123.739, 89.1251, 0, 0, 3.17641, -53.6833, 3.14952, -173.907, 3.17991, 66.0512, 0.042156, -162.868
0, 1860.00000, 123.875, -30.6094, 124.933, -150.833, 123.739, 89.1251, 0, 0, 3.17641, -53.6833, 3.14952, -173.907, 3.17991, 66.0512, 0.042156, -162.868
0, 1920.00000, 123.875, -30.6094, 124.933, -150.833, 123.739, 89.1251, 0, 0, 3.17641, -53.6833, 3.14952, -173.907, 3.17991, 66.0512, 0.042156, -162.868
0, 1980.00000, 123.875, -30.6094, 124.933, -150.833, 123.739, 89.1251, 0, 0, 3.17641, -53.6833, 3.14952, -173.907, 3.17991, 66.0512, 0.042156, -162.868
0, 2040.00000, 123.875, -30.6094, 124.933, -150.833, 123.739, 89.1251, 0, 0, 3.17641, -53.6833, 3.14952, -173.907, 3.17991, 66.0512, 0.042156, -162.868
0, 2100.00000, 123.875, -30.6094, 124.933, -150.833, 123.739, 89.1251, 0, 0, 3.17641, -53.6833, 3.14952, -173.907, 3.17991, 66.0512, 0.042156, -162.868
0, 2160.00000, 123.875, -30.6094, 124.933, -150.833, 123.739, 89.1251, 0, 0, 3.17641, -53.6833, 3.14952, -173.907, 3.17991, 66.0512, 0.042156, -162.868
0, 2220.00000, 123.876, -30.6092, 125.062, -150.663, 124.146, 89.1696, 0, 0, 3.1764, -53.6831, 3.14629, -173.737, 3.16956, 66.0951, 0.0383947, 172.606
0, 2280.00000, 123.876, -30.6092, 125.062, -150.663, 124.146, 89.1697, 0, 0, 3.17638, -53.6831, 3.14627, -173.737, 3.16947, 66.0958, 0.0383516, 172.497
0, 2340.00000, 123.876, -30.6092, 125.062, -150.663, 124.146, 89.1697, 0, 0, 3.17638, -53.6831, 3.14627, -173.737, 3.16947, 66.0958, 0.0383513, 172.496
0, 2400.00000, 123.876, -30.6092, 125.062, -150.663, 124.146, 89.1697, 0, 0, 3.17638, -53.6831, 3.14627, -173.737, 3.16947, 66.0958, 0.0383512, 172.496
0, 2460.00000, 123.876, -30.6092, 125.062, -150.663, 124.146, 89.1697, 0, 0, 3.17638, -53.6831, 3.14627, -173.737, 3.16947, 66.0958, 0.0383512, 172.496
0, 2520.00000, 123.876, -30.6092, 125.062, -150.663, 124.146, 89.1697, 0, 0, 3.17638, -53.6831, 3.14627, -173.737, 3.16947, 66.0958, 0.0383512, 172.496
0, 2580.00000, 123.876, -30.6092, 125.062, -150.663, 124.146, 89.1697, 0, 0, 3.17638, -53.6831, 3.14627, -173.737, 3.16947, 66.0958, 0.0383512, 172.496
0, 2640.00000, 123.876, -30.6092, 125.062, -150.663, 124.146, 89.1697, 0, 0, 3.17638, -53.6831, 3.14627, -173.737, 3.16947, 66.0958, 0.0383512, 172.496
0, 2700.00000, 123.876, -30.6092, 125.062, -150.663, 124.146, 89.1697, 0, 0, 3.17638, -53.6831, 3.14627, -173.737, 3.16947, 66.0958, 0.0383512, 172.496
0, 2760.00000, 123.876, -30.6092, 125.062, -150.663, 124.146, 89.1697, 0, 0, 3.17638, -53.6831, 3.14627, -173.737, 3.16947, 66.0958, 0.0383512, 172.496
0, 2820.00000, 123.876, -30.6092, 125.062, -150.663, 124.146, 89.1697, 0, 0, 3.17638, -53.6831, 3.14627, -173.737, 3.16947, 66.0958, 0.0383512, 172.496
0, 2880.00000, 123.876, -30.6092, 125.062, -150.663, 124.146, 89.1697, 0, 0, 3.17638, -53.6831, 3.14627, -173.737, 3.16947, 66.0958, 0.0383512, 172.496
0, 2940.00000, 123.876, -30.6092, 125.062, -150.663, 124.146, 89.1697, 0, 0, 3.17638, -53.6831, 3.14627, -173.737, 3.16947, 66.0958, 0.0383512, 172.496
0, 3000.00000, 123.876, -30.6092, 125.062, -150.663, 124.146, 89.1697, 0, 0, 3.17638, -53.6831, 3.14627, -173.737, 3.16947, 66.0958, 0.0383512, 172.496
0, 3060.00000, 123.876, -30.6092, 125.062, -150.663, 124.146, 89.1697, 0, 0, 3.17638, -53.6831, 3.14627, -173.737, 3.16947, 66.0958, 0.0383512, 172.496
0, 3120.00000, 123.876, -30.6092, 125.062, -150.663, 124.146, 89.1697, 0, 0, 3.17638, -53.6831, 3.14627, -173.737, 3.16947, 66.0958, 0.0383512, 172.496
0, 3180.00000, 123.876, -30.6092, 125.062, -150.663, 124.146, 89.1697, 0, 0, 3.17638, -53.6831, 3.14627, -173.737, 3.16947, 66.0958, 0.0383512, 172.496
0, 3240.00000, 123.876, -30.6092, 125.062, -150.663, 124.146, 89.1697, 0, 0, 3.17638, -53.6831, 3.14627, -173.737, 3.16947, 66.0958, 0.0383512, 172.496
0, 3300.00000, 123.876, -30.6092, 125.062, -150.663, 124.146, 89.1697, 0, 0, 3.17638, -53.6831, 3.14627, -173.737, 3.16947, 66.0958, 0.0383512, 172.496
0, 3360.00000, 123.876, -30.6092, 125.062, -150.663, 124.146, 89.1697, 0, 0, 3.17638, -53.6831, 3.14627, -173.737, 3.16947, 66.0958, 0.0383512, 172.496
0, 3420.00000, 123.876, -30.6092, 125.062, -150.663, 124.146, 89.1697, 0, 0, 3.17638, -53.6831, 3.14627, -173.737, 3.16947, 66.0958, 0.0383512, 172.496
0, 3480.00000, 123.876, -30.6092, 125.062, -150.663, 124.146, 89.1697, 0, 0, 3.17638, -53.6831, 3.14627, -173.737, 3.16947, 66.0958, 0.0383512, 172.496
0, 3540.00000, 123.876, -30.6092, 125.062, -150.663, 124.146, 89.1697, 0, 0, 3.17638, -53.6831, 3.14627, -173.737, 3.16947, 66.0958, 0.0383512, 172.496
1, 0.00000, 123.876, -30.6092, 125.062, -150.663, 124.146, 89.1697, 0, 0, 3.17638, -53.6831, 3.14627, -173.737, 3.16947, 66.0958, 0.0383512, 172.496
1, 60.00000, 123.876, -30.6092, 125.062, -150.663, 124.146, 89.1697, 0, 0, 3.17638, -53.6831, 3.14627, -173.737, 3.16947, 66.0958, 0.0383512, 172.496
1, 120.00000, 123.876, -30.6092, 125.062, -150.663, 124.146, 89.1697, 0, 0, 3.17638, -53.6831, 3.14627, -173.737, 3.16947, 66.0958, 0.0383512, 172.496
1, 180.00000, 123.876, -30.6092, 125.062, -150.663, 124.146, 89.1697, 0, 0, 3.17638, -53.6831, 3.14627, -173.737, 3.16947, 66.0958, 0.0383512, 172.496
1, 240.00000, 123.876, -30.6092, 125.062, -150.663, 124.146, 89.1697, 0, 0, 3.17638, -53.6831, 3.14627, -173.737, 3.16947, 66.0958, 0.0383512, 172.496
1, 300.00000, 123.876, -30.6092, 125.062, -150.663, 124.146, 89.1697, 0, 0, 3.17638, -53.6831, 3.14627, -173.737, 3.16947, 66.0958, 0.0383512, 172.496
1, 360.00000, 123.876, -30.6092, 125.062, -150.663, 124.146, 89.1697, 0, 0, 3.17638, -53.6831, 3.14627, -173.737, 3.16947, 66.0958, 0.0383512, 172.496
1, 420.00000, 123.876, -30.6092, 125.062, -150.663, 124.146, 89.1697, 0, 0, 3.17638, -53.6831, 3.14627, -173.737, 3.16947, 66.0958, 0.0383512, 172.496
1, 480.00000, 123.876, -30.6092, 125.062, -150.663, 124.146, 89.1697, 0, 0, 3.17638, -53.6831, 3.14627, -173.737, 3.16947, 66.0958, 0.0383512, 172.496
1, 540.00000, 123.876, -30.6092, 125.062, -150.663, 124.146, 89.1697, 0, 0, 3.17638, -53.6831, 3.14627, -173.737, 3.16947, 66.0958, 0.0383512, 172.496
1, 600.00000, 123.876, -30.6092, 125.062, -150.663, 124.146, 89.1697, 0, 0, 3.17638, -53.6831, 3.14627, -173.737, 3.16947, 66.0958, 0.0383512, 172.496
1, 660.00000, 123.999, -30.4429, 125.456, -150.621, 124.145, 89.1693, 0, 0, 3.17325, -53.5167, 3.13642, -173.695, 3.1695, 66.0953, 0.0536888, -178.081
1, 720.00000, 123.999, -30.4429, 125.456, -150.621, 124.145, 89.1693, 0, 0, 3.17323, -53.5168, 3.13638, -173.695, 3.1695, 66.0954, 0.0537161, -178.093
1, 780.00000, 125.3, -30.5574, 125.365, -150.631, 125.161, 89.544, 0, 0, 3.1404, -53.6324, 3.13861, -173.705, 3.14388, 66.4697, 0.00988196, -75.9422
1, 840.00000, 125.3, -30.5573, 125.365, -150.631, 125.162, 89.544, 0, 0, 3.14029, -53.6313, 3.13866, -173.705, 3.14376, 66.4701, 0.00994304, -75.2552
1, 900.00000, 125.3, -30.5573, 125.365, -150.631, 125.162, 89.544, 0, 0, 3.14029, -53.6312, 3.13866, -173.705, 3.14376, 66.4701, 0.0099432, -75.2524
1, 960.00000, 125.3, -30.5573, 125.365, -150.631, 125.162, 89.544, 0, 0, 3.14029, -53.6312, 3.13866, -173.705, 3.14376, 66.4701, 0.0099432, -75.2524
1, 1020.00000, 125.3, -30.5573, 125.365, -150.631, 125.162, 89.544, 0, 0, 3.14029, -53.6312, 3.13866, -173.705, 3.14376, 66.4701, 0.0099432, -75.2524
1, 1080.00000, 125.3, -30.5573, 125.365, -150.631, 125.162, 89.544, 0, 0, 3.14029, -53.6312, 3.13866, -173.705, 3.14376, 66.4701, 0.0099432, -75.2524
1, 1140.00000, 125.3, -30.5573, 125.365, -150.631, 125.162, 89.544, 0, 0, 3.14029, -53.6312, 3.13866, -173.705, 3.14376, 66.4701, 0.0099432, -75.2524
1, 1200.00000, 125.3, -30.5573, 125.365, -150.631, 125.162, 89.544, 0, 0, 3.14029, -53.6312, 3.13866, -173.705, 3.14376, 66.4701, 0.0099432, -75.2524
1, 1260.00000, 125.3, -30.5573, 125.365, -150.631, 125.162, 89.544, 0, 0, 3.14029, -53.6312, 3.13866, -173.705, 3.14376, 66.4701, 0.0099432, -75.2524
1, 1320.00000, 125.3, -30.5573, 125.365, -150.631, 125.162, 89.544, 0, 0, 3.14029, -53.6312, 3.13866, -173.705, 3.14376, 66.4701, 0.0099432, -75.2524
1, 1380.00000, 125.3, -30.5573, 125.365, -150.631, 125.162, 89.544, 0, 0, 3.14029, -53.6312, 3.13866, -173.705, 3.14376, 66.4701, 0.0099432, -75.2524
1, 1440.00000, 125.3, -30.5573, 125.365, -150.631, 125.162, 89.544, 0, 0, 3.14029, -53.6312, 3.13866, -173.705, 3.14376, 66.4701, 0.0099432, -75.2524
1, 1500.00000, 125.3, -30.5573, 125.365, -150.631, 125.162, 89.544, 0, 0, 3.14029, -53.6312, 3.13866, -173.705, 3.14376, 66.4701, 0.0099432, -75.2524
1, 1560.00000, 125.3, -30.5573, 125.365, -150.631, 125.162, 89.544, 0, 0, 3.14029, -53.6312, 3.13866, -173.705, 3.14376, 66.4701, 0.0099432, -75.2524
1, 1620.00000, 125.3, -30.5573, 125.365, -150.631, 125.162, 89.544, 0, 0, 3.14029, -53.6312, 3.13866, -173.705, 3.14376, 66.4701, 0.0099432, -75.2524
1, 1680.00000, 125.3, -30.5573, 125.365, -150.631, 125.162, 89.544, 0, 0, 3.14029, -53.6312, 3.13866, -173.705, 3.14376, 66.4701, 0.0099432, -75.2524
1, 1740.00000, 125.3, -30.5573, 125.365, -150.631, 125.162, 89.544, 0, 0, 3.14029, -53.6312, 3.13866, -173.705, 3.14376, 66.4701, 0.0099432, -75.2524
1, 1800.00000, 125.3, -30.5573, 125.365, -150.631, 125.162, 89.544, 0, 0, 3.14029, -53.6312, 3.13866, -173.705, 3.14376, 66.4701, 0.0099432, -75.2524
1, 1860.00000, 125.3, -30.5573, 125.365, -150.631, 125.162, 89.544, 0, 0, 3.14029, -53.6312, 3.13866, -173.705, 3.14376, 66.4701, 0.0099432, -75.2524
1, 1920.00000, 125.3, -30.5573, 125.365, -150.631, 125.162, 89.544, 0, 0, 3.14029, -53.6312, 3.13866, -173.705, 3.14376, 66.4701, 0.0099432, -75.2524
1, 1980.00000, 125.3, -30.5573, 125.365, -150.631, 125.162, 89.544, 0, 0, 3.14029, -53.6312, 3.13866, -173.705, 3.14376, 66.4701, 0.0099432, -75.2524
1, 2040.00000, 125.3, -30.5573, 125.365, -150.631, 125.162, 89.544, 0, 0, 3.14029, -53.6312, 3.13866, -173.705, 3.14376, 66.4701, 0.0099432, -75.2524
1, 2100.00000, 125.3, -30.5573, 125.365, -150.631, 125.162, 89.544, 0, 0, 3.14029, -53.6312, 3.13866, -173.705, 3.14376, 66.4701, 0.0099432, -75.2524
1, 2160.00000, 125.3, -30.5573, 125.365, -150.631, 125.162, 89.544, 0, 0, 3.14029, -53.6312, 3.13866, -173.705, 3.14376, 66.4701, 0.0099432, -75.2524
1, 2220.00000, 125.3, -30.5573, 125.365, -150.631, 125.162, 89.544, 0, 0, 3.14029, -53.6312, 3.13866, -173.705, 3.14376, 66.4701, 0.0099432, -75.2524
1, 2280.00000, 125.3, -30.5573, 125.365, -150.631, 125.162, 89.544, 0, 0, 3.14029, -53.6312, 3.13866, -173.705, 3.14376, 66.4701, 0.0099432, -75.2524
1, 2340.00000, 125.3, -30.5573, 125.365, -150.631, 125.162, 89.544, 0, 0, 3.14029, -53.6312, 3.13866, -173.705, 3.14376, 66.4701, 0.0099432, -75.2524
1, 2400.00000, 125.3, -30.5573, 125.365, -150.631, 125.162, 89.544, 0, 0, 3.14029, -53.6312, 3.13866, -173.705, 3.14376, 66.4701, 0.0099432, -75.2524
1, 2460.00000, 125.3, -30.5573, 125.365, -150.631, 125.162, 89.544, 0, 0, 3.14029, -53.6312, 3.13866, -173.705, 3.14376, 66.4701, 0.0099432, -75.2524
1, 2520.00000, 125.3, -30.5573, 125.365, -150.631, 125.162, 89.544, 0, 0, 3.14029, -53.6312, 3.13866, -173.705, 3.14376, 66.4701, 0.0099432, -75.2524
1, 2580.00000, 125.3, -30.5573, 125.365, -150.631, 125.162, 89.544, 0, 0, 3.14029, -53.6312, 3.13866, -173.705, 3.14376, 66.4701, 0.0099432, -75.2524
1, 2640.00000, 125.3, -30.5573, 125.365, -150.631, 125.162, 89.544, 0, 0, 3.14029, -53.6312, 3.13866, -173.705, 3.14376, 66.4701, 0.0099432, -75.2524
1, 2700.00000, 125.3, -30.5573, 125.365, -150.631, 125.162, 89.544, 0, 0, 3.14029, -53.6312, 3.13866, -173.705, 3.14376, 66.4701, 0.0099432, -75.2524
1, 2760.00000, 125.3, -30.5573, 125.365, -150.631, 125.162, 89.544, 0, 0, 3.14029, -53.6312, 3.13866, -173.705, 3.14376, 66.4701, 0.0099432, -75.2524
1, 2820.00000, 125.3, -30.5573, 125.365, -150.631, 125.162, 89.544, 0, 0, 3.14029, -53.6312, 3.13866, -173.705, 3.14376, 66.4701, 0.0099432, -75.2524
1, 2880.00000, 125.3, -30.5573, 125.365, -150.631, 125.162, 89.544, 0, 0, 3.14029, -53.6312, 3.13866, -173.705, 3.14376, 66.4701, 0.0099432, -75.2524
1, 2940.00000, 125.3, -30.5573, 125.365, -150.631, 125.162, 89.544, 0, 0, 3.14029, -53.6312, 3.13866, -173.705, 3.14376, 66.4701, 0.0099432, -75.2524
1, 3000.00000, 125.3, -30.5573, 125.365, -150.631, 125.162, 89.544, 0, 0, 3.14029, -53.6312, 3.13866, -173.705, 3.14376, 66.4701, 0.0099432, -75.2524
1, 3060.00000, 125.3, -30.5573, 125.365, -150.631, 125.162, 89.544, 0, 0, 3.14029, -53.6312, 3.13866, -173.705, 3.14376, 66.4701, 0.0099432, -75.2524
1, 3120.00000, 125.3, -30.5573, 125.365, -150.631, 125.162, 89.544, 0, 0, 3.14029, -53.6312, 3.13866, -173.705, 3.14376, 66.4701, 0.0099432, -75.2524
1, 3180.00000, 125.3, -30.5573, 125.365, -150.631, 125.162, 89.544, 0, 0, 3.14029, -53.6312, 3.13866, -173.705, 3.14376, 66.4701, 0.0099432, -75.2524
1, 3240.00000, 125.3, -30.5573, 125.365, -150.631, 125.162, 89.544, 0, 0, 3.14029, -53.6312, 3.13866, -173.705, 3.14376, 66.4701, 0.0099432, -75.2524
1, 3300.00000, 125.3, -30.5573, 125.365, -150.631, 125.162, 89.544, 0, 0, 3.14029, -53.6312, 3.13866, -173.705, 3.14376, 66.4701, 0.0099432, -75.2524
1, 3360.00000, 125.3, -30.5573, 125.365, -150.631, 125.162, 89.544, 0, 0, 3.14029, -53.6312, 3.13866, -173.705, 3.14376, 66.4701, 0.0099432, -75.2524
1, 3420.00000, 125.3, -30.5573, 125.365, -150.631, 125.162, 89.544, 0, 0, 3.14029, -53.6312, 3.13866, -173.705, 3.14376, 66.4701, 0.0099432, -75.2524
1, 3480.00000, 125.298, -30.5572, 125.49, -150.465, 125.559, 89.586, 0, 0, 3.14035, -53.6311, 3.13555, -173.539, 3.13386, 66.5117, 0.00854253, 58.7584
1, 3540.00000, 125.298, -30.5572, 125.49, -150.465, 125.56, 89.5861, 0, 0, 3.14035, -53.6311, 3.13554, -173.539, 3.1338, 66.5121, 0.00860698, 58.7675
2, 0.00000, 125.298, -30.5572, 125.49, -150.465, 125.56, 89.5861, 0, 0, 3.14035, -53.6311, 3.13554, -173.539, 3.1338, 66.5121, 0.00860722, 58.7673
2, 60.00000, 125.298, -30.5572, 125.49, -150.465, 125.56, 89.5861, 0, 0, 3.14035, -53.6311, 3.13554, -173.539, 3.1338, 66.5121, 0.00860722, 58.7673
2, 120.00000, 125.29, -30.5582, 125.483, -150.466, 125.553, 89.5852, 0, 0, 3.14921, -53.6321, 3.14437, -173.54, 3.14263, 66.5113, 0.0086424, 58.8527
2, 180.00000, 125.283, -30.5592, 125.476, -150.467, 125.546, 89.5842, 0, 0, 3.1582, -53.6331, 3.15332, -173.54, 3.15158, 66.5104, 0.00867546, 58.9472
2, 240.00000, 125.275, -30.5603, 125.47, -150.468, 125.539, 89.5833, 0, 0, 3.16708, -53.6341, 3.16217, -173.541, 3.16043, 66.5095, 0.00870811, 59.0408
2, 300.00000, 125.268, -30.5613, 125.463, -150.468, 125.532, 89.5824, 0, 0, 3.17596, -53.6352, 3.17102, -173.542, 3.16927, 66.5086, 0.00874086, 59.1341
2, 360.00000, 125.26, -30.5624, 125.456, -150.469, 125.525, 89.5815, 0, 0, 3.18494, -53.6362, 3.17997, -173.543, 3.17823, 66.5077, 0.00877413, 59.2283
2, 420.00000, 125.253, -30.5634, 125.449, -150.47, 125.518, 89.5806, 0, 0, 3.19383, -53.6372, 3.18882, -173.544, 3.18708, 66.5068, 0.00880701, 59.3215
2, 480.00000, 125.245, -30.5644, 125.443, -150.471, 125.511, 89.5797, 0, 0, 3.20271, -53.6383, 3.19767, -173.545, 3.19593, 66.5059, 0.00883999, 59.4144
2, 540.00000, 125.237, -30.5655, 125.436, -150.472, 125.504, 89.5788, 0, 0, 3.2117, -53.6393, 3.20663, -173.546, 3.20489, 66.505, 0.00887349, 59.5081
2, 600.00000, 125.23, -30.5665, 125.429, -150.473, 125.497, 89.5779, 0, 0, 3.22059, -53.6404, 3.21548, -173.547, 3.21374, 66.5041, 0.00890659, 59.6009
2, 660.00000, 125.222, -30.5675, 125.422, -150.474, 125.49, 89.577, 0, 0, 3.22948, -53.6414, 3.22433, -173.548, 3.22259, 66.5032, 0.00893981, 59.6933
