hour,t(sec),"P1 (kW)","Q1 (kvar)","P2 (kW)","Q2 (kvar)","P3 (kW)","Q3 (kvar)","P4 (kW)","Q4 (kvar)"
0, 60.00000, 0.22999, 0.0979743, 0.229981, 0.0979652, 0.229977, 0.0979688, 0, 0
0, 120.00000, 0.23, 0.0979796, 0.23, 0.0979795, 0.23, 0.0979795, 0, 0
0, 180.00000, 0.23, 0.0979796, 0.23, 0.0979796, 0.23, 0.0979796, 0, 0
0, 240.00000, 0.23, 0.0979796, 0.23, 0.0979796, 0.23, 0.0979796, 0, 0
0, 300.00000, 0.23, 0.0979796, 0.23, 0.0979796, 0.23, 0.0979796, 0, 0
0, 360.00000, 0.23, 0.0979796, 0.23, 0.0979796, 0.23, 0.0979796, 0, 0
0, 420.00000, 0.23, 0.0979796, 0.23, 0.0979796, 0.23, 0.0979796, 0, 0
0, 480.00000, 0.23, 0.0979796, 0.23, 0.0979796, 0.23, 0.0979796, 0, 0
0, 540.00000, 0.23, 0.0979796, 0.23, 0.0979796, 0.23, 0.0979796, 0, 0
0, 600.00000, 0.23, 0.0979796, 0.23, 0.0979796, 0.23, 0.0979796, 0, 0
0, 660.00000, 0.23, 0.0979796, 0.23, 0.0979796, 0.23, 0.0979796, 0, 0
0, 720.00000, 0.23, 0.0979796, 0.23, 0.0979796, 0.23, 0.0979796, 0, 0
0, 780.00000, 0.23, 0.0979796, 0.23, 0.0979796, 0.23, 0.0979796, 0, 0
0, 840.00000, 0.23, 0.0979796, 0.23, 0.0979796, 0.23, 0.0979796, 0, 0
0, 900.00000, 0.23, 0.0979796, 0.23, 0.0979796, 0.23, 0.0979796, 0, 0
0, 960.00000, 0.229999, 0.0979809, 0.229985, 0.0979686, 0.229983, 0.097972, 0, 0
0, 1020.00000, 0.23, 0.0979796, 0.23, 0.0979795, 0.23, 0.0979795, 0, 0
0, 1080.00000, 0.23, 0.0979796, 0.23, 0.0979796, 0.23, 0.0979796, 0, 0
0, 1140.00000, 0.23, 0.0979796, 0.23, 0.0979796, 0.23, 0.0979796, 0, 0
0, 1200.00000, 0.23, 0.0979796, 0.23, 0.0979796, 0.23, 0.0979796, 0, 0
0, 1260.00000, 0.23, 0.0979796, 0.23, 0.0979796, 0.23, 0.0979796, 0, 0
0, 1320.00000, 0.23, 0.0979796, 0.23, 0.0979796, 0.23, 0.0979796, 0, 0
0, 1380.00000, 0.23, 0.0979796, 0.23, 0.0979796, 0.23, 0.0979796, 0, 0
0, 1440.00000, 0.23, 0.0979796, 0.23, 0.0979796, 0.23, 0.0979796, 0, 0
0, 1500.00000, 0.23, 0.0979796, 0.23, 0.0979796, 0.23, 0.0979796, 0, 0
0, 1560.00000, 0.23, 0.0979796, 0.23, 0.0979796, 0.23, 0.0979796, 0, 0
0, 1620.00000, 0.23, 0.0979796, 0.23, 0.0979796, 0.23, 0.0979796, 0, 0
0, 1680.00000, 0.23, 0.0979796, 0.23, 0.0979796, 0.23, 0.0979796, 0, 0
0, 1740.00000, 0.23, 0.0979796, 0.23, 0.0979796, 0.23, 0.0979796, 0, 0
0, 1800.00000, 0.23, 0.0979796, 0.23, 0.0979796, 0.23, 0.0979796, 0, 0
0, 1860.00000, 0.23, 0.0979796, 0.23, 0.0979796, 0.23, 0.0979796, 0, 0
0, 1920.00000, 0.23, 0.0979796, 0.23, 0.0979796, 0.23, 0.0979796, 0, 0
0, 1980.00000, 0.23, 0.0979796, 0.23, 0.0979796, 0.23, 0.0979796, 0, 0
0, 2040.00000, 0.23, 0.0979796, 0.23, 0.0979796, 0.23, 0.0979796, 0, 0
0, 2100.00000, 0.23, 0.0979796, 0.23, 0.0979796, 0.23, 0.0979796, 0, 0
0, 2160.00000, 0.23, 0.0979796, 0.23, 0.0979796, 0.23, 0.0979796, 0, 0
0, 2220.00000, 0.23, 0.0979796, 0.23, 0.0979796, 0.23, 0.0979796, 0, 0
0, 2280.00000, 0.23, 0.0979796, 0.23, 0.0979796, 0.23, 0.0979796, 0, 0
0, 2340.00000, 0.23, 0.0979796, 0.23, 0.0979796, 0.23, 0.0979796, 0, 0
0, 2400.00000, 0.23, 0.0979796, 0.23, 0.0979796, 0.23, 0.0979796, 0, 0
0, 2460.00000, 0.23, 0.0979796, 0.23, 0.0979796, 0.23, 0.0979796, 0, 0
0, 2520.00000, 0.23, 0.0979796, 0.23, 0.0979796, 0.23, 0.0979796, 0, 0
0, 2580.00000, 0.23, 0.0979796, 0.23, 0.0979796, 0.23, 0.0979796, 0, 0
0, 2640.00000, 0.23, 0.0979796, 0.23, 0.0979796, 0.23, 0.0979796, 0, 0
0, 2700.00000, 0.23, 0.0979796, 0.23, 0.0979796, 0.23, 0.0979796, 0, 0
0, 2760.00000, 0.23, 0.0979796, 0.23, 0.0979796, 0.23, 0.0979796, 0, 0
0, 2820.00000, 0.23, 0.0979796, 0.23, 0.0979796, 0.23, 0.0979796, 0, 0
0, 2880.00000, 0.23, 0.0979796, 0.23, 0.0979796, 0.23, 0.0979796, 0, 0
0, 2940.00000, 0.23, 0.0979796, 0.23, 0.0979796, 0.23, 0.0979796, 0, 0
0, 3000.00000, 0.23, 0.0979796, 0.23, 0.0979796, 0.23, 0.0979796, 0, 0
0, 3060.00000, 0.23, 0.0979796, 0.23, 0.0979796, 0.23, 0.0979796, 0, 0
0, 3120.00000, 0.23, 0.0979796, 0.23, 0.0979796, 0.23, 0.0979796, 0, 0
0, 3180.00000, 0.23, 0.0979796, 0.23, 0.0979796, 0.23, 0.0979796, 0, 0
0, 3240.00000, 0.23, 0.0979796, 0.23, 0.0979796, 0.23, 0.0979796, 0, 0
0, 3300.00000, 0.23, 0.0979796, 0.23, 0.0979796, 0.23, 0.0979796, 0, 0
0, 3360.00000, 0.23, 0.0979796, 0.23, 0.0979796, 0.23, 0.0979796, 0, 0
0, 3420.00000, 0.23, 0.0979796, 0.23, 0.0979796, 0.23, 0.0979796, 0, 0
0, 3480.00000, 0.23, 0.0979796, 0.23, 0.0979796, 0.23, 0.0979796, 0, 0
0, 3540.00000, 0.23, 0.0979796, 0.23, 0.0979796, 0.23, 0.0979796, 0, 0
1, 0.00000, 0.23, 0.0979796, 0.23, 0.0979796, 0.23, 0.0979796, 0, 0
1, 60.00000, 0.23, 0.0979796, 0.23, 0.0979796, 0.23, 0.0979796, 0, 0
1, 120.00000, 0.23, 0.0979796, 0.23, 0.0979796, 0.23, 0.0979796, 0, 0
1, 180.00000, 0.23, 0.0979796, 0.23, 0.0979796, 0.23, 0.0979796, 0, 0
1, 240.00000, 0.23, 0.0979796, 0.23, 0.0979796, 0.23, 0.0979796, 0, 0
1, 300.00000, 0.23, 0.0979796, 0.23, 0.0979796, 0.23, 0.0979796, 0, 0
1, 360.00000, 0.23, 0.0979796, 0.23, 0.0979796, 0.23, 0.0979796, 0, 0
1, 420.00000, 0.23, 0.0979796, 0.23, 0.0979796, 0.23, 0.0979796, 0, 0
1, 480.00000, 0.23, 0.0979796, 0.23, 0.0979796, 0.23, 0.0979796, 0, 0
1, 540.00000, 0.23, 0.0979796, 0.23, 0.0979796, 0.23, 0.0979796, 0, 0
1, 600.00000, 0.23, 0.0979796, 0.23, 0.0979796, 0.23, 0.0979796, 0, 0
1, 660.00000, 0.23, 0.0979796, 0.23, 0.0979796, 0.23, 0.0979796, 0, 0
1, 720.00000, 0.23, 0.0979796, 0.23, 0.0979796, 0.23, 0.0979796, 0, 0
1, 780.00000, 0.23, 0.0979796, 0.23, 0.0979796, 0.23, 0.0979796, 0, 0
1, 840.00000, 0.23, 0.0979796, 0.23, 0.0979796, 0.23, 0.0979796, 0, 0
1, 900.00000, 0.23, 0.0979796, 0.23, 0.0979796, 0.23, 0.0979796, 0, 0
1, 960.00000, 0.23, 0.0979796, 0.23, 0.0979796, 0.23, 0.0979796, 0, 0
1, 1020.00000, 0.23, 0.0979796, 0.23, 0.0979796, 0.23, 0.0979796, 0, 0
1, 1080.00000, 0.23, 0.0979796, 0.23, 0.0979796, 0.23, 0.0979796, 0, 0
1, 1140.00000, 0.23, 0.0979796, 0.23, 0.0979796, 0.23, 0.0979796, 0, 0
1, 1200.00000, 0.23, 0.0979796, 0.23, 0.0979796, 0.23, 0.0979796, 0, 0
1, 1260.00000, 0.23, 0.0979796, 0.23, 0.0979796, 0.23, 0.0979796, 0, 0
1, 1320.00000, 0.23, 0.0979796, 0.23, 0.0979796, 0.23, 0.0979796, 0, 0
1, 1380.00000, 0.23, 0.0979796, 0.23, 0.0979796, 0.23, 0.0979796, 0, 0
1, 1440.00000, 0.23, 0.0979796, 0.23, 0.0979796, 0.23, 0.0979796, 0, 0
1, 1500.00000, 0.23, 0.0979796, 0.23, 0.0979796, 0.23, 0.0979796, 0, 0
1, 1560.00000, 0.23, 0.0979796, 0.23, 0.0979796, 0.23, 0.0979796, 0, 0
1, 1620.00000, 0.23, 0.0979796, 0.23, 0.0979796, 0.23, 0.0979796, 0, 0
1, 1680.00000, 0.23, 0.0979796, 0.23, 0.0979796, 0.23, 0.0979796, 0, 0
1, 1740.00000, 0.23, 0.0979796, 0.23, 0.0979796, 0.23, 0.0979796, 0, 0
1, 1800.00000, 0.23, 0.0979796, 0.23, 0.0979796, 0.23, 0.0979796, 0, 0
1, 1860.00000, 0.23, 0.0979796, 0.23, 0.0979796, 0.23, 0.0979796, 0, 0
1, 1920.00000, 0.23, 0.0979796, 0.23, 0.0979796, 0.23, 0.0979796, 0, 0
1, 1980.00000, 0.23, 0.0979796, 0.23, 0.0979796, 0.23, 0.0979796, 0, 0
1, 2040.00000, 0.23, 0.0979796, 0.23, 0.0979796, 0.23, 0.0979796, 0, 0
1, 2100.00000, 0.23, 0.0979796, 0.23, 0.0979796, 0.23, 0.0979796, 0, 0
1, 2160.00000, 0.23, 0.0979796, 0.23, 0.0979796, 0.23, 0.0979796, 0, 0
1, 2220.00000, 0.23, 0.0979796, 0.23, 0.0979796, 0.23, 0.0979796, 0, 0
1, 2280.00000, 0.23, 0.0979796, 0.23, 0.0979796, 0.23, 0.0979796, 0, 0
1, 2340.00000, 0.23, 0.0979796, 0.23, 0.0979796, 0.23, 0.0979796, 0, 0
1, 2400.00000, 0.23, 0.0979796, 0.23, 0.0979796, 0.23, 0.0979796, 0, 0
1, 2460.00000, 0.23, 0.0979796, 0.23, 0.0979796, 0.23, 0.0979796, 0, 0
1, 2520.00000, 0.23, 0.0979785, 0.230011, 0.0979862, 0.230011, 0.0979862, 0, 0
1, 2580.00000, 0.23, 0.0979796, 0.23, 0.0979796, 0.23, 0.0979796, 0, 0
1, 2640.00000, 0.23, 0.0979796, 0.23, 0.0979796, 0.23, 0.0979796, 0, 0
1, 2700.00000, 0.23, 0.0979796, 0.23, 0.0979796, 0.23, 0.0979796, 0, 0
1, 2760.00000, 0.23, 0.0979788, 0.230007, 0.0979832, 0.230007, 0.0979849, 0, 0
1, 2820.00000, 0.23, 0.0979796, 0.23, 0.0979796, 0.23, 0.0979796, 0, 0
1, 2880.00000, 0.23, 0.0979796, 0.23, 0.0979796, 0.23, 0.0979796, 0, 0
1, 2940.00000, 0.23, 0.0979796, 0.23, 0.0979796, 0.23, 0.0979796, 0, 0
1, 3000.00000, 0.23, 0.0979796, 0.23, 0.0979796, 0.23, 0.0979796, 0, 0
1, 3060.00000, 0.23, 0.0979796, 0.23, 0.0979796, 0.23, 0.0979796, 0, 0
1, 3120.00000, 0.23, 0.0979796, 0.23, 0.0979796, 0.23, 0.0979796, 0, 0
1, 3180.00000, 0.23, 0.0979796, 0.23, 0.0979796, 0.23, 0.0979796, 0, 0
1, 3240.00000, 0.23, 0.0979796, 0.23, 0.0979796, 0.23, 0.0979796, 0, 0
1, 3300.00000, 0.23, 0.0979796, 0.23, 0.0979796, 0.23, 0.0979796, 0, 0
1, 3360.00000, 0.23, 0.0979796, 0.23, 0.0979796, 0.23, 0.0979796, 0, 0
1, 3420.00000, 0.23, 0.0979796, 0.23, 0.0979796, 0.23, 0.0979796, 0, 0
1, 3480.00000, 0.23, 0.0979796, 0.23, 0.0979796, 0.23, 0.0979796, 0, 0
1, 3540.00000, 0.23, 0.0979796, 0.23, 0.0979796, 0.23, 0.0979796, 0, 0
2, 0.00000, 0.23, 0.0979796, 0.23, 0.0979796, 0.23, 0.0979796, 0, 0
2, 60.00000, 0.23, 0.0979796, 0.23, 0.0979796, 0.23, 0.0979796, 0, 0
2, 120.00000, 0.230636, 0.0982501, 0.230636, 0.0982501, 0.230636, 0.0982502, 0, 0
2, 180.00000, 0.23128, 0.0985244, 0.23128, 0.0985245, 0.23128, 0.0985246, 0, 0
2, 240.00000, 0.231916, 0.0987955, 0.231916, 0.0987955, 0.231916, 0.0987957, 0, 0
2, 300.00000, 0.232552, 0.0990666, 0.232552, 0.0990666, 0.232552, 0.0990667, 0, 0
2, 360.00000, 0.233196, 0.0993409, 0.233196, 0.0993409, 0.233196, 0.0993411, 0, 0
2, 420.00000, 0.233833, 0.099612, 0.233833, 0.099612, 0.233832, 0.0996122, 0, 0
2, 480.00000, 0.234469, 0.0998831, 0.234469, 0.0998831, 0.234469, 0.0998832, 0, 0
2, 540.00000, 0.235113, 0.100157, 0.235113, 0.100157, 0.235113, 0.100158, 0, 0
2, 600.00000, 0.235749, 0.100428, 0.235749, 0.100429, 0.235749, 0.100429, 0, 0
2, 660.00000, 0.236386, 0.1007, 0.236386, 0.1007, 0.236385, 0.1007, 0, 0
2, 720.00000, 0.237029, 0.100974, 0.23703, 0.100974, 0.237029, 0.100974, 0, 0
2, 780.00000, 0.237666, 0.101245, 0.237666, 0.101245, 0.237666, 0.101245, 0, 0
2, 840.00000, 0.238302, 0.101516, 0.238302, 0.101516, 0.238302, 0.101516, 0, 0
2, 900.00000, 0.238946, 0.10179, 0.238946, 0.10179, 0.238946, 0.101791, 0, 0
2, 960.00000, 0.239582, 0.102061, 0.239583, 0.102062, 0.239582, 0.102062, 0, 0
2, 1020.00000, 0.240219, 0.102333, 0.240219, 0.102333, 0.240219, 0.102333, 0, 0
2, 1080.00000, 0.240863, 0.102607, 0.240863, 0.102607, 0.240863, 0.102607, 0, 0
2, 1140.00000, 0.241499, 0.102878, 0.241499, 0.102878, 0.241499, 0.102878, 0, 0
2, 1200.00000, 0.242135, 0.103149, 0.242136, 0.103149, 0.242135, 0.103149, 0, 0
2, 1260.00000, 0.242779, 0.103423, 0.24278, 0.103423, 0.242779, 0.103424, 0, 0
2, 1320.00000, 0.243416, 0.103694, 0.243416, 0.103694, 0.243416, 0.103695, 0, 0
2, 1380.00000, 0.244052, 0.103966, 0.244052, 0.103966, 0.244052, 0.103966, 0, 0
2, 1440.00000, 0.244696, 0.10424, 0.244696, 0.10424, 0.244696, 0.10424, 0, 0
2, 1500.00000, 0.245332, 0.104511, 0.245333, 0.104511, 0.245332, 0.104511, 0, 0
2, 1560.00000, 0.245969, 0.104782, 0.245969, 0.104782, 0.245969, 0.104782, 0, 0
2, 1620.00000, 0.246613, 0.105056, 0.246613, 0.105056, 0.246613, 0.105057, 0, 0
2, 1680.00000, 0.247249, 0.105327, 0.247249, 0.105327, 0.247249, 0.105328, 0, 0
2, 1740.00000, 0.247885, 0.105599, 0.247886, 0.105599, 0.247885, 0.105599, 0, 0
2, 1800.00000, 0.248529, 0.105873, 0.24853, 0.105873, 0.248529, 0.105873, 0, 0
2, 1860.00000, 0.249166, 0.106144, 0.249166, 0.106144, 0.249166, 0.106144, 0, 0
2, 1920.00000, 0.249802, 0.106415, 0.249802, 0.106415, 0.249802, 0.106415, 0, 0
2, 1980.00000, 0.250446, 0.106689, 0.250446, 0.106689, 0.250446, 0.106689, 0, 0
2, 2040.00000, 0.251082, 0.10696, 0.251083, 0.10696, 0.251082, 0.106961, 0, 0
2, 2100.00000, 0.251719, 0.107231, 0.251719, 0.107232, 0.251719, 0.107232, 0, 0
2, 2160.00000, 0.252363, 0.107506, 0.252363, 0.107506, 0.252363, 0.107506, 0, 0
2, 2220.00000, 0.252999, 0.107777, 0.252999, 0.107777, 0.252999, 0.107777, 0, 0
2, 2280.00000, 0.253635, 0.108048, 0.253636, 0.108048, 0.253635, 0.108048, 0, 0
2, 2340.00000, 0.254279, 0.108322, 0.25428, 0.108322, 0.254279, 0.108322, 0, 0
2, 2400.00000, 0.254916, 0.108593, 0.254916, 0.108593, 0.254916, 0.108594, 0, 0
2, 2460.00000, 0.255552, 0.108864, 0.255552, 0.108865, 0.255552, 0.108865, 0, 0
2, 2520.00000, 0.256196, 0.109139, 0.256196, 0.109139, 0.256196, 0.109139, 0, 0
2, 2580.00000, 0.256832, 0.10941, 0.256833, 0.10941, 0.256832, 0.10941, 0, 0
2, 2640.00000, 0.257469, 0.109681, 0.257469, 0.109681, 0.257469, 0.109681, 0, 0
2, 2700.00000, 0.258113, 0.109955, 0.258113, 0.109955, 0.258113, 0.109955, 0, 0
2, 2760.00000, 0.258749, 0.110226, 0.258749, 0.110226, 0.258749, 0.110227, 0, 0
2, 2820.00000, 0.259385, 0.110497, 0.259386, 0.110497, 0.259385, 0.110498, 0, 0
2, 2880.00000, 0.260029, 0.110772, 0.26003, 0.110772, 0.260029, 0.110772, 0, 0
2, 2940.00000, 0.260666, 0.111043, 0.260666, 0.111043, 0.260666, 0.111043, 0, 0
2, 3000.00000, 0.261302, 0.111314, 0.261302, 0.111314, 0.261302, 0.111314, 0, 0
2, 3060.00000, 0.261946, 0.111588, 0.261946, 0.111588, 0.261946, 0.111588, 0, 0
2, 3120.00000, 0.262582, 0.111859, 0.262583, 0.111859, 0.262582, 0.11186, 0, 0
2, 3180.00000, 0.263219, 0.11213, 0.263219, 0.11213, 0.263219, 0.112131, 0, 0
2, 3240.00000, 0.263863, 0.112405, 0.263863, 0.112405, 0.263863, 0.112405, 0, 0
2, 3300.00000, 0.264499, 0.112676, 0.264499, 0.112676, 0.264499, 0.112676, 0, 0
2, 3360.00000, 0.265135, 0.112947, 0.265136, 0.112947, 0.265135, 0.112947, 0, 0
2, 3420.00000, 0.265779, 0.113221, 0.265779, 0.113221, 0.265779, 0.113221, 0, 0
2, 3480.00000, 0.266416, 0.113492, 0.266416, 0.113492, 0.266416, 0.113493, 0, 0
2, 3540.00000, 0.267052, 0.113763, 0.267052, 0.113763, 0.267052, 0.113764, 0, 0
3, 0.00000, 0.267696, 0.114038, 0.267696, 0.114038, 0.267696, 0.114038, 0, 0
3, 60.00000, 0.268332, 0.114309, 0.268333, 0.114309, 0.268332, 0.114309, 0, 0
3, 120.00000, 0.268463, 0.114365, 0.268463, 0.114365, 0.268463, 0.114365, 0, 0
3, 180.00000, 0.268586, 0.114417, 0.268586, 0.114417, 0.268586, 0.114417, 0, 0
3, 240.00000, 0.268716, 0.114473, 0.268716, 0.114473, 0.268716, 0.114473, 0, 0
3, 300.00000, 0.268847, 0.114528, 0.268847, 0.114528, 0.268847, 0.114528, 0, 0
3, 360.00000, 0.268969, 0.11458, 0.26897, 0.11458, 0.268969, 0.11458, 0, 0
3, 420.00000, 0.2691, 0.114636, 0.2691, 0.114636, 0.2691, 0.114636, 0, 0
3, 480.00000, 0.26923, 0.114692, 0.26923, 0.114692, 0.26923, 0.114692, 0, 0
3, 540.00000, 0.269353, 0.114744, 0.269353, 0.114744, 0.269353, 0.114744, 0, 0
3, 600.00000, 0.269483, 0.114799, 0.269483, 0.114799, 0.269483, 0.114799, 0, 0
3, 660.00000, 0.269613, 0.114855, 0.269614, 0.114855, 0.269613, 0.114855, 0, 0
3, 720.00000, 0.269736, 0.114907, 0.269736, 0.114907, 0.269736, 0.114907, 0, 0
3, 780.00000, 0.269866, 0.114963, 0.269866, 0.114963, 0.269866, 0.114963, 0, 0
3, 840.00000, 0.269997, 0.115018, 0.269997, 0.115018, 0.269997, 0.115018, 0, 0
3, 900.00000, 0.270119, 0.11507, 0.27012, 0.11507, 0.270119, 0.11507, 0, 0
3, 960.00000, 0.27025, 0.115126, 0.27025, 0.115126, 0.27025, 0.115126, 0, 0
3, 1020.00000, 0.27038, 0.115181, 0.27038, 0.115181, 0.27038, 0.115181, 0, 0
3, 1080.00000, 0.270503, 0.115234, 0.270503, 0.115234, 0.270503, 0.115234, 0, 0
3, 1140.00000, 0.270633, 0.115289, 0.270633, 0.115289, 0.270633, 0.115289, 0, 0
3, 1200.00000, 0.270763, 0.115345, 0.270763, 0.115345, 0.270763, 0.115345, 0, 0
3, 1260.00000, 0.270886, 0.115397, 0.270886, 0.115397, 0.270886, 0.115397, 0, 0
3, 1320.00000, 0.271016, 0.115452, 0.271017, 0.115452, 0.271016, 0.115453, 0, 0
3, 1380.00000, 0.271147, 0.115508, 0.271147, 0.115508, 0.271147, 0.115508, 0, 0
3, 1440.00000, 0.271269, 0.11556, 0.27127, 0.11556, 0.271269, 0.11556, 0, 0
3, 1500.00000, 0.2714, 0.115616, 0.2714, 0.115616, 0.2714, 0.115616, 0, 0
3, 1560.00000, 0.27153, 0.115671, 0.27153, 0.115671, 0.27153, 0.115671, 0, 0
3, 1620.00000, 0.271653, 0.115724, 0.271653, 0.115724, 0.271653, 0.115724, 0, 0
3, 1680.00000, 0.271783, 0.115779, 0.271783, 0.115779, 0.271783, 0.115779, 0, 0
3, 1740.00000, 0.271913, 0.115835, 0.271913, 0.115835, 0.271913, 0.115835, 0, 0
3, 1800.00000, 0.272036, 0.115887, 0.272036, 0.115887, 0.272036, 0.115887, 0, 0
3, 1860.00000, 0.272166, 0.115942, 0.272166, 0.115942, 0.272166, 0.115942, 0, 0
3, 1920.00000, 0.272297, 0.115998, 0.272297, 0.115998, 0.272297, 0.115998, 0, 0
3, 1980.00000, 0.272419, 0.11605, 0.27242, 0.11605, 0.272419, 0.11605, 0, 0
3, 2040.00000, 0.27255, 0.116106, 0.27255, 0.116106, 0.27255, 0.116106, 0, 0
3, 2100.00000, 0.27268, 0.116161, 0.27268, 0.116161, 0.27268, 0.116161, 0, 0
3, 2160.00000, 0.272803, 0.116213, 0.272803, 0.116213, 0.272803, 0.116213, 0, 0
3, 2220.00000, 0.272933, 0.116269, 0.272933, 0.116269, 0.272933, 0.116269, 0, 0
3, 2280.00000, 0.273063, 0.116324, 0.273063, 0.116324, 0.273063, 0.116325, 0, 0
3, 2340.00000, 0.273186, 0.116377, 0.273186, 0.116377, 0.273186, 0.116377, 0, 0
3, 2400.00000, 0.273316, 0.116432, 0.273317, 0.116432, 0.273316, 0.116432, 0, 0
3, 2460.00000, 0.273447, 0.116488, 0.273447, 0.116488, 0.273447, 0.116488, 0, 0
3, 2520.00000, 0.273569, 0.11654, 0.273569, 0.11654, 0.273569, 0.11654, 0, 0
3, 2580.00000, 0.2737, 0.116596, 0.2737, 0.116596, 0.2737, 0.116596, 0, 0
3, 2640.00000, 0.27383, 0.116651, 0.27383, 0.116651, 0.27383, 0.116651, 0, 0
3, 2700.00000, 0.273953, 0.116703, 0.273953, 0.116703, 0.273953, 0.116703, 0, 0
3, 2760.00000, 0.274083, 0.116759, 0.274083, 0.116759, 0.274083, 0.116759, 0, 0
3, 2820.00000, 0.274213, 0.116814, 0.274213, 0.116814, 0.274213, 0.116814, 0, 0
3, 2880.00000, 0.274336, 0.116867, 0.274336, 0.116867, 0.274336, 0.116867, 0, 0
3, 2940.00000, 0.274466, 0.116922, 0.274466, 0.116922, 0.274466, 0.116922, 0, 0
3, 3000.00000, 0.274597, 0.116978, 0.274597, 0.116978, 0.274597, 0.116978, 0, 0
3, 3060.00000, 0.274719, 0.11703, 0.27472, 0.11703, 0.274719, 0.11703, 0, 0
3, 3120.00000, 0.27485, 0.117085, 0.27485, 0.117085, 0.27485, 0.117086, 0, 0
3, 3180.00000, 0.27498, 0.117141, 0.27498, 0.117141, 0.27498, 0.117141, 0, 0
3, 3240.00000, 0.275103, 0.117193, 0.275103, 0.117193, 0.275103, 0.117193, 0, 0
3, 3300.00000, 0.275233, 0.117249, 0.275233, 0.117249, 0.275233, 0.117249, 0, 0
3, 3360.00000, 0.275363, 0.117304, 0.275364, 0.117304, 0.275363, 0.117304, 0, 0
3, 3420.00000, 0.275486, 0.117357, 0.275486, 0.117357, 0.275486, 0.117357, 0, 0
3, 3480.00000, 0.275616, 0.117412, 0.275616, 0.117412, 0.275616, 0.117412, 0, 0
3, 3540.00000, 0.275747, 0.117468, 0.275747, 0.117468, 0.275747, 0.117468, 0, 0
4, 0.00000, 0.275869, 0.11752, 0.275869, 0.11752, 0.275869, 0.11752, 0, 0
4, 60.00000, 0.276, 0.117575, 0.276, 0.117575, 0.276, 0.117575, 0, 0
4, 120.00000, 0.276383, 0.117738, 0.276383, 0.117738, 0.276383, 0.117738, 0, 0
4, 180.00000, 0.276766, 0.117902, 0.276766, 0.117902, 0.276766, 0.117902, 0, 0
4, 240.00000, 0.277149, 0.118065, 0.277149, 0.118065, 0.277149, 0.118065, 0, 0
4, 300.00000, 0.277533, 0.118228, 0.277533, 0.118228, 0.277533, 0.118228, 0, 0
4, 360.00000, 0.277916, 0.118392, 0.277916, 0.118392, 0.277916, 0.118392, 0, 0
4, 420.00000, 0.278299, 0.118555, 0.278299, 0.118555, 0.278299, 0.118555, 0, 0
4, 480.00000, 0.278683, 0.118718, 0.278683, 0.118718, 0.278683, 0.118718, 0, 0
4, 540.00000, 0.279066, 0.118881, 0.279066, 0.118881, 0.279066, 0.118882, 0, 0
4, 600.00000, 0.279449, 0.119045, 0.279449, 0.119045, 0.279449, 0.119045, 0, 0
4, 660.00000, 0.279833, 0.119208, 0.279833, 0.119208, 0.279833, 0.119208, 0, 0
4, 720.00000, 0.280216, 0.119371, 0.280216, 0.119371, 0.280216, 0.119371, 0, 0
4, 780.00000, 0.280599, 0.119535, 0.280599, 0.119535, 0.280599, 0.119535, 0, 0
4, 840.00000, 0.280983, 0.119698, 0.280983, 0.119698, 0.280983, 0.119698, 0, 0
4, 900.00000, 0.281366, 0.119861, 0.281366, 0.119861, 0.281366, 0.119861, 0, 0
4, 960.00000, 0.281749, 0.120025, 0.281749, 0.120025, 0.281749, 0.120025, 0, 0
4, 1020.00000, 0.282133, 0.120188, 0.282133, 0.120188, 0.282133, 0.120188, 0, 0
4, 1080.00000, 0.282516, 0.120351, 0.282516, 0.120351, 0.282516, 0.120351, 0, 0
4, 1140.00000, 0.282899, 0.120514, 0.282899, 0.120514, 0.282899, 0.120515, 0, 0
4, 1200.00000, 0.283283, 0.120678, 0.283283, 0.120678, 0.283283, 0.120678, 0, 0
4, 1260.00000, 0.283666, 0.120841, 0.283666, 0.120841, 0.283666, 0.120841, 0, 0
4, 1320.00000, 0.284049, 0.121004, 0.284049, 0.121004, 0.284049, 0.121004, 0, 0
4, 1380.00000, 0.284433, 0.121168, 0.284433, 0.121168, 0.284433, 0.121168, 0, 0
4, 1440.00000, 0.284816, 0.121331, 0.284816, 0.121331, 0.284816, 0.121331, 0, 0
