hour,t(sec),V1,VAngle1,V2,VAngle2,V3,VAngle3,V4,VAngle4,I1,IAngle1,I2,IAngle2,I3,IAngle3,I4,IAngle4
0, 60.00000, 127.156, -30.7443, 126.705, -150.772, 126.89, 89.4148, 0, 0, 2.13705, -53.8181, 2.14466, -173.846, 2.14153, 66.341, 0.0131451, -30.6638
0, 120.00000, 127.156, -30.7443, 126.705, -150.772, 126.89, 89.4148, 0, 0, 2.13705, -53.8182, 2.14467, -173.846, 2.14154, 66.3409, 0.0131528, -30.6829
0, 180.00000, 127.156, -30.7443, 126.705, -150.772, 126.89, 89.4148, 0, 0, 2.13705, -53.8182, 2.14467, -173.846, 2.14154, 66.3409, 0.0131528, -30.6831
0, 240.00000, 127.156, -30.7443, 126.705, -150.772, 126.89, 89.4148, 0, 0, 2.13705, -53.8182, 2.14467, -173.846, 2.14154, 66.3409, 0.0131528, -30.6831
0, 300.00000, 127.156, -30.7443, 126.705, -150.772, 126.89, 89.4148, 0, 0, 2.13705, -53.8182, 2.14467, -173.846, 2.14154, 66.3409, 0.0131528, -30.6831
0, 360.00000, 127.156, -30.7443, 126.705, -150.772, 126.89, 89.4148, 0, 0, 2.13705, -53.8182, 2.14467, -173.846, 2.14154, 66.3409, 0.0131528, -30.6831
0, 420.00000, 127.156, -30.7443, 126.705, -150.772, 126.89, 89.4148, 0, 0, 2.13705, -53.8182, 2.14467, -173.846, 2.14154, 66.3409, 0.0131528, -30.6831
0, 480.00000, 127.156, -30.7443, 126.705, -150.772, 126.89, 89.4148, 0, 0, 2.13705, -53.8182, 2.14467, -173.846, 2.14154, 66.3409, 0.0131528, -30.6831
0, 540.00000, 127.156, -30.7443, 126.705, -150.772, 126.89, 89.4148, 0, 0, 2.13705, -53.8182, 2.14467, -173.846, 2.14154, 66.3409, 0.0131528, -30.6831
0, 600.00000, 127.156, -30.7443, 126.705, -150.772, 126.89, 89.4148, 0, 0, 2.13705, -53.8182, 2.14467, -173.846, 2.14154, 66.3409, 0.0131528, -30.6831
0, 660.00000, 127.156, -30.7443, 126.705, -150.772, 126.89, 89.4148, 0, 0, 2.13705, -53.8182, 2.14467, -173.846, 2.14154, 66.3409, 0.0131528, -30.6831
0, 720.00000, 127.156, -30.7443, 126.705, -150.772, 126.89, 89.4148, 0, 0, 2.13705, -53.8182, 2.14467, -173.846, 2.14154, 66.3409, 0.0131528, -30.6831
0, 780.00000, 127.156, -30.7443, 126.705, -150.772, 126.89, 89.4148, 0, 0, 2.13705, -53.8182, 2.14467, -173.846, 2.14154, 66.3409, 0.0131528, -30.6831
0, 840.00000, 127.156, -30.7443, 126.705, -150.772, 126.89, 89.4148, 0, 0, 2.13705, -53.8182, 2.14467, -173.846, 2.14154, 66.3409, 0.0131528, -30.6831
0, 900.00000, 127.156, -30.7443, 126.705, -150.772, 126.89, 89.4148, 0, 0, 2.13705, -53.8182, 2.14467, -173.846, 2.14154, 66.3409, 0.0131528, -30.6831
0, 960.00000, 127.151, -30.7449, 126.575, -150.948, 126.482, 89.3688, 0, 0, 2.13713, -53.8186, 2.14683, -174.022, 2.14841, 66.2953, 0.0209963, -62.1488
0, 1020.00000, 127.151, -30.7449, 126.575, -150.948, 126.482, 89.3687, 0, 0, 2.13714, -53.8188, 2.14686, -174.022, 2.14844, 66.2948, 0.0210171, -62.1805
0, 1080.00000, 127.151, -30.7449, 126.575, -150.948, 126.482, 89.3687, 0, 0, 2.13714, -53.8188, 2.14686, -174.022, 2.14844, 66.2948, 0.0210172, -62.1804
0, 1140.00000, 127.151, -30.7449, 126.575, -150.948, 126.482, 89.3687, 0, 0, 2.13714, -53.8188, 2.14686, -174.022, 2.14844, 66.2948, 0.0210172, -62.1804
0, 1200.00000, 127.151, -30.7449, 126.575, -150.948, 126.482, 89.3687, 0, 0, 2.13714, -53.8188, 2.14686, -174.022, 2.14844, 66.2948, 0.0210172, -62.1804
0, 1260.00000, 127.151, -30.7449, 126.575, -150.948, 126.482, 89.3687, 0, 0, 2.13714, -53.8188, 2.14686, -174.022, 2.14844, 66.2948, 0.0210172, -62.1804
0, 1320.00000, 127.151, -30.7449, 126.575, -150.948, 126.482, 89.3687, 0, 0, 2.13714, -53.8188, 2.14686, -174.022, 2.14844, 66.2948, 0.0210172, -62.1804
0, 1380.00000, 127.151, -30.7449, 126.575, -150.948, 126.482, 89.3687, 0, 0, 2.13714, -53.8188, 2.14686, -174.022, 2.14844, 66.2948, 0.0210172, -62.1804
0, 1440.00000, 127.151, -30.7449, 126.575, -150.948, 126.482, 89.3687, 0, 0, 2.13714, -53.8188, 2.14686, -174.022, 2.14844, 66.2948, 0.0210172, -62.1804
0, 1500.00000, 127.151, -30.7449, 126.575, -150.948, 126.482, 89.3687, 0, 0, 2.13714, -53.8188, 2.14686, -174.022, 2.14844, 66.2948, 0.0210172, -62.1804
0, 1560.00000, 127.151, -30.7449, 126.575, -150.948, 126.482, 89.3687, 0, 0, 2.13714, -53.8188, 2.14686, -174.022, 2.14844, 66.2948, 0.0210172, -62.1804
0, 1620.00000, 127.151, -30.7449, 126.575, -150.948, 126.482, 89.3687, 0, 0, 2.13714, -53.8188, 2.14686, -174.022, 2.14844, 66.2948, 0.0210172, -62.1804
0, 1680.00000, 127.151, -30.7449, 126.575, -150.948, 126.482, 89.3687, 0, 0, 2.13714, -53.8188, 2.14686, -174.022, 2.14844, 66.2948, 0.0210172, -62.1804
0, 1740.00000, 127.151, -30.7449, 126.575, -150.948, 126.482, 89.3687, 0, 0, 2.13714, -53.8188, 2.14686, -174.022, 2.14844, 66.2948, 0.0210172, -62.1804
0, 1800.00000, 127.151, -30.7449, 126.575, -150.948, 126.482, 89.3687, 0, 0, 2.13714, -53.8188, 2.14686, -174.022, 2.14844, 66.2948, 0.0210172, -62.1804
0, 1860.00000, 127.151, -30.7449, 126.575, -150.948, 126.482, 89.3687, 0, 0, 2.13714, -53.8188, 2.14686, -174.022, 2.14844, 66.2948, 0.0210172, -62.1804
0, 1920.00000, 127.151, -30.7449, 126.575, -150.948, 126.482, 89.3687, 0, 0, 2.13714, -53.8188, 2.14686, -174.022, 2.14844, 66.2948, 0.0210172, -62.1804
0, 1980.00000, 127.151, -30.7449, 126.575, -150.948, 126.482, 89.3687, 0, 0, 2.13714, -53.8188, 2.14686, -174.022, 2.14844, 66.2948, 0.0210172, -62.1804
0, 2040.00000, 127.151, -30.7449, 126.575, -150.948, 126.482, 89.3687, 0, 0, 2.13714, -53.8188, 2.14686, -174.022, 2.14844, 66.2948, 0.0210172, -62.1804
0, 2100.00000, 127.151, -30.7449, 126.575, -150.948, 126.482, 89.3687, 0, 0, 2.13714, -53.8188, 2.14686, -174.022, 2.14844, 66.2948, 0.0210172, -62.1804
0, 2160.00000, 127.151, -30.7449, 126.575, -150.948, 126.482, 89.3687, 0, 0, 2.13714, -53.8188, 2.14686, -174.022, 2.14844, 66.2948, 0.0210172, -62.1804
0, 2220.00000, 127.151, -30.7449, 126.575, -150.948, 126.482, 89.3687, 0, 0, 2.13714, -53.8188, 2.14686, -174.022, 2.14844, 66.2948, 0.0210172, -62.1804
0, 2280.00000, 127.151, -30.7449, 126.575, -150.948, 126.482, 89.3687, 0, 0, 2.13714, -53.8188, 2.14686, -174.022, 2.14844, 66.2948, 0.0210172, -62.1804
0, 2340.00000, 127.151, -30.7449, 126.575, -150.948, 126.482, 89.3687, 0, 0, 2.13714, -53.8188, 2.14686, -174.022, 2.14844, 66.2948, 0.0210172, -62.1804
0, 2400.00000, 127.151, -30.7449, 126.575, -150.948, 126.482, 89.3687, 0, 0, 2.13714, -53.8188, 2.14686, -174.022, 2.14844, 66.2948, 0.0210172, -62.1804
0, 2460.00000, 127.151, -30.7449, 126.575, -150.948, 126.482, 89.3687, 0, 0, 2.13714, -53.8188, 2.14686, -174.022, 2.14844, 66.2948, 0.0210172, -62.1804
0, 2520.00000, 127.151, -30.7449, 126.575, -150.948, 126.482, 89.3687, 0, 0, 2.13714, -53.8188, 2.14686, -174.022, 2.14844, 66.2948, 0.0210172, -62.1804
0, 2580.00000, 127.151, -30.7449, 126.575, -150.948, 126.482, 89.3687, 0, 0, 2.13714, -53.8188, 2.14686, -174.022, 2.14844, 66.2948, 0.0210172, -62.1804
0, 2640.00000, 127.151, -30.7449, 126.575, -150.948, 126.482, 89.3687, 0, 0, 2.13714, -53.8188, 2.14686, -174.022, 2.14844, 66.2948, 0.0210172, -62.1804
0, 2700.00000, 127.151, -30.7449, 126.575, -150.948, 126.482, 89.3687, 0, 0, 2.13714, -53.8188, 2.14686, -174.022, 2.14844, 66.2948, 0.0210172, -62.1804
0, 2760.00000, 127.151, -30.7449, 126.575, -150.948, 126.482, 89.3687, 0, 0, 2.13714, -53.8188, 2.14686, -174.022, 2.14844, 66.2948, 0.0210172, -62.1804
0, 2820.00000, 127.151, -30.7449, 126.575, -150.948, 126.482, 89.3687, 0, 0, 2.13714, -53.8188, 2.14686, -174.022, 2.14844, 66.2948, 0.0210172, -62.1804
0, 2880.00000, 127.151, -30.7449, 126.575, -150.948, 126.482, 89.3687, 0, 0, 2.13714, -53.8188, 2.14686, -174.022, 2.14844, 66.2948, 0.0210172, -62.1804
0, 2940.00000, 127.151, -30.7449, 126.575, -150.948, 126.482, 89.3687, 0, 0, 2.13714, -53.8188, 2.14686, -174.022, 2.14844, 66.2948, 0.0210172, -62.1804
0, 3000.00000, 127.151, -30.7449, 126.575, -150.948, 126.482, 89.3687, 0, 0, 2.13714, -53.8188, 2.14686, -174.022, 2.14844, 66.2948, 0.0210172, -62.1804
0, 3060.00000, 127.151, -30.7449, 126.575, -150.948, 126.482, 89.3687, 0, 0, 2.13714, -53.8188, 2.14686, -174.022, 2.14844, 66.2948, 0.0210172, -62.1804
0, 3120.00000, 127.151, -30.7449, 126.575, -150.948, 126.482, 89.3687, 0, 0, 2.13714, -53.8188, 2.14686, -174.022, 2.14844, 66.2948, 0.0210172, -62.1804
0, 3180.00000, 127.151, -30.7449, 126.575, -150.948, 126.482, 89.3687, 0, 0, 2.13714, -53.8188, 2.14686, -174.022, 2.14844, 66.2948, 0.0210172, -62.1804
0, 3240.00000, 127.151, -30.7449, 126.575, -150.948, 126.482, 89.3687, 0, 0, 2.13714, -53.8188, 2.14686, -174.022, 2.14844, 66.2948, 0.0210172, -62.1804
0, 3300.00000, 127.151, -30.7449, 126.575, -150.948, 126.482, 89.3687, 0, 0, 2.13714, -53.8188, 2.14686, -174.022, 2.14844, 66.2948, 0.0210172, -62.1804
0, 3360.00000, 127.151, -30.7449, 126.575, -150.948, 126.482, 89.3687, 0, 0, 2.13714, -53.8188, 2.14686, -174.022, 2.14844, 66.2948, 0.0210172, -62.1804
0, 3420.00000, 127.151, -30.7449, 126.575, -150.948, 126.482, 89.3687, 0, 0, 2.13714, -53.8188, 2.14686, -174.022, 2.14844, 66.2948, 0.0210172, -62.1804
0, 3480.00000, 127.151, -30.7449, 126.575, -150.948, 126.482, 89.3687, 0, 0, 2.13714, -53.8188, 2.14686, -174.022, 2.14844, 66.2948, 0.0210172, -62.1804
0, 3540.00000, 127.151, -30.7449, 126.575, -150.948, 126.482, 89.3687, 0, 0, 2.13714, -53.8188, 2.14686, -174.022, 2.14844, 66.2948, 0.0210172, -62.1804
1, 0.00000, 127.151, -30.7449, 126.575, -150.948, 126.482, 89.3687, 0, 0, 2.13714, -53.8188, 2.14686, -174.022, 2.14844, 66.2948, 0.0210172, -62.1804
1, 60.00000, 127.151, -30.7449, 126.575, -150.948, 126.482, 89.3687, 0, 0, 2.13714, -53.8188, 2.14686, -174.022, 2.14844, 66.2948, 0.0210172, -62.1804
1, 120.00000, 127.151, -30.7449, 126.575, -150.948, 126.482, 89.3687, 0, 0, 2.13714, -53.8188, 2.14686, -174.022, 2.14844, 66.2948, 0.0210172, -62.1804
1, 180.00000, 127.151, -30.7449, 126.575, -150.948, 126.482, 89.3687, 0, 0, 2.13714, -53.8188, 2.14686, -174.022, 2.14844, 66.2948, 0.0210172, -62.1804
1, 240.00000, 127.151, -30.7449, 126.575, -150.948, 126.482, 89.3687, 0, 0, 2.13714, -53.8188, 2.14686, -174.022, 2.14844, 66.2948, 0.0210172, -62.1804
1, 300.00000, 127.151, -30.7449, 126.575, -150.948, 126.482, 89.3687, 0, 0, 2.13714, -53.8188, 2.14686, -174.022, 2.14844, 66.2948, 0.0210172, -62.1804
1, 360.00000, 127.151, -30.7449, 126.575, -150.948, 126.482, 89.3687, 0, 0, 2.13714, -53.8188, 2.14686, -174.022, 2.14844, 66.2948, 0.0210172, -62.1804
1, 420.00000, 127.151, -30.7449, 126.575, -150.948, 126.482, 89.3687, 0, 0, 2.13714, -53.8188, 2.14686, -174.022, 2.14844, 66.2948, 0.0210172, -62.1804
1, 480.00000, 127.151, -30.7449, 126.575, -150.948, 126.482, 89.3687, 0, 0, 2.13714, -53.8188, 2.14686, -174.022, 2.14844, 66.2948, 0.0210172, -62.1804
1, 540.00000, 127.151, -30.7449, 126.575, -150.948, 126.482, 89.3687, 0, 0, 2.13714, -53.8188, 2.14686, -174.022, 2.14844, 66.2948, 0.0210172, -62.1804
1, 600.00000, 127.151, -30.7449, 126.575, -150.948, 126.482, 89.3687, 0, 0, 2.13714, -53.8188, 2.14686, -174.022, 2.14844, 66.2948, 0.0210172, -62.1804
1, 660.00000, 127.151, -30.7449, 126.575, -150.948, 126.482, 89.3687, 0, 0, 2.13714, -53.8188, 2.14686, -174.022, 2.14844, 66.2948, 0.0210172, -62.1804
1, 720.00000, 127.151, -30.7449, 126.575, -150.948, 126.482, 89.3687, 0, 0, 2.13714, -53.8188, 2.14686, -174.022, 2.14844, 66.2948, 0.0210172, -62.1804
1, 780.00000, 127.151, -30.7449, 126.575, -150.948, 126.482, 89.3687, 0, 0, 2.13714, -53.8188, 2.14686, -174.022, 2.14844, 66.2948, 0.0210172, -62.1804
1, 840.00000, 127.151, -30.7449, 126.575, -150.948, 126.482, 89.3687, 0, 0, 2.13714, -53.8188, 2.14686, -174.022, 2.14844, 66.2948, 0.0210172, -62.1804
1, 900.00000, 127.151, -30.7449, 126.575, -150.948, 126.482, 89.3687, 0, 0, 2.13714, -53.8188, 2.14686, -174.022, 2.14844, 66.2948, 0.0210172, -62.1804
1, 960.00000, 127.151, -30.7449, 126.575, -150.948, 126.482, 89.3687, 0, 0, 2.13714, -53.8188, 2.14686, -174.022, 2.14844, 66.2948, 0.0210172, -62.1804
1, 1020.00000, 127.151, -30.7449, 126.575, -150.948, 126.482, 89.3687, 0, 0, 2.13714, -53.8188, 2.14686, -174.022, 2.14844, 66.2948, 0.0210172, -62.1804
1, 1080.00000, 127.151, -30.7449, 126.575, -150.948, 126.482, 89.3687, 0, 0, 2.13714, -53.8188, 2.14686, -174.022, 2.14844, 66.2948, 0.0210172, -62.1804
1, 1140.00000, 127.151, -30.7449, 126.575, -150.948, 126.482, 89.3687, 0, 0, 2.13714, -53.8188, 2.14686, -174.022, 2.14844, 66.2948, 0.0210172, -62.1804
1, 1200.00000, 127.151, -30.7449, 126.575, -150.948, 126.482, 89.3687, 0, 0, 2.13714, -53.8188, 2.14686, -174.022, 2.14844, 66.2948, 0.0210172, -62.1804
1, 1260.00000, 127.151, -30.7449, 126.575, -150.948, 126.482, 89.3687, 0, 0, 2.13714, -53.8188, 2.14686, -174.022, 2.14844, 66.2948, 0.0210172, -62.1804
1, 1320.00000, 127.151, -30.7449, 126.575, -150.948, 126.482, 89.3687, 0, 0, 2.13714, -53.8188, 2.14686, -174.022, 2.14844, 66.2948, 0.0210172, -62.1804
1, 1380.00000, 127.151, -30.7449, 126.575, -150.948, 126.482, 89.3687, 0, 0, 2.13714, -53.8188, 2.14686, -174.022, 2.14844, 66.2948, 0.0210172, -62.1804
1, 1440.00000, 127.151, -30.7449, 126.575, -150.948, 126.482, 89.3687, 0, 0, 2.13714, -53.8188, 2.14686, -174.022, 2.14844, 66.2948, 0.0210172, -62.1804
1, 1500.00000, 127.151, -30.7449, 126.575, -150.948, 126.482, 89.3687, 0, 0, 2.13714, -53.8188, 2.14686, -174.022, 2.14844, 66.2948, 0.0210172, -62.1804
1, 1560.00000, 127.151, -30.7449, 126.575, -150.948, 126.482, 89.3687, 0, 0, 2.13714, -53.8188, 2.14686, -174.022, 2.14844, 66.2948, 0.0210172, -62.1804
1, 1620.00000, 127.151, -30.7449, 126.575, -150.948, 126.482, 89.3687, 0, 0, 2.13714, -53.8188, 2.14686, -174.022, 2.14844, 66.2948, 0.0210172, -62.1804
1, 1680.00000, 127.151, -30.7449, 126.575, -150.948, 126.482, 89.3687, 0, 0, 2.13714, -53.8188, 2.14686, -174.022, 2.14844, 66.2948, 0.0210172, -62.1804
1, 1740.00000, 127.151, -30.7449, 126.575, -150.948, 126.482, 89.3687, 0, 0, 2.13714, -53.8188, 2.14686, -174.022, 2.14844, 66.2948, 0.0210172, -62.1804
1, 1800.00000, 127.151, -30.7449, 126.575, -150.948, 126.482, 89.3687, 0, 0, 2.13714, -53.8188, 2.14686, -174.022, 2.14844, 66.2948, 0.0210172, -62.1804
1, 1860.00000, 127.151, -30.7449, 126.575, -150.948, 126.482, 89.3687, 0, 0, 2.13714, -53.8188, 2.14686, -174.022, 2.14844, 66.2948, 0.0210172, -62.1804
1, 1920.00000, 127.151, -30.7449, 126.575, -150.948, 126.482, 89.3687, 0, 0, 2.13714, -53.8188, 2.14686, -174.022, 2.14844, 66.2948, 0.0210172, -62.1804
1, 1980.00000, 127.151, -30.7449, 126.575, -150.948, 126.482, 89.3687, 0, 0, 2.13714, -53.8188, 2.14686, -174.022, 2.14844, 66.2948, 0.0210172, -62.1804
1, 2040.00000, 127.156, -30.7442, 126.706, -150.771, 126.892, 89.4154, 0, 0, 2.13706, -53.8183, 2.14468, -173.846, 2.14153, 66.3409, 0.0131531, -30.5362
1, 2100.00000, 127.156, -30.7442, 126.706, -150.771, 126.893, 89.4155, 0, 0, 2.13705, -53.8181, 2.14465, -173.845, 2.14149, 66.3415, 0.0131298, -30.3471
1, 2160.00000, 127.156, -30.7442, 126.706, -150.771, 126.893, 89.4155, 0, 0, 2.13705, -53.8181, 2.14465, -173.845, 2.14149, 66.3416, 0.0131296, -30.3462
1, 2220.00000, 127.156, -30.7442, 126.706, -150.771, 126.893, 89.4155, 0, 0, 2.13705, -53.8181, 2.14465, -173.845, 2.14149, 66.3416, 0.0131296, -30.3462
1, 2280.00000, 127.156, -30.7442, 126.706, -150.771, 126.893, 89.4155, 0, 0, 2.13705, -53.8181, 2.14465, -173.845, 2.14149, 66.3416, 0.0131296, -30.3462
1, 2340.00000, 127.156, -30.7442, 126.706, -150.771, 126.893, 89.4155, 0, 0, 2.13705, -53.8181, 2.14465, -173.845, 2.14149, 66.3416, 0.0131296, -30.3462
1, 2400.00000, 127.156, -30.7442, 126.706, -150.771, 126.893, 89.4155, 0, 0, 2.13705, -53.8181, 2.14465, -173.845, 2.14149, 66.3416, 0.0131296, -30.3462
1, 2460.00000, 127.156, -30.7442, 126.706, -150.771, 126.893, 89.4155, 0, 0, 2.13705, -53.8181, 2.14465, -173.845, 2.14149, 66.3416, 0.0131296, -30.3462
1, 2520.00000, 127.161, -30.7436, 126.832, -150.597, 127.293, 89.4611, 0, 0, 2.13697, -53.8177, 2.14252, -173.672, 2.13477, 66.3868, 0.0137201, 21.2606
1, 2580.00000, 127.161, -30.7436, 126.833, -150.597, 127.293, 89.4612, 0, 0, 2.13697, -53.8175, 2.1425, -173.671, 2.13475, 66.3872, 0.0137304, 21.3568
1, 2640.00000, 127.161, -30.7436, 126.833, -150.597, 127.293, 89.4612, 0, 0, 2.13697, -53.8175, 2.1425, -173.671, 2.13475, 66.3872, 0.0137304, 21.3572
1, 2700.00000, 127.161, -30.7436, 126.833, -150.597, 127.293, 89.4612, 0, 0, 2.13697, -53.8175, 2.1425, -173.671, 2.13475, 66.3872, 0.0137304, 21.3572
1, 2760.00000, 127.287, -30.5719, 127.23, -150.553, 127.295, 89.4613, 0, 0, 2.13487, -53.6462, 2.13584, -173.628, 2.13473, 66.3874, 0.00213344, 11.2947
1, 2820.00000, 127.287, -30.5719, 127.23, -150.553, 127.295, 89.4613, 0, 0, 2.13486, -53.6458, 2.13582, -173.627, 2.13472, 66.3874, 0.00210493, 11.4398
1, 2880.00000, 127.287, -30.5719, 127.23, -150.553, 127.295, 89.4613, 0, 0, 2.13486, -53.6458, 2.13582, -173.627, 2.13472, 66.3874, 0.00210484, 11.4403
1, 2940.00000, 127.287, -30.5719, 127.23, -150.553, 127.295, 89.4613, 0, 0, 2.13486, -53.6458, 2.13582, -173.627, 2.13472, 66.3874, 0.00210484, 11.4403
1, 3000.00000, 127.287, -30.5719, 127.23, -150.553, 127.295, 89.4613, 0, 0, 2.13486, -53.6458, 2.13582, -173.627, 2.13472, 66.3874, 0.00210484, 11.4403
1, 3060.00000, 127.287, -30.5719, 127.23, -150.553, 127.295, 89.4613, 0, 0, 2.13486, -53.6458, 2.13582, -173.627, 2.13472, 66.3874, 0.00210484, 11.4403
1, 3120.00000, 127.287, -30.5719, 127.23, -150.553, 127.295, 89.4613, 0, 0, 2.13486, -53.6458, 2.13582, -173.627, 2.13472, 66.3874, 0.00210484, 11.4403
1, 3180.00000, 127.287, -30.5719, 127.23, -150.553, 127.295, 89.4613, 0, 0, 2.13486, -53.6458, 2.13582, -173.627, 2.13472, 66.3874, 0.00210484, 11.4403
1, 3240.00000, 127.287, -30.5719, 127.23, -150.553, 127.295, 89.4613, 0, 0, 2.13486, -53.6458, 2.13582, -173.627, 2.13472, 66.3874, 0.00210484, 11.4403
1, 3300.00000, 127.287, -30.5719, 127.23, -150.553, 127.295, 89.4613, 0, 0, 2.13486, -53.6458, 2.13582, -173.627, 2.13472, 66.3874, 0.00210484, 11.4403
1, 3360.00000, 127.287, -30.5719, 127.23, -150.553, 127.295, 89.4613, 0, 0, 2.13486, -53.6458, 2.13582, -173.627, 2.13472, 66.3874, 0.00210484, 11.4403
1, 3420.00000, 127.287, -30.5719, 127.23, -150.553, 127.295, 89.4613, 0, 0, 2.13486, -53.6458, 2.13582, -173.627, 2.13472, 66.3874, 0.00210484, 11.4403
1, 3480.00000, 127.287, -30.5719, 127.23, -150.553, 127.295, 89.4613, 0, 0, 2.13486, -53.6458, 2.13582, -173.627, 2.13472, 66.3874, 0.00210484, 11.4403
1, 3540.00000, 127.287, -30.5719, 127.23, -150.553, 127.295, 89.4613, 0, 0, 2.13486, -53.6458, 2.13582, -173.627, 2.13472, 66.3874, 0.00210484, 11.4403
2, 0.00000, 127.287, -30.5719, 127.23, -150.553, 127.295, 89.4613, 0, 0, 2.13486, -53.6458, 2.13582, -173.627, 2.13472, 66.3874, 0.00210484, 11.4403
2, 60.00000, 127.287, -30.5719, 127.23, -150.553, 127.295, 89.4613, 0, 0, 2.13486, -53.6458, 2.13582, -173.627, 2.13472, 66.3874, 0.00210484, 11.4403
2, 120.00000, 127.283, -30.573, 127.226, -150.555, 127.291, 89.4602, 0, 0, 2.14082, -53.6468, 2.14178, -173.628, 2.14068, 66.3864, 0.00211031, 11.4606
2, 180.00000, 127.28, -30.5741, 127.223, -150.556, 127.288, 89.4591, 0, 0, 2.14685, -53.6479, 2.14782, -173.629, 2.14672, 66.3853, 0.00211624, 11.4694
2, 240.00000, 127.277, -30.5752, 127.22, -150.557, 127.285, 89.458, 0, 0, 2.15282, -53.6491, 2.15378, -173.631, 2.15268, 66.3841, 0.00212211, 11.4777
2, 300.00000, 127.273, -30.5763, 127.216, -150.558, 127.281, 89.4569, 0, 0, 2.15878, -53.6502, 2.15975, -173.632, 2.15864, 66.383, 0.00212797, 11.4862
2, 360.00000, 127.27, -30.5774, 127.213, -150.559, 127.278, 89.4558, 0, 0, 2.16482, -53.6513, 2.16579, -173.633, 2.16468, 66.3819, 0.0021339, 11.4949
2, 420.00000, 127.266, -30.5785, 127.21, -150.56, 127.275, 89.4547, 0, 0, 2.17078, -53.6524, 2.17175, -173.634, 2.17064, 66.3808, 0.00213977, 11.5033
2, 480.00000, 127.263, -30.5796, 127.206, -150.561, 127.271, 89.4536, 0, 0, 2.17675, -53.6535, 2.17772, -173.635, 2.17661, 66.3797, 0.00214564, 11.5118
2, 540.00000, 127.26, -30.5807, 127.203, -150.562, 127.268, 89.4525, 0, 0, 2.18278, -53.6546, 2.18376, -173.636, 2.18264, 66.3786, 0.00215157, 11.5206
2, 600.00000, 127.256, -30.5818, 127.199, -150.563, 127.265, 89.4514, 0, 0, 2.18875, -53.6557, 2.18973, -173.637, 2.18861, 66.3775, 0.00215744, 11.529
