hour,t(sec),V1,VAngle1,V2,VAngle2,V3,VAngle3,V4,VAngle4,I1,IAngle1,I2,IAngle2,I3,IAngle3,I4,IAngle4
0, 60.00000, 126.453, -30.6368, 128.735, -150.729, 127.327, 88.5062, 0, 0, 2.57442, -53.7107, 2.52882, -173.802, 2.55675, 65.4327, 0.0761476, 162.586
0, 120.00000, 126.453, -30.6367, 128.757, -150.729, 127.336, 88.4979, 0, 0, 2.57442, -53.7106, 2.52839, -173.803, 2.55657, 65.4243, 0.0768788, 162.57
0, 180.00000, 126.453, -30.6366, 128.776, -150.73, 127.344, 88.4903, 0, 0, 2.57442, -53.7105, 2.52801, -173.804, 2.55641, 65.4168, 0.0775371, 162.556
0, 240.00000, 126.453, -30.6365, 128.794, -150.731, 127.351, 88.4836, 0, 0, 2.57442, -53.7105, 2.52766, -173.804, 2.55627, 65.41, 0.0781298, 162.545
0, 300.00000, 126.453, -30.6365, 128.809, -150.731, 127.357, 88.4774, 0, 0, 2.57441, -53.7104, 2.52735, -173.805, 2.55614, 65.4038, 0.0786633, 162.535
0, 360.00000, 126.453, -30.6364, 128.824, -150.731, 127.363, 88.4719, 0, 0, 2.57441, -53.7104, 2.52707, -173.805, 2.55602, 65.3983, 0.0791436, 162.527
0, 420.00000, 126.453, -30.6364, 128.836, -150.732, 127.368, 88.467, 0, 0, 2.57441, -53.7103, 2.52682, -173.806, 2.55592, 65.3933, 0.0795759, 162.52
0, 480.00000, 126.454, -30.6363, 128.848, -150.732, 127.373, 88.4625, 0, 0, 2.57441, -53.7102, 2.52659, -173.806, 2.55583, 65.3888, 0.079965, 162.513
0, 540.00000, 126.454, -30.6363, 128.858, -150.733, 127.377, 88.4585, 0, 0, 2.57441, -53.7102, 2.52638, -173.806, 2.55574, 65.3848, 0.0803153, 162.508
0, 600.00000, 126.454, -30.6362, 128.867, -150.733, 127.381, 88.4549, 0, 0, 2.57441, -53.7102, 2.5262, -173.807, 2.55567, 65.3811, 0.0806306, 162.503
0, 660.00000, 126.454, -30.6362, 128.876, -150.733, 127.384, 88.4516, 0, 0, 2.57441, -53.7101, 2.52603, -173.807, 2.5556, 65.3779, 0.0809145, 162.499
0, 720.00000, 126.454, -30.6362, 128.883, -150.733, 127.387, 88.4487, 0, 0, 2.57441, -53.7101, 2.52589, -173.807, 2.55554, 65.3749, 0.0811699, 162.496
0, 780.00000, 126.454, -30.6361, 128.89, -150.734, 127.39, 88.4461, 0, 0, 2.57441, -53.7101, 2.52575, -173.808, 2.55548, 65.3723, 0.0813998, 162.493
0, 840.00000, 126.454, -30.6361, 128.896, -150.734, 127.393, 88.4437, 0, 0, 2.57441, -53.71, 2.52563, -173.808, 2.55543, 65.3699, 0.0816068, 162.49
0, 900.00000, 126.454, -30.6361, 128.902, -150.734, 127.395, 88.4415, 0, 0, 2.57441, -53.71, 2.52552, -173.808, 2.55539, 65.3677, 0.0817931, 162.487
0, 960.00000, 126.058, -30.6756, 128.899, -150.74, 127.255, 88.2731, 0, 0, 2.58248, -53.7495, 2.52557, -173.813, 2.55819, 65.1993, 0.0950148, 159.973
0, 1020.00000, 126.058, -30.6755, 128.904, -150.74, 127.257, 88.2714, 0, 0, 2.58248, -53.7495, 2.52548, -173.814, 2.55815, 65.1975, 0.0951645, 159.976
0, 1080.00000, 126.058, -30.6755, 128.908, -150.74, 127.259, 88.2698, 0, 0, 2.58248, -53.7495, 2.5254, -173.814, 2.55812, 65.196, 0.0952995, 159.979
0, 1140.00000, 126.058, -30.6755, 128.911, -150.74, 127.26, 88.2684, 0, 0, 2.58248, -53.7494, 2.52533, -173.814, 2.55809, 65.1946, 0.0954209, 159.981
0, 1200.00000, 126.058, -30.6755, 128.915, -150.74, 127.262, 88.2672, 0, 0, 2.58248, -53.7494, 2.52527, -173.814, 2.55806, 65.1933, 0.0955303, 159.984
0, 1260.00000, 126.058, -30.6755, 128.918, -150.74, 127.263, 88.266, 0, 0, 2.58248, -53.7494, 2.52521, -173.814, 2.55804, 65.1922, 0.0956287, 159.986
0, 1320.00000, 126.058, -30.6754, 128.92, -150.74, 127.264, 88.265, 0, 0, 2.58248, -53.7494, 2.52516, -173.814, 2.55802, 65.1911, 0.0957172, 159.987
0, 1380.00000, 126.058, -30.6754, 128.923, -150.74, 127.265, 88.2641, 0, 0, 2.58248, -53.7494, 2.52511, -173.814, 2.558, 65.1902, 0.0957969, 159.989
0, 1440.00000, 126.058, -30.6754, 128.925, -150.74, 127.266, 88.2633, 0, 0, 2.58248, -53.7493, 2.52507, -173.814, 2.55798, 65.1894, 0.0958686, 159.991
0, 1500.00000, 126.058, -30.6754, 128.927, -150.741, 127.266, 88.2625, 0, 0, 2.58248, -53.7493, 2.52503, -173.814, 2.55797, 65.1887, 0.0959332, 159.992
0, 1560.00000, 126.059, -30.6754, 128.928, -150.741, 127.267, 88.2619, 0, 0, 2.58248, -53.7493, 2.525, -173.814, 2.55796, 65.188, 0.0959913, 159.993
0, 1620.00000, 126.059, -30.6754, 128.93, -150.741, 127.268, 88.2613, 0, 0, 2.58248, -53.7493, 2.52497, -173.815, 2.55794, 65.1874, 0.0960436, 159.994
0, 1680.00000, 126.059, -30.6754, 128.931, -150.741, 127.268, 88.2607, 0, 0, 2.58248, -53.7493, 2.52494, -173.815, 2.55793, 65.1868, 0.0960907, 159.995
0, 1740.00000, 126.059, -30.6754, 128.933, -150.741, 127.269, 88.2602, 0, 0, 2.58248, -53.7493, 2.52492, -173.815, 2.55792, 65.1863, 0.096133, 159.996
0, 1800.00000, 126.059, -30.6754, 128.934, -150.741, 127.269, 88.2598, 0, 0, 2.58248, -53.7493, 2.52489, -173.815, 2.55791, 65.1859, 0.0961711, 159.997
0, 1860.00000, 126.059, -30.6753, 128.935, -150.741, 127.27, 88.2594, 0, 0, 2.58248, -53.7493, 2.52487, -173.815, 2.5579, 65.1855, 0.0962055, 159.998
0, 1920.00000, 126.059, -30.6753, 128.936, -150.741, 127.27, 88.2591, 0, 0, 2.58248, -53.7493, 2.52485, -173.815, 2.5579, 65.1852, 0.0962363, 159.998
0, 1980.00000, 126.059, -30.6753, 128.936, -150.741, 127.27, 88.2587, 0, 0, 2.58248, -53.7493, 2.52484, -173.815, 2.55789, 65.1848, 0.0962641, 159.999
0, 2040.00000, 126.059, -30.6753, 128.937, -150.741, 127.271, 88.2584, 0, 0, 2.58248, -53.7493, 2.52482, -173.815, 2.55789, 65.1845, 0.0962891, 159.999
0, 2100.00000, 126.059, -30.6753, 128.938, -150.741, 127.271, 88.2582, 0, 0, 2.58248, -53.7492, 2.52481, -173.815, 2.55788, 65.1843, 0.0963117, 160
0, 2160.00000, 126.059, -30.6753, 128.938, -150.741, 127.271, 88.2579, 0, 0, 2.58248, -53.7492, 2.5248, -173.815, 2.55787, 65.184, 0.0963319, 160
0, 2220.00000, 126.059, -30.6753, 128.939, -150.741, 127.271, 88.2577, 0, 0, 2.58248, -53.7492, 2.52479, -173.815, 2.55787, 65.1838, 0.0963501, 160.001
0, 2280.00000, 126.059, -30.6753, 128.939, -150.741, 127.271, 88.2576, 0, 0, 2.58248, -53.7492, 2.52478, -173.815, 2.55787, 65.1836, 0.0963666, 160.001
0, 2340.00000, 126.059, -30.6753, 128.94, -150.741, 127.272, 88.2574, 0, 0, 2.58248, -53.7492, 2.52477, -173.815, 2.55786, 65.1835, 0.0963813, 160.001
0, 2400.00000, 126.059, -30.6753, 128.94, -150.741, 127.272, 88.2572, 0, 0, 2.58248, -53.7492, 2.52476, -173.815, 2.55786, 65.1833, 0.0963946, 160.002
0, 2460.00000, 126.059, -30.6753, 128.941, -150.741, 127.272, 88.2571, 0, 0, 2.58248, -53.7492, 2.52475, -173.815, 2.55786, 65.1832, 0.0964066, 160.002
0, 2520.00000, 126.059, -30.6753, 128.941, -150.741, 127.272, 88.257, 0, 0, 2.58248, -53.7492, 2.52475, -173.815, 2.55785, 65.1831, 0.0964174, 160.002
0, 2580.00000, 126.059, -30.6753, 128.941, -150.741, 127.272, 88.2569, 0, 0, 2.58248, -53.7492, 2.52474, -173.815, 2.55785, 65.1829, 0.0964271, 160.002
0, 2640.00000, 126.059, -30.6753, 128.942, -150.741, 127.272, 88.2568, 0, 0, 2.58248, -53.7492, 2.52474, -173.815, 2.55785, 65.1828, 0.0964358, 160.002
0, 2700.00000, 126.059, -30.6753, 128.942, -150.741, 127.272, 88.2567, 0, 0, 2.58248, -53.7492, 2.52473, -173.815, 2.55785, 65.1828, 0.0964436, 160.003
0, 2760.00000, 126.059, -30.6753, 128.942, -150.741, 127.272, 88.2566, 0, 0, 2.58248, -53.7492, 2.52473, -173.815, 2.55785, 65.1827, 0.0964507, 160.003
0, 2820.00000, 126.059, -30.6753, 128.942, -150.741, 127.273, 88.2565, 0, 0, 2.58248, -53.7492, 2.52473, -173.815, 2.55785, 65.1826, 0.096457, 160.003
0, 2880.00000, 126.059, -30.6753, 128.942, -150.741, 127.273, 88.2564, 0, 0, 2.58248, -53.7492, 2.52472, -173.815, 2.55784, 65.1825, 0.0964628, 160.003
0, 2940.00000, 126.059, -30.6753, 128.942, -150.741, 127.273, 88.2564, 0, 0, 2.58248, -53.7492, 2.52472, -173.815, 2.55784, 65.1825, 0.0964679, 160.003
0, 3000.00000, 126.059, -30.6753, 128.943, -150.741, 127.273, 88.2563, 0, 0, 2.58248, -53.7492, 2.52472, -173.815, 2.55784, 65.1824, 0.0964726, 160.003
0, 3060.00000, 126.059, -30.6753, 128.943, -150.741, 127.273, 88.2563, 0, 0, 2.58248, -53.7492, 2.52471, -173.815, 2.55784, 65.1824, 0.0964767, 160.003
0, 3120.00000, 126.059, -30.6753, 128.943, -150.741, 127.273, 88.2562, 0, 0, 2.58248, -53.7492, 2.52471, -173.815, 2.55784, 65.1823, 0.0964805, 160.003
0, 3180.00000, 126.059, -30.6753, 128.943, -150.741, 127.273, 88.2562, 0, 0, 2.58248, -53.7492, 2.52471, -173.815, 2.55784, 65.1823, 0.0964839, 160.003
0, 3240.00000, 126.059, -30.6753, 128.943, -150.741, 127.273, 88.2562, 0, 0, 2.58248, -53.7492, 2.52471, -173.815, 2.55784, 65.1823, 0.0964869, 160.004
0, 3300.00000, 126.059, -30.6753, 128.943, -150.741, 127.273, 88.2561, 0, 0, 2.58248, -53.7492, 2.52471, -173.815, 2.55784, 65.1822, 0.0964896, 160.004
0, 3360.00000, 126.059, -30.6753, 128.943, -150.741, 127.273, 88.2561, 0, 0, 2.58248, -53.7492, 2.5247, -173.815, 2.55784, 65.1822, 0.0964921, 160.004
0, 3420.00000, 126.059, -30.6753, 128.943, -150.741, 127.273, 88.2561, 0, 0, 2.58248, -53.7492, 2.5247, -173.815, 2.55784, 65.1822, 0.0964943, 160.004
0, 3480.00000, 126.059, -30.6753, 128.943, -150.741, 127.273, 88.2561, 0, 0, 2.58248, -53.7492, 2.5247, -173.815, 2.55784, 65.1821, 0.0964963, 160.004
0, 3540.00000, 126.059, -30.6753, 128.943, -150.741, 127.273, 88.256, 0, 0, 2.58248, -53.7492, 2.5247, -173.815, 2.55784, 65.1821, 0.0964981, 160.004
1, 0.00000, 126.059, -30.6753, 128.943, -150.741, 127.273, 88.256, 0, 0, 2.58248, -53.7492, 2.5247, -173.815, 2.55784, 65.1821, 0.0964997, 160.004
1, 60.00000, 126.059, -30.6753, 128.943, -150.741, 127.273, 88.256, 0, 0, 2.58248, -53.7492, 2.5247, -173.815, 2.55784, 65.1821, 0.0965012, 160.004
1, 120.00000, 126.059, -30.6753, 128.943, -150.741, 127.273, 88.256, 0, 0, 2.58248, -53.7492, 2.5247, -173.815, 2.55783, 65.1821, 0.0965025, 160.004
1, 180.00000, 126.059, -30.6753, 128.944, -150.741, 127.273, 88.256, 0, 0, 2.58248, -53.7492, 2.5247, -173.815, 2.55783, 65.1821, 0.0965037, 160.004
1, 240.00000, 126.059, -30.6753, 128.944, -150.741, 127.273, 88.256, 0, 0, 2.58248, -53.7492, 2.5247, -173.815, 2.55783, 65.182, 0.0965047, 160.004
1, 300.00000, 126.059, -30.6753, 128.944, -150.741, 127.273, 88.256, 0, 0, 2.58248, -53.7492, 2.5247, -173.815, 2.55783, 65.182, 0.0965057, 160.004
1, 360.00000, 126.059, -30.6753, 128.944, -150.741, 127.273, 88.2559, 0, 0, 2.58248, -53.7492, 2.5247, -173.815, 2.55783, 65.182, 0.0965065, 160.004
1, 420.00000, 126.059, -30.6753, 128.944, -150.741, 127.273, 88.2559, 0, 0, 2.58248, -53.7492, 2.5247, -173.815, 2.55783, 65.182, 0.0965073, 160.004
1, 480.00000, 126.059, -30.6753, 128.944, -150.741, 127.273, 88.2559, 0, 0, 2.58248, -53.7492, 2.5247, -173.815, 2.55783, 65.182, 0.096508, 160.004
1, 540.00000, 126.059, -30.6753, 128.944, -150.741, 127.273, 88.2559, 0, 0, 2.58248, -53.7492, 2.5247, -173.815, 2.55783, 65.182, 0.0965086, 160.004
1, 600.00000, 126.059, -30.6753, 128.944, -150.741, 127.273, 88.2559, 0, 0, 2.58248, -53.7492, 2.52469, -173.815, 2.55783, 65.182, 0.0965092, 160.004
1, 660.00000, 126.059, -30.6753, 128.944, -150.741, 127.273, 88.2559, 0, 0, 2.58248, -53.7492, 2.52469, -173.815, 2.55783, 65.182, 0.0965097, 160.004
1, 720.00000, 126.059, -30.6753, 128.944, -150.741, 127.273, 88.2559, 0, 0, 2.58248, -53.7492, 2.52469, -173.815, 2.55783, 65.182, 0.0965102, 160.004
1, 780.00000, 126.059, -30.6753, 128.944, -150.741, 127.273, 88.2559, 0, 0, 2.58248, -53.7492, 2.52469, -173.815, 2.55783, 65.182, 0.0965106, 160.004
1, 840.00000, 126.059, -30.6753, 128.944, -150.741, 127.273, 88.2559, 0, 0, 2.58248, -53.7492, 2.52469, -173.815, 2.55783, 65.182, 0.0965109, 160.004
1, 900.00000, 126.059, -30.6753, 128.944, -150.741, 127.273, 88.2559, 0, 0, 2.58248, -53.7492, 2.52469, -173.815, 2.55783, 65.182, 0.0965113, 160.004
1, 960.00000, 126.059, -30.6753, 128.944, -150.741, 127.273, 88.2559, 0, 0, 2.58248, -53.7492, 2.52469, -173.815, 2.55783, 65.182, 0.0965116, 160.004
1, 1020.00000, 126.059, -30.6753, 128.944, -150.741, 127.273, 88.2559, 0, 0, 2.58248, -53.7492, 2.52469, -173.815, 2.55783, 65.182, 0.0965118, 160.004
1, 1080.00000, 126.059, -30.6753, 128.944, -150.741, 127.273, 88.2559, 0, 0, 2.58248, -53.7492, 2.52469, -173.815, 2.55783, 65.182, 0.0965121, 160.004
1, 1140.00000, 126.059, -30.6753, 128.944, -150.741, 127.273, 88.2559, 0, 0, 2.58248, -53.7492, 2.52469, -173.815, 2.55783, 65.182, 0.0965123, 160.004
1, 1200.00000, 126.059, -30.6753, 128.944, -150.741, 127.273, 88.2559, 0, 0, 2.58248, -53.7492, 2.52469, -173.815, 2.55783, 65.182, 0.0965125, 160.004
1, 1260.00000, 126.059, -30.6753, 128.944, -150.741, 127.273, 88.2559, 0, 0, 2.58248, -53.7492, 2.52469, -173.815, 2.55783, 65.182, 0.0965127, 160.004
1, 1320.00000, 126.059, -30.6753, 128.944, -150.741, 127.273, 88.2559, 0, 0, 2.58248, -53.7492, 2.52469, -173.815, 2.55783, 65.182, 0.0965128, 160.004
1, 1380.00000, 126.059, -30.6753, 128.944, -150.741, 127.273, 88.2559, 0, 0, 2.58248, -53.7492, 2.52469, -173.815, 2.55783, 65.182, 0.096513, 160.004
1, 1440.00000, 126.059, -30.6753, 128.944, -150.741, 127.273, 88.2559, 0, 0, 2.58248, -53.7492, 2.52469, -173.815, 2.55783, 65.182, 0.0965131, 160.004
1, 1500.00000, 126.059, -30.6753, 128.944, -150.741, 127.273, 88.2559, 0, 0, 2.58248, -53.7492, 2.52469, -173.815, 2.55783, 65.1819, 0.0965132, 160.004
1, 1560.00000, 126.059, -30.6753, 128.944, -150.741, 127.273, 88.2559, 0, 0, 2.58248, -53.7492, 2.52469, -173.815, 2.55783, 65.1819, 0.0965133, 160.004
1, 1620.00000, 126.059, -30.6753, 128.944, -150.741, 127.273, 88.2559, 0, 0, 2.58248, -53.7492, 2.52469, -173.815, 2.55783, 65.1819, 0.0965134, 160.004
1, 1680.00000, 126.059, -30.6753, 128.944, -150.741, 127.273, 88.2559, 0, 0, 2.58248, -53.7492, 2.52469, -173.815, 2.55783, 65.1819, 0.0965135, 160.004
1, 1740.00000, 126.059, -30.6753, 128.944, -150.741, 127.273, 88.2559, 0, 0, 2.58248, -53.7492, 2.52469, -173.815, 2.55783, 65.1819, 0.0965136, 160.004
1, 1800.00000, 126.059, -30.6753, 128.944, -150.741, 127.273, 88.2559, 0, 0, 2.58248, -53.7492, 2.52469, -173.815, 2.55783, 65.1819, 0.0965137, 160.004
1, 1860.00000, 126.059, -30.6753, 128.944, -150.741, 127.273, 88.2559, 0, 0, 2.58248, -53.7492, 2.52469, -173.815, 2.55783, 65.1819, 0.0965137, 160.004
1, 1920.00000, 126.059, -30.6753, 128.944, -150.741, 127.273, 88.2559, 0, 0, 2.58248, -53.7492, 2.52469, -173.815, 2.55783, 65.1819, 0.0965138, 160.004
1, 1980.00000, 126.059, -30.6753, 128.944, -150.741, 127.273, 88.2559, 0, 0, 2.58248, -53.7492, 2.52469, -173.815, 2.55783, 65.1819, 0.0965138, 160.004
1, 2040.00000, 126.451, -30.6359, 128.952, -150.736, 127.414, 88.4209, 0, 0, 2.57447, -53.7099, 2.52454, -173.81, 2.555, 65.347, 0.0835828, 162.446
1, 2100.00000, 126.451, -30.6359, 128.952, -150.736, 127.414, 88.4209, 0, 0, 2.57447, -53.7099, 2.52454, -173.81, 2.555, 65.347, 0.0835832, 162.446
1, 2160.00000, 126.451, -30.6359, 128.952, -150.736, 127.414, 88.4209, 0, 0, 2.57447, -53.7099, 2.52454, -173.81, 2.555, 65.347, 0.0835833, 162.446
1, 2220.00000, 126.451, -30.6359, 128.952, -150.736, 127.414, 88.4209, 0, 0, 2.57447, -53.7099, 2.52454, -173.81, 2.555, 65.347, 0.0835833, 162.446
1, 2280.00000, 126.451, -30.6359, 128.952, -150.736, 127.414, 88.4209, 0, 0, 2.57447, -53.7099, 2.52454, -173.81, 2.555, 65.347, 0.0835833, 162.446
1, 2340.00000, 126.451, -30.6359, 128.952, -150.736, 127.414, 88.4209, 0, 0, 2.57447, -53.7099, 2.52454, -173.81, 2.555, 65.347, 0.0835833, 162.446
1, 2400.00000, 126.451, -30.6359, 128.952, -150.736, 127.414, 88.4209, 0, 0, 2.57447, -53.7099, 2.52454, -173.81, 2.555, 65.347, 0.0835834, 162.446
1, 2460.00000, 126.451, -30.6359, 128.952, -150.736, 127.414, 88.4209, 0, 0, 2.57447, -53.7099, 2.52454, -173.81, 2.555, 65.347, 0.0835834, 162.446
1, 2520.00000, 126.862, -30.5943, 128.96, -150.73, 127.562, 88.5946, 0, 0, 2.56613, -53.6683, 2.52438, -173.804, 2.55203, 65.5207, 0.0702759, 165.919
1, 2580.00000, 126.862, -30.5943, 128.96, -150.73, 127.562, 88.5946, 0, 0, 2.56613, -53.6682, 2.52438, -173.804, 2.55203, 65.5207, 0.0702763, 165.919
1, 2640.00000, 126.862, -30.5943, 128.96, -150.73, 127.562, 88.5946, 0, 0, 2.56613, -53.6682, 2.52438, -173.804, 2.55203, 65.5207, 0.0702763, 165.919
1, 2700.00000, 126.862, -30.5943, 128.96, -150.73, 127.562, 88.5946, 0, 0, 2.56613, -53.6682, 2.52438, -173.804, 2.55203, 65.5207, 0.0702763, 165.919
1, 2760.00000, 126.863, -30.5939, 129.126, -150.568, 127.967, 88.6224, 0, 0, 2.56611, -53.6678, 2.52114, -173.642, 2.54397, 65.5485, 0.0743154, 155.66
1, 2820.00000, 126.863, -30.5939, 129.126, -150.568, 127.967, 88.6224, 0, 0, 2.56611, -53.6678, 2.52114, -173.642, 2.54397, 65.5485, 0.0743157, 155.66
1, 2880.00000, 126.863, -30.5939, 129.126, -150.568, 127.967, 88.6224, 0, 0, 2.56611, -53.6678, 2.52114, -173.642, 2.54397, 65.5485, 0.0743157, 155.66
1, 2940.00000, 126.863, -30.5939, 129.126, -150.568, 127.967, 88.6224, 0, 0, 2.56611, -53.6678, 2.52114, -173.642, 2.54397, 65.5485, 0.0743157, 155.66
1, 3000.00000, 126.863, -30.5939, 129.126, -150.568, 127.967, 88.6224, 0, 0, 2.56611, -53.6678, 2.52114, -173.642, 2.54397, 65.5485, 0.0743158, 155.66
1, 3060.00000, 126.863, -30.5939, 129.126, -150.568, 127.967, 88.6224, 0, 0, 2.56611, -53.6678, 2.52114, -173.642, 2.54397, 65.5485, 0.0743158, 155.66
1, 3120.00000, 126.863, -30.5939, 129.126, -150.568, 127.967, 88.6224, 0, 0, 2.56611, -53.6678, 2.52114, -173.642, 2.54397, 65.5485, 0.0743158, 155.66
1, 3180.00000, 126.863, -30.5939, 129.126, -150.568, 127.967, 88.6224, 0, 0, 2.56611, -53.6678, 2.52114, -173.642, 2.54397, 65.5485, 0.0743158, 155.66
1, 3240.00000, 126.863, -30.5939, 129.126, -150.568, 127.967, 88.6224, 0, 0, 2.56611, -53.6678, 2.52114, -173.642, 2.54397, 65.5485, 0.0743158, 155.66
1, 3300.00000, 126.863, -30.5939, 129.126, -150.568, 127.967, 88.6224, 0, 0, 2.56611, -53.6678, 2.52114, -173.642, 2.54397, 65.5485, 0.0743158, 155.66
1, 3360.00000, 126.863, -30.5939, 129.126, -150.568, 127.967, 88.6224, 0, 0, 2.56611, -53.6678, 2.52114, -173.642, 2.54397, 65.5485, 0.0743158, 155.66
1, 3420.00000, 126.863, -30.5939, 129.126, -150.568, 127.967, 88.6224, 0, 0, 2.56611, -53.6678, 2.52114, -173.642, 2.54397, 65.5485, 0.0743158, 155.66
1, 3480.00000, 126.863, -30.5939, 129.126, -150.568, 127.967, 88.6224, 0, 0, 2.56611, -53.6678, 2.52114, -173.642, 2.54397, 65.5485, 0.0743158, 155.66
1, 3540.00000, 126.863, -30.5939, 129.126, -150.568, 127.967, 88.6224, 0, 0, 2.56611, -53.6678, 2.52114, -173.642, 2.54397, 65.5485, 0.0743158, 155.66
2, 0.00000, 126.863, -30.5939, 129.126, -150.568, 127.967, 88.6224, 0, 0, 2.56611, -53.6678, 2.52114, -173.642, 2.54397, 65.5485, 0.0743158, 155.66
2, 60.00000, 126.863, -30.5939, 129.126, -150.568, 127.967, 88.6224, 0, 0, 2.56611, -53.6678, 2.52114, -173.642, 2.54397, 65.5485, 0.0743158, 155.66
2, 120.00000, 126.858, -30.595, 129.122, -150.569, 127.963, 88.6213, 0, 0, 2.57329, -53.669, 2.52819, -173.643, 2.55109, 65.5474, 0.0745256, 155.657
2, 180.00000, 126.854, -30.5962, 129.118, -150.57, 127.959, 88.6203, 0, 0, 2.58056, -53.6701, 2.53533, -173.644, 2.55829, 65.5464, 0.074738, 155.654
2, 240.00000, 126.85, -30.5974, 129.114, -150.571, 127.955, 88.6193, 0, 0, 2.58775, -53.6713, 2.54238, -173.645, 2.56541, 65.5454, 0.0749478, 155.651
2, 300.00000, 126.846, -30.5985, 129.11, -150.572, 127.95, 88.6182, 0, 0, 2.59493, -53.6724, 2.54943, -173.646, 2.57254, 65.5443, 0.0751576, 155.648
2, 360.00000, 126.842, -30.5997, 129.106, -150.574, 127.946, 88.6172, 0, 0, 2.6022, -53.6736, 2.55657, -173.647, 2.57974, 65.5433, 0.0753701, 155.645
2, 420.00000, 126.838, -30.6008, 129.102, -150.575, 127.942, 88.6162, 0, 0, 2.60939, -53.6747, 2.56362, -173.648, 2.58686, 65.5423, 0.07558, 155.642
2, 480.00000, 126.834, -30.602, 129.098, -150.576, 127.938, 88.6151, 0, 0, 2.61658, -53.6759, 2.57068, -173.65, 2.59399, 65.5412, 0.0757899, 155.639
2, 540.00000, 126.829, -30.6031, 129.094, -150.577, 127.934, 88.6141, 0, 0, 2.62385, -53.677, 2.57782, -173.651, 2.60119, 65.5402, 0.0760024, 155.636
2, 600.00000, 126.825, -30.6043, 129.09, -150.578, 127.93, 88.6131, 0, 0, 2.63104, -53.6782, 2.58487, -173.652, 2.60832, 65.5392, 0.0762124, 155.633
2, 660.00000, 126.821, -30.6054, 129.087, -150.579, 127.926, 88.612, 0, 0, 2.63822, -53.6793, 2.59193, -173.653, 2.61544, 65.5381, 0.0764224, 155.63
2, 720.00000, 126.817, -30.6066, 129.083, -150.58, 127.922, 88.611, 0, 0, 2.6455, -53.6805, 2.59907, -173.654, 2.62265, 65.5371, 0.0766349, 155.627
