hour,t(sec),V1,VAngle1,V2,VAngle2,V3,VAngle3,V4,VAngle4,I1,IAngle1,I2,IAngle2,I3,IAngle3,I4,IAngle4
0, 60.00000, 126.711, -30.704, 129.323, -151.448, 126.165, 87.9641, 0, 0, 2.03904, -53.7779, 1.99789, -174.522, 2.04787, 64.8904, 0.0871806, -167.639
0, 120.00000, 126.712, -30.705, 129.353, -151.451, 126.173, 87.9512, 0, 0, 2.03904, -53.7789, 1.99742, -174.525, 2.04774, 64.8775, 0.0879075, -167.874
0, 180.00000, 126.712, -30.7058, 129.38, -151.453, 126.18, 87.9397, 0, 0, 2.03903, -53.7797, 1.997, -174.527, 2.04762, 64.866, 0.0885631, -168.082
0, 240.00000, 126.712, -30.7066, 129.404, -151.455, 126.187, 87.9293, 0, 0, 2.03903, -53.7805, 1.99662, -174.529, 2.04752, 64.8556, 0.0891543, -168.267
0, 300.00000, 126.715, -30.7069, 129.568, -151.284, 126.606, 87.9634, 0, 0, 2.03898, -53.7808, 1.99409, -174.358, 2.04073, 64.8897, 0.086634, -175.464
0, 360.00000, 126.715, -30.7075, 129.588, -151.286, 126.612, 87.955, 0, 0, 2.03898, -53.7814, 1.99379, -174.36, 2.04065, 64.8812, 0.0871385, -175.574
0, 420.00000, 126.715, -30.7081, 129.606, -151.287, 126.616, 87.9474, 0, 0, 2.03897, -53.782, 1.99351, -174.361, 2.04057, 64.8736, 0.087593, -175.671
0, 480.00000, 126.716, -30.7086, 129.622, -151.289, 126.621, 87.9405, 0, 0, 2.03897, -53.7825, 1.99326, -174.363, 2.0405, 64.8668, 0.0880023, -175.757
0, 540.00000, 126.716, -30.709, 129.637, -151.29, 126.624, 87.9344, 0, 0, 2.03897, -53.7829, 1.99304, -174.364, 2.04044, 64.8606, 0.0883709, -175.834
0, 600.00000, 126.716, -30.7094, 129.65, -151.291, 126.628, 87.9289, 0, 0, 2.03897, -53.7833, 1.99284, -174.365, 2.04038, 64.855, 0.0887028, -175.903
0, 660.00000, 126.716, -30.7098, 129.661, -151.292, 126.631, 87.9239, 0, 0, 2.03897, -53.7837, 1.99266, -174.366, 2.04033, 64.8501, 0.0890016, -175.965
0, 720.00000, 126.716, -30.7101, 129.672, -151.293, 126.634, 87.9194, 0, 0, 2.03896, -53.784, 1.99249, -174.367, 2.04029, 64.8456, 0.0892706, -176.02
0, 780.00000, 126.716, -30.7104, 129.681, -151.294, 126.636, 87.9153, 0, 0, 2.03896, -53.7844, 1.99235, -174.368, 2.04025, 64.8415, 0.0895128, -176.069
0, 840.00000, 126.716, -30.7107, 129.69, -151.295, 126.639, 87.9117, 0, 0, 2.03896, -53.7846, 1.99221, -174.369, 2.04021, 64.8379, 0.0897309, -176.113
0, 900.00000, 126.716, -30.711, 129.698, -151.295, 126.641, 87.9084, 0, 0, 2.03896, -53.7849, 1.9921, -174.369, 2.04018, 64.8346, 0.0899272, -176.152
0, 960.00000, 126.716, -30.7112, 129.705, -151.296, 126.642, 87.9055, 0, 0, 2.03896, -53.7851, 1.99199, -174.37, 2.04015, 64.8316, 0.0901039, -176.188
0, 1020.00000, 126.716, -30.7114, 129.711, -151.297, 126.644, 87.9028, 0, 0, 2.03896, -53.7853, 1.99189, -174.37, 2.04012, 64.829, 0.090263, -176.219
0, 1080.00000, 126.716, -30.7115, 129.716, -151.297, 126.646, 87.9005, 0, 0, 2.03896, -53.7855, 1.99181, -174.371, 2.0401, 64.8266, 0.0904062, -176.248
0, 1140.00000, 126.717, -30.7117, 129.722, -151.298, 126.647, 87.8983, 0, 0, 2.03896, -53.7856, 1.99173, -174.371, 2.04008, 64.8244, 0.0905351, -176.273
0, 1200.00000, 126.717, -30.7119, 129.726, -151.298, 126.648, 87.8964, 0, 0, 2.03896, -53.7858, 1.99166, -174.372, 2.04006, 64.8225, 0.0906512, -176.296
0, 1260.00000, 126.717, -30.712, 129.73, -151.298, 126.649, 87.8946, 0, 0, 2.03896, -53.7859, 1.99159, -174.372, 2.04004, 64.8207, 0.0907556, -176.317
0, 1320.00000, 126.717, -30.7121, 129.734, -151.299, 126.65, 87.8931, 0, 0, 2.03896, -53.786, 1.99154, -174.372, 2.04003, 64.8192, 0.0908496, -176.335
0, 1380.00000, 126.717, -30.7122, 129.737, -151.299, 126.651, 87.8917, 0, 0, 2.03895, -53.7861, 1.99149, -174.373, 2.04001, 64.8178, 0.0909343, -176.352
0, 1440.00000, 126.717, -30.7123, 129.74, -151.299, 126.652, 87.8904, 0, 0, 2.03895, -53.7862, 1.99144, -174.373, 2.04, 64.8165, 0.0910104, -176.366
0, 1500.00000, 126.717, -30.7124, 129.743, -151.299, 126.653, 87.8892, 0, 0, 2.03895, -53.7863, 1.9914, -174.373, 2.03999, 64.8153, 0.091079, -176.38
0, 1560.00000, 126.717, -30.7125, 129.745, -151.3, 126.653, 87.8882, 0, 0, 2.03895, -53.7864, 1.99136, -174.374, 2.03998, 64.8143, 0.0911407, -176.392
0, 1620.00000, 126.717, -30.7125, 129.747, -151.3, 126.654, 87.8873, 0, 0, 2.03895, -53.7864, 1.99133, -174.374, 2.03997, 64.8134, 0.0911962, -176.403
0, 1680.00000, 126.717, -30.7126, 129.749, -151.3, 126.654, 87.8865, 0, 0, 2.03895, -53.7865, 1.9913, -174.374, 2.03996, 64.8126, 0.0912462, -176.412
0, 1740.00000, 126.717, -30.7126, 129.751, -151.3, 126.655, 87.8857, 0, 0, 2.03895, -53.7866, 1.99127, -174.374, 2.03995, 64.8118, 0.0912912, -176.421
0, 1800.00000, 126.717, -30.7127, 129.753, -151.3, 126.655, 87.885, 0, 0, 2.03895, -53.7866, 1.99125, -174.374, 2.03995, 64.8111, 0.0913317, -176.429
0, 1860.00000, 126.717, -30.7127, 129.754, -151.3, 126.656, 87.8844, 0, 0, 2.03895, -53.7867, 1.99122, -174.374, 2.03994, 64.8105, 0.0913682, -176.436
0, 1920.00000, 126.717, -30.7128, 129.755, -151.3, 126.656, 87.8839, 0, 0, 2.03895, -53.7867, 1.9912, -174.374, 2.03993, 64.81, 0.091401, -176.442
0, 1980.00000, 126.717, -30.7128, 129.757, -151.301, 126.656, 87.8834, 0, 0, 2.03895, -53.7867, 1.99119, -174.375, 2.03993, 64.8095, 0.0914305, -176.448
0, 2040.00000, 126.717, -30.7128, 129.758, -151.301, 126.656, 87.8829, 0, 0, 2.03895, -53.7868, 1.99117, -174.375, 2.03992, 64.809, 0.0914571, -176.453
0, 2100.00000, 126.717, -30.7129, 129.759, -151.301, 126.657, 87.8825, 0, 0, 2.03895, -53.7868, 1.99116, -174.375, 2.03992, 64.8086, 0.091481, -176.458
0, 2160.00000, 126.717, -30.7129, 129.759, -151.301, 126.657, 87.8822, 0, 0, 2.03895, -53.7868, 1.99114, -174.375, 2.03992, 64.8083, 0.0915025, -176.462
0, 2220.00000, 127.114, -30.6716, 129.763, -151.299, 126.78, 88.0534, 0, 0, 2.03258, -53.7455, 1.99108, -174.373, 2.03794, 64.9795, 0.0833757, -171.458
0, 2280.00000, 127.114, -30.6716, 129.764, -151.299, 126.78, 88.0531, 0, 0, 2.03258, -53.7455, 1.99107, -174.373, 2.03793, 64.9792, 0.0833926, -171.463
0, 2340.00000, 127.114, -30.6716, 129.765, -151.299, 126.78, 88.0529, 0, 0, 2.03258, -53.7455, 1.99106, -174.373, 2.03793, 64.9789, 0.0834078, -171.467
0, 2400.00000, 127.114, -30.6716, 129.765, -151.299, 126.781, 88.0526, 0, 0, 2.03258, -53.7456, 1.99106, -174.373, 2.03793, 64.9787, 0.0834215, -171.471
0, 2460.00000, 127.114, -30.6717, 129.766, -151.299, 126.781, 88.0524, 0, 0, 2.03258, -53.7456, 1.99105, -174.373, 2.03793, 64.9785, 0.0834338, -171.474
0, 2520.00000, 127.114, -30.6717, 129.766, -151.299, 126.781, 88.0522, 0, 0, 2.03258, -53.7456, 1.99104, -174.373, 2.03792, 64.9783, 0.0834449, -171.477
0, 2580.00000, 127.114, -30.6717, 129.766, -151.299, 126.781, 88.052, 0, 0, 2.03258, -53.7456, 1.99103, -174.373, 2.03792, 64.9781, 0.0834549, -171.48
0, 2640.00000, 127.114, -30.6717, 129.767, -151.299, 126.781, 88.0519, 0, 0, 2.03258, -53.7456, 1.99103, -174.373, 2.03792, 64.978, 0.0834639, -171.482
0, 2700.00000, 127.114, -30.6717, 129.767, -151.299, 126.781, 88.0518, 0, 0, 2.03258, -53.7456, 1.99102, -174.373, 2.03792, 64.9778, 0.083472, -171.485
0, 2760.00000, 127.114, -30.6717, 129.767, -151.299, 126.781, 88.0516, 0, 0, 2.03257, -53.7456, 1.99102, -174.373, 2.03792, 64.9777, 0.0834793, -171.487
0, 2820.00000, 127.114, -30.6717, 129.768, -151.299, 126.781, 88.0515, 0, 0, 2.03257, -53.7457, 1.99102, -174.373, 2.03792, 64.9776, 0.0834858, -171.489
0, 2880.00000, 127.114, -30.6717, 129.768, -151.299, 126.781, 88.0514, 0, 0, 2.03257, -53.7457, 1.99101, -174.373, 2.03792, 64.9775, 0.0834917, -171.49
0, 2940.00000, 127.114, -30.6717, 129.768, -151.299, 126.781, 88.0513, 0, 0, 2.03257, -53.7457, 1.99101, -174.373, 2.03791, 64.9774, 0.083497, -171.492
0, 3000.00000, 127.114, -30.6718, 129.768, -151.299, 126.781, 88.0512, 0, 0, 2.03257, -53.7457, 1.99101, -174.373, 2.03791, 64.9773, 0.0835018, -171.493
0, 3060.00000, 127.114, -30.6718, 129.769, -151.299, 126.781, 88.0512, 0, 0, 2.03257, -53.7457, 1.991, -174.373, 2.03791, 64.9772, 0.0835061, -171.494
0, 3120.00000, 127.114, -30.6718, 129.769, -151.299, 126.781, 88.0511, 0, 0, 2.03257, -53.7457, 1.991, -174.373, 2.03791, 64.9772, 0.08351, -171.495
0, 3180.00000, 127.114, -30.6718, 129.769, -151.299, 126.782, 88.051, 0, 0, 2.03257, -53.7457, 1.991, -174.373, 2.03791, 64.9771, 0.0835134, -171.496
0, 3240.00000, 127.114, -30.6718, 129.769, -151.299, 126.782, 88.051, 0, 0, 2.03257, -53.7457, 1.991, -174.373, 2.03791, 64.9771, 0.0835166, -171.497
0, 3300.00000, 127.114, -30.6718, 129.769, -151.299, 126.782, 88.0509, 0, 0, 2.03257, -53.7457, 1.99099, -174.373, 2.03791, 64.977, 0.0835194, -171.498
0, 3360.00000, 127.114, -30.6718, 129.769, -151.299, 126.782, 88.0509, 0, 0, 2.03257, -53.7457, 1.99099, -174.373, 2.03791, 64.977, 0.0835219, -171.499
0, 3420.00000, 127.114, -30.6718, 129.769, -151.299, 126.782, 88.0509, 0, 0, 2.03257, -53.7457, 1.99099, -174.373, 2.03791, 64.9769, 0.0835242, -171.499
0, 3480.00000, 127.114, -30.6718, 129.769, -151.299, 126.782, 88.0508, 0, 0, 2.03257, -53.7457, 1.99099, -174.373, 2.03791, 64.9769, 0.0835263, -171.5
0, 3540.00000, 127.114, -30.6718, 129.769, -151.299, 126.782, 88.0508, 0, 0, 2.03257, -53.7457, 1.99099, -174.373, 2.03791, 64.9769, 0.0835281, -171.5
1, 0.00000, 127.114, -30.6718, 129.77, -151.299, 126.782, 88.0508, 0, 0, 2.03257, -53.7457, 1.99099, -174.373, 2.03791, 64.9768, 0.0835298, -171.501
1, 60.00000, 127.114, -30.6718, 129.77, -151.299, 126.782, 88.0507, 0, 0, 2.03257, -53.7457, 1.99099, -174.373, 2.03791, 64.9768, 0.0835313, -171.501
1, 120.00000, 127.114, -30.6718, 129.77, -151.299, 126.782, 88.0507, 0, 0, 2.03257, -53.7457, 1.99099, -174.373, 2.03791, 64.9768, 0.0835326, -171.502
1, 180.00000, 127.114, -30.6718, 129.77, -151.299, 126.782, 88.0507, 0, 0, 2.03257, -53.7457, 1.99099, -174.373, 2.03791, 64.9768, 0.0835338, -171.502
1, 240.00000, 127.114, -30.6718, 129.77, -151.299, 126.782, 88.0507, 0, 0, 2.03257, -53.7457, 1.99099, -174.373, 2.03791, 64.9768, 0.0835349, -171.502
1, 300.00000, 127.114, -30.6718, 129.77, -151.299, 126.782, 88.0507, 0, 0, 2.03257, -53.7457, 1.99098, -174.373, 2.03791, 64.9767, 0.0835359, -171.502
1, 360.00000, 127.114, -30.6718, 129.77, -151.299, 126.782, 88.0506, 0, 0, 2.03257, -53.7457, 1.99098, -174.373, 2.03791, 64.9767, 0.0835368, -171.503
1, 420.00000, 127.114, -30.6718, 129.77, -151.299, 126.782, 88.0506, 0, 0, 2.03257, -53.7457, 1.99098, -174.373, 2.03791, 64.9767, 0.0835376, -171.503
1, 480.00000, 127.114, -30.6718, 129.77, -151.299, 126.782, 88.0506, 0, 0, 2.03257, -53.7457, 1.99098, -174.373, 2.03791, 64.9767, 0.0835383, -171.503
1, 540.00000, 127.114, -30.6718, 129.77, -151.299, 126.782, 88.0506, 0, 0, 2.03257, -53.7457, 1.99098, -174.373, 2.03791, 64.9767, 0.083539, -171.503
1, 600.00000, 127.114, -30.6718, 129.77, -151.299, 126.782, 88.0506, 0, 0, 2.03257, -53.7457, 1.99098, -174.373, 2.03791, 64.9767, 0.0835395, -171.503
1, 660.00000, 127.115, -30.672, 129.901, -151.135, 127.175, 88.0896, 0, 0, 2.03256, -53.7459, 1.98898, -174.209, 2.03161, 65.0156, 0.0812714, -178.767
1, 720.00000, 127.115, -30.672, 129.901, -151.135, 127.175, 88.0895, 0, 0, 2.03256, -53.7459, 1.98898, -174.209, 2.03161, 65.0156, 0.0812719, -178.767
1, 780.00000, 127.118, -30.6717, 130.039, -150.966, 127.579, 88.1328, 0, 0, 2.03252, -53.7456, 1.98687, -174.04, 2.02517, 65.0589, 0.08034, 173.557
1, 840.00000, 127.118, -30.6717, 130.039, -150.966, 127.579, 88.1328, 0, 0, 2.03252, -53.7456, 1.98687, -174.04, 2.02517, 65.0589, 0.0803404, 173.557
1, 900.00000, 127.118, -30.6717, 130.039, -150.966, 127.579, 88.1328, 0, 0, 2.03252, -53.7456, 1.98687, -174.04, 2.02517, 65.0589, 0.0803408, 173.557
1, 960.00000, 127.118, -30.6717, 130.039, -150.966, 127.579, 88.1328, 0, 0, 2.03252, -53.7456, 1.98687, -174.04, 2.02517, 65.0589, 0.0803411, 173.557
1, 1020.00000, 127.118, -30.6717, 130.039, -150.966, 127.579, 88.1328, 0, 0, 2.03252, -53.7456, 1.98687, -174.04, 2.02517, 65.0589, 0.0803414, 173.557
1, 1080.00000, 127.118, -30.6717, 130.039, -150.966, 127.579, 88.1328, 0, 0, 2.03252, -53.7456, 1.98687, -174.04, 2.02517, 65.0589, 0.0803417, 173.557
1, 1140.00000, 127.118, -30.6717, 130.039, -150.966, 127.579, 88.1328, 0, 0, 2.03252, -53.7456, 1.98687, -174.04, 2.02517, 65.0589, 0.0803419, 173.557
1, 1200.00000, 127.118, -30.6717, 130.039, -150.966, 127.579, 88.1328, 0, 0, 2.03252, -53.7456, 1.98687, -174.04, 2.02517, 65.0589, 0.0803421, 173.557
1, 1260.00000, 127.118, -30.6717, 130.039, -150.966, 127.579, 88.1328, 0, 0, 2.03252, -53.7456, 1.98686, -174.04, 2.02517, 65.0589, 0.0803423, 173.557
1, 1320.00000, 127.118, -30.6717, 130.039, -150.966, 127.579, 88.1328, 0, 0, 2.03252, -53.7456, 1.98686, -174.04, 2.02517, 65.0589, 0.0803425, 173.557
1, 1380.00000, 127.118, -30.6717, 130.039, -150.966, 127.579, 88.1328, 0, 0, 2.03252, -53.7456, 1.98686, -174.04, 2.02517, 65.0588, 0.0803427, 173.557
1, 1440.00000, 127.118, -30.6717, 130.039, -150.966, 127.579, 88.1328, 0, 0, 2.03252, -53.7456, 1.98686, -174.04, 2.02517, 65.0588, 0.0803428, 173.557
1, 1500.00000, 127.118, -30.6717, 130.039, -150.966, 127.579, 88.1328, 0, 0, 2.03252, -53.7456, 1.98686, -174.04, 2.02517, 65.0588, 0.0803429, 173.557
1, 1560.00000, 127.118, -30.6717, 130.039, -150.966, 127.579, 88.1328, 0, 0, 2.03252, -53.7456, 1.98686, -174.04, 2.02517, 65.0588, 0.080343, 173.557
1, 1620.00000, 127.118, -30.6717, 130.039, -150.966, 127.579, 88.1328, 0, 0, 2.03252, -53.7456, 1.98686, -174.04, 2.02517, 65.0588, 0.0803431, 173.557
1, 1680.00000, 127.118, -30.6717, 130.039, -150.966, 127.579, 88.1328, 0, 0, 2.03252, -53.7456, 1.98686, -174.04, 2.02517, 65.0588, 0.0803432, 173.557
1, 1740.00000, 127.118, -30.6717, 130.039, -150.966, 127.579, 88.1328, 0, 0, 2.03252, -53.7456, 1.98686, -174.04, 2.02517, 65.0588, 0.0803433, 173.557
1, 1800.00000, 127.118, -30.6717, 130.039, -150.966, 127.579, 88.1328, 0, 0, 2.03252, -53.7456, 1.98686, -174.04, 2.02517, 65.0588, 0.0803434, 173.557
1, 1860.00000, 127.118, -30.6717, 130.039, -150.966, 127.579, 88.1328, 0, 0, 2.03252, -53.7456, 1.98686, -174.04, 2.02517, 65.0588, 0.0803435, 173.557
1, 1920.00000, 127.118, -30.6717, 130.039, -150.966, 127.579, 88.1328, 0, 0, 2.03252, -53.7456, 1.98686, -174.04, 2.02517, 65.0588, 0.0803435, 173.557
1, 1980.00000, 127.118, -30.6717, 130.039, -150.966, 127.579, 88.1328, 0, 0, 2.03252, -53.7456, 1.98686, -174.04, 2.02517, 65.0588, 0.0803436, 173.557
1, 2040.00000, 127.118, -30.6717, 130.039, -150.966, 127.579, 88.1328, 0, 0, 2.03252, -53.7456, 1.98686, -174.04, 2.02517, 65.0588, 0.0803436, 173.557
1, 2100.00000, 127.118, -30.6717, 130.039, -150.966, 127.579, 88.1328, 0, 0, 2.03252, -53.7456, 1.98686, -174.04, 2.02517, 65.0588, 0.0803437, 173.557
1, 2160.00000, 127.118, -30.6717, 130.039, -150.966, 127.579, 88.1328, 0, 0, 2.03252, -53.7456, 1.98686, -174.04, 2.02517, 65.0588, 0.0803437, 173.557
1, 2220.00000, 127.118, -30.6717, 130.039, -150.966, 127.579, 88.1328, 0, 0, 2.03252, -53.7456, 1.98686, -174.04, 2.02517, 65.0588, 0.0803438, 173.557
1, 2280.00000, 127.118, -30.6717, 130.039, -150.966, 127.579, 88.1328, 0, 0, 2.03252, -53.7456, 1.98686, -174.04, 2.02517, 65.0588, 0.0803438, 173.557
1, 2340.00000, 127.118, -30.6717, 130.039, -150.966, 127.579, 88.1328, 0, 0, 2.03252, -53.7456, 1.98686, -174.04, 2.02517, 65.0588, 0.0803438, 173.557
1, 2400.00000, 127.118, -30.6717, 130.039, -150.966, 127.579, 88.1327, 0, 0, 2.03252, -53.7456, 1.98686, -174.04, 2.02517, 65.0588, 0.0803438, 173.557
1, 2460.00000, 127.118, -30.6717, 130.039, -150.966, 127.579, 88.1327, 0, 0, 2.03252, -53.7456, 1.98686, -174.04, 2.02517, 65.0588, 0.0803439, 173.557
1, 2520.00000, 127.118, -30.6717, 130.039, -150.966, 127.579, 88.1327, 0, 0, 2.03252, -53.7456, 1.98686, -174.04, 2.02517, 65.0588, 0.0803439, 173.557
1, 2580.00000, 127.118, -30.6717, 130.039, -150.966, 127.579, 88.1327, 0, 0, 2.03252, -53.7456, 1.98686, -174.04, 2.02517, 65.0588, 0.0803439, 173.557
1, 2640.00000, 127.118, -30.6717, 130.039, -150.966, 127.579, 88.1327, 0, 0, 2.03252, -53.7456, 1.98686, -174.04, 2.02517, 65.0588, 0.0803439, 173.557
1, 2700.00000, 127.118, -30.6717, 130.039, -150.966, 127.579, 88.1327, 0, 0, 2.03252, -53.7456, 1.98686, -174.04, 2.02517, 65.0588, 0.0803439, 173.557
1, 2760.00000, 127.118, -30.6717, 130.039, -150.966, 127.579, 88.1327, 0, 0, 2.03252, -53.7456, 1.98686, -174.04, 2.02517, 65.0588, 0.080344, 173.557
1, 2820.00000, 127.118, -30.6717, 130.039, -150.966, 127.579, 88.1327, 0, 0, 2.03252, -53.7456, 1.98686, -174.04, 2.02517, 65.0588, 0.080344, 173.557
1, 2880.00000, 127.118, -30.6717, 130.039, -150.966, 127.579, 88.1327, 0, 0, 2.03252, -53.7456, 1.98686, -174.04, 2.02517, 65.0588, 0.080344, 173.557
1, 2940.00000, 127.118, -30.6717, 130.039, -150.966, 127.579, 88.1327, 0, 0, 2.03252, -53.7456, 1.98686, -174.04, 2.02517, 65.0588, 0.080344, 173.557
1, 3000.00000, 127.118, -30.6717, 130.039, -150.966, 127.579, 88.1327, 0, 0, 2.03252, -53.7456, 1.98686, -174.04, 2.02517, 65.0588, 0.080344, 173.557
1, 3060.00000, 127.118, -30.6717, 130.039, -150.966, 127.579, 88.1327, 0, 0, 2.03252, -53.7456, 1.98686, -174.04, 2.02517, 65.0588, 0.080344, 173.557
1, 3120.00000, 127.118, -30.6717, 130.039, -150.966, 127.579, 88.1327, 0, 0, 2.03252, -53.7456, 1.98686, -174.04, 2.02517, 65.0588, 0.080344, 173.557
1, 3180.00000, 127.118, -30.6717, 130.039, -150.966, 127.579, 88.1327, 0, 0, 2.03252, -53.7456, 1.98686, -174.04, 2.02517, 65.0588, 0.080344, 173.557
1, 3240.00000, 127.118, -30.6717, 130.039, -150.966, 127.579, 88.1327, 0, 0, 2.03252, -53.7456, 1.98686, -174.04, 2.02517, 65.0588, 0.080344, 173.557
1, 3300.00000, 127.118, -30.6717, 130.039, -150.966, 127.579, 88.1327, 0, 0, 2.03252, -53.7456, 1.98686, -174.04, 2.02517, 65.0588, 0.080344, 173.557
1, 3360.00000, 127.118, -30.6717, 130.039, -150.966, 127.579, 88.1327, 0, 0, 2.03252, -53.7456, 1.98686, -174.04, 2.02517, 65.0588, 0.080344, 173.557
1, 3420.00000, 127.118, -30.6717, 130.039, -150.966, 127.579, 88.1327, 0, 0, 2.03252, -53.7456, 1.98686, -174.04, 2.02517, 65.0588, 0.080344, 173.557
1, 3480.00000, 127.12, -30.6717, 130.17, -150.803, 127.971, 88.1732, 0, 0, 2.03249, -53.7456, 1.98487, -173.876, 2.01896, 65.0993, 0.0808657, 166.08
1, 3540.00000, 127.12, -30.6717, 130.17, -150.803, 127.971, 88.1732, 0, 0, 2.03249, -53.7456, 1.98487, -173.876, 2.01896, 65.0993, 0.0808657, 166.08
2, 0.00000, 127.12, -30.6717, 130.17, -150.803, 127.971, 88.1732, 0, 0, 2.03249, -53.7456, 1.98487, -173.876, 2.01896, 65.0993, 0.0808657, 166.08
2, 60.00000, 127.12, -30.6717, 130.17, -150.803, 127.971, 88.1732, 0, 0, 2.03249, -53.7456, 1.98487, -173.876, 2.01896, 65.0993, 0.0808657, 166.08
2, 120.00000, 127.116, -30.6728, 130.166, -150.804, 127.968, 88.1722, 0, 0, 2.03818, -53.7468, 1.99042, -173.878, 2.02461, 65.0983, 0.0810932, 166.078
2, 180.00000, 127.112, -30.674, 130.162, -150.805, 127.964, 88.1711, 0, 0, 2.04393, -53.7479, 1.99603, -173.879, 2.03032, 65.0972, 0.0813235, 166.075
2, 240.00000, 127.108, -30.6751, 130.159, -150.806, 127.96, 88.17, 0, 0, 2.04961, -53.7491, 2.00158, -173.88, 2.03596, 65.0961, 0.081551, 166.073
2, 300.00000, 127.104, -30.6763, 130.155, -150.807, 127.957, 88.169, 0, 0, 2.0553, -53.7502, 2.00713, -173.881, 2.04161, 65.095, 0.0817786, 166.071
2, 360.00000, 127.101, -30.6774, 130.151, -150.808, 127.953, 88.1679, 0, 0, 2.06105, -53.7513, 2.01274, -173.882, 2.04732, 65.094, 0.0820089, 166.069
2, 420.00000, 127.097, -30.6786, 130.148, -150.809, 127.949, 88.1668, 0, 0, 2.06674, -53.7525, 2.01829, -173.883, 2.05297, 65.0929, 0.0822365, 166.067
2, 480.00000, 127.093, -30.6797, 130.144, -150.81, 127.945, 88.1657, 0, 0, 2.07242, -53.7536, 2.02384, -173.884, 2.05862, 65.0918, 0.0824642, 166.065
2, 540.00000, 127.089, -30.6809, 130.14, -150.811, 127.942, 88.1647, 0, 0, 2.07818, -53.7548, 2.02945, -173.885, 2.06433, 65.0907, 0.0826946, 166.063
2, 600.00000, 127.085, -30.682, 130.137, -150.812, 127.938, 88.1636, 0, 0, 2.08386, -53.7559, 2.035, -173.886, 2.06998, 65.0897, 0.0829223, 166.061
2, 660.00000, 127.082, -30.6831, 130.133, -150.813, 127.934, 88.1625, 0, 0, 2.08955, -53.7571, 2.04055, -173.887, 2.07563, 65.0886, 0.08315, 166.059
2, 720.00000, 127.078, -30.6843, 130.129, -150.815, 127.93, 88.1614, 0, 0, 2.09531, -53.7582, 2.04617, -173.888, 2.08134, 65.0875, 0.0833804, 166.057
