hour,t(sec),V1,VAngle1,V2,VAngle2,V3,VAngle3,V4,VAngle4,I1,IAngle1,I2,IAngle2,I3,IAngle3,I4,IAngle4
0, 60.00000, 126.099, -30.653, 128.498, -150.73, 127.035, 88.5032, 0, 0, 2.69458, -53.7269, 2.6443, -173.804, 2.67471, 65.4297, 0.0815401, 161.937
0, 120.00000, 126.099, -30.6529, 128.52, -150.731, 127.044, 88.4949, 0, 0, 2.69458, -53.7269, 2.64385, -173.804, 2.67452, 65.4213, 0.0823067, 161.928
0, 180.00000, 126.099, -30.6529, 128.539, -150.731, 127.052, 88.4873, 0, 0, 2.69458, -53.7268, 2.64345, -173.805, 2.67435, 65.4137, 0.0829969, 161.92
0, 240.00000, 126.099, -30.6528, 128.557, -150.732, 127.059, 88.4806, 0, 0, 2.69458, -53.7267, 2.64308, -173.806, 2.6742, 65.407, 0.0836182, 161.913
0, 300.00000, 126.099, -30.6528, 128.573, -150.732, 127.066, 88.4745, 0, 0, 2.69458, -53.7267, 2.64275, -173.806, 2.67407, 65.4008, 0.0841775, 161.908
0, 360.00000, 126.099, -30.6527, 128.587, -150.733, 127.071, 88.469, 0, 0, 2.69458, -53.7266, 2.64246, -173.807, 2.67395, 65.3953, 0.084681, 161.903
0, 420.00000, 126.099, -30.6527, 128.6, -150.733, 127.077, 88.464, 0, 0, 2.69457, -53.7266, 2.64219, -173.807, 2.67384, 65.3903, 0.0851342, 161.899
0, 480.00000, 126.099, -30.6526, 128.611, -150.733, 127.081, 88.4596, 0, 0, 2.69457, -53.7266, 2.64195, -173.807, 2.67374, 65.3859, 0.0855421, 161.896
0, 540.00000, 126.099, -30.6526, 128.622, -150.734, 127.085, 88.4556, 0, 0, 2.69457, -53.7265, 2.64174, -173.808, 2.67365, 65.3818, 0.0859093, 161.893
0, 600.00000, 126.099, -30.6526, 128.631, -150.734, 127.089, 88.452, 0, 0, 2.69457, -53.7265, 2.64154, -173.808, 2.67357, 65.3782, 0.0862399, 161.891
0, 660.00000, 126.099, -30.6526, 128.64, -150.734, 127.093, 88.4487, 0, 0, 2.69457, -53.7265, 2.64137, -173.808, 2.6735, 65.3749, 0.0865374, 161.889
0, 720.00000, 126.099, -30.6525, 128.647, -150.735, 127.096, 88.4458, 0, 0, 2.69457, -53.7265, 2.64121, -173.809, 2.67344, 65.372, 0.0868052, 161.888
0, 780.00000, 126.099, -30.6525, 128.654, -150.735, 127.098, 88.4431, 0, 0, 2.69457, -53.7264, 2.64107, -173.809, 2.67338, 65.3693, 0.0870462, 161.886
0, 840.00000, 126.099, -30.6525, 128.66, -150.735, 127.101, 88.4408, 0, 0, 2.69457, -53.7264, 2.64094, -173.809, 2.67333, 65.367, 0.0872631, 161.885
0, 900.00000, 126.099, -30.6525, 128.666, -150.735, 127.103, 88.4386, 0, 0, 2.69457, -53.7264, 2.64083, -173.809, 2.67328, 65.3648, 0.0874584, 161.884
0, 960.00000, 125.702, -30.6924, 128.664, -150.741, 126.963, 88.2705, 0, 0, 2.70308, -53.7663, 2.64086, -173.815, 2.67623, 65.1967, 0.101368, 159.489
0, 1020.00000, 125.702, -30.6923, 128.669, -150.741, 126.965, 88.2688, 0, 0, 2.70308, -53.7663, 2.64077, -173.815, 2.67619, 65.195, 0.101525, 159.492
0, 1080.00000, 125.702, -30.6923, 128.673, -150.741, 126.966, 88.2673, 0, 0, 2.70308, -53.7662, 2.64068, -173.815, 2.67616, 65.1934, 0.101666, 159.496
0, 1140.00000, 125.702, -30.6923, 128.676, -150.741, 126.968, 88.2659, 0, 0, 2.70308, -53.7662, 2.64061, -173.815, 2.67613, 65.192, 0.101794, 159.499
0, 1200.00000, 125.702, -30.6923, 128.679, -150.741, 126.969, 88.2646, 0, 0, 2.70308, -53.7662, 2.64054, -173.815, 2.6761, 65.1908, 0.101908, 159.502
0, 1260.00000, 125.702, -30.6923, 128.682, -150.741, 126.97, 88.2635, 0, 0, 2.70308, -53.7662, 2.64048, -173.815, 2.67608, 65.1896, 0.102011, 159.504
0, 1320.00000, 125.702, -30.6922, 128.685, -150.742, 126.971, 88.2625, 0, 0, 2.70308, -53.7662, 2.64043, -173.815, 2.67606, 65.1886, 0.102104, 159.506
0, 1380.00000, 125.702, -30.6922, 128.687, -150.742, 126.972, 88.2616, 0, 0, 2.70308, -53.7662, 2.64038, -173.816, 2.67604, 65.1877, 0.102188, 159.508
0, 1440.00000, 125.702, -30.6922, 128.69, -150.742, 126.973, 88.2607, 0, 0, 2.70308, -53.7661, 2.64033, -173.816, 2.67602, 65.1869, 0.102263, 159.51
0, 1500.00000, 125.702, -30.6922, 128.691, -150.742, 126.974, 88.26, 0, 0, 2.70308, -53.7661, 2.64029, -173.816, 2.676, 65.1861, 0.10233, 159.512
0, 1560.00000, 125.702, -30.6922, 128.693, -150.742, 126.975, 88.2593, 0, 0, 2.70307, -53.7661, 2.64026, -173.816, 2.67599, 65.1854, 0.102391, 159.513
0, 1620.00000, 125.702, -30.6922, 128.695, -150.742, 126.975, 88.2587, 0, 0, 2.70307, -53.7661, 2.64022, -173.816, 2.67598, 65.1848, 0.102446, 159.514
0, 1680.00000, 125.702, -30.6922, 128.696, -150.742, 126.976, 88.2582, 0, 0, 2.70307, -53.7661, 2.64019, -173.816, 2.67596, 65.1843, 0.102495, 159.516
0, 1740.00000, 125.702, -30.6922, 128.697, -150.742, 126.976, 88.2577, 0, 0, 2.70307, -53.7661, 2.64017, -173.816, 2.67595, 65.1838, 0.10254, 159.517
0, 1800.00000, 125.702, -30.6922, 128.699, -150.742, 126.977, 88.2573, 0, 0, 2.70307, -53.7661, 2.64015, -173.816, 2.67594, 65.1834, 0.10258, 159.518
0, 1860.00000, 125.702, -30.6922, 128.7, -150.742, 126.977, 88.2569, 0, 0, 2.70307, -53.7661, 2.64012, -173.816, 2.67594, 65.183, 0.102616, 159.519
0, 1920.00000, 125.702, -30.6922, 128.7, -150.742, 126.977, 88.2565, 0, 0, 2.70307, -53.7661, 2.64011, -173.816, 2.67593, 65.1826, 0.102648, 159.519
0, 1980.00000, 125.702, -30.6921, 128.701, -150.742, 126.978, 88.2562, 0, 0, 2.70307, -53.7661, 2.64009, -173.816, 2.67592, 65.1823, 0.102677, 159.52
0, 2040.00000, 125.702, -30.6921, 128.702, -150.742, 126.978, 88.2559, 0, 0, 2.70307, -53.7661, 2.64007, -173.816, 2.67591, 65.182, 0.102703, 159.521
0, 2100.00000, 125.702, -30.6921, 128.703, -150.742, 126.978, 88.2557, 0, 0, 2.70307, -53.7661, 2.64006, -173.816, 2.67591, 65.1818, 0.102727, 159.521
0, 2160.00000, 125.702, -30.6921, 128.703, -150.742, 126.979, 88.2554, 0, 0, 2.70307, -53.7661, 2.64005, -173.816, 2.6759, 65.1815, 0.102748, 159.522
0, 2220.00000, 125.702, -30.6921, 128.704, -150.742, 126.979, 88.2552, 0, 0, 2.70307, -53.7661, 2.64003, -173.816, 2.6759, 65.1813, 0.102767, 159.522
0, 2280.00000, 125.702, -30.6921, 128.704, -150.742, 126.979, 88.255, 0, 0, 2.70307, -53.766, 2.64002, -173.816, 2.6759, 65.1811, 0.102784, 159.523
0, 2340.00000, 125.702, -30.6921, 128.705, -150.742, 126.979, 88.2549, 0, 0, 2.70307, -53.766, 2.64002, -173.816, 2.67589, 65.181, 0.1028, 159.523
0, 2400.00000, 125.702, -30.6921, 128.705, -150.742, 126.979, 88.2547, 0, 0, 2.70307, -53.766, 2.64001, -173.816, 2.67589, 65.1808, 0.102814, 159.523
0, 2460.00000, 125.702, -30.6921, 128.706, -150.742, 126.979, 88.2546, 0, 0, 2.70307, -53.766, 2.64, -173.816, 2.67589, 65.1807, 0.102826, 159.524
0, 2520.00000, 125.702, -30.6921, 128.706, -150.742, 126.98, 88.2544, 0, 0, 2.70307, -53.766, 2.63999, -173.816, 2.67588, 65.1805, 0.102838, 159.524
0, 2580.00000, 125.702, -30.6921, 128.706, -150.742, 126.98, 88.2543, 0, 0, 2.70307, -53.766, 2.63999, -173.816, 2.67588, 65.1804, 0.102848, 159.524
0, 2640.00000, 125.702, -30.6921, 128.706, -150.742, 126.98, 88.2542, 0, 0, 2.70307, -53.766, 2.63998, -173.816, 2.67588, 65.1803, 0.102857, 159.524
0, 2700.00000, 125.702, -30.6921, 128.707, -150.742, 126.98, 88.2542, 0, 0, 2.70307, -53.766, 2.63998, -173.816, 2.67588, 65.1802, 0.102865, 159.525
0, 2760.00000, 125.702, -30.6921, 128.707, -150.742, 126.98, 88.2541, 0, 0, 2.70307, -53.766, 2.63997, -173.816, 2.67587, 65.1802, 0.102873, 159.525
0, 2820.00000, 125.702, -30.6921, 128.707, -150.742, 126.98, 88.254, 0, 0, 2.70307, -53.766, 2.63997, -173.816, 2.67587, 65.1801, 0.102879, 159.525
0, 2880.00000, 125.702, -30.6921, 128.707, -150.742, 126.98, 88.2539, 0, 0, 2.70307, -53.766, 2.63997, -173.816, 2.67587, 65.18, 0.102885, 159.525
0, 2940.00000, 125.702, -30.6921, 128.707, -150.742, 126.98, 88.2539, 0, 0, 2.70307, -53.766, 2.63996, -173.816, 2.67587, 65.18, 0.102891, 159.525
0, 3000.00000, 125.702, -30.6921, 128.708, -150.742, 126.98, 88.2538, 0, 0, 2.70307, -53.766, 2.63996, -173.816, 2.67587, 65.1799, 0.102895, 159.525
0, 3060.00000, 125.702, -30.6921, 128.708, -150.742, 126.98, 88.2538, 0, 0, 2.70307, -53.766, 2.63996, -173.816, 2.67587, 65.1799, 0.1029, 159.525
0, 3120.00000, 125.702, -30.6921, 128.708, -150.742, 126.98, 88.2537, 0, 0, 2.70307, -53.766, 2.63995, -173.816, 2.67587, 65.1798, 0.102904, 159.526
0, 3180.00000, 125.702, -30.6921, 128.708, -150.742, 126.98, 88.2537, 0, 0, 2.70307, -53.766, 2.63995, -173.816, 2.67587, 65.1798, 0.102907, 159.526
0, 3240.00000, 125.702, -30.6921, 128.708, -150.742, 126.98, 88.2537, 0, 0, 2.70307, -53.766, 2.63995, -173.816, 2.67587, 65.1797, 0.10291, 159.526
0, 3300.00000, 125.702, -30.6921, 128.708, -150.742, 126.98, 88.2536, 0, 0, 2.70307, -53.766, 2.63995, -173.816, 2.67587, 65.1797, 0.102913, 159.526
0, 3360.00000, 125.702, -30.6921, 128.708, -150.742, 126.98, 88.2536, 0, 0, 2.70307, -53.766, 2.63995, -173.816, 2.67586, 65.1797, 0.102916, 159.526
0, 3420.00000, 125.702, -30.6921, 128.708, -150.742, 126.981, 88.2536, 0, 0, 2.70307, -53.766, 2.63995, -173.816, 2.67586, 65.1796, 0.102918, 159.526
0, 3480.00000, 125.702, -30.6921, 128.708, -150.742, 126.981, 88.2535, 0, 0, 2.70307, -53.766, 2.63994, -173.816, 2.67586, 65.1796, 0.10292, 159.526
0, 3540.00000, 125.702, -30.6921, 128.708, -150.742, 126.981, 88.2535, 0, 0, 2.70307, -53.766, 2.63994, -173.816, 2.67586, 65.1796, 0.102922, 159.526
1, 0.00000, 125.702, -30.6921, 128.708, -150.742, 126.981, 88.2535, 0, 0, 2.70307, -53.766, 2.63994, -173.816, 2.67586, 65.1796, 0.102924, 159.526
1, 60.00000, 125.702, -30.6921, 128.708, -150.742, 126.981, 88.2535, 0, 0, 2.70307, -53.766, 2.63994, -173.816, 2.67586, 65.1796, 0.102925, 159.526
1, 120.00000, 125.702, -30.6921, 128.708, -150.742, 126.981, 88.2535, 0, 0, 2.70307, -53.766, 2.63994, -173.816, 2.67586, 65.1796, 0.102927, 159.526
1, 180.00000, 125.702, -30.6921, 128.708, -150.742, 126.981, 88.2535, 0, 0, 2.70307, -53.766, 2.63994, -173.816, 2.67586, 65.1795, 0.102928, 159.526
1, 240.00000, 125.702, -30.6921, 128.708, -150.742, 126.981, 88.2534, 0, 0, 2.70307, -53.766, 2.63994, -173.816, 2.67586, 65.1795, 0.102929, 159.526
1, 300.00000, 125.702, -30.6921, 128.709, -150.742, 126.981, 88.2534, 0, 0, 2.70307, -53.766, 2.63994, -173.816, 2.67586, 65.1795, 0.10293, 159.526
1, 360.00000, 125.702, -30.6921, 128.709, -150.742, 126.981, 88.2534, 0, 0, 2.70307, -53.766, 2.63994, -173.816, 2.67586, 65.1795, 0.102931, 159.526
1, 420.00000, 125.702, -30.6921, 128.709, -150.742, 126.981, 88.2534, 0, 0, 2.70307, -53.766, 2.63994, -173.816, 2.67586, 65.1795, 0.102932, 159.526
1, 480.00000, 125.702, -30.6921, 128.709, -150.742, 126.981, 88.2534, 0, 0, 2.70307, -53.766, 2.63994, -173.816, 2.67586, 65.1795, 0.102933, 159.526
1, 540.00000, 125.702, -30.6921, 128.709, -150.742, 126.981, 88.2534, 0, 0, 2.70307, -53.766, 2.63994, -173.816, 2.67586, 65.1795, 0.102933, 159.526
1, 600.00000, 125.702, -30.6921, 128.709, -150.742, 126.981, 88.2534, 0, 0, 2.70307, -53.766, 2.63994, -173.816, 2.67586, 65.1795, 0.102934, 159.526
1, 660.00000, 125.702, -30.6921, 128.709, -150.742, 126.981, 88.2534, 0, 0, 2.70307, -53.766, 2.63994, -173.816, 2.67586, 65.1795, 0.102934, 159.526
1, 720.00000, 125.702, -30.6921, 128.709, -150.742, 126.981, 88.2534, 0, 0, 2.70307, -53.766, 2.63994, -173.816, 2.67586, 65.1795, 0.102935, 159.526
1, 780.00000, 125.702, -30.6921, 128.709, -150.742, 126.981, 88.2534, 0, 0, 2.70307, -53.766, 2.63994, -173.816, 2.67586, 65.1795, 0.102935, 159.526
1, 840.00000, 125.702, -30.6921, 128.709, -150.742, 126.981, 88.2534, 0, 0, 2.70307, -53.766, 2.63994, -173.816, 2.67586, 65.1795, 0.102936, 159.526
1, 900.00000, 125.702, -30.6921, 128.709, -150.742, 126.981, 88.2534, 0, 0, 2.70307, -53.766, 2.63994, -173.816, 2.67586, 65.1795, 0.102936, 159.526
1, 960.00000, 125.702, -30.6921, 128.709, -150.742, 126.981, 88.2534, 0, 0, 2.70307, -53.766, 2.63994, -173.816, 2.67586, 65.1795, 0.102936, 159.526
1, 1020.00000, 125.702, -30.6921, 128.709, -150.742, 126.981, 88.2534, 0, 0, 2.70307, -53.766, 2.63994, -173.816, 2.67586, 65.1794, 0.102937, 159.526
1, 1080.00000, 125.702, -30.6921, 128.709, -150.742, 126.981, 88.2534, 0, 0, 2.70307, -53.766, 2.63993, -173.816, 2.67586, 65.1794, 0.102937, 159.526
1, 1140.00000, 125.702, -30.6921, 128.709, -150.742, 126.981, 88.2534, 0, 0, 2.70307, -53.766, 2.63993, -173.816, 2.67586, 65.1794, 0.102937, 159.526
1, 1200.00000, 125.702, -30.6921, 128.709, -150.742, 126.981, 88.2534, 0, 0, 2.70307, -53.766, 2.63993, -173.816, 2.67586, 65.1794, 0.102937, 159.526
1, 1260.00000, 125.702, -30.6921, 128.709, -150.742, 126.981, 88.2534, 0, 0, 2.70307, -53.766, 2.63993, -173.816, 2.67586, 65.1794, 0.102937, 159.526
1, 1320.00000, 125.702, -30.6921, 128.709, -150.742, 126.981, 88.2534, 0, 0, 2.70307, -53.766, 2.63993, -173.816, 2.67586, 65.1794, 0.102938, 159.526
1, 1380.00000, 125.702, -30.6921, 128.709, -150.742, 126.981, 88.2533, 0, 0, 2.70307, -53.766, 2.63993, -173.816, 2.67586, 65.1794, 0.102938, 159.526
1, 1440.00000, 125.702, -30.6921, 128.709, -150.742, 126.981, 88.2533, 0, 0, 2.70307, -53.766, 2.63993, -173.816, 2.67586, 65.1794, 0.102938, 159.526
1, 1500.00000, 125.702, -30.6921, 128.709, -150.742, 126.981, 88.2533, 0, 0, 2.70307, -53.766, 2.63993, -173.816, 2.67586, 65.1794, 0.102938, 159.526
1, 1560.00000, 125.702, -30.6921, 128.709, -150.742, 126.981, 88.2533, 0, 0, 2.70307, -53.766, 2.63993, -173.816, 2.67586, 65.1794, 0.102938, 159.526
1, 1620.00000, 125.702, -30.6921, 128.709, -150.742, 126.981, 88.2533, 0, 0, 2.70307, -53.766, 2.63993, -173.816, 2.67586, 65.1794, 0.102938, 159.526
1, 1680.00000, 125.702, -30.6921, 128.709, -150.742, 126.981, 88.2533, 0, 0, 2.70307, -53.766, 2.63993, -173.816, 2.67586, 65.1794, 0.102938, 159.526
1, 1740.00000, 125.702, -30.6921, 128.709, -150.742, 126.981, 88.2533, 0, 0, 2.70307, -53.766, 2.63993, -173.816, 2.67586, 65.1794, 0.102938, 159.526
1, 1800.00000, 125.702, -30.6921, 128.709, -150.742, 126.981, 88.2533, 0, 0, 2.70307, -53.766, 2.63993, -173.816, 2.67586, 65.1794, 0.102939, 159.526
1, 1860.00000, 125.702, -30.6921, 128.709, -150.742, 126.981, 88.2533, 0, 0, 2.70307, -53.766, 2.63993, -173.816, 2.67586, 65.1794, 0.102939, 159.526
1, 1920.00000, 125.702, -30.6921, 128.709, -150.742, 126.981, 88.2533, 0, 0, 2.70307, -53.766, 2.63993, -173.816, 2.67586, 65.1794, 0.102939, 159.526
1, 1980.00000, 125.702, -30.6921, 128.709, -150.742, 126.981, 88.2533, 0, 0, 2.70307, -53.766, 2.63993, -173.816, 2.67586, 65.1794, 0.102939, 159.526
1, 2040.00000, 126.096, -30.6524, 128.716, -150.737, 127.122, 88.418, 0, 0, 2.69463, -53.7263, 2.63979, -173.811, 2.67288, 65.3441, 0.0893349, 161.856
1, 2100.00000, 126.096, -30.6524, 128.716, -150.737, 127.122, 88.418, 0, 0, 2.69463, -53.7263, 2.63979, -173.811, 2.67288, 65.3441, 0.0893353, 161.856
1, 2160.00000, 126.096, -30.6524, 128.716, -150.737, 127.122, 88.418, 0, 0, 2.69463, -53.7263, 2.63979, -173.811, 2.67288, 65.3441, 0.0893354, 161.856
1, 2220.00000, 126.096, -30.6524, 128.716, -150.737, 127.122, 88.418, 0, 0, 2.69463, -53.7263, 2.63979, -173.811, 2.67288, 65.3441, 0.0893354, 161.856
1, 2280.00000, 126.096, -30.6524, 128.716, -150.737, 127.122, 88.418, 0, 0, 2.69463, -53.7263, 2.63979, -173.811, 2.67288, 65.3441, 0.0893354, 161.856
1, 2340.00000, 126.096, -30.6524, 128.716, -150.737, 127.122, 88.418, 0, 0, 2.69463, -53.7263, 2.63979, -173.811, 2.67288, 65.3441, 0.0893354, 161.856
1, 2400.00000, 126.096, -30.6524, 128.716, -150.737, 127.122, 88.418, 0, 0, 2.69463, -53.7263, 2.63979, -173.811, 2.67288, 65.3441, 0.0893355, 161.856
1, 2460.00000, 126.096, -30.6524, 128.716, -150.737, 127.122, 88.418, 0, 0, 2.69463, -53.7263, 2.63979, -173.811, 2.67288, 65.3441, 0.0893355, 161.856
1, 2520.00000, 126.508, -30.6103, 128.723, -150.731, 127.271, 88.5914, 0, 0, 2.68585, -53.6843, 2.63965, -173.805, 2.66975, 65.5175, 0.0753179, 165.151
1, 2580.00000, 126.508, -30.6103, 128.723, -150.731, 127.271, 88.5914, 0, 0, 2.68585, -53.6843, 2.63965, -173.805, 2.66975, 65.5175, 0.0753183, 165.151
1, 2640.00000, 126.508, -30.6103, 128.723, -150.731, 127.271, 88.5914, 0, 0, 2.68585, -53.6843, 2.63965, -173.805, 2.66975, 65.5175, 0.0753184, 165.151
1, 2700.00000, 126.508, -30.6103, 128.723, -150.731, 127.271, 88.5914, 0, 0, 2.68585, -53.6843, 2.63965, -173.805, 2.66975, 65.5175, 0.0753184, 165.151
1, 2760.00000, 126.509, -30.6099, 128.889, -150.57, 127.677, 88.6195, 0, 0, 2.68584, -53.6838, 2.63623, -173.644, 2.66127, 65.5456, 0.0796947, 155.155
1, 2820.00000, 126.509, -30.6099, 128.889, -150.57, 127.677, 88.6195, 0, 0, 2.68584, -53.6838, 2.63623, -173.644, 2.66127, 65.5456, 0.0796951, 155.156
1, 2880.00000, 126.509, -30.6099, 128.889, -150.57, 127.677, 88.6195, 0, 0, 2.68584, -53.6838, 2.63623, -173.644, 2.66127, 65.5456, 0.0796951, 155.156
1, 2940.00000, 126.509, -30.6099, 128.889, -150.57, 127.677, 88.6195, 0, 0, 2.68584, -53.6838, 2.63623, -173.644, 2.66127, 65.5456, 0.0796951, 155.156
1, 3000.00000, 126.509, -30.6099, 128.889, -150.57, 127.677, 88.6195, 0, 0, 2.68584, -53.6838, 2.63623, -173.644, 2.66127, 65.5456, 0.0796951, 155.156
1, 3060.00000, 126.509, -30.6099, 128.889, -150.57, 127.677, 88.6195, 0, 0, 2.68584, -53.6838, 2.63623, -173.644, 2.66127, 65.5456, 0.0796951, 155.156
1, 3120.00000, 126.509, -30.6099, 128.889, -150.57, 127.677, 88.6195, 0, 0, 2.68584, -53.6838, 2.63623, -173.644, 2.66127, 65.5456, 0.0796951, 155.156
1, 3180.00000, 126.509, -30.6099, 128.889, -150.57, 127.677, 88.6195, 0, 0, 2.68584, -53.6838, 2.63623, -173.644, 2.66127, 65.5456, 0.0796951, 155.156
1, 3240.00000, 126.509, -30.6099, 128.889, -150.57, 127.677, 88.6195, 0, 0, 2.68584, -53.6838, 2.63623, -173.644, 2.66127, 65.5456, 0.0796951, 155.156
1, 3300.00000, 126.509, -30.6099, 128.889, -150.57, 127.677, 88.6195, 0, 0, 2.68584, -53.6838, 2.63623, -173.644, 2.66127, 65.5456, 0.0796951, 155.156
1, 3360.00000, 126.509, -30.6099, 128.889, -150.57, 127.677, 88.6195, 0, 0, 2.68584, -53.6838, 2.63623, -173.644, 2.66127, 65.5456, 0.0796951, 155.156
1, 3420.00000, 126.509, -30.6099, 128.889, -150.57, 127.677, 88.6195, 0, 0, 2.68584, -53.6838, 2.63623, -173.644, 2.66127, 65.5456, 0.0796951, 155.156
1, 3480.00000, 126.509, -30.6099, 128.889, -150.57, 127.677, 88.6195, 0, 0, 2.68584, -53.6838, 2.63623, -173.644, 2.66127, 65.5456, 0.0796951, 155.156
1, 3540.00000, 126.509, -30.6099, 128.889, -150.57, 127.677, 88.6195, 0, 0, 2.68584, -53.6838, 2.63623, -173.644, 2.66127, 65.5456, 0.0796951, 155.156
2, 0.00000, 126.509, -30.6099, 128.889, -150.57, 127.677, 88.6195, 0, 0, 2.68584, -53.6838, 2.63623, -173.644, 2.66127, 65.5456, 0.0796951, 155.156
2, 60.00000, 126.509, -30.6099, 128.889, -150.57, 127.677, 88.6195, 0, 0, 2.68584, -53.6838, 2.63623, -173.644, 2.66127, 65.5456, 0.0796951, 155.156
2, 120.00000, 126.504, -30.6111, 128.885, -150.571, 127.672, 88.6185, 0, 0, 2.69338, -53.685, 2.64362, -173.645, 2.66872, 65.5446, 0.0799232, 155.152
2, 180.00000, 126.499, -30.6123, 128.881, -150.572, 127.668, 88.6174, 0, 0, 2.701, -53.6862, 2.65109, -173.646, 2.67627, 65.5435, 0.080154, 155.148
2, 240.00000, 126.494, -30.6135, 128.876, -150.573, 127.663, 88.6164, 0, 0, 2.70853, -53.6874, 2.65847, -173.647, 2.68373, 65.5425, 0.0803821, 155.143
2, 300.00000, 126.49, -30.6147, 128.872, -150.574, 127.659, 88.6154, 0, 0, 2.71607, -53.6886, 2.66586, -173.648, 2.69119, 65.5415, 0.0806102, 155.139
2, 360.00000, 126.485, -30.6159, 128.868, -150.575, 127.654, 88.6143, 0, 0, 2.72369, -53.6898, 2.67333, -173.649, 2.69874, 65.5404, 0.0808412, 155.135
2, 420.00000, 126.48, -30.617, 128.863, -150.576, 127.65, 88.6133, 0, 0, 2.73123, -53.691, 2.68071, -173.65, 2.7062, 65.5394, 0.0810694, 155.131
2, 480.00000, 126.475, -30.6182, 128.859, -150.577, 127.645, 88.6123, 0, 0, 2.73876, -53.6922, 2.6881, -173.651, 2.71367, 65.5384, 0.0812977, 155.127
2, 540.00000, 126.471, -30.6194, 128.855, -150.578, 127.64, 88.6113, 0, 0, 2.74639, -53.6934, 2.69557, -173.652, 2.72122, 65.5373, 0.0815288, 155.123
2, 600.00000, 126.466, -30.6206, 128.85, -150.579, 127.636, 88.6102, 0, 0, 2.75392, -53.6945, 2.70296, -173.653, 2.72868, 65.5363, 0.0817571, 155.119
2, 660.00000, 126.461, -30.6218, 128.846, -150.58, 127.631, 88.6092, 0, 0, 2.76146, -53.6957, 2.71035, -173.654, 2.73614, 65.5353, 0.0819855, 155.115
2, 720.00000, 126.456, -30.623, 128.842, -150.581, 127.627, 88.6082, 0, 0, 2.76909, -53.6969, 2.71782, -173.655, 2.7437, 65.5343, 0.0822168, 155.11
