hour,t(sec),V1,VAngle1,V2,VAngle2,V3,VAngle3,V4,VAngle4,I1,IAngle1,I2,IAngle2,I3,IAngle3,I4,IAngle4
0, 60.00000, 126.739, -30.7683, 126.529, -150.595, 126.972, 89.4541, 0, 0, 2.56862, -53.8422, 2.57287, -173.669, 2.56391, 66.3802, 0.0167211, 30.6078
0, 120.00000, 126.739, -30.7683, 126.529, -150.595, 126.972, 89.4541, 0, 0, 2.56862, -53.8423, 2.57287, -173.669, 2.56391, 66.3802, 0.0167276, 30.6056
0, 180.00000, 126.739, -30.7683, 126.529, -150.595, 126.972, 89.4541, 0, 0, 2.56862, -53.8423, 2.57287, -173.669, 2.56391, 66.3802, 0.0167276, 30.6056
0, 240.00000, 126.739, -30.7683, 126.529, -150.595, 126.972, 89.4541, 0, 0, 2.56862, -53.8423, 2.57287, -173.669, 2.56391, 66.3802, 0.0167276, 30.6056
0, 300.00000, 126.739, -30.7683, 126.529, -150.595, 126.972, 89.4541, 0, 0, 2.56862, -53.8423, 2.57287, -173.669, 2.56391, 66.3802, 0.0167276, 30.6056
0, 360.00000, 126.739, -30.7683, 126.529, -150.595, 126.972, 89.4541, 0, 0, 2.56862, -53.8423, 2.57287, -173.669, 2.56391, 66.3802, 0.0167276, 30.6056
0, 420.00000, 126.739, -30.7683, 126.529, -150.595, 126.972, 89.4541, 0, 0, 2.56862, -53.8423, 2.57287, -173.669, 2.56391, 66.3802, 0.0167276, 30.6056
0, 480.00000, 126.739, -30.7683, 126.529, -150.595, 126.972, 89.4541, 0, 0, 2.56862, -53.8423, 2.57287, -173.669, 2.56391, 66.3802, 0.0167276, 30.6056
0, 540.00000, 126.739, -30.7683, 126.529, -150.595, 126.972, 89.4541, 0, 0, 2.56862, -53.8423, 2.57287, -173.669, 2.56391, 66.3802, 0.0167276, 30.6056
0, 600.00000, 126.739, -30.7683, 126.529, -150.595, 126.972, 89.4541, 0, 0, 2.56862, -53.8423, 2.57287, -173.669, 2.56391, 66.3802, 0.0167276, 30.6056
0, 660.00000, 126.739, -30.7683, 126.529, -150.595, 126.972, 89.4541, 0, 0, 2.56862, -53.8423, 2.57287, -173.669, 2.56391, 66.3802, 0.0167276, 30.6056
0, 720.00000, 126.739, -30.7683, 126.529, -150.595, 126.972, 89.4541, 0, 0, 2.56862, -53.8423, 2.57287, -173.669, 2.56391, 66.3802, 0.0167276, 30.6056
0, 780.00000, 126.739, -30.7683, 126.529, -150.595, 126.972, 89.4541, 0, 0, 2.56862, -53.8423, 2.57287, -173.669, 2.56391, 66.3802, 0.0167276, 30.6056
0, 840.00000, 126.739, -30.7683, 126.529, -150.595, 126.972, 89.4541, 0, 0, 2.56862, -53.8423, 2.57287, -173.669, 2.56391, 66.3802, 0.0167276, 30.6056
0, 900.00000, 126.739, -30.7683, 126.529, -150.595, 126.972, 89.4541, 0, 0, 2.56862, -53.8423, 2.57287, -173.669, 2.56391, 66.3802, 0.0167276, 30.6056
0, 960.00000, 126.739, -30.7683, 126.529, -150.595, 126.972, 89.4541, 0, 0, 2.56862, -53.8423, 2.57287, -173.669, 2.56391, 66.3802, 0.0167276, 30.6056
0, 1020.00000, 126.739, -30.7683, 126.529, -150.595, 126.972, 89.4541, 0, 0, 2.56862, -53.8423, 2.57287, -173.669, 2.56391, 66.3802, 0.0167276, 30.6056
0, 1080.00000, 126.739, -30.7683, 126.529, -150.595, 126.972, 89.4541, 0, 0, 2.56862, -53.8423, 2.57287, -173.669, 2.56391, 66.3802, 0.0167276, 30.6056
0, 1140.00000, 126.739, -30.7683, 126.529, -150.595, 126.972, 89.4541, 0, 0, 2.56862, -53.8423, 2.57287, -173.669, 2.56391, 66.3802, 0.0167276, 30.6056
0, 1200.00000, 126.739, -30.7683, 126.529, -150.595, 126.972, 89.4541, 0, 0, 2.56862, -53.8423, 2.57287, -173.669, 2.56391, 66.3802, 0.0167276, 30.6056
0, 1260.00000, 126.739, -30.7683, 126.529, -150.595, 126.972, 89.4541, 0, 0, 2.56862, -53.8423, 2.57287, -173.669, 2.56391, 66.3802, 0.0167276, 30.6056
0, 1320.00000, 126.739, -30.7683, 126.529, -150.595, 126.972, 89.4541, 0, 0, 2.56862, -53.8423, 2.57287, -173.669, 2.56391, 66.3802, 0.0167276, 30.6056
0, 1380.00000, 126.739, -30.7683, 126.529, -150.595, 126.972, 89.4541, 0, 0, 2.56862, -53.8423, 2.57287, -173.669, 2.56391, 66.3802, 0.0167276, 30.6056
0, 1440.00000, 126.739, -30.7683, 126.529, -150.595, 126.972, 89.4541, 0, 0, 2.56862, -53.8423, 2.57287, -173.669, 2.56391, 66.3802, 0.0167276, 30.6056
0, 1500.00000, 126.739, -30.7683, 126.529, -150.595, 126.972, 89.4541, 0, 0, 2.56862, -53.8423, 2.57287, -173.669, 2.56391, 66.3802, 0.0167276, 30.6056
0, 1560.00000, 126.739, -30.7683, 126.529, -150.595, 126.972, 89.4541, 0, 0, 2.56862, -53.8423, 2.57287, -173.669, 2.56391, 66.3802, 0.0167276, 30.6056
0, 1620.00000, 126.739, -30.7683, 126.529, -150.595, 126.972, 89.4541, 0, 0, 2.56862, -53.8423, 2.57287, -173.669, 2.56391, 66.3802, 0.0167276, 30.6056
0, 1680.00000, 126.739, -30.7683, 126.529, -150.595, 126.972, 89.4541, 0, 0, 2.56862, -53.8423, 2.57287, -173.669, 2.56391, 66.3802, 0.0167276, 30.6056
0, 1740.00000, 126.739, -30.7683, 126.529, -150.595, 126.972, 89.4541, 0, 0, 2.56862, -53.8423, 2.57287, -173.669, 2.56391, 66.3802, 0.0167276, 30.6056
0, 1800.00000, 126.739, -30.7683, 126.529, -150.595, 126.972, 89.4541, 0, 0, 2.56862, -53.8423, 2.57287, -173.669, 2.56391, 66.3802, 0.0167276, 30.6056
0, 1860.00000, 126.739, -30.7683, 126.529, -150.595, 126.972, 89.4541, 0, 0, 2.56862, -53.8423, 2.57287, -173.669, 2.56391, 66.3802, 0.0167276, 30.6056
0, 1920.00000, 126.739, -30.7683, 126.529, -150.595, 126.972, 89.4541, 0, 0, 2.56862, -53.8423, 2.57287, -173.669, 2.56391, 66.3802, 0.0167276, 30.6056
0, 1980.00000, 126.739, -30.7683, 126.529, -150.595, 126.972, 89.4541, 0, 0, 2.56862, -53.8423, 2.57287, -173.669, 2.56391, 66.3802, 0.0167276, 30.6056
0, 2040.00000, 126.739, -30.7683, 126.529, -150.595, 126.972, 89.4541, 0, 0, 2.56862, -53.8423, 2.57287, -173.669, 2.56391, 66.3802, 0.0167276, 30.6056
0, 2100.00000, 126.739, -30.7683, 126.529, -150.595, 126.972, 89.4541, 0, 0, 2.56862, -53.8423, 2.57287, -173.669, 2.56391, 66.3802, 0.0167276, 30.6056
0, 2160.00000, 126.739, -30.7683, 126.529, -150.595, 126.972, 89.4541, 0, 0, 2.56862, -53.8423, 2.57287, -173.669, 2.56391, 66.3802, 0.0167276, 30.6056
0, 2220.00000, 126.739, -30.7683, 126.529, -150.595, 126.972, 89.4541, 0, 0, 2.56862, -53.8423, 2.57287, -173.669, 2.56391, 66.3802, 0.0167276, 30.6056
0, 2280.00000, 126.739, -30.7683, 126.529, -150.595, 126.972, 89.4541, 0, 0, 2.56862, -53.8423, 2.57287, -173.669, 2.56391, 66.3802, 0.0167276, 30.6056
0, 2340.00000, 126.739, -30.7683, 126.529, -150.595, 126.972, 89.4541, 0, 0, 2.56862, -53.8423, 2.57287, -173.669, 2.56391, 66.3802, 0.0167276, 30.6056
0, 2400.00000, 126.739, -30.7683, 126.529, -150.595, 126.972, 89.4541, 0, 0, 2.56862, -53.8423, 2.57287, -173.669, 2.56391, 66.3802, 0.0167276, 30.6056
0, 2460.00000, 126.739, -30.7683, 126.529, -150.595, 126.972, 89.4541, 0, 0, 2.56862, -53.8423, 2.57287, -173.669, 2.56391, 66.3802, 0.0167276, 30.6056
0, 2520.00000, 126.739, -30.7683, 126.529, -150.595, 126.972, 89.4541, 0, 0, 2.56862, -53.8423, 2.57287, -173.669, 2.56391, 66.3802, 0.0167276, 30.6056
0, 2580.00000, 126.739, -30.7683, 126.529, -150.595, 126.972, 89.4541, 0, 0, 2.56862, -53.8423, 2.57287, -173.669, 2.56391, 66.3802, 0.0167276, 30.6056
0, 2640.00000, 126.739, -30.7683, 126.529, -150.595, 126.972, 89.4541, 0, 0, 2.56862, -53.8423, 2.57287, -173.669, 2.56391, 66.3802, 0.0167276, 30.6056
0, 2700.00000, 126.739, -30.7683, 126.529, -150.595, 126.972, 89.4541, 0, 0, 2.56862, -53.8423, 2.57287, -173.669, 2.56391, 66.3802, 0.0167276, 30.6056
0, 2760.00000, 126.739, -30.7683, 126.529, -150.595, 126.972, 89.4541, 0, 0, 2.56862, -53.8423, 2.57287, -173.669, 2.56391, 66.3802, 0.0167276, 30.6056
0, 2820.00000, 126.739, -30.7683, 126.529, -150.595, 126.972, 89.4541, 0, 0, 2.56862, -53.8423, 2.57287, -173.669, 2.56391, 66.3802, 0.0167276, 30.6056
0, 2880.00000, 126.739, -30.7683, 126.529, -150.595, 126.972, 89.4541, 0, 0, 2.56862, -53.8423, 2.57287, -173.669, 2.56391, 66.3802, 0.0167276, 30.6056
0, 2940.00000, 126.739, -30.7683, 126.529, -150.595, 126.972, 89.4541, 0, 0, 2.56862, -53.8423, 2.57287, -173.669, 2.56391, 66.3802, 0.0167276, 30.6056
0, 3000.00000, 126.739, -30.7683, 126.529, -150.595, 126.972, 89.4541, 0, 0, 2.56862, -53.8423, 2.57287, -173.669, 2.56391, 66.3802, 0.0167276, 30.6056
0, 3060.00000, 126.739, -30.7683, 126.529, -150.595, 126.972, 89.4541, 0, 0, 2.56862, -53.8423, 2.57287, -173.669, 2.56391, 66.3802, 0.0167276, 30.6056
0, 3120.00000, 126.739, -30.7683, 126.529, -150.595, 126.972, 89.4541, 0, 0, 2.56862, -53.8423, 2.57287, -173.669, 2.56391, 66.3802, 0.0167276, 30.6056
0, 3180.00000, 126.739, -30.7683, 126.529, -150.595, 126.972, 89.4541, 0, 0, 2.56862, -53.8423, 2.57287, -173.669, 2.56391, 66.3802, 0.0167276, 30.6056
0, 3240.00000, 126.739, -30.7683, 126.529, -150.595, 126.972, 89.4541, 0, 0, 2.56862, -53.8423, 2.57287, -173.669, 2.56391, 66.3802, 0.0167276, 30.6056
0, 3300.00000, 126.739, -30.7683, 126.529, -150.595, 126.972, 89.4541, 0, 0, 2.56862, -53.8423, 2.57287, -173.669, 2.56391, 66.3802, 0.0167276, 30.6056
0, 3360.00000, 126.739, -30.7683, 126.529, -150.595, 126.972, 89.4541, 0, 0, 2.56862, -53.8423, 2.57287, -173.669, 2.56391, 66.3802, 0.0167276, 30.6056
0, 3420.00000, 126.739, -30.7683, 126.529, -150.595, 126.972, 89.4541, 0, 0, 2.56862, -53.8423, 2.57287, -173.669, 2.56391, 66.3802, 0.0167276, 30.6056
0, 3480.00000, 126.739, -30.7683, 126.529, -150.595, 126.972, 89.4541, 0, 0, 2.56862, -53.8423, 2.57287, -173.669, 2.56391, 66.3802, 0.0167276, 30.6056
0, 3540.00000, 126.739, -30.7683, 126.529, -150.595, 126.972, 89.4541, 0, 0, 2.56862, -53.8423, 2.57287, -173.669, 2.56391, 66.3802, 0.0167276, 30.6056
1, 0.00000, 126.739, -30.7683, 126.529, -150.595, 126.972, 89.4541, 0, 0, 2.56862, -53.8423, 2.57287, -173.669, 2.56391, 66.3802, 0.0167276, 30.6056
1, 60.00000, 126.739, -30.7683, 126.529, -150.595, 126.972, 89.4541, 0, 0, 2.56862, -53.8423, 2.57287, -173.669, 2.56391, 66.3802, 0.0167276, 30.6056
1, 120.00000, 126.739, -30.7683, 126.529, -150.595, 126.972, 89.4541, 0, 0, 2.56862, -53.8423, 2.57287, -173.669, 2.56391, 66.3802, 0.0167276, 30.6056
1, 180.00000, 126.739, -30.7683, 126.529, -150.595, 126.972, 89.4541, 0, 0, 2.56862, -53.8423, 2.57287, -173.669, 2.56391, 66.3802, 0.0167276, 30.6056
1, 240.00000, 126.739, -30.7683, 126.529, -150.595, 126.972, 89.4541, 0, 0, 2.56862, -53.8423, 2.57287, -173.669, 2.56391, 66.3802, 0.0167276, 30.6056
1, 300.00000, 126.739, -30.7683, 126.529, -150.595, 126.972, 89.4541, 0, 0, 2.56862, -53.8423, 2.57287, -173.669, 2.56391, 66.3802, 0.0167276, 30.6056
1, 360.00000, 126.739, -30.7683, 126.529, -150.595, 126.972, 89.4541, 0, 0, 2.56862, -53.8423, 2.57287, -173.669, 2.56391, 66.3802, 0.0167276, 30.6056
1, 420.00000, 126.739, -30.7683, 126.529, -150.595, 126.972, 89.4541, 0, 0, 2.56862, -53.8423, 2.57287, -173.669, 2.56391, 66.3802, 0.0167276, 30.6056
1, 480.00000, 126.739, -30.7683, 126.529, -150.595, 126.972, 89.4541, 0, 0, 2.56862, -53.8423, 2.57287, -173.669, 2.56391, 66.3802, 0.0167276, 30.6056
1, 540.00000, 126.739, -30.7683, 126.529, -150.595, 126.972, 89.4541, 0, 0, 2.56862, -53.8423, 2.57287, -173.669, 2.56391, 66.3802, 0.0167276, 30.6056
1, 600.00000, 126.739, -30.7683, 126.529, -150.595, 126.972, 89.4541, 0, 0, 2.56862, -53.8423, 2.57287, -173.669, 2.56391, 66.3802, 0.0167276, 30.6056
1, 660.00000, 126.739, -30.7683, 126.529, -150.595, 126.972, 89.4541, 0, 0, 2.56862, -53.8423, 2.57287, -173.669, 2.56391, 66.3802, 0.0167276, 30.6056
1, 720.00000, 126.739, -30.7683, 126.529, -150.595, 126.972, 89.4541, 0, 0, 2.56862, -53.8423, 2.57287, -173.669, 2.56391, 66.3802, 0.0167276, 30.6056
1, 780.00000, 126.739, -30.7683, 126.529, -150.595, 126.972, 89.4541, 0, 0, 2.56862, -53.8423, 2.57287, -173.669, 2.56391, 66.3802, 0.0167276, 30.6056
1, 840.00000, 126.739, -30.7683, 126.529, -150.595, 126.972, 89.4541, 0, 0, 2.56862, -53.8423, 2.57287, -173.669, 2.56391, 66.3802, 0.0167276, 30.6056
1, 900.00000, 126.739, -30.7683, 126.529, -150.595, 126.972, 89.4541, 0, 0, 2.56862, -53.8423, 2.57287, -173.669, 2.56391, 66.3802, 0.0167276, 30.6056
1, 960.00000, 126.739, -30.7683, 126.529, -150.595, 126.972, 89.4541, 0, 0, 2.56862, -53.8423, 2.57287, -173.669, 2.56391, 66.3802, 0.0167276, 30.6056
1, 1020.00000, 126.739, -30.7683, 126.529, -150.595, 126.972, 89.4541, 0, 0, 2.56862, -53.8423, 2.57287, -173.669, 2.56391, 66.3802, 0.0167276, 30.6056
1, 1080.00000, 126.739, -30.7683, 126.529, -150.595, 126.972, 89.4541, 0, 0, 2.56862, -53.8423, 2.57287, -173.669, 2.56391, 66.3802, 0.0167276, 30.6056
1, 1140.00000, 126.739, -30.7683, 126.529, -150.595, 126.972, 89.4541, 0, 0, 2.56862, -53.8423, 2.57287, -173.669, 2.56391, 66.3802, 0.0167276, 30.6056
1, 1200.00000, 126.739, -30.7683, 126.529, -150.595, 126.972, 89.4541, 0, 0, 2.56862, -53.8423, 2.57287, -173.669, 2.56391, 66.3802, 0.0167276, 30.6056
1, 1260.00000, 126.739, -30.7683, 126.529, -150.595, 126.972, 89.4541, 0, 0, 2.56862, -53.8423, 2.57287, -173.669, 2.56391, 66.3802, 0.0167276, 30.6056
1, 1320.00000, 126.739, -30.7683, 126.529, -150.595, 126.972, 89.4541, 0, 0, 2.56862, -53.8423, 2.57287, -173.669, 2.56391, 66.3802, 0.0167276, 30.6056
1, 1380.00000, 126.739, -30.7683, 126.529, -150.595, 126.972, 89.4541, 0, 0, 2.56862, -53.8423, 2.57287, -173.669, 2.56391, 66.3802, 0.0167276, 30.6056
1, 1440.00000, 126.739, -30.7683, 126.529, -150.595, 126.972, 89.4541, 0, 0, 2.56862, -53.8423, 2.57287, -173.669, 2.56391, 66.3802, 0.0167276, 30.6056
1, 1500.00000, 126.739, -30.7683, 126.529, -150.595, 126.972, 89.4541, 0, 0, 2.56862, -53.8423, 2.57287, -173.669, 2.56391, 66.3802, 0.0167276, 30.6056
1, 1560.00000, 126.739, -30.7683, 126.529, -150.595, 126.972, 89.4541, 0, 0, 2.56862, -53.8423, 2.57287, -173.669, 2.56391, 66.3802, 0.0167276, 30.6056
1, 1620.00000, 126.739, -30.7683, 126.529, -150.595, 126.972, 89.4541, 0, 0, 2.56862, -53.8423, 2.57287, -173.669, 2.56391, 66.3802, 0.0167276, 30.6056
1, 1680.00000, 126.739, -30.7683, 126.529, -150.595, 126.972, 89.4541, 0, 0, 2.56862, -53.8423, 2.57287, -173.669, 2.56391, 66.3802, 0.0167276, 30.6056
1, 1740.00000, 126.739, -30.7683, 126.529, -150.595, 126.972, 89.4541, 0, 0, 2.56862, -53.8423, 2.57287, -173.669, 2.56391, 66.3802, 0.0167276, 30.6056
1, 1800.00000, 126.739, -30.7683, 126.529, -150.595, 126.972, 89.4541, 0, 0, 2.56862, -53.8423, 2.57287, -173.669, 2.56391, 66.3802, 0.0167276, 30.6056
1, 1860.00000, 126.739, -30.7683, 126.529, -150.595, 126.972, 89.4541, 0, 0, 2.56862, -53.8423, 2.57287, -173.669, 2.56391, 66.3802, 0.0167276, 30.6056
1, 1920.00000, 126.739, -30.7683, 126.529, -150.595, 126.972, 89.4541, 0, 0, 2.56862, -53.8423, 2.57287, -173.669, 2.56391, 66.3802, 0.0167276, 30.6056
1, 1980.00000, 126.739, -30.7683, 126.529, -150.595, 126.972, 89.4541, 0, 0, 2.56862, -53.8423, 2.57287, -173.669, 2.56391, 66.3802, 0.0167276, 30.6056
1, 2040.00000, 126.739, -30.7683, 126.529, -150.595, 126.972, 89.4541, 0, 0, 2.56862, -53.8423, 2.57287, -173.669, 2.56391, 66.3802, 0.0167276, 30.6056
1, 2100.00000, 126.739, -30.7683, 126.529, -150.595, 126.972, 89.4541, 0, 0, 2.56862, -53.8423, 2.57287, -173.669, 2.56391, 66.3802, 0.0167276, 30.6056
1, 2160.00000, 126.739, -30.7683, 126.529, -150.595, 126.972, 89.4541, 0, 0, 2.56862, -53.8423, 2.57287, -173.669, 2.56391, 66.3802, 0.0167276, 30.6056
1, 2220.00000, 126.739, -30.7683, 126.529, -150.595, 126.972, 89.4541, 0, 0, 2.56862, -53.8423, 2.57287, -173.669, 2.56391, 66.3802, 0.0167276, 30.6056
1, 2280.00000, 126.739, -30.7683, 126.529, -150.595, 126.972, 89.4541, 0, 0, 2.56862, -53.8423, 2.57287, -173.669, 2.56391, 66.3802, 0.0167276, 30.6056
1, 2340.00000, 126.739, -30.7683, 126.529, -150.595, 126.972, 89.4541, 0, 0, 2.56862, -53.8423, 2.57287, -173.669, 2.56391, 66.3802, 0.0167276, 30.6056
1, 2400.00000, 126.739, -30.7683, 126.529, -150.595, 126.972, 89.4541, 0, 0, 2.56862, -53.8423, 2.57287, -173.669, 2.56391, 66.3802, 0.0167276, 30.6056
1, 2460.00000, 126.739, -30.7683, 126.529, -150.595, 126.972, 89.4541, 0, 0, 2.56862, -53.8423, 2.57287, -173.669, 2.56391, 66.3802, 0.0167276, 30.6056
1, 2520.00000, 126.739, -30.7683, 126.529, -150.595, 126.972, 89.4541, 0, 0, 2.56862, -53.8423, 2.57287, -173.669, 2.56391, 66.3802, 0.0167276, 30.6056
1, 2580.00000, 126.739, -30.7683, 126.529, -150.595, 126.972, 89.4541, 0, 0, 2.56862, -53.8423, 2.57287, -173.669, 2.56391, 66.3802, 0.0167276, 30.6056
1, 2640.00000, 126.739, -30.7683, 126.529, -150.595, 126.972, 89.4541, 0, 0, 2.56862, -53.8423, 2.57287, -173.669, 2.56391, 66.3802, 0.0167276, 30.6056
1, 2700.00000, 126.739, -30.7683, 126.529, -150.595, 126.972, 89.4541, 0, 0, 2.56862, -53.8423, 2.57287, -173.669, 2.56391, 66.3802, 0.0167276, 30.6056
1, 2760.00000, 126.865, -30.597, 126.928, -150.55, 126.972, 89.4544, 0, 0, 2.56608, -53.6712, 2.56482, -173.625, 2.5639, 66.3804, 0.00335573, 63.2059
1, 2820.00000, 126.865, -30.597, 126.928, -150.55, 126.972, 89.4544, 0, 0, 2.56606, -53.6709, 2.56479, -173.624, 2.5639, 66.3804, 0.00333353, 63.6412
1, 2880.00000, 126.865, -30.597, 126.928, -150.55, 126.972, 89.4544, 0, 0, 2.56606, -53.6709, 2.56479, -173.624, 2.5639, 66.3804, 0.00333344, 63.6424
1, 2940.00000, 126.865, -30.597, 126.928, -150.55, 126.972, 89.4544, 0, 0, 2.56606, -53.6709, 2.56479, -173.624, 2.5639, 66.3804, 0.00333344, 63.6424
1, 3000.00000, 126.865, -30.597, 126.928, -150.55, 126.972, 89.4544, 0, 0, 2.56606, -53.6709, 2.56479, -173.624, 2.5639, 66.3804, 0.00333344, 63.6424
1, 3060.00000, 126.865, -30.597, 126.928, -150.55, 126.972, 89.4544, 0, 0, 2.56606, -53.6709, 2.56479, -173.624, 2.5639, 66.3804, 0.00333344, 63.6424
1, 3120.00000, 126.865, -30.597, 126.928, -150.55, 126.972, 89.4544, 0, 0, 2.56606, -53.6709, 2.56479, -173.624, 2.5639, 66.3804, 0.00333344, 63.6424
1, 3180.00000, 126.865, -30.597, 126.928, -150.55, 126.972, 89.4544, 0, 0, 2.56606, -53.6709, 2.56479, -173.624, 2.5639, 66.3804, 0.00333344, 63.6424
1, 3240.00000, 126.865, -30.597, 126.928, -150.55, 126.972, 89.4544, 0, 0, 2.56606, -53.6709, 2.56479, -173.624, 2.5639, 66.3804, 0.00333344, 63.6424
1, 3300.00000, 126.865, -30.597, 126.928, -150.55, 126.972, 89.4544, 0, 0, 2.56606, -53.6709, 2.56479, -173.624, 2.5639, 66.3804, 0.00333344, 63.6424
1, 3360.00000, 126.865, -30.597, 126.928, -150.55, 126.972, 89.4544, 0, 0, 2.56606, -53.6709, 2.56479, -173.624, 2.5639, 66.3804, 0.00333344, 63.6424
1, 3420.00000, 126.865, -30.597, 126.928, -150.55, 126.972, 89.4544, 0, 0, 2.56606, -53.6709, 2.56479, -173.624, 2.5639, 66.3804, 0.00333344, 63.6424
1, 3480.00000, 126.865, -30.597, 126.928, -150.55, 126.972, 89.4544, 0, 0, 2.56606, -53.6709, 2.56479, -173.624, 2.5639, 66.3804, 0.00333344, 63.6424
1, 3540.00000, 126.865, -30.597, 126.928, -150.55, 126.972, 89.4544, 0, 0, 2.56606, -53.6709, 2.56479, -173.624, 2.5639, 66.3804, 0.00333344, 63.6424
2, 0.00000, 126.865, -30.597, 126.928, -150.55, 126.972, 89.4544, 0, 0, 2.56606, -53.6709, 2.56479, -173.624, 2.5639, 66.3804, 0.00333344, 63.6424
2, 60.00000, 126.865, -30.597, 126.928, -150.55, 126.972, 89.4544, 0, 0, 2.56606, -53.6709, 2.56479, -173.624, 2.5639, 66.3804, 0.00333344, 63.6424
2, 120.00000, 126.861, -30.5981, 126.924, -150.552, 126.968, 89.4533, 0, 0, 2.57324, -53.672, 2.57196, -173.625, 2.57107, 66.3794, 0.00334426, 63.7041
2, 180.00000, 126.857, -30.5993, 126.92, -150.553, 126.964, 89.4521, 0, 0, 2.58051, -53.6731, 2.57922, -173.627, 2.57833, 66.3783, 0.00335601, 63.7591
2, 240.00000, 126.853, -30.6004, 126.916, -150.554, 126.96, 89.451, 0, 0, 2.58769, -53.6743, 2.5864, -173.628, 2.58551, 66.3772, 0.00336765, 63.8132
2, 300.00000, 126.849, -30.6016, 126.912, -150.555, 126.956, 89.4499, 0, 0, 2.59488, -53.6754, 2.59358, -173.629, 2.59268, 66.376, 0.00337931, 63.8674
2, 360.00000, 126.845, -30.6027, 126.908, -150.556, 126.952, 89.4488, 0, 0, 2.60215, -53.6766, 2.60084, -173.63, 2.59994, 66.3749, 0.00339111, 63.9222
2, 420.00000, 126.84, -30.6039, 126.904, -150.557, 126.948, 89.4477, 0, 0, 2.60933, -53.6777, 2.60801, -173.631, 2.60712, 66.3738, 0.00340281, 63.9762
2, 480.00000, 126.836, -30.605, 126.901, -150.558, 126.944, 89.4466, 0, 0, 2.61652, -53.6789, 2.61519, -173.632, 2.61429, 66.3727, 0.00341451, 64.0301
2, 540.00000, 126.832, -30.6062, 126.897, -150.559, 126.94, 89.4455, 0, 0, 2.62379, -53.68, 2.62246, -173.633, 2.62156, 66.3716, 0.00342637, 64.0848
2, 600.00000, 126.828, -30.6073, 126.893, -150.56, 126.936, 89.4444, 0, 0, 2.63098, -53.6812, 2.62963, -173.634, 2.62873, 66.3705, 0.00343812, 64.1386
2, 660.00000, 126.824, -30.6085, 126.889, -150.562, 126.932, 89.4432, 0, 0, 2.63816, -53.6823, 2.63681, -173.635, 2.63591, 66.3694, 0.00344988, 64.1924
