hour,t(sec),V1,VAngle1,V2,VAngle2,V3,VAngle3,V4,VAngle4,I1,IAngle1,I2,IAngle2,I3,IAngle3,I4,IAngle4
0, 60.00000, 124.232, -30.925, 123.354, -150.67, 124.409, 89.7673, 0, 0, 2.46469, -53.9988, 2.48222, -173.744, 2.46118, 66.6934, 0.0451068, 5.1934
0, 120.00000, 124.232, -30.925, 123.353, -150.67, 124.409, 89.7673, 0, 0, 2.46471, -53.9989, 2.48226, -173.744, 2.4612, 66.6934, 0.0451307, 5.17536
0, 180.00000, 124.232, -30.925, 123.353, -150.67, 124.409, 89.7673, 0, 0, 2.46471, -53.9989, 2.48226, -173.744, 2.4612, 66.6934, 0.0451309, 5.17522
0, 240.00000, 124.232, -30.925, 123.353, -150.67, 124.409, 89.7673, 0, 0, 2.46471, -53.9989, 2.48226, -173.744, 2.4612, 66.6934, 0.0451309, 5.17521
0, 300.00000, 124.232, -30.925, 123.353, -150.67, 124.409, 89.7673, 0, 0, 2.46471, -53.9989, 2.48226, -173.744, 2.4612, 66.6934, 0.0451309, 5.17521
0, 360.00000, 124.232, -30.925, 123.353, -150.67, 124.409, 89.7673, 0, 0, 2.46471, -53.9989, 2.48226, -173.744, 2.4612, 66.6934, 0.0451309, 5.17521
0, 420.00000, 124.232, -30.925, 123.353, -150.67, 124.409, 89.7673, 0, 0, 2.46471, -53.9989, 2.48226, -173.744, 2.4612, 66.6934, 0.0451309, 5.17521
0, 480.00000, 124.232, -30.925, 123.353, -150.67, 124.409, 89.7673, 0, 0, 2.46471, -53.9989, 2.48226, -173.744, 2.4612, 66.6934, 0.0451309, 5.17521
0, 540.00000, 124.232, -30.925, 123.353, -150.67, 124.409, 89.7673, 0, 0, 2.46471, -53.9989, 2.48226, -173.744, 2.4612, 66.6934, 0.0451309, 5.17521
0, 600.00000, 124.232, -30.925, 123.353, -150.67, 124.409, 89.7673, 0, 0, 2.46471, -53.9989, 2.48226, -173.744, 2.4612, 66.6934, 0.0451309, 5.17521
0, 660.00000, 124.232, -30.925, 123.353, -150.67, 124.409, 89.7673, 0, 0, 2.46471, -53.9989, 2.48226, -173.744, 2.4612, 66.6934, 0.0451309, 5.17521
0, 720.00000, 124.232, -30.925, 123.353, -150.67, 124.409, 89.7673, 0, 0, 2.46471, -53.9989, 2.48226, -173.744, 2.4612, 66.6934, 0.0451309, 5.17521
0, 780.00000, 124.232, -30.925, 123.353, -150.67, 124.409, 89.7673, 0, 0, 2.46471, -53.9989, 2.48226, -173.744, 2.4612, 66.6934, 0.0451309, 5.17521
0, 840.00000, 124.232, -30.925, 123.353, -150.67, 124.409, 89.7673, 0, 0, 2.46471, -53.9989, 2.48226, -173.744, 2.4612, 66.6934, 0.0451309, 5.17521
0, 900.00000, 124.232, -30.925, 123.353, -150.67, 124.409, 89.7673, 0, 0, 2.46471, -53.9989, 2.48226, -173.744, 2.4612, 66.6934, 0.0451309, 5.17521
0, 960.00000, 124.107, -30.914, 122.399, -151.068, 123.191, 89.9706, 0, 0, 2.46718, -53.9878, 2.50152, -174.142, 2.48545, 66.8974, 0.0718036, -29.294
0, 1020.00000, 124.107, -30.914, 122.399, -151.068, 123.191, 89.9706, 0, 0, 2.46719, -53.9879, 2.50163, -174.142, 2.48554, 66.8966, 0.0718628, -29.3141
0, 1080.00000, 124.107, -30.914, 122.399, -151.068, 123.191, 89.9706, 0, 0, 2.46719, -53.9879, 2.50163, -174.142, 2.48554, 66.8966, 0.071863, -29.3141
0, 1140.00000, 124.107, -30.914, 122.399, -151.068, 123.191, 89.9706, 0, 0, 2.46719, -53.9879, 2.50163, -174.142, 2.48554, 66.8966, 0.071863, -29.3141
0, 1200.00000, 124.107, -30.914, 122.399, -151.068, 123.191, 89.9706, 0, 0, 2.46719, -53.9879, 2.50163, -174.142, 2.48554, 66.8966, 0.071863, -29.3141
0, 1260.00000, 124.107, -30.914, 122.399, -151.068, 123.191, 89.9706, 0, 0, 2.46719, -53.9879, 2.50163, -174.142, 2.48554, 66.8966, 0.071863, -29.3141
0, 1320.00000, 124.107, -30.914, 122.399, -151.068, 123.191, 89.9706, 0, 0, 2.46719, -53.9879, 2.50163, -174.142, 2.48554, 66.8966, 0.071863, -29.3141
0, 1380.00000, 124.107, -30.914, 122.399, -151.068, 123.191, 89.9706, 0, 0, 2.46719, -53.9879, 2.50163, -174.142, 2.48554, 66.8966, 0.071863, -29.3141
0, 1440.00000, 124.107, -30.914, 122.399, -151.068, 123.191, 89.9706, 0, 0, 2.46719, -53.9879, 2.50163, -174.142, 2.48554, 66.8966, 0.071863, -29.3141
0, 1500.00000, 124.107, -30.914, 122.399, -151.068, 123.191, 89.9706, 0, 0, 2.46719, -53.9879, 2.50163, -174.142, 2.48554, 66.8966, 0.071863, -29.3141
0, 1560.00000, 124.107, -30.914, 122.399, -151.068, 123.191, 89.9706, 0, 0, 2.46719, -53.9879, 2.50163, -174.142, 2.48554, 66.8966, 0.071863, -29.3141
0, 1620.00000, 124.107, -30.914, 122.399, -151.068, 123.191, 89.9706, 0, 0, 2.46719, -53.9879, 2.50163, -174.142, 2.48554, 66.8966, 0.071863, -29.3141
0, 1680.00000, 124.107, -30.914, 122.399, -151.068, 123.191, 89.9706, 0, 0, 2.46719, -53.9879, 2.50163, -174.142, 2.48554, 66.8966, 0.071863, -29.3141
0, 1740.00000, 124.107, -30.914, 122.399, -151.068, 123.191, 89.9706, 0, 0, 2.46719, -53.9879, 2.50163, -174.142, 2.48554, 66.8966, 0.071863, -29.3141
0, 1800.00000, 124.107, -30.914, 122.399, -151.068, 123.191, 89.9706, 0, 0, 2.46719, -53.9879, 2.50163, -174.142, 2.48554, 66.8966, 0.071863, -29.3141
0, 1860.00000, 124.107, -30.914, 122.399, -151.068, 123.191, 89.9706, 0, 0, 2.46719, -53.9879, 2.50163, -174.142, 2.48554, 66.8966, 0.071863, -29.3141
0, 1920.00000, 124.107, -30.914, 122.399, -151.068, 123.191, 89.9706, 0, 0, 2.46719, -53.9879, 2.50163, -174.142, 2.48554, 66.8966, 0.071863, -29.3141
0, 1980.00000, 124.107, -30.914, 122.399, -151.068, 123.191, 89.9706, 0, 0, 2.46719, -53.9879, 2.50163, -174.142, 2.48554, 66.8966, 0.071863, -29.3141
0, 2040.00000, 124.107, -30.914, 122.399, -151.068, 123.191, 89.9706, 0, 0, 2.46719, -53.9879, 2.50163, -174.142, 2.48554, 66.8966, 0.071863, -29.3141
0, 2100.00000, 124.107, -30.914, 122.399, -151.068, 123.191, 89.9706, 0, 0, 2.46719, -53.9879, 2.50163, -174.142, 2.48554, 66.8966, 0.071863, -29.3141
0, 2160.00000, 124.107, -30.914, 122.399, -151.068, 123.191, 89.9706, 0, 0, 2.46719, -53.9879, 2.50163, -174.142, 2.48554, 66.8966, 0.071863, -29.3141
0, 2220.00000, 124.107, -30.914, 122.399, -151.068, 123.191, 89.9706, 0, 0, 2.46719, -53.9879, 2.50163, -174.142, 2.48554, 66.8966, 0.071863, -29.3141
0, 2280.00000, 124.107, -30.914, 122.399, -151.068, 123.191, 89.9706, 0, 0, 2.46719, -53.9879, 2.50163, -174.142, 2.48554, 66.8966, 0.071863, -29.3141
0, 2340.00000, 124.107, -30.914, 122.399, -151.068, 123.191, 89.9706, 0, 0, 2.46719, -53.9879, 2.50163, -174.142, 2.48554, 66.8966, 0.071863, -29.3141
0, 2400.00000, 124.107, -30.914, 122.399, -151.068, 123.191, 89.9706, 0, 0, 2.46719, -53.9879, 2.50163, -174.142, 2.48554, 66.8966, 0.071863, -29.3141
0, 2460.00000, 124.107, -30.914, 122.399, -151.068, 123.191, 89.9706, 0, 0, 2.46719, -53.9879, 2.50163, -174.142, 2.48554, 66.8966, 0.071863, -29.3141
0, 2520.00000, 124.107, -30.914, 122.399, -151.068, 123.191, 89.9706, 0, 0, 2.46719, -53.9879, 2.50163, -174.142, 2.48554, 66.8966, 0.071863, -29.3141
0, 2580.00000, 124.107, -30.914, 122.399, -151.068, 123.191, 89.9706, 0, 0, 2.46719, -53.9879, 2.50163, -174.142, 2.48554, 66.8966, 0.071863, -29.3141
0, 2640.00000, 124.107, -30.914, 122.399, -151.068, 123.191, 89.9706, 0, 0, 2.46719, -53.9879, 2.50163, -174.142, 2.48554, 66.8966, 0.071863, -29.3141
0, 2700.00000, 124.107, -30.914, 122.399, -151.068, 123.191, 89.9706, 0, 0, 2.46719, -53.9879, 2.50163, -174.142, 2.48554, 66.8966, 0.071863, -29.3141
0, 2760.00000, 124.107, -30.914, 122.399, -151.068, 123.191, 89.9706, 0, 0, 2.46719, -53.9879, 2.50163, -174.142, 2.48554, 66.8966, 0.071863, -29.3141
0, 2820.00000, 124.107, -30.914, 122.399, -151.068, 123.191, 89.9706, 0, 0, 2.46719, -53.9879, 2.50163, -174.142, 2.48554, 66.8966, 0.071863, -29.3141
0, 2880.00000, 124.107, -30.914, 122.399, -151.068, 123.191, 89.9706, 0, 0, 2.46719, -53.9879, 2.50163, -174.142, 2.48554, 66.8966, 0.071863, -29.3141
0, 2940.00000, 124.107, -30.914, 122.399, -151.068, 123.191, 89.9706, 0, 0, 2.46719, -53.9879, 2.50163, -174.142, 2.48554, 66.8966, 0.071863, -29.3141
0, 3000.00000, 124.107, -30.914, 122.399, -151.068, 123.191, 89.9706, 0, 0, 2.46719, -53.9879, 2.50163, -174.142, 2.48554, 66.8966, 0.071863, -29.3141
0, 3060.00000, 124.107, -30.914, 122.399, -151.068, 123.191, 89.9706, 0, 0, 2.46719, -53.9879, 2.50163, -174.142, 2.48554, 66.8966, 0.071863, -29.3141
0, 3120.00000, 124.107, -30.914, 122.399, -151.068, 123.191, 89.9706, 0, 0, 2.46719, -53.9879, 2.50163, -174.142, 2.48554, 66.8966, 0.071863, -29.3141
0, 3180.00000, 124.107, -30.914, 122.399, -151.068, 123.191, 89.9706, 0, 0, 2.46719, -53.9879, 2.50163, -174.142, 2.48554, 66.8966, 0.071863, -29.3141
0, 3240.00000, 124.107, -30.914, 122.399, -151.068, 123.191, 89.9706, 0, 0, 2.46719, -53.9879, 2.50163, -174.142, 2.48554, 66.8966, 0.071863, -29.3141
0, 3300.00000, 124.107, -30.914, 122.399, -151.068, 123.191, 89.9706, 0, 0, 2.46719, -53.9879, 2.50163, -174.142, 2.48554, 66.8966, 0.071863, -29.3141
0, 3360.00000, 124.107, -30.914, 122.399, -151.068, 123.191, 89.9706, 0, 0, 2.46719, -53.9879, 2.50163, -174.142, 2.48554, 66.8966, 0.071863, -29.3141
0, 3420.00000, 124.107, -30.914, 122.399, -151.068, 123.191, 89.9706, 0, 0, 2.46719, -53.9879, 2.50163, -174.142, 2.48554, 66.8966, 0.071863, -29.3141
0, 3480.00000, 124.107, -30.914, 122.399, -151.068, 123.191, 89.9706, 0, 0, 2.46719, -53.9879, 2.50163, -174.142, 2.48554, 66.8966, 0.071863, -29.3141
0, 3540.00000, 124.107, -30.914, 122.399, -151.068, 123.191, 89.9706, 0, 0, 2.46719, -53.9879, 2.50163, -174.142, 2.48554, 66.8966, 0.071863, -29.3141
1, 0.00000, 124.107, -30.914, 122.399, -151.068, 123.191, 89.9706, 0, 0, 2.46719, -53.9879, 2.50163, -174.142, 2.48554, 66.8966, 0.071863, -29.3141
1, 60.00000, 124.107, -30.914, 122.399, -151.068, 123.191, 89.9706, 0, 0, 2.46719, -53.9879, 2.50163, -174.142, 2.48554, 66.8966, 0.071863, -29.3141
1, 120.00000, 124.107, -30.914, 122.399, -151.068, 123.191, 89.9706, 0, 0, 2.46719, -53.9879, 2.50163, -174.142, 2.48554, 66.8966, 0.071863, -29.3141
1, 180.00000, 124.107, -30.914, 122.399, -151.068, 123.191, 89.9706, 0, 0, 2.46719, -53.9879, 2.50163, -174.142, 2.48554, 66.8966, 0.071863, -29.3141
1, 240.00000, 124.107, -30.914, 122.399, -151.068, 123.191, 89.9706, 0, 0, 2.46719, -53.9879, 2.50163, -174.142, 2.48554, 66.8966, 0.071863, -29.3141
1, 300.00000, 124.107, -30.914, 122.399, -151.068, 123.191, 89.9706, 0, 0, 2.46719, -53.9879, 2.50163, -174.142, 2.48554, 66.8966, 0.071863, -29.3141
1, 360.00000, 124.107, -30.914, 122.399, -151.068, 123.191, 89.9706, 0, 0, 2.46719, -53.9879, 2.50163, -174.142, 2.48554, 66.8966, 0.071863, -29.3141
1, 420.00000, 124.107, -30.914, 122.399, -151.068, 123.191, 89.9706, 0, 0, 2.46719, -53.9879, 2.50163, -174.142, 2.48554, 66.8966, 0.071863, -29.3141
1, 480.00000, 124.107, -30.914, 122.399, -151.068, 123.191, 89.9706, 0, 0, 2.46719, -53.9879, 2.50163, -174.142, 2.48554, 66.8966, 0.071863, -29.3141
1, 540.00000, 124.107, -30.914, 122.399, -151.068, 123.191, 89.9706, 0, 0, 2.46719, -53.9879, 2.50163, -174.142, 2.48554, 66.8966, 0.071863, -29.3141
1, 600.00000, 124.107, -30.914, 122.399, -151.068, 123.191, 89.9706, 0, 0, 2.46719, -53.9879, 2.50163, -174.142, 2.48554, 66.8966, 0.071863, -29.3141
1, 660.00000, 124.107, -30.914, 122.399, -151.068, 123.191, 89.9706, 0, 0, 2.46719, -53.9879, 2.50163, -174.142, 2.48554, 66.8966, 0.071863, -29.3141
1, 720.00000, 124.107, -30.914, 122.399, -151.068, 123.191, 89.9706, 0, 0, 2.46719, -53.9879, 2.50163, -174.142, 2.48554, 66.8966, 0.071863, -29.3141
1, 780.00000, 124.107, -30.914, 122.399, -151.068, 123.191, 89.9706, 0, 0, 2.46719, -53.9879, 2.50163, -174.142, 2.48554, 66.8966, 0.071863, -29.3141
1, 840.00000, 124.107, -30.914, 122.399, -151.068, 123.191, 89.9706, 0, 0, 2.46719, -53.9879, 2.50163, -174.142, 2.48554, 66.8966, 0.071863, -29.3141
1, 900.00000, 124.107, -30.914, 122.399, -151.068, 123.191, 89.9706, 0, 0, 2.46719, -53.9879, 2.50163, -174.142, 2.48554, 66.8966, 0.071863, -29.3141
1, 960.00000, 124.107, -30.914, 122.399, -151.068, 123.191, 89.9706, 0, 0, 2.46719, -53.9879, 2.50163, -174.142, 2.48554, 66.8966, 0.071863, -29.3141
1, 1020.00000, 124.107, -30.914, 122.399, -151.068, 123.191, 89.9706, 0, 0, 2.46719, -53.9879, 2.50163, -174.142, 2.48554, 66.8966, 0.071863, -29.3141
1, 1080.00000, 124.107, -30.914, 122.399, -151.068, 123.191, 89.9706, 0, 0, 2.46719, -53.9879, 2.50163, -174.142, 2.48554, 66.8966, 0.071863, -29.3141
1, 1140.00000, 124.107, -30.914, 122.399, -151.068, 123.191, 89.9706, 0, 0, 2.46719, -53.9879, 2.50163, -174.142, 2.48554, 66.8966, 0.071863, -29.3141
1, 1200.00000, 124.107, -30.914, 122.399, -151.068, 123.191, 89.9706, 0, 0, 2.46719, -53.9879, 2.50163, -174.142, 2.48554, 66.8966, 0.071863, -29.3141
1, 1260.00000, 124.107, -30.914, 122.399, -151.068, 123.191, 89.9706, 0, 0, 2.46719, -53.9879, 2.50163, -174.142, 2.48554, 66.8966, 0.071863, -29.3141
1, 1320.00000, 124.107, -30.914, 122.399, -151.068, 123.191, 89.9706, 0, 0, 2.46719, -53.9879, 2.50163, -174.142, 2.48554, 66.8966, 0.071863, -29.3141
1, 1380.00000, 124.107, -30.914, 122.399, -151.068, 123.191, 89.9706, 0, 0, 2.46719, -53.9879, 2.50163, -174.142, 2.48554, 66.8966, 0.071863, -29.3141
1, 1440.00000, 124.107, -30.914, 122.399, -151.068, 123.191, 89.9706, 0, 0, 2.46719, -53.9879, 2.50163, -174.142, 2.48554, 66.8966, 0.071863, -29.3141
1, 1500.00000, 124.107, -30.914, 122.399, -151.068, 123.191, 89.9706, 0, 0, 2.46719, -53.9879, 2.50163, -174.142, 2.48554, 66.8966, 0.071863, -29.3141
1, 1560.00000, 124.107, -30.914, 122.399, -151.068, 123.191, 89.9706, 0, 0, 2.46719, -53.9879, 2.50163, -174.142, 2.48554, 66.8966, 0.071863, -29.3141
1, 1620.00000, 124.107, -30.914, 122.399, -151.068, 123.191, 89.9706, 0, 0, 2.46719, -53.9879, 2.50163, -174.142, 2.48554, 66.8966, 0.071863, -29.3141
1, 1680.00000, 124.107, -30.914, 122.399, -151.068, 123.191, 89.9706, 0, 0, 2.46719, -53.9879, 2.50163, -174.142, 2.48554, 66.8966, 0.071863, -29.3141
1, 1740.00000, 124.107, -30.914, 122.399, -151.068, 123.191, 89.9706, 0, 0, 2.46719, -53.9879, 2.50163, -174.142, 2.48554, 66.8966, 0.071863, -29.3141
1, 1800.00000, 124.107, -30.914, 122.399, -151.068, 123.191, 89.9706, 0, 0, 2.46719, -53.9879, 2.50163, -174.142, 2.48554, 66.8966, 0.071863, -29.3141
1, 1860.00000, 124.107, -30.914, 122.399, -151.068, 123.191, 89.9706, 0, 0, 2.46719, -53.9879, 2.50163, -174.142, 2.48554, 66.8966, 0.071863, -29.3141
1, 1920.00000, 124.107, -30.914, 122.399, -151.068, 123.191, 89.9706, 0, 0, 2.46719, -53.9879, 2.50163, -174.142, 2.48554, 66.8966, 0.071863, -29.3141
1, 1980.00000, 124.107, -30.914, 122.399, -151.068, 123.191, 89.9706, 0, 0, 2.46719, -53.9879, 2.50163, -174.142, 2.48554, 66.8966, 0.071863, -29.3141
1, 2040.00000, 124.233, -30.9253, 123.362, -150.668, 124.419, 89.7672, 0, 0, 2.4647, -53.9992, 2.48225, -173.743, 2.46114, 66.6929, 0.0451397, 5.35798
1, 2100.00000, 124.233, -30.9253, 123.362, -150.668, 124.419, 89.7672, 0, 0, 2.46469, -53.9992, 2.48209, -173.742, 2.461, 66.6933, 0.0450714, 5.5294
1, 2160.00000, 124.233, -30.9253, 123.362, -150.668, 124.419, 89.7672, 0, 0, 2.46469, -53.9992, 2.48209, -173.742, 2.461, 66.6933, 0.0450708, 5.53019
1, 2220.00000, 124.233, -30.9253, 123.362, -150.668, 124.419, 89.7672, 0, 0, 2.46469, -53.9992, 2.48209, -173.742, 2.461, 66.6933, 0.0450708, 5.5302
1, 2280.00000, 124.233, -30.9253, 123.362, -150.668, 124.419, 89.7672, 0, 0, 2.46469, -53.9992, 2.48209, -173.742, 2.461, 66.6933, 0.0450708, 5.5302
1, 2340.00000, 124.233, -30.9253, 123.362, -150.668, 124.419, 89.7672, 0, 0, 2.46469, -53.9992, 2.48209, -173.742, 2.461, 66.6933, 0.0450708, 5.5302
1, 2400.00000, 124.233, -30.9253, 123.362, -150.668, 124.419, 89.7672, 0, 0, 2.46469, -53.9992, 2.48209, -173.742, 2.461, 66.6933, 0.0450708, 5.5302
1, 2460.00000, 124.233, -30.9253, 123.362, -150.668, 124.419, 89.7672, 0, 0, 2.46469, -53.9992, 2.48209, -173.742, 2.461, 66.6933, 0.0450708, 5.5302
1, 2520.00000, 124.357, -30.9359, 124.304, -150.28, 125.621, 89.5727, 0, 0, 2.46225, -54.0098, 2.46337, -173.354, 2.43753, 66.4983, 0.0503994, 56.4456
1, 2580.00000, 124.357, -30.9359, 124.305, -150.28, 125.622, 89.5728, 0, 0, 2.46223, -54.0098, 2.46327, -173.354, 2.43744, 66.4988, 0.0504269, 56.519
1, 2640.00000, 124.357, -30.9359, 124.305, -150.28, 125.622, 89.5728, 0, 0, 2.46223, -54.0098, 2.46327, -173.354, 2.43744, 66.4988, 0.0504269, 56.5193
1, 2700.00000, 124.357, -30.9359, 124.305, -150.28, 125.622, 89.5728, 0, 0, 2.46223, -54.0098, 2.46327, -173.354, 2.43744, 66.4988, 0.0504269, 56.5193
1, 2760.00000, 125.303, -30.558, 125.495, -150.466, 125.565, 89.5853, 0, 0, 2.44371, -53.6321, 2.43998, -173.54, 2.43853, 66.5117, 0.00677147, 58.4097
1, 2820.00000, 125.303, -30.5579, 125.495, -150.466, 125.565, 89.5853, 0, 0, 2.44363, -53.6319, 2.4399, -173.54, 2.43854, 66.5113, 0.00669399, 58.7017
1, 2880.00000, 125.303, -30.5579, 125.495, -150.466, 125.565, 89.5853, 0, 0, 2.44363, -53.6319, 2.4399, -173.54, 2.43854, 66.5113, 0.00669373, 58.7028
1, 2940.00000, 125.303, -30.5579, 125.495, -150.466, 125.565, 89.5853, 0, 0, 2.44363, -53.6319, 2.4399, -173.54, 2.43854, 66.5113, 0.00669373, 58.7028
1, 3000.00000, 125.303, -30.5579, 125.495, -150.466, 125.565, 89.5853, 0, 0, 2.44363, -53.6319, 2.4399, -173.54, 2.43854, 66.5113, 0.00669373, 58.7028
1, 3060.00000, 125.303, -30.5579, 125.495, -150.466, 125.565, 89.5853, 0, 0, 2.44363, -53.6319, 2.4399, -173.54, 2.43854, 66.5113, 0.00669373, 58.7028
1, 3120.00000, 125.303, -30.5579, 125.495, -150.466, 125.565, 89.5853, 0, 0, 2.44363, -53.6319, 2.4399, -173.54, 2.43854, 66.5113, 0.00669373, 58.7028
1, 3180.00000, 125.303, -30.5579, 125.495, -150.466, 125.565, 89.5853, 0, 0, 2.44363, -53.6319, 2.4399, -173.54, 2.43854, 66.5113, 0.00669373, 58.7028
1, 3240.00000, 125.303, -30.5579, 125.495, -150.466, 125.565, 89.5853, 0, 0, 2.44363, -53.6319, 2.4399, -173.54, 2.43854, 66.5113, 0.00669373, 58.7028
1, 3300.00000, 125.303, -30.5579, 125.495, -150.466, 125.565, 89.5853, 0, 0, 2.44363, -53.6319, 2.4399, -173.54, 2.43854, 66.5113, 0.00669373, 58.7028
1, 3360.00000, 125.303, -30.5579, 125.495, -150.466, 125.565, 89.5853, 0, 0, 2.44363, -53.6319, 2.4399, -173.54, 2.43854, 66.5113, 0.00669373, 58.7028
1, 3420.00000, 125.303, -30.5579, 125.495, -150.466, 125.565, 89.5853, 0, 0, 2.44363, -53.6319, 2.4399, -173.54, 2.43854, 66.5113, 0.00669373, 58.7028
1, 3480.00000, 125.303, -30.5579, 125.495, -150.466, 125.565, 89.5853, 0, 0, 2.44363, -53.6319, 2.4399, -173.54, 2.43854, 66.5113, 0.00669373, 58.7028
1, 3540.00000, 125.303, -30.5579, 125.495, -150.466, 125.565, 89.5853, 0, 0, 2.44363, -53.6319, 2.4399, -173.54, 2.43854, 66.5113, 0.00669373, 58.7028
2, 0.00000, 125.303, -30.5579, 125.495, -150.466, 125.565, 89.5853, 0, 0, 2.44363, -53.6319, 2.4399, -173.54, 2.43854, 66.5113, 0.00669373, 58.7028
2, 60.00000, 125.303, -30.5579, 125.495, -150.466, 125.565, 89.5853, 0, 0, 2.44363, -53.6319, 2.4399, -173.54, 2.43854, 66.5113, 0.00669373, 58.7028
2, 120.00000, 125.296, -30.559, 125.488, -150.467, 125.558, 89.5844, 0, 0, 2.45053, -53.6328, 2.44677, -173.54, 2.44542, 66.5105, 0.00671769, 58.8104
2, 180.00000, 125.288, -30.56, 125.482, -150.467, 125.551, 89.5834, 0, 0, 2.45752, -53.6339, 2.45374, -173.541, 2.45238, 66.5095, 0.00674331, 58.9054
2, 240.00000, 125.281, -30.5611, 125.475, -150.468, 125.544, 89.5825, 0, 0, 2.46443, -53.6349, 2.46062, -173.542, 2.45927, 66.5086, 0.00676872, 58.9987
2, 300.00000, 125.273, -30.5621, 125.468, -150.469, 125.537, 89.5816, 0, 0, 2.47134, -53.6359, 2.4675, -173.543, 2.46615, 66.5077, 0.00679417, 59.0919
2, 360.00000, 125.266, -30.5631, 125.461, -150.47, 125.53, 89.5807, 0, 0, 2.47834, -53.637, 2.47447, -173.544, 2.47312, 66.5068, 0.00681997, 59.1864
2, 420.00000, 125.258, -30.5642, 125.455, -150.471, 125.523, 89.5798, 0, 0, 2.48525, -53.638, 2.48136, -173.545, 2.48, 66.5059, 0.00684555, 59.2792
2, 480.00000, 125.251, -30.5652, 125.448, -150.472, 125.516, 89.5789, 0, 0, 2.49216, -53.639, 2.48824, -173.546, 2.48689, 66.505, 0.00687118, 59.372
2, 540.00000, 125.243, -30.5662, 125.441, -150.473, 125.509, 89.578, 0, 0, 2.49916, -53.6401, 2.49521, -173.547, 2.49386, 66.5041, 0.00689716, 59.466
2, 600.00000, 125.236, -30.5673, 125.434, -150.474, 125.502, 89.5771, 0, 0, 2.50607, -53.6411, 2.5021, -173.548, 2.50075, 66.5032, 0.00692292, 59.5584
2, 660.00000, 125.228, -30.5683, 125.428, -150.475, 125.495, 89.5762, 0, 0, 2.51299, -53.6422, 2.50899, -173.549, 2.50764, 66.5023, 0.00694872, 59.6508
2, 720.00000, 125.221, -30.5694, 125.421, -150.476, 125.488, 89.5753, 0, 0, 2.51999, -53.6432, 2.51596, -173.55, 2.51461, 66.5014, 0.00697488, 59.7444
