hour,t(sec),V1,VAngle1,V2,VAngle2,V3,VAngle3,V4,VAngle4,I1,IAngle1,I2,IAngle2,I3,IAngle3,I4,IAngle4
0, 60.00000, 126.54, -31.8185, 125.421, -151.045, 127.567, 89.1106, 0, 0, 1.86399, -54.8922, 1.88063, -174.119, 1.849, 66.0367, 0.0553166, 30.3243
0, 120.00000, 126.551, -31.8269, 125.421, -151.045, 127.589, 89.1104, 0, 0, 1.86384, -54.9006, 1.88063, -174.119, 1.84868, 66.0365, 0.0558587, 30.3924
0, 180.00000, 126.56, -31.8344, 125.421, -151.045, 127.609, 89.1102, 0, 0, 1.8637, -54.9081, 1.88063, -174.119, 1.84839, 66.0363, 0.0563465, 30.4528
0, 240.00000, 126.569, -31.8412, 125.421, -151.045, 127.627, 89.11, 0, 0, 1.86357, -54.9149, 1.88063, -174.119, 1.84813, 66.0361, 0.0567857, 30.5065
0, 300.00000, 126.986, -31.8022, 125.425, -151.045, 127.783, 89.2819, 0, 0, 1.85744, -54.876, 1.88057, -174.119, 1.84588, 66.208, 0.0617335, 21.7632
0, 360.00000, 126.993, -31.8077, 125.425, -151.045, 127.797, 89.2817, 0, 0, 1.85734, -54.8815, 1.88057, -174.119, 1.84567, 66.2078, 0.0620776, 21.8541
0, 420.00000, 126.999, -31.8127, 125.425, -151.045, 127.81, 89.2815, 0, 0, 1.85725, -54.8865, 1.88057, -174.119, 1.84548, 66.2076, 0.0623873, 21.9354
0, 480.00000, 127.005, -31.8171, 125.425, -151.045, 127.822, 89.2814, 0, 0, 1.85717, -54.8909, 1.88056, -174.119, 1.84531, 66.2075, 0.0626661, 22.0081
0, 540.00000, 127.01, -31.8212, 125.425, -151.045, 127.833, 89.2812, 0, 0, 1.8571, -54.895, 1.88056, -174.119, 1.84515, 66.2073, 0.0629172, 22.0729
0, 600.00000, 127.014, -31.8248, 125.425, -151.045, 127.842, 89.2811, 0, 0, 1.85703, -54.8986, 1.88056, -174.119, 1.84501, 66.2072, 0.0631431, 22.1309
0, 660.00000, 127.018, -31.828, 125.425, -151.045, 127.851, 89.281, 0, 0, 1.85697, -54.9019, 1.88056, -174.119, 1.84489, 66.2071, 0.0633466, 22.1828
0, 720.00000, 127.022, -31.831, 125.425, -151.045, 127.859, 89.2809, 0, 0, 1.85692, -54.9048, 1.88056, -174.119, 1.84477, 66.207, 0.0635297, 22.2293
0, 780.00000, 127.071, -31.8376, 125.695, -150.817, 128.437, 89.2785, 0, 0, 1.8562, -54.9115, 1.87653, -173.891, 1.83646, 66.2046, 0.0693703, 33.4371
0, 840.00000, 127.074, -31.84, 125.695, -150.817, 128.444, 89.2784, 0, 0, 1.85616, -54.9139, 1.87653, -173.891, 1.83637, 66.2045, 0.0695236, 33.4463
0, 900.00000, 127.077, -31.8422, 125.695, -150.817, 128.449, 89.2784, 0, 0, 1.85612, -54.916, 1.87653, -173.891, 1.83629, 66.2045, 0.0696614, 33.4546
0, 960.00000, 127.073, -31.8436, 125.564, -150.992, 128.046, 89.2329, 0, 0, 1.85617, -54.9175, 1.87847, -174.066, 1.84208, 66.159, 0.0636217, 26.3819
0, 1020.00000, 127.075, -31.8453, 125.564, -150.992, 128.05, 89.2329, 0, 0, 1.85614, -54.9192, 1.87847, -174.066, 1.84201, 66.159, 0.0637314, 26.4019
0, 1080.00000, 127.077, -31.8469, 125.564, -150.992, 128.054, 89.2328, 0, 0, 1.85611, -54.9208, 1.87847, -174.066, 1.84195, 66.1589, 0.0638304, 26.4198
0, 1140.00000, 127.079, -31.8483, 125.564, -150.992, 128.058, 89.2328, 0, 0, 1.85609, -54.9222, 1.87847, -174.066, 1.8419, 66.1589, 0.0639196, 26.4359
0, 1200.00000, 127.08, -31.8496, 125.564, -150.992, 128.061, 89.2327, 0, 0, 1.85607, -54.9234, 1.87847, -174.066, 1.84185, 66.1588, 0.0639998, 26.4504
0, 1260.00000, 127.082, -31.8507, 125.564, -150.992, 128.064, 89.2327, 0, 0, 1.85604, -54.9246, 1.87847, -174.066, 1.84181, 66.1588, 0.064072, 26.4634
0, 1320.00000, 127.083, -31.8517, 125.564, -150.992, 128.067, 89.2326, 0, 0, 1.85603, -54.9256, 1.87847, -174.066, 1.84177, 66.1587, 0.064137, 26.4751
0, 1380.00000, 127.084, -31.8526, 125.564, -150.992, 128.07, 89.2326, 0, 0, 1.85601, -54.9265, 1.87847, -174.066, 1.84173, 66.1587, 0.0641955, 26.4856
0, 1440.00000, 127.085, -31.8535, 125.564, -150.992, 128.072, 89.2326, 0, 0, 1.85599, -54.9274, 1.87847, -174.066, 1.8417, 66.1587, 0.0642482, 26.495
0, 1500.00000, 127.086, -31.8542, 125.564, -150.992, 128.074, 89.2326, 0, 0, 1.85598, -54.9281, 1.87847, -174.066, 1.84167, 66.1586, 0.0642955, 26.5035
0, 1560.00000, 127.087, -31.8549, 125.564, -150.992, 128.076, 89.2325, 0, 0, 1.85597, -54.9288, 1.87847, -174.066, 1.84165, 66.1586, 0.0643382, 26.5111
0, 1620.00000, 127.088, -31.8555, 125.564, -150.992, 128.077, 89.2325, 0, 0, 1.85596, -54.9294, 1.87847, -174.066, 1.84162, 66.1586, 0.0643766, 26.5179
0, 1680.00000, 127.088, -31.856, 125.565, -150.992, 128.079, 89.2325, 0, 0, 1.85595, -54.9299, 1.87847, -174.066, 1.8416, 66.1586, 0.0644111, 26.5241
0, 1740.00000, 127.089, -31.8565, 125.565, -150.992, 128.08, 89.2325, 0, 0, 1.85594, -54.9304, 1.87847, -174.066, 1.84158, 66.1586, 0.0644422, 26.5296
0, 1800.00000, 127.09, -31.857, 125.565, -150.992, 128.081, 89.2325, 0, 0, 1.85593, -54.9309, 1.87847, -174.066, 1.84157, 66.1585, 0.0644702, 26.5346
0, 1860.00000, 127.09, -31.8574, 125.565, -150.992, 128.082, 89.2324, 0, 0, 1.85592, -54.9313, 1.87847, -174.066, 1.84155, 66.1585, 0.0644954, 26.5391
0, 1920.00000, 127.091, -31.8577, 125.565, -150.992, 128.083, 89.2324, 0, 0, 1.85592, -54.9316, 1.87847, -174.066, 1.84154, 66.1585, 0.0645181, 26.5431
0, 1980.00000, 127.091, -31.858, 125.565, -150.992, 128.084, 89.2324, 0, 0, 1.85591, -54.932, 1.87847, -174.066, 1.84153, 66.1585, 0.0645385, 26.5467
0, 2040.00000, 127.091, -31.8583, 125.565, -150.992, 128.085, 89.2324, 0, 0, 1.85591, -54.9322, 1.87847, -174.066, 1.84151, 66.1585, 0.0645568, 26.55
0, 2100.00000, 127.092, -31.8586, 125.565, -150.992, 128.085, 89.2324, 0, 0, 1.8559, -54.9325, 1.87847, -174.066, 1.8415, 66.1585, 0.0645734, 26.5529
0, 2160.00000, 127.092, -31.8588, 125.565, -150.992, 128.086, 89.2324, 0, 0, 1.8559, -54.9327, 1.87847, -174.066, 1.8415, 66.1585, 0.0645882, 26.5555
0, 2220.00000, 127.139, -31.863, 125.838, -150.763, 128.662, 89.2318, 0, 0, 1.85521, -54.9369, 1.8744, -173.837, 1.83325, 66.1578, 0.0711765, 37.1233
0, 2280.00000, 127.139, -31.8632, 125.838, -150.763, 128.663, 89.2317, 0, 0, 1.85521, -54.9371, 1.8744, -173.837, 1.83324, 66.1578, 0.0711889, 37.1233
0, 2340.00000, 127.139, -31.8634, 125.838, -150.763, 128.663, 89.2317, 0, 0, 1.85521, -54.9373, 1.8744, -173.837, 1.83323, 66.1578, 0.0711999, 37.1234
0, 2400.00000, 127.14, -31.8635, 125.838, -150.763, 128.664, 89.2317, 0, 0, 1.8552, -54.9374, 1.8744, -173.837, 1.83323, 66.1578, 0.0712099, 37.1235
0, 2460.00000, 127.14, -31.8637, 125.838, -150.763, 128.664, 89.2317, 0, 0, 1.8552, -54.9376, 1.8744, -173.837, 1.83322, 66.1578, 0.0712188, 37.1235
0, 2520.00000, 127.14, -31.8638, 125.838, -150.763, 128.664, 89.2317, 0, 0, 1.8552, -54.9377, 1.8744, -173.837, 1.83322, 66.1578, 0.0712268, 37.1236
0, 2580.00000, 127.14, -31.8639, 125.838, -150.763, 128.665, 89.2317, 0, 0, 1.8552, -54.9378, 1.8744, -173.837, 1.83321, 66.1578, 0.071234, 37.1236
0, 2640.00000, 127.14, -31.864, 125.838, -150.763, 128.665, 89.2317, 0, 0, 1.85519, -54.9379, 1.8744, -173.837, 1.83321, 66.1578, 0.0712406, 37.1236
0, 2700.00000, 127.14, -31.8641, 125.838, -150.763, 128.665, 89.2317, 0, 0, 1.85519, -54.938, 1.8744, -173.837, 1.8332, 66.1578, 0.0712464, 37.1237
0, 2760.00000, 127.14, -31.8642, 125.838, -150.763, 128.665, 89.2317, 0, 0, 1.85519, -54.9381, 1.8744, -173.837, 1.8332, 66.1578, 0.0712517, 37.1237
0, 2820.00000, 127.14, -31.8642, 125.838, -150.763, 128.666, 89.2317, 0, 0, 1.85519, -54.9382, 1.8744, -173.837, 1.8332, 66.1578, 0.0712564, 37.1237
0, 2880.00000, 127.141, -31.8643, 125.838, -150.763, 128.666, 89.2317, 0, 0, 1.85519, -54.9382, 1.8744, -173.837, 1.8332, 66.1578, 0.0712607, 37.1238
0, 2940.00000, 127.141, -31.8644, 125.838, -150.763, 128.666, 89.2317, 0, 0, 1.85519, -54.9383, 1.8744, -173.837, 1.83319, 66.1578, 0.0712645, 37.1238
0, 3000.00000, 127.141, -31.8644, 125.838, -150.763, 128.666, 89.2317, 0, 0, 1.85519, -54.9383, 1.8744, -173.837, 1.83319, 66.1578, 0.071268, 37.1238
0, 3060.00000, 127.141, -31.8645, 125.838, -150.763, 128.666, 89.2317, 0, 0, 1.85519, -54.9384, 1.8744, -173.837, 1.83319, 66.1578, 0.0712711, 37.1238
0, 3120.00000, 127.141, -31.8645, 125.838, -150.763, 128.666, 89.2317, 0, 0, 1.85518, -54.9384, 1.8744, -173.837, 1.83319, 66.1578, 0.0712739, 37.1239
0, 3180.00000, 127.141, -31.8646, 125.838, -150.763, 128.666, 89.2317, 0, 0, 1.85518, -54.9385, 1.8744, -173.837, 1.83319, 66.1578, 0.0712764, 37.1239
0, 3240.00000, 127.141, -31.8646, 125.838, -150.763, 128.666, 89.2317, 0, 0, 1.85518, -54.9385, 1.8744, -173.837, 1.83319, 66.1578, 0.0712787, 37.1239
0, 3300.00000, 127.141, -31.8646, 125.838, -150.763, 128.667, 89.2317, 0, 0, 1.85518, -54.9385, 1.8744, -173.837, 1.83318, 66.1578, 0.0712807, 37.1239
0, 3360.00000, 127.141, -31.8647, 125.838, -150.763, 128.667, 89.2317, 0, 0, 1.85518, -54.9386, 1.8744, -173.837, 1.83318, 66.1578, 0.0712826, 37.1239
0, 3420.00000, 127.141, -31.8647, 125.838, -150.763, 128.667, 89.2317, 0, 0, 1.85518, -54.9386, 1.8744, -173.837, 1.83318, 66.1578, 0.0712842, 37.1239
0, 3480.00000, 127.141, -31.8647, 125.838, -150.763, 128.667, 89.2317, 0, 0, 1.85518, -54.9386, 1.8744, -173.837, 1.83318, 66.1578, 0.0712857, 37.1239
0, 3540.00000, 127.147, -31.8652, 125.966, -150.589, 129.072, 89.2777, 0, 0, 1.85509, -54.9391, 1.87249, -173.663, 1.82742, 66.2038, 0.0786606, 42.433
1, 0.00000, 127.147, -31.8652, 125.966, -150.589, 129.072, 89.2777, 0, 0, 1.85509, -54.9391, 1.87249, -173.663, 1.82742, 66.2038, 0.078662, 42.4328
1, 60.00000, 127.147, -31.8652, 125.966, -150.589, 129.073, 89.2777, 0, 0, 1.85509, -54.9392, 1.87249, -173.663, 1.82742, 66.2038, 0.0786631, 42.4327
1, 120.00000, 127.147, -31.8652, 125.966, -150.589, 129.073, 89.2777, 0, 0, 1.85509, -54.9392, 1.87249, -173.663, 1.82742, 66.2038, 0.078664, 42.4326
1, 180.00000, 127.147, -31.8653, 125.966, -150.589, 129.073, 89.2777, 0, 0, 1.85509, -54.9392, 1.87249, -173.663, 1.82742, 66.2038, 0.0786649, 42.4326
1, 240.00000, 127.147, -31.8653, 125.966, -150.589, 129.073, 89.2777, 0, 0, 1.85509, -54.9392, 1.87249, -173.663, 1.82742, 66.2038, 0.0786657, 42.4325
1, 300.00000, 127.147, -31.8653, 125.966, -150.589, 129.073, 89.2777, 0, 0, 1.85509, -54.9392, 1.87249, -173.663, 1.82742, 66.2038, 0.0786664, 42.4325
1, 360.00000, 127.147, -31.8653, 125.966, -150.589, 129.073, 89.2777, 0, 0, 1.85509, -54.9392, 1.87249, -173.663, 1.82742, 66.2038, 0.078667, 42.4325
1, 420.00000, 127.147, -31.8653, 125.966, -150.589, 129.073, 89.2777, 0, 0, 1.85509, -54.9392, 1.87249, -173.663, 1.82742, 66.2038, 0.0786676, 42.4324
1, 480.00000, 127.147, -31.8653, 125.966, -150.589, 129.073, 89.2777, 0, 0, 1.85509, -54.9392, 1.87249, -173.663, 1.82742, 66.2038, 0.0786681, 42.4324
1, 540.00000, 127.147, -31.8653, 125.966, -150.589, 129.073, 89.2777, 0, 0, 1.85509, -54.9392, 1.87249, -173.663, 1.82742, 66.2038, 0.0786686, 42.4324
1, 600.00000, 127.147, -31.8653, 125.966, -150.589, 129.073, 89.2777, 0, 0, 1.85509, -54.9392, 1.87249, -173.663, 1.82742, 66.2038, 0.078669, 42.4323
1, 660.00000, 127.269, -31.6968, 126.358, -150.551, 129.072, 89.2794, 0, 0, 1.85331, -54.7708, 1.86668, -173.625, 1.82742, 66.2054, 0.0691802, 45.1801
1, 720.00000, 127.269, -31.6968, 126.358, -150.551, 129.072, 89.2794, 0, 0, 1.85331, -54.7708, 1.86668, -173.625, 1.82742, 66.2054, 0.0691805, 45.1801
1, 780.00000, 127.671, -31.6525, 126.36, -150.55, 129.209, 89.4472, 0, 0, 1.84748, -54.7264, 1.86665, -173.624, 1.82549, 66.3732, 0.0711553, 37.2904
1, 840.00000, 127.671, -31.6525, 126.36, -150.55, 129.209, 89.4472, 0, 0, 1.84748, -54.7264, 1.86665, -173.624, 1.82549, 66.3732, 0.0711556, 37.2902
1, 900.00000, 127.671, -31.6525, 126.36, -150.55, 129.209, 89.4472, 0, 0, 1.84748, -54.7264, 1.86665, -173.624, 1.82549, 66.3732, 0.0711559, 37.2902
1, 960.00000, 127.671, -31.6525, 126.36, -150.55, 129.209, 89.4472, 0, 0, 1.84748, -54.7264, 1.86665, -173.624, 1.82549, 66.3732, 0.0711561, 37.2902
1, 1020.00000, 127.671, -31.6525, 126.36, -150.55, 129.209, 89.4472, 0, 0, 1.84748, -54.7264, 1.86665, -173.624, 1.82549, 66.3732, 0.0711563, 37.2902
1, 1080.00000, 127.671, -31.6525, 126.36, -150.55, 129.209, 89.4472, 0, 0, 1.84748, -54.7264, 1.86665, -173.624, 1.82549, 66.3732, 0.0711565, 37.2902
1, 1140.00000, 127.671, -31.6525, 126.36, -150.55, 129.209, 89.4472, 0, 0, 1.84748, -54.7264, 1.86665, -173.624, 1.82549, 66.3732, 0.0711566, 37.2902
1, 1200.00000, 127.671, -31.6525, 126.36, -150.55, 129.209, 89.4472, 0, 0, 1.84748, -54.7264, 1.86665, -173.624, 1.82549, 66.3732, 0.0711568, 37.2902
1, 1260.00000, 127.671, -31.6525, 126.36, -150.55, 129.209, 89.4472, 0, 0, 1.84748, -54.7264, 1.86665, -173.624, 1.82549, 66.3732, 0.0711569, 37.2902
1, 1320.00000, 127.671, -31.6525, 126.36, -150.55, 129.209, 89.4472, 0, 0, 1.84748, -54.7264, 1.86665, -173.624, 1.82549, 66.3732, 0.071157, 37.2902
1, 1380.00000, 127.671, -31.6525, 126.36, -150.55, 129.209, 89.4472, 0, 0, 1.84748, -54.7264, 1.86665, -173.624, 1.82549, 66.3732, 0.0711571, 37.2902
1, 1440.00000, 127.671, -31.6525, 126.36, -150.55, 129.209, 89.4472, 0, 0, 1.84748, -54.7264, 1.86665, -173.624, 1.82549, 66.3732, 0.0711572, 37.2902
1, 1500.00000, 127.671, -31.6525, 126.36, -150.55, 129.209, 89.4472, 0, 0, 1.84748, -54.7264, 1.86665, -173.624, 1.82549, 66.3732, 0.0711573, 37.2902
1, 1560.00000, 127.671, -31.6525, 126.36, -150.55, 129.209, 89.4472, 0, 0, 1.84748, -54.7264, 1.86665, -173.624, 1.82549, 66.3732, 0.0711574, 37.2902
1, 1620.00000, 127.671, -31.6525, 126.36, -150.55, 129.209, 89.4472, 0, 0, 1.84748, -54.7264, 1.86665, -173.624, 1.82549, 66.3732, 0.0711575, 37.2902
1, 1680.00000, 127.671, -31.6525, 126.36, -150.55, 129.209, 89.4472, 0, 0, 1.84748, -54.7264, 1.86665, -173.624, 1.82549, 66.3732, 0.0711575, 37.2902
1, 1740.00000, 127.671, -31.6525, 126.36, -150.55, 129.209, 89.4472, 0, 0, 1.84748, -54.7264, 1.86665, -173.624, 1.82549, 66.3732, 0.0711576, 37.2902
1, 1800.00000, 127.671, -31.6525, 126.36, -150.55, 129.209, 89.4472, 0, 0, 1.84748, -54.7264, 1.86665, -173.624, 1.82549, 66.3732, 0.0711576, 37.2902
1, 1860.00000, 127.671, -31.6525, 126.36, -150.55, 129.209, 89.4472, 0, 0, 1.84748, -54.7264, 1.86665, -173.624, 1.82549, 66.3732, 0.0711577, 37.2902
1, 1920.00000, 127.671, -31.6525, 126.36, -150.55, 129.209, 89.4472, 0, 0, 1.84748, -54.7264, 1.86665, -173.624, 1.82549, 66.3732, 0.0711577, 37.2902
1, 1980.00000, 127.671, -31.6525, 126.36, -150.55, 129.209, 89.4472, 0, 0, 1.84748, -54.7264, 1.86665, -173.624, 1.82549, 66.3732, 0.0711578, 37.2902
1, 2040.00000, 127.671, -31.6525, 126.36, -150.55, 129.209, 89.4472, 0, 0, 1.84748, -54.7265, 1.86665, -173.624, 1.82549, 66.3732, 0.0711578, 37.2902
1, 2100.00000, 127.671, -31.6525, 126.36, -150.55, 129.209, 89.4472, 0, 0, 1.84748, -54.7265, 1.86665, -173.624, 1.82549, 66.3732, 0.0711578, 37.2902
1, 2160.00000, 127.671, -31.6525, 126.36, -150.55, 129.209, 89.4472, 0, 0, 1.84748, -54.7265, 1.86665, -173.624, 1.82549, 66.3732, 0.0711579, 37.2902
1, 2220.00000, 127.671, -31.6525, 126.36, -150.55, 129.209, 89.4472, 0, 0, 1.84748, -54.7265, 1.86665, -173.624, 1.82549, 66.3732, 0.0711579, 37.2902
1, 2280.00000, 127.671, -31.6525, 126.36, -150.55, 129.209, 89.4472, 0, 0, 1.84748, -54.7265, 1.86665, -173.624, 1.82549, 66.3732, 0.0711579, 37.2902
1, 2340.00000, 127.671, -31.6525, 126.36, -150.55, 129.209, 89.4472, 0, 0, 1.84748, -54.7265, 1.86665, -173.624, 1.82549, 66.3732, 0.0711579, 37.2902
1, 2400.00000, 127.671, -31.6525, 126.36, -150.55, 129.209, 89.4472, 0, 0, 1.84748, -54.7265, 1.86665, -173.624, 1.82549, 66.3732, 0.0711579, 37.2902
1, 2460.00000, 127.671, -31.6525, 126.36, -150.55, 129.209, 89.4472, 0, 0, 1.84748, -54.7265, 1.86665, -173.624, 1.82549, 66.3732, 0.071158, 37.2902
1, 2520.00000, 127.671, -31.6525, 126.36, -150.55, 129.209, 89.4472, 0, 0, 1.84748, -54.7265, 1.86665, -173.624, 1.82549, 66.3732, 0.071158, 37.2902
1, 2580.00000, 127.671, -31.6525, 126.36, -150.55, 129.209, 89.4472, 0, 0, 1.84748, -54.7265, 1.86665, -173.624, 1.82549, 66.3732, 0.071158, 37.2902
1, 2640.00000, 127.671, -31.6525, 126.36, -150.55, 129.209, 89.4472, 0, 0, 1.84748, -54.7265, 1.86665, -173.624, 1.82549, 66.3732, 0.071158, 37.2902
1, 2700.00000, 127.671, -31.6525, 126.36, -150.55, 129.209, 89.4472, 0, 0, 1.84748, -54.7265, 1.86665, -173.624, 1.82549, 66.3732, 0.071158, 37.2902
1, 2760.00000, 127.671, -31.6525, 126.36, -150.55, 129.209, 89.4472, 0, 0, 1.84748, -54.7265, 1.86665, -173.624, 1.82549, 66.3732, 0.071158, 37.2902
1, 2820.00000, 127.671, -31.6525, 126.36, -150.55, 129.209, 89.4472, 0, 0, 1.84748, -54.7265, 1.86665, -173.624, 1.82549, 66.3732, 0.071158, 37.2902
1, 2880.00000, 127.671, -31.6525, 126.36, -150.55, 129.209, 89.4472, 0, 0, 1.84748, -54.7265, 1.86665, -173.624, 1.82549, 66.3732, 0.071158, 37.2902
1, 2940.00000, 127.671, -31.6525, 126.36, -150.55, 129.209, 89.4472, 0, 0, 1.84748, -54.7265, 1.86665, -173.624, 1.82549, 66.3732, 0.071158, 37.2902
1, 3000.00000, 127.671, -31.6525, 126.36, -150.55, 129.209, 89.4472, 0, 0, 1.84748, -54.7265, 1.86665, -173.624, 1.82549, 66.3732, 0.071158, 37.2902
1, 3060.00000, 127.671, -31.6525, 126.36, -150.55, 129.209, 89.4472, 0, 0, 1.84748, -54.7265, 1.86665, -173.624, 1.82549, 66.3732, 0.0711581, 37.2902
1, 3120.00000, 127.671, -31.6525, 126.36, -150.55, 129.209, 89.4472, 0, 0, 1.84748, -54.7265, 1.86665, -173.624, 1.82549, 66.3732, 0.0711581, 37.2902
1, 3180.00000, 127.671, -31.6525, 126.36, -150.55, 129.209, 89.4472, 0, 0, 1.84748, -54.7265, 1.86665, -173.624, 1.82549, 66.3732, 0.0711581, 37.2902
1, 3240.00000, 127.671, -31.6525, 126.36, -150.55, 129.209, 89.4472, 0, 0, 1.84748, -54.7265, 1.86665, -173.624, 1.82549, 66.3732, 0.0711581, 37.2902
1, 3300.00000, 127.671, -31.6525, 126.36, -150.55, 129.209, 89.4472, 0, 0, 1.84748, -54.7265, 1.86665, -173.624, 1.82549, 66.3732, 0.0711581, 37.2902
1, 3360.00000, 127.671, -31.6525, 126.36, -150.55, 129.209, 89.4472, 0, 0, 1.84748, -54.7265, 1.86665, -173.624, 1.82549, 66.3732, 0.0711581, 37.2902
1, 3420.00000, 127.671, -31.6525, 126.36, -150.55, 129.209, 89.4472, 0, 0, 1.84748, -54.7265, 1.86665, -173.624, 1.82549, 66.3732, 0.0711581, 37.2902
1, 3480.00000, 127.951, -31.4285, 126.931, -150.551, 129.192, 89.4536, 0, 0, 1.84343, -54.5024, 1.85824, -173.625, 1.82573, 66.3797, 0.0564651, 37.4818
1, 3540.00000, 127.951, -31.4285, 126.931, -150.551, 129.192, 89.4536, 0, 0, 1.84343, -54.5024, 1.85824, -173.625, 1.82573, 66.3797, 0.056465, 37.4818
2, 0.00000, 127.951, -31.4285, 126.931, -150.551, 129.192, 89.4536, 0, 0, 1.84343, -54.5024, 1.85824, -173.625, 1.82573, 66.3797, 0.056465, 37.4818
2, 60.00000, 127.951, -31.4285, 126.931, -150.551, 129.192, 89.4536, 0, 0, 1.84343, -54.5024, 1.85824, -173.625, 1.82573, 66.3797, 0.056465, 37.4818
2, 120.00000, 127.947, -31.4296, 126.928, -150.552, 129.188, 89.4525, 0, 0, 1.84859, -54.5035, 1.86344, -173.626, 1.83084, 66.3786, 0.0566237, 37.4834
2, 180.00000, 127.943, -31.4307, 126.924, -150.554, 129.184, 89.4514, 0, 0, 1.85382, -54.5047, 1.8687, -173.628, 1.83601, 66.3775, 0.0567843, 37.4851
2, 240.00000, 127.939, -31.4319, 126.92, -150.555, 129.18, 89.4503, 0, 0, 1.85898, -54.5058, 1.8739, -173.629, 1.84112, 66.3764, 0.0569429, 37.4867
2, 300.00000, 127.935, -31.433, 126.916, -150.556, 129.176, 89.4493, 0, 0, 1.86414, -54.5069, 1.8791, -173.63, 1.84622, 66.3753, 0.0571016, 37.4884
2, 360.00000, 127.93, -31.4341, 126.912, -150.557, 129.172, 89.4482, 0, 0, 1.86936, -54.508, 1.88436, -173.631, 1.85139, 66.3742, 0.0572622, 37.49
2, 420.00000, 127.926, -31.4352, 126.908, -150.558, 129.168, 89.4471, 0, 0, 1.87452, -54.5091, 1.88956, -173.632, 1.8565, 66.3732, 0.0574209, 37.4917
2, 480.00000, 127.922, -31.4363, 126.904, -150.559, 129.164, 89.446, 0, 0, 1.87969, -54.5102, 1.89476, -173.633, 1.86161, 66.3721, 0.0575797, 37.4933
2, 540.00000, 127.918, -31.4374, 126.9, -150.56, 129.16, 89.4449, 0, 0, 1.88491, -54.5113, 1.90003, -173.634, 1.86678, 66.371, 0.0577403, 37.495
2, 600.00000, 127.914, -31.4385, 126.896, -150.561, 129.156, 89.4438, 0, 0, 1.89007, -54.5124, 1.90523, -173.635, 1.87189, 66.3699, 0.0578991, 37.4966
2, 660.00000, 127.91, -31.4396, 126.892, -150.563, 129.152, 89.4427, 0, 0, 1.89524, -54.5135, 1.91043, -173.637, 1.877, 66.3688, 0.0580578, 37.4983
2, 720.00000, 127.905, -31.4407, 126.889, -150.564, 129.148, 89.4416, 0, 0, 1.90046, -54.5146, 1.91569, -173.638, 1.88217, 66.3677, 0.0582185, 37.4999
