hour,t(sec),V1,VAngle1,V2,VAngle2,V3,VAngle3,V4,VAngle4,I1,IAngle1,I2,IAngle2,I3,IAngle3,I4,IAngle4
0, 60.00000, 125.92, -31.2516, 125.965, -150.652, 127.033, 89.2118, 0, 0, 2.35311, -54.3253, 2.35227, -173.726, 2.33253, 66.1379, 0.0418639, 57.8193
0, 120.00000, 125.931, -31.26, 125.965, -150.653, 127.056, 89.2116, 0, 0, 2.35292, -54.3337, 2.35227, -173.726, 2.33211, 66.1377, 0.0425199, 57.4856
0, 180.00000, 125.94, -31.2675, 125.965, -150.653, 127.076, 89.2115, 0, 0, 2.35274, -54.3413, 2.35227, -173.726, 2.33174, 66.1376, 0.0431116, 57.1945
0, 240.00000, 125.949, -31.2744, 125.965, -150.653, 127.094, 89.2113, 0, 0, 2.35258, -54.3481, 2.35227, -173.726, 2.3314, 66.1374, 0.0436452, 56.9395
0, 300.00000, 126.925, -31.3369, 125.909, -150.659, 127.807, 89.5028, 0, 0, 2.33448, -54.4107, 2.35332, -173.733, 2.31839, 66.4289, 0.0615784, 29.5576
0, 360.00000, 126.932, -31.3424, 125.909, -150.659, 127.822, 89.5026, 0, 0, 2.33436, -54.4162, 2.35332, -173.733, 2.31812, 66.4287, 0.0620265, 29.6184
0, 420.00000, 126.938, -31.3474, 125.909, -150.659, 127.835, 89.5024, 0, 0, 2.33424, -54.4212, 2.35332, -173.733, 2.31788, 66.4285, 0.0624296, 29.6726
0, 480.00000, 126.944, -31.3519, 125.909, -150.659, 127.847, 89.5022, 0, 0, 2.33414, -54.4256, 2.35332, -173.733, 2.31766, 66.4284, 0.0627925, 29.721
0, 540.00000, 126.949, -31.3559, 125.909, -150.659, 127.858, 89.5021, 0, 0, 2.33405, -54.4297, 2.35332, -173.733, 2.31746, 66.4282, 0.0631191, 29.7641
0, 600.00000, 126.953, -31.3595, 125.909, -150.659, 127.868, 89.5019, 0, 0, 2.33397, -54.4333, 2.35332, -173.733, 2.31728, 66.4281, 0.0634131, 29.8026
0, 660.00000, 126.957, -31.3628, 125.909, -150.659, 127.877, 89.5018, 0, 0, 2.33389, -54.4366, 2.35332, -173.733, 2.31712, 66.4279, 0.0636777, 29.837
0, 720.00000, 126.961, -31.3657, 125.909, -150.659, 127.884, 89.5017, 0, 0, 2.33382, -54.4395, 2.35332, -173.733, 2.31698, 66.4278, 0.0639159, 29.8678
0, 780.00000, 126.964, -31.3683, 125.909, -150.659, 127.891, 89.5016, 0, 0, 2.33376, -54.4422, 2.35332, -173.733, 2.31685, 66.4277, 0.0641303, 29.8953
0, 840.00000, 126.967, -31.3707, 125.909, -150.659, 127.898, 89.5015, 0, 0, 2.33371, -54.4445, 2.35332, -173.733, 2.31674, 66.4276, 0.0643233, 29.92
0, 900.00000, 126.97, -31.3728, 125.909, -150.659, 127.904, 89.5014, 0, 0, 2.33366, -54.4467, 2.35333, -173.733, 2.31663, 66.4275, 0.064497, 29.9421
0, 960.00000, 126.972, -31.3748, 125.909, -150.659, 127.909, 89.5013, 0, 0, 2.33362, -54.4486, 2.35333, -173.733, 2.31654, 66.4275, 0.0646533, 29.9618
0, 1020.00000, 126.974, -31.3765, 125.909, -150.659, 127.913, 89.5013, 0, 0, 2.33358, -54.4504, 2.35333, -173.733, 2.31645, 66.4274, 0.064794, 29.9796
0, 1080.00000, 126.976, -31.3781, 125.909, -150.659, 127.918, 89.5012, 0, 0, 2.33354, -54.4519, 2.35333, -173.733, 2.31638, 66.4273, 0.0649207, 29.9955
0, 1140.00000, 126.978, -31.3795, 125.909, -150.659, 127.921, 89.5012, 0, 0, 2.33351, -54.4533, 2.35333, -173.733, 2.31631, 66.4273, 0.0650347, 30.0098
0, 1200.00000, 126.98, -31.3807, 125.909, -150.659, 127.925, 89.5011, 0, 0, 2.33348, -54.4546, 2.35333, -173.733, 2.31625, 66.4272, 0.0651373, 30.0226
0, 1260.00000, 126.981, -31.3819, 125.909, -150.659, 127.928, 89.5011, 0, 0, 2.33346, -54.4557, 2.35333, -173.733, 2.31619, 66.4272, 0.0652296, 30.0341
0, 1320.00000, 126.982, -31.3829, 125.909, -150.659, 127.93, 89.501, 0, 0, 2.33343, -54.4568, 2.35333, -173.733, 2.31614, 66.4271, 0.0653127, 30.0445
0, 1380.00000, 126.983, -31.3838, 125.909, -150.659, 127.933, 89.501, 0, 0, 2.33341, -54.4577, 2.35333, -173.733, 2.31609, 66.4271, 0.0653875, 30.0537
0, 1440.00000, 126.984, -31.3846, 125.909, -150.659, 127.935, 89.5009, 0, 0, 2.33339, -54.4585, 2.35333, -173.733, 2.31605, 66.427, 0.0654549, 30.0621
0, 1500.00000, 126.985, -31.3854, 125.909, -150.659, 127.937, 89.5009, 0, 0, 2.33338, -54.4593, 2.35333, -173.733, 2.31602, 66.427, 0.0655154, 30.0696
0, 1560.00000, 126.986, -31.3861, 125.909, -150.659, 127.939, 89.5009, 0, 0, 2.33336, -54.46, 2.35333, -173.733, 2.31598, 66.427, 0.06557, 30.0763
0, 1620.00000, 126.987, -31.3867, 125.909, -150.659, 127.941, 89.5009, 0, 0, 2.33335, -54.4606, 2.35333, -173.733, 2.31595, 66.427, 0.0656191, 30.0824
0, 1680.00000, 126.988, -31.3872, 125.909, -150.659, 127.942, 89.5008, 0, 0, 2.33333, -54.4611, 2.35333, -173.733, 2.31593, 66.4269, 0.0656632, 30.0878
0, 1740.00000, 126.988, -31.3877, 125.909, -150.659, 127.943, 89.5008, 0, 0, 2.33332, -54.4616, 2.35333, -173.733, 2.3159, 66.4269, 0.065703, 30.0927
0, 1800.00000, 126.989, -31.3881, 125.909, -150.659, 127.945, 89.5008, 0, 0, 2.33331, -54.462, 2.35333, -173.733, 2.31588, 66.4269, 0.0657388, 30.0971
0, 1860.00000, 126.989, -31.3885, 125.909, -150.659, 127.946, 89.5008, 0, 0, 2.3333, -54.4624, 2.35333, -173.733, 2.31586, 66.4269, 0.065771, 30.1011
0, 1920.00000, 126.99, -31.3889, 125.909, -150.659, 127.947, 89.5008, 0, 0, 2.3333, -54.4628, 2.35333, -173.733, 2.31585, 66.4269, 0.0658, 30.1046
0, 1980.00000, 126.99, -31.3892, 125.909, -150.659, 127.947, 89.5008, 0, 0, 2.33329, -54.4631, 2.35333, -173.733, 2.31583, 66.4268, 0.0658261, 30.1078
0, 2040.00000, 126.99, -31.3895, 125.909, -150.659, 127.948, 89.5007, 0, 0, 2.33328, -54.4634, 2.35333, -173.733, 2.31582, 66.4268, 0.0658495, 30.1107
0, 2100.00000, 126.991, -31.3898, 125.909, -150.659, 127.949, 89.5007, 0, 0, 2.33328, -54.4637, 2.35333, -173.733, 2.3158, 66.4268, 0.0658707, 30.1133
0, 2160.00000, 126.991, -31.39, 125.909, -150.659, 127.95, 89.5007, 0, 0, 2.33327, -54.4639, 2.35333, -173.733, 2.31579, 66.4268, 0.0658897, 30.1156
0, 2220.00000, 126.991, -31.3902, 125.909, -150.659, 127.95, 89.5007, 0, 0, 2.33327, -54.4641, 2.35333, -173.733, 2.31578, 66.4268, 0.0659068, 30.1177
0, 2280.00000, 126.991, -31.3904, 125.909, -150.659, 127.951, 89.5007, 0, 0, 2.33326, -54.4643, 2.35333, -173.733, 2.31577, 66.4268, 0.0659222, 30.1196
0, 2340.00000, 126.992, -31.3906, 125.909, -150.659, 127.951, 89.5007, 0, 0, 2.33326, -54.4645, 2.35333, -173.733, 2.31576, 66.4268, 0.0659361, 30.1213
0, 2400.00000, 126.992, -31.3907, 125.909, -150.659, 127.951, 89.5007, 0, 0, 2.33326, -54.4646, 2.35333, -173.733, 2.31576, 66.4268, 0.0659485, 30.1228
0, 2460.00000, 126.992, -31.3909, 125.909, -150.659, 127.952, 89.5007, 0, 0, 2.33325, -54.4648, 2.35333, -173.733, 2.31575, 66.4268, 0.0659598, 30.1242
0, 2520.00000, 126.992, -31.391, 125.909, -150.659, 127.952, 89.5007, 0, 0, 2.33325, -54.4649, 2.35333, -173.733, 2.31574, 66.4268, 0.0659699, 30.1254
0, 2580.00000, 126.992, -31.3911, 125.909, -150.659, 127.952, 89.5007, 0, 0, 2.33325, -54.465, 2.35333, -173.733, 2.31574, 66.4268, 0.065979, 30.1265
0, 2640.00000, 126.992, -31.3912, 125.909, -150.659, 127.953, 89.5007, 0, 0, 2.33324, -54.4651, 2.35333, -173.733, 2.31573, 66.4268, 0.0659872, 30.1275
0, 2700.00000, 126.993, -31.3913, 125.909, -150.659, 127.953, 89.5007, 0, 0, 2.33324, -54.4652, 2.35333, -173.733, 2.31573, 66.4268, 0.0659945, 30.1284
0, 2760.00000, 126.993, -31.3914, 125.909, -150.659, 127.953, 89.5007, 0, 0, 2.33324, -54.4653, 2.35333, -173.733, 2.31572, 66.4268, 0.0660012, 30.1292
0, 2820.00000, 126.993, -31.3914, 125.909, -150.659, 127.953, 89.5007, 0, 0, 2.33324, -54.4654, 2.35333, -173.733, 2.31572, 66.4268, 0.0660071, 30.13
0, 2880.00000, 126.993, -31.3915, 125.909, -150.659, 127.954, 89.5007, 0, 0, 2.33324, -54.4654, 2.35333, -173.733, 2.31572, 66.4268, 0.0660125, 30.1306
0, 2940.00000, 126.993, -31.3916, 125.909, -150.659, 127.954, 89.5007, 0, 0, 2.33324, -54.4655, 2.35333, -173.733, 2.31572, 66.4268, 0.0660173, 30.1312
0, 3000.00000, 126.993, -31.3916, 125.909, -150.659, 127.954, 89.5007, 0, 0, 2.33323, -54.4655, 2.35333, -173.733, 2.31571, 66.4267, 0.0660217, 30.1317
0, 3060.00000, 126.993, -31.3917, 125.909, -150.659, 127.954, 89.5007, 0, 0, 2.33323, -54.4656, 2.35333, -173.733, 2.31571, 66.4267, 0.0660256, 30.1322
0, 3120.00000, 126.993, -31.3917, 125.909, -150.659, 127.954, 89.5007, 0, 0, 2.33323, -54.4656, 2.35333, -173.733, 2.31571, 66.4267, 0.0660291, 30.1327
0, 3180.00000, 126.993, -31.3918, 125.909, -150.659, 127.954, 89.5007, 0, 0, 2.33323, -54.4657, 2.35333, -173.733, 2.31571, 66.4267, 0.0660323, 30.133
0, 3240.00000, 126.993, -31.3918, 125.909, -150.659, 127.954, 89.5007, 0, 0, 2.33323, -54.4657, 2.35333, -173.733, 2.3157, 66.4267, 0.0660352, 30.1334
0, 3300.00000, 126.993, -31.3918, 125.909, -150.659, 127.954, 89.5007, 0, 0, 2.33323, -54.4657, 2.35333, -173.733, 2.3157, 66.4267, 0.0660377, 30.1337
0, 3360.00000, 126.993, -31.3919, 125.909, -150.659, 127.954, 89.5007, 0, 0, 2.33323, -54.4658, 2.35333, -173.733, 2.3157, 66.4267, 0.06604, 30.134
0, 3420.00000, 126.993, -31.3919, 125.909, -150.659, 127.955, 89.5007, 0, 0, 2.33323, -54.4658, 2.35333, -173.733, 2.3157, 66.4267, 0.0660421, 30.1342
0, 3480.00000, 126.993, -31.3919, 125.909, -150.659, 127.955, 89.5006, 0, 0, 2.33323, -54.4658, 2.35333, -173.733, 2.3157, 66.4267, 0.066044, 30.1345
0, 3540.00000, 126.993, -31.3919, 125.909, -150.659, 127.955, 89.5006, 0, 0, 2.33323, -54.4658, 2.35333, -173.733, 2.3157, 66.4267, 0.0660457, 30.1347
1, 0.00000, 126.993, -31.3919, 125.909, -150.659, 127.955, 89.5006, 0, 0, 2.33323, -54.4659, 2.35333, -173.733, 2.3157, 66.4267, 0.0660472, 30.1349
1, 60.00000, 126.993, -31.392, 125.909, -150.659, 127.955, 89.5006, 0, 0, 2.33323, -54.4659, 2.35333, -173.733, 2.3157, 66.4267, 0.0660486, 30.135
1, 120.00000, 126.993, -31.392, 125.909, -150.659, 127.955, 89.5006, 0, 0, 2.33323, -54.4659, 2.35333, -173.733, 2.3157, 66.4267, 0.0660498, 30.1352
1, 180.00000, 126.993, -31.392, 125.909, -150.659, 127.955, 89.5006, 0, 0, 2.33323, -54.4659, 2.35333, -173.733, 2.3157, 66.4267, 0.0660509, 30.1353
1, 240.00000, 126.993, -31.392, 125.909, -150.659, 127.955, 89.5006, 0, 0, 2.33323, -54.4659, 2.35333, -173.733, 2.31569, 66.4267, 0.0660519, 30.1354
1, 300.00000, 126.993, -31.392, 125.909, -150.659, 127.955, 89.5006, 0, 0, 2.33323, -54.4659, 2.35333, -173.733, 2.31569, 66.4267, 0.0660528, 30.1355
1, 360.00000, 126.993, -31.392, 125.909, -150.659, 127.955, 89.5006, 0, 0, 2.33323, -54.4659, 2.35333, -173.733, 2.31569, 66.4267, 0.0660536, 30.1356
1, 420.00000, 126.993, -31.392, 125.909, -150.659, 127.955, 89.5006, 0, 0, 2.33323, -54.466, 2.35333, -173.733, 2.31569, 66.4267, 0.0660543, 30.1357
1, 480.00000, 126.993, -31.392, 125.909, -150.659, 127.955, 89.5006, 0, 0, 2.33323, -54.466, 2.35333, -173.733, 2.31569, 66.4267, 0.066055, 30.1358
1, 540.00000, 126.993, -31.392, 125.909, -150.659, 127.955, 89.5006, 0, 0, 2.33323, -54.466, 2.35333, -173.733, 2.31569, 66.4267, 0.0660556, 30.1359
1, 600.00000, 126.993, -31.3921, 125.909, -150.659, 127.955, 89.5006, 0, 0, 2.33323, -54.466, 2.35333, -173.733, 2.31569, 66.4267, 0.0660561, 30.1359
1, 660.00000, 126.993, -31.3938, 126.027, -150.494, 128.346, 89.5409, 0, 0, 2.33324, -54.4677, 2.35113, -173.568, 2.30864, 66.467, 0.0741562, 37.8521
1, 720.00000, 126.993, -31.3938, 126.027, -150.494, 128.346, 89.5409, 0, 0, 2.33324, -54.4677, 2.35113, -173.568, 2.30864, 66.467, 0.0741567, 37.8522
1, 780.00000, 126.993, -31.3938, 126.027, -150.494, 128.346, 89.5409, 0, 0, 2.33324, -54.4677, 2.35113, -173.568, 2.30864, 66.467, 0.0741571, 37.8522
1, 840.00000, 126.993, -31.3938, 126.027, -150.494, 128.346, 89.5409, 0, 0, 2.33324, -54.4678, 2.35113, -173.568, 2.30864, 66.467, 0.0741574, 37.8522
1, 900.00000, 126.993, -31.3938, 126.027, -150.494, 128.346, 89.5409, 0, 0, 2.33324, -54.4678, 2.35113, -173.568, 2.30864, 66.467, 0.0741577, 37.8522
1, 960.00000, 126.993, -31.3938, 126.027, -150.494, 128.346, 89.5409, 0, 0, 2.33324, -54.4678, 2.35113, -173.568, 2.30864, 66.467, 0.074158, 37.8522
1, 1020.00000, 126.993, -31.3938, 126.027, -150.494, 128.346, 89.5409, 0, 0, 2.33324, -54.4678, 2.35113, -173.568, 2.30864, 66.467, 0.0741583, 37.8522
1, 1080.00000, 126.993, -31.3938, 126.027, -150.494, 128.346, 89.5409, 0, 0, 2.33324, -54.4678, 2.35113, -173.568, 2.30864, 66.467, 0.0741585, 37.8522
1, 1140.00000, 126.993, -31.3939, 126.027, -150.494, 128.346, 89.5409, 0, 0, 2.33324, -54.4678, 2.35113, -173.568, 2.30864, 66.467, 0.0741587, 37.8522
1, 1200.00000, 126.993, -31.3939, 126.027, -150.494, 128.346, 89.5409, 0, 0, 2.33324, -54.4678, 2.35113, -173.568, 2.30864, 66.467, 0.0741589, 37.8522
1, 1260.00000, 126.993, -31.3939, 126.027, -150.494, 128.346, 89.5409, 0, 0, 2.33324, -54.4678, 2.35113, -173.568, 2.30864, 66.467, 0.074159, 37.8522
1, 1320.00000, 126.993, -31.3939, 126.027, -150.494, 128.346, 89.5409, 0, 0, 2.33324, -54.4678, 2.35113, -173.568, 2.30864, 66.467, 0.0741592, 37.8522
1, 1380.00000, 126.993, -31.3939, 126.027, -150.494, 128.346, 89.5409, 0, 0, 2.33324, -54.4678, 2.35113, -173.568, 2.30864, 66.467, 0.0741593, 37.8522
1, 1440.00000, 126.993, -31.3939, 126.027, -150.494, 128.346, 89.5409, 0, 0, 2.33324, -54.4678, 2.35113, -173.568, 2.30864, 66.467, 0.0741595, 37.8522
1, 1500.00000, 126.993, -31.3939, 126.027, -150.494, 128.346, 89.5409, 0, 0, 2.33324, -54.4678, 2.35113, -173.568, 2.30864, 66.467, 0.0741596, 37.8522
1, 1560.00000, 126.993, -31.3939, 126.027, -150.494, 128.346, 89.5409, 0, 0, 2.33324, -54.4678, 2.35113, -173.568, 2.30864, 66.467, 0.0741597, 37.8522
1, 1620.00000, 126.993, -31.3939, 126.027, -150.494, 128.346, 89.5409, 0, 0, 2.33324, -54.4678, 2.35113, -173.568, 2.30864, 66.467, 0.0741597, 37.8522
1, 1680.00000, 126.993, -31.3939, 126.027, -150.494, 128.346, 89.5409, 0, 0, 2.33324, -54.4678, 2.35113, -173.568, 2.30864, 66.467, 0.0741598, 37.8522
1, 1740.00000, 126.993, -31.3939, 126.027, -150.494, 128.346, 89.5409, 0, 0, 2.33324, -54.4678, 2.35113, -173.568, 2.30864, 66.467, 0.0741599, 37.8522
1, 1800.00000, 126.993, -31.3939, 126.027, -150.494, 128.346, 89.5409, 0, 0, 2.33324, -54.4678, 2.35113, -173.568, 2.30864, 66.467, 0.07416, 37.8522
1, 1860.00000, 126.993, -31.3939, 126.027, -150.494, 128.346, 89.5409, 0, 0, 2.33324, -54.4678, 2.35113, -173.568, 2.30864, 66.467, 0.07416, 37.8522
1, 1920.00000, 126.993, -31.3939, 126.027, -150.494, 128.346, 89.5409, 0, 0, 2.33324, -54.4678, 2.35113, -173.568, 2.30864, 66.467, 0.0741601, 37.8522
1, 1980.00000, 126.993, -31.3939, 126.027, -150.494, 128.346, 89.5409, 0, 0, 2.33324, -54.4678, 2.35113, -173.568, 2.30864, 66.467, 0.0741601, 37.8522
1, 2040.00000, 126.993, -31.3939, 126.027, -150.494, 128.346, 89.5409, 0, 0, 2.33324, -54.4678, 2.35113, -173.568, 2.30864, 66.467, 0.0741602, 37.8522
1, 2100.00000, 126.993, -31.3939, 126.027, -150.494, 128.346, 89.5409, 0, 0, 2.33324, -54.4678, 2.35113, -173.568, 2.30864, 66.467, 0.0741602, 37.8522
1, 2160.00000, 126.993, -31.3939, 126.027, -150.494, 128.346, 89.5409, 0, 0, 2.33324, -54.4678, 2.35113, -173.568, 2.30864, 66.467, 0.0741602, 37.8522
1, 2220.00000, 126.993, -31.3939, 126.027, -150.494, 128.346, 89.5409, 0, 0, 2.33324, -54.4678, 2.35113, -173.568, 2.30864, 66.467, 0.0741603, 37.8522
1, 2280.00000, 126.993, -31.3939, 126.027, -150.494, 128.346, 89.5409, 0, 0, 2.33324, -54.4678, 2.35113, -173.568, 2.30864, 66.467, 0.0741603, 37.8522
1, 2340.00000, 126.993, -31.3939, 126.027, -150.494, 128.346, 89.5409, 0, 0, 2.33324, -54.4678, 2.35113, -173.568, 2.30864, 66.467, 0.0741603, 37.8522
1, 2400.00000, 126.993, -31.3939, 126.027, -150.494, 128.346, 89.5409, 0, 0, 2.33324, -54.4678, 2.35113, -173.568, 2.30864, 66.467, 0.0741603, 37.8522
1, 2460.00000, 126.993, -31.3939, 126.027, -150.494, 128.346, 89.5409, 0, 0, 2.33324, -54.4678, 2.35113, -173.568, 2.30864, 66.467, 0.0741604, 37.8522
1, 2520.00000, 126.993, -31.3939, 126.027, -150.494, 128.346, 89.5409, 0, 0, 2.33324, -54.4678, 2.35113, -173.568, 2.30864, 66.467, 0.0741604, 37.8522
1, 2580.00000, 126.993, -31.3939, 126.027, -150.494, 128.346, 89.5409, 0, 0, 2.33324, -54.4678, 2.35113, -173.568, 2.30864, 66.467, 0.0741604, 37.8522
1, 2640.00000, 126.993, -31.3939, 126.027, -150.494, 128.346, 89.5409, 0, 0, 2.33324, -54.4678, 2.35113, -173.568, 2.30864, 66.467, 0.0741604, 37.8522
1, 2700.00000, 126.993, -31.3939, 126.027, -150.494, 128.346, 89.5409, 0, 0, 2.33324, -54.4678, 2.35113, -173.568, 2.30864, 66.467, 0.0741604, 37.8522
1, 2760.00000, 126.993, -31.3939, 126.027, -150.494, 128.346, 89.5409, 0, 0, 2.33324, -54.4678, 2.35113, -173.568, 2.30864, 66.467, 0.0741604, 37.8522
1, 2820.00000, 126.993, -31.3939, 126.027, -150.494, 128.346, 89.5409, 0, 0, 2.33324, -54.4678, 2.35113, -173.568, 2.30864, 66.467, 0.0741605, 37.8522
1, 2880.00000, 126.993, -31.3939, 126.027, -150.494, 128.346, 89.5409, 0, 0, 2.33324, -54.4678, 2.35113, -173.568, 2.30864, 66.467, 0.0741605, 37.8522
1, 2940.00000, 126.993, -31.3939, 126.027, -150.494, 128.346, 89.5409, 0, 0, 2.33324, -54.4678, 2.35113, -173.568, 2.30864, 66.467, 0.0741605, 37.8522
1, 3000.00000, 126.993, -31.3939, 126.027, -150.494, 128.346, 89.5409, 0, 0, 2.33324, -54.4678, 2.35113, -173.568, 2.30864, 66.467, 0.0741605, 37.8522
1, 3060.00000, 126.993, -31.3939, 126.027, -150.494, 128.346, 89.5409, 0, 0, 2.33324, -54.4678, 2.35113, -173.568, 2.30864, 66.467, 0.0741605, 37.8522
1, 3120.00000, 126.993, -31.3939, 126.027, -150.494, 128.346, 89.5409, 0, 0, 2.33324, -54.4678, 2.35113, -173.568, 2.30864, 66.467, 0.0741605, 37.8522
1, 3180.00000, 126.993, -31.3939, 126.027, -150.494, 128.346, 89.5409, 0, 0, 2.33324, -54.4678, 2.35113, -173.568, 2.30864, 66.467, 0.0741605, 37.8522
1, 3240.00000, 126.993, -31.3939, 126.027, -150.494, 128.346, 89.5409, 0, 0, 2.33324, -54.4678, 2.35113, -173.568, 2.30864, 66.467, 0.0741605, 37.8522
1, 3300.00000, 126.993, -31.3939, 126.027, -150.494, 128.346, 89.5409, 0, 0, 2.33324, -54.4678, 2.35113, -173.568, 2.30864, 66.467, 0.0741605, 37.8522
1, 3360.00000, 126.993, -31.3939, 126.027, -150.494, 128.346, 89.5409, 0, 0, 2.33324, -54.4678, 2.35113, -173.568, 2.30864, 66.467, 0.0741605, 37.8522
1, 3420.00000, 126.993, -31.3939, 126.027, -150.494, 128.346, 89.5409, 0, 0, 2.33324, -54.4678, 2.35113, -173.568, 2.30864, 66.467, 0.0741605, 37.8522
1, 3480.00000, 126.993, -31.3939, 126.027, -150.494, 128.346, 89.5409, 0, 0, 2.33324, -54.4678, 2.35113, -173.568, 2.30864, 66.467, 0.0741605, 37.8522
1, 3540.00000, 126.993, -31.3939, 126.027, -150.494, 128.346, 89.5409, 0, 0, 2.33324, -54.4678, 2.35113, -173.568, 2.30864, 66.467, 0.0741605, 37.8522
2, 0.00000, 126.993, -31.3939, 126.027, -150.494, 128.346, 89.5409, 0, 0, 2.33324, -54.4678, 2.35113, -173.568, 2.30864, 66.467, 0.0741605, 37.8522
2, 60.00000, 126.993, -31.3939, 126.027, -150.494, 128.346, 89.5409, 0, 0, 2.33324, -54.4678, 2.35113, -173.568, 2.30864, 66.467, 0.0741605, 37.8522
2, 120.00000, 126.986, -31.3949, 126.021, -150.495, 128.34, 89.5399, 0, 0, 2.33981, -54.4688, 2.35774, -173.569, 2.31513, 66.466, 0.0743719, 37.8577
2, 180.00000, 126.98, -31.3959, 126.015, -150.496, 128.335, 89.539, 0, 0, 2.34646, -54.4698, 2.36443, -173.57, 2.3217, 66.4651, 0.0745859, 37.8633
2, 240.00000, 126.974, -31.3969, 126.009, -150.497, 128.329, 89.538, 0, 0, 2.35303, -54.4708, 2.37104, -173.571, 2.32819, 66.4641, 0.0747974, 37.8688
2, 300.00000, 126.968, -31.3979, 126.004, -150.498, 128.323, 89.5371, 0, 0, 2.3596, -54.4718, 2.37766, -173.572, 2.33468, 66.4632, 0.0750089, 37.8744
2, 360.00000, 126.961, -31.3989, 125.998, -150.499, 128.317, 89.5361, 0, 0, 2.36626, -54.4728, 2.38435, -173.573, 2.34125, 66.4622, 0.075223, 37.88
2, 420.00000, 126.955, -31.3999, 125.992, -150.5, 128.312, 89.5352, 0, 0, 2.37283, -54.4739, 2.39096, -173.574, 2.34774, 66.4613, 0.0754346, 37.8855
2, 480.00000, 126.949, -31.4009, 125.986, -150.501, 128.306, 89.5342, 0, 0, 2.37941, -54.4749, 2.39758, -173.575, 2.35424, 66.4603, 0.0756462, 37.8911
2, 540.00000, 126.942, -31.402, 125.981, -150.502, 128.3, 89.5333, 0, 0, 2.38606, -54.4759, 2.40428, -173.576, 2.36081, 66.4593, 0.0758605, 37.8967
2, 600.00000, 126.936, -31.403, 125.975, -150.503, 128.294, 89.5323, 0, 0, 2.39264, -54.4769, 2.41089, -173.577, 2.36731, 66.4584, 0.0760722, 37.9022
2, 660.00000, 126.93, -31.404, 125.969, -150.504, 128.289, 89.5313, 0, 0, 2.39921, -54.4779, 2.41751, -173.578, 2.3738, 66.4574, 0.0762839, 37.9078
2, 720.00000, 126.923, -31.405, 125.963, -150.505, 128.283, 89.5304, 0, 0, 2.40587, -54.4789, 2.42421, -173.579, 2.38038, 66.4565, 0.0764982, 37.9134
