hour,t(sec),V1,VAngle1,V2,VAngle2,V3,VAngle3,V4,VAngle4,I1,IAngle1,I2,IAngle2,I3,IAngle3,I4,IAngle4
0, 60.00000, 126.012, -31.8645, 126.651, -150.483, 128.799, 88.6181, 0, 0, 2.47991, -54.9378, 2.46741, -173.557, 2.4263, 65.5447, 0.100759, 76.9473
0, 120.00000, 126.018, -31.8792, 126.65, -150.482, 128.831, 88.6128, 0, 0, 2.47978, -54.9526, 2.46742, -173.556, 2.4257, 65.5392, 0.101804, 76.7105
0, 180.00000, 126.024, -31.8925, 126.65, -150.482, 128.859, 88.6079, 0, 0, 2.47966, -54.9659, 2.46743, -173.556, 2.42516, 65.5343, 0.102746, 76.5018
0, 240.00000, 126.03, -31.9045, 126.65, -150.482, 128.885, 88.6035, 0, 0, 2.47956, -54.9779, 2.46744, -173.555, 2.42467, 65.5299, 0.103596, 76.3176
0, 300.00000, 126.035, -31.9153, 126.649, -150.481, 128.908, 88.5995, 0, 0, 2.47947, -54.9888, 2.46745, -173.555, 2.42424, 65.5259, 0.104362, 76.1547
0, 360.00000, 126.039, -31.925, 126.649, -150.481, 128.929, 88.5959, 0, 0, 2.47938, -54.9985, 2.46745, -173.555, 2.42384, 65.5223, 0.105053, 76.0104
0, 420.00000, 126.043, -31.9337, 126.649, -150.481, 128.947, 88.5927, 0, 0, 2.47931, -55.0073, 2.46746, -173.555, 2.42349, 65.5191, 0.105675, 75.8823
0, 480.00000, 126.046, -31.9416, 126.648, -150.48, 128.964, 88.5898, 0, 0, 2.47924, -55.0152, 2.46746, -173.554, 2.42317, 65.5161, 0.106236, 75.7684
0, 540.00000, 126.049, -31.9487, 126.648, -150.48, 128.979, 88.5872, 0, 0, 2.47918, -55.0223, 2.46747, -173.554, 2.42289, 65.5135, 0.106741, 75.6671
0, 600.00000, 126.052, -31.955, 126.648, -150.48, 128.993, 88.5848, 0, 0, 2.47912, -55.0287, 2.46747, -173.554, 2.42263, 65.5111, 0.107196, 75.5769
0, 660.00000, 126.055, -31.9608, 126.648, -150.48, 129.005, 88.5827, 0, 0, 2.47908, -55.0345, 2.46747, -173.554, 2.4224, 65.5089, 0.107606, 75.4964
0, 720.00000, 126.057, -31.966, 126.648, -150.48, 129.016, 88.5807, 0, 0, 2.47903, -55.0397, 2.46748, -173.554, 2.42219, 65.507, 0.107975, 75.4245
0, 780.00000, 126.059, -31.9706, 126.647, -150.48, 129.026, 88.579, 0, 0, 2.47899, -55.0443, 2.46748, -173.553, 2.422, 65.5052, 0.108308, 75.3603
0, 840.00000, 126.061, -31.9748, 126.647, -150.479, 129.035, 88.5774, 0, 0, 2.47896, -55.0485, 2.46748, -173.553, 2.42183, 65.5037, 0.108607, 75.3029
0, 900.00000, 126.062, -31.9786, 126.647, -150.479, 129.043, 88.576, 0, 0, 2.47892, -55.0523, 2.46749, -173.553, 2.42168, 65.5022, 0.108877, 75.2516
0, 960.00000, 125.372, -31.952, 126.674, -150.477, 128.588, 88.3534, 0, 0, 2.49258, -55.0258, 2.46697, -173.551, 2.43025, 65.2796, 0.112153, 86.7892
0, 1020.00000, 125.373, -31.955, 126.674, -150.477, 128.594, 88.3523, 0, 0, 2.49256, -55.0288, 2.46697, -173.551, 2.43013, 65.2785, 0.112348, 86.7271
0, 1080.00000, 125.374, -31.9577, 126.674, -150.477, 128.6, 88.3513, 0, 0, 2.49253, -55.0315, 2.46697, -173.551, 2.43002, 65.2775, 0.112524, 86.6712
0, 1140.00000, 125.375, -31.9601, 126.674, -150.477, 128.605, 88.3505, 0, 0, 2.49251, -55.034, 2.46697, -173.551, 2.42992, 65.2766, 0.112682, 86.6211
0, 1200.00000, 125.376, -31.9623, 126.673, -150.477, 128.61, 88.3497, 0, 0, 2.49249, -55.0362, 2.46697, -173.551, 2.42983, 65.2758, 0.112825, 86.5762
0, 1260.00000, 125.377, -31.9643, 126.673, -150.477, 128.614, 88.349, 0, 0, 2.49247, -55.0382, 2.46697, -173.551, 2.42975, 65.2751, 0.112953, 86.5358
0, 1320.00000, 125.378, -31.9661, 126.673, -150.477, 128.618, 88.3483, 0, 0, 2.49246, -55.0399, 2.46697, -173.551, 2.42968, 65.2744, 0.113068, 86.4995
0, 1380.00000, 125.379, -31.9677, 126.673, -150.477, 128.621, 88.3477, 0, 0, 2.49244, -55.0415, 2.46698, -173.551, 2.42962, 65.2738, 0.113172, 86.467
0, 1440.00000, 125.379, -31.9691, 126.673, -150.477, 128.624, 88.3472, 0, 0, 2.49243, -55.043, 2.46698, -173.551, 2.42956, 65.2733, 0.113266, 86.4378
0, 1500.00000, 125.38, -31.9704, 126.673, -150.477, 128.627, 88.3467, 0, 0, 2.49242, -55.0443, 2.46698, -173.551, 2.4295, 65.2728, 0.11335, 86.4115
0, 1560.00000, 125.381, -31.9716, 126.673, -150.477, 128.63, 88.3463, 0, 0, 2.49241, -55.0454, 2.46698, -173.551, 2.42946, 65.2724, 0.113426, 86.3879
0, 1620.00000, 125.381, -31.9726, 126.673, -150.477, 128.632, 88.3459, 0, 0, 2.4924, -55.0465, 2.46698, -173.551, 2.42941, 65.272, 0.113495, 86.3667
0, 1680.00000, 125.381, -31.9736, 126.673, -150.477, 128.634, 88.3456, 0, 0, 2.49239, -55.0474, 2.46698, -173.551, 2.42938, 65.2717, 0.113556, 86.3476
0, 1740.00000, 125.382, -31.9744, 126.673, -150.477, 128.636, 88.3453, 0, 0, 2.49239, -55.0483, 2.46698, -173.551, 2.42934, 65.2714, 0.113612, 86.3305
0, 1800.00000, 125.382, -31.9752, 126.673, -150.477, 128.637, 88.345, 0, 0, 2.49238, -55.0491, 2.46698, -173.551, 2.42931, 65.2711, 0.113661, 86.315
0, 1860.00000, 125.382, -31.9759, 126.673, -150.477, 128.639, 88.3447, 0, 0, 2.49237, -55.0498, 2.46698, -173.551, 2.42928, 65.2708, 0.113706, 86.3012
0, 1920.00000, 125.383, -31.9765, 126.673, -150.477, 128.64, 88.3445, 0, 0, 2.49237, -55.0504, 2.46698, -173.551, 2.42926, 65.2706, 0.113747, 86.2887
0, 1980.00000, 125.383, -31.977, 126.673, -150.477, 128.641, 88.3443, 0, 0, 2.49236, -55.0509, 2.46698, -173.551, 2.42924, 65.2704, 0.113783, 86.2775
0, 2040.00000, 125.383, -31.9775, 126.673, -150.477, 128.642, 88.3441, 0, 0, 2.49236, -55.0514, 2.46698, -173.551, 2.42921, 65.2702, 0.113816, 86.2674
0, 2100.00000, 125.383, -31.978, 126.673, -150.477, 128.643, 88.344, 0, 0, 2.49236, -55.0519, 2.46698, -173.551, 2.4292, 65.2701, 0.113845, 86.2584
0, 2160.00000, 125.384, -31.9784, 126.673, -150.477, 128.644, 88.3438, 0, 0, 2.49235, -55.0523, 2.46698, -173.551, 2.42918, 65.2699, 0.113872, 86.2502
0, 2220.00000, 125.384, -31.9788, 126.673, -150.477, 128.645, 88.3437, 0, 0, 2.49235, -55.0527, 2.46698, -173.551, 2.42917, 65.2698, 0.113896, 86.2429
0, 2280.00000, 125.384, -31.9791, 126.673, -150.477, 128.646, 88.3436, 0, 0, 2.49235, -55.053, 2.46698, -173.551, 2.42915, 65.2697, 0.113917, 86.2363
0, 2340.00000, 125.384, -31.9794, 126.673, -150.477, 128.646, 88.3435, 0, 0, 2.49234, -55.0533, 2.46698, -173.551, 2.42914, 65.2695, 0.113937, 86.2303
0, 2400.00000, 125.384, -31.9797, 126.673, -150.477, 128.647, 88.3434, 0, 0, 2.49234, -55.0536, 2.46698, -173.551, 2.42913, 65.2694, 0.113954, 86.225
0, 2460.00000, 125.384, -31.9799, 126.673, -150.477, 128.647, 88.3433, 0, 0, 2.49234, -55.0538, 2.46698, -173.551, 2.42912, 65.2694, 0.11397, 86.2202
0, 2520.00000, 125.384, -31.9801, 126.673, -150.477, 128.648, 88.3432, 0, 0, 2.49234, -55.054, 2.46698, -173.551, 2.42911, 65.2693, 0.113984, 86.2158
0, 2580.00000, 125.384, -31.9803, 126.673, -150.477, 128.648, 88.3431, 0, 0, 2.49234, -55.0542, 2.46698, -173.551, 2.4291, 65.2692, 0.113996, 86.212
0, 2640.00000, 125.384, -31.9805, 126.673, -150.477, 128.649, 88.3431, 0, 0, 2.49233, -55.0544, 2.46698, -173.551, 2.4291, 65.2691, 0.114008, 86.2085
0, 2700.00000, 125.385, -31.9806, 126.673, -150.477, 128.649, 88.343, 0, 0, 2.49233, -55.0546, 2.46698, -173.551, 2.42909, 65.2691, 0.114018, 86.2053
0, 2760.00000, 125.385, -31.9808, 126.673, -150.477, 128.649, 88.343, 0, 0, 2.49233, -55.0547, 2.46698, -173.551, 2.42908, 65.269, 0.114027, 86.2025
0, 2820.00000, 125.385, -31.9809, 126.673, -150.477, 128.65, 88.3429, 0, 0, 2.49233, -55.0548, 2.46698, -173.551, 2.42908, 65.269, 0.114036, 86.1999
0, 2880.00000, 125.385, -31.981, 126.673, -150.477, 128.65, 88.3429, 0, 0, 2.49233, -55.0549, 2.46698, -173.551, 2.42907, 65.269, 0.114043, 86.1976
0, 2940.00000, 125.385, -31.9811, 126.673, -150.477, 128.65, 88.3428, 0, 0, 2.49233, -55.055, 2.46698, -173.551, 2.42907, 65.2689, 0.11405, 86.1955
0, 3000.00000, 125.385, -31.9812, 126.673, -150.477, 128.65, 88.3428, 0, 0, 2.49233, -55.0551, 2.46698, -173.551, 2.42907, 65.2689, 0.114056, 86.1937
0, 3060.00000, 125.385, -31.9813, 126.673, -150.477, 128.65, 88.3428, 0, 0, 2.49233, -55.0552, 2.46698, -173.551, 2.42906, 65.2688, 0.114062, 86.192
0, 3120.00000, 125.385, -31.9814, 126.673, -150.477, 128.651, 88.3427, 0, 0, 2.49233, -55.0553, 2.46698, -173.551, 2.42906, 65.2688, 0.114066, 86.1905
0, 3180.00000, 125.385, -31.9814, 126.673, -150.477, 128.651, 88.3427, 0, 0, 2.49233, -55.0554, 2.46698, -173.551, 2.42906, 65.2688, 0.114071, 86.1892
0, 3240.00000, 125.385, -31.9815, 126.673, -150.477, 128.651, 88.3427, 0, 0, 2.49232, -55.0554, 2.46698, -173.551, 2.42905, 65.2688, 0.114075, 86.1879
0, 3300.00000, 125.385, -31.9816, 126.673, -150.477, 128.651, 88.3427, 0, 0, 2.49232, -55.0555, 2.46698, -173.551, 2.42905, 65.2688, 0.114078, 86.1868
0, 3360.00000, 125.385, -31.9816, 126.673, -150.477, 128.651, 88.3427, 0, 0, 2.49232, -55.0555, 2.46698, -173.551, 2.42905, 65.2687, 0.114082, 86.1859
0, 3420.00000, 125.385, -31.9817, 126.673, -150.477, 128.651, 88.3426, 0, 0, 2.49232, -55.0556, 2.46698, -173.551, 2.42905, 65.2687, 0.114085, 86.185
0, 3480.00000, 125.385, -31.9817, 126.673, -150.477, 128.651, 88.3426, 0, 0, 2.49232, -55.0556, 2.46698, -173.551, 2.42905, 65.2687, 0.114087, 86.1842
0, 3540.00000, 125.385, -31.9817, 126.673, -150.477, 128.651, 88.3426, 0, 0, 2.49232, -55.0556, 2.46698, -173.551, 2.42904, 65.2687, 0.11409, 86.1834
1, 0.00000, 125.385, -31.9818, 126.673, -150.477, 128.651, 88.3426, 0, 0, 2.49232, -55.0557, 2.46698, -173.551, 2.42904, 65.2687, 0.114092, 86.1828
1, 60.00000, 125.385, -31.9818, 126.673, -150.477, 128.652, 88.3426, 0, 0, 2.49232, -55.0557, 2.46698, -173.55, 2.42904, 65.2687, 0.114094, 86.1822
1, 120.00000, 125.385, -31.9818, 126.673, -150.477, 128.652, 88.3426, 0, 0, 2.49232, -55.0557, 2.46698, -173.55, 2.42904, 65.2687, 0.114095, 86.1817
1, 180.00000, 125.385, -31.9818, 126.673, -150.477, 128.652, 88.3426, 0, 0, 2.49232, -55.0558, 2.46698, -173.55, 2.42904, 65.2686, 0.114097, 86.1812
1, 240.00000, 125.385, -31.9819, 126.673, -150.477, 128.652, 88.3426, 0, 0, 2.49232, -55.0558, 2.46698, -173.55, 2.42904, 65.2686, 0.114098, 86.1808
1, 300.00000, 125.385, -31.9819, 126.673, -150.477, 128.652, 88.3426, 0, 0, 2.49232, -55.0558, 2.46698, -173.55, 2.42904, 65.2686, 0.114099, 86.1804
1, 360.00000, 125.385, -31.9819, 126.673, -150.477, 128.652, 88.3425, 0, 0, 2.49232, -55.0558, 2.46698, -173.55, 2.42904, 65.2686, 0.114101, 86.1801
1, 420.00000, 125.385, -31.9819, 126.673, -150.477, 128.652, 88.3425, 0, 0, 2.49232, -55.0558, 2.46698, -173.55, 2.42904, 65.2686, 0.114102, 86.1798
1, 480.00000, 125.385, -31.9819, 126.673, -150.477, 128.652, 88.3425, 0, 0, 2.49232, -55.0558, 2.46698, -173.55, 2.42904, 65.2686, 0.114103, 86.1795
1, 540.00000, 125.385, -31.9819, 126.673, -150.477, 128.652, 88.3425, 0, 0, 2.49232, -55.0559, 2.46698, -173.55, 2.42904, 65.2686, 0.114103, 86.1792
1, 600.00000, 125.385, -31.982, 126.673, -150.477, 128.652, 88.3425, 0, 0, 2.49232, -55.0559, 2.46698, -173.55, 2.42904, 65.2686, 0.114104, 86.179
1, 660.00000, 125.385, -31.982, 126.673, -150.477, 128.652, 88.3425, 0, 0, 2.49232, -55.0559, 2.46698, -173.55, 2.42904, 65.2686, 0.114105, 86.1788
1, 720.00000, 125.385, -31.982, 126.673, -150.477, 128.652, 88.3425, 0, 0, 2.49232, -55.0559, 2.46698, -173.55, 2.42904, 65.2686, 0.114105, 86.1786
1, 780.00000, 125.385, -31.982, 126.673, -150.477, 128.652, 88.3425, 0, 0, 2.49232, -55.0559, 2.46698, -173.55, 2.42903, 65.2686, 0.114106, 86.1785
1, 840.00000, 125.385, -31.982, 126.673, -150.477, 128.652, 88.3425, 0, 0, 2.49232, -55.0559, 2.46698, -173.55, 2.42903, 65.2686, 0.114106, 86.1783
1, 900.00000, 125.385, -31.982, 126.673, -150.477, 128.652, 88.3425, 0, 0, 2.49232, -55.0559, 2.46698, -173.55, 2.42903, 65.2686, 0.114107, 86.1782
1, 960.00000, 125.385, -31.982, 126.673, -150.477, 128.652, 88.3425, 0, 0, 2.49232, -55.0559, 2.46698, -173.55, 2.42903, 65.2686, 0.114107, 86.178
1, 1020.00000, 125.385, -31.982, 126.673, -150.477, 128.652, 88.3425, 0, 0, 2.49232, -55.0559, 2.46698, -173.55, 2.42903, 65.2686, 0.114108, 86.1779
1, 1080.00000, 125.385, -31.982, 126.673, -150.477, 128.652, 88.3425, 0, 0, 2.49232, -55.0559, 2.46698, -173.55, 2.42903, 65.2686, 0.114108, 86.1778
1, 1140.00000, 125.385, -31.982, 126.673, -150.477, 128.652, 88.3425, 0, 0, 2.49232, -55.0559, 2.46698, -173.55, 2.42903, 65.2686, 0.114108, 86.1778
1, 1200.00000, 125.385, -31.982, 126.673, -150.477, 128.652, 88.3425, 0, 0, 2.49232, -55.0559, 2.46698, -173.55, 2.42903, 65.2686, 0.114108, 86.1777
1, 1260.00000, 125.385, -31.982, 126.673, -150.477, 128.652, 88.3425, 0, 0, 2.49232, -55.0559, 2.46698, -173.55, 2.42903, 65.2686, 0.114109, 86.1776
1, 1320.00000, 125.385, -31.982, 126.673, -150.477, 128.652, 88.3425, 0, 0, 2.49232, -55.0559, 2.46698, -173.55, 2.42903, 65.2686, 0.114109, 86.1775
1, 1380.00000, 125.385, -31.982, 126.673, -150.477, 128.652, 88.3425, 0, 0, 2.49232, -55.0559, 2.46698, -173.55, 2.42903, 65.2686, 0.114109, 86.1775
1, 1440.00000, 125.385, -31.982, 126.673, -150.477, 128.652, 88.3425, 0, 0, 2.49232, -55.056, 2.46698, -173.55, 2.42903, 65.2686, 0.114109, 86.1774
1, 1500.00000, 125.385, -31.982, 126.673, -150.477, 128.652, 88.3425, 0, 0, 2.49232, -55.056, 2.46698, -173.55, 2.42903, 65.2686, 0.114109, 86.1774
1, 1560.00000, 125.385, -31.982, 126.673, -150.477, 128.652, 88.3425, 0, 0, 2.49232, -55.056, 2.46698, -173.55, 2.42903, 65.2686, 0.114109, 86.1773
1, 1620.00000, 125.385, -31.982, 126.673, -150.477, 128.652, 88.3425, 0, 0, 2.49232, -55.056, 2.46698, -173.55, 2.42903, 65.2686, 0.11411, 86.1773
1, 1680.00000, 125.385, -31.982, 126.673, -150.477, 128.652, 88.3425, 0, 0, 2.49232, -55.056, 2.46698, -173.55, 2.42903, 65.2686, 0.11411, 86.1773
1, 1740.00000, 125.385, -31.982, 126.673, -150.477, 128.652, 88.3425, 0, 0, 2.49232, -55.056, 2.46698, -173.55, 2.42903, 65.2686, 0.11411, 86.1772
1, 1800.00000, 125.385, -31.982, 126.673, -150.477, 128.652, 88.3425, 0, 0, 2.49232, -55.056, 2.46698, -173.55, 2.42903, 65.2686, 0.11411, 86.1772
1, 1860.00000, 125.385, -31.982, 126.673, -150.477, 128.652, 88.3425, 0, 0, 2.49232, -55.056, 2.46698, -173.55, 2.42903, 65.2686, 0.11411, 86.1772
1, 1920.00000, 125.385, -31.982, 126.673, -150.477, 128.652, 88.3425, 0, 0, 2.49232, -55.056, 2.46698, -173.55, 2.42903, 65.2686, 0.11411, 86.1772
1, 1980.00000, 125.385, -31.982, 126.673, -150.477, 128.652, 88.3425, 0, 0, 2.49232, -55.056, 2.46698, -173.55, 2.42903, 65.2686, 0.11411, 86.1771
1, 2040.00000, 126.082, -32.0123, 126.646, -150.478, 129.119, 88.5645, 0, 0, 2.47854, -55.0862, 2.46751, -173.552, 2.42024, 65.4906, 0.111302, 74.7338
1, 2100.00000, 126.082, -32.0123, 126.646, -150.478, 129.119, 88.5645, 0, 0, 2.47854, -55.0862, 2.46751, -173.552, 2.42024, 65.4906, 0.111302, 74.7337
1, 2160.00000, 126.082, -32.0123, 126.646, -150.478, 129.119, 88.5645, 0, 0, 2.47854, -55.0862, 2.46751, -173.552, 2.42024, 65.4906, 0.111302, 74.7337
1, 2220.00000, 126.082, -32.0123, 126.646, -150.478, 129.119, 88.5645, 0, 0, 2.47854, -55.0862, 2.46751, -173.552, 2.42024, 65.4906, 0.111302, 74.7337
1, 2280.00000, 126.082, -32.0123, 126.646, -150.478, 129.12, 88.5645, 0, 0, 2.47854, -55.0862, 2.46751, -173.552, 2.42024, 65.4906, 0.111302, 74.7337
1, 2340.00000, 126.082, -32.0123, 126.646, -150.478, 129.12, 88.5645, 0, 0, 2.47854, -55.0862, 2.46751, -173.552, 2.42024, 65.4906, 0.111302, 74.7337
1, 2400.00000, 126.082, -32.0123, 126.646, -150.478, 129.12, 88.5645, 0, 0, 2.47854, -55.0862, 2.46751, -173.552, 2.42024, 65.4906, 0.111302, 74.7337
1, 2460.00000, 126.082, -32.0123, 126.646, -150.478, 129.12, 88.5645, 0, 0, 2.47854, -55.0862, 2.46751, -173.552, 2.42024, 65.4906, 0.111302, 74.7337
1, 2520.00000, 126.757, -32.0395, 126.619, -150.48, 129.567, 88.7776, 0, 0, 2.46535, -55.1134, 2.46803, -173.554, 2.41187, 65.7037, 0.112811, 63.702
1, 2580.00000, 126.757, -32.0395, 126.619, -150.48, 129.567, 88.7776, 0, 0, 2.46535, -55.1135, 2.46803, -173.554, 2.41187, 65.7037, 0.112811, 63.702
1, 2640.00000, 126.757, -32.0395, 126.619, -150.48, 129.567, 88.7776, 0, 0, 2.46535, -55.1135, 2.46803, -173.554, 2.41187, 65.7037, 0.112811, 63.702
1, 2700.00000, 126.757, -32.0395, 126.619, -150.48, 129.568, 88.7776, 0, 0, 2.46535, -55.1135, 2.46803, -173.554, 2.41187, 65.7037, 0.112811, 63.702
1, 2760.00000, 127.41, -32.0653, 126.594, -150.481, 129.999, 88.984, 0, 0, 2.45272, -55.1392, 2.46853, -173.555, 2.40386, 65.91, 0.11801, 53.7334
1, 2820.00000, 127.41, -32.0653, 126.594, -150.481, 129.999, 88.984, 0, 0, 2.45272, -55.1392, 2.46853, -173.555, 2.40386, 65.91, 0.11801, 53.7335
1, 2880.00000, 127.41, -32.0653, 126.594, -150.481, 129.999, 88.984, 0, 0, 2.45272, -55.1392, 2.46853, -173.555, 2.40386, 65.91, 0.11801, 53.7335
1, 2940.00000, 127.41, -32.0653, 126.594, -150.481, 129.999, 88.984, 0, 0, 2.45272, -55.1392, 2.46853, -173.555, 2.40386, 65.91, 0.11801, 53.7335
1, 3000.00000, 127.41, -32.0653, 126.594, -150.481, 129.999, 88.984, 0, 0, 2.45272, -55.1392, 2.46853, -173.555, 2.40386, 65.91, 0.11801, 53.7335
1, 3060.00000, 127.41, -32.0653, 126.594, -150.481, 129.999, 88.984, 0, 0, 2.45272, -55.1392, 2.46853, -173.555, 2.40386, 65.91, 0.11801, 53.7335
1, 3120.00000, 127.41, -32.0653, 126.594, -150.481, 129.999, 88.984, 0, 0, 2.45272, -55.1392, 2.46853, -173.555, 2.40386, 65.91, 0.11801, 53.7335
1, 3180.00000, 127.41, -32.0653, 126.594, -150.481, 129.999, 88.984, 0, 0, 2.45272, -55.1392, 2.46853, -173.555, 2.40386, 65.91, 0.11801, 53.7335
1, 3240.00000, 127.41, -32.0653, 126.594, -150.481, 129.999, 88.984, 0, 0, 2.45272, -55.1392, 2.46853, -173.555, 2.40386, 65.91, 0.11801, 53.7335
1, 3300.00000, 127.41, -32.0653, 126.594, -150.481, 129.999, 88.984, 0, 0, 2.45272, -55.1392, 2.46853, -173.555, 2.40386, 65.91, 0.11801, 53.7335
1, 3360.00000, 127.41, -32.0653, 126.594, -150.481, 129.999, 88.984, 0, 0, 2.45272, -55.1392, 2.46853, -173.555, 2.40386, 65.91, 0.11801, 53.7335
1, 3420.00000, 127.41, -32.0653, 126.594, -150.481, 129.999, 88.984, 0, 0, 2.45272, -55.1392, 2.46853, -173.555, 2.40386, 65.91, 0.11801, 53.7335
1, 3480.00000, 127.41, -32.0653, 126.594, -150.481, 129.999, 88.984, 0, 0, 2.45272, -55.1392, 2.46853, -173.555, 2.40386, 65.91, 0.11801, 53.7335
1, 3540.00000, 127.41, -32.0653, 126.594, -150.481, 129.999, 88.984, 0, 0, 2.45272, -55.1392, 2.46853, -173.555, 2.40386, 65.91, 0.11801, 53.7335
2, 0.00000, 127.41, -32.0653, 126.594, -150.481, 129.999, 88.984, 0, 0, 2.45272, -55.1392, 2.46853, -173.555, 2.40386, 65.91, 0.11801, 53.7335
2, 60.00000, 127.41, -32.0653, 126.594, -150.481, 129.999, 88.984, 0, 0, 2.45272, -55.1392, 2.46853, -173.555, 2.40386, 65.91, 0.11801, 53.7335
2, 120.00000, 127.405, -32.0663, 126.589, -150.482, 129.995, 88.983, 0, 0, 2.4596, -55.1402, 2.47544, -173.556, 2.41059, 65.9091, 0.118341, 53.7343
2, 180.00000, 127.4, -32.0673, 126.585, -150.483, 129.99, 88.982, 0, 0, 2.46656, -55.1412, 2.48244, -173.557, 2.41741, 65.9081, 0.118675, 53.7352
2, 240.00000, 127.395, -32.0682, 126.58, -150.485, 129.986, 88.9811, 0, 0, 2.47344, -55.1422, 2.48936, -173.558, 2.42415, 65.9072, 0.119005, 53.736
2, 300.00000, 127.39, -32.0692, 126.576, -150.486, 129.981, 88.9801, 0, 0, 2.48033, -55.1431, 2.49628, -173.56, 2.43088, 65.9062, 0.119336, 53.7369
2, 360.00000, 127.385, -32.0702, 126.571, -150.487, 129.977, 88.9791, 0, 0, 2.48729, -55.1441, 2.50328, -173.561, 2.4377, 65.9052, 0.11967, 53.7377
2, 420.00000, 127.38, -32.0711, 126.567, -150.488, 129.972, 88.9782, 0, 0, 2.49417, -55.1451, 2.5102, -173.562, 2.44444, 65.9043, 0.120001, 53.7386
2, 480.00000, 127.375, -32.0721, 126.562, -150.489, 129.967, 88.9772, 0, 0, 2.50106, -55.146, 2.51712, -173.563, 2.45117, 65.9033, 0.120331, 53.7394
2, 540.00000, 127.37, -32.0731, 126.558, -150.49, 129.963, 88.9763, 0, 0, 2.50803, -55.147, 2.52413, -173.564, 2.45799, 65.9023, 0.120665, 53.7403
2, 600.00000, 127.365, -32.074, 126.553, -150.491, 129.958, 88.9753, 0, 0, 2.51491, -55.148, 2.53105, -173.565, 2.46473, 65.9014, 0.120996, 53.7411
2, 660.00000, 127.36, -32.075, 126.549, -150.492, 129.954, 88.9743, 0, 0, 2.5218, -55.1489, 2.53797, -173.566, 2.47147, 65.9004, 0.121327, 53.742
2, 720.00000, 127.356, -32.076, 126.544, -150.493, 129.949, 88.9734, 0, 0, 2.52876, -55.1499, 2.54497, -173.567, 2.47829, 65.8995, 0.121661, 53.7429
2, 780.00000, 127.351, -32.077, 126.54, -150.494, 129.945, 88.9724, 0, 0, 2.53565, -55.1509, 2.5519, -173.568, 2.48503, 65.8985, 0.121992, 53.7437
