hour,t(sec),V1,VAngle1,V2,VAngle2,V3,VAngle3,V4,VAngle4,I1,IAngle1,I2,IAngle2,I3,IAngle3,I4,IAngle4
0, 60.00000, 123.577, -33.139, 124.193, -150.685, 128.04, 87.8844, 0, 0, 3.27722, -56.2119, 3.26106, -173.759, 3.16318, 64.8121, 0.22781, 71.3141
0, 120.00000, 123.58, -33.1701, 124.192, -150.683, 128.098, 87.867, 0, 0, 3.27717, -56.2431, 3.2611, -173.757, 3.16173, 64.7945, 0.23084, 71.2342
0, 180.00000, 123.581, -33.1982, 124.191, -150.682, 128.151, 87.8513, 0, 0, 3.27713, -56.2713, 3.26113, -173.756, 3.16043, 64.7787, 0.233569, 71.1639
0, 240.00000, 123.583, -33.2234, 124.19, -150.681, 128.198, 87.8372, 0, 0, 3.27709, -56.2966, 3.26115, -173.755, 3.15926, 64.7645, 0.236025, 71.1023
0, 300.00000, 123.584, -33.2462, 124.189, -150.68, 128.24, 87.8244, 0, 0, 3.27706, -56.3194, 3.26118, -173.753, 3.15821, 64.7516, 0.238235, 71.0481
0, 360.00000, 123.586, -33.2666, 124.188, -150.678, 128.278, 87.813, 0, 0, 3.27703, -56.3399, 3.2612, -173.752, 3.15726, 64.7401, 0.240225, 71.0003
0, 420.00000, 123.587, -33.2851, 124.187, -150.678, 128.313, 87.8026, 0, 0, 3.277, -56.3584, 3.26122, -173.752, 3.15641, 64.7296, 0.242017, 70.958
0, 480.00000, 123.588, -33.3017, 124.186, -150.677, 128.344, 87.7933, 0, 0, 3.27698, -56.3751, 3.26124, -173.751, 3.15564, 64.7202, 0.243629, 70.9206
0, 540.00000, 123.589, -33.3166, 124.186, -150.676, 128.372, 87.7849, 0, 0, 3.27696, -56.3901, 3.26125, -173.75, 3.15495, 64.7118, 0.245081, 70.8874
0, 600.00000, 123.589, -33.3301, 124.185, -150.675, 128.397, 87.7774, 0, 0, 3.27695, -56.4035, 3.26127, -173.749, 3.15433, 64.7041, 0.246387, 70.8579
0, 660.00000, 123.59, -33.3422, 124.184, -150.675, 128.419, 87.7706, 0, 0, 3.27693, -56.4157, 3.26128, -173.749, 3.15377, 64.6973, 0.247563, 70.8317
0, 720.00000, 123.591, -33.3531, 124.184, -150.674, 128.439, 87.7644, 0, 0, 3.27692, -56.4266, 3.26129, -173.748, 3.15327, 64.6911, 0.248621, 70.8083
0, 780.00000, 123.591, -33.3629, 124.184, -150.674, 128.458, 87.7589, 0, 0, 3.27691, -56.4365, 3.2613, -173.748, 3.15282, 64.6855, 0.249574, 70.7875
0, 840.00000, 123.592, -33.3717, 124.183, -150.673, 128.474, 87.754, 0, 0, 3.2769, -56.4453, 3.26131, -173.747, 3.15241, 64.6805, 0.250431, 70.7689
0, 900.00000, 123.592, -33.3797, 124.183, -150.673, 128.489, 87.7495, 0, 0, 3.27689, -56.4533, 3.26132, -173.747, 3.15205, 64.676, 0.251203, 70.7523
0, 960.00000, 123.451, -33.365, 122.97, -151.131, 127.024, 88.0169, 0, 0, 3.28064, -56.4387, 3.2935, -174.205, 3.1884, 64.9434, 0.210619, 57.6474
0, 1020.00000, 123.451, -33.3714, 122.969, -151.131, 127.036, 88.0133, 0, 0, 3.28063, -56.4451, 3.29351, -174.205, 3.1881, 64.9397, 0.211245, 57.6719
0, 1080.00000, 123.452, -33.3772, 122.969, -151.131, 127.047, 88.01, 0, 0, 3.28062, -56.4509, 3.29351, -174.205, 3.18782, 64.9364, 0.211811, 57.6947
0, 1140.00000, 123.452, -33.3824, 122.969, -151.13, 127.056, 88.007, 0, 0, 3.28061, -56.4561, 3.29352, -174.204, 3.18758, 64.9334, 0.21232, 57.715
0, 1200.00000, 123.452, -33.387, 122.969, -151.13, 127.065, 88.0043, 0, 0, 3.28061, -56.4608, 3.29352, -174.204, 3.18736, 64.9307, 0.212777, 57.7333
0, 1260.00000, 123.453, -33.3913, 122.969, -151.13, 127.073, 88.0019, 0, 0, 3.2806, -56.465, 3.29352, -174.204, 3.18716, 64.9282, 0.21319, 57.7496
0, 1320.00000, 123.453, -33.3951, 122.969, -151.13, 127.08, 87.9997, 0, 0, 3.2806, -56.4688, 3.29353, -174.204, 3.18698, 64.926, 0.213561, 57.7643
0, 1380.00000, 123.453, -33.3985, 122.969, -151.13, 127.087, 87.9978, 0, 0, 3.28059, -56.4723, 3.29353, -174.203, 3.18681, 64.924, 0.213894, 57.7775
0, 1440.00000, 123.453, -33.4015, 122.968, -151.129, 127.092, 87.996, 0, 0, 3.28059, -56.4754, 3.29353, -174.203, 3.18667, 64.9223, 0.214195, 57.7893
0, 1500.00000, 123.453, -33.4043, 122.968, -151.129, 127.098, 87.9944, 0, 0, 3.28058, -56.4781, 3.29353, -174.203, 3.18654, 64.9207, 0.214465, 57.7999
0, 1560.00000, 123.453, -33.4068, 122.968, -151.129, 127.102, 87.993, 0, 0, 3.28058, -56.4806, 3.29353, -174.203, 3.18642, 64.9192, 0.214709, 57.8094
0, 1620.00000, 123.454, -33.409, 122.968, -151.129, 127.106, 87.9917, 0, 0, 3.28058, -56.4829, 3.29354, -174.203, 3.18631, 64.9179, 0.214928, 57.818
0, 1680.00000, 123.454, -33.4111, 122.968, -151.129, 127.11, 87.9906, 0, 0, 3.28058, -56.4849, 3.29354, -174.203, 3.18622, 64.9168, 0.215125, 57.8257
0, 1740.00000, 123.454, -33.4129, 122.968, -151.129, 127.114, 87.9895, 0, 0, 3.28057, -56.4867, 3.29354, -174.203, 3.18613, 64.9157, 0.215302, 57.8326
0, 1800.00000, 123.454, -33.4145, 122.968, -151.129, 127.117, 87.9886, 0, 0, 3.28057, -56.4884, 3.29354, -174.203, 3.18606, 64.9148, 0.215462, 57.8388
0, 1860.00000, 123.454, -33.416, 122.968, -151.129, 127.119, 87.9878, 0, 0, 3.28057, -56.4898, 3.29354, -174.202, 3.18599, 64.9139, 0.215606, 57.8444
0, 1920.00000, 123.454, -33.4173, 122.968, -151.128, 127.122, 87.987, 0, 0, 3.28057, -56.4912, 3.29354, -174.202, 3.18592, 64.9132, 0.215735, 57.8494
0, 1980.00000, 123.454, -33.4185, 122.968, -151.128, 127.124, 87.9863, 0, 0, 3.28057, -56.4924, 3.29354, -174.202, 3.18587, 64.9125, 0.215852, 57.8539
0, 2040.00000, 123.454, -33.4196, 122.968, -151.128, 127.126, 87.9857, 0, 0, 3.28056, -56.4934, 3.29354, -174.202, 3.18582, 64.9118, 0.215957, 57.858
0, 2100.00000, 123.454, -33.4205, 122.968, -151.128, 127.128, 87.9852, 0, 0, 3.28056, -56.4944, 3.29354, -174.202, 3.18577, 64.9113, 0.216051, 57.8616
0, 2160.00000, 123.454, -33.4214, 122.968, -151.128, 127.13, 87.9847, 0, 0, 3.28056, -56.4953, 3.29354, -174.202, 3.18573, 64.9108, 0.216136, 57.8649
0, 2220.00000, 123.454, -33.4222, 122.968, -151.128, 127.131, 87.9842, 0, 0, 3.28056, -56.4961, 3.29355, -174.202, 3.18569, 64.9103, 0.216212, 57.8679
0, 2280.00000, 123.454, -33.4229, 122.968, -151.128, 127.132, 87.9838, 0, 0, 3.28056, -56.4968, 3.29355, -174.202, 3.18566, 64.9099, 0.216281, 57.8705
0, 2340.00000, 123.455, -33.4235, 122.968, -151.128, 127.134, 87.9834, 0, 0, 3.28056, -56.4974, 3.29355, -174.202, 3.18563, 64.9096, 0.216343, 57.8729
0, 2400.00000, 123.455, -33.4241, 122.968, -151.128, 127.135, 87.9831, 0, 0, 3.28056, -56.498, 3.29355, -174.202, 3.1856, 64.9092, 0.216398, 57.875
0, 2460.00000, 123.455, -33.4246, 122.968, -151.128, 127.136, 87.9828, 0, 0, 3.28056, -56.4985, 3.29355, -174.202, 3.18558, 64.9089, 0.216449, 57.877
0, 2520.00000, 123.455, -33.4251, 122.968, -151.128, 127.136, 87.9826, 0, 0, 3.28056, -56.499, 3.29355, -174.202, 3.18556, 64.9087, 0.216494, 57.8787
0, 2580.00000, 123.455, -33.4255, 122.968, -151.128, 127.137, 87.9823, 0, 0, 3.28056, -56.4994, 3.29355, -174.202, 3.18554, 64.9084, 0.216534, 57.8803
0, 2640.00000, 123.455, -33.4258, 122.968, -151.128, 127.138, 87.9821, 0, 0, 3.28056, -56.4997, 3.29355, -174.202, 3.18552, 64.9082, 0.216571, 57.8817
0, 2700.00000, 123.455, -33.4262, 122.968, -151.128, 127.139, 87.9819, 0, 0, 3.28056, -56.5001, 3.29355, -174.202, 3.1855, 64.908, 0.216604, 57.8829
0, 2760.00000, 123.455, -33.4265, 122.968, -151.128, 127.139, 87.9817, 0, 0, 3.28056, -56.5004, 3.29355, -174.202, 3.18549, 64.9078, 0.216633, 57.8841
0, 2820.00000, 123.455, -33.4268, 122.968, -151.128, 127.14, 87.9816, 0, 0, 3.28055, -56.5007, 3.29355, -174.202, 3.18548, 64.9077, 0.21666, 57.8851
0, 2880.00000, 123.455, -33.427, 122.968, -151.128, 127.14, 87.9815, 0, 0, 3.28055, -56.5009, 3.29355, -174.202, 3.18546, 64.9075, 0.216684, 57.886
0, 2940.00000, 123.455, -33.4272, 122.968, -151.128, 127.14, 87.9813, 0, 0, 3.28055, -56.5011, 3.29355, -174.202, 3.18545, 64.9074, 0.216706, 57.8869
0, 3000.00000, 123.455, -33.4274, 122.968, -151.128, 127.141, 87.9812, 0, 0, 3.28055, -56.5013, 3.29355, -174.202, 3.18544, 64.9073, 0.216725, 57.8876
0, 3060.00000, 123.455, -33.4276, 122.968, -151.128, 127.141, 87.9811, 0, 0, 3.28055, -56.5015, 3.29355, -174.202, 3.18544, 64.9072, 0.216742, 57.8883
0, 3120.00000, 123.455, -33.4278, 122.968, -151.128, 127.141, 87.981, 0, 0, 3.28055, -56.5017, 3.29355, -174.202, 3.18543, 64.9071, 0.216758, 57.8889
0, 3180.00000, 123.455, -33.4279, 122.968, -151.128, 127.142, 87.9809, 0, 0, 3.28055, -56.5018, 3.29355, -174.202, 3.18542, 64.907, 0.216772, 57.8894
0, 3240.00000, 123.455, -33.428, 122.968, -151.128, 127.142, 87.9809, 0, 0, 3.28055, -56.5019, 3.29355, -174.202, 3.18542, 64.9069, 0.216785, 57.8899
0, 3300.00000, 123.455, -33.4282, 122.968, -151.128, 127.142, 87.9808, 0, 0, 3.28055, -56.5021, 3.29355, -174.202, 3.18541, 64.9069, 0.216797, 57.8904
0, 3360.00000, 123.455, -33.4283, 122.968, -151.128, 127.142, 87.9807, 0, 0, 3.28055, -56.5022, 3.29355, -174.202, 3.18541, 64.9068, 0.216807, 57.8908
0, 3420.00000, 123.455, -33.4284, 122.968, -151.128, 127.143, 87.9807, 0, 0, 3.28055, -56.5023, 3.29355, -174.202, 3.1854, 64.9068, 0.216816, 57.8911
0, 3480.00000, 123.455, -33.4284, 122.968, -151.128, 127.143, 87.9806, 0, 0, 3.28055, -56.5023, 3.29355, -174.202, 3.1854, 64.9067, 0.216825, 57.8914
0, 3540.00000, 123.455, -33.4285, 122.968, -151.128, 127.143, 87.9806, 0, 0, 3.28055, -56.5024, 3.29355, -174.202, 3.18539, 64.9067, 0.216832, 57.8917
1, 0.00000, 123.455, -33.4286, 122.968, -151.128, 127.143, 87.9805, 0, 0, 3.28055, -56.5025, 3.29355, -174.202, 3.18539, 64.9066, 0.216839, 57.892
1, 60.00000, 123.455, -33.4286, 122.968, -151.128, 127.143, 87.9805, 0, 0, 3.28055, -56.5026, 3.29355, -174.202, 3.18539, 64.9066, 0.216845, 57.8922
1, 120.00000, 123.455, -33.4287, 122.968, -151.128, 127.143, 87.9805, 0, 0, 3.28055, -56.5026, 3.29355, -174.202, 3.18538, 64.9066, 0.21685, 57.8924
1, 180.00000, 123.455, -33.4288, 122.968, -151.128, 127.143, 87.9804, 0, 0, 3.28055, -56.5027, 3.29355, -174.202, 3.18538, 64.9065, 0.216855, 57.8926
1, 240.00000, 123.455, -33.4288, 122.968, -151.128, 127.143, 87.9804, 0, 0, 3.28055, -56.5027, 3.29355, -174.202, 3.18538, 64.9065, 0.21686, 57.8928
1, 300.00000, 123.455, -33.4288, 122.968, -151.128, 127.143, 87.9804, 0, 0, 3.28055, -56.5028, 3.29355, -174.202, 3.18538, 64.9065, 0.216864, 57.8929
1, 360.00000, 123.455, -33.4289, 122.968, -151.128, 127.144, 87.9804, 0, 0, 3.28055, -56.5028, 3.29355, -174.202, 3.18538, 64.9065, 0.216867, 57.8931
1, 420.00000, 123.455, -33.4289, 122.968, -151.128, 127.144, 87.9804, 0, 0, 3.28055, -56.5028, 3.29355, -174.202, 3.18537, 64.9064, 0.216871, 57.8932
1, 480.00000, 123.455, -33.4289, 122.968, -151.128, 127.144, 87.9803, 0, 0, 3.28055, -56.5029, 3.29355, -174.202, 3.18537, 64.9064, 0.216873, 57.8933
1, 540.00000, 123.455, -33.429, 122.968, -151.128, 127.144, 87.9803, 0, 0, 3.28055, -56.5029, 3.29355, -174.202, 3.18537, 64.9064, 0.216876, 57.8934
1, 600.00000, 123.455, -33.429, 122.968, -151.128, 127.144, 87.9803, 0, 0, 3.28055, -56.5029, 3.29355, -174.202, 3.18537, 64.9064, 0.216878, 57.8935
1, 660.00000, 123.455, -33.429, 122.968, -151.128, 127.144, 87.9803, 0, 0, 3.28055, -56.5029, 3.29355, -174.202, 3.18537, 64.9064, 0.216881, 57.8936
1, 720.00000, 123.455, -33.429, 122.968, -151.128, 127.144, 87.9803, 0, 0, 3.28055, -56.5029, 3.29355, -174.202, 3.18537, 64.9064, 0.216883, 57.8937
1, 780.00000, 123.455, -33.429, 122.968, -151.128, 127.144, 87.9803, 0, 0, 3.28055, -56.503, 3.29355, -174.202, 3.18537, 64.9064, 0.216884, 57.8937
1, 840.00000, 123.455, -33.4291, 122.968, -151.128, 127.144, 87.9803, 0, 0, 3.28055, -56.503, 3.29355, -174.202, 3.18537, 64.9063, 0.216886, 57.8938
1, 900.00000, 123.455, -33.4291, 122.968, -151.128, 127.144, 87.9803, 0, 0, 3.28055, -56.503, 3.29355, -174.202, 3.18537, 64.9063, 0.216887, 57.8938
1, 960.00000, 123.455, -33.4291, 122.968, -151.128, 127.144, 87.9803, 0, 0, 3.28055, -56.503, 3.29355, -174.202, 3.18537, 64.9063, 0.216888, 57.8939
1, 1020.00000, 123.455, -33.4291, 122.968, -151.128, 127.144, 87.9802, 0, 0, 3.28055, -56.503, 3.29355, -174.202, 3.18537, 64.9063, 0.21689, 57.8939
1, 1080.00000, 123.455, -33.4291, 122.968, -151.128, 127.144, 87.9802, 0, 0, 3.28055, -56.503, 3.29355, -174.202, 3.18536, 64.9063, 0.216891, 57.894
1, 1140.00000, 123.455, -33.4291, 122.968, -151.128, 127.144, 87.9802, 0, 0, 3.28055, -56.503, 3.29355, -174.202, 3.18536, 64.9063, 0.216892, 57.894
1, 1200.00000, 123.455, -33.4291, 122.968, -151.128, 127.144, 87.9802, 0, 0, 3.28055, -56.503, 3.29355, -174.202, 3.18536, 64.9063, 0.216892, 57.894
1, 1260.00000, 123.455, -33.4291, 122.968, -151.128, 127.144, 87.9802, 0, 0, 3.28055, -56.5031, 3.29355, -174.202, 3.18536, 64.9063, 0.216893, 57.8941
1, 1320.00000, 123.455, -33.4291, 122.968, -151.128, 127.144, 87.9802, 0, 0, 3.28055, -56.5031, 3.29355, -174.202, 3.18536, 64.9063, 0.216894, 57.8941
1, 1380.00000, 123.455, -33.4291, 122.968, -151.128, 127.144, 87.9802, 0, 0, 3.28055, -56.5031, 3.29355, -174.202, 3.18536, 64.9063, 0.216894, 57.8941
1, 1440.00000, 123.455, -33.4292, 122.968, -151.128, 127.144, 87.9802, 0, 0, 3.28055, -56.5031, 3.29355, -174.202, 3.18536, 64.9063, 0.216895, 57.8941
1, 1500.00000, 123.455, -33.4292, 122.968, -151.128, 127.144, 87.9802, 0, 0, 3.28055, -56.5031, 3.29355, -174.202, 3.18536, 64.9063, 0.216895, 57.8942
1, 1560.00000, 123.455, -33.4292, 122.968, -151.128, 127.144, 87.9802, 0, 0, 3.28055, -56.5031, 3.29355, -174.202, 3.18536, 64.9063, 0.216896, 57.8942
1, 1620.00000, 123.455, -33.4292, 122.968, -151.128, 127.144, 87.9802, 0, 0, 3.28055, -56.5031, 3.29355, -174.202, 3.18536, 64.9063, 0.216896, 57.8942
1, 1680.00000, 123.455, -33.4292, 122.968, -151.128, 127.144, 87.9802, 0, 0, 3.28055, -56.5031, 3.29355, -174.202, 3.18536, 64.9063, 0.216897, 57.8942
1, 1740.00000, 123.455, -33.4292, 122.968, -151.128, 127.144, 87.9802, 0, 0, 3.28055, -56.5031, 3.29355, -174.202, 3.18536, 64.9063, 0.216897, 57.8942
1, 1800.00000, 123.455, -33.4292, 122.968, -151.128, 127.144, 87.9802, 0, 0, 3.28055, -56.5031, 3.29355, -174.202, 3.18536, 64.9063, 0.216897, 57.8942
1, 1860.00000, 123.455, -33.4292, 122.968, -151.128, 127.144, 87.9802, 0, 0, 3.28055, -56.5031, 3.29355, -174.202, 3.18536, 64.9063, 0.216897, 57.8942
1, 1920.00000, 123.455, -33.4292, 122.968, -151.128, 127.144, 87.9802, 0, 0, 3.28055, -56.5031, 3.29355, -174.202, 3.18536, 64.9063, 0.216898, 57.8942
1, 1980.00000, 123.455, -33.4292, 122.968, -151.128, 127.144, 87.9802, 0, 0, 3.28055, -56.5031, 3.29355, -174.202, 3.18536, 64.9063, 0.216898, 57.8943
1, 2040.00000, 125.063, -33.6267, 122.863, -151.141, 128.545, 88.3714, 0, 0, 3.23836, -56.7007, 3.29636, -174.215, 3.15065, 65.2975, 0.255735, 43.665
1, 2100.00000, 125.063, -33.6267, 122.863, -151.141, 128.545, 88.3714, 0, 0, 3.23836, -56.7007, 3.29636, -174.215, 3.15065, 65.2975, 0.255735, 43.6651
1, 2160.00000, 125.063, -33.6267, 122.863, -151.141, 128.545, 88.3714, 0, 0, 3.23836, -56.7007, 3.29636, -174.215, 3.15065, 65.2975, 0.255736, 43.6652
1, 2220.00000, 125.063, -33.6267, 122.863, -151.141, 128.545, 88.3714, 0, 0, 3.23836, -56.7007, 3.29636, -174.215, 3.15065, 65.2975, 0.255736, 43.6652
1, 2280.00000, 125.063, -33.6267, 122.863, -151.141, 128.545, 88.3714, 0, 0, 3.23836, -56.7007, 3.29636, -174.215, 3.15065, 65.2975, 0.255736, 43.6652
1, 2340.00000, 125.063, -33.6267, 122.863, -151.141, 128.545, 88.3714, 0, 0, 3.23836, -56.7007, 3.29636, -174.215, 3.15065, 65.2975, 0.255736, 43.6652
1, 2400.00000, 125.063, -33.6267, 122.863, -151.141, 128.545, 88.3714, 0, 0, 3.23836, -56.7007, 3.29636, -174.215, 3.15065, 65.2975, 0.255736, 43.6652
1, 2460.00000, 125.063, -33.6267, 122.863, -151.141, 128.545, 88.3714, 0, 0, 3.23836, -56.7007, 3.29636, -174.215, 3.15065, 65.2975, 0.255736, 43.6652
1, 2520.00000, 125.193, -33.6508, 124.064, -150.68, 130.015, 88.0987, 0, 0, 3.23501, -56.7247, 3.26444, -173.754, 3.11502, 65.0248, 0.282321, 56.7286
1, 2580.00000, 125.193, -33.6508, 124.064, -150.68, 130.015, 88.0987, 0, 0, 3.23501, -56.7247, 3.26443, -173.754, 3.11502, 65.0248, 0.282322, 56.7291
1, 2640.00000, 125.193, -33.6508, 124.064, -150.68, 130.015, 88.0987, 0, 0, 3.23501, -56.7247, 3.26443, -173.754, 3.11502, 65.0248, 0.282322, 56.7292
1, 2700.00000, 125.193, -33.6508, 124.064, -150.68, 130.015, 88.0987, 0, 0, 3.23501, -56.7247, 3.26443, -173.754, 3.11502, 65.0248, 0.282322, 56.7292
1, 2760.00000, 125.279, -33.6717, 124.969, -150.309, 131.183, 87.9139, 0, 0, 3.23279, -56.7456, 3.2408, -173.383, 3.08729, 64.84, 0.312633, 64.6328
1, 2820.00000, 125.279, -33.6717, 124.969, -150.309, 131.183, 87.9139, 0, 0, 3.23279, -56.7457, 3.2408, -173.383, 3.08729, 64.84, 0.312633, 64.6331
1, 2880.00000, 125.279, -33.6717, 124.969, -150.309, 131.183, 87.9139, 0, 0, 3.23279, -56.7457, 3.2408, -173.383, 3.08729, 64.84, 0.312633, 64.6331
1, 2940.00000, 125.279, -33.6717, 124.969, -150.309, 131.183, 87.9139, 0, 0, 3.23279, -56.7457, 3.2408, -173.383, 3.08729, 64.84, 0.312633, 64.6331
1, 3000.00000, 125.279, -33.6717, 124.969, -150.309, 131.183, 87.9139, 0, 0, 3.23279, -56.7457, 3.2408, -173.383, 3.08729, 64.84, 0.312633, 64.6331
1, 3060.00000, 125.279, -33.6717, 124.969, -150.309, 131.183, 87.9139, 0, 0, 3.23279, -56.7457, 3.2408, -173.383, 3.08729, 64.84, 0.312634, 64.6331
1, 3120.00000, 125.279, -33.6717, 124.969, -150.309, 131.183, 87.9139, 0, 0, 3.23279, -56.7457, 3.2408, -173.383, 3.08729, 64.84, 0.312634, 64.6331
1, 3180.00000, 125.279, -33.6717, 124.969, -150.309, 131.183, 87.9139, 0, 0, 3.23279, -56.7457, 3.2408, -173.383, 3.08729, 64.84, 0.312634, 64.6331
1, 3240.00000, 125.279, -33.6717, 124.969, -150.309, 131.183, 87.9139, 0, 0, 3.23279, -56.7457, 3.2408, -173.383, 3.08729, 64.84, 0.312634, 64.6331
1, 3300.00000, 125.279, -33.6717, 124.969, -150.309, 131.183, 87.9139, 0, 0, 3.23279, -56.7457, 3.2408, -173.383, 3.08729, 64.84, 0.312634, 64.6331
1, 3360.00000, 125.279, -33.6717, 124.969, -150.309, 131.183, 87.9139, 0, 0, 3.23279, -56.7457, 3.2408, -173.383, 3.08729, 64.84, 0.312634, 64.6331
1, 3420.00000, 125.279, -33.6717, 124.969, -150.309, 131.183, 87.9139, 0, 0, 3.23279, -56.7457, 3.2408, -173.383, 3.08729, 64.84, 0.312634, 64.6331
1, 3480.00000, 125.279, -33.6717, 124.969, -150.309, 131.183, 87.9139, 0, 0, 3.23279, -56.7457, 3.2408, -173.383, 3.08729, 64.84, 0.312634, 64.6331
1, 3540.00000, 125.279, -33.6717, 124.969, -150.309, 131.183, 87.9139, 0, 0, 3.23279, -56.7457, 3.2408, -173.383, 3.08729, 64.84, 0.312634, 64.6331
2, 0.00000, 125.279, -33.6717, 124.969, -150.309, 131.183, 87.9139, 0, 0, 3.23279, -56.7457, 3.2408, -173.383, 3.08729, 64.84, 0.312634, 64.6331
2, 60.00000, 125.279, -33.6717, 124.969, -150.309, 131.183, 87.9139, 0, 0, 3.23279, -56.7457, 3.2408, -173.383, 3.08729, 64.84, 0.312634, 64.6331
2, 120.00000, 125.27, -33.6726, 124.962, -150.31, 131.176, 87.9131, 0, 0, 3.24195, -56.7465, 3.24996, -173.384, 3.096, 64.8392, 0.313531, 64.635
2, 180.00000, 125.262, -33.6734, 124.954, -150.311, 131.168, 87.9124, 0, 0, 3.25123, -56.7473, 3.25923, -173.385, 3.10482, 64.8385, 0.314438, 64.637
2, 240.00000, 125.253, -33.6743, 124.947, -150.312, 131.161, 87.9117, 0, 0, 3.26039, -56.7482, 3.26838, -173.386, 3.11354, 64.8377, 0.315336, 64.639
2, 300.00000, 125.245, -33.6751, 124.94, -150.313, 131.154, 87.9109, 0, 0, 3.26956, -56.749, 3.27754, -173.387, 3.12226, 64.837, 0.316233, 64.6409
2, 360.00000, 125.236, -33.6759, 124.932, -150.314, 131.146, 87.9102, 0, 0, 3.27884, -56.7499, 3.28681, -173.388, 3.13108, 64.8362, 0.317141, 64.6429
2, 420.00000, 125.228, -33.6768, 124.925, -150.315, 131.139, 87.9094, 0, 0, 3.28801, -56.7507, 3.29598, -173.389, 3.13981, 64.8355, 0.318039, 64.6449
2, 480.00000, 125.219, -33.6776, 124.918, -150.316, 131.131, 87.9087, 0, 0, 3.29718, -56.7515, 3.30514, -173.39, 3.14853, 64.8348, 0.318937, 64.6468
2, 540.00000, 125.211, -33.6785, 124.91, -150.317, 131.124, 87.9079, 0, 0, 3.30647, -56.7524, 3.31441, -173.391, 3.15735, 64.834, 0.319846, 64.6488
2, 600.00000, 125.202, -33.6793, 124.903, -150.318, 131.116, 87.9072, 0, 0, 3.31564, -56.7532, 3.32358, -173.392, 3.16608, 64.8333, 0.320744, 64.6507
2, 660.00000, 125.193, -33.6801, 124.896, -150.319, 131.109, 87.9065, 0, 0, 3.32482, -56.7541, 3.33274, -173.393, 3.1748, 64.8325, 0.321642, 64.6527
2, 720.00000, 125.185, -33.681, 124.888, -150.32, 131.102, 87.9057, 0, 0, 3.33411, -56.7549, 3.34202, -173.394, 3.18363, 64.8318, 0.322552, 64.6547
2, 780.00000, 125.176, -33.6818, 124.881, -150.321, 131.094, 87.905, 0, 0, 3.34328, -56.7557, 3.35119, -173.395, 3.19236, 64.8311, 0.323451, 64.6566
