hour,t(sec),V1,VAngle1,V2,VAngle2,V3,VAngle3,V4,VAngle4,I1,IAngle1,I2,IAngle2,I3,IAngle3,I4,IAngle4
0, 60.00000, 126.858, -30.5978, 126.922, -150.551, 126.966, 89.4537, 0, 0, 2.59187, -53.6713, 2.59057, -173.625, 2.58968, 66.3801, 0.00337153, 63.8769
0, 120.00000, 126.858, -30.5979, 126.922, -150.551, 126.966, 89.4537, 0, 0, 2.5919, -53.6718, 2.5906, -173.625, 2.58971, 66.3798, 0.00337829, 63.916
0, 180.00000, 126.858, -30.5979, 126.922, -150.551, 126.966, 89.4537, 0, 0, 2.5919, -53.6718, 2.5906, -173.625, 2.58971, 66.3798, 0.00337831, 63.9162
0, 240.00000, 126.858, -30.5979, 126.922, -150.551, 126.966, 89.4537, 0, 0, 2.5919, -53.6718, 2.5906, -173.625, 2.58971, 66.3798, 0.00337831, 63.9162
0, 300.00000, 126.858, -30.5979, 126.922, -150.551, 126.966, 89.4537, 0, 0, 2.5919, -53.6718, 2.5906, -173.625, 2.58971, 66.3798, 0.00337831, 63.9162
0, 360.00000, 126.858, -30.5979, 126.922, -150.551, 126.966, 89.4537, 0, 0, 2.5919, -53.6718, 2.5906, -173.625, 2.58971, 66.3798, 0.00337831, 63.9162
0, 420.00000, 126.858, -30.5979, 126.922, -150.551, 126.966, 89.4537, 0, 0, 2.5919, -53.6718, 2.5906, -173.625, 2.58971, 66.3798, 0.00337831, 63.9162
0, 480.00000, 126.858, -30.5979, 126.922, -150.551, 126.966, 89.4537, 0, 0, 2.5919, -53.6718, 2.5906, -173.625, 2.58971, 66.3798, 0.00337831, 63.9162
0, 540.00000, 126.858, -30.5979, 126.922, -150.551, 126.966, 89.4537, 0, 0, 2.5919, -53.6718, 2.5906, -173.625, 2.58971, 66.3798, 0.00337831, 63.9162
0, 600.00000, 126.858, -30.5979, 126.922, -150.551, 126.966, 89.4537, 0, 0, 2.5919, -53.6718, 2.5906, -173.625, 2.58971, 66.3798, 0.00337831, 63.9162
0, 660.00000, 126.858, -30.5979, 126.922, -150.551, 126.966, 89.4537, 0, 0, 2.5919, -53.6718, 2.5906, -173.625, 2.58971, 66.3798, 0.00337831, 63.9162
0, 720.00000, 126.858, -30.5979, 126.922, -150.551, 126.966, 89.4537, 0, 0, 2.5919, -53.6718, 2.5906, -173.625, 2.58971, 66.3798, 0.00337831, 63.9162
0, 780.00000, 126.858, -30.5979, 126.922, -150.551, 126.966, 89.4537, 0, 0, 2.5919, -53.6718, 2.5906, -173.625, 2.58971, 66.3798, 0.00337831, 63.9162
0, 840.00000, 126.858, -30.5979, 126.922, -150.551, 126.966, 89.4537, 0, 0, 2.5919, -53.6718, 2.5906, -173.625, 2.58971, 66.3798, 0.00337831, 63.9162
0, 900.00000, 126.858, -30.5979, 126.922, -150.551, 126.966, 89.4537, 0, 0, 2.5919, -53.6718, 2.5906, -173.625, 2.58971, 66.3798, 0.00337831, 63.9162
0, 960.00000, 126.858, -30.5979, 126.922, -150.551, 126.966, 89.4537, 0, 0, 2.5919, -53.6718, 2.5906, -173.625, 2.58971, 66.3798, 0.00337831, 63.9162
0, 1020.00000, 126.858, -30.5979, 126.922, -150.551, 126.966, 89.4537, 0, 0, 2.5919, -53.6718, 2.5906, -173.625, 2.58971, 66.3798, 0.00337831, 63.9162
0, 1080.00000, 126.858, -30.5979, 126.922, -150.551, 126.966, 89.4537, 0, 0, 2.5919, -53.6718, 2.5906, -173.625, 2.58971, 66.3798, 0.00337831, 63.9162
0, 1140.00000, 126.858, -30.5979, 126.922, -150.551, 126.966, 89.4537, 0, 0, 2.5919, -53.6718, 2.5906, -173.625, 2.58971, 66.3798, 0.00337831, 63.9162
0, 1200.00000, 126.858, -30.5979, 126.922, -150.551, 126.966, 89.4537, 0, 0, 2.5919, -53.6718, 2.5906, -173.625, 2.58971, 66.3798, 0.00337831, 63.9162
0, 1260.00000, 126.858, -30.5979, 126.922, -150.551, 126.966, 89.4537, 0, 0, 2.5919, -53.6718, 2.5906, -173.625, 2.58971, 66.3798, 0.00337831, 63.9162
0, 1320.00000, 126.858, -30.5979, 126.922, -150.551, 126.966, 89.4537, 0, 0, 2.5919, -53.6718, 2.5906, -173.625, 2.58971, 66.3798, 0.00337831, 63.9162
0, 1380.00000, 126.858, -30.5979, 126.922, -150.551, 126.966, 89.4537, 0, 0, 2.5919, -53.6718, 2.5906, -173.625, 2.58971, 66.3798, 0.00337831, 63.9162
0, 1440.00000, 126.858, -30.5979, 126.922, -150.551, 126.966, 89.4537, 0, 0, 2.5919, -53.6718, 2.5906, -173.625, 2.58971, 66.3798, 0.00337831, 63.9162
0, 1500.00000, 126.858, -30.5979, 126.922, -150.551, 126.966, 89.4537, 0, 0, 2.5919, -53.6718, 2.5906, -173.625, 2.58971, 66.3798, 0.00337831, 63.9162
0, 1560.00000, 126.858, -30.5979, 126.922, -150.551, 126.966, 89.4537, 0, 0, 2.5919, -53.6718, 2.5906, -173.625, 2.58971, 66.3798, 0.00337831, 63.9162
0, 1620.00000, 126.858, -30.5979, 126.922, -150.551, 126.966, 89.4537, 0, 0, 2.5919, -53.6718, 2.5906, -173.625, 2.58971, 66.3798, 0.00337831, 63.9162
0, 1680.00000, 126.858, -30.5979, 126.922, -150.551, 126.966, 89.4537, 0, 0, 2.5919, -53.6718, 2.5906, -173.625, 2.58971, 66.3798, 0.00337831, 63.9162
0, 1740.00000, 126.858, -30.5979, 126.922, -150.551, 126.966, 89.4537, 0, 0, 2.5919, -53.6718, 2.5906, -173.625, 2.58971, 66.3798, 0.00337831, 63.9162
0, 1800.00000, 126.453, -30.6433, 126.921, -150.552, 126.836, 89.2805, 0, 0, 2.60016, -53.7167, 2.59061, -173.626, 2.59233, 66.2071, 0.0152923, 130.617
0, 1860.00000, 126.453, -30.6433, 126.921, -150.552, 126.836, 89.2805, 0, 0, 2.60021, -53.7172, 2.59061, -173.625, 2.59236, 66.2066, 0.0153435, 130.647
0, 1920.00000, 126.453, -30.6433, 126.921, -150.552, 126.836, 89.2805, 0, 0, 2.60021, -53.7172, 2.59061, -173.625, 2.59236, 66.2066, 0.0153437, 130.647
0, 1980.00000, 126.453, -30.6433, 126.921, -150.552, 126.836, 89.2805, 0, 0, 2.60021, -53.7172, 2.59061, -173.625, 2.59236, 66.2066, 0.0153437, 130.647
0, 2040.00000, 126.453, -30.6433, 126.921, -150.552, 126.836, 89.2805, 0, 0, 2.60021, -53.7172, 2.59061, -173.625, 2.59236, 66.2066, 0.0153437, 130.647
0, 2100.00000, 126.453, -30.6433, 126.921, -150.552, 126.836, 89.2805, 0, 0, 2.60021, -53.7172, 2.59061, -173.625, 2.59236, 66.2066, 0.0153437, 130.647
0, 2160.00000, 126.453, -30.6433, 126.921, -150.552, 126.836, 89.2805, 0, 0, 2.60021, -53.7172, 2.59061, -173.625, 2.59236, 66.2066, 0.0153437, 130.647
0, 2220.00000, 126.453, -30.6433, 126.921, -150.552, 126.836, 89.2805, 0, 0, 2.60021, -53.7172, 2.59061, -173.625, 2.59236, 66.2066, 0.0153437, 130.647
0, 2280.00000, 126.453, -30.6433, 126.921, -150.552, 126.836, 89.2805, 0, 0, 2.60021, -53.7172, 2.59061, -173.625, 2.59236, 66.2066, 0.0153437, 130.647
0, 2340.00000, 126.453, -30.6433, 126.921, -150.552, 126.836, 89.2805, 0, 0, 2.60021, -53.7172, 2.59061, -173.625, 2.59236, 66.2066, 0.0153437, 130.647
0, 2400.00000, 126.453, -30.6433, 126.921, -150.552, 126.836, 89.2805, 0, 0, 2.60021, -53.7172, 2.59061, -173.625, 2.59236, 66.2066, 0.0153437, 130.647
0, 2460.00000, 126.453, -30.6433, 126.921, -150.552, 126.836, 89.2805, 0, 0, 2.60021, -53.7172, 2.59061, -173.625, 2.59236, 66.2066, 0.0153437, 130.647
0, 2520.00000, 126.453, -30.6433, 126.921, -150.552, 126.836, 89.2805, 0, 0, 2.60021, -53.7172, 2.59061, -173.625, 2.59236, 66.2066, 0.0153437, 130.647
0, 2580.00000, 126.453, -30.6433, 126.921, -150.552, 126.836, 89.2805, 0, 0, 2.60021, -53.7172, 2.59061, -173.625, 2.59236, 66.2066, 0.0153437, 130.647
0, 2640.00000, 126.453, -30.6433, 126.921, -150.552, 126.836, 89.2805, 0, 0, 2.60021, -53.7172, 2.59061, -173.625, 2.59236, 66.2066, 0.0153437, 130.647
0, 2700.00000, 126.453, -30.6433, 126.921, -150.552, 126.836, 89.2805, 0, 0, 2.60021, -53.7172, 2.59061, -173.625, 2.59236, 66.2066, 0.0153437, 130.647
0, 2760.00000, 126.453, -30.6433, 126.921, -150.552, 126.836, 89.2805, 0, 0, 2.60021, -53.7172, 2.59061, -173.625, 2.59236, 66.2066, 0.0153437, 130.647
0, 2820.00000, 126.453, -30.6433, 126.921, -150.552, 126.836, 89.2805, 0, 0, 2.60021, -53.7172, 2.59061, -173.625, 2.59236, 66.2066, 0.0153437, 130.647
0, 2880.00000, 126.453, -30.6433, 126.921, -150.552, 126.836, 89.2805, 0, 0, 2.60021, -53.7172, 2.59061, -173.625, 2.59236, 66.2066, 0.0153437, 130.647
0, 2940.00000, 126.453, -30.6433, 126.921, -150.552, 126.836, 89.2805, 0, 0, 2.60021, -53.7172, 2.59061, -173.625, 2.59236, 66.2066, 0.0153437, 130.647
0, 3000.00000, 126.453, -30.6433, 126.921, -150.552, 126.836, 89.2805, 0, 0, 2.60021, -53.7172, 2.59061, -173.625, 2.59236, 66.2066, 0.0153437, 130.647
0, 3060.00000, 126.453, -30.6433, 126.921, -150.552, 126.836, 89.2805, 0, 0, 2.60021, -53.7172, 2.59061, -173.625, 2.59236, 66.2066, 0.0153437, 130.647
0, 3120.00000, 126.453, -30.6433, 126.921, -150.552, 126.836, 89.2805, 0, 0, 2.60021, -53.7172, 2.59061, -173.625, 2.59236, 66.2066, 0.0153437, 130.647
0, 3180.00000, 126.453, -30.6433, 126.921, -150.552, 126.836, 89.2805, 0, 0, 2.60021, -53.7172, 2.59061, -173.625, 2.59236, 66.2066, 0.0153437, 130.647
0, 3240.00000, 126.453, -30.6433, 126.921, -150.552, 126.836, 89.2805, 0, 0, 2.60021, -53.7172, 2.59061, -173.625, 2.59236, 66.2066, 0.0153437, 130.647
0, 3300.00000, 126.453, -30.6433, 126.921, -150.552, 126.836, 89.2805, 0, 0, 2.60021, -53.7172, 2.59061, -173.625, 2.59236, 66.2066, 0.0153437, 130.647
0, 3360.00000, 126.453, -30.6433, 126.921, -150.552, 126.836, 89.2805, 0, 0, 2.60021, -53.7172, 2.59061, -173.625, 2.59236, 66.2066, 0.0153437, 130.647
0, 3420.00000, 126.453, -30.6433, 126.921, -150.552, 126.836, 89.2805, 0, 0, 2.60021, -53.7172, 2.59061, -173.625, 2.59236, 66.2066, 0.0153437, 130.647
0, 3480.00000, 126.453, -30.6433, 126.921, -150.552, 126.836, 89.2805, 0, 0, 2.60021, -53.7172, 2.59061, -173.625, 2.59236, 66.2066, 0.0153437, 130.647
0, 3540.00000, 126.453, -30.6433, 126.921, -150.552, 126.836, 89.2805, 0, 0, 2.60021, -53.7172, 2.59061, -173.625, 2.59236, 66.2066, 0.0153437, 130.647
1, 0.00000, 126.453, -30.6433, 126.921, -150.552, 126.836, 89.2805, 0, 0, 2.60021, -53.7172, 2.59061, -173.625, 2.59236, 66.2066, 0.0153437, 130.647
1, 60.00000, 126.453, -30.6433, 126.921, -150.552, 126.836, 89.2805, 0, 0, 2.60021, -53.7172, 2.59061, -173.625, 2.59236, 66.2066, 0.0153437, 130.647
1, 120.00000, 126.453, -30.6433, 126.921, -150.552, 126.836, 89.2805, 0, 0, 2.60021, -53.7172, 2.59061, -173.625, 2.59236, 66.2066, 0.0153437, 130.647
1, 180.00000, 126.453, -30.6433, 126.921, -150.552, 126.836, 89.2805, 0, 0, 2.60021, -53.7172, 2.59061, -173.625, 2.59236, 66.2066, 0.0153437, 130.647
1, 240.00000, 126.453, -30.6433, 126.921, -150.552, 126.836, 89.2805, 0, 0, 2.60021, -53.7172, 2.59061, -173.625, 2.59236, 66.2066, 0.0153437, 130.647
1, 300.00000, 126.453, -30.6433, 126.921, -150.552, 126.836, 89.2805, 0, 0, 2.60021, -53.7172, 2.59061, -173.625, 2.59236, 66.2066, 0.0153437, 130.647
1, 360.00000, 126.453, -30.6433, 126.921, -150.552, 126.836, 89.2805, 0, 0, 2.60021, -53.7172, 2.59061, -173.625, 2.59236, 66.2066, 0.0153437, 130.647
1, 420.00000, 126.453, -30.6433, 126.921, -150.552, 126.836, 89.2805, 0, 0, 2.60021, -53.7172, 2.59061, -173.625, 2.59236, 66.2066, 0.0153437, 130.647
1, 480.00000, 126.453, -30.6433, 126.921, -150.552, 126.836, 89.2805, 0, 0, 2.60021, -53.7172, 2.59061, -173.625, 2.59236, 66.2066, 0.0153437, 130.647
1, 540.00000, 126.453, -30.6433, 126.921, -150.552, 126.836, 89.2805, 0, 0, 2.60021, -53.7172, 2.59061, -173.625, 2.59236, 66.2066, 0.0153437, 130.647
1, 600.00000, 126.453, -30.6433, 126.921, -150.552, 126.836, 89.2805, 0, 0, 2.60021, -53.7172, 2.59061, -173.625, 2.59236, 66.2066, 0.0153437, 130.647
1, 660.00000, 126.453, -30.6433, 126.921, -150.552, 126.836, 89.2805, 0, 0, 2.60021, -53.7172, 2.59061, -173.625, 2.59236, 66.2066, 0.0153437, 130.647
1, 720.00000, 126.453, -30.6433, 126.921, -150.552, 126.836, 89.2805, 0, 0, 2.60021, -53.7172, 2.59061, -173.625, 2.59236, 66.2066, 0.0153437, 130.647
1, 780.00000, 126.453, -30.6433, 126.921, -150.552, 126.836, 89.2805, 0, 0, 2.60021, -53.7172, 2.59061, -173.625, 2.59236, 66.2066, 0.0153437, 130.647
1, 840.00000, 126.453, -30.6433, 126.921, -150.552, 126.836, 89.2805, 0, 0, 2.60021, -53.7172, 2.59061, -173.625, 2.59236, 66.2066, 0.0153437, 130.647
1, 900.00000, 126.453, -30.6433, 126.921, -150.552, 126.836, 89.2805, 0, 0, 2.60021, -53.7172, 2.59061, -173.625, 2.59236, 66.2066, 0.0153437, 130.647
1, 960.00000, 126.453, -30.6433, 126.921, -150.552, 126.836, 89.2805, 0, 0, 2.60021, -53.7172, 2.59061, -173.625, 2.59236, 66.2066, 0.0153437, 130.647
1, 1020.00000, 126.453, -30.6433, 126.921, -150.552, 126.836, 89.2805, 0, 0, 2.60021, -53.7172, 2.59061, -173.625, 2.59236, 66.2066, 0.0153437, 130.647
1, 1080.00000, 126.453, -30.6433, 126.921, -150.552, 126.836, 89.2805, 0, 0, 2.60021, -53.7172, 2.59061, -173.625, 2.59236, 66.2066, 0.0153437, 130.647
1, 1140.00000, 126.453, -30.6433, 126.921, -150.552, 126.836, 89.2805, 0, 0, 2.60021, -53.7172, 2.59061, -173.625, 2.59236, 66.2066, 0.0153437, 130.647
1, 1200.00000, 126.453, -30.6433, 126.921, -150.552, 126.836, 89.2805, 0, 0, 2.60021, -53.7172, 2.59061, -173.625, 2.59236, 66.2066, 0.0153437, 130.647
1, 1260.00000, 126.453, -30.6433, 126.921, -150.552, 126.836, 89.2805, 0, 0, 2.60021, -53.7172, 2.59061, -173.625, 2.59236, 66.2066, 0.0153437, 130.647
1, 1320.00000, 126.453, -30.6433, 126.921, -150.552, 126.836, 89.2805, 0, 0, 2.60021, -53.7172, 2.59061, -173.625, 2.59236, 66.2066, 0.0153437, 130.647
1, 1380.00000, 126.453, -30.6433, 126.921, -150.552, 126.836, 89.2805, 0, 0, 2.60021, -53.7172, 2.59061, -173.625, 2.59236, 66.2066, 0.0153437, 130.647
1, 1440.00000, 126.453, -30.6433, 126.921, -150.552, 126.836, 89.2805, 0, 0, 2.60021, -53.7172, 2.59061, -173.625, 2.59236, 66.2066, 0.0153437, 130.647
1, 1500.00000, 126.453, -30.6433, 126.921, -150.552, 126.836, 89.2805, 0, 0, 2.60021, -53.7172, 2.59061, -173.625, 2.59236, 66.2066, 0.0153437, 130.647
1, 1560.00000, 126.453, -30.6433, 126.921, -150.552, 126.836, 89.2805, 0, 0, 2.60021, -53.7172, 2.59061, -173.625, 2.59236, 66.2066, 0.0153437, 130.647
1, 1620.00000, 126.453, -30.6433, 126.921, -150.552, 126.836, 89.2805, 0, 0, 2.60021, -53.7172, 2.59061, -173.625, 2.59236, 66.2066, 0.0153437, 130.647
1, 1680.00000, 126.453, -30.6433, 126.921, -150.552, 126.836, 89.2805, 0, 0, 2.60021, -53.7172, 2.59061, -173.625, 2.59236, 66.2066, 0.0153437, 130.647
1, 1740.00000, 126.453, -30.6433, 126.921, -150.552, 126.836, 89.2805, 0, 0, 2.60021, -53.7172, 2.59061, -173.625, 2.59236, 66.2066, 0.0153437, 130.647
1, 1800.00000, 126.453, -30.6433, 126.921, -150.552, 126.836, 89.2805, 0, 0, 2.60021, -53.7172, 2.59061, -173.625, 2.59236, 66.2066, 0.0153437, 130.647
1, 1860.00000, 126.453, -30.6433, 126.921, -150.552, 126.836, 89.2805, 0, 0, 2.60021, -53.7172, 2.59061, -173.625, 2.59236, 66.2066, 0.0153437, 130.647
1, 1920.00000, 126.453, -30.6433, 126.921, -150.552, 126.836, 89.2805, 0, 0, 2.60021, -53.7172, 2.59061, -173.625, 2.59236, 66.2066, 0.0153437, 130.647
1, 1980.00000, 126.453, -30.6433, 126.921, -150.552, 126.836, 89.2805, 0, 0, 2.60021, -53.7172, 2.59061, -173.625, 2.59236, 66.2066, 0.0153437, 130.647
1, 2040.00000, 126.453, -30.6433, 126.921, -150.552, 126.836, 89.2805, 0, 0, 2.60021, -53.7172, 2.59061, -173.625, 2.59236, 66.2066, 0.0153437, 130.647
1, 2100.00000, 126.453, -30.6433, 126.921, -150.552, 126.836, 89.2805, 0, 0, 2.60021, -53.7172, 2.59061, -173.625, 2.59236, 66.2066, 0.0153437, 130.647
1, 2160.00000, 126.453, -30.6433, 126.921, -150.552, 126.836, 89.2805, 0, 0, 2.60021, -53.7172, 2.59061, -173.625, 2.59236, 66.2066, 0.0153437, 130.647
1, 2220.00000, 126.453, -30.6433, 126.921, -150.552, 126.836, 89.2805, 0, 0, 2.60021, -53.7172, 2.59061, -173.625, 2.59236, 66.2066, 0.0153437, 130.647
1, 2280.00000, 126.453, -30.6433, 126.921, -150.552, 126.836, 89.2805, 0, 0, 2.60021, -53.7172, 2.59061, -173.625, 2.59236, 66.2066, 0.0153437, 130.647
1, 2340.00000, 126.453, -30.6433, 126.921, -150.552, 126.836, 89.2805, 0, 0, 2.60021, -53.7172, 2.59061, -173.625, 2.59236, 66.2066, 0.0153437, 130.647
1, 2400.00000, 126.453, -30.6433, 126.921, -150.552, 126.836, 89.2805, 0, 0, 2.60021, -53.7172, 2.59061, -173.625, 2.59236, 66.2066, 0.0153437, 130.647
1, 2460.00000, 126.453, -30.6433, 126.921, -150.552, 126.836, 89.2805, 0, 0, 2.60021, -53.7172, 2.59061, -173.625, 2.59236, 66.2066, 0.0153437, 130.647
1, 2520.00000, 126.453, -30.6433, 126.921, -150.552, 126.836, 89.2805, 0, 0, 2.60021, -53.7172, 2.59061, -173.625, 2.59236, 66.2066, 0.0153437, 130.647
1, 2580.00000, 126.453, -30.6433, 126.921, -150.552, 126.836, 89.2805, 0, 0, 2.60021, -53.7172, 2.59061, -173.625, 2.59236, 66.2066, 0.0153437, 130.647
1, 2640.00000, 126.453, -30.6433, 126.921, -150.552, 126.836, 89.2805, 0, 0, 2.60021, -53.7172, 2.59061, -173.625, 2.59236, 66.2066, 0.0153437, 130.647
1, 2700.00000, 126.453, -30.6433, 126.921, -150.552, 126.836, 89.2805, 0, 0, 2.60021, -53.7172, 2.59061, -173.625, 2.59236, 66.2066, 0.0153437, 130.647
1, 2760.00000, 126.453, -30.6433, 126.921, -150.552, 126.836, 89.2805, 0, 0, 2.60021, -53.7172, 2.59061, -173.625, 2.59236, 66.2066, 0.0153437, 130.647
1, 2820.00000, 126.453, -30.6433, 126.921, -150.552, 126.836, 89.2805, 0, 0, 2.60021, -53.7172, 2.59061, -173.625, 2.59236, 66.2066, 0.0153437, 130.647
1, 2880.00000, 126.453, -30.6433, 126.921, -150.552, 126.836, 89.2805, 0, 0, 2.60021, -53.7172, 2.59061, -173.625, 2.59236, 66.2066, 0.0153437, 130.647
1, 2940.00000, 126.453, -30.6433, 126.921, -150.552, 126.836, 89.2805, 0, 0, 2.60021, -53.7172, 2.59061, -173.625, 2.59236, 66.2066, 0.0153437, 130.647
1, 3000.00000, 126.453, -30.6433, 126.921, -150.552, 126.836, 89.2805, 0, 0, 2.60021, -53.7172, 2.59061, -173.625, 2.59236, 66.2066, 0.0153437, 130.647
1, 3060.00000, 126.453, -30.6433, 126.921, -150.552, 126.836, 89.2805, 0, 0, 2.60021, -53.7172, 2.59061, -173.625, 2.59236, 66.2066, 0.0153437, 130.647
1, 3120.00000, 126.453, -30.6433, 126.921, -150.552, 126.836, 89.2805, 0, 0, 2.60021, -53.7172, 2.59061, -173.625, 2.59236, 66.2066, 0.0153437, 130.647
1, 3180.00000, 126.453, -30.6433, 126.921, -150.552, 126.836, 89.2805, 0, 0, 2.60021, -53.7172, 2.59061, -173.625, 2.59236, 66.2066, 0.0153437, 130.647
1, 3240.00000, 126.453, -30.6433, 126.921, -150.552, 126.836, 89.2805, 0, 0, 2.60021, -53.7172, 2.59061, -173.625, 2.59236, 66.2066, 0.0153437, 130.647
1, 3300.00000, 126.453, -30.6433, 126.921, -150.552, 126.836, 89.2805, 0, 0, 2.60021, -53.7172, 2.59061, -173.625, 2.59236, 66.2066, 0.0153437, 130.647
1, 3360.00000, 126.453, -30.6433, 126.921, -150.552, 126.836, 89.2805, 0, 0, 2.60021, -53.7172, 2.59061, -173.625, 2.59236, 66.2066, 0.0153437, 130.647
1, 3420.00000, 126.453, -30.6433, 126.921, -150.552, 126.836, 89.2805, 0, 0, 2.60021, -53.7172, 2.59061, -173.625, 2.59236, 66.2066, 0.0153437, 130.647
1, 3480.00000, 126.453, -30.6433, 126.921, -150.552, 126.836, 89.2805, 0, 0, 2.60021, -53.7172, 2.59061, -173.625, 2.59236, 66.2066, 0.0153437, 130.647
1, 3540.00000, 126.453, -30.6433, 126.921, -150.552, 126.836, 89.2805, 0, 0, 2.60021, -53.7172, 2.59061, -173.625, 2.59236, 66.2066, 0.0153437, 130.647
2, 0.00000, 126.453, -30.6433, 126.921, -150.552, 126.836, 89.2805, 0, 0, 2.60021, -53.7172, 2.59061, -173.625, 2.59236, 66.2066, 0.0153437, 130.647
2, 60.00000, 126.453, -30.6433, 126.921, -150.552, 126.836, 89.2805, 0, 0, 2.60021, -53.7172, 2.59061, -173.625, 2.59236, 66.2066, 0.0153437, 130.647
2, 120.00000, 126.449, -30.6444, 126.918, -150.553, 126.832, 89.2794, 0, 0, 2.60748, -53.7183, 2.59786, -173.627, 2.59961, 66.2055, 0.0153908, 130.643
2, 180.00000, 126.445, -30.6456, 126.914, -150.554, 126.828, 89.2782, 0, 0, 2.61485, -53.7195, 2.60519, -173.628, 2.60696, 66.2044, 0.0154399, 130.64
2, 240.00000, 126.441, -30.6468, 126.91, -150.555, 126.824, 89.2771, 0, 0, 2.62213, -53.7207, 2.61244, -173.629, 2.61421, 66.2032, 0.0154885, 130.637
2, 300.00000, 126.436, -30.6479, 126.906, -150.556, 126.82, 89.276, 0, 0, 2.62941, -53.7218, 2.61969, -173.63, 2.62147, 66.2021, 0.0155371, 130.634
2, 360.00000, 126.432, -30.6491, 126.902, -150.557, 126.816, 89.2748, 0, 0, 2.63678, -53.723, 2.62702, -173.631, 2.62881, 66.201, 0.0155863, 130.631
2, 420.00000, 126.428, -30.6503, 126.898, -150.558, 126.812, 89.2737, 0, 0, 2.64406, -53.7242, 2.63427, -173.632, 2.63607, 66.1998, 0.015635, 130.628
2, 480.00000, 126.424, -30.6515, 126.894, -150.559, 126.808, 89.2726, 0, 0, 2.65135, -53.7253, 2.64152, -173.633, 2.64332, 66.1987, 0.0156837, 130.625
2, 540.00000, 126.42, -30.6526, 126.89, -150.561, 126.804, 89.2715, 0, 0, 2.65872, -53.7265, 2.64886, -173.634, 2.65067, 66.1976, 0.015733, 130.622
2, 600.00000, 126.415, -30.6538, 126.886, -150.562, 126.8, 89.2703, 0, 0, 2.666, -53.7277, 2.65611, -173.635, 2.65793, 66.1965, 0.0157818, 130.619
2, 660.00000, 126.411, -30.655, 126.882, -150.563, 126.796, 89.2692, 0, 0, 2.67329, -53.7288, 2.66336, -173.637, 2.66518, 66.1953, 0.0158306, 130.616
