hour,t(sec),V1,VAngle1,V2,VAngle2,V3,VAngle3,V4,VAngle4,I1,IAngle1,I2,IAngle2,I3,IAngle3,I4,IAngle4
0, 60.00000, 127.549, -30.9603, 125.317, -151.757, 124.895, 89.6583, 0, 0, 1.87485, -54.0336, 1.90819, -174.831, 1.91466, 66.5845, 0.0777851, -60.3922
0, 120.00000, 127.582, -30.9655, 125.321, -151.772, 124.895, 89.6585, 0, 0, 1.87436, -54.0389, 1.90812, -174.846, 1.91465, 66.5847, 0.0786812, -60.4127
0, 180.00000, 127.612, -30.9702, 125.325, -151.786, 124.895, 89.6587, 0, 0, 1.87392, -54.0437, 1.90807, -174.859, 1.91465, 66.5849, 0.0794879, -60.4305
0, 240.00000, 127.639, -30.9745, 125.328, -151.798, 124.895, 89.6589, 0, 0, 1.87352, -54.048, 1.90802, -174.871, 1.91464, 66.585, 0.0802141, -60.4458
0, 300.00000, 127.663, -30.9783, 125.331, -151.808, 124.896, 89.659, 0, 0, 1.87316, -54.0518, 1.90797, -174.882, 1.91464, 66.5852, 0.0808678, -60.4591
0, 360.00000, 127.685, -30.9818, 125.334, -151.818, 124.896, 89.6591, 0, 0, 1.87284, -54.0553, 1.90793, -174.892, 1.91464, 66.5853, 0.0814561, -60.4706
0, 420.00000, 127.704, -30.9849, 125.336, -151.827, 124.896, 89.6593, 0, 0, 1.87255, -54.0585, 1.9079, -174.901, 1.91463, 66.5854, 0.0819858, -60.4806
0, 480.00000, 127.722, -30.9877, 125.338, -151.835, 124.896, 89.6594, 0, 0, 1.87229, -54.0613, 1.90787, -174.909, 1.91463, 66.5855, 0.0824625, -60.4894
0, 540.00000, 127.738, -30.9903, 125.34, -151.842, 124.896, 89.6595, 0, 0, 1.87206, -54.0639, 1.90784, -174.916, 1.91463, 66.5856, 0.0828915, -60.4971
0, 600.00000, 127.752, -30.9926, 125.342, -151.848, 124.897, 89.6596, 0, 0, 1.87185, -54.0662, 1.90781, -174.922, 1.91463, 66.5857, 0.0832777, -60.5038
0, 660.00000, 127.765, -30.9946, 125.344, -151.854, 124.897, 89.6596, 0, 0, 1.87166, -54.0683, 1.90779, -174.928, 1.91463, 66.5858, 0.0836253, -60.5098
0, 720.00000, 127.776, -30.9965, 125.345, -151.859, 124.897, 89.6597, 0, 0, 1.87149, -54.0702, 1.90777, -174.933, 1.91462, 66.5858, 0.0839382, -60.515
0, 780.00000, 127.787, -30.9981, 125.346, -151.864, 124.897, 89.6598, 0, 0, 1.87133, -54.0719, 1.90775, -174.938, 1.91462, 66.5859, 0.0842198, -60.5197
0, 840.00000, 127.796, -30.9997, 125.347, -151.868, 124.897, 89.6598, 0, 0, 1.8712, -54.0734, 1.90773, -174.942, 1.91462, 66.5859, 0.0844733, -60.5238
0, 900.00000, 127.805, -31.001, 125.349, -151.872, 124.897, 89.6599, 0, 0, 1.87107, -54.0748, 1.90772, -174.946, 1.91462, 66.586, 0.0847014, -60.5274
0, 960.00000, 127.812, -31.0022, 125.349, -151.876, 124.897, 89.6599, 0, 0, 1.87096, -54.076, 1.90771, -174.949, 1.91462, 66.586, 0.0849067, -60.5307
0, 1020.00000, 127.819, -31.0033, 125.35, -151.879, 124.897, 89.66, 0, 0, 1.87086, -54.0771, 1.90769, -174.952, 1.91462, 66.5861, 0.0850915, -60.5335
0, 1080.00000, 127.825, -31.0043, 125.351, -151.881, 124.897, 89.66, 0, 0, 1.87077, -54.0781, 1.90768, -174.955, 1.91462, 66.5861, 0.0852579, -60.5361
0, 1140.00000, 127.831, -31.0052, 125.352, -151.884, 124.897, 89.66, 0, 0, 1.87069, -54.079, 1.90767, -174.958, 1.91461, 66.5861, 0.0854075, -60.5384
0, 1200.00000, 127.836, -31.006, 125.352, -151.886, 124.897, 89.6601, 0, 0, 1.87061, -54.0799, 1.90766, -174.96, 1.91461, 66.5862, 0.0855423, -60.5404
0, 1260.00000, 127.84, -31.0068, 125.353, -151.888, 124.898, 89.6601, 0, 0, 1.87055, -54.0806, 1.90766, -174.962, 1.91461, 66.5862, 0.0856635, -60.5422
0, 1320.00000, 127.844, -31.0074, 125.353, -151.89, 124.898, 89.6601, 0, 0, 1.87049, -54.0812, 1.90765, -174.964, 1.91461, 66.5862, 0.0857727, -60.5438
0, 1380.00000, 127.848, -31.008, 125.354, -151.892, 124.898, 89.6601, 0, 0, 1.87043, -54.0818, 1.90764, -174.965, 1.91461, 66.5862, 0.0858709, -60.5453
0, 1440.00000, 127.851, -31.0085, 125.354, -151.893, 124.898, 89.6602, 0, 0, 1.87039, -54.0824, 1.90764, -174.967, 1.91461, 66.5863, 0.0859593, -60.5466
0, 1500.00000, 127.854, -31.009, 125.354, -151.894, 124.898, 89.6602, 0, 0, 1.87034, -54.0829, 1.90763, -174.968, 1.91461, 66.5863, 0.0860389, -60.5477
0, 1560.00000, 127.857, -31.0094, 125.355, -151.896, 124.898, 89.6602, 0, 0, 1.8703, -54.0833, 1.90763, -174.969, 1.91461, 66.5863, 0.0861105, -60.5488
0, 1620.00000, 127.859, -31.0098, 125.355, -151.897, 124.898, 89.6602, 0, 0, 1.87027, -54.0837, 1.90762, -174.971, 1.91461, 66.5863, 0.0861749, -60.5497
0, 1680.00000, 127.861, -31.0102, 125.355, -151.898, 124.898, 89.6602, 0, 0, 1.87024, -54.084, 1.90762, -174.971, 1.91461, 66.5863, 0.0862329, -60.5506
0, 1740.00000, 127.863, -31.0105, 125.356, -151.898, 124.898, 89.6602, 0, 0, 1.87021, -54.0843, 1.90762, -174.972, 1.91461, 66.5863, 0.0862852, -60.5513
0, 1800.00000, 126.313, -31.513, 123.607, -151.549, 124.99, 89.6382, 0, 0, 1.89317, -54.5869, 1.93461, -174.622, 1.9132, 66.5643, 0.0749264, -24.5609
0, 1860.00000, 126.314, -31.5132, 123.607, -151.549, 124.99, 89.6382, 0, 0, 1.89314, -54.5871, 1.93461, -174.623, 1.9132, 66.5643, 0.07496, -24.5809
0, 1920.00000, 126.315, -31.5134, 123.607, -151.55, 124.99, 89.6382, 0, 0, 1.89312, -54.5873, 1.9346, -174.624, 1.9132, 66.5643, 0.0749906, -24.5994
0, 1980.00000, 126.317, -31.5136, 123.607, -151.551, 124.99, 89.6382, 0, 0, 1.8931, -54.5875, 1.9346, -174.624, 1.9132, 66.5643, 0.0750181, -24.616
0, 2040.00000, 126.318, -31.5138, 123.607, -151.551, 124.99, 89.6382, 0, 0, 1.89309, -54.5877, 1.9346, -174.625, 1.9132, 66.5643, 0.0750428, -24.6309
0, 2100.00000, 126.319, -31.514, 123.607, -151.551, 124.99, 89.6382, 0, 0, 1.89307, -54.5879, 1.9346, -174.625, 1.9132, 66.5643, 0.0750651, -24.6444
0, 2160.00000, 126.32, -31.5141, 123.608, -151.552, 124.99, 89.6382, 0, 0, 1.89306, -54.588, 1.93459, -174.626, 1.9132, 66.5643, 0.0750852, -24.6565
0, 2220.00000, 126.321, -31.5142, 123.608, -151.552, 124.99, 89.6382, 0, 0, 1.89304, -54.5881, 1.93459, -174.626, 1.9132, 66.5643, 0.0751032, -24.6673
0, 2280.00000, 126.321, -31.5143, 123.608, -151.553, 124.99, 89.6382, 0, 0, 1.89303, -54.5882, 1.93459, -174.627, 1.9132, 66.5643, 0.0751195, -24.6771
0, 2340.00000, 126.322, -31.5144, 123.608, -151.553, 124.99, 89.6382, 0, 0, 1.89302, -54.5884, 1.93459, -174.627, 1.9132, 66.5643, 0.0751341, -24.6859
0, 2400.00000, 126.323, -31.5145, 123.608, -151.553, 124.99, 89.6382, 0, 0, 1.89301, -54.5884, 1.93459, -174.627, 1.9132, 66.5643, 0.0751473, -24.6938
0, 2460.00000, 126.323, -31.5146, 123.608, -151.553, 124.99, 89.6382, 0, 0, 1.89301, -54.5885, 1.93459, -174.627, 1.9132, 66.5643, 0.0751591, -24.701
0, 2520.00000, 126.324, -31.5147, 123.608, -151.554, 124.99, 89.6382, 0, 0, 1.893, -54.5886, 1.93459, -174.628, 1.9132, 66.5643, 0.0751698, -24.7074
0, 2580.00000, 126.324, -31.5148, 123.608, -151.554, 124.99, 89.6383, 0, 0, 1.89299, -54.5887, 1.93459, -174.628, 1.9132, 66.5643, 0.0751794, -24.7131
0, 2640.00000, 126.325, -31.5148, 123.608, -151.554, 124.99, 89.6383, 0, 0, 1.89299, -54.5887, 1.93458, -174.628, 1.9132, 66.5643, 0.0751881, -24.7183
0, 2700.00000, 126.325, -31.5149, 123.608, -151.554, 124.99, 89.6383, 0, 0, 1.89298, -54.5888, 1.93458, -174.628, 1.9132, 66.5643, 0.0751958, -24.723
0, 2760.00000, 126.325, -31.5149, 123.608, -151.554, 124.99, 89.6383, 0, 0, 1.89298, -54.5888, 1.93458, -174.628, 1.9132, 66.5643, 0.0752028, -24.7272
0, 2820.00000, 126.325, -31.515, 123.608, -151.554, 124.99, 89.6383, 0, 0, 1.89297, -54.5889, 1.93458, -174.628, 1.9132, 66.5643, 0.0752091, -24.731
0, 2880.00000, 126.326, -31.515, 123.608, -151.555, 124.99, 89.6383, 0, 0, 1.89297, -54.5889, 1.93458, -174.628, 1.9132, 66.5643, 0.0752148, -24.7344
0, 2940.00000, 126.326, -31.515, 123.608, -151.555, 124.99, 89.6383, 0, 0, 1.89296, -54.589, 1.93458, -174.629, 1.9132, 66.5643, 0.0752199, -24.7374
0, 3000.00000, 126.326, -31.5151, 123.608, -151.555, 124.99, 89.6383, 0, 0, 1.89296, -54.589, 1.93458, -174.629, 1.9132, 66.5643, 0.0752245, -24.7402
0, 3060.00000, 126.326, -31.5151, 123.608, -151.555, 124.99, 89.6383, 0, 0, 1.89296, -54.589, 1.93458, -174.629, 1.9132, 66.5643, 0.0752286, -24.7427
0, 3120.00000, 126.327, -31.5151, 123.608, -151.555, 124.99, 89.6383, 0, 0, 1.89295, -54.589, 1.93458, -174.629, 1.9132, 66.5643, 0.0752324, -24.7449
0, 3180.00000, 126.327, -31.5152, 123.608, -151.555, 124.99, 89.6383, 0, 0, 1.89295, -54.5891, 1.93458, -174.629, 1.9132, 66.5643, 0.0752357, -24.7469
0, 3240.00000, 126.327, -31.5152, 123.608, -151.555, 124.99, 89.6383, 0, 0, 1.89295, -54.5891, 1.93458, -174.629, 1.9132, 66.5643, 0.0752387, -24.7487
0, 3300.00000, 126.327, -31.5152, 123.608, -151.555, 124.99, 89.6383, 0, 0, 1.89295, -54.5891, 1.93458, -174.629, 1.9132, 66.5643, 0.0752414, -24.7503
0, 3360.00000, 126.327, -31.5152, 123.608, -151.555, 124.99, 89.6383, 0, 0, 1.89295, -54.5891, 1.93458, -174.629, 1.9132, 66.5644, 0.0752439, -24.7518
0, 3420.00000, 126.327, -31.5152, 123.608, -151.555, 124.99, 89.6383, 0, 0, 1.89295, -54.5891, 1.93458, -174.629, 1.9132, 66.5644, 0.0752461, -24.7531
0, 3480.00000, 126.327, -31.5152, 123.608, -151.555, 124.99, 89.6383, 0, 0, 1.89294, -54.5892, 1.93458, -174.629, 1.9132, 66.5644, 0.0752481, -24.7543
0, 3540.00000, 126.327, -31.5153, 123.608, -151.555, 124.99, 89.6383, 0, 0, 1.89294, -54.5892, 1.93458, -174.629, 1.9132, 66.5644, 0.0752499, -24.7554
1, 0.00000, 126.327, -31.5153, 123.608, -151.555, 124.99, 89.6383, 0, 0, 1.89294, -54.5892, 1.93458, -174.629, 1.9132, 66.5644, 0.0752515, -24.7563
1, 60.00000, 126.327, -31.5153, 123.609, -151.555, 124.99, 89.6383, 0, 0, 1.89294, -54.5892, 1.93458, -174.629, 1.9132, 66.5644, 0.0752529, -24.7572
1, 120.00000, 126.328, -31.5153, 123.609, -151.555, 124.99, 89.6383, 0, 0, 1.89294, -54.5892, 1.93458, -174.629, 1.9132, 66.5644, 0.0752542, -24.758
1, 180.00000, 126.328, -31.5153, 123.609, -151.555, 124.99, 89.6383, 0, 0, 1.89294, -54.5892, 1.93458, -174.629, 1.9132, 66.5644, 0.0752554, -24.7587
1, 240.00000, 126.328, -31.5153, 123.609, -151.555, 124.99, 89.6383, 0, 0, 1.89294, -54.5892, 1.93458, -174.629, 1.9132, 66.5644, 0.0752564, -24.7593
1, 300.00000, 126.328, -31.5153, 123.609, -151.555, 124.99, 89.6383, 0, 0, 1.89294, -54.5892, 1.93458, -174.629, 1.9132, 66.5644, 0.0752574, -24.7598
1, 360.00000, 126.328, -31.5153, 123.609, -151.555, 124.99, 89.6383, 0, 0, 1.89294, -54.5892, 1.93458, -174.629, 1.9132, 66.5644, 0.0752582, -24.7604
1, 420.00000, 126.328, -31.5153, 123.609, -151.555, 124.99, 89.6383, 0, 0, 1.89294, -54.5892, 1.93458, -174.629, 1.9132, 66.5644, 0.075259, -24.7608
1, 480.00000, 126.328, -31.5153, 123.609, -151.556, 124.99, 89.6383, 0, 0, 1.89294, -54.5892, 1.93458, -174.629, 1.9132, 66.5644, 0.0752597, -24.7612
1, 540.00000, 126.328, -31.5153, 123.609, -151.556, 124.99, 89.6383, 0, 0, 1.89294, -54.5892, 1.93458, -174.629, 1.9132, 66.5644, 0.0752603, -24.7616
1, 600.00000, 126.328, -31.5153, 123.609, -151.556, 124.99, 89.6383, 0, 0, 1.89294, -54.5892, 1.93458, -174.629, 1.9132, 66.5644, 0.0752608, -24.7619
1, 660.00000, 126.328, -31.5153, 123.609, -151.556, 124.99, 89.6383, 0, 0, 1.89293, -54.5893, 1.93458, -174.629, 1.9132, 66.5644, 0.0752613, -24.7622
1, 720.00000, 126.328, -31.5153, 123.609, -151.556, 124.99, 89.6383, 0, 0, 1.89293, -54.5893, 1.93458, -174.629, 1.9132, 66.5644, 0.0752618, -24.7625
1, 780.00000, 126.328, -31.5153, 123.609, -151.556, 124.99, 89.6383, 0, 0, 1.89293, -54.5893, 1.93458, -174.629, 1.9132, 66.5644, 0.0752622, -24.7628
1, 840.00000, 126.328, -31.5153, 123.609, -151.556, 124.99, 89.6383, 0, 0, 1.89293, -54.5893, 1.93458, -174.629, 1.9132, 66.5644, 0.0752626, -24.763
1, 900.00000, 126.328, -31.5153, 123.609, -151.556, 124.99, 89.6383, 0, 0, 1.89293, -54.5893, 1.93458, -174.63, 1.9132, 66.5644, 0.0752629, -24.7632
1, 960.00000, 126.328, -31.5153, 123.609, -151.556, 124.99, 89.6383, 0, 0, 1.89293, -54.5893, 1.93458, -174.63, 1.9132, 66.5644, 0.0752632, -24.7633
1, 1020.00000, 126.328, -31.5153, 123.609, -151.556, 124.99, 89.6383, 0, 0, 1.89293, -54.5893, 1.93458, -174.63, 1.9132, 66.5644, 0.0752635, -24.7635
1, 1080.00000, 126.328, -31.5154, 123.609, -151.556, 124.99, 89.6383, 0, 0, 1.89293, -54.5893, 1.93458, -174.63, 1.9132, 66.5644, 0.0752637, -24.7636
1, 1140.00000, 126.328, -31.5154, 123.609, -151.556, 124.99, 89.6383, 0, 0, 1.89293, -54.5893, 1.93458, -174.63, 1.9132, 66.5644, 0.0752639, -24.7638
1, 1200.00000, 126.328, -31.5154, 123.609, -151.556, 124.99, 89.6383, 0, 0, 1.89293, -54.5893, 1.93458, -174.63, 1.9132, 66.5644, 0.0752641, -24.7639
1, 1260.00000, 126.328, -31.5154, 123.609, -151.556, 124.99, 89.6383, 0, 0, 1.89293, -54.5893, 1.93458, -174.63, 1.9132, 66.5644, 0.0752643, -24.764
1, 1320.00000, 126.328, -31.5154, 123.609, -151.556, 124.99, 89.6383, 0, 0, 1.89293, -54.5893, 1.93458, -174.63, 1.9132, 66.5644, 0.0752645, -24.7641
1, 1380.00000, 126.328, -31.5154, 123.609, -151.556, 124.99, 89.6383, 0, 0, 1.89293, -54.5893, 1.93458, -174.63, 1.9132, 66.5644, 0.0752646, -24.7642
1, 1440.00000, 126.328, -31.5154, 123.609, -151.556, 124.99, 89.6383, 0, 0, 1.89293, -54.5893, 1.93458, -174.63, 1.9132, 66.5644, 0.0752647, -24.7643
1, 1500.00000, 126.328, -31.5154, 123.609, -151.556, 124.99, 89.6383, 0, 0, 1.89293, -54.5893, 1.93458, -174.63, 1.9132, 66.5644, 0.0752648, -24.7643
1, 1560.00000, 126.328, -31.5154, 123.609, -151.556, 124.99, 89.6383, 0, 0, 1.89293, -54.5893, 1.93458, -174.63, 1.9132, 66.5644, 0.0752649, -24.7644
1, 1620.00000, 126.328, -31.5154, 123.609, -151.556, 124.99, 89.6383, 0, 0, 1.89293, -54.5893, 1.93458, -174.63, 1.9132, 66.5644, 0.075265, -24.7644
1, 1680.00000, 126.328, -31.5154, 123.609, -151.556, 124.99, 89.6383, 0, 0, 1.89293, -54.5893, 1.93458, -174.63, 1.9132, 66.5644, 0.0752651, -24.7645
1, 1740.00000, 126.328, -31.5154, 123.609, -151.556, 124.99, 89.6383, 0, 0, 1.89293, -54.5893, 1.93458, -174.63, 1.9132, 66.5644, 0.0752652, -24.7645
1, 1800.00000, 126.328, -31.5154, 123.609, -151.556, 124.99, 89.6383, 0, 0, 1.89293, -54.5893, 1.93458, -174.63, 1.9132, 66.5644, 0.0752653, -24.7646
1, 1860.00000, 126.328, -31.5154, 123.609, -151.556, 124.99, 89.6383, 0, 0, 1.89293, -54.5893, 1.93458, -174.63, 1.9132, 66.5644, 0.0752653, -24.7646
1, 1920.00000, 126.328, -31.5154, 123.609, -151.556, 124.99, 89.6383, 0, 0, 1.89293, -54.5893, 1.93458, -174.63, 1.9132, 66.5644, 0.0752654, -24.7646
1, 1980.00000, 126.328, -31.5154, 123.609, -151.556, 124.99, 89.6383, 0, 0, 1.89293, -54.5893, 1.93458, -174.63, 1.9132, 66.5644, 0.0752654, -24.7647
1, 2040.00000, 126.328, -31.5154, 123.609, -151.556, 124.99, 89.6383, 0, 0, 1.89293, -54.5893, 1.93458, -174.63, 1.9132, 66.5644, 0.0752655, -24.7647
1, 2100.00000, 126.328, -31.5154, 123.609, -151.556, 124.99, 89.6383, 0, 0, 1.89293, -54.5893, 1.93458, -174.63, 1.9132, 66.5644, 0.0752655, -24.7647
1, 2160.00000, 126.328, -31.5154, 123.609, -151.556, 124.99, 89.6383, 0, 0, 1.89293, -54.5893, 1.93458, -174.63, 1.9132, 66.5644, 0.0752655, -24.7647
1, 2220.00000, 126.328, -31.5154, 123.609, -151.556, 124.99, 89.6383, 0, 0, 1.89293, -54.5893, 1.93458, -174.63, 1.9132, 66.5644, 0.0752656, -24.7648
1, 2280.00000, 126.328, -31.5154, 123.609, -151.556, 124.99, 89.6383, 0, 0, 1.89293, -54.5893, 1.93458, -174.63, 1.9132, 66.5644, 0.0752656, -24.7648
1, 2340.00000, 126.328, -31.5154, 123.609, -151.556, 124.99, 89.6383, 0, 0, 1.89293, -54.5893, 1.93458, -174.63, 1.9132, 66.5644, 0.0752656, -24.7648
1, 2400.00000, 126.328, -31.5154, 123.609, -151.556, 124.99, 89.6383, 0, 0, 1.89293, -54.5893, 1.93458, -174.63, 1.9132, 66.5644, 0.0752657, -24.7648
1, 2460.00000, 126.328, -31.5154, 123.609, -151.556, 124.99, 89.6383, 0, 0, 1.89293, -54.5893, 1.93458, -174.63, 1.9132, 66.5644, 0.0752657, -24.7648
1, 2520.00000, 126.328, -31.5154, 123.609, -151.556, 124.99, 89.6383, 0, 0, 1.89293, -54.5893, 1.93458, -174.63, 1.9132, 66.5644, 0.0752657, -24.7648
1, 2580.00000, 126.328, -31.5154, 123.609, -151.556, 124.99, 89.6383, 0, 0, 1.89293, -54.5893, 1.93458, -174.63, 1.9132, 66.5644, 0.0752657, -24.7649
1, 2640.00000, 126.328, -31.5154, 123.609, -151.556, 124.99, 89.6383, 0, 0, 1.89293, -54.5893, 1.93458, -174.63, 1.9132, 66.5644, 0.0752657, -24.7649
1, 2700.00000, 126.328, -31.5154, 123.609, -151.556, 124.99, 89.6383, 0, 0, 1.89293, -54.5893, 1.93458, -174.63, 1.9132, 66.5644, 0.0752658, -24.7649
1, 2760.00000, 126.328, -31.5154, 123.609, -151.556, 124.99, 89.6383, 0, 0, 1.89293, -54.5893, 1.93458, -174.63, 1.9132, 66.5644, 0.0752658, -24.7649
1, 2820.00000, 126.328, -31.5154, 123.609, -151.556, 124.99, 89.6383, 0, 0, 1.89293, -54.5893, 1.93458, -174.63, 1.9132, 66.5644, 0.0752658, -24.7649
1, 2880.00000, 126.328, -31.5154, 123.609, -151.556, 124.99, 89.6383, 0, 0, 1.89293, -54.5893, 1.93458, -174.63, 1.9132, 66.5644, 0.0752658, -24.7649
1, 2940.00000, 126.328, -31.5154, 123.609, -151.556, 124.99, 89.6383, 0, 0, 1.89293, -54.5893, 1.93458, -174.63, 1.9132, 66.5644, 0.0752658, -24.7649
1, 3000.00000, 126.328, -31.5154, 123.609, -151.556, 124.99, 89.6383, 0, 0, 1.89293, -54.5893, 1.93458, -174.63, 1.9132, 66.5644, 0.0752658, -24.7649
1, 3060.00000, 126.328, -31.5154, 123.609, -151.556, 124.99, 89.6383, 0, 0, 1.89293, -54.5893, 1.93458, -174.63, 1.9132, 66.5644, 0.0752658, -24.7649
1, 3120.00000, 126.328, -31.5154, 123.609, -151.556, 124.99, 89.6383, 0, 0, 1.89293, -54.5893, 1.93458, -174.63, 1.9132, 66.5644, 0.0752658, -24.7649
1, 3180.00000, 126.328, -31.5154, 123.609, -151.556, 124.99, 89.6383, 0, 0, 1.89293, -54.5893, 1.93458, -174.63, 1.9132, 66.5644, 0.0752658, -24.7649
1, 3240.00000, 126.328, -31.5154, 123.609, -151.556, 124.99, 89.6383, 0, 0, 1.89293, -54.5893, 1.93458, -174.63, 1.9132, 66.5644, 0.0752658, -24.7649
1, 3300.00000, 126.328, -31.5154, 123.609, -151.556, 124.99, 89.6383, 0, 0, 1.89293, -54.5893, 1.93458, -174.63, 1.9132, 66.5644, 0.0752658, -24.7649
1, 3360.00000, 126.328, -31.5154, 123.609, -151.556, 124.99, 89.6383, 0, 0, 1.89293, -54.5893, 1.93458, -174.63, 1.9132, 66.5644, 0.0752658, -24.7649
1, 3420.00000, 126.328, -31.5154, 123.609, -151.556, 124.99, 89.6383, 0, 0, 1.89293, -54.5893, 1.93458, -174.63, 1.9132, 66.5644, 0.0752658, -24.7649
1, 3480.00000, 126.328, -31.5154, 123.609, -151.556, 124.99, 89.6383, 0, 0, 1.89293, -54.5893, 1.93458, -174.63, 1.9132, 66.5644, 0.0752658, -24.7649
1, 3540.00000, 126.328, -31.5154, 123.609, -151.556, 124.99, 89.6383, 0, 0, 1.89293, -54.5893, 1.93458, -174.63, 1.9132, 66.5644, 0.0752658, -24.7649
2, 0.00000, 126.328, -31.5154, 123.609, -151.556, 124.99, 89.6383, 0, 0, 1.89293, -54.5893, 1.93458, -174.63, 1.9132, 66.5644, 0.0752658, -24.7649
2, 60.00000, 126.328, -31.5154, 123.609, -151.556, 124.99, 89.6383, 0, 0, 1.89293, -54.5893, 1.93458, -174.63, 1.9132, 66.5644, 0.0752659, -24.7649
2, 120.00000, 126.319, -31.5163, 123.6, -151.556, 124.982, 89.6374, 0, 0, 1.8983, -54.5903, 1.94006, -174.63, 1.91861, 66.5635, 0.0754719, -24.7559
2, 180.00000, 126.31, -31.5173, 123.592, -151.557, 124.974, 89.6365, 0, 0, 1.90373, -54.5913, 1.9456, -174.631, 1.92409, 66.5625, 0.0756803, -24.7466
2, 240.00000, 126.302, -31.5183, 123.584, -151.558, 124.966, 89.6356, 0, 0, 1.9091, -54.5922, 1.95108, -174.632, 1.92951, 66.5616, 0.0758863, -24.7375
2, 300.00000, 126.293, -31.5193, 123.576, -151.559, 124.958, 89.6347, 0, 0, 1.91448, -54.5932, 1.95657, -174.633, 1.93493, 66.5607, 0.0760922, -24.7284
2, 360.00000, 126.284, -31.5203, 123.568, -151.559, 124.95, 89.6337, 0, 0, 1.91991, -54.5942, 1.96212, -174.633, 1.94041, 66.5598, 0.0763006, -24.7192
2, 420.00000, 126.275, -31.5213, 123.56, -151.56, 124.942, 89.6328, 0, 0, 1.92528, -54.5952, 1.9676, -174.634, 1.94583, 66.5589, 0.0765065, -24.7101
2, 480.00000, 126.267, -31.5223, 123.552, -151.561, 124.934, 89.6319, 0, 0, 1.93066, -54.5962, 1.97308, -174.635, 1.95125, 66.558, 0.0767124, -24.7009
2, 540.00000, 126.258, -31.5232, 123.543, -151.562, 124.926, 89.631, 0, 0, 1.9361, -54.5972, 1.97863, -174.636, 1.95674, 66.5571, 0.0769208, -24.6917
2, 600.00000, 126.249, -31.5242, 123.535, -151.563, 124.918, 89.6301, 0, 0, 1.94147, -54.5981, 1.98412, -174.636, 1.96216, 66.5562, 0.0771267, -24.6825
2, 660.00000, 126.24, -31.5252, 123.527, -151.563, 124.91, 89.6292, 0, 0, 1.94685, -54.5991, 1.9896, -174.637, 1.96758, 66.5553, 0.0773326, -24.6734
2, 720.00000, 126.231, -31.5262, 123.519, -151.564, 124.902, 89.6283, 0, 0, 1.95229, -54.6001, 1.99516, -174.638, 1.97307, 66.5544, 0.0775409, -24.6641
