hour,t(sec),V1,VAngle1,V2,VAngle2,V3,VAngle3,V4,VAngle4,I1,IAngle1,I2,IAngle2,I3,IAngle3,I4,IAngle4
0, 60.00000, 125.528, -30.8156, 124.979, -151.416, 124.226, 89.372, 0, 0, 2.48946, -53.8894, 2.50041, -174.49, 2.51555, 66.2983, 0.0531419, -78.5836
0, 120.00000, 125.528, -30.8156, 124.979, -151.416, 124.226, 89.372, 0, 0, 2.48948, -53.8895, 2.50043, -174.49, 2.51558, 66.298, 0.0531579, -78.5974
0, 180.00000, 125.528, -30.8156, 124.979, -151.416, 124.226, 89.372, 0, 0, 2.48948, -53.8895, 2.50043, -174.49, 2.51558, 66.298, 0.053158, -78.5975
0, 240.00000, 125.528, -30.8156, 124.979, -151.416, 124.226, 89.372, 0, 0, 2.48948, -53.8895, 2.50043, -174.49, 2.51558, 66.298, 0.053158, -78.5975
0, 300.00000, 125.531, -30.8146, 125.113, -151.242, 124.634, 89.4149, 0, 0, 2.48944, -53.8887, 2.49777, -174.317, 2.50739, 66.3404, 0.0399964, -72.3762
0, 360.00000, 125.531, -30.8146, 125.113, -151.242, 124.635, 89.415, 0, 0, 2.48943, -53.8885, 2.49774, -174.316, 2.50733, 66.3411, 0.039952, -72.329
0, 420.00000, 125.531, -30.8146, 125.113, -151.242, 124.635, 89.415, 0, 0, 2.48943, -53.8885, 2.49774, -174.316, 2.50733, 66.3411, 0.0399519, -72.3287
0, 480.00000, 125.531, -30.8146, 125.113, -151.242, 124.635, 89.415, 0, 0, 2.48943, -53.8885, 2.49774, -174.316, 2.50733, 66.3411, 0.0399519, -72.3287
0, 540.00000, 125.531, -30.8146, 125.113, -151.242, 124.635, 89.415, 0, 0, 2.48943, -53.8885, 2.49774, -174.316, 2.50733, 66.3411, 0.0399519, -72.3287
0, 600.00000, 125.531, -30.8146, 125.113, -151.242, 124.635, 89.415, 0, 0, 2.48943, -53.8885, 2.49774, -174.316, 2.50733, 66.3411, 0.0399519, -72.3287
0, 660.00000, 125.531, -30.8146, 125.113, -151.242, 124.635, 89.415, 0, 0, 2.48943, -53.8885, 2.49774, -174.316, 2.50733, 66.3411, 0.0399519, -72.3287
0, 720.00000, 125.531, -30.8146, 125.113, -151.242, 124.635, 89.415, 0, 0, 2.48943, -53.8885, 2.49774, -174.316, 2.50733, 66.3411, 0.0399519, -72.3287
0, 780.00000, 125.531, -30.8146, 125.113, -151.242, 124.635, 89.415, 0, 0, 2.48943, -53.8885, 2.49774, -174.316, 2.50733, 66.3411, 0.0399519, -72.3287
0, 840.00000, 125.531, -30.8146, 125.113, -151.242, 124.635, 89.415, 0, 0, 2.48943, -53.8885, 2.49774, -174.316, 2.50733, 66.3411, 0.0399519, -72.3287
0, 900.00000, 125.531, -30.8146, 125.113, -151.242, 124.635, 89.415, 0, 0, 2.48943, -53.8885, 2.49774, -174.316, 2.50733, 66.3411, 0.0399519, -72.3287
0, 960.00000, 125.531, -30.8146, 125.113, -151.242, 124.635, 89.415, 0, 0, 2.48943, -53.8885, 2.49774, -174.316, 2.50733, 66.3411, 0.0399519, -72.3287
0, 1020.00000, 125.531, -30.8146, 125.113, -151.242, 124.635, 89.415, 0, 0, 2.48943, -53.8885, 2.49774, -174.316, 2.50733, 66.3411, 0.0399519, -72.3287
0, 1080.00000, 125.531, -30.8146, 125.113, -151.242, 124.635, 89.415, 0, 0, 2.48943, -53.8885, 2.49774, -174.316, 2.50733, 66.3411, 0.0399519, -72.3287
0, 1140.00000, 125.531, -30.8146, 125.113, -151.242, 124.635, 89.415, 0, 0, 2.48943, -53.8885, 2.49774, -174.316, 2.50733, 66.3411, 0.0399519, -72.3287
0, 1200.00000, 125.531, -30.8146, 125.113, -151.242, 124.635, 89.415, 0, 0, 2.48943, -53.8885, 2.49774, -174.316, 2.50733, 66.3411, 0.0399519, -72.3287
0, 1260.00000, 125.531, -30.8146, 125.113, -151.242, 124.635, 89.415, 0, 0, 2.48943, -53.8885, 2.49774, -174.316, 2.50733, 66.3411, 0.0399519, -72.3287
0, 1320.00000, 125.531, -30.8146, 125.113, -151.242, 124.635, 89.415, 0, 0, 2.48943, -53.8885, 2.49774, -174.316, 2.50733, 66.3411, 0.0399519, -72.3287
0, 1380.00000, 125.531, -30.8146, 125.113, -151.242, 124.635, 89.415, 0, 0, 2.48943, -53.8885, 2.49774, -174.316, 2.50733, 66.3411, 0.0399519, -72.3287
0, 1440.00000, 125.531, -30.8146, 125.113, -151.242, 124.635, 89.415, 0, 0, 2.48943, -53.8885, 2.49774, -174.316, 2.50733, 66.3411, 0.0399519, -72.3287
0, 1500.00000, 125.531, -30.8146, 125.113, -151.242, 124.635, 89.415, 0, 0, 2.48943, -53.8885, 2.49774, -174.316, 2.50733, 66.3411, 0.0399519, -72.3287
0, 1560.00000, 125.531, -30.8146, 125.113, -151.242, 124.635, 89.415, 0, 0, 2.48943, -53.8885, 2.49774, -174.316, 2.50733, 66.3411, 0.0399519, -72.3287
0, 1620.00000, 125.531, -30.8146, 125.113, -151.242, 124.635, 89.415, 0, 0, 2.48943, -53.8885, 2.49774, -174.316, 2.50733, 66.3411, 0.0399519, -72.3287
0, 1680.00000, 125.531, -30.8146, 125.113, -151.242, 124.635, 89.415, 0, 0, 2.48943, -53.8885, 2.49774, -174.316, 2.50733, 66.3411, 0.0399519, -72.3287
0, 1740.00000, 125.531, -30.8146, 125.113, -151.242, 124.635, 89.415, 0, 0, 2.48943, -53.8885, 2.49774, -174.316, 2.50733, 66.3411, 0.0399519, -72.3287
0, 1800.00000, 125.531, -30.8146, 125.113, -151.242, 124.635, 89.415, 0, 0, 2.48943, -53.8885, 2.49774, -174.316, 2.50733, 66.3411, 0.0399519, -72.3287
0, 1860.00000, 125.531, -30.8146, 125.113, -151.242, 124.635, 89.415, 0, 0, 2.48943, -53.8885, 2.49774, -174.316, 2.50733, 66.3411, 0.0399519, -72.3287
0, 1920.00000, 125.531, -30.8146, 125.113, -151.242, 124.635, 89.415, 0, 0, 2.48943, -53.8885, 2.49774, -174.316, 2.50733, 66.3411, 0.0399519, -72.3287
0, 1980.00000, 125.531, -30.8146, 125.113, -151.242, 124.635, 89.415, 0, 0, 2.48943, -53.8885, 2.49774, -174.316, 2.50733, 66.3411, 0.0399519, -72.3287
0, 2040.00000, 125.531, -30.8146, 125.113, -151.242, 124.635, 89.415, 0, 0, 2.48943, -53.8885, 2.49774, -174.316, 2.50733, 66.3411, 0.0399519, -72.3287
0, 2100.00000, 125.531, -30.8146, 125.113, -151.242, 124.635, 89.415, 0, 0, 2.48943, -53.8885, 2.49774, -174.316, 2.50733, 66.3411, 0.0399519, -72.3287
0, 2160.00000, 125.531, -30.8146, 125.113, -151.242, 124.635, 89.415, 0, 0, 2.48943, -53.8885, 2.49774, -174.316, 2.50733, 66.3411, 0.0399519, -72.3287
0, 2220.00000, 125.66, -30.8227, 125.706, -150.89, 125.581, 89.3195, 0, 0, 2.48687, -53.8967, 2.48598, -173.964, 2.48848, 66.2451, 0.00824388, -57.7295
0, 2280.00000, 125.66, -30.8227, 125.706, -150.89, 125.581, 89.3196, 0, 0, 2.48686, -53.8967, 2.48596, -173.964, 2.48843, 66.2456, 0.00821694, -57.4356
0, 2340.00000, 125.66, -30.8227, 125.706, -150.89, 125.581, 89.3196, 0, 0, 2.48686, -53.8967, 2.48596, -173.964, 2.48843, 66.2457, 0.00821694, -57.4345
0, 2400.00000, 125.66, -30.8227, 125.706, -150.89, 125.581, 89.3196, 0, 0, 2.48686, -53.8967, 2.48596, -173.964, 2.48843, 66.2457, 0.00821694, -57.4345
0, 2460.00000, 125.66, -30.8227, 125.706, -150.89, 125.581, 89.3196, 0, 0, 2.48686, -53.8967, 2.48596, -173.964, 2.48843, 66.2457, 0.00821694, -57.4345
0, 2520.00000, 125.66, -30.8227, 125.706, -150.89, 125.581, 89.3196, 0, 0, 2.48686, -53.8967, 2.48596, -173.964, 2.48843, 66.2457, 0.00821694, -57.4345
0, 2580.00000, 125.66, -30.8227, 125.706, -150.89, 125.581, 89.3196, 0, 0, 2.48686, -53.8967, 2.48596, -173.964, 2.48843, 66.2457, 0.00821694, -57.4345
0, 2640.00000, 125.66, -30.8227, 125.706, -150.89, 125.581, 89.3196, 0, 0, 2.48686, -53.8967, 2.48596, -173.964, 2.48843, 66.2457, 0.00821694, -57.4345
0, 2700.00000, 125.66, -30.8227, 125.706, -150.89, 125.581, 89.3196, 0, 0, 2.48686, -53.8967, 2.48596, -173.964, 2.48843, 66.2457, 0.00821694, -57.4345
0, 2760.00000, 125.66, -30.8227, 125.706, -150.89, 125.581, 89.3196, 0, 0, 2.48686, -53.8967, 2.48596, -173.964, 2.48843, 66.2457, 0.00821694, -57.4345
0, 2820.00000, 125.66, -30.8227, 125.706, -150.89, 125.581, 89.3196, 0, 0, 2.48686, -53.8967, 2.48596, -173.964, 2.48843, 66.2457, 0.00821694, -57.4345
0, 2880.00000, 125.66, -30.8227, 125.706, -150.89, 125.581, 89.3196, 0, 0, 2.48686, -53.8967, 2.48596, -173.964, 2.48843, 66.2457, 0.00821694, -57.4345
0, 2940.00000, 125.66, -30.8227, 125.706, -150.89, 125.581, 89.3196, 0, 0, 2.48686, -53.8967, 2.48596, -173.964, 2.48843, 66.2457, 0.00821694, -57.4345
0, 3000.00000, 125.66, -30.8227, 125.706, -150.89, 125.581, 89.3196, 0, 0, 2.48686, -53.8967, 2.48596, -173.964, 2.48843, 66.2457, 0.00821694, -57.4345
0, 3060.00000, 125.66, -30.8227, 125.706, -150.89, 125.581, 89.3196, 0, 0, 2.48686, -53.8967, 2.48596, -173.964, 2.48843, 66.2457, 0.00821694, -57.4345
0, 3120.00000, 125.66, -30.8227, 125.706, -150.89, 125.581, 89.3196, 0, 0, 2.48686, -53.8967, 2.48596, -173.964, 2.48843, 66.2457, 0.00821694, -57.4345
0, 3180.00000, 125.66, -30.8227, 125.706, -150.89, 125.581, 89.3196, 0, 0, 2.48686, -53.8967, 2.48596, -173.964, 2.48843, 66.2457, 0.00821694, -57.4345
0, 3240.00000, 125.66, -30.8227, 125.706, -150.89, 125.581, 89.3196, 0, 0, 2.48686, -53.8967, 2.48596, -173.964, 2.48843, 66.2457, 0.00821694, -57.4345
0, 3300.00000, 125.66, -30.8227, 125.706, -150.89, 125.581, 89.3196, 0, 0, 2.48686, -53.8967, 2.48596, -173.964, 2.48843, 66.2457, 0.00821694, -57.4345
0, 3360.00000, 125.66, -30.8227, 125.706, -150.89, 125.581, 89.3196, 0, 0, 2.48686, -53.8967, 2.48596, -173.964, 2.48843, 66.2457, 0.00821694, -57.4345
0, 3420.00000, 125.66, -30.8227, 125.706, -150.89, 125.581, 89.3196, 0, 0, 2.48686, -53.8967, 2.48596, -173.964, 2.48843, 66.2457, 0.00821694, -57.4345
0, 3480.00000, 125.66, -30.8227, 125.706, -150.89, 125.581, 89.3196, 0, 0, 2.48686, -53.8967, 2.48596, -173.964, 2.48843, 66.2457, 0.00821694, -57.4345
0, 3540.00000, 125.66, -30.8227, 125.706, -150.89, 125.581, 89.3196, 0, 0, 2.48686, -53.8967, 2.48596, -173.964, 2.48843, 66.2457, 0.00821694, -57.4345
1, 0.00000, 125.66, -30.8227, 125.706, -150.89, 125.581, 89.3196, 0, 0, 2.48686, -53.8967, 2.48596, -173.964, 2.48843, 66.2457, 0.00821694, -57.4345
1, 60.00000, 125.66, -30.8227, 125.706, -150.89, 125.581, 89.3196, 0, 0, 2.48686, -53.8967, 2.48596, -173.964, 2.48843, 66.2457, 0.00821694, -57.4345
1, 120.00000, 125.66, -30.8227, 125.706, -150.89, 125.581, 89.3196, 0, 0, 2.48686, -53.8967, 2.48596, -173.964, 2.48843, 66.2457, 0.00821694, -57.4345
1, 180.00000, 125.66, -30.8227, 125.706, -150.89, 125.581, 89.3196, 0, 0, 2.48686, -53.8967, 2.48596, -173.964, 2.48843, 66.2457, 0.00821694, -57.4345
1, 240.00000, 125.66, -30.8227, 125.706, -150.89, 125.581, 89.3196, 0, 0, 2.48686, -53.8967, 2.48596, -173.964, 2.48843, 66.2457, 0.00821694, -57.4345
1, 300.00000, 125.66, -30.8227, 125.706, -150.89, 125.581, 89.3196, 0, 0, 2.48686, -53.8967, 2.48596, -173.964, 2.48843, 66.2457, 0.00821694, -57.4345
1, 360.00000, 125.66, -30.8227, 125.706, -150.89, 125.581, 89.3196, 0, 0, 2.48686, -53.8967, 2.48596, -173.964, 2.48843, 66.2457, 0.00821694, -57.4345
1, 420.00000, 125.66, -30.8227, 125.706, -150.89, 125.581, 89.3196, 0, 0, 2.48686, -53.8967, 2.48596, -173.964, 2.48843, 66.2457, 0.00821694, -57.4345
1, 480.00000, 125.66, -30.8227, 125.706, -150.89, 125.581, 89.3196, 0, 0, 2.48686, -53.8967, 2.48596, -173.964, 2.48843, 66.2457, 0.00821694, -57.4345
1, 540.00000, 125.66, -30.8227, 125.706, -150.89, 125.581, 89.3196, 0, 0, 2.48686, -53.8967, 2.48596, -173.964, 2.48843, 66.2457, 0.00821694, -57.4345
1, 600.00000, 125.66, -30.8227, 125.706, -150.89, 125.581, 89.3196, 0, 0, 2.48686, -53.8967, 2.48596, -173.964, 2.48843, 66.2457, 0.00821694, -57.4345
1, 660.00000, 125.781, -30.656, 126.097, -150.847, 125.582, 89.3197, 0, 0, 2.48448, -53.7299, 2.47828, -173.921, 2.48843, 66.2458, 0.0144088, -122.923
1, 720.00000, 125.781, -30.656, 126.097, -150.847, 125.582, 89.3197, 0, 0, 2.48447, -53.7299, 2.47826, -173.921, 2.48842, 66.2458, 0.0144043, -123.005
1, 780.00000, 126.187, -30.6104, 126.097, -150.847, 125.711, 89.4919, 0, 0, 2.47653, -53.6849, 2.47825, -173.921, 2.48588, 66.4175, 0.0205381, -81.2374
1, 840.00000, 126.187, -30.6104, 126.097, -150.847, 125.711, 89.4919, 0, 0, 2.47649, -53.6843, 2.47826, -173.921, 2.48585, 66.418, 0.0205751, -81.1455
1, 900.00000, 126.187, -30.6104, 126.097, -150.847, 125.711, 89.4919, 0, 0, 2.47649, -53.6843, 2.47826, -173.921, 2.48585, 66.418, 0.0205752, -81.145
1, 960.00000, 126.187, -30.6104, 126.097, -150.847, 125.711, 89.4919, 0, 0, 2.47649, -53.6843, 2.47826, -173.921, 2.48585, 66.418, 0.0205752, -81.145
1, 1020.00000, 126.187, -30.6104, 126.097, -150.847, 125.711, 89.4919, 0, 0, 2.47649, -53.6843, 2.47826, -173.921, 2.48585, 66.418, 0.0205752, -81.145
1, 1080.00000, 126.187, -30.6104, 126.097, -150.847, 125.711, 89.4919, 0, 0, 2.47649, -53.6843, 2.47826, -173.921, 2.48585, 66.418, 0.0205752, -81.145
1, 1140.00000, 126.187, -30.6104, 126.097, -150.847, 125.711, 89.4919, 0, 0, 2.47649, -53.6843, 2.47826, -173.921, 2.48585, 66.418, 0.0205752, -81.145
1, 1200.00000, 126.187, -30.6104, 126.097, -150.847, 125.711, 89.4919, 0, 0, 2.47649, -53.6843, 2.47826, -173.921, 2.48585, 66.418, 0.0205752, -81.145
1, 1260.00000, 126.187, -30.6104, 126.097, -150.847, 125.711, 89.4919, 0, 0, 2.47649, -53.6843, 2.47826, -173.921, 2.48585, 66.418, 0.0205752, -81.145
1, 1320.00000, 126.187, -30.6104, 126.097, -150.847, 125.711, 89.4919, 0, 0, 2.47649, -53.6843, 2.47826, -173.921, 2.48585, 66.418, 0.0205752, -81.145
1, 1380.00000, 126.187, -30.6104, 126.097, -150.847, 125.711, 89.4919, 0, 0, 2.47649, -53.6843, 2.47826, -173.921, 2.48585, 66.418, 0.0205752, -81.145
1, 1440.00000, 126.187, -30.6104, 126.097, -150.847, 125.711, 89.4919, 0, 0, 2.47649, -53.6843, 2.47826, -173.921, 2.48585, 66.418, 0.0205752, -81.145
1, 1500.00000, 126.187, -30.6104, 126.097, -150.847, 125.711, 89.4919, 0, 0, 2.47649, -53.6843, 2.47826, -173.921, 2.48585, 66.418, 0.0205752, -81.145
1, 1560.00000, 126.187, -30.6104, 126.097, -150.847, 125.711, 89.4919, 0, 0, 2.47649, -53.6843, 2.47826, -173.921, 2.48585, 66.418, 0.0205752, -81.145
1, 1620.00000, 126.187, -30.6104, 126.097, -150.847, 125.711, 89.4919, 0, 0, 2.47649, -53.6843, 2.47826, -173.921, 2.48585, 66.418, 0.0205752, -81.145
1, 1680.00000, 126.187, -30.6104, 126.097, -150.847, 125.711, 89.4919, 0, 0, 2.47649, -53.6843, 2.47826, -173.921, 2.48585, 66.418, 0.0205752, -81.145
1, 1740.00000, 126.187, -30.6104, 126.097, -150.847, 125.711, 89.4919, 0, 0, 2.47649, -53.6843, 2.47826, -173.921, 2.48585, 66.418, 0.0205752, -81.145
1, 1800.00000, 126.187, -30.6104, 126.097, -150.847, 125.711, 89.4919, 0, 0, 2.47649, -53.6843, 2.47826, -173.921, 2.48585, 66.418, 0.0205752, -81.145
1, 1860.00000, 126.187, -30.6104, 126.097, -150.847, 125.711, 89.4919, 0, 0, 2.47649, -53.6843, 2.47826, -173.921, 2.48585, 66.418, 0.0205752, -81.145
1, 1920.00000, 126.187, -30.6104, 126.097, -150.847, 125.711, 89.4919, 0, 0, 2.47649, -53.6843, 2.47826, -173.921, 2.48585, 66.418, 0.0205752, -81.145
1, 1980.00000, 126.187, -30.6104, 126.097, -150.847, 125.711, 89.4919, 0, 0, 2.47649, -53.6843, 2.47826, -173.921, 2.48585, 66.418, 0.0205752, -81.145
1, 2040.00000, 126.187, -30.6104, 126.097, -150.847, 125.711, 89.4919, 0, 0, 2.47649, -53.6843, 2.47826, -173.921, 2.48585, 66.418, 0.0205752, -81.145
1, 2100.00000, 126.187, -30.6104, 126.097, -150.847, 125.711, 89.4919, 0, 0, 2.47649, -53.6843, 2.47826, -173.921, 2.48585, 66.418, 0.0205752, -81.145
1, 2160.00000, 126.187, -30.6104, 126.097, -150.847, 125.711, 89.4919, 0, 0, 2.47649, -53.6843, 2.47826, -173.921, 2.48585, 66.418, 0.0205752, -81.145
1, 2220.00000, 126.187, -30.6104, 126.097, -150.847, 125.711, 89.4919, 0, 0, 2.47649, -53.6843, 2.47826, -173.921, 2.48585, 66.418, 0.0205752, -81.145
1, 2280.00000, 126.187, -30.6104, 126.097, -150.847, 125.711, 89.4919, 0, 0, 2.47649, -53.6843, 2.47826, -173.921, 2.48585, 66.418, 0.0205752, -81.145
1, 2340.00000, 126.187, -30.6104, 126.097, -150.847, 125.711, 89.4919, 0, 0, 2.47649, -53.6843, 2.47826, -173.921, 2.48585, 66.418, 0.0205752, -81.145
1, 2400.00000, 126.187, -30.6104, 126.097, -150.847, 125.711, 89.4919, 0, 0, 2.47649, -53.6843, 2.47826, -173.921, 2.48585, 66.418, 0.0205752, -81.145
1, 2460.00000, 126.187, -30.6104, 126.097, -150.847, 125.711, 89.4919, 0, 0, 2.47649, -53.6843, 2.47826, -173.921, 2.48585, 66.418, 0.0205752, -81.145
1, 2520.00000, 126.187, -30.6104, 126.097, -150.847, 125.711, 89.4919, 0, 0, 2.47649, -53.6843, 2.47826, -173.921, 2.48585, 66.418, 0.0205752, -81.145
1, 2580.00000, 126.187, -30.6104, 126.097, -150.847, 125.711, 89.4919, 0, 0, 2.47649, -53.6843, 2.47826, -173.921, 2.48585, 66.418, 0.0205752, -81.145
1, 2640.00000, 126.187, -30.6104, 126.097, -150.847, 125.711, 89.4919, 0, 0, 2.47649, -53.6843, 2.47826, -173.921, 2.48585, 66.418, 0.0205752, -81.145
1, 2700.00000, 126.187, -30.6104, 126.097, -150.847, 125.711, 89.4919, 0, 0, 2.47649, -53.6843, 2.47826, -173.921, 2.48585, 66.418, 0.0205752, -81.145
1, 2760.00000, 126.187, -30.6104, 126.097, -150.847, 125.711, 89.4919, 0, 0, 2.47649, -53.6843, 2.47826, -173.921, 2.48585, 66.418, 0.0205752, -81.145
1, 2820.00000, 126.187, -30.6104, 126.097, -150.847, 125.711, 89.4919, 0, 0, 2.47649, -53.6843, 2.47826, -173.921, 2.48585, 66.418, 0.0205752, -81.145
1, 2880.00000, 126.187, -30.6104, 126.097, -150.847, 125.711, 89.4919, 0, 0, 2.47649, -53.6843, 2.47826, -173.921, 2.48585, 66.418, 0.0205752, -81.145
1, 2940.00000, 126.187, -30.6104, 126.097, -150.847, 125.711, 89.4919, 0, 0, 2.47649, -53.6843, 2.47826, -173.921, 2.48585, 66.418, 0.0205752, -81.145
1, 3000.00000, 126.187, -30.6104, 126.097, -150.847, 125.711, 89.4919, 0, 0, 2.47649, -53.6843, 2.47826, -173.921, 2.48585, 66.418, 0.0205752, -81.145
1, 3060.00000, 126.187, -30.6104, 126.097, -150.847, 125.711, 89.4919, 0, 0, 2.47649, -53.6843, 2.47826, -173.921, 2.48585, 66.418, 0.0205752, -81.145
1, 3120.00000, 126.187, -30.6104, 126.097, -150.847, 125.711, 89.4919, 0, 0, 2.47649, -53.6843, 2.47826, -173.921, 2.48585, 66.418, 0.0205752, -81.145
1, 3180.00000, 126.187, -30.6104, 126.097, -150.847, 125.711, 89.4919, 0, 0, 2.47649, -53.6843, 2.47826, -173.921, 2.48585, 66.418, 0.0205752, -81.145
1, 3240.00000, 126.187, -30.6104, 126.097, -150.847, 125.711, 89.4919, 0, 0, 2.47649, -53.6843, 2.47826, -173.921, 2.48585, 66.418, 0.0205752, -81.145
1, 3300.00000, 126.187, -30.6104, 126.097, -150.847, 125.711, 89.4919, 0, 0, 2.47649, -53.6843, 2.47826, -173.921, 2.48585, 66.418, 0.0205752, -81.145
1, 3360.00000, 126.187, -30.6104, 126.097, -150.847, 125.711, 89.4919, 0, 0, 2.47649, -53.6843, 2.47826, -173.921, 2.48585, 66.418, 0.0205752, -81.145
1, 3420.00000, 126.187, -30.6104, 126.097, -150.847, 125.711, 89.4919, 0, 0, 2.47649, -53.6843, 2.47826, -173.921, 2.48585, 66.418, 0.0205752, -81.145
1, 3480.00000, 126.27, -30.6156, 126.526, -150.562, 126.463, 89.4449, 0, 0, 2.47485, -53.6896, 2.46986, -173.636, 2.47111, 66.3706, 0.00434077, 107.93
1, 3540.00000, 126.27, -30.6156, 126.526, -150.562, 126.463, 89.4449, 0, 0, 2.47485, -53.6895, 2.46985, -173.636, 2.47107, 66.371, 0.0043648, 107.516
2, 0.00000, 126.27, -30.6156, 126.526, -150.562, 126.463, 89.4449, 0, 0, 2.47485, -53.6895, 2.46985, -173.636, 2.47107, 66.371, 0.00436484, 107.515
2, 60.00000, 126.27, -30.6156, 126.526, -150.562, 126.463, 89.4449, 0, 0, 2.47485, -53.6895, 2.46985, -173.636, 2.47107, 66.371, 0.00436484, 107.515
2, 120.00000, 126.265, -30.6168, 126.521, -150.563, 126.459, 89.4438, 0, 0, 2.48179, -53.6907, 2.47677, -173.637, 2.478, 66.37, 0.00438634, 107.517
2, 180.00000, 126.26, -30.618, 126.517, -150.564, 126.454, 89.4427, 0, 0, 2.48882, -53.6919, 2.48378, -173.638, 2.48501, 66.3689, 0.00440697, 107.54
2, 240.00000, 126.255, -30.6192, 126.512, -150.565, 126.449, 89.4416, 0, 0, 2.49577, -53.6931, 2.4907, -173.639, 2.49194, 66.3677, 0.00442738, 107.564
2, 300.00000, 126.25, -30.6204, 126.507, -150.566, 126.444, 89.4405, 0, 0, 2.50272, -53.6943, 2.49763, -173.64, 2.49887, 66.3666, 0.00444785, 107.587
2, 360.00000, 126.245, -30.6216, 126.503, -150.567, 126.439, 89.4394, 0, 0, 2.50975, -53.6955, 2.50464, -173.641, 2.50589, 66.3655, 0.00446864, 107.61
2, 420.00000, 126.24, -30.6228, 126.498, -150.569, 126.435, 89.4382, 0, 0, 2.5167, -53.6967, 2.51156, -173.642, 2.51282, 66.3644, 0.0044892, 107.633
2, 480.00000, 126.235, -30.624, 126.494, -150.57, 126.43, 89.4371, 0, 0, 2.52365, -53.6979, 2.51849, -173.644, 2.51975, 66.3633, 0.00450982, 107.656
2, 540.00000, 126.229, -30.6252, 126.489, -150.571, 126.425, 89.436, 0, 0, 2.53069, -53.6991, 2.5255, -173.645, 2.52677, 66.3622, 0.00453075, 107.679
2, 600.00000, 126.224, -30.6264, 126.484, -150.572, 126.42, 89.4349, 0, 0, 2.53764, -53.7003, 2.53243, -173.646, 2.5337, 66.361, 0.00455146, 107.701
2, 660.00000, 126.219, -30.6276, 126.48, -150.573, 126.416, 89.4338, 0, 0, 2.54459, -53.7015, 2.53935, -173.647, 2.54064, 66.3599, 0.00457223, 107.724
