hour,t(sec),V1,VAngle1,V2,VAngle2,V3,VAngle3,V4,VAngle4,I1,IAngle1,I2,IAngle2,I3,IAngle3,I4,IAngle4
0, 60.00000, 126.764, -31.3913, 126.515, -150.563, 128.292, 89.2723, 0, 0, 2.31514, -54.4648, 2.31971, -173.637, 2.28761, 66.1986, 0.0603879, 52.6413
0, 120.00000, 126.774, -31.3997, 126.515, -150.563, 128.314, 89.2717, 0, 0, 2.31498, -54.4733, 2.31971, -173.637, 2.28721, 66.1979, 0.0610467, 52.5067
0, 180.00000, 126.782, -31.4074, 126.515, -150.563, 128.334, 89.2711, 0, 0, 2.31483, -54.4809, 2.31971, -173.637, 2.28686, 66.1974, 0.0616402, 52.3884
0, 240.00000, 126.789, -31.4142, 126.515, -150.563, 128.352, 89.2706, 0, 0, 2.31469, -54.4878, 2.31971, -173.637, 2.28654, 66.1968, 0.0621748, 52.2844
0, 300.00000, 126.796, -31.4204, 126.515, -150.563, 128.368, 89.2701, 0, 0, 2.31457, -54.4941, 2.31971, -173.637, 2.28625, 66.1963, 0.0626564, 52.1927
0, 360.00000, 126.802, -31.426, 126.515, -150.563, 128.383, 89.2697, 0, 0, 2.31447, -54.4997, 2.31971, -173.637, 2.28599, 66.1959, 0.0630901, 52.1117
0, 420.00000, 126.807, -31.431, 126.515, -150.563, 128.396, 89.2693, 0, 0, 2.31437, -54.5047, 2.31971, -173.637, 2.28575, 66.1955, 0.0634808, 52.04
0, 480.00000, 126.812, -31.4355, 126.515, -150.563, 128.407, 89.2689, 0, 0, 2.31428, -54.5092, 2.31971, -173.637, 2.28554, 66.1951, 0.0638325, 51.9765
0, 540.00000, 126.816, -31.4396, 126.515, -150.563, 128.418, 89.2686, 0, 0, 2.3142, -54.5133, 2.31971, -173.637, 2.28535, 66.1948, 0.0641493, 51.9201
0, 600.00000, 126.82, -31.4433, 126.515, -150.563, 128.427, 89.2683, 0, 0, 2.31413, -54.517, 2.31972, -173.637, 2.28518, 66.1945, 0.0644345, 51.8699
0, 660.00000, 126.823, -31.4466, 126.515, -150.563, 128.436, 89.268, 0, 0, 2.31407, -54.5203, 2.31972, -173.637, 2.28503, 66.1942, 0.0646913, 51.8252
0, 720.00000, 126.826, -31.4495, 126.515, -150.563, 128.444, 89.2678, 0, 0, 2.31401, -54.5233, 2.31972, -173.637, 2.28489, 66.194, 0.0649225, 51.7854
0, 780.00000, 126.829, -31.4522, 126.515, -150.563, 128.451, 89.2676, 0, 0, 2.31396, -54.526, 2.31972, -173.637, 2.28477, 66.1937, 0.0651307, 51.7499
0, 840.00000, 126.832, -31.4546, 126.515, -150.563, 128.457, 89.2674, 0, 0, 2.31392, -54.5284, 2.31972, -173.637, 2.28466, 66.1935, 0.0653181, 51.7182
0, 900.00000, 126.834, -31.4568, 126.515, -150.563, 128.462, 89.2672, 0, 0, 2.31387, -54.5306, 2.31972, -173.637, 2.28455, 66.1933, 0.0654868, 51.6899
0, 960.00000, 126.836, -31.4587, 126.515, -150.563, 128.467, 89.267, 0, 0, 2.31384, -54.5326, 2.31972, -173.637, 2.28446, 66.1932, 0.0656386, 51.6646
0, 1020.00000, 126.838, -31.4605, 126.515, -150.563, 128.472, 89.2669, 0, 0, 2.3138, -54.5343, 2.31972, -173.637, 2.28438, 66.193, 0.0657753, 51.6419
0, 1080.00000, 126.84, -31.4621, 126.515, -150.563, 128.476, 89.2667, 0, 0, 2.31377, -54.5359, 2.31972, -173.637, 2.28431, 66.1929, 0.0658984, 51.6216
0, 1140.00000, 126.841, -31.4635, 126.515, -150.563, 128.48, 89.2666, 0, 0, 2.31375, -54.5374, 2.31972, -173.637, 2.28424, 66.1927, 0.0660092, 51.6034
0, 1200.00000, 126.842, -31.4648, 126.515, -150.563, 128.483, 89.2665, 0, 0, 2.31372, -54.5387, 2.31972, -173.637, 2.28418, 66.1926, 0.0661089, 51.5872
0, 1260.00000, 126.844, -31.4659, 126.515, -150.563, 128.486, 89.2664, 0, 0, 2.3137, -54.5398, 2.31972, -173.637, 2.28413, 66.1925, 0.0661986, 51.5725
0, 1320.00000, 126.845, -31.467, 126.515, -150.563, 128.489, 89.2663, 0, 0, 2.31368, -54.5409, 2.31972, -173.637, 2.28408, 66.1924, 0.0662794, 51.5594
0, 1380.00000, 126.846, -31.4679, 126.515, -150.563, 128.491, 89.2663, 0, 0, 2.31366, -54.5418, 2.31972, -173.637, 2.28404, 66.1924, 0.0663521, 51.5477
0, 1440.00000, 126.847, -31.4688, 126.515, -150.563, 128.493, 89.2662, 0, 0, 2.31365, -54.5426, 2.31972, -173.637, 2.284, 66.1923, 0.0664176, 51.5371
0, 1500.00000, 126.847, -31.4695, 126.515, -150.563, 128.495, 89.2661, 0, 0, 2.31363, -54.5434, 2.31972, -173.637, 2.28396, 66.1922, 0.0664765, 51.5277
0, 1560.00000, 126.848, -31.4702, 126.515, -150.563, 128.497, 89.2661, 0, 0, 2.31362, -54.5441, 2.31972, -173.637, 2.28393, 66.1922, 0.0665295, 51.5192
0, 1620.00000, 126.849, -31.4708, 126.515, -150.563, 128.499, 89.266, 0, 0, 2.31361, -54.5447, 2.31972, -173.637, 2.2839, 66.1921, 0.0665772, 51.5115
0, 1680.00000, 126.849, -31.4714, 126.515, -150.563, 128.5, 89.266, 0, 0, 2.3136, -54.5453, 2.31972, -173.637, 2.28388, 66.1921, 0.0666202, 51.5047
0, 1740.00000, 126.85, -31.4719, 126.515, -150.563, 128.501, 89.2659, 0, 0, 2.31359, -54.5458, 2.31972, -173.637, 2.28386, 66.192, 0.0666588, 51.4985
0, 1800.00000, 126.85, -31.4723, 126.515, -150.563, 128.503, 89.2659, 0, 0, 2.31358, -54.5462, 2.31972, -173.637, 2.28383, 66.192, 0.0666936, 51.493
0, 1860.00000, 126.851, -31.4727, 126.515, -150.563, 128.504, 89.2658, 0, 0, 2.31357, -54.5466, 2.31972, -173.637, 2.28382, 66.1919, 0.0667249, 51.488
0, 1920.00000, 126.851, -31.4731, 126.515, -150.563, 128.504, 89.2658, 0, 0, 2.31357, -54.547, 2.31972, -173.637, 2.2838, 66.1919, 0.0667531, 51.4835
0, 1980.00000, 126.851, -31.4734, 126.515, -150.563, 128.505, 89.2658, 0, 0, 2.31356, -54.5473, 2.31972, -173.637, 2.28378, 66.1919, 0.0667785, 51.4795
0, 2040.00000, 126.852, -31.4737, 126.515, -150.563, 128.506, 89.2658, 0, 0, 2.31355, -54.5476, 2.31972, -173.637, 2.28377, 66.1918, 0.0668013, 51.4758
0, 2100.00000, 126.852, -31.474, 126.515, -150.563, 128.507, 89.2657, 0, 0, 2.31355, -54.5479, 2.31972, -173.637, 2.28376, 66.1918, 0.0668219, 51.4726
0, 2160.00000, 126.852, -31.4742, 126.515, -150.563, 128.507, 89.2657, 0, 0, 2.31354, -54.5481, 2.31972, -173.637, 2.28375, 66.1918, 0.0668404, 51.4697
0, 2220.00000, 126.852, -31.4744, 126.515, -150.563, 128.508, 89.2657, 0, 0, 2.31354, -54.5483, 2.31972, -173.637, 2.28374, 66.1918, 0.066857, 51.467
0, 2280.00000, 126.853, -31.4746, 126.515, -150.563, 128.508, 89.2657, 0, 0, 2.31354, -54.5485, 2.31972, -173.637, 2.28373, 66.1918, 0.066872, 51.4647
0, 2340.00000, 126.853, -31.4748, 126.515, -150.563, 128.509, 89.2657, 0, 0, 2.31353, -54.5487, 2.31972, -173.637, 2.28372, 66.1918, 0.0668855, 51.4625
0, 2400.00000, 126.853, -31.4749, 126.515, -150.563, 128.509, 89.2657, 0, 0, 2.31353, -54.5488, 2.31972, -173.637, 2.28371, 66.1917, 0.0668976, 51.4606
0, 2460.00000, 126.853, -31.4751, 126.515, -150.563, 128.51, 89.2656, 0, 0, 2.31353, -54.549, 2.31972, -173.637, 2.28371, 66.1917, 0.0669086, 51.4589
0, 2520.00000, 126.853, -31.4752, 126.515, -150.563, 128.51, 89.2656, 0, 0, 2.31353, -54.5491, 2.31972, -173.637, 2.2837, 66.1917, 0.0669184, 51.4573
0, 2580.00000, 126.853, -31.4753, 126.515, -150.563, 128.51, 89.2656, 0, 0, 2.31352, -54.5492, 2.31972, -173.637, 2.2837, 66.1917, 0.0669272, 51.4559
0, 2640.00000, 126.853, -31.4754, 126.515, -150.563, 128.511, 89.2656, 0, 0, 2.31352, -54.5493, 2.31972, -173.637, 2.28369, 66.1917, 0.0669352, 51.4547
0, 2700.00000, 126.854, -31.4755, 126.515, -150.563, 128.511, 89.2656, 0, 0, 2.31352, -54.5494, 2.31972, -173.637, 2.28369, 66.1917, 0.0669424, 51.4536
0, 2760.00000, 126.854, -31.4756, 126.515, -150.563, 128.511, 89.2656, 0, 0, 2.31352, -54.5495, 2.31972, -173.637, 2.28368, 66.1917, 0.0669488, 51.4525
0, 2820.00000, 126.854, -31.4757, 126.515, -150.563, 128.511, 89.2656, 0, 0, 2.31352, -54.5496, 2.31972, -173.637, 2.28368, 66.1917, 0.0669546, 51.4516
0, 2880.00000, 126.854, -31.4757, 126.515, -150.563, 128.511, 89.2656, 0, 0, 2.31352, -54.5497, 2.31972, -173.637, 2.28368, 66.1917, 0.0669599, 51.4508
0, 2940.00000, 126.854, -31.4758, 126.515, -150.563, 128.512, 89.2656, 0, 0, 2.31351, -54.5497, 2.31972, -173.637, 2.28367, 66.1917, 0.0669646, 51.4501
0, 3000.00000, 126.854, -31.4759, 126.515, -150.563, 128.512, 89.2656, 0, 0, 2.31351, -54.5498, 2.31972, -173.637, 2.28367, 66.1917, 0.0669688, 51.4494
0, 3060.00000, 126.854, -31.4759, 126.515, -150.563, 128.512, 89.2656, 0, 0, 2.31351, -54.5498, 2.31972, -173.637, 2.28367, 66.1917, 0.0669726, 51.4488
0, 3120.00000, 126.854, -31.4759, 126.515, -150.563, 128.512, 89.2656, 0, 0, 2.31351, -54.5499, 2.31972, -173.637, 2.28367, 66.1917, 0.066976, 51.4483
0, 3180.00000, 126.854, -31.476, 126.515, -150.563, 128.512, 89.2656, 0, 0, 2.31351, -54.5499, 2.31972, -173.637, 2.28366, 66.1916, 0.0669791, 51.4478
0, 3240.00000, 126.854, -31.476, 126.515, -150.563, 128.512, 89.2656, 0, 0, 2.31351, -54.5499, 2.31972, -173.637, 2.28366, 66.1916, 0.0669819, 51.4473
0, 3300.00000, 126.854, -31.4761, 126.515, -150.563, 128.512, 89.2656, 0, 0, 2.31351, -54.55, 2.31972, -173.637, 2.28366, 66.1916, 0.0669844, 51.447
0, 3360.00000, 126.854, -31.4761, 126.515, -150.563, 128.512, 89.2656, 0, 0, 2.31351, -54.55, 2.31972, -173.637, 2.28366, 66.1916, 0.0669866, 51.4466
0, 3420.00000, 126.854, -31.4761, 126.515, -150.563, 128.512, 89.2655, 0, 0, 2.31351, -54.55, 2.31972, -173.637, 2.28366, 66.1916, 0.0669887, 51.4463
0, 3480.00000, 126.854, -31.4761, 126.515, -150.563, 128.512, 89.2655, 0, 0, 2.31351, -54.55, 2.31972, -173.637, 2.28366, 66.1916, 0.0669905, 51.446
0, 3540.00000, 126.854, -31.4762, 126.515, -150.563, 128.512, 89.2655, 0, 0, 2.31351, -54.5501, 2.31972, -173.637, 2.28366, 66.1916, 0.0669921, 51.4457
1, 0.00000, 126.854, -31.4762, 126.515, -150.563, 128.512, 89.2655, 0, 0, 2.31351, -54.5501, 2.31972, -173.637, 2.28366, 66.1916, 0.0669936, 51.4455
1, 60.00000, 126.854, -31.4762, 126.515, -150.563, 128.513, 89.2655, 0, 0, 2.31351, -54.5501, 2.31972, -173.637, 2.28366, 66.1916, 0.0669949, 51.4453
1, 120.00000, 126.854, -31.4762, 126.515, -150.563, 128.513, 89.2655, 0, 0, 2.31351, -54.5501, 2.31972, -173.637, 2.28365, 66.1916, 0.0669961, 51.4451
1, 180.00000, 126.854, -31.4762, 126.515, -150.563, 128.513, 89.2655, 0, 0, 2.31351, -54.5501, 2.31972, -173.637, 2.28365, 66.1916, 0.0669972, 51.4449
1, 240.00000, 126.854, -31.4762, 126.515, -150.563, 128.513, 89.2655, 0, 0, 2.31351, -54.5501, 2.31972, -173.637, 2.28365, 66.1916, 0.0669982, 51.4448
1, 300.00000, 126.854, -31.4762, 126.515, -150.563, 128.513, 89.2655, 0, 0, 2.31351, -54.5502, 2.31972, -173.637, 2.28365, 66.1916, 0.066999, 51.4446
1, 360.00000, 126.854, -31.4763, 126.515, -150.563, 128.513, 89.2655, 0, 0, 2.31351, -54.5502, 2.31972, -173.637, 2.28365, 66.1916, 0.0669998, 51.4445
1, 420.00000, 126.854, -31.4763, 126.515, -150.563, 128.513, 89.2655, 0, 0, 2.31351, -54.5502, 2.31972, -173.637, 2.28365, 66.1916, 0.0670005, 51.4444
1, 480.00000, 126.854, -31.4763, 126.515, -150.563, 128.513, 89.2655, 0, 0, 2.31351, -54.5502, 2.31972, -173.637, 2.28365, 66.1916, 0.0670012, 51.4443
1, 540.00000, 126.854, -31.4763, 126.515, -150.563, 128.513, 89.2655, 0, 0, 2.31351, -54.5502, 2.31972, -173.637, 2.28365, 66.1916, 0.0670017, 51.4442
1, 600.00000, 126.854, -31.4763, 126.515, -150.563, 128.513, 89.2655, 0, 0, 2.3135, -54.5502, 2.31972, -173.637, 2.28365, 66.1916, 0.0670022, 51.4441
1, 660.00000, 126.854, -31.4763, 126.515, -150.563, 128.513, 89.2655, 0, 0, 2.3135, -54.5502, 2.31972, -173.637, 2.28365, 66.1916, 0.0670027, 51.4441
1, 720.00000, 126.854, -31.4763, 126.515, -150.563, 128.513, 89.2655, 0, 0, 2.3135, -54.5502, 2.31972, -173.637, 2.28365, 66.1916, 0.0670031, 51.444
1, 780.00000, 126.854, -31.4763, 126.515, -150.563, 128.513, 89.2655, 0, 0, 2.3135, -54.5502, 2.31972, -173.637, 2.28365, 66.1916, 0.0670035, 51.4439
1, 840.00000, 126.854, -31.4763, 126.515, -150.563, 128.513, 89.2655, 0, 0, 2.3135, -54.5502, 2.31972, -173.637, 2.28365, 66.1916, 0.0670038, 51.4439
1, 900.00000, 126.854, -31.4763, 126.515, -150.563, 128.513, 89.2655, 0, 0, 2.3135, -54.5502, 2.31972, -173.637, 2.28365, 66.1916, 0.0670041, 51.4438
1, 960.00000, 126.854, -31.4763, 126.515, -150.563, 128.513, 89.2655, 0, 0, 2.3135, -54.5502, 2.31972, -173.637, 2.28365, 66.1916, 0.0670044, 51.4438
1, 1020.00000, 126.854, -31.4763, 126.515, -150.563, 128.513, 89.2655, 0, 0, 2.3135, -54.5502, 2.31972, -173.637, 2.28365, 66.1916, 0.0670047, 51.4438
1, 1080.00000, 126.854, -31.4763, 126.515, -150.563, 128.513, 89.2655, 0, 0, 2.3135, -54.5502, 2.31972, -173.637, 2.28365, 66.1916, 0.0670049, 51.4437
1, 1140.00000, 126.854, -31.4763, 126.515, -150.563, 128.513, 89.2655, 0, 0, 2.3135, -54.5502, 2.31972, -173.637, 2.28365, 66.1916, 0.0670051, 51.4437
1, 1200.00000, 126.854, -31.4763, 126.515, -150.563, 128.513, 89.2655, 0, 0, 2.3135, -54.5502, 2.31972, -173.637, 2.28365, 66.1916, 0.0670053, 51.4437
1, 1260.00000, 126.854, -31.4763, 126.515, -150.563, 128.513, 89.2655, 0, 0, 2.3135, -54.5502, 2.31972, -173.637, 2.28365, 66.1916, 0.0670054, 51.4436
1, 1320.00000, 126.854, -31.4763, 126.515, -150.563, 128.513, 89.2655, 0, 0, 2.3135, -54.5502, 2.31972, -173.637, 2.28365, 66.1916, 0.0670056, 51.4436
1, 1380.00000, 126.854, -31.4763, 126.515, -150.563, 128.513, 89.2655, 0, 0, 2.3135, -54.5502, 2.31972, -173.637, 2.28365, 66.1916, 0.0670057, 51.4436
1, 1440.00000, 126.854, -31.4763, 126.515, -150.563, 128.513, 89.2655, 0, 0, 2.3135, -54.5502, 2.31972, -173.637, 2.28365, 66.1916, 0.0670058, 51.4436
1, 1500.00000, 126.854, -31.4763, 126.515, -150.563, 128.513, 89.2655, 0, 0, 2.3135, -54.5502, 2.31972, -173.637, 2.28365, 66.1916, 0.0670059, 51.4436
1, 1560.00000, 126.854, -31.4763, 126.515, -150.563, 128.513, 89.2655, 0, 0, 2.3135, -54.5502, 2.31972, -173.637, 2.28365, 66.1916, 0.067006, 51.4436
1, 1620.00000, 126.854, -31.4763, 126.515, -150.563, 128.513, 89.2655, 0, 0, 2.3135, -54.5503, 2.31972, -173.637, 2.28365, 66.1916, 0.0670061, 51.4435
1, 1680.00000, 126.854, -31.4763, 126.515, -150.563, 128.513, 89.2655, 0, 0, 2.3135, -54.5503, 2.31972, -173.637, 2.28365, 66.1916, 0.0670062, 51.4435
1, 1740.00000, 126.854, -31.4763, 126.515, -150.563, 128.513, 89.2655, 0, 0, 2.3135, -54.5503, 2.31972, -173.637, 2.28365, 66.1916, 0.0670063, 51.4435
1, 1800.00000, 126.854, -31.4763, 126.515, -150.563, 128.513, 89.2655, 0, 0, 2.3135, -54.5503, 2.31972, -173.637, 2.28365, 66.1916, 0.0670063, 51.4435
1, 1860.00000, 126.854, -31.4763, 126.515, -150.563, 128.513, 89.2655, 0, 0, 2.3135, -54.5503, 2.31972, -173.637, 2.28365, 66.1916, 0.0670064, 51.4435
1, 1920.00000, 126.854, -31.4763, 126.515, -150.563, 128.513, 89.2655, 0, 0, 2.3135, -54.5503, 2.31972, -173.637, 2.28365, 66.1916, 0.0670064, 51.4435
1, 1980.00000, 126.854, -31.4763, 126.515, -150.563, 128.513, 89.2655, 0, 0, 2.3135, -54.5503, 2.31972, -173.637, 2.28365, 66.1916, 0.0670065, 51.4435
1, 2040.00000, 126.854, -31.4763, 126.515, -150.563, 128.513, 89.2655, 0, 0, 2.3135, -54.5503, 2.31972, -173.637, 2.28365, 66.1916, 0.0670065, 51.4435
1, 2100.00000, 126.854, -31.4763, 126.515, -150.563, 128.513, 89.2655, 0, 0, 2.3135, -54.5503, 2.31972, -173.637, 2.28365, 66.1916, 0.0670065, 51.4435
1, 2160.00000, 126.854, -31.4763, 126.515, -150.563, 128.513, 89.2655, 0, 0, 2.3135, -54.5503, 2.31972, -173.637, 2.28365, 66.1916, 0.0670066, 51.4435
1, 2220.00000, 126.854, -31.4763, 126.515, -150.563, 128.513, 89.2655, 0, 0, 2.3135, -54.5503, 2.31972, -173.637, 2.28365, 66.1916, 0.0670066, 51.4435
1, 2280.00000, 126.854, -31.4763, 126.515, -150.563, 128.513, 89.2655, 0, 0, 2.3135, -54.5503, 2.31972, -173.637, 2.28365, 66.1916, 0.0670066, 51.4435
1, 2340.00000, 126.854, -31.4763, 126.515, -150.563, 128.513, 89.2655, 0, 0, 2.3135, -54.5503, 2.31972, -173.637, 2.28365, 66.1916, 0.0670067, 51.4435
1, 2400.00000, 126.854, -31.4763, 126.515, -150.563, 128.513, 89.2655, 0, 0, 2.3135, -54.5503, 2.31972, -173.637, 2.28365, 66.1916, 0.0670067, 51.4434
1, 2460.00000, 126.854, -31.4763, 126.515, -150.563, 128.513, 89.2655, 0, 0, 2.3135, -54.5503, 2.31972, -173.637, 2.28365, 66.1916, 0.0670067, 51.4434
1, 2520.00000, 126.854, -31.4763, 126.515, -150.563, 128.513, 89.2655, 0, 0, 2.3135, -54.5503, 2.31972, -173.637, 2.28365, 66.1916, 0.0670067, 51.4434
1, 2580.00000, 126.854, -31.4763, 126.515, -150.563, 128.513, 89.2655, 0, 0, 2.3135, -54.5503, 2.31972, -173.637, 2.28365, 66.1916, 0.0670067, 51.4434
1, 2640.00000, 126.854, -31.4763, 126.515, -150.563, 128.513, 89.2655, 0, 0, 2.3135, -54.5503, 2.31972, -173.637, 2.28365, 66.1916, 0.0670068, 51.4434
1, 2700.00000, 126.854, -31.4763, 126.515, -150.563, 128.513, 89.2655, 0, 0, 2.3135, -54.5503, 2.31972, -173.637, 2.28365, 66.1916, 0.0670068, 51.4434
1, 2760.00000, 127.262, -31.4483, 126.513, -150.563, 128.681, 89.4265, 0, 0, 2.3061, -54.5223, 2.31974, -173.637, 2.28066, 66.3526, 0.0695256, 41.2962
1, 2820.00000, 127.262, -31.4483, 126.513, -150.563, 128.681, 89.4265, 0, 0, 2.3061, -54.5223, 2.31974, -173.637, 2.28066, 66.3526, 0.069526, 41.2966
1, 2880.00000, 127.262, -31.4483, 126.513, -150.563, 128.681, 89.4265, 0, 0, 2.3061, -54.5223, 2.31974, -173.637, 2.28066, 66.3526, 0.069526, 41.2966
1, 2940.00000, 127.262, -31.4483, 126.513, -150.563, 128.681, 89.4265, 0, 0, 2.3061, -54.5223, 2.31974, -173.637, 2.28066, 66.3526, 0.069526, 41.2966
1, 3000.00000, 127.262, -31.4483, 126.513, -150.563, 128.681, 89.4265, 0, 0, 2.3061, -54.5223, 2.31974, -173.637, 2.28066, 66.3526, 0.069526, 41.2966
1, 3060.00000, 127.262, -31.4483, 126.513, -150.563, 128.681, 89.4265, 0, 0, 2.3061, -54.5223, 2.31974, -173.637, 2.28066, 66.3526, 0.069526, 41.2966
1, 3120.00000, 127.262, -31.4483, 126.513, -150.563, 128.681, 89.4265, 0, 0, 2.3061, -54.5223, 2.31974, -173.637, 2.28066, 66.3526, 0.069526, 41.2966
1, 3180.00000, 127.262, -31.4483, 126.513, -150.563, 128.681, 89.4265, 0, 0, 2.3061, -54.5223, 2.31974, -173.637, 2.28066, 66.3526, 0.0695261, 41.2966
1, 3240.00000, 127.262, -31.4483, 126.513, -150.563, 128.681, 89.4265, 0, 0, 2.3061, -54.5223, 2.31974, -173.637, 2.28066, 66.3526, 0.0695261, 41.2966
1, 3300.00000, 127.262, -31.4483, 126.513, -150.563, 128.681, 89.4265, 0, 0, 2.3061, -54.5223, 2.31974, -173.637, 2.28066, 66.3526, 0.0695261, 41.2966
1, 3360.00000, 127.262, -31.4483, 126.513, -150.563, 128.681, 89.4265, 0, 0, 2.3061, -54.5223, 2.31974, -173.637, 2.28066, 66.3526, 0.0695261, 41.2966
1, 3420.00000, 127.262, -31.4483, 126.513, -150.563, 128.681, 89.4265, 0, 0, 2.3061, -54.5223, 2.31974, -173.637, 2.28066, 66.3526, 0.0695261, 41.2966
1, 3480.00000, 127.262, -31.4483, 126.513, -150.563, 128.681, 89.4265, 0, 0, 2.3061, -54.5223, 2.31974, -173.637, 2.28066, 66.3526, 0.0695261, 41.2966
1, 3540.00000, 127.262, -31.4483, 126.513, -150.563, 128.681, 89.4265, 0, 0, 2.3061, -54.5223, 2.31974, -173.637, 2.28066, 66.3526, 0.0695261, 41.2966
2, 0.00000, 127.262, -31.4483, 126.513, -150.563, 128.681, 89.4265, 0, 0, 2.3061, -54.5223, 2.31974, -173.637, 2.28066, 66.3526, 0.0695261, 41.2966
2, 60.00000, 127.262, -31.4483, 126.513, -150.563, 128.681, 89.4265, 0, 0, 2.3061, -54.5223, 2.31974, -173.637, 2.28066, 66.3526, 0.0695261, 41.2966
2, 120.00000, 127.257, -31.4494, 126.509, -150.564, 128.677, 89.4255, 0, 0, 2.31257, -54.5234, 2.32625, -173.638, 2.28705, 66.3515, 0.0697213, 41.3015
2, 180.00000, 127.251, -31.4505, 126.504, -150.565, 128.672, 89.4244, 0, 0, 2.31913, -54.5245, 2.33283, -173.639, 2.29353, 66.3505, 0.0699189, 41.3065
2, 240.00000, 127.246, -31.4516, 126.499, -150.567, 128.667, 89.4233, 0, 0, 2.3256, -54.5256, 2.33933, -173.64, 2.29992, 66.3494, 0.0701141, 41.3114
2, 300.00000, 127.241, -31.4527, 126.495, -150.568, 128.662, 89.4223, 0, 0, 2.33208, -54.5267, 2.34584, -173.642, 2.30632, 66.3484, 0.0703094, 41.3164
2, 360.00000, 127.235, -31.4538, 126.49, -150.569, 128.657, 89.4212, 0, 0, 2.33864, -54.5278, 2.35242, -173.643, 2.31279, 66.3473, 0.070507, 41.3214
2, 420.00000, 127.23, -31.4549, 126.485, -150.57, 128.653, 89.4202, 0, 0, 2.34512, -54.5289, 2.35893, -173.644, 2.31919, 66.3462, 0.0707023, 41.3263
2, 480.00000, 127.225, -31.456, 126.481, -150.571, 128.648, 89.4191, 0, 0, 2.35159, -54.53, 2.36543, -173.645, 2.32558, 66.3452, 0.0708976, 41.3312
2, 540.00000, 127.22, -31.4572, 126.476, -150.572, 128.643, 89.418, 0, 0, 2.35815, -54.5311, 2.37202, -173.646, 2.33206, 66.3441, 0.0710953, 41.3362
2, 600.00000, 127.214, -31.4583, 126.471, -150.573, 128.638, 89.417, 0, 0, 2.36463, -54.5322, 2.37853, -173.647, 2.33846, 66.343, 0.0712906, 41.3412
2, 660.00000, 127.209, -31.4594, 126.467, -150.575, 128.634, 89.4159, 0, 0, 2.37111, -54.5333, 2.38503, -173.648, 2.34486, 66.342, 0.071486, 41.3461
2, 720.00000, 127.204, -31.4605, 126.462, -150.576, 128.629, 89.4148, 0, 0, 2.37767, -54.5344, 2.39162, -173.65, 2.35133, 66.3409, 0.0716837, 41.3511
