hour,t(sec),V1,VAngle1,V2,VAngle2,V3,VAngle3,V4,VAngle4,I1,IAngle1,I2,IAngle2,I3,IAngle3,I4,IAngle4
0, 60.00000, 121.522, -31.1168, 125.094, -150.204, 124.863, 88.3507, 0, 0, 2.34347, -54.1907, 2.27659, -173.278, 2.28076, 65.277, 0.114798, 123.934
0, 120.00000, 121.522, -31.1167, 125.117, -150.205, 124.873, 88.3424, 0, 0, 2.34346, -54.1907, 2.27617, -173.279, 2.28057, 65.2686, 0.115354, 124.128
0, 180.00000, 121.523, -31.1167, 125.138, -150.205, 124.883, 88.3349, 0, 0, 2.34346, -54.1907, 2.27579, -173.279, 2.2804, 65.2611, 0.115855, 124.302
0, 240.00000, 121.523, -31.1167, 125.156, -150.205, 124.891, 88.3282, 0, 0, 2.34345, -54.1906, 2.27545, -173.279, 2.28025, 65.2544, 0.116307, 124.456
0, 300.00000, 122.822, -31.2325, 125.088, -150.212, 125.92, 88.6905, 0, 0, 2.31867, -54.3064, 2.27668, -173.286, 2.26162, 65.6167, 0.0929462, 105.886
0, 360.00000, 122.822, -31.2325, 125.103, -150.212, 125.927, 88.6851, 0, 0, 2.31866, -54.3064, 2.27641, -173.286, 2.2615, 65.6113, 0.0932111, 106.106
0, 420.00000, 122.822, -31.2325, 125.117, -150.212, 125.933, 88.6801, 0, 0, 2.31866, -54.3064, 2.27616, -173.286, 2.26139, 65.6064, 0.0934511, 106.303
0, 480.00000, 122.822, -31.2326, 125.129, -150.213, 125.938, 88.6757, 0, 0, 2.31866, -54.3065, 2.27594, -173.286, 2.26129, 65.6019, 0.0936679, 106.479
0, 540.00000, 122.822, -31.2326, 125.14, -150.213, 125.943, 88.6717, 0, 0, 2.31866, -54.3065, 2.27573, -173.287, 2.2612, 65.5979, 0.0938637, 106.637
0, 600.00000, 122.822, -31.2326, 125.15, -150.213, 125.948, 88.6681, 0, 0, 2.31866, -54.3065, 2.27555, -173.287, 2.26112, 65.5943, 0.0940406, 106.779
0, 660.00000, 122.822, -31.2326, 125.159, -150.213, 125.952, 88.6649, 0, 0, 2.31865, -54.3065, 2.27539, -173.287, 2.26105, 65.5911, 0.0942001, 106.906
0, 720.00000, 122.822, -31.2326, 125.167, -150.213, 125.955, 88.662, 0, 0, 2.31865, -54.3066, 2.27524, -173.287, 2.26098, 65.5882, 0.0943441, 107.02
0, 780.00000, 122.823, -31.2327, 125.174, -150.213, 125.959, 88.6594, 0, 0, 2.31865, -54.3066, 2.27511, -173.287, 2.26092, 65.5856, 0.094474, 107.122
0, 840.00000, 122.823, -31.2327, 125.18, -150.214, 125.962, 88.657, 0, 0, 2.31865, -54.3066, 2.27499, -173.287, 2.26087, 65.5832, 0.0945912, 107.214
0, 900.00000, 122.823, -31.2327, 125.186, -150.214, 125.964, 88.6549, 0, 0, 2.31865, -54.3066, 2.27489, -173.287, 2.26082, 65.5811, 0.0946968, 107.296
0, 960.00000, 122.823, -31.2327, 125.191, -150.214, 125.967, 88.653, 0, 0, 2.31865, -54.3066, 2.27479, -173.288, 2.26078, 65.5792, 0.094792, 107.37
0, 1020.00000, 122.823, -31.2327, 125.196, -150.214, 125.969, 88.6513, 0, 0, 2.31865, -54.3066, 2.2747, -173.288, 2.26074, 65.5774, 0.0948778, 107.437
0, 1080.00000, 122.823, -31.2327, 125.2, -150.214, 125.971, 88.6498, 0, 0, 2.31865, -54.3066, 2.27463, -173.288, 2.26071, 65.5759, 0.0949551, 107.497
0, 1140.00000, 122.823, -31.2327, 125.204, -150.214, 125.972, 88.6484, 0, 0, 2.31865, -54.3066, 2.27456, -173.288, 2.26068, 65.5745, 0.0950248, 107.55
0, 1200.00000, 122.823, -31.2327, 125.207, -150.214, 125.974, 88.6471, 0, 0, 2.31865, -54.3066, 2.27449, -173.288, 2.26065, 65.5732, 0.0950876, 107.599
0, 1260.00000, 122.823, -31.2327, 125.211, -150.214, 125.975, 88.646, 0, 0, 2.31865, -54.3066, 2.27444, -173.288, 2.26062, 65.5721, 0.0951441, 107.642
0, 1320.00000, 122.823, -31.2327, 125.213, -150.214, 125.977, 88.645, 0, 0, 2.31865, -54.3067, 2.27438, -173.288, 2.2606, 65.5711, 0.0951951, 107.681
0, 1380.00000, 122.823, -31.2327, 125.216, -150.214, 125.978, 88.6441, 0, 0, 2.31865, -54.3067, 2.27434, -173.288, 2.26058, 65.5702, 0.0952409, 107.716
0, 1440.00000, 122.823, -31.2328, 125.218, -150.214, 125.979, 88.6432, 0, 0, 2.31865, -54.3067, 2.2743, -173.288, 2.26056, 65.5693, 0.0952823, 107.748
0, 1500.00000, 122.823, -31.2328, 125.22, -150.214, 125.98, 88.6425, 0, 0, 2.31864, -54.3067, 2.27426, -173.288, 2.26054, 65.5686, 0.0953195, 107.776
0, 1560.00000, 122.823, -31.2328, 125.222, -150.214, 125.981, 88.6418, 0, 0, 2.31864, -54.3067, 2.27423, -173.288, 2.26053, 65.5679, 0.095353, 107.802
0, 1620.00000, 122.823, -31.2328, 125.224, -150.214, 125.981, 88.6412, 0, 0, 2.31864, -54.3067, 2.2742, -173.288, 2.26052, 65.5673, 0.0953832, 107.825
0, 1680.00000, 122.823, -31.2328, 125.225, -150.214, 125.982, 88.6407, 0, 0, 2.31864, -54.3067, 2.27417, -173.288, 2.2605, 65.5668, 0.0954103, 107.845
0, 1740.00000, 122.823, -31.2328, 125.226, -150.214, 125.983, 88.6402, 0, 0, 2.31864, -54.3067, 2.27414, -173.288, 2.26049, 65.5663, 0.0954348, 107.864
0, 1800.00000, 122.823, -31.2328, 125.228, -150.214, 125.983, 88.6398, 0, 0, 2.31864, -54.3067, 2.27412, -173.288, 2.26048, 65.5659, 0.0954568, 107.881
0, 1860.00000, 122.823, -31.2328, 125.229, -150.214, 125.984, 88.6394, 0, 0, 2.31864, -54.3067, 2.2741, -173.288, 2.26047, 65.5655, 0.0954766, 107.896
0, 1920.00000, 122.823, -31.2328, 125.23, -150.214, 125.984, 88.639, 0, 0, 2.31864, -54.3067, 2.27408, -173.288, 2.26047, 65.5651, 0.0954945, 107.909
0, 1980.00000, 122.823, -31.2328, 125.231, -150.214, 125.984, 88.6387, 0, 0, 2.31864, -54.3067, 2.27407, -173.288, 2.26046, 65.5648, 0.0955105, 107.922
0, 2040.00000, 122.823, -31.2328, 125.231, -150.214, 125.985, 88.6384, 0, 0, 2.31864, -54.3067, 2.27405, -173.288, 2.26045, 65.5645, 0.095525, 107.932
0, 2100.00000, 122.823, -31.2328, 125.232, -150.214, 125.985, 88.6382, 0, 0, 2.31864, -54.3067, 2.27404, -173.288, 2.26045, 65.5642, 0.095538, 107.942
0, 2160.00000, 122.823, -31.2328, 125.233, -150.214, 125.985, 88.6379, 0, 0, 2.31864, -54.3067, 2.27403, -173.288, 2.26044, 65.564, 0.0955498, 107.951
0, 2220.00000, 122.952, -31.0636, 125.641, -150.175, 125.983, 88.6363, 0, 0, 2.31621, -54.1375, 2.26664, -173.249, 2.26048, 65.5624, 0.0949997, 115.684
0, 2280.00000, 122.952, -31.0636, 125.641, -150.175, 125.984, 88.6362, 0, 0, 2.31621, -54.1375, 2.26663, -173.249, 2.26047, 65.5622, 0.0950105, 115.691
0, 2340.00000, 122.952, -31.0636, 125.642, -150.175, 125.984, 88.636, 0, 0, 2.31621, -54.1375, 2.26662, -173.249, 2.26047, 65.5621, 0.0950205, 115.697
0, 2400.00000, 122.952, -31.0636, 125.642, -150.175, 125.984, 88.6358, 0, 0, 2.31621, -54.1375, 2.26661, -173.249, 2.26047, 65.5619, 0.0950294, 115.702
0, 2460.00000, 122.952, -31.0636, 125.643, -150.175, 125.984, 88.6357, 0, 0, 2.31621, -54.1375, 2.26661, -173.249, 2.26046, 65.5618, 0.0950374, 115.707
0, 2520.00000, 122.952, -31.0636, 125.643, -150.175, 125.984, 88.6356, 0, 0, 2.31621, -54.1375, 2.2666, -173.249, 2.26046, 65.5617, 0.0950447, 115.711
0, 2580.00000, 122.952, -31.0636, 125.643, -150.175, 125.985, 88.6355, 0, 0, 2.31621, -54.1375, 2.2666, -173.249, 2.26046, 65.5615, 0.0950512, 115.714
0, 2640.00000, 122.952, -31.0636, 125.644, -150.175, 125.985, 88.6354, 0, 0, 2.31621, -54.1375, 2.26659, -173.249, 2.26046, 65.5614, 0.095057, 115.718
0, 2700.00000, 122.952, -31.0636, 125.644, -150.175, 125.985, 88.6353, 0, 0, 2.31621, -54.1375, 2.26659, -173.249, 2.26045, 65.5614, 0.0950623, 115.721
0, 2760.00000, 122.952, -31.0636, 125.644, -150.175, 125.985, 88.6352, 0, 0, 2.31621, -54.1375, 2.26658, -173.249, 2.26045, 65.5613, 0.095067, 115.724
0, 2820.00000, 122.952, -31.0636, 125.644, -150.175, 125.985, 88.6351, 0, 0, 2.31621, -54.1375, 2.26658, -173.249, 2.26045, 65.5612, 0.0950713, 115.726
0, 2880.00000, 122.952, -31.0636, 125.644, -150.175, 125.985, 88.635, 0, 0, 2.31621, -54.1375, 2.26658, -173.249, 2.26045, 65.5611, 0.0950752, 115.728
0, 2940.00000, 122.952, -31.0636, 125.645, -150.175, 125.985, 88.635, 0, 0, 2.31621, -54.1375, 2.26657, -173.249, 2.26045, 65.5611, 0.0950786, 115.73
0, 3000.00000, 122.952, -31.0636, 125.645, -150.175, 125.985, 88.6349, 0, 0, 2.31621, -54.1375, 2.26657, -173.249, 2.26045, 65.561, 0.0950817, 115.732
0, 3060.00000, 122.952, -31.0636, 125.645, -150.175, 125.985, 88.6349, 0, 0, 2.31621, -54.1375, 2.26657, -173.249, 2.26044, 65.561, 0.0950845, 115.734
0, 3120.00000, 122.952, -31.0636, 125.645, -150.175, 125.985, 88.6348, 0, 0, 2.31621, -54.1375, 2.26657, -173.249, 2.26044, 65.5609, 0.0950871, 115.735
0, 3180.00000, 122.952, -31.0636, 125.645, -150.175, 125.985, 88.6348, 0, 0, 2.31621, -54.1375, 2.26656, -173.249, 2.26044, 65.5609, 0.0950893, 115.736
0, 3240.00000, 122.952, -31.0636, 125.645, -150.175, 125.985, 88.6348, 0, 0, 2.31621, -54.1375, 2.26656, -173.249, 2.26044, 65.5609, 0.0950914, 115.738
0, 3300.00000, 122.952, -31.0636, 125.645, -150.175, 125.985, 88.6347, 0, 0, 2.31621, -54.1375, 2.26656, -173.249, 2.26044, 65.5608, 0.0950932, 115.739
0, 3360.00000, 122.952, -31.0636, 125.645, -150.175, 125.985, 88.6347, 0, 0, 2.31621, -54.1375, 2.26656, -173.249, 2.26044, 65.5608, 0.0950949, 115.74
0, 3420.00000, 122.952, -31.0636, 125.645, -150.175, 125.985, 88.6347, 0, 0, 2.31621, -54.1375, 2.26656, -173.249, 2.26044, 65.5608, 0.0950964, 115.74
0, 3480.00000, 122.952, -31.0636, 125.646, -150.175, 125.985, 88.6347, 0, 0, 2.31621, -54.1375, 2.26656, -173.249, 2.26044, 65.5607, 0.0950977, 115.741
0, 3540.00000, 122.952, -31.0636, 125.646, -150.175, 125.986, 88.6346, 0, 0, 2.31621, -54.1375, 2.26656, -173.249, 2.26044, 65.5607, 0.0950989, 115.742
1, 0.00000, 122.952, -31.0636, 125.646, -150.175, 125.986, 88.6346, 0, 0, 2.31621, -54.1375, 2.26655, -173.249, 2.26044, 65.5607, 0.0951, 115.742
1, 60.00000, 122.952, -31.0636, 125.646, -150.175, 125.986, 88.6346, 0, 0, 2.31621, -54.1375, 2.26655, -173.249, 2.26044, 65.5607, 0.095101, 115.743
1, 120.00000, 122.952, -31.0636, 125.646, -150.175, 125.986, 88.6346, 0, 0, 2.31621, -54.1375, 2.26655, -173.249, 2.26044, 65.5607, 0.0951018, 115.744
1, 180.00000, 122.952, -31.0636, 125.646, -150.175, 125.986, 88.6346, 0, 0, 2.31621, -54.1375, 2.26655, -173.249, 2.26044, 65.5607, 0.0951026, 115.744
1, 240.00000, 122.952, -31.0636, 125.646, -150.175, 125.986, 88.6346, 0, 0, 2.31621, -54.1375, 2.26655, -173.249, 2.26044, 65.5606, 0.0951034, 115.744
1, 300.00000, 122.952, -31.0636, 125.646, -150.175, 125.986, 88.6346, 0, 0, 2.31621, -54.1375, 2.26655, -173.249, 2.26044, 65.5606, 0.095104, 115.745
1, 360.00000, 122.952, -31.0636, 125.646, -150.175, 125.986, 88.6345, 0, 0, 2.31621, -54.1375, 2.26655, -173.249, 2.26044, 65.5606, 0.0951046, 115.745
1, 420.00000, 122.952, -31.0636, 125.646, -150.175, 125.986, 88.6345, 0, 0, 2.31621, -54.1375, 2.26655, -173.249, 2.26044, 65.5606, 0.0951051, 115.745
1, 480.00000, 122.952, -31.0636, 125.646, -150.175, 125.986, 88.6345, 0, 0, 2.31621, -54.1375, 2.26655, -173.249, 2.26044, 65.5606, 0.0951056, 115.746
1, 540.00000, 122.952, -31.0636, 125.646, -150.175, 125.986, 88.6345, 0, 0, 2.31621, -54.1375, 2.26655, -173.249, 2.26044, 65.5606, 0.095106, 115.746
1, 600.00000, 122.952, -31.0636, 125.646, -150.175, 125.986, 88.6345, 0, 0, 2.31621, -54.1375, 2.26655, -173.249, 2.26044, 65.5606, 0.0951064, 115.746
1, 660.00000, 123.35, -31.0201, 125.644, -150.173, 126.109, 88.7987, 0, 0, 2.30874, -54.094, 2.26659, -173.247, 2.25822, 65.7248, 0.0841267, 111.998
1, 720.00000, 123.35, -31.0201, 125.644, -150.173, 126.109, 88.7987, 0, 0, 2.30874, -54.094, 2.26659, -173.247, 2.25822, 65.7248, 0.0841267, 111.998
1, 780.00000, 124.581, -30.5668, 127.116, -150.431, 126.032, 88.8122, 0, 0, 2.28593, -53.6407, 2.24033, -173.504, 2.2596, 65.7383, 0.0671637, 149.286
1, 840.00000, 124.581, -30.5668, 127.116, -150.431, 126.032, 88.8122, 0, 0, 2.28593, -53.6407, 2.24033, -173.504, 2.2596, 65.7383, 0.067164, 149.287
1, 900.00000, 124.581, -30.5668, 127.116, -150.431, 126.032, 88.8122, 0, 0, 2.28593, -53.6407, 2.24033, -173.504, 2.2596, 65.7383, 0.0671643, 149.287
1, 960.00000, 124.581, -30.5668, 127.116, -150.431, 126.032, 88.8122, 0, 0, 2.28593, -53.6407, 2.24033, -173.504, 2.2596, 65.7383, 0.0671646, 149.287
1, 1020.00000, 124.581, -30.5668, 127.117, -150.431, 126.032, 88.8122, 0, 0, 2.28593, -53.6407, 2.24033, -173.504, 2.2596, 65.7383, 0.0671649, 149.287
1, 1080.00000, 124.581, -30.5668, 127.117, -150.431, 126.032, 88.8122, 0, 0, 2.28593, -53.6407, 2.24033, -173.504, 2.2596, 65.7383, 0.0671651, 149.287
1, 1140.00000, 124.581, -30.5668, 127.117, -150.431, 126.032, 88.8122, 0, 0, 2.28593, -53.6407, 2.24033, -173.504, 2.2596, 65.7383, 0.0671653, 149.287
1, 1200.00000, 124.581, -30.5668, 127.117, -150.431, 126.032, 88.8122, 0, 0, 2.28593, -53.6407, 2.24033, -173.504, 2.2596, 65.7383, 0.0671654, 149.287
1, 1260.00000, 124.581, -30.5668, 127.117, -150.431, 126.032, 88.8122, 0, 0, 2.28593, -53.6407, 2.24033, -173.504, 2.2596, 65.7383, 0.0671656, 149.287
1, 1320.00000, 124.581, -30.5668, 127.117, -150.431, 126.032, 88.8122, 0, 0, 2.28593, -53.6407, 2.24033, -173.504, 2.2596, 65.7383, 0.0671658, 149.287
1, 1380.00000, 124.581, -30.5668, 127.117, -150.431, 126.032, 88.8122, 0, 0, 2.28593, -53.6407, 2.24033, -173.504, 2.2596, 65.7383, 0.0671659, 149.287
1, 1440.00000, 124.581, -30.5668, 127.117, -150.431, 126.032, 88.8122, 0, 0, 2.28593, -53.6407, 2.24033, -173.504, 2.2596, 65.7383, 0.067166, 149.287
1, 1500.00000, 124.581, -30.5668, 127.117, -150.431, 126.032, 88.8122, 0, 0, 2.28593, -53.6407, 2.24033, -173.504, 2.2596, 65.7383, 0.0671661, 149.287
1, 1560.00000, 124.581, -30.5668, 127.117, -150.431, 126.032, 88.8122, 0, 0, 2.28593, -53.6407, 2.24033, -173.504, 2.2596, 65.7383, 0.0671662, 149.287
1, 1620.00000, 124.581, -30.5668, 127.117, -150.431, 126.032, 88.8122, 0, 0, 2.28593, -53.6407, 2.24033, -173.504, 2.2596, 65.7383, 0.0671663, 149.287
1, 1680.00000, 124.581, -30.5668, 127.117, -150.431, 126.032, 88.8122, 0, 0, 2.28593, -53.6407, 2.24033, -173.504, 2.2596, 65.7383, 0.0671664, 149.287
1, 1740.00000, 124.581, -30.5668, 127.117, -150.431, 126.032, 88.8122, 0, 0, 2.28593, -53.6407, 2.24033, -173.504, 2.2596, 65.7383, 0.0671664, 149.287
1, 1800.00000, 124.581, -30.5668, 127.117, -150.431, 126.032, 88.8122, 0, 0, 2.28593, -53.6407, 2.24033, -173.504, 2.2596, 65.7383, 0.0671665, 149.287
1, 1860.00000, 124.581, -30.5668, 127.117, -150.431, 126.032, 88.8122, 0, 0, 2.28593, -53.6407, 2.24033, -173.504, 2.2596, 65.7383, 0.0671666, 149.287
1, 1920.00000, 124.581, -30.5668, 127.117, -150.431, 126.032, 88.8122, 0, 0, 2.28593, -53.6407, 2.24033, -173.504, 2.2596, 65.7383, 0.0671666, 149.287
1, 1980.00000, 124.581, -30.5668, 127.117, -150.431, 126.032, 88.8122, 0, 0, 2.28593, -53.6407, 2.24033, -173.504, 2.2596, 65.7383, 0.0671667, 149.287
1, 2040.00000, 124.581, -30.5668, 127.117, -150.431, 126.032, 88.8122, 0, 0, 2.28593, -53.6407, 2.24033, -173.504, 2.2596, 65.7383, 0.0671667, 149.287
1, 2100.00000, 124.581, -30.5668, 127.117, -150.431, 126.032, 88.8122, 0, 0, 2.28593, -53.6407, 2.24033, -173.504, 2.2596, 65.7383, 0.0671667, 149.287
1, 2160.00000, 124.581, -30.5668, 127.117, -150.431, 126.032, 88.8122, 0, 0, 2.28593, -53.6407, 2.24033, -173.504, 2.2596, 65.7383, 0.0671668, 149.287
1, 2220.00000, 124.581, -30.5668, 127.117, -150.431, 126.032, 88.8122, 0, 0, 2.28593, -53.6407, 2.24033, -173.504, 2.2596, 65.7383, 0.0671668, 149.287
1, 2280.00000, 124.581, -30.5668, 127.117, -150.431, 126.032, 88.8122, 0, 0, 2.28593, -53.6407, 2.24033, -173.504, 2.2596, 65.7383, 0.0671668, 149.287
1, 2340.00000, 124.581, -30.5668, 127.117, -150.431, 126.032, 88.8122, 0, 0, 2.28593, -53.6407, 2.24033, -173.504, 2.2596, 65.7383, 0.0671668, 149.287
1, 2400.00000, 124.581, -30.5668, 127.117, -150.431, 126.032, 88.8122, 0, 0, 2.28593, -53.6407, 2.24033, -173.504, 2.2596, 65.7383, 0.0671669, 149.287
1, 2460.00000, 124.581, -30.5668, 127.117, -150.431, 126.032, 88.8122, 0, 0, 2.28593, -53.6407, 2.24033, -173.504, 2.2596, 65.7383, 0.0671669, 149.287
1, 2520.00000, 124.581, -30.5668, 127.117, -150.431, 126.032, 88.8122, 0, 0, 2.28593, -53.6407, 2.24033, -173.504, 2.2596, 65.7383, 0.0671669, 149.287
1, 2580.00000, 124.581, -30.5668, 127.117, -150.431, 126.032, 88.8122, 0, 0, 2.28593, -53.6407, 2.24033, -173.504, 2.2596, 65.7383, 0.0671669, 149.287
1, 2640.00000, 124.581, -30.5668, 127.117, -150.431, 126.032, 88.8122, 0, 0, 2.28593, -53.6407, 2.24033, -173.504, 2.2596, 65.7383, 0.0671669, 149.287
1, 2700.00000, 124.581, -30.5668, 127.117, -150.431, 126.032, 88.8122, 0, 0, 2.28593, -53.6407, 2.24033, -173.504, 2.2596, 65.7383, 0.067167, 149.287
1, 2760.00000, 124.581, -30.5668, 127.117, -150.431, 126.032, 88.8122, 0, 0, 2.28593, -53.6407, 2.24033, -173.504, 2.2596, 65.7383, 0.067167, 149.287
1, 2820.00000, 124.581, -30.5668, 127.117, -150.431, 126.032, 88.8122, 0, 0, 2.28593, -53.6407, 2.24033, -173.504, 2.2596, 65.7383, 0.067167, 149.287
1, 2880.00000, 124.581, -30.5668, 127.117, -150.431, 126.032, 88.8122, 0, 0, 2.28593, -53.6407, 2.24033, -173.504, 2.2596, 65.7383, 0.067167, 149.287
1, 2940.00000, 124.581, -30.5668, 127.117, -150.431, 126.032, 88.8122, 0, 0, 2.28593, -53.6407, 2.24033, -173.504, 2.2596, 65.7383, 0.067167, 149.287
1, 3000.00000, 124.581, -30.5668, 127.117, -150.431, 126.032, 88.8122, 0, 0, 2.28593, -53.6407, 2.24033, -173.504, 2.2596, 65.7383, 0.067167, 149.287
1, 3060.00000, 124.581, -30.5668, 127.117, -150.431, 126.032, 88.8122, 0, 0, 2.28593, -53.6407, 2.24033, -173.504, 2.2596, 65.7383, 0.067167, 149.287
1, 3120.00000, 124.581, -30.5668, 127.117, -150.431, 126.032, 88.8122, 0, 0, 2.28593, -53.6407, 2.24033, -173.504, 2.2596, 65.7383, 0.067167, 149.287
1, 3180.00000, 124.581, -30.5668, 127.117, -150.431, 126.032, 88.8122, 0, 0, 2.28593, -53.6407, 2.24033, -173.504, 2.2596, 65.7383, 0.067167, 149.287
1, 3240.00000, 124.581, -30.5668, 127.117, -150.431, 126.032, 88.8122, 0, 0, 2.28593, -53.6407, 2.24033, -173.504, 2.2596, 65.7383, 0.067167, 149.287
1, 3300.00000, 124.581, -30.5668, 127.117, -150.431, 126.032, 88.8122, 0, 0, 2.28593, -53.6407, 2.24033, -173.504, 2.2596, 65.7383, 0.067167, 149.287
1, 3360.00000, 124.581, -30.5668, 127.117, -150.431, 126.032, 88.8122, 0, 0, 2.28593, -53.6407, 2.24033, -173.504, 2.2596, 65.7383, 0.067167, 149.287
1, 3420.00000, 124.581, -30.5668, 127.117, -150.431, 126.032, 88.8122, 0, 0, 2.28593, -53.6407, 2.24033, -173.504, 2.2596, 65.7383, 0.067167, 149.287
1, 3480.00000, 124.581, -30.5668, 127.117, -150.431, 126.032, 88.8122, 0, 0, 2.28593, -53.6407, 2.24033, -173.504, 2.2596, 65.7383, 0.067167, 149.287
1, 3540.00000, 124.581, -30.5668, 127.117, -150.431, 126.032, 88.8122, 0, 0, 2.28593, -53.6407, 2.24033, -173.504, 2.2596, 65.7383, 0.067167, 149.287
2, 0.00000, 124.581, -30.5668, 127.117, -150.431, 126.032, 88.8122, 0, 0, 2.28593, -53.6407, 2.24033, -173.504, 2.2596, 65.7383, 0.067167, 149.287
2, 60.00000, 124.581, -30.5668, 127.117, -150.431, 126.032, 88.8122, 0, 0, 2.28593, -53.6407, 2.24033, -173.504, 2.2596, 65.7383, 0.067167, 149.287
2, 120.00000, 124.572, -30.5678, 127.109, -150.431, 126.024, 88.8114, 0, 0, 2.29242, -53.6417, 2.24666, -173.505, 2.266, 65.7375, 0.0673729, 149.28
2, 180.00000, 124.563, -30.5689, 127.101, -150.432, 126.016, 88.8106, 0, 0, 2.29898, -53.6428, 2.25307, -173.506, 2.27247, 65.7367, 0.0675813, 149.273
2, 240.00000, 124.554, -30.5699, 127.094, -150.433, 126.008, 88.8099, 0, 0, 2.30547, -53.6438, 2.2594, -173.507, 2.27887, 65.7359, 0.0677874, 149.266
2, 300.00000, 124.545, -30.571, 127.086, -150.434, 126, 88.8091, 0, 0, 2.31196, -53.6449, 2.26573, -173.508, 2.28527, 65.7352, 0.0679936, 149.258
2, 360.00000, 124.537, -30.572, 127.079, -150.435, 125.992, 88.8083, 0, 0, 2.31852, -53.6459, 2.27214, -173.509, 2.29174, 65.7344, 0.0682024, 149.251
2, 420.00000, 124.528, -30.5731, 127.071, -150.436, 125.984, 88.8075, 0, 0, 2.32501, -53.647, 2.27848, -173.51, 2.29814, 65.7336, 0.0684088, 149.244
2, 480.00000, 124.519, -30.5741, 127.064, -150.436, 125.976, 88.8068, 0, 0, 2.33151, -53.648, 2.28482, -173.51, 2.30455, 65.7328, 0.0686154, 149.237
2, 540.00000, 124.51, -30.5752, 127.056, -150.437, 125.968, 88.806, 0, 0, 2.33808, -53.6491, 2.29123, -173.511, 2.31103, 65.7321, 0.0688245, 149.23
2, 600.00000, 124.501, -30.5762, 127.048, -150.438, 125.96, 88.8052, 0, 0, 2.34457, -53.6501, 2.29757, -173.512, 2.31743, 65.7313, 0.0690313, 149.222
2, 660.00000, 124.493, -30.5773, 127.041, -150.439, 125.951, 88.8045, 0, 0, 2.35106, -53.6512, 2.3039, -173.513, 2.32383, 65.7305, 0.0692383, 149.215
2, 720.00000, 124.484, -30.5783, 127.033, -150.44, 125.943, 88.8037, 0, 0, 2.35764, -53.6522, 2.31032, -173.514, 2.33031, 65.7298, 0.0694478, 149.208
