hour,t(sec),V1,VAngle1,V2,VAngle2,V3,VAngle3,V4,VAngle4,I1,IAngle1,I2,IAngle2,I3,IAngle3,I4,IAngle4
0, 60.00000, 125.767, -30.936, 125.581, -150.639, 126.233, 89.4406, 0, 0, 2.26436, -54.0098, 2.26772, -173.713, 2.25601, 66.3667, 0.0234335, 35.668
0, 120.00000, 125.767, -30.936, 125.581, -150.639, 126.233, 89.4406, 0, 0, 2.26437, -54.0099, 2.26772, -173.713, 2.25601, 66.3667, 0.0234421, 35.664
0, 180.00000, 125.767, -30.936, 125.581, -150.639, 126.233, 89.4406, 0, 0, 2.26437, -54.0099, 2.26772, -173.713, 2.25601, 66.3667, 0.0234421, 35.664
0, 240.00000, 125.767, -30.936, 125.581, -150.639, 126.233, 89.4406, 0, 0, 2.26437, -54.0099, 2.26772, -173.713, 2.25601, 66.3667, 0.0234421, 35.664
0, 300.00000, 125.896, -30.7641, 125.985, -150.595, 126.232, 89.4409, 0, 0, 2.26206, -53.8383, 2.26048, -173.669, 2.25603, 66.367, 0.0115305, 49.1753
0, 360.00000, 125.896, -30.764, 125.985, -150.595, 126.231, 89.4409, 0, 0, 2.26204, -53.838, 2.26044, -173.669, 2.25603, 66.367, 0.0114972, 49.2779
0, 420.00000, 125.896, -30.764, 125.985, -150.595, 126.231, 89.4409, 0, 0, 2.26204, -53.838, 2.26044, -173.669, 2.25603, 66.367, 0.0114971, 49.2781
0, 480.00000, 125.896, -30.764, 125.985, -150.595, 126.231, 89.4409, 0, 0, 2.26204, -53.838, 2.26044, -173.669, 2.25603, 66.367, 0.0114971, 49.2781
0, 540.00000, 125.896, -30.764, 125.985, -150.595, 126.231, 89.4409, 0, 0, 2.26204, -53.838, 2.26044, -173.669, 2.25603, 66.367, 0.0114971, 49.2781
0, 600.00000, 125.896, -30.764, 125.985, -150.595, 126.231, 89.4409, 0, 0, 2.26204, -53.838, 2.26044, -173.669, 2.25603, 66.367, 0.0114971, 49.2781
0, 660.00000, 125.896, -30.764, 125.985, -150.595, 126.231, 89.4409, 0, 0, 2.26204, -53.838, 2.26044, -173.669, 2.25603, 66.367, 0.0114971, 49.2781
0, 720.00000, 125.896, -30.764, 125.985, -150.595, 126.231, 89.4409, 0, 0, 2.26204, -53.838, 2.26044, -173.669, 2.25603, 66.367, 0.0114971, 49.2781
0, 780.00000, 125.896, -30.764, 125.985, -150.595, 126.231, 89.4409, 0, 0, 2.26204, -53.838, 2.26044, -173.669, 2.25603, 66.367, 0.0114971, 49.2781
0, 840.00000, 125.896, -30.764, 125.985, -150.595, 126.231, 89.4409, 0, 0, 2.26204, -53.838, 2.26044, -173.669, 2.25603, 66.367, 0.0114971, 49.2781
0, 900.00000, 125.896, -30.764, 125.985, -150.595, 126.231, 89.4409, 0, 0, 2.26204, -53.838, 2.26044, -173.669, 2.25603, 66.367, 0.0114971, 49.2781
0, 960.00000, 125.896, -30.764, 125.985, -150.595, 126.231, 89.4409, 0, 0, 2.26204, -53.838, 2.26044, -173.669, 2.25603, 66.367, 0.0114971, 49.2781
0, 1020.00000, 125.896, -30.764, 125.985, -150.595, 126.231, 89.4409, 0, 0, 2.26204, -53.838, 2.26044, -173.669, 2.25603, 66.367, 0.0114971, 49.2781
0, 1080.00000, 125.896, -30.764, 125.985, -150.595, 126.231, 89.4409, 0, 0, 2.26204, -53.838, 2.26044, -173.669, 2.25603, 66.367, 0.0114971, 49.2781
0, 1140.00000, 125.896, -30.764, 125.985, -150.595, 126.231, 89.4409, 0, 0, 2.26204, -53.838, 2.26044, -173.669, 2.25603, 66.367, 0.0114971, 49.2781
0, 1200.00000, 125.896, -30.764, 125.985, -150.595, 126.231, 89.4409, 0, 0, 2.26204, -53.838, 2.26044, -173.669, 2.25603, 66.367, 0.0114971, 49.2781
0, 1260.00000, 125.896, -30.764, 125.985, -150.595, 126.231, 89.4409, 0, 0, 2.26204, -53.838, 2.26044, -173.669, 2.25603, 66.367, 0.0114971, 49.2781
0, 1320.00000, 125.896, -30.764, 125.985, -150.595, 126.231, 89.4409, 0, 0, 2.26204, -53.838, 2.26044, -173.669, 2.25603, 66.367, 0.0114971, 49.2781
0, 1380.00000, 125.896, -30.764, 125.985, -150.595, 126.231, 89.4409, 0, 0, 2.26204, -53.838, 2.26044, -173.669, 2.25603, 66.367, 0.0114971, 49.2781
0, 1440.00000, 125.896, -30.764, 125.985, -150.595, 126.231, 89.4409, 0, 0, 2.26204, -53.838, 2.26044, -173.669, 2.25603, 66.367, 0.0114971, 49.2781
0, 1500.00000, 125.896, -30.764, 125.985, -150.595, 126.231, 89.4409, 0, 0, 2.26204, -53.838, 2.26044, -173.669, 2.25603, 66.367, 0.0114971, 49.2781
0, 1560.00000, 125.896, -30.764, 125.985, -150.595, 126.231, 89.4409, 0, 0, 2.26204, -53.838, 2.26044, -173.669, 2.25603, 66.367, 0.0114971, 49.2781
0, 1620.00000, 125.896, -30.764, 125.985, -150.595, 126.231, 89.4409, 0, 0, 2.26204, -53.838, 2.26044, -173.669, 2.25603, 66.367, 0.0114971, 49.2781
0, 1680.00000, 125.896, -30.764, 125.985, -150.595, 126.231, 89.4409, 0, 0, 2.26204, -53.838, 2.26044, -173.669, 2.25603, 66.367, 0.0114971, 49.2781
0, 1740.00000, 125.896, -30.764, 125.985, -150.595, 126.231, 89.4409, 0, 0, 2.26204, -53.838, 2.26044, -173.669, 2.25603, 66.367, 0.0114971, 49.2781
0, 1800.00000, 125.896, -30.764, 125.985, -150.595, 126.231, 89.4409, 0, 0, 2.26204, -53.838, 2.26044, -173.669, 2.25603, 66.367, 0.0114971, 49.2781
0, 1860.00000, 125.896, -30.764, 125.985, -150.595, 126.231, 89.4409, 0, 0, 2.26204, -53.838, 2.26044, -173.669, 2.25603, 66.367, 0.0114971, 49.2781
0, 1920.00000, 125.896, -30.764, 125.985, -150.595, 126.231, 89.4409, 0, 0, 2.26204, -53.838, 2.26044, -173.669, 2.25603, 66.367, 0.0114971, 49.2781
0, 1980.00000, 125.896, -30.764, 125.985, -150.595, 126.231, 89.4409, 0, 0, 2.26204, -53.838, 2.26044, -173.669, 2.25603, 66.367, 0.0114971, 49.2781
0, 2040.00000, 125.896, -30.764, 125.985, -150.595, 126.231, 89.4409, 0, 0, 2.26204, -53.838, 2.26044, -173.669, 2.25603, 66.367, 0.0114971, 49.2781
0, 2100.00000, 125.896, -30.764, 125.985, -150.595, 126.231, 89.4409, 0, 0, 2.26204, -53.838, 2.26044, -173.669, 2.25603, 66.367, 0.0114971, 49.2781
0, 2160.00000, 125.896, -30.764, 125.985, -150.595, 126.231, 89.4409, 0, 0, 2.26204, -53.838, 2.26044, -173.669, 2.25603, 66.367, 0.0114971, 49.2781
0, 2220.00000, 125.896, -30.764, 125.985, -150.595, 126.231, 89.4409, 0, 0, 2.26204, -53.838, 2.26044, -173.669, 2.25603, 66.367, 0.0114971, 49.2781
0, 2280.00000, 125.896, -30.764, 125.985, -150.595, 126.231, 89.4409, 0, 0, 2.26204, -53.838, 2.26044, -173.669, 2.25603, 66.367, 0.0114971, 49.2781
0, 2340.00000, 125.896, -30.764, 125.985, -150.595, 126.231, 89.4409, 0, 0, 2.26204, -53.838, 2.26044, -173.669, 2.25603, 66.367, 0.0114971, 49.2781
0, 2400.00000, 125.896, -30.764, 125.985, -150.595, 126.231, 89.4409, 0, 0, 2.26204, -53.838, 2.26044, -173.669, 2.25603, 66.367, 0.0114971, 49.2781
0, 2460.00000, 125.896, -30.764, 125.985, -150.595, 126.231, 89.4409, 0, 0, 2.26204, -53.838, 2.26044, -173.669, 2.25603, 66.367, 0.0114971, 49.2781
0, 2520.00000, 125.896, -30.764, 125.985, -150.595, 126.231, 89.4409, 0, 0, 2.26204, -53.838, 2.26044, -173.669, 2.25603, 66.367, 0.0114971, 49.2781
0, 2580.00000, 125.896, -30.764, 125.985, -150.595, 126.231, 89.4409, 0, 0, 2.26204, -53.838, 2.26044, -173.669, 2.25603, 66.367, 0.0114971, 49.2781
0, 2640.00000, 125.896, -30.764, 125.985, -150.595, 126.231, 89.4409, 0, 0, 2.26204, -53.838, 2.26044, -173.669, 2.25603, 66.367, 0.0114971, 49.2781
0, 2700.00000, 125.896, -30.764, 125.985, -150.595, 126.231, 89.4409, 0, 0, 2.26204, -53.838, 2.26044, -173.669, 2.25603, 66.367, 0.0114971, 49.2781
0, 2760.00000, 125.896, -30.764, 125.985, -150.595, 126.231, 89.4409, 0, 0, 2.26204, -53.838, 2.26044, -173.669, 2.25603, 66.367, 0.0114971, 49.2781
0, 2820.00000, 125.896, -30.764, 125.985, -150.595, 126.231, 89.4409, 0, 0, 2.26204, -53.838, 2.26044, -173.669, 2.25603, 66.367, 0.0114971, 49.2781
0, 2880.00000, 125.896, -30.764, 125.985, -150.595, 126.231, 89.4409, 0, 0, 2.26204, -53.838, 2.26044, -173.669, 2.25603, 66.367, 0.0114971, 49.2781
0, 2940.00000, 125.896, -30.764, 125.985, -150.595, 126.231, 89.4409, 0, 0, 2.26204, -53.838, 2.26044, -173.669, 2.25603, 66.367, 0.0114971, 49.2781
0, 3000.00000, 125.896, -30.764, 125.985, -150.595, 126.231, 89.4409, 0, 0, 2.26204, -53.838, 2.26044, -173.669, 2.25603, 66.367, 0.0114971, 49.2781
0, 3060.00000, 125.896, -30.764, 125.985, -150.595, 126.231, 89.4409, 0, 0, 2.26204, -53.838, 2.26044, -173.669, 2.25603, 66.367, 0.0114971, 49.2781
0, 3120.00000, 125.896, -30.764, 125.985, -150.595, 126.231, 89.4409, 0, 0, 2.26204, -53.838, 2.26044, -173.669, 2.25603, 66.367, 0.0114971, 49.2781
0, 3180.00000, 125.896, -30.764, 125.985, -150.595, 126.231, 89.4409, 0, 0, 2.26204, -53.838, 2.26044, -173.669, 2.25603, 66.367, 0.0114971, 49.2781
0, 3240.00000, 125.896, -30.764, 125.985, -150.595, 126.231, 89.4409, 0, 0, 2.26204, -53.838, 2.26044, -173.669, 2.25603, 66.367, 0.0114971, 49.2781
0, 3300.00000, 125.896, -30.764, 125.985, -150.595, 126.231, 89.4409, 0, 0, 2.26204, -53.838, 2.26044, -173.669, 2.25603, 66.367, 0.0114971, 49.2781
0, 3360.00000, 125.896, -30.764, 125.985, -150.595, 126.231, 89.4409, 0, 0, 2.26204, -53.838, 2.26044, -173.669, 2.25603, 66.367, 0.0114971, 49.2781
0, 3420.00000, 125.896, -30.764, 125.985, -150.595, 126.231, 89.4409, 0, 0, 2.26204, -53.838, 2.26044, -173.669, 2.25603, 66.367, 0.0114971, 49.2781
0, 3480.00000, 125.896, -30.764, 125.985, -150.595, 126.231, 89.4409, 0, 0, 2.26204, -53.838, 2.26044, -173.669, 2.25603, 66.367, 0.0114971, 49.2781
0, 3540.00000, 125.896, -30.764, 125.985, -150.595, 126.231, 89.4409, 0, 0, 2.26204, -53.838, 2.26044, -173.669, 2.25603, 66.367, 0.0114971, 49.2781
1, 0.00000, 125.896, -30.764, 125.985, -150.595, 126.231, 89.4409, 0, 0, 2.26204, -53.838, 2.26044, -173.669, 2.25603, 66.367, 0.0114971, 49.2781
1, 60.00000, 125.896, -30.764, 125.985, -150.595, 126.231, 89.4409, 0, 0, 2.26204, -53.838, 2.26044, -173.669, 2.25603, 66.367, 0.0114971, 49.2781
1, 120.00000, 125.896, -30.764, 125.985, -150.595, 126.231, 89.4409, 0, 0, 2.26204, -53.838, 2.26044, -173.669, 2.25603, 66.367, 0.0114971, 49.2781
1, 180.00000, 125.896, -30.764, 125.985, -150.595, 126.231, 89.4409, 0, 0, 2.26204, -53.838, 2.26044, -173.669, 2.25603, 66.367, 0.0114971, 49.2781
1, 240.00000, 125.896, -30.764, 125.985, -150.595, 126.231, 89.4409, 0, 0, 2.26204, -53.838, 2.26044, -173.669, 2.25603, 66.367, 0.0114971, 49.2781
1, 300.00000, 125.896, -30.764, 125.985, -150.595, 126.231, 89.4409, 0, 0, 2.26204, -53.838, 2.26044, -173.669, 2.25603, 66.367, 0.0114971, 49.2781
1, 360.00000, 125.896, -30.764, 125.985, -150.595, 126.231, 89.4409, 0, 0, 2.26204, -53.838, 2.26044, -173.669, 2.25603, 66.367, 0.0114971, 49.2781
1, 420.00000, 125.896, -30.764, 125.985, -150.595, 126.231, 89.4409, 0, 0, 2.26204, -53.838, 2.26044, -173.669, 2.25603, 66.367, 0.0114971, 49.2781
1, 480.00000, 125.896, -30.764, 125.985, -150.595, 126.231, 89.4409, 0, 0, 2.26204, -53.838, 2.26044, -173.669, 2.25603, 66.367, 0.0114971, 49.2781
1, 540.00000, 125.896, -30.764, 125.985, -150.595, 126.231, 89.4409, 0, 0, 2.26204, -53.838, 2.26044, -173.669, 2.25603, 66.367, 0.0114971, 49.2781
1, 600.00000, 125.896, -30.764, 125.985, -150.595, 126.231, 89.4409, 0, 0, 2.26204, -53.838, 2.26044, -173.669, 2.25603, 66.367, 0.0114971, 49.2781
1, 660.00000, 126.017, -30.5979, 126.376, -150.553, 126.23, 89.441, 0, 0, 2.25987, -53.6718, 2.25348, -173.627, 2.25606, 66.3671, 0.00532982, 132.77
1, 720.00000, 126.017, -30.5979, 126.376, -150.553, 126.23, 89.441, 0, 0, 2.25987, -53.6718, 2.25346, -173.627, 2.25607, 66.3671, 0.00534211, 132.883
1, 780.00000, 126.017, -30.5979, 126.376, -150.553, 126.23, 89.441, 0, 0, 2.25987, -53.6718, 2.25346, -173.627, 2.25607, 66.3671, 0.00534214, 132.884
1, 840.00000, 126.017, -30.5979, 126.376, -150.553, 126.23, 89.441, 0, 0, 2.25987, -53.6718, 2.25346, -173.627, 2.25607, 66.3671, 0.00534214, 132.884
1, 900.00000, 126.017, -30.5979, 126.376, -150.553, 126.23, 89.441, 0, 0, 2.25987, -53.6718, 2.25346, -173.627, 2.25607, 66.3671, 0.00534214, 132.884
1, 960.00000, 126.017, -30.5979, 126.376, -150.553, 126.23, 89.441, 0, 0, 2.25987, -53.6718, 2.25346, -173.627, 2.25607, 66.3671, 0.00534214, 132.884
1, 1020.00000, 126.017, -30.5979, 126.376, -150.553, 126.23, 89.441, 0, 0, 2.25987, -53.6718, 2.25346, -173.627, 2.25607, 66.3671, 0.00534214, 132.884
1, 1080.00000, 126.017, -30.5979, 126.376, -150.553, 126.23, 89.441, 0, 0, 2.25987, -53.6718, 2.25346, -173.627, 2.25607, 66.3671, 0.00534214, 132.884
1, 1140.00000, 126.017, -30.5979, 126.376, -150.553, 126.23, 89.441, 0, 0, 2.25987, -53.6718, 2.25346, -173.627, 2.25607, 66.3671, 0.00534214, 132.884
1, 1200.00000, 126.017, -30.5979, 126.376, -150.553, 126.23, 89.441, 0, 0, 2.25987, -53.6718, 2.25346, -173.627, 2.25607, 66.3671, 0.00534214, 132.884
1, 1260.00000, 126.017, -30.5979, 126.376, -150.553, 126.23, 89.441, 0, 0, 2.25987, -53.6718, 2.25346, -173.627, 2.25607, 66.3671, 0.00534214, 132.884
1, 1320.00000, 126.017, -30.5979, 126.376, -150.553, 126.23, 89.441, 0, 0, 2.25987, -53.6718, 2.25346, -173.627, 2.25607, 66.3671, 0.00534214, 132.884
1, 1380.00000, 126.017, -30.5979, 126.376, -150.553, 126.23, 89.441, 0, 0, 2.25987, -53.6718, 2.25346, -173.627, 2.25607, 66.3671, 0.00534214, 132.884
1, 1440.00000, 126.017, -30.5979, 126.376, -150.553, 126.23, 89.441, 0, 0, 2.25987, -53.6718, 2.25346, -173.627, 2.25607, 66.3671, 0.00534214, 132.884
1, 1500.00000, 126.017, -30.5979, 126.376, -150.553, 126.23, 89.441, 0, 0, 2.25987, -53.6718, 2.25346, -173.627, 2.25607, 66.3671, 0.00534214, 132.884
1, 1560.00000, 126.017, -30.5979, 126.376, -150.553, 126.23, 89.441, 0, 0, 2.25987, -53.6718, 2.25346, -173.627, 2.25607, 66.3671, 0.00534214, 132.884
1, 1620.00000, 126.017, -30.5979, 126.376, -150.553, 126.23, 89.441, 0, 0, 2.25987, -53.6718, 2.25346, -173.627, 2.25607, 66.3671, 0.00534214, 132.884
1, 1680.00000, 126.017, -30.5979, 126.376, -150.553, 126.23, 89.441, 0, 0, 2.25987, -53.6718, 2.25346, -173.627, 2.25607, 66.3671, 0.00534214, 132.884
1, 1740.00000, 126.017, -30.5979, 126.376, -150.553, 126.23, 89.441, 0, 0, 2.25987, -53.6718, 2.25346, -173.627, 2.25607, 66.3671, 0.00534214, 132.884
1, 1800.00000, 126.017, -30.5979, 126.376, -150.553, 126.23, 89.441, 0, 0, 2.25987, -53.6718, 2.25346, -173.627, 2.25607, 66.3671, 0.00534214, 132.884
1, 1860.00000, 126.017, -30.5979, 126.376, -150.553, 126.23, 89.441, 0, 0, 2.25987, -53.6718, 2.25346, -173.627, 2.25607, 66.3671, 0.00534214, 132.884
1, 1920.00000, 126.017, -30.5979, 126.376, -150.553, 126.23, 89.441, 0, 0, 2.25987, -53.6718, 2.25346, -173.627, 2.25607, 66.3671, 0.00534214, 132.884
1, 1980.00000, 126.017, -30.5979, 126.376, -150.553, 126.23, 89.441, 0, 0, 2.25987, -53.6718, 2.25346, -173.627, 2.25607, 66.3671, 0.00534214, 132.884
1, 2040.00000, 126.017, -30.5979, 126.376, -150.553, 126.23, 89.441, 0, 0, 2.25987, -53.6718, 2.25346, -173.627, 2.25607, 66.3671, 0.00534214, 132.884
1, 2100.00000, 126.017, -30.5979, 126.376, -150.553, 126.23, 89.441, 0, 0, 2.25987, -53.6718, 2.25346, -173.627, 2.25607, 66.3671, 0.00534214, 132.884
1, 2160.00000, 126.017, -30.5979, 126.376, -150.553, 126.23, 89.441, 0, 0, 2.25987, -53.6718, 2.25346, -173.627, 2.25607, 66.3671, 0.00534214, 132.884
1, 2220.00000, 126.017, -30.5979, 126.376, -150.553, 126.23, 89.441, 0, 0, 2.25987, -53.6718, 2.25346, -173.627, 2.25607, 66.3671, 0.00534214, 132.884
1, 2280.00000, 126.017, -30.5979, 126.376, -150.553, 126.23, 89.441, 0, 0, 2.25987, -53.6718, 2.25346, -173.627, 2.25607, 66.3671, 0.00534214, 132.884
1, 2340.00000, 126.017, -30.5979, 126.376, -150.553, 126.23, 89.441, 0, 0, 2.25987, -53.6718, 2.25346, -173.627, 2.25607, 66.3671, 0.00534214, 132.884
1, 2400.00000, 126.017, -30.5979, 126.376, -150.553, 126.23, 89.441, 0, 0, 2.25987, -53.6718, 2.25346, -173.627, 2.25607, 66.3671, 0.00534214, 132.884
1, 2460.00000, 126.017, -30.5979, 126.376, -150.553, 126.23, 89.441, 0, 0, 2.25987, -53.6718, 2.25346, -173.627, 2.25607, 66.3671, 0.00534214, 132.884
1, 2520.00000, 126.017, -30.5979, 126.376, -150.553, 126.23, 89.441, 0, 0, 2.25987, -53.6718, 2.25346, -173.627, 2.25607, 66.3671, 0.00534214, 132.884
1, 2580.00000, 126.017, -30.5979, 126.376, -150.553, 126.23, 89.441, 0, 0, 2.25987, -53.6718, 2.25346, -173.627, 2.25607, 66.3671, 0.00534214, 132.884
1, 2640.00000, 126.017, -30.5979, 126.376, -150.553, 126.23, 89.441, 0, 0, 2.25987, -53.6718, 2.25346, -173.627, 2.25607, 66.3671, 0.00534214, 132.884
1, 2700.00000, 126.017, -30.5979, 126.376, -150.553, 126.23, 89.441, 0, 0, 2.25987, -53.6718, 2.25346, -173.627, 2.25607, 66.3671, 0.00534214, 132.884
1, 2760.00000, 126.017, -30.5979, 126.376, -150.553, 126.23, 89.441, 0, 0, 2.25987, -53.6718, 2.25346, -173.627, 2.25607, 66.3671, 0.00534214, 132.884
1, 2820.00000, 126.017, -30.5979, 126.376, -150.553, 126.23, 89.441, 0, 0, 2.25987, -53.6718, 2.25346, -173.627, 2.25607, 66.3671, 0.00534214, 132.884
1, 2880.00000, 126.017, -30.5979, 126.376, -150.553, 126.23, 89.441, 0, 0, 2.25987, -53.6718, 2.25346, -173.627, 2.25607, 66.3671, 0.00534214, 132.884
1, 2940.00000, 126.017, -30.5979, 126.376, -150.553, 126.23, 89.441, 0, 0, 2.25987, -53.6718, 2.25346, -173.627, 2.25607, 66.3671, 0.00534214, 132.884
1, 3000.00000, 126.017, -30.5979, 126.376, -150.553, 126.23, 89.441, 0, 0, 2.25987, -53.6718, 2.25346, -173.627, 2.25607, 66.3671, 0.00534214, 132.884
1, 3060.00000, 126.017, -30.5979, 126.376, -150.553, 126.23, 89.441, 0, 0, 2.25987, -53.6718, 2.25346, -173.627, 2.25607, 66.3671, 0.00534214, 132.884
1, 3120.00000, 126.017, -30.5979, 126.376, -150.553, 126.23, 89.441, 0, 0, 2.25987, -53.6718, 2.25346, -173.627, 2.25607, 66.3671, 0.00534214, 132.884
1, 3180.00000, 126.017, -30.5979, 126.376, -150.553, 126.23, 89.441, 0, 0, 2.25987, -53.6718, 2.25346, -173.627, 2.25607, 66.3671, 0.00534214, 132.884
1, 3240.00000, 126.017, -30.5979, 126.376, -150.553, 126.23, 89.441, 0, 0, 2.25987, -53.6718, 2.25346, -173.627, 2.25607, 66.3671, 0.00534214, 132.884
1, 3300.00000, 126.017, -30.5979, 126.376, -150.553, 126.23, 89.441, 0, 0, 2.25987, -53.6718, 2.25346, -173.627, 2.25607, 66.3671, 0.00534214, 132.884
1, 3360.00000, 126.017, -30.5979, 126.376, -150.553, 126.23, 89.441, 0, 0, 2.25987, -53.6718, 2.25346, -173.627, 2.25607, 66.3671, 0.00534214, 132.884
1, 3420.00000, 126.017, -30.5979, 126.376, -150.553, 126.23, 89.441, 0, 0, 2.25987, -53.6718, 2.25346, -173.627, 2.25607, 66.3671, 0.00534214, 132.884
1, 3480.00000, 126.017, -30.5979, 126.376, -150.553, 126.23, 89.441, 0, 0, 2.25987, -53.6718, 2.25346, -173.627, 2.25607, 66.3671, 0.00534214, 132.884
1, 3540.00000, 126.017, -30.5979, 126.376, -150.553, 126.23, 89.441, 0, 0, 2.25987, -53.6718, 2.25346, -173.627, 2.25607, 66.3671, 0.00534214, 132.884
2, 0.00000, 126.017, -30.5979, 126.376, -150.553, 126.23, 89.441, 0, 0, 2.25987, -53.6718, 2.25346, -173.627, 2.25607, 66.3671, 0.00534214, 132.884
2, 60.00000, 126.017, -30.5979, 126.376, -150.553, 126.23, 89.441, 0, 0, 2.25987, -53.6718, 2.25346, -173.627, 2.25607, 66.3671, 0.00534214, 132.884
2, 120.00000, 126.012, -30.599, 126.371, -150.554, 126.225, 89.4399, 0, 0, 2.26621, -53.6729, 2.25978, -173.628, 2.26239, 66.3661, 0.00536543, 132.873
2, 180.00000, 126.006, -30.6002, 126.366, -150.555, 126.22, 89.4388, 0, 0, 2.27264, -53.6741, 2.26617, -173.629, 2.2688, 66.3649, 0.00538907, 132.854
2, 240.00000, 126.001, -30.6014, 126.361, -150.556, 126.215, 89.4377, 0, 0, 2.27899, -53.6753, 2.2725, -173.63, 2.27513, 66.3638, 0.00541248, 132.836
2, 300.00000, 125.996, -30.6026, 126.356, -150.557, 126.21, 89.4366, 0, 0, 2.28534, -53.6765, 2.27882, -173.631, 2.28147, 66.3627, 0.00543594, 132.817
2, 360.00000, 125.99, -30.6038, 126.351, -150.559, 126.205, 89.4355, 0, 0, 2.29177, -53.6777, 2.28522, -173.632, 2.28788, 66.3616, 0.00545973, 132.799
2, 420.00000, 125.985, -30.605, 126.347, -150.56, 126.2, 89.4344, 0, 0, 2.29812, -53.6789, 2.29154, -173.634, 2.29421, 66.3605, 0.00548329, 132.78
2, 480.00000, 125.979, -30.6062, 126.342, -150.561, 126.195, 89.4333, 0, 0, 2.30447, -53.6801, 2.29787, -173.635, 2.30055, 66.3594, 0.0055069, 132.762
2, 540.00000, 125.974, -30.6074, 126.337, -150.562, 126.19, 89.4322, 0, 0, 2.3109, -53.6813, 2.30427, -173.636, 2.30696, 66.3583, 0.00553085, 132.744
2, 600.00000, 125.969, -30.6086, 126.332, -150.563, 126.185, 89.4311, 0, 0, 2.31726, -53.6825, 2.31059, -173.637, 2.31329, 66.3572, 0.00555456, 132.725
2, 660.00000, 125.963, -30.6098, 126.327, -150.564, 126.18, 89.43, 0, 0, 2.32361, -53.6836, 2.31692, -173.638, 2.31963, 66.3561, 0.00557833, 132.707
2, 720.00000, 125.958, -30.611, 126.322, -150.565, 126.174, 89.4289, 0, 0, 2.33004, -53.6849, 2.32332, -173.639, 2.32604, 66.355, 0.00560243, 132.689
2, 780.00000, 125.952, -30.6122, 126.317, -150.566, 126.169, 89.4278, 0, 0, 2.3364, -53.686, 2.32965, -173.64, 2.33238, 66.3539, 0.0056263, 132.671
