hour,t(sec),V1,VAngle1,V2,VAngle2,V3,VAngle3,V4,VAngle4,I1,IAngle1,I2,IAngle2,I3,IAngle3,I4,IAngle4
0, 60.00000, 127.321, -31.9032, 126.248, -150.712, 129.056, 89.0729, 0, 0, 2.4544, -54.9765, 2.47529, -173.786, 2.42146, 65.9997, 0.0940419, 44.3663
0, 120.00000, 127.328, -31.9184, 126.248, -150.712, 129.089, 89.0671, 0, 0, 2.45427, -54.9917, 2.4753, -173.786, 2.42085, 65.9939, 0.0951676, 44.5129
0, 180.00000, 127.334, -31.932, 126.247, -150.711, 129.118, 89.0618, 0, 0, 2.45416, -55.0054, 2.4753, -173.785, 2.42029, 65.9885, 0.0961816, 44.6424
0, 240.00000, 127.339, -31.9443, 126.247, -150.711, 129.145, 89.0571, 0, 0, 2.45406, -55.0178, 2.47531, -173.785, 2.41979, 65.9837, 0.0970946, 44.757
0, 300.00000, 127.344, -31.9554, 126.247, -150.71, 129.169, 89.0528, 0, 0, 2.45397, -55.0289, 2.47531, -173.784, 2.41934, 65.9794, 0.0979167, 44.8587
0, 360.00000, 127.348, -31.9654, 126.247, -150.71, 129.19, 89.0489, 0, 0, 2.45389, -55.0389, 2.47532, -173.784, 2.41894, 65.9755, 0.098657, 44.9492
0, 420.00000, 127.352, -31.9744, 126.246, -150.71, 129.21, 89.0454, 0, 0, 2.45381, -55.048, 2.47532, -173.784, 2.41857, 65.972, 0.0993234, 45.0297
0, 480.00000, 127.355, -31.9825, 126.246, -150.709, 129.227, 89.0423, 0, 0, 2.45375, -55.0561, 2.47533, -173.783, 2.41825, 65.9688, 0.0999234, 45.1014
0, 540.00000, 127.358, -31.9898, 126.246, -150.709, 129.243, 89.0395, 0, 0, 2.45369, -55.0634, 2.47533, -173.783, 2.41795, 65.9659, 0.100464, 45.1654
0, 600.00000, 127.361, -31.9963, 126.246, -150.709, 129.257, 89.0369, 0, 0, 2.45364, -55.07, 2.47533, -173.783, 2.41769, 65.9633, 0.10095, 45.2225
0, 660.00000, 127.364, -32.0022, 126.246, -150.709, 129.269, 89.0346, 0, 0, 2.45359, -55.0759, 2.47533, -173.783, 2.41745, 65.961, 0.101388, 45.2736
0, 720.00000, 127.366, -32.0075, 126.246, -150.708, 129.281, 89.0325, 0, 0, 2.45355, -55.0813, 2.47534, -173.782, 2.41723, 65.9589, 0.101782, 45.3193
0, 780.00000, 127.368, -32.0123, 126.245, -150.708, 129.291, 89.0307, 0, 0, 2.45351, -55.0861, 2.47534, -173.782, 2.41704, 65.957, 0.102136, 45.3601
0, 840.00000, 127.37, -32.0166, 126.245, -150.708, 129.3, 89.029, 0, 0, 2.45348, -55.0904, 2.47534, -173.782, 2.41687, 65.9553, 0.102456, 45.3967
0, 900.00000, 127.371, -32.0205, 126.245, -150.708, 129.309, 89.0275, 0, 0, 2.45345, -55.0943, 2.47534, -173.782, 2.41671, 65.9538, 0.102743, 45.4295
0, 960.00000, 126.97, -32.2575, 125.602, -150.68, 129.317, 89.0144, 0, 0, 2.46119, -55.3313, 2.48801, -173.753, 2.41656, 65.9407, 0.124714, 45.0872
0, 1020.00000, 126.972, -32.2607, 125.602, -150.679, 129.323, 89.0132, 0, 0, 2.46117, -55.3345, 2.48801, -173.753, 2.41643, 65.9394, 0.124944, 45.1099
0, 1080.00000, 126.973, -32.2635, 125.602, -150.679, 129.329, 89.012, 0, 0, 2.46115, -55.3373, 2.48801, -173.753, 2.41632, 65.9383, 0.125152, 45.1306
0, 1140.00000, 126.974, -32.266, 125.602, -150.679, 129.335, 89.011, 0, 0, 2.46113, -55.3398, 2.48801, -173.753, 2.41622, 65.9373, 0.125339, 45.1491
0, 1200.00000, 126.975, -32.2683, 125.602, -150.679, 129.34, 89.0101, 0, 0, 2.46111, -55.3421, 2.48801, -173.753, 2.41612, 65.9363, 0.125507, 45.1658
0, 1260.00000, 126.976, -32.2703, 125.602, -150.679, 129.344, 89.0093, 0, 0, 2.46109, -55.3442, 2.48801, -173.753, 2.41604, 65.9355, 0.125659, 45.1808
0, 1320.00000, 126.977, -32.2722, 125.602, -150.679, 129.348, 89.0086, 0, 0, 2.46108, -55.346, 2.48801, -173.753, 2.41597, 65.9348, 0.125795, 45.1943
0, 1380.00000, 126.977, -32.2738, 125.602, -150.679, 129.352, 89.0079, 0, 0, 2.46107, -55.3477, 2.48801, -173.753, 2.4159, 65.9341, 0.125918, 45.2063
0, 1440.00000, 126.978, -32.2753, 125.602, -150.679, 129.355, 89.0073, 0, 0, 2.46106, -55.3492, 2.48801, -173.753, 2.41584, 65.9335, 0.126028, 45.2172
0, 1500.00000, 126.978, -32.2767, 125.602, -150.679, 129.358, 89.0068, 0, 0, 2.46105, -55.3505, 2.48801, -173.753, 2.41578, 65.9329, 0.126128, 45.227
0, 1560.00000, 126.979, -32.2779, 125.602, -150.679, 129.36, 89.0063, 0, 0, 2.46104, -55.3518, 2.48801, -173.753, 2.41574, 65.9324, 0.126217, 45.2358
0, 1620.00000, 126.979, -32.279, 125.602, -150.679, 129.363, 89.0059, 0, 0, 2.46103, -55.3529, 2.48801, -173.753, 2.41569, 65.932, 0.126298, 45.2437
0, 1680.00000, 126.98, -32.28, 125.602, -150.679, 129.365, 89.0055, 0, 0, 2.46102, -55.3538, 2.48801, -173.753, 2.41565, 65.9316, 0.12637, 45.2508
0, 1740.00000, 126.98, -32.2808, 125.602, -150.679, 129.367, 89.0051, 0, 0, 2.46101, -55.3547, 2.48802, -173.752, 2.41562, 65.9313, 0.126435, 45.2572
0, 1800.00000, 126.98, -32.2816, 125.602, -150.679, 129.368, 89.0048, 0, 0, 2.46101, -55.3555, 2.48802, -173.752, 2.41558, 65.9309, 0.126494, 45.2629
0, 1860.00000, 126.981, -32.2823, 125.602, -150.678, 129.37, 89.0045, 0, 0, 2.461, -55.3562, 2.48802, -173.752, 2.41556, 65.9306, 0.126547, 45.2681
0, 1920.00000, 126.981, -32.283, 125.602, -150.678, 129.371, 89.0043, 0, 0, 2.461, -55.3569, 2.48802, -173.752, 2.41553, 65.9304, 0.126594, 45.2727
0, 1980.00000, 126.981, -32.2836, 125.602, -150.678, 129.373, 89.004, 0, 0, 2.46099, -55.3575, 2.48802, -173.752, 2.41551, 65.9302, 0.126637, 45.2769
0, 2040.00000, 126.981, -32.2841, 125.602, -150.678, 129.374, 89.0038, 0, 0, 2.46099, -55.358, 2.48802, -173.752, 2.41549, 65.9299, 0.126676, 45.2807
0, 2100.00000, 126.982, -32.2846, 125.602, -150.678, 129.375, 89.0036, 0, 0, 2.46098, -55.3585, 2.48802, -173.752, 2.41547, 65.9297, 0.126711, 45.284
0, 2160.00000, 126.982, -32.285, 125.602, -150.678, 129.376, 89.0035, 0, 0, 2.46098, -55.3589, 2.48802, -173.752, 2.41545, 65.9296, 0.126742, 45.2871
0, 2220.00000, 126.982, -32.2854, 125.602, -150.678, 129.376, 89.0033, 0, 0, 2.46098, -55.3593, 2.48802, -173.752, 2.41543, 65.9294, 0.12677, 45.2898
0, 2280.00000, 126.982, -32.2857, 125.602, -150.678, 129.377, 89.0032, 0, 0, 2.46097, -55.3596, 2.48802, -173.752, 2.41542, 65.9293, 0.126795, 45.2923
0, 2340.00000, 126.982, -32.286, 125.602, -150.678, 129.378, 89.0031, 0, 0, 2.46097, -55.3599, 2.48802, -173.752, 2.41541, 65.9292, 0.126818, 45.2945
0, 2400.00000, 126.982, -32.2863, 125.602, -150.678, 129.378, 89.003, 0, 0, 2.46097, -55.3602, 2.48802, -173.752, 2.4154, 65.929, 0.126838, 45.2965
0, 2460.00000, 126.983, -32.2865, 125.602, -150.678, 129.379, 89.0029, 0, 0, 2.46097, -55.3605, 2.48802, -173.752, 2.41539, 65.9289, 0.126857, 45.2983
0, 2520.00000, 126.983, -32.2868, 125.602, -150.678, 129.379, 89.0028, 0, 0, 2.46097, -55.3607, 2.48802, -173.752, 2.41538, 65.9289, 0.126873, 45.2999
0, 2580.00000, 126.983, -32.287, 125.602, -150.678, 129.38, 89.0027, 0, 0, 2.46097, -55.3609, 2.48802, -173.752, 2.41537, 65.9288, 0.126888, 45.3014
0, 2640.00000, 126.983, -32.2871, 125.602, -150.678, 129.38, 89.0026, 0, 0, 2.46096, -55.3611, 2.48802, -173.752, 2.41536, 65.9287, 0.126902, 45.3027
0, 2700.00000, 126.983, -32.2873, 125.602, -150.678, 129.381, 89.0025, 0, 0, 2.46096, -55.3612, 2.48802, -173.752, 2.41536, 65.9286, 0.126914, 45.3038
0, 2760.00000, 126.983, -32.2875, 125.602, -150.678, 129.381, 89.0025, 0, 0, 2.46096, -55.3614, 2.48802, -173.752, 2.41535, 65.9286, 0.126925, 45.3049
0, 2820.00000, 126.983, -32.2876, 125.602, -150.678, 129.381, 89.0024, 0, 0, 2.46096, -55.3615, 2.48802, -173.752, 2.41534, 65.9285, 0.126934, 45.3059
0, 2880.00000, 126.983, -32.2877, 125.602, -150.678, 129.381, 89.0024, 0, 0, 2.46096, -55.3616, 2.48802, -173.752, 2.41534, 65.9285, 0.126943, 45.3067
0, 2940.00000, 126.983, -32.2878, 125.602, -150.678, 129.382, 89.0023, 0, 0, 2.46096, -55.3617, 2.48802, -173.752, 2.41534, 65.9284, 0.126951, 45.3075
0, 3000.00000, 126.983, -32.2879, 125.602, -150.678, 129.382, 89.0023, 0, 0, 2.46096, -55.3618, 2.48802, -173.752, 2.41533, 65.9284, 0.126958, 45.3082
0, 3060.00000, 126.983, -32.288, 125.602, -150.678, 129.382, 89.0023, 0, 0, 2.46096, -55.3619, 2.48802, -173.752, 2.41533, 65.9284, 0.126965, 45.3088
0, 3120.00000, 126.983, -32.2881, 125.602, -150.678, 129.382, 89.0022, 0, 0, 2.46096, -55.362, 2.48802, -173.752, 2.41532, 65.9283, 0.126971, 45.3094
0, 3180.00000, 126.983, -32.2882, 125.602, -150.678, 129.382, 89.0022, 0, 0, 2.46096, -55.3621, 2.48802, -173.752, 2.41532, 65.9283, 0.126976, 45.3099
0, 3240.00000, 126.983, -32.2882, 125.602, -150.678, 129.382, 89.0022, 0, 0, 2.46096, -55.3621, 2.48802, -173.752, 2.41532, 65.9283, 0.12698, 45.3103
0, 3300.00000, 126.983, -32.2883, 125.602, -150.678, 129.383, 89.0022, 0, 0, 2.46096, -55.3622, 2.48802, -173.752, 2.41532, 65.9282, 0.126985, 45.3107
0, 3360.00000, 126.983, -32.2883, 125.602, -150.678, 129.383, 89.0021, 0, 0, 2.46095, -55.3622, 2.48802, -173.752, 2.41532, 65.9282, 0.126988, 45.3111
0, 3420.00000, 126.983, -32.2884, 125.602, -150.678, 129.383, 89.0021, 0, 0, 2.46095, -55.3623, 2.48802, -173.752, 2.41531, 65.9282, 0.126992, 45.3114
0, 3480.00000, 126.983, -32.2884, 125.602, -150.678, 129.383, 89.0021, 0, 0, 2.46095, -55.3623, 2.48802, -173.752, 2.41531, 65.9282, 0.126995, 45.3117
0, 3540.00000, 126.983, -32.2884, 125.602, -150.678, 129.383, 89.0021, 0, 0, 2.46095, -55.3624, 2.48802, -173.752, 2.41531, 65.9282, 0.126998, 45.312
1, 0.00000, 126.983, -32.2885, 125.602, -150.678, 129.383, 89.0021, 0, 0, 2.46095, -55.3624, 2.48802, -173.752, 2.41531, 65.9282, 0.127, 45.3123
1, 60.00000, 126.983, -32.2885, 125.602, -150.678, 129.383, 89.0021, 0, 0, 2.46095, -55.3624, 2.48802, -173.752, 2.41531, 65.9281, 0.127002, 45.3125
1, 120.00000, 126.983, -32.2885, 125.602, -150.678, 129.383, 89.0021, 0, 0, 2.46095, -55.3625, 2.48802, -173.752, 2.41531, 65.9281, 0.127004, 45.3127
1, 180.00000, 126.983, -32.2886, 125.602, -150.678, 129.383, 89.002, 0, 0, 2.46095, -55.3625, 2.48802, -173.752, 2.41531, 65.9281, 0.127006, 45.3128
1, 240.00000, 126.983, -32.2886, 125.602, -150.678, 129.383, 89.002, 0, 0, 2.46095, -55.3625, 2.48802, -173.752, 2.4153, 65.9281, 0.127008, 45.313
1, 300.00000, 126.983, -32.2886, 125.602, -150.678, 129.383, 89.002, 0, 0, 2.46095, -55.3625, 2.48802, -173.752, 2.4153, 65.9281, 0.127009, 45.3131
1, 360.00000, 126.983, -32.2886, 125.602, -150.678, 129.383, 89.002, 0, 0, 2.46095, -55.3625, 2.48802, -173.752, 2.4153, 65.9281, 0.127011, 45.3133
1, 420.00000, 126.983, -32.2886, 125.602, -150.678, 129.383, 89.002, 0, 0, 2.46095, -55.3626, 2.48802, -173.752, 2.4153, 65.9281, 0.127012, 45.3134
1, 480.00000, 126.983, -32.2887, 125.602, -150.678, 129.383, 89.002, 0, 0, 2.46095, -55.3626, 2.48802, -173.752, 2.4153, 65.9281, 0.127013, 45.3135
1, 540.00000, 126.983, -32.2887, 125.602, -150.678, 129.383, 89.002, 0, 0, 2.46095, -55.3626, 2.48802, -173.752, 2.4153, 65.9281, 0.127014, 45.3136
1, 600.00000, 126.983, -32.2887, 125.602, -150.678, 129.383, 89.002, 0, 0, 2.46095, -55.3626, 2.48802, -173.752, 2.4153, 65.9281, 0.127015, 45.3137
1, 660.00000, 126.983, -32.2887, 125.602, -150.678, 129.383, 89.002, 0, 0, 2.46095, -55.3626, 2.48802, -173.752, 2.4153, 65.9281, 0.127016, 45.3137
1, 720.00000, 126.983, -32.2887, 125.602, -150.678, 129.384, 89.002, 0, 0, 2.46095, -55.3626, 2.48802, -173.752, 2.4153, 65.9281, 0.127016, 45.3138
1, 780.00000, 126.983, -32.2887, 125.602, -150.678, 129.384, 89.002, 0, 0, 2.46095, -55.3626, 2.48802, -173.752, 2.4153, 65.9281, 0.127017, 45.3139
1, 840.00000, 126.983, -32.2887, 125.602, -150.678, 129.384, 89.002, 0, 0, 2.46095, -55.3626, 2.48802, -173.752, 2.4153, 65.9281, 0.127017, 45.3139
1, 900.00000, 126.983, -32.2887, 125.602, -150.678, 129.384, 89.002, 0, 0, 2.46095, -55.3626, 2.48802, -173.752, 2.4153, 65.9281, 0.127018, 45.314
1, 960.00000, 126.983, -32.2887, 125.602, -150.678, 129.384, 89.002, 0, 0, 2.46095, -55.3626, 2.48802, -173.752, 2.4153, 65.9281, 0.127018, 45.314
1, 1020.00000, 126.983, -32.2887, 125.602, -150.678, 129.384, 89.002, 0, 0, 2.46095, -55.3627, 2.48802, -173.752, 2.4153, 65.9281, 0.127019, 45.3141
1, 1080.00000, 126.983, -32.2887, 125.602, -150.678, 129.384, 89.002, 0, 0, 2.46095, -55.3627, 2.48802, -173.752, 2.4153, 65.9281, 0.127019, 45.3141
1, 1140.00000, 126.983, -32.2887, 125.602, -150.678, 129.384, 89.002, 0, 0, 2.46095, -55.3627, 2.48802, -173.752, 2.4153, 65.9281, 0.12702, 45.3141
1, 1200.00000, 126.983, -32.2887, 125.602, -150.678, 129.384, 89.002, 0, 0, 2.46095, -55.3627, 2.48802, -173.752, 2.4153, 65.9281, 0.12702, 45.3142
1, 1260.00000, 126.983, -32.2888, 125.602, -150.678, 129.384, 89.002, 0, 0, 2.46095, -55.3627, 2.48802, -173.752, 2.4153, 65.928, 0.12702, 45.3142
1, 1320.00000, 126.983, -32.2888, 125.602, -150.678, 129.384, 89.002, 0, 0, 2.46095, -55.3627, 2.48802, -173.752, 2.4153, 65.928, 0.12702, 45.3142
1, 1380.00000, 126.983, -32.2888, 125.602, -150.678, 129.384, 89.002, 0, 0, 2.46095, -55.3627, 2.48802, -173.752, 2.4153, 65.928, 0.127021, 45.3142
1, 1440.00000, 126.983, -32.2888, 125.602, -150.678, 129.384, 89.002, 0, 0, 2.46095, -55.3627, 2.48802, -173.752, 2.4153, 65.928, 0.127021, 45.3143
1, 1500.00000, 126.983, -32.2888, 125.602, -150.678, 129.384, 89.002, 0, 0, 2.46095, -55.3627, 2.48802, -173.752, 2.4153, 65.928, 0.127021, 45.3143
1, 1560.00000, 126.983, -32.2888, 125.602, -150.678, 129.384, 89.002, 0, 0, 2.46095, -55.3627, 2.48802, -173.752, 2.4153, 65.928, 0.127021, 45.3143
1, 1620.00000, 126.983, -32.2888, 125.602, -150.678, 129.384, 89.002, 0, 0, 2.46095, -55.3627, 2.48802, -173.752, 2.4153, 65.928, 0.127021, 45.3143
1, 1680.00000, 126.983, -32.2888, 125.602, -150.678, 129.384, 89.002, 0, 0, 2.46095, -55.3627, 2.48802, -173.752, 2.4153, 65.928, 0.127021, 45.3143
1, 1740.00000, 126.983, -32.2888, 125.602, -150.678, 129.384, 89.002, 0, 0, 2.46095, -55.3627, 2.48802, -173.752, 2.4153, 65.928, 0.127022, 45.3143
1, 1800.00000, 126.983, -32.2888, 125.602, -150.678, 129.384, 89.002, 0, 0, 2.46095, -55.3627, 2.48802, -173.752, 2.4153, 65.928, 0.127022, 45.3143
1, 1860.00000, 126.983, -32.2888, 125.602, -150.678, 129.384, 89.002, 0, 0, 2.46095, -55.3627, 2.48802, -173.752, 2.4153, 65.928, 0.127022, 45.3144
1, 1920.00000, 126.983, -32.2888, 125.602, -150.678, 129.384, 89.002, 0, 0, 2.46095, -55.3627, 2.48802, -173.752, 2.4153, 65.928, 0.127022, 45.3144
1, 1980.00000, 126.983, -32.2888, 125.602, -150.678, 129.384, 89.002, 0, 0, 2.46095, -55.3627, 2.48802, -173.752, 2.4153, 65.928, 0.127022, 45.3144
1, 2040.00000, 126.983, -32.2888, 125.602, -150.678, 129.384, 89.002, 0, 0, 2.46095, -55.3627, 2.48802, -173.752, 2.4153, 65.928, 0.127022, 45.3144
1, 2100.00000, 126.983, -32.2888, 125.602, -150.678, 129.384, 89.002, 0, 0, 2.46095, -55.3627, 2.48802, -173.752, 2.4153, 65.928, 0.127022, 45.3144
1, 2160.00000, 126.983, -32.2888, 125.602, -150.678, 129.384, 89.002, 0, 0, 2.46095, -55.3627, 2.48802, -173.752, 2.4153, 65.928, 0.127022, 45.3144
1, 2220.00000, 126.983, -32.2888, 125.602, -150.678, 129.384, 89.002, 0, 0, 2.46095, -55.3627, 2.48802, -173.752, 2.4153, 65.928, 0.127022, 45.3144
1, 2280.00000, 126.983, -32.2888, 125.602, -150.678, 129.384, 89.002, 0, 0, 2.46095, -55.3627, 2.48802, -173.752, 2.4153, 65.928, 0.127022, 45.3144
1, 2340.00000, 126.983, -32.2888, 125.602, -150.678, 129.384, 89.002, 0, 0, 2.46095, -55.3627, 2.48802, -173.752, 2.4153, 65.928, 0.127022, 45.3144
1, 2400.00000, 126.983, -32.2888, 125.602, -150.678, 129.384, 89.002, 0, 0, 2.46095, -55.3627, 2.48802, -173.752, 2.4153, 65.928, 0.127022, 45.3144
1, 2460.00000, 126.983, -32.2888, 125.602, -150.678, 129.384, 89.002, 0, 0, 2.46095, -55.3627, 2.48802, -173.752, 2.4153, 65.928, 0.127022, 45.3144
1, 2520.00000, 127.386, -32.0555, 126.244, -150.707, 129.383, 89.0138, 0, 0, 2.45317, -55.1294, 2.47536, -173.781, 2.4153, 65.9399, 0.105331, 45.7181
1, 2580.00000, 127.386, -32.0555, 126.244, -150.707, 129.383, 89.0138, 0, 0, 2.45317, -55.1294, 2.47536, -173.781, 2.4153, 65.9399, 0.105331, 45.7184
1, 2640.00000, 127.386, -32.0555, 126.244, -150.707, 129.383, 89.0138, 0, 0, 2.45317, -55.1294, 2.47536, -173.781, 2.4153, 65.9399, 0.105331, 45.7184
1, 2700.00000, 127.386, -32.0555, 126.244, -150.707, 129.383, 89.0138, 0, 0, 2.45317, -55.1294, 2.47536, -173.781, 2.4153, 65.9399, 0.105331, 45.7184
1, 2760.00000, 127.41, -32.0653, 126.594, -150.481, 129.999, 88.984, 0, 0, 2.45272, -55.1392, 2.46853, -173.555, 2.40386, 65.91, 0.11801, 53.7333
1, 2820.00000, 127.41, -32.0653, 126.594, -150.481, 129.999, 88.984, 0, 0, 2.45272, -55.1392, 2.46853, -173.555, 2.40386, 65.91, 0.11801, 53.7335
1, 2880.00000, 127.41, -32.0653, 126.594, -150.481, 129.999, 88.984, 0, 0, 2.45272, -55.1392, 2.46853, -173.555, 2.40386, 65.91, 0.11801, 53.7335
1, 2940.00000, 127.41, -32.0653, 126.594, -150.481, 129.999, 88.984, 0, 0, 2.45272, -55.1392, 2.46853, -173.555, 2.40386, 65.91, 0.11801, 53.7335
1, 3000.00000, 127.41, -32.0653, 126.594, -150.481, 129.999, 88.984, 0, 0, 2.45272, -55.1392, 2.46853, -173.555, 2.40386, 65.91, 0.11801, 53.7335
1, 3060.00000, 127.41, -32.0653, 126.594, -150.481, 129.999, 88.984, 0, 0, 2.45272, -55.1392, 2.46853, -173.555, 2.40386, 65.91, 0.11801, 53.7335
1, 3120.00000, 127.41, -32.0653, 126.594, -150.481, 129.999, 88.984, 0, 0, 2.45272, -55.1392, 2.46853, -173.555, 2.40386, 65.91, 0.11801, 53.7335
1, 3180.00000, 127.41, -32.0653, 126.594, -150.481, 129.999, 88.984, 0, 0, 2.45272, -55.1392, 2.46853, -173.555, 2.40386, 65.91, 0.11801, 53.7335
1, 3240.00000, 127.41, -32.0653, 126.594, -150.481, 129.999, 88.984, 0, 0, 2.45272, -55.1392, 2.46853, -173.555, 2.40386, 65.91, 0.11801, 53.7335
1, 3300.00000, 127.41, -32.0653, 126.594, -150.481, 129.999, 88.984, 0, 0, 2.45272, -55.1392, 2.46853, -173.555, 2.40386, 65.91, 0.11801, 53.7335
1, 3360.00000, 127.41, -32.0653, 126.594, -150.481, 129.999, 88.984, 0, 0, 2.45272, -55.1392, 2.46853, -173.555, 2.40386, 65.91, 0.11801, 53.7335
1, 3420.00000, 127.41, -32.0653, 126.594, -150.481, 129.999, 88.984, 0, 0, 2.45272, -55.1392, 2.46853, -173.555, 2.40386, 65.91, 0.11801, 53.7335
1, 3480.00000, 127.41, -32.0653, 126.594, -150.481, 129.999, 88.984, 0, 0, 2.45272, -55.1392, 2.46853, -173.555, 2.40386, 65.91, 0.11801, 53.7335
1, 3540.00000, 127.41, -32.0653, 126.594, -150.481, 129.999, 88.984, 0, 0, 2.45272, -55.1392, 2.46853, -173.555, 2.40386, 65.91, 0.11801, 53.7335
2, 0.00000, 127.41, -32.0653, 126.594, -150.481, 129.999, 88.984, 0, 0, 2.45272, -55.1392, 2.46853, -173.555, 2.40386, 65.91, 0.11801, 53.7335
2, 60.00000, 127.41, -32.0653, 126.594, -150.481, 129.999, 88.984, 0, 0, 2.45272, -55.1392, 2.46853, -173.555, 2.40386, 65.91, 0.11801, 53.7335
2, 120.00000, 127.405, -32.0663, 126.589, -150.482, 129.995, 88.983, 0, 0, 2.4596, -55.1402, 2.47544, -173.556, 2.41059, 65.9091, 0.11834, 53.7343
2, 180.00000, 127.4, -32.0673, 126.585, -150.483, 129.99, 88.982, 0, 0, 2.46656, -55.1412, 2.48244, -173.557, 2.41741, 65.9081, 0.118675, 53.7352
2, 240.00000, 127.395, -32.0682, 126.58, -150.485, 129.986, 88.9811, 0, 0, 2.47344, -55.1422, 2.48936, -173.558, 2.42415, 65.9072, 0.119005, 53.736
2, 300.00000, 127.39, -32.0692, 126.576, -150.486, 129.981, 88.9801, 0, 0, 2.48033, -55.1431, 2.49628, -173.56, 2.43088, 65.9062, 0.119336, 53.7369
2, 360.00000, 127.385, -32.0702, 126.571, -150.487, 129.977, 88.9791, 0, 0, 2.48729, -55.1441, 2.50328, -173.561, 2.4377, 65.9052, 0.11967, 53.7378
2, 420.00000, 127.38, -32.0711, 126.567, -150.488, 129.972, 88.9782, 0, 0, 2.49417, -55.1451, 2.5102, -173.562, 2.44444, 65.9043, 0.12, 53.7386
2, 480.00000, 127.375, -32.0721, 126.562, -150.489, 129.967, 88.9772, 0, 0, 2.50106, -55.146, 2.51712, -173.563, 2.45117, 65.9033, 0.120331, 53.7395
2, 540.00000, 127.37, -32.0731, 126.558, -150.49, 129.963, 88.9763, 0, 0, 2.50803, -55.147, 2.52413, -173.564, 2.45799, 65.9023, 0.120665, 53.7403
2, 600.00000, 127.365, -32.074, 126.553, -150.491, 129.958, 88.9753, 0, 0, 2.51491, -55.148, 2.53105, -173.565, 2.46473, 65.9014, 0.120996, 53.7412
2, 660.00000, 127.36, -32.075, 126.549, -150.492, 129.954, 88.9743, 0, 0, 2.5218, -55.1489, 2.53797, -173.566, 2.47147, 65.9004, 0.121326, 53.742
2, 720.00000, 127.356, -32.076, 126.544, -150.493, 129.949, 88.9734, 0, 0, 2.52876, -55.1499, 2.54497, -173.567, 2.47829, 65.8995, 0.121661, 53.7429
2, 780.00000, 127.351, -32.077, 126.54, -150.494, 129.945, 88.9724, 0, 0, 2.53565, -55.1509, 2.5519, -173.568, 2.48503, 65.8985, 0.121992, 53.7437
2, 840.00000, 127.346, -32.0779, 126.535, -150.495, 129.94, 88.9715, 0, 0, 2.54254, -55.1518, 2.55882, -173.569, 2.49177, 65.8975, 0.122322, 53.7446
