hour,t(sec),V1,VAngle1,V2,VAngle2,V3,VAngle3,V4,VAngle4,I1,IAngle1,I2,IAngle2,I3,IAngle3,I4,IAngle4
0, 60.00000, 127.285, -30.5726, 127.228, -150.554, 127.293, 89.4606, 0, 0, 2.13487, -53.646, 2.13583, -173.628, 2.13474, 66.3871, 0.00210254, 11.3247
0, 120.00000, 127.285, -30.5726, 127.227, -150.554, 127.293, 89.4606, 0, 0, 2.13489, -53.6465, 2.13585, -173.628, 2.13476, 66.3867, 0.00210529, 11.433
0, 180.00000, 127.285, -30.5726, 127.227, -150.554, 127.293, 89.4606, 0, 0, 2.13489, -53.6465, 2.13585, -173.628, 2.13476, 66.3867, 0.0021053, 11.4335
0, 240.00000, 127.285, -30.5726, 127.227, -150.554, 127.293, 89.4606, 0, 0, 2.13489, -53.6465, 2.13585, -173.628, 2.13476, 66.3867, 0.0021053, 11.4335
0, 300.00000, 127.285, -30.5726, 127.227, -150.554, 127.293, 89.4606, 0, 0, 2.13489, -53.6465, 2.13585, -173.628, 2.13476, 66.3867, 0.0021053, 11.4335
0, 360.00000, 127.285, -30.5726, 127.227, -150.554, 127.293, 89.4606, 0, 0, 2.13489, -53.6465, 2.13585, -173.628, 2.13476, 66.3867, 0.0021053, 11.4335
0, 420.00000, 127.285, -30.5726, 127.227, -150.554, 127.293, 89.4606, 0, 0, 2.13489, -53.6465, 2.13585, -173.628, 2.13476, 66.3867, 0.0021053, 11.4335
0, 480.00000, 127.285, -30.5726, 127.227, -150.554, 127.293, 89.4606, 0, 0, 2.13489, -53.6465, 2.13585, -173.628, 2.13476, 66.3867, 0.0021053, 11.4335
0, 540.00000, 127.285, -30.5726, 127.227, -150.554, 127.293, 89.4606, 0, 0, 2.13489, -53.6465, 2.13585, -173.628, 2.13476, 66.3867, 0.0021053, 11.4335
0, 600.00000, 127.285, -30.5726, 127.227, -150.554, 127.293, 89.4606, 0, 0, 2.13489, -53.6465, 2.13585, -173.628, 2.13476, 66.3867, 0.0021053, 11.4335
0, 660.00000, 127.285, -30.5726, 127.227, -150.554, 127.293, 89.4606, 0, 0, 2.13489, -53.6465, 2.13585, -173.628, 2.13476, 66.3867, 0.0021053, 11.4335
0, 720.00000, 127.285, -30.5726, 127.227, -150.554, 127.293, 89.4606, 0, 0, 2.13489, -53.6465, 2.13585, -173.628, 2.13476, 66.3867, 0.0021053, 11.4335
0, 780.00000, 127.285, -30.5726, 127.227, -150.554, 127.293, 89.4606, 0, 0, 2.13489, -53.6465, 2.13585, -173.628, 2.13476, 66.3867, 0.0021053, 11.4335
0, 840.00000, 127.285, -30.5726, 127.227, -150.554, 127.293, 89.4606, 0, 0, 2.13489, -53.6465, 2.13585, -173.628, 2.13476, 66.3867, 0.0021053, 11.4335
0, 900.00000, 127.285, -30.5726, 127.227, -150.554, 127.293, 89.4606, 0, 0, 2.13489, -53.6465, 2.13585, -173.628, 2.13476, 66.3867, 0.0021053, 11.4335
0, 960.00000, 127.285, -30.5726, 127.227, -150.554, 127.293, 89.4606, 0, 0, 2.13489, -53.6465, 2.13585, -173.628, 2.13476, 66.3867, 0.0021053, 11.4335
0, 1020.00000, 127.285, -30.5726, 127.227, -150.554, 127.293, 89.4606, 0, 0, 2.13489, -53.6465, 2.13585, -173.628, 2.13476, 66.3867, 0.0021053, 11.4335
0, 1080.00000, 127.285, -30.5726, 127.227, -150.554, 127.293, 89.4606, 0, 0, 2.13489, -53.6465, 2.13585, -173.628, 2.13476, 66.3867, 0.0021053, 11.4335
0, 1140.00000, 127.285, -30.5726, 127.227, -150.554, 127.293, 89.4606, 0, 0, 2.13489, -53.6465, 2.13585, -173.628, 2.13476, 66.3867, 0.0021053, 11.4335
0, 1200.00000, 127.285, -30.5726, 127.227, -150.554, 127.293, 89.4606, 0, 0, 2.13489, -53.6465, 2.13585, -173.628, 2.13476, 66.3867, 0.0021053, 11.4335
0, 1260.00000, 127.285, -30.5726, 127.227, -150.554, 127.293, 89.4606, 0, 0, 2.13489, -53.6465, 2.13585, -173.628, 2.13476, 66.3867, 0.0021053, 11.4335
0, 1320.00000, 127.285, -30.5726, 127.227, -150.554, 127.293, 89.4606, 0, 0, 2.13489, -53.6465, 2.13585, -173.628, 2.13476, 66.3867, 0.0021053, 11.4335
0, 1380.00000, 127.285, -30.5726, 127.227, -150.554, 127.293, 89.4606, 0, 0, 2.13489, -53.6465, 2.13585, -173.628, 2.13476, 66.3867, 0.0021053, 11.4335
0, 1440.00000, 127.285, -30.5726, 127.227, -150.554, 127.293, 89.4606, 0, 0, 2.13489, -53.6465, 2.13585, -173.628, 2.13476, 66.3867, 0.0021053, 11.4335
0, 1500.00000, 127.285, -30.5726, 127.227, -150.554, 127.293, 89.4606, 0, 0, 2.13489, -53.6465, 2.13585, -173.628, 2.13476, 66.3867, 0.0021053, 11.4335
0, 1560.00000, 127.285, -30.5726, 127.227, -150.554, 127.293, 89.4606, 0, 0, 2.13489, -53.6465, 2.13585, -173.628, 2.13476, 66.3867, 0.0021053, 11.4335
0, 1620.00000, 127.285, -30.5726, 127.227, -150.554, 127.293, 89.4606, 0, 0, 2.13489, -53.6465, 2.13585, -173.628, 2.13476, 66.3867, 0.0021053, 11.4335
0, 1680.00000, 127.285, -30.5726, 127.227, -150.554, 127.293, 89.4606, 0, 0, 2.13489, -53.6465, 2.13585, -173.628, 2.13476, 66.3867, 0.0021053, 11.4335
0, 1740.00000, 127.285, -30.5726, 127.227, -150.554, 127.293, 89.4606, 0, 0, 2.13489, -53.6465, 2.13585, -173.628, 2.13476, 66.3867, 0.0021053, 11.4335
0, 1800.00000, 127.285, -30.5726, 127.227, -150.554, 127.293, 89.4606, 0, 0, 2.13489, -53.6465, 2.13585, -173.628, 2.13476, 66.3867, 0.0021053, 11.4335
0, 1860.00000, 127.285, -30.5726, 127.227, -150.554, 127.293, 89.4606, 0, 0, 2.13489, -53.6465, 2.13585, -173.628, 2.13476, 66.3867, 0.0021053, 11.4335
0, 1920.00000, 127.285, -30.5726, 127.227, -150.554, 127.293, 89.4606, 0, 0, 2.13489, -53.6465, 2.13585, -173.628, 2.13476, 66.3867, 0.0021053, 11.4335
0, 1980.00000, 127.285, -30.5726, 127.227, -150.554, 127.293, 89.4606, 0, 0, 2.13489, -53.6465, 2.13585, -173.628, 2.13476, 66.3867, 0.0021053, 11.4335
0, 2040.00000, 127.285, -30.5726, 127.227, -150.554, 127.293, 89.4606, 0, 0, 2.13489, -53.6465, 2.13585, -173.628, 2.13476, 66.3867, 0.0021053, 11.4335
0, 2100.00000, 127.285, -30.5726, 127.227, -150.554, 127.293, 89.4606, 0, 0, 2.13489, -53.6465, 2.13585, -173.628, 2.13476, 66.3867, 0.0021053, 11.4335
0, 2160.00000, 127.285, -30.5726, 127.227, -150.554, 127.293, 89.4606, 0, 0, 2.13489, -53.6465, 2.13585, -173.628, 2.13476, 66.3867, 0.0021053, 11.4335
0, 2220.00000, 127.285, -30.5726, 127.227, -150.554, 127.293, 89.4606, 0, 0, 2.13489, -53.6465, 2.13585, -173.628, 2.13476, 66.3867, 0.0021053, 11.4335
0, 2280.00000, 127.285, -30.5726, 127.227, -150.554, 127.293, 89.4606, 0, 0, 2.13489, -53.6465, 2.13585, -173.628, 2.13476, 66.3867, 0.0021053, 11.4335
0, 2340.00000, 127.285, -30.5726, 127.227, -150.554, 127.293, 89.4606, 0, 0, 2.13489, -53.6465, 2.13585, -173.628, 2.13476, 66.3867, 0.0021053, 11.4335
0, 2400.00000, 127.285, -30.5726, 127.227, -150.554, 127.293, 89.4606, 0, 0, 2.13489, -53.6465, 2.13585, -173.628, 2.13476, 66.3867, 0.0021053, 11.4335
0, 2460.00000, 127.285, -30.5726, 127.227, -150.554, 127.293, 89.4606, 0, 0, 2.13489, -53.6465, 2.13585, -173.628, 2.13476, 66.3867, 0.0021053, 11.4335
0, 2520.00000, 127.285, -30.5726, 127.227, -150.554, 127.293, 89.4606, 0, 0, 2.13489, -53.6465, 2.13585, -173.628, 2.13476, 66.3867, 0.0021053, 11.4335
0, 2580.00000, 127.285, -30.5726, 127.227, -150.554, 127.293, 89.4606, 0, 0, 2.13489, -53.6465, 2.13585, -173.628, 2.13476, 66.3867, 0.0021053, 11.4335
0, 2640.00000, 127.285, -30.5726, 127.227, -150.554, 127.293, 89.4606, 0, 0, 2.13489, -53.6465, 2.13585, -173.628, 2.13476, 66.3867, 0.0021053, 11.4335
0, 2700.00000, 127.285, -30.5726, 127.227, -150.554, 127.293, 89.4606, 0, 0, 2.13489, -53.6465, 2.13585, -173.628, 2.13476, 66.3867, 0.0021053, 11.4335
0, 2760.00000, 127.285, -30.5726, 127.227, -150.554, 127.293, 89.4606, 0, 0, 2.13489, -53.6465, 2.13585, -173.628, 2.13476, 66.3867, 0.0021053, 11.4335
0, 2820.00000, 127.285, -30.5726, 127.227, -150.554, 127.293, 89.4606, 0, 0, 2.13489, -53.6465, 2.13585, -173.628, 2.13476, 66.3867, 0.0021053, 11.4335
0, 2880.00000, 127.285, -30.5726, 127.227, -150.554, 127.293, 89.4606, 0, 0, 2.13489, -53.6465, 2.13585, -173.628, 2.13476, 66.3867, 0.0021053, 11.4335
0, 2940.00000, 127.285, -30.5726, 127.227, -150.554, 127.293, 89.4606, 0, 0, 2.13489, -53.6465, 2.13585, -173.628, 2.13476, 66.3867, 0.0021053, 11.4335
0, 3000.00000, 127.285, -30.5726, 127.227, -150.554, 127.293, 89.4606, 0, 0, 2.13489, -53.6465, 2.13585, -173.628, 2.13476, 66.3867, 0.0021053, 11.4335
0, 3060.00000, 127.285, -30.5726, 127.227, -150.554, 127.293, 89.4606, 0, 0, 2.13489, -53.6465, 2.13585, -173.628, 2.13476, 66.3867, 0.0021053, 11.4335
0, 3120.00000, 127.285, -30.5726, 127.227, -150.554, 127.293, 89.4606, 0, 0, 2.13489, -53.6465, 2.13585, -173.628, 2.13476, 66.3867, 0.0021053, 11.4335
0, 3180.00000, 127.285, -30.5726, 127.227, -150.554, 127.293, 89.4606, 0, 0, 2.13489, -53.6465, 2.13585, -173.628, 2.13476, 66.3867, 0.0021053, 11.4335
0, 3240.00000, 127.285, -30.5726, 127.227, -150.554, 127.293, 89.4606, 0, 0, 2.13489, -53.6465, 2.13585, -173.628, 2.13476, 66.3867, 0.0021053, 11.4335
0, 3300.00000, 127.285, -30.5726, 127.227, -150.554, 127.293, 89.4606, 0, 0, 2.13489, -53.6465, 2.13585, -173.628, 2.13476, 66.3867, 0.0021053, 11.4335
0, 3360.00000, 127.285, -30.5726, 127.227, -150.554, 127.293, 89.4606, 0, 0, 2.13489, -53.6465, 2.13585, -173.628, 2.13476, 66.3867, 0.0021053, 11.4335
0, 3420.00000, 127.285, -30.5726, 127.227, -150.554, 127.293, 89.4606, 0, 0, 2.13489, -53.6465, 2.13585, -173.628, 2.13476, 66.3867, 0.0021053, 11.4335
0, 3480.00000, 127.285, -30.5726, 127.227, -150.554, 127.293, 89.4606, 0, 0, 2.13489, -53.6465, 2.13585, -173.628, 2.13476, 66.3867, 0.0021053, 11.4335
0, 3540.00000, 127.285, -30.5726, 127.227, -150.554, 127.293, 89.4606, 0, 0, 2.13489, -53.6465, 2.13585, -173.628, 2.13476, 66.3867, 0.0021053, 11.4335
1, 0.00000, 127.285, -30.5726, 127.227, -150.554, 127.293, 89.4606, 0, 0, 2.13489, -53.6465, 2.13585, -173.628, 2.13476, 66.3867, 0.0021053, 11.4335
1, 60.00000, 127.285, -30.5726, 127.227, -150.554, 127.293, 89.4606, 0, 0, 2.13489, -53.6465, 2.13585, -173.628, 2.13476, 66.3867, 0.0021053, 11.4335
1, 120.00000, 127.285, -30.5726, 127.227, -150.554, 127.293, 89.4606, 0, 0, 2.13489, -53.6465, 2.13585, -173.628, 2.13476, 66.3867, 0.0021053, 11.4335
1, 180.00000, 127.285, -30.5726, 127.227, -150.554, 127.293, 89.4606, 0, 0, 2.13489, -53.6465, 2.13585, -173.628, 2.13476, 66.3867, 0.0021053, 11.4335
1, 240.00000, 127.285, -30.5726, 127.227, -150.554, 127.293, 89.4606, 0, 0, 2.13489, -53.6465, 2.13585, -173.628, 2.13476, 66.3867, 0.0021053, 11.4335
1, 300.00000, 127.285, -30.5726, 127.227, -150.554, 127.293, 89.4606, 0, 0, 2.13489, -53.6465, 2.13585, -173.628, 2.13476, 66.3867, 0.0021053, 11.4335
1, 360.00000, 127.285, -30.5726, 127.227, -150.554, 127.293, 89.4606, 0, 0, 2.13489, -53.6465, 2.13585, -173.628, 2.13476, 66.3867, 0.0021053, 11.4335
1, 420.00000, 127.285, -30.5726, 127.227, -150.554, 127.293, 89.4606, 0, 0, 2.13489, -53.6465, 2.13585, -173.628, 2.13476, 66.3867, 0.0021053, 11.4335
1, 480.00000, 127.285, -30.5726, 127.227, -150.554, 127.293, 89.4606, 0, 0, 2.13489, -53.6465, 2.13585, -173.628, 2.13476, 66.3867, 0.0021053, 11.4335
1, 540.00000, 127.285, -30.5726, 127.227, -150.554, 127.293, 89.4606, 0, 0, 2.13489, -53.6465, 2.13585, -173.628, 2.13476, 66.3867, 0.0021053, 11.4335
1, 600.00000, 127.285, -30.5726, 127.227, -150.554, 127.293, 89.4606, 0, 0, 2.13489, -53.6465, 2.13585, -173.628, 2.13476, 66.3867, 0.0021053, 11.4335
1, 660.00000, 127.285, -30.5726, 127.227, -150.554, 127.293, 89.4606, 0, 0, 2.13489, -53.6465, 2.13585, -173.628, 2.13476, 66.3867, 0.0021053, 11.4335
1, 720.00000, 127.285, -30.5726, 127.227, -150.554, 127.293, 89.4606, 0, 0, 2.13489, -53.6465, 2.13585, -173.628, 2.13476, 66.3867, 0.0021053, 11.4335
1, 780.00000, 127.285, -30.5726, 127.227, -150.554, 127.293, 89.4606, 0, 0, 2.13489, -53.6465, 2.13585, -173.628, 2.13476, 66.3867, 0.0021053, 11.4335
1, 840.00000, 127.285, -30.5726, 127.227, -150.554, 127.293, 89.4606, 0, 0, 2.13489, -53.6465, 2.13585, -173.628, 2.13476, 66.3867, 0.0021053, 11.4335
1, 900.00000, 127.285, -30.5726, 127.227, -150.554, 127.293, 89.4606, 0, 0, 2.13489, -53.6465, 2.13585, -173.628, 2.13476, 66.3867, 0.0021053, 11.4335
1, 960.00000, 127.285, -30.5726, 127.227, -150.554, 127.293, 89.4606, 0, 0, 2.13489, -53.6465, 2.13585, -173.628, 2.13476, 66.3867, 0.0021053, 11.4335
1, 1020.00000, 127.285, -30.5726, 127.227, -150.554, 127.293, 89.4606, 0, 0, 2.13489, -53.6465, 2.13585, -173.628, 2.13476, 66.3867, 0.0021053, 11.4335
1, 1080.00000, 127.285, -30.5726, 127.227, -150.554, 127.293, 89.4606, 0, 0, 2.13489, -53.6465, 2.13585, -173.628, 2.13476, 66.3867, 0.0021053, 11.4335
1, 1140.00000, 127.285, -30.5726, 127.227, -150.554, 127.293, 89.4606, 0, 0, 2.13489, -53.6465, 2.13585, -173.628, 2.13476, 66.3867, 0.0021053, 11.4335
1, 1200.00000, 127.285, -30.5726, 127.227, -150.554, 127.293, 89.4606, 0, 0, 2.13489, -53.6465, 2.13585, -173.628, 2.13476, 66.3867, 0.0021053, 11.4335
1, 1260.00000, 127.285, -30.5726, 127.227, -150.554, 127.293, 89.4606, 0, 0, 2.13489, -53.6465, 2.13585, -173.628, 2.13476, 66.3867, 0.0021053, 11.4335
1, 1320.00000, 127.285, -30.5726, 127.227, -150.554, 127.293, 89.4606, 0, 0, 2.13489, -53.6465, 2.13585, -173.628, 2.13476, 66.3867, 0.0021053, 11.4335
1, 1380.00000, 127.285, -30.5726, 127.227, -150.554, 127.293, 89.4606, 0, 0, 2.13489, -53.6465, 2.13585, -173.628, 2.13476, 66.3867, 0.0021053, 11.4335
1, 1440.00000, 127.285, -30.5726, 127.227, -150.554, 127.293, 89.4606, 0, 0, 2.13489, -53.6465, 2.13585, -173.628, 2.13476, 66.3867, 0.0021053, 11.4335
1, 1500.00000, 127.285, -30.5726, 127.227, -150.554, 127.293, 89.4606, 0, 0, 2.13489, -53.6465, 2.13585, -173.628, 2.13476, 66.3867, 0.0021053, 11.4335
1, 1560.00000, 127.285, -30.5726, 127.227, -150.554, 127.293, 89.4606, 0, 0, 2.13489, -53.6465, 2.13585, -173.628, 2.13476, 66.3867, 0.0021053, 11.4335
1, 1620.00000, 127.285, -30.5726, 127.227, -150.554, 127.293, 89.4606, 0, 0, 2.13489, -53.6465, 2.13585, -173.628, 2.13476, 66.3867, 0.0021053, 11.4335
1, 1680.00000, 127.285, -30.5726, 127.227, -150.554, 127.293, 89.4606, 0, 0, 2.13489, -53.6465, 2.13585, -173.628, 2.13476, 66.3867, 0.0021053, 11.4335
1, 1740.00000, 127.285, -30.5726, 127.227, -150.554, 127.293, 89.4606, 0, 0, 2.13489, -53.6465, 2.13585, -173.628, 2.13476, 66.3867, 0.0021053, 11.4335
1, 1800.00000, 127.285, -30.5726, 127.227, -150.554, 127.293, 89.4606, 0, 0, 2.13489, -53.6465, 2.13585, -173.628, 2.13476, 66.3867, 0.0021053, 11.4335
1, 1860.00000, 127.285, -30.5726, 127.227, -150.554, 127.293, 89.4606, 0, 0, 2.13489, -53.6465, 2.13585, -173.628, 2.13476, 66.3867, 0.0021053, 11.4335
1, 1920.00000, 127.285, -30.5726, 127.227, -150.554, 127.293, 89.4606, 0, 0, 2.13489, -53.6465, 2.13585, -173.628, 2.13476, 66.3867, 0.0021053, 11.4335
1, 1980.00000, 127.285, -30.5726, 127.227, -150.554, 127.293, 89.4606, 0, 0, 2.13489, -53.6465, 2.13585, -173.628, 2.13476, 66.3867, 0.0021053, 11.4335
1, 2040.00000, 127.285, -30.5726, 127.227, -150.554, 127.293, 89.4606, 0, 0, 2.13489, -53.6465, 2.13585, -173.628, 2.13476, 66.3867, 0.0021053, 11.4335
1, 2100.00000, 127.285, -30.5726, 127.227, -150.554, 127.293, 89.4606, 0, 0, 2.13489, -53.6465, 2.13585, -173.628, 2.13476, 66.3867, 0.0021053, 11.4335
1, 2160.00000, 127.285, -30.5726, 127.227, -150.554, 127.293, 89.4606, 0, 0, 2.13489, -53.6465, 2.13585, -173.628, 2.13476, 66.3867, 0.0021053, 11.4335
1, 2220.00000, 127.285, -30.5726, 127.227, -150.554, 127.293, 89.4606, 0, 0, 2.13489, -53.6465, 2.13585, -173.628, 2.13476, 66.3867, 0.0021053, 11.4335
1, 2280.00000, 127.285, -30.5726, 127.227, -150.554, 127.293, 89.4606, 0, 0, 2.13489, -53.6465, 2.13585, -173.628, 2.13476, 66.3867, 0.0021053, 11.4335
1, 2340.00000, 127.285, -30.5726, 127.227, -150.554, 127.293, 89.4606, 0, 0, 2.13489, -53.6465, 2.13585, -173.628, 2.13476, 66.3867, 0.0021053, 11.4335
1, 2400.00000, 127.285, -30.5726, 127.227, -150.554, 127.293, 89.4606, 0, 0, 2.13489, -53.6465, 2.13585, -173.628, 2.13476, 66.3867, 0.0021053, 11.4335
1, 2460.00000, 127.285, -30.5726, 127.227, -150.554, 127.293, 89.4606, 0, 0, 2.13489, -53.6465, 2.13585, -173.628, 2.13476, 66.3867, 0.0021053, 11.4335
1, 2520.00000, 127.285, -30.5726, 127.227, -150.554, 127.293, 89.4606, 0, 0, 2.13489, -53.6465, 2.13585, -173.628, 2.13476, 66.3867, 0.0021053, 11.4335
1, 2580.00000, 127.285, -30.5726, 127.227, -150.554, 127.293, 89.4606, 0, 0, 2.13489, -53.6465, 2.13585, -173.628, 2.13476, 66.3867, 0.0021053, 11.4335
1, 2640.00000, 127.285, -30.5726, 127.227, -150.554, 127.293, 89.4606, 0, 0, 2.13489, -53.6465, 2.13585, -173.628, 2.13476, 66.3867, 0.0021053, 11.4335
1, 2700.00000, 127.285, -30.5726, 127.227, -150.554, 127.293, 89.4606, 0, 0, 2.13489, -53.6465, 2.13585, -173.628, 2.13476, 66.3867, 0.0021053, 11.4335
1, 2760.00000, 127.285, -30.5726, 127.227, -150.554, 127.293, 89.4606, 0, 0, 2.13489, -53.6465, 2.13585, -173.628, 2.13476, 66.3867, 0.0021053, 11.4335
1, 2820.00000, 127.285, -30.5726, 127.227, -150.554, 127.293, 89.4606, 0, 0, 2.13489, -53.6465, 2.13585, -173.628, 2.13476, 66.3867, 0.0021053, 11.4335
1, 2880.00000, 127.285, -30.5726, 127.227, -150.554, 127.293, 89.4606, 0, 0, 2.13489, -53.6465, 2.13585, -173.628, 2.13476, 66.3867, 0.0021053, 11.4335
1, 2940.00000, 127.285, -30.5726, 127.227, -150.554, 127.293, 89.4606, 0, 0, 2.13489, -53.6465, 2.13585, -173.628, 2.13476, 66.3867, 0.0021053, 11.4335
1, 3000.00000, 127.285, -30.5726, 127.227, -150.554, 127.293, 89.4606, 0, 0, 2.13489, -53.6465, 2.13585, -173.628, 2.13476, 66.3867, 0.0021053, 11.4335
1, 3060.00000, 127.285, -30.5726, 127.227, -150.554, 127.293, 89.4606, 0, 0, 2.13489, -53.6465, 2.13585, -173.628, 2.13476, 66.3867, 0.0021053, 11.4335
1, 3120.00000, 127.285, -30.5726, 127.227, -150.554, 127.293, 89.4606, 0, 0, 2.13489, -53.6465, 2.13585, -173.628, 2.13476, 66.3867, 0.0021053, 11.4335
1, 3180.00000, 127.285, -30.5726, 127.227, -150.554, 127.293, 89.4606, 0, 0, 2.13489, -53.6465, 2.13585, -173.628, 2.13476, 66.3867, 0.0021053, 11.4335
1, 3240.00000, 127.285, -30.5726, 127.227, -150.554, 127.293, 89.4606, 0, 0, 2.13489, -53.6465, 2.13585, -173.628, 2.13476, 66.3867, 0.0021053, 11.4335
1, 3300.00000, 127.285, -30.5726, 127.227, -150.554, 127.293, 89.4606, 0, 0, 2.13489, -53.6465, 2.13585, -173.628, 2.13476, 66.3867, 0.0021053, 11.4335
1, 3360.00000, 127.285, -30.5726, 127.227, -150.554, 127.293, 89.4606, 0, 0, 2.13489, -53.6465, 2.13585, -173.628, 2.13476, 66.3867, 0.0021053, 11.4335
1, 3420.00000, 127.285, -30.5726, 127.227, -150.554, 127.293, 89.4606, 0, 0, 2.13489, -53.6465, 2.13585, -173.628, 2.13476, 66.3867, 0.0021053, 11.4335
1, 3480.00000, 127.285, -30.5726, 127.227, -150.554, 127.293, 89.4606, 0, 0, 2.13489, -53.6465, 2.13585, -173.628, 2.13476, 66.3867, 0.0021053, 11.4335
1, 3540.00000, 127.285, -30.5726, 127.227, -150.554, 127.293, 89.4606, 0, 0, 2.13489, -53.6465, 2.13585, -173.628, 2.13476, 66.3867, 0.0021053, 11.4335
2, 0.00000, 127.285, -30.5726, 127.227, -150.554, 127.293, 89.4606, 0, 0, 2.13489, -53.6465, 2.13585, -173.628, 2.13476, 66.3867, 0.0021053, 11.4335
2, 60.00000, 127.285, -30.5726, 127.227, -150.554, 127.293, 89.4606, 0, 0, 2.13489, -53.6465, 2.13585, -173.628, 2.13476, 66.3867, 0.0021053, 11.4335
2, 120.00000, 127.281, -30.5737, 127.224, -150.555, 127.289, 89.4595, 0, 0, 2.14086, -53.6476, 2.14182, -173.629, 2.14072, 66.3856, 0.00211102, 11.438
2, 180.00000, 127.278, -30.5748, 127.221, -150.556, 127.286, 89.4584, 0, 0, 2.14689, -53.6487, 2.14785, -173.63, 2.14675, 66.3845, 0.00211696, 11.4464
2, 240.00000, 127.274, -30.5759, 127.217, -150.557, 127.283, 89.4573, 0, 0, 2.15285, -53.6498, 2.15382, -173.631, 2.15272, 66.3834, 0.00212283, 11.4549
2, 300.00000, 127.271, -30.577, 127.214, -150.559, 127.279, 89.4562, 0, 0, 2.15882, -53.6509, 2.15979, -173.632, 2.15868, 66.3823, 0.0021287, 11.4633
2, 360.00000, 127.268, -30.5782, 127.211, -150.56, 127.276, 89.4551, 0, 0, 2.16485, -53.652, 2.16582, -173.634, 2.16472, 66.3812, 0.00213464, 11.4718
2, 420.00000, 127.264, -30.5793, 127.207, -150.561, 127.273, 89.454, 0, 0, 2.17082, -53.6531, 2.17179, -173.635, 2.17068, 66.3801, 0.00214051, 11.4803
2, 480.00000, 127.261, -30.5804, 127.204, -150.562, 127.269, 89.4529, 0, 0, 2.17678, -53.6542, 2.17776, -173.636, 2.17664, 66.379, 0.00214638, 11.4888
2, 540.00000, 127.258, -30.5815, 127.201, -150.563, 127.266, 89.4517, 0, 0, 2.18282, -53.6554, 2.1838, -173.637, 2.18268, 66.3779, 0.00215232, 11.4973
2, 600.00000, 127.254, -30.5826, 127.197, -150.564, 127.262, 89.4506, 0, 0, 2.18879, -53.6565, 2.18977, -173.638, 2.18865, 66.3768, 0.00215819, 11.5059
2, 660.00000, 127.251, -30.5837, 127.194, -150.565, 127.259, 89.4495, 0, 0, 2.19475, -53.6576, 2.19573, -173.639, 2.19461, 66.3757, 0.00216406, 11.5144
