hour,t(sec),V1,VAngle1,V2,VAngle2,V3,VAngle3,V4,VAngle4,I1,IAngle1,I2,IAngle2,I3,IAngle3,I4,IAngle4
0, 60.00000, 123.443, -31.4058, 124.633, -150.87, 124.765, 88.7617, 0, 0, 2.53155, -54.4795, 2.50737, -173.944, 2.50477, 65.6876, 0.0432234, 101.59
0, 120.00000, 123.454, -31.4143, 124.633, -150.87, 124.787, 88.7617, 0, 0, 2.53133, -54.488, 2.50737, -173.944, 2.50431, 65.6876, 0.0435502, 100.664
0, 180.00000, 123.463, -31.4219, 124.632, -150.87, 124.808, 88.7616, 0, 0, 2.53113, -54.4956, 2.50737, -173.944, 2.50389, 65.6876, 0.0438542, 99.8442
0, 240.00000, 123.472, -31.4287, 124.632, -150.87, 124.826, 88.7616, 0, 0, 2.53095, -54.5024, 2.50737, -173.944, 2.50352, 65.6876, 0.0441358, 99.1159
0, 300.00000, 124.787, -31.5523, 124.545, -150.88, 125.871, 89.1333, 0, 0, 2.50428, -54.6261, 2.50914, -173.954, 2.48274, 66.0594, 0.053095, 44.3593
0, 360.00000, 124.794, -31.5579, 124.545, -150.88, 125.886, 89.1332, 0, 0, 2.50413, -54.6316, 2.50914, -173.954, 2.48244, 66.0593, 0.0535869, 44.2921
0, 420.00000, 124.8, -31.5628, 124.545, -150.88, 125.899, 89.133, 0, 0, 2.50401, -54.6366, 2.50914, -173.954, 2.48217, 66.0591, 0.0540291, 44.2339
0, 480.00000, 124.806, -31.5673, 124.545, -150.88, 125.911, 89.1329, 0, 0, 2.5039, -54.6411, 2.50914, -173.954, 2.48193, 66.059, 0.0544271, 44.1825
0, 540.00000, 124.811, -31.5713, 124.545, -150.88, 125.922, 89.1328, 0, 0, 2.50379, -54.6451, 2.50914, -173.954, 2.48171, 66.0589, 0.0547853, 44.137
0, 600.00000, 124.815, -31.5749, 124.545, -150.88, 125.932, 89.1328, 0, 0, 2.5037, -54.6487, 2.50914, -173.954, 2.48152, 66.0588, 0.0551079, 44.0966
0, 660.00000, 124.82, -31.5782, 124.545, -150.88, 125.941, 89.1327, 0, 0, 2.50362, -54.652, 2.50914, -173.954, 2.48134, 66.0588, 0.0553982, 44.0607
0, 720.00000, 124.823, -31.5811, 124.545, -150.88, 125.949, 89.1326, 0, 0, 2.50355, -54.6549, 2.50914, -173.954, 2.48118, 66.0587, 0.0556595, 44.0288
0, 780.00000, 124.829, -31.5856, 124.667, -150.713, 126.358, 89.1757, 0, 0, 2.50343, -54.6594, 2.50668, -173.787, 2.47315, 66.1017, 0.0670596, 51.2503
0, 840.00000, 124.832, -31.588, 124.667, -150.713, 126.364, 89.1756, 0, 0, 2.50337, -54.6618, 2.50668, -173.787, 2.47302, 66.1017, 0.0672662, 51.206
0, 900.00000, 124.835, -31.5901, 124.667, -150.713, 126.37, 89.1755, 0, 0, 2.50331, -54.6639, 2.50668, -173.787, 2.47291, 66.1016, 0.0674518, 51.1666
0, 960.00000, 124.708, -31.5832, 123.719, -151.103, 125.162, 89.3652, 0, 0, 2.50585, -54.657, 2.52589, -174.177, 2.49678, 66.2914, 0.0610579, 13.4762
0, 1020.00000, 124.711, -31.5849, 123.719, -151.103, 125.166, 89.3652, 0, 0, 2.5058, -54.6588, 2.52589, -174.177, 2.49669, 66.2913, 0.0611987, 13.5365
0, 1080.00000, 124.713, -31.5865, 123.719, -151.103, 125.171, 89.3651, 0, 0, 2.50576, -54.6603, 2.52589, -174.177, 2.4966, 66.2912, 0.0613264, 13.5909
0, 1140.00000, 124.714, -31.5879, 123.719, -151.103, 125.174, 89.3651, 0, 0, 2.50573, -54.6618, 2.52589, -174.177, 2.49653, 66.2912, 0.0614414, 13.6396
0, 1200.00000, 124.716, -31.5892, 123.719, -151.103, 125.178, 89.365, 0, 0, 2.5057, -54.663, 2.52589, -174.177, 2.49646, 66.2911, 0.0615449, 13.6833
0, 1260.00000, 124.717, -31.5903, 123.719, -151.103, 125.181, 89.365, 0, 0, 2.50567, -54.6642, 2.52589, -174.177, 2.49639, 66.2911, 0.0616381, 13.7226
0, 1320.00000, 124.719, -31.5913, 123.719, -151.103, 125.184, 89.365, 0, 0, 2.50564, -54.6652, 2.52589, -174.177, 2.49634, 66.291, 0.061722, 13.7578
0, 1380.00000, 124.72, -31.5922, 123.719, -151.103, 125.186, 89.3649, 0, 0, 2.50562, -54.6661, 2.52589, -174.177, 2.49629, 66.291, 0.0617975, 13.7894
0, 1440.00000, 124.721, -31.5931, 123.719, -151.103, 125.188, 89.3649, 0, 0, 2.5056, -54.667, 2.52588, -174.177, 2.49624, 66.291, 0.0618655, 13.8178
0, 1500.00000, 124.722, -31.5938, 123.719, -151.103, 125.19, 89.3649, 0, 0, 2.50558, -54.6677, 2.52588, -174.177, 2.4962, 66.2909, 0.0619267, 13.8433
0, 1560.00000, 124.723, -31.5945, 123.719, -151.103, 125.192, 89.3648, 0, 0, 2.50556, -54.6684, 2.52588, -174.177, 2.49616, 66.2909, 0.0619818, 13.8662
0, 1620.00000, 124.723, -31.5951, 123.719, -151.103, 125.194, 89.3648, 0, 0, 2.50555, -54.669, 2.52588, -174.177, 2.49613, 66.2909, 0.0620314, 13.8868
0, 1680.00000, 124.724, -31.5956, 123.719, -151.103, 125.195, 89.3648, 0, 0, 2.50553, -54.6695, 2.52588, -174.177, 2.4961, 66.2909, 0.062076, 13.9053
0, 1740.00000, 124.725, -31.5961, 123.719, -151.103, 125.197, 89.3648, 0, 0, 2.50552, -54.67, 2.52588, -174.177, 2.49608, 66.2909, 0.0621162, 13.9219
0, 1800.00000, 124.725, -31.5966, 123.719, -151.103, 125.198, 89.3648, 0, 0, 2.50551, -54.6705, 2.52588, -174.177, 2.49605, 66.2908, 0.0621523, 13.9369
0, 1860.00000, 124.726, -31.597, 123.719, -151.103, 125.199, 89.3647, 0, 0, 2.5055, -54.6709, 2.52588, -174.177, 2.49603, 66.2908, 0.0621849, 13.9503
0, 1920.00000, 124.726, -31.5973, 123.719, -151.103, 125.2, 89.3647, 0, 0, 2.50549, -54.6712, 2.52588, -174.177, 2.49601, 66.2908, 0.0622142, 13.9624
0, 1980.00000, 124.726, -31.5977, 123.719, -151.103, 125.201, 89.3647, 0, 0, 2.50548, -54.6716, 2.52588, -174.177, 2.49599, 66.2908, 0.0622405, 13.9732
0, 2040.00000, 124.727, -31.5979, 123.719, -151.103, 125.202, 89.3647, 0, 0, 2.50548, -54.6719, 2.52588, -174.177, 2.49598, 66.2908, 0.0622643, 13.983
0, 2100.00000, 124.727, -31.5982, 123.719, -151.103, 125.202, 89.3647, 0, 0, 2.50547, -54.6721, 2.52588, -174.177, 2.49596, 66.2908, 0.0622856, 13.9918
0, 2160.00000, 124.727, -31.5984, 123.719, -151.103, 125.203, 89.3647, 0, 0, 2.50546, -54.6724, 2.52588, -174.177, 2.49595, 66.2908, 0.0623049, 13.9997
0, 2220.00000, 124.731, -31.6005, 123.846, -150.934, 125.61, 89.4066, 0, 0, 2.50539, -54.6744, 2.5233, -174.008, 2.48787, 66.3327, 0.0685306, 24.9106
0, 2280.00000, 124.732, -31.6007, 123.846, -150.934, 125.61, 89.4066, 0, 0, 2.50538, -54.6746, 2.5233, -174.008, 2.48786, 66.3327, 0.0685476, 24.9138
0, 2340.00000, 124.732, -31.6008, 123.846, -150.934, 125.611, 89.4066, 0, 0, 2.50538, -54.6747, 2.5233, -174.008, 2.48785, 66.3327, 0.0685625, 24.9167
0, 2400.00000, 124.732, -31.601, 123.846, -150.934, 125.611, 89.4066, 0, 0, 2.50537, -54.6749, 2.5233, -174.008, 2.48784, 66.3327, 0.0685759, 24.9193
0, 2460.00000, 124.732, -31.6011, 123.846, -150.934, 125.611, 89.4066, 0, 0, 2.50537, -54.675, 2.5233, -174.008, 2.48783, 66.3327, 0.068588, 24.9216
0, 2520.00000, 124.732, -31.6012, 123.846, -150.934, 125.612, 89.4066, 0, 0, 2.50537, -54.6752, 2.5233, -174.008, 2.48782, 66.3327, 0.0685989, 24.9237
0, 2580.00000, 124.732, -31.6014, 123.846, -150.934, 125.612, 89.4066, 0, 0, 2.50536, -54.6753, 2.5233, -174.008, 2.48782, 66.3327, 0.0686087, 24.9256
0, 2640.00000, 124.733, -31.6015, 123.846, -150.934, 125.612, 89.4066, 0, 0, 2.50536, -54.6754, 2.5233, -174.008, 2.48781, 66.3327, 0.0686175, 24.9273
0, 2700.00000, 124.733, -31.6015, 123.846, -150.934, 125.613, 89.4066, 0, 0, 2.50536, -54.6755, 2.5233, -174.008, 2.48781, 66.3327, 0.0686254, 24.9288
0, 2760.00000, 124.733, -31.6016, 123.846, -150.934, 125.613, 89.4066, 0, 0, 2.50536, -54.6755, 2.5233, -174.008, 2.4878, 66.3327, 0.0686326, 24.9302
0, 2820.00000, 124.733, -31.6017, 123.846, -150.934, 125.613, 89.4066, 0, 0, 2.50535, -54.6756, 2.5233, -174.008, 2.4878, 66.3327, 0.068639, 24.9314
0, 2880.00000, 124.733, -31.6018, 123.846, -150.934, 125.613, 89.4066, 0, 0, 2.50535, -54.6757, 2.5233, -174.008, 2.4878, 66.3327, 0.0686448, 24.9326
0, 2940.00000, 124.733, -31.6018, 123.846, -150.934, 125.613, 89.4066, 0, 0, 2.50535, -54.6757, 2.5233, -174.008, 2.48779, 66.3327, 0.06865, 24.9336
0, 3000.00000, 124.733, -31.6019, 123.846, -150.934, 125.614, 89.4066, 0, 0, 2.50535, -54.6758, 2.5233, -174.008, 2.48779, 66.3327, 0.0686547, 24.9345
0, 3060.00000, 124.733, -31.6019, 123.846, -150.934, 125.614, 89.4066, 0, 0, 2.50535, -54.6758, 2.5233, -174.008, 2.48779, 66.3327, 0.0686589, 24.9353
0, 3120.00000, 124.733, -31.602, 123.846, -150.934, 125.614, 89.4066, 0, 0, 2.50535, -54.6759, 2.5233, -174.008, 2.48778, 66.3327, 0.0686627, 24.936
0, 3180.00000, 124.733, -31.602, 123.846, -150.934, 125.614, 89.4066, 0, 0, 2.50535, -54.6759, 2.5233, -174.008, 2.48778, 66.3327, 0.0686661, 24.9367
0, 3240.00000, 124.733, -31.602, 123.846, -150.934, 125.614, 89.4066, 0, 0, 2.50535, -54.676, 2.5233, -174.008, 2.48778, 66.3327, 0.0686691, 24.9373
0, 3300.00000, 124.733, -31.6021, 123.846, -150.934, 125.614, 89.4066, 0, 0, 2.50534, -54.676, 2.5233, -174.008, 2.48778, 66.3327, 0.0686719, 24.9378
0, 3360.00000, 124.733, -31.6021, 123.846, -150.934, 125.614, 89.4066, 0, 0, 2.50534, -54.676, 2.5233, -174.008, 2.48778, 66.3327, 0.0686744, 24.9383
0, 3420.00000, 124.733, -31.6021, 123.846, -150.934, 125.614, 89.4066, 0, 0, 2.50534, -54.6761, 2.5233, -174.008, 2.48778, 66.3326, 0.0686766, 24.9387
0, 3480.00000, 124.733, -31.6022, 123.846, -150.934, 125.614, 89.4066, 0, 0, 2.50534, -54.6761, 2.5233, -174.008, 2.48777, 66.3326, 0.0686787, 24.9391
0, 3540.00000, 124.862, -31.6109, 124.79, -150.546, 126.824, 89.2192, 0, 0, 2.50277, -54.6848, 2.50422, -173.62, 2.46405, 66.1453, 0.0808893, 55.8444
1, 0.00000, 124.862, -31.6109, 124.79, -150.546, 126.824, 89.2192, 0, 0, 2.50276, -54.6848, 2.50422, -173.62, 2.46405, 66.1453, 0.0808914, 55.8435
1, 60.00000, 124.862, -31.6109, 124.79, -150.546, 126.824, 89.2192, 0, 0, 2.50276, -54.6849, 2.50422, -173.62, 2.46405, 66.1453, 0.0808928, 55.8432
1, 120.00000, 124.862, -31.611, 124.79, -150.546, 126.824, 89.2192, 0, 0, 2.50276, -54.6849, 2.50422, -173.62, 2.46405, 66.1453, 0.0808941, 55.8429
1, 180.00000, 124.862, -31.611, 124.79, -150.546, 126.824, 89.2192, 0, 0, 2.50276, -54.6849, 2.50422, -173.62, 2.46405, 66.1453, 0.0808952, 55.8426
1, 240.00000, 124.862, -31.611, 124.79, -150.546, 126.824, 89.2192, 0, 0, 2.50276, -54.6849, 2.50422, -173.62, 2.46405, 66.1453, 0.0808962, 55.8424
1, 300.00000, 124.862, -31.611, 124.79, -150.546, 126.824, 89.2192, 0, 0, 2.50276, -54.6849, 2.50422, -173.62, 2.46405, 66.1453, 0.0808972, 55.8421
1, 360.00000, 124.862, -31.611, 124.79, -150.546, 126.824, 89.2192, 0, 0, 2.50276, -54.6849, 2.50422, -173.62, 2.46404, 66.1453, 0.080898, 55.8419
1, 420.00000, 124.862, -31.611, 124.79, -150.546, 126.824, 89.2192, 0, 0, 2.50276, -54.6849, 2.50422, -173.62, 2.46404, 66.1453, 0.0808988, 55.8418
1, 480.00000, 124.862, -31.611, 124.79, -150.546, 126.824, 89.2192, 0, 0, 2.50276, -54.6849, 2.50422, -173.62, 2.46404, 66.1453, 0.0808995, 55.8416
1, 540.00000, 124.862, -31.611, 124.79, -150.546, 126.824, 89.2192, 0, 0, 2.50276, -54.6849, 2.50422, -173.62, 2.46404, 66.1453, 0.0809001, 55.8414
1, 600.00000, 124.862, -31.611, 124.79, -150.546, 126.824, 89.2192, 0, 0, 2.50276, -54.685, 2.50422, -173.62, 2.46404, 66.1453, 0.0809006, 55.8413
1, 660.00000, 124.987, -31.4436, 125.187, -150.506, 126.821, 89.2204, 0, 0, 2.50026, -54.5175, 2.49626, -173.58, 2.46409, 66.1465, 0.0696657, 61.877
1, 720.00000, 124.987, -31.4436, 125.187, -150.506, 126.821, 89.2204, 0, 0, 2.50026, -54.5175, 2.49626, -173.58, 2.46409, 66.1465, 0.069666, 61.8768
1, 780.00000, 126.27, -31.5529, 125.099, -150.516, 127.833, 89.5775, 0, 0, 2.47485, -54.6269, 2.49803, -173.589, 2.4446, 66.5035, 0.0930631, 36.2225
1, 840.00000, 126.27, -31.5529, 125.099, -150.516, 127.833, 89.5775, 0, 0, 2.47485, -54.6269, 2.49803, -173.589, 2.4446, 66.5035, 0.0930639, 36.2221
1, 900.00000, 126.27, -31.5529, 125.099, -150.516, 127.833, 89.5775, 0, 0, 2.47485, -54.6269, 2.49803, -173.589, 2.4446, 66.5035, 0.0930642, 36.2221
1, 960.00000, 126.27, -31.553, 125.099, -150.516, 127.833, 89.5775, 0, 0, 2.47485, -54.6269, 2.49803, -173.589, 2.4446, 66.5035, 0.0930645, 36.2221
1, 1020.00000, 126.27, -31.553, 125.099, -150.516, 127.833, 89.5775, 0, 0, 2.47485, -54.6269, 2.49803, -173.589, 2.4446, 66.5035, 0.0930648, 36.2221
1, 1080.00000, 126.27, -31.553, 125.099, -150.516, 127.833, 89.5775, 0, 0, 2.47485, -54.6269, 2.49803, -173.589, 2.4446, 66.5035, 0.093065, 36.2221
1, 1140.00000, 126.27, -31.553, 125.099, -150.516, 127.833, 89.5775, 0, 0, 2.47485, -54.6269, 2.49803, -173.589, 2.4446, 66.5035, 0.0930653, 36.2221
1, 1200.00000, 126.27, -31.553, 125.099, -150.516, 127.833, 89.5775, 0, 0, 2.47485, -54.6269, 2.49803, -173.589, 2.4446, 66.5035, 0.0930655, 36.2221
1, 1260.00000, 126.27, -31.553, 125.099, -150.516, 127.833, 89.5775, 0, 0, 2.47485, -54.6269, 2.49803, -173.589, 2.4446, 66.5035, 0.0930656, 36.2221
1, 1320.00000, 126.27, -31.553, 125.099, -150.516, 127.833, 89.5775, 0, 0, 2.47485, -54.6269, 2.49803, -173.589, 2.4446, 66.5035, 0.0930658, 36.2221
1, 1380.00000, 126.27, -31.553, 125.099, -150.516, 127.833, 89.5775, 0, 0, 2.47485, -54.6269, 2.49803, -173.589, 2.4446, 66.5035, 0.0930659, 36.2221
1, 1440.00000, 126.27, -31.553, 125.099, -150.516, 127.833, 89.5775, 0, 0, 2.47485, -54.6269, 2.49803, -173.589, 2.4446, 66.5035, 0.0930661, 36.2221
1, 1500.00000, 126.27, -31.553, 125.099, -150.516, 127.833, 89.5775, 0, 0, 2.47485, -54.6269, 2.49803, -173.589, 2.4446, 66.5035, 0.0930662, 36.2221
1, 1560.00000, 126.27, -31.553, 125.099, -150.516, 127.833, 89.5775, 0, 0, 2.47485, -54.6269, 2.49803, -173.589, 2.4446, 66.5035, 0.0930663, 36.2221
1, 1620.00000, 126.27, -31.553, 125.099, -150.516, 127.833, 89.5775, 0, 0, 2.47485, -54.6269, 2.49803, -173.589, 2.4446, 66.5035, 0.0930664, 36.2221
1, 1680.00000, 126.27, -31.553, 125.099, -150.516, 127.833, 89.5775, 0, 0, 2.47485, -54.6269, 2.49803, -173.589, 2.4446, 66.5035, 0.0930665, 36.2221
1, 1740.00000, 126.27, -31.553, 125.099, -150.516, 127.833, 89.5775, 0, 0, 2.47485, -54.6269, 2.49803, -173.589, 2.4446, 66.5035, 0.0930665, 36.2221
1, 1800.00000, 126.27, -31.553, 125.099, -150.516, 127.833, 89.5775, 0, 0, 2.47485, -54.6269, 2.49803, -173.589, 2.4446, 66.5035, 0.0930666, 36.2221
1, 1860.00000, 126.27, -31.553, 125.099, -150.516, 127.833, 89.5775, 0, 0, 2.47485, -54.6269, 2.49803, -173.589, 2.4446, 66.5035, 0.0930667, 36.2221
1, 1920.00000, 126.27, -31.553, 125.099, -150.516, 127.833, 89.5775, 0, 0, 2.47485, -54.6269, 2.49803, -173.589, 2.4446, 66.5035, 0.0930667, 36.2221
1, 1980.00000, 126.27, -31.553, 125.099, -150.516, 127.833, 89.5775, 0, 0, 2.47485, -54.6269, 2.49803, -173.589, 2.4446, 66.5035, 0.0930668, 36.2221
1, 2040.00000, 126.27, -31.553, 125.099, -150.516, 127.833, 89.5775, 0, 0, 2.47485, -54.6269, 2.49803, -173.589, 2.4446, 66.5035, 0.0930668, 36.2221
1, 2100.00000, 126.27, -31.553, 125.099, -150.516, 127.833, 89.5775, 0, 0, 2.47485, -54.6269, 2.49803, -173.589, 2.4446, 66.5035, 0.0930669, 36.2221
1, 2160.00000, 126.27, -31.553, 125.099, -150.516, 127.833, 89.5775, 0, 0, 2.47485, -54.6269, 2.49803, -173.589, 2.4446, 66.5035, 0.0930669, 36.2221
1, 2220.00000, 126.27, -31.553, 125.099, -150.516, 127.833, 89.5775, 0, 0, 2.47485, -54.6269, 2.49803, -173.589, 2.4446, 66.5035, 0.0930669, 36.2221
1, 2280.00000, 126.27, -31.553, 125.099, -150.516, 127.833, 89.5775, 0, 0, 2.47485, -54.6269, 2.49803, -173.589, 2.4446, 66.5035, 0.093067, 36.2221
1, 2340.00000, 126.27, -31.553, 125.099, -150.516, 127.833, 89.5775, 0, 0, 2.47485, -54.6269, 2.49803, -173.589, 2.4446, 66.5035, 0.093067, 36.2221
1, 2400.00000, 126.27, -31.553, 125.099, -150.516, 127.833, 89.5775, 0, 0, 2.47485, -54.6269, 2.49803, -173.589, 2.4446, 66.5035, 0.093067, 36.2221
1, 2460.00000, 126.27, -31.553, 125.099, -150.516, 127.833, 89.5775, 0, 0, 2.47485, -54.6269, 2.49803, -173.589, 2.4446, 66.5035, 0.093067, 36.2221
1, 2520.00000, 126.27, -31.553, 125.099, -150.516, 127.833, 89.5775, 0, 0, 2.47485, -54.6269, 2.49803, -173.589, 2.4446, 66.5035, 0.0930671, 36.2221
1, 2580.00000, 126.27, -31.553, 125.099, -150.516, 127.833, 89.5775, 0, 0, 2.47485, -54.6269, 2.49803, -173.589, 2.4446, 66.5035, 0.0930671, 36.2221
1, 2640.00000, 126.27, -31.553, 125.099, -150.516, 127.833, 89.5775, 0, 0, 2.47485, -54.6269, 2.49803, -173.589, 2.4446, 66.5035, 0.0930671, 36.2221
1, 2700.00000, 126.27, -31.553, 125.099, -150.516, 127.833, 89.5775, 0, 0, 2.47485, -54.6269, 2.49803, -173.589, 2.4446, 66.5035, 0.0930671, 36.2221
1, 2760.00000, 126.27, -31.553, 125.099, -150.516, 127.833, 89.5775, 0, 0, 2.47485, -54.6269, 2.49803, -173.589, 2.4446, 66.5035, 0.0930671, 36.2221
1, 2820.00000, 126.27, -31.553, 125.099, -150.516, 127.833, 89.5775, 0, 0, 2.47485, -54.6269, 2.49803, -173.589, 2.4446, 66.5035, 0.0930671, 36.2221
1, 2880.00000, 126.27, -31.553, 125.099, -150.516, 127.833, 89.5775, 0, 0, 2.47485, -54.6269, 2.49803, -173.589, 2.4446, 66.5035, 0.0930671, 36.2221
1, 2940.00000, 126.27, -31.553, 125.099, -150.516, 127.833, 89.5775, 0, 0, 2.47485, -54.6269, 2.49803, -173.589, 2.4446, 66.5035, 0.0930671, 36.2221
1, 3000.00000, 126.27, -31.553, 125.099, -150.516, 127.833, 89.5775, 0, 0, 2.47485, -54.6269, 2.49803, -173.589, 2.4446, 66.5035, 0.0930672, 36.2221
1, 3060.00000, 126.27, -31.553, 125.099, -150.516, 127.833, 89.5775, 0, 0, 2.47485, -54.6269, 2.49803, -173.589, 2.4446, 66.5035, 0.0930672, 36.2221
1, 3120.00000, 126.27, -31.553, 125.099, -150.516, 127.833, 89.5775, 0, 0, 2.47485, -54.6269, 2.49803, -173.589, 2.4446, 66.5035, 0.0930672, 36.2221
1, 3180.00000, 126.27, -31.553, 125.099, -150.516, 127.833, 89.5775, 0, 0, 2.47485, -54.6269, 2.49803, -173.589, 2.4446, 66.5035, 0.0930672, 36.2221
1, 3240.00000, 126.27, -31.553, 125.099, -150.516, 127.833, 89.5775, 0, 0, 2.47485, -54.6269, 2.49803, -173.589, 2.4446, 66.5035, 0.0930672, 36.2221
1, 3300.00000, 126.27, -31.553, 125.099, -150.516, 127.833, 89.5775, 0, 0, 2.47485, -54.6269, 2.49803, -173.589, 2.4446, 66.5035, 0.0930672, 36.2221
1, 3360.00000, 126.27, -31.553, 125.099, -150.516, 127.833, 89.5775, 0, 0, 2.47485, -54.6269, 2.49803, -173.589, 2.4446, 66.5035, 0.0930672, 36.2221
1, 3420.00000, 126.27, -31.553, 125.099, -150.516, 127.833, 89.5775, 0, 0, 2.47485, -54.6269, 2.49803, -173.589, 2.4446, 66.5035, 0.0930672, 36.2221
1, 3480.00000, 126.397, -31.3858, 125.498, -150.475, 127.829, 89.5795, 0, 0, 2.47237, -54.4597, 2.49008, -173.549, 2.44466, 66.5056, 0.0798501, 38.3791
1, 3540.00000, 126.397, -31.3858, 125.498, -150.475, 127.829, 89.5795, 0, 0, 2.47237, -54.4597, 2.49008, -173.549, 2.44466, 66.5056, 0.07985, 38.3791
2, 0.00000, 126.397, -31.3858, 125.498, -150.475, 127.829, 89.5795, 0, 0, 2.47237, -54.4597, 2.49008, -173.549, 2.44466, 66.5056, 0.0798501, 38.3791
2, 60.00000, 126.397, -31.3858, 125.498, -150.475, 127.829, 89.5795, 0, 0, 2.47237, -54.4597, 2.49008, -173.549, 2.44466, 66.5056, 0.0798501, 38.3791
2, 120.00000, 126.389, -31.3868, 125.491, -150.476, 127.823, 89.5786, 0, 0, 2.47936, -54.4607, 2.4971, -173.55, 2.45156, 66.5047, 0.0800797, 38.3872
2, 180.00000, 126.382, -31.3878, 125.484, -150.477, 127.816, 89.5777, 0, 0, 2.48643, -54.4617, 2.50421, -173.55, 2.45853, 66.5038, 0.0803122, 38.3955
2, 240.00000, 126.374, -31.3887, 125.478, -150.478, 127.809, 89.5768, 0, 0, 2.49342, -54.4627, 2.51124, -173.551, 2.46543, 66.5029, 0.080542, 38.4037
2, 300.00000, 126.367, -31.3897, 125.471, -150.478, 127.802, 89.5759, 0, 0, 2.50041, -54.4636, 2.51826, -173.552, 2.47232, 66.502, 0.0807718, 38.4119
2, 360.00000, 126.359, -31.3907, 125.464, -150.479, 127.795, 89.575, 0, 0, 2.50749, -54.4646, 2.52537, -173.553, 2.4793, 66.5011, 0.0810044, 38.4201
2, 420.00000, 126.352, -31.3917, 125.457, -150.48, 127.789, 89.5741, 0, 0, 2.51448, -54.4656, 2.5324, -173.554, 2.4862, 66.5002, 0.0812343, 38.4283
2, 480.00000, 126.344, -31.3927, 125.451, -150.481, 127.782, 89.5732, 0, 0, 2.52147, -54.4666, 2.53943, -173.555, 2.4931, 66.4993, 0.0814643, 38.4365
2, 540.00000, 126.336, -31.3937, 125.444, -150.482, 127.775, 89.5723, 0, 0, 2.52855, -54.4676, 2.54654, -173.556, 2.50008, 66.4984, 0.0816971, 38.4448
2, 600.00000, 126.329, -31.3946, 125.437, -150.483, 127.768, 89.5714, 0, 0, 2.53554, -54.4685, 2.55357, -173.557, 2.50698, 66.4975, 0.0819272, 38.453
2, 660.00000, 126.321, -31.3956, 125.43, -150.484, 127.761, 89.5706, 0, 0, 2.54254, -54.4695, 2.5606, -173.558, 2.51388, 66.4966, 0.0821573, 38.4612
2, 720.00000, 126.314, -31.3966, 125.423, -150.485, 127.755, 89.5697, 0, 0, 2.54962, -54.4705, 2.56772, -173.559, 2.52086, 66.4957, 0.0823903, 38.4695
2, 780.00000, 126.306, -31.3976, 125.417, -150.486, 127.748, 89.5688, 0, 0, 2.55662, -54.4715, 2.57475, -173.56, 2.52777, 66.4948, 0.0826205, 38.4777
