hour,t(sec),V1,VAngle1,V2,VAngle2,V3,VAngle3,V4,VAngle4,I1,IAngle1,I2,IAngle2,I3,IAngle3,I4,IAngle4
0, 60.00000, 126.097, -31.9129, 125.462, -150.436, 128.6, 89.1221, 0, 0, 1.72398, -54.9863, 1.73272, -173.51, 1.69047, 66.0489, 0.0780416, 53.7095
0, 120.00000, 126.105, -31.9282, 125.462, -150.436, 128.633, 89.1163, 0, 0, 1.72388, -55.0017, 1.73273, -173.51, 1.69003, 66.043, 0.078854, 53.728
0, 180.00000, 126.111, -31.942, 125.461, -150.435, 128.663, 89.111, 0, 0, 1.72379, -55.0155, 1.73274, -173.509, 1.68964, 66.0377, 0.0795854, 53.7447
0, 240.00000, 126.117, -31.9545, 125.461, -150.435, 128.69, 89.1063, 0, 0, 1.72372, -55.028, 1.73274, -173.509, 1.68928, 66.0329, 0.0802438, 53.7598
0, 300.00000, 126.122, -31.9656, 125.46, -150.435, 128.715, 89.102, 0, 0, 1.72365, -55.0392, 1.73275, -173.509, 1.68896, 66.0286, 0.0808364, 53.7734
0, 360.00000, 126.127, -31.9757, 125.46, -150.435, 128.736, 89.0982, 0, 0, 1.72358, -55.0493, 1.73275, -173.508, 1.68867, 66.0247, 0.0813699, 53.7857
0, 420.00000, 126.131, -31.9848, 125.46, -150.434, 128.756, 89.0947, 0, 0, 1.72353, -55.0584, 1.73276, -173.508, 1.68841, 66.0212, 0.0818501, 53.7968
0, 480.00000, 126.135, -31.993, 125.459, -150.434, 128.774, 89.0916, 0, 0, 1.72348, -55.0666, 1.73276, -173.508, 1.68818, 66.0181, 0.0822823, 53.8068
0, 540.00000, 126.138, -32.0003, 125.459, -150.434, 128.79, 89.0888, 0, 0, 1.72343, -55.074, 1.73277, -173.508, 1.68797, 66.0152, 0.0826714, 53.8158
0, 600.00000, 126.141, -32.0069, 125.459, -150.434, 128.804, 89.0863, 0, 0, 1.72339, -55.0806, 1.73277, -173.508, 1.68778, 66.0126, 0.0830215, 53.824
0, 660.00000, 126.144, -32.0129, 125.459, -150.434, 128.817, 89.084, 0, 0, 1.72336, -55.0866, 1.73277, -173.508, 1.68761, 66.0103, 0.0833367, 53.8313
0, 720.00000, 126.146, -32.0183, 125.459, -150.434, 128.828, 89.0819, 0, 0, 1.72332, -55.092, 1.73277, -173.507, 1.68746, 66.0082, 0.0836204, 53.8379
0, 780.00000, 126.148, -32.0231, 125.458, -150.433, 128.839, 89.0801, 0, 0, 1.72329, -55.0969, 1.73278, -173.507, 1.68732, 66.0064, 0.0838758, 53.8439
0, 840.00000, 126.15, -32.0274, 125.458, -150.433, 128.848, 89.0784, 0, 0, 1.72327, -55.1012, 1.73278, -173.507, 1.6872, 66.0047, 0.0841056, 53.8493
0, 900.00000, 126.152, -32.0314, 125.458, -150.433, 128.857, 89.0769, 0, 0, 1.72324, -55.1051, 1.73278, -173.507, 1.68709, 66.0032, 0.0843124, 53.8541
0, 960.00000, 126.154, -32.0349, 125.458, -150.433, 128.864, 89.0755, 0, 0, 1.72322, -55.1087, 1.73278, -173.507, 1.68699, 66.0018, 0.0844986, 53.8585
0, 1020.00000, 126.155, -32.0381, 125.458, -150.433, 128.871, 89.0743, 0, 0, 1.7232, -55.1119, 1.73278, -173.507, 1.6869, 66.0005, 0.0846662, 53.8624
0, 1080.00000, 126.156, -32.0409, 125.458, -150.433, 128.877, 89.0732, 0, 0, 1.72318, -55.1147, 1.73278, -173.507, 1.68681, 65.9994, 0.084817, 53.866
0, 1140.00000, 126.158, -32.0435, 125.458, -150.433, 128.883, 89.0722, 0, 0, 1.72317, -55.1173, 1.73279, -173.507, 1.68674, 65.9984, 0.0849528, 53.8692
0, 1200.00000, 126.159, -32.0458, 125.458, -150.433, 128.888, 89.0713, 0, 0, 1.72316, -55.1196, 1.73279, -173.507, 1.68668, 65.9975, 0.0850749, 53.872
0, 1260.00000, 126.16, -32.0479, 125.458, -150.433, 128.892, 89.0705, 0, 0, 1.72314, -55.1217, 1.73279, -173.507, 1.68662, 65.9967, 0.0851849, 53.8746
0, 1320.00000, 126.16, -32.0497, 125.457, -150.433, 128.896, 89.0698, 0, 0, 1.72313, -55.1236, 1.73279, -173.507, 1.68656, 65.996, 0.0852839, 53.877
0, 1380.00000, 126.161, -32.0514, 125.457, -150.433, 128.9, 89.0691, 0, 0, 1.72312, -55.1253, 1.73279, -173.507, 1.68652, 65.9953, 0.0853729, 53.8791
0, 1440.00000, 126.162, -32.0529, 125.457, -150.433, 128.903, 89.0686, 0, 0, 1.72311, -55.1268, 1.73279, -173.507, 1.68647, 65.9947, 0.0854531, 53.881
0, 1500.00000, 126.163, -32.0543, 125.457, -150.433, 128.906, 89.068, 0, 0, 1.7231, -55.1282, 1.73279, -173.507, 1.68643, 65.9942, 0.0855253, 53.8827
0, 1560.00000, 126.163, -32.0555, 125.457, -150.433, 128.909, 89.0676, 0, 0, 1.7231, -55.1294, 1.73279, -173.507, 1.6864, 65.9937, 0.0855902, 53.8842
0, 1620.00000, 126.164, -32.0567, 125.457, -150.433, 128.911, 89.0671, 0, 0, 1.72309, -55.1305, 1.73279, -173.506, 1.68637, 65.9933, 0.0856486, 53.8856
0, 1680.00000, 126.164, -32.0576, 125.457, -150.433, 128.913, 89.0667, 0, 0, 1.72308, -55.1315, 1.73279, -173.506, 1.68634, 65.9929, 0.0857012, 53.8868
0, 1740.00000, 126.164, -32.0585, 125.457, -150.433, 128.915, 89.0664, 0, 0, 1.72308, -55.1324, 1.73279, -173.506, 1.68631, 65.9925, 0.0857486, 53.8879
0, 1800.00000, 126.165, -32.0594, 125.457, -150.433, 128.917, 89.0661, 0, 0, 1.72307, -55.1332, 1.73279, -173.506, 1.68629, 65.9922, 0.0857912, 53.8889
0, 1860.00000, 126.165, -32.0601, 125.457, -150.432, 128.919, 89.0658, 0, 0, 1.72307, -55.134, 1.73279, -173.506, 1.68627, 65.9919, 0.0858295, 53.8899
0, 1920.00000, 126.165, -32.0607, 125.457, -150.432, 128.92, 89.0656, 0, 0, 1.72307, -55.1346, 1.73279, -173.506, 1.68625, 65.9917, 0.0858641, 53.8907
0, 1980.00000, 126.166, -32.0613, 125.457, -150.432, 128.921, 89.0653, 0, 0, 1.72306, -55.1352, 1.73279, -173.506, 1.68623, 65.9914, 0.0858951, 53.8914
0, 2040.00000, 126.166, -32.0619, 125.457, -150.432, 128.922, 89.0651, 0, 0, 1.72306, -55.1357, 1.73279, -173.506, 1.68622, 65.9912, 0.0859231, 53.8921
0, 2100.00000, 126.166, -32.0623, 125.457, -150.432, 128.923, 89.0649, 0, 0, 1.72306, -55.1362, 1.73279, -173.506, 1.68621, 65.991, 0.0859482, 53.8927
0, 2160.00000, 126.166, -32.0628, 125.457, -150.432, 128.924, 89.0648, 0, 0, 1.72305, -55.1367, 1.73279, -173.506, 1.68619, 65.9909, 0.0859709, 53.8932
0, 2220.00000, 126.166, -32.0631, 125.457, -150.432, 128.925, 89.0646, 0, 0, 1.72305, -55.137, 1.73279, -173.506, 1.68618, 65.9907, 0.0859913, 53.8937
0, 2280.00000, 126.167, -32.0635, 125.457, -150.432, 128.926, 89.0645, 0, 0, 1.72305, -55.1374, 1.73279, -173.506, 1.68617, 65.9906, 0.0860096, 53.8941
0, 2340.00000, 126.167, -32.0638, 125.457, -150.432, 128.927, 89.0644, 0, 0, 1.72305, -55.1377, 1.73279, -173.506, 1.68616, 65.9905, 0.0860261, 53.8945
0, 2400.00000, 126.167, -32.0641, 125.457, -150.432, 128.927, 89.0643, 0, 0, 1.72304, -55.138, 1.7328, -173.506, 1.68616, 65.9904, 0.086041, 53.8948
0, 2460.00000, 126.167, -32.0643, 125.457, -150.432, 128.928, 89.0642, 0, 0, 1.72304, -55.1382, 1.7328, -173.506, 1.68615, 65.9903, 0.0860543, 53.8952
0, 2520.00000, 126.167, -32.0646, 125.457, -150.432, 128.928, 89.0641, 0, 0, 1.72304, -55.1385, 1.7328, -173.506, 1.68614, 65.9902, 0.0860664, 53.8955
0, 2580.00000, 126.167, -32.0648, 125.457, -150.432, 128.929, 89.064, 0, 0, 1.72304, -55.1387, 1.7328, -173.506, 1.68614, 65.9901, 0.0860772, 53.8957
0, 2640.00000, 126.167, -32.065, 125.457, -150.432, 128.929, 89.0639, 0, 0, 1.72304, -55.1389, 1.7328, -173.506, 1.68613, 65.99, 0.086087, 53.8959
0, 2700.00000, 126.167, -32.0651, 125.457, -150.432, 128.929, 89.0639, 0, 0, 1.72304, -55.139, 1.7328, -173.506, 1.68613, 65.9899, 0.0860957, 53.8961
0, 2760.00000, 126.167, -32.0653, 125.457, -150.432, 128.93, 89.0638, 0, 0, 1.72304, -55.1392, 1.7328, -173.506, 1.68612, 65.9899, 0.0861036, 53.8963
0, 2820.00000, 126.168, -32.0654, 125.457, -150.432, 128.93, 89.0637, 0, 0, 1.72304, -55.1393, 1.7328, -173.506, 1.68612, 65.9898, 0.0861107, 53.8965
0, 2880.00000, 126.168, -32.0655, 125.457, -150.432, 128.93, 89.0637, 0, 0, 1.72304, -55.1394, 1.7328, -173.506, 1.68612, 65.9898, 0.0861171, 53.8967
0, 2940.00000, 126.168, -32.0656, 125.457, -150.432, 128.931, 89.0637, 0, 0, 1.72304, -55.1395, 1.7328, -173.506, 1.68611, 65.9897, 0.0861229, 53.8968
0, 3000.00000, 126.168, -32.0657, 125.457, -150.432, 128.931, 89.0636, 0, 0, 1.72304, -55.1396, 1.7328, -173.506, 1.68611, 65.9897, 0.0861281, 53.8969
0, 3060.00000, 126.168, -32.0658, 125.457, -150.432, 128.931, 89.0636, 0, 0, 1.72303, -55.1397, 1.7328, -173.506, 1.68611, 65.9897, 0.0861327, 53.897
0, 3120.00000, 126.168, -32.0659, 125.457, -150.432, 128.931, 89.0636, 0, 0, 1.72303, -55.1398, 1.7328, -173.506, 1.6861, 65.9896, 0.0861369, 53.8971
0, 3180.00000, 126.168, -32.066, 125.457, -150.432, 128.931, 89.0635, 0, 0, 1.72303, -55.1399, 1.7328, -173.506, 1.6861, 65.9896, 0.0861407, 53.8972
0, 3240.00000, 126.168, -32.066, 125.457, -150.432, 128.931, 89.0635, 0, 0, 1.72303, -55.14, 1.7328, -173.506, 1.6861, 65.9896, 0.0861441, 53.8973
0, 3300.00000, 126.168, -32.0661, 125.457, -150.432, 128.932, 89.0635, 0, 0, 1.72303, -55.14, 1.7328, -173.506, 1.6861, 65.9896, 0.0861472, 53.8974
0, 3360.00000, 126.168, -32.0661, 125.457, -150.432, 128.932, 89.0635, 0, 0, 1.72303, -55.1401, 1.7328, -173.506, 1.6861, 65.9895, 0.0861499, 53.8974
0, 3420.00000, 126.168, -32.0662, 125.457, -150.432, 128.932, 89.0634, 0, 0, 1.72303, -55.1401, 1.7328, -173.506, 1.6861, 65.9895, 0.0861524, 53.8975
0, 3480.00000, 126.168, -32.0662, 125.457, -150.432, 128.932, 89.0634, 0, 0, 1.72303, -55.1402, 1.7328, -173.506, 1.6861, 65.9895, 0.0861546, 53.8975
0, 3540.00000, 126.168, -32.0663, 125.457, -150.432, 128.932, 89.0634, 0, 0, 1.72303, -55.1402, 1.7328, -173.506, 1.68609, 65.9895, 0.0861566, 53.8976
1, 0.00000, 126.168, -32.0663, 125.457, -150.432, 128.932, 89.0634, 0, 0, 1.72303, -55.1402, 1.7328, -173.506, 1.68609, 65.9895, 0.0861584, 53.8976
1, 60.00000, 126.168, -32.0663, 125.457, -150.432, 128.932, 89.0634, 0, 0, 1.72303, -55.1403, 1.7328, -173.506, 1.68609, 65.9895, 0.0861601, 53.8977
1, 120.00000, 126.168, -32.0664, 125.457, -150.432, 128.932, 89.0634, 0, 0, 1.72303, -55.1403, 1.7328, -173.506, 1.68609, 65.9895, 0.0861615, 53.8977
1, 180.00000, 126.168, -32.0664, 125.457, -150.432, 128.932, 89.0634, 0, 0, 1.72303, -55.1403, 1.7328, -173.506, 1.68609, 65.9894, 0.0861628, 53.8977
1, 240.00000, 126.168, -32.0664, 125.457, -150.432, 128.932, 89.0634, 0, 0, 1.72303, -55.1403, 1.7328, -173.506, 1.68609, 65.9894, 0.086164, 53.8978
1, 300.00000, 126.168, -32.0664, 125.457, -150.432, 128.932, 89.0633, 0, 0, 1.72303, -55.1404, 1.7328, -173.506, 1.68609, 65.9894, 0.0861651, 53.8978
1, 360.00000, 126.168, -32.0665, 125.457, -150.432, 128.932, 89.0633, 0, 0, 1.72303, -55.1404, 1.7328, -173.506, 1.68609, 65.9894, 0.0861661, 53.8978
1, 420.00000, 126.168, -32.0665, 125.457, -150.432, 128.932, 89.0633, 0, 0, 1.72303, -55.1404, 1.7328, -173.506, 1.68609, 65.9894, 0.0861669, 53.8978
1, 480.00000, 126.168, -32.0665, 125.457, -150.432, 128.932, 89.0633, 0, 0, 1.72303, -55.1404, 1.7328, -173.506, 1.68609, 65.9894, 0.0861677, 53.8978
1, 540.00000, 126.168, -32.0665, 125.457, -150.432, 128.932, 89.0633, 0, 0, 1.72303, -55.1404, 1.7328, -173.506, 1.68609, 65.9894, 0.0861684, 53.8979
1, 600.00000, 126.168, -32.0665, 125.457, -150.432, 128.932, 89.0633, 0, 0, 1.72303, -55.1404, 1.7328, -173.506, 1.68609, 65.9894, 0.086169, 53.8979
1, 660.00000, 126.168, -32.0665, 125.457, -150.432, 128.932, 89.0633, 0, 0, 1.72303, -55.1404, 1.7328, -173.506, 1.68609, 65.9894, 0.0861696, 53.8979
1, 720.00000, 126.168, -32.0665, 125.457, -150.432, 128.932, 89.0633, 0, 0, 1.72303, -55.1404, 1.7328, -173.506, 1.68609, 65.9894, 0.0861701, 53.8979
1, 780.00000, 126.168, -32.0665, 125.457, -150.432, 128.932, 89.0633, 0, 0, 1.72303, -55.1405, 1.7328, -173.506, 1.68609, 65.9894, 0.0861706, 53.8979
1, 840.00000, 126.168, -32.0665, 125.457, -150.432, 128.932, 89.0633, 0, 0, 1.72303, -55.1405, 1.7328, -173.506, 1.68609, 65.9894, 0.086171, 53.8979
1, 900.00000, 126.168, -32.0666, 125.457, -150.432, 128.932, 89.0633, 0, 0, 1.72303, -55.1405, 1.7328, -173.506, 1.68609, 65.9894, 0.0861713, 53.8979
1, 960.00000, 126.168, -32.0666, 125.457, -150.432, 128.933, 89.0633, 0, 0, 1.72303, -55.1405, 1.7328, -173.506, 1.68609, 65.9894, 0.0861717, 53.8979
1, 1020.00000, 126.168, -32.0666, 125.457, -150.432, 128.933, 89.0633, 0, 0, 1.72303, -55.1405, 1.7328, -173.506, 1.68609, 65.9894, 0.086172, 53.8979
1, 1080.00000, 126.168, -32.0666, 125.457, -150.432, 128.933, 89.0633, 0, 0, 1.72303, -55.1405, 1.7328, -173.506, 1.68609, 65.9894, 0.0861723, 53.898
1, 1140.00000, 126.168, -32.0666, 125.457, -150.432, 128.933, 89.0633, 0, 0, 1.72303, -55.1405, 1.7328, -173.506, 1.68609, 65.9894, 0.0861725, 53.898
1, 1200.00000, 126.168, -32.0666, 125.457, -150.432, 128.933, 89.0633, 0, 0, 1.72303, -55.1405, 1.7328, -173.506, 1.68609, 65.9894, 0.0861727, 53.898
1, 1260.00000, 126.168, -32.0666, 125.457, -150.432, 128.933, 89.0633, 0, 0, 1.72303, -55.1405, 1.7328, -173.506, 1.68609, 65.9894, 0.0861729, 53.898
1, 1320.00000, 126.168, -32.0666, 125.457, -150.432, 128.933, 89.0633, 0, 0, 1.72303, -55.1405, 1.7328, -173.506, 1.68609, 65.9894, 0.0861731, 53.898
1, 1380.00000, 126.168, -32.0666, 125.457, -150.432, 128.933, 89.0633, 0, 0, 1.72303, -55.1405, 1.7328, -173.506, 1.68609, 65.9894, 0.0861733, 53.898
1, 1440.00000, 126.168, -32.0666, 125.457, -150.432, 128.933, 89.0633, 0, 0, 1.72303, -55.1405, 1.7328, -173.506, 1.68608, 65.9894, 0.0861734, 53.898
1, 1500.00000, 126.168, -32.0666, 125.457, -150.432, 128.933, 89.0633, 0, 0, 1.72303, -55.1405, 1.7328, -173.506, 1.68608, 65.9894, 0.0861735, 53.898
1, 1560.00000, 126.168, -32.0666, 125.457, -150.432, 128.933, 89.0633, 0, 0, 1.72303, -55.1405, 1.7328, -173.506, 1.68608, 65.9894, 0.0861736, 53.898
1, 1620.00000, 126.168, -32.0666, 125.457, -150.432, 128.933, 89.0633, 0, 0, 1.72303, -55.1405, 1.7328, -173.506, 1.68608, 65.9894, 0.0861737, 53.898
1, 1680.00000, 126.168, -32.0666, 125.457, -150.432, 128.933, 89.0633, 0, 0, 1.72303, -55.1405, 1.7328, -173.506, 1.68608, 65.9894, 0.0861738, 53.898
1, 1740.00000, 126.168, -32.0666, 125.457, -150.432, 128.933, 89.0633, 0, 0, 1.72303, -55.1405, 1.7328, -173.506, 1.68608, 65.9894, 0.0861739, 53.898
1, 1800.00000, 126.168, -32.0666, 125.457, -150.432, 128.933, 89.0633, 0, 0, 1.72303, -55.1405, 1.7328, -173.506, 1.68608, 65.9894, 0.086174, 53.898
1, 1860.00000, 126.168, -32.0666, 125.457, -150.432, 128.933, 89.0633, 0, 0, 1.72303, -55.1405, 1.7328, -173.506, 1.68608, 65.9894, 0.0861741, 53.898
1, 1920.00000, 126.168, -32.0666, 125.457, -150.432, 128.933, 89.0633, 0, 0, 1.72303, -55.1405, 1.7328, -173.506, 1.68608, 65.9894, 0.0861741, 53.898
1, 1980.00000, 126.168, -32.0666, 125.457, -150.432, 128.933, 89.0633, 0, 0, 1.72303, -55.1405, 1.7328, -173.506, 1.68608, 65.9894, 0.0861742, 53.898
1, 2040.00000, 126.168, -32.0666, 125.457, -150.432, 128.933, 89.0633, 0, 0, 1.72303, -55.1405, 1.7328, -173.506, 1.68608, 65.9894, 0.0861742, 53.898
1, 2100.00000, 126.168, -32.0666, 125.457, -150.432, 128.933, 89.0633, 0, 0, 1.72303, -55.1405, 1.7328, -173.506, 1.68608, 65.9894, 0.0861743, 53.898
1, 2160.00000, 126.168, -32.0666, 125.457, -150.432, 128.933, 89.0633, 0, 0, 1.72303, -55.1405, 1.7328, -173.506, 1.68608, 65.9894, 0.0861743, 53.898
1, 2220.00000, 126.168, -32.0666, 125.457, -150.432, 128.933, 89.0633, 0, 0, 1.72303, -55.1405, 1.7328, -173.506, 1.68608, 65.9894, 0.0861744, 53.898
1, 2280.00000, 126.168, -32.0666, 125.457, -150.432, 128.933, 89.0633, 0, 0, 1.72303, -55.1405, 1.7328, -173.506, 1.68608, 65.9894, 0.0861744, 53.898
1, 2340.00000, 126.168, -32.0666, 125.457, -150.432, 128.933, 89.0633, 0, 0, 1.72303, -55.1405, 1.7328, -173.506, 1.68608, 65.9894, 0.0861744, 53.898
1, 2400.00000, 126.168, -32.0666, 125.457, -150.432, 128.933, 89.0633, 0, 0, 1.72303, -55.1405, 1.7328, -173.506, 1.68608, 65.9894, 0.0861745, 53.898
1, 2460.00000, 126.168, -32.0666, 125.457, -150.432, 128.933, 89.0633, 0, 0, 1.72303, -55.1405, 1.7328, -173.506, 1.68608, 65.9894, 0.0861745, 53.898
1, 2520.00000, 126.168, -32.0666, 125.457, -150.432, 128.933, 89.0633, 0, 0, 1.72303, -55.1405, 1.7328, -173.506, 1.68608, 65.9894, 0.0861745, 53.898
1, 2580.00000, 126.168, -32.0666, 125.457, -150.432, 128.933, 89.0633, 0, 0, 1.72303, -55.1405, 1.7328, -173.506, 1.68608, 65.9894, 0.0861745, 53.898
1, 2640.00000, 126.168, -32.0666, 125.457, -150.432, 128.933, 89.0633, 0, 0, 1.72303, -55.1405, 1.7328, -173.506, 1.68608, 65.9894, 0.0861745, 53.898
1, 2700.00000, 126.168, -32.0666, 125.457, -150.432, 128.933, 89.0633, 0, 0, 1.72303, -55.1405, 1.7328, -173.506, 1.68608, 65.9894, 0.0861745, 53.898
1, 2760.00000, 126.168, -32.0666, 125.457, -150.432, 128.933, 89.0633, 0, 0, 1.72303, -55.1405, 1.7328, -173.506, 1.68608, 65.9894, 0.0861746, 53.898
1, 2820.00000, 126.168, -32.0666, 125.457, -150.432, 128.933, 89.0633, 0, 0, 1.72303, -55.1405, 1.7328, -173.506, 1.68608, 65.9894, 0.0861746, 53.898
1, 2880.00000, 126.168, -32.0666, 125.457, -150.432, 128.933, 89.0633, 0, 0, 1.72303, -55.1405, 1.7328, -173.506, 1.68608, 65.9894, 0.0861746, 53.898
1, 2940.00000, 126.168, -32.0666, 125.457, -150.432, 128.933, 89.0633, 0, 0, 1.72303, -55.1405, 1.7328, -173.506, 1.68608, 65.9894, 0.0861746, 53.898
1, 3000.00000, 126.168, -32.0666, 125.457, -150.432, 128.933, 89.0633, 0, 0, 1.72303, -55.1405, 1.7328, -173.506, 1.68608, 65.9894, 0.0861746, 53.898
1, 3060.00000, 126.168, -32.0666, 125.457, -150.432, 128.933, 89.0633, 0, 0, 1.72303, -55.1405, 1.7328, -173.506, 1.68608, 65.9894, 0.0861746, 53.898
1, 3120.00000, 126.168, -32.0666, 125.457, -150.432, 128.933, 89.0633, 0, 0, 1.72303, -55.1405, 1.7328, -173.506, 1.68608, 65.9894, 0.0861746, 53.898
1, 3180.00000, 126.168, -32.0666, 125.457, -150.432, 128.933, 89.0633, 0, 0, 1.72303, -55.1405, 1.7328, -173.506, 1.68608, 65.9894, 0.0861746, 53.898
1, 3240.00000, 126.168, -32.0666, 125.457, -150.432, 128.933, 89.0633, 0, 0, 1.72303, -55.1405, 1.7328, -173.506, 1.68608, 65.9894, 0.0861746, 53.898
1, 3300.00000, 126.168, -32.0666, 125.457, -150.432, 128.933, 89.0633, 0, 0, 1.72303, -55.1405, 1.7328, -173.506, 1.68608, 65.9894, 0.0861746, 53.898
1, 3360.00000, 126.168, -32.0666, 125.457, -150.432, 128.933, 89.0633, 0, 0, 1.72303, -55.1405, 1.7328, -173.506, 1.68608, 65.9894, 0.0861746, 53.898
1, 3420.00000, 126.168, -32.0666, 125.457, -150.432, 128.933, 89.0633, 0, 0, 1.72303, -55.1405, 1.7328, -173.506, 1.68608, 65.9894, 0.0861747, 53.898
1, 3480.00000, 126.168, -32.0666, 125.457, -150.432, 128.933, 89.0633, 0, 0, 1.72303, -55.1405, 1.7328, -173.506, 1.68608, 65.9894, 0.0861747, 53.898
1, 3540.00000, 126.168, -32.0666, 125.457, -150.432, 128.933, 89.0633, 0, 0, 1.72303, -55.1405, 1.7328, -173.506, 1.68608, 65.9894, 0.0861747, 53.898
2, 0.00000, 126.168, -32.0666, 125.457, -150.432, 128.933, 89.0633, 0, 0, 1.72303, -55.1405, 1.7328, -173.506, 1.68608, 65.9894, 0.0861747, 53.898
2, 60.00000, 126.168, -32.0666, 125.457, -150.432, 128.933, 89.0633, 0, 0, 1.72303, -55.1405, 1.7328, -173.506, 1.68608, 65.9894, 0.0861747, 53.898
2, 120.00000, 126.16, -32.0676, 125.45, -150.433, 128.926, 89.0624, 0, 0, 1.7279, -55.1415, 1.73768, -173.507, 1.69084, 65.9885, 0.086423, 53.9024
2, 180.00000, 126.153, -32.0685, 125.443, -150.434, 128.919, 89.0615, 0, 0, 1.73283, -55.1424, 1.74263, -173.508, 1.69565, 65.9876, 0.0866744, 53.9068
2, 240.00000, 126.145, -32.0695, 125.437, -150.435, 128.912, 89.0607, 0, 0, 1.7377, -55.1434, 1.74752, -173.509, 1.7004, 65.9868, 0.0869229, 53.9111
2, 300.00000, 126.138, -32.0704, 125.43, -150.436, 128.906, 89.0598, 0, 0, 1.74257, -55.1443, 1.75241, -173.51, 1.70516, 65.9859, 0.0871714, 53.9154
2, 360.00000, 126.13, -32.0714, 125.423, -150.437, 128.899, 89.0589, 0, 0, 1.74751, -55.1453, 1.75735, -173.511, 1.70997, 65.985, 0.0874229, 53.9198
2, 420.00000, 126.123, -32.0723, 125.417, -150.438, 128.892, 89.0581, 0, 0, 1.75238, -55.1462, 1.76224, -173.512, 1.71472, 65.9842, 0.0876716, 53.9242
2, 480.00000, 126.115, -32.0733, 125.41, -150.439, 128.885, 89.0572, 0, 0, 1.75725, -55.1472, 1.76713, -173.513, 1.71948, 65.9833, 0.0879203, 53.9285
2, 540.00000, 126.107, -32.0742, 125.403, -150.44, 128.879, 89.0563, 0, 0, 1.76219, -55.1482, 1.77208, -173.514, 1.72429, 65.9824, 0.088172, 53.9329
2, 600.00000, 126.1, -32.0752, 125.396, -150.441, 128.872, 89.0555, 0, 0, 1.76706, -55.1491, 1.77697, -173.515, 1.72905, 65.9815, 0.0884208, 53.9373
2, 660.00000, 126.092, -32.0761, 125.39, -150.442, 128.865, 89.0546, 0, 0, 1.77194, -55.1501, 1.78186, -173.516, 1.73381, 65.9807, 0.0886697, 53.9416
2, 720.00000, 126.085, -32.0771, 125.383, -150.443, 128.858, 89.0537, 0, 0, 1.77687, -55.151, 1.78682, -173.517, 1.73862, 65.9798, 0.0889216, 53.946
