hour,t(sec),V1,VAngle1,V2,VAngle2,V3,VAngle3,V4,VAngle4,I1,IAngle1,I2,IAngle2,I3,IAngle3,I4,IAngle4
0, 60.00000, 126.933, -31.3145, 126.554, -150.689, 127.936, 89.2361, 0, 0, 2.46192, -54.3882, 2.4693, -173.763, 2.44265, 66.1623, 0.0491103, 46.2897
0, 120.00000, 126.944, -31.3229, 126.554, -150.689, 127.959, 89.2359, 0, 0, 2.46172, -54.3966, 2.4693, -173.763, 2.44222, 66.1621, 0.0498272, 46.1588
0, 180.00000, 126.953, -31.3305, 126.554, -150.689, 127.979, 89.2358, 0, 0, 2.46154, -54.4042, 2.4693, -173.763, 2.44184, 66.1619, 0.0504727, 46.0446
0, 240.00000, 126.962, -31.3373, 126.554, -150.689, 127.997, 89.2356, 0, 0, 2.46137, -54.411, 2.4693, -173.763, 2.44149, 66.1617, 0.051054, 45.9446
0, 300.00000, 127.625, -31.345, 126.53, -150.692, 128.4, 89.4588, 0, 0, 2.44858, -54.4188, 2.46977, -173.765, 2.43382, 66.3849, 0.0628877, 28.0991
0, 360.00000, 127.632, -31.3505, 126.53, -150.692, 128.415, 89.4586, 0, 0, 2.44845, -54.4243, 2.46977, -173.765, 2.43354, 66.3847, 0.0633536, 28.1717
0, 420.00000, 127.638, -31.3555, 126.53, -150.692, 128.428, 89.4584, 0, 0, 2.44833, -54.4293, 2.46977, -173.765, 2.43329, 66.3845, 0.0637729, 28.2364
0, 480.00000, 127.643, -31.36, 126.53, -150.692, 128.44, 89.4582, 0, 0, 2.44823, -54.4338, 2.46977, -173.765, 2.43306, 66.3844, 0.0641504, 28.294
0, 540.00000, 127.648, -31.364, 126.53, -150.692, 128.45, 89.4581, 0, 0, 2.44813, -54.4378, 2.46977, -173.765, 2.43286, 66.3842, 0.0644901, 28.3454
0, 600.00000, 127.653, -31.3677, 126.53, -150.692, 128.46, 89.458, 0, 0, 2.44805, -54.4415, 2.46977, -173.765, 2.43268, 66.3841, 0.064796, 28.3912
0, 660.00000, 127.657, -31.3709, 126.53, -150.692, 128.469, 89.4578, 0, 0, 2.44797, -54.4447, 2.46977, -173.765, 2.43251, 66.384, 0.0650713, 28.4322
0, 720.00000, 127.66, -31.3739, 126.53, -150.692, 128.476, 89.4577, 0, 0, 2.4479, -54.4477, 2.46977, -173.765, 2.43236, 66.3839, 0.0653191, 28.4688
0, 780.00000, 127.664, -31.3765, 126.53, -150.692, 128.483, 89.4576, 0, 0, 2.44784, -54.4503, 2.46977, -173.765, 2.43223, 66.3838, 0.0655422, 28.5015
0, 840.00000, 127.667, -31.3789, 126.53, -150.692, 128.49, 89.4575, 0, 0, 2.44778, -54.4527, 2.46977, -173.765, 2.43211, 66.3837, 0.065743, 28.5308
0, 900.00000, 127.669, -31.381, 126.53, -150.692, 128.495, 89.4575, 0, 0, 2.44773, -54.4549, 2.46977, -173.765, 2.432, 66.3836, 0.0659237, 28.557
0, 960.00000, 127.672, -31.383, 126.53, -150.692, 128.5, 89.4574, 0, 0, 2.44768, -54.4568, 2.46977, -173.765, 2.4319, 66.3835, 0.0660863, 28.5805
0, 1020.00000, 127.674, -31.3847, 126.53, -150.692, 128.505, 89.4573, 0, 0, 2.44764, -54.4586, 2.46977, -173.765, 2.43182, 66.3834, 0.0662327, 28.6016
0, 1080.00000, 127.676, -31.3863, 126.53, -150.692, 128.509, 89.4573, 0, 0, 2.44761, -54.4601, 2.46977, -173.765, 2.43174, 66.3834, 0.0663645, 28.6205
0, 1140.00000, 127.678, -31.3877, 126.53, -150.692, 128.513, 89.4572, 0, 0, 2.44757, -54.4616, 2.46977, -173.765, 2.43167, 66.3833, 0.0664831, 28.6375
0, 1200.00000, 127.679, -31.3889, 126.53, -150.692, 128.516, 89.4572, 0, 0, 2.44754, -54.4628, 2.46977, -173.765, 2.4316, 66.3833, 0.0665899, 28.6527
0, 1260.00000, 127.68, -31.3901, 126.53, -150.692, 128.519, 89.4571, 0, 0, 2.44752, -54.464, 2.46977, -173.765, 2.43154, 66.3832, 0.066686, 28.6664
0, 1320.00000, 127.682, -31.3911, 126.53, -150.692, 128.522, 89.4571, 0, 0, 2.44749, -54.465, 2.46977, -173.765, 2.43149, 66.3832, 0.0667724, 28.6786
0, 1380.00000, 127.683, -31.392, 126.53, -150.692, 128.525, 89.457, 0, 0, 2.44747, -54.4659, 2.46977, -173.765, 2.43145, 66.3831, 0.0668503, 28.6897
0, 1440.00000, 127.684, -31.3929, 126.53, -150.692, 128.527, 89.457, 0, 0, 2.44745, -54.4668, 2.46977, -173.765, 2.4314, 66.3831, 0.0669203, 28.6996
0, 1500.00000, 127.685, -31.3936, 126.53, -150.692, 128.529, 89.457, 0, 0, 2.44743, -54.4675, 2.46977, -173.765, 2.43137, 66.3831, 0.0669834, 28.7085
0, 1560.00000, 127.686, -31.3943, 126.53, -150.692, 128.53, 89.457, 0, 0, 2.44742, -54.4682, 2.46977, -173.765, 2.43133, 66.383, 0.0670401, 28.7164
0, 1620.00000, 127.686, -31.3949, 126.53, -150.692, 128.532, 89.4569, 0, 0, 2.4474, -54.4688, 2.46977, -173.765, 2.4313, 66.383, 0.0670912, 28.7236
0, 1680.00000, 127.687, -31.3954, 126.53, -150.692, 128.534, 89.4569, 0, 0, 2.44739, -54.4693, 2.46977, -173.765, 2.43127, 66.383, 0.0671372, 28.7301
0, 1740.00000, 127.688, -31.3959, 126.53, -150.692, 128.535, 89.4569, 0, 0, 2.44738, -54.4698, 2.46977, -173.765, 2.43125, 66.383, 0.0671785, 28.7359
0, 1800.00000, 127.688, -31.3964, 126.53, -150.692, 128.536, 89.4569, 0, 0, 2.44737, -54.4703, 2.46977, -173.765, 2.43123, 66.383, 0.0672158, 28.7411
0, 1860.00000, 127.689, -31.3968, 126.53, -150.692, 128.537, 89.4569, 0, 0, 2.44736, -54.4707, 2.46977, -173.765, 2.43121, 66.3829, 0.0672493, 28.7458
0, 1920.00000, 127.689, -31.3971, 126.53, -150.692, 128.538, 89.4568, 0, 0, 2.44735, -54.471, 2.46977, -173.765, 2.43119, 66.3829, 0.0672794, 28.75
0, 1980.00000, 127.69, -31.3975, 126.53, -150.692, 128.539, 89.4568, 0, 0, 2.44734, -54.4714, 2.46977, -173.765, 2.43117, 66.3829, 0.0673066, 28.7538
0, 2040.00000, 127.69, -31.3977, 126.53, -150.692, 128.54, 89.4568, 0, 0, 2.44734, -54.4717, 2.46977, -173.765, 2.43116, 66.3829, 0.067331, 28.7572
0, 2100.00000, 127.69, -31.398, 126.53, -150.692, 128.54, 89.4568, 0, 0, 2.44733, -54.4719, 2.46977, -173.765, 2.43114, 66.3829, 0.067353, 28.7603
0, 2160.00000, 127.691, -31.3982, 126.53, -150.692, 128.541, 89.4568, 0, 0, 2.44732, -54.4722, 2.46977, -173.765, 2.43113, 66.3829, 0.0673728, 28.7631
0, 2220.00000, 127.691, -31.3985, 126.53, -150.692, 128.541, 89.4568, 0, 0, 2.44732, -54.4724, 2.46977, -173.765, 2.43112, 66.3829, 0.0673906, 28.7656
0, 2280.00000, 127.691, -31.3986, 126.53, -150.692, 128.542, 89.4568, 0, 0, 2.44731, -54.4726, 2.46977, -173.765, 2.43111, 66.3829, 0.0674066, 28.7678
0, 2340.00000, 127.691, -31.3988, 126.53, -150.692, 128.542, 89.4568, 0, 0, 2.44731, -54.4727, 2.46977, -173.765, 2.4311, 66.3829, 0.0674211, 28.7698
0, 2400.00000, 127.691, -31.399, 126.53, -150.692, 128.543, 89.4568, 0, 0, 2.44731, -54.4729, 2.46977, -173.765, 2.4311, 66.3829, 0.067434, 28.7716
0, 2460.00000, 127.692, -31.3991, 126.53, -150.692, 128.543, 89.4568, 0, 0, 2.4473, -54.473, 2.46977, -173.765, 2.43109, 66.3829, 0.0674457, 28.7732
0, 2520.00000, 127.692, -31.3992, 126.53, -150.692, 128.544, 89.4568, 0, 0, 2.4473, -54.4731, 2.46977, -173.765, 2.43108, 66.3829, 0.0674562, 28.7747
0, 2580.00000, 127.692, -31.3993, 126.53, -150.692, 128.544, 89.4568, 0, 0, 2.4473, -54.4733, 2.46977, -173.765, 2.43108, 66.3829, 0.0674657, 28.776
0, 2640.00000, 127.692, -31.3995, 126.53, -150.692, 128.544, 89.4568, 0, 0, 2.4473, -54.4734, 2.46977, -173.765, 2.43107, 66.3828, 0.0674742, 28.7772
0, 2700.00000, 127.692, -31.3995, 126.53, -150.692, 128.544, 89.4568, 0, 0, 2.44729, -54.4735, 2.46977, -173.765, 2.43107, 66.3828, 0.0674819, 28.7783
0, 2760.00000, 127.692, -31.3996, 126.53, -150.692, 128.545, 89.4568, 0, 0, 2.44729, -54.4735, 2.46977, -173.765, 2.43106, 66.3828, 0.0674888, 28.7792
0, 2820.00000, 127.692, -31.3997, 126.53, -150.692, 128.545, 89.4567, 0, 0, 2.44729, -54.4736, 2.46977, -173.765, 2.43106, 66.3828, 0.067495, 28.7801
0, 2880.00000, 127.692, -31.3998, 126.53, -150.692, 128.545, 89.4567, 0, 0, 2.44729, -54.4737, 2.46977, -173.765, 2.43106, 66.3828, 0.0675006, 28.7809
0, 2940.00000, 127.692, -31.3998, 126.53, -150.692, 128.545, 89.4567, 0, 0, 2.44729, -54.4737, 2.46977, -173.765, 2.43105, 66.3828, 0.0675056, 28.7816
0, 3000.00000, 127.693, -31.3999, 126.53, -150.692, 128.545, 89.4567, 0, 0, 2.44729, -54.4738, 2.46977, -173.765, 2.43105, 66.3828, 0.0675102, 28.7822
0, 3060.00000, 127.693, -31.3999, 126.53, -150.692, 128.545, 89.4567, 0, 0, 2.44728, -54.4738, 2.46977, -173.765, 2.43105, 66.3828, 0.0675142, 28.7828
0, 3120.00000, 127.693, -31.4, 126.53, -150.692, 128.546, 89.4567, 0, 0, 2.44728, -54.4739, 2.46977, -173.765, 2.43105, 66.3828, 0.0675179, 28.7833
0, 3180.00000, 127.693, -31.4, 126.53, -150.692, 128.546, 89.4567, 0, 0, 2.44728, -54.4739, 2.46977, -173.765, 2.43104, 66.3828, 0.0675212, 28.7838
0, 3240.00000, 127.693, -31.4, 126.53, -150.692, 128.546, 89.4567, 0, 0, 2.44728, -54.474, 2.46977, -173.765, 2.43104, 66.3828, 0.0675242, 28.7842
0, 3300.00000, 127.693, -31.4001, 126.53, -150.692, 128.546, 89.4567, 0, 0, 2.44728, -54.474, 2.46977, -173.765, 2.43104, 66.3828, 0.0675268, 28.7845
0, 3360.00000, 127.693, -31.4001, 126.53, -150.692, 128.546, 89.4567, 0, 0, 2.44728, -54.474, 2.46977, -173.765, 2.43104, 66.3828, 0.0675293, 28.7849
0, 3420.00000, 127.693, -31.4001, 126.53, -150.692, 128.546, 89.4567, 0, 0, 2.44728, -54.474, 2.46977, -173.765, 2.43104, 66.3828, 0.0675314, 28.7852
0, 3480.00000, 127.693, -31.4002, 126.53, -150.692, 128.546, 89.4567, 0, 0, 2.44728, -54.4741, 2.46977, -173.765, 2.43104, 66.3828, 0.0675334, 28.7854
0, 3540.00000, 127.693, -31.4002, 126.53, -150.692, 128.546, 89.4567, 0, 0, 2.44728, -54.4741, 2.46977, -173.765, 2.43104, 66.3828, 0.0675351, 28.7857
1, 0.00000, 127.693, -31.4002, 126.53, -150.692, 128.546, 89.4567, 0, 0, 2.44728, -54.4741, 2.46977, -173.765, 2.43103, 66.3828, 0.0675367, 28.7859
1, 60.00000, 127.693, -31.4002, 126.53, -150.692, 128.546, 89.4567, 0, 0, 2.44728, -54.4741, 2.46977, -173.765, 2.43103, 66.3828, 0.0675381, 28.7861
1, 120.00000, 127.693, -31.4002, 126.53, -150.692, 128.546, 89.4567, 0, 0, 2.44728, -54.4741, 2.46977, -173.765, 2.43103, 66.3828, 0.0675394, 28.7863
1, 180.00000, 127.693, -31.4002, 126.53, -150.692, 128.546, 89.4567, 0, 0, 2.44728, -54.4742, 2.46977, -173.765, 2.43103, 66.3828, 0.0675405, 28.7864
1, 240.00000, 127.693, -31.4002, 126.53, -150.692, 128.546, 89.4567, 0, 0, 2.44728, -54.4742, 2.46977, -173.765, 2.43103, 66.3828, 0.0675416, 28.7866
1, 300.00000, 127.693, -31.4003, 126.53, -150.692, 128.546, 89.4567, 0, 0, 2.44728, -54.4742, 2.46977, -173.765, 2.43103, 66.3828, 0.0675425, 28.7867
1, 360.00000, 127.693, -31.4003, 126.53, -150.692, 128.546, 89.4567, 0, 0, 2.44728, -54.4742, 2.46977, -173.765, 2.43103, 66.3828, 0.0675434, 28.7868
1, 420.00000, 127.693, -31.4003, 126.53, -150.692, 128.546, 89.4567, 0, 0, 2.44728, -54.4742, 2.46977, -173.765, 2.43103, 66.3828, 0.0675441, 28.7869
1, 480.00000, 127.693, -31.4003, 126.53, -150.692, 128.546, 89.4567, 0, 0, 2.44728, -54.4742, 2.46977, -173.765, 2.43103, 66.3828, 0.0675448, 28.787
1, 540.00000, 127.693, -31.4003, 126.53, -150.692, 128.546, 89.4567, 0, 0, 2.44728, -54.4742, 2.46977, -173.765, 2.43103, 66.3828, 0.0675454, 28.7871
1, 600.00000, 127.693, -31.4003, 126.53, -150.692, 128.546, 89.4567, 0, 0, 2.44728, -54.4742, 2.46977, -173.765, 2.43103, 66.3828, 0.067546, 28.7872
1, 660.00000, 127.694, -31.4021, 126.646, -150.526, 128.935, 89.4968, 0, 0, 2.44726, -54.476, 2.4675, -173.6, 2.42371, 66.4229, 0.0758159, 36.7983
1, 720.00000, 127.694, -31.4021, 126.646, -150.526, 128.935, 89.4968, 0, 0, 2.44726, -54.476, 2.4675, -173.6, 2.42371, 66.4229, 0.0758164, 36.7983
1, 780.00000, 127.694, -31.4021, 126.646, -150.526, 128.935, 89.4968, 0, 0, 2.44726, -54.476, 2.4675, -173.6, 2.42371, 66.4229, 0.0758168, 36.7983
1, 840.00000, 127.694, -31.4021, 126.646, -150.526, 128.935, 89.4968, 0, 0, 2.44726, -54.476, 2.4675, -173.6, 2.42371, 66.4229, 0.0758172, 36.7983
1, 900.00000, 127.694, -31.4021, 126.646, -150.526, 128.935, 89.4968, 0, 0, 2.44726, -54.476, 2.4675, -173.6, 2.42371, 66.4229, 0.0758175, 36.7983
1, 960.00000, 127.694, -31.4021, 126.646, -150.526, 128.935, 89.4968, 0, 0, 2.44726, -54.476, 2.4675, -173.6, 2.42371, 66.4229, 0.0758178, 36.7983
1, 1020.00000, 127.694, -31.4021, 126.646, -150.526, 128.935, 89.4968, 0, 0, 2.44726, -54.476, 2.4675, -173.6, 2.42371, 66.4229, 0.0758181, 36.7983
1, 1080.00000, 127.694, -31.4021, 126.646, -150.526, 128.935, 89.4968, 0, 0, 2.44726, -54.476, 2.4675, -173.6, 2.42371, 66.4229, 0.0758183, 36.7983
1, 1140.00000, 127.694, -31.4021, 126.646, -150.526, 128.935, 89.4968, 0, 0, 2.44726, -54.476, 2.4675, -173.6, 2.42371, 66.4229, 0.0758185, 36.7983
1, 1200.00000, 127.694, -31.4021, 126.646, -150.526, 128.935, 89.4968, 0, 0, 2.44726, -54.476, 2.4675, -173.6, 2.42371, 66.4229, 0.0758187, 36.7983
1, 1260.00000, 127.694, -31.4021, 126.646, -150.526, 128.935, 89.4968, 0, 0, 2.44726, -54.476, 2.4675, -173.6, 2.42371, 66.4229, 0.0758189, 36.7984
1, 1320.00000, 127.694, -31.4021, 126.646, -150.526, 128.935, 89.4968, 0, 0, 2.44726, -54.476, 2.4675, -173.6, 2.42371, 66.4229, 0.075819, 36.7984
1, 1380.00000, 127.694, -31.4021, 126.646, -150.526, 128.935, 89.4968, 0, 0, 2.44726, -54.476, 2.4675, -173.6, 2.42371, 66.4229, 0.0758192, 36.7984
1, 1440.00000, 127.694, -31.4021, 126.646, -150.526, 128.935, 89.4968, 0, 0, 2.44726, -54.476, 2.4675, -173.6, 2.42371, 66.4229, 0.0758193, 36.7984
1, 1500.00000, 127.694, -31.4021, 126.646, -150.526, 128.935, 89.4968, 0, 0, 2.44726, -54.476, 2.4675, -173.6, 2.42371, 66.4229, 0.0758194, 36.7984
1, 1560.00000, 127.694, -31.4021, 126.646, -150.526, 128.935, 89.4968, 0, 0, 2.44726, -54.476, 2.4675, -173.6, 2.42371, 66.4229, 0.0758195, 36.7984
1, 1620.00000, 127.694, -31.4021, 126.646, -150.526, 128.935, 89.4968, 0, 0, 2.44726, -54.476, 2.4675, -173.6, 2.42371, 66.4229, 0.0758196, 36.7984
1, 1680.00000, 127.694, -31.4021, 126.646, -150.526, 128.935, 89.4968, 0, 0, 2.44726, -54.476, 2.4675, -173.6, 2.42371, 66.4229, 0.0758197, 36.7984
1, 1740.00000, 127.694, -31.4021, 126.646, -150.526, 128.935, 89.4968, 0, 0, 2.44726, -54.476, 2.4675, -173.6, 2.42371, 66.4229, 0.0758198, 36.7984
1, 1800.00000, 127.694, -31.4021, 126.646, -150.526, 128.935, 89.4968, 0, 0, 2.44726, -54.476, 2.4675, -173.6, 2.42371, 66.4229, 0.0758198, 36.7984
1, 1860.00000, 127.694, -31.4021, 126.646, -150.526, 128.935, 89.4968, 0, 0, 2.44726, -54.476, 2.4675, -173.6, 2.42371, 66.4229, 0.0758199, 36.7984
1, 1920.00000, 127.694, -31.4021, 126.646, -150.526, 128.935, 89.4968, 0, 0, 2.44726, -54.476, 2.4675, -173.6, 2.42371, 66.4229, 0.07582, 36.7984
1, 1980.00000, 127.694, -31.4021, 126.646, -150.526, 128.935, 89.4968, 0, 0, 2.44726, -54.476, 2.4675, -173.6, 2.42371, 66.4229, 0.07582, 36.7984
1, 2040.00000, 127.694, -31.4021, 126.646, -150.526, 128.935, 89.4968, 0, 0, 2.44726, -54.476, 2.4675, -173.6, 2.42371, 66.4229, 0.0758201, 36.7984
1, 2100.00000, 127.694, -31.4021, 126.646, -150.526, 128.935, 89.4968, 0, 0, 2.44726, -54.476, 2.4675, -173.6, 2.42371, 66.4229, 0.0758201, 36.7984
1, 2160.00000, 127.694, -31.4021, 126.646, -150.526, 128.935, 89.4968, 0, 0, 2.44726, -54.476, 2.4675, -173.6, 2.42371, 66.4229, 0.0758201, 36.7984
1, 2220.00000, 127.694, -31.4021, 126.646, -150.526, 128.935, 89.4968, 0, 0, 2.44726, -54.476, 2.4675, -173.6, 2.42371, 66.4229, 0.0758202, 36.7984
1, 2280.00000, 127.694, -31.4021, 126.646, -150.526, 128.935, 89.4968, 0, 0, 2.44726, -54.476, 2.4675, -173.6, 2.42371, 66.4229, 0.0758202, 36.7984
1, 2340.00000, 127.694, -31.4021, 126.646, -150.526, 128.935, 89.4968, 0, 0, 2.44726, -54.476, 2.4675, -173.6, 2.42371, 66.4229, 0.0758202, 36.7984
1, 2400.00000, 127.694, -31.4021, 126.646, -150.526, 128.935, 89.4968, 0, 0, 2.44726, -54.476, 2.4675, -173.6, 2.42371, 66.4229, 0.0758202, 36.7984
1, 2460.00000, 127.694, -31.4021, 126.646, -150.526, 128.935, 89.4968, 0, 0, 2.44726, -54.476, 2.4675, -173.6, 2.42371, 66.4229, 0.0758203, 36.7984
1, 2520.00000, 127.694, -31.4021, 126.646, -150.526, 128.935, 89.4968, 0, 0, 2.44726, -54.476, 2.4675, -173.6, 2.42371, 66.4229, 0.0758203, 36.7984
1, 2580.00000, 127.694, -31.4021, 126.646, -150.526, 128.935, 89.4968, 0, 0, 2.44726, -54.476, 2.4675, -173.6, 2.42371, 66.4229, 0.0758203, 36.7984
1, 2640.00000, 127.694, -31.4021, 126.646, -150.526, 128.935, 89.4968, 0, 0, 2.44726, -54.476, 2.4675, -173.6, 2.42371, 66.4229, 0.0758203, 36.7984
1, 2700.00000, 127.694, -31.4021, 126.646, -150.526, 128.935, 89.4968, 0, 0, 2.44726, -54.476, 2.4675, -173.6, 2.42371, 66.4229, 0.0758203, 36.7984
1, 2760.00000, 127.694, -31.4021, 126.646, -150.526, 128.935, 89.4968, 0, 0, 2.44726, -54.476, 2.4675, -173.6, 2.42371, 66.4229, 0.0758203, 36.7984
1, 2820.00000, 127.694, -31.4021, 126.646, -150.526, 128.935, 89.4968, 0, 0, 2.44726, -54.476, 2.4675, -173.6, 2.42371, 66.4229, 0.0758203, 36.7984
1, 2880.00000, 127.694, -31.4021, 126.646, -150.526, 128.935, 89.4968, 0, 0, 2.44726, -54.476, 2.4675, -173.6, 2.42371, 66.4229, 0.0758204, 36.7984
1, 2940.00000, 127.694, -31.4021, 126.646, -150.526, 128.935, 89.4968, 0, 0, 2.44726, -54.476, 2.4675, -173.6, 2.42371, 66.4229, 0.0758204, 36.7984
1, 3000.00000, 127.694, -31.4021, 126.646, -150.526, 128.935, 89.4968, 0, 0, 2.44726, -54.476, 2.4675, -173.6, 2.42371, 66.4229, 0.0758204, 36.7984
1, 3060.00000, 127.694, -31.4021, 126.646, -150.526, 128.935, 89.4968, 0, 0, 2.44726, -54.476, 2.4675, -173.6, 2.42371, 66.4229, 0.0758204, 36.7984
1, 3120.00000, 127.694, -31.4021, 126.646, -150.526, 128.935, 89.4968, 0, 0, 2.44726, -54.476, 2.4675, -173.6, 2.42371, 66.4229, 0.0758204, 36.7984
1, 3180.00000, 127.694, -31.4021, 126.646, -150.526, 128.935, 89.4968, 0, 0, 2.44726, -54.476, 2.4675, -173.6, 2.42371, 66.4229, 0.0758204, 36.7984
1, 3240.00000, 127.694, -31.4021, 126.646, -150.526, 128.935, 89.4968, 0, 0, 2.44726, -54.476, 2.4675, -173.6, 2.42371, 66.4229, 0.0758204, 36.7984
1, 3300.00000, 127.694, -31.4021, 126.646, -150.526, 128.935, 89.4968, 0, 0, 2.44726, -54.476, 2.4675, -173.6, 2.42371, 66.4229, 0.0758204, 36.7984
1, 3360.00000, 127.694, -31.4021, 126.646, -150.526, 128.935, 89.4968, 0, 0, 2.44726, -54.476, 2.4675, -173.6, 2.42371, 66.4229, 0.0758204, 36.7984
1, 3420.00000, 127.694, -31.4021, 126.646, -150.526, 128.935, 89.4968, 0, 0, 2.44726, -54.476, 2.4675, -173.6, 2.42371, 66.4229, 0.0758204, 36.7984
1, 3480.00000, 127.694, -31.4021, 126.646, -150.526, 128.935, 89.4968, 0, 0, 2.44726, -54.476, 2.4675, -173.6, 2.42371, 66.4229, 0.0758204, 36.7984
1, 3540.00000, 127.694, -31.4021, 126.646, -150.526, 128.935, 89.4968, 0, 0, 2.44726, -54.476, 2.4675, -173.6, 2.42371, 66.4229, 0.0758204, 36.7984
2, 0.00000, 127.694, -31.4021, 126.646, -150.526, 128.935, 89.4968, 0, 0, 2.44726, -54.476, 2.4675, -173.6, 2.42371, 66.4229, 0.0758204, 36.7984
2, 60.00000, 127.694, -31.4021, 126.646, -150.526, 128.935, 89.4968, 0, 0, 2.44726, -54.476, 2.4675, -173.6, 2.42371, 66.4229, 0.0758204, 36.7984
2, 120.00000, 127.689, -31.4032, 126.642, -150.527, 128.93, 89.4958, 0, 0, 2.45413, -54.4771, 2.47441, -173.601, 2.4305, 66.4219, 0.0760343, 36.8008
2, 180.00000, 127.684, -31.4042, 126.637, -150.528, 128.926, 89.4947, 0, 0, 2.46107, -54.4781, 2.48141, -173.602, 2.43737, 66.4208, 0.0762508, 36.8032
2, 240.00000, 127.679, -31.4053, 126.633, -150.53, 128.921, 89.4937, 0, 0, 2.46794, -54.4792, 2.48833, -173.603, 2.44416, 66.4198, 0.0764647, 36.8056
2, 300.00000, 127.674, -31.4063, 126.629, -150.531, 128.917, 89.4927, 0, 0, 2.4748, -54.4802, 2.49524, -173.604, 2.45095, 66.4188, 0.0766786, 36.8079
2, 360.00000, 127.67, -31.4074, 126.624, -150.532, 128.912, 89.4916, 0, 0, 2.48175, -54.4813, 2.50224, -173.606, 2.45783, 66.4177, 0.0768952, 36.8104
2, 420.00000, 127.665, -31.4084, 126.62, -150.533, 128.908, 89.4906, 0, 0, 2.48861, -54.4823, 2.50916, -173.607, 2.46462, 66.4167, 0.0771092, 36.8128
2, 480.00000, 127.66, -31.4095, 126.615, -150.534, 128.903, 89.4896, 0, 0, 2.49548, -54.4834, 2.51608, -173.608, 2.47141, 66.4157, 0.0773232, 36.8152
2, 540.00000, 127.655, -31.4105, 126.61, -150.535, 128.899, 89.4886, 0, 0, 2.50243, -54.4844, 2.52308, -173.609, 2.47829, 66.4146, 0.0775398, 36.8176
2, 600.00000, 127.65, -31.4116, 126.606, -150.536, 128.894, 89.4875, 0, 0, 2.5093, -54.4855, 2.52999, -173.61, 2.48508, 66.4136, 0.0777539, 36.82
2, 660.00000, 127.646, -31.4126, 126.602, -150.537, 128.89, 89.4865, 0, 0, 2.51616, -54.4865, 2.53691, -173.611, 2.49188, 66.4126, 0.077968, 36.8224
2, 720.00000, 127.641, -31.4137, 126.597, -150.538, 128.885, 89.4855, 0, 0, 2.52311, -54.4876, 2.54392, -173.612, 2.49875, 66.4116, 0.0781846, 36.8248
2, 780.00000, 127.636, -31.4147, 126.593, -150.539, 128.881, 89.4844, 0, 0, 2.52998, -54.4887, 2.55084, -173.613, 2.50555, 66.4105, 0.0783988, 36.8272
